# MHZ S MA R 50

50 0.995 -5.741 0.1 84.245 0.1 84.245 0.995 -5.741
74.958 0.989 -8.572 0.149 81.407 0.149 81.407 0.989 -8.572
99.917 0.98 -11.363 0.197 78.609 0.197 78.609 0.98 -11.363
124.875 0.97 -14.102 0.244 75.864 0.244 75.864 0.97 -14.102
149.833 0.957 -16.778 0.289 73.181 0.289 73.181 0.957 -16.778
174.792 0.943 -19.383 0.332 70.569 0.332 70.569 0.943 -19.383
199.75 0.927 -21.91 0.373 68.035 0.373 68.035 0.927 -21.91
224.708 0.911 -24.353 0.412 65.586 0.412 65.586 0.911 -24.353
249.667 0.893 -26.707 0.449 63.224 0.449 63.224 0.893 -26.707
274.625 0.874 -28.972 0.484 60.953 0.484 60.953 0.874 -28.972
299.583 0.855 -31.144 0.517 58.773 0.517 58.773 0.855 -31.144
324.542 0.836 -33.225 0.548 56.686 0.548 56.686 0.836 -33.225
349.5 0.816 -35.215 0.577 54.689 0.577 54.689 0.816 -35.215
374.458 0.796 -37.115 0.603 52.782 0.603 52.782 0.796 -37.115
399.417 0.777 -38.928 0.628 50.962 0.628 50.962 0.777 -38.928
424.375 0.757 -40.656 0.652 49.227 0.652 49.227 0.757 -40.656
449.333 0.738 -42.303 0.673 47.573 0.673 47.573 0.738 -42.303
474.292 0.719 -43.872 0.693 45.997 0.693 45.997 0.719 -43.872
499.25 0.701 -45.366 0.712 44.496 0.712 44.496 0.701 -45.366
524.208 0.683 -46.788 0.729 43.066 0.729 43.066 0.683 -46.788
549.167 0.665 -48.143 0.745 41.704 0.745 41.704 0.665 -48.143
574.125 0.648 -49.434 0.76 40.406 0.76 40.406 0.648 -49.434
599.083 0.632 -50.664 0.773 39.169 0.773 39.169 0.632 -50.664
624.042 0.616 -51.836 0.786 37.989 0.786 37.989 0.616 -51.836
649 0.6 -52.954 0.798 36.864 0.798 36.864 0.6 -52.954
673.958 0.585 -54.021 0.809 35.791 0.809 35.791 0.585 -54.021
698.917 0.57 -55.039 0.82 34.765 0.82 34.765 0.57 -55.039
723.875 0.556 -56.011 0.829 33.786 0.829 33.786 0.556 -56.011
748.833 0.542 -56.94 0.838 32.849 0.838 32.849 0.542 -56.94
773.792 0.529 -57.829 0.846 31.953 0.846 31.953 0.529 -57.829
798.75 0.516 -58.679 0.854 31.095 0.854 31.095 0.516 -58.679
823.708 0.504 -59.493 0.862 30.274 0.862 30.274 0.504 -59.493
848.667 0.492 -60.273 0.868 29.487 0.868 29.487 0.492 -60.273
873.625 0.481 -61.02 0.875 28.731 0.875 28.731 0.481 -61.02
898.583 0.47 -61.738 0.881 28.007 0.881 28.007 0.47 -61.738
923.542 0.459 -62.426 0.886 27.31 0.886 27.31 0.459 -62.426
948.5 0.448 -63.087 0.892 26.641 0.892 26.641 0.448 -63.087
973.458 0.438 -63.723 0.897 25.998 0.897 25.998 0.438 -63.723
998.417 0.429 -64.334 0.901 25.379 0.901 25.379 0.429 -64.334
1023.375 0.419 -64.923 0.906 24.783 0.906 24.783 0.419 -64.923
1048.333 0.41 -65.489 0.91 24.208 0.91 24.208 0.41 -65.489
1073.292 0.401 -66.035 0.914 23.654 0.914 23.654 0.401 -66.035
1098.25 0.393 -66.561 0.917 23.12 0.917 23.12 0.393 -66.561
1123.208 0.384 -67.069 0.921 22.604 0.921 22.604 0.384 -67.069
1148.167 0.376 -67.559 0.924 22.106 0.924 22.106 0.376 -67.559
1173.125 0.369 -68.032 0.927 21.625 0.927 21.625 0.369 -68.032
1198.083 0.361 -68.49 0.93 21.159 0.93 21.159 0.361 -68.49
1223.042 0.354 -68.932 0.933 20.708 0.933 20.708 0.354 -68.932
1248 0.346 -69.36 0.936 20.272 0.936 20.272 0.346 -69.36
1272.958 0.34 -69.774 0.938 19.849 0.938 19.849 0.34 -69.774
1297.917 0.333 -70.175 0.941 19.44 0.941 19.44 0.333 -70.175
1322.875 0.326 -70.563 0.943 19.043 0.943 19.043 0.326 -70.563
1347.833 0.32 -70.94 0.945 18.657 0.945 18.657 0.32 -70.94
1372.792 0.314 -71.305 0.947 18.283 0.947 18.283 0.314 -71.305
1397.75 0.308 -71.659 0.949 17.92 0.949 17.92 0.308 -71.659
1422.708 0.302 -72.003 0.951 17.567 0.951 17.567 0.302 -72.003
1447.667 0.296 -72.338 0.953 17.224 0.953 17.224 0.296 -72.338
1472.625 0.291 -72.662 0.955 16.89 0.955 16.89 0.291 -72.662
1497.583 0.285 -72.977 0.956 16.565 0.956 16.565 0.285 -72.977
1522.542 0.28 -73.284 0.958 16.249 0.958 16.249 0.28 -73.284
1547.5 0.275 -73.583 0.959 15.941 0.959 15.941 0.275 -73.583
1572.458 0.27 -73.873 0.961 15.641 0.961 15.641 0.27 -73.873
1597.417 0.265 -74.155 0.962 15.349 0.962 15.349 0.265 -74.155
1622.375 0.26 -74.431 0.963 15.064 0.963 15.064 0.26 -74.431
1647.333 0.255 -74.699 0.965 14.786 0.965 14.786 0.255 -74.699
1672.292 0.251 -74.96 0.966 14.514 0.966 14.514 0.251 -74.96
1697.25 0.246 -75.215 0.967 14.249 0.967 14.249 0.246 -75.215
1722.208 0.242 -75.463 0.968 13.991 0.968 13.991 0.242 -75.463
1747.167 0.237 -75.705 0.969 13.738 0.969 13.738 0.237 -75.705
1772.125 0.233 -75.942 0.97 13.491 0.97 13.491 0.233 -75.942
1797.083 0.229 -76.173 0.971 13.249 0.971 13.249 0.229 -76.173
1822.042 0.225 -76.398 0.972 13.013 0.972 13.013 0.225 -76.398
1847 0.221 -76.618 0.973 12.782 0.973 12.782 0.221 -76.618
1871.958 0.217 -76.833 0.974 12.556 0.974 12.556 0.217 -76.833
1896.917 0.214 -77.043 0.975 12.335 0.975 12.335 0.214 -77.043
1921.875 0.21 -77.248 0.975 12.118 0.975 12.118 0.21 -77.248
1946.833 0.206 -77.449 0.976 11.906 0.976 11.906 0.206 -77.449
1971.792 0.203 -77.645 0.977 11.697 0.977 11.697 0.203 -77.645
1996.75 0.199 -77.837 0.978 11.494 0.978 11.494 0.199 -77.837
2021.708 0.196 -78.025 0.978 11.294 0.978 11.294 0.196 -78.025
2046.667 0.192 -78.209 0.979 11.097 0.979 11.097 0.192 -78.209
2071.625 0.189 -78.389 0.98 10.905 0.98 10.905 0.189 -78.389
2096.583 0.186 -78.565 0.98 10.716 0.98 10.716 0.186 -78.565
2121.542 0.183 -78.737 0.981 10.531 0.981 10.531 0.183 -78.737
2146.5 0.18 -78.906 0.981 10.349 0.981 10.349 0.18 -78.906
2171.458 0.177 -79.071 0.982 10.17 0.982 10.17 0.177 -79.071
2196.417 0.174 -79.233 0.982 9.995 0.982 9.995 0.174 -79.233
2221.375 0.171 -79.392 0.983 9.822 0.983 9.822 0.171 -79.392
2246.333 0.168 -79.548 0.984 9.653 0.984 9.653 0.168 -79.548
2271.292 0.165 -79.7 0.984 9.486 0.984 9.486 0.165 -79.7
2296.25 0.162 -79.849 0.984 9.322 0.984 9.322 0.162 -79.849
2321.208 0.159 -79.996 0.985 9.161 0.985 9.161 0.159 -79.996
2346.167 0.156 -80.139 0.985 9.002 0.985 9.002 0.156 -80.139
2371.125 0.154 -80.28 0.986 8.846 0.986 8.846 0.154 -80.28
2396.083 0.151 -80.418 0.986 8.693 0.986 8.693 0.151 -80.418
2421.042 0.149 -80.553 0.987 8.541 0.987 8.541 0.149 -80.553
2446 0.146 -80.685 0.987 8.393 0.987 8.393 0.146 -80.685
2470.958 0.143 -80.815 0.987 8.246 0.987 8.246 0.143 -80.815
2495.917 0.141 -80.943 0.988 8.102 0.988 8.102 0.141 -80.943
2520.875 0.138 -81.068 0.988 7.959 0.988 7.959 0.138 -81.068
2545.833 0.136 -81.19 0.988 7.819 0.988 7.819 0.136 -81.19
2570.792 0.134 -81.31 0.989 7.681 0.989 7.681 0.134 -81.31
2595.75 0.131 -81.428 0.989 7.545 0.989 7.545 0.131 -81.428
2620.708 0.129 -81.544 0.989 7.41 0.989 7.41 0.129 -81.544
2645.667 0.127 -81.657 0.99 7.278 0.99 7.278 0.127 -81.657
2670.625 0.124 -81.768 0.99 7.147 0.99 7.147 0.124 -81.768
2695.583 0.122 -81.877 0.99 7.018 0.99 7.018 0.122 -81.877
2720.542 0.12 -81.983 0.99 6.891 0.99 6.891 0.12 -81.983
2745.5 0.118 -82.088 0.991 6.766 0.991 6.766 0.118 -82.088
2770.458 0.116 -82.19 0.991 6.642 0.991 6.642 0.116 -82.19
2795.417 0.114 -82.29 0.991 6.519 0.991 6.519 0.114 -82.29
2820.375 0.111 -82.388 0.991 6.398 0.991 6.398 0.111 -82.388
2845.333 0.109 -82.485 0.992 6.279 0.992 6.279 0.109 -82.485
2870.292 0.107 -82.579 0.992 6.161 0.992 6.161 0.107 -82.579
2895.25 0.105 -82.67 0.992 6.045 0.992 6.045 0.105 -82.67
2920.208 0.103 -82.76 0.992 5.93 0.992 5.93 0.103 -82.76
2945.167 0.101 -82.848 0.992 5.816 0.992 5.816 0.101 -82.848
2970.125 0.099 -82.934 0.993 5.704 0.993 5.704 0.099 -82.934
2995.083 0.097 -83.018 0.993 5.593 0.993 5.593 0.097 -83.018
3020.042 0.096 -83.1 0.993 5.483 0.993 5.483 0.096 -83.1
3045 0.094 -83.179 0.993 5.375 0.993 5.375 0.094 -83.179
3069.958 0.092 -83.257 0.993 5.267 0.993 5.267 0.092 -83.257
3094.917 0.09 -83.333 0.994 5.161 0.994 5.161 0.09 -83.333
3119.875 0.088 -83.406 0.994 5.056 0.994 5.056 0.088 -83.406
3144.833 0.086 -83.478 0.994 4.952 0.994 4.952 0.086 -83.478
3169.792 0.085 -83.547 0.994 4.85 0.994 4.85 0.085 -83.547
3194.75 0.083 -83.614 0.994 4.748 0.994 4.748 0.083 -83.614
3219.708 0.081 -83.679 0.994 4.647 0.994 4.647 0.081 -83.679
3244.667 0.079 -83.742 0.994 4.548 0.994 4.548 0.079 -83.742
3269.625 0.078 -83.803 0.995 4.449 0.995 4.449 0.078 -83.803
3294.583 0.076 -83.861 0.995 4.351 0.995 4.351 0.076 -83.861
3319.542 0.074 -83.917 0.995 4.255 0.995 4.255 0.074 -83.917
3344.5 0.073 -83.971 0.995 4.159 0.995 4.159 0.073 -83.971
3369.458 0.071 -84.022 0.995 4.064 0.995 4.064 0.071 -84.022
3394.417 0.069 -84.07 0.995 3.97 0.995 3.97 0.069 -84.07
3419.375 0.068 -84.116 0.995 3.877 0.995 3.877 0.068 -84.116
3444.333 0.066 -84.159 0.995 3.785 0.995 3.785 0.066 -84.159
3469.292 0.064 -84.2 0.996 3.694 0.996 3.694 0.064 -84.2
3494.25 0.063 -84.237 0.996 3.603 0.996 3.603 0.063 -84.237
3519.208 0.061 -84.272 0.996 3.514 0.996 3.514 0.061 -84.272
3544.167 0.06 -84.303 0.996 3.425 0.996 3.425 0.06 -84.303
3569.125 0.058 -84.331 0.996 3.337 0.996 3.337 0.058 -84.331
3594.083 0.057 -84.356 0.996 3.249 0.996 3.249 0.057 -84.356
3619.042 0.055 -84.377 0.996 3.163 0.996 3.163 0.055 -84.377
3644 0.054 -84.394 0.996 3.077 0.996 3.077 0.054 -84.394
3668.958 0.052 -84.407 0.996 2.992 0.996 2.992 0.052 -84.407
3693.917 0.051 -84.416 0.996 2.907 0.996 2.907 0.051 -84.416
3718.875 0.049 -84.42 0.996 2.823 0.996 2.823 0.049 -84.42
3743.833 0.048 -84.42 0.996 2.74 0.996 2.74 0.048 -84.42
3768.792 0.046 -84.414 0.997 2.658 0.997 2.658 0.046 -84.414
3793.75 0.045 -84.403 0.997 2.576 0.997 2.576 0.045 -84.403
3818.708 0.044 -84.386 0.997 2.495 0.997 2.495 0.044 -84.386
3843.667 0.042 -84.362 0.997 2.414 0.997 2.414 0.042 -84.362
3868.625 0.041 -84.332 0.997 2.334 0.997 2.334 0.041 -84.332
3893.583 0.039 -84.294 0.997 2.255 0.997 2.255 0.039 -84.294
3918.542 0.038 -84.248 0.997 2.176 0.997 2.176 0.038 -84.248
3943.5 0.037 -84.193 0.997 2.098 0.997 2.098 0.037 -84.193
3968.458 0.035 -84.129 0.997 2.021 0.997 2.021 0.035 -84.129
3993.417 0.034 -84.054 0.997 1.944 0.997 1.944 0.034 -84.054
4018.375 0.033 -83.967 0.997 1.867 0.997 1.867 0.033 -83.967
4043.333 0.031 -83.867 0.997 1.791 0.997 1.791 0.031 -83.867
4068.292 0.03 -83.752 0.997 1.716 0.997 1.716 0.03 -83.752
4093.25 0.029 -83.621 0.997 1.641 0.997 1.641 0.029 -83.621
4118.208 0.027 -83.471 0.997 1.566 0.997 1.566 0.027 -83.471
4143.167 0.026 -83.3 0.997 1.493 0.997 1.493 0.026 -83.3
4168.125 0.025 -83.106 0.997 1.419 0.997 1.419 0.025 -83.106
4193.083 0.024 -82.884 0.997 1.346 0.997 1.346 0.024 -82.884
4218.042 0.022 -82.631 0.997 1.274 0.997 1.274 0.022 -82.631
4243 0.021 -82.341 0.997 1.202 0.997 1.202 0.021 -82.341
4267.958 0.02 -82.008 0.997 1.13 0.997 1.13 0.02 -82.008
4292.917 0.019 -81.623 0.997 1.059 0.997 1.059 0.019 -81.623
4317.875 0.017 -81.178 0.997 0.989 0.997 0.989 0.017 -81.178
4342.833 0.016 -80.658 0.997 0.919 0.997 0.919 0.016 -80.658
4367.792 0.015 -80.047 0.998 0.849 0.998 0.849 0.015 -80.047
4392.75 0.014 -79.322 0.998 0.78 0.998 0.78 0.014 -79.322
4417.708 0.013 -78.453 0.998 0.711 0.998 0.711 0.013 -78.453
4442.667 0.011 -77.398 0.998 0.642 0.998 0.642 0.011 -77.398
4467.625 0.01 -76.096 0.998 0.574 0.998 0.574 0.01 -76.096
4492.583 9.153e-3 -74.458 0.998 0.506 0.998 0.506 9.153e-3 -74.458
4517.542 8.025e-3 -72.349 0.998 0.439 0.998 0.439 8.025e-3 -72.349
4542.5 6.918e-3 -69.552 0.998 0.372 0.998 0.372 6.918e-3 -69.552
4567.458 5.841e-3 -65.705 0.998 0.306 0.998 0.306 5.841e-3 -65.705
4592.417 4.808e-3 -60.168 0.998 0.24 0.998 0.24 4.808e-3 -60.168
4617.375 3.852e-3 -51.767 0.998 0.174 0.998 0.174 3.852e-3 -51.767
4642.333 3.035e-3 -38.419 0.998 0.108 0.998 0.108 3.035e-3 -38.419
4667.292 2.492e-3 -17.587 0.998 0.043 0.998 0.043 2.492e-3 -17.587
4692.25 2.404e-3 8.959 0.998 -0.022 0.998 -0.022 2.404e-3 8.959
4717.208 2.808e-3 32.181 0.998 -0.086 0.998 -0.086 2.808e-3 32.181
4742.167 3.534e-3 47.634 0.998 -0.15 0.998 -0.15 3.534e-3 47.634
4767.125 4.421e-3 57.302 0.998 -0.214 0.998 -0.214 4.421e-3 57.302
4792.083 5.388e-3 63.571 0.998 -0.277 0.998 -0.277 5.388e-3 63.571
4817.042 6.394e-3 67.86 0.998 -0.34 0.998 -0.34 6.394e-3 67.86
4842 7.422e-3 70.939 0.998 -0.403 0.998 -0.403 7.422e-3 70.939
4866.958 8.462e-3 73.238 0.998 -0.465 0.998 -0.465 8.462e-3 73.238
4891.917 9.508e-3 75.01 0.998 -0.528 0.998 -0.528 9.508e-3 75.01
4916.875 0.011 76.412 0.998 -0.589 0.998 -0.589 0.011 76.412
4941.833 0.012 77.543 0.998 -0.651 0.998 -0.651 0.012 77.543
4966.792 0.013 78.472 0.998 -0.712 0.998 -0.712 0.013 78.472
4991.75 0.014 79.246 0.998 -0.773 0.998 -0.773 0.014 79.246
5016.708 0.015 79.899 0.998 -0.834 0.998 -0.834 0.015 79.899
5041.667 0.016 80.454 0.998 -0.894 0.998 -0.894 0.016 80.454
5066.625 0.017 80.932 0.997 -0.954 0.997 -0.954 0.017 80.932
5091.583 0.018 81.345 0.997 -1.014 0.997 -1.014 0.018 81.345
5116.542 0.019 81.705 0.997 -1.074 0.997 -1.074 0.019 81.705
5141.5 0.02 82.02 0.997 -1.133 0.997 -1.133 0.02 82.02
5166.458 0.021 82.297 0.997 -1.192 0.997 -1.192 0.021 82.297
5191.417 0.022 82.542 0.997 -1.251 0.997 -1.251 0.022 82.542
5216.375 0.023 82.759 0.997 -1.309 0.997 -1.309 0.023 82.759
5241.333 0.024 82.952 0.997 -1.367 0.997 -1.367 0.024 82.952
5266.292 0.025 83.124 0.997 -1.425 0.997 -1.425 0.025 83.124
5291.25 0.026 83.277 0.997 -1.483 0.997 -1.483 0.026 83.277
5316.208 0.027 83.414 0.997 -1.541 0.997 -1.541 0.027 83.414
5341.167 0.028 83.537 0.997 -1.598 0.997 -1.598 0.028 83.537
5366.125 0.029 83.647 0.997 -1.655 0.997 -1.655 0.029 83.647
5391.083 0.03 83.745 0.997 -1.712 0.997 -1.712 0.03 83.745
5416.042 0.031 83.834 0.997 -1.769 0.997 -1.769 0.031 83.834
5441 0.032 83.913 0.997 -1.825 0.997 -1.825 0.032 83.913
5465.958 0.033 83.983 0.997 -1.881 0.997 -1.881 0.033 83.983
5490.917 0.034 84.047 0.997 -1.937 0.997 -1.937 0.034 84.047
5515.875 0.035 84.103 0.997 -1.993 0.997 -1.993 0.035 84.103
5540.833 0.036 84.153 0.997 -2.048 0.997 -2.048 0.036 84.153
5565.792 0.037 84.197 0.997 -2.103 0.997 -2.103 0.037 84.197
5590.75 0.038 84.237 0.997 -2.158 0.997 -2.158 0.038 84.237
5615.708 0.039 84.271 0.997 -2.213 0.997 -2.213 0.039 84.271
5640.667 0.04 84.301 0.997 -2.268 0.997 -2.268 0.04 84.301
5665.625 0.041 84.327 0.997 -2.322 0.997 -2.322 0.041 84.327
5690.583 0.042 84.349 0.997 -2.377 0.997 -2.377 0.042 84.349
5715.542 0.042 84.368 0.997 -2.431 0.997 -2.431 0.042 84.368
5740.5 0.043 84.383 0.997 -2.485 0.997 -2.485 0.043 84.383
5765.458 0.044 84.396 0.997 -2.538 0.997 -2.538 0.044 84.396
5790.417 0.045 84.405 0.997 -2.592 0.997 -2.592 0.045 84.405
5815.375 0.046 84.413 0.997 -2.645 0.997 -2.645 0.046 84.413
5840.333 0.047 84.417 0.997 -2.698 0.997 -2.698 0.047 84.417
5865.292 0.048 84.42 0.996 -2.751 0.996 -2.751 0.048 84.42
5890.25 0.049 84.42 0.996 -2.804 0.996 -2.804 0.049 84.42
5915.208 0.05 84.419 0.996 -2.856 0.996 -2.856 0.05 84.419
5940.167 0.051 84.416 0.996 -2.909 0.996 -2.909 0.051 84.416
5965.125 0.052 84.411 0.996 -2.961 0.996 -2.961 0.052 84.411
5990.083 0.053 84.404 0.996 -3.013 0.996 -3.013 0.053 84.404
6015.042 0.054 84.396 0.996 -3.065 0.996 -3.065 0.054 84.396
6040 0.054 84.386 0.996 -3.117 0.996 -3.117 0.054 84.386
6064.958 0.055 84.375 0.996 -3.168 0.996 -3.168 0.055 84.375
6089.917 0.056 84.363 0.996 -3.22 0.996 -3.22 0.056 84.363
6114.875 0.057 84.35 0.996 -3.271 0.996 -3.271 0.057 84.35
6139.833 0.058 84.335 0.996 -3.322 0.996 -3.322 0.058 84.335
6164.792 0.059 84.32 0.996 -3.373 0.996 -3.373 0.059 84.32
6189.75 0.06 84.303 0.996 -3.424 0.996 -3.424 0.06 84.303
6214.708 0.061 84.286 0.996 -3.474 0.996 -3.474 0.061 84.286
6239.667 0.062 84.268 0.996 -3.525 0.996 -3.525 0.062 84.268
6264.625 0.062 84.248 0.996 -3.575 0.996 -3.575 0.062 84.248
6289.583 0.063 84.228 0.996 -3.625 0.996 -3.625 0.063 84.228
6314.542 0.064 84.208 0.996 -3.675 0.996 -3.675 0.064 84.208
6339.5 0.065 84.186 0.996 -3.725 0.996 -3.725 0.065 84.186
6364.458 0.066 84.164 0.995 -3.775 0.995 -3.775 0.066 84.164
6389.417 0.067 84.141 0.995 -3.824 0.995 -3.824 0.067 84.141
6414.375 0.068 84.118 0.995 -3.874 0.995 -3.874 0.068 84.118
6439.333 0.068 84.094 0.995 -3.923 0.995 -3.923 0.068 84.094
6464.292 0.069 84.069 0.995 -3.972 0.995 -3.972 0.069 84.069
6489.25 0.07 84.044 0.995 -4.021 0.995 -4.021 0.07 84.044
6514.208 0.071 84.019 0.995 -4.07 0.995 -4.07 0.071 84.019
6539.167 0.072 83.993 0.995 -4.119 0.995 -4.119 0.072 83.993
6564.125 0.073 83.966 0.995 -4.167 0.995 -4.167 0.073 83.966
6589.083 0.074 83.939 0.995 -4.216 0.995 -4.216 0.074 83.939
6614.042 0.074 83.912 0.995 -4.264 0.995 -4.264 0.074 83.912
6639 0.075 83.884 0.995 -4.313 0.995 -4.313 0.075 83.884
6663.958 0.076 83.856 0.995 -4.361 0.995 -4.361 0.076 83.856
6688.917 0.077 83.827 0.995 -4.409 0.995 -4.409 0.077 83.827
6713.875 0.078 83.798 0.995 -4.456 0.995 -4.456 0.078 83.798
6738.833 0.079 83.769 0.995 -4.504 0.995 -4.504 0.079 83.769
6763.792 0.079 83.74 0.994 -4.552 0.994 -4.552 0.079 83.74
6788.75 0.08 83.71 0.994 -4.599 0.994 -4.599 0.08 83.71
6813.708 0.081 83.68 0.994 -4.647 0.994 -4.647 0.081 83.68
6838.667 0.082 83.65 0.994 -4.694 0.994 -4.694 0.082 83.65
6863.625 0.083 83.619 0.994 -4.741 0.994 -4.741 0.083 83.619
6888.583 0.084 83.588 0.994 -4.788 0.994 -4.788 0.084 83.588
6913.542 0.084 83.557 0.994 -4.835 0.994 -4.835 0.084 83.557
6938.5 0.085 83.526 0.994 -4.882 0.994 -4.882 0.085 83.526
6963.458 0.086 83.494 0.994 -4.928 0.994 -4.928 0.086 83.494
6988.417 0.087 83.462 0.994 -4.975 0.994 -4.975 0.087 83.462
7013.375 0.088 83.43 0.994 -5.021 0.994 -5.021 0.088 83.43
7038.333 0.088 83.398 0.994 -5.068 0.994 -5.068 0.088 83.398
7063.292 0.089 83.366 0.994 -5.114 0.994 -5.114 0.089 83.366
7088.25 0.09 83.334 0.994 -5.16 0.994 -5.16 0.09 83.334
7113.208 0.091 83.301 0.994 -5.206 0.994 -5.206 0.091 83.301
7138.167 0.092 83.268 0.993 -5.252 0.993 -5.252 0.092 83.268
7163.125 0.092 83.235 0.993 -5.298 0.993 -5.298 0.092 83.235
7188.083 0.093 83.202 0.993 -5.344 0.993 -5.344 0.093 83.202
7213.042 0.094 83.169 0.993 -5.389 0.993 -5.389 0.094 83.169
7238 0.095 83.135 0.993 -5.435 0.993 -5.435 0.095 83.135
7262.958 0.096 83.102 0.993 -5.48 0.993 -5.48 0.096 83.102
7287.917 0.096 83.068 0.993 -5.526 0.993 -5.526 0.096 83.068
7312.875 0.097 83.035 0.993 -5.571 0.993 -5.571 0.097 83.035
7337.833 0.098 83.001 0.993 -5.616 0.993 -5.616 0.098 83.001
7362.792 0.099 82.967 0.993 -5.661 0.993 -5.661 0.099 82.967
7387.75 0.099 82.933 0.993 -5.706 0.993 -5.706 0.099 82.933
7412.708 0.1 82.898 0.993 -5.751 0.993 -5.751 0.1 82.898
7437.667 0.101 82.864 0.993 -5.796 0.993 -5.796 0.101 82.864
7462.625 0.102 82.83 0.992 -5.84 0.992 -5.84 0.102 82.83
7487.583 0.103 82.795 0.992 -5.885 0.992 -5.885 0.103 82.795
7512.542 0.103 82.761 0.992 -5.929 0.992 -5.929 0.103 82.761
7537.5 0.104 82.726 0.992 -5.974 0.992 -5.974 0.104 82.726
7562.458 0.105 82.692 0.992 -6.018 0.992 -6.018 0.105 82.692
7587.417 0.106 82.657 0.992 -6.062 0.992 -6.062 0.106 82.657
7612.375 0.106 82.622 0.992 -6.106 0.992 -6.106 0.106 82.622
7637.333 0.107 82.587 0.992 -6.15 0.992 -6.15 0.107 82.587
7662.292 0.108 82.552 0.992 -6.194 0.992 -6.194 0.108 82.552
7687.25 0.109 82.517 0.992 -6.238 0.992 -6.238 0.109 82.517
7712.208 0.109 82.482 0.992 -6.282 0.992 -6.282 0.109 82.482
7737.167 0.11 82.447 0.992 -6.326 0.992 -6.326 0.11 82.447
7762.125 0.111 82.412 0.991 -6.369 0.991 -6.369 0.111 82.412
7787.083 0.112 82.377 0.991 -6.413 0.991 -6.413 0.112 82.377
7812.042 0.112 82.342 0.991 -6.456 0.991 -6.456 0.112 82.342
7837 0.113 82.306 0.991 -6.5 0.991 -6.5 0.113 82.306
7861.958 0.114 82.271 0.991 -6.543 0.991 -6.543 0.114 82.271
7886.917 0.115 82.236 0.991 -6.586 0.991 -6.586 0.115 82.236
7911.875 0.115 82.2 0.991 -6.629 0.991 -6.629 0.115 82.2
7936.833 0.116 82.165 0.991 -6.672 0.991 -6.672 0.116 82.165
7961.792 0.117 82.129 0.991 -6.715 0.991 -6.715 0.117 82.129
7986.75 0.118 82.094 0.991 -6.758 0.991 -6.758 0.118 82.094
8011.708 0.118 82.058 0.991 -6.801 0.991 -6.801 0.118 82.058
8036.667 0.119 82.023 0.991 -6.844 0.991 -6.844 0.119 82.023
8061.625 0.12 81.987 0.99 -6.886 0.99 -6.886 0.12 81.987
8086.583 0.121 81.952 0.99 -6.929 0.99 -6.929 0.121 81.952
8111.542 0.121 81.916 0.99 -6.972 0.99 -6.972 0.121 81.916
8136.5 0.122 81.88 0.99 -7.014 0.99 -7.014 0.122 81.88
8161.458 0.123 81.845 0.99 -7.056 0.99 -7.056 0.123 81.845
8186.417 0.124 81.809 0.99 -7.099 0.99 -7.099 0.124 81.809
8211.375 0.124 81.773 0.99 -7.141 0.99 -7.141 0.124 81.773
8236.333 0.125 81.737 0.99 -7.183 0.99 -7.183 0.125 81.737
