# MHZ S MA R 50

50 0.981 -11.023 0.191 78.958 0.191 78.958 0.981 -11.023
74.958 0.96 -16.283 0.28 73.689 0.28 73.689 0.96 -16.283
99.917 0.932 -21.278 0.363 68.684 0.363 68.684 0.932 -21.278
124.875 0.899 -25.961 0.438 63.993 0.438 63.993 0.899 -25.961
149.833 0.863 -30.303 0.505 59.641 0.505 59.641 0.863 -30.303
174.792 0.825 -34.297 0.563 55.638 0.563 55.638 0.825 -34.297
199.75 0.788 -37.95 0.615 51.975 0.615 51.975 0.788 -37.95
224.708 0.751 -41.278 0.66 48.638 0.66 48.638 0.751 -41.278
249.667 0.715 -44.304 0.698 45.602 0.698 45.602 0.715 -44.304
274.625 0.68 -47.053 0.732 42.844 0.732 42.844 0.68 -47.053
299.583 0.647 -49.55 0.761 40.337 0.761 40.337 0.647 -49.55
324.542 0.616 -51.821 0.786 38.057 0.786 38.057 0.616 -51.821
349.5 0.587 -53.89 0.808 35.978 0.808 35.978 0.587 -53.89
374.458 0.56 -55.777 0.827 34.081 0.827 34.081 0.56 -55.777
399.417 0.535 -57.504 0.843 32.346 0.843 32.346 0.535 -57.504
424.375 0.511 -59.085 0.858 30.754 0.858 30.754 0.511 -59.085
449.333 0.489 -60.539 0.871 29.291 0.871 29.291 0.489 -60.539
474.292 0.469 -61.877 0.882 27.943 0.882 27.943 0.469 -61.877
499.25 0.449 -63.112 0.892 26.698 0.892 26.698 0.449 -63.112
524.208 0.431 -64.255 0.901 25.545 0.901 25.545 0.431 -64.255
549.167 0.414 -65.315 0.909 24.475 0.909 24.475 0.414 -65.315
574.125 0.398 -66.3 0.916 23.48 0.916 23.48 0.398 -66.3
599.083 0.384 -67.218 0.922 22.552 0.922 22.552 0.384 -67.218
624.042 0.37 -68.074 0.928 21.685 0.928 21.685 0.37 -68.074
649 0.356 -68.876 0.933 20.874 0.933 20.874 0.356 -68.876
673.958 0.344 -69.627 0.937 20.112 0.937 20.112 0.344 -69.627
698.917 0.332 -70.332 0.942 19.397 0.942 19.397 0.332 -70.332
723.875 0.321 -70.995 0.946 18.723 0.946 18.723 0.321 -70.995
748.833 0.31 -71.62 0.949 18.088 0.949 18.088 0.31 -71.62
773.792 0.3 -72.21 0.952 17.487 0.952 17.487 0.3 -72.21
798.75 0.291 -72.767 0.955 16.919 0.955 16.919 0.291 -72.767
823.708 0.282 -73.295 0.958 16.38 0.958 16.38 0.282 -73.295
848.667 0.273 -73.795 0.96 15.869 0.96 15.869 0.273 -73.795
873.625 0.265 -74.27 0.963 15.383 0.963 15.383 0.265 -74.27
898.583 0.257 -74.721 0.965 14.92 0.965 14.92 0.257 -74.721
923.542 0.25 -75.151 0.967 14.479 0.967 14.479 0.25 -75.151
948.5 0.243 -75.56 0.968 14.058 0.968 14.058 0.243 -75.56
973.458 0.236 -75.951 0.97 13.656 0.97 13.656 0.236 -75.951
998.417 0.23 -76.324 0.972 13.271 0.972 13.271 0.23 -76.324
1023.375 0.223 -76.681 0.973 12.902 0.973 12.902 0.223 -76.681
1048.333 0.217 -77.022 0.974 12.549 0.974 12.549 0.217 -77.022
1073.292 0.211 -77.349 0.976 12.21 0.976 12.21 0.211 -77.349
1098.25 0.206 -77.662 0.977 11.884 0.977 11.884 0.206 -77.662
1123.208 0.201 -77.963 0.978 11.571 0.978 11.571 0.201 -77.963
1148.167 0.195 -78.252 0.979 11.269 0.979 11.269 0.195 -78.252
1173.125 0.19 -78.529 0.98 10.978 0.98 10.978 0.19 -78.529
1198.083 0.186 -78.796 0.981 10.698 0.981 10.698 0.186 -78.796
1223.042 0.181 -79.054 0.982 10.427 0.982 10.427 0.181 -79.054
1248 0.177 -79.301 0.983 10.166 0.983 10.166 0.177 -79.301
1272.958 0.172 -79.54 0.983 9.913 0.983 9.913 0.172 -79.54
1297.917 0.168 -79.77 0.984 9.669 0.984 9.669 0.168 -79.77
1322.875 0.164 -79.992 0.985 9.433 0.985 9.433 0.164 -79.992
1347.833 0.16 -80.207 0.985 9.203 0.985 9.203 0.16 -80.207
1372.792 0.156 -80.414 0.986 8.981 0.986 8.981 0.156 -80.414
1397.75 0.152 -80.615 0.987 8.766 0.987 8.766 0.152 -80.615
1422.708 0.149 -80.809 0.987 8.556 0.987 8.556 0.149 -80.809
1447.667 0.145 -80.996 0.988 8.353 0.988 8.353 0.145 -80.996
1472.625 0.142 -81.178 0.988 8.155 0.988 8.155 0.142 -81.178
1497.583 0.139 -81.354 0.989 7.963 0.989 7.963 0.139 -81.354
1522.542 0.135 -81.524 0.989 7.776 0.989 7.776 0.135 -81.524
1547.5 0.132 -81.689 0.99 7.594 0.99 7.594 0.132 -81.689
1572.458 0.129 -81.849 0.99 7.417 0.99 7.417 0.129 -81.849
1597.417 0.126 -82.004 0.99 7.244 0.99 7.244 0.126 -82.004
1622.375 0.123 -82.155 0.991 7.076 0.991 7.076 0.123 -82.155
1647.333 0.12 -82.301 0.991 6.911 0.991 6.911 0.12 -82.301
1672.292 0.118 -82.442 0.991 6.751 0.991 6.751 0.118 -82.442
1697.25 0.115 -82.58 0.992 6.594 0.992 6.594 0.115 -82.58
1722.208 0.112 -82.713 0.992 6.441 0.992 6.441 0.112 -82.713
1747.167 0.11 -82.843 0.992 6.291 0.992 6.291 0.11 -82.843
1772.125 0.107 -82.968 0.993 6.144 0.993 6.144 0.107 -82.968
1797.083 0.105 -83.09 0.993 6.001 0.993 6.001 0.105 -83.09
1822.042 0.102 -83.209 0.993 5.861 0.993 5.861 0.102 -83.209
1847 0.1 -83.323 0.993 5.723 0.993 5.723 0.1 -83.323
1871.958 0.097 -83.435 0.994 5.589 0.994 5.589 0.097 -83.435
1896.917 0.095 -83.543 0.994 5.457 0.994 5.457 0.095 -83.543
1921.875 0.093 -83.648 0.994 5.328 0.994 5.328 0.093 -83.648
1946.833 0.091 -83.749 0.994 5.201 0.994 5.201 0.091 -83.749
1971.792 0.089 -83.848 0.994 5.077 0.994 5.077 0.089 -83.848
1996.75 0.086 -83.943 0.995 4.955 0.995 4.955 0.086 -83.943
2021.708 0.084 -84.036 0.995 4.835 0.995 4.835 0.084 -84.036
2046.667 0.082 -84.125 0.995 4.718 0.995 4.718 0.082 -84.125
2071.625 0.08 -84.211 0.995 4.602 0.995 4.602 0.08 -84.211
2096.583 0.078 -84.295 0.995 4.489 0.995 4.489 0.078 -84.295
2121.542 0.076 -84.375 0.995 4.377 0.995 4.377 0.076 -84.375
2146.5 0.074 -84.452 0.996 4.268 0.996 4.268 0.074 -84.452
2171.458 0.073 -84.527 0.996 4.16 0.996 4.16 0.073 -84.527
2196.417 0.071 -84.599 0.996 4.054 0.996 4.054 0.071 -84.599
2221.375 0.069 -84.667 0.996 3.949 0.996 3.949 0.069 -84.667
2246.333 0.067 -84.733 0.996 3.846 0.996 3.846 0.067 -84.733
2271.292 0.065 -84.796 0.996 3.745 0.996 3.745 0.065 -84.796
2296.25 0.064 -84.855 0.996 3.645 0.996 3.645 0.064 -84.855
2321.208 0.062 -84.912 0.996 3.547 0.996 3.547 0.062 -84.912
2346.167 0.06 -84.965 0.997 3.45 0.997 3.45 0.06 -84.965
2371.125 0.059 -85.016 0.997 3.355 0.997 3.355 0.059 -85.016
2396.083 0.057 -85.063 0.997 3.261 0.997 3.261 0.057 -85.063
2421.042 0.055 -85.106 0.997 3.168 0.997 3.168 0.055 -85.106
2446 0.054 -85.146 0.997 3.077 0.997 3.077 0.054 -85.146
2470.958 0.052 -85.183 0.997 2.987 0.997 2.987 0.052 -85.183
2495.917 0.051 -85.216 0.997 2.898 0.997 2.898 0.051 -85.216
2520.875 0.049 -85.244 0.997 2.81 0.997 2.81 0.049 -85.244
2545.833 0.048 -85.269 0.997 2.723 0.997 2.723 0.048 -85.269
2570.792 0.046 -85.29 0.997 2.638 0.997 2.638 0.046 -85.29
2595.75 0.045 -85.305 0.997 2.553 0.997 2.553 0.045 -85.305
2620.708 0.043 -85.316 0.997 2.469 0.997 2.469 0.043 -85.316
2645.667 0.042 -85.322 0.997 2.387 0.997 2.387 0.042 -85.322
2670.625 0.04 -85.323 0.998 2.305 0.998 2.305 0.04 -85.323
2695.583 0.039 -85.318 0.998 2.225 0.998 2.225 0.039 -85.318
2720.542 0.037 -85.306 0.998 2.145 0.998 2.145 0.037 -85.306
2745.5 0.036 -85.288 0.998 2.066 0.998 2.066 0.036 -85.288
2770.458 0.035 -85.262 0.998 1.988 0.998 1.988 0.035 -85.262
2795.417 0.033 -85.228 0.998 1.911 0.998 1.911 0.033 -85.228
2820.375 0.032 -85.186 0.998 1.835 0.998 1.835 0.032 -85.186
2845.333 0.031 -85.134 0.998 1.76 0.998 1.76 0.031 -85.134
2870.292 0.029 -85.071 0.998 1.685 0.998 1.685 0.029 -85.071
2895.25 0.028 -84.996 0.998 1.611 0.998 1.611 0.028 -84.996
2920.208 0.027 -84.908 0.998 1.538 0.998 1.538 0.027 -84.908
2945.167 0.026 -84.806 0.998 1.466 0.998 1.466 0.026 -84.806
2970.125 0.024 -84.686 0.998 1.394 0.998 1.394 0.024 -84.686
2995.083 0.023 -84.548 0.998 1.323 0.998 1.323 0.023 -84.548
3020.042 0.022 -84.387 0.998 1.253 0.998 1.253 0.022 -84.387
3045 0.021 -84.201 0.998 1.183 0.998 1.183 0.021 -84.201
3069.958 0.02 -83.985 0.998 1.114 0.998 1.114 0.02 -83.985
3094.917 0.018 -83.735 0.998 1.046 0.998 1.046 0.018 -83.735
3119.875 0.017 -83.443 0.998 0.978 0.998 0.978 0.017 -83.443
3144.833 0.016 -83.101 0.998 0.911 0.998 0.911 0.016 -83.101
3169.792 0.015 -82.7 0.998 0.844 0.998 0.844 0.015 -82.7
3194.75 0.014 -82.223 0.998 0.778 0.998 0.778 0.014 -82.223
3219.708 0.013 -81.653 0.998 0.713 0.998 0.713 0.013 -81.653
3244.667 0.011 -80.963 0.998 0.648 0.998 0.648 0.011 -80.963
3269.625 0.01 -80.118 0.998 0.583 0.998 0.583 0.01 -80.118
3294.583 9.22e-3 -79.063 0.998 0.52 0.998 0.52 9.22e-3 -79.063
3319.542 8.136e-3 -77.718 0.998 0.456 0.998 0.456 8.136e-3 -77.718
3344.5 7.066e-3 -75.958 0.998 0.393 0.998 0.393 7.066e-3 -75.958
3369.458 6.014e-3 -73.574 0.998 0.331 0.998 0.331 6.014e-3 -73.574
3394.417 4.986e-3 -70.193 0.998 0.269 0.998 0.269 4.986e-3 -70.193
3419.375 3.992e-3 -65.104 0.998 0.208 0.998 0.208 3.992e-3 -65.104
3444.333 3.058e-3 -56.812 0.998 0.147 0.998 0.147 3.058e-3 -56.812
3469.292 2.248e-3 -42.033 0.998 0.086 0.998 0.086 2.248e-3 -42.033
3494.25 1.729e-3 -15.378 0.998 0.026 0.998 0.026 1.729e-3 -15.378
3519.208 1.766e-3 19.187 0.998 -0.033 0.998 -0.033 1.766e-3 19.187
3544.167 2.321e-3 43.988 0.998 -0.093 0.998 -0.093 2.321e-3 43.988
3569.125 3.123e-3 57.582 0.998 -0.151 0.998 -0.151 3.123e-3 57.582
3594.083 4.022e-3 65.299 0.998 -0.21 0.998 -0.21 4.022e-3 65.299
3619.042 4.961e-3 70.093 0.998 -0.268 0.998 -0.268 4.961e-3 70.093
3644 5.918e-3 73.31 0.998 -0.325 0.998 -0.325 5.918e-3 73.31
3668.958 6.882e-3 75.596 0.998 -0.383 0.998 -0.383 6.882e-3 75.596
3693.917 7.848e-3 77.295 0.998 -0.439 0.998 -0.439 7.848e-3 77.295
3718.875 8.814e-3 78.601 0.998 -0.496 0.998 -0.496 8.814e-3 78.601
3743.833 9.778e-3 79.631 0.998 -0.552 0.998 -0.552 9.778e-3 79.631
3768.792 0.011 80.461 0.998 -0.608 0.998 -0.608 0.011 80.461
3793.75 0.012 81.141 0.998 -0.663 0.998 -0.663 0.012 81.141
3818.708 0.013 81.707 0.998 -0.718 0.998 -0.718 0.013 81.707
3843.667 0.014 82.184 0.998 -0.773 0.998 -0.773 0.014 82.184
3868.625 0.015 82.589 0.998 -0.828 0.998 -0.828 0.015 82.589
3893.583 0.015 82.936 0.998 -0.882 0.998 -0.882 0.015 82.936
3918.542 0.016 83.235 0.998 -0.936 0.998 -0.936 0.016 83.235
3943.5 0.017 83.495 0.998 -0.989 0.998 -0.989 0.017 83.495
3968.458 0.018 83.722 0.998 -1.042 0.998 -1.042 0.018 83.722
3993.417 0.019 83.921 0.998 -1.095 0.998 -1.095 0.019 83.921
4018.375 0.02 84.096 0.998 -1.148 0.998 -1.148 0.02 84.096
4043.333 0.021 84.25 0.998 -1.2 0.998 -1.2 0.021 84.25
4068.292 0.022 84.386 0.998 -1.252 0.998 -1.252 0.022 84.386
4093.25 0.023 84.507 0.998 -1.304 0.998 -1.304 0.023 84.507
4118.208 0.024 84.614 0.998 -1.356 0.998 -1.356 0.024 84.614
4143.167 0.025 84.71 0.998 -1.407 0.998 -1.407 0.025 84.71
4168.125 0.025 84.794 0.998 -1.458 0.998 -1.458 0.025 84.794
4193.083 0.026 84.869 0.998 -1.509 0.998 -1.509 0.026 84.869
4218.042 0.027 84.936 0.998 -1.559 0.998 -1.559 0.027 84.936
4243 0.028 84.995 0.998 -1.61 0.998 -1.61 0.028 84.995
4267.958 0.029 85.047 0.998 -1.66 0.998 -1.66 0.029 85.047
4292.917 0.03 85.093 0.998 -1.709 0.998 -1.709 0.03 85.093
4317.875 0.031 85.133 0.998 -1.759 0.998 -1.759 0.031 85.133
4342.833 0.032 85.169 0.998 -1.808 0.998 -1.808 0.032 85.169
4367.792 0.032 85.199 0.998 -1.857 0.998 -1.857 0.032 85.199
4392.75 0.033 85.226 0.998 -1.906 0.998 -1.906 0.033 85.226
4417.708 0.034 85.248 0.998 -1.955 0.998 -1.955 0.034 85.248
4442.667 0.035 85.268 0.998 -2.003 0.998 -2.003 0.035 85.268
4467.625 0.036 85.283 0.998 -2.052 0.998 -2.052 0.036 85.283
4492.583 0.037 85.296 0.998 -2.1 0.998 -2.1 0.037 85.296
4517.542 0.038 85.307 0.998 -2.147 0.998 -2.147 0.038 85.307
4542.5 0.038 85.314 0.998 -2.195 0.998 -2.195 0.038 85.314
4567.458 0.039 85.319 0.998 -2.242 0.998 -2.242 0.039 85.319
4592.417 0.04 85.322 0.998 -2.29 0.998 -2.29 0.04 85.322
4617.375 0.041 85.323 0.998 -2.337 0.998 -2.337 0.041 85.323
4642.333 0.042 85.323 0.997 -2.384 0.997 -2.384 0.042 85.323
4667.292 0.042 85.32 0.997 -2.43 0.997 -2.43 0.042 85.32
4692.25 0.043 85.316 0.997 -2.477 0.997 -2.477 0.043 85.316
4717.208 0.044 85.31 0.997 -2.523 0.997 -2.523 0.044 85.31
4742.167 0.045 85.303 0.997 -2.569 0.997 -2.569 0.045 85.303
4767.125 0.046 85.294 0.997 -2.615 0.997 -2.615 0.046 85.294
4792.083 0.046 85.284 0.997 -2.661 0.997 -2.661 0.046 85.284
4817.042 0.047 85.273 0.997 -2.706 0.997 -2.706 0.047 85.273
4842 0.048 85.261 0.997 -2.752 0.997 -2.752 0.048 85.261
4866.958 0.049 85.248 0.997 -2.797 0.997 -2.797 0.049 85.248
4891.917 0.05 85.234 0.997 -2.842 0.997 -2.842 0.05 85.234
4916.875 0.05 85.219 0.997 -2.887 0.997 -2.887 0.05 85.219
4941.833 0.051 85.203 0.997 -2.932 0.997 -2.932 0.051 85.203
4966.792 0.052 85.187 0.997 -2.977 0.997 -2.977 0.052 85.187
4991.75 0.053 85.169 0.997 -3.021 0.997 -3.021 0.053 85.169
5016.708 0.054 85.151 0.997 -3.065 0.997 -3.065 0.054 85.151
5041.667 0.054 85.132 0.997 -3.11 0.997 -3.11 0.054 85.132
5066.625 0.055 85.113 0.997 -3.154 0.997 -3.154 0.055 85.113
5091.583 0.056 85.093 0.997 -3.198 0.997 -3.198 0.056 85.093
5116.542 0.057 85.072 0.997 -3.241 0.997 -3.241 0.057 85.072
5141.5 0.057 85.051 0.997 -3.285 0.997 -3.285 0.057 85.051
5166.458 0.058 85.029 0.997 -3.328 0.997 -3.328 0.058 85.029
5191.417 0.059 85.007 0.997 -3.372 0.997 -3.372 0.059 85.007
5216.375 0.06 84.985 0.997 -3.415 0.997 -3.415 0.06 84.985
5241.333 0.06 84.961 0.997 -3.458 0.997 -3.458 0.06 84.961
5266.292 0.061 84.938 0.996 -3.501 0.996 -3.501 0.061 84.938
5291.25 0.062 84.914 0.996 -3.544 0.996 -3.544 0.062 84.914
5316.208 0.063 84.89 0.996 -3.586 0.996 -3.586 0.063 84.89
5341.167 0.063 84.865 0.996 -3.629 0.996 -3.629 0.063 84.865
5366.125 0.064 84.84 0.996 -3.671 0.996 -3.671 0.064 84.84
5391.083 0.065 84.815 0.996 -3.714 0.996 -3.714 0.065 84.815
5416.042 0.066 84.789 0.996 -3.756 0.996 -3.756 0.066 84.789
5441 0.066 84.763 0.996 -3.798 0.996 -3.798 0.066 84.763
5465.958 0.067 84.737 0.996 -3.84 0.996 -3.84 0.067 84.737
5490.917 0.068 84.71 0.996 -3.882 0.996 -3.882 0.068 84.71
5515.875 0.068 84.684 0.996 -3.924 0.996 -3.924 0.068 84.684
5540.833 0.069 84.657 0.996 -3.965 0.996 -3.965 0.069 84.657
5565.792 0.07 84.63 0.996 -4.007 0.996 -4.007 0.07 84.63
5590.75 0.071 84.602 0.996 -4.048 0.996 -4.048 0.071 84.602
5615.708 0.071 84.575 0.996 -4.089 0.996 -4.089 0.071 84.575
5640.667 0.072 84.547 0.996 -4.131 0.996 -4.131 0.072 84.547
5665.625 0.073 84.519 0.996 -4.172 0.996 -4.172 0.073 84.519
5690.583 0.073 84.491 0.996 -4.213 0.996 -4.213 0.073 84.491
5715.542 0.074 84.462 0.996 -4.254 0.996 -4.254 0.074 84.462
5740.5 0.075 84.434 0.996 -4.294 0.996 -4.294 0.075 84.434
5765.458 0.076 84.405 0.995 -4.335 0.995 -4.335 0.076 84.405
5790.417 0.076 84.376 0.995 -4.376 0.995 -4.376 0.076 84.376
5815.375 0.077 84.347 0.995 -4.416 0.995 -4.416 0.077 84.347
5840.333 0.078 84.318 0.995 -4.456 0.995 -4.456 0.078 84.318
5865.292 0.078 84.289 0.995 -4.497 0.995 -4.497 0.078 84.289
5890.25 0.079 84.259 0.995 -4.537 0.995 -4.537 0.079 84.259
5915.208 0.08 84.23 0.995 -4.577 0.995 -4.577 0.08 84.23
5940.167 0.081 84.2 0.995 -4.617 0.995 -4.617 0.081 84.2
5965.125 0.081 84.17 0.995 -4.657 0.995 -4.657 0.081 84.17
5990.083 0.082 84.141 0.995 -4.697 0.995 -4.697 0.082 84.141
6015.042 0.083 84.111 0.995 -4.736 0.995 -4.736 0.083 84.111
6040 0.083 84.081 0.995 -4.776 0.995 -4.776 0.083 84.081
6064.958 0.084 84.051 0.995 -4.816 0.995 -4.816 0.084 84.051
6089.917 0.085 84.02 0.995 -4.855 0.995 -4.855 0.085 84.02
6114.875 0.085 83.99 0.995 -4.894 0.995 -4.894 0.085 83.99
6139.833 0.086 83.96 0.995 -4.934 0.995 -4.934 0.086 83.96
6164.792 0.087 83.929 0.995 -4.973 0.995 -4.973 0.087 83.929
6189.75 0.087 83.899 0.995 -5.012 0.995 -5.012 0.087 83.899
6214.708 0.088 83.868 0.994 -5.051 0.994 -5.051 0.088 83.868
6239.667 0.089 83.837 0.994 -5.09 0.994 -5.09 0.089 83.837
6264.625 0.089 83.807 0.994 -5.129 0.994 -5.129 0.089 83.807
6289.583 0.09 83.776 0.994 -5.168 0.994 -5.168 0.09 83.776
6314.542 0.091 83.745 0.994 -5.207 0.994 -5.207 0.091 83.745
6339.5 0.091 83.714 0.994 -5.245 0.994 -5.245 0.091 83.714
6364.458 0.092 83.683 0.994 -5.284 0.994 -5.284 0.092 83.683
6389.417 0.093 83.652 0.994 -5.322 0.994 -5.322 0.093 83.652
6414.375 0.093 83.621 0.994 -5.361 0.994 -5.361 0.093 83.621
6439.333 0.094 83.59 0.994 -5.399 0.994 -5.399 0.094 83.59
6464.292 0.095 83.559 0.994 -5.437 0.994 -5.437 0.095 83.559
6489.25 0.095 83.528 0.994 -5.476 0.994 -5.476 0.095 83.528
6514.208 0.096 83.497 0.994 -5.514 0.994 -5.514 0.096 83.497
6539.167 0.097 83.465 0.994 -5.552 0.994 -5.552 0.097 83.465
6564.125 0.097 83.434 0.994 -5.59 0.994 -5.59 0.097 83.434
6589.083 0.098 83.403 0.994 -5.628 0.994 -5.628 0.098 83.403
6614.042 0.099 83.372 0.993 -5.666 0.993 -5.666 0.099 83.372
6639 0.099 83.34 0.993 -5.703 0.993 -5.703 0.099 83.34
6663.958 0.1 83.309 0.993 -5.741 0.993 -5.741 0.1 83.309
6688.917 0.101 83.277 0.993 -5.779 0.993 -5.779 0.101 83.277
6713.875 0.101 83.246 0.993 -5.816 0.993 -5.816 0.101 83.246
6738.833 0.102 83.214 0.993 -5.854 0.993 -5.854 0.102 83.214
6763.792 0.103 83.183 0.993 -5.891 0.993 -5.891 0.103 83.183
6788.75 0.103 83.151 0.993 -5.929 0.993 -5.929 0.103 83.151
6813.708 0.104 83.12 0.993 -5.966 0.993 -5.966 0.104 83.12
6838.667 0.105 83.088 0.993 -6.003 0.993 -6.003 0.105 83.088
6863.625 0.105 83.057 0.993 -6.041 0.993 -6.041 0.105 83.057
6888.583 0.106 83.025 0.993 -6.078 0.993 -6.078 0.106 83.025
6913.542 0.107 82.993 0.993 -6.115 0.993 -6.115 0.107 82.993
6938.5 0.107 82.962 0.993 -6.152 0.993 -6.152 0.107 82.962
6963.458 0.108 82.93 0.993 -6.189 0.993 -6.189 0.108 82.93
6988.417 0.108 82.898 0.992 -6.226 0.992 -6.226 0.108 82.898
7013.375 0.109 82.867 0.992 -6.263 0.992 -6.263 0.109 82.867
7038.333 0.11 82.835 0.992 -6.3 0.992 -6.3 0.11 82.835
7063.292 0.11 82.803 0.992 -6.336 0.992 -6.336 0.11 82.803
7088.25 0.111 82.772 0.992 -6.373 0.992 -6.373 0.111 82.772
7113.208 0.112 82.74 0.992 -6.41 0.992 -6.41 0.112 82.74
7138.167 0.112 82.708 0.992 -6.446 0.992 -6.446 0.112 82.708
7163.125 0.113 82.677 0.992 -6.483 0.992 -6.483 0.113 82.677
7188.083 0.114 82.645 0.992 -6.519 0.992 -6.519 0.114 82.645
7213.042 0.114 82.613 0.992 -6.556 0.992 -6.556 0.114 82.613
7238 0.115 82.581 0.992 -6.592 0.992 -6.592 0.115 82.581
7262.958 0.115 82.55 0.992 -6.628 0.992 -6.628 0.115 82.55
7287.917 0.116 82.518 0.992 -6.665 0.992 -6.665 0.116 82.518
7312.875 0.117 82.486 0.992 -6.701 0.992 -6.701 0.117 82.486
7337.833 0.117 82.454 0.991 -6.737 0.991 -6.737 0.117 82.454
7362.792 0.118 82.423 0.991 -6.773 0.991 -6.773 0.118 82.423
7387.75 0.119 82.391 0.991 -6.809 0.991 -6.809 0.119 82.391
7412.708 0.119 82.359 0.991 -6.845 0.991 -6.845 0.119 82.359
7437.667 0.12 82.327 0.991 -6.881 0.991 -6.881 0.12 82.327
7462.625 0.12 82.296 0.991 -6.917 0.991 -6.917 0.12 82.296
7487.583 0.121 82.264 0.991 -6.953 0.991 -6.953 0.121 82.264
7512.542 0.122 82.232 0.991 -6.989 0.991 -6.989 0.122 82.232
7537.5 0.122 82.2 0.991 -7.024 0.991 -7.024 0.122 82.2
7562.458 0.123 82.169 0.991 -7.06 0.991 -7.06 0.123 82.169
7587.417 0.124 82.137 0.991 -7.096 0.991 -7.096 0.124 82.137
7612.375 0.124 82.105 0.991 -7.131 0.991 -7.131 0.124 82.105
7637.333 0.125 82.073 0.991 -7.167 0.991 -7.167 0.125 82.073
7662.292 0.125 82.042 0.99 -7.202 0.99 -7.202 0.125 82.042
7687.25 0.126 82.01 0.99 -7.238 0.99 -7.238 0.126 82.01
7712.208 0.127 81.978 0.99 -7.273 0.99 -7.273 0.127 81.978
7737.167 0.127 81.946 0.99 -7.309 0.99 -7.309 0.127 81.946
7762.125 0.128 81.915 0.99 -7.344 0.99 -7.344 0.128 81.915
7787.083 0.128 81.883 0.99 -7.379 0.99 -7.379 0.128 81.883
7812.042 0.129 81.851 0.99 -7.415 0.99 -7.415 0.129 81.851
7837 0.13 81.82 0.99 -7.45 0.99 -7.45 0.13 81.82
7861.958 0.13 81.788 0.99 -7.485 0.99 -7.485 0.13 81.788
7886.917 0.131 81.756 0.99 -7.52 0.99 -7.52 0.131 81.756
7911.875 0.131 81.725 0.99 -7.555 0.99 -7.555 0.131 81.725
7936.833 0.132 81.693 0.99 -7.59 0.99 -7.59 0.132 81.693
7961.792 0.133 81.661 0.99 -7.625 0.99 -7.625 0.133 81.661
7986.75 0.133 81.63 0.989 -7.66 0.989 -7.66 0.133 81.63
8011.708 0.134 81.598 0.989 -7.695 0.989 -7.695 0.134 81.598
8036.667 0.135 81.566 0.989 -7.73 0.989 -7.73 0.135 81.566
8061.625 0.135 81.535 0.989 -7.765 0.989 -7.765 0.135 81.535
8086.583 0.136 81.503 0.989 -7.8 0.989 -7.8 0.136 81.503
8111.542 0.136 81.471 0.989 -7.834 0.989 -7.834 0.136 81.471
8136.5 0.137 81.44 0.989 -7.869 0.989 -7.869 0.137 81.44
8161.458 0.138 81.408 0.989 -7.904 0.989 -7.904 0.138 81.408
8186.417 0.138 81.376 0.989 -7.938 0.989 -7.938 0.138 81.376
8211.375 0.139 81.345 0.989 -7.973 0.989 -7.973 0.139 81.345
8236.333 0.139 81.313 0.989 -8.008 0.989 -8.008 0.139 81.313
8261.292 0.14 81.282 0.989 -8.042 0.989 -8.042 0.14 81.282
8286.25 0.141 81.25 0.988 -8.077 0.988 -8.077 0.141 81.25
