# MHZ S MA R 50

50 0.999 -2.069 0.036 87.921 0.036 87.921 0.999 -2.069
74.958 0.999 -3.1 0.054 86.885 0.054 86.885 0.999 -3.1
99.917 0.997 -4.13 0.072 85.851 0.072 85.851 0.997 -4.13
124.875 0.996 -5.157 0.09 84.819 0.09 84.819 0.996 -5.157
149.833 0.994 -6.181 0.108 83.79 0.108 83.79 0.994 -6.181
174.792 0.992 -7.201 0.125 82.765 0.125 82.765 0.992 -7.201
199.75 0.99 -8.217 0.143 81.744 0.143 81.744 0.99 -8.217
224.708 0.987 -9.229 0.16 80.728 0.16 80.728 0.987 -9.229
249.667 0.984 -10.235 0.178 79.717 0.178 79.717 0.984 -10.235
274.625 0.981 -11.235 0.195 78.712 0.195 78.712 0.981 -11.235
299.583 0.977 -12.229 0.212 77.713 0.212 77.713 0.977 -12.229
324.542 0.973 -13.216 0.229 76.721 0.229 76.721 0.973 -13.216
349.5 0.969 -14.196 0.245 75.736 0.245 75.736 0.969 -14.196
374.458 0.965 -15.168 0.262 74.759 0.262 74.759 0.965 -15.168
399.417 0.96 -16.132 0.278 73.79 0.278 73.79 0.96 -16.132
424.375 0.955 -17.087 0.294 72.83 0.294 72.83 0.955 -17.087
449.333 0.95 -18.034 0.31 71.878 0.31 71.878 0.95 -18.034
474.292 0.945 -18.971 0.325 70.936 0.325 70.936 0.945 -18.971
499.25 0.94 -19.899 0.34 70.003 0.34 70.003 0.94 -19.899
524.208 0.934 -20.817 0.355 69.08 0.355 69.08 0.934 -20.817
549.167 0.928 -21.725 0.37 68.167 0.37 68.167 0.928 -21.725
574.125 0.922 -22.623 0.385 67.265 0.385 67.265 0.922 -22.623
599.083 0.916 -23.51 0.399 66.373 0.399 66.373 0.916 -23.51
624.042 0.91 -24.387 0.413 65.491 0.413 65.491 0.91 -24.387
649 0.903 -25.252 0.427 64.621 0.427 64.621 0.903 -25.252
673.958 0.897 -26.107 0.44 63.761 0.44 63.761 0.897 -26.107
698.917 0.89 -26.95 0.453 62.913 0.453 62.913 0.89 -26.95
723.875 0.884 -27.782 0.466 62.076 0.466 62.076 0.884 -27.782
748.833 0.877 -28.603 0.479 61.25 0.479 61.25 0.877 -28.603
773.792 0.87 -29.412 0.491 60.436 0.491 60.436 0.87 -29.412
798.75 0.863 -30.21 0.503 59.633 0.503 59.633 0.863 -30.21
823.708 0.856 -30.997 0.515 58.841 0.515 58.841 0.856 -30.997
848.667 0.849 -31.772 0.527 58.061 0.527 58.061 0.849 -31.772
873.625 0.841 -32.535 0.538 57.293 0.538 57.293 0.841 -32.535
898.583 0.834 -33.288 0.549 56.535 0.549 56.535 0.834 -33.288
923.542 0.827 -34.028 0.56 55.79 0.56 55.79 0.827 -34.028
948.5 0.82 -34.758 0.57 55.055 0.57 55.055 0.82 -34.758
973.458 0.812 -35.476 0.58 54.332 0.58 54.332 0.812 -35.476
998.417 0.805 -36.183 0.59 53.62 0.59 53.62 0.805 -36.183
1023.375 0.798 -36.879 0.6 52.919 0.6 52.919 0.798 -36.879
1048.333 0.79 -37.564 0.61 52.229 0.61 52.229 0.79 -37.564
1073.292 0.783 -38.237 0.619 51.55 0.619 51.55 0.783 -38.237
1098.25 0.776 -38.9 0.628 50.882 0.628 50.882 0.776 -38.9
1123.208 0.769 -39.553 0.637 50.224 0.637 50.224 0.769 -39.553
1148.167 0.761 -40.195 0.645 49.578 0.645 49.578 0.761 -40.195
1173.125 0.754 -40.826 0.654 48.941 0.654 48.941 0.754 -40.826
1198.083 0.747 -41.447 0.662 48.315 0.662 48.315 0.747 -41.447
1223.042 0.74 -42.058 0.67 47.699 0.67 47.699 0.74 -42.058
1248 0.732 -42.659 0.678 47.093 0.678 47.093 0.732 -42.659
1272.958 0.725 -43.249 0.685 46.497 0.685 46.497 0.725 -43.249
1297.917 0.718 -43.831 0.693 45.91 0.693 45.91 0.718 -43.831
1322.875 0.711 -44.402 0.7 45.334 0.7 45.334 0.711 -44.402
1347.833 0.704 -44.964 0.707 44.766 0.707 44.766 0.704 -44.964
1372.792 0.697 -45.517 0.713 44.208 0.713 44.208 0.697 -45.517
1397.75 0.69 -46.061 0.72 43.659 0.72 43.659 0.69 -46.061
1422.708 0.684 -46.595 0.727 43.119 0.727 43.119 0.684 -46.595
1447.667 0.677 -47.121 0.733 42.588 0.733 42.588 0.677 -47.121
1472.625 0.67 -47.638 0.739 42.065 0.739 42.065 0.67 -47.638
1497.583 0.663 -48.147 0.745 41.551 0.745 41.551 0.663 -48.147
1522.542 0.657 -48.647 0.751 41.046 0.751 41.046 0.657 -48.647
1547.5 0.65 -49.139 0.756 40.548 0.756 40.548 0.65 -49.139
1572.458 0.644 -49.623 0.762 40.059 0.762 40.059 0.644 -49.623
1597.417 0.637 -50.099 0.767 39.578 0.767 39.578 0.637 -50.099
1622.375 0.631 -50.567 0.772 39.104 0.772 39.104 0.631 -50.567
1647.333 0.624 -51.028 0.777 38.638 0.777 38.638 0.624 -51.028
1672.292 0.618 -51.481 0.782 38.179 0.782 38.179 0.618 -51.481
1697.25 0.612 -51.927 0.787 37.728 0.787 37.728 0.612 -51.927
1722.208 0.606 -52.365 0.792 37.283 0.792 37.283 0.606 -52.365
1747.167 0.6 -52.797 0.797 36.846 0.797 36.846 0.6 -52.797
1772.125 0.594 -53.222 0.801 36.416 0.801 36.416 0.594 -53.222
1797.083 0.588 -53.639 0.805 35.992 0.805 35.992 0.588 -53.639
1822.042 0.582 -54.051 0.81 35.575 0.81 35.575 0.582 -54.051
1847 0.576 -54.455 0.814 35.165 0.814 35.165 0.576 -54.455
1871.958 0.57 -54.854 0.818 34.761 0.818 34.761 0.57 -54.854
1896.917 0.564 -55.246 0.822 34.363 0.822 34.363 0.564 -55.246
1921.875 0.559 -55.632 0.825 33.971 0.825 33.971 0.559 -55.632
1946.833 0.553 -56.012 0.829 33.585 0.829 33.585 0.553 -56.012
1971.792 0.548 -56.386 0.833 33.205 0.833 33.205 0.548 -56.386
1996.75 0.542 -56.754 0.836 32.831 0.836 32.831 0.542 -56.754
2021.708 0.537 -57.117 0.84 32.462 0.84 32.462 0.537 -57.117
2046.667 0.531 -57.474 0.843 32.099 0.843 32.099 0.531 -57.474
2071.625 0.526 -57.826 0.846 31.742 0.846 31.742 0.526 -57.826
2096.583 0.521 -58.172 0.85 31.389 0.85 31.389 0.521 -58.172
2121.542 0.516 -58.514 0.853 31.042 0.853 31.042 0.516 -58.514
2146.5 0.511 -58.85 0.856 30.7 0.856 30.7 0.511 -58.85
2171.458 0.505 -59.181 0.859 30.362 0.859 30.362 0.505 -59.181
2196.417 0.5 -59.507 0.862 30.03 0.862 30.03 0.5 -59.507
2221.375 0.496 -59.829 0.865 29.702 0.865 29.702 0.496 -59.829
2246.333 0.491 -60.146 0.867 29.379 0.867 29.379 0.491 -60.146
2271.292 0.486 -60.458 0.87 29.061 0.87 29.061 0.486 -60.458
2296.25 0.481 -60.765 0.873 28.747 0.873 28.747 0.481 -60.765
2321.208 0.476 -61.069 0.875 28.437 0.875 28.437 0.476 -61.069
2346.167 0.472 -61.368 0.878 28.132 0.878 28.132 0.472 -61.368
2371.125 0.467 -61.662 0.88 27.831 0.88 27.831 0.467 -61.662
2396.083 0.462 -61.953 0.883 27.534 0.883 27.534 0.462 -61.953
2421.042 0.458 -62.239 0.885 27.241 0.885 27.241 0.458 -62.239
2446 0.453 -62.522 0.887 26.952 0.887 26.952 0.453 -62.522
2470.958 0.449 -62.8 0.889 26.667 0.889 26.667 0.449 -62.8
2495.917 0.444 -63.075 0.892 26.386 0.892 26.386 0.444 -63.075
2520.875 0.44 -63.346 0.894 26.108 0.894 26.108 0.44 -63.346
2545.833 0.436 -63.613 0.896 25.834 0.896 25.834 0.436 -63.613
2570.792 0.432 -63.877 0.898 25.564 0.898 25.564 0.432 -63.877
2595.75 0.427 -64.137 0.9 25.297 0.9 25.297 0.427 -64.137
2620.708 0.423 -64.394 0.902 25.034 0.902 25.034 0.423 -64.394
2645.667 0.419 -64.647 0.904 24.774 0.904 24.774 0.419 -64.647
2670.625 0.415 -64.897 0.906 24.517 0.906 24.517 0.415 -64.897
2695.583 0.411 -65.143 0.907 24.264 0.907 24.264 0.411 -65.143
2720.542 0.407 -65.386 0.909 24.013 0.909 24.013 0.407 -65.386
2745.5 0.403 -65.627 0.911 23.766 0.911 23.766 0.403 -65.627
2770.458 0.399 -65.864 0.913 23.522 0.913 23.522 0.399 -65.864
2795.417 0.395 -66.098 0.914 23.281 0.914 23.281 0.395 -66.098
2820.375 0.391 -66.329 0.916 23.042 0.916 23.042 0.391 -66.329
2845.333 0.388 -66.557 0.918 22.807 0.918 22.807 0.388 -66.557
2870.292 0.384 -66.782 0.919 22.575 0.919 22.575 0.384 -66.782
2895.25 0.38 -67.004 0.921 22.345 0.921 22.345 0.38 -67.004
2920.208 0.377 -67.224 0.922 22.118 0.922 22.118 0.377 -67.224
2945.167 0.373 -67.441 0.924 21.893 0.924 21.893 0.373 -67.441
2970.125 0.369 -67.655 0.925 21.672 0.925 21.672 0.369 -67.655
2995.083 0.366 -67.867 0.926 21.453 0.926 21.453 0.366 -67.867
3020.042 0.362 -68.076 0.928 21.236 0.928 21.236 0.362 -68.076
3045 0.359 -68.282 0.929 21.022 0.929 21.022 0.359 -68.282
3069.958 0.355 -68.486 0.93 20.81 0.93 20.81 0.355 -68.486
3094.917 0.352 -68.688 0.932 20.601 0.932 20.601 0.352 -68.688
3119.875 0.348 -68.887 0.933 20.394 0.933 20.394 0.348 -68.887
3144.833 0.345 -69.084 0.934 20.189 0.934 20.189 0.345 -69.084
3169.792 0.342 -69.278 0.935 19.986 0.935 19.986 0.342 -69.278
3194.75 0.339 -69.471 0.937 19.786 0.937 19.786 0.339 -69.471
3219.708 0.335 -69.66 0.938 19.588 0.938 19.588 0.335 -69.66
3244.667 0.332 -69.848 0.939 19.392 0.939 19.392 0.332 -69.848
3269.625 0.329 -70.034 0.94 19.198 0.94 19.198 0.329 -70.034
3294.583 0.326 -70.217 0.941 19.006 0.941 19.006 0.326 -70.217
3319.542 0.323 -70.399 0.942 18.816 0.942 18.816 0.323 -70.399
3344.5 0.319 -70.578 0.943 18.629 0.943 18.629 0.319 -70.578
3369.458 0.316 -70.755 0.944 18.443 0.944 18.443 0.316 -70.755
3394.417 0.313 -70.931 0.945 18.259 0.945 18.259 0.313 -70.931
3419.375 0.31 -71.104 0.946 18.077 0.946 18.077 0.31 -71.104
3444.333 0.307 -71.275 0.947 17.896 0.947 17.896 0.307 -71.275
3469.292 0.304 -71.445 0.948 17.718 0.948 17.718 0.304 -71.445
3494.25 0.301 -71.612 0.949 17.541 0.949 17.541 0.301 -71.612
3519.208 0.299 -71.778 0.95 17.366 0.95 17.366 0.299 -71.778
3544.167 0.296 -71.942 0.951 17.193 0.951 17.193 0.296 -71.942
3569.125 0.293 -72.104 0.952 17.022 0.952 17.022 0.293 -72.104
3594.083 0.29 -72.265 0.953 16.852 0.953 16.852 0.29 -72.265
3619.042 0.287 -72.424 0.953 16.684 0.953 16.684 0.287 -72.424
3644 0.284 -72.581 0.954 16.517 0.954 16.517 0.284 -72.581
3668.958 0.282 -72.736 0.955 16.352 0.955 16.352 0.282 -72.736
3693.917 0.279 -72.89 0.956 16.189 0.956 16.189 0.279 -72.89
3718.875 0.276 -73.042 0.957 16.027 0.957 16.027 0.276 -73.042
3743.833 0.273 -73.192 0.957 15.867 0.957 15.867 0.273 -73.192
3768.792 0.271 -73.341 0.958 15.708 0.958 15.708 0.271 -73.341
3793.75 0.268 -73.488 0.959 15.551 0.959 15.551 0.268 -73.488
3818.708 0.266 -73.634 0.96 15.395 0.96 15.395 0.266 -73.634
3843.667 0.263 -73.778 0.96 15.24 0.96 15.24 0.263 -73.778
3868.625 0.26 -73.921 0.961 15.087 0.961 15.087 0.26 -73.921
3893.583 0.258 -74.062 0.962 14.935 0.962 14.935 0.258 -74.062
3918.542 0.255 -74.202 0.962 14.784 0.962 14.784 0.255 -74.202
3943.5 0.253 -74.341 0.963 14.635 0.963 14.635 0.253 -74.341
3968.458 0.25 -74.477 0.964 14.487 0.964 14.487 0.25 -74.477
3993.417 0.248 -74.613 0.964 14.341 0.964 14.341 0.248 -74.613
4018.375 0.245 -74.747 0.965 14.196 0.965 14.196 0.245 -74.747
4043.333 0.243 -74.88 0.966 14.051 0.966 14.051 0.243 -74.88
4068.292 0.24 -75.011 0.966 13.909 0.966 13.909 0.24 -75.011
4093.25 0.238 -75.142 0.967 13.767 0.967 13.767 0.238 -75.142
4118.208 0.236 -75.27 0.967 13.626 0.967 13.626 0.236 -75.27
4143.167 0.233 -75.398 0.968 13.487 0.968 13.487 0.233 -75.398
4168.125 0.231 -75.524 0.968 13.349 0.968 13.349 0.231 -75.524
4193.083 0.229 -75.649 0.969 13.212 0.969 13.212 0.229 -75.649
4218.042 0.226 -75.773 0.97 13.076 0.97 13.076 0.226 -75.773
4243 0.224 -75.895 0.97 12.941 0.97 12.941 0.224 -75.895
4267.958 0.222 -76.016 0.971 12.807 0.971 12.807 0.222 -76.016
4292.917 0.219 -76.136 0.971 12.675 0.971 12.675 0.219 -76.136
4317.875 0.217 -76.255 0.972 12.543 0.972 12.543 0.217 -76.255
4342.833 0.215 -76.372 0.972 12.412 0.972 12.412 0.215 -76.372
4367.792 0.213 -76.489 0.973 12.283 0.973 12.283 0.213 -76.489
4392.75 0.211 -76.604 0.973 12.154 0.973 12.154 0.211 -76.604
4417.708 0.208 -76.718 0.973 12.027 0.973 12.027 0.208 -76.718
4442.667 0.206 -76.831 0.974 11.9 0.974 11.9 0.206 -76.831
4467.625 0.204 -76.943 0.974 11.774 0.974 11.774 0.204 -76.943
4492.583 0.202 -77.053 0.975 11.649 0.975 11.649 0.202 -77.053
4517.542 0.2 -77.163 0.975 11.526 0.975 11.526 0.2 -77.163
4542.5 0.198 -77.271 0.976 11.403 0.976 11.403 0.198 -77.271
4567.458 0.196 -77.379 0.976 11.281 0.976 11.281 0.196 -77.379
4592.417 0.194 -77.485 0.977 11.16 0.977 11.16 0.194 -77.485
4617.375 0.192 -77.59 0.977 11.039 0.977 11.039 0.192 -77.59
4642.333 0.189 -77.694 0.977 10.92 0.977 10.92 0.189 -77.694
4667.292 0.187 -77.797 0.978 10.801 0.978 10.801 0.187 -77.797
4692.25 0.185 -77.899 0.978 10.684 0.978 10.684 0.185 -77.899
4717.208 0.183 -78 0.978 10.567 0.978 10.567 0.183 -78
4742.167 0.181 -78.099 0.979 10.451 0.979 10.451 0.181 -78.099
4767.125 0.179 -78.198 0.979 10.336 0.979 10.336 0.179 -78.198
4792.083 0.178 -78.296 0.98 10.221 0.98 10.221 0.178 -78.296
4817.042 0.176 -78.392 0.98 10.108 0.98 10.108 0.176 -78.392
4842 0.174 -78.488 0.98 9.995 0.98 9.995 0.174 -78.488
4866.958 0.172 -78.582 0.981 9.883 0.981 9.883 0.172 -78.582
4891.917 0.17 -78.676 0.981 9.771 0.981 9.771 0.17 -78.676
4916.875 0.168 -78.768 0.981 9.661 0.981 9.661 0.168 -78.768
4941.833 0.166 -78.86 0.982 9.551 0.982 9.551 0.166 -78.86
4966.792 0.164 -78.95 0.982 9.441 0.982 9.441 0.164 -78.95
4991.75 0.162 -79.04 0.982 9.333 0.982 9.333 0.162 -79.04
5016.708 0.16 -79.128 0.982 9.225 0.982 9.225 0.16 -79.128
5041.667 0.159 -79.216 0.983 9.118 0.983 9.118 0.159 -79.216
5066.625 0.157 -79.302 0.983 9.012 0.983 9.012 0.157 -79.302
5091.583 0.155 -79.387 0.983 8.906 0.983 8.906 0.155 -79.387
5116.542 0.153 -79.472 0.984 8.801 0.984 8.801 0.153 -79.472
5141.5 0.151 -79.555 0.984 8.697 0.984 8.697 0.151 -79.555
5166.458 0.149 -79.637 0.984 8.593 0.984 8.593 0.149 -79.637
5191.417 0.148 -79.719 0.984 8.49 0.984 8.49 0.148 -79.719
5216.375 0.146 -79.799 0.985 8.387 0.985 8.387 0.146 -79.799
5241.333 0.144 -79.878 0.985 8.286 0.985 8.286 0.144 -79.878
5266.292 0.142 -79.956 0.985 8.184 0.985 8.184 0.142 -79.956
5291.25 0.141 -80.034 0.985 8.084 0.985 8.084 0.141 -80.034
5316.208 0.139 -80.11 0.986 7.984 0.986 7.984 0.139 -80.11
5341.167 0.137 -80.185 0.986 7.884 0.986 7.884 0.137 -80.185
5366.125 0.136 -80.259 0.986 7.785 0.986 7.785 0.136 -80.259
5391.083 0.134 -80.332 0.986 7.687 0.986 7.687 0.134 -80.332
5416.042 0.132 -80.404 0.987 7.59 0.987 7.59 0.132 -80.404
5441 0.13 -80.475 0.987 7.492 0.987 7.492 0.13 -80.475
5465.958 0.129 -80.544 0.987 7.396 0.987 7.396 0.129 -80.544
5490.917 0.127 -80.613 0.987 7.3 0.987 7.3 0.127 -80.613
5515.875 0.125 -80.68 0.987 7.204 0.987 7.204 0.125 -80.68
5540.833 0.124 -80.747 0.988 7.109 0.988 7.109 0.124 -80.747
5565.792 0.122 -80.812 0.988 7.015 0.988 7.015 0.122 -80.812
5590.75 0.121 -80.876 0.988 6.921 0.988 6.921 0.121 -80.876
5615.708 0.119 -80.939 0.988 6.828 0.988 6.828 0.119 -80.939
5640.667 0.117 -81.001 0.988 6.735 0.988 6.735 0.117 -81.001
5665.625 0.116 -81.062 0.989 6.643 0.989 6.643 0.116 -81.062
5690.583 0.114 -81.121 0.989 6.551 0.989 6.551 0.114 -81.121
5715.542 0.113 -81.179 0.989 6.459 0.989 6.459 0.113 -81.179
5740.5 0.111 -81.236 0.989 6.369 0.989 6.369 0.111 -81.236
5765.458 0.109 -81.292 0.989 6.278 0.989 6.278 0.109 -81.292
5790.417 0.108 -81.346 0.99 6.188 0.99 6.188 0.108 -81.346
5815.375 0.106 -81.399 0.99 6.099 0.99 6.099 0.106 -81.399
5840.333 0.105 -81.451 0.99 6.01 0.99 6.01 0.105 -81.451
5865.292 0.103 -81.501 0.99 5.921 0.99 5.921 0.103 -81.501
5890.25 0.102 -81.55 0.99 5.833 0.99 5.833 0.102 -81.55
5915.208 0.1 -81.598 0.99 5.746 0.99 5.746 0.1 -81.598
5940.167 0.099 -81.644 0.99 5.659 0.99 5.659 0.099 -81.644
5965.125 0.097 -81.688 0.991 5.572 0.991 5.572 0.097 -81.688
5990.083 0.096 -81.731 0.991 5.486 0.991 5.486 0.096 -81.731
6015.042 0.094 -81.773 0.991 5.4 0.991 5.4 0.094 -81.773
6040 0.093 -81.813 0.991 5.314 0.991 5.314 0.093 -81.813
6064.958 0.091 -81.851 0.991 5.229 0.991 5.229 0.091 -81.851
6089.917 0.09 -81.887 0.991 5.145 0.991 5.145 0.09 -81.887
6114.875 0.088 -81.922 0.991 5.06 0.991 5.06 0.088 -81.922
6139.833 0.087 -81.955 0.992 4.977 0.992 4.977 0.087 -81.955
6164.792 0.085 -81.985 0.992 4.893 0.992 4.893 0.085 -81.985
6189.75 0.084 -82.014 0.992 4.81 0.992 4.81 0.084 -82.014
6214.708 0.083 -82.041 0.992 4.728 0.992 4.728 0.083 -82.041
6239.667 0.081 -82.066 0.992 4.645 0.992 4.645 0.081 -82.066
6264.625 0.08 -82.089 0.992 4.564 0.992 4.564 0.08 -82.089
6289.583 0.078 -82.11 0.992 4.482 0.992 4.482 0.078 -82.11
6314.542 0.077 -82.128 0.992 4.401 0.992 4.401 0.077 -82.128
6339.5 0.075 -82.144 0.993 4.32 0.993 4.32 0.075 -82.144
6364.458 0.074 -82.157 0.993 4.24 0.993 4.24 0.074 -82.157
6389.417 0.073 -82.167 0.993 4.16 0.993 4.16 0.073 -82.167
6414.375 0.071 -82.175 0.993 4.08 0.993 4.08 0.071 -82.175
6439.333 0.07 -82.18 0.993 4.001 0.993 4.001 0.07 -82.18
6464.292 0.069 -82.183 0.993 3.922 0.993 3.922 0.069 -82.183
6489.25 0.067 -82.181 0.993 3.844 0.993 3.844 0.067 -82.181
6514.208 0.066 -82.177 0.993 3.765 0.993 3.765 0.066 -82.177
6539.167 0.064 -82.169 0.993 3.688 0.993 3.688 0.064 -82.169
6564.125 0.063 -82.158 0.993 3.61 0.993 3.61 0.063 -82.158
6589.083 0.062 -82.143 0.993 3.533 0.993 3.533 0.062 -82.143
6614.042 0.06 -82.124 0.994 3.456 0.994 3.456 0.06 -82.124
6639 0.059 -82.1 0.994 3.379 0.994 3.379 0.059 -82.1
6663.958 0.058 -82.072 0.994 3.303 0.994 3.303 0.058 -82.072
6688.917 0.056 -82.04 0.994 3.227 0.994 3.227 0.056 -82.04
6713.875 0.055 -82.002 0.994 3.152 0.994 3.152 0.055 -82.002
6738.833 0.054 -81.959 0.994 3.076 0.994 3.076 0.054 -81.959
6763.792 0.053 -81.91 0.994 3.001 0.994 3.001 0.053 -81.91
6788.75 0.051 -81.856 0.994 2.927 0.994 2.927 0.051 -81.856
6813.708 0.05 -81.795 0.994 2.852 0.994 2.852 0.05 -81.795
6838.667 0.049 -81.727 0.994 2.778 0.994 2.778 0.049 -81.727
6863.625 0.047 -81.651 0.994 2.704 0.994 2.704 0.047 -81.651
6888.583 0.046 -81.568 0.994 2.631 0.994 2.631 0.046 -81.568
6913.542 0.045 -81.476 0.994 2.558 0.994 2.558 0.045 -81.476
6938.5 0.044 -81.375 0.994 2.485 0.994 2.485 0.044 -81.375
6963.458 0.042 -81.264 0.994 2.412 0.994 2.412 0.042 -81.264
6988.417 0.041 -81.142 0.995 2.34 0.995 2.34 0.041 -81.142
7013.375 0.04 -81.009 0.995 2.268 0.995 2.268 0.04 -81.009
7038.333 0.039 -80.863 0.995 2.196 0.995 2.196 0.039 -80.863
7063.292 0.037 -80.703 0.995 2.125 0.995 2.125 0.037 -80.703
7088.25 0.036 -80.528 0.995 2.053 0.995 2.053 0.036 -80.528
7113.208 0.035 -80.336 0.995 1.982 0.995 1.982 0.035 -80.336
7138.167 0.034 -80.126 0.995 1.912 0.995 1.912 0.034 -80.126
7163.125 0.032 -79.896 0.995 1.841 0.995 1.841 0.032 -79.896
7188.083 0.031 -79.644 0.995 1.771 0.995 1.771 0.031 -79.644
7213.042 0.03 -79.366 0.995 1.701 0.995 1.701 0.03 -79.366
7238 0.029 -79.061 0.995 1.632 0.995 1.632 0.029 -79.061
7262.958 0.028 -78.724 0.995 1.562 0.995 1.562 0.028 -78.724
7287.917 0.026 -78.353 0.995 1.493 0.995 1.493 0.026 -78.353
7312.875 0.025 -77.941 0.995 1.424 0.995 1.424 0.025 -77.941
7337.833 0.024 -77.484 0.995 1.356 0.995 1.356 0.024 -77.484
7362.792 0.023 -76.976 0.995 1.287 0.995 1.287 0.023 -76.976
7387.75 0.022 -76.407 0.995 1.219 0.995 1.219 0.022 -76.407
7412.708 0.021 -75.769 0.995 1.151 0.995 1.151 0.021 -75.769
7437.667 0.019 -75.051 0.995 1.083 0.995 1.083 0.019 -75.051
7462.625 0.018 -74.236 0.995 1.016 0.995 1.016 0.018 -74.236
7487.583 0.017 -73.309 0.995 0.949 0.995 0.949 0.017 -73.309
7512.542 0.016 -72.246 0.995 0.882 0.995 0.882 0.016 -72.246
7537.5 0.015 -71.019 0.995 0.815 0.995 0.815 0.015 -71.019
7562.458 0.014 -69.59 0.995 0.749 0.995 0.749 0.014 -69.59
7587.417 0.013 -67.912 0.995 0.682 0.995 0.682 0.013 -67.912
7612.375 0.012 -65.921 0.995 0.616 0.995 0.616 0.012 -65.921
7637.333 0.011 -63.531 0.995 0.55 0.995 0.55 0.011 -63.531
7662.292 9.663e-3 -60.627 0.995 0.485 0.995 0.485 9.663e-3 -60.627
7687.25 8.681e-3 -57.049 0.995 0.419 0.995 0.419 8.681e-3 -57.049
7712.208 7.746e-3 -52.583 0.995 0.354 0.995 0.354 7.746e-3 -52.583
7737.167 6.875e-3 -46.942 0.995 0.289 0.995 0.289 6.875e-3 -46.942
7762.125 6.094e-3 -39.77 0.995 0.224 0.995 0.224 6.094e-3 -39.77
7787.083 5.438e-3 -30.701 0.995 0.16 0.995 0.16 5.438e-3 -30.701
7812.042 4.957e-3 -19.55 0.995 0.095 0.995 0.095 4.957e-3 -19.55
7837 4.7e-3 -6.651 0.995 0.031 0.995 0.031 4.7e-3 -6.651
7861.958 4.703e-3 6.917 0.995 -0.033 0.995 -0.033 4.703e-3 6.917
7886.917 4.962e-3 19.712 0.995 -0.096 0.995 -0.096 4.962e-3 19.712
7911.875 5.439e-3 30.708 0.995 -0.16 0.995 -0.16 5.439e-3 30.708
7936.833 6.081e-3 39.623 0.995 -0.223 0.995 -0.223 6.081e-3 39.623
7961.792 6.839e-3 46.667 0.995 -0.286 0.995 -0.286 6.839e-3 46.667
7986.75 7.679e-3 52.209 0.995 -0.349 0.995 -0.349 7.679e-3 52.209
8011.708 8.574e-3 56.6 0.995 -0.412 0.995 -0.412 8.574e-3 56.6
8036.667 9.509e-3 60.122 0.995 -0.475 0.995 -0.475 9.509e-3 60.122
8061.625 0.01 62.986 0.995 -0.537 0.995 -0.537 0.01 62.986
8086.583 0.011 65.345 0.995 -0.599 0.995 -0.599 0.011 65.345
8111.542 0.012 67.314 0.995 -0.661 0.995 -0.661 0.012 67.314
8136.5 0.013 68.975 0.995 -0.723 0.995 -0.723 0.013 68.975
8161.458 0.014 70.392 0.995 -0.785 0.995 -0.785 0.014 70.392
8186.417 0.015 71.611 0.995 -0.846 0.995 -0.846 0.015 71.611
