# MHZ S MA R 50

50 0.997 -4.67 0.081 85.318 0.081 85.318 0.997 -4.67
74.958 0.993 -6.982 0.122 82.999 0.122 82.999 0.993 -6.982
99.917 0.987 -9.273 0.161 80.702 0.161 80.702 0.987 -9.273
124.875 0.98 -11.535 0.2 78.434 0.2 78.434 0.98 -11.535
149.833 0.971 -13.763 0.238 76.201 0.238 76.201 0.971 -13.763
174.792 0.961 -15.95 0.275 74.007 0.275 74.007 0.961 -15.95
199.75 0.95 -18.092 0.311 71.859 0.311 71.859 0.95 -18.092
224.708 0.938 -20.185 0.345 69.76 0.345 69.76 0.938 -20.185
249.667 0.925 -22.225 0.378 67.713 0.378 67.713 0.925 -22.225
274.625 0.912 -24.21 0.41 65.723 0.41 65.723 0.912 -24.21
299.583 0.897 -26.137 0.441 63.79 0.441 63.79 0.897 -26.137
324.542 0.882 -28.004 0.47 61.916 0.47 61.916 0.882 -28.004
349.5 0.867 -29.812 0.497 60.102 0.497 60.102 0.867 -29.812
374.458 0.851 -31.56 0.523 58.348 0.523 58.348 0.851 -31.56
399.417 0.835 -33.246 0.548 56.655 0.548 56.655 0.835 -33.246
424.375 0.819 -34.873 0.572 55.022 0.572 55.022 0.819 -34.873
449.333 0.803 -36.441 0.594 53.448 0.594 53.448 0.803 -36.441
474.292 0.787 -37.951 0.615 51.931 0.615 51.931 0.787 -37.951
499.25 0.771 -39.404 0.635 50.472 0.635 50.472 0.771 -39.404
524.208 0.755 -40.802 0.653 49.068 0.653 49.068 0.755 -40.802
549.167 0.74 -42.147 0.671 47.717 0.671 47.717 0.74 -42.147
574.125 0.724 -43.44 0.688 46.418 0.688 46.418 0.724 -43.44
599.083 0.709 -44.683 0.703 45.168 0.703 45.168 0.709 -44.683
624.042 0.694 -45.877 0.718 43.967 0.718 43.967 0.694 -45.877
649 0.68 -47.026 0.732 42.812 0.732 42.812 0.68 -47.026
673.958 0.665 -48.13 0.745 41.702 0.745 41.702 0.665 -48.13
698.917 0.651 -49.192 0.757 40.634 0.757 40.634 0.651 -49.192
723.875 0.638 -50.213 0.768 39.606 0.768 39.606 0.638 -50.213
748.833 0.624 -51.195 0.779 38.618 0.779 38.618 0.624 -51.195
773.792 0.611 -52.14 0.79 37.666 0.79 37.666 0.611 -52.14
798.75 0.598 -53.049 0.799 36.75 0.799 36.75 0.598 -53.049
823.708 0.586 -53.925 0.808 35.868 0.808 35.868 0.586 -53.925
848.667 0.574 -54.768 0.817 35.018 0.817 35.018 0.574 -54.768
873.625 0.562 -55.58 0.825 34.199 0.825 34.199 0.562 -55.58
898.583 0.551 -56.363 0.833 33.41 0.833 33.41 0.551 -56.363
923.542 0.539 -57.118 0.84 32.648 0.84 32.648 0.539 -57.118
948.5 0.529 -57.846 0.847 31.913 0.847 31.913 0.529 -57.846
973.458 0.518 -58.549 0.853 31.204 0.853 31.204 0.518 -58.549
998.417 0.508 -59.228 0.859 30.518 0.859 30.518 0.508 -59.228
1023.375 0.498 -59.883 0.865 29.856 0.865 29.856 0.498 -59.883
1048.333 0.488 -60.516 0.87 29.217 0.87 29.217 0.488 -60.516
1073.292 0.479 -61.128 0.876 28.598 0.876 28.598 0.479 -61.128
1098.25 0.469 -61.719 0.881 27.999 0.881 27.999 0.469 -61.719
1123.208 0.461 -62.292 0.885 27.42 0.885 27.42 0.461 -62.292
1148.167 0.452 -62.846 0.89 26.859 0.89 26.859 0.452 -62.846
1173.125 0.443 -63.382 0.894 26.315 0.894 26.315 0.443 -63.382
1198.083 0.435 -63.902 0.898 25.788 0.898 25.788 0.435 -63.902
1223.042 0.427 -64.406 0.902 25.277 0.902 25.277 0.427 -64.406
1248 0.419 -64.894 0.906 24.782 0.906 24.782 0.419 -64.894
1272.958 0.412 -65.367 0.909 24.301 0.909 24.301 0.412 -65.367
1297.917 0.404 -65.827 0.912 23.834 0.912 23.834 0.404 -65.827
1322.875 0.397 -66.273 0.915 23.381 0.915 23.381 0.397 -66.273
1347.833 0.39 -66.706 0.919 22.94 0.919 22.94 0.39 -66.706
1372.792 0.383 -67.127 0.921 22.512 0.921 22.512 0.383 -67.127
1397.75 0.376 -67.536 0.924 22.095 0.924 22.095 0.376 -67.536
1422.708 0.37 -67.933 0.927 21.69 0.927 21.69 0.37 -67.933
1447.667 0.363 -68.32 0.929 21.296 0.929 21.296 0.363 -68.32
1472.625 0.357 -68.696 0.932 20.912 0.932 20.912 0.357 -68.696
1497.583 0.351 -69.062 0.934 20.538 0.934 20.538 0.351 -69.062
1522.542 0.345 -69.419 0.936 20.174 0.936 20.174 0.345 -69.419
1547.5 0.339 -69.766 0.938 19.819 0.938 19.819 0.339 -69.766
1572.458 0.333 -70.104 0.94 19.473 0.94 19.473 0.333 -70.104
1597.417 0.328 -70.433 0.942 19.135 0.942 19.135 0.328 -70.433
1622.375 0.322 -70.755 0.944 18.805 0.944 18.805 0.322 -70.755
1647.333 0.317 -71.068 0.946 18.484 0.946 18.484 0.317 -71.068
1672.292 0.312 -71.374 0.948 18.17 0.948 18.17 0.312 -71.374
1697.25 0.307 -71.672 0.949 17.863 0.949 17.863 0.307 -71.672
1722.208 0.302 -71.963 0.951 17.563 0.951 17.563 0.302 -71.963
1747.167 0.297 -72.248 0.952 17.271 0.952 17.271 0.297 -72.248
1772.125 0.292 -72.526 0.954 16.984 0.954 16.984 0.292 -72.526
1797.083 0.287 -72.797 0.955 16.704 0.955 16.704 0.287 -72.797
1822.042 0.283 -73.062 0.957 16.43 0.957 16.43 0.283 -73.062
1847 0.278 -73.321 0.958 16.162 0.958 16.162 0.278 -73.321
1871.958 0.274 -73.575 0.959 15.9 0.959 15.9 0.274 -73.575
1896.917 0.27 -73.822 0.96 15.643 0.96 15.643 0.27 -73.822
1921.875 0.265 -74.065 0.962 15.391 0.962 15.391 0.265 -74.065
1946.833 0.261 -74.302 0.963 15.145 0.963 15.145 0.261 -74.302
1971.792 0.257 -74.534 0.964 14.903 0.964 14.903 0.257 -74.534
1996.75 0.253 -74.761 0.965 14.666 0.965 14.666 0.253 -74.761
2021.708 0.249 -74.984 0.966 14.434 0.966 14.434 0.249 -74.984
2046.667 0.245 -75.202 0.967 14.206 0.967 14.206 0.245 -75.202
2071.625 0.242 -75.416 0.968 13.983 0.968 13.983 0.242 -75.416
2096.583 0.238 -75.625 0.969 13.764 0.969 13.764 0.238 -75.625
2121.542 0.234 -75.83 0.97 13.549 0.97 13.549 0.234 -75.83
2146.5 0.231 -76.031 0.97 13.338 0.97 13.338 0.231 -76.031
2171.458 0.227 -76.228 0.971 13.13 0.971 13.13 0.227 -76.228
2196.417 0.224 -76.421 0.972 12.927 0.972 12.927 0.224 -76.421
2221.375 0.22 -76.611 0.973 12.726 0.973 12.726 0.22 -76.611
2246.333 0.217 -76.796 0.974 12.53 0.974 12.53 0.217 -76.796
2271.292 0.214 -76.979 0.974 12.336 0.974 12.336 0.214 -76.979
2296.25 0.21 -77.158 0.975 12.146 0.975 12.146 0.21 -77.158
2321.208 0.207 -77.333 0.976 11.96 0.976 11.96 0.207 -77.333
2346.167 0.204 -77.506 0.976 11.776 0.976 11.776 0.204 -77.506
2371.125 0.201 -77.675 0.977 11.595 0.977 11.595 0.201 -77.675
2396.083 0.198 -77.841 0.978 11.417 0.978 11.417 0.198 -77.841
2421.042 0.195 -78.004 0.978 11.242 0.978 11.242 0.195 -78.004
2446 0.192 -78.165 0.979 11.07 0.979 11.07 0.192 -78.165
2470.958 0.189 -78.322 0.979 10.9 0.979 10.9 0.189 -78.322
2495.917 0.186 -78.477 0.98 10.733 0.98 10.733 0.186 -78.477
2520.875 0.183 -78.629 0.98 10.569 0.98 10.569 0.183 -78.629
2545.833 0.181 -78.778 0.981 10.407 0.981 10.407 0.181 -78.778
2570.792 0.178 -78.925 0.981 10.247 0.981 10.247 0.178 -78.925
2595.75 0.175 -79.069 0.982 10.09 0.982 10.09 0.175 -79.069
2620.708 0.173 -79.21 0.982 9.935 0.982 9.935 0.173 -79.21
2645.667 0.17 -79.35 0.983 9.782 0.983 9.782 0.17 -79.35
2670.625 0.167 -79.486 0.983 9.631 0.983 9.631 0.167 -79.486
2695.583 0.165 -79.621 0.984 9.483 0.984 9.483 0.165 -79.621
2720.542 0.162 -79.753 0.984 9.336 0.984 9.336 0.162 -79.753
2745.5 0.16 -79.883 0.985 9.192 0.985 9.192 0.16 -79.883
2770.458 0.157 -80.011 0.985 9.049 0.985 9.049 0.157 -80.011
2795.417 0.155 -80.137 0.985 8.908 0.985 8.908 0.155 -80.137
2820.375 0.152 -80.26 0.986 8.769 0.986 8.769 0.152 -80.26
2845.333 0.15 -80.382 0.986 8.632 0.986 8.632 0.15 -80.382
2870.292 0.148 -80.501 0.986 8.497 0.986 8.497 0.148 -80.501
2895.25 0.145 -80.618 0.987 8.363 0.987 8.363 0.145 -80.618
2920.208 0.143 -80.734 0.987 8.231 0.987 8.231 0.143 -80.734
2945.167 0.141 -80.847 0.987 8.101 0.987 8.101 0.141 -80.847
2970.125 0.139 -80.959 0.988 7.972 0.988 7.972 0.139 -80.959
2995.083 0.137 -81.069 0.988 7.845 0.988 7.845 0.137 -81.069
3020.042 0.134 -81.176 0.988 7.719 0.988 7.719 0.134 -81.176
3045 0.132 -81.282 0.989 7.595 0.989 7.595 0.132 -81.282
3069.958 0.13 -81.387 0.989 7.472 0.989 7.472 0.13 -81.387
3094.917 0.128 -81.489 0.989 7.351 0.989 7.351 0.128 -81.489
3119.875 0.126 -81.589 0.989 7.231 0.989 7.231 0.126 -81.589
3144.833 0.124 -81.688 0.99 7.112 0.99 7.112 0.124 -81.688
3169.792 0.122 -81.785 0.99 6.995 0.99 6.995 0.122 -81.785
3194.75 0.12 -81.88 0.99 6.879 0.99 6.879 0.12 -81.88
3219.708 0.118 -81.974 0.99 6.764 0.99 6.764 0.118 -81.974
3244.667 0.116 -82.066 0.991 6.65 0.991 6.65 0.116 -82.066
3269.625 0.114 -82.156 0.991 6.538 0.991 6.538 0.114 -82.156
3294.583 0.112 -82.244 0.991 6.427 0.991 6.427 0.112 -82.244
3319.542 0.11 -82.331 0.991 6.317 0.991 6.317 0.11 -82.331
3344.5 0.108 -82.416 0.992 6.208 0.992 6.208 0.108 -82.416
3369.458 0.106 -82.499 0.992 6.1 0.992 6.1 0.106 -82.499
3394.417 0.104 -82.581 0.992 5.993 0.992 5.993 0.104 -82.581
3419.375 0.103 -82.661 0.992 5.888 0.992 5.888 0.103 -82.661
3444.333 0.101 -82.739 0.992 5.783 0.992 5.783 0.101 -82.739
3469.292 0.099 -82.815 0.992 5.68 0.992 5.68 0.099 -82.815
3494.25 0.097 -82.89 0.993 5.577 0.993 5.577 0.097 -82.89
3519.208 0.095 -82.963 0.993 5.475 0.993 5.475 0.095 -82.963
3544.167 0.094 -83.034 0.993 5.375 0.993 5.375 0.094 -83.034
3569.125 0.092 -83.104 0.993 5.275 0.993 5.275 0.092 -83.104
3594.083 0.09 -83.171 0.993 5.176 0.993 5.176 0.09 -83.171
3619.042 0.089 -83.237 0.993 5.078 0.993 5.078 0.089 -83.237
3644 0.087 -83.301 0.994 4.981 0.994 4.981 0.087 -83.301
3668.958 0.085 -83.363 0.994 4.885 0.994 4.885 0.085 -83.363
3693.917 0.084 -83.424 0.994 4.79 0.994 4.79 0.084 -83.424
3718.875 0.082 -83.482 0.994 4.696 0.994 4.696 0.082 -83.482
3743.833 0.08 -83.538 0.994 4.602 0.994 4.602 0.08 -83.538
3768.792 0.079 -83.593 0.994 4.509 0.994 4.509 0.079 -83.593
3793.75 0.077 -83.645 0.994 4.417 0.994 4.417 0.077 -83.645
3818.708 0.075 -83.695 0.995 4.326 0.995 4.326 0.075 -83.695
3843.667 0.074 -83.744 0.995 4.235 0.995 4.235 0.074 -83.744
3868.625 0.072 -83.789 0.995 4.145 0.995 4.145 0.072 -83.789
3893.583 0.071 -83.833 0.995 4.056 0.995 4.056 0.071 -83.833
3918.542 0.069 -83.874 0.995 3.968 0.995 3.968 0.069 -83.874
3943.5 0.068 -83.913 0.995 3.88 0.995 3.88 0.068 -83.913
3968.458 0.066 -83.949 0.995 3.794 0.995 3.794 0.066 -83.949
3993.417 0.065 -83.983 0.995 3.707 0.995 3.707 0.065 -83.983
4018.375 0.063 -84.014 0.995 3.622 0.995 3.622 0.063 -84.014
4043.333 0.062 -84.042 0.995 3.537 0.995 3.537 0.062 -84.042
4068.292 0.06 -84.067 0.996 3.452 0.996 3.452 0.06 -84.067
4093.25 0.059 -84.089 0.996 3.369 0.996 3.369 0.059 -84.089
4118.208 0.057 -84.108 0.996 3.286 0.996 3.286 0.057 -84.108
4143.167 0.056 -84.123 0.996 3.203 0.996 3.203 0.056 -84.123
4168.125 0.055 -84.135 0.996 3.121 0.996 3.121 0.055 -84.135
4193.083 0.053 -84.143 0.996 3.04 0.996 3.04 0.053 -84.143
4218.042 0.052 -84.147 0.996 2.959 0.996 2.959 0.052 -84.147
4243 0.05 -84.146 0.996 2.879 0.996 2.879 0.05 -84.146
4267.958 0.049 -84.141 0.996 2.8 0.996 2.8 0.049 -84.141
4292.917 0.048 -84.132 0.996 2.721 0.996 2.721 0.048 -84.132
4317.875 0.046 -84.117 0.996 2.642 0.996 2.642 0.046 -84.117
4342.833 0.045 -84.096 0.996 2.564 0.996 2.564 0.045 -84.096
4367.792 0.043 -84.07 0.996 2.487 0.996 2.487 0.043 -84.07
4392.75 0.042 -84.037 0.997 2.41 0.997 2.41 0.042 -84.037
4417.708 0.041 -83.997 0.997 2.334 0.997 2.334 0.041 -83.997
4442.667 0.039 -83.95 0.997 2.258 0.997 2.258 0.039 -83.95
4467.625 0.038 -83.894 0.997 2.182 0.997 2.182 0.038 -83.894
4492.583 0.037 -83.83 0.997 2.107 0.997 2.107 0.037 -83.83
4517.542 0.036 -83.756 0.997 2.033 0.997 2.033 0.036 -83.756
4542.5 0.034 -83.672 0.997 1.959 0.997 1.959 0.034 -83.672
4567.458 0.033 -83.575 0.997 1.885 0.997 1.885 0.033 -83.575
4592.417 0.032 -83.466 0.997 1.812 0.997 1.812 0.032 -83.466
4617.375 0.03 -83.342 0.997 1.74 0.997 1.74 0.03 -83.342
4642.333 0.029 -83.202 0.997 1.667 0.997 1.667 0.029 -83.202
4667.292 0.028 -83.045 0.997 1.596 0.997 1.596 0.028 -83.045
4692.25 0.027 -82.867 0.997 1.524 0.997 1.524 0.027 -82.867
4717.208 0.025 -82.665 0.997 1.453 0.997 1.453 0.025 -82.665
4742.167 0.024 -82.438 0.997 1.383 0.997 1.383 0.024 -82.438
4767.125 0.023 -82.181 0.997 1.313 0.997 1.313 0.023 -82.181
4792.083 0.022 -81.889 0.997 1.243 0.997 1.243 0.022 -81.889
4817.042 0.021 -81.556 0.997 1.174 0.997 1.174 0.021 -81.556
4842 0.019 -81.177 0.997 1.105 0.997 1.105 0.019 -81.177
4866.958 0.018 -80.741 0.997 1.036 0.997 1.036 0.018 -80.741
4891.917 0.017 -80.239 0.997 0.968 0.997 0.968 0.017 -80.239
4916.875 0.016 -79.655 0.997 0.9 0.997 0.9 0.016 -79.655
4941.833 0.015 -78.973 0.997 0.833 0.997 0.833 0.015 -78.973
4966.792 0.014 -78.167 0.997 0.765 0.997 0.765 0.014 -78.167
4991.75 0.012 -77.206 0.997 0.699 0.997 0.699 0.012 -77.206
5016.708 0.011 -76.046 0.997 0.632 0.997 0.632 0.011 -76.046
5041.667 0.01 -74.623 0.997 0.566 0.997 0.566 0.01 -74.623
5066.625 9.119e-3 -72.846 0.997 0.501 0.997 0.501 9.119e-3 -72.846
5091.583 8.032e-3 -70.577 0.997 0.435 0.997 0.435 8.032e-3 -70.577
5116.542 6.968e-3 -67.604 0.997 0.37 0.997 0.37 6.968e-3 -67.604
5141.5 5.936e-3 -63.575 0.997 0.305 0.997 0.305 5.936e-3 -63.575
5166.458 4.952e-3 -57.903 0.997 0.241 0.997 0.241 4.952e-3 -57.903
5191.417 4.045e-3 -49.574 0.997 0.177 0.997 0.177 4.045e-3 -49.574
5216.375 3.275e-3 -36.95 0.997 0.113 0.997 0.113 3.275e-3 -36.95
5241.333 2.753e-3 -18.283 0.997 0.05 0.997 0.05 2.753e-3 -18.283
5266.292 2.624e-3 5.16 0.997 -0.014 0.997 -0.014 2.624e-3 5.16
5291.25 2.934e-3 26.966 0.997 -0.076 0.997 -0.076 2.934e-3 26.966
5316.208 3.566e-3 42.735 0.997 -0.139 0.997 -0.139 3.566e-3 42.735
5341.167 4.379e-3 53.156 0.997 -0.201 0.997 -0.201 4.379e-3 53.156
5366.125 5.287e-3 60.112 0.997 -0.263 0.997 -0.263 5.287e-3 60.112
5391.083 6.246e-3 64.941 0.997 -0.325 0.997 -0.325 6.246e-3 64.941
5416.042 7.234e-3 68.436 0.997 -0.386 0.997 -0.386 7.234e-3 68.436
5441 8.238e-3 71.058 0.997 -0.448 0.997 -0.448 8.238e-3 71.058
5465.958 9.252e-3 73.085 0.997 -0.509 0.997 -0.509 9.252e-3 73.085
5490.917 0.01 74.692 0.997 -0.569 0.997 -0.569 0.01 74.692
5515.875 0.011 75.992 0.997 -0.63 0.997 -0.63 0.011 75.992
5540.833 0.012 77.061 0.997 -0.69 0.997 -0.69 0.012 77.061
5565.792 0.013 77.953 0.997 -0.749 0.997 -0.749 0.013 77.953
5590.75 0.014 78.707 0.997 -0.809 0.997 -0.809 0.014 78.707
5615.708 0.015 79.349 0.997 -0.868 0.997 -0.868 0.015 79.349
5640.667 0.016 79.903 0.997 -0.928 0.997 -0.928 0.016 79.903
5665.625 0.017 80.382 0.997 -0.986 0.997 -0.986 0.017 80.382
5690.583 0.018 80.801 0.997 -1.045 0.997 -1.045 0.018 80.801
5715.542 0.019 81.169 0.997 -1.103 0.997 -1.103 0.019 81.169
5740.5 0.02 81.493 0.997 -1.161 0.997 -1.161 0.02 81.493
5765.458 0.021 81.781 0.997 -1.219 0.997 -1.219 0.021 81.781
5790.417 0.022 82.036 0.997 -1.277 0.997 -1.277 0.022 82.036
5815.375 0.023 82.265 0.997 -1.334 0.997 -1.334 0.023 82.265
5840.333 0.024 82.469 0.997 -1.392 0.997 -1.392 0.024 82.469
5865.292 0.025 82.651 0.997 -1.449 0.997 -1.449 0.025 82.651
5890.25 0.026 82.816 0.997 -1.505 0.997 -1.505 0.026 82.816
5915.208 0.027 82.964 0.997 -1.562 0.997 -1.562 0.027 82.964
5940.167 0.028 83.097 0.997 -1.618 0.997 -1.618 0.028 83.097
5965.125 0.029 83.217 0.997 -1.675 0.997 -1.675 0.029 83.217
5990.083 0.03 83.326 0.997 -1.73 0.997 -1.73 0.03 83.326
6015.042 0.031 83.423 0.997 -1.786 0.997 -1.786 0.031 83.423
6040 0.032 83.512 0.997 -1.842 0.997 -1.842 0.032 83.512
6064.958 0.033 83.591 0.997 -1.897 0.997 -1.897 0.033 83.591
6089.917 0.034 83.663 0.997 -1.952 0.997 -1.952 0.034 83.663
6114.875 0.035 83.728 0.997 -2.007 0.997 -2.007 0.035 83.728
6139.833 0.036 83.786 0.997 -2.062 0.997 -2.062 0.036 83.786
6164.792 0.037 83.838 0.997 -2.116 0.997 -2.116 0.037 83.838
6189.75 0.038 83.885 0.997 -2.171 0.997 -2.171 0.038 83.885
6214.708 0.039 83.927 0.997 -2.225 0.997 -2.225 0.039 83.927
6239.667 0.04 83.964 0.997 -2.279 0.997 -2.279 0.04 83.964
6264.625 0.041 83.996 0.997 -2.333 0.997 -2.333 0.041 83.996
6289.583 0.042 84.025 0.997 -2.386 0.997 -2.386 0.042 84.025
6314.542 0.043 84.05 0.996 -2.44 0.996 -2.44 0.043 84.05
6339.5 0.044 84.072 0.996 -2.493 0.996 -2.493 0.044 84.072
6364.458 0.044 84.09 0.996 -2.546 0.996 -2.546 0.044 84.09
6389.417 0.045 84.106 0.996 -2.599 0.996 -2.599 0.045 84.106
6414.375 0.046 84.119 0.996 -2.652 0.996 -2.652 0.046 84.119
6439.333 0.047 84.129 0.996 -2.704 0.996 -2.704 0.047 84.129
6464.292 0.048 84.137 0.996 -2.757 0.996 -2.757 0.048 84.137
6489.25 0.049 84.142 0.996 -2.809 0.996 -2.809 0.049 84.142
6514.208 0.05 84.146 0.996 -2.861 0.996 -2.861 0.05 84.146
6539.167 0.051 84.147 0.996 -2.913 0.996 -2.913 0.051 84.147
6564.125 0.052 84.147 0.996 -2.965 0.996 -2.965 0.052 84.147
6589.083 0.053 84.144 0.996 -3.016 0.996 -3.016 0.053 84.144
6614.042 0.054 84.141 0.996 -3.068 0.996 -3.068 0.054 84.141
6639 0.054 84.135 0.996 -3.119 0.996 -3.119 0.054 84.135
6663.958 0.055 84.128 0.996 -3.17 0.996 -3.17 0.055 84.128
6688.917 0.056 84.12 0.996 -3.221 0.996 -3.221 0.056 84.12
6713.875 0.057 84.111 0.996 -3.272 0.996 -3.272 0.057 84.111
6738.833 0.058 84.1 0.996 -3.322 0.996 -3.322 0.058 84.1
6763.792 0.059 84.088 0.996 -3.373 0.996 -3.373 0.059 84.088
6788.75 0.06 84.075 0.996 -3.423 0.996 -3.423 0.06 84.075
6813.708 0.061 84.061 0.996 -3.474 0.996 -3.474 0.061 84.061
6838.667 0.062 84.046 0.996 -3.524 0.996 -3.524 0.062 84.046
6863.625 0.062 84.03 0.995 -3.574 0.995 -3.574 0.062 84.03
6888.583 0.063 84.013 0.995 -3.623 0.995 -3.623 0.063 84.013
6913.542 0.064 83.996 0.995 -3.673 0.995 -3.673 0.064 83.996
6938.5 0.065 83.977 0.995 -3.723 0.995 -3.723 0.065 83.977
6963.458 0.066 83.958 0.995 -3.772 0.995 -3.772 0.066 83.958
6988.417 0.067 83.938 0.995 -3.821 0.995 -3.821 0.067 83.938
7013.375 0.068 83.917 0.995 -3.87 0.995 -3.87 0.068 83.917
7038.333 0.068 83.896 0.995 -3.919 0.995 -3.919 0.068 83.896
7063.292 0.069 83.874 0.995 -3.968 0.995 -3.968 0.069 83.874
7088.25 0.07 83.852 0.995 -4.017 0.995 -4.017 0.07 83.852
7113.208 0.071 83.829 0.995 -4.066 0.995 -4.066 0.071 83.829
7138.167 0.072 83.805 0.995 -4.114 0.995 -4.114 0.072 83.805
7163.125 0.073 83.781 0.995 -4.163 0.995 -4.163 0.073 83.781
7188.083 0.073 83.756 0.995 -4.211 0.995 -4.211 0.073 83.756
7213.042 0.074 83.731 0.995 -4.259 0.995 -4.259 0.074 83.731
7238 0.075 83.706 0.995 -4.307 0.995 -4.307 0.075 83.706
7262.958 0.076 83.68 0.995 -4.355 0.995 -4.355 0.076 83.68
7287.917 0.077 83.653 0.994 -4.403 0.994 -4.403 0.077 83.653
7312.875 0.078 83.627 0.994 -4.45 0.994 -4.45 0.078 83.627
7337.833 0.078 83.599 0.994 -4.498 0.994 -4.498 0.078 83.599
7362.792 0.079 83.572 0.994 -4.545 0.994 -4.545 0.079 83.572
7387.75 0.08 83.544 0.994 -4.592 0.994 -4.592 0.08 83.544
7412.708 0.081 83.516 0.994 -4.64 0.994 -4.64 0.081 83.516
7437.667 0.082 83.487 0.994 -4.687 0.994 -4.687 0.082 83.487
7462.625 0.083 83.459 0.994 -4.734 0.994 -4.734 0.083 83.459
7487.583 0.083 83.43 0.994 -4.78 0.994 -4.78 0.083 83.43
7512.542 0.084 83.4 0.994 -4.827 0.994 -4.827 0.084 83.4
7537.5 0.085 83.371 0.994 -4.874 0.994 -4.874 0.085 83.371
7562.458 0.086 83.341 0.994 -4.92 0.994 -4.92 0.086 83.341
7587.417 0.087 83.311 0.994 -4.967 0.994 -4.967 0.087 83.311
7612.375 0.087 83.28 0.994 -5.013 0.994 -5.013 0.087 83.28
7637.333 0.088 83.25 0.994 -5.059 0.994 -5.059 0.088 83.25
7662.292 0.089 83.219 0.993 -5.105 0.993 -5.105 0.089 83.219
7687.25 0.09 83.188 0.993 -5.151 0.993 -5.151 0.09 83.188
7712.208 0.091 83.157 0.993 -5.197 0.993 -5.197 0.091 83.157
7737.167 0.091 83.126 0.993 -5.243 0.993 -5.243 0.091 83.126
7762.125 0.092 83.094 0.993 -5.289 0.993 -5.289 0.092 83.094
7787.083 0.093 83.062 0.993 -5.334 0.993 -5.334 0.093 83.062
7812.042 0.094 83.031 0.993 -5.38 0.993 -5.38 0.094 83.031
7837 0.095 82.999 0.993 -5.425 0.993 -5.425 0.095 82.999
7861.958 0.095 82.966 0.993 -5.471 0.993 -5.471 0.095 82.966
7886.917 0.096 82.934 0.993 -5.516 0.993 -5.516 0.096 82.934
7911.875 0.097 82.902 0.993 -5.561 0.993 -5.561 0.097 82.902
7936.833 0.098 82.869 0.993 -5.606 0.993 -5.606 0.098 82.869
7961.792 0.098 82.836 0.993 -5.651 0.993 -5.651 0.098 82.836
7986.75 0.099 82.803 0.992 -5.696 0.992 -5.696 0.099 82.803
8011.708 0.1 82.77 0.992 -5.74 0.992 -5.74 0.1 82.77
8036.667 0.101 82.737 0.992 -5.785 0.992 -5.785 0.101 82.737
8061.625 0.102 82.704 0.992 -5.83 0.992 -5.83 0.102 82.704
8086.583 0.102 82.671 0.992 -5.874 0.992 -5.874 0.102 82.671
8111.542 0.103 82.637 0.992 -5.918 0.992 -5.918 0.103 82.637
8136.5 0.104 82.604 0.992 -5.963 0.992 -5.963 0.104 82.604
8161.458 0.105 82.57 0.992 -6.007 0.992 -6.007 0.105 82.57
8186.417 0.105 82.537 0.992 -6.051 0.992 -6.051 0.105 82.537
8211.375 0.106 82.503 0.992 -6.095 0.992 -6.095 0.106 82.503
8236.333 0.107 82.469 0.992 -6.139 0.992 -6.139 0.107 82.469
