# MHZ S MA R 50

50 0.994 -6.275 0.109 83.71 0.109 83.71 0.994 -6.275
74.958 0.987 -9.362 0.163 80.616 0.163 80.616 0.987 -9.362
99.917 0.977 -12.397 0.215 77.574 0.215 77.574 0.977 -12.397
124.875 0.964 -15.364 0.265 74.6 0.265 74.6 0.964 -15.364
149.833 0.949 -18.251 0.313 71.706 0.313 71.706 0.949 -18.251
174.792 0.933 -21.047 0.359 68.902 0.359 68.902 0.933 -21.047
199.75 0.915 -23.745 0.403 66.197 0.403 66.197 0.915 -23.745
224.708 0.896 -26.339 0.444 63.597 0.444 63.597 0.896 -26.339
249.667 0.876 -28.824 0.482 61.105 0.482 61.105 0.876 -28.824
274.625 0.855 -31.199 0.518 58.722 0.518 58.722 0.855 -31.199
299.583 0.833 -33.464 0.551 56.45 0.551 56.45 0.833 -33.464
324.542 0.812 -35.62 0.582 54.287 0.582 54.287 0.812 -35.62
349.5 0.79 -37.669 0.611 52.23 0.611 52.23 0.79 -37.669
374.458 0.769 -39.614 0.638 50.278 0.638 50.278 0.769 -39.614
399.417 0.748 -41.46 0.662 48.425 0.662 48.425 0.748 -41.46
424.375 0.727 -43.21 0.685 46.667 0.685 46.667 0.727 -43.21
449.333 0.707 -44.869 0.705 45.001 0.705 45.001 0.707 -44.869
474.292 0.687 -46.441 0.725 43.422 0.725 43.422 0.687 -46.441
499.25 0.668 -47.931 0.742 41.924 0.742 41.924 0.668 -47.931
524.208 0.65 -49.344 0.759 40.504 0.759 40.504 0.65 -49.344
549.167 0.631 -50.683 0.774 39.157 0.774 39.157 0.631 -50.683
574.125 0.614 -51.954 0.788 37.879 0.788 37.879 0.614 -51.954
599.083 0.597 -53.161 0.8 36.665 0.8 36.665 0.597 -53.161
624.042 0.581 -54.307 0.812 35.512 0.812 35.512 0.581 -54.307
649 0.565 -55.395 0.823 34.415 0.823 34.415 0.565 -55.395
673.958 0.55 -56.431 0.833 33.372 0.833 33.372 0.55 -56.431
698.917 0.536 -57.417 0.843 32.379 0.843 32.379 0.536 -57.417
723.875 0.521 -58.355 0.851 31.432 0.851 31.432 0.521 -58.355
748.833 0.508 -59.25 0.859 30.53 0.859 30.53 0.508 -59.25
773.792 0.495 -60.103 0.867 29.669 0.867 29.669 0.495 -60.103
798.75 0.482 -60.918 0.874 28.847 0.874 28.847 0.482 -60.918
823.708 0.47 -61.696 0.88 28.061 0.88 28.061 0.47 -61.696
848.667 0.459 -62.44 0.887 27.309 0.887 27.309 0.459 -62.44
873.625 0.448 -63.152 0.892 26.589 0.892 26.589 0.448 -63.152
898.583 0.437 -63.833 0.898 25.899 0.898 25.899 0.437 -63.833
923.542 0.426 -64.487 0.902 25.238 0.902 25.238 0.426 -64.487
948.5 0.416 -65.113 0.907 24.604 0.907 24.604 0.416 -65.113
973.458 0.407 -65.714 0.912 23.994 0.912 23.994 0.407 -65.714
998.417 0.397 -66.291 0.916 23.409 0.916 23.409 0.397 -66.291
1023.375 0.388 -66.846 0.919 22.846 0.919 22.846 0.388 -66.846
1048.333 0.38 -67.38 0.923 22.304 0.923 22.304 0.38 -67.38
1073.292 0.371 -67.893 0.926 21.782 0.926 21.782 0.371 -67.893
1098.25 0.363 -68.387 0.93 21.279 0.93 21.279 0.363 -68.387
1123.208 0.355 -68.864 0.933 20.794 0.933 20.794 0.355 -68.864
1148.167 0.347 -69.323 0.936 20.326 0.936 20.326 0.347 -69.323
1173.125 0.34 -69.767 0.938 19.874 0.938 19.874 0.34 -69.767
1198.083 0.333 -70.195 0.941 19.438 0.941 19.438 0.333 -70.195
1223.042 0.326 -70.608 0.943 19.015 0.943 19.015 0.326 -70.608
1248 0.319 -71.008 0.946 18.607 0.946 18.607 0.319 -71.008
1272.958 0.313 -71.394 0.948 18.212 0.948 18.212 0.313 -71.394
1297.917 0.306 -71.768 0.95 17.829 0.95 17.829 0.306 -71.768
1322.875 0.3 -72.13 0.952 17.458 0.952 17.458 0.3 -72.13
1347.833 0.294 -72.48 0.954 17.098 0.954 17.098 0.294 -72.48
1372.792 0.288 -72.82 0.955 16.749 0.955 16.749 0.288 -72.82
1397.75 0.283 -73.15 0.957 16.41 0.957 16.41 0.283 -73.15
1422.708 0.277 -73.469 0.959 16.081 0.959 16.081 0.277 -73.469
1447.667 0.272 -73.779 0.96 15.761 0.96 15.761 0.272 -73.779
1472.625 0.266 -74.08 0.962 15.45 0.962 15.45 0.266 -74.08
1497.583 0.261 -74.373 0.963 15.148 0.963 15.148 0.261 -74.373
1522.542 0.256 -74.657 0.964 14.853 0.964 14.853 0.256 -74.657
1547.5 0.252 -74.934 0.966 14.567 0.966 14.567 0.252 -74.934
1572.458 0.247 -75.202 0.967 14.288 0.967 14.288 0.247 -75.202
1597.417 0.242 -75.464 0.968 14.016 0.968 14.016 0.242 -75.464
1622.375 0.238 -75.718 0.969 13.751 0.969 13.751 0.238 -75.718
1647.333 0.233 -75.966 0.97 13.493 0.97 13.493 0.233 -75.966
1672.292 0.229 -76.208 0.971 13.241 0.971 13.241 0.229 -76.208
1697.25 0.225 -76.443 0.972 12.995 0.972 12.995 0.225 -76.443
1722.208 0.221 -76.672 0.973 12.755 0.973 12.755 0.221 -76.672
1747.167 0.217 -76.895 0.974 12.52 0.974 12.52 0.217 -76.895
1772.125 0.213 -77.113 0.975 12.291 0.975 12.291 0.213 -77.113
1797.083 0.209 -77.326 0.976 12.067 0.976 12.067 0.209 -77.326
1822.042 0.205 -77.534 0.976 11.848 0.976 11.848 0.205 -77.534
1847 0.202 -77.736 0.977 11.633 0.977 11.633 0.202 -77.736
1871.958 0.198 -77.934 0.978 11.424 0.978 11.424 0.198 -77.934
1896.917 0.195 -78.127 0.979 11.218 0.979 11.218 0.195 -78.127
1921.875 0.191 -78.316 0.979 11.017 0.979 11.017 0.191 -78.316
1946.833 0.188 -78.5 0.98 10.821 0.98 10.821 0.188 -78.5
1971.792 0.184 -78.681 0.981 10.628 0.981 10.628 0.184 -78.681
1996.75 0.181 -78.857 0.981 10.439 0.981 10.439 0.181 -78.857
2021.708 0.178 -79.029 0.982 10.253 0.982 10.253 0.178 -79.029
2046.667 0.175 -79.198 0.982 10.072 0.982 10.072 0.175 -79.198
2071.625 0.172 -79.363 0.983 9.893 0.983 9.893 0.172 -79.363
2096.583 0.169 -79.524 0.983 9.718 0.983 9.718 0.169 -79.524
2121.542 0.166 -79.682 0.984 9.547 0.984 9.547 0.166 -79.682
2146.5 0.163 -79.836 0.984 9.378 0.984 9.378 0.163 -79.836
2171.458 0.16 -79.987 0.985 9.213 0.985 9.213 0.16 -79.987
2196.417 0.157 -80.135 0.985 9.05 0.985 9.05 0.157 -80.135
2221.375 0.155 -80.28 0.986 8.89 0.986 8.89 0.155 -80.28
2246.333 0.152 -80.422 0.986 8.733 0.986 8.733 0.152 -80.422
2271.292 0.149 -80.561 0.987 8.579 0.987 8.579 0.149 -80.561
2296.25 0.147 -80.697 0.987 8.427 0.987 8.427 0.147 -80.697
2321.208 0.144 -80.83 0.987 8.278 0.987 8.278 0.144 -80.83
2346.167 0.141 -80.961 0.988 8.131 0.988 8.131 0.141 -80.961
2371.125 0.139 -81.089 0.988 7.986 0.988 7.986 0.139 -81.089
2396.083 0.136 -81.214 0.988 7.844 0.988 7.844 0.136 -81.214
2421.042 0.134 -81.337 0.989 7.704 0.989 7.704 0.134 -81.337
2446 0.132 -81.457 0.989 7.566 0.989 7.566 0.132 -81.457
2470.958 0.129 -81.575 0.989 7.43 0.989 7.43 0.129 -81.575
2495.917 0.127 -81.69 0.99 7.297 0.99 7.297 0.127 -81.69
2520.875 0.125 -81.803 0.99 7.165 0.99 7.165 0.125 -81.803
2545.833 0.122 -81.913 0.99 7.035 0.99 7.035 0.122 -81.913
2570.792 0.12 -82.022 0.99 6.907 0.99 6.907 0.12 -82.022
2595.75 0.118 -82.128 0.991 6.781 0.991 6.781 0.118 -82.128
2620.708 0.116 -82.232 0.991 6.656 0.991 6.656 0.116 -82.232
2645.667 0.114 -82.333 0.991 6.534 0.991 6.534 0.114 -82.333
2670.625 0.112 -82.433 0.991 6.413 0.991 6.413 0.112 -82.433
2695.583 0.11 -82.53 0.992 6.293 0.992 6.293 0.11 -82.53
2720.542 0.108 -82.625 0.992 6.175 0.992 6.175 0.108 -82.625
2745.5 0.106 -82.719 0.992 6.059 0.992 6.059 0.106 -82.719
2770.458 0.104 -82.81 0.992 5.944 0.992 5.944 0.104 -82.81
2795.417 0.102 -82.899 0.993 5.831 0.993 5.831 0.102 -82.899
2820.375 0.1 -82.985 0.993 5.719 0.993 5.719 0.1 -82.985
2845.333 0.098 -83.07 0.993 5.608 0.993 5.608 0.098 -83.07
2870.292 0.096 -83.153 0.993 5.499 0.993 5.499 0.096 -83.153
2895.25 0.094 -83.234 0.993 5.391 0.993 5.391 0.094 -83.234
2920.208 0.092 -83.313 0.993 5.285 0.993 5.285 0.092 -83.313
2945.167 0.09 -83.389 0.994 5.179 0.994 5.179 0.09 -83.389
2970.125 0.088 -83.464 0.994 5.075 0.994 5.075 0.088 -83.464
2995.083 0.087 -83.536 0.994 4.972 0.994 4.972 0.087 -83.536
3020.042 0.085 -83.607 0.994 4.871 0.994 4.871 0.085 -83.607
3045 0.083 -83.675 0.994 4.77 0.994 4.77 0.083 -83.675
3069.958 0.081 -83.741 0.994 4.67 0.994 4.67 0.081 -83.741
3094.917 0.08 -83.806 0.995 4.572 0.995 4.572 0.08 -83.806
3119.875 0.078 -83.867 0.995 4.475 0.995 4.475 0.078 -83.867
3144.833 0.076 -83.927 0.995 4.378 0.995 4.378 0.076 -83.927
3169.792 0.075 -83.985 0.995 4.283 0.995 4.283 0.075 -83.985
3194.75 0.073 -84.04 0.995 4.189 0.995 4.189 0.073 -84.04
3219.708 0.071 -84.093 0.995 4.095 0.995 4.095 0.071 -84.093
3244.667 0.07 -84.143 0.995 4.003 0.995 4.003 0.07 -84.143
3269.625 0.068 -84.191 0.995 3.911 0.995 3.911 0.068 -84.191
3294.583 0.067 -84.237 0.996 3.821 0.996 3.821 0.067 -84.237
3319.542 0.065 -84.28 0.996 3.731 0.996 3.731 0.065 -84.28
3344.5 0.064 -84.32 0.996 3.642 0.996 3.642 0.064 -84.32
3369.458 0.062 -84.357 0.996 3.554 0.996 3.554 0.062 -84.357
3394.417 0.061 -84.392 0.996 3.467 0.996 3.467 0.061 -84.392
3419.375 0.059 -84.423 0.996 3.381 0.996 3.381 0.059 -84.423
3444.333 0.058 -84.452 0.996 3.295 0.996 3.295 0.058 -84.452
3469.292 0.056 -84.477 0.996 3.21 0.996 3.21 0.056 -84.477
3494.25 0.055 -84.499 0.996 3.126 0.996 3.126 0.055 -84.499
3519.208 0.053 -84.517 0.996 3.043 0.996 3.043 0.053 -84.517
3544.167 0.052 -84.532 0.996 2.96 0.996 2.96 0.052 -84.532
3569.125 0.05 -84.542 0.996 2.878 0.996 2.878 0.05 -84.542
3594.083 0.049 -84.549 0.997 2.797 0.997 2.797 0.049 -84.549
3619.042 0.047 -84.55 0.997 2.717 0.997 2.717 0.047 -84.55
3644 0.046 -84.547 0.997 2.637 0.997 2.637 0.046 -84.547
3668.958 0.045 -84.54 0.997 2.558 0.997 2.558 0.045 -84.54
3693.917 0.043 -84.526 0.997 2.479 0.997 2.479 0.043 -84.526
3718.875 0.042 -84.507 0.997 2.401 0.997 2.401 0.042 -84.507
3743.833 0.041 -84.482 0.997 2.324 0.997 2.324 0.041 -84.482
3768.792 0.039 -84.449 0.997 2.248 0.997 2.248 0.039 -84.449
3793.75 0.038 -84.41 0.997 2.171 0.997 2.171 0.038 -84.41
3818.708 0.037 -84.363 0.997 2.096 0.997 2.096 0.037 -84.363
3843.667 0.035 -84.306 0.997 2.021 0.997 2.021 0.035 -84.306
3868.625 0.034 -84.241 0.997 1.947 0.997 1.947 0.034 -84.241
3893.583 0.033 -84.165 0.997 1.873 0.997 1.873 0.033 -84.165
3918.542 0.031 -84.077 0.997 1.8 0.997 1.8 0.031 -84.077
3943.5 0.03 -83.977 0.997 1.727 0.997 1.727 0.03 -83.977
3968.458 0.029 -83.862 0.997 1.655 0.997 1.655 0.029 -83.862
3993.417 0.028 -83.732 0.997 1.583 0.997 1.583 0.028 -83.732
4018.375 0.026 -83.583 0.997 1.512 0.997 1.512 0.026 -83.583
4043.333 0.025 -83.415 0.997 1.441 0.997 1.441 0.025 -83.415
4068.292 0.024 -83.223 0.997 1.371 0.997 1.371 0.024 -83.223
4093.25 0.023 -83.005 0.997 1.301 0.997 1.301 0.023 -83.005
4118.208 0.022 -82.757 0.998 1.232 0.998 1.232 0.022 -82.757
4143.167 0.02 -82.473 0.998 1.163 0.998 1.163 0.02 -82.473
4168.125 0.019 -82.147 0.998 1.095 0.998 1.095 0.019 -82.147
4193.083 0.018 -81.773 0.998 1.027 0.998 1.027 0.018 -81.773
4218.042 0.017 -81.34 0.998 0.96 0.998 0.96 0.017 -81.34
4243 0.016 -80.837 0.998 0.893 0.998 0.893 0.016 -80.837
4267.958 0.015 -80.247 0.998 0.826 0.998 0.826 0.015 -80.247
4292.917 0.013 -79.55 0.998 0.76 0.998 0.76 0.013 -79.55
4317.875 0.012 -78.718 0.998 0.694 0.998 0.694 0.012 -78.718
4342.833 0.011 -77.711 0.998 0.629 0.998 0.629 0.011 -77.711
4367.792 0.01 -76.475 0.998 0.564 0.998 0.564 0.01 -76.475
4392.75 9.003e-3 -74.93 0.998 0.499 0.998 0.499 9.003e-3 -74.93
4417.708 7.924e-3 -72.955 0.998 0.435 0.998 0.435 7.924e-3 -72.955
4442.667 6.863e-3 -70.359 0.998 0.371 0.998 0.371 6.863e-3 -70.359
4467.625 5.829e-3 -66.827 0.998 0.308 0.998 0.308 5.829e-3 -66.827
4492.583 4.833e-3 -61.81 0.998 0.245 0.998 0.245 4.833e-3 -61.81
4517.542 3.9e-3 -54.309 0.998 0.182 0.998 0.182 3.9e-3 -54.309
4542.5 3.079e-3 -42.515 0.998 0.119 0.998 0.119 3.079e-3 -42.515
4567.458 2.477e-3 -23.811 0.998 0.057 0.998 0.057 2.477e-3 -23.811
4592.417 2.266e-3 1.89 0.998 -4.292e-3 0.998 -4.292e-3 2.266e-3 1.89
4617.375 2.539e-3 26.776 0.998 -0.066 0.998 -0.066 2.539e-3 26.776
4642.333 3.166e-3 44.192 0.998 -0.127 0.998 -0.127 3.166e-3 44.192
4667.292 3.979e-3 55.117 0.998 -0.187 0.998 -0.187 3.979e-3 55.117
4692.25 4.883e-3 62.117 0.998 -0.248 0.998 -0.248 4.883e-3 62.117
4717.208 5.833e-3 66.841 0.998 -0.308 0.998 -0.308 5.833e-3 66.841
4742.167 6.806e-3 70.195 0.998 -0.368 0.998 -0.368 6.806e-3 70.195
4767.125 7.793e-3 72.676 0.998 -0.427 0.998 -0.427 7.793e-3 72.676
4792.083 8.786e-3 74.575 0.998 -0.486 0.998 -0.486 8.786e-3 74.575
4817.042 9.783e-3 76.068 0.998 -0.545 0.998 -0.545 9.783e-3 76.068
4842 0.011 77.268 0.998 -0.604 0.998 -0.604 0.011 77.268
4866.958 0.012 78.25 0.998 -0.662 0.998 -0.662 0.012 78.25
4891.917 0.013 79.066 0.998 -0.72 0.998 -0.72 0.013 79.066
4916.875 0.014 79.752 0.998 -0.778 0.998 -0.778 0.014 79.752
4941.833 0.015 80.336 0.998 -0.835 0.998 -0.835 0.015 80.336
4966.792 0.016 80.836 0.998 -0.893 0.998 -0.893 0.016 80.836
4991.75 0.017 81.269 0.998 -0.95 0.998 -0.95 0.017 81.269
5016.708 0.018 81.646 0.998 -1.006 0.998 -1.006 0.018 81.646
5041.667 0.019 81.976 0.998 -1.063 0.998 -1.063 0.019 81.976
5066.625 0.02 82.266 0.998 -1.119 0.998 -1.119 0.02 82.266
5091.583 0.021 82.522 0.998 -1.175 0.998 -1.175 0.021 82.522
5116.542 0.022 82.75 0.998 -1.23 0.998 -1.23 0.022 82.75
5141.5 0.023 82.952 0.997 -1.286 0.997 -1.286 0.023 82.952
5166.458 0.024 83.132 0.997 -1.341 0.997 -1.341 0.024 83.132
5191.417 0.024 83.294 0.997 -1.396 0.997 -1.396 0.024 83.294
5216.375 0.025 83.438 0.997 -1.451 0.997 -1.451 0.025 83.438
5241.333 0.026 83.568 0.997 -1.505 0.997 -1.505 0.026 83.568
5266.292 0.027 83.684 0.997 -1.559 0.997 -1.559 0.027 83.684
5291.25 0.028 83.789 0.997 -1.613 0.997 -1.613 0.028 83.789
5316.208 0.029 83.883 0.997 -1.667 0.997 -1.667 0.029 83.883
5341.167 0.03 83.968 0.997 -1.721 0.997 -1.721 0.03 83.968
5366.125 0.031 84.044 0.997 -1.774 0.997 -1.774 0.031 84.044
5391.083 0.032 84.112 0.997 -1.827 0.997 -1.827 0.032 84.112
5416.042 0.033 84.173 0.997 -1.88 0.997 -1.88 0.033 84.173
5441 0.034 84.228 0.997 -1.933 0.997 -1.933 0.034 84.228
5465.958 0.035 84.276 0.997 -1.986 0.997 -1.986 0.035 84.276
5490.917 0.036 84.32 0.997 -2.038 0.997 -2.038 0.036 84.32
5515.875 0.037 84.358 0.997 -2.09 0.997 -2.09 0.037 84.358
5540.833 0.037 84.392 0.997 -2.142 0.997 -2.142 0.037 84.392
5565.792 0.038 84.422 0.997 -2.194 0.997 -2.194 0.038 84.422
5590.75 0.039 84.448 0.997 -2.245 0.997 -2.245 0.039 84.448
5615.708 0.04 84.471 0.997 -2.297 0.997 -2.297 0.04 84.471
5640.667 0.041 84.49 0.997 -2.348 0.997 -2.348 0.041 84.49
5665.625 0.042 84.506 0.997 -2.399 0.997 -2.399 0.042 84.506
5690.583 0.043 84.52 0.997 -2.45 0.997 -2.45 0.043 84.52
5715.542 0.044 84.53 0.997 -2.5 0.997 -2.5 0.044 84.53
5740.5 0.045 84.539 0.997 -2.551 0.997 -2.551 0.045 84.539
5765.458 0.045 84.545 0.997 -2.601 0.997 -2.601 0.045 84.545
5790.417 0.046 84.548 0.997 -2.651 0.997 -2.651 0.046 84.548
5815.375 0.047 84.55 0.997 -2.701 0.997 -2.701 0.047 84.55
5840.333 0.048 84.55 0.997 -2.751 0.997 -2.751 0.048 84.55
5865.292 0.049 84.548 0.997 -2.801 0.997 -2.801 0.049 84.548
5890.25 0.05 84.545 0.997 -2.85 0.997 -2.85 0.05 84.545
5915.208 0.051 84.54 0.996 -2.899 0.996 -2.899 0.051 84.54
5940.167 0.051 84.533 0.996 -2.948 0.996 -2.948 0.051 84.533
5965.125 0.052 84.526 0.996 -2.997 0.996 -2.997 0.052 84.526
5990.083 0.053 84.517 0.996 -3.046 0.996 -3.046 0.053 84.517
6015.042 0.054 84.506 0.996 -3.095 0.996 -3.095 0.054 84.506
6040 0.055 84.495 0.996 -3.143 0.996 -3.143 0.055 84.495
6064.958 0.056 84.482 0.996 -3.192 0.996 -3.192 0.056 84.482
6089.917 0.057 84.469 0.996 -3.24 0.996 -3.24 0.057 84.469
6114.875 0.057 84.454 0.996 -3.288 0.996 -3.288 0.057 84.454
6139.833 0.058 84.439 0.996 -3.336 0.996 -3.336 0.058 84.439
6164.792 0.059 84.422 0.996 -3.384 0.996 -3.384 0.059 84.422
6189.75 0.06 84.405 0.996 -3.431 0.996 -3.431 0.06 84.405
6214.708 0.061 84.387 0.996 -3.479 0.996 -3.479 0.061 84.387
6239.667 0.062 84.369 0.996 -3.526 0.996 -3.526 0.062 84.369
6264.625 0.062 84.349 0.996 -3.573 0.996 -3.573 0.062 84.349
6289.583 0.063 84.329 0.996 -3.62 0.996 -3.62 0.063 84.329
6314.542 0.064 84.309 0.996 -3.667 0.996 -3.667 0.064 84.309
6339.5 0.065 84.288 0.996 -3.714 0.996 -3.714 0.065 84.288
6364.458 0.066 84.266 0.996 -3.761 0.996 -3.761 0.066 84.266
6389.417 0.066 84.243 0.996 -3.807 0.996 -3.807 0.066 84.243
6414.375 0.067 84.22 0.995 -3.854 0.995 -3.854 0.067 84.22
6439.333 0.068 84.197 0.995 -3.9 0.995 -3.9 0.068 84.197
6464.292 0.069 84.173 0.995 -3.946 0.995 -3.946 0.069 84.173
6489.25 0.07 84.149 0.995 -3.992 0.995 -3.992 0.07 84.149
6514.208 0.07 84.124 0.995 -4.038 0.995 -4.038 0.07 84.124
6539.167 0.071 84.099 0.995 -4.084 0.995 -4.084 0.071 84.099
6564.125 0.072 84.074 0.995 -4.129 0.995 -4.129 0.072 84.074
6589.083 0.073 84.048 0.995 -4.175 0.995 -4.175 0.073 84.048
6614.042 0.074 84.021 0.995 -4.22 0.995 -4.22 0.074 84.021
6639 0.074 83.995 0.995 -4.266 0.995 -4.266 0.074 83.995
6663.958 0.075 83.968 0.995 -4.311 0.995 -4.311 0.075 83.968
6688.917 0.076 83.941 0.995 -4.356 0.995 -4.356 0.076 83.941
6713.875 0.077 83.913 0.995 -4.401 0.995 -4.401 0.077 83.913
6738.833 0.078 83.885 0.995 -4.446 0.995 -4.446 0.078 83.885
6763.792 0.078 83.857 0.995 -4.491 0.995 -4.491 0.078 83.857
6788.75 0.079 83.829 0.995 -4.535 0.995 -4.535 0.079 83.829
6813.708 0.08 83.801 0.995 -4.58 0.995 -4.58 0.08 83.801
6838.667 0.081 83.772 0.994 -4.624 0.994 -4.624 0.081 83.772
6863.625 0.081 83.743 0.994 -4.669 0.994 -4.669 0.081 83.743
6888.583 0.082 83.713 0.994 -4.713 0.994 -4.713 0.082 83.713
6913.542 0.083 83.684 0.994 -4.757 0.994 -4.757 0.083 83.684
6938.5 0.084 83.654 0.994 -4.801 0.994 -4.801 0.084 83.654
6963.458 0.084 83.624 0.994 -4.845 0.994 -4.845 0.084 83.624
6988.417 0.085 83.594 0.994 -4.889 0.994 -4.889 0.085 83.594
7013.375 0.086 83.564 0.994 -4.932 0.994 -4.932 0.086 83.564
7038.333 0.087 83.534 0.994 -4.976 0.994 -4.976 0.087 83.534
7063.292 0.088 83.503 0.994 -5.019 0.994 -5.019 0.088 83.503
7088.25 0.088 83.473 0.994 -5.063 0.994 -5.063 0.088 83.473
7113.208 0.089 83.442 0.994 -5.106 0.994 -5.106 0.089 83.442
7138.167 0.09 83.411 0.994 -5.149 0.994 -5.149 0.09 83.411
7163.125 0.091 83.38 0.994 -5.192 0.994 -5.192 0.091 83.38
7188.083 0.091 83.349 0.994 -5.235 0.994 -5.235 0.091 83.349
7213.042 0.092 83.317 0.994 -5.278 0.994 -5.278 0.092 83.317
7238 0.093 83.286 0.993 -5.321 0.993 -5.321 0.093 83.286
7262.958 0.094 83.254 0.993 -5.364 0.993 -5.364 0.094 83.254
7287.917 0.094 83.222 0.993 -5.407 0.993 -5.407 0.094 83.222
7312.875 0.095 83.191 0.993 -5.449 0.993 -5.449 0.095 83.191
7337.833 0.096 83.159 0.993 -5.492 0.993 -5.492 0.096 83.159
7362.792 0.096 83.127 0.993 -5.534 0.993 -5.534 0.096 83.127
7387.75 0.097 83.095 0.993 -5.576 0.993 -5.576 0.097 83.095
7412.708 0.098 83.062 0.993 -5.619 0.993 -5.619 0.098 83.062
7437.667 0.099 83.03 0.993 -5.661 0.993 -5.661 0.099 83.03
7462.625 0.099 82.998 0.993 -5.703 0.993 -5.703 0.099 82.998
7487.583 0.1 82.965 0.993 -5.745 0.993 -5.745 0.1 82.965
7512.542 0.101 82.933 0.993 -5.787 0.993 -5.787 0.101 82.933
7537.5 0.102 82.9 0.993 -5.829 0.993 -5.829 0.102 82.9
7562.458 0.102 82.868 0.993 -5.87 0.993 -5.87 0.102 82.868
7587.417 0.103 82.835 0.992 -5.912 0.992 -5.912 0.103 82.835
7612.375 0.104 82.802 0.992 -5.953 0.992 -5.953 0.104 82.802
7637.333 0.104 82.769 0.992 -5.995 0.992 -5.995 0.104 82.769
7662.292 0.105 82.737 0.992 -6.036 0.992 -6.036 0.105 82.737
7687.25 0.106 82.704 0.992 -6.078 0.992 -6.078 0.106 82.704
7712.208 0.107 82.671 0.992 -6.119 0.992 -6.119 0.107 82.671
7737.167 0.107 82.638 0.992 -6.16 0.992 -6.16 0.107 82.638
7762.125 0.108 82.605 0.992 -6.201 0.992 -6.201 0.108 82.605
7787.083 0.109 82.571 0.992 -6.242 0.992 -6.242 0.109 82.571
7812.042 0.109 82.538 0.992 -6.283 0.992 -6.283 0.109 82.538
7837 0.11 82.505 0.992 -6.324 0.992 -6.324 0.11 82.505
7861.958 0.111 82.472 0.992 -6.365 0.992 -6.365 0.111 82.472
7886.917 0.112 82.439 0.992 -6.406 0.992 -6.406 0.112 82.439
7911.875 0.112 82.405 0.991 -6.446 0.991 -6.446 0.112 82.405
7936.833 0.113 82.372 0.991 -6.487 0.991 -6.487 0.113 82.372
7961.792 0.114 82.338 0.991 -6.527 0.991 -6.527 0.114 82.338
7986.75 0.114 82.305 0.991 -6.568 0.991 -6.568 0.114 82.305
8011.708 0.115 82.272 0.991 -6.608 0.991 -6.608 0.115 82.272
8036.667 0.116 82.238 0.991 -6.649 0.991 -6.649 0.116 82.238
8061.625 0.116 82.205 0.991 -6.689 0.991 -6.689 0.116 82.205
8086.583 0.117 82.171 0.991 -6.729 0.991 -6.729 0.117 82.171
8111.542 0.118 82.138 0.991 -6.769 0.991 -6.769 0.118 82.138
8136.5 0.119 82.104 0.991 -6.809 0.991 -6.809 0.119 82.104
8161.458 0.119 82.07 0.991 -6.849 0.991 -6.849 0.119 82.07
8186.417 0.12 82.037 0.991 -6.889 0.991 -6.889 0.12 82.037
8211.375 0.121 82.003 0.99 -6.929 0.99 -6.929 0.121 82.003
8236.333 0.121 81.97 0.99 -6.969 0.99 -6.969 0.121 81.97
8261.292 0.122 81.936 0.99 -7.008 0.99 -7.008 0.122 81.936
