# MHZ S MA R 50

50 0.985 -9.979 0.173 80.004 0.173 80.004 0.985 -9.979
74.958 0.967 -14.779 0.255 75.196 0.255 75.196 0.967 -14.779
99.917 0.943 -19.38 0.332 70.587 0.332 70.587 0.943 -19.38
124.875 0.915 -23.738 0.403 66.221 0.403 66.221 0.915 -23.738
149.833 0.884 -27.827 0.467 62.123 0.467 62.123 0.884 -27.827
174.792 0.851 -31.635 0.525 58.307 0.525 58.307 0.851 -31.635
199.75 0.817 -35.16 0.576 54.774 0.576 54.774 0.817 -35.16
224.708 0.783 -38.409 0.621 51.517 0.621 51.517 0.783 -38.409
249.667 0.749 -41.395 0.661 48.522 0.661 48.522 0.749 -41.395
274.625 0.717 -44.136 0.696 45.773 0.696 45.773 0.717 -44.136
299.583 0.685 -46.649 0.727 43.252 0.727 43.252 0.685 -46.649
324.542 0.655 -48.954 0.754 40.938 0.754 40.938 0.655 -48.954
349.5 0.627 -51.07 0.778 38.814 0.778 38.814 0.627 -51.07
374.458 0.6 -53.013 0.799 36.862 0.799 36.862 0.6 -53.013
399.417 0.575 -54.802 0.817 35.065 0.817 35.065 0.575 -54.802
424.375 0.551 -56.45 0.833 33.409 0.833 33.409 0.551 -56.45
449.333 0.528 -57.971 0.848 31.879 0.848 31.879 0.528 -57.971
474.292 0.507 -59.379 0.861 30.463 0.861 30.463 0.507 -59.379
499.25 0.487 -60.683 0.872 29.15 0.872 29.15 0.487 -60.683
524.208 0.468 -61.894 0.882 27.93 0.882 27.93 0.468 -61.894
549.167 0.451 -63.021 0.891 26.795 0.891 26.795 0.451 -63.021
574.125 0.434 -64.071 0.899 25.735 0.899 25.735 0.434 -64.071
599.083 0.419 -65.052 0.907 24.745 0.907 24.745 0.419 -65.052
624.042 0.404 -65.97 0.913 23.818 0.913 23.818 0.404 -65.97
649 0.39 -66.831 0.919 22.949 0.919 22.949 0.39 -66.831
673.958 0.377 -67.639 0.925 22.131 0.925 22.131 0.377 -67.639
698.917 0.364 -68.399 0.93 21.362 0.93 21.362 0.364 -68.399
723.875 0.352 -69.116 0.934 20.637 0.934 20.637 0.352 -69.116
748.833 0.341 -69.792 0.938 19.951 0.938 19.951 0.341 -69.792
773.792 0.331 -70.43 0.942 19.303 0.942 19.303 0.331 -70.43
798.75 0.32 -71.035 0.946 18.689 0.946 18.689 0.32 -71.035
823.708 0.311 -71.608 0.949 18.107 0.949 18.107 0.311 -71.608
848.667 0.302 -72.152 0.952 17.553 0.952 17.553 0.302 -72.152
873.625 0.293 -72.669 0.955 17.026 0.955 17.026 0.293 -72.669
898.583 0.284 -73.161 0.957 16.525 0.957 16.525 0.284 -73.161
923.542 0.276 -73.629 0.959 16.046 0.959 16.046 0.276 -73.629
948.5 0.269 -74.076 0.962 15.589 0.962 15.589 0.269 -74.076
973.458 0.261 -74.503 0.964 15.153 0.964 15.153 0.261 -74.503
998.417 0.254 -74.911 0.966 14.735 0.966 14.735 0.254 -74.911
1023.375 0.248 -75.301 0.967 14.334 0.967 14.334 0.248 -75.301
1048.333 0.241 -75.675 0.969 13.95 0.969 13.95 0.241 -75.675
1073.292 0.235 -76.033 0.97 13.581 0.97 13.581 0.235 -76.033
1098.25 0.229 -76.377 0.972 13.227 0.972 13.227 0.229 -76.377
1123.208 0.223 -76.707 0.973 12.886 0.973 12.886 0.223 -76.707
1148.167 0.217 -77.024 0.974 12.557 0.974 12.557 0.217 -77.024
1173.125 0.212 -77.329 0.976 12.241 0.976 12.241 0.212 -77.329
1198.083 0.207 -77.623 0.977 11.936 0.977 11.936 0.207 -77.623
1223.042 0.202 -77.906 0.978 11.641 0.978 11.641 0.202 -77.906
1248 0.197 -78.179 0.979 11.357 0.979 11.357 0.197 -78.179
1272.958 0.192 -78.442 0.98 11.082 0.98 11.082 0.192 -78.442
1297.917 0.188 -78.696 0.981 10.816 0.981 10.816 0.188 -78.696
1322.875 0.183 -78.941 0.981 10.559 0.981 10.559 0.183 -78.941
1347.833 0.179 -79.178 0.982 10.309 0.982 10.309 0.179 -79.178
1372.792 0.175 -79.408 0.983 10.067 0.983 10.067 0.175 -79.408
1397.75 0.171 -79.629 0.984 9.833 0.984 9.833 0.171 -79.629
1422.708 0.167 -79.844 0.984 9.605 0.984 9.605 0.167 -79.844
1447.667 0.163 -80.052 0.985 9.384 0.985 9.384 0.163 -80.052
1472.625 0.159 -80.254 0.986 9.169 0.986 9.169 0.159 -80.254
1497.583 0.156 -80.449 0.986 8.96 0.986 8.96 0.156 -80.449
1522.542 0.152 -80.638 0.987 8.756 0.987 8.756 0.152 -80.638
1547.5 0.149 -80.822 0.987 8.558 0.987 8.558 0.149 -80.822
1572.458 0.145 -81 0.988 8.366 0.988 8.366 0.145 -81
1597.417 0.142 -81.174 0.988 8.178 0.988 8.178 0.142 -81.174
1622.375 0.139 -81.342 0.989 7.994 0.989 7.994 0.139 -81.342
1647.333 0.136 -81.505 0.989 7.816 0.989 7.816 0.136 -81.505
1672.292 0.133 -81.664 0.99 7.641 0.99 7.641 0.133 -81.664
1697.25 0.13 -81.818 0.99 7.471 0.99 7.471 0.13 -81.818
1722.208 0.127 -81.968 0.99 7.304 0.99 7.304 0.127 -81.968
1747.167 0.124 -82.114 0.991 7.142 0.991 7.142 0.124 -82.114
1772.125 0.122 -82.256 0.991 6.983 0.991 6.983 0.122 -82.256
1797.083 0.119 -82.394 0.991 6.827 0.991 6.827 0.119 -82.394
1822.042 0.116 -82.528 0.992 6.675 0.992 6.675 0.116 -82.528
1847 0.114 -82.659 0.992 6.526 0.992 6.526 0.114 -82.659
1871.958 0.111 -82.786 0.992 6.38 0.992 6.38 0.111 -82.786
1896.917 0.109 -82.909 0.992 6.238 0.992 6.238 0.109 -82.909
1921.875 0.106 -83.03 0.993 6.097 0.993 6.097 0.106 -83.03
1946.833 0.104 -83.147 0.993 5.96 0.993 5.96 0.104 -83.147
1971.792 0.102 -83.261 0.993 5.826 0.993 5.826 0.102 -83.261
1996.75 0.099 -83.371 0.993 5.694 0.993 5.694 0.099 -83.371
2021.708 0.097 -83.479 0.994 5.564 0.994 5.564 0.097 -83.479
2046.667 0.095 -83.584 0.994 5.437 0.994 5.437 0.095 -83.584
2071.625 0.093 -83.685 0.994 5.312 0.994 5.312 0.093 -83.685
2096.583 0.09 -83.784 0.994 5.189 0.994 5.189 0.09 -83.784
2121.542 0.088 -83.88 0.994 5.068 0.994 5.068 0.088 -83.88
2146.5 0.086 -83.974 0.995 4.95 0.995 4.95 0.086 -83.974
2171.458 0.084 -84.064 0.995 4.833 0.995 4.833 0.084 -84.064
2196.417 0.082 -84.152 0.995 4.719 0.995 4.719 0.082 -84.152
2221.375 0.08 -84.237 0.995 4.606 0.995 4.606 0.08 -84.237
2246.333 0.078 -84.319 0.995 4.495 0.995 4.495 0.078 -84.319
2271.292 0.076 -84.399 0.995 4.386 0.995 4.386 0.076 -84.399
2296.25 0.075 -84.476 0.996 4.278 0.996 4.278 0.075 -84.476
2321.208 0.073 -84.55 0.996 4.172 0.996 4.172 0.073 -84.55
2346.167 0.071 -84.621 0.996 4.068 0.996 4.068 0.071 -84.621
2371.125 0.069 -84.69 0.996 3.965 0.996 3.965 0.069 -84.69
2396.083 0.067 -84.756 0.996 3.864 0.996 3.864 0.067 -84.756
2421.042 0.066 -84.819 0.996 3.764 0.996 3.764 0.066 -84.819
2446 0.064 -84.879 0.996 3.665 0.996 3.665 0.064 -84.879
2470.958 0.062 -84.937 0.996 3.568 0.996 3.568 0.062 -84.937
2495.917 0.061 -84.991 0.997 3.472 0.997 3.472 0.061 -84.991
2520.875 0.059 -85.043 0.997 3.378 0.997 3.378 0.059 -85.043
2545.833 0.057 -85.091 0.997 3.285 0.997 3.285 0.057 -85.091
2570.792 0.056 -85.136 0.997 3.193 0.997 3.193 0.056 -85.136
2595.75 0.054 -85.178 0.997 3.102 0.997 3.102 0.054 -85.178
2620.708 0.053 -85.216 0.997 3.012 0.997 3.012 0.053 -85.216
2645.667 0.051 -85.251 0.997 2.923 0.997 2.923 0.051 -85.251
2670.625 0.049 -85.282 0.997 2.836 0.997 2.836 0.049 -85.282
2695.583 0.048 -85.31 0.997 2.749 0.997 2.749 0.048 -85.31
2720.542 0.047 -85.333 0.997 2.664 0.997 2.664 0.047 -85.333
2745.5 0.045 -85.352 0.997 2.579 0.997 2.579 0.045 -85.352
2770.458 0.044 -85.366 0.997 2.496 0.997 2.496 0.044 -85.366
2795.417 0.042 -85.375 0.997 2.413 0.997 2.413 0.042 -85.375
2820.375 0.041 -85.379 0.998 2.331 0.998 2.331 0.041 -85.379
2845.333 0.039 -85.378 0.998 2.25 0.998 2.25 0.039 -85.378
2870.292 0.038 -85.371 0.998 2.171 0.998 2.171 0.038 -85.371
2895.25 0.037 -85.357 0.998 2.091 0.998 2.091 0.037 -85.357
2920.208 0.035 -85.336 0.998 2.013 0.998 2.013 0.035 -85.336
2945.167 0.034 -85.307 0.998 1.936 0.998 1.936 0.034 -85.307
2970.125 0.032 -85.27 0.998 1.859 0.998 1.859 0.032 -85.27
2995.083 0.031 -85.224 0.998 1.783 0.998 1.783 0.031 -85.224
3020.042 0.03 -85.168 0.998 1.708 0.998 1.708 0.03 -85.168
3045 0.029 -85.1 0.998 1.634 0.998 1.634 0.029 -85.1
3069.958 0.027 -85.02 0.998 1.56 0.998 1.56 0.027 -85.02
3094.917 0.026 -84.925 0.998 1.487 0.998 1.487 0.026 -84.925
3119.875 0.025 -84.815 0.998 1.414 0.998 1.414 0.025 -84.815
3144.833 0.023 -84.685 0.998 1.343 0.998 1.343 0.023 -84.685
3169.792 0.022 -84.535 0.998 1.272 0.998 1.272 0.022 -84.535
3194.75 0.021 -84.361 0.998 1.201 0.998 1.201 0.021 -84.361
3219.708 0.02 -84.158 0.998 1.132 0.998 1.132 0.02 -84.158
3244.667 0.019 -83.922 0.998 1.062 0.998 1.062 0.019 -83.922
3269.625 0.017 -83.646 0.998 0.994 0.998 0.994 0.017 -83.646
3294.583 0.016 -83.323 0.998 0.926 0.998 0.926 0.016 -83.323
3319.542 0.015 -82.942 0.998 0.858 0.998 0.858 0.015 -82.942
3344.5 0.014 -82.489 0.998 0.791 0.998 0.791 0.014 -82.489
3369.458 0.013 -81.947 0.998 0.725 0.998 0.725 0.013 -81.947
3394.417 0.012 -81.29 0.998 0.659 0.998 0.659 0.012 -81.29
3419.375 0.01 -80.483 0.998 0.594 0.998 0.594 0.01 -80.483
3444.333 9.377e-3 -79.476 0.998 0.529 0.998 0.529 9.377e-3 -79.476
3469.292 8.274e-3 -78.191 0.998 0.465 0.998 0.465 8.274e-3 -78.191
3494.25 7.185e-3 -76.507 0.998 0.401 0.998 0.401 7.185e-3 -76.507
3519.208 6.113e-3 -74.221 0.998 0.338 0.998 0.338 6.113e-3 -74.221
3544.167 5.063e-3 -70.974 0.998 0.275 0.998 0.275 5.063e-3 -70.974
3569.125 4.046e-3 -66.07 0.998 0.212 0.998 0.212 4.046e-3 -66.07
3594.083 3.086e-3 -58.024 0.998 0.15 0.998 0.15 3.086e-3 -58.024
3619.042 2.246e-3 -43.473 0.998 0.089 0.998 0.089 2.246e-3 -43.473
3644 1.697e-3 -16.43 0.998 0.028 0.998 0.028 1.697e-3 -16.43
3668.958 1.727e-3 19.548 0.998 -0.033 0.998 -0.033 1.727e-3 19.548
3693.917 2.304e-3 44.976 0.998 -0.093 0.998 -0.093 2.304e-3 44.976
3718.875 3.133e-3 58.549 0.998 -0.153 0.998 -0.153 3.133e-3 58.549
3743.833 4.056e-3 66.133 0.998 -0.213 0.998 -0.213 4.056e-3 66.133
3768.792 5.019e-3 70.806 0.998 -0.272 0.998 -0.272 5.019e-3 70.806
3793.75 5.998e-3 73.925 0.998 -0.331 0.998 -0.331 5.998e-3 73.925
3818.708 6.984e-3 76.135 0.998 -0.389 0.998 -0.389 6.984e-3 76.135
3843.667 7.972e-3 77.773 0.998 -0.447 0.998 -0.447 7.972e-3 77.773
3868.625 8.959e-3 79.029 0.998 -0.505 0.998 -0.505 8.959e-3 79.029
3893.583 9.944e-3 80.019 0.998 -0.562 0.998 -0.562 9.944e-3 80.019
3918.542 0.011 80.815 0.998 -0.619 0.998 -0.619 0.011 80.815
3943.5 0.012 81.467 0.998 -0.676 0.998 -0.676 0.012 81.467
3968.458 0.013 82.008 0.998 -0.732 0.998 -0.732 0.013 82.008
3993.417 0.014 82.463 0.998 -0.788 0.998 -0.788 0.014 82.463
4018.375 0.015 82.849 0.998 -0.844 0.998 -0.844 0.015 82.849
4043.333 0.016 83.179 0.998 -0.899 0.998 -0.899 0.016 83.179
4068.292 0.017 83.463 0.998 -0.954 0.998 -0.954 0.017 83.463
4093.25 0.018 83.71 0.998 -1.009 0.998 -1.009 0.018 83.71
4118.208 0.019 83.924 0.998 -1.063 0.998 -1.063 0.019 83.924
4143.167 0.02 84.112 0.998 -1.117 0.998 -1.117 0.02 84.112
4168.125 0.021 84.277 0.998 -1.171 0.998 -1.171 0.021 84.277
4193.083 0.021 84.422 0.998 -1.225 0.998 -1.225 0.021 84.422
4218.042 0.022 84.549 0.998 -1.278 0.998 -1.278 0.022 84.549
4243 0.023 84.662 0.998 -1.331 0.998 -1.331 0.023 84.662
4267.958 0.024 84.762 0.998 -1.384 0.998 -1.384 0.024 84.762
4292.917 0.025 84.85 0.998 -1.436 0.998 -1.436 0.025 84.85
4317.875 0.026 84.927 0.998 -1.488 0.998 -1.488 0.026 84.927
4342.833 0.027 84.996 0.998 -1.54 0.998 -1.54 0.027 84.996
4367.792 0.028 85.057 0.998 -1.592 0.998 -1.592 0.028 85.057
4392.75 0.029 85.11 0.998 -1.643 0.998 -1.643 0.029 85.11
4417.708 0.03 85.157 0.998 -1.695 0.998 -1.695 0.03 85.157
4442.667 0.031 85.198 0.998 -1.746 0.998 -1.746 0.031 85.198
4467.625 0.031 85.233 0.998 -1.796 0.998 -1.796 0.031 85.233
4492.583 0.032 85.264 0.998 -1.847 0.998 -1.847 0.032 85.264
4517.542 0.033 85.29 0.998 -1.897 0.998 -1.897 0.033 85.29
4542.5 0.034 85.312 0.998 -1.947 0.998 -1.947 0.034 85.312
4567.458 0.035 85.331 0.998 -1.997 0.998 -1.997 0.035 85.331
4592.417 0.036 85.346 0.998 -2.047 0.998 -2.047 0.036 85.346
4617.375 0.037 85.358 0.998 -2.096 0.998 -2.096 0.037 85.358
4642.333 0.037 85.367 0.998 -2.146 0.998 -2.146 0.037 85.367
4667.292 0.038 85.374 0.998 -2.195 0.998 -2.195 0.038 85.374
4692.25 0.039 85.378 0.998 -2.243 0.998 -2.243 0.039 85.378
4717.208 0.04 85.379 0.998 -2.292 0.998 -2.292 0.04 85.379
4742.167 0.041 85.379 0.998 -2.34 0.998 -2.34 0.041 85.379
4767.125 0.042 85.377 0.998 -2.389 0.998 -2.389 0.042 85.377
4792.083 0.043 85.373 0.997 -2.437 0.997 -2.437 0.043 85.373
4817.042 0.043 85.367 0.997 -2.485 0.997 -2.485 0.043 85.367
4842 0.044 85.36 0.997 -2.532 0.997 -2.532 0.044 85.36
4866.958 0.045 85.351 0.997 -2.58 0.997 -2.58 0.045 85.351
4891.917 0.046 85.341 0.997 -2.627 0.997 -2.627 0.046 85.341
4916.875 0.047 85.33 0.997 -2.674 0.997 -2.674 0.047 85.33
4941.833 0.048 85.318 0.997 -2.721 0.997 -2.721 0.048 85.318
4966.792 0.048 85.304 0.997 -2.768 0.997 -2.768 0.048 85.304
4991.75 0.049 85.289 0.997 -2.815 0.997 -2.815 0.049 85.289
5016.708 0.05 85.274 0.997 -2.861 0.997 -2.861 0.05 85.274
5041.667 0.051 85.257 0.997 -2.907 0.997 -2.907 0.051 85.257
5066.625 0.052 85.24 0.997 -2.953 0.997 -2.953 0.052 85.24
5091.583 0.052 85.221 0.997 -2.999 0.997 -2.999 0.052 85.221
5116.542 0.053 85.202 0.997 -3.045 0.997 -3.045 0.053 85.202
5141.5 0.054 85.183 0.997 -3.091 0.997 -3.091 0.054 85.183
5166.458 0.055 85.162 0.997 -3.136 0.997 -3.136 0.055 85.162
5191.417 0.056 85.141 0.997 -3.182 0.997 -3.182 0.056 85.141
5216.375 0.056 85.12 0.997 -3.227 0.997 -3.227 0.056 85.12
5241.333 0.057 85.097 0.997 -3.272 0.997 -3.272 0.057 85.097
5266.292 0.058 85.074 0.997 -3.317 0.997 -3.317 0.058 85.074
5291.25 0.059 85.051 0.997 -3.362 0.997 -3.362 0.059 85.051
5316.208 0.059 85.027 0.997 -3.406 0.997 -3.406 0.059 85.027
5341.167 0.06 85.003 0.997 -3.451 0.997 -3.451 0.06 85.003
5366.125 0.061 84.978 0.997 -3.495 0.997 -3.495 0.061 84.978
5391.083 0.062 84.953 0.996 -3.539 0.996 -3.539 0.062 84.953
5416.042 0.063 84.928 0.996 -3.584 0.996 -3.584 0.063 84.928
5441 0.063 84.902 0.996 -3.628 0.996 -3.628 0.063 84.902
5465.958 0.064 84.876 0.996 -3.671 0.996 -3.671 0.064 84.876
5490.917 0.065 84.849 0.996 -3.715 0.996 -3.715 0.065 84.849
5515.875 0.066 84.822 0.996 -3.759 0.996 -3.759 0.066 84.822
5540.833 0.066 84.795 0.996 -3.802 0.996 -3.802 0.066 84.795
5565.792 0.067 84.768 0.996 -3.845 0.996 -3.845 0.067 84.768
5590.75 0.068 84.74 0.996 -3.889 0.996 -3.889 0.068 84.74
5615.708 0.069 84.712 0.996 -3.932 0.996 -3.932 0.069 84.712
5640.667 0.069 84.683 0.996 -3.975 0.996 -3.975 0.069 84.683
5665.625 0.07 84.655 0.996 -4.018 0.996 -4.018 0.07 84.655
5690.583 0.071 84.626 0.996 -4.06 0.996 -4.06 0.071 84.626
5715.542 0.072 84.597 0.996 -4.103 0.996 -4.103 0.072 84.597
5740.5 0.072 84.568 0.996 -4.145 0.996 -4.145 0.072 84.568
5765.458 0.073 84.539 0.996 -4.188 0.996 -4.188 0.073 84.539
5790.417 0.074 84.509 0.996 -4.23 0.996 -4.23 0.074 84.509
5815.375 0.075 84.48 0.996 -4.272 0.996 -4.272 0.075 84.48
5840.333 0.075 84.45 0.996 -4.314 0.996 -4.314 0.075 84.45
5865.292 0.076 84.42 0.995 -4.356 0.995 -4.356 0.076 84.42
5890.25 0.077 84.39 0.995 -4.398 0.995 -4.398 0.077 84.39
5915.208 0.077 84.359 0.995 -4.44 0.995 -4.44 0.077 84.359
5940.167 0.078 84.329 0.995 -4.482 0.995 -4.482 0.078 84.329
5965.125 0.079 84.298 0.995 -4.523 0.995 -4.523 0.079 84.298
5990.083 0.08 84.267 0.995 -4.565 0.995 -4.565 0.08 84.267
6015.042 0.08 84.237 0.995 -4.606 0.995 -4.606 0.08 84.237
6040 0.081 84.206 0.995 -4.647 0.995 -4.647 0.081 84.206
6064.958 0.082 84.175 0.995 -4.689 0.995 -4.689 0.082 84.175
6089.917 0.082 84.143 0.995 -4.73 0.995 -4.73 0.082 84.143
6114.875 0.083 84.112 0.995 -4.771 0.995 -4.771 0.083 84.112
6139.833 0.084 84.081 0.995 -4.811 0.995 -4.811 0.084 84.081
6164.792 0.085 84.049 0.995 -4.852 0.995 -4.852 0.085 84.049
6189.75 0.085 84.018 0.995 -4.893 0.995 -4.893 0.085 84.018
6214.708 0.086 83.986 0.995 -4.934 0.995 -4.934 0.086 83.986
6239.667 0.087 83.955 0.995 -4.974 0.995 -4.974 0.087 83.955
6264.625 0.087 83.923 0.995 -5.015 0.995 -5.015 0.087 83.923
6289.583 0.088 83.891 0.994 -5.055 0.994 -5.055 0.088 83.891
6314.542 0.089 83.859 0.994 -5.095 0.994 -5.095 0.089 83.859
6339.5 0.09 83.827 0.994 -5.135 0.994 -5.135 0.09 83.827
6364.458 0.09 83.795 0.994 -5.175 0.994 -5.175 0.09 83.795
6389.417 0.091 83.763 0.994 -5.215 0.994 -5.215 0.091 83.763
6414.375 0.092 83.731 0.994 -5.255 0.994 -5.255 0.092 83.731
6439.333 0.092 83.699 0.994 -5.295 0.994 -5.295 0.092 83.699
6464.292 0.093 83.667 0.994 -5.335 0.994 -5.335 0.093 83.667
6489.25 0.094 83.634 0.994 -5.375 0.994 -5.375 0.094 83.634
6514.208 0.094 83.602 0.994 -5.414 0.994 -5.414 0.094 83.602
6539.167 0.095 83.57 0.994 -5.454 0.994 -5.454 0.095 83.57
6564.125 0.096 83.537 0.994 -5.493 0.994 -5.493 0.096 83.537
6589.083 0.096 83.505 0.994 -5.533 0.994 -5.533 0.096 83.505
6614.042 0.097 83.472 0.994 -5.572 0.994 -5.572 0.097 83.472
6639 0.098 83.44 0.994 -5.611 0.994 -5.611 0.098 83.44
6663.958 0.098 83.407 0.994 -5.65 0.994 -5.65 0.098 83.407
6688.917 0.099 83.375 0.993 -5.689 0.993 -5.689 0.099 83.375
6713.875 0.1 83.342 0.993 -5.728 0.993 -5.728 0.1 83.342
6738.833 0.101 83.309 0.993 -5.767 0.993 -5.767 0.101 83.309
6763.792 0.101 83.277 0.993 -5.806 0.993 -5.806 0.101 83.277
6788.75 0.102 83.244 0.993 -5.845 0.993 -5.845 0.102 83.244
6813.708 0.103 83.211 0.993 -5.884 0.993 -5.884 0.103 83.211
6838.667 0.103 83.179 0.993 -5.922 0.993 -5.922 0.103 83.179
6863.625 0.104 83.146 0.993 -5.961 0.993 -5.961 0.104 83.146
6888.583 0.105 83.113 0.993 -6 0.993 -6 0.105 83.113
6913.542 0.105 83.08 0.993 -6.038 0.993 -6.038 0.105 83.08
6938.5 0.106 83.048 0.993 -6.076 0.993 -6.076 0.106 83.048
6963.458 0.107 83.015 0.993 -6.115 0.993 -6.115 0.107 83.015
6988.417 0.107 82.982 0.993 -6.153 0.993 -6.153 0.107 82.982
7013.375 0.108 82.949 0.993 -6.191 0.993 -6.191 0.108 82.949
7038.333 0.109 82.916 0.992 -6.229 0.992 -6.229 0.109 82.916
7063.292 0.109 82.884 0.992 -6.267 0.992 -6.267 0.109 82.884
7088.25 0.11 82.851 0.992 -6.305 0.992 -6.305 0.11 82.851
7113.208 0.11 82.818 0.992 -6.343 0.992 -6.343 0.11 82.818
7138.167 0.111 82.785 0.992 -6.381 0.992 -6.381 0.111 82.785
7163.125 0.112 82.752 0.992 -6.419 0.992 -6.419 0.112 82.752
7188.083 0.112 82.719 0.992 -6.457 0.992 -6.457 0.112 82.719
7213.042 0.113 82.686 0.992 -6.495 0.992 -6.495 0.113 82.686
7238 0.114 82.653 0.992 -6.532 0.992 -6.532 0.114 82.653
7262.958 0.114 82.621 0.992 -6.57 0.992 -6.57 0.114 82.621
7287.917 0.115 82.588 0.992 -6.607 0.992 -6.607 0.115 82.588
7312.875 0.116 82.555 0.992 -6.645 0.992 -6.645 0.116 82.555
7337.833 0.116 82.522 0.992 -6.682 0.992 -6.682 0.116 82.522
7362.792 0.117 82.489 0.992 -6.72 0.992 -6.72 0.117 82.489
7387.75 0.118 82.456 0.991 -6.757 0.991 -6.757 0.118 82.456
7412.708 0.118 82.423 0.991 -6.794 0.991 -6.794 0.118 82.423
7437.667 0.119 82.39 0.991 -6.831 0.991 -6.831 0.119 82.39
7462.625 0.12 82.357 0.991 -6.869 0.991 -6.869 0.12 82.357
7487.583 0.12 82.324 0.991 -6.906 0.991 -6.906 0.12 82.324
7512.542 0.121 82.292 0.991 -6.943 0.991 -6.943 0.121 82.292
7537.5 0.122 82.259 0.991 -6.98 0.991 -6.98 0.122 82.259
7562.458 0.122 82.226 0.991 -7.017 0.991 -7.017 0.122 82.226
7587.417 0.123 82.193 0.991 -7.053 0.991 -7.053 0.123 82.193
7612.375 0.123 82.16 0.991 -7.09 0.991 -7.09 0.123 82.16
7637.333 0.124 82.127 0.991 -7.127 0.991 -7.127 0.124 82.127
7662.292 0.125 82.094 0.991 -7.164 0.991 -7.164 0.125 82.094
7687.25 0.125 82.061 0.99 -7.2 0.99 -7.2 0.125 82.061
7712.208 0.126 82.029 0.99 -7.237 0.99 -7.237 0.126 82.029
7737.167 0.127 81.996 0.99 -7.274 0.99 -7.274 0.127 81.996
7762.125 0.127 81.963 0.99 -7.31 0.99 -7.31 0.127 81.963
7787.083 0.128 81.93 0.99 -7.347 0.99 -7.347 0.128 81.93
7812.042 0.129 81.897 0.99 -7.383 0.99 -7.383 0.129 81.897
7837 0.129 81.864 0.99 -7.419 0.99 -7.419 0.129 81.864
7861.958 0.13 81.832 0.99 -7.456 0.99 -7.456 0.13 81.832
7886.917 0.13 81.799 0.99 -7.492 0.99 -7.492 0.13 81.799
7911.875 0.131 81.766 0.99 -7.528 0.99 -7.528 0.131 81.766
7936.833 0.132 81.733 0.99 -7.565 0.99 -7.565 0.132 81.733
7961.792 0.132 81.701 0.99 -7.601 0.99 -7.601 0.132 81.701
7986.75 0.133 81.668 0.99 -7.637 0.99 -7.637 0.133 81.668
8011.708 0.134 81.635 0.989 -7.673 0.989 -7.673 0.134 81.635
8036.667 0.134 81.602 0.989 -7.709 0.989 -7.709 0.134 81.602
8061.625 0.135 81.57 0.989 -7.745 0.989 -7.745 0.135 81.57
8086.583 0.135 81.537 0.989 -7.781 0.989 -7.781 0.135 81.537
8111.542 0.136 81.504 0.989 -7.817 0.989 -7.817 0.136 81.504
8136.5 0.137 81.471 0.989 -7.852 0.989 -7.852 0.137 81.471
8161.458 0.137 81.439 0.989 -7.888 0.989 -7.888 0.137 81.439
8186.417 0.138 81.406 0.989 -7.924 0.989 -7.924 0.138 81.406
8211.375 0.138 81.373 0.989 -7.96 0.989 -7.96 0.138 81.373
8236.333 0.139 81.341 0.989 -7.995 0.989 -7.995 0.139 81.341
8261.292 0.14 81.308 0.989 -8.031 0.989 -8.031 0.14 81.308
