# MHZ S MA R 50

50 1 -0.36 6.283e-3 89.633 6.283e-3 89.633 1 -0.36
74.958 1 -0.54 9.419e-3 89.45 9.419e-3 89.45 1 -0.54
99.917 1 -0.719 0.013 89.266 0.013 89.266 1 -0.719
124.875 1 -0.899 0.016 89.083 0.016 89.083 1 -0.899
149.833 1 -1.079 0.019 88.9 0.019 88.9 1 -1.079
174.792 1 -1.258 0.022 88.717 0.022 88.717 1 -1.258
199.75 1 -1.438 0.025 88.534 0.025 88.534 1 -1.438
224.708 1 -1.618 0.028 88.35 0.028 88.35 1 -1.618
249.667 0.999 -1.797 0.031 88.167 0.031 88.167 0.999 -1.797
274.625 0.999 -1.977 0.034 87.984 0.034 87.984 0.999 -1.977
299.583 0.999 -2.157 0.038 87.801 0.038 87.801 0.999 -2.157
324.542 0.999 -2.336 0.041 87.618 0.041 87.618 0.999 -2.336
349.5 0.999 -2.516 0.044 87.435 0.044 87.435 0.999 -2.516
374.458 0.999 -2.695 0.047 87.251 0.047 87.251 0.999 -2.695
399.417 0.999 -2.875 0.05 87.068 0.05 87.068 0.999 -2.875
424.375 0.999 -3.054 0.053 86.885 0.053 86.885 0.999 -3.054
449.333 0.998 -3.234 0.056 86.702 0.056 86.702 0.998 -3.234
474.292 0.998 -3.413 0.06 86.519 0.06 86.519 0.998 -3.413
499.25 0.998 -3.593 0.063 86.336 0.063 86.336 0.998 -3.593
524.208 0.998 -3.772 0.066 86.153 0.066 86.153 0.998 -3.772
549.167 0.998 -3.952 0.069 85.97 0.069 85.97 0.998 -3.952
574.125 0.997 -4.131 0.072 85.787 0.072 85.787 0.997 -4.131
599.083 0.997 -4.31 0.075 85.604 0.075 85.604 0.997 -4.31
624.042 0.997 -4.49 0.078 85.421 0.078 85.421 0.997 -4.49
649 0.997 -4.669 0.081 85.239 0.081 85.239 0.997 -4.669
673.958 0.996 -4.848 0.085 85.056 0.085 85.056 0.996 -4.848
698.917 0.996 -5.028 0.088 84.873 0.088 84.873 0.996 -5.028
723.875 0.996 -5.207 0.091 84.69 0.091 84.69 0.996 -5.207
748.833 0.995 -5.386 0.094 84.508 0.094 84.508 0.995 -5.386
773.792 0.995 -5.565 0.097 84.325 0.097 84.325 0.995 -5.565
798.75 0.995 -5.744 0.1 84.142 0.1 84.142 0.995 -5.744
823.708 0.994 -5.923 0.103 83.96 0.103 83.96 0.994 -5.923
848.667 0.994 -6.102 0.106 83.777 0.106 83.777 0.994 -6.102
873.625 0.994 -6.281 0.109 83.595 0.109 83.595 0.994 -6.281
898.583 0.993 -6.46 0.113 83.412 0.113 83.412 0.993 -6.46
923.542 0.993 -6.639 0.116 83.23 0.116 83.23 0.993 -6.639
948.5 0.993 -6.818 0.119 83.047 0.119 83.047 0.993 -6.818
973.458 0.992 -6.996 0.122 82.865 0.122 82.865 0.992 -6.996
998.417 0.992 -7.175 0.125 82.683 0.125 82.683 0.992 -7.175
1023.375 0.991 -7.354 0.128 82.5 0.128 82.5 0.991 -7.354
1048.333 0.991 -7.532 0.131 82.318 0.131 82.318 0.991 -7.532
1073.292 0.991 -7.711 0.134 82.136 0.134 82.136 0.991 -7.711
1098.25 0.99 -7.889 0.137 81.954 0.137 81.954 0.99 -7.889
1123.208 0.99 -8.068 0.14 81.772 0.14 81.772 0.99 -8.068
1148.167 0.989 -8.246 0.143 81.59 0.143 81.59 0.989 -8.246
1173.125 0.989 -8.424 0.147 81.408 0.147 81.408 0.989 -8.424
1198.083 0.988 -8.603 0.15 81.226 0.15 81.226 0.988 -8.603
1223.042 0.988 -8.781 0.153 81.044 0.153 81.044 0.988 -8.781
1248 0.987 -8.959 0.156 80.863 0.156 80.863 0.987 -8.959
1272.958 0.987 -9.137 0.159 80.681 0.159 80.681 0.987 -9.137
1297.917 0.986 -9.315 0.162 80.499 0.162 80.499 0.986 -9.315
1322.875 0.986 -9.493 0.165 80.318 0.165 80.318 0.986 -9.493
1347.833 0.985 -9.671 0.168 80.136 0.168 80.136 0.985 -9.671
1372.792 0.985 -9.849 0.171 79.955 0.171 79.955 0.985 -9.849
1397.75 0.984 -10.027 0.174 79.774 0.174 79.774 0.984 -10.027
1422.708 0.984 -10.204 0.177 79.592 0.177 79.592 0.984 -10.204
1447.667 0.983 -10.382 0.18 79.411 0.18 79.411 0.983 -10.382
1472.625 0.982 -10.559 0.183 79.23 0.183 79.23 0.982 -10.559
1497.583 0.982 -10.737 0.186 79.049 0.186 79.049 0.982 -10.737
1522.542 0.981 -10.914 0.189 78.868 0.189 78.868 0.981 -10.914
1547.5 0.981 -11.092 0.192 78.687 0.192 78.687 0.981 -11.092
1572.458 0.98 -11.269 0.195 78.506 0.195 78.506 0.98 -11.269
1597.417 0.979 -11.446 0.198 78.325 0.198 78.325 0.979 -11.446
1622.375 0.979 -11.623 0.201 78.144 0.201 78.144 0.979 -11.623
1647.333 0.978 -11.8 0.204 77.964 0.204 77.964 0.978 -11.8
1672.292 0.977 -11.977 0.208 77.783 0.208 77.783 0.977 -11.977
1697.25 0.977 -12.154 0.211 77.603 0.211 77.603 0.977 -12.154
1722.208 0.976 -12.331 0.214 77.422 0.214 77.422 0.976 -12.331
1747.167 0.975 -12.507 0.217 77.242 0.217 77.242 0.975 -12.507
1772.125 0.975 -12.684 0.22 77.062 0.22 77.062 0.975 -12.684
1797.083 0.974 -12.86 0.223 76.882 0.223 76.882 0.974 -12.86
1822.042 0.973 -13.037 0.226 76.701 0.226 76.701 0.973 -13.037
1847 0.972 -13.213 0.229 76.521 0.229 76.521 0.972 -13.213
1871.958 0.972 -13.389 0.232 76.342 0.232 76.342 0.972 -13.389
1896.917 0.971 -13.565 0.235 76.162 0.235 76.162 0.971 -13.565
1921.875 0.97 -13.741 0.238 75.982 0.238 75.982 0.97 -13.741
1946.833 0.969 -13.917 0.241 75.802 0.241 75.802 0.969 -13.917
1971.792 0.969 -14.093 0.244 75.623 0.244 75.623 0.969 -14.093
1996.75 0.968 -14.269 0.246 75.443 0.246 75.443 0.968 -14.269
2021.708 0.967 -14.445 0.249 75.264 0.249 75.264 0.967 -14.445
2046.667 0.966 -14.62 0.252 75.085 0.252 75.085 0.966 -14.62
2071.625 0.966 -14.796 0.255 74.906 0.255 74.906 0.966 -14.796
2096.583 0.965 -14.971 0.258 74.727 0.258 74.727 0.965 -14.971
2121.542 0.964 -15.146 0.261 74.548 0.261 74.548 0.964 -15.146
2146.5 0.963 -15.321 0.264 74.369 0.264 74.369 0.963 -15.321
2171.458 0.962 -15.496 0.267 74.19 0.267 74.19 0.962 -15.496
2196.417 0.961 -15.671 0.27 74.011 0.27 74.011 0.961 -15.671
2221.375 0.96 -15.846 0.273 73.833 0.273 73.833 0.96 -15.846
2246.333 0.96 -16.021 0.276 73.654 0.276 73.654 0.96 -16.021
2271.292 0.959 -16.196 0.279 73.476 0.279 73.476 0.959 -16.196
2296.25 0.958 -16.37 0.282 73.298 0.282 73.298 0.958 -16.37
2321.208 0.957 -16.544 0.285 73.119 0.285 73.119 0.957 -16.544
2346.167 0.956 -16.719 0.288 72.941 0.288 72.941 0.956 -16.719
2371.125 0.955 -16.893 0.291 72.763 0.291 72.763 0.955 -16.893
2396.083 0.954 -17.067 0.293 72.586 0.293 72.586 0.954 -17.067
2421.042 0.953 -17.241 0.296 72.408 0.296 72.408 0.953 -17.241
2446 0.952 -17.415 0.299 72.23 0.299 72.23 0.952 -17.415
2470.958 0.951 -17.588 0.302 72.053 0.302 72.053 0.951 -17.588
2495.917 0.95 -17.762 0.305 71.875 0.305 71.875 0.95 -17.762
2520.875 0.949 -17.936 0.308 71.698 0.308 71.698 0.949 -17.936
2545.833 0.948 -18.109 0.311 71.521 0.311 71.521 0.948 -18.109
2570.792 0.947 -18.282 0.314 71.344 0.314 71.344 0.947 -18.282
2595.75 0.946 -18.455 0.317 71.167 0.317 71.167 0.946 -18.455
2620.708 0.945 -18.628 0.319 70.99 0.319 70.99 0.945 -18.628
2645.667 0.944 -18.801 0.322 70.813 0.322 70.813 0.944 -18.801
2670.625 0.943 -18.974 0.325 70.637 0.325 70.637 0.943 -18.974
2695.583 0.942 -19.146 0.328 70.46 0.328 70.46 0.942 -19.146
2720.542 0.941 -19.319 0.331 70.284 0.331 70.284 0.941 -19.319
2745.5 0.94 -19.491 0.334 70.108 0.334 70.108 0.94 -19.491
2770.458 0.939 -19.664 0.337 69.932 0.337 69.932 0.939 -19.664
2795.417 0.938 -19.836 0.339 69.756 0.339 69.756 0.938 -19.836
2820.375 0.937 -20.008 0.342 69.58 0.342 69.58 0.937 -20.008
2845.333 0.936 -20.179 0.345 69.404 0.345 69.404 0.936 -20.179
2870.292 0.935 -20.351 0.348 69.229 0.348 69.229 0.935 -20.351
2895.25 0.934 -20.523 0.351 69.053 0.351 69.053 0.934 -20.523
2920.208 0.933 -20.694 0.353 68.878 0.353 68.878 0.933 -20.694
2945.167 0.932 -20.865 0.356 68.703 0.356 68.703 0.932 -20.865
2970.125 0.931 -21.037 0.359 68.528 0.359 68.528 0.931 -21.037
2995.083 0.929 -21.208 0.362 68.353 0.362 68.353 0.929 -21.208
3020.042 0.928 -21.379 0.365 68.178 0.365 68.178 0.928 -21.379
3045 0.927 -21.549 0.367 68.003 0.367 68.003 0.927 -21.549
3069.958 0.926 -21.72 0.37 67.829 0.37 67.829 0.926 -21.72
3094.917 0.925 -21.89 0.373 67.654 0.373 67.654 0.925 -21.89
3119.875 0.924 -22.061 0.376 67.48 0.376 67.48 0.924 -22.061
3144.833 0.923 -22.231 0.378 67.306 0.378 67.306 0.923 -22.231
3169.792 0.921 -22.401 0.381 67.132 0.381 67.132 0.921 -22.401
3194.75 0.92 -22.571 0.384 66.958 0.384 66.958 0.92 -22.571
3219.708 0.919 -22.741 0.387 66.784 0.387 66.784 0.919 -22.741
3244.667 0.918 -22.91 0.389 66.611 0.389 66.611 0.918 -22.91
3269.625 0.917 -23.08 0.392 66.437 0.392 66.437 0.917 -23.08
3294.583 0.915 -23.249 0.395 66.264 0.395 66.264 0.915 -23.249
3319.542 0.914 -23.418 0.397 66.091 0.397 66.091 0.914 -23.418
3344.5 0.913 -23.587 0.4 65.918 0.4 65.918 0.913 -23.587
3369.458 0.912 -23.756 0.403 65.745 0.403 65.745 0.912 -23.756
3394.417 0.911 -23.925 0.406 65.572 0.406 65.572 0.911 -23.925
3419.375 0.909 -24.093 0.408 65.4 0.408 65.4 0.909 -24.093
3444.333 0.908 -24.262 0.411 65.227 0.411 65.227 0.908 -24.262
3469.292 0.907 -24.43 0.414 65.055 0.414 65.055 0.907 -24.43
3494.25 0.905 -24.598 0.416 64.883 0.416 64.883 0.905 -24.598
3519.208 0.904 -24.766 0.419 64.711 0.419 64.711 0.904 -24.766
3544.167 0.903 -24.934 0.422 64.539 0.422 64.539 0.903 -24.934
3569.125 0.902 -25.101 0.424 64.367 0.424 64.367 0.902 -25.101
3594.083 0.9 -25.269 0.427 64.196 0.427 64.196 0.9 -25.269
3619.042 0.899 -25.436 0.43 64.024 0.43 64.024 0.899 -25.436
3644 0.898 -25.603 0.432 63.853 0.432 63.853 0.898 -25.603
3668.958 0.896 -25.77 0.435 63.682 0.435 63.682 0.896 -25.77
3693.917 0.895 -25.937 0.437 63.511 0.437 63.511 0.895 -25.937
3718.875 0.894 -26.104 0.44 63.34 0.44 63.34 0.894 -26.104
3743.833 0.892 -26.27 0.443 63.17 0.443 63.17 0.892 -26.27
3768.792 0.891 -26.437 0.445 62.999 0.445 62.999 0.891 -26.437
3793.75 0.89 -26.603 0.448 62.829 0.448 62.829 0.89 -26.603
3818.708 0.888 -26.769 0.45 62.659 0.45 62.659 0.888 -26.769
3843.667 0.887 -26.935 0.453 62.489 0.453 62.489 0.887 -26.935
3868.625 0.886 -27.1 0.456 62.319 0.456 62.319 0.886 -27.1
3893.583 0.884 -27.266 0.458 62.149 0.458 62.149 0.884 -27.266
3918.542 0.883 -27.431 0.461 61.979 0.461 61.979 0.883 -27.431
3943.5 0.881 -27.596 0.463 61.81 0.463 61.81 0.881 -27.596
3968.458 0.88 -27.761 0.466 61.641 0.466 61.641 0.88 -27.761
3993.417 0.879 -27.926 0.468 61.472 0.468 61.472 0.879 -27.926
4018.375 0.877 -28.091 0.471 61.303 0.471 61.303 0.877 -28.091
4043.333 0.876 -28.255 0.473 61.134 0.473 61.134 0.876 -28.255
4068.292 0.874 -28.42 0.476 60.966 0.476 60.966 0.874 -28.42
4093.25 0.873 -28.584 0.478 60.797 0.478 60.797 0.873 -28.584
4118.208 0.872 -28.748 0.481 60.629 0.481 60.629 0.872 -28.748
4143.167 0.87 -28.911 0.483 60.461 0.483 60.461 0.87 -28.911
4168.125 0.869 -29.075 0.486 60.293 0.486 60.293 0.869 -29.075
4193.083 0.867 -29.238 0.488 60.125 0.488 60.125 0.867 -29.238
4218.042 0.866 -29.402 0.491 59.958 0.491 59.958 0.866 -29.402
4243 0.864 -29.565 0.493 59.79 0.493 59.79 0.864 -29.565
4267.958 0.863 -29.728 0.496 59.623 0.496 59.623 0.863 -29.728
4292.917 0.861 -29.89 0.498 59.456 0.498 59.456 0.861 -29.89
4317.875 0.86 -30.053 0.501 59.289 0.501 59.289 0.86 -30.053
4342.833 0.858 -30.215 0.503 59.122 0.503 59.122 0.858 -30.215
4367.792 0.857 -30.378 0.506 58.956 0.506 58.956 0.857 -30.378
4392.75 0.855 -30.54 0.508 58.789 0.508 58.789 0.855 -30.54
4417.708 0.854 -30.701 0.511 58.623 0.511 58.623 0.854 -30.701
4442.667 0.852 -30.863 0.513 58.457 0.513 58.457 0.852 -30.863
4467.625 0.851 -31.025 0.515 58.291 0.515 58.291 0.851 -31.025
4492.583 0.849 -31.186 0.518 58.126 0.518 58.126 0.849 -31.186
4517.542 0.848 -31.347 0.52 57.96 0.52 57.96 0.848 -31.347
4542.5 0.846 -31.508 0.523 57.795 0.523 57.795 0.846 -31.508
4567.458 0.845 -31.668 0.525 57.629 0.525 57.629 0.845 -31.668
4592.417 0.843 -31.829 0.527 57.464 0.527 57.464 0.843 -31.829
4617.375 0.842 -31.989 0.53 57.3 0.53 57.3 0.842 -31.989
4642.333 0.84 -32.15 0.532 57.135 0.532 57.135 0.84 -32.15
4667.292 0.838 -32.309 0.535 56.97 0.535 56.97 0.838 -32.309
4692.25 0.837 -32.469 0.537 56.806 0.537 56.806 0.837 -32.469
4717.208 0.835 -32.629 0.539 56.642 0.539 56.642 0.835 -32.629
4742.167 0.834 -32.788 0.542 56.478 0.542 56.478 0.834 -32.788
4767.125 0.832 -32.947 0.544 56.314 0.544 56.314 0.832 -32.947
4792.083 0.831 -33.106 0.546 56.151 0.546 56.151 0.831 -33.106
4817.042 0.829 -33.265 0.549 55.987 0.549 55.987 0.829 -33.265
4842 0.827 -33.424 0.551 55.824 0.551 55.824 0.827 -33.424
4866.958 0.826 -33.582 0.553 55.661 0.553 55.661 0.826 -33.582
4891.917 0.824 -33.741 0.555 55.498 0.555 55.498 0.824 -33.741
4916.875 0.823 -33.899 0.558 55.335 0.558 55.335 0.823 -33.899
4941.833 0.821 -34.057 0.56 55.173 0.56 55.173 0.821 -34.057
4966.792 0.819 -34.214 0.562 55.011 0.562 55.011 0.819 -34.214
4991.75 0.818 -34.372 0.565 54.848 0.565 54.848 0.818 -34.372
5016.708 0.816 -34.529 0.567 54.686 0.567 54.686 0.816 -34.529
5041.667 0.814 -34.686 0.569 54.525 0.569 54.525 0.814 -34.686
5066.625 0.813 -34.843 0.571 54.363 0.571 54.363 0.813 -34.843
5091.583 0.811 -35 0.574 54.202 0.574 54.202 0.811 -35
5116.542 0.81 -35.156 0.576 54.04 0.576 54.04 0.81 -35.156
5141.5 0.808 -35.312 0.578 53.879 0.578 53.879 0.808 -35.312
5166.458 0.806 -35.468 0.58 53.719 0.58 53.719 0.806 -35.468
5191.417 0.805 -35.624 0.583 53.558 0.583 53.558 0.805 -35.624
5216.375 0.803 -35.78 0.585 53.397 0.585 53.397 0.803 -35.78
5241.333 0.801 -35.936 0.587 53.237 0.587 53.237 0.801 -35.936
5266.292 0.8 -36.091 0.589 53.077 0.589 53.077 0.8 -36.091
5291.25 0.798 -36.246 0.591 52.917 0.591 52.917 0.798 -36.246
5316.208 0.796 -36.401 0.593 52.757 0.593 52.757 0.796 -36.401
5341.167 0.794 -36.555 0.596 52.598 0.596 52.598 0.794 -36.555
5366.125 0.793 -36.71 0.598 52.438 0.598 52.438 0.793 -36.71
5391.083 0.791 -36.864 0.6 52.279 0.6 52.279 0.791 -36.864
5416.042 0.789 -37.018 0.602 52.12 0.602 52.12 0.789 -37.018
5441 0.788 -37.172 0.604 51.961 0.604 51.961 0.788 -37.172
5465.958 0.786 -37.326 0.606 51.803 0.606 51.803 0.786 -37.326
5490.917 0.784 -37.479 0.609 51.644 0.609 51.644 0.784 -37.479
5515.875 0.783 -37.633 0.611 51.486 0.611 51.486 0.783 -37.633
5540.833 0.781 -37.786 0.613 51.328 0.613 51.328 0.781 -37.786
5565.792 0.779 -37.938 0.615 51.17 0.615 51.17 0.779 -37.938
5590.75 0.777 -38.091 0.617 51.013 0.617 51.013 0.777 -38.091
5615.708 0.776 -38.243 0.619 50.855 0.619 50.855 0.776 -38.243
5640.667 0.774 -38.396 0.621 50.698 0.621 50.698 0.774 -38.396
5665.625 0.772 -38.548 0.623 50.541 0.623 50.541 0.772 -38.548
5690.583 0.77 -38.699 0.625 50.384 0.625 50.384 0.77 -38.699
5715.542 0.769 -38.851 0.627 50.227 0.627 50.227 0.769 -38.851
5740.5 0.767 -39.002 0.629 50.071 0.629 50.071 0.767 -39.002
5765.458 0.765 -39.154 0.631 49.914 0.631 49.914 0.765 -39.154
5790.417 0.763 -39.305 0.634 49.758 0.634 49.758 0.763 -39.305
5815.375 0.762 -39.455 0.636 49.602 0.636 49.602 0.762 -39.455
5840.333 0.76 -39.606 0.638 49.447 0.638 49.447 0.76 -39.606
5865.292 0.758 -39.756 0.64 49.291 0.64 49.291 0.758 -39.756
5890.25 0.756 -39.906 0.642 49.136 0.642 49.136 0.756 -39.906
5915.208 0.755 -40.056 0.644 48.98 0.644 48.98 0.755 -40.056
5940.167 0.753 -40.206 0.646 48.826 0.646 48.826 0.753 -40.206
5965.125 0.751 -40.355 0.648 48.671 0.648 48.671 0.751 -40.355
5990.083 0.749 -40.505 0.65 48.516 0.65 48.516 0.749 -40.505
6015.042 0.747 -40.654 0.652 48.362 0.652 48.362 0.747 -40.654
6040 0.746 -40.802 0.654 48.208 0.654 48.208 0.746 -40.802
6064.958 0.744 -40.951 0.656 48.054 0.656 48.054 0.744 -40.951
6089.917 0.742 -41.1 0.657 47.9 0.657 47.9 0.742 -41.1
6114.875 0.74 -41.248 0.659 47.746 0.659 47.746 0.74 -41.248
6139.833 0.738 -41.396 0.661 47.593 0.661 47.593 0.738 -41.396
6164.792 0.737 -41.543 0.663 47.44 0.663 47.44 0.737 -41.543
6189.75 0.735 -41.691 0.665 47.287 0.665 47.287 0.735 -41.691
6214.708 0.733 -41.838 0.667 47.134 0.667 47.134 0.733 -41.838
6239.667 0.731 -41.985 0.669 46.981 0.669 46.981 0.731 -41.985
6264.625 0.729 -42.132 0.671 46.829 0.671 46.829 0.729 -42.132
6289.583 0.728 -42.279 0.673 46.677 0.673 46.677 0.728 -42.279
6314.542 0.726 -42.425 0.675 46.525 0.675 46.525 0.726 -42.425
6339.5 0.724 -42.572 0.677 46.373 0.677 46.373 0.724 -42.572
6364.458 0.722 -42.718 0.679 46.221 0.679 46.221 0.722 -42.718
6389.417 0.72 -42.863 0.68 46.07 0.68 46.07 0.72 -42.863
6414.375 0.718 -43.009 0.682 45.918 0.682 45.918 0.718 -43.009
6439.333 0.717 -43.154 0.684 45.767 0.684 45.767 0.717 -43.154
6464.292 0.715 -43.3 0.686 45.617 0.686 45.617 0.715 -43.3
6489.25 0.713 -43.444 0.688 45.466 0.688 45.466 0.713 -43.444
6514.208 0.711 -43.589 0.69 45.316 0.69 45.316 0.711 -43.589
6539.167 0.709 -43.734 0.691 45.165 0.691 45.165 0.709 -43.734
6564.125 0.707 -43.878 0.693 45.015 0.693 45.015 0.707 -43.878
6589.083 0.706 -44.022 0.695 44.865 0.695 44.865 0.706 -44.022
6614.042 0.704 -44.166 0.697 44.716 0.697 44.716 0.704 -44.166
6639 0.702 -44.309 0.699 44.566 0.699 44.566 0.702 -44.309
6663.958 0.7 -44.453 0.7 44.417 0.7 44.417 0.7 -44.453
6688.917 0.698 -44.596 0.702 44.268 0.702 44.268 0.698 -44.596
6713.875 0.696 -44.739 0.704 44.119 0.704 44.119 0.696 -44.739
6738.833 0.694 -44.881 0.706 43.971 0.706 43.971 0.694 -44.881
6763.792 0.693 -45.024 0.708 43.822 0.708 43.822 0.693 -45.024
6788.75 0.691 -45.166 0.709 43.674 0.709 43.674 0.691 -45.166
6813.708 0.689 -45.308 0.711 43.526 0.711 43.526 0.689 -45.308
6838.667 0.687 -45.45 0.713 43.378 0.713 43.378 0.687 -45.45
6863.625 0.685 -45.592 0.715 43.23 0.715 43.23 0.685 -45.592
6888.583 0.683 -45.733 0.716 43.083 0.716 43.083 0.683 -45.733
6913.542 0.681 -45.874 0.718 42.936 0.718 42.936 0.681 -45.874
6938.5 0.679 -46.015 0.72 42.789 0.72 42.789 0.679 -46.015
6963.458 0.678 -46.156 0.721 42.642 0.721 42.642 0.678 -46.156
6988.417 0.676 -46.296 0.723 42.495 0.723 42.495 0.676 -46.296
7013.375 0.674 -46.436 0.725 42.349 0.725 42.349 0.674 -46.436
7038.333 0.672 -46.576 0.726 42.203 0.726 42.203 0.672 -46.576
7063.292 0.67 -46.716 0.728 42.057 0.728 42.057 0.67 -46.716
7088.25 0.668 -46.856 0.73 41.911 0.73 41.911 0.668 -46.856
7113.208 0.666 -46.995 0.731 41.765 0.731 41.765 0.666 -46.995
7138.167 0.664 -47.134 0.733 41.62 0.733 41.62 0.664 -47.134
7163.125 0.662 -47.273 0.735 41.474 0.735 41.474 0.662 -47.273
7188.083 0.661 -47.411 0.736 41.329 0.736 41.329 0.661 -47.411
7213.042 0.659 -47.55 0.738 41.185 0.738 41.185 0.659 -47.55
7238 0.657 -47.688 0.74 41.04 0.74 41.04 0.657 -47.688
7262.958 0.655 -47.826 0.741 40.896 0.741 40.896 0.655 -47.826
7287.917 0.653 -47.964 0.743 40.751 0.743 40.751 0.653 -47.964
7312.875 0.651 -48.101 0.745 40.607 0.745 40.607 0.651 -48.101
7337.833 0.649 -48.238 0.746 40.463 0.746 40.463 0.649 -48.238
7362.792 0.647 -48.375 0.748 40.32 0.748 40.32 0.647 -48.375
7387.75 0.645 -48.512 0.749 40.176 0.749 40.176 0.645 -48.512
7412.708 0.643 -48.649 0.751 40.033 0.751 40.033 0.643 -48.649
7437.667 0.641 -48.785 0.752 39.89 0.752 39.89 0.641 -48.785
7462.625 0.64 -48.921 0.754 39.747 0.754 39.747 0.64 -48.921
7487.583 0.638 -49.057 0.756 39.605 0.756 39.605 0.638 -49.057
7512.542 0.636 -49.193 0.757 39.462 0.757 39.462 0.636 -49.193
7537.5 0.634 -49.328 0.759 39.32 0.759 39.32 0.634 -49.328
7562.458 0.632 -49.463 0.76 39.178 0.76 39.178 0.632 -49.463
7587.417 0.63 -49.598 0.762 39.036 0.762 39.036 0.63 -49.598
7612.375 0.628 -49.733 0.763 38.895 0.763 38.895 0.628 -49.733
7637.333 0.626 -49.867 0.765 38.753 0.765 38.753 0.626 -49.867
7662.292 0.624 -50.001 0.766 38.612 0.766 38.612 0.624 -50.001
7687.25 0.622 -50.135 0.768 38.471 0.768 38.471 0.622 -50.135
7712.208 0.62 -50.269 0.769 38.33 0.769 38.33 0.62 -50.269
7737.167 0.618 -50.403 0.771 38.19 0.771 38.19 0.618 -50.403
7762.125 0.617 -50.536 0.772 38.049 0.772 38.049 0.617 -50.536
7787.083 0.615 -50.669 0.774 37.909 0.774 37.909 0.615 -50.669
7812.042 0.613 -50.802 0.775 37.769 0.775 37.769 0.613 -50.802
7837 0.611 -50.934 0.777 37.629 0.777 37.629 0.611 -50.934
7861.958 0.609 -51.067 0.778 37.49 0.778 37.49 0.609 -51.067
7886.917 0.607 -51.199 0.78 37.35 0.78 37.35 0.607 -51.199
7911.875 0.605 -51.331 0.781 37.211 0.781 37.211 0.605 -51.331
7936.833 0.603 -51.462 0.782 37.072 0.782 37.072 0.603 -51.462
7961.792 0.601 -51.594 0.784 36.933 0.784 36.933 0.601 -51.594
7986.75 0.599 -51.725 0.785 36.795 0.785 36.795 0.599 -51.725
8011.708 0.597 -51.856 0.787 36.656 0.787 36.656 0.597 -51.856
8036.667 0.595 -51.987 0.788 36.518 0.788 36.518 0.595 -51.987
8061.625 0.593 -52.117 0.79 36.38 0.79 36.38 0.593 -52.117
8086.583 0.591 -52.247 0.791 36.242 0.791 36.242 0.591 -52.247
8111.542 0.589 -52.377 0.792 36.105 0.792 36.105 0.589 -52.377
8136.5 0.588 -52.507 0.794 35.967 0.794 35.967 0.588 -52.507
8161.458 0.586 -52.636 0.795 35.83 0.795 35.83 0.586 -52.636
