# MHZ S MA R 50

50 0.991 -7.517 0.131 82.467 0.131 82.467 0.991 -7.517
74.958 0.981 -11.192 0.194 78.785 0.194 78.785 0.981 -11.192
99.917 0.967 -14.777 0.255 75.192 0.255 75.192 0.967 -14.777
124.875 0.949 -18.25 0.313 71.711 0.313 71.711 0.949 -18.25
149.833 0.93 -21.593 0.368 68.361 0.368 68.361 0.93 -21.593
174.792 0.907 -24.79 0.419 65.155 0.419 65.155 0.907 -24.79
199.75 0.884 -27.835 0.467 62.103 0.467 62.103 0.884 -27.835
224.708 0.859 -30.721 0.511 59.209 0.511 59.209 0.859 -30.721
249.667 0.834 -33.449 0.551 56.474 0.551 56.474 0.834 -33.449
274.625 0.808 -36.019 0.588 53.896 0.588 53.896 0.808 -36.019
299.583 0.782 -38.435 0.622 51.472 0.622 51.472 0.782 -38.435
324.542 0.757 -40.705 0.652 49.194 0.652 49.194 0.757 -40.705
349.5 0.732 -42.834 0.68 47.058 0.68 47.058 0.732 -42.834
374.458 0.708 -44.83 0.705 45.054 0.705 45.054 0.708 -44.83
399.417 0.684 -46.701 0.728 43.175 0.728 43.175 0.684 -46.701
424.375 0.661 -48.455 0.748 41.413 0.748 41.413 0.661 -48.455
449.333 0.64 -50.099 0.767 39.76 0.767 39.76 0.64 -50.099
474.292 0.619 -51.643 0.784 38.209 0.784 38.209 0.619 -51.643
499.25 0.598 -53.092 0.8 36.752 0.8 36.752 0.598 -53.092
524.208 0.579 -54.454 0.814 35.382 0.814 35.382 0.579 -54.454
549.167 0.561 -55.735 0.826 34.092 0.826 34.092 0.561 -55.735
574.125 0.543 -56.941 0.838 32.878 0.838 32.878 0.543 -56.941
599.083 0.526 -58.078 0.849 31.733 0.849 31.733 0.526 -58.078
624.042 0.51 -59.151 0.859 30.652 0.859 30.652 0.51 -59.151
649 0.494 -60.164 0.867 29.631 0.867 29.631 0.494 -60.164
673.958 0.48 -61.122 0.876 28.664 0.876 28.664 0.48 -61.122
698.917 0.466 -62.029 0.883 27.749 0.883 27.749 0.466 -62.029
723.875 0.452 -62.889 0.89 26.881 0.89 26.881 0.452 -62.889
748.833 0.439 -63.704 0.897 26.057 0.897 26.057 0.439 -63.704
773.792 0.427 -64.479 0.902 25.274 0.902 25.274 0.427 -64.479
798.75 0.415 -65.215 0.908 24.529 0.908 24.529 0.415 -65.215
823.708 0.404 -65.916 0.913 23.819 0.913 23.819 0.404 -65.916
848.667 0.393 -66.584 0.918 23.143 0.918 23.143 0.393 -66.584
873.625 0.383 -67.221 0.922 22.497 0.922 22.497 0.383 -67.221
898.583 0.373 -67.829 0.926 21.88 0.926 21.88 0.373 -67.829
923.542 0.363 -68.41 0.93 21.29 0.93 21.29 0.363 -68.41
948.5 0.354 -68.966 0.933 20.726 0.933 20.726 0.354 -68.966
973.458 0.345 -69.498 0.937 20.185 0.937 20.185 0.345 -69.498
998.417 0.337 -70.008 0.94 19.666 0.94 19.666 0.337 -70.008
1023.375 0.328 -70.497 0.943 19.168 0.943 19.168 0.328 -70.497
1048.333 0.32 -70.966 0.945 18.689 0.945 18.689 0.32 -70.966
1073.292 0.313 -71.417 0.948 18.229 0.948 18.229 0.313 -71.417
1098.25 0.305 -71.85 0.95 17.787 0.95 17.787 0.305 -71.85
1123.208 0.298 -72.267 0.953 17.36 0.953 17.36 0.298 -72.267
1148.167 0.292 -72.668 0.955 16.949 0.955 16.949 0.292 -72.668
1173.125 0.285 -73.054 0.957 16.553 0.957 16.553 0.285 -73.054
1198.083 0.279 -73.427 0.958 16.171 0.958 16.171 0.279 -73.427
1223.042 0.272 -73.786 0.96 15.801 0.96 15.801 0.272 -73.786
1248 0.266 -74.133 0.962 15.444 0.962 15.444 0.266 -74.133
1272.958 0.26 -74.468 0.964 15.099 0.964 15.099 0.26 -74.468
1297.917 0.255 -74.792 0.965 14.765 0.965 14.765 0.255 -74.792
1322.875 0.249 -75.106 0.966 14.441 0.966 14.441 0.249 -75.106
1347.833 0.244 -75.409 0.968 14.128 0.968 14.128 0.244 -75.409
1372.792 0.239 -75.702 0.969 13.824 0.969 13.824 0.239 -75.702
1397.75 0.234 -75.987 0.97 13.529 0.97 13.529 0.234 -75.987
1422.708 0.229 -76.262 0.971 13.242 0.971 13.242 0.229 -76.262
1447.667 0.224 -76.529 0.973 12.964 0.973 12.964 0.224 -76.529
1472.625 0.22 -76.788 0.974 12.694 0.974 12.694 0.22 -76.788
1497.583 0.215 -77.04 0.975 12.431 0.975 12.431 0.215 -77.04
1522.542 0.211 -77.284 0.976 12.175 0.976 12.175 0.211 -77.284
1547.5 0.207 -77.521 0.976 11.927 0.976 11.927 0.207 -77.521
1572.458 0.203 -77.752 0.977 11.684 0.977 11.684 0.203 -77.752
1597.417 0.198 -77.976 0.978 11.448 0.978 11.448 0.198 -77.976
1622.375 0.195 -78.194 0.979 11.218 0.979 11.218 0.195 -78.194
1647.333 0.191 -78.406 0.98 10.994 0.98 10.994 0.191 -78.406
1672.292 0.187 -78.612 0.98 10.775 0.98 10.775 0.187 -78.612
1697.25 0.183 -78.813 0.981 10.561 0.981 10.561 0.183 -78.813
1722.208 0.18 -79.009 0.982 10.353 0.982 10.353 0.18 -79.009
1747.167 0.176 -79.199 0.982 10.149 0.982 10.149 0.176 -79.199
1772.125 0.173 -79.385 0.983 9.95 0.983 9.95 0.173 -79.385
1797.083 0.169 -79.566 0.984 9.756 0.984 9.756 0.169 -79.566
1822.042 0.166 -79.743 0.984 9.565 0.984 9.565 0.166 -79.743
1847 0.163 -79.915 0.985 9.379 0.985 9.379 0.163 -79.915
1871.958 0.16 -80.083 0.985 9.197 0.985 9.197 0.16 -80.083
1896.917 0.157 -80.246 0.986 9.019 0.986 9.019 0.157 -80.246
1921.875 0.154 -80.406 0.986 8.844 0.986 8.844 0.154 -80.406
1946.833 0.151 -80.562 0.987 8.673 0.987 8.673 0.151 -80.562
1971.792 0.148 -80.715 0.987 8.505 0.987 8.505 0.148 -80.715
1996.75 0.145 -80.864 0.987 8.341 0.987 8.341 0.145 -80.864
2021.708 0.142 -81.009 0.988 8.179 0.988 8.179 0.142 -81.009
2046.667 0.14 -81.151 0.988 8.021 0.988 8.021 0.14 -81.151
2071.625 0.137 -81.289 0.989 7.866 0.989 7.866 0.137 -81.289
2096.583 0.134 -81.425 0.989 7.714 0.989 7.714 0.134 -81.425
2121.542 0.132 -81.557 0.989 7.564 0.989 7.564 0.132 -81.557
2146.5 0.129 -81.686 0.99 7.418 0.99 7.418 0.129 -81.686
2171.458 0.127 -81.813 0.99 7.273 0.99 7.273 0.127 -81.813
2196.417 0.124 -81.936 0.99 7.131 0.99 7.131 0.124 -81.936
2221.375 0.122 -82.057 0.991 6.992 0.991 6.992 0.122 -82.057
2246.333 0.119 -82.175 0.991 6.855 0.991 6.855 0.119 -82.175
2271.292 0.117 -82.29 0.991 6.72 0.991 6.72 0.117 -82.29
2296.25 0.115 -82.402 0.991 6.588 0.991 6.588 0.115 -82.402
2321.208 0.112 -82.512 0.992 6.458 0.992 6.458 0.112 -82.512
2346.167 0.11 -82.619 0.992 6.329 0.992 6.329 0.11 -82.619
2371.125 0.108 -82.724 0.992 6.203 0.992 6.203 0.108 -82.724
2396.083 0.106 -82.826 0.992 6.078 0.992 6.078 0.106 -82.826
2421.042 0.104 -82.926 0.993 5.956 0.993 5.956 0.104 -82.926
2446 0.102 -83.023 0.993 5.835 0.993 5.835 0.102 -83.023
2470.958 0.1 -83.118 0.993 5.716 0.993 5.716 0.1 -83.118
2495.917 0.098 -83.211 0.993 5.599 0.993 5.599 0.098 -83.211
2520.875 0.096 -83.301 0.993 5.484 0.993 5.484 0.096 -83.301
2545.833 0.094 -83.389 0.994 5.37 0.994 5.37 0.094 -83.389
2570.792 0.092 -83.475 0.994 5.258 0.994 5.258 0.092 -83.475
2595.75 0.09 -83.558 0.994 5.147 0.994 5.147 0.09 -83.558
2620.708 0.088 -83.639 0.994 5.038 0.994 5.038 0.088 -83.639
2645.667 0.086 -83.718 0.994 4.93 0.994 4.93 0.086 -83.718
2670.625 0.084 -83.794 0.994 4.823 0.994 4.823 0.084 -83.794
2695.583 0.082 -83.869 0.995 4.718 0.995 4.718 0.082 -83.869
2720.542 0.08 -83.94 0.995 4.615 0.995 4.615 0.08 -83.94
2745.5 0.079 -84.01 0.995 4.512 0.995 4.512 0.079 -84.01
2770.458 0.077 -84.077 0.995 4.411 0.995 4.411 0.077 -84.077
2795.417 0.075 -84.142 0.995 4.311 0.995 4.311 0.075 -84.142
2820.375 0.073 -84.204 0.995 4.213 0.995 4.213 0.073 -84.204
2845.333 0.072 -84.264 0.995 4.115 0.995 4.115 0.072 -84.264
2870.292 0.07 -84.321 0.996 4.019 0.996 4.019 0.07 -84.321
2895.25 0.068 -84.376 0.996 3.923 0.996 3.923 0.068 -84.376
2920.208 0.067 -84.428 0.996 3.829 0.996 3.829 0.067 -84.428
2945.167 0.065 -84.478 0.996 3.736 0.996 3.736 0.065 -84.478
2970.125 0.064 -84.525 0.996 3.644 0.996 3.644 0.064 -84.525
2995.083 0.062 -84.569 0.996 3.553 0.996 3.553 0.062 -84.569
3020.042 0.06 -84.61 0.996 3.463 0.996 3.463 0.06 -84.61
3045 0.059 -84.648 0.996 3.374 0.996 3.374 0.059 -84.648
3069.958 0.057 -84.683 0.996 3.286 0.996 3.286 0.057 -84.683
3094.917 0.056 -84.715 0.996 3.198 0.996 3.198 0.056 -84.715
3119.875 0.054 -84.743 0.996 3.112 0.996 3.112 0.054 -84.743
3144.833 0.053 -84.768 0.997 3.026 0.997 3.026 0.053 -84.768
3169.792 0.051 -84.789 0.997 2.942 0.997 2.942 0.051 -84.789
3194.75 0.05 -84.807 0.997 2.858 0.997 2.858 0.05 -84.807
3219.708 0.048 -84.82 0.997 2.775 0.997 2.775 0.048 -84.82
3244.667 0.047 -84.828 0.997 2.693 0.997 2.693 0.047 -84.828
3269.625 0.046 -84.833 0.997 2.611 0.997 2.611 0.046 -84.833
3294.583 0.044 -84.832 0.997 2.531 0.997 2.531 0.044 -84.832
3319.542 0.043 -84.826 0.997 2.451 0.997 2.451 0.043 -84.826
3344.5 0.041 -84.814 0.997 2.371 0.997 2.371 0.041 -84.814
3369.458 0.04 -84.796 0.997 2.293 0.997 2.293 0.04 -84.796
3394.417 0.039 -84.772 0.997 2.215 0.997 2.215 0.039 -84.772
3419.375 0.037 -84.74 0.997 2.138 0.997 2.138 0.037 -84.74
3444.333 0.036 -84.701 0.997 2.062 0.997 2.062 0.036 -84.701
3469.292 0.035 -84.654 0.997 1.986 0.997 1.986 0.035 -84.654
3494.25 0.033 -84.597 0.997 1.911 0.997 1.911 0.033 -84.597
3519.208 0.032 -84.53 0.997 1.836 0.997 1.836 0.032 -84.53
3544.167 0.031 -84.451 0.997 1.762 0.997 1.762 0.031 -84.451
3569.125 0.03 -84.361 0.998 1.689 0.998 1.689 0.03 -84.361
3594.083 0.028 -84.256 0.998 1.616 0.998 1.616 0.028 -84.256
3619.042 0.027 -84.136 0.998 1.544 0.998 1.544 0.027 -84.136
3644 0.026 -83.998 0.998 1.472 0.998 1.472 0.026 -83.998
3668.958 0.025 -83.841 0.998 1.401 0.998 1.401 0.025 -83.841
3693.917 0.023 -83.66 0.998 1.331 0.998 1.331 0.023 -83.66
3718.875 0.022 -83.454 0.998 1.261 0.998 1.261 0.022 -83.454
3743.833 0.021 -83.217 0.998 1.191 0.998 1.191 0.021 -83.217
3768.792 0.02 -82.945 0.998 1.122 0.998 1.122 0.02 -82.945
3793.75 0.019 -82.631 0.998 1.054 0.998 1.054 0.019 -82.631
3818.708 0.017 -82.267 0.998 0.986 0.998 0.986 0.017 -82.267
3843.667 0.016 -81.844 0.998 0.919 0.998 0.919 0.016 -81.844
3868.625 0.015 -81.349 0.998 0.852 0.998 0.852 0.015 -81.349
3893.583 0.014 -80.763 0.998 0.785 0.998 0.785 0.014 -80.763
3918.542 0.013 -80.065 0.998 0.719 0.998 0.719 0.013 -80.065
3943.5 0.012 -79.223 0.998 0.653 0.998 0.653 0.012 -79.223
3968.458 0.01 -78.193 0.998 0.588 0.998 0.588 0.01 -78.193
3993.417 9.359e-3 -76.912 0.998 0.523 0.998 0.523 9.359e-3 -76.912
4018.375 8.266e-3 -75.283 0.998 0.459 0.998 0.459 8.266e-3 -75.283
4043.333 7.191e-3 -73.157 0.998 0.395 0.998 0.395 7.191e-3 -73.157
4068.292 6.135e-3 -70.288 0.998 0.332 0.998 0.332 6.135e-3 -70.288
4093.25 5.109e-3 -66.249 0.998 0.269 0.998 0.269 5.109e-3 -66.249
4118.208 4.129e-3 -60.246 0.998 0.206 0.998 0.206 4.129e-3 -60.246
4143.167 3.227e-3 -50.739 0.998 0.143 0.998 0.143 3.227e-3 -50.739
4168.125 2.484e-3 -34.858 0.998 0.081 0.998 0.081 2.484e-3 -34.858
4193.083 2.065e-3 -9.67 0.998 0.02 0.998 0.02 2.065e-3 -9.67
4218.042 2.16e-3 19.453 0.998 -0.041 0.998 -0.041 2.16e-3 19.453
4243 2.706e-3 41.106 0.998 -0.102 0.998 -0.102 2.706e-3 41.106
4267.958 3.493e-3 54.189 0.998 -0.163 0.998 -0.163 3.493e-3 54.189
4292.917 4.389e-3 62.142 0.998 -0.223 0.998 -0.223 4.389e-3 62.142
4317.875 5.336e-3 67.288 0.998 -0.283 0.998 -0.283 5.336e-3 67.288
4342.833 6.308e-3 70.829 0.998 -0.342 0.998 -0.342 6.308e-3 70.829
4367.792 7.293e-3 73.388 0.998 -0.401 0.998 -0.401 7.293e-3 73.388
4392.75 8.284e-3 75.312 0.998 -0.46 0.998 -0.46 8.284e-3 75.312
4417.708 9.277e-3 76.804 0.998 -0.519 0.998 -0.519 9.277e-3 76.804
4442.667 0.01 77.989 0.998 -0.577 0.998 -0.577 0.01 77.989
4467.625 0.011 78.95 0.998 -0.635 0.998 -0.635 0.011 78.95
4492.583 0.012 79.742 0.998 -0.692 0.998 -0.692 0.012 79.742
4517.542 0.013 80.404 0.998 -0.749 0.998 -0.749 0.013 80.404
4542.5 0.014 80.963 0.998 -0.806 0.998 -0.806 0.014 80.963
4567.458 0.015 81.441 0.998 -0.863 0.998 -0.863 0.015 81.441
4592.417 0.016 81.851 0.998 -0.92 0.998 -0.92 0.016 81.851
4617.375 0.017 82.207 0.998 -0.976 0.998 -0.976 0.017 82.207
4642.333 0.018 82.517 0.998 -1.032 0.998 -1.032 0.018 82.517
4667.292 0.019 82.789 0.998 -1.087 0.998 -1.087 0.019 82.789
4692.25 0.02 83.028 0.998 -1.142 0.998 -1.142 0.02 83.028
4717.208 0.021 83.239 0.998 -1.197 0.998 -1.197 0.021 83.239
4742.167 0.022 83.427 0.998 -1.252 0.998 -1.252 0.022 83.427
4767.125 0.023 83.593 0.998 -1.307 0.998 -1.307 0.023 83.593
4792.083 0.024 83.741 0.998 -1.361 0.998 -1.361 0.024 83.741
4817.042 0.025 83.873 0.998 -1.415 0.998 -1.415 0.025 83.873
4842 0.026 83.991 0.998 -1.469 0.998 -1.469 0.026 83.991
4866.958 0.027 84.097 0.998 -1.522 0.998 -1.522 0.027 84.097
4891.917 0.028 84.191 0.998 -1.576 0.998 -1.576 0.028 84.191
4916.875 0.028 84.276 0.998 -1.629 0.998 -1.629 0.028 84.276
4941.833 0.029 84.351 0.998 -1.682 0.998 -1.682 0.029 84.351
4966.792 0.03 84.419 0.998 -1.734 0.998 -1.734 0.03 84.419
4991.75 0.031 84.479 0.997 -1.787 0.997 -1.787 0.031 84.479
5016.708 0.032 84.533 0.997 -1.839 0.997 -1.839 0.032 84.533
5041.667 0.033 84.58 0.997 -1.891 0.997 -1.891 0.033 84.58
5066.625 0.034 84.622 0.997 -1.943 0.997 -1.943 0.034 84.622
5091.583 0.035 84.659 0.997 -1.994 0.997 -1.994 0.035 84.659
5116.542 0.036 84.692 0.997 -2.046 0.997 -2.046 0.036 84.692
5141.5 0.037 84.72 0.997 -2.097 0.997 -2.097 0.037 84.72
5166.458 0.038 84.745 0.997 -2.148 0.997 -2.148 0.038 84.745
5191.417 0.038 84.766 0.997 -2.198 0.997 -2.198 0.038 84.766
5216.375 0.039 84.783 0.997 -2.249 0.997 -2.249 0.039 84.783
5241.333 0.04 84.798 0.997 -2.299 0.997 -2.299 0.04 84.798
5266.292 0.041 84.81 0.997 -2.349 0.997 -2.349 0.041 84.81
5291.25 0.042 84.819 0.997 -2.399 0.997 -2.399 0.042 84.819
5316.208 0.043 84.825 0.997 -2.449 0.997 -2.449 0.043 84.825
5341.167 0.044 84.83 0.997 -2.499 0.997 -2.499 0.044 84.83
5366.125 0.045 84.832 0.997 -2.548 0.997 -2.548 0.045 84.832
5391.083 0.045 84.833 0.997 -2.597 0.997 -2.597 0.045 84.833
5416.042 0.046 84.831 0.997 -2.646 0.997 -2.646 0.046 84.831
5441 0.047 84.828 0.997 -2.695 0.997 -2.695 0.047 84.828
5465.958 0.048 84.824 0.997 -2.744 0.997 -2.744 0.048 84.824
5490.917 0.049 84.817 0.997 -2.792 0.997 -2.792 0.049 84.817
5515.875 0.05 84.81 0.997 -2.841 0.997 -2.841 0.05 84.81
5540.833 0.05 84.801 0.997 -2.889 0.997 -2.889 0.05 84.801
5565.792 0.051 84.79 0.997 -2.937 0.997 -2.937 0.051 84.79
5590.75 0.052 84.779 0.997 -2.985 0.997 -2.985 0.052 84.779
5615.708 0.053 84.766 0.997 -3.033 0.997 -3.033 0.053 84.766
5640.667 0.054 84.753 0.997 -3.08 0.997 -3.08 0.054 84.753
5665.625 0.055 84.738 0.996 -3.128 0.996 -3.128 0.055 84.738
5690.583 0.055 84.723 0.996 -3.175 0.996 -3.175 0.055 84.723
5715.542 0.056 84.707 0.996 -3.222 0.996 -3.222 0.056 84.707
5740.5 0.057 84.689 0.996 -3.269 0.996 -3.269 0.057 84.689
5765.458 0.058 84.671 0.996 -3.316 0.996 -3.316 0.058 84.671
5790.417 0.059 84.653 0.996 -3.363 0.996 -3.363 0.059 84.653
5815.375 0.06 84.633 0.996 -3.409 0.996 -3.409 0.06 84.633
5840.333 0.06 84.613 0.996 -3.456 0.996 -3.456 0.06 84.613
5865.292 0.061 84.593 0.996 -3.502 0.996 -3.502 0.061 84.593
5890.25 0.062 84.571 0.996 -3.548 0.996 -3.548 0.062 84.571
5915.208 0.063 84.549 0.996 -3.594 0.996 -3.594 0.063 84.549
5940.167 0.064 84.527 0.996 -3.64 0.996 -3.64 0.064 84.527
5965.125 0.064 84.504 0.996 -3.685 0.996 -3.685 0.064 84.504
5990.083 0.065 84.481 0.996 -3.731 0.996 -3.731 0.065 84.481
6015.042 0.066 84.457 0.996 -3.776 0.996 -3.776 0.066 84.457
6040 0.067 84.432 0.996 -3.822 0.996 -3.822 0.067 84.432
6064.958 0.067 84.408 0.996 -3.867 0.996 -3.867 0.067 84.408
6089.917 0.068 84.383 0.996 -3.912 0.996 -3.912 0.068 84.383
6114.875 0.069 84.357 0.996 -3.957 0.996 -3.957 0.069 84.357
6139.833 0.07 84.331 0.996 -4.002 0.996 -4.002 0.07 84.331
6164.792 0.071 84.305 0.995 -4.047 0.995 -4.047 0.071 84.305
6189.75 0.071 84.278 0.995 -4.091 0.995 -4.091 0.071 84.278
6214.708 0.072 84.251 0.995 -4.136 0.995 -4.136 0.072 84.251
6239.667 0.073 84.224 0.995 -4.18 0.995 -4.18 0.073 84.224
6264.625 0.074 84.197 0.995 -4.224 0.995 -4.224 0.074 84.197
6289.583 0.074 84.169 0.995 -4.268 0.995 -4.268 0.074 84.169
6314.542 0.075 84.141 0.995 -4.312 0.995 -4.312 0.075 84.141
6339.5 0.076 84.113 0.995 -4.356 0.995 -4.356 0.076 84.113
6364.458 0.077 84.084 0.995 -4.4 0.995 -4.4 0.077 84.084
6389.417 0.078 84.056 0.995 -4.444 0.995 -4.444 0.078 84.056
6414.375 0.078 84.027 0.995 -4.487 0.995 -4.487 0.078 84.027
6439.333 0.079 83.997 0.995 -4.531 0.995 -4.531 0.079 83.997
6464.292 0.08 83.968 0.995 -4.574 0.995 -4.574 0.08 83.968
6489.25 0.081 83.939 0.995 -4.617 0.995 -4.617 0.081 83.939
6514.208 0.081 83.909 0.995 -4.66 0.995 -4.66 0.081 83.909
6539.167 0.082 83.879 0.995 -4.704 0.995 -4.704 0.082 83.879
6564.125 0.083 83.849 0.995 -4.746 0.995 -4.746 0.083 83.849
6589.083 0.084 83.819 0.994 -4.789 0.994 -4.789 0.084 83.819
6614.042 0.084 83.788 0.994 -4.832 0.994 -4.832 0.084 83.788
6639 0.085 83.758 0.994 -4.875 0.994 -4.875 0.085 83.758
6663.958 0.086 83.727 0.994 -4.917 0.994 -4.917 0.086 83.727
6688.917 0.086 83.696 0.994 -4.96 0.994 -4.96 0.086 83.696
6713.875 0.087 83.665 0.994 -5.002 0.994 -5.002 0.087 83.665
6738.833 0.088 83.634 0.994 -5.044 0.994 -5.044 0.088 83.634
6763.792 0.089 83.603 0.994 -5.087 0.994 -5.087 0.089 83.603
6788.75 0.089 83.572 0.994 -5.129 0.994 -5.129 0.089 83.572
6813.708 0.09 83.54 0.994 -5.171 0.994 -5.171 0.09 83.54
6838.667 0.091 83.509 0.994 -5.212 0.994 -5.212 0.091 83.509
6863.625 0.092 83.477 0.994 -5.254 0.994 -5.254 0.092 83.477
6888.583 0.092 83.446 0.994 -5.296 0.994 -5.296 0.092 83.446
6913.542 0.093 83.414 0.994 -5.338 0.994 -5.338 0.093 83.414
6938.5 0.094 83.382 0.994 -5.379 0.994 -5.379 0.094 83.382
6963.458 0.094 83.35 0.994 -5.421 0.994 -5.421 0.094 83.35
6988.417 0.095 83.318 0.993 -5.462 0.993 -5.462 0.095 83.318
7013.375 0.096 83.286 0.993 -5.503 0.993 -5.503 0.096 83.286
7038.333 0.097 83.254 0.993 -5.545 0.993 -5.545 0.097 83.254
7063.292 0.097 83.222 0.993 -5.586 0.993 -5.586 0.097 83.222
7088.25 0.098 83.189 0.993 -5.627 0.993 -5.627 0.098 83.189
7113.208 0.099 83.157 0.993 -5.668 0.993 -5.668 0.099 83.157
7138.167 0.099 83.125 0.993 -5.709 0.993 -5.709 0.099 83.125
7163.125 0.1 83.092 0.993 -5.749 0.993 -5.749 0.1 83.092
7188.083 0.101 83.06 0.993 -5.79 0.993 -5.79 0.101 83.06
7213.042 0.102 83.027 0.993 -5.831 0.993 -5.831 0.102 83.027
7238 0.102 82.994 0.993 -5.871 0.993 -5.871 0.102 82.994
7262.958 0.103 82.962 0.993 -5.912 0.993 -5.912 0.103 82.962
7287.917 0.104 82.929 0.993 -5.952 0.993 -5.952 0.104 82.929
7312.875 0.104 82.896 0.993 -5.993 0.993 -5.993 0.104 82.896
7337.833 0.105 82.863 0.992 -6.033 0.992 -6.033 0.105 82.863
7362.792 0.106 82.831 0.992 -6.073 0.992 -6.073 0.106 82.831
7387.75 0.107 82.798 0.992 -6.113 0.992 -6.113 0.107 82.798
7412.708 0.107 82.765 0.992 -6.153 0.992 -6.153 0.107 82.765
7437.667 0.108 82.732 0.992 -6.193 0.992 -6.193 0.108 82.732
7462.625 0.109 82.699 0.992 -6.233 0.992 -6.233 0.109 82.699
7487.583 0.109 82.666 0.992 -6.273 0.992 -6.273 0.109 82.666
7512.542 0.11 82.633 0.992 -6.313 0.992 -6.313 0.11 82.633
7537.5 0.111 82.6 0.992 -6.352 0.992 -6.352 0.111 82.6
7562.458 0.111 82.567 0.992 -6.392 0.992 -6.392 0.111 82.567
7587.417 0.112 82.534 0.992 -6.432 0.992 -6.432 0.112 82.534
7612.375 0.113 82.501 0.992 -6.471 0.992 -6.471 0.113 82.501
7637.333 0.113 82.467 0.992 -6.511 0.992 -6.511 0.113 82.467
7662.292 0.114 82.434 0.991 -6.55 0.991 -6.55 0.114 82.434
7687.25 0.115 82.401 0.991 -6.589 0.991 -6.589 0.115 82.401
7712.208 0.115 82.368 0.991 -6.628 0.991 -6.628 0.115 82.368
7737.167 0.116 82.335 0.991 -6.668 0.991 -6.668 0.116 82.335
7762.125 0.117 82.301 0.991 -6.707 0.991 -6.707 0.117 82.301
7787.083 0.117 82.268 0.991 -6.746 0.991 -6.746 0.117 82.268
7812.042 0.118 82.235 0.991 -6.785 0.991 -6.785 0.118 82.235
7837 0.119 82.202 0.991 -6.824 0.991 -6.824 0.119 82.202
7861.958 0.12 82.168 0.991 -6.863 0.991 -6.863 0.12 82.168
7886.917 0.12 82.135 0.991 -6.901 0.991 -6.901 0.12 82.135
7911.875 0.121 82.102 0.991 -6.94 0.991 -6.94 0.121 82.102
7936.833 0.122 82.068 0.991 -6.979 0.991 -6.979 0.122 82.068
7961.792 0.122 82.035 0.99 -7.017 0.99 -7.017 0.122 82.035
7986.75 0.123 82.002 0.99 -7.056 0.99 -7.056 0.123 82.002
8011.708 0.124 81.968 0.99 -7.094 0.99 -7.094 0.124 81.968
8036.667 0.124 81.935 0.99 -7.133 0.99 -7.133 0.124 81.935
8061.625 0.125 81.902 0.99 -7.171 0.99 -7.171 0.125 81.902
8086.583 0.126 81.868 0.99 -7.21 0.99 -7.21 0.126 81.868
8111.542 0.126 81.835 0.99 -7.248 0.99 -7.248 0.126 81.835
8136.5 0.127 81.802 0.99 -7.286 0.99 -7.286 0.127 81.802
8161.458 0.127 81.768 0.99 -7.324 0.99 -7.324 0.127 81.768
8186.417 0.128 81.735 0.99 -7.362 0.99 -7.362 0.128 81.735
8211.375 0.129 81.702 0.99 -7.4 0.99 -7.4 0.129 81.702
8236.333 0.129 81.668 0.99 -7.438 0.99 -7.438 0.129 81.668
