# MHZ S MA R 50

50 0.999 -2.788 0.049 87.202 0.049 87.202 0.999 -2.788
74.958 0.997 -4.176 0.073 85.81 0.073 85.81 0.997 -4.176
99.917 0.995 -5.559 0.097 84.422 0.097 84.422 0.995 -5.559
124.875 0.993 -6.936 0.121 83.04 0.121 83.04 0.993 -6.936
149.833 0.989 -8.305 0.144 81.665 0.144 81.665 0.989 -8.305
174.792 0.986 -9.666 0.168 80.3 0.168 80.3 0.986 -9.666
199.75 0.981 -11.016 0.191 78.945 0.191 78.945 0.981 -11.016
224.708 0.977 -12.355 0.214 77.601 0.214 77.601 0.977 -12.355
249.667 0.971 -13.681 0.237 76.271 0.237 76.271 0.971 -13.681
274.625 0.966 -14.993 0.259 74.954 0.259 74.954 0.966 -14.993
299.583 0.96 -16.29 0.281 73.652 0.281 73.652 0.96 -16.29
324.542 0.953 -17.571 0.302 72.366 0.302 72.366 0.953 -17.571
349.5 0.946 -18.836 0.323 71.096 0.323 71.096 0.946 -18.836
374.458 0.939 -20.083 0.343 69.844 0.343 69.844 0.939 -20.083
399.417 0.931 -21.311 0.363 68.611 0.363 68.611 0.931 -21.311
424.375 0.923 -22.521 0.383 67.396 0.383 67.396 0.923 -22.521
449.333 0.915 -23.711 0.402 66.201 0.402 66.201 0.915 -23.711
474.292 0.907 -24.881 0.421 65.026 0.421 65.026 0.907 -24.881
499.25 0.898 -26.031 0.439 63.871 0.439 63.871 0.898 -26.031
524.208 0.889 -27.161 0.456 62.737 0.456 62.737 0.889 -27.161
549.167 0.88 -28.269 0.474 61.624 0.474 61.624 0.88 -28.269
574.125 0.871 -29.357 0.49 60.531 0.49 60.531 0.871 -29.357
599.083 0.861 -30.423 0.506 59.46 0.506 59.46 0.861 -30.423
624.042 0.852 -31.468 0.522 58.41 0.522 58.41 0.852 -31.468
649 0.842 -32.493 0.537 57.381 0.537 57.381 0.842 -32.493
673.958 0.833 -33.496 0.552 56.373 0.552 56.373 0.833 -33.496
698.917 0.823 -34.478 0.566 55.385 0.566 55.385 0.823 -34.478
723.875 0.813 -35.439 0.58 54.419 0.58 54.419 0.813 -35.439
748.833 0.804 -36.38 0.593 53.473 0.593 53.473 0.804 -36.38
773.792 0.794 -37.3 0.606 52.548 0.606 52.548 0.794 -37.3
798.75 0.784 -38.2 0.618 51.643 0.618 51.643 0.784 -38.2
823.708 0.774 -39.081 0.63 50.757 0.63 50.757 0.774 -39.081
848.667 0.765 -39.941 0.642 49.892 0.642 49.892 0.765 -39.941
873.625 0.755 -40.783 0.653 49.045 0.653 49.045 0.755 -40.783
898.583 0.746 -41.606 0.664 48.217 0.664 48.217 0.746 -41.606
923.542 0.736 -42.41 0.674 47.408 0.674 47.408 0.736 -42.41
948.5 0.727 -43.196 0.684 46.617 0.684 46.617 0.727 -43.196
973.458 0.717 -43.964 0.694 45.844 0.694 45.844 0.717 -43.964
998.417 0.708 -44.715 0.704 45.088 0.704 45.088 0.708 -44.715
1023.375 0.699 -45.448 0.713 44.349 0.713 44.349 0.699 -45.448
1048.333 0.69 -46.165 0.721 43.627 0.721 43.627 0.69 -46.165
1073.292 0.681 -46.866 0.73 42.921 0.73 42.921 0.681 -46.866
1098.25 0.672 -47.551 0.738 42.231 0.738 42.231 0.672 -47.551
1123.208 0.663 -48.22 0.746 41.556 0.746 41.556 0.663 -48.22
1148.167 0.655 -48.874 0.753 40.897 0.753 40.897 0.655 -48.874
1173.125 0.646 -49.514 0.761 40.252 0.761 40.252 0.646 -49.514
1198.083 0.638 -50.139 0.768 39.622 0.768 39.622 0.638 -50.139
1223.042 0.629 -50.75 0.774 39.005 0.774 39.005 0.629 -50.75
1248 0.621 -51.348 0.781 38.402 0.781 38.402 0.621 -51.348
1272.958 0.613 -51.932 0.787 37.813 0.787 37.813 0.613 -51.932
1297.917 0.605 -52.503 0.793 37.236 0.793 37.236 0.605 -52.503
1322.875 0.597 -53.062 0.799 36.672 0.799 36.672 0.597 -53.062
1347.833 0.589 -53.608 0.805 36.12 0.805 36.12 0.589 -53.608
1372.792 0.582 -54.143 0.81 35.58 0.81 35.58 0.582 -54.143
1397.75 0.574 -54.666 0.816 35.051 0.816 35.051 0.574 -54.666
1422.708 0.567 -55.178 0.821 34.534 0.821 34.534 0.567 -55.178
1447.667 0.56 -55.679 0.826 34.028 0.826 34.028 0.56 -55.679
1472.625 0.552 -56.169 0.831 33.532 0.831 33.532 0.552 -56.169
1497.583 0.545 -56.649 0.835 33.047 0.835 33.047 0.545 -56.649
1522.542 0.538 -57.119 0.84 32.571 0.84 32.571 0.538 -57.119
1547.5 0.531 -57.579 0.844 32.106 0.844 32.106 0.531 -57.579
1572.458 0.525 -58.029 0.848 31.649 0.848 31.649 0.525 -58.029
1597.417 0.518 -58.47 0.852 31.203 0.852 31.203 0.518 -58.47
1622.375 0.512 -58.903 0.856 30.765 0.856 30.765 0.512 -58.903
1647.333 0.505 -59.326 0.86 30.335 0.86 30.335 0.505 -59.326
1672.292 0.499 -59.741 0.864 29.915 0.864 29.915 0.499 -59.741
1697.25 0.492 -60.148 0.867 29.502 0.867 29.502 0.492 -60.148
1722.208 0.486 -60.546 0.871 29.098 0.871 29.098 0.486 -60.546
1747.167 0.48 -60.937 0.874 28.701 0.874 28.701 0.48 -60.937
1772.125 0.474 -61.32 0.877 28.312 0.877 28.312 0.474 -61.32
1797.083 0.468 -61.696 0.88 27.93 0.88 27.93 0.468 -61.696
1822.042 0.463 -62.064 0.883 27.556 0.883 27.556 0.463 -62.064
1847 0.457 -62.426 0.886 27.188 0.886 27.188 0.457 -62.426
1871.958 0.451 -62.781 0.889 26.828 0.889 26.828 0.451 -62.781
1896.917 0.446 -63.129 0.892 26.473 0.892 26.473 0.446 -63.129
1921.875 0.44 -63.47 0.895 26.126 0.895 26.126 0.44 -63.47
1946.833 0.435 -63.805 0.897 25.784 0.897 25.784 0.435 -63.805
1971.792 0.43 -64.135 0.9 25.449 0.9 25.449 0.43 -64.135
1996.75 0.425 -64.458 0.902 25.12 0.902 25.12 0.425 -64.458
2021.708 0.419 -64.775 0.905 24.796 0.905 24.796 0.419 -64.775
2046.667 0.414 -65.087 0.907 24.478 0.907 24.478 0.414 -65.087
2071.625 0.409 -65.393 0.909 24.166 0.909 24.166 0.409 -65.393
2096.583 0.404 -65.694 0.911 23.858 0.911 23.858 0.404 -65.694
2121.542 0.4 -65.989 0.913 23.556 0.913 23.556 0.4 -65.989
2146.5 0.395 -66.279 0.916 23.259 0.916 23.259 0.395 -66.279
2171.458 0.39 -66.565 0.918 22.968 0.918 22.968 0.39 -66.565
2196.417 0.386 -66.845 0.919 22.68 0.919 22.68 0.386 -66.845
2221.375 0.381 -67.121 0.921 22.398 0.921 22.398 0.381 -67.121
2246.333 0.377 -67.393 0.923 22.12 0.923 22.12 0.377 -67.393
2271.292 0.372 -67.659 0.925 21.846 0.925 21.846 0.372 -67.659
2296.25 0.368 -67.922 0.927 21.577 0.927 21.577 0.368 -67.922
2321.208 0.363 -68.18 0.928 21.312 0.928 21.312 0.363 -68.18
2346.167 0.359 -68.433 0.93 21.052 0.93 21.052 0.359 -68.433
2371.125 0.355 -68.683 0.932 20.795 0.932 20.795 0.355 -68.683
2396.083 0.351 -68.929 0.933 20.542 0.933 20.542 0.351 -68.929
2421.042 0.347 -69.171 0.935 20.293 0.935 20.293 0.347 -69.171
2446 0.343 -69.409 0.936 20.048 0.936 20.048 0.343 -69.409
2470.958 0.339 -69.643 0.938 19.806 0.938 19.806 0.339 -69.643
2495.917 0.335 -69.874 0.939 19.568 0.939 19.568 0.335 -69.874
2520.875 0.331 -70.101 0.94 19.334 0.94 19.334 0.331 -70.101
2545.833 0.327 -70.325 0.942 19.103 0.942 19.103 0.327 -70.325
2570.792 0.324 -70.546 0.943 18.875 0.943 18.875 0.324 -70.546
2595.75 0.32 -70.763 0.944 18.65 0.944 18.65 0.32 -70.763
2620.708 0.316 -70.976 0.945 18.429 0.945 18.429 0.316 -70.976
2645.667 0.313 -71.187 0.947 18.211 0.947 18.211 0.313 -71.187
2670.625 0.309 -71.395 0.948 17.995 0.948 17.995 0.309 -71.395
2695.583 0.305 -71.599 0.949 17.783 0.949 17.783 0.305 -71.599
2720.542 0.302 -71.801 0.95 17.573 0.95 17.573 0.302 -71.801
2745.5 0.299 -72 0.951 17.367 0.951 17.367 0.299 -72
2770.458 0.295 -72.196 0.952 17.163 0.952 17.163 0.295 -72.196
2795.417 0.292 -72.389 0.953 16.962 0.953 16.962 0.292 -72.389
2820.375 0.288 -72.579 0.954 16.763 0.954 16.763 0.288 -72.579
2845.333 0.285 -72.767 0.955 16.567 0.955 16.567 0.285 -72.767
2870.292 0.282 -72.952 0.956 16.373 0.956 16.373 0.282 -72.952
2895.25 0.279 -73.135 0.957 16.182 0.957 16.182 0.279 -73.135
2920.208 0.276 -73.315 0.958 15.994 0.958 15.994 0.276 -73.315
2945.167 0.272 -73.493 0.959 15.808 0.959 15.808 0.272 -73.493
2970.125 0.269 -73.668 0.96 15.624 0.96 15.624 0.269 -73.668
2995.083 0.266 -73.841 0.961 15.442 0.961 15.442 0.266 -73.841
3020.042 0.263 -74.011 0.961 15.262 0.961 15.262 0.263 -74.011
3045 0.26 -74.18 0.962 15.085 0.962 15.085 0.26 -74.18
3069.958 0.257 -74.346 0.963 14.91 0.963 14.91 0.257 -74.346
3094.917 0.254 -74.51 0.964 14.737 0.964 14.737 0.254 -74.51
3119.875 0.252 -74.672 0.965 14.566 0.965 14.566 0.252 -74.672
3144.833 0.249 -74.831 0.965 14.397 0.965 14.397 0.249 -74.831
3169.792 0.246 -74.989 0.966 14.23 0.966 14.23 0.246 -74.989
3194.75 0.243 -75.145 0.967 14.064 0.967 14.064 0.243 -75.145
3219.708 0.24 -75.298 0.967 13.901 0.967 13.901 0.24 -75.298
3244.667 0.238 -75.45 0.968 13.739 0.968 13.739 0.238 -75.45
3269.625 0.235 -75.6 0.969 13.58 0.969 13.58 0.235 -75.6
3294.583 0.232 -75.748 0.969 13.422 0.969 13.422 0.232 -75.748
3319.542 0.229 -75.894 0.97 13.266 0.97 13.266 0.229 -75.894
3344.5 0.227 -76.038 0.971 13.111 0.971 13.111 0.227 -76.038
3369.458 0.224 -76.181 0.971 12.958 0.971 12.958 0.224 -76.181
3394.417 0.222 -76.322 0.972 12.807 0.972 12.807 0.222 -76.322
3419.375 0.219 -76.461 0.972 12.657 0.972 12.657 0.219 -76.461
3444.333 0.217 -76.598 0.973 12.509 0.973 12.509 0.217 -76.598
3469.292 0.214 -76.733 0.973 12.363 0.973 12.363 0.214 -76.733
3494.25 0.212 -76.867 0.974 12.217 0.974 12.217 0.212 -76.867
3519.208 0.209 -77 0.974 12.074 0.974 12.074 0.209 -77
3544.167 0.207 -77.131 0.975 11.932 0.975 11.932 0.207 -77.131
3569.125 0.204 -77.26 0.976 11.791 0.976 11.791 0.204 -77.26
3594.083 0.202 -77.387 0.976 11.652 0.976 11.652 0.202 -77.387
3619.042 0.2 -77.513 0.976 11.514 0.976 11.514 0.2 -77.513
3644 0.197 -77.638 0.977 11.377 0.977 11.377 0.197 -77.638
3668.958 0.195 -77.761 0.977 11.242 0.977 11.242 0.195 -77.761
3693.917 0.193 -77.883 0.978 11.108 0.978 11.108 0.193 -77.883
3718.875 0.19 -78.003 0.978 10.975 0.978 10.975 0.19 -78.003
3743.833 0.188 -78.122 0.979 10.844 0.979 10.844 0.188 -78.122
3768.792 0.186 -78.239 0.979 10.714 0.979 10.714 0.186 -78.239
3793.75 0.184 -78.355 0.98 10.585 0.98 10.585 0.184 -78.355
3818.708 0.182 -78.47 0.98 10.457 0.98 10.457 0.182 -78.47
3843.667 0.179 -78.583 0.98 10.33 0.98 10.33 0.179 -78.583
3868.625 0.177 -78.695 0.981 10.205 0.981 10.205 0.177 -78.695
3893.583 0.175 -78.805 0.981 10.08 0.981 10.08 0.175 -78.805
3918.542 0.173 -78.914 0.982 9.957 0.982 9.957 0.173 -78.914
3943.5 0.171 -79.022 0.982 9.835 0.982 9.835 0.171 -79.022
3968.458 0.169 -79.129 0.982 9.714 0.982 9.714 0.169 -79.129
3993.417 0.167 -79.234 0.983 9.594 0.983 9.594 0.167 -79.234
4018.375 0.165 -79.338 0.983 9.474 0.983 9.474 0.165 -79.338
4043.333 0.163 -79.441 0.983 9.356 0.983 9.356 0.163 -79.441
4068.292 0.161 -79.543 0.984 9.239 0.984 9.239 0.161 -79.543
4093.25 0.159 -79.643 0.984 9.123 0.984 9.123 0.159 -79.643
4118.208 0.157 -79.742 0.984 9.008 0.984 9.008 0.157 -79.742
4143.167 0.155 -79.84 0.985 8.894 0.985 8.894 0.155 -79.84
4168.125 0.153 -79.937 0.985 8.781 0.985 8.781 0.153 -79.937
4193.083 0.151 -80.032 0.985 8.669 0.985 8.669 0.151 -80.032
4218.042 0.149 -80.126 0.985 8.557 0.985 8.557 0.149 -80.126
4243 0.147 -80.219 0.986 8.447 0.986 8.447 0.147 -80.219
4267.958 0.145 -80.311 0.986 8.337 0.986 8.337 0.145 -80.311
4292.917 0.143 -80.402 0.986 8.228 0.986 8.228 0.143 -80.402
4317.875 0.141 -80.491 0.987 8.12 0.987 8.12 0.141 -80.491
4342.833 0.139 -80.58 0.987 8.013 0.987 8.013 0.139 -80.58
4367.792 0.138 -80.667 0.987 7.907 0.987 7.907 0.138 -80.667
4392.75 0.136 -80.753 0.987 7.801 0.987 7.801 0.136 -80.753
4417.708 0.134 -80.837 0.988 7.697 0.988 7.697 0.134 -80.837
4442.667 0.132 -80.921 0.988 7.593 0.988 7.593 0.132 -80.921
4467.625 0.13 -81.004 0.988 7.49 0.988 7.49 0.13 -81.004
4492.583 0.129 -81.085 0.988 7.387 0.988 7.387 0.129 -81.085
4517.542 0.127 -81.165 0.988 7.286 0.988 7.286 0.127 -81.165
4542.5 0.125 -81.244 0.989 7.185 0.989 7.185 0.125 -81.244
4567.458 0.123 -81.322 0.989 7.084 0.989 7.084 0.123 -81.322
4592.417 0.122 -81.398 0.989 6.985 0.989 6.985 0.122 -81.398
4617.375 0.12 -81.474 0.989 6.886 0.989 6.886 0.12 -81.474
4642.333 0.118 -81.548 0.99 6.788 0.99 6.788 0.118 -81.548
4667.292 0.117 -81.621 0.99 6.691 0.99 6.691 0.117 -81.621
4692.25 0.115 -81.692 0.99 6.594 0.99 6.594 0.115 -81.692
4717.208 0.113 -81.763 0.99 6.498 0.99 6.498 0.113 -81.763
4742.167 0.112 -81.832 0.99 6.402 0.99 6.402 0.112 -81.832
4767.125 0.11 -81.9 0.991 6.308 0.991 6.308 0.11 -81.9
4792.083 0.108 -81.967 0.991 6.214 0.991 6.214 0.108 -81.967
4817.042 0.107 -82.033 0.991 6.12 0.991 6.12 0.107 -82.033
4842 0.105 -82.097 0.991 6.027 0.991 6.027 0.105 -82.097
4866.958 0.103 -82.16 0.991 5.935 0.991 5.935 0.103 -82.16
4891.917 0.102 -82.221 0.991 5.843 0.991 5.843 0.102 -82.221
4916.875 0.1 -82.282 0.992 5.752 0.992 5.752 0.1 -82.282
4941.833 0.099 -82.341 0.992 5.661 0.992 5.661 0.099 -82.341
4966.792 0.097 -82.398 0.992 5.571 0.992 5.571 0.097 -82.398
4991.75 0.096 -82.454 0.992 5.482 0.992 5.482 0.096 -82.454
5016.708 0.094 -82.509 0.992 5.393 0.992 5.393 0.094 -82.509
5041.667 0.093 -82.562 0.992 5.305 0.992 5.305 0.093 -82.562
5066.625 0.091 -82.614 0.992 5.217 0.992 5.217 0.091 -82.614
5091.583 0.089 -82.664 0.993 5.13 0.993 5.13 0.089 -82.664
5116.542 0.088 -82.713 0.993 5.043 0.993 5.043 0.088 -82.713
5141.5 0.086 -82.76 0.993 4.957 0.993 4.957 0.086 -82.76
5166.458 0.085 -82.805 0.993 4.871 0.993 4.871 0.085 -82.805
5191.417 0.084 -82.849 0.993 4.786 0.993 4.786 0.084 -82.849
5216.375 0.082 -82.891 0.993 4.701 0.993 4.701 0.082 -82.891
5241.333 0.081 -82.931 0.993 4.617 0.993 4.617 0.081 -82.931
5266.292 0.079 -82.969 0.993 4.534 0.993 4.534 0.079 -82.969
5291.25 0.078 -83.005 0.994 4.45 0.994 4.45 0.078 -83.005
5316.208 0.076 -83.04 0.994 4.368 0.994 4.368 0.076 -83.04
5341.167 0.075 -83.072 0.994 4.285 0.994 4.285 0.075 -83.072
5366.125 0.073 -83.103 0.994 4.203 0.994 4.203 0.073 -83.103
5391.083 0.072 -83.131 0.994 4.122 0.994 4.122 0.072 -83.131
5416.042 0.071 -83.156 0.994 4.041 0.994 4.041 0.071 -83.156
5441 0.069 -83.18 0.994 3.961 0.994 3.961 0.069 -83.18
5465.958 0.068 -83.201 0.994 3.881 0.994 3.881 0.068 -83.201
5490.917 0.066 -83.219 0.994 3.801 0.994 3.801 0.066 -83.219
5515.875 0.065 -83.235 0.994 3.722 0.994 3.722 0.065 -83.235
5540.833 0.064 -83.248 0.995 3.643 0.995 3.643 0.064 -83.248
5565.792 0.062 -83.258 0.995 3.565 0.995 3.565 0.062 -83.258
5590.75 0.061 -83.265 0.995 3.487 0.995 3.487 0.061 -83.265
5615.708 0.06 -83.268 0.995 3.409 0.995 3.409 0.06 -83.268
5640.667 0.058 -83.269 0.995 3.332 0.995 3.332 0.058 -83.269
5665.625 0.057 -83.265 0.995 3.255 0.995 3.255 0.057 -83.265
5690.583 0.056 -83.258 0.995 3.179 0.995 3.179 0.056 -83.258
5715.542 0.054 -83.247 0.995 3.103 0.995 3.103 0.054 -83.247
5740.5 0.053 -83.231 0.995 3.027 0.995 3.027 0.053 -83.231
5765.458 0.052 -83.211 0.995 2.952 0.995 2.952 0.052 -83.211
5790.417 0.05 -83.186 0.995 2.877 0.995 2.877 0.05 -83.186
5815.375 0.049 -83.156 0.995 2.803 0.995 2.803 0.049 -83.156
5840.333 0.048 -83.121 0.995 2.728 0.995 2.728 0.048 -83.121
5865.292 0.046 -83.08 0.995 2.655 0.995 2.655 0.046 -83.08
5890.25 0.045 -83.032 0.996 2.581 0.996 2.581 0.045 -83.032
5915.208 0.044 -82.978 0.996 2.508 0.996 2.508 0.044 -82.978
5940.167 0.043 -82.916 0.996 2.435 0.996 2.435 0.043 -82.916
5965.125 0.041 -82.846 0.996 2.363 0.996 2.363 0.041 -82.846
5990.083 0.04 -82.768 0.996 2.291 0.996 2.291 0.04 -82.768
6015.042 0.039 -82.681 0.996 2.219 0.996 2.219 0.039 -82.681
6040 0.038 -82.584 0.996 2.148 0.996 2.148 0.038 -82.584
6064.958 0.036 -82.475 0.996 2.077 0.996 2.077 0.036 -82.475
6089.917 0.035 -82.355 0.996 2.006 0.996 2.006 0.035 -82.355
6114.875 0.034 -82.221 0.996 1.935 0.996 1.935 0.034 -82.221
6139.833 0.033 -82.073 0.996 1.865 0.996 1.865 0.033 -82.073
6164.792 0.032 -81.909 0.996 1.796 0.996 1.796 0.032 -81.909
6189.75 0.03 -81.727 0.996 1.726 0.996 1.726 0.03 -81.727
6214.708 0.029 -81.525 0.996 1.657 0.996 1.657 0.029 -81.525
6239.667 0.028 -81.301 0.996 1.588 0.996 1.588 0.028 -81.301
6264.625 0.027 -81.052 0.996 1.519 0.996 1.519 0.027 -81.052
6289.583 0.026 -80.774 0.996 1.451 0.996 1.451 0.026 -80.774
6314.542 0.024 -80.465 0.996 1.383 0.996 1.383 0.024 -80.465
6339.5 0.023 -80.119 0.996 1.315 0.996 1.315 0.023 -80.119
6364.458 0.022 -79.73 0.996 1.248 0.996 1.248 0.022 -79.73
6389.417 0.021 -79.293 0.996 1.181 0.996 1.181 0.021 -79.293
6414.375 0.02 -78.799 0.996 1.114 0.996 1.114 0.02 -78.799
6439.333 0.019 -78.238 0.996 1.047 0.996 1.047 0.019 -78.238
6464.292 0.017 -77.597 0.996 0.981 0.996 0.981 0.017 -77.597
6489.25 0.016 -76.862 0.996 0.915 0.996 0.915 0.016 -76.862
6514.208 0.015 -76.011 0.996 0.849 0.996 0.849 0.015 -76.011
6539.167 0.014 -75.019 0.996 0.783 0.996 0.783 0.014 -75.019
6564.125 0.013 -73.852 0.996 0.718 0.996 0.718 0.013 -73.852
6589.083 0.012 -72.463 0.996 0.653 0.996 0.653 0.012 -72.463
6614.042 0.011 -70.79 0.996 0.588 0.996 0.588 0.011 -70.79
6639 9.768e-3 -68.743 0.997 0.523 0.997 0.523 9.768e-3 -68.743
6663.958 8.728e-3 -66.199 0.997 0.459 0.997 0.459 8.728e-3 -66.199
6688.917 7.714e-3 -62.971 0.997 0.395 0.997 0.395 7.714e-3 -62.971
6713.875 6.737e-3 -58.785 0.997 0.331 0.997 0.331 6.737e-3 -58.785
6738.833 5.813e-3 -53.226 0.997 0.268 0.997 0.268 5.813e-3 -53.226
6763.792 4.968e-3 -45.683 0.997 0.204 0.997 0.204 4.968e-3 -45.683
6788.75 4.247e-3 -35.349 0.997 0.141 0.997 0.141 4.247e-3 -35.349
6813.708 3.719e-3 -21.513 0.997 0.078 0.997 0.078 3.719e-3 -21.513
6838.667 3.469e-3 -4.539 0.997 0.016 0.997 0.016 3.469e-3 -4.539
6863.625 3.553e-3 13.193 0.997 -0.047 0.997 -0.047 3.553e-3 13.193
6888.583 3.945e-3 28.661 0.997 -0.109 0.997 -0.109 3.945e-3 28.661
6913.542 4.565e-3 40.583 0.997 -0.171 0.997 -0.171 4.565e-3 40.583
6938.5 5.331e-3 49.327 0.997 -0.232 0.997 -0.232 5.331e-3 49.327
6963.458 6.188e-3 55.728 0.997 -0.294 0.997 -0.294 6.188e-3 55.728
6988.417 7.1e-3 60.497 0.997 -0.355 0.997 -0.355 7.1e-3 60.497
7013.375 8.048e-3 64.135 0.997 -0.416 0.997 -0.416 8.048e-3 64.135
7038.333 9.019e-3 66.976 0.997 -0.477 0.997 -0.477 9.019e-3 66.976
7063.292 0.01 69.241 0.996 -0.538 0.996 -0.538 0.01 69.241
7088.25 0.011 71.08 0.996 -0.598 0.996 -0.598 0.011 71.08
7113.208 0.012 72.598 0.996 -0.659 0.996 -0.659 0.012 72.598
7138.167 0.013 73.867 0.996 -0.719 0.996 -0.719 0.013 73.867
7163.125 0.014 74.942 0.996 -0.778 0.996 -0.778 0.014 74.942
7188.083 0.015 75.861 0.996 -0.838 0.996 -0.838 0.015 75.861
7213.042 0.016 76.654 0.996 -0.898 0.996 -0.898 0.016 76.654
7238 0.017 77.344 0.996 -0.957 0.996 -0.957 0.017 77.344
7262.958 0.018 77.948 0.996 -1.016 0.996 -1.016 0.018 77.948
7287.917 0.019 78.48 0.996 -1.075 0.996 -1.075 0.019 78.48
7312.875 0.02 78.951 0.996 -1.133 0.996 -1.133 0.02 78.951
7337.833 0.021 79.37 0.996 -1.192 0.996 -1.192 0.021 79.37
7362.792 0.022 79.745 0.996 -1.25 0.996 -1.25 0.022 79.745
7387.75 0.023 80.081 0.996 -1.308 0.996 -1.308 0.023 80.081
7412.708 0.024 80.383 0.996 -1.366 0.996 -1.366 0.024 80.383
7437.667 0.025 80.655 0.996 -1.424 0.996 -1.424 0.025 80.655
7462.625 0.026 80.902 0.996 -1.481 0.996 -1.481 0.026 80.902
7487.583 0.027 81.126 0.996 -1.539 0.996 -1.539 0.027 81.126
7512.542 0.028 81.329 0.996 -1.596 0.996 -1.596 0.028 81.329
7537.5 0.029 81.514 0.996 -1.653 0.996 -1.653 0.029 81.514
7562.458 0.03 81.682 0.996 -1.71 0.996 -1.71 0.03 81.682
7587.417 0.031 81.836 0.996 -1.767 0.996 -1.767 0.031 81.836
7612.375 0.032 81.976 0.996 -1.823 0.996 -1.823 0.032 81.976
7637.333 0.033 82.104 0.996 -1.879 0.996 -1.879 0.033 82.104
7662.292 0.034 82.222 0.996 -1.936 0.996 -1.936 0.034 82.222
7687.25 0.035 82.329 0.996 -1.992 0.996 -1.992 0.035 82.329
7712.208 0.036 82.427 0.996 -2.047 0.996 -2.047 0.036 82.427
7737.167 0.037 82.517 0.996 -2.103 0.996 -2.103 0.037 82.517
7762.125 0.038 82.599 0.996 -2.159 0.996 -2.159 0.038 82.599
7787.083 0.039 82.674 0.996 -2.214 0.996 -2.214 0.039 82.674
7812.042 0.04 82.743 0.996 -2.269 0.996 -2.269 0.04 82.743
7837 0.041 82.806 0.996 -2.324 0.996 -2.324 0.041 82.806
7861.958 0.042 82.863 0.996 -2.379 0.996 -2.379 0.042 82.863
7886.917 0.043 82.915 0.996 -2.434 0.996 -2.434 0.043 82.915
7911.875 0.044 82.962 0.996 -2.488 0.996 -2.488 0.044 82.962
7936.833 0.045 83.004 0.996 -2.543 0.996 -2.543 0.045 83.004
7961.792 0.045 83.043 0.996 -2.597 0.996 -2.597 0.045 83.043
7986.75 0.046 83.078 0.995 -2.651 0.995 -2.651 0.046 83.078
8011.708 0.047 83.109 0.995 -2.705 0.995 -2.705 0.047 83.109
8036.667 0.048 83.136 0.995 -2.759 0.995 -2.759 0.048 83.136
8061.625 0.049 83.161 0.995 -2.813 0.995 -2.813 0.049 83.161
8086.583 0.05 83.182 0.995 -2.866 0.995 -2.866 0.05 83.182
8111.542 0.051 83.201 0.995 -2.92 0.995 -2.92 0.051 83.201
8136.5 0.052 83.217 0.995 -2.973 0.995 -2.973 0.052 83.217
8161.458 0.053 83.231 0.995 -3.026 0.995 -3.026 0.053 83.231
8186.417 0.054 83.242 0.995 -3.079 0.995 -3.079 0.054 83.242
