# MHZ S MA R 50

50 1 -0.09 1.571e-3 89.906 1.571e-3 89.906 1 -0.09
74.958 1 -0.135 2.355e-3 89.86 2.355e-3 89.86 1 -0.135
99.917 1 -0.18 3.139e-3 89.813 3.139e-3 89.813 1 -0.18
124.875 1 -0.225 3.923e-3 89.766 3.923e-3 89.766 1 -0.225
149.833 1 -0.27 4.707e-3 89.719 4.707e-3 89.719 1 -0.27
174.792 1 -0.315 5.492e-3 89.673 5.492e-3 89.673 1 -0.315
199.75 1 -0.36 6.276e-3 89.626 6.276e-3 89.626 1 -0.36
224.708 1 -0.405 7.06e-3 89.579 7.06e-3 89.579 1 -0.405
249.667 1 -0.449 7.844e-3 89.533 7.844e-3 89.533 1 -0.449
274.625 1 -0.494 8.629e-3 89.486 8.629e-3 89.486 1 -0.494
299.583 1 -0.539 9.413e-3 89.439 9.413e-3 89.439 1 -0.539
324.542 1 -0.584 0.01 89.392 0.01 89.392 1 -0.584
349.5 1 -0.629 0.011 89.346 0.011 89.346 1 -0.629
374.458 1 -0.674 0.012 89.299 0.012 89.299 1 -0.674
399.417 1 -0.719 0.013 89.252 0.013 89.252 1 -0.719
424.375 1 -0.764 0.013 89.205 0.013 89.205 1 -0.764
449.333 1 -0.809 0.014 89.158 0.014 89.158 1 -0.809
474.292 1 -0.854 0.015 89.112 0.015 89.112 1 -0.854
499.25 1 -0.899 0.016 89.065 0.016 89.065 1 -0.899
524.208 1 -0.944 0.016 89.018 0.016 89.018 1 -0.944
549.167 1 -0.989 0.017 88.971 0.017 88.971 1 -0.989
574.125 1 -1.034 0.018 88.924 0.018 88.924 1 -1.034
599.083 1 -1.079 0.019 88.878 0.019 88.878 1 -1.079
624.042 1 -1.124 0.02 88.831 0.02 88.831 1 -1.124
649 1 -1.169 0.02 88.784 0.02 88.784 1 -1.169
673.958 1 -1.214 0.021 88.737 0.021 88.737 1 -1.214
698.917 1 -1.259 0.022 88.69 0.022 88.69 1 -1.259
723.875 1 -1.304 0.023 88.643 0.023 88.643 1 -1.304
748.833 1 -1.349 0.024 88.597 0.024 88.597 1 -1.349
773.792 1 -1.394 0.024 88.55 0.024 88.55 1 -1.394
798.75 1 -1.44 0.025 88.503 0.025 88.503 1 -1.44
823.708 1 -1.485 0.026 88.456 0.026 88.456 1 -1.485
848.667 1 -1.53 0.027 88.409 0.027 88.409 1 -1.53
873.625 1 -1.575 0.027 88.362 0.027 88.362 1 -1.575
898.583 1 -1.62 0.028 88.315 0.028 88.315 1 -1.62
923.542 1 -1.665 0.029 88.268 0.029 88.268 1 -1.665
948.5 1 -1.71 0.03 88.221 0.03 88.221 1 -1.71
973.458 0.999 -1.755 0.031 88.174 0.031 88.174 0.999 -1.755
998.417 0.999 -1.801 0.031 88.127 0.031 88.127 0.999 -1.801
1023.375 0.999 -1.846 0.032 88.08 0.032 88.08 0.999 -1.846
1048.333 0.999 -1.891 0.033 88.033 0.033 88.033 0.999 -1.891
1073.292 0.999 -1.936 0.034 87.986 0.034 87.986 0.999 -1.936
1098.25 0.999 -1.981 0.035 87.939 0.035 87.939 0.999 -1.981
1123.208 0.999 -2.027 0.035 87.892 0.035 87.892 0.999 -2.027
1148.167 0.999 -2.072 0.036 87.845 0.036 87.845 0.999 -2.072
1173.125 0.999 -2.117 0.037 87.798 0.037 87.798 0.999 -2.117
1198.083 0.999 -2.163 0.038 87.751 0.038 87.751 0.999 -2.163
1223.042 0.999 -2.208 0.039 87.704 0.039 87.704 0.999 -2.208
1248 0.999 -2.253 0.039 87.657 0.039 87.657 0.999 -2.253
1272.958 0.999 -2.298 0.04 87.609 0.04 87.609 0.999 -2.298
1297.917 0.999 -2.344 0.041 87.562 0.041 87.562 0.999 -2.344
1322.875 0.999 -2.389 0.042 87.515 0.042 87.515 0.999 -2.389
1347.833 0.999 -2.435 0.042 87.468 0.042 87.468 0.999 -2.435
1372.792 0.999 -2.48 0.043 87.421 0.043 87.421 0.999 -2.48
1397.75 0.999 -2.525 0.044 87.373 0.044 87.373 0.999 -2.525
1422.708 0.999 -2.571 0.045 87.326 0.045 87.326 0.999 -2.571
1447.667 0.999 -2.616 0.046 87.279 0.046 87.279 0.999 -2.616
1472.625 0.999 -2.662 0.046 87.232 0.046 87.232 0.999 -2.662
1497.583 0.999 -2.707 0.047 87.184 0.047 87.184 0.999 -2.707
1522.542 0.999 -2.753 0.048 87.137 0.048 87.137 0.999 -2.753
1547.5 0.999 -2.798 0.049 87.09 0.049 87.09 0.999 -2.798
1572.458 0.999 -2.844 0.05 87.042 0.05 87.042 0.999 -2.844
1597.417 0.999 -2.89 0.05 86.995 0.05 86.995 0.999 -2.89
1622.375 0.999 -2.935 0.051 86.947 0.051 86.947 0.999 -2.935
1647.333 0.999 -2.981 0.052 86.9 0.052 86.9 0.999 -2.981
1672.292 0.998 -3.026 0.053 86.852 0.053 86.852 0.998 -3.026
1697.25 0.998 -3.072 0.054 86.805 0.054 86.805 0.998 -3.072
1722.208 0.998 -3.118 0.054 86.757 0.054 86.757 0.998 -3.118
1747.167 0.998 -3.163 0.055 86.71 0.055 86.71 0.998 -3.163
1772.125 0.998 -3.209 0.056 86.662 0.056 86.662 0.998 -3.209
1797.083 0.998 -3.255 0.057 86.615 0.057 86.615 0.998 -3.255
1822.042 0.998 -3.301 0.058 86.567 0.058 86.567 0.998 -3.301
1847 0.998 -3.347 0.058 86.519 0.058 86.519 0.998 -3.347
1871.958 0.998 -3.392 0.059 86.472 0.059 86.472 0.998 -3.392
1896.917 0.998 -3.438 0.06 86.424 0.06 86.424 0.998 -3.438
1921.875 0.998 -3.484 0.061 86.376 0.061 86.376 0.998 -3.484
1946.833 0.998 -3.53 0.062 86.329 0.062 86.329 0.998 -3.53
1971.792 0.998 -3.576 0.062 86.281 0.062 86.281 0.998 -3.576
1996.75 0.998 -3.622 0.063 86.233 0.063 86.233 0.998 -3.622
2021.708 0.998 -3.668 0.064 86.185 0.064 86.185 0.998 -3.668
2046.667 0.998 -3.714 0.065 86.137 0.065 86.137 0.998 -3.714
2071.625 0.998 -3.76 0.066 86.089 0.066 86.089 0.998 -3.76
2096.583 0.998 -3.806 0.066 86.042 0.066 86.042 0.998 -3.806
2121.542 0.998 -3.852 0.067 85.994 0.067 85.994 0.998 -3.852
2146.5 0.998 -3.898 0.068 85.946 0.068 85.946 0.998 -3.898
2171.458 0.997 -3.944 0.069 85.898 0.069 85.898 0.997 -3.944
2196.417 0.997 -3.99 0.07 85.85 0.07 85.85 0.997 -3.99
2221.375 0.997 -4.037 0.07 85.801 0.07 85.801 0.997 -4.037
2246.333 0.997 -4.083 0.071 85.753 0.071 85.753 0.997 -4.083
2271.292 0.997 -4.129 0.072 85.705 0.072 85.705 0.997 -4.129
2296.25 0.997 -4.175 0.073 85.657 0.073 85.657 0.997 -4.175
2321.208 0.997 -4.222 0.074 85.609 0.074 85.609 0.997 -4.222
2346.167 0.997 -4.268 0.074 85.561 0.074 85.561 0.997 -4.268
2371.125 0.997 -4.315 0.075 85.512 0.075 85.512 0.997 -4.315
2396.083 0.997 -4.361 0.076 85.464 0.076 85.464 0.997 -4.361
2421.042 0.997 -4.407 0.077 85.416 0.077 85.416 0.997 -4.407
2446 0.997 -4.454 0.078 85.367 0.078 85.367 0.997 -4.454
2470.958 0.997 -4.5 0.078 85.319 0.078 85.319 0.997 -4.5
2495.917 0.997 -4.547 0.079 85.271 0.079 85.271 0.997 -4.547
2520.875 0.997 -4.594 0.08 85.222 0.08 85.222 0.997 -4.594
2545.833 0.996 -4.64 0.081 85.174 0.081 85.174 0.996 -4.64
2570.792 0.996 -4.687 0.082 85.125 0.082 85.125 0.996 -4.687
2595.75 0.996 -4.733 0.083 85.077 0.083 85.077 0.996 -4.733
2620.708 0.996 -4.78 0.083 85.028 0.083 85.028 0.996 -4.78
2645.667 0.996 -4.827 0.084 84.979 0.084 84.979 0.996 -4.827
2670.625 0.996 -4.874 0.085 84.931 0.085 84.931 0.996 -4.874
2695.583 0.996 -4.921 0.086 84.882 0.086 84.882 0.996 -4.921
2720.542 0.996 -4.967 0.087 84.833 0.087 84.833 0.996 -4.967
2745.5 0.996 -5.014 0.087 84.784 0.087 84.784 0.996 -5.014
2770.458 0.996 -5.061 0.088 84.736 0.088 84.736 0.996 -5.061
2795.417 0.996 -5.108 0.089 84.687 0.089 84.687 0.996 -5.108
2820.375 0.996 -5.155 0.09 84.638 0.09 84.638 0.996 -5.155
2845.333 0.996 -5.202 0.091 84.589 0.091 84.589 0.996 -5.202
2870.292 0.995 -5.249 0.091 84.54 0.091 84.54 0.995 -5.249
2895.25 0.995 -5.296 0.092 84.491 0.092 84.491 0.995 -5.296
2920.208 0.995 -5.344 0.093 84.442 0.093 84.442 0.995 -5.344
2945.167 0.995 -5.391 0.094 84.393 0.094 84.393 0.995 -5.391
2970.125 0.995 -5.438 0.095 84.344 0.095 84.344 0.995 -5.438
2995.083 0.995 -5.485 0.096 84.294 0.096 84.294 0.995 -5.485
3020.042 0.995 -5.533 0.096 84.245 0.096 84.245 0.995 -5.533
3045 0.995 -5.58 0.097 84.196 0.097 84.196 0.995 -5.58
3069.958 0.995 -5.627 0.098 84.147 0.098 84.147 0.995 -5.627
3094.917 0.995 -5.675 0.099 84.097 0.099 84.097 0.995 -5.675
3119.875 0.995 -5.722 0.1 84.048 0.1 84.048 0.995 -5.722
3144.833 0.995 -5.77 0.101 83.998 0.101 83.998 0.995 -5.77
3169.792 0.994 -5.818 0.101 83.949 0.101 83.949 0.994 -5.818
3194.75 0.994 -5.865 0.102 83.899 0.102 83.899 0.994 -5.865
3219.708 0.994 -5.913 0.103 83.85 0.103 83.85 0.994 -5.913
3244.667 0.994 -5.96 0.104 83.8 0.104 83.8 0.994 -5.96
3269.625 0.994 -6.008 0.105 83.75 0.105 83.75 0.994 -6.008
3294.583 0.994 -6.056 0.106 83.701 0.106 83.701 0.994 -6.056
3319.542 0.994 -6.104 0.106 83.651 0.106 83.651 0.994 -6.104
3344.5 0.994 -6.152 0.107 83.601 0.107 83.601 0.994 -6.152
3369.458 0.994 -6.2 0.108 83.551 0.108 83.551 0.994 -6.2
3394.417 0.994 -6.248 0.109 83.501 0.109 83.501 0.994 -6.248
3419.375 0.993 -6.296 0.11 83.451 0.11 83.451 0.993 -6.296
3444.333 0.993 -6.344 0.11 83.401 0.11 83.401 0.993 -6.344
3469.292 0.993 -6.392 0.111 83.351 0.111 83.351 0.993 -6.392
3494.25 0.993 -6.44 0.112 83.301 0.112 83.301 0.993 -6.44
3519.208 0.993 -6.488 0.113 83.251 0.113 83.251 0.993 -6.488
3544.167 0.993 -6.536 0.114 83.201 0.114 83.201 0.993 -6.536
3569.125 0.993 -6.585 0.115 83.15 0.115 83.15 0.993 -6.585
3594.083 0.993 -6.633 0.116 83.1 0.116 83.1 0.993 -6.633
3619.042 0.993 -6.682 0.116 83.05 0.116 83.05 0.993 -6.682
3644 0.993 -6.73 0.117 82.999 0.117 82.999 0.993 -6.73
3668.958 0.992 -6.779 0.118 82.949 0.118 82.949 0.992 -6.779
3693.917 0.992 -6.827 0.119 82.898 0.119 82.898 0.992 -6.827
3718.875 0.992 -6.876 0.12 82.848 0.12 82.848 0.992 -6.876
3743.833 0.992 -6.924 0.121 82.797 0.121 82.797 0.992 -6.924
3768.792 0.992 -6.973 0.121 82.746 0.121 82.746 0.992 -6.973
3793.75 0.992 -7.022 0.122 82.696 0.122 82.696 0.992 -7.022
3818.708 0.992 -7.071 0.123 82.645 0.123 82.645 0.992 -7.071
3843.667 0.992 -7.12 0.124 82.594 0.124 82.594 0.992 -7.12
3868.625 0.992 -7.168 0.125 82.543 0.125 82.543 0.992 -7.168
3893.583 0.991 -7.217 0.126 82.492 0.126 82.492 0.991 -7.217
3918.542 0.991 -7.266 0.126 82.441 0.126 82.441 0.991 -7.266
3943.5 0.991 -7.316 0.127 82.39 0.127 82.39 0.991 -7.316
3968.458 0.991 -7.365 0.128 82.339 0.128 82.339 0.991 -7.365
3993.417 0.991 -7.414 0.129 82.288 0.129 82.288 0.991 -7.414
4018.375 0.991 -7.463 0.13 82.236 0.13 82.236 0.991 -7.463
4043.333 0.991 -7.512 0.131 82.185 0.131 82.185 0.991 -7.512
4068.292 0.991 -7.562 0.132 82.134 0.132 82.134 0.991 -7.562
4093.25 0.99 -7.611 0.132 82.082 0.132 82.082 0.99 -7.611
4118.208 0.99 -7.661 0.133 82.031 0.133 82.031 0.99 -7.661
4143.167 0.99 -7.71 0.134 81.979 0.134 81.979 0.99 -7.71
4168.125 0.99 -7.76 0.135 81.927 0.135 81.927 0.99 -7.76
4193.083 0.99 -7.81 0.136 81.876 0.136 81.876 0.99 -7.81
4218.042 0.99 -7.859 0.137 81.824 0.137 81.824 0.99 -7.859
4243 0.99 -7.909 0.138 81.772 0.138 81.772 0.99 -7.909
4267.958 0.99 -7.959 0.138 81.72 0.138 81.72 0.99 -7.959
4292.917 0.989 -8.009 0.139 81.668 0.139 81.668 0.989 -8.009
4317.875 0.989 -8.059 0.14 81.616 0.14 81.616 0.989 -8.059
4342.833 0.989 -8.109 0.141 81.564 0.141 81.564 0.989 -8.109
4367.792 0.989 -8.159 0.142 81.512 0.142 81.512 0.989 -8.159
4392.75 0.989 -8.209 0.143 81.46 0.143 81.46 0.989 -8.209
4417.708 0.989 -8.259 0.144 81.408 0.144 81.408 0.989 -8.259
4442.667 0.989 -8.309 0.145 81.355 0.145 81.355 0.989 -8.309
4467.625 0.989 -8.36 0.145 81.303 0.145 81.303 0.989 -8.36
4492.583 0.988 -8.41 0.146 81.251 0.146 81.251 0.988 -8.41
4517.542 0.988 -8.461 0.147 81.198 0.147 81.198 0.988 -8.461
4542.5 0.988 -8.511 0.148 81.145 0.148 81.145 0.988 -8.511
4567.458 0.988 -8.562 0.149 81.093 0.149 81.093 0.988 -8.562
4592.417 0.988 -8.612 0.15 81.04 0.15 81.04 0.988 -8.612
4617.375 0.988 -8.663 0.151 80.987 0.151 80.987 0.988 -8.663
4642.333 0.988 -8.714 0.152 80.934 0.152 80.934 0.988 -8.714
4667.292 0.987 -8.765 0.152 80.881 0.152 80.881 0.987 -8.765
4692.25 0.987 -8.816 0.153 80.828 0.153 80.828 0.987 -8.816
4717.208 0.987 -8.867 0.154 80.775 0.154 80.775 0.987 -8.867
4742.167 0.987 -8.918 0.155 80.722 0.155 80.722 0.987 -8.918
4767.125 0.987 -8.969 0.156 80.669 0.156 80.669 0.987 -8.969
4792.083 0.987 -9.02 0.157 80.616 0.157 80.616 0.987 -9.02
4817.042 0.986 -9.071 0.158 80.562 0.158 80.562 0.986 -9.071
4842 0.986 -9.123 0.159 80.509 0.159 80.509 0.986 -9.123
4866.958 0.986 -9.174 0.159 80.455 0.159 80.455 0.986 -9.174
4891.917 0.986 -9.226 0.16 80.402 0.16 80.402 0.986 -9.226
4916.875 0.986 -9.277 0.161 80.348 0.161 80.348 0.986 -9.277
4941.833 0.986 -9.329 0.162 80.294 0.162 80.294 0.986 -9.329
4966.792 0.986 -9.38 0.163 80.24 0.163 80.24 0.986 -9.38
4991.75 0.985 -9.432 0.164 80.187 0.164 80.187 0.985 -9.432
5016.708 0.985 -9.484 0.165 80.133 0.165 80.133 0.985 -9.484
5041.667 0.985 -9.536 0.166 80.078 0.166 80.078 0.985 -9.536
5066.625 0.985 -9.588 0.167 80.024 0.167 80.024 0.985 -9.588
5091.583 0.985 -9.64 0.167 79.97 0.167 79.97 0.985 -9.64
5116.542 0.985 -9.692 0.168 79.916 0.168 79.916 0.985 -9.692
5141.5 0.984 -9.744 0.169 79.861 0.169 79.861 0.984 -9.744
5166.458 0.984 -9.797 0.17 79.807 0.17 79.807 0.984 -9.797
5191.417 0.984 -9.849 0.171 79.753 0.171 79.753 0.984 -9.849
5216.375 0.984 -9.901 0.172 79.698 0.172 79.698 0.984 -9.901
5241.333 0.984 -9.954 0.173 79.643 0.173 79.643 0.984 -9.954
5266.292 0.984 -10.007 0.174 79.588 0.174 79.588 0.984 -10.007
5291.25 0.983 -10.059 0.175 79.534 0.175 79.534 0.983 -10.059
5316.208 0.983 -10.112 0.176 79.479 0.176 79.479 0.983 -10.112
5341.167 0.983 -10.165 0.176 79.424 0.176 79.424 0.983 -10.165
5366.125 0.983 -10.218 0.177 79.369 0.177 79.369 0.983 -10.218
5391.083 0.983 -10.271 0.178 79.313 0.178 79.313 0.983 -10.271
5416.042 0.983 -10.324 0.179 79.258 0.179 79.258 0.983 -10.324
5441 0.982 -10.377 0.18 79.203 0.18 79.203 0.982 -10.377
5465.958 0.982 -10.43 0.181 79.147 0.181 79.147 0.982 -10.43
5490.917 0.982 -10.484 0.182 79.092 0.182 79.092 0.982 -10.484
5515.875 0.982 -10.537 0.183 79.036 0.183 79.036 0.982 -10.537
5540.833 0.982 -10.59 0.184 78.98 0.184 78.98 0.982 -10.59
5565.792 0.981 -10.644 0.185 78.925 0.185 78.925 0.981 -10.644
5590.75 0.981 -10.698 0.186 78.869 0.186 78.869 0.981 -10.698
5615.708 0.981 -10.751 0.187 78.813 0.187 78.813 0.981 -10.751
5640.667 0.981 -10.805 0.187 78.757 0.187 78.757 0.981 -10.805
5665.625 0.981 -10.859 0.188 78.701 0.188 78.701 0.981 -10.859
5690.583 0.98 -10.913 0.189 78.644 0.189 78.644 0.98 -10.913
5715.542 0.98 -10.967 0.19 78.588 0.19 78.588 0.98 -10.967
5740.5 0.98 -11.021 0.191 78.531 0.191 78.531 0.98 -11.021
5765.458 0.98 -11.076 0.192 78.475 0.192 78.475 0.98 -11.076
5790.417 0.98 -11.13 0.193 78.418 0.193 78.418 0.98 -11.13
5815.375 0.979 -11.184 0.194 78.362 0.194 78.362 0.979 -11.184
5840.333 0.979 -11.239 0.195 78.305 0.195 78.305 0.979 -11.239
5865.292 0.979 -11.294 0.196 78.248 0.196 78.248 0.979 -11.294
5890.25 0.979 -11.348 0.197 78.191 0.197 78.191 0.979 -11.348
5915.208 0.979 -11.403 0.198 78.134 0.198 78.134 0.979 -11.403
5940.167 0.978 -11.458 0.199 78.077 0.199 78.077 0.978 -11.458
5965.125 0.978 -11.513 0.2 78.019 0.2 78.019 0.978 -11.513
5990.083 0.978 -11.568 0.201 77.962 0.201 77.962 0.978 -11.568
6015.042 0.978 -11.623 0.201 77.905 0.201 77.905 0.978 -11.623
6040 0.978 -11.678 0.202 77.847 0.202 77.847 0.978 -11.678
6064.958 0.977 -11.734 0.203 77.789 0.203 77.789 0.977 -11.734
6089.917 0.977 -11.789 0.204 77.732 0.204 77.732 0.977 -11.789
6114.875 0.977 -11.845 0.205 77.674 0.205 77.674 0.977 -11.845
6139.833 0.977 -11.9 0.206 77.616 0.206 77.616 0.977 -11.9
6164.792 0.977 -11.956 0.207 77.558 0.207 77.558 0.977 -11.956
6189.75 0.976 -12.012 0.208 77.5 0.208 77.5 0.976 -12.012
6214.708 0.976 -12.068 0.209 77.441 0.209 77.441 0.976 -12.068
6239.667 0.976 -12.124 0.21 77.383 0.21 77.383 0.976 -12.124
6264.625 0.976 -12.18 0.211 77.324 0.211 77.324 0.976 -12.18
6289.583 0.975 -12.236 0.212 77.266 0.212 77.266 0.975 -12.236
6314.542 0.975 -12.292 0.213 77.207 0.213 77.207 0.975 -12.292
6339.5 0.975 -12.349 0.214 77.148 0.214 77.148 0.975 -12.349
6364.458 0.975 -12.405 0.215 77.089 0.215 77.089 0.975 -12.405
6389.417 0.975 -12.462 0.216 77.03 0.216 77.03 0.975 -12.462
6414.375 0.974 -12.519 0.217 76.971 0.217 76.971 0.974 -12.519
6439.333 0.974 -12.575 0.218 76.912 0.218 76.912 0.974 -12.575
6464.292 0.974 -12.632 0.219 76.853 0.219 76.853 0.974 -12.632
6489.25 0.974 -12.689 0.22 76.793 0.22 76.793 0.974 -12.689
6514.208 0.973 -12.747 0.221 76.734 0.221 76.734 0.973 -12.747
6539.167 0.973 -12.804 0.222 76.674 0.222 76.674 0.973 -12.804
6564.125 0.973 -12.861 0.223 76.614 0.223 76.614 0.973 -12.861
6589.083 0.973 -12.919 0.224 76.555 0.224 76.555 0.973 -12.919
6614.042 0.972 -12.976 0.225 76.495 0.225 76.495 0.972 -12.976
6639 0.972 -13.034 0.226 76.435 0.226 76.435 0.972 -13.034
6663.958 0.972 -13.091 0.227 76.374 0.227 76.374 0.972 -13.091
6688.917 0.972 -13.149 0.227 76.314 0.227 76.314 0.972 -13.149
6713.875 0.971 -13.207 0.228 76.254 0.228 76.254 0.971 -13.207
6738.833 0.971 -13.265 0.229 76.193 0.229 76.193 0.971 -13.265
6763.792 0.971 -13.324 0.23 76.132 0.23 76.132 0.971 -13.324
6788.75 0.971 -13.382 0.231 76.072 0.231 76.072 0.971 -13.382
6813.708 0.97 -13.44 0.232 76.011 0.232 76.011 0.97 -13.44
6838.667 0.97 -13.499 0.233 75.95 0.233 75.95 0.97 -13.499
6863.625 0.97 -13.557 0.234 75.889 0.234 75.889 0.97 -13.557
6888.583 0.97 -13.616 0.235 75.827 0.235 75.827 0.97 -13.616
6913.542 0.969 -13.675 0.236 75.766 0.236 75.766 0.969 -13.675
6938.5 0.969 -13.734 0.237 75.704 0.237 75.704 0.969 -13.734
6963.458 0.969 -13.793 0.238 75.643 0.238 75.643 0.969 -13.793
6988.417 0.969 -13.852 0.239 75.581 0.239 75.581 0.969 -13.852
7013.375 0.968 -13.912 0.24 75.519 0.24 75.519 0.968 -13.912
7038.333 0.968 -13.971 0.241 75.457 0.241 75.457 0.968 -13.971
7063.292 0.968 -14.031 0.242 75.395 0.242 75.395 0.968 -14.031
7088.25 0.967 -14.09 0.243 75.333 0.243 75.333 0.967 -14.09
7113.208 0.967 -14.15 0.244 75.271 0.244 75.271 0.967 -14.15
7138.167 0.967 -14.21 0.245 75.208 0.245 75.208 0.967 -14.21
7163.125 0.967 -14.27 0.247 75.146 0.247 75.146 0.967 -14.27
7188.083 0.966 -14.33 0.248 75.083 0.248 75.083 0.966 -14.33
7213.042 0.966 -14.39 0.249 75.02 0.249 75.02 0.966 -14.39
7238 0.966 -14.451 0.25 74.957 0.25 74.957 0.966 -14.451
7262.958 0.965 -14.511 0.251 74.894 0.251 74.894 0.965 -14.511
7287.917 0.965 -14.572 0.252 74.831 0.252 74.831 0.965 -14.572
7312.875 0.965 -14.632 0.253 74.767 0.253 74.767 0.965 -14.632
7337.833 0.965 -14.693 0.254 74.704 0.254 74.704 0.965 -14.693
7362.792 0.964 -14.754 0.255 74.64 0.255 74.64 0.964 -14.754
7387.75 0.964 -14.815 0.256 74.577 0.256 74.577 0.964 -14.815
7412.708 0.964 -14.877 0.257 74.513 0.257 74.513 0.964 -14.877
7437.667 0.963 -14.938 0.258 74.449 0.258 74.449 0.963 -14.938
7462.625 0.963 -15 0.259 74.384 0.259 74.384 0.963 -15
7487.583 0.963 -15.061 0.26 74.32 0.26 74.32 0.963 -15.061
7512.542 0.963 -15.123 0.261 74.256 0.261 74.256 0.963 -15.123
7537.5 0.962 -15.185 0.262 74.191 0.262 74.191 0.962 -15.185
7562.458 0.962 -15.247 0.263 74.127 0.263 74.127 0.962 -15.247
7587.417 0.962 -15.309 0.264 74.062 0.264 74.062 0.962 -15.309
7612.375 0.961 -15.371 0.265 73.997 0.265 73.997 0.961 -15.371
7637.333 0.961 -15.434 0.266 73.932 0.266 73.932 0.961 -15.434
7662.292 0.961 -15.496 0.267 73.866 0.267 73.866 0.961 -15.496
7687.25 0.96 -15.559 0.268 73.801 0.268 73.801 0.96 -15.559
7712.208 0.96 -15.621 0.269 73.736 0.269 73.736 0.96 -15.621
7737.167 0.96 -15.684 0.27 73.67 0.27 73.67 0.96 -15.684
7762.125 0.959 -15.747 0.271 73.604 0.271 73.604 0.959 -15.747
7787.083 0.959 -15.811 0.272 73.538 0.272 73.538 0.959 -15.811
7812.042 0.959 -15.874 0.274 73.472 0.274 73.472 0.959 -15.874
7837 0.958 -15.937 0.275 73.406 0.275 73.406 0.958 -15.937
7861.958 0.958 -16.001 0.276 73.339 0.276 73.339 0.958 -16.001
7886.917 0.958 -16.065 0.277 73.273 0.277 73.273 0.958 -16.065
7911.875 0.957 -16.129 0.278 73.206 0.278 73.206 0.957 -16.129
7936.833 0.957 -16.193 0.279 73.139 0.279 73.139 0.957 -16.193
7961.792 0.957 -16.257 0.28 73.072 0.28 73.072 0.957 -16.257
7986.75 0.956 -16.321 0.281 73.005 0.281 73.005 0.956 -16.321
8011.708 0.956 -16.386 0.282 72.938 0.282 72.938 0.956 -16.386
8036.667 0.956 -16.45 0.283 72.871 0.283 72.871 0.956 -16.45
8061.625 0.955 -16.515 0.284 72.803 0.284 72.803 0.955 -16.515
8086.583 0.955 -16.58 0.285 72.735 0.285 72.735 0.955 -16.58
8111.542 0.955 -16.645 0.286 72.668 0.286 72.668 0.955 -16.645
8136.5 0.954 -16.71 0.288 72.6 0.288 72.6 0.954 -16.71
8161.458 0.954 -16.775 0.289 72.531 0.289 72.531 0.954 -16.775
8186.417 0.954 -16.841 0.29 72.463 0.29 72.463 0.954 -16.841
8211.375 0.953 -16.906 0.291 72.395 0.291 72.395 0.953 -16.906
8236.333 0.953 -16.972 0.292 72.326 0.292 72.326 0.953 -16.972
8261.292 0.953 -17.038 0.293 72.257 0.293 72.257 0.953 -17.038
8286.25 0.952 -17.104 0.294 72.188 0.294 72.188 0.952 -17.104
8311.208 0.952 -17.17 0.295 72.119 0.295 72.119 0.952 -17.17
8336.167 0.951 -17.236 0.296 72.05 0.296 72.05 0.951 -17.236
8361.125 0.951 -17.303 0.297 71.98 0.297 71.98 0.951 -17.303
