# MHZ S MA R 50

50 0.998 -3.954 0.069 86.035 0.069 86.035 0.998 -3.954
74.958 0.995 -5.916 0.103 84.066 0.103 84.066 0.995 -5.916
99.917 0.991 -7.866 0.137 82.112 0.137 82.112 0.991 -7.866
124.875 0.985 -9.797 0.17 80.174 0.17 80.174 0.985 -9.797
149.833 0.979 -11.708 0.203 78.258 0.203 78.258 0.979 -11.708
174.792 0.972 -13.593 0.235 76.367 0.235 76.367 0.972 -13.593
199.75 0.964 -15.45 0.266 74.504 0.266 74.504 0.964 -15.45
224.708 0.955 -17.276 0.297 72.673 0.297 72.673 0.955 -17.276
249.667 0.945 -19.068 0.327 70.875 0.327 70.875 0.945 -19.068
274.625 0.934 -20.823 0.355 69.114 0.355 69.114 0.934 -20.823
299.583 0.923 -22.54 0.383 67.391 0.383 67.391 0.923 -22.54
324.542 0.911 -24.218 0.41 65.708 0.41 65.708 0.911 -24.218
349.5 0.899 -25.854 0.436 64.066 0.436 64.066 0.899 -25.854
374.458 0.887 -27.448 0.461 62.466 0.461 62.466 0.887 -27.448
399.417 0.874 -29 0.485 60.909 0.485 60.909 0.874 -29
424.375 0.861 -30.508 0.508 59.395 0.508 59.395 0.861 -30.508
449.333 0.847 -31.974 0.53 57.923 0.53 57.923 0.847 -31.974
474.292 0.834 -33.396 0.55 56.495 0.55 56.495 0.834 -33.396
499.25 0.82 -34.776 0.57 55.11 0.57 55.11 0.82 -34.776
524.208 0.807 -36.114 0.589 53.766 0.589 53.766 0.807 -36.114
549.167 0.793 -37.409 0.608 52.464 0.608 52.464 0.793 -37.409
574.125 0.779 -38.665 0.625 51.204 0.625 51.204 0.779 -38.665
599.083 0.766 -39.88 0.641 49.983 0.641 49.983 0.766 -39.88
624.042 0.752 -41.056 0.657 48.801 0.657 48.801 0.752 -41.056
649 0.739 -42.194 0.672 47.657 0.672 47.657 0.739 -42.194
673.958 0.726 -43.295 0.686 46.55 0.686 46.55 0.726 -43.295
698.917 0.713 -44.36 0.699 45.478 0.699 45.478 0.713 -44.36
723.875 0.7 -45.391 0.712 44.442 0.712 44.442 0.7 -45.391
748.833 0.688 -46.388 0.724 43.439 0.724 43.439 0.688 -46.388
773.792 0.675 -47.352 0.736 42.469 0.736 42.469 0.675 -47.352
798.75 0.663 -48.285 0.746 41.53 0.746 41.53 0.663 -48.285
823.708 0.651 -49.188 0.757 40.621 0.757 40.621 0.651 -49.188
848.667 0.639 -50.061 0.767 39.742 0.767 39.742 0.639 -50.061
873.625 0.628 -50.906 0.776 38.89 0.776 38.89 0.628 -50.906
898.583 0.617 -51.725 0.785 38.066 0.785 38.066 0.617 -51.725
923.542 0.606 -52.517 0.794 37.267 0.794 37.267 0.606 -52.517
948.5 0.595 -53.284 0.802 36.494 0.802 36.494 0.595 -53.284
973.458 0.584 -54.027 0.809 35.745 0.809 35.745 0.584 -54.027
998.417 0.574 -54.748 0.817 35.018 0.817 35.018 0.574 -54.748
1023.375 0.564 -55.445 0.824 34.314 0.824 34.314 0.564 -55.445
1048.333 0.554 -56.122 0.83 33.632 0.83 33.632 0.554 -56.122
1073.292 0.544 -56.778 0.837 32.969 0.837 32.969 0.544 -56.778
1098.25 0.535 -57.414 0.843 32.327 0.843 32.327 0.535 -57.414
1123.208 0.526 -58.031 0.848 31.703 0.848 31.703 0.526 -58.031
1148.167 0.517 -58.63 0.854 31.098 0.854 31.098 0.517 -58.63
1173.125 0.508 -59.212 0.859 30.51 0.859 30.51 0.508 -59.212
1198.083 0.499 -59.777 0.864 29.938 0.864 29.938 0.499 -59.777
1223.042 0.491 -60.326 0.869 29.383 0.869 29.383 0.491 -60.326
1248 0.482 -60.859 0.873 28.843 0.873 28.843 0.482 -60.859
1272.958 0.474 -61.377 0.878 28.319 0.878 28.319 0.474 -61.377
1297.917 0.467 -61.881 0.882 27.808 0.882 27.808 0.467 -61.881
1322.875 0.459 -62.371 0.886 27.311 0.886 27.311 0.459 -62.371
1347.833 0.451 -62.848 0.89 26.828 0.89 26.828 0.451 -62.848
1372.792 0.444 -63.312 0.893 26.357 0.893 26.357 0.444 -63.312
1397.75 0.437 -63.764 0.897 25.899 0.897 25.899 0.437 -63.764
1422.708 0.43 -64.204 0.9 25.452 0.9 25.452 0.43 -64.204
1447.667 0.423 -64.632 0.904 25.016 0.904 25.016 0.423 -64.632
1472.625 0.416 -65.05 0.907 24.592 0.907 24.592 0.416 -65.05
1497.583 0.41 -65.457 0.91 24.178 0.91 24.178 0.41 -65.457
1522.542 0.403 -65.853 0.913 23.774 0.913 23.774 0.403 -65.853
1547.5 0.397 -66.24 0.915 23.38 0.915 23.38 0.397 -66.24
1572.458 0.391 -66.618 0.918 22.996 0.918 22.996 0.391 -66.618
1597.417 0.385 -66.986 0.92 22.62 0.92 22.62 0.385 -66.986
1622.375 0.379 -67.346 0.923 22.253 0.923 22.253 0.379 -67.346
1647.333 0.373 -67.697 0.925 21.895 0.925 21.895 0.373 -67.697
1672.292 0.367 -68.04 0.927 21.545 0.927 21.545 0.367 -68.04
1697.25 0.362 -68.375 0.93 21.203 0.93 21.203 0.362 -68.375
1722.208 0.356 -68.702 0.932 20.868 0.932 20.868 0.356 -68.702
1747.167 0.351 -69.022 0.934 20.541 0.934 20.541 0.351 -69.022
1772.125 0.346 -69.334 0.936 20.22 0.936 20.22 0.346 -69.334
1797.083 0.341 -69.64 0.938 19.907 0.938 19.907 0.341 -69.64
1822.042 0.335 -69.939 0.939 19.6 0.939 19.6 0.335 -69.939
1847 0.331 -70.232 0.941 19.3 0.941 19.3 0.331 -70.232
1871.958 0.326 -70.518 0.943 19.006 0.943 19.006 0.326 -70.518
1896.917 0.321 -70.798 0.944 18.718 0.944 18.718 0.321 -70.798
1921.875 0.316 -71.073 0.946 18.436 0.946 18.436 0.316 -71.073
1946.833 0.312 -71.341 0.947 18.159 0.947 18.159 0.312 -71.341
1971.792 0.307 -71.604 0.949 17.888 0.949 17.888 0.307 -71.604
1996.75 0.303 -71.862 0.95 17.622 0.95 17.622 0.303 -71.862
2021.708 0.298 -72.115 0.952 17.361 0.952 17.361 0.298 -72.115
2046.667 0.294 -72.362 0.953 17.105 0.953 17.105 0.294 -72.362
2071.625 0.29 -72.605 0.954 16.854 0.954 16.854 0.29 -72.605
2096.583 0.286 -72.843 0.956 16.607 0.956 16.607 0.286 -72.843
2121.542 0.282 -73.076 0.957 16.365 0.957 16.365 0.282 -73.076
2146.5 0.278 -73.305 0.958 16.128 0.958 16.128 0.278 -73.305
2171.458 0.274 -73.53 0.959 15.894 0.959 15.894 0.274 -73.53
2196.417 0.27 -73.75 0.96 15.665 0.96 15.665 0.27 -73.75
2221.375 0.266 -73.966 0.961 15.44 0.961 15.44 0.266 -73.966
2246.333 0.263 -74.179 0.962 15.218 0.962 15.218 0.263 -74.179
2271.292 0.259 -74.387 0.963 15.001 0.963 15.001 0.259 -74.387
2296.25 0.255 -74.592 0.964 14.787 0.964 14.787 0.255 -74.592
2321.208 0.252 -74.793 0.965 14.577 0.965 14.577 0.252 -74.793
2346.167 0.248 -74.99 0.966 14.37 0.966 14.37 0.248 -74.99
2371.125 0.245 -75.184 0.967 14.166 0.967 14.166 0.245 -75.184
2396.083 0.241 -75.375 0.968 13.966 0.968 13.966 0.241 -75.375
2421.042 0.238 -75.562 0.968 13.769 0.968 13.769 0.238 -75.562
2446 0.235 -75.746 0.969 13.575 0.969 13.575 0.235 -75.746
2470.958 0.231 -75.927 0.97 13.384 0.97 13.384 0.231 -75.927
2495.917 0.228 -76.105 0.971 13.196 0.971 13.196 0.228 -76.105
2520.875 0.225 -76.279 0.972 13.011 0.972 13.011 0.225 -76.279
2545.833 0.222 -76.451 0.972 12.828 0.972 12.828 0.222 -76.451
2570.792 0.219 -76.621 0.973 12.649 0.973 12.649 0.219 -76.621
2595.75 0.216 -76.787 0.974 12.472 0.974 12.472 0.216 -76.787
2620.708 0.213 -76.95 0.974 12.297 0.974 12.297 0.213 -76.95
2645.667 0.21 -77.111 0.975 12.125 0.975 12.125 0.21 -77.111
2670.625 0.207 -77.27 0.976 11.956 0.976 11.956 0.207 -77.27
2695.583 0.204 -77.426 0.976 11.789 0.976 11.789 0.204 -77.426
2720.542 0.202 -77.579 0.977 11.624 0.977 11.624 0.202 -77.579
2745.5 0.199 -77.73 0.977 11.461 0.977 11.461 0.199 -77.73
2770.458 0.196 -77.879 0.978 11.301 0.978 11.301 0.196 -77.879
2795.417 0.193 -78.025 0.978 11.143 0.978 11.143 0.193 -78.025
2820.375 0.191 -78.169 0.979 10.986 0.979 10.986 0.191 -78.169
2845.333 0.188 -78.311 0.979 10.832 0.979 10.832 0.188 -78.311
2870.292 0.185 -78.45 0.98 10.68 0.98 10.68 0.185 -78.45
2895.25 0.183 -78.588 0.98 10.53 0.98 10.53 0.183 -78.588
2920.208 0.18 -78.723 0.981 10.382 0.981 10.382 0.18 -78.723
2945.167 0.178 -78.856 0.981 10.236 0.981 10.236 0.178 -78.856
2970.125 0.175 -78.987 0.982 10.091 0.982 10.091 0.175 -78.987
2995.083 0.173 -79.117 0.982 9.948 0.982 9.948 0.173 -79.117
3020.042 0.17 -79.244 0.983 9.807 0.983 9.807 0.17 -79.244
3045 0.168 -79.369 0.983 9.668 0.983 9.668 0.168 -79.369
3069.958 0.166 -79.493 0.983 9.53 0.983 9.53 0.166 -79.493
3094.917 0.163 -79.615 0.984 9.394 0.984 9.394 0.163 -79.615
3119.875 0.161 -79.734 0.984 9.26 0.984 9.26 0.161 -79.734
3144.833 0.159 -79.852 0.985 9.127 0.985 9.127 0.159 -79.852
3169.792 0.156 -79.969 0.985 8.996 0.985 8.996 0.156 -79.969
3194.75 0.154 -80.083 0.985 8.866 0.985 8.866 0.154 -80.083
3219.708 0.152 -80.196 0.986 8.737 0.986 8.737 0.152 -80.196
3244.667 0.15 -80.307 0.986 8.61 0.986 8.61 0.15 -80.307
3269.625 0.148 -80.416 0.986 8.485 0.986 8.485 0.148 -80.416
3294.583 0.145 -80.524 0.987 8.36 0.987 8.36 0.145 -80.524
3319.542 0.143 -80.63 0.987 8.237 0.987 8.237 0.143 -80.63
3344.5 0.141 -80.735 0.987 8.116 0.987 8.116 0.141 -80.735
3369.458 0.139 -80.837 0.987 7.995 0.987 7.995 0.139 -80.837
3394.417 0.137 -80.939 0.988 7.876 0.988 7.876 0.137 -80.939
3419.375 0.135 -81.038 0.988 7.758 0.988 7.758 0.135 -81.038
3444.333 0.133 -81.136 0.988 7.642 0.988 7.642 0.133 -81.136
3469.292 0.131 -81.233 0.989 7.526 0.989 7.526 0.131 -81.233
3494.25 0.129 -81.328 0.989 7.412 0.989 7.412 0.129 -81.328
3519.208 0.127 -81.421 0.989 7.298 0.989 7.298 0.127 -81.421
3544.167 0.125 -81.513 0.989 7.186 0.989 7.186 0.125 -81.513
3569.125 0.123 -81.604 0.99 7.075 0.99 7.075 0.123 -81.604
3594.083 0.121 -81.693 0.99 6.965 0.99 6.965 0.121 -81.693
3619.042 0.119 -81.78 0.99 6.856 0.99 6.856 0.119 -81.78
3644 0.118 -81.866 0.99 6.748 0.99 6.748 0.118 -81.866
3668.958 0.116 -81.951 0.99 6.641 0.99 6.641 0.116 -81.951
3693.917 0.114 -82.033 0.991 6.535 0.991 6.535 0.114 -82.033
3718.875 0.112 -82.115 0.991 6.43 0.991 6.43 0.112 -82.115
3743.833 0.11 -82.195 0.991 6.326 0.991 6.326 0.11 -82.195
3768.792 0.108 -82.273 0.991 6.223 0.991 6.223 0.108 -82.273
3793.75 0.107 -82.35 0.991 6.121 0.991 6.121 0.107 -82.35
3818.708 0.105 -82.426 0.992 6.02 0.992 6.02 0.105 -82.426
3843.667 0.103 -82.499 0.992 5.919 0.992 5.919 0.103 -82.499
3868.625 0.101 -82.572 0.992 5.82 0.992 5.82 0.101 -82.572
3893.583 0.1 -82.643 0.992 5.721 0.992 5.721 0.1 -82.643
3918.542 0.098 -82.712 0.992 5.623 0.992 5.623 0.098 -82.712
3943.5 0.096 -82.779 0.993 5.526 0.993 5.526 0.096 -82.779
3968.458 0.095 -82.846 0.993 5.43 0.993 5.43 0.095 -82.846
3993.417 0.093 -82.91 0.993 5.334 0.993 5.334 0.093 -82.91
4018.375 0.091 -82.973 0.993 5.24 0.993 5.24 0.091 -82.973
4043.333 0.09 -83.034 0.993 5.146 0.993 5.146 0.09 -83.034
4068.292 0.088 -83.093 0.993 5.052 0.993 5.052 0.088 -83.093
4093.25 0.087 -83.151 0.993 4.96 0.993 4.96 0.087 -83.151
4118.208 0.085 -83.207 0.994 4.868 0.994 4.868 0.085 -83.207
4143.167 0.083 -83.261 0.994 4.777 0.994 4.777 0.083 -83.261
4168.125 0.082 -83.314 0.994 4.687 0.994 4.687 0.082 -83.314
4193.083 0.08 -83.364 0.994 4.597 0.994 4.597 0.08 -83.364
4218.042 0.079 -83.413 0.994 4.508 0.994 4.508 0.079 -83.413
4243 0.077 -83.46 0.994 4.42 0.994 4.42 0.077 -83.46
4267.958 0.076 -83.504 0.994 4.332 0.994 4.332 0.076 -83.504
4292.917 0.074 -83.547 0.994 4.245 0.994 4.245 0.074 -83.547
4317.875 0.073 -83.587 0.995 4.159 0.995 4.159 0.073 -83.587
4342.833 0.071 -83.625 0.995 4.073 0.995 4.073 0.071 -83.625
4367.792 0.07 -83.661 0.995 3.988 0.995 3.988 0.07 -83.661
4392.75 0.068 -83.695 0.995 3.903 0.995 3.903 0.068 -83.695
4417.708 0.067 -83.726 0.995 3.819 0.995 3.819 0.067 -83.726
4442.667 0.065 -83.754 0.995 3.735 0.995 3.735 0.065 -83.754
4467.625 0.064 -83.78 0.995 3.653 0.995 3.653 0.064 -83.78
4492.583 0.062 -83.803 0.995 3.57 0.995 3.57 0.062 -83.803
4517.542 0.061 -83.824 0.995 3.488 0.995 3.488 0.061 -83.824
4542.5 0.06 -83.841 0.995 3.407 0.995 3.407 0.06 -83.841
4567.458 0.058 -83.854 0.995 3.327 0.995 3.327 0.058 -83.854
4592.417 0.057 -83.865 0.996 3.246 0.996 3.246 0.057 -83.865
4617.375 0.055 -83.872 0.996 3.167 0.996 3.167 0.055 -83.872
4642.333 0.054 -83.875 0.996 3.088 0.996 3.088 0.054 -83.875
4667.292 0.053 -83.874 0.996 3.009 0.996 3.009 0.053 -83.874
4692.25 0.051 -83.87 0.996 2.931 0.996 2.931 0.051 -83.87
4717.208 0.05 -83.86 0.996 2.853 0.996 2.853 0.05 -83.86
4742.167 0.049 -83.846 0.996 2.776 0.996 2.776 0.049 -83.846
4767.125 0.047 -83.827 0.996 2.699 0.996 2.699 0.047 -83.827
4792.083 0.046 -83.802 0.996 2.623 0.996 2.623 0.046 -83.802
4817.042 0.045 -83.772 0.996 2.547 0.996 2.547 0.045 -83.772
4842 0.043 -83.735 0.996 2.472 0.996 2.472 0.043 -83.735
4866.958 0.042 -83.692 0.996 2.397 0.996 2.397 0.042 -83.692
4891.917 0.041 -83.641 0.996 2.323 0.996 2.323 0.041 -83.641
4916.875 0.039 -83.583 0.996 2.249 0.996 2.249 0.039 -83.583
4941.833 0.038 -83.515 0.996 2.175 0.996 2.175 0.038 -83.515
4966.792 0.037 -83.439 0.996 2.102 0.996 2.102 0.037 -83.439
4991.75 0.036 -83.352 0.997 2.029 0.997 2.029 0.036 -83.352
5016.708 0.034 -83.255 0.997 1.957 0.997 1.957 0.034 -83.255
5041.667 0.033 -83.145 0.997 1.885 0.997 1.885 0.033 -83.145
5066.625 0.032 -83.021 0.997 1.813 0.997 1.813 0.032 -83.021
5091.583 0.031 -82.882 0.997 1.742 0.997 1.742 0.031 -82.882
5116.542 0.029 -82.726 0.997 1.671 0.997 1.671 0.029 -82.726
5141.5 0.028 -82.552 0.997 1.601 0.997 1.601 0.028 -82.552
5166.458 0.027 -82.356 0.997 1.531 0.997 1.531 0.027 -82.356
5191.417 0.026 -82.137 0.997 1.461 0.997 1.461 0.026 -82.137
5216.375 0.024 -81.89 0.997 1.392 0.997 1.392 0.024 -81.89
5241.333 0.023 -81.612 0.997 1.323 0.997 1.323 0.023 -81.612
5266.292 0.022 -81.299 0.997 1.254 0.997 1.254 0.022 -81.299
5291.25 0.021 -80.943 0.997 1.186 0.997 1.186 0.021 -80.943
5316.208 0.02 -80.54 0.997 1.118 0.997 1.118 0.02 -80.54
5341.167 0.019 -80.079 0.997 1.051 0.997 1.051 0.019 -80.079
5366.125 0.017 -79.551 0.997 0.983 0.997 0.983 0.017 -79.551
5391.083 0.016 -78.94 0.997 0.917 0.997 0.917 0.016 -78.94
5416.042 0.015 -78.231 0.997 0.85 0.997 0.85 0.015 -78.231
5441 0.014 -77.399 0.997 0.784 0.997 0.784 0.014 -77.399
5465.958 0.013 -76.414 0.997 0.718 0.997 0.718 0.013 -76.414
5490.917 0.012 -75.235 0.997 0.652 0.997 0.652 0.012 -75.235
5515.875 0.011 -73.803 0.997 0.587 0.997 0.587 0.011 -73.803
5540.833 9.548e-3 -72.036 0.997 0.522 0.997 0.522 9.548e-3 -72.036
5565.792 8.477e-3 -69.812 0.997 0.457 0.997 0.457 8.477e-3 -69.812
5590.75 7.429e-3 -66.949 0.997 0.393 0.997 0.393 7.429e-3 -66.949
5615.708 6.411e-3 -63.158 0.997 0.329 0.997 0.329 6.411e-3 -63.158
5640.667 5.437e-3 -57.976 0.997 0.265 0.997 0.265 5.437e-3 -57.976
5665.625 4.532e-3 -50.641 0.997 0.201 0.997 0.201 4.532e-3 -50.641
5690.583 3.742e-3 -39.97 0.997 0.138 0.997 0.138 3.742e-3 -39.97
5715.542 3.148e-3 -24.549 0.997 0.075 0.997 0.075 3.148e-3 -24.549
5740.5 2.87e-3 -4.336 0.997 0.012 0.997 0.012 2.87e-3 -4.336
5765.458 2.992e-3 16.89 0.997 -0.05 0.997 -0.05 2.992e-3 16.89
5790.417 3.467e-3 34.244 0.997 -0.112 0.997 -0.112 3.467e-3 34.244
5815.375 4.173e-3 46.52 0.997 -0.174 0.997 -0.174 4.173e-3 46.52
5840.333 5.01e-3 54.926 0.997 -0.236 0.997 -0.236 5.01e-3 54.926
5865.292 5.921e-3 60.796 0.997 -0.297 0.997 -0.297 5.921e-3 60.796
5890.25 6.874e-3 65.036 0.997 -0.358 0.997 -0.358 6.874e-3 65.036
5915.208 7.852e-3 68.204 0.997 -0.419 0.997 -0.419 7.852e-3 68.204
5940.167 8.845e-3 70.642 0.997 -0.48 0.997 -0.48 8.845e-3 70.642
5965.125 9.848e-3 72.565 0.997 -0.54 0.997 -0.54 9.848e-3 72.565
5990.083 0.011 74.114 0.997 -0.6 0.997 -0.6 0.011 74.114
6015.042 0.012 75.385 0.997 -0.66 0.997 -0.66 0.012 75.385
6040 0.013 76.442 0.997 -0.719 0.997 -0.719 0.013 76.442
6064.958 0.014 77.333 0.997 -0.779 0.997 -0.779 0.014 77.333
6089.917 0.015 78.092 0.997 -0.838 0.997 -0.838 0.015 78.092
6114.875 0.016 78.744 0.997 -0.897 0.997 -0.897 0.016 78.744
6139.833 0.017 79.309 0.997 -0.956 0.997 -0.956 0.017 79.309
6164.792 0.018 79.802 0.997 -1.014 0.997 -1.014 0.018 79.802
6189.75 0.019 80.235 0.997 -1.072 0.997 -1.072 0.019 80.235
6214.708 0.02 80.617 0.997 -1.13 0.997 -1.13 0.02 80.617
6239.667 0.021 80.956 0.997 -1.188 0.997 -1.188 0.021 80.956
6264.625 0.022 81.257 0.997 -1.246 0.997 -1.246 0.022 81.257
6289.583 0.023 81.527 0.997 -1.303 0.997 -1.303 0.023 81.527
6314.542 0.024 81.768 0.997 -1.361 0.997 -1.361 0.024 81.768
6339.5 0.025 81.985 0.997 -1.418 0.997 -1.418 0.025 81.985
6364.458 0.026 82.18 0.997 -1.474 0.997 -1.474 0.026 82.18
6389.417 0.027 82.357 0.997 -1.531 0.997 -1.531 0.027 82.357
6414.375 0.028 82.516 0.997 -1.587 0.997 -1.587 0.028 82.516
6439.333 0.029 82.66 0.997 -1.643 0.997 -1.643 0.029 82.66
6464.292 0.03 82.791 0.997 -1.699 0.997 -1.699 0.03 82.791
6489.25 0.031 82.909 0.997 -1.755 0.997 -1.755 0.031 82.909
6514.208 0.032 83.016 0.997 -1.811 0.997 -1.811 0.032 83.016
6539.167 0.033 83.114 0.997 -1.866 0.997 -1.866 0.033 83.114
6564.125 0.034 83.202 0.997 -1.921 0.997 -1.921 0.034 83.202
6589.083 0.035 83.283 0.997 -1.976 0.997 -1.976 0.035 83.283
6614.042 0.036 83.355 0.997 -2.031 0.997 -2.031 0.036 83.355
6639 0.037 83.421 0.996 -2.086 0.996 -2.086 0.037 83.421
6663.958 0.037 83.481 0.996 -2.14 0.996 -2.14 0.037 83.481
6688.917 0.038 83.534 0.996 -2.195 0.996 -2.195 0.038 83.534
6713.875 0.039 83.583 0.996 -2.249 0.996 -2.249 0.039 83.583
6738.833 0.04 83.626 0.996 -2.303 0.996 -2.303 0.04 83.626
6763.792 0.041 83.665 0.996 -2.357 0.996 -2.357 0.041 83.665
6788.75 0.042 83.7 0.996 -2.41 0.996 -2.41 0.042 83.7
6813.708 0.043 83.731 0.996 -2.464 0.996 -2.464 0.043 83.731
6838.667 0.044 83.758 0.996 -2.517 0.996 -2.517 0.044 83.758
6863.625 0.045 83.782 0.996 -2.57 0.996 -2.57 0.045 83.782
6888.583 0.046 83.802 0.996 -2.623 0.996 -2.623 0.046 83.802
6913.542 0.047 83.82 0.996 -2.676 0.996 -2.676 0.047 83.82
6938.5 0.048 83.835 0.996 -2.729 0.996 -2.729 0.048 83.835
6963.458 0.049 83.847 0.996 -2.781 0.996 -2.781 0.049 83.847
6988.417 0.05 83.857 0.996 -2.833 0.996 -2.833 0.05 83.857
7013.375 0.05 83.865 0.996 -2.886 0.996 -2.886 0.05 83.865
7038.333 0.051 83.87 0.996 -2.938 0.996 -2.938 0.051 83.87
7063.292 0.052 83.874 0.996 -2.989 0.996 -2.989 0.052 83.874
7088.25 0.053 83.875 0.996 -3.041 0.996 -3.041 0.053 83.875
7113.208 0.054 83.875 0.996 -3.093 0.996 -3.093 0.054 83.875
7138.167 0.055 83.873 0.996 -3.144 0.996 -3.144 0.055 83.873
7163.125 0.056 83.87 0.996 -3.195 0.996 -3.195 0.056 83.87
7188.083 0.057 83.865 0.996 -3.246 0.996 -3.246 0.057 83.865
7213.042 0.058 83.859 0.995 -3.297 0.995 -3.297 0.058 83.859
7238 0.058 83.851 0.995 -3.348 0.995 -3.348 0.058 83.851
7262.958 0.059 83.842 0.995 -3.399 0.995 -3.399 0.059 83.842
7287.917 0.06 83.832 0.995 -3.45 0.995 -3.45 0.06 83.832
7312.875 0.061 83.821 0.995 -3.5 0.995 -3.5 0.061 83.821
7337.833 0.062 83.809 0.995 -3.55 0.995 -3.55 0.062 83.809
7362.792 0.063 83.795 0.995 -3.6 0.995 -3.6 0.063 83.795
7387.75 0.064 83.781 0.995 -3.65 0.995 -3.65 0.064 83.781
7412.708 0.065 83.766 0.995 -3.7 0.995 -3.7 0.065 83.766
7437.667 0.065 83.75 0.995 -3.75 0.995 -3.75 0.065 83.75
7462.625 0.066 83.733 0.995 -3.8 0.995 -3.8 0.066 83.733
7487.583 0.067 83.715 0.995 -3.849 0.995 -3.849 0.067 83.715
7512.542 0.068 83.697 0.995 -3.898 0.995 -3.898 0.068 83.697
7537.5 0.069 83.677 0.995 -3.948 0.995 -3.948 0.069 83.677
7562.458 0.07 83.658 0.995 -3.997 0.995 -3.997 0.07 83.658
7587.417 0.071 83.637 0.995 -4.046 0.995 -4.046 0.071 83.637
7612.375 0.071 83.616 0.995 -4.095 0.995 -4.095 0.071 83.616
7637.333 0.072 83.594 0.995 -4.143 0.995 -4.143 0.072 83.594
7662.292 0.073 83.572 0.994 -4.192 0.994 -4.192 0.073 83.572
7687.25 0.074 83.549 0.994 -4.241 0.994 -4.241 0.074 83.549
7712.208 0.075 83.526 0.994 -4.289 0.994 -4.289 0.075 83.526
7737.167 0.076 83.502 0.994 -4.337 0.994 -4.337 0.076 83.502
7762.125 0.077 83.477 0.994 -4.385 0.994 -4.385 0.077 83.477
7787.083 0.077 83.453 0.994 -4.433 0.994 -4.433 0.077 83.453
7812.042 0.078 83.427 0.994 -4.481 0.994 -4.481 0.078 83.427
7837 0.079 83.402 0.994 -4.529 0.994 -4.529 0.079 83.402
7861.958 0.08 83.376 0.994 -4.577 0.994 -4.577 0.08 83.376
7886.917 0.081 83.349 0.994 -4.624 0.994 -4.624 0.081 83.349
7911.875 0.081 83.322 0.994 -4.672 0.994 -4.672 0.081 83.322
7936.833 0.082 83.295 0.994 -4.719 0.994 -4.719 0.082 83.295
7961.792 0.083 83.268 0.994 -4.766 0.994 -4.766 0.083 83.268
7986.75 0.084 83.24 0.994 -4.814 0.994 -4.814 0.084 83.24
8011.708 0.085 83.212 0.994 -4.861 0.994 -4.861 0.085 83.212
8036.667 0.086 83.183 0.993 -4.908 0.993 -4.908 0.086 83.183
8061.625 0.086 83.155 0.993 -4.954 0.993 -4.954 0.086 83.155
8086.583 0.087 83.126 0.993 -5.001 0.993 -5.001 0.087 83.126
8111.542 0.088 83.096 0.993 -5.048 0.993 -5.048 0.088 83.096
8136.5 0.089 83.067 0.993 -5.094 0.993 -5.094 0.089 83.067
8161.458 0.09 83.037 0.993 -5.141 0.993 -5.141 0.09 83.037
8186.417 0.09 83.007 0.993 -5.187 0.993 -5.187 0.09 83.007
8211.375 0.091 82.977 0.993 -5.233 0.993 -5.233 0.091 82.977
8236.333 0.092 82.947 0.993 -5.279 0.993 -5.279 0.092 82.947
