# MHZ S MA R 50

50 0.998 -3.147 0.055 86.843 0.055 86.843 0.998 -3.147
74.958 0.997 -4.712 0.082 85.272 0.082 85.272 0.997 -4.712
99.917 0.994 -6.271 0.109 83.709 0.109 83.709 0.994 -6.271
124.875 0.991 -7.821 0.136 82.154 0.136 82.154 0.991 -7.821
149.833 0.987 -9.36 0.163 80.61 0.163 80.61 0.987 -9.36
174.792 0.982 -10.886 0.189 79.078 0.189 79.078 0.982 -10.886
199.75 0.977 -12.397 0.215 77.562 0.215 77.562 0.977 -12.397
224.708 0.971 -13.892 0.24 76.062 0.24 76.062 0.971 -13.892
249.667 0.964 -15.369 0.265 74.579 0.265 74.579 0.964 -15.369
274.625 0.957 -16.827 0.289 73.117 0.289 73.117 0.957 -16.827
299.583 0.949 -18.263 0.313 71.675 0.313 71.675 0.949 -18.263
324.542 0.941 -19.678 0.337 70.256 0.337 70.256 0.941 -19.678
349.5 0.933 -21.069 0.359 68.859 0.359 68.859 0.933 -21.069
374.458 0.924 -22.436 0.382 67.487 0.382 67.487 0.924 -22.436
399.417 0.915 -23.778 0.403 66.139 0.403 66.139 0.915 -23.778
424.375 0.905 -25.095 0.424 64.818 0.424 64.818 0.905 -25.095
449.333 0.895 -26.385 0.444 63.522 0.444 63.522 0.895 -26.385
474.292 0.885 -27.649 0.464 62.253 0.464 62.253 0.885 -27.649
499.25 0.875 -28.886 0.483 61.01 0.483 61.01 0.875 -28.886
524.208 0.864 -30.097 0.501 59.795 0.501 59.795 0.864 -30.097
549.167 0.854 -31.28 0.519 58.607 0.519 58.607 0.854 -31.28
574.125 0.843 -32.436 0.536 57.445 0.536 57.445 0.843 -32.436
599.083 0.832 -33.565 0.553 56.311 0.553 56.311 0.832 -33.565
624.042 0.821 -34.667 0.569 55.203 0.569 55.203 0.821 -34.667
649 0.81 -35.743 0.584 54.122 0.584 54.122 0.81 -35.743
673.958 0.799 -36.792 0.599 53.068 0.599 53.068 0.799 -36.792
698.917 0.788 -37.816 0.613 52.039 0.613 52.039 0.788 -37.816
723.875 0.778 -38.814 0.627 51.036 0.627 51.036 0.778 -38.814
748.833 0.767 -39.786 0.64 50.058 0.64 50.058 0.767 -39.786
773.792 0.756 -40.735 0.653 49.104 0.653 49.104 0.756 -40.735
798.75 0.745 -41.658 0.665 48.175 0.665 48.175 0.745 -41.658
823.708 0.735 -42.559 0.676 47.269 0.676 47.269 0.735 -42.559
848.667 0.724 -43.436 0.688 46.387 0.688 46.387 0.724 -43.436
873.625 0.714 -44.291 0.698 45.526 0.698 45.526 0.714 -44.291
898.583 0.703 -45.123 0.709 44.688 0.709 44.688 0.703 -45.123
923.542 0.693 -45.934 0.719 43.872 0.719 43.872 0.693 -45.934
948.5 0.683 -46.725 0.728 43.076 0.728 43.076 0.683 -46.725
973.458 0.673 -47.495 0.737 42.301 0.737 42.301 0.673 -47.495
998.417 0.663 -48.245 0.746 41.545 0.746 41.545 0.663 -48.245
1023.375 0.654 -48.976 0.754 40.809 0.754 40.809 0.654 -48.976
1048.333 0.644 -49.688 0.763 40.091 0.763 40.091 0.644 -49.688
1073.292 0.635 -50.382 0.77 39.391 0.77 39.391 0.635 -50.382
1098.25 0.625 -51.058 0.778 38.709 0.778 38.709 0.625 -51.058
1123.208 0.616 -51.718 0.785 38.044 0.785 38.044 0.616 -51.718
1148.167 0.607 -52.361 0.792 37.396 0.792 37.396 0.607 -52.361
1173.125 0.599 -52.987 0.799 36.763 0.799 36.763 0.599 -52.987
1198.083 0.59 -53.599 0.805 36.146 0.805 36.146 0.59 -53.599
1223.042 0.581 -54.195 0.811 35.545 0.811 35.545 0.581 -54.195
1248 0.573 -54.776 0.817 34.957 0.817 34.957 0.573 -54.776
1272.958 0.565 -55.343 0.823 34.384 0.823 34.384 0.565 -55.343
1297.917 0.557 -55.897 0.828 33.825 0.828 33.825 0.557 -55.897
1322.875 0.549 -56.437 0.833 33.279 0.833 33.279 0.549 -56.437
1347.833 0.541 -56.965 0.838 32.746 0.838 32.746 0.541 -56.965
1372.792 0.533 -57.479 0.843 32.225 0.843 32.225 0.533 -57.479
1397.75 0.526 -57.982 0.848 31.717 0.848 31.717 0.526 -57.982
1422.708 0.518 -58.473 0.852 31.22 0.852 31.22 0.518 -58.473
1447.667 0.511 -58.953 0.857 30.734 0.857 30.734 0.511 -58.953
1472.625 0.504 -59.422 0.861 30.259 0.861 30.259 0.504 -59.422
1497.583 0.497 -59.88 0.865 29.795 0.865 29.795 0.497 -59.88
1522.542 0.49 -60.327 0.869 29.342 0.869 29.342 0.49 -60.327
1547.5 0.483 -60.765 0.873 28.898 0.873 28.898 0.483 -60.765
1572.458 0.477 -61.193 0.876 28.464 0.876 28.464 0.477 -61.193
1597.417 0.47 -61.611 0.88 28.039 0.88 28.039 0.47 -61.611
1622.375 0.464 -62.021 0.883 27.624 0.883 27.624 0.464 -62.021
1647.333 0.457 -62.421 0.886 27.217 0.886 27.217 0.457 -62.421
1672.292 0.451 -62.813 0.89 26.819 0.89 26.819 0.451 -62.813
1697.25 0.445 -63.197 0.893 26.429 0.893 26.429 0.445 -63.197
1722.208 0.439 -63.572 0.896 26.047 0.896 26.047 0.439 -63.572
1747.167 0.433 -63.94 0.898 25.672 0.898 25.672 0.433 -63.94
1772.125 0.427 -64.3 0.901 25.306 0.901 25.306 0.427 -64.3
1797.083 0.422 -64.653 0.904 24.947 0.904 24.947 0.422 -64.653
1822.042 0.416 -64.999 0.906 24.594 0.906 24.594 0.416 -64.999
1847 0.411 -65.337 0.909 24.249 0.909 24.249 0.411 -65.337
1871.958 0.405 -65.669 0.911 23.911 0.911 23.911 0.405 -65.669
1896.917 0.4 -65.995 0.914 23.579 0.914 23.579 0.4 -65.995
1921.875 0.395 -66.314 0.916 23.253 0.916 23.253 0.395 -66.314
1946.833 0.39 -66.627 0.918 22.933 0.918 22.933 0.39 -66.627
1971.792 0.385 -66.933 0.92 22.62 0.92 22.62 0.385 -66.933
1996.75 0.38 -67.234 0.922 22.312 0.922 22.312 0.38 -67.234
2021.708 0.375 -67.53 0.924 22.01 0.924 22.01 0.375 -67.53
2046.667 0.37 -67.82 0.926 21.713 0.926 21.713 0.37 -67.82
2071.625 0.365 -68.104 0.928 21.421 0.928 21.421 0.365 -68.104
2096.583 0.361 -68.383 0.93 21.135 0.93 21.135 0.361 -68.383
2121.542 0.356 -68.657 0.931 20.854 0.931 20.854 0.356 -68.657
2146.5 0.351 -68.926 0.933 20.578 0.933 20.578 0.351 -68.926
2171.458 0.347 -69.191 0.935 20.306 0.935 20.306 0.347 -69.191
2196.417 0.343 -69.451 0.936 20.039 0.936 20.039 0.343 -69.451
2221.375 0.338 -69.706 0.938 19.776 0.938 19.776 0.338 -69.706
2246.333 0.334 -69.956 0.939 19.518 0.939 19.518 0.334 -69.956
2271.292 0.33 -70.203 0.941 19.264 0.941 19.264 0.33 -70.203
2296.25 0.326 -70.445 0.942 19.015 0.942 19.015 0.326 -70.445
2321.208 0.322 -70.683 0.944 18.769 0.944 18.769 0.322 -70.683
2346.167 0.318 -70.917 0.945 18.527 0.945 18.527 0.318 -70.917
2371.125 0.314 -71.147 0.946 18.289 0.946 18.289 0.314 -71.147
2396.083 0.31 -71.374 0.948 18.055 0.948 18.055 0.31 -71.374
2421.042 0.306 -71.596 0.949 17.825 0.949 17.825 0.306 -71.596
2446 0.302 -71.815 0.95 17.598 0.95 17.598 0.302 -71.815
2470.958 0.299 -72.031 0.951 17.374 0.951 17.374 0.299 -72.031
2495.917 0.295 -72.243 0.952 17.154 0.952 17.154 0.295 -72.243
2520.875 0.291 -72.451 0.954 16.937 0.954 16.937 0.291 -72.451
2545.833 0.288 -72.657 0.955 16.723 0.955 16.723 0.288 -72.657
2570.792 0.284 -72.859 0.956 16.513 0.956 16.513 0.284 -72.859
2595.75 0.281 -73.058 0.957 16.305 0.957 16.305 0.281 -73.058
2620.708 0.277 -73.254 0.958 16.101 0.958 16.101 0.277 -73.254
2645.667 0.274 -73.447 0.959 15.899 0.959 15.899 0.274 -73.447
2670.625 0.271 -73.637 0.96 15.701 0.96 15.701 0.271 -73.637
2695.583 0.267 -73.824 0.96 15.504 0.96 15.504 0.267 -73.824
2720.542 0.264 -74.009 0.961 15.311 0.961 15.311 0.264 -74.009
2745.5 0.261 -74.19 0.962 15.12 0.962 15.12 0.261 -74.19
2770.458 0.258 -74.369 0.963 14.932 0.963 14.932 0.258 -74.369
2795.417 0.255 -74.546 0.964 14.747 0.964 14.747 0.255 -74.546
2820.375 0.251 -74.72 0.965 14.564 0.965 14.564 0.251 -74.72
2845.333 0.248 -74.891 0.966 14.383 0.966 14.383 0.248 -74.891
2870.292 0.245 -75.06 0.966 14.205 0.966 14.205 0.245 -75.06
2895.25 0.242 -75.226 0.967 14.028 0.967 14.028 0.242 -75.226
2920.208 0.239 -75.39 0.968 13.855 0.968 13.855 0.239 -75.39
2945.167 0.237 -75.552 0.968 13.683 0.968 13.683 0.237 -75.552
2970.125 0.234 -75.712 0.969 13.513 0.969 13.513 0.234 -75.712
2995.083 0.231 -75.869 0.97 13.346 0.97 13.346 0.231 -75.869
3020.042 0.228 -76.024 0.97 13.181 0.97 13.181 0.228 -76.024
3045 0.225 -76.177 0.971 13.017 0.971 13.017 0.225 -76.177
3069.958 0.223 -76.328 0.972 12.856 0.972 12.856 0.223 -76.328
3094.917 0.22 -76.477 0.972 12.696 0.972 12.696 0.22 -76.477
3119.875 0.217 -76.624 0.973 12.539 0.973 12.539 0.217 -76.624
3144.833 0.214 -76.769 0.974 12.383 0.974 12.383 0.214 -76.769
3169.792 0.212 -76.912 0.974 12.229 0.974 12.229 0.212 -76.912
3194.75 0.209 -77.053 0.975 12.077 0.975 12.077 0.209 -77.053
3219.708 0.207 -77.192 0.975 11.927 0.975 11.927 0.207 -77.192
3244.667 0.204 -77.329 0.976 11.778 0.976 11.778 0.204 -77.329
3269.625 0.202 -77.465 0.976 11.631 0.976 11.631 0.202 -77.465
3294.583 0.199 -77.599 0.977 11.485 0.977 11.485 0.199 -77.599
3319.542 0.197 -77.73 0.977 11.341 0.977 11.341 0.197 -77.73
3344.5 0.194 -77.861 0.978 11.199 0.978 11.199 0.194 -77.861
3369.458 0.192 -77.989 0.978 11.058 0.978 11.058 0.192 -77.989
3394.417 0.189 -78.116 0.979 10.919 0.979 10.919 0.189 -78.116
3419.375 0.187 -78.241 0.979 10.781 0.979 10.781 0.187 -78.241
3444.333 0.185 -78.365 0.98 10.644 0.98 10.644 0.185 -78.365
3469.292 0.182 -78.487 0.98 10.509 0.98 10.509 0.182 -78.487
3494.25 0.18 -78.607 0.98 10.376 0.98 10.376 0.18 -78.607
3519.208 0.178 -78.726 0.981 10.244 0.981 10.244 0.178 -78.726
3544.167 0.176 -78.844 0.981 10.113 0.981 10.113 0.176 -78.844
3569.125 0.173 -78.959 0.982 9.983 0.982 9.983 0.173 -78.959
3594.083 0.171 -79.074 0.982 9.855 0.982 9.855 0.171 -79.074
3619.042 0.169 -79.186 0.982 9.727 0.982 9.727 0.169 -79.186
3644 0.167 -79.298 0.983 9.602 0.983 9.602 0.167 -79.298
3668.958 0.165 -79.408 0.983 9.477 0.983 9.477 0.165 -79.408
3693.917 0.163 -79.516 0.983 9.353 0.983 9.353 0.163 -79.516
3718.875 0.16 -79.623 0.984 9.231 0.984 9.231 0.16 -79.623
3743.833 0.158 -79.729 0.984 9.11 0.984 9.11 0.158 -79.729
3768.792 0.156 -79.833 0.985 8.99 0.985 8.99 0.156 -79.833
3793.75 0.154 -79.936 0.985 8.871 0.985 8.871 0.154 -79.936
3818.708 0.152 -80.038 0.985 8.753 0.985 8.753 0.152 -80.038
3843.667 0.15 -80.138 0.985 8.636 0.985 8.636 0.15 -80.138
3868.625 0.148 -80.237 0.986 8.52 0.986 8.52 0.148 -80.237
3893.583 0.146 -80.334 0.986 8.406 0.986 8.406 0.146 -80.334
3918.542 0.144 -80.431 0.986 8.292 0.986 8.292 0.144 -80.431
3943.5 0.142 -80.526 0.987 8.179 0.987 8.179 0.142 -80.526
3968.458 0.14 -80.619 0.987 8.067 0.987 8.067 0.14 -80.619
3993.417 0.138 -80.712 0.987 7.957 0.987 7.957 0.138 -80.712
4018.375 0.137 -80.803 0.987 7.847 0.987 7.847 0.137 -80.803
4043.333 0.135 -80.892 0.988 7.738 0.988 7.738 0.135 -80.892
4068.292 0.133 -80.981 0.988 7.63 0.988 7.63 0.133 -80.981
4093.25 0.131 -81.068 0.988 7.522 0.988 7.522 0.131 -81.068
4118.208 0.129 -81.154 0.988 7.416 0.988 7.416 0.129 -81.154
4143.167 0.127 -81.238 0.989 7.311 0.989 7.311 0.127 -81.238
4168.125 0.125 -81.322 0.989 7.206 0.989 7.206 0.125 -81.322
4193.083 0.124 -81.404 0.989 7.102 0.989 7.102 0.124 -81.404
4218.042 0.122 -81.484 0.989 6.999 0.989 6.999 0.122 -81.484
4243 0.12 -81.564 0.99 6.897 0.99 6.897 0.12 -81.564
4267.958 0.118 -81.642 0.99 6.796 0.99 6.796 0.118 -81.642
4292.917 0.117 -81.719 0.99 6.695 0.99 6.695 0.117 -81.719
4317.875 0.115 -81.795 0.99 6.595 0.99 6.595 0.115 -81.795
4342.833 0.113 -81.869 0.99 6.496 0.99 6.496 0.113 -81.869
4367.792 0.111 -81.942 0.991 6.398 0.991 6.398 0.111 -81.942
4392.75 0.11 -82.014 0.991 6.3 0.991 6.3 0.11 -82.014
4417.708 0.108 -82.084 0.991 6.204 0.991 6.204 0.108 -82.084
4442.667 0.106 -82.153 0.991 6.107 0.991 6.107 0.106 -82.153
4467.625 0.105 -82.221 0.991 6.012 0.991 6.012 0.105 -82.221
4492.583 0.103 -82.287 0.991 5.917 0.991 5.917 0.103 -82.287
4517.542 0.102 -82.352 0.992 5.823 0.992 5.823 0.102 -82.352
4542.5 0.1 -82.415 0.992 5.73 0.992 5.73 0.1 -82.415
4567.458 0.098 -82.477 0.992 5.637 0.992 5.637 0.098 -82.477
4592.417 0.097 -82.538 0.992 5.545 0.992 5.545 0.097 -82.538
4617.375 0.095 -82.597 0.992 5.453 0.992 5.453 0.095 -82.597
4642.333 0.094 -82.655 0.992 5.362 0.992 5.362 0.094 -82.655
4667.292 0.092 -82.711 0.993 5.272 0.993 5.272 0.092 -82.711
4692.25 0.09 -82.766 0.993 5.182 0.993 5.182 0.09 -82.766
4717.208 0.089 -82.819 0.993 5.093 0.993 5.093 0.089 -82.819
4742.167 0.087 -82.87 0.993 5.005 0.993 5.005 0.087 -82.87
4767.125 0.086 -82.92 0.993 4.917 0.993 4.917 0.086 -82.92
4792.083 0.084 -82.968 0.993 4.829 0.993 4.829 0.084 -82.968
4817.042 0.083 -83.014 0.993 4.743 0.993 4.743 0.083 -83.014
4842 0.081 -83.059 0.993 4.656 0.993 4.656 0.081 -83.059
4866.958 0.08 -83.102 0.994 4.571 0.994 4.571 0.08 -83.102
4891.917 0.078 -83.142 0.994 4.486 0.994 4.486 0.078 -83.142
4916.875 0.077 -83.181 0.994 4.401 0.994 4.401 0.077 -83.181
4941.833 0.075 -83.218 0.994 4.317 0.994 4.317 0.075 -83.218
4966.792 0.074 -83.253 0.994 4.233 0.994 4.233 0.074 -83.253
4991.75 0.072 -83.286 0.994 4.15 0.994 4.15 0.072 -83.286
5016.708 0.071 -83.316 0.994 4.068 0.994 4.068 0.071 -83.316
5041.667 0.07 -83.344 0.994 3.985 0.994 3.985 0.07 -83.344
5066.625 0.068 -83.37 0.994 3.904 0.994 3.904 0.068 -83.37
5091.583 0.067 -83.393 0.995 3.823 0.995 3.823 0.067 -83.393
5116.542 0.065 -83.413 0.995 3.742 0.995 3.742 0.065 -83.413
5141.5 0.064 -83.431 0.995 3.662 0.995 3.662 0.064 -83.431
5166.458 0.063 -83.446 0.995 3.582 0.995 3.582 0.063 -83.446
5191.417 0.061 -83.458 0.995 3.503 0.995 3.503 0.061 -83.458
5216.375 0.06 -83.467 0.995 3.424 0.995 3.424 0.06 -83.467
5241.333 0.058 -83.473 0.995 3.346 0.995 3.346 0.058 -83.473
5266.292 0.057 -83.475 0.995 3.268 0.995 3.268 0.057 -83.475
5291.25 0.056 -83.473 0.995 3.19 0.995 3.19 0.056 -83.473
5316.208 0.054 -83.468 0.995 3.113 0.995 3.113 0.054 -83.468
5341.167 0.053 -83.458 0.995 3.037 0.995 3.037 0.053 -83.458
5366.125 0.052 -83.444 0.995 2.96 0.995 2.96 0.052 -83.444
5391.083 0.05 -83.425 0.995 2.884 0.995 2.884 0.05 -83.425
5416.042 0.049 -83.402 0.996 2.809 0.996 2.809 0.049 -83.402
5441 0.048 -83.373 0.996 2.734 0.996 2.734 0.048 -83.373
5465.958 0.047 -83.338 0.996 2.659 0.996 2.659 0.047 -83.338
5490.917 0.045 -83.298 0.996 2.585 0.996 2.585 0.045 -83.298
5515.875 0.044 -83.251 0.996 2.511 0.996 2.511 0.044 -83.251
5540.833 0.043 -83.197 0.996 2.438 0.996 2.438 0.043 -83.197
5565.792 0.041 -83.136 0.996 2.364 0.996 2.364 0.041 -83.136
5590.75 0.04 -83.066 0.996 2.292 0.996 2.292 0.04 -83.066
5615.708 0.039 -82.987 0.996 2.219 0.996 2.219 0.039 -82.987
5640.667 0.038 -82.899 0.996 2.147 0.996 2.147 0.038 -82.899
5665.625 0.036 -82.8 0.996 2.076 0.996 2.076 0.036 -82.8
5690.583 0.035 -82.69 0.996 2.004 0.996 2.004 0.035 -82.69
5715.542 0.034 -82.567 0.996 1.933 0.996 1.933 0.034 -82.567
5740.5 0.033 -82.431 0.996 1.862 0.996 1.862 0.033 -82.431
5765.458 0.031 -82.278 0.996 1.792 0.996 1.792 0.031 -82.278
5790.417 0.03 -82.109 0.996 1.722 0.996 1.722 0.03 -82.109
5815.375 0.029 -81.921 0.996 1.652 0.996 1.652 0.029 -81.921
5840.333 0.028 -81.711 0.996 1.583 0.996 1.583 0.028 -81.711
5865.292 0.027 -81.477 0.996 1.514 0.996 1.514 0.027 -81.477
5890.25 0.025 -81.216 0.996 1.445 0.996 1.445 0.025 -81.216
5915.208 0.024 -80.924 0.996 1.377 0.996 1.377 0.024 -80.924
5940.167 0.023 -80.596 0.996 1.309 0.996 1.309 0.023 -80.596
5965.125 0.022 -80.228 0.997 1.241 0.997 1.241 0.022 -80.228
5990.083 0.021 -79.813 0.997 1.174 0.997 1.174 0.021 -79.813
6015.042 0.02 -79.342 0.997 1.106 0.997 1.106 0.02 -79.342
6040 0.018 -78.807 0.997 1.04 0.997 1.04 0.018 -78.807
6064.958 0.017 -78.194 0.997 0.973 0.997 0.973 0.017 -78.194
6089.917 0.016 -77.489 0.997 0.907 0.997 0.907 0.016 -77.489
6114.875 0.015 -76.671 0.997 0.841 0.997 0.841 0.015 -76.671
6139.833 0.014 -75.714 0.997 0.775 0.997 0.775 0.014 -75.714
6164.792 0.013 -74.584 0.997 0.709 0.997 0.709 0.013 -74.584
6189.75 0.012 -73.235 0.997 0.644 0.997 0.644 0.012 -73.235
6214.708 0.011 -71.602 0.997 0.579 0.997 0.579 0.011 -71.602
6239.667 9.551e-3 -69.594 0.997 0.515 0.997 0.515 9.551e-3 -69.594
6264.625 8.503e-3 -67.081 0.997 0.45 0.997 0.45 8.503e-3 -67.081
6289.583 7.481e-3 -63.866 0.997 0.386 0.997 0.386 7.481e-3 -63.866
6314.542 6.494e-3 -59.653 0.997 0.322 0.997 0.322 6.494e-3 -59.653
6339.5 5.561e-3 -53.983 0.997 0.259 0.997 0.259 5.561e-3 -53.983
6364.458 4.708e-3 -46.157 0.997 0.195 0.997 0.195 4.708e-3 -46.157
6389.417 3.984e-3 -35.219 0.997 0.132 0.997 0.132 3.984e-3 -35.219
6414.375 3.467e-3 -20.323 0.997 0.069 0.997 0.069 3.467e-3 -20.323
6439.333 3.252e-3 -2.021 0.997 6.593e-3 0.997 6.593e-3 3.252e-3 -2.021
6464.292 3.392e-3 16.623 0.997 -0.056 0.997 -0.056 3.392e-3 16.623
6489.25 3.847e-3 32.23 0.997 -0.118 0.997 -0.118 3.847e-3 32.23
6514.208 4.518e-3 43.824 0.997 -0.18 0.997 -0.18 4.518e-3 43.824
6539.167 5.322e-3 52.126 0.997 -0.241 0.997 -0.241 5.322e-3 52.126
6564.125 6.206e-3 58.121 0.997 -0.303 0.997 -0.303 6.206e-3 58.121
6589.083 7.138e-3 62.554 0.997 -0.364 0.997 -0.364 7.138e-3 62.554
6614.042 8.1e-3 65.923 0.997 -0.425 0.997 -0.425 8.1e-3 65.923
6639 9.081e-3 68.547 0.997 -0.486 0.997 -0.486 9.081e-3 68.547
6663.958 0.01 70.637 0.997 -0.546 0.997 -0.546 0.01 70.637
6688.917 0.011 72.333 0.997 -0.607 0.997 -0.607 0.011 72.333
6713.875 0.012 73.733 0.997 -0.667 0.997 -0.667 0.012 73.733
6738.833 0.013 74.903 0.997 -0.727 0.997 -0.727 0.013 74.903
6763.792 0.014 75.893 0.997 -0.786 0.997 -0.786 0.014 75.893
6788.75 0.015 76.74 0.997 -0.846 0.997 -0.846 0.015 76.74
6813.708 0.016 77.471 0.997 -0.905 0.997 -0.905 0.016 77.471
6838.667 0.017 78.106 0.997 -0.964 0.997 -0.964 0.017 78.106
6863.625 0.018 78.662 0.997 -1.023 0.997 -1.023 0.018 78.662
6888.583 0.019 79.152 0.997 -1.082 0.997 -1.082 0.019 79.152
6913.542 0.02 79.585 0.997 -1.14 0.997 -1.14 0.02 79.585
6938.5 0.021 79.971 0.997 -1.198 0.997 -1.198 0.021 79.971
6963.458 0.022 80.315 0.997 -1.256 0.997 -1.256 0.022 80.315
6988.417 0.023 80.623 0.996 -1.314 0.996 -1.314 0.023 80.623
7013.375 0.024 80.9 0.996 -1.372 0.996 -1.372 0.024 80.9
7038.333 0.025 81.15 0.996 -1.429 0.996 -1.429 0.025 81.15
7063.292 0.026 81.376 0.996 -1.487 0.996 -1.487 0.026 81.376
7088.25 0.027 81.58 0.996 -1.544 0.996 -1.544 0.027 81.58
7113.208 0.028 81.766 0.996 -1.601 0.996 -1.601 0.028 81.766
7138.167 0.029 81.934 0.996 -1.657 0.996 -1.657 0.029 81.934
7163.125 0.03 82.087 0.996 -1.714 0.996 -1.714 0.03 82.087
7188.083 0.031 82.227 0.996 -1.77 0.996 -1.77 0.031 82.227
7213.042 0.032 82.354 0.996 -1.826 0.996 -1.826 0.032 82.354
7238 0.033 82.471 0.996 -1.882 0.996 -1.882 0.033 82.471
7262.958 0.034 82.577 0.996 -1.938 0.996 -1.938 0.034 82.577
7287.917 0.035 82.673 0.996 -1.994 0.996 -1.994 0.035 82.673
7312.875 0.036 82.761 0.996 -2.049 0.996 -2.049 0.036 82.761
7337.833 0.037 82.842 0.996 -2.105 0.996 -2.105 0.037 82.842
7362.792 0.038 82.915 0.996 -2.16 0.996 -2.16 0.038 82.915
7387.75 0.039 82.982 0.996 -2.215 0.996 -2.215 0.039 82.982
7412.708 0.04 83.043 0.996 -2.27 0.996 -2.27 0.04 83.043
7437.667 0.041 83.098 0.996 -2.324 0.996 -2.324 0.041 83.098
7462.625 0.042 83.148 0.996 -2.379 0.996 -2.379 0.042 83.148
7487.583 0.043 83.193 0.996 -2.433 0.996 -2.433 0.043 83.193
7512.542 0.044 83.234 0.996 -2.487 0.996 -2.487 0.044 83.234
7537.5 0.044 83.271 0.996 -2.541 0.996 -2.541 0.044 83.271
7562.458 0.045 83.304 0.996 -2.595 0.996 -2.595 0.045 83.304
7587.417 0.046 83.333 0.996 -2.649 0.996 -2.649 0.046 83.333
7612.375 0.047 83.359 0.996 -2.702 0.996 -2.702 0.047 83.359
7637.333 0.048 83.382 0.996 -2.756 0.996 -2.756 0.048 83.382
7662.292 0.049 83.402 0.996 -2.809 0.996 -2.809 0.049 83.402
7687.25 0.05 83.419 0.996 -2.862 0.996 -2.862 0.05 83.419
7712.208 0.051 83.433 0.995 -2.915 0.995 -2.915 0.051 83.433
7737.167 0.052 83.446 0.995 -2.968 0.995 -2.968 0.052 83.446
7762.125 0.053 83.455 0.995 -3.021 0.995 -3.021 0.053 83.455
7787.083 0.054 83.463 0.995 -3.073 0.995 -3.073 0.054 83.463
7812.042 0.055 83.469 0.995 -3.126 0.995 -3.126 0.055 83.469
7837 0.056 83.472 0.995 -3.178 0.995 -3.178 0.056 83.472
7861.958 0.056 83.474 0.995 -3.23 0.995 -3.23 0.056 83.474
7886.917 0.057 83.475 0.995 -3.282 0.995 -3.282 0.057 83.475
7911.875 0.058 83.473 0.995 -3.334 0.995 -3.334 0.058 83.473
7936.833 0.059 83.47 0.995 -3.386 0.995 -3.386 0.059 83.47
7961.792 0.06 83.466 0.995 -3.437 0.995 -3.437 0.06 83.466
7986.75 0.061 83.46 0.995 -3.489 0.995 -3.489 0.061 83.46
8011.708 0.062 83.453 0.995 -3.54 0.995 -3.54 0.062 83.453
8036.667 0.063 83.445 0.995 -3.591 0.995 -3.591 0.063 83.445
8061.625 0.064 83.435 0.995 -3.642 0.995 -3.642 0.064 83.435
8086.583 0.064 83.425 0.995 -3.693 0.995 -3.693 0.064 83.425
8111.542 0.065 83.413 0.995 -3.744 0.995 -3.744 0.065 83.413
8136.5 0.066 83.4 0.995 -3.794 0.995 -3.794 0.066 83.4
8161.458 0.067 83.387 0.995 -3.845 0.995 -3.845 0.067 83.387
8186.417 0.068 83.372 0.994 -3.895 0.994 -3.895 0.068 83.372
