# MHZ S MA R 50

50 0.999 -2.608 0.046 87.382 0.046 87.382 0.999 -2.608
74.958 0.998 -3.907 0.068 86.078 0.068 86.078 0.998 -3.907
99.917 0.996 -5.202 0.091 84.779 0.091 84.779 0.996 -5.202
124.875 0.994 -6.492 0.113 83.484 0.113 83.484 0.994 -6.492
149.833 0.991 -7.776 0.135 82.195 0.135 82.195 0.991 -7.776
174.792 0.987 -9.053 0.157 80.914 0.157 80.914 0.987 -9.053
199.75 0.984 -10.321 0.179 79.641 0.179 79.641 0.984 -10.321
224.708 0.979 -11.58 0.201 78.377 0.201 78.377 0.979 -11.58
249.667 0.975 -12.828 0.222 77.124 0.222 77.124 0.975 -12.828
274.625 0.97 -14.064 0.243 75.883 0.243 75.883 0.97 -14.064
299.583 0.964 -15.288 0.264 74.654 0.264 74.654 0.964 -15.288
324.542 0.959 -16.5 0.284 73.438 0.284 73.438 0.959 -16.5
349.5 0.952 -17.697 0.304 72.236 0.304 72.236 0.952 -17.697
374.458 0.946 -18.879 0.324 71.049 0.324 71.049 0.946 -18.879
399.417 0.939 -20.046 0.343 69.877 0.343 69.877 0.939 -20.046
424.375 0.932 -21.197 0.362 68.721 0.362 68.721 0.932 -21.197
449.333 0.924 -22.331 0.38 67.582 0.38 67.582 0.924 -22.331
474.292 0.917 -23.449 0.398 66.459 0.398 66.459 0.917 -23.449
499.25 0.909 -24.549 0.415 65.354 0.415 65.354 0.909 -24.549
524.208 0.901 -25.632 0.433 64.266 0.433 64.266 0.901 -25.632
549.167 0.893 -26.697 0.449 63.196 0.449 63.196 0.893 -26.697
574.125 0.884 -27.744 0.466 62.145 0.466 62.145 0.884 -27.744
599.083 0.876 -28.772 0.481 61.111 0.481 61.111 0.876 -28.772
624.042 0.867 -29.782 0.497 60.096 0.497 60.096 0.867 -29.782
649 0.858 -30.774 0.512 59.1 0.512 59.1 0.858 -30.774
673.958 0.849 -31.747 0.526 58.121 0.526 58.121 0.849 -31.747
698.917 0.84 -32.702 0.54 57.162 0.54 57.162 0.84 -32.702
723.875 0.831 -33.639 0.554 56.22 0.554 56.22 0.831 -33.639
748.833 0.822 -34.557 0.567 55.297 0.567 55.297 0.822 -34.557
773.792 0.813 -35.457 0.58 54.392 0.58 54.392 0.813 -35.457
798.75 0.804 -36.339 0.593 53.505 0.593 53.505 0.804 -36.339
823.708 0.795 -37.203 0.605 52.636 0.605 52.636 0.795 -37.203
848.667 0.786 -38.05 0.616 51.784 0.616 51.784 0.786 -38.05
873.625 0.777 -38.879 0.628 50.95 0.628 50.95 0.777 -38.879
898.583 0.768 -39.691 0.639 50.133 0.639 50.133 0.768 -39.691
923.542 0.759 -40.486 0.649 49.333 0.649 49.333 0.759 -40.486
948.5 0.75 -41.265 0.66 48.549 0.66 48.549 0.75 -41.265
973.458 0.741 -42.027 0.669 47.782 0.669 47.782 0.741 -42.027
998.417 0.732 -42.773 0.679 47.031 0.679 47.031 0.732 -42.773
1023.375 0.723 -43.504 0.688 46.295 0.688 46.295 0.723 -43.504
1048.333 0.714 -44.219 0.697 45.575 0.697 45.575 0.714 -44.219
1073.292 0.706 -44.918 0.706 44.87 0.706 44.87 0.706 -44.918
1098.25 0.697 -45.603 0.715 44.18 0.715 44.18 0.697 -45.603
1123.208 0.688 -46.274 0.723 43.504 0.723 43.504 0.688 -46.274
1148.167 0.68 -46.93 0.731 42.843 0.731 42.843 0.68 -46.93
1173.125 0.672 -47.573 0.738 42.195 0.738 42.195 0.672 -47.573
1198.083 0.663 -48.202 0.746 41.561 0.746 41.561 0.663 -48.202
1223.042 0.655 -48.817 0.753 40.94 0.753 40.94 0.655 -48.817
1248 0.647 -49.42 0.76 40.332 0.76 40.332 0.647 -49.42
1272.958 0.639 -50.01 0.766 39.737 0.766 39.737 0.639 -50.01
1297.917 0.631 -50.588 0.773 39.153 0.773 39.153 0.631 -50.588
1322.875 0.624 -51.153 0.779 38.582 0.779 38.582 0.624 -51.153
1347.833 0.616 -51.707 0.785 38.023 0.785 38.023 0.616 -51.707
1372.792 0.608 -52.25 0.791 37.475 0.791 37.475 0.608 -52.25
1397.75 0.601 -52.781 0.796 36.938 0.796 36.938 0.601 -52.781
1422.708 0.594 -53.302 0.802 36.412 0.802 36.412 0.594 -53.302
1447.667 0.586 -53.812 0.807 35.897 0.807 35.897 0.586 -53.812
1472.625 0.579 -54.311 0.812 35.392 0.812 35.392 0.579 -54.311
1497.583 0.572 -54.801 0.817 34.897 0.817 34.897 0.572 -54.801
1522.542 0.565 -55.281 0.822 34.412 0.822 34.412 0.565 -55.281
1547.5 0.558 -55.751 0.827 33.936 0.827 33.936 0.558 -55.751
1572.458 0.552 -56.212 0.831 33.47 0.831 33.47 0.552 -56.212
1597.417 0.545 -56.663 0.835 33.012 0.835 33.012 0.545 -56.663
1622.375 0.538 -57.106 0.84 32.564 0.84 32.564 0.538 -57.106
1647.333 0.532 -57.54 0.844 32.124 0.844 32.124 0.532 -57.54
1672.292 0.525 -57.966 0.848 31.692 0.848 31.692 0.525 -57.966
1697.25 0.519 -58.384 0.852 31.269 0.852 31.269 0.519 -58.384
1722.208 0.513 -58.794 0.855 30.853 0.855 30.853 0.513 -58.794
1747.167 0.507 -59.196 0.859 30.446 0.859 30.446 0.507 -59.196
1772.125 0.501 -59.59 0.862 30.046 0.862 30.046 0.501 -59.59
1797.083 0.495 -59.977 0.866 29.653 0.866 29.653 0.495 -59.977
1822.042 0.489 -60.357 0.869 29.267 0.869 29.267 0.489 -60.357
1847 0.483 -60.73 0.872 28.888 0.872 28.888 0.483 -60.73
1871.958 0.477 -61.096 0.875 28.516 0.875 28.516 0.477 -61.096
1896.917 0.472 -61.456 0.878 28.151 0.878 28.151 0.472 -61.456
1921.875 0.466 -61.809 0.881 27.792 0.881 27.792 0.466 -61.809
1946.833 0.461 -62.155 0.884 27.439 0.884 27.439 0.461 -62.155
1971.792 0.455 -62.496 0.887 27.093 0.887 27.093 0.455 -62.496
1996.75 0.45 -62.83 0.89 26.752 0.89 26.752 0.45 -62.83
2021.708 0.445 -63.159 0.892 26.417 0.892 26.417 0.445 -63.159
2046.667 0.44 -63.482 0.895 26.088 0.895 26.088 0.44 -63.482
2071.625 0.435 -63.799 0.897 25.764 0.897 25.764 0.435 -63.799
2096.583 0.43 -64.111 0.9 25.446 0.9 25.446 0.43 -64.111
2121.542 0.425 -64.418 0.902 25.133 0.902 25.133 0.425 -64.418
2146.5 0.42 -64.719 0.904 24.826 0.904 24.826 0.42 -64.719
2171.458 0.415 -65.016 0.906 24.523 0.906 24.523 0.415 -65.016
2196.417 0.41 -65.307 0.909 24.225 0.909 24.225 0.41 -65.307
2221.375 0.406 -65.594 0.911 23.932 0.911 23.932 0.406 -65.594
2246.333 0.401 -65.876 0.913 23.643 0.913 23.643 0.401 -65.876
2271.292 0.397 -66.153 0.915 23.359 0.915 23.359 0.397 -66.153
2296.25 0.392 -66.426 0.917 23.079 0.917 23.079 0.392 -66.426
2321.208 0.388 -66.695 0.918 22.804 0.918 22.804 0.388 -66.695
2346.167 0.383 -66.959 0.92 22.533 0.92 22.533 0.383 -66.959
2371.125 0.379 -67.219 0.922 22.266 0.922 22.266 0.379 -67.219
2396.083 0.375 -67.476 0.924 22.003 0.924 22.003 0.375 -67.476
2421.042 0.37 -67.728 0.925 21.744 0.925 21.744 0.37 -67.728
2446 0.366 -67.976 0.927 21.489 0.927 21.489 0.366 -67.976
2470.958 0.362 -68.221 0.929 21.237 0.929 21.237 0.362 -68.221
2495.917 0.358 -68.461 0.93 20.989 0.93 20.989 0.358 -68.461
2520.875 0.354 -68.699 0.932 20.745 0.932 20.745 0.354 -68.699
2545.833 0.35 -68.932 0.933 20.504 0.933 20.504 0.35 -68.932
2570.792 0.346 -69.163 0.935 20.267 0.935 20.267 0.346 -69.163
2595.75 0.343 -69.389 0.936 20.033 0.936 20.033 0.343 -69.389
2620.708 0.339 -69.613 0.937 19.802 0.937 19.802 0.339 -69.613
2645.667 0.335 -69.833 0.939 19.574 0.939 19.574 0.335 -69.833
2670.625 0.331 -70.05 0.94 19.35 0.94 19.35 0.331 -70.05
2695.583 0.328 -70.264 0.941 19.128 0.941 19.128 0.328 -70.264
2720.542 0.324 -70.475 0.943 18.91 0.943 18.91 0.324 -70.475
2745.5 0.321 -70.683 0.944 18.694 0.944 18.694 0.321 -70.683
2770.458 0.317 -70.888 0.945 18.482 0.945 18.482 0.317 -70.888
2795.417 0.314 -71.09 0.946 18.272 0.946 18.272 0.314 -71.09
2820.375 0.31 -71.29 0.947 18.064 0.947 18.064 0.31 -71.29
2845.333 0.307 -71.486 0.948 17.86 0.948 17.86 0.307 -71.486
2870.292 0.303 -71.68 0.949 17.658 0.949 17.658 0.303 -71.68
2895.25 0.3 -71.872 0.95 17.458 0.95 17.458 0.3 -71.872
2920.208 0.297 -72.061 0.951 17.261 0.951 17.261 0.297 -72.061
2945.167 0.294 -72.247 0.952 17.067 0.952 17.067 0.294 -72.247
2970.125 0.29 -72.431 0.953 16.875 0.953 16.875 0.29 -72.431
2995.083 0.287 -72.612 0.954 16.685 0.954 16.685 0.287 -72.612
3020.042 0.284 -72.791 0.955 16.498 0.955 16.498 0.284 -72.791
3045 0.281 -72.968 0.956 16.312 0.956 16.312 0.281 -72.968
3069.958 0.278 -73.142 0.957 16.129 0.957 16.129 0.278 -73.142
3094.917 0.275 -73.314 0.958 15.948 0.958 15.948 0.275 -73.314
3119.875 0.272 -73.484 0.959 15.77 0.959 15.77 0.272 -73.484
3144.833 0.269 -73.652 0.96 15.593 0.96 15.593 0.269 -73.652
3169.792 0.266 -73.818 0.96 15.418 0.96 15.418 0.266 -73.818
3194.75 0.263 -73.981 0.961 15.246 0.961 15.246 0.263 -73.981
3219.708 0.26 -74.143 0.962 15.075 0.962 15.075 0.26 -74.143
3244.667 0.257 -74.302 0.963 14.906 0.963 14.906 0.257 -74.302
3269.625 0.254 -74.46 0.964 14.739 0.964 14.739 0.254 -74.46
3294.583 0.252 -74.616 0.964 14.574 0.964 14.574 0.252 -74.616
3319.542 0.249 -74.769 0.965 14.411 0.965 14.411 0.249 -74.769
3344.5 0.246 -74.921 0.966 14.249 0.966 14.249 0.246 -74.921
3369.458 0.243 -75.071 0.966 14.089 0.966 14.089 0.243 -75.071
3394.417 0.241 -75.219 0.967 13.931 0.967 13.931 0.241 -75.219
3419.375 0.238 -75.366 0.968 13.775 0.968 13.775 0.238 -75.366
3444.333 0.236 -75.511 0.968 13.62 0.968 13.62 0.236 -75.511
3469.292 0.233 -75.653 0.969 13.467 0.969 13.467 0.233 -75.653
3494.25 0.23 -75.795 0.97 13.315 0.97 13.315 0.23 -75.795
3519.208 0.228 -75.934 0.97 13.165 0.97 13.165 0.228 -75.934
3544.167 0.225 -76.072 0.971 13.017 0.971 13.017 0.225 -76.072
3569.125 0.223 -76.208 0.971 12.87 0.971 12.87 0.223 -76.208
3594.083 0.22 -76.343 0.972 12.724 0.972 12.724 0.22 -76.343
3619.042 0.218 -76.476 0.972 12.58 0.972 12.58 0.218 -76.476
3644 0.215 -76.608 0.973 12.437 0.973 12.437 0.215 -76.608
3668.958 0.213 -76.738 0.973 12.296 0.973 12.296 0.213 -76.738
3693.917 0.211 -76.867 0.974 12.156 0.974 12.156 0.211 -76.867
3718.875 0.208 -76.994 0.974 12.017 0.974 12.017 0.208 -76.994
3743.833 0.206 -77.119 0.975 11.879 0.975 11.879 0.206 -77.119
3768.792 0.204 -77.243 0.975 11.743 0.975 11.743 0.204 -77.243
3793.75 0.201 -77.366 0.976 11.608 0.976 11.608 0.201 -77.366
3818.708 0.199 -77.487 0.976 11.475 0.976 11.475 0.199 -77.487
3843.667 0.197 -77.607 0.977 11.342 0.977 11.342 0.197 -77.607
3868.625 0.194 -77.726 0.977 11.211 0.977 11.211 0.194 -77.726
3893.583 0.192 -77.843 0.978 11.081 0.978 11.081 0.192 -77.843
3918.542 0.19 -77.959 0.978 10.952 0.978 10.952 0.19 -77.959
3943.5 0.188 -78.074 0.979 10.825 0.979 10.825 0.188 -78.074
3968.458 0.186 -78.187 0.979 10.698 0.979 10.698 0.186 -78.187
3993.417 0.184 -78.299 0.979 10.573 0.979 10.573 0.184 -78.299
4018.375 0.181 -78.409 0.98 10.448 0.98 10.448 0.181 -78.409
4043.333 0.179 -78.519 0.98 10.325 0.98 10.325 0.179 -78.519
4068.292 0.177 -78.627 0.981 10.203 0.981 10.203 0.177 -78.627
4093.25 0.175 -78.734 0.981 10.081 0.981 10.081 0.175 -78.734
4118.208 0.173 -78.839 0.981 9.961 0.981 9.961 0.173 -78.839
4143.167 0.171 -78.944 0.982 9.842 0.982 9.842 0.171 -78.944
4168.125 0.169 -79.047 0.982 9.724 0.982 9.724 0.169 -79.047
4193.083 0.167 -79.149 0.982 9.606 0.982 9.606 0.167 -79.149
4218.042 0.165 -79.25 0.983 9.49 0.983 9.49 0.165 -79.25
4243 0.163 -79.35 0.983 9.375 0.983 9.375 0.163 -79.35
4267.958 0.161 -79.448 0.983 9.26 0.983 9.26 0.161 -79.448
4292.917 0.159 -79.545 0.984 9.147 0.984 9.147 0.159 -79.545
4317.875 0.157 -79.641 0.984 9.034 0.984 9.034 0.157 -79.641
4342.833 0.155 -79.736 0.984 8.922 0.984 8.922 0.155 -79.736
4367.792 0.153 -79.83 0.985 8.811 0.985 8.811 0.153 -79.83
4392.75 0.151 -79.923 0.985 8.701 0.985 8.701 0.151 -79.923
4417.708 0.149 -80.014 0.985 8.592 0.985 8.592 0.149 -80.014
4442.667 0.148 -80.105 0.985 8.483 0.985 8.483 0.148 -80.105
4467.625 0.146 -80.194 0.986 8.376 0.986 8.376 0.146 -80.194
4492.583 0.144 -80.282 0.986 8.269 0.986 8.269 0.144 -80.282
4517.542 0.142 -80.369 0.986 8.163 0.986 8.163 0.142 -80.369
4542.5 0.14 -80.455 0.986 8.057 0.986 8.057 0.14 -80.455
4567.458 0.138 -80.54 0.987 7.953 0.987 7.953 0.138 -80.54
4592.417 0.137 -80.623 0.987 7.849 0.987 7.849 0.137 -80.623
4617.375 0.135 -80.706 0.987 7.746 0.987 7.746 0.135 -80.706
4642.333 0.133 -80.787 0.987 7.644 0.987 7.644 0.133 -80.787
4667.292 0.131 -80.867 0.988 7.542 0.988 7.542 0.131 -80.867
4692.25 0.13 -80.946 0.988 7.441 0.988 7.441 0.13 -80.946
4717.208 0.128 -81.024 0.988 7.341 0.988 7.341 0.128 -81.024
4742.167 0.126 -81.101 0.988 7.241 0.988 7.241 0.126 -81.101
4767.125 0.124 -81.177 0.989 7.143 0.989 7.143 0.124 -81.177
4792.083 0.123 -81.251 0.989 7.045 0.989 7.045 0.123 -81.251
4817.042 0.121 -81.325 0.989 6.947 0.989 6.947 0.121 -81.325
4842 0.119 -81.397 0.989 6.85 0.989 6.85 0.119 -81.397
4866.958 0.118 -81.468 0.989 6.754 0.989 6.754 0.118 -81.468
4891.917 0.116 -81.538 0.99 6.658 0.99 6.658 0.116 -81.538
4916.875 0.114 -81.606 0.99 6.563 0.99 6.563 0.114 -81.606
4941.833 0.113 -81.674 0.99 6.469 0.99 6.469 0.113 -81.674
4966.792 0.111 -81.74 0.99 6.375 0.99 6.375 0.111 -81.74
4991.75 0.109 -81.805 0.99 6.282 0.99 6.282 0.109 -81.805
5016.708 0.108 -81.869 0.991 6.19 0.991 6.19 0.108 -81.869
5041.667 0.106 -81.931 0.991 6.098 0.991 6.098 0.106 -81.931
5066.625 0.105 -81.992 0.991 6.006 0.991 6.006 0.105 -81.992
5091.583 0.103 -82.052 0.991 5.915 0.991 5.915 0.103 -82.052
5116.542 0.102 -82.111 0.991 5.825 0.991 5.825 0.102 -82.111
5141.5 0.1 -82.168 0.991 5.735 0.991 5.735 0.1 -82.168
5166.458 0.098 -82.224 0.991 5.646 0.991 5.646 0.098 -82.224
5191.417 0.097 -82.279 0.992 5.557 0.992 5.557 0.097 -82.279
5216.375 0.095 -82.332 0.992 5.469 0.992 5.469 0.095 -82.332
5241.333 0.094 -82.383 0.992 5.382 0.992 5.382 0.094 -82.383
5266.292 0.092 -82.433 0.992 5.294 0.992 5.294 0.092 -82.433
5291.25 0.091 -82.482 0.992 5.208 0.992 5.208 0.091 -82.482
5316.208 0.089 -82.529 0.992 5.122 0.992 5.122 0.089 -82.529
5341.167 0.088 -82.575 0.992 5.036 0.992 5.036 0.088 -82.575
5366.125 0.086 -82.619 0.993 4.951 0.993 4.951 0.086 -82.619
5391.083 0.085 -82.661 0.993 4.866 0.993 4.866 0.085 -82.661
5416.042 0.083 -82.701 0.993 4.782 0.993 4.782 0.083 -82.701
5441 0.082 -82.74 0.993 4.698 0.993 4.698 0.082 -82.74
5465.958 0.081 -82.777 0.993 4.615 0.993 4.615 0.081 -82.777
5490.917 0.079 -82.812 0.993 4.532 0.993 4.532 0.079 -82.812
5515.875 0.078 -82.845 0.993 4.45 0.993 4.45 0.078 -82.845
5540.833 0.076 -82.876 0.993 4.368 0.993 4.368 0.076 -82.876
5565.792 0.075 -82.905 0.994 4.287 0.994 4.287 0.075 -82.905
5590.75 0.073 -82.932 0.994 4.206 0.994 4.206 0.073 -82.932
5615.708 0.072 -82.957 0.994 4.125 0.994 4.125 0.072 -82.957
5640.667 0.071 -82.979 0.994 4.045 0.994 4.045 0.071 -82.979
5665.625 0.069 -82.999 0.994 3.965 0.994 3.965 0.069 -82.999
5690.583 0.068 -83.016 0.994 3.886 0.994 3.886 0.068 -83.016
5715.542 0.066 -83.03 0.994 3.807 0.994 3.807 0.066 -83.03
5740.5 0.065 -83.042 0.994 3.728 0.994 3.728 0.065 -83.042
5765.458 0.064 -83.051 0.994 3.65 0.994 3.65 0.064 -83.051
5790.417 0.062 -83.057 0.994 3.572 0.994 3.572 0.062 -83.057
5815.375 0.061 -83.06 0.994 3.495 0.994 3.495 0.061 -83.06
5840.333 0.06 -83.059 0.995 3.418 0.995 3.418 0.06 -83.059
5865.292 0.058 -83.055 0.995 3.341 0.995 3.341 0.058 -83.055
5890.25 0.057 -83.047 0.995 3.265 0.995 3.265 0.057 -83.047
5915.208 0.056 -83.036 0.995 3.189 0.995 3.189 0.056 -83.036
5940.167 0.054 -83.02 0.995 3.114 0.995 3.114 0.054 -83.02
5965.125 0.053 -82.999 0.995 3.039 0.995 3.039 0.053 -82.999
5990.083 0.052 -82.974 0.995 2.964 0.995 2.964 0.052 -82.974
6015.042 0.051 -82.944 0.995 2.889 0.995 2.889 0.051 -82.944
6040 0.049 -82.909 0.995 2.815 0.995 2.815 0.049 -82.909
6064.958 0.048 -82.868 0.995 2.742 0.995 2.742 0.048 -82.868
6089.917 0.047 -82.821 0.995 2.668 0.995 2.668 0.047 -82.821
6114.875 0.045 -82.767 0.995 2.595 0.995 2.595 0.045 -82.767
6139.833 0.044 -82.707 0.995 2.522 0.995 2.522 0.044 -82.707
6164.792 0.043 -82.638 0.995 2.45 0.995 2.45 0.043 -82.638
6189.75 0.042 -82.562 0.995 2.378 0.995 2.378 0.042 -82.562
6214.708 0.04 -82.477 0.996 2.306 0.996 2.306 0.04 -82.477
6239.667 0.039 -82.383 0.996 2.235 0.996 2.235 0.039 -82.383
6264.625 0.038 -82.278 0.996 2.164 0.996 2.164 0.038 -82.278
6289.583 0.037 -82.162 0.996 2.093 0.996 2.093 0.037 -82.162
6314.542 0.035 -82.033 0.996 2.022 0.996 2.022 0.035 -82.033
6339.5 0.034 -81.891 0.996 1.952 0.996 1.952 0.034 -81.891
6364.458 0.033 -81.734 0.996 1.882 0.996 1.882 0.033 -81.734
6389.417 0.032 -81.56 0.996 1.813 0.996 1.813 0.032 -81.56
6414.375 0.031 -81.368 0.996 1.743 0.996 1.743 0.031 -81.368
6439.333 0.029 -81.156 0.996 1.674 0.996 1.674 0.029 -81.156
6464.292 0.028 -80.921 0.996 1.605 0.996 1.605 0.028 -80.921
6489.25 0.027 -80.661 0.996 1.537 0.996 1.537 0.027 -80.661
6514.208 0.026 -80.371 0.996 1.469 0.996 1.469 0.026 -80.371
6539.167 0.025 -80.049 0.996 1.401 0.996 1.401 0.025 -80.049
6564.125 0.024 -79.69 0.996 1.333 0.996 1.333 0.024 -79.69
6589.083 0.022 -79.288 0.996 1.266 0.996 1.266 0.022 -79.288
6614.042 0.021 -78.837 0.996 1.199 0.996 1.199 0.021 -78.837
6639 0.02 -78.328 0.996 1.132 0.996 1.132 0.02 -78.328
6663.958 0.019 -77.752 0.996 1.066 0.996 1.066 0.019 -77.752
6688.917 0.018 -77.097 0.996 0.999 0.996 0.999 0.018 -77.097
6713.875 0.017 -76.347 0.996 0.933 0.996 0.933 0.017 -76.347
6738.833 0.016 -75.484 0.996 0.867 0.996 0.867 0.016 -75.484
6763.792 0.014 -74.481 0.996 0.802 0.996 0.802 0.014 -74.481
6788.75 0.013 -73.306 0.996 0.737 0.996 0.737 0.013 -73.306
6813.708 0.012 -71.915 0.996 0.672 0.996 0.672 0.012 -71.915
6838.667 0.011 -70.251 0.996 0.607 0.996 0.607 0.011 -70.251
6863.625 0.01 -68.231 0.996 0.542 0.996 0.542 0.01 -68.231
6888.583 9.118e-3 -65.741 0.996 0.478 0.996 0.478 9.118e-3 -65.741
6913.542 8.107e-3 -62.617 0.996 0.414 0.996 0.414 8.107e-3 -62.617
6938.5 7.132e-3 -58.619 0.996 0.35 0.996 0.35 7.132e-3 -58.619
6963.458 6.208e-3 -53.394 0.996 0.287 0.996 0.287 6.208e-3 -53.394
6988.417 5.357e-3 -46.435 0.996 0.223 0.996 0.223 5.357e-3 -46.435
7013.375 4.618e-3 -37.073 0.996 0.16 0.996 0.16 4.618e-3 -37.073
7038.333 4.049e-3 -24.669 0.996 0.097 0.996 0.097 4.049e-3 -24.669
7063.292 3.726e-3 -9.268 0.996 0.035 0.996 0.035 3.726e-3 -9.268
7088.25 3.709e-3 7.53 0.996 -0.028 0.996 -0.028 3.709e-3 7.53
7113.208 4e-3 23.087 0.996 -0.09 0.996 -0.09 4e-3 23.087
7138.167 4.536e-3 35.698 0.996 -0.152 0.996 -0.152 4.536e-3 35.698
7163.125 5.241e-3 45.239 0.996 -0.214 0.996 -0.214 5.241e-3 45.239
7188.083 6.055e-3 52.333 0.996 -0.276 0.996 -0.276 6.055e-3 52.333
7213.042 6.936e-3 57.653 0.996 -0.337 0.996 -0.337 6.936e-3 57.653
7238 7.862e-3 61.72 0.996 -0.398 0.996 -0.398 7.862e-3 61.72
7262.958 8.817e-3 64.895 0.996 -0.459 0.996 -0.459 8.817e-3 64.895
7287.917 9.79e-3 67.423 0.996 -0.52 0.996 -0.52 9.79e-3 67.423
7312.875 0.011 69.473 0.996 -0.58 0.996 -0.58 0.011 69.473
7337.833 0.012 71.162 0.996 -0.641 0.996 -0.641 0.012 71.162
7362.792 0.013 72.573 0.996 -0.701 0.996 -0.701 0.013 72.573
7387.75 0.014 73.766 0.996 -0.761 0.996 -0.761 0.014 73.766
7412.708 0.015 74.784 0.996 -0.821 0.996 -0.821 0.015 74.784
7437.667 0.016 75.662 0.996 -0.88 0.996 -0.88 0.016 75.662
7462.625 0.017 76.425 0.996 -0.94 0.996 -0.94 0.017 76.425
7487.583 0.018 77.093 0.996 -0.999 0.996 -0.999 0.018 77.093
7512.542 0.019 77.681 0.996 -1.058 0.996 -1.058 0.019 77.681
7537.5 0.02 78.201 0.996 -1.117 0.996 -1.117 0.02 78.201
7562.458 0.021 78.664 0.996 -1.175 0.996 -1.175 0.021 78.664
7587.417 0.022 79.078 0.996 -1.234 0.996 -1.234 0.022 79.078
7612.375 0.023 79.449 0.996 -1.292 0.996 -1.292 0.023 79.449
7637.333 0.024 79.783 0.996 -1.35 0.996 -1.35 0.024 79.783
7662.292 0.025 80.085 0.996 -1.408 0.996 -1.408 0.025 80.085
7687.25 0.026 80.358 0.996 -1.466 0.996 -1.466 0.026 80.358
7712.208 0.027 80.605 0.996 -1.523 0.996 -1.523 0.027 80.605
7737.167 0.028 80.83 0.996 -1.581 0.996 -1.581 0.028 80.83
7762.125 0.029 81.035 0.996 -1.638 0.996 -1.638 0.029 81.035
7787.083 0.03 81.222 0.996 -1.695 0.996 -1.695 0.03 81.222
7812.042 0.031 81.393 0.996 -1.752 0.996 -1.752 0.031 81.393
7837 0.032 81.55 0.996 -1.809 0.996 -1.809 0.032 81.55
7861.958 0.033 81.693 0.996 -1.865 0.996 -1.865 0.033 81.693
7886.917 0.034 81.824 0.996 -1.922 0.996 -1.922 0.034 81.824
7911.875 0.035 81.945 0.996 -1.978 0.996 -1.978 0.035 81.945
7936.833 0.036 82.055 0.996 -2.034 0.996 -2.034 0.036 82.055
7961.792 0.037 82.156 0.996 -2.09 0.996 -2.09 0.037 82.156
7986.75 0.038 82.249 0.996 -2.145 0.996 -2.145 0.038 82.249
8011.708 0.039 82.334 0.996 -2.201 0.996 -2.201 0.039 82.334
8036.667 0.04 82.413 0.996 -2.256 0.996 -2.256 0.04 82.413
8061.625 0.041 82.484 0.996 -2.312 0.996 -2.312 0.041 82.484
8086.583 0.041 82.55 0.995 -2.367 0.995 -2.367 0.041 82.55
8111.542 0.042 82.61 0.995 -2.422 0.995 -2.422 0.042 82.61
8136.5 0.043 82.665 0.995 -2.477 0.995 -2.477 0.043 82.665
8161.458 0.044 82.714 0.995 -2.531 0.995 -2.531 0.044 82.714
8186.417 0.045 82.76 0.995 -2.586 0.995 -2.586 0.045 82.76
