# MHZ S MA R 50

50 0.822 -34.65 0.569 55.296 0.569 55.296 0.822 -34.65
74.958 0.693 -46.016 0.72 43.903 0.72 43.903 0.693 -46.016
99.917 0.585 -54.092 0.81 35.8 0.81 35.8 0.585 -54.092
124.875 0.499 -59.911 0.865 29.953 0.865 29.953 0.499 -59.911
149.833 0.432 -64.222 0.9 25.614 0.9 25.614 0.432 -64.222
174.792 0.379 -67.509 0.924 22.299 0.924 22.299 0.379 -67.509
199.75 0.337 -70.083 0.94 19.698 0.94 19.698 0.337 -70.083
224.708 0.303 -72.144 0.952 17.609 0.952 17.609 0.303 -72.144
249.667 0.274 -73.828 0.96 15.897 0.96 15.897 0.274 -73.828
274.625 0.25 -75.227 0.967 14.469 0.967 14.469 0.25 -75.227
299.583 0.229 -76.407 0.972 13.261 0.972 13.261 0.229 -76.407
324.542 0.212 -77.413 0.976 12.225 0.976 12.225 0.212 -77.413
349.5 0.196 -78.282 0.979 11.327 0.979 11.327 0.196 -78.282
374.458 0.183 -79.038 0.982 10.541 0.982 10.541 0.183 -79.038
399.417 0.171 -79.702 0.984 9.846 0.984 9.846 0.171 -79.702
424.375 0.16 -80.289 0.986 9.228 0.986 9.228 0.16 -80.289
449.333 0.151 -80.812 0.987 8.674 0.987 8.674 0.151 -80.812
474.292 0.142 -81.28 0.988 8.174 0.988 8.174 0.142 -81.28
499.25 0.134 -81.701 0.99 7.72 0.99 7.72 0.134 -81.701
524.208 0.127 -82.082 0.991 7.307 0.991 7.307 0.127 -82.082
549.167 0.121 -82.427 0.991 6.928 0.991 6.928 0.121 -82.427
574.125 0.115 -82.742 0.992 6.579 0.992 6.579 0.115 -82.742
599.083 0.109 -83.029 0.993 6.256 0.993 6.256 0.109 -83.029
624.042 0.104 -83.292 0.993 5.957 0.993 5.957 0.104 -83.292
649 0.099 -83.533 0.994 5.679 0.994 5.679 0.099 -83.533
673.958 0.094 -83.755 0.994 5.419 0.994 5.419 0.094 -83.755
698.917 0.09 -83.959 0.995 5.175 0.995 5.175 0.09 -83.959
723.875 0.086 -84.148 0.995 4.947 0.995 4.947 0.086 -84.148
748.833 0.082 -84.321 0.995 4.732 0.995 4.732 0.082 -84.321
773.792 0.079 -84.482 0.996 4.528 0.996 4.528 0.079 -84.482
798.75 0.076 -84.63 0.996 4.336 0.996 4.336 0.076 -84.63
823.708 0.072 -84.767 0.996 4.154 0.996 4.154 0.072 -84.767
848.667 0.069 -84.893 0.996 3.981 0.996 3.981 0.069 -84.893
873.625 0.067 -85.009 0.996 3.816 0.996 3.816 0.067 -85.009
898.583 0.064 -85.115 0.997 3.659 0.997 3.659 0.064 -85.115
923.542 0.061 -85.213 0.997 3.509 0.997 3.509 0.061 -85.213
948.5 0.059 -85.302 0.997 3.365 0.997 3.365 0.059 -85.302
973.458 0.056 -85.382 0.997 3.228 0.997 3.228 0.056 -85.382
998.417 0.054 -85.455 0.997 3.096 0.997 3.096 0.054 -85.455
1023.375 0.052 -85.52 0.997 2.969 0.997 2.969 0.052 -85.52
1048.333 0.05 -85.577 0.997 2.847 0.997 2.847 0.05 -85.577
1073.292 0.048 -85.627 0.997 2.729 0.997 2.729 0.048 -85.627
1098.25 0.046 -85.669 0.998 2.615 0.998 2.615 0.046 -85.669
1123.208 0.044 -85.703 0.998 2.506 0.998 2.506 0.044 -85.703
1148.167 0.042 -85.73 0.998 2.4 0.998 2.4 0.042 -85.73
1173.125 0.04 -85.749 0.998 2.297 0.998 2.297 0.04 -85.749
1198.083 0.038 -85.76 0.998 2.197 0.998 2.197 0.038 -85.76
1223.042 0.037 -85.763 0.998 2.101 0.998 2.101 0.037 -85.763
1248 0.035 -85.757 0.998 2.007 0.998 2.007 0.035 -85.757
1272.958 0.033 -85.742 0.998 1.916 0.998 1.916 0.033 -85.742
1297.917 0.032 -85.717 0.998 1.827 0.998 1.827 0.032 -85.717
1322.875 0.03 -85.682 0.998 1.741 0.998 1.741 0.03 -85.682
1347.833 0.029 -85.635 0.998 1.657 0.998 1.657 0.029 -85.635
1372.792 0.028 -85.576 0.998 1.575 0.998 1.575 0.028 -85.576
1397.75 0.026 -85.504 0.998 1.495 0.998 1.495 0.026 -85.504
1422.708 0.025 -85.417 0.998 1.417 0.998 1.417 0.025 -85.417
1447.667 0.023 -85.314 0.998 1.341 0.998 1.341 0.023 -85.314
1472.625 0.022 -85.192 0.998 1.266 0.998 1.266 0.022 -85.192
1497.583 0.021 -85.049 0.998 1.193 0.998 1.193 0.021 -85.049
1522.542 0.02 -84.881 0.998 1.122 0.998 1.122 0.02 -84.881
1547.5 0.018 -84.686 0.998 1.052 0.998 1.052 0.018 -84.686
1572.458 0.017 -84.459 0.998 0.983 0.998 0.983 0.017 -84.459
1597.417 0.016 -84.193 0.999 0.916 0.999 0.916 0.016 -84.193
1622.375 0.015 -83.881 0.999 0.85 0.999 0.85 0.015 -83.881
1647.333 0.014 -83.513 0.999 0.785 0.999 0.785 0.014 -83.513
1672.292 0.013 -83.077 0.999 0.721 0.999 0.721 0.013 -83.077
1697.25 0.012 -82.556 0.999 0.659 0.999 0.659 0.012 -82.556
1722.208 0.011 -81.927 0.999 0.597 0.999 0.597 0.011 -81.927
1747.167 9.469e-3 -81.156 0.999 0.537 0.999 0.537 9.469e-3 -81.156
1772.125 8.442e-3 -80.196 0.999 0.477 0.999 0.477 8.442e-3 -80.196
1797.083 7.435e-3 -78.977 0.999 0.419 0.999 0.419 7.435e-3 -78.977
1822.042 6.447e-3 -77.387 0.999 0.361 0.999 0.361 6.447e-3 -77.387
1847 5.481e-3 -75.242 0.999 0.304 0.999 0.304 5.481e-3 -75.242
1871.958 4.541e-3 -72.215 0.999 0.248 0.999 0.248 4.541e-3 -72.215
1896.917 3.632e-3 -67.68 0.999 0.193 0.999 0.193 3.632e-3 -67.68
1921.875 2.774e-3 -60.314 0.999 0.138 0.999 0.138 2.774e-3 -60.314
1946.833 2.012e-3 -47.063 0.999 0.085 0.999 0.085 2.012e-3 -47.063
1971.792 1.474e-3 -21.806 0.999 0.031 0.999 0.031 1.474e-3 -21.806
1996.75 1.416e-3 14.975 0.999 -0.021 0.999 -0.021 1.416e-3 14.975
2021.708 1.867e-3 42.795 0.999 -0.073 0.999 -0.073 1.867e-3 42.795
2046.667 2.559e-3 57.556 0.999 -0.124 0.999 -0.124 2.559e-3 57.556
2071.625 3.338e-3 65.628 0.999 -0.174 0.999 -0.174 3.338e-3 65.628
2096.583 4.149e-3 70.52 0.999 -0.224 0.999 -0.224 4.149e-3 70.52
2121.542 4.971e-3 73.75 0.999 -0.274 0.999 -0.274 4.971e-3 73.75
2146.5 5.795e-3 76.022 0.999 -0.323 0.999 -0.323 5.795e-3 76.022
2171.458 6.618e-3 77.698 0.999 -0.371 0.999 -0.371 6.618e-3 77.698
2196.417 7.437e-3 78.98 0.999 -0.419 0.999 -0.419 7.437e-3 78.98
2221.375 8.25e-3 79.989 0.999 -0.466 0.999 -0.466 8.25e-3 79.989
2246.333 9.058e-3 80.8 0.999 -0.513 0.999 -0.513 9.058e-3 80.8
2271.292 9.86e-3 81.465 0.999 -0.559 0.999 -0.559 9.86e-3 81.465
2296.25 0.011 82.017 0.999 -0.605 0.999 -0.605 0.011 82.017
2321.208 0.011 82.483 0.999 -0.651 0.999 -0.651 0.011 82.483
2346.167 0.012 82.879 0.999 -0.696 0.999 -0.696 0.012 82.879
2371.125 0.013 83.219 0.999 -0.741 0.999 -0.741 0.013 83.219
2396.083 0.014 83.514 0.999 -0.785 0.999 -0.785 0.014 83.514
2421.042 0.015 83.771 0.999 -0.829 0.999 -0.829 0.015 83.771
2446 0.015 83.995 0.999 -0.873 0.999 -0.873 0.015 83.995
2470.958 0.016 84.193 0.999 -0.916 0.999 -0.916 0.016 84.193
2495.917 0.017 84.368 0.998 -0.959 0.998 -0.959 0.017 84.368
2520.875 0.018 84.523 0.998 -1.002 0.998 -1.002 0.018 84.523
2545.833 0.018 84.662 0.998 -1.044 0.998 -1.044 0.018 84.662
2570.792 0.019 84.785 0.998 -1.086 0.998 -1.086 0.019 84.785
2595.75 0.02 84.896 0.998 -1.127 0.998 -1.127 0.02 84.896
2620.708 0.02 84.994 0.998 -1.169 0.998 -1.169 0.02 84.994
2645.667 0.021 85.083 0.998 -1.21 0.998 -1.21 0.021 85.083
2670.625 0.022 85.163 0.998 -1.251 0.998 -1.251 0.022 85.163
2695.583 0.023 85.235 0.998 -1.291 0.998 -1.291 0.023 85.235
2720.542 0.023 85.299 0.998 -1.331 0.998 -1.331 0.023 85.299
2745.5 0.024 85.358 0.998 -1.371 0.998 -1.371 0.024 85.358
2770.458 0.025 85.41 0.998 -1.411 0.998 -1.411 0.025 85.41
2795.417 0.025 85.457 0.998 -1.451 0.998 -1.451 0.025 85.457
2820.375 0.026 85.499 0.998 -1.49 0.998 -1.49 0.026 85.499
2845.333 0.027 85.537 0.998 -1.529 0.998 -1.529 0.027 85.537
2870.292 0.027 85.57 0.998 -1.568 0.998 -1.568 0.027 85.57
2895.25 0.028 85.6 0.998 -1.606 0.998 -1.606 0.028 85.6
2920.208 0.029 85.627 0.998 -1.645 0.998 -1.645 0.029 85.627
2945.167 0.029 85.651 0.998 -1.683 0.998 -1.683 0.029 85.651
2970.125 0.03 85.672 0.998 -1.721 0.998 -1.721 0.03 85.672
2995.083 0.031 85.69 0.998 -1.758 0.998 -1.758 0.031 85.69
3020.042 0.031 85.706 0.998 -1.796 0.998 -1.796 0.031 85.706
3045 0.032 85.719 0.998 -1.833 0.998 -1.833 0.032 85.719
3069.958 0.033 85.731 0.998 -1.871 0.998 -1.871 0.033 85.731
3094.917 0.033 85.74 0.998 -1.908 0.998 -1.908 0.033 85.74
3119.875 0.034 85.748 0.998 -1.944 0.998 -1.944 0.034 85.748
3144.833 0.035 85.754 0.998 -1.981 0.998 -1.981 0.035 85.754
3169.792 0.035 85.758 0.998 -2.018 0.998 -2.018 0.035 85.758
3194.75 0.036 85.761 0.998 -2.054 0.998 -2.054 0.036 85.761
3219.708 0.036 85.763 0.998 -2.09 0.998 -2.09 0.036 85.763
3244.667 0.037 85.763 0.998 -2.126 0.998 -2.126 0.037 85.763
3269.625 0.038 85.762 0.998 -2.162 0.998 -2.162 0.038 85.762
3294.583 0.038 85.76 0.998 -2.198 0.998 -2.198 0.038 85.76
3319.542 0.039 85.757 0.998 -2.233 0.998 -2.233 0.039 85.757
3344.5 0.04 85.753 0.998 -2.269 0.998 -2.269 0.04 85.753
3369.458 0.04 85.748 0.998 -2.304 0.998 -2.304 0.04 85.748
3394.417 0.041 85.742 0.998 -2.339 0.998 -2.339 0.041 85.742
3419.375 0.041 85.736 0.998 -2.374 0.998 -2.374 0.041 85.736
3444.333 0.042 85.728 0.998 -2.409 0.998 -2.409 0.042 85.728
3469.292 0.043 85.72 0.998 -2.444 0.998 -2.444 0.043 85.72
3494.25 0.043 85.711 0.998 -2.478 0.998 -2.478 0.043 85.711
3519.208 0.044 85.701 0.998 -2.513 0.998 -2.513 0.044 85.701
3544.167 0.044 85.691 0.998 -2.547 0.998 -2.547 0.044 85.691
3569.125 0.045 85.68 0.998 -2.581 0.998 -2.581 0.045 85.68
3594.083 0.046 85.669 0.998 -2.616 0.998 -2.616 0.046 85.669
3619.042 0.046 85.657 0.998 -2.65 0.998 -2.65 0.046 85.657
3644 0.047 85.644 0.998 -2.684 0.998 -2.684 0.047 85.644
3668.958 0.047 85.631 0.998 -2.717 0.998 -2.717 0.047 85.631
3693.917 0.048 85.618 0.997 -2.751 0.997 -2.751 0.048 85.618
3718.875 0.049 85.604 0.997 -2.785 0.997 -2.785 0.049 85.604
3743.833 0.049 85.59 0.997 -2.818 0.997 -2.818 0.049 85.59
3768.792 0.05 85.575 0.997 -2.852 0.997 -2.852 0.05 85.575
3793.75 0.05 85.56 0.997 -2.885 0.997 -2.885 0.05 85.56
3818.708 0.051 85.544 0.997 -2.918 0.997 -2.918 0.051 85.544
3843.667 0.052 85.528 0.997 -2.951 0.997 -2.951 0.052 85.528
3868.625 0.052 85.512 0.997 -2.984 0.997 -2.984 0.052 85.512
3893.583 0.053 85.496 0.997 -3.017 0.997 -3.017 0.053 85.496
3918.542 0.053 85.479 0.997 -3.05 0.997 -3.05 0.053 85.479
3943.5 0.054 85.462 0.997 -3.083 0.997 -3.083 0.054 85.462
3968.458 0.054 85.444 0.997 -3.116 0.997 -3.116 0.054 85.444
3993.417 0.055 85.427 0.997 -3.148 0.997 -3.148 0.055 85.427
4018.375 0.056 85.409 0.997 -3.181 0.997 -3.181 0.056 85.409
4043.333 0.056 85.391 0.997 -3.213 0.997 -3.213 0.056 85.391
4068.292 0.057 85.372 0.997 -3.246 0.997 -3.246 0.057 85.372
4093.25 0.057 85.354 0.997 -3.278 0.997 -3.278 0.057 85.354
4118.208 0.058 85.335 0.997 -3.31 0.997 -3.31 0.058 85.335
4143.167 0.058 85.316 0.997 -3.342 0.997 -3.342 0.058 85.316
4168.125 0.059 85.296 0.997 -3.374 0.997 -3.374 0.059 85.296
4193.083 0.059 85.277 0.997 -3.406 0.997 -3.406 0.059 85.277
4218.042 0.06 85.257 0.997 -3.438 0.997 -3.438 0.06 85.257
4243 0.061 85.237 0.997 -3.47 0.997 -3.47 0.061 85.237
4267.958 0.061 85.217 0.997 -3.502 0.997 -3.502 0.061 85.217
4292.917 0.062 85.197 0.997 -3.533 0.997 -3.533 0.062 85.197
4317.875 0.062 85.177 0.997 -3.565 0.997 -3.565 0.062 85.177
4342.833 0.063 85.156 0.997 -3.597 0.997 -3.597 0.063 85.156
4367.792 0.063 85.136 0.997 -3.628 0.997 -3.628 0.063 85.136
4392.75 0.064 85.115 0.997 -3.659 0.997 -3.659 0.064 85.115
4417.708 0.064 85.094 0.997 -3.691 0.997 -3.691 0.064 85.094
4442.667 0.065 85.073 0.997 -3.722 0.997 -3.722 0.065 85.073
4467.625 0.065 85.052 0.996 -3.753 0.996 -3.753 0.065 85.052
4492.583 0.066 85.031 0.996 -3.785 0.996 -3.785 0.066 85.031
4517.542 0.067 85.009 0.996 -3.816 0.996 -3.816 0.067 85.009
4542.5 0.067 84.988 0.996 -3.847 0.996 -3.847 0.067 84.988
4567.458 0.068 84.966 0.996 -3.878 0.996 -3.878 0.068 84.966
4592.417 0.068 84.944 0.996 -3.909 0.996 -3.909 0.068 84.944
4617.375 0.069 84.922 0.996 -3.94 0.996 -3.94 0.069 84.922
4642.333 0.069 84.9 0.996 -3.97 0.996 -3.97 0.069 84.9
4667.292 0.07 84.878 0.996 -4.001 0.996 -4.001 0.07 84.878
4692.25 0.07 84.856 0.996 -4.032 0.996 -4.032 0.07 84.856
4717.208 0.071 84.834 0.996 -4.063 0.996 -4.063 0.071 84.834
4742.167 0.071 84.811 0.996 -4.093 0.996 -4.093 0.071 84.811
4767.125 0.072 84.789 0.996 -4.124 0.996 -4.124 0.072 84.789
4792.083 0.072 84.766 0.996 -4.154 0.996 -4.154 0.072 84.766
4817.042 0.073 84.744 0.996 -4.185 0.996 -4.185 0.073 84.744
4842 0.074 84.721 0.996 -4.215 0.996 -4.215 0.074 84.721
4866.958 0.074 84.698 0.996 -4.246 0.996 -4.246 0.074 84.698
4891.917 0.075 84.676 0.996 -4.276 0.996 -4.276 0.075 84.676
4916.875 0.075 84.653 0.996 -4.306 0.996 -4.306 0.075 84.653
4941.833 0.076 84.63 0.996 -4.337 0.996 -4.337 0.076 84.63
4966.792 0.076 84.607 0.996 -4.367 0.996 -4.367 0.076 84.607
4991.75 0.077 84.584 0.996 -4.397 0.996 -4.397 0.077 84.584
5016.708 0.077 84.56 0.996 -4.427 0.996 -4.427 0.077 84.56
5041.667 0.078 84.537 0.996 -4.457 0.996 -4.457 0.078 84.537
5066.625 0.078 84.514 0.996 -4.487 0.996 -4.487 0.078 84.514
5091.583 0.079 84.491 0.996 -4.517 0.996 -4.517 0.079 84.491
5116.542 0.079 84.467 0.995 -4.547 0.995 -4.547 0.079 84.467
5141.5 0.08 84.444 0.995 -4.577 0.995 -4.577 0.08 84.444
5166.458 0.08 84.42 0.995 -4.607 0.995 -4.607 0.08 84.42
5191.417 0.081 84.397 0.995 -4.637 0.995 -4.637 0.081 84.397
5216.375 0.081 84.373 0.995 -4.667 0.995 -4.667 0.081 84.373
5241.333 0.082 84.349 0.995 -4.696 0.995 -4.696 0.082 84.349
5266.292 0.082 84.326 0.995 -4.726 0.995 -4.726 0.082 84.326
5291.25 0.083 84.302 0.995 -4.756 0.995 -4.756 0.083 84.302
5316.208 0.083 84.278 0.995 -4.785 0.995 -4.785 0.083 84.278
5341.167 0.084 84.254 0.995 -4.815 0.995 -4.815 0.084 84.254
5366.125 0.084 84.231 0.995 -4.845 0.995 -4.845 0.084 84.231
5391.083 0.085 84.207 0.995 -4.874 0.995 -4.874 0.085 84.207
5416.042 0.085 84.183 0.995 -4.904 0.995 -4.904 0.085 84.183
5441 0.086 84.159 0.995 -4.933 0.995 -4.933 0.086 84.159
5465.958 0.087 84.135 0.995 -4.962 0.995 -4.962 0.087 84.135
5490.917 0.087 84.111 0.995 -4.992 0.995 -4.992 0.087 84.111
5515.875 0.088 84.087 0.995 -5.021 0.995 -5.021 0.088 84.087
5540.833 0.088 84.062 0.995 -5.051 0.995 -5.051 0.088 84.062
5565.792 0.089 84.038 0.995 -5.08 0.995 -5.08 0.089 84.038
5590.75 0.089 84.014 0.995 -5.109 0.995 -5.109 0.089 84.014
5615.708 0.09 83.99 0.995 -5.138 0.995 -5.138 0.09 83.99
5640.667 0.09 83.966 0.995 -5.168 0.995 -5.168 0.09 83.966
5665.625 0.091 83.941 0.995 -5.197 0.995 -5.197 0.091 83.941
5690.583 0.091 83.917 0.994 -5.226 0.994 -5.226 0.091 83.917
5715.542 0.092 83.893 0.994 -5.255 0.994 -5.255 0.092 83.893
5740.5 0.092 83.868 0.994 -5.284 0.994 -5.284 0.092 83.868
5765.458 0.093 83.844 0.994 -5.313 0.994 -5.313 0.093 83.844
5790.417 0.093 83.82 0.994 -5.342 0.994 -5.342 0.093 83.82
5815.375 0.094 83.795 0.994 -5.371 0.994 -5.371 0.094 83.795
5840.333 0.094 83.771 0.994 -5.4 0.994 -5.4 0.094 83.771
5865.292 0.095 83.746 0.994 -5.429 0.994 -5.429 0.095 83.746
5890.25 0.095 83.722 0.994 -5.458 0.994 -5.458 0.095 83.722
5915.208 0.096 83.697 0.994 -5.487 0.994 -5.487 0.096 83.697
5940.167 0.096 83.673 0.994 -5.516 0.994 -5.516 0.096 83.673
5965.125 0.097 83.648 0.994 -5.544 0.994 -5.544 0.097 83.648
5990.083 0.097 83.623 0.994 -5.573 0.994 -5.573 0.097 83.623
6015.042 0.098 83.599 0.994 -5.602 0.994 -5.602 0.098 83.599
6040 0.098 83.574 0.994 -5.631 0.994 -5.631 0.098 83.574
6064.958 0.099 83.55 0.994 -5.659 0.994 -5.659 0.099 83.55
6089.917 0.099 83.525 0.994 -5.688 0.994 -5.688 0.099 83.525
6114.875 0.1 83.5 0.994 -5.717 0.994 -5.717 0.1 83.5
6139.833 0.1 83.475 0.994 -5.745 0.994 -5.745 0.1 83.475
6164.792 0.101 83.451 0.994 -5.774 0.994 -5.774 0.101 83.451
6189.75 0.101 83.426 0.994 -5.803 0.994 -5.803 0.101 83.426
6214.708 0.102 83.401 0.993 -5.831 0.993 -5.831 0.102 83.401
6239.667 0.102 83.376 0.993 -5.86 0.993 -5.86 0.102 83.376
6264.625 0.103 83.352 0.993 -5.888 0.993 -5.888 0.103 83.352
6289.583 0.103 83.327 0.993 -5.917 0.993 -5.917 0.103 83.327
6314.542 0.104 83.302 0.993 -5.945 0.993 -5.945 0.104 83.302
6339.5 0.104 83.277 0.993 -5.974 0.993 -5.974 0.104 83.277
6364.458 0.105 83.252 0.993 -6.002 0.993 -6.002 0.105 83.252
6389.417 0.105 83.228 0.993 -6.03 0.993 -6.03 0.105 83.228
6414.375 0.106 83.203 0.993 -6.059 0.993 -6.059 0.106 83.203
6439.333 0.106 83.178 0.993 -6.087 0.993 -6.087 0.106 83.178
6464.292 0.107 83.153 0.993 -6.116 0.993 -6.116 0.107 83.153
6489.25 0.107 83.128 0.993 -6.144 0.993 -6.144 0.107 83.128
6514.208 0.108 83.103 0.993 -6.172 0.993 -6.172 0.108 83.103
6539.167 0.108 83.078 0.993 -6.2 0.993 -6.2 0.108 83.078
6564.125 0.109 83.053 0.993 -6.229 0.993 -6.229 0.109 83.053
6589.083 0.109 83.028 0.993 -6.257 0.993 -6.257 0.109 83.028
6614.042 0.109 83.003 0.993 -6.285 0.993 -6.285 0.109 83.003
6639 0.11 82.978 0.993 -6.313 0.993 -6.313 0.11 82.978
6663.958 0.11 82.953 0.993 -6.341 0.993 -6.341 0.11 82.953
6688.917 0.111 82.928 0.992 -6.37 0.992 -6.37 0.111 82.928
6713.875 0.111 82.903 0.992 -6.398 0.992 -6.398 0.111 82.903
6738.833 0.112 82.878 0.992 -6.426 0.992 -6.426 0.112 82.878
6763.792 0.112 82.853 0.992 -6.454 0.992 -6.454 0.112 82.853
6788.75 0.113 82.828 0.992 -6.482 0.992 -6.482 0.113 82.828
6813.708 0.113 82.803 0.992 -6.51 0.992 -6.51 0.113 82.803
6838.667 0.114 82.778 0.992 -6.538 0.992 -6.538 0.114 82.778
6863.625 0.114 82.753 0.992 -6.566 0.992 -6.566 0.114 82.753
6888.583 0.115 82.728 0.992 -6.594 0.992 -6.594 0.115 82.728
6913.542 0.115 82.703 0.992 -6.622 0.992 -6.622 0.115 82.703
6938.5 0.116 82.678 0.992 -6.65 0.992 -6.65 0.116 82.678
6963.458 0.116 82.653 0.992 -6.678 0.992 -6.678 0.116 82.653
6988.417 0.117 82.628 0.992 -6.706 0.992 -6.706 0.117 82.628
7013.375 0.117 82.602 0.992 -6.734 0.992 -6.734 0.117 82.602
7038.333 0.118 82.577 0.992 -6.761 0.992 -6.761 0.118 82.577
7063.292 0.118 82.552 0.992 -6.789 0.992 -6.789 0.118 82.552
7088.25 0.119 82.527 0.992 -6.817 0.992 -6.817 0.119 82.527
7113.208 0.119 82.502 0.992 -6.845 0.992 -6.845 0.119 82.502
7138.167 0.12 82.477 0.991 -6.873 0.991 -6.873 0.12 82.477
7163.125 0.12 82.452 0.991 -6.901 0.991 -6.901 0.12 82.452
7188.083 0.121 82.426 0.991 -6.928 0.991 -6.928 0.121 82.426
7213.042 0.121 82.401 0.991 -6.956 0.991 -6.956 0.121 82.401
7238 0.122 82.376 0.991 -6.984 0.991 -6.984 0.122 82.376
7262.958 0.122 82.351 0.991 -7.012 0.991 -7.012 0.122 82.351
7287.917 0.123 82.326 0.991 -7.039 0.991 -7.039 0.123 82.326
7312.875 0.123 82.301 0.991 -7.067 0.991 -7.067 0.123 82.301
7337.833 0.124 82.275 0.991 -7.095 0.991 -7.095 0.124 82.275
7362.792 0.124 82.25 0.991 -7.122 0.991 -7.122 0.124 82.25
7387.75 0.124 82.225 0.991 -7.15 0.991 -7.15 0.124 82.225
7412.708 0.125 82.2 0.991 -7.178 0.991 -7.178 0.125 82.2
7437.667 0.125 82.175 0.991 -7.205 0.991 -7.205 0.125 82.175
7462.625 0.126 82.15 0.991 -7.233 0.991 -7.233 0.126 82.15
7487.583 0.126 82.124 0.991 -7.26 0.991 -7.26 0.126 82.124
7512.542 0.127 82.099 0.991 -7.288 0.991 -7.288 0.127 82.099
7537.5 0.127 82.074 0.991 -7.315 0.991 -7.315 0.127 82.074
7562.458 0.128 82.049 0.99 -7.343 0.99 -7.343 0.128 82.049
7587.417 0.128 82.023 0.99 -7.371 0.99 -7.371 0.128 82.023
7612.375 0.129 81.998 0.99 -7.398 0.99 -7.398 0.129 81.998
7637.333 0.129 81.973 0.99 -7.426 0.99 -7.426 0.129 81.973
7662.292 0.13 81.948 0.99 -7.453 0.99 -7.453 0.13 81.948
7687.25 0.13 81.923 0.99 -7.48 0.99 -7.48 0.13 81.923
7712.208 0.131 81.897 0.99 -7.508 0.99 -7.508 0.131 81.897
7737.167 0.131 81.872 0.99 -7.535 0.99 -7.535 0.131 81.872
7762.125 0.132 81.847 0.99 -7.563 0.99 -7.563 0.132 81.847
7787.083 0.132 81.822 0.99 -7.59 0.99 -7.59 0.132 81.822
7812.042 0.133 81.796 0.99 -7.618 0.99 -7.618 0.133 81.796
7837 0.133 81.771 0.99 -7.645 0.99 -7.645 0.133 81.771
7861.958 0.134 81.746 0.99 -7.672 0.99 -7.672 0.134 81.746
7886.917 0.134 81.721 0.99 -7.7 0.99 -7.7 0.134 81.721
7911.875 0.134 81.695 0.99 -7.727 0.99 -7.727 0.134 81.695
7936.833 0.135 81.67 0.99 -7.754 0.99 -7.754 0.135 81.67
7961.792 0.135 81.645 0.989 -7.782 0.989 -7.782 0.135 81.645
7986.75 0.136 81.62 0.989 -7.809 0.989 -7.809 0.136 81.62
8011.708 0.136 81.594 0.989 -7.836 0.989 -7.836 0.136 81.594
8036.667 0.137 81.569 0.989 -7.863 0.989 -7.863 0.137 81.569
8061.625 0.137 81.544 0.989 -7.891 0.989 -7.891 0.137 81.544
8086.583 0.138 81.519 0.989 -7.918 0.989 -7.918 0.138 81.519
8111.542 0.138 81.493 0.989 -7.945 0.989 -7.945 0.138 81.493
8136.5 0.139 81.468 0.989 -7.972 0.989 -7.972 0.139 81.468
8161.458 0.139 81.443 0.989 -7.999 0.989 -7.999 0.139 81.443
8186.417 0.14 81.417 0.989 -8.027 0.989 -8.027 0.14 81.417
8211.375 0.14 81.392 0.989 -8.054 0.989 -8.054 0.14 81.392
8236.333 0.141 81.367 0.989 -8.081 0.989 -8.081 0.141 81.367
8261.292 0.141 81.342 0.989 -8.108 0.989 -8.108 0.141 81.342
8286.25 0.142 81.316 0.989 -8.135 0.989 -8.135 0.142 81.316
