# MHZ S MA R 50

50 0.996 -5.206 0.091 84.781 0.091 84.781 0.996 -5.206
74.958 0.991 -7.779 0.135 82.202 0.135 82.202 0.991 -7.779
99.917 0.984 -10.321 0.179 79.653 0.179 79.653 0.984 -10.321
124.875 0.975 -12.825 0.222 77.143 0.222 77.143 0.975 -12.825
149.833 0.964 -15.281 0.264 74.681 0.264 74.681 0.964 -15.281
174.792 0.953 -17.682 0.304 72.273 0.304 72.273 0.953 -17.682
199.75 0.939 -20.023 0.342 69.925 0.342 69.925 0.939 -20.023
224.708 0.925 -22.298 0.379 67.644 0.379 67.644 0.925 -22.298
249.667 0.909 -24.504 0.415 65.431 0.415 65.431 0.909 -24.504
274.625 0.893 -26.637 0.448 63.291 0.448 63.291 0.893 -26.637
299.583 0.877 -28.696 0.48 61.226 0.48 61.226 0.877 -28.696
324.542 0.859 -30.68 0.51 59.235 0.51 59.235 0.859 -30.68
349.5 0.842 -32.589 0.539 57.32 0.539 57.32 0.842 -32.589
374.458 0.824 -34.422 0.565 55.48 0.565 55.48 0.824 -34.422
399.417 0.806 -36.182 0.59 53.714 0.59 53.714 0.806 -36.182
424.375 0.788 -37.869 0.614 52.02 0.614 52.02 0.788 -37.869
449.333 0.77 -39.485 0.636 50.398 0.636 50.398 0.77 -39.485
474.292 0.753 -41.033 0.656 48.844 0.656 48.844 0.753 -41.033
499.25 0.736 -42.514 0.676 47.356 0.676 47.356 0.736 -42.514
524.208 0.719 -43.931 0.694 45.932 0.694 45.932 0.719 -43.931
549.167 0.702 -45.287 0.711 44.569 0.711 44.569 0.702 -45.287
574.125 0.685 -46.585 0.726 43.265 0.726 43.265 0.685 -46.585
599.083 0.669 -47.826 0.741 42.016 0.741 42.016 0.669 -47.826
624.042 0.654 -49.014 0.755 40.822 0.755 40.822 0.654 -49.014
649 0.638 -50.151 0.768 39.678 0.768 39.678 0.638 -50.151
673.958 0.624 -51.24 0.78 38.582 0.78 38.582 0.624 -51.24
698.917 0.609 -52.282 0.791 37.533 0.791 37.533 0.609 -52.282
723.875 0.595 -53.281 0.802 36.527 0.802 36.527 0.595 -53.281
748.833 0.582 -54.239 0.811 35.563 0.811 35.563 0.582 -54.239
773.792 0.568 -55.157 0.821 34.638 0.821 34.638 0.568 -55.157
798.75 0.556 -56.037 0.829 33.751 0.829 33.751 0.556 -56.037
823.708 0.543 -56.882 0.838 32.898 0.838 32.898 0.543 -56.882
848.667 0.531 -57.694 0.845 32.08 0.845 32.08 0.531 -57.694
873.625 0.519 -58.474 0.852 31.293 0.852 31.293 0.519 -58.474
898.583 0.508 -59.223 0.859 30.536 0.859 30.536 0.508 -59.223
923.542 0.497 -59.944 0.866 29.808 0.866 29.808 0.497 -59.944
948.5 0.486 -60.638 0.872 29.107 0.872 29.107 0.486 -60.638
973.458 0.476 -61.306 0.877 28.432 0.877 28.432 0.476 -61.306
998.417 0.466 -61.949 0.883 27.782 0.883 27.782 0.466 -61.949
1023.375 0.456 -62.569 0.888 27.154 0.888 27.154 0.456 -62.569
1048.333 0.447 -63.167 0.892 26.549 0.892 26.549 0.447 -63.167
1073.292 0.438 -63.744 0.897 25.965 0.897 25.965 0.438 -63.744
1098.25 0.429 -64.301 0.901 25.4 0.901 25.4 0.429 -64.301
1123.208 0.42 -64.839 0.905 24.855 0.905 24.855 0.42 -64.839
1148.167 0.412 -65.359 0.909 24.327 0.909 24.327 0.412 -65.359
1173.125 0.404 -65.862 0.913 23.817 0.913 23.817 0.404 -65.862
1198.083 0.396 -66.348 0.916 23.323 0.916 23.323 0.396 -66.348
1223.042 0.388 -66.818 0.919 22.845 0.919 22.845 0.388 -66.818
1248 0.381 -67.274 0.922 22.382 0.922 22.382 0.381 -67.274
1272.958 0.374 -67.715 0.925 21.933 0.925 21.933 0.374 -67.715
1297.917 0.366 -68.143 0.928 21.497 0.928 21.497 0.366 -68.143
1322.875 0.36 -68.557 0.931 21.075 0.931 21.075 0.36 -68.557
1347.833 0.353 -68.96 0.933 20.665 0.933 20.665 0.353 -68.96
1372.792 0.346 -69.35 0.936 20.266 0.936 20.266 0.346 -69.35
1397.75 0.34 -69.729 0.938 19.879 0.938 19.879 0.34 -69.729
1422.708 0.334 -70.097 0.94 19.503 0.94 19.503 0.334 -70.097
1447.667 0.328 -70.455 0.942 19.137 0.942 19.137 0.328 -70.455
1472.625 0.322 -70.802 0.944 18.781 0.944 18.781 0.322 -70.802
1497.583 0.316 -71.14 0.946 18.434 0.946 18.434 0.316 -71.14
1522.542 0.311 -71.469 0.948 18.097 0.948 18.097 0.311 -71.469
1547.5 0.305 -71.789 0.95 17.768 0.95 17.768 0.305 -71.789
1572.458 0.3 -72.101 0.952 17.448 0.952 17.448 0.3 -72.101
1597.417 0.295 -72.404 0.953 17.136 0.953 17.136 0.295 -72.404
1622.375 0.29 -72.7 0.955 16.832 0.955 16.832 0.29 -72.7
1647.333 0.285 -72.988 0.956 16.535 0.956 16.535 0.285 -72.988
1672.292 0.28 -73.269 0.958 16.245 0.958 16.245 0.28 -73.269
1697.25 0.275 -73.543 0.959 15.962 0.959 15.962 0.275 -73.543
1722.208 0.27 -73.81 0.96 15.685 0.96 15.685 0.27 -73.81
1747.167 0.266 -74.071 0.962 15.415 0.962 15.415 0.266 -74.071
1772.125 0.261 -74.325 0.963 15.151 0.963 15.151 0.261 -74.325
1797.083 0.257 -74.574 0.964 14.893 0.964 14.893 0.257 -74.574
1822.042 0.253 -74.816 0.965 14.641 0.965 14.641 0.253 -74.816
1847 0.249 -75.054 0.966 14.394 0.966 14.394 0.249 -75.054
1871.958 0.245 -75.285 0.967 14.152 0.967 14.152 0.245 -75.285
1896.917 0.241 -75.512 0.968 13.916 0.968 13.916 0.241 -75.512
1921.875 0.237 -75.733 0.969 13.684 0.969 13.684 0.237 -75.733
1946.833 0.233 -75.95 0.97 13.458 0.97 13.458 0.233 -75.95
1971.792 0.229 -76.162 0.971 13.235 0.971 13.235 0.229 -76.162
1996.75 0.225 -76.369 0.972 13.018 0.972 13.018 0.225 -76.369
2021.708 0.222 -76.572 0.973 12.804 0.973 12.804 0.222 -76.572
2046.667 0.218 -76.771 0.974 12.595 0.974 12.595 0.218 -76.771
2071.625 0.215 -76.965 0.974 12.39 0.974 12.39 0.215 -76.965
2096.583 0.211 -77.156 0.975 12.188 0.975 12.188 0.211 -77.156
2121.542 0.208 -77.342 0.976 11.99 0.976 11.99 0.208 -77.342
2146.5 0.204 -77.525 0.976 11.796 0.976 11.796 0.204 -77.525
2171.458 0.201 -77.704 0.977 11.606 0.977 11.606 0.201 -77.704
2196.417 0.198 -77.88 0.978 11.419 0.978 11.419 0.198 -77.88
2221.375 0.195 -78.052 0.978 11.235 0.978 11.235 0.195 -78.052
2246.333 0.192 -78.22 0.979 11.054 0.979 11.054 0.192 -78.22
2271.292 0.189 -78.386 0.98 10.876 0.98 10.876 0.189 -78.386
2296.25 0.186 -78.548 0.98 10.702 0.98 10.702 0.186 -78.548
2321.208 0.183 -78.707 0.981 10.53 0.981 10.53 0.183 -78.707
2346.167 0.18 -78.863 0.981 10.362 0.981 10.362 0.18 -78.863
2371.125 0.177 -79.016 0.982 10.195 0.982 10.195 0.177 -79.016
2396.083 0.174 -79.167 0.982 10.032 0.982 10.032 0.174 -79.167
2421.042 0.171 -79.314 0.983 9.871 0.983 9.871 0.171 -79.314
2446 0.169 -79.459 0.983 9.713 0.983 9.713 0.169 -79.459
2470.958 0.166 -79.601 0.984 9.557 0.984 9.557 0.166 -79.601
2495.917 0.163 -79.74 0.984 9.404 0.984 9.404 0.163 -79.74
2520.875 0.161 -79.877 0.985 9.253 0.985 9.253 0.161 -79.877
2545.833 0.158 -80.012 0.985 9.104 0.985 9.104 0.158 -80.012
2570.792 0.156 -80.144 0.985 8.957 0.985 8.957 0.156 -80.144
2595.75 0.153 -80.273 0.986 8.813 0.986 8.813 0.153 -80.273
2620.708 0.151 -80.4 0.986 8.67 0.986 8.67 0.151 -80.4
2645.667 0.148 -80.525 0.986 8.53 0.986 8.53 0.148 -80.525
2670.625 0.146 -80.648 0.987 8.391 0.987 8.391 0.146 -80.648
2695.583 0.144 -80.768 0.987 8.254 0.987 8.254 0.144 -80.768
2720.542 0.141 -80.887 0.988 8.12 0.988 8.12 0.141 -80.887
2745.5 0.139 -81.003 0.988 7.987 0.988 7.987 0.139 -81.003
2770.458 0.137 -81.117 0.988 7.856 0.988 7.856 0.137 -81.117
2795.417 0.134 -81.229 0.988 7.726 0.988 7.726 0.134 -81.229
2820.375 0.132 -81.339 0.989 7.598 0.989 7.598 0.132 -81.339
2845.333 0.13 -81.447 0.989 7.472 0.989 7.472 0.13 -81.447
2870.292 0.128 -81.553 0.989 7.348 0.989 7.348 0.128 -81.553
2895.25 0.126 -81.657 0.99 7.225 0.99 7.225 0.126 -81.657
2920.208 0.124 -81.759 0.99 7.103 0.99 7.103 0.124 -81.759
2945.167 0.122 -81.86 0.99 6.983 0.99 6.983 0.122 -81.86
2970.125 0.12 -81.958 0.99 6.865 0.99 6.865 0.12 -81.958
2995.083 0.118 -82.054 0.991 6.748 0.991 6.748 0.118 -82.054
3020.042 0.116 -82.149 0.991 6.632 0.991 6.632 0.116 -82.149
3045 0.114 -82.242 0.991 6.518 0.991 6.518 0.114 -82.242
3069.958 0.112 -82.333 0.991 6.405 0.991 6.405 0.112 -82.333
3094.917 0.11 -82.422 0.992 6.293 0.992 6.293 0.11 -82.422
3119.875 0.108 -82.509 0.992 6.182 0.992 6.182 0.108 -82.509
3144.833 0.106 -82.595 0.992 6.073 0.992 6.073 0.106 -82.595
3169.792 0.104 -82.679 0.992 5.965 0.992 5.965 0.104 -82.679
3194.75 0.102 -82.761 0.992 5.858 0.992 5.858 0.102 -82.761
3219.708 0.1 -82.841 0.993 5.752 0.993 5.752 0.1 -82.841
3244.667 0.098 -82.919 0.993 5.647 0.993 5.647 0.098 -82.919
3269.625 0.097 -82.996 0.993 5.544 0.993 5.544 0.097 -82.996
3294.583 0.095 -83.071 0.993 5.441 0.993 5.441 0.095 -83.071
3319.542 0.093 -83.144 0.993 5.34 0.993 5.34 0.093 -83.144
3344.5 0.091 -83.215 0.993 5.239 0.993 5.239 0.091 -83.215
3369.458 0.09 -83.285 0.994 5.14 0.994 5.14 0.09 -83.285
3394.417 0.088 -83.352 0.994 5.042 0.994 5.042 0.088 -83.352
3419.375 0.086 -83.418 0.994 4.944 0.994 4.944 0.086 -83.418
3444.333 0.085 -83.481 0.994 4.847 0.994 4.847 0.085 -83.481
3469.292 0.083 -83.543 0.994 4.752 0.994 4.752 0.083 -83.543
3494.25 0.081 -83.603 0.994 4.657 0.994 4.657 0.081 -83.603
3519.208 0.08 -83.661 0.994 4.563 0.994 4.563 0.08 -83.661
3544.167 0.078 -83.717 0.994 4.47 0.994 4.47 0.078 -83.717
3569.125 0.076 -83.771 0.995 4.378 0.995 4.378 0.076 -83.771
3594.083 0.075 -83.823 0.995 4.287 0.995 4.287 0.075 -83.823
3619.042 0.073 -83.872 0.995 4.196 0.995 4.196 0.073 -83.872
3644 0.072 -83.92 0.995 4.107 0.995 4.107 0.072 -83.92
3668.958 0.07 -83.965 0.995 4.018 0.995 4.018 0.07 -83.965
3693.917 0.069 -84.008 0.995 3.93 0.995 3.93 0.069 -84.008
3718.875 0.067 -84.048 0.995 3.842 0.995 3.842 0.067 -84.048
3743.833 0.066 -84.086 0.995 3.756 0.995 3.756 0.066 -84.086
3768.792 0.064 -84.121 0.995 3.67 0.995 3.67 0.064 -84.121
3793.75 0.063 -84.154 0.996 3.585 0.996 3.585 0.063 -84.154
3818.708 0.061 -84.184 0.996 3.5 0.996 3.5 0.061 -84.184
3843.667 0.06 -84.21 0.996 3.416 0.996 3.416 0.06 -84.21
3868.625 0.058 -84.234 0.996 3.333 0.996 3.333 0.058 -84.234
3893.583 0.057 -84.255 0.996 3.251 0.996 3.251 0.057 -84.255
3918.542 0.055 -84.272 0.996 3.169 0.996 3.169 0.055 -84.272
3943.5 0.054 -84.286 0.996 3.088 0.996 3.088 0.054 -84.286
3968.458 0.053 -84.296 0.996 3.007 0.996 3.007 0.053 -84.296
3993.417 0.051 -84.303 0.996 2.927 0.996 2.927 0.051 -84.303
4018.375 0.05 -84.305 0.996 2.848 0.996 2.848 0.05 -84.305
4043.333 0.048 -84.303 0.996 2.769 0.996 2.769 0.048 -84.303
4068.292 0.047 -84.296 0.996 2.691 0.996 2.691 0.047 -84.296
4093.25 0.046 -84.284 0.996 2.613 0.996 2.613 0.046 -84.284
4118.208 0.044 -84.267 0.997 2.536 0.997 2.536 0.044 -84.267
4143.167 0.043 -84.244 0.997 2.46 0.997 2.46 0.043 -84.244
4168.125 0.042 -84.215 0.997 2.384 0.997 2.384 0.042 -84.215
4193.083 0.04 -84.179 0.997 2.308 0.997 2.308 0.04 -84.179
4218.042 0.039 -84.137 0.997 2.233 0.997 2.233 0.039 -84.137
4243 0.038 -84.086 0.997 2.159 0.997 2.159 0.038 -84.086
4267.958 0.036 -84.027 0.997 2.085 0.997 2.085 0.036 -84.027
4292.917 0.035 -83.959 0.997 2.012 0.997 2.012 0.035 -83.959
4317.875 0.034 -83.881 0.997 1.939 0.997 1.939 0.034 -83.881
4342.833 0.033 -83.792 0.997 1.866 0.997 1.866 0.033 -83.792
4367.792 0.031 -83.69 0.997 1.794 0.997 1.794 0.031 -83.69
4392.75 0.03 -83.575 0.997 1.723 0.997 1.723 0.03 -83.575
4417.708 0.029 -83.444 0.997 1.652 0.997 1.652 0.029 -83.444
4442.667 0.028 -83.297 0.997 1.581 0.997 1.581 0.028 -83.297
4467.625 0.026 -83.13 0.997 1.511 0.997 1.511 0.026 -83.13
4492.583 0.025 -82.942 0.997 1.441 0.997 1.441 0.025 -82.942
4517.542 0.024 -82.73 0.997 1.372 0.997 1.372 0.024 -82.73
4542.5 0.023 -82.489 0.997 1.303 0.997 1.303 0.023 -82.489
4567.458 0.022 -82.216 0.997 1.234 0.997 1.234 0.022 -82.216
4592.417 0.021 -81.905 0.997 1.166 0.997 1.166 0.021 -81.905
4617.375 0.019 -81.551 0.997 1.099 0.997 1.099 0.019 -81.551
4642.333 0.018 -81.144 0.997 1.031 0.997 1.031 0.018 -81.144
4667.292 0.017 -80.676 0.997 0.965 0.997 0.965 0.017 -80.676
4692.25 0.016 -80.133 0.997 0.898 0.997 0.898 0.016 -80.133
4717.208 0.015 -79.499 0.997 0.832 0.997 0.832 0.015 -79.499
4742.167 0.014 -78.752 0.997 0.766 0.997 0.766 0.014 -78.752
4767.125 0.012 -77.864 0.997 0.701 0.997 0.701 0.012 -77.864
4792.083 0.011 -76.795 0.997 0.636 0.997 0.636 0.011 -76.795
4817.042 0.01 -75.488 0.997 0.571 0.997 0.571 0.01 -75.488
4842 9.183e-3 -73.865 0.997 0.507 0.997 0.507 9.183e-3 -73.865
4866.958 8.113e-3 -71.803 0.997 0.443 0.997 0.443 8.113e-3 -71.803
4891.917 7.063e-3 -69.117 0.998 0.379 0.998 0.379 7.063e-3 -69.117
4916.875 6.041e-3 -65.506 0.998 0.316 0.998 0.316 6.041e-3 -65.506
4941.833 5.058e-3 -60.461 0.998 0.253 0.998 0.253 5.058e-3 -60.461
4966.792 4.138e-3 -53.094 0.998 0.19 0.998 0.19 4.138e-3 -53.094
4991.75 3.33e-3 -41.89 0.998 0.128 0.998 0.128 3.33e-3 -41.89
5016.708 2.727e-3 -24.792 0.998 0.066 0.998 0.066 2.727e-3 -24.792
5041.667 2.475e-3 -1.589 0.998 3.941e-3 0.998 3.941e-3 2.475e-3 -1.589
5066.625 2.67e-3 22.016 0.998 -0.057 0.998 -0.057 2.67e-3 22.016
5091.583 3.226e-3 39.802 0.998 -0.119 0.998 -0.119 3.226e-3 39.802
5116.542 3.991e-3 51.513 0.998 -0.179 0.998 -0.179 3.991e-3 51.513
5141.5 4.865e-3 59.19 0.998 -0.24 0.998 -0.24 4.865e-3 59.19
5166.458 5.795e-3 64.425 0.998 -0.3 0.998 -0.3 5.795e-3 64.425
5191.417 6.756e-3 68.158 0.998 -0.36 0.998 -0.36 6.756e-3 68.158
5216.375 7.735e-3 70.925 0.997 -0.42 0.997 -0.42 7.735e-3 70.925
5241.333 8.723e-3 73.045 0.997 -0.479 0.997 -0.479 8.723e-3 73.045
5266.292 9.717e-3 74.712 0.997 -0.538 0.997 -0.538 9.717e-3 74.712
5291.25 0.011 76.052 0.997 -0.597 0.997 -0.597 0.011 76.052
5316.208 0.012 77.149 0.997 -0.656 0.997 -0.656 0.012 77.149
5341.167 0.013 78.061 0.997 -0.714 0.997 -0.714 0.013 78.061
5366.125 0.014 78.828 0.997 -0.772 0.997 -0.772 0.014 78.828
5391.083 0.015 79.48 0.997 -0.83 0.997 -0.83 0.015 79.48
5416.042 0.016 80.04 0.997 -0.888 0.997 -0.888 0.016 80.04
5441 0.017 80.525 0.997 -0.945 0.997 -0.945 0.017 80.525
5465.958 0.018 80.948 0.997 -1.002 0.997 -1.002 0.018 80.948
5490.917 0.019 81.318 0.997 -1.059 0.997 -1.059 0.019 81.318
5515.875 0.02 81.644 0.997 -1.116 0.997 -1.116 0.02 81.644
5540.833 0.021 81.932 0.997 -1.172 0.997 -1.172 0.021 81.932
5565.792 0.022 82.189 0.997 -1.228 0.997 -1.228 0.022 82.189
5590.75 0.023 82.417 0.997 -1.284 0.997 -1.284 0.023 82.417
5615.708 0.024 82.621 0.997 -1.34 0.997 -1.34 0.024 82.621
5640.667 0.024 82.804 0.997 -1.395 0.997 -1.395 0.024 82.804
5665.625 0.025 82.969 0.997 -1.45 0.997 -1.45 0.025 82.969
5690.583 0.026 83.117 0.997 -1.505 0.997 -1.505 0.026 83.117
5715.542 0.027 83.25 0.997 -1.56 0.997 -1.56 0.027 83.25
5740.5 0.028 83.37 0.997 -1.615 0.997 -1.615 0.028 83.37
5765.458 0.029 83.478 0.997 -1.669 0.997 -1.669 0.029 83.478
5790.417 0.03 83.576 0.997 -1.723 0.997 -1.723 0.03 83.576
5815.375 0.031 83.664 0.997 -1.777 0.997 -1.777 0.031 83.664
5840.333 0.032 83.744 0.997 -1.831 0.997 -1.831 0.032 83.744
5865.292 0.033 83.816 0.997 -1.885 0.997 -1.885 0.033 83.816
5890.25 0.034 83.88 0.997 -1.938 0.997 -1.938 0.034 83.88
5915.208 0.035 83.939 0.997 -1.991 0.997 -1.991 0.035 83.939
5940.167 0.036 83.991 0.997 -2.044 0.997 -2.044 0.036 83.991
5965.125 0.037 84.038 0.997 -2.097 0.997 -2.097 0.037 84.038
5990.083 0.038 84.079 0.997 -2.15 0.997 -2.15 0.038 84.079
6015.042 0.039 84.117 0.997 -2.202 0.997 -2.202 0.039 84.117
6040 0.039 84.149 0.997 -2.254 0.997 -2.254 0.039 84.149
6064.958 0.04 84.178 0.997 -2.306 0.997 -2.306 0.04 84.178
6089.917 0.041 84.204 0.997 -2.358 0.997 -2.358 0.041 84.204
6114.875 0.042 84.226 0.997 -2.41 0.997 -2.41 0.042 84.226
6139.833 0.043 84.245 0.997 -2.462 0.997 -2.462 0.043 84.245
6164.792 0.044 84.261 0.997 -2.513 0.997 -2.513 0.044 84.261
6189.75 0.045 84.274 0.997 -2.564 0.997 -2.564 0.045 84.274
6214.708 0.046 84.284 0.996 -2.615 0.996 -2.615 0.046 84.284
6239.667 0.047 84.293 0.996 -2.666 0.996 -2.666 0.047 84.293
6264.625 0.047 84.299 0.996 -2.717 0.996 -2.717 0.047 84.299
6289.583 0.048 84.303 0.996 -2.767 0.996 -2.767 0.048 84.303
6314.542 0.049 84.305 0.996 -2.818 0.996 -2.818 0.049 84.305
6339.5 0.05 84.305 0.996 -2.868 0.996 -2.868 0.05 84.305
6364.458 0.051 84.303 0.996 -2.918 0.996 -2.918 0.051 84.303
6389.417 0.052 84.3 0.996 -2.968 0.996 -2.968 0.052 84.3
6414.375 0.053 84.295 0.996 -3.018 0.996 -3.018 0.053 84.295
6439.333 0.054 84.289 0.996 -3.067 0.996 -3.067 0.054 84.289
6464.292 0.054 84.282 0.996 -3.117 0.996 -3.117 0.054 84.282
6489.25 0.055 84.273 0.996 -3.166 0.996 -3.166 0.055 84.273
6514.208 0.056 84.263 0.996 -3.215 0.996 -3.215 0.056 84.263
6539.167 0.057 84.252 0.996 -3.264 0.996 -3.264 0.057 84.252
6564.125 0.058 84.24 0.996 -3.313 0.996 -3.313 0.058 84.24
6589.083 0.059 84.226 0.996 -3.362 0.996 -3.362 0.059 84.226
6614.042 0.06 84.212 0.996 -3.41 0.996 -3.41 0.06 84.212
6639 0.06 84.197 0.996 -3.459 0.996 -3.459 0.06 84.197
6663.958 0.061 84.181 0.996 -3.507 0.996 -3.507 0.061 84.181
6688.917 0.062 84.164 0.996 -3.555 0.996 -3.555 0.062 84.164
6713.875 0.063 84.147 0.996 -3.603 0.996 -3.603 0.063 84.147
6738.833 0.064 84.129 0.996 -3.651 0.996 -3.651 0.064 84.129
6763.792 0.065 84.11 0.995 -3.699 0.995 -3.699 0.065 84.11
6788.75 0.065 84.09 0.995 -3.746 0.995 -3.746 0.065 84.09
6813.708 0.066 84.069 0.995 -3.794 0.995 -3.794 0.066 84.069
6838.667 0.067 84.048 0.995 -3.841 0.995 -3.841 0.067 84.048
6863.625 0.068 84.027 0.995 -3.888 0.995 -3.888 0.068 84.027
6888.583 0.069 84.005 0.995 -3.936 0.995 -3.936 0.069 84.005
6913.542 0.069 83.982 0.995 -3.983 0.995 -3.983 0.069 83.982
6938.5 0.07 83.959 0.995 -4.029 0.995 -4.029 0.07 83.959
6963.458 0.071 83.935 0.995 -4.076 0.995 -4.076 0.071 83.935
6988.417 0.072 83.911 0.995 -4.123 0.995 -4.123 0.072 83.911
7013.375 0.073 83.887 0.995 -4.169 0.995 -4.169 0.073 83.887
7038.333 0.074 83.862 0.995 -4.216 0.995 -4.216 0.074 83.862
7063.292 0.074 83.837 0.995 -4.262 0.995 -4.262 0.074 83.837
7088.25 0.075 83.811 0.995 -4.308 0.995 -4.308 0.075 83.811
7113.208 0.076 83.785 0.995 -4.354 0.995 -4.354 0.076 83.785
7138.167 0.077 83.758 0.995 -4.4 0.995 -4.4 0.077 83.758
7163.125 0.078 83.732 0.995 -4.446 0.995 -4.446 0.078 83.732
7188.083 0.078 83.704 0.994 -4.492 0.994 -4.492 0.078 83.704
7213.042 0.079 83.677 0.994 -4.537 0.994 -4.537 0.079 83.677
7238 0.08 83.649 0.994 -4.583 0.994 -4.583 0.08 83.649
7262.958 0.081 83.621 0.994 -4.628 0.994 -4.628 0.081 83.621
7287.917 0.082 83.593 0.994 -4.673 0.994 -4.673 0.082 83.593
7312.875 0.082 83.565 0.994 -4.719 0.994 -4.719 0.082 83.565
7337.833 0.083 83.536 0.994 -4.764 0.994 -4.764 0.083 83.536
7362.792 0.084 83.507 0.994 -4.809 0.994 -4.809 0.084 83.507
7387.75 0.085 83.478 0.994 -4.853 0.994 -4.853 0.085 83.478
7412.708 0.085 83.448 0.994 -4.898 0.994 -4.898 0.085 83.448
7437.667 0.086 83.419 0.994 -4.943 0.994 -4.943 0.086 83.419
7462.625 0.087 83.389 0.994 -4.987 0.994 -4.987 0.087 83.389
7487.583 0.088 83.359 0.994 -5.032 0.994 -5.032 0.088 83.359
7512.542 0.089 83.328 0.994 -5.076 0.994 -5.076 0.089 83.328
7537.5 0.089 83.298 0.994 -5.12 0.994 -5.12 0.089 83.298
7562.458 0.09 83.267 0.993 -5.165 0.993 -5.165 0.09 83.267
7587.417 0.091 83.237 0.993 -5.209 0.993 -5.209 0.091 83.237
7612.375 0.092 83.206 0.993 -5.253 0.993 -5.253 0.092 83.206
7637.333 0.092 83.175 0.993 -5.296 0.993 -5.296 0.092 83.175
7662.292 0.093 83.144 0.993 -5.34 0.993 -5.34 0.093 83.144
7687.25 0.094 83.112 0.993 -5.384 0.993 -5.384 0.094 83.112
7712.208 0.095 83.081 0.993 -5.428 0.993 -5.428 0.095 83.081
7737.167 0.095 83.049 0.993 -5.471 0.993 -5.471 0.095 83.049
7762.125 0.096 83.018 0.993 -5.514 0.993 -5.514 0.096 83.018
7787.083 0.097 82.986 0.993 -5.558 0.993 -5.558 0.097 82.986
7812.042 0.098 82.954 0.993 -5.601 0.993 -5.601 0.098 82.954
7837 0.098 82.922 0.993 -5.644 0.993 -5.644 0.098 82.922
7861.958 0.099 82.89 0.993 -5.687 0.993 -5.687 0.099 82.89
7886.917 0.1 82.857 0.993 -5.73 0.993 -5.73 0.1 82.857
7911.875 0.101 82.825 0.992 -5.773 0.992 -5.773 0.101 82.825
7936.833 0.101 82.793 0.992 -5.816 0.992 -5.816 0.101 82.793
7961.792 0.102 82.76 0.992 -5.859 0.992 -5.859 0.102 82.76
7986.75 0.103 82.728 0.992 -5.901 0.992 -5.901 0.103 82.728
8011.708 0.104 82.695 0.992 -5.944 0.992 -5.944 0.104 82.695
8036.667 0.104 82.662 0.992 -5.986 0.992 -5.986 0.104 82.662
8061.625 0.105 82.629 0.992 -6.029 0.992 -6.029 0.105 82.629
8086.583 0.106 82.596 0.992 -6.071 0.992 -6.071 0.106 82.596
8111.542 0.107 82.563 0.992 -6.113 0.992 -6.113 0.107 82.563
8136.5 0.107 82.53 0.992 -6.155 0.992 -6.155 0.107 82.53
8161.458 0.108 82.497 0.992 -6.197 0.992 -6.197 0.108 82.497
8186.417 0.109 82.464 0.992 -6.239 0.992 -6.239 0.109 82.464
8211.375 0.109 82.431 0.992 -6.281 0.992 -6.281 0.109 82.431
8236.333 0.11 82.398 0.991 -6.323 0.991 -6.323 0.11 82.398
