# MHZ S MA R 50

50 1 -1.799 0.031 88.191 0.031 88.191 1 -1.799
74.958 0.999 -2.697 0.047 87.289 0.047 87.289 0.999 -2.697
99.917 0.998 -3.593 0.063 86.389 0.063 86.389 0.998 -3.593
124.875 0.997 -4.487 0.078 85.489 0.078 85.489 0.997 -4.487
149.833 0.996 -5.38 0.094 84.592 0.094 84.592 0.996 -5.38
174.792 0.994 -6.27 0.109 83.698 0.109 83.698 0.994 -6.27
199.75 0.992 -7.157 0.125 82.806 0.125 82.806 0.992 -7.157
224.708 0.99 -8.041 0.14 81.917 0.14 81.917 0.99 -8.041
249.667 0.988 -8.922 0.155 81.031 0.155 81.031 0.988 -8.922
274.625 0.985 -9.799 0.17 80.15 0.17 80.15 0.985 -9.799
299.583 0.983 -10.672 0.185 79.272 0.185 79.272 0.983 -10.672
324.542 0.98 -11.54 0.2 78.399 0.2 78.399 0.98 -11.54
349.5 0.976 -12.403 0.215 77.531 0.215 77.531 0.976 -12.403
374.458 0.973 -13.261 0.229 76.669 0.229 76.669 0.973 -13.261
399.417 0.969 -14.114 0.244 75.811 0.244 75.811 0.969 -14.114
424.375 0.966 -14.961 0.258 74.959 0.258 74.959 0.966 -14.961
449.333 0.962 -15.802 0.272 74.114 0.272 74.114 0.962 -15.802
474.292 0.958 -16.637 0.286 73.274 0.286 73.274 0.958 -16.637
499.25 0.953 -17.465 0.3 72.441 0.3 72.441 0.953 -17.465
524.208 0.949 -18.287 0.314 71.615 0.314 71.615 0.949 -18.287
549.167 0.944 -19.101 0.327 70.795 0.327 70.795 0.944 -19.101
574.125 0.94 -19.909 0.341 69.983 0.341 69.983 0.94 -19.909
599.083 0.935 -20.709 0.354 69.178 0.354 69.178 0.935 -20.709
624.042 0.93 -21.502 0.367 68.381 0.367 68.381 0.93 -21.502
649 0.924 -22.287 0.379 67.591 0.379 67.591 0.924 -22.287
673.958 0.919 -23.064 0.392 66.809 0.392 66.809 0.919 -23.064
698.917 0.914 -23.833 0.404 66.035 0.404 66.035 0.914 -23.833
723.875 0.908 -24.594 0.416 65.27 0.416 65.27 0.908 -24.594
748.833 0.903 -25.347 0.428 64.512 0.428 64.512 0.903 -25.347
773.792 0.897 -26.092 0.44 63.762 0.44 63.762 0.897 -26.092
798.75 0.891 -26.828 0.451 63.021 0.451 63.021 0.891 -26.828
823.708 0.885 -27.556 0.463 62.288 0.463 62.288 0.885 -27.556
848.667 0.879 -28.276 0.474 61.564 0.474 61.564 0.879 -28.276
873.625 0.873 -28.987 0.485 60.848 0.485 60.848 0.873 -28.987
898.583 0.867 -29.689 0.495 60.141 0.495 60.141 0.867 -29.689
923.542 0.861 -30.383 0.506 59.442 0.506 59.442 0.861 -30.383
948.5 0.855 -31.068 0.516 58.752 0.516 58.752 0.855 -31.068
973.458 0.849 -31.745 0.526 58.071 0.526 58.071 0.849 -31.745
998.417 0.842 -32.413 0.536 57.398 0.536 57.398 0.842 -32.413
1023.375 0.836 -33.072 0.546 56.733 0.546 56.733 0.836 -33.072
1048.333 0.83 -33.723 0.555 56.078 0.555 56.078 0.83 -33.723
1073.292 0.823 -34.366 0.564 55.43 0.564 55.43 0.823 -34.366
1098.25 0.817 -35 0.574 54.791 0.574 54.791 0.817 -35
1123.208 0.811 -35.625 0.582 54.161 0.582 54.161 0.811 -35.625
1148.167 0.804 -36.242 0.591 53.539 0.591 53.539 0.804 -36.242
1173.125 0.798 -36.851 0.6 52.925 0.6 52.925 0.798 -36.851
1198.083 0.791 -37.452 0.608 52.32 0.608 52.32 0.791 -37.452
1223.042 0.785 -38.044 0.616 51.723 0.616 51.723 0.785 -38.044
1248 0.779 -38.628 0.624 51.134 0.624 51.134 0.779 -38.628
1272.958 0.772 -39.204 0.632 50.553 0.632 50.553 0.772 -39.204
1297.917 0.766 -39.772 0.64 49.98 0.64 49.98 0.766 -39.772
1322.875 0.759 -40.332 0.647 49.415 0.647 49.415 0.759 -40.332
1347.833 0.753 -40.884 0.655 48.857 0.655 48.857 0.753 -40.884
1372.792 0.747 -41.429 0.662 48.308 0.662 48.308 0.747 -41.429
1397.75 0.74 -41.965 0.669 47.766 0.669 47.766 0.74 -41.965
1422.708 0.734 -42.494 0.676 47.232 0.676 47.232 0.734 -42.494
1447.667 0.728 -43.016 0.682 46.705 0.682 46.705 0.728 -43.016
1472.625 0.722 -43.53 0.689 46.186 0.689 46.186 0.722 -43.53
1497.583 0.715 -44.037 0.695 45.673 0.695 45.673 0.715 -44.037
1522.542 0.709 -44.537 0.701 45.169 0.701 45.169 0.709 -44.537
1547.5 0.703 -45.03 0.707 44.671 0.707 44.671 0.703 -45.03
1572.458 0.697 -45.516 0.713 44.18 0.713 44.18 0.697 -45.516
1597.417 0.691 -45.994 0.719 43.696 0.719 43.696 0.691 -45.994
1622.375 0.685 -46.466 0.725 43.219 0.725 43.219 0.685 -46.466
1647.333 0.679 -46.932 0.731 42.748 0.731 42.748 0.679 -46.932
1672.292 0.673 -47.39 0.736 42.284 0.736 42.284 0.673 -47.39
1697.25 0.667 -47.842 0.741 41.827 0.741 41.827 0.667 -47.842
1722.208 0.661 -48.288 0.747 41.376 0.747 41.376 0.661 -48.288
1747.167 0.655 -48.728 0.752 40.931 0.752 40.931 0.655 -48.728
1772.125 0.649 -49.161 0.757 40.493 0.757 40.493 0.649 -49.161
1797.083 0.644 -49.588 0.761 40.06 0.761 40.06 0.644 -49.588
1822.042 0.638 -50.009 0.766 39.634 0.766 39.634 0.638 -50.009
1847 0.632 -50.424 0.771 39.213 0.771 39.213 0.632 -50.424
1871.958 0.627 -50.833 0.775 38.799 0.775 38.799 0.627 -50.833
1896.917 0.621 -51.237 0.78 38.39 0.78 38.39 0.621 -51.237
1921.875 0.615 -51.635 0.784 37.986 0.784 37.986 0.615 -51.635
1946.833 0.61 -52.027 0.788 37.588 0.788 37.588 0.61 -52.027
1971.792 0.605 -52.414 0.792 37.196 0.792 37.196 0.605 -52.414
1996.75 0.599 -52.796 0.797 36.809 0.797 36.809 0.599 -52.796
2021.708 0.594 -53.172 0.8 36.427 0.8 36.427 0.594 -53.172
2046.667 0.589 -53.543 0.804 36.05 0.804 36.05 0.589 -53.543
2071.625 0.583 -53.91 0.808 35.678 0.808 35.678 0.583 -53.91
2096.583 0.578 -54.271 0.812 35.312 0.812 35.312 0.578 -54.271
2121.542 0.573 -54.627 0.815 34.95 0.815 34.95 0.573 -54.627
2146.5 0.568 -54.978 0.819 34.593 0.819 34.593 0.568 -54.978
2171.458 0.563 -55.325 0.822 34.24 0.822 34.24 0.563 -55.325
2196.417 0.558 -55.667 0.826 33.893 0.826 33.893 0.558 -55.667
2221.375 0.553 -56.004 0.829 33.55 0.829 33.55 0.553 -56.004
2246.333 0.548 -56.337 0.832 33.211 0.832 33.211 0.548 -56.337
2271.292 0.543 -56.666 0.836 32.877 0.836 32.877 0.543 -56.666
2296.25 0.538 -56.99 0.839 32.547 0.839 32.547 0.538 -56.99
2321.208 0.533 -57.31 0.842 32.221 0.842 32.221 0.533 -57.31
2346.167 0.528 -57.625 0.845 31.899 0.845 31.899 0.528 -57.625
2371.125 0.524 -57.937 0.847 31.582 0.847 31.582 0.524 -57.937
2396.083 0.519 -58.244 0.85 31.268 0.85 31.268 0.519 -58.244
2421.042 0.514 -58.548 0.853 30.959 0.853 30.959 0.514 -58.548
2446 0.51 -58.848 0.856 30.653 0.856 30.653 0.51 -58.848
2470.958 0.505 -59.143 0.858 30.351 0.858 30.351 0.505 -59.143
2495.917 0.501 -59.435 0.861 30.053 0.861 30.053 0.501 -59.435
2520.875 0.496 -59.724 0.864 29.759 0.864 29.759 0.496 -59.724
2545.833 0.492 -60.008 0.866 29.468 0.866 29.468 0.492 -60.008
2570.792 0.488 -60.289 0.869 29.181 0.869 29.181 0.488 -60.289
2595.75 0.483 -60.567 0.871 28.897 0.871 28.897 0.483 -60.567
2620.708 0.479 -60.841 0.873 28.617 0.873 28.617 0.479 -60.841
2645.667 0.475 -61.112 0.876 28.34 0.876 28.34 0.475 -61.112
2670.625 0.471 -61.379 0.878 28.066 0.878 28.066 0.471 -61.379
2695.583 0.466 -61.643 0.88 27.796 0.88 27.796 0.466 -61.643
2720.542 0.462 -61.904 0.882 27.528 0.882 27.528 0.462 -61.904
2745.5 0.458 -62.162 0.884 27.264 0.884 27.264 0.458 -62.162
2770.458 0.454 -62.416 0.886 27.003 0.886 27.003 0.454 -62.416
2795.417 0.45 -62.668 0.888 26.745 0.888 26.745 0.45 -62.668
2820.375 0.446 -62.916 0.89 26.49 0.89 26.49 0.446 -62.916
2845.333 0.442 -63.162 0.892 26.238 0.892 26.238 0.442 -63.162
2870.292 0.438 -63.405 0.894 25.989 0.894 25.989 0.438 -63.405
2895.25 0.434 -63.644 0.896 25.742 0.896 25.742 0.434 -63.644
2920.208 0.431 -63.881 0.898 25.498 0.898 25.498 0.431 -63.881
2945.167 0.427 -64.116 0.9 25.257 0.9 25.257 0.427 -64.116
2970.125 0.423 -64.347 0.901 25.019 0.901 25.019 0.423 -64.347
2995.083 0.419 -64.576 0.903 24.783 0.903 24.783 0.419 -64.576
3020.042 0.416 -64.802 0.905 24.55 0.905 24.55 0.416 -64.802
3045 0.412 -65.026 0.907 24.32 0.907 24.32 0.412 -65.026
3069.958 0.408 -65.247 0.908 24.092 0.908 24.092 0.408 -65.247
3094.917 0.405 -65.465 0.91 23.866 0.91 23.866 0.405 -65.465
3119.875 0.401 -65.681 0.911 23.643 0.911 23.643 0.401 -65.681
3144.833 0.398 -65.895 0.913 23.422 0.913 23.422 0.398 -65.895
3169.792 0.394 -66.106 0.914 23.203 0.914 23.203 0.394 -66.106
3194.75 0.391 -66.315 0.916 22.987 0.916 22.987 0.391 -66.315
3219.708 0.387 -66.522 0.917 22.773 0.917 22.773 0.387 -66.522
3244.667 0.384 -66.726 0.919 22.561 0.919 22.561 0.384 -66.726
3269.625 0.38 -66.929 0.92 22.352 0.92 22.352 0.38 -66.929
3294.583 0.377 -67.129 0.921 22.144 0.921 22.144 0.377 -67.129
3319.542 0.374 -67.326 0.923 21.939 0.923 21.939 0.374 -67.326
3344.5 0.37 -67.522 0.924 21.736 0.924 21.736 0.37 -67.522
3369.458 0.367 -67.716 0.925 21.535 0.925 21.535 0.367 -67.716
3394.417 0.364 -67.907 0.927 21.335 0.927 21.335 0.364 -67.907
3419.375 0.361 -68.097 0.928 21.138 0.928 21.138 0.361 -68.097
3444.333 0.357 -68.284 0.929 20.943 0.929 20.943 0.357 -68.284
3469.292 0.354 -68.47 0.93 20.749 0.93 20.749 0.354 -68.47
3494.25 0.351 -68.653 0.931 20.558 0.931 20.558 0.351 -68.653
3519.208 0.348 -68.835 0.933 20.368 0.933 20.368 0.348 -68.835
3544.167 0.345 -69.015 0.934 20.18 0.934 20.18 0.345 -69.015
3569.125 0.342 -69.193 0.935 19.994 0.935 19.994 0.342 -69.193
3594.083 0.339 -69.369 0.936 19.81 0.936 19.81 0.339 -69.369
3619.042 0.336 -69.543 0.937 19.628 0.937 19.628 0.336 -69.543
3644 0.333 -69.715 0.938 19.447 0.938 19.447 0.333 -69.715
3668.958 0.33 -69.886 0.939 19.267 0.939 19.267 0.33 -69.886
3693.917 0.327 -70.055 0.94 19.09 0.94 19.09 0.327 -70.055
3718.875 0.324 -70.223 0.941 18.914 0.941 18.914 0.324 -70.223
3743.833 0.321 -70.388 0.942 18.74 0.942 18.74 0.321 -70.388
3768.792 0.318 -70.552 0.943 18.567 0.943 18.567 0.318 -70.552
3793.75 0.316 -70.715 0.944 18.396 0.944 18.396 0.316 -70.715
3818.708 0.313 -70.876 0.945 18.226 0.945 18.226 0.313 -70.876
3843.667 0.31 -71.035 0.946 18.058 0.946 18.058 0.31 -71.035
3868.625 0.307 -71.192 0.947 17.891 0.947 17.891 0.307 -71.192
3893.583 0.305 -71.348 0.948 17.726 0.948 17.726 0.305 -71.348
3918.542 0.302 -71.503 0.948 17.562 0.948 17.562 0.302 -71.503
3943.5 0.299 -71.656 0.949 17.4 0.949 17.4 0.299 -71.656
3968.458 0.296 -71.808 0.95 17.239 0.95 17.239 0.296 -71.808
3993.417 0.294 -71.958 0.951 17.079 0.951 17.079 0.294 -71.958
4018.375 0.291 -72.107 0.952 16.921 0.952 16.921 0.291 -72.107
4043.333 0.288 -72.254 0.953 16.764 0.953 16.764 0.288 -72.254
4068.292 0.286 -72.4 0.953 16.608 0.953 16.608 0.286 -72.4
4093.25 0.283 -72.544 0.954 16.454 0.954 16.454 0.283 -72.544
4118.208 0.281 -72.687 0.955 16.301 0.955 16.301 0.281 -72.687
4143.167 0.278 -72.829 0.956 16.149 0.956 16.149 0.278 -72.829
4168.125 0.276 -72.97 0.956 15.999 0.956 15.999 0.276 -72.97
4193.083 0.273 -73.109 0.957 15.849 0.957 15.849 0.273 -73.109
4218.042 0.271 -73.246 0.958 15.701 0.958 15.701 0.271 -73.246
4243 0.268 -73.383 0.958 15.554 0.958 15.554 0.268 -73.383
4267.958 0.266 -73.518 0.959 15.408 0.959 15.408 0.266 -73.518
4292.917 0.263 -73.652 0.96 15.264 0.96 15.264 0.263 -73.652
4317.875 0.261 -73.785 0.96 15.12 0.96 15.12 0.261 -73.785
4342.833 0.258 -73.916 0.961 14.978 0.961 14.978 0.258 -73.916
4367.792 0.256 -74.047 0.962 14.837 0.962 14.837 0.256 -74.047
4392.75 0.254 -74.176 0.962 14.696 0.962 14.696 0.254 -74.176
4417.708 0.251 -74.304 0.963 14.557 0.963 14.557 0.251 -74.304
4442.667 0.249 -74.43 0.963 14.419 0.963 14.419 0.249 -74.43
4467.625 0.247 -74.556 0.964 14.282 0.964 14.282 0.247 -74.556
4492.583 0.244 -74.68 0.965 14.146 0.965 14.146 0.244 -74.68
4517.542 0.242 -74.804 0.965 14.011 0.965 14.011 0.242 -74.804
4542.5 0.24 -74.926 0.966 13.877 0.966 13.877 0.24 -74.926
4567.458 0.238 -75.047 0.966 13.744 0.966 13.744 0.238 -75.047
4592.417 0.235 -75.167 0.967 13.612 0.967 13.612 0.235 -75.167
4617.375 0.233 -75.285 0.967 13.481 0.967 13.481 0.233 -75.285
4642.333 0.231 -75.403 0.968 13.351 0.968 13.351 0.231 -75.403
4667.292 0.229 -75.52 0.968 13.221 0.968 13.221 0.229 -75.52
4692.25 0.227 -75.635 0.969 13.093 0.969 13.093 0.227 -75.635
4717.208 0.224 -75.75 0.969 12.966 0.969 12.966 0.224 -75.75
4742.167 0.222 -75.863 0.97 12.839 0.97 12.839 0.222 -75.863
4767.125 0.22 -75.976 0.97 12.713 0.97 12.713 0.22 -75.976
4792.083 0.218 -76.087 0.971 12.589 0.971 12.589 0.218 -76.087
4817.042 0.216 -76.197 0.971 12.465 0.971 12.465 0.216 -76.197
4842 0.214 -76.307 0.972 12.342 0.972 12.342 0.214 -76.307
4866.958 0.212 -76.415 0.972 12.219 0.972 12.219 0.212 -76.415
4891.917 0.21 -76.522 0.973 12.098 0.973 12.098 0.21 -76.522
4916.875 0.208 -76.628 0.973 11.977 0.973 11.977 0.208 -76.628
4941.833 0.206 -76.734 0.974 11.857 0.974 11.857 0.206 -76.734
4966.792 0.204 -76.838 0.974 11.738 0.974 11.738 0.204 -76.838
4991.75 0.201 -76.941 0.974 11.62 0.974 11.62 0.201 -76.941
5016.708 0.199 -77.044 0.975 11.503 0.975 11.503 0.199 -77.044
5041.667 0.197 -77.145 0.975 11.386 0.975 11.386 0.197 -77.145
5066.625 0.196 -77.246 0.976 11.27 0.976 11.27 0.196 -77.246
5091.583 0.194 -77.345 0.976 11.155 0.976 11.155 0.194 -77.345
5116.542 0.192 -77.444 0.976 11.04 0.976 11.04 0.192 -77.444
5141.5 0.19 -77.541 0.977 10.927 0.977 10.927 0.19 -77.541
5166.458 0.188 -77.638 0.977 10.814 0.977 10.814 0.188 -77.638
5191.417 0.186 -77.733 0.978 10.701 0.978 10.701 0.186 -77.733
5216.375 0.184 -77.828 0.978 10.59 0.978 10.59 0.184 -77.828
5241.333 0.182 -77.922 0.978 10.479 0.978 10.479 0.182 -77.922
5266.292 0.18 -78.015 0.979 10.369 0.979 10.369 0.18 -78.015
5291.25 0.178 -78.107 0.979 10.259 0.979 10.259 0.178 -78.107
5316.208 0.176 -78.198 0.979 10.15 0.979 10.15 0.176 -78.198
5341.167 0.174 -78.288 0.98 10.042 0.98 10.042 0.174 -78.288
5366.125 0.173 -78.377 0.98 9.934 0.98 9.934 0.173 -78.377
5391.083 0.171 -78.465 0.98 9.827 0.98 9.827 0.171 -78.465
5416.042 0.169 -78.553 0.981 9.721 0.981 9.721 0.169 -78.553
5441 0.167 -78.639 0.981 9.615 0.981 9.615 0.167 -78.639
5465.958 0.165 -78.724 0.981 9.51 0.981 9.51 0.165 -78.724
5490.917 0.164 -78.809 0.981 9.406 0.981 9.406 0.164 -78.809
5515.875 0.162 -78.893 0.982 9.302 0.982 9.302 0.162 -78.893
5540.833 0.16 -78.975 0.982 9.198 0.982 9.198 0.16 -78.975
5565.792 0.158 -79.057 0.982 9.096 0.982 9.096 0.158 -79.057
5590.75 0.156 -79.138 0.983 8.994 0.983 8.994 0.156 -79.138
5615.708 0.155 -79.218 0.983 8.892 0.983 8.892 0.155 -79.218
5640.667 0.153 -79.297 0.983 8.791 0.983 8.791 0.153 -79.297
5665.625 0.151 -79.375 0.983 8.691 0.983 8.691 0.151 -79.375
5690.583 0.149 -79.452 0.984 8.591 0.984 8.591 0.149 -79.452
5715.542 0.148 -79.528 0.984 8.491 0.984 8.491 0.148 -79.528
5740.5 0.146 -79.603 0.984 8.393 0.984 8.393 0.146 -79.603
5765.458 0.144 -79.677 0.984 8.294 0.984 8.294 0.144 -79.677
5790.417 0.143 -79.75 0.985 8.197 0.985 8.197 0.143 -79.75
5815.375 0.141 -79.823 0.985 8.099 0.985 8.099 0.141 -79.823
5840.333 0.139 -79.894 0.985 8.003 0.985 8.003 0.139 -79.894
5865.292 0.138 -79.964 0.985 7.907 0.985 7.907 0.138 -79.964
5890.25 0.136 -80.033 0.986 7.811 0.986 7.811 0.136 -80.033
5915.208 0.134 -80.102 0.986 7.716 0.986 7.716 0.134 -80.102
5940.167 0.133 -80.169 0.986 7.621 0.986 7.621 0.133 -80.169
5965.125 0.131 -80.235 0.986 7.527 0.986 7.527 0.131 -80.235
5990.083 0.129 -80.3 0.986 7.433 0.986 7.433 0.129 -80.3
6015.042 0.128 -80.365 0.987 7.34 0.987 7.34 0.128 -80.365
6040 0.126 -80.428 0.987 7.247 0.987 7.247 0.126 -80.428
6064.958 0.125 -80.49 0.987 7.155 0.987 7.155 0.125 -80.49
6089.917 0.123 -80.551 0.987 7.063 0.987 7.063 0.123 -80.551
6114.875 0.121 -80.61 0.987 6.972 0.987 6.972 0.121 -80.61
6139.833 0.12 -80.669 0.988 6.881 0.988 6.881 0.12 -80.669
6164.792 0.118 -80.727 0.988 6.79 0.988 6.79 0.118 -80.727
6189.75 0.117 -80.783 0.988 6.7 0.988 6.7 0.117 -80.783
6214.708 0.115 -80.838 0.988 6.611 0.988 6.611 0.115 -80.838
6239.667 0.114 -80.892 0.988 6.521 0.988 6.521 0.114 -80.892
6264.625 0.112 -80.945 0.989 6.433 0.989 6.433 0.112 -80.945
6289.583 0.111 -80.997 0.989 6.344 0.989 6.344 0.111 -80.997
6314.542 0.109 -81.047 0.989 6.256 0.989 6.256 0.109 -81.047
6339.5 0.108 -81.096 0.989 6.169 0.989 6.169 0.108 -81.096
6364.458 0.106 -81.144 0.989 6.082 0.989 6.082 0.106 -81.144
6389.417 0.105 -81.19 0.989 5.995 0.989 5.995 0.105 -81.19
6414.375 0.103 -81.235 0.99 5.909 0.99 5.909 0.103 -81.235
6439.333 0.102 -81.278 0.99 5.823 0.99 5.823 0.102 -81.278
6464.292 0.1 -81.32 0.99 5.738 0.99 5.738 0.1 -81.32
6489.25 0.099 -81.361 0.99 5.653 0.99 5.653 0.099 -81.361
6514.208 0.097 -81.4 0.99 5.568 0.99 5.568 0.097 -81.4
6539.167 0.096 -81.438 0.99 5.484 0.99 5.484 0.096 -81.438
6564.125 0.094 -81.473 0.99 5.4 0.99 5.4 0.094 -81.473
6589.083 0.093 -81.508 0.991 5.316 0.991 5.316 0.093 -81.508
6614.042 0.091 -81.54 0.991 5.233 0.991 5.233 0.091 -81.54
6639 0.09 -81.571 0.991 5.15 0.991 5.15 0.09 -81.571
6663.958 0.088 -81.6 0.991 5.068 0.991 5.068 0.088 -81.6
6688.917 0.087 -81.627 0.991 4.985 0.991 4.985 0.087 -81.627
6713.875 0.086 -81.652 0.991 4.904 0.991 4.904 0.086 -81.652
6738.833 0.084 -81.675 0.991 4.822 0.991 4.822 0.084 -81.675
6763.792 0.083 -81.696 0.991 4.741 0.991 4.741 0.083 -81.696
6788.75 0.081 -81.715 0.992 4.66 0.992 4.66 0.081 -81.715
6813.708 0.08 -81.732 0.992 4.58 0.992 4.58 0.08 -81.732
6838.667 0.079 -81.746 0.992 4.5 0.992 4.5 0.079 -81.746
6863.625 0.077 -81.758 0.992 4.42 0.992 4.42 0.077 -81.758
6888.583 0.076 -81.768 0.992 4.341 0.992 4.341 0.076 -81.768
6913.542 0.074 -81.774 0.992 4.262 0.992 4.262 0.074 -81.774
6938.5 0.073 -81.779 0.992 4.183 0.992 4.183 0.073 -81.779
6963.458 0.072 -81.78 0.992 4.105 0.992 4.105 0.072 -81.78
6988.417 0.07 -81.778 0.992 4.027 0.992 4.027 0.07 -81.778
7013.375 0.069 -81.773 0.992 3.949 0.992 3.949 0.069 -81.773
7038.333 0.068 -81.765 0.993 3.871 0.993 3.871 0.068 -81.765
7063.292 0.066 -81.754 0.993 3.794 0.993 3.794 0.066 -81.754
7088.25 0.065 -81.739 0.993 3.717 0.993 3.717 0.065 -81.739
7113.208 0.064 -81.72 0.993 3.641 0.993 3.641 0.064 -81.72
7138.167 0.062 -81.697 0.993 3.565 0.993 3.565 0.062 -81.697
7163.125 0.061 -81.67 0.993 3.489 0.993 3.489 0.061 -81.67
7188.083 0.06 -81.639 0.993 3.413 0.993 3.413 0.06 -81.639
7213.042 0.058 -81.603 0.993 3.338 0.993 3.338 0.058 -81.603
7238 0.057 -81.562 0.993 3.263 0.993 3.263 0.057 -81.562
7262.958 0.056 -81.515 0.993 3.188 0.993 3.188 0.056 -81.515
7287.917 0.055 -81.464 0.993 3.113 0.993 3.113 0.055 -81.464
7312.875 0.053 -81.406 0.993 3.039 0.993 3.039 0.053 -81.406
7337.833 0.052 -81.342 0.994 2.965 0.994 2.965 0.052 -81.342
7362.792 0.051 -81.271 0.994 2.891 0.994 2.891 0.051 -81.271
7387.75 0.049 -81.194 0.994 2.818 0.994 2.818 0.049 -81.194
7412.708 0.048 -81.108 0.994 2.745 0.994 2.745 0.048 -81.108
7437.667 0.047 -81.014 0.994 2.672 0.994 2.672 0.047 -81.014
7462.625 0.046 -80.912 0.994 2.599 0.994 2.599 0.046 -80.912
7487.583 0.044 -80.8 0.994 2.527 0.994 2.527 0.044 -80.8
7512.542 0.043 -80.678 0.994 2.455 0.994 2.455 0.043 -80.678
7537.5 0.042 -80.544 0.994 2.383 0.994 2.383 0.042 -80.544
7562.458 0.041 -80.399 0.994 2.312 0.994 2.312 0.041 -80.399
7587.417 0.039 -80.241 0.994 2.24 0.994 2.24 0.039 -80.241
7612.375 0.038 -80.068 0.994 2.169 0.994 2.169 0.038 -80.068
7637.333 0.037 -79.88 0.994 2.099 0.994 2.099 0.037 -79.88
7662.292 0.036 -79.675 0.994 2.028 0.994 2.028 0.036 -79.675
7687.25 0.035 -79.452 0.994 1.958 0.994 1.958 0.035 -79.452
7712.208 0.033 -79.208 0.994 1.888 0.994 1.888 0.033 -79.208
7737.167 0.032 -78.941 0.994 1.818 0.994 1.818 0.032 -78.941
7762.125 0.031 -78.649 0.994 1.748 0.994 1.748 0.031 -78.649
7787.083 0.03 -78.33 0.994 1.679 0.994 1.679 0.03 -78.33
7812.042 0.029 -77.979 0.994 1.61 0.994 1.61 0.029 -77.979
7837 0.027 -77.593 0.994 1.541 0.994 1.541 0.027 -77.593
7861.958 0.026 -77.167 0.995 1.472 0.995 1.472 0.026 -77.167
7886.917 0.025 -76.697 0.995 1.404 0.995 1.404 0.025 -76.697
7911.875 0.024 -76.176 0.995 1.336 0.995 1.336 0.024 -76.176
7936.833 0.023 -75.597 0.995 1.268 0.995 1.268 0.023 -75.597
7961.792 0.022 -74.95 0.995 1.2 0.995 1.2 0.022 -74.95
7986.75 0.02 -74.226 0.995 1.132 0.995 1.132 0.02 -74.226
8011.708 0.019 -73.411 0.995 1.065 0.995 1.065 0.019 -73.411
8036.667 0.018 -72.489 0.995 0.998 0.995 0.998 0.018 -72.489
8061.625 0.017 -71.441 0.995 0.931 0.995 0.931 0.017 -71.441
8086.583 0.016 -70.241 0.995 0.864 0.995 0.864 0.016 -70.241
8111.542 0.015 -68.858 0.995 0.798 0.995 0.798 0.015 -68.858
8136.5 0.014 -67.251 0.995 0.732 0.995 0.732 0.014 -67.251
8161.458 0.013 -65.369 0.995 0.666 0.995 0.666 0.013 -65.369
8186.417 0.012 -63.143 0.995 0.6 0.995 0.6 0.012 -63.143
8211.375 0.011 -60.482 0.995 0.534 0.995 0.534 0.011 -60.482
