# MHZ S MA R 50

50 1 -0.72 0.013 89.272 0.013 89.272 1 -0.72
74.958 1 -1.079 0.019 88.909 0.019 88.909 1 -1.079
99.917 1 -1.439 0.025 88.546 0.025 88.546 1 -1.439
124.875 0.999 -1.798 0.031 88.184 0.031 88.184 0.999 -1.798
149.833 0.999 -2.157 0.038 87.821 0.038 87.821 0.999 -2.157
174.792 0.999 -2.516 0.044 87.458 0.044 87.458 0.999 -2.516
199.75 0.999 -2.875 0.05 87.095 0.05 87.095 0.999 -2.875
224.708 0.998 -3.233 0.056 86.733 0.056 86.733 0.998 -3.233
249.667 0.998 -3.592 0.063 86.371 0.063 86.371 0.998 -3.592
274.625 0.998 -3.95 0.069 86.009 0.069 86.009 0.998 -3.95
299.583 0.997 -4.308 0.075 85.647 0.075 85.647 0.997 -4.308
324.542 0.997 -4.666 0.081 85.286 0.081 85.286 0.997 -4.666
349.5 0.996 -5.023 0.088 84.924 0.088 84.924 0.996 -5.023
374.458 0.996 -5.381 0.094 84.563 0.094 84.563 0.996 -5.381
399.417 0.995 -5.738 0.1 84.203 0.1 84.203 0.995 -5.738
424.375 0.994 -6.094 0.106 83.842 0.106 83.842 0.994 -6.094
449.333 0.994 -6.45 0.112 83.482 0.112 83.482 0.994 -6.45
474.292 0.993 -6.806 0.119 83.123 0.119 83.123 0.993 -6.806
499.25 0.992 -7.162 0.125 82.763 0.125 82.763 0.992 -7.162
524.208 0.991 -7.517 0.131 82.404 0.131 82.404 0.991 -7.517
549.167 0.99 -7.872 0.137 82.046 0.137 82.046 0.99 -7.872
574.125 0.989 -8.226 0.143 81.688 0.143 81.688 0.989 -8.226
599.083 0.989 -8.58 0.149 81.33 0.149 81.33 0.989 -8.58
624.042 0.988 -8.933 0.155 80.973 0.155 80.973 0.988 -8.933
649 0.987 -9.286 0.161 80.617 0.161 80.617 0.987 -9.286
673.958 0.986 -9.638 0.167 80.261 0.167 80.261 0.986 -9.638
698.917 0.985 -9.99 0.173 79.905 0.173 79.905 0.985 -9.99
723.875 0.983 -10.341 0.18 79.55 0.18 79.55 0.983 -10.341
748.833 0.982 -10.692 0.186 79.196 0.186 79.196 0.982 -10.692
773.792 0.981 -11.042 0.192 78.842 0.192 78.842 0.981 -11.042
798.75 0.98 -11.391 0.198 78.489 0.198 78.489 0.98 -11.391
823.708 0.979 -11.74 0.203 78.136 0.203 78.136 0.979 -11.74
848.667 0.977 -12.088 0.209 77.784 0.209 77.784 0.977 -12.088
873.625 0.976 -12.436 0.215 77.433 0.215 77.433 0.976 -12.436
898.583 0.975 -12.783 0.221 77.082 0.221 77.082 0.975 -12.783
923.542 0.973 -13.129 0.227 76.732 0.227 76.732 0.973 -13.129
948.5 0.972 -13.474 0.233 76.383 0.233 76.383 0.972 -13.474
973.458 0.97 -13.819 0.239 76.034 0.239 76.034 0.97 -13.819
998.417 0.969 -14.163 0.245 75.686 0.245 75.686 0.969 -14.163
1023.375 0.967 -14.507 0.25 75.339 0.25 75.339 0.967 -14.507
1048.333 0.966 -14.849 0.256 74.993 0.256 74.993 0.966 -14.849
1073.292 0.964 -15.191 0.262 74.648 0.262 74.648 0.964 -15.191
1098.25 0.963 -15.532 0.268 74.303 0.268 74.303 0.963 -15.532
1123.208 0.961 -15.872 0.273 73.959 0.273 73.959 0.961 -15.872
1148.167 0.959 -16.211 0.279 73.616 0.279 73.616 0.959 -16.211
1173.125 0.958 -16.55 0.285 73.273 0.285 73.273 0.958 -16.55
1198.083 0.956 -16.887 0.29 72.932 0.29 72.932 0.956 -16.887
1223.042 0.954 -17.224 0.296 72.591 0.296 72.591 0.954 -17.224
1248 0.952 -17.56 0.302 72.251 0.302 72.251 0.952 -17.56
1272.958 0.951 -17.895 0.307 71.913 0.307 71.913 0.951 -17.895
1297.917 0.949 -18.229 0.313 71.575 0.313 71.575 0.949 -18.229
1322.875 0.947 -18.562 0.318 71.238 0.318 71.238 0.947 -18.562
1347.833 0.945 -18.895 0.324 70.901 0.324 70.901 0.945 -18.895
1372.792 0.943 -19.226 0.329 70.566 0.329 70.566 0.943 -19.226
1397.75 0.941 -19.556 0.335 70.232 0.335 70.232 0.941 -19.556
1422.708 0.939 -19.886 0.34 69.899 0.34 69.899 0.939 -19.886
1447.667 0.937 -20.214 0.346 69.566 0.346 69.566 0.937 -20.214
1472.625 0.935 -20.542 0.351 69.235 0.351 69.235 0.935 -20.542
1497.583 0.933 -20.868 0.356 68.905 0.356 68.905 0.933 -20.868
1522.542 0.931 -21.194 0.362 68.575 0.362 68.575 0.931 -21.194
1547.5 0.929 -21.518 0.367 68.247 0.367 68.247 0.929 -21.518
1572.458 0.927 -21.842 0.372 67.919 0.372 67.919 0.927 -21.842
1597.417 0.925 -22.164 0.377 67.593 0.377 67.593 0.925 -22.164
1622.375 0.922 -22.486 0.382 67.268 0.382 67.268 0.922 -22.486
1647.333 0.92 -22.806 0.388 66.943 0.388 66.943 0.92 -22.806
1672.292 0.918 -23.125 0.393 66.62 0.393 66.62 0.918 -23.125
1697.25 0.916 -23.444 0.398 66.298 0.398 66.298 0.916 -23.444
1722.208 0.913 -23.761 0.403 65.977 0.403 65.977 0.913 -23.761
1747.167 0.911 -24.077 0.408 65.657 0.408 65.657 0.911 -24.077
1772.125 0.909 -24.392 0.413 65.338 0.413 65.338 0.909 -24.392
1797.083 0.906 -24.706 0.418 65.02 0.418 65.02 0.906 -24.706
1822.042 0.904 -25.019 0.423 64.703 0.423 64.703 0.904 -25.019
1847 0.902 -25.33 0.428 64.387 0.428 64.387 0.902 -25.33
1871.958 0.899 -25.641 0.433 64.073 0.433 64.073 0.899 -25.641
1896.917 0.897 -25.95 0.438 63.759 0.438 63.759 0.897 -25.95
1921.875 0.895 -26.259 0.442 63.447 0.442 63.447 0.895 -26.259
1946.833 0.892 -26.566 0.447 63.136 0.447 63.136 0.892 -26.566
1971.792 0.89 -26.872 0.452 62.826 0.452 62.826 0.89 -26.872
1996.75 0.887 -27.177 0.457 62.517 0.457 62.517 0.887 -27.177
2021.708 0.885 -27.481 0.461 62.209 0.461 62.209 0.885 -27.481
2046.667 0.882 -27.784 0.466 61.902 0.466 61.902 0.882 -27.784
2071.625 0.88 -28.085 0.471 61.596 0.471 61.596 0.88 -28.085
2096.583 0.877 -28.385 0.475 61.292 0.475 61.292 0.877 -28.385
2121.542 0.875 -28.685 0.48 60.989 0.48 60.989 0.875 -28.685
2146.5 0.872 -28.983 0.485 60.687 0.485 60.687 0.872 -28.983
2171.458 0.869 -29.28 0.489 60.386 0.489 60.386 0.869 -29.28
2196.417 0.867 -29.575 0.494 60.086 0.494 60.086 0.867 -29.575
2221.375 0.864 -29.87 0.498 59.787 0.498 59.787 0.864 -29.87
2246.333 0.862 -30.163 0.502 59.49 0.502 59.49 0.862 -30.163
2271.292 0.859 -30.455 0.507 59.194 0.507 59.194 0.859 -30.455
2296.25 0.856 -30.746 0.511 58.899 0.511 58.899 0.856 -30.746
2321.208 0.854 -31.036 0.516 58.605 0.516 58.605 0.854 -31.036
2346.167 0.851 -31.325 0.52 58.312 0.52 58.312 0.851 -31.325
2371.125 0.848 -31.612 0.524 58.02 0.524 58.02 0.848 -31.612
2396.083 0.846 -31.898 0.528 57.73 0.528 57.73 0.846 -31.898
2421.042 0.843 -32.183 0.533 57.441 0.533 57.441 0.843 -32.183
2446 0.84 -32.467 0.537 57.153 0.537 57.153 0.84 -32.467
2470.958 0.837 -32.75 0.541 56.866 0.541 56.866 0.837 -32.75
2495.917 0.835 -33.031 0.545 56.58 0.545 56.58 0.835 -33.031
2520.875 0.832 -33.311 0.549 56.296 0.549 56.296 0.832 -33.311
2545.833 0.829 -33.59 0.553 56.013 0.553 56.013 0.829 -33.59
2570.792 0.826 -33.868 0.557 55.731 0.557 55.731 0.826 -33.868
2595.75 0.824 -34.145 0.561 55.45 0.561 55.45 0.824 -34.145
2620.708 0.821 -34.42 0.565 55.17 0.565 55.17 0.821 -34.42
2645.667 0.818 -34.695 0.569 54.891 0.569 54.891 0.818 -34.695
2670.625 0.815 -34.968 0.573 54.614 0.573 54.614 0.815 -34.968
2695.583 0.812 -35.24 0.577 54.338 0.577 54.338 0.812 -35.24
2720.542 0.81 -35.51 0.581 54.063 0.581 54.063 0.81 -35.51
2745.5 0.807 -35.78 0.585 53.789 0.585 53.789 0.807 -35.78
2770.458 0.804 -36.048 0.588 53.517 0.588 53.517 0.804 -36.048
2795.417 0.801 -36.315 0.592 53.245 0.592 53.245 0.801 -36.315
2820.375 0.798 -36.581 0.596 52.975 0.596 52.975 0.798 -36.581
2845.333 0.796 -36.846 0.6 52.706 0.6 52.706 0.796 -36.846
2870.292 0.793 -37.109 0.603 52.438 0.603 52.438 0.793 -37.109
2895.25 0.79 -37.372 0.607 52.171 0.607 52.171 0.79 -37.372
2920.208 0.787 -37.633 0.611 51.906 0.611 51.906 0.787 -37.633
2945.167 0.784 -37.893 0.614 51.641 0.614 51.641 0.784 -37.893
2970.125 0.781 -38.151 0.618 51.378 0.618 51.378 0.781 -38.151
2995.083 0.778 -38.409 0.621 51.116 0.621 51.116 0.778 -38.409
3020.042 0.776 -38.665 0.625 50.855 0.625 50.855 0.776 -38.665
3045 0.773 -38.921 0.628 50.596 0.628 50.596 0.773 -38.921
3069.958 0.77 -39.175 0.632 50.337 0.632 50.337 0.77 -39.175
3094.917 0.767 -39.428 0.635 50.08 0.635 50.08 0.767 -39.428
3119.875 0.764 -39.679 0.639 49.823 0.639 49.823 0.764 -39.679
3144.833 0.761 -39.93 0.642 49.568 0.642 49.568 0.761 -39.93
3169.792 0.758 -40.179 0.645 49.314 0.645 49.314 0.758 -40.179
3194.75 0.755 -40.428 0.649 49.062 0.649 49.062 0.755 -40.428
3219.708 0.753 -40.675 0.652 48.81 0.652 48.81 0.753 -40.675
3244.667 0.75 -40.921 0.655 48.56 0.655 48.56 0.75 -40.921
3269.625 0.747 -41.166 0.658 48.31 0.658 48.31 0.747 -41.166
3294.583 0.744 -41.409 0.661 48.062 0.661 48.062 0.744 -41.409
3319.542 0.741 -41.652 0.665 47.815 0.665 47.815 0.741 -41.652
3344.5 0.738 -41.893 0.668 47.569 0.668 47.569 0.738 -41.893
3369.458 0.735 -42.133 0.671 47.324 0.671 47.324 0.735 -42.133
3394.417 0.732 -42.372 0.674 47.08 0.674 47.08 0.732 -42.372
3419.375 0.729 -42.61 0.677 46.837 0.677 46.837 0.729 -42.61
3444.333 0.727 -42.847 0.68 46.596 0.68 46.596 0.727 -42.847
3469.292 0.724 -43.083 0.683 46.356 0.683 46.356 0.724 -43.083
3494.25 0.721 -43.318 0.686 46.116 0.686 46.116 0.721 -43.318
3519.208 0.718 -43.551 0.689 45.878 0.689 45.878 0.718 -43.551
3544.167 0.715 -43.784 0.692 45.641 0.692 45.641 0.715 -43.784
3569.125 0.712 -44.015 0.695 45.405 0.695 45.405 0.712 -44.015
3594.083 0.709 -44.245 0.698 45.17 0.698 45.17 0.709 -44.245
3619.042 0.706 -44.474 0.701 44.936 0.701 44.936 0.706 -44.474
3644 0.703 -44.702 0.703 44.703 0.703 44.703 0.703 -44.702
3668.958 0.701 -44.929 0.706 44.471 0.706 44.471 0.701 -44.929
3693.917 0.698 -45.155 0.709 44.241 0.709 44.241 0.698 -45.155
3718.875 0.695 -45.38 0.712 44.011 0.712 44.011 0.695 -45.38
3743.833 0.692 -45.603 0.715 43.782 0.715 43.782 0.692 -45.603
3768.792 0.689 -45.826 0.717 43.555 0.717 43.555 0.689 -45.826
3793.75 0.686 -46.047 0.72 43.329 0.72 43.329 0.686 -46.047
3818.708 0.683 -46.268 0.723 43.103 0.723 43.103 0.683 -46.268
3843.667 0.68 -46.487 0.725 42.879 0.725 42.879 0.68 -46.487
3868.625 0.678 -46.706 0.728 42.655 0.728 42.655 0.678 -46.706
3893.583 0.675 -46.923 0.73 42.433 0.73 42.433 0.675 -46.923
3918.542 0.672 -47.139 0.733 42.212 0.733 42.212 0.672 -47.139
3943.5 0.669 -47.355 0.736 41.991 0.736 41.991 0.669 -47.355
3968.458 0.666 -47.569 0.738 41.772 0.738 41.772 0.666 -47.569
3993.417 0.663 -47.782 0.741 41.554 0.741 41.554 0.663 -47.782
4018.375 0.661 -47.994 0.743 41.337 0.743 41.337 0.661 -47.994
4043.333 0.658 -48.205 0.746 41.121 0.746 41.121 0.658 -48.205
4068.292 0.655 -48.415 0.748 40.905 0.748 40.905 0.655 -48.415
4093.25 0.652 -48.624 0.75 40.691 0.75 40.691 0.652 -48.624
4118.208 0.649 -48.833 0.753 40.478 0.753 40.478 0.649 -48.833
4143.167 0.646 -49.04 0.755 40.265 0.755 40.265 0.646 -49.04
4168.125 0.644 -49.246 0.758 40.054 0.758 40.054 0.644 -49.246
4193.083 0.641 -49.451 0.76 39.844 0.76 39.844 0.641 -49.451
4218.042 0.638 -49.655 0.762 39.634 0.762 39.634 0.638 -49.655
4243 0.635 -49.858 0.765 39.426 0.765 39.426 0.635 -49.858
4267.958 0.632 -50.06 0.767 39.219 0.767 39.219 0.632 -50.06
4292.917 0.63 -50.261 0.769 39.012 0.769 39.012 0.63 -50.261
4317.875 0.627 -50.462 0.771 38.806 0.771 38.806 0.627 -50.462
4342.833 0.624 -50.661 0.773 38.602 0.773 38.602 0.624 -50.661
4367.792 0.621 -50.859 0.776 38.398 0.776 38.398 0.621 -50.859
4392.75 0.618 -51.057 0.778 38.195 0.778 38.195 0.618 -51.057
4417.708 0.616 -51.253 0.78 37.993 0.78 37.993 0.616 -51.253
4442.667 0.613 -51.448 0.782 37.793 0.782 37.793 0.613 -51.448
4467.625 0.61 -51.643 0.784 37.593 0.784 37.593 0.61 -51.643
4492.583 0.607 -51.836 0.786 37.393 0.786 37.393 0.607 -51.836
4517.542 0.605 -52.029 0.788 37.195 0.788 37.195 0.605 -52.029
4542.5 0.602 -52.221 0.79 36.998 0.79 36.998 0.602 -52.221
4567.458 0.599 -52.412 0.792 36.802 0.792 36.802 0.599 -52.412
4592.417 0.596 -52.602 0.795 36.606 0.795 36.606 0.596 -52.602
4617.375 0.594 -52.791 0.797 36.411 0.797 36.411 0.594 -52.791
4642.333 0.591 -52.979 0.798 36.218 0.798 36.218 0.591 -52.979
4667.292 0.588 -53.166 0.8 36.025 0.8 36.025 0.588 -53.166
4692.25 0.585 -53.352 0.802 35.833 0.802 35.833 0.585 -53.352
4717.208 0.583 -53.538 0.804 35.642 0.804 35.642 0.583 -53.538
4742.167 0.58 -53.722 0.806 35.451 0.806 35.451 0.58 -53.722
4767.125 0.577 -53.906 0.808 35.262 0.808 35.262 0.577 -53.906
4792.083 0.575 -54.088 0.81 35.073 0.81 35.073 0.575 -54.088
4817.042 0.572 -54.27 0.812 34.885 0.812 34.885 0.572 -54.27
4842 0.569 -54.451 0.814 34.699 0.814 34.699 0.569 -54.451
4866.958 0.567 -54.631 0.816 34.512 0.816 34.512 0.567 -54.631
4891.917 0.564 -54.811 0.817 34.327 0.817 34.327 0.564 -54.811
4916.875 0.561 -54.989 0.819 34.143 0.819 34.143 0.561 -54.989
4941.833 0.559 -55.167 0.821 33.959 0.821 33.959 0.559 -55.167
4966.792 0.556 -55.344 0.823 33.776 0.823 33.776 0.556 -55.344
4991.75 0.553 -55.519 0.824 33.594 0.824 33.594 0.553 -55.519
5016.708 0.551 -55.695 0.826 33.413 0.826 33.413 0.551 -55.695
5041.667 0.548 -55.869 0.828 33.233 0.828 33.233 0.548 -55.869
5066.625 0.545 -56.042 0.83 33.053 0.83 33.053 0.545 -56.042
5091.583 0.543 -56.215 0.831 32.874 0.831 32.874 0.543 -56.215
5116.542 0.54 -56.387 0.833 32.696 0.833 32.696 0.54 -56.387
5141.5 0.538 -56.558 0.835 32.519 0.835 32.519 0.538 -56.558
5166.458 0.535 -56.728 0.836 32.343 0.836 32.343 0.535 -56.728
5191.417 0.532 -56.897 0.838 32.167 0.838 32.167 0.532 -56.897
5216.375 0.53 -57.066 0.839 31.992 0.839 31.992 0.53 -57.066
5241.333 0.527 -57.233 0.841 31.818 0.841 31.818 0.527 -57.233
5266.292 0.525 -57.4 0.843 31.645 0.843 31.645 0.525 -57.4
5291.25 0.522 -57.567 0.844 31.472 0.844 31.472 0.522 -57.567
5316.208 0.52 -57.732 0.846 31.3 0.846 31.3 0.52 -57.732
5341.167 0.517 -57.897 0.847 31.129 0.847 31.129 0.517 -57.897
5366.125 0.514 -58.06 0.849 30.958 0.849 30.958 0.514 -58.06
5391.083 0.512 -58.224 0.85 30.789 0.85 30.789 0.512 -58.224
5416.042 0.509 -58.386 0.852 30.62 0.852 30.62 0.509 -58.386
5441 0.507 -58.547 0.853 30.451 0.853 30.451 0.507 -58.547
5465.958 0.504 -58.708 0.855 30.284 0.855 30.284 0.504 -58.708
5490.917 0.502 -58.868 0.856 30.117 0.856 30.117 0.502 -58.868
5515.875 0.499 -59.028 0.858 29.951 0.858 29.951 0.499 -59.028
5540.833 0.497 -59.186 0.859 29.785 0.859 29.785 0.497 -59.186
5565.792 0.494 -59.344 0.86 29.621 0.86 29.621 0.494 -59.344
5590.75 0.492 -59.501 0.862 29.457 0.862 29.457 0.492 -59.501
5615.708 0.489 -59.657 0.863 29.293 0.863 29.293 0.489 -59.657
5640.667 0.487 -59.813 0.865 29.131 0.865 29.131 0.487 -59.813
5665.625 0.484 -59.968 0.866 28.969 0.866 28.969 0.484 -59.968
5690.583 0.482 -60.122 0.867 28.808 0.867 28.808 0.482 -60.122
5715.542 0.479 -60.276 0.869 28.647 0.869 28.647 0.479 -60.276
5740.5 0.477 -60.428 0.87 28.487 0.87 28.487 0.477 -60.428
5765.458 0.475 -60.58 0.871 28.328 0.871 28.328 0.475 -60.58
5790.417 0.472 -60.732 0.873 28.169 0.873 28.169 0.472 -60.732
5815.375 0.47 -60.882 0.874 28.011 0.874 28.011 0.47 -60.882
5840.333 0.467 -61.032 0.875 27.854 0.875 27.854 0.467 -61.032
5865.292 0.465 -61.181 0.876 27.697 0.876 27.697 0.465 -61.181
5890.25 0.462 -61.33 0.878 27.541 0.878 27.541 0.462 -61.33
5915.208 0.46 -61.478 0.879 27.386 0.879 27.386 0.46 -61.478
5940.167 0.458 -61.625 0.88 27.231 0.88 27.231 0.458 -61.625
5965.125 0.455 -61.772 0.881 27.077 0.881 27.077 0.455 -61.772
5990.083 0.453 -61.917 0.882 26.924 0.882 26.924 0.453 -61.917
6015.042 0.451 -62.063 0.884 26.771 0.884 26.771 0.451 -62.063
6040 0.448 -62.207 0.885 26.619 0.885 26.619 0.448 -62.207
6064.958 0.446 -62.351 0.886 26.467 0.886 26.467 0.446 -62.351
6089.917 0.443 -62.494 0.887 26.316 0.887 26.316 0.443 -62.494
6114.875 0.441 -62.636 0.888 26.166 0.888 26.166 0.441 -62.636
6139.833 0.439 -62.778 0.889 26.016 0.889 26.016 0.439 -62.778
6164.792 0.436 -62.919 0.891 25.867 0.891 25.867 0.436 -62.919
6189.75 0.434 -63.06 0.892 25.718 0.892 25.718 0.434 -63.06
6214.708 0.432 -63.2 0.893 25.57 0.893 25.57 0.432 -63.2
6239.667 0.429 -63.339 0.894 25.423 0.894 25.423 0.429 -63.339
6264.625 0.427 -63.478 0.895 25.276 0.895 25.276 0.427 -63.478
6289.583 0.425 -63.616 0.896 25.13 0.896 25.13 0.425 -63.616
6314.542 0.422 -63.753 0.897 24.984 0.897 24.984 0.422 -63.753
6339.5 0.42 -63.89 0.898 24.839 0.898 24.839 0.42 -63.89
6364.458 0.418 -64.026 0.899 24.694 0.899 24.694 0.418 -64.026
6389.417 0.416 -64.161 0.9 24.55 0.9 24.55 0.416 -64.161
6414.375 0.413 -64.296 0.901 24.407 0.901 24.407 0.413 -64.296
6439.333 0.411 -64.43 0.902 24.264 0.902 24.264 0.411 -64.43
6464.292 0.409 -64.564 0.903 24.122 0.903 24.122 0.409 -64.564
6489.25 0.407 -64.697 0.904 23.98 0.904 23.98 0.407 -64.697
6514.208 0.404 -64.829 0.905 23.839 0.905 23.839 0.404 -64.829
6539.167 0.402 -64.961 0.906 23.698 0.906 23.698 0.402 -64.961
6564.125 0.4 -65.092 0.907 23.558 0.907 23.558 0.4 -65.092
6589.083 0.398 -65.222 0.908 23.419 0.908 23.419 0.398 -65.222
6614.042 0.395 -65.352 0.909 23.28 0.909 23.28 0.395 -65.352
6639 0.393 -65.482 0.91 23.141 0.91 23.141 0.393 -65.482
6663.958 0.391 -65.61 0.911 23.003 0.911 23.003 0.391 -65.61
6688.917 0.389 -65.739 0.912 22.866 0.912 22.866 0.389 -65.739
6713.875 0.386 -65.866 0.913 22.729 0.913 22.729 0.386 -65.866
6738.833 0.384 -65.993 0.914 22.593 0.914 22.593 0.384 -65.993
6763.792 0.382 -66.119 0.915 22.457 0.915 22.457 0.382 -66.119
6788.75 0.38 -66.245 0.916 22.321 0.916 22.321 0.38 -66.245
6813.708 0.378 -66.37 0.916 22.186 0.916 22.186 0.378 -66.37
6838.667 0.376 -66.495 0.917 22.052 0.917 22.052 0.376 -66.495
6863.625 0.373 -66.619 0.918 21.918 0.918 21.918 0.373 -66.619
6888.583 0.371 -66.743 0.919 21.785 0.919 21.785 0.371 -66.743
6913.542 0.369 -66.866 0.92 21.652 0.92 21.652 0.369 -66.866
6938.5 0.367 -66.988 0.921 21.52 0.921 21.52 0.367 -66.988
6963.458 0.365 -67.11 0.922 21.388 0.922 21.388 0.365 -67.11
6988.417 0.363 -67.231 0.922 21.256 0.922 21.256 0.363 -67.231
7013.375 0.361 -67.351 0.923 21.125 0.923 21.125 0.361 -67.351
7038.333 0.358 -67.472 0.924 20.995 0.924 20.995 0.358 -67.472
7063.292 0.356 -67.591 0.925 20.865 0.925 20.865 0.356 -67.591
7088.25 0.354 -67.71 0.926 20.735 0.926 20.735 0.354 -67.71
7113.208 0.352 -67.828 0.926 20.606 0.926 20.606 0.352 -67.828
7138.167 0.35 -67.946 0.927 20.478 0.927 20.478 0.35 -67.946
7163.125 0.348 -68.064 0.928 20.35 0.928 20.35 0.348 -68.064
7188.083 0.346 -68.18 0.929 20.222 0.929 20.222 0.346 -68.18
7213.042 0.344 -68.296 0.929 20.095 0.929 20.095 0.344 -68.296
7238 0.342 -68.412 0.93 19.968 0.93 19.968 0.342 -68.412
7262.958 0.34 -68.527 0.931 19.842 0.931 19.842 0.34 -68.527
7287.917 0.337 -68.642 0.932 19.716 0.932 19.716 0.337 -68.642
7312.875 0.335 -68.756 0.932 19.591 0.932 19.591 0.335 -68.756
7337.833 0.333 -68.869 0.933 19.466 0.933 19.466 0.333 -68.869
7362.792 0.331 -68.982 0.934 19.341 0.934 19.341 0.331 -68.982
7387.75 0.329 -69.095 0.935 19.217 0.935 19.217 0.329 -69.095
7412.708 0.327 -69.206 0.935 19.094 0.935 19.094 0.327 -69.206
7437.667 0.325 -69.318 0.936 18.97 0.936 18.97 0.325 -69.318
7462.625 0.323 -69.428 0.937 18.848 0.937 18.848 0.323 -69.428
7487.583 0.321 -69.539 0.937 18.725 0.937 18.725 0.321 -69.539
7512.542 0.319 -69.648 0.938 18.603 0.938 18.603 0.319 -69.648
7537.5 0.317 -69.757 0.939 18.482 0.939 18.482 0.317 -69.757
7562.458 0.315 -69.866 0.939 18.361 0.939 18.361 0.315 -69.866
7587.417 0.313 -69.974 0.94 18.24 0.94 18.24 0.313 -69.974
7612.375 0.311 -70.082 0.941 18.12 0.941 18.12 0.311 -70.082
7637.333 0.309 -70.189 0.941 18 0.941 18 0.309 -70.189
7662.292 0.307 -70.295 0.942 17.881 0.942 17.881 0.307 -70.295
7687.25 0.305 -70.401 0.943 17.762 0.943 17.762 0.305 -70.401
7712.208 0.303 -70.507 0.943 17.643 0.943 17.643 0.303 -70.507
7737.167 0.301 -70.612 0.944 17.525 0.944 17.525 0.301 -70.612
7762.125 0.299 -70.716 0.944 17.407 0.944 17.407 0.299 -70.716
7787.083 0.297 -70.82 0.945 17.29 0.945 17.29 0.297 -70.82
7812.042 0.295 -70.923 0.946 17.173 0.946 17.173 0.295 -70.923
7837 0.293 -71.026 0.946 17.056 0.946 17.056 0.293 -71.026
7861.958 0.292 -71.128 0.947 16.94 0.947 16.94 0.292 -71.128
7886.917 0.29 -71.23 0.947 16.824 0.947 16.824 0.29 -71.23
7911.875 0.288 -71.331 0.948 16.708 0.948 16.708 0.288 -71.331
7936.833 0.286 -71.432 0.949 16.593 0.949 16.593 0.286 -71.432
7961.792 0.284 -71.532 0.949 16.479 0.949 16.479 0.284 -71.532
7986.75 0.282 -71.632 0.95 16.364 0.95 16.364 0.282 -71.632
8011.708 0.28 -71.731 0.95 16.25 0.95 16.25 0.28 -71.731
8036.667 0.278 -71.83 0.951 16.137 0.951 16.137 0.278 -71.83
8061.625 0.276 -71.928 0.951 16.024 0.951 16.024 0.276 -71.928
8086.583 0.274 -72.025 0.952 15.911 0.952 15.911 0.274 -72.025
8111.542 0.272 -72.122 0.952 15.798 0.952 15.798 0.272 -72.122
8136.5 0.271 -72.219 0.953 15.686 0.953 15.686 0.271 -72.219
