# MHZ S MA R 50

50 0.973 -13.26 0.229 76.717 0.229 76.717 0.973 -13.26
74.958 0.943 -19.461 0.333 70.505 0.333 70.505 0.943 -19.461
99.917 0.904 -25.227 0.426 64.728 0.426 64.728 0.904 -25.227
124.875 0.861 -30.499 0.508 59.445 0.508 59.445 0.861 -30.499
149.833 0.816 -35.262 0.577 54.671 0.577 54.671 0.816 -35.262
174.792 0.77 -39.53 0.636 50.391 0.636 50.391 0.77 -39.53
199.75 0.726 -43.337 0.686 46.573 0.686 46.573 0.726 -43.337
224.708 0.684 -46.727 0.728 43.172 0.728 43.172 0.684 -46.727
249.667 0.645 -49.744 0.763 40.143 0.763 40.143 0.645 -49.744
274.625 0.608 -52.433 0.793 37.443 0.793 37.443 0.608 -52.433
299.583 0.574 -54.836 0.818 35.029 0.818 35.029 0.574 -54.836
324.542 0.543 -56.988 0.839 32.865 0.839 32.865 0.543 -56.988
349.5 0.514 -58.923 0.856 30.918 0.856 30.918 0.514 -58.923
374.458 0.487 -60.668 0.872 29.161 0.872 29.161 0.487 -60.668
399.417 0.463 -62.248 0.885 27.57 0.885 27.57 0.463 -62.248
424.375 0.44 -63.682 0.896 26.124 0.896 26.124 0.44 -63.682
449.333 0.42 -64.989 0.906 24.805 0.906 24.805 0.42 -64.989
474.292 0.4 -66.185 0.915 23.598 0.915 23.598 0.4 -66.185
499.25 0.383 -67.281 0.922 22.489 0.922 22.489 0.383 -67.281
524.208 0.366 -68.29 0.929 21.468 0.929 21.468 0.366 -68.29
549.167 0.351 -69.221 0.935 20.525 0.935 20.525 0.351 -69.221
574.125 0.336 -70.082 0.94 19.652 0.94 19.652 0.336 -70.082
599.083 0.323 -70.881 0.945 18.84 0.945 18.84 0.323 -70.881
624.042 0.31 -71.625 0.949 18.084 0.949 18.084 0.31 -71.625
649 0.299 -72.318 0.953 17.379 0.953 17.379 0.299 -72.318
673.958 0.288 -72.965 0.956 16.719 0.956 16.719 0.288 -72.965
698.917 0.277 -73.571 0.959 16.1 0.959 16.1 0.277 -73.571
723.875 0.268 -74.14 0.962 15.518 0.962 15.518 0.268 -74.14
748.833 0.258 -74.675 0.964 14.97 0.964 14.97 0.258 -74.675
773.792 0.25 -75.178 0.967 14.453 0.967 14.453 0.25 -75.178
798.75 0.241 -75.653 0.969 13.965 0.969 13.965 0.241 -75.653
823.708 0.233 -76.102 0.971 13.502 0.971 13.502 0.233 -76.102
848.667 0.226 -76.527 0.973 13.064 0.973 13.064 0.226 -76.527
873.625 0.219 -76.93 0.974 12.647 0.974 12.647 0.219 -76.93
898.583 0.212 -77.312 0.976 12.251 0.976 12.251 0.212 -77.312
923.542 0.206 -77.675 0.977 11.873 0.977 11.873 0.206 -77.675
948.5 0.2 -78.021 0.978 11.513 0.978 11.513 0.2 -78.021
973.458 0.194 -78.35 0.979 11.169 0.979 11.169 0.194 -78.35
998.417 0.188 -78.664 0.981 10.84 0.981 10.84 0.188 -78.664
1023.375 0.183 -78.963 0.982 10.525 0.982 10.525 0.183 -78.963
1048.333 0.177 -79.25 0.982 10.223 0.982 10.223 0.177 -79.25
1073.292 0.173 -79.524 0.983 9.934 0.983 9.934 0.173 -79.524
1098.25 0.168 -79.786 0.984 9.655 0.984 9.655 0.168 -79.786
1123.208 0.163 -80.038 0.985 9.388 0.985 9.388 0.163 -80.038
1148.167 0.159 -80.279 0.986 9.13 0.986 9.13 0.159 -80.279
1173.125 0.154 -80.511 0.986 8.882 0.986 8.882 0.154 -80.511
1198.083 0.15 -80.733 0.987 8.642 0.987 8.642 0.15 -80.733
1223.042 0.146 -80.947 0.988 8.411 0.988 8.411 0.146 -80.947
1248 0.142 -81.152 0.988 8.188 0.988 8.188 0.142 -81.152
1272.958 0.139 -81.35 0.989 7.972 0.989 7.972 0.139 -81.35
1297.917 0.135 -81.541 0.989 7.763 0.989 7.763 0.135 -81.541
1322.875 0.132 -81.724 0.99 7.56 0.99 7.56 0.132 -81.724
1347.833 0.128 -81.901 0.99 7.364 0.99 7.364 0.128 -81.901
1372.792 0.125 -82.072 0.991 7.174 0.991 7.174 0.125 -82.072
1397.75 0.122 -82.236 0.991 6.989 0.991 6.989 0.122 -82.236
1422.708 0.119 -82.395 0.991 6.81 0.991 6.81 0.119 -82.395
1447.667 0.116 -82.548 0.992 6.635 0.992 6.635 0.116 -82.548
1472.625 0.113 -82.696 0.992 6.466 0.992 6.466 0.113 -82.696
1497.583 0.11 -82.839 0.992 6.301 0.992 6.301 0.11 -82.839
1522.542 0.107 -82.977 0.993 6.14 0.993 6.14 0.107 -82.977
1547.5 0.104 -83.11 0.993 5.984 0.993 5.984 0.104 -83.11
1572.458 0.102 -83.239 0.993 5.831 0.993 5.831 0.102 -83.239
1597.417 0.099 -83.363 0.993 5.682 0.993 5.682 0.099 -83.363
1622.375 0.097 -83.483 0.994 5.537 0.994 5.537 0.097 -83.483
1647.333 0.094 -83.599 0.994 5.396 0.994 5.396 0.094 -83.599
1672.292 0.092 -83.711 0.994 5.257 0.994 5.257 0.092 -83.711
1697.25 0.089 -83.819 0.994 5.122 0.994 5.122 0.089 -83.819
1722.208 0.087 -83.923 0.995 4.99 0.995 4.99 0.087 -83.923
1747.167 0.085 -84.023 0.995 4.86 0.995 4.86 0.085 -84.023
1772.125 0.083 -84.12 0.995 4.734 0.995 4.734 0.083 -84.12
1797.083 0.08 -84.213 0.995 4.61 0.995 4.61 0.08 -84.213
1822.042 0.078 -84.302 0.995 4.488 0.995 4.488 0.078 -84.302
1847 0.076 -84.388 0.995 4.369 0.995 4.369 0.076 -84.388
1871.958 0.074 -84.47 0.996 4.253 0.996 4.253 0.074 -84.47
1896.917 0.072 -84.549 0.996 4.138 0.996 4.138 0.072 -84.549
1921.875 0.07 -84.625 0.996 4.026 0.996 4.026 0.07 -84.625
1946.833 0.068 -84.697 0.996 3.916 0.996 3.916 0.068 -84.697
1971.792 0.066 -84.766 0.996 3.808 0.996 3.808 0.066 -84.766
1996.75 0.065 -84.831 0.996 3.702 0.996 3.702 0.065 -84.831
2021.708 0.063 -84.892 0.996 3.598 0.996 3.598 0.063 -84.892
2046.667 0.061 -84.95 0.996 3.495 0.996 3.495 0.061 -84.95
2071.625 0.059 -85.005 0.997 3.394 0.997 3.394 0.059 -85.005
2096.583 0.058 -85.056 0.997 3.295 0.997 3.295 0.058 -85.056
2121.542 0.056 -85.103 0.997 3.198 0.997 3.198 0.056 -85.103
2146.5 0.054 -85.146 0.997 3.102 0.997 3.102 0.054 -85.146
2171.458 0.052 -85.186 0.997 3.008 0.997 3.008 0.052 -85.186
2196.417 0.051 -85.221 0.997 2.915 0.997 2.915 0.051 -85.221
2221.375 0.049 -85.252 0.997 2.823 0.997 2.823 0.049 -85.252
2246.333 0.048 -85.278 0.997 2.733 0.997 2.733 0.048 -85.278
2271.292 0.046 -85.3 0.997 2.644 0.997 2.644 0.046 -85.3
2296.25 0.045 -85.318 0.997 2.557 0.997 2.557 0.045 -85.318
2321.208 0.043 -85.33 0.997 2.47 0.997 2.47 0.043 -85.33
2346.167 0.042 -85.336 0.997 2.385 0.997 2.385 0.042 -85.336
2371.125 0.04 -85.337 0.998 2.301 0.998 2.301 0.04 -85.337
2396.083 0.039 -85.332 0.998 2.218 0.998 2.218 0.039 -85.332
2421.042 0.037 -85.32 0.998 2.137 0.998 2.137 0.037 -85.32
2446 0.036 -85.301 0.998 2.056 0.998 2.056 0.036 -85.301
2470.958 0.035 -85.274 0.998 1.976 0.998 1.976 0.035 -85.274
2495.917 0.033 -85.239 0.998 1.898 0.998 1.898 0.033 -85.239
2520.875 0.032 -85.194 0.998 1.82 0.998 1.82 0.032 -85.194
2545.833 0.03 -85.14 0.998 1.743 0.998 1.743 0.03 -85.14
2570.792 0.029 -85.074 0.998 1.667 0.998 1.667 0.029 -85.074
2595.75 0.028 -84.996 0.998 1.592 0.998 1.592 0.028 -84.996
2620.708 0.027 -84.903 0.998 1.518 0.998 1.518 0.027 -84.903
2645.667 0.025 -84.796 0.998 1.445 0.998 1.445 0.025 -84.796
2670.625 0.024 -84.67 0.998 1.372 0.998 1.372 0.024 -84.67
2695.583 0.023 -84.524 0.998 1.301 0.998 1.301 0.023 -84.524
2720.542 0.022 -84.355 0.998 1.23 0.998 1.23 0.022 -84.355
2745.5 0.02 -84.159 0.998 1.16 0.998 1.16 0.02 -84.159
2770.458 0.019 -83.932 0.998 1.09 0.998 1.09 0.019 -83.932
2795.417 0.018 -83.667 0.998 1.021 0.998 1.021 0.018 -83.667
2820.375 0.017 -83.359 0.998 0.953 0.998 0.953 0.017 -83.359
2845.333 0.016 -82.996 0.998 0.886 0.998 0.886 0.016 -82.996
2870.292 0.014 -82.569 0.998 0.819 0.998 0.819 0.014 -82.569
2895.25 0.013 -82.06 0.998 0.753 0.998 0.753 0.013 -82.06
2920.208 0.012 -81.45 0.998 0.688 0.998 0.688 0.012 -81.45
2945.167 0.011 -80.707 0.998 0.623 0.998 0.623 0.011 -80.707
2970.125 9.887e-3 -79.792 0.998 0.558 0.998 0.558 9.887e-3 -79.792
2995.083 8.793e-3 -78.641 0.998 0.495 0.998 0.495 8.793e-3 -78.641
3020.042 7.713e-3 -77.161 0.998 0.432 0.998 0.432 7.713e-3 -77.161
3045 6.651e-3 -75.201 0.998 0.369 0.998 0.369 6.651e-3 -75.201
3069.958 5.608e-3 -72.505 0.998 0.307 0.998 0.307 5.608e-3 -72.505
3094.917 4.593e-3 -68.604 0.998 0.245 0.998 0.245 4.593e-3 -68.604
3119.875 3.621e-3 -62.572 0.998 0.184 0.998 0.184 3.621e-3 -62.572
3144.833 2.725e-3 -52.409 0.998 0.124 0.998 0.124 2.725e-3 -52.409
3169.792 1.997e-3 -33.858 0.998 0.064 0.998 0.064 1.997e-3 -33.858
3194.75 1.659e-3 -2.587 0.998 4.298e-3 0.998 4.298e-3 1.659e-3 -2.587
3219.708 1.914e-3 29.935 0.998 -0.055 0.998 -0.055 1.914e-3 29.935
3244.667 2.582e-3 49.957 0.998 -0.113 0.998 -0.113 2.582e-3 49.957
3269.625 3.424e-3 60.877 0.998 -0.172 0.998 -0.172 3.424e-3 60.877
3294.583 4.334e-3 67.286 0.998 -0.229 0.998 -0.229 4.334e-3 67.286
3319.542 5.272e-3 71.392 0.998 -0.287 0.998 -0.287 5.272e-3 71.392
3344.5 6.224e-3 74.212 0.998 -0.344 0.998 -0.344 6.224e-3 74.212
3369.458 7.179e-3 76.253 0.998 -0.4 0.998 -0.4 7.179e-3 76.253
3394.417 8.136e-3 77.79 0.998 -0.456 0.998 -0.456 8.136e-3 77.79
3419.375 9.091e-3 78.983 0.998 -0.512 0.998 -0.512 9.091e-3 78.983
3444.333 0.01 79.933 0.998 -0.567 0.998 -0.567 0.01 79.933
3469.292 0.011 80.704 0.998 -0.622 0.998 -0.622 0.011 80.704
3494.25 0.012 81.34 0.998 -0.677 0.998 -0.677 0.012 81.34
3519.208 0.013 81.871 0.998 -0.731 0.998 -0.731 0.013 81.871
3544.167 0.014 82.32 0.998 -0.785 0.998 -0.785 0.014 82.32
3569.125 0.015 82.703 0.998 -0.839 0.998 -0.839 0.015 82.703
3594.083 0.016 83.033 0.998 -0.892 0.998 -0.892 0.016 83.033
3619.042 0.017 83.318 0.998 -0.945 0.998 -0.945 0.017 83.318
3644 0.017 83.566 0.998 -0.998 0.998 -0.998 0.017 83.566
3668.958 0.018 83.783 0.998 -1.05 0.998 -1.05 0.018 83.783
3693.917 0.019 83.973 0.998 -1.102 0.998 -1.102 0.019 83.973
3718.875 0.02 84.141 0.998 -1.154 0.998 -1.154 0.02 84.141
3743.833 0.021 84.29 0.998 -1.205 0.998 -1.205 0.021 84.29
3768.792 0.022 84.421 0.998 -1.256 0.998 -1.256 0.022 84.421
3793.75 0.023 84.538 0.998 -1.307 0.998 -1.307 0.023 84.538
3818.708 0.024 84.642 0.998 -1.357 0.998 -1.357 0.024 84.642
3843.667 0.025 84.734 0.998 -1.408 0.998 -1.408 0.025 84.734
3868.625 0.025 84.816 0.998 -1.458 0.998 -1.458 0.025 84.816
3893.583 0.026 84.889 0.998 -1.507 0.998 -1.507 0.026 84.889
3918.542 0.027 84.954 0.998 -1.557 0.998 -1.557 0.027 84.954
3943.5 0.028 85.011 0.998 -1.606 0.998 -1.606 0.028 85.011
3968.458 0.029 85.062 0.998 -1.655 0.998 -1.655 0.029 85.062
3993.417 0.03 85.107 0.998 -1.704 0.998 -1.704 0.03 85.107
4018.375 0.031 85.147 0.998 -1.752 0.998 -1.752 0.031 85.147
4043.333 0.031 85.181 0.998 -1.801 0.998 -1.801 0.031 85.181
4068.292 0.032 85.212 0.998 -1.849 0.998 -1.849 0.032 85.212
4093.25 0.033 85.238 0.998 -1.896 0.998 -1.896 0.033 85.238
4118.208 0.034 85.26 0.998 -1.944 0.998 -1.944 0.034 85.26
4143.167 0.035 85.28 0.998 -1.991 0.998 -1.991 0.035 85.28
4168.125 0.036 85.295 0.998 -2.038 0.998 -2.038 0.036 85.295
4193.083 0.036 85.309 0.998 -2.085 0.998 -2.085 0.036 85.309
4218.042 0.037 85.319 0.998 -2.132 0.998 -2.132 0.037 85.319
4243 0.038 85.327 0.998 -2.179 0.998 -2.179 0.038 85.327
4267.958 0.039 85.332 0.998 -2.225 0.998 -2.225 0.039 85.332
4292.917 0.04 85.336 0.998 -2.271 0.998 -2.271 0.04 85.336
4317.875 0.04 85.337 0.998 -2.317 0.998 -2.317 0.04 85.337
4342.833 0.041 85.337 0.997 -2.363 0.997 -2.363 0.041 85.337
4367.792 0.042 85.335 0.997 -2.408 0.997 -2.408 0.042 85.335
4392.75 0.043 85.331 0.997 -2.454 0.997 -2.454 0.043 85.331
4417.708 0.044 85.326 0.997 -2.499 0.997 -2.499 0.044 85.326
4442.667 0.044 85.32 0.997 -2.544 0.997 -2.544 0.044 85.32
4467.625 0.045 85.312 0.997 -2.589 0.997 -2.589 0.045 85.312
4492.583 0.046 85.303 0.997 -2.633 0.997 -2.633 0.046 85.303
4517.542 0.047 85.293 0.997 -2.678 0.997 -2.678 0.047 85.293
4542.5 0.048 85.281 0.997 -2.722 0.997 -2.722 0.048 85.281
4567.458 0.048 85.269 0.997 -2.766 0.997 -2.766 0.048 85.269
4592.417 0.049 85.256 0.997 -2.81 0.997 -2.81 0.049 85.256
4617.375 0.05 85.242 0.997 -2.854 0.997 -2.854 0.05 85.242
4642.333 0.051 85.227 0.997 -2.898 0.997 -2.898 0.051 85.227
4667.292 0.051 85.211 0.997 -2.941 0.997 -2.941 0.051 85.211
4692.25 0.052 85.195 0.997 -2.985 0.997 -2.985 0.052 85.195
4717.208 0.053 85.178 0.997 -3.028 0.997 -3.028 0.053 85.178
4742.167 0.054 85.16 0.997 -3.071 0.997 -3.071 0.054 85.16
4767.125 0.054 85.141 0.997 -3.114 0.997 -3.114 0.054 85.141
4792.083 0.055 85.122 0.997 -3.157 0.997 -3.157 0.055 85.122
4817.042 0.056 85.102 0.997 -3.199 0.997 -3.199 0.056 85.102
4842 0.057 85.082 0.997 -3.242 0.997 -3.242 0.057 85.082
4866.958 0.057 85.061 0.997 -3.284 0.997 -3.284 0.057 85.061
4891.917 0.058 85.04 0.997 -3.326 0.997 -3.326 0.058 85.04
4916.875 0.059 85.019 0.997 -3.368 0.997 -3.368 0.059 85.019
4941.833 0.06 84.997 0.997 -3.41 0.997 -3.41 0.06 84.997
4966.792 0.06 84.974 0.997 -3.452 0.997 -3.452 0.06 84.974
4991.75 0.061 84.951 0.996 -3.494 0.996 -3.494 0.061 84.951
5016.708 0.062 84.928 0.996 -3.535 0.996 -3.535 0.062 84.928
5041.667 0.062 84.904 0.996 -3.577 0.996 -3.577 0.062 84.904
5066.625 0.063 84.88 0.996 -3.618 0.996 -3.618 0.063 84.88
5091.583 0.064 84.856 0.996 -3.66 0.996 -3.66 0.064 84.856
5116.542 0.065 84.831 0.996 -3.701 0.996 -3.701 0.065 84.831
5141.5 0.065 84.807 0.996 -3.742 0.996 -3.742 0.065 84.807
5166.458 0.066 84.781 0.996 -3.782 0.996 -3.782 0.066 84.781
5191.417 0.067 84.756 0.996 -3.823 0.996 -3.823 0.067 84.756
5216.375 0.067 84.73 0.996 -3.864 0.996 -3.864 0.067 84.73
5241.333 0.068 84.704 0.996 -3.904 0.996 -3.904 0.068 84.704
5266.292 0.069 84.678 0.996 -3.945 0.996 -3.945 0.069 84.678
5291.25 0.07 84.652 0.996 -3.985 0.996 -3.985 0.07 84.652
5316.208 0.07 84.625 0.996 -4.025 0.996 -4.025 0.07 84.625
5341.167 0.071 84.599 0.996 -4.066 0.996 -4.066 0.071 84.599
5366.125 0.072 84.572 0.996 -4.106 0.996 -4.106 0.072 84.572
5391.083 0.072 84.545 0.996 -4.145 0.996 -4.145 0.072 84.545
5416.042 0.073 84.517 0.996 -4.185 0.996 -4.185 0.073 84.517
5441 0.074 84.49 0.996 -4.225 0.996 -4.225 0.074 84.49
5465.958 0.074 84.462 0.996 -4.265 0.996 -4.265 0.074 84.462
5490.917 0.075 84.434 0.996 -4.304 0.996 -4.304 0.075 84.434
5515.875 0.076 84.406 0.995 -4.344 0.995 -4.344 0.076 84.406
5540.833 0.076 84.378 0.995 -4.383 0.995 -4.383 0.076 84.378
5565.792 0.077 84.35 0.995 -4.422 0.995 -4.422 0.077 84.35
5590.75 0.078 84.322 0.995 -4.461 0.995 -4.461 0.078 84.322
5615.708 0.078 84.293 0.995 -4.5 0.995 -4.5 0.078 84.293
5640.667 0.079 84.265 0.995 -4.539 0.995 -4.539 0.079 84.265
5665.625 0.08 84.236 0.995 -4.578 0.995 -4.578 0.08 84.236
5690.583 0.081 84.207 0.995 -4.617 0.995 -4.617 0.081 84.207
5715.542 0.081 84.178 0.995 -4.656 0.995 -4.656 0.081 84.178
5740.5 0.082 84.149 0.995 -4.694 0.995 -4.694 0.082 84.149
5765.458 0.083 84.12 0.995 -4.733 0.995 -4.733 0.083 84.12
5790.417 0.083 84.091 0.995 -4.771 0.995 -4.771 0.083 84.091
5815.375 0.084 84.062 0.995 -4.81 0.995 -4.81 0.084 84.062
5840.333 0.085 84.033 0.995 -4.848 0.995 -4.848 0.085 84.033
5865.292 0.085 84.003 0.995 -4.886 0.995 -4.886 0.085 84.003
5890.25 0.086 83.974 0.995 -4.924 0.995 -4.924 0.086 83.974
5915.208 0.087 83.944 0.995 -4.962 0.995 -4.962 0.087 83.944
5940.167 0.087 83.914 0.995 -5 0.995 -5 0.087 83.914
5965.125 0.088 83.885 0.994 -5.038 0.994 -5.038 0.088 83.885
5990.083 0.088 83.855 0.994 -5.076 0.994 -5.076 0.088 83.855
6015.042 0.089 83.825 0.994 -5.114 0.994 -5.114 0.089 83.825
6040 0.09 83.795 0.994 -5.152 0.994 -5.152 0.09 83.795
6064.958 0.09 83.765 0.994 -5.189 0.994 -5.189 0.09 83.765
6089.917 0.091 83.735 0.994 -5.227 0.994 -5.227 0.091 83.735
6114.875 0.092 83.705 0.994 -5.264 0.994 -5.264 0.092 83.705
6139.833 0.092 83.675 0.994 -5.302 0.994 -5.302 0.092 83.675
6164.792 0.093 83.645 0.994 -5.339 0.994 -5.339 0.093 83.645
6189.75 0.094 83.615 0.994 -5.376 0.994 -5.376 0.094 83.615
6214.708 0.094 83.585 0.994 -5.413 0.994 -5.413 0.094 83.585
6239.667 0.095 83.554 0.994 -5.451 0.994 -5.451 0.095 83.554
6264.625 0.096 83.524 0.994 -5.488 0.994 -5.488 0.096 83.524
6289.583 0.096 83.494 0.994 -5.525 0.994 -5.525 0.096 83.494
6314.542 0.097 83.463 0.994 -5.561 0.994 -5.561 0.097 83.463
6339.5 0.098 83.433 0.994 -5.598 0.994 -5.598 0.098 83.433
6364.458 0.098 83.403 0.994 -5.635 0.994 -5.635 0.098 83.403
6389.417 0.099 83.372 0.993 -5.672 0.993 -5.672 0.099 83.372
6414.375 0.099 83.342 0.993 -5.709 0.993 -5.709 0.099 83.342
6439.333 0.1 83.311 0.993 -5.745 0.993 -5.745 0.1 83.311
6464.292 0.101 83.28 0.993 -5.782 0.993 -5.782 0.101 83.28
6489.25 0.101 83.25 0.993 -5.818 0.993 -5.818 0.101 83.25
6514.208 0.102 83.219 0.993 -5.855 0.993 -5.855 0.102 83.219
6539.167 0.103 83.189 0.993 -5.891 0.993 -5.891 0.103 83.189
6564.125 0.103 83.158 0.993 -5.927 0.993 -5.927 0.103 83.158
6589.083 0.104 83.127 0.993 -5.964 0.993 -5.964 0.104 83.127
6614.042 0.105 83.097 0.993 -6 0.993 -6 0.105 83.097
6639 0.105 83.066 0.993 -6.036 0.993 -6.036 0.105 83.066
6663.958 0.106 83.035 0.993 -6.072 0.993 -6.072 0.106 83.035
6688.917 0.106 83.005 0.993 -6.108 0.993 -6.108 0.106 83.005
6713.875 0.107 82.974 0.993 -6.144 0.993 -6.144 0.107 82.974
6738.833 0.108 82.943 0.993 -6.18 0.993 -6.18 0.108 82.943
6763.792 0.108 82.912 0.992 -6.216 0.992 -6.216 0.108 82.912
6788.75 0.109 82.881 0.992 -6.252 0.992 -6.252 0.109 82.881
6813.708 0.11 82.851 0.992 -6.287 0.992 -6.287 0.11 82.851
6838.667 0.11 82.82 0.992 -6.323 0.992 -6.323 0.11 82.82
6863.625 0.111 82.789 0.992 -6.359 0.992 -6.359 0.111 82.789
6888.583 0.111 82.758 0.992 -6.394 0.992 -6.394 0.111 82.758
6913.542 0.112 82.727 0.992 -6.43 0.992 -6.43 0.112 82.727
6938.5 0.113 82.697 0.992 -6.466 0.992 -6.466 0.113 82.697
6963.458 0.113 82.666 0.992 -6.501 0.992 -6.501 0.113 82.666
6988.417 0.114 82.635 0.992 -6.536 0.992 -6.536 0.114 82.635
7013.375 0.114 82.604 0.992 -6.572 0.992 -6.572 0.114 82.604
7038.333 0.115 82.573 0.992 -6.607 0.992 -6.607 0.115 82.573
7063.292 0.116 82.542 0.992 -6.642 0.992 -6.642 0.116 82.542
7088.25 0.116 82.511 0.992 -6.678 0.992 -6.678 0.116 82.511
7113.208 0.117 82.48 0.991 -6.713 0.991 -6.713 0.117 82.48
7138.167 0.118 82.45 0.991 -6.748 0.991 -6.748 0.118 82.45
7163.125 0.118 82.419 0.991 -6.783 0.991 -6.783 0.118 82.419
7188.083 0.119 82.388 0.991 -6.818 0.991 -6.818 0.119 82.388
7213.042 0.119 82.357 0.991 -6.853 0.991 -6.853 0.119 82.357
7238 0.12 82.326 0.991 -6.888 0.991 -6.888 0.12 82.326
7262.958 0.121 82.295 0.991 -6.923 0.991 -6.923 0.121 82.295
7287.917 0.121 82.264 0.991 -6.958 0.991 -6.958 0.121 82.264
7312.875 0.122 82.233 0.991 -6.992 0.991 -6.992 0.122 82.233
7337.833 0.122 82.202 0.991 -7.027 0.991 -7.027 0.122 82.202
7362.792 0.123 82.171 0.991 -7.062 0.991 -7.062 0.123 82.171
7387.75 0.124 82.141 0.991 -7.097 0.991 -7.097 0.124 82.141
7412.708 0.124 82.11 0.991 -7.131 0.991 -7.131 0.124 82.11
7437.667 0.125 82.079 0.991 -7.166 0.991 -7.166 0.125 82.079
7462.625 0.125 82.048 0.99 -7.2 0.99 -7.2 0.125 82.048
7487.583 0.126 82.017 0.99 -7.235 0.99 -7.235 0.126 82.017
7512.542 0.127 81.986 0.99 -7.269 0.99 -7.269 0.127 81.986
7537.5 0.127 81.955 0.99 -7.304 0.99 -7.304 0.127 81.955
7562.458 0.128 81.924 0.99 -7.338 0.99 -7.338 0.128 81.924
7587.417 0.128 81.893 0.99 -7.373 0.99 -7.373 0.128 81.893
7612.375 0.129 81.863 0.99 -7.407 0.99 -7.407 0.129 81.863
7637.333 0.13 81.832 0.99 -7.441 0.99 -7.441 0.13 81.832
7662.292 0.13 81.801 0.99 -7.475 0.99 -7.475 0.13 81.801
7687.25 0.131 81.77 0.99 -7.51 0.99 -7.51 0.131 81.77
7712.208 0.131 81.739 0.99 -7.544 0.99 -7.544 0.131 81.739
7737.167 0.132 81.708 0.99 -7.578 0.99 -7.578 0.132 81.708
7762.125 0.132 81.677 0.99 -7.612 0.99 -7.612 0.132 81.677
7787.083 0.133 81.647 0.989 -7.646 0.989 -7.646 0.133 81.647
7812.042 0.134 81.616 0.989 -7.68 0.989 -7.68 0.134 81.616
7837 0.134 81.585 0.989 -7.714 0.989 -7.714 0.134 81.585
7861.958 0.135 81.554 0.989 -7.748 0.989 -7.748 0.135 81.554
7886.917 0.135 81.523 0.989 -7.782 0.989 -7.782 0.135 81.523
7911.875 0.136 81.492 0.989 -7.816 0.989 -7.816 0.136 81.492
7936.833 0.137 81.462 0.989 -7.85 0.989 -7.85 0.137 81.462
7961.792 0.137 81.431 0.989 -7.883 0.989 -7.883 0.137 81.431
7986.75 0.138 81.4 0.989 -7.917 0.989 -7.917 0.138 81.4
8011.708 0.138 81.369 0.989 -7.951 0.989 -7.951 0.138 81.369
8036.667 0.139 81.338 0.989 -7.985 0.989 -7.985 0.139 81.338
8061.625 0.139 81.308 0.989 -8.018 0.989 -8.018 0.139 81.308
8086.583 0.14 81.277 0.989 -8.052 0.989 -8.052 0.14 81.277
8111.542 0.141 81.246 0.988 -8.086 0.988 -8.086 0.141 81.246
8136.5 0.141 81.215 0.988 -8.119 0.988 -8.119 0.141 81.215
8161.458 0.142 81.185 0.988 -8.153 0.988 -8.153 0.142 81.185
8186.417 0.142 81.154 0.988 -8.186 0.988 -8.186 0.142 81.154
8211.375 0.143 81.123 0.988 -8.22 0.988 -8.22 0.143 81.123
8236.333 0.144 81.092 0.988 -8.253 0.988 -8.253 0.144 81.092
8261.292 0.144 81.062 0.988 -8.286 0.988 -8.286 0.144 81.062
8286.25 0.145 81.031 0.988 -8.32 0.988 -8.32 0.145 81.031
