# MHZ S MA R 50

50 0.978 -12.06 0.209 77.919 0.209 77.919 0.978 -12.06
74.958 0.952 -17.764 0.305 72.205 0.305 72.205 0.952 -17.764
99.917 0.919 -23.13 0.393 66.828 0.393 66.828 0.919 -23.13
124.875 0.882 -28.103 0.471 61.844 0.471 61.844 0.882 -28.103
149.833 0.841 -32.661 0.54 57.276 0.54 57.276 0.841 -32.661
174.792 0.8 -36.802 0.599 53.124 0.599 53.124 0.8 -36.802
199.75 0.759 -40.546 0.65 49.37 0.65 49.37 0.759 -40.546
224.708 0.719 -43.919 0.694 45.987 0.694 45.987 0.719 -43.919
249.667 0.681 -46.954 0.731 42.941 0.731 42.941 0.681 -46.954
274.625 0.645 -49.686 0.763 40.198 0.763 40.198 0.645 -49.686
299.583 0.612 -52.148 0.79 37.725 0.79 37.725 0.612 -52.148
324.542 0.581 -54.37 0.813 35.492 0.813 35.492 0.581 -54.37
349.5 0.552 -56.381 0.833 33.471 0.833 33.471 0.552 -56.381
374.458 0.525 -58.205 0.85 31.636 0.85 31.636 0.525 -58.205
399.417 0.499 -59.865 0.865 29.966 0.865 29.966 0.499 -59.865
424.375 0.476 -61.378 0.878 28.441 0.878 28.441 0.476 -61.378
449.333 0.455 -62.763 0.889 27.045 0.889 27.045 0.455 -62.763
474.292 0.435 -64.034 0.899 25.763 0.899 25.763 0.435 -64.034
499.25 0.416 -65.204 0.908 24.583 0.908 24.583 0.416 -65.204
524.208 0.399 -66.282 0.916 23.493 0.916 23.493 0.399 -66.282
549.167 0.382 -67.28 0.922 22.483 0.922 22.483 0.382 -67.28
574.125 0.367 -68.206 0.929 21.547 0.929 21.547 0.367 -68.206
599.083 0.353 -69.066 0.934 20.675 0.934 20.675 0.353 -69.066
624.042 0.34 -69.867 0.939 19.862 0.939 19.862 0.34 -69.867
649 0.327 -70.616 0.943 19.102 0.943 19.102 0.327 -70.616
673.958 0.315 -71.316 0.947 18.39 0.947 18.39 0.315 -71.316
698.917 0.304 -71.972 0.951 17.721 0.951 17.721 0.304 -71.972
723.875 0.294 -72.589 0.954 17.093 0.954 17.093 0.294 -72.589
748.833 0.284 -73.17 0.957 16.5 0.957 16.5 0.284 -73.17
773.792 0.275 -73.717 0.96 15.941 0.96 15.941 0.275 -73.717
798.75 0.266 -74.234 0.962 15.411 0.962 15.411 0.266 -74.234
823.708 0.257 -74.722 0.965 14.91 0.965 14.91 0.257 -74.722
848.667 0.249 -75.185 0.967 14.435 0.967 14.435 0.249 -75.185
873.625 0.242 -75.624 0.969 13.983 0.969 13.983 0.242 -75.624
898.583 0.234 -76.041 0.97 13.553 0.97 13.553 0.234 -76.041
923.542 0.227 -76.438 0.972 13.143 0.972 13.143 0.227 -76.438
948.5 0.221 -76.816 0.974 12.752 0.974 12.752 0.221 -76.816
973.458 0.214 -77.176 0.975 12.379 0.975 12.379 0.214 -77.176
998.417 0.208 -77.519 0.976 12.021 0.976 12.021 0.208 -77.519
1023.375 0.202 -77.847 0.978 11.679 0.978 11.679 0.202 -77.847
1048.333 0.197 -78.161 0.979 11.351 0.979 11.351 0.197 -78.161
1073.292 0.191 -78.462 0.98 11.036 0.98 11.036 0.191 -78.462
1098.25 0.186 -78.75 0.981 10.734 0.981 10.734 0.186 -78.75
1123.208 0.181 -79.026 0.982 10.443 0.982 10.443 0.181 -79.026
1148.167 0.176 -79.291 0.983 10.163 0.983 10.163 0.176 -79.291
1173.125 0.172 -79.546 0.983 9.893 0.983 9.893 0.172 -79.546
1198.083 0.167 -79.791 0.984 9.633 0.984 9.633 0.167 -79.791
1223.042 0.163 -80.026 0.985 9.382 0.985 9.382 0.163 -80.026
1248 0.159 -80.253 0.986 9.139 0.986 9.139 0.159 -80.253
1272.958 0.155 -80.471 0.986 8.905 0.986 8.905 0.155 -80.471
1297.917 0.151 -80.681 0.987 8.678 0.987 8.678 0.151 -80.681
1322.875 0.147 -80.884 0.987 8.458 0.987 8.458 0.147 -80.884
1347.833 0.143 -81.08 0.988 8.245 0.988 8.245 0.143 -81.08
1372.792 0.14 -81.269 0.988 8.038 0.988 8.038 0.14 -81.269
1397.75 0.136 -81.451 0.989 7.838 0.989 7.838 0.136 -81.451
1422.708 0.133 -81.628 0.989 7.643 0.989 7.643 0.133 -81.628
1447.667 0.13 -81.798 0.99 7.454 0.99 7.454 0.13 -81.798
1472.625 0.127 -81.963 0.99 7.27 0.99 7.27 0.127 -81.963
1497.583 0.123 -82.122 0.991 7.092 0.991 7.092 0.123 -82.122
1522.542 0.12 -82.276 0.991 6.918 0.991 6.918 0.12 -82.276
1547.5 0.118 -82.425 0.991 6.748 0.991 6.748 0.118 -82.425
1572.458 0.115 -82.57 0.992 6.583 0.992 6.583 0.115 -82.57
1597.417 0.112 -82.709 0.992 6.422 0.992 6.422 0.112 -82.709
1622.375 0.109 -82.845 0.992 6.264 0.992 6.264 0.109 -82.845
1647.333 0.106 -82.975 0.993 6.111 0.993 6.111 0.106 -82.975
1672.292 0.104 -83.102 0.993 5.961 0.993 5.961 0.104 -83.102
1697.25 0.101 -83.225 0.993 5.815 0.993 5.815 0.101 -83.225
1722.208 0.099 -83.343 0.993 5.672 0.993 5.672 0.099 -83.343
1747.167 0.096 -83.458 0.994 5.532 0.994 5.532 0.096 -83.458
1772.125 0.094 -83.569 0.994 5.395 0.994 5.395 0.094 -83.569
1797.083 0.092 -83.677 0.994 5.261 0.994 5.261 0.092 -83.677
1822.042 0.089 -83.78 0.994 5.13 0.994 5.13 0.089 -83.78
1847 0.087 -83.881 0.994 5.002 0.994 5.002 0.087 -83.881
1871.958 0.085 -83.978 0.995 4.876 0.995 4.876 0.085 -83.978
1896.917 0.083 -84.071 0.995 4.752 0.995 4.752 0.083 -84.071
1921.875 0.081 -84.161 0.995 4.631 0.995 4.631 0.081 -84.161
1946.833 0.079 -84.248 0.995 4.513 0.995 4.513 0.079 -84.248
1971.792 0.077 -84.332 0.995 4.396 0.995 4.396 0.077 -84.332
1996.75 0.075 -84.412 0.996 4.282 0.996 4.282 0.075 -84.412
2021.708 0.073 -84.489 0.996 4.169 0.996 4.169 0.073 -84.489
2046.667 0.071 -84.563 0.996 4.059 0.996 4.059 0.071 -84.563
2071.625 0.069 -84.633 0.996 3.951 0.996 3.951 0.069 -84.633
2096.583 0.067 -84.701 0.996 3.844 0.996 3.844 0.067 -84.701
2121.542 0.065 -84.764 0.996 3.739 0.996 3.739 0.065 -84.764
2146.5 0.063 -84.825 0.996 3.636 0.996 3.636 0.063 -84.825
2171.458 0.062 -84.882 0.996 3.534 0.996 3.534 0.062 -84.882
2196.417 0.06 -84.936 0.996 3.435 0.996 3.435 0.06 -84.936
2221.375 0.058 -84.986 0.997 3.336 0.997 3.336 0.058 -84.986
2246.333 0.057 -85.033 0.997 3.239 0.997 3.239 0.057 -85.033
2271.292 0.055 -85.076 0.997 3.144 0.997 3.144 0.055 -85.076
2296.25 0.053 -85.115 0.997 3.05 0.997 3.05 0.053 -85.115
2321.208 0.052 -85.15 0.997 2.957 0.997 2.957 0.052 -85.15
2346.167 0.05 -85.181 0.997 2.866 0.997 2.866 0.05 -85.181
2371.125 0.048 -85.207 0.997 2.776 0.997 2.776 0.048 -85.207
2396.083 0.047 -85.23 0.997 2.687 0.997 2.687 0.047 -85.23
2421.042 0.045 -85.247 0.997 2.6 0.997 2.6 0.045 -85.247
2446 0.044 -85.259 0.997 2.513 0.997 2.513 0.044 -85.259
2470.958 0.042 -85.266 0.997 2.428 0.997 2.428 0.042 -85.266
2495.917 0.041 -85.268 0.997 2.344 0.997 2.344 0.041 -85.268
2520.875 0.039 -85.263 0.998 2.261 0.998 2.261 0.039 -85.263
2545.833 0.038 -85.252 0.998 2.179 0.998 2.179 0.038 -85.252
2570.792 0.037 -85.234 0.998 2.097 0.998 2.097 0.037 -85.234
2595.75 0.035 -85.208 0.998 2.017 0.998 2.017 0.035 -85.208
2620.708 0.034 -85.174 0.998 1.938 0.998 1.938 0.034 -85.174
2645.667 0.032 -85.131 0.998 1.86 0.998 1.86 0.032 -85.131
2670.625 0.031 -85.077 0.998 1.782 0.998 1.782 0.031 -85.077
2695.583 0.03 -85.013 0.998 1.706 0.998 1.706 0.03 -85.013
2720.542 0.028 -84.937 0.998 1.63 0.998 1.63 0.028 -84.937
2745.5 0.027 -84.847 0.998 1.555 0.998 1.555 0.027 -84.847
2770.458 0.026 -84.741 0.998 1.481 0.998 1.481 0.026 -84.741
2795.417 0.025 -84.619 0.998 1.408 0.998 1.408 0.025 -84.619
2820.375 0.023 -84.476 0.998 1.335 0.998 1.335 0.023 -84.476
2845.333 0.022 -84.311 0.998 1.264 0.998 1.264 0.022 -84.311
2870.292 0.021 -84.119 0.998 1.193 0.998 1.193 0.021 -84.119
2895.25 0.02 -83.897 0.998 1.122 0.998 1.122 0.02 -83.897
2920.208 0.018 -83.639 0.998 1.053 0.998 1.053 0.018 -83.639
2945.167 0.017 -83.337 0.998 0.984 0.998 0.984 0.017 -83.337
2970.125 0.016 -82.985 0.998 0.915 0.998 0.915 0.016 -82.985
2995.083 0.015 -82.569 0.998 0.847 0.998 0.847 0.015 -82.569
3020.042 0.014 -82.075 0.998 0.78 0.998 0.78 0.014 -82.075
3045 0.013 -81.484 0.998 0.714 0.998 0.714 0.013 -81.484
3069.958 0.011 -80.767 0.998 0.648 0.998 0.648 0.011 -80.767
3094.917 0.01 -79.886 0.998 0.583 0.998 0.583 0.01 -79.886
3119.875 9.197e-3 -78.785 0.998 0.518 0.998 0.518 9.197e-3 -78.785
3144.833 8.098e-3 -77.376 0.998 0.454 0.998 0.454 8.098e-3 -77.376
3169.792 7.015e-3 -75.525 0.998 0.39 0.998 0.39 7.015e-3 -75.525
3194.75 5.952e-3 -73.004 0.998 0.327 0.998 0.327 5.952e-3 -73.004
3219.708 4.914e-3 -69.406 0.998 0.264 0.998 0.264 4.914e-3 -69.406
3244.667 3.915e-3 -63.943 0.998 0.202 0.998 0.202 3.915e-3 -63.943
3269.625 2.983e-3 -54.95 0.998 0.14 0.998 0.14 2.983e-3 -54.95
3294.583 2.194e-3 -38.834 0.998 0.079 0.998 0.079 2.194e-3 -38.834
3319.542 1.737e-3 -10.538 0.998 0.018 0.998 0.018 1.737e-3 -10.538
3344.5 1.858e-3 23.221 0.998 -0.042 0.998 -0.042 1.858e-3 23.221
3369.458 2.465e-3 46.065 0.998 -0.102 0.998 -0.102 2.465e-3 46.065
3394.417 3.292e-3 58.602 0.998 -0.161 0.998 -0.161 3.292e-3 58.602
3419.375 4.206e-3 65.833 0.998 -0.22 0.998 -0.22 4.206e-3 65.833
3444.333 5.157e-3 70.388 0.998 -0.279 0.998 -0.279 5.157e-3 70.388
3469.292 6.124e-3 73.475 0.998 -0.337 0.998 -0.337 6.124e-3 73.475
3494.25 7.097e-3 75.686 0.998 -0.395 0.998 -0.395 7.097e-3 75.686
3519.208 8.072e-3 77.338 0.998 -0.452 0.998 -0.452 8.072e-3 77.338
3544.167 9.046e-3 78.613 0.998 -0.509 0.998 -0.509 9.046e-3 78.613
3569.125 0.01 79.623 0.998 -0.566 0.998 -0.566 0.01 79.623
3594.083 0.011 80.439 0.998 -0.622 0.998 -0.622 0.011 80.439
3619.042 0.012 81.11 0.998 -0.678 0.998 -0.678 0.012 81.11
3644 0.013 81.668 0.998 -0.733 0.998 -0.733 0.013 81.668
3668.958 0.014 82.139 0.998 -0.788 0.998 -0.788 0.014 82.139
3693.917 0.015 82.54 0.998 -0.843 0.998 -0.843 0.015 82.54
3718.875 0.016 82.884 0.998 -0.898 0.998 -0.898 0.016 82.884
3743.833 0.017 83.181 0.998 -0.952 0.998 -0.952 0.017 83.181
3768.792 0.018 83.44 0.998 -1.006 0.998 -1.006 0.018 83.44
3793.75 0.019 83.665 0.998 -1.059 0.998 -1.059 0.019 83.665
3818.708 0.019 83.863 0.998 -1.112 0.998 -1.112 0.019 83.863
3843.667 0.02 84.037 0.998 -1.165 0.998 -1.165 0.02 84.037
3868.625 0.021 84.191 0.998 -1.218 0.998 -1.218 0.021 84.191
3893.583 0.022 84.327 0.998 -1.27 0.998 -1.27 0.022 84.327
3918.542 0.023 84.448 0.998 -1.322 0.998 -1.322 0.023 84.448
3943.5 0.024 84.555 0.998 -1.374 0.998 -1.374 0.024 84.555
3968.458 0.025 84.65 0.998 -1.426 0.998 -1.426 0.025 84.65
3993.417 0.026 84.735 0.998 -1.477 0.998 -1.477 0.026 84.735
4018.375 0.027 84.81 0.998 -1.528 0.998 -1.528 0.027 84.81
4043.333 0.028 84.877 0.998 -1.579 0.998 -1.579 0.028 84.877
4068.292 0.028 84.936 0.998 -1.629 0.998 -1.629 0.028 84.936
4093.25 0.029 84.988 0.998 -1.679 0.998 -1.679 0.029 84.988
4118.208 0.03 85.034 0.998 -1.729 0.998 -1.729 0.03 85.034
4143.167 0.031 85.075 0.998 -1.779 0.998 -1.779 0.031 85.075
4168.125 0.032 85.11 0.998 -1.828 0.998 -1.828 0.032 85.11
4193.083 0.033 85.141 0.998 -1.878 0.998 -1.878 0.033 85.141
4218.042 0.034 85.168 0.998 -1.927 0.998 -1.927 0.034 85.168
4243 0.035 85.191 0.998 -1.976 0.998 -1.976 0.035 85.191
4267.958 0.035 85.21 0.998 -2.024 0.998 -2.024 0.035 85.21
4292.917 0.036 85.226 0.998 -2.072 0.998 -2.072 0.036 85.226
4317.875 0.037 85.24 0.998 -2.121 0.998 -2.121 0.037 85.24
4342.833 0.038 85.25 0.998 -2.169 0.998 -2.169 0.038 85.25
4367.792 0.039 85.258 0.998 -2.216 0.998 -2.216 0.039 85.258
4392.75 0.04 85.263 0.998 -2.264 0.998 -2.264 0.04 85.263
4417.708 0.04 85.267 0.997 -2.311 0.997 -2.311 0.04 85.267
4442.667 0.041 85.268 0.997 -2.358 0.997 -2.358 0.041 85.268
4467.625 0.042 85.267 0.997 -2.405 0.997 -2.405 0.042 85.267
4492.583 0.043 85.265 0.997 -2.452 0.997 -2.452 0.043 85.265
4517.542 0.044 85.261 0.997 -2.499 0.997 -2.499 0.044 85.261
4542.5 0.044 85.255 0.997 -2.545 0.997 -2.545 0.044 85.255
4567.458 0.045 85.248 0.997 -2.591 0.997 -2.591 0.045 85.248
4592.417 0.046 85.24 0.997 -2.637 0.997 -2.637 0.046 85.24
4617.375 0.047 85.231 0.997 -2.683 0.997 -2.683 0.047 85.231
4642.333 0.048 85.22 0.997 -2.729 0.997 -2.729 0.048 85.22
4667.292 0.048 85.208 0.997 -2.774 0.997 -2.774 0.048 85.208
4692.25 0.049 85.195 0.997 -2.819 0.997 -2.819 0.049 85.195
4717.208 0.05 85.181 0.997 -2.865 0.997 -2.865 0.05 85.181
4742.167 0.051 85.167 0.997 -2.91 0.997 -2.91 0.051 85.167
4767.125 0.052 85.151 0.997 -2.954 0.997 -2.954 0.052 85.151
4792.083 0.052 85.135 0.997 -2.999 0.997 -2.999 0.052 85.135
4817.042 0.053 85.117 0.997 -3.044 0.997 -3.044 0.053 85.117
4842 0.054 85.099 0.997 -3.088 0.997 -3.088 0.054 85.099
4866.958 0.055 85.081 0.997 -3.132 0.997 -3.132 0.055 85.081
4891.917 0.055 85.062 0.997 -3.176 0.997 -3.176 0.055 85.062
4916.875 0.056 85.042 0.997 -3.22 0.997 -3.22 0.056 85.042
4941.833 0.057 85.021 0.997 -3.264 0.997 -3.264 0.057 85.021
4966.792 0.058 85 0.997 -3.308 0.997 -3.308 0.058 85
4991.75 0.058 84.979 0.997 -3.351 0.997 -3.351 0.058 84.979
5016.708 0.059 84.957 0.997 -3.395 0.997 -3.395 0.059 84.957
5041.667 0.06 84.934 0.996 -3.438 0.996 -3.438 0.06 84.934
5066.625 0.061 84.911 0.996 -3.481 0.996 -3.481 0.061 84.911
5091.583 0.061 84.888 0.996 -3.524 0.996 -3.524 0.061 84.888
5116.542 0.062 84.864 0.996 -3.567 0.996 -3.567 0.062 84.864
5141.5 0.063 84.84 0.996 -3.61 0.996 -3.61 0.063 84.84
5166.458 0.064 84.816 0.996 -3.652 0.996 -3.652 0.064 84.816
5191.417 0.064 84.791 0.996 -3.695 0.996 -3.695 0.064 84.791
5216.375 0.065 84.766 0.996 -3.737 0.996 -3.737 0.065 84.766
5241.333 0.066 84.74 0.996 -3.779 0.996 -3.779 0.066 84.74
5266.292 0.067 84.715 0.996 -3.821 0.996 -3.821 0.067 84.715
5291.25 0.067 84.689 0.996 -3.863 0.996 -3.863 0.067 84.689
5316.208 0.068 84.662 0.996 -3.905 0.996 -3.905 0.068 84.662
5341.167 0.069 84.636 0.996 -3.947 0.996 -3.947 0.069 84.636
5366.125 0.07 84.609 0.996 -3.989 0.996 -3.989 0.07 84.609
5391.083 0.07 84.582 0.996 -4.03 0.996 -4.03 0.07 84.582
5416.042 0.071 84.555 0.996 -4.071 0.996 -4.071 0.071 84.555
5441 0.072 84.527 0.996 -4.113 0.996 -4.113 0.072 84.527
5465.958 0.072 84.499 0.996 -4.154 0.996 -4.154 0.072 84.499
5490.917 0.073 84.472 0.996 -4.195 0.996 -4.195 0.073 84.472
5515.875 0.074 84.444 0.996 -4.236 0.996 -4.236 0.074 84.444
5540.833 0.075 84.415 0.996 -4.277 0.996 -4.277 0.075 84.415
5565.792 0.075 84.387 0.995 -4.318 0.995 -4.318 0.075 84.387
5590.75 0.076 84.358 0.995 -4.358 0.995 -4.358 0.076 84.358
5615.708 0.077 84.33 0.995 -4.399 0.995 -4.399 0.077 84.33
5640.667 0.077 84.301 0.995 -4.44 0.995 -4.44 0.077 84.301
5665.625 0.078 84.272 0.995 -4.48 0.995 -4.48 0.078 84.272
5690.583 0.079 84.243 0.995 -4.52 0.995 -4.52 0.079 84.243
5715.542 0.08 84.213 0.995 -4.56 0.995 -4.56 0.08 84.213
5740.5 0.08 84.184 0.995 -4.601 0.995 -4.601 0.08 84.184
5765.458 0.081 84.155 0.995 -4.641 0.995 -4.641 0.081 84.155
5790.417 0.082 84.125 0.995 -4.68 0.995 -4.68 0.082 84.125
5815.375 0.082 84.095 0.995 -4.72 0.995 -4.72 0.082 84.095
5840.333 0.083 84.065 0.995 -4.76 0.995 -4.76 0.083 84.065
5865.292 0.084 84.035 0.995 -4.8 0.995 -4.8 0.084 84.035
5890.25 0.084 84.005 0.995 -4.839 0.995 -4.839 0.084 84.005
5915.208 0.085 83.975 0.995 -4.879 0.995 -4.879 0.085 83.975
5940.167 0.086 83.945 0.995 -4.918 0.995 -4.918 0.086 83.945
5965.125 0.086 83.915 0.995 -4.958 0.995 -4.958 0.086 83.915
5990.083 0.087 83.885 0.994 -4.997 0.994 -4.997 0.087 83.885
6015.042 0.088 83.854 0.994 -5.036 0.994 -5.036 0.088 83.854
6040 0.088 83.824 0.994 -5.075 0.994 -5.075 0.088 83.824
6064.958 0.089 83.793 0.994 -5.114 0.994 -5.114 0.089 83.793
6089.917 0.09 83.763 0.994 -5.153 0.994 -5.153 0.09 83.763
6114.875 0.091 83.732 0.994 -5.192 0.994 -5.192 0.091 83.732
6139.833 0.091 83.701 0.994 -5.231 0.994 -5.231 0.091 83.701
6164.792 0.092 83.67 0.994 -5.269 0.994 -5.269 0.092 83.67
6189.75 0.093 83.639 0.994 -5.308 0.994 -5.308 0.093 83.639
6214.708 0.093 83.609 0.994 -5.346 0.994 -5.346 0.093 83.609
6239.667 0.094 83.578 0.994 -5.385 0.994 -5.385 0.094 83.578
6264.625 0.095 83.547 0.994 -5.423 0.994 -5.423 0.095 83.547
6289.583 0.095 83.516 0.994 -5.462 0.994 -5.462 0.095 83.516
6314.542 0.096 83.484 0.994 -5.5 0.994 -5.5 0.096 83.484
6339.5 0.097 83.453 0.994 -5.538 0.994 -5.538 0.097 83.453
6364.458 0.097 83.422 0.994 -5.576 0.994 -5.576 0.097 83.422
6389.417 0.098 83.391 0.994 -5.614 0.994 -5.614 0.098 83.391
6414.375 0.099 83.36 0.993 -5.652 0.993 -5.652 0.099 83.36
6439.333 0.099 83.328 0.993 -5.69 0.993 -5.69 0.099 83.328
6464.292 0.1 83.297 0.993 -5.728 0.993 -5.728 0.1 83.297
6489.25 0.1 83.266 0.993 -5.766 0.993 -5.766 0.1 83.266
6514.208 0.101 83.234 0.993 -5.803 0.993 -5.803 0.101 83.234
6539.167 0.102 83.203 0.993 -5.841 0.993 -5.841 0.102 83.203
6564.125 0.102 83.172 0.993 -5.878 0.993 -5.878 0.102 83.172
6589.083 0.103 83.14 0.993 -5.916 0.993 -5.916 0.103 83.14
6614.042 0.104 83.109 0.993 -5.953 0.993 -5.953 0.104 83.109
6639 0.104 83.077 0.993 -5.991 0.993 -5.991 0.104 83.077
6663.958 0.105 83.046 0.993 -6.028 0.993 -6.028 0.105 83.046
6688.917 0.106 83.014 0.993 -6.065 0.993 -6.065 0.106 83.014
6713.875 0.106 82.983 0.993 -6.103 0.993 -6.103 0.106 82.983
6738.833 0.107 82.951 0.993 -6.14 0.993 -6.14 0.107 82.951
6763.792 0.108 82.919 0.992 -6.177 0.992 -6.177 0.108 82.919
6788.75 0.108 82.888 0.992 -6.214 0.992 -6.214 0.108 82.888
6813.708 0.109 82.856 0.992 -6.251 0.992 -6.251 0.109 82.856
6838.667 0.11 82.825 0.992 -6.288 0.992 -6.288 0.11 82.825
6863.625 0.11 82.793 0.992 -6.325 0.992 -6.325 0.11 82.793
6888.583 0.111 82.761 0.992 -6.361 0.992 -6.361 0.111 82.761
6913.542 0.111 82.73 0.992 -6.398 0.992 -6.398 0.111 82.73
6938.5 0.112 82.698 0.992 -6.435 0.992 -6.435 0.112 82.698
6963.458 0.113 82.666 0.992 -6.471 0.992 -6.471 0.113 82.666
6988.417 0.113 82.635 0.992 -6.508 0.992 -6.508 0.113 82.635
7013.375 0.114 82.603 0.992 -6.545 0.992 -6.545 0.114 82.603
7038.333 0.115 82.571 0.992 -6.581 0.992 -6.581 0.115 82.571
7063.292 0.115 82.539 0.992 -6.617 0.992 -6.617 0.115 82.539
7088.25 0.116 82.508 0.992 -6.654 0.992 -6.654 0.116 82.508
7113.208 0.117 82.476 0.991 -6.69 0.991 -6.69 0.117 82.476
7138.167 0.117 82.444 0.991 -6.726 0.991 -6.726 0.117 82.444
7163.125 0.118 82.413 0.991 -6.763 0.991 -6.763 0.118 82.413
7188.083 0.118 82.381 0.991 -6.799 0.991 -6.799 0.118 82.381
7213.042 0.119 82.349 0.991 -6.835 0.991 -6.835 0.119 82.349
7238 0.12 82.317 0.991 -6.871 0.991 -6.871 0.12 82.317
7262.958 0.12 82.286 0.991 -6.907 0.991 -6.907 0.12 82.286
7287.917 0.121 82.254 0.991 -6.943 0.991 -6.943 0.121 82.254
7312.875 0.122 82.222 0.991 -6.979 0.991 -6.979 0.122 82.222
7337.833 0.122 82.19 0.991 -7.015 0.991 -7.015 0.122 82.19
7362.792 0.123 82.159 0.991 -7.05 0.991 -7.05 0.123 82.159
7387.75 0.123 82.127 0.991 -7.086 0.991 -7.086 0.123 82.127
7412.708 0.124 82.095 0.991 -7.122 0.991 -7.122 0.124 82.095
7437.667 0.125 82.063 0.991 -7.158 0.991 -7.158 0.125 82.063
7462.625 0.125 82.032 0.99 -7.193 0.99 -7.193 0.125 82.032
7487.583 0.126 82 0.99 -7.229 0.99 -7.229 0.126 82
7512.542 0.126 81.968 0.99 -7.264 0.99 -7.264 0.126 81.968
7537.5 0.127 81.936 0.99 -7.3 0.99 -7.3 0.127 81.936
7562.458 0.128 81.905 0.99 -7.335 0.99 -7.335 0.128 81.905
7587.417 0.128 81.873 0.99 -7.371 0.99 -7.371 0.128 81.873
7612.375 0.129 81.841 0.99 -7.406 0.99 -7.406 0.129 81.841
7637.333 0.13 81.81 0.99 -7.442 0.99 -7.442 0.13 81.81
7662.292 0.13 81.778 0.99 -7.477 0.99 -7.477 0.13 81.778
7687.25 0.131 81.746 0.99 -7.512 0.99 -7.512 0.131 81.746
7712.208 0.131 81.714 0.99 -7.547 0.99 -7.547 0.131 81.714
7737.167 0.132 81.683 0.99 -7.582 0.99 -7.582 0.132 81.683
7762.125 0.133 81.651 0.989 -7.618 0.989 -7.618 0.133 81.651
7787.083 0.133 81.619 0.989 -7.653 0.989 -7.653 0.133 81.619
7812.042 0.134 81.588 0.989 -7.688 0.989 -7.688 0.134 81.588
7837 0.134 81.556 0.989 -7.723 0.989 -7.723 0.134 81.556
7861.958 0.135 81.524 0.989 -7.758 0.989 -7.758 0.135 81.524
7886.917 0.136 81.493 0.989 -7.793 0.989 -7.793 0.136 81.493
7911.875 0.136 81.461 0.989 -7.827 0.989 -7.827 0.136 81.461
7936.833 0.137 81.429 0.989 -7.862 0.989 -7.862 0.137 81.429
7961.792 0.137 81.398 0.989 -7.897 0.989 -7.897 0.137 81.398
7986.75 0.138 81.366 0.989 -7.932 0.989 -7.932 0.138 81.366
8011.708 0.139 81.334 0.989 -7.967 0.989 -7.967 0.139 81.334
8036.667 0.139 81.303 0.989 -8.001 0.989 -8.001 0.139 81.303
8061.625 0.14 81.271 0.988 -8.036 0.988 -8.036 0.14 81.271
8086.583 0.14 81.24 0.988 -8.071 0.988 -8.071 0.14 81.24
8111.542 0.141 81.208 0.988 -8.105 0.988 -8.105 0.141 81.208
8136.5 0.142 81.176 0.988 -8.14 0.988 -8.14 0.142 81.176
8161.458 0.142 81.145 0.988 -8.174 0.988 -8.174 0.142 81.145
8186.417 0.143 81.113 0.988 -8.209 0.988 -8.209 0.143 81.113
8211.375 0.143 81.082 0.988 -8.243 0.988 -8.243 0.143 81.082
8236.333 0.144 81.05 0.988 -8.278 0.988 -8.278 0.144 81.05
8261.292 0.145 81.019 0.988 -8.312 0.988 -8.312 0.145 81.019
8286.25 0.145 80.987 0.988 -8.346 0.988 -8.346 0.145 80.987
