# MHZ S MA R 50

50 1 -1.44 0.025 88.551 0.025 88.551 1 -1.44
74.958 0.999 -2.158 0.038 87.828 0.038 87.828 0.999 -2.158
99.917 0.999 -2.875 0.05 87.106 0.05 87.106 0.999 -2.875
124.875 0.998 -3.592 0.063 86.385 0.063 86.385 0.998 -3.592
149.833 0.997 -4.308 0.075 85.664 0.075 85.664 0.997 -4.308
174.792 0.996 -5.023 0.088 84.945 0.088 84.945 0.996 -5.023
199.75 0.995 -5.736 0.1 84.227 0.1 84.227 0.995 -5.736
224.708 0.994 -6.448 0.112 83.511 0.112 83.511 0.994 -6.448
249.667 0.992 -7.158 0.125 82.797 0.125 82.797 0.992 -7.158
274.625 0.99 -7.866 0.137 82.084 0.137 82.084 0.99 -7.866
299.583 0.989 -8.571 0.149 81.374 0.149 81.374 0.989 -8.571
324.542 0.987 -9.275 0.161 80.665 0.161 80.665 0.987 -9.275
349.5 0.985 -9.976 0.173 79.96 0.173 79.96 0.985 -9.976
374.458 0.982 -10.675 0.185 79.257 0.185 79.257 0.982 -10.675
399.417 0.98 -11.37 0.197 78.556 0.197 78.556 0.98 -11.37
424.375 0.978 -12.063 0.209 77.859 0.209 77.859 0.978 -12.063
449.333 0.975 -12.753 0.221 77.165 0.221 77.165 0.975 -12.753
474.292 0.972 -13.439 0.232 76.474 0.232 76.474 0.972 -13.439
499.25 0.969 -14.122 0.244 75.786 0.244 75.786 0.969 -14.122
524.208 0.966 -14.802 0.255 75.102 0.255 75.102 0.966 -14.802
549.167 0.963 -15.477 0.267 74.422 0.267 74.422 0.963 -15.477
574.125 0.96 -16.149 0.278 73.745 0.278 73.745 0.96 -16.149
599.083 0.957 -16.817 0.289 73.073 0.289 73.073 0.957 -16.817
624.042 0.953 -17.481 0.3 72.404 0.3 72.404 0.953 -17.481
649 0.95 -18.141 0.311 71.74 0.311 71.74 0.95 -18.141
673.958 0.946 -18.796 0.322 71.08 0.322 71.08 0.946 -18.796
698.917 0.942 -19.447 0.333 70.424 0.333 70.424 0.942 -19.447
723.875 0.938 -20.094 0.344 69.773 0.344 69.773 0.938 -20.094
748.833 0.934 -20.736 0.354 69.127 0.354 69.127 0.934 -20.736
773.792 0.93 -21.373 0.364 68.485 0.364 68.485 0.93 -21.373
798.75 0.926 -22.005 0.375 67.847 0.375 67.847 0.926 -22.005
823.708 0.922 -22.633 0.385 67.215 0.385 67.215 0.922 -22.633
848.667 0.918 -23.256 0.395 66.588 0.395 66.588 0.918 -23.256
873.625 0.913 -23.874 0.405 65.965 0.405 65.965 0.913 -23.874
898.583 0.909 -24.486 0.414 65.348 0.414 65.348 0.909 -24.486
923.542 0.904 -25.094 0.424 64.735 0.424 64.735 0.904 -25.094
948.5 0.9 -25.697 0.434 64.128 0.434 64.128 0.9 -25.697
973.458 0.895 -26.294 0.443 63.526 0.443 63.526 0.895 -26.294
998.417 0.89 -26.886 0.452 62.929 0.452 62.929 0.89 -26.886
1023.375 0.886 -27.473 0.461 62.337 0.461 62.337 0.886 -27.473
1048.333 0.881 -28.055 0.47 61.751 0.47 61.751 0.881 -28.055
1073.292 0.876 -28.631 0.479 61.17 0.479 61.17 0.876 -28.631
1098.25 0.871 -29.202 0.488 60.594 0.488 60.594 0.871 -29.202
1123.208 0.866 -29.768 0.496 60.023 0.496 60.023 0.866 -29.768
1148.167 0.861 -30.328 0.505 59.458 0.505 59.458 0.861 -30.328
1173.125 0.856 -30.883 0.513 58.899 0.513 58.899 0.856 -30.883
1198.083 0.851 -31.433 0.522 58.344 0.522 58.344 0.851 -31.433
1223.042 0.846 -31.977 0.53 57.795 0.53 57.795 0.846 -31.977
1248 0.841 -32.516 0.538 57.252 0.538 57.252 0.841 -32.516
1272.958 0.836 -33.049 0.545 56.713 0.545 56.713 0.836 -33.049
1297.917 0.831 -33.577 0.553 56.18 0.553 56.18 0.831 -33.577
1322.875 0.826 -34.1 0.561 55.653 0.561 55.653 0.826 -34.1
1347.833 0.82 -34.617 0.568 55.131 0.568 55.131 0.82 -34.617
1372.792 0.815 -35.129 0.575 54.614 0.575 54.614 0.815 -35.129
1397.75 0.81 -35.636 0.583 54.102 0.583 54.102 0.81 -35.636
1422.708 0.805 -36.138 0.59 53.596 0.59 53.596 0.805 -36.138
1447.667 0.8 -36.634 0.597 53.095 0.597 53.095 0.8 -36.634
1472.625 0.794 -37.125 0.604 52.599 0.604 52.599 0.794 -37.125
1497.583 0.789 -37.611 0.61 52.108 0.61 52.108 0.789 -37.611
1522.542 0.784 -38.091 0.617 51.622 0.617 51.622 0.784 -38.091
1547.5 0.779 -38.567 0.623 51.142 0.623 51.142 0.779 -38.567
1572.458 0.773 -39.037 0.63 50.667 0.63 50.667 0.773 -39.037
1597.417 0.768 -39.502 0.636 50.196 0.636 50.196 0.768 -39.502
1622.375 0.763 -39.962 0.642 49.731 0.642 49.731 0.763 -39.962
1647.333 0.758 -40.418 0.648 49.271 0.648 49.271 0.758 -40.418
1672.292 0.753 -40.868 0.654 48.816 0.654 48.816 0.753 -40.868
1697.25 0.747 -41.313 0.66 48.365 0.66 48.365 0.747 -41.313
1722.208 0.742 -41.754 0.666 47.92 0.666 47.92 0.742 -41.754
1747.167 0.737 -42.189 0.672 47.479 0.672 47.479 0.737 -42.189
1772.125 0.732 -42.62 0.677 47.043 0.677 47.043 0.732 -42.62
1797.083 0.727 -43.046 0.683 46.612 0.683 46.612 0.727 -43.046
1822.042 0.722 -43.468 0.688 46.185 0.688 46.185 0.722 -43.468
1847 0.716 -43.885 0.693 45.763 0.693 45.763 0.716 -43.885
1871.958 0.711 -44.297 0.698 45.346 0.698 45.346 0.711 -44.297
1896.917 0.706 -44.704 0.703 44.933 0.703 44.933 0.706 -44.704
1921.875 0.701 -45.107 0.708 44.525 0.708 44.525 0.701 -45.107
1946.833 0.696 -45.506 0.713 44.121 0.713 44.121 0.696 -45.506
1971.792 0.691 -45.9 0.718 43.722 0.718 43.722 0.691 -45.9
1996.75 0.686 -46.29 0.723 43.326 0.723 43.326 0.686 -46.29
2021.708 0.681 -46.676 0.727 42.936 0.727 42.936 0.681 -46.676
2046.667 0.676 -47.057 0.732 42.549 0.732 42.549 0.676 -47.057
2071.625 0.671 -47.434 0.737 42.167 0.737 42.167 0.671 -47.434
2096.583 0.666 -47.807 0.741 41.788 0.741 41.788 0.666 -47.807
2121.542 0.662 -48.176 0.745 41.414 0.745 41.414 0.662 -48.176
2146.5 0.657 -48.541 0.749 41.044 0.749 41.044 0.657 -48.541
2171.458 0.652 -48.901 0.754 40.678 0.754 40.678 0.652 -48.901
2196.417 0.647 -49.258 0.758 40.316 0.758 40.316 0.647 -49.258
2221.375 0.642 -49.611 0.762 39.958 0.762 39.958 0.642 -49.611
2246.333 0.637 -49.96 0.766 39.603 0.766 39.603 0.637 -49.96
2271.292 0.633 -50.305 0.769 39.253 0.769 39.253 0.633 -50.305
2296.25 0.628 -50.646 0.773 38.906 0.773 38.906 0.628 -50.646
2321.208 0.623 -50.984 0.777 38.563 0.777 38.563 0.623 -50.984
2346.167 0.619 -51.318 0.781 38.223 0.781 38.223 0.619 -51.318
2371.125 0.614 -51.648 0.784 37.887 0.784 37.887 0.614 -51.648
2396.083 0.61 -51.975 0.788 37.555 0.788 37.555 0.61 -51.975
2421.042 0.605 -52.298 0.791 37.226 0.791 37.226 0.605 -52.298
2446 0.6 -52.617 0.795 36.901 0.795 36.901 0.6 -52.617
2470.958 0.596 -52.934 0.798 36.579 0.798 36.579 0.596 -52.934
2495.917 0.591 -53.247 0.801 36.261 0.801 36.261 0.591 -53.247
2520.875 0.587 -53.556 0.804 35.945 0.804 35.945 0.587 -53.556
2545.833 0.583 -53.862 0.808 35.633 0.808 35.633 0.583 -53.862
2570.792 0.578 -54.165 0.811 35.325 0.811 35.325 0.578 -54.165
2595.75 0.574 -54.465 0.814 35.019 0.814 35.019 0.574 -54.465
2620.708 0.57 -54.761 0.817 34.717 0.817 34.717 0.57 -54.761
2645.667 0.565 -55.054 0.82 34.418 0.82 34.418 0.565 -55.054
2670.625 0.561 -55.345 0.823 34.122 0.823 34.122 0.561 -55.345
2695.583 0.557 -55.632 0.825 33.829 0.825 33.829 0.557 -55.632
2720.542 0.553 -55.916 0.828 33.538 0.828 33.538 0.553 -55.916
2745.5 0.548 -56.197 0.831 33.251 0.831 33.251 0.548 -56.197
2770.458 0.544 -56.476 0.834 32.967 0.834 32.967 0.544 -56.476
2795.417 0.54 -56.751 0.836 32.685 0.836 32.685 0.54 -56.751
2820.375 0.536 -57.024 0.839 32.407 0.839 32.407 0.536 -57.024
2845.333 0.532 -57.293 0.841 32.131 0.841 32.131 0.532 -57.293
2870.292 0.528 -57.56 0.844 31.858 0.844 31.858 0.528 -57.56
2895.25 0.524 -57.824 0.846 31.588 0.846 31.588 0.524 -57.824
2920.208 0.52 -58.086 0.849 31.32 0.849 31.32 0.52 -58.086
2945.167 0.516 -58.345 0.851 31.055 0.851 31.055 0.516 -58.345
2970.125 0.512 -58.601 0.854 30.792 0.854 30.792 0.512 -58.601
2995.083 0.508 -58.855 0.856 30.532 0.856 30.532 0.508 -58.855
3020.042 0.504 -59.106 0.858 30.275 0.858 30.275 0.504 -59.106
3045 0.5 -59.354 0.86 30.02 0.86 30.02 0.5 -59.354
3069.958 0.497 -59.6 0.863 29.767 0.863 29.767 0.497 -59.6
3094.917 0.493 -59.844 0.865 29.517 0.865 29.517 0.493 -59.844
3119.875 0.489 -60.085 0.867 29.27 0.867 29.27 0.489 -60.085
3144.833 0.485 -60.324 0.869 29.024 0.869 29.024 0.485 -60.324
3169.792 0.481 -60.561 0.871 28.781 0.871 28.781 0.481 -60.561
3194.75 0.478 -60.795 0.873 28.54 0.873 28.54 0.478 -60.795
3219.708 0.474 -61.027 0.875 28.302 0.875 28.302 0.474 -61.027
3244.667 0.471 -61.256 0.877 28.066 0.877 28.066 0.471 -61.256
3269.625 0.467 -61.484 0.879 27.832 0.879 27.832 0.467 -61.484
3294.583 0.463 -61.709 0.881 27.6 0.881 27.6 0.463 -61.709
3319.542 0.46 -61.932 0.882 27.37 0.882 27.37 0.46 -61.932
3344.5 0.456 -62.153 0.884 27.142 0.884 27.142 0.456 -62.153
3369.458 0.453 -62.371 0.886 26.916 0.886 26.916 0.453 -62.371
3394.417 0.449 -62.588 0.888 26.693 0.888 26.693 0.449 -62.588
3419.375 0.446 -62.803 0.89 26.471 0.89 26.471 0.446 -62.803
3444.333 0.442 -63.015 0.891 26.251 0.891 26.251 0.442 -63.015
3469.292 0.439 -63.226 0.893 26.034 0.893 26.034 0.439 -63.226
3494.25 0.436 -63.435 0.895 25.818 0.895 25.818 0.436 -63.435
3519.208 0.432 -63.641 0.896 25.604 0.896 25.604 0.432 -63.641
3544.167 0.429 -63.846 0.898 25.392 0.898 25.392 0.429 -63.846
3569.125 0.426 -64.049 0.899 25.182 0.899 25.182 0.426 -64.049
3594.083 0.422 -64.25 0.901 24.974 0.901 24.974 0.422 -64.25
3619.042 0.419 -64.449 0.902 24.767 0.902 24.767 0.419 -64.449
3644 0.416 -64.646 0.904 24.563 0.904 24.563 0.416 -64.646
3668.958 0.413 -64.842 0.905 24.36 0.905 24.36 0.413 -64.842
3693.917 0.409 -65.036 0.907 24.158 0.907 24.158 0.409 -65.036
3718.875 0.406 -65.228 0.908 23.959 0.908 23.959 0.406 -65.228
3743.833 0.403 -65.418 0.909 23.761 0.909 23.761 0.403 -65.418
3768.792 0.4 -65.606 0.911 23.565 0.911 23.565 0.4 -65.606
3793.75 0.397 -65.793 0.912 23.37 0.912 23.37 0.397 -65.793
3818.708 0.394 -65.978 0.913 23.177 0.913 23.177 0.394 -65.978
3843.667 0.391 -66.162 0.915 22.986 0.915 22.986 0.391 -66.162
3868.625 0.387 -66.344 0.916 22.796 0.916 22.796 0.387 -66.344
3893.583 0.384 -66.524 0.917 22.608 0.917 22.608 0.384 -66.524
3918.542 0.381 -66.703 0.919 22.421 0.919 22.421 0.381 -66.703
3943.5 0.378 -66.88 0.92 22.236 0.92 22.236 0.378 -66.88
3968.458 0.375 -67.055 0.921 22.052 0.921 22.052 0.375 -67.055
3993.417 0.373 -67.23 0.922 21.87 0.922 21.87 0.373 -67.23
4018.375 0.37 -67.402 0.923 21.689 0.923 21.689 0.37 -67.402
4043.333 0.367 -67.573 0.924 21.51 0.924 21.51 0.367 -67.573
4068.292 0.364 -67.743 0.926 21.332 0.926 21.332 0.364 -67.743
4093.25 0.361 -67.911 0.927 21.155 0.927 21.155 0.361 -67.911
4118.208 0.358 -68.077 0.928 20.98 0.928 20.98 0.358 -68.077
4143.167 0.355 -68.243 0.929 20.806 0.929 20.806 0.355 -68.243
4168.125 0.352 -68.407 0.93 20.633 0.93 20.633 0.352 -68.407
4193.083 0.35 -68.569 0.931 20.462 0.931 20.462 0.35 -68.569
4218.042 0.347 -68.73 0.932 20.292 0.932 20.292 0.347 -68.73
4243 0.344 -68.89 0.933 20.123 0.933 20.123 0.344 -68.89
4267.958 0.341 -69.048 0.934 19.956 0.934 19.956 0.341 -69.048
4292.917 0.339 -69.205 0.935 19.79 0.935 19.79 0.339 -69.205
4317.875 0.336 -69.361 0.936 19.625 0.936 19.625 0.336 -69.361
4342.833 0.333 -69.515 0.937 19.461 0.937 19.461 0.333 -69.515
4367.792 0.331 -69.669 0.938 19.299 0.938 19.299 0.331 -69.669
4392.75 0.328 -69.821 0.939 19.138 0.939 19.138 0.328 -69.821
4417.708 0.325 -69.971 0.94 18.978 0.94 18.978 0.325 -69.971
4442.667 0.323 -70.121 0.941 18.819 0.941 18.819 0.323 -70.121
4467.625 0.32 -70.269 0.941 18.661 0.941 18.661 0.32 -70.269
4492.583 0.317 -70.416 0.942 18.504 0.942 18.504 0.317 -70.416
4517.542 0.315 -70.561 0.943 18.349 0.943 18.349 0.315 -70.561
4542.5 0.312 -70.706 0.944 18.194 0.944 18.194 0.312 -70.706
4567.458 0.31 -70.849 0.945 18.041 0.945 18.041 0.31 -70.849
4592.417 0.307 -70.992 0.946 17.888 0.946 17.888 0.307 -70.992
4617.375 0.305 -71.133 0.946 17.737 0.946 17.737 0.305 -71.133
4642.333 0.302 -71.272 0.947 17.587 0.947 17.587 0.302 -71.272
4667.292 0.3 -71.411 0.948 17.438 0.948 17.438 0.3 -71.411
4692.25 0.297 -71.549 0.949 17.29 0.949 17.29 0.297 -71.549
4717.208 0.295 -71.685 0.95 17.143 0.95 17.143 0.295 -71.685
4742.167 0.292 -71.821 0.95 16.996 0.95 16.996 0.292 -71.821
4767.125 0.29 -71.955 0.951 16.851 0.951 16.851 0.29 -71.955
4792.083 0.288 -72.088 0.952 16.707 0.952 16.707 0.288 -72.088
4817.042 0.285 -72.221 0.952 16.564 0.952 16.564 0.285 -72.221
4842 0.283 -72.352 0.953 16.422 0.953 16.422 0.283 -72.352
4866.958 0.28 -72.482 0.954 16.28 0.954 16.28 0.28 -72.482
4891.917 0.278 -72.611 0.955 16.14 0.955 16.14 0.278 -72.611
4916.875 0.276 -72.739 0.955 16 0.955 16 0.276 -72.739
4941.833 0.273 -72.866 0.956 15.862 0.956 15.862 0.273 -72.866
4966.792 0.271 -72.992 0.957 15.724 0.957 15.724 0.271 -72.992
4991.75 0.269 -73.117 0.957 15.587 0.957 15.587 0.269 -73.117
5016.708 0.266 -73.241 0.958 15.451 0.958 15.451 0.266 -73.241
5041.667 0.264 -73.364 0.958 15.316 0.958 15.316 0.264 -73.364
5066.625 0.262 -73.486 0.959 15.182 0.959 15.182 0.262 -73.486
5091.583 0.26 -73.607 0.96 15.049 0.96 15.049 0.26 -73.607
5116.542 0.257 -73.727 0.96 14.916 0.96 14.916 0.257 -73.727
5141.5 0.255 -73.846 0.961 14.784 0.961 14.784 0.255 -73.846
5166.458 0.253 -73.964 0.961 14.653 0.961 14.653 0.253 -73.964
5191.417 0.251 -74.081 0.962 14.523 0.962 14.523 0.251 -74.081
5216.375 0.249 -74.197 0.962 14.394 0.962 14.394 0.249 -74.197
5241.333 0.246 -74.313 0.963 14.265 0.963 14.265 0.246 -74.313
5266.292 0.244 -74.427 0.964 14.138 0.964 14.138 0.244 -74.427
5291.25 0.242 -74.541 0.964 14.011 0.964 14.011 0.242 -74.541
5316.208 0.24 -74.653 0.965 13.884 0.965 13.884 0.24 -74.653
5341.167 0.238 -74.765 0.965 13.759 0.965 13.759 0.238 -74.765
5366.125 0.236 -74.876 0.966 13.634 0.966 13.634 0.236 -74.876
5391.083 0.234 -74.985 0.966 13.51 0.966 13.51 0.234 -74.985
5416.042 0.232 -75.094 0.967 13.387 0.967 13.387 0.232 -75.094
5441 0.23 -75.202 0.967 13.264 0.967 13.264 0.23 -75.202
5465.958 0.227 -75.309 0.968 13.142 0.968 13.142 0.227 -75.309
5490.917 0.225 -75.416 0.968 13.021 0.968 13.021 0.225 -75.416
5515.875 0.223 -75.521 0.969 12.901 0.969 12.901 0.223 -75.521
5540.833 0.221 -75.626 0.969 12.781 0.969 12.781 0.221 -75.626
5565.792 0.219 -75.729 0.97 12.662 0.97 12.662 0.219 -75.729
5590.75 0.217 -75.832 0.97 12.543 0.97 12.543 0.217 -75.832
5615.708 0.215 -75.934 0.97 12.426 0.97 12.426 0.215 -75.934
5640.667 0.213 -76.035 0.971 12.308 0.971 12.308 0.213 -76.035
5665.625 0.211 -76.135 0.971 12.192 0.971 12.192 0.211 -76.135
5690.583 0.209 -76.234 0.972 12.076 0.972 12.076 0.209 -76.234
5715.542 0.207 -76.333 0.972 11.961 0.972 11.961 0.207 -76.333
5740.5 0.205 -76.431 0.973 11.846 0.973 11.846 0.205 -76.431
5765.458 0.203 -76.527 0.973 11.732 0.973 11.732 0.203 -76.527
5790.417 0.201 -76.623 0.973 11.619 0.973 11.619 0.201 -76.623
5815.375 0.2 -76.718 0.974 11.506 0.974 11.506 0.2 -76.718
5840.333 0.198 -76.813 0.974 11.394 0.974 11.394 0.198 -76.813
5865.292 0.196 -76.906 0.974 11.282 0.974 11.282 0.196 -76.906
5890.25 0.194 -76.998 0.975 11.171 0.975 11.171 0.194 -76.998
5915.208 0.192 -77.09 0.975 11.061 0.975 11.061 0.192 -77.09
5940.167 0.19 -77.181 0.976 10.951 0.976 10.951 0.19 -77.181
5965.125 0.188 -77.271 0.976 10.842 0.976 10.842 0.188 -77.271
5990.083 0.186 -77.36 0.976 10.733 0.976 10.733 0.186 -77.36
6015.042 0.184 -77.448 0.977 10.625 0.977 10.625 0.184 -77.448
6040 0.183 -77.536 0.977 10.517 0.977 10.517 0.183 -77.536
6064.958 0.181 -77.622 0.977 10.41 0.977 10.41 0.181 -77.622
6089.917 0.179 -77.708 0.978 10.304 0.978 10.304 0.179 -77.708
6114.875 0.177 -77.793 0.978 10.198 0.978 10.198 0.177 -77.793
6139.833 0.175 -77.877 0.978 10.092 0.978 10.092 0.175 -77.877
6164.792 0.174 -77.96 0.979 9.987 0.979 9.987 0.174 -77.96
6189.75 0.172 -78.043 0.979 9.883 0.979 9.883 0.172 -78.043
6214.708 0.17 -78.124 0.979 9.779 0.979 9.779 0.17 -78.124
6239.667 0.168 -78.205 0.98 9.676 0.98 9.676 0.168 -78.205
6264.625 0.166 -78.284 0.98 9.573 0.98 9.573 0.166 -78.284
6289.583 0.165 -78.363 0.98 9.47 0.98 9.47 0.165 -78.363
6314.542 0.163 -78.441 0.98 9.368 0.98 9.368 0.163 -78.441
6339.5 0.161 -78.518 0.981 9.267 0.981 9.267 0.161 -78.518
6364.458 0.159 -78.594 0.981 9.166 0.981 9.166 0.159 -78.594
6389.417 0.158 -78.67 0.981 9.066 0.981 9.066 0.158 -78.67
6414.375 0.156 -78.744 0.982 8.966 0.982 8.966 0.156 -78.744
6439.333 0.154 -78.817 0.982 8.866 0.982 8.866 0.154 -78.817
6464.292 0.153 -78.89 0.982 8.767 0.982 8.767 0.153 -78.89
6489.25 0.151 -78.961 0.982 8.668 0.982 8.668 0.151 -78.961
6514.208 0.149 -79.032 0.983 8.57 0.983 8.57 0.149 -79.032
6539.167 0.147 -79.102 0.983 8.473 0.983 8.473 0.147 -79.102
6564.125 0.146 -79.17 0.983 8.375 0.983 8.375 0.146 -79.17
6589.083 0.144 -79.238 0.983 8.279 0.983 8.279 0.144 -79.238
6614.042 0.142 -79.305 0.984 8.182 0.984 8.182 0.142 -79.305
6639 0.141 -79.371 0.984 8.086 0.984 8.086 0.141 -79.371
6663.958 0.139 -79.435 0.984 7.991 0.984 7.991 0.139 -79.435
6688.917 0.138 -79.499 0.984 7.896 0.984 7.896 0.138 -79.499
6713.875 0.136 -79.562 0.984 7.801 0.984 7.801 0.136 -79.562
6738.833 0.134 -79.624 0.985 7.707 0.985 7.707 0.134 -79.624
6763.792 0.133 -79.684 0.985 7.613 0.985 7.613 0.133 -79.684
6788.75 0.131 -79.744 0.985 7.519 0.985 7.519 0.131 -79.744
6813.708 0.129 -79.802 0.985 7.426 0.985 7.426 0.129 -79.802
6838.667 0.128 -79.859 0.986 7.334 0.986 7.334 0.128 -79.859
6863.625 0.126 -79.915 0.986 7.241 0.986 7.241 0.126 -79.915
6888.583 0.125 -79.971 0.986 7.149 0.986 7.149 0.125 -79.971
6913.542 0.123 -80.024 0.986 7.058 0.986 7.058 0.123 -80.024
6938.5 0.121 -80.077 0.986 6.967 0.986 6.967 0.121 -80.077
6963.458 0.12 -80.128 0.987 6.876 0.987 6.876 0.12 -80.128
6988.417 0.118 -80.178 0.987 6.786 0.987 6.786 0.118 -80.178
7013.375 0.117 -80.227 0.987 6.696 0.987 6.696 0.117 -80.227
7038.333 0.115 -80.275 0.987 6.606 0.987 6.606 0.115 -80.275
7063.292 0.114 -80.321 0.987 6.517 0.987 6.517 0.114 -80.321
7088.25 0.112 -80.366 0.987 6.428 0.987 6.428 0.112 -80.366
7113.208 0.111 -80.41 0.988 6.34 0.988 6.34 0.111 -80.41
7138.167 0.109 -80.452 0.988 6.252 0.988 6.252 0.109 -80.452
7163.125 0.108 -80.492 0.988 6.164 0.988 6.164 0.108 -80.492
7188.083 0.106 -80.531 0.988 6.076 0.988 6.076 0.106 -80.531
7213.042 0.105 -80.569 0.988 5.989 0.988 5.989 0.105 -80.569
7238 0.103 -80.605 0.988 5.903 0.988 5.903 0.103 -80.605
7262.958 0.102 -80.639 0.989 5.816 0.989 5.816 0.102 -80.639
7287.917 0.1 -80.671 0.989 5.73 0.989 5.73 0.1 -80.671
7312.875 0.099 -80.702 0.989 5.644 0.989 5.644 0.099 -80.702
7337.833 0.097 -80.731 0.989 5.559 0.989 5.559 0.097 -80.731
7362.792 0.096 -80.759 0.989 5.474 0.989 5.474 0.096 -80.759
7387.75 0.094 -80.784 0.989 5.389 0.989 5.389 0.094 -80.784
7412.708 0.093 -80.807 0.989 5.305 0.989 5.305 0.093 -80.807
7437.667 0.091 -80.829 0.99 5.221 0.99 5.221 0.091 -80.829
7462.625 0.09 -80.848 0.99 5.137 0.99 5.137 0.09 -80.848
7487.583 0.088 -80.865 0.99 5.053 0.99 5.053 0.088 -80.865
7512.542 0.087 -80.88 0.99 4.97 0.99 4.97 0.087 -80.88
7537.5 0.085 -80.892 0.99 4.887 0.99 4.887 0.085 -80.892
7562.458 0.084 -80.902 0.99 4.805 0.99 4.805 0.084 -80.902
7587.417 0.083 -80.909 0.99 4.723 0.99 4.723 0.083 -80.909
7612.375 0.081 -80.914 0.99 4.641 0.99 4.641 0.081 -80.914
7637.333 0.08 -80.916 0.991 4.559 0.991 4.559 0.08 -80.916
7662.292 0.078 -80.915 0.991 4.478 0.991 4.478 0.078 -80.915
7687.25 0.077 -80.911 0.991 4.397 0.991 4.397 0.077 -80.911
7712.208 0.076 -80.904 0.991 4.316 0.991 4.316 0.076 -80.904
7737.167 0.074 -80.894 0.991 4.235 0.991 4.235 0.074 -80.894
7762.125 0.073 -80.881 0.991 4.155 0.991 4.155 0.073 -80.881
7787.083 0.071 -80.863 0.991 4.075 0.991 4.075 0.071 -80.863
7812.042 0.07 -80.842 0.991 3.996 0.991 3.996 0.07 -80.842
7837 0.069 -80.817 0.991 3.916 0.991 3.916 0.069 -80.817
7861.958 0.067 -80.788 0.991 3.837 0.991 3.837 0.067 -80.788
7886.917 0.066 -80.755 0.992 3.759 0.992 3.759 0.066 -80.755
7911.875 0.064 -80.716 0.992 3.68 0.992 3.68 0.064 -80.716
7936.833 0.063 -80.673 0.992 3.602 0.992 3.602 0.063 -80.673
7961.792 0.062 -80.625 0.992 3.524 0.992 3.524 0.062 -80.625
7986.75 0.06 -80.572 0.992 3.446 0.992 3.446 0.06 -80.572
8011.708 0.059 -80.512 0.992 3.369 0.992 3.369 0.059 -80.512
8036.667 0.058 -80.447 0.992 3.292 0.992 3.292 0.058 -80.447
8061.625 0.056 -80.375 0.992 3.215 0.992 3.215 0.056 -80.375
8086.583 0.055 -80.296 0.992 3.138 0.992 3.138 0.055 -80.296
8111.542 0.054 -80.21 0.992 3.062 0.992 3.062 0.054 -80.21
8136.5 0.052 -80.115 0.992 2.985 0.992 2.985 0.052 -80.115
8161.458 0.051 -80.013 0.992 2.91 0.992 2.91 0.051 -80.013
8186.417 0.05 -79.901 0.992 2.834 0.992 2.834 0.05 -79.901
