# MHZ S MA R 50

50 0.993 -6.631 0.115 83.354 0.115 83.354 0.993 -6.631
74.958 0.985 -9.887 0.172 80.091 0.172 80.091 0.985 -9.887
99.917 0.974 -13.082 0.226 76.889 0.226 76.889 0.974 -13.082
124.875 0.96 -16.198 0.279 73.766 0.279 73.766 0.96 -16.198
149.833 0.944 -19.22 0.329 70.736 0.329 70.736 0.944 -19.22
174.792 0.926 -22.138 0.377 67.811 0.377 67.811 0.926 -22.138
199.75 0.906 -24.942 0.422 64.999 0.422 64.999 0.906 -24.942
224.708 0.885 -27.628 0.464 62.306 0.464 62.306 0.885 -27.628
249.667 0.864 -30.191 0.503 59.735 0.503 59.735 0.864 -30.191
274.625 0.841 -32.631 0.539 57.288 0.539 57.288 0.841 -32.631
299.583 0.819 -34.948 0.573 54.964 0.573 54.964 0.819 -34.948
324.542 0.796 -37.145 0.604 52.759 0.604 52.759 0.796 -37.145
349.5 0.774 -39.225 0.632 50.672 0.632 50.672 0.774 -39.225
374.458 0.751 -41.193 0.659 48.697 0.659 48.697 0.751 -41.193
399.417 0.729 -43.053 0.683 46.829 0.683 46.829 0.729 -43.053
424.375 0.708 -44.81 0.705 45.064 0.705 45.064 0.708 -44.81
449.333 0.687 -46.471 0.725 43.396 0.725 43.396 0.687 -46.471
474.292 0.667 -48.04 0.744 41.82 0.744 41.82 0.667 -48.04
499.25 0.647 -49.522 0.761 40.33 0.761 40.33 0.647 -49.522
524.208 0.628 -50.924 0.776 38.92 0.776 38.92 0.628 -50.924
549.167 0.61 -52.25 0.791 37.587 0.791 37.587 0.61 -52.25
574.125 0.592 -53.505 0.804 36.324 0.804 36.324 0.592 -53.505
599.083 0.575 -54.693 0.816 35.128 0.816 35.128 0.575 -54.693
624.042 0.559 -55.82 0.827 33.994 0.827 33.994 0.559 -55.82
649 0.543 -56.888 0.838 32.917 0.838 32.917 0.543 -56.888
673.958 0.528 -57.903 0.847 31.895 0.847 31.895 0.528 -57.903
698.917 0.514 -58.866 0.856 30.924 0.856 30.924 0.514 -58.866
723.875 0.5 -59.783 0.864 30 0.864 30 0.5 -59.783
748.833 0.487 -60.655 0.872 29.12 0.872 29.12 0.487 -60.655
773.792 0.474 -61.485 0.879 28.281 0.879 28.281 0.474 -61.485
798.75 0.461 -62.277 0.885 27.481 0.885 27.481 0.461 -62.277
823.708 0.45 -63.033 0.891 26.717 0.891 26.717 0.45 -63.033
848.667 0.438 -63.754 0.897 25.988 0.897 25.988 0.438 -63.754
873.625 0.427 -64.444 0.902 25.29 0.902 25.29 0.427 -64.444
898.583 0.417 -65.104 0.907 24.622 0.907 24.622 0.417 -65.104
923.542 0.406 -65.735 0.912 23.982 0.912 23.982 0.406 -65.735
948.5 0.397 -66.34 0.916 23.369 0.916 23.369 0.397 -66.34
973.458 0.387 -66.921 0.92 22.78 0.92 22.78 0.387 -66.921
998.417 0.378 -67.477 0.924 22.215 0.924 22.215 0.378 -67.477
1023.375 0.369 -68.012 0.927 21.671 0.927 21.671 0.369 -68.012
1048.333 0.361 -68.526 0.931 21.149 0.931 21.149 0.361 -68.526
1073.292 0.353 -69.02 0.934 20.646 0.934 20.646 0.353 -69.02
1098.25 0.345 -69.496 0.937 20.161 0.937 20.161 0.345 -69.496
1123.208 0.337 -69.954 0.939 19.694 0.939 19.694 0.337 -69.954
1148.167 0.33 -70.396 0.942 19.244 0.942 19.244 0.33 -70.396
1173.125 0.322 -70.821 0.945 18.809 0.945 18.809 0.322 -70.821
1198.083 0.315 -71.232 0.947 18.389 0.947 18.389 0.315 -71.232
1223.042 0.309 -71.629 0.949 17.983 0.949 17.983 0.309 -71.629
1248 0.302 -72.012 0.951 17.591 0.951 17.591 0.302 -72.012
1272.958 0.296 -72.383 0.953 17.211 0.953 17.211 0.296 -72.383
1297.917 0.29 -72.741 0.955 16.843 0.955 16.843 0.29 -72.741
1322.875 0.284 -73.088 0.957 16.487 0.957 16.487 0.284 -73.088
1347.833 0.278 -73.424 0.958 16.142 0.958 16.142 0.278 -73.424
1372.792 0.272 -73.749 0.96 15.807 0.96 15.807 0.272 -73.749
1397.75 0.267 -74.064 0.962 15.481 0.962 15.481 0.267 -74.064
1422.708 0.262 -74.37 0.963 15.166 0.963 15.166 0.262 -74.37
1447.667 0.256 -74.667 0.964 14.859 0.964 14.859 0.256 -74.667
1472.625 0.251 -74.955 0.966 14.561 0.966 14.561 0.251 -74.955
1497.583 0.247 -75.235 0.967 14.271 0.967 14.271 0.247 -75.235
1522.542 0.242 -75.506 0.968 13.989 0.968 13.989 0.242 -75.506
1547.5 0.237 -75.77 0.969 13.714 0.969 13.714 0.237 -75.77
1572.458 0.233 -76.027 0.97 13.447 0.97 13.447 0.233 -76.027
1597.417 0.228 -76.277 0.971 13.186 0.971 13.186 0.228 -76.277
1622.375 0.224 -76.52 0.972 12.932 0.972 12.932 0.224 -76.52
1647.333 0.22 -76.757 0.973 12.685 0.973 12.685 0.22 -76.757
1672.292 0.215 -76.987 0.974 12.443 0.974 12.443 0.215 -76.987
1697.25 0.211 -77.211 0.975 12.207 0.975 12.207 0.211 -77.211
1722.208 0.208 -77.43 0.976 11.977 0.976 11.977 0.208 -77.43
1747.167 0.204 -77.643 0.977 11.752 0.977 11.752 0.204 -77.643
1772.125 0.2 -77.851 0.978 11.533 0.978 11.533 0.2 -77.851
1797.083 0.196 -78.054 0.978 11.318 0.978 11.318 0.196 -78.054
1822.042 0.193 -78.252 0.979 11.108 0.979 11.108 0.193 -78.252
1847 0.189 -78.445 0.98 10.902 0.98 10.902 0.189 -78.445
1871.958 0.186 -78.633 0.98 10.701 0.98 10.701 0.186 -78.633
1896.917 0.182 -78.817 0.981 10.505 0.981 10.505 0.182 -78.817
1921.875 0.179 -78.997 0.982 10.312 0.982 10.312 0.179 -78.997
1946.833 0.176 -79.172 0.982 10.123 0.982 10.123 0.176 -79.172
1971.792 0.173 -79.344 0.983 9.938 0.983 9.938 0.173 -79.344
1996.75 0.169 -79.511 0.983 9.757 0.983 9.757 0.169 -79.511
2021.708 0.166 -79.675 0.984 9.58 0.984 9.58 0.166 -79.675
2046.667 0.163 -79.835 0.984 9.405 0.984 9.405 0.163 -79.835
2071.625 0.16 -79.992 0.985 9.234 0.985 9.234 0.16 -79.992
2096.583 0.158 -80.145 0.985 9.067 0.985 9.067 0.158 -80.145
2121.542 0.155 -80.295 0.986 8.902 0.986 8.902 0.155 -80.295
2146.5 0.152 -80.442 0.986 8.74 0.986 8.74 0.152 -80.442
2171.458 0.149 -80.585 0.987 8.582 0.987 8.582 0.149 -80.585
2196.417 0.147 -80.725 0.987 8.426 0.987 8.426 0.147 -80.725
2221.375 0.144 -80.863 0.987 8.272 0.987 8.272 0.144 -80.863
2246.333 0.141 -80.997 0.988 8.122 0.988 8.122 0.141 -80.997
2271.292 0.139 -81.129 0.988 7.973 0.988 7.973 0.139 -81.129
2296.25 0.136 -81.257 0.989 7.828 0.989 7.828 0.136 -81.257
2321.208 0.134 -81.383 0.989 7.685 0.989 7.685 0.134 -81.383
2346.167 0.131 -81.507 0.989 7.544 0.989 7.544 0.131 -81.507
2371.125 0.129 -81.627 0.989 7.405 0.989 7.405 0.129 -81.627
2396.083 0.127 -81.746 0.99 7.268 0.99 7.268 0.127 -81.746
2421.042 0.124 -81.861 0.99 7.134 0.99 7.134 0.124 -81.861
2446 0.122 -81.974 0.99 7.001 0.99 7.001 0.122 -81.974
2470.958 0.12 -82.085 0.991 6.871 0.991 6.871 0.12 -82.085
2495.917 0.117 -82.194 0.991 6.743 0.991 6.743 0.117 -82.194
2520.875 0.115 -82.3 0.991 6.616 0.991 6.616 0.115 -82.3
2545.833 0.113 -82.403 0.991 6.491 0.991 6.491 0.113 -82.403
2570.792 0.111 -82.505 0.992 6.368 0.992 6.368 0.111 -82.505
2595.75 0.109 -82.604 0.992 6.247 0.992 6.247 0.109 -82.604
2620.708 0.107 -82.701 0.992 6.127 0.992 6.127 0.107 -82.701
2645.667 0.105 -82.796 0.992 6.009 0.992 6.009 0.105 -82.796
2670.625 0.103 -82.889 0.993 5.893 0.993 5.893 0.103 -82.889
2695.583 0.101 -82.979 0.993 5.778 0.993 5.778 0.101 -82.979
2720.542 0.099 -83.067 0.993 5.665 0.993 5.665 0.099 -83.067
2745.5 0.097 -83.154 0.993 5.553 0.993 5.553 0.097 -83.154
2770.458 0.095 -83.238 0.993 5.442 0.993 5.442 0.095 -83.238
2795.417 0.093 -83.32 0.993 5.333 0.993 5.333 0.093 -83.32
2820.375 0.091 -83.399 0.994 5.226 0.994 5.226 0.091 -83.399
2845.333 0.089 -83.477 0.994 5.119 0.994 5.119 0.089 -83.477
2870.292 0.087 -83.553 0.994 5.014 0.994 5.014 0.087 -83.553
2895.25 0.086 -83.626 0.994 4.91 0.994 4.91 0.086 -83.626
2920.208 0.084 -83.697 0.994 4.808 0.994 4.808 0.084 -83.697
2945.167 0.082 -83.766 0.994 4.706 0.994 4.706 0.082 -83.766
2970.125 0.08 -83.833 0.995 4.606 0.995 4.606 0.08 -83.833
2995.083 0.079 -83.898 0.995 4.507 0.995 4.507 0.079 -83.898
3020.042 0.077 -83.96 0.995 4.409 0.995 4.409 0.077 -83.96
3045 0.075 -84.02 0.995 4.312 0.995 4.312 0.075 -84.02
3069.958 0.074 -84.078 0.995 4.216 0.995 4.216 0.074 -84.078
3094.917 0.072 -84.134 0.995 4.121 0.995 4.121 0.072 -84.134
3119.875 0.07 -84.187 0.995 4.027 0.995 4.027 0.07 -84.187
3144.833 0.069 -84.237 0.995 3.934 0.995 3.934 0.069 -84.237
3169.792 0.067 -84.286 0.996 3.842 0.996 3.842 0.067 -84.286
3194.75 0.065 -84.331 0.996 3.751 0.996 3.751 0.065 -84.331
3219.708 0.064 -84.374 0.996 3.661 0.996 3.661 0.064 -84.374
3244.667 0.062 -84.414 0.996 3.572 0.996 3.572 0.062 -84.414
3269.625 0.061 -84.451 0.996 3.484 0.996 3.484 0.061 -84.451
3294.583 0.059 -84.485 0.996 3.396 0.996 3.396 0.059 -84.485
3319.542 0.058 -84.516 0.996 3.31 0.996 3.31 0.058 -84.516
3344.5 0.056 -84.544 0.996 3.224 0.996 3.224 0.056 -84.544
3369.458 0.055 -84.569 0.996 3.139 0.996 3.139 0.055 -84.569
3394.417 0.053 -84.59 0.996 3.055 0.996 3.055 0.053 -84.59
3419.375 0.052 -84.607 0.996 2.971 0.996 2.971 0.052 -84.607
3444.333 0.05 -84.62 0.997 2.888 0.997 2.888 0.05 -84.62
3469.292 0.049 -84.629 0.997 2.806 0.997 2.806 0.049 -84.629
3494.25 0.048 -84.634 0.997 2.725 0.997 2.725 0.048 -84.634
3519.208 0.046 -84.634 0.997 2.645 0.997 2.645 0.046 -84.634
3544.167 0.045 -84.629 0.997 2.565 0.997 2.565 0.045 -84.629
3569.125 0.043 -84.619 0.997 2.486 0.997 2.486 0.043 -84.619
3594.083 0.042 -84.603 0.997 2.407 0.997 2.407 0.042 -84.603
3619.042 0.041 -84.581 0.997 2.329 0.997 2.329 0.041 -84.581
3644 0.039 -84.553 0.997 2.252 0.997 2.252 0.039 -84.553
3668.958 0.038 -84.517 0.997 2.176 0.997 2.176 0.038 -84.517
3693.917 0.037 -84.474 0.997 2.1 0.997 2.1 0.037 -84.474
3718.875 0.035 -84.422 0.997 2.024 0.997 2.024 0.035 -84.422
3743.833 0.034 -84.36 0.997 1.949 0.997 1.949 0.034 -84.36
3768.792 0.033 -84.289 0.997 1.875 0.997 1.875 0.033 -84.289
3793.75 0.032 -84.206 0.997 1.802 0.997 1.802 0.032 -84.206
3818.708 0.03 -84.111 0.997 1.729 0.997 1.729 0.03 -84.111
3843.667 0.029 -84.002 0.997 1.656 0.997 1.656 0.029 -84.002
3868.625 0.028 -83.877 0.997 1.584 0.997 1.584 0.028 -83.877
3893.583 0.026 -83.735 0.997 1.513 0.997 1.513 0.026 -83.735
3918.542 0.025 -83.573 0.997 1.442 0.997 1.442 0.025 -83.573
3943.5 0.024 -83.388 0.998 1.371 0.998 1.371 0.024 -83.388
3968.458 0.023 -83.178 0.998 1.301 0.998 1.301 0.023 -83.178
3993.417 0.022 -82.938 0.998 1.232 0.998 1.232 0.022 -82.938
4018.375 0.02 -82.663 0.998 1.163 0.998 1.163 0.02 -82.663
4043.333 0.019 -82.348 0.998 1.094 0.998 1.094 0.019 -82.348
4068.292 0.018 -81.985 0.998 1.026 0.998 1.026 0.018 -81.985
4093.25 0.017 -81.565 0.998 0.958 0.998 0.958 0.017 -81.565
4118.208 0.016 -81.076 0.998 0.891 0.998 0.891 0.016 -81.076
4143.167 0.015 -80.502 0.998 0.824 0.998 0.824 0.015 -80.502
4168.125 0.013 -79.822 0.998 0.758 0.998 0.758 0.013 -79.822
4193.083 0.012 -79.01 0.998 0.692 0.998 0.692 0.012 -79.01
4218.042 0.011 -78.026 0.998 0.627 0.998 0.627 0.011 -78.026
4243 0.01 -76.817 0.998 0.562 0.998 0.562 0.01 -76.817
4267.958 8.948e-3 -75.302 0.998 0.497 0.998 0.497 8.948e-3 -75.302
4292.917 7.865e-3 -73.36 0.998 0.433 0.998 0.433 7.865e-3 -73.36
4317.875 6.802e-3 -70.801 0.998 0.369 0.998 0.369 6.802e-3 -70.801
4342.833 5.764e-3 -67.306 0.998 0.305 0.998 0.305 5.764e-3 -67.306
4367.792 4.763e-3 -62.313 0.998 0.242 0.998 0.242 4.763e-3 -62.313
4392.75 3.824e-3 -54.788 0.998 0.179 0.998 0.179 3.824e-3 -54.788
4417.708 2.998e-3 -42.811 0.998 0.117 0.998 0.117 2.998e-3 -42.811
4442.667 2.396e-3 -23.541 0.998 0.055 0.998 0.055 2.396e-3 -23.541
4467.625 2.199e-3 3.073 0.998 -6.768e-3 0.998 -6.768e-3 2.199e-3 3.073
4492.583 2.497e-3 28.376 0.998 -0.068 0.998 -0.068 2.497e-3 28.376
4517.542 3.147e-3 45.63 0.998 -0.129 0.998 -0.129 3.147e-3 45.63
4542.5 3.975e-3 56.285 0.998 -0.19 0.998 -0.19 3.975e-3 56.285
4567.458 4.888e-3 63.062 0.998 -0.25 0.998 -0.25 4.888e-3 63.062
4592.417 5.843e-3 67.623 0.998 -0.31 0.998 -0.31 5.843e-3 67.623
4617.375 6.821e-3 70.855 0.998 -0.37 0.998 -0.37 6.821e-3 70.855
4642.333 7.81e-3 73.245 0.998 -0.429 0.998 -0.429 7.81e-3 73.245
4667.292 8.805e-3 75.073 0.998 -0.489 0.998 -0.489 8.805e-3 75.073
4692.25 9.802e-3 76.511 0.998 -0.547 0.998 -0.547 9.802e-3 76.511
4717.208 0.011 77.666 0.998 -0.606 0.998 -0.606 0.011 77.666
4742.167 0.012 78.611 0.998 -0.664 0.998 -0.664 0.012 78.611
4767.125 0.013 79.396 0.998 -0.722 0.998 -0.722 0.013 79.396
4792.083 0.014 80.056 0.998 -0.78 0.998 -0.78 0.014 80.056
4817.042 0.015 80.617 0.998 -0.837 0.998 -0.837 0.015 80.617
4842 0.016 81.099 0.998 -0.894 0.998 -0.894 0.016 81.099
4866.958 0.017 81.515 0.998 -0.951 0.998 -0.951 0.017 81.515
4891.917 0.018 81.877 0.998 -1.007 0.998 -1.007 0.018 81.877
4916.875 0.019 82.193 0.998 -1.064 0.998 -1.064 0.019 82.193
4941.833 0.02 82.472 0.998 -1.12 0.998 -1.12 0.02 82.472
4966.792 0.021 82.718 0.998 -1.176 0.998 -1.176 0.021 82.718
4991.75 0.022 82.936 0.998 -1.231 0.998 -1.231 0.022 82.936
5016.708 0.023 83.13 0.998 -1.286 0.998 -1.286 0.023 83.13
5041.667 0.024 83.302 0.998 -1.341 0.998 -1.341 0.024 83.302
5066.625 0.024 83.457 0.998 -1.396 0.998 -1.396 0.024 83.457
5091.583 0.025 83.595 0.997 -1.451 0.997 -1.451 0.025 83.595
5116.542 0.026 83.719 0.997 -1.505 0.997 -1.505 0.026 83.719
5141.5 0.027 83.83 0.997 -1.559 0.997 -1.559 0.027 83.83
5166.458 0.028 83.929 0.997 -1.613 0.997 -1.613 0.028 83.929
5191.417 0.029 84.018 0.997 -1.667 0.997 -1.667 0.029 84.018
5216.375 0.03 84.099 0.997 -1.72 0.997 -1.72 0.03 84.099
5241.333 0.031 84.17 0.997 -1.773 0.997 -1.773 0.031 84.17
5266.292 0.032 84.235 0.997 -1.826 0.997 -1.826 0.032 84.235
5291.25 0.033 84.292 0.997 -1.879 0.997 -1.879 0.033 84.292
5316.208 0.034 84.344 0.997 -1.931 0.997 -1.931 0.034 84.344
5341.167 0.035 84.39 0.997 -1.984 0.997 -1.984 0.035 84.39
5366.125 0.036 84.43 0.997 -2.036 0.997 -2.036 0.036 84.43
5391.083 0.036 84.466 0.997 -2.088 0.997 -2.088 0.036 84.466
5416.042 0.037 84.497 0.997 -2.14 0.997 -2.14 0.037 84.497
5441 0.038 84.525 0.997 -2.191 0.997 -2.191 0.038 84.525
5465.958 0.039 84.549 0.997 -2.242 0.997 -2.242 0.039 84.549
5490.917 0.04 84.569 0.997 -2.294 0.997 -2.294 0.04 84.569
5515.875 0.041 84.586 0.997 -2.345 0.997 -2.345 0.041 84.586
5540.833 0.042 84.6 0.997 -2.395 0.997 -2.395 0.042 84.6
5565.792 0.043 84.612 0.997 -2.446 0.997 -2.446 0.043 84.612
5590.75 0.044 84.621 0.997 -2.496 0.997 -2.496 0.044 84.621
5615.708 0.044 84.628 0.997 -2.547 0.997 -2.547 0.044 84.628
5640.667 0.045 84.632 0.997 -2.597 0.997 -2.597 0.045 84.632
5665.625 0.046 84.634 0.997 -2.647 0.997 -2.647 0.046 84.634
5690.583 0.047 84.635 0.997 -2.696 0.997 -2.696 0.047 84.635
5715.542 0.048 84.633 0.997 -2.746 0.997 -2.746 0.048 84.633
5740.5 0.049 84.63 0.997 -2.795 0.997 -2.795 0.049 84.63
5765.458 0.05 84.626 0.997 -2.844 0.997 -2.844 0.05 84.626
5790.417 0.051 84.619 0.997 -2.894 0.997 -2.894 0.051 84.619
5815.375 0.051 84.612 0.996 -2.942 0.996 -2.942 0.051 84.612
5840.333 0.052 84.603 0.996 -2.991 0.996 -2.991 0.052 84.603
5865.292 0.053 84.593 0.996 -3.04 0.996 -3.04 0.053 84.593
5890.25 0.054 84.582 0.996 -3.088 0.996 -3.088 0.054 84.582
5915.208 0.055 84.569 0.996 -3.136 0.996 -3.136 0.055 84.569
5940.167 0.056 84.556 0.996 -3.184 0.996 -3.184 0.056 84.556
5965.125 0.056 84.541 0.996 -3.232 0.996 -3.232 0.056 84.541
5990.083 0.057 84.526 0.996 -3.28 0.996 -3.28 0.057 84.526
6015.042 0.058 84.51 0.996 -3.328 0.996 -3.328 0.058 84.51
6040 0.059 84.493 0.996 -3.375 0.996 -3.375 0.059 84.493
6064.958 0.06 84.475 0.996 -3.423 0.996 -3.423 0.06 84.475
6089.917 0.061 84.456 0.996 -3.47 0.996 -3.47 0.061 84.456
6114.875 0.061 84.437 0.996 -3.517 0.996 -3.517 0.061 84.437
6139.833 0.062 84.417 0.996 -3.564 0.996 -3.564 0.062 84.417
6164.792 0.063 84.397 0.996 -3.611 0.996 -3.611 0.063 84.397
6189.75 0.064 84.375 0.996 -3.658 0.996 -3.658 0.064 84.375
6214.708 0.065 84.354 0.996 -3.704 0.996 -3.704 0.065 84.354
6239.667 0.065 84.331 0.996 -3.751 0.996 -3.751 0.065 84.331
6264.625 0.066 84.308 0.996 -3.797 0.996 -3.797 0.066 84.308
6289.583 0.067 84.285 0.996 -3.843 0.996 -3.843 0.067 84.285
6314.542 0.068 84.261 0.996 -3.889 0.996 -3.889 0.068 84.261
6339.5 0.069 84.237 0.995 -3.935 0.995 -3.935 0.069 84.237
6364.458 0.069 84.212 0.995 -3.981 0.995 -3.981 0.069 84.212
6389.417 0.07 84.187 0.995 -4.026 0.995 -4.026 0.07 84.187
6414.375 0.071 84.162 0.995 -4.072 0.995 -4.072 0.071 84.162
6439.333 0.072 84.136 0.995 -4.117 0.995 -4.117 0.072 84.136
6464.292 0.073 84.11 0.995 -4.163 0.995 -4.163 0.073 84.11
6489.25 0.073 84.083 0.995 -4.208 0.995 -4.208 0.073 84.083
6514.208 0.074 84.056 0.995 -4.253 0.995 -4.253 0.074 84.056
6539.167 0.075 84.029 0.995 -4.298 0.995 -4.298 0.075 84.029
6564.125 0.076 84.001 0.995 -4.343 0.995 -4.343 0.076 84.001
6589.083 0.077 83.974 0.995 -4.387 0.995 -4.387 0.077 83.974
6614.042 0.077 83.946 0.995 -4.432 0.995 -4.432 0.077 83.946
6639 0.078 83.917 0.995 -4.476 0.995 -4.476 0.078 83.917
6663.958 0.079 83.889 0.995 -4.521 0.995 -4.521 0.079 83.889
6688.917 0.08 83.86 0.995 -4.565 0.995 -4.565 0.08 83.86
6713.875 0.08 83.831 0.995 -4.609 0.995 -4.609 0.08 83.831
6738.833 0.081 83.802 0.995 -4.653 0.995 -4.653 0.081 83.802
6763.792 0.082 83.772 0.994 -4.697 0.994 -4.697 0.082 83.772
6788.75 0.083 83.743 0.994 -4.741 0.994 -4.741 0.083 83.743
6813.708 0.083 83.713 0.994 -4.785 0.994 -4.785 0.083 83.713
6838.667 0.084 83.683 0.994 -4.829 0.994 -4.829 0.084 83.683
6863.625 0.085 83.653 0.994 -4.872 0.994 -4.872 0.085 83.653
6888.583 0.086 83.622 0.994 -4.916 0.994 -4.916 0.086 83.622
6913.542 0.086 83.592 0.994 -4.959 0.994 -4.959 0.086 83.592
6938.5 0.087 83.561 0.994 -5.002 0.994 -5.002 0.087 83.561
6963.458 0.088 83.53 0.994 -5.045 0.994 -5.045 0.088 83.53
6988.417 0.089 83.499 0.994 -5.088 0.994 -5.088 0.089 83.499
7013.375 0.089 83.468 0.994 -5.131 0.994 -5.131 0.089 83.468
7038.333 0.09 83.437 0.994 -5.174 0.994 -5.174 0.09 83.437
7063.292 0.091 83.406 0.994 -5.217 0.994 -5.217 0.091 83.406
7088.25 0.092 83.374 0.994 -5.26 0.994 -5.26 0.092 83.374
7113.208 0.092 83.343 0.994 -5.302 0.994 -5.302 0.092 83.343
7138.167 0.093 83.311 0.993 -5.345 0.993 -5.345 0.093 83.311
7163.125 0.094 83.279 0.993 -5.387 0.993 -5.387 0.094 83.279
7188.083 0.095 83.247 0.993 -5.43 0.993 -5.43 0.095 83.247
7213.042 0.095 83.215 0.993 -5.472 0.993 -5.472 0.095 83.215
7238 0.096 83.183 0.993 -5.514 0.993 -5.514 0.096 83.183
7262.958 0.097 83.151 0.993 -5.556 0.993 -5.556 0.097 83.151
7287.917 0.098 83.119 0.993 -5.598 0.993 -5.598 0.098 83.119
7312.875 0.098 83.087 0.993 -5.64 0.993 -5.64 0.098 83.087
7337.833 0.099 83.054 0.993 -5.682 0.993 -5.682 0.099 83.054
7362.792 0.1 83.022 0.993 -5.723 0.993 -5.723 0.1 83.022
7387.75 0.1 82.989 0.993 -5.765 0.993 -5.765 0.1 82.989
7412.708 0.101 82.957 0.993 -5.807 0.993 -5.807 0.101 82.957
7437.667 0.102 82.924 0.993 -5.848 0.993 -5.848 0.102 82.924
7462.625 0.103 82.891 0.993 -5.89 0.993 -5.89 0.103 82.891
7487.583 0.103 82.858 0.992 -5.931 0.992 -5.931 0.103 82.858
7512.542 0.104 82.826 0.992 -5.972 0.992 -5.972 0.104 82.826
7537.5 0.105 82.793 0.992 -6.013 0.992 -6.013 0.105 82.793
7562.458 0.105 82.76 0.992 -6.054 0.992 -6.054 0.105 82.76
7587.417 0.106 82.727 0.992 -6.095 0.992 -6.095 0.106 82.727
7612.375 0.107 82.694 0.992 -6.136 0.992 -6.136 0.107 82.694
7637.333 0.108 82.661 0.992 -6.177 0.992 -6.177 0.108 82.661
7662.292 0.108 82.628 0.992 -6.218 0.992 -6.218 0.108 82.628
7687.25 0.109 82.594 0.992 -6.259 0.992 -6.259 0.109 82.594
7712.208 0.11 82.561 0.992 -6.299 0.992 -6.299 0.11 82.561
7737.167 0.11 82.528 0.992 -6.34 0.992 -6.34 0.11 82.528
7762.125 0.111 82.495 0.992 -6.381 0.992 -6.381 0.111 82.495
7787.083 0.112 82.461 0.992 -6.421 0.992 -6.421 0.112 82.461
7812.042 0.113 82.428 0.991 -6.461 0.991 -6.461 0.113 82.428
7837 0.113 82.395 0.991 -6.502 0.991 -6.502 0.113 82.395
7861.958 0.114 82.361 0.991 -6.542 0.991 -6.542 0.114 82.361
7886.917 0.115 82.328 0.991 -6.582 0.991 -6.582 0.115 82.328
7911.875 0.115 82.295 0.991 -6.622 0.991 -6.622 0.115 82.295
7936.833 0.116 82.261 0.991 -6.662 0.991 -6.662 0.116 82.261
7961.792 0.117 82.228 0.991 -6.702 0.991 -6.702 0.117 82.228
7986.75 0.117 82.194 0.991 -6.742 0.991 -6.742 0.117 82.194
8011.708 0.118 82.161 0.991 -6.782 0.991 -6.782 0.118 82.161
8036.667 0.119 82.127 0.991 -6.822 0.991 -6.822 0.119 82.127
8061.625 0.119 82.094 0.991 -6.861 0.991 -6.861 0.119 82.094
8086.583 0.12 82.06 0.991 -6.901 0.991 -6.901 0.12 82.06
8111.542 0.121 82.026 0.99 -6.94 0.99 -6.94 0.121 82.026
8136.5 0.122 81.993 0.99 -6.98 0.99 -6.98 0.122 81.993
8161.458 0.122 81.959 0.99 -7.019 0.99 -7.019 0.122 81.959
8186.417 0.123 81.926 0.99 -7.059 0.99 -7.059 0.123 81.926
8211.375 0.124 81.892 0.99 -7.098 0.99 -7.098 0.124 81.892
8236.333 0.124 81.858 0.99 -7.137 0.99 -7.137 0.124 81.858
