# MHZ S MA R 50

50 0.999 -2.967 0.052 87.022 0.052 87.022 0.999 -2.967
74.958 0.997 -4.444 0.077 85.541 0.077 85.541 0.997 -4.444
99.917 0.995 -5.915 0.103 84.065 0.103 84.065 0.995 -5.915
124.875 0.992 -7.379 0.128 82.596 0.128 82.596 0.992 -7.379
149.833 0.988 -8.833 0.154 81.137 0.154 81.137 0.988 -8.833
174.792 0.984 -10.277 0.178 79.688 0.178 79.688 0.984 -10.277
199.75 0.979 -11.709 0.203 78.251 0.203 78.251 0.979 -11.709
224.708 0.974 -13.126 0.227 76.829 0.227 76.829 0.974 -13.126
249.667 0.968 -14.529 0.251 75.421 0.251 75.421 0.968 -14.529
274.625 0.961 -15.915 0.274 74.03 0.274 74.03 0.961 -15.915
299.583 0.955 -17.283 0.297 72.657 0.297 72.657 0.955 -17.283
324.542 0.947 -18.632 0.319 71.303 0.319 71.303 0.947 -18.632
349.5 0.94 -19.961 0.341 69.968 0.341 69.968 0.94 -19.961
374.458 0.931 -21.27 0.363 68.655 0.363 68.655 0.931 -21.27
399.417 0.923 -22.557 0.384 67.362 0.384 67.362 0.923 -22.557
424.375 0.914 -23.823 0.404 66.092 0.404 66.092 0.914 -23.823
449.333 0.905 -25.065 0.424 64.845 0.424 64.845 0.905 -25.065
474.292 0.896 -26.284 0.443 63.62 0.443 63.62 0.896 -26.284
499.25 0.886 -27.48 0.461 62.419 0.461 62.419 0.886 -27.48
524.208 0.877 -28.653 0.479 61.242 0.479 61.242 0.877 -28.653
549.167 0.867 -29.801 0.497 60.088 0.497 60.088 0.867 -29.801
574.125 0.857 -30.925 0.514 58.959 0.514 58.959 0.857 -30.925
599.083 0.847 -32.026 0.53 57.853 0.53 57.853 0.847 -32.026
624.042 0.836 -33.102 0.546 56.772 0.546 56.772 0.836 -33.102
649 0.826 -34.155 0.561 55.714 0.561 55.714 0.826 -34.155
673.958 0.816 -35.183 0.576 54.68 0.576 54.68 0.816 -35.183
698.917 0.806 -36.189 0.59 53.669 0.59 53.669 0.806 -36.189
723.875 0.795 -37.171 0.604 52.682 0.604 52.682 0.795 -37.171
748.833 0.785 -38.131 0.617 51.717 0.617 51.717 0.785 -38.131
773.792 0.775 -39.067 0.63 50.775 0.63 50.775 0.775 -39.067
798.75 0.764 -39.982 0.643 49.855 0.643 49.855 0.764 -39.982
823.708 0.754 -40.875 0.654 48.957 0.654 48.957 0.754 -40.875
848.667 0.744 -41.747 0.666 48.081 0.666 48.081 0.744 -41.747
873.625 0.734 -42.597 0.677 47.225 0.677 47.225 0.734 -42.597
898.583 0.724 -43.427 0.687 46.389 0.687 46.389 0.724 -43.427
923.542 0.714 -44.237 0.698 45.574 0.698 45.574 0.714 -44.237
948.5 0.704 -45.028 0.707 44.778 0.707 44.778 0.704 -45.028
973.458 0.695 -45.799 0.717 44.002 0.717 44.002 0.695 -45.799
998.417 0.685 -46.551 0.726 43.244 0.726 43.244 0.685 -46.551
1023.375 0.676 -47.286 0.735 42.504 0.735 42.504 0.676 -47.286
1048.333 0.666 -48.002 0.743 41.782 0.743 41.782 0.666 -48.002
1073.292 0.657 -48.702 0.751 41.077 0.751 41.077 0.657 -48.702
1098.25 0.648 -49.384 0.759 40.389 0.759 40.389 0.648 -49.384
1123.208 0.639 -50.051 0.767 39.718 0.767 39.718 0.639 -50.051
1148.167 0.63 -50.701 0.774 39.062 0.774 39.062 0.63 -50.701
1173.125 0.621 -51.336 0.781 38.422 0.781 38.422 0.621 -51.336
1198.083 0.613 -51.956 0.788 37.796 0.788 37.796 0.613 -51.956
1223.042 0.604 -52.561 0.794 37.185 0.794 37.185 0.604 -52.561
1248 0.596 -53.152 0.8 36.589 0.8 36.589 0.596 -53.152
1272.958 0.588 -53.729 0.806 36.006 0.806 36.006 0.588 -53.729
1297.917 0.58 -54.293 0.812 35.436 0.812 35.436 0.58 -54.293
1322.875 0.572 -54.844 0.818 34.88 0.818 34.88 0.572 -54.844
1347.833 0.564 -55.382 0.823 34.336 0.823 34.336 0.564 -55.382
1372.792 0.556 -55.908 0.828 33.804 0.828 33.804 0.556 -55.908
1397.75 0.549 -56.423 0.833 33.284 0.833 33.284 0.549 -56.423
1422.708 0.541 -56.925 0.838 32.776 0.838 32.776 0.541 -56.925
1447.667 0.534 -57.417 0.843 32.278 0.843 32.278 0.534 -57.417
1472.625 0.527 -57.897 0.847 31.792 0.847 31.792 0.527 -57.897
1497.583 0.52 -58.367 0.851 31.316 0.851 31.316 0.52 -58.367
1522.542 0.513 -58.827 0.856 30.851 0.856 30.851 0.513 -58.827
1547.5 0.506 -59.277 0.86 30.395 0.86 30.395 0.506 -59.277
1572.458 0.499 -59.717 0.864 29.949 0.864 29.949 0.499 -59.717
1597.417 0.493 -60.148 0.867 29.512 0.867 29.512 0.493 -60.148
1622.375 0.486 -60.57 0.871 29.084 0.871 29.084 0.486 -60.57
1647.333 0.48 -60.983 0.874 28.665 0.874 28.665 0.48 -60.983
1672.292 0.473 -61.387 0.878 28.255 0.878 28.255 0.473 -61.387
1697.25 0.467 -61.783 0.881 27.852 0.881 27.852 0.467 -61.783
1722.208 0.461 -62.171 0.884 27.458 0.884 27.458 0.461 -62.171
1747.167 0.455 -62.551 0.887 27.072 0.887 27.072 0.455 -62.551
1772.125 0.449 -62.924 0.89 26.693 0.89 26.693 0.449 -62.924
1797.083 0.443 -63.289 0.893 26.322 0.893 26.322 0.443 -63.289
1822.042 0.438 -63.647 0.896 25.958 0.896 25.958 0.438 -63.647
1847 0.432 -63.998 0.899 25.601 0.899 25.601 0.432 -63.998
1871.958 0.427 -64.342 0.901 25.25 0.901 25.25 0.427 -64.342
1896.917 0.421 -64.679 0.904 24.906 0.904 24.906 0.421 -64.679
1921.875 0.416 -65.01 0.906 24.569 0.906 24.569 0.416 -65.01
1946.833 0.411 -65.335 0.909 24.238 0.909 24.238 0.411 -65.335
1971.792 0.405 -65.653 0.911 23.913 0.911 23.913 0.405 -65.653
1996.75 0.4 -65.966 0.913 23.593 0.913 23.593 0.4 -65.966
2021.708 0.395 -66.273 0.916 23.28 0.916 23.28 0.395 -66.273
2046.667 0.39 -66.574 0.918 22.971 0.918 22.971 0.39 -66.574
2071.625 0.385 -66.87 0.92 22.669 0.92 22.669 0.385 -66.87
2096.583 0.381 -67.161 0.922 22.371 0.922 22.371 0.381 -67.161
2121.542 0.376 -67.446 0.924 22.079 0.924 22.079 0.376 -67.446
2146.5 0.371 -67.727 0.925 21.792 0.925 21.792 0.371 -67.727
2171.458 0.367 -68.002 0.927 21.509 0.927 21.509 0.367 -68.002
2196.417 0.362 -68.273 0.929 21.232 0.929 21.232 0.362 -68.273
2221.375 0.358 -68.539 0.931 20.959 0.931 20.959 0.358 -68.539
2246.333 0.353 -68.8 0.932 20.69 0.932 20.69 0.353 -68.8
2271.292 0.349 -69.058 0.934 20.426 0.934 20.426 0.349 -69.058
2296.25 0.345 -69.31 0.936 20.166 0.936 20.166 0.345 -69.31
2321.208 0.341 -69.559 0.937 19.91 0.937 19.91 0.341 -69.559
2346.167 0.336 -69.803 0.939 19.658 0.939 19.658 0.336 -69.803
2371.125 0.332 -70.044 0.94 19.41 0.94 19.41 0.332 -70.044
2396.083 0.328 -70.28 0.941 19.166 0.941 19.166 0.328 -70.28
2421.042 0.324 -70.513 0.943 18.925 0.943 18.925 0.324 -70.513
2446 0.32 -70.742 0.944 18.689 0.944 18.689 0.32 -70.742
2470.958 0.317 -70.968 0.945 18.456 0.945 18.456 0.317 -70.968
2495.917 0.313 -71.19 0.947 18.226 0.947 18.226 0.313 -71.19
2520.875 0.309 -71.408 0.948 18 0.948 18 0.309 -71.408
2545.833 0.305 -71.623 0.949 17.777 0.949 17.777 0.305 -71.623
2570.792 0.302 -71.835 0.95 17.557 0.95 17.557 0.302 -71.835
2595.75 0.298 -72.043 0.951 17.34 0.951 17.34 0.298 -72.043
2620.708 0.295 -72.249 0.952 17.127 0.952 17.127 0.295 -72.249
2645.667 0.291 -72.451 0.954 16.916 0.954 16.916 0.291 -72.451
2670.625 0.288 -72.65 0.955 16.709 0.955 16.709 0.288 -72.65
2695.583 0.284 -72.847 0.956 16.504 0.956 16.504 0.284 -72.847
2720.542 0.281 -73.04 0.957 16.302 0.957 16.302 0.281 -73.04
2745.5 0.277 -73.231 0.958 16.103 0.958 16.103 0.277 -73.231
2770.458 0.274 -73.419 0.958 15.906 0.958 15.906 0.274 -73.419
2795.417 0.271 -73.604 0.959 15.712 0.959 15.712 0.271 -73.604
2820.375 0.268 -73.786 0.96 15.521 0.96 15.521 0.268 -73.786
2845.333 0.264 -73.966 0.961 15.332 0.961 15.332 0.264 -73.966
2870.292 0.261 -74.144 0.962 15.145 0.962 15.145 0.261 -74.144
2895.25 0.258 -74.319 0.963 14.961 0.963 14.961 0.258 -74.319
2920.208 0.255 -74.491 0.964 14.779 0.964 14.779 0.255 -74.491
2945.167 0.252 -74.661 0.964 14.6 0.964 14.6 0.252 -74.661
2970.125 0.249 -74.829 0.965 14.422 0.965 14.422 0.249 -74.829
2995.083 0.246 -74.995 0.966 14.247 0.966 14.247 0.246 -74.995
3020.042 0.243 -75.158 0.967 14.074 0.967 14.074 0.243 -75.158
3045 0.24 -75.319 0.967 13.903 0.967 13.903 0.24 -75.319
3069.958 0.237 -75.478 0.968 13.735 0.968 13.735 0.237 -75.478
3094.917 0.235 -75.635 0.969 13.568 0.969 13.568 0.235 -75.635
3119.875 0.232 -75.79 0.969 13.403 0.969 13.403 0.232 -75.79
3144.833 0.229 -75.942 0.97 13.24 0.97 13.24 0.229 -75.942
3169.792 0.226 -76.093 0.971 13.079 0.971 13.079 0.226 -76.093
3194.75 0.224 -76.242 0.971 12.919 0.971 12.919 0.224 -76.242
3219.708 0.221 -76.388 0.972 12.762 0.972 12.762 0.221 -76.388
3244.667 0.218 -76.533 0.973 12.606 0.973 12.606 0.218 -76.533
3269.625 0.216 -76.676 0.973 12.452 0.973 12.452 0.216 -76.676
3294.583 0.213 -76.817 0.974 12.3 0.974 12.3 0.213 -76.817
3319.542 0.21 -76.957 0.974 12.149 0.974 12.149 0.21 -76.957
3344.5 0.208 -77.094 0.975 12 0.975 12 0.208 -77.094
3369.458 0.205 -77.23 0.975 11.853 0.975 11.853 0.205 -77.23
3394.417 0.203 -77.364 0.976 11.707 0.976 11.707 0.203 -77.364
3419.375 0.2 -77.497 0.976 11.563 0.976 11.563 0.2 -77.497
3444.333 0.198 -77.627 0.977 11.42 0.977 11.42 0.198 -77.627
3469.292 0.196 -77.757 0.977 11.278 0.977 11.278 0.196 -77.757
3494.25 0.193 -77.884 0.978 11.139 0.978 11.139 0.193 -77.884
3519.208 0.191 -78.01 0.978 11 0.978 11 0.191 -78.01
3544.167 0.188 -78.134 0.979 10.863 0.979 10.863 0.188 -78.134
3569.125 0.186 -78.257 0.979 10.727 0.979 10.727 0.186 -78.257
3594.083 0.184 -78.378 0.98 10.593 0.98 10.593 0.184 -78.378
3619.042 0.182 -78.498 0.98 10.46 0.98 10.46 0.182 -78.498
3644 0.179 -78.616 0.98 10.328 0.98 10.328 0.179 -78.616
3668.958 0.177 -78.733 0.981 10.197 0.981 10.197 0.177 -78.733
3693.917 0.175 -78.848 0.981 10.068 0.981 10.068 0.175 -78.848
3718.875 0.173 -78.962 0.982 9.94 0.982 9.94 0.173 -78.962
3743.833 0.17 -79.074 0.982 9.813 0.982 9.813 0.17 -79.074
3768.792 0.168 -79.185 0.982 9.687 0.982 9.687 0.168 -79.185
3793.75 0.166 -79.295 0.983 9.563 0.983 9.563 0.166 -79.295
3818.708 0.164 -79.403 0.983 9.439 0.983 9.439 0.164 -79.403
3843.667 0.162 -79.51 0.983 9.317 0.983 9.317 0.162 -79.51
3868.625 0.16 -79.616 0.984 9.196 0.984 9.196 0.16 -79.616
3893.583 0.158 -79.72 0.984 9.075 0.984 9.075 0.158 -79.72
3918.542 0.156 -79.823 0.984 8.956 0.984 8.956 0.156 -79.823
3943.5 0.154 -79.924 0.985 8.838 0.985 8.838 0.154 -79.924
3968.458 0.152 -80.024 0.985 8.721 0.985 8.721 0.152 -80.024
3993.417 0.15 -80.123 0.985 8.605 0.985 8.605 0.15 -80.123
4018.375 0.148 -80.221 0.986 8.49 0.986 8.49 0.148 -80.221
4043.333 0.146 -80.317 0.986 8.376 0.986 8.376 0.146 -80.317
4068.292 0.144 -80.412 0.986 8.263 0.986 8.263 0.144 -80.412
4093.25 0.142 -80.506 0.987 8.151 0.987 8.151 0.142 -80.506
4118.208 0.14 -80.598 0.987 8.039 0.987 8.039 0.14 -80.598
4143.167 0.138 -80.69 0.987 7.929 0.987 7.929 0.138 -80.69
4168.125 0.136 -80.78 0.987 7.819 0.987 7.819 0.136 -80.78
4193.083 0.134 -80.868 0.988 7.711 0.988 7.711 0.134 -80.868
4218.042 0.132 -80.956 0.988 7.603 0.988 7.603 0.132 -80.956
4243 0.13 -81.042 0.988 7.496 0.988 7.496 0.13 -81.042
4267.958 0.129 -81.127 0.988 7.39 0.988 7.39 0.129 -81.127
4292.917 0.127 -81.21 0.989 7.284 0.989 7.284 0.127 -81.21
4317.875 0.125 -81.293 0.989 7.18 0.989 7.18 0.125 -81.293
4342.833 0.123 -81.374 0.989 7.076 0.989 7.076 0.123 -81.374
4367.792 0.121 -81.454 0.989 6.973 0.989 6.973 0.121 -81.454
4392.75 0.12 -81.532 0.989 6.871 0.989 6.871 0.12 -81.532
4417.708 0.118 -81.609 0.99 6.77 0.99 6.77 0.118 -81.609
4442.667 0.116 -81.685 0.99 6.669 0.99 6.669 0.116 -81.685
4467.625 0.114 -81.76 0.99 6.569 0.99 6.569 0.114 -81.76
4492.583 0.113 -81.833 0.99 6.47 0.99 6.47 0.113 -81.833
4517.542 0.111 -81.906 0.99 6.371 0.99 6.371 0.111 -81.906
4542.5 0.109 -81.976 0.991 6.274 0.991 6.274 0.109 -81.976
4567.458 0.108 -82.046 0.991 6.177 0.991 6.177 0.108 -82.046
4592.417 0.106 -82.114 0.991 6.08 0.991 6.08 0.106 -82.114
4617.375 0.104 -82.18 0.991 5.984 0.991 5.984 0.104 -82.18
4642.333 0.103 -82.246 0.991 5.889 0.991 5.889 0.103 -82.246
4667.292 0.101 -82.31 0.992 5.795 0.992 5.795 0.101 -82.31
4692.25 0.099 -82.372 0.992 5.701 0.992 5.701 0.099 -82.372
4717.208 0.098 -82.433 0.992 5.608 0.992 5.608 0.098 -82.433
4742.167 0.096 -82.492 0.992 5.515 0.992 5.515 0.096 -82.492
4767.125 0.095 -82.55 0.992 5.423 0.992 5.423 0.095 -82.55
4792.083 0.093 -82.607 0.992 5.332 0.992 5.332 0.093 -82.607
4817.042 0.091 -82.662 0.992 5.241 0.992 5.241 0.091 -82.662
4842 0.09 -82.715 0.993 5.151 0.993 5.151 0.09 -82.715
4866.958 0.088 -82.767 0.993 5.061 0.993 5.061 0.088 -82.767
4891.917 0.087 -82.817 0.993 4.972 0.993 4.972 0.087 -82.817
4916.875 0.085 -82.865 0.993 4.884 0.993 4.884 0.085 -82.865
4941.833 0.084 -82.912 0.993 4.796 0.993 4.796 0.084 -82.912
4966.792 0.082 -82.956 0.993 4.708 0.993 4.708 0.082 -82.956
4991.75 0.081 -82.999 0.993 4.621 0.993 4.621 0.081 -82.999
5016.708 0.079 -83.04 0.994 4.535 0.994 4.535 0.079 -83.04
5041.667 0.078 -83.079 0.994 4.449 0.994 4.449 0.078 -83.079
5066.625 0.076 -83.116 0.994 4.364 0.994 4.364 0.076 -83.116
5091.583 0.075 -83.151 0.994 4.279 0.994 4.279 0.075 -83.151
5116.542 0.073 -83.183 0.994 4.195 0.994 4.195 0.073 -83.183
5141.5 0.072 -83.213 0.994 4.111 0.994 4.111 0.072 -83.213
5166.458 0.07 -83.241 0.994 4.027 0.994 4.027 0.07 -83.241
5191.417 0.069 -83.267 0.994 3.945 0.994 3.945 0.069 -83.267
5216.375 0.067 -83.289 0.994 3.862 0.994 3.862 0.067 -83.289
5241.333 0.066 -83.31 0.994 3.78 0.994 3.78 0.066 -83.31
5266.292 0.065 -83.327 0.995 3.699 0.995 3.699 0.065 -83.327
5291.25 0.063 -83.341 0.995 3.618 0.995 3.618 0.063 -83.341
5316.208 0.062 -83.352 0.995 3.537 0.995 3.537 0.062 -83.352
5341.167 0.06 -83.36 0.995 3.457 0.995 3.457 0.06 -83.36
5366.125 0.059 -83.365 0.995 3.377 0.995 3.377 0.059 -83.365
5391.083 0.058 -83.366 0.995 3.298 0.995 3.298 0.058 -83.366
5416.042 0.056 -83.363 0.995 3.219 0.995 3.219 0.056 -83.363
5441 0.055 -83.356 0.995 3.141 0.995 3.141 0.055 -83.356
5465.958 0.054 -83.345 0.995 3.063 0.995 3.063 0.054 -83.345
5490.917 0.052 -83.329 0.995 2.985 0.995 2.985 0.052 -83.329
5515.875 0.051 -83.309 0.995 2.908 0.995 2.908 0.051 -83.309
5540.833 0.05 -83.283 0.995 2.831 0.995 2.831 0.05 -83.283
5565.792 0.048 -83.252 0.995 2.755 0.995 2.755 0.048 -83.252
5590.75 0.047 -83.215 0.996 2.679 0.996 2.679 0.047 -83.215
5615.708 0.046 -83.171 0.996 2.603 0.996 2.603 0.046 -83.171
5640.667 0.044 -83.121 0.996 2.528 0.996 2.528 0.044 -83.121
5665.625 0.043 -83.064 0.996 2.453 0.996 2.453 0.043 -83.064
5690.583 0.042 -82.998 0.996 2.378 0.996 2.378 0.042 -82.998
5715.542 0.04 -82.924 0.996 2.304 0.996 2.304 0.04 -82.924
5740.5 0.039 -82.841 0.996 2.231 0.996 2.231 0.039 -82.841
5765.458 0.038 -82.747 0.996 2.157 0.996 2.157 0.038 -82.747
5790.417 0.037 -82.642 0.996 2.084 0.996 2.084 0.037 -82.642
5815.375 0.035 -82.525 0.996 2.011 0.996 2.011 0.035 -82.525
5840.333 0.034 -82.394 0.996 1.939 0.996 1.939 0.034 -82.394
5865.292 0.033 -82.249 0.996 1.867 0.996 1.867 0.033 -82.249
5890.25 0.032 -82.087 0.996 1.795 0.996 1.795 0.032 -82.087
5915.208 0.03 -81.907 0.996 1.724 0.996 1.724 0.03 -81.907
5940.167 0.029 -81.707 0.996 1.653 0.996 1.653 0.029 -81.707
5965.125 0.028 -81.483 0.996 1.582 0.996 1.582 0.028 -81.483
5990.083 0.027 -81.233 0.996 1.511 0.996 1.511 0.027 -81.233
6015.042 0.025 -80.954 0.996 1.441 0.996 1.441 0.025 -80.954
6040 0.024 -80.642 0.996 1.371 0.996 1.371 0.024 -80.642
6064.958 0.023 -80.291 0.996 1.302 0.996 1.302 0.023 -80.291
6089.917 0.022 -79.895 0.996 1.233 0.996 1.233 0.022 -79.895
6114.875 0.021 -79.448 0.996 1.164 0.996 1.164 0.021 -79.448
6139.833 0.019 -78.939 0.996 1.095 0.996 1.095 0.019 -78.939
6164.792 0.018 -78.359 0.996 1.027 0.996 1.027 0.018 -78.359
6189.75 0.017 -77.693 0.997 0.959 0.997 0.959 0.017 -77.693
6214.708 0.016 -76.923 0.997 0.891 0.997 0.891 0.016 -76.923
6239.667 0.015 -76.026 0.997 0.824 0.997 0.824 0.015 -76.026
6264.625 0.014 -74.971 0.997 0.757 0.997 0.757 0.014 -74.971
6289.583 0.012 -73.718 0.997 0.69 0.997 0.69 0.012 -73.718
6314.542 0.011 -72.211 0.997 0.623 0.997 0.623 0.011 -72.211
6339.5 0.01 -70.372 0.997 0.557 0.997 0.557 0.01 -70.372
6364.458 9.197e-3 -68.09 0.997 0.491 0.997 0.491 9.197e-3 -68.09
6389.417 8.139e-3 -65.201 0.997 0.425 0.997 0.425 8.139e-3 -65.201
6414.375 7.112e-3 -61.46 0.997 0.359 0.997 0.359 7.112e-3 -61.46
6439.333 6.132e-3 -56.49 0.997 0.294 0.997 0.294 6.132e-3 -56.49
6464.292 5.219e-3 -49.712 0.997 0.229 0.997 0.229 5.219e-3 -49.712
6489.25 4.414e-3 -40.288 0.997 0.164 0.997 0.164 4.414e-3 -40.288
6514.208 3.782e-3 -27.253 0.997 0.1 0.997 0.1 3.782e-3 -27.253
6539.167 3.415e-3 -10.35 0.997 0.035 0.997 0.035 3.415e-3 -10.35
6564.125 3.396e-3 8.473 0.997 -0.029 0.997 -0.029 3.396e-3 8.473
6589.083 3.727e-3 25.595 0.997 -0.093 0.997 -0.093 3.727e-3 25.595
6614.042 4.325e-3 38.894 0.997 -0.156 0.997 -0.156 4.325e-3 38.894
6639 5.094e-3 48.53 0.997 -0.219 0.997 -0.219 5.094e-3 48.53
6663.958 5.966e-3 55.456 0.997 -0.283 0.997 -0.283 5.966e-3 55.456
6688.917 6.901e-3 60.528 0.997 -0.345 0.997 -0.345 6.901e-3 60.528
6713.875 7.873e-3 64.34 0.997 -0.408 0.997 -0.408 7.873e-3 64.34
6738.833 8.871e-3 67.279 0.997 -0.47 0.997 -0.47 8.871e-3 67.279
6763.792 9.883e-3 69.6 0.997 -0.533 0.997 -0.533 9.883e-3 69.6
6788.75 0.011 71.469 0.997 -0.595 0.997 -0.595 0.011 71.469
6813.708 0.012 73 0.997 -0.656 0.997 -0.656 0.012 73
6838.667 0.013 74.273 0.997 -0.718 0.997 -0.718 0.013 74.273
6863.625 0.014 75.345 0.997 -0.779 0.997 -0.779 0.014 75.345
6888.583 0.015 76.258 0.997 -0.84 0.997 -0.84 0.015 76.258
6913.542 0.016 77.043 0.997 -0.901 0.997 -0.901 0.016 77.043
6938.5 0.017 77.722 0.997 -0.962 0.997 -0.962 0.017 77.722
6963.458 0.018 78.315 0.996 -1.022 0.996 -1.022 0.018 78.315
6988.417 0.019 78.836 0.996 -1.082 0.996 -1.082 0.019 78.836
7013.375 0.02 79.296 0.996 -1.142 0.996 -1.142 0.02 79.296
7038.333 0.021 79.704 0.996 -1.202 0.996 -1.202 0.021 79.704
7063.292 0.022 80.068 0.996 -1.262 0.996 -1.262 0.022 80.068
7088.25 0.023 80.393 0.996 -1.321 0.996 -1.321 0.023 80.393
7113.208 0.024 80.685 0.996 -1.381 0.996 -1.381 0.024 80.685
7138.167 0.025 80.947 0.996 -1.44 0.996 -1.44 0.025 80.947
7163.125 0.026 81.184 0.996 -1.498 0.996 -1.498 0.026 81.184
7188.083 0.027 81.399 0.996 -1.557 0.996 -1.557 0.027 81.399
7213.042 0.028 81.593 0.996 -1.616 0.996 -1.616 0.028 81.593
7238 0.029 81.769 0.996 -1.674 0.996 -1.674 0.029 81.769
7262.958 0.03 81.929 0.996 -1.732 0.996 -1.732 0.03 81.929
7287.917 0.031 82.075 0.996 -1.79 0.996 -1.79 0.031 82.075
7312.875 0.032 82.208 0.996 -1.848 0.996 -1.848 0.032 82.208
7337.833 0.033 82.329 0.996 -1.905 0.996 -1.905 0.033 82.329
7362.792 0.034 82.439 0.996 -1.963 0.996 -1.963 0.034 82.439
7387.75 0.035 82.54 0.996 -2.02 0.996 -2.02 0.035 82.54
7412.708 0.036 82.631 0.996 -2.077 0.996 -2.077 0.036 82.631
7437.667 0.037 82.715 0.996 -2.134 0.996 -2.134 0.037 82.715
7462.625 0.038 82.791 0.996 -2.191 0.996 -2.191 0.038 82.791
7487.583 0.039 82.86 0.996 -2.247 0.996 -2.247 0.039 82.86
7512.542 0.04 82.923 0.996 -2.303 0.996 -2.303 0.04 82.923
7537.5 0.041 82.98 0.996 -2.36 0.996 -2.36 0.041 82.98
7562.458 0.042 83.032 0.996 -2.416 0.996 -2.416 0.042 83.032
7587.417 0.043 83.079 0.996 -2.472 0.996 -2.472 0.043 83.079
7612.375 0.044 83.121 0.996 -2.527 0.996 -2.527 0.044 83.121
7637.333 0.045 83.159 0.996 -2.583 0.996 -2.583 0.045 83.159
7662.292 0.046 83.192 0.996 -2.638 0.996 -2.638 0.046 83.192
7687.25 0.047 83.223 0.996 -2.693 0.996 -2.693 0.047 83.223
7712.208 0.048 83.249 0.995 -2.748 0.995 -2.748 0.048 83.249
7737.167 0.049 83.272 0.995 -2.803 0.995 -2.803 0.049 83.272
7762.125 0.05 83.293 0.995 -2.858 0.995 -2.858 0.05 83.293
7787.083 0.051 83.31 0.995 -2.913 0.995 -2.913 0.051 83.31
7812.042 0.052 83.325 0.995 -2.967 0.995 -2.967 0.052 83.325
7837 0.053 83.337 0.995 -3.022 0.995 -3.022 0.053 83.337
7861.958 0.054 83.347 0.995 -3.076 0.995 -3.076 0.054 83.347
7886.917 0.055 83.355 0.995 -3.13 0.995 -3.13 0.055 83.355
7911.875 0.056 83.361 0.995 -3.184 0.995 -3.184 0.056 83.361
7936.833 0.057 83.364 0.995 -3.237 0.995 -3.237 0.057 83.364
7961.792 0.058 83.366 0.995 -3.291 0.995 -3.291 0.058 83.366
7986.75 0.058 83.366 0.995 -3.344 0.995 -3.344 0.058 83.366
8011.708 0.059 83.364 0.995 -3.398 0.995 -3.398 0.059 83.364
8036.667 0.06 83.361 0.995 -3.451 0.995 -3.451 0.06 83.361
8061.625 0.061 83.356 0.995 -3.504 0.995 -3.504 0.061 83.356
8086.583 0.062 83.35 0.995 -3.557 0.995 -3.557 0.062 83.35
8111.542 0.063 83.342 0.995 -3.61 0.995 -3.61 0.063 83.342
8136.5 0.064 83.334 0.995 -3.662 0.995 -3.662 0.064 83.334
8161.458 0.065 83.324 0.995 -3.715 0.995 -3.715 0.065 83.324
8186.417 0.066 83.312 0.994 -3.767 0.994 -3.767 0.066 83.312
8211.375 0.067 83.3 0.994 -3.819 0.994 -3.819 0.067 83.3
