# MHZ S MA R 50

50 0.961 -15.957 0.275 74.018 0.275 74.018 0.961 -15.957
74.958 0.919 -23.207 0.394 66.755 0.394 66.755 0.919 -23.207
99.917 0.868 -29.756 0.496 60.193 0.496 60.193 0.868 -29.756
124.875 0.813 -35.556 0.581 54.381 0.581 54.381 0.813 -35.556
149.833 0.758 -40.631 0.651 49.294 0.651 49.294 0.758 -40.631
174.792 0.705 -45.043 0.708 44.868 0.708 44.868 0.705 -45.043
199.75 0.656 -48.874 0.753 41.025 0.753 41.025 0.656 -48.874
224.708 0.611 -52.202 0.79 37.684 0.79 37.684 0.611 -52.202
249.667 0.57 -55.103 0.82 34.77 0.82 34.77 0.57 -55.103
274.625 0.533 -57.643 0.845 32.217 0.845 32.217 0.533 -57.643
299.583 0.5 -59.877 0.865 29.97 0.865 29.97 0.5 -59.877
324.542 0.469 -61.852 0.882 27.982 0.882 27.982 0.469 -61.852
349.5 0.442 -63.607 0.896 26.214 0.896 26.214 0.442 -63.607
374.458 0.417 -65.175 0.908 24.633 0.908 24.633 0.417 -65.175
399.417 0.394 -66.581 0.918 23.213 0.918 23.213 0.394 -66.581
424.375 0.374 -67.85 0.926 21.932 0.926 21.932 0.374 -67.85
449.333 0.355 -68.998 0.934 20.77 0.934 20.77 0.355 -68.998
474.292 0.337 -70.042 0.94 19.712 0.94 19.712 0.337 -70.042
499.25 0.321 -70.995 0.945 18.745 0.945 18.745 0.321 -70.995
524.208 0.307 -71.868 0.95 17.858 0.95 17.858 0.307 -71.868
549.167 0.293 -72.671 0.955 17.042 0.955 17.042 0.293 -72.671
574.125 0.28 -73.411 0.958 16.288 0.958 16.288 0.28 -73.411
599.083 0.269 -74.095 0.962 15.589 0.962 15.589 0.269 -74.095
624.042 0.258 -74.73 0.965 14.939 0.965 14.939 0.258 -74.73
649 0.248 -75.321 0.967 14.334 0.967 14.334 0.248 -75.321
673.958 0.238 -75.872 0.97 13.769 0.97 13.769 0.238 -75.872
698.917 0.229 -76.386 0.972 13.239 0.972 13.239 0.229 -76.386
723.875 0.221 -76.868 0.974 12.742 0.974 12.742 0.221 -76.868
748.833 0.213 -77.32 0.976 12.275 0.976 12.275 0.213 -77.32
773.792 0.205 -77.745 0.977 11.834 0.977 11.834 0.205 -77.745
798.75 0.198 -78.146 0.979 11.418 0.979 11.418 0.198 -78.146
823.708 0.191 -78.524 0.98 11.024 0.98 11.024 0.191 -78.524
848.667 0.185 -78.881 0.981 10.651 0.981 10.651 0.185 -78.881
873.625 0.179 -79.219 0.982 10.296 0.982 10.296 0.179 -79.219
898.583 0.173 -79.539 0.983 9.959 0.983 9.959 0.173 -79.539
923.542 0.167 -79.843 0.984 9.638 0.984 9.638 0.167 -79.843
948.5 0.162 -80.132 0.985 9.332 0.985 9.332 0.162 -80.132
973.458 0.157 -80.407 0.986 9.039 0.986 9.039 0.157 -80.407
998.417 0.152 -80.669 0.987 8.759 0.987 8.759 0.152 -80.669
1023.375 0.148 -80.919 0.988 8.491 0.988 8.491 0.148 -80.919
1048.333 0.143 -81.157 0.988 8.234 0.988 8.234 0.143 -81.157
1073.292 0.139 -81.385 0.989 7.987 0.989 7.987 0.139 -81.385
1098.25 0.135 -81.603 0.989 7.75 0.989 7.75 0.135 -81.603
1123.208 0.131 -81.811 0.99 7.522 0.99 7.522 0.131 -81.811
1148.167 0.127 -82.01 0.99 7.302 0.99 7.302 0.127 -82.01
1173.125 0.123 -82.201 0.991 7.09 0.991 7.09 0.123 -82.201
1198.083 0.12 -82.385 0.991 6.886 0.991 6.886 0.12 -82.385
1223.042 0.116 -82.56 0.992 6.688 0.992 6.688 0.116 -82.56
1248 0.113 -82.729 0.992 6.497 0.992 6.497 0.113 -82.729
1272.958 0.11 -82.891 0.992 6.313 0.992 6.313 0.11 -82.891
1297.917 0.107 -83.046 0.993 6.134 0.993 6.134 0.107 -83.046
1322.875 0.104 -83.196 0.993 5.961 0.993 5.961 0.104 -83.196
1347.833 0.101 -83.339 0.993 5.793 0.993 5.793 0.101 -83.339
1372.792 0.098 -83.477 0.994 5.629 0.994 5.629 0.098 -83.477
1397.75 0.095 -83.609 0.994 5.471 0.994 5.471 0.095 -83.609
1422.708 0.093 -83.736 0.994 5.317 0.994 5.317 0.093 -83.736
1447.667 0.09 -83.859 0.994 5.167 0.994 5.167 0.09 -83.859
1472.625 0.088 -83.976 0.995 5.021 0.995 5.021 0.088 -83.976
1497.583 0.085 -84.089 0.995 4.879 0.995 4.879 0.085 -84.089
1522.542 0.083 -84.197 0.995 4.741 0.995 4.741 0.083 -84.197
1547.5 0.08 -84.301 0.995 4.606 0.995 4.606 0.08 -84.301
1572.458 0.078 -84.4 0.995 4.474 0.995 4.474 0.078 -84.4
1597.417 0.076 -84.495 0.996 4.346 0.996 4.346 0.076 -84.495
1622.375 0.074 -84.586 0.996 4.22 0.996 4.22 0.074 -84.586
1647.333 0.071 -84.673 0.996 4.098 0.996 4.098 0.071 -84.673
1672.292 0.069 -84.755 0.996 3.978 0.996 3.978 0.069 -84.755
1697.25 0.067 -84.834 0.996 3.861 0.996 3.861 0.067 -84.834
1722.208 0.065 -84.909 0.996 3.746 0.996 3.746 0.065 -84.909
1747.167 0.063 -84.979 0.996 3.634 0.996 3.634 0.063 -84.979
1772.125 0.061 -85.046 0.997 3.523 0.997 3.523 0.061 -85.046
1797.083 0.06 -85.108 0.997 3.416 0.997 3.416 0.06 -85.108
1822.042 0.058 -85.167 0.997 3.31 0.997 3.31 0.058 -85.167
1847 0.056 -85.221 0.997 3.206 0.997 3.206 0.056 -85.221
1871.958 0.054 -85.271 0.997 3.104 0.997 3.104 0.054 -85.271
1896.917 0.052 -85.317 0.997 3.005 0.997 3.005 0.052 -85.317
1921.875 0.051 -85.359 0.997 2.906 0.997 2.906 0.051 -85.359
1946.833 0.049 -85.395 0.997 2.81 0.997 2.81 0.049 -85.395
1971.792 0.047 -85.428 0.997 2.716 0.997 2.716 0.047 -85.428
1996.75 0.046 -85.455 0.997 2.622 0.997 2.622 0.046 -85.455
2021.708 0.044 -85.477 0.997 2.531 0.997 2.531 0.044 -85.477
2046.667 0.043 -85.493 0.998 2.441 0.998 2.441 0.043 -85.493
2071.625 0.041 -85.504 0.998 2.352 0.998 2.352 0.041 -85.504
2096.583 0.04 -85.509 0.998 2.265 0.998 2.265 0.04 -85.509
2121.542 0.038 -85.507 0.998 2.179 0.998 2.179 0.038 -85.507
2146.5 0.037 -85.498 0.998 2.095 0.998 2.095 0.037 -85.498
2171.458 0.035 -85.481 0.998 2.011 0.998 2.011 0.035 -85.481
2196.417 0.034 -85.457 0.998 1.929 0.998 1.929 0.034 -85.457
2221.375 0.032 -85.424 0.998 1.848 0.998 1.848 0.032 -85.424
2246.333 0.031 -85.38 0.998 1.769 0.998 1.769 0.031 -85.38
2271.292 0.03 -85.326 0.998 1.69 0.998 1.69 0.03 -85.326
2296.25 0.028 -85.261 0.998 1.612 0.998 1.612 0.028 -85.261
2321.208 0.027 -85.181 0.998 1.536 0.998 1.536 0.027 -85.181
2346.167 0.026 -85.087 0.998 1.46 0.998 1.46 0.026 -85.087
2371.125 0.024 -84.976 0.998 1.385 0.998 1.385 0.024 -84.976
2396.083 0.023 -84.846 0.998 1.312 0.998 1.312 0.023 -84.846
2421.042 0.022 -84.694 0.998 1.239 0.998 1.239 0.022 -84.694
2446 0.02 -84.516 0.998 1.167 0.998 1.167 0.02 -84.516
2470.958 0.019 -84.308 0.998 1.096 0.998 1.096 0.019 -84.308
2495.917 0.018 -84.064 0.998 1.025 0.998 1.025 0.018 -84.064
2520.875 0.017 -83.779 0.998 0.956 0.998 0.956 0.017 -83.779
2545.833 0.016 -83.442 0.998 0.887 0.998 0.887 0.016 -83.442
2570.792 0.014 -83.043 0.998 0.819 0.998 0.819 0.014 -83.043
2595.75 0.013 -82.566 0.998 0.752 0.998 0.752 0.013 -82.566
2620.708 0.012 -81.991 0.998 0.685 0.998 0.685 0.012 -81.991
2645.667 0.011 -81.288 0.998 0.62 0.998 0.62 0.011 -81.288
2670.625 9.798e-3 -80.417 0.998 0.554 0.998 0.554 9.798e-3 -80.417
2695.583 8.688e-3 -79.316 0.998 0.49 0.998 0.49 8.688e-3 -79.316
2720.542 7.594e-3 -77.891 0.998 0.426 0.998 0.426 7.594e-3 -77.891
2745.5 6.516e-3 -75.988 0.998 0.363 0.998 0.363 6.516e-3 -75.988
2770.458 5.46e-3 -73.341 0.998 0.3 0.998 0.3 5.46e-3 -73.341
2795.417 4.431e-3 -69.454 0.998 0.238 0.998 0.238 4.431e-3 -69.454
2820.375 3.444e-3 -63.306 0.998 0.177 0.998 0.177 3.444e-3 -63.306
2845.333 2.537e-3 -52.578 0.998 0.116 0.998 0.116 2.537e-3 -52.578
2870.292 1.815e-3 -32.023 0.998 0.055 0.998 0.055 1.815e-3 -32.023
2895.25 1.54e-3 3.021 0.998 -4.658e-3 0.998 -4.658e-3 1.54e-3 3.021
2920.208 1.901e-3 35.941 0.998 -0.064 0.998 -0.064 1.901e-3 35.941
2945.167 2.639e-3 54.238 0.998 -0.123 0.998 -0.123 2.639e-3 54.238
2970.125 3.518e-3 63.896 0.998 -0.181 0.998 -0.181 3.518e-3 63.896
2995.083 4.448e-3 69.538 0.998 -0.239 0.998 -0.239 4.448e-3 69.538
3020.042 5.4e-3 73.159 0.998 -0.297 0.998 -0.297 5.4e-3 73.159
3045 6.36e-3 75.655 0.998 -0.354 0.998 -0.354 6.36e-3 75.655
3069.958 7.321e-3 77.466 0.998 -0.41 0.998 -0.41 7.321e-3 77.466
3094.917 8.281e-3 78.833 0.998 -0.466 0.998 -0.466 8.281e-3 78.833
3119.875 9.238e-3 79.897 0.998 -0.522 0.998 -0.522 9.238e-3 79.897
3144.833 0.01 80.744 0.998 -0.577 0.998 -0.577 0.01 80.744
3169.792 0.011 81.433 0.998 -0.632 0.998 -0.632 0.011 81.433
3194.75 0.012 82.001 0.998 -0.687 0.998 -0.687 0.012 82.001
3219.708 0.013 82.476 0.998 -0.741 0.998 -0.741 0.013 82.476
3244.667 0.014 82.877 0.998 -0.794 0.998 -0.794 0.014 82.877
3269.625 0.015 83.219 0.998 -0.848 0.998 -0.848 0.015 83.219
3294.583 0.016 83.513 0.998 -0.901 0.998 -0.901 0.016 83.513
3319.542 0.017 83.767 0.998 -0.953 0.998 -0.953 0.017 83.767
3344.5 0.018 83.988 0.998 -1.006 0.998 -1.006 0.018 83.988
3369.458 0.019 84.181 0.998 -1.058 0.998 -1.058 0.019 84.181
3394.417 0.019 84.35 0.998 -1.109 0.998 -1.109 0.019 84.35
3419.375 0.02 84.499 0.998 -1.161 0.998 -1.161 0.02 84.499
3444.333 0.021 84.63 0.998 -1.212 0.998 -1.212 0.021 84.63
3469.292 0.022 84.746 0.998 -1.262 0.998 -1.262 0.022 84.746
3494.25 0.023 84.848 0.998 -1.313 0.998 -1.313 0.023 84.848
3519.208 0.024 84.939 0.998 -1.363 0.998 -1.363 0.024 84.939
3544.167 0.025 85.019 0.998 -1.413 0.998 -1.413 0.025 85.019
3569.125 0.026 85.09 0.998 -1.462 0.998 -1.462 0.026 85.09
3594.083 0.026 85.153 0.998 -1.512 0.998 -1.512 0.026 85.153
3619.042 0.027 85.209 0.998 -1.56 0.998 -1.56 0.027 85.209
3644 0.028 85.258 0.998 -1.609 0.998 -1.609 0.028 85.258
3668.958 0.029 85.301 0.998 -1.658 0.998 -1.658 0.029 85.301
3693.917 0.03 85.338 0.998 -1.706 0.998 -1.706 0.03 85.338
3718.875 0.031 85.371 0.998 -1.754 0.998 -1.754 0.031 85.371
3743.833 0.031 85.4 0.998 -1.802 0.998 -1.802 0.031 85.4
3768.792 0.032 85.424 0.998 -1.849 0.998 -1.849 0.032 85.424
3793.75 0.033 85.444 0.998 -1.896 0.998 -1.896 0.033 85.444
3818.708 0.034 85.462 0.998 -1.943 0.998 -1.943 0.034 85.462
3843.667 0.035 85.476 0.998 -1.99 0.998 -1.99 0.035 85.476
3868.625 0.036 85.487 0.998 -2.037 0.998 -2.037 0.036 85.487
3893.583 0.036 85.496 0.998 -2.083 0.998 -2.083 0.036 85.496
3918.542 0.037 85.502 0.998 -2.129 0.998 -2.129 0.037 85.502
3943.5 0.038 85.506 0.998 -2.175 0.998 -2.175 0.038 85.506
3968.458 0.039 85.508 0.998 -2.221 0.998 -2.221 0.039 85.508
3993.417 0.04 85.508 0.998 -2.266 0.998 -2.266 0.04 85.508
4018.375 0.04 85.507 0.998 -2.312 0.998 -2.312 0.04 85.507
4043.333 0.041 85.503 0.998 -2.357 0.998 -2.357 0.041 85.503
4068.292 0.042 85.499 0.998 -2.402 0.998 -2.402 0.042 85.499
4093.25 0.043 85.492 0.998 -2.446 0.998 -2.446 0.043 85.492
4118.208 0.043 85.485 0.998 -2.491 0.998 -2.491 0.043 85.485
4143.167 0.044 85.476 0.997 -2.535 0.997 -2.535 0.044 85.476
4168.125 0.045 85.466 0.997 -2.58 0.997 -2.58 0.045 85.466
4193.083 0.046 85.454 0.997 -2.624 0.997 -2.624 0.046 85.454
4218.042 0.047 85.442 0.997 -2.667 0.997 -2.667 0.047 85.442
4243 0.047 85.429 0.997 -2.711 0.997 -2.711 0.047 85.429
4267.958 0.048 85.415 0.997 -2.755 0.997 -2.755 0.048 85.415
4292.917 0.049 85.4 0.997 -2.798 0.997 -2.798 0.049 85.4
4317.875 0.05 85.384 0.997 -2.841 0.997 -2.841 0.05 85.384
4342.833 0.05 85.367 0.997 -2.884 0.997 -2.884 0.05 85.367
4367.792 0.051 85.35 0.997 -2.927 0.997 -2.927 0.051 85.35
4392.75 0.052 85.332 0.997 -2.97 0.997 -2.97 0.052 85.332
4417.708 0.053 85.314 0.997 -3.012 0.997 -3.012 0.053 85.314
4442.667 0.053 85.295 0.997 -3.055 0.997 -3.055 0.053 85.295
4467.625 0.054 85.275 0.997 -3.097 0.997 -3.097 0.054 85.275
4492.583 0.055 85.255 0.997 -3.139 0.997 -3.139 0.055 85.255
4517.542 0.056 85.234 0.997 -3.181 0.997 -3.181 0.056 85.234
4542.5 0.056 85.213 0.997 -3.223 0.997 -3.223 0.056 85.213
4567.458 0.057 85.191 0.997 -3.265 0.997 -3.265 0.057 85.191
4592.417 0.058 85.169 0.997 -3.307 0.997 -3.307 0.058 85.169
4617.375 0.058 85.146 0.997 -3.348 0.997 -3.348 0.058 85.146
4642.333 0.059 85.123 0.997 -3.389 0.997 -3.389 0.059 85.123
4667.292 0.06 85.1 0.997 -3.431 0.997 -3.431 0.06 85.1
4692.25 0.061 85.076 0.997 -3.472 0.997 -3.472 0.061 85.076
4717.208 0.061 85.052 0.997 -3.513 0.997 -3.513 0.061 85.052
4742.167 0.062 85.028 0.997 -3.553 0.997 -3.553 0.062 85.028
4767.125 0.063 85.003 0.996 -3.594 0.996 -3.594 0.063 85.003
4792.083 0.063 84.978 0.996 -3.635 0.996 -3.635 0.063 84.978
4817.042 0.064 84.953 0.996 -3.675 0.996 -3.675 0.064 84.953
4842 0.065 84.928 0.996 -3.716 0.996 -3.716 0.065 84.928
4866.958 0.066 84.902 0.996 -3.756 0.996 -3.756 0.066 84.902
4891.917 0.066 84.876 0.996 -3.796 0.996 -3.796 0.066 84.876
4916.875 0.067 84.85 0.996 -3.836 0.996 -3.836 0.067 84.85
4941.833 0.068 84.824 0.996 -3.876 0.996 -3.876 0.068 84.824
4966.792 0.068 84.797 0.996 -3.916 0.996 -3.916 0.068 84.797
4991.75 0.069 84.77 0.996 -3.956 0.996 -3.956 0.069 84.77
5016.708 0.07 84.744 0.996 -3.995 0.996 -3.995 0.07 84.744
5041.667 0.07 84.716 0.996 -4.035 0.996 -4.035 0.07 84.716
5066.625 0.071 84.689 0.996 -4.074 0.996 -4.074 0.071 84.689
5091.583 0.072 84.662 0.996 -4.113 0.996 -4.113 0.072 84.662
5116.542 0.072 84.634 0.996 -4.153 0.996 -4.153 0.072 84.634
5141.5 0.073 84.606 0.996 -4.192 0.996 -4.192 0.073 84.606
5166.458 0.074 84.578 0.996 -4.231 0.996 -4.231 0.074 84.578
5191.417 0.074 84.55 0.996 -4.27 0.996 -4.27 0.074 84.55
5216.375 0.075 84.522 0.996 -4.308 0.996 -4.308 0.075 84.522
5241.333 0.076 84.494 0.996 -4.347 0.996 -4.347 0.076 84.494
5266.292 0.076 84.466 0.996 -4.386 0.996 -4.386 0.076 84.466
5291.25 0.077 84.437 0.995 -4.424 0.995 -4.424 0.077 84.437
5316.208 0.078 84.408 0.995 -4.463 0.995 -4.463 0.078 84.408
5341.167 0.078 84.38 0.995 -4.501 0.995 -4.501 0.078 84.38
5366.125 0.079 84.351 0.995 -4.54 0.995 -4.54 0.079 84.351
5391.083 0.08 84.322 0.995 -4.578 0.995 -4.578 0.08 84.322
5416.042 0.08 84.293 0.995 -4.616 0.995 -4.616 0.08 84.293
5441 0.081 84.264 0.995 -4.654 0.995 -4.654 0.081 84.264
5465.958 0.082 84.235 0.995 -4.692 0.995 -4.692 0.082 84.235
5490.917 0.082 84.205 0.995 -4.73 0.995 -4.73 0.082 84.205
5515.875 0.083 84.176 0.995 -4.768 0.995 -4.768 0.083 84.176
5540.833 0.084 84.147 0.995 -4.805 0.995 -4.805 0.084 84.147
5565.792 0.084 84.117 0.995 -4.843 0.995 -4.843 0.084 84.117
5590.75 0.085 84.088 0.995 -4.881 0.995 -4.881 0.085 84.088
5615.708 0.086 84.058 0.995 -4.918 0.995 -4.918 0.086 84.058
5640.667 0.086 84.028 0.995 -4.956 0.995 -4.956 0.086 84.028
5665.625 0.087 83.999 0.995 -4.993 0.995 -4.993 0.087 83.999
5690.583 0.088 83.969 0.995 -5.03 0.995 -5.03 0.088 83.969
5715.542 0.088 83.939 0.995 -5.067 0.995 -5.067 0.088 83.939
5740.5 0.089 83.909 0.995 -5.105 0.995 -5.105 0.089 83.909
5765.458 0.09 83.879 0.994 -5.142 0.994 -5.142 0.09 83.879
5790.417 0.09 83.849 0.994 -5.179 0.994 -5.179 0.09 83.849
5815.375 0.091 83.819 0.994 -5.216 0.994 -5.216 0.091 83.819
5840.333 0.092 83.789 0.994 -5.253 0.994 -5.253 0.092 83.789
5865.292 0.092 83.759 0.994 -5.289 0.994 -5.289 0.092 83.759
5890.25 0.093 83.729 0.994 -5.326 0.994 -5.326 0.093 83.729
5915.208 0.093 83.699 0.994 -5.363 0.994 -5.363 0.093 83.699
5940.167 0.094 83.669 0.994 -5.399 0.994 -5.399 0.094 83.669
5965.125 0.095 83.638 0.994 -5.436 0.994 -5.436 0.095 83.638
5990.083 0.095 83.608 0.994 -5.472 0.994 -5.472 0.095 83.608
6015.042 0.096 83.578 0.994 -5.509 0.994 -5.509 0.096 83.578
6040 0.097 83.547 0.994 -5.545 0.994 -5.545 0.097 83.547
6064.958 0.097 83.517 0.994 -5.582 0.994 -5.582 0.097 83.517
6089.917 0.098 83.487 0.994 -5.618 0.994 -5.618 0.098 83.487
6114.875 0.099 83.456 0.994 -5.654 0.994 -5.654 0.099 83.456
6139.833 0.099 83.426 0.994 -5.69 0.994 -5.69 0.099 83.426
6164.792 0.1 83.395 0.993 -5.726 0.993 -5.726 0.1 83.395
6189.75 0.1 83.365 0.993 -5.762 0.993 -5.762 0.1 83.365
6214.708 0.101 83.334 0.993 -5.798 0.993 -5.798 0.101 83.334
6239.667 0.102 83.304 0.993 -5.834 0.993 -5.834 0.102 83.304
6264.625 0.102 83.273 0.993 -5.87 0.993 -5.87 0.102 83.273
6289.583 0.103 83.243 0.993 -5.906 0.993 -5.906 0.103 83.243
6314.542 0.104 83.212 0.993 -5.941 0.993 -5.941 0.104 83.212
6339.5 0.104 83.181 0.993 -5.977 0.993 -5.977 0.104 83.181
6364.458 0.105 83.151 0.993 -6.013 0.993 -6.013 0.105 83.151
6389.417 0.105 83.12 0.993 -6.048 0.993 -6.048 0.105 83.12
6414.375 0.106 83.09 0.993 -6.084 0.993 -6.084 0.106 83.09
6439.333 0.107 83.059 0.993 -6.119 0.993 -6.119 0.107 83.059
6464.292 0.107 83.028 0.993 -6.155 0.993 -6.155 0.107 83.028
6489.25 0.108 82.998 0.993 -6.19 0.993 -6.19 0.108 82.998
6514.208 0.108 82.967 0.993 -6.225 0.993 -6.225 0.108 82.967
6539.167 0.109 82.936 0.993 -6.261 0.993 -6.261 0.109 82.936
6564.125 0.11 82.906 0.992 -6.296 0.992 -6.296 0.11 82.906
6589.083 0.11 82.875 0.992 -6.331 0.992 -6.331 0.11 82.875
6614.042 0.111 82.844 0.992 -6.366 0.992 -6.366 0.111 82.844
6639 0.112 82.813 0.992 -6.401 0.992 -6.401 0.112 82.813
6663.958 0.112 82.783 0.992 -6.436 0.992 -6.436 0.112 82.783
6688.917 0.113 82.752 0.992 -6.471 0.992 -6.471 0.113 82.752
6713.875 0.113 82.721 0.992 -6.506 0.992 -6.506 0.113 82.721
6738.833 0.114 82.691 0.992 -6.541 0.992 -6.541 0.114 82.691
6763.792 0.115 82.66 0.992 -6.576 0.992 -6.576 0.115 82.66
6788.75 0.115 82.629 0.992 -6.611 0.992 -6.611 0.115 82.629
6813.708 0.116 82.598 0.992 -6.645 0.992 -6.645 0.116 82.598
6838.667 0.116 82.568 0.992 -6.68 0.992 -6.68 0.116 82.568
6863.625 0.117 82.537 0.992 -6.715 0.992 -6.715 0.117 82.537
6888.583 0.118 82.506 0.992 -6.749 0.992 -6.749 0.118 82.506
6913.542 0.118 82.475 0.991 -6.784 0.991 -6.784 0.118 82.475
6938.5 0.119 82.445 0.991 -6.819 0.991 -6.819 0.119 82.445
6963.458 0.119 82.414 0.991 -6.853 0.991 -6.853 0.119 82.414
6988.417 0.12 82.383 0.991 -6.888 0.991 -6.888 0.12 82.383
7013.375 0.121 82.352 0.991 -6.922 0.991 -6.922 0.121 82.352
7038.333 0.121 82.322 0.991 -6.956 0.991 -6.956 0.121 82.322
7063.292 0.122 82.291 0.991 -6.991 0.991 -6.991 0.122 82.291
7088.25 0.122 82.26 0.991 -7.025 0.991 -7.025 0.122 82.26
7113.208 0.123 82.229 0.991 -7.059 0.991 -7.059 0.123 82.229
7138.167 0.123 82.198 0.991 -7.094 0.991 -7.094 0.123 82.198
7163.125 0.124 82.168 0.991 -7.128 0.991 -7.128 0.124 82.168
7188.083 0.125 82.137 0.991 -7.162 0.991 -7.162 0.125 82.137
7213.042 0.125 82.106 0.991 -7.196 0.991 -7.196 0.125 82.106
7238 0.126 82.075 0.991 -7.23 0.991 -7.23 0.126 82.075
7262.958 0.126 82.045 0.99 -7.264 0.99 -7.264 0.126 82.045
7287.917 0.127 82.014 0.99 -7.298 0.99 -7.298 0.127 82.014
7312.875 0.128 81.983 0.99 -7.332 0.99 -7.332 0.128 81.983
7337.833 0.128 81.953 0.99 -7.366 0.99 -7.366 0.128 81.953
7362.792 0.129 81.922 0.99 -7.4 0.99 -7.4 0.129 81.922
7387.75 0.129 81.891 0.99 -7.434 0.99 -7.434 0.129 81.891
7412.708 0.13 81.86 0.99 -7.467 0.99 -7.467 0.13 81.86
7437.667 0.131 81.83 0.99 -7.501 0.99 -7.501 0.131 81.83
7462.625 0.131 81.799 0.99 -7.535 0.99 -7.535 0.131 81.799
7487.583 0.132 81.768 0.99 -7.569 0.99 -7.569 0.132 81.768
7512.542 0.132 81.738 0.99 -7.602 0.99 -7.602 0.132 81.738
7537.5 0.133 81.707 0.99 -7.636 0.99 -7.636 0.133 81.707
7562.458 0.133 81.676 0.99 -7.67 0.99 -7.67 0.133 81.676
7587.417 0.134 81.645 0.989 -7.703 0.989 -7.703 0.134 81.645
7612.375 0.135 81.615 0.989 -7.737 0.989 -7.737 0.135 81.615
7637.333 0.135 81.584 0.989 -7.77 0.989 -7.77 0.135 81.584
7662.292 0.136 81.553 0.989 -7.804 0.989 -7.804 0.136 81.553
7687.25 0.136 81.523 0.989 -7.837 0.989 -7.837 0.136 81.523
7712.208 0.137 81.492 0.989 -7.871 0.989 -7.871 0.137 81.492
7737.167 0.138 81.461 0.989 -7.904 0.989 -7.904 0.138 81.461
7762.125 0.138 81.431 0.989 -7.937 0.989 -7.937 0.138 81.431
7787.083 0.139 81.4 0.989 -7.971 0.989 -7.971 0.139 81.4
7812.042 0.139 81.37 0.989 -8.004 0.989 -8.004 0.139 81.37
7837 0.14 81.339 0.989 -8.037 0.989 -8.037 0.14 81.339
7861.958 0.14 81.308 0.989 -8.07 0.989 -8.07 0.14 81.308
7886.917 0.141 81.278 0.988 -8.103 0.988 -8.103 0.141 81.278
7911.875 0.142 81.247 0.988 -8.137 0.988 -8.137 0.142 81.247
7936.833 0.142 81.217 0.988 -8.17 0.988 -8.17 0.142 81.217
7961.792 0.143 81.186 0.988 -8.203 0.988 -8.203 0.143 81.186
7986.75 0.143 81.155 0.988 -8.236 0.988 -8.236 0.143 81.155
8011.708 0.144 81.125 0.988 -8.269 0.988 -8.269 0.144 81.125
8036.667 0.144 81.094 0.988 -8.302 0.988 -8.302 0.144 81.094
8061.625 0.145 81.064 0.988 -8.335 0.988 -8.335 0.145 81.064
8086.583 0.146 81.033 0.988 -8.368 0.988 -8.368 0.146 81.033
8111.542 0.146 81.003 0.988 -8.401 0.988 -8.401 0.146 81.003
8136.5 0.147 80.972 0.988 -8.434 0.988 -8.434 0.147 80.972
8161.458 0.147 80.942 0.988 -8.467 0.988 -8.467 0.147 80.942
8186.417 0.148 80.911 0.987 -8.499 0.987 -8.499 0.148 80.911
8211.375 0.148 80.88 0.987 -8.532 0.987 -8.532 0.148 80.88
8236.333 0.149 80.85 0.987 -8.565 0.987 -8.565 0.149 80.85
8261.292 0.15 80.819 0.987 -8.598 0.987 -8.598 0.15 80.819
8286.25 0.15 80.789 0.987 -8.631 0.987 -8.631 0.15 80.789
