# MHZ S MA R 50

50 0.999 -2.698 0.047 87.292 0.047 87.292 0.999 -2.698
74.958 0.997 -4.041 0.07 85.944 0.07 85.944 0.997 -4.041
99.917 0.996 -5.381 0.094 84.6 0.094 84.6 0.996 -5.381
124.875 0.993 -6.714 0.117 83.262 0.117 83.262 0.993 -6.714
149.833 0.99 -8.041 0.14 81.93 0.14 81.93 0.99 -8.041
174.792 0.987 -9.36 0.163 80.607 0.163 80.607 0.987 -9.36
199.75 0.983 -10.669 0.185 79.293 0.185 79.293 0.983 -10.669
224.708 0.978 -11.968 0.207 77.99 0.207 77.99 0.978 -11.968
249.667 0.973 -13.255 0.229 76.698 0.229 76.698 0.973 -13.255
274.625 0.968 -14.529 0.251 75.418 0.251 75.418 0.968 -14.529
299.583 0.962 -15.79 0.272 74.153 0.272 74.153 0.962 -15.79
324.542 0.956 -17.036 0.293 72.902 0.293 72.902 0.956 -17.036
349.5 0.949 -18.267 0.313 71.666 0.313 71.666 0.949 -18.267
374.458 0.942 -19.482 0.334 70.447 0.334 70.447 0.942 -19.482
399.417 0.935 -20.68 0.353 69.244 0.353 69.244 0.935 -20.68
424.375 0.928 -21.86 0.372 68.059 0.372 68.059 0.928 -21.86
449.333 0.92 -23.023 0.391 66.891 0.391 66.891 0.92 -23.023
474.292 0.912 -24.167 0.409 65.742 0.409 65.742 0.912 -24.167
499.25 0.903 -25.292 0.427 64.612 0.427 64.612 0.903 -25.292
524.208 0.895 -26.398 0.445 63.501 0.445 63.501 0.895 -26.398
549.167 0.886 -27.485 0.462 62.409 0.462 62.409 0.886 -27.485
574.125 0.877 -28.553 0.478 61.337 0.478 61.337 0.877 -28.553
599.083 0.869 -29.6 0.494 60.285 0.494 60.285 0.869 -29.6
624.042 0.859 -30.628 0.509 59.252 0.509 59.252 0.859 -30.628
649 0.85 -31.636 0.525 58.239 0.525 58.239 0.85 -31.636
673.958 0.841 -32.624 0.539 57.246 0.539 57.246 0.841 -32.624
698.917 0.832 -33.593 0.553 56.272 0.553 56.272 0.832 -33.593
723.875 0.822 -34.542 0.567 55.319 0.567 55.319 0.822 -34.542
748.833 0.813 -35.471 0.58 54.384 0.58 54.384 0.813 -35.471
773.792 0.804 -36.381 0.593 53.469 0.593 53.469 0.804 -36.381
798.75 0.794 -37.273 0.606 52.573 0.606 52.573 0.794 -37.273
823.708 0.785 -38.145 0.618 51.696 0.618 51.696 0.785 -38.145
848.667 0.775 -38.998 0.629 50.837 0.629 50.837 0.775 -38.998
873.625 0.766 -39.834 0.641 49.997 0.641 49.997 0.766 -39.834
898.583 0.757 -40.651 0.651 49.175 0.651 49.175 0.757 -40.651
923.542 0.747 -41.45 0.662 48.37 0.662 48.37 0.747 -41.45
948.5 0.738 -42.233 0.672 47.583 0.672 47.583 0.738 -42.233
973.458 0.729 -42.997 0.682 46.813 0.682 46.813 0.729 -42.997
998.417 0.72 -43.746 0.691 46.06 0.691 46.06 0.72 -43.746
1023.375 0.711 -44.477 0.701 45.323 0.701 45.323 0.711 -44.477
1048.333 0.702 -45.193 0.709 44.602 0.709 44.602 0.702 -45.193
1073.292 0.693 -45.893 0.718 43.897 0.718 43.897 0.693 -45.893
1098.25 0.685 -46.578 0.726 43.208 0.726 43.208 0.685 -46.578
1123.208 0.676 -47.247 0.734 42.533 0.734 42.533 0.676 -47.247
1148.167 0.667 -47.902 0.742 41.873 0.742 41.873 0.667 -47.902
1173.125 0.659 -48.543 0.749 41.227 0.749 41.227 0.659 -48.543
1198.083 0.651 -49.169 0.757 40.595 0.757 40.595 0.651 -49.169
1223.042 0.642 -49.782 0.764 39.977 0.764 39.977 0.642 -49.782
1248 0.634 -50.382 0.77 39.373 0.77 39.373 0.634 -50.382
1272.958 0.626 -50.968 0.777 38.781 0.777 38.781 0.626 -50.968
1297.917 0.618 -51.542 0.783 38.201 0.783 38.201 0.618 -51.542
1322.875 0.611 -52.104 0.789 37.634 0.789 37.634 0.611 -52.104
1347.833 0.603 -52.654 0.795 37.079 0.795 37.079 0.603 -52.654
1372.792 0.595 -53.192 0.801 36.536 0.801 36.536 0.595 -53.192
1397.75 0.588 -53.719 0.806 36.004 0.806 36.004 0.588 -53.719
1422.708 0.58 -54.234 0.811 35.483 0.811 35.483 0.58 -54.234
1447.667 0.573 -54.739 0.817 34.973 0.817 34.973 0.573 -54.739
1472.625 0.566 -55.233 0.821 34.473 0.821 34.473 0.566 -55.233
1497.583 0.559 -55.717 0.826 33.984 0.826 33.984 0.559 -55.717
1522.542 0.552 -56.191 0.831 33.504 0.831 33.504 0.552 -56.191
1547.5 0.545 -56.656 0.835 33.034 0.835 33.034 0.545 -56.656
1572.458 0.538 -57.111 0.84 32.574 0.84 32.574 0.538 -57.111
1597.417 0.532 -57.556 0.844 32.123 0.844 32.123 0.532 -57.556
1622.375 0.525 -57.993 0.848 31.68 0.848 31.68 0.525 -57.993
1647.333 0.519 -58.421 0.852 31.246 0.852 31.246 0.519 -58.421
1672.292 0.512 -58.841 0.856 30.821 0.856 30.821 0.512 -58.841
1697.25 0.506 -59.253 0.859 30.404 0.859 30.404 0.506 -59.253
1722.208 0.5 -59.656 0.863 29.995 0.863 29.995 0.5 -59.656
1747.167 0.494 -60.052 0.866 29.593 0.866 29.593 0.494 -60.052
1772.125 0.488 -60.44 0.87 29.2 0.87 29.2 0.488 -60.44
1797.083 0.482 -60.82 0.873 28.813 0.873 28.813 0.482 -60.82
1822.042 0.476 -61.194 0.876 28.434 0.876 28.434 0.476 -61.194
1847 0.47 -61.56 0.879 28.062 0.879 28.062 0.47 -61.56
1871.958 0.465 -61.92 0.882 27.696 0.882 27.696 0.465 -61.92
1896.917 0.459 -62.273 0.885 27.337 0.885 27.337 0.459 -62.273
1921.875 0.454 -62.619 0.888 26.985 0.888 26.985 0.454 -62.619
1946.833 0.448 -62.959 0.891 26.639 0.891 26.639 0.448 -62.959
1971.792 0.443 -63.293 0.893 26.299 0.893 26.299 0.443 -63.293
1996.75 0.438 -63.621 0.896 25.965 0.896 25.965 0.438 -63.621
2021.708 0.433 -63.944 0.898 25.636 0.898 25.636 0.433 -63.944
2046.667 0.428 -64.26 0.901 25.314 0.901 25.314 0.428 -64.26
2071.625 0.423 -64.571 0.903 24.997 0.903 24.997 0.423 -64.571
2096.583 0.418 -64.877 0.905 24.685 0.905 24.685 0.418 -64.877
2121.542 0.413 -65.177 0.908 24.378 0.908 24.378 0.413 -65.177
2146.5 0.408 -65.472 0.91 24.077 0.91 24.077 0.408 -65.472
2171.458 0.403 -65.762 0.912 23.78 0.912 23.78 0.403 -65.762
2196.417 0.399 -66.047 0.914 23.489 0.914 23.489 0.399 -66.047
2221.375 0.394 -66.328 0.916 23.202 0.916 23.202 0.394 -66.328
2246.333 0.389 -66.604 0.918 22.92 0.918 22.92 0.389 -66.604
2271.292 0.385 -66.875 0.92 22.642 0.92 22.642 0.385 -66.875
2296.25 0.381 -67.142 0.922 22.368 0.922 22.368 0.381 -67.142
2321.208 0.376 -67.404 0.923 22.099 0.923 22.099 0.376 -67.404
2346.167 0.372 -67.663 0.925 21.834 0.925 21.834 0.372 -67.663
2371.125 0.368 -67.917 0.927 21.573 0.927 21.573 0.368 -67.917
2396.083 0.364 -68.167 0.928 21.316 0.928 21.316 0.364 -68.167
2421.042 0.359 -68.413 0.93 21.063 0.93 21.063 0.359 -68.413
2446 0.355 -68.656 0.931 20.814 0.931 20.814 0.355 -68.656
2470.958 0.351 -68.894 0.933 20.568 0.933 20.568 0.351 -68.894
2495.917 0.347 -69.129 0.934 20.326 0.934 20.326 0.347 -69.129
2520.875 0.343 -69.361 0.936 20.088 0.936 20.088 0.343 -69.361
2545.833 0.34 -69.589 0.937 19.853 0.937 19.853 0.34 -69.589
2570.792 0.336 -69.813 0.939 19.621 0.939 19.621 0.336 -69.813
2595.75 0.332 -70.035 0.94 19.393 0.94 19.393 0.332 -70.035
2620.708 0.328 -70.252 0.941 19.168 0.941 19.168 0.328 -70.252
2645.667 0.325 -70.467 0.942 18.946 0.942 18.946 0.325 -70.467
2670.625 0.321 -70.679 0.944 18.727 0.944 18.727 0.321 -70.679
2695.583 0.317 -70.887 0.945 18.511 0.945 18.511 0.317 -70.887
2720.542 0.314 -71.093 0.946 18.298 0.946 18.298 0.314 -71.093
2745.5 0.31 -71.295 0.947 18.087 0.947 18.087 0.31 -71.295
2770.458 0.307 -71.495 0.948 17.88 0.948 17.88 0.307 -71.495
2795.417 0.304 -71.692 0.949 17.675 0.949 17.675 0.304 -71.692
2820.375 0.3 -71.886 0.951 17.473 0.951 17.473 0.3 -71.886
2845.333 0.297 -72.078 0.952 17.274 0.952 17.274 0.297 -72.078
2870.292 0.294 -72.267 0.953 17.077 0.953 17.077 0.294 -72.267
2895.25 0.29 -72.453 0.954 16.883 0.954 16.883 0.29 -72.453
2920.208 0.287 -72.637 0.954 16.691 0.954 16.691 0.287 -72.637
2945.167 0.284 -72.818 0.955 16.502 0.955 16.502 0.284 -72.818
2970.125 0.281 -72.997 0.956 16.315 0.956 16.315 0.281 -72.997
2995.083 0.278 -73.173 0.957 16.13 0.957 16.13 0.278 -73.173
3020.042 0.275 -73.347 0.958 15.947 0.958 15.947 0.275 -73.347
3045 0.272 -73.519 0.959 15.767 0.959 15.767 0.272 -73.519
3069.958 0.269 -73.689 0.96 15.589 0.96 15.589 0.269 -73.689
3094.917 0.266 -73.856 0.961 15.413 0.961 15.413 0.266 -73.856
3119.875 0.263 -74.021 0.961 15.239 0.961 15.239 0.263 -74.021
3144.833 0.26 -74.184 0.962 15.067 0.962 15.067 0.26 -74.184
3169.792 0.257 -74.345 0.963 14.897 0.963 14.897 0.257 -74.345
3194.75 0.254 -74.504 0.964 14.729 0.964 14.729 0.254 -74.504
3219.708 0.251 -74.661 0.964 14.563 0.964 14.563 0.251 -74.661
3244.667 0.249 -74.816 0.965 14.399 0.965 14.399 0.249 -74.816
3269.625 0.246 -74.969 0.966 14.236 0.966 14.236 0.246 -74.969
3294.583 0.243 -75.121 0.967 14.076 0.967 14.076 0.243 -75.121
3319.542 0.241 -75.27 0.967 13.917 0.967 13.917 0.241 -75.27
3344.5 0.238 -75.417 0.968 13.76 0.968 13.76 0.238 -75.417
3369.458 0.235 -75.563 0.969 13.604 0.969 13.604 0.235 -75.563
3394.417 0.233 -75.707 0.969 13.45 0.969 13.45 0.233 -75.707
3419.375 0.23 -75.849 0.97 13.298 0.97 13.298 0.23 -75.849
3444.333 0.227 -75.989 0.97 13.148 0.97 13.148 0.227 -75.989
3469.292 0.225 -76.128 0.971 12.999 0.971 12.999 0.225 -76.128
3494.25 0.222 -76.265 0.972 12.851 0.972 12.851 0.222 -76.265
3519.208 0.22 -76.401 0.972 12.705 0.972 12.705 0.22 -76.401
3544.167 0.218 -76.534 0.973 12.561 0.973 12.561 0.218 -76.534
3569.125 0.215 -76.667 0.973 12.418 0.973 12.418 0.215 -76.667
3594.083 0.213 -76.797 0.974 12.276 0.974 12.276 0.213 -76.797
3619.042 0.21 -76.926 0.974 12.136 0.974 12.136 0.21 -76.926
3644 0.208 -77.054 0.975 11.998 0.975 11.998 0.208 -77.054
3668.958 0.206 -77.18 0.975 11.86 0.975 11.86 0.206 -77.18
3693.917 0.203 -77.305 0.976 11.724 0.976 11.724 0.203 -77.305
3718.875 0.201 -77.428 0.976 11.589 0.976 11.589 0.201 -77.428
3743.833 0.199 -77.55 0.977 11.456 0.977 11.456 0.199 -77.55
3768.792 0.196 -77.67 0.977 11.323 0.977 11.323 0.196 -77.67
3793.75 0.194 -77.789 0.978 11.192 0.978 11.192 0.194 -77.789
3818.708 0.192 -77.907 0.978 11.063 0.978 11.063 0.192 -77.907
3843.667 0.19 -78.023 0.978 10.934 0.978 10.934 0.19 -78.023
3868.625 0.188 -78.138 0.979 10.807 0.979 10.807 0.188 -78.138
3893.583 0.185 -78.251 0.979 10.68 0.979 10.68 0.185 -78.251
3918.542 0.183 -78.363 0.98 10.555 0.98 10.555 0.183 -78.363
3943.5 0.181 -78.474 0.98 10.431 0.98 10.431 0.181 -78.474
3968.458 0.179 -78.584 0.98 10.308 0.98 10.308 0.179 -78.584
3993.417 0.177 -78.692 0.981 10.186 0.981 10.186 0.177 -78.692
4018.375 0.175 -78.799 0.981 10.065 0.981 10.065 0.175 -78.799
4043.333 0.173 -78.905 0.982 9.946 0.982 9.946 0.173 -78.905
4068.292 0.171 -79.01 0.982 9.827 0.982 9.827 0.171 -79.01
4093.25 0.169 -79.113 0.982 9.709 0.982 9.709 0.169 -79.113
4118.208 0.167 -79.215 0.983 9.592 0.983 9.592 0.167 -79.215
4143.167 0.165 -79.316 0.983 9.476 0.983 9.476 0.165 -79.316
4168.125 0.163 -79.416 0.983 9.362 0.983 9.362 0.163 -79.416
4193.083 0.161 -79.515 0.984 9.248 0.984 9.248 0.161 -79.515
4218.042 0.159 -79.612 0.984 9.135 0.984 9.135 0.159 -79.612
4243 0.157 -79.708 0.984 9.023 0.984 9.023 0.157 -79.708
4267.958 0.155 -79.803 0.984 8.911 0.984 8.911 0.155 -79.803
4292.917 0.153 -79.897 0.985 8.801 0.985 8.801 0.153 -79.897
4317.875 0.151 -79.99 0.985 8.692 0.985 8.692 0.151 -79.99
4342.833 0.149 -80.082 0.985 8.583 0.985 8.583 0.149 -80.082
4367.792 0.147 -80.172 0.986 8.475 0.986 8.475 0.147 -80.172
4392.75 0.146 -80.262 0.986 8.368 0.986 8.368 0.146 -80.262
4417.708 0.144 -80.35 0.986 8.262 0.986 8.262 0.144 -80.35
4442.667 0.142 -80.437 0.986 8.157 0.986 8.157 0.142 -80.437
4467.625 0.14 -80.523 0.987 8.052 0.987 8.052 0.14 -80.523
4492.583 0.138 -80.608 0.987 7.949 0.987 7.949 0.138 -80.608
4517.542 0.137 -80.692 0.987 7.846 0.987 7.846 0.137 -80.692
4542.5 0.135 -80.775 0.987 7.743 0.987 7.743 0.135 -80.775
4567.458 0.133 -80.856 0.988 7.642 0.988 7.642 0.133 -80.856
4592.417 0.131 -80.937 0.988 7.541 0.988 7.541 0.131 -80.937
4617.375 0.13 -81.016 0.988 7.441 0.988 7.441 0.13 -81.016
4642.333 0.128 -81.094 0.988 7.342 0.988 7.342 0.128 -81.094
4667.292 0.126 -81.171 0.989 7.243 0.989 7.243 0.126 -81.171
4692.25 0.124 -81.247 0.989 7.145 0.989 7.145 0.124 -81.247
4717.208 0.123 -81.322 0.989 7.048 0.989 7.048 0.123 -81.322
4742.167 0.121 -81.396 0.989 6.951 0.989 6.951 0.121 -81.396
4767.125 0.119 -81.468 0.989 6.855 0.989 6.855 0.119 -81.468
4792.083 0.118 -81.54 0.99 6.76 0.99 6.76 0.118 -81.54
4817.042 0.116 -81.61 0.99 6.665 0.99 6.665 0.116 -81.61
4842 0.114 -81.679 0.99 6.571 0.99 6.571 0.114 -81.679
4866.958 0.113 -81.747 0.99 6.478 0.99 6.478 0.113 -81.747
4891.917 0.111 -81.814 0.99 6.385 0.99 6.385 0.111 -81.814
4916.875 0.11 -81.88 0.99 6.293 0.99 6.293 0.11 -81.88
4941.833 0.108 -81.944 0.991 6.201 0.991 6.201 0.108 -81.944
4966.792 0.107 -82.007 0.991 6.11 0.991 6.11 0.107 -82.007
4991.75 0.105 -82.069 0.991 6.02 0.991 6.02 0.105 -82.069
5016.708 0.103 -82.13 0.991 5.93 0.991 5.93 0.103 -82.13
5041.667 0.102 -82.19 0.991 5.841 0.991 5.841 0.102 -82.19
5066.625 0.1 -82.248 0.991 5.752 0.991 5.752 0.1 -82.248
5091.583 0.099 -82.305 0.992 5.664 0.992 5.664 0.099 -82.305
5116.542 0.097 -82.36 0.992 5.576 0.992 5.576 0.097 -82.36
5141.5 0.096 -82.414 0.992 5.489 0.992 5.489 0.096 -82.414
5166.458 0.094 -82.467 0.992 5.403 0.992 5.403 0.094 -82.467
5191.417 0.093 -82.519 0.992 5.317 0.992 5.317 0.093 -82.519
5216.375 0.091 -82.569 0.992 5.231 0.992 5.231 0.091 -82.569
5241.333 0.09 -82.617 0.992 5.146 0.992 5.146 0.09 -82.617
5266.292 0.088 -82.664 0.993 5.061 0.993 5.061 0.088 -82.664
5291.25 0.087 -82.71 0.993 4.977 0.993 4.977 0.087 -82.71
5316.208 0.085 -82.754 0.993 4.894 0.993 4.894 0.085 -82.754
5341.167 0.084 -82.796 0.993 4.811 0.993 4.811 0.084 -82.796
5366.125 0.082 -82.836 0.993 4.728 0.993 4.728 0.082 -82.836
5391.083 0.081 -82.875 0.993 4.646 0.993 4.646 0.081 -82.875
5416.042 0.08 -82.913 0.993 4.564 0.993 4.564 0.08 -82.913
5441 0.078 -82.948 0.993 4.483 0.993 4.483 0.078 -82.948
5465.958 0.077 -82.982 0.994 4.402 0.994 4.402 0.077 -82.982
5490.917 0.075 -83.013 0.994 4.322 0.994 4.322 0.075 -83.013
5515.875 0.074 -83.043 0.994 4.242 0.994 4.242 0.074 -83.043
5540.833 0.073 -83.07 0.994 4.162 0.994 4.162 0.073 -83.07
5565.792 0.071 -83.096 0.994 4.083 0.994 4.083 0.071 -83.096
5590.75 0.07 -83.119 0.994 4.004 0.994 4.004 0.07 -83.119
5615.708 0.069 -83.14 0.994 3.926 0.994 3.926 0.069 -83.14
5640.667 0.067 -83.158 0.994 3.848 0.994 3.848 0.067 -83.158
5665.625 0.066 -83.174 0.994 3.771 0.994 3.771 0.066 -83.174
5690.583 0.065 -83.187 0.994 3.694 0.994 3.694 0.065 -83.187
5715.542 0.063 -83.198 0.994 3.617 0.994 3.617 0.063 -83.198
5740.5 0.062 -83.205 0.995 3.541 0.995 3.541 0.062 -83.205
5765.458 0.061 -83.21 0.995 3.465 0.995 3.465 0.061 -83.21
5790.417 0.059 -83.211 0.995 3.39 0.995 3.39 0.059 -83.211
5815.375 0.058 -83.209 0.995 3.314 0.995 3.314 0.058 -83.209
5840.333 0.057 -83.204 0.995 3.24 0.995 3.24 0.057 -83.204
5865.292 0.055 -83.195 0.995 3.165 0.995 3.165 0.055 -83.195
5890.25 0.054 -83.182 0.995 3.091 0.995 3.091 0.054 -83.182
5915.208 0.053 -83.165 0.995 3.018 0.995 3.018 0.053 -83.165
5940.167 0.051 -83.143 0.995 2.944 0.995 2.944 0.051 -83.143
5965.125 0.05 -83.117 0.995 2.871 0.995 2.871 0.05 -83.117
5990.083 0.049 -83.085 0.995 2.799 0.995 2.799 0.049 -83.085
6015.042 0.048 -83.049 0.995 2.727 0.995 2.727 0.048 -83.049
6040 0.046 -83.006 0.995 2.655 0.995 2.655 0.046 -83.006
6064.958 0.045 -82.958 0.995 2.583 0.995 2.583 0.045 -82.958
6089.917 0.044 -82.903 0.996 2.512 0.996 2.512 0.044 -82.903
6114.875 0.043 -82.841 0.996 2.441 0.996 2.441 0.043 -82.841
6139.833 0.042 -82.772 0.996 2.37 0.996 2.37 0.042 -82.772
6164.792 0.04 -82.694 0.996 2.3 0.996 2.3 0.04 -82.694
6189.75 0.039 -82.608 0.996 2.23 0.996 2.23 0.039 -82.608
6214.708 0.038 -82.512 0.996 2.16 0.996 2.16 0.038 -82.512
6239.667 0.037 -82.405 0.996 2.091 0.996 2.091 0.037 -82.405
6264.625 0.035 -82.287 0.996 2.022 0.996 2.022 0.035 -82.287
6289.583 0.034 -82.157 0.996 1.953 0.996 1.953 0.034 -82.157
6314.542 0.033 -82.013 0.996 1.885 0.996 1.885 0.033 -82.013
6339.5 0.032 -81.854 0.996 1.816 0.996 1.816 0.032 -81.854
6364.458 0.031 -81.678 0.996 1.749 0.996 1.749 0.031 -81.678
6389.417 0.03 -81.484 0.996 1.681 0.996 1.681 0.03 -81.484
6414.375 0.028 -81.268 0.996 1.614 0.996 1.614 0.028 -81.268
6439.333 0.027 -81.03 0.996 1.547 0.996 1.547 0.027 -81.03
6464.292 0.026 -80.766 0.996 1.48 0.996 1.48 0.026 -80.766
6489.25 0.025 -80.473 0.996 1.413 0.996 1.413 0.025 -80.473
6514.208 0.024 -80.146 0.996 1.347 0.996 1.347 0.024 -80.146
6539.167 0.023 -79.781 0.996 1.281 0.996 1.281 0.023 -79.781
6564.125 0.022 -79.372 0.996 1.216 0.996 1.216 0.022 -79.372
6589.083 0.02 -78.912 0.996 1.15 0.996 1.15 0.02 -78.912
6614.042 0.019 -78.394 0.996 1.085 0.996 1.085 0.019 -78.394
6639 0.018 -77.806 0.996 1.02 0.996 1.02 0.018 -77.806
6663.958 0.017 -77.136 0.996 0.956 0.996 0.956 0.017 -77.136
6688.917 0.016 -76.367 0.996 0.891 0.996 0.891 0.016 -76.367
6713.875 0.015 -75.479 0.996 0.827 0.996 0.827 0.015 -75.479
6738.833 0.014 -74.445 0.996 0.763 0.996 0.763 0.014 -74.445
6763.792 0.013 -73.23 0.996 0.7 0.996 0.7 0.013 -73.23
6788.75 0.012 -71.787 0.996 0.636 0.996 0.636 0.012 -71.787
6813.708 0.011 -70.052 0.996 0.573 0.996 0.573 0.011 -70.052
6838.667 9.575e-3 -67.934 0.996 0.51 0.996 0.51 9.575e-3 -67.934
6863.625 8.567e-3 -65.308 0.996 0.448 0.996 0.448 8.567e-3 -65.308
6888.583 7.586e-3 -61.988 0.996 0.385 0.996 0.385 7.586e-3 -61.988
6913.542 6.643e-3 -57.704 0.996 0.323 0.996 0.323 6.643e-3 -57.704
6938.5 5.754e-3 -52.052 0.996 0.261 0.996 0.261 5.754e-3 -52.052
6963.458 4.945e-3 -44.457 0.996 0.199 0.996 0.199 4.945e-3 -44.457
6988.417 4.26e-3 -34.186 0.996 0.138 0.996 0.138 4.26e-3 -34.186
7013.375 3.762e-3 -20.658 0.996 0.076 0.996 0.076 3.762e-3 -20.658
7038.333 3.528e-3 -4.299 0.996 0.015 0.996 0.015 3.528e-3 -4.299
7063.292 3.607e-3 12.722 0.996 -0.046 0.996 -0.046 3.607e-3 12.722
7088.25 3.977e-3 27.709 0.996 -0.106 0.996 -0.106 3.977e-3 27.709
7113.208 4.566e-3 39.441 0.996 -0.167 0.996 -0.167 4.566e-3 39.441
7138.167 5.299e-3 48.175 0.996 -0.227 0.996 -0.227 5.299e-3 48.175
7163.125 6.122e-3 54.64 0.996 -0.287 0.996 -0.287 6.122e-3 54.64
7188.083 7.002e-3 59.496 0.996 -0.347 0.996 -0.347 7.002e-3 59.496
7213.042 7.919e-3 63.221 0.996 -0.407 0.996 -0.407 7.919e-3 63.221
7238 8.861e-3 66.142 0.996 -0.466 0.996 -0.466 8.861e-3 66.142
7262.958 9.818e-3 68.479 0.996 -0.525 0.996 -0.525 9.818e-3 68.479
7287.917 0.011 70.381 0.996 -0.584 0.996 -0.584 0.011 70.381
7312.875 0.012 71.954 0.996 -0.643 0.996 -0.643 0.012 71.954
7337.833 0.013 73.272 0.996 -0.702 0.996 -0.702 0.013 73.272
7362.792 0.014 74.389 0.996 -0.76 0.996 -0.76 0.014 74.389
7387.75 0.015 75.346 0.996 -0.818 0.996 -0.818 0.015 75.346
7412.708 0.016 76.173 0.996 -0.876 0.996 -0.876 0.016 76.173
7437.667 0.017 76.893 0.996 -0.934 0.996 -0.934 0.017 76.893
7462.625 0.018 77.524 0.996 -0.992 0.996 -0.992 0.018 77.524
7487.583 0.019 78.08 0.996 -1.049 0.996 -1.049 0.019 78.08
7512.542 0.02 78.574 0.996 -1.107 0.996 -1.107 0.02 78.574
7537.5 0.021 79.013 0.996 -1.164 0.996 -1.164 0.021 79.013
7562.458 0.022 79.406 0.996 -1.221 0.996 -1.221 0.022 79.406
7587.417 0.023 79.759 0.996 -1.278 0.996 -1.278 0.023 79.759
7612.375 0.024 80.077 0.996 -1.334 0.996 -1.334 0.024 80.077
7637.333 0.025 80.365 0.996 -1.391 0.996 -1.391 0.025 80.365
7662.292 0.025 80.625 0.996 -1.447 0.996 -1.447 0.025 80.625
7687.25 0.026 80.861 0.996 -1.503 0.996 -1.503 0.026 80.861
7712.208 0.027 81.076 0.996 -1.559 0.996 -1.559 0.027 81.076
7737.167 0.028 81.272 0.996 -1.615 0.996 -1.615 0.028 81.272
7762.125 0.029 81.451 0.996 -1.67 0.996 -1.67 0.029 81.451
7787.083 0.03 81.615 0.996 -1.726 0.996 -1.726 0.03 81.615
7812.042 0.031 81.765 0.996 -1.781 0.996 -1.781 0.031 81.765
7837 0.032 81.902 0.996 -1.836 0.996 -1.836 0.032 81.902
7861.958 0.033 82.027 0.996 -1.891 0.996 -1.891 0.033 82.027
7886.917 0.034 82.143 0.996 -1.946 0.996 -1.946 0.034 82.143
7911.875 0.035 82.249 0.996 -2.001 0.996 -2.001 0.035 82.249
7936.833 0.036 82.346 0.996 -2.055 0.996 -2.055 0.036 82.346
7961.792 0.037 82.435 0.996 -2.109 0.996 -2.109 0.037 82.435
7986.75 0.038 82.517 0.996 -2.164 0.996 -2.164 0.038 82.517
8011.708 0.039 82.592 0.996 -2.218 0.996 -2.218 0.039 82.592
8036.667 0.04 82.66 0.996 -2.271 0.996 -2.271 0.04 82.66
8061.625 0.041 82.723 0.996 -2.325 0.996 -2.325 0.041 82.723
8086.583 0.042 82.781 0.996 -2.379 0.996 -2.379 0.042 82.781
8111.542 0.043 82.833 0.996 -2.432 0.996 -2.432 0.043 82.833
8136.5 0.044 82.881 0.996 -2.485 0.996 -2.485 0.044 82.881
8161.458 0.044 82.925 0.996 -2.539 0.996 -2.539 0.044 82.925
8186.417 0.045 82.964 0.995 -2.592 0.995 -2.592 0.045 82.964
