# MHZ S MA R 50

50 0.945 -19.067 0.327 70.905 0.327 70.905 0.945 -19.067
74.958 0.888 -27.397 0.46 62.561 0.46 62.561 0.888 -27.397
99.917 0.822 -34.647 0.569 55.297 0.569 55.297 0.822 -34.647
124.875 0.756 -40.828 0.654 49.102 0.654 49.102 0.756 -40.828
149.833 0.693 -46.046 0.72 43.869 0.72 43.869 0.693 -46.046
174.792 0.636 -50.444 0.771 39.458 0.771 39.458 0.636 -50.444
199.75 0.584 -54.159 0.811 35.728 0.811 35.728 0.584 -54.159
224.708 0.538 -57.315 0.842 32.557 0.842 32.557 0.538 -57.315
249.667 0.498 -60.015 0.866 29.843 0.866 29.843 0.498 -60.015
274.625 0.462 -62.342 0.886 27.502 0.886 27.502 0.462 -62.342
299.583 0.43 -64.362 0.902 25.468 0.902 25.468 0.43 -64.362
324.542 0.402 -66.128 0.914 23.687 0.914 23.687 0.402 -66.128
349.5 0.376 -67.683 0.925 22.117 0.925 22.117 0.376 -67.683
374.458 0.354 -69.061 0.934 20.724 0.934 20.724 0.354 -69.061
399.417 0.333 -70.29 0.941 19.481 0.941 19.481 0.333 -70.29
424.375 0.315 -71.391 0.948 18.364 0.948 18.364 0.315 -71.391
449.333 0.298 -72.383 0.953 17.357 0.953 17.357 0.298 -72.383
474.292 0.283 -73.281 0.958 16.443 0.958 16.443 0.283 -73.281
499.25 0.269 -74.098 0.962 15.611 0.962 15.611 0.269 -74.098
524.208 0.256 -74.844 0.965 14.849 0.965 14.849 0.256 -74.844
549.167 0.244 -75.528 0.968 14.15 0.968 14.15 0.244 -75.528
574.125 0.234 -76.157 0.971 13.505 0.971 13.505 0.234 -76.157
599.083 0.223 -76.737 0.973 12.908 0.973 12.908 0.223 -76.737
624.042 0.214 -77.274 0.975 12.355 0.975 12.355 0.214 -77.274
649 0.205 -77.773 0.977 11.84 0.977 11.84 0.205 -77.773
673.958 0.197 -78.236 0.979 11.359 0.979 11.359 0.197 -78.236
698.917 0.189 -78.669 0.981 10.909 0.981 10.909 0.189 -78.669
723.875 0.182 -79.074 0.982 10.487 0.982 10.487 0.182 -79.074
748.833 0.175 -79.453 0.983 10.091 0.983 10.091 0.175 -79.453
773.792 0.169 -79.809 0.984 9.717 0.984 9.717 0.169 -79.809
798.75 0.163 -80.143 0.985 9.364 0.985 9.364 0.163 -80.143
823.708 0.157 -80.459 0.986 9.03 0.986 9.03 0.157 -80.459
848.667 0.152 -80.756 0.987 8.714 0.987 8.714 0.152 -80.756
873.625 0.146 -81.037 0.988 8.413 0.988 8.413 0.146 -81.037
898.583 0.141 -81.304 0.989 8.127 0.989 8.127 0.141 -81.304
923.542 0.137 -81.556 0.989 7.855 0.989 7.855 0.137 -81.556
948.5 0.132 -81.795 0.99 7.596 0.99 7.596 0.132 -81.795
973.458 0.128 -82.022 0.99 7.347 0.99 7.347 0.128 -82.022
998.417 0.124 -82.239 0.991 7.11 0.991 7.11 0.124 -82.239
1023.375 0.12 -82.444 0.991 6.883 0.991 6.883 0.12 -82.444
1048.333 0.116 -82.64 0.992 6.665 0.992 6.665 0.116 -82.64
1073.292 0.112 -82.827 0.992 6.455 0.992 6.455 0.112 -82.827
1098.25 0.109 -83.005 0.993 6.254 0.993 6.254 0.109 -83.005
1123.208 0.106 -83.175 0.993 6.06 0.993 6.06 0.106 -83.175
1148.167 0.102 -83.337 0.993 5.873 0.993 5.873 0.102 -83.337
1173.125 0.099 -83.492 0.994 5.693 0.994 5.693 0.099 -83.492
1198.083 0.096 -83.64 0.994 5.519 0.994 5.519 0.096 -83.64
1223.042 0.093 -83.782 0.994 5.351 0.994 5.351 0.093 -83.782
1248 0.09 -83.917 0.994 5.188 0.994 5.188 0.09 -83.917
1272.958 0.088 -84.046 0.995 5.031 0.995 5.031 0.088 -84.046
1297.917 0.085 -84.17 0.995 4.878 0.995 4.878 0.085 -84.17
1322.875 0.082 -84.288 0.995 4.73 0.995 4.73 0.082 -84.288
1347.833 0.08 -84.4 0.995 4.587 0.995 4.587 0.08 -84.4
1372.792 0.078 -84.508 0.996 4.448 0.996 4.448 0.078 -84.508
1397.75 0.075 -84.61 0.996 4.312 0.996 4.312 0.075 -84.61
1422.708 0.073 -84.708 0.996 4.18 0.996 4.18 0.073 -84.708
1447.667 0.071 -84.801 0.996 4.052 0.996 4.052 0.071 -84.801
1472.625 0.069 -84.889 0.996 3.927 0.996 3.927 0.069 -84.889
1497.583 0.066 -84.973 0.996 3.805 0.996 3.805 0.066 -84.973
1522.542 0.064 -85.053 0.997 3.687 0.997 3.687 0.064 -85.053
1547.5 0.062 -85.127 0.997 3.571 0.997 3.571 0.062 -85.127
1572.458 0.06 -85.198 0.997 3.458 0.997 3.458 0.06 -85.198
1597.417 0.058 -85.264 0.997 3.347 0.997 3.347 0.058 -85.264
1622.375 0.057 -85.325 0.997 3.239 0.997 3.239 0.057 -85.325
1647.333 0.055 -85.383 0.997 3.134 0.997 3.134 0.055 -85.383
1672.292 0.053 -85.435 0.997 3.03 0.997 3.03 0.053 -85.435
1697.25 0.051 -85.483 0.997 2.929 0.997 2.929 0.051 -85.483
1722.208 0.049 -85.527 0.997 2.83 0.997 2.83 0.049 -85.527
1747.167 0.048 -85.565 0.997 2.733 0.997 2.733 0.048 -85.565
1772.125 0.046 -85.599 0.998 2.638 0.998 2.638 0.046 -85.599
1797.083 0.044 -85.628 0.998 2.545 0.998 2.545 0.044 -85.628
1822.042 0.043 -85.651 0.998 2.453 0.998 2.453 0.043 -85.651
1847 0.041 -85.669 0.998 2.363 0.998 2.363 0.041 -85.669
1871.958 0.04 -85.681 0.998 2.275 0.998 2.275 0.04 -85.681
1896.917 0.038 -85.686 0.998 2.188 0.998 2.188 0.038 -85.686
1921.875 0.037 -85.685 0.998 2.103 0.998 2.103 0.037 -85.685
1946.833 0.035 -85.678 0.998 2.02 0.998 2.02 0.035 -85.678
1971.792 0.034 -85.662 0.998 1.937 0.998 1.937 0.034 -85.662
1996.75 0.032 -85.638 0.998 1.856 0.998 1.856 0.032 -85.638
2021.708 0.031 -85.606 0.998 1.777 0.998 1.777 0.031 -85.606
2046.667 0.03 -85.563 0.998 1.698 0.998 1.698 0.03 -85.563
2071.625 0.028 -85.51 0.998 1.621 0.998 1.621 0.028 -85.51
2096.583 0.027 -85.445 0.998 1.545 0.998 1.545 0.027 -85.445
2121.542 0.026 -85.367 0.998 1.47 0.998 1.47 0.026 -85.367
2146.5 0.024 -85.273 0.998 1.396 0.998 1.396 0.024 -85.273
2171.458 0.023 -85.163 0.998 1.323 0.998 1.323 0.023 -85.163
2196.417 0.022 -85.033 0.998 1.251 0.998 1.251 0.022 -85.033
2221.375 0.021 -84.882 0.998 1.18 0.998 1.18 0.021 -84.882
2246.333 0.019 -84.704 0.998 1.11 0.998 1.11 0.019 -84.704
2271.292 0.018 -84.496 0.998 1.041 0.998 1.041 0.018 -84.496
2296.25 0.017 -84.253 0.998 0.973 0.998 0.973 0.017 -84.253
2321.208 0.016 -83.967 0.998 0.905 0.998 0.905 0.016 -83.967
2346.167 0.015 -83.629 0.998 0.839 0.998 0.839 0.015 -83.629
2371.125 0.014 -83.228 0.998 0.773 0.998 0.773 0.014 -83.228
2396.083 0.012 -82.747 0.999 0.708 0.999 0.708 0.012 -82.747
2421.042 0.011 -82.165 0.999 0.644 0.999 0.644 0.011 -82.165
2446 0.01 -81.451 0.999 0.58 0.999 0.58 0.01 -81.451
2470.958 9.145e-3 -80.562 0.999 0.518 0.999 0.518 9.145e-3 -80.562
2495.917 8.076e-3 -79.431 0.999 0.456 0.999 0.456 8.076e-3 -79.431
2520.875 7.022e-3 -77.956 0.999 0.394 0.999 0.394 7.022e-3 -77.956
2545.833 5.987e-3 -75.965 0.999 0.333 0.999 0.333 5.987e-3 -75.965
2570.792 4.973e-3 -73.158 0.999 0.273 0.999 0.273 4.973e-3 -73.158
2595.75 3.987e-3 -68.953 0.999 0.214 0.999 0.214 3.987e-3 -68.953
2620.708 3.047e-3 -62.111 0.999 0.155 0.999 0.155 3.047e-3 -62.111
2645.667 2.197e-3 -49.698 0.999 0.096 0.999 0.096 2.197e-3 -49.698
2670.625 1.568e-3 -25.185 0.999 0.038 0.999 0.038 1.568e-3 -25.185
2695.583 1.456e-3 13.167 0.999 -0.019 0.999 -0.019 1.456e-3 13.167
2720.542 1.94e-3 42.944 0.999 -0.076 0.999 -0.076 1.94e-3 42.944
2745.5 2.707e-3 58.272 0.999 -0.132 0.999 -0.132 2.707e-3 58.272
2770.458 3.572e-3 66.424 0.999 -0.188 0.999 -0.188 3.572e-3 66.424
2795.417 4.474e-3 71.28 0.999 -0.243 0.999 -0.243 4.474e-3 71.28
2820.375 5.39e-3 74.449 0.999 -0.298 0.999 -0.298 5.39e-3 74.449
2845.333 6.311e-3 76.662 0.999 -0.352 0.999 -0.352 6.311e-3 76.662
2870.292 7.23e-3 78.283 0.999 -0.406 0.999 -0.406 7.23e-3 78.283
2895.25 8.148e-3 79.517 0.999 -0.46 0.999 -0.46 8.148e-3 79.517
2920.208 9.061e-3 80.483 0.999 -0.513 0.999 -0.513 9.061e-3 80.483
2945.167 9.969e-3 81.257 0.999 -0.565 0.999 -0.565 9.969e-3 81.257
2970.125 0.011 81.888 0.999 -0.618 0.999 -0.618 0.011 81.888
2995.083 0.012 82.411 0.999 -0.669 0.999 -0.669 0.012 82.411
3020.042 0.013 82.849 0.999 -0.721 0.999 -0.721 0.013 82.849
3045 0.014 83.22 0.998 -0.772 0.998 -0.772 0.014 83.22
3069.958 0.014 83.537 0.998 -0.823 0.998 -0.823 0.014 83.537
3094.917 0.015 83.81 0.998 -0.873 0.998 -0.873 0.015 83.81
3119.875 0.016 84.047 0.998 -0.923 0.998 -0.923 0.016 84.047
3144.833 0.017 84.253 0.998 -0.973 0.998 -0.973 0.017 84.253
3169.792 0.018 84.433 0.998 -1.022 0.998 -1.022 0.018 84.433
3194.75 0.019 84.591 0.998 -1.071 0.998 -1.071 0.019 84.591
3219.708 0.02 84.73 0.998 -1.12 0.998 -1.12 0.02 84.73
3244.667 0.02 84.853 0.998 -1.168 0.998 -1.168 0.02 84.853
3269.625 0.021 84.962 0.998 -1.216 0.998 -1.216 0.021 84.962
3294.583 0.022 85.058 0.998 -1.264 0.998 -1.264 0.022 85.058
3319.542 0.023 85.144 0.998 -1.311 0.998 -1.311 0.023 85.144
3344.5 0.024 85.219 0.998 -1.359 0.998 -1.359 0.024 85.219
3369.458 0.025 85.287 0.998 -1.405 0.998 -1.405 0.025 85.287
3394.417 0.025 85.346 0.998 -1.452 0.998 -1.452 0.025 85.346
3419.375 0.026 85.399 0.998 -1.498 0.998 -1.498 0.026 85.399
3444.333 0.027 85.445 0.998 -1.545 0.998 -1.545 0.027 85.445
3469.292 0.028 85.486 0.998 -1.59 0.998 -1.59 0.028 85.486
3494.25 0.029 85.522 0.998 -1.636 0.998 -1.636 0.029 85.522
3519.208 0.029 85.553 0.998 -1.681 0.998 -1.681 0.029 85.553
3544.167 0.03 85.58 0.998 -1.727 0.998 -1.727 0.03 85.58
3569.125 0.031 85.603 0.998 -1.771 0.998 -1.771 0.031 85.603
3594.083 0.032 85.623 0.998 -1.816 0.998 -1.816 0.032 85.623
3619.042 0.032 85.64 0.998 -1.861 0.998 -1.861 0.032 85.64
3644 0.033 85.654 0.998 -1.905 0.998 -1.905 0.033 85.654
3668.958 0.034 85.665 0.998 -1.949 0.998 -1.949 0.034 85.665
3693.917 0.035 85.673 0.998 -1.993 0.998 -1.993 0.035 85.673
3718.875 0.036 85.68 0.998 -2.036 0.998 -2.036 0.036 85.68
3743.833 0.036 85.684 0.998 -2.08 0.998 -2.08 0.036 85.684
3768.792 0.037 85.686 0.998 -2.123 0.998 -2.123 0.037 85.686
3793.75 0.038 85.687 0.998 -2.166 0.998 -2.166 0.038 85.687
3818.708 0.039 85.686 0.998 -2.209 0.998 -2.209 0.039 85.686
3843.667 0.039 85.683 0.998 -2.251 0.998 -2.251 0.039 85.683
3868.625 0.04 85.679 0.998 -2.294 0.998 -2.294 0.04 85.679
3893.583 0.041 85.673 0.998 -2.336 0.998 -2.336 0.041 85.673
3918.542 0.042 85.666 0.998 -2.378 0.998 -2.378 0.042 85.666
3943.5 0.042 85.658 0.998 -2.42 0.998 -2.42 0.042 85.658
3968.458 0.043 85.649 0.998 -2.462 0.998 -2.462 0.043 85.649
3993.417 0.044 85.639 0.998 -2.503 0.998 -2.503 0.044 85.639
4018.375 0.044 85.628 0.998 -2.545 0.998 -2.545 0.044 85.628
4043.333 0.045 85.616 0.998 -2.586 0.998 -2.586 0.045 85.616
4068.292 0.046 85.603 0.998 -2.627 0.998 -2.627 0.046 85.603
4093.25 0.047 85.589 0.997 -2.668 0.997 -2.668 0.047 85.589
4118.208 0.047 85.574 0.997 -2.709 0.997 -2.709 0.047 85.574
4143.167 0.048 85.559 0.997 -2.749 0.997 -2.749 0.048 85.559
4168.125 0.049 85.543 0.997 -2.79 0.997 -2.79 0.049 85.543
4193.083 0.049 85.527 0.997 -2.83 0.997 -2.83 0.049 85.527
4218.042 0.05 85.51 0.997 -2.87 0.997 -2.87 0.05 85.51
4243 0.051 85.492 0.997 -2.91 0.997 -2.91 0.051 85.492
4267.958 0.051 85.474 0.997 -2.95 0.997 -2.95 0.051 85.474
4292.917 0.052 85.455 0.997 -2.99 0.997 -2.99 0.052 85.455
4317.875 0.053 85.436 0.997 -3.03 0.997 -3.03 0.053 85.436
4342.833 0.054 85.416 0.997 -3.069 0.997 -3.069 0.054 85.416
4367.792 0.054 85.396 0.997 -3.109 0.997 -3.109 0.054 85.396
4392.75 0.055 85.375 0.997 -3.148 0.997 -3.148 0.055 85.375
4417.708 0.056 85.354 0.997 -3.187 0.997 -3.187 0.056 85.354
4442.667 0.056 85.333 0.997 -3.226 0.997 -3.226 0.056 85.333
4467.625 0.057 85.311 0.997 -3.265 0.997 -3.265 0.057 85.311
4492.583 0.058 85.289 0.997 -3.304 0.997 -3.304 0.058 85.289
4517.542 0.058 85.267 0.997 -3.342 0.997 -3.342 0.058 85.267
4542.5 0.059 85.244 0.997 -3.381 0.997 -3.381 0.059 85.244
4567.458 0.06 85.221 0.997 -3.419 0.997 -3.419 0.06 85.221
4592.417 0.06 85.198 0.997 -3.458 0.997 -3.458 0.06 85.198
4617.375 0.061 85.174 0.997 -3.496 0.997 -3.496 0.061 85.174
4642.333 0.062 85.151 0.997 -3.534 0.997 -3.534 0.062 85.151
4667.292 0.062 85.127 0.997 -3.572 0.997 -3.572 0.062 85.127
4692.25 0.063 85.102 0.997 -3.61 0.997 -3.61 0.063 85.102
4717.208 0.064 85.078 0.997 -3.648 0.997 -3.648 0.064 85.078
4742.167 0.064 85.053 0.997 -3.685 0.997 -3.685 0.064 85.053
4767.125 0.065 85.029 0.996 -3.723 0.996 -3.723 0.065 85.029
4792.083 0.066 85.004 0.996 -3.76 0.996 -3.76 0.066 85.004
4817.042 0.066 84.978 0.996 -3.798 0.996 -3.798 0.066 84.978
4842 0.067 84.953 0.996 -3.835 0.996 -3.835 0.067 84.953
4866.958 0.068 84.927 0.996 -3.872 0.996 -3.872 0.068 84.927
4891.917 0.068 84.902 0.996 -3.909 0.996 -3.909 0.068 84.902
4916.875 0.069 84.876 0.996 -3.947 0.996 -3.947 0.069 84.876
4941.833 0.069 84.85 0.996 -3.983 0.996 -3.983 0.069 84.85
4966.792 0.07 84.824 0.996 -4.02 0.996 -4.02 0.07 84.824
4991.75 0.071 84.798 0.996 -4.057 0.996 -4.057 0.071 84.798
5016.708 0.071 84.771 0.996 -4.094 0.996 -4.094 0.071 84.771
5041.667 0.072 84.745 0.996 -4.13 0.996 -4.13 0.072 84.745
5066.625 0.073 84.718 0.996 -4.167 0.996 -4.167 0.073 84.718
5091.583 0.073 84.691 0.996 -4.203 0.996 -4.203 0.073 84.691
5116.542 0.074 84.664 0.996 -4.24 0.996 -4.24 0.074 84.664
5141.5 0.075 84.638 0.996 -4.276 0.996 -4.276 0.075 84.638
5166.458 0.075 84.61 0.996 -4.312 0.996 -4.312 0.075 84.61
5191.417 0.076 84.583 0.996 -4.348 0.996 -4.348 0.076 84.583
5216.375 0.076 84.556 0.996 -4.384 0.996 -4.384 0.076 84.556
5241.333 0.077 84.529 0.996 -4.42 0.996 -4.42 0.077 84.529
5266.292 0.078 84.501 0.996 -4.456 0.996 -4.456 0.078 84.501
5291.25 0.078 84.474 0.996 -4.492 0.996 -4.492 0.078 84.474
5316.208 0.079 84.446 0.995 -4.528 0.995 -4.528 0.079 84.446
5341.167 0.08 84.419 0.995 -4.563 0.995 -4.563 0.08 84.419
5366.125 0.08 84.391 0.995 -4.599 0.995 -4.599 0.08 84.391
5391.083 0.081 84.363 0.995 -4.634 0.995 -4.634 0.081 84.363
5416.042 0.081 84.336 0.995 -4.67 0.995 -4.67 0.081 84.336
5441 0.082 84.308 0.995 -4.705 0.995 -4.705 0.082 84.308
5465.958 0.083 84.28 0.995 -4.74 0.995 -4.74 0.083 84.28
5490.917 0.083 84.252 0.995 -4.776 0.995 -4.776 0.083 84.252
5515.875 0.084 84.224 0.995 -4.811 0.995 -4.811 0.084 84.224
5540.833 0.084 84.196 0.995 -4.846 0.995 -4.846 0.084 84.196
5565.792 0.085 84.168 0.995 -4.881 0.995 -4.881 0.085 84.168
5590.75 0.086 84.139 0.995 -4.916 0.995 -4.916 0.086 84.139
5615.708 0.086 84.111 0.995 -4.951 0.995 -4.951 0.086 84.111
5640.667 0.087 84.083 0.995 -4.986 0.995 -4.986 0.087 84.083
5665.625 0.088 84.055 0.995 -5.021 0.995 -5.021 0.088 84.055
5690.583 0.088 84.026 0.995 -5.055 0.995 -5.055 0.088 84.026
5715.542 0.089 83.998 0.995 -5.09 0.995 -5.09 0.089 83.998
5740.5 0.089 83.969 0.995 -5.125 0.995 -5.125 0.089 83.969
5765.458 0.09 83.941 0.995 -5.159 0.995 -5.159 0.09 83.941
5790.417 0.091 83.912 0.994 -5.194 0.994 -5.194 0.091 83.912
5815.375 0.091 83.884 0.994 -5.228 0.994 -5.228 0.091 83.884
5840.333 0.092 83.855 0.994 -5.263 0.994 -5.263 0.092 83.855
5865.292 0.092 83.827 0.994 -5.297 0.994 -5.297 0.092 83.827
5890.25 0.093 83.798 0.994 -5.331 0.994 -5.331 0.093 83.798
5915.208 0.094 83.769 0.994 -5.366 0.994 -5.366 0.094 83.769
5940.167 0.094 83.741 0.994 -5.4 0.994 -5.4 0.094 83.741
5965.125 0.095 83.712 0.994 -5.434 0.994 -5.434 0.095 83.712
5990.083 0.095 83.683 0.994 -5.468 0.994 -5.468 0.095 83.683
6015.042 0.096 83.654 0.994 -5.502 0.994 -5.502 0.096 83.654
6040 0.096 83.626 0.994 -5.536 0.994 -5.536 0.096 83.626
6064.958 0.097 83.597 0.994 -5.57 0.994 -5.57 0.097 83.597
6089.917 0.098 83.568 0.994 -5.604 0.994 -5.604 0.098 83.568
6114.875 0.098 83.539 0.994 -5.638 0.994 -5.638 0.098 83.539
6139.833 0.099 83.51 0.994 -5.671 0.994 -5.671 0.099 83.51
6164.792 0.099 83.482 0.994 -5.705 0.994 -5.705 0.099 83.482
6189.75 0.1 83.453 0.994 -5.739 0.994 -5.739 0.1 83.453
6214.708 0.101 83.424 0.994 -5.773 0.994 -5.773 0.101 83.424
6239.667 0.101 83.395 0.993 -5.806 0.993 -5.806 0.101 83.395
6264.625 0.102 83.366 0.993 -5.84 0.993 -5.84 0.102 83.366
6289.583 0.102 83.337 0.993 -5.873 0.993 -5.873 0.102 83.337
6314.542 0.103 83.308 0.993 -5.907 0.993 -5.907 0.103 83.308
6339.5 0.103 83.279 0.993 -5.94 0.993 -5.94 0.103 83.279
6364.458 0.104 83.25 0.993 -5.973 0.993 -5.973 0.104 83.25
6389.417 0.105 83.221 0.993 -6.007 0.993 -6.007 0.105 83.221
6414.375 0.105 83.192 0.993 -6.04 0.993 -6.04 0.105 83.192
6439.333 0.106 83.163 0.993 -6.073 0.993 -6.073 0.106 83.163
6464.292 0.106 83.134 0.993 -6.106 0.993 -6.106 0.106 83.134
6489.25 0.107 83.105 0.993 -6.14 0.993 -6.14 0.107 83.105
6514.208 0.108 83.076 0.993 -6.173 0.993 -6.173 0.108 83.076
6539.167 0.108 83.047 0.993 -6.206 0.993 -6.206 0.108 83.047
6564.125 0.109 83.018 0.993 -6.239 0.993 -6.239 0.109 83.018
6589.083 0.109 82.989 0.993 -6.272 0.993 -6.272 0.109 82.989
6614.042 0.11 82.96 0.993 -6.305 0.993 -6.305 0.11 82.96
6639 0.11 82.931 0.992 -6.338 0.992 -6.338 0.11 82.931
6663.958 0.111 82.902 0.992 -6.371 0.992 -6.371 0.111 82.902
6688.917 0.112 82.873 0.992 -6.403 0.992 -6.403 0.112 82.873
6713.875 0.112 82.844 0.992 -6.436 0.992 -6.436 0.112 82.844
6738.833 0.113 82.815 0.992 -6.469 0.992 -6.469 0.113 82.815
6763.792 0.113 82.785 0.992 -6.502 0.992 -6.502 0.113 82.785
6788.75 0.114 82.756 0.992 -6.534 0.992 -6.534 0.114 82.756
6813.708 0.114 82.727 0.992 -6.567 0.992 -6.567 0.114 82.727
6838.667 0.115 82.698 0.992 -6.6 0.992 -6.6 0.115 82.698
6863.625 0.116 82.669 0.992 -6.632 0.992 -6.632 0.116 82.669
6888.583 0.116 82.64 0.992 -6.665 0.992 -6.665 0.116 82.64
6913.542 0.117 82.611 0.992 -6.697 0.992 -6.697 0.117 82.611
6938.5 0.117 82.582 0.992 -6.73 0.992 -6.73 0.117 82.582
6963.458 0.118 82.553 0.992 -6.762 0.992 -6.762 0.118 82.553
6988.417 0.118 82.524 0.992 -6.794 0.992 -6.794 0.118 82.524
7013.375 0.119 82.494 0.992 -6.827 0.992 -6.827 0.119 82.494
7038.333 0.119 82.465 0.991 -6.859 0.991 -6.859 0.119 82.465
7063.292 0.12 82.436 0.991 -6.891 0.991 -6.891 0.12 82.436
7088.25 0.121 82.407 0.991 -6.924 0.991 -6.924 0.121 82.407
7113.208 0.121 82.378 0.991 -6.956 0.991 -6.956 0.121 82.378
7138.167 0.122 82.349 0.991 -6.988 0.991 -6.988 0.122 82.349
7163.125 0.122 82.32 0.991 -7.02 0.991 -7.02 0.122 82.32
7188.083 0.123 82.291 0.991 -7.052 0.991 -7.052 0.123 82.291
7213.042 0.123 82.262 0.991 -7.085 0.991 -7.085 0.123 82.262
7238 0.124 82.233 0.991 -7.117 0.991 -7.117 0.124 82.233
7262.958 0.124 82.203 0.991 -7.149 0.991 -7.149 0.124 82.203
7287.917 0.125 82.174 0.991 -7.181 0.991 -7.181 0.125 82.174
7312.875 0.126 82.145 0.991 -7.213 0.991 -7.213 0.126 82.145
7337.833 0.126 82.116 0.991 -7.245 0.991 -7.245 0.126 82.116
7362.792 0.127 82.087 0.991 -7.277 0.991 -7.277 0.127 82.087
7387.75 0.127 82.058 0.99 -7.308 0.99 -7.308 0.127 82.058
7412.708 0.128 82.029 0.99 -7.34 0.99 -7.34 0.128 82.029
7437.667 0.128 82 0.99 -7.372 0.99 -7.372 0.128 82
7462.625 0.129 81.971 0.99 -7.404 0.99 -7.404 0.129 81.971
7487.583 0.129 81.942 0.99 -7.436 0.99 -7.436 0.129 81.942
7512.542 0.13 81.913 0.99 -7.467 0.99 -7.467 0.13 81.913
7537.5 0.131 81.884 0.99 -7.499 0.99 -7.499 0.131 81.884
7562.458 0.131 81.855 0.99 -7.531 0.99 -7.531 0.131 81.855
7587.417 0.132 81.826 0.99 -7.562 0.99 -7.562 0.132 81.826
7612.375 0.132 81.796 0.99 -7.594 0.99 -7.594 0.132 81.796
7637.333 0.133 81.767 0.99 -7.626 0.99 -7.626 0.133 81.767
7662.292 0.133 81.738 0.99 -7.657 0.99 -7.657 0.133 81.738
7687.25 0.134 81.709 0.99 -7.689 0.99 -7.689 0.134 81.709
7712.208 0.134 81.68 0.99 -7.72 0.99 -7.72 0.134 81.68
7737.167 0.135 81.651 0.989 -7.752 0.989 -7.752 0.135 81.651
7762.125 0.135 81.622 0.989 -7.783 0.989 -7.783 0.135 81.622
7787.083 0.136 81.593 0.989 -7.815 0.989 -7.815 0.136 81.593
7812.042 0.137 81.564 0.989 -7.846 0.989 -7.846 0.137 81.564
7837 0.137 81.535 0.989 -7.878 0.989 -7.878 0.137 81.535
7861.958 0.138 81.506 0.989 -7.909 0.989 -7.909 0.138 81.506
7886.917 0.138 81.477 0.989 -7.94 0.989 -7.94 0.138 81.477
7911.875 0.139 81.448 0.989 -7.972 0.989 -7.972 0.139 81.448
7936.833 0.139 81.419 0.989 -8.003 0.989 -8.003 0.139 81.419
7961.792 0.14 81.39 0.989 -8.034 0.989 -8.034 0.14 81.39
7986.75 0.14 81.361 0.989 -8.065 0.989 -8.065 0.14 81.361
8011.708 0.141 81.332 0.989 -8.097 0.989 -8.097 0.141 81.332
8036.667 0.141 81.303 0.989 -8.128 0.989 -8.128 0.141 81.303
8061.625 0.142 81.274 0.988 -8.159 0.988 -8.159 0.142 81.274
8086.583 0.142 81.245 0.988 -8.19 0.988 -8.19 0.142 81.245
8111.542 0.143 81.216 0.988 -8.221 0.988 -8.221 0.143 81.216
8136.5 0.144 81.188 0.988 -8.252 0.988 -8.252 0.144 81.188
8161.458 0.144 81.159 0.988 -8.283 0.988 -8.283 0.144 81.159
8186.417 0.145 81.13 0.988 -8.314 0.988 -8.314 0.145 81.13
8211.375 0.145 81.101 0.988 -8.345 0.988 -8.345 0.145 81.101
8236.333 0.146 81.072 0.988 -8.376 0.988 -8.376 0.146 81.072
8261.292 0.146 81.043 0.988 -8.407 0.988 -8.407 0.146 81.043
8286.25 0.147 81.014 0.988 -8.438 0.988 -8.438 0.147 81.014
