# MHZ S MA R 50

50 1 -0.9 0.016 89.092 0.016 89.092 1 -0.9
74.958 1 -1.349 0.024 88.639 0.024 88.639 1 -1.349
99.917 0.999 -1.798 0.031 88.186 0.031 88.186 0.999 -1.798
124.875 0.999 -2.247 0.039 87.733 0.039 87.733 0.999 -2.247
149.833 0.999 -2.695 0.047 87.28 0.047 87.28 0.999 -2.695
174.792 0.998 -3.144 0.055 86.828 0.055 86.828 0.998 -3.144
199.75 0.998 -3.592 0.063 86.376 0.063 86.376 0.998 -3.592
224.708 0.997 -4.039 0.07 85.924 0.07 85.924 0.997 -4.039
249.667 0.997 -4.487 0.078 85.472 0.078 85.472 0.997 -4.487
274.625 0.996 -4.934 0.086 85.021 0.086 85.021 0.996 -4.934
299.583 0.996 -5.38 0.094 84.571 0.094 84.571 0.996 -5.38
324.542 0.995 -5.826 0.102 84.121 0.102 84.121 0.995 -5.826
349.5 0.994 -6.271 0.109 83.672 0.109 83.672 0.994 -6.271
374.458 0.993 -6.716 0.117 83.223 0.117 83.223 0.993 -6.716
399.417 0.992 -7.16 0.125 82.775 0.125 82.775 0.992 -7.16
424.375 0.991 -7.603 0.132 82.327 0.132 82.327 0.991 -7.603
449.333 0.99 -8.046 0.14 81.88 0.14 81.88 0.99 -8.046
474.292 0.989 -8.488 0.148 81.434 0.148 81.434 0.989 -8.488
499.25 0.988 -8.929 0.155 80.989 0.155 80.989 0.988 -8.929
524.208 0.986 -9.37 0.163 80.545 0.163 80.545 0.986 -9.37
549.167 0.985 -9.809 0.17 80.101 0.17 80.101 0.985 -9.809
574.125 0.984 -10.248 0.178 79.659 0.178 79.659 0.984 -10.248
599.083 0.982 -10.685 0.185 79.217 0.185 79.217 0.982 -10.685
624.042 0.981 -11.122 0.193 78.776 0.193 78.776 0.981 -11.122
649 0.979 -11.557 0.2 78.336 0.2 78.336 0.979 -11.557
673.958 0.978 -11.992 0.208 77.898 0.208 77.898 0.978 -11.992
698.917 0.976 -12.425 0.215 77.46 0.215 77.46 0.976 -12.425
723.875 0.974 -12.858 0.223 77.024 0.223 77.024 0.974 -12.858
748.833 0.973 -13.289 0.23 76.589 0.23 76.589 0.973 -13.289
773.792 0.971 -13.719 0.237 76.154 0.237 76.154 0.971 -13.719
798.75 0.969 -14.147 0.244 75.722 0.244 75.722 0.969 -14.147
823.708 0.967 -14.575 0.252 75.29 0.252 75.29 0.967 -14.575
848.667 0.965 -15.001 0.259 74.86 0.259 74.86 0.965 -15.001
873.625 0.963 -15.426 0.266 74.431 0.266 74.431 0.963 -15.426
898.583 0.961 -15.85 0.273 74.003 0.273 74.003 0.961 -15.85
923.542 0.959 -16.272 0.28 73.577 0.28 73.577 0.959 -16.272
948.5 0.957 -16.693 0.287 73.152 0.287 73.152 0.957 -16.693
973.458 0.955 -17.112 0.294 72.728 0.294 72.728 0.955 -17.112
998.417 0.953 -17.53 0.301 72.306 0.301 72.306 0.953 -17.53
1023.375 0.95 -17.946 0.308 71.885 0.308 71.885 0.95 -17.946
1048.333 0.948 -18.361 0.315 71.466 0.315 71.466 0.948 -18.361
1073.292 0.946 -18.775 0.322 71.049 0.322 71.049 0.946 -18.775
1098.25 0.943 -19.186 0.329 70.633 0.329 70.633 0.943 -19.186
1123.208 0.941 -19.597 0.335 70.218 0.335 70.218 0.941 -19.597
1148.167 0.939 -20.005 0.342 69.805 0.342 69.805 0.939 -20.005
1173.125 0.936 -20.412 0.349 69.394 0.349 69.394 0.936 -20.412
1198.083 0.933 -20.818 0.355 68.985 0.355 68.985 0.933 -20.818
1223.042 0.931 -21.221 0.362 68.577 0.362 68.577 0.931 -21.221
1248 0.928 -21.623 0.369 68.171 0.369 68.171 0.928 -21.623
1272.958 0.926 -22.024 0.375 67.766 0.375 67.766 0.926 -22.024
1297.917 0.923 -22.422 0.381 67.363 0.381 67.363 0.923 -22.422
1322.875 0.92 -22.819 0.388 66.962 0.388 66.962 0.92 -22.819
1347.833 0.918 -23.214 0.394 66.563 0.394 66.563 0.918 -23.214
1372.792 0.915 -23.608 0.4 66.165 0.4 66.165 0.915 -23.608
1397.75 0.912 -23.999 0.407 65.769 0.407 65.769 0.912 -23.999
1422.708 0.909 -24.389 0.413 65.375 0.413 65.375 0.909 -24.389
1447.667 0.906 -24.777 0.419 64.983 0.419 64.983 0.906 -24.777
1472.625 0.903 -25.163 0.425 64.592 0.425 64.592 0.903 -25.163
1497.583 0.9 -25.547 0.431 64.204 0.431 64.204 0.9 -25.547
1522.542 0.897 -25.93 0.437 63.817 0.437 63.817 0.897 -25.93
1547.5 0.894 -26.31 0.443 63.432 0.443 63.432 0.894 -26.31
1572.458 0.891 -26.689 0.449 63.049 0.449 63.049 0.891 -26.689
1597.417 0.888 -27.066 0.455 62.668 0.455 62.668 0.888 -27.066
1622.375 0.885 -27.441 0.461 62.289 0.461 62.289 0.885 -27.441
1647.333 0.882 -27.814 0.467 61.911 0.467 61.911 0.882 -27.814
1672.292 0.879 -28.185 0.472 61.536 0.472 61.536 0.879 -28.185
1697.25 0.876 -28.554 0.478 61.162 0.478 61.162 0.876 -28.554
1722.208 0.873 -28.922 0.484 60.791 0.484 60.791 0.873 -28.922
1747.167 0.87 -29.287 0.489 60.421 0.489 60.421 0.87 -29.287
1772.125 0.867 -29.65 0.495 60.053 0.495 60.053 0.867 -29.65
1797.083 0.863 -30.012 0.5 59.687 0.5 59.687 0.863 -30.012
1822.042 0.86 -30.371 0.506 59.323 0.506 59.323 0.86 -30.371
1847 0.857 -30.729 0.511 58.961 0.511 58.961 0.857 -30.729
1871.958 0.854 -31.085 0.516 58.601 0.516 58.601 0.854 -31.085
1896.917 0.85 -31.439 0.522 58.243 0.522 58.243 0.85 -31.439
1921.875 0.847 -31.79 0.527 57.887 0.527 57.887 0.847 -31.79
1946.833 0.844 -32.14 0.532 57.533 0.532 57.533 0.844 -32.14
1971.792 0.84 -32.488 0.537 57.18 0.537 57.18 0.84 -32.488
1996.75 0.837 -32.834 0.542 56.83 0.542 56.83 0.837 -32.834
2021.708 0.834 -33.178 0.547 56.481 0.547 56.481 0.834 -33.178
2046.667 0.83 -33.52 0.552 56.135 0.552 56.135 0.83 -33.52
2071.625 0.827 -33.86 0.557 55.79 0.557 55.79 0.827 -33.86
2096.583 0.824 -34.198 0.562 55.448 0.562 55.448 0.824 -34.198
2121.542 0.82 -34.534 0.567 55.107 0.567 55.107 0.82 -34.534
2146.5 0.817 -34.868 0.572 54.769 0.572 54.769 0.817 -34.868
2171.458 0.813 -35.2 0.576 54.432 0.576 54.432 0.813 -35.2
2196.417 0.81 -35.531 0.581 54.097 0.581 54.097 0.81 -35.531
2221.375 0.807 -35.859 0.586 53.764 0.586 53.764 0.807 -35.859
2246.333 0.803 -36.185 0.59 53.433 0.59 53.433 0.803 -36.185
2271.292 0.8 -36.51 0.595 53.104 0.595 53.104 0.8 -36.51
2296.25 0.796 -36.832 0.599 52.777 0.599 52.777 0.796 -36.832
2321.208 0.793 -37.153 0.604 52.452 0.604 52.452 0.793 -37.153
2346.167 0.789 -37.471 0.608 52.129 0.608 52.129 0.789 -37.471
2371.125 0.786 -37.788 0.613 51.807 0.613 51.807 0.786 -37.788
2396.083 0.782 -38.103 0.617 51.488 0.617 51.488 0.782 -38.103
2421.042 0.779 -38.416 0.621 51.17 0.621 51.17 0.779 -38.416
2446 0.776 -38.727 0.626 50.855 0.626 50.855 0.776 -38.727
2470.958 0.772 -39.036 0.63 50.541 0.63 50.541 0.772 -39.036
2495.917 0.769 -39.343 0.634 50.229 0.634 50.229 0.769 -39.343
2520.875 0.765 -39.648 0.638 49.919 0.638 49.919 0.765 -39.648
2545.833 0.762 -39.952 0.642 49.611 0.642 49.611 0.762 -39.952
2570.792 0.758 -40.253 0.646 49.304 0.646 49.304 0.758 -40.253
2595.75 0.755 -40.553 0.65 49 0.65 49 0.755 -40.553
2620.708 0.751 -40.851 0.654 48.697 0.654 48.697 0.751 -40.851
2645.667 0.748 -41.147 0.658 48.396 0.658 48.396 0.748 -41.147
2670.625 0.744 -41.441 0.662 48.097 0.662 48.097 0.744 -41.441
2695.583 0.741 -41.733 0.666 47.8 0.666 47.8 0.741 -41.733
2720.542 0.737 -42.024 0.669 47.505 0.669 47.505 0.737 -42.024
2745.5 0.734 -42.312 0.673 47.211 0.673 47.211 0.734 -42.312
2770.458 0.73 -42.599 0.677 46.92 0.677 46.92 0.73 -42.599
2795.417 0.727 -42.884 0.681 46.63 0.681 46.63 0.727 -42.884
2820.375 0.723 -43.168 0.684 46.341 0.684 46.341 0.723 -43.168
2845.333 0.72 -43.449 0.688 46.055 0.688 46.055 0.72 -43.449
2870.292 0.717 -43.729 0.691 45.77 0.691 45.77 0.717 -43.729
2895.25 0.713 -44.007 0.695 45.487 0.695 45.487 0.713 -44.007
2920.208 0.71 -44.283 0.698 45.206 0.698 45.206 0.71 -44.283
2945.167 0.706 -44.557 0.702 44.927 0.702 44.927 0.706 -44.557
2970.125 0.703 -44.83 0.705 44.649 0.705 44.649 0.703 -44.83
2995.083 0.699 -45.101 0.708 44.373 0.708 44.373 0.699 -45.101
3020.042 0.696 -45.37 0.712 44.099 0.712 44.099 0.696 -45.37
3045 0.692 -45.638 0.715 43.826 0.715 43.826 0.692 -45.638
3069.958 0.689 -45.904 0.718 43.555 0.718 43.555 0.689 -45.904
3094.917 0.686 -46.168 0.721 43.286 0.721 43.286 0.686 -46.168
3119.875 0.682 -46.431 0.725 43.018 0.725 43.018 0.682 -46.431
3144.833 0.679 -46.692 0.728 42.752 0.728 42.752 0.679 -46.692
3169.792 0.675 -46.951 0.731 42.487 0.731 42.487 0.675 -46.951
3194.75 0.672 -47.208 0.734 42.225 0.734 42.225 0.672 -47.208
3219.708 0.669 -47.464 0.737 41.964 0.737 41.964 0.669 -47.464
3244.667 0.665 -47.719 0.74 41.704 0.74 41.704 0.665 -47.719
3269.625 0.662 -47.971 0.743 41.446 0.743 41.446 0.662 -47.971
3294.583 0.659 -48.223 0.746 41.19 0.746 41.19 0.659 -48.223
3319.542 0.655 -48.472 0.749 40.935 0.749 40.935 0.655 -48.472
3344.5 0.652 -48.72 0.752 40.682 0.752 40.682 0.652 -48.72
3369.458 0.649 -48.966 0.754 40.43 0.754 40.43 0.649 -48.966
3394.417 0.645 -49.211 0.757 40.18 0.757 40.18 0.645 -49.211
3419.375 0.642 -49.454 0.76 39.931 0.76 39.931 0.642 -49.454
3444.333 0.639 -49.696 0.763 39.684 0.763 39.684 0.639 -49.696
3469.292 0.635 -49.936 0.765 39.438 0.765 39.438 0.635 -49.936
3494.25 0.632 -50.175 0.768 39.194 0.768 39.194 0.632 -50.175
3519.208 0.629 -50.412 0.771 38.951 0.771 38.951 0.629 -50.412
3544.167 0.625 -50.648 0.773 38.71 0.773 38.71 0.625 -50.648
3569.125 0.622 -50.882 0.776 38.471 0.776 38.471 0.622 -50.882
3594.083 0.619 -51.115 0.778 38.232 0.778 38.232 0.619 -51.115
3619.042 0.616 -51.346 0.781 37.996 0.781 37.996 0.616 -51.346
3644 0.612 -51.576 0.783 37.76 0.783 37.76 0.612 -51.576
3668.958 0.609 -51.804 0.786 37.526 0.786 37.526 0.609 -51.804
3693.917 0.606 -52.031 0.788 37.294 0.788 37.294 0.606 -52.031
3718.875 0.603 -52.256 0.791 37.062 0.791 37.062 0.603 -52.256
3743.833 0.6 -52.48 0.793 36.833 0.793 36.833 0.6 -52.48
3768.792 0.596 -52.703 0.796 36.604 0.796 36.604 0.596 -52.703
3793.75 0.593 -52.924 0.798 36.377 0.798 36.377 0.593 -52.924
3818.708 0.59 -53.144 0.8 36.152 0.8 36.152 0.59 -53.144
3843.667 0.587 -53.363 0.802 35.927 0.802 35.927 0.587 -53.363
3868.625 0.584 -53.58 0.805 35.704 0.805 35.704 0.584 -53.58
3893.583 0.581 -53.796 0.807 35.483 0.807 35.483 0.581 -53.796
3918.542 0.577 -54.01 0.809 35.262 0.809 35.262 0.577 -54.01
3943.5 0.574 -54.223 0.811 35.043 0.811 35.043 0.574 -54.223
3968.458 0.571 -54.435 0.814 34.825 0.814 34.825 0.571 -54.435
3993.417 0.568 -54.646 0.816 34.609 0.816 34.609 0.568 -54.646
4018.375 0.565 -54.855 0.818 34.394 0.818 34.394 0.565 -54.855
4043.333 0.562 -55.063 0.82 34.18 0.82 34.18 0.562 -55.063
4068.292 0.559 -55.269 0.822 33.967 0.822 33.967 0.559 -55.269
4093.25 0.556 -55.475 0.824 33.756 0.824 33.756 0.556 -55.475
4118.208 0.553 -55.679 0.826 33.545 0.826 33.545 0.553 -55.679
4143.167 0.55 -55.881 0.828 33.336 0.828 33.336 0.55 -55.881
4168.125 0.547 -56.083 0.83 33.129 0.83 33.129 0.547 -56.083
4193.083 0.544 -56.283 0.832 32.922 0.832 32.922 0.544 -56.283
4218.042 0.541 -56.482 0.834 32.717 0.834 32.717 0.541 -56.482
4243 0.538 -56.68 0.836 32.513 0.836 32.513 0.538 -56.68
4267.958 0.535 -56.877 0.838 32.31 0.838 32.31 0.535 -56.877
4292.917 0.532 -57.072 0.839 32.108 0.839 32.108 0.532 -57.072
4317.875 0.529 -57.267 0.841 31.907 0.841 31.907 0.529 -57.267
4342.833 0.526 -57.46 0.843 31.707 0.843 31.707 0.526 -57.46
4367.792 0.523 -57.652 0.845 31.509 0.845 31.509 0.523 -57.652
4392.75 0.52 -57.843 0.847 31.312 0.847 31.312 0.52 -57.843
4417.708 0.517 -58.032 0.848 31.116 0.848 31.116 0.517 -58.032
4442.667 0.514 -58.221 0.85 30.92 0.85 30.92 0.514 -58.221
4467.625 0.511 -58.408 0.852 30.726 0.852 30.726 0.511 -58.408
4492.583 0.508 -58.594 0.854 30.534 0.854 30.534 0.508 -58.594
4517.542 0.505 -58.779 0.855 30.342 0.855 30.342 0.505 -58.779
4542.5 0.502 -58.963 0.857 30.151 0.857 30.151 0.502 -58.963
4567.458 0.499 -59.146 0.859 29.961 0.859 29.961 0.499 -59.146
4592.417 0.497 -59.328 0.86 29.773 0.86 29.773 0.497 -59.328
4617.375 0.494 -59.509 0.862 29.585 0.862 29.585 0.494 -59.509
4642.333 0.491 -59.688 0.863 29.399 0.863 29.399 0.491 -59.688
4667.292 0.488 -59.867 0.865 29.213 0.865 29.213 0.488 -59.867
4692.25 0.485 -60.044 0.867 29.029 0.867 29.029 0.485 -60.044
4717.208 0.483 -60.221 0.868 28.845 0.868 28.845 0.483 -60.221
4742.167 0.48 -60.396 0.87 28.663 0.87 28.663 0.48 -60.396
4767.125 0.477 -60.57 0.871 28.481 0.871 28.481 0.477 -60.57
4792.083 0.474 -60.744 0.873 28.301 0.873 28.301 0.474 -60.744
4817.042 0.471 -60.916 0.874 28.121 0.874 28.121 0.471 -60.916
4842 0.469 -61.087 0.875 27.943 0.875 27.943 0.469 -61.087
4866.958 0.466 -61.258 0.877 27.765 0.877 27.765 0.466 -61.258
4891.917 0.463 -61.427 0.878 27.589 0.878 27.589 0.463 -61.427
4916.875 0.46 -61.595 0.88 27.413 0.88 27.413 0.46 -61.595
4941.833 0.458 -61.763 0.881 27.238 0.881 27.238 0.458 -61.763
4966.792 0.455 -61.929 0.883 27.064 0.883 27.064 0.455 -61.929
4991.75 0.452 -62.094 0.884 26.891 0.884 26.891 0.452 -62.094
5016.708 0.45 -62.259 0.885 26.719 0.885 26.719 0.45 -62.259
5041.667 0.447 -62.422 0.887 26.548 0.887 26.548 0.447 -62.422
5066.625 0.444 -62.585 0.888 26.378 0.888 26.378 0.444 -62.585
5091.583 0.442 -62.746 0.889 26.209 0.889 26.209 0.442 -62.746
5116.542 0.439 -62.907 0.89 26.04 0.89 26.04 0.439 -62.907
5141.5 0.436 -63.066 0.892 25.873 0.892 25.873 0.436 -63.066
5166.458 0.434 -63.225 0.893 25.706 0.893 25.706 0.434 -63.225
5191.417 0.431 -63.383 0.894 25.54 0.894 25.54 0.431 -63.383
5216.375 0.429 -63.54 0.895 25.376 0.895 25.376 0.429 -63.54
5241.333 0.426 -63.696 0.897 25.211 0.897 25.211 0.426 -63.696
5266.292 0.423 -63.851 0.898 25.048 0.898 25.048 0.423 -63.851
5291.25 0.421 -64.005 0.899 24.886 0.899 24.886 0.421 -64.005
5316.208 0.418 -64.159 0.9 24.724 0.9 24.724 0.418 -64.159
5341.167 0.416 -64.311 0.901 24.563 0.901 24.563 0.416 -64.311
5366.125 0.413 -64.463 0.902 24.403 0.902 24.403 0.413 -64.463
5391.083 0.411 -64.614 0.904 24.244 0.904 24.244 0.411 -64.614
5416.042 0.408 -64.763 0.905 24.086 0.905 24.086 0.408 -64.763
5441 0.406 -64.912 0.906 23.928 0.906 23.928 0.406 -64.912
5465.958 0.403 -65.061 0.907 23.771 0.907 23.771 0.403 -65.061
5490.917 0.401 -65.208 0.908 23.615 0.908 23.615 0.401 -65.208
5515.875 0.398 -65.354 0.909 23.46 0.909 23.46 0.398 -65.354
5540.833 0.396 -65.5 0.91 23.306 0.91 23.306 0.396 -65.5
5565.792 0.393 -65.645 0.911 23.152 0.911 23.152 0.393 -65.645
5590.75 0.391 -65.789 0.912 22.999 0.912 22.999 0.391 -65.789
5615.708 0.388 -65.932 0.913 22.847 0.913 22.847 0.388 -65.932
5640.667 0.386 -66.075 0.914 22.695 0.914 22.695 0.386 -66.075
5665.625 0.383 -66.216 0.915 22.545 0.915 22.545 0.383 -66.216
5690.583 0.381 -66.357 0.916 22.395 0.916 22.395 0.381 -66.357
5715.542 0.379 -66.497 0.917 22.245 0.917 22.245 0.379 -66.497
5740.5 0.376 -66.636 0.918 22.097 0.918 22.097 0.376 -66.636
5765.458 0.374 -66.775 0.919 21.949 0.919 21.949 0.374 -66.775
5790.417 0.371 -66.912 0.92 21.802 0.92 21.802 0.371 -66.912
5815.375 0.369 -67.049 0.921 21.655 0.921 21.655 0.369 -67.049
5840.333 0.367 -67.185 0.922 21.51 0.922 21.51 0.367 -67.185
5865.292 0.364 -67.321 0.923 21.365 0.923 21.365 0.364 -67.321
5890.25 0.362 -67.455 0.924 21.22 0.924 21.22 0.362 -67.455
5915.208 0.36 -67.589 0.925 21.076 0.925 21.076 0.36 -67.589
5940.167 0.357 -67.722 0.926 20.933 0.926 20.933 0.357 -67.722
5965.125 0.355 -67.854 0.926 20.791 0.926 20.791 0.355 -67.854
5990.083 0.353 -67.986 0.927 20.649 0.927 20.649 0.353 -67.986
6015.042 0.35 -68.117 0.928 20.508 0.928 20.508 0.35 -68.117
6040 0.348 -68.247 0.929 20.368 0.929 20.368 0.348 -68.247
6064.958 0.346 -68.376 0.93 20.228 0.93 20.228 0.346 -68.376
6089.917 0.344 -68.505 0.931 20.089 0.931 20.089 0.344 -68.505
6114.875 0.341 -68.633 0.932 19.95 0.932 19.95 0.341 -68.633
6139.833 0.339 -68.76 0.932 19.812 0.932 19.812 0.339 -68.76
6164.792 0.337 -68.886 0.933 19.675 0.933 19.675 0.337 -68.886
6189.75 0.335 -69.012 0.934 19.539 0.934 19.539 0.335 -69.012
6214.708 0.332 -69.137 0.935 19.403 0.935 19.403 0.332 -69.137
6239.667 0.33 -69.261 0.936 19.267 0.936 19.267 0.33 -69.261
6264.625 0.328 -69.385 0.936 19.132 0.936 19.132 0.328 -69.385
6289.583 0.326 -69.508 0.937 18.998 0.937 18.998 0.326 -69.508
6314.542 0.323 -69.63 0.938 18.865 0.938 18.865 0.323 -69.63
6339.5 0.321 -69.752 0.939 18.732 0.939 18.732 0.321 -69.752
6364.458 0.319 -69.872 0.939 18.599 0.939 18.599 0.319 -69.872
6389.417 0.317 -69.993 0.94 18.467 0.94 18.467 0.317 -69.993
6414.375 0.315 -70.112 0.941 18.336 0.941 18.336 0.315 -70.112
6439.333 0.313 -70.231 0.941 18.205 0.941 18.205 0.313 -70.231
6464.292 0.31 -70.349 0.942 18.075 0.942 18.075 0.31 -70.349
6489.25 0.308 -70.466 0.943 17.945 0.943 17.945 0.308 -70.466
6514.208 0.306 -70.583 0.943 17.816 0.943 17.816 0.306 -70.583
6539.167 0.304 -70.699 0.944 17.688 0.944 17.688 0.304 -70.699
6564.125 0.302 -70.815 0.945 17.56 0.945 17.56 0.302 -70.815
6589.083 0.3 -70.929 0.946 17.433 0.946 17.433 0.3 -70.929
6614.042 0.298 -71.044 0.946 17.306 0.946 17.306 0.298 -71.044
6639 0.295 -71.157 0.947 17.179 0.947 17.179 0.295 -71.157
6663.958 0.293 -71.27 0.947 17.054 0.947 17.054 0.293 -71.27
6688.917 0.291 -71.382 0.948 16.928 0.948 16.928 0.291 -71.382
6713.875 0.289 -71.493 0.949 16.804 0.949 16.804 0.289 -71.493
6738.833 0.287 -71.604 0.949 16.679 0.949 16.679 0.287 -71.604
6763.792 0.285 -71.714 0.95 16.556 0.95 16.556 0.285 -71.714
6788.75 0.283 -71.824 0.951 16.433 0.951 16.433 0.283 -71.824
6813.708 0.281 -71.932 0.951 16.31 0.951 16.31 0.281 -71.932
6838.667 0.279 -72.041 0.952 16.188 0.952 16.188 0.279 -72.041
6863.625 0.277 -72.148 0.952 16.066 0.952 16.066 0.277 -72.148
6888.583 0.275 -72.255 0.953 15.945 0.953 15.945 0.275 -72.255
6913.542 0.273 -72.361 0.953 15.824 0.953 15.824 0.273 -72.361
6938.5 0.271 -72.467 0.954 15.704 0.954 15.704 0.271 -72.467
6963.458 0.269 -72.572 0.955 15.584 0.955 15.584 0.269 -72.572
6988.417 0.267 -72.676 0.955 15.465 0.955 15.465 0.267 -72.676
7013.375 0.265 -72.78 0.956 15.346 0.956 15.346 0.265 -72.78
7038.333 0.263 -72.883 0.956 15.228 0.956 15.228 0.263 -72.883
7063.292 0.261 -72.985 0.957 15.11 0.957 15.11 0.261 -72.985
7088.25 0.259 -73.087 0.957 14.993 0.957 14.993 0.259 -73.087
7113.208 0.257 -73.188 0.958 14.876 0.958 14.876 0.257 -73.188
7138.167 0.255 -73.289 0.958 14.759 0.958 14.759 0.255 -73.289
7163.125 0.253 -73.388 0.959 14.643 0.959 14.643 0.253 -73.388
7188.083 0.251 -73.488 0.959 14.528 0.959 14.528 0.251 -73.488
7213.042 0.249 -73.586 0.96 14.413 0.96 14.413 0.249 -73.586
7238 0.247 -73.684 0.96 14.298 0.96 14.298 0.247 -73.684
7262.958 0.245 -73.781 0.961 14.184 0.961 14.184 0.245 -73.781
7287.917 0.243 -73.878 0.961 14.07 0.961 14.07 0.243 -73.878
7312.875 0.241 -73.974 0.962 13.957 0.962 13.957 0.241 -73.974
7337.833 0.239 -74.069 0.962 13.844 0.962 13.844 0.239 -74.069
7362.792 0.238 -74.164 0.963 13.731 0.963 13.731 0.238 -74.164
7387.75 0.236 -74.258 0.963 13.619 0.963 13.619 0.236 -74.258
7412.708 0.234 -74.352 0.964 13.508 0.964 13.508 0.234 -74.352
7437.667 0.232 -74.444 0.964 13.396 0.964 13.396 0.232 -74.444
7462.625 0.23 -74.537 0.964 13.286 0.964 13.286 0.23 -74.537
7487.583 0.228 -74.628 0.965 13.175 0.965 13.175 0.228 -74.628
7512.542 0.226 -74.719 0.965 13.065 0.965 13.065 0.226 -74.719
7537.5 0.224 -74.809 0.966 12.956 0.966 12.956 0.224 -74.809
7562.458 0.223 -74.899 0.966 12.847 0.966 12.847 0.223 -74.899
7587.417 0.221 -74.988 0.967 12.738 0.967 12.738 0.221 -74.988
7612.375 0.219 -75.076 0.967 12.629 0.967 12.629 0.219 -75.076
7637.333 0.217 -75.163 0.967 12.521 0.967 12.521 0.217 -75.163
7662.292 0.215 -75.25 0.968 12.414 0.968 12.414 0.215 -75.25
7687.25 0.213 -75.336 0.968 12.307 0.968 12.307 0.213 -75.336
7712.208 0.212 -75.422 0.969 12.2 0.969 12.2 0.212 -75.422
7737.167 0.21 -75.507 0.969 12.093 0.969 12.093 0.21 -75.507
7762.125 0.208 -75.591 0.969 11.987 0.969 11.987 0.208 -75.591
7787.083 0.206 -75.675 0.97 11.882 0.97 11.882 0.206 -75.675
7812.042 0.204 -75.757 0.97 11.776 0.97 11.776 0.204 -75.757
7837 0.202 -75.84 0.971 11.672 0.971 11.672 0.202 -75.84
7861.958 0.201 -75.921 0.971 11.567 0.971 11.567 0.201 -75.921
7886.917 0.199 -76.002 0.971 11.463 0.971 11.463 0.199 -76.002
7911.875 0.197 -76.082 0.972 11.359 0.972 11.359 0.197 -76.082
7936.833 0.195 -76.161 0.972 11.256 0.972 11.256 0.195 -76.161
7961.792 0.194 -76.24 0.972 11.152 0.972 11.152 0.194 -76.24
7986.75 0.192 -76.318 0.973 11.05 0.973 11.05 0.192 -76.318
8011.708 0.19 -76.395 0.973 10.947 0.973 10.947 0.19 -76.395
8036.667 0.188 -76.471 0.973 10.845 0.973 10.845 0.188 -76.471
8061.625 0.187 -76.547 0.974 10.744 0.974 10.744 0.187 -76.547
8086.583 0.185 -76.622 0.974 10.642 0.974 10.642 0.185 -76.622
8111.542 0.183 -76.696 0.974 10.541 0.974 10.541 0.183 -76.696
8136.5 0.181 -76.77 0.975 10.441 0.975 10.441 0.181 -76.77
