# MHZ S MA R 50

50 0.991 -7.871 0.137 82.113 0.137 82.113 0.991 -7.871
74.958 0.979 -11.71 0.203 78.266 0.203 78.266 0.979 -11.71
99.917 0.964 -15.448 0.266 74.52 0.266 74.52 0.964 -15.448
124.875 0.945 -19.058 0.327 70.902 0.327 70.902 0.945 -19.058
149.833 0.923 -22.521 0.383 67.432 0.383 67.432 0.923 -22.521
174.792 0.9 -25.821 0.436 64.124 0.436 64.124 0.9 -25.821
199.75 0.875 -28.951 0.484 60.986 0.484 60.986 0.875 -28.951
224.708 0.848 -31.907 0.529 58.023 0.529 58.023 0.848 -31.907
249.667 0.821 -34.688 0.569 55.233 0.569 55.233 0.821 -34.688
274.625 0.795 -37.298 0.606 52.615 0.606 52.615 0.795 -37.298
299.583 0.768 -39.743 0.639 50.162 0.639 50.162 0.768 -39.743
324.542 0.742 -42.031 0.67 47.866 0.67 47.866 0.742 -42.031
349.5 0.716 -44.17 0.697 45.72 0.697 45.72 0.716 -44.17
374.458 0.691 -46.168 0.721 43.714 0.721 43.714 0.691 -46.168
399.417 0.667 -48.035 0.744 41.838 0.744 41.838 0.667 -48.035
424.375 0.644 -49.781 0.764 40.085 0.764 40.085 0.644 -49.781
449.333 0.622 -51.414 0.782 38.444 0.782 38.444 0.622 -51.414
474.292 0.601 -52.942 0.798 36.907 0.798 36.907 0.601 -52.942
499.25 0.58 -54.373 0.813 35.468 0.813 35.468 0.58 -54.373
524.208 0.561 -55.716 0.826 34.117 0.826 34.117 0.561 -55.716
549.167 0.542 -56.976 0.838 32.848 0.838 32.848 0.542 -56.976
574.125 0.525 -58.161 0.85 31.656 0.85 31.656 0.525 -58.161
599.083 0.508 -59.275 0.86 30.533 0.86 30.533 0.508 -59.275
624.042 0.492 -60.325 0.869 29.474 0.869 29.474 0.492 -60.325
649 0.477 -61.316 0.877 28.476 0.877 28.476 0.477 -61.316
673.958 0.462 -62.251 0.885 27.532 0.885 27.532 0.462 -62.251
698.917 0.448 -63.135 0.892 26.639 0.892 26.639 0.448 -63.135
723.875 0.435 -63.972 0.899 25.793 0.899 25.793 0.435 -63.972
748.833 0.422 -64.766 0.905 24.991 0.905 24.991 0.422 -64.766
773.792 0.41 -65.519 0.91 24.23 0.91 24.23 0.41 -65.519
798.75 0.399 -66.234 0.915 23.506 0.915 23.506 0.399 -66.234
823.708 0.388 -66.914 0.92 22.817 0.92 22.817 0.388 -66.914
848.667 0.377 -67.562 0.924 22.16 0.924 22.16 0.377 -67.562
873.625 0.367 -68.179 0.928 21.534 0.928 21.534 0.367 -68.179
898.583 0.357 -68.768 0.932 20.936 0.932 20.936 0.357 -68.768
923.542 0.348 -69.33 0.936 20.365 0.936 20.365 0.348 -69.33
948.5 0.339 -69.868 0.939 19.818 0.939 19.818 0.339 -69.868
973.458 0.33 -70.382 0.942 19.295 0.942 19.295 0.33 -70.382
998.417 0.322 -70.874 0.945 18.793 0.945 18.793 0.322 -70.874
1023.375 0.314 -71.347 0.947 18.311 0.947 18.311 0.314 -71.347
1048.333 0.307 -71.799 0.95 17.849 0.95 17.849 0.307 -71.799
1073.292 0.299 -72.234 0.952 17.404 0.952 17.404 0.299 -72.234
1098.25 0.292 -72.652 0.955 16.977 0.955 16.977 0.292 -72.652
1123.208 0.285 -73.054 0.957 16.565 0.957 16.565 0.285 -73.054
1148.167 0.278 -73.441 0.959 16.169 0.959 16.169 0.278 -73.441
1173.125 0.272 -73.813 0.96 15.786 0.96 15.786 0.272 -73.813
1198.083 0.266 -74.172 0.962 15.417 0.962 15.417 0.266 -74.172
1223.042 0.26 -74.518 0.964 15.061 0.964 15.061 0.26 -74.518
1248 0.254 -74.852 0.965 14.717 0.965 14.717 0.254 -74.852
1272.958 0.248 -75.175 0.967 14.384 0.967 14.384 0.248 -75.175
1297.917 0.243 -75.487 0.968 14.061 0.968 14.061 0.243 -75.487
1322.875 0.238 -75.788 0.969 13.749 0.969 13.749 0.238 -75.788
1347.833 0.233 -76.079 0.971 13.447 0.971 13.447 0.233 -76.079
1372.792 0.228 -76.362 0.972 13.154 0.972 13.154 0.228 -76.362
1397.75 0.223 -76.635 0.973 12.87 0.973 12.87 0.223 -76.635
1422.708 0.218 -76.9 0.974 12.594 0.974 12.594 0.218 -76.9
1447.667 0.213 -77.156 0.975 12.326 0.975 12.326 0.213 -77.156
1472.625 0.209 -77.405 0.976 12.065 0.976 12.065 0.209 -77.405
1497.583 0.205 -77.647 0.977 11.812 0.977 11.812 0.205 -77.647
1522.542 0.2 -77.881 0.978 11.565 0.978 11.565 0.2 -77.881
1547.5 0.196 -78.109 0.979 11.326 0.979 11.326 0.196 -78.109
1572.458 0.192 -78.33 0.979 11.092 0.979 11.092 0.192 -78.33
1597.417 0.189 -78.545 0.98 10.865 0.98 10.865 0.189 -78.545
1622.375 0.185 -78.754 0.981 10.643 0.981 10.643 0.185 -78.754
1647.333 0.181 -78.958 0.982 10.427 0.982 10.427 0.181 -78.958
1672.292 0.177 -79.156 0.982 10.216 0.982 10.216 0.177 -79.156
1697.25 0.174 -79.348 0.983 10.01 0.983 10.01 0.174 -79.348
1722.208 0.17 -79.536 0.983 9.809 0.983 9.809 0.17 -79.536
1747.167 0.167 -79.718 0.984 9.613 0.984 9.613 0.167 -79.718
1772.125 0.164 -79.896 0.985 9.421 0.985 9.421 0.164 -79.896
1797.083 0.16 -80.07 0.985 9.234 0.985 9.234 0.16 -80.07
1822.042 0.157 -80.239 0.986 9.05 0.986 9.05 0.157 -80.239
1847 0.154 -80.404 0.986 8.871 0.986 8.871 0.154 -80.404
1871.958 0.151 -80.564 0.987 8.695 0.987 8.695 0.151 -80.564
1896.917 0.148 -80.721 0.987 8.523 0.987 8.523 0.148 -80.721
1921.875 0.145 -80.874 0.987 8.355 0.987 8.355 0.145 -80.874
1946.833 0.142 -81.023 0.988 8.19 0.988 8.19 0.142 -81.023
1971.792 0.14 -81.169 0.988 8.028 0.988 8.028 0.14 -81.169
1996.75 0.137 -81.311 0.989 7.87 0.989 7.87 0.137 -81.311
2021.708 0.134 -81.45 0.989 7.714 0.989 7.714 0.134 -81.45
2046.667 0.132 -81.585 0.989 7.562 0.989 7.562 0.132 -81.585
2071.625 0.129 -81.718 0.99 7.412 0.99 7.412 0.129 -81.718
2096.583 0.126 -81.847 0.99 7.265 0.99 7.265 0.126 -81.847
2121.542 0.124 -81.973 0.99 7.121 0.99 7.121 0.124 -81.973
2146.5 0.122 -82.096 0.991 6.979 0.991 6.979 0.122 -82.096
2171.458 0.119 -82.216 0.991 6.84 0.991 6.84 0.119 -82.216
2196.417 0.117 -82.333 0.991 6.703 0.991 6.703 0.117 -82.333
2221.375 0.114 -82.448 0.991 6.569 0.991 6.569 0.114 -82.448
2246.333 0.112 -82.56 0.992 6.437 0.992 6.437 0.112 -82.56
2271.292 0.11 -82.669 0.992 6.306 0.992 6.306 0.11 -82.669
2296.25 0.108 -82.776 0.992 6.179 0.992 6.179 0.108 -82.776
2321.208 0.105 -82.88 0.992 6.053 0.992 6.053 0.105 -82.88
2346.167 0.103 -82.981 0.993 5.929 0.993 5.929 0.103 -82.981
2371.125 0.101 -83.08 0.993 5.807 0.993 5.807 0.101 -83.08
2396.083 0.099 -83.176 0.993 5.687 0.993 5.687 0.099 -83.176
2421.042 0.097 -83.27 0.993 5.568 0.993 5.568 0.097 -83.27
2446 0.095 -83.362 0.994 5.452 0.994 5.452 0.095 -83.362
2470.958 0.093 -83.451 0.994 5.337 0.994 5.337 0.093 -83.451
2495.917 0.091 -83.538 0.994 5.224 0.994 5.224 0.091 -83.538
2520.875 0.089 -83.622 0.994 5.112 0.994 5.112 0.089 -83.622
2545.833 0.087 -83.705 0.994 5.002 0.994 5.002 0.087 -83.705
2570.792 0.085 -83.784 0.994 4.893 0.994 4.893 0.085 -83.784
2595.75 0.083 -83.862 0.995 4.786 0.995 4.786 0.083 -83.862
2620.708 0.082 -83.937 0.995 4.681 0.995 4.681 0.082 -83.937
2645.667 0.08 -84.009 0.995 4.576 0.995 4.576 0.08 -84.009
2670.625 0.078 -84.08 0.995 4.473 0.995 4.473 0.078 -84.08
2695.583 0.076 -84.147 0.995 4.372 0.995 4.372 0.076 -84.147
2720.542 0.075 -84.213 0.995 4.272 0.995 4.272 0.075 -84.213
2745.5 0.073 -84.276 0.995 4.172 0.995 4.172 0.073 -84.276
2770.458 0.071 -84.336 0.996 4.075 0.996 4.075 0.071 -84.336
2795.417 0.069 -84.394 0.996 3.978 0.996 3.978 0.069 -84.394
2820.375 0.068 -84.45 0.996 3.882 0.996 3.882 0.068 -84.45
2845.333 0.066 -84.502 0.996 3.788 0.996 3.788 0.066 -84.502
2870.292 0.064 -84.552 0.996 3.695 0.996 3.695 0.064 -84.552
2895.25 0.063 -84.6 0.996 3.603 0.996 3.603 0.063 -84.6
2920.208 0.061 -84.644 0.996 3.511 0.996 3.511 0.061 -84.644
2945.167 0.06 -84.685 0.996 3.421 0.996 3.421 0.06 -84.685
2970.125 0.058 -84.724 0.996 3.332 0.996 3.332 0.058 -84.724
2995.083 0.057 -84.759 0.996 3.244 0.996 3.244 0.057 -84.759
3020.042 0.055 -84.791 0.997 3.156 0.997 3.156 0.055 -84.791
3045 0.054 -84.82 0.997 3.07 0.997 3.07 0.054 -84.82
3069.958 0.052 -84.845 0.997 2.985 0.997 2.985 0.052 -84.845
3094.917 0.051 -84.866 0.997 2.9 0.997 2.9 0.051 -84.866
3119.875 0.049 -84.883 0.997 2.816 0.997 2.816 0.049 -84.883
3144.833 0.048 -84.896 0.997 2.733 0.997 2.733 0.048 -84.896
3169.792 0.046 -84.905 0.997 2.651 0.997 2.651 0.046 -84.905
3194.75 0.045 -84.909 0.997 2.57 0.997 2.57 0.045 -84.909
3219.708 0.043 -84.908 0.997 2.489 0.997 2.489 0.043 -84.908
3244.667 0.042 -84.902 0.997 2.41 0.997 2.41 0.042 -84.902
3269.625 0.041 -84.889 0.997 2.331 0.997 2.331 0.041 -84.889
3294.583 0.039 -84.871 0.997 2.252 0.997 2.252 0.039 -84.871
3319.542 0.038 -84.846 0.997 2.175 0.997 2.175 0.038 -84.846
3344.5 0.037 -84.814 0.997 2.098 0.997 2.098 0.037 -84.814
3369.458 0.035 -84.774 0.997 2.022 0.997 2.022 0.035 -84.774
3394.417 0.034 -84.725 0.997 1.946 0.997 1.946 0.034 -84.725
3419.375 0.033 -84.667 0.997 1.871 0.997 1.871 0.033 -84.667
3444.333 0.031 -84.599 0.998 1.797 0.998 1.797 0.031 -84.599
3469.292 0.03 -84.519 0.998 1.723 0.998 1.723 0.03 -84.519
3494.25 0.029 -84.426 0.998 1.65 0.998 1.65 0.029 -84.426
3519.208 0.028 -84.319 0.998 1.578 0.998 1.578 0.028 -84.319
3544.167 0.026 -84.196 0.998 1.506 0.998 1.506 0.026 -84.196
3569.125 0.025 -84.054 0.998 1.435 0.998 1.435 0.025 -84.054
3594.083 0.024 -83.892 0.998 1.364 0.998 1.364 0.024 -83.892
3619.042 0.023 -83.706 0.998 1.294 0.998 1.294 0.023 -83.706
3644 0.021 -83.493 0.998 1.225 0.998 1.225 0.021 -83.493
3668.958 0.02 -83.248 0.998 1.155 0.998 1.155 0.02 -83.248
3693.917 0.019 -82.966 0.998 1.087 0.998 1.087 0.019 -82.966
3718.875 0.018 -82.64 0.998 1.019 0.998 1.019 0.018 -82.64
3743.833 0.017 -82.261 0.998 0.951 0.998 0.951 0.017 -82.261
3768.792 0.016 -81.819 0.998 0.884 0.998 0.884 0.016 -81.819
3793.75 0.014 -81.298 0.998 0.818 0.998 0.818 0.014 -81.298
3818.708 0.013 -80.681 0.998 0.752 0.998 0.752 0.013 -80.681
3843.667 0.012 -79.94 0.998 0.686 0.998 0.686 0.012 -79.94
3868.625 0.011 -79.041 0.998 0.621 0.998 0.621 0.011 -79.041
3893.583 9.902e-3 -77.932 0.998 0.556 0.998 0.556 9.902e-3 -77.932
3918.542 8.805e-3 -76.538 0.998 0.492 0.998 0.492 8.805e-3 -76.538
3943.5 7.722e-3 -74.745 0.998 0.428 0.998 0.428 7.722e-3 -74.745
3968.458 6.658e-3 -72.368 0.998 0.364 0.998 0.364 6.658e-3 -72.368
3993.417 5.616e-3 -69.096 0.998 0.301 0.998 0.301 5.616e-3 -69.096
4018.375 4.609e-3 -64.369 0.998 0.239 0.998 0.239 4.609e-3 -64.369
4043.333 3.657e-3 -57.109 0.998 0.176 0.998 0.176 3.657e-3 -57.109
4068.292 2.809e-3 -45.182 0.998 0.114 0.998 0.114 2.809e-3 -45.182
4093.25 2.181e-3 -24.996 0.998 0.053 0.998 0.053 2.181e-3 -24.996
4118.208 1.981e-3 4.131 0.998 -8.194e-3 0.998 -8.194e-3 1.981e-3 4.131
4143.167 2.314e-3 31.265 0.998 -0.069 0.998 -0.069 2.314e-3 31.265
4168.125 3e-3 48.666 0.998 -0.129 0.998 -0.129 3e-3 48.666
4193.083 3.851e-3 58.931 0.998 -0.189 0.998 -0.189 3.851e-3 58.931
4218.042 4.774e-3 65.3 0.998 -0.249 0.998 -0.249 4.774e-3 65.3
4243 5.733e-3 69.528 0.998 -0.308 0.998 -0.308 5.733e-3 69.528
4267.958 6.709e-3 72.501 0.998 -0.367 0.998 -0.367 6.709e-3 72.501
4292.917 7.693e-3 74.689 0.998 -0.426 0.998 -0.426 7.693e-3 74.689
4317.875 8.681e-3 76.357 0.998 -0.484 0.998 -0.484 8.681e-3 76.357
4342.833 9.67e-3 77.665 0.998 -0.542 0.998 -0.542 9.67e-3 77.665
4367.792 0.011 78.714 0.998 -0.6 0.998 -0.6 0.011 78.714
4392.75 0.012 79.571 0.998 -0.657 0.998 -0.657 0.012 79.571
4417.708 0.013 80.281 0.998 -0.715 0.998 -0.715 0.013 80.281
4442.667 0.014 80.878 0.998 -0.771 0.998 -0.771 0.014 80.878
4467.625 0.015 81.384 0.998 -0.828 0.998 -0.828 0.015 81.384
4492.583 0.016 81.817 0.998 -0.884 0.998 -0.884 0.016 81.817
4517.542 0.017 82.191 0.998 -0.94 0.998 -0.94 0.017 82.191
4542.5 0.017 82.516 0.998 -0.996 0.998 -0.996 0.017 82.516
4567.458 0.018 82.8 0.998 -1.051 0.998 -1.051 0.018 82.8
4592.417 0.019 83.049 0.998 -1.106 0.998 -1.106 0.019 83.049
4617.375 0.02 83.269 0.998 -1.161 0.998 -1.161 0.02 83.269
4642.333 0.021 83.463 0.998 -1.215 0.998 -1.215 0.021 83.463
4667.292 0.022 83.635 0.998 -1.27 0.998 -1.27 0.022 83.635
4692.25 0.023 83.788 0.998 -1.324 0.998 -1.324 0.023 83.788
4717.208 0.024 83.924 0.998 -1.377 0.998 -1.377 0.024 83.924
4742.167 0.025 84.046 0.998 -1.431 0.998 -1.431 0.025 84.046
4767.125 0.026 84.154 0.998 -1.484 0.998 -1.484 0.026 84.154
4792.083 0.027 84.251 0.998 -1.537 0.998 -1.537 0.027 84.251
4817.042 0.028 84.338 0.998 -1.59 0.998 -1.59 0.028 84.338
4842 0.029 84.415 0.998 -1.643 0.998 -1.643 0.029 84.415
4866.958 0.03 84.484 0.998 -1.695 0.998 -1.695 0.03 84.484
4891.917 0.031 84.546 0.998 -1.747 0.998 -1.747 0.031 84.546
4916.875 0.031 84.601 0.998 -1.799 0.998 -1.799 0.031 84.601
4941.833 0.032 84.649 0.998 -1.851 0.998 -1.851 0.032 84.649
4966.792 0.033 84.692 0.997 -1.902 0.997 -1.902 0.033 84.692
4991.75 0.034 84.73 0.997 -1.953 0.997 -1.953 0.034 84.73
5016.708 0.035 84.764 0.997 -2.005 0.997 -2.005 0.035 84.764
5041.667 0.036 84.793 0.997 -2.055 0.997 -2.055 0.036 84.793
5066.625 0.037 84.818 0.997 -2.106 0.997 -2.106 0.037 84.818
5091.583 0.038 84.839 0.997 -2.156 0.997 -2.156 0.038 84.839
5116.542 0.039 84.857 0.997 -2.207 0.997 -2.207 0.039 84.857
5141.5 0.039 84.872 0.997 -2.257 0.997 -2.257 0.039 84.872
5166.458 0.04 84.884 0.997 -2.307 0.997 -2.307 0.04 84.884
5191.417 0.041 84.894 0.997 -2.356 0.997 -2.356 0.041 84.894
5216.375 0.042 84.901 0.997 -2.406 0.997 -2.406 0.042 84.901
5241.333 0.043 84.906 0.997 -2.455 0.997 -2.455 0.043 84.906
5266.292 0.044 84.908 0.997 -2.504 0.997 -2.504 0.044 84.908
5291.25 0.045 84.909 0.997 -2.553 0.997 -2.553 0.045 84.909
5316.208 0.045 84.908 0.997 -2.602 0.997 -2.602 0.045 84.908
5341.167 0.046 84.905 0.997 -2.65 0.997 -2.65 0.046 84.905
5366.125 0.047 84.9 0.997 -2.699 0.997 -2.699 0.047 84.9
5391.083 0.048 84.894 0.997 -2.747 0.997 -2.747 0.048 84.894
5416.042 0.049 84.887 0.997 -2.795 0.997 -2.795 0.049 84.887
5441 0.05 84.878 0.997 -2.843 0.997 -2.843 0.05 84.878
5465.958 0.05 84.868 0.997 -2.891 0.997 -2.891 0.05 84.868
5490.917 0.051 84.857 0.997 -2.938 0.997 -2.938 0.051 84.857
5515.875 0.052 84.844 0.997 -2.986 0.997 -2.986 0.052 84.844
5540.833 0.053 84.831 0.997 -3.033 0.997 -3.033 0.053 84.831
5565.792 0.054 84.817 0.997 -3.08 0.997 -3.08 0.054 84.817
5590.75 0.055 84.801 0.997 -3.127 0.997 -3.127 0.055 84.801
5615.708 0.055 84.785 0.996 -3.174 0.996 -3.174 0.055 84.785
5640.667 0.056 84.768 0.996 -3.22 0.996 -3.22 0.056 84.768
5665.625 0.057 84.75 0.996 -3.267 0.996 -3.267 0.057 84.75
5690.583 0.058 84.732 0.996 -3.313 0.996 -3.313 0.058 84.732
5715.542 0.059 84.712 0.996 -3.359 0.996 -3.359 0.059 84.712
5740.5 0.059 84.692 0.996 -3.405 0.996 -3.405 0.059 84.692
5765.458 0.06 84.672 0.996 -3.451 0.996 -3.451 0.06 84.672
5790.417 0.061 84.651 0.996 -3.497 0.996 -3.497 0.061 84.651
5815.375 0.062 84.629 0.996 -3.543 0.996 -3.543 0.062 84.629
5840.333 0.063 84.607 0.996 -3.588 0.996 -3.588 0.063 84.607
5865.292 0.063 84.584 0.996 -3.634 0.996 -3.634 0.063 84.584
5890.25 0.064 84.561 0.996 -3.679 0.996 -3.679 0.064 84.561
5915.208 0.065 84.537 0.996 -3.724 0.996 -3.724 0.065 84.537
5940.167 0.066 84.513 0.996 -3.769 0.996 -3.769 0.066 84.513
5965.125 0.067 84.488 0.996 -3.814 0.996 -3.814 0.067 84.488
5990.083 0.067 84.463 0.996 -3.859 0.996 -3.859 0.067 84.463
6015.042 0.068 84.438 0.996 -3.903 0.996 -3.903 0.068 84.438
6040 0.069 84.412 0.996 -3.948 0.996 -3.948 0.069 84.412
6064.958 0.07 84.386 0.996 -3.992 0.996 -3.992 0.07 84.386
6089.917 0.07 84.359 0.996 -4.036 0.996 -4.036 0.07 84.359
6114.875 0.071 84.333 0.995 -4.08 0.995 -4.08 0.071 84.333
6139.833 0.072 84.306 0.995 -4.124 0.995 -4.124 0.072 84.306
6164.792 0.073 84.278 0.995 -4.168 0.995 -4.168 0.073 84.278
6189.75 0.073 84.251 0.995 -4.212 0.995 -4.212 0.073 84.251
6214.708 0.074 84.223 0.995 -4.256 0.995 -4.256 0.074 84.223
6239.667 0.075 84.195 0.995 -4.299 0.995 -4.299 0.075 84.195
6264.625 0.076 84.167 0.995 -4.343 0.995 -4.343 0.076 84.167
6289.583 0.077 84.138 0.995 -4.386 0.995 -4.386 0.077 84.138
6314.542 0.077 84.109 0.995 -4.429 0.995 -4.429 0.077 84.109
6339.5 0.078 84.08 0.995 -4.472 0.995 -4.472 0.078 84.08
6364.458 0.079 84.051 0.995 -4.515 0.995 -4.515 0.079 84.051
6389.417 0.079 84.022 0.995 -4.558 0.995 -4.558 0.079 84.022
6414.375 0.08 83.992 0.995 -4.601 0.995 -4.601 0.08 83.992
6439.333 0.081 83.962 0.995 -4.644 0.995 -4.644 0.081 83.962
6464.292 0.082 83.933 0.995 -4.686 0.995 -4.686 0.082 83.933
6489.25 0.082 83.902 0.995 -4.729 0.995 -4.729 0.082 83.902
6514.208 0.083 83.872 0.995 -4.771 0.995 -4.771 0.083 83.872
6539.167 0.084 83.842 0.995 -4.814 0.995 -4.814 0.084 83.842
6564.125 0.085 83.811 0.994 -4.856 0.994 -4.856 0.085 83.811
6589.083 0.085 83.781 0.994 -4.898 0.994 -4.898 0.085 83.781
6614.042 0.086 83.75 0.994 -4.94 0.994 -4.94 0.086 83.75
6639 0.087 83.719 0.994 -4.982 0.994 -4.982 0.087 83.719
6663.958 0.088 83.688 0.994 -5.024 0.994 -5.024 0.088 83.688
6688.917 0.088 83.657 0.994 -5.066 0.994 -5.066 0.088 83.657
6713.875 0.089 83.626 0.994 -5.107 0.994 -5.107 0.089 83.626
6738.833 0.09 83.595 0.994 -5.149 0.994 -5.149 0.09 83.595
6763.792 0.09 83.563 0.994 -5.19 0.994 -5.19 0.09 83.563
6788.75 0.091 83.532 0.994 -5.232 0.994 -5.232 0.091 83.532
6813.708 0.092 83.5 0.994 -5.273 0.994 -5.273 0.092 83.5
6838.667 0.093 83.469 0.994 -5.314 0.994 -5.314 0.093 83.469
6863.625 0.093 83.437 0.994 -5.355 0.994 -5.355 0.093 83.437
6888.583 0.094 83.405 0.994 -5.396 0.994 -5.396 0.094 83.405
6913.542 0.095 83.373 0.994 -5.437 0.994 -5.437 0.095 83.373
6938.5 0.095 83.341 0.993 -5.478 0.993 -5.478 0.095 83.341
6963.458 0.096 83.309 0.993 -5.519 0.993 -5.519 0.096 83.309
6988.417 0.097 83.277 0.993 -5.56 0.993 -5.56 0.097 83.277
7013.375 0.098 83.245 0.993 -5.6 0.993 -5.6 0.098 83.245
7038.333 0.098 83.213 0.993 -5.641 0.993 -5.641 0.098 83.213
7063.292 0.099 83.181 0.993 -5.681 0.993 -5.681 0.099 83.181
7088.25 0.1 83.148 0.993 -5.722 0.993 -5.722 0.1 83.148
7113.208 0.1 83.116 0.993 -5.762 0.993 -5.762 0.1 83.116
7138.167 0.101 83.084 0.993 -5.802 0.993 -5.802 0.101 83.084
7163.125 0.102 83.051 0.993 -5.842 0.993 -5.842 0.102 83.051
7188.083 0.103 83.019 0.993 -5.883 0.993 -5.883 0.103 83.019
7213.042 0.103 82.986 0.993 -5.923 0.993 -5.923 0.103 82.986
7238 0.104 82.953 0.993 -5.963 0.993 -5.963 0.104 82.953
7262.958 0.105 82.921 0.993 -6.002 0.993 -6.002 0.105 82.921
7287.917 0.105 82.888 0.992 -6.042 0.992 -6.042 0.105 82.888
7312.875 0.106 82.855 0.992 -6.082 0.992 -6.082 0.106 82.855
7337.833 0.107 82.823 0.992 -6.122 0.992 -6.122 0.107 82.823
7362.792 0.107 82.79 0.992 -6.161 0.992 -6.161 0.107 82.79
7387.75 0.108 82.757 0.992 -6.201 0.992 -6.201 0.108 82.757
7412.708 0.109 82.724 0.992 -6.24 0.992 -6.24 0.109 82.724
7437.667 0.109 82.692 0.992 -6.279 0.992 -6.279 0.109 82.692
7462.625 0.11 82.659 0.992 -6.319 0.992 -6.319 0.11 82.659
7487.583 0.111 82.626 0.992 -6.358 0.992 -6.358 0.111 82.626
7512.542 0.111 82.593 0.992 -6.397 0.992 -6.397 0.111 82.593
7537.5 0.112 82.56 0.992 -6.436 0.992 -6.436 0.112 82.56
7562.458 0.113 82.527 0.992 -6.475 0.992 -6.475 0.113 82.527
7587.417 0.113 82.494 0.992 -6.514 0.992 -6.514 0.113 82.494
7612.375 0.114 82.461 0.992 -6.553 0.992 -6.553 0.114 82.461
7637.333 0.115 82.428 0.991 -6.592 0.991 -6.592 0.115 82.428
7662.292 0.115 82.395 0.991 -6.631 0.991 -6.631 0.115 82.395
7687.25 0.116 82.362 0.991 -6.67 0.991 -6.67 0.116 82.362
7712.208 0.117 82.329 0.991 -6.708 0.991 -6.708 0.117 82.329
7737.167 0.118 82.296 0.991 -6.747 0.991 -6.747 0.118 82.296
7762.125 0.118 82.263 0.991 -6.785 0.991 -6.785 0.118 82.263
7787.083 0.119 82.23 0.991 -6.824 0.991 -6.824 0.119 82.23
7812.042 0.12 82.197 0.991 -6.862 0.991 -6.862 0.12 82.197
7837 0.12 82.164 0.991 -6.901 0.991 -6.901 0.12 82.164
7861.958 0.121 82.131 0.991 -6.939 0.991 -6.939 0.121 82.131
7886.917 0.121 82.098 0.991 -6.977 0.991 -6.977 0.121 82.098
7911.875 0.122 82.064 0.991 -7.015 0.991 -7.015 0.122 82.064
7936.833 0.123 82.031 0.99 -7.054 0.99 -7.054 0.123 82.031
7961.792 0.123 81.998 0.99 -7.092 0.99 -7.092 0.123 81.998
7986.75 0.124 81.965 0.99 -7.13 0.99 -7.13 0.124 81.965
8011.708 0.125 81.932 0.99 -7.168 0.99 -7.168 0.125 81.932
8036.667 0.125 81.899 0.99 -7.206 0.99 -7.206 0.125 81.899
8061.625 0.126 81.866 0.99 -7.243 0.99 -7.243 0.126 81.866
8086.583 0.127 81.833 0.99 -7.281 0.99 -7.281 0.127 81.833
8111.542 0.127 81.8 0.99 -7.319 0.99 -7.319 0.127 81.8
8136.5 0.128 81.766 0.99 -7.357 0.99 -7.357 0.128 81.766
8161.458 0.129 81.733 0.99 -7.394 0.99 -7.394 0.129 81.733
8186.417 0.129 81.7 0.99 -7.432 0.99 -7.432 0.129 81.7
8211.375 0.13 81.667 0.99 -7.469 0.99 -7.469 0.13 81.667
8236.333 0.131 81.634 0.989 -7.507 0.989 -7.507 0.131 81.634
8261.292 0.131 81.601 0.989 -7.544 0.989 -7.544 0.131 81.601
