# MHZ S MA R 50

50 0.846 -32.143 0.532 57.808 0.532 57.808 0.846 -32.143
74.958 0.727 -43.291 0.686 46.635 0.686 46.635 0.727 -43.291
99.917 0.622 -51.47 0.782 38.432 0.782 38.432 0.622 -51.47
124.875 0.535 -57.5 0.843 32.377 0.843 32.377 0.535 -57.5
149.833 0.467 -62.037 0.883 27.816 0.883 27.816 0.467 -62.037
174.792 0.411 -65.533 0.91 24.294 0.91 24.294 0.411 -65.533
199.75 0.367 -68.292 0.929 21.51 0.929 21.51 0.367 -68.292
224.708 0.33 -70.514 0.943 19.263 0.943 19.263 0.33 -70.514
249.667 0.299 -72.338 0.953 17.414 0.953 17.414 0.299 -72.338
274.625 0.273 -73.858 0.961 15.868 0.961 15.868 0.273 -73.858
299.583 0.251 -75.143 0.967 14.557 0.967 14.557 0.251 -75.143
324.542 0.232 -76.242 0.971 13.432 0.971 13.432 0.232 -76.242
349.5 0.216 -77.193 0.975 12.455 0.975 12.455 0.216 -77.193
374.458 0.201 -78.022 0.978 11.599 0.978 11.599 0.201 -78.022
399.417 0.188 -78.752 0.981 10.842 0.981 10.842 0.188 -78.752
424.375 0.177 -79.398 0.983 10.168 0.983 10.168 0.177 -79.398
449.333 0.166 -79.974 0.985 9.564 0.985 9.564 0.166 -79.974
474.292 0.157 -80.491 0.986 9.018 0.986 9.018 0.157 -80.491
499.25 0.148 -80.957 0.988 8.524 0.988 8.524 0.148 -80.957
524.208 0.14 -81.379 0.989 8.072 0.989 8.072 0.14 -81.379
549.167 0.133 -81.762 0.99 7.659 0.99 7.659 0.133 -81.762
574.125 0.127 -82.112 0.991 7.278 0.991 7.278 0.127 -82.112
599.083 0.121 -82.433 0.991 6.927 0.991 6.927 0.121 -82.433
624.042 0.115 -82.727 0.992 6.601 0.992 6.601 0.115 -82.727
649 0.11 -82.997 0.993 6.297 0.993 6.297 0.11 -82.997
673.958 0.105 -83.247 0.993 6.014 0.993 6.014 0.105 -83.247
698.917 0.1 -83.478 0.994 5.749 0.994 5.749 0.1 -83.478
723.875 0.096 -83.692 0.994 5.5 0.994 5.5 0.096 -83.692
748.833 0.092 -83.89 0.994 5.266 0.994 5.266 0.092 -83.89
773.792 0.088 -84.073 0.995 5.045 0.995 5.045 0.088 -84.073
798.75 0.084 -84.244 0.995 4.836 0.995 4.836 0.084 -84.244
823.708 0.081 -84.403 0.995 4.638 0.995 4.638 0.081 -84.403
848.667 0.078 -84.55 0.996 4.45 0.996 4.45 0.078 -84.55
873.625 0.074 -84.687 0.996 4.271 0.996 4.271 0.074 -84.687
898.583 0.072 -84.814 0.996 4.101 0.996 4.101 0.072 -84.814
923.542 0.069 -84.932 0.996 3.938 0.996 3.938 0.069 -84.932
948.5 0.066 -85.041 0.996 3.782 0.996 3.782 0.066 -85.041
973.458 0.063 -85.141 0.997 3.633 0.997 3.633 0.063 -85.141
998.417 0.061 -85.234 0.997 3.49 0.997 3.49 0.061 -85.234
1023.375 0.058 -85.319 0.997 3.353 0.997 3.353 0.058 -85.319
1048.333 0.056 -85.397 0.997 3.221 0.997 3.221 0.056 -85.397
1073.292 0.054 -85.467 0.997 3.093 0.997 3.093 0.054 -85.467
1098.25 0.052 -85.53 0.997 2.971 0.997 2.971 0.052 -85.53
1123.208 0.05 -85.586 0.997 2.852 0.997 2.852 0.05 -85.586
1148.167 0.048 -85.635 0.998 2.738 0.998 2.738 0.048 -85.635
1173.125 0.046 -85.677 0.998 2.627 0.998 2.627 0.046 -85.677
1198.083 0.044 -85.712 0.998 2.52 0.998 2.52 0.044 -85.712
1223.042 0.042 -85.74 0.998 2.416 0.998 2.416 0.042 -85.74
1248 0.04 -85.761 0.998 2.315 0.998 2.315 0.04 -85.761
1272.958 0.039 -85.774 0.998 2.217 0.998 2.217 0.039 -85.774
1297.917 0.037 -85.779 0.998 2.121 0.998 2.121 0.037 -85.779
1322.875 0.035 -85.775 0.998 2.029 0.998 2.029 0.035 -85.775
1347.833 0.034 -85.763 0.998 1.938 0.998 1.938 0.034 -85.763
1372.792 0.032 -85.742 0.998 1.85 0.998 1.85 0.032 -85.742
1397.75 0.031 -85.711 0.998 1.765 0.998 1.765 0.031 -85.711
1422.708 0.029 -85.669 0.998 1.681 0.998 1.681 0.029 -85.669
1447.667 0.028 -85.615 0.998 1.599 0.998 1.599 0.028 -85.615
1472.625 0.027 -85.549 0.998 1.519 0.998 1.519 0.027 -85.549
1497.583 0.025 -85.468 0.998 1.441 0.998 1.441 0.025 -85.468
1522.542 0.024 -85.372 0.998 1.365 0.998 1.365 0.024 -85.372
1547.5 0.023 -85.258 0.998 1.29 0.998 1.29 0.023 -85.258
1572.458 0.021 -85.124 0.998 1.216 0.998 1.216 0.021 -85.124
1597.417 0.02 -84.966 0.998 1.145 0.998 1.145 0.02 -84.966
1622.375 0.019 -84.782 0.998 1.074 0.998 1.074 0.019 -84.782
1647.333 0.018 -84.568 0.998 1.005 0.998 1.005 0.018 -84.568
1672.292 0.016 -84.316 0.999 0.937 0.999 0.937 0.016 -84.316
1697.25 0.015 -84.021 0.999 0.87 0.999 0.87 0.015 -84.021
1722.208 0.014 -83.673 0.999 0.805 0.999 0.805 0.014 -83.673
1747.167 0.013 -83.261 0.999 0.741 0.999 0.741 0.013 -83.261
1772.125 0.012 -82.767 0.999 0.677 0.999 0.677 0.012 -82.767
1797.083 0.011 -82.172 0.999 0.615 0.999 0.615 0.011 -82.172
1822.042 9.755e-3 -81.443 0.999 0.553 0.999 0.553 9.755e-3 -81.443
1847 8.712e-3 -80.538 0.999 0.493 0.999 0.493 8.712e-3 -80.538
1871.958 7.688e-3 -79.391 0.999 0.434 0.999 0.434 7.688e-3 -79.391
1896.917 6.683e-3 -77.899 0.999 0.375 0.999 0.375 6.683e-3 -77.899
1921.875 5.699e-3 -75.894 0.999 0.317 0.999 0.317 5.699e-3 -75.894
1946.833 4.738e-3 -73.082 0.999 0.26 0.999 0.26 4.738e-3 -73.082
1971.792 3.808e-3 -68.899 0.999 0.204 0.999 0.204 3.808e-3 -68.899
1996.75 2.923e-3 -62.165 0.999 0.148 0.999 0.148 2.923e-3 -62.165
2021.708 2.123e-3 -50.139 0.999 0.094 0.999 0.094 2.123e-3 -50.139
2046.667 1.522e-3 -26.811 0.999 0.039 0.999 0.039 1.522e-3 -26.811
2071.625 1.38e-3 10.224 0.999 -0.014 0.999 -0.014 1.38e-3 10.224
2096.583 1.791e-3 40.605 0.999 -0.067 0.999 -0.067 1.791e-3 40.605
2121.542 2.483e-3 56.713 0.999 -0.119 0.999 -0.119 2.483e-3 56.713
2146.5 3.274e-3 65.318 0.999 -0.171 0.999 -0.171 3.274e-3 65.318
2171.458 4.101e-3 70.436 0.999 -0.222 0.999 -0.222 4.101e-3 70.436
2196.417 4.941e-3 73.772 0.999 -0.272 0.999 -0.272 4.941e-3 73.772
2221.375 5.784e-3 76.096 0.999 -0.322 0.999 -0.322 5.784e-3 76.096
2246.333 6.625e-3 77.799 0.999 -0.372 0.999 -0.372 6.625e-3 77.799
2271.292 7.463e-3 79.094 0.999 -0.42 0.999 -0.42 7.463e-3 79.094
2296.25 8.296e-3 80.108 0.999 -0.469 0.999 -0.469 8.296e-3 80.108
2321.208 9.122e-3 80.921 0.999 -0.517 0.999 -0.517 9.122e-3 80.921
2346.167 9.943e-3 81.585 0.999 -0.564 0.999 -0.564 9.943e-3 81.585
2371.125 0.011 82.136 0.999 -0.611 0.999 -0.611 0.011 82.136
2396.083 0.012 82.598 0.999 -0.658 0.999 -0.658 0.012 82.598
2421.042 0.012 82.991 0.999 -0.704 0.999 -0.704 0.012 82.991
2446 0.013 83.328 0.999 -0.75 0.999 -0.75 0.013 83.328
2470.958 0.014 83.618 0.999 -0.796 0.999 -0.796 0.014 83.618
2495.917 0.015 83.871 0.999 -0.841 0.999 -0.841 0.015 83.871
2520.875 0.016 84.092 0.999 -0.885 0.999 -0.885 0.016 84.092
2545.833 0.016 84.286 0.999 -0.93 0.999 -0.93 0.016 84.286
2570.792 0.017 84.457 0.998 -0.974 0.998 -0.974 0.017 84.457
2595.75 0.018 84.609 0.998 -1.017 0.998 -1.017 0.018 84.609
2620.708 0.019 84.744 0.998 -1.061 0.998 -1.061 0.019 84.744
2645.667 0.019 84.864 0.998 -1.104 0.998 -1.104 0.019 84.864
2670.625 0.02 84.971 0.998 -1.146 0.998 -1.146 0.02 84.971
2695.583 0.021 85.067 0.998 -1.189 0.998 -1.189 0.021 85.067
2720.542 0.022 85.152 0.998 -1.231 0.998 -1.231 0.022 85.152
2745.5 0.022 85.229 0.998 -1.273 0.998 -1.273 0.022 85.229
2770.458 0.023 85.298 0.998 -1.314 0.998 -1.314 0.023 85.298
2795.417 0.024 85.36 0.998 -1.356 0.998 -1.356 0.024 85.36
2820.375 0.024 85.415 0.998 -1.397 0.998 -1.397 0.024 85.415
2845.333 0.025 85.464 0.998 -1.438 0.998 -1.438 0.025 85.464
2870.292 0.026 85.509 0.998 -1.478 0.998 -1.478 0.026 85.509
2895.25 0.027 85.548 0.998 -1.518 0.998 -1.518 0.027 85.548
2920.208 0.027 85.584 0.998 -1.558 0.998 -1.558 0.027 85.584
2945.167 0.028 85.615 0.998 -1.598 0.998 -1.598 0.028 85.615
2970.125 0.029 85.643 0.998 -1.638 0.998 -1.638 0.029 85.643
2995.083 0.029 85.667 0.998 -1.677 0.998 -1.677 0.029 85.667
3020.042 0.03 85.688 0.998 -1.716 0.998 -1.716 0.03 85.688
3045 0.031 85.707 0.998 -1.755 0.998 -1.755 0.031 85.707
3069.958 0.031 85.723 0.998 -1.794 0.998 -1.794 0.031 85.723
3094.917 0.032 85.737 0.998 -1.833 0.998 -1.833 0.032 85.737
3119.875 0.033 85.748 0.998 -1.871 0.998 -1.871 0.033 85.748
3144.833 0.033 85.758 0.998 -1.909 0.998 -1.909 0.033 85.758
3169.792 0.034 85.765 0.998 -1.947 0.998 -1.947 0.034 85.765
3194.75 0.035 85.771 0.998 -1.985 0.998 -1.985 0.035 85.771
3219.708 0.035 85.775 0.998 -2.023 0.998 -2.023 0.035 85.775
3244.667 0.036 85.777 0.998 -2.06 0.998 -2.06 0.036 85.777
3269.625 0.037 85.779 0.998 -2.098 0.998 -2.098 0.037 85.779
3294.583 0.037 85.778 0.998 -2.135 0.998 -2.135 0.037 85.778
3319.542 0.038 85.777 0.998 -2.172 0.998 -2.172 0.038 85.777
3344.5 0.039 85.774 0.998 -2.209 0.998 -2.209 0.039 85.774
3369.458 0.039 85.771 0.998 -2.245 0.998 -2.245 0.039 85.771
3394.417 0.04 85.766 0.998 -2.282 0.998 -2.282 0.04 85.766
3419.375 0.04 85.76 0.998 -2.318 0.998 -2.318 0.04 85.76
3444.333 0.041 85.754 0.998 -2.354 0.998 -2.354 0.041 85.754
3469.292 0.042 85.746 0.998 -2.39 0.998 -2.39 0.042 85.746
3494.25 0.042 85.738 0.998 -2.426 0.998 -2.426 0.042 85.738
3519.208 0.043 85.729 0.998 -2.462 0.998 -2.462 0.043 85.729
3544.167 0.044 85.719 0.998 -2.498 0.998 -2.498 0.044 85.719
3569.125 0.044 85.708 0.998 -2.534 0.998 -2.534 0.044 85.708
3594.083 0.045 85.697 0.998 -2.569 0.998 -2.569 0.045 85.697
3619.042 0.045 85.685 0.998 -2.604 0.998 -2.604 0.045 85.685
3644 0.046 85.673 0.998 -2.639 0.998 -2.639 0.046 85.673
3668.958 0.047 85.66 0.998 -2.675 0.998 -2.675 0.047 85.66
3693.917 0.047 85.647 0.998 -2.71 0.998 -2.71 0.047 85.647
3718.875 0.048 85.633 0.997 -2.744 0.997 -2.744 0.048 85.633
3743.833 0.049 85.618 0.997 -2.779 0.997 -2.779 0.049 85.618
3768.792 0.049 85.603 0.997 -2.814 0.997 -2.814 0.049 85.603
3793.75 0.05 85.588 0.997 -2.848 0.997 -2.848 0.05 85.588
3818.708 0.05 85.572 0.997 -2.883 0.997 -2.883 0.05 85.572
3843.667 0.051 85.556 0.997 -2.917 0.997 -2.917 0.051 85.556
3868.625 0.052 85.54 0.997 -2.951 0.997 -2.951 0.052 85.54
3893.583 0.052 85.523 0.997 -2.985 0.997 -2.985 0.052 85.523
3918.542 0.053 85.506 0.997 -3.019 0.997 -3.019 0.053 85.506
3943.5 0.053 85.488 0.997 -3.053 0.997 -3.053 0.053 85.488
3968.458 0.054 85.47 0.997 -3.087 0.997 -3.087 0.054 85.47
3993.417 0.054 85.452 0.997 -3.121 0.997 -3.121 0.054 85.452
4018.375 0.055 85.434 0.997 -3.154 0.997 -3.154 0.055 85.434
4043.333 0.056 85.415 0.997 -3.188 0.997 -3.188 0.056 85.415
4068.292 0.056 85.396 0.997 -3.221 0.997 -3.221 0.056 85.396
4093.25 0.057 85.377 0.997 -3.255 0.997 -3.255 0.057 85.377
4118.208 0.057 85.358 0.997 -3.288 0.997 -3.288 0.057 85.358
4143.167 0.058 85.338 0.997 -3.321 0.997 -3.321 0.058 85.338
4168.125 0.059 85.318 0.997 -3.354 0.997 -3.354 0.059 85.318
4193.083 0.059 85.298 0.997 -3.387 0.997 -3.387 0.059 85.298
4218.042 0.06 85.278 0.997 -3.42 0.997 -3.42 0.06 85.278
4243 0.06 85.257 0.997 -3.453 0.997 -3.453 0.06 85.257
4267.958 0.061 85.237 0.997 -3.486 0.997 -3.486 0.061 85.237
4292.917 0.061 85.216 0.997 -3.519 0.997 -3.519 0.061 85.216
4317.875 0.062 85.195 0.997 -3.551 0.997 -3.551 0.062 85.195
4342.833 0.063 85.174 0.997 -3.584 0.997 -3.584 0.063 85.174
4367.792 0.063 85.152 0.997 -3.616 0.997 -3.616 0.063 85.152
4392.75 0.064 85.131 0.997 -3.649 0.997 -3.649 0.064 85.131
4417.708 0.064 85.109 0.997 -3.681 0.997 -3.681 0.064 85.109
4442.667 0.065 85.088 0.997 -3.714 0.997 -3.714 0.065 85.088
4467.625 0.065 85.066 0.997 -3.746 0.997 -3.746 0.065 85.066
4492.583 0.066 85.044 0.996 -3.778 0.996 -3.778 0.066 85.044
4517.542 0.066 85.022 0.996 -3.81 0.996 -3.81 0.066 85.022
4542.5 0.067 84.999 0.996 -3.842 0.996 -3.842 0.067 84.999
4567.458 0.068 84.977 0.996 -3.874 0.996 -3.874 0.068 84.977
4592.417 0.068 84.954 0.996 -3.906 0.996 -3.906 0.068 84.954
4617.375 0.069 84.932 0.996 -3.938 0.996 -3.938 0.069 84.932
4642.333 0.069 84.909 0.996 -3.97 0.996 -3.97 0.069 84.909
4667.292 0.07 84.886 0.996 -4.001 0.996 -4.001 0.07 84.886
4692.25 0.07 84.863 0.996 -4.033 0.996 -4.033 0.07 84.863
4717.208 0.071 84.84 0.996 -4.065 0.996 -4.065 0.071 84.84
4742.167 0.071 84.817 0.996 -4.096 0.996 -4.096 0.071 84.817
4767.125 0.072 84.794 0.996 -4.128 0.996 -4.128 0.072 84.794
4792.083 0.073 84.771 0.996 -4.159 0.996 -4.159 0.073 84.771
4817.042 0.073 84.747 0.996 -4.191 0.996 -4.191 0.073 84.747
4842 0.074 84.724 0.996 -4.222 0.996 -4.222 0.074 84.724
4866.958 0.074 84.7 0.996 -4.253 0.996 -4.253 0.074 84.7
4891.917 0.075 84.677 0.996 -4.285 0.996 -4.285 0.075 84.677
4916.875 0.075 84.653 0.996 -4.316 0.996 -4.316 0.075 84.653
4941.833 0.076 84.629 0.996 -4.347 0.996 -4.347 0.076 84.629
4966.792 0.076 84.606 0.996 -4.378 0.996 -4.378 0.076 84.606
4991.75 0.077 84.582 0.996 -4.409 0.996 -4.409 0.077 84.582
5016.708 0.077 84.558 0.996 -4.44 0.996 -4.44 0.077 84.558
5041.667 0.078 84.534 0.996 -4.471 0.996 -4.471 0.078 84.534
5066.625 0.079 84.51 0.996 -4.502 0.996 -4.502 0.079 84.51
5091.583 0.079 84.486 0.996 -4.533 0.996 -4.533 0.079 84.486
5116.542 0.08 84.462 0.995 -4.564 0.995 -4.564 0.08 84.462
5141.5 0.08 84.437 0.995 -4.594 0.995 -4.594 0.08 84.437
5166.458 0.081 84.413 0.995 -4.625 0.995 -4.625 0.081 84.413
5191.417 0.081 84.389 0.995 -4.656 0.995 -4.656 0.081 84.389
5216.375 0.082 84.364 0.995 -4.686 0.995 -4.686 0.082 84.364
5241.333 0.082 84.34 0.995 -4.717 0.995 -4.717 0.082 84.34
5266.292 0.083 84.315 0.995 -4.748 0.995 -4.748 0.083 84.315
5291.25 0.083 84.291 0.995 -4.778 0.995 -4.778 0.083 84.291
5316.208 0.084 84.266 0.995 -4.809 0.995 -4.809 0.084 84.266
5341.167 0.084 84.242 0.995 -4.839 0.995 -4.839 0.084 84.242
5366.125 0.085 84.217 0.995 -4.869 0.995 -4.869 0.085 84.217
5391.083 0.085 84.193 0.995 -4.9 0.995 -4.9 0.085 84.193
5416.042 0.086 84.168 0.995 -4.93 0.995 -4.93 0.086 84.168
5441 0.086 84.143 0.995 -4.96 0.995 -4.96 0.086 84.143
5465.958 0.087 84.118 0.995 -4.991 0.995 -4.991 0.087 84.118
5490.917 0.088 84.093 0.995 -5.021 0.995 -5.021 0.088 84.093
5515.875 0.088 84.069 0.995 -5.051 0.995 -5.051 0.088 84.069
5540.833 0.089 84.044 0.995 -5.081 0.995 -5.081 0.089 84.044
5565.792 0.089 84.019 0.995 -5.111 0.995 -5.111 0.089 84.019
5590.75 0.09 83.994 0.995 -5.141 0.995 -5.141 0.09 83.994
5615.708 0.09 83.969 0.995 -5.171 0.995 -5.171 0.09 83.969
5640.667 0.091 83.944 0.995 -5.201 0.995 -5.201 0.091 83.944
5665.625 0.091 83.919 0.994 -5.231 0.994 -5.231 0.091 83.919
5690.583 0.092 83.894 0.994 -5.261 0.994 -5.261 0.092 83.894
5715.542 0.092 83.869 0.994 -5.291 0.994 -5.291 0.092 83.869
5740.5 0.093 83.844 0.994 -5.321 0.994 -5.321 0.093 83.844
5765.458 0.093 83.818 0.994 -5.351 0.994 -5.351 0.093 83.818
5790.417 0.094 83.793 0.994 -5.38 0.994 -5.38 0.094 83.793
5815.375 0.094 83.768 0.994 -5.41 0.994 -5.41 0.094 83.768
5840.333 0.095 83.743 0.994 -5.44 0.994 -5.44 0.095 83.743
5865.292 0.095 83.718 0.994 -5.47 0.994 -5.47 0.095 83.718
5890.25 0.096 83.692 0.994 -5.499 0.994 -5.499 0.096 83.692
5915.208 0.096 83.667 0.994 -5.529 0.994 -5.529 0.096 83.667
5940.167 0.097 83.642 0.994 -5.559 0.994 -5.559 0.097 83.642
5965.125 0.097 83.617 0.994 -5.588 0.994 -5.588 0.097 83.617
5990.083 0.098 83.591 0.994 -5.618 0.994 -5.618 0.098 83.591
6015.042 0.098 83.566 0.994 -5.647 0.994 -5.647 0.098 83.566
6040 0.099 83.54 0.994 -5.677 0.994 -5.677 0.099 83.54
6064.958 0.099 83.515 0.994 -5.706 0.994 -5.706 0.099 83.515
6089.917 0.1 83.49 0.994 -5.736 0.994 -5.736 0.1 83.49
6114.875 0.1 83.464 0.994 -5.765 0.994 -5.765 0.1 83.464
6139.833 0.101 83.439 0.994 -5.794 0.994 -5.794 0.101 83.439
6164.792 0.101 83.413 0.993 -5.824 0.993 -5.824 0.101 83.413
6189.75 0.102 83.388 0.993 -5.853 0.993 -5.853 0.102 83.388
6214.708 0.102 83.362 0.993 -5.882 0.993 -5.882 0.102 83.362
6239.667 0.103 83.337 0.993 -5.912 0.993 -5.912 0.103 83.337
6264.625 0.104 83.311 0.993 -5.941 0.993 -5.941 0.104 83.311
6289.583 0.104 83.286 0.993 -5.97 0.993 -5.97 0.104 83.286
6314.542 0.105 83.26 0.993 -5.999 0.993 -5.999 0.105 83.26
6339.5 0.105 83.235 0.993 -6.028 0.993 -6.028 0.105 83.235
6364.458 0.106 83.209 0.993 -6.058 0.993 -6.058 0.106 83.209
6389.417 0.106 83.184 0.993 -6.087 0.993 -6.087 0.106 83.184
6414.375 0.107 83.158 0.993 -6.116 0.993 -6.116 0.107 83.158
6439.333 0.107 83.132 0.993 -6.145 0.993 -6.145 0.107 83.132
6464.292 0.108 83.107 0.993 -6.174 0.993 -6.174 0.108 83.107
6489.25 0.108 83.081 0.993 -6.203 0.993 -6.203 0.108 83.081
6514.208 0.109 83.055 0.993 -6.232 0.993 -6.232 0.109 83.055
6539.167 0.109 83.03 0.993 -6.261 0.993 -6.261 0.109 83.03
6564.125 0.11 83.004 0.993 -6.29 0.993 -6.29 0.11 83.004
6589.083 0.11 82.979 0.993 -6.319 0.993 -6.319 0.11 82.979
6614.042 0.111 82.953 0.993 -6.348 0.993 -6.348 0.111 82.953
6639 0.111 82.927 0.992 -6.376 0.992 -6.376 0.111 82.927
6663.958 0.112 82.901 0.992 -6.405 0.992 -6.405 0.112 82.901
6688.917 0.112 82.876 0.992 -6.434 0.992 -6.434 0.112 82.876
6713.875 0.113 82.85 0.992 -6.463 0.992 -6.463 0.113 82.85
6738.833 0.113 82.824 0.992 -6.492 0.992 -6.492 0.113 82.824
6763.792 0.114 82.799 0.992 -6.521 0.992 -6.521 0.114 82.799
6788.75 0.114 82.773 0.992 -6.549 0.992 -6.549 0.114 82.773
6813.708 0.115 82.747 0.992 -6.578 0.992 -6.578 0.115 82.747
6838.667 0.115 82.721 0.992 -6.607 0.992 -6.607 0.115 82.721
6863.625 0.116 82.696 0.992 -6.635 0.992 -6.635 0.116 82.696
6888.583 0.116 82.67 0.992 -6.664 0.992 -6.664 0.116 82.67
6913.542 0.117 82.644 0.992 -6.693 0.992 -6.693 0.117 82.644
6938.5 0.117 82.618 0.992 -6.721 0.992 -6.721 0.117 82.618
6963.458 0.118 82.593 0.992 -6.75 0.992 -6.75 0.118 82.593
6988.417 0.118 82.567 0.992 -6.779 0.992 -6.779 0.118 82.567
7013.375 0.119 82.541 0.992 -6.807 0.992 -6.807 0.119 82.541
7038.333 0.119 82.515 0.992 -6.836 0.992 -6.836 0.119 82.515
7063.292 0.12 82.489 0.991 -6.864 0.991 -6.864 0.12 82.489
7088.25 0.12 82.464 0.991 -6.893 0.991 -6.893 0.12 82.464
7113.208 0.121 82.438 0.991 -6.921 0.991 -6.921 0.121 82.438
7138.167 0.121 82.412 0.991 -6.95 0.991 -6.95 0.121 82.412
7163.125 0.121 82.386 0.991 -6.978 0.991 -6.978 0.121 82.386
7188.083 0.122 82.36 0.991 -7.006 0.991 -7.006 0.122 82.36
7213.042 0.122 82.334 0.991 -7.035 0.991 -7.035 0.122 82.334
7238 0.123 82.309 0.991 -7.063 0.991 -7.063 0.123 82.309
7262.958 0.123 82.283 0.991 -7.092 0.991 -7.092 0.123 82.283
7287.917 0.124 82.257 0.991 -7.12 0.991 -7.12 0.124 82.257
7312.875 0.124 82.231 0.991 -7.148 0.991 -7.148 0.124 82.231
7337.833 0.125 82.205 0.991 -7.177 0.991 -7.177 0.125 82.205
7362.792 0.125 82.179 0.991 -7.205 0.991 -7.205 0.125 82.179
7387.75 0.126 82.154 0.991 -7.233 0.991 -7.233 0.126 82.154
7412.708 0.126 82.128 0.991 -7.262 0.991 -7.262 0.126 82.128
7437.667 0.127 82.102 0.991 -7.29 0.991 -7.29 0.127 82.102
7462.625 0.127 82.076 0.991 -7.318 0.991 -7.318 0.127 82.076
7487.583 0.128 82.05 0.99 -7.346 0.99 -7.346 0.128 82.05
7512.542 0.128 82.024 0.99 -7.374 0.99 -7.374 0.128 82.024
7537.5 0.129 81.998 0.99 -7.403 0.99 -7.403 0.129 81.998
7562.458 0.129 81.973 0.99 -7.431 0.99 -7.431 0.129 81.973
7587.417 0.13 81.947 0.99 -7.459 0.99 -7.459 0.13 81.947
7612.375 0.13 81.921 0.99 -7.487 0.99 -7.487 0.13 81.921
7637.333 0.131 81.895 0.99 -7.515 0.99 -7.515 0.131 81.895
7662.292 0.131 81.869 0.99 -7.543 0.99 -7.543 0.131 81.869
7687.25 0.132 81.843 0.99 -7.571 0.99 -7.571 0.132 81.843
7712.208 0.132 81.817 0.99 -7.599 0.99 -7.599 0.132 81.817
7737.167 0.133 81.791 0.99 -7.627 0.99 -7.627 0.133 81.791
7762.125 0.133 81.766 0.99 -7.656 0.99 -7.656 0.133 81.766
7787.083 0.134 81.74 0.99 -7.684 0.99 -7.684 0.134 81.74
7812.042 0.134 81.714 0.99 -7.712 0.99 -7.712 0.134 81.714
7837 0.135 81.688 0.99 -7.74 0.99 -7.74 0.135 81.688
7861.958 0.135 81.662 0.989 -7.767 0.989 -7.767 0.135 81.662
7886.917 0.136 81.636 0.989 -7.795 0.989 -7.795 0.136 81.636
7911.875 0.136 81.61 0.989 -7.823 0.989 -7.823 0.136 81.61
7936.833 0.137 81.584 0.989 -7.851 0.989 -7.851 0.137 81.584
7961.792 0.137 81.558 0.989 -7.879 0.989 -7.879 0.137 81.558
7986.75 0.138 81.533 0.989 -7.907 0.989 -7.907 0.138 81.533
8011.708 0.138 81.507 0.989 -7.935 0.989 -7.935 0.138 81.507
8036.667 0.139 81.481 0.989 -7.963 0.989 -7.963 0.139 81.481
8061.625 0.139 81.455 0.989 -7.991 0.989 -7.991 0.139 81.455
8086.583 0.14 81.429 0.989 -8.019 0.989 -8.019 0.14 81.429
8111.542 0.14 81.403 0.989 -8.046 0.989 -8.046 0.14 81.403
8136.5 0.14 81.377 0.989 -8.074 0.989 -8.074 0.14 81.377
8161.458 0.141 81.351 0.989 -8.102 0.989 -8.102 0.141 81.351
8186.417 0.141 81.325 0.989 -8.13 0.989 -8.13 0.141 81.325
8211.375 0.142 81.299 0.989 -8.158 0.989 -8.158 0.142 81.299
8236.333 0.142 81.274 0.988 -8.185 0.988 -8.185 0.142 81.274
8261.292 0.143 81.248 0.988 -8.213 0.988 -8.213 0.143 81.248
8286.25 0.143 81.222 0.988 -8.241 0.988 -8.241 0.143 81.222
