# MHZ S MA R 50

50 0.954 -17.443 0.3 72.53 0.3 72.53 0.954 -17.443
74.958 0.904 -25.228 0.426 64.732 0.426 64.732 0.904 -25.228
99.917 0.846 -32.138 0.532 57.809 0.532 57.809 0.846 -32.138
124.875 0.786 -38.147 0.618 51.786 0.618 51.786 0.786 -38.147
149.833 0.727 -43.315 0.686 46.605 0.686 46.605 0.727 -43.315
174.792 0.671 -47.739 0.74 42.167 0.74 42.167 0.671 -47.739
199.75 0.621 -51.528 0.783 38.365 0.783 38.365 0.621 -51.528
224.708 0.575 -54.783 0.817 35.097 0.817 35.097 0.575 -54.783
249.667 0.534 -57.592 0.844 32.274 0.844 32.274 0.534 -57.592
274.625 0.497 -60.032 0.866 29.821 0.866 29.821 0.497 -60.032
299.583 0.464 -62.163 0.884 27.676 0.884 27.676 0.464 -62.163
324.542 0.435 -64.036 0.899 25.789 0.899 25.789 0.435 -64.036
349.5 0.409 -65.692 0.911 24.119 0.911 24.119 0.409 -65.692
374.458 0.385 -67.165 0.922 22.632 0.922 22.632 0.385 -67.165
399.417 0.363 -68.483 0.93 21.3 0.93 21.3 0.363 -68.483
424.375 0.344 -69.667 0.938 20.102 0.938 20.102 0.344 -69.667
449.333 0.326 -70.736 0.944 19.019 0.944 19.019 0.326 -70.736
474.292 0.31 -71.706 0.949 18.034 0.949 18.034 0.31 -71.706
499.25 0.295 -72.589 0.954 17.136 0.954 17.136 0.295 -72.589
524.208 0.281 -73.397 0.958 16.313 0.958 16.313 0.281 -73.397
549.167 0.268 -74.139 0.962 15.557 0.962 15.557 0.268 -74.139
574.125 0.256 -74.822 0.965 14.859 0.965 14.859 0.256 -74.822
599.083 0.246 -75.452 0.968 14.213 0.968 14.213 0.246 -75.452
624.042 0.235 -76.037 0.97 13.614 0.97 13.614 0.235 -76.037
649 0.226 -76.58 0.973 13.055 0.973 13.055 0.226 -76.58
673.958 0.217 -77.085 0.975 12.534 0.975 12.534 0.217 -77.085
698.917 0.209 -77.557 0.977 12.046 0.977 12.046 0.209 -77.557
723.875 0.201 -77.999 0.978 11.588 0.978 11.588 0.201 -77.999
748.833 0.194 -78.413 0.98 11.158 0.98 11.158 0.194 -78.413
773.792 0.187 -78.802 0.981 10.752 0.981 10.752 0.187 -78.802
798.75 0.18 -79.168 0.982 10.369 0.982 10.369 0.18 -79.168
823.708 0.174 -79.513 0.983 10.007 0.983 10.007 0.174 -79.513
848.667 0.168 -79.839 0.984 9.664 0.984 9.664 0.168 -79.839
873.625 0.162 -80.147 0.985 9.338 0.985 9.338 0.162 -80.147
898.583 0.157 -80.439 0.986 9.028 0.986 9.028 0.157 -80.439
923.542 0.152 -80.716 0.987 8.732 0.987 8.732 0.152 -80.716
948.5 0.147 -80.979 0.988 8.451 0.988 8.451 0.147 -80.979
973.458 0.142 -81.229 0.988 8.182 0.988 8.182 0.142 -81.229
998.417 0.138 -81.467 0.989 7.924 0.989 7.924 0.138 -81.467
1023.375 0.134 -81.694 0.99 7.678 0.99 7.678 0.134 -81.694
1048.333 0.13 -81.91 0.99 7.442 0.99 7.442 0.13 -81.91
1073.292 0.126 -82.116 0.991 7.215 0.991 7.215 0.126 -82.116
1098.25 0.122 -82.313 0.991 6.997 0.991 6.997 0.122 -82.313
1123.208 0.118 -82.501 0.992 6.787 0.992 6.787 0.118 -82.501
1148.167 0.115 -82.681 0.992 6.585 0.992 6.585 0.115 -82.681
1173.125 0.111 -82.854 0.992 6.39 0.992 6.39 0.111 -82.854
1198.083 0.108 -83.019 0.993 6.202 0.993 6.202 0.108 -83.019
1223.042 0.105 -83.176 0.993 6.021 0.993 6.021 0.105 -83.176
1248 0.102 -83.328 0.993 5.845 0.993 5.845 0.102 -83.328
1272.958 0.099 -83.473 0.994 5.675 0.994 5.675 0.099 -83.473
1297.917 0.096 -83.612 0.994 5.511 0.994 5.511 0.096 -83.612
1322.875 0.093 -83.745 0.994 5.351 0.994 5.351 0.093 -83.745
1347.833 0.091 -83.873 0.994 5.196 0.994 5.196 0.091 -83.873
1372.792 0.088 -83.995 0.995 5.046 0.995 5.046 0.088 -83.995
1397.75 0.085 -84.112 0.995 4.9 0.995 4.9 0.085 -84.112
1422.708 0.083 -84.225 0.995 4.758 0.995 4.758 0.083 -84.225
1447.667 0.081 -84.332 0.995 4.62 0.995 4.62 0.081 -84.332
1472.625 0.078 -84.435 0.995 4.486 0.995 4.486 0.078 -84.435
1497.583 0.076 -84.533 0.996 4.355 0.996 4.355 0.076 -84.533
1522.542 0.074 -84.627 0.996 4.227 0.996 4.227 0.074 -84.627
1547.5 0.072 -84.717 0.996 4.103 0.996 4.103 0.072 -84.717
1572.458 0.069 -84.802 0.996 3.982 0.996 3.982 0.069 -84.802
1597.417 0.067 -84.883 0.996 3.863 0.996 3.863 0.067 -84.883
1622.375 0.065 -84.96 0.996 3.747 0.996 3.747 0.065 -84.96
1647.333 0.063 -85.033 0.997 3.634 0.997 3.634 0.063 -85.033
1672.292 0.061 -85.101 0.997 3.524 0.997 3.524 0.061 -85.101
1697.25 0.06 -85.166 0.997 3.415 0.997 3.415 0.06 -85.166
1722.208 0.058 -85.227 0.997 3.309 0.997 3.309 0.058 -85.227
1747.167 0.056 -85.283 0.997 3.205 0.997 3.205 0.056 -85.283
1772.125 0.054 -85.335 0.997 3.104 0.997 3.104 0.054 -85.335
1797.083 0.052 -85.383 0.997 3.004 0.997 3.004 0.052 -85.383
1822.042 0.051 -85.426 0.997 2.906 0.997 2.906 0.051 -85.426
1847 0.049 -85.465 0.997 2.81 0.997 2.81 0.049 -85.465
1871.958 0.047 -85.499 0.997 2.716 0.997 2.716 0.047 -85.499
1896.917 0.046 -85.529 0.997 2.624 0.997 2.624 0.046 -85.529
1921.875 0.044 -85.553 0.998 2.533 0.998 2.533 0.044 -85.553
1946.833 0.043 -85.573 0.998 2.444 0.998 2.444 0.043 -85.573
1971.792 0.041 -85.587 0.998 2.356 0.998 2.356 0.041 -85.587
1996.75 0.04 -85.595 0.998 2.27 0.998 2.27 0.04 -85.595
2021.708 0.038 -85.597 0.998 2.185 0.998 2.185 0.038 -85.597
2046.667 0.037 -85.592 0.998 2.102 0.998 2.102 0.037 -85.592
2071.625 0.035 -85.581 0.998 2.02 0.998 2.02 0.035 -85.581
2096.583 0.034 -85.561 0.998 1.939 0.998 1.939 0.034 -85.561
2121.542 0.032 -85.534 0.998 1.859 0.998 1.859 0.032 -85.534
2146.5 0.031 -85.498 0.998 1.781 0.998 1.781 0.031 -85.498
2171.458 0.03 -85.452 0.998 1.704 0.998 1.704 0.03 -85.452
2196.417 0.028 -85.395 0.998 1.627 0.998 1.627 0.028 -85.395
2221.375 0.027 -85.326 0.998 1.552 0.998 1.552 0.027 -85.326
2246.333 0.026 -85.244 0.998 1.478 0.998 1.478 0.026 -85.244
2271.292 0.025 -85.147 0.998 1.405 0.998 1.405 0.025 -85.147
2296.25 0.023 -85.033 0.998 1.333 0.998 1.333 0.023 -85.033
2321.208 0.022 -84.899 0.998 1.262 0.998 1.262 0.022 -84.899
2346.167 0.021 -84.744 0.998 1.191 0.998 1.191 0.021 -84.744
2371.125 0.02 -84.563 0.998 1.122 0.998 1.122 0.02 -84.563
2396.083 0.018 -84.351 0.998 1.053 0.998 1.053 0.018 -84.351
2421.042 0.017 -84.105 0.998 0.986 0.998 0.986 0.017 -84.105
2446 0.016 -83.816 0.998 0.919 0.998 0.919 0.016 -83.816
2470.958 0.015 -83.476 0.998 0.853 0.998 0.853 0.015 -83.476
2495.917 0.014 -83.073 0.998 0.787 0.998 0.787 0.014 -83.073
2520.875 0.013 -82.592 0.998 0.722 0.998 0.722 0.013 -82.592
2545.833 0.012 -82.013 0.998 0.658 0.998 0.658 0.012 -82.013
2570.792 0.01 -81.306 0.998 0.595 0.998 0.595 0.01 -81.306
2595.75 9.408e-3 -80.43 0.998 0.532 0.998 0.532 9.408e-3 -80.43
2620.708 8.341e-3 -79.324 0.998 0.47 0.998 0.47 8.341e-3 -79.324
2645.667 7.29e-3 -77.894 0.998 0.409 0.998 0.409 7.29e-3 -77.894
2670.625 6.255e-3 -75.984 0.999 0.348 0.999 0.348 6.255e-3 -75.984
2695.583 5.24e-3 -73.33 0.999 0.288 0.999 0.288 5.24e-3 -73.33
2720.542 4.252e-3 -69.433 0.999 0.228 0.999 0.228 4.252e-3 -69.433
2745.5 3.306e-3 -63.273 0.999 0.169 0.999 0.169 3.306e-3 -63.273
2770.458 2.436e-3 -52.532 0.999 0.111 0.999 0.111 2.436e-3 -52.532
2795.417 1.743e-3 -31.977 0.999 0.053 0.999 0.053 1.743e-3 -31.977
2820.375 1.48e-3 3.009 0.999 -4.458e-3 0.999 -4.458e-3 1.48e-3 3.009
2845.333 1.825e-3 35.878 0.999 -0.061 0.999 -0.061 1.825e-3 35.878
2870.292 2.532e-3 54.177 0.999 -0.118 0.999 -0.118 2.532e-3 54.177
2895.25 3.374e-3 63.847 0.999 -0.174 0.999 -0.174 3.374e-3 63.847
2920.208 4.266e-3 69.499 0.999 -0.229 0.999 -0.229 4.266e-3 69.499
2945.167 5.177e-3 73.129 0.999 -0.284 0.999 -0.284 5.177e-3 73.129
2970.125 6.096e-3 75.632 0.999 -0.339 0.999 -0.339 6.096e-3 75.632
2995.083 7.017e-3 77.449 0.998 -0.393 0.998 -0.393 7.017e-3 77.449
3020.042 7.936e-3 78.821 0.998 -0.447 0.998 -0.447 7.936e-3 78.821
3045 8.852e-3 79.889 0.998 -0.5 0.998 -0.5 8.852e-3 79.889
3069.958 9.764e-3 80.741 0.998 -0.553 0.998 -0.553 9.764e-3 80.741
3094.917 0.011 81.434 0.998 -0.606 0.998 -0.606 0.011 81.434
3119.875 0.012 82.006 0.998 -0.658 0.998 -0.658 0.012 82.006
3144.833 0.012 82.484 0.998 -0.709 0.998 -0.709 0.012 82.484
3169.792 0.013 82.889 0.998 -0.761 0.998 -0.761 0.013 82.889
3194.75 0.014 83.234 0.998 -0.812 0.998 -0.812 0.014 83.234
3219.708 0.015 83.531 0.998 -0.863 0.998 -0.863 0.015 83.531
3244.667 0.016 83.788 0.998 -0.913 0.998 -0.913 0.016 83.788
3269.625 0.017 84.012 0.998 -0.963 0.998 -0.963 0.017 84.012
3294.583 0.018 84.208 0.998 -1.013 0.998 -1.013 0.018 84.208
3319.542 0.019 84.38 0.998 -1.062 0.998 -1.062 0.019 84.38
3344.5 0.019 84.531 0.998 -1.111 0.998 -1.111 0.019 84.531
3369.458 0.02 84.665 0.998 -1.16 0.998 -1.16 0.02 84.665
3394.417 0.021 84.783 0.998 -1.208 0.998 -1.208 0.021 84.783
3419.375 0.022 84.888 0.998 -1.256 0.998 -1.256 0.022 84.888
3444.333 0.023 84.982 0.998 -1.304 0.998 -1.304 0.023 84.982
3469.292 0.024 85.065 0.998 -1.352 0.998 -1.352 0.024 85.065
3494.25 0.024 85.138 0.998 -1.399 0.998 -1.399 0.024 85.138
3519.208 0.025 85.204 0.998 -1.446 0.998 -1.446 0.025 85.204
3544.167 0.026 85.262 0.998 -1.493 0.998 -1.493 0.026 85.262
3569.125 0.027 85.313 0.998 -1.54 0.998 -1.54 0.027 85.313
3594.083 0.028 85.358 0.998 -1.586 0.998 -1.586 0.028 85.358
3619.042 0.029 85.399 0.998 -1.632 0.998 -1.632 0.029 85.399
3644 0.029 85.434 0.998 -1.678 0.998 -1.678 0.029 85.434
3668.958 0.03 85.464 0.998 -1.723 0.998 -1.723 0.03 85.464
3693.917 0.031 85.491 0.998 -1.769 0.998 -1.769 0.031 85.491
3718.875 0.032 85.514 0.998 -1.814 0.998 -1.814 0.032 85.514
3743.833 0.032 85.534 0.998 -1.859 0.998 -1.859 0.032 85.534
3768.792 0.033 85.55 0.998 -1.903 0.998 -1.903 0.033 85.55
3793.75 0.034 85.564 0.998 -1.948 0.998 -1.948 0.034 85.564
3818.708 0.035 85.575 0.998 -1.992 0.998 -1.992 0.035 85.575
3843.667 0.036 85.583 0.998 -2.036 0.998 -2.036 0.036 85.583
3868.625 0.036 85.59 0.998 -2.08 0.998 -2.08 0.036 85.59
3893.583 0.037 85.594 0.998 -2.124 0.998 -2.124 0.037 85.594
3918.542 0.038 85.596 0.998 -2.167 0.998 -2.167 0.038 85.596
3943.5 0.039 85.597 0.998 -2.21 0.998 -2.21 0.039 85.597
3968.458 0.039 85.596 0.998 -2.253 0.998 -2.253 0.039 85.596
3993.417 0.04 85.593 0.998 -2.296 0.998 -2.296 0.04 85.593
4018.375 0.041 85.589 0.998 -2.339 0.998 -2.339 0.041 85.589
4043.333 0.042 85.583 0.998 -2.381 0.998 -2.381 0.042 85.583
4068.292 0.042 85.576 0.998 -2.424 0.998 -2.424 0.042 85.576
4093.25 0.043 85.569 0.998 -2.466 0.998 -2.466 0.043 85.569
4118.208 0.044 85.559 0.998 -2.508 0.998 -2.508 0.044 85.559
4143.167 0.045 85.549 0.998 -2.55 0.998 -2.55 0.045 85.549
4168.125 0.045 85.538 0.998 -2.591 0.998 -2.591 0.045 85.538
4193.083 0.046 85.526 0.997 -2.633 0.997 -2.633 0.046 85.526
4218.042 0.047 85.513 0.997 -2.674 0.997 -2.674 0.047 85.513
4243 0.047 85.5 0.997 -2.716 0.997 -2.716 0.047 85.5
4267.958 0.048 85.485 0.997 -2.757 0.997 -2.757 0.048 85.485
4292.917 0.049 85.47 0.997 -2.798 0.997 -2.798 0.049 85.47
4317.875 0.05 85.454 0.997 -2.838 0.997 -2.838 0.05 85.454
4342.833 0.05 85.438 0.997 -2.879 0.997 -2.879 0.05 85.438
4367.792 0.051 85.421 0.997 -2.919 0.997 -2.919 0.051 85.421
4392.75 0.052 85.403 0.997 -2.96 0.997 -2.96 0.052 85.403
4417.708 0.052 85.385 0.997 -3 0.997 -3 0.052 85.385
4442.667 0.053 85.366 0.997 -3.04 0.997 -3.04 0.053 85.366
4467.625 0.054 85.347 0.997 -3.08 0.997 -3.08 0.054 85.347
4492.583 0.054 85.327 0.997 -3.12 0.997 -3.12 0.054 85.327
4517.542 0.055 85.307 0.997 -3.16 0.997 -3.16 0.055 85.307
4542.5 0.056 85.286 0.997 -3.199 0.997 -3.199 0.056 85.286
4567.458 0.057 85.265 0.997 -3.239 0.997 -3.239 0.057 85.265
4592.417 0.057 85.244 0.997 -3.278 0.997 -3.278 0.057 85.244
4617.375 0.058 85.222 0.997 -3.317 0.997 -3.317 0.058 85.222
4642.333 0.059 85.2 0.997 -3.356 0.997 -3.356 0.059 85.2
4667.292 0.059 85.178 0.997 -3.395 0.997 -3.395 0.059 85.178
4692.25 0.06 85.155 0.997 -3.434 0.997 -3.434 0.06 85.155
4717.208 0.061 85.132 0.997 -3.473 0.997 -3.473 0.061 85.132
4742.167 0.061 85.109 0.997 -3.511 0.997 -3.511 0.061 85.109
4767.125 0.062 85.085 0.997 -3.55 0.997 -3.55 0.062 85.085
4792.083 0.063 85.062 0.997 -3.588 0.997 -3.588 0.063 85.062
4817.042 0.063 85.038 0.997 -3.627 0.997 -3.627 0.063 85.038
4842 0.064 85.013 0.996 -3.665 0.996 -3.665 0.064 85.013
4866.958 0.065 84.989 0.996 -3.703 0.996 -3.703 0.065 84.989
4891.917 0.065 84.964 0.996 -3.741 0.996 -3.741 0.065 84.964
4916.875 0.066 84.939 0.996 -3.779 0.996 -3.779 0.066 84.939
4941.833 0.067 84.914 0.996 -3.816 0.996 -3.816 0.067 84.914
4966.792 0.067 84.889 0.996 -3.854 0.996 -3.854 0.067 84.889
4991.75 0.068 84.864 0.996 -3.892 0.996 -3.892 0.068 84.864
5016.708 0.069 84.838 0.996 -3.929 0.996 -3.929 0.069 84.838
5041.667 0.069 84.812 0.996 -3.967 0.996 -3.967 0.069 84.812
5066.625 0.07 84.786 0.996 -4.004 0.996 -4.004 0.07 84.786
5091.583 0.07 84.76 0.996 -4.041 0.996 -4.041 0.07 84.76
5116.542 0.071 84.734 0.996 -4.078 0.996 -4.078 0.071 84.734
5141.5 0.072 84.708 0.996 -4.115 0.996 -4.115 0.072 84.708
5166.458 0.072 84.681 0.996 -4.152 0.996 -4.152 0.072 84.681
5191.417 0.073 84.655 0.996 -4.189 0.996 -4.189 0.073 84.655
5216.375 0.074 84.628 0.996 -4.226 0.996 -4.226 0.074 84.628
5241.333 0.074 84.601 0.996 -4.263 0.996 -4.263 0.074 84.601
5266.292 0.075 84.574 0.996 -4.299 0.996 -4.299 0.075 84.574
5291.25 0.076 84.547 0.996 -4.336 0.996 -4.336 0.076 84.547
5316.208 0.076 84.52 0.996 -4.373 0.996 -4.373 0.076 84.52
5341.167 0.077 84.493 0.996 -4.409 0.996 -4.409 0.077 84.493
5366.125 0.078 84.466 0.996 -4.445 0.996 -4.445 0.078 84.466
5391.083 0.078 84.438 0.995 -4.481 0.995 -4.481 0.078 84.438
5416.042 0.079 84.411 0.995 -4.518 0.995 -4.518 0.079 84.411
5441 0.079 84.383 0.995 -4.554 0.995 -4.554 0.079 84.383
5465.958 0.08 84.356 0.995 -4.59 0.995 -4.59 0.08 84.356
5490.917 0.081 84.328 0.995 -4.626 0.995 -4.626 0.081 84.328
5515.875 0.081 84.3 0.995 -4.662 0.995 -4.662 0.081 84.3
5540.833 0.082 84.272 0.995 -4.697 0.995 -4.697 0.082 84.272
5565.792 0.083 84.244 0.995 -4.733 0.995 -4.733 0.083 84.244
5590.75 0.083 84.216 0.995 -4.769 0.995 -4.769 0.083 84.216
5615.708 0.084 84.188 0.995 -4.804 0.995 -4.804 0.084 84.188
5640.667 0.084 84.16 0.995 -4.84 0.995 -4.84 0.084 84.16
5665.625 0.085 84.132 0.995 -4.875 0.995 -4.875 0.085 84.132
5690.583 0.086 84.104 0.995 -4.911 0.995 -4.911 0.086 84.104
5715.542 0.086 84.075 0.995 -4.946 0.995 -4.946 0.086 84.075
5740.5 0.087 84.047 0.995 -4.981 0.995 -4.981 0.087 84.047
5765.458 0.087 84.019 0.995 -5.017 0.995 -5.017 0.087 84.019
5790.417 0.088 83.99 0.995 -5.052 0.995 -5.052 0.088 83.99
5815.375 0.089 83.962 0.995 -5.087 0.995 -5.087 0.089 83.962
5840.333 0.089 83.933 0.995 -5.122 0.995 -5.122 0.089 83.933
5865.292 0.09 83.905 0.994 -5.157 0.994 -5.157 0.09 83.905
5890.25 0.091 83.876 0.994 -5.192 0.994 -5.192 0.091 83.876
5915.208 0.091 83.848 0.994 -5.227 0.994 -5.227 0.091 83.848
5940.167 0.092 83.819 0.994 -5.261 0.994 -5.261 0.092 83.819
5965.125 0.092 83.791 0.994 -5.296 0.994 -5.296 0.092 83.791
5990.083 0.093 83.762 0.994 -5.331 0.994 -5.331 0.093 83.762
6015.042 0.094 83.733 0.994 -5.365 0.994 -5.365 0.094 83.733
6040 0.094 83.704 0.994 -5.4 0.994 -5.4 0.094 83.704
6064.958 0.095 83.676 0.994 -5.434 0.994 -5.434 0.095 83.676
6089.917 0.095 83.647 0.994 -5.469 0.994 -5.469 0.095 83.647
6114.875 0.096 83.618 0.994 -5.503 0.994 -5.503 0.096 83.618
6139.833 0.097 83.589 0.994 -5.538 0.994 -5.538 0.097 83.589
6164.792 0.097 83.56 0.994 -5.572 0.994 -5.572 0.097 83.56
6189.75 0.098 83.531 0.994 -5.606 0.994 -5.606 0.098 83.531
6214.708 0.098 83.502 0.994 -5.64 0.994 -5.64 0.098 83.502
6239.667 0.099 83.473 0.994 -5.674 0.994 -5.674 0.099 83.473
6264.625 0.099 83.444 0.994 -5.709 0.994 -5.709 0.099 83.444
6289.583 0.1 83.415 0.994 -5.743 0.994 -5.743 0.1 83.415
6314.542 0.101 83.386 0.993 -5.777 0.993 -5.777 0.101 83.386
6339.5 0.101 83.357 0.993 -5.81 0.993 -5.81 0.101 83.357
6364.458 0.102 83.328 0.993 -5.844 0.993 -5.844 0.102 83.328
6389.417 0.102 83.299 0.993 -5.878 0.993 -5.878 0.102 83.299
6414.375 0.103 83.27 0.993 -5.912 0.993 -5.912 0.103 83.27
6439.333 0.104 83.241 0.993 -5.946 0.993 -5.946 0.104 83.241
6464.292 0.104 83.212 0.993 -5.979 0.993 -5.979 0.104 83.212
6489.25 0.105 83.183 0.993 -6.013 0.993 -6.013 0.105 83.183
6514.208 0.105 83.154 0.993 -6.047 0.993 -6.047 0.105 83.154
6539.167 0.106 83.125 0.993 -6.08 0.993 -6.08 0.106 83.125
6564.125 0.107 83.096 0.993 -6.114 0.993 -6.114 0.107 83.096
6589.083 0.107 83.067 0.993 -6.147 0.993 -6.147 0.107 83.067
6614.042 0.108 83.037 0.993 -6.181 0.993 -6.181 0.108 83.037
6639 0.108 83.008 0.993 -6.214 0.993 -6.214 0.108 83.008
6663.958 0.109 82.979 0.993 -6.247 0.993 -6.247 0.109 82.979
6688.917 0.109 82.95 0.993 -6.281 0.993 -6.281 0.109 82.95
6713.875 0.11 82.921 0.992 -6.314 0.992 -6.314 0.11 82.921
6738.833 0.111 82.892 0.992 -6.347 0.992 -6.347 0.111 82.892
6763.792 0.111 82.862 0.992 -6.38 0.992 -6.38 0.111 82.862
6788.75 0.112 82.833 0.992 -6.414 0.992 -6.414 0.112 82.833
6813.708 0.112 82.804 0.992 -6.447 0.992 -6.447 0.112 82.804
6838.667 0.113 82.775 0.992 -6.48 0.992 -6.48 0.113 82.775
6863.625 0.113 82.746 0.992 -6.513 0.992 -6.513 0.113 82.746
6888.583 0.114 82.716 0.992 -6.546 0.992 -6.546 0.114 82.716
6913.542 0.115 82.687 0.992 -6.579 0.992 -6.579 0.115 82.687
6938.5 0.115 82.658 0.992 -6.612 0.992 -6.612 0.115 82.658
6963.458 0.116 82.629 0.992 -6.644 0.992 -6.644 0.116 82.629
6988.417 0.116 82.599 0.992 -6.677 0.992 -6.677 0.116 82.599
7013.375 0.117 82.57 0.992 -6.71 0.992 -6.71 0.117 82.57
7038.333 0.117 82.541 0.992 -6.743 0.992 -6.743 0.117 82.541
7063.292 0.118 82.512 0.992 -6.776 0.992 -6.776 0.118 82.512
7088.25 0.119 82.483 0.991 -6.808 0.991 -6.808 0.119 82.483
7113.208 0.119 82.453 0.991 -6.841 0.991 -6.841 0.119 82.453
7138.167 0.12 82.424 0.991 -6.873 0.991 -6.873 0.12 82.424
7163.125 0.12 82.395 0.991 -6.906 0.991 -6.906 0.12 82.395
7188.083 0.121 82.366 0.991 -6.939 0.991 -6.939 0.121 82.366
7213.042 0.121 82.336 0.991 -6.971 0.991 -6.971 0.121 82.336
7238 0.122 82.307 0.991 -7.004 0.991 -7.004 0.122 82.307
7262.958 0.123 82.278 0.991 -7.036 0.991 -7.036 0.123 82.278
7287.917 0.123 82.249 0.991 -7.068 0.991 -7.068 0.123 82.249
7312.875 0.124 82.219 0.991 -7.101 0.991 -7.101 0.124 82.219
7337.833 0.124 82.19 0.991 -7.133 0.991 -7.133 0.124 82.19
7362.792 0.125 82.161 0.991 -7.165 0.991 -7.165 0.125 82.161
7387.75 0.125 82.132 0.991 -7.198 0.991 -7.198 0.125 82.132
7412.708 0.126 82.103 0.991 -7.23 0.991 -7.23 0.126 82.103
7437.667 0.126 82.073 0.991 -7.262 0.991 -7.262 0.126 82.073
7462.625 0.127 82.044 0.99 -7.294 0.99 -7.294 0.127 82.044
7487.583 0.128 82.015 0.99 -7.327 0.99 -7.327 0.128 82.015
7512.542 0.128 81.986 0.99 -7.359 0.99 -7.359 0.128 81.986
7537.5 0.129 81.956 0.99 -7.391 0.99 -7.391 0.129 81.956
7562.458 0.129 81.927 0.99 -7.423 0.99 -7.423 0.129 81.927
7587.417 0.13 81.898 0.99 -7.455 0.99 -7.455 0.13 81.898
7612.375 0.13 81.869 0.99 -7.487 0.99 -7.487 0.13 81.869
7637.333 0.131 81.84 0.99 -7.519 0.99 -7.519 0.131 81.84
7662.292 0.131 81.81 0.99 -7.551 0.99 -7.551 0.131 81.81
7687.25 0.132 81.781 0.99 -7.583 0.99 -7.583 0.132 81.781
7712.208 0.133 81.752 0.99 -7.614 0.99 -7.614 0.133 81.752
7737.167 0.133 81.723 0.99 -7.646 0.99 -7.646 0.133 81.723
7762.125 0.134 81.694 0.99 -7.678 0.99 -7.678 0.134 81.694
7787.083 0.134 81.665 0.989 -7.71 0.989 -7.71 0.134 81.665
7812.042 0.135 81.635 0.989 -7.742 0.989 -7.742 0.135 81.635
7837 0.135 81.606 0.989 -7.773 0.989 -7.773 0.135 81.606
7861.958 0.136 81.577 0.989 -7.805 0.989 -7.805 0.136 81.577
7886.917 0.136 81.548 0.989 -7.837 0.989 -7.837 0.136 81.548
7911.875 0.137 81.519 0.989 -7.868 0.989 -7.868 0.137 81.519
7936.833 0.137 81.49 0.989 -7.9 0.989 -7.9 0.137 81.49
7961.792 0.138 81.461 0.989 -7.932 0.989 -7.932 0.138 81.461
7986.75 0.139 81.431 0.989 -7.963 0.989 -7.963 0.139 81.431
8011.708 0.139 81.402 0.989 -7.995 0.989 -7.995 0.139 81.402
8036.667 0.14 81.373 0.989 -8.026 0.989 -8.026 0.14 81.373
8061.625 0.14 81.344 0.989 -8.058 0.989 -8.058 0.14 81.344
8086.583 0.141 81.315 0.989 -8.089 0.989 -8.089 0.141 81.315
8111.542 0.141 81.286 0.989 -8.121 0.989 -8.121 0.141 81.286
8136.5 0.142 81.257 0.988 -8.152 0.988 -8.152 0.142 81.257
8161.458 0.142 81.228 0.988 -8.183 0.988 -8.183 0.142 81.228
8186.417 0.143 81.199 0.988 -8.215 0.988 -8.215 0.143 81.199
8211.375 0.143 81.17 0.988 -8.246 0.988 -8.246 0.143 81.17
8236.333 0.144 81.14 0.988 -8.277 0.988 -8.277 0.144 81.14
8261.292 0.145 81.111 0.988 -8.309 0.988 -8.309 0.145 81.111
8286.25 0.145 81.082 0.988 -8.34 0.988 -8.34 0.145 81.082
