# MHZ S MA R 50

50 0.996 -5.385 0.094 84.602 0.094 84.602 0.996 -5.385
74.958 0.99 -8.044 0.14 81.936 0.14 81.936 0.99 -8.044
99.917 0.983 -10.669 0.185 79.304 0.185 79.304 0.983 -10.669
124.875 0.973 -13.252 0.229 76.715 0.229 76.715 0.973 -13.252
149.833 0.962 -15.782 0.272 74.178 0.272 74.178 0.962 -15.782
174.792 0.949 -18.253 0.313 71.701 0.313 71.701 0.949 -18.253
199.75 0.935 -20.657 0.353 69.29 0.353 69.29 0.935 -20.657
224.708 0.92 -22.99 0.391 66.95 0.391 66.95 0.92 -22.99
249.667 0.904 -25.248 0.427 64.686 0.427 64.686 0.904 -25.248
274.625 0.887 -27.427 0.461 62.5 0.461 62.5 0.887 -27.427
299.583 0.869 -29.526 0.493 60.394 0.493 60.394 0.869 -29.526
324.542 0.851 -31.545 0.523 58.369 0.523 58.369 0.851 -31.545
349.5 0.833 -33.483 0.552 56.424 0.552 56.424 0.833 -33.483
374.458 0.815 -35.341 0.578 54.559 0.578 54.559 0.815 -35.341
399.417 0.796 -37.12 0.603 52.773 0.603 52.773 0.796 -37.12
424.375 0.778 -38.823 0.627 51.063 0.627 51.063 0.778 -38.823
449.333 0.76 -40.452 0.649 49.428 0.649 49.428 0.76 -40.452
474.292 0.742 -42.009 0.669 47.865 0.669 47.865 0.742 -42.009
499.25 0.724 -43.496 0.688 46.37 0.688 46.37 0.724 -43.496
524.208 0.706 -44.917 0.706 44.942 0.706 44.942 0.706 -44.917
549.167 0.689 -46.275 0.723 43.578 0.723 43.578 0.689 -46.275
574.125 0.673 -47.571 0.738 42.275 0.738 42.275 0.673 -47.571
599.083 0.656 -48.81 0.753 41.029 0.753 41.029 0.656 -48.81
624.042 0.641 -49.994 0.766 39.838 0.766 39.838 0.641 -49.994
649 0.625 -51.126 0.779 38.699 0.779 38.699 0.625 -51.126
673.958 0.61 -52.209 0.79 37.61 0.79 37.61 0.61 -52.209
698.917 0.596 -53.244 0.801 36.567 0.801 36.567 0.596 -53.244
723.875 0.582 -54.235 0.811 35.569 0.811 35.569 0.582 -54.235
748.833 0.568 -55.183 0.821 34.614 0.821 34.614 0.568 -55.183
773.792 0.555 -56.092 0.83 33.698 0.83 33.698 0.555 -56.092
798.75 0.542 -56.963 0.838 32.819 0.838 32.819 0.542 -56.963
823.708 0.53 -57.799 0.846 31.977 0.846 31.977 0.53 -57.799
848.667 0.518 -58.6 0.854 31.168 0.854 31.168 0.518 -58.6
873.625 0.506 -59.37 0.86 30.392 0.86 30.392 0.506 -59.37
898.583 0.495 -60.109 0.867 29.645 0.867 29.645 0.495 -60.109
923.542 0.484 -60.819 0.873 28.928 0.873 28.928 0.484 -60.819
948.5 0.473 -61.502 0.879 28.237 0.879 28.237 0.473 -61.502
973.458 0.463 -62.159 0.884 27.572 0.884 27.572 0.463 -62.159
998.417 0.453 -62.792 0.889 26.932 0.889 26.932 0.453 -62.792
1023.375 0.443 -63.402 0.894 26.315 0.894 26.315 0.443 -63.402
1048.333 0.434 -63.99 0.899 25.72 0.899 25.72 0.434 -63.99
1073.292 0.425 -64.556 0.903 25.145 0.903 25.145 0.425 -64.556
1098.25 0.416 -65.103 0.907 24.591 0.907 24.591 0.416 -65.103
1123.208 0.408 -65.631 0.911 24.055 0.911 24.055 0.408 -65.631
1148.167 0.399 -66.141 0.915 23.538 0.915 23.538 0.399 -66.141
1173.125 0.391 -66.634 0.918 23.037 0.918 23.037 0.391 -66.634
1198.083 0.384 -67.11 0.921 22.553 0.921 22.553 0.384 -67.11
1223.042 0.376 -67.571 0.924 22.084 0.924 22.084 0.376 -67.571
1248 0.369 -68.017 0.927 21.629 0.927 21.629 0.369 -68.017
1272.958 0.361 -68.45 0.93 21.189 0.93 21.189 0.361 -68.45
1297.917 0.354 -68.868 0.933 20.762 0.933 20.762 0.354 -68.868
1322.875 0.348 -69.274 0.935 20.348 0.935 20.348 0.348 -69.274
1347.833 0.341 -69.668 0.938 19.946 0.938 19.946 0.341 -69.668
1372.792 0.335 -70.05 0.94 19.556 0.94 19.556 0.335 -70.05
1397.75 0.328 -70.42 0.942 19.177 0.942 19.177 0.328 -70.42
1422.708 0.322 -70.78 0.944 18.808 0.944 18.808 0.322 -70.78
1447.667 0.316 -71.13 0.946 18.45 0.946 18.45 0.316 -71.13
1472.625 0.311 -71.47 0.948 18.102 0.948 18.102 0.311 -71.47
1497.583 0.305 -71.8 0.95 17.762 0.95 17.762 0.305 -71.8
1522.542 0.3 -72.122 0.952 17.432 0.952 17.432 0.3 -72.122
1547.5 0.294 -72.435 0.953 17.111 0.953 17.111 0.294 -72.435
1572.458 0.289 -72.739 0.955 16.797 0.955 16.797 0.289 -72.739
1597.417 0.284 -73.035 0.957 16.492 0.957 16.492 0.284 -73.035
1622.375 0.279 -73.324 0.958 16.194 0.958 16.194 0.279 -73.324
1647.333 0.274 -73.605 0.959 15.903 0.959 15.903 0.274 -73.605
1672.292 0.269 -73.88 0.961 15.619 0.961 15.619 0.269 -73.88
1697.25 0.265 -74.147 0.962 15.342 0.962 15.342 0.265 -74.147
1722.208 0.26 -74.408 0.963 15.072 0.963 15.072 0.26 -74.408
1747.167 0.256 -74.663 0.964 14.808 0.964 14.808 0.256 -74.663
1772.125 0.251 -74.911 0.966 14.549 0.966 14.549 0.251 -74.911
1797.083 0.247 -75.154 0.967 14.297 0.967 14.297 0.247 -75.154
1822.042 0.243 -75.39 0.968 14.05 0.968 14.05 0.243 -75.39
1847 0.239 -75.622 0.969 13.808 0.969 13.808 0.239 -75.622
1871.958 0.235 -75.848 0.97 13.572 0.97 13.572 0.235 -75.848
1896.917 0.231 -76.069 0.971 13.341 0.971 13.341 0.231 -76.069
1921.875 0.227 -76.285 0.972 13.114 0.972 13.114 0.227 -76.285
1946.833 0.223 -76.496 0.972 12.892 0.972 12.892 0.223 -76.496
1971.792 0.219 -76.703 0.973 12.675 0.973 12.675 0.219 -76.703
1996.75 0.216 -76.905 0.974 12.461 0.974 12.461 0.216 -76.905
2021.708 0.212 -77.103 0.975 12.252 0.975 12.252 0.212 -77.103
2046.667 0.209 -77.296 0.976 12.047 0.976 12.047 0.209 -77.296
2071.625 0.205 -77.486 0.976 11.846 0.976 11.846 0.205 -77.486
2096.583 0.202 -77.672 0.977 11.649 0.977 11.649 0.202 -77.672
2121.542 0.199 -77.853 0.978 11.455 0.978 11.455 0.199 -77.853
2146.5 0.195 -78.032 0.978 11.265 0.978 11.265 0.195 -78.032
2171.458 0.192 -78.206 0.979 11.079 0.979 11.079 0.192 -78.206
2196.417 0.189 -78.377 0.98 10.895 0.98 10.895 0.189 -78.377
2221.375 0.186 -78.545 0.98 10.715 0.98 10.715 0.186 -78.545
2246.333 0.183 -78.709 0.981 10.538 0.981 10.538 0.183 -78.709
2271.292 0.18 -78.87 0.981 10.364 0.981 10.364 0.18 -78.87
2296.25 0.177 -79.028 0.982 10.193 0.982 10.193 0.177 -79.028
2321.208 0.174 -79.183 0.982 10.025 0.982 10.025 0.174 -79.183
2346.167 0.171 -79.334 0.983 9.86 0.983 9.86 0.171 -79.334
2371.125 0.168 -79.483 0.983 9.697 0.983 9.697 0.168 -79.483
2396.083 0.166 -79.63 0.984 9.537 0.984 9.537 0.166 -79.63
2421.042 0.163 -79.773 0.984 9.379 0.984 9.379 0.163 -79.773
2446 0.16 -79.914 0.985 9.224 0.985 9.224 0.16 -79.914
2470.958 0.158 -80.052 0.985 9.071 0.985 9.071 0.158 -80.052
2495.917 0.155 -80.187 0.985 8.921 0.985 8.921 0.155 -80.187
2520.875 0.153 -80.32 0.986 8.773 0.986 8.773 0.153 -80.32
2545.833 0.15 -80.45 0.986 8.626 0.986 8.626 0.15 -80.45
2570.792 0.148 -80.578 0.987 8.483 0.987 8.483 0.148 -80.578
2595.75 0.145 -80.704 0.987 8.341 0.987 8.341 0.145 -80.704
2620.708 0.143 -80.827 0.987 8.201 0.987 8.201 0.143 -80.827
2645.667 0.14 -80.949 0.988 8.063 0.988 8.063 0.14 -80.949
2670.625 0.138 -81.067 0.988 7.927 0.988 7.927 0.138 -81.067
2695.583 0.136 -81.184 0.988 7.793 0.988 7.793 0.136 -81.184
2720.542 0.133 -81.298 0.989 7.661 0.989 7.661 0.133 -81.298
2745.5 0.131 -81.411 0.989 7.53 0.989 7.53 0.131 -81.411
2770.458 0.129 -81.521 0.989 7.401 0.989 7.401 0.129 -81.521
2795.417 0.127 -81.629 0.99 7.274 0.99 7.274 0.127 -81.629
2820.375 0.124 -81.735 0.99 7.149 0.99 7.149 0.124 -81.735
2845.333 0.122 -81.839 0.99 7.025 0.99 7.025 0.122 -81.839
2870.292 0.12 -81.941 0.99 6.902 0.99 6.902 0.12 -81.941
2895.25 0.118 -82.041 0.991 6.781 0.991 6.781 0.118 -82.041
2920.208 0.116 -82.139 0.991 6.662 0.991 6.662 0.116 -82.139
2945.167 0.114 -82.235 0.991 6.544 0.991 6.544 0.114 -82.235
2970.125 0.112 -82.33 0.991 6.427 0.991 6.427 0.112 -82.33
2995.083 0.11 -82.422 0.992 6.312 0.992 6.312 0.11 -82.422
3020.042 0.108 -82.512 0.992 6.198 0.992 6.198 0.108 -82.512
3045 0.106 -82.601 0.992 6.086 0.992 6.086 0.106 -82.601
3069.958 0.104 -82.688 0.992 5.975 0.992 5.975 0.104 -82.688
3094.917 0.102 -82.772 0.992 5.865 0.992 5.865 0.102 -82.772
3119.875 0.1 -82.855 0.993 5.756 0.993 5.756 0.1 -82.855
3144.833 0.098 -82.936 0.993 5.648 0.993 5.648 0.098 -82.936
3169.792 0.097 -83.015 0.993 5.542 0.993 5.542 0.097 -83.015
3194.75 0.095 -83.092 0.993 5.436 0.993 5.436 0.095 -83.092
3219.708 0.093 -83.168 0.993 5.332 0.993 5.332 0.093 -83.168
3244.667 0.091 -83.241 0.993 5.229 0.993 5.229 0.091 -83.241
3269.625 0.089 -83.313 0.994 5.127 0.994 5.127 0.089 -83.313
3294.583 0.088 -83.382 0.994 5.026 0.994 5.026 0.088 -83.382
3319.542 0.086 -83.45 0.994 4.926 0.994 4.926 0.086 -83.45
3344.5 0.084 -83.515 0.994 4.827 0.994 4.827 0.084 -83.515
3369.458 0.082 -83.579 0.994 4.729 0.994 4.729 0.082 -83.579
3394.417 0.081 -83.64 0.994 4.632 0.994 4.632 0.081 -83.64
3419.375 0.079 -83.699 0.994 4.536 0.994 4.536 0.079 -83.699
3444.333 0.077 -83.757 0.995 4.441 0.995 4.441 0.077 -83.757
3469.292 0.076 -83.812 0.995 4.346 0.995 4.346 0.076 -83.812
3494.25 0.074 -83.865 0.995 4.253 0.995 4.253 0.074 -83.865
3519.208 0.073 -83.915 0.995 4.16 0.995 4.16 0.073 -83.915
3544.167 0.071 -83.963 0.995 4.068 0.995 4.068 0.071 -83.963
3569.125 0.069 -84.009 0.995 3.978 0.995 3.978 0.069 -84.009
3594.083 0.068 -84.053 0.995 3.887 0.995 3.887 0.068 -84.053
3619.042 0.066 -84.093 0.995 3.798 0.995 3.798 0.066 -84.093
3644 0.065 -84.131 0.995 3.71 0.995 3.71 0.065 -84.131
3668.958 0.063 -84.167 0.996 3.622 0.996 3.622 0.063 -84.167
3693.917 0.062 -84.199 0.996 3.535 0.996 3.535 0.062 -84.199
3718.875 0.06 -84.229 0.996 3.448 0.996 3.448 0.06 -84.229
3743.833 0.059 -84.255 0.996 3.363 0.996 3.363 0.059 -84.255
3768.792 0.057 -84.278 0.996 3.278 0.996 3.278 0.057 -84.278
3793.75 0.056 -84.298 0.996 3.194 0.996 3.194 0.056 -84.298
3818.708 0.054 -84.314 0.996 3.11 0.996 3.11 0.054 -84.314
3843.667 0.053 -84.327 0.996 3.027 0.996 3.027 0.053 -84.327
3868.625 0.051 -84.335 0.996 2.945 0.996 2.945 0.051 -84.335
3893.583 0.05 -84.339 0.996 2.863 0.996 2.863 0.05 -84.339
3918.542 0.049 -84.338 0.996 2.782 0.996 2.782 0.049 -84.338
3943.5 0.047 -84.333 0.996 2.702 0.996 2.702 0.047 -84.333
3968.458 0.046 -84.323 0.997 2.622 0.997 2.622 0.046 -84.323
3993.417 0.044 -84.307 0.997 2.543 0.997 2.543 0.044 -84.307
4018.375 0.043 -84.285 0.997 2.465 0.997 2.465 0.043 -84.285
4043.333 0.042 -84.257 0.997 2.387 0.997 2.387 0.042 -84.257
4068.292 0.04 -84.222 0.997 2.309 0.997 2.309 0.04 -84.222
4093.25 0.039 -84.18 0.997 2.232 0.997 2.232 0.039 -84.18
4118.208 0.038 -84.129 0.997 2.156 0.997 2.156 0.038 -84.129
4143.167 0.036 -84.07 0.997 2.08 0.997 2.08 0.036 -84.07
4168.125 0.035 -84.001 0.997 2.005 0.997 2.005 0.035 -84.001
4193.083 0.034 -83.922 0.997 1.93 0.997 1.93 0.034 -83.922
4218.042 0.032 -83.83 0.997 1.856 0.997 1.856 0.032 -83.83
4243 0.031 -83.726 0.997 1.782 0.997 1.782 0.031 -83.726
4267.958 0.03 -83.608 0.997 1.709 0.997 1.709 0.03 -83.608
4292.917 0.029 -83.473 0.997 1.636 0.997 1.636 0.029 -83.473
4317.875 0.027 -83.32 0.997 1.564 0.997 1.564 0.027 -83.32
4342.833 0.026 -83.147 0.997 1.492 0.997 1.492 0.026 -83.147
4367.792 0.025 -82.95 0.997 1.421 0.997 1.421 0.025 -82.95
4392.75 0.024 -82.727 0.997 1.35 0.997 1.35 0.024 -82.727
4417.708 0.022 -82.474 0.997 1.279 0.997 1.279 0.022 -82.474
4442.667 0.021 -82.185 0.997 1.209 0.997 1.209 0.021 -82.185
4467.625 0.02 -81.854 0.997 1.139 0.997 1.139 0.02 -81.854
4492.583 0.019 -81.475 0.997 1.07 0.997 1.07 0.019 -81.475
4517.542 0.018 -81.038 0.997 1.001 0.997 1.001 0.018 -81.038
4542.5 0.016 -80.531 0.997 0.933 0.997 0.933 0.016 -80.531
4567.458 0.015 -79.938 0.997 0.865 0.997 0.865 0.015 -79.938
4592.417 0.014 -79.241 0.997 0.797 0.997 0.797 0.014 -79.241
4617.375 0.013 -78.412 0.997 0.73 0.997 0.73 0.013 -78.412
4642.333 0.012 -77.414 0.997 0.663 0.997 0.663 0.012 -77.414
4667.292 0.011 -76.197 0.998 0.597 0.998 0.597 0.011 -76.197
4692.25 9.579e-3 -74.686 0.998 0.531 0.998 0.531 9.579e-3 -74.686
4717.208 8.474e-3 -72.772 0.998 0.465 0.998 0.465 8.474e-3 -72.772
4742.167 7.389e-3 -70.285 0.998 0.4 0.998 0.4 7.389e-3 -70.285
4767.125 6.329e-3 -66.95 0.998 0.335 0.998 0.335 6.329e-3 -66.95
4792.083 5.306e-3 -62.302 0.998 0.27 0.998 0.27 5.306e-3 -62.302
4817.042 4.34e-3 -55.522 0.998 0.206 0.998 0.206 4.34e-3 -55.522
4842 3.475e-3 -45.158 0.998 0.142 0.998 0.142 3.475e-3 -45.158
4866.958 2.797e-3 -28.992 0.998 0.078 0.998 0.078 2.797e-3 -28.992
4891.917 2.457e-3 -5.903 0.998 0.015 0.998 0.015 2.457e-3 -5.903
4916.875 2.587e-3 19.053 0.998 -0.048 0.998 -0.048 2.587e-3 19.053
4941.833 3.121e-3 38.338 0.998 -0.111 0.998 -0.111 3.121e-3 38.338
4966.792 3.893e-3 50.929 0.998 -0.174 0.998 -0.174 3.893e-3 50.929
4991.75 4.784e-3 59.042 0.998 -0.236 0.998 -0.236 4.784e-3 59.042
5016.708 5.738e-3 64.489 0.998 -0.297 0.998 -0.297 5.738e-3 64.489
5041.667 6.724e-3 68.325 0.998 -0.359 0.998 -0.359 6.724e-3 68.325
5066.625 7.728e-3 71.142 0.998 -0.42 0.998 -0.42 7.728e-3 71.142
5091.583 8.743e-3 73.285 0.998 -0.481 0.998 -0.481 8.743e-3 73.285
5116.542 9.762e-3 74.96 0.998 -0.542 0.998 -0.542 9.762e-3 74.96
5141.5 0.011 76.3 0.998 -0.602 0.998 -0.602 0.011 76.3
5166.458 0.012 77.392 0.997 -0.662 0.997 -0.662 0.012 77.392
5191.417 0.013 78.296 0.997 -0.722 0.997 -0.722 0.013 78.296
5216.375 0.014 79.055 0.997 -0.781 0.997 -0.781 0.014 79.055
5241.333 0.015 79.699 0.997 -0.84 0.997 -0.84 0.015 79.699
5266.292 0.016 80.25 0.997 -0.899 0.997 -0.899 0.016 80.25
5291.25 0.017 80.726 0.997 -0.958 0.997 -0.958 0.017 80.726
5316.208 0.018 81.14 0.997 -1.016 0.997 -1.016 0.018 81.14
5341.167 0.019 81.501 0.997 -1.075 0.997 -1.075 0.019 81.501
5366.125 0.02 81.819 0.997 -1.133 0.997 -1.133 0.02 81.819
5391.083 0.021 82.1 0.997 -1.19 0.997 -1.19 0.021 82.1
5416.042 0.022 82.349 0.997 -1.248 0.997 -1.248 0.022 82.349
5441 0.023 82.57 0.997 -1.305 0.997 -1.305 0.023 82.57
5465.958 0.024 82.768 0.997 -1.362 0.997 -1.362 0.024 82.768
5490.917 0.025 82.944 0.997 -1.419 0.997 -1.419 0.025 82.944
5515.875 0.026 83.103 0.997 -1.475 0.997 -1.475 0.026 83.103
5540.833 0.027 83.245 0.997 -1.531 0.997 -1.531 0.027 83.245
5565.792 0.028 83.372 0.997 -1.587 0.997 -1.587 0.028 83.372
5590.75 0.029 83.487 0.997 -1.643 0.997 -1.643 0.029 83.487
5615.708 0.03 83.59 0.997 -1.699 0.997 -1.699 0.03 83.59
5640.667 0.031 83.683 0.997 -1.754 0.997 -1.754 0.031 83.683
5665.625 0.032 83.766 0.997 -1.809 0.997 -1.809 0.032 83.766
5690.583 0.033 83.841 0.997 -1.864 0.997 -1.864 0.033 83.841
5715.542 0.034 83.909 0.997 -1.919 0.997 -1.919 0.034 83.909
5740.5 0.035 83.969 0.997 -1.974 0.997 -1.974 0.035 83.969
5765.458 0.035 84.023 0.997 -2.028 0.997 -2.028 0.035 84.023
5790.417 0.036 84.072 0.997 -2.082 0.997 -2.082 0.036 84.072
5815.375 0.037 84.115 0.997 -2.136 0.997 -2.136 0.037 84.115
5840.333 0.038 84.153 0.997 -2.19 0.997 -2.19 0.038 84.153
5865.292 0.039 84.186 0.997 -2.243 0.997 -2.243 0.039 84.186
5890.25 0.04 84.216 0.997 -2.297 0.997 -2.297 0.04 84.216
5915.208 0.041 84.241 0.997 -2.35 0.997 -2.35 0.041 84.241
5940.167 0.042 84.264 0.997 -2.403 0.997 -2.403 0.042 84.264
5965.125 0.043 84.282 0.997 -2.456 0.997 -2.456 0.043 84.282
5990.083 0.044 84.298 0.997 -2.508 0.997 -2.508 0.044 84.298
6015.042 0.045 84.311 0.997 -2.561 0.997 -2.561 0.045 84.311
6040 0.046 84.321 0.997 -2.613 0.997 -2.613 0.046 84.321
6064.958 0.047 84.329 0.996 -2.665 0.996 -2.665 0.047 84.329
6089.917 0.047 84.335 0.996 -2.717 0.996 -2.717 0.047 84.335
6114.875 0.048 84.338 0.996 -2.769 0.996 -2.769 0.048 84.338
6139.833 0.049 84.339 0.996 -2.821 0.996 -2.821 0.049 84.339
6164.792 0.05 84.339 0.996 -2.872 0.996 -2.872 0.05 84.339
6189.75 0.051 84.336 0.996 -2.923 0.996 -2.923 0.051 84.336
6214.708 0.052 84.332 0.996 -2.974 0.996 -2.974 0.052 84.332
6239.667 0.053 84.327 0.996 -3.025 0.996 -3.025 0.053 84.327
6264.625 0.054 84.32 0.996 -3.076 0.996 -3.076 0.054 84.32
6289.583 0.055 84.311 0.996 -3.127 0.996 -3.127 0.055 84.311
6314.542 0.055 84.302 0.996 -3.177 0.996 -3.177 0.055 84.302
6339.5 0.056 84.291 0.996 -3.227 0.996 -3.227 0.056 84.291
6364.458 0.057 84.278 0.996 -3.277 0.996 -3.277 0.057 84.278
6389.417 0.058 84.265 0.996 -3.327 0.996 -3.327 0.058 84.265
6414.375 0.059 84.251 0.996 -3.377 0.996 -3.377 0.059 84.251
6439.333 0.06 84.236 0.996 -3.427 0.996 -3.427 0.06 84.236
6464.292 0.061 84.22 0.996 -3.477 0.996 -3.477 0.061 84.22
6489.25 0.062 84.202 0.996 -3.526 0.996 -3.526 0.062 84.202
6514.208 0.062 84.185 0.996 -3.575 0.996 -3.575 0.062 84.185
6539.167 0.063 84.166 0.996 -3.624 0.996 -3.624 0.063 84.166
6564.125 0.064 84.146 0.996 -3.673 0.996 -3.673 0.064 84.146
6589.083 0.065 84.126 0.995 -3.722 0.995 -3.722 0.065 84.126
6614.042 0.066 84.105 0.995 -3.771 0.995 -3.771 0.066 84.105
6639 0.067 84.084 0.995 -3.819 0.995 -3.819 0.067 84.084
6663.958 0.068 84.062 0.995 -3.868 0.995 -3.868 0.068 84.062
6688.917 0.068 84.039 0.995 -3.916 0.995 -3.916 0.068 84.039
6713.875 0.069 84.016 0.995 -3.964 0.995 -3.964 0.069 84.016
6738.833 0.07 83.992 0.995 -4.012 0.995 -4.012 0.07 83.992
6763.792 0.071 83.968 0.995 -4.06 0.995 -4.06 0.071 83.968
6788.75 0.072 83.943 0.995 -4.108 0.995 -4.108 0.072 83.943
6813.708 0.073 83.918 0.995 -4.156 0.995 -4.156 0.073 83.918
6838.667 0.073 83.892 0.995 -4.203 0.995 -4.203 0.073 83.892
6863.625 0.074 83.866 0.995 -4.251 0.995 -4.251 0.074 83.866
6888.583 0.075 83.839 0.995 -4.298 0.995 -4.298 0.075 83.839
6913.542 0.076 83.812 0.995 -4.345 0.995 -4.345 0.076 83.812
6938.5 0.077 83.785 0.995 -4.392 0.995 -4.392 0.077 83.785
6963.458 0.077 83.758 0.995 -4.439 0.995 -4.439 0.077 83.758
6988.417 0.078 83.73 0.994 -4.486 0.994 -4.486 0.078 83.73
7013.375 0.079 83.701 0.994 -4.533 0.994 -4.533 0.079 83.701
7038.333 0.08 83.673 0.994 -4.579 0.994 -4.579 0.08 83.673
7063.292 0.081 83.644 0.994 -4.626 0.994 -4.626 0.081 83.644
7088.25 0.081 83.615 0.994 -4.672 0.994 -4.672 0.081 83.615
7113.208 0.082 83.585 0.994 -4.718 0.994 -4.718 0.082 83.585
7138.167 0.083 83.556 0.994 -4.764 0.994 -4.764 0.083 83.556
7163.125 0.084 83.526 0.994 -4.811 0.994 -4.811 0.084 83.526
7188.083 0.085 83.496 0.994 -4.856 0.994 -4.856 0.085 83.496
7213.042 0.085 83.465 0.994 -4.902 0.994 -4.902 0.085 83.465
7238 0.086 83.435 0.994 -4.948 0.994 -4.948 0.086 83.435
7262.958 0.087 83.404 0.994 -4.994 0.994 -4.994 0.087 83.404
7287.917 0.088 83.373 0.994 -5.039 0.994 -5.039 0.088 83.373
7312.875 0.089 83.342 0.994 -5.084 0.994 -5.084 0.089 83.342
7337.833 0.089 83.311 0.994 -5.13 0.994 -5.13 0.089 83.311
7362.792 0.09 83.279 0.993 -5.175 0.993 -5.175 0.09 83.279
7387.75 0.091 83.247 0.993 -5.22 0.993 -5.22 0.091 83.247
7412.708 0.092 83.216 0.993 -5.265 0.993 -5.265 0.092 83.216
7437.667 0.093 83.184 0.993 -5.31 0.993 -5.31 0.093 83.184
7462.625 0.093 83.152 0.993 -5.355 0.993 -5.355 0.093 83.152
7487.583 0.094 83.119 0.993 -5.399 0.993 -5.399 0.094 83.119
7512.542 0.095 83.087 0.993 -5.444 0.993 -5.444 0.095 83.087
7537.5 0.096 83.054 0.993 -5.488 0.993 -5.488 0.096 83.054
7562.458 0.096 83.022 0.993 -5.533 0.993 -5.533 0.096 83.022
7587.417 0.097 82.989 0.993 -5.577 0.993 -5.577 0.097 82.989
7612.375 0.098 82.956 0.993 -5.621 0.993 -5.621 0.098 82.956
7637.333 0.099 82.923 0.993 -5.666 0.993 -5.666 0.099 82.923
7662.292 0.1 82.89 0.993 -5.71 0.993 -5.71 0.1 82.89
7687.25 0.1 82.857 0.993 -5.754 0.993 -5.754 0.1 82.857
7712.208 0.101 82.823 0.992 -5.797 0.992 -5.797 0.101 82.823
7737.167 0.102 82.79 0.992 -5.841 0.992 -5.841 0.102 82.79
7762.125 0.103 82.757 0.992 -5.885 0.992 -5.885 0.103 82.757
7787.083 0.103 82.723 0.992 -5.929 0.992 -5.929 0.103 82.723
7812.042 0.104 82.689 0.992 -5.972 0.992 -5.972 0.104 82.689
7837 0.105 82.656 0.992 -6.015 0.992 -6.015 0.105 82.656
7861.958 0.106 82.622 0.992 -6.059 0.992 -6.059 0.106 82.622
7886.917 0.106 82.588 0.992 -6.102 0.992 -6.102 0.106 82.588
7911.875 0.107 82.554 0.992 -6.145 0.992 -6.145 0.107 82.554
7936.833 0.108 82.52 0.992 -6.188 0.992 -6.188 0.108 82.52
7961.792 0.109 82.486 0.992 -6.231 0.992 -6.231 0.109 82.486
7986.75 0.109 82.452 0.992 -6.274 0.992 -6.274 0.109 82.452
8011.708 0.11 82.418 0.991 -6.317 0.991 -6.317 0.11 82.418
8036.667 0.111 82.384 0.991 -6.36 0.991 -6.36 0.111 82.384
8061.625 0.112 82.35 0.991 -6.403 0.991 -6.403 0.112 82.35
8086.583 0.112 82.315 0.991 -6.445 0.991 -6.445 0.112 82.315
8111.542 0.113 82.281 0.991 -6.488 0.991 -6.488 0.113 82.281
8136.5 0.114 82.246 0.991 -6.53 0.991 -6.53 0.114 82.246
8161.458 0.114 82.212 0.991 -6.573 0.991 -6.573 0.114 82.212
8186.417 0.115 82.178 0.991 -6.615 0.991 -6.615 0.115 82.178
8211.375 0.116 82.143 0.991 -6.657 0.991 -6.657 0.116 82.143
8236.333 0.117 82.109 0.991 -6.699 0.991 -6.699 0.117 82.109
