# MHZ S MA R 50

50 1 -0.45 7.854e-3 89.543 7.854e-3 89.543 1 -0.45
74.958 1 -0.675 0.012 89.315 0.012 89.315 1 -0.675
99.917 1 -0.899 0.016 89.086 0.016 89.086 1 -0.899
124.875 1 -1.124 0.02 88.858 0.02 88.858 1 -1.124
149.833 1 -1.348 0.024 88.63 0.024 88.63 1 -1.348
174.792 1 -1.573 0.027 88.402 0.027 88.402 1 -1.573
199.75 0.999 -1.797 0.031 88.174 0.031 88.174 0.999 -1.797
224.708 0.999 -2.022 0.035 87.946 0.035 87.946 0.999 -2.022
249.667 0.999 -2.246 0.039 87.717 0.039 87.717 0.999 -2.246
274.625 0.999 -2.471 0.043 87.489 0.043 87.489 0.999 -2.471
299.583 0.999 -2.695 0.047 87.261 0.047 87.261 0.999 -2.695
324.542 0.999 -2.92 0.051 87.034 0.051 87.034 0.999 -2.92
349.5 0.998 -3.144 0.055 86.806 0.055 86.806 0.998 -3.144
374.458 0.998 -3.368 0.059 86.578 0.059 86.578 0.998 -3.368
399.417 0.998 -3.592 0.063 86.35 0.063 86.35 0.998 -3.592
424.375 0.998 -3.816 0.067 86.122 0.067 86.122 0.998 -3.816
449.333 0.997 -4.041 0.07 85.894 0.07 85.894 0.997 -4.041
474.292 0.997 -4.265 0.074 85.667 0.074 85.667 0.997 -4.265
499.25 0.997 -4.488 0.078 85.439 0.078 85.439 0.997 -4.488
524.208 0.997 -4.712 0.082 85.212 0.082 85.212 0.997 -4.712
549.167 0.996 -4.936 0.086 84.984 0.086 84.984 0.996 -4.936
574.125 0.996 -5.16 0.09 84.757 0.09 84.757 0.996 -5.16
599.083 0.995 -5.384 0.094 84.53 0.094 84.53 0.995 -5.384
624.042 0.995 -5.607 0.098 84.303 0.098 84.303 0.995 -5.607
649 0.995 -5.831 0.102 84.076 0.102 84.076 0.995 -5.831
673.958 0.994 -6.054 0.105 83.849 0.105 83.849 0.994 -6.054
698.917 0.994 -6.277 0.109 83.622 0.109 83.622 0.994 -6.277
723.875 0.993 -6.5 0.113 83.395 0.113 83.395 0.993 -6.5
748.833 0.993 -6.724 0.117 83.168 0.117 83.168 0.993 -6.724
773.792 0.992 -6.946 0.121 82.941 0.121 82.941 0.992 -6.946
798.75 0.992 -7.169 0.125 82.715 0.125 82.715 0.992 -7.169
823.708 0.991 -7.392 0.129 82.489 0.129 82.489 0.991 -7.392
848.667 0.991 -7.615 0.133 82.262 0.133 82.262 0.991 -7.615
873.625 0.99 -7.837 0.136 82.036 0.136 82.036 0.99 -7.837
898.583 0.99 -8.06 0.14 81.81 0.14 81.81 0.99 -8.06
923.542 0.989 -8.282 0.144 81.584 0.144 81.584 0.989 -8.282
948.5 0.989 -8.504 0.148 81.358 0.148 81.358 0.989 -8.504
973.458 0.988 -8.726 0.152 81.133 0.152 81.133 0.988 -8.726
998.417 0.987 -8.948 0.156 80.907 0.156 80.907 0.987 -8.948
1023.375 0.987 -9.17 0.159 80.682 0.159 80.682 0.987 -9.17
1048.333 0.986 -9.391 0.163 80.457 0.163 80.457 0.986 -9.391
1073.292 0.986 -9.613 0.167 80.231 0.167 80.231 0.986 -9.613
1098.25 0.985 -9.834 0.171 80.006 0.171 80.006 0.985 -9.834
1123.208 0.984 -10.055 0.175 79.782 0.175 79.782 0.984 -10.055
1148.167 0.983 -10.276 0.178 79.557 0.178 79.557 0.983 -10.276
1173.125 0.983 -10.497 0.182 79.332 0.182 79.332 0.983 -10.497
1198.083 0.982 -10.718 0.186 79.108 0.186 79.108 0.982 -10.718
1223.042 0.981 -10.938 0.19 78.884 0.19 78.884 0.981 -10.938
1248 0.98 -11.159 0.194 78.66 0.194 78.66 0.98 -11.159
1272.958 0.98 -11.379 0.197 78.436 0.197 78.436 0.98 -11.379
1297.917 0.979 -11.599 0.201 78.212 0.201 78.212 0.979 -11.599
1322.875 0.978 -11.819 0.205 77.989 0.205 77.989 0.978 -11.819
1347.833 0.977 -12.038 0.209 77.766 0.209 77.766 0.977 -12.038
1372.792 0.976 -12.258 0.212 77.542 0.212 77.542 0.976 -12.258
1397.75 0.976 -12.477 0.216 77.319 0.216 77.319 0.976 -12.477
1422.708 0.975 -12.696 0.22 77.097 0.22 77.097 0.975 -12.696
1447.667 0.974 -12.915 0.224 76.874 0.224 76.874 0.974 -12.915
1472.625 0.973 -13.134 0.227 76.652 0.227 76.652 0.973 -13.134
1497.583 0.972 -13.352 0.231 76.429 0.231 76.429 0.972 -13.352
1522.542 0.971 -13.571 0.235 76.207 0.235 76.207 0.971 -13.571
1547.5 0.97 -13.789 0.238 75.986 0.238 75.986 0.97 -13.789
1572.458 0.969 -14.006 0.242 75.764 0.242 75.764 0.969 -14.006
1597.417 0.968 -14.224 0.246 75.543 0.246 75.543 0.968 -14.224
1622.375 0.967 -14.442 0.249 75.321 0.249 75.321 0.967 -14.442
1647.333 0.966 -14.659 0.253 75.1 0.253 75.1 0.966 -14.659
1672.292 0.965 -14.876 0.257 74.88 0.257 74.88 0.965 -14.876
1697.25 0.964 -15.093 0.26 74.659 0.26 74.659 0.964 -15.093
1722.208 0.963 -15.309 0.264 74.439 0.264 74.439 0.963 -15.309
1747.167 0.962 -15.526 0.268 74.219 0.268 74.219 0.962 -15.526
1772.125 0.961 -15.742 0.271 73.999 0.271 73.999 0.961 -15.742
1797.083 0.96 -15.958 0.275 73.779 0.275 73.779 0.96 -15.958
1822.042 0.959 -16.173 0.279 73.56 0.279 73.56 0.959 -16.173
1847 0.958 -16.389 0.282 73.34 0.282 73.34 0.958 -16.389
1871.958 0.957 -16.604 0.286 73.121 0.286 73.121 0.957 -16.604
1896.917 0.956 -16.819 0.289 72.903 0.289 72.903 0.956 -16.819
1921.875 0.955 -17.034 0.293 72.684 0.293 72.684 0.955 -17.034
1946.833 0.954 -17.248 0.297 72.466 0.297 72.466 0.954 -17.248
1971.792 0.952 -17.462 0.3 72.248 0.3 72.248 0.952 -17.462
1996.75 0.951 -17.676 0.304 72.03 0.304 72.03 0.951 -17.676
2021.708 0.95 -17.89 0.307 71.813 0.307 71.813 0.95 -17.89
2046.667 0.949 -18.104 0.311 71.595 0.311 71.595 0.949 -18.104
2071.625 0.948 -18.317 0.314 71.378 0.314 71.378 0.948 -18.317
2096.583 0.946 -18.53 0.318 71.162 0.318 71.162 0.946 -18.53
2121.542 0.945 -18.742 0.321 70.945 0.321 70.945 0.945 -18.742
2146.5 0.944 -18.955 0.325 70.729 0.325 70.729 0.944 -18.955
2171.458 0.943 -19.167 0.328 70.513 0.328 70.513 0.943 -19.167
2196.417 0.941 -19.379 0.332 70.297 0.332 70.297 0.941 -19.379
2221.375 0.94 -19.59 0.335 70.082 0.335 70.082 0.94 -19.59
2246.333 0.939 -19.802 0.339 69.867 0.339 69.867 0.939 -19.802
2271.292 0.938 -20.013 0.342 69.652 0.342 69.652 0.938 -20.013
2296.25 0.936 -20.223 0.346 69.437 0.346 69.437 0.936 -20.223
2321.208 0.935 -20.434 0.349 69.223 0.349 69.223 0.935 -20.434
2346.167 0.934 -20.644 0.353 69.009 0.353 69.009 0.934 -20.644
2371.125 0.932 -20.854 0.356 68.795 0.356 68.795 0.932 -20.854
2396.083 0.931 -21.063 0.359 68.582 0.359 68.582 0.931 -21.063
2421.042 0.93 -21.273 0.363 68.368 0.363 68.368 0.93 -21.273
2446 0.928 -21.482 0.366 68.156 0.366 68.156 0.928 -21.482
2470.958 0.927 -21.691 0.37 67.943 0.37 67.943 0.927 -21.691
2495.917 0.925 -21.899 0.373 67.731 0.373 67.731 0.925 -21.899
2520.875 0.924 -22.107 0.376 67.519 0.376 67.519 0.924 -22.107
2545.833 0.923 -22.315 0.38 67.307 0.38 67.307 0.923 -22.315
2570.792 0.921 -22.522 0.383 67.095 0.383 67.095 0.921 -22.522
2595.75 0.92 -22.73 0.386 66.884 0.386 66.884 0.92 -22.73
2620.708 0.918 -22.937 0.39 66.673 0.39 66.673 0.918 -22.937
2645.667 0.917 -23.143 0.393 66.463 0.393 66.463 0.917 -23.143
2670.625 0.915 -23.349 0.396 66.253 0.396 66.253 0.915 -23.349
2695.583 0.914 -23.555 0.4 66.043 0.4 66.043 0.914 -23.555
2720.542 0.912 -23.761 0.403 65.833 0.403 65.833 0.912 -23.761
2745.5 0.911 -23.966 0.406 65.624 0.406 65.624 0.911 -23.966
2770.458 0.909 -24.171 0.409 65.415 0.409 65.415 0.909 -24.171
2795.417 0.908 -24.376 0.413 65.206 0.413 65.206 0.908 -24.376
2820.375 0.906 -24.58 0.416 64.998 0.416 64.998 0.906 -24.58
2845.333 0.905 -24.785 0.419 64.79 0.419 64.79 0.905 -24.785
2870.292 0.903 -24.988 0.422 64.582 0.422 64.582 0.903 -24.988
2895.25 0.902 -25.192 0.426 64.374 0.426 64.374 0.902 -25.192
2920.208 0.9 -25.395 0.429 64.167 0.429 64.167 0.9 -25.395
2945.167 0.899 -25.597 0.432 63.961 0.432 63.961 0.899 -25.597
2970.125 0.897 -25.8 0.435 63.754 0.435 63.754 0.897 -25.8
2995.083 0.895 -26.002 0.438 63.548 0.438 63.548 0.895 -26.002
3020.042 0.894 -26.204 0.442 63.342 0.442 63.342 0.894 -26.204
3045 0.892 -26.405 0.445 63.137 0.445 63.137 0.892 -26.405
3069.958 0.89 -26.606 0.448 62.932 0.448 62.932 0.89 -26.606
3094.917 0.889 -26.807 0.451 62.727 0.451 62.727 0.889 -26.807
3119.875 0.887 -27.007 0.454 62.522 0.454 62.522 0.887 -27.007
3144.833 0.886 -27.207 0.457 62.318 0.457 62.318 0.886 -27.207
3169.792 0.884 -27.407 0.46 62.114 0.46 62.114 0.884 -27.407
3194.75 0.882 -27.606 0.463 61.911 0.463 61.911 0.882 -27.606
3219.708 0.881 -27.805 0.466 61.708 0.466 61.708 0.881 -27.805
3244.667 0.879 -28.004 0.47 61.505 0.47 61.505 0.879 -28.004
3269.625 0.877 -28.202 0.473 61.302 0.473 61.302 0.877 -28.202
3294.583 0.875 -28.4 0.476 61.1 0.476 61.1 0.875 -28.4
3319.542 0.874 -28.598 0.479 60.898 0.479 60.898 0.874 -28.598
3344.5 0.872 -28.795 0.482 60.697 0.482 60.697 0.872 -28.795
3369.458 0.87 -28.992 0.485 60.496 0.485 60.496 0.87 -28.992
3394.417 0.869 -29.189 0.488 60.295 0.488 60.295 0.869 -29.189
3419.375 0.867 -29.385 0.491 60.095 0.491 60.095 0.867 -29.385
3444.333 0.865 -29.581 0.494 59.895 0.494 59.895 0.865 -29.581
3469.292 0.863 -29.776 0.497 59.695 0.497 59.695 0.863 -29.776
3494.25 0.862 -29.971 0.5 59.496 0.5 59.496 0.862 -29.971
3519.208 0.86 -30.166 0.503 59.297 0.503 59.297 0.86 -30.166
3544.167 0.858 -30.361 0.505 59.098 0.505 59.098 0.858 -30.361
3569.125 0.856 -30.555 0.508 58.9 0.508 58.9 0.856 -30.555
3594.083 0.855 -30.748 0.511 58.702 0.511 58.702 0.855 -30.748
3619.042 0.853 -30.942 0.514 58.504 0.514 58.504 0.853 -30.942
3644 0.851 -31.135 0.517 58.307 0.517 58.307 0.851 -31.135
3668.958 0.849 -31.327 0.52 58.11 0.52 58.11 0.849 -31.327
3693.917 0.847 -31.519 0.523 57.914 0.523 57.914 0.847 -31.519
3718.875 0.845 -31.711 0.526 57.717 0.526 57.717 0.845 -31.711
3743.833 0.844 -31.903 0.529 57.522 0.529 57.522 0.844 -31.903
3768.792 0.842 -32.094 0.531 57.326 0.531 57.326 0.842 -32.094
3793.75 0.84 -32.284 0.534 57.131 0.534 57.131 0.84 -32.284
3818.708 0.838 -32.475 0.537 56.936 0.537 56.936 0.838 -32.475
3843.667 0.836 -32.665 0.54 56.742 0.54 56.742 0.836 -32.665
3868.625 0.834 -32.854 0.543 56.548 0.543 56.548 0.834 -32.854
3893.583 0.833 -33.044 0.545 56.354 0.545 56.354 0.833 -33.044
3918.542 0.831 -33.233 0.548 56.161 0.548 56.161 0.831 -33.233
3943.5 0.829 -33.421 0.551 55.968 0.551 55.968 0.829 -33.421
3968.458 0.827 -33.609 0.554 55.775 0.554 55.775 0.827 -33.609
3993.417 0.825 -33.797 0.556 55.583 0.556 55.583 0.825 -33.797
4018.375 0.823 -33.984 0.559 55.391 0.559 55.391 0.823 -33.984
4043.333 0.821 -34.171 0.562 55.2 0.562 55.2 0.821 -34.171
4068.292 0.819 -34.358 0.564 55.009 0.564 55.009 0.819 -34.358
4093.25 0.817 -34.544 0.567 54.818 0.567 54.818 0.817 -34.544
4118.208 0.815 -34.73 0.57 54.628 0.57 54.628 0.815 -34.73
4143.167 0.814 -34.915 0.572 54.438 0.572 54.438 0.814 -34.915
4168.125 0.812 -35.101 0.575 54.248 0.575 54.248 0.812 -35.101
4193.083 0.81 -35.285 0.578 54.059 0.578 54.059 0.81 -35.285
4218.042 0.808 -35.47 0.58 53.87 0.58 53.87 0.808 -35.47
4243 0.806 -35.654 0.583 53.682 0.583 53.682 0.806 -35.654
4267.958 0.804 -35.837 0.586 53.493 0.586 53.493 0.804 -35.837
4292.917 0.802 -36.02 0.588 53.306 0.588 53.306 0.802 -36.02
4317.875 0.8 -36.203 0.591 53.118 0.591 53.118 0.8 -36.203
4342.833 0.798 -36.385 0.593 52.931 0.593 52.931 0.798 -36.385
4367.792 0.796 -36.567 0.596 52.745 0.596 52.745 0.796 -36.567
4392.75 0.794 -36.749 0.598 52.558 0.598 52.558 0.794 -36.749
4417.708 0.792 -36.93 0.601 52.372 0.601 52.372 0.792 -36.93
4442.667 0.79 -37.111 0.603 52.187 0.603 52.187 0.79 -37.111
4467.625 0.788 -37.292 0.606 52.002 0.606 52.002 0.788 -37.292
4492.583 0.786 -37.472 0.608 51.817 0.608 51.817 0.786 -37.472
4517.542 0.784 -37.652 0.611 51.632 0.611 51.632 0.784 -37.652
4542.5 0.782 -37.831 0.613 51.448 0.613 51.448 0.782 -37.831
4567.458 0.78 -38.01 0.616 51.265 0.616 51.265 0.78 -38.01
4592.417 0.778 -38.188 0.618 51.081 0.618 51.081 0.778 -38.188
4617.375 0.776 -38.367 0.621 50.898 0.621 50.898 0.776 -38.367
4642.333 0.774 -38.544 0.623 50.716 0.623 50.716 0.774 -38.544
4667.292 0.772 -38.722 0.626 50.534 0.626 50.534 0.772 -38.722
4692.25 0.77 -38.899 0.628 50.352 0.628 50.352 0.77 -38.899
4717.208 0.768 -39.075 0.63 50.17 0.63 50.17 0.768 -39.075
4742.167 0.766 -39.252 0.633 49.989 0.633 49.989 0.766 -39.252
4767.125 0.764 -39.427 0.635 49.808 0.635 49.808 0.764 -39.427
4792.083 0.762 -39.603 0.638 49.628 0.638 49.628 0.762 -39.603
4817.042 0.76 -39.778 0.64 49.448 0.64 49.448 0.76 -39.778
4842 0.758 -39.953 0.642 49.269 0.642 49.269 0.758 -39.953
4866.958 0.756 -40.127 0.645 49.089 0.645 49.089 0.756 -40.127
4891.917 0.754 -40.301 0.647 48.91 0.647 48.91 0.754 -40.301
4916.875 0.752 -40.474 0.649 48.732 0.649 48.732 0.752 -40.474
4941.833 0.75 -40.647 0.651 48.554 0.651 48.554 0.75 -40.647
4966.792 0.748 -40.82 0.654 48.376 0.654 48.376 0.748 -40.82
4991.75 0.746 -40.992 0.656 48.199 0.656 48.199 0.746 -40.992
5016.708 0.743 -41.164 0.658 48.022 0.658 48.022 0.743 -41.164
5041.667 0.741 -41.336 0.661 47.845 0.661 47.845 0.741 -41.336
5066.625 0.739 -41.507 0.663 47.669 0.663 47.669 0.739 -41.507
5091.583 0.737 -41.678 0.665 47.493 0.665 47.493 0.737 -41.678
5116.542 0.735 -41.848 0.667 47.318 0.667 47.318 0.735 -41.848
5141.5 0.733 -42.018 0.669 47.142 0.669 47.142 0.733 -42.018
5166.458 0.731 -42.188 0.672 46.968 0.672 46.968 0.731 -42.188
5191.417 0.729 -42.357 0.674 46.793 0.674 46.793 0.729 -42.357
5216.375 0.727 -42.526 0.676 46.619 0.676 46.619 0.727 -42.526
5241.333 0.725 -42.694 0.678 46.446 0.678 46.446 0.725 -42.694
5266.292 0.723 -42.862 0.68 46.272 0.68 46.272 0.723 -42.862
5291.25 0.721 -43.03 0.682 46.099 0.682 46.099 0.721 -43.03
5316.208 0.719 -43.197 0.685 45.927 0.685 45.927 0.719 -43.197
5341.167 0.716 -43.364 0.687 45.755 0.687 45.755 0.716 -43.364
5366.125 0.714 -43.531 0.689 45.583 0.689 45.583 0.714 -43.531
5391.083 0.712 -43.697 0.691 45.412 0.691 45.412 0.712 -43.697
5416.042 0.71 -43.863 0.693 45.241 0.693 45.241 0.71 -43.863
5441 0.708 -44.028 0.695 45.07 0.695 45.07 0.708 -44.028
5465.958 0.706 -44.193 0.697 44.899 0.697 44.899 0.706 -44.193
5490.917 0.704 -44.357 0.699 44.73 0.699 44.73 0.704 -44.357
5515.875 0.702 -44.522 0.701 44.56 0.701 44.56 0.702 -44.522
5540.833 0.7 -44.685 0.703 44.391 0.703 44.391 0.7 -44.685
5565.792 0.698 -44.849 0.705 44.222 0.705 44.222 0.698 -44.849
5590.75 0.695 -45.012 0.707 44.053 0.707 44.053 0.695 -45.012
5615.708 0.693 -45.174 0.709 43.885 0.709 43.885 0.693 -45.174
5640.667 0.691 -45.337 0.711 43.717 0.711 43.717 0.691 -45.337
5665.625 0.689 -45.498 0.713 43.55 0.713 43.55 0.689 -45.498
5690.583 0.687 -45.66 0.715 43.383 0.715 43.383 0.687 -45.66
5715.542 0.685 -45.821 0.717 43.216 0.717 43.216 0.685 -45.821
5740.5 0.683 -45.982 0.719 43.05 0.719 43.05 0.683 -45.982
5765.458 0.681 -46.142 0.721 42.884 0.721 42.884 0.681 -46.142
5790.417 0.678 -46.302 0.723 42.719 0.723 42.719 0.678 -46.302
5815.375 0.676 -46.461 0.725 42.553 0.725 42.553 0.676 -46.461
5840.333 0.674 -46.621 0.727 42.388 0.727 42.388 0.674 -46.621
5865.292 0.672 -46.779 0.729 42.224 0.729 42.224 0.672 -46.779
5890.25 0.67 -46.938 0.731 42.06 0.731 42.06 0.67 -46.938
5915.208 0.668 -47.096 0.733 41.896 0.733 41.896 0.668 -47.096
5940.167 0.666 -47.253 0.734 41.733 0.734 41.733 0.666 -47.253
5965.125 0.664 -47.411 0.736 41.57 0.736 41.57 0.664 -47.411
5990.083 0.662 -47.567 0.738 41.407 0.738 41.407 0.662 -47.567
6015.042 0.659 -47.724 0.74 41.245 0.74 41.245 0.659 -47.724
6040 0.657 -47.88 0.742 41.083 0.742 41.083 0.657 -47.88
6064.958 0.655 -48.036 0.744 40.921 0.744 40.921 0.655 -48.036
6089.917 0.653 -48.191 0.745 40.76 0.745 40.76 0.653 -48.191
6114.875 0.651 -48.346 0.747 40.599 0.747 40.599 0.651 -48.346
6139.833 0.649 -48.501 0.749 40.438 0.749 40.438 0.649 -48.501
6164.792 0.647 -48.655 0.751 40.278 0.751 40.278 0.647 -48.655
6189.75 0.644 -48.809 0.753 40.118 0.753 40.118 0.644 -48.809
6214.708 0.642 -48.962 0.754 39.959 0.754 39.959 0.642 -48.962
6239.667 0.64 -49.115 0.756 39.799 0.756 39.799 0.64 -49.115
6264.625 0.638 -49.268 0.758 39.641 0.758 39.641 0.638 -49.268
6289.583 0.636 -49.42 0.76 39.482 0.76 39.482 0.636 -49.42
6314.542 0.634 -49.572 0.761 39.324 0.761 39.324 0.634 -49.572
6339.5 0.632 -49.723 0.763 39.166 0.763 39.166 0.632 -49.723
6364.458 0.63 -49.875 0.765 39.009 0.765 39.009 0.63 -49.875
6389.417 0.627 -50.025 0.766 38.852 0.766 38.852 0.627 -50.025
6414.375 0.625 -50.176 0.768 38.695 0.768 38.695 0.625 -50.176
6439.333 0.623 -50.326 0.77 38.539 0.77 38.539 0.623 -50.326
6464.292 0.621 -50.475 0.772 38.383 0.772 38.383 0.621 -50.475
6489.25 0.619 -50.625 0.773 38.227 0.773 38.227 0.619 -50.625
6514.208 0.617 -50.774 0.775 38.072 0.775 38.072 0.617 -50.774
6539.167 0.615 -50.922 0.776 37.917 0.776 37.917 0.615 -50.922
6564.125 0.613 -51.07 0.778 37.762 0.778 37.762 0.613 -51.07
6589.083 0.61 -51.218 0.78 37.608 0.78 37.608 0.61 -51.218
6614.042 0.608 -51.365 0.781 37.454 0.781 37.454 0.608 -51.365
6639 0.606 -51.512 0.783 37.3 0.783 37.3 0.606 -51.512
6663.958 0.604 -51.659 0.785 37.147 0.785 37.147 0.604 -51.659
6688.917 0.602 -51.805 0.786 36.994 0.786 36.994 0.602 -51.805
6713.875 0.6 -51.951 0.788 36.842 0.788 36.842 0.6 -51.951
6738.833 0.598 -52.097 0.789 36.689 0.789 36.689 0.598 -52.097
6763.792 0.595 -52.242 0.791 36.537 0.791 36.537 0.595 -52.242
6788.75 0.593 -52.387 0.792 36.386 0.792 36.386 0.593 -52.387
6813.708 0.591 -52.531 0.794 36.235 0.794 36.235 0.591 -52.531
6838.667 0.589 -52.675 0.795 36.084 0.795 36.084 0.589 -52.675
6863.625 0.587 -52.819 0.797 35.933 0.797 35.933 0.587 -52.819
6888.583 0.585 -52.962 0.798 35.783 0.798 35.783 0.585 -52.962
6913.542 0.583 -53.105 0.8 35.633 0.8 35.633 0.583 -53.105
6938.5 0.581 -53.248 0.801 35.484 0.801 35.484 0.581 -53.248
6963.458 0.578 -53.39 0.803 35.334 0.803 35.334 0.578 -53.39
6988.417 0.576 -53.532 0.804 35.185 0.804 35.185 0.576 -53.532
7013.375 0.574 -53.673 0.806 35.037 0.806 35.037 0.574 -53.673
7038.333 0.572 -53.814 0.807 34.889 0.807 34.889 0.572 -53.814
7063.292 0.57 -53.955 0.809 34.741 0.809 34.741 0.57 -53.955
7088.25 0.568 -54.096 0.81 34.593 0.81 34.593 0.568 -54.096
7113.208 0.566 -54.236 0.812 34.446 0.812 34.446 0.566 -54.236
7138.167 0.564 -54.375 0.813 34.299 0.813 34.299 0.564 -54.375
7163.125 0.562 -54.514 0.814 34.152 0.814 34.152 0.562 -54.514
7188.083 0.559 -54.653 0.816 34.006 0.816 34.006 0.559 -54.653
7213.042 0.557 -54.792 0.817 33.86 0.817 33.86 0.557 -54.792
7238 0.555 -54.93 0.819 33.715 0.819 33.715 0.555 -54.93
7262.958 0.553 -55.068 0.82 33.569 0.82 33.569 0.553 -55.068
7287.917 0.551 -55.205 0.821 33.424 0.821 33.424 0.551 -55.205
7312.875 0.549 -55.342 0.823 33.28 0.823 33.28 0.549 -55.342
7337.833 0.547 -55.479 0.824 33.135 0.824 33.135 0.547 -55.479
7362.792 0.545 -55.616 0.826 32.991 0.826 32.991 0.545 -55.616
7387.75 0.543 -55.752 0.827 32.848 0.827 32.848 0.543 -55.752
7412.708 0.54 -55.887 0.828 32.704 0.828 32.704 0.54 -55.887
7437.667 0.538 -56.023 0.83 32.561 0.83 32.561 0.538 -56.023
7462.625 0.536 -56.157 0.831 32.418 0.831 32.418 0.536 -56.157
7487.583 0.534 -56.292 0.832 32.276 0.832 32.276 0.534 -56.292
7512.542 0.532 -56.426 0.833 32.134 0.833 32.134 0.532 -56.426
7537.5 0.53 -56.56 0.835 31.992 0.835 31.992 0.53 -56.56
7562.458 0.528 -56.694 0.836 31.851 0.836 31.851 0.528 -56.694
7587.417 0.526 -56.827 0.837 31.709 0.837 31.709 0.526 -56.827
7612.375 0.524 -56.96 0.839 31.569 0.839 31.569 0.524 -56.96
7637.333 0.522 -57.092 0.84 31.428 0.84 31.428 0.522 -57.092
7662.292 0.52 -57.224 0.841 31.288 0.841 31.288 0.52 -57.224
7687.25 0.517 -57.356 0.842 31.148 0.842 31.148 0.517 -57.356
7712.208 0.515 -57.487 0.844 31.008 0.844 31.008 0.515 -57.487
7737.167 0.513 -57.618 0.845 30.869 0.845 30.869 0.513 -57.618
7762.125 0.511 -57.749 0.846 30.73 0.846 30.73 0.511 -57.749
7787.083 0.509 -57.879 0.847 30.591 0.847 30.591 0.509 -57.879
7812.042 0.507 -58.009 0.848 30.453 0.848 30.453 0.507 -58.009
7837 0.505 -58.138 0.85 30.315 0.85 30.315 0.505 -58.138
7861.958 0.503 -58.268 0.851 30.177 0.851 30.177 0.503 -58.268
7886.917 0.501 -58.396 0.852 30.04 0.852 30.04 0.501 -58.396
7911.875 0.499 -58.525 0.853 29.902 0.853 29.902 0.499 -58.525
7936.833 0.497 -58.653 0.854 29.766 0.854 29.766 0.497 -58.653
7961.792 0.495 -58.781 0.856 29.629 0.856 29.629 0.495 -58.781
7986.75 0.493 -58.908 0.857 29.493 0.857 29.493 0.493 -58.908
8011.708 0.49 -59.035 0.858 29.357 0.858 29.357 0.49 -59.035
8036.667 0.488 -59.162 0.859 29.221 0.859 29.221 0.488 -59.162
8061.625 0.486 -59.289 0.86 29.086 0.86 29.086 0.486 -59.289
8086.583 0.484 -59.415 0.861 28.951 0.861 28.951 0.484 -59.415
8111.542 0.482 -59.54 0.862 28.816 0.862 28.816 0.482 -59.54
8136.5 0.48 -59.665 0.863 28.681 0.863 28.681 0.48 -59.665
8161.458 0.478 -59.79 0.865 28.547 0.865 28.547 0.478 -59.79
