# MHZ S MA R 50

50 0.993 -6.808 0.119 83.177 0.119 83.177 0.993 -6.808
74.958 0.984 -10.149 0.176 79.829 0.176 79.829 0.984 -10.149
99.917 0.973 -13.423 0.232 76.547 0.232 76.547 0.973 -13.423
124.875 0.958 -16.612 0.286 73.351 0.286 73.351 0.958 -16.612
149.833 0.941 -19.701 0.337 70.255 0.337 70.255 0.941 -19.701
174.792 0.922 -22.678 0.386 67.27 0.386 67.27 0.922 -22.678
199.75 0.902 -25.534 0.431 64.407 0.431 64.407 0.902 -25.534
224.708 0.88 -28.263 0.474 61.67 0.474 61.67 0.88 -28.263
249.667 0.858 -30.863 0.513 59.063 0.513 59.063 0.858 -30.863
274.625 0.835 -33.333 0.55 56.585 0.55 56.585 0.835 -33.333
299.583 0.811 -35.674 0.583 54.236 0.583 54.236 0.811 -35.674
324.542 0.788 -37.89 0.614 52.014 0.614 52.014 0.788 -37.89
349.5 0.765 -39.983 0.643 49.912 0.643 49.912 0.765 -39.983
374.458 0.742 -41.96 0.669 47.928 0.669 47.928 0.742 -41.96
399.417 0.72 -43.826 0.692 46.055 0.692 46.055 0.72 -43.826
424.375 0.698 -45.585 0.714 44.287 0.714 44.287 0.698 -45.585
449.333 0.677 -47.246 0.734 42.62 0.734 42.62 0.677 -47.246
474.292 0.657 -48.812 0.753 41.045 0.753 41.045 0.657 -48.812
499.25 0.637 -50.29 0.769 39.559 0.769 39.559 0.637 -50.29
524.208 0.618 -51.686 0.785 38.156 0.785 38.156 0.618 -51.686
549.167 0.599 -53.005 0.799 36.829 0.799 36.829 0.599 -53.005
574.125 0.582 -54.252 0.812 35.575 0.812 35.575 0.582 -54.252
599.083 0.565 -55.432 0.823 34.387 0.823 34.387 0.565 -55.432
624.042 0.548 -56.549 0.834 33.262 0.834 33.262 0.548 -56.549
649 0.533 -57.607 0.844 32.196 0.844 32.196 0.533 -57.607
673.958 0.518 -58.612 0.854 31.183 0.854 31.183 0.518 -58.612
698.917 0.503 -59.565 0.862 30.222 0.862 30.222 0.503 -59.565
723.875 0.49 -60.471 0.87 29.308 0.87 29.308 0.49 -60.471
748.833 0.476 -61.332 0.877 28.439 0.877 28.439 0.476 -61.332
773.792 0.463 -62.152 0.884 27.61 0.884 27.61 0.463 -62.152
798.75 0.451 -62.934 0.89 26.821 0.89 26.821 0.451 -62.934
823.708 0.439 -63.679 0.896 26.067 0.896 26.067 0.439 -63.679
848.667 0.428 -64.39 0.902 25.348 0.902 25.348 0.428 -64.39
873.625 0.417 -65.07 0.907 24.66 0.907 24.66 0.417 -65.07
898.583 0.407 -65.72 0.912 24.001 0.912 24.001 0.407 -65.72
923.542 0.397 -66.342 0.916 23.371 0.916 23.371 0.397 -66.342
948.5 0.387 -66.937 0.92 22.767 0.92 22.767 0.387 -66.937
973.458 0.378 -67.508 0.924 22.187 0.924 22.187 0.378 -67.508
998.417 0.369 -68.056 0.928 21.631 0.928 21.631 0.369 -68.056
1023.375 0.36 -68.582 0.931 21.096 0.931 21.096 0.36 -68.582
1048.333 0.352 -69.088 0.934 20.582 0.934 20.582 0.352 -69.088
1073.292 0.343 -69.573 0.937 20.087 0.937 20.087 0.343 -69.573
1098.25 0.336 -70.041 0.94 19.611 0.94 19.611 0.336 -70.041
1123.208 0.328 -70.491 0.943 19.152 0.943 19.152 0.328 -70.491
1148.167 0.321 -70.925 0.945 18.709 0.945 18.709 0.321 -70.925
1173.125 0.314 -71.343 0.947 18.281 0.947 18.281 0.314 -71.343
1198.083 0.307 -71.747 0.95 17.869 0.95 17.869 0.307 -71.747
1223.042 0.3 -72.136 0.952 17.47 0.952 17.47 0.3 -72.136
1248 0.294 -72.512 0.954 17.084 0.954 17.084 0.294 -72.512
1272.958 0.288 -72.876 0.956 16.711 0.956 16.711 0.288 -72.876
1297.917 0.281 -73.228 0.957 16.349 0.957 16.349 0.281 -73.228
1322.875 0.276 -73.568 0.959 15.999 0.959 15.999 0.276 -73.568
1347.833 0.27 -73.898 0.961 15.659 0.961 15.659 0.27 -73.898
1372.792 0.264 -74.217 0.962 15.33 0.962 15.33 0.264 -74.217
1397.75 0.259 -74.527 0.964 15.011 0.964 15.011 0.259 -74.527
1422.708 0.254 -74.827 0.965 14.7 0.965 14.7 0.254 -74.827
1447.667 0.249 -75.118 0.966 14.399 0.966 14.399 0.249 -75.118
1472.625 0.244 -75.4 0.968 14.106 0.968 14.106 0.244 -75.4
1497.583 0.239 -75.675 0.969 13.821 0.969 13.821 0.239 -75.675
1522.542 0.234 -75.941 0.97 13.544 0.97 13.544 0.234 -75.941
1547.5 0.23 -76.2 0.971 13.274 0.971 13.274 0.23 -76.2
1572.458 0.225 -76.452 0.972 13.011 0.972 13.011 0.225 -76.452
1597.417 0.221 -76.697 0.973 12.755 0.973 12.755 0.221 -76.697
1622.375 0.217 -76.935 0.974 12.505 0.974 12.505 0.217 -76.935
1647.333 0.212 -77.167 0.975 12.262 0.975 12.262 0.212 -77.167
1672.292 0.208 -77.393 0.976 12.025 0.976 12.025 0.208 -77.393
1697.25 0.204 -77.613 0.977 11.793 0.977 11.793 0.204 -77.613
1722.208 0.201 -77.827 0.978 11.566 0.978 11.566 0.201 -77.827
1747.167 0.197 -78.036 0.978 11.345 0.978 11.345 0.197 -78.036
1772.125 0.193 -78.24 0.979 11.129 0.979 11.129 0.193 -78.24
1797.083 0.189 -78.439 0.98 10.918 0.98 10.918 0.189 -78.439
1822.042 0.186 -78.633 0.98 10.711 0.98 10.711 0.186 -78.633
1847 0.182 -78.822 0.981 10.509 0.981 10.509 0.182 -78.822
1871.958 0.179 -79.006 0.982 10.312 0.982 10.312 0.179 -79.006
1896.917 0.176 -79.187 0.982 10.118 0.982 10.118 0.176 -79.187
1921.875 0.172 -79.363 0.983 9.929 0.983 9.929 0.172 -79.363
1946.833 0.169 -79.535 0.983 9.743 0.983 9.743 0.169 -79.535
1971.792 0.166 -79.703 0.984 9.561 0.984 9.561 0.166 -79.703
1996.75 0.163 -79.867 0.984 9.382 0.984 9.382 0.163 -79.867
2021.708 0.16 -80.027 0.985 9.208 0.985 9.208 0.16 -80.027
2046.667 0.157 -80.184 0.985 9.036 0.985 9.036 0.157 -80.184
2071.625 0.154 -80.337 0.986 8.868 0.986 8.868 0.154 -80.337
2096.583 0.151 -80.487 0.986 8.702 0.986 8.702 0.151 -80.487
2121.542 0.149 -80.634 0.987 8.54 0.987 8.54 0.149 -80.634
2146.5 0.146 -80.777 0.987 8.381 0.987 8.381 0.146 -80.777
2171.458 0.143 -80.917 0.988 8.225 0.988 8.225 0.143 -80.917
2196.417 0.14 -81.054 0.988 8.071 0.988 8.071 0.14 -81.054
2221.375 0.138 -81.188 0.988 7.92 0.988 7.92 0.138 -81.188
2246.333 0.135 -81.32 0.989 7.771 0.989 7.771 0.135 -81.32
2271.292 0.133 -81.448 0.989 7.625 0.989 7.625 0.133 -81.448
2296.25 0.13 -81.574 0.989 7.482 0.989 7.482 0.13 -81.574
2321.208 0.128 -81.697 0.99 7.34 0.99 7.34 0.128 -81.697
2346.167 0.125 -81.817 0.99 7.201 0.99 7.201 0.125 -81.817
2371.125 0.123 -81.934 0.99 7.064 0.99 7.064 0.123 -81.934
2396.083 0.121 -82.05 0.991 6.93 0.991 6.93 0.121 -82.05
2421.042 0.118 -82.162 0.991 6.797 0.991 6.797 0.118 -82.162
2446 0.116 -82.272 0.991 6.666 0.991 6.666 0.116 -82.272
2470.958 0.114 -82.38 0.991 6.538 0.991 6.538 0.114 -82.38
2495.917 0.112 -82.485 0.992 6.411 0.992 6.411 0.112 -82.485
2520.875 0.11 -82.588 0.992 6.286 0.992 6.286 0.11 -82.588
2545.833 0.107 -82.688 0.992 6.163 0.992 6.163 0.107 -82.688
2570.792 0.105 -82.787 0.992 6.041 0.992 6.041 0.105 -82.787
2595.75 0.103 -82.883 0.993 5.921 0.993 5.921 0.103 -82.883
2620.708 0.101 -82.976 0.993 5.803 0.993 5.803 0.101 -82.976
2645.667 0.099 -83.068 0.993 5.687 0.993 5.687 0.099 -83.068
2670.625 0.097 -83.157 0.993 5.572 0.993 5.572 0.097 -83.157
2695.583 0.095 -83.244 0.993 5.458 0.993 5.458 0.095 -83.244
2720.542 0.093 -83.328 0.993 5.346 0.993 5.346 0.093 -83.328
2745.5 0.091 -83.411 0.994 5.235 0.994 5.235 0.091 -83.411
2770.458 0.089 -83.491 0.994 5.126 0.994 5.126 0.089 -83.491
2795.417 0.088 -83.569 0.994 5.018 0.994 5.018 0.088 -83.569
2820.375 0.086 -83.645 0.994 4.912 0.994 4.912 0.086 -83.645
2845.333 0.084 -83.718 0.994 4.806 0.994 4.806 0.084 -83.718
2870.292 0.082 -83.79 0.994 4.702 0.994 4.702 0.082 -83.79
2895.25 0.08 -83.858 0.995 4.6 0.995 4.6 0.08 -83.858
2920.208 0.078 -83.925 0.995 4.498 0.995 4.498 0.078 -83.925
2945.167 0.077 -83.989 0.995 4.398 0.995 4.398 0.077 -83.989
2970.125 0.075 -84.051 0.995 4.298 0.995 4.298 0.075 -84.051
2995.083 0.073 -84.111 0.995 4.2 0.995 4.2 0.073 -84.111
3020.042 0.072 -84.168 0.995 4.103 0.995 4.103 0.072 -84.168
3045 0.07 -84.222 0.995 4.007 0.995 4.007 0.07 -84.222
3069.958 0.068 -84.274 0.996 3.912 0.996 3.912 0.068 -84.274
3094.917 0.067 -84.324 0.996 3.818 0.996 3.818 0.067 -84.324
3119.875 0.065 -84.37 0.996 3.725 0.996 3.725 0.065 -84.37
3144.833 0.063 -84.414 0.996 3.633 0.996 3.633 0.063 -84.414
3169.792 0.062 -84.455 0.996 3.542 0.996 3.542 0.062 -84.455
3194.75 0.06 -84.492 0.996 3.451 0.996 3.451 0.06 -84.492
3219.708 0.059 -84.527 0.996 3.362 0.996 3.362 0.059 -84.527
3244.667 0.057 -84.558 0.996 3.274 0.996 3.274 0.057 -84.558
3269.625 0.056 -84.586 0.996 3.186 0.996 3.186 0.056 -84.586
3294.583 0.054 -84.61 0.996 3.099 0.996 3.099 0.054 -84.61
3319.542 0.053 -84.631 0.996 3.013 0.996 3.013 0.053 -84.631
3344.5 0.051 -84.648 0.997 2.928 0.997 2.928 0.051 -84.648
3369.458 0.05 -84.66 0.997 2.844 0.997 2.844 0.05 -84.66
3394.417 0.048 -84.668 0.997 2.76 0.997 2.76 0.048 -84.668
3419.375 0.047 -84.671 0.997 2.677 0.997 2.677 0.047 -84.671
3444.333 0.045 -84.669 0.997 2.595 0.997 2.595 0.045 -84.669
3469.292 0.044 -84.662 0.997 2.514 0.997 2.514 0.044 -84.662
3494.25 0.043 -84.649 0.997 2.433 0.997 2.433 0.043 -84.649
3519.208 0.041 -84.63 0.997 2.353 0.997 2.353 0.041 -84.63
3544.167 0.04 -84.604 0.997 2.274 0.997 2.274 0.04 -84.604
3569.125 0.038 -84.571 0.997 2.195 0.997 2.195 0.038 -84.571
3594.083 0.037 -84.53 0.997 2.117 0.997 2.117 0.037 -84.53
3619.042 0.036 -84.481 0.997 2.039 0.997 2.039 0.036 -84.481
3644 0.034 -84.421 0.997 1.963 0.997 1.963 0.034 -84.421
3668.958 0.033 -84.352 0.997 1.887 0.997 1.887 0.033 -84.352
3693.917 0.032 -84.271 0.997 1.811 0.997 1.811 0.032 -84.271
3718.875 0.03 -84.177 0.997 1.736 0.997 1.736 0.03 -84.177
3743.833 0.029 -84.069 0.997 1.662 0.997 1.662 0.029 -84.069
3768.792 0.028 -83.945 0.997 1.588 0.997 1.588 0.028 -83.945
3793.75 0.027 -83.803 0.997 1.514 0.997 1.514 0.027 -83.803
3818.708 0.025 -83.64 0.998 1.442 0.998 1.442 0.025 -83.64
3843.667 0.024 -83.454 0.998 1.369 0.998 1.369 0.024 -83.454
3868.625 0.023 -83.242 0.998 1.298 0.998 1.298 0.023 -83.242
3893.583 0.022 -82.998 0.998 1.226 0.998 1.226 0.022 -82.998
3918.542 0.02 -82.718 0.998 1.156 0.998 1.156 0.02 -82.718
3943.5 0.019 -82.395 0.998 1.086 0.998 1.086 0.019 -82.395
3968.458 0.018 -82.021 0.998 1.016 0.998 1.016 0.018 -82.021
3993.417 0.017 -81.587 0.998 0.947 0.998 0.947 0.017 -81.587
4018.375 0.015 -81.077 0.998 0.878 0.998 0.878 0.015 -81.077
4043.333 0.014 -80.477 0.998 0.809 0.998 0.809 0.014 -80.477
4068.292 0.013 -79.761 0.998 0.742 0.998 0.742 0.013 -79.761
4093.25 0.012 -78.898 0.998 0.674 0.998 0.674 0.012 -78.898
4118.208 0.011 -77.844 0.998 0.607 0.998 0.607 0.011 -77.844
4143.167 9.68e-3 -76.533 0.998 0.541 0.998 0.541 9.68e-3 -76.533
4168.125 8.558e-3 -74.869 0.998 0.474 0.998 0.474 8.558e-3 -74.869
4193.083 7.454e-3 -72.703 0.998 0.409 0.998 0.409 7.454e-3 -72.703
4218.042 6.371e-3 -69.787 0.998 0.343 0.998 0.343 6.371e-3 -69.787
4243 5.319e-3 -65.698 0.998 0.278 0.998 0.278 5.319e-3 -65.698
4267.958 4.314e-3 -59.659 0.998 0.214 0.998 0.214 4.314e-3 -59.659
4292.917 3.392e-3 -50.184 0.998 0.15 0.998 0.15 3.392e-3 -50.184
4317.875 2.633e-3 -34.587 0.998 0.086 0.998 0.086 2.633e-3 -34.587
4342.833 2.2e-3 -10.21 0.998 0.022 0.998 0.022 2.2e-3 -10.21
4367.792 2.279e-3 18.107 0.998 -0.041 0.998 -0.041 2.279e-3 18.107
4392.75 2.819e-3 39.697 0.998 -0.103 0.998 -0.103 2.819e-3 39.697
4417.708 3.613e-3 53.014 0.998 -0.166 0.998 -0.166 3.613e-3 53.014
4442.667 4.526e-3 61.191 0.998 -0.228 0.998 -0.228 4.526e-3 61.191
4467.625 5.496e-3 66.505 0.998 -0.289 0.998 -0.289 5.496e-3 66.505
4492.583 6.493e-3 70.168 0.998 -0.351 0.998 -0.351 6.493e-3 70.168
4517.542 7.505e-3 72.819 0.998 -0.412 0.998 -0.412 7.505e-3 72.819
4542.5 8.525e-3 74.812 0.998 -0.472 0.998 -0.472 8.525e-3 74.812
4567.458 9.547e-3 76.358 0.998 -0.533 0.998 -0.533 9.547e-3 76.358
4592.417 0.011 77.587 0.998 -0.593 0.998 -0.593 0.011 77.587
4617.375 0.012 78.583 0.998 -0.653 0.998 -0.653 0.012 78.583
4642.333 0.013 79.403 0.998 -0.712 0.998 -0.712 0.013 79.403
4667.292 0.014 80.089 0.998 -0.771 0.998 -0.771 0.014 80.089
4692.25 0.015 80.668 0.998 -0.83 0.998 -0.83 0.015 80.668
4717.208 0.016 81.163 0.998 -0.889 0.998 -0.889 0.016 81.163
4742.167 0.017 81.588 0.998 -0.947 0.998 -0.947 0.017 81.588
4767.125 0.018 81.956 0.998 -1.005 0.998 -1.005 0.018 81.956
4792.083 0.019 82.277 0.998 -1.062 0.998 -1.062 0.019 82.277
4817.042 0.02 82.559 0.998 -1.12 0.998 -1.12 0.02 82.559
4842 0.021 82.806 0.998 -1.177 0.998 -1.177 0.021 82.806
4866.958 0.022 83.025 0.998 -1.234 0.998 -1.234 0.022 83.025
4891.917 0.023 83.219 0.998 -1.291 0.998 -1.291 0.023 83.219
4916.875 0.024 83.391 0.998 -1.347 0.998 -1.347 0.024 83.391
4941.833 0.025 83.544 0.998 -1.403 0.998 -1.403 0.025 83.544
4966.792 0.026 83.681 0.998 -1.459 0.998 -1.459 0.026 83.681
4991.75 0.027 83.803 0.997 -1.515 0.997 -1.515 0.027 83.803
5016.708 0.027 83.912 0.997 -1.57 0.997 -1.57 0.027 83.912
5041.667 0.028 84.01 0.997 -1.625 0.997 -1.625 0.028 84.01
5066.625 0.029 84.097 0.997 -1.68 0.997 -1.68 0.029 84.097
5091.583 0.03 84.175 0.997 -1.735 0.997 -1.735 0.03 84.175
5116.542 0.031 84.245 0.997 -1.789 0.997 -1.789 0.031 84.245
5141.5 0.032 84.307 0.997 -1.843 0.997 -1.843 0.032 84.307
5166.458 0.033 84.363 0.997 -1.897 0.997 -1.897 0.033 84.363
5191.417 0.034 84.412 0.997 -1.951 0.997 -1.951 0.034 84.412
5216.375 0.035 84.455 0.997 -2.005 0.997 -2.005 0.035 84.455
5241.333 0.036 84.493 0.997 -2.058 0.997 -2.058 0.036 84.493
5266.292 0.037 84.527 0.997 -2.111 0.997 -2.111 0.037 84.527
5291.25 0.038 84.556 0.997 -2.164 0.997 -2.164 0.038 84.556
5316.208 0.039 84.581 0.997 -2.217 0.997 -2.217 0.039 84.581
5341.167 0.04 84.603 0.997 -2.269 0.997 -2.269 0.04 84.603
5366.125 0.041 84.621 0.997 -2.322 0.997 -2.322 0.041 84.621
5391.083 0.041 84.636 0.997 -2.374 0.997 -2.374 0.041 84.636
5416.042 0.042 84.648 0.997 -2.426 0.997 -2.426 0.042 84.648
5441 0.043 84.657 0.997 -2.477 0.997 -2.477 0.043 84.657
5465.958 0.044 84.664 0.997 -2.529 0.997 -2.529 0.044 84.664
5490.917 0.045 84.669 0.997 -2.58 0.997 -2.58 0.045 84.669
5515.875 0.046 84.671 0.997 -2.632 0.997 -2.632 0.046 84.671
5540.833 0.047 84.671 0.997 -2.683 0.997 -2.683 0.047 84.671
5565.792 0.048 84.67 0.997 -2.733 0.997 -2.733 0.048 84.67
5590.75 0.049 84.666 0.997 -2.784 0.997 -2.784 0.049 84.666
5615.708 0.049 84.661 0.997 -2.835 0.997 -2.835 0.049 84.661
5640.667 0.05 84.655 0.997 -2.885 0.997 -2.885 0.05 84.655
5665.625 0.051 84.646 0.997 -2.935 0.997 -2.935 0.051 84.646
5690.583 0.052 84.637 0.996 -2.985 0.996 -2.985 0.052 84.637
5715.542 0.053 84.626 0.996 -3.035 0.996 -3.035 0.053 84.626
5740.5 0.054 84.614 0.996 -3.084 0.996 -3.084 0.054 84.614
5765.458 0.055 84.601 0.996 -3.134 0.996 -3.134 0.055 84.601
5790.417 0.056 84.587 0.996 -3.183 0.996 -3.183 0.056 84.587
5815.375 0.056 84.572 0.996 -3.232 0.996 -3.232 0.056 84.572
5840.333 0.057 84.556 0.996 -3.281 0.996 -3.281 0.057 84.556
5865.292 0.058 84.539 0.996 -3.33 0.996 -3.33 0.058 84.539
5890.25 0.059 84.521 0.996 -3.379 0.996 -3.379 0.059 84.521
5915.208 0.06 84.502 0.996 -3.427 0.996 -3.427 0.06 84.502
5940.167 0.061 84.482 0.996 -3.476 0.996 -3.476 0.061 84.482
5965.125 0.062 84.462 0.996 -3.524 0.996 -3.524 0.062 84.462
5990.083 0.062 84.441 0.996 -3.572 0.996 -3.572 0.062 84.441
6015.042 0.063 84.42 0.996 -3.62 0.996 -3.62 0.063 84.42
6040 0.064 84.397 0.996 -3.668 0.996 -3.668 0.064 84.397
6064.958 0.065 84.375 0.996 -3.716 0.996 -3.716 0.065 84.375
6089.917 0.066 84.351 0.996 -3.763 0.996 -3.763 0.066 84.351
6114.875 0.066 84.327 0.996 -3.81 0.996 -3.81 0.066 84.327
6139.833 0.067 84.303 0.996 -3.858 0.996 -3.858 0.067 84.303
6164.792 0.068 84.278 0.996 -3.905 0.996 -3.905 0.068 84.278
6189.75 0.069 84.253 0.995 -3.952 0.995 -3.952 0.069 84.253
6214.708 0.07 84.227 0.995 -3.999 0.995 -3.999 0.07 84.227
6239.667 0.071 84.201 0.995 -4.045 0.995 -4.045 0.071 84.201
6264.625 0.071 84.174 0.995 -4.092 0.995 -4.092 0.071 84.174
6289.583 0.072 84.147 0.995 -4.139 0.995 -4.139 0.072 84.147
6314.542 0.073 84.12 0.995 -4.185 0.995 -4.185 0.073 84.12
6339.5 0.074 84.092 0.995 -4.231 0.995 -4.231 0.074 84.092
6364.458 0.075 84.064 0.995 -4.277 0.995 -4.277 0.075 84.064
6389.417 0.075 84.036 0.995 -4.323 0.995 -4.323 0.075 84.036
6414.375 0.076 84.007 0.995 -4.369 0.995 -4.369 0.076 84.007
6439.333 0.077 83.978 0.995 -4.415 0.995 -4.415 0.077 83.978
6464.292 0.078 83.949 0.995 -4.461 0.995 -4.461 0.078 83.949
6489.25 0.079 83.92 0.995 -4.506 0.995 -4.506 0.079 83.92
6514.208 0.079 83.89 0.995 -4.551 0.995 -4.551 0.079 83.89
6539.167 0.08 83.86 0.995 -4.597 0.995 -4.597 0.08 83.86
6564.125 0.081 83.83 0.995 -4.642 0.995 -4.642 0.081 83.83
6589.083 0.082 83.8 0.994 -4.687 0.994 -4.687 0.082 83.8
6614.042 0.083 83.769 0.994 -4.732 0.994 -4.732 0.083 83.769
6639 0.083 83.739 0.994 -4.777 0.994 -4.777 0.083 83.739
6663.958 0.084 83.708 0.994 -4.822 0.994 -4.822 0.084 83.708
6688.917 0.085 83.677 0.994 -4.866 0.994 -4.866 0.085 83.677
6713.875 0.086 83.645 0.994 -4.911 0.994 -4.911 0.086 83.645
6738.833 0.086 83.614 0.994 -4.955 0.994 -4.955 0.086 83.614
6763.792 0.087 83.582 0.994 -5 0.994 -5 0.087 83.582
6788.75 0.088 83.551 0.994 -5.044 0.994 -5.044 0.088 83.551
6813.708 0.089 83.519 0.994 -5.088 0.994 -5.088 0.089 83.519
6838.667 0.089 83.487 0.994 -5.132 0.994 -5.132 0.089 83.487
6863.625 0.09 83.455 0.994 -5.176 0.994 -5.176 0.09 83.455
6888.583 0.091 83.422 0.994 -5.22 0.994 -5.22 0.091 83.422
6913.542 0.092 83.39 0.994 -5.263 0.994 -5.263 0.092 83.39
6938.5 0.093 83.357 0.994 -5.307 0.994 -5.307 0.093 83.357
6963.458 0.093 83.325 0.993 -5.351 0.993 -5.351 0.093 83.325
6988.417 0.094 83.292 0.993 -5.394 0.993 -5.394 0.094 83.292
7013.375 0.095 83.259 0.993 -5.438 0.993 -5.438 0.095 83.259
7038.333 0.096 83.226 0.993 -5.481 0.993 -5.481 0.096 83.226
7063.292 0.096 83.193 0.993 -5.524 0.993 -5.524 0.096 83.193
7088.25 0.097 83.16 0.993 -5.567 0.993 -5.567 0.097 83.16
7113.208 0.098 83.127 0.993 -5.61 0.993 -5.61 0.098 83.127
7138.167 0.099 83.094 0.993 -5.653 0.993 -5.653 0.099 83.094
7163.125 0.099 83.06 0.993 -5.696 0.993 -5.696 0.099 83.06
7188.083 0.1 83.027 0.993 -5.739 0.993 -5.739 0.1 83.027
7213.042 0.101 82.994 0.993 -5.781 0.993 -5.781 0.101 82.994
7238 0.101 82.96 0.993 -5.824 0.993 -5.824 0.101 82.96
7262.958 0.102 82.926 0.993 -5.866 0.993 -5.866 0.102 82.926
7287.917 0.103 82.893 0.993 -5.909 0.993 -5.909 0.103 82.893
7312.875 0.104 82.859 0.992 -5.951 0.992 -5.951 0.104 82.859
7337.833 0.104 82.825 0.992 -5.993 0.992 -5.993 0.104 82.825
7362.792 0.105 82.791 0.992 -6.035 0.992 -6.035 0.105 82.791
7387.75 0.106 82.757 0.992 -6.077 0.992 -6.077 0.106 82.757
7412.708 0.107 82.723 0.992 -6.119 0.992 -6.119 0.107 82.723
7437.667 0.107 82.689 0.992 -6.161 0.992 -6.161 0.107 82.689
7462.625 0.108 82.655 0.992 -6.203 0.992 -6.203 0.108 82.655
7487.583 0.109 82.621 0.992 -6.245 0.992 -6.245 0.109 82.621
7512.542 0.11 82.587 0.992 -6.287 0.992 -6.287 0.11 82.587
7537.5 0.11 82.553 0.992 -6.328 0.992 -6.328 0.11 82.553
7562.458 0.111 82.519 0.992 -6.37 0.992 -6.37 0.111 82.519
7587.417 0.112 82.485 0.992 -6.411 0.992 -6.411 0.112 82.485
7612.375 0.112 82.451 0.992 -6.453 0.992 -6.453 0.112 82.451
7637.333 0.113 82.416 0.991 -6.494 0.991 -6.494 0.113 82.416
7662.292 0.114 82.382 0.991 -6.535 0.991 -6.535 0.114 82.382
7687.25 0.115 82.348 0.991 -6.576 0.991 -6.576 0.115 82.348
7712.208 0.115 82.313 0.991 -6.617 0.991 -6.617 0.115 82.313
7737.167 0.116 82.279 0.991 -6.658 0.991 -6.658 0.116 82.279
7762.125 0.117 82.245 0.991 -6.699 0.991 -6.699 0.117 82.245
7787.083 0.117 82.21 0.991 -6.74 0.991 -6.74 0.117 82.21
7812.042 0.118 82.176 0.991 -6.781 0.991 -6.781 0.118 82.176
7837 0.119 82.141 0.991 -6.822 0.991 -6.822 0.119 82.141
7861.958 0.12 82.107 0.991 -6.862 0.991 -6.862 0.12 82.107
7886.917 0.12 82.072 0.991 -6.903 0.991 -6.903 0.12 82.072
7911.875 0.121 82.038 0.991 -6.944 0.991 -6.944 0.121 82.038
7936.833 0.122 82.003 0.99 -6.984 0.99 -6.984 0.122 82.003
7961.792 0.122 81.969 0.99 -7.024 0.99 -7.024 0.122 81.969
7986.75 0.123 81.934 0.99 -7.065 0.99 -7.065 0.123 81.934
8011.708 0.124 81.9 0.99 -7.105 0.99 -7.105 0.124 81.9
8036.667 0.124 81.865 0.99 -7.145 0.99 -7.145 0.124 81.865
8061.625 0.125 81.831 0.99 -7.185 0.99 -7.185 0.125 81.831
8086.583 0.126 81.796 0.99 -7.225 0.99 -7.225 0.126 81.796
8111.542 0.126 81.761 0.99 -7.266 0.99 -7.266 0.126 81.761
8136.5 0.127 81.727 0.99 -7.305 0.99 -7.305 0.127 81.727
8161.458 0.128 81.692 0.99 -7.345 0.99 -7.345 0.128 81.692
8186.417 0.129 81.658 0.99 -7.385 0.99 -7.385 0.129 81.658
8211.375 0.129 81.623 0.989 -7.425 0.989 -7.425 0.129 81.623
8236.333 0.13 81.588 0.989 -7.465 0.989 -7.465 0.13 81.588
8261.292 0.131 81.554 0.989 -7.504 0.989 -7.504 0.131 81.554
