# MHZ S MA R 50

50 0.904 -25.235 0.426 64.729 0.426 64.729 0.904 -25.235
74.958 0.816 -35.249 0.577 54.697 0.577 54.697 0.816 -35.249
99.917 0.727 -43.296 0.686 46.631 0.686 46.631 0.727 -43.296
124.875 0.646 -49.671 0.762 40.237 0.762 40.237 0.646 -49.671
149.833 0.576 -54.731 0.816 35.16 0.816 35.16 0.576 -54.731
174.792 0.516 -58.785 0.855 31.087 0.855 31.087 0.516 -58.785
199.75 0.466 -62.077 0.884 27.776 0.884 27.776 0.466 -62.077
224.708 0.423 -64.787 0.905 25.047 0.905 25.047 0.423 -64.787
249.667 0.387 -67.048 0.921 22.768 0.921 22.768 0.387 -67.048
274.625 0.356 -68.957 0.933 20.84 0.933 20.84 0.356 -68.957
299.583 0.329 -70.587 0.943 19.191 0.943 19.191 0.329 -70.587
324.542 0.305 -71.994 0.951 17.765 0.951 17.765 0.305 -71.994
349.5 0.284 -73.219 0.957 16.52 0.957 16.52 0.284 -73.219
374.458 0.266 -74.295 0.963 15.425 0.963 15.425 0.266 -74.295
399.417 0.25 -75.246 0.967 14.454 0.967 14.454 0.25 -75.246
424.375 0.235 -76.093 0.971 13.588 0.971 13.588 0.235 -76.093
449.333 0.222 -76.851 0.974 12.809 0.974 12.809 0.222 -76.851
474.292 0.21 -77.534 0.976 12.105 0.976 12.105 0.21 -77.534
499.25 0.199 -78.153 0.979 11.466 0.979 11.466 0.199 -78.153
524.208 0.189 -78.715 0.981 10.883 0.981 10.883 0.189 -78.715
549.167 0.18 -79.228 0.982 10.349 0.982 10.349 0.18 -79.228
574.125 0.171 -79.699 0.984 9.857 0.984 9.857 0.171 -79.699
599.083 0.163 -80.131 0.985 9.402 0.985 9.402 0.163 -80.131
624.042 0.156 -80.53 0.986 8.981 0.986 8.981 0.156 -80.53
649 0.149 -80.899 0.987 8.59 0.987 8.59 0.149 -80.899
673.958 0.143 -81.241 0.988 8.224 0.988 8.224 0.143 -81.241
698.917 0.137 -81.56 0.989 7.882 0.989 7.882 0.137 -81.56
723.875 0.132 -81.856 0.99 7.562 0.99 7.562 0.132 -81.856
748.833 0.126 -82.133 0.991 7.261 0.991 7.261 0.126 -82.133
773.792 0.121 -82.392 0.991 6.977 0.991 6.977 0.121 -82.392
798.75 0.117 -82.635 0.992 6.708 0.992 6.708 0.117 -82.635
823.708 0.112 -82.863 0.992 6.455 0.992 6.455 0.112 -82.863
848.667 0.108 -83.077 0.993 6.214 0.993 6.214 0.108 -83.077
873.625 0.104 -83.278 0.993 5.985 0.993 5.985 0.104 -83.278
898.583 0.101 -83.468 0.994 5.768 0.994 5.768 0.101 -83.468
923.542 0.097 -83.646 0.994 5.56 0.994 5.56 0.097 -83.646
948.5 0.093 -83.815 0.994 5.362 0.994 5.362 0.093 -83.815
973.458 0.09 -83.974 0.995 5.173 0.995 5.173 0.09 -83.974
998.417 0.087 -84.124 0.995 4.991 0.995 4.991 0.087 -84.124
1023.375 0.084 -84.266 0.995 4.817 0.995 4.817 0.084 -84.266
1048.333 0.081 -84.4 0.995 4.65 0.995 4.65 0.081 -84.4
1073.292 0.078 -84.527 0.996 4.49 0.996 4.49 0.078 -84.527
1098.25 0.076 -84.646 0.996 4.335 0.996 4.335 0.076 -84.646
1123.208 0.073 -84.758 0.996 4.186 0.996 4.186 0.073 -84.758
1148.167 0.071 -84.864 0.996 4.043 0.996 4.043 0.071 -84.864
1173.125 0.068 -84.964 0.996 3.904 0.996 3.904 0.068 -84.964
1198.083 0.066 -85.058 0.996 3.77 0.996 3.77 0.066 -85.058
1223.042 0.063 -85.146 0.997 3.64 0.997 3.64 0.063 -85.146
1248 0.061 -85.228 0.997 3.514 0.997 3.514 0.061 -85.228
1272.958 0.059 -85.305 0.997 3.392 0.997 3.392 0.059 -85.305
1297.917 0.057 -85.376 0.997 3.274 0.997 3.274 0.057 -85.376
1322.875 0.055 -85.441 0.997 3.159 0.997 3.159 0.055 -85.441
1347.833 0.053 -85.502 0.997 3.048 0.997 3.048 0.053 -85.502
1372.792 0.051 -85.557 0.997 2.939 0.997 2.939 0.051 -85.557
1397.75 0.049 -85.606 0.997 2.834 0.997 2.834 0.049 -85.606
1422.708 0.048 -85.65 0.998 2.731 0.998 2.731 0.048 -85.65
1447.667 0.046 -85.689 0.998 2.63 0.998 2.63 0.046 -85.689
1472.625 0.044 -85.721 0.998 2.533 0.998 2.533 0.044 -85.721
1497.583 0.043 -85.748 0.998 2.437 0.998 2.437 0.043 -85.748
1522.542 0.041 -85.769 0.998 2.344 0.998 2.344 0.041 -85.769
1547.5 0.039 -85.784 0.998 2.253 0.998 2.253 0.039 -85.784
1572.458 0.038 -85.792 0.998 2.164 0.998 2.164 0.038 -85.792
1597.417 0.036 -85.794 0.998 2.077 0.998 2.077 0.036 -85.794
1622.375 0.035 -85.788 0.998 1.991 0.998 1.991 0.035 -85.788
1647.333 0.033 -85.774 0.998 1.908 0.998 1.908 0.033 -85.774
1672.292 0.032 -85.752 0.998 1.826 0.998 1.826 0.032 -85.752
1697.25 0.03 -85.721 0.998 1.746 0.998 1.746 0.03 -85.721
1722.208 0.029 -85.681 0.998 1.667 0.998 1.667 0.029 -85.681
1747.167 0.028 -85.629 0.998 1.59 0.998 1.59 0.028 -85.629
1772.125 0.026 -85.566 0.998 1.514 0.998 1.514 0.026 -85.566
1797.083 0.025 -85.49 0.998 1.44 0.998 1.44 0.025 -85.49
1822.042 0.024 -85.399 0.998 1.367 0.998 1.367 0.024 -85.399
1847 0.023 -85.291 0.998 1.295 0.998 1.295 0.023 -85.291
1871.958 0.021 -85.165 0.998 1.224 0.998 1.224 0.021 -85.165
1896.917 0.02 -85.018 0.998 1.154 0.998 1.154 0.02 -85.018
1921.875 0.019 -84.846 0.998 1.086 0.998 1.086 0.019 -84.846
1946.833 0.018 -84.645 0.998 1.019 0.998 1.019 0.018 -84.645
1971.792 0.017 -84.41 0.999 0.952 0.999 0.952 0.017 -84.41
1996.75 0.016 -84.135 0.999 0.887 0.999 0.887 0.016 -84.135
2021.708 0.014 -83.812 0.999 0.822 0.999 0.822 0.014 -83.812
2046.667 0.013 -83.429 0.999 0.759 0.999 0.759 0.013 -83.429
2071.625 0.012 -82.973 0.999 0.696 0.999 0.696 0.012 -82.973
2096.583 0.011 -82.423 0.999 0.634 0.999 0.634 0.011 -82.423
2121.542 0.01 -81.754 0.999 0.573 0.999 0.573 0.01 -81.754
2146.5 9.059e-3 -80.928 0.999 0.513 0.999 0.513 9.059e-3 -80.928
2171.458 8.035e-3 -79.886 0.999 0.454 0.999 0.454 8.035e-3 -79.886
2196.417 7.027e-3 -78.543 0.999 0.395 0.999 0.395 7.027e-3 -78.543
2221.375 6.037e-3 -76.759 0.999 0.337 0.999 0.337 6.037e-3 -76.759
2246.333 5.068e-3 -74.291 0.999 0.28 0.999 0.28 5.068e-3 -74.291
2271.292 4.123e-3 -70.692 0.999 0.223 0.999 0.223 4.123e-3 -70.692
2296.25 3.216e-3 -65.048 0.999 0.167 0.999 0.167 3.216e-3 -65.048
2321.208 2.374e-3 -55.282 0.999 0.112 0.999 0.112 2.374e-3 -55.282
2346.167 1.678e-3 -36.467 0.999 0.057 0.999 0.057 1.678e-3 -36.467
2371.125 1.349e-3 -2.263 0.999 3.057e-3 0.999 3.057e-3 1.349e-3 -2.263
2396.083 1.611e-3 33.139 0.999 -0.051 0.999 -0.051 1.611e-3 33.139
2421.042 2.255e-3 53.178 0.999 -0.104 0.999 -0.104 2.255e-3 53.178
2446 3.039e-3 63.511 0.999 -0.156 0.999 -0.156 3.039e-3 63.511
2470.958 3.874e-3 69.423 0.999 -0.208 0.999 -0.208 3.874e-3 69.423
2495.917 4.726e-3 73.166 0.999 -0.26 0.999 -0.26 4.726e-3 73.166
2520.875 5.585e-3 75.721 0.999 -0.311 0.999 -0.311 5.585e-3 75.721
2545.833 6.445e-3 77.563 0.999 -0.361 0.999 -0.361 6.445e-3 77.563
2570.792 7.301e-3 78.948 0.999 -0.411 0.999 -0.411 7.301e-3 78.948
2595.75 8.154e-3 80.022 0.999 -0.461 0.999 -0.461 8.154e-3 80.022
2620.708 9.002e-3 80.876 0.999 -0.51 0.999 -0.51 9.002e-3 80.876
2645.667 9.844e-3 81.57 0.999 -0.559 0.999 -0.559 9.844e-3 81.57
2670.625 0.011 82.141 0.999 -0.607 0.999 -0.607 0.011 82.141
2695.583 0.012 82.619 0.999 -0.655 0.999 -0.655 0.012 82.619
2720.542 0.012 83.023 0.999 -0.703 0.999 -0.703 0.012 83.023
2745.5 0.013 83.368 0.999 -0.75 0.999 -0.75 0.013 83.368
2770.458 0.014 83.665 0.999 -0.797 0.999 -0.797 0.014 83.665
2795.417 0.015 83.922 0.999 -0.843 0.999 -0.843 0.015 83.922
2820.375 0.016 84.146 0.999 -0.889 0.999 -0.889 0.016 84.146
2845.333 0.016 84.342 0.999 -0.935 0.999 -0.935 0.016 84.342
2870.292 0.017 84.515 0.999 -0.98 0.999 -0.98 0.017 84.515
2895.25 0.018 84.667 0.998 -1.026 0.998 -1.026 0.018 84.667
2920.208 0.019 84.802 0.998 -1.07 0.998 -1.07 0.019 84.802
2945.167 0.02 84.922 0.998 -1.115 0.998 -1.115 0.02 84.922
2970.125 0.02 85.029 0.998 -1.159 0.998 -1.159 0.02 85.029
2995.083 0.021 85.124 0.998 -1.203 0.998 -1.203 0.021 85.124
3020.042 0.022 85.208 0.998 -1.247 0.998 -1.247 0.022 85.208
3045 0.023 85.284 0.998 -1.29 0.998 -1.29 0.023 85.284
3069.958 0.023 85.351 0.998 -1.333 0.998 -1.333 0.023 85.351
3094.917 0.024 85.411 0.998 -1.376 0.998 -1.376 0.024 85.411
3119.875 0.025 85.465 0.998 -1.419 0.998 -1.419 0.025 85.465
3144.833 0.026 85.513 0.998 -1.461 0.998 -1.461 0.026 85.513
3169.792 0.026 85.556 0.998 -1.503 0.998 -1.503 0.026 85.556
3194.75 0.027 85.593 0.998 -1.545 0.998 -1.545 0.027 85.593
3219.708 0.028 85.627 0.998 -1.587 0.998 -1.587 0.028 85.627
3244.667 0.028 85.656 0.998 -1.628 0.998 -1.628 0.028 85.656
3269.625 0.029 85.682 0.998 -1.669 0.998 -1.669 0.029 85.682
3294.583 0.03 85.704 0.998 -1.71 0.998 -1.71 0.03 85.704
3319.542 0.031 85.724 0.998 -1.751 0.998 -1.751 0.031 85.724
3344.5 0.031 85.74 0.998 -1.791 0.998 -1.791 0.031 85.74
3369.458 0.032 85.754 0.998 -1.832 0.998 -1.832 0.032 85.754
3394.417 0.033 85.766 0.998 -1.872 0.998 -1.872 0.033 85.766
3419.375 0.033 85.775 0.998 -1.912 0.998 -1.912 0.033 85.775
3444.333 0.034 85.782 0.998 -1.951 0.998 -1.951 0.034 85.782
3469.292 0.035 85.788 0.998 -1.991 0.998 -1.991 0.035 85.788
3494.25 0.035 85.792 0.998 -2.03 0.998 -2.03 0.035 85.792
3519.208 0.036 85.794 0.998 -2.07 0.998 -2.07 0.036 85.794
3544.167 0.037 85.794 0.998 -2.109 0.998 -2.109 0.037 85.794
3569.125 0.037 85.793 0.998 -2.147 0.998 -2.147 0.037 85.793
3594.083 0.038 85.791 0.998 -2.186 0.998 -2.186 0.038 85.791
3619.042 0.039 85.788 0.998 -2.225 0.998 -2.225 0.039 85.788
3644 0.04 85.783 0.998 -2.263 0.998 -2.263 0.04 85.783
3668.958 0.04 85.777 0.998 -2.301 0.998 -2.301 0.04 85.777
3693.917 0.041 85.77 0.998 -2.339 0.998 -2.339 0.041 85.77
3718.875 0.041 85.763 0.998 -2.377 0.998 -2.377 0.041 85.763
3743.833 0.042 85.754 0.998 -2.415 0.998 -2.415 0.042 85.754
3768.792 0.043 85.744 0.998 -2.452 0.998 -2.452 0.043 85.744
3793.75 0.043 85.734 0.998 -2.49 0.998 -2.49 0.043 85.734
3818.708 0.044 85.723 0.998 -2.527 0.998 -2.527 0.044 85.723
3843.667 0.045 85.711 0.998 -2.564 0.998 -2.564 0.045 85.711
3868.625 0.045 85.699 0.998 -2.601 0.998 -2.601 0.045 85.699
3893.583 0.046 85.686 0.998 -2.638 0.998 -2.638 0.046 85.686
3918.542 0.047 85.672 0.998 -2.675 0.998 -2.675 0.047 85.672
3943.5 0.047 85.658 0.998 -2.712 0.998 -2.712 0.047 85.658
3968.458 0.048 85.643 0.998 -2.748 0.998 -2.748 0.048 85.643
3993.417 0.049 85.628 0.997 -2.785 0.997 -2.785 0.049 85.628
4018.375 0.049 85.612 0.997 -2.821 0.997 -2.821 0.049 85.612
4043.333 0.05 85.595 0.997 -2.857 0.997 -2.857 0.05 85.595
4068.292 0.05 85.579 0.997 -2.893 0.997 -2.893 0.05 85.579
4093.25 0.051 85.562 0.997 -2.929 0.997 -2.929 0.051 85.562
4118.208 0.052 85.544 0.997 -2.965 0.997 -2.965 0.052 85.544
4143.167 0.052 85.526 0.997 -3.001 0.997 -3.001 0.052 85.526
4168.125 0.053 85.508 0.997 -3.036 0.997 -3.036 0.053 85.508
4193.083 0.054 85.489 0.997 -3.072 0.997 -3.072 0.054 85.489
4218.042 0.054 85.47 0.997 -3.107 0.997 -3.107 0.054 85.47
4243 0.055 85.451 0.997 -3.142 0.997 -3.142 0.055 85.451
4267.958 0.055 85.431 0.997 -3.177 0.997 -3.177 0.055 85.431
4292.917 0.056 85.411 0.997 -3.213 0.997 -3.213 0.056 85.411
4317.875 0.057 85.391 0.997 -3.248 0.997 -3.248 0.057 85.391
4342.833 0.057 85.371 0.997 -3.282 0.997 -3.282 0.057 85.371
4367.792 0.058 85.35 0.997 -3.317 0.997 -3.317 0.058 85.35
4392.75 0.058 85.329 0.997 -3.352 0.997 -3.352 0.058 85.329
4417.708 0.059 85.308 0.997 -3.386 0.997 -3.386 0.059 85.308
4442.667 0.06 85.287 0.997 -3.421 0.997 -3.421 0.06 85.287
4467.625 0.06 85.265 0.997 -3.455 0.997 -3.455 0.06 85.265
4492.583 0.061 85.244 0.997 -3.49 0.997 -3.49 0.061 85.244
4517.542 0.061 85.222 0.997 -3.524 0.997 -3.524 0.061 85.222
4542.5 0.062 85.2 0.997 -3.558 0.997 -3.558 0.062 85.2
4567.458 0.063 85.177 0.997 -3.592 0.997 -3.592 0.063 85.177
4592.417 0.063 85.155 0.997 -3.626 0.997 -3.626 0.063 85.155
4617.375 0.064 85.132 0.997 -3.66 0.997 -3.66 0.064 85.132
4642.333 0.064 85.11 0.997 -3.694 0.997 -3.694 0.064 85.11
4667.292 0.065 85.087 0.997 -3.728 0.997 -3.728 0.065 85.087
4692.25 0.066 85.064 0.997 -3.762 0.997 -3.762 0.066 85.064
4717.208 0.066 85.04 0.996 -3.795 0.996 -3.795 0.066 85.04
4742.167 0.067 85.017 0.996 -3.829 0.996 -3.829 0.067 85.017
4767.125 0.067 84.994 0.996 -3.862 0.996 -3.862 0.067 84.994
4792.083 0.068 84.97 0.996 -3.896 0.996 -3.896 0.068 84.97
4817.042 0.069 84.946 0.996 -3.929 0.996 -3.929 0.069 84.946
4842 0.069 84.923 0.996 -3.962 0.996 -3.962 0.069 84.923
4866.958 0.07 84.899 0.996 -3.995 0.996 -3.995 0.07 84.899
4891.917 0.07 84.875 0.996 -4.028 0.996 -4.028 0.07 84.875
4916.875 0.071 84.851 0.996 -4.062 0.996 -4.062 0.071 84.851
4941.833 0.071 84.826 0.996 -4.094 0.996 -4.094 0.071 84.826
4966.792 0.072 84.802 0.996 -4.127 0.996 -4.127 0.072 84.802
4991.75 0.073 84.778 0.996 -4.16 0.996 -4.16 0.073 84.778
5016.708 0.073 84.753 0.996 -4.193 0.996 -4.193 0.073 84.753
5041.667 0.074 84.729 0.996 -4.226 0.996 -4.226 0.074 84.729
5066.625 0.074 84.704 0.996 -4.258 0.996 -4.258 0.074 84.704
5091.583 0.075 84.679 0.996 -4.291 0.996 -4.291 0.075 84.679
5116.542 0.075 84.655 0.996 -4.324 0.996 -4.324 0.075 84.655
5141.5 0.076 84.63 0.996 -4.356 0.996 -4.356 0.076 84.63
5166.458 0.077 84.605 0.996 -4.389 0.996 -4.389 0.077 84.605
5191.417 0.077 84.58 0.996 -4.421 0.996 -4.421 0.077 84.58
5216.375 0.078 84.555 0.996 -4.453 0.996 -4.453 0.078 84.555
5241.333 0.078 84.53 0.996 -4.486 0.996 -4.486 0.078 84.53
5266.292 0.079 84.505 0.996 -4.518 0.996 -4.518 0.079 84.505
5291.25 0.079 84.479 0.996 -4.55 0.996 -4.55 0.079 84.479
5316.208 0.08 84.454 0.995 -4.582 0.995 -4.582 0.08 84.454
5341.167 0.08 84.429 0.995 -4.614 0.995 -4.614 0.08 84.429
5366.125 0.081 84.403 0.995 -4.646 0.995 -4.646 0.081 84.403
5391.083 0.082 84.378 0.995 -4.678 0.995 -4.678 0.082 84.378
5416.042 0.082 84.353 0.995 -4.71 0.995 -4.71 0.082 84.353
5441 0.083 84.327 0.995 -4.742 0.995 -4.742 0.083 84.327
5465.958 0.083 84.301 0.995 -4.773 0.995 -4.773 0.083 84.301
5490.917 0.084 84.276 0.995 -4.805 0.995 -4.805 0.084 84.276
5515.875 0.084 84.25 0.995 -4.837 0.995 -4.837 0.084 84.25
5540.833 0.085 84.225 0.995 -4.869 0.995 -4.869 0.085 84.225
5565.792 0.085 84.199 0.995 -4.9 0.995 -4.9 0.085 84.199
5590.75 0.086 84.173 0.995 -4.932 0.995 -4.932 0.086 84.173
5615.708 0.087 84.147 0.995 -4.963 0.995 -4.963 0.087 84.147
5640.667 0.087 84.121 0.995 -4.995 0.995 -4.995 0.087 84.121
5665.625 0.088 84.096 0.995 -5.026 0.995 -5.026 0.088 84.096
5690.583 0.088 84.07 0.995 -5.058 0.995 -5.058 0.088 84.07
5715.542 0.089 84.044 0.995 -5.089 0.995 -5.089 0.089 84.044
5740.5 0.089 84.018 0.995 -5.12 0.995 -5.12 0.089 84.018
5765.458 0.09 83.992 0.995 -5.151 0.995 -5.151 0.09 83.992
5790.417 0.09 83.966 0.995 -5.183 0.995 -5.183 0.09 83.966
5815.375 0.091 83.94 0.995 -5.214 0.995 -5.214 0.091 83.94
5840.333 0.091 83.914 0.994 -5.245 0.994 -5.245 0.091 83.914
5865.292 0.092 83.888 0.994 -5.276 0.994 -5.276 0.092 83.888
5890.25 0.093 83.861 0.994 -5.307 0.994 -5.307 0.093 83.861
5915.208 0.093 83.835 0.994 -5.338 0.994 -5.338 0.093 83.835
5940.167 0.094 83.809 0.994 -5.369 0.994 -5.369 0.094 83.809
5965.125 0.094 83.783 0.994 -5.4 0.994 -5.4 0.094 83.783
5990.083 0.095 83.757 0.994 -5.431 0.994 -5.431 0.095 83.757
6015.042 0.095 83.731 0.994 -5.462 0.994 -5.462 0.095 83.731
6040 0.096 83.704 0.994 -5.492 0.994 -5.492 0.096 83.704
6064.958 0.096 83.678 0.994 -5.523 0.994 -5.523 0.096 83.678
6089.917 0.097 83.652 0.994 -5.554 0.994 -5.554 0.097 83.652
6114.875 0.097 83.625 0.994 -5.585 0.994 -5.585 0.097 83.625
6139.833 0.098 83.599 0.994 -5.615 0.994 -5.615 0.098 83.599
6164.792 0.098 83.573 0.994 -5.646 0.994 -5.646 0.098 83.573
6189.75 0.099 83.546 0.994 -5.676 0.994 -5.676 0.099 83.546
6214.708 0.099 83.52 0.994 -5.707 0.994 -5.707 0.099 83.52
6239.667 0.1 83.494 0.994 -5.738 0.994 -5.738 0.1 83.494
6264.625 0.101 83.467 0.994 -5.768 0.994 -5.768 0.101 83.467
6289.583 0.101 83.441 0.994 -5.798 0.994 -5.798 0.101 83.441
6314.542 0.102 83.414 0.993 -5.829 0.993 -5.829 0.102 83.414
6339.5 0.102 83.388 0.993 -5.859 0.993 -5.859 0.102 83.388
6364.458 0.103 83.362 0.993 -5.89 0.993 -5.89 0.103 83.362
6389.417 0.103 83.335 0.993 -5.92 0.993 -5.92 0.103 83.335
6414.375 0.104 83.309 0.993 -5.95 0.993 -5.95 0.104 83.309
6439.333 0.104 83.282 0.993 -5.98 0.993 -5.98 0.104 83.282
6464.292 0.105 83.256 0.993 -6.011 0.993 -6.011 0.105 83.256
6489.25 0.105 83.229 0.993 -6.041 0.993 -6.041 0.105 83.229
6514.208 0.106 83.203 0.993 -6.071 0.993 -6.071 0.106 83.203
6539.167 0.106 83.176 0.993 -6.101 0.993 -6.101 0.106 83.176
6564.125 0.107 83.15 0.993 -6.131 0.993 -6.131 0.107 83.15
6589.083 0.107 83.123 0.993 -6.161 0.993 -6.161 0.107 83.123
6614.042 0.108 83.097 0.993 -6.191 0.993 -6.191 0.108 83.097
6639 0.108 83.07 0.993 -6.221 0.993 -6.221 0.108 83.07
6663.958 0.109 83.043 0.993 -6.251 0.993 -6.251 0.109 83.043
6688.917 0.109 83.017 0.993 -6.281 0.993 -6.281 0.109 83.017
6713.875 0.11 82.99 0.993 -6.311 0.993 -6.311 0.11 82.99
6738.833 0.11 82.964 0.993 -6.341 0.993 -6.341 0.11 82.964
6763.792 0.111 82.937 0.992 -6.371 0.992 -6.371 0.111 82.937
6788.75 0.111 82.91 0.992 -6.401 0.992 -6.401 0.111 82.91
6813.708 0.112 82.884 0.992 -6.431 0.992 -6.431 0.112 82.884
6838.667 0.113 82.857 0.992 -6.461 0.992 -6.461 0.113 82.857
6863.625 0.113 82.831 0.992 -6.49 0.992 -6.49 0.113 82.831
6888.583 0.114 82.804 0.992 -6.52 0.992 -6.52 0.114 82.804
6913.542 0.114 82.777 0.992 -6.55 0.992 -6.55 0.114 82.777
6938.5 0.115 82.751 0.992 -6.579 0.992 -6.579 0.115 82.751
6963.458 0.115 82.724 0.992 -6.609 0.992 -6.609 0.115 82.724
6988.417 0.116 82.698 0.992 -6.639 0.992 -6.639 0.116 82.698
7013.375 0.116 82.671 0.992 -6.668 0.992 -6.668 0.116 82.671
7038.333 0.117 82.644 0.992 -6.698 0.992 -6.698 0.117 82.644
7063.292 0.117 82.618 0.992 -6.727 0.992 -6.727 0.117 82.618
7088.25 0.118 82.591 0.992 -6.757 0.992 -6.757 0.118 82.591
7113.208 0.118 82.564 0.992 -6.786 0.992 -6.786 0.118 82.564
7138.167 0.119 82.538 0.992 -6.816 0.992 -6.816 0.119 82.538
7163.125 0.119 82.511 0.992 -6.845 0.992 -6.845 0.119 82.511
7188.083 0.12 82.484 0.991 -6.875 0.991 -6.875 0.12 82.484
7213.042 0.12 82.458 0.991 -6.904 0.991 -6.904 0.12 82.458
7238 0.121 82.431 0.991 -6.934 0.991 -6.934 0.121 82.431
7262.958 0.121 82.404 0.991 -6.963 0.991 -6.963 0.121 82.404
7287.917 0.122 82.378 0.991 -6.992 0.991 -6.992 0.122 82.378
7312.875 0.122 82.351 0.991 -7.022 0.991 -7.022 0.122 82.351
7337.833 0.123 82.324 0.991 -7.051 0.991 -7.051 0.123 82.324
7362.792 0.123 82.298 0.991 -7.08 0.991 -7.08 0.123 82.298
7387.75 0.124 82.271 0.991 -7.11 0.991 -7.11 0.124 82.271
7412.708 0.124 82.244 0.991 -7.139 0.991 -7.139 0.124 82.244
7437.667 0.125 82.218 0.991 -7.168 0.991 -7.168 0.125 82.218
7462.625 0.125 82.191 0.991 -7.197 0.991 -7.197 0.125 82.191
7487.583 0.126 82.164 0.991 -7.226 0.991 -7.226 0.126 82.164
7512.542 0.126 82.138 0.991 -7.255 0.991 -7.255 0.126 82.138
7537.5 0.127 82.111 0.991 -7.285 0.991 -7.285 0.127 82.111
7562.458 0.127 82.084 0.991 -7.314 0.991 -7.314 0.127 82.084
7587.417 0.128 82.058 0.99 -7.343 0.99 -7.343 0.128 82.058
7612.375 0.128 82.031 0.99 -7.372 0.99 -7.372 0.128 82.031
7637.333 0.129 82.004 0.99 -7.401 0.99 -7.401 0.129 82.004
7662.292 0.129 81.978 0.99 -7.43 0.99 -7.43 0.129 81.978
7687.25 0.13 81.951 0.99 -7.459 0.99 -7.459 0.13 81.951
7712.208 0.13 81.924 0.99 -7.488 0.99 -7.488 0.13 81.924
7737.167 0.131 81.898 0.99 -7.517 0.99 -7.517 0.131 81.898
7762.125 0.131 81.871 0.99 -7.546 0.99 -7.546 0.131 81.871
7787.083 0.132 81.844 0.99 -7.575 0.99 -7.575 0.132 81.844
7812.042 0.132 81.818 0.99 -7.604 0.99 -7.604 0.132 81.818
7837 0.133 81.791 0.99 -7.632 0.99 -7.632 0.133 81.791
7861.958 0.133 81.764 0.99 -7.661 0.99 -7.661 0.133 81.764
7886.917 0.134 81.738 0.99 -7.69 0.99 -7.69 0.134 81.738
7911.875 0.134 81.711 0.99 -7.719 0.99 -7.719 0.134 81.711
7936.833 0.135 81.684 0.99 -7.748 0.99 -7.748 0.135 81.684
7961.792 0.135 81.658 0.989 -7.777 0.989 -7.777 0.135 81.658
7986.75 0.136 81.631 0.989 -7.805 0.989 -7.805 0.136 81.631
8011.708 0.136 81.605 0.989 -7.834 0.989 -7.834 0.136 81.605
8036.667 0.137 81.578 0.989 -7.863 0.989 -7.863 0.137 81.578
8061.625 0.137 81.551 0.989 -7.891 0.989 -7.891 0.137 81.551
8086.583 0.138 81.525 0.989 -7.92 0.989 -7.92 0.138 81.525
8111.542 0.138 81.498 0.989 -7.949 0.989 -7.949 0.138 81.498
8136.5 0.139 81.471 0.989 -7.977 0.989 -7.977 0.139 81.471
8161.458 0.139 81.445 0.989 -8.006 0.989 -8.006 0.139 81.445
8186.417 0.14 81.418 0.989 -8.035 0.989 -8.035 0.14 81.418
8211.375 0.14 81.391 0.989 -8.063 0.989 -8.063 0.14 81.391
8236.333 0.141 81.365 0.989 -8.092 0.989 -8.092 0.141 81.365
8261.292 0.141 81.338 0.989 -8.12 0.989 -8.12 0.141 81.338
8286.25 0.142 81.311 0.989 -8.149 0.989 -8.149 0.142 81.311
