# MHZ S MA R 50

50 0.858 -30.835 0.513 59.118 0.513 59.118 0.858 -30.835
74.958 0.744 -41.829 0.667 48.101 0.667 48.101 0.744 -41.829
99.917 0.641 -50.033 0.766 39.873 0.766 39.873 0.641 -50.033
124.875 0.555 -56.159 0.831 33.725 0.831 33.725 0.555 -56.159
149.833 0.486 -60.808 0.873 29.052 0.873 29.052 0.486 -60.808
174.792 0.429 -64.414 0.902 25.422 0.902 25.422 0.429 -64.414
199.75 0.383 -67.272 0.922 22.54 0.922 22.54 0.383 -67.272
224.708 0.345 -69.582 0.937 20.206 0.937 20.206 0.345 -69.582
249.667 0.314 -71.482 0.948 18.282 0.948 18.282 0.314 -71.482
274.625 0.287 -73.07 0.957 16.67 0.957 16.67 0.287 -73.07
299.583 0.264 -74.414 0.963 15.302 0.963 15.302 0.264 -74.414
324.542 0.244 -75.565 0.968 14.126 0.968 14.126 0.244 -75.565
349.5 0.227 -76.561 0.973 13.105 0.973 13.105 0.227 -76.561
374.458 0.211 -77.431 0.976 12.209 0.976 12.209 0.211 -77.431
399.417 0.198 -78.198 0.979 11.417 0.979 11.417 0.198 -78.198
424.375 0.186 -78.877 0.981 10.711 0.981 10.711 0.186 -78.877
449.333 0.175 -79.484 0.983 10.078 0.983 10.078 0.175 -79.484
474.292 0.165 -80.028 0.985 9.507 0.985 9.507 0.165 -80.028
499.25 0.156 -80.519 0.986 8.989 0.986 8.989 0.156 -80.519
524.208 0.148 -80.964 0.988 8.516 0.988 8.516 0.148 -80.964
549.167 0.141 -81.369 0.989 8.083 0.989 8.083 0.141 -81.369
574.125 0.134 -81.739 0.99 7.685 0.99 7.685 0.134 -81.739
599.083 0.127 -82.077 0.991 7.316 0.991 7.316 0.127 -82.077
624.042 0.121 -82.389 0.991 6.975 0.991 6.975 0.121 -82.389
649 0.116 -82.676 0.992 6.657 0.992 6.657 0.116 -82.676
673.958 0.111 -82.941 0.992 6.361 0.992 6.361 0.111 -82.941
698.917 0.106 -83.186 0.993 6.083 0.993 6.083 0.106 -83.186
723.875 0.101 -83.414 0.993 5.823 0.993 5.823 0.101 -83.414
748.833 0.097 -83.625 0.994 5.578 0.994 5.578 0.097 -83.625
773.792 0.093 -83.822 0.994 5.347 0.994 5.347 0.093 -83.822
798.75 0.089 -84.005 0.995 5.128 0.995 5.128 0.089 -84.005
823.708 0.086 -84.175 0.995 4.921 0.995 4.921 0.086 -84.175
848.667 0.082 -84.334 0.995 4.725 0.995 4.725 0.082 -84.334
873.625 0.079 -84.482 0.996 4.538 0.996 4.538 0.079 -84.482
898.583 0.076 -84.62 0.996 4.359 0.996 4.359 0.076 -84.62
923.542 0.073 -84.748 0.996 4.189 0.996 4.189 0.073 -84.748
948.5 0.07 -84.868 0.996 4.027 0.996 4.027 0.07 -84.868
973.458 0.068 -84.979 0.996 3.871 0.996 3.871 0.068 -84.979
998.417 0.065 -85.082 0.997 3.722 0.997 3.722 0.065 -85.082
1023.375 0.062 -85.177 0.997 3.579 0.997 3.579 0.062 -85.177
1048.333 0.06 -85.265 0.997 3.441 0.997 3.441 0.06 -85.265
1073.292 0.058 -85.346 0.997 3.308 0.997 3.308 0.058 -85.346
1098.25 0.055 -85.419 0.997 3.18 0.997 3.18 0.055 -85.419
1123.208 0.053 -85.486 0.997 3.057 0.997 3.057 0.053 -85.486
1148.167 0.051 -85.546 0.997 2.938 0.997 2.938 0.051 -85.546
1173.125 0.049 -85.6 0.997 2.822 0.997 2.822 0.049 -85.6
1198.083 0.047 -85.646 0.998 2.711 0.998 2.711 0.047 -85.646
1223.042 0.045 -85.686 0.998 2.602 0.998 2.602 0.045 -85.686
1248 0.044 -85.719 0.998 2.497 0.998 2.497 0.044 -85.719
1272.958 0.042 -85.745 0.998 2.395 0.998 2.395 0.042 -85.745
1297.917 0.04 -85.764 0.998 2.296 0.998 2.296 0.04 -85.764
1322.875 0.038 -85.775 0.998 2.2 0.998 2.2 0.038 -85.775
1347.833 0.037 -85.779 0.998 2.106 0.998 2.106 0.037 -85.779
1372.792 0.035 -85.774 0.998 2.015 0.998 2.015 0.035 -85.774
1397.75 0.034 -85.761 0.998 1.926 0.998 1.926 0.034 -85.761
1422.708 0.032 -85.739 0.998 1.839 0.998 1.839 0.032 -85.739
1447.667 0.031 -85.706 0.998 1.754 0.998 1.754 0.031 -85.706
1472.625 0.029 -85.663 0.998 1.671 0.998 1.671 0.029 -85.663
1497.583 0.028 -85.609 0.998 1.59 0.998 1.59 0.028 -85.609
1522.542 0.026 -85.541 0.998 1.511 0.998 1.511 0.026 -85.541
1547.5 0.025 -85.46 0.998 1.433 0.998 1.433 0.025 -85.46
1572.458 0.024 -85.362 0.998 1.357 0.998 1.357 0.024 -85.362
1597.417 0.022 -85.247 0.998 1.283 0.998 1.283 0.022 -85.247
1622.375 0.021 -85.111 0.998 1.21 0.998 1.21 0.021 -85.111
1647.333 0.02 -84.952 0.998 1.139 0.998 1.139 0.02 -84.952
1672.292 0.019 -84.766 0.998 1.068 0.998 1.068 0.019 -84.766
1697.25 0.017 -84.548 0.998 0.999 0.998 0.999 0.017 -84.548
1722.208 0.016 -84.294 0.999 0.932 0.999 0.932 0.016 -84.294
1747.167 0.015 -83.995 0.999 0.865 0.999 0.865 0.015 -83.995
1772.125 0.014 -83.642 0.999 0.8 0.999 0.8 0.014 -83.642
1797.083 0.013 -83.223 0.999 0.735 0.999 0.735 0.013 -83.223
1822.042 0.012 -82.722 0.999 0.672 0.999 0.672 0.012 -82.722
1847 0.011 -82.115 0.999 0.61 0.999 0.61 0.011 -82.115
1871.958 9.662e-3 -81.371 0.999 0.548 0.999 0.548 9.662e-3 -81.371
1896.917 8.618e-3 -80.445 0.999 0.488 0.999 0.488 8.618e-3 -80.445
1921.875 7.592e-3 -79.266 0.999 0.428 0.999 0.428 7.592e-3 -79.266
1946.833 6.585e-3 -77.727 0.999 0.369 0.999 0.369 6.585e-3 -77.727
1971.792 5.598e-3 -75.648 0.999 0.311 0.999 0.311 5.598e-3 -75.648
1996.75 4.636e-3 -72.71 0.999 0.254 0.999 0.254 4.636e-3 -72.71
2021.708 3.705e-3 -68.297 0.999 0.198 0.999 0.198 3.705e-3 -68.297
2046.667 2.823e-3 -61.095 0.999 0.142 0.999 0.142 2.823e-3 -61.095
2071.625 2.034e-3 -48.012 0.999 0.087 0.999 0.087 2.034e-3 -48.012
2096.583 1.471e-3 -22.545 0.999 0.032 0.999 0.032 1.471e-3 -22.545
2121.542 1.408e-3 15.33 0.999 -0.021 0.999 -0.021 1.408e-3 15.33
2146.5 1.88e-3 43.662 0.999 -0.074 0.999 -0.074 1.88e-3 43.662
2171.458 2.599e-3 58.365 0.999 -0.127 0.999 -0.127 2.599e-3 58.365
2196.417 3.404e-3 66.308 0.999 -0.179 0.999 -0.179 3.404e-3 66.308
2221.375 4.241e-3 71.092 0.999 -0.23 0.999 -0.23 4.241e-3 71.092
2246.333 5.089e-3 74.24 0.999 -0.281 0.999 -0.281 5.089e-3 74.24
2271.292 5.939e-3 76.449 0.999 -0.331 0.999 -0.331 5.939e-3 76.449
2296.25 6.788e-3 78.076 0.999 -0.381 0.999 -0.381 6.788e-3 78.076
2321.208 7.632e-3 79.319 0.999 -0.43 0.999 -0.43 7.632e-3 79.319
2346.167 8.471e-3 80.295 0.999 -0.479 0.999 -0.479 8.471e-3 80.295
2371.125 9.305e-3 81.08 0.999 -0.527 0.999 -0.527 9.305e-3 81.08
2396.083 0.01 81.721 0.999 -0.575 0.999 -0.575 0.01 81.721
2421.042 0.011 82.255 0.999 -0.623 0.999 -0.623 0.011 82.255
2446 0.012 82.703 0.999 -0.67 0.999 -0.67 0.012 82.703
2470.958 0.013 83.084 0.999 -0.716 0.999 -0.716 0.013 83.084
2495.917 0.013 83.411 0.999 -0.763 0.999 -0.763 0.013 83.411
2520.875 0.014 83.694 0.999 -0.808 0.999 -0.808 0.014 83.694
2545.833 0.015 83.939 0.999 -0.854 0.999 -0.854 0.015 83.939
2570.792 0.016 84.154 0.999 -0.899 0.999 -0.899 0.016 84.154
2595.75 0.017 84.343 0.999 -0.944 0.999 -0.944 0.017 84.343
2620.708 0.017 84.509 0.998 -0.988 0.998 -0.988 0.017 84.509
2645.667 0.018 84.657 0.998 -1.032 0.998 -1.032 0.018 84.657
2670.625 0.019 84.788 0.998 -1.076 0.998 -1.076 0.019 84.788
2695.583 0.02 84.904 0.998 -1.119 0.998 -1.119 0.02 84.904
2720.542 0.02 85.008 0.998 -1.163 0.998 -1.163 0.02 85.008
2745.5 0.021 85.101 0.998 -1.205 0.998 -1.205 0.021 85.101
2770.458 0.022 85.184 0.998 -1.248 0.998 -1.248 0.022 85.184
2795.417 0.023 85.259 0.998 -1.29 0.998 -1.29 0.023 85.259
2820.375 0.023 85.325 0.998 -1.332 0.998 -1.332 0.023 85.325
2845.333 0.024 85.385 0.998 -1.374 0.998 -1.374 0.024 85.385
2870.292 0.025 85.438 0.998 -1.415 0.998 -1.415 0.025 85.438
2895.25 0.025 85.486 0.998 -1.456 0.998 -1.456 0.025 85.486
2920.208 0.026 85.528 0.998 -1.497 0.998 -1.497 0.026 85.528
2945.167 0.027 85.566 0.998 -1.538 0.998 -1.538 0.027 85.566
2970.125 0.028 85.6 0.998 -1.579 0.998 -1.579 0.028 85.6
2995.083 0.028 85.63 0.998 -1.619 0.998 -1.619 0.028 85.63
3020.042 0.029 85.656 0.998 -1.659 0.998 -1.659 0.029 85.656
3045 0.03 85.679 0.998 -1.699 0.998 -1.699 0.03 85.679
3069.958 0.03 85.699 0.998 -1.738 0.998 -1.738 0.03 85.699
3094.917 0.031 85.716 0.998 -1.778 0.998 -1.778 0.031 85.716
3119.875 0.032 85.731 0.998 -1.817 0.998 -1.817 0.032 85.731
3144.833 0.032 85.744 0.998 -1.856 0.998 -1.856 0.032 85.744
3169.792 0.033 85.754 0.998 -1.895 0.998 -1.895 0.033 85.754
3194.75 0.034 85.762 0.998 -1.933 0.998 -1.933 0.034 85.762
3219.708 0.034 85.769 0.998 -1.972 0.998 -1.972 0.034 85.769
3244.667 0.035 85.774 0.998 -2.01 0.998 -2.01 0.035 85.774
3269.625 0.036 85.777 0.998 -2.048 0.998 -2.048 0.036 85.777
3294.583 0.036 85.778 0.998 -2.086 0.998 -2.086 0.036 85.778
3319.542 0.037 85.779 0.998 -2.123 0.998 -2.123 0.037 85.779
3344.5 0.038 85.778 0.998 -2.161 0.998 -2.161 0.038 85.778
3369.458 0.038 85.775 0.998 -2.198 0.998 -2.198 0.038 85.775
3394.417 0.039 85.772 0.998 -2.236 0.998 -2.236 0.039 85.772
3419.375 0.04 85.767 0.998 -2.273 0.998 -2.273 0.04 85.767
3444.333 0.04 85.762 0.998 -2.31 0.998 -2.31 0.04 85.762
3469.292 0.041 85.755 0.998 -2.346 0.998 -2.346 0.041 85.755
3494.25 0.042 85.748 0.998 -2.383 0.998 -2.383 0.042 85.748
3519.208 0.042 85.739 0.998 -2.42 0.998 -2.42 0.042 85.739
3544.167 0.043 85.73 0.998 -2.456 0.998 -2.456 0.043 85.73
3569.125 0.044 85.72 0.998 -2.492 0.998 -2.492 0.044 85.72
3594.083 0.044 85.71 0.998 -2.528 0.998 -2.528 0.044 85.71
3619.042 0.045 85.699 0.998 -2.564 0.998 -2.564 0.045 85.699
3644 0.045 85.687 0.998 -2.6 0.998 -2.6 0.045 85.687
3668.958 0.046 85.674 0.998 -2.636 0.998 -2.636 0.046 85.674
3693.917 0.047 85.661 0.998 -2.671 0.998 -2.671 0.047 85.661
3718.875 0.047 85.648 0.998 -2.707 0.998 -2.707 0.047 85.648
3743.833 0.048 85.634 0.997 -2.742 0.997 -2.742 0.048 85.634
3768.792 0.048 85.619 0.997 -2.777 0.997 -2.777 0.048 85.619
3793.75 0.049 85.604 0.997 -2.812 0.997 -2.812 0.049 85.604
3818.708 0.05 85.588 0.997 -2.847 0.997 -2.847 0.05 85.588
3843.667 0.05 85.572 0.997 -2.882 0.997 -2.882 0.05 85.572
3868.625 0.051 85.556 0.997 -2.917 0.997 -2.917 0.051 85.556
3893.583 0.052 85.539 0.997 -2.952 0.997 -2.952 0.052 85.539
3918.542 0.052 85.522 0.997 -2.986 0.997 -2.986 0.052 85.522
3943.5 0.053 85.505 0.997 -3.021 0.997 -3.021 0.053 85.505
3968.458 0.053 85.487 0.997 -3.055 0.997 -3.055 0.053 85.487
3993.417 0.054 85.469 0.997 -3.089 0.997 -3.089 0.054 85.469
4018.375 0.055 85.451 0.997 -3.124 0.997 -3.124 0.055 85.451
4043.333 0.055 85.432 0.997 -3.158 0.997 -3.158 0.055 85.432
4068.292 0.056 85.413 0.997 -3.192 0.997 -3.192 0.056 85.413
4093.25 0.056 85.394 0.997 -3.226 0.997 -3.226 0.056 85.394
4118.208 0.057 85.374 0.997 -3.259 0.997 -3.259 0.057 85.374
4143.167 0.057 85.355 0.997 -3.293 0.997 -3.293 0.057 85.355
4168.125 0.058 85.335 0.997 -3.327 0.997 -3.327 0.058 85.335
4193.083 0.059 85.314 0.997 -3.36 0.997 -3.36 0.059 85.314
4218.042 0.059 85.294 0.997 -3.394 0.997 -3.394 0.059 85.294
4243 0.06 85.274 0.997 -3.427 0.997 -3.427 0.06 85.274
4267.958 0.06 85.253 0.997 -3.461 0.997 -3.461 0.06 85.253
4292.917 0.061 85.232 0.997 -3.494 0.997 -3.494 0.061 85.232
4317.875 0.062 85.211 0.997 -3.527 0.997 -3.527 0.062 85.211
4342.833 0.062 85.189 0.997 -3.56 0.997 -3.56 0.062 85.189
4367.792 0.063 85.168 0.997 -3.593 0.997 -3.593 0.063 85.168
4392.75 0.063 85.146 0.997 -3.626 0.997 -3.626 0.063 85.146
4417.708 0.064 85.124 0.997 -3.659 0.997 -3.659 0.064 85.124
4442.667 0.064 85.102 0.997 -3.692 0.997 -3.692 0.064 85.102
4467.625 0.065 85.08 0.997 -3.724 0.997 -3.724 0.065 85.08
4492.583 0.066 85.058 0.996 -3.757 0.996 -3.757 0.066 85.058
4517.542 0.066 85.036 0.996 -3.79 0.996 -3.79 0.066 85.036
4542.5 0.067 85.013 0.996 -3.822 0.996 -3.822 0.067 85.013
4567.458 0.067 84.991 0.996 -3.855 0.996 -3.855 0.067 84.991
4592.417 0.068 84.968 0.996 -3.887 0.996 -3.887 0.068 84.968
4617.375 0.068 84.945 0.996 -3.919 0.996 -3.919 0.068 84.945
4642.333 0.069 84.922 0.996 -3.952 0.996 -3.952 0.069 84.922
4667.292 0.069 84.899 0.996 -3.984 0.996 -3.984 0.069 84.899
4692.25 0.07 84.876 0.996 -4.016 0.996 -4.016 0.07 84.876
4717.208 0.071 84.853 0.996 -4.048 0.996 -4.048 0.071 84.853
4742.167 0.071 84.829 0.996 -4.08 0.996 -4.08 0.071 84.829
4767.125 0.072 84.806 0.996 -4.112 0.996 -4.112 0.072 84.806
4792.083 0.072 84.782 0.996 -4.144 0.996 -4.144 0.072 84.782
4817.042 0.073 84.759 0.996 -4.176 0.996 -4.176 0.073 84.759
4842 0.073 84.735 0.996 -4.207 0.996 -4.207 0.073 84.735
4866.958 0.074 84.711 0.996 -4.239 0.996 -4.239 0.074 84.711
4891.917 0.074 84.687 0.996 -4.271 0.996 -4.271 0.074 84.687
4916.875 0.075 84.663 0.996 -4.302 0.996 -4.302 0.075 84.663
4941.833 0.076 84.639 0.996 -4.334 0.996 -4.334 0.076 84.639
4966.792 0.076 84.615 0.996 -4.366 0.996 -4.366 0.076 84.615
4991.75 0.077 84.591 0.996 -4.397 0.996 -4.397 0.077 84.591
5016.708 0.077 84.567 0.996 -4.428 0.996 -4.428 0.077 84.567
5041.667 0.078 84.543 0.996 -4.46 0.996 -4.46 0.078 84.543
5066.625 0.078 84.518 0.996 -4.491 0.996 -4.491 0.078 84.518
5091.583 0.079 84.494 0.996 -4.522 0.996 -4.522 0.079 84.494
5116.542 0.079 84.469 0.995 -4.554 0.995 -4.554 0.079 84.469
5141.5 0.08 84.445 0.995 -4.585 0.995 -4.585 0.08 84.445
5166.458 0.08 84.42 0.995 -4.616 0.995 -4.616 0.08 84.42
5191.417 0.081 84.396 0.995 -4.647 0.995 -4.647 0.081 84.396
5216.375 0.082 84.371 0.995 -4.678 0.995 -4.678 0.082 84.371
5241.333 0.082 84.346 0.995 -4.709 0.995 -4.709 0.082 84.346
5266.292 0.083 84.322 0.995 -4.74 0.995 -4.74 0.083 84.322
5291.25 0.083 84.297 0.995 -4.771 0.995 -4.771 0.083 84.297
5316.208 0.084 84.272 0.995 -4.802 0.995 -4.802 0.084 84.272
5341.167 0.084 84.247 0.995 -4.833 0.995 -4.833 0.084 84.247
5366.125 0.085 84.222 0.995 -4.863 0.995 -4.863 0.085 84.222
5391.083 0.085 84.197 0.995 -4.894 0.995 -4.894 0.085 84.197
5416.042 0.086 84.172 0.995 -4.925 0.995 -4.925 0.086 84.172
5441 0.086 84.147 0.995 -4.955 0.995 -4.955 0.086 84.147
5465.958 0.087 84.122 0.995 -4.986 0.995 -4.986 0.087 84.122
5490.917 0.087 84.097 0.995 -5.017 0.995 -5.017 0.087 84.097
5515.875 0.088 84.072 0.995 -5.047 0.995 -5.047 0.088 84.072
5540.833 0.089 84.047 0.995 -5.078 0.995 -5.078 0.089 84.047
5565.792 0.089 84.021 0.995 -5.108 0.995 -5.108 0.089 84.021
5590.75 0.09 83.996 0.995 -5.139 0.995 -5.139 0.09 83.996
5615.708 0.09 83.971 0.995 -5.169 0.995 -5.169 0.09 83.971
5640.667 0.091 83.945 0.995 -5.199 0.995 -5.199 0.091 83.945
5665.625 0.091 83.92 0.994 -5.23 0.994 -5.23 0.091 83.92
5690.583 0.092 83.895 0.994 -5.26 0.994 -5.26 0.092 83.895
5715.542 0.092 83.869 0.994 -5.29 0.994 -5.29 0.092 83.869
5740.5 0.093 83.844 0.994 -5.32 0.994 -5.32 0.093 83.844
5765.458 0.093 83.819 0.994 -5.351 0.994 -5.351 0.093 83.819
5790.417 0.094 83.793 0.994 -5.381 0.994 -5.381 0.094 83.793
5815.375 0.094 83.768 0.994 -5.411 0.994 -5.411 0.094 83.768
5840.333 0.095 83.742 0.994 -5.441 0.994 -5.441 0.095 83.742
5865.292 0.095 83.717 0.994 -5.471 0.994 -5.471 0.095 83.717
5890.25 0.096 83.691 0.994 -5.501 0.994 -5.501 0.096 83.691
5915.208 0.096 83.665 0.994 -5.531 0.994 -5.531 0.096 83.665
5940.167 0.097 83.64 0.994 -5.561 0.994 -5.561 0.097 83.64
5965.125 0.097 83.614 0.994 -5.591 0.994 -5.591 0.097 83.614
5990.083 0.098 83.589 0.994 -5.621 0.994 -5.621 0.098 83.589
6015.042 0.098 83.563 0.994 -5.651 0.994 -5.651 0.098 83.563
6040 0.099 83.537 0.994 -5.68 0.994 -5.68 0.099 83.537
6064.958 0.1 83.512 0.994 -5.71 0.994 -5.71 0.1 83.512
6089.917 0.1 83.486 0.994 -5.74 0.994 -5.74 0.1 83.486
6114.875 0.101 83.46 0.994 -5.77 0.994 -5.77 0.101 83.46
6139.833 0.101 83.434 0.994 -5.799 0.994 -5.799 0.101 83.434
6164.792 0.102 83.409 0.993 -5.829 0.993 -5.829 0.102 83.409
6189.75 0.102 83.383 0.993 -5.859 0.993 -5.859 0.102 83.383
6214.708 0.103 83.357 0.993 -5.888 0.993 -5.888 0.103 83.357
6239.667 0.103 83.331 0.993 -5.918 0.993 -5.918 0.103 83.331
6264.625 0.104 83.305 0.993 -5.948 0.993 -5.948 0.104 83.305
6289.583 0.104 83.28 0.993 -5.977 0.993 -5.977 0.104 83.28
6314.542 0.105 83.254 0.993 -6.007 0.993 -6.007 0.105 83.254
6339.5 0.105 83.228 0.993 -6.036 0.993 -6.036 0.105 83.228
6364.458 0.106 83.202 0.993 -6.066 0.993 -6.066 0.106 83.202
6389.417 0.106 83.176 0.993 -6.095 0.993 -6.095 0.106 83.176
6414.375 0.107 83.15 0.993 -6.124 0.993 -6.124 0.107 83.15
6439.333 0.107 83.124 0.993 -6.154 0.993 -6.154 0.107 83.124
6464.292 0.108 83.099 0.993 -6.183 0.993 -6.183 0.108 83.099
6489.25 0.108 83.073 0.993 -6.212 0.993 -6.212 0.108 83.073
6514.208 0.109 83.047 0.993 -6.242 0.993 -6.242 0.109 83.047
6539.167 0.109 83.021 0.993 -6.271 0.993 -6.271 0.109 83.021
6564.125 0.11 82.995 0.993 -6.3 0.993 -6.3 0.11 82.995
6589.083 0.11 82.969 0.993 -6.33 0.993 -6.33 0.11 82.969
6614.042 0.111 82.943 0.992 -6.359 0.992 -6.359 0.111 82.943
6639 0.111 82.917 0.992 -6.388 0.992 -6.388 0.111 82.917
6663.958 0.112 82.891 0.992 -6.417 0.992 -6.417 0.112 82.891
6688.917 0.112 82.865 0.992 -6.446 0.992 -6.446 0.112 82.865
6713.875 0.113 82.839 0.992 -6.475 0.992 -6.475 0.113 82.839
6738.833 0.113 82.813 0.992 -6.505 0.992 -6.505 0.113 82.813
6763.792 0.114 82.787 0.992 -6.534 0.992 -6.534 0.114 82.787
6788.75 0.114 82.761 0.992 -6.563 0.992 -6.563 0.114 82.761
6813.708 0.115 82.735 0.992 -6.592 0.992 -6.592 0.115 82.735
6838.667 0.115 82.709 0.992 -6.621 0.992 -6.621 0.115 82.709
6863.625 0.116 82.683 0.992 -6.65 0.992 -6.65 0.116 82.683
6888.583 0.116 82.657 0.992 -6.679 0.992 -6.679 0.116 82.657
6913.542 0.117 82.631 0.992 -6.708 0.992 -6.708 0.117 82.631
6938.5 0.117 82.605 0.992 -6.736 0.992 -6.736 0.117 82.605
6963.458 0.118 82.579 0.992 -6.765 0.992 -6.765 0.118 82.579
6988.417 0.118 82.553 0.992 -6.794 0.992 -6.794 0.118 82.553
7013.375 0.119 82.526 0.992 -6.823 0.992 -6.823 0.119 82.526
7038.333 0.119 82.5 0.992 -6.852 0.992 -6.852 0.119 82.5
7063.292 0.12 82.474 0.991 -6.881 0.991 -6.881 0.12 82.474
7088.25 0.12 82.448 0.991 -6.91 0.991 -6.91 0.12 82.448
7113.208 0.121 82.422 0.991 -6.938 0.991 -6.938 0.121 82.422
7138.167 0.121 82.396 0.991 -6.967 0.991 -6.967 0.121 82.396
7163.125 0.122 82.37 0.991 -6.996 0.991 -6.996 0.122 82.37
7188.083 0.122 82.344 0.991 -7.025 0.991 -7.025 0.122 82.344
7213.042 0.123 82.318 0.991 -7.053 0.991 -7.053 0.123 82.318
7238 0.123 82.292 0.991 -7.082 0.991 -7.082 0.123 82.292
7262.958 0.124 82.266 0.991 -7.111 0.991 -7.111 0.124 82.266
7287.917 0.124 82.239 0.991 -7.139 0.991 -7.139 0.124 82.239
7312.875 0.125 82.213 0.991 -7.168 0.991 -7.168 0.125 82.213
7337.833 0.125 82.187 0.991 -7.196 0.991 -7.196 0.125 82.187
7362.792 0.126 82.161 0.991 -7.225 0.991 -7.225 0.126 82.161
7387.75 0.126 82.135 0.991 -7.254 0.991 -7.254 0.126 82.135
7412.708 0.127 82.109 0.991 -7.282 0.991 -7.282 0.127 82.109
7437.667 0.127 82.083 0.991 -7.311 0.991 -7.311 0.127 82.083
7462.625 0.128 82.057 0.99 -7.339 0.99 -7.339 0.128 82.057
7487.583 0.128 82.03 0.99 -7.368 0.99 -7.368 0.128 82.03
7512.542 0.129 82.004 0.99 -7.396 0.99 -7.396 0.129 82.004
7537.5 0.129 81.978 0.99 -7.425 0.99 -7.425 0.129 81.978
7562.458 0.13 81.952 0.99 -7.453 0.99 -7.453 0.13 81.952
7587.417 0.13 81.926 0.99 -7.481 0.99 -7.481 0.13 81.926
7612.375 0.131 81.9 0.99 -7.51 0.99 -7.51 0.131 81.9
7637.333 0.131 81.874 0.99 -7.538 0.99 -7.538 0.131 81.874
7662.292 0.132 81.847 0.99 -7.567 0.99 -7.567 0.132 81.847
7687.25 0.132 81.821 0.99 -7.595 0.99 -7.595 0.132 81.821
7712.208 0.133 81.795 0.99 -7.623 0.99 -7.623 0.133 81.795
7737.167 0.133 81.769 0.99 -7.652 0.99 -7.652 0.133 81.769
7762.125 0.134 81.743 0.99 -7.68 0.99 -7.68 0.134 81.743
7787.083 0.134 81.717 0.99 -7.708 0.99 -7.708 0.134 81.717
7812.042 0.135 81.691 0.99 -7.737 0.99 -7.737 0.135 81.691
7837 0.135 81.664 0.989 -7.765 0.989 -7.765 0.135 81.664
7861.958 0.136 81.638 0.989 -7.793 0.989 -7.793 0.136 81.638
7886.917 0.136 81.612 0.989 -7.821 0.989 -7.821 0.136 81.612
7911.875 0.137 81.586 0.989 -7.85 0.989 -7.85 0.137 81.586
7936.833 0.137 81.56 0.989 -7.878 0.989 -7.878 0.137 81.56
7961.792 0.138 81.534 0.989 -7.906 0.989 -7.906 0.138 81.534
7986.75 0.138 81.508 0.989 -7.934 0.989 -7.934 0.138 81.508
8011.708 0.139 81.481 0.989 -7.962 0.989 -7.962 0.139 81.481
8036.667 0.139 81.455 0.989 -7.99 0.989 -7.99 0.139 81.455
8061.625 0.139 81.429 0.989 -8.018 0.989 -8.018 0.139 81.429
8086.583 0.14 81.403 0.989 -8.047 0.989 -8.047 0.14 81.403
8111.542 0.14 81.377 0.989 -8.075 0.989 -8.075 0.14 81.377
8136.5 0.141 81.351 0.989 -8.103 0.989 -8.103 0.141 81.351
8161.458 0.141 81.325 0.989 -8.131 0.989 -8.131 0.141 81.325
8186.417 0.142 81.298 0.989 -8.159 0.989 -8.159 0.142 81.298
8211.375 0.142 81.272 0.988 -8.187 0.988 -8.187 0.142 81.272
8236.333 0.143 81.246 0.988 -8.215 0.988 -8.215 0.143 81.246
8261.292 0.143 81.22 0.988 -8.243 0.988 -8.243 0.143 81.22
8286.25 0.144 81.194 0.988 -8.271 0.988 -8.271 0.144 81.194
