# MHZ S MA R 50

50 1 -0.63 0.011 89.363 0.011 89.363 1 -0.63
74.958 1 -0.944 0.016 89.045 0.016 89.045 1 -0.944
99.917 1 -1.259 0.022 88.727 0.022 88.727 1 -1.259
124.875 1 -1.573 0.027 88.409 0.027 88.409 1 -1.573
149.833 0.999 -1.887 0.033 88.091 0.033 88.091 0.999 -1.887
174.792 0.999 -2.202 0.038 87.774 0.038 87.774 0.999 -2.202
199.75 0.999 -2.516 0.044 87.456 0.044 87.456 0.999 -2.516
224.708 0.999 -2.83 0.049 87.139 0.049 87.139 0.999 -2.83
249.667 0.998 -3.144 0.055 86.821 0.055 86.821 0.998 -3.144
274.625 0.998 -3.457 0.06 86.504 0.06 86.504 0.998 -3.457
299.583 0.998 -3.771 0.066 86.187 0.066 86.187 0.998 -3.771
324.542 0.997 -4.084 0.071 85.87 0.071 85.87 0.997 -4.084
349.5 0.997 -4.397 0.077 85.553 0.077 85.553 0.997 -4.397
374.458 0.997 -4.71 0.082 85.237 0.082 85.237 0.997 -4.71
399.417 0.996 -5.023 0.088 84.92 0.088 84.92 0.996 -5.023
424.375 0.996 -5.336 0.093 84.604 0.093 84.604 0.996 -5.336
449.333 0.995 -5.648 0.098 84.288 0.098 84.288 0.995 -5.648
474.292 0.994 -5.961 0.104 83.973 0.104 83.973 0.994 -5.961
499.25 0.994 -6.272 0.109 83.657 0.109 83.657 0.994 -6.272
524.208 0.993 -6.584 0.115 83.342 0.115 83.342 0.993 -6.584
549.167 0.993 -6.895 0.12 83.027 0.12 83.027 0.993 -6.895
574.125 0.992 -7.206 0.125 82.713 0.125 82.713 0.992 -7.206
599.083 0.991 -7.517 0.131 82.398 0.131 82.398 0.991 -7.517
624.042 0.99 -7.828 0.136 82.084 0.136 82.084 0.99 -7.828
649 0.99 -8.138 0.142 81.771 0.142 81.771 0.99 -8.138
673.958 0.989 -8.447 0.147 81.457 0.147 81.457 0.989 -8.447
698.917 0.988 -8.757 0.152 81.145 0.152 81.145 0.988 -8.757
723.875 0.987 -9.066 0.158 80.832 0.158 80.832 0.987 -9.066
748.833 0.986 -9.374 0.163 80.52 0.163 80.52 0.986 -9.374
773.792 0.985 -9.683 0.168 80.208 0.168 80.208 0.985 -9.683
798.75 0.984 -9.991 0.173 79.897 0.173 79.897 0.984 -9.991
823.708 0.984 -10.298 0.179 79.586 0.179 79.586 0.984 -10.298
848.667 0.983 -10.605 0.184 79.275 0.184 79.275 0.983 -10.605
873.625 0.982 -10.912 0.189 78.965 0.189 78.965 0.982 -10.912
898.583 0.98 -11.218 0.195 78.655 0.195 78.655 0.98 -11.218
923.542 0.979 -11.523 0.2 78.346 0.2 78.346 0.979 -11.523
948.5 0.978 -11.828 0.205 78.037 0.205 78.037 0.978 -11.828
973.458 0.977 -12.133 0.21 77.729 0.21 77.729 0.977 -12.133
998.417 0.976 -12.437 0.215 77.421 0.215 77.421 0.976 -12.437
1023.375 0.975 -12.741 0.221 77.114 0.221 77.114 0.975 -12.741
1048.333 0.974 -13.044 0.226 76.807 0.226 76.807 0.974 -13.044
1073.292 0.972 -13.347 0.231 76.501 0.231 76.501 0.972 -13.347
1098.25 0.971 -13.649 0.236 76.196 0.236 76.196 0.971 -13.649
1123.208 0.97 -13.95 0.241 75.89 0.241 75.89 0.97 -13.95
1148.167 0.969 -14.251 0.246 75.586 0.246 75.586 0.969 -14.251
1173.125 0.967 -14.552 0.251 75.282 0.251 75.282 0.967 -14.552
1198.083 0.966 -14.852 0.256 74.978 0.256 74.978 0.966 -14.852
1223.042 0.964 -15.151 0.261 74.676 0.261 74.676 0.964 -15.151
1248 0.963 -15.45 0.266 74.373 0.266 74.373 0.963 -15.45
1272.958 0.962 -15.748 0.271 74.072 0.271 74.072 0.962 -15.748
1297.917 0.96 -16.045 0.276 73.771 0.276 73.771 0.96 -16.045
1322.875 0.959 -16.342 0.281 73.47 0.281 73.47 0.959 -16.342
1347.833 0.957 -16.638 0.286 73.171 0.286 73.171 0.957 -16.638
1372.792 0.956 -16.933 0.291 72.871 0.291 72.871 0.956 -16.933
1397.75 0.954 -17.228 0.296 72.573 0.296 72.573 0.954 -17.228
1422.708 0.953 -17.522 0.301 72.275 0.301 72.275 0.953 -17.522
1447.667 0.951 -17.816 0.306 71.978 0.306 71.978 0.951 -17.816
1472.625 0.949 -18.109 0.311 71.682 0.311 71.682 0.949 -18.109
1497.583 0.948 -18.401 0.316 71.386 0.316 71.386 0.948 -18.401
1522.542 0.946 -18.692 0.32 71.091 0.32 71.091 0.946 -18.692
1547.5 0.944 -18.983 0.325 70.796 0.325 70.796 0.944 -18.983
1572.458 0.943 -19.273 0.33 70.503 0.33 70.503 0.943 -19.273
1597.417 0.941 -19.562 0.335 70.21 0.335 70.21 0.941 -19.562
1622.375 0.939 -19.851 0.34 69.917 0.34 69.917 0.939 -19.851
1647.333 0.937 -20.139 0.344 69.626 0.344 69.626 0.937 -20.139
1672.292 0.936 -20.426 0.349 69.335 0.349 69.335 0.936 -20.426
1697.25 0.934 -20.712 0.354 69.045 0.354 69.045 0.934 -20.712
1722.208 0.932 -20.998 0.358 68.756 0.358 68.756 0.932 -20.998
1747.167 0.93 -21.283 0.363 68.467 0.363 68.467 0.93 -21.283
1772.125 0.928 -21.567 0.368 68.18 0.368 68.18 0.928 -21.567
1797.083 0.926 -21.85 0.372 67.893 0.372 67.893 0.926 -21.85
1822.042 0.925 -22.133 0.377 67.606 0.377 67.606 0.925 -22.133
1847 0.923 -22.415 0.381 67.321 0.381 67.321 0.923 -22.415
1871.958 0.921 -22.695 0.386 67.036 0.386 67.036 0.921 -22.695
1896.917 0.919 -22.976 0.39 66.752 0.39 66.752 0.919 -22.976
1921.875 0.917 -23.255 0.395 66.469 0.395 66.469 0.917 -23.255
1946.833 0.915 -23.534 0.399 66.187 0.399 66.187 0.915 -23.534
1971.792 0.913 -23.811 0.404 65.906 0.404 65.906 0.913 -23.811
1996.75 0.911 -24.088 0.408 65.625 0.408 65.625 0.911 -24.088
2021.708 0.909 -24.364 0.413 65.345 0.413 65.345 0.909 -24.364
2046.667 0.907 -24.64 0.417 65.066 0.417 65.066 0.907 -24.64
2071.625 0.905 -24.914 0.421 64.788 0.421 64.788 0.905 -24.914
2096.583 0.903 -25.188 0.426 64.511 0.426 64.511 0.903 -25.188
2121.542 0.901 -25.46 0.43 64.234 0.43 64.234 0.901 -25.46
2146.5 0.898 -25.732 0.434 63.958 0.434 63.958 0.898 -25.732
2171.458 0.896 -26.003 0.438 63.684 0.438 63.684 0.896 -26.003
2196.417 0.894 -26.273 0.443 63.41 0.443 63.41 0.894 -26.273
2221.375 0.892 -26.543 0.447 63.137 0.447 63.137 0.892 -26.543
2246.333 0.89 -26.811 0.451 62.864 0.451 62.864 0.89 -26.811
2271.292 0.888 -27.079 0.455 62.593 0.455 62.593 0.888 -27.079
2296.25 0.886 -27.346 0.459 62.322 0.459 62.322 0.886 -27.346
2321.208 0.883 -27.611 0.463 62.053 0.463 62.053 0.883 -27.611
2346.167 0.881 -27.876 0.468 61.784 0.468 61.784 0.881 -27.876
2371.125 0.879 -28.141 0.472 61.516 0.472 61.516 0.879 -28.141
2396.083 0.877 -28.404 0.476 61.249 0.476 61.249 0.877 -28.404
2421.042 0.874 -28.666 0.48 60.983 0.48 60.983 0.874 -28.666
2446 0.872 -28.928 0.484 60.717 0.484 60.717 0.872 -28.928
2470.958 0.87 -29.188 0.488 60.453 0.488 60.453 0.87 -29.188
2495.917 0.868 -29.448 0.492 60.189 0.492 60.189 0.868 -29.448
2520.875 0.865 -29.707 0.496 59.927 0.496 59.927 0.865 -29.707
2545.833 0.863 -29.965 0.499 59.665 0.499 59.665 0.863 -29.965
2570.792 0.861 -30.222 0.503 59.404 0.503 59.404 0.861 -30.222
2595.75 0.858 -30.478 0.507 59.144 0.507 59.144 0.858 -30.478
2620.708 0.856 -30.733 0.511 58.885 0.511 58.885 0.856 -30.733
2645.667 0.854 -30.987 0.515 58.627 0.515 58.627 0.854 -30.987
2670.625 0.851 -31.241 0.519 58.369 0.519 58.369 0.851 -31.241
2695.583 0.849 -31.493 0.522 58.113 0.522 58.113 0.849 -31.493
2720.542 0.847 -31.745 0.526 57.857 0.526 57.857 0.847 -31.745
2745.5 0.844 -31.996 0.53 57.603 0.53 57.603 0.844 -31.996
2770.458 0.842 -32.245 0.534 57.349 0.534 57.349 0.842 -32.245
2795.417 0.84 -32.494 0.537 57.096 0.537 57.096 0.84 -32.494
2820.375 0.837 -32.742 0.541 56.844 0.541 56.844 0.837 -32.742
2845.333 0.835 -32.989 0.544 56.593 0.544 56.593 0.835 -32.989
2870.292 0.832 -33.236 0.548 56.343 0.548 56.343 0.832 -33.236
2895.25 0.83 -33.481 0.552 56.094 0.552 56.094 0.83 -33.481
2920.208 0.828 -33.725 0.555 55.845 0.555 55.845 0.828 -33.725
2945.167 0.825 -33.969 0.559 55.598 0.559 55.598 0.825 -33.969
2970.125 0.823 -34.211 0.562 55.351 0.562 55.351 0.823 -34.211
2995.083 0.82 -34.453 0.566 55.106 0.566 55.106 0.82 -34.453
3020.042 0.818 -34.693 0.569 54.861 0.569 54.861 0.818 -34.693
3045 0.815 -34.933 0.573 54.617 0.573 54.617 0.815 -34.933
3069.958 0.813 -35.172 0.576 54.374 0.576 54.374 0.813 -35.172
3094.917 0.81 -35.41 0.579 54.132 0.579 54.132 0.81 -35.41
3119.875 0.808 -35.647 0.583 53.891 0.583 53.891 0.808 -35.647
3144.833 0.805 -35.883 0.586 53.651 0.586 53.651 0.805 -35.883
3169.792 0.803 -36.119 0.589 53.412 0.589 53.412 0.803 -36.119
3194.75 0.8 -36.353 0.593 53.173 0.593 53.173 0.8 -36.353
3219.708 0.798 -36.586 0.596 52.936 0.596 52.936 0.798 -36.586
3244.667 0.795 -36.819 0.599 52.699 0.599 52.699 0.795 -36.819
3269.625 0.793 -37.05 0.603 52.463 0.603 52.463 0.793 -37.05
3294.583 0.79 -37.281 0.606 52.228 0.606 52.228 0.79 -37.281
3319.542 0.788 -37.511 0.609 51.994 0.609 51.994 0.788 -37.511
3344.5 0.785 -37.74 0.612 51.761 0.612 51.761 0.785 -37.74
3369.458 0.783 -37.968 0.615 51.529 0.615 51.529 0.783 -37.968
3394.417 0.78 -38.195 0.618 51.298 0.618 51.298 0.78 -38.195
3419.375 0.778 -38.421 0.621 51.067 0.621 51.067 0.778 -38.421
3444.333 0.775 -38.646 0.625 50.838 0.625 50.838 0.775 -38.646
3469.292 0.773 -38.871 0.628 50.609 0.628 50.609 0.773 -38.871
3494.25 0.77 -39.094 0.631 50.382 0.631 50.382 0.77 -39.094
3519.208 0.768 -39.317 0.634 50.155 0.634 50.155 0.768 -39.317
3544.167 0.765 -39.539 0.637 49.929 0.637 49.929 0.765 -39.539
3569.125 0.763 -39.76 0.64 49.704 0.64 49.704 0.763 -39.76
3594.083 0.76 -39.98 0.643 49.479 0.643 49.479 0.76 -39.98
3619.042 0.758 -40.199 0.645 49.256 0.645 49.256 0.758 -40.199
3644 0.755 -40.417 0.648 49.034 0.648 49.034 0.755 -40.417
3668.958 0.753 -40.634 0.651 48.812 0.651 48.812 0.753 -40.634
3693.917 0.75 -40.851 0.654 48.591 0.654 48.591 0.75 -40.851
3718.875 0.748 -41.066 0.657 48.371 0.657 48.371 0.748 -41.066
3743.833 0.745 -41.281 0.66 48.152 0.66 48.152 0.745 -41.281
3768.792 0.742 -41.495 0.663 47.934 0.663 47.934 0.742 -41.495
3793.75 0.74 -41.708 0.665 47.717 0.665 47.717 0.74 -41.708
3818.708 0.737 -41.92 0.668 47.5 0.668 47.5 0.737 -41.92
3843.667 0.735 -42.131 0.671 47.285 0.671 47.285 0.735 -42.131
3868.625 0.732 -42.341 0.674 47.07 0.674 47.07 0.732 -42.341
3893.583 0.73 -42.551 0.676 46.856 0.676 46.856 0.73 -42.551
3918.542 0.727 -42.759 0.679 46.643 0.679 46.643 0.727 -42.759
3943.5 0.725 -42.967 0.682 46.431 0.682 46.431 0.725 -42.967
3968.458 0.722 -43.174 0.684 46.219 0.684 46.219 0.722 -43.174
3993.417 0.719 -43.38 0.687 46.009 0.687 46.009 0.719 -43.38
4018.375 0.717 -43.585 0.689 45.799 0.689 45.799 0.717 -43.585
4043.333 0.714 -43.79 0.692 45.59 0.692 45.59 0.714 -43.79
4068.292 0.712 -43.993 0.695 45.382 0.695 45.382 0.712 -43.993
4093.25 0.709 -44.196 0.697 45.175 0.697 45.175 0.709 -44.196
4118.208 0.707 -44.398 0.7 44.969 0.7 44.969 0.707 -44.398
4143.167 0.704 -44.599 0.702 44.763 0.702 44.763 0.704 -44.599
4168.125 0.702 -44.799 0.705 44.558 0.705 44.558 0.702 -44.799
4193.083 0.699 -44.998 0.707 44.354 0.707 44.354 0.699 -44.998
4218.042 0.697 -45.197 0.71 44.151 0.71 44.151 0.697 -45.197
4243 0.694 -45.394 0.712 43.949 0.712 43.949 0.694 -45.394
4267.958 0.692 -45.591 0.714 43.747 0.714 43.747 0.692 -45.591
4292.917 0.689 -45.787 0.717 43.547 0.717 43.547 0.689 -45.787
4317.875 0.686 -45.983 0.719 43.347 0.719 43.347 0.686 -45.983
4342.833 0.684 -46.177 0.722 43.148 0.722 43.148 0.684 -46.177
4367.792 0.681 -46.371 0.724 42.949 0.724 42.949 0.681 -46.371
4392.75 0.679 -46.563 0.726 42.752 0.726 42.752 0.679 -46.563
4417.708 0.676 -46.755 0.728 42.555 0.728 42.555 0.676 -46.755
4442.667 0.674 -46.947 0.731 42.359 0.731 42.359 0.674 -46.947
4467.625 0.671 -47.137 0.733 42.164 0.733 42.164 0.671 -47.137
4492.583 0.669 -47.327 0.735 41.97 0.735 41.97 0.669 -47.327
4517.542 0.666 -47.515 0.738 41.776 0.738 41.776 0.666 -47.515
4542.5 0.664 -47.703 0.74 41.583 0.74 41.583 0.664 -47.703
4567.458 0.661 -47.891 0.742 41.391 0.742 41.391 0.661 -47.891
4592.417 0.659 -48.077 0.744 41.2 0.744 41.2 0.659 -48.077
4617.375 0.656 -48.263 0.746 41.009 0.746 41.009 0.656 -48.263
4642.333 0.654 -48.448 0.748 40.819 0.748 40.819 0.654 -48.448
4667.292 0.651 -48.632 0.751 40.63 0.751 40.63 0.651 -48.632
4692.25 0.649 -48.815 0.753 40.442 0.753 40.442 0.649 -48.815
4717.208 0.646 -48.998 0.755 40.255 0.755 40.255 0.646 -48.998
4742.167 0.644 -49.18 0.757 40.068 0.757 40.068 0.644 -49.18
4767.125 0.641 -49.361 0.759 39.882 0.759 39.882 0.641 -49.361
4792.083 0.639 -49.541 0.761 39.697 0.761 39.697 0.639 -49.541
4817.042 0.636 -49.721 0.763 39.512 0.763 39.512 0.636 -49.721
4842 0.634 -49.899 0.765 39.328 0.765 39.328 0.634 -49.899
4866.958 0.631 -50.077 0.767 39.145 0.767 39.145 0.631 -50.077
4891.917 0.629 -50.255 0.769 38.963 0.769 38.963 0.629 -50.255
4916.875 0.626 -50.431 0.771 38.781 0.771 38.781 0.626 -50.431
4941.833 0.624 -50.607 0.773 38.6 0.773 38.6 0.624 -50.607
4966.792 0.621 -50.782 0.775 38.42 0.775 38.42 0.621 -50.782
4991.75 0.619 -50.956 0.777 38.24 0.777 38.24 0.619 -50.956
5016.708 0.617 -51.13 0.779 38.062 0.779 38.062 0.617 -51.13
5041.667 0.614 -51.303 0.781 37.883 0.781 37.883 0.614 -51.303
5066.625 0.612 -51.475 0.782 37.706 0.782 37.706 0.612 -51.475
5091.583 0.609 -51.647 0.784 37.529 0.784 37.529 0.609 -51.647
5116.542 0.607 -51.817 0.786 37.353 0.786 37.353 0.607 -51.817
5141.5 0.604 -51.987 0.788 37.178 0.788 37.178 0.604 -51.987
5166.458 0.602 -52.157 0.79 37.004 0.79 37.004 0.602 -52.157
5191.417 0.6 -52.325 0.792 36.83 0.792 36.83 0.6 -52.325
5216.375 0.597 -52.493 0.793 36.656 0.793 36.656 0.597 -52.493
5241.333 0.595 -52.66 0.795 36.484 0.795 36.484 0.595 -52.66
5266.292 0.592 -52.827 0.797 36.312 0.797 36.312 0.592 -52.827
5291.25 0.59 -52.993 0.799 36.141 0.799 36.141 0.59 -52.993
5316.208 0.587 -53.158 0.8 35.97 0.8 35.97 0.587 -53.158
5341.167 0.585 -53.322 0.802 35.8 0.802 35.8 0.585 -53.322
5366.125 0.583 -53.486 0.804 35.631 0.804 35.631 0.583 -53.486
5391.083 0.58 -53.649 0.805 35.462 0.805 35.462 0.58 -53.649
5416.042 0.578 -53.811 0.807 35.295 0.807 35.295 0.578 -53.811
5441 0.575 -53.973 0.809 35.127 0.809 35.127 0.575 -53.973
5465.958 0.573 -54.134 0.81 34.961 0.81 34.961 0.573 -54.134
5490.917 0.571 -54.294 0.812 34.795 0.812 34.795 0.571 -54.294
5515.875 0.568 -54.454 0.814 34.629 0.814 34.629 0.568 -54.454
5540.833 0.566 -54.613 0.815 34.465 0.815 34.465 0.566 -54.613
5565.792 0.564 -54.771 0.817 34.301 0.817 34.301 0.564 -54.771
5590.75 0.561 -54.929 0.819 34.137 0.819 34.137 0.561 -54.929
5615.708 0.559 -55.086 0.82 33.975 0.82 33.975 0.559 -55.086
5640.667 0.557 -55.243 0.822 33.812 0.822 33.812 0.557 -55.243
5665.625 0.554 -55.398 0.823 33.651 0.823 33.651 0.554 -55.398
5690.583 0.552 -55.553 0.825 33.49 0.825 33.49 0.552 -55.553
5715.542 0.55 -55.708 0.826 33.33 0.826 33.33 0.55 -55.708
5740.5 0.547 -55.862 0.828 33.17 0.828 33.17 0.547 -55.862
5765.458 0.545 -56.015 0.829 33.011 0.829 33.011 0.545 -56.015
5790.417 0.543 -56.167 0.831 32.852 0.831 32.852 0.543 -56.167
5815.375 0.54 -56.319 0.832 32.695 0.832 32.695 0.54 -56.319
5840.333 0.538 -56.471 0.834 32.537 0.834 32.537 0.538 -56.471
5865.292 0.536 -56.621 0.835 32.381 0.835 32.381 0.536 -56.621
5890.25 0.533 -56.771 0.837 32.225 0.837 32.225 0.533 -56.771
5915.208 0.531 -56.921 0.838 32.069 0.838 32.069 0.531 -56.921
5940.167 0.529 -57.07 0.839 31.914 0.839 31.914 0.529 -57.07
5965.125 0.526 -57.218 0.841 31.76 0.841 31.76 0.526 -57.218
5990.083 0.524 -57.365 0.842 31.606 0.842 31.606 0.524 -57.365
6015.042 0.522 -57.512 0.844 31.453 0.844 31.453 0.522 -57.512
6040 0.52 -57.659 0.845 31.3 0.845 31.3 0.52 -57.659
6064.958 0.517 -57.804 0.846 31.148 0.846 31.148 0.517 -57.804
6089.917 0.515 -57.95 0.848 30.997 0.848 30.997 0.515 -57.95
6114.875 0.513 -58.094 0.849 30.846 0.849 30.846 0.513 -58.094
6139.833 0.511 -58.238 0.85 30.696 0.85 30.696 0.511 -58.238
6164.792 0.508 -58.382 0.852 30.546 0.852 30.546 0.508 -58.382
6189.75 0.506 -58.524 0.853 30.397 0.853 30.397 0.506 -58.524
6214.708 0.504 -58.667 0.854 30.248 0.854 30.248 0.504 -58.667
6239.667 0.502 -58.808 0.856 30.1 0.856 30.1 0.502 -58.808
6264.625 0.499 -58.949 0.857 29.952 0.857 29.952 0.499 -58.949
6289.583 0.497 -59.09 0.858 29.805 0.858 29.805 0.497 -59.09
6314.542 0.495 -59.23 0.859 29.659 0.859 29.659 0.495 -59.23
6339.5 0.493 -59.369 0.861 29.513 0.861 29.513 0.493 -59.369
6364.458 0.491 -59.508 0.862 29.368 0.862 29.368 0.491 -59.508
6389.417 0.488 -59.646 0.863 29.223 0.863 29.223 0.488 -59.646
6414.375 0.486 -59.783 0.864 29.078 0.864 29.078 0.486 -59.783
6439.333 0.484 -59.921 0.866 28.935 0.866 28.935 0.484 -59.921
6464.292 0.482 -60.057 0.867 28.791 0.867 28.791 0.482 -60.057
6489.25 0.48 -60.193 0.868 28.649 0.868 28.649 0.48 -60.193
6514.208 0.477 -60.328 0.869 28.506 0.869 28.506 0.477 -60.328
6539.167 0.475 -60.463 0.87 28.365 0.87 28.365 0.475 -60.463
6564.125 0.473 -60.597 0.871 28.223 0.871 28.223 0.473 -60.597
6589.083 0.471 -60.731 0.873 28.083 0.873 28.083 0.471 -60.731
6614.042 0.469 -60.864 0.874 27.942 0.874 27.942 0.469 -60.864
6639 0.467 -60.997 0.875 27.803 0.875 27.803 0.467 -60.997
6663.958 0.464 -61.129 0.876 27.664 0.876 27.664 0.464 -61.129
6688.917 0.462 -61.261 0.877 27.525 0.877 27.525 0.462 -61.261
6713.875 0.46 -61.392 0.878 27.387 0.878 27.387 0.46 -61.392
6738.833 0.458 -61.522 0.879 27.249 0.879 27.249 0.458 -61.522
6763.792 0.456 -61.652 0.88 27.112 0.88 27.112 0.456 -61.652
6788.75 0.454 -61.782 0.881 26.975 0.881 26.975 0.454 -61.782
6813.708 0.452 -61.91 0.882 26.839 0.882 26.839 0.452 -61.91
6838.667 0.449 -62.039 0.883 26.703 0.883 26.703 0.449 -62.039
6863.625 0.447 -62.167 0.885 26.568 0.885 26.568 0.447 -62.167
6888.583 0.445 -62.294 0.886 26.433 0.886 26.433 0.445 -62.294
6913.542 0.443 -62.421 0.887 26.298 0.887 26.298 0.443 -62.421
6938.5 0.441 -62.547 0.888 26.165 0.888 26.165 0.441 -62.547
6963.458 0.439 -62.673 0.889 26.031 0.889 26.031 0.439 -62.673
6988.417 0.437 -62.798 0.89 25.898 0.89 25.898 0.437 -62.798
7013.375 0.435 -62.923 0.891 25.766 0.891 25.766 0.435 -62.923
7038.333 0.433 -63.047 0.892 25.634 0.892 25.634 0.433 -63.047
7063.292 0.431 -63.171 0.893 25.502 0.893 25.502 0.431 -63.171
7088.25 0.429 -63.294 0.894 25.371 0.894 25.371 0.429 -63.294
7113.208 0.427 -63.417 0.895 25.24 0.895 25.24 0.427 -63.417
7138.167 0.424 -63.539 0.895 25.11 0.895 25.11 0.424 -63.539
7163.125 0.422 -63.661 0.896 24.98 0.896 24.98 0.422 -63.661
7188.083 0.42 -63.782 0.897 24.851 0.897 24.851 0.42 -63.782
7213.042 0.418 -63.903 0.898 24.722 0.898 24.722 0.418 -63.903
7238 0.416 -64.024 0.899 24.594 0.899 24.594 0.416 -64.024
7262.958 0.414 -64.143 0.9 24.466 0.9 24.466 0.414 -64.143
7287.917 0.412 -64.263 0.901 24.338 0.901 24.338 0.412 -64.263
7312.875 0.41 -64.381 0.902 24.211 0.902 24.211 0.41 -64.381
7337.833 0.408 -64.5 0.903 24.084 0.903 24.084 0.408 -64.5
7362.792 0.406 -64.618 0.904 23.958 0.904 23.958 0.406 -64.618
7387.75 0.404 -64.735 0.905 23.832 0.905 23.832 0.404 -64.735
7412.708 0.402 -64.852 0.905 23.707 0.905 23.707 0.402 -64.852
7437.667 0.4 -64.968 0.906 23.582 0.906 23.582 0.4 -64.968
7462.625 0.398 -65.084 0.907 23.457 0.907 23.457 0.398 -65.084
7487.583 0.396 -65.2 0.908 23.333 0.908 23.333 0.396 -65.2
7512.542 0.394 -65.315 0.909 23.209 0.909 23.209 0.394 -65.315
7537.5 0.392 -65.429 0.91 23.086 0.91 23.086 0.392 -65.429
7562.458 0.39 -65.543 0.911 22.963 0.911 22.963 0.39 -65.543
7587.417 0.388 -65.657 0.911 22.841 0.911 22.841 0.388 -65.657
7612.375 0.386 -65.77 0.912 22.718 0.912 22.718 0.386 -65.77
7637.333 0.384 -65.883 0.913 22.597 0.913 22.597 0.384 -65.883
7662.292 0.382 -65.995 0.914 22.475 0.914 22.475 0.382 -65.995
7687.25 0.38 -66.107 0.915 22.354 0.915 22.354 0.38 -66.107
7712.208 0.379 -66.218 0.915 22.234 0.915 22.234 0.379 -66.218
7737.167 0.377 -66.329 0.916 22.114 0.916 22.114 0.377 -66.329
7762.125 0.375 -66.439 0.917 21.994 0.917 21.994 0.375 -66.439
7787.083 0.373 -66.549 0.918 21.875 0.918 21.875 0.373 -66.549
7812.042 0.371 -66.659 0.919 21.756 0.919 21.756 0.371 -66.659
7837 0.369 -66.768 0.919 21.637 0.919 21.637 0.369 -66.768
7861.958 0.367 -66.876 0.92 21.519 0.92 21.519 0.367 -66.876
7886.917 0.365 -66.984 0.921 21.401 0.921 21.401 0.365 -66.984
7911.875 0.363 -67.092 0.922 21.284 0.922 21.284 0.363 -67.092
7936.833 0.361 -67.199 0.922 21.167 0.922 21.167 0.361 -67.199
7961.792 0.359 -67.306 0.923 21.05 0.923 21.05 0.359 -67.306
7986.75 0.357 -67.412 0.924 20.934 0.924 20.934 0.357 -67.412
8011.708 0.356 -67.518 0.924 20.818 0.924 20.818 0.356 -67.518
8036.667 0.354 -67.624 0.925 20.702 0.925 20.702 0.354 -67.624
8061.625 0.352 -67.729 0.926 20.587 0.926 20.587 0.352 -67.729
8086.583 0.35 -67.833 0.926 20.472 0.926 20.472 0.35 -67.833
8111.542 0.348 -67.937 0.927 20.357 0.927 20.357 0.348 -67.937
8136.5 0.346 -68.041 0.928 20.243 0.928 20.243 0.346 -68.041
