# MHZ S MA R 50

50 1 -0.18 3.142e-3 89.814 3.142e-3 89.814 1 -0.18
74.958 1 -0.27 4.71e-3 89.722 4.71e-3 89.722 1 -0.27
99.917 1 -0.36 6.278e-3 89.629 6.278e-3 89.629 1 -0.36
124.875 1 -0.45 7.846e-3 89.537 7.846e-3 89.537 1 -0.45
149.833 1 -0.539 9.414e-3 89.444 9.414e-3 89.444 1 -0.539
174.792 1 -0.629 0.011 89.352 0.011 89.352 1 -0.629
199.75 1 -0.719 0.013 89.259 0.013 89.259 1 -0.719
224.708 1 -0.809 0.014 89.166 0.014 89.166 1 -0.809
249.667 1 -0.899 0.016 89.074 0.016 89.074 1 -0.899
274.625 1 -0.989 0.017 88.981 0.017 88.981 1 -0.989
299.583 1 -1.079 0.019 88.889 0.019 88.889 1 -1.079
324.542 1 -1.169 0.02 88.796 0.02 88.796 1 -1.169
349.5 1 -1.258 0.022 88.703 0.022 88.703 1 -1.258
374.458 1 -1.348 0.024 88.611 0.024 88.611 1 -1.348
399.417 1 -1.438 0.025 88.518 0.025 88.518 1 -1.438
424.375 1 -1.528 0.027 88.425 0.027 88.425 1 -1.528
449.333 1 -1.618 0.028 88.333 0.028 88.333 1 -1.618
474.292 1 -1.708 0.03 88.24 0.03 88.24 1 -1.708
499.25 0.999 -1.798 0.031 88.147 0.031 88.147 0.999 -1.798
524.208 0.999 -1.888 0.033 88.055 0.033 88.055 0.999 -1.888
549.167 0.999 -1.978 0.035 87.962 0.035 87.962 0.999 -1.978
574.125 0.999 -2.068 0.036 87.869 0.036 87.869 0.999 -2.068
599.083 0.999 -2.158 0.038 87.777 0.038 87.777 0.999 -2.158
624.042 0.999 -2.248 0.039 87.684 0.039 87.684 0.999 -2.248
649 0.999 -2.338 0.041 87.591 0.041 87.591 0.999 -2.338
673.958 0.999 -2.428 0.042 87.499 0.042 87.499 0.999 -2.428
698.917 0.999 -2.518 0.044 87.406 0.044 87.406 0.999 -2.518
723.875 0.999 -2.608 0.045 87.313 0.045 87.313 0.999 -2.608
748.833 0.999 -2.698 0.047 87.22 0.047 87.22 0.999 -2.698
773.792 0.999 -2.788 0.049 87.128 0.049 87.128 0.999 -2.788
798.75 0.999 -2.878 0.05 87.035 0.05 87.035 0.999 -2.878
823.708 0.999 -2.968 0.052 86.942 0.052 86.942 0.999 -2.968
848.667 0.998 -3.058 0.053 86.849 0.053 86.849 0.998 -3.058
873.625 0.998 -3.148 0.055 86.756 0.055 86.756 0.998 -3.148
898.583 0.998 -3.238 0.056 86.663 0.056 86.663 0.998 -3.238
923.542 0.998 -3.328 0.058 86.571 0.058 86.571 0.998 -3.328
948.5 0.998 -3.418 0.06 86.478 0.06 86.478 0.998 -3.418
973.458 0.998 -3.509 0.061 86.385 0.061 86.385 0.998 -3.509
998.417 0.998 -3.599 0.063 86.292 0.063 86.292 0.998 -3.599
1023.375 0.998 -3.689 0.064 86.199 0.064 86.199 0.998 -3.689
1048.333 0.998 -3.779 0.066 86.106 0.066 86.106 0.998 -3.779
1073.292 0.998 -3.869 0.067 86.013 0.067 86.013 0.998 -3.869
1098.25 0.997 -3.96 0.069 85.92 0.069 85.92 0.997 -3.96
1123.208 0.997 -4.05 0.071 85.827 0.071 85.827 0.997 -4.05
1148.167 0.997 -4.14 0.072 85.734 0.072 85.734 0.997 -4.14
1173.125 0.997 -4.23 0.074 85.641 0.074 85.641 0.997 -4.23
1198.083 0.997 -4.321 0.075 85.548 0.075 85.548 0.997 -4.321
1223.042 0.997 -4.411 0.077 85.455 0.077 85.455 0.997 -4.411
1248 0.997 -4.501 0.078 85.362 0.078 85.362 0.997 -4.501
1272.958 0.997 -4.592 0.08 85.268 0.08 85.268 0.997 -4.592
1297.917 0.996 -4.682 0.082 85.175 0.082 85.175 0.996 -4.682
1322.875 0.996 -4.773 0.083 85.082 0.083 85.082 0.996 -4.773
1347.833 0.996 -4.863 0.085 84.989 0.085 84.989 0.996 -4.863
1372.792 0.996 -4.953 0.086 84.896 0.086 84.896 0.996 -4.953
1397.75 0.996 -5.044 0.088 84.802 0.088 84.802 0.996 -5.044
1422.708 0.996 -5.134 0.089 84.709 0.089 84.709 0.996 -5.134
1447.667 0.996 -5.225 0.091 84.616 0.091 84.616 0.996 -5.225
1472.625 0.995 -5.315 0.093 84.523 0.093 84.523 0.995 -5.315
1497.583 0.995 -5.406 0.094 84.429 0.094 84.429 0.995 -5.406
1522.542 0.995 -5.497 0.096 84.336 0.096 84.336 0.995 -5.497
1547.5 0.995 -5.587 0.097 84.242 0.097 84.242 0.995 -5.587
1572.458 0.995 -5.678 0.099 84.149 0.099 84.149 0.995 -5.678
1597.417 0.995 -5.769 0.101 84.056 0.101 84.056 0.995 -5.769
1622.375 0.994 -5.859 0.102 83.962 0.102 83.962 0.994 -5.859
1647.333 0.994 -5.95 0.104 83.869 0.104 83.869 0.994 -5.95
1672.292 0.994 -6.041 0.105 83.775 0.105 83.775 0.994 -6.041
1697.25 0.994 -6.132 0.107 83.681 0.107 83.681 0.994 -6.132
1722.208 0.994 -6.222 0.108 83.588 0.108 83.588 0.994 -6.222
1747.167 0.994 -6.313 0.11 83.494 0.11 83.494 0.994 -6.313
1772.125 0.993 -6.404 0.112 83.401 0.112 83.401 0.993 -6.404
1797.083 0.993 -6.495 0.113 83.307 0.113 83.307 0.993 -6.495
1822.042 0.993 -6.586 0.115 83.213 0.115 83.213 0.993 -6.586
1847 0.993 -6.677 0.116 83.119 0.116 83.119 0.993 -6.677
1871.958 0.993 -6.768 0.118 83.026 0.118 83.026 0.993 -6.768
1896.917 0.992 -6.859 0.119 82.932 0.119 82.932 0.992 -6.859
1921.875 0.992 -6.95 0.121 82.838 0.121 82.838 0.992 -6.95
1946.833 0.992 -7.041 0.123 82.744 0.123 82.744 0.992 -7.041
1971.792 0.992 -7.132 0.124 82.65 0.124 82.65 0.992 -7.132
1996.75 0.992 -7.223 0.126 82.556 0.126 82.556 0.992 -7.223
2021.708 0.991 -7.314 0.127 82.462 0.127 82.462 0.991 -7.314
2046.667 0.991 -7.406 0.129 82.368 0.129 82.368 0.991 -7.406
2071.625 0.991 -7.497 0.13 82.274 0.13 82.274 0.991 -7.497
2096.583 0.991 -7.588 0.132 82.18 0.132 82.18 0.991 -7.588
2121.542 0.99 -7.679 0.134 82.086 0.134 82.086 0.99 -7.679
2146.5 0.99 -7.771 0.135 81.992 0.135 81.992 0.99 -7.771
2171.458 0.99 -7.862 0.137 81.897 0.137 81.897 0.99 -7.862
2196.417 0.99 -7.954 0.138 81.803 0.138 81.803 0.99 -7.954
2221.375 0.99 -8.045 0.14 81.709 0.14 81.709 0.99 -8.045
2246.333 0.989 -8.137 0.142 81.615 0.142 81.615 0.989 -8.137
2271.292 0.989 -8.228 0.143 81.52 0.143 81.52 0.989 -8.228
2296.25 0.989 -8.32 0.145 81.426 0.145 81.426 0.989 -8.32
2321.208 0.989 -8.411 0.146 81.331 0.146 81.331 0.989 -8.411
2346.167 0.988 -8.503 0.148 81.237 0.148 81.237 0.988 -8.503
2371.125 0.988 -8.595 0.149 81.142 0.149 81.142 0.988 -8.595
2396.083 0.988 -8.686 0.151 81.048 0.151 81.048 0.988 -8.686
2421.042 0.988 -8.778 0.153 80.953 0.153 80.953 0.988 -8.778
2446 0.987 -8.87 0.154 80.859 0.154 80.859 0.987 -8.87
2470.958 0.987 -8.962 0.156 80.764 0.156 80.764 0.987 -8.962
2495.917 0.987 -9.053 0.157 80.669 0.157 80.669 0.987 -9.053
2520.875 0.987 -9.145 0.159 80.574 0.159 80.574 0.987 -9.145
2545.833 0.986 -9.237 0.161 80.479 0.161 80.479 0.986 -9.237
2570.792 0.986 -9.329 0.162 80.385 0.162 80.385 0.986 -9.329
2595.75 0.986 -9.421 0.164 80.29 0.164 80.29 0.986 -9.421
2620.708 0.985 -9.513 0.165 80.195 0.165 80.195 0.985 -9.513
2645.667 0.985 -9.606 0.167 80.1 0.167 80.1 0.985 -9.606
2670.625 0.985 -9.698 0.168 80.005 0.168 80.005 0.985 -9.698
2695.583 0.985 -9.79 0.17 79.91 0.17 79.91 0.985 -9.79
2720.542 0.984 -9.882 0.172 79.814 0.172 79.814 0.984 -9.882
2745.5 0.984 -9.974 0.173 79.719 0.173 79.719 0.984 -9.974
2770.458 0.984 -10.067 0.175 79.624 0.175 79.624 0.984 -10.067
2795.417 0.983 -10.159 0.176 79.529 0.176 79.529 0.983 -10.159
2820.375 0.983 -10.252 0.178 79.433 0.178 79.433 0.983 -10.252
2845.333 0.983 -10.344 0.18 79.338 0.18 79.338 0.983 -10.344
2870.292 0.982 -10.437 0.181 79.243 0.181 79.243 0.982 -10.437
2895.25 0.982 -10.529 0.183 79.147 0.183 79.147 0.982 -10.529
2920.208 0.982 -10.622 0.184 79.052 0.184 79.052 0.982 -10.622
2945.167 0.981 -10.714 0.186 78.956 0.186 78.956 0.981 -10.714
2970.125 0.981 -10.807 0.188 78.86 0.188 78.86 0.981 -10.807
2995.083 0.981 -10.9 0.189 78.765 0.189 78.765 0.981 -10.9
3020.042 0.981 -10.993 0.191 78.669 0.191 78.669 0.981 -10.993
3045 0.98 -11.086 0.192 78.573 0.192 78.573 0.98 -11.086
3069.958 0.98 -11.178 0.194 78.477 0.194 78.477 0.98 -11.178
3094.917 0.98 -11.271 0.195 78.381 0.195 78.381 0.98 -11.271
3119.875 0.979 -11.364 0.197 78.286 0.197 78.286 0.979 -11.364
3144.833 0.979 -11.457 0.199 78.19 0.199 78.19 0.979 -11.457
3169.792 0.979 -11.551 0.2 78.093 0.2 78.093 0.979 -11.551
3194.75 0.978 -11.644 0.202 77.997 0.202 77.997 0.978 -11.644
3219.708 0.978 -11.737 0.203 77.901 0.203 77.901 0.978 -11.737
3244.667 0.977 -11.83 0.205 77.805 0.205 77.805 0.977 -11.83
3269.625 0.977 -11.923 0.207 77.709 0.207 77.709 0.977 -11.923
3294.583 0.977 -12.017 0.208 77.612 0.208 77.612 0.977 -12.017
3319.542 0.976 -12.11 0.21 77.516 0.21 77.516 0.976 -12.11
3344.5 0.976 -12.204 0.211 77.42 0.211 77.42 0.976 -12.204
3369.458 0.976 -12.297 0.213 77.323 0.213 77.323 0.976 -12.297
3394.417 0.975 -12.391 0.215 77.226 0.215 77.226 0.975 -12.391
3419.375 0.975 -12.484 0.216 77.13 0.216 77.13 0.975 -12.484
3444.333 0.975 -12.578 0.218 77.033 0.218 77.033 0.975 -12.578
3469.292 0.974 -12.672 0.219 76.936 0.219 76.936 0.974 -12.672
3494.25 0.974 -12.766 0.221 76.84 0.221 76.84 0.974 -12.766
3519.208 0.973 -12.859 0.223 76.743 0.223 76.743 0.973 -12.859
3544.167 0.973 -12.953 0.224 76.646 0.224 76.646 0.973 -12.953
3569.125 0.973 -13.047 0.226 76.549 0.226 76.549 0.973 -13.047
3594.083 0.972 -13.141 0.227 76.452 0.227 76.452 0.972 -13.141
3619.042 0.972 -13.235 0.229 76.355 0.229 76.355 0.972 -13.235
3644 0.971 -13.329 0.231 76.258 0.231 76.258 0.971 -13.329
3668.958 0.971 -13.424 0.232 76.16 0.232 76.16 0.971 -13.424
3693.917 0.971 -13.518 0.234 76.063 0.234 76.063 0.971 -13.518
3718.875 0.97 -13.612 0.235 75.966 0.235 75.966 0.97 -13.612
3743.833 0.97 -13.707 0.237 75.868 0.237 75.868 0.97 -13.707
3768.792 0.969 -13.801 0.239 75.771 0.239 75.771 0.969 -13.801
3793.75 0.969 -13.895 0.24 75.673 0.24 75.673 0.969 -13.895
3818.708 0.969 -13.99 0.242 75.576 0.242 75.576 0.969 -13.99
3843.667 0.968 -14.085 0.243 75.478 0.243 75.478 0.968 -14.085
3868.625 0.968 -14.179 0.245 75.38 0.245 75.38 0.968 -14.179
3893.583 0.967 -14.274 0.247 75.283 0.247 75.283 0.967 -14.274
3918.542 0.967 -14.369 0.248 75.185 0.248 75.185 0.967 -14.369
3943.5 0.966 -14.464 0.25 75.087 0.25 75.087 0.966 -14.464
3968.458 0.966 -14.559 0.251 74.989 0.251 74.989 0.966 -14.559
3993.417 0.965 -14.654 0.253 74.891 0.253 74.891 0.965 -14.654
4018.375 0.965 -14.749 0.255 74.792 0.255 74.792 0.965 -14.749
4043.333 0.965 -14.844 0.256 74.694 0.256 74.694 0.965 -14.844
4068.292 0.964 -14.939 0.258 74.596 0.258 74.596 0.964 -14.939
4093.25 0.964 -15.034 0.259 74.498 0.259 74.498 0.964 -15.034
4118.208 0.963 -15.129 0.261 74.399 0.261 74.399 0.963 -15.129
4143.167 0.963 -15.225 0.263 74.301 0.263 74.301 0.963 -15.225
4168.125 0.962 -15.32 0.264 74.202 0.264 74.202 0.962 -15.32
4193.083 0.962 -15.416 0.266 74.104 0.266 74.104 0.962 -15.416
4218.042 0.961 -15.511 0.267 74.005 0.267 74.005 0.961 -15.511
4243 0.961 -15.607 0.269 73.906 0.269 73.906 0.961 -15.607
4267.958 0.96 -15.702 0.271 73.807 0.271 73.807 0.96 -15.702
4292.917 0.96 -15.798 0.272 73.708 0.272 73.708 0.96 -15.798
4317.875 0.959 -15.894 0.274 73.609 0.274 73.609 0.959 -15.894
4342.833 0.959 -15.99 0.275 73.51 0.275 73.51 0.959 -15.99
4367.792 0.958 -16.086 0.277 73.411 0.277 73.411 0.958 -16.086
4392.75 0.958 -16.182 0.279 73.312 0.279 73.312 0.958 -16.182
4417.708 0.957 -16.278 0.28 73.213 0.28 73.213 0.957 -16.278
4442.667 0.957 -16.374 0.282 73.113 0.282 73.113 0.957 -16.374
4467.625 0.956 -16.47 0.284 73.014 0.284 73.014 0.956 -16.47
4492.583 0.956 -16.567 0.285 72.914 0.285 72.914 0.956 -16.567
4517.542 0.955 -16.663 0.287 72.815 0.287 72.815 0.955 -16.663
4542.5 0.955 -16.759 0.288 72.715 0.288 72.715 0.955 -16.759
4567.458 0.954 -16.856 0.29 72.615 0.29 72.615 0.954 -16.856
4592.417 0.954 -16.953 0.292 72.516 0.292 72.516 0.954 -16.953
4617.375 0.953 -17.049 0.293 72.416 0.293 72.416 0.953 -17.049
4642.333 0.953 -17.146 0.295 72.316 0.295 72.316 0.953 -17.146
4667.292 0.952 -17.243 0.296 72.216 0.296 72.216 0.952 -17.243
4692.25 0.952 -17.34 0.298 72.116 0.298 72.116 0.952 -17.34
4717.208 0.951 -17.437 0.3 72.015 0.3 72.015 0.951 -17.437
4742.167 0.951 -17.534 0.301 71.915 0.301 71.915 0.951 -17.534
4767.125 0.95 -17.631 0.303 71.815 0.303 71.815 0.95 -17.631
4792.083 0.95 -17.728 0.305 71.714 0.305 71.714 0.95 -17.728
4817.042 0.949 -17.825 0.306 71.614 0.306 71.614 0.949 -17.825
4842 0.948 -17.922 0.308 71.513 0.308 71.513 0.948 -17.922
4866.958 0.948 -18.02 0.309 71.413 0.309 71.413 0.948 -18.02
4891.917 0.947 -18.117 0.311 71.312 0.311 71.312 0.947 -18.117
4916.875 0.947 -18.215 0.313 71.211 0.313 71.211 0.947 -18.215
4941.833 0.946 -18.312 0.314 71.11 0.314 71.11 0.946 -18.312
4966.792 0.946 -18.41 0.316 71.009 0.316 71.009 0.946 -18.41
4991.75 0.945 -18.508 0.317 70.908 0.317 70.908 0.945 -18.508
5016.708 0.944 -18.606 0.319 70.807 0.319 70.807 0.944 -18.606
5041.667 0.944 -18.703 0.321 70.705 0.321 70.705 0.944 -18.703
5066.625 0.943 -18.801 0.322 70.604 0.322 70.604 0.943 -18.801
5091.583 0.943 -18.9 0.324 70.503 0.324 70.503 0.943 -18.9
5116.542 0.942 -18.998 0.326 70.401 0.326 70.401 0.942 -18.998
5141.5 0.942 -19.096 0.327 70.3 0.327 70.3 0.942 -19.096
5166.458 0.941 -19.194 0.329 70.198 0.329 70.198 0.941 -19.194
5191.417 0.94 -19.293 0.33 70.096 0.33 70.096 0.94 -19.293
5216.375 0.94 -19.391 0.332 69.994 0.332 69.994 0.94 -19.391
5241.333 0.939 -19.49 0.334 69.892 0.334 69.892 0.939 -19.49
5266.292 0.938 -19.588 0.335 69.79 0.335 69.79 0.938 -19.588
5291.25 0.938 -19.687 0.337 69.688 0.337 69.688 0.938 -19.687
5316.208 0.937 -19.786 0.339 69.586 0.339 69.586 0.937 -19.786
5341.167 0.937 -19.884 0.34 69.484 0.34 69.484 0.937 -19.884
5366.125 0.936 -19.983 0.342 69.381 0.342 69.381 0.936 -19.983
5391.083 0.935 -20.082 0.343 69.279 0.343 69.279 0.935 -20.082
5416.042 0.935 -20.181 0.345 69.176 0.345 69.176 0.935 -20.181
5441 0.934 -20.281 0.347 69.074 0.347 69.074 0.934 -20.281
5465.958 0.933 -20.38 0.348 68.971 0.348 68.971 0.933 -20.38
5490.917 0.933 -20.479 0.35 68.868 0.35 68.868 0.933 -20.479
5515.875 0.932 -20.579 0.352 68.765 0.352 68.765 0.932 -20.579
5540.833 0.932 -20.678 0.353 68.662 0.353 68.662 0.932 -20.678
5565.792 0.931 -20.778 0.355 68.559 0.355 68.559 0.931 -20.778
5590.75 0.93 -20.877 0.356 68.456 0.356 68.456 0.93 -20.877
5615.708 0.93 -20.977 0.358 68.353 0.358 68.353 0.93 -20.977
5640.667 0.929 -21.077 0.36 68.249 0.36 68.249 0.929 -21.077
5665.625 0.928 -21.177 0.361 68.146 0.361 68.146 0.928 -21.177
5690.583 0.928 -21.277 0.363 68.042 0.363 68.042 0.928 -21.277
5715.542 0.927 -21.377 0.365 67.939 0.365 67.939 0.927 -21.377
5740.5 0.926 -21.477 0.366 67.835 0.366 67.835 0.926 -21.477
5765.458 0.925 -21.577 0.368 67.731 0.368 67.731 0.925 -21.577
5790.417 0.925 -21.678 0.369 67.627 0.369 67.627 0.925 -21.678
5815.375 0.924 -21.778 0.371 67.523 0.371 67.523 0.924 -21.778
5840.333 0.923 -21.879 0.373 67.419 0.373 67.419 0.923 -21.879
5865.292 0.923 -21.979 0.374 67.315 0.374 67.315 0.923 -21.979
5890.25 0.922 -22.08 0.376 67.211 0.376 67.211 0.922 -22.08
5915.208 0.921 -22.181 0.378 67.106 0.378 67.106 0.921 -22.181
5940.167 0.921 -22.282 0.379 67.002 0.379 67.002 0.921 -22.282
5965.125 0.92 -22.383 0.381 66.897 0.381 66.897 0.92 -22.383
5990.083 0.919 -22.484 0.382 66.793 0.382 66.793 0.919 -22.484
6015.042 0.918 -22.585 0.384 66.688 0.384 66.688 0.918 -22.585
6040 0.918 -22.686 0.386 66.583 0.386 66.583 0.918 -22.686
6064.958 0.917 -22.787 0.387 66.478 0.387 66.478 0.917 -22.787
6089.917 0.916 -22.889 0.389 66.373 0.389 66.373 0.916 -22.889
6114.875 0.916 -22.99 0.391 66.268 0.391 66.268 0.916 -22.99
6139.833 0.915 -23.092 0.392 66.162 0.392 66.162 0.915 -23.092
6164.792 0.914 -23.193 0.394 66.057 0.394 66.057 0.914 -23.193
6189.75 0.913 -23.295 0.395 65.952 0.395 65.952 0.913 -23.295
6214.708 0.913 -23.397 0.397 65.846 0.397 65.846 0.913 -23.397
6239.667 0.912 -23.499 0.399 65.74 0.399 65.74 0.912 -23.499
6264.625 0.911 -23.601 0.4 65.635 0.4 65.635 0.911 -23.601
6289.583 0.91 -23.703 0.402 65.529 0.402 65.529 0.91 -23.703
6314.542 0.909 -23.805 0.404 65.423 0.404 65.423 0.909 -23.805
6339.5 0.909 -23.907 0.405 65.317 0.405 65.317 0.909 -23.907
6364.458 0.908 -24.01 0.407 65.211 0.407 65.211 0.908 -24.01
6389.417 0.907 -24.112 0.409 65.104 0.409 65.104 0.907 -24.112
6414.375 0.906 -24.215 0.41 64.998 0.41 64.998 0.906 -24.215
6439.333 0.906 -24.317 0.412 64.892 0.412 64.892 0.906 -24.317
6464.292 0.905 -24.42 0.413 64.785 0.413 64.785 0.905 -24.42
6489.25 0.904 -24.523 0.415 64.678 0.415 64.678 0.904 -24.523
6514.208 0.903 -24.626 0.417 64.572 0.417 64.572 0.903 -24.626
6539.167 0.902 -24.729 0.418 64.465 0.418 64.465 0.902 -24.729
6564.125 0.902 -24.832 0.42 64.358 0.42 64.358 0.902 -24.832
6589.083 0.901 -24.935 0.422 64.251 0.422 64.251 0.901 -24.935
6614.042 0.9 -25.038 0.423 64.144 0.423 64.144 0.9 -25.038
6639 0.899 -25.142 0.425 64.036 0.425 64.036 0.899 -25.142
6663.958 0.898 -25.245 0.427 63.929 0.427 63.929 0.898 -25.245
6688.917 0.898 -25.349 0.428 63.821 0.428 63.821 0.898 -25.349
6713.875 0.897 -25.452 0.43 63.714 0.43 63.714 0.897 -25.452
6738.833 0.896 -25.556 0.431 63.606 0.431 63.606 0.896 -25.556
6763.792 0.895 -25.66 0.433 63.498 0.433 63.498 0.895 -25.66
6788.75 0.894 -25.764 0.435 63.39 0.435 63.39 0.894 -25.764
6813.708 0.893 -25.868 0.436 63.282 0.436 63.282 0.893 -25.868
6838.667 0.892 -25.972 0.438 63.174 0.438 63.174 0.892 -25.972
6863.625 0.892 -26.076 0.44 63.066 0.44 63.066 0.892 -26.076
6888.583 0.891 -26.18 0.441 62.958 0.441 62.958 0.891 -26.18
6913.542 0.89 -26.285 0.443 62.849 0.443 62.849 0.89 -26.285
6938.5 0.889 -26.389 0.445 62.741 0.445 62.741 0.889 -26.389
6963.458 0.888 -26.494 0.446 62.632 0.446 62.632 0.888 -26.494
6988.417 0.887 -26.599 0.448 62.523 0.448 62.523 0.887 -26.599
7013.375 0.886 -26.703 0.449 62.415 0.449 62.415 0.886 -26.703
7038.333 0.886 -26.808 0.451 62.306 0.451 62.306 0.886 -26.808
7063.292 0.885 -26.913 0.453 62.197 0.453 62.197 0.885 -26.913
7088.25 0.884 -27.018 0.454 62.087 0.454 62.087 0.884 -27.018
7113.208 0.883 -27.123 0.456 61.978 0.456 61.978 0.883 -27.123
7138.167 0.882 -27.229 0.458 61.869 0.458 61.869 0.882 -27.229
7163.125 0.881 -27.334 0.459 61.759 0.459 61.759 0.881 -27.334
7188.083 0.88 -27.44 0.461 61.65 0.461 61.65 0.88 -27.44
7213.042 0.879 -27.545 0.463 61.54 0.463 61.54 0.879 -27.545
7238 0.878 -27.651 0.464 61.43 0.464 61.43 0.878 -27.651
7262.958 0.877 -27.756 0.466 61.32 0.466 61.32 0.877 -27.756
7287.917 0.877 -27.862 0.467 61.21 0.467 61.21 0.877 -27.862
7312.875 0.876 -27.968 0.469 61.1 0.469 61.1 0.876 -27.968
7337.833 0.875 -28.074 0.471 60.99 0.471 60.99 0.875 -28.074
7362.792 0.874 -28.18 0.472 60.879 0.472 60.879 0.874 -28.18
7387.75 0.873 -28.287 0.474 60.769 0.474 60.769 0.873 -28.287
7412.708 0.872 -28.393 0.476 60.658 0.476 60.658 0.872 -28.393
7437.667 0.871 -28.499 0.477 60.547 0.477 60.547 0.871 -28.499
7462.625 0.87 -28.606 0.479 60.437 0.479 60.437 0.87 -28.606
7487.583 0.869 -28.712 0.48 60.326 0.48 60.326 0.869 -28.712
7512.542 0.868 -28.819 0.482 60.215 0.482 60.215 0.868 -28.819
7537.5 0.867 -28.926 0.484 60.104 0.484 60.104 0.867 -28.926
7562.458 0.866 -29.033 0.485 59.992 0.485 59.992 0.866 -29.033
7587.417 0.865 -29.14 0.487 59.881 0.487 59.881 0.865 -29.14
7612.375 0.864 -29.247 0.489 59.769 0.489 59.769 0.864 -29.247
7637.333 0.863 -29.354 0.49 59.658 0.49 59.658 0.863 -29.354
7662.292 0.862 -29.461 0.492 59.546 0.492 59.546 0.862 -29.461
7687.25 0.861 -29.569 0.494 59.434 0.494 59.434 0.861 -29.569
7712.208 0.86 -29.676 0.495 59.322 0.495 59.322 0.86 -29.676
7737.167 0.859 -29.784 0.497 59.21 0.497 59.21 0.859 -29.784
7762.125 0.858 -29.891 0.498 59.098 0.498 59.098 0.858 -29.891
7787.083 0.857 -29.999 0.5 58.986 0.5 58.986 0.857 -29.999
7812.042 0.856 -30.107 0.502 58.874 0.502 58.874 0.856 -30.107
7837 0.855 -30.215 0.503 58.761 0.503 58.761 0.855 -30.215
7861.958 0.854 -30.323 0.505 58.649 0.505 58.649 0.854 -30.323
7886.917 0.853 -30.431 0.507 58.536 0.507 58.536 0.853 -30.431
7911.875 0.852 -30.539 0.508 58.423 0.508 58.423 0.852 -30.539
7936.833 0.851 -30.648 0.51 58.31 0.51 58.31 0.851 -30.648
7961.792 0.85 -30.756 0.511 58.197 0.511 58.197 0.85 -30.756
7986.75 0.849 -30.865 0.513 58.084 0.513 58.084 0.849 -30.865
8011.708 0.848 -30.973 0.515 57.971 0.515 57.971 0.848 -30.973
8036.667 0.847 -31.082 0.516 57.857 0.516 57.857 0.847 -31.082
8061.625 0.846 -31.191 0.518 57.744 0.518 57.744 0.846 -31.191
8086.583 0.845 -31.3 0.52 57.63 0.52 57.63 0.845 -31.3
8111.542 0.844 -31.409 0.521 57.516 0.521 57.516 0.844 -31.409
8136.5 0.843 -31.518 0.523 57.402 0.523 57.402 0.843 -31.518
8161.458 0.842 -31.627 0.524 57.288 0.524 57.288 0.842 -31.627
8186.417 0.84 -31.737 0.526 57.174 0.526 57.174 0.84 -31.737
8211.375 0.839 -31.846 0.528 57.06 0.528 57.06 0.839 -31.846
8236.333 0.838 -31.956 0.529 56.946 0.529 56.946 0.838 -31.956
