# MHZ S MA R 50

50 0.994 -6.453 0.112 83.532 0.112 83.532 0.994 -6.453
74.958 0.986 -9.625 0.167 80.353 0.167 80.353 0.986 -9.625
99.917 0.975 -12.74 0.221 77.231 0.221 77.231 0.975 -12.74
124.875 0.962 -15.782 0.272 74.182 0.272 74.182 0.962 -15.782
149.833 0.947 -18.737 0.321 71.219 0.321 71.219 0.947 -18.737
174.792 0.929 -21.595 0.368 68.354 0.368 68.354 0.929 -21.595
199.75 0.911 -24.348 0.412 65.594 0.412 65.594 0.911 -24.348
224.708 0.891 -26.988 0.454 62.946 0.454 62.946 0.891 -26.988
249.667 0.87 -29.514 0.493 60.413 0.493 60.413 0.87 -29.514
274.625 0.848 -31.923 0.529 57.997 0.529 57.997 0.848 -31.923
299.583 0.826 -34.215 0.562 55.697 0.562 55.697 0.826 -34.215
324.542 0.804 -36.393 0.593 53.512 0.593 53.512 0.804 -36.393
349.5 0.782 -38.459 0.622 51.438 0.622 51.438 0.782 -38.459
374.458 0.76 -40.418 0.648 49.473 0.648 49.473 0.76 -40.418
399.417 0.739 -42.272 0.673 47.611 0.673 47.611 0.739 -42.272
424.375 0.718 -44.027 0.695 45.849 0.695 45.849 0.718 -44.027
449.333 0.697 -45.688 0.716 44.18 0.716 44.18 0.697 -45.688
474.292 0.677 -47.26 0.734 42.601 0.734 42.601 0.677 -47.26
499.25 0.657 -48.748 0.752 41.106 0.752 41.106 0.657 -48.748
524.208 0.639 -50.156 0.768 39.69 0.768 39.69 0.639 -50.156
549.167 0.62 -51.49 0.783 38.348 0.783 38.348 0.62 -51.49
574.125 0.603 -52.754 0.796 37.076 0.796 37.076 0.603 -52.754
599.083 0.586 -53.953 0.809 35.87 0.809 35.87 0.586 -53.953
624.042 0.57 -55.09 0.82 34.725 0.82 34.725 0.57 -55.09
649 0.554 -56.17 0.831 33.638 0.831 33.638 0.554 -56.17
673.958 0.539 -57.195 0.841 32.604 0.841 32.604 0.539 -57.195
698.917 0.524 -58.171 0.85 31.621 0.85 31.621 0.524 -58.171
723.875 0.51 -59.099 0.858 30.685 0.858 30.685 0.51 -59.099
748.833 0.497 -59.984 0.866 29.793 0.866 29.793 0.497 -59.984
773.792 0.484 -60.826 0.873 28.942 0.873 28.942 0.484 -60.826
798.75 0.471 -61.63 0.88 28.13 0.88 28.13 0.471 -61.63
823.708 0.459 -62.398 0.886 27.354 0.886 27.354 0.459 -62.398
848.667 0.448 -63.132 0.892 26.613 0.892 26.613 0.448 -63.132
873.625 0.437 -63.833 0.898 25.903 0.898 25.903 0.437 -63.833
898.583 0.426 -64.505 0.903 25.223 0.903 25.223 0.426 -64.505
923.542 0.416 -65.148 0.907 24.572 0.907 24.572 0.416 -65.148
948.5 0.406 -65.764 0.912 23.947 0.912 23.947 0.406 -65.764
973.458 0.396 -66.356 0.916 23.348 0.916 23.348 0.396 -66.356
998.417 0.387 -66.923 0.92 22.771 0.92 22.771 0.387 -66.923
1023.375 0.378 -67.469 0.924 22.218 0.924 22.218 0.378 -67.469
1048.333 0.37 -67.993 0.927 21.685 0.927 21.685 0.37 -67.993
1073.292 0.361 -68.498 0.93 21.171 0.93 21.171 0.361 -68.498
1098.25 0.353 -68.984 0.933 20.677 0.933 20.677 0.353 -68.984
1123.208 0.345 -69.452 0.936 20.2 0.936 20.2 0.345 -69.452
1148.167 0.338 -69.903 0.939 19.74 0.939 19.74 0.338 -69.903
1173.125 0.33 -70.338 0.942 19.296 0.942 19.296 0.33 -70.338
1198.083 0.323 -70.758 0.944 18.867 0.944 18.867 0.323 -70.758
1223.042 0.317 -71.164 0.946 18.453 0.946 18.453 0.317 -71.164
1248 0.31 -71.556 0.949 18.051 0.949 18.051 0.31 -71.556
1272.958 0.303 -71.935 0.951 17.663 0.951 17.663 0.303 -71.935
1297.917 0.297 -72.301 0.953 17.287 0.953 17.287 0.297 -72.301
1322.875 0.291 -72.656 0.955 16.923 0.955 16.923 0.291 -72.656
1347.833 0.285 -73 0.956 16.569 0.956 16.569 0.285 -73
1372.792 0.279 -73.333 0.958 16.227 0.958 16.227 0.279 -73.333
1397.75 0.274 -73.656 0.96 15.894 0.96 15.894 0.274 -73.656
1422.708 0.268 -73.97 0.961 15.571 0.961 15.571 0.268 -73.97
1447.667 0.263 -74.274 0.963 15.257 0.963 15.257 0.263 -74.274
1472.625 0.258 -74.569 0.964 14.952 0.964 14.952 0.258 -74.569
1497.583 0.253 -74.856 0.965 14.655 0.965 14.655 0.253 -74.856
1522.542 0.248 -75.134 0.967 14.366 0.967 14.366 0.248 -75.134
1547.5 0.243 -75.405 0.968 14.085 0.968 14.085 0.243 -75.405
1572.458 0.239 -75.668 0.969 13.811 0.969 13.811 0.239 -75.668
1597.417 0.234 -75.925 0.97 13.544 0.97 13.544 0.234 -75.925
1622.375 0.23 -76.174 0.971 13.284 0.971 13.284 0.23 -76.174
1647.333 0.225 -76.417 0.972 13.03 0.972 13.03 0.225 -76.417
1672.292 0.221 -76.653 0.973 12.782 0.973 12.782 0.221 -76.653
1697.25 0.217 -76.883 0.974 12.541 0.974 12.541 0.217 -76.883
1722.208 0.213 -77.108 0.975 12.305 0.975 12.305 0.213 -77.108
1747.167 0.209 -77.327 0.976 12.074 0.976 12.074 0.209 -77.327
1772.125 0.205 -77.54 0.977 11.849 0.977 11.849 0.205 -77.54
1797.083 0.202 -77.749 0.977 11.629 0.977 11.629 0.202 -77.749
1822.042 0.198 -77.952 0.978 11.414 0.978 11.414 0.198 -77.952
1847 0.194 -78.15 0.979 11.203 0.979 11.203 0.194 -78.15
1871.958 0.191 -78.344 0.979 10.997 0.979 10.997 0.191 -78.344
1896.917 0.187 -78.533 0.98 10.796 0.98 10.796 0.187 -78.533
1921.875 0.184 -78.718 0.981 10.598 0.981 10.598 0.184 -78.718
1946.833 0.181 -78.898 0.981 10.405 0.981 10.405 0.181 -78.898
1971.792 0.177 -79.074 0.982 10.215 0.982 10.215 0.177 -79.074
1996.75 0.174 -79.247 0.983 10.029 0.983 10.029 0.174 -79.247
2021.708 0.171 -79.415 0.983 9.847 0.983 9.847 0.171 -79.415
2046.667 0.168 -79.58 0.984 9.668 0.984 9.668 0.168 -79.58
2071.625 0.165 -79.741 0.984 9.493 0.984 9.493 0.165 -79.741
2096.583 0.162 -79.899 0.985 9.321 0.985 9.321 0.162 -79.899
2121.542 0.159 -80.053 0.985 9.152 0.985 9.152 0.159 -80.053
2146.5 0.156 -80.204 0.986 8.986 0.986 8.986 0.156 -80.204
2171.458 0.153 -80.352 0.986 8.823 0.986 8.823 0.153 -80.352
2196.417 0.151 -80.496 0.986 8.663 0.986 8.663 0.151 -80.496
2221.375 0.148 -80.638 0.987 8.506 0.987 8.506 0.148 -80.638
2246.333 0.145 -80.776 0.987 8.351 0.987 8.351 0.145 -80.776
2271.292 0.143 -80.912 0.988 8.199 0.988 8.199 0.143 -80.912
2296.25 0.14 -81.045 0.988 8.05 0.988 8.05 0.14 -81.045
2321.208 0.138 -81.175 0.988 7.903 0.988 7.903 0.138 -81.175
2346.167 0.135 -81.302 0.989 7.758 0.989 7.758 0.135 -81.302
2371.125 0.133 -81.426 0.989 7.616 0.989 7.616 0.133 -81.426
2396.083 0.13 -81.548 0.989 7.476 0.989 7.476 0.13 -81.548
2421.042 0.128 -81.668 0.99 7.338 0.99 7.338 0.128 -81.668
2446 0.125 -81.785 0.99 7.202 0.99 7.202 0.125 -81.785
2470.958 0.123 -81.899 0.99 7.068 0.99 7.068 0.123 -81.899
2495.917 0.121 -82.011 0.99 6.936 0.99 6.936 0.121 -82.011
2520.875 0.119 -82.121 0.991 6.806 0.991 6.806 0.119 -82.121
2545.833 0.116 -82.228 0.991 6.678 0.991 6.678 0.116 -82.228
2570.792 0.114 -82.333 0.991 6.552 0.991 6.552 0.114 -82.333
2595.75 0.112 -82.436 0.991 6.427 0.991 6.427 0.112 -82.436
2620.708 0.11 -82.536 0.992 6.305 0.992 6.305 0.11 -82.536
2645.667 0.108 -82.634 0.992 6.184 0.992 6.184 0.108 -82.634
2670.625 0.106 -82.73 0.992 6.064 0.992 6.064 0.106 -82.73
2695.583 0.104 -82.824 0.992 5.946 0.992 5.946 0.104 -82.824
2720.542 0.102 -82.916 0.993 5.83 0.993 5.83 0.102 -82.916
2745.5 0.1 -83.005 0.993 5.715 0.993 5.715 0.1 -83.005
2770.458 0.098 -83.093 0.993 5.602 0.993 5.602 0.098 -83.093
2795.417 0.096 -83.178 0.993 5.49 0.993 5.49 0.096 -83.178
2820.375 0.094 -83.261 0.993 5.379 0.993 5.379 0.094 -83.261
2845.333 0.092 -83.342 0.994 5.27 0.994 5.27 0.092 -83.342
2870.292 0.09 -83.421 0.994 5.162 0.994 5.162 0.09 -83.421
2895.25 0.088 -83.497 0.994 5.056 0.994 5.056 0.088 -83.497
2920.208 0.086 -83.572 0.994 4.95 0.994 4.95 0.086 -83.572
2945.167 0.085 -83.644 0.994 4.846 0.994 4.846 0.085 -83.644
2970.125 0.083 -83.714 0.994 4.743 0.994 4.743 0.083 -83.714
2995.083 0.081 -83.782 0.994 4.641 0.994 4.641 0.081 -83.782
3020.042 0.079 -83.847 0.995 4.541 0.995 4.541 0.079 -83.847
3045 0.077 -83.91 0.995 4.441 0.995 4.441 0.077 -83.91
3069.958 0.076 -83.971 0.995 4.343 0.995 4.343 0.076 -83.971
3094.917 0.074 -84.03 0.995 4.245 0.995 4.245 0.074 -84.03
3119.875 0.072 -84.086 0.995 4.149 0.995 4.149 0.072 -84.086
3144.833 0.071 -84.14 0.995 4.054 0.995 4.054 0.071 -84.14
3169.792 0.069 -84.191 0.995 3.959 0.995 3.959 0.069 -84.191
3194.75 0.067 -84.24 0.995 3.866 0.995 3.866 0.067 -84.24
3219.708 0.066 -84.286 0.996 3.773 0.996 3.773 0.066 -84.286
3244.667 0.064 -84.329 0.996 3.682 0.996 3.682 0.064 -84.329
3269.625 0.063 -84.369 0.996 3.591 0.996 3.591 0.063 -84.369
3294.583 0.061 -84.407 0.996 3.501 0.996 3.501 0.061 -84.407
3319.542 0.06 -84.441 0.996 3.412 0.996 3.412 0.06 -84.441
3344.5 0.058 -84.472 0.996 3.324 0.996 3.324 0.058 -84.472
3369.458 0.057 -84.5 0.996 3.237 0.996 3.237 0.057 -84.5
3394.417 0.055 -84.524 0.996 3.151 0.996 3.151 0.055 -84.524
3419.375 0.054 -84.545 0.996 3.065 0.996 3.065 0.054 -84.545
3444.333 0.052 -84.561 0.996 2.98 0.996 2.98 0.052 -84.561
3469.292 0.051 -84.574 0.996 2.896 0.996 2.896 0.051 -84.574
3494.25 0.049 -84.582 0.997 2.813 0.997 2.813 0.049 -84.582
3519.208 0.048 -84.586 0.997 2.73 0.997 2.73 0.048 -84.586
3544.167 0.046 -84.585 0.997 2.648 0.997 2.648 0.046 -84.585
3569.125 0.045 -84.579 0.997 2.567 0.997 2.567 0.045 -84.579
3594.083 0.043 -84.567 0.997 2.486 0.997 2.486 0.043 -84.567
3619.042 0.042 -84.549 0.997 2.406 0.997 2.406 0.042 -84.549
3644 0.041 -84.525 0.997 2.327 0.997 2.327 0.041 -84.525
3668.958 0.039 -84.493 0.997 2.248 0.997 2.248 0.039 -84.493
3693.917 0.038 -84.454 0.997 2.17 0.997 2.17 0.038 -84.454
3718.875 0.037 -84.407 0.997 2.093 0.997 2.093 0.037 -84.407
3743.833 0.035 -84.351 0.997 2.016 0.997 2.016 0.035 -84.351
3768.792 0.034 -84.285 0.997 1.94 0.997 1.94 0.034 -84.285
3793.75 0.033 -84.208 0.997 1.865 0.997 1.865 0.033 -84.208
3818.708 0.031 -84.118 0.997 1.79 0.997 1.79 0.031 -84.118
3843.667 0.03 -84.016 0.997 1.715 0.997 1.715 0.03 -84.016
3868.625 0.029 -83.898 0.997 1.641 0.997 1.641 0.029 -83.898
3893.583 0.027 -83.763 0.997 1.568 0.997 1.568 0.027 -83.763
3918.542 0.026 -83.61 0.997 1.495 0.997 1.495 0.026 -83.61
3943.5 0.025 -83.434 0.997 1.423 0.997 1.423 0.025 -83.434
3968.458 0.024 -83.234 0.997 1.351 0.997 1.351 0.024 -83.234
3993.417 0.022 -83.006 0.998 1.279 0.998 1.279 0.022 -83.006
4018.375 0.021 -82.744 0.998 1.209 0.998 1.209 0.021 -82.744
4043.333 0.02 -82.443 0.998 1.138 0.998 1.138 0.02 -82.443
4068.292 0.019 -82.097 0.998 1.068 0.998 1.068 0.019 -82.097
4093.25 0.018 -81.697 0.998 0.999 0.998 0.999 0.018 -81.697
4118.208 0.016 -81.23 0.998 0.93 0.998 0.93 0.016 -81.23
4143.167 0.015 -80.684 0.998 0.862 0.998 0.862 0.015 -80.684
4168.125 0.014 -80.039 0.998 0.793 0.998 0.793 0.014 -80.039
4193.083 0.013 -79.268 0.998 0.726 0.998 0.726 0.013 -79.268
4218.042 0.012 -78.338 0.998 0.659 0.998 0.659 0.012 -78.338
4243 0.011 -77.198 0.998 0.592 0.998 0.592 0.011 -77.198
4267.958 9.439e-3 -75.777 0.998 0.525 0.998 0.525 9.439e-3 -75.777
4292.917 8.325e-3 -73.966 0.998 0.459 0.998 0.459 8.325e-3 -73.966
4317.875 7.229e-3 -71.595 0.998 0.394 0.998 0.394 7.229e-3 -71.595
4342.833 6.157e-3 -68.384 0.998 0.329 0.998 0.329 6.157e-3 -68.384
4367.792 5.119e-3 -63.848 0.998 0.264 0.998 0.264 5.119e-3 -63.848
4392.75 4.137e-3 -57.096 0.998 0.199 0.998 0.199 4.137e-3 -57.096
4417.708 3.253e-3 -46.456 0.998 0.135 0.998 0.135 3.253e-3 -46.456
4442.667 2.562e-3 -29.168 0.998 0.072 0.998 0.072 2.562e-3 -29.168
4467.625 2.24e-3 -3.723 0.998 8.352e-3 0.998 8.352e-3 2.24e-3 -3.723
4492.583 2.43e-3 23.048 0.998 -0.055 0.998 -0.055 2.43e-3 23.048
4517.542 3.031e-3 42.363 0.998 -0.117 0.998 -0.117 3.031e-3 42.363
4542.5 3.849e-3 54.324 0.998 -0.18 0.998 -0.18 3.849e-3 54.324
4567.458 4.771e-3 61.824 0.998 -0.242 0.998 -0.242 4.771e-3 61.824
4592.417 5.744e-3 66.795 0.998 -0.303 0.998 -0.303 5.744e-3 66.795
4617.375 6.742e-3 70.274 0.998 -0.364 0.998 -0.364 6.742e-3 70.274
4642.333 7.754e-3 72.822 0.998 -0.425 0.998 -0.425 7.754e-3 72.822
4667.292 8.773e-3 74.755 0.998 -0.486 0.998 -0.486 8.773e-3 74.755
4692.25 9.796e-3 76.264 0.998 -0.546 0.998 -0.546 9.796e-3 76.264
4717.208 0.011 77.471 0.998 -0.607 0.998 -0.607 0.011 77.471
4742.167 0.012 78.453 0.998 -0.666 0.998 -0.666 0.012 78.453
4767.125 0.013 79.267 0.998 -0.726 0.998 -0.726 0.013 79.267
4792.083 0.014 79.948 0.998 -0.785 0.998 -0.785 0.014 79.948
4817.042 0.015 80.526 0.998 -0.844 0.998 -0.844 0.015 80.526
4842 0.016 81.02 0.998 -0.902 0.998 -0.902 0.016 81.02
4866.958 0.017 81.446 0.998 -0.961 0.998 -0.961 0.017 81.446
4891.917 0.018 81.816 0.998 -1.019 0.998 -1.019 0.018 81.816
4916.875 0.019 82.139 0.998 -1.076 0.998 -1.076 0.019 82.139
4941.833 0.02 82.423 0.998 -1.134 0.998 -1.134 0.02 82.423
4966.792 0.021 82.673 0.998 -1.191 0.998 -1.191 0.021 82.673
4991.75 0.022 82.894 0.998 -1.248 0.998 -1.248 0.022 82.894
5016.708 0.023 83.091 0.998 -1.305 0.998 -1.305 0.023 83.091
5041.667 0.024 83.265 0.997 -1.361 0.997 -1.361 0.024 83.265
5066.625 0.025 83.421 0.997 -1.418 0.997 -1.418 0.025 83.421
5091.583 0.026 83.56 0.997 -1.473 0.997 -1.473 0.026 83.56
5116.542 0.027 83.685 0.997 -1.529 0.997 -1.529 0.027 83.685
5141.5 0.028 83.796 0.997 -1.585 0.997 -1.585 0.028 83.796
5166.458 0.029 83.896 0.997 -1.64 0.997 -1.64 0.029 83.896
5191.417 0.03 83.985 0.997 -1.695 0.997 -1.695 0.03 83.985
5216.375 0.031 84.066 0.997 -1.75 0.997 -1.75 0.031 84.066
5241.333 0.032 84.137 0.997 -1.804 0.997 -1.804 0.032 84.137
5266.292 0.033 84.201 0.997 -1.859 0.997 -1.859 0.033 84.201
5291.25 0.033 84.258 0.997 -1.913 0.997 -1.913 0.033 84.258
5316.208 0.034 84.309 0.997 -1.967 0.997 -1.967 0.034 84.309
5341.167 0.035 84.354 0.997 -2.02 0.997 -2.02 0.035 84.354
5366.125 0.036 84.394 0.997 -2.074 0.997 -2.074 0.036 84.394
5391.083 0.037 84.429 0.997 -2.127 0.997 -2.127 0.037 84.429
5416.042 0.038 84.46 0.997 -2.18 0.997 -2.18 0.038 84.46
5441 0.039 84.486 0.997 -2.233 0.997 -2.233 0.039 84.486
5465.958 0.04 84.509 0.997 -2.286 0.997 -2.286 0.04 84.509
5490.917 0.041 84.529 0.997 -2.338 0.997 -2.338 0.041 84.529
5515.875 0.042 84.545 0.997 -2.391 0.997 -2.391 0.042 84.545
5540.833 0.043 84.558 0.997 -2.443 0.997 -2.443 0.043 84.558
5565.792 0.044 84.568 0.997 -2.495 0.997 -2.495 0.044 84.568
5590.75 0.044 84.576 0.997 -2.546 0.997 -2.546 0.044 84.576
5615.708 0.045 84.582 0.997 -2.598 0.997 -2.598 0.045 84.582
5640.667 0.046 84.585 0.997 -2.649 0.997 -2.649 0.046 84.585
5665.625 0.047 84.586 0.997 -2.701 0.997 -2.701 0.047 84.586
5690.583 0.048 84.586 0.997 -2.752 0.997 -2.752 0.048 84.586
5715.542 0.049 84.583 0.997 -2.802 0.997 -2.802 0.049 84.583
5740.5 0.05 84.579 0.997 -2.853 0.997 -2.853 0.05 84.579
5765.458 0.051 84.573 0.996 -2.904 0.996 -2.904 0.051 84.573
5790.417 0.052 84.566 0.996 -2.954 0.996 -2.954 0.052 84.566
5815.375 0.052 84.557 0.996 -3.004 0.996 -3.004 0.052 84.557
5840.333 0.053 84.547 0.996 -3.054 0.996 -3.054 0.053 84.547
5865.292 0.054 84.536 0.996 -3.104 0.996 -3.104 0.054 84.536
5890.25 0.055 84.523 0.996 -3.153 0.996 -3.153 0.055 84.523
5915.208 0.056 84.51 0.996 -3.203 0.996 -3.203 0.056 84.51
5940.167 0.057 84.495 0.996 -3.252 0.996 -3.252 0.057 84.495
5965.125 0.058 84.48 0.996 -3.302 0.996 -3.302 0.058 84.48
5990.083 0.058 84.463 0.996 -3.351 0.996 -3.351 0.058 84.463
6015.042 0.059 84.446 0.996 -3.399 0.996 -3.399 0.059 84.446
6040 0.06 84.427 0.996 -3.448 0.996 -3.448 0.06 84.427
6064.958 0.061 84.408 0.996 -3.497 0.996 -3.497 0.061 84.408
6089.917 0.062 84.389 0.996 -3.545 0.996 -3.545 0.062 84.389
6114.875 0.063 84.368 0.996 -3.594 0.996 -3.594 0.063 84.368
6139.833 0.064 84.347 0.996 -3.642 0.996 -3.642 0.064 84.347
6164.792 0.064 84.325 0.996 -3.69 0.996 -3.69 0.064 84.325
6189.75 0.065 84.303 0.996 -3.738 0.996 -3.738 0.065 84.303
6214.708 0.066 84.28 0.996 -3.785 0.996 -3.785 0.066 84.28
6239.667 0.067 84.256 0.996 -3.833 0.996 -3.833 0.067 84.256
6264.625 0.068 84.232 0.995 -3.88 0.995 -3.88 0.068 84.232
6289.583 0.069 84.208 0.995 -3.928 0.995 -3.928 0.069 84.208
6314.542 0.069 84.183 0.995 -3.975 0.995 -3.975 0.069 84.183
6339.5 0.07 84.157 0.995 -4.022 0.995 -4.022 0.07 84.157
6364.458 0.071 84.131 0.995 -4.069 0.995 -4.069 0.071 84.131
6389.417 0.072 84.105 0.995 -4.116 0.995 -4.116 0.072 84.105
6414.375 0.073 84.078 0.995 -4.163 0.995 -4.163 0.073 84.078
6439.333 0.073 84.051 0.995 -4.209 0.995 -4.209 0.073 84.051
6464.292 0.074 84.024 0.995 -4.256 0.995 -4.256 0.074 84.024
6489.25 0.075 83.996 0.995 -4.302 0.995 -4.302 0.075 83.996
6514.208 0.076 83.968 0.995 -4.348 0.995 -4.348 0.076 83.968
6539.167 0.077 83.94 0.995 -4.394 0.995 -4.394 0.077 83.94
6564.125 0.077 83.911 0.995 -4.44 0.995 -4.44 0.077 83.911
6589.083 0.078 83.882 0.995 -4.486 0.995 -4.486 0.078 83.882
6614.042 0.079 83.853 0.995 -4.532 0.995 -4.532 0.079 83.853
6639 0.08 83.823 0.995 -4.578 0.995 -4.578 0.08 83.823
6663.958 0.081 83.794 0.995 -4.623 0.995 -4.623 0.081 83.794
6688.917 0.081 83.764 0.994 -4.668 0.994 -4.668 0.081 83.764
6713.875 0.082 83.733 0.994 -4.714 0.994 -4.714 0.082 83.733
6738.833 0.083 83.703 0.994 -4.759 0.994 -4.759 0.083 83.703
6763.792 0.084 83.673 0.994 -4.804 0.994 -4.804 0.084 83.673
6788.75 0.085 83.642 0.994 -4.849 0.994 -4.849 0.085 83.642
6813.708 0.085 83.611 0.994 -4.894 0.994 -4.894 0.085 83.611
6838.667 0.086 83.58 0.994 -4.939 0.994 -4.939 0.086 83.58
6863.625 0.087 83.548 0.994 -4.983 0.994 -4.983 0.087 83.548
6888.583 0.088 83.517 0.994 -5.028 0.994 -5.028 0.088 83.517
6913.542 0.088 83.485 0.994 -5.072 0.994 -5.072 0.088 83.485
6938.5 0.089 83.453 0.994 -5.117 0.994 -5.117 0.089 83.453
6963.458 0.09 83.421 0.994 -5.161 0.994 -5.161 0.09 83.421
6988.417 0.091 83.389 0.994 -5.205 0.994 -5.205 0.091 83.389
7013.375 0.092 83.357 0.994 -5.249 0.994 -5.249 0.092 83.357
7038.333 0.092 83.325 0.994 -5.293 0.994 -5.293 0.092 83.325
7063.292 0.093 83.292 0.993 -5.337 0.993 -5.337 0.093 83.292
7088.25 0.094 83.26 0.993 -5.381 0.993 -5.381 0.094 83.26
7113.208 0.095 83.227 0.993 -5.424 0.993 -5.424 0.095 83.227
7138.167 0.095 83.194 0.993 -5.468 0.993 -5.468 0.095 83.194
7163.125 0.096 83.162 0.993 -5.511 0.993 -5.511 0.096 83.162
7188.083 0.097 83.129 0.993 -5.555 0.993 -5.555 0.097 83.129
7213.042 0.098 83.095 0.993 -5.598 0.993 -5.598 0.098 83.095
7238 0.098 83.062 0.993 -5.641 0.993 -5.641 0.098 83.062
7262.958 0.099 83.029 0.993 -5.685 0.993 -5.685 0.099 83.029
7287.917 0.1 82.996 0.993 -5.728 0.993 -5.728 0.1 82.996
7312.875 0.101 82.962 0.993 -5.771 0.993 -5.771 0.101 82.962
7337.833 0.101 82.929 0.993 -5.813 0.993 -5.813 0.101 82.929
7362.792 0.102 82.895 0.993 -5.856 0.993 -5.856 0.102 82.895
7387.75 0.103 82.862 0.992 -5.899 0.992 -5.899 0.103 82.862
7412.708 0.104 82.828 0.992 -5.941 0.992 -5.941 0.104 82.828
7437.667 0.104 82.794 0.992 -5.984 0.992 -5.984 0.104 82.794
7462.625 0.105 82.761 0.992 -6.026 0.992 -6.026 0.105 82.761
7487.583 0.106 82.727 0.992 -6.069 0.992 -6.069 0.106 82.727
7512.542 0.106 82.693 0.992 -6.111 0.992 -6.111 0.106 82.693
7537.5 0.107 82.659 0.992 -6.153 0.992 -6.153 0.107 82.659
7562.458 0.108 82.625 0.992 -6.195 0.992 -6.195 0.108 82.625
7587.417 0.109 82.591 0.992 -6.238 0.992 -6.238 0.109 82.591
7612.375 0.109 82.557 0.992 -6.279 0.992 -6.279 0.109 82.557
7637.333 0.11 82.523 0.992 -6.321 0.992 -6.321 0.11 82.523
7662.292 0.111 82.489 0.992 -6.363 0.992 -6.363 0.111 82.489
7687.25 0.112 82.454 0.992 -6.405 0.992 -6.405 0.112 82.454
7712.208 0.112 82.42 0.991 -6.447 0.991 -6.447 0.112 82.42
7737.167 0.113 82.386 0.991 -6.488 0.991 -6.488 0.113 82.386
7762.125 0.114 82.352 0.991 -6.53 0.991 -6.53 0.114 82.352
7787.083 0.114 82.317 0.991 -6.571 0.991 -6.571 0.114 82.317
7812.042 0.115 82.283 0.991 -6.613 0.991 -6.613 0.115 82.283
7837 0.116 82.248 0.991 -6.654 0.991 -6.654 0.116 82.248
7861.958 0.117 82.214 0.991 -6.695 0.991 -6.695 0.117 82.214
7886.917 0.117 82.18 0.991 -6.736 0.991 -6.736 0.117 82.18
7911.875 0.118 82.145 0.991 -6.777 0.991 -6.777 0.118 82.145
7936.833 0.119 82.111 0.991 -6.818 0.991 -6.818 0.119 82.111
7961.792 0.119 82.076 0.991 -6.859 0.991 -6.859 0.119 82.076
7986.75 0.12 82.042 0.991 -6.9 0.991 -6.9 0.12 82.042
8011.708 0.121 82.007 0.99 -6.941 0.99 -6.941 0.121 82.007
8036.667 0.122 81.973 0.99 -6.982 0.99 -6.982 0.122 81.973
8061.625 0.122 81.938 0.99 -7.022 0.99 -7.022 0.122 81.938
8086.583 0.123 81.903 0.99 -7.063 0.99 -7.063 0.123 81.903
8111.542 0.124 81.869 0.99 -7.104 0.99 -7.104 0.124 81.869
8136.5 0.124 81.834 0.99 -7.144 0.99 -7.144 0.124 81.834
8161.458 0.125 81.8 0.99 -7.184 0.99 -7.184 0.125 81.8
8186.417 0.126 81.765 0.99 -7.225 0.99 -7.225 0.126 81.765
8211.375 0.126 81.73 0.99 -7.265 0.99 -7.265 0.126 81.73
8236.333 0.127 81.696 0.99 -7.305 0.99 -7.305 0.127 81.696
