# MHZ S MA R 50

50 0.997 -4.133 0.072 85.855 0.072 85.855 0.997 -4.133
74.958 0.994 -6.183 0.108 83.799 0.108 83.799 0.994 -6.183
99.917 0.99 -8.218 0.143 81.758 0.143 81.758 0.99 -8.218
124.875 0.984 -10.234 0.178 79.737 0.178 79.737 0.984 -10.234
149.833 0.977 -12.224 0.212 77.741 0.212 77.741 0.977 -12.224
174.792 0.969 -14.187 0.245 75.772 0.245 75.772 0.969 -14.187
199.75 0.96 -16.117 0.278 73.836 0.278 73.836 0.96 -16.117
224.708 0.951 -18.012 0.309 71.935 0.309 71.935 0.951 -18.012
249.667 0.94 -19.869 0.34 70.073 0.34 70.073 0.94 -19.869
274.625 0.929 -21.685 0.37 68.251 0.37 68.251 0.929 -21.685
299.583 0.917 -23.458 0.398 66.472 0.398 66.472 0.917 -23.458
324.542 0.904 -25.187 0.426 64.737 0.426 64.737 0.904 -25.187
349.5 0.891 -26.87 0.452 63.048 0.452 63.048 0.891 -26.87
374.458 0.878 -28.507 0.477 61.406 0.477 61.406 0.878 -28.507
399.417 0.864 -30.096 0.501 59.81 0.501 59.81 0.864 -30.096
424.375 0.85 -31.639 0.525 58.262 0.525 58.262 0.85 -31.639
449.333 0.836 -33.134 0.547 56.761 0.547 56.761 0.836 -33.134
474.292 0.822 -34.583 0.568 55.306 0.568 55.306 0.822 -34.583
499.25 0.808 -35.985 0.588 53.898 0.588 53.898 0.808 -35.985
524.208 0.794 -37.342 0.607 52.535 0.607 52.535 0.794 -37.342
549.167 0.78 -38.654 0.625 51.217 0.625 51.217 0.78 -38.654
574.125 0.765 -39.922 0.642 49.943 0.642 49.943 0.765 -39.922
599.083 0.751 -41.148 0.658 48.711 0.658 48.711 0.751 -41.148
624.042 0.738 -42.332 0.673 47.521 0.673 47.521 0.738 -42.332
649 0.724 -43.476 0.688 46.371 0.688 46.371 0.724 -43.476
673.958 0.71 -44.58 0.702 45.26 0.702 45.26 0.71 -44.58
698.917 0.697 -45.648 0.715 44.187 0.715 44.187 0.697 -45.648
723.875 0.684 -46.678 0.728 43.15 0.728 43.15 0.684 -46.678
748.833 0.671 -47.674 0.739 42.149 0.739 42.149 0.671 -47.674
773.792 0.658 -48.635 0.751 41.181 0.751 41.181 0.658 -48.635
798.75 0.646 -49.564 0.761 40.246 0.761 40.246 0.646 -49.564
823.708 0.634 -50.462 0.771 39.342 0.771 39.342 0.634 -50.462
848.667 0.622 -51.329 0.781 38.469 0.781 38.469 0.622 -51.329
873.625 0.61 -52.168 0.79 37.624 0.79 37.624 0.61 -52.168
898.583 0.599 -52.979 0.798 36.807 0.798 36.807 0.599 -52.979
923.542 0.588 -53.763 0.807 36.017 0.807 36.017 0.588 -53.763
948.5 0.577 -54.521 0.814 35.252 0.814 35.252 0.577 -54.521
973.458 0.567 -55.255 0.822 34.512 0.822 34.512 0.567 -55.255
998.417 0.556 -55.965 0.829 33.795 0.829 33.795 0.556 -55.965
1023.375 0.546 -56.653 0.835 33.101 0.835 33.101 0.546 -56.653
1048.333 0.536 -57.319 0.842 32.428 0.842 32.428 0.536 -57.319
1073.292 0.527 -57.964 0.848 31.777 0.848 31.777 0.527 -57.964
1098.25 0.517 -58.589 0.853 31.145 0.853 31.145 0.517 -58.589
1123.208 0.508 -59.196 0.859 30.532 0.859 30.532 0.508 -59.196
1148.167 0.499 -59.784 0.864 29.938 0.864 29.938 0.499 -59.784
1173.125 0.49 -60.354 0.869 29.361 0.869 29.361 0.49 -60.354
1198.083 0.482 -60.907 0.874 28.801 0.874 28.801 0.482 -60.907
1223.042 0.473 -61.444 0.878 28.257 0.878 28.257 0.473 -61.444
1248 0.465 -61.966 0.883 27.728 0.883 27.728 0.465 -61.966
1272.958 0.457 -62.473 0.887 27.215 0.887 27.215 0.457 -62.473
1297.917 0.45 -62.965 0.891 26.715 0.891 26.715 0.45 -62.965
1322.875 0.442 -63.444 0.895 26.23 0.895 26.23 0.442 -63.444
1347.833 0.435 -63.91 0.898 25.758 0.898 25.758 0.435 -63.91
1372.792 0.427 -64.362 0.902 25.298 0.902 25.298 0.427 -64.362
1397.75 0.42 -64.803 0.905 24.85 0.905 24.85 0.42 -64.803
1422.708 0.413 -65.232 0.908 24.415 0.908 24.415 0.413 -65.232
1447.667 0.407 -65.649 0.911 23.99 0.911 23.99 0.407 -65.649
1472.625 0.4 -66.056 0.914 23.576 0.914 23.576 0.4 -66.056
1497.583 0.394 -66.452 0.917 23.173 0.917 23.173 0.394 -66.452
1522.542 0.387 -66.838 0.919 22.78 0.919 22.78 0.387 -66.838
1547.5 0.381 -67.214 0.922 22.396 0.922 22.396 0.381 -67.214
1572.458 0.375 -67.581 0.924 22.022 0.924 22.022 0.375 -67.581
1597.417 0.369 -67.939 0.927 21.656 0.927 21.656 0.369 -67.939
1622.375 0.363 -68.289 0.929 21.299 0.929 21.299 0.363 -68.289
1647.333 0.358 -68.63 0.931 20.951 0.931 20.951 0.358 -68.63
1672.292 0.352 -68.963 0.933 20.611 0.933 20.611 0.352 -68.963
1697.25 0.347 -69.288 0.935 20.278 0.935 20.278 0.347 -69.288
1722.208 0.341 -69.605 0.937 19.953 0.937 19.953 0.341 -69.605
1747.167 0.336 -69.915 0.939 19.635 0.939 19.635 0.336 -69.915
1772.125 0.331 -70.218 0.941 19.324 0.941 19.324 0.331 -70.218
1797.083 0.326 -70.515 0.943 19.019 0.943 19.019 0.326 -70.515
1822.042 0.321 -70.805 0.944 18.721 0.944 18.721 0.321 -70.805
1847 0.316 -71.088 0.946 18.43 0.946 18.43 0.316 -71.088
1871.958 0.311 -71.366 0.948 18.144 0.948 18.144 0.311 -71.366
1896.917 0.307 -71.637 0.949 17.865 0.949 17.865 0.307 -71.637
1921.875 0.302 -71.903 0.951 17.591 0.951 17.591 0.302 -71.903
1946.833 0.298 -72.163 0.952 17.322 0.952 17.322 0.298 -72.163
1971.792 0.293 -72.417 0.953 17.059 0.953 17.059 0.293 -72.417
1996.75 0.289 -72.667 0.955 16.801 0.955 16.801 0.289 -72.667
2021.708 0.285 -72.911 0.956 16.548 0.956 16.548 0.285 -72.911
2046.667 0.281 -73.151 0.957 16.3 0.957 16.3 0.281 -73.151
2071.625 0.277 -73.385 0.958 16.057 0.958 16.057 0.277 -73.385
2096.583 0.273 -73.615 0.959 15.818 0.959 15.818 0.273 -73.615
2121.542 0.269 -73.841 0.961 15.583 0.961 15.583 0.269 -73.841
2146.5 0.265 -74.062 0.962 15.353 0.962 15.353 0.265 -74.062
2171.458 0.261 -74.279 0.963 15.127 0.963 15.127 0.261 -74.279
2196.417 0.257 -74.492 0.964 14.905 0.964 14.905 0.257 -74.492
2221.375 0.254 -74.701 0.965 14.686 0.965 14.686 0.254 -74.701
2246.333 0.25 -74.906 0.966 14.472 0.966 14.472 0.25 -74.906
2271.292 0.246 -75.107 0.966 14.261 0.966 14.261 0.246 -75.107
2296.25 0.243 -75.305 0.967 14.054 0.967 14.054 0.243 -75.305
2321.208 0.239 -75.499 0.968 13.85 0.968 13.85 0.239 -75.499
2346.167 0.236 -75.689 0.969 13.65 0.969 13.65 0.236 -75.689
2371.125 0.233 -75.876 0.97 13.452 0.97 13.452 0.233 -75.876
2396.083 0.229 -76.06 0.971 13.258 0.971 13.258 0.229 -76.06
2421.042 0.226 -76.241 0.971 13.067 0.971 13.067 0.226 -76.241
2446 0.223 -76.418 0.972 12.88 0.972 12.88 0.223 -76.418
2470.958 0.22 -76.593 0.973 12.695 0.973 12.695 0.22 -76.593
2495.917 0.217 -76.764 0.974 12.512 0.974 12.512 0.217 -76.764
2520.875 0.214 -76.933 0.974 12.333 0.974 12.333 0.214 -76.933
2545.833 0.211 -77.098 0.975 12.156 0.975 12.156 0.211 -77.098
2570.792 0.208 -77.261 0.975 11.982 0.975 11.982 0.208 -77.261
2595.75 0.205 -77.421 0.976 11.811 0.976 11.811 0.205 -77.421
2620.708 0.202 -77.579 0.977 11.642 0.977 11.642 0.202 -77.579
2645.667 0.199 -77.734 0.977 11.475 0.977 11.475 0.199 -77.734
2670.625 0.196 -77.886 0.978 11.311 0.978 11.311 0.196 -77.886
2695.583 0.193 -78.036 0.978 11.149 0.978 11.149 0.193 -78.036
2720.542 0.191 -78.184 0.979 10.989 0.979 10.989 0.191 -78.184
2745.5 0.188 -78.329 0.979 10.832 0.979 10.832 0.188 -78.329
2770.458 0.185 -78.472 0.98 10.676 0.98 10.676 0.185 -78.472
2795.417 0.183 -78.613 0.98 10.523 0.98 10.523 0.183 -78.613
2820.375 0.18 -78.751 0.981 10.372 0.981 10.372 0.18 -78.751
2845.333 0.177 -78.887 0.981 10.223 0.981 10.223 0.177 -78.887
2870.292 0.175 -79.021 0.982 10.075 0.982 10.075 0.175 -79.021
2895.25 0.172 -79.153 0.982 9.93 0.982 9.93 0.172 -79.153
2920.208 0.17 -79.283 0.983 9.786 0.983 9.786 0.17 -79.283
2945.167 0.168 -79.411 0.983 9.644 0.983 9.644 0.168 -79.411
2970.125 0.165 -79.537 0.984 9.504 0.984 9.504 0.165 -79.537
2995.083 0.163 -79.661 0.984 9.366 0.984 9.366 0.163 -79.661
3020.042 0.16 -79.783 0.984 9.229 0.984 9.229 0.16 -79.783
3045 0.158 -79.903 0.985 9.094 0.985 9.094 0.158 -79.903
3069.958 0.156 -80.021 0.985 8.961 0.985 8.961 0.156 -80.021
3094.917 0.154 -80.138 0.985 8.829 0.985 8.829 0.154 -80.138
3119.875 0.151 -80.252 0.986 8.698 0.986 8.698 0.151 -80.252
3144.833 0.149 -80.365 0.986 8.57 0.986 8.57 0.149 -80.365
3169.792 0.147 -80.476 0.986 8.442 0.986 8.442 0.147 -80.476
3194.75 0.145 -80.585 0.987 8.316 0.987 8.316 0.145 -80.585
3219.708 0.143 -80.693 0.987 8.192 0.987 8.192 0.143 -80.693
3244.667 0.14 -80.799 0.987 8.069 0.987 8.069 0.14 -80.799
3269.625 0.138 -80.903 0.988 7.947 0.988 7.947 0.138 -80.903
3294.583 0.136 -81.006 0.988 7.826 0.988 7.826 0.136 -81.006
3319.542 0.134 -81.107 0.988 7.707 0.988 7.707 0.134 -81.107
3344.5 0.132 -81.206 0.988 7.589 0.988 7.589 0.132 -81.206
3369.458 0.13 -81.304 0.989 7.472 0.989 7.472 0.13 -81.304
3394.417 0.128 -81.4 0.989 7.357 0.989 7.357 0.128 -81.4
3419.375 0.126 -81.495 0.989 7.242 0.989 7.242 0.126 -81.495
3444.333 0.124 -81.588 0.989 7.129 0.989 7.129 0.124 -81.588
3469.292 0.122 -81.679 0.99 7.017 0.99 7.017 0.122 -81.679
3494.25 0.12 -81.769 0.99 6.906 0.99 6.906 0.12 -81.769
3519.208 0.118 -81.857 0.99 6.796 0.99 6.796 0.118 -81.857
3544.167 0.116 -81.944 0.99 6.687 0.99 6.687 0.116 -81.944
3569.125 0.115 -82.029 0.991 6.579 0.991 6.579 0.115 -82.029
3594.083 0.113 -82.113 0.991 6.472 0.991 6.472 0.113 -82.113
3619.042 0.111 -82.195 0.991 6.367 0.991 6.367 0.111 -82.195
3644 0.109 -82.275 0.991 6.262 0.991 6.262 0.109 -82.275
3668.958 0.107 -82.354 0.991 6.158 0.991 6.158 0.107 -82.354
3693.917 0.106 -82.432 0.992 6.055 0.992 6.055 0.106 -82.432
3718.875 0.104 -82.507 0.992 5.953 0.992 5.953 0.104 -82.507
3743.833 0.102 -82.582 0.992 5.852 0.992 5.852 0.102 -82.582
3768.792 0.1 -82.654 0.992 5.752 0.992 5.752 0.1 -82.654
3793.75 0.099 -82.725 0.992 5.653 0.992 5.653 0.099 -82.725
3818.708 0.097 -82.795 0.993 5.554 0.993 5.554 0.097 -82.795
3843.667 0.095 -82.863 0.993 5.457 0.993 5.457 0.095 -82.863
3868.625 0.093 -82.929 0.993 5.36 0.993 5.36 0.093 -82.929
3893.583 0.092 -82.994 0.993 5.264 0.993 5.264 0.092 -82.994
3918.542 0.09 -83.057 0.993 5.169 0.993 5.169 0.09 -83.057
3943.5 0.088 -83.118 0.993 5.075 0.993 5.075 0.088 -83.118
3968.458 0.087 -83.177 0.993 4.981 0.993 4.981 0.087 -83.177
3993.417 0.085 -83.235 0.994 4.888 0.994 4.888 0.085 -83.235
4018.375 0.084 -83.291 0.994 4.796 0.994 4.796 0.084 -83.291
4043.333 0.082 -83.345 0.994 4.705 0.994 4.705 0.082 -83.345
4068.292 0.08 -83.397 0.994 4.614 0.994 4.614 0.08 -83.397
4093.25 0.079 -83.447 0.994 4.524 0.994 4.524 0.079 -83.447
4118.208 0.077 -83.496 0.994 4.435 0.994 4.435 0.077 -83.496
4143.167 0.076 -83.542 0.994 4.346 0.994 4.346 0.076 -83.542
4168.125 0.074 -83.586 0.994 4.259 0.994 4.259 0.074 -83.586
4193.083 0.073 -83.628 0.995 4.171 0.995 4.171 0.073 -83.628
4218.042 0.071 -83.668 0.995 4.085 0.995 4.085 0.071 -83.668
4243 0.07 -83.706 0.995 3.999 0.995 3.999 0.07 -83.706
4267.958 0.068 -83.741 0.995 3.913 0.995 3.913 0.068 -83.741
4292.917 0.067 -83.773 0.995 3.829 0.995 3.829 0.067 -83.773
4317.875 0.065 -83.804 0.995 3.745 0.995 3.745 0.065 -83.804
4342.833 0.064 -83.831 0.995 3.661 0.995 3.661 0.064 -83.831
4367.792 0.062 -83.856 0.995 3.578 0.995 3.578 0.062 -83.856
4392.75 0.061 -83.878 0.995 3.496 0.995 3.496 0.061 -83.878
4417.708 0.06 -83.896 0.995 3.414 0.995 3.414 0.06 -83.896
4442.667 0.058 -83.912 0.996 3.333 0.996 3.333 0.058 -83.912
4467.625 0.057 -83.924 0.996 3.252 0.996 3.252 0.057 -83.924
4492.583 0.055 -83.933 0.996 3.172 0.996 3.172 0.055 -83.933
4517.542 0.054 -83.938 0.996 3.092 0.996 3.092 0.054 -83.938
4542.5 0.053 -83.939 0.996 3.013 0.996 3.013 0.053 -83.939
4567.458 0.051 -83.936 0.996 2.934 0.996 2.934 0.051 -83.936
4592.417 0.05 -83.929 0.996 2.856 0.996 2.856 0.05 -83.929
4617.375 0.049 -83.917 0.996 2.779 0.996 2.779 0.049 -83.917
4642.333 0.047 -83.9 0.996 2.702 0.996 2.702 0.047 -83.9
4667.292 0.046 -83.877 0.996 2.625 0.996 2.625 0.046 -83.877
4692.25 0.045 -83.849 0.996 2.549 0.996 2.549 0.045 -83.849
4717.208 0.043 -83.815 0.996 2.473 0.996 2.473 0.043 -83.815
4742.167 0.042 -83.774 0.996 2.398 0.996 2.398 0.042 -83.774
4767.125 0.041 -83.725 0.996 2.323 0.996 2.323 0.041 -83.725
4792.083 0.039 -83.669 0.996 2.249 0.996 2.249 0.039 -83.669
4817.042 0.038 -83.605 0.996 2.175 0.996 2.175 0.038 -83.605
4842 0.037 -83.531 0.997 2.102 0.997 2.102 0.037 -83.531
4866.958 0.036 -83.448 0.997 2.029 0.997 2.029 0.036 -83.448
4891.917 0.034 -83.353 0.997 1.956 0.997 1.956 0.034 -83.353
4916.875 0.033 -83.246 0.997 1.884 0.997 1.884 0.033 -83.246
4941.833 0.032 -83.126 0.997 1.812 0.997 1.812 0.032 -83.126
4966.792 0.031 -82.99 0.997 1.741 0.997 1.741 0.031 -82.99
4991.75 0.029 -82.839 0.997 1.67 0.997 1.67 0.029 -82.839
5016.708 0.028 -82.668 0.997 1.599 0.997 1.599 0.028 -82.668
5041.667 0.027 -82.477 0.997 1.529 0.997 1.529 0.027 -82.477
5066.625 0.026 -82.262 0.997 1.459 0.997 1.459 0.026 -82.262
5091.583 0.024 -82.02 0.997 1.389 0.997 1.389 0.024 -82.02
5116.542 0.023 -81.747 0.997 1.32 0.997 1.32 0.023 -81.747
5141.5 0.022 -81.439 0.997 1.252 0.997 1.252 0.022 -81.439
5166.458 0.021 -81.09 0.997 1.183 0.997 1.183 0.021 -81.09
5191.417 0.02 -80.693 0.997 1.115 0.997 1.115 0.02 -80.693
5216.375 0.018 -80.239 0.997 1.048 0.997 1.048 0.018 -80.239
5241.333 0.017 -79.718 0.997 0.98 0.997 0.98 0.017 -79.718
5266.292 0.016 -79.116 0.997 0.913 0.997 0.913 0.016 -79.116
5291.25 0.015 -78.415 0.997 0.847 0.997 0.847 0.015 -78.415
5316.208 0.014 -77.593 0.997 0.78 0.997 0.78 0.014 -77.593
5341.167 0.013 -76.618 0.997 0.714 0.997 0.714 0.013 -76.618
5366.125 0.012 -75.449 0.997 0.649 0.997 0.649 0.012 -75.449
5391.083 0.011 -74.027 0.997 0.583 0.997 0.583 0.011 -74.027
5416.042 9.469e-3 -72.268 0.997 0.518 0.997 0.518 9.469e-3 -72.268
5441 8.397e-3 -70.051 0.997 0.454 0.997 0.454 8.397e-3 -70.051
5465.958 7.346e-3 -67.187 0.997 0.389 0.997 0.389 7.346e-3 -67.187
5490.917 6.326e-3 -63.382 0.997 0.325 0.997 0.325 6.326e-3 -63.382
5515.875 5.35e-3 -58.154 0.997 0.261 0.997 0.261 5.35e-3 -58.154
5540.833 4.444e-3 -50.707 0.997 0.198 0.997 0.198 4.444e-3 -50.707
5565.792 3.654e-3 -39.788 0.997 0.134 0.997 0.134 3.654e-3 -39.788
5590.75 3.067e-3 -23.902 0.997 0.071 0.997 0.071 3.067e-3 -23.902
5615.708 2.806e-3 -3.099 0.997 8.717e-3 0.997 8.717e-3 2.806e-3 -3.099
5640.667 2.955e-3 18.434 0.997 -0.054 0.997 -0.054 2.955e-3 18.434
5665.625 3.455e-3 35.687 0.997 -0.116 0.997 -0.116 3.455e-3 35.687
5690.583 4.18e-3 47.718 0.997 -0.178 0.997 -0.178 4.18e-3 47.718
5715.542 5.029e-3 55.896 0.997 -0.239 0.997 -0.239 5.029e-3 55.896
5740.5 5.948e-3 61.59 0.997 -0.301 0.997 -0.301 5.948e-3 61.59
5765.458 6.906e-3 65.698 0.997 -0.362 0.997 -0.362 6.906e-3 65.698
5790.417 7.888e-3 68.767 0.997 -0.422 0.997 -0.422 7.888e-3 68.767
5815.375 8.883e-3 71.129 0.997 -0.483 0.997 -0.483 8.883e-3 71.129
5840.333 9.888e-3 72.993 0.997 -0.543 0.997 -0.543 9.888e-3 72.993
5865.292 0.011 74.495 0.997 -0.603 0.997 -0.603 0.011 74.495
5890.25 0.012 75.727 0.997 -0.663 0.997 -0.663 0.012 75.727
5915.208 0.013 76.752 0.997 -0.723 0.997 -0.723 0.013 76.752
5940.167 0.014 77.616 0.997 -0.782 0.997 -0.782 0.014 77.616
5965.125 0.015 78.352 0.997 -0.841 0.997 -0.841 0.015 78.352
5990.083 0.016 78.985 0.997 -0.9 0.997 -0.9 0.016 78.985
6015.042 0.017 79.534 0.997 -0.959 0.997 -0.959 0.017 79.534
6040 0.018 80.012 0.997 -1.017 0.997 -1.017 0.018 80.012
6064.958 0.019 80.432 0.997 -1.075 0.997 -1.075 0.019 80.432
6089.917 0.02 80.803 0.997 -1.133 0.997 -1.133 0.02 80.803
6114.875 0.021 81.131 0.997 -1.191 0.997 -1.191 0.021 81.131
6139.833 0.022 81.424 0.997 -1.248 0.997 -1.248 0.022 81.424
6164.792 0.023 81.685 0.997 -1.306 0.997 -1.306 0.023 81.685
6189.75 0.024 81.919 0.997 -1.363 0.997 -1.363 0.024 81.919
6214.708 0.025 82.129 0.997 -1.42 0.997 -1.42 0.025 82.129
6239.667 0.026 82.318 0.997 -1.476 0.997 -1.476 0.026 82.318
6264.625 0.027 82.488 0.997 -1.533 0.997 -1.533 0.027 82.488
6289.583 0.028 82.642 0.997 -1.589 0.997 -1.589 0.028 82.642
6314.542 0.029 82.782 0.997 -1.645 0.997 -1.645 0.029 82.782
6339.5 0.03 82.908 0.997 -1.701 0.997 -1.701 0.03 82.908
6364.458 0.031 83.022 0.997 -1.757 0.997 -1.757 0.031 83.022
6389.417 0.032 83.126 0.997 -1.812 0.997 -1.812 0.032 83.126
6414.375 0.033 83.22 0.997 -1.867 0.997 -1.867 0.033 83.22
6439.333 0.034 83.305 0.997 -1.922 0.997 -1.922 0.034 83.305
6464.292 0.035 83.382 0.997 -1.977 0.997 -1.977 0.035 83.382
6489.25 0.036 83.452 0.997 -2.032 0.997 -2.032 0.036 83.452
6514.208 0.037 83.515 0.997 -2.086 0.997 -2.086 0.037 83.515
6539.167 0.037 83.572 0.997 -2.141 0.997 -2.141 0.037 83.572
6564.125 0.038 83.623 0.996 -2.195 0.996 -2.195 0.038 83.623
6589.083 0.039 83.669 0.996 -2.249 0.996 -2.249 0.039 83.669
6614.042 0.04 83.711 0.996 -2.303 0.996 -2.303 0.04 83.711
6639 0.041 83.748 0.996 -2.356 0.996 -2.356 0.041 83.748
6663.958 0.042 83.781 0.996 -2.41 0.996 -2.41 0.042 83.781
6688.917 0.043 83.81 0.996 -2.463 0.996 -2.463 0.043 83.81
6713.875 0.044 83.835 0.996 -2.516 0.996 -2.516 0.044 83.835
6738.833 0.045 83.857 0.996 -2.569 0.996 -2.569 0.045 83.857
6763.792 0.046 83.876 0.996 -2.622 0.996 -2.622 0.046 83.876
6788.75 0.047 83.892 0.996 -2.675 0.996 -2.675 0.047 83.892
6813.708 0.048 83.906 0.996 -2.727 0.996 -2.727 0.048 83.906
6838.667 0.049 83.917 0.996 -2.779 0.996 -2.779 0.049 83.917
6863.625 0.049 83.926 0.996 -2.832 0.996 -2.832 0.049 83.926
6888.583 0.05 83.932 0.996 -2.884 0.996 -2.884 0.05 83.932
6913.542 0.051 83.936 0.996 -2.935 0.996 -2.935 0.051 83.936
6938.5 0.052 83.939 0.996 -2.987 0.996 -2.987 0.052 83.939
6963.458 0.053 83.939 0.996 -3.039 0.996 -3.039 0.053 83.939
6988.417 0.054 83.938 0.996 -3.09 0.996 -3.09 0.054 83.938
7013.375 0.055 83.936 0.996 -3.141 0.996 -3.141 0.055 83.936
7038.333 0.056 83.931 0.996 -3.192 0.996 -3.192 0.056 83.931
7063.292 0.057 83.926 0.996 -3.243 0.996 -3.243 0.057 83.926
7088.25 0.058 83.918 0.996 -3.294 0.996 -3.294 0.058 83.918
7113.208 0.058 83.91 0.995 -3.345 0.995 -3.345 0.058 83.91
7138.167 0.059 83.9 0.995 -3.395 0.995 -3.395 0.059 83.9
7163.125 0.06 83.89 0.995 -3.446 0.995 -3.446 0.06 83.89
7188.083 0.061 83.878 0.995 -3.496 0.995 -3.496 0.061 83.878
7213.042 0.062 83.865 0.995 -3.546 0.995 -3.546 0.062 83.865
7238 0.063 83.851 0.995 -3.596 0.995 -3.596 0.063 83.851
7262.958 0.064 83.836 0.995 -3.646 0.995 -3.646 0.064 83.836
7287.917 0.065 83.82 0.995 -3.695 0.995 -3.695 0.065 83.82
7312.875 0.065 83.804 0.995 -3.745 0.995 -3.745 0.065 83.804
7337.833 0.066 83.786 0.995 -3.794 0.995 -3.794 0.066 83.786
7362.792 0.067 83.768 0.995 -3.844 0.995 -3.844 0.067 83.768
7387.75 0.068 83.749 0.995 -3.893 0.995 -3.893 0.068 83.749
7412.708 0.069 83.729 0.995 -3.942 0.995 -3.942 0.069 83.729
7437.667 0.07 83.709 0.995 -3.991 0.995 -3.991 0.07 83.709
7462.625 0.071 83.688 0.995 -4.04 0.995 -4.04 0.071 83.688
7487.583 0.071 83.666 0.995 -4.088 0.995 -4.088 0.071 83.666
7512.542 0.072 83.644 0.995 -4.137 0.995 -4.137 0.072 83.644
7537.5 0.073 83.622 0.995 -4.185 0.995 -4.185 0.073 83.622
7562.458 0.074 83.598 0.994 -4.233 0.994 -4.233 0.074 83.598
7587.417 0.075 83.575 0.994 -4.282 0.994 -4.282 0.075 83.575
7612.375 0.076 83.551 0.994 -4.33 0.994 -4.33 0.076 83.551
7637.333 0.076 83.526 0.994 -4.378 0.994 -4.378 0.076 83.526
7662.292 0.077 83.501 0.994 -4.425 0.994 -4.425 0.077 83.501
7687.25 0.078 83.475 0.994 -4.473 0.994 -4.473 0.078 83.475
7712.208 0.079 83.449 0.994 -4.521 0.994 -4.521 0.079 83.449
7737.167 0.08 83.423 0.994 -4.568 0.994 -4.568 0.08 83.423
7762.125 0.081 83.396 0.994 -4.616 0.994 -4.616 0.081 83.396
7787.083 0.081 83.369 0.994 -4.663 0.994 -4.663 0.081 83.369
7812.042 0.082 83.342 0.994 -4.71 0.994 -4.71 0.082 83.342
7837 0.083 83.314 0.994 -4.757 0.994 -4.757 0.083 83.314
7861.958 0.084 83.286 0.994 -4.804 0.994 -4.804 0.084 83.286
7886.917 0.085 83.258 0.994 -4.851 0.994 -4.851 0.085 83.258
7911.875 0.085 83.229 0.994 -4.898 0.994 -4.898 0.085 83.229
7936.833 0.086 83.2 0.993 -4.944 0.993 -4.944 0.086 83.2
7961.792 0.087 83.171 0.993 -4.991 0.993 -4.991 0.087 83.171
7986.75 0.088 83.142 0.993 -5.037 0.993 -5.037 0.088 83.142
8011.708 0.089 83.112 0.993 -5.083 0.993 -5.083 0.089 83.112
8036.667 0.089 83.082 0.993 -5.13 0.993 -5.13 0.089 83.082
8061.625 0.09 83.052 0.993 -5.176 0.993 -5.176 0.09 83.052
8086.583 0.091 83.022 0.993 -5.222 0.993 -5.222 0.091 83.022
8111.542 0.092 82.991 0.993 -5.268 0.993 -5.268 0.092 82.991
8136.5 0.093 82.961 0.993 -5.314 0.993 -5.314 0.093 82.961
8161.458 0.093 82.93 0.993 -5.359 0.993 -5.359 0.093 82.93
8186.417 0.094 82.899 0.993 -5.405 0.993 -5.405 0.094 82.899
