# MHZ S MA R 50

50 0.995 -5.563 0.097 84.424 0.097 84.424 0.995 -5.563
74.958 0.989 -8.308 0.144 81.672 0.144 81.672 0.989 -8.308
99.917 0.981 -11.017 0.191 78.956 0.191 78.956 0.981 -11.017
124.875 0.972 -13.678 0.236 76.289 0.236 76.289 0.972 -13.678
149.833 0.96 -16.281 0.28 73.678 0.28 73.678 0.96 -16.281
174.792 0.946 -18.82 0.323 71.133 0.323 71.133 0.946 -18.82
199.75 0.931 -21.286 0.363 68.66 0.363 68.66 0.931 -21.286
224.708 0.915 -23.674 0.402 66.265 0.402 66.265 0.915 -23.674
249.667 0.898 -25.981 0.438 63.951 0.438 63.951 0.898 -25.981
274.625 0.881 -28.204 0.473 61.722 0.473 61.722 0.881 -28.204
299.583 0.862 -30.341 0.505 59.578 0.505 59.578 0.862 -30.341
324.542 0.844 -32.391 0.536 57.521 0.536 57.521 0.844 -32.391
349.5 0.825 -34.356 0.564 55.55 0.564 55.55 0.825 -34.356
374.458 0.806 -36.236 0.591 53.663 0.591 53.663 0.806 -36.236
399.417 0.786 -38.033 0.616 51.859 0.616 51.859 0.786 -38.033
424.375 0.768 -39.749 0.639 50.136 0.639 50.136 0.768 -39.749
449.333 0.749 -41.387 0.661 48.491 0.661 48.491 0.749 -41.387
474.292 0.73 -42.951 0.681 46.921 0.681 46.921 0.73 -42.951
499.25 0.712 -44.442 0.7 45.423 0.7 45.423 0.712 -44.442
524.208 0.695 -45.864 0.718 43.993 0.718 43.993 0.695 -45.864
549.167 0.677 -47.22 0.734 42.63 0.734 42.63 0.677 -47.22
574.125 0.66 -48.514 0.749 41.329 0.749 41.329 0.66 -48.514
599.083 0.644 -49.749 0.763 40.087 0.763 40.087 0.644 -49.749
624.042 0.628 -50.927 0.776 38.902 0.776 38.902 0.628 -50.927
649 0.612 -52.052 0.789 37.77 0.789 37.77 0.612 -52.052
673.958 0.597 -53.126 0.8 36.689 0.8 36.689 0.597 -53.126
698.917 0.583 -54.153 0.811 35.655 0.811 35.655 0.583 -54.153
723.875 0.569 -55.134 0.82 34.666 0.82 34.666 0.569 -55.134
748.833 0.555 -56.073 0.83 33.72 0.83 33.72 0.555 -56.073
773.792 0.542 -56.972 0.838 32.815 0.838 32.815 0.542 -56.972
798.75 0.529 -57.832 0.846 31.947 0.846 31.947 0.529 -57.832
823.708 0.517 -58.656 0.854 31.116 0.854 31.116 0.517 -58.656
848.667 0.505 -59.446 0.861 30.318 0.861 30.318 0.505 -59.446
873.625 0.493 -60.205 0.868 29.552 0.868 29.552 0.493 -60.205
898.583 0.482 -60.932 0.874 28.817 0.874 28.817 0.482 -60.932
923.542 0.471 -61.631 0.88 28.111 0.88 28.111 0.471 -61.631
948.5 0.461 -62.303 0.885 27.432 0.885 27.432 0.461 -62.303
973.458 0.451 -62.949 0.891 26.778 0.891 26.778 0.451 -62.949
998.417 0.441 -63.571 0.895 26.149 0.895 26.149 0.441 -63.571
1023.375 0.431 -64.169 0.9 25.543 0.9 25.543 0.431 -64.169
1048.333 0.422 -64.746 0.904 24.958 0.904 24.958 0.422 -64.746
1073.292 0.413 -65.301 0.909 24.395 0.909 24.395 0.413 -65.301
1098.25 0.404 -65.837 0.912 23.851 0.912 23.851 0.404 -65.837
1123.208 0.396 -66.355 0.916 23.326 0.916 23.326 0.396 -66.355
1148.167 0.388 -66.854 0.92 22.819 0.92 22.819 0.388 -66.854
1173.125 0.38 -67.337 0.923 22.328 0.923 22.328 0.38 -67.337
1198.083 0.372 -67.803 0.926 21.854 0.926 21.854 0.372 -67.803
1223.042 0.365 -68.254 0.929 21.394 0.929 21.394 0.365 -68.254
1248 0.358 -68.69 0.932 20.95 0.932 20.95 0.358 -68.69
1272.958 0.351 -69.113 0.934 20.519 0.934 20.519 0.351 -69.113
1297.917 0.344 -69.522 0.937 20.101 0.937 20.101 0.344 -69.522
1322.875 0.337 -69.919 0.939 19.696 0.939 19.696 0.337 -69.919
1347.833 0.331 -70.304 0.942 19.303 0.942 19.303 0.331 -70.304
1372.792 0.324 -70.677 0.944 18.922 0.944 18.922 0.324 -70.677
1397.75 0.318 -71.039 0.946 18.551 0.946 18.551 0.318 -71.039
1422.708 0.312 -71.39 0.948 18.191 0.948 18.191 0.312 -71.39
1447.667 0.306 -71.731 0.95 17.841 0.95 17.841 0.306 -71.731
1472.625 0.301 -72.063 0.951 17.5 0.951 17.5 0.301 -72.063
1497.583 0.295 -72.385 0.953 17.169 0.953 17.169 0.295 -72.385
1522.542 0.29 -72.699 0.955 16.846 0.955 16.846 0.29 -72.699
1547.5 0.285 -73.004 0.956 16.532 0.956 16.532 0.285 -73.004
1572.458 0.279 -73.301 0.958 16.226 0.958 16.226 0.279 -73.301
1597.417 0.274 -73.59 0.959 15.928 0.959 15.928 0.274 -73.59
1622.375 0.27 -73.871 0.961 15.637 0.961 15.637 0.27 -73.871
1647.333 0.265 -74.145 0.962 15.353 0.962 15.353 0.265 -74.145
1672.292 0.26 -74.413 0.963 15.076 0.963 15.076 0.26 -74.413
1697.25 0.256 -74.673 0.964 14.806 0.964 14.806 0.256 -74.673
1722.208 0.251 -74.927 0.966 14.542 0.966 14.542 0.251 -74.927
1747.167 0.247 -75.175 0.967 14.284 0.967 14.284 0.247 -75.175
1772.125 0.242 -75.417 0.968 14.032 0.968 14.032 0.242 -75.417
1797.083 0.238 -75.653 0.969 13.785 0.969 13.785 0.238 -75.653
1822.042 0.234 -75.884 0.97 13.544 0.97 13.544 0.234 -75.884
1847 0.23 -76.109 0.971 13.308 0.971 13.308 0.23 -76.109
1871.958 0.226 -76.329 0.972 13.078 0.972 13.078 0.226 -76.329
1896.917 0.222 -76.544 0.973 12.852 0.973 12.852 0.222 -76.544
1921.875 0.219 -76.754 0.973 12.631 0.973 12.631 0.219 -76.754
1946.833 0.215 -76.96 0.974 12.414 0.974 12.414 0.215 -76.96
1971.792 0.211 -77.161 0.975 12.202 0.975 12.202 0.211 -77.161
1996.75 0.208 -77.358 0.976 11.994 0.976 11.994 0.208 -77.358
2021.708 0.204 -77.55 0.977 11.79 0.977 11.79 0.204 -77.55
2046.667 0.201 -77.738 0.977 11.59 0.977 11.59 0.201 -77.738
2071.625 0.198 -77.923 0.978 11.394 0.978 11.394 0.198 -77.923
2096.583 0.194 -78.103 0.979 11.201 0.979 11.201 0.194 -78.103
2121.542 0.191 -78.28 0.979 11.012 0.979 11.012 0.191 -78.28
2146.5 0.188 -78.453 0.98 10.827 0.98 10.827 0.188 -78.453
2171.458 0.185 -78.622 0.98 10.645 0.98 10.645 0.185 -78.622
2196.417 0.182 -78.788 0.981 10.466 0.981 10.466 0.182 -78.788
2221.375 0.179 -78.951 0.982 10.29 0.982 10.29 0.179 -78.951
2246.333 0.176 -79.111 0.982 10.117 0.982 10.117 0.176 -79.111
2271.292 0.173 -79.267 0.983 9.948 0.983 9.948 0.173 -79.267
2296.25 0.17 -79.42 0.983 9.781 0.983 9.781 0.17 -79.42
2321.208 0.167 -79.57 0.984 9.616 0.984 9.616 0.167 -79.57
2346.167 0.164 -79.718 0.984 9.455 0.984 9.455 0.164 -79.718
2371.125 0.162 -79.862 0.984 9.296 0.984 9.296 0.162 -79.862
2396.083 0.159 -80.004 0.985 9.14 0.985 9.14 0.159 -80.004
2421.042 0.156 -80.143 0.985 8.986 0.985 8.986 0.156 -80.143
2446 0.154 -80.279 0.986 8.834 0.986 8.834 0.154 -80.279
2470.958 0.151 -80.413 0.986 8.685 0.986 8.685 0.151 -80.413
2495.917 0.148 -80.544 0.987 8.538 0.987 8.538 0.148 -80.544
2520.875 0.146 -80.673 0.987 8.394 0.987 8.394 0.146 -80.673
2545.833 0.144 -80.799 0.987 8.251 0.987 8.251 0.144 -80.799
2570.792 0.141 -80.923 0.988 8.11 0.988 8.11 0.141 -80.923
2595.75 0.139 -81.045 0.988 7.972 0.988 7.972 0.139 -81.045
2620.708 0.136 -81.164 0.988 7.835 0.988 7.835 0.136 -81.164
2645.667 0.134 -81.281 0.989 7.701 0.989 7.701 0.134 -81.281
2670.625 0.132 -81.395 0.989 7.568 0.989 7.568 0.132 -81.395
2695.583 0.129 -81.508 0.989 7.437 0.989 7.437 0.129 -81.508
2720.542 0.127 -81.618 0.989 7.307 0.989 7.307 0.127 -81.618
2745.5 0.125 -81.727 0.99 7.18 0.99 7.18 0.125 -81.727
2770.458 0.123 -81.833 0.99 7.054 0.99 7.054 0.123 -81.833
2795.417 0.121 -81.937 0.99 6.93 0.99 6.93 0.121 -81.937
2820.375 0.119 -82.039 0.991 6.807 0.991 6.807 0.119 -82.039
2845.333 0.116 -82.139 0.991 6.686 0.991 6.686 0.116 -82.139
2870.292 0.114 -82.237 0.991 6.566 0.991 6.566 0.114 -82.237
2895.25 0.112 -82.333 0.991 6.448 0.991 6.448 0.112 -82.333
2920.208 0.11 -82.427 0.992 6.331 0.992 6.331 0.11 -82.427
2945.167 0.108 -82.519 0.992 6.216 0.992 6.216 0.108 -82.519
2970.125 0.106 -82.609 0.992 6.102 0.992 6.102 0.106 -82.609
2995.083 0.104 -82.698 0.992 5.99 0.992 5.99 0.104 -82.698
3020.042 0.102 -82.784 0.992 5.878 0.992 5.878 0.102 -82.784
3045 0.101 -82.868 0.993 5.768 0.993 5.768 0.101 -82.868
3069.958 0.099 -82.951 0.993 5.659 0.993 5.659 0.099 -82.951
3094.917 0.097 -83.031 0.993 5.552 0.993 5.552 0.097 -83.031
3119.875 0.095 -83.11 0.993 5.445 0.993 5.445 0.095 -83.11
3144.833 0.093 -83.186 0.993 5.34 0.993 5.34 0.093 -83.186
3169.792 0.091 -83.261 0.993 5.236 0.993 5.236 0.091 -83.261
3194.75 0.089 -83.334 0.994 5.133 0.994 5.133 0.089 -83.334
3219.708 0.088 -83.404 0.994 5.031 0.994 5.031 0.088 -83.404
3244.667 0.086 -83.473 0.994 4.93 0.994 4.93 0.086 -83.473
3269.625 0.084 -83.54 0.994 4.83 0.994 4.83 0.084 -83.54
3294.583 0.083 -83.605 0.994 4.731 0.994 4.731 0.083 -83.605
3319.542 0.081 -83.667 0.994 4.634 0.994 4.634 0.081 -83.667
3344.5 0.079 -83.728 0.994 4.537 0.994 4.537 0.079 -83.728
3369.458 0.077 -83.786 0.995 4.441 0.995 4.441 0.077 -83.786
3394.417 0.076 -83.842 0.995 4.346 0.995 4.346 0.076 -83.842
3419.375 0.074 -83.896 0.995 4.252 0.995 4.252 0.074 -83.896
3444.333 0.073 -83.948 0.995 4.158 0.995 4.158 0.073 -83.948
3469.292 0.071 -83.997 0.995 4.066 0.995 4.066 0.071 -83.997
3494.25 0.069 -84.044 0.995 3.974 0.995 3.974 0.069 -84.044
3519.208 0.068 -84.088 0.995 3.884 0.995 3.884 0.068 -84.088
3544.167 0.066 -84.13 0.995 3.794 0.995 3.794 0.066 -84.13
3569.125 0.065 -84.169 0.996 3.705 0.996 3.705 0.065 -84.169
3594.083 0.063 -84.205 0.996 3.617 0.996 3.617 0.063 -84.205
3619.042 0.062 -84.238 0.996 3.529 0.996 3.529 0.062 -84.238
3644 0.06 -84.269 0.996 3.442 0.996 3.442 0.06 -84.269
3668.958 0.059 -84.296 0.996 3.356 0.996 3.356 0.059 -84.296
3693.917 0.057 -84.32 0.996 3.271 0.996 3.271 0.057 -84.32
3718.875 0.056 -84.341 0.996 3.186 0.996 3.186 0.056 -84.341
3743.833 0.054 -84.358 0.996 3.102 0.996 3.102 0.054 -84.358
3768.792 0.053 -84.371 0.996 3.019 0.996 3.019 0.053 -84.371
3793.75 0.051 -84.38 0.996 2.937 0.996 2.937 0.051 -84.38
3818.708 0.05 -84.385 0.996 2.855 0.996 2.855 0.05 -84.385
3843.667 0.048 -84.385 0.996 2.774 0.996 2.774 0.048 -84.385
3868.625 0.047 -84.381 0.996 2.693 0.996 2.693 0.047 -84.381
3893.583 0.046 -84.371 0.997 2.613 0.997 2.613 0.046 -84.371
3918.542 0.044 -84.356 0.997 2.533 0.997 2.533 0.044 -84.356
3943.5 0.043 -84.335 0.997 2.455 0.997 2.455 0.043 -84.335
3968.458 0.042 -84.308 0.997 2.376 0.997 2.376 0.042 -84.308
3993.417 0.04 -84.274 0.997 2.299 0.997 2.299 0.04 -84.274
4018.375 0.039 -84.232 0.997 2.222 0.997 2.222 0.039 -84.232
4043.333 0.038 -84.182 0.997 2.145 0.997 2.145 0.038 -84.182
4068.292 0.036 -84.124 0.997 2.069 0.997 2.069 0.036 -84.124
4093.25 0.035 -84.055 0.997 1.994 0.997 1.994 0.035 -84.055
4118.208 0.034 -83.976 0.997 1.919 0.997 1.919 0.034 -83.976
4143.167 0.032 -83.886 0.997 1.845 0.997 1.845 0.032 -83.886
4168.125 0.031 -83.782 0.997 1.771 0.997 1.771 0.031 -83.782
4193.083 0.03 -83.664 0.997 1.697 0.997 1.697 0.03 -83.664
4218.042 0.028 -83.529 0.997 1.624 0.997 1.624 0.028 -83.529
4243 0.027 -83.377 0.997 1.552 0.997 1.552 0.027 -83.377
4267.958 0.026 -83.203 0.997 1.48 0.997 1.48 0.026 -83.203
4292.917 0.025 -83.006 0.997 1.409 0.997 1.409 0.025 -83.006
4317.875 0.023 -82.783 0.997 1.337 0.997 1.337 0.023 -82.783
4342.833 0.022 -82.528 0.997 1.267 0.997 1.267 0.022 -82.528
4367.792 0.021 -82.238 0.997 1.197 0.997 1.197 0.021 -82.238
4392.75 0.02 -81.905 0.997 1.127 0.997 1.127 0.02 -81.905
4417.708 0.019 -81.523 0.997 1.058 0.997 1.058 0.019 -81.523
4442.667 0.017 -81.082 0.997 0.989 0.997 0.989 0.017 -81.082
4467.625 0.016 -80.569 0.997 0.921 0.997 0.921 0.016 -80.569
4492.583 0.015 -79.969 0.997 0.853 0.997 0.853 0.015 -79.969
4517.542 0.014 -79.261 0.998 0.785 0.998 0.785 0.014 -79.261
4542.5 0.013 -78.417 0.998 0.718 0.998 0.718 0.013 -78.417
4567.458 0.012 -77.398 0.998 0.651 0.998 0.651 0.012 -77.398
4592.417 0.01 -76.151 0.998 0.584 0.998 0.584 0.01 -76.151
4617.375 9.36e-3 -74.597 0.998 0.518 0.998 0.518 9.36e-3 -74.597
4642.333 8.257e-3 -72.617 0.998 0.453 0.998 0.453 8.257e-3 -72.617
4667.292 7.173e-3 -70.029 0.998 0.387 0.998 0.387 7.173e-3 -70.029
4692.25 6.116e-3 -66.529 0.998 0.322 0.998 0.322 6.116e-3 -66.529
4717.208 5.098e-3 -61.604 0.998 0.258 0.998 0.258 5.098e-3 -61.604
4742.167 4.143e-3 -54.329 0.998 0.193 0.998 0.193 4.143e-3 -54.329
4767.125 3.298e-3 -43.066 0.998 0.129 0.998 0.129 3.298e-3 -43.066
4792.083 2.664e-3 -25.443 0.998 0.066 0.998 0.066 2.664e-3 -25.443
4817.042 2.405e-3 -1.019 0.998 2.456e-3 0.998 2.456e-3 2.405e-3 -1.019
4842 2.626e-3 23.648 0.998 -0.06 0.998 -0.06 2.626e-3 23.648
4866.958 3.225e-3 41.666 0.998 -0.123 0.998 -0.123 3.225e-3 41.666
4891.917 4.032e-3 53.206 0.998 -0.185 0.998 -0.185 4.032e-3 53.206
4916.875 4.943e-3 60.646 0.998 -0.247 0.998 -0.247 4.943e-3 60.646
4941.833 5.907e-3 65.671 0.998 -0.309 0.998 -0.309 5.907e-3 65.671
4966.792 6.899e-3 69.234 0.998 -0.371 0.998 -0.371 6.899e-3 69.234
4991.75 7.907e-3 71.866 0.998 -0.432 0.998 -0.432 7.907e-3 71.866
5016.708 8.924e-3 73.878 0.998 -0.492 0.998 -0.492 8.924e-3 73.878
5041.667 9.945e-3 75.456 0.998 -0.553 0.998 -0.553 9.945e-3 75.456
5066.625 0.011 76.724 0.998 -0.613 0.998 -0.613 0.011 76.724
5091.583 0.012 77.76 0.998 -0.673 0.998 -0.673 0.012 77.76
5116.542 0.013 78.62 0.998 -0.733 0.998 -0.733 0.013 78.62
5141.5 0.014 79.342 0.998 -0.792 0.998 -0.792 0.014 79.342
5166.458 0.015 79.956 0.997 -0.851 0.997 -0.851 0.015 79.956
5191.417 0.016 80.483 0.997 -0.91 0.997 -0.91 0.016 80.483
5216.375 0.017 80.938 0.997 -0.969 0.997 -0.969 0.017 80.938
5241.333 0.018 81.333 0.997 -1.027 0.997 -1.027 0.018 81.333
5266.292 0.019 81.68 0.997 -1.085 0.997 -1.085 0.019 81.68
5291.25 0.02 81.984 0.997 -1.143 0.997 -1.143 0.02 81.984
5316.208 0.021 82.254 0.997 -1.2 0.997 -1.2 0.021 82.254
5341.167 0.022 82.492 0.997 -1.258 0.997 -1.258 0.022 82.492
5366.125 0.023 82.705 0.997 -1.315 0.997 -1.315 0.023 82.705
5391.083 0.024 82.894 0.997 -1.372 0.997 -1.372 0.024 82.894
5416.042 0.025 83.063 0.997 -1.428 0.997 -1.428 0.025 83.063
5441 0.026 83.215 0.997 -1.485 0.997 -1.485 0.026 83.215
5465.958 0.027 83.351 0.997 -1.541 0.997 -1.541 0.027 83.351
5490.917 0.028 83.473 0.997 -1.597 0.997 -1.597 0.028 83.473
5515.875 0.029 83.583 0.997 -1.652 0.997 -1.652 0.029 83.583
5540.833 0.03 83.682 0.997 -1.708 0.997 -1.708 0.03 83.682
5565.792 0.031 83.77 0.997 -1.763 0.997 -1.763 0.031 83.77
5590.75 0.032 83.85 0.997 -1.818 0.997 -1.818 0.032 83.85
5615.708 0.033 83.922 0.997 -1.873 0.997 -1.873 0.033 83.922
5640.667 0.034 83.986 0.997 -1.928 0.997 -1.928 0.034 83.986
5665.625 0.035 84.043 0.997 -1.982 0.997 -1.982 0.035 84.043
5690.583 0.036 84.095 0.997 -2.036 0.997 -2.036 0.036 84.095
5715.542 0.037 84.141 0.997 -2.09 0.997 -2.09 0.037 84.141
5740.5 0.037 84.181 0.997 -2.144 0.997 -2.144 0.037 84.181
5765.458 0.038 84.217 0.997 -2.198 0.997 -2.198 0.038 84.217
5790.417 0.039 84.249 0.997 -2.251 0.997 -2.251 0.039 84.249
5815.375 0.04 84.276 0.997 -2.304 0.997 -2.304 0.04 84.276
5840.333 0.041 84.3 0.997 -2.357 0.997 -2.357 0.041 84.3
5865.292 0.042 84.32 0.997 -2.41 0.997 -2.41 0.042 84.32
5890.25 0.043 84.337 0.997 -2.463 0.997 -2.463 0.043 84.337
5915.208 0.044 84.352 0.997 -2.515 0.997 -2.515 0.044 84.352
5940.167 0.045 84.363 0.997 -2.567 0.997 -2.567 0.045 84.363
5965.125 0.046 84.372 0.997 -2.62 0.997 -2.62 0.046 84.372
5990.083 0.047 84.379 0.997 -2.671 0.997 -2.671 0.047 84.379
6015.042 0.048 84.383 0.996 -2.723 0.996 -2.723 0.048 84.383
6040 0.048 84.385 0.996 -2.775 0.996 -2.775 0.048 84.385
6064.958 0.049 84.385 0.996 -2.826 0.996 -2.826 0.049 84.385
6089.917 0.05 84.384 0.996 -2.878 0.996 -2.878 0.05 84.384
6114.875 0.051 84.38 0.996 -2.929 0.996 -2.929 0.051 84.38
6139.833 0.052 84.376 0.996 -2.98 0.996 -2.98 0.052 84.376
6164.792 0.053 84.369 0.996 -3.03 0.996 -3.03 0.053 84.369
6189.75 0.054 84.361 0.996 -3.081 0.996 -3.081 0.054 84.361
6214.708 0.055 84.352 0.996 -3.131 0.996 -3.131 0.055 84.352
6239.667 0.056 84.342 0.996 -3.182 0.996 -3.182 0.056 84.342
6264.625 0.056 84.33 0.996 -3.232 0.996 -3.232 0.056 84.33
6289.583 0.057 84.317 0.996 -3.282 0.996 -3.282 0.057 84.317
6314.542 0.058 84.303 0.996 -3.332 0.996 -3.332 0.058 84.303
6339.5 0.059 84.288 0.996 -3.381 0.996 -3.381 0.059 84.288
6364.458 0.06 84.272 0.996 -3.431 0.996 -3.431 0.06 84.272
6389.417 0.061 84.256 0.996 -3.48 0.996 -3.48 0.061 84.256
6414.375 0.062 84.238 0.996 -3.529 0.996 -3.529 0.062 84.238
6439.333 0.062 84.22 0.996 -3.578 0.996 -3.578 0.062 84.22
6464.292 0.063 84.201 0.996 -3.627 0.996 -3.627 0.063 84.201
6489.25 0.064 84.181 0.996 -3.676 0.996 -3.676 0.064 84.181
6514.208 0.065 84.16 0.995 -3.725 0.995 -3.725 0.065 84.16
6539.167 0.066 84.139 0.995 -3.773 0.995 -3.773 0.066 84.139
6564.125 0.067 84.117 0.995 -3.822 0.995 -3.822 0.067 84.117
6589.083 0.068 84.094 0.995 -3.87 0.995 -3.87 0.068 84.094
6614.042 0.068 84.071 0.995 -3.918 0.995 -3.918 0.068 84.071
6639 0.069 84.048 0.995 -3.966 0.995 -3.966 0.069 84.048
6663.958 0.07 84.023 0.995 -4.014 0.995 -4.014 0.07 84.023
6688.917 0.071 83.999 0.995 -4.062 0.995 -4.062 0.071 83.999
6713.875 0.072 83.974 0.995 -4.109 0.995 -4.109 0.072 83.974
6738.833 0.073 83.948 0.995 -4.157 0.995 -4.157 0.073 83.948
6763.792 0.073 83.922 0.995 -4.204 0.995 -4.204 0.073 83.922
6788.75 0.074 83.896 0.995 -4.252 0.995 -4.252 0.074 83.896
6813.708 0.075 83.869 0.995 -4.299 0.995 -4.299 0.075 83.869
6838.667 0.076 83.842 0.995 -4.346 0.995 -4.346 0.076 83.842
6863.625 0.077 83.815 0.995 -4.393 0.995 -4.393 0.077 83.815
6888.583 0.077 83.787 0.995 -4.439 0.995 -4.439 0.077 83.787
6913.542 0.078 83.759 0.995 -4.486 0.995 -4.486 0.078 83.759
6938.5 0.079 83.73 0.994 -4.533 0.994 -4.533 0.079 83.73
6963.458 0.08 83.701 0.994 -4.579 0.994 -4.579 0.08 83.701
6988.417 0.081 83.672 0.994 -4.625 0.994 -4.625 0.081 83.672
7013.375 0.081 83.643 0.994 -4.671 0.994 -4.671 0.081 83.643
7038.333 0.082 83.614 0.994 -4.718 0.994 -4.718 0.082 83.614
7063.292 0.083 83.584 0.994 -4.763 0.994 -4.763 0.083 83.584
7088.25 0.084 83.554 0.994 -4.809 0.994 -4.809 0.084 83.554
7113.208 0.085 83.523 0.994 -4.855 0.994 -4.855 0.085 83.523
7138.167 0.085 83.493 0.994 -4.901 0.994 -4.901 0.085 83.493
7163.125 0.086 83.462 0.994 -4.946 0.994 -4.946 0.086 83.462
7188.083 0.087 83.431 0.994 -4.992 0.994 -4.992 0.087 83.431
7213.042 0.088 83.4 0.994 -5.037 0.994 -5.037 0.088 83.4
7238 0.089 83.369 0.994 -5.082 0.994 -5.082 0.089 83.369
7262.958 0.089 83.338 0.994 -5.127 0.994 -5.127 0.089 83.338
7287.917 0.09 83.306 0.994 -5.172 0.994 -5.172 0.09 83.306
7312.875 0.091 83.274 0.993 -5.217 0.993 -5.217 0.091 83.274
7337.833 0.092 83.242 0.993 -5.262 0.993 -5.262 0.092 83.242
7362.792 0.093 83.21 0.993 -5.307 0.993 -5.307 0.093 83.21
7387.75 0.093 83.178 0.993 -5.352 0.993 -5.352 0.093 83.178
7412.708 0.094 83.146 0.993 -5.396 0.993 -5.396 0.094 83.146
7437.667 0.095 83.113 0.993 -5.44 0.993 -5.44 0.095 83.113
7462.625 0.096 83.081 0.993 -5.485 0.993 -5.485 0.096 83.081
7487.583 0.096 83.048 0.993 -5.529 0.993 -5.529 0.096 83.048
7512.542 0.097 83.015 0.993 -5.573 0.993 -5.573 0.097 83.015
7537.5 0.098 82.982 0.993 -5.617 0.993 -5.617 0.098 82.982
7562.458 0.099 82.949 0.993 -5.661 0.993 -5.661 0.099 82.949
7587.417 0.099 82.916 0.993 -5.705 0.993 -5.705 0.099 82.916
7612.375 0.1 82.883 0.993 -5.749 0.993 -5.749 0.1 82.883
7637.333 0.101 82.85 0.993 -5.793 0.993 -5.793 0.101 82.85
7662.292 0.102 82.816 0.992 -5.836 0.992 -5.836 0.102 82.816
7687.25 0.102 82.783 0.992 -5.88 0.992 -5.88 0.102 82.783
7712.208 0.103 82.749 0.992 -5.923 0.992 -5.923 0.103 82.749
7737.167 0.104 82.716 0.992 -5.967 0.992 -5.967 0.104 82.716
7762.125 0.105 82.682 0.992 -6.01 0.992 -6.01 0.105 82.682
7787.083 0.105 82.648 0.992 -6.053 0.992 -6.053 0.105 82.648
7812.042 0.106 82.614 0.992 -6.096 0.992 -6.096 0.106 82.614
7837 0.107 82.58 0.992 -6.139 0.992 -6.139 0.107 82.58
7861.958 0.108 82.546 0.992 -6.182 0.992 -6.182 0.108 82.546
7886.917 0.108 82.512 0.992 -6.225 0.992 -6.225 0.108 82.512
7911.875 0.109 82.478 0.992 -6.268 0.992 -6.268 0.109 82.478
7936.833 0.11 82.444 0.992 -6.31 0.992 -6.31 0.11 82.444
7961.792 0.111 82.41 0.991 -6.353 0.991 -6.353 0.111 82.41
7986.75 0.111 82.376 0.991 -6.396 0.991 -6.396 0.111 82.376
8011.708 0.112 82.341 0.991 -6.438 0.991 -6.438 0.112 82.341
8036.667 0.113 82.307 0.991 -6.48 0.991 -6.48 0.113 82.307
8061.625 0.114 82.273 0.991 -6.523 0.991 -6.523 0.114 82.273
8086.583 0.114 82.238 0.991 -6.565 0.991 -6.565 0.114 82.238
8111.542 0.115 82.204 0.991 -6.607 0.991 -6.607 0.115 82.204
8136.5 0.116 82.169 0.991 -6.649 0.991 -6.649 0.116 82.169
8161.458 0.117 82.135 0.991 -6.691 0.991 -6.691 0.117 82.135
8186.417 0.117 82.1 0.991 -6.733 0.991 -6.733 0.117 82.1
8211.375 0.118 82.066 0.991 -6.775 0.991 -6.775 0.118 82.066
8236.333 0.119 82.031 0.991 -6.817 0.991 -6.817 0.119 82.031
