# MHZ S MA R 50

50 0.996 -4.849 0.085 85.139 0.085 85.139 0.996 -4.849
74.958 0.992 -7.248 0.126 82.733 0.126 82.733 0.992 -7.248
99.917 0.986 -9.623 0.167 80.352 0.167 80.352 0.986 -9.623
124.875 0.978 -11.966 0.207 78.003 0.207 78.003 0.978 -11.966
149.833 0.969 -14.271 0.247 75.692 0.247 75.692 0.969 -14.271
174.792 0.958 -16.53 0.285 73.426 0.285 73.426 0.958 -16.53
199.75 0.947 -18.74 0.321 71.21 0.321 71.21 0.947 -18.74
224.708 0.934 -20.895 0.357 69.049 0.357 69.049 0.934 -20.895
249.667 0.92 -22.993 0.391 66.945 0.391 66.945 0.92 -22.993
274.625 0.906 -25.029 0.423 64.903 0.423 64.903 0.906 -25.029
299.583 0.89 -27.002 0.454 62.924 0.454 62.924 0.89 -27.002
324.542 0.875 -28.911 0.483 61.009 0.483 61.009 0.875 -28.911
349.5 0.859 -30.754 0.511 59.159 0.511 59.159 0.859 -30.754
374.458 0.842 -32.532 0.538 57.374 0.538 57.374 0.842 -32.532
399.417 0.826 -34.246 0.563 55.655 0.563 55.655 0.826 -34.246
424.375 0.809 -35.895 0.586 53.999 0.586 53.999 0.809 -35.895
449.333 0.792 -37.481 0.608 52.407 0.608 52.407 0.792 -37.481
474.292 0.776 -39.005 0.629 50.876 0.629 50.876 0.776 -39.005
499.25 0.759 -40.47 0.649 49.406 0.649 49.406 0.759 -40.47
524.208 0.743 -41.876 0.668 47.993 0.668 47.993 0.743 -41.876
549.167 0.727 -43.226 0.685 46.637 0.685 46.637 0.727 -43.226
574.125 0.711 -44.521 0.701 45.335 0.701 45.335 0.711 -44.521
599.083 0.696 -45.765 0.716 44.085 0.716 44.085 0.696 -45.765
624.042 0.681 -46.958 0.731 42.885 0.731 42.885 0.681 -46.958
649 0.666 -48.104 0.744 41.732 0.744 41.732 0.666 -48.104
673.958 0.651 -49.204 0.757 40.626 0.757 40.626 0.651 -49.204
698.917 0.637 -50.26 0.769 39.564 0.769 39.564 0.637 -50.26
723.875 0.623 -51.274 0.78 38.543 0.78 38.543 0.623 -51.274
748.833 0.61 -52.248 0.791 37.562 0.791 37.562 0.61 -52.248
773.792 0.597 -53.184 0.801 36.619 0.801 36.619 0.597 -53.184
798.75 0.584 -54.084 0.81 35.713 0.81 35.713 0.584 -54.084
823.708 0.571 -54.95 0.819 34.841 0.819 34.841 0.571 -54.95
848.667 0.559 -55.783 0.827 34.001 0.827 34.001 0.559 -55.783
873.625 0.547 -56.584 0.835 33.193 0.835 33.193 0.547 -56.584
898.583 0.536 -57.356 0.842 32.415 0.842 32.415 0.536 -57.356
923.542 0.525 -58.099 0.849 31.665 0.849 31.665 0.525 -58.099
948.5 0.514 -58.815 0.856 30.942 0.856 30.942 0.514 -58.815
973.458 0.504 -59.506 0.862 30.244 0.862 30.244 0.504 -59.506
998.417 0.494 -60.172 0.868 29.571 0.868 29.571 0.494 -60.172
1023.375 0.484 -60.815 0.873 28.921 0.873 28.921 0.484 -60.815
1048.333 0.474 -61.436 0.878 28.293 0.878 28.293 0.474 -61.436
1073.292 0.465 -62.036 0.883 27.687 0.883 27.687 0.465 -62.036
1098.25 0.456 -62.615 0.888 27.1 0.888 27.1 0.456 -62.615
1123.208 0.447 -63.175 0.892 26.533 0.892 26.533 0.447 -63.175
1148.167 0.438 -63.717 0.897 25.984 0.897 25.984 0.438 -63.717
1173.125 0.43 -64.242 0.901 25.452 0.901 25.452 0.43 -64.242
1198.083 0.422 -64.75 0.904 24.937 0.904 24.937 0.422 -64.75
1223.042 0.414 -65.241 0.908 24.438 0.908 24.438 0.414 -65.241
1248 0.406 -65.718 0.912 23.954 0.912 23.954 0.406 -65.718
1272.958 0.399 -66.18 0.915 23.484 0.915 23.484 0.399 -66.18
1297.917 0.391 -66.628 0.918 23.029 0.918 23.029 0.391 -66.628
1322.875 0.384 -67.063 0.921 22.587 0.921 22.587 0.384 -67.063
1347.833 0.377 -67.485 0.924 22.157 0.924 22.157 0.377 -67.485
1372.792 0.37 -67.895 0.927 21.74 0.927 21.74 0.37 -67.895
1397.75 0.364 -68.293 0.929 21.334 0.929 21.334 0.364 -68.293
1422.708 0.357 -68.68 0.932 20.939 0.932 20.939 0.357 -68.68
1447.667 0.351 -69.056 0.934 20.555 0.934 20.555 0.351 -69.056
1472.625 0.345 -69.422 0.936 20.182 0.936 20.182 0.345 -69.422
1497.583 0.339 -69.778 0.938 19.818 0.938 19.818 0.339 -69.778
1522.542 0.333 -70.124 0.94 19.464 0.94 19.464 0.333 -70.124
1547.5 0.328 -70.461 0.942 19.118 0.942 19.118 0.328 -70.461
1572.458 0.322 -70.79 0.944 18.782 0.944 18.782 0.322 -70.79
1597.417 0.317 -71.11 0.946 18.453 0.946 18.453 0.317 -71.11
1622.375 0.311 -71.422 0.948 18.133 0.948 18.133 0.311 -71.422
1647.333 0.306 -71.726 0.95 17.821 0.95 17.821 0.306 -71.726
1672.292 0.301 -72.023 0.951 17.516 0.951 17.516 0.301 -72.023
1697.25 0.296 -72.312 0.953 17.218 0.953 17.218 0.296 -72.312
1722.208 0.291 -72.594 0.954 16.927 0.954 16.927 0.291 -72.594
1747.167 0.286 -72.87 0.956 16.642 0.956 16.642 0.286 -72.87
1772.125 0.282 -73.139 0.957 16.365 0.957 16.365 0.282 -73.139
1797.083 0.277 -73.402 0.958 16.093 0.958 16.093 0.277 -73.402
1822.042 0.273 -73.659 0.96 15.827 0.96 15.827 0.273 -73.659
1847 0.268 -73.91 0.961 15.567 0.961 15.567 0.268 -73.91
1871.958 0.264 -74.155 0.962 15.312 0.962 15.312 0.264 -74.155
1896.917 0.26 -74.395 0.963 15.063 0.963 15.063 0.26 -74.395
1921.875 0.256 -74.63 0.964 14.819 0.964 14.819 0.256 -74.63
1946.833 0.252 -74.86 0.965 14.58 0.965 14.58 0.252 -74.86
1971.792 0.248 -75.084 0.966 14.346 0.966 14.346 0.248 -75.084
1996.75 0.244 -75.304 0.967 14.116 0.967 14.116 0.244 -75.304
2021.708 0.24 -75.519 0.968 13.891 0.968 13.891 0.24 -75.519
2046.667 0.236 -75.73 0.969 13.671 0.969 13.671 0.236 -75.73
2071.625 0.233 -75.937 0.97 13.454 0.97 13.454 0.233 -75.937
2096.583 0.229 -76.139 0.971 13.242 0.971 13.242 0.229 -76.139
2121.542 0.226 -76.337 0.972 13.033 0.972 13.033 0.226 -76.337
2146.5 0.222 -76.531 0.973 12.829 0.973 12.829 0.222 -76.531
2171.458 0.219 -76.722 0.973 12.628 0.973 12.628 0.219 -76.722
2196.417 0.215 -76.908 0.974 12.43 0.974 12.43 0.215 -76.908
2221.375 0.212 -77.091 0.975 12.237 0.975 12.237 0.212 -77.091
2246.333 0.209 -77.271 0.975 12.046 0.975 12.046 0.209 -77.271
2271.292 0.206 -77.447 0.976 11.859 0.976 11.859 0.206 -77.447
2296.25 0.202 -77.62 0.977 11.675 0.977 11.675 0.202 -77.62
2321.208 0.199 -77.789 0.977 11.494 0.977 11.494 0.199 -77.789
2346.167 0.196 -77.956 0.978 11.316 0.978 11.316 0.196 -77.956
2371.125 0.193 -78.119 0.979 11.141 0.979 11.141 0.193 -78.119
2396.083 0.19 -78.279 0.979 10.969 0.979 10.969 0.19 -78.279
2421.042 0.187 -78.437 0.98 10.799 0.98 10.799 0.187 -78.437
2446 0.185 -78.591 0.98 10.633 0.98 10.633 0.185 -78.591
2470.958 0.182 -78.743 0.981 10.468 0.981 10.468 0.182 -78.743
2495.917 0.179 -78.892 0.981 10.307 0.981 10.307 0.179 -78.892
2520.875 0.176 -79.038 0.982 10.147 0.982 10.147 0.176 -79.038
2545.833 0.174 -79.182 0.982 9.991 0.982 9.991 0.174 -79.182
2570.792 0.171 -79.323 0.983 9.836 0.983 9.836 0.171 -79.323
2595.75 0.168 -79.462 0.983 9.684 0.983 9.684 0.168 -79.462
2620.708 0.166 -79.598 0.984 9.534 0.984 9.534 0.166 -79.598
2645.667 0.163 -79.732 0.984 9.386 0.984 9.386 0.163 -79.732
2670.625 0.161 -79.864 0.985 9.24 0.985 9.24 0.161 -79.864
2695.583 0.158 -79.994 0.985 9.096 0.985 9.096 0.158 -79.994
2720.542 0.156 -80.121 0.985 8.954 0.985 8.954 0.156 -80.121
2745.5 0.153 -80.246 0.986 8.814 0.986 8.814 0.153 -80.246
2770.458 0.151 -80.369 0.986 8.676 0.986 8.676 0.151 -80.369
2795.417 0.149 -80.489 0.986 8.54 0.986 8.54 0.149 -80.489
2820.375 0.146 -80.608 0.987 8.406 0.987 8.406 0.146 -80.608
2845.333 0.144 -80.725 0.987 8.273 0.987 8.273 0.144 -80.725
2870.292 0.142 -80.839 0.987 8.142 0.987 8.142 0.142 -80.839
2895.25 0.139 -80.952 0.988 8.013 0.988 8.013 0.139 -80.952
2920.208 0.137 -81.063 0.988 7.885 0.988 7.885 0.137 -81.063
2945.167 0.135 -81.172 0.988 7.759 0.988 7.759 0.135 -81.172
2970.125 0.133 -81.279 0.989 7.634 0.989 7.634 0.133 -81.279
2995.083 0.131 -81.384 0.989 7.511 0.989 7.511 0.131 -81.384
3020.042 0.129 -81.487 0.989 7.389 0.989 7.389 0.129 -81.487
3045 0.127 -81.588 0.989 7.269 0.989 7.269 0.127 -81.588
3069.958 0.124 -81.688 0.99 7.15 0.99 7.15 0.124 -81.688
3094.917 0.122 -81.786 0.99 7.033 0.99 7.033 0.122 -81.786
3119.875 0.12 -81.882 0.99 6.917 0.99 6.917 0.12 -81.882
3144.833 0.118 -81.976 0.99 6.802 0.99 6.802 0.118 -81.976
3169.792 0.116 -82.069 0.991 6.688 0.991 6.688 0.116 -82.069
3194.75 0.115 -82.16 0.991 6.576 0.991 6.576 0.115 -82.16
3219.708 0.113 -82.249 0.991 6.465 0.991 6.465 0.113 -82.249
3244.667 0.111 -82.336 0.991 6.355 0.991 6.355 0.111 -82.336
3269.625 0.109 -82.422 0.992 6.246 0.992 6.246 0.109 -82.422
3294.583 0.107 -82.506 0.992 6.139 0.992 6.139 0.107 -82.506
3319.542 0.105 -82.589 0.992 6.032 0.992 6.032 0.105 -82.589
3344.5 0.103 -82.669 0.992 5.927 0.992 5.927 0.103 -82.669
3369.458 0.101 -82.748 0.992 5.823 0.992 5.823 0.101 -82.748
3394.417 0.1 -82.826 0.992 5.72 0.992 5.72 0.1 -82.826
3419.375 0.098 -82.901 0.993 5.617 0.993 5.617 0.098 -82.901
3444.333 0.096 -82.975 0.993 5.516 0.993 5.516 0.096 -82.975
3469.292 0.094 -83.047 0.993 5.416 0.993 5.416 0.094 -83.047
3494.25 0.093 -83.118 0.993 5.317 0.993 5.317 0.093 -83.118
3519.208 0.091 -83.186 0.993 5.218 0.993 5.218 0.091 -83.186
3544.167 0.089 -83.253 0.993 5.121 0.993 5.121 0.089 -83.253
3569.125 0.088 -83.318 0.994 5.024 0.994 5.024 0.088 -83.318
3594.083 0.086 -83.382 0.994 4.929 0.994 4.929 0.086 -83.382
3619.042 0.084 -83.443 0.994 4.834 0.994 4.834 0.084 -83.443
3644 0.083 -83.503 0.994 4.74 0.994 4.74 0.083 -83.503
3668.958 0.081 -83.56 0.994 4.647 0.994 4.647 0.081 -83.56
3693.917 0.079 -83.616 0.994 4.555 0.994 4.555 0.079 -83.616
3718.875 0.078 -83.67 0.994 4.464 0.994 4.464 0.078 -83.67
3743.833 0.076 -83.722 0.995 4.373 0.995 4.373 0.076 -83.722
3768.792 0.075 -83.772 0.995 4.283 0.995 4.283 0.075 -83.772
3793.75 0.073 -83.819 0.995 4.194 0.995 4.194 0.073 -83.819
3818.708 0.072 -83.865 0.995 4.106 0.995 4.106 0.072 -83.865
3843.667 0.07 -83.908 0.995 4.018 0.995 4.018 0.07 -83.908
3868.625 0.069 -83.949 0.995 3.931 0.995 3.931 0.069 -83.949
3893.583 0.067 -83.987 0.995 3.845 0.995 3.845 0.067 -83.987
3918.542 0.066 -84.024 0.995 3.759 0.995 3.759 0.066 -84.024
3943.5 0.064 -84.057 0.995 3.675 0.995 3.675 0.064 -84.057
3968.458 0.063 -84.088 0.995 3.59 0.995 3.59 0.063 -84.088
3993.417 0.061 -84.116 0.996 3.507 0.996 3.507 0.061 -84.116
4018.375 0.06 -84.141 0.996 3.424 0.996 3.424 0.06 -84.141
4043.333 0.058 -84.164 0.996 3.342 0.996 3.342 0.058 -84.164
4068.292 0.057 -84.183 0.996 3.26 0.996 3.26 0.057 -84.183
4093.25 0.056 -84.199 0.996 3.179 0.996 3.179 0.056 -84.199
4118.208 0.054 -84.211 0.996 3.099 0.996 3.099 0.054 -84.211
4143.167 0.053 -84.22 0.996 3.019 0.996 3.019 0.053 -84.22
4168.125 0.051 -84.224 0.996 2.94 0.996 2.94 0.051 -84.224
4193.083 0.05 -84.225 0.996 2.861 0.996 2.861 0.05 -84.225
4218.042 0.049 -84.222 0.996 2.783 0.996 2.783 0.049 -84.222
4243 0.047 -84.213 0.996 2.705 0.996 2.705 0.047 -84.213
4267.958 0.046 -84.2 0.996 2.628 0.996 2.628 0.046 -84.2
4292.917 0.045 -84.181 0.996 2.552 0.996 2.552 0.045 -84.181
4317.875 0.043 -84.157 0.997 2.476 0.997 2.476 0.043 -84.157
4342.833 0.042 -84.127 0.997 2.4 0.997 2.4 0.042 -84.127
4367.792 0.041 -84.09 0.997 2.325 0.997 2.325 0.041 -84.09
4392.75 0.039 -84.046 0.997 2.251 0.997 2.251 0.039 -84.046
4417.708 0.038 -83.995 0.997 2.177 0.997 2.177 0.038 -83.995
4442.667 0.037 -83.935 0.997 2.103 0.997 2.103 0.037 -83.935
4467.625 0.036 -83.866 0.997 2.03 0.997 2.03 0.036 -83.866
4492.583 0.034 -83.786 0.997 1.958 0.997 1.958 0.034 -83.786
4517.542 0.033 -83.696 0.997 1.886 0.997 1.886 0.033 -83.696
4542.5 0.032 -83.594 0.997 1.814 0.997 1.814 0.032 -83.594
4567.458 0.031 -83.478 0.997 1.743 0.997 1.743 0.031 -83.478
4592.417 0.029 -83.347 0.997 1.672 0.997 1.672 0.029 -83.347
4617.375 0.028 -83.2 0.997 1.602 0.997 1.602 0.028 -83.2
4642.333 0.027 -83.034 0.997 1.532 0.997 1.532 0.027 -83.034
4667.292 0.026 -82.846 0.997 1.462 0.997 1.462 0.026 -82.846
4692.25 0.024 -82.635 0.997 1.393 0.997 1.393 0.024 -82.635
4717.208 0.023 -82.396 0.997 1.324 0.997 1.324 0.023 -82.396
4742.167 0.022 -82.126 0.997 1.256 0.997 1.256 0.022 -82.126
4767.125 0.021 -81.819 0.997 1.188 0.997 1.188 0.021 -81.819
4792.083 0.02 -81.469 0.997 1.12 0.997 1.12 0.02 -81.469
4817.042 0.019 -81.069 0.997 1.053 0.997 1.053 0.019 -81.069
4842 0.017 -80.61 0.997 0.986 0.997 0.986 0.017 -80.61
4866.958 0.016 -80.079 0.997 0.92 0.997 0.92 0.016 -80.079
4891.917 0.015 -79.461 0.997 0.854 0.997 0.854 0.015 -79.461
4916.875 0.014 -78.736 0.997 0.788 0.997 0.788 0.014 -78.736
4941.833 0.013 -77.878 0.997 0.723 0.997 0.723 0.013 -77.878
4966.792 0.012 -76.85 0.997 0.658 0.997 0.658 0.012 -76.85
4991.75 0.011 -75.602 0.997 0.593 0.997 0.593 0.011 -75.602
5016.708 9.573e-3 -74.062 0.997 0.529 0.997 0.529 9.573e-3 -74.062
5041.667 8.501e-3 -72.124 0.997 0.465 0.997 0.465 8.501e-3 -72.124
5066.625 7.448e-3 -69.628 0.997 0.401 0.997 0.401 7.448e-3 -69.628
5091.583 6.419e-3 -66.318 0.997 0.338 0.997 0.338 6.419e-3 -66.318
5116.542 5.427e-3 -61.772 0.997 0.275 0.997 0.275 5.427e-3 -61.772
5141.5 4.489e-3 -55.269 0.997 0.212 0.997 0.212 4.489e-3 -55.269
5166.458 3.644e-3 -45.575 0.997 0.149 0.997 0.149 3.644e-3 -45.575
5191.417 2.966e-3 -30.849 0.997 0.087 0.997 0.087 2.966e-3 -30.849
5216.375 2.582e-3 -9.909 0.997 0.026 0.997 0.026 2.582e-3 -9.909
5241.333 2.62e-3 13.839 0.997 -0.036 0.997 -0.036 2.62e-3 13.839
5266.292 3.058e-3 33.614 0.997 -0.097 0.997 -0.097 3.058e-3 33.614
5291.25 3.754e-3 47.187 0.997 -0.158 0.997 -0.158 3.754e-3 47.187
5316.208 4.589e-3 56.12 0.997 -0.219 0.997 -0.219 4.589e-3 56.12
5341.167 5.498e-3 62.16 0.997 -0.279 0.997 -0.279 5.498e-3 62.16
5366.125 6.446e-3 66.418 0.997 -0.339 0.997 -0.339 6.446e-3 66.418
5391.083 7.417e-3 69.544 0.997 -0.399 0.997 -0.399 7.417e-3 69.544
5416.042 8.401e-3 71.917 0.997 -0.459 0.997 -0.459 8.401e-3 71.917
5441 9.393e-3 73.77 0.997 -0.518 0.997 -0.518 9.393e-3 73.77
5465.958 0.01 75.25 0.997 -0.577 0.997 -0.577 0.01 75.25
5490.917 0.011 76.456 0.997 -0.636 0.997 -0.636 0.011 76.456
5515.875 0.012 77.453 0.997 -0.694 0.997 -0.694 0.012 77.453
5540.833 0.013 78.289 0.997 -0.753 0.997 -0.753 0.013 78.289
5565.792 0.014 78.999 0.997 -0.811 0.997 -0.811 0.014 78.999
5590.75 0.015 79.606 0.997 -0.869 0.997 -0.869 0.015 79.606
5615.708 0.016 80.131 0.997 -0.926 0.997 -0.926 0.016 80.131
5640.667 0.017 80.587 0.997 -0.983 0.997 -0.983 0.017 80.587
5665.625 0.018 80.986 0.997 -1.04 0.997 -1.04 0.018 80.986
5690.583 0.019 81.338 0.997 -1.097 0.997 -1.097 0.019 81.338
5715.542 0.02 81.648 0.997 -1.154 0.997 -1.154 0.02 81.648
5740.5 0.021 81.924 0.997 -1.21 0.997 -1.21 0.021 81.924
5765.458 0.022 82.17 0.997 -1.266 0.997 -1.266 0.022 82.17
5790.417 0.023 82.389 0.997 -1.322 0.997 -1.322 0.023 82.389
5815.375 0.024 82.586 0.997 -1.378 0.997 -1.378 0.024 82.586
5840.333 0.025 82.763 0.997 -1.434 0.997 -1.434 0.025 82.763
5865.292 0.026 82.921 0.997 -1.489 0.997 -1.489 0.026 82.921
5890.25 0.027 83.065 0.997 -1.544 0.997 -1.544 0.027 83.065
5915.208 0.028 83.194 0.997 -1.599 0.997 -1.599 0.028 83.194
5940.167 0.029 83.311 0.997 -1.653 0.997 -1.653 0.029 83.311
5965.125 0.03 83.416 0.997 -1.708 0.997 -1.708 0.03 83.416
5990.083 0.031 83.511 0.997 -1.762 0.997 -1.762 0.031 83.511
6015.042 0.032 83.597 0.997 -1.816 0.997 -1.816 0.032 83.597
6040 0.033 83.675 0.997 -1.87 0.997 -1.87 0.033 83.675
6064.958 0.034 83.745 0.997 -1.924 0.997 -1.924 0.034 83.745
6089.917 0.035 83.809 0.997 -1.977 0.997 -1.977 0.035 83.809
6114.875 0.036 83.866 0.997 -2.031 0.997 -2.031 0.036 83.866
6139.833 0.036 83.917 0.997 -2.084 0.997 -2.084 0.036 83.917
6164.792 0.037 83.963 0.997 -2.137 0.997 -2.137 0.037 83.963
6189.75 0.038 84.004 0.997 -2.189 0.997 -2.189 0.038 84.004
6214.708 0.039 84.04 0.997 -2.242 0.997 -2.242 0.039 84.04
6239.667 0.04 84.073 0.997 -2.294 0.997 -2.294 0.04 84.073
6264.625 0.041 84.101 0.997 -2.346 0.997 -2.346 0.041 84.101
6289.583 0.042 84.126 0.997 -2.398 0.997 -2.398 0.042 84.126
6314.542 0.043 84.148 0.997 -2.45 0.997 -2.45 0.043 84.148
6339.5 0.044 84.166 0.997 -2.502 0.997 -2.502 0.044 84.166
6364.458 0.045 84.182 0.996 -2.554 0.996 -2.554 0.045 84.182
6389.417 0.046 84.195 0.996 -2.605 0.996 -2.605 0.046 84.195
6414.375 0.046 84.205 0.996 -2.656 0.996 -2.656 0.046 84.205
6439.333 0.047 84.213 0.996 -2.707 0.996 -2.707 0.047 84.213
6464.292 0.048 84.219 0.996 -2.758 0.996 -2.758 0.048 84.219
6489.25 0.049 84.223 0.996 -2.809 0.996 -2.809 0.049 84.223
6514.208 0.05 84.225 0.996 -2.859 0.996 -2.859 0.05 84.225
6539.167 0.051 84.225 0.996 -2.91 0.996 -2.91 0.051 84.225
6564.125 0.052 84.224 0.996 -2.96 0.996 -2.96 0.052 84.224
6589.083 0.053 84.22 0.996 -3.01 0.996 -3.01 0.053 84.22
6614.042 0.053 84.216 0.996 -3.06 0.996 -3.06 0.053 84.216
6639 0.054 84.21 0.996 -3.11 0.996 -3.11 0.054 84.21
6663.958 0.055 84.202 0.996 -3.159 0.996 -3.159 0.055 84.202
6688.917 0.056 84.193 0.996 -3.209 0.996 -3.209 0.056 84.193
6713.875 0.057 84.183 0.996 -3.258 0.996 -3.258 0.057 84.183
6738.833 0.058 84.172 0.996 -3.307 0.996 -3.307 0.058 84.172
6763.792 0.059 84.16 0.996 -3.356 0.996 -3.356 0.059 84.16
6788.75 0.059 84.147 0.996 -3.405 0.996 -3.405 0.059 84.147
6813.708 0.06 84.133 0.996 -3.454 0.996 -3.454 0.06 84.133
6838.667 0.061 84.118 0.996 -3.503 0.996 -3.503 0.061 84.118
6863.625 0.062 84.102 0.996 -3.551 0.996 -3.551 0.062 84.102
6888.583 0.063 84.085 0.995 -3.6 0.995 -3.6 0.063 84.085
6913.542 0.064 84.067 0.995 -3.648 0.995 -3.648 0.064 84.067
6938.5 0.065 84.049 0.995 -3.696 0.995 -3.696 0.065 84.049
6963.458 0.065 84.03 0.995 -3.744 0.995 -3.744 0.065 84.03
6988.417 0.066 84.01 0.995 -3.792 0.995 -3.792 0.066 84.01
7013.375 0.067 83.99 0.995 -3.839 0.995 -3.839 0.067 83.99
7038.333 0.068 83.969 0.995 -3.887 0.995 -3.887 0.068 83.969
7063.292 0.069 83.947 0.995 -3.934 0.995 -3.934 0.069 83.947
7088.25 0.069 83.925 0.995 -3.982 0.995 -3.982 0.069 83.925
7113.208 0.07 83.903 0.995 -4.029 0.995 -4.029 0.07 83.903
7138.167 0.071 83.88 0.995 -4.076 0.995 -4.076 0.071 83.88
7163.125 0.072 83.856 0.995 -4.123 0.995 -4.123 0.072 83.856
7188.083 0.073 83.832 0.995 -4.17 0.995 -4.17 0.073 83.832
7213.042 0.074 83.807 0.995 -4.217 0.995 -4.217 0.074 83.807
7238 0.074 83.782 0.995 -4.263 0.995 -4.263 0.074 83.782
7262.958 0.075 83.757 0.995 -4.31 0.995 -4.31 0.075 83.757
7287.917 0.076 83.731 0.995 -4.356 0.995 -4.356 0.076 83.731
7312.875 0.077 83.705 0.995 -4.403 0.995 -4.403 0.077 83.705
7337.833 0.078 83.679 0.994 -4.449 0.994 -4.449 0.078 83.679
7362.792 0.078 83.652 0.994 -4.495 0.994 -4.495 0.078 83.652
7387.75 0.079 83.625 0.994 -4.541 0.994 -4.541 0.079 83.625
7412.708 0.08 83.597 0.994 -4.587 0.994 -4.587 0.08 83.597
7437.667 0.081 83.57 0.994 -4.632 0.994 -4.632 0.081 83.57
7462.625 0.082 83.542 0.994 -4.678 0.994 -4.678 0.082 83.542
7487.583 0.082 83.513 0.994 -4.723 0.994 -4.723 0.082 83.513
7512.542 0.083 83.485 0.994 -4.769 0.994 -4.769 0.083 83.485
7537.5 0.084 83.456 0.994 -4.814 0.994 -4.814 0.084 83.456
7562.458 0.085 83.427 0.994 -4.859 0.994 -4.859 0.085 83.427
7587.417 0.086 83.398 0.994 -4.904 0.994 -4.904 0.086 83.398
7612.375 0.086 83.368 0.994 -4.949 0.994 -4.949 0.086 83.368
7637.333 0.087 83.338 0.994 -4.994 0.994 -4.994 0.087 83.338
7662.292 0.088 83.308 0.994 -5.039 0.994 -5.039 0.088 83.308
7687.25 0.089 83.278 0.994 -5.084 0.994 -5.084 0.089 83.278
7712.208 0.089 83.248 0.993 -5.128 0.993 -5.128 0.089 83.248
7737.167 0.09 83.218 0.993 -5.173 0.993 -5.173 0.09 83.218
7762.125 0.091 83.187 0.993 -5.217 0.993 -5.217 0.091 83.187
7787.083 0.092 83.156 0.993 -5.262 0.993 -5.262 0.092 83.156
7812.042 0.093 83.125 0.993 -5.306 0.993 -5.306 0.093 83.125
7837 0.093 83.094 0.993 -5.35 0.993 -5.35 0.093 83.094
7861.958 0.094 83.063 0.993 -5.394 0.993 -5.394 0.094 83.063
7886.917 0.095 83.031 0.993 -5.438 0.993 -5.438 0.095 83.031
7911.875 0.096 83 0.993 -5.482 0.993 -5.482 0.096 83
7936.833 0.096 82.968 0.993 -5.526 0.993 -5.526 0.096 82.968
7961.792 0.097 82.936 0.993 -5.569 0.993 -5.569 0.097 82.936
7986.75 0.098 82.904 0.993 -5.613 0.993 -5.613 0.098 82.904
8011.708 0.099 82.872 0.993 -5.656 0.993 -5.656 0.099 82.872
8036.667 0.099 82.84 0.993 -5.7 0.993 -5.7 0.099 82.84
8061.625 0.1 82.808 0.992 -5.743 0.992 -5.743 0.1 82.808
8086.583 0.101 82.776 0.992 -5.786 0.992 -5.786 0.101 82.776
8111.542 0.102 82.743 0.992 -5.829 0.992 -5.829 0.102 82.743
8136.5 0.102 82.711 0.992 -5.873 0.992 -5.873 0.102 82.711
8161.458 0.103 82.678 0.992 -5.916 0.992 -5.916 0.103 82.678
8186.417 0.104 82.645 0.992 -5.958 0.992 -5.958 0.104 82.645
8211.375 0.105 82.613 0.992 -6.001 0.992 -6.001 0.105 82.613
8236.333 0.105 82.58 0.992 -6.044 0.992 -6.044 0.105 82.58
