# MHZ S MA R 50

50 0.998 -3.595 0.063 86.394 0.063 86.394 0.998 -3.595
74.958 0.996 -5.382 0.094 84.602 0.094 84.602 0.996 -5.382
99.917 0.992 -7.158 0.125 82.82 0.125 82.82 0.992 -7.158
124.875 0.988 -8.921 0.155 81.052 0.155 81.052 0.988 -8.921
149.833 0.983 -10.668 0.185 79.299 0.185 79.299 0.983 -10.668
174.792 0.977 -12.397 0.215 77.566 0.215 77.566 0.977 -12.397
199.75 0.97 -14.103 0.244 75.854 0.244 75.854 0.97 -14.103
224.708 0.962 -15.786 0.272 74.166 0.272 74.166 0.962 -15.786
249.667 0.954 -17.442 0.3 72.504 0.3 72.504 0.954 -17.442
274.625 0.945 -19.07 0.327 70.87 0.327 70.87 0.945 -19.07
299.583 0.935 -20.668 0.353 69.267 0.353 69.267 0.935 -20.668
324.542 0.925 -22.235 0.378 67.694 0.378 67.694 0.925 -22.235
349.5 0.915 -23.77 0.403 66.155 0.403 66.155 0.915 -23.77
374.458 0.904 -25.27 0.427 64.648 0.427 64.648 0.904 -25.27
399.417 0.892 -26.737 0.45 63.177 0.45 63.177 0.892 -26.737
424.375 0.881 -28.168 0.472 61.74 0.472 61.74 0.881 -28.168
449.333 0.869 -29.564 0.493 60.338 0.493 60.338 0.869 -29.564
474.292 0.857 -30.925 0.514 58.972 0.514 58.972 0.857 -30.925
499.25 0.845 -32.25 0.534 57.641 0.534 57.641 0.845 -32.25
524.208 0.832 -33.54 0.553 56.346 0.553 56.346 0.832 -33.54
549.167 0.82 -34.794 0.571 55.086 0.571 55.086 0.82 -34.794
574.125 0.808 -36.014 0.588 53.861 0.588 53.861 0.808 -36.014
599.083 0.795 -37.199 0.605 52.67 0.605 52.67 0.795 -37.199
624.042 0.783 -38.351 0.62 51.513 0.62 51.513 0.783 -38.351
649 0.77 -39.469 0.636 50.389 0.636 50.389 0.77 -39.469
673.958 0.758 -40.555 0.65 49.297 0.65 49.297 0.758 -40.555
698.917 0.746 -41.61 0.664 48.237 0.664 48.237 0.746 -41.61
723.875 0.734 -42.633 0.677 47.208 0.677 47.208 0.734 -42.633
748.833 0.722 -43.626 0.69 46.21 0.69 46.21 0.722 -43.626
773.792 0.71 -44.59 0.702 45.24 0.702 45.24 0.71 -44.59
798.75 0.698 -45.525 0.714 44.299 0.714 44.299 0.698 -45.525
823.708 0.687 -46.432 0.725 43.386 0.725 43.386 0.687 -46.432
848.667 0.676 -47.313 0.735 42.5 0.735 42.5 0.676 -47.313
873.625 0.664 -48.168 0.745 41.639 0.745 41.639 0.664 -48.168
898.583 0.653 -48.997 0.755 40.804 0.755 40.804 0.653 -48.997
923.542 0.643 -49.802 0.764 39.993 0.764 39.993 0.643 -49.802
948.5 0.632 -50.584 0.773 39.206 0.773 39.206 0.632 -50.584
973.458 0.622 -51.343 0.781 38.441 0.781 38.441 0.622 -51.343
998.417 0.612 -52.08 0.789 37.698 0.789 37.698 0.612 -52.08
1023.375 0.601 -52.796 0.796 36.977 0.796 36.977 0.601 -52.796
1048.333 0.592 -53.491 0.804 36.275 0.804 36.275 0.592 -53.491
1073.292 0.582 -54.167 0.811 35.594 0.811 35.594 0.582 -54.167
1098.25 0.573 -54.823 0.817 34.931 0.817 34.931 0.573 -54.823
1123.208 0.563 -55.462 0.824 34.287 0.824 34.287 0.563 -55.462
1148.167 0.554 -56.082 0.83 33.661 0.83 33.661 0.554 -56.082
1173.125 0.545 -56.685 0.836 33.051 0.836 33.051 0.545 -56.685
1198.083 0.537 -57.272 0.841 32.458 0.841 32.458 0.537 -57.272
1223.042 0.528 -57.844 0.847 31.881 0.847 31.881 0.528 -57.844
1248 0.52 -58.399 0.852 31.319 0.852 31.319 0.52 -58.399
1272.958 0.512 -58.94 0.857 30.772 0.857 30.772 0.512 -58.94
1297.917 0.504 -59.467 0.861 30.239 0.861 30.239 0.504 -59.467
1322.875 0.496 -59.98 0.866 29.72 0.866 29.72 0.496 -59.98
1347.833 0.488 -60.48 0.87 29.214 0.87 29.214 0.488 -60.48
1372.792 0.481 -60.967 0.874 28.72 0.874 28.72 0.481 -60.967
1397.75 0.473 -61.441 0.878 28.239 0.878 28.239 0.473 -61.441
1422.708 0.466 -61.904 0.882 27.77 0.882 27.77 0.466 -61.904
1447.667 0.459 -62.355 0.886 27.313 0.886 27.313 0.459 -62.355
1472.625 0.452 -62.796 0.889 26.866 0.889 26.866 0.452 -62.796
1497.583 0.445 -63.225 0.893 26.43 0.893 26.43 0.445 -63.225
1522.542 0.438 -63.644 0.896 26.005 0.896 26.005 0.438 -63.644
1547.5 0.432 -64.053 0.899 25.589 0.899 25.589 0.432 -64.053
1572.458 0.426 -64.453 0.902 25.183 0.902 25.183 0.426 -64.453
1597.417 0.419 -64.843 0.905 24.786 0.905 24.786 0.419 -64.843
1622.375 0.413 -65.224 0.908 24.398 0.908 24.398 0.413 -65.224
1647.333 0.407 -65.596 0.911 24.019 0.911 24.019 0.407 -65.596
1672.292 0.401 -65.96 0.913 23.648 0.913 23.648 0.401 -65.96
1697.25 0.395 -66.316 0.916 23.286 0.916 23.286 0.395 -66.316
1722.208 0.39 -66.664 0.918 22.931 0.918 22.931 0.39 -66.664
1747.167 0.384 -67.004 0.921 22.584 0.921 22.584 0.384 -67.004
1772.125 0.379 -67.337 0.923 22.244 0.923 22.244 0.379 -67.337
1797.083 0.373 -67.663 0.925 21.911 0.925 21.911 0.373 -67.663
1822.042 0.368 -67.981 0.927 21.585 0.927 21.585 0.368 -67.981
1847 0.363 -68.294 0.929 21.266 0.929 21.266 0.363 -68.294
1871.958 0.358 -68.599 0.931 20.953 0.931 20.953 0.358 -68.599
1896.917 0.353 -68.898 0.933 20.647 0.933 20.647 0.353 -68.898
1921.875 0.348 -69.191 0.935 20.346 0.935 20.346 0.348 -69.191
1946.833 0.343 -69.479 0.937 20.052 0.937 20.052 0.343 -69.479
1971.792 0.338 -69.76 0.938 19.763 0.938 19.763 0.338 -69.76
1996.75 0.333 -70.036 0.94 19.479 0.94 19.479 0.333 -70.036
2021.708 0.329 -70.306 0.942 19.201 0.942 19.201 0.329 -70.306
2046.667 0.324 -70.572 0.943 18.929 0.943 18.929 0.324 -70.572
2071.625 0.32 -70.832 0.945 18.661 0.945 18.661 0.32 -70.832
2096.583 0.316 -71.087 0.946 18.398 0.946 18.398 0.316 -71.087
2121.542 0.311 -71.337 0.947 18.14 0.947 18.14 0.311 -71.337
2146.5 0.307 -71.583 0.949 17.886 0.949 17.886 0.307 -71.583
2171.458 0.303 -71.824 0.95 17.637 0.95 17.637 0.303 -71.824
2196.417 0.299 -72.061 0.951 17.392 0.951 17.392 0.299 -72.061
2221.375 0.295 -72.293 0.953 17.152 0.953 17.152 0.295 -72.293
2246.333 0.291 -72.521 0.954 16.915 0.954 16.915 0.291 -72.521
2271.292 0.287 -72.745 0.955 16.683 0.955 16.683 0.287 -72.745
2296.25 0.283 -72.965 0.956 16.454 0.956 16.454 0.283 -72.965
2321.208 0.279 -73.182 0.957 16.229 0.957 16.229 0.279 -73.182
2346.167 0.276 -73.394 0.958 16.008 0.958 16.008 0.276 -73.394
2371.125 0.272 -73.603 0.959 15.791 0.959 15.791 0.272 -73.603
2396.083 0.269 -73.808 0.96 15.577 0.96 15.577 0.269 -73.808
2421.042 0.265 -74.01 0.961 15.366 0.961 15.366 0.265 -74.01
2446 0.262 -74.209 0.962 15.159 0.962 15.159 0.262 -74.209
2470.958 0.258 -74.404 0.963 14.954 0.963 14.954 0.258 -74.404
2495.917 0.255 -74.596 0.964 14.753 0.964 14.753 0.255 -74.596
2520.875 0.251 -74.785 0.965 14.555 0.965 14.555 0.251 -74.785
2545.833 0.248 -74.97 0.966 14.36 0.966 14.36 0.248 -74.97
2570.792 0.245 -75.153 0.967 14.168 0.967 14.168 0.245 -75.153
2595.75 0.242 -75.333 0.967 13.979 0.967 13.979 0.242 -75.333
2620.708 0.238 -75.51 0.968 13.792 0.968 13.792 0.238 -75.51
2645.667 0.235 -75.684 0.969 13.608 0.969 13.608 0.235 -75.684
2670.625 0.232 -75.855 0.97 13.427 0.97 13.427 0.232 -75.855
2695.583 0.229 -76.024 0.97 13.248 0.97 13.248 0.229 -76.024
2720.542 0.226 -76.19 0.971 13.072 0.971 13.072 0.226 -76.19
2745.5 0.223 -76.354 0.972 12.898 0.972 12.898 0.223 -76.354
2770.458 0.22 -76.515 0.973 12.726 0.973 12.726 0.22 -76.515
2795.417 0.217 -76.673 0.973 12.557 0.973 12.557 0.217 -76.673
2820.375 0.215 -76.83 0.974 12.39 0.974 12.39 0.215 -76.83
2845.333 0.212 -76.984 0.974 12.225 0.974 12.225 0.212 -76.984
2870.292 0.209 -77.135 0.975 12.063 0.975 12.063 0.209 -77.135
2895.25 0.206 -77.285 0.976 11.902 0.976 11.902 0.206 -77.285
2920.208 0.204 -77.432 0.976 11.744 0.976 11.744 0.204 -77.432
2945.167 0.201 -77.577 0.977 11.587 0.977 11.587 0.201 -77.577
2970.125 0.198 -77.72 0.977 11.433 0.977 11.433 0.198 -77.72
2995.083 0.196 -77.861 0.978 11.28 0.978 11.28 0.196 -77.861
3020.042 0.193 -78 0.978 11.129 0.978 11.129 0.193 -78
3045 0.19 -78.136 0.979 10.98 0.979 10.98 0.19 -78.136
3069.958 0.188 -78.271 0.979 10.833 0.979 10.833 0.188 -78.271
3094.917 0.185 -78.404 0.98 10.688 0.98 10.688 0.185 -78.404
3119.875 0.183 -78.535 0.98 10.544 0.98 10.544 0.183 -78.535
3144.833 0.181 -78.664 0.981 10.402 0.981 10.402 0.181 -78.664
3169.792 0.178 -78.792 0.981 10.262 0.981 10.262 0.178 -78.792
3194.75 0.176 -78.917 0.981 10.123 0.981 10.123 0.176 -78.917
3219.708 0.173 -79.041 0.982 9.986 0.982 9.986 0.173 -79.041
3244.667 0.171 -79.163 0.982 9.85 0.982 9.85 0.171 -79.163
3269.625 0.169 -79.283 0.983 9.716 0.983 9.716 0.169 -79.283
3294.583 0.167 -79.402 0.983 9.583 0.983 9.583 0.167 -79.402
3319.542 0.164 -79.519 0.983 9.452 0.983 9.452 0.164 -79.519
3344.5 0.162 -79.634 0.984 9.322 0.984 9.322 0.162 -79.634
3369.458 0.16 -79.748 0.984 9.193 0.984 9.193 0.16 -79.748
3394.417 0.158 -79.86 0.985 9.066 0.985 9.066 0.158 -79.86
3419.375 0.155 -79.97 0.985 8.94 0.985 8.94 0.155 -79.97
3444.333 0.153 -80.079 0.985 8.816 0.985 8.816 0.153 -80.079
3469.292 0.151 -80.187 0.986 8.693 0.986 8.693 0.151 -80.187
3494.25 0.149 -80.292 0.986 8.57 0.986 8.57 0.149 -80.292
3519.208 0.147 -80.397 0.986 8.45 0.986 8.45 0.147 -80.397
3544.167 0.145 -80.5 0.986 8.33 0.986 8.33 0.145 -80.5
3569.125 0.143 -80.601 0.987 8.212 0.987 8.212 0.143 -80.601
3594.083 0.141 -80.701 0.987 8.094 0.987 8.094 0.141 -80.701
3619.042 0.139 -80.799 0.987 7.978 0.987 7.978 0.139 -80.799
3644 0.137 -80.896 0.988 7.863 0.988 7.863 0.137 -80.896
3668.958 0.135 -80.992 0.988 7.749 0.988 7.749 0.135 -80.992
3693.917 0.133 -81.086 0.988 7.636 0.988 7.636 0.133 -81.086
3718.875 0.131 -81.178 0.988 7.524 0.988 7.524 0.131 -81.178
3743.833 0.129 -81.269 0.989 7.414 0.989 7.414 0.129 -81.269
3768.792 0.127 -81.359 0.989 7.304 0.989 7.304 0.127 -81.359
3793.75 0.125 -81.448 0.989 7.195 0.989 7.195 0.125 -81.448
3818.708 0.123 -81.535 0.989 7.087 0.989 7.087 0.123 -81.535
3843.667 0.122 -81.62 0.99 6.98 0.99 6.98 0.122 -81.62
3868.625 0.12 -81.704 0.99 6.874 0.99 6.874 0.12 -81.704
3893.583 0.118 -81.787 0.99 6.769 0.99 6.769 0.118 -81.787
3918.542 0.116 -81.869 0.99 6.665 0.99 6.665 0.116 -81.869
3943.5 0.114 -81.949 0.99 6.562 0.99 6.562 0.114 -81.949
3968.458 0.113 -82.027 0.991 6.459 0.991 6.459 0.113 -82.027
3993.417 0.111 -82.104 0.991 6.358 0.991 6.358 0.111 -82.104
4018.375 0.109 -82.18 0.991 6.257 0.991 6.257 0.109 -82.18
4043.333 0.107 -82.255 0.991 6.157 0.991 6.157 0.107 -82.255
4068.292 0.106 -82.327 0.991 6.058 0.991 6.058 0.106 -82.327
4093.25 0.104 -82.399 0.992 5.96 0.992 5.96 0.104 -82.399
4118.208 0.102 -82.469 0.992 5.862 0.992 5.862 0.102 -82.469
4143.167 0.101 -82.538 0.992 5.766 0.992 5.766 0.101 -82.538
4168.125 0.099 -82.605 0.992 5.67 0.992 5.67 0.099 -82.605
4193.083 0.097 -82.67 0.992 5.574 0.992 5.574 0.097 -82.67
4218.042 0.096 -82.734 0.992 5.48 0.992 5.48 0.096 -82.734
4243 0.094 -82.797 0.993 5.386 0.993 5.386 0.094 -82.797
4267.958 0.092 -82.858 0.993 5.293 0.993 5.293 0.092 -82.858
4292.917 0.091 -82.917 0.993 5.201 0.993 5.201 0.091 -82.917
4317.875 0.089 -82.975 0.993 5.109 0.993 5.109 0.089 -82.975
4342.833 0.088 -83.031 0.993 5.018 0.993 5.018 0.088 -83.031
4367.792 0.086 -83.085 0.993 4.927 0.993 4.927 0.086 -83.085
4392.75 0.084 -83.138 0.993 4.838 0.993 4.838 0.084 -83.138
4417.708 0.083 -83.189 0.994 4.749 0.994 4.749 0.083 -83.189
4442.667 0.081 -83.238 0.994 4.66 0.994 4.66 0.081 -83.238
4467.625 0.08 -83.286 0.994 4.572 0.994 4.572 0.08 -83.286
4492.583 0.078 -83.331 0.994 4.485 0.994 4.485 0.078 -83.331
4517.542 0.077 -83.374 0.994 4.398 0.994 4.398 0.077 -83.374
4542.5 0.075 -83.416 0.994 4.312 0.994 4.312 0.075 -83.416
4567.458 0.074 -83.455 0.994 4.227 0.994 4.227 0.074 -83.455
4592.417 0.072 -83.493 0.994 4.142 0.994 4.142 0.072 -83.493
4617.375 0.071 -83.528 0.995 4.058 0.995 4.058 0.071 -83.528
4642.333 0.069 -83.56 0.995 3.974 0.995 3.974 0.069 -83.56
4667.292 0.068 -83.591 0.995 3.891 0.995 3.891 0.068 -83.591
4692.25 0.066 -83.619 0.995 3.808 0.995 3.808 0.066 -83.619
4717.208 0.065 -83.644 0.995 3.726 0.995 3.726 0.065 -83.644
4742.167 0.064 -83.667 0.995 3.644 0.995 3.644 0.064 -83.667
4767.125 0.062 -83.687 0.995 3.563 0.995 3.563 0.062 -83.687
4792.083 0.061 -83.703 0.995 3.483 0.995 3.483 0.061 -83.703
4817.042 0.059 -83.717 0.995 3.403 0.995 3.403 0.059 -83.717
4842 0.058 -83.728 0.995 3.323 0.995 3.323 0.058 -83.728
4866.958 0.057 -83.735 0.995 3.244 0.995 3.244 0.057 -83.735
4891.917 0.055 -83.739 0.995 3.165 0.995 3.165 0.055 -83.739
4916.875 0.054 -83.738 0.996 3.087 0.996 3.087 0.054 -83.738
4941.833 0.053 -83.734 0.996 3.009 0.996 3.009 0.053 -83.734
4966.792 0.051 -83.726 0.996 2.932 0.996 2.932 0.051 -83.726
4991.75 0.05 -83.712 0.996 2.855 0.996 2.855 0.05 -83.712
5016.708 0.049 -83.695 0.996 2.779 0.996 2.779 0.049 -83.695
5041.667 0.047 -83.672 0.996 2.703 0.996 2.703 0.047 -83.672
5066.625 0.046 -83.643 0.996 2.627 0.996 2.627 0.046 -83.643
5091.583 0.045 -83.609 0.996 2.552 0.996 2.552 0.045 -83.609
5116.542 0.043 -83.568 0.996 2.478 0.996 2.478 0.043 -83.568
5141.5 0.042 -83.52 0.996 2.403 0.996 2.403 0.042 -83.52
5166.458 0.041 -83.465 0.996 2.33 0.996 2.33 0.041 -83.465
5191.417 0.039 -83.402 0.996 2.256 0.996 2.256 0.039 -83.402
5216.375 0.038 -83.33 0.996 2.183 0.996 2.183 0.038 -83.33
5241.333 0.037 -83.249 0.996 2.11 0.996 2.11 0.037 -83.249
5266.292 0.036 -83.157 0.996 2.038 0.996 2.038 0.036 -83.157
5291.25 0.034 -83.054 0.996 1.966 0.996 1.966 0.034 -83.054
5316.208 0.033 -82.939 0.996 1.895 0.996 1.895 0.033 -82.939
5341.167 0.032 -82.809 0.997 1.824 0.997 1.824 0.032 -82.809
5366.125 0.031 -82.665 0.997 1.753 0.997 1.753 0.031 -82.665
5391.083 0.03 -82.503 0.997 1.683 0.997 1.683 0.03 -82.503
5416.042 0.028 -82.322 0.997 1.613 0.997 1.613 0.028 -82.322
5441 0.027 -82.12 0.997 1.543 0.997 1.543 0.027 -82.12
5465.958 0.026 -81.893 0.997 1.473 0.997 1.473 0.026 -81.893
5490.917 0.025 -81.639 0.997 1.404 0.997 1.404 0.025 -81.639
5515.875 0.024 -81.354 0.997 1.336 0.997 1.336 0.024 -81.354
5540.833 0.022 -81.033 0.997 1.267 0.997 1.267 0.022 -81.033
5565.792 0.021 -80.67 0.997 1.199 0.997 1.199 0.021 -80.67
5590.75 0.02 -80.258 0.997 1.132 0.997 1.132 0.02 -80.258
5615.708 0.019 -79.79 0.997 1.064 0.997 1.064 0.019 -79.79
5640.667 0.018 -79.253 0.997 0.997 0.997 0.997 0.018 -79.253
5665.625 0.017 -78.636 0.997 0.931 0.997 0.931 0.017 -78.636
5690.583 0.015 -77.92 0.997 0.864 0.997 0.864 0.015 -77.92
5715.542 0.014 -77.083 0.997 0.798 0.997 0.798 0.014 -77.083
5740.5 0.013 -76.096 0.997 0.732 0.997 0.732 0.013 -76.096
5765.458 0.012 -74.919 0.997 0.667 0.997 0.667 0.012 -74.919
5790.417 0.011 -73.497 0.997 0.602 0.997 0.602 0.011 -73.497
5815.375 9.832e-3 -71.752 0.997 0.537 0.997 0.537 9.832e-3 -71.752
5840.333 8.764e-3 -69.572 0.997 0.472 0.997 0.472 8.764e-3 -69.572
5865.292 7.718e-3 -66.789 0.997 0.408 0.997 0.408 7.718e-3 -66.789
5890.25 6.701e-3 -63.144 0.997 0.344 0.997 0.344 6.701e-3 -63.144
5915.208 5.726e-3 -58.228 0.997 0.28 0.997 0.28 5.726e-3 -58.228
5940.167 4.816e-3 -51.382 0.997 0.216 0.997 0.216 4.816e-3 -51.382
5965.125 4.009e-3 -41.596 0.997 0.153 0.997 0.153 4.009e-3 -41.596
5990.083 3.378e-3 -27.606 0.997 0.09 0.997 0.09 3.378e-3 -27.606
6015.042 3.029e-3 -9.001 0.997 0.027 0.997 0.027 3.029e-3 -9.001
6040 3.054e-3 11.584 0.997 -0.035 0.997 -0.035 3.054e-3 11.584
6064.958 3.441e-3 29.527 0.997 -0.097 0.997 -0.097 3.441e-3 29.527
6089.917 4.085e-3 42.769 0.997 -0.159 0.997 -0.159 4.085e-3 42.769
6114.875 4.883e-3 52.002 0.997 -0.221 0.997 -0.221 4.883e-3 52.002
6139.833 5.768e-3 58.482 0.997 -0.283 0.997 -0.283 5.768e-3 58.482
6164.792 6.705e-3 63.161 0.997 -0.344 0.997 -0.344 6.705e-3 63.161
6189.75 7.672e-3 66.648 0.997 -0.405 0.997 -0.405 7.672e-3 66.648
6214.708 8.658e-3 69.323 0.997 -0.466 0.997 -0.466 8.658e-3 69.323
6239.667 9.656e-3 71.428 0.997 -0.526 0.997 -0.526 9.656e-3 71.428
6264.625 0.011 73.119 0.997 -0.586 0.997 -0.586 0.011 73.119
6289.583 0.012 74.503 0.997 -0.646 0.997 -0.646 0.012 74.503
6314.542 0.013 75.652 0.997 -0.706 0.997 -0.706 0.013 75.652
6339.5 0.014 76.618 0.997 -0.766 0.997 -0.766 0.014 76.618
6364.458 0.015 77.441 0.997 -0.825 0.997 -0.825 0.015 77.441
6389.417 0.016 78.147 0.997 -0.884 0.997 -0.884 0.016 78.147
6414.375 0.017 78.758 0.997 -0.943 0.997 -0.943 0.017 78.758
6439.333 0.018 79.291 0.997 -1.002 0.997 -1.002 0.018 79.291
6464.292 0.019 79.759 0.997 -1.06 0.997 -1.06 0.019 79.759
6489.25 0.02 80.171 0.997 -1.119 0.997 -1.119 0.02 80.171
6514.208 0.021 80.537 0.997 -1.177 0.997 -1.177 0.021 80.537
6539.167 0.022 80.863 0.997 -1.234 0.997 -1.234 0.022 80.863
6564.125 0.023 81.153 0.997 -1.292 0.997 -1.292 0.023 81.153
6589.083 0.024 81.414 0.997 -1.35 0.997 -1.35 0.024 81.414
6614.042 0.025 81.649 0.997 -1.407 0.997 -1.407 0.025 81.649
6639 0.026 81.86 0.997 -1.464 0.997 -1.464 0.026 81.86
6663.958 0.027 82.051 0.997 -1.521 0.997 -1.521 0.027 82.051
6688.917 0.028 82.223 0.997 -1.577 0.997 -1.577 0.028 82.223
6713.875 0.029 82.379 0.997 -1.634 0.997 -1.634 0.029 82.379
6738.833 0.03 82.521 0.997 -1.69 0.997 -1.69 0.03 82.521
6763.792 0.031 82.65 0.997 -1.746 0.997 -1.746 0.031 82.65
6788.75 0.032 82.767 0.997 -1.802 0.997 -1.802 0.032 82.767
6813.708 0.033 82.873 0.996 -1.858 0.996 -1.858 0.033 82.873
6838.667 0.034 82.97 0.996 -1.913 0.996 -1.913 0.034 82.97
6863.625 0.034 83.058 0.996 -1.969 0.996 -1.969 0.034 83.058
6888.583 0.035 83.138 0.996 -2.024 0.996 -2.024 0.035 83.138
6913.542 0.036 83.21 0.996 -2.079 0.996 -2.079 0.036 83.21
6938.5 0.037 83.276 0.996 -2.134 0.996 -2.134 0.037 83.276
6963.458 0.038 83.336 0.996 -2.188 0.996 -2.188 0.038 83.336
6988.417 0.039 83.39 0.996 -2.243 0.996 -2.243 0.039 83.39
7013.375 0.04 83.438 0.996 -2.297 0.996 -2.297 0.04 83.438
7038.333 0.041 83.482 0.996 -2.351 0.996 -2.351 0.041 83.482
7063.292 0.042 83.521 0.996 -2.405 0.996 -2.405 0.042 83.521
7088.25 0.043 83.556 0.996 -2.459 0.996 -2.459 0.043 83.556
7113.208 0.044 83.588 0.996 -2.513 0.996 -2.513 0.044 83.588
7138.167 0.045 83.615 0.996 -2.566 0.996 -2.566 0.045 83.615
7163.125 0.046 83.64 0.996 -2.619 0.996 -2.619 0.046 83.64
7188.083 0.047 83.661 0.996 -2.673 0.996 -2.673 0.047 83.661
7213.042 0.048 83.679 0.996 -2.726 0.996 -2.726 0.048 83.679
7238 0.049 83.695 0.996 -2.779 0.996 -2.779 0.049 83.695
7262.958 0.049 83.707 0.996 -2.831 0.996 -2.831 0.049 83.707
7287.917 0.05 83.718 0.996 -2.884 0.996 -2.884 0.05 83.718
7312.875 0.051 83.726 0.996 -2.936 0.996 -2.936 0.051 83.726
7337.833 0.052 83.732 0.996 -2.988 0.996 -2.988 0.052 83.732
7362.792 0.053 83.736 0.996 -3.041 0.996 -3.041 0.053 83.736
7387.75 0.054 83.738 0.996 -3.092 0.996 -3.092 0.054 83.738
7412.708 0.055 83.739 0.996 -3.144 0.996 -3.144 0.055 83.739
7437.667 0.056 83.738 0.995 -3.196 0.995 -3.196 0.056 83.738
7462.625 0.057 83.735 0.995 -3.247 0.995 -3.247 0.057 83.735
7487.583 0.058 83.73 0.995 -3.299 0.995 -3.299 0.058 83.73
7512.542 0.059 83.725 0.995 -3.35 0.995 -3.35 0.059 83.725
7537.5 0.059 83.717 0.995 -3.401 0.995 -3.401 0.059 83.717
7562.458 0.06 83.709 0.995 -3.452 0.995 -3.452 0.06 83.709
7587.417 0.061 83.699 0.995 -3.503 0.995 -3.503 0.061 83.699
7612.375 0.062 83.689 0.995 -3.554 0.995 -3.554 0.062 83.689
7637.333 0.063 83.677 0.995 -3.604 0.995 -3.604 0.063 83.677
7662.292 0.064 83.664 0.995 -3.655 0.995 -3.655 0.064 83.664
7687.25 0.065 83.65 0.995 -3.705 0.995 -3.705 0.065 83.65
7712.208 0.066 83.635 0.995 -3.755 0.995 -3.755 0.066 83.635
7737.167 0.066 83.62 0.995 -3.805 0.995 -3.805 0.066 83.62
7762.125 0.067 83.603 0.995 -3.855 0.995 -3.855 0.067 83.603
7787.083 0.068 83.586 0.995 -3.905 0.995 -3.905 0.068 83.586
7812.042 0.069 83.568 0.995 -3.955 0.995 -3.955 0.069 83.568
7837 0.07 83.549 0.995 -4.004 0.995 -4.004 0.07 83.549
7861.958 0.071 83.529 0.995 -4.054 0.995 -4.054 0.071 83.529
7886.917 0.072 83.509 0.994 -4.103 0.994 -4.103 0.072 83.509
7911.875 0.072 83.488 0.994 -4.152 0.994 -4.152 0.072 83.488
7936.833 0.073 83.467 0.994 -4.201 0.994 -4.201 0.073 83.467
7961.792 0.074 83.445 0.994 -4.25 0.994 -4.25 0.074 83.445
7986.75 0.075 83.422 0.994 -4.299 0.994 -4.299 0.075 83.422
8011.708 0.076 83.399 0.994 -4.347 0.994 -4.347 0.076 83.399
8036.667 0.077 83.376 0.994 -4.396 0.994 -4.396 0.077 83.376
8061.625 0.078 83.352 0.994 -4.445 0.994 -4.445 0.078 83.352
8086.583 0.078 83.327 0.994 -4.493 0.994 -4.493 0.078 83.327
8111.542 0.079 83.302 0.994 -4.541 0.994 -4.541 0.079 83.302
8136.5 0.08 83.277 0.994 -4.589 0.994 -4.589 0.08 83.277
8161.458 0.081 83.251 0.994 -4.637 0.994 -4.637 0.081 83.251
8186.417 0.082 83.224 0.994 -4.685 0.994 -4.685 0.082 83.224
8211.375 0.083 83.198 0.994 -4.733 0.994 -4.733 0.083 83.198
