# MHZ S MA R 50

50 0.994 -6.097 0.106 83.888 0.106 83.888 0.994 -6.097
74.958 0.987 -9.1 0.158 80.879 0.158 80.879 0.987 -9.1
99.917 0.978 -12.053 0.209 77.918 0.209 77.918 0.978 -12.053
124.875 0.966 -14.945 0.258 75.019 0.258 75.019 0.966 -14.945
149.833 0.952 -17.763 0.305 72.194 0.305 72.194 0.952 -17.763
174.792 0.936 -20.498 0.35 69.453 0.35 69.453 0.936 -20.498
199.75 0.919 -23.14 0.393 66.803 0.393 66.803 0.919 -23.14
224.708 0.901 -25.686 0.433 64.251 0.433 64.251 0.901 -25.686
249.667 0.881 -28.13 0.471 61.799 0.471 61.799 0.881 -28.13
274.625 0.861 -30.471 0.507 59.451 0.507 59.451 0.861 -30.471
299.583 0.841 -32.708 0.54 57.207 0.54 57.207 0.841 -32.708
324.542 0.82 -34.841 0.571 55.067 0.571 55.067 0.82 -34.841
349.5 0.799 -36.873 0.6 53.027 0.6 53.027 0.799 -36.873
374.458 0.778 -38.807 0.627 51.087 0.627 51.087 0.778 -38.807
399.417 0.757 -40.644 0.651 49.242 0.651 49.242 0.757 -40.644
424.375 0.737 -42.39 0.674 47.489 0.674 47.489 0.737 -42.39
449.333 0.717 -44.047 0.695 45.825 0.695 45.825 0.717 -44.047
474.292 0.698 -45.62 0.715 44.244 0.715 44.244 0.698 -45.62
499.25 0.679 -47.114 0.733 42.743 0.733 42.743 0.679 -47.114
524.208 0.66 -48.532 0.749 41.317 0.749 41.317 0.66 -48.532
549.167 0.642 -49.879 0.765 39.963 0.765 39.963 0.642 -49.879
574.125 0.625 -51.159 0.779 38.676 0.779 38.676 0.625 -51.159
599.083 0.608 -52.375 0.792 37.453 0.792 37.453 0.608 -52.375
624.042 0.592 -53.531 0.804 36.289 0.804 36.289 0.592 -53.531
649 0.576 -54.632 0.815 35.181 0.815 35.181 0.576 -54.632
673.958 0.561 -55.679 0.826 34.126 0.826 34.126 0.561 -55.679
698.917 0.546 -56.677 0.836 33.121 0.836 33.121 0.546 -56.677
723.875 0.532 -57.628 0.845 32.162 0.845 32.162 0.532 -57.628
748.833 0.519 -58.536 0.853 31.247 0.853 31.247 0.519 -58.536
773.792 0.506 -59.402 0.861 30.372 0.861 30.372 0.506 -59.402
798.75 0.493 -60.23 0.868 29.537 0.868 29.537 0.493 -60.23
823.708 0.481 -61.021 0.875 28.738 0.875 28.738 0.481 -61.021
848.667 0.469 -61.778 0.881 27.973 0.881 27.973 0.469 -61.778
873.625 0.458 -62.503 0.887 27.24 0.887 27.24 0.458 -62.503
898.583 0.447 -63.198 0.893 26.538 0.893 26.538 0.447 -63.198
923.542 0.436 -63.863 0.898 25.864 0.898 25.864 0.436 -63.863
948.5 0.426 -64.502 0.903 25.217 0.903 25.217 0.426 -64.502
973.458 0.416 -65.116 0.907 24.595 0.907 24.595 0.416 -65.116
998.417 0.407 -65.706 0.911 23.998 0.911 23.998 0.407 -65.706
1023.375 0.398 -66.272 0.915 23.423 0.915 23.423 0.398 -66.272
1048.333 0.389 -66.818 0.919 22.869 0.919 22.869 0.389 -66.818
1073.292 0.38 -67.343 0.923 22.336 0.923 22.336 0.38 -67.343
1098.25 0.372 -67.849 0.926 21.821 0.926 21.821 0.372 -67.849
1123.208 0.364 -68.337 0.929 21.325 0.929 21.325 0.364 -68.337
1148.167 0.356 -68.807 0.932 20.846 0.932 20.846 0.356 -68.807
1173.125 0.348 -69.261 0.935 20.384 0.935 20.384 0.348 -69.261
1198.083 0.341 -69.7 0.938 19.936 0.938 19.936 0.341 -69.7
1223.042 0.334 -70.123 0.94 19.504 0.94 19.504 0.334 -70.123
1248 0.327 -70.533 0.943 19.085 0.943 19.085 0.327 -70.533
1272.958 0.32 -70.93 0.945 18.68 0.945 18.68 0.32 -70.93
1297.917 0.314 -71.313 0.947 18.287 0.947 18.287 0.314 -71.313
1322.875 0.307 -71.685 0.949 17.907 0.949 17.907 0.307 -71.685
1347.833 0.301 -72.045 0.951 17.537 0.951 17.537 0.301 -72.045
1372.792 0.295 -72.394 0.953 17.179 0.953 17.179 0.295 -72.394
1397.75 0.29 -72.732 0.955 16.831 0.955 16.831 0.29 -72.732
1422.708 0.284 -73.061 0.957 16.493 0.957 16.493 0.284 -73.061
1447.667 0.278 -73.38 0.958 16.165 0.958 16.165 0.278 -73.38
1472.625 0.273 -73.689 0.96 15.846 0.96 15.846 0.273 -73.689
1497.583 0.268 -73.99 0.961 15.535 0.961 15.535 0.268 -73.99
1522.542 0.263 -74.282 0.963 15.233 0.963 15.233 0.263 -74.282
1547.5 0.258 -74.567 0.964 14.938 0.964 14.938 0.258 -74.567
1572.458 0.253 -74.844 0.965 14.651 0.965 14.651 0.253 -74.844
1597.417 0.248 -75.113 0.966 14.372 0.966 14.372 0.248 -75.113
1622.375 0.244 -75.375 0.968 14.099 0.968 14.099 0.244 -75.375
1647.333 0.239 -75.63 0.969 13.834 0.969 13.834 0.239 -75.63
1672.292 0.235 -75.879 0.97 13.574 0.97 13.574 0.235 -75.879
1697.25 0.23 -76.121 0.971 13.321 0.971 13.321 0.23 -76.121
1722.208 0.226 -76.358 0.972 13.074 0.972 13.074 0.226 -76.358
1747.167 0.222 -76.588 0.973 12.832 0.973 12.832 0.222 -76.588
1772.125 0.218 -76.813 0.974 12.596 0.974 12.596 0.218 -76.813
1797.083 0.214 -77.032 0.975 12.366 0.975 12.366 0.214 -77.032
1822.042 0.21 -77.246 0.975 12.14 0.975 12.14 0.21 -77.246
1847 0.207 -77.455 0.976 11.919 0.976 11.919 0.207 -77.455
1871.958 0.203 -77.659 0.977 11.703 0.977 11.703 0.203 -77.659
1896.917 0.199 -77.859 0.978 11.492 0.978 11.492 0.199 -77.859
1921.875 0.196 -78.054 0.978 11.284 0.978 11.284 0.196 -78.054
1946.833 0.192 -78.244 0.979 11.081 0.979 11.081 0.192 -78.244
1971.792 0.189 -78.43 0.98 10.883 0.98 10.883 0.189 -78.43
1996.75 0.185 -78.613 0.98 10.688 0.98 10.688 0.185 -78.613
2021.708 0.182 -78.791 0.981 10.497 0.981 10.497 0.182 -78.791
2046.667 0.179 -78.965 0.982 10.309 0.982 10.309 0.179 -78.965
2071.625 0.176 -79.135 0.982 10.125 0.982 10.125 0.176 -79.135
2096.583 0.173 -79.302 0.983 9.945 0.983 9.945 0.173 -79.302
2121.542 0.17 -79.465 0.983 9.768 0.983 9.768 0.17 -79.465
2146.5 0.167 -79.625 0.984 9.594 0.984 9.594 0.167 -79.625
2171.458 0.164 -79.781 0.984 9.423 0.984 9.423 0.164 -79.781
2196.417 0.161 -79.934 0.985 9.255 0.985 9.255 0.161 -79.934
2221.375 0.158 -80.084 0.985 9.09 0.985 9.09 0.158 -80.084
2246.333 0.155 -80.231 0.986 8.928 0.986 8.928 0.155 -80.231
2271.292 0.152 -80.375 0.986 8.769 0.986 8.769 0.152 -80.375
2296.25 0.15 -80.516 0.986 8.612 0.986 8.612 0.15 -80.516
2321.208 0.147 -80.654 0.987 8.458 0.987 8.458 0.147 -80.654
2346.167 0.144 -80.789 0.987 8.306 0.987 8.306 0.144 -80.789
2371.125 0.142 -80.922 0.988 8.157 0.988 8.157 0.142 -80.922
2396.083 0.139 -81.052 0.988 8.01 0.988 8.01 0.139 -81.052
2421.042 0.137 -81.179 0.988 7.865 0.988 7.865 0.137 -81.179
2446 0.134 -81.303 0.989 7.723 0.989 7.723 0.134 -81.303
2470.958 0.132 -81.425 0.989 7.583 0.989 7.583 0.132 -81.425
2495.917 0.13 -81.545 0.989 7.444 0.989 7.444 0.13 -81.545
2520.875 0.127 -81.662 0.99 7.308 0.99 7.308 0.127 -81.662
2545.833 0.125 -81.777 0.99 7.174 0.99 7.174 0.125 -81.777
2570.792 0.123 -81.889 0.99 7.042 0.99 7.042 0.123 -81.889
2595.75 0.12 -82 0.99 6.911 0.99 6.911 0.12 -82
2620.708 0.118 -82.107 0.991 6.782 0.991 6.782 0.118 -82.107
2645.667 0.116 -82.213 0.991 6.656 0.991 6.656 0.116 -82.213
2670.625 0.114 -82.316 0.991 6.53 0.991 6.53 0.114 -82.316
2695.583 0.112 -82.417 0.991 6.407 0.991 6.407 0.112 -82.417
2720.542 0.109 -82.516 0.992 6.285 0.992 6.285 0.109 -82.516
2745.5 0.107 -82.613 0.992 6.165 0.992 6.165 0.107 -82.613
2770.458 0.105 -82.708 0.992 6.046 0.992 6.046 0.105 -82.708
2795.417 0.103 -82.8 0.992 5.928 0.992 5.928 0.103 -82.8
2820.375 0.101 -82.89 0.993 5.813 0.993 5.813 0.101 -82.89
2845.333 0.099 -82.978 0.993 5.698 0.993 5.698 0.099 -82.978
2870.292 0.097 -83.065 0.993 5.585 0.993 5.585 0.097 -83.065
2895.25 0.095 -83.149 0.993 5.474 0.993 5.474 0.095 -83.149
2920.208 0.093 -83.23 0.993 5.363 0.993 5.363 0.093 -83.23
2945.167 0.092 -83.31 0.994 5.254 0.994 5.254 0.092 -83.31
2970.125 0.09 -83.388 0.994 5.146 0.994 5.146 0.09 -83.388
2995.083 0.088 -83.463 0.994 5.04 0.994 5.04 0.088 -83.463
3020.042 0.086 -83.536 0.994 4.934 0.994 4.934 0.086 -83.536
3045 0.084 -83.607 0.994 4.83 0.994 4.83 0.084 -83.607
3069.958 0.082 -83.676 0.994 4.727 0.994 4.727 0.082 -83.676
3094.917 0.081 -83.743 0.994 4.625 0.994 4.625 0.081 -83.743
3119.875 0.079 -83.807 0.995 4.524 0.995 4.524 0.079 -83.807
3144.833 0.077 -83.869 0.995 4.425 0.995 4.425 0.077 -83.869
3169.792 0.075 -83.929 0.995 4.326 0.995 4.326 0.075 -83.929
3194.75 0.074 -83.986 0.995 4.228 0.995 4.228 0.074 -83.986
3219.708 0.072 -84.041 0.995 4.131 0.995 4.131 0.072 -84.041
3244.667 0.07 -84.093 0.995 4.036 0.995 4.036 0.07 -84.093
3269.625 0.069 -84.143 0.995 3.941 0.995 3.941 0.069 -84.143
3294.583 0.067 -84.19 0.995 3.847 0.995 3.847 0.067 -84.19
3319.542 0.066 -84.234 0.996 3.754 0.996 3.754 0.066 -84.234
3344.5 0.064 -84.276 0.996 3.662 0.996 3.662 0.064 -84.276
3369.458 0.062 -84.314 0.996 3.57 0.996 3.57 0.062 -84.314
3394.417 0.061 -84.349 0.996 3.48 0.996 3.48 0.061 -84.349
3419.375 0.059 -84.382 0.996 3.39 0.996 3.39 0.059 -84.382
3444.333 0.058 -84.41 0.996 3.302 0.996 3.302 0.058 -84.41
3469.292 0.056 -84.436 0.996 3.214 0.996 3.214 0.056 -84.436
3494.25 0.055 -84.457 0.996 3.127 0.996 3.127 0.055 -84.457
3519.208 0.053 -84.475 0.996 3.04 0.996 3.04 0.053 -84.475
3544.167 0.052 -84.488 0.996 2.955 0.996 2.955 0.052 -84.488
3569.125 0.05 -84.498 0.996 2.87 0.996 2.87 0.05 -84.498
3594.083 0.049 -84.502 0.997 2.785 0.997 2.785 0.049 -84.502
3619.042 0.047 -84.502 0.997 2.702 0.997 2.702 0.047 -84.502
3644 0.046 -84.496 0.997 2.619 0.997 2.619 0.046 -84.496
3668.958 0.044 -84.485 0.997 2.537 0.997 2.537 0.044 -84.485
3693.917 0.043 -84.468 0.997 2.456 0.997 2.456 0.043 -84.468
3718.875 0.041 -84.444 0.997 2.375 0.997 2.375 0.041 -84.444
3743.833 0.04 -84.413 0.997 2.295 0.997 2.295 0.04 -84.413
3768.792 0.039 -84.375 0.997 2.215 0.997 2.215 0.039 -84.375
3793.75 0.037 -84.328 0.997 2.136 0.997 2.136 0.037 -84.328
3818.708 0.036 -84.272 0.997 2.058 0.997 2.058 0.036 -84.272
3843.667 0.035 -84.206 0.997 1.98 0.997 1.98 0.035 -84.206
3868.625 0.033 -84.129 0.997 1.903 0.997 1.903 0.033 -84.129
3893.583 0.032 -84.039 0.997 1.826 0.997 1.826 0.032 -84.039
3918.542 0.031 -83.936 0.997 1.75 0.997 1.75 0.031 -83.936
3943.5 0.029 -83.818 0.997 1.675 0.997 1.675 0.029 -83.818
3968.458 0.028 -83.682 0.997 1.6 0.997 1.6 0.028 -83.682
3993.417 0.027 -83.528 0.997 1.525 0.997 1.525 0.027 -83.528
4018.375 0.025 -83.351 0.997 1.451 0.997 1.451 0.025 -83.351
4043.333 0.024 -83.149 0.997 1.378 0.997 1.378 0.024 -83.149
4068.292 0.023 -82.918 0.997 1.305 0.997 1.305 0.023 -82.918
4093.25 0.022 -82.653 0.997 1.233 0.997 1.233 0.022 -82.653
4118.208 0.02 -82.349 0.997 1.161 0.997 1.161 0.02 -82.349
4143.167 0.019 -81.999 0.998 1.089 0.998 1.089 0.019 -81.999
4168.125 0.018 -81.593 0.998 1.018 0.998 1.018 0.018 -81.593
4193.083 0.017 -81.12 0.998 0.948 0.998 0.948 0.017 -81.12
4218.042 0.015 -80.566 0.998 0.878 0.998 0.878 0.015 -80.566
4243 0.014 -79.91 0.998 0.808 0.998 0.808 0.014 -79.91
4267.958 0.013 -79.127 0.998 0.739 0.998 0.739 0.013 -79.127
4292.917 0.012 -78.18 0.998 0.67 0.998 0.67 0.012 -78.18
4317.875 0.011 -77.019 0.998 0.602 0.998 0.602 0.011 -77.019
4342.833 9.596e-3 -75.568 0.998 0.534 0.998 0.534 9.596e-3 -75.568
4367.792 8.456e-3 -73.717 0.998 0.466 0.998 0.466 8.456e-3 -73.717
4392.75 7.335e-3 -71.288 0.998 0.399 0.998 0.399 7.335e-3 -71.288
4417.708 6.24e-3 -67.991 0.998 0.332 0.998 0.332 6.24e-3 -67.991
4442.667 5.181e-3 -63.321 0.998 0.266 0.998 0.266 5.181e-3 -63.321
4467.625 4.181e-3 -56.349 0.998 0.2 0.998 0.2 4.181e-3 -56.349
4492.583 3.287e-3 -45.342 0.998 0.134 0.998 0.134 3.287e-3 -45.342
4517.542 2.601e-3 -27.525 0.998 0.069 0.998 0.069 2.601e-3 -27.525
4542.5 2.306e-3 -1.789 0.998 4.135e-3 0.998 4.135e-3 2.306e-3 -1.789
4567.458 2.534e-3 24.517 0.998 -0.06 0.998 -0.06 2.534e-3 24.517
4592.417 3.169e-3 43.206 0.998 -0.125 0.998 -0.125 3.169e-3 43.206
4617.375 4.016e-3 54.785 0.998 -0.188 0.998 -0.188 4.016e-3 54.785
4642.333 4.964e-3 62.084 0.998 -0.252 0.998 -0.252 4.964e-3 62.084
4667.292 5.963e-3 66.945 0.998 -0.315 0.998 -0.315 5.963e-3 66.945
4692.25 6.987e-3 70.361 0.998 -0.378 0.998 -0.378 6.987e-3 70.361
4717.208 8.025e-3 72.869 0.998 -0.44 0.998 -0.44 8.025e-3 72.869
4742.167 9.07e-3 74.776 0.998 -0.503 0.998 -0.503 9.07e-3 74.776
4767.125 0.01 76.269 0.998 -0.565 0.998 -0.565 0.01 76.269
4792.083 0.011 77.463 0.998 -0.626 0.998 -0.626 0.011 77.463
4817.042 0.012 78.437 0.998 -0.687 0.998 -0.687 0.012 78.437
4842 0.013 79.244 0.998 -0.748 0.998 -0.748 0.013 79.244
4866.958 0.014 79.92 0.998 -0.809 0.998 -0.809 0.014 79.92
4891.917 0.015 80.494 0.998 -0.869 0.998 -0.869 0.015 80.494
4916.875 0.016 80.985 0.998 -0.929 0.998 -0.929 0.016 80.985
4941.833 0.017 81.408 0.998 -0.989 0.998 -0.989 0.017 81.408
4966.792 0.018 81.775 0.998 -1.049 0.998 -1.049 0.018 81.775
4991.75 0.019 82.096 0.998 -1.108 0.998 -1.108 0.019 82.096
5016.708 0.02 82.378 0.997 -1.167 0.997 -1.167 0.02 82.378
5041.667 0.022 82.626 0.997 -1.226 0.997 -1.226 0.022 82.626
5066.625 0.023 82.846 0.997 -1.284 0.997 -1.284 0.023 82.846
5091.583 0.024 83.04 0.997 -1.342 0.997 -1.342 0.024 83.04
5116.542 0.025 83.213 0.997 -1.4 0.997 -1.4 0.025 83.213
5141.5 0.026 83.368 0.997 -1.458 0.997 -1.458 0.026 83.368
5166.458 0.027 83.506 0.997 -1.516 0.997 -1.516 0.027 83.506
5191.417 0.028 83.629 0.997 -1.573 0.997 -1.573 0.028 83.629
5216.375 0.029 83.739 0.997 -1.63 0.997 -1.63 0.029 83.739
5241.333 0.03 83.837 0.997 -1.686 0.997 -1.686 0.03 83.837
5266.292 0.031 83.925 0.997 -1.743 0.997 -1.743 0.031 83.925
5291.25 0.031 84.004 0.997 -1.799 0.997 -1.799 0.031 84.004
5316.208 0.032 84.075 0.997 -1.855 0.997 -1.855 0.032 84.075
5341.167 0.033 84.137 0.997 -1.911 0.997 -1.911 0.033 84.137
5366.125 0.034 84.193 0.997 -1.967 0.997 -1.967 0.034 84.193
5391.083 0.035 84.243 0.997 -2.022 0.997 -2.022 0.035 84.243
5416.042 0.036 84.287 0.997 -2.077 0.997 -2.077 0.036 84.287
5441 0.037 84.325 0.997 -2.132 0.997 -2.132 0.037 84.325
5465.958 0.038 84.359 0.997 -2.187 0.997 -2.187 0.038 84.359
5490.917 0.039 84.388 0.997 -2.241 0.997 -2.241 0.039 84.388
5515.875 0.04 84.414 0.997 -2.296 0.997 -2.296 0.04 84.414
5540.833 0.041 84.435 0.997 -2.35 0.997 -2.35 0.041 84.435
5565.792 0.042 84.453 0.997 -2.404 0.997 -2.404 0.042 84.453
5590.75 0.043 84.468 0.997 -2.457 0.997 -2.457 0.043 84.468
5615.708 0.044 84.48 0.997 -2.511 0.997 -2.511 0.044 84.48
5640.667 0.045 84.49 0.997 -2.564 0.997 -2.564 0.045 84.49
5665.625 0.046 84.496 0.997 -2.617 0.997 -2.617 0.046 84.496
5690.583 0.047 84.5 0.997 -2.67 0.997 -2.67 0.047 84.5
5715.542 0.048 84.503 0.997 -2.723 0.997 -2.723 0.048 84.503
5740.5 0.048 84.503 0.997 -2.776 0.997 -2.776 0.048 84.503
5765.458 0.049 84.501 0.996 -2.828 0.996 -2.828 0.049 84.501
5790.417 0.05 84.497 0.996 -2.88 0.996 -2.88 0.05 84.497
5815.375 0.051 84.491 0.996 -2.932 0.996 -2.932 0.051 84.491
5840.333 0.052 84.484 0.996 -2.984 0.996 -2.984 0.052 84.484
5865.292 0.053 84.476 0.996 -3.036 0.996 -3.036 0.053 84.476
5890.25 0.054 84.466 0.996 -3.087 0.996 -3.087 0.054 84.466
5915.208 0.055 84.454 0.996 -3.139 0.996 -3.139 0.055 84.454
5940.167 0.056 84.442 0.996 -3.19 0.996 -3.19 0.056 84.442
5965.125 0.057 84.428 0.996 -3.241 0.996 -3.241 0.057 84.428
5990.083 0.057 84.413 0.996 -3.292 0.996 -3.292 0.057 84.413
6015.042 0.058 84.398 0.996 -3.342 0.996 -3.342 0.058 84.398
6040 0.059 84.381 0.996 -3.393 0.996 -3.393 0.059 84.381
6064.958 0.06 84.363 0.996 -3.443 0.996 -3.443 0.06 84.363
6089.917 0.061 84.344 0.996 -3.494 0.996 -3.494 0.061 84.344
6114.875 0.062 84.325 0.996 -3.544 0.996 -3.544 0.062 84.325
6139.833 0.063 84.305 0.996 -3.594 0.996 -3.594 0.063 84.305
6164.792 0.064 84.284 0.996 -3.643 0.996 -3.643 0.064 84.284
6189.75 0.064 84.262 0.996 -3.693 0.996 -3.693 0.064 84.262
6214.708 0.065 84.239 0.996 -3.743 0.996 -3.743 0.065 84.239
6239.667 0.066 84.216 0.996 -3.792 0.996 -3.792 0.066 84.216
6264.625 0.067 84.193 0.995 -3.841 0.995 -3.841 0.067 84.193
6289.583 0.068 84.169 0.995 -3.89 0.995 -3.89 0.068 84.169
6314.542 0.069 84.144 0.995 -3.939 0.995 -3.939 0.069 84.144
6339.5 0.07 84.118 0.995 -3.988 0.995 -3.988 0.07 84.118
6364.458 0.07 84.093 0.995 -4.037 0.995 -4.037 0.07 84.093
6389.417 0.071 84.066 0.995 -4.085 0.995 -4.085 0.071 84.066
6414.375 0.072 84.04 0.995 -4.133 0.995 -4.133 0.072 84.04
6439.333 0.073 84.013 0.995 -4.182 0.995 -4.182 0.073 84.013
6464.292 0.074 83.985 0.995 -4.23 0.995 -4.23 0.074 83.985
6489.25 0.075 83.957 0.995 -4.278 0.995 -4.278 0.075 83.957
6514.208 0.075 83.929 0.995 -4.326 0.995 -4.326 0.075 83.929
6539.167 0.076 83.9 0.995 -4.373 0.995 -4.373 0.076 83.9
6564.125 0.077 83.871 0.995 -4.421 0.995 -4.421 0.077 83.871
6589.083 0.078 83.842 0.995 -4.469 0.995 -4.469 0.078 83.842
6614.042 0.079 83.812 0.995 -4.516 0.995 -4.516 0.079 83.812
6639 0.08 83.783 0.995 -4.563 0.995 -4.563 0.08 83.783
6663.958 0.08 83.752 0.994 -4.61 0.994 -4.61 0.08 83.752
6688.917 0.081 83.722 0.994 -4.657 0.994 -4.657 0.081 83.722
6713.875 0.082 83.691 0.994 -4.704 0.994 -4.704 0.082 83.691
6738.833 0.083 83.66 0.994 -4.751 0.994 -4.751 0.083 83.66
6763.792 0.084 83.629 0.994 -4.798 0.994 -4.798 0.084 83.629
6788.75 0.084 83.598 0.994 -4.844 0.994 -4.844 0.084 83.598
6813.708 0.085 83.566 0.994 -4.891 0.994 -4.891 0.085 83.566
6838.667 0.086 83.535 0.994 -4.937 0.994 -4.937 0.086 83.535
6863.625 0.087 83.503 0.994 -4.983 0.994 -4.983 0.087 83.503
6888.583 0.088 83.47 0.994 -5.029 0.994 -5.029 0.088 83.47
6913.542 0.088 83.438 0.994 -5.075 0.994 -5.075 0.088 83.438
6938.5 0.089 83.405 0.994 -5.121 0.994 -5.121 0.089 83.405
6963.458 0.09 83.373 0.994 -5.167 0.994 -5.167 0.09 83.373
6988.417 0.091 83.34 0.994 -5.213 0.994 -5.213 0.091 83.34
7013.375 0.092 83.307 0.993 -5.258 0.993 -5.258 0.092 83.307
7038.333 0.092 83.274 0.993 -5.304 0.993 -5.304 0.092 83.274
7063.292 0.093 83.241 0.993 -5.349 0.993 -5.349 0.093 83.241
7088.25 0.094 83.207 0.993 -5.395 0.993 -5.395 0.094 83.207
7113.208 0.095 83.174 0.993 -5.44 0.993 -5.44 0.095 83.174
7138.167 0.096 83.14 0.993 -5.485 0.993 -5.485 0.096 83.14
7163.125 0.096 83.106 0.993 -5.53 0.993 -5.53 0.096 83.106
7188.083 0.097 83.073 0.993 -5.575 0.993 -5.575 0.097 83.073
7213.042 0.098 83.039 0.993 -5.619 0.993 -5.619 0.098 83.039
7238 0.099 83.005 0.993 -5.664 0.993 -5.664 0.099 83.005
7262.958 0.099 82.97 0.993 -5.709 0.993 -5.709 0.099 82.97
7287.917 0.1 82.936 0.993 -5.753 0.993 -5.753 0.1 82.936
7312.875 0.101 82.902 0.993 -5.798 0.993 -5.798 0.101 82.902
7337.833 0.102 82.867 0.993 -5.842 0.993 -5.842 0.102 82.867
7362.792 0.103 82.833 0.992 -5.886 0.992 -5.886 0.103 82.833
7387.75 0.103 82.798 0.992 -5.93 0.992 -5.93 0.103 82.798
7412.708 0.104 82.764 0.992 -5.974 0.992 -5.974 0.104 82.764
7437.667 0.105 82.729 0.992 -6.018 0.992 -6.018 0.105 82.729
7462.625 0.106 82.694 0.992 -6.062 0.992 -6.062 0.106 82.694
7487.583 0.106 82.66 0.992 -6.106 0.992 -6.106 0.106 82.66
7512.542 0.107 82.625 0.992 -6.15 0.992 -6.15 0.107 82.625
7537.5 0.108 82.59 0.992 -6.193 0.992 -6.193 0.108 82.59
7562.458 0.109 82.555 0.992 -6.237 0.992 -6.237 0.109 82.555
7587.417 0.109 82.52 0.992 -6.28 0.992 -6.28 0.109 82.52
7612.375 0.11 82.485 0.992 -6.324 0.992 -6.324 0.11 82.485
7637.333 0.111 82.45 0.992 -6.367 0.992 -6.367 0.111 82.45
7662.292 0.112 82.414 0.991 -6.41 0.991 -6.41 0.112 82.414
7687.25 0.112 82.379 0.991 -6.453 0.991 -6.453 0.112 82.379
7712.208 0.113 82.344 0.991 -6.497 0.991 -6.497 0.113 82.344
7737.167 0.114 82.309 0.991 -6.54 0.991 -6.54 0.114 82.309
7762.125 0.115 82.273 0.991 -6.582 0.991 -6.582 0.115 82.273
7787.083 0.115 82.238 0.991 -6.625 0.991 -6.625 0.115 82.238
7812.042 0.116 82.203 0.991 -6.668 0.991 -6.668 0.116 82.203
7837 0.117 82.167 0.991 -6.711 0.991 -6.711 0.117 82.167
7861.958 0.118 82.132 0.991 -6.753 0.991 -6.753 0.118 82.132
7886.917 0.118 82.096 0.991 -6.796 0.991 -6.796 0.118 82.096
7911.875 0.119 82.061 0.991 -6.838 0.991 -6.838 0.119 82.061
7936.833 0.12 82.025 0.991 -6.881 0.991 -6.881 0.12 82.025
7961.792 0.121 81.99 0.99 -6.923 0.99 -6.923 0.121 81.99
7986.75 0.121 81.954 0.99 -6.965 0.99 -6.965 0.121 81.954
8011.708 0.122 81.918 0.99 -7.007 0.99 -7.007 0.122 81.918
8036.667 0.123 81.883 0.99 -7.049 0.99 -7.049 0.123 81.883
8061.625 0.123 81.847 0.99 -7.091 0.99 -7.091 0.123 81.847
8086.583 0.124 81.812 0.99 -7.133 0.99 -7.133 0.124 81.812
8111.542 0.125 81.776 0.99 -7.175 0.99 -7.175 0.125 81.776
8136.5 0.126 81.74 0.99 -7.217 0.99 -7.217 0.126 81.74
8161.458 0.126 81.705 0.99 -7.259 0.99 -7.259 0.126 81.705
8186.417 0.127 81.669 0.99 -7.3 0.99 -7.3 0.127 81.669
8211.375 0.128 81.633 0.99 -7.342 0.99 -7.342 0.128 81.633
8236.333 0.129 81.598 0.989 -7.383 0.989 -7.383 0.129 81.598
8261.292 0.129 81.562 0.989 -7.425 0.989 -7.425 0.129 81.562
