# MHZ S MA R 50

50 0.834 -33.415 0.551 56.533 0.551 56.533 0.834 -33.415
74.958 0.71 -44.686 0.703 45.236 0.703 45.236 0.71 -44.686
99.917 0.603 -52.821 0.797 37.075 0.797 37.075 0.603 -52.821
124.875 0.517 -58.748 0.855 31.122 0.855 31.122 0.517 -58.748
149.833 0.449 -63.172 0.892 26.672 0.892 26.672 0.449 -63.172
174.792 0.395 -66.562 0.917 23.255 0.917 23.255 0.395 -66.562
199.75 0.351 -69.226 0.935 20.565 0.935 20.565 0.351 -69.226
224.708 0.316 -71.366 0.948 18.398 0.948 18.398 0.316 -71.366
249.667 0.286 -73.118 0.957 16.62 0.957 16.62 0.286 -73.118
274.625 0.261 -74.575 0.964 15.135 0.964 15.135 0.261 -74.575
299.583 0.24 -75.806 0.969 13.877 0.969 13.877 0.24 -75.806
324.542 0.222 -76.857 0.974 12.798 0.974 12.798 0.222 -76.857
349.5 0.206 -77.765 0.977 11.862 0.977 11.862 0.206 -77.765
374.458 0.192 -78.556 0.98 11.042 0.98 11.042 0.192 -78.556
399.417 0.179 -79.252 0.982 10.317 0.982 10.317 0.179 -79.252
424.375 0.168 -79.868 0.984 9.672 0.984 9.672 0.168 -79.868
449.333 0.158 -80.416 0.986 9.094 0.986 9.094 0.158 -80.416
474.292 0.149 -80.908 0.987 8.572 0.987 8.572 0.149 -80.908
499.25 0.141 -81.351 0.989 8.098 0.989 8.098 0.141 -81.351
524.208 0.133 -81.751 0.99 7.666 0.99 7.666 0.133 -81.751
549.167 0.127 -82.115 0.991 7.271 0.991 7.271 0.127 -82.115
574.125 0.12 -82.446 0.991 6.906 0.991 6.906 0.12 -82.446
599.083 0.114 -82.75 0.992 6.57 0.992 6.57 0.114 -82.75
624.042 0.109 -83.028 0.993 6.258 0.993 6.258 0.109 -83.028
649 0.104 -83.283 0.993 5.967 0.993 5.967 0.104 -83.283
673.958 0.099 -83.518 0.994 5.696 0.994 5.696 0.099 -83.518
698.917 0.095 -83.735 0.994 5.442 0.994 5.442 0.095 -83.735
723.875 0.091 -83.936 0.995 5.203 0.995 5.203 0.091 -83.936
748.833 0.087 -84.121 0.995 4.979 0.995 4.979 0.087 -84.121
773.792 0.083 -84.293 0.995 4.767 0.995 4.767 0.083 -84.293
798.75 0.08 -84.452 0.995 4.566 0.995 4.566 0.08 -84.452
823.708 0.076 -84.599 0.996 4.376 0.996 4.376 0.076 -84.599
848.667 0.073 -84.736 0.996 4.196 0.996 4.196 0.073 -84.736
873.625 0.07 -84.862 0.996 4.024 0.996 4.024 0.07 -84.862
898.583 0.067 -84.978 0.996 3.861 0.996 3.861 0.067 -84.978
923.542 0.065 -85.085 0.997 3.704 0.997 3.704 0.065 -85.085
948.5 0.062 -85.184 0.997 3.555 0.997 3.555 0.062 -85.184
973.458 0.06 -85.274 0.997 3.411 0.997 3.411 0.06 -85.274
998.417 0.057 -85.356 0.997 3.274 0.997 3.274 0.057 -85.356
1023.375 0.055 -85.43 0.997 3.141 0.997 3.141 0.055 -85.43
1048.333 0.053 -85.497 0.997 3.014 0.997 3.014 0.053 -85.497
1073.292 0.05 -85.557 0.997 2.892 0.997 2.892 0.05 -85.557
1098.25 0.048 -85.609 0.997 2.774 0.997 2.774 0.048 -85.609
1123.208 0.046 -85.653 0.998 2.66 0.998 2.66 0.046 -85.653
1148.167 0.044 -85.691 0.998 2.549 0.998 2.549 0.044 -85.691
1173.125 0.043 -85.72 0.998 2.442 0.998 2.442 0.043 -85.72
1198.083 0.041 -85.743 0.998 2.339 0.998 2.339 0.041 -85.743
1223.042 0.039 -85.757 0.998 2.239 0.998 2.239 0.039 -85.757
1248 0.037 -85.763 0.998 2.141 0.998 2.141 0.037 -85.763
1272.958 0.036 -85.761 0.998 2.046 0.998 2.046 0.036 -85.761
1297.917 0.034 -85.75 0.998 1.954 0.998 1.954 0.034 -85.75
1322.875 0.033 -85.729 0.998 1.865 0.998 1.865 0.033 -85.729
1347.833 0.031 -85.698 0.998 1.778 0.998 1.778 0.031 -85.698
1372.792 0.03 -85.656 0.998 1.693 0.998 1.693 0.03 -85.656
1397.75 0.028 -85.603 0.998 1.61 0.998 1.61 0.028 -85.603
1422.708 0.027 -85.536 0.998 1.529 0.998 1.529 0.027 -85.536
1447.667 0.025 -85.455 0.998 1.449 0.998 1.449 0.025 -85.455
1472.625 0.024 -85.358 0.998 1.372 0.998 1.372 0.024 -85.358
1497.583 0.023 -85.244 0.998 1.296 0.998 1.296 0.023 -85.244
1522.542 0.021 -85.109 0.998 1.222 0.998 1.222 0.021 -85.109
1547.5 0.02 -84.95 0.998 1.15 0.998 1.15 0.02 -84.95
1572.458 0.019 -84.765 0.998 1.079 0.998 1.079 0.019 -84.765
1597.417 0.018 -84.549 0.998 1.009 0.998 1.009 0.018 -84.549
1622.375 0.016 -84.295 0.998 0.941 0.998 0.941 0.016 -84.295
1647.333 0.015 -83.998 0.999 0.873 0.999 0.873 0.015 -83.998
1672.292 0.014 -83.648 0.999 0.807 0.999 0.807 0.014 -83.648
1697.25 0.013 -83.232 0.999 0.743 0.999 0.743 0.013 -83.232
1722.208 0.012 -82.736 0.999 0.679 0.999 0.679 0.012 -82.736
1747.167 0.011 -82.136 0.999 0.616 0.999 0.616 0.011 -82.136
1772.125 9.779e-3 -81.403 0.999 0.555 0.999 0.555 9.779e-3 -81.403
1797.083 8.733e-3 -80.493 0.999 0.494 0.999 0.494 8.733e-3 -80.493
1822.042 7.706e-3 -79.338 0.999 0.434 0.999 0.434 7.706e-3 -79.338
1847 6.698e-3 -77.838 0.999 0.376 0.999 0.376 6.698e-3 -77.838
1871.958 5.712e-3 -75.823 0.999 0.318 0.999 0.318 5.712e-3 -75.823
1896.917 4.75e-3 -72.998 0.999 0.261 0.999 0.261 4.75e-3 -72.998
1921.875 3.819e-3 -68.801 0.999 0.204 0.999 0.204 3.819e-3 -68.801
1946.833 2.934e-3 -62.054 0.999 0.149 0.999 0.149 2.934e-3 -62.054
1971.792 2.134e-3 -50.038 0.999 0.094 0.999 0.094 2.134e-3 -50.038
1996.75 1.534e-3 -26.832 0.999 0.04 0.999 0.04 1.534e-3 -26.832
2021.708 1.389e-3 9.925 0.999 -0.014 0.999 -0.014 1.389e-3 9.925
2046.667 1.795e-3 40.259 0.999 -0.067 0.999 -0.067 1.795e-3 40.259
2071.625 2.483e-3 56.443 0.999 -0.119 0.999 -0.119 2.483e-3 56.443
2096.583 3.272e-3 65.11 0.999 -0.17 0.999 -0.17 3.272e-3 65.11
2121.542 4.097e-3 70.27 0.999 -0.221 0.999 -0.221 4.097e-3 70.27
2146.5 4.935e-3 73.633 0.999 -0.272 0.999 -0.272 4.935e-3 73.633
2171.458 5.776e-3 75.977 0.999 -0.322 0.999 -0.322 5.776e-3 75.977
2196.417 6.616e-3 77.695 0.999 -0.371 0.999 -0.371 6.616e-3 77.695
2221.375 7.452e-3 79.001 0.999 -0.42 0.999 -0.42 7.452e-3 79.001
2246.333 8.283e-3 80.024 0.999 -0.468 0.999 -0.468 8.283e-3 80.024
2271.292 9.108e-3 80.844 0.999 -0.516 0.999 -0.516 9.108e-3 80.844
2296.25 9.926e-3 81.514 0.999 -0.563 0.999 -0.563 9.926e-3 81.514
2321.208 0.011 82.07 0.999 -0.61 0.999 -0.61 0.011 82.07
2346.167 0.012 82.537 0.999 -0.657 0.999 -0.657 0.012 82.537
2371.125 0.012 82.933 0.999 -0.703 0.999 -0.703 0.012 82.933
2396.083 0.013 83.273 0.999 -0.749 0.999 -0.749 0.013 83.273
2421.042 0.014 83.567 0.999 -0.794 0.999 -0.794 0.014 83.567
2446 0.015 83.822 0.999 -0.839 0.999 -0.839 0.015 83.822
2470.958 0.015 84.046 0.999 -0.883 0.999 -0.883 0.015 84.046
2495.917 0.016 84.242 0.999 -0.928 0.999 -0.928 0.016 84.242
2520.875 0.017 84.415 0.998 -0.971 0.998 -0.971 0.017 84.415
2545.833 0.018 84.569 0.998 -1.015 0.998 -1.015 0.018 84.569
2570.792 0.019 84.705 0.998 -1.058 0.998 -1.058 0.019 84.705
2595.75 0.019 84.827 0.998 -1.101 0.998 -1.101 0.019 84.827
2620.708 0.02 84.935 0.998 -1.143 0.998 -1.143 0.02 84.935
2645.667 0.021 85.032 0.998 -1.186 0.998 -1.186 0.021 85.032
2670.625 0.021 85.119 0.998 -1.228 0.998 -1.228 0.021 85.119
2695.583 0.022 85.197 0.998 -1.269 0.998 -1.269 0.022 85.197
2720.542 0.023 85.267 0.998 -1.311 0.998 -1.311 0.023 85.267
2745.5 0.024 85.33 0.998 -1.352 0.998 -1.352 0.024 85.33
2770.458 0.024 85.386 0.998 -1.393 0.998 -1.393 0.024 85.386
2795.417 0.025 85.437 0.998 -1.433 0.998 -1.433 0.025 85.437
2820.375 0.026 85.482 0.998 -1.474 0.998 -1.474 0.026 85.482
2845.333 0.026 85.522 0.998 -1.514 0.998 -1.514 0.026 85.522
2870.292 0.027 85.558 0.998 -1.554 0.998 -1.554 0.027 85.558
2895.25 0.028 85.591 0.998 -1.593 0.998 -1.593 0.028 85.591
2920.208 0.029 85.619 0.998 -1.633 0.998 -1.633 0.029 85.619
2945.167 0.029 85.644 0.998 -1.672 0.998 -1.672 0.029 85.644
2970.125 0.03 85.666 0.998 -1.711 0.998 -1.711 0.03 85.666
2995.083 0.031 85.686 0.998 -1.75 0.998 -1.75 0.031 85.686
3020.042 0.031 85.702 0.998 -1.788 0.998 -1.788 0.031 85.702
3045 0.032 85.717 0.998 -1.827 0.998 -1.827 0.032 85.717
3069.958 0.033 85.729 0.998 -1.865 0.998 -1.865 0.033 85.729
3094.917 0.033 85.739 0.998 -1.903 0.998 -1.903 0.033 85.739
3119.875 0.034 85.747 0.998 -1.941 0.998 -1.941 0.034 85.747
3144.833 0.035 85.753 0.998 -1.978 0.998 -1.978 0.035 85.753
3169.792 0.035 85.758 0.998 -2.016 0.998 -2.016 0.035 85.758
3194.75 0.036 85.761 0.998 -2.053 0.998 -2.053 0.036 85.761
3219.708 0.036 85.763 0.998 -2.09 0.998 -2.09 0.036 85.763
3244.667 0.037 85.763 0.998 -2.127 0.998 -2.127 0.037 85.763
3269.625 0.038 85.762 0.998 -2.164 0.998 -2.164 0.038 85.762
3294.583 0.038 85.76 0.998 -2.2 0.998 -2.2 0.038 85.76
3319.542 0.039 85.757 0.998 -2.237 0.998 -2.237 0.039 85.757
3344.5 0.04 85.753 0.998 -2.273 0.998 -2.273 0.04 85.753
3369.458 0.04 85.747 0.998 -2.309 0.998 -2.309 0.04 85.747
3394.417 0.041 85.741 0.998 -2.346 0.998 -2.346 0.041 85.741
3419.375 0.042 85.734 0.998 -2.381 0.998 -2.381 0.042 85.734
3444.333 0.042 85.726 0.998 -2.417 0.998 -2.417 0.042 85.726
3469.292 0.043 85.718 0.998 -2.453 0.998 -2.453 0.043 85.718
3494.25 0.043 85.708 0.998 -2.488 0.998 -2.488 0.043 85.708
3519.208 0.044 85.698 0.998 -2.524 0.998 -2.524 0.044 85.698
3544.167 0.045 85.688 0.998 -2.559 0.998 -2.559 0.045 85.688
3569.125 0.045 85.676 0.998 -2.594 0.998 -2.594 0.045 85.676
3594.083 0.046 85.664 0.998 -2.629 0.998 -2.629 0.046 85.664
3619.042 0.046 85.652 0.998 -2.664 0.998 -2.664 0.046 85.652
3644 0.047 85.639 0.998 -2.699 0.998 -2.699 0.047 85.639
3668.958 0.048 85.625 0.997 -2.733 0.997 -2.733 0.048 85.625
3693.917 0.048 85.611 0.997 -2.768 0.997 -2.768 0.048 85.611
3718.875 0.049 85.596 0.997 -2.802 0.997 -2.802 0.049 85.596
3743.833 0.05 85.582 0.997 -2.837 0.997 -2.837 0.05 85.582
3768.792 0.05 85.566 0.997 -2.871 0.997 -2.871 0.05 85.566
3793.75 0.051 85.55 0.997 -2.905 0.997 -2.905 0.051 85.55
3818.708 0.051 85.534 0.997 -2.939 0.997 -2.939 0.051 85.534
3843.667 0.052 85.518 0.997 -2.973 0.997 -2.973 0.052 85.518
3868.625 0.052 85.501 0.997 -3.007 0.997 -3.007 0.052 85.501
3893.583 0.053 85.484 0.997 -3.041 0.997 -3.041 0.053 85.484
3918.542 0.054 85.466 0.997 -3.074 0.997 -3.074 0.054 85.466
3943.5 0.054 85.449 0.997 -3.108 0.997 -3.108 0.054 85.449
3968.458 0.055 85.431 0.997 -3.141 0.997 -3.141 0.055 85.431
3993.417 0.055 85.412 0.997 -3.175 0.997 -3.175 0.055 85.412
4018.375 0.056 85.394 0.997 -3.208 0.997 -3.208 0.056 85.394
4043.333 0.057 85.375 0.997 -3.241 0.997 -3.241 0.057 85.375
4068.292 0.057 85.356 0.997 -3.274 0.997 -3.274 0.057 85.356
4093.25 0.058 85.336 0.997 -3.307 0.997 -3.307 0.058 85.336
4118.208 0.058 85.317 0.997 -3.34 0.997 -3.34 0.058 85.317
4143.167 0.059 85.297 0.997 -3.373 0.997 -3.373 0.059 85.297
4168.125 0.059 85.277 0.997 -3.406 0.997 -3.406 0.059 85.277
4193.083 0.06 85.257 0.997 -3.439 0.997 -3.439 0.06 85.257
4218.042 0.061 85.236 0.997 -3.471 0.997 -3.471 0.061 85.236
4243 0.061 85.216 0.997 -3.504 0.997 -3.504 0.061 85.216
4267.958 0.062 85.195 0.997 -3.537 0.997 -3.537 0.062 85.195
4292.917 0.062 85.174 0.997 -3.569 0.997 -3.569 0.062 85.174
4317.875 0.063 85.153 0.997 -3.601 0.997 -3.601 0.063 85.153
4342.833 0.063 85.132 0.997 -3.634 0.997 -3.634 0.063 85.132
4367.792 0.064 85.111 0.997 -3.666 0.997 -3.666 0.064 85.111
4392.75 0.065 85.089 0.997 -3.698 0.997 -3.698 0.065 85.089
4417.708 0.065 85.068 0.997 -3.73 0.997 -3.73 0.065 85.068
4442.667 0.066 85.046 0.996 -3.762 0.996 -3.762 0.066 85.046
4467.625 0.066 85.024 0.996 -3.794 0.996 -3.794 0.066 85.024
4492.583 0.067 85.002 0.996 -3.826 0.996 -3.826 0.067 85.002
4517.542 0.067 84.98 0.996 -3.858 0.996 -3.858 0.067 84.98
4542.5 0.068 84.958 0.996 -3.89 0.996 -3.89 0.068 84.958
4567.458 0.068 84.935 0.996 -3.921 0.996 -3.921 0.068 84.935
4592.417 0.069 84.913 0.996 -3.953 0.996 -3.953 0.069 84.913
4617.375 0.07 84.89 0.996 -3.985 0.996 -3.985 0.07 84.89
4642.333 0.07 84.867 0.996 -4.016 0.996 -4.016 0.07 84.867
4667.292 0.071 84.845 0.996 -4.048 0.996 -4.048 0.071 84.845
4692.25 0.071 84.822 0.996 -4.079 0.996 -4.079 0.071 84.822
4717.208 0.072 84.799 0.996 -4.11 0.996 -4.11 0.072 84.799
4742.167 0.072 84.776 0.996 -4.142 0.996 -4.142 0.072 84.776
4767.125 0.073 84.753 0.996 -4.173 0.996 -4.173 0.073 84.753
4792.083 0.073 84.729 0.996 -4.204 0.996 -4.204 0.073 84.729
4817.042 0.074 84.706 0.996 -4.235 0.996 -4.235 0.074 84.706
4842 0.074 84.683 0.996 -4.267 0.996 -4.267 0.074 84.683
4866.958 0.075 84.659 0.996 -4.298 0.996 -4.298 0.075 84.659
4891.917 0.075 84.636 0.996 -4.329 0.996 -4.329 0.075 84.636
4916.875 0.076 84.612 0.996 -4.36 0.996 -4.36 0.076 84.612
4941.833 0.077 84.589 0.996 -4.39 0.996 -4.39 0.077 84.589
4966.792 0.077 84.565 0.996 -4.421 0.996 -4.421 0.077 84.565
4991.75 0.078 84.541 0.996 -4.452 0.996 -4.452 0.078 84.541
5016.708 0.078 84.517 0.996 -4.483 0.996 -4.483 0.078 84.517
5041.667 0.079 84.493 0.996 -4.514 0.996 -4.514 0.079 84.493
5066.625 0.079 84.469 0.995 -4.544 0.995 -4.544 0.079 84.469
5091.583 0.08 84.445 0.995 -4.575 0.995 -4.575 0.08 84.445
5116.542 0.08 84.421 0.995 -4.606 0.995 -4.606 0.08 84.421
5141.5 0.081 84.397 0.995 -4.636 0.995 -4.636 0.081 84.397
5166.458 0.081 84.373 0.995 -4.667 0.995 -4.667 0.081 84.373
5191.417 0.082 84.349 0.995 -4.697 0.995 -4.697 0.082 84.349
5216.375 0.082 84.325 0.995 -4.728 0.995 -4.728 0.082 84.325
5241.333 0.083 84.3 0.995 -4.758 0.995 -4.758 0.083 84.3
5266.292 0.083 84.276 0.995 -4.788 0.995 -4.788 0.083 84.276
5291.25 0.084 84.251 0.995 -4.819 0.995 -4.819 0.084 84.251
5316.208 0.085 84.227 0.995 -4.849 0.995 -4.849 0.085 84.227
5341.167 0.085 84.202 0.995 -4.879 0.995 -4.879 0.085 84.202
5366.125 0.086 84.178 0.995 -4.909 0.995 -4.909 0.086 84.178
5391.083 0.086 84.153 0.995 -4.94 0.995 -4.94 0.086 84.153
5416.042 0.087 84.129 0.995 -4.97 0.995 -4.97 0.087 84.129
5441 0.087 84.104 0.995 -5 0.995 -5 0.087 84.104
5465.958 0.088 84.079 0.995 -5.03 0.995 -5.03 0.088 84.079
5490.917 0.088 84.055 0.995 -5.06 0.995 -5.06 0.088 84.055
5515.875 0.089 84.03 0.995 -5.09 0.995 -5.09 0.089 84.03
5540.833 0.089 84.005 0.995 -5.12 0.995 -5.12 0.089 84.005
5565.792 0.09 83.98 0.995 -5.15 0.995 -5.15 0.09 83.98
5590.75 0.09 83.956 0.995 -5.18 0.995 -5.18 0.09 83.956
5615.708 0.091 83.931 0.995 -5.21 0.995 -5.21 0.091 83.931
5640.667 0.091 83.906 0.994 -5.239 0.994 -5.239 0.091 83.906
5665.625 0.092 83.881 0.994 -5.269 0.994 -5.269 0.092 83.881
5690.583 0.092 83.856 0.994 -5.299 0.994 -5.299 0.092 83.856
5715.542 0.093 83.831 0.994 -5.329 0.994 -5.329 0.093 83.831
5740.5 0.093 83.806 0.994 -5.358 0.994 -5.358 0.093 83.806
5765.458 0.094 83.781 0.994 -5.388 0.994 -5.388 0.094 83.781
5790.417 0.094 83.756 0.994 -5.418 0.994 -5.418 0.094 83.756
5815.375 0.095 83.731 0.994 -5.447 0.994 -5.447 0.095 83.731
5840.333 0.095 83.706 0.994 -5.477 0.994 -5.477 0.095 83.706
5865.292 0.096 83.681 0.994 -5.506 0.994 -5.506 0.096 83.681
5890.25 0.096 83.655 0.994 -5.536 0.994 -5.536 0.096 83.655
5915.208 0.097 83.63 0.994 -5.565 0.994 -5.565 0.097 83.63
5940.167 0.097 83.605 0.994 -5.595 0.994 -5.595 0.097 83.605
5965.125 0.098 83.58 0.994 -5.624 0.994 -5.624 0.098 83.58
5990.083 0.099 83.555 0.994 -5.653 0.994 -5.653 0.099 83.555
6015.042 0.099 83.529 0.994 -5.683 0.994 -5.683 0.099 83.529
6040 0.1 83.504 0.994 -5.712 0.994 -5.712 0.1 83.504
6064.958 0.1 83.479 0.994 -5.741 0.994 -5.741 0.1 83.479
6089.917 0.101 83.454 0.994 -5.771 0.994 -5.771 0.101 83.454
6114.875 0.101 83.428 0.994 -5.8 0.994 -5.8 0.101 83.428
6139.833 0.102 83.403 0.993 -5.829 0.993 -5.829 0.102 83.403
6164.792 0.102 83.378 0.993 -5.858 0.993 -5.858 0.102 83.378
6189.75 0.103 83.352 0.993 -5.888 0.993 -5.888 0.103 83.352
6214.708 0.103 83.327 0.993 -5.917 0.993 -5.917 0.103 83.327
6239.667 0.104 83.301 0.993 -5.946 0.993 -5.946 0.104 83.301
6264.625 0.104 83.276 0.993 -5.975 0.993 -5.975 0.104 83.276
6289.583 0.105 83.251 0.993 -6.004 0.993 -6.004 0.105 83.251
6314.542 0.105 83.225 0.993 -6.033 0.993 -6.033 0.105 83.225
6339.5 0.106 83.2 0.993 -6.062 0.993 -6.062 0.106 83.2
6364.458 0.106 83.174 0.993 -6.091 0.993 -6.091 0.106 83.174
6389.417 0.107 83.149 0.993 -6.12 0.993 -6.12 0.107 83.149
6414.375 0.107 83.123 0.993 -6.149 0.993 -6.149 0.107 83.123
6439.333 0.108 83.098 0.993 -6.178 0.993 -6.178 0.108 83.098
6464.292 0.108 83.072 0.993 -6.207 0.993 -6.207 0.108 83.072
6489.25 0.109 83.047 0.993 -6.236 0.993 -6.236 0.109 83.047
6514.208 0.109 83.021 0.993 -6.265 0.993 -6.265 0.109 83.021
6539.167 0.11 82.996 0.993 -6.294 0.993 -6.294 0.11 82.996
6564.125 0.11 82.97 0.993 -6.322 0.993 -6.322 0.11 82.97
6589.083 0.111 82.945 0.993 -6.351 0.993 -6.351 0.111 82.945
6614.042 0.111 82.919 0.992 -6.38 0.992 -6.38 0.111 82.919
6639 0.112 82.893 0.992 -6.409 0.992 -6.409 0.112 82.893
6663.958 0.112 82.868 0.992 -6.437 0.992 -6.437 0.112 82.868
6688.917 0.113 82.842 0.992 -6.466 0.992 -6.466 0.113 82.842
6713.875 0.113 82.817 0.992 -6.495 0.992 -6.495 0.113 82.817
6738.833 0.114 82.791 0.992 -6.523 0.992 -6.523 0.114 82.791
6763.792 0.114 82.765 0.992 -6.552 0.992 -6.552 0.114 82.765
6788.75 0.115 82.74 0.992 -6.581 0.992 -6.581 0.115 82.74
6813.708 0.115 82.714 0.992 -6.609 0.992 -6.609 0.115 82.714
6838.667 0.116 82.688 0.992 -6.638 0.992 -6.638 0.116 82.688
6863.625 0.116 82.663 0.992 -6.667 0.992 -6.667 0.116 82.663
6888.583 0.117 82.637 0.992 -6.695 0.992 -6.695 0.117 82.637
6913.542 0.117 82.611 0.992 -6.724 0.992 -6.724 0.117 82.611
6938.5 0.118 82.586 0.992 -6.752 0.992 -6.752 0.118 82.586
6963.458 0.118 82.56 0.992 -6.781 0.992 -6.781 0.118 82.56
6988.417 0.119 82.534 0.992 -6.809 0.992 -6.809 0.119 82.534
7013.375 0.119 82.509 0.992 -6.837 0.992 -6.837 0.119 82.509
7038.333 0.12 82.483 0.991 -6.866 0.991 -6.866 0.12 82.483
7063.292 0.12 82.457 0.991 -6.894 0.991 -6.894 0.12 82.457
7088.25 0.121 82.432 0.991 -6.923 0.991 -6.923 0.121 82.432
7113.208 0.121 82.406 0.991 -6.951 0.991 -6.951 0.121 82.406
7138.167 0.122 82.38 0.991 -6.979 0.991 -6.979 0.122 82.38
7163.125 0.122 82.354 0.991 -7.008 0.991 -7.008 0.122 82.354
7188.083 0.123 82.329 0.991 -7.036 0.991 -7.036 0.123 82.329
7213.042 0.123 82.303 0.991 -7.064 0.991 -7.064 0.123 82.303
7238 0.123 82.277 0.991 -7.093 0.991 -7.093 0.123 82.277
7262.958 0.124 82.252 0.991 -7.121 0.991 -7.121 0.124 82.252
7287.917 0.124 82.226 0.991 -7.149 0.991 -7.149 0.124 82.226
7312.875 0.125 82.2 0.991 -7.177 0.991 -7.177 0.125 82.2
7337.833 0.125 82.174 0.991 -7.206 0.991 -7.206 0.125 82.174
7362.792 0.126 82.149 0.991 -7.234 0.991 -7.234 0.126 82.149
7387.75 0.126 82.123 0.991 -7.262 0.991 -7.262 0.126 82.123
7412.708 0.127 82.097 0.991 -7.29 0.991 -7.29 0.127 82.097
7437.667 0.127 82.071 0.99 -7.318 0.99 -7.318 0.127 82.071
7462.625 0.128 82.045 0.99 -7.347 0.99 -7.347 0.128 82.045
7487.583 0.128 82.02 0.99 -7.375 0.99 -7.375 0.128 82.02
7512.542 0.129 81.994 0.99 -7.403 0.99 -7.403 0.129 81.994
7537.5 0.129 81.968 0.99 -7.431 0.99 -7.431 0.129 81.968
7562.458 0.13 81.942 0.99 -7.459 0.99 -7.459 0.13 81.942
7587.417 0.13 81.917 0.99 -7.487 0.99 -7.487 0.13 81.917
7612.375 0.131 81.891 0.99 -7.515 0.99 -7.515 0.131 81.891
7637.333 0.131 81.865 0.99 -7.543 0.99 -7.543 0.131 81.865
7662.292 0.132 81.839 0.99 -7.571 0.99 -7.571 0.132 81.839
7687.25 0.132 81.813 0.99 -7.599 0.99 -7.599 0.132 81.813
7712.208 0.133 81.788 0.99 -7.627 0.99 -7.627 0.133 81.788
7737.167 0.133 81.762 0.99 -7.655 0.99 -7.655 0.133 81.762
7762.125 0.134 81.736 0.99 -7.683 0.99 -7.683 0.134 81.736
7787.083 0.134 81.71 0.99 -7.711 0.99 -7.711 0.134 81.71
7812.042 0.135 81.684 0.99 -7.739 0.99 -7.739 0.135 81.684
7837 0.135 81.659 0.989 -7.767 0.989 -7.767 0.135 81.659
7861.958 0.136 81.633 0.989 -7.794 0.989 -7.794 0.136 81.633
7886.917 0.136 81.607 0.989 -7.822 0.989 -7.822 0.136 81.607
7911.875 0.137 81.581 0.989 -7.85 0.989 -7.85 0.137 81.581
7936.833 0.137 81.555 0.989 -7.878 0.989 -7.878 0.137 81.555
7961.792 0.138 81.53 0.989 -7.906 0.989 -7.906 0.138 81.53
7986.75 0.138 81.504 0.989 -7.934 0.989 -7.934 0.138 81.504
8011.708 0.139 81.478 0.989 -7.962 0.989 -7.962 0.139 81.478
8036.667 0.139 81.452 0.989 -7.989 0.989 -7.989 0.139 81.452
8061.625 0.139 81.426 0.989 -8.017 0.989 -8.017 0.139 81.426
8086.583 0.14 81.401 0.989 -8.045 0.989 -8.045 0.14 81.401
8111.542 0.14 81.375 0.989 -8.073 0.989 -8.073 0.14 81.375
8136.5 0.141 81.349 0.989 -8.1 0.989 -8.1 0.141 81.349
8161.458 0.141 81.323 0.989 -8.128 0.989 -8.128 0.141 81.323
8186.417 0.142 81.297 0.989 -8.156 0.989 -8.156 0.142 81.297
8211.375 0.142 81.271 0.988 -8.183 0.988 -8.183 0.142 81.271
8236.333 0.143 81.246 0.988 -8.211 0.988 -8.211 0.143 81.246
8261.292 0.143 81.22 0.988 -8.239 0.988 -8.239 0.143 81.22
8286.25 0.144 81.194 0.988 -8.266 0.988 -8.266 0.144 81.194
