# MHZ S MA R 50

50 1 -1.08 0.019 88.912 0.019 88.912 1 -1.08
74.958 1 -1.619 0.028 88.368 0.028 88.368 1 -1.619
99.917 0.999 -2.157 0.038 87.826 0.038 87.826 0.999 -2.157
124.875 0.999 -2.696 0.047 87.283 0.047 87.283 0.999 -2.696
149.833 0.998 -3.234 0.056 86.741 0.056 86.741 0.998 -3.234
174.792 0.998 -3.771 0.066 86.199 0.066 86.199 0.998 -3.771
199.75 0.997 -4.308 0.075 85.658 0.075 85.658 0.997 -4.308
224.708 0.996 -4.844 0.084 85.117 0.084 85.117 0.996 -4.844
249.667 0.996 -5.38 0.094 84.578 0.094 84.578 0.996 -5.38
274.625 0.995 -5.914 0.103 84.039 0.103 84.039 0.995 -5.914
299.583 0.994 -6.448 0.112 83.5 0.112 83.5 0.994 -6.448
324.542 0.992 -6.981 0.122 82.963 0.122 82.963 0.992 -6.981
349.5 0.991 -7.513 0.131 82.427 0.131 82.427 0.991 -7.513
374.458 0.99 -8.044 0.14 81.892 0.14 81.892 0.99 -8.044
399.417 0.989 -8.574 0.149 81.358 0.149 81.358 0.989 -8.574
424.375 0.987 -9.102 0.158 80.825 0.158 80.825 0.987 -9.102
449.333 0.986 -9.63 0.167 80.293 0.167 80.293 0.986 -9.63
474.292 0.984 -10.155 0.176 79.763 0.176 79.763 0.984 -10.155
499.25 0.982 -10.68 0.185 79.235 0.185 79.235 0.982 -10.68
524.208 0.981 -11.203 0.194 78.707 0.194 78.707 0.981 -11.203
549.167 0.979 -11.724 0.203 78.182 0.203 78.182 0.979 -11.724
574.125 0.977 -12.244 0.212 77.658 0.212 77.658 0.977 -12.244
599.083 0.975 -12.762 0.221 77.135 0.221 77.135 0.975 -12.762
624.042 0.973 -13.278 0.23 76.615 0.23 76.615 0.973 -13.278
649 0.971 -13.793 0.238 76.096 0.238 76.096 0.971 -13.793
673.958 0.968 -14.306 0.247 75.579 0.247 75.579 0.968 -14.306
698.917 0.966 -14.816 0.256 75.064 0.256 75.064 0.966 -14.816
723.875 0.964 -15.325 0.264 74.551 0.264 74.551 0.964 -15.325
748.833 0.961 -15.832 0.273 74.039 0.273 74.039 0.961 -15.832
773.792 0.959 -16.337 0.281 73.53 0.281 73.53 0.959 -16.337
798.75 0.956 -16.839 0.29 73.024 0.29 73.024 0.956 -16.839
823.708 0.954 -17.339 0.298 72.519 0.298 72.519 0.954 -17.339
848.667 0.951 -17.838 0.306 72.016 0.306 72.016 0.951 -17.838
873.625 0.948 -18.333 0.315 71.516 0.315 71.516 0.948 -18.333
898.583 0.946 -18.827 0.323 71.018 0.323 71.018 0.946 -18.827
923.542 0.943 -19.318 0.331 70.523 0.331 70.523 0.943 -19.318
948.5 0.94 -19.807 0.339 70.03 0.339 70.03 0.94 -19.807
973.458 0.937 -20.293 0.347 69.539 0.347 69.539 0.937 -20.293
998.417 0.934 -20.777 0.355 69.051 0.355 69.051 0.934 -20.777
1023.375 0.931 -21.259 0.363 68.565 0.363 68.565 0.931 -21.259
1048.333 0.928 -21.737 0.37 68.082 0.37 68.082 0.928 -21.737
1073.292 0.925 -22.214 0.378 67.601 0.378 67.601 0.925 -22.214
1098.25 0.921 -22.687 0.386 67.123 0.386 67.123 0.921 -22.687
1123.208 0.918 -23.158 0.393 66.647 0.393 66.647 0.918 -23.158
1148.167 0.915 -23.627 0.401 66.175 0.401 66.175 0.915 -23.627
1173.125 0.911 -24.092 0.408 65.705 0.408 65.705 0.911 -24.092
1198.083 0.908 -24.555 0.416 65.237 0.416 65.237 0.908 -24.555
1223.042 0.905 -25.016 0.423 64.772 0.423 64.772 0.905 -25.016
1248 0.901 -25.473 0.43 64.311 0.43 64.311 0.901 -25.473
1272.958 0.898 -25.928 0.437 63.851 0.437 63.851 0.898 -25.928
1297.917 0.894 -26.38 0.444 63.395 0.444 63.395 0.894 -26.38
1322.875 0.891 -26.829 0.451 62.942 0.451 62.942 0.891 -26.829
1347.833 0.887 -27.275 0.458 62.491 0.458 62.491 0.887 -27.275
1372.792 0.883 -27.718 0.465 62.043 0.465 62.043 0.883 -27.718
1397.75 0.88 -28.159 0.472 61.598 0.472 61.598 0.88 -28.159
1422.708 0.876 -28.596 0.479 61.156 0.479 61.156 0.876 -28.596
1447.667 0.872 -29.031 0.485 60.717 0.485 60.717 0.872 -29.031
1472.625 0.868 -29.463 0.492 60.28 0.492 60.28 0.868 -29.463
1497.583 0.865 -29.892 0.498 59.847 0.498 59.847 0.865 -29.892
1522.542 0.861 -30.318 0.505 59.416 0.505 59.416 0.861 -30.318
1547.5 0.857 -30.741 0.511 58.988 0.511 58.988 0.857 -30.741
1572.458 0.853 -31.162 0.517 58.564 0.517 58.564 0.853 -31.162
1597.417 0.849 -31.579 0.524 58.142 0.524 58.142 0.849 -31.579
1622.375 0.845 -31.993 0.53 57.723 0.53 57.723 0.845 -31.993
1647.333 0.842 -32.405 0.536 57.307 0.536 57.307 0.842 -32.405
1672.292 0.838 -32.813 0.542 56.893 0.542 56.893 0.838 -32.813
1697.25 0.834 -33.219 0.548 56.483 0.548 56.483 0.834 -33.219
1722.208 0.83 -33.622 0.554 56.076 0.554 56.076 0.83 -33.622
1747.167 0.826 -34.022 0.56 55.671 0.56 55.671 0.826 -34.022
1772.125 0.822 -34.418 0.565 55.27 0.565 55.27 0.822 -34.418
1797.083 0.818 -34.812 0.571 54.871 0.571 54.871 0.818 -34.812
1822.042 0.814 -35.204 0.576 54.475 0.576 54.475 0.814 -35.204
1847 0.81 -35.592 0.582 54.082 0.582 54.082 0.81 -35.592
1871.958 0.806 -35.977 0.587 53.692 0.587 53.692 0.806 -35.977
1896.917 0.802 -36.36 0.593 53.305 0.593 53.305 0.802 -36.36
1921.875 0.798 -36.739 0.598 52.921 0.598 52.921 0.798 -36.739
1946.833 0.794 -37.116 0.603 52.54 0.603 52.54 0.794 -37.116
1971.792 0.79 -37.49 0.609 52.161 0.609 52.161 0.79 -37.49
1996.75 0.786 -37.861 0.614 51.785 0.614 51.785 0.786 -37.861
2021.708 0.782 -38.229 0.619 51.412 0.619 51.412 0.782 -38.229
2046.667 0.778 -38.594 0.624 51.042 0.624 51.042 0.778 -38.594
2071.625 0.774 -38.957 0.629 50.675 0.629 50.675 0.774 -38.957
2096.583 0.77 -39.317 0.634 50.31 0.634 50.31 0.77 -39.317
2121.542 0.765 -39.674 0.638 49.948 0.638 49.948 0.765 -39.674
2146.5 0.761 -40.028 0.643 49.589 0.643 49.589 0.761 -40.028
2171.458 0.757 -40.379 0.648 49.233 0.648 49.233 0.757 -40.379
2196.417 0.753 -40.728 0.652 48.879 0.652 48.879 0.753 -40.728
2221.375 0.749 -41.074 0.657 48.529 0.657 48.529 0.749 -41.074
2246.333 0.745 -41.417 0.662 48.18 0.662 48.18 0.745 -41.417
2271.292 0.741 -41.758 0.666 47.835 0.666 47.835 0.741 -41.758
2296.25 0.737 -42.096 0.67 47.492 0.67 47.492 0.737 -42.096
2321.208 0.733 -42.431 0.675 47.152 0.675 47.152 0.733 -42.431
2346.167 0.729 -42.764 0.679 46.814 0.679 46.814 0.729 -42.764
2371.125 0.725 -43.094 0.683 46.479 0.683 46.479 0.725 -43.094
2396.083 0.721 -43.421 0.687 46.147 0.687 46.147 0.721 -43.421
2421.042 0.717 -43.746 0.691 45.817 0.691 45.817 0.717 -43.746
2446 0.713 -44.068 0.696 45.49 0.696 45.49 0.713 -44.068
2470.958 0.709 -44.388 0.7 45.165 0.7 45.165 0.709 -44.388
2495.917 0.705 -44.705 0.703 44.843 0.703 44.843 0.705 -44.705
2520.875 0.701 -45.02 0.707 44.523 0.707 44.523 0.701 -45.02
2545.833 0.697 -45.332 0.711 44.206 0.711 44.206 0.697 -45.332
2570.792 0.693 -45.642 0.715 43.891 0.715 43.891 0.693 -45.642
2595.75 0.689 -45.949 0.719 43.579 0.719 43.579 0.689 -45.949
2620.708 0.685 -46.254 0.722 43.269 0.722 43.269 0.685 -46.254
2645.667 0.682 -46.556 0.726 42.961 0.726 42.961 0.682 -46.556
2670.625 0.678 -46.856 0.73 42.656 0.73 42.656 0.678 -46.856
2695.583 0.674 -47.154 0.733 42.353 0.733 42.353 0.674 -47.154
2720.542 0.67 -47.449 0.737 42.053 0.737 42.053 0.67 -47.449
2745.5 0.666 -47.742 0.74 41.755 0.74 41.755 0.666 -47.742
2770.458 0.662 -48.032 0.744 41.459 0.744 41.459 0.662 -48.032
2795.417 0.658 -48.32 0.747 41.165 0.747 41.165 0.658 -48.32
2820.375 0.654 -48.606 0.75 40.874 0.75 40.874 0.654 -48.606
2845.333 0.651 -48.89 0.753 40.585 0.753 40.585 0.651 -48.89
2870.292 0.647 -49.171 0.757 40.298 0.757 40.298 0.647 -49.171
2895.25 0.643 -49.451 0.76 40.014 0.76 40.014 0.643 -49.451
2920.208 0.639 -49.728 0.763 39.731 0.763 39.731 0.639 -49.728
2945.167 0.635 -50.003 0.766 39.451 0.766 39.451 0.635 -50.003
2970.125 0.632 -50.275 0.769 39.173 0.769 39.173 0.632 -50.275
2995.083 0.628 -50.546 0.772 38.897 0.772 38.897 0.628 -50.546
3020.042 0.624 -50.814 0.775 38.623 0.775 38.623 0.624 -50.814
3045 0.621 -51.08 0.778 38.351 0.778 38.351 0.621 -51.08
3069.958 0.617 -51.344 0.781 38.082 0.781 38.082 0.617 -51.344
3094.917 0.613 -51.607 0.784 37.814 0.784 37.814 0.613 -51.607
3119.875 0.609 -51.867 0.787 37.548 0.787 37.548 0.609 -51.867
3144.833 0.606 -52.125 0.789 37.285 0.789 37.285 0.606 -52.125
3169.792 0.602 -52.381 0.792 37.023 0.792 37.023 0.602 -52.381
3194.75 0.599 -52.635 0.795 36.763 0.795 36.763 0.599 -52.635
3219.708 0.595 -52.887 0.797 36.506 0.797 36.506 0.595 -52.887
3244.667 0.591 -53.137 0.8 36.25 0.8 36.25 0.591 -53.137
3269.625 0.588 -53.385 0.803 35.996 0.803 35.996 0.588 -53.385
3294.583 0.584 -53.631 0.805 35.744 0.805 35.744 0.584 -53.631
3319.542 0.581 -53.875 0.808 35.494 0.808 35.494 0.581 -53.875
3344.5 0.577 -54.118 0.81 35.246 0.81 35.246 0.577 -54.118
3369.458 0.574 -54.358 0.813 35 0.813 35 0.574 -54.358
3394.417 0.57 -54.597 0.815 34.755 0.815 34.755 0.57 -54.597
3419.375 0.567 -54.834 0.818 34.512 0.818 34.512 0.567 -54.834
3444.333 0.563 -55.069 0.82 34.271 0.82 34.271 0.563 -55.069
3469.292 0.56 -55.302 0.822 34.032 0.822 34.032 0.56 -55.302
3494.25 0.556 -55.533 0.825 33.795 0.825 33.795 0.556 -55.533
3519.208 0.553 -55.763 0.827 33.559 0.827 33.559 0.553 -55.763
3544.167 0.549 -55.991 0.829 33.325 0.829 33.325 0.549 -55.991
3569.125 0.546 -56.217 0.831 33.093 0.831 33.093 0.546 -56.217
3594.083 0.543 -56.442 0.833 32.862 0.833 32.862 0.543 -56.442
3619.042 0.539 -56.665 0.836 32.633 0.836 32.633 0.539 -56.665
3644 0.536 -56.886 0.838 32.406 0.838 32.406 0.536 -56.886
3668.958 0.533 -57.105 0.84 32.18 0.84 32.18 0.533 -57.105
3693.917 0.529 -57.323 0.842 31.956 0.842 31.956 0.529 -57.323
3718.875 0.526 -57.539 0.844 31.734 0.844 31.734 0.526 -57.539
3743.833 0.523 -57.754 0.846 31.513 0.846 31.513 0.523 -57.754
3768.792 0.519 -57.967 0.848 31.293 0.848 31.293 0.519 -57.967
3793.75 0.516 -58.178 0.85 31.076 0.85 31.076 0.516 -58.178
3818.708 0.513 -58.388 0.852 30.859 0.852 30.859 0.513 -58.388
3843.667 0.51 -58.596 0.854 30.645 0.854 30.645 0.51 -58.596
3868.625 0.507 -58.803 0.855 30.431 0.855 30.431 0.507 -58.803
3893.583 0.503 -59.008 0.857 30.22 0.857 30.22 0.503 -59.008
3918.542 0.5 -59.212 0.859 30.01 0.859 30.01 0.5 -59.212
3943.5 0.497 -59.414 0.861 29.801 0.861 29.801 0.497 -59.414
3968.458 0.494 -59.615 0.863 29.593 0.863 29.593 0.494 -59.615
3993.417 0.491 -59.814 0.864 29.387 0.864 29.387 0.491 -59.814
4018.375 0.488 -60.012 0.866 29.183 0.866 29.183 0.488 -60.012
4043.333 0.485 -60.208 0.868 28.98 0.868 28.98 0.485 -60.208
4068.292 0.481 -60.403 0.87 28.778 0.87 28.778 0.481 -60.403
4093.25 0.478 -60.597 0.871 28.578 0.871 28.578 0.478 -60.597
4118.208 0.475 -60.789 0.873 28.379 0.873 28.379 0.475 -60.789
4143.167 0.472 -60.98 0.875 28.181 0.875 28.181 0.472 -60.98
4168.125 0.469 -61.169 0.876 27.985 0.876 27.985 0.469 -61.169
4193.083 0.466 -61.357 0.878 27.79 0.878 27.79 0.466 -61.357
4218.042 0.463 -61.544 0.879 27.596 0.879 27.596 0.463 -61.544
4243 0.46 -61.729 0.881 27.403 0.881 27.403 0.46 -61.729
4267.958 0.457 -61.913 0.882 27.212 0.882 27.212 0.457 -61.913
4292.917 0.454 -62.096 0.884 27.022 0.884 27.022 0.454 -62.096
4317.875 0.451 -62.277 0.885 26.834 0.885 26.834 0.451 -62.277
4342.833 0.449 -62.458 0.887 26.646 0.887 26.646 0.449 -62.458
4367.792 0.446 -62.637 0.888 26.46 0.888 26.46 0.446 -62.637
4392.75 0.443 -62.814 0.89 26.275 0.89 26.275 0.443 -62.814
4417.708 0.44 -62.991 0.891 26.091 0.891 26.091 0.44 -62.991
4442.667 0.437 -63.166 0.892 25.909 0.892 25.909 0.437 -63.166
4467.625 0.434 -63.34 0.894 25.727 0.894 25.727 0.434 -63.34
4492.583 0.431 -63.512 0.895 25.547 0.895 25.547 0.431 -63.512
4517.542 0.428 -63.684 0.896 25.368 0.896 25.368 0.428 -63.684
4542.5 0.426 -63.854 0.898 25.19 0.898 25.19 0.426 -63.854
4567.458 0.423 -64.024 0.899 25.013 0.899 25.013 0.423 -64.024
4592.417 0.42 -64.192 0.9 24.837 0.9 24.837 0.42 -64.192
4617.375 0.417 -64.358 0.902 24.662 0.902 24.662 0.417 -64.358
4642.333 0.415 -64.524 0.903 24.489 0.903 24.489 0.415 -64.524
4667.292 0.412 -64.689 0.904 24.316 0.904 24.316 0.412 -64.689
4692.25 0.409 -64.852 0.905 24.145 0.905 24.145 0.409 -64.852
4717.208 0.406 -65.015 0.907 23.974 0.907 23.974 0.406 -65.015
4742.167 0.404 -65.176 0.908 23.805 0.908 23.805 0.404 -65.176
4767.125 0.401 -65.336 0.909 23.637 0.909 23.637 0.401 -65.336
4792.083 0.398 -65.495 0.91 23.469 0.91 23.469 0.398 -65.495
4817.042 0.396 -65.653 0.911 23.303 0.911 23.303 0.396 -65.653
4842 0.393 -65.81 0.912 23.138 0.912 23.138 0.393 -65.81
4866.958 0.39 -65.966 0.913 22.974 0.913 22.974 0.39 -65.966
4891.917 0.388 -66.121 0.915 22.81 0.915 22.81 0.388 -66.121
4916.875 0.385 -66.274 0.916 22.648 0.916 22.648 0.385 -66.274
4941.833 0.383 -66.427 0.917 22.487 0.917 22.487 0.383 -66.427
4966.792 0.38 -66.579 0.918 22.326 0.918 22.326 0.38 -66.579
4991.75 0.377 -66.729 0.919 22.167 0.919 22.167 0.377 -66.729
5016.708 0.375 -66.879 0.92 22.008 0.92 22.008 0.375 -66.879
5041.667 0.372 -67.028 0.921 21.851 0.921 21.851 0.372 -67.028
5066.625 0.37 -67.176 0.922 21.694 0.922 21.694 0.37 -67.176
5091.583 0.367 -67.322 0.923 21.538 0.923 21.538 0.367 -67.322
5116.542 0.365 -67.468 0.924 21.384 0.924 21.384 0.365 -67.468
5141.5 0.362 -67.613 0.925 21.23 0.925 21.23 0.362 -67.613
5166.458 0.36 -67.757 0.926 21.077 0.926 21.077 0.36 -67.757
5191.417 0.357 -67.9 0.927 20.924 0.927 20.924 0.357 -67.9
5216.375 0.355 -68.042 0.928 20.773 0.928 20.773 0.355 -68.042
5241.333 0.352 -68.183 0.929 20.622 0.929 20.622 0.352 -68.183
5266.292 0.35 -68.323 0.929 20.473 0.929 20.473 0.35 -68.323
5291.25 0.347 -68.462 0.93 20.324 0.93 20.324 0.347 -68.462
5316.208 0.345 -68.6 0.931 20.176 0.931 20.176 0.345 -68.6
5341.167 0.343 -68.738 0.932 20.029 0.932 20.029 0.343 -68.738
5366.125 0.34 -68.874 0.933 19.883 0.933 19.883 0.34 -68.874
5391.083 0.338 -69.01 0.934 19.737 0.934 19.737 0.338 -69.01
5416.042 0.335 -69.144 0.935 19.592 0.935 19.592 0.335 -69.144
5441 0.333 -69.278 0.936 19.448 0.936 19.448 0.333 -69.278
5465.958 0.331 -69.411 0.936 19.305 0.936 19.305 0.331 -69.411
5490.917 0.328 -69.543 0.937 19.163 0.937 19.163 0.328 -69.543
5515.875 0.326 -69.675 0.938 19.021 0.938 19.021 0.326 -69.675
5540.833 0.324 -69.805 0.939 18.88 0.939 18.88 0.324 -69.805
5565.792 0.321 -69.934 0.94 18.74 0.94 18.74 0.321 -69.934
5590.75 0.319 -70.063 0.94 18.601 0.94 18.601 0.319 -70.063
5615.708 0.317 -70.191 0.941 18.462 0.941 18.462 0.317 -70.191
5640.667 0.314 -70.318 0.942 18.324 0.942 18.324 0.314 -70.318
5665.625 0.312 -70.444 0.943 18.187 0.943 18.187 0.312 -70.444
5690.583 0.31 -70.57 0.943 18.051 0.943 18.051 0.31 -70.57
5715.542 0.308 -70.694 0.944 17.915 0.944 17.915 0.308 -70.694
5740.5 0.305 -70.818 0.945 17.78 0.945 17.78 0.305 -70.818
5765.458 0.303 -70.941 0.945 17.646 0.945 17.646 0.303 -70.941
5790.417 0.301 -71.063 0.946 17.512 0.946 17.512 0.301 -71.063
5815.375 0.299 -71.184 0.947 17.379 0.947 17.379 0.299 -71.184
5840.333 0.297 -71.305 0.948 17.247 0.948 17.247 0.297 -71.305
5865.292 0.294 -71.425 0.948 17.115 0.948 17.115 0.294 -71.425
5890.25 0.292 -71.544 0.949 16.984 0.949 16.984 0.292 -71.544
5915.208 0.29 -71.662 0.95 16.854 0.95 16.854 0.29 -71.662
5940.167 0.288 -71.779 0.95 16.724 0.95 16.724 0.288 -71.779
5965.125 0.286 -71.896 0.951 16.595 0.951 16.595 0.286 -71.896
5990.083 0.284 -72.012 0.951 16.467 0.951 16.467 0.284 -72.012
6015.042 0.281 -72.127 0.952 16.339 0.952 16.339 0.281 -72.127
6040 0.279 -72.241 0.953 16.212 0.953 16.212 0.279 -72.241
6064.958 0.277 -72.355 0.953 16.086 0.953 16.086 0.277 -72.355
6089.917 0.275 -72.468 0.954 15.96 0.954 15.96 0.275 -72.468
6114.875 0.273 -72.58 0.955 15.835 0.955 15.835 0.273 -72.58
6139.833 0.271 -72.692 0.955 15.71 0.955 15.71 0.271 -72.692
6164.792 0.269 -72.802 0.956 15.586 0.956 15.586 0.269 -72.802
6189.75 0.267 -72.912 0.956 15.463 0.956 15.463 0.267 -72.912
6214.708 0.265 -73.021 0.957 15.34 0.957 15.34 0.265 -73.021
6239.667 0.263 -73.13 0.957 15.218 0.957 15.218 0.263 -73.13
6264.625 0.261 -73.237 0.958 15.096 0.958 15.096 0.261 -73.237
6289.583 0.259 -73.344 0.958 14.975 0.958 14.975 0.259 -73.344
6314.542 0.256 -73.451 0.959 14.854 0.959 14.854 0.256 -73.451
6339.5 0.254 -73.556 0.96 14.734 0.96 14.734 0.254 -73.556
6364.458 0.252 -73.661 0.96 14.615 0.96 14.615 0.252 -73.661
6389.417 0.25 -73.765 0.961 14.496 0.961 14.496 0.25 -73.765
6414.375 0.248 -73.868 0.961 14.378 0.961 14.378 0.248 -73.868
6439.333 0.246 -73.971 0.962 14.26 0.962 14.26 0.246 -73.971
6464.292 0.244 -74.073 0.962 14.143 0.962 14.143 0.244 -74.073
6489.25 0.242 -74.174 0.963 14.026 0.963 14.026 0.242 -74.174
6514.208 0.241 -74.275 0.963 13.91 0.963 13.91 0.241 -74.275
6539.167 0.239 -74.375 0.964 13.794 0.964 13.794 0.239 -74.375
6564.125 0.237 -74.474 0.964 13.679 0.964 13.679 0.237 -74.474
6589.083 0.235 -74.572 0.964 13.565 0.964 13.565 0.235 -74.572
6614.042 0.233 -74.67 0.965 13.451 0.965 13.451 0.233 -74.67
6639 0.231 -74.767 0.965 13.337 0.965 13.337 0.231 -74.767
6663.958 0.229 -74.863 0.966 13.224 0.966 13.224 0.229 -74.863
6688.917 0.227 -74.959 0.966 13.111 0.966 13.111 0.227 -74.959
6713.875 0.225 -75.054 0.967 12.999 0.967 12.999 0.225 -75.054
6738.833 0.223 -75.148 0.967 12.888 0.967 12.888 0.223 -75.148
6763.792 0.221 -75.241 0.968 12.776 0.968 12.776 0.221 -75.241
6788.75 0.219 -75.334 0.968 12.666 0.968 12.666 0.219 -75.334
6813.708 0.218 -75.426 0.968 12.556 0.968 12.556 0.218 -75.426
6838.667 0.216 -75.517 0.969 12.446 0.969 12.446 0.216 -75.517
6863.625 0.214 -75.608 0.969 12.337 0.969 12.337 0.214 -75.608
6888.583 0.212 -75.698 0.97 12.228 0.97 12.228 0.212 -75.698
6913.542 0.21 -75.787 0.97 12.12 0.97 12.12 0.21 -75.787
6938.5 0.208 -75.876 0.97 12.012 0.97 12.012 0.208 -75.876
6963.458 0.206 -75.963 0.971 11.904 0.971 11.904 0.206 -75.963
6988.417 0.205 -76.051 0.971 11.797 0.971 11.797 0.205 -76.051
7013.375 0.203 -76.137 0.972 11.691 0.972 11.691 0.203 -76.137
7038.333 0.201 -76.223 0.972 11.585 0.972 11.585 0.201 -76.223
7063.292 0.199 -76.307 0.972 11.479 0.972 11.479 0.199 -76.307
7088.25 0.197 -76.392 0.973 11.374 0.973 11.374 0.197 -76.392
7113.208 0.196 -76.475 0.973 11.269 0.973 11.269 0.196 -76.475
7138.167 0.194 -76.558 0.973 11.165 0.973 11.165 0.194 -76.558
7163.125 0.192 -76.64 0.974 11.061 0.974 11.061 0.192 -76.64
7188.083 0.19 -76.721 0.974 10.958 0.974 10.958 0.19 -76.721
7213.042 0.188 -76.802 0.974 10.854 0.974 10.854 0.188 -76.802
7238 0.187 -76.881 0.975 10.752 0.975 10.752 0.187 -76.881
7262.958 0.185 -76.96 0.975 10.65 0.975 10.65 0.185 -76.96
7287.917 0.183 -77.039 0.975 10.548 0.975 10.548 0.183 -77.039
7312.875 0.181 -77.116 0.976 10.446 0.976 10.446 0.181 -77.116
7337.833 0.18 -77.193 0.976 10.345 0.976 10.345 0.18 -77.193
7362.792 0.178 -77.269 0.976 10.245 0.976 10.245 0.178 -77.269
7387.75 0.176 -77.344 0.977 10.144 0.977 10.144 0.176 -77.344
7412.708 0.175 -77.418 0.977 10.044 0.977 10.044 0.175 -77.418
7437.667 0.173 -77.492 0.977 9.945 0.977 9.945 0.173 -77.492
7462.625 0.171 -77.565 0.978 9.846 0.978 9.846 0.171 -77.565
7487.583 0.169 -77.637 0.978 9.747 0.978 9.747 0.169 -77.637
7512.542 0.168 -77.708 0.978 9.649 0.978 9.649 0.168 -77.708
7537.5 0.166 -77.779 0.978 9.551 0.978 9.551 0.166 -77.779
7562.458 0.164 -77.848 0.979 9.453 0.979 9.453 0.164 -77.848
7587.417 0.163 -77.917 0.979 9.356 0.979 9.356 0.163 -77.917
7612.375 0.161 -77.985 0.979 9.259 0.979 9.259 0.161 -77.985
7637.333 0.159 -78.052 0.979 9.162 0.979 9.162 0.159 -78.052
7662.292 0.158 -78.118 0.98 9.066 0.98 9.066 0.158 -78.118
7687.25 0.156 -78.183 0.98 8.971 0.98 8.971 0.156 -78.183
7712.208 0.154 -78.248 0.98 8.875 0.98 8.875 0.154 -78.248
7737.167 0.153 -78.311 0.981 8.78 0.981 8.78 0.153 -78.311
7762.125 0.151 -78.374 0.981 8.685 0.981 8.685 0.151 -78.374
7787.083 0.15 -78.435 0.981 8.591 0.981 8.591 0.15 -78.435
7812.042 0.148 -78.496 0.981 8.497 0.981 8.497 0.148 -78.496
7837 0.146 -78.556 0.982 8.403 0.982 8.403 0.146 -78.556
7861.958 0.145 -78.614 0.982 8.31 0.982 8.31 0.145 -78.614
7886.917 0.143 -78.672 0.982 8.217 0.982 8.217 0.143 -78.672
7911.875 0.142 -78.729 0.982 8.124 0.982 8.124 0.142 -78.729
7936.833 0.14 -78.785 0.982 8.031 0.982 8.031 0.14 -78.785
7961.792 0.138 -78.84 0.983 7.939 0.983 7.939 0.138 -78.84
7986.75 0.137 -78.893 0.983 7.848 0.983 7.848 0.137 -78.893
8011.708 0.135 -78.946 0.983 7.756 0.983 7.756 0.135 -78.946
8036.667 0.134 -78.997 0.983 7.665 0.983 7.665 0.134 -78.997
8061.625 0.132 -79.048 0.983 7.574 0.983 7.574 0.132 -79.048
8086.583 0.13 -79.097 0.984 7.484 0.984 7.484 0.13 -79.097
8111.542 0.129 -79.145 0.984 7.394 0.984 7.394 0.129 -79.145
8136.5 0.127 -79.192 0.984 7.304 0.984 7.304 0.127 -79.192
