# MHZ S MA R 50

50 0.999 -2.249 0.039 87.741 0.039 87.741 0.999 -2.249
74.958 0.998 -3.37 0.059 86.616 0.059 86.616 0.998 -3.37
99.917 0.997 -4.488 0.078 85.493 0.078 85.493 0.997 -4.488
124.875 0.995 -5.603 0.098 84.373 0.098 84.373 0.995 -5.603
149.833 0.993 -6.714 0.117 83.257 0.117 83.257 0.993 -6.714
174.792 0.991 -7.82 0.136 82.145 0.136 82.145 0.991 -7.82
199.75 0.988 -8.921 0.155 81.039 0.155 81.039 0.988 -8.921
224.708 0.985 -10.016 0.174 79.94 0.174 79.94 0.985 -10.016
249.667 0.981 -11.104 0.193 78.847 0.193 78.847 0.981 -11.104
274.625 0.977 -12.185 0.211 77.761 0.211 77.761 0.977 -12.185
299.583 0.973 -13.258 0.229 76.684 0.229 76.684 0.973 -13.258
324.542 0.969 -14.321 0.247 75.615 0.247 75.615 0.969 -14.321
349.5 0.964 -15.376 0.265 74.555 0.265 74.555 0.964 -15.376
374.458 0.959 -16.421 0.283 73.505 0.283 73.505 0.959 -16.421
399.417 0.954 -17.456 0.3 72.466 0.3 72.466 0.954 -17.456
424.375 0.948 -18.48 0.317 71.437 0.317 71.437 0.948 -18.48
449.333 0.942 -19.493 0.334 70.419 0.334 70.419 0.942 -19.493
474.292 0.936 -20.494 0.35 69.413 0.35 69.413 0.936 -20.494
499.25 0.93 -21.483 0.366 68.418 0.366 68.418 0.93 -21.483
524.208 0.923 -22.461 0.382 67.436 0.382 67.436 0.923 -22.461
549.167 0.917 -23.425 0.398 66.466 0.398 66.466 0.917 -23.425
574.125 0.91 -24.377 0.413 65.509 0.413 65.509 0.91 -24.377
599.083 0.903 -25.317 0.428 64.565 0.428 64.565 0.903 -25.317
624.042 0.896 -26.243 0.442 63.634 0.442 63.634 0.896 -26.243
649 0.889 -27.155 0.456 62.716 0.456 62.716 0.889 -27.155
673.958 0.881 -28.055 0.47 61.812 0.47 61.812 0.881 -28.055
698.917 0.874 -28.941 0.484 60.921 0.484 60.921 0.874 -28.941
723.875 0.866 -29.813 0.497 60.044 0.497 60.044 0.866 -29.813
748.833 0.859 -30.672 0.51 59.18 0.51 59.18 0.859 -30.672
773.792 0.851 -31.517 0.523 58.329 0.523 58.329 0.851 -31.517
798.75 0.843 -32.349 0.535 57.493 0.535 57.493 0.843 -32.349
823.708 0.836 -33.167 0.547 56.67 0.547 56.67 0.836 -33.167
848.667 0.828 -33.971 0.559 55.86 0.559 55.86 0.828 -33.971
873.625 0.82 -34.762 0.57 55.064 0.57 55.064 0.82 -34.762
898.583 0.812 -35.54 0.581 54.281 0.581 54.281 0.812 -35.54
923.542 0.804 -36.304 0.592 53.512 0.592 53.512 0.804 -36.304
948.5 0.796 -37.055 0.603 52.756 0.603 52.756 0.796 -37.055
973.458 0.788 -37.794 0.613 52.012 0.613 52.012 0.788 -37.794
998.417 0.78 -38.519 0.623 51.282 0.623 51.282 0.78 -38.519
1023.375 0.772 -39.231 0.632 50.564 0.632 50.564 0.772 -39.231
1048.333 0.764 -39.931 0.642 49.859 0.642 49.859 0.764 -39.931
1073.292 0.757 -40.619 0.651 49.166 0.651 49.166 0.757 -40.619
1098.25 0.749 -41.294 0.66 48.486 0.66 48.486 0.749 -41.294
1123.208 0.741 -41.957 0.669 47.818 0.669 47.818 0.741 -41.957
1148.167 0.733 -42.608 0.677 47.161 0.677 47.161 0.733 -42.608
1173.125 0.726 -43.248 0.685 46.517 0.685 46.517 0.726 -43.248
1198.083 0.718 -43.875 0.693 45.883 0.693 45.883 0.718 -43.875
1223.042 0.71 -44.492 0.701 45.261 0.701 45.261 0.71 -44.492
1248 0.703 -45.097 0.708 44.651 0.708 44.651 0.703 -45.097
1272.958 0.695 -45.692 0.716 44.051 0.716 44.051 0.695 -45.692
1297.917 0.688 -46.276 0.723 43.462 0.723 43.462 0.688 -46.276
1322.875 0.681 -46.849 0.73 42.883 0.73 42.883 0.681 -46.849
1347.833 0.673 -47.412 0.736 42.315 0.736 42.315 0.673 -47.412
1372.792 0.666 -47.964 0.743 41.757 0.743 41.757 0.666 -47.964
1397.75 0.659 -48.507 0.749 41.209 0.749 41.209 0.659 -48.507
1422.708 0.652 -49.04 0.755 40.67 0.755 40.67 0.652 -49.04
1447.667 0.645 -49.564 0.761 40.141 0.761 40.141 0.645 -49.564
1472.625 0.638 -50.078 0.767 39.622 0.767 39.622 0.638 -50.078
1497.583 0.631 -50.583 0.773 39.111 0.773 39.111 0.631 -50.583
1522.542 0.624 -51.078 0.778 38.61 0.778 38.61 0.624 -51.078
1547.5 0.617 -51.566 0.783 38.117 0.783 38.117 0.617 -51.566
1572.458 0.611 -52.044 0.788 37.633 0.788 37.633 0.611 -52.044
1597.417 0.604 -52.514 0.794 37.158 0.794 37.158 0.604 -52.514
1622.375 0.597 -52.976 0.798 36.69 0.798 36.69 0.597 -52.976
1647.333 0.591 -53.43 0.803 36.231 0.803 36.231 0.591 -53.43
1672.292 0.585 -53.876 0.808 35.779 0.808 35.779 0.585 -53.876
1697.25 0.578 -54.314 0.812 35.335 0.812 35.335 0.578 -54.314
1722.208 0.572 -54.745 0.817 34.899 0.817 34.899 0.572 -54.745
1747.167 0.566 -55.168 0.821 34.47 0.821 34.47 0.566 -55.168
1772.125 0.56 -55.584 0.825 34.048 0.825 34.048 0.56 -55.584
1797.083 0.554 -55.993 0.829 33.633 0.829 33.633 0.554 -55.993
1822.042 0.548 -56.395 0.833 33.225 0.833 33.225 0.548 -56.395
1847 0.542 -56.79 0.837 32.824 0.837 32.824 0.542 -56.79
1871.958 0.536 -57.179 0.84 32.43 0.84 32.43 0.536 -57.179
1896.917 0.531 -57.561 0.844 32.041 0.844 32.041 0.531 -57.561
1921.875 0.525 -57.937 0.847 31.66 0.847 31.66 0.525 -57.937
1946.833 0.519 -58.307 0.851 31.284 0.851 31.284 0.519 -58.307
1971.792 0.514 -58.67 0.854 30.914 0.854 30.914 0.514 -58.67
1996.75 0.508 -59.028 0.857 30.55 0.857 30.55 0.508 -59.028
2021.708 0.503 -59.38 0.861 30.192 0.861 30.192 0.503 -59.38
2046.667 0.498 -59.727 0.864 29.84 0.864 29.84 0.498 -59.727
2071.625 0.492 -60.067 0.867 29.493 0.867 29.493 0.492 -60.067
2096.583 0.487 -60.403 0.87 29.151 0.87 29.151 0.487 -60.403
2121.542 0.482 -60.733 0.872 28.815 0.872 28.815 0.482 -60.733
2146.5 0.477 -61.058 0.875 28.484 0.875 28.484 0.477 -61.058
2171.458 0.472 -61.378 0.878 28.158 0.878 28.158 0.472 -61.378
2196.417 0.467 -61.693 0.88 27.836 0.88 27.836 0.467 -61.693
2221.375 0.462 -62.003 0.883 27.52 0.883 27.52 0.462 -62.003
2246.333 0.457 -62.308 0.885 27.208 0.885 27.208 0.457 -62.308
2271.292 0.452 -62.609 0.888 26.901 0.888 26.901 0.452 -62.609
2296.25 0.448 -62.905 0.89 26.598 0.89 26.598 0.448 -62.905
2321.208 0.443 -63.197 0.893 26.3 0.893 26.3 0.443 -63.197
2346.167 0.438 -63.484 0.895 26.006 0.895 26.006 0.438 -63.484
2371.125 0.434 -63.767 0.897 25.716 0.897 25.716 0.434 -63.767
2396.083 0.429 -64.046 0.899 25.43 0.899 25.43 0.429 -64.046
2421.042 0.425 -64.321 0.901 25.149 0.901 25.149 0.425 -64.321
2446 0.421 -64.592 0.903 24.871 0.903 24.871 0.421 -64.592
2470.958 0.416 -64.859 0.905 24.597 0.905 24.597 0.416 -64.859
2495.917 0.412 -65.122 0.907 24.327 0.907 24.327 0.412 -65.122
2520.875 0.408 -65.382 0.909 24.061 0.909 24.061 0.408 -65.382
2545.833 0.404 -65.638 0.911 23.798 0.911 23.798 0.404 -65.638
2570.792 0.399 -65.89 0.913 23.539 0.913 23.539 0.399 -65.89
2595.75 0.395 -66.139 0.915 23.283 0.915 23.283 0.395 -66.139
2620.708 0.391 -66.384 0.916 23.031 0.916 23.031 0.391 -66.384
2645.667 0.387 -66.626 0.918 22.782 0.918 22.782 0.387 -66.626
2670.625 0.383 -66.864 0.92 22.536 0.92 22.536 0.383 -66.864
2695.583 0.379 -67.099 0.921 22.294 0.921 22.294 0.379 -67.099
2720.542 0.376 -67.332 0.923 22.054 0.923 22.054 0.376 -67.332
2745.5 0.372 -67.561 0.924 21.818 0.924 21.818 0.372 -67.561
2770.458 0.368 -67.787 0.926 21.585 0.926 21.585 0.368 -67.787
2795.417 0.364 -68.01 0.927 21.354 0.927 21.354 0.364 -68.01
2820.375 0.36 -68.23 0.929 21.127 0.929 21.127 0.36 -68.23
2845.333 0.357 -68.447 0.93 20.902 0.93 20.902 0.357 -68.447
2870.292 0.353 -68.661 0.932 20.68 0.932 20.68 0.353 -68.661
2895.25 0.35 -68.873 0.933 20.461 0.933 20.461 0.35 -68.873
2920.208 0.346 -69.081 0.934 20.244 0.934 20.244 0.346 -69.081
2945.167 0.343 -69.287 0.935 20.03 0.935 20.03 0.343 -69.287
2970.125 0.339 -69.491 0.937 19.819 0.937 19.819 0.339 -69.491
2995.083 0.336 -69.692 0.938 19.61 0.938 19.61 0.336 -69.692
3020.042 0.332 -69.89 0.939 19.403 0.939 19.403 0.332 -69.89
3045 0.329 -70.086 0.94 19.199 0.94 19.199 0.329 -70.086
3069.958 0.326 -70.28 0.941 18.998 0.941 18.998 0.326 -70.28
3094.917 0.322 -70.471 0.943 18.798 0.943 18.798 0.322 -70.471
3119.875 0.319 -70.66 0.944 18.601 0.944 18.601 0.319 -70.66
3144.833 0.316 -70.846 0.945 18.406 0.945 18.406 0.316 -70.846
3169.792 0.313 -71.031 0.946 18.213 0.946 18.213 0.313 -71.031
3194.75 0.309 -71.213 0.947 18.023 0.947 18.023 0.309 -71.213
3219.708 0.306 -71.393 0.948 17.834 0.948 17.834 0.306 -71.393
3244.667 0.303 -71.57 0.949 17.648 0.949 17.648 0.303 -71.57
3269.625 0.3 -71.746 0.95 17.463 0.95 17.463 0.3 -71.746
3294.583 0.297 -71.919 0.951 17.281 0.951 17.281 0.297 -71.919
3319.542 0.294 -72.091 0.952 17.101 0.952 17.101 0.294 -72.091
3344.5 0.291 -72.26 0.953 16.922 0.953 16.922 0.291 -72.26
3369.458 0.288 -72.428 0.953 16.745 0.953 16.745 0.288 -72.428
3394.417 0.285 -72.594 0.954 16.57 0.954 16.57 0.285 -72.594
3419.375 0.282 -72.757 0.955 16.397 0.955 16.397 0.282 -72.757
3444.333 0.279 -72.919 0.956 16.226 0.956 16.226 0.279 -72.919
3469.292 0.277 -73.079 0.957 16.057 0.957 16.057 0.277 -73.079
3494.25 0.274 -73.237 0.958 15.889 0.958 15.889 0.274 -73.237
3519.208 0.271 -73.394 0.958 15.723 0.958 15.723 0.271 -73.394
3544.167 0.268 -73.548 0.959 15.558 0.959 15.558 0.268 -73.548
3569.125 0.266 -73.701 0.96 15.396 0.96 15.396 0.266 -73.701
3594.083 0.263 -73.852 0.961 15.234 0.961 15.234 0.263 -73.852
3619.042 0.26 -74.002 0.961 15.075 0.961 15.075 0.26 -74.002
3644 0.257 -74.15 0.962 14.917 0.962 14.917 0.257 -74.15
3668.958 0.255 -74.296 0.963 14.76 0.963 14.76 0.255 -74.296
3693.917 0.252 -74.441 0.963 14.605 0.963 14.605 0.252 -74.441
3718.875 0.25 -74.584 0.964 14.451 0.964 14.451 0.25 -74.584
3743.833 0.247 -74.725 0.965 14.299 0.965 14.299 0.247 -74.725
3768.792 0.244 -74.865 0.965 14.148 0.965 14.148 0.244 -74.865
3793.75 0.242 -75.003 0.966 13.999 0.966 13.999 0.242 -75.003
3818.708 0.239 -75.14 0.967 13.851 0.967 13.851 0.239 -75.14
3843.667 0.237 -75.276 0.967 13.704 0.967 13.704 0.237 -75.276
3868.625 0.234 -75.41 0.968 13.559 0.968 13.559 0.234 -75.41
3893.583 0.232 -75.542 0.968 13.415 0.968 13.415 0.232 -75.542
3918.542 0.23 -75.673 0.969 13.272 0.969 13.272 0.23 -75.673
3943.5 0.227 -75.803 0.97 13.131 0.97 13.131 0.227 -75.803
3968.458 0.225 -75.932 0.97 12.99 0.97 12.99 0.225 -75.932
3993.417 0.222 -76.059 0.971 12.851 0.971 12.851 0.222 -76.059
4018.375 0.22 -76.184 0.971 12.713 0.971 12.713 0.22 -76.184
4043.333 0.218 -76.308 0.972 12.577 0.972 12.577 0.218 -76.308
4068.292 0.215 -76.431 0.972 12.441 0.972 12.441 0.215 -76.431
4093.25 0.213 -76.553 0.973 12.307 0.973 12.307 0.213 -76.553
4118.208 0.211 -76.674 0.973 12.174 0.973 12.174 0.211 -76.674
4143.167 0.209 -76.793 0.974 12.041 0.974 12.041 0.209 -76.793
4168.125 0.206 -76.91 0.974 11.91 0.974 11.91 0.206 -76.91
4193.083 0.204 -77.027 0.975 11.78 0.975 11.78 0.204 -77.027
4218.042 0.202 -77.142 0.975 11.651 0.975 11.651 0.202 -77.142
4243 0.2 -77.257 0.976 11.524 0.976 11.524 0.2 -77.257
4267.958 0.198 -77.37 0.976 11.397 0.976 11.397 0.198 -77.37
4292.917 0.195 -77.481 0.976 11.271 0.976 11.271 0.195 -77.481
4317.875 0.193 -77.592 0.977 11.146 0.977 11.146 0.193 -77.592
4342.833 0.191 -77.701 0.977 11.022 0.977 11.022 0.191 -77.701
4367.792 0.189 -77.809 0.978 10.899 0.978 10.899 0.189 -77.809
4392.75 0.187 -77.916 0.978 10.777 0.978 10.777 0.187 -77.916
4417.708 0.185 -78.022 0.978 10.656 0.978 10.656 0.185 -78.022
4442.667 0.183 -78.127 0.979 10.536 0.979 10.536 0.183 -78.127
4467.625 0.181 -78.231 0.979 10.417 0.979 10.417 0.181 -78.231
4492.583 0.179 -78.333 0.98 10.298 0.98 10.298 0.179 -78.333
4517.542 0.177 -78.434 0.98 10.181 0.98 10.181 0.177 -78.434
4542.5 0.175 -78.535 0.98 10.064 0.98 10.064 0.175 -78.535
4567.458 0.173 -78.634 0.981 9.948 0.981 9.948 0.173 -78.634
4592.417 0.171 -78.732 0.981 9.834 0.981 9.834 0.171 -78.732
4617.375 0.169 -78.829 0.981 9.719 0.981 9.719 0.169 -78.829
4642.333 0.167 -78.924 0.982 9.606 0.982 9.606 0.167 -78.924
4667.292 0.165 -79.019 0.982 9.494 0.982 9.494 0.165 -79.019
4692.25 0.163 -79.113 0.982 9.382 0.982 9.382 0.163 -79.113
4717.208 0.161 -79.205 0.983 9.271 0.983 9.271 0.161 -79.205
4742.167 0.159 -79.297 0.983 9.161 0.983 9.161 0.159 -79.297
4767.125 0.157 -79.387 0.983 9.052 0.983 9.052 0.157 -79.387
4792.083 0.156 -79.477 0.984 8.943 0.984 8.943 0.156 -79.477
4817.042 0.154 -79.565 0.984 8.835 0.984 8.835 0.154 -79.565
4842 0.152 -79.652 0.984 8.728 0.984 8.728 0.152 -79.652
4866.958 0.15 -79.738 0.984 8.622 0.984 8.622 0.15 -79.738
4891.917 0.148 -79.823 0.985 8.516 0.985 8.516 0.148 -79.823
4916.875 0.146 -79.907 0.985 8.411 0.985 8.411 0.146 -79.907
4941.833 0.145 -79.99 0.985 8.306 0.985 8.306 0.145 -79.99
4966.792 0.143 -80.072 0.985 8.203 0.985 8.203 0.143 -80.072
4991.75 0.141 -80.153 0.986 8.1 0.986 8.1 0.141 -80.153
5016.708 0.139 -80.233 0.986 7.998 0.986 7.998 0.139 -80.233
5041.667 0.137 -80.311 0.986 7.896 0.986 7.896 0.137 -80.311
5066.625 0.136 -80.389 0.986 7.795 0.986 7.795 0.136 -80.389
5091.583 0.134 -80.465 0.987 7.694 0.987 7.694 0.134 -80.465
5116.542 0.132 -80.54 0.987 7.595 0.987 7.595 0.132 -80.54
5141.5 0.131 -80.615 0.987 7.495 0.987 7.495 0.131 -80.615
5166.458 0.129 -80.688 0.987 7.397 0.987 7.397 0.129 -80.688
5191.417 0.127 -80.76 0.988 7.299 0.988 7.299 0.127 -80.76
5216.375 0.125 -80.831 0.988 7.202 0.988 7.202 0.125 -80.831
5241.333 0.124 -80.9 0.988 7.105 0.988 7.105 0.124 -80.9
5266.292 0.122 -80.969 0.988 7.009 0.988 7.009 0.122 -80.969
5291.25 0.12 -81.036 0.988 6.913 0.988 6.913 0.12 -81.036
5316.208 0.119 -81.102 0.989 6.818 0.989 6.818 0.119 -81.102
5341.167 0.117 -81.167 0.989 6.724 0.989 6.724 0.117 -81.167
5366.125 0.116 -81.231 0.989 6.63 0.989 6.63 0.116 -81.231
5391.083 0.114 -81.294 0.989 6.536 0.989 6.536 0.114 -81.294
5416.042 0.112 -81.355 0.989 6.443 0.989 6.443 0.112 -81.355
5441 0.111 -81.415 0.99 6.351 0.99 6.351 0.111 -81.415
5465.958 0.109 -81.474 0.99 6.259 0.99 6.259 0.109 -81.474
5490.917 0.108 -81.532 0.99 6.168 0.99 6.168 0.108 -81.532
5515.875 0.106 -81.588 0.99 6.077 0.99 6.077 0.106 -81.588
5540.833 0.104 -81.643 0.99 5.987 0.99 5.987 0.104 -81.643
5565.792 0.103 -81.696 0.99 5.897 0.99 5.897 0.103 -81.696
5590.75 0.101 -81.748 0.991 5.808 0.991 5.808 0.101 -81.748
5615.708 0.1 -81.799 0.991 5.719 0.991 5.719 0.1 -81.799
5640.667 0.098 -81.848 0.991 5.631 0.991 5.631 0.098 -81.848
5665.625 0.097 -81.896 0.991 5.543 0.991 5.543 0.097 -81.896
5690.583 0.095 -81.942 0.991 5.455 0.991 5.455 0.095 -81.942
5715.542 0.094 -81.987 0.991 5.368 0.991 5.368 0.094 -81.987
5740.5 0.092 -82.029 0.991 5.282 0.991 5.282 0.092 -82.029
5765.458 0.091 -82.071 0.992 5.196 0.992 5.196 0.091 -82.071
5790.417 0.089 -82.11 0.992 5.11 0.992 5.11 0.089 -82.11
5815.375 0.088 -82.148 0.992 5.025 0.992 5.025 0.088 -82.148
5840.333 0.086 -82.184 0.992 4.94 0.992 4.94 0.086 -82.184
5865.292 0.085 -82.219 0.992 4.856 0.992 4.856 0.085 -82.219
5890.25 0.083 -82.251 0.992 4.772 0.992 4.772 0.083 -82.251
5915.208 0.082 -82.281 0.992 4.689 0.992 4.689 0.082 -82.281
5940.167 0.08 -82.31 0.992 4.606 0.992 4.606 0.08 -82.31
5965.125 0.079 -82.336 0.993 4.523 0.993 4.523 0.079 -82.336
5990.083 0.078 -82.36 0.993 4.441 0.993 4.441 0.078 -82.36
6015.042 0.076 -82.381 0.993 4.359 0.993 4.359 0.076 -82.381
6040 0.075 -82.401 0.993 4.278 0.993 4.278 0.075 -82.401
6064.958 0.073 -82.417 0.993 4.197 0.993 4.197 0.073 -82.417
6089.917 0.072 -82.432 0.993 4.116 0.993 4.116 0.072 -82.432
6114.875 0.071 -82.443 0.993 4.036 0.993 4.036 0.071 -82.443
6139.833 0.069 -82.452 0.993 3.956 0.993 3.956 0.069 -82.452
6164.792 0.068 -82.458 0.993 3.876 0.993 3.876 0.068 -82.458
6189.75 0.066 -82.46 0.993 3.797 0.993 3.797 0.066 -82.46
6214.708 0.065 -82.46 0.994 3.718 0.994 3.718 0.065 -82.46
6239.667 0.064 -82.456 0.994 3.64 0.994 3.64 0.064 -82.456
6264.625 0.062 -82.448 0.994 3.562 0.994 3.562 0.062 -82.448
6289.583 0.061 -82.437 0.994 3.484 0.994 3.484 0.061 -82.437
6314.542 0.06 -82.422 0.994 3.407 0.994 3.407 0.06 -82.422
6339.5 0.058 -82.403 0.994 3.33 0.994 3.33 0.058 -82.403
6364.458 0.057 -82.379 0.994 3.253 0.994 3.253 0.057 -82.379
6389.417 0.056 -82.351 0.994 3.177 0.994 3.177 0.056 -82.351
6414.375 0.054 -82.317 0.994 3.101 0.994 3.101 0.054 -82.317
6439.333 0.053 -82.279 0.994 3.025 0.994 3.025 0.053 -82.279
6464.292 0.052 -82.234 0.994 2.95 0.994 2.95 0.052 -82.234
6489.25 0.05 -82.184 0.994 2.875 0.994 2.875 0.05 -82.184
6514.208 0.049 -82.128 0.994 2.8 0.994 2.8 0.049 -82.128
6539.167 0.048 -82.064 0.995 2.726 0.995 2.726 0.048 -82.064
6564.125 0.046 -81.993 0.995 2.652 0.995 2.652 0.046 -81.993
6589.083 0.045 -81.915 0.995 2.578 0.995 2.578 0.045 -81.915
6614.042 0.044 -81.827 0.995 2.505 0.995 2.505 0.044 -81.827
6639 0.043 -81.731 0.995 2.432 0.995 2.432 0.043 -81.731
6663.958 0.041 -81.625 0.995 2.359 0.995 2.359 0.041 -81.625
6688.917 0.04 -81.508 0.995 2.286 0.995 2.286 0.04 -81.508
6713.875 0.039 -81.379 0.995 2.214 0.995 2.214 0.039 -81.379
6738.833 0.038 -81.237 0.995 2.142 0.995 2.142 0.038 -81.237
6763.792 0.036 -81.082 0.995 2.07 0.995 2.07 0.036 -81.082
6788.75 0.035 -80.911 0.995 1.999 0.995 1.999 0.035 -80.911
6813.708 0.034 -80.723 0.995 1.928 0.995 1.928 0.034 -80.723
6838.667 0.033 -80.517 0.995 1.857 0.995 1.857 0.033 -80.517
6863.625 0.031 -80.29 0.995 1.787 0.995 1.787 0.031 -80.29
6888.583 0.03 -80.04 0.995 1.716 0.995 1.716 0.03 -80.04
6913.542 0.029 -79.764 0.995 1.646 0.995 1.646 0.029 -79.764
6938.5 0.028 -79.46 0.995 1.577 0.995 1.577 0.028 -79.46
6963.458 0.027 -79.123 0.995 1.507 0.995 1.507 0.027 -79.123
6988.417 0.025 -78.75 0.995 1.438 0.995 1.438 0.025 -78.75
7013.375 0.024 -78.335 0.995 1.369 0.995 1.369 0.024 -78.335
7038.333 0.023 -77.872 0.995 1.3 0.995 1.3 0.023 -77.872
7063.292 0.022 -77.354 0.995 1.232 0.995 1.232 0.022 -77.354
7088.25 0.021 -76.773 0.995 1.164 0.995 1.164 0.021 -76.773
7113.208 0.02 -76.117 0.995 1.096 0.995 1.096 0.02 -76.117
7138.167 0.018 -75.373 0.995 1.028 0.995 1.028 0.018 -75.373
7163.125 0.017 -74.525 0.996 0.961 0.996 0.961 0.017 -74.525
7188.083 0.016 -73.552 0.996 0.894 0.996 0.894 0.016 -73.552
7213.042 0.015 -72.428 0.996 0.827 0.996 0.827 0.015 -72.428
7238 0.014 -71.118 0.996 0.76 0.996 0.76 0.014 -71.118
7262.958 0.013 -69.576 0.996 0.694 0.996 0.694 0.013 -69.576
7287.917 0.012 -67.744 0.996 0.627 0.996 0.627 0.012 -67.744
7312.875 0.011 -65.539 0.996 0.561 0.996 0.561 0.011 -65.539
7337.833 9.677e-3 -62.85 0.996 0.496 0.996 0.496 9.677e-3 -62.85
7362.792 8.67e-3 -59.523 0.996 0.43 0.996 0.43 8.67e-3 -59.523
7387.75 7.705e-3 -55.34 0.996 0.365 0.996 0.365 7.705e-3 -55.34
7412.708 6.797e-3 -50.002 0.996 0.3 0.996 0.3 6.797e-3 -50.002
7437.667 5.97e-3 -43.109 0.996 0.235 0.996 0.235 5.97e-3 -43.109
7462.625 5.26e-3 -34.199 0.996 0.17 0.996 0.17 5.26e-3 -34.199
7487.583 4.717e-3 -22.915 0.996 0.106 0.996 0.106 4.717e-3 -22.915
7512.542 4.401e-3 -9.426 0.996 0.041 0.996 0.041 4.401e-3 -9.426
7537.5 4.359e-3 5.15 0.996 -0.023 0.996 -0.023 4.359e-3 5.15
7562.458 4.595e-3 19.048 0.996 -0.086 0.996 -0.086 4.595e-3 19.048
7587.417 5.069e-3 30.921 0.996 -0.15 0.996 -0.15 5.069e-3 30.921
7612.375 5.718e-3 40.393 0.996 -0.213 0.996 -0.213 5.718e-3 40.393
7637.333 6.49e-3 47.739 0.996 -0.276 0.996 -0.276 6.49e-3 47.739
7662.292 7.344e-3 53.421 0.996 -0.339 0.996 -0.339 7.344e-3 53.421
7687.25 8.253e-3 57.858 0.996 -0.402 0.996 -0.402 8.253e-3 57.858
7712.208 9.199e-3 61.376 0.996 -0.465 0.996 -0.465 9.199e-3 61.376
7737.167 0.01 64.208 0.996 -0.527 0.996 -0.527 0.01 64.208
7762.125 0.011 66.524 0.996 -0.589 0.996 -0.589 0.011 66.524
7787.083 0.012 68.443 0.996 -0.651 0.996 -0.651 0.012 68.443
7812.042 0.013 70.054 0.996 -0.713 0.996 -0.713 0.013 70.054
7837 0.014 71.422 0.996 -0.775 0.996 -0.775 0.014 71.422
7861.958 0.015 72.594 0.996 -0.836 0.996 -0.836 0.015 72.594
7886.917 0.016 73.607 0.996 -0.897 0.996 -0.897 0.016 73.607
7911.875 0.017 74.49 0.996 -0.958 0.996 -0.958 0.017 74.49
7936.833 0.018 75.264 0.996 -1.019 0.996 -1.019 0.018 75.264
7961.792 0.019 75.947 0.995 -1.08 0.995 -1.08 0.019 75.947
7986.75 0.02 76.554 0.995 -1.14 0.995 -1.14 0.02 76.554
8011.708 0.021 77.094 0.995 -1.2 0.995 -1.2 0.021 77.094
8036.667 0.022 77.578 0.995 -1.26 0.995 -1.26 0.022 77.578
8061.625 0.023 78.013 0.995 -1.32 0.995 -1.32 0.023 78.013
8086.583 0.024 78.405 0.995 -1.38 0.995 -1.38 0.024 78.405
8111.542 0.025 78.76 0.995 -1.44 0.995 -1.44 0.025 78.76
8136.5 0.027 79.082 0.995 -1.499 0.995 -1.499 0.027 79.082
8161.458 0.028 79.375 0.995 -1.558 0.995 -1.558 0.028 79.375
8186.417 0.029 79.642 0.995 -1.617 0.995 -1.617 0.029 79.642
