# MHZ S MA R 50

50 0.997 -4.312 0.075 85.676 0.075 85.676 0.997 -4.312
74.958 0.994 -6.45 0.112 83.532 0.112 83.532 0.994 -6.45
99.917 0.989 -8.571 0.149 81.406 0.149 81.406 0.989 -8.571
124.875 0.983 -10.669 0.185 79.302 0.185 79.302 0.983 -10.669
149.833 0.975 -12.739 0.221 77.225 0.221 77.225 0.975 -12.739
174.792 0.967 -14.777 0.255 75.181 0.255 75.181 0.967 -14.777
199.75 0.957 -16.78 0.289 73.173 0.289 73.173 0.957 -16.78
224.708 0.947 -18.742 0.321 71.205 0.321 71.205 0.947 -18.742
249.667 0.935 -20.661 0.353 69.279 0.353 69.279 0.935 -20.661
274.625 0.923 -22.535 0.383 67.399 0.383 67.399 0.923 -22.535
299.583 0.91 -24.362 0.412 65.567 0.412 65.567 0.91 -24.362
324.542 0.897 -26.139 0.441 63.784 0.441 63.784 0.897 -26.139
349.5 0.883 -27.866 0.467 62.051 0.467 62.051 0.883 -27.866
374.458 0.869 -29.542 0.493 60.369 0.493 60.369 0.869 -29.542
399.417 0.855 -31.166 0.518 58.739 0.518 58.739 0.855 -31.166
424.375 0.84 -32.739 0.541 57.16 0.541 57.16 0.84 -32.739
449.333 0.825 -34.261 0.563 55.632 0.563 55.632 0.825 -34.261
474.292 0.811 -35.732 0.584 54.155 0.584 54.155 0.811 -35.732
499.25 0.796 -37.153 0.604 52.728 0.604 52.728 0.796 -37.153
524.208 0.781 -38.525 0.623 51.349 0.623 51.349 0.781 -38.525
549.167 0.766 -39.85 0.641 50.019 0.641 50.019 0.766 -39.85
574.125 0.752 -41.128 0.658 48.734 0.658 48.734 0.752 -41.128
599.083 0.737 -42.361 0.674 47.495 0.674 47.495 0.737 -42.361
624.042 0.723 -43.55 0.689 46.3 0.689 46.3 0.723 -43.55
649 0.709 -44.697 0.703 45.148 0.703 45.148 0.709 -44.697
673.958 0.695 -45.802 0.717 44.036 0.717 44.036 0.695 -45.802
698.917 0.682 -46.868 0.73 42.963 0.73 42.963 0.682 -46.868
723.875 0.668 -47.897 0.742 41.929 0.742 41.929 0.668 -47.897
748.833 0.655 -48.888 0.753 40.931 0.753 40.931 0.655 -48.888
773.792 0.642 -49.845 0.764 39.969 0.764 39.969 0.642 -49.845
798.75 0.63 -50.767 0.775 39.04 0.775 39.04 0.63 -50.767
823.708 0.618 -51.658 0.784 38.143 0.784 38.143 0.618 -51.658
848.667 0.606 -52.517 0.794 37.277 0.794 37.277 0.606 -52.517
873.625 0.594 -53.347 0.802 36.441 0.802 36.441 0.594 -53.347
898.583 0.583 -54.148 0.811 35.633 0.811 35.633 0.583 -54.148
923.542 0.571 -54.922 0.818 34.853 0.818 34.853 0.571 -54.922
948.5 0.561 -55.67 0.826 34.099 0.826 34.099 0.561 -55.67
973.458 0.55 -56.393 0.833 33.369 0.833 33.369 0.55 -56.393
998.417 0.54 -57.092 0.84 32.664 0.84 32.664 0.54 -57.092
1023.375 0.53 -57.768 0.846 31.981 0.846 31.981 0.53 -57.768
1048.333 0.52 -58.423 0.852 31.32 0.852 31.32 0.52 -58.423
1073.292 0.51 -59.056 0.858 30.68 0.858 30.68 0.51 -59.056
1098.25 0.501 -59.669 0.863 30.06 0.863 30.06 0.501 -59.669
1123.208 0.492 -60.263 0.868 29.46 0.868 29.46 0.492 -60.263
1148.167 0.483 -60.839 0.873 28.877 0.873 28.877 0.483 -60.839
1173.125 0.474 -61.397 0.878 28.312 0.878 28.312 0.474 -61.397
1198.083 0.466 -61.938 0.882 27.764 0.882 27.764 0.466 -61.938
1223.042 0.458 -62.463 0.887 27.233 0.887 27.233 0.458 -62.463
1248 0.45 -62.973 0.891 26.716 0.891 26.716 0.45 -62.973
1272.958 0.442 -63.467 0.895 26.215 0.895 26.215 0.442 -63.467
1297.917 0.434 -63.947 0.898 25.728 0.898 25.728 0.434 -63.947
1322.875 0.427 -64.414 0.902 25.254 0.902 25.254 0.427 -64.414
1347.833 0.419 -64.868 0.905 24.793 0.905 24.793 0.419 -64.868
1372.792 0.412 -65.308 0.909 24.345 0.909 24.345 0.412 -65.308
1397.75 0.405 -65.737 0.912 23.91 0.912 23.91 0.405 -65.737
1422.708 0.399 -66.154 0.915 23.485 0.915 23.485 0.399 -66.154
1447.667 0.392 -66.56 0.917 23.072 0.917 23.072 0.392 -66.56
1472.625 0.385 -66.956 0.92 22.67 0.92 22.67 0.385 -66.956
1497.583 0.379 -67.34 0.923 22.277 0.923 22.277 0.379 -67.34
1522.542 0.373 -67.715 0.925 21.895 0.925 21.895 0.373 -67.715
1547.5 0.367 -68.081 0.928 21.522 0.928 21.522 0.367 -68.081
1572.458 0.361 -68.437 0.93 21.159 0.93 21.159 0.361 -68.437
1597.417 0.355 -68.784 0.932 20.804 0.932 20.804 0.355 -68.784
1622.375 0.35 -69.123 0.934 20.458 0.934 20.458 0.35 -69.123
1647.333 0.344 -69.453 0.936 20.119 0.936 20.119 0.344 -69.453
1672.292 0.339 -69.776 0.938 19.789 0.938 19.789 0.339 -69.776
1697.25 0.333 -70.091 0.94 19.467 0.94 19.467 0.333 -70.091
1722.208 0.328 -70.398 0.942 19.151 0.942 19.151 0.328 -70.398
1747.167 0.323 -70.698 0.944 18.843 0.944 18.843 0.323 -70.698
1772.125 0.318 -70.992 0.946 18.541 0.946 18.541 0.318 -70.992
1797.083 0.313 -71.278 0.947 18.247 0.947 18.247 0.313 -71.278
1822.042 0.308 -71.559 0.949 17.958 0.949 17.958 0.308 -71.559
1847 0.304 -71.833 0.95 17.676 0.95 17.676 0.304 -71.833
1871.958 0.299 -72.101 0.952 17.399 0.952 17.399 0.299 -72.101
1896.917 0.295 -72.363 0.953 17.129 0.953 17.129 0.295 -72.363
1921.875 0.29 -72.62 0.954 16.864 0.954 16.864 0.29 -72.62
1946.833 0.286 -72.871 0.956 16.604 0.956 16.604 0.286 -72.871
1971.792 0.282 -73.117 0.957 16.349 0.957 16.349 0.282 -73.117
1996.75 0.277 -73.358 0.958 16.1 0.958 16.1 0.277 -73.358
2021.708 0.273 -73.594 0.959 15.855 0.959 15.855 0.273 -73.594
2046.667 0.269 -73.825 0.96 15.615 0.96 15.615 0.269 -73.825
2071.625 0.265 -74.051 0.962 15.38 0.962 15.38 0.265 -74.051
2096.583 0.261 -74.273 0.963 15.149 0.963 15.149 0.261 -74.273
2121.542 0.258 -74.491 0.964 14.922 0.964 14.922 0.258 -74.491
2146.5 0.254 -74.704 0.965 14.699 0.965 14.699 0.254 -74.704
2171.458 0.25 -74.913 0.966 14.481 0.966 14.481 0.25 -74.913
2196.417 0.246 -75.118 0.967 14.266 0.967 14.266 0.246 -75.118
2221.375 0.243 -75.32 0.967 14.055 0.967 14.055 0.243 -75.32
2246.333 0.239 -75.517 0.968 13.848 0.968 13.848 0.239 -75.517
2271.292 0.236 -75.711 0.969 13.644 0.969 13.644 0.236 -75.711
2296.25 0.233 -75.901 0.97 13.444 0.97 13.444 0.233 -75.901
2321.208 0.229 -76.088 0.971 13.247 0.971 13.247 0.229 -76.088
2346.167 0.226 -76.271 0.971 13.054 0.971 13.054 0.226 -76.271
2371.125 0.223 -76.451 0.972 12.863 0.972 12.863 0.223 -76.451
2396.083 0.219 -76.628 0.973 12.676 0.973 12.676 0.219 -76.628
2421.042 0.216 -76.802 0.974 12.491 0.974 12.491 0.216 -76.802
2446 0.213 -76.972 0.974 12.31 0.974 12.31 0.213 -76.972
2470.958 0.21 -77.14 0.975 12.131 0.975 12.131 0.21 -77.14
2495.917 0.207 -77.305 0.976 11.956 0.976 11.956 0.207 -77.305
2520.875 0.204 -77.467 0.976 11.782 0.976 11.782 0.204 -77.467
2545.833 0.201 -77.626 0.977 11.612 0.977 11.612 0.201 -77.626
2570.792 0.198 -77.783 0.977 11.444 0.977 11.444 0.198 -77.783
2595.75 0.196 -77.936 0.978 11.278 0.978 11.278 0.196 -77.936
2620.708 0.193 -78.088 0.979 11.115 0.979 11.115 0.193 -78.088
2645.667 0.19 -78.237 0.979 10.955 0.979 10.955 0.19 -78.237
2670.625 0.187 -78.383 0.98 10.796 0.98 10.796 0.187 -78.383
2695.583 0.185 -78.527 0.98 10.64 0.98 10.64 0.185 -78.527
2720.542 0.182 -78.668 0.981 10.486 0.981 10.486 0.182 -78.668
2745.5 0.179 -78.808 0.981 10.334 0.981 10.334 0.179 -78.808
2770.458 0.177 -78.945 0.982 10.184 0.982 10.184 0.177 -78.945
2795.417 0.174 -79.079 0.982 10.036 0.982 10.036 0.174 -79.079
2820.375 0.172 -79.212 0.982 9.89 0.982 9.89 0.172 -79.212
2845.333 0.169 -79.343 0.983 9.746 0.983 9.746 0.169 -79.343
2870.292 0.167 -79.471 0.983 9.604 0.983 9.604 0.167 -79.471
2895.25 0.164 -79.597 0.984 9.463 0.984 9.463 0.164 -79.597
2920.208 0.162 -79.722 0.984 9.325 0.984 9.325 0.162 -79.722
2945.167 0.16 -79.844 0.984 9.188 0.984 9.188 0.16 -79.844
2970.125 0.157 -79.964 0.985 9.053 0.985 9.053 0.157 -79.964
2995.083 0.155 -80.083 0.985 8.919 0.985 8.919 0.155 -80.083
3020.042 0.153 -80.2 0.986 8.788 0.986 8.788 0.153 -80.2
3045 0.151 -80.314 0.986 8.657 0.986 8.657 0.151 -80.314
3069.958 0.148 -80.427 0.986 8.529 0.986 8.529 0.148 -80.427
3094.917 0.146 -80.539 0.987 8.401 0.987 8.401 0.146 -80.539
3119.875 0.144 -80.648 0.987 8.276 0.987 8.276 0.144 -80.648
3144.833 0.142 -80.756 0.987 8.151 0.987 8.151 0.142 -80.756
3169.792 0.14 -80.861 0.987 8.029 0.987 8.029 0.14 -80.861
3194.75 0.138 -80.966 0.988 7.907 0.988 7.907 0.138 -80.966
3219.708 0.136 -81.068 0.988 7.787 0.988 7.787 0.136 -81.068
3244.667 0.133 -81.169 0.988 7.668 0.988 7.668 0.133 -81.169
3269.625 0.131 -81.268 0.989 7.551 0.989 7.551 0.131 -81.268
3294.583 0.129 -81.366 0.989 7.434 0.989 7.434 0.129 -81.366
3319.542 0.127 -81.462 0.989 7.319 0.989 7.319 0.127 -81.462
3344.5 0.125 -81.556 0.989 7.205 0.989 7.205 0.125 -81.556
3369.458 0.124 -81.649 0.99 7.093 0.99 7.093 0.124 -81.649
3394.417 0.122 -81.74 0.99 6.981 0.99 6.981 0.122 -81.74
3419.375 0.12 -81.83 0.99 6.871 0.99 6.871 0.12 -81.83
3444.333 0.118 -81.918 0.99 6.762 0.99 6.762 0.118 -81.918
3469.292 0.116 -82.004 0.991 6.654 0.991 6.654 0.116 -82.004
3494.25 0.114 -82.089 0.991 6.547 0.991 6.547 0.114 -82.089
3519.208 0.112 -82.173 0.991 6.44 0.991 6.44 0.112 -82.173
3544.167 0.11 -82.255 0.991 6.335 0.991 6.335 0.11 -82.255
3569.125 0.109 -82.335 0.991 6.232 0.991 6.232 0.109 -82.335
3594.083 0.107 -82.414 0.992 6.128 0.992 6.128 0.107 -82.414
3619.042 0.105 -82.491 0.992 6.026 0.992 6.026 0.105 -82.491
3644 0.103 -82.566 0.992 5.925 0.992 5.925 0.103 -82.566
3668.958 0.102 -82.64 0.992 5.825 0.992 5.825 0.102 -82.64
3693.917 0.1 -82.713 0.992 5.726 0.992 5.726 0.1 -82.713
3718.875 0.098 -82.784 0.992 5.628 0.992 5.628 0.098 -82.784
3743.833 0.096 -82.853 0.993 5.53 0.993 5.53 0.096 -82.853
3768.792 0.095 -82.921 0.993 5.433 0.993 5.433 0.095 -82.921
3793.75 0.093 -82.987 0.993 5.338 0.993 5.338 0.093 -82.987
3818.708 0.091 -83.051 0.993 5.243 0.993 5.243 0.091 -83.051
3843.667 0.09 -83.114 0.993 5.149 0.993 5.149 0.09 -83.114
3868.625 0.088 -83.175 0.993 5.055 0.993 5.055 0.088 -83.175
3893.583 0.087 -83.235 0.994 4.963 0.994 4.963 0.087 -83.235
3918.542 0.085 -83.292 0.994 4.871 0.994 4.871 0.085 -83.292
3943.5 0.083 -83.348 0.994 4.78 0.994 4.78 0.083 -83.348
3968.458 0.082 -83.402 0.994 4.69 0.994 4.69 0.082 -83.402
3993.417 0.08 -83.455 0.994 4.6 0.994 4.6 0.08 -83.455
4018.375 0.079 -83.505 0.994 4.511 0.994 4.511 0.079 -83.505
4043.333 0.077 -83.554 0.994 4.423 0.994 4.423 0.077 -83.554
4068.292 0.076 -83.6 0.994 4.335 0.994 4.335 0.076 -83.6
4093.25 0.074 -83.645 0.995 4.249 0.995 4.249 0.074 -83.645
4118.208 0.073 -83.687 0.995 4.163 0.995 4.163 0.073 -83.687
4143.167 0.071 -83.727 0.995 4.077 0.995 4.077 0.071 -83.727
4168.125 0.07 -83.765 0.995 3.992 0.995 3.992 0.07 -83.765
4193.083 0.068 -83.801 0.995 3.908 0.995 3.908 0.068 -83.801
4218.042 0.067 -83.835 0.995 3.824 0.995 3.824 0.067 -83.835
4243 0.065 -83.866 0.995 3.741 0.995 3.741 0.065 -83.866
4267.958 0.064 -83.894 0.995 3.659 0.995 3.659 0.064 -83.894
4292.917 0.062 -83.92 0.995 3.577 0.995 3.577 0.062 -83.92
4317.875 0.061 -83.943 0.995 3.496 0.995 3.496 0.061 -83.943
4342.833 0.06 -83.963 0.995 3.416 0.995 3.416 0.06 -83.963
4367.792 0.058 -83.98 0.996 3.335 0.996 3.335 0.058 -83.98
4392.75 0.057 -83.994 0.996 3.256 0.996 3.256 0.057 -83.994
4417.708 0.055 -84.004 0.996 3.177 0.996 3.177 0.055 -84.004
4442.667 0.054 -84.011 0.996 3.099 0.996 3.099 0.054 -84.011
4467.625 0.053 -84.015 0.996 3.021 0.996 3.021 0.053 -84.015
4492.583 0.051 -84.014 0.996 2.943 0.996 2.943 0.051 -84.014
4517.542 0.05 -84.01 0.996 2.866 0.996 2.866 0.05 -84.01
4542.5 0.049 -84 0.996 2.79 0.996 2.79 0.049 -84
4567.458 0.047 -83.987 0.996 2.714 0.996 2.714 0.047 -83.987
4592.417 0.046 -83.968 0.996 2.639 0.996 2.639 0.046 -83.968
4617.375 0.045 -83.944 0.996 2.564 0.996 2.564 0.045 -83.944
4642.333 0.044 -83.914 0.996 2.489 0.996 2.489 0.044 -83.914
4667.292 0.042 -83.878 0.996 2.415 0.996 2.415 0.042 -83.878
4692.25 0.041 -83.835 0.996 2.342 0.996 2.342 0.041 -83.835
4717.208 0.04 -83.785 0.996 2.269 0.996 2.269 0.04 -83.785
4742.167 0.038 -83.728 0.997 2.196 0.997 2.196 0.038 -83.728
4767.125 0.037 -83.662 0.997 2.124 0.997 2.124 0.037 -83.662
4792.083 0.036 -83.586 0.997 2.052 0.997 2.052 0.036 -83.586
4817.042 0.035 -83.501 0.997 1.981 0.997 1.981 0.035 -83.501
4842 0.033 -83.405 0.997 1.91 0.997 1.91 0.033 -83.405
4866.958 0.032 -83.296 0.997 1.839 0.997 1.839 0.032 -83.296
4891.917 0.031 -83.174 0.997 1.769 0.997 1.769 0.031 -83.174
4916.875 0.03 -83.037 0.997 1.699 0.997 1.699 0.03 -83.037
4941.833 0.029 -82.884 0.997 1.63 0.997 1.63 0.029 -82.884
4966.792 0.027 -82.712 0.997 1.561 0.997 1.561 0.027 -82.712
4991.75 0.026 -82.519 0.997 1.492 0.997 1.492 0.026 -82.519
5016.708 0.025 -82.303 0.997 1.424 0.997 1.424 0.025 -82.303
5041.667 0.024 -82.059 0.997 1.356 0.997 1.356 0.024 -82.059
5066.625 0.023 -81.785 0.997 1.289 0.997 1.289 0.023 -81.785
5091.583 0.021 -81.475 0.997 1.222 0.997 1.222 0.021 -81.475
5116.542 0.02 -81.125 0.997 1.155 0.997 1.155 0.02 -81.125
5141.5 0.019 -80.726 0.997 1.088 0.997 1.088 0.019 -80.726
5166.458 0.018 -80.271 0.997 1.022 0.997 1.022 0.018 -80.271
5191.417 0.017 -79.748 0.997 0.957 0.997 0.957 0.017 -79.748
5216.375 0.016 -79.145 0.997 0.891 0.997 0.891 0.016 -79.145
5241.333 0.015 -78.443 0.997 0.826 0.997 0.826 0.015 -78.443
5266.292 0.014 -77.619 0.997 0.761 0.997 0.761 0.014 -77.619
5291.25 0.012 -76.642 0.997 0.697 0.997 0.697 0.012 -76.642
5316.208 0.011 -75.471 0.997 0.633 0.997 0.633 0.011 -75.471
5341.167 0.01 -74.048 0.997 0.569 0.997 0.569 0.01 -74.048
5366.125 9.238e-3 -72.288 0.997 0.506 0.997 0.506 9.238e-3 -72.288
5391.083 8.191e-3 -70.069 0.997 0.442 0.997 0.442 8.191e-3 -70.069
5416.042 7.166e-3 -67.203 0.997 0.38 0.997 0.38 7.166e-3 -67.203
5441 6.17e-3 -63.394 0.997 0.317 0.997 0.317 6.17e-3 -63.394
5465.958 5.218e-3 -58.161 0.997 0.255 0.997 0.255 5.218e-3 -58.161
5490.917 4.333e-3 -50.708 0.997 0.193 0.997 0.193 4.333e-3 -50.708
5515.875 3.563e-3 -39.777 0.997 0.131 0.997 0.131 3.563e-3 -39.777
5540.833 2.99e-3 -23.871 0.997 0.07 0.997 0.07 2.99e-3 -23.871
5565.792 2.737e-3 -3.048 0.997 8.361e-3 0.997 8.361e-3 2.737e-3 -3.048
5590.75 2.882e-3 18.491 0.997 -0.053 0.997 -0.053 2.882e-3 18.491
5615.708 3.371e-3 35.737 0.997 -0.113 0.997 -0.113 3.371e-3 35.737
5640.667 4.079e-3 47.759 0.997 -0.173 0.997 -0.173 4.079e-3 47.759
5665.625 4.908e-3 55.93 0.997 -0.234 0.997 -0.234 4.908e-3 55.93
5690.583 5.804e-3 61.619 0.997 -0.293 0.997 -0.293 5.804e-3 61.619
5715.542 6.739e-3 65.724 0.997 -0.353 0.997 -0.353 6.739e-3 65.724
5740.5 7.697e-3 68.792 0.997 -0.412 0.997 -0.412 7.697e-3 68.792
5765.458 8.668e-3 71.152 0.997 -0.471 0.997 -0.471 8.668e-3 71.152
5790.417 9.648e-3 73.016 0.997 -0.53 0.997 -0.53 9.648e-3 73.016
5815.375 0.011 74.518 0.997 -0.589 0.997 -0.589 0.011 74.518
5840.333 0.012 75.75 0.997 -0.647 0.997 -0.647 0.012 75.75
5865.292 0.013 76.776 0.997 -0.705 0.997 -0.705 0.013 76.776
5890.25 0.014 77.641 0.997 -0.763 0.997 -0.763 0.014 77.641
5915.208 0.015 78.378 0.997 -0.821 0.997 -0.821 0.015 78.378
5940.167 0.016 79.011 0.997 -0.878 0.997 -0.878 0.016 79.011
5965.125 0.017 79.561 0.997 -0.935 0.997 -0.935 0.017 79.561
5990.083 0.018 80.04 0.997 -0.992 0.997 -0.992 0.018 80.04
6015.042 0.019 80.461 0.997 -1.049 0.997 -1.049 0.019 80.461
6040 0.019 80.833 0.997 -1.105 0.997 -1.105 0.019 80.833
6064.958 0.02 81.163 0.997 -1.162 0.997 -1.162 0.02 81.163
6089.917 0.021 81.456 0.997 -1.218 0.997 -1.218 0.021 81.456
6114.875 0.022 81.719 0.997 -1.274 0.997 -1.274 0.022 81.719
6139.833 0.023 81.954 0.997 -1.329 0.997 -1.329 0.023 81.954
6164.792 0.024 82.165 0.997 -1.385 0.997 -1.385 0.024 82.165
6189.75 0.025 82.355 0.997 -1.44 0.997 -1.44 0.025 82.355
6214.708 0.026 82.527 0.997 -1.495 0.997 -1.495 0.026 82.527
6239.667 0.027 82.683 0.997 -1.55 0.997 -1.55 0.027 82.683
6264.625 0.028 82.823 0.997 -1.604 0.997 -1.604 0.028 82.823
6289.583 0.029 82.951 0.997 -1.659 0.997 -1.659 0.029 82.951
6314.542 0.03 83.066 0.997 -1.713 0.997 -1.713 0.03 83.066
6339.5 0.031 83.171 0.997 -1.767 0.997 -1.767 0.031 83.171
6364.458 0.032 83.266 0.997 -1.821 0.997 -1.821 0.032 83.266
6389.417 0.033 83.353 0.997 -1.875 0.997 -1.875 0.033 83.353
6414.375 0.034 83.431 0.997 -1.928 0.997 -1.928 0.034 83.431
6439.333 0.035 83.502 0.997 -1.982 0.997 -1.982 0.035 83.502
6464.292 0.036 83.567 0.997 -2.035 0.997 -2.035 0.036 83.567
6489.25 0.037 83.625 0.997 -2.088 0.997 -2.088 0.037 83.625
6514.208 0.037 83.678 0.997 -2.14 0.997 -2.14 0.037 83.678
6539.167 0.038 83.725 0.997 -2.193 0.997 -2.193 0.038 83.725
6564.125 0.039 83.768 0.997 -2.246 0.997 -2.246 0.039 83.768
6589.083 0.04 83.806 0.996 -2.298 0.996 -2.298 0.04 83.806
6614.042 0.041 83.84 0.996 -2.35 0.996 -2.35 0.041 83.84
6639 0.042 83.871 0.996 -2.402 0.996 -2.402 0.042 83.871
6663.958 0.043 83.897 0.996 -2.454 0.996 -2.454 0.043 83.897
6688.917 0.044 83.921 0.996 -2.505 0.996 -2.505 0.044 83.921
6713.875 0.045 83.941 0.996 -2.557 0.996 -2.557 0.045 83.941
6738.833 0.046 83.959 0.996 -2.608 0.996 -2.608 0.046 83.959
6763.792 0.046 83.973 0.996 -2.659 0.996 -2.659 0.046 83.973
6788.75 0.047 83.986 0.996 -2.71 0.996 -2.71 0.047 83.986
6813.708 0.048 83.996 0.996 -2.761 0.996 -2.761 0.048 83.996
6838.667 0.049 84.003 0.996 -2.812 0.996 -2.812 0.049 84.003
6863.625 0.05 84.009 0.996 -2.862 0.996 -2.862 0.05 84.009
6888.583 0.051 84.013 0.996 -2.912 0.996 -2.912 0.051 84.013
6913.542 0.052 84.015 0.996 -2.963 0.996 -2.963 0.052 84.015
6938.5 0.053 84.015 0.996 -3.013 0.996 -3.013 0.053 84.015
6963.458 0.053 84.013 0.996 -3.063 0.996 -3.063 0.053 84.013
6988.417 0.054 84.01 0.996 -3.112 0.996 -3.112 0.054 84.01
7013.375 0.055 84.006 0.996 -3.162 0.996 -3.162 0.055 84.006
7038.333 0.056 84 0.996 -3.212 0.996 -3.212 0.056 84
7063.292 0.057 83.993 0.996 -3.261 0.996 -3.261 0.057 83.993
7088.25 0.058 83.985 0.996 -3.31 0.996 -3.31 0.058 83.985
7113.208 0.059 83.975 0.996 -3.359 0.996 -3.359 0.059 83.975
7138.167 0.06 83.965 0.996 -3.408 0.996 -3.408 0.06 83.965
7163.125 0.06 83.953 0.995 -3.457 0.995 -3.457 0.06 83.953
7188.083 0.061 83.94 0.995 -3.506 0.995 -3.506 0.061 83.94
7213.042 0.062 83.927 0.995 -3.554 0.995 -3.554 0.062 83.927
7238 0.063 83.912 0.995 -3.603 0.995 -3.603 0.063 83.912
7262.958 0.064 83.897 0.995 -3.651 0.995 -3.651 0.064 83.897
7287.917 0.065 83.881 0.995 -3.699 0.995 -3.699 0.065 83.881
7312.875 0.065 83.864 0.995 -3.747 0.995 -3.747 0.065 83.864
7337.833 0.066 83.846 0.995 -3.795 0.995 -3.795 0.066 83.846
7362.792 0.067 83.827 0.995 -3.843 0.995 -3.843 0.067 83.827
7387.75 0.068 83.808 0.995 -3.89 0.995 -3.89 0.068 83.808
7412.708 0.069 83.789 0.995 -3.938 0.995 -3.938 0.069 83.789
7437.667 0.07 83.768 0.995 -3.985 0.995 -3.985 0.07 83.768
7462.625 0.07 83.747 0.995 -4.033 0.995 -4.033 0.07 83.747
7487.583 0.071 83.726 0.995 -4.08 0.995 -4.08 0.071 83.726
7512.542 0.072 83.704 0.995 -4.127 0.995 -4.127 0.072 83.704
7537.5 0.073 83.682 0.995 -4.174 0.995 -4.174 0.073 83.682
7562.458 0.074 83.659 0.995 -4.221 0.995 -4.221 0.074 83.659
7587.417 0.074 83.635 0.995 -4.267 0.995 -4.267 0.074 83.635
7612.375 0.075 83.611 0.994 -4.314 0.994 -4.314 0.075 83.611
7637.333 0.076 83.587 0.994 -4.361 0.994 -4.361 0.076 83.587
7662.292 0.077 83.562 0.994 -4.407 0.994 -4.407 0.077 83.562
7687.25 0.078 83.537 0.994 -4.453 0.994 -4.453 0.078 83.537
7712.208 0.078 83.512 0.994 -4.499 0.994 -4.499 0.078 83.512
7737.167 0.079 83.486 0.994 -4.545 0.994 -4.545 0.079 83.486
7762.125 0.08 83.46 0.994 -4.591 0.994 -4.591 0.08 83.46
7787.083 0.081 83.433 0.994 -4.637 0.994 -4.637 0.081 83.433
7812.042 0.082 83.406 0.994 -4.683 0.994 -4.683 0.082 83.406
7837 0.082 83.379 0.994 -4.729 0.994 -4.729 0.082 83.379
7861.958 0.083 83.352 0.994 -4.774 0.994 -4.774 0.083 83.352
7886.917 0.084 83.324 0.994 -4.819 0.994 -4.819 0.084 83.324
7911.875 0.085 83.296 0.994 -4.865 0.994 -4.865 0.085 83.296
7936.833 0.086 83.268 0.994 -4.91 0.994 -4.91 0.086 83.268
7961.792 0.086 83.239 0.994 -4.955 0.994 -4.955 0.086 83.239
7986.75 0.087 83.211 0.993 -5 0.993 -5 0.087 83.211
8011.708 0.088 83.182 0.993 -5.045 0.993 -5.045 0.088 83.182
8036.667 0.089 83.153 0.993 -5.09 0.993 -5.09 0.089 83.153
8061.625 0.09 83.123 0.993 -5.135 0.993 -5.135 0.09 83.123
8086.583 0.09 83.094 0.993 -5.179 0.993 -5.179 0.09 83.094
8111.542 0.091 83.064 0.993 -5.224 0.993 -5.224 0.091 83.064
8136.5 0.092 83.034 0.993 -5.268 0.993 -5.268 0.092 83.034
8161.458 0.093 83.004 0.993 -5.313 0.993 -5.313 0.093 83.004
8186.417 0.093 82.974 0.993 -5.357 0.993 -5.357 0.093 82.974
8211.375 0.094 82.943 0.993 -5.401 0.993 -5.401 0.094 82.943
8236.333 0.095 82.913 0.993 -5.445 0.993 -5.445 0.095 82.913
