# MHZ S MA R 50

50 0.999 -2.518 0.044 87.472 0.044 87.472 0.999 -2.518
74.958 0.998 -3.773 0.066 86.213 0.066 86.213 0.998 -3.773
99.917 0.996 -5.024 0.088 84.957 0.088 84.957 0.996 -5.024
124.875 0.994 -6.27 0.109 83.705 0.109 83.705 0.994 -6.27
149.833 0.991 -7.511 0.131 82.46 0.131 82.46 0.991 -7.511
174.792 0.988 -8.745 0.152 81.221 0.152 81.221 0.988 -8.745
199.75 0.985 -9.972 0.173 79.989 0.173 79.989 0.985 -9.972
224.708 0.981 -11.19 0.194 78.766 0.194 78.766 0.981 -11.19
249.667 0.976 -12.399 0.215 77.553 0.215 77.553 0.976 -12.399
274.625 0.972 -13.597 0.235 76.349 0.235 76.349 0.972 -13.597
299.583 0.967 -14.784 0.255 75.158 0.255 75.158 0.967 -14.784
324.542 0.961 -15.959 0.275 73.978 0.275 73.978 0.961 -15.959
349.5 0.955 -17.121 0.294 72.81 0.294 72.81 0.955 -17.121
374.458 0.949 -18.27 0.314 71.657 0.314 71.657 0.949 -18.27
399.417 0.943 -19.405 0.332 70.517 0.332 70.517 0.943 -19.405
424.375 0.936 -20.526 0.351 69.391 0.351 69.391 0.936 -20.526
449.333 0.929 -21.631 0.369 68.281 0.369 68.281 0.929 -21.631
474.292 0.922 -22.721 0.386 67.186 0.386 67.186 0.922 -22.721
499.25 0.914 -23.795 0.403 66.107 0.403 66.107 0.914 -23.795
524.208 0.907 -24.853 0.42 65.044 0.42 65.044 0.907 -24.853
549.167 0.899 -25.894 0.437 63.998 0.437 63.998 0.899 -25.894
574.125 0.891 -26.919 0.453 62.968 0.453 62.968 0.891 -26.919
599.083 0.883 -27.927 0.468 61.956 0.468 61.956 0.883 -27.927
624.042 0.874 -28.918 0.484 60.96 0.484 60.96 0.874 -28.918
649 0.866 -29.891 0.498 59.981 0.498 59.981 0.866 -29.891
673.958 0.857 -30.848 0.513 59.02 0.513 59.02 0.857 -30.848
698.917 0.849 -31.787 0.527 58.075 0.527 58.075 0.849 -31.787
723.875 0.84 -32.709 0.54 57.148 0.54 57.148 0.84 -32.709
748.833 0.831 -33.615 0.554 56.238 0.554 56.238 0.831 -33.615
773.792 0.823 -34.503 0.566 55.345 0.566 55.345 0.823 -34.503
798.75 0.814 -35.374 0.579 54.469 0.579 54.469 0.814 -35.374
823.708 0.805 -36.228 0.591 53.609 0.591 53.609 0.805 -36.228
848.667 0.796 -37.066 0.603 52.767 0.603 52.767 0.796 -37.066
873.625 0.787 -37.887 0.614 51.94 0.614 51.94 0.787 -37.887
898.583 0.779 -38.692 0.625 51.13 0.625 51.13 0.779 -38.692
923.542 0.77 -39.481 0.636 50.336 0.636 50.336 0.77 -39.481
948.5 0.761 -40.255 0.646 49.557 0.646 49.557 0.761 -40.255
973.458 0.752 -41.012 0.656 48.795 0.656 48.795 0.752 -41.012
998.417 0.744 -41.755 0.666 48.047 0.666 48.047 0.744 -41.755
1023.375 0.735 -42.482 0.675 47.315 0.675 47.315 0.735 -42.482
1048.333 0.727 -43.195 0.684 46.597 0.684 46.597 0.727 -43.195
1073.292 0.718 -43.893 0.693 45.894 0.693 45.894 0.718 -43.893
1098.25 0.71 -44.577 0.702 45.204 0.702 45.204 0.71 -44.577
1123.208 0.701 -45.247 0.71 44.529 0.71 44.529 0.701 -45.247
1148.167 0.693 -45.903 0.718 43.868 0.718 43.868 0.693 -45.903
1173.125 0.685 -46.546 0.726 43.22 0.726 43.22 0.685 -46.546
1198.083 0.677 -47.175 0.733 42.585 0.733 42.585 0.677 -47.175
1223.042 0.669 -47.792 0.741 41.963 0.741 41.963 0.669 -47.792
1248 0.661 -48.397 0.748 41.353 0.748 41.353 0.661 -48.397
1272.958 0.653 -48.989 0.755 40.756 0.755 40.756 0.653 -48.989
1297.917 0.645 -49.569 0.761 40.17 0.761 40.17 0.645 -49.569
1322.875 0.637 -50.137 0.768 39.597 0.768 39.597 0.637 -50.137
1347.833 0.63 -50.694 0.774 39.034 0.774 39.034 0.63 -50.694
1372.792 0.622 -51.24 0.78 38.483 0.78 38.483 0.622 -51.24
1397.75 0.615 -51.775 0.786 37.943 0.786 37.943 0.615 -51.775
1422.708 0.608 -52.299 0.791 37.413 0.791 37.413 0.608 -52.299
1447.667 0.6 -52.813 0.797 36.894 0.797 36.894 0.6 -52.813
1472.625 0.593 -53.316 0.802 36.385 0.802 36.385 0.593 -53.316
1497.583 0.586 -53.81 0.807 35.885 0.807 35.885 0.586 -53.81
1522.542 0.579 -54.294 0.812 35.396 0.812 35.396 0.579 -54.294
1547.5 0.572 -54.769 0.817 34.915 0.817 34.915 0.572 -54.769
1572.458 0.566 -55.234 0.822 34.444 0.822 34.444 0.566 -55.234
1597.417 0.559 -55.691 0.826 33.982 0.826 33.982 0.559 -55.691
1622.375 0.552 -56.139 0.83 33.529 0.83 33.529 0.552 -56.139
1647.333 0.546 -56.578 0.835 33.083 0.835 33.083 0.546 -56.578
1672.292 0.539 -57.009 0.839 32.647 0.839 32.647 0.539 -57.009
1697.25 0.533 -57.432 0.843 32.218 0.843 32.218 0.533 -57.432
1722.208 0.527 -57.847 0.847 31.797 0.847 31.797 0.527 -57.847
1747.167 0.521 -58.255 0.85 31.384 0.85 31.384 0.521 -58.255
1772.125 0.515 -58.655 0.854 30.978 0.854 30.978 0.515 -58.655
1797.083 0.509 -59.047 0.858 30.58 0.858 30.58 0.509 -59.047
1822.042 0.503 -59.433 0.861 30.189 0.861 30.189 0.503 -59.433
1847 0.497 -59.811 0.864 29.804 0.864 29.804 0.497 -59.811
1871.958 0.491 -60.183 0.868 29.427 0.868 29.427 0.491 -60.183
1896.917 0.486 -60.548 0.871 29.056 0.871 29.056 0.486 -60.548
1921.875 0.48 -60.906 0.874 28.691 0.874 28.691 0.48 -60.906
1946.833 0.475 -61.258 0.877 28.333 0.877 28.333 0.475 -61.258
1971.792 0.469 -61.604 0.88 27.981 0.88 27.981 0.469 -61.604
1996.75 0.464 -61.945 0.883 27.635 0.883 27.635 0.464 -61.945
2021.708 0.459 -62.279 0.885 27.294 0.885 27.294 0.459 -62.279
2046.667 0.453 -62.607 0.888 26.959 0.888 26.959 0.453 -62.607
2071.625 0.448 -62.93 0.89 26.63 0.89 26.63 0.448 -62.93
2096.583 0.443 -63.248 0.893 26.306 0.893 26.306 0.443 -63.248
2121.542 0.438 -63.56 0.895 25.988 0.895 25.988 0.438 -63.56
2146.5 0.433 -63.867 0.898 25.674 0.898 25.674 0.433 -63.867
2171.458 0.428 -64.169 0.9 25.366 0.9 25.366 0.428 -64.169
2196.417 0.424 -64.466 0.902 25.063 0.902 25.063 0.424 -64.466
2221.375 0.419 -64.758 0.905 24.764 0.905 24.764 0.419 -64.758
2246.333 0.414 -65.046 0.907 24.47 0.907 24.47 0.414 -65.046
2271.292 0.41 -65.329 0.909 24.18 0.909 24.18 0.41 -65.329
2296.25 0.405 -65.607 0.911 23.895 0.911 23.895 0.405 -65.607
2321.208 0.401 -65.881 0.913 23.615 0.913 23.615 0.401 -65.881
2346.167 0.396 -66.151 0.915 23.338 0.915 23.338 0.396 -66.151
2371.125 0.392 -66.417 0.917 23.066 0.917 23.066 0.392 -66.417
2396.083 0.387 -66.678 0.918 22.798 0.918 22.798 0.387 -66.678
2421.042 0.383 -66.935 0.92 22.534 0.92 22.534 0.383 -66.935
2446 0.379 -67.189 0.922 22.273 0.922 22.273 0.379 -67.189
2470.958 0.375 -67.439 0.924 22.016 0.924 22.016 0.375 -67.439
2495.917 0.371 -67.685 0.925 21.763 0.925 21.763 0.371 -67.685
2520.875 0.367 -67.927 0.927 21.514 0.927 21.514 0.367 -67.927
2545.833 0.363 -68.166 0.928 21.268 0.928 21.268 0.363 -68.166
2570.792 0.359 -68.401 0.93 21.026 0.93 21.026 0.359 -68.401
2595.75 0.355 -68.633 0.931 20.787 0.931 20.787 0.355 -68.633
2620.708 0.351 -68.861 0.933 20.551 0.933 20.551 0.351 -68.861
2645.667 0.347 -69.086 0.934 20.319 0.934 20.319 0.347 -69.086
2670.625 0.344 -69.308 0.936 20.089 0.936 20.089 0.344 -69.308
2695.583 0.34 -69.527 0.937 19.863 0.937 19.863 0.34 -69.527
2720.542 0.336 -69.743 0.938 19.64 0.938 19.64 0.336 -69.743
2745.5 0.333 -69.956 0.939 19.419 0.939 19.419 0.333 -69.956
2770.458 0.329 -70.165 0.941 19.202 0.941 19.202 0.329 -70.165
2795.417 0.325 -70.372 0.942 18.987 0.942 18.987 0.325 -70.372
2820.375 0.322 -70.576 0.943 18.776 0.943 18.776 0.322 -70.576
2845.333 0.318 -70.778 0.944 18.566 0.944 18.566 0.318 -70.778
2870.292 0.315 -70.976 0.945 18.36 0.945 18.36 0.315 -70.976
2895.25 0.312 -71.172 0.947 18.156 0.947 18.156 0.312 -71.172
2920.208 0.308 -71.365 0.948 17.955 0.948 17.955 0.308 -71.365
2945.167 0.305 -71.556 0.949 17.756 0.949 17.756 0.305 -71.556
2970.125 0.302 -71.744 0.95 17.559 0.95 17.559 0.302 -71.744
2995.083 0.298 -71.93 0.951 17.365 0.951 17.365 0.298 -71.93
3020.042 0.295 -72.113 0.952 17.174 0.952 17.174 0.295 -72.113
3045 0.292 -72.294 0.953 16.984 0.953 16.984 0.292 -72.294
3069.958 0.289 -72.473 0.954 16.797 0.954 16.797 0.289 -72.473
3094.917 0.286 -72.649 0.955 16.612 0.955 16.612 0.286 -72.649
3119.875 0.283 -72.824 0.955 16.429 0.955 16.429 0.283 -72.824
3144.833 0.28 -72.996 0.956 16.248 0.956 16.248 0.28 -72.996
3169.792 0.277 -73.165 0.957 16.07 0.957 16.07 0.277 -73.165
3194.75 0.274 -73.333 0.958 15.893 0.958 15.893 0.274 -73.333
3219.708 0.271 -73.499 0.959 15.718 0.959 15.718 0.271 -73.499
3244.667 0.268 -73.662 0.96 15.546 0.96 15.546 0.268 -73.662
3269.625 0.265 -73.824 0.961 15.375 0.961 15.375 0.265 -73.824
3294.583 0.262 -73.983 0.961 15.206 0.961 15.206 0.262 -73.983
3319.542 0.26 -74.141 0.962 15.039 0.962 15.039 0.26 -74.141
3344.5 0.257 -74.297 0.963 14.874 0.963 14.874 0.257 -74.297
3369.458 0.254 -74.451 0.964 14.71 0.964 14.71 0.254 -74.451
3394.417 0.251 -74.603 0.964 14.548 0.964 14.548 0.251 -74.603
3419.375 0.249 -74.753 0.965 14.388 0.965 14.388 0.249 -74.753
3444.333 0.246 -74.901 0.966 14.23 0.966 14.23 0.246 -74.901
3469.292 0.243 -75.048 0.966 14.073 0.966 14.073 0.243 -75.048
3494.25 0.241 -75.193 0.967 13.918 0.967 13.918 0.241 -75.193
3519.208 0.238 -75.336 0.968 13.764 0.968 13.764 0.238 -75.336
3544.167 0.235 -75.478 0.968 13.612 0.968 13.612 0.235 -75.478
3569.125 0.233 -75.618 0.969 13.462 0.969 13.462 0.233 -75.618
3594.083 0.23 -75.756 0.969 13.313 0.969 13.313 0.23 -75.756
3619.042 0.228 -75.893 0.97 13.165 0.97 13.165 0.228 -75.893
3644 0.225 -76.028 0.971 13.019 0.971 13.019 0.225 -76.028
3668.958 0.223 -76.162 0.971 12.874 0.971 12.874 0.223 -76.162
3693.917 0.22 -76.294 0.972 12.731 0.972 12.731 0.22 -76.294
3718.875 0.218 -76.424 0.972 12.589 0.972 12.589 0.218 -76.424
3743.833 0.216 -76.553 0.973 12.449 0.973 12.449 0.216 -76.553
3768.792 0.213 -76.681 0.973 12.309 0.973 12.309 0.213 -76.681
3793.75 0.211 -76.807 0.974 12.171 0.974 12.171 0.211 -76.807
3818.708 0.209 -76.932 0.974 12.035 0.974 12.035 0.209 -76.932
3843.667 0.206 -77.055 0.975 11.899 0.975 11.899 0.206 -77.055
3868.625 0.204 -77.177 0.975 11.765 0.975 11.765 0.204 -77.177
3893.583 0.202 -77.298 0.976 11.632 0.976 11.632 0.202 -77.298
3918.542 0.199 -77.417 0.976 11.5 0.976 11.5 0.199 -77.417
3943.5 0.197 -77.535 0.977 11.369 0.977 11.369 0.197 -77.535
3968.458 0.195 -77.652 0.977 11.24 0.977 11.24 0.195 -77.652
3993.417 0.193 -77.767 0.977 11.111 0.977 11.111 0.193 -77.767
4018.375 0.191 -77.881 0.978 10.984 0.978 10.984 0.191 -77.881
4043.333 0.188 -77.994 0.978 10.858 0.978 10.858 0.188 -77.994
4068.292 0.186 -78.105 0.979 10.733 0.979 10.733 0.186 -78.105
4093.25 0.184 -78.215 0.979 10.609 0.979 10.609 0.184 -78.215
4118.208 0.182 -78.324 0.98 10.486 0.98 10.486 0.182 -78.324
4143.167 0.18 -78.432 0.98 10.364 0.98 10.364 0.18 -78.432
4168.125 0.178 -78.538 0.98 10.243 0.98 10.243 0.178 -78.538
4193.083 0.176 -78.643 0.981 10.123 0.981 10.123 0.176 -78.643
4218.042 0.174 -78.747 0.981 10.004 0.981 10.004 0.174 -78.747
4243 0.172 -78.85 0.981 9.886 0.981 9.886 0.172 -78.85
4267.958 0.17 -78.952 0.982 9.769 0.982 9.769 0.17 -78.952
4292.917 0.168 -79.052 0.982 9.652 0.982 9.652 0.168 -79.052
4317.875 0.166 -79.152 0.982 9.537 0.982 9.537 0.166 -79.152
4342.833 0.164 -79.25 0.983 9.423 0.983 9.423 0.164 -79.25
4367.792 0.162 -79.347 0.983 9.309 0.983 9.309 0.162 -79.347
4392.75 0.16 -79.443 0.983 9.196 0.983 9.196 0.16 -79.443
4417.708 0.158 -79.538 0.984 9.085 0.984 9.085 0.158 -79.538
4442.667 0.156 -79.631 0.984 8.974 0.984 8.974 0.156 -79.631
4467.625 0.154 -79.724 0.984 8.864 0.984 8.864 0.154 -79.724
4492.583 0.152 -79.815 0.985 8.754 0.985 8.754 0.152 -79.815
4517.542 0.15 -79.905 0.985 8.646 0.985 8.646 0.15 -79.905
4542.5 0.149 -79.994 0.985 8.538 0.985 8.538 0.149 -79.994
4567.458 0.147 -80.083 0.985 8.431 0.985 8.431 0.147 -80.083
4592.417 0.145 -80.169 0.986 8.325 0.986 8.325 0.145 -80.169
4617.375 0.143 -80.255 0.986 8.22 0.986 8.22 0.143 -80.255
4642.333 0.141 -80.34 0.986 8.115 0.986 8.115 0.141 -80.34
4667.292 0.139 -80.424 0.986 8.011 0.986 8.011 0.139 -80.424
4692.25 0.138 -80.506 0.987 7.908 0.987 7.908 0.138 -80.506
4717.208 0.136 -80.587 0.987 7.806 0.987 7.806 0.136 -80.587
4742.167 0.134 -80.668 0.987 7.704 0.987 7.704 0.134 -80.668
4767.125 0.132 -80.747 0.987 7.603 0.987 7.603 0.132 -80.747
4792.083 0.131 -80.825 0.988 7.503 0.988 7.503 0.131 -80.825
4817.042 0.129 -80.902 0.988 7.403 0.988 7.403 0.129 -80.902
4842 0.127 -80.977 0.988 7.304 0.988 7.304 0.127 -80.977
4866.958 0.125 -81.052 0.988 7.206 0.988 7.206 0.125 -81.052
4891.917 0.124 -81.126 0.988 7.108 0.988 7.108 0.124 -81.126
4916.875 0.122 -81.198 0.989 7.011 0.989 7.011 0.122 -81.198
4941.833 0.12 -81.269 0.989 6.915 0.989 6.915 0.12 -81.269
4966.792 0.119 -81.339 0.989 6.819 0.989 6.819 0.119 -81.339
4991.75 0.117 -81.408 0.989 6.724 0.989 6.724 0.117 -81.408
5016.708 0.116 -81.476 0.989 6.629 0.989 6.629 0.116 -81.476
5041.667 0.114 -81.542 0.99 6.535 0.99 6.535 0.114 -81.542
5066.625 0.112 -81.608 0.99 6.442 0.99 6.442 0.112 -81.608
5091.583 0.111 -81.672 0.99 6.349 0.99 6.349 0.111 -81.672
5116.542 0.109 -81.735 0.99 6.256 0.99 6.256 0.109 -81.735
5141.5 0.107 -81.796 0.99 6.165 0.99 6.165 0.107 -81.796
5166.458 0.106 -81.857 0.991 6.074 0.991 6.074 0.106 -81.857
5191.417 0.104 -81.916 0.991 5.983 0.991 5.983 0.104 -81.916
5216.375 0.103 -81.973 0.991 5.893 0.991 5.893 0.103 -81.973
5241.333 0.101 -82.03 0.991 5.804 0.991 5.804 0.101 -82.03
5266.292 0.1 -82.085 0.991 5.715 0.991 5.715 0.1 -82.085
5291.25 0.098 -82.138 0.991 5.626 0.991 5.626 0.098 -82.138
5316.208 0.097 -82.191 0.992 5.538 0.992 5.538 0.097 -82.191
5341.167 0.095 -82.242 0.992 5.451 0.992 5.451 0.095 -82.242
5366.125 0.094 -82.291 0.992 5.364 0.992 5.364 0.094 -82.291
5391.083 0.092 -82.339 0.992 5.277 0.992 5.277 0.092 -82.339
5416.042 0.091 -82.385 0.992 5.191 0.992 5.191 0.091 -82.385
5441 0.089 -82.43 0.992 5.106 0.992 5.106 0.089 -82.43
5465.958 0.088 -82.473 0.992 5.021 0.992 5.021 0.088 -82.473
5490.917 0.086 -82.514 0.992 4.936 0.992 4.936 0.086 -82.514
5515.875 0.085 -82.554 0.993 4.852 0.993 4.852 0.085 -82.554
5540.833 0.083 -82.592 0.993 4.769 0.993 4.769 0.083 -82.592
5565.792 0.082 -82.628 0.993 4.685 0.993 4.685 0.082 -82.628
5590.75 0.08 -82.663 0.993 4.603 0.993 4.603 0.08 -82.663
5615.708 0.079 -82.695 0.993 4.52 0.993 4.52 0.079 -82.695
5640.667 0.077 -82.725 0.993 4.439 0.993 4.439 0.077 -82.725
5665.625 0.076 -82.754 0.993 4.357 0.993 4.357 0.076 -82.754
5690.583 0.075 -82.78 0.993 4.276 0.993 4.276 0.075 -82.78
5715.542 0.073 -82.804 0.993 4.196 0.993 4.196 0.073 -82.804
5740.5 0.072 -82.825 0.994 4.116 0.994 4.116 0.072 -82.825
5765.458 0.07 -82.844 0.994 4.036 0.994 4.036 0.07 -82.844
5790.417 0.069 -82.861 0.994 3.956 0.994 3.956 0.069 -82.861
5815.375 0.068 -82.875 0.994 3.878 0.994 3.878 0.068 -82.875
5840.333 0.066 -82.887 0.994 3.799 0.994 3.799 0.066 -82.887
5865.292 0.065 -82.895 0.994 3.721 0.994 3.721 0.065 -82.895
5890.25 0.064 -82.901 0.994 3.643 0.994 3.643 0.064 -82.901
5915.208 0.062 -82.903 0.994 3.566 0.994 3.566 0.062 -82.903
5940.167 0.061 -82.902 0.994 3.489 0.994 3.489 0.061 -82.902
5965.125 0.06 -82.898 0.994 3.412 0.994 3.412 0.06 -82.898
5990.083 0.058 -82.89 0.994 3.336 0.994 3.336 0.058 -82.89
6015.042 0.057 -82.878 0.995 3.26 0.995 3.26 0.057 -82.878
6040 0.056 -82.862 0.995 3.184 0.995 3.184 0.056 -82.862
6064.958 0.054 -82.841 0.995 3.109 0.995 3.109 0.054 -82.841
6089.917 0.053 -82.816 0.995 3.034 0.995 3.034 0.053 -82.816
6114.875 0.052 -82.787 0.995 2.96 0.995 2.96 0.052 -82.787
6139.833 0.05 -82.752 0.995 2.886 0.995 2.886 0.05 -82.752
6164.792 0.049 -82.711 0.995 2.812 0.995 2.812 0.049 -82.711
6189.75 0.048 -82.665 0.995 2.738 0.995 2.738 0.048 -82.665
6214.708 0.047 -82.612 0.995 2.665 0.995 2.665 0.047 -82.612
6239.667 0.045 -82.553 0.995 2.592 0.995 2.592 0.045 -82.553
6264.625 0.044 -82.486 0.995 2.52 0.995 2.52 0.044 -82.486
6289.583 0.043 -82.412 0.995 2.448 0.995 2.448 0.043 -82.412
6314.542 0.042 -82.329 0.995 2.376 0.995 2.376 0.042 -82.329
6339.5 0.04 -82.237 0.995 2.304 0.995 2.304 0.04 -82.237
6364.458 0.039 -82.135 0.995 2.233 0.995 2.233 0.039 -82.135
6389.417 0.038 -82.022 0.995 2.162 0.995 2.162 0.038 -82.022
6414.375 0.037 -81.897 0.995 2.091 0.995 2.091 0.037 -81.897
6439.333 0.035 -81.76 0.996 2.021 0.996 2.021 0.035 -81.76
6464.292 0.034 -81.608 0.996 1.951 0.996 1.951 0.034 -81.608
6489.25 0.033 -81.441 0.996 1.881 0.996 1.881 0.033 -81.441
6514.208 0.032 -81.257 0.996 1.812 0.996 1.812 0.032 -81.257
6539.167 0.031 -81.054 0.996 1.743 0.996 1.743 0.031 -81.054
6564.125 0.029 -80.829 0.996 1.674 0.996 1.674 0.029 -80.829
6589.083 0.028 -80.581 0.996 1.605 0.996 1.605 0.028 -80.581
6614.042 0.027 -80.306 0.996 1.537 0.996 1.537 0.027 -80.306
6639 0.026 -80.002 0.996 1.469 0.996 1.469 0.026 -80.002
6663.958 0.025 -79.663 0.996 1.401 0.996 1.401 0.025 -79.663
6688.917 0.024 -79.286 0.996 1.333 0.996 1.333 0.024 -79.286
6713.875 0.022 -78.864 0.996 1.266 0.996 1.266 0.022 -78.864
6738.833 0.021 -78.392 0.996 1.199 0.996 1.199 0.021 -78.392
6763.792 0.02 -77.859 0.996 1.133 0.996 1.133 0.02 -77.859
6788.75 0.019 -77.258 0.996 1.066 0.996 1.066 0.019 -77.258
6813.708 0.018 -76.574 0.996 1 0.996 1 0.018 -76.574
6838.667 0.017 -75.792 0.996 0.934 0.996 0.934 0.017 -75.792
6863.625 0.016 -74.893 0.996 0.868 0.996 0.868 0.016 -74.893
6888.583 0.015 -73.85 0.996 0.803 0.996 0.803 0.015 -73.85
6913.542 0.013 -72.63 0.996 0.738 0.996 0.738 0.013 -72.63
6938.5 0.012 -71.189 0.996 0.673 0.996 0.673 0.012 -71.189
6963.458 0.011 -69.468 0.996 0.608 0.996 0.608 0.011 -69.468
6988.417 0.01 -67.384 0.996 0.543 0.996 0.543 0.01 -67.384
7013.375 9.203e-3 -64.823 0.996 0.479 0.996 0.479 9.203e-3 -64.823
7038.333 8.201e-3 -61.624 0.996 0.415 0.996 0.415 8.201e-3 -61.624
7063.292 7.237e-3 -57.551 0.996 0.351 0.996 0.351 7.237e-3 -57.551
7088.25 6.325e-3 -52.267 0.996 0.288 0.996 0.288 6.325e-3 -52.267
7113.208 5.488e-3 -45.296 0.996 0.224 0.996 0.224 5.488e-3 -45.296
7138.167 4.765e-3 -36.038 0.996 0.161 0.996 0.161 4.765e-3 -36.038
7163.125 4.211e-3 -23.96 0.996 0.098 0.996 0.098 4.211e-3 -23.96
7188.083 3.896e-3 -9.167 0.996 0.036 0.996 0.036 3.896e-3 -9.167
7213.042 3.874e-3 6.898 0.996 -0.027 0.996 -0.027 3.874e-3 6.898
7238 4.147e-3 21.906 0.996 -0.089 0.996 -0.089 4.147e-3 21.906
7262.958 4.662e-3 34.276 0.996 -0.151 0.996 -0.151 4.662e-3 34.276
7287.917 5.347e-3 43.795 0.996 -0.213 0.996 -0.213 5.347e-3 43.795
7312.875 6.142e-3 50.966 0.996 -0.274 0.996 -0.274 6.142e-3 50.966
7337.833 7.01e-3 56.396 0.996 -0.336 0.996 -0.336 7.01e-3 56.396
7362.792 7.925e-3 60.575 0.996 -0.397 0.996 -0.397 7.925e-3 60.575
7387.75 8.87e-3 63.852 0.996 -0.458 0.996 -0.458 8.87e-3 63.852
7412.708 9.837e-3 66.471 0.996 -0.519 0.996 -0.519 9.837e-3 66.471
7437.667 0.011 68.6 0.996 -0.579 0.996 -0.579 0.011 68.6
7462.625 0.012 70.358 0.996 -0.64 0.996 -0.64 0.012 70.358
7487.583 0.013 71.828 0.996 -0.7 0.996 -0.7 0.013 71.828
7512.542 0.014 73.073 0.996 -0.76 0.996 -0.76 0.014 73.073
7537.5 0.015 74.137 0.996 -0.82 0.996 -0.82 0.015 74.137
7562.458 0.016 75.056 0.996 -0.879 0.996 -0.879 0.016 75.056
7587.417 0.017 75.854 0.996 -0.939 0.996 -0.939 0.017 75.854
7612.375 0.018 76.554 0.996 -0.998 0.996 -0.998 0.018 76.554
7637.333 0.019 77.171 0.996 -1.057 0.996 -1.057 0.019 77.171
7662.292 0.02 77.717 0.996 -1.116 0.996 -1.116 0.02 77.717
7687.25 0.021 78.203 0.996 -1.175 0.996 -1.175 0.021 78.203
7712.208 0.022 78.638 0.996 -1.233 0.996 -1.233 0.022 78.638
7737.167 0.023 79.029 0.996 -1.291 0.996 -1.291 0.023 79.029
7762.125 0.024 79.38 0.996 -1.35 0.996 -1.35 0.024 79.38
7787.083 0.025 79.698 0.996 -1.408 0.996 -1.408 0.025 79.698
7812.042 0.026 79.986 0.996 -1.465 0.996 -1.465 0.026 79.986
7837 0.027 80.247 0.996 -1.523 0.996 -1.523 0.027 80.247
7861.958 0.028 80.485 0.996 -1.581 0.996 -1.581 0.028 80.485
7886.917 0.029 80.702 0.996 -1.638 0.996 -1.638 0.029 80.702
7911.875 0.03 80.901 0.996 -1.695 0.996 -1.695 0.03 80.901
7936.833 0.031 81.082 0.996 -1.752 0.996 -1.752 0.031 81.082
7961.792 0.032 81.248 0.996 -1.809 0.996 -1.809 0.032 81.248
7986.75 0.033 81.4 0.996 -1.865 0.996 -1.865 0.033 81.4
8011.708 0.034 81.54 0.996 -1.922 0.996 -1.922 0.034 81.54
8036.667 0.035 81.669 0.996 -1.978 0.996 -1.978 0.035 81.669
8061.625 0.036 81.787 0.996 -2.034 0.996 -2.034 0.036 81.787
8086.583 0.037 81.895 0.995 -2.09 0.995 -2.09 0.037 81.895
8111.542 0.038 81.995 0.995 -2.146 0.995 -2.146 0.038 81.995
8136.5 0.039 82.086 0.995 -2.202 0.995 -2.202 0.039 82.086
8161.458 0.04 82.171 0.995 -2.257 0.995 -2.257 0.04 82.171
8186.417 0.041 82.248 0.995 -2.313 0.995 -2.313 0.041 82.248
