# MHZ S MA R 50

50 0.995 -5.919 0.103 84.067 0.103 84.067 0.995 -5.919
74.958 0.988 -8.836 0.154 81.143 0.154 81.143 0.988 -8.836
99.917 0.979 -11.709 0.203 78.263 0.203 78.263 0.979 -11.709
124.875 0.968 -14.524 0.251 75.441 0.251 75.441 0.968 -14.524
149.833 0.955 -17.272 0.297 72.686 0.297 72.686 0.955 -17.272
174.792 0.94 -19.942 0.341 70.009 0.341 70.009 0.94 -19.942
199.75 0.923 -22.528 0.383 67.416 0.383 67.416 0.923 -22.528
224.708 0.906 -25.023 0.423 64.915 0.423 64.915 0.906 -25.023
249.667 0.887 -27.423 0.461 62.507 0.461 62.507 0.887 -27.423
274.625 0.868 -29.727 0.496 60.197 0.496 60.197 0.868 -29.727
299.583 0.848 -31.933 0.529 57.984 0.529 57.984 0.848 -31.933
324.542 0.828 -34.041 0.56 55.869 0.56 55.869 0.828 -34.041
349.5 0.807 -36.053 0.589 53.85 0.589 53.85 0.807 -36.053
374.458 0.787 -37.97 0.615 51.925 0.615 51.925 0.787 -37.97
399.417 0.767 -39.797 0.64 50.092 0.64 50.092 0.767 -39.797
424.375 0.747 -41.534 0.663 48.347 0.663 48.347 0.747 -41.534
449.333 0.728 -43.187 0.684 46.686 0.684 46.686 0.728 -43.187
474.292 0.708 -44.759 0.704 45.107 0.704 45.107 0.708 -44.759
499.25 0.69 -46.254 0.722 43.606 0.722 43.606 0.69 -46.254
524.208 0.671 -47.675 0.739 42.177 0.739 42.177 0.671 -47.675
549.167 0.654 -49.026 0.755 40.819 0.755 40.819 0.654 -49.026
574.125 0.636 -50.312 0.77 39.526 0.77 39.526 0.636 -50.312
599.083 0.62 -51.535 0.783 38.295 0.783 38.295 0.62 -51.535
624.042 0.604 -52.7 0.795 37.123 0.795 37.123 0.604 -52.7
649 0.588 -53.81 0.807 36.006 0.807 36.006 0.588 -53.81
673.958 0.573 -54.867 0.818 34.942 0.818 34.942 0.573 -54.867
698.917 0.558 -55.875 0.828 33.926 0.828 33.926 0.558 -55.875
723.875 0.544 -56.837 0.837 32.957 0.837 32.957 0.544 -56.837
748.833 0.53 -57.756 0.846 32.031 0.846 32.031 0.53 -57.756
773.792 0.517 -58.633 0.854 31.146 0.854 31.146 0.517 -58.633
798.75 0.505 -59.472 0.861 30.299 0.861 30.299 0.505 -59.472
823.708 0.492 -60.275 0.868 29.489 0.868 29.489 0.492 -60.275
848.667 0.48 -61.043 0.875 28.712 0.875 28.712 0.48 -61.043
873.625 0.469 -61.779 0.881 27.969 0.881 27.969 0.469 -61.779
898.583 0.458 -62.485 0.887 27.255 0.887 27.255 0.458 -62.485
923.542 0.447 -63.162 0.892 26.57 0.892 26.57 0.447 -63.162
948.5 0.437 -63.813 0.897 25.912 0.897 25.912 0.437 -63.813
973.458 0.427 -64.437 0.902 25.28 0.902 25.28 0.427 -64.437
998.417 0.417 -65.037 0.907 24.671 0.907 24.671 0.417 -65.037
1023.375 0.408 -65.615 0.911 24.086 0.911 24.086 0.408 -65.615
1048.333 0.399 -66.171 0.915 23.522 0.915 23.522 0.399 -66.171
1073.292 0.39 -66.706 0.919 22.978 0.919 22.978 0.39 -66.706
1098.25 0.382 -67.222 0.922 22.454 0.922 22.454 0.382 -67.222
1123.208 0.374 -67.72 0.925 21.948 0.925 21.948 0.374 -67.72
1148.167 0.366 -68.2 0.929 21.46 0.929 21.46 0.366 -68.2
1173.125 0.358 -68.663 0.931 20.988 0.931 20.988 0.358 -68.663
1198.083 0.351 -69.111 0.934 20.532 0.934 20.532 0.351 -69.111
1223.042 0.344 -69.544 0.937 20.09 0.937 20.09 0.344 -69.544
1248 0.336 -69.963 0.939 19.663 0.939 19.663 0.336 -69.963
1272.958 0.33 -70.368 0.942 19.249 0.942 19.249 0.33 -70.368
1297.917 0.323 -70.76 0.944 18.848 0.944 18.848 0.323 -70.76
1322.875 0.317 -71.14 0.946 18.459 0.946 18.459 0.317 -71.14
1347.833 0.31 -71.508 0.948 18.082 0.948 18.082 0.31 -71.508
1372.792 0.304 -71.865 0.95 17.716 0.95 17.716 0.304 -71.865
1397.75 0.298 -72.211 0.952 17.361 0.952 17.361 0.298 -72.211
1422.708 0.293 -72.547 0.954 17.015 0.954 17.015 0.293 -72.547
1447.667 0.287 -72.874 0.956 16.68 0.956 16.68 0.287 -72.874
1472.625 0.282 -73.191 0.957 16.353 0.957 16.353 0.282 -73.191
1497.583 0.276 -73.499 0.959 16.036 0.959 16.036 0.276 -73.499
1522.542 0.271 -73.798 0.96 15.727 0.96 15.727 0.271 -73.798
1547.5 0.266 -74.089 0.962 15.426 0.962 15.426 0.266 -74.089
1572.458 0.261 -74.373 0.963 15.132 0.963 15.132 0.261 -74.373
1597.417 0.256 -74.649 0.964 14.847 0.964 14.847 0.256 -74.649
1622.375 0.252 -74.917 0.966 14.568 0.966 14.568 0.252 -74.917
1647.333 0.247 -75.179 0.967 14.296 0.967 14.296 0.247 -75.179
1672.292 0.242 -75.434 0.968 14.031 0.968 14.031 0.242 -75.434
1697.25 0.238 -75.682 0.969 13.772 0.969 13.772 0.238 -75.682
1722.208 0.234 -75.924 0.97 13.519 0.97 13.519 0.234 -75.924
1747.167 0.23 -76.161 0.971 13.272 0.971 13.272 0.23 -76.161
1772.125 0.225 -76.391 0.972 13.031 0.972 13.031 0.225 -76.391
1797.083 0.221 -76.616 0.973 12.795 0.973 12.795 0.221 -76.616
1822.042 0.218 -76.836 0.974 12.564 0.974 12.564 0.218 -76.836
1847 0.214 -77.05 0.975 12.338 0.975 12.338 0.214 -77.05
1871.958 0.21 -77.26 0.975 12.117 0.975 12.117 0.21 -77.26
1896.917 0.206 -77.464 0.976 11.901 0.976 11.901 0.206 -77.464
1921.875 0.203 -77.664 0.977 11.689 0.977 11.689 0.203 -77.664
1946.833 0.199 -77.86 0.978 11.482 0.978 11.482 0.199 -77.86
1971.792 0.196 -78.051 0.978 11.278 0.978 11.278 0.196 -78.051
1996.75 0.192 -78.238 0.979 11.079 0.979 11.079 0.192 -78.238
2021.708 0.189 -78.421 0.98 10.884 0.98 10.884 0.189 -78.421
2046.667 0.186 -78.6 0.98 10.692 0.98 10.692 0.186 -78.6
2071.625 0.182 -78.775 0.981 10.504 0.981 10.504 0.182 -78.775
2096.583 0.179 -78.946 0.982 10.319 0.982 10.319 0.179 -78.946
2121.542 0.176 -79.114 0.982 10.138 0.982 10.138 0.176 -79.114
2146.5 0.173 -79.278 0.983 9.96 0.983 9.96 0.173 -79.278
2171.458 0.17 -79.439 0.983 9.786 0.983 9.786 0.17 -79.439
2196.417 0.167 -79.596 0.984 9.614 0.984 9.614 0.167 -79.596
2221.375 0.164 -79.75 0.984 9.446 0.984 9.446 0.164 -79.75
2246.333 0.161 -79.902 0.985 9.28 0.985 9.28 0.161 -79.902
2271.292 0.158 -80.05 0.985 9.117 0.985 9.117 0.158 -80.05
2296.25 0.156 -80.195 0.986 8.957 0.986 8.957 0.156 -80.195
2321.208 0.153 -80.337 0.986 8.799 0.986 8.799 0.153 -80.337
2346.167 0.15 -80.476 0.986 8.644 0.986 8.644 0.15 -80.476
2371.125 0.148 -80.613 0.987 8.491 0.987 8.491 0.148 -80.613
2396.083 0.145 -80.746 0.987 8.341 0.987 8.341 0.145 -80.746
2421.042 0.143 -80.878 0.987 8.193 0.987 8.193 0.143 -80.878
2446 0.14 -81.006 0.988 8.048 0.988 8.048 0.14 -81.006
2470.958 0.138 -81.132 0.988 7.905 0.988 7.905 0.138 -81.132
2495.917 0.135 -81.256 0.989 7.763 0.989 7.763 0.135 -81.256
2520.875 0.133 -81.377 0.989 7.624 0.989 7.624 0.133 -81.377
2545.833 0.13 -81.495 0.989 7.487 0.989 7.487 0.13 -81.495
2570.792 0.128 -81.612 0.989 7.352 0.989 7.352 0.128 -81.612
2595.75 0.126 -81.725 0.99 7.219 0.99 7.219 0.126 -81.725
2620.708 0.123 -81.837 0.99 7.087 0.99 7.087 0.123 -81.837
2645.667 0.121 -81.946 0.99 6.957 0.99 6.957 0.121 -81.946
2670.625 0.119 -82.054 0.991 6.83 0.991 6.83 0.119 -82.054
2695.583 0.117 -82.159 0.991 6.703 0.991 6.703 0.117 -82.159
2720.542 0.115 -82.261 0.991 6.579 0.991 6.579 0.115 -82.261
2745.5 0.112 -82.362 0.991 6.456 0.991 6.456 0.112 -82.362
2770.458 0.11 -82.46 0.992 6.335 0.992 6.335 0.11 -82.46
2795.417 0.108 -82.557 0.992 6.215 0.992 6.215 0.108 -82.557
2820.375 0.106 -82.651 0.992 6.097 0.992 6.097 0.106 -82.651
2845.333 0.104 -82.743 0.992 5.98 0.992 5.98 0.104 -82.743
2870.292 0.102 -82.833 0.992 5.865 0.992 5.865 0.102 -82.833
2895.25 0.1 -82.921 0.993 5.751 0.993 5.751 0.1 -82.921
2920.208 0.098 -83.007 0.993 5.638 0.993 5.638 0.098 -83.007
2945.167 0.096 -83.091 0.993 5.527 0.993 5.527 0.096 -83.091
2970.125 0.094 -83.173 0.993 5.417 0.993 5.417 0.094 -83.173
2995.083 0.093 -83.252 0.993 5.308 0.993 5.308 0.093 -83.252
3020.042 0.091 -83.33 0.994 5.201 0.994 5.201 0.091 -83.33
3045 0.089 -83.405 0.994 5.094 0.994 5.094 0.089 -83.405
3069.958 0.087 -83.479 0.994 4.989 0.994 4.989 0.087 -83.479
3094.917 0.085 -83.55 0.994 4.885 0.994 4.885 0.085 -83.55
3119.875 0.083 -83.619 0.994 4.782 0.994 4.782 0.083 -83.619
3144.833 0.082 -83.686 0.994 4.681 0.994 4.681 0.082 -83.686
3169.792 0.08 -83.751 0.994 4.58 0.994 4.58 0.08 -83.751
3194.75 0.078 -83.813 0.995 4.48 0.995 4.48 0.078 -83.813
3219.708 0.076 -83.873 0.995 4.382 0.995 4.382 0.076 -83.873
3244.667 0.075 -83.931 0.995 4.284 0.995 4.284 0.075 -83.931
3269.625 0.073 -83.986 0.995 4.187 0.995 4.187 0.073 -83.986
3294.583 0.071 -84.039 0.995 4.092 0.995 4.092 0.071 -84.039
3319.542 0.07 -84.089 0.995 3.997 0.995 3.997 0.07 -84.089
3344.5 0.068 -84.137 0.995 3.903 0.995 3.903 0.068 -84.137
3369.458 0.066 -84.182 0.995 3.81 0.995 3.81 0.066 -84.182
3394.417 0.065 -84.224 0.996 3.718 0.996 3.718 0.065 -84.224
3419.375 0.063 -84.264 0.996 3.627 0.996 3.627 0.063 -84.264
3444.333 0.062 -84.3 0.996 3.536 0.996 3.536 0.062 -84.3
3469.292 0.06 -84.333 0.996 3.447 0.996 3.447 0.06 -84.333
3494.25 0.059 -84.363 0.996 3.358 0.996 3.358 0.059 -84.363
3519.208 0.057 -84.39 0.996 3.27 0.996 3.27 0.057 -84.39
3544.167 0.056 -84.413 0.996 3.183 0.996 3.183 0.056 -84.413
3569.125 0.054 -84.432 0.996 3.096 0.996 3.096 0.054 -84.432
3594.083 0.053 -84.448 0.996 3.01 0.996 3.01 0.053 -84.448
3619.042 0.051 -84.459 0.996 2.925 0.996 2.925 0.051 -84.459
3644 0.05 -84.465 0.996 2.841 0.996 2.841 0.05 -84.465
3668.958 0.048 -84.467 0.997 2.757 0.997 2.757 0.048 -84.467
3693.917 0.047 -84.464 0.997 2.675 0.997 2.675 0.047 -84.464
3718.875 0.045 -84.456 0.997 2.592 0.997 2.592 0.045 -84.456
3743.833 0.044 -84.441 0.997 2.511 0.997 2.511 0.044 -84.441
3768.792 0.042 -84.421 0.997 2.43 0.997 2.43 0.042 -84.421
3793.75 0.041 -84.394 0.997 2.349 0.997 2.349 0.041 -84.394
3818.708 0.04 -84.359 0.997 2.27 0.997 2.27 0.04 -84.359
3843.667 0.038 -84.317 0.997 2.191 0.997 2.191 0.038 -84.317
3868.625 0.037 -84.265 0.997 2.112 0.997 2.112 0.037 -84.265
3893.583 0.036 -84.205 0.997 2.034 0.997 2.034 0.036 -84.205
3918.542 0.034 -84.134 0.997 1.957 0.997 1.957 0.034 -84.134
3943.5 0.033 -84.051 0.997 1.88 0.997 1.88 0.033 -84.051
3968.458 0.032 -83.956 0.997 1.804 0.997 1.804 0.032 -83.956
3993.417 0.03 -83.847 0.997 1.728 0.997 1.728 0.03 -83.847
4018.375 0.029 -83.722 0.997 1.653 0.997 1.653 0.029 -83.722
4043.333 0.028 -83.578 0.997 1.578 0.997 1.578 0.028 -83.578
4068.292 0.026 -83.415 0.997 1.504 0.997 1.504 0.026 -83.415
4093.25 0.025 -83.228 0.997 1.431 0.997 1.431 0.025 -83.228
4118.208 0.024 -83.016 0.997 1.357 0.997 1.357 0.024 -83.016
4143.167 0.023 -82.772 0.997 1.285 0.997 1.285 0.023 -82.772
4168.125 0.021 -82.493 0.997 1.213 0.997 1.213 0.021 -82.493
4193.083 0.02 -82.173 0.997 1.141 0.997 1.141 0.02 -82.173
4218.042 0.019 -81.804 0.997 1.07 0.997 1.07 0.019 -81.804
4243 0.018 -81.375 0.998 0.999 0.998 0.999 0.018 -81.375
4267.958 0.016 -80.876 0.998 0.929 0.998 0.929 0.016 -80.876
4292.917 0.015 -80.289 0.998 0.859 0.998 0.859 0.015 -80.289
4317.875 0.014 -79.593 0.998 0.789 0.998 0.789 0.014 -79.593
4342.833 0.013 -78.76 0.998 0.72 0.998 0.72 0.013 -78.76
4367.792 0.012 -77.75 0.998 0.652 0.998 0.652 0.012 -77.75
4392.75 0.01 -76.506 0.998 0.584 0.998 0.584 0.01 -76.506
4417.708 9.3e-3 -74.945 0.998 0.516 0.998 0.516 9.3e-3 -74.945
4442.667 8.166e-3 -72.94 0.998 0.448 0.998 0.448 8.166e-3 -72.94
4467.625 7.054e-3 -70.29 0.998 0.381 0.998 0.381 7.054e-3 -70.29
4492.583 5.969e-3 -66.66 0.998 0.315 0.998 0.315 5.969e-3 -66.66
4517.542 4.926e-3 -61.458 0.998 0.249 0.998 0.249 4.926e-3 -61.458
4542.5 3.951e-3 -53.596 0.998 0.183 0.998 0.183 3.951e-3 -53.596
4567.458 3.103e-3 -41.088 0.998 0.117 0.998 0.117 3.103e-3 -41.088
4592.417 2.505e-3 -21.185 0.998 0.052 0.998 0.052 2.505e-3 -21.185
4617.375 2.345e-3 5.456 0.998 -0.013 0.998 -0.013 2.345e-3 5.456
4642.333 2.696e-3 29.928 0.998 -0.077 0.998 -0.077 2.696e-3 29.928
4667.292 3.397e-3 46.436 0.998 -0.141 0.998 -0.141 3.397e-3 46.436
4692.25 4.274e-3 56.682 0.998 -0.205 0.998 -0.205 4.274e-3 56.682
4717.208 5.236e-3 63.251 0.998 -0.269 0.998 -0.269 5.236e-3 63.251
4742.167 6.241e-3 67.701 0.998 -0.332 0.998 -0.332 6.241e-3 67.701
4767.125 7.269e-3 70.871 0.998 -0.394 0.998 -0.394 7.269e-3 70.871
4792.083 8.309e-3 73.223 0.998 -0.457 0.998 -0.457 8.309e-3 73.223
4817.042 9.354e-3 75.028 0.998 -0.519 0.998 -0.519 9.354e-3 75.028
4842 0.01 76.45 0.998 -0.581 0.998 -0.581 0.01 76.45
4866.958 0.011 77.595 0.998 -0.642 0.998 -0.642 0.011 77.595
4891.917 0.013 78.532 0.998 -0.704 0.998 -0.704 0.013 78.532
4916.875 0.014 79.312 0.998 -0.765 0.998 -0.765 0.014 79.312
4941.833 0.015 79.967 0.998 -0.825 0.998 -0.825 0.015 79.967
4966.792 0.016 80.525 0.998 -0.886 0.998 -0.886 0.016 80.525
4991.75 0.017 81.003 0.998 -0.946 0.998 -0.946 0.017 81.003
5016.708 0.018 81.417 0.998 -1.005 0.998 -1.005 0.018 81.417
5041.667 0.019 81.776 0.997 -1.065 0.997 -1.065 0.019 81.776
5066.625 0.02 82.091 0.997 -1.124 0.997 -1.124 0.02 82.091
5091.583 0.021 82.367 0.997 -1.183 0.997 -1.183 0.021 82.367
5116.542 0.022 82.611 0.997 -1.242 0.997 -1.242 0.022 82.611
5141.5 0.023 82.827 0.997 -1.3 0.997 -1.3 0.023 82.827
5166.458 0.024 83.019 0.997 -1.359 0.997 -1.359 0.024 83.019
5191.417 0.025 83.19 0.997 -1.417 0.997 -1.417 0.025 83.19
5216.375 0.026 83.342 0.997 -1.474 0.997 -1.474 0.026 83.342
5241.333 0.027 83.478 0.997 -1.532 0.997 -1.532 0.027 83.478
5266.292 0.028 83.6 0.997 -1.589 0.997 -1.589 0.028 83.6
5291.25 0.029 83.709 0.997 -1.646 0.997 -1.646 0.029 83.709
5316.208 0.03 83.807 0.997 -1.703 0.997 -1.703 0.03 83.807
5341.167 0.031 83.894 0.997 -1.759 0.997 -1.759 0.031 83.894
5366.125 0.032 83.972 0.997 -1.816 0.997 -1.816 0.032 83.972
5391.083 0.033 84.042 0.997 -1.872 0.997 -1.872 0.033 84.042
5416.042 0.034 84.104 0.997 -1.927 0.997 -1.927 0.034 84.104
5441 0.035 84.159 0.997 -1.983 0.997 -1.983 0.035 84.159
5465.958 0.036 84.209 0.997 -2.039 0.997 -2.039 0.036 84.209
5490.917 0.037 84.252 0.997 -2.094 0.997 -2.094 0.037 84.252
5515.875 0.038 84.291 0.997 -2.149 0.997 -2.149 0.038 84.291
5540.833 0.039 84.324 0.997 -2.203 0.997 -2.203 0.039 84.324
5565.792 0.039 84.353 0.997 -2.258 0.997 -2.258 0.039 84.353
5590.75 0.04 84.379 0.997 -2.312 0.997 -2.312 0.04 84.379
5615.708 0.041 84.4 0.997 -2.367 0.997 -2.367 0.041 84.4
5640.667 0.042 84.418 0.997 -2.421 0.997 -2.421 0.042 84.418
5665.625 0.043 84.433 0.997 -2.474 0.997 -2.474 0.043 84.433
5690.583 0.044 84.445 0.997 -2.528 0.997 -2.528 0.044 84.445
5715.542 0.045 84.454 0.997 -2.581 0.997 -2.581 0.045 84.454
5740.5 0.046 84.461 0.997 -2.634 0.997 -2.634 0.046 84.461
5765.458 0.047 84.465 0.997 -2.688 0.997 -2.688 0.047 84.465
5790.417 0.048 84.467 0.997 -2.74 0.997 -2.74 0.048 84.467
5815.375 0.049 84.467 0.996 -2.793 0.996 -2.793 0.049 84.467
5840.333 0.05 84.465 0.996 -2.845 0.996 -2.845 0.05 84.465
5865.292 0.051 84.461 0.996 -2.898 0.996 -2.898 0.051 84.461
5890.25 0.052 84.456 0.996 -2.95 0.996 -2.95 0.052 84.456
5915.208 0.052 84.449 0.996 -3.002 0.996 -3.002 0.052 84.449
5940.167 0.053 84.44 0.996 -3.054 0.996 -3.054 0.053 84.44
5965.125 0.054 84.43 0.996 -3.105 0.996 -3.105 0.054 84.43
5990.083 0.055 84.419 0.996 -3.157 0.996 -3.157 0.055 84.419
6015.042 0.056 84.407 0.996 -3.208 0.996 -3.208 0.056 84.407
6040 0.057 84.393 0.996 -3.259 0.996 -3.259 0.057 84.393
6064.958 0.058 84.378 0.996 -3.31 0.996 -3.31 0.058 84.378
6089.917 0.059 84.362 0.996 -3.361 0.996 -3.361 0.059 84.362
6114.875 0.06 84.346 0.996 -3.411 0.996 -3.411 0.06 84.346
6139.833 0.06 84.328 0.996 -3.462 0.996 -3.462 0.06 84.328
6164.792 0.061 84.309 0.996 -3.512 0.996 -3.512 0.061 84.309
6189.75 0.062 84.29 0.996 -3.562 0.996 -3.562 0.062 84.29
6214.708 0.063 84.27 0.996 -3.613 0.996 -3.613 0.063 84.27
6239.667 0.064 84.249 0.996 -3.662 0.996 -3.662 0.064 84.249
6264.625 0.065 84.227 0.996 -3.712 0.996 -3.712 0.065 84.227
6289.583 0.066 84.205 0.996 -3.762 0.996 -3.762 0.066 84.205
6314.542 0.067 84.182 0.995 -3.811 0.995 -3.811 0.067 84.182
6339.5 0.067 84.158 0.995 -3.86 0.995 -3.86 0.067 84.158
6364.458 0.068 84.134 0.995 -3.91 0.995 -3.91 0.068 84.134
6389.417 0.069 84.109 0.995 -3.959 0.995 -3.959 0.069 84.109
6414.375 0.07 84.084 0.995 -4.008 0.995 -4.008 0.07 84.084
6439.333 0.071 84.058 0.995 -4.056 0.995 -4.056 0.071 84.058
6464.292 0.072 84.032 0.995 -4.105 0.995 -4.105 0.072 84.032
6489.25 0.072 84.005 0.995 -4.153 0.995 -4.153 0.072 84.005
6514.208 0.073 83.978 0.995 -4.202 0.995 -4.202 0.073 83.978
6539.167 0.074 83.95 0.995 -4.25 0.995 -4.25 0.074 83.95
6564.125 0.075 83.923 0.995 -4.298 0.995 -4.298 0.075 83.923
6589.083 0.076 83.894 0.995 -4.346 0.995 -4.346 0.076 83.894
6614.042 0.077 83.866 0.995 -4.394 0.995 -4.394 0.077 83.866
6639 0.077 83.837 0.995 -4.442 0.995 -4.442 0.077 83.837
6663.958 0.078 83.807 0.995 -4.489 0.995 -4.489 0.078 83.807
6688.917 0.079 83.778 0.995 -4.537 0.995 -4.537 0.079 83.778
6713.875 0.08 83.748 0.994 -4.584 0.994 -4.584 0.08 83.748
6738.833 0.081 83.718 0.994 -4.631 0.994 -4.631 0.081 83.718
6763.792 0.082 83.687 0.994 -4.679 0.994 -4.679 0.082 83.687
6788.75 0.082 83.657 0.994 -4.726 0.994 -4.726 0.082 83.657
6813.708 0.083 83.626 0.994 -4.772 0.994 -4.772 0.083 83.626
6838.667 0.084 83.595 0.994 -4.819 0.994 -4.819 0.084 83.595
6863.625 0.085 83.563 0.994 -4.866 0.994 -4.866 0.085 83.563
6888.583 0.086 83.532 0.994 -4.912 0.994 -4.912 0.086 83.532
6913.542 0.086 83.5 0.994 -4.959 0.994 -4.959 0.086 83.5
6938.5 0.087 83.468 0.994 -5.005 0.994 -5.005 0.087 83.468
6963.458 0.088 83.436 0.994 -5.051 0.994 -5.051 0.088 83.436
6988.417 0.089 83.403 0.994 -5.098 0.994 -5.098 0.089 83.403
7013.375 0.09 83.371 0.994 -5.144 0.994 -5.144 0.09 83.371
7038.333 0.09 83.338 0.994 -5.189 0.994 -5.189 0.09 83.338
7063.292 0.091 83.305 0.994 -5.235 0.994 -5.235 0.091 83.305
7088.25 0.092 83.272 0.993 -5.281 0.993 -5.281 0.092 83.272
7113.208 0.093 83.239 0.993 -5.327 0.993 -5.327 0.093 83.239
7138.167 0.094 83.206 0.993 -5.372 0.993 -5.372 0.094 83.206
7163.125 0.094 83.172 0.993 -5.417 0.993 -5.417 0.094 83.172
7188.083 0.095 83.139 0.993 -5.463 0.993 -5.463 0.095 83.139
7213.042 0.096 83.105 0.993 -5.508 0.993 -5.508 0.096 83.105
7238 0.097 83.071 0.993 -5.553 0.993 -5.553 0.097 83.071
7262.958 0.098 83.037 0.993 -5.598 0.993 -5.598 0.098 83.037
7287.917 0.098 83.003 0.993 -5.643 0.993 -5.643 0.098 83.003
7312.875 0.099 82.969 0.993 -5.688 0.993 -5.688 0.099 82.969
7337.833 0.1 82.935 0.993 -5.732 0.993 -5.732 0.1 82.935
7362.792 0.101 82.901 0.993 -5.777 0.993 -5.777 0.101 82.901
7387.75 0.101 82.867 0.993 -5.822 0.993 -5.822 0.101 82.867
7412.708 0.102 82.832 0.992 -5.866 0.992 -5.866 0.102 82.832
7437.667 0.103 82.798 0.992 -5.91 0.992 -5.91 0.103 82.798
7462.625 0.104 82.763 0.992 -5.955 0.992 -5.955 0.104 82.763
7487.583 0.105 82.728 0.992 -5.999 0.992 -5.999 0.105 82.728
7512.542 0.105 82.694 0.992 -6.043 0.992 -6.043 0.105 82.694
7537.5 0.106 82.659 0.992 -6.087 0.992 -6.087 0.106 82.659
7562.458 0.107 82.624 0.992 -6.131 0.992 -6.131 0.107 82.624
7587.417 0.108 82.589 0.992 -6.175 0.992 -6.175 0.108 82.589
7612.375 0.108 82.554 0.992 -6.218 0.992 -6.218 0.108 82.554
7637.333 0.109 82.519 0.992 -6.262 0.992 -6.262 0.109 82.519
7662.292 0.11 82.484 0.992 -6.306 0.992 -6.306 0.11 82.484
7687.25 0.111 82.449 0.992 -6.349 0.992 -6.349 0.111 82.449
7712.208 0.111 82.414 0.991 -6.393 0.991 -6.393 0.111 82.414
7737.167 0.112 82.378 0.991 -6.436 0.991 -6.436 0.112 82.378
7762.125 0.113 82.343 0.991 -6.479 0.991 -6.479 0.113 82.343
7787.083 0.114 82.308 0.991 -6.522 0.991 -6.522 0.114 82.308
7812.042 0.114 82.272 0.991 -6.565 0.991 -6.565 0.114 82.272
7837 0.115 82.237 0.991 -6.608 0.991 -6.608 0.115 82.237
7861.958 0.116 82.202 0.991 -6.651 0.991 -6.651 0.116 82.202
7886.917 0.117 82.166 0.991 -6.694 0.991 -6.694 0.117 82.166
7911.875 0.117 82.131 0.991 -6.737 0.991 -6.737 0.117 82.131
7936.833 0.118 82.095 0.991 -6.78 0.991 -6.78 0.118 82.095
7961.792 0.119 82.06 0.991 -6.822 0.991 -6.822 0.119 82.06
7986.75 0.12 82.024 0.991 -6.865 0.991 -6.865 0.12 82.024
8011.708 0.12 81.989 0.99 -6.907 0.99 -6.907 0.12 81.989
8036.667 0.121 81.953 0.99 -6.95 0.99 -6.95 0.121 81.953
8061.625 0.122 81.917 0.99 -6.992 0.99 -6.992 0.122 81.917
8086.583 0.122 81.882 0.99 -7.034 0.99 -7.034 0.122 81.882
8111.542 0.123 81.846 0.99 -7.076 0.99 -7.076 0.123 81.846
8136.5 0.124 81.81 0.99 -7.119 0.99 -7.119 0.124 81.81
8161.458 0.125 81.775 0.99 -7.161 0.99 -7.161 0.125 81.775
8186.417 0.125 81.739 0.99 -7.203 0.99 -7.203 0.125 81.739
8211.375 0.126 81.703 0.99 -7.244 0.99 -7.244 0.126 81.703
8236.333 0.127 81.668 0.99 -7.286 0.99 -7.286 0.127 81.668
8261.292 0.128 81.632 0.99 -7.328 0.99 -7.328 0.128 81.632
