# MHZ S MA R 50

50 0.882 -28.109 0.471 61.85 0.471 61.85 0.882 -28.109
74.958 0.78 -38.691 0.625 51.246 0.625 51.246 0.78 -38.691
99.917 0.682 -46.879 0.73 43.038 0.73 43.038 0.682 -46.879
124.875 0.598 -53.164 0.8 36.732 0.8 36.732 0.598 -53.164
149.833 0.528 -58.032 0.848 31.842 0.848 31.842 0.528 -58.032
174.792 0.469 -61.865 0.882 27.989 0.882 27.989 0.469 -61.865
199.75 0.421 -64.934 0.906 24.898 0.906 24.898 0.421 -64.934
224.708 0.381 -67.436 0.923 22.375 0.923 22.375 0.381 -67.436
249.667 0.347 -69.506 0.937 20.284 0.937 20.284 0.347 -69.506
274.625 0.318 -71.244 0.947 18.524 0.947 18.524 0.318 -71.244
299.583 0.293 -72.721 0.955 17.025 0.955 17.025 0.293 -72.721
324.542 0.271 -73.99 0.961 15.734 0.961 15.734 0.271 -73.99
349.5 0.252 -75.092 0.966 14.61 0.966 14.61 0.252 -75.092
374.458 0.236 -76.056 0.971 13.623 0.971 13.623 0.236 -76.056
399.417 0.221 -76.907 0.974 12.749 0.974 12.749 0.221 -76.907
424.375 0.207 -77.663 0.977 11.97 0.977 11.97 0.207 -77.663
449.333 0.195 -78.339 0.979 11.27 0.979 11.27 0.195 -78.339
474.292 0.185 -78.947 0.981 10.638 0.981 10.638 0.185 -78.947
499.25 0.175 -79.497 0.983 10.065 0.983 10.065 0.175 -79.497
524.208 0.166 -79.995 0.985 9.542 0.985 9.542 0.166 -79.995
549.167 0.158 -80.45 0.986 9.062 0.986 9.062 0.158 -80.45
574.125 0.15 -80.866 0.987 8.621 0.987 8.621 0.15 -80.866
599.083 0.143 -81.248 0.988 8.213 0.988 8.213 0.143 -81.248
624.042 0.136 -81.6 0.989 7.835 0.989 7.835 0.136 -81.6
649 0.13 -81.924 0.99 7.483 0.99 7.483 0.13 -81.924
673.958 0.125 -82.225 0.991 7.155 0.991 7.155 0.125 -82.225
698.917 0.119 -82.504 0.992 6.848 0.992 6.848 0.119 -82.504
723.875 0.114 -82.764 0.992 6.559 0.992 6.559 0.114 -82.764
748.833 0.11 -83.006 0.993 6.288 0.993 6.288 0.11 -83.006
773.792 0.105 -83.231 0.993 6.032 0.993 6.032 0.105 -83.231
798.75 0.101 -83.442 0.994 5.791 0.994 5.791 0.101 -83.442
823.708 0.097 -83.639 0.994 5.562 0.994 5.562 0.097 -83.639
848.667 0.093 -83.824 0.994 5.345 0.994 5.345 0.093 -83.824
873.625 0.09 -83.997 0.995 5.138 0.995 5.138 0.09 -83.997
898.583 0.086 -84.159 0.995 4.941 0.995 4.941 0.086 -84.159
923.542 0.083 -84.311 0.995 4.753 0.995 4.753 0.083 -84.311
948.5 0.08 -84.453 0.995 4.574 0.995 4.574 0.08 -84.453
973.458 0.077 -84.587 0.996 4.402 0.996 4.402 0.077 -84.587
998.417 0.074 -84.712 0.996 4.238 0.996 4.238 0.074 -84.712
1023.375 0.071 -84.829 0.996 4.08 0.996 4.08 0.071 -84.829
1048.333 0.069 -84.939 0.996 3.928 0.996 3.928 0.069 -84.939
1073.292 0.066 -85.041 0.996 3.782 0.996 3.782 0.066 -85.041
1098.25 0.064 -85.136 0.997 3.641 0.997 3.641 0.064 -85.136
1123.208 0.061 -85.225 0.997 3.505 0.997 3.505 0.061 -85.225
1148.167 0.059 -85.306 0.997 3.374 0.997 3.374 0.059 -85.306
1173.125 0.057 -85.382 0.997 3.247 0.997 3.247 0.057 -85.382
1198.083 0.055 -85.45 0.997 3.124 0.997 3.124 0.055 -85.45
1223.042 0.052 -85.513 0.997 3.005 0.997 3.005 0.052 -85.513
1248 0.05 -85.569 0.997 2.89 0.997 2.89 0.05 -85.569
1272.958 0.048 -85.619 0.997 2.778 0.997 2.778 0.048 -85.619
1297.917 0.047 -85.662 0.998 2.669 0.998 2.669 0.047 -85.662
1322.875 0.045 -85.699 0.998 2.564 0.998 2.564 0.045 -85.699
1347.833 0.043 -85.729 0.998 2.461 0.998 2.461 0.043 -85.729
1372.792 0.041 -85.752 0.998 2.361 0.998 2.361 0.041 -85.752
1397.75 0.04 -85.768 0.998 2.263 0.998 2.263 0.04 -85.768
1422.708 0.038 -85.777 0.998 2.168 0.998 2.168 0.038 -85.777
1447.667 0.036 -85.778 0.998 2.076 0.998 2.076 0.036 -85.778
1472.625 0.035 -85.771 0.998 1.985 0.998 1.985 0.035 -85.771
1497.583 0.033 -85.755 0.998 1.896 0.998 1.896 0.033 -85.755
1522.542 0.032 -85.729 0.998 1.81 0.998 1.81 0.032 -85.729
1547.5 0.03 -85.693 0.998 1.725 0.998 1.725 0.03 -85.693
1572.458 0.029 -85.646 0.998 1.642 0.998 1.642 0.029 -85.646
1597.417 0.027 -85.586 0.998 1.561 0.998 1.561 0.027 -85.586
1622.375 0.026 -85.512 0.998 1.482 0.998 1.482 0.026 -85.512
1647.333 0.025 -85.424 0.998 1.404 0.998 1.404 0.025 -85.424
1672.292 0.023 -85.318 0.998 1.327 0.998 1.327 0.023 -85.318
1697.25 0.022 -85.192 0.998 1.252 0.998 1.252 0.022 -85.192
1722.208 0.021 -85.044 0.998 1.178 0.998 1.178 0.021 -85.044
1747.167 0.019 -84.87 0.998 1.106 0.998 1.106 0.019 -84.87
1772.125 0.018 -84.665 0.998 1.035 0.998 1.035 0.018 -84.665
1797.083 0.017 -84.425 0.999 0.965 0.999 0.965 0.017 -84.425
1822.042 0.016 -84.141 0.999 0.896 0.999 0.896 0.016 -84.141
1847 0.015 -83.806 0.999 0.828 0.999 0.828 0.015 -83.806
1871.958 0.013 -83.406 0.999 0.762 0.999 0.762 0.013 -83.406
1896.917 0.012 -82.926 0.999 0.696 0.999 0.696 0.012 -82.926
1921.875 0.011 -82.344 0.999 0.632 0.999 0.632 0.011 -82.344
1946.833 0.01 -81.628 0.999 0.568 0.999 0.568 0.01 -81.628
1971.792 8.918e-3 -80.735 0.999 0.505 0.999 0.505 8.918e-3 -80.735
1996.75 7.851e-3 -79.595 0.999 0.443 0.999 0.443 7.851e-3 -79.595
2021.708 6.803e-3 -78.101 0.999 0.382 0.999 0.382 6.803e-3 -78.101
2046.667 5.775e-3 -76.076 0.999 0.322 0.999 0.322 5.775e-3 -76.076
2071.625 4.772e-3 -73.201 0.999 0.262 0.999 0.262 4.772e-3 -73.201
2096.583 3.8e-3 -68.852 0.999 0.203 0.999 0.203 3.8e-3 -68.852
2121.542 2.876e-3 -61.676 0.999 0.145 0.999 0.145 2.876e-3 -61.676
2146.5 2.049e-3 -48.396 0.999 0.088 0.999 0.088 2.049e-3 -48.396
2171.458 1.464e-3 -21.837 0.999 0.031 0.999 0.031 1.464e-3 -21.837
2196.417 1.426e-3 17.647 0.999 -0.025 0.999 -0.025 1.426e-3 17.647
2221.375 1.95e-3 45.779 0.999 -0.08 0.999 -0.08 1.95e-3 45.779
2246.333 2.719e-3 59.9 0.999 -0.135 0.999 -0.135 2.719e-3 59.9
2271.292 3.57e-3 67.45 0.999 -0.189 0.999 -0.189 3.57e-3 67.45
2296.25 4.45e-3 71.986 0.999 -0.243 0.999 -0.243 4.45e-3 71.986
2321.208 5.34e-3 74.968 0.999 -0.296 0.999 -0.296 5.34e-3 74.968
2346.167 6.231e-3 77.061 0.999 -0.348 0.999 -0.348 6.231e-3 77.061
2371.125 7.12e-3 78.602 0.999 -0.4 0.999 -0.4 7.12e-3 78.602
2396.083 8.004e-3 79.779 0.999 -0.452 0.999 -0.452 8.004e-3 79.779
2421.042 8.884e-3 80.703 0.999 -0.503 0.999 -0.503 8.884e-3 80.703
2446 9.757e-3 81.445 0.999 -0.554 0.999 -0.554 9.757e-3 81.445
2470.958 0.011 82.051 0.999 -0.604 0.999 -0.604 0.011 82.051
2495.917 0.011 82.554 0.999 -0.653 0.999 -0.653 0.011 82.554
2520.875 0.012 82.977 0.999 -0.703 0.999 -0.703 0.012 82.977
2545.833 0.013 83.336 0.999 -0.751 0.999 -0.751 0.013 83.336
2570.792 0.014 83.643 0.999 -0.8 0.999 -0.8 0.014 83.643
2595.75 0.015 83.908 0.999 -0.848 0.999 -0.848 0.015 83.908
2620.708 0.016 84.138 0.999 -0.895 0.999 -0.895 0.016 84.138
2645.667 0.017 84.339 0.999 -0.943 0.999 -0.943 0.017 84.339
2670.625 0.017 84.515 0.998 -0.99 0.998 -0.99 0.017 84.515
2695.583 0.018 84.669 0.998 -1.036 0.998 -1.036 0.018 84.669
2720.542 0.019 84.806 0.998 -1.082 0.998 -1.082 0.019 84.806
2745.5 0.02 84.927 0.998 -1.128 0.998 -1.128 0.02 84.927
2770.458 0.021 85.034 0.998 -1.174 0.998 -1.174 0.021 85.034
2795.417 0.021 85.129 0.998 -1.219 0.998 -1.219 0.021 85.129
2820.375 0.022 85.213 0.998 -1.264 0.998 -1.264 0.022 85.213
2845.333 0.023 85.289 0.998 -1.309 0.998 -1.309 0.023 85.289
2870.292 0.024 85.356 0.998 -1.353 0.998 -1.353 0.024 85.356
2895.25 0.024 85.415 0.998 -1.397 0.998 -1.397 0.024 85.415
2920.208 0.025 85.468 0.998 -1.441 0.998 -1.441 0.025 85.468
2945.167 0.026 85.515 0.998 -1.484 0.998 -1.484 0.026 85.515
2970.125 0.027 85.557 0.998 -1.528 0.998 -1.528 0.027 85.557
2995.083 0.027 85.593 0.998 -1.571 0.998 -1.571 0.027 85.593
3020.042 0.028 85.626 0.998 -1.613 0.998 -1.613 0.028 85.626
3045 0.029 85.654 0.998 -1.656 0.998 -1.656 0.029 85.654
3069.958 0.03 85.679 0.998 -1.698 0.998 -1.698 0.03 85.679
3094.917 0.03 85.7 0.998 -1.74 0.998 -1.74 0.03 85.7
3119.875 0.031 85.718 0.998 -1.782 0.998 -1.782 0.031 85.718
3144.833 0.032 85.734 0.998 -1.824 0.998 -1.824 0.032 85.734
3169.792 0.033 85.746 0.998 -1.865 0.998 -1.865 0.033 85.746
3194.75 0.033 85.757 0.998 -1.906 0.998 -1.906 0.033 85.757
3219.708 0.034 85.765 0.998 -1.947 0.998 -1.947 0.034 85.765
3244.667 0.035 85.771 0.998 -1.988 0.998 -1.988 0.035 85.771
3269.625 0.035 85.775 0.998 -2.028 0.998 -2.028 0.035 85.775
3294.583 0.036 85.778 0.998 -2.069 0.998 -2.069 0.036 85.778
3319.542 0.037 85.779 0.998 -2.109 0.998 -2.109 0.037 85.779
3344.5 0.038 85.778 0.998 -2.149 0.998 -2.149 0.038 85.778
3369.458 0.038 85.776 0.998 -2.189 0.998 -2.189 0.038 85.776
3394.417 0.039 85.773 0.998 -2.228 0.998 -2.228 0.039 85.773
3419.375 0.04 85.768 0.998 -2.268 0.998 -2.268 0.04 85.768
3444.333 0.04 85.762 0.998 -2.307 0.998 -2.307 0.04 85.762
3469.292 0.041 85.755 0.998 -2.346 0.998 -2.346 0.041 85.755
3494.25 0.042 85.747 0.998 -2.385 0.998 -2.385 0.042 85.747
3519.208 0.042 85.738 0.998 -2.424 0.998 -2.424 0.042 85.738
3544.167 0.043 85.729 0.998 -2.462 0.998 -2.462 0.043 85.729
3569.125 0.044 85.718 0.998 -2.501 0.998 -2.501 0.044 85.718
3594.083 0.044 85.706 0.998 -2.539 0.998 -2.539 0.044 85.706
3619.042 0.045 85.694 0.998 -2.577 0.998 -2.577 0.045 85.694
3644 0.046 85.681 0.998 -2.616 0.998 -2.616 0.046 85.681
3668.958 0.046 85.668 0.998 -2.653 0.998 -2.653 0.046 85.668
3693.917 0.047 85.654 0.998 -2.691 0.998 -2.691 0.047 85.654
3718.875 0.048 85.639 0.998 -2.729 0.998 -2.729 0.048 85.639
3743.833 0.048 85.623 0.997 -2.766 0.997 -2.766 0.048 85.623
3768.792 0.049 85.608 0.997 -2.804 0.997 -2.804 0.049 85.608
3793.75 0.05 85.591 0.997 -2.841 0.997 -2.841 0.05 85.591
3818.708 0.05 85.574 0.997 -2.878 0.997 -2.878 0.05 85.574
3843.667 0.051 85.557 0.997 -2.915 0.997 -2.915 0.051 85.557
3868.625 0.052 85.539 0.997 -2.952 0.997 -2.952 0.052 85.539
3893.583 0.052 85.521 0.997 -2.989 0.997 -2.989 0.052 85.521
3918.542 0.053 85.502 0.997 -3.025 0.997 -3.025 0.053 85.502
3943.5 0.053 85.483 0.997 -3.062 0.997 -3.062 0.053 85.483
3968.458 0.054 85.464 0.997 -3.098 0.997 -3.098 0.054 85.464
3993.417 0.055 85.445 0.997 -3.135 0.997 -3.135 0.055 85.445
4018.375 0.055 85.425 0.997 -3.171 0.997 -3.171 0.055 85.425
4043.333 0.056 85.404 0.997 -3.207 0.997 -3.207 0.056 85.404
4068.292 0.057 85.384 0.997 -3.243 0.997 -3.243 0.057 85.384
4093.25 0.057 85.363 0.997 -3.279 0.997 -3.279 0.057 85.363
4118.208 0.058 85.342 0.997 -3.315 0.997 -3.315 0.058 85.342
4143.167 0.058 85.32 0.997 -3.351 0.997 -3.351 0.058 85.32
4168.125 0.059 85.299 0.997 -3.386 0.997 -3.386 0.059 85.299
4193.083 0.06 85.277 0.997 -3.422 0.997 -3.422 0.06 85.277
4218.042 0.06 85.255 0.997 -3.457 0.997 -3.457 0.06 85.255
4243 0.061 85.233 0.997 -3.492 0.997 -3.492 0.061 85.233
4267.958 0.062 85.21 0.997 -3.528 0.997 -3.528 0.062 85.21
4292.917 0.062 85.187 0.997 -3.563 0.997 -3.563 0.062 85.187
4317.875 0.063 85.165 0.997 -3.598 0.997 -3.598 0.063 85.165
4342.833 0.063 85.142 0.997 -3.633 0.997 -3.633 0.063 85.142
4367.792 0.064 85.118 0.997 -3.668 0.997 -3.668 0.064 85.118
4392.75 0.065 85.095 0.997 -3.703 0.997 -3.703 0.065 85.095
4417.708 0.065 85.071 0.997 -3.737 0.997 -3.737 0.065 85.071
4442.667 0.066 85.048 0.996 -3.772 0.996 -3.772 0.066 85.048
4467.625 0.066 85.024 0.996 -3.807 0.996 -3.807 0.066 85.024
4492.583 0.067 85 0.996 -3.841 0.996 -3.841 0.067 85
4517.542 0.068 84.976 0.996 -3.876 0.996 -3.876 0.068 84.976
4542.5 0.068 84.952 0.996 -3.91 0.996 -3.91 0.068 84.952
4567.458 0.069 84.927 0.996 -3.944 0.996 -3.944 0.069 84.927
4592.417 0.069 84.903 0.996 -3.978 0.996 -3.978 0.069 84.903
4617.375 0.07 84.878 0.996 -4.012 0.996 -4.012 0.07 84.878
4642.333 0.071 84.854 0.996 -4.047 0.996 -4.047 0.071 84.854
4667.292 0.071 84.829 0.996 -4.081 0.996 -4.081 0.071 84.829
4692.25 0.072 84.804 0.996 -4.114 0.996 -4.114 0.072 84.804
4717.208 0.072 84.779 0.996 -4.148 0.996 -4.148 0.072 84.779
4742.167 0.073 84.754 0.996 -4.182 0.996 -4.182 0.073 84.754
4767.125 0.074 84.729 0.996 -4.216 0.996 -4.216 0.074 84.729
4792.083 0.074 84.703 0.996 -4.25 0.996 -4.25 0.074 84.703
4817.042 0.075 84.678 0.996 -4.283 0.996 -4.283 0.075 84.678
4842 0.075 84.652 0.996 -4.317 0.996 -4.317 0.075 84.652
4866.958 0.076 84.627 0.996 -4.35 0.996 -4.35 0.076 84.627
4891.917 0.076 84.601 0.996 -4.384 0.996 -4.384 0.076 84.601
4916.875 0.077 84.576 0.996 -4.417 0.996 -4.417 0.077 84.576
4941.833 0.078 84.55 0.996 -4.45 0.996 -4.45 0.078 84.55
4966.792 0.078 84.524 0.996 -4.483 0.996 -4.483 0.078 84.524
4991.75 0.079 84.498 0.996 -4.517 0.996 -4.517 0.079 84.498
5016.708 0.079 84.472 0.995 -4.55 0.995 -4.55 0.079 84.472
5041.667 0.08 84.446 0.995 -4.583 0.995 -4.583 0.08 84.446
5066.625 0.08 84.42 0.995 -4.616 0.995 -4.616 0.08 84.42
5091.583 0.081 84.394 0.995 -4.649 0.995 -4.649 0.081 84.394
5116.542 0.082 84.368 0.995 -4.682 0.995 -4.682 0.082 84.368
5141.5 0.082 84.342 0.995 -4.715 0.995 -4.715 0.082 84.342
5166.458 0.083 84.316 0.995 -4.747 0.995 -4.747 0.083 84.316
5191.417 0.083 84.289 0.995 -4.78 0.995 -4.78 0.083 84.289
5216.375 0.084 84.263 0.995 -4.813 0.995 -4.813 0.084 84.263
5241.333 0.084 84.237 0.995 -4.845 0.995 -4.845 0.084 84.237
5266.292 0.085 84.21 0.995 -4.878 0.995 -4.878 0.085 84.21
5291.25 0.086 84.184 0.995 -4.911 0.995 -4.911 0.086 84.184
5316.208 0.086 84.157 0.995 -4.943 0.995 -4.943 0.086 84.157
5341.167 0.087 84.131 0.995 -4.976 0.995 -4.976 0.087 84.131
5366.125 0.087 84.104 0.995 -5.008 0.995 -5.008 0.087 84.104
5391.083 0.088 84.077 0.995 -5.04 0.995 -5.04 0.088 84.077
5416.042 0.088 84.051 0.995 -5.073 0.995 -5.073 0.088 84.051
5441 0.089 84.024 0.995 -5.105 0.995 -5.105 0.089 84.024
5465.958 0.09 83.997 0.995 -5.137 0.995 -5.137 0.09 83.997
5490.917 0.09 83.97 0.995 -5.169 0.995 -5.169 0.09 83.97
5515.875 0.091 83.944 0.995 -5.202 0.995 -5.202 0.091 83.944
5540.833 0.091 83.917 0.994 -5.234 0.994 -5.234 0.091 83.917
5565.792 0.092 83.89 0.994 -5.266 0.994 -5.266 0.092 83.89
5590.75 0.092 83.863 0.994 -5.298 0.994 -5.298 0.092 83.863
5615.708 0.093 83.836 0.994 -5.33 0.994 -5.33 0.093 83.836
5640.667 0.093 83.809 0.994 -5.362 0.994 -5.362 0.093 83.809
5665.625 0.094 83.782 0.994 -5.394 0.994 -5.394 0.094 83.782
5690.583 0.095 83.755 0.994 -5.425 0.994 -5.425 0.095 83.755
5715.542 0.095 83.728 0.994 -5.457 0.994 -5.457 0.095 83.728
5740.5 0.096 83.701 0.994 -5.489 0.994 -5.489 0.096 83.701
5765.458 0.096 83.674 0.994 -5.521 0.994 -5.521 0.096 83.674
5790.417 0.097 83.647 0.994 -5.552 0.994 -5.552 0.097 83.647
5815.375 0.097 83.62 0.994 -5.584 0.994 -5.584 0.097 83.62
5840.333 0.098 83.593 0.994 -5.616 0.994 -5.616 0.098 83.593
5865.292 0.098 83.566 0.994 -5.647 0.994 -5.647 0.098 83.566
5890.25 0.099 83.539 0.994 -5.679 0.994 -5.679 0.099 83.539
5915.208 0.1 83.511 0.994 -5.71 0.994 -5.71 0.1 83.511
5940.167 0.1 83.484 0.994 -5.742 0.994 -5.742 0.1 83.484
5965.125 0.101 83.457 0.994 -5.773 0.994 -5.773 0.101 83.457
5990.083 0.101 83.43 0.994 -5.805 0.994 -5.805 0.101 83.43
6015.042 0.102 83.403 0.993 -5.836 0.993 -5.836 0.102 83.403
6040 0.102 83.375 0.993 -5.867 0.993 -5.867 0.102 83.375
6064.958 0.103 83.348 0.993 -5.899 0.993 -5.899 0.103 83.348
6089.917 0.103 83.321 0.993 -5.93 0.993 -5.93 0.103 83.321
6114.875 0.104 83.293 0.993 -5.961 0.993 -5.961 0.104 83.293
6139.833 0.104 83.266 0.993 -5.992 0.993 -5.992 0.104 83.266
6164.792 0.105 83.239 0.993 -6.024 0.993 -6.024 0.105 83.239
6189.75 0.105 83.212 0.993 -6.055 0.993 -6.055 0.105 83.212
6214.708 0.106 83.184 0.993 -6.086 0.993 -6.086 0.106 83.184
6239.667 0.107 83.157 0.993 -6.117 0.993 -6.117 0.107 83.157
6264.625 0.107 83.129 0.993 -6.148 0.993 -6.148 0.107 83.129
6289.583 0.108 83.102 0.993 -6.179 0.993 -6.179 0.108 83.102
6314.542 0.108 83.075 0.993 -6.21 0.993 -6.21 0.108 83.075
6339.5 0.109 83.047 0.993 -6.241 0.993 -6.241 0.109 83.047
6364.458 0.109 83.02 0.993 -6.272 0.993 -6.272 0.109 83.02
6389.417 0.11 82.993 0.993 -6.303 0.993 -6.303 0.11 82.993
6414.375 0.11 82.965 0.993 -6.334 0.993 -6.334 0.11 82.965
6439.333 0.111 82.938 0.992 -6.365 0.992 -6.365 0.111 82.938
6464.292 0.111 82.91 0.992 -6.395 0.992 -6.395 0.111 82.91
6489.25 0.112 82.883 0.992 -6.426 0.992 -6.426 0.112 82.883
6514.208 0.112 82.855 0.992 -6.457 0.992 -6.457 0.112 82.855
6539.167 0.113 82.828 0.992 -6.488 0.992 -6.488 0.113 82.828
6564.125 0.114 82.8 0.992 -6.518 0.992 -6.518 0.114 82.8
6589.083 0.114 82.773 0.992 -6.549 0.992 -6.549 0.114 82.773
6614.042 0.115 82.746 0.992 -6.58 0.992 -6.58 0.115 82.746
6639 0.115 82.718 0.992 -6.61 0.992 -6.61 0.115 82.718
6663.958 0.116 82.691 0.992 -6.641 0.992 -6.641 0.116 82.691
6688.917 0.116 82.663 0.992 -6.672 0.992 -6.672 0.116 82.663
6713.875 0.117 82.636 0.992 -6.702 0.992 -6.702 0.117 82.636
6738.833 0.117 82.608 0.992 -6.733 0.992 -6.733 0.117 82.608
6763.792 0.118 82.581 0.992 -6.763 0.992 -6.763 0.118 82.581
6788.75 0.118 82.553 0.992 -6.794 0.992 -6.794 0.118 82.553
6813.708 0.119 82.526 0.992 -6.824 0.992 -6.824 0.119 82.526
6838.667 0.119 82.498 0.992 -6.855 0.992 -6.855 0.119 82.498
6863.625 0.12 82.471 0.991 -6.885 0.991 -6.885 0.12 82.471
6888.583 0.12 82.443 0.991 -6.915 0.991 -6.915 0.12 82.443
6913.542 0.121 82.415 0.991 -6.946 0.991 -6.946 0.121 82.415
6938.5 0.121 82.388 0.991 -6.976 0.991 -6.976 0.121 82.388
6963.458 0.122 82.36 0.991 -7.006 0.991 -7.006 0.122 82.36
6988.417 0.123 82.333 0.991 -7.037 0.991 -7.037 0.123 82.333
7013.375 0.123 82.305 0.991 -7.067 0.991 -7.067 0.123 82.305
7038.333 0.124 82.278 0.991 -7.097 0.991 -7.097 0.124 82.278
7063.292 0.124 82.25 0.991 -7.127 0.991 -7.127 0.124 82.25
7088.25 0.125 82.223 0.991 -7.158 0.991 -7.158 0.125 82.223
7113.208 0.125 82.195 0.991 -7.188 0.991 -7.188 0.125 82.195
7138.167 0.126 82.168 0.991 -7.218 0.991 -7.218 0.126 82.168
7163.125 0.126 82.14 0.991 -7.248 0.991 -7.248 0.126 82.14
7188.083 0.127 82.113 0.991 -7.278 0.991 -7.278 0.127 82.113
7213.042 0.127 82.085 0.991 -7.308 0.991 -7.308 0.127 82.085
7238 0.128 82.057 0.99 -7.338 0.99 -7.338 0.128 82.057
7262.958 0.128 82.03 0.99 -7.368 0.99 -7.368 0.128 82.03
7287.917 0.129 82.002 0.99 -7.398 0.99 -7.398 0.129 82.002
7312.875 0.129 81.975 0.99 -7.428 0.99 -7.428 0.129 81.975
7337.833 0.13 81.947 0.99 -7.458 0.99 -7.458 0.13 81.947
7362.792 0.13 81.92 0.99 -7.488 0.99 -7.488 0.13 81.92
7387.75 0.131 81.892 0.99 -7.518 0.99 -7.518 0.131 81.892
7412.708 0.131 81.865 0.99 -7.548 0.99 -7.548 0.131 81.865
7437.667 0.132 81.837 0.99 -7.578 0.99 -7.578 0.132 81.837
7462.625 0.132 81.81 0.99 -7.608 0.99 -7.608 0.132 81.81
7487.583 0.133 81.782 0.99 -7.638 0.99 -7.638 0.133 81.782
7512.542 0.133 81.754 0.99 -7.667 0.99 -7.667 0.133 81.754
7537.5 0.134 81.727 0.99 -7.697 0.99 -7.697 0.134 81.727
7562.458 0.134 81.699 0.99 -7.727 0.99 -7.727 0.134 81.699
7587.417 0.135 81.672 0.99 -7.757 0.99 -7.757 0.135 81.672
7612.375 0.135 81.644 0.989 -7.787 0.989 -7.787 0.135 81.644
7637.333 0.136 81.617 0.989 -7.816 0.989 -7.816 0.136 81.617
7662.292 0.137 81.589 0.989 -7.846 0.989 -7.846 0.137 81.589
7687.25 0.137 81.562 0.989 -7.876 0.989 -7.876 0.137 81.562
7712.208 0.138 81.534 0.989 -7.905 0.989 -7.905 0.138 81.534
7737.167 0.138 81.507 0.989 -7.935 0.989 -7.935 0.138 81.507
7762.125 0.139 81.479 0.989 -7.965 0.989 -7.965 0.139 81.479
7787.083 0.139 81.451 0.989 -7.994 0.989 -7.994 0.139 81.451
7812.042 0.14 81.424 0.989 -8.024 0.989 -8.024 0.14 81.424
7837 0.14 81.396 0.989 -8.054 0.989 -8.054 0.14 81.396
7861.958 0.141 81.369 0.989 -8.083 0.989 -8.083 0.141 81.369
7886.917 0.141 81.341 0.989 -8.113 0.989 -8.113 0.141 81.341
7911.875 0.142 81.314 0.989 -8.142 0.989 -8.142 0.142 81.314
7936.833 0.142 81.286 0.989 -8.172 0.989 -8.172 0.142 81.286
7961.792 0.143 81.259 0.988 -8.201 0.988 -8.201 0.143 81.259
7986.75 0.143 81.231 0.988 -8.231 0.988 -8.231 0.143 81.231
8011.708 0.144 81.204 0.988 -8.26 0.988 -8.26 0.144 81.204
8036.667 0.144 81.176 0.988 -8.29 0.988 -8.29 0.144 81.176
8061.625 0.145 81.149 0.988 -8.319 0.988 -8.319 0.145 81.149
8086.583 0.145 81.121 0.988 -8.348 0.988 -8.348 0.145 81.121
8111.542 0.146 81.094 0.988 -8.378 0.988 -8.378 0.146 81.094
8136.5 0.146 81.066 0.988 -8.407 0.988 -8.407 0.146 81.066
8161.458 0.147 81.039 0.988 -8.437 0.988 -8.437 0.147 81.039
8186.417 0.147 81.011 0.988 -8.466 0.988 -8.466 0.147 81.011
8211.375 0.148 80.984 0.988 -8.495 0.988 -8.495 0.148 80.984
8236.333 0.148 80.956 0.988 -8.525 0.988 -8.525 0.148 80.956
8261.292 0.149 80.929 0.988 -8.554 0.988 -8.554 0.149 80.929
8286.25 0.149 80.901 0.987 -8.583 0.987 -8.583 0.149 80.901
