# MHZ S MA R 50

50 0.993 -6.986 0.122 82.999 0.122 82.999 0.993 -6.986
74.958 0.983 -10.41 0.181 79.567 0.181 79.567 0.983 -10.41
99.917 0.971 -13.763 0.238 76.207 0.238 76.207 0.971 -13.763
124.875 0.956 -17.024 0.293 72.938 0.293 72.938 0.956 -17.024
149.833 0.938 -20.178 0.345 69.777 0.345 69.777 0.938 -20.178
174.792 0.919 -23.212 0.394 66.735 0.394 66.735 0.919 -23.212
199.75 0.897 -26.118 0.44 63.822 0.44 63.822 0.897 -26.118
224.708 0.875 -28.889 0.483 61.043 0.483 61.043 0.875 -28.889
249.667 0.852 -31.524 0.523 58.401 0.523 58.401 0.852 -31.524
274.625 0.828 -34.022 0.56 55.896 0.56 55.896 0.828 -34.022
299.583 0.804 -36.384 0.593 53.526 0.593 53.526 0.804 -36.384
324.542 0.78 -38.616 0.624 51.286 0.624 51.286 0.78 -38.616
349.5 0.757 -40.721 0.652 49.174 0.652 49.174 0.757 -40.721
374.458 0.734 -42.705 0.678 47.182 0.678 47.182 0.734 -42.705
399.417 0.711 -44.574 0.702 45.306 0.702 45.306 0.711 -44.574
424.375 0.689 -46.334 0.723 43.538 0.723 43.538 0.689 -46.334
449.333 0.667 -47.992 0.743 41.872 0.743 41.872 0.667 -47.992
474.292 0.647 -49.554 0.761 40.302 0.761 40.302 0.647 -49.554
499.25 0.627 -51.027 0.777 38.822 0.777 38.822 0.627 -51.027
524.208 0.608 -52.415 0.792 37.425 0.792 37.425 0.608 -52.415
549.167 0.589 -53.726 0.806 36.107 0.806 36.107 0.589 -53.726
574.125 0.572 -54.963 0.819 34.862 0.819 34.862 0.572 -54.963
599.083 0.555 -56.133 0.83 33.684 0.83 33.684 0.555 -56.133
624.042 0.538 -57.24 0.841 32.57 0.841 32.57 0.538 -57.24
649 0.523 -58.287 0.851 31.514 0.851 31.514 0.523 -58.287
673.958 0.508 -59.28 0.86 30.513 0.86 30.513 0.508 -59.28
698.917 0.493 -60.222 0.868 29.563 0.868 29.563 0.493 -60.222
723.875 0.48 -61.117 0.876 28.66 0.876 28.66 0.48 -61.117
748.833 0.466 -61.967 0.883 27.802 0.883 27.802 0.466 -61.967
773.792 0.454 -62.776 0.889 26.985 0.889 26.985 0.454 -62.776
798.75 0.442 -63.546 0.895 26.206 0.895 26.206 0.442 -63.546
823.708 0.43 -64.281 0.901 25.464 0.901 25.464 0.43 -64.281
848.667 0.419 -64.981 0.906 24.755 0.906 24.755 0.419 -64.981
873.625 0.408 -65.65 0.911 24.077 0.911 24.077 0.408 -65.65
898.583 0.398 -66.289 0.916 23.43 0.916 23.43 0.398 -66.289
923.542 0.388 -66.901 0.92 22.809 0.92 22.809 0.388 -66.901
948.5 0.378 -67.487 0.924 22.215 0.924 22.215 0.378 -67.487
973.458 0.369 -68.048 0.928 21.645 0.928 21.645 0.369 -68.048
998.417 0.36 -68.586 0.931 21.098 0.931 21.098 0.36 -68.586
1023.375 0.351 -69.103 0.934 20.573 0.934 20.573 0.351 -69.103
1048.333 0.343 -69.599 0.937 20.068 0.937 20.068 0.343 -69.599
1073.292 0.335 -70.076 0.94 19.582 0.94 19.582 0.335 -70.076
1098.25 0.327 -70.535 0.943 19.114 0.943 19.114 0.327 -70.535
1123.208 0.32 -70.976 0.945 18.663 0.945 18.663 0.32 -70.976
1148.167 0.313 -71.402 0.948 18.228 0.948 18.228 0.313 -71.402
1173.125 0.306 -71.812 0.95 17.809 0.95 17.809 0.306 -71.812
1198.083 0.299 -72.208 0.952 17.404 0.952 17.404 0.299 -72.208
1223.042 0.293 -72.59 0.954 17.012 0.954 17.012 0.293 -72.59
1248 0.286 -72.958 0.956 16.634 0.956 16.634 0.286 -72.958
1272.958 0.28 -73.315 0.958 16.268 0.958 16.268 0.28 -73.315
1297.917 0.274 -73.66 0.96 15.913 0.96 15.913 0.274 -73.66
1322.875 0.268 -73.993 0.961 15.57 0.961 15.57 0.268 -73.993
1347.833 0.263 -74.316 0.963 15.237 0.963 15.237 0.263 -74.316
1372.792 0.257 -74.629 0.964 14.914 0.964 14.914 0.257 -74.629
1397.75 0.252 -74.932 0.966 14.601 0.966 14.601 0.252 -74.932
1422.708 0.247 -75.226 0.967 14.296 0.967 14.296 0.247 -75.226
1447.667 0.242 -75.511 0.968 14.001 0.968 14.001 0.242 -75.511
1472.625 0.237 -75.787 0.969 13.714 0.969 13.714 0.237 -75.787
1497.583 0.232 -76.056 0.971 13.434 0.971 13.434 0.232 -76.056
1522.542 0.228 -76.317 0.972 13.163 0.972 13.163 0.228 -76.317
1547.5 0.223 -76.57 0.973 12.898 0.973 12.898 0.223 -76.57
1572.458 0.219 -76.816 0.974 12.64 0.974 12.64 0.219 -76.816
1597.417 0.215 -77.056 0.975 12.389 0.975 12.389 0.215 -77.056
1622.375 0.21 -77.289 0.976 12.145 0.976 12.145 0.21 -77.289
1647.333 0.206 -77.516 0.976 11.906 0.976 11.906 0.206 -77.516
1672.292 0.202 -77.737 0.977 11.673 0.977 11.673 0.202 -77.737
1697.25 0.198 -77.952 0.978 11.446 0.978 11.446 0.198 -77.952
1722.208 0.195 -78.162 0.979 11.224 0.979 11.224 0.195 -78.162
1747.167 0.191 -78.366 0.98 11.007 0.98 11.007 0.191 -78.366
1772.125 0.187 -78.566 0.98 10.796 0.98 10.796 0.187 -78.566
1797.083 0.184 -78.76 0.981 10.589 0.981 10.589 0.184 -78.76
1822.042 0.18 -78.949 0.982 10.386 0.982 10.386 0.18 -78.949
1847 0.177 -79.134 0.982 10.188 0.982 10.188 0.177 -79.134
1871.958 0.174 -79.315 0.983 9.994 0.983 9.994 0.174 -79.315
1896.917 0.17 -79.491 0.983 9.805 0.983 9.805 0.17 -79.491
1921.875 0.167 -79.663 0.984 9.619 0.984 9.619 0.167 -79.663
1946.833 0.164 -79.831 0.984 9.437 0.984 9.437 0.164 -79.831
1971.792 0.161 -79.995 0.985 9.258 0.985 9.258 0.161 -79.995
1996.75 0.158 -80.155 0.985 9.083 0.985 9.083 0.158 -80.155
2021.708 0.155 -80.312 0.986 8.912 0.986 8.912 0.155 -80.312
2046.667 0.152 -80.465 0.986 8.744 0.986 8.744 0.152 -80.465
2071.625 0.149 -80.614 0.987 8.578 0.987 8.578 0.149 -80.614
2096.583 0.146 -80.76 0.987 8.416 0.987 8.416 0.146 -80.76
2121.542 0.144 -80.903 0.988 8.257 0.988 8.257 0.144 -80.903
2146.5 0.141 -81.043 0.988 8.101 0.988 8.101 0.141 -81.043
2171.458 0.138 -81.18 0.988 7.948 0.988 7.948 0.138 -81.18
2196.417 0.136 -81.314 0.989 7.797 0.989 7.797 0.136 -81.314
2221.375 0.133 -81.444 0.989 7.649 0.989 7.649 0.133 -81.444
2246.333 0.131 -81.572 0.989 7.503 0.989 7.503 0.131 -81.572
2271.292 0.128 -81.697 0.99 7.36 0.99 7.36 0.128 -81.697
2296.25 0.126 -81.82 0.99 7.219 0.99 7.219 0.126 -81.82
2321.208 0.123 -81.939 0.99 7.08 0.99 7.08 0.123 -81.939
2346.167 0.121 -82.056 0.991 6.944 0.991 6.944 0.121 -82.056
2371.125 0.119 -82.171 0.991 6.81 0.991 6.81 0.119 -82.171
2396.083 0.116 -82.282 0.991 6.677 0.991 6.677 0.116 -82.282
2421.042 0.114 -82.392 0.991 6.547 0.991 6.547 0.114 -82.392
2446 0.112 -82.499 0.992 6.419 0.992 6.419 0.112 -82.499
2470.958 0.11 -82.603 0.992 6.293 0.992 6.293 0.11 -82.603
2495.917 0.107 -82.705 0.992 6.168 0.992 6.168 0.107 -82.705
2520.875 0.105 -82.805 0.992 6.045 0.992 6.045 0.105 -82.805
2545.833 0.103 -82.902 0.993 5.924 0.993 5.924 0.103 -82.902
2570.792 0.101 -82.997 0.993 5.805 0.993 5.805 0.101 -82.997
2595.75 0.099 -83.09 0.993 5.687 0.993 5.687 0.099 -83.09
2620.708 0.097 -83.18 0.993 5.571 0.993 5.571 0.097 -83.18
2645.667 0.095 -83.268 0.993 5.457 0.993 5.457 0.095 -83.268
2670.625 0.093 -83.354 0.994 5.344 0.994 5.344 0.093 -83.354
2695.583 0.091 -83.438 0.994 5.233 0.994 5.233 0.091 -83.438
2720.542 0.089 -83.519 0.994 5.122 0.994 5.122 0.089 -83.519
2745.5 0.087 -83.598 0.994 5.014 0.994 5.014 0.087 -83.598
2770.458 0.086 -83.675 0.994 4.906 0.994 4.906 0.086 -83.675
2795.417 0.084 -83.75 0.994 4.8 0.994 4.8 0.084 -83.75
2820.375 0.082 -83.822 0.995 4.696 0.995 4.696 0.082 -83.822
2845.333 0.08 -83.892 0.995 4.592 0.995 4.592 0.08 -83.892
2870.292 0.078 -83.959 0.995 4.49 0.995 4.49 0.078 -83.959
2895.25 0.077 -84.025 0.995 4.389 0.995 4.389 0.077 -84.025
2920.208 0.075 -84.087 0.995 4.289 0.995 4.289 0.075 -84.087
2945.167 0.073 -84.148 0.995 4.19 0.995 4.19 0.073 -84.148
2970.125 0.071 -84.206 0.995 4.093 0.995 4.093 0.071 -84.206
2995.083 0.07 -84.261 0.995 3.996 0.995 3.996 0.07 -84.261
3020.042 0.068 -84.314 0.996 3.901 0.996 3.901 0.068 -84.314
3045 0.066 -84.364 0.996 3.806 0.996 3.806 0.066 -84.364
3069.958 0.065 -84.411 0.996 3.713 0.996 3.713 0.065 -84.411
3094.917 0.063 -84.455 0.996 3.62 0.996 3.62 0.063 -84.455
3119.875 0.062 -84.497 0.996 3.529 0.996 3.529 0.062 -84.497
3144.833 0.06 -84.535 0.996 3.438 0.996 3.438 0.06 -84.535
3169.792 0.058 -84.571 0.996 3.349 0.996 3.349 0.058 -84.571
3194.75 0.057 -84.603 0.996 3.26 0.996 3.26 0.057 -84.603
3219.708 0.055 -84.631 0.996 3.172 0.996 3.172 0.055 -84.631
3244.667 0.054 -84.656 0.996 3.085 0.996 3.085 0.054 -84.656
3269.625 0.052 -84.678 0.997 2.999 0.997 2.999 0.052 -84.678
3294.583 0.051 -84.695 0.997 2.913 0.997 2.913 0.051 -84.695
3319.542 0.049 -84.708 0.997 2.829 0.997 2.829 0.049 -84.708
3344.5 0.048 -84.716 0.997 2.745 0.997 2.745 0.048 -84.716
3369.458 0.046 -84.72 0.997 2.662 0.997 2.662 0.046 -84.72
3394.417 0.045 -84.719 0.997 2.58 0.997 2.58 0.045 -84.719
3419.375 0.044 -84.712 0.997 2.498 0.997 2.498 0.044 -84.712
3444.333 0.042 -84.7 0.997 2.417 0.997 2.417 0.042 -84.7
3469.292 0.041 -84.681 0.997 2.337 0.997 2.337 0.041 -84.681
3494.25 0.039 -84.656 0.997 2.258 0.997 2.258 0.039 -84.656
3519.208 0.038 -84.623 0.997 2.179 0.997 2.179 0.038 -84.623
3544.167 0.037 -84.583 0.997 2.101 0.997 2.101 0.037 -84.583
3569.125 0.035 -84.533 0.997 2.023 0.997 2.023 0.035 -84.533
3594.083 0.034 -84.474 0.997 1.946 0.997 1.946 0.034 -84.474
3619.042 0.033 -84.405 0.997 1.87 0.997 1.87 0.033 -84.405
3644 0.031 -84.324 0.997 1.794 0.997 1.794 0.031 -84.324
3668.958 0.03 -84.23 0.997 1.719 0.997 1.719 0.03 -84.23
3693.917 0.029 -84.122 0.997 1.645 0.997 1.645 0.029 -84.122
3718.875 0.027 -83.997 0.997 1.571 0.997 1.571 0.027 -83.997
3743.833 0.026 -83.854 0.998 1.498 0.998 1.498 0.026 -83.854
3768.792 0.025 -83.691 0.998 1.425 0.998 1.425 0.025 -83.691
3793.75 0.024 -83.503 0.998 1.353 0.998 1.353 0.024 -83.503
3818.708 0.022 -83.289 0.998 1.281 0.998 1.281 0.022 -83.289
3843.667 0.021 -83.042 0.998 1.21 0.998 1.21 0.021 -83.042
3868.625 0.02 -82.759 0.998 1.139 0.998 1.139 0.02 -82.759
3893.583 0.019 -82.431 0.998 1.069 0.998 1.069 0.019 -82.431
3918.542 0.018 -82.052 0.998 0.999 0.998 0.999 0.018 -82.052
3943.5 0.016 -81.609 0.998 0.93 0.998 0.93 0.016 -81.609
3968.458 0.015 -81.09 0.998 0.861 0.998 0.861 0.015 -81.09
3993.417 0.014 -80.475 0.998 0.793 0.998 0.793 0.014 -80.475
4018.375 0.013 -79.74 0.998 0.725 0.998 0.725 0.013 -79.74
4043.333 0.012 -78.851 0.998 0.658 0.998 0.658 0.012 -78.851
4068.292 0.011 -77.76 0.998 0.591 0.998 0.591 0.011 -77.76
4093.25 9.392e-3 -76.396 0.998 0.524 0.998 0.524 9.392e-3 -76.396
4118.208 8.273e-3 -74.653 0.998 0.458 0.998 0.458 8.273e-3 -74.653
4143.167 7.171e-3 -72.365 0.998 0.392 0.998 0.392 7.171e-3 -72.365
4168.125 6.092e-3 -69.252 0.998 0.327 0.998 0.327 6.092e-3 -69.252
4193.083 5.047e-3 -64.827 0.998 0.262 0.998 0.262 5.047e-3 -64.827
4218.042 4.054e-3 -58.176 0.998 0.198 0.998 0.198 4.054e-3 -58.176
4243 3.156e-3 -47.527 0.998 0.134 0.998 0.134 3.156e-3 -47.527
4267.958 2.451e-3 -29.8 0.998 0.07 0.998 0.07 2.451e-3 -29.8
4292.917 2.129e-3 -3.097 0.998 6.605e-3 0.998 6.605e-3 2.129e-3 -3.097
4317.875 2.342e-3 24.781 0.998 -0.056 0.998 -0.056 2.342e-3 24.781
4342.833 2.972e-3 44.213 0.998 -0.119 0.998 -0.119 2.972e-3 44.213
4367.792 3.811e-3 55.919 0.998 -0.181 0.998 -0.181 3.811e-3 55.919
4392.75 4.746e-3 63.152 0.998 -0.243 0.998 -0.243 4.746e-3 63.152
4417.708 5.727e-3 67.91 0.998 -0.305 0.998 -0.305 5.727e-3 67.91
4442.667 6.731e-3 71.226 0.998 -0.366 0.998 -0.366 6.731e-3 71.226
4467.625 7.747e-3 73.648 0.998 -0.427 0.998 -0.427 7.747e-3 73.648
4492.583 8.768e-3 75.484 0.998 -0.487 0.998 -0.487 8.768e-3 75.484
4517.542 9.792e-3 76.915 0.998 -0.548 0.998 -0.548 9.792e-3 76.915
4542.5 0.011 78.058 0.998 -0.608 0.998 -0.608 0.011 78.058
4567.458 0.012 78.989 0.998 -0.667 0.998 -0.667 0.012 78.989
4592.417 0.013 79.758 0.998 -0.727 0.998 -0.727 0.013 79.758
4617.375 0.014 80.402 0.998 -0.786 0.998 -0.786 0.014 80.402
4642.333 0.015 80.948 0.998 -0.844 0.998 -0.844 0.015 80.948
4667.292 0.016 81.414 0.998 -0.903 0.998 -0.903 0.016 81.414
4692.25 0.017 81.816 0.998 -0.961 0.998 -0.961 0.017 81.816
4717.208 0.018 82.164 0.998 -1.019 0.998 -1.019 0.018 82.164
4742.167 0.019 82.468 0.998 -1.076 0.998 -1.076 0.019 82.468
4767.125 0.02 82.735 0.998 -1.134 0.998 -1.134 0.02 82.735
4792.083 0.021 82.969 0.998 -1.191 0.998 -1.191 0.021 82.969
4817.042 0.022 83.177 0.998 -1.247 0.998 -1.247 0.022 83.177
4842 0.023 83.361 0.998 -1.304 0.998 -1.304 0.023 83.361
4866.958 0.024 83.524 0.998 -1.36 0.998 -1.36 0.024 83.524
4891.917 0.025 83.669 0.998 -1.416 0.998 -1.416 0.025 83.669
4916.875 0.026 83.799 0.998 -1.472 0.998 -1.472 0.026 83.799
4941.833 0.027 83.914 0.998 -1.527 0.998 -1.527 0.027 83.914
4966.792 0.028 84.018 0.997 -1.583 0.997 -1.583 0.028 84.018
4991.75 0.029 84.11 0.997 -1.638 0.997 -1.638 0.029 84.11
5016.708 0.03 84.193 0.997 -1.692 0.997 -1.692 0.03 84.193
5041.667 0.031 84.266 0.997 -1.747 0.997 -1.747 0.031 84.266
5066.625 0.032 84.332 0.997 -1.801 0.997 -1.801 0.032 84.332
5091.583 0.032 84.39 0.997 -1.855 0.997 -1.855 0.032 84.39
5116.542 0.033 84.442 0.997 -1.909 0.997 -1.909 0.033 84.442
5141.5 0.034 84.488 0.997 -1.963 0.997 -1.963 0.034 84.488
5166.458 0.035 84.528 0.997 -2.016 0.997 -2.016 0.035 84.528
5191.417 0.036 84.564 0.997 -2.069 0.997 -2.069 0.036 84.564
5216.375 0.037 84.595 0.997 -2.122 0.997 -2.122 0.037 84.595
5241.333 0.038 84.622 0.997 -2.175 0.997 -2.175 0.038 84.622
5266.292 0.039 84.645 0.997 -2.228 0.997 -2.228 0.039 84.645
5291.25 0.04 84.664 0.997 -2.28 0.997 -2.28 0.04 84.664
5316.208 0.041 84.68 0.997 -2.332 0.997 -2.332 0.041 84.68
5341.167 0.042 84.693 0.997 -2.384 0.997 -2.384 0.042 84.693
5366.125 0.043 84.704 0.997 -2.436 0.997 -2.436 0.043 84.704
5391.083 0.043 84.711 0.997 -2.488 0.997 -2.488 0.043 84.711
5416.042 0.044 84.717 0.997 -2.539 0.997 -2.539 0.044 84.717
5441 0.045 84.72 0.997 -2.59 0.997 -2.59 0.045 84.72
5465.958 0.046 84.72 0.997 -2.641 0.997 -2.641 0.046 84.72
5490.917 0.047 84.719 0.997 -2.692 0.997 -2.692 0.047 84.719
5515.875 0.048 84.717 0.997 -2.743 0.997 -2.743 0.048 84.717
5540.833 0.049 84.712 0.997 -2.793 0.997 -2.793 0.049 84.712
5565.792 0.05 84.706 0.997 -2.844 0.997 -2.844 0.05 84.706
5590.75 0.051 84.698 0.997 -2.894 0.997 -2.894 0.051 84.698
5615.708 0.051 84.689 0.997 -2.944 0.997 -2.944 0.051 84.689
5640.667 0.052 84.679 0.997 -2.994 0.997 -2.994 0.052 84.679
5665.625 0.053 84.667 0.996 -3.043 0.996 -3.043 0.053 84.667
5690.583 0.054 84.654 0.996 -3.093 0.996 -3.093 0.054 84.654
5715.542 0.055 84.64 0.996 -3.142 0.996 -3.142 0.055 84.64
5740.5 0.056 84.625 0.996 -3.191 0.996 -3.191 0.056 84.625
5765.458 0.057 84.61 0.996 -3.24 0.996 -3.24 0.057 84.61
5790.417 0.057 84.593 0.996 -3.289 0.996 -3.289 0.057 84.593
5815.375 0.058 84.575 0.996 -3.338 0.996 -3.338 0.058 84.575
5840.333 0.059 84.556 0.996 -3.386 0.996 -3.386 0.059 84.556
5865.292 0.06 84.537 0.996 -3.435 0.996 -3.435 0.06 84.537
5890.25 0.061 84.517 0.996 -3.483 0.996 -3.483 0.061 84.517
5915.208 0.062 84.496 0.996 -3.531 0.996 -3.531 0.062 84.496
5940.167 0.062 84.475 0.996 -3.579 0.996 -3.579 0.062 84.475
5965.125 0.063 84.452 0.996 -3.627 0.996 -3.627 0.063 84.452
5990.083 0.064 84.43 0.996 -3.674 0.996 -3.674 0.064 84.43
6015.042 0.065 84.407 0.996 -3.722 0.996 -3.722 0.065 84.407
6040 0.066 84.383 0.996 -3.769 0.996 -3.769 0.066 84.383
6064.958 0.067 84.358 0.996 -3.816 0.996 -3.816 0.067 84.358
6089.917 0.067 84.334 0.996 -3.864 0.996 -3.864 0.067 84.334
6114.875 0.068 84.308 0.996 -3.911 0.996 -3.911 0.068 84.308
6139.833 0.069 84.283 0.995 -3.957 0.995 -3.957 0.069 84.283
6164.792 0.07 84.256 0.995 -4.004 0.995 -4.004 0.07 84.256
6189.75 0.071 84.23 0.995 -4.051 0.995 -4.051 0.071 84.23
6214.708 0.071 84.203 0.995 -4.097 0.995 -4.097 0.071 84.203
6239.667 0.072 84.176 0.995 -4.144 0.995 -4.144 0.072 84.176
6264.625 0.073 84.148 0.995 -4.19 0.995 -4.19 0.073 84.148
6289.583 0.074 84.12 0.995 -4.236 0.995 -4.236 0.074 84.12
6314.542 0.075 84.092 0.995 -4.282 0.995 -4.282 0.075 84.092
6339.5 0.075 84.063 0.995 -4.328 0.995 -4.328 0.075 84.063
6364.458 0.076 84.035 0.995 -4.373 0.995 -4.373 0.076 84.035
6389.417 0.077 84.005 0.995 -4.419 0.995 -4.419 0.077 84.005
6414.375 0.078 83.976 0.995 -4.464 0.995 -4.464 0.078 83.976
6439.333 0.079 83.946 0.995 -4.51 0.995 -4.51 0.079 83.946
6464.292 0.079 83.917 0.995 -4.555 0.995 -4.555 0.079 83.917
6489.25 0.08 83.886 0.995 -4.6 0.995 -4.6 0.08 83.886
6514.208 0.081 83.856 0.995 -4.645 0.995 -4.645 0.081 83.856
6539.167 0.082 83.826 0.995 -4.69 0.995 -4.69 0.082 83.826
6564.125 0.083 83.795 0.994 -4.735 0.994 -4.735 0.083 83.795
6589.083 0.083 83.764 0.994 -4.78 0.994 -4.78 0.083 83.764
6614.042 0.084 83.733 0.994 -4.824 0.994 -4.824 0.084 83.733
6639 0.085 83.702 0.994 -4.869 0.994 -4.869 0.085 83.702
6663.958 0.086 83.67 0.994 -4.913 0.994 -4.913 0.086 83.67
6688.917 0.086 83.639 0.994 -4.958 0.994 -4.958 0.086 83.639
6713.875 0.087 83.607 0.994 -5.002 0.994 -5.002 0.087 83.607
6738.833 0.088 83.575 0.994 -5.046 0.994 -5.046 0.088 83.575
6763.792 0.089 83.543 0.994 -5.09 0.994 -5.09 0.089 83.543
6788.75 0.09 83.511 0.994 -5.134 0.994 -5.134 0.09 83.511
6813.708 0.09 83.479 0.994 -5.178 0.994 -5.178 0.09 83.479
6838.667 0.091 83.446 0.994 -5.221 0.994 -5.221 0.091 83.446
6863.625 0.092 83.414 0.994 -5.265 0.994 -5.265 0.092 83.414
6888.583 0.093 83.381 0.994 -5.308 0.994 -5.308 0.093 83.381
6913.542 0.093 83.348 0.994 -5.352 0.994 -5.352 0.093 83.348
6938.5 0.094 83.316 0.993 -5.395 0.993 -5.395 0.094 83.316
6963.458 0.095 83.283 0.993 -5.438 0.993 -5.438 0.095 83.283
6988.417 0.096 83.25 0.993 -5.481 0.993 -5.481 0.096 83.25
7013.375 0.096 83.217 0.993 -5.524 0.993 -5.524 0.096 83.217
7038.333 0.097 83.183 0.993 -5.567 0.993 -5.567 0.097 83.183
7063.292 0.098 83.15 0.993 -5.61 0.993 -5.61 0.098 83.15
7088.25 0.099 83.117 0.993 -5.653 0.993 -5.653 0.099 83.117
7113.208 0.099 83.083 0.993 -5.696 0.993 -5.696 0.099 83.083
7138.167 0.1 83.05 0.993 -5.738 0.993 -5.738 0.1 83.05
7163.125 0.101 83.016 0.993 -5.781 0.993 -5.781 0.101 83.016
7188.083 0.101 82.983 0.993 -5.823 0.993 -5.823 0.101 82.983
7213.042 0.102 82.949 0.993 -5.866 0.993 -5.866 0.102 82.949
7238 0.103 82.915 0.993 -5.908 0.993 -5.908 0.103 82.915
7262.958 0.104 82.881 0.992 -5.95 0.992 -5.95 0.104 82.881
7287.917 0.104 82.848 0.992 -5.992 0.992 -5.992 0.104 82.848
7312.875 0.105 82.814 0.992 -6.034 0.992 -6.034 0.105 82.814
7337.833 0.106 82.78 0.992 -6.076 0.992 -6.076 0.106 82.78
7362.792 0.107 82.746 0.992 -6.118 0.992 -6.118 0.107 82.746
7387.75 0.107 82.712 0.992 -6.16 0.992 -6.16 0.107 82.712
7412.708 0.108 82.678 0.992 -6.202 0.992 -6.202 0.108 82.678
7437.667 0.109 82.644 0.992 -6.243 0.992 -6.243 0.109 82.644
7462.625 0.109 82.61 0.992 -6.285 0.992 -6.285 0.109 82.61
7487.583 0.11 82.575 0.992 -6.326 0.992 -6.326 0.11 82.575
7512.542 0.111 82.541 0.992 -6.368 0.992 -6.368 0.111 82.541
7537.5 0.112 82.507 0.992 -6.409 0.992 -6.409 0.112 82.507
7562.458 0.112 82.473 0.992 -6.45 0.992 -6.45 0.112 82.473
7587.417 0.113 82.438 0.991 -6.491 0.991 -6.491 0.113 82.438
7612.375 0.114 82.404 0.991 -6.532 0.991 -6.532 0.114 82.404
7637.333 0.114 82.37 0.991 -6.573 0.991 -6.573 0.114 82.37
7662.292 0.115 82.335 0.991 -6.614 0.991 -6.614 0.115 82.335
7687.25 0.116 82.301 0.991 -6.655 0.991 -6.655 0.116 82.301
7712.208 0.117 82.267 0.991 -6.696 0.991 -6.696 0.117 82.267
7737.167 0.117 82.232 0.991 -6.737 0.991 -6.737 0.117 82.232
7762.125 0.118 82.198 0.991 -6.778 0.991 -6.778 0.118 82.198
7787.083 0.119 82.163 0.991 -6.818 0.991 -6.818 0.119 82.163
7812.042 0.119 82.129 0.991 -6.859 0.991 -6.859 0.119 82.129
7837 0.12 82.094 0.991 -6.899 0.991 -6.899 0.12 82.094
7861.958 0.121 82.06 0.991 -6.94 0.991 -6.94 0.121 82.06
7886.917 0.122 82.025 0.99 -6.98 0.99 -6.98 0.122 82.025
7911.875 0.122 81.991 0.99 -7.02 0.99 -7.02 0.122 81.991
7936.833 0.123 81.956 0.99 -7.06 0.99 -7.06 0.123 81.956
7961.792 0.124 81.922 0.99 -7.101 0.99 -7.101 0.124 81.922
7986.75 0.124 81.887 0.99 -7.141 0.99 -7.141 0.124 81.887
8011.708 0.125 81.853 0.99 -7.181 0.99 -7.181 0.125 81.853
8036.667 0.126 81.818 0.99 -7.221 0.99 -7.221 0.126 81.818
8061.625 0.126 81.783 0.99 -7.261 0.99 -7.261 0.126 81.783
8086.583 0.127 81.749 0.99 -7.3 0.99 -7.3 0.127 81.749
8111.542 0.128 81.714 0.99 -7.34 0.99 -7.34 0.128 81.714
8136.5 0.128 81.68 0.99 -7.38 0.99 -7.38 0.128 81.68
8161.458 0.129 81.645 0.99 -7.42 0.99 -7.42 0.129 81.645
8186.417 0.13 81.611 0.989 -7.459 0.989 -7.459 0.13 81.611
8211.375 0.131 81.576 0.989 -7.499 0.989 -7.499 0.131 81.576
8236.333 0.131 81.541 0.989 -7.538 0.989 -7.538 0.131 81.541
8261.292 0.132 81.507 0.989 -7.578 0.989 -7.578 0.132 81.507
