# MHZ S MA R 50

50 0.926 -22.219 0.378 67.749 0.378 67.749 0.926 -22.219
74.958 0.852 -31.489 0.522 58.463 0.522 58.463 0.852 -31.489
99.917 0.774 -39.241 0.633 50.696 0.633 50.696 0.774 -39.241
124.875 0.699 -45.602 0.715 44.318 0.715 44.318 0.699 -45.602
149.833 0.631 -50.798 0.775 39.107 0.775 39.107 0.631 -50.798
174.792 0.571 -55.057 0.82 34.832 0.82 34.832 0.571 -55.057
199.75 0.519 -58.576 0.853 31.297 0.853 31.297 0.519 -58.576
224.708 0.475 -61.513 0.879 28.344 0.879 28.344 0.475 -61.513
249.667 0.436 -63.989 0.899 25.852 0.899 25.852 0.436 -63.989
274.625 0.402 -66.098 0.914 23.726 0.914 23.726 0.402 -66.098
299.583 0.373 -67.912 0.927 21.895 0.927 21.895 0.373 -67.912
324.542 0.347 -69.487 0.937 20.305 0.937 20.305 0.347 -69.487
349.5 0.324 -70.864 0.945 18.911 0.945 18.911 0.324 -70.864
374.458 0.304 -72.078 0.951 17.68 0.951 17.68 0.304 -72.078
399.417 0.285 -73.155 0.957 16.585 0.957 16.585 0.285 -73.155
424.375 0.269 -74.118 0.962 15.606 0.962 15.606 0.269 -74.118
449.333 0.254 -74.982 0.966 14.724 0.966 14.724 0.254 -74.982
474.292 0.241 -75.762 0.969 13.926 0.969 13.926 0.241 -75.762
499.25 0.228 -76.47 0.972 13.2 0.972 13.2 0.228 -76.47
524.208 0.217 -77.115 0.975 12.537 0.975 12.537 0.217 -77.115
549.167 0.207 -77.705 0.977 11.929 0.977 11.929 0.207 -77.705
574.125 0.197 -78.247 0.979 11.369 0.979 11.369 0.197 -78.247
599.083 0.188 -78.746 0.981 10.851 0.981 10.851 0.188 -78.746
624.042 0.18 -79.208 0.982 10.37 0.982 10.37 0.18 -79.208
649 0.172 -79.635 0.984 9.923 0.984 9.923 0.172 -79.635
673.958 0.165 -80.032 0.985 9.506 0.985 9.506 0.165 -80.032
698.917 0.158 -80.403 0.986 9.116 0.986 9.116 0.158 -80.403
723.875 0.152 -80.748 0.987 8.75 0.987 8.75 0.152 -80.748
748.833 0.146 -81.072 0.988 8.405 0.988 8.405 0.146 -81.072
773.792 0.141 -81.375 0.989 8.081 0.989 8.081 0.141 -81.375
798.75 0.135 -81.66 0.989 7.774 0.989 7.774 0.135 -81.66
823.708 0.13 -81.928 0.99 7.484 0.99 7.484 0.13 -81.928
848.667 0.125 -82.18 0.991 7.209 0.991 7.209 0.125 -82.18
873.625 0.121 -82.418 0.991 6.948 0.991 6.948 0.121 -82.418
898.583 0.117 -82.643 0.992 6.699 0.992 6.699 0.117 -82.643
923.542 0.113 -82.856 0.992 6.462 0.992 6.462 0.113 -82.856
948.5 0.109 -83.058 0.993 6.235 0.993 6.235 0.109 -83.058
973.458 0.105 -83.248 0.993 6.019 0.993 6.019 0.105 -83.248
998.417 0.101 -83.429 0.994 5.812 0.994 5.812 0.101 -83.429
1023.375 0.098 -83.601 0.994 5.613 0.994 5.613 0.098 -83.601
1048.333 0.095 -83.764 0.994 5.422 0.994 5.422 0.095 -83.764
1073.292 0.091 -83.919 0.994 5.239 0.994 5.239 0.091 -83.919
1098.25 0.088 -84.066 0.995 5.062 0.995 5.062 0.088 -84.066
1123.208 0.085 -84.205 0.995 4.892 0.995 4.892 0.085 -84.205
1148.167 0.082 -84.338 0.995 4.728 0.995 4.728 0.082 -84.338
1173.125 0.08 -84.464 0.995 4.57 0.995 4.57 0.08 -84.464
1198.083 0.077 -84.583 0.996 4.417 0.996 4.417 0.077 -84.583
1223.042 0.074 -84.696 0.996 4.269 0.996 4.269 0.074 -84.696
1248 0.072 -84.804 0.996 4.125 0.996 4.125 0.072 -84.804
1272.958 0.07 -84.905 0.996 3.986 0.996 3.986 0.07 -84.905
1297.917 0.067 -85.001 0.996 3.852 0.996 3.852 0.067 -85.001
1322.875 0.065 -85.092 0.997 3.721 0.997 3.721 0.065 -85.092
1347.833 0.063 -85.177 0.997 3.594 0.997 3.594 0.063 -85.177
1372.792 0.061 -85.256 0.997 3.47 0.997 3.47 0.061 -85.256
1397.75 0.058 -85.331 0.997 3.35 0.997 3.35 0.058 -85.331
1422.708 0.056 -85.4 0.997 3.232 0.997 3.232 0.056 -85.4
1447.667 0.054 -85.464 0.997 3.118 0.997 3.118 0.054 -85.464
1472.625 0.052 -85.523 0.997 3.007 0.997 3.007 0.052 -85.523
1497.583 0.051 -85.576 0.997 2.898 0.997 2.898 0.051 -85.576
1522.542 0.049 -85.624 0.997 2.792 0.997 2.792 0.049 -85.624
1547.5 0.047 -85.667 0.998 2.689 0.998 2.689 0.047 -85.667
1572.458 0.045 -85.704 0.998 2.588 0.998 2.588 0.045 -85.704
1597.417 0.043 -85.735 0.998 2.489 0.998 2.489 0.043 -85.735
1622.375 0.042 -85.759 0.998 2.392 0.998 2.392 0.042 -85.759
1647.333 0.04 -85.778 0.998 2.297 0.998 2.297 0.04 -85.778
1672.292 0.038 -85.79 0.998 2.204 0.998 2.204 0.038 -85.79
1697.25 0.037 -85.794 0.998 2.113 0.998 2.113 0.037 -85.794
1722.208 0.035 -85.791 0.998 2.023 0.998 2.023 0.035 -85.791
1747.167 0.034 -85.78 0.998 1.936 0.998 1.936 0.034 -85.78
1772.125 0.032 -85.76 0.998 1.85 0.998 1.85 0.032 -85.76
1797.083 0.031 -85.73 0.998 1.765 0.998 1.765 0.031 -85.73
1822.042 0.029 -85.689 0.998 1.682 0.998 1.682 0.029 -85.689
1847 0.028 -85.637 0.998 1.601 0.998 1.601 0.028 -85.637
1871.958 0.027 -85.572 0.998 1.521 0.998 1.521 0.027 -85.572
1896.917 0.025 -85.492 0.998 1.442 0.998 1.442 0.025 -85.492
1921.875 0.024 -85.396 0.998 1.365 0.998 1.365 0.024 -85.396
1946.833 0.023 -85.281 0.998 1.288 0.998 1.288 0.023 -85.281
1971.792 0.021 -85.144 0.998 1.213 0.998 1.213 0.021 -85.144
1996.75 0.02 -84.982 0.998 1.139 0.998 1.139 0.02 -84.982
2021.708 0.019 -84.79 0.998 1.066 0.998 1.066 0.019 -84.79
2046.667 0.017 -84.564 0.999 0.994 0.999 0.994 0.017 -84.564
2071.625 0.016 -84.296 0.999 0.924 0.999 0.924 0.016 -84.296
2096.583 0.015 -83.976 0.999 0.854 0.999 0.854 0.015 -83.976
2121.542 0.014 -83.594 0.999 0.785 0.999 0.785 0.014 -83.594
2146.5 0.013 -83.133 0.999 0.717 0.999 0.717 0.013 -83.133
2171.458 0.011 -82.57 0.999 0.65 0.999 0.65 0.011 -82.57
2196.417 0.01 -81.875 0.999 0.583 0.999 0.583 0.01 -81.875
2221.375 9.141e-3 -81.001 0.999 0.518 0.999 0.518 9.141e-3 -81.001
2246.333 8.027e-3 -79.877 0.999 0.453 0.999 0.453 8.027e-3 -79.877
2271.292 6.931e-3 -78.393 0.999 0.39 0.999 0.39 6.931e-3 -78.393
2296.25 5.854e-3 -76.358 0.999 0.326 0.999 0.326 5.854e-3 -76.358
2321.208 4.801e-3 -73.425 0.999 0.264 0.999 0.264 4.801e-3 -73.425
2346.167 3.779e-3 -68.895 0.999 0.202 0.999 0.202 3.779e-3 -68.895
2371.125 2.81e-3 -61.181 0.999 0.141 0.999 0.141 2.81e-3 -61.181
2396.083 1.952e-3 -46.223 0.999 0.081 0.999 0.081 1.952e-3 -46.223
2421.042 1.398e-3 -15.255 0.999 0.021 0.999 0.021 1.398e-3 -15.255
2446 1.503e-3 26.176 0.999 -0.038 0.999 -0.038 1.503e-3 26.176
2470.958 2.158e-3 51.246 0.999 -0.097 0.999 -0.097 2.158e-3 51.246
2495.917 3.015e-3 63.285 0.999 -0.155 0.999 -0.155 3.015e-3 63.285
2520.875 3.937e-3 69.761 0.999 -0.212 0.999 -0.212 3.937e-3 69.761
2545.833 4.881e-3 73.696 0.999 -0.269 0.999 -0.269 4.881e-3 73.696
2570.792 5.832e-3 76.308 0.999 -0.325 0.999 -0.325 5.832e-3 76.308
2595.75 6.783e-3 78.155 0.999 -0.381 0.999 -0.381 6.783e-3 78.155
2620.708 7.732e-3 79.522 0.999 -0.436 0.999 -0.436 7.732e-3 79.522
2645.667 8.676e-3 80.569 0.999 -0.491 0.999 -0.491 8.676e-3 80.569
2670.625 9.614e-3 81.393 0.999 -0.545 0.999 -0.545 9.614e-3 81.393
2695.583 0.011 82.056 0.999 -0.599 0.999 -0.599 0.011 82.056
2720.542 0.011 82.598 0.999 -0.653 0.999 -0.653 0.011 82.598
2745.5 0.012 83.048 0.999 -0.706 0.999 -0.706 0.012 83.048
2770.458 0.013 83.425 0.999 -0.758 0.999 -0.758 0.013 83.425
2795.417 0.014 83.745 0.999 -0.811 0.999 -0.811 0.014 83.745
2820.375 0.015 84.019 0.999 -0.862 0.999 -0.862 0.015 84.019
2845.333 0.016 84.254 0.999 -0.914 0.999 -0.914 0.016 84.254
2870.292 0.017 84.457 0.999 -0.965 0.999 -0.965 0.017 84.457
2895.25 0.018 84.634 0.998 -1.015 0.998 -1.015 0.018 84.634
2920.208 0.019 84.788 0.998 -1.066 0.998 -1.066 0.019 84.788
2945.167 0.02 84.923 0.998 -1.115 0.998 -1.115 0.02 84.923
2970.125 0.02 85.042 0.998 -1.165 0.998 -1.165 0.02 85.042
2995.083 0.021 85.146 0.998 -1.214 0.998 -1.214 0.021 85.146
3020.042 0.022 85.238 0.998 -1.263 0.998 -1.263 0.022 85.238
3045 0.023 85.319 0.998 -1.312 0.998 -1.312 0.023 85.319
3069.958 0.024 85.39 0.998 -1.36 0.998 -1.36 0.024 85.39
3094.917 0.025 85.452 0.998 -1.408 0.998 -1.408 0.025 85.452
3119.875 0.025 85.507 0.998 -1.456 0.998 -1.456 0.025 85.507
3144.833 0.026 85.556 0.998 -1.503 0.998 -1.503 0.026 85.556
3169.792 0.027 85.598 0.998 -1.55 0.998 -1.55 0.027 85.598
3194.75 0.028 85.634 0.998 -1.597 0.998 -1.597 0.028 85.634
3219.708 0.029 85.666 0.998 -1.644 0.998 -1.644 0.029 85.666
3244.667 0.03 85.694 0.998 -1.69 0.998 -1.69 0.03 85.694
3269.625 0.03 85.717 0.998 -1.736 0.998 -1.736 0.03 85.717
3294.583 0.031 85.736 0.998 -1.782 0.998 -1.782 0.031 85.736
3319.542 0.032 85.753 0.998 -1.827 0.998 -1.827 0.032 85.753
3344.5 0.033 85.766 0.998 -1.873 0.998 -1.873 0.033 85.766
3369.458 0.033 85.776 0.998 -1.918 0.998 -1.918 0.033 85.776
3394.417 0.034 85.784 0.998 -1.963 0.998 -1.963 0.034 85.784
3419.375 0.035 85.79 0.998 -2.007 0.998 -2.007 0.035 85.79
3444.333 0.036 85.793 0.998 -2.052 0.998 -2.052 0.036 85.793
3469.292 0.037 85.794 0.998 -2.096 0.998 -2.096 0.037 85.794
3494.25 0.037 85.794 0.998 -2.14 0.998 -2.14 0.037 85.794
3519.208 0.038 85.791 0.998 -2.184 0.998 -2.184 0.038 85.791
3544.167 0.039 85.787 0.998 -2.227 0.998 -2.227 0.039 85.787
3569.125 0.04 85.782 0.998 -2.271 0.998 -2.271 0.04 85.782
3594.083 0.04 85.775 0.998 -2.314 0.998 -2.314 0.04 85.775
3619.042 0.041 85.767 0.998 -2.357 0.998 -2.357 0.041 85.767
3644 0.042 85.758 0.998 -2.399 0.998 -2.399 0.042 85.758
3668.958 0.043 85.747 0.998 -2.442 0.998 -2.442 0.043 85.747
3693.917 0.043 85.736 0.998 -2.485 0.998 -2.485 0.043 85.736
3718.875 0.044 85.723 0.998 -2.527 0.998 -2.527 0.044 85.723
3743.833 0.045 85.71 0.998 -2.569 0.998 -2.569 0.045 85.71
3768.792 0.046 85.696 0.998 -2.611 0.998 -2.611 0.046 85.696
3793.75 0.046 85.68 0.998 -2.653 0.998 -2.653 0.046 85.68
3818.708 0.047 85.665 0.998 -2.694 0.998 -2.694 0.047 85.665
3843.667 0.048 85.648 0.998 -2.736 0.998 -2.736 0.048 85.648
3868.625 0.048 85.631 0.997 -2.777 0.997 -2.777 0.048 85.631
3893.583 0.049 85.613 0.997 -2.818 0.997 -2.818 0.049 85.613
3918.542 0.05 85.595 0.997 -2.859 0.997 -2.859 0.05 85.595
3943.5 0.051 85.576 0.997 -2.9 0.997 -2.9 0.051 85.576
3968.458 0.051 85.556 0.997 -2.94 0.997 -2.94 0.051 85.556
3993.417 0.052 85.536 0.997 -2.981 0.997 -2.981 0.052 85.536
4018.375 0.053 85.515 0.997 -3.021 0.997 -3.021 0.053 85.515
4043.333 0.053 85.494 0.997 -3.062 0.997 -3.062 0.053 85.494
4068.292 0.054 85.473 0.997 -3.102 0.997 -3.102 0.054 85.473
4093.25 0.055 85.451 0.997 -3.142 0.997 -3.142 0.055 85.451
4118.208 0.056 85.429 0.997 -3.182 0.997 -3.182 0.056 85.429
4143.167 0.056 85.406 0.997 -3.221 0.997 -3.221 0.056 85.406
4168.125 0.057 85.383 0.997 -3.261 0.997 -3.261 0.057 85.383
4193.083 0.058 85.36 0.997 -3.3 0.997 -3.3 0.058 85.36
4218.042 0.058 85.337 0.997 -3.34 0.997 -3.34 0.058 85.337
4243 0.059 85.313 0.997 -3.379 0.997 -3.379 0.059 85.313
4267.958 0.06 85.289 0.997 -3.418 0.997 -3.418 0.06 85.289
4292.917 0.06 85.264 0.997 -3.457 0.997 -3.457 0.06 85.264
4317.875 0.061 85.24 0.997 -3.496 0.997 -3.496 0.061 85.24
4342.833 0.062 85.215 0.997 -3.535 0.997 -3.535 0.062 85.215
4367.792 0.062 85.19 0.997 -3.573 0.997 -3.573 0.062 85.19
4392.75 0.063 85.164 0.997 -3.612 0.997 -3.612 0.063 85.164
4417.708 0.064 85.139 0.997 -3.651 0.997 -3.651 0.064 85.139
4442.667 0.064 85.113 0.997 -3.689 0.997 -3.689 0.064 85.113
4467.625 0.065 85.087 0.997 -3.727 0.997 -3.727 0.065 85.087
4492.583 0.066 85.061 0.996 -3.765 0.996 -3.765 0.066 85.061
4517.542 0.066 85.035 0.996 -3.803 0.996 -3.803 0.066 85.035
4542.5 0.067 85.008 0.996 -3.841 0.996 -3.841 0.067 85.008
4567.458 0.068 84.982 0.996 -3.879 0.996 -3.879 0.068 84.982
4592.417 0.068 84.955 0.996 -3.917 0.996 -3.917 0.068 84.955
4617.375 0.069 84.928 0.996 -3.955 0.996 -3.955 0.069 84.928
4642.333 0.07 84.901 0.996 -3.992 0.996 -3.992 0.07 84.901
4667.292 0.07 84.874 0.996 -4.03 0.996 -4.03 0.07 84.874
4692.25 0.071 84.847 0.996 -4.067 0.996 -4.067 0.071 84.847
4717.208 0.072 84.819 0.996 -4.104 0.996 -4.104 0.072 84.819
4742.167 0.072 84.792 0.996 -4.142 0.996 -4.142 0.072 84.792
4767.125 0.073 84.764 0.996 -4.179 0.996 -4.179 0.073 84.764
4792.083 0.074 84.736 0.996 -4.216 0.996 -4.216 0.074 84.736
4817.042 0.074 84.708 0.996 -4.253 0.996 -4.253 0.074 84.708
4842 0.075 84.68 0.996 -4.29 0.996 -4.29 0.075 84.68
4866.958 0.075 84.652 0.996 -4.327 0.996 -4.327 0.075 84.652
4891.917 0.076 84.624 0.996 -4.363 0.996 -4.363 0.076 84.624
4916.875 0.077 84.596 0.996 -4.4 0.996 -4.4 0.077 84.596
4941.833 0.077 84.568 0.996 -4.437 0.996 -4.437 0.077 84.568
4966.792 0.078 84.539 0.996 -4.473 0.996 -4.473 0.078 84.539
4991.75 0.079 84.511 0.996 -4.51 0.996 -4.51 0.079 84.511
5016.708 0.079 84.483 0.996 -4.546 0.996 -4.546 0.079 84.483
5041.667 0.08 84.454 0.995 -4.582 0.995 -4.582 0.08 84.454
5066.625 0.081 84.425 0.995 -4.618 0.995 -4.618 0.081 84.425
5091.583 0.081 84.397 0.995 -4.655 0.995 -4.655 0.081 84.397
5116.542 0.082 84.368 0.995 -4.691 0.995 -4.691 0.082 84.368
5141.5 0.082 84.339 0.995 -4.727 0.995 -4.727 0.082 84.339
5166.458 0.083 84.31 0.995 -4.763 0.995 -4.763 0.083 84.31
5191.417 0.084 84.281 0.995 -4.798 0.995 -4.798 0.084 84.281
5216.375 0.084 84.252 0.995 -4.834 0.995 -4.834 0.084 84.252
5241.333 0.085 84.223 0.995 -4.87 0.995 -4.87 0.085 84.223
5266.292 0.086 84.194 0.995 -4.906 0.995 -4.906 0.086 84.194
5291.25 0.086 84.165 0.995 -4.941 0.995 -4.941 0.086 84.165
5316.208 0.087 84.136 0.995 -4.977 0.995 -4.977 0.087 84.136
5341.167 0.087 84.107 0.995 -5.012 0.995 -5.012 0.087 84.107
5366.125 0.088 84.078 0.995 -5.048 0.995 -5.048 0.088 84.078
5391.083 0.089 84.048 0.995 -5.083 0.995 -5.083 0.089 84.048
5416.042 0.089 84.019 0.995 -5.119 0.995 -5.119 0.089 84.019
5441 0.09 83.99 0.995 -5.154 0.995 -5.154 0.09 83.99
5465.958 0.09 83.96 0.995 -5.189 0.995 -5.189 0.09 83.96
5490.917 0.091 83.931 0.995 -5.224 0.995 -5.224 0.091 83.931
5515.875 0.092 83.902 0.994 -5.259 0.994 -5.259 0.092 83.902
5540.833 0.092 83.872 0.994 -5.294 0.994 -5.294 0.092 83.872
5565.792 0.093 83.843 0.994 -5.329 0.994 -5.329 0.093 83.843
5590.75 0.093 83.813 0.994 -5.364 0.994 -5.364 0.093 83.813
5615.708 0.094 83.784 0.994 -5.399 0.994 -5.399 0.094 83.784
5640.667 0.095 83.754 0.994 -5.434 0.994 -5.434 0.095 83.754
5665.625 0.095 83.725 0.994 -5.469 0.994 -5.469 0.095 83.725
5690.583 0.096 83.695 0.994 -5.503 0.994 -5.503 0.096 83.695
5715.542 0.097 83.665 0.994 -5.538 0.994 -5.538 0.097 83.665
5740.5 0.097 83.636 0.994 -5.573 0.994 -5.573 0.097 83.636
5765.458 0.098 83.606 0.994 -5.607 0.994 -5.607 0.098 83.606
5790.417 0.098 83.576 0.994 -5.642 0.994 -5.642 0.098 83.576
5815.375 0.099 83.547 0.994 -5.676 0.994 -5.676 0.099 83.547
5840.333 0.1 83.517 0.994 -5.711 0.994 -5.711 0.1 83.517
5865.292 0.1 83.487 0.994 -5.745 0.994 -5.745 0.1 83.487
5890.25 0.101 83.458 0.994 -5.779 0.994 -5.779 0.101 83.458
5915.208 0.101 83.428 0.994 -5.814 0.994 -5.814 0.101 83.428
5940.167 0.102 83.398 0.993 -5.848 0.993 -5.848 0.102 83.398
5965.125 0.102 83.368 0.993 -5.882 0.993 -5.882 0.102 83.368
5990.083 0.103 83.338 0.993 -5.916 0.993 -5.916 0.103 83.338
6015.042 0.104 83.309 0.993 -5.95 0.993 -5.95 0.104 83.309
6040 0.104 83.279 0.993 -5.984 0.993 -5.984 0.104 83.279
6064.958 0.105 83.249 0.993 -6.018 0.993 -6.018 0.105 83.249
6089.917 0.105 83.219 0.993 -6.052 0.993 -6.052 0.105 83.219
6114.875 0.106 83.189 0.993 -6.086 0.993 -6.086 0.106 83.189
6139.833 0.107 83.16 0.993 -6.12 0.993 -6.12 0.107 83.16
6164.792 0.107 83.13 0.993 -6.154 0.993 -6.154 0.107 83.13
6189.75 0.108 83.1 0.993 -6.188 0.993 -6.188 0.108 83.1
6214.708 0.108 83.07 0.993 -6.221 0.993 -6.221 0.108 83.07
6239.667 0.109 83.04 0.993 -6.255 0.993 -6.255 0.109 83.04
6264.625 0.11 83.01 0.993 -6.289 0.993 -6.289 0.11 83.01
6289.583 0.11 82.98 0.993 -6.322 0.993 -6.322 0.11 82.98
6314.542 0.111 82.95 0.993 -6.356 0.993 -6.356 0.111 82.95
6339.5 0.111 82.921 0.992 -6.39 0.992 -6.39 0.111 82.921
6364.458 0.112 82.891 0.992 -6.423 0.992 -6.423 0.112 82.891
6389.417 0.112 82.861 0.992 -6.457 0.992 -6.457 0.112 82.861
6414.375 0.113 82.831 0.992 -6.49 0.992 -6.49 0.113 82.831
6439.333 0.114 82.801 0.992 -6.523 0.992 -6.523 0.114 82.801
6464.292 0.114 82.771 0.992 -6.557 0.992 -6.557 0.114 82.771
6489.25 0.115 82.741 0.992 -6.59 0.992 -6.59 0.115 82.741
6514.208 0.115 82.711 0.992 -6.623 0.992 -6.623 0.115 82.711
6539.167 0.116 82.681 0.992 -6.657 0.992 -6.657 0.116 82.681
6564.125 0.117 82.651 0.992 -6.69 0.992 -6.69 0.117 82.651
6589.083 0.117 82.622 0.992 -6.723 0.992 -6.723 0.117 82.622
6614.042 0.118 82.592 0.992 -6.756 0.992 -6.756 0.118 82.592
6639 0.118 82.562 0.992 -6.789 0.992 -6.789 0.118 82.562
6663.958 0.119 82.532 0.992 -6.822 0.992 -6.822 0.119 82.532
6688.917 0.119 82.502 0.992 -6.856 0.992 -6.856 0.119 82.502
6713.875 0.12 82.472 0.991 -6.889 0.991 -6.889 0.12 82.472
6738.833 0.121 82.442 0.991 -6.922 0.991 -6.922 0.121 82.442
6763.792 0.121 82.412 0.991 -6.955 0.991 -6.955 0.121 82.412
6788.75 0.122 82.382 0.991 -6.987 0.991 -6.987 0.122 82.382
6813.708 0.122 82.352 0.991 -7.02 0.991 -7.02 0.122 82.352
6838.667 0.123 82.322 0.991 -7.053 0.991 -7.053 0.123 82.322
6863.625 0.123 82.293 0.991 -7.086 0.991 -7.086 0.123 82.293
6888.583 0.124 82.263 0.991 -7.119 0.991 -7.119 0.124 82.263
6913.542 0.125 82.233 0.991 -7.152 0.991 -7.152 0.125 82.233
6938.5 0.125 82.203 0.991 -7.184 0.991 -7.184 0.125 82.203
6963.458 0.126 82.173 0.991 -7.217 0.991 -7.217 0.126 82.173
6988.417 0.126 82.143 0.991 -7.25 0.991 -7.25 0.126 82.143
7013.375 0.127 82.113 0.991 -7.282 0.991 -7.282 0.127 82.113
7038.333 0.127 82.083 0.991 -7.315 0.991 -7.315 0.127 82.083
7063.292 0.128 82.053 0.99 -7.348 0.99 -7.348 0.128 82.053
7088.25 0.128 82.023 0.99 -7.38 0.99 -7.38 0.128 82.023
7113.208 0.129 81.994 0.99 -7.413 0.99 -7.413 0.129 81.994
7138.167 0.13 81.964 0.99 -7.445 0.99 -7.445 0.13 81.964
7163.125 0.13 81.934 0.99 -7.478 0.99 -7.478 0.13 81.934
7188.083 0.131 81.904 0.99 -7.51 0.99 -7.51 0.131 81.904
7213.042 0.131 81.874 0.99 -7.542 0.99 -7.542 0.131 81.874
7238 0.132 81.844 0.99 -7.575 0.99 -7.575 0.132 81.844
7262.958 0.132 81.814 0.99 -7.607 0.99 -7.607 0.132 81.814
7287.917 0.133 81.784 0.99 -7.64 0.99 -7.64 0.133 81.784
7312.875 0.134 81.755 0.99 -7.672 0.99 -7.672 0.134 81.755
7337.833 0.134 81.725 0.99 -7.704 0.99 -7.704 0.134 81.725
7362.792 0.135 81.695 0.99 -7.736 0.99 -7.736 0.135 81.695
7387.75 0.135 81.665 0.989 -7.769 0.989 -7.769 0.135 81.665
7412.708 0.136 81.635 0.989 -7.801 0.989 -7.801 0.136 81.635
7437.667 0.136 81.605 0.989 -7.833 0.989 -7.833 0.136 81.605
7462.625 0.137 81.576 0.989 -7.865 0.989 -7.865 0.137 81.576
7487.583 0.137 81.546 0.989 -7.897 0.989 -7.897 0.137 81.546
7512.542 0.138 81.516 0.989 -7.929 0.989 -7.929 0.138 81.516
7537.5 0.139 81.486 0.989 -7.961 0.989 -7.961 0.139 81.486
7562.458 0.139 81.456 0.989 -7.994 0.989 -7.994 0.139 81.456
7587.417 0.14 81.427 0.989 -8.026 0.989 -8.026 0.14 81.427
7612.375 0.14 81.397 0.989 -8.058 0.989 -8.058 0.14 81.397
7637.333 0.141 81.367 0.989 -8.09 0.989 -8.09 0.141 81.367
7662.292 0.141 81.337 0.989 -8.121 0.989 -8.121 0.141 81.337
7687.25 0.142 81.307 0.989 -8.153 0.989 -8.153 0.142 81.307
7712.208 0.142 81.278 0.988 -8.185 0.988 -8.185 0.142 81.278
7737.167 0.143 81.248 0.988 -8.217 0.988 -8.217 0.143 81.248
7762.125 0.143 81.218 0.988 -8.249 0.988 -8.249 0.143 81.218
7787.083 0.144 81.188 0.988 -8.281 0.988 -8.281 0.144 81.188
7812.042 0.145 81.159 0.988 -8.313 0.988 -8.313 0.145 81.159
7837 0.145 81.129 0.988 -8.344 0.988 -8.344 0.145 81.129
7861.958 0.146 81.099 0.988 -8.376 0.988 -8.376 0.146 81.099
7886.917 0.146 81.069 0.988 -8.408 0.988 -8.408 0.146 81.069
7911.875 0.147 81.04 0.988 -8.44 0.988 -8.44 0.147 81.04
7936.833 0.147 81.01 0.988 -8.471 0.988 -8.471 0.147 81.01
7961.792 0.148 80.98 0.988 -8.503 0.988 -8.503 0.148 80.98
7986.75 0.148 80.951 0.988 -8.535 0.988 -8.535 0.148 80.951
8011.708 0.149 80.921 0.988 -8.566 0.988 -8.566 0.149 80.921
8036.667 0.15 80.891 0.987 -8.598 0.987 -8.598 0.15 80.891
8061.625 0.15 80.861 0.987 -8.63 0.987 -8.63 0.15 80.861
8086.583 0.151 80.832 0.987 -8.661 0.987 -8.661 0.151 80.832
8111.542 0.151 80.802 0.987 -8.693 0.987 -8.693 0.151 80.802
8136.5 0.152 80.772 0.987 -8.724 0.987 -8.724 0.152 80.772
8161.458 0.152 80.743 0.987 -8.756 0.987 -8.756 0.152 80.743
8186.417 0.153 80.713 0.987 -8.787 0.987 -8.787 0.153 80.713
8211.375 0.153 80.683 0.987 -8.819 0.987 -8.819 0.153 80.683
8236.333 0.154 80.654 0.987 -8.85 0.987 -8.85 0.154 80.654
8261.292 0.154 80.624 0.987 -8.881 0.987 -8.881 0.154 80.624
8286.25 0.155 80.595 0.987 -8.913 0.987 -8.913 0.155 80.595
