# MHZ S MA R 50

50 0.999 -1.889 0.033 88.101 0.033 88.101 0.999 -1.889
74.958 0.999 -2.831 0.049 87.154 0.049 87.154 0.999 -2.831
99.917 0.998 -3.772 0.066 86.209 0.066 86.209 0.998 -3.772
124.875 0.997 -4.711 0.082 85.266 0.082 85.266 0.997 -4.711
149.833 0.995 -5.647 0.098 84.325 0.098 84.325 0.995 -5.647
174.792 0.993 -6.581 0.115 83.386 0.115 83.386 0.993 -6.581
199.75 0.991 -7.511 0.131 82.451 0.131 82.451 0.991 -7.511
224.708 0.989 -8.438 0.147 81.519 0.147 81.519 0.989 -8.438
249.667 0.987 -9.361 0.163 80.592 0.163 80.592 0.987 -9.361
274.625 0.984 -10.279 0.178 79.669 0.178 79.669 0.984 -10.279
299.583 0.981 -11.193 0.194 78.751 0.194 78.751 0.981 -11.193
324.542 0.978 -12.101 0.21 77.837 0.21 77.837 0.978 -12.101
349.5 0.974 -13.004 0.225 76.93 0.225 76.93 0.974 -13.004
374.458 0.97 -13.9 0.24 76.028 0.24 76.028 0.97 -13.9
399.417 0.967 -14.791 0.255 75.133 0.255 75.133 0.967 -14.791
424.375 0.962 -15.675 0.27 74.244 0.27 74.244 0.962 -15.675
449.333 0.958 -16.552 0.285 73.363 0.285 73.363 0.958 -16.552
474.292 0.954 -17.422 0.299 72.488 0.299 72.488 0.954 -17.422
499.25 0.949 -18.284 0.314 71.621 0.314 71.621 0.949 -18.284
524.208 0.944 -19.139 0.328 70.761 0.328 70.761 0.944 -19.139
549.167 0.939 -19.986 0.342 69.91 0.342 69.91 0.939 -19.986
574.125 0.934 -20.824 0.356 69.066 0.356 69.066 0.934 -20.824
599.083 0.929 -21.655 0.369 68.231 0.369 68.231 0.929 -21.655
624.042 0.923 -22.477 0.382 67.404 0.382 67.404 0.923 -22.477
649 0.918 -23.29 0.395 66.586 0.395 66.586 0.918 -23.29
673.958 0.912 -24.094 0.408 65.777 0.408 65.777 0.912 -24.094
698.917 0.906 -24.889 0.421 64.977 0.421 64.977 0.906 -24.889
723.875 0.9 -25.675 0.433 64.186 0.433 64.186 0.9 -25.675
748.833 0.894 -26.453 0.445 63.404 0.445 63.404 0.894 -26.453
773.792 0.888 -27.22 0.457 62.631 0.457 62.631 0.888 -27.22
798.75 0.882 -27.979 0.469 61.868 0.469 61.868 0.882 -27.979
823.708 0.876 -28.728 0.481 61.114 0.481 61.114 0.876 -28.728
848.667 0.869 -29.467 0.492 60.37 0.492 60.37 0.869 -29.467
873.625 0.863 -30.198 0.503 59.635 0.503 59.635 0.863 -30.198
898.583 0.856 -30.918 0.514 58.909 0.514 58.909 0.856 -30.918
923.542 0.85 -31.629 0.524 58.193 0.524 58.193 0.85 -31.629
948.5 0.843 -32.331 0.535 57.487 0.535 57.487 0.843 -32.331
973.458 0.837 -33.023 0.545 56.79 0.545 56.79 0.837 -33.023
998.417 0.83 -33.706 0.555 56.102 0.555 56.102 0.83 -33.706
1023.375 0.823 -34.379 0.565 55.424 0.565 55.424 0.823 -34.379
1048.333 0.817 -35.043 0.574 54.755 0.574 54.755 0.817 -35.043
1073.292 0.81 -35.697 0.584 54.095 0.584 54.095 0.81 -35.697
1098.25 0.803 -36.343 0.593 53.445 0.593 53.445 0.803 -36.343
1123.208 0.797 -36.979 0.602 52.804 0.602 52.804 0.797 -36.979
1148.167 0.79 -37.606 0.61 52.172 0.61 52.172 0.79 -37.606
1173.125 0.783 -38.223 0.619 51.549 0.619 51.549 0.783 -38.223
1198.083 0.776 -38.832 0.627 50.935 0.627 50.935 0.776 -38.832
1223.042 0.77 -39.432 0.635 50.33 0.635 50.33 0.77 -39.432
1248 0.763 -40.023 0.643 49.734 0.643 49.734 0.763 -40.023
1272.958 0.756 -40.606 0.651 49.147 0.651 49.147 0.756 -40.606
1297.917 0.75 -41.179 0.658 48.568 0.658 48.568 0.75 -41.179
1322.875 0.743 -41.745 0.666 47.998 0.666 47.998 0.743 -41.745
1347.833 0.737 -42.302 0.673 47.436 0.673 47.436 0.737 -42.302
1372.792 0.73 -42.85 0.68 46.882 0.68 46.882 0.73 -42.85
1397.75 0.723 -43.39 0.687 46.336 0.687 46.336 0.723 -43.39
1422.708 0.717 -43.923 0.694 45.799 0.694 45.799 0.717 -43.923
1447.667 0.71 -44.447 0.7 45.269 0.7 45.269 0.71 -44.447
1472.625 0.704 -44.963 0.707 44.748 0.707 44.748 0.704 -44.963
1497.583 0.698 -45.472 0.713 44.234 0.713 44.234 0.698 -45.472
1522.542 0.691 -45.973 0.719 43.728 0.719 43.728 0.691 -45.973
1547.5 0.685 -46.467 0.725 43.229 0.725 43.229 0.685 -46.467
1572.458 0.679 -46.953 0.731 42.737 0.731 42.737 0.679 -46.953
1597.417 0.672 -47.432 0.736 42.253 0.736 42.253 0.672 -47.432
1622.375 0.666 -47.903 0.742 41.776 0.742 41.776 0.666 -47.903
1647.333 0.66 -48.368 0.747 41.306 0.747 41.306 0.66 -48.368
1672.292 0.654 -48.826 0.753 40.843 0.753 40.843 0.654 -48.826
1697.25 0.648 -49.277 0.758 40.387 0.758 40.387 0.648 -49.277
1722.208 0.642 -49.721 0.763 39.937 0.763 39.937 0.642 -49.721
1747.167 0.636 -50.158 0.768 39.494 0.768 39.494 0.636 -50.158
1772.125 0.63 -50.59 0.773 39.058 0.773 39.058 0.63 -50.59
1797.083 0.624 -51.014 0.777 38.628 0.777 38.628 0.624 -51.014
1822.042 0.618 -51.433 0.782 38.204 0.782 38.204 0.618 -51.433
1847 0.613 -51.845 0.786 37.786 0.786 37.786 0.613 -51.845
1871.958 0.607 -52.251 0.791 37.374 0.791 37.374 0.607 -52.251
1896.917 0.601 -52.652 0.795 36.968 0.795 36.968 0.601 -52.652
1921.875 0.596 -53.046 0.799 36.568 0.799 36.568 0.596 -53.046
1946.833 0.59 -53.435 0.803 36.173 0.803 36.173 0.59 -53.435
1971.792 0.585 -53.818 0.807 35.784 0.807 35.784 0.585 -53.818
1996.75 0.579 -54.196 0.811 35.401 0.811 35.401 0.579 -54.196
2021.708 0.574 -54.568 0.815 35.023 0.815 35.023 0.574 -54.568
2046.667 0.569 -54.935 0.819 34.651 0.819 34.651 0.569 -54.935
2071.625 0.563 -55.297 0.822 34.283 0.822 34.283 0.563 -55.297
2096.583 0.558 -55.654 0.826 33.921 0.826 33.921 0.558 -55.654
2121.542 0.553 -56.005 0.829 33.563 0.829 33.563 0.553 -56.005
2146.5 0.548 -56.352 0.832 33.211 0.832 33.211 0.548 -56.352
2171.458 0.543 -56.694 0.836 32.863 0.836 32.863 0.543 -56.694
2196.417 0.538 -57.031 0.839 32.52 0.839 32.52 0.538 -57.031
2221.375 0.533 -57.363 0.842 32.182 0.842 32.182 0.533 -57.363
2246.333 0.528 -57.691 0.845 31.848 0.845 31.848 0.528 -57.691
2271.292 0.523 -58.014 0.848 31.519 0.848 31.519 0.523 -58.014
2296.25 0.518 -58.333 0.851 31.194 0.851 31.194 0.518 -58.333
2321.208 0.513 -58.648 0.854 30.874 0.854 30.874 0.513 -58.648
2346.167 0.508 -58.958 0.857 30.557 0.857 30.557 0.508 -58.958
2371.125 0.504 -59.264 0.86 30.245 0.86 30.245 0.504 -59.264
2396.083 0.499 -59.566 0.862 29.937 0.862 29.937 0.499 -59.566
2421.042 0.494 -59.864 0.865 29.633 0.865 29.633 0.494 -59.864
2446 0.49 -60.158 0.867 29.333 0.867 29.333 0.49 -60.158
2470.958 0.485 -60.448 0.87 29.036 0.87 29.036 0.485 -60.448
2495.917 0.481 -60.734 0.872 28.744 0.872 28.744 0.481 -60.734
2520.875 0.476 -61.017 0.875 28.455 0.875 28.455 0.476 -61.017
2545.833 0.472 -61.296 0.877 28.17 0.877 28.17 0.472 -61.296
2570.792 0.468 -61.571 0.879 27.888 0.879 27.888 0.468 -61.571
2595.75 0.463 -61.843 0.882 27.61 0.882 27.61 0.463 -61.843
2620.708 0.459 -62.111 0.884 27.335 0.884 27.335 0.459 -62.111
2645.667 0.455 -62.376 0.886 27.064 0.886 27.064 0.455 -62.376
2670.625 0.451 -62.638 0.888 26.796 0.888 26.796 0.451 -62.638
2695.583 0.447 -62.896 0.89 26.531 0.89 26.531 0.447 -62.896
2720.542 0.443 -63.151 0.892 26.269 0.892 26.269 0.443 -63.151
2745.5 0.439 -63.403 0.894 26.011 0.894 26.011 0.439 -63.403
2770.458 0.435 -63.651 0.896 25.755 0.896 25.755 0.435 -63.651
2795.417 0.431 -63.897 0.898 25.503 0.898 25.503 0.431 -63.897
2820.375 0.427 -64.14 0.9 25.254 0.9 25.254 0.427 -64.14
2845.333 0.423 -64.379 0.902 25.007 0.902 25.007 0.423 -64.379
2870.292 0.419 -64.616 0.904 24.764 0.904 24.764 0.419 -64.616
2895.25 0.415 -64.85 0.905 24.523 0.905 24.523 0.415 -64.85
2920.208 0.411 -65.081 0.907 24.285 0.907 24.285 0.411 -65.081
2945.167 0.408 -65.309 0.909 24.049 0.909 24.049 0.408 -65.309
2970.125 0.404 -65.535 0.91 23.817 0.91 23.817 0.404 -65.535
2995.083 0.4 -65.758 0.912 23.587 0.912 23.587 0.4 -65.758
3020.042 0.397 -65.978 0.913 23.359 0.913 23.359 0.397 -65.978
3045 0.393 -66.196 0.915 23.134 0.915 23.134 0.393 -66.196
3069.958 0.389 -66.411 0.917 22.912 0.917 22.912 0.389 -66.411
3094.917 0.386 -66.624 0.918 22.692 0.918 22.692 0.386 -66.624
3119.875 0.382 -66.834 0.919 22.474 0.919 22.474 0.382 -66.834
3144.833 0.379 -67.042 0.921 22.259 0.921 22.259 0.379 -67.042
3169.792 0.375 -67.248 0.922 22.046 0.922 22.046 0.375 -67.248
3194.75 0.372 -67.451 0.924 21.835 0.924 21.835 0.372 -67.451
3219.708 0.369 -67.652 0.925 21.626 0.925 21.626 0.369 -67.652
3244.667 0.365 -67.85 0.926 21.42 0.926 21.42 0.365 -67.85
3269.625 0.362 -68.047 0.928 21.216 0.928 21.216 0.362 -68.047
3294.583 0.359 -68.241 0.929 21.014 0.929 21.014 0.359 -68.241
3319.542 0.355 -68.433 0.93 20.814 0.93 20.814 0.355 -68.433
3344.5 0.352 -68.623 0.931 20.616 0.931 20.616 0.352 -68.623
3369.458 0.349 -68.811 0.932 20.42 0.932 20.42 0.349 -68.811
3394.417 0.346 -68.997 0.934 20.226 0.934 20.226 0.346 -68.997
3419.375 0.343 -69.181 0.935 20.034 0.935 20.034 0.343 -69.181
3444.333 0.339 -69.363 0.936 19.844 0.936 19.844 0.339 -69.363
3469.292 0.336 -69.543 0.937 19.656 0.937 19.656 0.336 -69.543
3494.25 0.333 -69.721 0.938 19.47 0.938 19.47 0.333 -69.721
3519.208 0.33 -69.897 0.939 19.285 0.939 19.285 0.33 -69.897
3544.167 0.327 -70.071 0.94 19.102 0.94 19.102 0.327 -70.071
3569.125 0.324 -70.244 0.941 18.921 0.941 18.921 0.324 -70.244
3594.083 0.321 -70.414 0.942 18.742 0.942 18.742 0.321 -70.414
3619.042 0.318 -70.583 0.943 18.565 0.943 18.565 0.318 -70.583
3644 0.315 -70.75 0.944 18.389 0.944 18.389 0.315 -70.75
3668.958 0.313 -70.916 0.945 18.214 0.945 18.214 0.313 -70.916
3693.917 0.31 -71.079 0.946 18.042 0.946 18.042 0.31 -71.079
3718.875 0.307 -71.242 0.947 17.871 0.947 17.871 0.307 -71.242
3743.833 0.304 -71.402 0.948 17.701 0.948 17.701 0.304 -71.402
3768.792 0.301 -71.561 0.949 17.534 0.949 17.534 0.301 -71.561
3793.75 0.299 -71.718 0.95 17.367 0.95 17.367 0.299 -71.718
3818.708 0.296 -71.873 0.95 17.202 0.95 17.202 0.296 -71.873
3843.667 0.293 -72.027 0.951 17.039 0.951 17.039 0.293 -72.027
3868.625 0.29 -72.18 0.952 16.877 0.952 16.877 0.29 -72.18
3893.583 0.288 -72.331 0.953 16.716 0.953 16.716 0.288 -72.331
3918.542 0.285 -72.48 0.954 16.557 0.954 16.557 0.285 -72.48
3943.5 0.282 -72.628 0.955 16.4 0.955 16.4 0.282 -72.628
3968.458 0.28 -72.774 0.955 16.243 0.955 16.243 0.28 -72.774
3993.417 0.277 -72.919 0.956 16.088 0.956 16.088 0.277 -72.919
4018.375 0.275 -73.063 0.957 15.935 0.957 15.935 0.275 -73.063
4043.333 0.272 -73.205 0.957 15.782 0.957 15.782 0.272 -73.205
4068.292 0.269 -73.346 0.958 15.631 0.958 15.631 0.269 -73.346
4093.25 0.267 -73.486 0.959 15.481 0.959 15.481 0.267 -73.486
4118.208 0.264 -73.624 0.96 15.333 0.96 15.333 0.264 -73.624
4143.167 0.262 -73.76 0.96 15.185 0.96 15.185 0.262 -73.76
4168.125 0.26 -73.896 0.961 15.039 0.961 15.039 0.26 -73.896
4193.083 0.257 -74.03 0.962 14.894 0.962 14.894 0.257 -74.03
4218.042 0.255 -74.163 0.962 14.75 0.962 14.75 0.255 -74.163
4243 0.252 -74.294 0.963 14.607 0.963 14.607 0.252 -74.294
4267.958 0.25 -74.425 0.963 14.466 0.963 14.466 0.25 -74.425
4292.917 0.247 -74.554 0.964 14.325 0.964 14.325 0.247 -74.554
4317.875 0.245 -74.682 0.965 14.186 0.965 14.186 0.245 -74.682
4342.833 0.243 -74.808 0.965 14.048 0.965 14.048 0.243 -74.808
4367.792 0.24 -74.934 0.966 13.911 0.966 13.911 0.24 -74.934
4392.75 0.238 -75.058 0.966 13.775 0.966 13.775 0.238 -75.058
4417.708 0.236 -75.181 0.967 13.64 0.967 13.64 0.236 -75.181
4442.667 0.234 -75.303 0.967 13.506 0.967 13.506 0.234 -75.303
4467.625 0.231 -75.424 0.968 13.373 0.968 13.373 0.231 -75.424
4492.583 0.229 -75.543 0.969 13.24 0.969 13.24 0.229 -75.543
4517.542 0.227 -75.662 0.969 13.109 0.969 13.109 0.227 -75.662
4542.5 0.225 -75.779 0.97 12.979 0.97 12.979 0.225 -75.779
4567.458 0.222 -75.895 0.97 12.85 0.97 12.85 0.222 -75.895
4592.417 0.22 -76.01 0.971 12.722 0.971 12.722 0.22 -76.01
4617.375 0.218 -76.124 0.971 12.595 0.971 12.595 0.218 -76.124
4642.333 0.216 -76.237 0.972 12.468 0.972 12.468 0.216 -76.237
4667.292 0.214 -76.349 0.972 12.343 0.972 12.343 0.214 -76.349
4692.25 0.212 -76.46 0.972 12.218 0.972 12.218 0.212 -76.46
4717.208 0.21 -76.57 0.973 12.095 0.973 12.095 0.21 -76.57
4742.167 0.207 -76.678 0.973 11.972 0.973 11.972 0.207 -76.678
4767.125 0.205 -76.786 0.974 11.85 0.974 11.85 0.205 -76.786
4792.083 0.203 -76.893 0.974 11.729 0.974 11.729 0.203 -76.893
4817.042 0.201 -76.998 0.975 11.609 0.975 11.609 0.201 -76.998
4842 0.199 -77.103 0.975 11.489 0.975 11.489 0.199 -77.103
4866.958 0.197 -77.206 0.975 11.371 0.975 11.371 0.197 -77.206
4891.917 0.195 -77.309 0.976 11.253 0.976 11.253 0.195 -77.309
4916.875 0.193 -77.41 0.976 11.136 0.976 11.136 0.193 -77.41
4941.833 0.191 -77.511 0.977 11.02 0.977 11.02 0.191 -77.511
4966.792 0.189 -77.611 0.977 10.904 0.977 10.904 0.189 -77.611
4991.75 0.187 -77.709 0.977 10.789 0.977 10.789 0.187 -77.709
5016.708 0.185 -77.807 0.978 10.675 0.978 10.675 0.185 -77.807
5041.667 0.183 -77.903 0.978 10.562 0.978 10.562 0.183 -77.903
5066.625 0.181 -77.999 0.979 10.45 0.979 10.45 0.181 -77.999
5091.583 0.18 -78.094 0.979 10.338 0.979 10.338 0.18 -78.094
5116.542 0.178 -78.187 0.979 10.227 0.979 10.227 0.178 -78.187
5141.5 0.176 -78.28 0.98 10.116 0.98 10.116 0.176 -78.28
5166.458 0.174 -78.372 0.98 10.007 0.98 10.007 0.174 -78.372
5191.417 0.172 -78.463 0.98 9.898 0.98 9.898 0.172 -78.463
5216.375 0.17 -78.552 0.981 9.789 0.981 9.789 0.17 -78.552
5241.333 0.168 -78.641 0.981 9.682 0.981 9.682 0.168 -78.641
5266.292 0.166 -78.729 0.981 9.574 0.981 9.574 0.166 -78.729
5291.25 0.165 -78.816 0.981 9.468 0.981 9.468 0.165 -78.816
5316.208 0.163 -78.902 0.982 9.362 0.982 9.362 0.163 -78.902
5341.167 0.161 -78.987 0.982 9.257 0.982 9.257 0.161 -78.987
5366.125 0.159 -79.071 0.982 9.153 0.982 9.153 0.159 -79.071
5391.083 0.157 -79.154 0.983 9.049 0.983 9.049 0.157 -79.154
5416.042 0.156 -79.237 0.983 8.946 0.983 8.946 0.156 -79.237
5441 0.154 -79.318 0.983 8.843 0.983 8.843 0.154 -79.318
5465.958 0.152 -79.398 0.983 8.741 0.983 8.741 0.152 -79.398
5490.917 0.15 -79.477 0.984 8.64 0.984 8.64 0.15 -79.477
5515.875 0.149 -79.556 0.984 8.539 0.984 8.539 0.149 -79.556
5540.833 0.147 -79.633 0.984 8.438 0.984 8.438 0.147 -79.633
5565.792 0.145 -79.709 0.984 8.339 0.984 8.339 0.145 -79.709
5590.75 0.143 -79.785 0.985 8.24 0.985 8.24 0.143 -79.785
5615.708 0.142 -79.859 0.985 8.141 0.985 8.141 0.142 -79.859
5640.667 0.14 -79.932 0.985 8.043 0.985 8.043 0.14 -79.932
5665.625 0.138 -80.005 0.985 7.945 0.985 7.945 0.138 -80.005
5690.583 0.137 -80.076 0.986 7.848 0.986 7.848 0.137 -80.076
5715.542 0.135 -80.147 0.986 7.752 0.986 7.752 0.135 -80.147
5740.5 0.133 -80.216 0.986 7.656 0.986 7.656 0.133 -80.216
5765.458 0.132 -80.284 0.986 7.561 0.986 7.561 0.132 -80.284
5790.417 0.13 -80.351 0.987 7.466 0.987 7.466 0.13 -80.351
5815.375 0.128 -80.417 0.987 7.371 0.987 7.371 0.128 -80.417
5840.333 0.127 -80.483 0.987 7.277 0.987 7.277 0.127 -80.483
5865.292 0.125 -80.547 0.987 7.184 0.987 7.184 0.125 -80.547
5890.25 0.124 -80.609 0.987 7.091 0.987 7.091 0.124 -80.609
5915.208 0.122 -80.671 0.988 6.999 0.988 6.999 0.122 -80.671
5940.167 0.12 -80.732 0.988 6.907 0.988 6.907 0.12 -80.732
5965.125 0.119 -80.791 0.988 6.815 0.988 6.815 0.119 -80.791
5990.083 0.117 -80.85 0.988 6.724 0.988 6.724 0.117 -80.85
6015.042 0.116 -80.907 0.988 6.633 0.988 6.633 0.116 -80.907
6040 0.114 -80.963 0.989 6.543 0.989 6.543 0.114 -80.963
6064.958 0.113 -81.018 0.989 6.454 0.989 6.454 0.113 -81.018
6089.917 0.111 -81.071 0.989 6.364 0.989 6.364 0.111 -81.071
6114.875 0.109 -81.124 0.989 6.276 0.989 6.276 0.109 -81.124
6139.833 0.108 -81.175 0.989 6.187 0.989 6.187 0.108 -81.175
6164.792 0.106 -81.224 0.989 6.099 0.989 6.099 0.106 -81.224
6189.75 0.105 -81.272 0.99 6.012 0.99 6.012 0.105 -81.272
6214.708 0.103 -81.319 0.99 5.925 0.99 5.925 0.103 -81.319
6239.667 0.102 -81.365 0.99 5.838 0.99 5.838 0.102 -81.365
6264.625 0.1 -81.409 0.99 5.752 0.99 5.752 0.1 -81.409
6289.583 0.099 -81.452 0.99 5.666 0.99 5.666 0.099 -81.452
6314.542 0.097 -81.493 0.99 5.581 0.99 5.581 0.097 -81.493
6339.5 0.096 -81.532 0.99 5.496 0.99 5.496 0.096 -81.532
6364.458 0.094 -81.57 0.991 5.411 0.991 5.411 0.094 -81.57
6389.417 0.093 -81.607 0.991 5.327 0.991 5.327 0.093 -81.607
6414.375 0.092 -81.641 0.991 5.243 0.991 5.243 0.092 -81.641
6439.333 0.09 -81.674 0.991 5.159 0.991 5.159 0.09 -81.674
6464.292 0.089 -81.705 0.991 5.076 0.991 5.076 0.089 -81.705
6489.25 0.087 -81.734 0.991 4.993 0.991 4.993 0.087 -81.734
6514.208 0.086 -81.762 0.991 4.911 0.991 4.911 0.086 -81.762
6539.167 0.084 -81.787 0.991 4.829 0.991 4.829 0.084 -81.787
6564.125 0.083 -81.81 0.992 4.747 0.992 4.747 0.083 -81.81
6589.083 0.082 -81.832 0.992 4.666 0.992 4.666 0.082 -81.832
6614.042 0.08 -81.851 0.992 4.585 0.992 4.585 0.08 -81.851
6639 0.079 -81.867 0.992 4.505 0.992 4.505 0.079 -81.867
6663.958 0.077 -81.882 0.992 4.424 0.992 4.424 0.077 -81.882
6688.917 0.076 -81.894 0.992 4.345 0.992 4.345 0.076 -81.894
6713.875 0.075 -81.903 0.992 4.265 0.992 4.265 0.075 -81.903
6738.833 0.073 -81.91 0.992 4.186 0.992 4.186 0.073 -81.91
6763.792 0.072 -81.913 0.992 4.107 0.992 4.107 0.072 -81.913
6788.75 0.07 -81.914 0.993 4.028 0.993 4.028 0.07 -81.914
6813.708 0.069 -81.912 0.993 3.95 0.993 3.95 0.069 -81.912
6838.667 0.068 -81.907 0.993 3.872 0.993 3.872 0.068 -81.907
6863.625 0.066 -81.898 0.993 3.795 0.993 3.795 0.066 -81.898
6888.583 0.065 -81.886 0.993 3.718 0.993 3.718 0.065 -81.886
6913.542 0.064 -81.87 0.993 3.641 0.993 3.641 0.064 -81.87
6938.5 0.062 -81.851 0.993 3.564 0.993 3.564 0.062 -81.851
6963.458 0.061 -81.827 0.993 3.488 0.993 3.488 0.061 -81.827
6988.417 0.06 -81.799 0.993 3.412 0.993 3.412 0.06 -81.799
7013.375 0.058 -81.766 0.993 3.336 0.993 3.336 0.058 -81.766
7038.333 0.057 -81.728 0.993 3.261 0.993 3.261 0.057 -81.728
7063.292 0.056 -81.686 0.993 3.185 0.993 3.185 0.056 -81.686
7088.25 0.054 -81.638 0.994 3.111 0.994 3.111 0.054 -81.638
7113.208 0.053 -81.584 0.994 3.036 0.994 3.036 0.053 -81.584
7138.167 0.052 -81.524 0.994 2.962 0.994 2.962 0.052 -81.524
7163.125 0.051 -81.457 0.994 2.888 0.994 2.888 0.051 -81.457
7188.083 0.049 -81.383 0.994 2.814 0.994 2.814 0.049 -81.383
7213.042 0.048 -81.302 0.994 2.741 0.994 2.741 0.048 -81.302
7238 0.047 -81.213 0.994 2.668 0.994 2.668 0.047 -81.213
7262.958 0.046 -81.115 0.994 2.595 0.994 2.595 0.046 -81.115
7287.917 0.044 -81.008 0.994 2.522 0.994 2.522 0.044 -81.008
7312.875 0.043 -80.891 0.994 2.45 0.994 2.45 0.043 -80.891
7337.833 0.042 -80.763 0.994 2.378 0.994 2.378 0.042 -80.763
7362.792 0.041 -80.623 0.994 2.306 0.994 2.306 0.041 -80.623
7387.75 0.039 -80.471 0.994 2.235 0.994 2.235 0.039 -80.471
7412.708 0.038 -80.304 0.994 2.164 0.994 2.164 0.038 -80.304
7437.667 0.037 -80.123 0.994 2.093 0.994 2.093 0.037 -80.123
7462.625 0.036 -79.924 0.994 2.022 0.994 2.022 0.036 -79.924
7487.583 0.034 -79.708 0.994 1.951 0.994 1.951 0.034 -79.708
7512.542 0.033 -79.471 0.994 1.881 0.994 1.881 0.033 -79.471
7537.5 0.032 -79.212 0.995 1.811 0.995 1.811 0.032 -79.212
7562.458 0.031 -78.928 0.995 1.741 0.995 1.741 0.031 -78.928
7587.417 0.03 -78.617 0.995 1.672 0.995 1.672 0.03 -78.617
7612.375 0.028 -78.275 0.995 1.603 0.995 1.603 0.028 -78.275
7637.333 0.027 -77.898 0.995 1.534 0.995 1.534 0.027 -77.898
7662.292 0.026 -77.483 0.995 1.465 0.995 1.465 0.026 -77.483
7687.25 0.025 -77.023 0.995 1.396 0.995 1.396 0.025 -77.023
7712.208 0.024 -76.513 0.995 1.328 0.995 1.328 0.024 -76.513
7737.167 0.023 -75.945 0.995 1.26 0.995 1.26 0.023 -75.945
7762.125 0.021 -75.31 0.995 1.192 0.995 1.192 0.021 -75.31
7787.083 0.02 -74.599 0.995 1.125 0.995 1.125 0.02 -74.599
7812.042 0.019 -73.796 0.995 1.057 0.995 1.057 0.019 -73.796
7837 0.018 -72.887 0.995 0.99 0.995 0.99 0.018 -72.887
7861.958 0.017 -71.852 0.995 0.923 0.995 0.923 0.017 -71.852
7886.917 0.016 -70.665 0.995 0.856 0.995 0.856 0.016 -70.665
7911.875 0.015 -69.293 0.995 0.79 0.995 0.79 0.015 -69.293
7936.833 0.014 -67.696 0.995 0.724 0.995 0.724 0.014 -67.696
7961.792 0.013 -65.819 0.995 0.657 0.995 0.657 0.013 -65.819
7986.75 0.011 -63.592 0.995 0.592 0.995 0.592 0.011 -63.592
8011.708 0.01 -60.92 0.995 0.526 0.995 0.526 0.01 -60.92
8036.667 9.463e-3 -57.678 0.995 0.46 0.995 0.46 9.463e-3 -57.678
8061.625 8.517e-3 -53.696 0.995 0.395 0.995 0.395 8.517e-3 -53.696
8086.583 7.627e-3 -48.752 0.995 0.33 0.995 0.33 7.627e-3 -48.752
8111.542 6.812e-3 -42.57 0.995 0.265 0.995 0.265 6.812e-3 -42.57
8136.5 6.101e-3 -34.842 0.995 0.201 0.995 0.201 6.101e-3 -34.842
8161.458 5.533e-3 -25.326 0.995 0.136 0.995 0.136 5.533e-3 -25.326
8186.417 5.151e-3 -14.056 0.995 0.072 0.995 0.072 5.151e-3 -14.056
