# MHZ S MA R 50

50 1 -0.99 0.017 89.002 0.017 89.002 1 -0.99
74.958 1 -1.484 0.026 88.504 0.026 88.504 1 -1.484
99.917 0.999 -1.978 0.035 88.006 0.035 88.006 0.999 -1.978
124.875 0.999 -2.471 0.043 87.509 0.043 87.509 0.999 -2.471
149.833 0.999 -2.965 0.052 87.012 0.052 87.012 0.999 -2.965
174.792 0.998 -3.457 0.06 86.515 0.06 86.515 0.998 -3.457
199.75 0.998 -3.95 0.069 86.018 0.069 86.018 0.998 -3.95
224.708 0.997 -4.442 0.077 85.522 0.077 85.522 0.997 -4.442
249.667 0.996 -4.933 0.086 85.027 0.086 85.027 0.996 -4.933
274.625 0.995 -5.424 0.095 84.532 0.095 84.532 0.995 -5.424
299.583 0.995 -5.915 0.103 84.038 0.103 84.038 0.995 -5.915
324.542 0.994 -6.404 0.112 83.544 0.112 83.544 0.994 -6.404
349.5 0.993 -6.893 0.12 83.051 0.12 83.051 0.993 -6.893
374.458 0.992 -7.381 0.128 82.559 0.128 82.559 0.992 -7.381
399.417 0.99 -7.868 0.137 82.068 0.137 82.068 0.99 -7.868
424.375 0.989 -8.354 0.145 81.578 0.145 81.578 0.989 -8.354
449.333 0.988 -8.839 0.154 81.089 0.154 81.089 0.988 -8.839
474.292 0.987 -9.323 0.162 80.601 0.162 80.601 0.987 -9.323
499.25 0.985 -9.806 0.17 80.114 0.17 80.114 0.985 -9.806
524.208 0.984 -10.288 0.179 79.628 0.179 79.628 0.984 -10.288
549.167 0.982 -10.769 0.187 79.143 0.187 79.143 0.982 -10.769
574.125 0.98 -11.249 0.195 78.66 0.195 78.66 0.98 -11.249
599.083 0.979 -11.727 0.203 78.177 0.203 78.177 0.979 -11.727
624.042 0.977 -12.204 0.211 77.697 0.211 77.697 0.977 -12.204
649 0.975 -12.679 0.219 77.217 0.219 77.217 0.975 -12.679
673.958 0.973 -13.153 0.228 76.739 0.228 76.739 0.973 -13.153
698.917 0.971 -13.626 0.236 76.262 0.236 76.262 0.971 -13.626
723.875 0.969 -14.097 0.244 75.787 0.244 75.787 0.969 -14.097
748.833 0.967 -14.566 0.252 75.314 0.252 75.314 0.967 -14.566
773.792 0.965 -15.034 0.259 74.842 0.259 74.842 0.965 -15.034
798.75 0.963 -15.501 0.267 74.372 0.267 74.372 0.963 -15.501
823.708 0.961 -15.965 0.275 73.903 0.275 73.903 0.961 -15.965
848.667 0.959 -16.428 0.283 73.436 0.283 73.436 0.959 -16.428
873.625 0.956 -16.889 0.291 72.971 0.291 72.971 0.956 -16.889
898.583 0.954 -17.348 0.298 72.508 0.298 72.508 0.954 -17.348
923.542 0.951 -17.806 0.306 72.046 0.306 72.046 0.951 -17.806
948.5 0.949 -18.261 0.313 71.586 0.313 71.586 0.949 -18.261
973.458 0.946 -18.715 0.321 71.129 0.321 71.129 0.946 -18.715
998.417 0.944 -19.167 0.328 70.673 0.328 70.673 0.944 -19.167
1023.375 0.941 -19.617 0.336 70.219 0.336 70.219 0.941 -19.617
1048.333 0.938 -20.064 0.343 69.767 0.343 69.767 0.938 -20.064
1073.292 0.936 -20.51 0.35 69.317 0.35 69.317 0.936 -20.51
1098.25 0.933 -20.954 0.358 68.87 0.358 68.87 0.933 -20.954
1123.208 0.93 -21.395 0.365 68.424 0.365 68.424 0.93 -21.395
1148.167 0.927 -21.835 0.372 67.98 0.372 67.98 0.927 -21.835
1173.125 0.924 -22.272 0.379 67.539 0.379 67.539 0.924 -22.272
1198.083 0.921 -22.707 0.386 67.1 0.386 67.1 0.921 -22.707
1223.042 0.918 -23.14 0.393 66.662 0.393 66.662 0.918 -23.14
1248 0.915 -23.571 0.4 66.227 0.4 66.227 0.915 -23.571
1272.958 0.912 -24 0.407 65.795 0.407 65.795 0.912 -24
1297.917 0.909 -24.426 0.414 65.364 0.414 65.364 0.909 -24.426
1322.875 0.906 -24.85 0.42 64.936 0.42 64.936 0.906 -24.85
1347.833 0.903 -25.272 0.427 64.51 0.427 64.51 0.903 -25.272
1372.792 0.899 -25.692 0.434 64.086 0.434 64.086 0.899 -25.692
1397.75 0.896 -26.109 0.44 63.665 0.44 63.665 0.896 -26.109
1422.708 0.893 -26.524 0.447 63.246 0.447 63.246 0.893 -26.524
1447.667 0.89 -26.937 0.453 62.829 0.453 62.829 0.89 -26.937
1472.625 0.886 -27.347 0.459 62.414 0.459 62.414 0.886 -27.347
1497.583 0.883 -27.755 0.466 62.002 0.466 62.002 0.883 -27.755
1522.542 0.88 -28.16 0.472 61.593 0.472 61.593 0.88 -28.16
1547.5 0.876 -28.563 0.478 61.185 0.478 61.185 0.876 -28.563
1572.458 0.873 -28.964 0.484 60.78 0.484 60.78 0.873 -28.964
1597.417 0.869 -29.362 0.49 60.378 0.49 60.378 0.869 -29.362
1622.375 0.866 -29.758 0.496 59.977 0.496 59.977 0.866 -29.758
1647.333 0.862 -30.152 0.502 59.58 0.502 59.58 0.862 -30.152
1672.292 0.859 -30.543 0.508 59.184 0.508 59.184 0.859 -30.543
1697.25 0.855 -30.932 0.514 58.791 0.514 58.791 0.855 -30.932
1722.208 0.852 -31.318 0.52 58.401 0.52 58.401 0.852 -31.318
1747.167 0.848 -31.702 0.526 58.012 0.526 58.012 0.848 -31.702
1772.125 0.845 -32.084 0.531 57.627 0.531 57.627 0.845 -32.084
1797.083 0.841 -32.463 0.537 57.243 0.537 57.243 0.841 -32.463
1822.042 0.837 -32.839 0.542 56.862 0.542 56.862 0.837 -32.839
1847 0.834 -33.214 0.548 56.484 0.548 56.484 0.834 -33.214
1871.958 0.83 -33.586 0.553 56.107 0.553 56.107 0.83 -33.586
1896.917 0.826 -33.955 0.559 55.734 0.559 55.734 0.826 -33.955
1921.875 0.823 -34.322 0.564 55.362 0.564 55.362 0.823 -34.322
1946.833 0.819 -34.686 0.569 54.993 0.569 54.993 0.819 -34.686
1971.792 0.815 -35.049 0.574 54.627 0.574 54.627 0.815 -35.049
1996.75 0.812 -35.408 0.579 54.263 0.579 54.263 0.812 -35.408
2021.708 0.808 -35.766 0.584 53.901 0.584 53.901 0.808 -35.766
2046.667 0.804 -36.121 0.589 53.542 0.589 53.542 0.804 -36.121
2071.625 0.801 -36.473 0.594 53.185 0.594 53.185 0.801 -36.473
2096.583 0.797 -36.823 0.599 52.83 0.599 52.83 0.797 -36.823
2121.542 0.793 -37.171 0.604 52.478 0.604 52.478 0.793 -37.171
2146.5 0.789 -37.517 0.609 52.128 0.609 52.128 0.789 -37.517
2171.458 0.786 -37.86 0.614 51.78 0.614 51.78 0.786 -37.86
2196.417 0.782 -38.2 0.618 51.435 0.618 51.435 0.782 -38.2
2221.375 0.778 -38.539 0.623 51.092 0.623 51.092 0.778 -38.539
2246.333 0.774 -38.875 0.628 50.752 0.628 50.752 0.774 -38.875
2271.292 0.771 -39.208 0.632 50.414 0.632 50.414 0.771 -39.208
2296.25 0.767 -39.54 0.637 50.078 0.637 50.078 0.767 -39.54
2321.208 0.763 -39.869 0.641 49.744 0.641 49.744 0.763 -39.869
2346.167 0.759 -40.196 0.645 49.413 0.645 49.413 0.759 -40.196
2371.125 0.756 -40.52 0.65 49.084 0.65 49.084 0.756 -40.52
2396.083 0.752 -40.842 0.654 48.757 0.654 48.757 0.752 -40.842
2421.042 0.748 -41.162 0.658 48.432 0.658 48.432 0.748 -41.162
2446 0.744 -41.48 0.662 48.11 0.662 48.11 0.744 -41.48
2470.958 0.741 -41.796 0.666 47.79 0.666 47.79 0.741 -41.796
2495.917 0.737 -42.109 0.671 47.472 0.671 47.472 0.737 -42.109
2520.875 0.733 -42.42 0.675 47.156 0.675 47.156 0.733 -42.42
2545.833 0.73 -42.729 0.679 46.843 0.679 46.843 0.73 -42.729
2570.792 0.726 -43.035 0.682 46.532 0.682 46.532 0.726 -43.035
2595.75 0.722 -43.34 0.686 46.222 0.686 46.222 0.722 -43.34
2620.708 0.718 -43.642 0.69 45.916 0.69 45.916 0.718 -43.642
2645.667 0.715 -43.942 0.694 45.611 0.694 45.611 0.715 -43.942
2670.625 0.711 -44.24 0.698 45.308 0.698 45.308 0.711 -44.24
2695.583 0.707 -44.536 0.701 45.007 0.701 45.007 0.707 -44.536
2720.542 0.704 -44.829 0.705 44.709 0.705 44.709 0.704 -44.829
2745.5 0.7 -45.121 0.709 44.412 0.709 44.412 0.7 -45.121
2770.458 0.696 -45.411 0.712 44.118 0.712 44.118 0.696 -45.411
2795.417 0.692 -45.698 0.716 43.826 0.716 43.826 0.692 -45.698
2820.375 0.689 -45.984 0.719 43.535 0.719 43.535 0.689 -45.984
2845.333 0.685 -46.267 0.723 43.247 0.723 43.247 0.685 -46.267
2870.292 0.682 -46.548 0.726 42.961 0.726 42.961 0.682 -46.548
2895.25 0.678 -46.828 0.729 42.677 0.729 42.677 0.678 -46.828
2920.208 0.674 -47.105 0.733 42.395 0.733 42.395 0.674 -47.105
2945.167 0.671 -47.38 0.736 42.114 0.736 42.114 0.671 -47.38
2970.125 0.667 -47.654 0.739 41.836 0.739 41.836 0.667 -47.654
2995.083 0.663 -47.925 0.742 41.559 0.742 41.559 0.663 -47.925
3020.042 0.66 -48.194 0.745 41.285 0.745 41.285 0.66 -48.194
3045 0.656 -48.462 0.749 41.012 0.749 41.012 0.656 -48.462
3069.958 0.653 -48.728 0.752 40.742 0.752 40.742 0.653 -48.728
3094.917 0.649 -48.991 0.755 40.473 0.755 40.473 0.649 -48.991
3119.875 0.646 -49.253 0.758 40.206 0.758 40.206 0.646 -49.253
3144.833 0.642 -49.513 0.761 39.941 0.761 39.941 0.642 -49.513
3169.792 0.638 -49.771 0.764 39.678 0.764 39.678 0.638 -49.771
3194.75 0.635 -50.028 0.766 39.416 0.766 39.416 0.635 -50.028
3219.708 0.631 -50.282 0.769 39.157 0.769 39.157 0.631 -50.282
3244.667 0.628 -50.535 0.772 38.899 0.772 38.899 0.628 -50.535
3269.625 0.624 -50.786 0.775 38.643 0.775 38.643 0.624 -50.786
3294.583 0.621 -51.035 0.778 38.388 0.778 38.388 0.621 -51.035
3319.542 0.618 -51.282 0.78 38.136 0.78 38.136 0.618 -51.282
3344.5 0.614 -51.528 0.783 37.885 0.783 37.885 0.614 -51.528
3369.458 0.611 -51.771 0.786 37.636 0.786 37.636 0.611 -51.771
3394.417 0.607 -52.014 0.788 37.388 0.788 37.388 0.607 -52.014
3419.375 0.604 -52.254 0.791 37.143 0.791 37.143 0.604 -52.254
3444.333 0.6 -52.493 0.793 36.899 0.793 36.899 0.6 -52.493
3469.292 0.597 -52.73 0.796 36.656 0.796 36.656 0.597 -52.73
3494.25 0.594 -52.965 0.798 36.415 0.798 36.415 0.594 -52.965
3519.208 0.59 -53.199 0.801 36.176 0.801 36.176 0.59 -53.199
3544.167 0.587 -53.431 0.803 35.939 0.803 35.939 0.587 -53.431
3569.125 0.584 -53.661 0.806 35.703 0.806 35.703 0.584 -53.661
3594.083 0.58 -53.89 0.808 35.469 0.808 35.469 0.58 -53.89
3619.042 0.577 -54.117 0.81 35.236 0.81 35.236 0.577 -54.117
3644 0.574 -54.343 0.813 35.005 0.813 35.005 0.574 -54.343
3668.958 0.57 -54.567 0.815 34.775 0.815 34.775 0.57 -54.567
3693.917 0.567 -54.789 0.817 34.547 0.817 34.547 0.567 -54.789
3718.875 0.564 -55.01 0.819 34.32 0.819 34.32 0.564 -55.01
3743.833 0.561 -55.23 0.822 34.095 0.822 34.095 0.561 -55.23
3768.792 0.557 -55.448 0.824 33.871 0.824 33.871 0.557 -55.448
3793.75 0.554 -55.664 0.826 33.649 0.826 33.649 0.554 -55.664
3818.708 0.551 -55.879 0.828 33.429 0.828 33.429 0.551 -55.879
3843.667 0.548 -56.093 0.83 33.209 0.83 33.209 0.548 -56.093
3868.625 0.545 -56.305 0.832 32.991 0.832 32.991 0.545 -56.305
3893.583 0.541 -56.515 0.834 32.775 0.834 32.775 0.541 -56.515
3918.542 0.538 -56.724 0.836 32.56 0.836 32.56 0.538 -56.724
3943.5 0.535 -56.932 0.838 32.346 0.838 32.346 0.535 -56.932
3968.458 0.532 -57.138 0.84 32.134 0.84 32.134 0.532 -57.138
3993.417 0.529 -57.343 0.842 31.923 0.842 31.923 0.529 -57.343
4018.375 0.526 -57.546 0.844 31.714 0.844 31.714 0.526 -57.546
4043.333 0.523 -57.749 0.846 31.506 0.846 31.506 0.523 -57.749
4068.292 0.52 -57.949 0.848 31.299 0.848 31.299 0.52 -57.949
4093.25 0.516 -58.149 0.849 31.094 0.849 31.094 0.516 -58.149
4118.208 0.513 -58.347 0.851 30.889 0.851 30.889 0.513 -58.347
4143.167 0.51 -58.543 0.853 30.686 0.853 30.686 0.51 -58.543
4168.125 0.507 -58.739 0.855 30.485 0.855 30.485 0.507 -58.739
4193.083 0.504 -58.933 0.857 30.285 0.857 30.285 0.504 -58.933
4218.042 0.501 -59.126 0.858 30.085 0.858 30.085 0.501 -59.126
4243 0.498 -59.317 0.86 29.888 0.86 29.888 0.498 -59.317
4267.958 0.495 -59.507 0.862 29.691 0.862 29.691 0.495 -59.507
4292.917 0.492 -59.696 0.863 29.496 0.863 29.496 0.492 -59.696
4317.875 0.489 -59.884 0.865 29.302 0.865 29.302 0.489 -59.884
4342.833 0.487 -60.071 0.867 29.109 0.867 29.109 0.487 -60.071
4367.792 0.484 -60.256 0.868 28.917 0.868 28.917 0.484 -60.256
4392.75 0.481 -60.44 0.87 28.726 0.87 28.726 0.481 -60.44
4417.708 0.478 -60.623 0.872 28.537 0.872 28.537 0.478 -60.623
4442.667 0.475 -60.804 0.873 28.349 0.873 28.349 0.475 -60.804
4467.625 0.472 -60.985 0.875 28.162 0.875 28.162 0.472 -60.985
4492.583 0.469 -61.164 0.876 27.976 0.876 27.976 0.469 -61.164
4517.542 0.466 -61.342 0.878 27.791 0.878 27.791 0.466 -61.342
4542.5 0.463 -61.519 0.879 27.607 0.879 27.607 0.463 -61.519
4567.458 0.461 -61.695 0.881 27.424 0.881 27.424 0.461 -61.695
4592.417 0.458 -61.869 0.882 27.243 0.882 27.243 0.458 -61.869
4617.375 0.455 -62.043 0.883 27.062 0.883 27.062 0.455 -62.043
4642.333 0.452 -62.215 0.885 26.883 0.885 26.883 0.452 -62.215
4667.292 0.449 -62.387 0.886 26.705 0.886 26.705 0.449 -62.387
4692.25 0.447 -62.557 0.888 26.528 0.888 26.528 0.447 -62.557
4717.208 0.444 -62.726 0.889 26.351 0.889 26.351 0.444 -62.726
4742.167 0.441 -62.894 0.89 26.176 0.89 26.176 0.441 -62.894
4767.125 0.438 -63.061 0.892 26.002 0.892 26.002 0.438 -63.061
4792.083 0.436 -63.227 0.893 25.829 0.893 25.829 0.436 -63.227
4817.042 0.433 -63.392 0.894 25.657 0.894 25.657 0.433 -63.392
4842 0.43 -63.556 0.895 25.486 0.895 25.486 0.43 -63.556
4866.958 0.428 -63.718 0.897 25.316 0.897 25.316 0.428 -63.718
4891.917 0.425 -63.88 0.898 25.146 0.898 25.146 0.425 -63.88
4916.875 0.422 -64.041 0.899 24.978 0.899 24.978 0.422 -64.041
4941.833 0.42 -64.201 0.9 24.811 0.9 24.811 0.42 -64.201
4966.792 0.417 -64.359 0.902 24.645 0.902 24.645 0.417 -64.359
4991.75 0.414 -64.517 0.903 24.479 0.903 24.479 0.414 -64.517
5016.708 0.412 -64.674 0.904 24.315 0.904 24.315 0.412 -64.674
5041.667 0.409 -64.83 0.905 24.151 0.905 24.151 0.409 -64.83
5066.625 0.407 -64.984 0.906 23.989 0.906 23.989 0.407 -64.984
5091.583 0.404 -65.138 0.907 23.827 0.907 23.827 0.404 -65.138
5116.542 0.401 -65.291 0.909 23.666 0.909 23.666 0.401 -65.291
5141.5 0.399 -65.443 0.91 23.506 0.91 23.506 0.399 -65.443
5166.458 0.396 -65.594 0.911 23.347 0.911 23.347 0.396 -65.594
5191.417 0.394 -65.744 0.912 23.189 0.912 23.189 0.394 -65.744
5216.375 0.391 -65.893 0.913 23.032 0.913 23.032 0.391 -65.893
5241.333 0.389 -66.041 0.914 22.876 0.914 22.876 0.389 -66.041
5266.292 0.386 -66.189 0.915 22.72 0.915 22.72 0.386 -66.189
5291.25 0.384 -66.335 0.916 22.565 0.916 22.565 0.384 -66.335
5316.208 0.381 -66.48 0.917 22.411 0.917 22.411 0.381 -66.48
5341.167 0.379 -66.625 0.918 22.258 0.918 22.258 0.379 -66.625
5366.125 0.376 -66.769 0.919 22.106 0.919 22.106 0.376 -66.769
5391.083 0.374 -66.912 0.92 21.955 0.92 21.955 0.374 -66.912
5416.042 0.372 -67.054 0.921 21.804 0.921 21.804 0.372 -67.054
5441 0.369 -67.195 0.922 21.654 0.922 21.654 0.369 -67.195
5465.958 0.367 -67.335 0.923 21.505 0.923 21.505 0.367 -67.335
5490.917 0.364 -67.474 0.924 21.357 0.924 21.357 0.364 -67.474
5515.875 0.362 -67.613 0.925 21.21 0.925 21.21 0.362 -67.613
5540.833 0.359 -67.751 0.926 21.063 0.926 21.063 0.359 -67.751
5565.792 0.357 -67.887 0.927 20.917 0.927 20.917 0.357 -67.887
5590.75 0.355 -68.024 0.928 20.772 0.928 20.772 0.355 -68.024
5615.708 0.352 -68.159 0.928 20.627 0.928 20.627 0.352 -68.159
5640.667 0.35 -68.293 0.929 20.484 0.929 20.484 0.35 -68.293
5665.625 0.348 -68.427 0.93 20.341 0.93 20.341 0.348 -68.427
5690.583 0.345 -68.56 0.931 20.198 0.931 20.198 0.345 -68.56
5715.542 0.343 -68.692 0.932 20.057 0.932 20.057 0.343 -68.692
5740.5 0.341 -68.823 0.933 19.916 0.933 19.916 0.341 -68.823
5765.458 0.338 -68.953 0.934 19.776 0.934 19.776 0.338 -68.953
5790.417 0.336 -69.083 0.934 19.637 0.934 19.637 0.336 -69.083
5815.375 0.334 -69.212 0.935 19.498 0.935 19.498 0.334 -69.212
5840.333 0.332 -69.34 0.936 19.36 0.936 19.36 0.332 -69.34
5865.292 0.329 -69.467 0.937 19.223 0.937 19.223 0.329 -69.467
5890.25 0.327 -69.594 0.937 19.086 0.937 19.086 0.327 -69.594
5915.208 0.325 -69.719 0.938 18.95 0.938 18.95 0.325 -69.719
5940.167 0.323 -69.844 0.939 18.815 0.939 18.815 0.323 -69.844
5965.125 0.32 -69.969 0.94 18.68 0.94 18.68 0.32 -69.969
5990.083 0.318 -70.092 0.941 18.546 0.941 18.546 0.318 -70.092
6015.042 0.316 -70.215 0.941 18.413 0.941 18.413 0.316 -70.215
6040 0.314 -70.337 0.942 18.28 0.942 18.28 0.314 -70.337
6064.958 0.312 -70.458 0.943 18.148 0.943 18.148 0.312 -70.458
6089.917 0.309 -70.579 0.943 18.016 0.943 18.016 0.309 -70.579
6114.875 0.307 -70.699 0.944 17.886 0.944 17.886 0.307 -70.699
6139.833 0.305 -70.818 0.945 17.755 0.945 17.755 0.305 -70.818
6164.792 0.303 -70.936 0.945 17.626 0.945 17.626 0.303 -70.936
6189.75 0.301 -71.054 0.946 17.497 0.946 17.497 0.301 -71.054
6214.708 0.299 -71.171 0.947 17.368 0.947 17.368 0.299 -71.171
6239.667 0.296 -71.287 0.947 17.241 0.947 17.241 0.296 -71.287
6264.625 0.294 -71.403 0.948 17.113 0.948 17.113 0.294 -71.403
6289.583 0.292 -71.517 0.949 16.987 0.949 16.987 0.292 -71.517
6314.542 0.29 -71.632 0.949 16.861 0.949 16.861 0.29 -71.632
6339.5 0.288 -71.745 0.95 16.735 0.95 16.735 0.288 -71.745
6364.458 0.286 -71.858 0.951 16.611 0.951 16.611 0.286 -71.858
6389.417 0.284 -71.97 0.951 16.486 0.951 16.486 0.284 -71.97
6414.375 0.282 -72.081 0.952 16.363 0.952 16.363 0.282 -72.081
6439.333 0.28 -72.192 0.952 16.239 0.952 16.239 0.28 -72.192
6464.292 0.278 -72.302 0.953 16.117 0.953 16.117 0.278 -72.302
6489.25 0.276 -72.411 0.954 15.995 0.954 15.995 0.276 -72.411
6514.208 0.274 -72.52 0.954 15.873 0.954 15.873 0.274 -72.52
6539.167 0.272 -72.628 0.955 15.752 0.955 15.752 0.272 -72.628
6564.125 0.27 -72.735 0.955 15.632 0.955 15.632 0.27 -72.735
6589.083 0.268 -72.842 0.956 15.512 0.956 15.512 0.268 -72.842
6614.042 0.266 -72.948 0.956 15.392 0.956 15.392 0.266 -72.948
6639 0.264 -73.053 0.957 15.274 0.957 15.274 0.264 -73.053
6663.958 0.262 -73.158 0.958 15.155 0.958 15.155 0.262 -73.158
6688.917 0.26 -73.262 0.958 15.037 0.958 15.037 0.26 -73.262
6713.875 0.258 -73.365 0.959 14.92 0.959 14.92 0.258 -73.365
6738.833 0.256 -73.468 0.959 14.803 0.959 14.803 0.256 -73.468
6763.792 0.254 -73.57 0.96 14.687 0.96 14.687 0.254 -73.57
6788.75 0.252 -73.671 0.96 14.571 0.96 14.571 0.252 -73.671
6813.708 0.25 -73.772 0.961 14.456 0.961 14.456 0.25 -73.772
6838.667 0.248 -73.872 0.961 14.341 0.961 14.341 0.248 -73.872
6863.625 0.246 -73.971 0.962 14.227 0.962 14.227 0.246 -73.971
6888.583 0.244 -74.07 0.962 14.113 0.962 14.113 0.244 -74.07
6913.542 0.242 -74.168 0.963 13.999 0.963 13.999 0.242 -74.168
6938.5 0.24 -74.266 0.963 13.886 0.963 13.886 0.24 -74.266
6963.458 0.238 -74.362 0.963 13.774 0.963 13.774 0.238 -74.362
6988.417 0.236 -74.459 0.964 13.662 0.964 13.662 0.236 -74.459
7013.375 0.234 -74.554 0.964 13.55 0.964 13.55 0.234 -74.554
7038.333 0.233 -74.649 0.965 13.439 0.965 13.439 0.233 -74.649
7063.292 0.231 -74.743 0.965 13.329 0.965 13.329 0.231 -74.743
7088.25 0.229 -74.837 0.966 13.218 0.966 13.218 0.229 -74.837
7113.208 0.227 -74.929 0.966 13.109 0.966 13.109 0.227 -74.929
7138.167 0.225 -75.022 0.967 12.999 0.967 12.999 0.225 -75.022
7163.125 0.223 -75.113 0.967 12.891 0.967 12.891 0.223 -75.113
7188.083 0.221 -75.204 0.967 12.782 0.967 12.782 0.221 -75.204
7213.042 0.22 -75.294 0.968 12.674 0.968 12.674 0.22 -75.294
7238 0.218 -75.384 0.968 12.567 0.968 12.567 0.218 -75.384
7262.958 0.216 -75.473 0.969 12.459 0.969 12.459 0.216 -75.473
7287.917 0.214 -75.561 0.969 12.353 0.969 12.353 0.214 -75.561
7312.875 0.212 -75.649 0.969 12.246 0.969 12.246 0.212 -75.649
7337.833 0.21 -75.736 0.97 12.141 0.97 12.141 0.21 -75.736
7362.792 0.209 -75.822 0.97 12.035 0.97 12.035 0.209 -75.822
7387.75 0.207 -75.908 0.971 11.93 0.971 11.93 0.207 -75.908
7412.708 0.205 -75.993 0.971 11.825 0.971 11.825 0.205 -75.993
7437.667 0.203 -76.077 0.971 11.721 0.971 11.721 0.203 -76.077
7462.625 0.202 -76.161 0.972 11.617 0.972 11.617 0.202 -76.161
7487.583 0.2 -76.244 0.972 11.514 0.972 11.514 0.2 -76.244
7512.542 0.198 -76.326 0.972 11.411 0.972 11.411 0.198 -76.326
7537.5 0.196 -76.408 0.973 11.308 0.973 11.308 0.196 -76.408
7562.458 0.194 -76.488 0.973 11.206 0.973 11.206 0.194 -76.488
7587.417 0.193 -76.569 0.973 11.104 0.973 11.104 0.193 -76.569
7612.375 0.191 -76.648 0.974 11.003 0.974 11.003 0.191 -76.648
7637.333 0.189 -76.727 0.974 10.901 0.974 10.901 0.189 -76.727
7662.292 0.188 -76.805 0.974 10.801 0.974 10.801 0.188 -76.805
7687.25 0.186 -76.883 0.975 10.7 0.975 10.7 0.186 -76.883
7712.208 0.184 -76.959 0.975 10.6 0.975 10.6 0.184 -76.959
7737.167 0.182 -77.035 0.975 10.501 0.975 10.501 0.182 -77.035
7762.125 0.181 -77.111 0.976 10.401 0.976 10.401 0.181 -77.111
7787.083 0.179 -77.185 0.976 10.302 0.976 10.302 0.179 -77.185
7812.042 0.177 -77.259 0.976 10.204 0.976 10.204 0.177 -77.259
7837 0.176 -77.332 0.977 10.106 0.977 10.106 0.176 -77.332
7861.958 0.174 -77.404 0.977 10.008 0.977 10.008 0.174 -77.404
7886.917 0.172 -77.476 0.977 9.91 0.977 9.91 0.172 -77.476
7911.875 0.171 -77.547 0.978 9.813 0.978 9.813 0.171 -77.547
7936.833 0.169 -77.617 0.978 9.716 0.978 9.716 0.169 -77.617
7961.792 0.167 -77.686 0.978 9.62 0.978 9.62 0.167 -77.686
7986.75 0.166 -77.754 0.978 9.524 0.978 9.524 0.166 -77.754
8011.708 0.164 -77.822 0.979 9.428 0.979 9.428 0.164 -77.822
8036.667 0.162 -77.889 0.979 9.332 0.979 9.332 0.162 -77.889
8061.625 0.161 -77.955 0.979 9.237 0.979 9.237 0.161 -77.955
8086.583 0.159 -78.02 0.979 9.142 0.979 9.142 0.159 -78.02
8111.542 0.157 -78.085 0.98 9.048 0.98 9.048 0.157 -78.085
