# MHZ S MA R 50

50 0.998 -3.416 0.06 86.573 0.06 86.573 0.998 -3.416
74.958 0.996 -5.114 0.089 84.87 0.089 84.87 0.996 -5.114
99.917 0.993 -6.804 0.118 83.175 0.118 83.175 0.993 -6.804
124.875 0.989 -8.482 0.147 81.492 0.147 81.492 0.989 -8.482
149.833 0.984 -10.146 0.176 79.822 0.176 79.822 0.984 -10.146
174.792 0.979 -11.794 0.204 78.169 0.204 78.169 0.979 -11.794
199.75 0.973 -13.423 0.232 76.534 0.232 76.534 0.973 -13.423
224.708 0.966 -15.032 0.259 74.92 0.259 74.92 0.966 -15.032
249.667 0.958 -16.617 0.286 73.329 0.286 73.329 0.958 -16.617
274.625 0.95 -18.179 0.312 71.763 0.312 71.763 0.95 -18.179
299.583 0.941 -19.714 0.337 70.223 0.337 70.223 0.941 -19.714
324.542 0.932 -21.221 0.362 68.71 0.362 68.71 0.932 -21.221
349.5 0.922 -22.7 0.386 67.225 0.386 67.225 0.922 -22.7
374.458 0.912 -24.149 0.409 65.771 0.409 65.771 0.912 -24.149
399.417 0.901 -25.568 0.432 64.347 0.432 64.347 0.901 -25.568
424.375 0.891 -26.956 0.453 62.954 0.453 62.954 0.891 -26.956
449.333 0.88 -28.312 0.474 61.592 0.474 61.592 0.88 -28.312
474.292 0.868 -29.636 0.494 60.263 0.494 60.263 0.868 -29.636
499.25 0.857 -30.928 0.514 58.965 0.514 58.965 0.857 -30.928
524.208 0.845 -32.188 0.533 57.7 0.533 57.7 0.845 -32.188
549.167 0.834 -33.416 0.551 56.466 0.551 56.466 0.834 -33.416
574.125 0.822 -34.613 0.568 55.264 0.568 55.264 0.822 -34.613
599.083 0.81 -35.778 0.585 54.094 0.585 54.094 0.81 -35.778
624.042 0.798 -36.912 0.601 52.955 0.601 52.955 0.798 -36.912
649 0.786 -38.015 0.616 51.846 0.616 51.846 0.786 -38.015
673.958 0.775 -39.088 0.631 50.767 0.631 50.767 0.775 -39.088
698.917 0.763 -40.132 0.645 49.718 0.645 49.718 0.763 -40.132
723.875 0.751 -41.147 0.658 48.698 0.658 48.698 0.751 -41.147
748.833 0.74 -42.133 0.671 47.705 0.671 47.705 0.74 -42.133
773.792 0.728 -43.092 0.683 46.741 0.683 46.741 0.728 -43.092
798.75 0.717 -44.024 0.695 45.803 0.695 45.803 0.717 -44.024
823.708 0.706 -44.93 0.706 44.892 0.706 44.892 0.706 -44.93
848.667 0.695 -45.811 0.717 44.006 0.717 44.006 0.695 -45.811
873.625 0.684 -46.666 0.727 43.145 0.727 43.145 0.684 -46.666
898.583 0.673 -47.498 0.737 42.307 0.737 42.307 0.673 -47.498
923.542 0.663 -48.306 0.747 41.493 0.747 41.493 0.663 -48.306
948.5 0.652 -49.092 0.756 40.702 0.756 40.702 0.652 -49.092
973.458 0.642 -49.856 0.764 39.932 0.764 39.932 0.642 -49.856
998.417 0.632 -50.599 0.773 39.184 0.773 39.184 0.632 -50.599
1023.375 0.622 -51.321 0.781 38.456 0.781 38.456 0.622 -51.321
1048.333 0.612 -52.023 0.788 37.748 0.788 37.748 0.612 -52.023
1073.292 0.603 -52.707 0.796 37.059 0.796 37.059 0.603 -52.707
1098.25 0.593 -53.371 0.803 36.389 0.803 36.389 0.593 -53.371
1123.208 0.584 -54.018 0.809 35.736 0.809 35.736 0.584 -54.018
1148.167 0.575 -54.647 0.816 35.101 0.816 35.101 0.575 -54.647
1173.125 0.566 -55.26 0.822 34.482 0.822 34.482 0.566 -55.26
1198.083 0.557 -55.856 0.828 33.88 0.828 33.88 0.557 -55.856
1223.042 0.549 -56.437 0.833 33.293 0.833 33.293 0.549 -56.437
1248 0.541 -57.003 0.839 32.722 0.839 32.722 0.541 -57.003
1272.958 0.532 -57.554 0.844 32.165 0.844 32.165 0.532 -57.554
1297.917 0.524 -58.091 0.849 31.622 0.849 31.622 0.524 -58.091
1322.875 0.516 -58.614 0.854 31.092 0.854 31.092 0.516 -58.614
1347.833 0.509 -59.124 0.858 30.576 0.858 30.576 0.509 -59.124
1372.792 0.501 -59.622 0.863 30.073 0.863 30.073 0.501 -59.622
1397.75 0.494 -60.107 0.867 29.581 0.867 29.581 0.494 -60.107
1422.708 0.486 -60.58 0.871 29.102 0.871 29.102 0.486 -60.58
1447.667 0.479 -61.042 0.875 28.634 0.875 28.634 0.479 -61.042
1472.625 0.472 -61.493 0.879 28.177 0.879 28.177 0.472 -61.493
1497.583 0.465 -61.933 0.882 27.73 0.882 27.73 0.465 -61.933
1522.542 0.459 -62.362 0.886 27.295 0.886 27.295 0.459 -62.362
1547.5 0.452 -62.782 0.889 26.869 0.889 26.869 0.452 -62.782
1572.458 0.445 -63.192 0.893 26.452 0.893 26.452 0.445 -63.192
1597.417 0.439 -63.592 0.896 26.045 0.896 26.045 0.439 -63.592
1622.375 0.433 -63.984 0.899 25.648 0.899 25.648 0.433 -63.984
1647.333 0.427 -64.366 0.902 25.258 0.902 25.258 0.427 -64.366
1672.292 0.421 -64.74 0.904 24.878 0.904 24.878 0.421 -64.74
1697.25 0.415 -65.106 0.907 24.505 0.907 24.505 0.415 -65.106
1722.208 0.409 -65.464 0.91 24.141 0.91 24.141 0.409 -65.464
1747.167 0.403 -65.814 0.912 23.784 0.912 23.784 0.403 -65.814
1772.125 0.398 -66.157 0.915 23.434 0.915 23.434 0.398 -66.157
1797.083 0.392 -66.492 0.917 23.092 0.917 23.092 0.392 -66.492
1822.042 0.387 -66.821 0.919 22.757 0.919 22.757 0.387 -66.821
1847 0.382 -67.142 0.921 22.429 0.921 22.429 0.382 -67.142
1871.958 0.376 -67.457 0.924 22.107 0.924 22.107 0.376 -67.457
1896.917 0.371 -67.766 0.926 21.791 0.926 21.791 0.371 -67.766
1921.875 0.366 -68.068 0.928 21.482 0.928 21.482 0.366 -68.068
1946.833 0.361 -68.365 0.93 21.178 0.93 21.178 0.361 -68.365
1971.792 0.356 -68.655 0.931 20.881 0.931 20.881 0.356 -68.655
1996.75 0.352 -68.94 0.933 20.589 0.933 20.589 0.352 -68.94
2021.708 0.347 -69.219 0.935 20.302 0.935 20.302 0.347 -69.219
2046.667 0.342 -69.493 0.937 20.021 0.937 20.021 0.342 -69.493
2071.625 0.338 -69.761 0.938 19.745 0.938 19.745 0.338 -69.761
2096.583 0.333 -70.025 0.94 19.474 0.94 19.474 0.333 -70.025
2121.542 0.329 -70.284 0.941 19.208 0.941 19.208 0.329 -70.284
2146.5 0.325 -70.538 0.943 18.947 0.943 18.947 0.325 -70.538
2171.458 0.32 -70.787 0.944 18.69 0.944 18.69 0.32 -70.787
2196.417 0.316 -71.031 0.946 18.437 0.946 18.437 0.316 -71.031
2221.375 0.312 -71.272 0.947 18.189 0.947 18.189 0.312 -71.272
2246.333 0.308 -71.508 0.948 17.945 0.948 17.945 0.308 -71.508
2271.292 0.304 -71.74 0.95 17.706 0.95 17.706 0.304 -71.74
2296.25 0.3 -71.967 0.951 17.47 0.951 17.47 0.3 -71.967
2321.208 0.296 -72.191 0.952 17.238 0.952 17.238 0.296 -72.191
2346.167 0.293 -72.411 0.953 17.01 0.953 17.01 0.293 -72.411
2371.125 0.289 -72.627 0.954 16.786 0.954 16.786 0.289 -72.627
2396.083 0.285 -72.84 0.956 16.565 0.956 16.565 0.285 -72.84
2421.042 0.281 -73.049 0.957 16.347 0.957 16.347 0.281 -73.049
2446 0.278 -73.254 0.958 16.133 0.958 16.133 0.278 -73.254
2470.958 0.274 -73.457 0.959 15.923 0.959 15.923 0.274 -73.457
2495.917 0.271 -73.655 0.96 15.715 0.96 15.715 0.271 -73.655
2520.875 0.267 -73.851 0.961 15.511 0.961 15.511 0.267 -73.851
2545.833 0.264 -74.043 0.962 15.31 0.962 15.31 0.264 -74.043
2570.792 0.261 -74.233 0.962 15.111 0.962 15.111 0.261 -74.233
2595.75 0.257 -74.419 0.963 14.916 0.963 14.916 0.257 -74.419
2620.708 0.254 -74.603 0.964 14.723 0.964 14.723 0.254 -74.603
2645.667 0.251 -74.783 0.965 14.534 0.965 14.534 0.251 -74.783
2670.625 0.248 -74.961 0.966 14.347 0.966 14.347 0.248 -74.961
2695.583 0.245 -75.136 0.967 14.162 0.967 14.162 0.245 -75.136
2720.542 0.242 -75.308 0.967 13.98 0.967 13.98 0.242 -75.308
2745.5 0.239 -75.478 0.968 13.801 0.968 13.801 0.239 -75.478
2770.458 0.236 -75.645 0.969 13.624 0.969 13.624 0.236 -75.645
2795.417 0.233 -75.81 0.97 13.449 0.97 13.449 0.233 -75.81
2820.375 0.23 -75.972 0.97 13.277 0.97 13.277 0.23 -75.972
2845.333 0.227 -76.132 0.971 13.107 0.971 13.107 0.227 -76.132
2870.292 0.224 -76.29 0.972 12.939 0.972 12.939 0.224 -76.29
2895.25 0.221 -76.445 0.972 12.774 0.972 12.774 0.221 -76.445
2920.208 0.218 -76.598 0.973 12.611 0.973 12.611 0.218 -76.598
2945.167 0.216 -76.749 0.973 12.449 0.973 12.449 0.216 -76.749
2970.125 0.213 -76.897 0.974 12.29 0.974 12.29 0.213 -76.897
2995.083 0.21 -77.044 0.975 12.132 0.975 12.132 0.21 -77.044
3020.042 0.208 -77.188 0.975 11.977 0.975 11.977 0.208 -77.188
3045 0.205 -77.331 0.976 11.824 0.976 11.824 0.205 -77.331
3069.958 0.202 -77.471 0.976 11.672 0.976 11.672 0.202 -77.471
3094.917 0.2 -77.609 0.977 11.522 0.977 11.522 0.2 -77.609
3119.875 0.197 -77.746 0.977 11.374 0.977 11.374 0.197 -77.746
3144.833 0.195 -77.88 0.978 11.228 0.978 11.228 0.195 -77.88
3169.792 0.192 -78.013 0.978 11.083 0.978 11.083 0.192 -78.013
3194.75 0.19 -78.144 0.979 10.94 0.979 10.94 0.19 -78.144
3219.708 0.187 -78.273 0.979 10.799 0.979 10.799 0.187 -78.273
3244.667 0.185 -78.4 0.98 10.659 0.98 10.659 0.185 -78.4
3269.625 0.183 -78.526 0.98 10.521 0.98 10.521 0.183 -78.526
3294.583 0.18 -78.65 0.981 10.384 0.981 10.384 0.18 -78.65
3319.542 0.178 -78.772 0.981 10.249 0.981 10.249 0.178 -78.772
3344.5 0.176 -78.892 0.981 10.115 0.981 10.115 0.176 -78.892
3369.458 0.173 -79.011 0.982 9.983 0.982 9.983 0.173 -79.011
3394.417 0.171 -79.129 0.982 9.852 0.982 9.852 0.171 -79.129
3419.375 0.169 -79.244 0.983 9.722 0.983 9.722 0.169 -79.244
3444.333 0.167 -79.358 0.983 9.594 0.983 9.594 0.167 -79.358
3469.292 0.165 -79.471 0.983 9.467 0.983 9.467 0.165 -79.471
3494.25 0.162 -79.582 0.984 9.342 0.984 9.342 0.162 -79.582
3519.208 0.16 -79.691 0.984 9.218 0.984 9.218 0.16 -79.691
3544.167 0.158 -79.799 0.984 9.094 0.984 9.094 0.158 -79.799
3569.125 0.156 -79.906 0.985 8.973 0.985 8.973 0.156 -79.906
3594.083 0.154 -80.011 0.985 8.852 0.985 8.852 0.154 -80.011
3619.042 0.152 -80.115 0.985 8.733 0.985 8.733 0.152 -80.115
3644 0.15 -80.217 0.986 8.614 0.986 8.614 0.15 -80.217
3668.958 0.148 -80.318 0.986 8.497 0.986 8.497 0.148 -80.318
3693.917 0.146 -80.417 0.986 8.381 0.986 8.381 0.146 -80.417
3718.875 0.144 -80.515 0.987 8.266 0.987 8.266 0.144 -80.515
3743.833 0.142 -80.612 0.987 8.152 0.987 8.152 0.142 -80.612
3768.792 0.14 -80.707 0.987 8.04 0.987 8.04 0.14 -80.707
3793.75 0.138 -80.801 0.987 7.928 0.987 7.928 0.138 -80.801
3818.708 0.136 -80.893 0.988 7.817 0.988 7.817 0.136 -80.893
3843.667 0.134 -80.985 0.988 7.707 0.988 7.707 0.134 -80.985
3868.625 0.132 -81.074 0.988 7.598 0.988 7.598 0.132 -81.074
3893.583 0.13 -81.163 0.988 7.49 0.988 7.49 0.13 -81.163
3918.542 0.129 -81.25 0.989 7.384 0.989 7.384 0.129 -81.25
3943.5 0.127 -81.336 0.989 7.278 0.989 7.278 0.127 -81.336
3968.458 0.125 -81.421 0.989 7.172 0.989 7.172 0.125 -81.421
3993.417 0.123 -81.504 0.989 7.068 0.989 7.068 0.123 -81.504
4018.375 0.121 -81.586 0.99 6.965 0.99 6.965 0.121 -81.586
4043.333 0.12 -81.666 0.99 6.862 0.99 6.862 0.12 -81.666
4068.292 0.118 -81.746 0.99 6.761 0.99 6.761 0.118 -81.746
4093.25 0.116 -81.824 0.99 6.66 0.99 6.66 0.116 -81.824
4118.208 0.114 -81.9 0.99 6.56 0.99 6.56 0.114 -81.9
4143.167 0.113 -81.976 0.991 6.461 0.991 6.461 0.113 -81.976
4168.125 0.111 -82.05 0.991 6.362 0.991 6.362 0.111 -82.05
4193.083 0.109 -82.122 0.991 6.265 0.991 6.265 0.109 -82.122
4218.042 0.107 -82.194 0.991 6.168 0.991 6.168 0.107 -82.194
4243 0.106 -82.264 0.991 6.072 0.991 6.072 0.106 -82.264
4267.958 0.104 -82.332 0.991 5.977 0.991 5.977 0.104 -82.332
4292.917 0.103 -82.4 0.992 5.882 0.992 5.882 0.103 -82.4
4317.875 0.101 -82.466 0.992 5.788 0.992 5.788 0.101 -82.466
4342.833 0.099 -82.53 0.992 5.695 0.992 5.695 0.099 -82.53
4367.792 0.098 -82.593 0.992 5.602 0.992 5.602 0.098 -82.593
4392.75 0.096 -82.655 0.992 5.51 0.992 5.51 0.096 -82.655
4417.708 0.094 -82.715 0.992 5.419 0.992 5.419 0.094 -82.715
4442.667 0.093 -82.773 0.993 5.329 0.993 5.329 0.093 -82.773
4467.625 0.091 -82.831 0.993 5.239 0.993 5.239 0.091 -82.831
4492.583 0.09 -82.886 0.993 5.15 0.993 5.15 0.09 -82.886
4517.542 0.088 -82.94 0.993 5.061 0.993 5.061 0.088 -82.94
4542.5 0.087 -82.993 0.993 4.973 0.993 4.973 0.087 -82.993
4567.458 0.085 -83.044 0.993 4.886 0.993 4.886 0.085 -83.044
4592.417 0.084 -83.093 0.993 4.799 0.993 4.799 0.084 -83.093
4617.375 0.082 -83.14 0.994 4.713 0.994 4.713 0.082 -83.14
4642.333 0.081 -83.186 0.994 4.627 0.994 4.627 0.081 -83.186
4667.292 0.079 -83.23 0.994 4.542 0.994 4.542 0.079 -83.23
4692.25 0.078 -83.272 0.994 4.457 0.994 4.457 0.078 -83.272
4717.208 0.076 -83.312 0.994 4.374 0.994 4.374 0.076 -83.312
4742.167 0.075 -83.351 0.994 4.29 0.994 4.29 0.075 -83.351
4767.125 0.073 -83.387 0.994 4.207 0.994 4.207 0.073 -83.387
4792.083 0.072 -83.421 0.994 4.125 0.994 4.125 0.072 -83.421
4817.042 0.071 -83.453 0.994 4.043 0.994 4.043 0.071 -83.453
4842 0.069 -83.483 0.995 3.962 0.995 3.962 0.069 -83.483
4866.958 0.068 -83.51 0.995 3.881 0.995 3.881 0.068 -83.51
4891.917 0.066 -83.536 0.995 3.801 0.995 3.801 0.066 -83.536
4916.875 0.065 -83.558 0.995 3.721 0.995 3.721 0.065 -83.558
4941.833 0.064 -83.578 0.995 3.642 0.995 3.642 0.064 -83.578
4966.792 0.062 -83.595 0.995 3.563 0.995 3.563 0.062 -83.595
4991.75 0.061 -83.61 0.995 3.485 0.995 3.485 0.061 -83.61
5016.708 0.06 -83.621 0.995 3.407 0.995 3.407 0.06 -83.621
5041.667 0.058 -83.629 0.995 3.329 0.995 3.329 0.058 -83.629
5066.625 0.057 -83.634 0.995 3.252 0.995 3.252 0.057 -83.634
5091.583 0.055 -83.636 0.995 3.176 0.995 3.176 0.055 -83.636
5116.542 0.054 -83.634 0.995 3.1 0.995 3.1 0.054 -83.634
5141.5 0.053 -83.628 0.996 3.024 0.996 3.024 0.053 -83.628
5166.458 0.052 -83.618 0.996 2.949 0.996 2.949 0.052 -83.618
5191.417 0.05 -83.603 0.996 2.874 0.996 2.874 0.05 -83.603
5216.375 0.049 -83.584 0.996 2.8 0.996 2.8 0.049 -83.584
5241.333 0.048 -83.56 0.996 2.726 0.996 2.726 0.048 -83.56
5266.292 0.046 -83.531 0.996 2.652 0.996 2.652 0.046 -83.531
5291.25 0.045 -83.496 0.996 2.579 0.996 2.579 0.045 -83.496
5316.208 0.044 -83.455 0.996 2.506 0.996 2.506 0.044 -83.455
5341.167 0.043 -83.407 0.996 2.434 0.996 2.434 0.043 -83.407
5366.125 0.041 -83.353 0.996 2.362 0.996 2.362 0.041 -83.353
5391.083 0.04 -83.291 0.996 2.29 0.996 2.29 0.04 -83.291
5416.042 0.039 -83.22 0.996 2.219 0.996 2.219 0.039 -83.22
5441 0.038 -83.141 0.996 2.148 0.996 2.148 0.038 -83.141
5465.958 0.036 -83.052 0.996 2.077 0.996 2.077 0.036 -83.052
5490.917 0.035 -82.953 0.996 2.007 0.996 2.007 0.035 -82.953
5515.875 0.034 -82.842 0.996 1.937 0.996 1.937 0.034 -82.842
5540.833 0.033 -82.718 0.996 1.868 0.996 1.868 0.033 -82.718
5565.792 0.032 -82.58 0.996 1.799 0.996 1.799 0.032 -82.58
5590.75 0.03 -82.427 0.996 1.73 0.996 1.73 0.03 -82.427
5615.708 0.029 -82.256 0.996 1.661 0.996 1.661 0.029 -82.256
5640.667 0.028 -82.066 0.997 1.593 0.997 1.593 0.028 -82.066
5665.625 0.027 -81.855 0.997 1.526 0.997 1.526 0.027 -81.855
5690.583 0.026 -81.619 0.997 1.458 0.997 1.458 0.026 -81.619
5715.542 0.024 -81.355 0.997 1.391 0.997 1.391 0.024 -81.355
5740.5 0.023 -81.06 0.997 1.324 0.997 1.324 0.023 -81.06
5765.458 0.022 -80.728 0.997 1.258 0.997 1.258 0.022 -80.728
5790.417 0.021 -80.355 0.997 1.191 0.997 1.191 0.021 -80.355
5815.375 0.02 -79.933 0.997 1.125 0.997 1.125 0.02 -79.933
5840.333 0.019 -79.455 0.997 1.06 0.997 1.06 0.019 -79.455
5865.292 0.018 -78.91 0.997 0.994 0.997 0.994 0.018 -78.91
5890.25 0.017 -78.284 0.997 0.929 0.997 0.929 0.017 -78.284
5915.208 0.015 -77.562 0.997 0.865 0.997 0.865 0.015 -77.562
5940.167 0.014 -76.723 0.997 0.8 0.997 0.8 0.014 -76.723
5965.125 0.013 -75.738 0.997 0.736 0.997 0.736 0.013 -75.738
5990.083 0.012 -74.57 0.997 0.672 0.997 0.672 0.012 -74.57
6015.042 0.011 -73.168 0.997 0.609 0.997 0.609 0.011 -73.168
6040 0.01 -71.462 0.997 0.545 0.997 0.545 0.01 -71.462
6064.958 8.965e-3 -69.351 0.997 0.482 0.997 0.482 8.965e-3 -69.351
6089.917 7.945e-3 -66.687 0.997 0.419 0.997 0.419 7.945e-3 -66.687
6114.875 6.952e-3 -63.248 0.997 0.357 0.997 0.357 6.952e-3 -63.248
6139.833 5.998e-3 -58.689 0.997 0.295 0.997 0.295 5.998e-3 -58.689
6164.792 5.101e-3 -52.472 0.997 0.232 0.997 0.232 5.101e-3 -52.472
6189.75 4.293e-3 -43.781 0.997 0.171 0.997 0.171 4.293e-3 -43.781
6214.708 3.631e-3 -31.55 0.997 0.109 0.997 0.109 3.631e-3 -31.55
6239.667 3.202e-3 -15.094 0.997 0.048 0.997 0.048 3.202e-3 -15.094
6264.625 3.099e-3 4.221 0.997 -0.013 0.997 -0.013 3.099e-3 4.221
6289.583 3.349e-3 22.577 0.997 -0.074 0.997 -0.074 3.349e-3 22.577
6314.542 3.881e-3 37.072 0.997 -0.134 0.997 -0.134 3.881e-3 37.072
6339.5 4.594e-3 47.526 0.997 -0.195 0.997 -0.195 4.594e-3 47.526
6364.458 5.416e-3 54.95 0.997 -0.255 0.997 -0.255 5.416e-3 54.95
6389.417 6.302e-3 60.317 0.997 -0.315 0.997 -0.315 6.302e-3 60.317
6414.375 7.227e-3 64.306 0.997 -0.374 0.997 -0.374 7.227e-3 64.306
6439.333 8.176e-3 67.355 0.997 -0.434 0.997 -0.434 8.176e-3 67.355
6464.292 9.14e-3 69.744 0.997 -0.493 0.997 -0.493 9.14e-3 69.744
6489.25 0.01 71.656 0.997 -0.552 0.997 -0.552 0.01 71.656
6514.208 0.011 73.215 0.997 -0.611 0.997 -0.611 0.011 73.215
6539.167 0.012 74.506 0.997 -0.669 0.997 -0.669 0.012 74.506
6564.125 0.013 75.589 0.997 -0.727 0.997 -0.727 0.013 75.589
6589.083 0.014 76.509 0.997 -0.785 0.997 -0.785 0.014 76.509
6614.042 0.015 77.298 0.997 -0.843 0.997 -0.843 0.015 77.298
6639 0.016 77.98 0.997 -0.901 0.997 -0.901 0.016 77.98
6663.958 0.017 78.574 0.997 -0.958 0.997 -0.958 0.017 78.574
6688.917 0.018 79.095 0.997 -1.016 0.997 -1.016 0.018 79.095
6713.875 0.019 79.554 0.997 -1.073 0.997 -1.073 0.019 79.554
6738.833 0.02 79.962 0.997 -1.13 0.997 -1.13 0.02 79.962
6763.792 0.021 80.324 0.997 -1.186 0.997 -1.186 0.021 80.324
6788.75 0.022 80.648 0.997 -1.243 0.997 -1.243 0.022 80.648
6813.708 0.023 80.939 0.997 -1.299 0.997 -1.299 0.023 80.939
6838.667 0.024 81.201 0.997 -1.355 0.997 -1.355 0.024 81.201
6863.625 0.025 81.437 0.997 -1.411 0.997 -1.411 0.025 81.437
6888.583 0.026 81.65 0.997 -1.467 0.997 -1.467 0.026 81.65
6913.542 0.027 81.843 0.997 -1.522 0.997 -1.522 0.027 81.843
6938.5 0.028 82.019 0.997 -1.577 0.997 -1.577 0.028 82.019
6963.458 0.029 82.179 0.997 -1.633 0.997 -1.633 0.029 82.179
6988.417 0.03 82.324 0.996 -1.688 0.996 -1.688 0.03 82.324
7013.375 0.031 82.456 0.996 -1.742 0.996 -1.742 0.031 82.456
7038.333 0.032 82.577 0.996 -1.797 0.996 -1.797 0.032 82.577
7063.292 0.032 82.687 0.996 -1.851 0.996 -1.851 0.032 82.687
7088.25 0.033 82.787 0.996 -1.906 0.996 -1.906 0.033 82.787
7113.208 0.034 82.879 0.996 -1.96 0.996 -1.96 0.034 82.879
7138.167 0.035 82.963 0.996 -2.014 0.996 -2.014 0.035 82.963
7163.125 0.036 83.039 0.996 -2.067 0.996 -2.067 0.036 83.039
7188.083 0.037 83.109 0.996 -2.121 0.996 -2.121 0.037 83.109
7213.042 0.038 83.172 0.996 -2.175 0.996 -2.175 0.038 83.172
7238 0.039 83.23 0.996 -2.228 0.996 -2.228 0.039 83.23
7262.958 0.04 83.282 0.996 -2.281 0.996 -2.281 0.04 83.282
7287.917 0.041 83.329 0.996 -2.334 0.996 -2.334 0.041 83.329
7312.875 0.042 83.372 0.996 -2.387 0.996 -2.387 0.042 83.372
7337.833 0.043 83.411 0.996 -2.439 0.996 -2.439 0.043 83.411
7362.792 0.044 83.446 0.996 -2.492 0.996 -2.492 0.044 83.446
7387.75 0.044 83.477 0.996 -2.544 0.996 -2.544 0.044 83.477
7412.708 0.045 83.504 0.996 -2.596 0.996 -2.596 0.045 83.504
7437.667 0.046 83.529 0.996 -2.648 0.996 -2.648 0.046 83.529
7462.625 0.047 83.55 0.996 -2.7 0.996 -2.7 0.047 83.55
7487.583 0.048 83.569 0.996 -2.752 0.996 -2.752 0.048 83.569
7512.542 0.049 83.585 0.996 -2.804 0.996 -2.804 0.049 83.585
7537.5 0.05 83.599 0.996 -2.855 0.996 -2.855 0.05 83.599
7562.458 0.051 83.61 0.996 -2.906 0.996 -2.906 0.051 83.61
7587.417 0.052 83.619 0.996 -2.957 0.996 -2.957 0.052 83.619
7612.375 0.053 83.626 0.996 -3.008 0.996 -3.008 0.053 83.626
7637.333 0.053 83.631 0.995 -3.059 0.995 -3.059 0.053 83.631
7662.292 0.054 83.634 0.995 -3.11 0.995 -3.11 0.054 83.634
7687.25 0.055 83.636 0.995 -3.161 0.995 -3.161 0.055 83.636
7712.208 0.056 83.636 0.995 -3.211 0.995 -3.211 0.056 83.636
7737.167 0.057 83.634 0.995 -3.261 0.995 -3.261 0.057 83.634
7762.125 0.058 83.631 0.995 -3.312 0.995 -3.312 0.058 83.631
7787.083 0.059 83.626 0.995 -3.362 0.995 -3.362 0.059 83.626
7812.042 0.06 83.621 0.995 -3.412 0.995 -3.412 0.06 83.621
7837 0.06 83.613 0.995 -3.461 0.995 -3.461 0.06 83.613
7861.958 0.061 83.605 0.995 -3.511 0.995 -3.511 0.061 83.605
7886.917 0.062 83.596 0.995 -3.561 0.995 -3.561 0.062 83.596
7911.875 0.063 83.585 0.995 -3.61 0.995 -3.61 0.063 83.585
7936.833 0.064 83.574 0.995 -3.659 0.995 -3.659 0.064 83.574
7961.792 0.065 83.561 0.995 -3.709 0.995 -3.709 0.065 83.561
7986.75 0.066 83.548 0.995 -3.758 0.995 -3.758 0.066 83.548
8011.708 0.066 83.534 0.995 -3.807 0.995 -3.807 0.066 83.534
8036.667 0.067 83.519 0.995 -3.855 0.995 -3.855 0.067 83.519
8061.625 0.068 83.503 0.995 -3.904 0.995 -3.904 0.068 83.503
8086.583 0.069 83.486 0.995 -3.953 0.995 -3.953 0.069 83.486
8111.542 0.07 83.469 0.994 -4.001 0.994 -4.001 0.07 83.469
8136.5 0.071 83.451 0.994 -4.049 0.994 -4.049 0.071 83.451
8161.458 0.072 83.432 0.994 -4.098 0.994 -4.098 0.072 83.432
8186.417 0.072 83.413 0.994 -4.146 0.994 -4.146 0.072 83.413
8211.375 0.073 83.393 0.994 -4.194 0.994 -4.194 0.073 83.393
