# MHZ S MA R 50

50 0.998 -3.237 0.056 86.753 0.056 86.753 0.998 -3.237
74.958 0.996 -4.846 0.084 85.138 0.084 85.138 0.996 -4.846
99.917 0.994 -6.449 0.112 83.531 0.112 83.531 0.994 -6.449
124.875 0.99 -8.041 0.14 81.933 0.14 81.933 0.99 -8.041
149.833 0.986 -9.622 0.167 80.346 0.167 80.346 0.986 -9.622
174.792 0.981 -11.189 0.194 78.774 0.194 78.774 0.981 -11.189
199.75 0.975 -12.741 0.221 77.218 0.221 77.218 0.975 -12.741
224.708 0.969 -14.274 0.247 75.679 0.247 75.679 0.969 -14.274
249.667 0.962 -15.788 0.272 74.16 0.272 74.16 0.962 -15.788
274.625 0.955 -17.281 0.297 72.662 0.297 72.662 0.955 -17.281
299.583 0.947 -18.751 0.321 71.187 0.321 71.187 0.947 -18.751
324.542 0.938 -20.197 0.345 69.735 0.345 69.735 0.938 -20.197
349.5 0.929 -21.619 0.368 68.308 0.368 68.308 0.929 -21.619
374.458 0.92 -23.014 0.391 66.907 0.391 66.907 0.92 -23.014
399.417 0.91 -24.383 0.413 65.533 0.413 65.533 0.91 -24.383
424.375 0.9 -25.725 0.434 64.186 0.434 64.186 0.9 -25.725
449.333 0.89 -27.039 0.455 62.867 0.455 62.867 0.89 -27.039
474.292 0.879 -28.324 0.474 61.577 0.474 61.577 0.879 -28.324
499.25 0.869 -29.581 0.494 60.314 0.494 60.314 0.869 -29.581
524.208 0.858 -30.81 0.512 59.08 0.512 59.08 0.858 -30.81
549.167 0.847 -32.009 0.53 57.875 0.53 57.875 0.847 -32.009
574.125 0.836 -33.181 0.547 56.699 0.547 56.699 0.836 -33.181
599.083 0.825 -34.323 0.564 55.551 0.564 55.551 0.825 -34.323
624.042 0.813 -35.438 0.58 54.431 0.58 54.431 0.813 -35.438
649 0.802 -36.525 0.595 53.339 0.595 53.339 0.802 -36.525
673.958 0.791 -37.584 0.61 52.274 0.61 52.274 0.791 -37.584
698.917 0.78 -38.616 0.624 51.237 0.624 51.237 0.78 -38.616
723.875 0.769 -39.621 0.638 50.226 0.638 50.226 0.769 -39.621
748.833 0.757 -40.6 0.651 49.242 0.651 49.242 0.757 -40.6
773.792 0.746 -41.554 0.663 48.283 0.663 48.283 0.746 -41.554
798.75 0.735 -42.482 0.675 47.349 0.675 47.349 0.735 -42.482
823.708 0.725 -43.386 0.687 46.439 0.687 46.439 0.725 -43.386
848.667 0.714 -44.266 0.698 45.554 0.698 45.554 0.714 -44.266
873.625 0.703 -45.123 0.709 44.692 0.709 44.692 0.703 -45.123
898.583 0.693 -45.957 0.719 43.852 0.719 43.852 0.693 -45.957
923.542 0.682 -46.769 0.729 43.035 0.729 43.035 0.682 -46.769
948.5 0.672 -47.559 0.738 42.239 0.738 42.239 0.672 -47.559
973.458 0.662 -48.329 0.747 41.464 0.747 41.464 0.662 -48.329
998.417 0.652 -49.078 0.756 40.709 0.756 40.709 0.652 -49.078
1023.375 0.642 -49.808 0.764 39.974 0.764 39.974 0.642 -49.808
1048.333 0.633 -50.518 0.772 39.258 0.772 39.258 0.633 -50.518
1073.292 0.623 -51.21 0.779 38.56 0.779 38.56 0.623 -51.21
1098.25 0.614 -51.884 0.787 37.88 0.787 37.88 0.614 -51.884
1123.208 0.605 -52.541 0.794 37.218 0.794 37.218 0.605 -52.541
1148.167 0.596 -53.18 0.801 36.572 0.801 36.572 0.596 -53.18
1173.125 0.587 -53.804 0.807 35.943 0.807 35.943 0.587 -53.804
1198.083 0.578 -54.412 0.813 35.33 0.813 35.33 0.578 -54.412
1223.042 0.57 -55.004 0.819 34.732 0.819 34.732 0.57 -55.004
1248 0.561 -55.582 0.825 34.148 0.825 34.148 0.561 -55.582
1272.958 0.553 -56.145 0.83 33.579 0.83 33.579 0.553 -56.145
1297.917 0.545 -56.694 0.836 33.024 0.836 33.024 0.545 -56.694
1322.875 0.537 -57.23 0.841 32.482 0.841 32.482 0.537 -57.23
1347.833 0.529 -57.753 0.846 31.953 0.846 31.953 0.529 -57.753
1372.792 0.522 -58.263 0.85 31.437 0.85 31.437 0.522 -58.263
1397.75 0.514 -58.761 0.855 30.933 0.855 30.933 0.514 -58.761
1422.708 0.507 -59.248 0.859 30.44 0.859 30.44 0.507 -59.248
1447.667 0.499 -59.723 0.864 29.959 0.864 29.959 0.499 -59.723
1472.625 0.492 -60.187 0.868 29.489 0.868 29.489 0.492 -60.187
1497.583 0.485 -60.64 0.872 29.03 0.872 29.03 0.485 -60.64
1522.542 0.478 -61.083 0.875 28.581 0.875 28.581 0.478 -61.083
1547.5 0.472 -61.515 0.879 28.142 0.879 28.142 0.472 -61.515
1572.458 0.465 -61.938 0.882 27.713 0.882 27.713 0.465 -61.938
1597.417 0.459 -62.352 0.886 27.293 0.886 27.293 0.459 -62.352
1622.375 0.452 -62.757 0.889 26.882 0.889 26.882 0.452 -62.757
1647.333 0.446 -63.152 0.892 26.48 0.892 26.48 0.446 -63.152
1672.292 0.44 -63.539 0.895 26.086 0.895 26.086 0.44 -63.539
1697.25 0.434 -63.918 0.898 25.701 0.898 25.701 0.434 -63.918
1722.208 0.428 -64.289 0.901 25.324 0.901 25.324 0.428 -64.289
1747.167 0.422 -64.652 0.904 24.954 0.904 24.954 0.422 -64.652
1772.125 0.416 -65.007 0.906 24.592 0.906 24.592 0.416 -65.007
1797.083 0.411 -65.355 0.909 24.237 0.909 24.237 0.411 -65.355
1822.042 0.405 -65.696 0.911 23.89 0.911 23.89 0.405 -65.696
1847 0.4 -66.03 0.914 23.549 0.914 23.549 0.4 -66.03
1871.958 0.394 -66.358 0.916 23.215 0.916 23.215 0.394 -66.358
1896.917 0.389 -66.678 0.918 22.887 0.918 22.887 0.389 -66.678
1921.875 0.384 -66.993 0.92 22.566 0.92 22.566 0.384 -66.993
1946.833 0.379 -67.301 0.923 22.251 0.923 22.251 0.379 -67.301
1971.792 0.374 -67.603 0.925 21.941 0.925 21.941 0.374 -67.603
1996.75 0.369 -67.9 0.927 21.638 0.927 21.638 0.369 -67.9
2021.708 0.364 -68.191 0.928 21.34 0.928 21.34 0.364 -68.191
2046.667 0.359 -68.476 0.93 21.047 0.93 21.047 0.359 -68.476
2071.625 0.354 -68.757 0.932 20.76 0.932 20.76 0.354 -68.757
2096.583 0.35 -69.032 0.934 20.477 0.934 20.477 0.35 -69.032
2121.542 0.345 -69.301 0.935 20.2 0.935 20.2 0.345 -69.301
2146.5 0.341 -69.567 0.937 19.928 0.937 19.928 0.341 -69.567
2171.458 0.336 -69.827 0.939 19.66 0.939 19.66 0.336 -69.827
2196.417 0.332 -70.082 0.94 19.397 0.94 19.397 0.332 -70.082
2221.375 0.328 -70.334 0.942 19.138 0.942 19.138 0.328 -70.334
2246.333 0.324 -70.58 0.943 18.884 0.943 18.884 0.324 -70.58
2271.292 0.32 -70.823 0.945 18.634 0.945 18.634 0.32 -70.823
2296.25 0.315 -71.061 0.946 18.387 0.946 18.387 0.315 -71.061
2321.208 0.311 -71.295 0.947 18.145 0.947 18.145 0.311 -71.295
2346.167 0.307 -71.525 0.949 17.907 0.949 17.907 0.307 -71.525
2371.125 0.304 -71.752 0.95 17.673 0.95 17.673 0.304 -71.752
2396.083 0.3 -71.975 0.951 17.442 0.951 17.442 0.3 -71.975
2421.042 0.296 -72.194 0.952 17.215 0.952 17.215 0.296 -72.194
2446 0.292 -72.409 0.953 16.991 0.953 16.991 0.292 -72.409
2470.958 0.289 -72.621 0.954 16.771 0.954 16.771 0.289 -72.621
2495.917 0.285 -72.829 0.955 16.554 0.955 16.554 0.285 -72.829
2520.875 0.281 -73.034 0.957 16.34 0.957 16.34 0.281 -73.034
2545.833 0.278 -73.236 0.958 16.13 0.958 16.13 0.278 -73.236
2570.792 0.274 -73.435 0.959 15.922 0.959 15.922 0.274 -73.435
2595.75 0.271 -73.631 0.96 15.718 0.96 15.718 0.271 -73.631
2620.708 0.268 -73.824 0.96 15.516 0.96 15.516 0.268 -73.824
2645.667 0.264 -74.013 0.961 15.317 0.961 15.317 0.264 -74.013
2670.625 0.261 -74.2 0.962 15.122 0.962 15.122 0.261 -74.2
2695.583 0.258 -74.384 0.963 14.928 0.963 14.928 0.258 -74.384
2720.542 0.254 -74.565 0.964 14.738 0.964 14.738 0.254 -74.565
2745.5 0.251 -74.744 0.965 14.55 0.965 14.55 0.251 -74.744
2770.458 0.248 -74.92 0.966 14.364 0.966 14.364 0.248 -74.92
2795.417 0.245 -75.093 0.966 14.182 0.966 14.182 0.245 -75.093
2820.375 0.242 -75.264 0.967 14.001 0.967 14.001 0.242 -75.264
2845.333 0.239 -75.432 0.968 13.823 0.968 13.823 0.239 -75.432
2870.292 0.236 -75.598 0.969 13.647 0.969 13.647 0.236 -75.598
2895.25 0.233 -75.761 0.969 13.473 0.969 13.473 0.233 -75.761
2920.208 0.23 -75.922 0.97 13.302 0.97 13.302 0.23 -75.922
2945.167 0.227 -76.081 0.971 13.133 0.971 13.133 0.227 -76.081
2970.125 0.224 -76.238 0.971 12.966 0.971 12.966 0.224 -76.238
2995.083 0.222 -76.392 0.972 12.801 0.972 12.801 0.222 -76.392
3020.042 0.219 -76.545 0.973 12.638 0.973 12.638 0.219 -76.545
3045 0.216 -76.695 0.973 12.477 0.973 12.477 0.216 -76.695
3069.958 0.213 -76.843 0.974 12.317 0.974 12.317 0.213 -76.843
3094.917 0.211 -76.989 0.974 12.16 0.974 12.16 0.211 -76.989
3119.875 0.208 -77.133 0.975 12.005 0.975 12.005 0.208 -77.133
3144.833 0.205 -77.275 0.976 11.851 0.976 11.851 0.205 -77.275
3169.792 0.203 -77.415 0.976 11.699 0.976 11.699 0.203 -77.415
3194.75 0.2 -77.554 0.977 11.549 0.977 11.549 0.2 -77.554
3219.708 0.198 -77.69 0.977 11.401 0.977 11.401 0.198 -77.69
3244.667 0.195 -77.825 0.978 11.254 0.978 11.254 0.195 -77.825
3269.625 0.193 -77.958 0.978 11.109 0.978 11.109 0.193 -77.958
3294.583 0.19 -78.089 0.979 10.965 0.979 10.965 0.19 -78.089
3319.542 0.188 -78.218 0.979 10.823 0.979 10.823 0.188 -78.218
3344.5 0.185 -78.345 0.98 10.683 0.98 10.683 0.185 -78.345
3369.458 0.183 -78.471 0.98 10.544 0.98 10.544 0.183 -78.471
3394.417 0.181 -78.596 0.98 10.406 0.98 10.406 0.181 -78.596
3419.375 0.178 -78.718 0.981 10.27 0.981 10.27 0.178 -78.718
3444.333 0.176 -78.839 0.981 10.135 0.981 10.135 0.176 -78.839
3469.292 0.174 -78.958 0.982 10.002 0.982 10.002 0.174 -78.958
3494.25 0.171 -79.076 0.982 9.87 0.982 9.87 0.171 -79.076
3519.208 0.169 -79.192 0.982 9.74 0.982 9.74 0.169 -79.192
3544.167 0.167 -79.307 0.983 9.61 0.983 9.61 0.167 -79.307
3569.125 0.165 -79.42 0.983 9.482 0.983 9.482 0.165 -79.42
3594.083 0.163 -79.532 0.984 9.355 0.984 9.355 0.163 -79.532
3619.042 0.16 -79.642 0.984 9.23 0.984 9.23 0.16 -79.642
3644 0.158 -79.751 0.984 9.106 0.984 9.106 0.158 -79.751
3668.958 0.156 -79.858 0.985 8.982 0.985 8.982 0.156 -79.858
3693.917 0.154 -79.964 0.985 8.86 0.985 8.86 0.154 -79.964
3718.875 0.152 -80.068 0.985 8.74 0.985 8.74 0.152 -80.068
3743.833 0.15 -80.171 0.986 8.62 0.986 8.62 0.15 -80.171
3768.792 0.148 -80.272 0.986 8.501 0.986 8.501 0.148 -80.272
3793.75 0.146 -80.373 0.986 8.384 0.986 8.384 0.146 -80.373
3818.708 0.144 -80.471 0.986 8.267 0.986 8.267 0.144 -80.471
3843.667 0.142 -80.569 0.987 8.152 0.987 8.152 0.142 -80.569
3868.625 0.14 -80.665 0.987 8.037 0.987 8.037 0.14 -80.665
3893.583 0.138 -80.759 0.987 7.924 0.987 7.924 0.138 -80.759
3918.542 0.136 -80.853 0.988 7.811 0.988 7.811 0.136 -80.853
3943.5 0.134 -80.944 0.988 7.7 0.988 7.7 0.134 -80.944
3968.458 0.132 -81.035 0.988 7.589 0.988 7.589 0.132 -81.035
3993.417 0.13 -81.124 0.988 7.479 0.988 7.479 0.13 -81.124
4018.375 0.128 -81.212 0.989 7.371 0.989 7.371 0.128 -81.212
4043.333 0.126 -81.299 0.989 7.263 0.989 7.263 0.126 -81.299
4068.292 0.125 -81.384 0.989 7.156 0.989 7.156 0.125 -81.384
4093.25 0.123 -81.468 0.989 7.05 0.989 7.05 0.123 -81.468
4118.208 0.121 -81.55 0.989 6.945 0.989 6.945 0.121 -81.55
4143.167 0.119 -81.632 0.99 6.84 0.99 6.84 0.119 -81.632
4168.125 0.117 -81.711 0.99 6.737 0.99 6.737 0.117 -81.711
4193.083 0.116 -81.79 0.99 6.634 0.99 6.634 0.116 -81.79
4218.042 0.114 -81.867 0.99 6.532 0.99 6.532 0.114 -81.867
4243 0.112 -81.943 0.991 6.431 0.991 6.431 0.112 -81.943
4267.958 0.11 -82.017 0.991 6.331 0.991 6.331 0.11 -82.017
4292.917 0.109 -82.09 0.991 6.231 0.991 6.231 0.109 -82.09
4317.875 0.107 -82.162 0.991 6.132 0.991 6.132 0.107 -82.162
4342.833 0.105 -82.232 0.991 6.034 0.991 6.034 0.105 -82.232
4367.792 0.103 -82.301 0.991 5.937 0.991 5.937 0.103 -82.301
4392.75 0.102 -82.368 0.992 5.84 0.992 5.84 0.102 -82.368
4417.708 0.1 -82.434 0.992 5.744 0.992 5.744 0.1 -82.434
4442.667 0.098 -82.498 0.992 5.649 0.992 5.649 0.098 -82.498
4467.625 0.097 -82.561 0.992 5.554 0.992 5.554 0.097 -82.561
4492.583 0.095 -82.622 0.992 5.46 0.992 5.46 0.095 -82.622
4517.542 0.094 -82.682 0.992 5.367 0.992 5.367 0.094 -82.682
4542.5 0.092 -82.74 0.993 5.274 0.993 5.274 0.092 -82.74
4567.458 0.09 -82.797 0.993 5.182 0.993 5.182 0.09 -82.797
4592.417 0.089 -82.852 0.993 5.091 0.993 5.091 0.089 -82.852
4617.375 0.087 -82.905 0.993 5 0.993 5 0.087 -82.905
4642.333 0.086 -82.957 0.993 4.91 0.993 4.91 0.086 -82.957
4667.292 0.084 -83.006 0.993 4.82 0.993 4.82 0.084 -83.006
4692.25 0.083 -83.054 0.993 4.732 0.993 4.732 0.083 -83.054
4717.208 0.081 -83.1 0.994 4.643 0.994 4.643 0.081 -83.1
4742.167 0.079 -83.145 0.994 4.555 0.994 4.555 0.079 -83.145
4767.125 0.078 -83.187 0.994 4.468 0.994 4.468 0.078 -83.187
4792.083 0.076 -83.227 0.994 4.381 0.994 4.381 0.076 -83.227
4817.042 0.075 -83.265 0.994 4.295 0.994 4.295 0.075 -83.265
4842 0.073 -83.301 0.994 4.21 0.994 4.21 0.073 -83.301
4866.958 0.072 -83.334 0.994 4.125 0.994 4.125 0.072 -83.334
4891.917 0.071 -83.366 0.994 4.04 0.994 4.04 0.071 -83.366
4916.875 0.069 -83.395 0.994 3.956 0.994 3.956 0.069 -83.395
4941.833 0.068 -83.421 0.995 3.873 0.995 3.873 0.068 -83.421
4966.792 0.066 -83.445 0.995 3.79 0.995 3.79 0.066 -83.445
4991.75 0.065 -83.465 0.995 3.707 0.995 3.707 0.065 -83.465
5016.708 0.063 -83.483 0.995 3.625 0.995 3.625 0.063 -83.483
5041.667 0.062 -83.498 0.995 3.544 0.995 3.544 0.062 -83.498
5066.625 0.06 -83.51 0.995 3.463 0.995 3.463 0.06 -83.51
5091.583 0.059 -83.518 0.995 3.382 0.995 3.382 0.059 -83.518
5116.542 0.058 -83.523 0.995 3.302 0.995 3.302 0.058 -83.523
5141.5 0.056 -83.525 0.995 3.222 0.995 3.222 0.056 -83.525
5166.458 0.055 -83.522 0.995 3.143 0.995 3.143 0.055 -83.522
5191.417 0.054 -83.515 0.995 3.064 0.995 3.064 0.054 -83.515
5216.375 0.052 -83.503 0.995 2.986 0.995 2.986 0.052 -83.503
5241.333 0.051 -83.487 0.996 2.908 0.996 2.908 0.051 -83.487
5266.292 0.049 -83.466 0.996 2.83 0.996 2.83 0.049 -83.466
5291.25 0.048 -83.44 0.996 2.753 0.996 2.753 0.048 -83.44
5316.208 0.047 -83.408 0.996 2.677 0.996 2.677 0.047 -83.408
5341.167 0.045 -83.369 0.996 2.601 0.996 2.601 0.045 -83.369
5366.125 0.044 -83.324 0.996 2.525 0.996 2.525 0.044 -83.324
5391.083 0.043 -83.272 0.996 2.449 0.996 2.449 0.043 -83.272
5416.042 0.042 -83.212 0.996 2.374 0.996 2.374 0.042 -83.212
5441 0.04 -83.144 0.996 2.299 0.996 2.299 0.04 -83.144
5465.958 0.039 -83.067 0.996 2.225 0.996 2.225 0.039 -83.067
5490.917 0.038 -82.98 0.996 2.151 0.996 2.151 0.038 -82.98
5515.875 0.036 -82.882 0.996 2.078 0.996 2.078 0.036 -82.882
5540.833 0.035 -82.772 0.996 2.005 0.996 2.005 0.035 -82.772
5565.792 0.034 -82.649 0.996 1.932 0.996 1.932 0.034 -82.649
5590.75 0.033 -82.511 0.996 1.859 0.996 1.859 0.033 -82.511
5615.708 0.031 -82.357 0.996 1.787 0.996 1.787 0.031 -82.357
5640.667 0.03 -82.186 0.996 1.716 0.996 1.716 0.03 -82.186
5665.625 0.029 -81.995 0.996 1.644 0.996 1.644 0.029 -81.995
5690.583 0.028 -81.781 0.996 1.573 0.996 1.573 0.028 -81.781
5715.542 0.026 -81.541 0.996 1.502 0.996 1.502 0.026 -81.541
5740.5 0.025 -81.273 0.996 1.432 0.996 1.432 0.025 -81.273
5765.458 0.024 -80.972 0.997 1.362 0.997 1.362 0.024 -80.972
5790.417 0.023 -80.633 0.997 1.292 0.997 1.292 0.023 -80.633
5815.375 0.022 -80.251 0.997 1.223 0.997 1.223 0.022 -80.251
5840.333 0.02 -79.817 0.997 1.154 0.997 1.154 0.02 -79.817
5865.292 0.019 -79.324 0.997 1.085 0.997 1.085 0.019 -79.324
5890.25 0.018 -78.759 0.997 1.016 0.997 1.016 0.018 -78.759
5915.208 0.017 -78.109 0.997 0.948 0.997 0.948 0.017 -78.109
5940.167 0.016 -77.356 0.997 0.88 0.997 0.88 0.016 -77.356
5965.125 0.015 -76.476 0.997 0.813 0.997 0.813 0.015 -76.476
5990.083 0.013 -75.438 0.997 0.746 0.997 0.746 0.013 -75.438
6015.042 0.012 -74.201 0.997 0.679 0.997 0.679 0.012 -74.201
6040 0.011 -72.706 0.997 0.612 0.997 0.612 0.011 -72.706
6064.958 0.01 -70.874 0.997 0.545 0.997 0.545 0.01 -70.874
6089.917 8.956e-3 -68.586 0.997 0.479 0.997 0.479 8.956e-3 -68.586
6114.875 7.893e-3 -65.669 0.997 0.413 0.997 0.413 7.893e-3 -65.669
6139.833 6.862e-3 -61.857 0.997 0.348 0.997 0.348 6.862e-3 -61.857
6164.792 5.878e-3 -56.733 0.997 0.282 0.997 0.282 5.878e-3 -56.733
6189.75 4.964e-3 -49.646 0.997 0.217 0.997 0.217 4.964e-3 -49.646
6214.708 4.164e-3 -39.63 0.997 0.153 0.997 0.153 4.164e-3 -39.63
6239.667 3.551e-3 -25.587 0.997 0.088 0.997 0.088 3.551e-3 -25.587
6264.625 3.227e-3 -7.397 0.997 0.024 0.997 0.024 3.227e-3 -7.397
6289.583 3.276e-3 12.305 0.997 -0.04 0.997 -0.04 3.276e-3 12.305
6314.542 3.678e-3 29.431 0.997 -0.104 0.997 -0.104 3.678e-3 29.431
6339.5 4.333e-3 42.227 0.997 -0.167 0.997 -0.167 4.333e-3 42.227
6364.458 5.142e-3 51.287 0.997 -0.231 0.997 -0.231 5.142e-3 51.287
6389.417 6.042e-3 57.727 0.997 -0.294 0.997 -0.294 6.042e-3 57.727
6414.375 6.995e-3 62.422 0.997 -0.356 0.997 -0.356 6.995e-3 62.422
6439.333 7.982e-3 65.946 0.997 -0.419 0.997 -0.419 7.982e-3 65.946
6464.292 8.988e-3 68.663 0.997 -0.481 0.997 -0.481 8.988e-3 68.663
6489.25 0.01 70.809 0.997 -0.543 0.997 -0.543 0.01 70.809
6514.208 0.011 72.539 0.997 -0.605 0.997 -0.605 0.011 72.539
6539.167 0.012 73.958 0.997 -0.667 0.997 -0.667 0.012 73.958
6564.125 0.013 75.139 0.997 -0.728 0.997 -0.728 0.013 75.139
6589.083 0.014 76.134 0.997 -0.789 0.997 -0.789 0.014 76.134
6614.042 0.015 76.981 0.997 -0.85 0.997 -0.85 0.015 76.981
6639 0.016 77.709 0.997 -0.911 0.997 -0.911 0.016 77.709
6663.958 0.017 78.341 0.997 -0.971 0.997 -0.971 0.017 78.341
6688.917 0.018 78.892 0.997 -1.032 0.997 -1.032 0.018 78.892
6713.875 0.019 79.376 0.997 -1.092 0.997 -1.092 0.019 79.376
6738.833 0.02 79.803 0.997 -1.152 0.997 -1.152 0.02 79.803
6763.792 0.021 80.182 0.997 -1.211 0.997 -1.211 0.021 80.182
6788.75 0.022 80.52 0.997 -1.271 0.997 -1.271 0.022 80.52
6813.708 0.023 80.822 0.997 -1.33 0.997 -1.33 0.023 80.822
6838.667 0.024 81.093 0.997 -1.389 0.997 -1.389 0.024 81.093
6863.625 0.025 81.336 0.996 -1.448 0.996 -1.448 0.025 81.336
6888.583 0.026 81.556 0.996 -1.506 0.996 -1.506 0.026 81.556
6913.542 0.027 81.754 0.996 -1.565 0.996 -1.565 0.027 81.754
6938.5 0.029 81.934 0.996 -1.623 0.996 -1.623 0.029 81.934
6963.458 0.03 82.097 0.996 -1.681 0.996 -1.681 0.03 82.097
6988.417 0.031 82.244 0.996 -1.739 0.996 -1.739 0.031 82.244
7013.375 0.032 82.379 0.996 -1.797 0.996 -1.797 0.032 82.379
7038.333 0.033 82.501 0.996 -1.854 0.996 -1.854 0.033 82.501
7063.292 0.034 82.612 0.996 -1.912 0.996 -1.912 0.034 82.612
7088.25 0.035 82.713 0.996 -1.969 0.996 -1.969 0.035 82.713
7113.208 0.035 82.804 0.996 -2.026 0.996 -2.026 0.035 82.804
7138.167 0.036 82.888 0.996 -2.082 0.996 -2.082 0.036 82.888
7163.125 0.037 82.964 0.996 -2.139 0.996 -2.139 0.037 82.964
7188.083 0.038 83.033 0.996 -2.195 0.996 -2.195 0.038 83.033
7213.042 0.039 83.095 0.996 -2.252 0.996 -2.252 0.039 83.095
7238 0.04 83.152 0.996 -2.308 0.996 -2.308 0.04 83.152
7262.958 0.041 83.203 0.996 -2.364 0.996 -2.364 0.041 83.203
7287.917 0.042 83.249 0.996 -2.419 0.996 -2.419 0.042 83.249
7312.875 0.043 83.291 0.996 -2.475 0.996 -2.475 0.043 83.291
7337.833 0.044 83.328 0.996 -2.53 0.996 -2.53 0.044 83.328
7362.792 0.045 83.361 0.996 -2.586 0.996 -2.586 0.045 83.361
7387.75 0.046 83.39 0.996 -2.641 0.996 -2.641 0.046 83.39
7412.708 0.047 83.416 0.996 -2.696 0.996 -2.696 0.047 83.416
7437.667 0.048 83.439 0.996 -2.75 0.996 -2.75 0.048 83.439
7462.625 0.049 83.458 0.996 -2.805 0.996 -2.805 0.049 83.458
7487.583 0.05 83.475 0.996 -2.859 0.996 -2.859 0.05 83.475
7512.542 0.051 83.489 0.996 -2.914 0.996 -2.914 0.051 83.489
7537.5 0.052 83.5 0.995 -2.968 0.995 -2.968 0.052 83.5
7562.458 0.053 83.509 0.995 -3.022 0.995 -3.022 0.053 83.509
7587.417 0.054 83.516 0.995 -3.076 0.995 -3.076 0.054 83.516
7612.375 0.055 83.521 0.995 -3.129 0.995 -3.129 0.055 83.521
7637.333 0.056 83.524 0.995 -3.183 0.995 -3.183 0.056 83.524
7662.292 0.057 83.525 0.995 -3.236 0.995 -3.236 0.057 83.525
7687.25 0.057 83.524 0.995 -3.289 0.995 -3.289 0.057 83.524
7712.208 0.058 83.521 0.995 -3.342 0.995 -3.342 0.058 83.521
7737.167 0.059 83.517 0.995 -3.395 0.995 -3.395 0.059 83.517
7762.125 0.06 83.512 0.995 -3.448 0.995 -3.448 0.06 83.512
7787.083 0.061 83.505 0.995 -3.501 0.995 -3.501 0.061 83.505
7812.042 0.062 83.497 0.995 -3.553 0.995 -3.553 0.062 83.497
7837 0.063 83.487 0.995 -3.606 0.995 -3.606 0.063 83.487
7861.958 0.064 83.476 0.995 -3.658 0.995 -3.658 0.064 83.476
7886.917 0.065 83.465 0.995 -3.71 0.995 -3.71 0.065 83.465
7911.875 0.066 83.452 0.995 -3.762 0.995 -3.762 0.066 83.452
7936.833 0.067 83.438 0.995 -3.814 0.995 -3.814 0.067 83.438
7961.792 0.067 83.423 0.995 -3.866 0.995 -3.866 0.067 83.423
7986.75 0.068 83.407 0.994 -3.917 0.994 -3.917 0.068 83.407
8011.708 0.069 83.39 0.994 -3.969 0.994 -3.969 0.069 83.39
8036.667 0.07 83.373 0.994 -4.02 0.994 -4.02 0.07 83.373
8061.625 0.071 83.354 0.994 -4.071 0.994 -4.071 0.071 83.354
8086.583 0.072 83.335 0.994 -4.123 0.994 -4.123 0.072 83.335
8111.542 0.073 83.315 0.994 -4.174 0.994 -4.174 0.073 83.315
8136.5 0.074 83.295 0.994 -4.224 0.994 -4.224 0.074 83.295
8161.458 0.075 83.274 0.994 -4.275 0.994 -4.275 0.075 83.274
8186.417 0.075 83.252 0.994 -4.326 0.994 -4.326 0.075 83.252
8211.375 0.076 83.229 0.994 -4.376 0.994 -4.376 0.076 83.229
