# MHZ S MA R 50

50 1 -1.35 0.024 88.641 0.024 88.641 1 -1.35
74.958 0.999 -2.023 0.035 87.963 0.035 87.963 0.999 -2.023
99.917 0.999 -2.696 0.047 87.286 0.047 87.286 0.999 -2.696
124.875 0.998 -3.368 0.059 86.609 0.059 86.609 0.998 -3.368
149.833 0.997 -4.04 0.07 85.933 0.07 85.933 0.997 -4.04
174.792 0.997 -4.71 0.082 85.258 0.082 85.258 0.997 -4.71
199.75 0.996 -5.38 0.094 84.585 0.094 84.585 0.996 -5.38
224.708 0.994 -6.048 0.105 83.912 0.105 83.912 0.994 -6.048
249.667 0.993 -6.714 0.117 83.241 0.117 83.241 0.993 -6.714
274.625 0.992 -7.38 0.128 82.571 0.128 82.571 0.992 -7.38
299.583 0.99 -8.043 0.14 81.903 0.14 81.903 0.99 -8.043
324.542 0.988 -8.704 0.151 81.237 0.151 81.237 0.988 -8.704
349.5 0.986 -9.364 0.163 80.573 0.163 80.573 0.986 -9.364
374.458 0.985 -10.021 0.174 79.911 0.174 79.911 0.985 -10.021
399.417 0.982 -10.677 0.185 79.252 0.185 79.252 0.982 -10.677
424.375 0.98 -11.329 0.196 78.594 0.196 78.594 0.98 -11.329
449.333 0.978 -11.979 0.208 77.94 0.208 77.94 0.978 -11.979
474.292 0.975 -12.627 0.219 77.288 0.219 77.288 0.975 -12.627
499.25 0.973 -13.272 0.23 76.639 0.23 76.639 0.973 -13.272
524.208 0.97 -13.913 0.24 75.992 0.24 75.992 0.97 -13.913
549.167 0.967 -14.552 0.251 75.349 0.251 75.349 0.967 -14.552
574.125 0.965 -15.188 0.262 74.709 0.262 74.709 0.965 -15.188
599.083 0.962 -15.82 0.273 74.072 0.273 74.072 0.962 -15.82
624.042 0.959 -16.449 0.283 73.439 0.283 73.439 0.959 -16.449
649 0.955 -17.074 0.294 72.809 0.294 72.809 0.955 -17.074
673.958 0.952 -17.696 0.304 72.182 0.304 72.182 0.952 -17.696
698.917 0.949 -18.315 0.314 71.559 0.314 71.559 0.949 -18.315
723.875 0.945 -18.929 0.324 70.94 0.324 70.94 0.945 -18.929
748.833 0.942 -19.54 0.334 70.325 0.334 70.325 0.942 -19.54
773.792 0.938 -20.147 0.344 69.713 0.344 69.713 0.938 -20.147
798.75 0.934 -20.75 0.354 69.106 0.354 69.106 0.934 -20.75
823.708 0.93 -21.349 0.364 68.502 0.364 68.502 0.93 -21.349
848.667 0.927 -21.944 0.374 67.903 0.374 67.903 0.927 -21.944
873.625 0.923 -22.534 0.383 67.308 0.383 67.308 0.923 -22.534
898.583 0.919 -23.12 0.393 66.717 0.393 66.717 0.919 -23.12
923.542 0.914 -23.703 0.402 66.13 0.402 66.13 0.914 -23.703
948.5 0.91 -24.28 0.411 65.548 0.411 65.548 0.91 -24.28
973.458 0.906 -24.854 0.42 64.97 0.42 64.97 0.906 -24.854
998.417 0.902 -25.423 0.429 64.396 0.429 64.396 0.902 -25.423
1023.375 0.897 -25.987 0.438 63.827 0.438 63.827 0.897 -25.987
1048.333 0.893 -26.547 0.447 63.263 0.447 63.263 0.893 -26.547
1073.292 0.889 -27.102 0.456 62.703 0.456 62.703 0.889 -27.102
1098.25 0.884 -27.653 0.464 62.147 0.464 62.147 0.884 -27.653
1123.208 0.88 -28.199 0.473 61.596 0.473 61.596 0.88 -28.199
1148.167 0.875 -28.741 0.481 61.05 0.481 61.05 0.875 -28.741
1173.125 0.87 -29.278 0.489 60.508 0.489 60.508 0.87 -29.278
1198.083 0.866 -29.811 0.497 59.971 0.497 59.971 0.866 -29.811
1223.042 0.861 -30.338 0.505 59.438 0.505 59.438 0.861 -30.338
1248 0.856 -30.861 0.513 58.911 0.513 58.911 0.856 -30.861
1272.958 0.852 -31.38 0.521 58.387 0.521 58.387 0.852 -31.38
1297.917 0.847 -31.894 0.528 57.869 0.528 57.869 0.847 -31.894
1322.875 0.842 -32.403 0.536 57.355 0.536 57.355 0.842 -32.403
1347.833 0.837 -32.907 0.543 56.846 0.543 56.846 0.837 -32.907
1372.792 0.832 -33.407 0.551 56.341 0.551 56.341 0.832 -33.407
1397.75 0.827 -33.902 0.558 55.842 0.558 55.842 0.827 -33.902
1422.708 0.823 -34.392 0.565 55.346 0.565 55.346 0.823 -34.392
1447.667 0.818 -34.878 0.572 54.856 0.572 54.856 0.818 -34.878
1472.625 0.813 -35.359 0.579 54.37 0.579 54.37 0.813 -35.359
1497.583 0.808 -35.836 0.585 53.888 0.585 53.888 0.808 -35.836
1522.542 0.803 -36.308 0.592 53.412 0.592 53.412 0.803 -36.308
1547.5 0.798 -36.775 0.599 52.939 0.599 52.939 0.798 -36.775
1572.458 0.793 -37.238 0.605 52.472 0.605 52.472 0.793 -37.238
1597.417 0.788 -37.696 0.611 52.008 0.611 52.008 0.788 -37.696
1622.375 0.783 -38.15 0.618 51.55 0.618 51.55 0.783 -38.15
1647.333 0.778 -38.6 0.624 51.095 0.624 51.095 0.778 -38.6
1672.292 0.773 -39.044 0.63 50.646 0.63 50.646 0.773 -39.044
1697.25 0.768 -39.485 0.636 50.2 0.636 50.2 0.768 -39.485
1722.208 0.763 -39.921 0.642 49.759 0.642 49.759 0.763 -39.921
1747.167 0.758 -40.353 0.648 49.322 0.648 49.322 0.758 -40.353
1772.125 0.753 -40.78 0.653 48.89 0.653 48.89 0.753 -40.78
1797.083 0.749 -41.203 0.659 48.462 0.659 48.462 0.749 -41.203
1822.042 0.744 -41.622 0.664 48.038 0.664 48.038 0.744 -41.622
1847 0.739 -42.037 0.67 47.619 0.67 47.619 0.739 -42.037
1871.958 0.734 -42.447 0.675 47.203 0.675 47.203 0.734 -42.447
1896.917 0.729 -42.853 0.68 46.792 0.68 46.792 0.729 -42.853
1921.875 0.724 -43.255 0.685 46.385 0.685 46.385 0.724 -43.255
1946.833 0.719 -43.653 0.69 45.982 0.69 45.982 0.719 -43.653
1971.792 0.714 -44.047 0.695 45.583 0.695 45.583 0.714 -44.047
1996.75 0.709 -44.437 0.7 45.187 0.7 45.187 0.709 -44.437
2021.708 0.705 -44.823 0.705 44.796 0.705 44.796 0.705 -44.823
2046.667 0.7 -45.205 0.71 44.409 0.71 44.409 0.7 -45.205
2071.625 0.695 -45.583 0.714 44.026 0.714 44.026 0.695 -45.583
2096.583 0.69 -45.957 0.719 43.646 0.719 43.646 0.69 -45.957
2121.542 0.685 -46.328 0.723 43.271 0.723 43.271 0.685 -46.328
2146.5 0.681 -46.694 0.728 42.899 0.728 42.899 0.681 -46.694
2171.458 0.676 -47.057 0.732 42.531 0.732 42.531 0.676 -47.057
2196.417 0.671 -47.416 0.736 42.166 0.736 42.166 0.671 -47.416
2221.375 0.667 -47.772 0.74 41.805 0.74 41.805 0.667 -47.772
2246.333 0.662 -48.124 0.745 41.448 0.745 41.448 0.662 -48.124
2271.292 0.657 -48.472 0.749 41.095 0.749 41.095 0.657 -48.472
2296.25 0.653 -48.817 0.753 40.744 0.753 40.744 0.653 -48.817
2321.208 0.648 -49.158 0.757 40.398 0.757 40.398 0.648 -49.158
2346.167 0.644 -49.496 0.76 40.055 0.76 40.055 0.644 -49.496
2371.125 0.639 -49.83 0.764 39.715 0.764 39.715 0.639 -49.83
2396.083 0.634 -50.161 0.768 39.378 0.768 39.378 0.634 -50.161
2421.042 0.63 -50.489 0.772 39.045 0.772 39.045 0.63 -50.489
2446 0.625 -50.813 0.775 38.715 0.775 38.715 0.625 -50.813
2470.958 0.621 -51.134 0.779 38.389 0.779 38.389 0.621 -51.134
2495.917 0.617 -51.452 0.782 38.065 0.782 38.065 0.617 -51.452
2520.875 0.612 -51.766 0.786 37.745 0.786 37.745 0.612 -51.766
2545.833 0.608 -52.078 0.789 37.428 0.789 37.428 0.608 -52.078
2570.792 0.603 -52.386 0.792 37.114 0.792 37.114 0.603 -52.386
2595.75 0.599 -52.692 0.795 36.803 0.795 36.803 0.599 -52.692
2620.708 0.595 -52.994 0.799 36.495 0.799 36.495 0.595 -52.994
2645.667 0.59 -53.293 0.802 36.19 0.802 36.19 0.59 -53.293
2670.625 0.586 -53.589 0.805 35.888 0.805 35.888 0.586 -53.589
2695.583 0.582 -53.882 0.808 35.589 0.808 35.589 0.582 -53.882
2720.542 0.578 -54.173 0.811 35.293 0.811 35.293 0.578 -54.173
2745.5 0.574 -54.46 0.814 35 0.814 35 0.574 -54.46
2770.458 0.569 -54.745 0.817 34.709 0.817 34.709 0.569 -54.745
2795.417 0.565 -55.027 0.819 34.421 0.819 34.421 0.565 -55.027
2820.375 0.561 -55.306 0.822 34.136 0.822 34.136 0.561 -55.306
2845.333 0.557 -55.583 0.825 33.854 0.825 33.854 0.557 -55.583
2870.292 0.553 -55.857 0.828 33.574 0.828 33.574 0.553 -55.857
2895.25 0.549 -56.128 0.83 33.297 0.83 33.297 0.549 -56.128
2920.208 0.545 -56.396 0.833 33.022 0.833 33.022 0.545 -56.396
2945.167 0.541 -56.662 0.835 32.75 0.835 32.75 0.541 -56.662
2970.125 0.537 -56.926 0.838 32.481 0.838 32.481 0.537 -56.926
2995.083 0.533 -57.186 0.84 32.214 0.84 32.214 0.533 -57.186
3020.042 0.529 -57.445 0.843 31.949 0.843 31.949 0.529 -57.445
3045 0.525 -57.701 0.845 31.687 0.845 31.687 0.525 -57.701
3069.958 0.521 -57.954 0.848 31.427 0.848 31.427 0.521 -57.954
3094.917 0.518 -58.205 0.85 31.17 0.85 31.17 0.518 -58.205
3119.875 0.514 -58.454 0.852 30.915 0.852 30.915 0.514 -58.454
3144.833 0.51 -58.7 0.855 30.662 0.855 30.662 0.51 -58.7
3169.792 0.506 -58.944 0.857 30.412 0.857 30.412 0.506 -58.944
3194.75 0.503 -59.186 0.859 30.164 0.859 30.164 0.503 -59.186
3219.708 0.499 -59.426 0.861 29.918 0.861 29.918 0.499 -59.426
3244.667 0.495 -59.663 0.863 29.674 0.863 29.674 0.495 -59.663
3269.625 0.491 -59.898 0.865 29.432 0.865 29.432 0.491 -59.898
3294.583 0.488 -60.131 0.867 29.192 0.867 29.192 0.488 -60.131
3319.542 0.484 -60.362 0.869 28.955 0.869 28.955 0.484 -60.362
3344.5 0.481 -60.591 0.871 28.72 0.871 28.72 0.481 -60.591
3369.458 0.477 -60.817 0.873 28.486 0.873 28.486 0.477 -60.817
3394.417 0.473 -61.042 0.875 28.255 0.875 28.255 0.473 -61.042
3419.375 0.47 -61.264 0.877 28.026 0.877 28.026 0.47 -61.264
3444.333 0.466 -61.485 0.879 27.798 0.879 27.798 0.466 -61.485
3469.292 0.463 -61.703 0.881 27.573 0.881 27.573 0.463 -61.703
3494.25 0.459 -61.92 0.882 27.349 0.882 27.349 0.459 -61.92
3519.208 0.456 -62.135 0.884 27.128 0.884 27.128 0.456 -62.135
3544.167 0.453 -62.347 0.886 26.908 0.886 26.908 0.453 -62.347
3569.125 0.449 -62.558 0.888 26.69 0.888 26.69 0.449 -62.558
3594.083 0.446 -62.767 0.889 26.474 0.889 26.474 0.446 -62.767
3619.042 0.442 -62.974 0.891 26.259 0.891 26.259 0.442 -62.974
3644 0.439 -63.18 0.893 26.047 0.893 26.047 0.439 -63.18
3668.958 0.436 -63.383 0.894 25.836 0.894 25.836 0.436 -63.383
3693.917 0.433 -63.585 0.896 25.627 0.896 25.627 0.433 -63.585
3718.875 0.429 -63.785 0.897 25.42 0.897 25.42 0.429 -63.785
3743.833 0.426 -63.983 0.899 25.214 0.899 25.214 0.426 -63.983
3768.792 0.423 -64.18 0.9 25.01 0.9 25.01 0.423 -64.18
3793.75 0.42 -64.375 0.902 24.807 0.902 24.807 0.42 -64.375
3818.708 0.416 -64.568 0.903 24.607 0.903 24.607 0.416 -64.568
3843.667 0.413 -64.76 0.905 24.407 0.905 24.407 0.413 -64.76
3868.625 0.41 -64.95 0.906 24.21 0.906 24.21 0.41 -64.95
3893.583 0.407 -65.138 0.907 24.014 0.907 24.014 0.407 -65.138
3918.542 0.404 -65.325 0.909 23.819 0.909 23.819 0.404 -65.325
3943.5 0.401 -65.51 0.91 23.626 0.91 23.626 0.401 -65.51
3968.458 0.398 -65.693 0.911 23.435 0.911 23.435 0.398 -65.693
3993.417 0.395 -65.876 0.913 23.245 0.913 23.245 0.395 -65.876
4018.375 0.392 -66.056 0.914 23.056 0.914 23.056 0.392 -66.056
4043.333 0.389 -66.235 0.915 22.869 0.915 22.869 0.389 -66.235
4068.292 0.386 -66.413 0.917 22.683 0.917 22.683 0.386 -66.413
4093.25 0.383 -66.589 0.918 22.499 0.918 22.499 0.383 -66.589
4118.208 0.38 -66.763 0.919 22.316 0.919 22.316 0.38 -66.763
4143.167 0.377 -66.937 0.92 22.134 0.92 22.134 0.377 -66.937
4168.125 0.374 -67.108 0.921 21.954 0.921 21.954 0.374 -67.108
4193.083 0.371 -67.279 0.923 21.775 0.923 21.775 0.371 -67.279
4218.042 0.368 -67.448 0.924 21.597 0.924 21.597 0.368 -67.448
4243 0.365 -67.615 0.925 21.421 0.925 21.421 0.365 -67.615
4267.958 0.362 -67.782 0.926 21.246 0.926 21.246 0.362 -67.782
4292.917 0.36 -67.947 0.927 21.072 0.927 21.072 0.36 -67.947
4317.875 0.357 -68.11 0.928 20.9 0.928 20.9 0.357 -68.11
4342.833 0.354 -68.273 0.929 20.729 0.929 20.729 0.354 -68.273
4367.792 0.351 -68.434 0.93 20.559 0.93 20.559 0.351 -68.434
4392.75 0.348 -68.593 0.931 20.39 0.931 20.39 0.348 -68.593
4417.708 0.346 -68.752 0.932 20.222 0.932 20.222 0.346 -68.752
4442.667 0.343 -68.909 0.933 20.056 0.933 20.056 0.343 -68.909
4467.625 0.34 -69.065 0.934 19.891 0.934 19.891 0.34 -69.065
4492.583 0.338 -69.22 0.935 19.727 0.935 19.727 0.338 -69.22
4517.542 0.335 -69.373 0.936 19.564 0.936 19.564 0.335 -69.373
4542.5 0.332 -69.525 0.937 19.402 0.937 19.402 0.332 -69.525
4567.458 0.33 -69.676 0.938 19.241 0.938 19.241 0.33 -69.676
4592.417 0.327 -69.826 0.939 19.081 0.939 19.081 0.327 -69.826
4617.375 0.324 -69.975 0.94 18.923 0.94 18.923 0.324 -69.975
4642.333 0.322 -70.123 0.941 18.765 0.941 18.765 0.322 -70.123
4667.292 0.319 -70.269 0.941 18.609 0.941 18.609 0.319 -70.269
4692.25 0.317 -70.414 0.942 18.453 0.942 18.453 0.317 -70.414
4717.208 0.314 -70.558 0.943 18.299 0.943 18.299 0.314 -70.558
4742.167 0.311 -70.701 0.944 18.146 0.944 18.146 0.311 -70.701
4767.125 0.309 -70.843 0.945 17.993 0.945 17.993 0.309 -70.843
4792.083 0.306 -70.984 0.946 17.842 0.946 17.842 0.306 -70.984
4817.042 0.304 -71.124 0.946 17.691 0.946 17.691 0.304 -71.124
4842 0.301 -71.262 0.947 17.542 0.947 17.542 0.301 -71.262
4866.958 0.299 -71.4 0.948 17.394 0.948 17.394 0.299 -71.4
4891.917 0.297 -71.537 0.949 17.246 0.949 17.246 0.297 -71.537
4916.875 0.294 -71.672 0.949 17.1 0.949 17.1 0.294 -71.672
4941.833 0.292 -71.806 0.95 16.954 0.95 16.954 0.292 -71.806
4966.792 0.289 -71.94 0.951 16.809 0.951 16.809 0.289 -71.94
4991.75 0.287 -72.072 0.952 16.665 0.952 16.665 0.287 -72.072
5016.708 0.284 -72.204 0.952 16.522 0.952 16.522 0.284 -72.204
5041.667 0.282 -72.334 0.953 16.38 0.953 16.38 0.282 -72.334
5066.625 0.28 -72.463 0.954 16.239 0.954 16.239 0.28 -72.463
5091.583 0.277 -72.592 0.954 16.099 0.954 16.099 0.277 -72.592
5116.542 0.275 -72.719 0.955 15.96 0.955 15.96 0.275 -72.719
5141.5 0.273 -72.845 0.956 15.821 0.956 15.821 0.273 -72.845
5166.458 0.27 -72.971 0.956 15.683 0.956 15.683 0.27 -72.971
5191.417 0.268 -73.095 0.957 15.546 0.957 15.546 0.268 -73.095
5216.375 0.266 -73.219 0.958 15.41 0.958 15.41 0.266 -73.219
5241.333 0.264 -73.341 0.958 15.275 0.958 15.275 0.264 -73.341
5266.292 0.261 -73.463 0.959 15.14 0.959 15.14 0.261 -73.463
5291.25 0.259 -73.584 0.96 15.007 0.96 15.007 0.259 -73.584
5316.208 0.257 -73.703 0.96 14.874 0.96 14.874 0.257 -73.703
5341.167 0.255 -73.822 0.961 14.742 0.961 14.742 0.255 -73.822
5366.125 0.252 -73.94 0.961 14.61 0.961 14.61 0.252 -73.94
5391.083 0.25 -74.057 0.962 14.48 0.962 14.48 0.25 -74.057
5416.042 0.248 -74.173 0.962 14.35 0.962 14.35 0.248 -74.173
5441 0.246 -74.288 0.963 14.221 0.963 14.221 0.246 -74.288
5465.958 0.244 -74.403 0.964 14.092 0.964 14.092 0.244 -74.403
5490.917 0.241 -74.516 0.964 13.964 0.964 13.964 0.241 -74.516
5515.875 0.239 -74.628 0.965 13.838 0.965 13.838 0.239 -74.628
5540.833 0.237 -74.74 0.965 13.711 0.965 13.711 0.237 -74.74
5565.792 0.235 -74.851 0.966 13.586 0.966 13.586 0.235 -74.851
5590.75 0.233 -74.961 0.966 13.461 0.966 13.461 0.233 -74.961
5615.708 0.231 -75.069 0.967 13.337 0.967 13.337 0.231 -75.069
5640.667 0.229 -75.178 0.967 13.213 0.967 13.213 0.229 -75.178
5665.625 0.227 -75.285 0.968 13.09 0.968 13.09 0.227 -75.285
5690.583 0.224 -75.391 0.968 12.968 0.968 12.968 0.224 -75.391
5715.542 0.222 -75.497 0.969 12.847 0.969 12.847 0.222 -75.497
5740.5 0.22 -75.601 0.969 12.726 0.969 12.726 0.22 -75.601
5765.458 0.218 -75.705 0.969 12.605 0.969 12.605 0.218 -75.705
5790.417 0.216 -75.808 0.97 12.486 0.97 12.486 0.216 -75.808
5815.375 0.214 -75.91 0.97 12.367 0.97 12.367 0.214 -75.91
5840.333 0.212 -76.011 0.971 12.249 0.971 12.249 0.212 -76.011
5865.292 0.21 -76.111 0.971 12.131 0.971 12.131 0.21 -76.111
5890.25 0.208 -76.211 0.972 12.014 0.972 12.014 0.208 -76.211
5915.208 0.206 -76.309 0.972 11.897 0.972 11.897 0.206 -76.309
5940.167 0.204 -76.407 0.972 11.781 0.972 11.781 0.204 -76.407
5965.125 0.202 -76.504 0.973 11.666 0.973 11.666 0.202 -76.504
5990.083 0.2 -76.6 0.973 11.551 0.973 11.551 0.2 -76.6
6015.042 0.198 -76.695 0.974 11.437 0.974 11.437 0.198 -76.695
6040 0.196 -76.79 0.974 11.323 0.974 11.323 0.196 -76.79
6064.958 0.195 -76.883 0.974 11.21 0.974 11.21 0.195 -76.883
6089.917 0.193 -76.976 0.975 11.098 0.975 11.098 0.193 -76.976
6114.875 0.191 -77.068 0.975 10.986 0.975 10.986 0.191 -77.068
6139.833 0.189 -77.159 0.976 10.875 0.976 10.875 0.189 -77.159
6164.792 0.187 -77.249 0.976 10.764 0.976 10.764 0.187 -77.249
6189.75 0.185 -77.338 0.976 10.653 0.976 10.653 0.185 -77.338
6214.708 0.183 -77.426 0.977 10.544 0.977 10.544 0.183 -77.426
6239.667 0.181 -77.514 0.977 10.435 0.977 10.435 0.181 -77.514
6264.625 0.179 -77.601 0.977 10.326 0.977 10.326 0.179 -77.601
6289.583 0.178 -77.686 0.978 10.218 0.978 10.218 0.178 -77.686
6314.542 0.176 -77.771 0.978 10.11 0.978 10.11 0.176 -77.771
6339.5 0.174 -77.855 0.978 10.003 0.978 10.003 0.174 -77.855
6364.458 0.172 -77.938 0.979 9.896 0.979 9.896 0.172 -77.938
6389.417 0.17 -78.021 0.979 9.79 0.979 9.79 0.17 -78.021
6414.375 0.168 -78.102 0.979 9.684 0.979 9.684 0.168 -78.102
6439.333 0.167 -78.182 0.98 9.579 0.98 9.579 0.167 -78.182
6464.292 0.165 -78.262 0.98 9.474 0.98 9.474 0.165 -78.262
6489.25 0.163 -78.34 0.98 9.37 0.98 9.37 0.163 -78.34
6514.208 0.161 -78.418 0.98 9.267 0.98 9.267 0.161 -78.418
6539.167 0.159 -78.495 0.981 9.163 0.981 9.163 0.159 -78.495
6564.125 0.158 -78.571 0.981 9.06 0.981 9.06 0.158 -78.571
6589.083 0.156 -78.646 0.981 8.958 0.981 8.958 0.156 -78.646
6614.042 0.154 -78.72 0.982 8.856 0.982 8.856 0.154 -78.72
6639 0.152 -78.792 0.982 8.755 0.982 8.755 0.152 -78.792
6663.958 0.151 -78.864 0.982 8.654 0.982 8.654 0.151 -78.864
6688.917 0.149 -78.935 0.982 8.553 0.982 8.553 0.149 -78.935
6713.875 0.147 -79.005 0.983 8.453 0.983 8.453 0.147 -79.005
6738.833 0.145 -79.074 0.983 8.353 0.983 8.353 0.145 -79.074
6763.792 0.144 -79.142 0.983 8.254 0.983 8.254 0.144 -79.142
6788.75 0.142 -79.209 0.983 8.155 0.983 8.155 0.142 -79.209
6813.708 0.14 -79.275 0.984 8.057 0.984 8.057 0.14 -79.275
6838.667 0.139 -79.34 0.984 7.959 0.984 7.959 0.139 -79.34
6863.625 0.137 -79.403 0.984 7.861 0.984 7.861 0.137 -79.403
6888.583 0.135 -79.466 0.984 7.764 0.984 7.764 0.135 -79.466
6913.542 0.134 -79.527 0.985 7.668 0.985 7.668 0.134 -79.527
6938.5 0.132 -79.588 0.985 7.571 0.985 7.571 0.132 -79.588
6963.458 0.13 -79.647 0.985 7.475 0.985 7.475 0.13 -79.647
6988.417 0.129 -79.705 0.985 7.38 0.985 7.38 0.129 -79.705
7013.375 0.127 -79.761 0.985 7.285 0.985 7.285 0.127 -79.761
7038.333 0.125 -79.817 0.986 7.19 0.986 7.19 0.125 -79.817
7063.292 0.124 -79.871 0.986 7.095 0.986 7.095 0.124 -79.871
7088.25 0.122 -79.924 0.986 7.001 0.986 7.001 0.122 -79.924
7113.208 0.12 -79.976 0.986 6.908 0.986 6.908 0.12 -79.976
7138.167 0.119 -80.026 0.986 6.815 0.986 6.815 0.119 -80.026
7163.125 0.117 -80.075 0.987 6.722 0.987 6.722 0.117 -80.075
7188.083 0.116 -80.122 0.987 6.629 0.987 6.629 0.116 -80.122
7213.042 0.114 -80.168 0.987 6.537 0.987 6.537 0.114 -80.168
7238 0.112 -80.213 0.987 6.445 0.987 6.445 0.112 -80.213
7262.958 0.111 -80.256 0.987 6.354 0.987 6.354 0.111 -80.256
7287.917 0.109 -80.297 0.987 6.263 0.987 6.263 0.109 -80.297
7312.875 0.108 -80.337 0.988 6.172 0.988 6.172 0.108 -80.337
7337.833 0.106 -80.375 0.988 6.082 0.988 6.082 0.106 -80.375
7362.792 0.105 -80.412 0.988 5.992 0.988 5.992 0.105 -80.412
7387.75 0.103 -80.447 0.988 5.902 0.988 5.902 0.103 -80.447
7412.708 0.101 -80.48 0.988 5.813 0.988 5.813 0.101 -80.48
7437.667 0.1 -80.511 0.988 5.724 0.988 5.724 0.1 -80.511
7462.625 0.098 -80.54 0.989 5.635 0.989 5.635 0.098 -80.54
7487.583 0.097 -80.567 0.989 5.547 0.989 5.547 0.097 -80.567
7512.542 0.095 -80.592 0.989 5.459 0.989 5.459 0.095 -80.592
7537.5 0.094 -80.615 0.989 5.371 0.989 5.371 0.094 -80.615
7562.458 0.092 -80.636 0.989 5.284 0.989 5.284 0.092 -80.636
7587.417 0.091 -80.655 0.989 5.197 0.989 5.197 0.091 -80.655
7612.375 0.089 -80.671 0.989 5.11 0.989 5.11 0.089 -80.671
7637.333 0.088 -80.685 0.99 5.024 0.99 5.024 0.088 -80.685
7662.292 0.086 -80.696 0.99 4.937 0.99 4.937 0.086 -80.696
7687.25 0.085 -80.704 0.99 4.852 0.99 4.852 0.085 -80.704
7712.208 0.083 -80.71 0.99 4.766 0.99 4.766 0.083 -80.71
7737.167 0.082 -80.713 0.99 4.681 0.99 4.681 0.082 -80.713
7762.125 0.08 -80.713 0.99 4.596 0.99 4.596 0.08 -80.713
7787.083 0.079 -80.709 0.99 4.512 0.99 4.512 0.079 -80.709
7812.042 0.077 -80.703 0.99 4.427 0.99 4.427 0.077 -80.703
7837 0.076 -80.693 0.991 4.343 0.991 4.343 0.076 -80.693
7861.958 0.075 -80.679 0.991 4.26 0.991 4.26 0.075 -80.679
7886.917 0.073 -80.662 0.991 4.176 0.991 4.176 0.073 -80.662
7911.875 0.072 -80.64 0.991 4.093 0.991 4.093 0.072 -80.64
7936.833 0.07 -80.614 0.991 4.01 0.991 4.01 0.07 -80.614
7961.792 0.069 -80.584 0.991 3.928 0.991 3.928 0.069 -80.584
7986.75 0.067 -80.55 0.991 3.846 0.991 3.846 0.067 -80.55
8011.708 0.066 -80.51 0.991 3.764 0.991 3.764 0.066 -80.51
8036.667 0.065 -80.465 0.991 3.682 0.991 3.682 0.065 -80.465
8061.625 0.063 -80.415 0.991 3.601 0.991 3.601 0.063 -80.415
8086.583 0.062 -80.359 0.992 3.519 0.992 3.519 0.062 -80.359
8111.542 0.06 -80.296 0.992 3.439 0.992 3.439 0.06 -80.296
8136.5 0.059 -80.227 0.992 3.358 0.992 3.358 0.059 -80.227
8161.458 0.058 -80.151 0.992 3.278 0.992 3.278 0.058 -80.151
8186.417 0.056 -80.068 0.992 3.197 0.992 3.197 0.056 -80.068
