# MHZ S MA R 50

50 1 -1.53 0.027 88.461 0.027 88.461 1 -1.53
74.958 0.999 -2.293 0.04 87.693 0.04 87.693 0.999 -2.293
99.917 0.999 -3.055 0.053 86.927 0.053 86.927 0.999 -3.055
124.875 0.998 -3.816 0.067 86.161 0.067 86.161 0.998 -3.816
149.833 0.997 -4.576 0.08 85.396 0.08 85.396 0.997 -4.576
174.792 0.996 -5.335 0.093 84.633 0.093 84.633 0.996 -5.335
199.75 0.994 -6.092 0.106 83.871 0.106 83.871 0.994 -6.092
224.708 0.993 -6.847 0.119 83.111 0.119 83.111 0.993 -6.847
249.667 0.991 -7.6 0.132 82.354 0.132 82.354 0.991 -7.6
274.625 0.989 -8.351 0.145 81.598 0.145 81.598 0.989 -8.351
299.583 0.987 -9.099 0.158 80.845 0.158 80.845 0.987 -9.099
324.542 0.985 -9.844 0.171 80.095 0.171 80.095 0.985 -9.844
349.5 0.983 -10.587 0.184 79.348 0.184 79.348 0.983 -10.587
374.458 0.98 -11.326 0.196 78.604 0.196 78.604 0.98 -11.326
399.417 0.978 -12.062 0.209 77.864 0.209 77.864 0.978 -12.062
424.375 0.975 -12.794 0.221 77.127 0.221 77.127 0.975 -12.794
449.333 0.972 -13.523 0.234 76.393 0.234 76.393 0.972 -13.523
474.292 0.969 -14.248 0.246 75.664 0.246 75.664 0.969 -14.248
499.25 0.966 -14.968 0.258 74.939 0.258 74.939 0.966 -14.968
524.208 0.962 -15.685 0.27 74.218 0.27 74.218 0.962 -15.685
549.167 0.959 -16.397 0.282 73.501 0.282 73.501 0.959 -16.397
574.125 0.955 -17.104 0.294 72.789 0.294 72.789 0.955 -17.104
599.083 0.951 -17.807 0.306 72.081 0.306 72.081 0.951 -17.807
624.042 0.948 -18.505 0.317 71.378 0.317 71.378 0.948 -18.505
649 0.944 -19.198 0.329 70.681 0.329 70.681 0.944 -19.198
673.958 0.94 -19.886 0.34 69.988 0.34 69.988 0.94 -19.886
698.917 0.935 -20.569 0.351 69.3 0.351 69.3 0.935 -20.569
723.875 0.931 -21.247 0.362 68.618 0.362 68.618 0.931 -21.247
748.833 0.927 -21.919 0.373 67.941 0.373 67.941 0.927 -21.919
773.792 0.922 -22.585 0.384 67.27 0.384 67.27 0.922 -22.585
798.75 0.918 -23.247 0.395 66.604 0.395 66.604 0.918 -23.247
823.708 0.913 -23.902 0.405 65.944 0.405 65.944 0.913 -23.902
848.667 0.908 -24.552 0.416 65.289 0.416 65.289 0.908 -24.552
873.625 0.904 -25.196 0.426 64.641 0.426 64.641 0.904 -25.196
898.583 0.899 -25.834 0.436 63.998 0.436 63.998 0.899 -25.834
923.542 0.894 -26.466 0.446 63.361 0.446 63.361 0.894 -26.466
948.5 0.889 -27.092 0.455 62.73 0.455 62.73 0.889 -27.092
973.458 0.884 -27.713 0.465 62.105 0.465 62.105 0.884 -27.713
998.417 0.879 -28.327 0.475 61.485 0.475 61.485 0.879 -28.327
1023.375 0.874 -28.935 0.484 60.872 0.484 60.872 0.874 -28.935
1048.333 0.868 -29.537 0.493 60.265 0.493 60.265 0.868 -29.537
1073.292 0.863 -30.134 0.502 59.664 0.502 59.664 0.863 -30.134
1098.25 0.858 -30.724 0.511 59.07 0.511 59.07 0.858 -30.724
1123.208 0.852 -31.307 0.52 58.481 0.52 58.481 0.852 -31.307
1148.167 0.847 -31.885 0.528 57.898 0.528 57.898 0.847 -31.885
1173.125 0.842 -32.457 0.537 57.322 0.537 57.322 0.842 -32.457
1198.083 0.836 -33.023 0.545 56.751 0.545 56.751 0.836 -33.023
1223.042 0.831 -33.582 0.553 56.187 0.553 56.187 0.831 -33.582
1248 0.825 -34.136 0.561 55.628 0.561 55.628 0.825 -34.136
1272.958 0.82 -34.683 0.569 55.076 0.569 55.076 0.82 -34.683
1297.917 0.814 -35.224 0.577 54.53 0.577 54.53 0.814 -35.224
1322.875 0.809 -35.76 0.584 53.989 0.584 53.989 0.809 -35.76
1347.833 0.803 -36.289 0.592 53.455 0.592 53.455 0.803 -36.289
1372.792 0.798 -36.812 0.599 52.927 0.599 52.927 0.798 -36.812
1397.75 0.792 -37.33 0.606 52.404 0.606 52.404 0.792 -37.33
1422.708 0.787 -37.841 0.613 51.888 0.613 51.888 0.787 -37.841
1447.667 0.781 -38.347 0.62 51.377 0.62 51.377 0.781 -38.347
1472.625 0.776 -38.847 0.627 50.872 0.627 50.872 0.776 -38.847
1497.583 0.77 -39.341 0.634 50.373 0.634 50.373 0.77 -39.341
1522.542 0.765 -39.83 0.641 49.879 0.641 49.879 0.765 -39.83
1547.5 0.759 -40.313 0.647 49.391 0.647 49.391 0.759 -40.313
1572.458 0.754 -40.79 0.653 48.909 0.653 48.909 0.754 -40.79
1597.417 0.748 -41.261 0.66 48.433 0.66 48.433 0.748 -41.261
1622.375 0.743 -41.727 0.666 47.961 0.666 47.961 0.743 -41.727
1647.333 0.737 -42.188 0.672 47.496 0.672 47.496 0.737 -42.188
1672.292 0.732 -42.643 0.677 47.035 0.677 47.035 0.732 -42.643
1697.25 0.726 -43.093 0.683 46.58 0.683 46.58 0.726 -43.093
1722.208 0.721 -43.538 0.689 46.131 0.689 46.131 0.721 -43.538
1747.167 0.716 -43.977 0.694 45.686 0.694 45.686 0.716 -43.977
1772.125 0.71 -44.411 0.7 45.247 0.7 45.247 0.71 -44.411
1797.083 0.705 -44.84 0.705 44.813 0.705 44.813 0.705 -44.84
1822.042 0.699 -45.264 0.71 44.384 0.71 44.384 0.699 -45.264
1847 0.694 -45.683 0.715 43.959 0.715 43.959 0.694 -45.683
1871.958 0.689 -46.096 0.721 43.54 0.721 43.54 0.689 -46.096
1896.917 0.684 -46.505 0.725 43.126 0.725 43.126 0.684 -46.505
1921.875 0.678 -46.91 0.73 42.717 0.73 42.717 0.678 -46.91
1946.833 0.673 -47.309 0.735 42.312 0.735 42.312 0.673 -47.309
1971.792 0.668 -47.704 0.74 41.912 0.74 41.912 0.668 -47.704
1996.75 0.663 -48.094 0.744 41.517 0.744 41.517 0.663 -48.094
2021.708 0.658 -48.479 0.749 41.126 0.749 41.126 0.658 -48.479
2046.667 0.653 -48.86 0.753 40.74 0.753 40.74 0.653 -48.86
2071.625 0.648 -49.236 0.757 40.358 0.757 40.358 0.648 -49.236
2096.583 0.643 -49.608 0.762 39.98 0.762 39.98 0.643 -49.608
2121.542 0.638 -49.976 0.766 39.607 0.766 39.607 0.638 -49.976
2146.5 0.633 -50.339 0.77 39.239 0.77 39.239 0.633 -50.339
2171.458 0.628 -50.698 0.774 38.874 0.774 38.874 0.628 -50.698
2196.417 0.623 -51.053 0.778 38.514 0.778 38.514 0.623 -51.053
2221.375 0.618 -51.403 0.782 38.157 0.782 38.157 0.618 -51.403
2246.333 0.613 -51.75 0.785 37.805 0.785 37.805 0.613 -51.75
2271.292 0.608 -52.092 0.789 37.457 0.789 37.457 0.608 -52.092
2296.25 0.603 -52.431 0.793 37.113 0.793 37.113 0.603 -52.431
2321.208 0.599 -52.766 0.796 36.772 0.796 36.772 0.599 -52.766
2346.167 0.594 -53.097 0.8 36.436 0.8 36.436 0.594 -53.097
2371.125 0.589 -53.424 0.803 36.103 0.803 36.103 0.589 -53.424
2396.083 0.585 -53.747 0.806 35.774 0.806 35.774 0.585 -53.747
2421.042 0.58 -54.067 0.81 35.449 0.81 35.449 0.58 -54.067
2446 0.575 -54.383 0.813 35.127 0.813 35.127 0.575 -54.383
2470.958 0.571 -54.695 0.816 34.809 0.816 34.809 0.571 -54.695
2495.917 0.566 -55.004 0.819 34.494 0.819 34.494 0.566 -55.004
2520.875 0.562 -55.309 0.822 34.182 0.822 34.182 0.562 -55.309
2545.833 0.557 -55.611 0.825 33.875 0.825 33.875 0.557 -55.611
2570.792 0.553 -55.91 0.828 33.57 0.828 33.57 0.553 -55.91
2595.75 0.549 -56.205 0.831 33.269 0.831 33.269 0.549 -56.205
2620.708 0.544 -56.497 0.834 32.971 0.834 32.971 0.544 -56.497
2645.667 0.54 -56.786 0.837 32.676 0.837 32.676 0.54 -56.786
2670.625 0.536 -57.071 0.839 32.385 0.839 32.385 0.536 -57.071
2695.583 0.531 -57.354 0.842 32.096 0.842 32.096 0.531 -57.354
2720.542 0.527 -57.633 0.845 31.811 0.845 31.811 0.527 -57.633
2745.5 0.523 -57.909 0.847 31.528 0.847 31.528 0.523 -57.909
2770.458 0.519 -58.182 0.85 31.249 0.85 31.249 0.519 -58.182
2795.417 0.515 -58.453 0.852 30.972 0.852 30.972 0.515 -58.453
2820.375 0.511 -58.72 0.855 30.699 0.855 30.699 0.511 -58.72
2845.333 0.506 -58.984 0.857 30.428 0.857 30.428 0.506 -58.984
2870.292 0.502 -59.246 0.859 30.16 0.859 30.16 0.502 -59.246
2895.25 0.498 -59.505 0.862 29.895 0.862 29.895 0.498 -59.505
2920.208 0.494 -59.761 0.864 29.632 0.864 29.632 0.494 -59.761
2945.167 0.491 -60.014 0.866 29.373 0.866 29.373 0.491 -60.014
2970.125 0.487 -60.265 0.868 29.115 0.868 29.115 0.487 -60.265
2995.083 0.483 -60.513 0.871 28.861 0.871 28.861 0.483 -60.513
3020.042 0.479 -60.758 0.873 28.609 0.873 28.609 0.479 -60.758
3045 0.475 -61.001 0.875 28.359 0.875 28.359 0.475 -61.001
3069.958 0.471 -61.242 0.877 28.112 0.877 28.112 0.471 -61.242
3094.917 0.467 -61.48 0.879 27.868 0.879 27.868 0.467 -61.48
3119.875 0.464 -61.715 0.881 27.625 0.881 27.625 0.464 -61.715
3144.833 0.46 -61.948 0.883 27.386 0.883 27.386 0.46 -61.948
3169.792 0.456 -62.179 0.884 27.148 0.884 27.148 0.456 -62.179
3194.75 0.453 -62.407 0.886 26.913 0.886 26.913 0.453 -62.407
3219.708 0.449 -62.633 0.888 26.68 0.888 26.68 0.449 -62.633
3244.667 0.445 -62.857 0.89 26.45 0.89 26.45 0.445 -62.857
3269.625 0.442 -63.078 0.892 26.221 0.892 26.221 0.442 -63.078
3294.583 0.438 -63.297 0.893 25.995 0.893 25.995 0.438 -63.297
3319.542 0.435 -63.514 0.895 25.771 0.895 25.771 0.435 -63.514
3344.5 0.431 -63.729 0.897 25.549 0.897 25.549 0.431 -63.729
3369.458 0.428 -63.942 0.898 25.329 0.898 25.329 0.428 -63.942
3394.417 0.424 -64.153 0.9 25.111 0.9 25.111 0.424 -64.153
3419.375 0.421 -64.361 0.902 24.895 0.902 24.895 0.421 -64.361
3444.333 0.418 -64.568 0.903 24.681 0.903 24.681 0.418 -64.568
3469.292 0.414 -64.772 0.905 24.469 0.905 24.469 0.414 -64.772
3494.25 0.411 -64.975 0.906 24.259 0.906 24.259 0.411 -64.975
3519.208 0.408 -65.176 0.908 24.051 0.908 24.051 0.408 -65.176
3544.167 0.404 -65.374 0.909 23.845 0.909 23.845 0.404 -65.374
3569.125 0.401 -65.571 0.911 23.64 0.911 23.64 0.401 -65.571
3594.083 0.398 -65.766 0.912 23.438 0.912 23.438 0.398 -65.766
3619.042 0.395 -65.959 0.913 23.237 0.913 23.237 0.395 -65.959
3644 0.391 -66.15 0.915 23.038 0.915 23.038 0.391 -66.15
3668.958 0.388 -66.34 0.916 22.841 0.916 22.841 0.388 -66.34
3693.917 0.385 -66.528 0.917 22.645 0.917 22.645 0.385 -66.528
3718.875 0.382 -66.713 0.919 22.451 0.919 22.451 0.382 -66.713
3743.833 0.379 -66.898 0.92 22.259 0.92 22.259 0.379 -66.898
3768.792 0.376 -67.08 0.921 22.069 0.921 22.069 0.376 -67.08
3793.75 0.373 -67.261 0.922 21.88 0.922 21.88 0.373 -67.261
3818.708 0.37 -67.44 0.924 21.692 0.924 21.692 0.37 -67.44
3843.667 0.367 -67.618 0.925 21.507 0.925 21.507 0.367 -67.618
3868.625 0.364 -67.793 0.926 21.322 0.926 21.322 0.364 -67.793
3893.583 0.361 -67.968 0.927 21.14 0.927 21.14 0.361 -67.968
3918.542 0.358 -68.14 0.928 20.959 0.928 20.959 0.358 -68.14
3943.5 0.355 -68.312 0.929 20.779 0.929 20.779 0.355 -68.312
3968.458 0.352 -68.481 0.93 20.601 0.93 20.601 0.352 -68.481
3993.417 0.349 -68.649 0.931 20.424 0.931 20.424 0.349 -68.649
4018.375 0.346 -68.816 0.933 20.249 0.933 20.249 0.346 -68.816
4043.333 0.343 -68.981 0.934 20.075 0.934 20.075 0.343 -68.981
4068.292 0.34 -69.145 0.935 19.902 0.935 19.902 0.34 -69.145
4093.25 0.338 -69.307 0.936 19.731 0.936 19.731 0.338 -69.307
4118.208 0.335 -69.467 0.937 19.561 0.937 19.561 0.335 -69.467
4143.167 0.332 -69.627 0.938 19.393 0.938 19.393 0.332 -69.627
4168.125 0.329 -69.785 0.939 19.226 0.939 19.226 0.329 -69.785
4193.083 0.327 -69.941 0.939 19.06 0.939 19.06 0.327 -69.941
4218.042 0.324 -70.096 0.94 18.895 0.94 18.895 0.324 -70.096
4243 0.321 -70.25 0.941 18.732 0.941 18.732 0.321 -70.25
4267.958 0.319 -70.403 0.942 18.57 0.942 18.57 0.319 -70.403
4292.917 0.316 -70.554 0.943 18.409 0.943 18.409 0.316 -70.554
4317.875 0.313 -70.704 0.944 18.249 0.944 18.249 0.313 -70.704
4342.833 0.311 -70.853 0.945 18.091 0.945 18.091 0.311 -70.853
4367.792 0.308 -71 0.946 17.934 0.946 17.934 0.308 -71
4392.75 0.305 -71.146 0.947 17.778 0.947 17.778 0.305 -71.146
4417.708 0.303 -71.291 0.947 17.623 0.947 17.623 0.303 -71.291
4442.667 0.3 -71.434 0.948 17.469 0.948 17.469 0.3 -71.434
4467.625 0.298 -71.577 0.949 17.316 0.949 17.316 0.298 -71.577
4492.583 0.295 -71.718 0.95 17.165 0.95 17.165 0.295 -71.718
4517.542 0.293 -71.858 0.95 17.014 0.95 17.014 0.293 -71.858
4542.5 0.29 -71.997 0.951 16.865 0.951 16.865 0.29 -71.997
4567.458 0.288 -72.134 0.952 16.717 0.952 16.717 0.288 -72.134
4592.417 0.285 -72.271 0.953 16.569 0.953 16.569 0.285 -72.271
4617.375 0.283 -72.406 0.953 16.423 0.953 16.423 0.283 -72.406
4642.333 0.28 -72.54 0.954 16.278 0.954 16.278 0.28 -72.54
4667.292 0.278 -72.673 0.955 16.134 0.955 16.134 0.278 -72.673
4692.25 0.276 -72.805 0.956 15.991 0.956 15.991 0.276 -72.805
4717.208 0.273 -72.936 0.956 15.848 0.956 15.848 0.273 -72.936
4742.167 0.271 -73.066 0.957 15.707 0.957 15.707 0.271 -73.066
4767.125 0.268 -73.194 0.958 15.567 0.958 15.567 0.268 -73.194
4792.083 0.266 -73.322 0.958 15.428 0.958 15.428 0.266 -73.322
4817.042 0.264 -73.448 0.959 15.289 0.959 15.289 0.264 -73.448
4842 0.261 -73.574 0.959 15.152 0.959 15.152 0.261 -73.574
4866.958 0.259 -73.698 0.96 15.015 0.96 15.015 0.259 -73.698
4891.917 0.257 -73.822 0.961 14.879 0.961 14.879 0.257 -73.822
4916.875 0.255 -73.944 0.961 14.745 0.961 14.745 0.255 -73.944
4941.833 0.252 -74.065 0.962 14.611 0.962 14.611 0.252 -74.065
4966.792 0.25 -74.186 0.962 14.478 0.962 14.478 0.25 -74.186
4991.75 0.248 -74.305 0.963 14.346 0.963 14.346 0.248 -74.305
5016.708 0.246 -74.423 0.964 14.214 0.964 14.214 0.246 -74.423
5041.667 0.243 -74.541 0.964 14.084 0.964 14.084 0.243 -74.541
5066.625 0.241 -74.657 0.965 13.954 0.965 13.954 0.241 -74.657
5091.583 0.239 -74.772 0.965 13.825 0.965 13.825 0.239 -74.772
5116.542 0.237 -74.887 0.966 13.697 0.966 13.697 0.237 -74.887
5141.5 0.235 -75 0.966 13.57 0.966 13.57 0.235 -75
5166.458 0.233 -75.113 0.967 13.444 0.967 13.444 0.233 -75.113
5191.417 0.23 -75.224 0.967 13.318 0.967 13.318 0.23 -75.224
5216.375 0.228 -75.335 0.968 13.193 0.968 13.193 0.228 -75.335
5241.333 0.226 -75.445 0.968 13.069 0.968 13.069 0.226 -75.445
5266.292 0.224 -75.553 0.969 12.946 0.969 12.946 0.224 -75.553
5291.25 0.222 -75.661 0.969 12.823 0.969 12.823 0.222 -75.661
5316.208 0.22 -75.768 0.97 12.701 0.97 12.701 0.22 -75.768
5341.167 0.218 -75.874 0.97 12.58 0.97 12.58 0.218 -75.874
5366.125 0.216 -75.979 0.971 12.459 0.971 12.459 0.216 -75.979
5391.083 0.214 -76.083 0.971 12.34 0.971 12.34 0.214 -76.083
5416.042 0.212 -76.186 0.971 12.221 0.971 12.221 0.212 -76.186
5441 0.21 -76.289 0.972 12.102 0.972 12.102 0.21 -76.289
5465.958 0.208 -76.39 0.972 11.985 0.972 11.985 0.208 -76.39
5490.917 0.206 -76.49 0.973 11.868 0.973 11.868 0.206 -76.49
5515.875 0.204 -76.59 0.973 11.751 0.973 11.751 0.204 -76.59
5540.833 0.202 -76.689 0.974 11.636 0.974 11.636 0.202 -76.689
5565.792 0.2 -76.787 0.974 11.52 0.974 11.52 0.2 -76.787
5590.75 0.198 -76.884 0.974 11.406 0.974 11.406 0.198 -76.884
5615.708 0.196 -76.98 0.975 11.292 0.975 11.292 0.196 -76.98
5640.667 0.194 -77.075 0.975 11.179 0.975 11.179 0.194 -77.075
5665.625 0.192 -77.169 0.975 11.067 0.975 11.067 0.192 -77.169
5690.583 0.19 -77.263 0.976 10.955 0.976 10.955 0.19 -77.263
5715.542 0.188 -77.355 0.976 10.844 0.976 10.844 0.188 -77.355
5740.5 0.186 -77.447 0.977 10.733 0.977 10.733 0.186 -77.447
5765.458 0.184 -77.537 0.977 10.623 0.977 10.623 0.184 -77.537
5790.417 0.183 -77.627 0.977 10.514 0.977 10.514 0.183 -77.627
5815.375 0.181 -77.716 0.978 10.405 0.978 10.405 0.181 -77.716
5840.333 0.179 -77.804 0.978 10.296 0.978 10.296 0.179 -77.804
5865.292 0.177 -77.892 0.978 10.189 0.978 10.189 0.177 -77.892
5890.25 0.175 -77.978 0.979 10.082 0.979 10.082 0.175 -77.978
5915.208 0.173 -78.063 0.979 9.975 0.979 9.975 0.173 -78.063
5940.167 0.171 -78.148 0.979 9.869 0.979 9.869 0.171 -78.148
5965.125 0.17 -78.232 0.98 9.763 0.98 9.763 0.17 -78.232
5990.083 0.168 -78.314 0.98 9.658 0.98 9.658 0.168 -78.314
6015.042 0.166 -78.396 0.98 9.554 0.98 9.554 0.166 -78.396
6040 0.164 -78.477 0.98 9.45 0.98 9.45 0.164 -78.477
6064.958 0.163 -78.557 0.981 9.347 0.981 9.347 0.163 -78.557
6089.917 0.161 -78.636 0.981 9.244 0.981 9.244 0.161 -78.636
6114.875 0.159 -78.715 0.981 9.142 0.981 9.142 0.159 -78.715
6139.833 0.157 -78.792 0.982 9.04 0.982 9.04 0.157 -78.792
6164.792 0.155 -78.868 0.982 8.938 0.982 8.938 0.155 -78.868
6189.75 0.154 -78.944 0.982 8.838 0.982 8.838 0.154 -78.944
6214.708 0.152 -79.018 0.982 8.737 0.982 8.737 0.152 -79.018
6239.667 0.15 -79.092 0.983 8.637 0.983 8.637 0.15 -79.092
6264.625 0.149 -79.164 0.983 8.538 0.983 8.538 0.149 -79.164
6289.583 0.147 -79.236 0.983 8.439 0.983 8.439 0.147 -79.236
6314.542 0.145 -79.306 0.983 8.341 0.983 8.341 0.145 -79.306
6339.5 0.143 -79.376 0.984 8.243 0.984 8.243 0.143 -79.376
6364.458 0.142 -79.445 0.984 8.145 0.984 8.145 0.142 -79.445
6389.417 0.14 -79.512 0.984 8.048 0.984 8.048 0.14 -79.512
6414.375 0.138 -79.579 0.984 7.952 0.984 7.952 0.138 -79.579
6439.333 0.137 -79.644 0.985 7.856 0.985 7.856 0.137 -79.644
6464.292 0.135 -79.709 0.985 7.76 0.985 7.76 0.135 -79.709
6489.25 0.134 -79.772 0.985 7.665 0.985 7.665 0.134 -79.772
6514.208 0.132 -79.835 0.985 7.57 0.985 7.57 0.132 -79.835
6539.167 0.13 -79.896 0.986 7.475 0.986 7.475 0.13 -79.896
6564.125 0.129 -79.956 0.986 7.381 0.986 7.381 0.129 -79.956
6589.083 0.127 -80.015 0.986 7.288 0.986 7.288 0.127 -80.015
6614.042 0.125 -80.073 0.986 7.195 0.986 7.195 0.125 -80.073
6639 0.124 -80.13 0.986 7.102 0.986 7.102 0.124 -80.13
6663.958 0.122 -80.185 0.987 7.01 0.987 7.01 0.122 -80.185
6688.917 0.121 -80.24 0.987 6.918 0.987 6.918 0.121 -80.24
6713.875 0.119 -80.293 0.987 6.827 0.987 6.827 0.119 -80.293
6738.833 0.117 -80.345 0.987 6.735 0.987 6.735 0.117 -80.345
6763.792 0.116 -80.395 0.987 6.645 0.987 6.645 0.116 -80.395
6788.75 0.114 -80.444 0.987 6.554 0.987 6.554 0.114 -80.444
6813.708 0.113 -80.492 0.988 6.465 0.988 6.465 0.113 -80.492
6838.667 0.111 -80.539 0.988 6.375 0.988 6.375 0.111 -80.539
6863.625 0.11 -80.584 0.988 6.286 0.988 6.286 0.11 -80.584
6888.583 0.108 -80.628 0.988 6.197 0.988 6.197 0.108 -80.628
6913.542 0.107 -80.67 0.988 6.109 0.988 6.109 0.107 -80.67
6938.5 0.105 -80.71 0.988 6.021 0.988 6.021 0.105 -80.71
6963.458 0.104 -80.75 0.989 5.933 0.989 5.933 0.104 -80.75
6988.417 0.102 -80.787 0.989 5.846 0.989 5.846 0.102 -80.787
7013.375 0.101 -80.823 0.989 5.759 0.989 5.759 0.101 -80.823
7038.333 0.099 -80.857 0.989 5.672 0.989 5.672 0.099 -80.857
7063.292 0.098 -80.89 0.989 5.586 0.989 5.586 0.098 -80.89
7088.25 0.096 -80.92 0.989 5.5 0.989 5.5 0.096 -80.92
7113.208 0.095 -80.949 0.99 5.414 0.99 5.414 0.095 -80.949
7138.167 0.093 -80.976 0.99 5.329 0.99 5.329 0.093 -80.976
7163.125 0.092 -81.001 0.99 5.244 0.99 5.244 0.092 -81.001
7188.083 0.09 -81.024 0.99 5.16 0.99 5.16 0.09 -81.024
7213.042 0.089 -81.044 0.99 5.076 0.99 5.076 0.089 -81.044
7238 0.087 -81.063 0.99 4.992 0.99 4.992 0.087 -81.063
7262.958 0.086 -81.079 0.99 4.908 0.99 4.908 0.086 -81.079
7287.917 0.084 -81.093 0.99 4.825 0.99 4.825 0.084 -81.093
7312.875 0.083 -81.105 0.991 4.742 0.991 4.742 0.083 -81.105
7337.833 0.081 -81.113 0.991 4.66 0.991 4.66 0.081 -81.113
7362.792 0.08 -81.12 0.991 4.577 0.991 4.577 0.08 -81.12
7387.75 0.079 -81.123 0.991 4.495 0.991 4.495 0.079 -81.123
7412.708 0.077 -81.124 0.991 4.414 0.991 4.414 0.077 -81.124
7437.667 0.076 -81.121 0.991 4.332 0.991 4.332 0.076 -81.121
7462.625 0.074 -81.116 0.991 4.251 0.991 4.251 0.074 -81.116
7487.583 0.073 -81.107 0.991 4.171 0.991 4.171 0.073 -81.107
7512.542 0.072 -81.095 0.991 4.09 0.991 4.09 0.072 -81.095
7537.5 0.07 -81.079 0.992 4.01 0.992 4.01 0.07 -81.079
7562.458 0.069 -81.059 0.992 3.93 0.992 3.93 0.069 -81.059
7587.417 0.067 -81.035 0.992 3.851 0.992 3.851 0.067 -81.035
7612.375 0.066 -81.007 0.992 3.771 0.992 3.771 0.066 -81.007
7637.333 0.065 -80.975 0.992 3.692 0.992 3.692 0.065 -80.975
7662.292 0.063 -80.938 0.992 3.614 0.992 3.614 0.063 -80.938
7687.25 0.062 -80.896 0.992 3.535 0.992 3.535 0.062 -80.896
7712.208 0.061 -80.848 0.992 3.457 0.992 3.457 0.061 -80.848
7737.167 0.059 -80.796 0.992 3.379 0.992 3.379 0.059 -80.796
7762.125 0.058 -80.737 0.992 3.302 0.992 3.302 0.058 -80.737
7787.083 0.057 -80.672 0.992 3.224 0.992 3.224 0.057 -80.672
7812.042 0.055 -80.601 0.992 3.147 0.992 3.147 0.055 -80.601
7837 0.054 -80.522 0.993 3.07 0.993 3.07 0.054 -80.522
7861.958 0.053 -80.436 0.993 2.994 0.993 2.994 0.053 -80.436
7886.917 0.051 -80.342 0.993 2.918 0.993 2.918 0.051 -80.342
7911.875 0.05 -80.239 0.993 2.842 0.993 2.842 0.05 -80.239
7936.833 0.049 -80.127 0.993 2.766 0.993 2.766 0.049 -80.127
7961.792 0.047 -80.004 0.993 2.69 0.993 2.69 0.047 -80.004
7986.75 0.046 -79.871 0.993 2.615 0.993 2.615 0.046 -79.871
8011.708 0.045 -79.727 0.993 2.54 0.993 2.54 0.045 -79.727
8036.667 0.043 -79.57 0.993 2.465 0.993 2.465 0.043 -79.57
8061.625 0.042 -79.399 0.993 2.391 0.993 2.391 0.042 -79.399
8086.583 0.041 -79.214 0.993 2.317 0.993 2.317 0.041 -79.214
8111.542 0.04 -79.012 0.993 2.243 0.993 2.243 0.04 -79.012
8136.5 0.038 -78.793 0.993 2.169 0.993 2.169 0.038 -78.793
8161.458 0.037 -78.555 0.993 2.095 0.993 2.095 0.037 -78.555
8186.417 0.036 -78.295 0.993 2.022 0.993 2.022 0.036 -78.295
