# MHZ S MA R 50

50 0.988 -8.928 0.155 81.056 0.155 81.056 0.988 -8.928
74.958 0.973 -13.255 0.229 76.721 0.229 76.721 0.973 -13.255
99.917 0.954 -17.435 0.3 72.532 0.3 72.532 0.954 -17.435
124.875 0.931 -21.435 0.365 68.524 0.365 68.524 0.931 -21.435
149.833 0.904 -25.231 0.426 64.72 0.426 64.72 0.904 -25.231
174.792 0.876 -28.808 0.482 61.135 0.482 61.135 0.876 -28.808
199.75 0.846 -32.16 0.532 57.775 0.532 57.775 0.846 -32.16
224.708 0.816 -35.286 0.578 54.64 0.578 54.64 0.816 -35.286
249.667 0.785 -38.193 0.618 51.725 0.618 51.725 0.785 -38.193
274.625 0.755 -40.89 0.655 49.02 0.655 49.02 0.755 -40.89
299.583 0.726 -43.389 0.687 46.513 0.687 46.513 0.726 -43.389
324.542 0.697 -45.702 0.716 44.192 0.716 44.192 0.697 -45.702
349.5 0.67 -47.843 0.741 42.042 0.741 42.042 0.67 -47.843
374.458 0.643 -49.826 0.764 40.051 0.764 40.051 0.643 -49.826
399.417 0.618 -51.663 0.784 38.205 0.784 38.205 0.618 -51.663
424.375 0.595 -53.368 0.802 36.492 0.802 36.492 0.595 -53.368
449.333 0.572 -54.95 0.819 34.901 0.819 34.901 0.572 -54.95
474.292 0.551 -56.422 0.833 33.421 0.833 33.421 0.551 -56.422
499.25 0.531 -57.793 0.846 32.042 0.846 32.042 0.531 -57.793
524.208 0.511 -59.071 0.858 30.755 0.858 30.755 0.511 -59.071
549.167 0.493 -60.265 0.868 29.553 0.868 29.553 0.493 -60.265
574.125 0.476 -61.382 0.878 28.427 0.878 28.427 0.476 -61.382
599.083 0.46 -62.428 0.886 27.372 0.886 27.372 0.46 -62.428
624.042 0.444 -63.41 0.894 26.381 0.894 26.381 0.444 -63.41
649 0.43 -64.334 0.901 25.449 0.901 25.449 0.43 -64.334
673.958 0.416 -65.203 0.908 24.571 0.908 24.571 0.416 -65.203
698.917 0.403 -66.022 0.914 23.743 0.914 23.743 0.403 -66.022
723.875 0.39 -66.795 0.919 22.96 0.919 22.96 0.39 -66.795
748.833 0.378 -67.526 0.924 22.22 0.924 22.22 0.378 -67.526
773.792 0.367 -68.219 0.929 21.519 0.929 21.519 0.367 -68.219
798.75 0.356 -68.875 0.933 20.853 0.933 20.853 0.356 -68.875
823.708 0.346 -69.498 0.937 20.221 0.937 20.221 0.346 -69.498
848.667 0.336 -70.089 0.94 19.62 0.94 19.62 0.336 -70.089
873.625 0.326 -70.652 0.944 19.048 0.944 19.048 0.326 -70.652
898.583 0.317 -71.189 0.947 18.502 0.947 18.502 0.317 -71.189
923.542 0.309 -71.7 0.949 17.981 0.949 17.981 0.309 -71.7
948.5 0.3 -72.189 0.952 17.483 0.952 17.483 0.3 -72.189
973.458 0.292 -72.655 0.955 17.006 0.955 17.006 0.292 -72.655
998.417 0.285 -73.101 0.957 16.55 0.957 16.55 0.285 -73.101
1023.375 0.278 -73.529 0.959 16.113 0.959 16.113 0.278 -73.529
1048.333 0.27 -73.938 0.961 15.693 0.961 15.693 0.27 -73.938
1073.292 0.264 -74.331 0.963 15.29 0.963 15.29 0.264 -74.331
1098.25 0.257 -74.708 0.965 14.903 0.965 14.903 0.257 -74.708
1123.208 0.251 -75.071 0.966 14.53 0.966 14.53 0.251 -75.071
1148.167 0.245 -75.419 0.968 14.171 0.968 14.171 0.245 -75.419
1173.125 0.239 -75.754 0.969 13.825 0.969 13.825 0.239 -75.754
1198.083 0.233 -76.077 0.971 13.491 0.971 13.491 0.233 -76.077
1223.042 0.228 -76.389 0.972 13.169 0.972 13.169 0.228 -76.389
1248 0.223 -76.689 0.973 12.858 0.973 12.858 0.223 -76.689
1272.958 0.217 -76.978 0.974 12.557 0.974 12.557 0.217 -76.978
1297.917 0.212 -77.258 0.975 12.266 0.975 12.266 0.212 -77.258
1322.875 0.208 -77.528 0.976 11.984 0.976 11.984 0.208 -77.528
1347.833 0.203 -77.79 0.977 11.711 0.977 11.711 0.203 -77.79
1372.792 0.198 -78.042 0.978 11.446 0.978 11.446 0.198 -78.042
1397.75 0.194 -78.287 0.979 11.19 0.979 11.19 0.194 -78.287
1422.708 0.19 -78.524 0.98 10.941 0.98 10.941 0.19 -78.524
1447.667 0.186 -78.753 0.981 10.699 0.981 10.699 0.186 -78.753
1472.625 0.182 -78.976 0.982 10.463 0.982 10.463 0.182 -78.976
1497.583 0.178 -79.192 0.982 10.235 0.982 10.235 0.178 -79.192
1522.542 0.174 -79.401 0.983 10.013 0.983 10.013 0.174 -79.401
1547.5 0.17 -79.604 0.984 9.796 0.984 9.796 0.17 -79.604
1572.458 0.167 -79.802 0.984 9.585 0.984 9.585 0.167 -79.802
1597.417 0.163 -79.993 0.985 9.38 0.985 9.38 0.163 -79.993
1622.375 0.16 -80.18 0.985 9.18 0.985 9.18 0.16 -80.18
1647.333 0.156 -80.361 0.986 8.985 0.986 8.985 0.156 -80.361
1672.292 0.153 -80.537 0.986 8.794 0.986 8.794 0.153 -80.537
1697.25 0.15 -80.708 0.987 8.608 0.987 8.608 0.15 -80.708
1722.208 0.147 -80.874 0.987 8.427 0.987 8.427 0.147 -80.874
1747.167 0.143 -81.037 0.988 8.249 0.988 8.249 0.143 -81.037
1772.125 0.14 -81.194 0.988 8.076 0.988 8.076 0.14 -81.194
1797.083 0.138 -81.348 0.989 7.906 0.989 7.906 0.138 -81.348
1822.042 0.135 -81.498 0.989 7.741 0.989 7.741 0.135 -81.498
1847 0.132 -81.643 0.989 7.578 0.989 7.578 0.132 -81.643
1871.958 0.129 -81.785 0.99 7.42 0.99 7.42 0.129 -81.785
1896.917 0.126 -81.924 0.99 7.264 0.99 7.264 0.126 -81.924
1921.875 0.124 -82.059 0.991 7.112 0.991 7.112 0.124 -82.059
1946.833 0.121 -82.19 0.991 6.962 0.991 6.962 0.121 -82.19
1971.792 0.119 -82.318 0.991 6.816 0.991 6.816 0.119 -82.318
1996.75 0.116 -82.443 0.991 6.672 0.991 6.672 0.116 -82.443
2021.708 0.114 -82.564 0.992 6.531 0.992 6.531 0.114 -82.564
2046.667 0.111 -82.683 0.992 6.393 0.992 6.393 0.111 -82.683
2071.625 0.109 -82.798 0.992 6.258 0.992 6.258 0.109 -82.798
2096.583 0.107 -82.911 0.992 6.124 0.992 6.124 0.107 -82.911
2121.542 0.104 -83.021 0.993 5.993 0.993 5.993 0.104 -83.021
2146.5 0.102 -83.127 0.993 5.865 0.993 5.865 0.102 -83.127
2171.458 0.1 -83.231 0.993 5.739 0.993 5.739 0.1 -83.231
2196.417 0.098 -83.333 0.993 5.614 0.993 5.614 0.098 -83.333
2221.375 0.096 -83.431 0.994 5.492 0.994 5.492 0.096 -83.431
2246.333 0.094 -83.527 0.994 5.372 0.994 5.372 0.094 -83.527
2271.292 0.092 -83.62 0.994 5.254 0.994 5.254 0.092 -83.62
2296.25 0.09 -83.711 0.994 5.137 0.994 5.137 0.09 -83.711
2321.208 0.088 -83.799 0.994 5.023 0.994 5.023 0.088 -83.799
2346.167 0.086 -83.885 0.995 4.91 0.995 4.91 0.086 -83.885
2371.125 0.084 -83.968 0.995 4.799 0.995 4.799 0.084 -83.968
2396.083 0.082 -84.048 0.995 4.69 0.995 4.69 0.082 -84.048
2421.042 0.08 -84.126 0.995 4.582 0.995 4.582 0.08 -84.126
2446 0.078 -84.202 0.995 4.476 0.995 4.476 0.078 -84.202
2470.958 0.076 -84.275 0.995 4.371 0.995 4.371 0.076 -84.275
2495.917 0.074 -84.345 0.995 4.268 0.995 4.268 0.074 -84.345
2520.875 0.073 -84.413 0.996 4.166 0.996 4.166 0.073 -84.413
2545.833 0.071 -84.478 0.996 4.065 0.996 4.065 0.071 -84.478
2570.792 0.069 -84.541 0.996 3.966 0.996 3.966 0.069 -84.541
2595.75 0.067 -84.601 0.996 3.868 0.996 3.868 0.067 -84.601
2620.708 0.066 -84.658 0.996 3.772 0.996 3.772 0.066 -84.658
2645.667 0.064 -84.713 0.996 3.677 0.996 3.677 0.064 -84.713
2670.625 0.063 -84.764 0.996 3.583 0.996 3.583 0.063 -84.764
2695.583 0.061 -84.813 0.996 3.49 0.996 3.49 0.061 -84.813
2720.542 0.059 -84.859 0.996 3.398 0.996 3.398 0.059 -84.859
2745.5 0.058 -84.902 0.997 3.307 0.997 3.307 0.058 -84.902
2770.458 0.056 -84.942 0.997 3.217 0.997 3.217 0.056 -84.942
2795.417 0.055 -84.978 0.997 3.129 0.997 3.129 0.055 -84.978
2820.375 0.053 -85.011 0.997 3.041 0.997 3.041 0.053 -85.011
2845.333 0.052 -85.04 0.997 2.955 0.997 2.955 0.052 -85.04
2870.292 0.05 -85.066 0.997 2.869 0.997 2.869 0.05 -85.066
2895.25 0.049 -85.088 0.997 2.784 0.997 2.784 0.049 -85.088
2920.208 0.047 -85.106 0.997 2.701 0.997 2.701 0.047 -85.106
2945.167 0.046 -85.119 0.997 2.618 0.997 2.618 0.046 -85.119
2970.125 0.044 -85.128 0.997 2.536 0.997 2.536 0.044 -85.128
2995.083 0.043 -85.132 0.997 2.455 0.997 2.455 0.043 -85.132
3020.042 0.041 -85.13 0.997 2.375 0.997 2.375 0.041 -85.13
3045 0.04 -85.124 0.997 2.295 0.997 2.295 0.04 -85.124
3069.958 0.039 -85.111 0.997 2.216 0.997 2.216 0.039 -85.111
3094.917 0.037 -85.091 0.997 2.139 0.997 2.139 0.037 -85.091
3119.875 0.036 -85.065 0.998 2.061 0.998 2.061 0.036 -85.065
3144.833 0.035 -85.031 0.998 1.985 0.998 1.985 0.035 -85.031
3169.792 0.033 -84.988 0.998 1.909 0.998 1.909 0.033 -84.988
3194.75 0.032 -84.937 0.998 1.834 0.998 1.834 0.032 -84.937
3219.708 0.031 -84.875 0.998 1.76 0.998 1.76 0.031 -84.875
3244.667 0.029 -84.802 0.998 1.687 0.998 1.687 0.029 -84.802
3269.625 0.028 -84.716 0.998 1.614 0.998 1.614 0.028 -84.716
3294.583 0.027 -84.617 0.998 1.541 0.998 1.541 0.027 -84.617
3319.542 0.026 -84.502 0.998 1.47 0.998 1.47 0.026 -84.502
3344.5 0.024 -84.369 0.998 1.399 0.998 1.399 0.024 -84.369
3369.458 0.023 -84.215 0.998 1.328 0.998 1.328 0.023 -84.215
3394.417 0.022 -84.039 0.998 1.258 0.998 1.258 0.022 -84.039
3419.375 0.021 -83.835 0.998 1.189 0.998 1.189 0.021 -83.835
3444.333 0.02 -83.6 0.998 1.12 0.998 1.12 0.02 -83.6
3469.292 0.018 -83.328 0.998 1.052 0.998 1.052 0.018 -83.328
3494.25 0.017 -83.012 0.998 0.984 0.998 0.984 0.017 -83.012
3519.208 0.016 -82.644 0.998 0.917 0.998 0.917 0.016 -82.644
3544.167 0.015 -82.211 0.998 0.851 0.998 0.851 0.015 -82.211
3569.125 0.014 -81.699 0.998 0.785 0.998 0.785 0.014 -81.699
3594.083 0.013 -81.087 0.998 0.719 0.998 0.719 0.013 -81.087
3619.042 0.012 -80.349 0.998 0.654 0.998 0.654 0.012 -80.349
3644 0.01 -79.446 0.998 0.589 0.998 0.589 0.01 -79.446
3668.958 9.34e-3 -78.321 0.998 0.525 0.998 0.525 9.34e-3 -78.321
3693.917 8.253e-3 -76.892 0.998 0.461 0.998 0.461 8.253e-3 -76.892
3718.875 7.179e-3 -75.026 0.998 0.398 0.998 0.398 7.179e-3 -75.026
3743.833 6.125e-3 -72.506 0.998 0.335 0.998 0.335 6.125e-3 -72.506
3768.792 5.095e-3 -68.954 0.998 0.273 0.998 0.273 5.095e-3 -68.954
3793.75 4.101e-3 -63.65 0.998 0.211 0.998 0.211 4.101e-3 -63.65
3818.708 3.173e-3 -55.134 0.998 0.149 0.998 0.149 3.173e-3 -55.134
3843.667 2.375e-3 -40.367 0.998 0.088 0.998 0.088 2.375e-3 -40.367
3868.625 1.87e-3 -14.87 0.998 0.028 0.998 0.028 1.87e-3 -14.87
3893.583 1.895e-3 17.548 0.998 -0.033 0.998 -0.033 1.895e-3 17.548
3918.542 2.426e-3 41.769 0.998 -0.093 0.998 -0.093 2.426e-3 41.769
3943.5 3.215e-3 55.65 0.998 -0.152 0.998 -0.152 3.215e-3 55.65
3968.458 4.111e-3 63.714 0.998 -0.212 0.998 -0.212 4.111e-3 63.714
3993.417 5.054e-3 68.781 0.998 -0.27 0.998 -0.27 5.054e-3 68.781
4018.375 6.018e-3 72.199 0.998 -0.329 0.998 -0.329 6.018e-3 72.199
4043.333 6.993e-3 74.638 0.998 -0.387 0.998 -0.387 6.993e-3 74.638
4068.292 7.972e-3 76.455 0.998 -0.445 0.998 -0.445 7.972e-3 76.455
4093.25 8.951e-3 77.852 0.998 -0.502 0.998 -0.502 8.951e-3 77.852
4118.208 9.93e-3 78.957 0.998 -0.559 0.998 -0.559 9.93e-3 78.957
4143.167 0.011 79.848 0.998 -0.616 0.998 -0.616 0.011 79.848
4168.125 0.012 80.579 0.998 -0.673 0.998 -0.673 0.012 80.579
4193.083 0.013 81.188 0.998 -0.729 0.998 -0.729 0.013 81.188
4218.042 0.014 81.701 0.998 -0.785 0.998 -0.785 0.014 81.701
4243 0.015 82.137 0.998 -0.84 0.998 -0.84 0.015 82.137
4267.958 0.016 82.511 0.998 -0.896 0.998 -0.896 0.016 82.511
4292.917 0.017 82.834 0.998 -0.951 0.998 -0.951 0.017 82.834
4317.875 0.018 83.115 0.998 -1.005 0.998 -1.005 0.018 83.115
4342.833 0.019 83.361 0.998 -1.06 0.998 -1.06 0.019 83.361
4367.792 0.02 83.576 0.998 -1.114 0.998 -1.114 0.02 83.576
4392.75 0.02 83.766 0.998 -1.168 0.998 -1.168 0.02 83.766
4417.708 0.021 83.934 0.998 -1.221 0.998 -1.221 0.021 83.934
4442.667 0.022 84.082 0.998 -1.274 0.998 -1.274 0.022 84.082
4467.625 0.023 84.214 0.998 -1.328 0.998 -1.328 0.023 84.214
4492.583 0.024 84.331 0.998 -1.38 0.998 -1.38 0.024 84.331
4517.542 0.025 84.435 0.998 -1.433 0.998 -1.433 0.025 84.435
4542.5 0.026 84.528 0.998 -1.485 0.998 -1.485 0.026 84.528
4567.458 0.027 84.611 0.998 -1.537 0.998 -1.537 0.027 84.611
4592.417 0.028 84.684 0.998 -1.589 0.998 -1.589 0.028 84.684
4617.375 0.029 84.75 0.998 -1.641 0.998 -1.641 0.029 84.75
4642.333 0.03 84.808 0.998 -1.692 0.998 -1.692 0.03 84.808
4667.292 0.03 84.859 0.998 -1.743 0.998 -1.743 0.03 84.859
4692.25 0.031 84.904 0.998 -1.794 0.998 -1.794 0.031 84.904
4717.208 0.032 84.944 0.998 -1.845 0.998 -1.845 0.032 84.944
4742.167 0.033 84.979 0.998 -1.895 0.998 -1.895 0.033 84.979
4767.125 0.034 85.009 0.998 -1.945 0.998 -1.945 0.034 85.009
4792.083 0.035 85.036 0.998 -1.995 0.998 -1.995 0.035 85.036
4817.042 0.036 85.058 0.998 -2.045 0.998 -2.045 0.036 85.058
4842 0.037 85.077 0.998 -2.095 0.998 -2.095 0.037 85.077
4866.958 0.037 85.093 0.997 -2.144 0.997 -2.144 0.037 85.093
4891.917 0.038 85.106 0.997 -2.193 0.997 -2.193 0.038 85.106
4916.875 0.039 85.116 0.997 -2.242 0.997 -2.242 0.039 85.116
4941.833 0.04 85.123 0.997 -2.291 0.997 -2.291 0.04 85.123
4966.792 0.041 85.128 0.997 -2.34 0.997 -2.34 0.041 85.128
4991.75 0.042 85.131 0.997 -2.388 0.997 -2.388 0.042 85.131
5016.708 0.043 85.132 0.997 -2.436 0.997 -2.436 0.043 85.132
5041.667 0.043 85.131 0.997 -2.484 0.997 -2.484 0.043 85.131
5066.625 0.044 85.128 0.997 -2.532 0.997 -2.532 0.044 85.128
5091.583 0.045 85.124 0.997 -2.58 0.997 -2.58 0.045 85.124
5116.542 0.046 85.118 0.997 -2.627 0.997 -2.627 0.046 85.118
5141.5 0.047 85.11 0.997 -2.675 0.997 -2.675 0.047 85.11
5166.458 0.048 85.102 0.997 -2.722 0.997 -2.722 0.048 85.102
5191.417 0.048 85.091 0.997 -2.769 0.997 -2.769 0.048 85.091
5216.375 0.049 85.08 0.997 -2.816 0.997 -2.816 0.049 85.08
5241.333 0.05 85.068 0.997 -2.862 0.997 -2.862 0.05 85.068
5266.292 0.051 85.055 0.997 -2.909 0.997 -2.909 0.051 85.055
5291.25 0.052 85.04 0.997 -2.955 0.997 -2.955 0.052 85.04
5316.208 0.052 85.025 0.997 -3.002 0.997 -3.002 0.052 85.025
5341.167 0.053 85.009 0.997 -3.048 0.997 -3.048 0.053 85.009
5366.125 0.054 84.992 0.997 -3.094 0.997 -3.094 0.054 84.992
5391.083 0.055 84.974 0.997 -3.139 0.997 -3.139 0.055 84.974
5416.042 0.056 84.955 0.997 -3.185 0.997 -3.185 0.056 84.955
5441 0.056 84.936 0.997 -3.23 0.997 -3.23 0.056 84.936
5465.958 0.057 84.916 0.997 -3.276 0.997 -3.276 0.057 84.916
5490.917 0.058 84.896 0.997 -3.321 0.997 -3.321 0.058 84.896
5515.875 0.059 84.874 0.996 -3.366 0.996 -3.366 0.059 84.874
5540.833 0.06 84.853 0.996 -3.411 0.996 -3.411 0.06 84.853
5565.792 0.06 84.83 0.996 -3.456 0.996 -3.456 0.06 84.83
5590.75 0.061 84.808 0.996 -3.5 0.996 -3.5 0.061 84.808
5615.708 0.062 84.785 0.996 -3.545 0.996 -3.545 0.062 84.785
5640.667 0.063 84.761 0.996 -3.589 0.996 -3.589 0.063 84.761
5665.625 0.063 84.737 0.996 -3.633 0.996 -3.633 0.063 84.737
5690.583 0.064 84.712 0.996 -3.677 0.996 -3.677 0.064 84.712
5715.542 0.065 84.687 0.996 -3.721 0.996 -3.721 0.065 84.687
5740.5 0.066 84.662 0.996 -3.765 0.996 -3.765 0.066 84.662
5765.458 0.066 84.636 0.996 -3.809 0.996 -3.809 0.066 84.636
5790.417 0.067 84.611 0.996 -3.852 0.996 -3.852 0.067 84.611
5815.375 0.068 84.584 0.996 -3.896 0.996 -3.896 0.068 84.584
5840.333 0.069 84.558 0.996 -3.939 0.996 -3.939 0.069 84.558
5865.292 0.069 84.531 0.996 -3.982 0.996 -3.982 0.069 84.531
5890.25 0.07 84.504 0.996 -4.026 0.996 -4.026 0.07 84.504
5915.208 0.071 84.476 0.996 -4.069 0.996 -4.069 0.071 84.476
5940.167 0.072 84.449 0.996 -4.112 0.996 -4.112 0.072 84.449
5965.125 0.072 84.421 0.996 -4.154 0.996 -4.154 0.072 84.421
5990.083 0.073 84.393 0.996 -4.197 0.996 -4.197 0.073 84.393
6015.042 0.074 84.364 0.995 -4.24 0.995 -4.24 0.074 84.364
6040 0.075 84.336 0.995 -4.282 0.995 -4.282 0.075 84.336
6064.958 0.075 84.307 0.995 -4.324 0.995 -4.324 0.075 84.307
6089.917 0.076 84.278 0.995 -4.367 0.995 -4.367 0.076 84.278
6114.875 0.077 84.249 0.995 -4.409 0.995 -4.409 0.077 84.249
6139.833 0.078 84.219 0.995 -4.451 0.995 -4.451 0.078 84.219
6164.792 0.078 84.19 0.995 -4.493 0.995 -4.493 0.078 84.19
6189.75 0.079 84.16 0.995 -4.534 0.995 -4.534 0.079 84.16
6214.708 0.08 84.131 0.995 -4.576 0.995 -4.576 0.08 84.131
6239.667 0.081 84.101 0.995 -4.618 0.995 -4.618 0.081 84.101
6264.625 0.081 84.071 0.995 -4.659 0.995 -4.659 0.081 84.071
6289.583 0.082 84.04 0.995 -4.701 0.995 -4.701 0.082 84.04
6314.542 0.083 84.01 0.995 -4.742 0.995 -4.742 0.083 84.01
6339.5 0.083 83.98 0.995 -4.783 0.995 -4.783 0.083 83.98
6364.458 0.084 83.949 0.995 -4.825 0.995 -4.825 0.084 83.949
6389.417 0.085 83.918 0.995 -4.866 0.995 -4.866 0.085 83.918
6414.375 0.086 83.888 0.995 -4.907 0.995 -4.907 0.086 83.888
6439.333 0.086 83.857 0.994 -4.947 0.994 -4.947 0.086 83.857
6464.292 0.087 83.826 0.994 -4.988 0.994 -4.988 0.087 83.826
6489.25 0.088 83.795 0.994 -5.029 0.994 -5.029 0.088 83.795
6514.208 0.088 83.764 0.994 -5.07 0.994 -5.07 0.088 83.764
6539.167 0.089 83.732 0.994 -5.11 0.994 -5.11 0.089 83.732
6564.125 0.09 83.701 0.994 -5.151 0.994 -5.151 0.09 83.701
6589.083 0.09 83.67 0.994 -5.191 0.994 -5.191 0.09 83.67
6614.042 0.091 83.638 0.994 -5.231 0.994 -5.231 0.091 83.638
6639 0.092 83.607 0.994 -5.271 0.994 -5.271 0.092 83.607
6663.958 0.093 83.575 0.994 -5.311 0.994 -5.311 0.093 83.575
6688.917 0.093 83.543 0.994 -5.351 0.994 -5.351 0.093 83.543
6713.875 0.094 83.512 0.994 -5.391 0.994 -5.391 0.094 83.512
6738.833 0.095 83.48 0.994 -5.431 0.994 -5.431 0.095 83.48
6763.792 0.095 83.448 0.994 -5.471 0.994 -5.471 0.095 83.448
6788.75 0.096 83.416 0.994 -5.511 0.994 -5.511 0.096 83.416
6813.708 0.097 83.384 0.994 -5.55 0.994 -5.55 0.097 83.384
6838.667 0.097 83.352 0.993 -5.59 0.993 -5.59 0.097 83.352
6863.625 0.098 83.32 0.993 -5.629 0.993 -5.629 0.098 83.32
6888.583 0.099 83.288 0.993 -5.669 0.993 -5.669 0.099 83.288
6913.542 0.099 83.256 0.993 -5.708 0.993 -5.708 0.099 83.256
6938.5 0.1 83.224 0.993 -5.747 0.993 -5.747 0.1 83.224
6963.458 0.101 83.192 0.993 -5.787 0.993 -5.787 0.101 83.192
6988.417 0.102 83.16 0.993 -5.826 0.993 -5.826 0.102 83.16
7013.375 0.102 83.127 0.993 -5.865 0.993 -5.865 0.102 83.127
7038.333 0.103 83.095 0.993 -5.904 0.993 -5.904 0.103 83.095
7063.292 0.104 83.063 0.993 -5.943 0.993 -5.943 0.104 83.063
7088.25 0.104 83.031 0.993 -5.981 0.993 -5.981 0.104 83.031
7113.208 0.105 82.998 0.993 -6.02 0.993 -6.02 0.105 82.998
7138.167 0.106 82.966 0.993 -6.059 0.993 -6.059 0.106 82.966
7163.125 0.106 82.933 0.993 -6.098 0.993 -6.098 0.106 82.933
7188.083 0.107 82.901 0.992 -6.136 0.992 -6.136 0.107 82.901
7213.042 0.108 82.868 0.992 -6.175 0.992 -6.175 0.108 82.868
7238 0.108 82.836 0.992 -6.213 0.992 -6.213 0.108 82.836
7262.958 0.109 82.804 0.992 -6.251 0.992 -6.251 0.109 82.804
7287.917 0.11 82.771 0.992 -6.29 0.992 -6.29 0.11 82.771
7312.875 0.11 82.739 0.992 -6.328 0.992 -6.328 0.11 82.739
7337.833 0.111 82.706 0.992 -6.366 0.992 -6.366 0.111 82.706
7362.792 0.112 82.673 0.992 -6.404 0.992 -6.404 0.112 82.673
7387.75 0.112 82.641 0.992 -6.442 0.992 -6.442 0.112 82.641
7412.708 0.113 82.608 0.992 -6.48 0.992 -6.48 0.113 82.608
7437.667 0.114 82.576 0.992 -6.518 0.992 -6.518 0.114 82.576
7462.625 0.114 82.543 0.992 -6.556 0.992 -6.556 0.114 82.543
7487.583 0.115 82.511 0.992 -6.594 0.992 -6.594 0.115 82.511
7512.542 0.116 82.478 0.992 -6.632 0.992 -6.632 0.116 82.478
7537.5 0.116 82.445 0.991 -6.669 0.991 -6.669 0.116 82.445
7562.458 0.117 82.413 0.991 -6.707 0.991 -6.707 0.117 82.413
7587.417 0.117 82.38 0.991 -6.745 0.991 -6.745 0.117 82.38
7612.375 0.118 82.347 0.991 -6.782 0.991 -6.782 0.118 82.347
7637.333 0.119 82.315 0.991 -6.82 0.991 -6.82 0.119 82.315
7662.292 0.119 82.282 0.991 -6.857 0.991 -6.857 0.119 82.282
7687.25 0.12 82.249 0.991 -6.894 0.991 -6.894 0.12 82.249
7712.208 0.121 82.217 0.991 -6.932 0.991 -6.932 0.121 82.217
7737.167 0.121 82.184 0.991 -6.969 0.991 -6.969 0.121 82.184
7762.125 0.122 82.152 0.991 -7.006 0.991 -7.006 0.122 82.152
7787.083 0.123 82.119 0.991 -7.043 0.991 -7.043 0.123 82.119
7812.042 0.123 82.086 0.991 -7.08 0.991 -7.08 0.123 82.086
7837 0.124 82.054 0.991 -7.117 0.991 -7.117 0.124 82.054
7861.958 0.125 82.021 0.99 -7.154 0.99 -7.154 0.125 82.021
7886.917 0.125 81.988 0.99 -7.191 0.99 -7.191 0.125 81.988
7911.875 0.126 81.956 0.99 -7.228 0.99 -7.228 0.126 81.956
7936.833 0.126 81.923 0.99 -7.265 0.99 -7.265 0.126 81.923
7961.792 0.127 81.89 0.99 -7.302 0.99 -7.302 0.127 81.89
7986.75 0.128 81.858 0.99 -7.338 0.99 -7.338 0.128 81.858
8011.708 0.128 81.825 0.99 -7.375 0.99 -7.375 0.128 81.825
8036.667 0.129 81.792 0.99 -7.412 0.99 -7.412 0.129 81.792
8061.625 0.13 81.76 0.99 -7.448 0.99 -7.448 0.13 81.76
8086.583 0.13 81.727 0.99 -7.485 0.99 -7.485 0.13 81.727
8111.542 0.131 81.695 0.99 -7.521 0.99 -7.521 0.131 81.695
8136.5 0.132 81.662 0.99 -7.558 0.99 -7.558 0.132 81.662
8161.458 0.132 81.629 0.989 -7.594 0.989 -7.594 0.132 81.629
8186.417 0.133 81.597 0.989 -7.63 0.989 -7.63 0.133 81.597
8211.375 0.133 81.564 0.989 -7.667 0.989 -7.667 0.133 81.564
8236.333 0.134 81.532 0.989 -7.703 0.989 -7.703 0.134 81.532
8261.292 0.135 81.499 0.989 -7.739 0.989 -7.739 0.135 81.499
