# MHZ S MA R 50

50 1 -1.17 0.02 88.821 0.02 88.821 1 -1.17
74.958 1 -1.754 0.031 88.233 0.031 88.233 1 -1.754
99.917 0.999 -2.337 0.041 87.646 0.041 87.646 0.999 -2.337
124.875 0.999 -2.92 0.051 87.058 0.051 87.058 0.999 -2.92
149.833 0.998 -3.502 0.061 86.472 0.061 86.472 0.998 -3.502
174.792 0.997 -4.084 0.071 85.885 0.071 85.885 0.997 -4.084
199.75 0.997 -4.665 0.081 85.3 0.081 85.3 0.997 -4.665
224.708 0.996 -5.246 0.091 84.715 0.091 84.715 0.996 -5.246
249.667 0.995 -5.825 0.101 84.131 0.101 84.131 0.995 -5.825
274.625 0.994 -6.404 0.112 83.549 0.112 83.549 0.994 -6.404
299.583 0.992 -6.981 0.122 82.967 0.122 82.967 0.992 -6.981
324.542 0.991 -7.557 0.132 82.386 0.132 82.386 0.991 -7.557
349.5 0.99 -8.132 0.141 81.807 0.141 81.807 0.99 -8.132
374.458 0.988 -8.705 0.151 81.23 0.151 81.23 0.988 -8.705
399.417 0.987 -9.277 0.161 80.653 0.161 80.653 0.987 -9.277
424.375 0.985 -9.848 0.171 80.078 0.171 80.078 0.985 -9.848
449.333 0.983 -10.416 0.181 79.505 0.181 79.505 0.983 -10.416
474.292 0.981 -10.983 0.191 78.934 0.191 78.934 0.981 -10.983
499.25 0.979 -11.549 0.2 78.364 0.2 78.364 0.979 -11.549
524.208 0.977 -12.112 0.21 77.797 0.21 77.797 0.977 -12.112
549.167 0.975 -12.673 0.219 77.231 0.219 77.231 0.975 -12.673
574.125 0.973 -13.232 0.229 76.667 0.229 76.667 0.973 -13.232
599.083 0.971 -13.79 0.238 76.106 0.238 76.106 0.971 -13.79
624.042 0.968 -14.344 0.248 75.547 0.248 75.547 0.968 -14.344
649 0.966 -14.897 0.257 74.99 0.257 74.99 0.966 -14.897
673.958 0.963 -15.447 0.266 74.435 0.266 74.435 0.963 -15.447
698.917 0.961 -15.995 0.276 73.883 0.276 73.883 0.961 -15.995
723.875 0.958 -16.54 0.285 73.333 0.285 73.333 0.958 -16.54
748.833 0.955 -17.083 0.294 72.786 0.294 72.786 0.955 -17.083
773.792 0.952 -17.623 0.303 72.242 0.303 72.242 0.952 -17.623
798.75 0.949 -18.161 0.312 71.7 0.312 71.7 0.949 -18.161
823.708 0.946 -18.695 0.321 71.161 0.321 71.161 0.946 -18.695
848.667 0.943 -19.227 0.329 70.624 0.329 70.624 0.943 -19.227
873.625 0.94 -19.756 0.338 70.091 0.338 70.091 0.94 -19.756
898.583 0.937 -20.282 0.347 69.56 0.347 69.56 0.937 -20.282
923.542 0.934 -20.806 0.355 69.033 0.355 69.033 0.934 -20.806
948.5 0.93 -21.326 0.364 68.508 0.364 68.508 0.93 -21.326
973.458 0.927 -21.843 0.372 67.986 0.372 67.986 0.927 -21.843
998.417 0.924 -22.357 0.38 67.468 0.38 67.468 0.924 -22.357
1023.375 0.92 -22.868 0.389 66.952 0.389 66.952 0.92 -22.868
1048.333 0.917 -23.376 0.397 66.44 0.397 66.44 0.917 -23.376
1073.292 0.913 -23.881 0.405 65.931 0.405 65.931 0.913 -23.881
1098.25 0.909 -24.382 0.413 65.425 0.413 65.425 0.909 -24.382
1123.208 0.906 -24.88 0.421 64.922 0.421 64.922 0.906 -24.88
1148.167 0.902 -25.375 0.429 64.423 0.429 64.423 0.902 -25.375
1173.125 0.898 -25.867 0.436 63.927 0.436 63.927 0.898 -25.867
1198.083 0.894 -26.355 0.444 63.434 0.444 63.434 0.894 -26.355
1223.042 0.891 -26.84 0.452 62.944 0.452 62.944 0.891 -26.84
1248 0.887 -27.322 0.459 62.458 0.459 62.458 0.887 -27.322
1272.958 0.883 -27.8 0.466 61.975 0.466 61.975 0.883 -27.8
1297.917 0.879 -28.275 0.474 61.496 0.474 61.496 0.879 -28.275
1322.875 0.875 -28.746 0.481 61.02 0.481 61.02 0.875 -28.746
1347.833 0.871 -29.214 0.488 60.547 0.488 60.547 0.871 -29.214
1372.792 0.867 -29.679 0.495 60.078 0.495 60.078 0.867 -29.679
1397.75 0.863 -30.14 0.502 59.612 0.502 59.612 0.863 -30.14
1422.708 0.859 -30.598 0.509 59.15 0.509 59.15 0.859 -30.598
1447.667 0.854 -31.052 0.516 58.691 0.516 58.691 0.854 -31.052
1472.625 0.85 -31.503 0.523 58.236 0.523 58.236 0.85 -31.503
1497.583 0.846 -31.95 0.529 57.784 0.529 57.784 0.846 -31.95
1522.542 0.842 -32.394 0.536 57.335 0.536 57.335 0.842 -32.394
1547.5 0.838 -32.834 0.542 56.89 0.542 56.89 0.838 -32.834
1572.458 0.833 -33.271 0.549 56.449 0.549 56.449 0.833 -33.271
1597.417 0.829 -33.705 0.555 56.011 0.555 56.011 0.829 -33.705
1622.375 0.825 -34.135 0.561 55.576 0.561 55.576 0.825 -34.135
1647.333 0.821 -34.561 0.567 55.145 0.567 55.145 0.821 -34.561
1672.292 0.816 -34.984 0.573 54.717 0.573 54.717 0.816 -34.984
1697.25 0.812 -35.404 0.579 54.293 0.579 54.293 0.812 -35.404
1722.208 0.808 -35.82 0.585 53.872 0.585 53.872 0.808 -35.82
1747.167 0.803 -36.233 0.591 53.454 0.591 53.454 0.803 -36.233
1772.125 0.799 -36.643 0.597 53.04 0.597 53.04 0.799 -36.643
1797.083 0.795 -37.049 0.603 52.629 0.603 52.629 0.795 -37.049
1822.042 0.79 -37.451 0.608 52.222 0.608 52.222 0.79 -37.451
1847 0.786 -37.851 0.614 51.817 0.614 51.817 0.786 -37.851
1871.958 0.782 -38.247 0.619 51.417 0.619 51.417 0.782 -38.247
1896.917 0.777 -38.639 0.624 51.019 0.624 51.019 0.777 -38.639
1921.875 0.773 -39.029 0.63 50.625 0.63 50.625 0.773 -39.029
1946.833 0.769 -39.415 0.635 50.234 0.635 50.234 0.769 -39.415
1971.792 0.764 -39.797 0.64 49.846 0.64 49.846 0.764 -39.797
1996.75 0.76 -40.177 0.645 49.462 0.645 49.462 0.76 -40.177
2021.708 0.756 -40.553 0.65 49.081 0.65 49.081 0.756 -40.553
2046.667 0.751 -40.926 0.655 48.703 0.655 48.703 0.751 -40.926
2071.625 0.747 -41.296 0.66 48.328 0.66 48.328 0.747 -41.296
2096.583 0.743 -41.663 0.665 47.957 0.665 47.957 0.743 -41.663
2121.542 0.738 -42.026 0.669 47.588 0.669 47.588 0.738 -42.026
2146.5 0.734 -42.387 0.674 47.223 0.674 47.223 0.734 -42.387
2171.458 0.73 -42.744 0.679 46.861 0.679 46.861 0.73 -42.744
2196.417 0.725 -43.098 0.683 46.501 0.683 46.501 0.725 -43.098
2221.375 0.721 -43.449 0.688 46.145 0.688 46.145 0.721 -43.449
2246.333 0.717 -43.797 0.692 45.792 0.692 45.792 0.717 -43.797
2271.292 0.713 -44.142 0.696 45.442 0.696 45.442 0.713 -44.142
2296.25 0.708 -44.484 0.701 45.095 0.701 45.095 0.708 -44.484
2321.208 0.704 -44.823 0.705 44.751 0.705 44.751 0.704 -44.823
2346.167 0.7 -45.159 0.709 44.41 0.709 44.41 0.7 -45.159
2371.125 0.696 -45.492 0.713 44.072 0.713 44.072 0.696 -45.492
2396.083 0.691 -45.823 0.717 43.736 0.717 43.736 0.691 -45.823
2421.042 0.687 -46.15 0.721 43.404 0.721 43.404 0.687 -46.15
2446 0.683 -46.475 0.725 43.074 0.725 43.074 0.683 -46.475
2470.958 0.679 -46.796 0.729 42.747 0.729 42.747 0.679 -46.796
2495.917 0.675 -47.115 0.733 42.423 0.733 42.423 0.675 -47.115
2520.875 0.67 -47.431 0.736 42.102 0.736 42.102 0.67 -47.431
2545.833 0.666 -47.745 0.74 41.783 0.74 41.783 0.666 -47.745
2570.792 0.662 -48.055 0.744 41.467 0.744 41.467 0.662 -48.055
2595.75 0.658 -48.363 0.747 41.154 0.747 41.154 0.658 -48.363
2620.708 0.654 -48.669 0.751 40.843 0.751 40.843 0.654 -48.669
2645.667 0.65 -48.971 0.754 40.535 0.754 40.535 0.65 -48.971
2670.625 0.646 -49.271 0.758 40.23 0.758 40.23 0.646 -49.271
2695.583 0.642 -49.569 0.761 39.927 0.761 39.927 0.642 -49.569
2720.542 0.638 -49.863 0.765 39.627 0.765 39.627 0.638 -49.863
2745.5 0.634 -50.156 0.768 39.329 0.768 39.329 0.634 -50.156
2770.458 0.63 -50.445 0.771 39.034 0.771 39.034 0.63 -50.445
2795.417 0.626 -50.733 0.774 38.741 0.774 38.741 0.626 -50.733
2820.375 0.622 -51.017 0.777 38.451 0.777 38.451 0.622 -51.017
2845.333 0.618 -51.3 0.78 38.163 0.78 38.163 0.618 -51.3
2870.292 0.614 -51.58 0.784 37.878 0.784 37.878 0.614 -51.58
2895.25 0.61 -51.857 0.787 37.595 0.787 37.595 0.61 -51.857
2920.208 0.606 -52.132 0.789 37.314 0.789 37.314 0.606 -52.132
2945.167 0.602 -52.405 0.792 37.036 0.792 37.036 0.602 -52.405
2970.125 0.598 -52.675 0.795 36.76 0.795 36.76 0.598 -52.675
2995.083 0.595 -52.944 0.798 36.486 0.798 36.486 0.595 -52.944
3020.042 0.591 -53.209 0.801 36.214 0.801 36.214 0.591 -53.209
3045 0.587 -53.473 0.804 35.945 0.804 35.945 0.587 -53.473
3069.958 0.583 -53.734 0.806 35.678 0.806 35.678 0.583 -53.734
3094.917 0.579 -53.993 0.809 35.413 0.809 35.413 0.579 -53.993
3119.875 0.576 -54.25 0.812 35.15 0.812 35.15 0.576 -54.25
3144.833 0.572 -54.505 0.814 34.89 0.814 34.89 0.572 -54.505
3169.792 0.568 -54.758 0.817 34.631 0.817 34.631 0.568 -54.758
3194.75 0.565 -55.008 0.819 34.375 0.819 34.375 0.565 -55.008
3219.708 0.561 -55.257 0.822 34.12 0.822 34.12 0.561 -55.257
3244.667 0.557 -55.503 0.824 33.868 0.824 33.868 0.557 -55.503
3269.625 0.554 -55.747 0.827 33.618 0.827 33.618 0.554 -55.747
3294.583 0.55 -55.99 0.829 33.37 0.829 33.37 0.55 -55.99
3319.542 0.546 -56.23 0.831 33.123 0.831 33.123 0.546 -56.23
3344.5 0.543 -56.468 0.834 32.879 0.834 32.879 0.543 -56.468
3369.458 0.539 -56.704 0.836 32.637 0.836 32.637 0.539 -56.704
3394.417 0.536 -56.939 0.838 32.396 0.838 32.396 0.536 -56.939
3419.375 0.532 -57.171 0.84 32.157 0.84 32.157 0.532 -57.171
3444.333 0.529 -57.402 0.843 31.921 0.843 31.921 0.529 -57.402
3469.292 0.525 -57.63 0.845 31.686 0.845 31.686 0.525 -57.63
3494.25 0.522 -57.857 0.847 31.453 0.847 31.453 0.522 -57.857
3519.208 0.518 -58.082 0.849 31.222 0.849 31.222 0.518 -58.082
3544.167 0.515 -58.305 0.851 30.992 0.851 30.992 0.515 -58.305
3569.125 0.512 -58.527 0.853 30.764 0.853 30.764 0.512 -58.527
3594.083 0.508 -58.746 0.855 30.538 0.855 30.538 0.508 -58.746
3619.042 0.505 -58.964 0.857 30.314 0.857 30.314 0.505 -58.964
3644 0.501 -59.18 0.859 30.092 0.859 30.092 0.501 -59.18
3668.958 0.498 -59.394 0.861 29.871 0.861 29.871 0.498 -59.394
3693.917 0.495 -59.607 0.863 29.652 0.863 29.652 0.495 -59.607
3718.875 0.491 -59.818 0.865 29.434 0.865 29.434 0.491 -59.818
3743.833 0.488 -60.027 0.866 29.218 0.866 29.218 0.488 -60.027
3768.792 0.485 -60.235 0.868 29.004 0.868 29.004 0.485 -60.235
3793.75 0.482 -60.44 0.87 28.792 0.87 28.792 0.482 -60.44
3818.708 0.478 -60.645 0.872 28.581 0.872 28.581 0.478 -60.645
3843.667 0.475 -60.848 0.873 28.371 0.873 28.371 0.475 -60.848
3868.625 0.472 -61.049 0.875 28.163 0.875 28.163 0.472 -61.049
3893.583 0.469 -61.248 0.877 27.957 0.877 27.957 0.469 -61.248
3918.542 0.466 -61.446 0.878 27.752 0.878 27.752 0.466 -61.446
3943.5 0.463 -61.643 0.88 27.548 0.88 27.548 0.463 -61.643
3968.458 0.459 -61.838 0.882 27.346 0.882 27.346 0.459 -61.838
3993.417 0.456 -62.031 0.883 27.146 0.883 27.146 0.456 -62.031
4018.375 0.453 -62.223 0.885 26.947 0.885 26.947 0.453 -62.223
4043.333 0.45 -62.413 0.886 26.749 0.886 26.749 0.45 -62.413
4068.292 0.447 -62.603 0.888 26.553 0.888 26.553 0.447 -62.603
4093.25 0.444 -62.79 0.889 26.358 0.889 26.358 0.444 -62.79
4118.208 0.441 -62.976 0.891 26.165 0.891 26.165 0.441 -62.976
4143.167 0.438 -63.161 0.892 25.973 0.892 25.973 0.438 -63.161
4168.125 0.435 -63.344 0.894 25.782 0.894 25.782 0.435 -63.344
4193.083 0.432 -63.526 0.895 25.593 0.895 25.593 0.432 -63.526
4218.042 0.429 -63.707 0.897 25.405 0.897 25.405 0.429 -63.707
4243 0.426 -63.886 0.898 25.218 0.898 25.218 0.426 -63.886
4267.958 0.423 -64.064 0.899 25.032 0.899 25.032 0.423 -64.064
4292.917 0.42 -64.241 0.901 24.848 0.901 24.848 0.42 -64.241
4317.875 0.417 -64.416 0.902 24.665 0.902 24.665 0.417 -64.416
4342.833 0.414 -64.59 0.903 24.483 0.903 24.483 0.414 -64.59
4367.792 0.412 -64.762 0.905 24.303 0.905 24.303 0.412 -64.762
4392.75 0.409 -64.934 0.906 24.124 0.906 24.124 0.409 -64.934
4417.708 0.406 -65.104 0.907 23.946 0.907 23.946 0.406 -65.104
4442.667 0.403 -65.273 0.908 23.769 0.908 23.769 0.403 -65.273
4467.625 0.4 -65.441 0.91 23.593 0.91 23.593 0.4 -65.441
4492.583 0.398 -65.607 0.911 23.419 0.911 23.419 0.398 -65.607
4517.542 0.395 -65.772 0.912 23.245 0.912 23.245 0.395 -65.772
4542.5 0.392 -65.936 0.913 23.073 0.913 23.073 0.392 -65.936
4567.458 0.389 -66.099 0.914 22.902 0.914 22.902 0.389 -66.099
4592.417 0.386 -66.261 0.916 22.732 0.916 22.732 0.386 -66.261
4617.375 0.384 -66.421 0.917 22.563 0.917 22.563 0.384 -66.421
4642.333 0.381 -66.58 0.918 22.396 0.918 22.396 0.381 -66.58
4667.292 0.378 -66.739 0.919 22.229 0.919 22.229 0.378 -66.739
4692.25 0.376 -66.896 0.92 22.063 0.92 22.063 0.376 -66.896
4717.208 0.373 -67.051 0.921 21.899 0.921 21.899 0.373 -67.051
4742.167 0.37 -67.206 0.922 21.735 0.922 21.735 0.37 -67.206
4767.125 0.368 -67.36 0.923 21.573 0.923 21.573 0.368 -67.36
4792.083 0.365 -67.513 0.924 21.411 0.924 21.411 0.365 -67.513
4817.042 0.363 -67.664 0.925 21.251 0.925 21.251 0.363 -67.664
4842 0.36 -67.814 0.926 21.091 0.926 21.091 0.36 -67.814
4866.958 0.357 -67.964 0.927 20.933 0.927 20.933 0.357 -67.964
4891.917 0.355 -68.112 0.928 20.776 0.928 20.776 0.355 -68.112
4916.875 0.352 -68.259 0.929 20.619 0.929 20.619 0.352 -68.259
4941.833 0.35 -68.406 0.93 20.463 0.93 20.463 0.35 -68.406
4966.792 0.347 -68.551 0.931 20.309 0.931 20.309 0.347 -68.551
4991.75 0.345 -68.695 0.932 20.155 0.932 20.155 0.345 -68.695
5016.708 0.342 -68.838 0.933 20.003 0.933 20.003 0.342 -68.838
5041.667 0.34 -68.98 0.934 19.851 0.934 19.851 0.34 -68.98
5066.625 0.337 -69.122 0.935 19.7 0.935 19.7 0.337 -69.122
5091.583 0.335 -69.262 0.935 19.55 0.935 19.55 0.335 -69.262
5116.542 0.332 -69.401 0.936 19.401 0.936 19.401 0.332 -69.401
5141.5 0.33 -69.539 0.937 19.252 0.937 19.252 0.33 -69.539
5166.458 0.327 -69.677 0.938 19.105 0.938 19.105 0.327 -69.677
5191.417 0.325 -69.813 0.939 18.959 0.939 18.959 0.325 -69.813
5216.375 0.323 -69.948 0.94 18.813 0.94 18.813 0.323 -69.948
5241.333 0.32 -70.083 0.94 18.668 0.94 18.668 0.32 -70.083
5266.292 0.318 -70.216 0.941 18.524 0.941 18.524 0.318 -70.216
5291.25 0.315 -70.349 0.942 18.381 0.942 18.381 0.315 -70.349
5316.208 0.313 -70.481 0.943 18.239 0.943 18.239 0.313 -70.481
5341.167 0.311 -70.611 0.944 18.097 0.944 18.097 0.311 -70.611
5366.125 0.308 -70.741 0.944 17.957 0.944 17.957 0.308 -70.741
5391.083 0.306 -70.87 0.945 17.817 0.945 17.817 0.306 -70.87
5416.042 0.304 -70.998 0.946 17.678 0.946 17.678 0.304 -70.998
5441 0.301 -71.126 0.946 17.539 0.946 17.539 0.301 -71.126
5465.958 0.299 -71.252 0.947 17.402 0.947 17.402 0.299 -71.252
5490.917 0.297 -71.377 0.948 17.265 0.948 17.265 0.297 -71.377
5515.875 0.295 -71.502 0.949 17.129 0.949 17.129 0.295 -71.502
5540.833 0.292 -71.626 0.949 16.993 0.949 16.993 0.292 -71.626
5565.792 0.29 -71.749 0.95 16.859 0.95 16.859 0.29 -71.749
5590.75 0.288 -71.871 0.951 16.725 0.951 16.725 0.288 -71.871
5615.708 0.286 -71.992 0.951 16.592 0.951 16.592 0.286 -71.992
5640.667 0.283 -72.112 0.952 16.46 0.952 16.46 0.283 -72.112
5665.625 0.281 -72.232 0.953 16.328 0.953 16.328 0.281 -72.232
5690.583 0.279 -72.351 0.953 16.197 0.953 16.197 0.279 -72.351
5715.542 0.277 -72.468 0.954 16.067 0.954 16.067 0.277 -72.468
5740.5 0.275 -72.585 0.954 15.937 0.954 15.937 0.275 -72.585
5765.458 0.273 -72.702 0.955 15.808 0.955 15.808 0.273 -72.702
5790.417 0.27 -72.817 0.956 15.68 0.956 15.68 0.27 -72.817
5815.375 0.268 -72.932 0.956 15.552 0.956 15.552 0.268 -72.932
5840.333 0.266 -73.046 0.957 15.425 0.957 15.425 0.266 -73.046
5865.292 0.264 -73.159 0.957 15.299 0.957 15.299 0.264 -73.159
5890.25 0.262 -73.271 0.958 15.173 0.958 15.173 0.262 -73.271
5915.208 0.26 -73.382 0.959 15.048 0.959 15.048 0.26 -73.382
5940.167 0.258 -73.493 0.959 14.924 0.959 14.924 0.258 -73.493
5965.125 0.256 -73.603 0.96 14.8 0.96 14.8 0.256 -73.603
5990.083 0.253 -73.712 0.96 14.677 0.96 14.677 0.253 -73.712
6015.042 0.251 -73.82 0.961 14.555 0.961 14.555 0.251 -73.82
6040 0.249 -73.928 0.961 14.433 0.961 14.433 0.249 -73.928
6064.958 0.247 -74.035 0.962 14.312 0.962 14.312 0.247 -74.035
6089.917 0.245 -74.141 0.962 14.191 0.962 14.191 0.245 -74.141
6114.875 0.243 -74.246 0.963 14.071 0.963 14.071 0.243 -74.246
6139.833 0.241 -74.35 0.963 13.951 0.963 13.951 0.241 -74.35
6164.792 0.239 -74.454 0.964 13.833 0.964 13.833 0.239 -74.454
6189.75 0.237 -74.557 0.964 13.714 0.964 13.714 0.237 -74.557
6214.708 0.235 -74.659 0.965 13.596 0.965 13.596 0.235 -74.659
6239.667 0.233 -74.761 0.965 13.479 0.965 13.479 0.233 -74.761
6264.625 0.231 -74.861 0.966 13.363 0.966 13.363 0.231 -74.861
6289.583 0.229 -74.961 0.966 13.247 0.966 13.247 0.229 -74.961
6314.542 0.227 -75.06 0.967 13.131 0.967 13.131 0.227 -75.06
6339.5 0.225 -75.159 0.967 13.016 0.967 13.016 0.225 -75.159
6364.458 0.223 -75.256 0.968 12.902 0.968 12.902 0.223 -75.256
6389.417 0.221 -75.353 0.968 12.788 0.968 12.788 0.221 -75.353
6414.375 0.22 -75.45 0.968 12.675 0.968 12.675 0.22 -75.45
6439.333 0.218 -75.545 0.969 12.562 0.969 12.562 0.218 -75.545
6464.292 0.216 -75.64 0.969 12.449 0.969 12.449 0.216 -75.64
6489.25 0.214 -75.734 0.97 12.338 0.97 12.338 0.214 -75.734
6514.208 0.212 -75.827 0.97 12.226 0.97 12.226 0.212 -75.827
6539.167 0.21 -75.919 0.971 12.116 0.971 12.116 0.21 -75.919
6564.125 0.208 -76.011 0.971 12.005 0.971 12.005 0.208 -76.011
6589.083 0.206 -76.102 0.971 11.895 0.971 11.895 0.206 -76.102
6614.042 0.204 -76.192 0.972 11.786 0.972 11.786 0.204 -76.192
6639 0.203 -76.282 0.972 11.677 0.972 11.677 0.203 -76.282
6663.958 0.201 -76.37 0.972 11.569 0.972 11.569 0.201 -76.37
6688.917 0.199 -76.458 0.973 11.461 0.973 11.461 0.199 -76.458
6713.875 0.197 -76.545 0.973 11.354 0.973 11.354 0.197 -76.545
6738.833 0.195 -76.632 0.974 11.247 0.974 11.247 0.195 -76.632
6763.792 0.193 -76.717 0.974 11.141 0.974 11.141 0.193 -76.717
6788.75 0.192 -76.802 0.974 11.035 0.974 11.035 0.192 -76.802
6813.708 0.19 -76.886 0.975 10.929 0.975 10.929 0.19 -76.886
6838.667 0.188 -76.97 0.975 10.824 0.975 10.824 0.188 -76.97
6863.625 0.186 -77.052 0.975 10.719 0.975 10.719 0.186 -77.052
6888.583 0.184 -77.134 0.976 10.615 0.976 10.615 0.184 -77.134
6913.542 0.183 -77.215 0.976 10.512 0.976 10.512 0.183 -77.215
6938.5 0.181 -77.295 0.976 10.408 0.976 10.408 0.181 -77.295
6963.458 0.179 -77.375 0.977 10.305 0.977 10.305 0.179 -77.375
6988.417 0.177 -77.453 0.977 10.203 0.977 10.203 0.177 -77.453
7013.375 0.176 -77.531 0.977 10.101 0.977 10.101 0.176 -77.531
7038.333 0.174 -77.608 0.978 10 0.978 10 0.174 -77.608
7063.292 0.172 -77.685 0.978 9.898 0.978 9.898 0.172 -77.685
7088.25 0.17 -77.76 0.978 9.798 0.978 9.798 0.17 -77.76
7113.208 0.169 -77.834 0.978 9.697 0.978 9.697 0.169 -77.834
7138.167 0.167 -77.908 0.979 9.597 0.979 9.597 0.167 -77.908
7163.125 0.165 -77.981 0.979 9.498 0.979 9.498 0.165 -77.981
7188.083 0.163 -78.053 0.979 9.399 0.979 9.399 0.163 -78.053
7213.042 0.162 -78.124 0.98 9.3 0.98 9.3 0.162 -78.124
7238 0.16 -78.195 0.98 9.202 0.98 9.202 0.16 -78.195
7262.958 0.158 -78.264 0.98 9.104 0.98 9.104 0.158 -78.264
7287.917 0.157 -78.333 0.98 9.006 0.98 9.006 0.157 -78.333
7312.875 0.155 -78.401 0.981 8.909 0.981 8.909 0.155 -78.401
7337.833 0.153 -78.467 0.981 8.813 0.981 8.813 0.153 -78.467
7362.792 0.152 -78.533 0.981 8.716 0.981 8.716 0.152 -78.533
7387.75 0.15 -78.598 0.981 8.62 0.981 8.62 0.15 -78.598
7412.708 0.148 -78.662 0.982 8.525 0.982 8.525 0.148 -78.662
7437.667 0.147 -78.725 0.982 8.429 0.982 8.429 0.147 -78.725
7462.625 0.145 -78.787 0.982 8.334 0.982 8.334 0.145 -78.787
7487.583 0.144 -78.848 0.982 8.24 0.982 8.24 0.144 -78.848
7512.542 0.142 -78.908 0.983 8.146 0.983 8.146 0.142 -78.908
7537.5 0.14 -78.968 0.983 8.052 0.983 8.052 0.14 -78.968
7562.458 0.139 -79.026 0.983 7.958 0.983 7.958 0.139 -79.026
7587.417 0.137 -79.083 0.983 7.865 0.983 7.865 0.137 -79.083
7612.375 0.135 -79.139 0.984 7.773 0.984 7.773 0.135 -79.139
7637.333 0.134 -79.193 0.984 7.68 0.984 7.68 0.134 -79.193
7662.292 0.132 -79.247 0.984 7.588 0.984 7.588 0.132 -79.247
7687.25 0.131 -79.3 0.984 7.496 0.984 7.496 0.131 -79.3
7712.208 0.129 -79.351 0.984 7.405 0.984 7.405 0.129 -79.351
7737.167 0.128 -79.402 0.985 7.314 0.985 7.314 0.128 -79.402
7762.125 0.126 -79.451 0.985 7.223 0.985 7.223 0.126 -79.451
7787.083 0.124 -79.499 0.985 7.133 0.985 7.133 0.124 -79.499
7812.042 0.123 -79.545 0.985 7.043 0.985 7.043 0.123 -79.545
7837 0.121 -79.591 0.985 6.953 0.985 6.953 0.121 -79.591
7861.958 0.12 -79.635 0.986 6.863 0.986 6.863 0.12 -79.635
7886.917 0.118 -79.677 0.986 6.774 0.986 6.774 0.118 -79.677
7911.875 0.117 -79.719 0.986 6.685 0.986 6.685 0.117 -79.719
7936.833 0.115 -79.759 0.986 6.597 0.986 6.597 0.115 -79.759
7961.792 0.114 -79.797 0.986 6.509 0.986 6.509 0.114 -79.797
7986.75 0.112 -79.834 0.986 6.421 0.986 6.421 0.112 -79.834
8011.708 0.111 -79.87 0.987 6.333 0.987 6.333 0.111 -79.87
8036.667 0.109 -79.904 0.987 6.246 0.987 6.246 0.109 -79.904
8061.625 0.108 -79.936 0.987 6.159 0.987 6.159 0.108 -79.936
8086.583 0.106 -79.967 0.987 6.073 0.987 6.073 0.106 -79.967
8111.542 0.105 -79.996 0.987 5.986 0.987 5.986 0.105 -79.996
8136.5 0.103 -80.023 0.987 5.9 0.987 5.9 0.103 -80.023
8161.458 0.102 -80.048 0.988 5.814 0.988 5.814 0.102 -80.048
