# MHZ S MA R 50

50 0.99 -8.048 0.14 81.937 0.14 81.937 0.99 -8.048
74.958 0.978 -11.969 0.207 78.007 0.207 78.007 0.978 -11.969
99.917 0.962 -15.782 0.272 74.186 0.272 74.186 0.962 -15.782
124.875 0.943 -19.46 0.333 70.501 0.333 70.501 0.943 -19.46
149.833 0.92 -22.98 0.39 66.972 0.39 66.972 0.92 -22.98
174.792 0.896 -26.33 0.444 63.614 0.444 63.614 0.896 -26.33
199.75 0.87 -29.501 0.492 60.436 0.492 60.436 0.87 -29.501
224.708 0.843 -32.489 0.537 57.44 0.537 57.44 0.843 -32.489
249.667 0.815 -35.295 0.578 54.626 0.578 54.626 0.815 -35.295
274.625 0.788 -37.923 0.615 51.99 0.615 51.99 0.788 -37.923
299.583 0.761 -40.381 0.648 49.524 0.648 49.524 0.761 -40.381
324.542 0.734 -42.676 0.678 47.221 0.678 47.221 0.734 -42.676
349.5 0.708 -44.817 0.705 45.071 0.705 45.071 0.708 -44.817
374.458 0.683 -46.816 0.729 43.065 0.729 43.065 0.683 -46.816
399.417 0.659 -48.68 0.751 41.193 0.751 41.193 0.659 -48.68
424.375 0.635 -50.421 0.771 39.444 0.771 39.444 0.635 -50.421
449.333 0.613 -52.046 0.789 37.81 0.789 37.81 0.613 -52.046
474.292 0.592 -53.566 0.805 36.282 0.805 36.282 0.592 -53.566
499.25 0.571 -54.989 0.819 34.851 0.819 34.851 0.571 -54.989
524.208 0.552 -56.321 0.832 33.51 0.832 33.51 0.552 -56.321
549.167 0.534 -57.571 0.844 32.252 0.844 32.252 0.534 -57.571
574.125 0.516 -58.745 0.855 31.07 0.855 31.07 0.516 -58.745
599.083 0.499 -59.848 0.865 29.958 0.865 29.958 0.499 -59.848
624.042 0.483 -60.887 0.874 28.911 0.874 28.911 0.483 -60.887
649 0.468 -61.866 0.882 27.923 0.882 27.923 0.468 -61.866
673.958 0.454 -62.791 0.889 26.99 0.889 26.99 0.454 -62.791
698.917 0.44 -63.664 0.896 26.108 0.896 26.108 0.44 -63.664
723.875 0.427 -64.49 0.903 25.273 0.903 25.273 0.427 -64.49
748.833 0.414 -65.273 0.908 24.482 0.908 24.482 0.414 -65.273
773.792 0.402 -66.016 0.914 23.73 0.914 23.73 0.402 -66.016
798.75 0.391 -66.721 0.919 23.016 0.919 23.016 0.391 -66.721
823.708 0.38 -67.391 0.923 22.337 0.923 22.337 0.38 -67.391
848.667 0.37 -68.029 0.927 21.69 0.927 21.69 0.37 -68.029
873.625 0.36 -68.637 0.931 21.073 0.931 21.073 0.36 -68.637
898.583 0.35 -69.217 0.935 20.484 0.935 20.484 0.35 -69.217
923.542 0.341 -69.771 0.938 19.922 0.938 19.922 0.341 -69.771
948.5 0.332 -70.3 0.941 19.383 0.941 19.383 0.332 -70.3
973.458 0.323 -70.806 0.944 18.868 0.944 18.868 0.323 -70.806
998.417 0.315 -71.29 0.947 18.374 0.947 18.374 0.315 -71.29
1023.375 0.307 -71.754 0.95 17.9 0.95 17.9 0.307 -71.754
1048.333 0.3 -72.2 0.952 17.445 0.952 17.445 0.3 -72.2
1073.292 0.293 -72.627 0.954 17.008 0.954 17.008 0.293 -72.627
1098.25 0.285 -73.038 0.957 16.588 0.957 16.588 0.285 -73.038
1123.208 0.279 -73.433 0.959 16.183 0.959 16.183 0.279 -73.433
1148.167 0.272 -73.813 0.96 15.793 0.96 15.793 0.272 -73.813
1173.125 0.266 -74.179 0.962 15.417 0.962 15.417 0.266 -74.179
1198.083 0.26 -74.532 0.964 15.054 0.964 15.054 0.26 -74.532
1223.042 0.254 -74.872 0.965 14.703 0.965 14.703 0.254 -74.872
1248 0.248 -75.2 0.967 14.365 0.967 14.365 0.248 -75.2
1272.958 0.243 -75.517 0.968 14.037 0.968 14.037 0.243 -75.517
1297.917 0.237 -75.823 0.97 13.721 0.97 13.721 0.237 -75.823
1322.875 0.232 -76.119 0.971 13.414 0.971 13.414 0.232 -76.119
1347.833 0.227 -76.405 0.972 13.117 0.972 13.117 0.227 -76.405
1372.792 0.222 -76.682 0.973 12.828 0.973 12.828 0.222 -76.682
1397.75 0.217 -76.95 0.974 12.549 0.974 12.549 0.217 -76.95
1422.708 0.213 -77.21 0.975 12.278 0.975 12.278 0.213 -77.21
1447.667 0.208 -77.462 0.976 12.014 0.976 12.014 0.208 -77.462
1472.625 0.204 -77.706 0.977 11.758 0.977 11.758 0.204 -77.706
1497.583 0.2 -77.943 0.978 11.509 0.978 11.509 0.2 -77.943
1522.542 0.195 -78.173 0.979 11.267 0.979 11.267 0.195 -78.173
1547.5 0.191 -78.397 0.98 11.031 0.98 11.031 0.191 -78.397
1572.458 0.187 -78.614 0.98 10.802 0.98 10.802 0.187 -78.614
1597.417 0.184 -78.825 0.981 10.578 0.981 10.578 0.184 -78.825
1622.375 0.18 -79.03 0.982 10.36 0.982 10.36 0.18 -79.03
1647.333 0.176 -79.23 0.982 10.147 0.982 10.147 0.176 -79.23
1672.292 0.173 -79.424 0.983 9.94 0.983 9.94 0.173 -79.424
1697.25 0.169 -79.613 0.984 9.738 0.984 9.738 0.169 -79.613
1722.208 0.166 -79.796 0.984 9.54 0.984 9.54 0.166 -79.796
1747.167 0.162 -79.976 0.985 9.347 0.985 9.347 0.162 -79.976
1772.125 0.159 -80.15 0.985 9.158 0.985 9.158 0.159 -80.15
1797.083 0.156 -80.32 0.986 8.974 0.986 8.974 0.156 -80.32
1822.042 0.153 -80.486 0.986 8.793 0.986 8.793 0.153 -80.486
1847 0.15 -80.647 0.987 8.617 0.987 8.617 0.15 -80.647
1871.958 0.147 -80.805 0.987 8.444 0.987 8.444 0.147 -80.805
1896.917 0.144 -80.958 0.988 8.275 0.988 8.275 0.144 -80.958
1921.875 0.141 -81.108 0.988 8.109 0.988 8.109 0.141 -81.108
1946.833 0.138 -81.254 0.988 7.947 0.988 7.947 0.138 -81.254
1971.792 0.136 -81.397 0.989 7.788 0.989 7.788 0.136 -81.397
1996.75 0.133 -81.536 0.989 7.632 0.989 7.632 0.133 -81.536
2021.708 0.13 -81.672 0.99 7.479 0.99 7.479 0.13 -81.672
2046.667 0.128 -81.804 0.99 7.329 0.99 7.329 0.128 -81.804
2071.625 0.125 -81.933 0.99 7.182 0.99 7.182 0.125 -81.933
2096.583 0.123 -82.06 0.991 7.037 0.991 7.037 0.123 -82.06
2121.542 0.12 -82.183 0.991 6.895 0.991 6.895 0.12 -82.183
2146.5 0.118 -82.303 0.991 6.755 0.991 6.755 0.118 -82.303
2171.458 0.115 -82.421 0.991 6.618 0.991 6.618 0.115 -82.421
2196.417 0.113 -82.535 0.992 6.484 0.992 6.484 0.113 -82.535
2221.375 0.111 -82.647 0.992 6.351 0.992 6.351 0.111 -82.647
2246.333 0.108 -82.756 0.992 6.221 0.992 6.221 0.108 -82.756
2271.292 0.106 -82.862 0.992 6.093 0.992 6.093 0.106 -82.862
2296.25 0.104 -82.966 0.993 5.967 0.993 5.967 0.104 -82.966
2321.208 0.102 -83.067 0.993 5.843 0.993 5.843 0.102 -83.067
2346.167 0.1 -83.166 0.993 5.721 0.993 5.721 0.1 -83.166
2371.125 0.098 -83.262 0.993 5.601 0.993 5.601 0.098 -83.262
2396.083 0.096 -83.356 0.993 5.482 0.993 5.482 0.096 -83.356
2421.042 0.094 -83.447 0.994 5.366 0.994 5.366 0.094 -83.447
2446 0.092 -83.536 0.994 5.251 0.994 5.251 0.092 -83.536
2470.958 0.09 -83.622 0.994 5.138 0.994 5.138 0.09 -83.622
2495.917 0.088 -83.706 0.994 5.026 0.994 5.026 0.088 -83.706
2520.875 0.086 -83.788 0.994 4.916 0.994 4.916 0.086 -83.788
2545.833 0.084 -83.867 0.995 4.807 0.995 4.807 0.084 -83.867
2570.792 0.082 -83.944 0.995 4.7 0.995 4.7 0.082 -83.944
2595.75 0.08 -84.018 0.995 4.595 0.995 4.595 0.08 -84.018
2620.708 0.078 -84.09 0.995 4.491 0.995 4.491 0.078 -84.09
2645.667 0.077 -84.159 0.995 4.388 0.995 4.388 0.077 -84.159
2670.625 0.075 -84.226 0.995 4.286 0.995 4.286 0.075 -84.226
2695.583 0.073 -84.291 0.995 4.186 0.995 4.186 0.073 -84.291
2720.542 0.071 -84.353 0.996 4.087 0.996 4.087 0.071 -84.353
2745.5 0.07 -84.412 0.996 3.989 0.996 3.989 0.07 -84.412
2770.458 0.068 -84.469 0.996 3.893 0.996 3.893 0.068 -84.469
2795.417 0.066 -84.523 0.996 3.797 0.996 3.797 0.066 -84.523
2820.375 0.065 -84.574 0.996 3.703 0.996 3.703 0.065 -84.574
2845.333 0.063 -84.623 0.996 3.61 0.996 3.61 0.063 -84.623
2870.292 0.061 -84.669 0.996 3.518 0.996 3.518 0.061 -84.669
2895.25 0.06 -84.711 0.996 3.427 0.996 3.427 0.06 -84.711
2920.208 0.058 -84.751 0.996 3.337 0.996 3.337 0.058 -84.751
2945.167 0.057 -84.788 0.996 3.248 0.996 3.248 0.057 -84.788
2970.125 0.055 -84.821 0.997 3.16 0.997 3.16 0.055 -84.821
2995.083 0.054 -84.851 0.997 3.073 0.997 3.073 0.054 -84.851
3020.042 0.052 -84.877 0.997 2.986 0.997 2.986 0.052 -84.877
3045 0.051 -84.899 0.997 2.901 0.997 2.901 0.051 -84.899
3069.958 0.049 -84.918 0.997 2.817 0.997 2.817 0.049 -84.918
3094.917 0.048 -84.932 0.997 2.733 0.997 2.733 0.048 -84.932
3119.875 0.046 -84.942 0.997 2.65 0.997 2.65 0.046 -84.942
3144.833 0.045 -84.947 0.997 2.568 0.997 2.568 0.045 -84.947
3169.792 0.043 -84.947 0.997 2.487 0.997 2.487 0.043 -84.947
3194.75 0.042 -84.942 0.997 2.407 0.997 2.407 0.042 -84.942
3219.708 0.041 -84.931 0.997 2.327 0.997 2.327 0.041 -84.931
3244.667 0.039 -84.914 0.997 2.249 0.997 2.249 0.039 -84.914
3269.625 0.038 -84.89 0.997 2.17 0.997 2.17 0.038 -84.89
3294.583 0.037 -84.858 0.997 2.093 0.997 2.093 0.037 -84.858
3319.542 0.035 -84.819 0.997 2.016 0.997 2.016 0.035 -84.819
3344.5 0.034 -84.771 0.997 1.94 0.997 1.94 0.034 -84.771
3369.458 0.033 -84.714 0.998 1.865 0.998 1.865 0.033 -84.714
3394.417 0.031 -84.646 0.998 1.79 0.998 1.79 0.031 -84.646
3419.375 0.03 -84.567 0.998 1.716 0.998 1.716 0.03 -84.567
3444.333 0.029 -84.475 0.998 1.643 0.998 1.643 0.029 -84.475
3469.292 0.027 -84.368 0.998 1.57 0.998 1.57 0.027 -84.368
3494.25 0.026 -84.245 0.998 1.498 0.998 1.498 0.026 -84.245
3519.208 0.025 -84.103 0.998 1.426 0.998 1.426 0.025 -84.103
3544.167 0.024 -83.941 0.998 1.355 0.998 1.355 0.024 -83.941
3569.125 0.023 -83.754 0.998 1.284 0.998 1.284 0.023 -83.754
3594.083 0.021 -83.54 0.998 1.214 0.998 1.214 0.021 -83.54
3619.042 0.02 -83.293 0.998 1.145 0.998 1.145 0.02 -83.293
3644 0.019 -83.008 0.998 1.076 0.998 1.076 0.019 -83.008
3668.958 0.018 -82.678 0.998 1.008 0.998 1.008 0.018 -82.678
3693.917 0.017 -82.294 0.998 0.94 0.998 0.94 0.017 -82.294
3718.875 0.015 -81.845 0.998 0.873 0.998 0.873 0.015 -81.845
3743.833 0.014 -81.314 0.998 0.806 0.998 0.806 0.014 -81.314
3768.792 0.013 -80.683 0.998 0.739 0.998 0.739 0.013 -80.683
3793.75 0.012 -79.923 0.998 0.673 0.998 0.673 0.012 -79.923
3818.708 0.011 -78.997 0.998 0.608 0.998 0.608 0.011 -78.997
3843.667 9.672e-3 -77.848 0.998 0.543 0.998 0.543 9.672e-3 -77.848
3868.625 8.571e-3 -76.397 0.998 0.478 0.998 0.478 8.571e-3 -76.397
3893.583 7.485e-3 -74.514 0.998 0.414 0.998 0.414 7.485e-3 -74.514
3918.542 6.418e-3 -71.995 0.998 0.35 0.998 0.35 6.418e-3 -71.995
3943.5 5.375e-3 -68.484 0.998 0.287 0.998 0.287 5.375e-3 -68.484
3968.458 4.37e-3 -63.328 0.998 0.224 0.998 0.224 4.37e-3 -63.328
3993.417 3.428e-3 -55.245 0.998 0.162 0.998 0.162 3.428e-3 -55.245
4018.375 2.61e-3 -41.668 0.998 0.1 0.998 0.1 2.61e-3 -41.668
4043.333 2.056e-3 -18.726 0.998 0.038 0.998 0.038 2.056e-3 -18.726
4068.292 1.989e-3 11.848 0.998 -0.023 0.998 -0.023 1.989e-3 11.848
4093.25 2.441e-3 37.034 0.998 -0.084 0.998 -0.084 2.441e-3 37.034
4118.208 3.192e-3 52.288 0.998 -0.145 0.998 -0.145 3.192e-3 52.288
4143.167 4.076e-3 61.273 0.998 -0.205 0.998 -0.205 4.076e-3 61.273
4168.125 5.019e-3 66.919 0.998 -0.265 0.998 -0.265 5.019e-3 66.919
4193.083 5.99e-3 70.715 0.998 -0.325 0.998 -0.325 5.99e-3 70.715
4218.042 6.975e-3 73.414 0.998 -0.384 0.998 -0.384 6.975e-3 73.414
4243 7.967e-3 75.416 0.998 -0.443 0.998 -0.443 7.967e-3 75.416
4267.958 8.96e-3 76.953 0.998 -0.501 0.998 -0.501 8.96e-3 76.953
4292.917 9.954e-3 78.165 0.998 -0.559 0.998 -0.559 9.954e-3 78.165
4317.875 0.011 79.141 0.998 -0.617 0.998 -0.617 0.011 79.141
4342.833 0.012 79.941 0.998 -0.675 0.998 -0.675 0.012 79.941
4367.792 0.013 80.606 0.998 -0.732 0.998 -0.732 0.013 80.606
4392.75 0.014 81.166 0.998 -0.789 0.998 -0.789 0.014 81.166
4417.708 0.015 81.642 0.998 -0.846 0.998 -0.846 0.015 81.642
4442.667 0.016 82.05 0.998 -0.902 0.998 -0.902 0.016 82.05
4467.625 0.017 82.403 0.998 -0.958 0.998 -0.958 0.017 82.403
4492.583 0.018 82.709 0.998 -1.014 0.998 -1.014 0.018 82.709
4517.542 0.019 82.977 0.998 -1.069 0.998 -1.069 0.019 82.977
4542.5 0.02 83.212 0.998 -1.124 0.998 -1.124 0.02 83.212
4567.458 0.021 83.42 0.998 -1.179 0.998 -1.179 0.021 83.42
4592.417 0.022 83.603 0.998 -1.234 0.998 -1.234 0.022 83.603
4617.375 0.023 83.766 0.998 -1.289 0.998 -1.289 0.023 83.766
4642.333 0.024 83.91 0.998 -1.343 0.998 -1.343 0.024 83.91
4667.292 0.024 84.039 0.998 -1.397 0.998 -1.397 0.024 84.039
4692.25 0.025 84.153 0.998 -1.45 0.998 -1.45 0.025 84.153
4717.208 0.026 84.256 0.998 -1.504 0.998 -1.504 0.026 84.256
4742.167 0.027 84.347 0.998 -1.557 0.998 -1.557 0.027 84.347
4767.125 0.028 84.428 0.998 -1.61 0.998 -1.61 0.028 84.428
4792.083 0.029 84.501 0.998 -1.662 0.998 -1.662 0.029 84.501
4817.042 0.03 84.566 0.998 -1.715 0.998 -1.715 0.03 84.566
4842 0.031 84.623 0.998 -1.767 0.998 -1.767 0.031 84.623
4866.958 0.032 84.674 0.998 -1.819 0.998 -1.819 0.032 84.674
4891.917 0.033 84.719 0.998 -1.871 0.998 -1.871 0.033 84.719
4916.875 0.034 84.759 0.997 -1.923 0.997 -1.923 0.034 84.759
4941.833 0.034 84.794 0.997 -1.974 0.997 -1.974 0.034 84.794
4966.792 0.035 84.824 0.997 -2.025 0.997 -2.025 0.035 84.824
4991.75 0.036 84.85 0.997 -2.076 0.997 -2.076 0.036 84.85
5016.708 0.037 84.873 0.997 -2.127 0.997 -2.127 0.037 84.873
5041.667 0.038 84.892 0.997 -2.177 0.997 -2.177 0.038 84.892
5066.625 0.039 84.908 0.997 -2.228 0.997 -2.228 0.039 84.908
5091.583 0.04 84.921 0.997 -2.278 0.997 -2.278 0.04 84.921
5116.542 0.041 84.931 0.997 -2.328 0.997 -2.328 0.041 84.931
5141.5 0.042 84.938 0.997 -2.377 0.997 -2.377 0.042 84.938
5166.458 0.042 84.944 0.997 -2.427 0.997 -2.427 0.042 84.944
5191.417 0.043 84.947 0.997 -2.476 0.997 -2.476 0.043 84.947
5216.375 0.044 84.948 0.997 -2.525 0.997 -2.525 0.044 84.948
5241.333 0.045 84.947 0.997 -2.574 0.997 -2.574 0.045 84.947
5266.292 0.046 84.944 0.997 -2.623 0.997 -2.623 0.046 84.944
5291.25 0.047 84.94 0.997 -2.672 0.997 -2.672 0.047 84.94
5316.208 0.048 84.934 0.997 -2.72 0.997 -2.72 0.048 84.934
5341.167 0.048 84.927 0.997 -2.769 0.997 -2.769 0.048 84.927
5366.125 0.049 84.918 0.997 -2.817 0.997 -2.817 0.049 84.918
5391.083 0.05 84.908 0.997 -2.865 0.997 -2.865 0.05 84.908
5416.042 0.051 84.897 0.997 -2.913 0.997 -2.913 0.051 84.897
5441 0.052 84.884 0.997 -2.96 0.997 -2.96 0.052 84.884
5465.958 0.053 84.871 0.997 -3.008 0.997 -3.008 0.053 84.871
5490.917 0.053 84.856 0.997 -3.055 0.997 -3.055 0.053 84.856
5515.875 0.054 84.841 0.997 -3.102 0.997 -3.102 0.054 84.841
5540.833 0.055 84.825 0.997 -3.149 0.997 -3.149 0.055 84.825
5565.792 0.056 84.808 0.997 -3.196 0.997 -3.196 0.056 84.808
5590.75 0.057 84.79 0.996 -3.243 0.996 -3.243 0.057 84.79
5615.708 0.057 84.771 0.996 -3.289 0.996 -3.289 0.057 84.771
5640.667 0.058 84.752 0.996 -3.336 0.996 -3.336 0.058 84.752
5665.625 0.059 84.731 0.996 -3.382 0.996 -3.382 0.059 84.731
5690.583 0.06 84.711 0.996 -3.428 0.996 -3.428 0.06 84.711
5715.542 0.061 84.689 0.996 -3.474 0.996 -3.474 0.061 84.689
5740.5 0.061 84.668 0.996 -3.52 0.996 -3.52 0.061 84.668
5765.458 0.062 84.645 0.996 -3.566 0.996 -3.566 0.062 84.645
5790.417 0.063 84.622 0.996 -3.611 0.996 -3.611 0.063 84.622
5815.375 0.064 84.599 0.996 -3.657 0.996 -3.657 0.064 84.599
5840.333 0.065 84.575 0.996 -3.702 0.996 -3.702 0.065 84.575
5865.292 0.065 84.55 0.996 -3.747 0.996 -3.747 0.065 84.55
5890.25 0.066 84.526 0.996 -3.792 0.996 -3.792 0.066 84.526
5915.208 0.067 84.5 0.996 -3.837 0.996 -3.837 0.067 84.5
5940.167 0.068 84.475 0.996 -3.882 0.996 -3.882 0.068 84.475
5965.125 0.069 84.449 0.996 -3.927 0.996 -3.927 0.069 84.449
5990.083 0.069 84.423 0.996 -3.971 0.996 -3.971 0.069 84.423
6015.042 0.07 84.396 0.996 -4.016 0.996 -4.016 0.07 84.396
6040 0.071 84.369 0.996 -4.06 0.996 -4.06 0.071 84.369
6064.958 0.072 84.342 0.995 -4.104 0.995 -4.104 0.072 84.342
6089.917 0.072 84.314 0.995 -4.148 0.995 -4.148 0.072 84.314
6114.875 0.073 84.287 0.995 -4.192 0.995 -4.192 0.073 84.287
6139.833 0.074 84.258 0.995 -4.236 0.995 -4.236 0.074 84.258
6164.792 0.075 84.23 0.995 -4.28 0.995 -4.28 0.075 84.23
6189.75 0.075 84.202 0.995 -4.324 0.995 -4.324 0.075 84.202
6214.708 0.076 84.173 0.995 -4.367 0.995 -4.367 0.076 84.173
6239.667 0.077 84.144 0.995 -4.411 0.995 -4.411 0.077 84.144
6264.625 0.078 84.115 0.995 -4.454 0.995 -4.454 0.078 84.115
6289.583 0.078 84.085 0.995 -4.497 0.995 -4.497 0.078 84.085
6314.542 0.079 84.056 0.995 -4.54 0.995 -4.54 0.079 84.056
6339.5 0.08 84.026 0.995 -4.583 0.995 -4.583 0.08 84.026
6364.458 0.081 83.996 0.995 -4.626 0.995 -4.626 0.081 83.996
6389.417 0.081 83.966 0.995 -4.669 0.995 -4.669 0.081 83.966
6414.375 0.082 83.936 0.995 -4.711 0.995 -4.711 0.082 83.936
6439.333 0.083 83.905 0.995 -4.754 0.995 -4.754 0.083 83.905
6464.292 0.084 83.875 0.995 -4.796 0.995 -4.796 0.084 83.875
6489.25 0.084 83.844 0.994 -4.839 0.994 -4.839 0.084 83.844
6514.208 0.085 83.813 0.994 -4.881 0.994 -4.881 0.085 83.813
6539.167 0.086 83.782 0.994 -4.923 0.994 -4.923 0.086 83.782
6564.125 0.087 83.751 0.994 -4.965 0.994 -4.965 0.087 83.751
6589.083 0.087 83.72 0.994 -5.007 0.994 -5.007 0.087 83.72
6614.042 0.088 83.689 0.994 -5.049 0.994 -5.049 0.088 83.689
6639 0.089 83.657 0.994 -5.091 0.994 -5.091 0.089 83.657
6663.958 0.089 83.626 0.994 -5.133 0.994 -5.133 0.089 83.626
6688.917 0.09 83.594 0.994 -5.174 0.994 -5.174 0.09 83.594
6713.875 0.091 83.563 0.994 -5.216 0.994 -5.216 0.091 83.563
6738.833 0.092 83.531 0.994 -5.257 0.994 -5.257 0.092 83.531
6763.792 0.092 83.499 0.994 -5.299 0.994 -5.299 0.092 83.499
6788.75 0.093 83.467 0.994 -5.34 0.994 -5.34 0.093 83.467
6813.708 0.094 83.435 0.994 -5.381 0.994 -5.381 0.094 83.435
6838.667 0.095 83.403 0.994 -5.422 0.994 -5.422 0.095 83.403
6863.625 0.095 83.371 0.994 -5.463 0.994 -5.463 0.095 83.371
6888.583 0.096 83.339 0.993 -5.504 0.993 -5.504 0.096 83.339
6913.542 0.097 83.306 0.993 -5.545 0.993 -5.545 0.097 83.306
6938.5 0.097 83.274 0.993 -5.586 0.993 -5.586 0.097 83.274
6963.458 0.098 83.242 0.993 -5.627 0.993 -5.627 0.098 83.242
6988.417 0.099 83.209 0.993 -5.667 0.993 -5.667 0.099 83.209
7013.375 0.099 83.177 0.993 -5.708 0.993 -5.708 0.099 83.177
7038.333 0.1 83.144 0.993 -5.748 0.993 -5.748 0.1 83.144
7063.292 0.101 83.111 0.993 -5.789 0.993 -5.789 0.101 83.111
7088.25 0.102 83.079 0.993 -5.829 0.993 -5.829 0.102 83.079
7113.208 0.102 83.046 0.993 -5.869 0.993 -5.869 0.102 83.046
7138.167 0.103 83.013 0.993 -5.909 0.993 -5.909 0.103 83.013
7163.125 0.104 82.981 0.993 -5.949 0.993 -5.949 0.104 82.981
7188.083 0.104 82.948 0.993 -5.989 0.993 -5.989 0.104 82.948
7213.042 0.105 82.915 0.993 -6.029 0.993 -6.029 0.105 82.915
7238 0.106 82.882 0.992 -6.069 0.992 -6.069 0.106 82.882
7262.958 0.106 82.849 0.992 -6.109 0.992 -6.109 0.106 82.849
7287.917 0.107 82.816 0.992 -6.149 0.992 -6.149 0.107 82.816
7312.875 0.108 82.783 0.992 -6.188 0.992 -6.188 0.108 82.783
7337.833 0.109 82.75 0.992 -6.228 0.992 -6.228 0.109 82.75
7362.792 0.109 82.717 0.992 -6.268 0.992 -6.268 0.109 82.717
7387.75 0.11 82.684 0.992 -6.307 0.992 -6.307 0.11 82.684
7412.708 0.111 82.651 0.992 -6.346 0.992 -6.346 0.111 82.651
7437.667 0.111 82.618 0.992 -6.386 0.992 -6.386 0.111 82.618
7462.625 0.112 82.585 0.992 -6.425 0.992 -6.425 0.112 82.585
7487.583 0.113 82.552 0.992 -6.464 0.992 -6.464 0.113 82.552
7512.542 0.113 82.519 0.992 -6.503 0.992 -6.503 0.113 82.519
7537.5 0.114 82.485 0.992 -6.542 0.992 -6.542 0.114 82.485
7562.458 0.115 82.452 0.991 -6.581 0.991 -6.581 0.115 82.452
7587.417 0.115 82.419 0.991 -6.62 0.991 -6.62 0.115 82.419
7612.375 0.116 82.386 0.991 -6.659 0.991 -6.659 0.116 82.386
7637.333 0.117 82.353 0.991 -6.698 0.991 -6.698 0.117 82.353
7662.292 0.117 82.319 0.991 -6.736 0.991 -6.736 0.117 82.319
7687.25 0.118 82.286 0.991 -6.775 0.991 -6.775 0.118 82.286
7712.208 0.119 82.253 0.991 -6.814 0.991 -6.814 0.119 82.253
7737.167 0.119 82.22 0.991 -6.852 0.991 -6.852 0.119 82.22
7762.125 0.12 82.186 0.991 -6.891 0.991 -6.891 0.12 82.186
7787.083 0.121 82.153 0.991 -6.929 0.991 -6.929 0.121 82.153
7812.042 0.121 82.12 0.991 -6.968 0.991 -6.968 0.121 82.12
7837 0.122 82.087 0.991 -7.006 0.991 -7.006 0.122 82.087
7861.958 0.123 82.053 0.991 -7.044 0.991 -7.044 0.123 82.053
7886.917 0.123 82.02 0.99 -7.082 0.99 -7.082 0.123 82.02
7911.875 0.124 81.987 0.99 -7.121 0.99 -7.121 0.124 81.987
7936.833 0.125 81.954 0.99 -7.159 0.99 -7.159 0.125 81.954
7961.792 0.125 81.92 0.99 -7.197 0.99 -7.197 0.125 81.92
7986.75 0.126 81.887 0.99 -7.235 0.99 -7.235 0.126 81.887
8011.708 0.127 81.854 0.99 -7.273 0.99 -7.273 0.127 81.854
8036.667 0.127 81.82 0.99 -7.31 0.99 -7.31 0.127 81.82
8061.625 0.128 81.787 0.99 -7.348 0.99 -7.348 0.128 81.787
8086.583 0.129 81.754 0.99 -7.386 0.99 -7.386 0.129 81.754
8111.542 0.129 81.721 0.99 -7.424 0.99 -7.424 0.129 81.721
8136.5 0.13 81.687 0.99 -7.461 0.99 -7.461 0.13 81.687
8161.458 0.131 81.654 0.99 -7.499 0.99 -7.499 0.131 81.654
8186.417 0.131 81.621 0.989 -7.536 0.989 -7.536 0.131 81.621
8211.375 0.132 81.587 0.989 -7.574 0.989 -7.574 0.132 81.587
8236.333 0.132 81.554 0.989 -7.611 0.989 -7.611 0.132 81.554
8261.292 0.133 81.521 0.989 -7.649 0.989 -7.649 0.133 81.521
