# MHZ S MA R 50

50 0.999 -1.979 0.035 88.011 0.035 88.011 0.999 -1.979
74.958 0.999 -2.966 0.052 87.02 0.052 87.02 0.999 -2.966
99.917 0.998 -3.951 0.069 86.03 0.069 86.03 0.998 -3.951
124.875 0.996 -4.934 0.086 85.042 0.086 85.042 0.996 -4.934
149.833 0.995 -5.914 0.103 84.057 0.103 84.057 0.995 -5.914
174.792 0.993 -6.891 0.12 83.075 0.12 83.075 0.993 -6.891
199.75 0.991 -7.864 0.137 82.097 0.137 82.097 0.991 -7.864
224.708 0.988 -8.834 0.154 81.123 0.154 81.123 0.988 -8.834
249.667 0.985 -9.798 0.17 80.154 0.17 80.154 0.985 -9.798
274.625 0.982 -10.758 0.187 79.189 0.187 79.189 0.982 -10.758
299.583 0.979 -11.712 0.203 78.231 0.203 78.231 0.979 -11.712
324.542 0.975 -12.66 0.219 77.278 0.219 77.278 0.975 -12.66
349.5 0.972 -13.601 0.235 76.331 0.235 76.331 0.972 -13.601
374.458 0.968 -14.536 0.251 75.392 0.251 75.392 0.968 -14.536
399.417 0.963 -15.464 0.267 74.459 0.267 74.459 0.963 -15.464
424.375 0.959 -16.384 0.282 73.534 0.282 73.534 0.959 -16.384
449.333 0.954 -17.296 0.297 72.617 0.297 72.617 0.954 -17.296
474.292 0.949 -18.2 0.312 71.708 0.312 71.708 0.949 -18.2
499.25 0.944 -19.096 0.327 70.808 0.327 70.808 0.944 -19.096
524.208 0.939 -19.982 0.342 69.916 0.342 69.916 0.939 -19.982
549.167 0.934 -20.86 0.356 69.033 0.356 69.033 0.934 -20.86
574.125 0.928 -21.729 0.37 68.16 0.37 68.16 0.928 -21.729
599.083 0.923 -22.588 0.384 67.295 0.384 67.295 0.923 -22.588
624.042 0.917 -23.438 0.398 66.441 0.398 66.441 0.917 -23.438
649 0.911 -24.278 0.411 65.596 0.411 65.596 0.911 -24.278
673.958 0.905 -25.108 0.424 64.761 0.424 64.761 0.905 -25.108
698.917 0.898 -25.928 0.437 63.936 0.437 63.936 0.898 -25.928
723.875 0.892 -26.738 0.45 63.121 0.45 63.121 0.892 -26.738
748.833 0.886 -27.538 0.462 62.317 0.462 62.317 0.886 -27.538
773.792 0.879 -28.327 0.475 61.522 0.475 61.522 0.879 -28.327
798.75 0.872 -29.106 0.486 60.739 0.486 60.739 0.872 -29.106
823.708 0.866 -29.875 0.498 59.965 0.498 59.965 0.866 -29.875
848.667 0.859 -30.633 0.51 59.202 0.51 59.202 0.859 -30.633
873.625 0.852 -31.38 0.521 58.449 0.521 58.449 0.852 -31.38
898.583 0.845 -32.118 0.532 57.707 0.532 57.707 0.845 -32.118
923.542 0.838 -32.844 0.542 56.975 0.542 56.975 0.838 -32.844
948.5 0.832 -33.561 0.553 56.254 0.553 56.254 0.832 -33.561
973.458 0.825 -34.267 0.563 55.543 0.563 55.543 0.825 -34.267
998.417 0.818 -34.962 0.573 54.843 0.573 54.843 0.818 -34.962
1023.375 0.811 -35.648 0.583 54.152 0.583 54.152 0.811 -35.648
1048.333 0.804 -36.323 0.592 53.472 0.592 53.472 0.804 -36.323
1073.292 0.797 -36.988 0.602 52.802 0.602 52.802 0.797 -36.988
1098.25 0.79 -37.643 0.611 52.142 0.611 52.142 0.79 -37.643
1123.208 0.783 -38.287 0.62 51.492 0.62 51.492 0.783 -38.287
1148.167 0.776 -38.923 0.628 50.852 0.628 50.852 0.776 -38.923
1173.125 0.769 -39.548 0.637 50.221 0.637 50.221 0.769 -39.548
1198.083 0.762 -40.163 0.645 49.601 0.645 49.601 0.762 -40.163
1223.042 0.755 -40.77 0.653 48.989 0.653 48.989 0.755 -40.77
1248 0.748 -41.366 0.661 48.388 0.661 48.388 0.748 -41.366
1272.958 0.741 -41.953 0.669 47.795 0.669 47.795 0.741 -41.953
1297.917 0.734 -42.532 0.676 47.212 0.676 47.212 0.734 -42.532
1322.875 0.727 -43.101 0.683 46.638 0.683 46.638 0.727 -43.101
1347.833 0.72 -43.661 0.69 46.072 0.69 46.072 0.72 -43.661
1372.792 0.713 -44.212 0.697 45.516 0.697 45.516 0.713 -44.212
1397.75 0.707 -44.755 0.704 44.968 0.704 44.968 0.707 -44.755
1422.708 0.7 -45.289 0.711 44.429 0.711 44.429 0.7 -45.289
1447.667 0.693 -45.814 0.717 43.898 0.717 43.898 0.693 -45.814
1472.625 0.687 -46.331 0.723 43.375 0.723 43.375 0.687 -46.331
1497.583 0.68 -46.841 0.729 42.861 0.729 42.861 0.68 -46.841
1522.542 0.674 -47.342 0.735 42.354 0.735 42.354 0.674 -47.342
1547.5 0.667 -47.835 0.741 41.856 0.741 41.856 0.667 -47.835
1572.458 0.661 -48.32 0.747 41.365 0.747 41.365 0.661 -48.32
1597.417 0.655 -48.798 0.752 40.881 0.752 40.881 0.655 -48.798
1622.375 0.648 -49.269 0.758 40.406 0.758 40.406 0.648 -49.269
1647.333 0.642 -49.732 0.763 39.937 0.763 39.937 0.642 -49.732
1672.292 0.636 -50.188 0.768 39.476 0.768 39.476 0.636 -50.188
1697.25 0.63 -50.636 0.773 39.022 0.773 39.022 0.63 -50.636
1722.208 0.624 -51.078 0.778 38.574 0.778 38.574 0.624 -51.078
1747.167 0.618 -51.513 0.783 38.134 0.783 38.134 0.618 -51.513
1772.125 0.612 -51.941 0.787 37.7 0.787 37.7 0.612 -51.941
1797.083 0.606 -52.363 0.792 37.273 0.792 37.273 0.606 -52.363
1822.042 0.6 -52.778 0.796 36.852 0.796 36.852 0.6 -52.778
1847 0.594 -53.187 0.801 36.438 0.801 36.438 0.594 -53.187
1871.958 0.588 -53.589 0.805 36.029 0.805 36.029 0.588 -53.589
1896.917 0.583 -53.986 0.809 35.627 0.809 35.627 0.583 -53.986
1921.875 0.577 -54.376 0.813 35.231 0.813 35.231 0.577 -54.376
1946.833 0.571 -54.761 0.817 34.841 0.817 34.841 0.571 -54.761
1971.792 0.566 -55.14 0.821 34.456 0.821 34.456 0.566 -55.14
1996.75 0.56 -55.513 0.824 34.077 0.824 34.077 0.56 -55.513
2021.708 0.555 -55.881 0.828 33.704 0.828 33.704 0.555 -55.881
2046.667 0.55 -56.243 0.831 33.336 0.831 33.336 0.55 -56.243
2071.625 0.544 -56.6 0.835 32.973 0.835 32.973 0.544 -56.6
2096.583 0.539 -56.952 0.838 32.615 0.838 32.615 0.539 -56.952
2121.542 0.534 -57.298 0.842 32.263 0.842 32.263 0.534 -57.298
2146.5 0.529 -57.64 0.845 31.915 0.845 31.915 0.529 -57.64
2171.458 0.524 -57.976 0.848 31.573 0.848 31.573 0.524 -57.976
2196.417 0.519 -58.308 0.851 31.235 0.851 31.235 0.519 -58.308
2221.375 0.514 -58.635 0.854 30.902 0.854 30.902 0.514 -58.635
2246.333 0.509 -58.958 0.857 30.573 0.857 30.573 0.509 -58.958
2271.292 0.504 -59.275 0.86 30.249 0.86 30.249 0.504 -59.275
2296.25 0.499 -59.589 0.862 29.93 0.862 29.93 0.499 -59.589
2321.208 0.494 -59.898 0.865 29.615 0.865 29.615 0.494 -59.898
2346.167 0.489 -60.202 0.868 29.304 0.868 29.304 0.489 -60.202
2371.125 0.485 -60.503 0.87 28.997 0.87 28.997 0.485 -60.503
2396.083 0.48 -60.799 0.873 28.695 0.873 28.695 0.48 -60.799
2421.042 0.476 -61.091 0.875 28.396 0.875 28.396 0.476 -61.091
2446 0.471 -61.38 0.878 28.101 0.878 28.101 0.471 -61.38
2470.958 0.467 -61.664 0.88 27.811 0.88 27.811 0.467 -61.664
2495.917 0.462 -61.944 0.883 27.524 0.883 27.524 0.462 -61.944
2520.875 0.458 -62.221 0.885 27.24 0.885 27.24 0.458 -62.221
2545.833 0.453 -62.494 0.887 26.961 0.887 26.961 0.453 -62.494
2570.792 0.449 -62.764 0.889 26.685 0.889 26.685 0.449 -62.764
2595.75 0.445 -63.03 0.891 26.412 0.891 26.412 0.445 -63.03
2620.708 0.441 -63.292 0.893 26.143 0.893 26.143 0.441 -63.292
2645.667 0.436 -63.551 0.895 25.878 0.895 25.878 0.436 -63.551
2670.625 0.432 -63.807 0.897 25.615 0.897 25.615 0.432 -63.807
2695.583 0.428 -64.059 0.899 25.356 0.899 25.356 0.428 -64.059
2720.542 0.424 -64.308 0.901 25.1 0.901 25.1 0.424 -64.308
2745.5 0.42 -64.554 0.903 24.847 0.903 24.847 0.42 -64.554
2770.458 0.416 -64.797 0.905 24.598 0.905 24.598 0.416 -64.797
2795.417 0.412 -65.037 0.907 24.351 0.907 24.351 0.412 -65.037
2820.375 0.408 -65.273 0.908 24.107 0.908 24.107 0.408 -65.273
2845.333 0.405 -65.507 0.91 23.866 0.91 23.866 0.405 -65.507
2870.292 0.401 -65.738 0.912 23.628 0.912 23.628 0.401 -65.738
2895.25 0.397 -65.966 0.913 23.393 0.913 23.393 0.397 -65.966
2920.208 0.393 -66.191 0.915 23.161 0.915 23.161 0.393 -66.191
2945.167 0.39 -66.414 0.917 22.931 0.917 22.931 0.39 -66.414
2970.125 0.386 -66.634 0.918 22.704 0.918 22.704 0.386 -66.634
2995.083 0.382 -66.851 0.92 22.479 0.92 22.479 0.382 -66.851
3020.042 0.379 -67.066 0.921 22.257 0.921 22.257 0.379 -67.066
3045 0.375 -67.278 0.922 22.038 0.922 22.038 0.375 -67.278
3069.958 0.372 -67.487 0.924 21.821 0.924 21.821 0.372 -67.487
3094.917 0.368 -67.694 0.925 21.606 0.925 21.606 0.368 -67.694
3119.875 0.365 -67.899 0.927 21.394 0.927 21.394 0.365 -67.899
3144.833 0.361 -68.101 0.928 21.184 0.928 21.184 0.361 -68.101
3169.792 0.358 -68.301 0.929 20.976 0.929 20.976 0.358 -68.301
3194.75 0.355 -68.499 0.93 20.771 0.93 20.771 0.355 -68.499
3219.708 0.351 -68.694 0.932 20.568 0.932 20.568 0.351 -68.694
3244.667 0.348 -68.887 0.933 20.366 0.933 20.366 0.348 -68.887
3269.625 0.345 -69.078 0.934 20.168 0.934 20.168 0.345 -69.078
3294.583 0.342 -69.267 0.935 19.971 0.935 19.971 0.342 -69.267
3319.542 0.338 -69.453 0.936 19.776 0.936 19.776 0.338 -69.453
3344.5 0.335 -69.638 0.938 19.583 0.938 19.583 0.335 -69.638
3369.458 0.332 -69.82 0.939 19.392 0.939 19.392 0.332 -69.82
3394.417 0.329 -70.001 0.94 19.204 0.94 19.204 0.329 -70.001
3419.375 0.326 -70.179 0.941 19.017 0.941 19.017 0.326 -70.179
3444.333 0.323 -70.356 0.942 18.832 0.942 18.832 0.323 -70.356
3469.292 0.32 -70.53 0.943 18.648 0.943 18.648 0.32 -70.53
3494.25 0.317 -70.703 0.944 18.467 0.944 18.467 0.317 -70.703
3519.208 0.314 -70.874 0.945 18.287 0.945 18.287 0.314 -70.874
3544.167 0.311 -71.043 0.946 18.11 0.946 18.11 0.311 -71.043
3569.125 0.308 -71.21 0.947 17.933 0.947 17.933 0.308 -71.21
3594.083 0.305 -71.376 0.948 17.759 0.948 17.759 0.305 -71.376
3619.042 0.302 -71.539 0.949 17.586 0.949 17.586 0.302 -71.539
3644 0.299 -71.701 0.95 17.415 0.95 17.415 0.299 -71.701
3668.958 0.297 -71.862 0.95 17.246 0.95 17.246 0.297 -71.862
3693.917 0.294 -72.02 0.951 17.078 0.951 17.078 0.294 -72.02
3718.875 0.291 -72.177 0.952 16.912 0.952 16.912 0.291 -72.177
3743.833 0.288 -72.332 0.953 16.747 0.953 16.747 0.288 -72.332
3768.792 0.285 -72.486 0.954 16.584 0.954 16.584 0.285 -72.486
3793.75 0.283 -72.638 0.955 16.422 0.955 16.422 0.283 -72.638
3818.708 0.28 -72.789 0.955 16.261 0.955 16.261 0.28 -72.789
3843.667 0.277 -72.937 0.956 16.103 0.956 16.103 0.277 -72.937
3868.625 0.275 -73.085 0.957 15.945 0.957 15.945 0.275 -73.085
3893.583 0.272 -73.231 0.958 15.789 0.958 15.789 0.272 -73.231
3918.542 0.27 -73.375 0.958 15.634 0.958 15.634 0.27 -73.375
3943.5 0.267 -73.518 0.959 15.481 0.959 15.481 0.267 -73.518
3968.458 0.264 -73.66 0.96 15.329 0.96 15.329 0.264 -73.66
3993.417 0.262 -73.8 0.96 15.178 0.96 15.178 0.262 -73.8
4018.375 0.259 -73.939 0.961 15.029 0.961 15.029 0.259 -73.939
4043.333 0.257 -74.076 0.962 14.881 0.962 14.881 0.257 -74.076
4068.292 0.254 -74.212 0.962 14.734 0.962 14.734 0.254 -74.212
4093.25 0.252 -74.347 0.963 14.588 0.963 14.588 0.252 -74.347
4118.208 0.249 -74.48 0.964 14.444 0.964 14.444 0.249 -74.48
4143.167 0.247 -74.612 0.964 14.301 0.964 14.301 0.247 -74.612
4168.125 0.245 -74.743 0.965 14.159 0.965 14.159 0.245 -74.743
4193.083 0.242 -74.872 0.966 14.018 0.966 14.018 0.242 -74.872
4218.042 0.24 -75 0.966 13.878 0.966 13.878 0.24 -75
4243 0.238 -75.127 0.967 13.739 0.967 13.739 0.238 -75.127
4267.958 0.235 -75.253 0.967 13.602 0.967 13.602 0.235 -75.253
4292.917 0.233 -75.377 0.968 13.465 0.968 13.465 0.233 -75.377
4317.875 0.231 -75.501 0.968 13.33 0.968 13.33 0.231 -75.501
4342.833 0.228 -75.623 0.969 13.196 0.969 13.196 0.228 -75.623
4367.792 0.226 -75.743 0.969 13.062 0.969 13.062 0.226 -75.743
4392.75 0.224 -75.863 0.97 12.93 0.97 12.93 0.224 -75.863
4417.708 0.222 -75.981 0.97 12.799 0.97 12.799 0.222 -75.981
4442.667 0.219 -76.099 0.971 12.669 0.971 12.669 0.219 -76.099
4467.625 0.217 -76.215 0.971 12.539 0.971 12.539 0.217 -76.215
4492.583 0.215 -76.33 0.972 12.411 0.972 12.411 0.215 -76.33
4517.542 0.213 -76.444 0.972 12.284 0.972 12.284 0.213 -76.444
4542.5 0.211 -76.556 0.973 12.158 0.973 12.158 0.211 -76.556
4567.458 0.209 -76.668 0.973 12.032 0.973 12.032 0.209 -76.668
4592.417 0.206 -76.778 0.974 11.908 0.974 11.908 0.206 -76.778
4617.375 0.204 -76.888 0.974 11.784 0.974 11.784 0.204 -76.888
4642.333 0.202 -76.996 0.975 11.661 0.975 11.661 0.202 -76.996
4667.292 0.2 -77.104 0.975 11.539 0.975 11.539 0.2 -77.104
4692.25 0.198 -77.21 0.975 11.418 0.975 11.418 0.198 -77.21
4717.208 0.196 -77.315 0.976 11.298 0.976 11.298 0.196 -77.315
4742.167 0.194 -77.419 0.976 11.179 0.976 11.179 0.194 -77.419
4767.125 0.192 -77.522 0.977 11.06 0.977 11.06 0.192 -77.522
4792.083 0.19 -77.624 0.977 10.943 0.977 10.943 0.19 -77.624
4817.042 0.188 -77.725 0.977 10.826 0.977 10.826 0.188 -77.725
4842 0.186 -77.825 0.978 10.71 0.978 10.71 0.186 -77.825
4866.958 0.184 -77.924 0.978 10.595 0.978 10.595 0.184 -77.924
4891.917 0.182 -78.022 0.979 10.48 0.979 10.48 0.182 -78.022
4916.875 0.18 -78.119 0.979 10.366 0.979 10.366 0.18 -78.119
4941.833 0.178 -78.215 0.979 10.253 0.979 10.253 0.178 -78.215
4966.792 0.176 -78.31 0.98 10.141 0.98 10.141 0.176 -78.31
4991.75 0.174 -78.404 0.98 10.03 0.98 10.03 0.174 -78.404
5016.708 0.172 -78.497 0.98 9.919 0.98 9.919 0.172 -78.497
5041.667 0.17 -78.589 0.981 9.809 0.981 9.809 0.17 -78.589
5066.625 0.169 -78.68 0.981 9.7 0.981 9.7 0.169 -78.68
5091.583 0.167 -78.769 0.981 9.591 0.981 9.591 0.167 -78.769
5116.542 0.165 -78.858 0.982 9.483 0.982 9.483 0.165 -78.858
5141.5 0.163 -78.946 0.982 9.376 0.982 9.376 0.163 -78.946
5166.458 0.161 -79.033 0.982 9.269 0.982 9.269 0.161 -79.033
5191.417 0.159 -79.119 0.982 9.163 0.982 9.163 0.159 -79.119
5216.375 0.158 -79.204 0.983 9.058 0.983 9.058 0.158 -79.204
5241.333 0.156 -79.288 0.983 8.953 0.983 8.953 0.156 -79.288
5266.292 0.154 -79.371 0.983 8.849 0.983 8.849 0.154 -79.371
5291.25 0.152 -79.453 0.984 8.746 0.984 8.746 0.152 -79.453
5316.208 0.15 -79.534 0.984 8.643 0.984 8.643 0.15 -79.534
5341.167 0.149 -79.614 0.984 8.541 0.984 8.541 0.149 -79.614
5366.125 0.147 -79.693 0.984 8.439 0.984 8.439 0.147 -79.693
5391.083 0.145 -79.772 0.985 8.338 0.985 8.338 0.145 -79.772
5416.042 0.143 -79.849 0.985 8.238 0.985 8.238 0.143 -79.849
5441 0.142 -79.925 0.985 8.138 0.985 8.138 0.142 -79.925
5465.958 0.14 -80 0.985 8.039 0.985 8.039 0.14 -80
5490.917 0.138 -80.073 0.986 7.94 0.986 7.94 0.138 -80.073
5515.875 0.137 -80.146 0.986 7.842 0.986 7.842 0.137 -80.146
5540.833 0.135 -80.218 0.986 7.745 0.986 7.745 0.135 -80.218
5565.792 0.133 -80.289 0.986 7.648 0.986 7.648 0.133 -80.289
5590.75 0.132 -80.359 0.987 7.551 0.987 7.551 0.132 -80.359
5615.708 0.13 -80.428 0.987 7.456 0.987 7.456 0.13 -80.428
5640.667 0.128 -80.495 0.987 7.36 0.987 7.36 0.128 -80.495
5665.625 0.127 -80.562 0.987 7.265 0.987 7.265 0.127 -80.562
5690.583 0.125 -80.627 0.987 7.171 0.987 7.171 0.125 -80.627
5715.542 0.123 -80.692 0.988 7.077 0.988 7.077 0.123 -80.692
5740.5 0.122 -80.755 0.988 6.984 0.988 6.984 0.122 -80.755
5765.458 0.12 -80.817 0.988 6.891 0.988 6.891 0.12 -80.817
5790.417 0.118 -80.878 0.988 6.799 0.988 6.799 0.118 -80.878
5815.375 0.117 -80.938 0.988 6.707 0.988 6.707 0.117 -80.938
5840.333 0.115 -80.996 0.989 6.616 0.989 6.616 0.115 -80.996
5865.292 0.114 -81.054 0.989 6.525 0.989 6.525 0.114 -81.054
5890.25 0.112 -81.11 0.989 6.434 0.989 6.434 0.112 -81.11
5915.208 0.111 -81.165 0.989 6.344 0.989 6.344 0.111 -81.165
5940.167 0.109 -81.218 0.989 6.255 0.989 6.255 0.109 -81.218
5965.125 0.108 -81.271 0.989 6.166 0.989 6.166 0.108 -81.271
5990.083 0.106 -81.321 0.99 6.077 0.99 6.077 0.106 -81.321
6015.042 0.104 -81.371 0.99 5.989 0.99 5.989 0.104 -81.371
6040 0.103 -81.419 0.99 5.902 0.99 5.902 0.103 -81.419
6064.958 0.101 -81.466 0.99 5.814 0.99 5.814 0.101 -81.466
6089.917 0.1 -81.512 0.99 5.727 0.99 5.727 0.1 -81.512
6114.875 0.098 -81.555 0.99 5.641 0.99 5.641 0.098 -81.555
6139.833 0.097 -81.598 0.99 5.555 0.99 5.555 0.097 -81.598
6164.792 0.095 -81.639 0.991 5.47 0.991 5.47 0.095 -81.639
6189.75 0.094 -81.678 0.991 5.384 0.991 5.384 0.094 -81.678
6214.708 0.092 -81.715 0.991 5.3 0.991 5.3 0.092 -81.715
6239.667 0.091 -81.751 0.991 5.215 0.991 5.215 0.091 -81.751
6264.625 0.09 -81.786 0.991 5.131 0.991 5.131 0.09 -81.786
6289.583 0.088 -81.818 0.991 5.048 0.991 5.048 0.088 -81.818
6314.542 0.087 -81.848 0.991 4.965 0.991 4.965 0.087 -81.848
6339.5 0.085 -81.877 0.992 4.882 0.992 4.882 0.085 -81.877
6364.458 0.084 -81.904 0.992 4.799 0.992 4.799 0.084 -81.904
6389.417 0.082 -81.928 0.992 4.717 0.992 4.717 0.082 -81.928
6414.375 0.081 -81.951 0.992 4.636 0.992 4.636 0.081 -81.951
6439.333 0.08 -81.971 0.992 4.554 0.992 4.554 0.08 -81.971
6464.292 0.078 -81.989 0.992 4.473 0.992 4.473 0.078 -81.989
6489.25 0.077 -82.004 0.992 4.393 0.992 4.393 0.077 -82.004
6514.208 0.075 -82.017 0.992 4.313 0.992 4.313 0.075 -82.017
6539.167 0.074 -82.028 0.992 4.233 0.992 4.233 0.074 -82.028
6564.125 0.073 -82.036 0.993 4.153 0.993 4.153 0.073 -82.036
6589.083 0.071 -82.041 0.993 4.074 0.993 4.074 0.071 -82.041
6614.042 0.07 -82.043 0.993 3.995 0.993 3.995 0.07 -82.043
6639 0.068 -82.042 0.993 3.917 0.993 3.917 0.068 -82.042
6663.958 0.067 -82.038 0.993 3.839 0.993 3.839 0.067 -82.038
6688.917 0.066 -82.031 0.993 3.761 0.993 3.761 0.066 -82.031
6713.875 0.064 -82.02 0.993 3.683 0.993 3.683 0.064 -82.02
6738.833 0.063 -82.005 0.993 3.606 0.993 3.606 0.063 -82.005
6763.792 0.062 -81.987 0.993 3.529 0.993 3.529 0.062 -81.987
6788.75 0.06 -81.964 0.993 3.453 0.993 3.453 0.06 -81.964
6813.708 0.059 -81.937 0.993 3.377 0.993 3.377 0.059 -81.937
6838.667 0.058 -81.905 0.994 3.301 0.994 3.301 0.058 -81.905
6863.625 0.056 -81.869 0.994 3.225 0.994 3.225 0.056 -81.869
6888.583 0.055 -81.827 0.994 3.15 0.994 3.15 0.055 -81.827
6913.542 0.054 -81.78 0.994 3.075 0.994 3.075 0.054 -81.78
6938.5 0.053 -81.727 0.994 3 0.994 3 0.053 -81.727
6963.458 0.051 -81.668 0.994 2.926 0.994 2.926 0.051 -81.668
6988.417 0.05 -81.602 0.994 2.852 0.994 2.852 0.05 -81.602
7013.375 0.049 -81.529 0.994 2.778 0.994 2.778 0.049 -81.529
7038.333 0.047 -81.449 0.994 2.704 0.994 2.704 0.047 -81.449
7063.292 0.046 -81.361 0.994 2.631 0.994 2.631 0.046 -81.361
7088.25 0.045 -81.263 0.994 2.558 0.994 2.558 0.045 -81.263
7113.208 0.044 -81.157 0.994 2.486 0.994 2.486 0.044 -81.157
7138.167 0.042 -81.04 0.994 2.413 0.994 2.413 0.042 -81.04
7163.125 0.041 -80.912 0.994 2.341 0.994 2.341 0.041 -80.912
7188.083 0.04 -80.772 0.994 2.269 0.994 2.269 0.04 -80.772
7213.042 0.039 -80.619 0.994 2.198 0.994 2.198 0.039 -80.619
7238 0.037 -80.452 0.994 2.126 0.994 2.126 0.037 -80.452
7262.958 0.036 -80.269 0.995 2.055 0.995 2.055 0.036 -80.269
7287.917 0.035 -80.069 0.995 1.985 0.995 1.985 0.035 -80.069
7312.875 0.034 -79.851 0.995 1.914 0.995 1.914 0.034 -79.851
7337.833 0.033 -79.611 0.995 1.844 0.995 1.844 0.033 -79.611
7362.792 0.031 -79.349 0.995 1.774 0.995 1.774 0.031 -79.349
7387.75 0.03 -79.061 0.995 1.704 0.995 1.704 0.03 -79.061
7412.708 0.029 -78.745 0.995 1.635 0.995 1.635 0.029 -78.745
7437.667 0.028 -78.397 0.995 1.565 0.995 1.565 0.028 -78.397
7462.625 0.027 -78.013 0.995 1.496 0.995 1.496 0.027 -78.013
7487.583 0.025 -77.588 0.995 1.428 0.995 1.428 0.025 -77.588
7512.542 0.024 -77.117 0.995 1.359 0.995 1.359 0.024 -77.117
7537.5 0.023 -76.593 0.995 1.291 0.995 1.291 0.023 -76.593
7562.458 0.022 -76.008 0.995 1.223 0.995 1.223 0.022 -76.008
7587.417 0.021 -75.352 0.995 1.155 0.995 1.155 0.021 -75.352
7612.375 0.02 -74.614 0.995 1.087 0.995 1.087 0.02 -74.614
7637.333 0.018 -73.779 0.995 1.02 0.995 1.02 0.018 -73.779
7662.292 0.017 -72.83 0.995 0.953 0.995 0.953 0.017 -72.83
7687.25 0.016 -71.743 0.995 0.886 0.995 0.886 0.016 -71.743
7712.208 0.015 -70.49 0.995 0.819 0.995 0.819 0.015 -70.49
7737.167 0.014 -69.035 0.995 0.753 0.995 0.753 0.014 -69.035
7762.125 0.013 -67.329 0.995 0.686 0.995 0.686 0.013 -67.329
7787.083 0.012 -65.31 0.995 0.62 0.995 0.62 0.012 -65.31
7812.042 0.011 -62.895 0.995 0.555 0.995 0.555 0.011 -62.895
7837 9.81e-3 -59.97 0.995 0.489 0.995 0.489 9.81e-3 -59.97
7861.958 8.835e-3 -56.385 0.995 0.424 0.995 0.424 8.835e-3 -56.385
7886.917 7.908e-3 -51.933 0.995 0.358 0.995 0.358 7.908e-3 -51.933
7911.875 7.045e-3 -46.349 0.995 0.293 0.995 0.293 7.045e-3 -46.349
7936.833 6.272e-3 -39.307 0.995 0.229 0.995 0.229 6.272e-3 -39.307
7961.792 5.622e-3 -30.481 0.995 0.164 0.995 0.164 5.622e-3 -30.481
7986.75 5.141e-3 -19.713 0.995 0.1 0.995 0.1 5.141e-3 -19.713
8011.708 4.877e-3 -7.304 0.995 0.036 0.995 0.036 4.877e-3 -7.304
8036.667 4.862e-3 5.792 0.995 -0.028 0.995 -0.028 4.862e-3 5.792
8061.625 5.096e-3 18.272 0.995 -0.092 0.995 -0.092 5.096e-3 18.272
8086.583 5.547e-3 29.149 0.995 -0.156 0.995 -0.156 5.547e-3 29.149
8111.542 6.164e-3 38.086 0.995 -0.219 0.995 -0.219 6.164e-3 38.086
8136.5 6.901e-3 45.224 0.995 -0.282 0.995 -0.282 6.901e-3 45.224
8161.458 7.724e-3 50.884 0.995 -0.345 0.995 -0.345 7.724e-3 50.884
8186.417 8.606e-3 55.395 0.995 -0.408 0.995 -0.408 8.606e-3 55.395
