# MHZ S MA R 50

50 0.991 -7.694 0.134 82.29 0.134 82.29 0.991 -7.694
74.958 0.98 -11.452 0.199 78.525 0.199 78.525 0.98 -11.452
99.917 0.965 -15.113 0.261 74.855 0.261 74.855 0.965 -15.113
124.875 0.947 -18.656 0.32 71.305 0.32 71.305 0.947 -18.656
149.833 0.926 -22.059 0.376 67.894 0.376 67.894 0.926 -22.059
174.792 0.904 -25.309 0.428 64.636 0.428 64.636 0.904 -25.309
199.75 0.879 -28.398 0.476 61.54 0.476 61.54 0.879 -28.398
224.708 0.854 -31.32 0.52 58.61 0.52 58.61 0.854 -31.32
249.667 0.828 -34.075 0.56 55.847 0.56 55.847 0.828 -34.075
274.625 0.801 -36.667 0.597 53.247 0.597 53.247 0.801 -36.667
299.583 0.775 -39.099 0.631 50.807 0.631 50.807 0.775 -39.099
324.542 0.749 -41.379 0.661 48.519 0.661 48.519 0.749 -41.379
349.5 0.724 -43.514 0.689 46.376 0.689 46.376 0.724 -43.514
374.458 0.699 -45.513 0.713 44.369 0.713 44.369 0.699 -45.513
399.417 0.675 -47.384 0.736 42.491 0.736 42.491 0.675 -47.384
424.375 0.653 -49.135 0.756 40.732 0.756 40.732 0.653 -49.135
449.333 0.63 -50.775 0.775 39.084 0.775 39.084 0.63 -50.775
474.292 0.609 -52.312 0.791 37.539 0.791 37.539 0.609 -52.312
499.25 0.589 -53.753 0.806 36.089 0.806 36.089 0.589 -53.753
524.208 0.57 -55.107 0.82 34.727 0.82 34.727 0.57 -55.107
549.167 0.551 -56.379 0.833 33.447 0.833 33.447 0.551 -56.379
574.125 0.534 -57.575 0.844 32.243 0.844 32.243 0.534 -57.575
599.083 0.517 -58.702 0.854 31.108 0.854 31.108 0.517 -58.702
624.042 0.501 -59.764 0.864 30.037 0.864 30.037 0.501 -59.764
649 0.485 -60.767 0.873 29.026 0.873 29.026 0.485 -60.767
673.958 0.471 -61.714 0.881 28.07 0.881 28.07 0.471 -61.714
698.917 0.457 -62.611 0.888 27.165 0.888 27.165 0.457 -62.611
723.875 0.443 -63.46 0.895 26.307 0.895 26.307 0.443 -63.46
748.833 0.43 -64.265 0.901 25.493 0.901 25.493 0.43 -64.265
773.792 0.418 -65.03 0.907 24.72 0.907 24.72 0.418 -65.03
798.75 0.406 -65.757 0.912 23.985 0.912 23.985 0.406 -65.757
823.708 0.395 -66.448 0.917 23.285 0.917 23.285 0.395 -66.448
848.667 0.385 -67.107 0.921 22.617 0.921 22.617 0.385 -67.107
873.625 0.374 -67.735 0.925 21.981 0.925 21.981 0.374 -67.735
898.583 0.364 -68.334 0.929 21.372 0.929 21.372 0.364 -68.334
923.542 0.355 -68.906 0.933 20.791 0.933 20.791 0.355 -68.906
948.5 0.346 -69.454 0.936 20.234 0.936 20.234 0.346 -69.454
973.458 0.337 -69.978 0.94 19.701 0.94 19.701 0.337 -69.978
998.417 0.329 -70.48 0.943 19.19 0.943 19.19 0.329 -70.48
1023.375 0.321 -70.961 0.945 18.7 0.945 18.7 0.321 -70.961
1048.333 0.313 -71.423 0.948 18.228 0.948 18.228 0.313 -71.423
1073.292 0.305 -71.866 0.95 17.775 0.95 17.775 0.305 -71.866
1098.25 0.298 -72.292 0.953 17.339 0.953 17.339 0.298 -72.292
1123.208 0.291 -72.702 0.955 16.92 0.955 16.92 0.291 -72.702
1148.167 0.284 -73.097 0.957 16.515 0.957 16.515 0.284 -73.097
1173.125 0.278 -73.477 0.959 16.125 0.959 16.125 0.278 -73.477
1198.083 0.271 -73.844 0.961 15.748 0.961 15.748 0.271 -73.844
1223.042 0.265 -74.197 0.962 15.385 0.962 15.385 0.265 -74.197
1248 0.259 -74.539 0.964 15.033 0.964 15.033 0.259 -74.539
1272.958 0.254 -74.868 0.965 14.693 0.965 14.693 0.254 -74.868
1297.917 0.248 -75.187 0.967 14.364 0.967 14.364 0.248 -75.187
1322.875 0.243 -75.495 0.968 14.046 0.968 14.046 0.243 -75.495
1347.833 0.237 -75.793 0.969 13.737 0.969 13.737 0.237 -75.793
1372.792 0.232 -76.081 0.971 13.438 0.971 13.438 0.232 -76.081
1397.75 0.227 -76.361 0.972 13.147 0.972 13.147 0.227 -76.361
1422.708 0.223 -76.632 0.973 12.865 0.973 12.865 0.223 -76.632
1447.667 0.218 -76.894 0.974 12.591 0.974 12.591 0.218 -76.894
1472.625 0.213 -77.149 0.975 12.325 0.975 12.325 0.213 -77.149
1497.583 0.209 -77.396 0.976 12.066 0.976 12.066 0.209 -77.396
1522.542 0.205 -77.636 0.977 11.814 0.977 11.814 0.205 -77.636
1547.5 0.201 -77.869 0.978 11.569 0.978 11.569 0.201 -77.869
1572.458 0.196 -78.096 0.979 11.331 0.979 11.331 0.196 -78.096
1597.417 0.192 -78.316 0.979 11.098 0.979 11.098 0.192 -78.316
1622.375 0.189 -78.53 0.98 10.871 0.98 10.871 0.189 -78.53
1647.333 0.185 -78.739 0.981 10.65 0.981 10.65 0.185 -78.739
1672.292 0.181 -78.941 0.981 10.435 0.981 10.435 0.181 -78.941
1697.25 0.178 -79.139 0.982 10.224 0.982 10.224 0.178 -79.139
1722.208 0.174 -79.331 0.983 10.018 0.983 10.018 0.174 -79.331
1747.167 0.171 -79.518 0.983 9.818 0.983 9.818 0.171 -79.518
1772.125 0.167 -79.701 0.984 9.621 0.984 9.621 0.167 -79.701
1797.083 0.164 -79.878 0.985 9.43 0.985 9.43 0.164 -79.878
1822.042 0.161 -80.052 0.985 9.242 0.985 9.242 0.161 -80.052
1847 0.157 -80.221 0.986 9.058 0.986 9.058 0.157 -80.221
1871.958 0.154 -80.386 0.986 8.879 0.986 8.879 0.154 -80.386
1896.917 0.151 -80.546 0.987 8.703 0.987 8.703 0.151 -80.546
1921.875 0.148 -80.703 0.987 8.53 0.987 8.53 0.148 -80.703
1946.833 0.145 -80.857 0.987 8.361 0.987 8.361 0.145 -80.857
1971.792 0.143 -81.006 0.988 8.196 0.988 8.196 0.143 -81.006
1996.75 0.14 -81.152 0.988 8.034 0.988 8.034 0.14 -81.152
2021.708 0.137 -81.294 0.989 7.875 0.989 7.875 0.137 -81.294
2046.667 0.134 -81.434 0.989 7.718 0.989 7.718 0.134 -81.434
2071.625 0.132 -81.569 0.989 7.565 0.989 7.565 0.132 -81.569
2096.583 0.129 -81.702 0.99 7.415 0.99 7.415 0.129 -81.702
2121.542 0.127 -81.832 0.99 7.267 0.99 7.267 0.127 -81.832
2146.5 0.124 -81.958 0.99 7.122 0.99 7.122 0.124 -81.958
2171.458 0.122 -82.082 0.991 6.979 0.991 6.979 0.122 -82.082
2196.417 0.119 -82.202 0.991 6.839 0.991 6.839 0.119 -82.202
2221.375 0.117 -82.32 0.991 6.702 0.991 6.702 0.117 -82.32
2246.333 0.114 -82.435 0.991 6.566 0.991 6.566 0.114 -82.435
2271.292 0.112 -82.548 0.992 6.433 0.992 6.433 0.112 -82.548
2296.25 0.11 -82.657 0.992 6.302 0.992 6.302 0.11 -82.657
2321.208 0.108 -82.764 0.992 6.173 0.992 6.173 0.108 -82.764
2346.167 0.105 -82.869 0.992 6.046 0.992 6.046 0.105 -82.869
2371.125 0.103 -82.971 0.993 5.921 0.993 5.921 0.103 -82.971
2396.083 0.101 -83.07 0.993 5.798 0.993 5.798 0.101 -83.07
2421.042 0.099 -83.167 0.993 5.677 0.993 5.677 0.099 -83.167
2446 0.097 -83.262 0.993 5.557 0.993 5.557 0.097 -83.262
2470.958 0.095 -83.354 0.993 5.439 0.993 5.439 0.095 -83.354
2495.917 0.093 -83.443 0.994 5.323 0.994 5.323 0.093 -83.443
2520.875 0.091 -83.53 0.994 5.209 0.994 5.209 0.091 -83.53
2545.833 0.089 -83.615 0.994 5.096 0.994 5.096 0.089 -83.615
2570.792 0.087 -83.697 0.994 4.985 0.994 4.985 0.087 -83.697
2595.75 0.085 -83.777 0.994 4.875 0.994 4.875 0.085 -83.777
2620.708 0.083 -83.855 0.995 4.767 0.995 4.767 0.083 -83.855
2645.667 0.081 -83.93 0.995 4.66 0.995 4.66 0.081 -83.93
2670.625 0.079 -84.003 0.995 4.555 0.995 4.555 0.079 -84.003
2695.583 0.078 -84.073 0.995 4.45 0.995 4.45 0.078 -84.073
2720.542 0.076 -84.141 0.995 4.348 0.995 4.348 0.076 -84.141
2745.5 0.074 -84.206 0.995 4.246 0.995 4.246 0.074 -84.206
2770.458 0.072 -84.269 0.995 4.146 0.995 4.146 0.072 -84.269
2795.417 0.071 -84.329 0.996 4.047 0.996 4.047 0.071 -84.329
2820.375 0.069 -84.387 0.996 3.949 0.996 3.949 0.069 -84.387
2845.333 0.067 -84.441 0.996 3.852 0.996 3.852 0.067 -84.441
2870.292 0.066 -84.493 0.996 3.756 0.996 3.756 0.066 -84.493
2895.25 0.064 -84.543 0.996 3.662 0.996 3.662 0.064 -84.543
2920.208 0.062 -84.589 0.996 3.568 0.996 3.568 0.062 -84.589
2945.167 0.061 -84.632 0.996 3.476 0.996 3.476 0.061 -84.632
2970.125 0.059 -84.673 0.996 3.384 0.996 3.384 0.059 -84.673
2995.083 0.057 -84.71 0.996 3.294 0.996 3.294 0.057 -84.71
3020.042 0.056 -84.743 0.996 3.204 0.996 3.204 0.056 -84.743
3045 0.054 -84.774 0.997 3.116 0.997 3.116 0.054 -84.774
3069.958 0.053 -84.8 0.997 3.028 0.997 3.028 0.053 -84.8
3094.917 0.051 -84.823 0.997 2.941 0.997 2.941 0.051 -84.823
3119.875 0.05 -84.841 0.997 2.855 0.997 2.855 0.05 -84.841
3144.833 0.048 -84.856 0.997 2.77 0.997 2.77 0.048 -84.856
3169.792 0.047 -84.865 0.997 2.686 0.997 2.686 0.047 -84.865
3194.75 0.045 -84.87 0.997 2.603 0.997 2.603 0.045 -84.87
3219.708 0.044 -84.87 0.997 2.52 0.997 2.52 0.044 -84.87
3244.667 0.043 -84.864 0.997 2.438 0.997 2.438 0.043 -84.864
3269.625 0.041 -84.853 0.997 2.357 0.997 2.357 0.041 -84.853
3294.583 0.04 -84.835 0.997 2.277 0.997 2.277 0.04 -84.835
3319.542 0.038 -84.81 0.997 2.197 0.997 2.197 0.038 -84.81
3344.5 0.037 -84.777 0.997 2.119 0.997 2.119 0.037 -84.777
3369.458 0.036 -84.737 0.997 2.04 0.997 2.04 0.036 -84.737
3394.417 0.034 -84.687 0.997 1.963 0.997 1.963 0.034 -84.687
3419.375 0.033 -84.628 0.997 1.886 0.997 1.886 0.033 -84.628
3444.333 0.032 -84.557 0.997 1.81 0.997 1.81 0.032 -84.557
3469.292 0.03 -84.475 0.998 1.734 0.998 1.734 0.03 -84.475
3494.25 0.029 -84.379 0.998 1.659 0.998 1.659 0.029 -84.379
3519.208 0.028 -84.268 0.998 1.585 0.998 1.585 0.028 -84.268
3544.167 0.026 -84.141 0.998 1.511 0.998 1.511 0.026 -84.141
3569.125 0.025 -83.993 0.998 1.438 0.998 1.438 0.025 -83.993
3594.083 0.024 -83.824 0.998 1.366 0.998 1.366 0.024 -83.824
3619.042 0.023 -83.63 0.998 1.294 0.998 1.294 0.023 -83.63
3644 0.021 -83.406 0.998 1.222 0.998 1.222 0.021 -83.406
3668.958 0.02 -83.149 0.998 1.151 0.998 1.151 0.02 -83.149
3693.917 0.019 -82.851 0.998 1.081 0.998 1.081 0.019 -82.851
3718.875 0.018 -82.505 0.998 1.011 0.998 1.011 0.018 -82.505
3743.833 0.017 -82.101 0.998 0.942 0.998 0.942 0.017 -82.101
3768.792 0.015 -81.628 0.998 0.873 0.998 0.873 0.015 -81.628
3793.75 0.014 -81.067 0.998 0.805 0.998 0.805 0.014 -81.067
3818.708 0.013 -80.398 0.998 0.737 0.998 0.737 0.013 -80.398
3843.667 0.012 -79.59 0.998 0.67 0.998 0.67 0.012 -79.59
3868.625 0.011 -78.599 0.998 0.603 0.998 0.603 0.011 -78.599
3893.583 9.57e-3 -77.364 0.998 0.536 0.998 0.536 9.57e-3 -77.364
3918.542 8.447e-3 -75.792 0.998 0.47 0.998 0.47 8.447e-3 -75.792
3943.5 7.34e-3 -73.735 0.998 0.405 0.998 0.405 7.34e-3 -73.735
3968.458 6.254e-3 -70.951 0.998 0.339 0.998 0.339 6.254e-3 -70.951
3993.417 5.197e-3 -67.017 0.998 0.275 0.998 0.275 5.197e-3 -67.017
4018.375 4.184e-3 -61.135 0.998 0.21 0.998 0.21 4.184e-3 -61.135
4043.333 3.249e-3 -51.722 0.998 0.146 0.998 0.146 3.249e-3 -51.722
4068.292 2.474e-3 -35.72 0.998 0.083 0.998 0.083 2.474e-3 -35.72
4093.25 2.036e-3 -9.745 0.998 0.02 0.998 0.02 2.036e-3 -9.745
4118.208 2.142e-3 20.451 0.998 -0.043 0.998 -0.043 2.142e-3 20.451
4143.167 2.721e-3 42.394 0.998 -0.105 0.998 -0.105 2.721e-3 42.394
4168.125 3.543e-3 55.345 0.998 -0.167 0.998 -0.167 3.543e-3 55.345
4193.083 4.471e-3 63.112 0.998 -0.229 0.998 -0.229 4.471e-3 63.112
4218.042 5.448e-3 68.103 0.998 -0.29 0.998 -0.29 5.448e-3 68.103
4243 6.448e-3 71.523 0.998 -0.351 0.998 -0.351 6.448e-3 71.523
4267.958 7.46e-3 73.99 0.998 -0.412 0.998 -0.412 7.46e-3 73.99
4292.917 8.478e-3 75.84 0.998 -0.472 0.998 -0.472 8.478e-3 75.84
4317.875 9.497e-3 77.273 0.998 -0.532 0.998 -0.532 9.497e-3 77.273
4342.833 0.011 78.41 0.998 -0.591 0.998 -0.591 0.011 78.41
4367.792 0.012 79.331 0.998 -0.651 0.998 -0.651 0.012 79.331
4392.75 0.013 80.09 0.998 -0.71 0.998 -0.71 0.013 80.09
4417.708 0.014 80.722 0.998 -0.768 0.998 -0.768 0.014 80.722
4442.667 0.015 81.257 0.998 -0.827 0.998 -0.827 0.015 81.257
4467.625 0.016 81.712 0.998 -0.885 0.998 -0.885 0.016 81.712
4492.583 0.017 82.103 0.998 -0.942 0.998 -0.942 0.017 82.103
4517.542 0.018 82.442 0.998 -1 0.998 -1 0.018 82.442
4542.5 0.019 82.736 0.998 -1.057 0.998 -1.057 0.019 82.736
4567.458 0.02 82.994 0.998 -1.114 0.998 -1.114 0.02 82.994
4592.417 0.021 83.221 0.998 -1.17 0.998 -1.17 0.021 83.221
4617.375 0.021 83.42 0.998 -1.226 0.998 -1.226 0.021 83.42
4642.333 0.022 83.597 0.998 -1.282 0.998 -1.282 0.022 83.597
4667.292 0.023 83.753 0.998 -1.338 0.998 -1.338 0.023 83.753
4692.25 0.024 83.893 0.998 -1.394 0.998 -1.394 0.024 83.893
4717.208 0.025 84.016 0.998 -1.449 0.998 -1.449 0.025 84.016
4742.167 0.026 84.127 0.998 -1.504 0.998 -1.504 0.026 84.127
4767.125 0.027 84.225 0.998 -1.559 0.998 -1.559 0.027 84.225
4792.083 0.028 84.312 0.998 -1.613 0.998 -1.613 0.028 84.312
4817.042 0.029 84.39 0.998 -1.667 0.998 -1.667 0.029 84.39
4842 0.03 84.46 0.998 -1.721 0.998 -1.721 0.03 84.46
4866.958 0.031 84.521 0.998 -1.775 0.998 -1.775 0.031 84.521
4891.917 0.032 84.576 0.997 -1.829 0.997 -1.829 0.032 84.576
4916.875 0.033 84.624 0.997 -1.882 0.997 -1.882 0.033 84.624
4941.833 0.034 84.667 0.997 -1.935 0.997 -1.935 0.034 84.667
4966.792 0.035 84.704 0.997 -1.988 0.997 -1.988 0.035 84.704
4991.75 0.036 84.737 0.997 -2.041 0.997 -2.041 0.036 84.737
5016.708 0.037 84.765 0.997 -2.093 0.997 -2.093 0.037 84.765
5041.667 0.037 84.789 0.997 -2.145 0.997 -2.145 0.037 84.789
5066.625 0.038 84.81 0.997 -2.197 0.997 -2.197 0.038 84.81
5091.583 0.039 84.827 0.997 -2.249 0.997 -2.249 0.039 84.827
5116.542 0.04 84.841 0.997 -2.301 0.997 -2.301 0.04 84.841
5141.5 0.041 84.852 0.997 -2.352 0.997 -2.352 0.041 84.852
5166.458 0.042 84.86 0.997 -2.403 0.997 -2.403 0.042 84.86
5191.417 0.043 84.866 0.997 -2.454 0.997 -2.454 0.043 84.866
5216.375 0.044 84.869 0.997 -2.505 0.997 -2.505 0.044 84.869
5241.333 0.045 84.871 0.997 -2.556 0.997 -2.556 0.045 84.871
5266.292 0.046 84.87 0.997 -2.606 0.997 -2.606 0.046 84.87
5291.25 0.046 84.868 0.997 -2.656 0.997 -2.656 0.046 84.868
5316.208 0.047 84.863 0.997 -2.707 0.997 -2.707 0.047 84.863
5341.167 0.048 84.858 0.997 -2.756 0.997 -2.756 0.048 84.858
5366.125 0.049 84.85 0.997 -2.806 0.997 -2.806 0.049 84.85
5391.083 0.05 84.841 0.997 -2.856 0.997 -2.856 0.05 84.841
5416.042 0.051 84.831 0.997 -2.905 0.997 -2.905 0.051 84.831
5441 0.052 84.82 0.997 -2.954 0.997 -2.954 0.052 84.82
5465.958 0.052 84.807 0.997 -3.003 0.997 -3.003 0.052 84.807
5490.917 0.053 84.793 0.997 -3.052 0.997 -3.052 0.053 84.793
5515.875 0.054 84.778 0.997 -3.101 0.997 -3.101 0.054 84.778
5540.833 0.055 84.762 0.996 -3.149 0.996 -3.149 0.055 84.762
5565.792 0.056 84.746 0.996 -3.198 0.996 -3.198 0.056 84.746
5590.75 0.057 84.728 0.996 -3.246 0.996 -3.246 0.057 84.728
5615.708 0.057 84.71 0.996 -3.294 0.996 -3.294 0.057 84.71
5640.667 0.058 84.69 0.996 -3.342 0.996 -3.342 0.058 84.69
5665.625 0.059 84.67 0.996 -3.39 0.996 -3.39 0.059 84.67
5690.583 0.06 84.65 0.996 -3.437 0.996 -3.437 0.06 84.65
5715.542 0.061 84.628 0.996 -3.485 0.996 -3.485 0.061 84.628
5740.5 0.062 84.606 0.996 -3.532 0.996 -3.532 0.062 84.606
5765.458 0.062 84.584 0.996 -3.579 0.996 -3.579 0.062 84.584
5790.417 0.063 84.561 0.996 -3.626 0.996 -3.626 0.063 84.561
5815.375 0.064 84.537 0.996 -3.673 0.996 -3.673 0.064 84.537
5840.333 0.065 84.513 0.996 -3.72 0.996 -3.72 0.065 84.513
5865.292 0.066 84.488 0.996 -3.767 0.996 -3.767 0.066 84.488
5890.25 0.067 84.463 0.996 -3.813 0.996 -3.813 0.067 84.463
5915.208 0.067 84.437 0.996 -3.86 0.996 -3.86 0.067 84.437
5940.167 0.068 84.411 0.996 -3.906 0.996 -3.906 0.068 84.411
5965.125 0.069 84.385 0.996 -3.952 0.996 -3.952 0.069 84.385
5990.083 0.07 84.358 0.996 -3.998 0.996 -3.998 0.07 84.358
6015.042 0.071 84.331 0.996 -4.044 0.996 -4.044 0.071 84.331
6040 0.071 84.303 0.995 -4.089 0.995 -4.089 0.071 84.303
6064.958 0.072 84.275 0.995 -4.135 0.995 -4.135 0.072 84.275
6089.917 0.073 84.247 0.995 -4.181 0.995 -4.181 0.073 84.247
6114.875 0.074 84.219 0.995 -4.226 0.995 -4.226 0.074 84.219
6139.833 0.075 84.19 0.995 -4.271 0.995 -4.271 0.075 84.19
6164.792 0.075 84.161 0.995 -4.316 0.995 -4.316 0.075 84.161
6189.75 0.076 84.132 0.995 -4.361 0.995 -4.361 0.076 84.132
6214.708 0.077 84.103 0.995 -4.406 0.995 -4.406 0.077 84.103
6239.667 0.078 84.073 0.995 -4.451 0.995 -4.451 0.078 84.073
6264.625 0.078 84.043 0.995 -4.495 0.995 -4.495 0.078 84.043
6289.583 0.079 84.013 0.995 -4.54 0.995 -4.54 0.079 84.013
6314.542 0.08 83.982 0.995 -4.584 0.995 -4.584 0.08 83.982
6339.5 0.081 83.952 0.995 -4.629 0.995 -4.629 0.081 83.952
6364.458 0.081 83.921 0.995 -4.673 0.995 -4.673 0.081 83.921
6389.417 0.082 83.89 0.995 -4.717 0.995 -4.717 0.082 83.89
6414.375 0.083 83.859 0.995 -4.761 0.995 -4.761 0.083 83.859
6439.333 0.084 83.828 0.994 -4.805 0.994 -4.805 0.084 83.828
6464.292 0.085 83.797 0.994 -4.849 0.994 -4.849 0.085 83.797
6489.25 0.085 83.765 0.994 -4.892 0.994 -4.892 0.085 83.765
6514.208 0.086 83.733 0.994 -4.936 0.994 -4.936 0.086 83.733
6539.167 0.087 83.702 0.994 -4.979 0.994 -4.979 0.087 83.702
6564.125 0.088 83.67 0.994 -5.023 0.994 -5.023 0.088 83.67
6589.083 0.088 83.638 0.994 -5.066 0.994 -5.066 0.088 83.638
6614.042 0.089 83.605 0.994 -5.109 0.994 -5.109 0.089 83.605
6639 0.09 83.573 0.994 -5.152 0.994 -5.152 0.09 83.573
6663.958 0.091 83.541 0.994 -5.195 0.994 -5.195 0.091 83.541
6688.917 0.091 83.508 0.994 -5.238 0.994 -5.238 0.091 83.508
6713.875 0.092 83.476 0.994 -5.281 0.994 -5.281 0.092 83.476
6738.833 0.093 83.443 0.994 -5.324 0.994 -5.324 0.093 83.443
6763.792 0.094 83.41 0.994 -5.366 0.994 -5.366 0.094 83.41
6788.75 0.094 83.377 0.994 -5.409 0.994 -5.409 0.094 83.377
6813.708 0.095 83.344 0.993 -5.451 0.993 -5.451 0.095 83.344
6838.667 0.096 83.311 0.993 -5.494 0.993 -5.494 0.096 83.311
6863.625 0.096 83.278 0.993 -5.536 0.993 -5.536 0.096 83.278
6888.583 0.097 83.245 0.993 -5.578 0.993 -5.578 0.097 83.245
6913.542 0.098 83.212 0.993 -5.62 0.993 -5.62 0.098 83.212
6938.5 0.099 83.179 0.993 -5.662 0.993 -5.662 0.099 83.179
6963.458 0.099 83.145 0.993 -5.704 0.993 -5.704 0.099 83.145
6988.417 0.1 83.112 0.993 -5.746 0.993 -5.746 0.1 83.112
7013.375 0.101 83.078 0.993 -5.788 0.993 -5.788 0.101 83.078
7038.333 0.102 83.045 0.993 -5.829 0.993 -5.829 0.102 83.045
7063.292 0.102 83.011 0.993 -5.871 0.993 -5.871 0.102 83.011
7088.25 0.103 82.978 0.993 -5.913 0.993 -5.913 0.103 82.978
7113.208 0.104 82.944 0.993 -5.954 0.993 -5.954 0.104 82.944
7138.167 0.104 82.91 0.993 -5.995 0.993 -5.995 0.104 82.91
7163.125 0.105 82.877 0.992 -6.037 0.992 -6.037 0.105 82.877
7188.083 0.106 82.843 0.992 -6.078 0.992 -6.078 0.106 82.843
7213.042 0.107 82.809 0.992 -6.119 0.992 -6.119 0.107 82.809
7238 0.107 82.775 0.992 -6.16 0.992 -6.16 0.107 82.775
7262.958 0.108 82.741 0.992 -6.201 0.992 -6.201 0.108 82.741
7287.917 0.109 82.707 0.992 -6.242 0.992 -6.242 0.109 82.707
7312.875 0.109 82.673 0.992 -6.283 0.992 -6.283 0.109 82.673
7337.833 0.11 82.639 0.992 -6.323 0.992 -6.323 0.11 82.639
7362.792 0.111 82.605 0.992 -6.364 0.992 -6.364 0.111 82.605
7387.75 0.112 82.571 0.992 -6.405 0.992 -6.405 0.112 82.571
7412.708 0.112 82.537 0.992 -6.445 0.992 -6.445 0.112 82.537
7437.667 0.113 82.503 0.992 -6.486 0.992 -6.486 0.113 82.503
7462.625 0.114 82.469 0.992 -6.526 0.992 -6.526 0.114 82.469
7487.583 0.114 82.435 0.991 -6.567 0.991 -6.567 0.114 82.435
7512.542 0.115 82.401 0.991 -6.607 0.991 -6.607 0.115 82.401
7537.5 0.116 82.367 0.991 -6.647 0.991 -6.647 0.116 82.367
7562.458 0.116 82.333 0.991 -6.687 0.991 -6.687 0.116 82.333
7587.417 0.117 82.298 0.991 -6.727 0.991 -6.727 0.117 82.298
7612.375 0.118 82.264 0.991 -6.767 0.991 -6.767 0.118 82.264
7637.333 0.119 82.23 0.991 -6.807 0.991 -6.807 0.119 82.23
7662.292 0.119 82.196 0.991 -6.847 0.991 -6.847 0.119 82.196
7687.25 0.12 82.162 0.991 -6.887 0.991 -6.887 0.12 82.162
7712.208 0.121 82.127 0.991 -6.926 0.991 -6.926 0.121 82.127
7737.167 0.121 82.093 0.991 -6.966 0.991 -6.966 0.121 82.093
7762.125 0.122 82.059 0.991 -7.006 0.991 -7.006 0.122 82.059
7787.083 0.123 82.025 0.99 -7.045 0.99 -7.045 0.123 82.025
7812.042 0.123 81.99 0.99 -7.085 0.99 -7.085 0.123 81.99
7837 0.124 81.956 0.99 -7.124 0.99 -7.124 0.124 81.956
7861.958 0.125 81.922 0.99 -7.164 0.99 -7.164 0.125 81.922
7886.917 0.125 81.888 0.99 -7.203 0.99 -7.203 0.125 81.888
7911.875 0.126 81.853 0.99 -7.242 0.99 -7.242 0.126 81.853
7936.833 0.127 81.819 0.99 -7.281 0.99 -7.281 0.127 81.819
7961.792 0.127 81.785 0.99 -7.32 0.99 -7.32 0.127 81.785
7986.75 0.128 81.751 0.99 -7.359 0.99 -7.359 0.128 81.751
8011.708 0.129 81.716 0.99 -7.398 0.99 -7.398 0.129 81.716
8036.667 0.129 81.682 0.99 -7.437 0.99 -7.437 0.129 81.682
8061.625 0.13 81.648 0.99 -7.476 0.99 -7.476 0.13 81.648
8086.583 0.131 81.614 0.989 -7.515 0.989 -7.515 0.131 81.614
8111.542 0.131 81.579 0.989 -7.554 0.989 -7.554 0.131 81.579
8136.5 0.132 81.545 0.989 -7.593 0.989 -7.593 0.132 81.545
8161.458 0.133 81.511 0.989 -7.631 0.989 -7.631 0.133 81.511
8186.417 0.133 81.477 0.989 -7.67 0.989 -7.67 0.133 81.477
8211.375 0.134 81.442 0.989 -7.708 0.989 -7.708 0.134 81.442
8236.333 0.135 81.408 0.989 -7.747 0.989 -7.747 0.135 81.408
8261.292 0.135 81.374 0.989 -7.785 0.989 -7.785 0.135 81.374
