# MHZ S MA R 50

50 0.968 -14.448 0.25 75.528 0.25 75.528 0.968 -14.448
74.958 0.933 -21.124 0.36 68.841 0.36 68.841 0.933 -21.124
99.917 0.889 -27.255 0.458 62.698 0.458 62.698 0.889 -27.255
124.875 0.84 -32.784 0.541 57.157 0.541 57.157 0.84 -32.784
149.833 0.79 -37.709 0.612 52.22 0.612 52.22 0.79 -37.709
174.792 0.741 -42.063 0.67 47.854 0.67 47.854 0.741 -42.063
199.75 0.695 -45.9 0.718 44.006 0.718 44.006 0.695 -45.9
224.708 0.651 -49.277 0.758 40.616 0.758 40.616 0.651 -49.277
249.667 0.611 -52.254 0.791 37.627 0.791 37.627 0.611 -52.254
274.625 0.573 -54.885 0.818 34.984 0.818 34.984 0.573 -54.885
299.583 0.539 -57.219 0.841 32.638 0.841 32.638 0.539 -57.219
324.542 0.508 -59.296 0.86 30.549 0.86 30.549 0.508 -59.296
349.5 0.48 -61.153 0.876 28.68 0.876 28.68 0.48 -61.153
374.458 0.454 -62.819 0.89 27.001 0.89 27.001 0.454 -62.819
399.417 0.43 -64.322 0.901 25.486 0.901 25.486 0.43 -64.322
424.375 0.409 -65.681 0.911 24.114 0.911 24.114 0.409 -65.681
449.333 0.389 -66.917 0.92 22.866 0.92 22.866 0.389 -66.917
474.292 0.37 -68.043 0.927 21.727 0.927 21.727 0.37 -68.043
499.25 0.353 -69.074 0.934 20.684 0.934 20.684 0.353 -69.074
524.208 0.337 -70.02 0.94 19.724 0.94 19.724 0.337 -70.02
549.167 0.323 -70.892 0.945 18.84 0.945 18.84 0.323 -70.892
574.125 0.309 -71.697 0.949 18.021 0.949 18.021 0.309 -71.697
599.083 0.297 -72.443 0.953 17.262 0.953 17.262 0.297 -72.443
624.042 0.285 -73.136 0.957 16.556 0.957 16.556 0.285 -73.136
649 0.274 -73.782 0.96 15.897 0.96 15.897 0.274 -73.782
673.958 0.264 -74.384 0.963 15.281 0.963 15.281 0.264 -74.384
698.917 0.254 -74.947 0.966 14.704 0.966 14.704 0.254 -74.947
723.875 0.245 -75.476 0.968 14.162 0.968 14.162 0.245 -75.476
748.833 0.236 -75.972 0.97 13.651 0.97 13.651 0.236 -75.972
773.792 0.228 -76.439 0.972 13.17 0.972 13.17 0.228 -76.439
798.75 0.22 -76.879 0.974 12.715 0.974 12.715 0.22 -76.879
823.708 0.213 -77.295 0.976 12.285 0.976 12.285 0.213 -77.295
848.667 0.206 -77.688 0.977 11.877 0.977 11.877 0.206 -77.688
873.625 0.199 -78.06 0.978 11.489 0.978 11.489 0.199 -78.06
898.583 0.193 -78.414 0.98 11.121 0.98 11.121 0.193 -78.414
923.542 0.187 -78.749 0.981 10.77 0.981 10.77 0.187 -78.749
948.5 0.181 -79.068 0.982 10.435 0.982 10.435 0.181 -79.068
973.458 0.176 -79.372 0.983 10.115 0.983 10.115 0.176 -79.372
998.417 0.17 -79.662 0.984 9.809 0.984 9.809 0.17 -79.662
1023.375 0.165 -79.938 0.985 9.516 0.985 9.516 0.165 -79.938
1048.333 0.16 -80.202 0.985 9.235 0.985 9.235 0.16 -80.202
1073.292 0.156 -80.455 0.986 8.965 0.986 8.965 0.156 -80.455
1098.25 0.151 -80.697 0.987 8.706 0.987 8.706 0.151 -80.697
1123.208 0.147 -80.928 0.988 8.456 0.988 8.456 0.147 -80.928
1148.167 0.143 -81.15 0.988 8.216 0.988 8.216 0.143 -81.15
1173.125 0.139 -81.363 0.989 7.985 0.989 7.985 0.139 -81.363
1198.083 0.135 -81.567 0.989 7.762 0.989 7.762 0.135 -81.567
1223.042 0.131 -81.763 0.99 7.546 0.99 7.546 0.131 -81.763
1248 0.128 -81.952 0.99 7.338 0.99 7.338 0.128 -81.952
1272.958 0.124 -82.133 0.991 7.136 0.991 7.136 0.124 -82.133
1297.917 0.121 -82.307 0.991 6.941 0.991 6.941 0.121 -82.307
1322.875 0.118 -82.475 0.991 6.752 0.991 6.752 0.118 -82.475
1347.833 0.114 -82.637 0.992 6.569 0.992 6.569 0.114 -82.637
1372.792 0.111 -82.792 0.992 6.391 0.992 6.391 0.111 -82.792
1397.75 0.108 -82.942 0.993 6.218 0.993 6.218 0.108 -82.942
1422.708 0.105 -83.086 0.993 6.05 0.993 6.05 0.105 -83.086
1447.667 0.103 -83.225 0.993 5.887 0.993 5.887 0.103 -83.225
1472.625 0.1 -83.359 0.993 5.728 0.993 5.728 0.1 -83.359
1497.583 0.097 -83.488 0.994 5.574 0.994 5.574 0.097 -83.488
1522.542 0.095 -83.613 0.994 5.423 0.994 5.423 0.095 -83.613
1547.5 0.092 -83.732 0.994 5.277 0.994 5.277 0.092 -83.732
1572.458 0.089 -83.848 0.994 5.134 0.994 5.134 0.089 -83.848
1597.417 0.087 -83.959 0.995 4.994 0.995 4.994 0.087 -83.959
1622.375 0.085 -84.065 0.995 4.858 0.995 4.858 0.085 -84.065
1647.333 0.082 -84.168 0.995 4.725 0.995 4.725 0.082 -84.168
1672.292 0.08 -84.267 0.995 4.595 0.995 4.595 0.08 -84.267
1697.25 0.078 -84.361 0.995 4.467 0.995 4.467 0.078 -84.361
1722.208 0.076 -84.452 0.996 4.343 0.996 4.343 0.076 -84.452
1747.167 0.074 -84.539 0.996 4.221 0.996 4.221 0.074 -84.539
1772.125 0.072 -84.622 0.996 4.102 0.996 4.102 0.072 -84.622
1797.083 0.07 -84.701 0.996 3.985 0.996 3.985 0.07 -84.701
1822.042 0.068 -84.777 0.996 3.871 0.996 3.871 0.068 -84.777
1847 0.066 -84.848 0.996 3.758 0.996 3.758 0.066 -84.848
1871.958 0.064 -84.916 0.996 3.648 0.996 3.648 0.064 -84.916
1896.917 0.062 -84.98 0.996 3.54 0.996 3.54 0.062 -84.98
1921.875 0.06 -85.041 0.997 3.434 0.997 3.434 0.06 -85.041
1946.833 0.058 -85.097 0.997 3.33 0.997 3.33 0.058 -85.097
1971.792 0.056 -85.149 0.997 3.228 0.997 3.228 0.056 -85.149
1996.75 0.055 -85.198 0.997 3.128 0.997 3.128 0.055 -85.198
2021.708 0.053 -85.242 0.997 3.029 0.997 3.029 0.053 -85.242
2046.667 0.051 -85.281 0.997 2.932 0.997 2.932 0.051 -85.281
2071.625 0.05 -85.317 0.997 2.836 0.997 2.836 0.05 -85.317
2096.583 0.048 -85.347 0.997 2.743 0.997 2.743 0.048 -85.347
2121.542 0.046 -85.373 0.997 2.65 0.997 2.65 0.046 -85.373
2146.5 0.045 -85.394 0.997 2.559 0.997 2.559 0.045 -85.394
2171.458 0.043 -85.409 0.997 2.469 0.997 2.469 0.043 -85.409
2196.417 0.042 -85.419 0.998 2.381 0.998 2.381 0.042 -85.419
2221.375 0.04 -85.422 0.998 2.294 0.998 2.294 0.04 -85.422
2246.333 0.039 -85.419 0.998 2.208 0.998 2.208 0.039 -85.419
2271.292 0.037 -85.409 0.998 2.124 0.998 2.124 0.037 -85.409
2296.25 0.036 -85.392 0.998 2.04 0.998 2.04 0.036 -85.392
2321.208 0.034 -85.366 0.998 1.958 0.998 1.958 0.034 -85.366
2346.167 0.033 -85.332 0.998 1.877 0.998 1.877 0.033 -85.332
2371.125 0.031 -85.288 0.998 1.797 0.998 1.797 0.031 -85.288
2396.083 0.03 -85.233 0.998 1.718 0.998 1.718 0.03 -85.233
2421.042 0.029 -85.166 0.998 1.64 0.998 1.64 0.029 -85.166
2446 0.027 -85.086 0.998 1.563 0.998 1.563 0.027 -85.086
2470.958 0.026 -84.99 0.998 1.486 0.998 1.486 0.026 -84.99
2495.917 0.025 -84.878 0.998 1.411 0.998 1.411 0.025 -84.878
2520.875 0.023 -84.747 0.998 1.337 0.998 1.337 0.023 -84.747
2545.833 0.022 -84.593 0.998 1.263 0.998 1.263 0.022 -84.593
2570.792 0.021 -84.414 0.998 1.191 0.998 1.191 0.021 -84.414
2595.75 0.02 -84.204 0.998 1.119 0.998 1.119 0.02 -84.204
2620.708 0.018 -83.96 0.998 1.048 0.998 1.048 0.018 -83.96
2645.667 0.017 -83.673 0.998 0.977 0.998 0.977 0.017 -83.673
2670.625 0.016 -83.335 0.998 0.908 0.998 0.908 0.016 -83.335
2695.583 0.015 -82.935 0.998 0.839 0.998 0.839 0.015 -82.935
2720.542 0.014 -82.457 0.998 0.771 0.998 0.771 0.014 -82.457
2745.5 0.012 -81.882 0.998 0.703 0.998 0.703 0.012 -81.882
2770.458 0.011 -81.18 0.998 0.637 0.998 0.637 0.011 -81.18
2795.417 0.01 -80.313 0.998 0.57 0.998 0.57 0.01 -80.313
2820.375 8.955e-3 -79.219 0.998 0.505 0.998 0.505 8.955e-3 -79.219
2845.333 7.843e-3 -77.807 0.998 0.44 0.998 0.44 7.843e-3 -77.807
2870.292 6.748e-3 -75.931 0.998 0.376 0.998 0.376 6.748e-3 -75.931
2895.25 5.674e-3 -73.335 0.998 0.312 0.998 0.312 5.674e-3 -73.335
2920.208 4.627e-3 -69.553 0.998 0.249 0.998 0.249 4.627e-3 -69.553
2945.167 3.622e-3 -63.638 0.998 0.186 0.998 0.186 3.622e-3 -63.638
2970.125 2.692e-3 -53.48 0.998 0.124 0.998 0.124 2.692e-3 -53.48
2995.083 1.936e-3 -34.329 0.998 0.063 0.998 0.063 1.936e-3 -34.329
3020.042 1.598e-3 -1.031 0.998 1.65e-3 0.998 1.65e-3 1.598e-3 -1.031
3045 1.899e-3 32.68 0.998 -0.059 0.998 -0.059 1.899e-3 32.68
3069.958 2.618e-3 52.282 0.998 -0.119 0.998 -0.119 2.618e-3 52.282
3094.917 3.5e-3 62.66 0.998 -0.178 0.998 -0.178 3.5e-3 62.66
3119.875 4.442e-3 68.683 0.998 -0.237 0.998 -0.237 4.442e-3 68.683
3144.833 5.409e-3 72.525 0.998 -0.296 0.998 -0.296 5.409e-3 72.525
3169.792 6.386e-3 75.158 0.998 -0.354 0.998 -0.354 6.386e-3 75.158
3194.75 7.366e-3 77.061 0.998 -0.412 0.998 -0.412 7.366e-3 77.061
3219.708 8.345e-3 78.494 0.998 -0.469 0.998 -0.469 8.345e-3 78.494
3244.667 9.321e-3 79.605 0.998 -0.526 0.998 -0.526 9.321e-3 79.605
3269.625 0.01 80.49 0.998 -0.583 0.998 -0.583 0.01 80.49
3294.583 0.011 81.206 0.998 -0.639 0.998 -0.639 0.011 81.206
3319.542 0.012 81.797 0.998 -0.694 0.998 -0.694 0.012 81.797
3344.5 0.013 82.29 0.998 -0.75 0.998 -0.75 0.013 82.29
3369.458 0.014 82.706 0.998 -0.805 0.998 -0.805 0.014 82.706
3394.417 0.015 83.061 0.998 -0.859 0.998 -0.859 0.015 83.061
3419.375 0.016 83.365 0.998 -0.914 0.998 -0.914 0.016 83.365
3444.333 0.017 83.628 0.998 -0.967 0.998 -0.967 0.017 83.628
3469.292 0.018 83.856 0.998 -1.021 0.998 -1.021 0.018 83.856
3494.25 0.019 84.056 0.998 -1.074 0.998 -1.074 0.019 84.056
3519.208 0.02 84.23 0.998 -1.127 0.998 -1.127 0.02 84.23
3544.167 0.021 84.384 0.998 -1.18 0.998 -1.18 0.021 84.384
3569.125 0.022 84.519 0.998 -1.232 0.998 -1.232 0.022 84.519
3594.083 0.022 84.639 0.998 -1.284 0.998 -1.284 0.022 84.639
3619.042 0.023 84.744 0.998 -1.335 0.998 -1.335 0.023 84.744
3644 0.024 84.838 0.998 -1.387 0.998 -1.387 0.024 84.838
3668.958 0.025 84.92 0.998 -1.438 0.998 -1.438 0.025 84.92
3693.917 0.026 84.994 0.998 -1.489 0.998 -1.489 0.026 84.994
3718.875 0.027 85.058 0.998 -1.539 0.998 -1.539 0.027 85.058
3743.833 0.028 85.115 0.998 -1.589 0.998 -1.589 0.028 85.115
3768.792 0.029 85.166 0.998 -1.639 0.998 -1.639 0.029 85.166
3793.75 0.03 85.21 0.998 -1.689 0.998 -1.689 0.03 85.21
3818.708 0.03 85.249 0.998 -1.739 0.998 -1.739 0.03 85.249
3843.667 0.031 85.282 0.998 -1.788 0.998 -1.788 0.031 85.282
3868.625 0.032 85.311 0.998 -1.837 0.998 -1.837 0.032 85.311
3893.583 0.033 85.336 0.998 -1.885 0.998 -1.885 0.033 85.336
3918.542 0.034 85.357 0.998 -1.934 0.998 -1.934 0.034 85.357
3943.5 0.035 85.375 0.998 -1.982 0.998 -1.982 0.035 85.375
3968.458 0.035 85.389 0.998 -2.03 0.998 -2.03 0.035 85.389
3993.417 0.036 85.401 0.998 -2.078 0.998 -2.078 0.036 85.401
4018.375 0.037 85.41 0.998 -2.126 0.998 -2.126 0.037 85.41
4043.333 0.038 85.416 0.998 -2.173 0.998 -2.173 0.038 85.416
4068.292 0.039 85.42 0.998 -2.22 0.998 -2.22 0.039 85.42
4093.25 0.04 85.422 0.998 -2.267 0.998 -2.267 0.04 85.422
4118.208 0.04 85.422 0.998 -2.314 0.998 -2.314 0.04 85.422
4143.167 0.041 85.42 0.998 -2.36 0.998 -2.36 0.041 85.42
4168.125 0.042 85.417 0.998 -2.407 0.998 -2.407 0.042 85.417
4193.083 0.043 85.411 0.997 -2.453 0.997 -2.453 0.043 85.411
4218.042 0.044 85.405 0.997 -2.499 0.997 -2.499 0.044 85.405
4243 0.044 85.397 0.997 -2.544 0.997 -2.544 0.044 85.397
4267.958 0.045 85.387 0.997 -2.59 0.997 -2.59 0.045 85.387
4292.917 0.046 85.377 0.997 -2.635 0.997 -2.635 0.046 85.377
4317.875 0.047 85.365 0.997 -2.681 0.997 -2.681 0.047 85.365
4342.833 0.048 85.352 0.997 -2.726 0.997 -2.726 0.048 85.352
4367.792 0.048 85.339 0.997 -2.771 0.997 -2.771 0.048 85.339
4392.75 0.049 85.324 0.997 -2.815 0.997 -2.815 0.049 85.324
4417.708 0.05 85.308 0.997 -2.86 0.997 -2.86 0.05 85.308
4442.667 0.051 85.292 0.997 -2.904 0.997 -2.904 0.051 85.292
4467.625 0.051 85.275 0.997 -2.948 0.997 -2.948 0.051 85.275
4492.583 0.052 85.257 0.997 -2.992 0.997 -2.992 0.052 85.257
4517.542 0.053 85.239 0.997 -3.036 0.997 -3.036 0.053 85.239
4542.5 0.054 85.219 0.997 -3.08 0.997 -3.08 0.054 85.219
4567.458 0.055 85.2 0.997 -3.124 0.997 -3.124 0.055 85.2
4592.417 0.055 85.179 0.997 -3.167 0.997 -3.167 0.055 85.179
4617.375 0.056 85.158 0.997 -3.21 0.997 -3.21 0.056 85.158
4642.333 0.057 85.137 0.997 -3.254 0.997 -3.254 0.057 85.137
4667.292 0.058 85.115 0.997 -3.297 0.997 -3.297 0.058 85.115
4692.25 0.058 85.092 0.997 -3.339 0.997 -3.339 0.058 85.092
4717.208 0.059 85.069 0.997 -3.382 0.997 -3.382 0.059 85.069
4742.167 0.06 85.046 0.997 -3.425 0.997 -3.425 0.06 85.046
4767.125 0.06 85.022 0.997 -3.467 0.997 -3.467 0.06 85.022
4792.083 0.061 84.998 0.997 -3.51 0.997 -3.51 0.061 84.998
4817.042 0.062 84.974 0.996 -3.552 0.996 -3.552 0.062 84.974
4842 0.063 84.949 0.996 -3.594 0.996 -3.594 0.063 84.949
4866.958 0.063 84.924 0.996 -3.636 0.996 -3.636 0.063 84.924
4891.917 0.064 84.898 0.996 -3.678 0.996 -3.678 0.064 84.898
4916.875 0.065 84.873 0.996 -3.719 0.996 -3.719 0.065 84.873
4941.833 0.066 84.847 0.996 -3.761 0.996 -3.761 0.066 84.847
4966.792 0.066 84.821 0.996 -3.803 0.996 -3.803 0.066 84.821
4991.75 0.067 84.794 0.996 -3.844 0.996 -3.844 0.067 84.794
5016.708 0.068 84.767 0.996 -3.885 0.996 -3.885 0.068 84.767
5041.667 0.068 84.74 0.996 -3.926 0.996 -3.926 0.068 84.74
5066.625 0.069 84.713 0.996 -3.967 0.996 -3.967 0.069 84.713
5091.583 0.07 84.686 0.996 -4.008 0.996 -4.008 0.07 84.686
5116.542 0.071 84.658 0.996 -4.049 0.996 -4.049 0.071 84.658
5141.5 0.071 84.63 0.996 -4.09 0.996 -4.09 0.071 84.63
5166.458 0.072 84.602 0.996 -4.13 0.996 -4.13 0.072 84.602
5191.417 0.073 84.574 0.996 -4.171 0.996 -4.171 0.073 84.574
5216.375 0.073 84.546 0.996 -4.211 0.996 -4.211 0.073 84.546
5241.333 0.074 84.517 0.996 -4.251 0.996 -4.251 0.074 84.517
5266.292 0.075 84.489 0.996 -4.292 0.996 -4.292 0.075 84.489
5291.25 0.076 84.46 0.996 -4.332 0.996 -4.332 0.076 84.46
5316.208 0.076 84.431 0.995 -4.372 0.995 -4.372 0.076 84.431
5341.167 0.077 84.402 0.995 -4.412 0.995 -4.412 0.077 84.402
5366.125 0.078 84.373 0.995 -4.451 0.995 -4.451 0.078 84.373
5391.083 0.078 84.344 0.995 -4.491 0.995 -4.491 0.078 84.344
5416.042 0.079 84.314 0.995 -4.531 0.995 -4.531 0.079 84.314
5441 0.08 84.285 0.995 -4.57 0.995 -4.57 0.08 84.285
5465.958 0.08 84.255 0.995 -4.61 0.995 -4.61 0.08 84.255
5490.917 0.081 84.226 0.995 -4.649 0.995 -4.649 0.081 84.226
5515.875 0.082 84.196 0.995 -4.688 0.995 -4.688 0.082 84.196
5540.833 0.082 84.166 0.995 -4.727 0.995 -4.727 0.082 84.166
5565.792 0.083 84.136 0.995 -4.767 0.995 -4.767 0.083 84.136
5590.75 0.084 84.106 0.995 -4.806 0.995 -4.806 0.084 84.106
5615.708 0.084 84.076 0.995 -4.844 0.995 -4.844 0.084 84.076
5640.667 0.085 84.045 0.995 -4.883 0.995 -4.883 0.085 84.045
5665.625 0.086 84.015 0.995 -4.922 0.995 -4.922 0.086 84.015
5690.583 0.086 83.985 0.995 -4.961 0.995 -4.961 0.086 83.985
5715.542 0.087 83.954 0.995 -4.999 0.995 -4.999 0.087 83.954
5740.5 0.088 83.924 0.995 -5.038 0.995 -5.038 0.088 83.924
5765.458 0.088 83.893 0.994 -5.076 0.994 -5.076 0.088 83.893
5790.417 0.089 83.863 0.994 -5.115 0.994 -5.115 0.089 83.863
5815.375 0.09 83.832 0.994 -5.153 0.994 -5.153 0.09 83.832
5840.333 0.09 83.801 0.994 -5.191 0.994 -5.191 0.09 83.801
5865.292 0.091 83.771 0.994 -5.229 0.994 -5.229 0.091 83.771
5890.25 0.092 83.74 0.994 -5.267 0.994 -5.267 0.092 83.74
5915.208 0.092 83.709 0.994 -5.305 0.994 -5.305 0.092 83.709
5940.167 0.093 83.678 0.994 -5.343 0.994 -5.343 0.093 83.678
5965.125 0.094 83.647 0.994 -5.381 0.994 -5.381 0.094 83.647
5990.083 0.094 83.616 0.994 -5.419 0.994 -5.419 0.094 83.616
6015.042 0.095 83.585 0.994 -5.457 0.994 -5.457 0.095 83.585
6040 0.096 83.554 0.994 -5.494 0.994 -5.494 0.096 83.554
6064.958 0.096 83.523 0.994 -5.532 0.994 -5.532 0.096 83.523
6089.917 0.097 83.492 0.994 -5.569 0.994 -5.569 0.097 83.492
6114.875 0.098 83.461 0.994 -5.607 0.994 -5.607 0.098 83.461
6139.833 0.098 83.43 0.994 -5.644 0.994 -5.644 0.098 83.43
6164.792 0.099 83.398 0.993 -5.682 0.993 -5.682 0.099 83.398
6189.75 0.1 83.367 0.993 -5.719 0.993 -5.719 0.1 83.367
6214.708 0.1 83.336 0.993 -5.756 0.993 -5.756 0.1 83.336
6239.667 0.101 83.305 0.993 -5.793 0.993 -5.793 0.101 83.305
6264.625 0.102 83.273 0.993 -5.83 0.993 -5.83 0.102 83.273
6289.583 0.102 83.242 0.993 -5.867 0.993 -5.867 0.102 83.242
6314.542 0.103 83.211 0.993 -5.904 0.993 -5.904 0.103 83.211
6339.5 0.104 83.179 0.993 -5.941 0.993 -5.941 0.104 83.179
6364.458 0.104 83.148 0.993 -5.978 0.993 -5.978 0.104 83.148
6389.417 0.105 83.117 0.993 -6.015 0.993 -6.015 0.105 83.117
6414.375 0.105 83.085 0.993 -6.051 0.993 -6.051 0.105 83.085
6439.333 0.106 83.054 0.993 -6.088 0.993 -6.088 0.106 83.054
6464.292 0.107 83.022 0.993 -6.125 0.993 -6.125 0.107 83.022
6489.25 0.107 82.991 0.993 -6.161 0.993 -6.161 0.107 82.991
6514.208 0.108 82.959 0.993 -6.198 0.993 -6.198 0.108 82.959
6539.167 0.109 82.928 0.992 -6.234 0.992 -6.234 0.109 82.928
6564.125 0.109 82.896 0.992 -6.271 0.992 -6.271 0.109 82.896
6589.083 0.11 82.865 0.992 -6.307 0.992 -6.307 0.11 82.865
6614.042 0.11 82.833 0.992 -6.343 0.992 -6.343 0.11 82.833
6639 0.111 82.802 0.992 -6.379 0.992 -6.379 0.111 82.802
6663.958 0.112 82.77 0.992 -6.416 0.992 -6.416 0.112 82.77
6688.917 0.112 82.739 0.992 -6.452 0.992 -6.452 0.112 82.739
6713.875 0.113 82.707 0.992 -6.488 0.992 -6.488 0.113 82.707
6738.833 0.114 82.676 0.992 -6.524 0.992 -6.524 0.114 82.676
6763.792 0.114 82.644 0.992 -6.56 0.992 -6.56 0.114 82.644
6788.75 0.115 82.613 0.992 -6.596 0.992 -6.596 0.115 82.613
6813.708 0.115 82.581 0.992 -6.632 0.992 -6.632 0.115 82.581
6838.667 0.116 82.55 0.992 -6.667 0.992 -6.667 0.116 82.55
6863.625 0.117 82.518 0.992 -6.703 0.992 -6.703 0.117 82.518
6888.583 0.117 82.486 0.992 -6.739 0.992 -6.739 0.117 82.486
6913.542 0.118 82.455 0.991 -6.775 0.991 -6.775 0.118 82.455
6938.5 0.119 82.423 0.991 -6.81 0.991 -6.81 0.119 82.423
6963.458 0.119 82.392 0.991 -6.846 0.991 -6.846 0.119 82.392
6988.417 0.12 82.36 0.991 -6.881 0.991 -6.881 0.12 82.36
7013.375 0.12 82.329 0.991 -6.917 0.991 -6.917 0.12 82.329
7038.333 0.121 82.297 0.991 -6.952 0.991 -6.952 0.121 82.297
7063.292 0.122 82.265 0.991 -6.988 0.991 -6.988 0.122 82.265
7088.25 0.122 82.234 0.991 -7.023 0.991 -7.023 0.122 82.234
7113.208 0.123 82.202 0.991 -7.058 0.991 -7.058 0.123 82.202
7138.167 0.124 82.171 0.991 -7.094 0.991 -7.094 0.124 82.171
7163.125 0.124 82.139 0.991 -7.129 0.991 -7.129 0.124 82.139
7188.083 0.125 82.108 0.991 -7.164 0.991 -7.164 0.125 82.108
7213.042 0.125 82.076 0.991 -7.199 0.991 -7.199 0.125 82.076
7238 0.126 82.045 0.99 -7.234 0.99 -7.234 0.126 82.045
7262.958 0.127 82.013 0.99 -7.27 0.99 -7.27 0.127 82.013
7287.917 0.127 81.981 0.99 -7.305 0.99 -7.305 0.127 81.981
7312.875 0.128 81.95 0.99 -7.34 0.99 -7.34 0.128 81.95
7337.833 0.128 81.918 0.99 -7.374 0.99 -7.374 0.128 81.918
7362.792 0.129 81.887 0.99 -7.409 0.99 -7.409 0.129 81.887
7387.75 0.13 81.855 0.99 -7.444 0.99 -7.444 0.13 81.855
7412.708 0.13 81.824 0.99 -7.479 0.99 -7.479 0.13 81.824
7437.667 0.131 81.792 0.99 -7.514 0.99 -7.514 0.131 81.792
7462.625 0.131 81.761 0.99 -7.549 0.99 -7.549 0.131 81.761
7487.583 0.132 81.729 0.99 -7.583 0.99 -7.583 0.132 81.729
7512.542 0.133 81.698 0.99 -7.618 0.99 -7.618 0.133 81.698
7537.5 0.133 81.666 0.99 -7.653 0.99 -7.653 0.133 81.666
7562.458 0.134 81.635 0.989 -7.687 0.989 -7.687 0.134 81.635
7587.417 0.134 81.603 0.989 -7.722 0.989 -7.722 0.134 81.603
7612.375 0.135 81.572 0.989 -7.756 0.989 -7.756 0.135 81.572
7637.333 0.136 81.54 0.989 -7.791 0.989 -7.791 0.136 81.54
7662.292 0.136 81.509 0.989 -7.825 0.989 -7.825 0.136 81.509
7687.25 0.137 81.477 0.989 -7.86 0.989 -7.86 0.137 81.477
7712.208 0.137 81.446 0.989 -7.894 0.989 -7.894 0.137 81.446
7737.167 0.138 81.414 0.989 -7.928 0.989 -7.928 0.138 81.414
7762.125 0.139 81.383 0.989 -7.963 0.989 -7.963 0.139 81.383
7787.083 0.139 81.351 0.989 -7.997 0.989 -7.997 0.139 81.351
7812.042 0.14 81.32 0.989 -8.031 0.989 -8.031 0.14 81.32
7837 0.14 81.289 0.989 -8.066 0.989 -8.066 0.14 81.289
7861.958 0.141 81.257 0.988 -8.1 0.988 -8.1 0.141 81.257
7886.917 0.141 81.226 0.988 -8.134 0.988 -8.134 0.141 81.226
7911.875 0.142 81.194 0.988 -8.168 0.988 -8.168 0.142 81.194
7936.833 0.143 81.163 0.988 -8.202 0.988 -8.202 0.143 81.163
7961.792 0.143 81.132 0.988 -8.236 0.988 -8.236 0.143 81.132
7986.75 0.144 81.1 0.988 -8.27 0.988 -8.27 0.144 81.1
8011.708 0.144 81.069 0.988 -8.304 0.988 -8.304 0.144 81.069
8036.667 0.145 81.037 0.988 -8.338 0.988 -8.338 0.145 81.037
8061.625 0.146 81.006 0.988 -8.372 0.988 -8.372 0.146 81.006
8086.583 0.146 80.975 0.988 -8.406 0.988 -8.406 0.146 80.975
8111.542 0.147 80.943 0.988 -8.44 0.988 -8.44 0.147 80.943
8136.5 0.147 80.912 0.988 -8.473 0.988 -8.473 0.147 80.912
8161.458 0.148 80.881 0.987 -8.507 0.987 -8.507 0.148 80.881
8186.417 0.149 80.849 0.987 -8.541 0.987 -8.541 0.149 80.849
8211.375 0.149 80.818 0.987 -8.575 0.987 -8.575 0.149 80.818
8236.333 0.15 80.787 0.987 -8.608 0.987 -8.608 0.15 80.787
8261.292 0.15 80.756 0.987 -8.642 0.987 -8.642 0.15 80.756
8286.25 0.151 80.724 0.987 -8.676 0.987 -8.676 0.151 80.724
