# MHZ S MA R 50

50 0.893 -26.69 0.449 63.271 0.449 63.271 0.893 -26.69
74.958 0.798 -37.011 0.602 52.931 0.602 52.931 0.798 -37.011
99.917 0.704 -45.147 0.709 44.775 0.709 44.775 0.704 -45.147
124.875 0.621 -51.489 0.782 38.413 0.782 38.413 0.621 -51.489
149.833 0.551 -56.46 0.834 33.423 0.834 33.423 0.551 -56.46
174.792 0.492 -60.406 0.87 29.457 0.87 29.457 0.492 -60.406
199.75 0.442 -63.588 0.896 26.255 0.896 26.255 0.442 -63.588
224.708 0.401 -66.193 0.915 23.63 0.915 23.63 0.401 -66.193
249.667 0.366 -68.357 0.93 21.446 0.93 21.446 0.366 -68.357
274.625 0.336 -70.179 0.941 19.604 0.941 19.604 0.336 -70.179
299.583 0.31 -71.732 0.95 18.031 0.95 18.031 0.31 -71.732
324.542 0.287 -73.069 0.957 16.673 0.957 16.673 0.287 -73.069
349.5 0.267 -74.231 0.962 15.49 0.962 15.49 0.267 -74.231
374.458 0.25 -75.25 0.967 14.45 0.967 14.45 0.25 -75.25
399.417 0.234 -76.15 0.971 13.529 0.971 13.529 0.234 -76.15
424.375 0.22 -76.951 0.974 12.706 0.974 12.706 0.22 -76.951
449.333 0.207 -77.668 0.977 11.968 0.977 11.968 0.207 -77.668
474.292 0.196 -78.313 0.979 11.301 0.979 11.301 0.196 -78.313
499.25 0.186 -78.896 0.981 10.695 0.981 10.695 0.186 -78.896
524.208 0.176 -79.427 0.983 10.141 0.983 10.141 0.176 -79.427
549.167 0.167 -79.91 0.985 9.634 0.985 9.634 0.167 -79.91
574.125 0.159 -80.354 0.986 9.168 0.986 9.168 0.159 -80.354
599.083 0.152 -80.761 0.987 8.736 0.987 8.736 0.152 -80.761
624.042 0.145 -81.136 0.988 8.336 0.988 8.336 0.145 -81.136
649 0.139 -81.483 0.989 7.964 0.989 7.964 0.139 -81.483
673.958 0.133 -81.805 0.99 7.617 0.99 7.617 0.133 -81.805
698.917 0.127 -82.104 0.991 7.292 0.991 7.292 0.127 -82.104
723.875 0.122 -82.383 0.991 6.987 0.991 6.987 0.122 -82.383
748.833 0.117 -82.642 0.992 6.7 0.992 6.7 0.117 -82.642
773.792 0.112 -82.885 0.992 6.43 0.992 6.43 0.112 -82.885
798.75 0.108 -83.112 0.993 6.174 0.993 6.174 0.108 -83.112
823.708 0.103 -83.325 0.993 5.932 0.993 5.932 0.103 -83.325
848.667 0.099 -83.524 0.994 5.702 0.994 5.702 0.099 -83.524
873.625 0.096 -83.712 0.994 5.483 0.994 5.483 0.096 -83.712
898.583 0.092 -83.888 0.994 5.275 0.994 5.275 0.092 -83.888
923.542 0.089 -84.054 0.995 5.077 0.995 5.077 0.089 -84.054
948.5 0.085 -84.209 0.995 4.887 0.995 4.887 0.085 -84.209
973.458 0.082 -84.356 0.995 4.706 0.995 4.706 0.082 -84.356
998.417 0.079 -84.494 0.996 4.532 0.996 4.532 0.079 -84.494
1023.375 0.076 -84.623 0.996 4.365 0.996 4.365 0.076 -84.623
1048.333 0.073 -84.745 0.996 4.204 0.996 4.204 0.073 -84.745
1073.292 0.071 -84.859 0.996 4.05 0.996 4.05 0.071 -84.859
1098.25 0.068 -84.966 0.996 3.901 0.996 3.901 0.068 -84.966
1123.208 0.066 -85.067 0.997 3.757 0.997 3.757 0.066 -85.067
1148.167 0.063 -85.16 0.997 3.619 0.997 3.619 0.063 -85.16
1173.125 0.061 -85.247 0.997 3.485 0.997 3.485 0.061 -85.247
1198.083 0.059 -85.327 0.997 3.355 0.997 3.355 0.059 -85.327
1223.042 0.056 -85.402 0.997 3.23 0.997 3.23 0.056 -85.402
1248 0.054 -85.47 0.997 3.108 0.997 3.108 0.054 -85.47
1272.958 0.052 -85.531 0.997 2.99 0.997 2.99 0.052 -85.531
1297.917 0.05 -85.587 0.997 2.875 0.997 2.875 0.05 -85.587
1322.875 0.048 -85.636 0.997 2.764 0.997 2.764 0.048 -85.636
1347.833 0.046 -85.679 0.998 2.655 0.998 2.655 0.046 -85.679
1372.792 0.045 -85.716 0.998 2.55 0.998 2.55 0.045 -85.716
1397.75 0.043 -85.746 0.998 2.447 0.998 2.447 0.043 -85.746
1422.708 0.041 -85.769 0.998 2.347 0.998 2.347 0.041 -85.769
1447.667 0.039 -85.785 0.998 2.249 0.998 2.249 0.039 -85.785
1472.625 0.038 -85.793 0.998 2.154 0.998 2.154 0.038 -85.793
1497.583 0.036 -85.793 0.998 2.06 0.998 2.06 0.036 -85.793
1522.542 0.034 -85.785 0.998 1.969 0.998 1.969 0.034 -85.785
1547.5 0.033 -85.768 0.998 1.88 0.998 1.88 0.033 -85.768
1572.458 0.031 -85.741 0.998 1.793 0.998 1.793 0.031 -85.741
1597.417 0.03 -85.703 0.998 1.707 0.998 1.707 0.03 -85.703
1622.375 0.028 -85.653 0.998 1.623 0.998 1.623 0.028 -85.653
1647.333 0.027 -85.59 0.998 1.541 0.998 1.541 0.027 -85.59
1672.292 0.026 -85.513 0.998 1.461 0.998 1.461 0.026 -85.513
1697.25 0.024 -85.419 0.998 1.382 0.998 1.382 0.024 -85.419
1722.208 0.023 -85.307 0.998 1.304 0.998 1.304 0.023 -85.307
1747.167 0.021 -85.173 0.998 1.228 0.998 1.228 0.021 -85.173
1772.125 0.02 -85.015 0.998 1.153 0.998 1.153 0.02 -85.015
1797.083 0.019 -84.829 0.998 1.08 0.998 1.08 0.019 -84.829
1822.042 0.018 -84.608 0.998 1.007 0.998 1.007 0.018 -84.608
1847 0.016 -84.347 0.999 0.936 0.999 0.936 0.016 -84.347
1871.958 0.015 -84.038 0.999 0.866 0.999 0.866 0.015 -84.038
1896.917 0.014 -83.668 0.999 0.797 0.999 0.797 0.014 -83.668
1921.875 0.013 -83.224 0.999 0.729 0.999 0.729 0.013 -83.224
1946.833 0.012 -82.685 0.999 0.662 0.999 0.662 0.012 -82.685
1971.792 0.01 -82.023 0.999 0.596 0.999 0.596 0.01 -82.023
1996.75 9.37e-3 -81.196 0.999 0.531 0.999 0.531 9.37e-3 -81.196
2021.708 8.263e-3 -80.142 0.999 0.467 0.999 0.467 8.263e-3 -80.142
2046.667 7.175e-3 -78.765 0.999 0.404 0.999 0.404 7.175e-3 -78.765
2071.625 6.107e-3 -76.905 0.999 0.341 0.999 0.341 6.107e-3 -76.905
2096.583 5.063e-3 -74.275 0.999 0.28 0.999 0.28 5.063e-3 -74.275
2121.542 4.048e-3 -70.324 0.999 0.219 0.999 0.219 4.048e-3 -70.324
2146.5 3.077e-3 -63.855 0.999 0.158 0.999 0.158 3.077e-3 -63.855
2171.458 2.192e-3 -51.941 0.999 0.099 0.999 0.099 2.192e-3 -51.941
2196.417 1.52e-3 -27.478 0.999 0.04 0.999 0.04 1.52e-3 -27.478
2221.375 1.384e-3 12.998 0.999 -0.018 0.999 -0.018 1.384e-3 12.998
2246.333 1.883e-3 44.198 0.999 -0.075 0.999 -0.075 1.883e-3 44.198
2271.292 2.672e-3 59.558 0.999 -0.132 0.999 -0.132 2.672e-3 59.558
2296.25 3.553e-3 67.513 0.999 -0.188 0.999 -0.188 3.553e-3 67.513
2321.208 4.467e-3 72.189 0.999 -0.244 0.999 -0.244 4.467e-3 72.189
2346.167 5.391e-3 75.218 0.999 -0.299 0.999 -0.299 5.391e-3 75.218
2371.125 6.317e-3 77.323 0.999 -0.354 0.999 -0.354 6.317e-3 77.323
2396.083 7.24e-3 78.861 0.999 -0.408 0.999 -0.408 7.24e-3 78.861
2421.042 8.159e-3 80.028 0.999 -0.461 0.999 -0.461 8.159e-3 80.028
2446 9.072e-3 80.94 0.999 -0.514 0.999 -0.514 9.072e-3 80.94
2470.958 9.979e-3 81.669 0.999 -0.567 0.999 -0.567 9.979e-3 81.669
2495.917 0.011 82.263 0.999 -0.619 0.999 -0.619 0.011 82.263
2520.875 0.012 82.754 0.999 -0.67 0.999 -0.67 0.012 82.754
2545.833 0.013 83.165 0.999 -0.721 0.999 -0.721 0.013 83.165
2570.792 0.014 83.513 0.999 -0.772 0.999 -0.772 0.014 83.513
2595.75 0.014 83.81 0.999 -0.822 0.999 -0.822 0.014 83.81
2620.708 0.015 84.066 0.999 -0.872 0.999 -0.872 0.015 84.066
2645.667 0.016 84.287 0.999 -0.921 0.999 -0.921 0.016 84.287
2670.625 0.017 84.479 0.999 -0.971 0.999 -0.971 0.017 84.479
2695.583 0.018 84.647 0.998 -1.019 0.998 -1.019 0.018 84.647
2720.542 0.019 84.794 0.998 -1.068 0.998 -1.068 0.019 84.794
2745.5 0.02 84.924 0.998 -1.116 0.998 -1.116 0.02 84.924
2770.458 0.02 85.038 0.998 -1.163 0.998 -1.163 0.02 85.038
2795.417 0.021 85.139 0.998 -1.211 0.998 -1.211 0.021 85.139
2820.375 0.022 85.228 0.998 -1.258 0.998 -1.258 0.022 85.228
2845.333 0.023 85.307 0.998 -1.304 0.998 -1.304 0.023 85.307
2870.292 0.024 85.376 0.998 -1.351 0.998 -1.351 0.024 85.376
2895.25 0.024 85.438 0.998 -1.397 0.998 -1.397 0.024 85.438
2920.208 0.025 85.493 0.998 -1.442 0.998 -1.442 0.025 85.493
2945.167 0.026 85.541 0.998 -1.488 0.998 -1.488 0.026 85.541
2970.125 0.027 85.583 0.998 -1.533 0.998 -1.533 0.027 85.583
2995.083 0.028 85.62 0.998 -1.578 0.998 -1.578 0.028 85.62
3020.042 0.028 85.652 0.998 -1.623 0.998 -1.623 0.028 85.652
3045 0.029 85.681 0.998 -1.667 0.998 -1.667 0.029 85.681
3069.958 0.03 85.705 0.998 -1.711 0.998 -1.711 0.03 85.705
3094.917 0.031 85.725 0.998 -1.755 0.998 -1.755 0.031 85.725
3119.875 0.031 85.743 0.998 -1.799 0.998 -1.799 0.031 85.743
3144.833 0.032 85.757 0.998 -1.842 0.998 -1.842 0.032 85.757
3169.792 0.033 85.769 0.998 -1.885 0.998 -1.885 0.033 85.769
3194.75 0.034 85.778 0.998 -1.928 0.998 -1.928 0.034 85.778
3219.708 0.034 85.785 0.998 -1.971 0.998 -1.971 0.034 85.785
3244.667 0.035 85.79 0.998 -2.014 0.998 -2.014 0.035 85.79
3269.625 0.036 85.793 0.998 -2.056 0.998 -2.056 0.036 85.793
3294.583 0.037 85.794 0.998 -2.098 0.998 -2.098 0.037 85.794
3319.542 0.037 85.794 0.998 -2.14 0.998 -2.14 0.037 85.794
3344.5 0.038 85.791 0.998 -2.182 0.998 -2.182 0.038 85.791
3369.458 0.039 85.788 0.998 -2.223 0.998 -2.223 0.039 85.788
3394.417 0.04 85.783 0.998 -2.265 0.998 -2.265 0.04 85.783
3419.375 0.04 85.776 0.998 -2.306 0.998 -2.306 0.04 85.776
3444.333 0.041 85.769 0.998 -2.347 0.998 -2.347 0.041 85.769
3469.292 0.042 85.76 0.998 -2.388 0.998 -2.388 0.042 85.76
3494.25 0.042 85.751 0.998 -2.428 0.998 -2.428 0.042 85.751
3519.208 0.043 85.74 0.998 -2.469 0.998 -2.469 0.043 85.74
3544.167 0.044 85.729 0.998 -2.509 0.998 -2.509 0.044 85.729
3569.125 0.044 85.716 0.998 -2.549 0.998 -2.549 0.044 85.716
3594.083 0.045 85.703 0.998 -2.589 0.998 -2.589 0.045 85.703
3619.042 0.046 85.689 0.998 -2.629 0.998 -2.629 0.046 85.689
3644 0.047 85.674 0.998 -2.669 0.998 -2.669 0.047 85.674
3668.958 0.047 85.659 0.998 -2.708 0.998 -2.708 0.047 85.659
3693.917 0.048 85.643 0.998 -2.747 0.998 -2.747 0.048 85.643
3718.875 0.049 85.627 0.997 -2.787 0.997 -2.787 0.049 85.627
3743.833 0.049 85.61 0.997 -2.826 0.997 -2.826 0.049 85.61
3768.792 0.05 85.592 0.997 -2.865 0.997 -2.865 0.05 85.592
3793.75 0.051 85.574 0.997 -2.904 0.997 -2.904 0.051 85.574
3818.708 0.051 85.555 0.997 -2.942 0.997 -2.942 0.051 85.555
3843.667 0.052 85.536 0.997 -2.981 0.997 -2.981 0.052 85.536
3868.625 0.053 85.516 0.997 -3.019 0.997 -3.019 0.053 85.516
3893.583 0.053 85.496 0.997 -3.058 0.997 -3.058 0.053 85.496
3918.542 0.054 85.476 0.997 -3.096 0.997 -3.096 0.054 85.476
3943.5 0.055 85.455 0.997 -3.134 0.997 -3.134 0.055 85.455
3968.458 0.055 85.434 0.997 -3.172 0.997 -3.172 0.055 85.434
3993.417 0.056 85.413 0.997 -3.21 0.997 -3.21 0.056 85.413
4018.375 0.057 85.391 0.997 -3.247 0.997 -3.247 0.057 85.391
4043.333 0.057 85.369 0.997 -3.285 0.997 -3.285 0.057 85.369
4068.292 0.058 85.347 0.997 -3.322 0.997 -3.322 0.058 85.347
4093.25 0.059 85.325 0.997 -3.36 0.997 -3.36 0.059 85.325
4118.208 0.059 85.302 0.997 -3.397 0.997 -3.397 0.059 85.302
4143.167 0.06 85.279 0.997 -3.434 0.997 -3.434 0.06 85.279
4168.125 0.061 85.255 0.997 -3.471 0.997 -3.471 0.061 85.255
4193.083 0.061 85.232 0.997 -3.508 0.997 -3.508 0.061 85.232
4218.042 0.062 85.208 0.997 -3.545 0.997 -3.545 0.062 85.208
4243 0.062 85.184 0.997 -3.582 0.997 -3.582 0.062 85.184
4267.958 0.063 85.16 0.997 -3.619 0.997 -3.619 0.063 85.16
4292.917 0.064 85.136 0.997 -3.655 0.997 -3.655 0.064 85.136
4317.875 0.064 85.111 0.997 -3.692 0.997 -3.692 0.064 85.111
4342.833 0.065 85.086 0.997 -3.728 0.997 -3.728 0.065 85.086
4367.792 0.066 85.062 0.996 -3.765 0.996 -3.765 0.066 85.062
4392.75 0.066 85.037 0.996 -3.801 0.996 -3.801 0.066 85.037
4417.708 0.067 85.011 0.996 -3.837 0.996 -3.837 0.067 85.011
4442.667 0.068 84.986 0.996 -3.873 0.996 -3.873 0.068 84.986
4467.625 0.068 84.961 0.996 -3.909 0.996 -3.909 0.068 84.961
4492.583 0.069 84.935 0.996 -3.945 0.996 -3.945 0.069 84.935
4517.542 0.069 84.909 0.996 -3.981 0.996 -3.981 0.069 84.909
4542.5 0.07 84.883 0.996 -4.016 0.996 -4.016 0.07 84.883
4567.458 0.071 84.858 0.996 -4.052 0.996 -4.052 0.071 84.858
4592.417 0.071 84.831 0.996 -4.088 0.996 -4.088 0.071 84.831
4617.375 0.072 84.805 0.996 -4.123 0.996 -4.123 0.072 84.805
4642.333 0.073 84.779 0.996 -4.159 0.996 -4.159 0.073 84.779
4667.292 0.073 84.753 0.996 -4.194 0.996 -4.194 0.073 84.753
4692.25 0.074 84.726 0.996 -4.229 0.996 -4.229 0.074 84.726
4717.208 0.074 84.7 0.996 -4.264 0.996 -4.264 0.074 84.7
4742.167 0.075 84.673 0.996 -4.3 0.996 -4.3 0.075 84.673
4767.125 0.076 84.646 0.996 -4.335 0.996 -4.335 0.076 84.646
4792.083 0.076 84.619 0.996 -4.37 0.996 -4.37 0.076 84.619
4817.042 0.077 84.593 0.996 -4.405 0.996 -4.405 0.077 84.593
4842 0.077 84.566 0.996 -4.439 0.996 -4.439 0.077 84.566
4866.958 0.078 84.539 0.996 -4.474 0.996 -4.474 0.078 84.539
4891.917 0.079 84.511 0.996 -4.509 0.996 -4.509 0.079 84.511
4916.875 0.079 84.484 0.996 -4.544 0.996 -4.544 0.079 84.484
4941.833 0.08 84.457 0.995 -4.578 0.995 -4.578 0.08 84.457
4966.792 0.08 84.43 0.995 -4.613 0.995 -4.613 0.08 84.43
4991.75 0.081 84.402 0.995 -4.647 0.995 -4.647 0.081 84.402
5016.708 0.082 84.375 0.995 -4.682 0.995 -4.682 0.082 84.375
5041.667 0.082 84.348 0.995 -4.716 0.995 -4.716 0.082 84.348
5066.625 0.083 84.32 0.995 -4.75 0.995 -4.75 0.083 84.32
5091.583 0.083 84.292 0.995 -4.785 0.995 -4.785 0.083 84.292
5116.542 0.084 84.265 0.995 -4.819 0.995 -4.819 0.084 84.265
5141.5 0.085 84.237 0.995 -4.853 0.995 -4.853 0.085 84.237
5166.458 0.085 84.209 0.995 -4.887 0.995 -4.887 0.085 84.209
5191.417 0.086 84.182 0.995 -4.921 0.995 -4.921 0.086 84.182
5216.375 0.086 84.154 0.995 -4.955 0.995 -4.955 0.086 84.154
5241.333 0.087 84.126 0.995 -4.989 0.995 -4.989 0.087 84.126
5266.292 0.088 84.098 0.995 -5.023 0.995 -5.023 0.088 84.098
5291.25 0.088 84.07 0.995 -5.057 0.995 -5.057 0.088 84.07
5316.208 0.089 84.042 0.995 -5.091 0.995 -5.091 0.089 84.042
5341.167 0.089 84.014 0.995 -5.124 0.995 -5.124 0.089 84.014
5366.125 0.09 83.986 0.995 -5.158 0.995 -5.158 0.09 83.986
5391.083 0.09 83.958 0.995 -5.192 0.995 -5.192 0.09 83.958
5416.042 0.091 83.93 0.995 -5.225 0.995 -5.225 0.091 83.93
5441 0.092 83.902 0.994 -5.259 0.994 -5.259 0.092 83.902
5465.958 0.092 83.874 0.994 -5.292 0.994 -5.292 0.092 83.874
5490.917 0.093 83.846 0.994 -5.326 0.994 -5.326 0.093 83.846
5515.875 0.093 83.818 0.994 -5.359 0.994 -5.359 0.093 83.818
5540.833 0.094 83.789 0.994 -5.392 0.994 -5.392 0.094 83.789
5565.792 0.095 83.761 0.994 -5.426 0.994 -5.426 0.095 83.761
5590.75 0.095 83.733 0.994 -5.459 0.994 -5.459 0.095 83.733
5615.708 0.096 83.704 0.994 -5.492 0.994 -5.492 0.096 83.704
5640.667 0.096 83.676 0.994 -5.525 0.994 -5.525 0.096 83.676
5665.625 0.097 83.648 0.994 -5.558 0.994 -5.558 0.097 83.648
5690.583 0.097 83.619 0.994 -5.591 0.994 -5.591 0.097 83.619
5715.542 0.098 83.591 0.994 -5.624 0.994 -5.624 0.098 83.591
5740.5 0.099 83.563 0.994 -5.657 0.994 -5.657 0.099 83.563
5765.458 0.099 83.534 0.994 -5.69 0.994 -5.69 0.099 83.534
5790.417 0.1 83.506 0.994 -5.723 0.994 -5.723 0.1 83.506
5815.375 0.1 83.477 0.994 -5.756 0.994 -5.756 0.1 83.477
5840.333 0.101 83.449 0.994 -5.789 0.994 -5.789 0.101 83.449
5865.292 0.101 83.421 0.994 -5.822 0.994 -5.822 0.101 83.421
5890.25 0.102 83.392 0.993 -5.855 0.993 -5.855 0.102 83.392
5915.208 0.103 83.364 0.993 -5.887 0.993 -5.887 0.103 83.364
5940.167 0.103 83.335 0.993 -5.92 0.993 -5.92 0.103 83.335
5965.125 0.104 83.306 0.993 -5.953 0.993 -5.953 0.104 83.306
5990.083 0.104 83.278 0.993 -5.985 0.993 -5.985 0.104 83.278
6015.042 0.105 83.249 0.993 -6.018 0.993 -6.018 0.105 83.249
6040 0.105 83.221 0.993 -6.05 0.993 -6.05 0.105 83.221
6064.958 0.106 83.192 0.993 -6.083 0.993 -6.083 0.106 83.192
6089.917 0.107 83.164 0.993 -6.115 0.993 -6.115 0.107 83.164
6114.875 0.107 83.135 0.993 -6.148 0.993 -6.148 0.107 83.135
6139.833 0.108 83.106 0.993 -6.18 0.993 -6.18 0.108 83.106
6164.792 0.108 83.078 0.993 -6.213 0.993 -6.213 0.108 83.078
6189.75 0.109 83.049 0.993 -6.245 0.993 -6.245 0.109 83.049
6214.708 0.109 83.021 0.993 -6.277 0.993 -6.277 0.109 83.021
6239.667 0.11 82.992 0.993 -6.309 0.993 -6.309 0.11 82.992
6264.625 0.11 82.963 0.993 -6.342 0.993 -6.342 0.11 82.963
6289.583 0.111 82.935 0.992 -6.374 0.992 -6.374 0.111 82.935
6314.542 0.112 82.906 0.992 -6.406 0.992 -6.406 0.112 82.906
6339.5 0.112 82.877 0.992 -6.438 0.992 -6.438 0.112 82.877
6364.458 0.113 82.849 0.992 -6.47 0.992 -6.47 0.113 82.849
6389.417 0.113 82.82 0.992 -6.502 0.992 -6.502 0.113 82.82
6414.375 0.114 82.791 0.992 -6.534 0.992 -6.534 0.114 82.791
6439.333 0.114 82.763 0.992 -6.566 0.992 -6.566 0.114 82.763
6464.292 0.115 82.734 0.992 -6.598 0.992 -6.598 0.115 82.734
6489.25 0.115 82.705 0.992 -6.63 0.992 -6.63 0.115 82.705
6514.208 0.116 82.676 0.992 -6.662 0.992 -6.662 0.116 82.676
6539.167 0.117 82.648 0.992 -6.694 0.992 -6.694 0.117 82.648
6564.125 0.117 82.619 0.992 -6.726 0.992 -6.726 0.117 82.619
6589.083 0.118 82.59 0.992 -6.758 0.992 -6.758 0.118 82.59
6614.042 0.118 82.562 0.992 -6.79 0.992 -6.79 0.118 82.562
6639 0.119 82.533 0.992 -6.821 0.992 -6.821 0.119 82.533
6663.958 0.119 82.504 0.992 -6.853 0.992 -6.853 0.119 82.504
6688.917 0.12 82.475 0.991 -6.885 0.991 -6.885 0.12 82.475
6713.875 0.12 82.447 0.991 -6.916 0.991 -6.916 0.12 82.447
6738.833 0.121 82.418 0.991 -6.948 0.991 -6.948 0.121 82.418
6763.792 0.122 82.389 0.991 -6.98 0.991 -6.98 0.122 82.389
6788.75 0.122 82.361 0.991 -7.011 0.991 -7.011 0.122 82.361
6813.708 0.123 82.332 0.991 -7.043 0.991 -7.043 0.123 82.332
6838.667 0.123 82.303 0.991 -7.074 0.991 -7.074 0.123 82.303
6863.625 0.124 82.274 0.991 -7.106 0.991 -7.106 0.124 82.274
6888.583 0.124 82.246 0.991 -7.138 0.991 -7.138 0.124 82.246
6913.542 0.125 82.217 0.991 -7.169 0.991 -7.169 0.125 82.217
6938.5 0.125 82.188 0.991 -7.2 0.991 -7.2 0.125 82.188
6963.458 0.126 82.159 0.991 -7.232 0.991 -7.232 0.126 82.159
6988.417 0.126 82.131 0.991 -7.263 0.991 -7.263 0.126 82.131
7013.375 0.127 82.102 0.991 -7.295 0.991 -7.295 0.127 82.102
7038.333 0.128 82.073 0.99 -7.326 0.99 -7.326 0.128 82.073
7063.292 0.128 82.044 0.99 -7.357 0.99 -7.357 0.128 82.044
7088.25 0.129 82.016 0.99 -7.389 0.99 -7.389 0.129 82.016
7113.208 0.129 81.987 0.99 -7.42 0.99 -7.42 0.129 81.987
7138.167 0.13 81.958 0.99 -7.451 0.99 -7.451 0.13 81.958
7163.125 0.13 81.929 0.99 -7.482 0.99 -7.482 0.13 81.929
7188.083 0.131 81.901 0.99 -7.514 0.99 -7.514 0.131 81.901
7213.042 0.131 81.872 0.99 -7.545 0.99 -7.545 0.131 81.872
7238 0.132 81.843 0.99 -7.576 0.99 -7.576 0.132 81.843
7262.958 0.132 81.815 0.99 -7.607 0.99 -7.607 0.132 81.815
7287.917 0.133 81.786 0.99 -7.638 0.99 -7.638 0.133 81.786
7312.875 0.133 81.757 0.99 -7.669 0.99 -7.669 0.133 81.757
7337.833 0.134 81.728 0.99 -7.7 0.99 -7.7 0.134 81.728
7362.792 0.135 81.7 0.99 -7.731 0.99 -7.731 0.135 81.7
7387.75 0.135 81.671 0.99 -7.762 0.99 -7.762 0.135 81.671
7412.708 0.136 81.642 0.989 -7.793 0.989 -7.793 0.136 81.642
7437.667 0.136 81.613 0.989 -7.824 0.989 -7.824 0.136 81.613
7462.625 0.137 81.585 0.989 -7.855 0.989 -7.855 0.137 81.585
7487.583 0.137 81.556 0.989 -7.886 0.989 -7.886 0.137 81.556
7512.542 0.138 81.527 0.989 -7.917 0.989 -7.917 0.138 81.527
7537.5 0.138 81.499 0.989 -7.948 0.989 -7.948 0.138 81.499
7562.458 0.139 81.47 0.989 -7.979 0.989 -7.979 0.139 81.47
7587.417 0.139 81.441 0.989 -8.01 0.989 -8.01 0.139 81.441
7612.375 0.14 81.412 0.989 -8.041 0.989 -8.041 0.14 81.412
7637.333 0.14 81.384 0.989 -8.072 0.989 -8.072 0.14 81.384
7662.292 0.141 81.355 0.989 -8.102 0.989 -8.102 0.141 81.355
7687.25 0.141 81.326 0.989 -8.133 0.989 -8.133 0.141 81.326
7712.208 0.142 81.298 0.989 -8.164 0.989 -8.164 0.142 81.298
7737.167 0.143 81.269 0.988 -8.195 0.988 -8.195 0.143 81.269
7762.125 0.143 81.24 0.988 -8.225 0.988 -8.225 0.143 81.24
7787.083 0.144 81.212 0.988 -8.256 0.988 -8.256 0.144 81.212
7812.042 0.144 81.183 0.988 -8.287 0.988 -8.287 0.144 81.183
7837 0.145 81.154 0.988 -8.317 0.988 -8.317 0.145 81.154
7861.958 0.145 81.126 0.988 -8.348 0.988 -8.348 0.145 81.126
7886.917 0.146 81.097 0.988 -8.379 0.988 -8.379 0.146 81.097
7911.875 0.146 81.068 0.988 -8.409 0.988 -8.409 0.146 81.068
7936.833 0.147 81.04 0.988 -8.44 0.988 -8.44 0.147 81.04
7961.792 0.147 81.011 0.988 -8.47 0.988 -8.47 0.147 81.011
7986.75 0.148 80.982 0.988 -8.501 0.988 -8.501 0.148 80.982
8011.708 0.148 80.954 0.988 -8.531 0.988 -8.531 0.148 80.954
8036.667 0.149 80.925 0.988 -8.562 0.988 -8.562 0.149 80.925
8061.625 0.149 80.896 0.987 -8.592 0.987 -8.592 0.149 80.896
8086.583 0.15 80.868 0.987 -8.623 0.987 -8.623 0.15 80.868
8111.542 0.15 80.839 0.987 -8.653 0.987 -8.653 0.15 80.839
8136.5 0.151 80.81 0.987 -8.684 0.987 -8.684 0.151 80.81
8161.458 0.152 80.782 0.987 -8.714 0.987 -8.714 0.152 80.782
8186.417 0.152 80.753 0.987 -8.745 0.987 -8.745 0.152 80.753
8211.375 0.153 80.725 0.987 -8.775 0.987 -8.775 0.153 80.725
8236.333 0.153 80.696 0.987 -8.805 0.987 -8.805 0.153 80.696
8261.292 0.154 80.667 0.987 -8.836 0.987 -8.836 0.154 80.667
8286.25 0.154 80.639 0.987 -8.866 0.987 -8.866 0.154 80.639
