# MHZ S MA R 50

50 0.999 -2.429 0.042 87.562 0.042 87.562 0.999 -2.429
74.958 0.998 -3.638 0.063 86.347 0.063 86.347 0.998 -3.638
99.917 0.996 -4.845 0.084 85.135 0.084 85.135 0.996 -4.845
124.875 0.994 -6.048 0.105 83.928 0.105 83.928 0.994 -6.048
149.833 0.992 -7.246 0.126 82.725 0.126 82.725 0.992 -7.246
174.792 0.989 -8.437 0.147 81.528 0.147 81.528 0.989 -8.437
199.75 0.986 -9.622 0.167 80.338 0.167 80.338 0.986 -9.622
224.708 0.982 -10.8 0.187 79.156 0.187 79.156 0.982 -10.8
249.667 0.978 -11.968 0.207 77.983 0.207 77.983 0.978 -11.968
274.625 0.974 -13.128 0.227 76.818 0.227 76.818 0.974 -13.128
299.583 0.969 -14.277 0.247 75.664 0.247 75.664 0.969 -14.277
324.542 0.964 -15.416 0.266 74.521 0.266 74.521 0.964 -15.416
349.5 0.958 -16.543 0.285 73.389 0.285 73.389 0.958 -16.543
374.458 0.952 -17.658 0.303 72.269 0.303 72.269 0.952 -17.658
399.417 0.946 -18.76 0.322 71.162 0.322 71.162 0.946 -18.76
424.375 0.94 -19.849 0.34 70.068 0.34 70.068 0.94 -19.849
449.333 0.934 -20.924 0.357 68.988 0.357 68.988 0.934 -20.924
474.292 0.927 -21.985 0.374 67.921 0.374 67.921 0.927 -21.985
499.25 0.92 -23.032 0.391 66.87 0.391 66.87 0.92 -23.032
524.208 0.912 -24.064 0.408 65.833 0.408 65.833 0.912 -24.064
549.167 0.905 -25.081 0.424 64.811 0.424 64.811 0.905 -25.081
574.125 0.897 -26.083 0.44 63.805 0.44 63.805 0.897 -26.083
599.083 0.89 -27.069 0.455 62.814 0.455 62.814 0.89 -27.069
624.042 0.882 -28.039 0.47 61.838 0.47 61.838 0.882 -28.039
649 0.874 -28.993 0.485 60.879 0.485 60.879 0.874 -28.993
673.958 0.865 -29.932 0.499 59.935 0.499 59.935 0.865 -29.932
698.917 0.857 -30.855 0.513 59.008 0.513 59.008 0.857 -30.855
723.875 0.849 -31.761 0.526 58.096 0.526 58.096 0.849 -31.761
748.833 0.841 -32.652 0.54 57.2 0.54 57.2 0.841 -32.652
773.792 0.832 -33.527 0.552 56.32 0.552 56.32 0.832 -33.527
798.75 0.824 -34.386 0.565 55.456 0.565 55.456 0.824 -34.386
823.708 0.815 -35.229 0.577 54.608 0.577 54.608 0.815 -35.229
848.667 0.807 -36.057 0.589 53.775 0.589 53.775 0.807 -36.057
873.625 0.798 -36.869 0.6 52.957 0.6 52.957 0.798 -36.869
898.583 0.79 -37.666 0.611 52.155 0.611 52.155 0.79 -37.666
923.542 0.781 -38.448 0.622 51.368 0.622 51.368 0.781 -38.448
948.5 0.773 -39.215 0.632 50.596 0.632 50.596 0.773 -39.215
973.458 0.764 -39.967 0.642 49.839 0.642 49.839 0.764 -39.967
998.417 0.756 -40.705 0.652 49.096 0.652 49.096 0.756 -40.705
1023.375 0.747 -41.428 0.662 48.368 0.662 48.368 0.747 -41.428
1048.333 0.739 -42.138 0.671 47.653 0.671 47.653 0.739 -42.138
1073.292 0.731 -42.833 0.68 46.953 0.68 46.953 0.731 -42.833
1098.25 0.723 -43.515 0.689 46.266 0.689 46.266 0.723 -43.515
1123.208 0.714 -44.183 0.697 45.592 0.697 45.592 0.714 -44.183
1148.167 0.706 -44.838 0.705 44.932 0.705 44.932 0.706 -44.838
1173.125 0.698 -45.481 0.713 44.284 0.713 44.284 0.698 -45.481
1198.083 0.69 -46.11 0.721 43.649 0.721 43.649 0.69 -46.11
1223.042 0.682 -46.728 0.728 43.026 0.728 43.026 0.682 -46.728
1248 0.675 -47.333 0.735 42.416 0.735 42.416 0.675 -47.333
1272.958 0.667 -47.927 0.742 41.817 0.742 41.817 0.667 -47.927
1297.917 0.659 -48.508 0.749 41.23 0.749 41.23 0.659 -48.508
1322.875 0.651 -49.079 0.756 40.654 0.756 40.654 0.651 -49.079
1347.833 0.644 -49.638 0.762 40.089 0.762 40.089 0.644 -49.638
1372.792 0.637 -50.187 0.768 39.535 0.768 39.535 0.637 -50.187
1397.75 0.629 -50.724 0.774 38.992 0.774 38.992 0.629 -50.724
1422.708 0.622 -51.252 0.78 38.459 0.78 38.459 0.622 -51.252
1447.667 0.615 -51.769 0.786 37.937 0.786 37.937 0.615 -51.769
1472.625 0.608 -52.277 0.791 37.424 0.791 37.424 0.608 -52.277
1497.583 0.601 -52.774 0.796 36.92 0.796 36.92 0.601 -52.774
1522.542 0.594 -53.262 0.801 36.427 0.801 36.427 0.594 -53.262
1547.5 0.587 -53.742 0.806 35.942 0.806 35.942 0.587 -53.742
1572.458 0.58 -54.212 0.811 35.466 0.811 35.466 0.58 -54.212
1597.417 0.574 -54.673 0.816 35 0.816 35 0.574 -54.673
1622.375 0.567 -55.125 0.82 34.541 0.82 34.541 0.567 -55.125
1647.333 0.561 -55.57 0.825 34.091 0.825 34.091 0.561 -55.57
1672.292 0.554 -56.006 0.829 33.65 0.829 33.65 0.554 -56.006
1697.25 0.548 -56.434 0.833 33.216 0.833 33.216 0.548 -56.434
1722.208 0.542 -56.854 0.837 32.79 0.837 32.79 0.542 -56.854
1747.167 0.535 -57.266 0.841 32.372 0.841 32.372 0.535 -57.266
1772.125 0.529 -57.672 0.845 31.961 0.845 31.961 0.529 -57.672
1797.083 0.523 -58.069 0.849 31.557 0.849 31.557 0.523 -58.069
1822.042 0.517 -58.46 0.852 31.16 0.852 31.16 0.517 -58.46
1847 0.512 -58.844 0.856 30.77 0.856 30.77 0.512 -58.844
1871.958 0.506 -59.221 0.859 30.387 0.859 30.387 0.506 -59.221
1896.917 0.5 -59.592 0.862 30.011 0.862 30.011 0.5 -59.592
1921.875 0.495 -59.956 0.866 29.641 0.866 29.641 0.495 -59.956
1946.833 0.489 -60.314 0.869 29.277 0.869 29.277 0.489 -60.314
1971.792 0.484 -60.666 0.872 28.919 0.872 28.919 0.484 -60.666
1996.75 0.478 -61.011 0.875 28.567 0.875 28.567 0.478 -61.011
2021.708 0.473 -61.351 0.878 28.221 0.878 28.221 0.473 -61.351
2046.667 0.468 -61.686 0.88 27.881 0.88 27.881 0.468 -61.686
2071.625 0.462 -62.014 0.883 27.546 0.883 27.546 0.462 -62.014
2096.583 0.457 -62.337 0.886 27.216 0.886 27.216 0.457 -62.337
2121.542 0.452 -62.655 0.888 26.892 0.888 26.892 0.452 -62.655
2146.5 0.447 -62.968 0.891 26.573 0.891 26.573 0.447 -62.968
2171.458 0.442 -63.276 0.893 26.259 0.893 26.259 0.442 -63.276
2196.417 0.438 -63.578 0.896 25.95 0.896 25.95 0.438 -63.578
2221.375 0.433 -63.876 0.898 25.646 0.898 25.646 0.433 -63.876
2246.333 0.428 -64.169 0.9 25.346 0.9 25.346 0.428 -64.169
2271.292 0.423 -64.458 0.902 25.051 0.902 25.051 0.423 -64.458
2296.25 0.419 -64.742 0.904 24.761 0.904 24.761 0.419 -64.742
2321.208 0.414 -65.021 0.906 24.475 0.906 24.475 0.414 -65.021
2346.167 0.41 -65.297 0.909 24.193 0.909 24.193 0.41 -65.297
2371.125 0.405 -65.568 0.91 23.915 0.91 23.915 0.405 -65.568
2396.083 0.401 -65.834 0.912 23.641 0.912 23.641 0.401 -65.834
2421.042 0.397 -66.097 0.914 23.372 0.914 23.372 0.397 -66.097
2446 0.392 -66.356 0.916 23.106 0.916 23.106 0.392 -66.356
2470.958 0.388 -66.611 0.918 22.844 0.918 22.844 0.388 -66.611
2495.917 0.384 -66.863 0.92 22.586 0.92 22.586 0.384 -66.863
2520.875 0.38 -67.11 0.921 22.331 0.921 22.331 0.38 -67.11
2545.833 0.376 -67.354 0.923 22.08 0.923 22.08 0.376 -67.354
2570.792 0.372 -67.595 0.925 21.833 0.925 21.833 0.372 -67.595
2595.75 0.368 -67.832 0.926 21.589 0.926 21.589 0.368 -67.832
2620.708 0.364 -68.065 0.928 21.348 0.928 21.348 0.364 -68.065
2645.667 0.36 -68.295 0.929 21.11 0.929 21.11 0.36 -68.295
2670.625 0.356 -68.523 0.931 20.876 0.931 20.876 0.356 -68.523
2695.583 0.353 -68.746 0.932 20.645 0.932 20.645 0.353 -68.746
2720.542 0.349 -68.967 0.933 20.416 0.933 20.416 0.349 -68.967
2745.5 0.345 -69.185 0.935 20.191 0.935 20.191 0.345 -69.185
2770.458 0.342 -69.4 0.936 19.969 0.936 19.969 0.342 -69.4
2795.417 0.338 -69.611 0.937 19.75 0.937 19.75 0.338 -69.611
2820.375 0.334 -69.82 0.939 19.533 0.939 19.533 0.334 -69.82
2845.333 0.331 -70.026 0.94 19.319 0.94 19.319 0.331 -70.026
2870.292 0.327 -70.23 0.941 19.108 0.941 19.108 0.327 -70.23
2895.25 0.324 -70.43 0.942 18.899 0.942 18.899 0.324 -70.43
2920.208 0.321 -70.628 0.943 18.694 0.943 18.694 0.321 -70.628
2945.167 0.317 -70.824 0.945 18.49 0.945 18.49 0.317 -70.824
2970.125 0.314 -71.017 0.946 18.289 0.946 18.289 0.314 -71.017
2995.083 0.311 -71.207 0.947 18.091 0.947 18.091 0.311 -71.207
3020.042 0.307 -71.395 0.948 17.894 0.948 17.894 0.307 -71.395
3045 0.304 -71.581 0.949 17.701 0.949 17.701 0.304 -71.581
3069.958 0.301 -71.764 0.95 17.509 0.95 17.509 0.301 -71.764
3094.917 0.298 -71.945 0.951 17.32 0.951 17.32 0.298 -71.945
3119.875 0.295 -72.123 0.952 17.133 0.952 17.133 0.295 -72.123
3144.833 0.292 -72.299 0.953 16.948 0.953 16.948 0.292 -72.299
3169.792 0.288 -72.474 0.954 16.765 0.954 16.765 0.288 -72.474
3194.75 0.285 -72.646 0.955 16.584 0.955 16.584 0.285 -72.646
3219.708 0.282 -72.816 0.955 16.405 0.955 16.405 0.282 -72.816
3244.667 0.279 -72.983 0.956 16.228 0.956 16.228 0.279 -72.983
3269.625 0.277 -73.149 0.957 16.054 0.957 16.054 0.277 -73.149
3294.583 0.274 -73.313 0.958 15.881 0.958 15.881 0.274 -73.313
3319.542 0.271 -73.475 0.959 15.71 0.959 15.71 0.271 -73.475
3344.5 0.268 -73.635 0.96 15.54 0.96 15.54 0.268 -73.635
3369.458 0.265 -73.793 0.96 15.373 0.96 15.373 0.265 -73.793
3394.417 0.262 -73.949 0.961 15.207 0.961 15.207 0.262 -73.949
3419.375 0.26 -74.103 0.962 15.043 0.962 15.043 0.26 -74.103
3444.333 0.257 -74.255 0.963 14.881 0.963 14.881 0.257 -74.255
3469.292 0.254 -74.406 0.963 14.721 0.963 14.721 0.254 -74.406
3494.25 0.251 -74.555 0.964 14.562 0.964 14.562 0.251 -74.555
3519.208 0.249 -74.702 0.965 14.405 0.965 14.405 0.249 -74.702
3544.167 0.246 -74.848 0.965 14.249 0.965 14.249 0.246 -74.848
3569.125 0.244 -74.992 0.966 14.095 0.966 14.095 0.244 -74.992
3594.083 0.241 -75.134 0.967 13.942 0.967 13.942 0.241 -75.134
3619.042 0.238 -75.274 0.967 13.791 0.967 13.791 0.238 -75.274
3644 0.236 -75.413 0.968 13.641 0.968 13.641 0.236 -75.413
3668.958 0.233 -75.551 0.969 13.493 0.969 13.493 0.233 -75.551
3693.917 0.231 -75.687 0.969 13.346 0.969 13.346 0.231 -75.687
3718.875 0.228 -75.821 0.97 13.201 0.97 13.201 0.228 -75.821
3743.833 0.226 -75.954 0.97 13.057 0.97 13.057 0.226 -75.954
3768.792 0.224 -76.085 0.971 12.915 0.971 12.915 0.224 -76.085
3793.75 0.221 -76.215 0.971 12.773 0.971 12.773 0.221 -76.215
3818.708 0.219 -76.343 0.972 12.633 0.972 12.633 0.219 -76.343
3843.667 0.216 -76.47 0.972 12.494 0.972 12.494 0.216 -76.47
3868.625 0.214 -76.596 0.973 12.357 0.973 12.357 0.214 -76.596
3893.583 0.212 -76.72 0.973 12.221 0.973 12.221 0.212 -76.72
3918.542 0.209 -76.843 0.974 12.086 0.974 12.086 0.209 -76.843
3943.5 0.207 -76.964 0.974 11.952 0.974 11.952 0.207 -76.964
3968.458 0.205 -77.084 0.975 11.819 0.975 11.819 0.205 -77.084
3993.417 0.203 -77.203 0.975 11.688 0.975 11.688 0.203 -77.203
4018.375 0.2 -77.321 0.976 11.558 0.976 11.558 0.2 -77.321
4043.333 0.198 -77.437 0.976 11.428 0.976 11.428 0.198 -77.437
4068.292 0.196 -77.552 0.977 11.3 0.977 11.3 0.196 -77.552
4093.25 0.194 -77.665 0.977 11.173 0.977 11.173 0.194 -77.665
4118.208 0.192 -77.778 0.978 11.047 0.978 11.047 0.192 -77.778
4143.167 0.19 -77.889 0.978 10.922 0.978 10.922 0.19 -77.889
4168.125 0.187 -77.999 0.978 10.798 0.978 10.798 0.187 -77.999
4193.083 0.185 -78.108 0.979 10.676 0.979 10.676 0.185 -78.108
4218.042 0.183 -78.215 0.979 10.554 0.979 10.554 0.183 -78.215
4243 0.181 -78.321 0.98 10.433 0.98 10.433 0.181 -78.321
4267.958 0.179 -78.427 0.98 10.313 0.98 10.313 0.179 -78.427
4292.917 0.177 -78.53 0.98 10.194 0.98 10.194 0.177 -78.53
4317.875 0.175 -78.633 0.981 10.076 0.981 10.076 0.175 -78.633
4342.833 0.173 -78.735 0.981 9.959 0.981 9.959 0.173 -78.735
4367.792 0.171 -78.835 0.981 9.843 0.981 9.843 0.171 -78.835
4392.75 0.169 -78.935 0.982 9.727 0.982 9.727 0.169 -78.935
4417.708 0.167 -79.033 0.982 9.613 0.982 9.613 0.167 -79.033
4442.667 0.165 -79.13 0.982 9.499 0.982 9.499 0.165 -79.13
4467.625 0.163 -79.226 0.983 9.387 0.983 9.387 0.163 -79.226
4492.583 0.161 -79.321 0.983 9.275 0.983 9.275 0.161 -79.321
4517.542 0.159 -79.414 0.983 9.164 0.983 9.164 0.159 -79.414
4542.5 0.157 -79.507 0.984 9.054 0.984 9.054 0.157 -79.507
4567.458 0.156 -79.598 0.984 8.944 0.984 8.944 0.156 -79.598
4592.417 0.154 -79.689 0.984 8.836 0.984 8.836 0.154 -79.689
4617.375 0.152 -79.778 0.984 8.728 0.984 8.728 0.152 -79.778
4642.333 0.15 -79.866 0.985 8.621 0.985 8.621 0.15 -79.866
4667.292 0.148 -79.954 0.985 8.514 0.985 8.514 0.148 -79.954
4692.25 0.146 -80.04 0.985 8.409 0.985 8.409 0.146 -80.04
4717.208 0.144 -80.125 0.986 8.304 0.986 8.304 0.144 -80.125
4742.167 0.143 -80.208 0.986 8.2 0.986 8.2 0.143 -80.208
4767.125 0.141 -80.291 0.986 8.097 0.986 8.097 0.141 -80.291
4792.083 0.139 -80.373 0.986 7.994 0.986 7.994 0.139 -80.373
4817.042 0.137 -80.453 0.987 7.892 0.987 7.892 0.137 -80.453
4842 0.136 -80.533 0.987 7.791 0.987 7.791 0.136 -80.533
4866.958 0.134 -80.611 0.987 7.69 0.987 7.69 0.134 -80.611
4891.917 0.132 -80.689 0.987 7.59 0.987 7.59 0.132 -80.689
4916.875 0.13 -80.765 0.987 7.491 0.987 7.491 0.13 -80.765
4941.833 0.129 -80.84 0.988 7.392 0.988 7.392 0.129 -80.84
4966.792 0.127 -80.914 0.988 7.294 0.988 7.294 0.127 -80.914
4991.75 0.125 -80.987 0.988 7.197 0.988 7.197 0.125 -80.987
5016.708 0.124 -81.059 0.988 7.1 0.988 7.1 0.124 -81.059
5041.667 0.122 -81.129 0.989 7.004 0.989 7.004 0.122 -81.129
5066.625 0.12 -81.199 0.989 6.908 0.989 6.908 0.12 -81.199
5091.583 0.119 -81.267 0.989 6.813 0.989 6.813 0.119 -81.267
5116.542 0.117 -81.334 0.989 6.719 0.989 6.719 0.117 -81.334
5141.5 0.115 -81.4 0.989 6.625 0.989 6.625 0.115 -81.4
5166.458 0.114 -81.465 0.99 6.532 0.99 6.532 0.114 -81.465
5191.417 0.112 -81.529 0.99 6.44 0.99 6.44 0.112 -81.529
5216.375 0.111 -81.591 0.99 6.347 0.99 6.347 0.111 -81.591
5241.333 0.109 -81.652 0.99 6.256 0.99 6.256 0.109 -81.652
5266.292 0.107 -81.712 0.99 6.165 0.99 6.165 0.107 -81.712
5291.25 0.106 -81.771 0.99 6.075 0.99 6.075 0.106 -81.771
5316.208 0.104 -81.828 0.991 5.985 0.991 5.985 0.104 -81.828
5341.167 0.103 -81.884 0.991 5.895 0.991 5.895 0.103 -81.884
5366.125 0.101 -81.939 0.991 5.806 0.991 5.806 0.101 -81.939
5391.083 0.1 -81.992 0.991 5.718 0.991 5.718 0.1 -81.992
5416.042 0.098 -82.044 0.991 5.63 0.991 5.63 0.098 -82.044
5441 0.097 -82.094 0.991 5.543 0.991 5.543 0.097 -82.094
5465.958 0.095 -82.143 0.991 5.456 0.991 5.456 0.095 -82.143
5490.917 0.094 -82.191 0.992 5.37 0.992 5.37 0.094 -82.191
5515.875 0.092 -82.237 0.992 5.284 0.992 5.284 0.092 -82.237
5540.833 0.091 -82.282 0.992 5.198 0.992 5.198 0.091 -82.282
5565.792 0.089 -82.324 0.992 5.113 0.992 5.113 0.089 -82.324
5590.75 0.088 -82.366 0.992 5.029 0.992 5.029 0.088 -82.366
5615.708 0.086 -82.405 0.992 4.945 0.992 4.945 0.086 -82.405
5640.667 0.085 -82.443 0.992 4.861 0.992 4.861 0.085 -82.443
5665.625 0.083 -82.479 0.993 4.778 0.993 4.778 0.083 -82.479
5690.583 0.082 -82.514 0.993 4.695 0.993 4.695 0.082 -82.514
5715.542 0.081 -82.546 0.993 4.613 0.993 4.613 0.081 -82.546
5740.5 0.079 -82.576 0.993 4.531 0.993 4.531 0.079 -82.576
5765.458 0.078 -82.605 0.993 4.45 0.993 4.45 0.078 -82.605
5790.417 0.076 -82.631 0.993 4.369 0.993 4.369 0.076 -82.631
5815.375 0.075 -82.655 0.993 4.288 0.993 4.288 0.075 -82.655
5840.333 0.073 -82.677 0.993 4.208 0.993 4.208 0.073 -82.677
5865.292 0.072 -82.696 0.993 4.128 0.993 4.128 0.072 -82.696
5890.25 0.071 -82.713 0.994 4.049 0.994 4.049 0.071 -82.713
5915.208 0.069 -82.728 0.994 3.97 0.994 3.97 0.069 -82.728
5940.167 0.068 -82.74 0.994 3.891 0.994 3.891 0.068 -82.74
5965.125 0.067 -82.749 0.994 3.813 0.994 3.813 0.067 -82.749
5990.083 0.065 -82.755 0.994 3.735 0.994 3.735 0.065 -82.755
6015.042 0.064 -82.758 0.994 3.657 0.994 3.657 0.064 -82.758
6040 0.063 -82.758 0.994 3.58 0.994 3.58 0.063 -82.758
6064.958 0.061 -82.755 0.994 3.503 0.994 3.503 0.061 -82.755
6089.917 0.06 -82.748 0.994 3.427 0.994 3.427 0.06 -82.748
6114.875 0.059 -82.737 0.994 3.351 0.994 3.351 0.059 -82.737
6139.833 0.057 -82.722 0.994 3.275 0.994 3.275 0.057 -82.722
6164.792 0.056 -82.703 0.994 3.2 0.994 3.2 0.056 -82.703
6189.75 0.055 -82.68 0.995 3.125 0.995 3.125 0.055 -82.68
6214.708 0.053 -82.652 0.995 3.05 0.995 3.05 0.053 -82.652
6239.667 0.052 -82.62 0.995 2.976 0.995 2.976 0.052 -82.62
6264.625 0.051 -82.582 0.995 2.902 0.995 2.902 0.051 -82.582
6289.583 0.05 -82.538 0.995 2.828 0.995 2.828 0.05 -82.538
6314.542 0.048 -82.488 0.995 2.755 0.995 2.755 0.048 -82.488
6339.5 0.047 -82.432 0.995 2.682 0.995 2.682 0.047 -82.432
6364.458 0.046 -82.369 0.995 2.609 0.995 2.609 0.046 -82.369
6389.417 0.044 -82.299 0.995 2.537 0.995 2.537 0.044 -82.299
6414.375 0.043 -82.221 0.995 2.465 0.995 2.465 0.043 -82.221
6439.333 0.042 -82.134 0.995 2.393 0.995 2.393 0.042 -82.134
6464.292 0.041 -82.038 0.995 2.322 0.995 2.322 0.041 -82.038
6489.25 0.039 -81.932 0.995 2.251 0.995 2.251 0.039 -81.932
6514.208 0.038 -81.815 0.995 2.18 0.995 2.18 0.038 -81.815
6539.167 0.037 -81.686 0.995 2.109 0.995 2.109 0.037 -81.686
6564.125 0.036 -81.544 0.995 2.039 0.995 2.039 0.036 -81.544
6589.083 0.035 -81.388 0.995 1.969 0.995 1.969 0.035 -81.388
6614.042 0.033 -81.216 0.995 1.899 0.995 1.899 0.033 -81.216
6639 0.032 -81.027 0.995 1.83 0.995 1.83 0.032 -81.027
6663.958 0.031 -80.819 0.996 1.761 0.996 1.761 0.031 -80.819
6688.917 0.03 -80.589 0.996 1.692 0.996 1.692 0.03 -80.589
6713.875 0.029 -80.336 0.996 1.624 0.996 1.624 0.029 -80.336
6738.833 0.027 -80.056 0.996 1.555 0.996 1.555 0.027 -80.056
6763.792 0.026 -79.746 0.996 1.487 0.996 1.487 0.026 -79.746
6788.75 0.025 -79.402 0.996 1.42 0.996 1.42 0.025 -79.402
6813.708 0.024 -79.02 0.996 1.352 0.996 1.352 0.024 -79.02
6838.667 0.023 -78.593 0.996 1.285 0.996 1.285 0.023 -78.593
6863.625 0.022 -78.116 0.996 1.218 0.996 1.218 0.022 -78.116
6888.583 0.02 -77.58 0.996 1.151 0.996 1.151 0.02 -77.58
6913.542 0.019 -76.975 0.996 1.085 0.996 1.085 0.019 -76.975
6938.5 0.018 -76.29 0.996 1.019 0.996 1.019 0.018 -76.29
6963.458 0.017 -75.509 0.996 0.953 0.996 0.953 0.017 -75.509
6988.417 0.016 -74.612 0.996 0.887 0.996 0.887 0.016 -74.612
7013.375 0.015 -73.577 0.996 0.822 0.996 0.822 0.015 -73.577
7038.333 0.014 -72.37 0.996 0.756 0.996 0.756 0.014 -72.37
7063.292 0.013 -70.951 0.996 0.691 0.996 0.691 0.013 -70.951
7088.25 0.012 -69.265 0.996 0.627 0.996 0.627 0.012 -69.265
7113.208 0.011 -67.235 0.996 0.562 0.996 0.562 0.011 -67.235
7138.167 9.567e-3 -64.76 0.996 0.498 0.996 0.498 9.567e-3 -64.76
7163.125 8.564e-3 -61.692 0.996 0.434 0.996 0.434 8.564e-3 -61.692
7188.083 7.598e-3 -57.825 0.996 0.37 0.996 0.37 7.598e-3 -57.825
7213.042 6.68e-3 -52.865 0.996 0.306 0.996 0.306 6.68e-3 -52.865
7238 5.832e-3 -46.401 0.996 0.243 0.996 0.243 5.832e-3 -46.401
7262.958 5.088e-3 -37.91 0.996 0.18 0.996 0.18 5.088e-3 -37.91
7287.917 4.494e-3 -26.882 0.996 0.117 0.996 0.117 4.494e-3 -26.882
7312.875 4.114e-3 -13.232 0.996 0.054 0.996 0.054 4.114e-3 -13.232
7337.833 4.007e-3 2.071 0.996 -8.331e-3 0.996 -8.331e-3 4.007e-3 2.071
7362.792 4.19e-3 17.039 0.996 -0.071 0.996 -0.071 4.19e-3 17.039
7387.75 4.626e-3 29.914 0.996 -0.133 0.996 -0.133 4.626e-3 29.914
7412.708 5.25e-3 40.108 0.996 -0.195 0.996 -0.195 5.25e-3 40.108
7437.667 6.003e-3 47.905 0.996 -0.256 0.996 -0.256 6.003e-3 47.905
7462.625 6.84e-3 53.849 0.996 -0.318 0.996 -0.318 6.84e-3 53.849
7487.583 7.732e-3 58.431 0.996 -0.379 0.996 -0.379 7.732e-3 58.431
7512.542 8.661e-3 62.024 0.996 -0.44 0.996 -0.44 8.661e-3 62.024
7537.5 9.616e-3 64.891 0.996 -0.501 0.996 -0.501 9.616e-3 64.891
7562.458 0.011 67.217 0.996 -0.562 0.996 -0.562 0.011 67.217
7587.417 0.012 69.133 0.996 -0.622 0.996 -0.622 0.012 69.133
7612.375 0.013 70.733 0.996 -0.682 0.996 -0.682 0.013 70.733
7637.333 0.014 72.086 0.996 -0.742 0.996 -0.742 0.014 72.086
7662.292 0.015 73.24 0.996 -0.802 0.996 -0.802 0.015 73.24
7687.25 0.016 74.235 0.996 -0.862 0.996 -0.862 0.016 74.235
7712.208 0.017 75.099 0.996 -0.922 0.996 -0.922 0.017 75.099
7737.167 0.018 75.855 0.996 -0.981 0.996 -0.981 0.018 75.855
7762.125 0.019 76.521 0.996 -1.04 0.996 -1.04 0.019 76.521
7787.083 0.02 77.111 0.996 -1.099 0.996 -1.099 0.02 77.111
7812.042 0.021 77.635 0.996 -1.158 0.996 -1.158 0.021 77.635
7837 0.022 78.104 0.996 -1.216 0.996 -1.216 0.022 78.104
7861.958 0.023 78.525 0.996 -1.275 0.996 -1.275 0.023 78.525
7886.917 0.024 78.904 0.996 -1.333 0.996 -1.333 0.024 78.904
7911.875 0.025 79.246 0.996 -1.391 0.996 -1.391 0.025 79.246
7936.833 0.026 79.556 0.996 -1.449 0.996 -1.449 0.026 79.556
7961.792 0.027 79.838 0.996 -1.507 0.996 -1.507 0.027 79.838
7986.75 0.028 80.095 0.996 -1.564 0.996 -1.564 0.028 80.095
8011.708 0.029 80.329 0.996 -1.622 0.996 -1.622 0.029 80.329
8036.667 0.03 80.543 0.996 -1.679 0.996 -1.679 0.03 80.543
8061.625 0.031 80.738 0.996 -1.736 0.996 -1.736 0.031 80.738
8086.583 0.032 80.918 0.996 -1.793 0.996 -1.793 0.032 80.918
8111.542 0.033 81.083 0.995 -1.85 0.995 -1.85 0.033 81.083
8136.5 0.034 81.234 0.995 -1.906 0.995 -1.906 0.034 81.234
8161.458 0.034 81.373 0.995 -1.963 0.995 -1.963 0.034 81.373
8186.417 0.035 81.501 0.995 -2.019 0.995 -2.019 0.035 81.501
