# MHZ S MA R 50

50 0.998 -3.506 0.061 86.483 0.061 86.483 0.998 -3.506
74.958 0.996 -5.248 0.091 84.736 0.091 84.736 0.996 -5.248
99.917 0.993 -6.981 0.122 82.998 0.122 82.998 0.993 -6.981
124.875 0.988 -8.702 0.151 81.271 0.151 81.271 0.988 -8.702
149.833 0.983 -10.408 0.181 79.56 0.181 79.56 0.983 -10.408
174.792 0.978 -12.096 0.21 77.867 0.21 77.867 0.978 -12.096
199.75 0.971 -13.764 0.238 76.193 0.238 76.193 0.971 -13.764
224.708 0.964 -15.41 0.266 74.542 0.266 74.542 0.964 -15.41
249.667 0.956 -17.031 0.293 72.915 0.293 72.915 0.956 -17.031
274.625 0.947 -18.626 0.319 71.315 0.319 71.315 0.947 -18.626
299.583 0.938 -20.193 0.345 69.743 0.345 69.743 0.938 -20.193
324.542 0.928 -21.731 0.37 68.2 0.37 68.2 0.928 -21.731
349.5 0.918 -23.238 0.395 66.687 0.395 66.687 0.918 -23.238
374.458 0.908 -24.713 0.418 65.206 0.418 65.206 0.908 -24.713
399.417 0.897 -26.156 0.441 63.758 0.441 63.758 0.897 -26.156
424.375 0.886 -27.567 0.463 62.342 0.463 62.342 0.886 -27.567
449.333 0.874 -28.943 0.484 60.96 0.484 60.96 0.874 -28.943
474.292 0.863 -30.286 0.504 59.611 0.504 59.611 0.863 -30.286
499.25 0.851 -31.596 0.524 58.297 0.524 58.297 0.851 -31.596
524.208 0.839 -32.871 0.543 57.016 0.543 57.016 0.839 -32.871
549.167 0.827 -34.113 0.561 55.768 0.561 55.768 0.827 -34.113
574.125 0.815 -35.322 0.578 54.554 0.578 54.554 0.815 -35.322
599.083 0.803 -36.498 0.595 53.372 0.595 53.372 0.803 -36.498
624.042 0.79 -37.642 0.611 52.223 0.611 52.223 0.79 -37.642
649 0.778 -38.753 0.626 51.106 0.626 51.106 0.778 -38.753
673.958 0.766 -39.833 0.641 50.02 0.641 50.02 0.766 -39.833
698.917 0.754 -40.883 0.655 48.965 0.655 48.965 0.754 -40.883
723.875 0.742 -41.903 0.668 47.94 0.668 47.94 0.742 -41.903
748.833 0.731 -42.893 0.681 46.944 0.681 46.944 0.731 -42.893
773.792 0.719 -43.856 0.693 45.976 0.693 45.976 0.719 -43.856
798.75 0.708 -44.79 0.705 45.036 0.705 45.036 0.708 -44.79
823.708 0.696 -45.697 0.716 44.123 0.716 44.123 0.696 -45.697
848.667 0.685 -46.578 0.726 43.236 0.726 43.236 0.685 -46.578
873.625 0.674 -47.434 0.737 42.375 0.737 42.375 0.674 -47.434
898.583 0.663 -48.266 0.746 41.538 0.746 41.538 0.663 -48.266
923.542 0.652 -49.073 0.756 40.725 0.756 40.725 0.652 -49.073
948.5 0.642 -49.857 0.764 39.935 0.764 39.935 0.642 -49.857
973.458 0.632 -50.619 0.773 39.167 0.773 39.167 0.632 -50.619
998.417 0.621 -51.36 0.781 38.421 0.781 38.421 0.621 -51.36
1023.375 0.611 -52.079 0.789 37.695 0.789 37.695 0.611 -52.079
1048.333 0.602 -52.779 0.796 36.99 0.796 36.99 0.602 -52.779
1073.292 0.592 -53.459 0.803 36.304 0.803 36.304 0.592 -53.459
1098.25 0.583 -54.12 0.81 35.637 0.81 35.637 0.583 -54.12
1123.208 0.573 -54.763 0.817 34.988 0.817 34.988 0.573 -54.763
1148.167 0.564 -55.388 0.823 34.357 0.823 34.357 0.564 -55.388
1173.125 0.555 -55.997 0.829 33.742 0.829 33.742 0.555 -55.997
1198.083 0.547 -56.589 0.835 33.144 0.835 33.144 0.547 -56.589
1223.042 0.538 -57.165 0.84 32.562 0.84 32.562 0.538 -57.165
1248 0.53 -57.727 0.846 31.994 0.846 31.994 0.53 -57.727
1272.958 0.522 -58.273 0.851 31.442 0.851 31.442 0.522 -58.273
1297.917 0.514 -58.805 0.855 30.903 0.855 30.903 0.514 -58.805
1322.875 0.506 -59.324 0.86 30.379 0.86 30.379 0.506 -59.324
1347.833 0.498 -59.83 0.865 29.867 0.865 29.867 0.498 -59.83
1372.792 0.49 -60.322 0.869 29.368 0.869 29.368 0.49 -60.322
1397.75 0.483 -60.803 0.873 28.882 0.873 28.882 0.483 -60.803
1422.708 0.476 -61.271 0.877 28.407 0.877 28.407 0.476 -61.271
1447.667 0.469 -61.728 0.881 27.944 0.881 27.944 0.469 -61.728
1472.625 0.462 -62.174 0.884 27.491 0.884 27.491 0.462 -62.174
1497.583 0.455 -62.609 0.888 27.05 0.888 27.05 0.455 -62.609
1522.542 0.448 -63.034 0.891 26.619 0.891 26.619 0.448 -63.034
1547.5 0.441 -63.448 0.895 26.197 0.895 26.197 0.441 -63.448
1572.458 0.435 -63.854 0.898 25.786 0.898 25.786 0.435 -63.854
1597.417 0.429 -64.249 0.901 25.383 0.901 25.383 0.429 -64.249
1622.375 0.422 -64.636 0.904 24.99 0.904 24.99 0.422 -64.636
1647.333 0.416 -65.014 0.906 24.606 0.906 24.606 0.416 -65.014
1672.292 0.41 -65.383 0.909 24.23 0.909 24.23 0.41 -65.383
1697.25 0.405 -65.744 0.912 23.862 0.912 23.862 0.405 -65.744
1722.208 0.399 -66.098 0.914 23.502 0.914 23.502 0.399 -66.098
1747.167 0.393 -66.443 0.917 23.149 0.917 23.149 0.393 -66.443
1772.125 0.388 -66.781 0.919 22.804 0.919 22.804 0.388 -66.781
1797.083 0.382 -67.112 0.921 22.466 0.921 22.466 0.382 -67.112
1822.042 0.377 -67.436 0.923 22.135 0.923 22.135 0.377 -67.436
1847 0.372 -67.753 0.926 21.811 0.926 21.811 0.372 -67.753
1871.958 0.366 -68.064 0.928 21.493 0.928 21.493 0.366 -68.064
1896.917 0.361 -68.368 0.93 21.182 0.93 21.182 0.361 -68.368
1921.875 0.356 -68.666 0.932 20.877 0.932 20.877 0.356 -68.666
1946.833 0.351 -68.959 0.933 20.577 0.933 20.577 0.351 -68.959
1971.792 0.347 -69.245 0.935 20.284 0.935 20.284 0.347 -69.245
1996.75 0.342 -69.525 0.937 19.996 0.937 19.996 0.342 -69.525
2021.708 0.337 -69.801 0.939 19.713 0.939 19.713 0.337 -69.801
2046.667 0.333 -70.071 0.94 19.436 0.94 19.436 0.333 -70.071
2071.625 0.328 -70.335 0.942 19.163 0.942 19.163 0.328 -70.335
2096.583 0.324 -70.595 0.943 18.896 0.943 18.896 0.324 -70.595
2121.542 0.32 -70.85 0.945 18.633 0.945 18.633 0.32 -70.85
2146.5 0.315 -71.1 0.946 18.376 0.946 18.376 0.315 -71.1
2171.458 0.311 -71.345 0.948 18.122 0.948 18.122 0.311 -71.345
2196.417 0.307 -71.586 0.949 17.873 0.949 17.873 0.307 -71.586
2221.375 0.303 -71.823 0.95 17.629 0.95 17.629 0.303 -71.823
2246.333 0.299 -72.055 0.951 17.388 0.951 17.388 0.299 -72.055
2271.292 0.295 -72.284 0.953 17.152 0.953 17.152 0.295 -72.284
2296.25 0.291 -72.508 0.954 16.919 0.954 16.919 0.291 -72.508
2321.208 0.287 -72.728 0.955 16.691 0.955 16.691 0.287 -72.728
2346.167 0.283 -72.945 0.956 16.466 0.956 16.466 0.283 -72.945
2371.125 0.28 -73.158 0.957 16.244 0.957 16.244 0.28 -73.158
2396.083 0.276 -73.367 0.958 16.026 0.958 16.026 0.276 -73.367
2421.042 0.272 -73.573 0.959 15.812 0.959 15.812 0.272 -73.573
2446 0.269 -73.775 0.96 15.601 0.96 15.601 0.269 -73.775
2470.958 0.265 -73.974 0.961 15.393 0.961 15.393 0.265 -73.974
2495.917 0.262 -74.17 0.962 15.189 0.962 15.189 0.262 -74.17
2520.875 0.259 -74.362 0.963 14.987 0.963 14.987 0.259 -74.362
2545.833 0.255 -74.552 0.964 14.788 0.964 14.788 0.255 -74.552
2570.792 0.252 -74.738 0.965 14.593 0.965 14.593 0.252 -74.738
2595.75 0.249 -74.921 0.966 14.4 0.966 14.4 0.249 -74.921
2620.708 0.245 -75.102 0.966 14.21 0.966 14.21 0.245 -75.102
2645.667 0.242 -75.279 0.967 14.023 0.967 14.023 0.242 -75.279
2670.625 0.239 -75.454 0.968 13.838 0.968 13.838 0.239 -75.454
2695.583 0.236 -75.626 0.969 13.656 0.969 13.656 0.236 -75.626
2720.542 0.233 -75.796 0.97 13.477 0.97 13.477 0.233 -75.796
2745.5 0.23 -75.963 0.97 13.3 0.97 13.3 0.23 -75.963
2770.458 0.227 -76.127 0.971 13.125 0.971 13.125 0.227 -76.127
2795.417 0.224 -76.289 0.972 12.953 0.972 12.953 0.224 -76.289
2820.375 0.221 -76.449 0.972 12.783 0.972 12.783 0.221 -76.449
2845.333 0.218 -76.606 0.973 12.615 0.973 12.615 0.218 -76.606
2870.292 0.216 -76.761 0.974 12.45 0.974 12.45 0.216 -76.761
2895.25 0.213 -76.914 0.974 12.287 0.974 12.287 0.213 -76.914
2920.208 0.21 -77.064 0.975 12.125 0.975 12.125 0.21 -77.064
2945.167 0.207 -77.212 0.975 11.966 0.975 11.966 0.207 -77.212
2970.125 0.205 -77.358 0.976 11.809 0.976 11.809 0.205 -77.358
2995.083 0.202 -77.502 0.976 11.653 0.976 11.653 0.202 -77.502
3020.042 0.199 -77.644 0.977 11.5 0.977 11.5 0.199 -77.644
3045 0.197 -77.784 0.977 11.348 0.977 11.348 0.197 -77.784
3069.958 0.194 -77.922 0.978 11.198 0.978 11.198 0.194 -77.922
3094.917 0.192 -78.057 0.978 11.05 0.978 11.05 0.192 -78.057
3119.875 0.189 -78.191 0.979 10.904 0.979 10.904 0.189 -78.191
3144.833 0.187 -78.324 0.979 10.76 0.979 10.76 0.187 -78.324
3169.792 0.184 -78.454 0.98 10.617 0.98 10.617 0.184 -78.454
3194.75 0.182 -78.582 0.98 10.476 0.98 10.476 0.182 -78.582
3219.708 0.179 -78.709 0.981 10.336 0.981 10.336 0.179 -78.709
3244.667 0.177 -78.834 0.981 10.198 0.981 10.198 0.177 -78.834
3269.625 0.175 -78.957 0.982 10.061 0.982 10.061 0.175 -78.957
3294.583 0.172 -79.078 0.982 9.926 0.982 9.926 0.172 -79.078
3319.542 0.17 -79.198 0.982 9.793 0.982 9.793 0.17 -79.198
3344.5 0.168 -79.316 0.983 9.66 0.983 9.66 0.168 -79.316
3369.458 0.166 -79.433 0.983 9.53 0.983 9.53 0.166 -79.433
3394.417 0.163 -79.547 0.984 9.4 0.984 9.4 0.163 -79.547
3419.375 0.161 -79.661 0.984 9.272 0.984 9.272 0.161 -79.661
3444.333 0.159 -79.772 0.984 9.145 0.984 9.145 0.159 -79.772
3469.292 0.157 -79.882 0.985 9.02 0.985 9.02 0.157 -79.882
3494.25 0.155 -79.991 0.985 8.896 0.985 8.896 0.155 -79.991
3519.208 0.153 -80.098 0.985 8.773 0.985 8.773 0.153 -80.098
3544.167 0.15 -80.204 0.986 8.651 0.986 8.651 0.15 -80.204
3569.125 0.148 -80.308 0.986 8.531 0.986 8.531 0.148 -80.308
3594.083 0.146 -80.41 0.986 8.412 0.986 8.412 0.146 -80.41
3619.042 0.144 -80.511 0.987 8.293 0.987 8.293 0.144 -80.511
3644 0.142 -80.611 0.987 8.176 0.987 8.176 0.142 -80.611
3668.958 0.14 -80.709 0.987 8.06 0.987 8.06 0.14 -80.709
3693.917 0.138 -80.806 0.987 7.946 0.987 7.946 0.138 -80.806
3718.875 0.136 -80.902 0.988 7.832 0.988 7.832 0.136 -80.902
3743.833 0.134 -80.996 0.988 7.719 0.988 7.719 0.134 -80.996
3768.792 0.132 -81.088 0.988 7.607 0.988 7.607 0.132 -81.088
3793.75 0.131 -81.179 0.988 7.497 0.988 7.497 0.131 -81.179
3818.708 0.129 -81.269 0.989 7.387 0.989 7.387 0.129 -81.269
3843.667 0.127 -81.358 0.989 7.278 0.989 7.278 0.127 -81.358
3868.625 0.125 -81.445 0.989 7.171 0.989 7.171 0.125 -81.445
3893.583 0.123 -81.53 0.989 7.064 0.989 7.064 0.123 -81.53
3918.542 0.121 -81.615 0.99 6.958 0.99 6.958 0.121 -81.615
3943.5 0.119 -81.698 0.99 6.853 0.99 6.853 0.119 -81.698
3968.458 0.118 -81.779 0.99 6.749 0.99 6.749 0.118 -81.779
3993.417 0.116 -81.859 0.99 6.646 0.99 6.646 0.116 -81.859
4018.375 0.114 -81.938 0.99 6.543 0.99 6.543 0.114 -81.938
4043.333 0.112 -82.016 0.991 6.442 0.991 6.442 0.112 -82.016
4068.292 0.11 -82.092 0.991 6.341 0.991 6.341 0.11 -82.092
4093.25 0.109 -82.166 0.991 6.241 0.991 6.241 0.109 -82.166
4118.208 0.107 -82.239 0.991 6.142 0.991 6.142 0.107 -82.239
4143.167 0.105 -82.311 0.991 6.044 0.991 6.044 0.105 -82.311
4168.125 0.104 -82.382 0.992 5.946 0.992 5.946 0.104 -82.382
4193.083 0.102 -82.45 0.992 5.849 0.992 5.849 0.102 -82.45
4218.042 0.1 -82.518 0.992 5.753 0.992 5.753 0.1 -82.518
4243 0.099 -82.584 0.992 5.658 0.992 5.658 0.099 -82.584
4267.958 0.097 -82.648 0.992 5.563 0.992 5.563 0.097 -82.648
4292.917 0.095 -82.712 0.992 5.469 0.992 5.469 0.095 -82.712
4317.875 0.094 -82.773 0.993 5.376 0.993 5.376 0.094 -82.773
4342.833 0.092 -82.833 0.993 5.284 0.993 5.284 0.092 -82.833
4367.792 0.091 -82.891 0.993 5.192 0.993 5.192 0.091 -82.891
4392.75 0.089 -82.948 0.993 5.101 0.993 5.101 0.089 -82.948
4417.708 0.087 -83.003 0.993 5.01 0.993 5.01 0.087 -83.003
4442.667 0.086 -83.057 0.993 4.92 0.993 4.92 0.086 -83.057
4467.625 0.084 -83.108 0.993 4.831 0.993 4.831 0.084 -83.108
4492.583 0.083 -83.158 0.994 4.743 0.994 4.743 0.083 -83.158
4517.542 0.081 -83.206 0.994 4.655 0.994 4.655 0.081 -83.206
4542.5 0.08 -83.253 0.994 4.567 0.994 4.567 0.08 -83.253
4567.458 0.078 -83.297 0.994 4.48 0.994 4.48 0.078 -83.297
4592.417 0.077 -83.34 0.994 4.394 0.994 4.394 0.077 -83.34
4617.375 0.075 -83.38 0.994 4.309 0.994 4.309 0.075 -83.38
4642.333 0.074 -83.418 0.994 4.224 0.994 4.224 0.074 -83.418
4667.292 0.072 -83.455 0.994 4.139 0.994 4.139 0.072 -83.455
4692.25 0.071 -83.489 0.994 4.055 0.994 4.055 0.071 -83.489
4717.208 0.069 -83.52 0.995 3.972 0.995 3.972 0.069 -83.52
4742.167 0.068 -83.55 0.995 3.889 0.995 3.889 0.068 -83.55
4767.125 0.066 -83.577 0.995 3.807 0.995 3.807 0.066 -83.577
4792.083 0.065 -83.601 0.995 3.725 0.995 3.725 0.065 -83.601
4817.042 0.064 -83.622 0.995 3.643 0.995 3.643 0.064 -83.622
4842 0.062 -83.641 0.995 3.563 0.995 3.563 0.062 -83.641
4866.958 0.061 -83.657 0.995 3.482 0.995 3.482 0.061 -83.657
4891.917 0.059 -83.669 0.995 3.402 0.995 3.402 0.059 -83.669
4916.875 0.058 -83.679 0.995 3.323 0.995 3.323 0.058 -83.679
4941.833 0.057 -83.685 0.995 3.244 0.995 3.244 0.057 -83.685
4966.792 0.055 -83.687 0.995 3.166 0.995 3.166 0.055 -83.687
4991.75 0.054 -83.686 0.996 3.088 0.996 3.088 0.054 -83.686
5016.708 0.053 -83.68 0.996 3.01 0.996 3.01 0.053 -83.68
5041.667 0.051 -83.67 0.996 2.933 0.996 2.933 0.051 -83.67
5066.625 0.05 -83.656 0.996 2.857 0.996 2.857 0.05 -83.656
5091.583 0.049 -83.637 0.996 2.781 0.996 2.781 0.049 -83.637
5116.542 0.047 -83.612 0.996 2.705 0.996 2.705 0.047 -83.612
5141.5 0.046 -83.582 0.996 2.63 0.996 2.63 0.046 -83.582
5166.458 0.045 -83.546 0.996 2.555 0.996 2.555 0.045 -83.546
5191.417 0.043 -83.504 0.996 2.48 0.996 2.48 0.043 -83.504
5216.375 0.042 -83.455 0.996 2.406 0.996 2.406 0.042 -83.455
5241.333 0.041 -83.398 0.996 2.332 0.996 2.332 0.041 -83.398
5266.292 0.04 -83.333 0.996 2.259 0.996 2.259 0.04 -83.333
5291.25 0.038 -83.259 0.996 2.186 0.996 2.186 0.038 -83.259
5316.208 0.037 -83.176 0.996 2.114 0.996 2.114 0.037 -83.176
5341.167 0.036 -83.082 0.996 2.042 0.996 2.042 0.036 -83.082
5366.125 0.035 -82.977 0.996 1.97 0.996 1.97 0.035 -82.977
5391.083 0.033 -82.86 0.996 1.898 0.996 1.898 0.033 -82.86
5416.042 0.032 -82.728 0.996 1.827 0.996 1.827 0.032 -82.728
5441 0.031 -82.581 0.996 1.757 0.996 1.757 0.031 -82.581
5465.958 0.03 -82.417 0.997 1.686 0.997 1.686 0.03 -82.417
5490.917 0.028 -82.233 0.997 1.617 0.997 1.617 0.028 -82.233
5515.875 0.027 -82.028 0.997 1.547 0.997 1.547 0.027 -82.028
5540.833 0.026 -81.799 0.997 1.478 0.997 1.478 0.026 -81.799
5565.792 0.025 -81.542 0.997 1.409 0.997 1.409 0.025 -81.542
5590.75 0.024 -81.253 0.997 1.34 0.997 1.34 0.024 -81.253
5615.708 0.022 -80.929 0.997 1.272 0.997 1.272 0.022 -80.929
5640.667 0.021 -80.562 0.997 1.204 0.997 1.204 0.021 -80.562
5665.625 0.02 -80.147 0.997 1.136 0.997 1.136 0.02 -80.147
5690.583 0.019 -79.675 0.997 1.069 0.997 1.069 0.019 -79.675
5715.542 0.018 -79.134 0.997 1.002 0.997 1.002 0.018 -79.134
5740.5 0.017 -78.513 0.997 0.935 0.997 0.935 0.017 -78.513
5765.458 0.015 -77.793 0.997 0.869 0.997 0.869 0.015 -77.793
5790.417 0.014 -76.953 0.997 0.803 0.997 0.803 0.014 -76.953
5815.375 0.013 -75.963 0.997 0.737 0.997 0.737 0.013 -75.963
5840.333 0.012 -74.784 0.997 0.672 0.997 0.672 0.012 -74.784
5865.292 0.011 -73.362 0.997 0.606 0.997 0.606 0.011 -73.362
5890.25 9.927e-3 -71.62 0.997 0.541 0.997 0.541 9.927e-3 -71.62
5915.208 8.859e-3 -69.449 0.997 0.477 0.997 0.477 8.859e-3 -69.449
5940.167 7.814e-3 -66.685 0.997 0.412 0.997 0.412 7.814e-3 -66.685
5965.125 6.798e-3 -63.078 0.997 0.348 0.997 0.348 6.798e-3 -63.078
5990.083 5.823e-3 -58.234 0.997 0.285 0.997 0.285 5.823e-3 -58.234
6015.042 4.912e-3 -51.527 0.997 0.221 0.997 0.221 4.912e-3 -51.527
6040 4.102e-3 -41.996 0.997 0.158 0.997 0.158 4.102e-3 -41.996
6064.958 3.461e-3 -28.436 0.997 0.095 0.997 0.095 3.461e-3 -28.436
6089.917 3.092e-3 -10.367 0.997 0.032 0.997 0.032 3.092e-3 -10.367
6114.875 3.087e-3 9.904 0.997 -0.031 0.997 -0.031 3.087e-3 9.904
6139.833 3.445e-3 27.935 0.997 -0.093 0.997 -0.093 3.445e-3 27.935
6164.792 4.067e-3 41.453 0.997 -0.155 0.997 -0.155 4.067e-3 41.453
6189.75 4.85e-3 50.954 0.997 -0.216 0.997 -0.216 4.85e-3 50.954
6214.708 5.726e-3 57.642 0.997 -0.278 0.997 -0.278 5.726e-3 57.642
6239.667 6.656e-3 62.474 0.997 -0.339 0.997 -0.339 6.656e-3 62.474
6264.625 7.618e-3 66.074 0.997 -0.4 0.997 -0.4 7.618e-3 66.074
6289.583 8.601e-3 68.835 0.997 -0.461 0.997 -0.461 8.601e-3 68.835
6314.542 9.597e-3 71.005 0.997 -0.522 0.997 -0.522 9.597e-3 71.005
6339.5 0.011 72.748 0.997 -0.582 0.997 -0.582 0.011 72.748
6364.458 0.012 74.173 0.997 -0.642 0.997 -0.642 0.012 74.173
6389.417 0.013 75.355 0.997 -0.702 0.997 -0.702 0.013 75.355
6414.375 0.014 76.35 0.997 -0.761 0.997 -0.761 0.014 76.35
6439.333 0.015 77.195 0.997 -0.821 0.997 -0.821 0.015 77.195
6464.292 0.016 77.921 0.997 -0.88 0.997 -0.88 0.016 77.921
6489.25 0.017 78.549 0.997 -0.939 0.997 -0.939 0.017 78.549
6514.208 0.018 79.097 0.997 -0.998 0.997 -0.998 0.018 79.097
6539.167 0.019 79.578 0.997 -1.056 0.997 -1.056 0.019 79.578
6564.125 0.02 80.002 0.997 -1.115 0.997 -1.115 0.02 80.002
6589.083 0.021 80.377 0.997 -1.173 0.997 -1.173 0.021 80.377
6614.042 0.022 80.712 0.997 -1.231 0.997 -1.231 0.022 80.712
6639 0.023 81.011 0.997 -1.288 0.997 -1.288 0.023 81.011
6663.958 0.024 81.279 0.997 -1.346 0.997 -1.346 0.024 81.279
6688.917 0.025 81.52 0.997 -1.403 0.997 -1.403 0.025 81.52
6713.875 0.026 81.737 0.997 -1.46 0.997 -1.46 0.026 81.737
6738.833 0.027 81.933 0.997 -1.517 0.997 -1.517 0.027 81.933
6763.792 0.028 82.111 0.997 -1.574 0.997 -1.574 0.028 82.111
6788.75 0.029 82.272 0.997 -1.63 0.997 -1.63 0.029 82.272
6813.708 0.03 82.418 0.997 -1.687 0.997 -1.687 0.03 82.418
6838.667 0.031 82.55 0.996 -1.743 0.996 -1.743 0.031 82.55
6863.625 0.032 82.671 0.996 -1.799 0.996 -1.799 0.032 82.671
6888.583 0.033 82.78 0.996 -1.855 0.996 -1.855 0.033 82.78
6913.542 0.033 82.88 0.996 -1.91 0.996 -1.91 0.033 82.88
6938.5 0.034 82.971 0.996 -1.966 0.996 -1.966 0.034 82.971
6963.458 0.035 83.054 0.996 -2.021 0.996 -2.021 0.035 83.054
6988.417 0.036 83.129 0.996 -2.076 0.996 -2.076 0.036 83.129
7013.375 0.037 83.197 0.996 -2.131 0.996 -2.131 0.037 83.197
7038.333 0.038 83.259 0.996 -2.186 0.996 -2.186 0.038 83.259
7063.292 0.039 83.315 0.996 -2.24 0.996 -2.24 0.039 83.315
7088.25 0.04 83.366 0.996 -2.295 0.996 -2.295 0.04 83.366
7113.208 0.041 83.411 0.996 -2.349 0.996 -2.349 0.041 83.411
7138.167 0.042 83.452 0.996 -2.403 0.996 -2.403 0.042 83.452
7163.125 0.043 83.489 0.996 -2.457 0.996 -2.457 0.043 83.489
7188.083 0.044 83.522 0.996 -2.511 0.996 -2.511 0.044 83.522
7213.042 0.045 83.551 0.996 -2.564 0.996 -2.564 0.045 83.551
7238 0.046 83.577 0.996 -2.618 0.996 -2.618 0.046 83.577
7262.958 0.047 83.599 0.996 -2.671 0.996 -2.671 0.047 83.599
7287.917 0.048 83.619 0.996 -2.724 0.996 -2.724 0.048 83.619
7312.875 0.049 83.636 0.996 -2.777 0.996 -2.777 0.049 83.636
7337.833 0.049 83.65 0.996 -2.83 0.996 -2.83 0.049 83.65
7362.792 0.05 83.661 0.996 -2.882 0.996 -2.882 0.05 83.661
7387.75 0.051 83.671 0.996 -2.935 0.996 -2.935 0.051 83.671
7412.708 0.052 83.678 0.996 -2.987 0.996 -2.987 0.052 83.678
7437.667 0.053 83.683 0.996 -3.04 0.996 -3.04 0.053 83.683
7462.625 0.054 83.686 0.996 -3.092 0.996 -3.092 0.054 83.686
7487.583 0.055 83.687 0.995 -3.144 0.995 -3.144 0.055 83.687
7512.542 0.056 83.687 0.995 -3.195 0.995 -3.195 0.056 83.687
7537.5 0.057 83.685 0.995 -3.247 0.995 -3.247 0.057 83.685
7562.458 0.058 83.681 0.995 -3.298 0.995 -3.298 0.058 83.681
7587.417 0.059 83.676 0.995 -3.35 0.995 -3.35 0.059 83.676
7612.375 0.059 83.67 0.995 -3.401 0.995 -3.401 0.059 83.67
7637.333 0.06 83.662 0.995 -3.452 0.995 -3.452 0.06 83.662
7662.292 0.061 83.653 0.995 -3.503 0.995 -3.503 0.061 83.653
7687.25 0.062 83.643 0.995 -3.554 0.995 -3.554 0.062 83.643
7712.208 0.063 83.632 0.995 -3.604 0.995 -3.604 0.063 83.632
7737.167 0.064 83.619 0.995 -3.655 0.995 -3.655 0.064 83.619
7762.125 0.065 83.606 0.995 -3.705 0.995 -3.705 0.065 83.606
7787.083 0.066 83.592 0.995 -3.756 0.995 -3.756 0.066 83.592
7812.042 0.066 83.577 0.995 -3.806 0.995 -3.806 0.066 83.577
7837 0.067 83.561 0.995 -3.856 0.995 -3.856 0.067 83.561
7861.958 0.068 83.544 0.995 -3.906 0.995 -3.906 0.068 83.544
7886.917 0.069 83.526 0.995 -3.956 0.995 -3.956 0.069 83.526
7911.875 0.07 83.508 0.995 -4.005 0.995 -4.005 0.07 83.508
7936.833 0.071 83.489 0.994 -4.055 0.994 -4.055 0.071 83.489
7961.792 0.072 83.469 0.994 -4.104 0.994 -4.104 0.072 83.469
7986.75 0.072 83.449 0.994 -4.153 0.994 -4.153 0.072 83.449
8011.708 0.073 83.428 0.994 -4.203 0.994 -4.203 0.073 83.428
8036.667 0.074 83.406 0.994 -4.252 0.994 -4.252 0.074 83.406
8061.625 0.075 83.384 0.994 -4.301 0.994 -4.301 0.075 83.384
8086.583 0.076 83.361 0.994 -4.349 0.994 -4.349 0.076 83.361
8111.542 0.077 83.338 0.994 -4.398 0.994 -4.398 0.077 83.338
8136.5 0.078 83.314 0.994 -4.447 0.994 -4.447 0.078 83.314
8161.458 0.078 83.29 0.994 -4.495 0.994 -4.495 0.078 83.29
8186.417 0.079 83.265 0.994 -4.543 0.994 -4.543 0.079 83.265
8211.375 0.08 83.24 0.994 -4.592 0.994 -4.592 0.08 83.24
