# MHZ S MA R 50

50 0.999 -2.878 0.05 87.112 0.05 87.112 0.999 -2.878
74.958 0.997 -4.31 0.075 85.675 0.075 85.675 0.997 -4.31
99.917 0.995 -5.737 0.1 84.243 0.1 84.243 0.995 -5.737
124.875 0.992 -7.157 0.125 82.818 0.125 82.818 0.992 -7.157
149.833 0.989 -8.57 0.149 81.401 0.149 81.401 0.989 -8.57
174.792 0.985 -9.972 0.173 79.994 0.173 79.994 0.985 -9.972
199.75 0.98 -11.363 0.197 78.598 0.197 78.598 0.98 -11.363
224.708 0.975 -12.741 0.221 77.215 0.221 77.215 0.975 -12.741
249.667 0.97 -14.105 0.244 75.845 0.244 75.845 0.97 -14.105
274.625 0.964 -15.455 0.266 74.491 0.266 74.491 0.964 -15.455
299.583 0.957 -16.787 0.289 73.153 0.289 73.153 0.957 -16.787
324.542 0.95 -18.103 0.311 71.833 0.311 71.833 0.95 -18.103
349.5 0.943 -19.4 0.332 70.531 0.332 70.531 0.943 -19.4
374.458 0.935 -20.678 0.353 69.248 0.353 69.248 0.935 -20.678
399.417 0.927 -21.936 0.374 67.985 0.374 67.985 0.927 -21.936
424.375 0.919 -23.174 0.394 66.742 0.394 66.742 0.919 -23.174
449.333 0.91 -24.39 0.413 65.521 0.413 65.521 0.91 -24.39
474.292 0.901 -25.585 0.432 64.321 0.432 64.321 0.901 -25.585
499.25 0.892 -26.759 0.45 63.142 0.45 63.142 0.892 -26.759
524.208 0.883 -27.91 0.468 61.986 0.468 61.986 0.883 -27.91
549.167 0.873 -29.038 0.485 60.853 0.485 60.853 0.873 -29.038
574.125 0.864 -30.145 0.502 59.741 0.502 59.741 0.864 -30.145
599.083 0.854 -31.228 0.518 58.653 0.518 58.653 0.854 -31.228
624.042 0.844 -32.289 0.534 57.587 0.534 57.587 0.844 -32.289
649 0.834 -33.328 0.549 56.543 0.549 56.543 0.834 -33.328
673.958 0.824 -34.344 0.564 55.522 0.564 55.522 0.824 -34.344
698.917 0.814 -35.338 0.578 54.522 0.578 54.522 0.814 -35.338
723.875 0.804 -36.31 0.592 53.545 0.592 53.545 0.804 -36.31
748.833 0.794 -37.261 0.605 52.59 0.605 52.59 0.794 -37.261
773.792 0.784 -38.189 0.618 51.656 0.618 51.656 0.784 -38.189
798.75 0.774 -39.097 0.631 50.743 0.631 50.743 0.774 -39.097
823.708 0.764 -39.984 0.643 49.852 0.643 49.852 0.764 -39.984
848.667 0.754 -40.85 0.654 48.98 0.654 48.98 0.754 -40.85
873.625 0.745 -41.696 0.665 48.129 0.665 48.129 0.745 -41.696
898.583 0.735 -42.522 0.676 47.297 0.676 47.297 0.735 -42.522
923.542 0.725 -43.33 0.686 46.485 0.686 46.485 0.725 -43.33
948.5 0.716 -44.118 0.696 45.692 0.696 45.692 0.716 -44.118
973.458 0.706 -44.887 0.706 44.917 0.706 44.917 0.706 -44.887
998.417 0.697 -45.639 0.715 44.16 0.715 44.16 0.697 -45.639
1023.375 0.687 -46.373 0.724 43.421 0.724 43.421 0.687 -46.373
1048.333 0.678 -47.09 0.732 42.699 0.732 42.699 0.678 -47.09
1073.292 0.669 -47.79 0.741 41.993 0.741 41.993 0.669 -47.79
1098.25 0.66 -48.473 0.749 41.304 0.749 41.304 0.66 -48.473
1123.208 0.651 -49.141 0.756 40.631 0.756 40.631 0.651 -49.141
1148.167 0.642 -49.793 0.764 39.974 0.764 39.974 0.642 -49.793
1173.125 0.634 -50.43 0.771 39.332 0.771 39.332 0.634 -50.43
1198.083 0.625 -51.052 0.778 38.704 0.778 38.704 0.625 -51.052
1223.042 0.617 -51.66 0.784 38.09 0.784 38.09 0.617 -51.66
1248 0.609 -52.254 0.791 37.491 0.791 37.491 0.609 -52.254
1272.958 0.6 -52.835 0.797 36.905 0.797 36.905 0.6 -52.835
1297.917 0.592 -53.402 0.803 36.332 0.803 36.332 0.592 -53.402
1322.875 0.585 -53.957 0.809 35.772 0.809 35.772 0.585 -53.957
1347.833 0.577 -54.499 0.814 35.224 0.814 35.224 0.577 -54.499
1372.792 0.569 -55.029 0.819 34.689 0.819 34.689 0.569 -55.029
1397.75 0.562 -55.547 0.825 34.165 0.825 34.165 0.562 -55.547
1422.708 0.554 -56.054 0.83 33.652 0.83 33.652 0.554 -56.054
1447.667 0.547 -56.55 0.834 33.151 0.834 33.151 0.547 -56.55
1472.625 0.54 -57.035 0.839 32.66 0.839 32.66 0.54 -57.035
1497.583 0.533 -57.51 0.843 32.18 0.843 32.18 0.533 -57.51
1522.542 0.526 -57.974 0.848 31.71 0.848 31.71 0.526 -57.974
1547.5 0.519 -58.429 0.852 31.249 0.852 31.249 0.519 -58.429
1572.458 0.512 -58.874 0.856 30.799 0.856 30.799 0.512 -58.874
1597.417 0.505 -59.309 0.86 30.357 0.86 30.357 0.505 -59.309
1622.375 0.499 -59.736 0.864 29.925 0.864 29.925 0.499 -59.736
1647.333 0.492 -60.154 0.867 29.501 0.867 29.501 0.492 -60.154
1672.292 0.486 -60.563 0.871 29.086 0.871 29.086 0.486 -60.563
1697.25 0.48 -60.964 0.874 28.679 0.874 28.679 0.48 -60.964
1722.208 0.474 -61.357 0.878 28.28 0.878 28.28 0.474 -61.357
1747.167 0.468 -61.742 0.881 27.889 0.881 27.889 0.468 -61.742
1772.125 0.462 -62.119 0.884 27.506 0.884 27.506 0.462 -62.119
1797.083 0.456 -62.489 0.887 27.13 0.887 27.13 0.456 -62.489
1822.042 0.45 -62.852 0.89 26.761 0.89 26.761 0.45 -62.852
1847 0.445 -63.207 0.893 26.399 0.893 26.399 0.445 -63.207
1871.958 0.439 -63.556 0.895 26.044 0.895 26.044 0.439 -63.556
1896.917 0.434 -63.899 0.898 25.695 0.898 25.695 0.434 -63.899
1921.875 0.428 -64.234 0.901 25.353 0.901 25.353 0.428 -64.234
1946.833 0.423 -64.564 0.903 25.018 0.903 25.018 0.423 -64.564
1971.792 0.418 -64.887 0.906 24.688 0.906 24.688 0.418 -64.887
1996.75 0.413 -65.205 0.908 24.364 0.908 24.364 0.413 -65.205
2021.708 0.407 -65.516 0.91 24.046 0.91 24.046 0.407 -65.516
2046.667 0.402 -65.823 0.912 23.733 0.912 23.733 0.402 -65.823
2071.625 0.398 -66.123 0.914 23.426 0.914 23.426 0.398 -66.123
2096.583 0.393 -66.418 0.917 23.124 0.917 23.124 0.393 -66.418
2121.542 0.388 -66.708 0.919 22.828 0.919 22.828 0.388 -66.708
2146.5 0.383 -66.993 0.92 22.536 0.92 22.536 0.383 -66.993
2171.458 0.379 -67.273 0.922 22.249 0.922 22.249 0.379 -67.273
2196.417 0.374 -67.548 0.924 21.968 0.924 21.968 0.374 -67.548
2221.375 0.37 -67.819 0.926 21.69 0.926 21.69 0.37 -67.819
2246.333 0.365 -68.085 0.928 21.418 0.928 21.418 0.365 -68.085
2271.292 0.361 -68.346 0.929 21.149 0.929 21.149 0.361 -68.346
2296.25 0.357 -68.603 0.931 20.885 0.931 20.885 0.357 -68.603
2321.208 0.352 -68.856 0.933 20.625 0.933 20.625 0.352 -68.856
2346.167 0.348 -69.105 0.934 20.369 0.934 20.369 0.348 -69.105
2371.125 0.344 -69.349 0.936 20.118 0.936 20.118 0.344 -69.349
2396.083 0.34 -69.59 0.937 19.87 0.937 19.87 0.34 -69.59
2421.042 0.336 -69.827 0.939 19.626 0.939 19.626 0.336 -69.827
2446 0.332 -70.06 0.94 19.385 0.94 19.385 0.332 -70.06
2470.958 0.328 -70.289 0.941 19.148 0.941 19.148 0.328 -70.289
2495.917 0.324 -70.515 0.943 18.915 0.943 18.915 0.324 -70.515
2520.875 0.32 -70.737 0.944 18.685 0.944 18.685 0.32 -70.737
2545.833 0.317 -70.956 0.945 18.458 0.945 18.458 0.317 -70.956
2570.792 0.313 -71.172 0.947 18.235 0.947 18.235 0.313 -71.172
2595.75 0.309 -71.384 0.948 18.015 0.948 18.015 0.309 -71.384
2620.708 0.306 -71.593 0.949 17.798 0.949 17.798 0.306 -71.593
2645.667 0.302 -71.8 0.95 17.584 0.95 17.584 0.302 -71.8
2670.625 0.299 -72.002 0.951 17.373 0.951 17.373 0.299 -72.002
2695.583 0.295 -72.202 0.952 17.165 0.952 17.165 0.295 -72.202
2720.542 0.292 -72.4 0.953 16.96 0.953 16.96 0.292 -72.4
2745.5 0.288 -72.594 0.954 16.758 0.954 16.758 0.288 -72.594
2770.458 0.285 -72.785 0.955 16.558 0.955 16.558 0.285 -72.785
2795.417 0.282 -72.974 0.956 16.361 0.956 16.361 0.282 -72.974
2820.375 0.278 -73.16 0.957 16.166 0.957 16.166 0.278 -73.16
2845.333 0.275 -73.343 0.958 15.974 0.958 15.974 0.275 -73.343
2870.292 0.272 -73.524 0.959 15.785 0.959 15.785 0.272 -73.524
2895.25 0.269 -73.703 0.96 15.598 0.96 15.598 0.269 -73.703
2920.208 0.266 -73.878 0.961 15.413 0.961 15.413 0.266 -73.878
2945.167 0.263 -74.052 0.962 15.231 0.962 15.231 0.263 -74.052
2970.125 0.26 -74.223 0.962 15.051 0.962 15.051 0.26 -74.223
2995.083 0.257 -74.392 0.963 14.873 0.963 14.873 0.257 -74.392
3020.042 0.254 -74.558 0.964 14.697 0.964 14.697 0.254 -74.558
3045 0.251 -74.723 0.965 14.523 0.965 14.523 0.251 -74.723
3069.958 0.248 -74.885 0.965 14.352 0.965 14.352 0.248 -74.885
3094.917 0.245 -75.045 0.966 14.182 0.966 14.182 0.245 -75.045
3119.875 0.242 -75.203 0.967 14.015 0.967 14.015 0.242 -75.203
3144.833 0.239 -75.358 0.968 13.849 0.968 13.849 0.239 -75.358
3169.792 0.237 -75.512 0.968 13.686 0.968 13.686 0.237 -75.512
3194.75 0.234 -75.664 0.969 13.524 0.969 13.524 0.234 -75.664
3219.708 0.231 -75.814 0.97 13.364 0.97 13.364 0.231 -75.814
3244.667 0.228 -75.962 0.97 13.206 0.97 13.206 0.228 -75.962
3269.625 0.226 -76.108 0.971 13.05 0.971 13.05 0.226 -76.108
3294.583 0.223 -76.252 0.971 12.895 0.971 12.895 0.223 -76.252
3319.542 0.221 -76.394 0.972 12.742 0.972 12.742 0.221 -76.394
3344.5 0.218 -76.535 0.973 12.591 0.973 12.591 0.218 -76.535
3369.458 0.215 -76.674 0.973 12.441 0.973 12.441 0.215 -76.674
3394.417 0.213 -76.811 0.974 12.293 0.974 12.293 0.213 -76.811
3419.375 0.21 -76.946 0.974 12.147 0.974 12.147 0.21 -76.946
3444.333 0.208 -77.08 0.975 12.002 0.975 12.002 0.208 -77.08
3469.292 0.206 -77.212 0.975 11.858 0.975 11.858 0.206 -77.212
3494.25 0.203 -77.342 0.976 11.716 0.976 11.716 0.203 -77.342
3519.208 0.201 -77.471 0.976 11.576 0.976 11.576 0.201 -77.471
3544.167 0.198 -77.598 0.977 11.437 0.977 11.437 0.198 -77.598
3569.125 0.196 -77.724 0.977 11.299 0.977 11.299 0.196 -77.724
3594.083 0.194 -77.848 0.978 11.163 0.978 11.163 0.194 -77.848
3619.042 0.191 -77.97 0.978 11.027 0.978 11.027 0.191 -77.97
3644 0.189 -78.092 0.979 10.894 0.979 10.894 0.189 -78.092
3668.958 0.187 -78.211 0.979 10.761 0.979 10.761 0.187 -78.211
3693.917 0.185 -78.329 0.979 10.63 0.979 10.63 0.185 -78.329
3718.875 0.182 -78.446 0.98 10.5 0.98 10.5 0.182 -78.446
3743.833 0.18 -78.561 0.98 10.372 0.98 10.372 0.18 -78.561
3768.792 0.178 -78.675 0.981 10.244 0.981 10.244 0.178 -78.675
3793.75 0.176 -78.788 0.981 10.118 0.981 10.118 0.176 -78.788
3818.708 0.174 -78.899 0.981 9.993 0.981 9.993 0.174 -78.899
3843.667 0.171 -79.009 0.982 9.869 0.982 9.869 0.171 -79.009
3868.625 0.169 -79.117 0.982 9.746 0.982 9.746 0.169 -79.117
3893.583 0.167 -79.224 0.983 9.624 0.983 9.624 0.167 -79.224
3918.542 0.165 -79.33 0.983 9.503 0.983 9.503 0.165 -79.33
3943.5 0.163 -79.435 0.983 9.384 0.983 9.384 0.163 -79.435
3968.458 0.161 -79.538 0.984 9.265 0.984 9.265 0.161 -79.538
3993.417 0.159 -79.64 0.984 9.147 0.984 9.147 0.159 -79.64
4018.375 0.157 -79.741 0.984 9.031 0.984 9.031 0.157 -79.741
4043.333 0.155 -79.84 0.985 8.915 0.985 8.915 0.155 -79.84
4068.292 0.153 -79.938 0.985 8.801 0.985 8.801 0.153 -79.938
4093.25 0.151 -80.035 0.985 8.687 0.985 8.687 0.151 -80.035
4118.208 0.149 -80.131 0.985 8.574 0.985 8.574 0.149 -80.131
4143.167 0.147 -80.225 0.986 8.462 0.986 8.462 0.147 -80.225
4168.125 0.145 -80.318 0.986 8.351 0.986 8.351 0.145 -80.318
4193.083 0.143 -80.41 0.986 8.241 0.986 8.241 0.143 -80.41
4218.042 0.142 -80.501 0.987 8.132 0.987 8.132 0.142 -80.501
4243 0.14 -80.591 0.987 8.024 0.987 8.024 0.14 -80.591
4267.958 0.138 -80.679 0.987 7.917 0.987 7.917 0.138 -80.679
4292.917 0.136 -80.766 0.987 7.81 0.987 7.81 0.136 -80.766
4317.875 0.134 -80.852 0.988 7.704 0.988 7.704 0.134 -80.852
4342.833 0.132 -80.937 0.988 7.599 0.988 7.599 0.132 -80.937
4367.792 0.13 -81.021 0.988 7.495 0.988 7.495 0.13 -81.021
4392.75 0.129 -81.103 0.988 7.392 0.988 7.392 0.129 -81.103
4417.708 0.127 -81.184 0.989 7.289 0.989 7.289 0.127 -81.184
4442.667 0.125 -81.264 0.989 7.188 0.989 7.188 0.125 -81.264
4467.625 0.123 -81.343 0.989 7.086 0.989 7.086 0.123 -81.343
4492.583 0.122 -81.42 0.989 6.986 0.989 6.986 0.122 -81.42
4517.542 0.12 -81.497 0.989 6.887 0.989 6.887 0.12 -81.497
4542.5 0.118 -81.572 0.99 6.788 0.99 6.788 0.118 -81.572
4567.458 0.117 -81.646 0.99 6.689 0.99 6.689 0.117 -81.646
4592.417 0.115 -81.719 0.99 6.592 0.99 6.592 0.115 -81.719
4617.375 0.113 -81.79 0.99 6.495 0.99 6.495 0.113 -81.79
4642.333 0.112 -81.86 0.99 6.399 0.99 6.399 0.112 -81.86
4667.292 0.11 -81.929 0.991 6.304 0.991 6.304 0.11 -81.929
4692.25 0.108 -81.997 0.991 6.209 0.991 6.209 0.108 -81.997
4717.208 0.107 -82.063 0.991 6.115 0.991 6.115 0.107 -82.063
4742.167 0.105 -82.128 0.991 6.021 0.991 6.021 0.105 -82.128
4767.125 0.103 -82.192 0.991 5.928 0.991 5.928 0.103 -82.192
4792.083 0.102 -82.254 0.991 5.836 0.991 5.836 0.102 -82.254
4817.042 0.1 -82.315 0.992 5.744 0.992 5.744 0.1 -82.315
4842 0.099 -82.375 0.992 5.653 0.992 5.653 0.099 -82.375
4866.958 0.097 -82.433 0.992 5.562 0.992 5.562 0.097 -82.433
4891.917 0.095 -82.49 0.992 5.472 0.992 5.472 0.095 -82.49
4916.875 0.094 -82.545 0.992 5.383 0.992 5.383 0.094 -82.545
4941.833 0.092 -82.599 0.992 5.294 0.992 5.294 0.092 -82.599
4966.792 0.091 -82.651 0.992 5.206 0.992 5.206 0.091 -82.651
4991.75 0.089 -82.702 0.993 5.118 0.993 5.118 0.089 -82.702
5016.708 0.088 -82.752 0.993 5.031 0.993 5.031 0.088 -82.752
5041.667 0.086 -82.799 0.993 4.945 0.993 4.945 0.086 -82.799
5066.625 0.085 -82.845 0.993 4.859 0.993 4.859 0.085 -82.845
5091.583 0.083 -82.889 0.993 4.773 0.993 4.773 0.083 -82.889
5116.542 0.082 -82.932 0.993 4.688 0.993 4.688 0.082 -82.932
5141.5 0.08 -82.973 0.993 4.603 0.993 4.603 0.08 -82.973
5166.458 0.079 -83.011 0.993 4.519 0.993 4.519 0.079 -83.011
5191.417 0.077 -83.048 0.994 4.436 0.994 4.436 0.077 -83.048
5216.375 0.076 -83.083 0.994 4.353 0.994 4.353 0.076 -83.083
5241.333 0.075 -83.116 0.994 4.27 0.994 4.27 0.075 -83.116
5266.292 0.073 -83.147 0.994 4.188 0.994 4.188 0.073 -83.147
5291.25 0.072 -83.175 0.994 4.106 0.994 4.106 0.072 -83.175
5316.208 0.07 -83.202 0.994 4.025 0.994 4.025 0.07 -83.202
5341.167 0.069 -83.226 0.994 3.944 0.994 3.944 0.069 -83.226
5366.125 0.067 -83.247 0.994 3.864 0.994 3.864 0.067 -83.247
5391.083 0.066 -83.266 0.994 3.784 0.994 3.784 0.066 -83.266
5416.042 0.065 -83.282 0.995 3.705 0.995 3.705 0.065 -83.282
5441 0.063 -83.295 0.995 3.626 0.995 3.626 0.063 -83.295
5465.958 0.062 -83.305 0.995 3.547 0.995 3.547 0.062 -83.305
5490.917 0.061 -83.313 0.995 3.469 0.995 3.469 0.061 -83.313
5515.875 0.059 -83.317 0.995 3.391 0.995 3.391 0.059 -83.317
5540.833 0.058 -83.317 0.995 3.314 0.995 3.314 0.058 -83.317
5565.792 0.057 -83.314 0.995 3.237 0.995 3.237 0.057 -83.314
5590.75 0.055 -83.307 0.995 3.16 0.995 3.16 0.055 -83.307
5615.708 0.054 -83.296 0.995 3.084 0.995 3.084 0.054 -83.296
5640.667 0.053 -83.281 0.995 3.008 0.995 3.008 0.053 -83.281
5665.625 0.051 -83.261 0.995 2.933 0.995 2.933 0.051 -83.261
5690.583 0.05 -83.236 0.995 2.858 0.995 2.858 0.05 -83.236
5715.542 0.049 -83.206 0.995 2.783 0.995 2.783 0.049 -83.206
5740.5 0.047 -83.171 0.995 2.709 0.995 2.709 0.047 -83.171
5765.458 0.046 -83.129 0.996 2.635 0.996 2.635 0.046 -83.129
5790.417 0.045 -83.081 0.996 2.561 0.996 2.561 0.045 -83.081
5815.375 0.044 -83.027 0.996 2.488 0.996 2.488 0.044 -83.027
5840.333 0.042 -82.965 0.996 2.415 0.996 2.415 0.042 -82.965
5865.292 0.041 -82.895 0.996 2.343 0.996 2.343 0.041 -82.895
5890.25 0.04 -82.816 0.996 2.271 0.996 2.271 0.04 -82.816
5915.208 0.039 -82.728 0.996 2.199 0.996 2.199 0.039 -82.728
5940.167 0.037 -82.63 0.996 2.128 0.996 2.128 0.037 -82.63
5965.125 0.036 -82.521 0.996 2.056 0.996 2.056 0.036 -82.521
5990.083 0.035 -82.399 0.996 1.986 0.996 1.986 0.035 -82.399
6015.042 0.034 -82.264 0.996 1.915 0.996 1.915 0.034 -82.264
6040 0.032 -82.114 0.996 1.845 0.996 1.845 0.032 -82.114
6064.958 0.031 -81.948 0.996 1.775 0.996 1.775 0.031 -81.948
6089.917 0.03 -81.764 0.996 1.705 0.996 1.705 0.03 -81.764
6114.875 0.029 -81.559 0.996 1.636 0.996 1.636 0.029 -81.559
6139.833 0.028 -81.331 0.996 1.567 0.996 1.567 0.028 -81.331
6164.792 0.026 -81.078 0.996 1.499 0.996 1.499 0.026 -81.078
6189.75 0.025 -80.796 0.996 1.43 0.996 1.43 0.025 -80.796
6214.708 0.024 -80.481 0.996 1.362 0.996 1.362 0.024 -80.481
6239.667 0.023 -80.128 0.996 1.295 0.996 1.295 0.023 -80.128
6264.625 0.022 -79.731 0.996 1.227 0.996 1.227 0.022 -79.731
6289.583 0.021 -79.284 0.996 1.16 0.996 1.16 0.021 -79.284
6314.542 0.019 -78.777 0.996 1.093 0.996 1.093 0.019 -78.777
6339.5 0.018 -78.201 0.996 1.026 0.996 1.026 0.018 -78.201
6364.458 0.017 -77.542 0.996 0.96 0.996 0.96 0.017 -77.542
6389.417 0.016 -76.783 0.996 0.894 0.996 0.894 0.016 -76.783
6414.375 0.015 -75.903 0.996 0.828 0.996 0.828 0.015 -75.903
6439.333 0.014 -74.874 0.997 0.763 0.997 0.763 0.014 -74.874
6464.292 0.013 -73.657 0.997 0.697 0.997 0.697 0.013 -73.657
6489.25 0.012 -72.204 0.997 0.632 0.997 0.632 0.012 -72.204
6514.208 0.01 -70.444 0.997 0.568 0.997 0.568 0.01 -70.444
6539.167 9.418e-3 -68.279 0.997 0.503 0.997 0.503 9.418e-3 -68.279
6564.125 8.382e-3 -65.568 0.997 0.439 0.997 0.439 8.382e-3 -65.568
6589.083 7.376e-3 -62.101 0.997 0.375 0.997 0.375 7.376e-3 -62.101
6614.042 6.41e-3 -57.563 0.997 0.311 0.997 0.311 6.41e-3 -57.563
6639 5.503e-3 -51.477 0.997 0.248 0.997 0.248 5.503e-3 -51.477
6663.958 4.686e-3 -43.146 0.997 0.184 0.997 0.184 4.686e-3 -43.146
6688.917 4.012e-3 -31.702 0.997 0.121 0.997 0.121 4.012e-3 -31.702
6713.875 3.558e-3 -16.59 0.997 0.058 0.997 0.058 3.558e-3 -16.59
6738.833 3.409e-3 1.217 0.997 -4.162e-3 0.997 -4.162e-3 3.409e-3 1.217
6763.792 3.601e-3 18.736 0.997 -0.066 0.997 -0.066 3.601e-3 18.736
6788.75 4.081e-3 33.235 0.997 -0.129 0.997 -0.129 4.081e-3 33.235
6813.708 4.761e-3 44.094 0.997 -0.19 0.997 -0.19 4.761e-3 44.094
6838.667 5.566e-3 51.987 0.997 -0.252 0.997 -0.252 5.566e-3 51.987
6863.625 6.447e-3 57.77 0.997 -0.314 0.997 -0.314 6.447e-3 57.77
6888.583 7.376e-3 62.101 0.997 -0.375 0.997 -0.375 7.376e-3 62.101
6913.542 8.334e-3 65.424 0.997 -0.436 0.997 -0.436 8.334e-3 65.424
6938.5 9.313e-3 68.034 0.997 -0.497 0.997 -0.497 9.313e-3 68.034
6963.458 0.01 70.125 0.997 -0.557 0.997 -0.557 0.01 70.125
6988.417 0.011 71.832 0.997 -0.617 0.997 -0.617 0.011 71.832
7013.375 0.012 73.245 0.997 -0.678 0.997 -0.678 0.012 73.245
7038.333 0.013 74.432 0.997 -0.738 0.997 -0.738 0.013 74.432
7063.292 0.014 75.44 0.996 -0.797 0.996 -0.797 0.014 75.44
7088.25 0.015 76.304 0.996 -0.857 0.996 -0.857 0.015 76.304
7113.208 0.016 77.051 0.996 -0.916 0.996 -0.916 0.016 77.051
7138.167 0.017 77.702 0.996 -0.975 0.996 -0.975 0.017 77.702
7163.125 0.018 78.273 0.996 -1.034 0.996 -1.034 0.018 78.273
7188.083 0.019 78.777 0.996 -1.093 0.996 -1.093 0.019 78.777
7213.042 0.02 79.224 0.996 -1.152 0.996 -1.152 0.02 79.224
7238 0.021 79.622 0.996 -1.21 0.996 -1.21 0.021 79.622
7262.958 0.022 79.978 0.996 -1.268 0.996 -1.268 0.022 79.978
7287.917 0.023 80.297 0.996 -1.326 0.996 -1.326 0.023 80.297
7312.875 0.024 80.585 0.996 -1.384 0.996 -1.384 0.024 80.585
7337.833 0.025 80.844 0.996 -1.441 0.996 -1.441 0.025 80.844
7362.792 0.026 81.079 0.996 -1.499 0.996 -1.499 0.026 81.079
7387.75 0.027 81.292 0.996 -1.556 0.996 -1.556 0.027 81.292
7412.708 0.028 81.486 0.996 -1.613 0.996 -1.613 0.028 81.486
7437.667 0.029 81.662 0.996 -1.67 0.996 -1.67 0.029 81.662
7462.625 0.03 81.823 0.996 -1.727 0.996 -1.727 0.03 81.823
7487.583 0.031 81.969 0.996 -1.783 0.996 -1.783 0.031 81.969
7512.542 0.032 82.103 0.996 -1.84 0.996 -1.84 0.032 82.103
7537.5 0.033 82.225 0.996 -1.896 0.996 -1.896 0.033 82.225
7562.458 0.034 82.337 0.996 -1.952 0.996 -1.952 0.034 82.337
7587.417 0.035 82.439 0.996 -2.008 0.996 -2.008 0.035 82.439
7612.375 0.036 82.532 0.996 -2.064 0.996 -2.064 0.036 82.532
7637.333 0.037 82.618 0.996 -2.119 0.996 -2.119 0.037 82.618
7662.292 0.038 82.696 0.996 -2.175 0.996 -2.175 0.038 82.696
7687.25 0.039 82.767 0.996 -2.23 0.996 -2.23 0.039 82.767
7712.208 0.04 82.832 0.996 -2.285 0.996 -2.285 0.04 82.832
7737.167 0.041 82.891 0.996 -2.34 0.996 -2.34 0.041 82.891
7762.125 0.042 82.945 0.996 -2.394 0.996 -2.394 0.042 82.945
7787.083 0.043 82.994 0.996 -2.449 0.996 -2.449 0.043 82.994
7812.042 0.044 83.039 0.996 -2.503 0.996 -2.503 0.044 83.039
7837 0.045 83.079 0.996 -2.558 0.996 -2.558 0.045 83.079
7861.958 0.046 83.115 0.996 -2.612 0.996 -2.612 0.046 83.115
7886.917 0.047 83.147 0.996 -2.666 0.996 -2.666 0.047 83.147
7911.875 0.048 83.176 0.995 -2.72 0.995 -2.72 0.048 83.176
7936.833 0.049 83.202 0.995 -2.773 0.995 -2.773 0.049 83.202
7961.792 0.049 83.224 0.995 -2.827 0.995 -2.827 0.049 83.224
7986.75 0.05 83.244 0.995 -2.88 0.995 -2.88 0.05 83.244
8011.708 0.051 83.261 0.995 -2.934 0.995 -2.934 0.051 83.261
8036.667 0.052 83.275 0.995 -2.987 0.995 -2.987 0.052 83.275
8061.625 0.053 83.288 0.995 -3.04 0.995 -3.04 0.053 83.288
8086.583 0.054 83.297 0.995 -3.092 0.995 -3.092 0.054 83.297
8111.542 0.055 83.305 0.995 -3.145 0.995 -3.145 0.055 83.305
8136.5 0.056 83.311 0.995 -3.198 0.995 -3.198 0.056 83.311
8161.458 0.057 83.315 0.995 -3.25 0.995 -3.25 0.057 83.315
8186.417 0.058 83.317 0.995 -3.302 0.995 -3.302 0.058 83.317
