# MHZ S MA R 50

50 0.999 -2.159 0.038 87.831 0.038 87.831 0.999 -2.159
74.958 0.998 -3.235 0.056 86.75 0.056 86.75 0.998 -3.235
99.917 0.997 -4.309 0.075 85.672 0.075 85.672 0.997 -4.309
124.875 0.996 -5.38 0.094 84.596 0.094 84.596 0.996 -5.38
149.833 0.994 -6.448 0.112 83.523 0.112 83.523 0.994 -6.448
174.792 0.991 -7.511 0.131 82.455 0.131 82.455 0.991 -7.511
199.75 0.989 -8.57 0.149 81.391 0.149 81.391 0.989 -8.57
224.708 0.986 -9.623 0.167 80.333 0.167 80.333 0.986 -9.623
249.667 0.983 -10.67 0.185 79.281 0.185 79.281 0.983 -10.67
274.625 0.979 -11.711 0.203 78.235 0.203 78.235 0.979 -11.711
299.583 0.975 -12.745 0.221 77.197 0.221 77.197 0.975 -12.745
324.542 0.971 -13.771 0.238 76.166 0.238 76.166 0.971 -13.771
349.5 0.967 -14.788 0.255 75.143 0.255 75.143 0.967 -14.788
374.458 0.962 -15.797 0.272 74.129 0.272 74.129 0.962 -15.797
399.417 0.957 -16.797 0.289 73.125 0.289 73.125 0.957 -16.797
424.375 0.952 -17.788 0.305 72.129 0.305 72.129 0.952 -17.788
449.333 0.946 -18.768 0.322 71.144 0.322 71.144 0.946 -18.768
474.292 0.941 -19.738 0.338 70.169 0.338 70.169 0.941 -19.738
499.25 0.935 -20.697 0.353 69.205 0.353 69.205 0.935 -20.697
524.208 0.929 -21.646 0.369 68.251 0.369 68.251 0.929 -21.646
549.167 0.923 -22.583 0.384 67.309 0.384 67.309 0.923 -22.583
574.125 0.916 -23.509 0.399 66.378 0.399 66.378 0.916 -23.509
599.083 0.91 -24.423 0.413 65.459 0.413 65.459 0.91 -24.423
624.042 0.903 -25.325 0.428 64.552 0.428 64.552 0.903 -25.325
649 0.896 -26.215 0.442 63.657 0.442 63.657 0.896 -26.215
673.958 0.889 -27.093 0.455 62.774 0.455 62.774 0.889 -27.093
698.917 0.882 -27.959 0.469 61.903 0.469 61.903 0.882 -27.959
723.875 0.875 -28.813 0.482 61.045 0.482 61.045 0.875 -28.813
748.833 0.868 -29.654 0.495 60.199 0.495 60.199 0.868 -29.654
773.792 0.86 -30.482 0.507 59.365 0.507 59.365 0.86 -30.482
798.75 0.853 -31.298 0.519 58.544 0.519 58.544 0.853 -31.298
823.708 0.846 -32.102 0.531 57.736 0.531 57.736 0.846 -32.102
848.667 0.838 -32.893 0.543 56.939 0.543 56.939 0.838 -32.893
873.625 0.831 -33.671 0.554 56.156 0.554 56.156 0.831 -33.671
898.583 0.823 -34.438 0.566 55.384 0.566 55.384 0.823 -34.438
923.542 0.815 -35.191 0.576 54.625 0.576 54.625 0.815 -35.191
948.5 0.808 -35.933 0.587 53.879 0.587 53.879 0.808 -35.933
973.458 0.8 -36.663 0.597 53.144 0.597 53.144 0.8 -36.663
998.417 0.793 -37.38 0.607 52.421 0.607 52.421 0.793 -37.38
1023.375 0.785 -38.086 0.617 51.711 0.617 51.711 0.785 -38.086
1048.333 0.777 -38.779 0.626 51.012 0.626 51.012 0.777 -38.779
1073.292 0.77 -39.461 0.636 50.325 0.636 50.325 0.77 -39.461
1098.25 0.762 -40.132 0.645 49.649 0.645 49.649 0.762 -40.132
1123.208 0.755 -40.791 0.653 48.985 0.653 48.985 0.755 -40.791
1148.167 0.747 -41.439 0.662 48.332 0.662 48.332 0.747 -41.439
1173.125 0.74 -42.076 0.67 47.69 0.67 47.69 0.74 -42.076
1198.083 0.732 -42.701 0.678 47.059 0.678 47.059 0.732 -42.701
1223.042 0.725 -43.317 0.686 46.438 0.686 46.438 0.725 -43.317
1248 0.717 -43.921 0.694 45.828 0.694 45.828 0.717 -43.921
1272.958 0.71 -44.515 0.701 45.229 0.701 45.229 0.71 -44.515
1297.917 0.703 -45.099 0.708 44.64 0.708 44.64 0.703 -45.099
1322.875 0.695 -45.673 0.715 44.061 0.715 44.061 0.695 -45.673
1347.833 0.688 -46.236 0.722 43.492 0.722 43.492 0.688 -46.236
1372.792 0.681 -46.79 0.729 42.932 0.729 42.932 0.681 -46.79
1397.75 0.674 -47.335 0.735 42.383 0.735 42.383 0.674 -47.335
1422.708 0.667 -47.87 0.742 41.842 0.742 41.842 0.667 -47.87
1447.667 0.66 -48.396 0.748 41.311 0.748 41.311 0.66 -48.396
1472.625 0.653 -48.913 0.754 40.788 0.754 40.788 0.653 -48.913
1497.583 0.646 -49.421 0.76 40.275 0.76 40.275 0.646 -49.421
1522.542 0.64 -49.92 0.765 39.77 0.765 39.77 0.64 -49.92
1547.5 0.633 -50.411 0.771 39.274 0.771 39.274 0.633 -50.411
1572.458 0.626 -50.893 0.776 38.786 0.776 38.786 0.626 -50.893
1597.417 0.62 -51.368 0.781 38.306 0.781 38.306 0.62 -51.368
1622.375 0.613 -51.834 0.786 37.834 0.786 37.834 0.613 -51.834
1647.333 0.607 -52.292 0.791 37.37 0.791 37.37 0.607 -52.292
1672.292 0.601 -52.743 0.796 36.914 0.796 36.914 0.601 -52.743
1697.25 0.594 -53.186 0.801 36.465 0.801 36.465 0.594 -53.186
1722.208 0.588 -53.622 0.805 36.024 0.805 36.024 0.588 -53.622
1747.167 0.582 -54.05 0.81 35.589 0.81 35.589 0.582 -54.05
1772.125 0.576 -54.472 0.814 35.162 0.814 35.162 0.576 -54.472
1797.083 0.57 -54.886 0.818 34.742 0.818 34.742 0.57 -54.886
1822.042 0.564 -55.294 0.822 34.328 0.822 34.328 0.564 -55.294
1847 0.558 -55.695 0.826 33.921 0.826 33.921 0.558 -55.695
1871.958 0.552 -56.09 0.83 33.521 0.83 33.521 0.552 -56.09
1896.917 0.547 -56.478 0.834 33.127 0.834 33.127 0.547 -56.478
1921.875 0.541 -56.86 0.837 32.739 0.837 32.739 0.541 -56.86
1946.833 0.535 -57.236 0.841 32.357 0.841 32.357 0.535 -57.236
1971.792 0.53 -57.606 0.844 31.981 0.844 31.981 0.53 -57.606
1996.75 0.524 -57.97 0.848 31.611 0.848 31.611 0.524 -57.97
2021.708 0.519 -58.328 0.851 31.247 0.851 31.247 0.519 -58.328
2046.667 0.513 -58.681 0.854 30.888 0.854 30.888 0.513 -58.681
2071.625 0.508 -59.029 0.857 30.534 0.857 30.534 0.508 -59.029
2096.583 0.503 -59.37 0.861 30.186 0.861 30.186 0.503 -59.37
2121.542 0.498 -59.707 0.863 29.843 0.863 29.843 0.498 -59.707
2146.5 0.493 -60.039 0.866 29.506 0.866 29.506 0.493 -60.039
2171.458 0.487 -60.365 0.869 29.173 0.869 29.173 0.487 -60.365
2196.417 0.482 -60.687 0.872 28.845 0.872 28.845 0.482 -60.687
2221.375 0.478 -61.003 0.875 28.522 0.875 28.522 0.478 -61.003
2246.333 0.473 -61.315 0.877 28.204 0.877 28.204 0.473 -61.315
2271.292 0.468 -61.623 0.88 27.89 0.88 27.89 0.468 -61.623
2296.25 0.463 -61.926 0.882 27.581 0.882 27.581 0.463 -61.926
2321.208 0.458 -62.224 0.885 27.276 0.885 27.276 0.458 -62.224
2346.167 0.454 -62.518 0.887 26.975 0.887 26.975 0.454 -62.518
2371.125 0.449 -62.808 0.89 26.679 0.89 26.679 0.449 -62.808
2396.083 0.444 -63.094 0.892 26.387 0.892 26.387 0.444 -63.094
2421.042 0.44 -63.375 0.894 26.098 0.894 26.098 0.44 -63.375
2446 0.435 -63.653 0.896 25.814 0.896 25.814 0.435 -63.653
2470.958 0.431 -63.926 0.898 25.534 0.898 25.534 0.431 -63.926
2495.917 0.427 -64.196 0.9 25.257 0.9 25.257 0.427 -64.196
2520.875 0.422 -64.462 0.902 24.984 0.902 24.984 0.422 -64.462
2545.833 0.418 -64.725 0.904 24.715 0.904 24.715 0.418 -64.725
2570.792 0.414 -64.983 0.906 24.449 0.906 24.449 0.414 -64.983
2595.75 0.41 -65.239 0.908 24.187 0.908 24.187 0.41 -65.239
2620.708 0.406 -65.49 0.91 23.929 0.91 23.929 0.406 -65.49
2645.667 0.402 -65.739 0.912 23.673 0.912 23.673 0.402 -65.739
2670.625 0.398 -65.984 0.913 23.421 0.913 23.421 0.398 -65.984
2695.583 0.394 -66.226 0.915 23.172 0.915 23.172 0.394 -66.226
2720.542 0.39 -66.464 0.917 22.926 0.917 22.926 0.39 -66.464
2745.5 0.386 -66.699 0.918 22.684 0.918 22.684 0.386 -66.699
2770.458 0.382 -66.932 0.92 22.444 0.92 22.444 0.382 -66.932
2795.417 0.378 -67.161 0.922 22.207 0.922 22.207 0.378 -67.161
2820.375 0.374 -67.387 0.923 21.974 0.923 21.974 0.374 -67.387
2845.333 0.37 -67.611 0.925 21.743 0.925 21.743 0.37 -67.611
2870.292 0.367 -67.831 0.926 21.515 0.926 21.515 0.367 -67.831
2895.25 0.363 -68.049 0.928 21.289 0.928 21.289 0.363 -68.049
2920.208 0.359 -68.264 0.929 21.067 0.929 21.067 0.359 -68.264
2945.167 0.356 -68.476 0.93 20.847 0.93 20.847 0.356 -68.476
2970.125 0.352 -68.686 0.932 20.629 0.932 20.629 0.352 -68.686
2995.083 0.349 -68.893 0.933 20.414 0.933 20.414 0.349 -68.893
3020.042 0.345 -69.097 0.934 20.202 0.934 20.202 0.345 -69.097
3045 0.342 -69.299 0.936 19.992 0.936 19.992 0.342 -69.299
3069.958 0.339 -69.499 0.937 19.784 0.937 19.784 0.339 -69.499
3094.917 0.335 -69.696 0.938 19.579 0.938 19.579 0.335 -69.696
3119.875 0.332 -69.891 0.939 19.376 0.939 19.376 0.332 -69.891
3144.833 0.328 -70.083 0.94 19.175 0.94 19.175 0.328 -70.083
3169.792 0.325 -70.273 0.941 18.977 0.941 18.977 0.325 -70.273
3194.75 0.322 -70.461 0.942 18.781 0.942 18.781 0.322 -70.461
3219.708 0.319 -70.647 0.944 18.587 0.944 18.587 0.319 -70.647
3244.667 0.316 -70.83 0.945 18.395 0.945 18.395 0.316 -70.83
3269.625 0.312 -71.011 0.946 18.205 0.946 18.205 0.312 -71.011
3294.583 0.309 -71.191 0.947 18.017 0.947 18.017 0.309 -71.191
3319.542 0.306 -71.368 0.948 17.831 0.948 17.831 0.306 -71.368
3344.5 0.303 -71.543 0.949 17.647 0.949 17.647 0.303 -71.543
3369.458 0.3 -71.716 0.95 17.465 0.95 17.465 0.3 -71.716
3394.417 0.297 -71.887 0.951 17.284 0.951 17.284 0.297 -71.887
3419.375 0.294 -72.056 0.951 17.106 0.951 17.106 0.294 -72.056
3444.333 0.291 -72.224 0.952 16.929 0.952 16.929 0.291 -72.224
3469.292 0.288 -72.389 0.953 16.755 0.953 16.755 0.288 -72.389
3494.25 0.285 -72.553 0.954 16.582 0.954 16.582 0.285 -72.553
3519.208 0.283 -72.714 0.955 16.41 0.955 16.41 0.283 -72.714
3544.167 0.28 -72.874 0.956 16.241 0.956 16.241 0.28 -72.874
3569.125 0.277 -73.032 0.957 16.073 0.957 16.073 0.277 -73.032
3594.083 0.274 -73.189 0.957 15.906 0.957 15.906 0.274 -73.189
3619.042 0.271 -73.344 0.958 15.742 0.958 15.742 0.271 -73.344
3644 0.269 -73.497 0.959 15.579 0.959 15.579 0.269 -73.497
3668.958 0.266 -73.648 0.96 15.417 0.96 15.417 0.266 -73.648
3693.917 0.263 -73.798 0.96 15.257 0.96 15.257 0.263 -73.798
3718.875 0.261 -73.946 0.961 15.098 0.961 15.098 0.261 -73.946
3743.833 0.258 -74.092 0.962 14.941 0.962 14.941 0.258 -74.092
3768.792 0.255 -74.237 0.963 14.786 0.963 14.786 0.255 -74.237
3793.75 0.253 -74.381 0.963 14.632 0.963 14.632 0.253 -74.381
3818.708 0.25 -74.523 0.964 14.479 0.964 14.479 0.25 -74.523
3843.667 0.247 -74.663 0.965 14.327 0.965 14.327 0.247 -74.663
3868.625 0.245 -74.802 0.965 14.177 0.965 14.177 0.245 -74.802
3893.583 0.242 -74.94 0.966 14.029 0.966 14.029 0.242 -74.94
3918.542 0.24 -75.076 0.966 13.881 0.966 13.881 0.24 -75.076
3943.5 0.237 -75.21 0.967 13.735 0.967 13.735 0.237 -75.21
3968.458 0.235 -75.343 0.968 13.59 0.968 13.59 0.235 -75.343
3993.417 0.233 -75.475 0.968 13.447 0.968 13.447 0.233 -75.475
4018.375 0.23 -75.606 0.969 13.304 0.969 13.304 0.23 -75.606
4043.333 0.228 -75.735 0.969 13.163 0.969 13.163 0.228 -75.735
4068.292 0.225 -75.862 0.97 13.023 0.97 13.023 0.225 -75.862
4093.25 0.223 -75.989 0.97 12.884 0.97 12.884 0.223 -75.989
4118.208 0.221 -76.114 0.971 12.746 0.971 12.746 0.221 -76.114
4143.167 0.218 -76.238 0.971 12.61 0.971 12.61 0.218 -76.238
4168.125 0.216 -76.36 0.972 12.475 0.972 12.475 0.216 -76.36
4193.083 0.214 -76.481 0.972 12.34 0.972 12.34 0.214 -76.481
4218.042 0.211 -76.601 0.973 12.207 0.973 12.207 0.211 -76.601
4243 0.209 -76.72 0.973 12.075 0.973 12.075 0.209 -76.72
4267.958 0.207 -76.838 0.974 11.944 0.974 11.944 0.207 -76.838
4292.917 0.205 -76.954 0.974 11.814 0.974 11.814 0.205 -76.954
4317.875 0.203 -77.069 0.975 11.685 0.975 11.685 0.203 -77.069
4342.833 0.2 -77.183 0.975 11.557 0.975 11.557 0.2 -77.183
4367.792 0.198 -77.295 0.976 11.43 0.976 11.43 0.198 -77.295
4392.75 0.196 -77.407 0.976 11.303 0.976 11.303 0.196 -77.407
4417.708 0.194 -77.517 0.977 11.178 0.977 11.178 0.194 -77.517
4442.667 0.192 -77.626 0.977 11.054 0.977 11.054 0.192 -77.626
4467.625 0.19 -77.734 0.977 10.931 0.977 10.931 0.19 -77.734
4492.583 0.188 -77.841 0.978 10.809 0.978 10.809 0.188 -77.841
4517.542 0.185 -77.947 0.978 10.687 0.978 10.687 0.185 -77.947
4542.5 0.183 -78.052 0.979 10.567 0.979 10.567 0.183 -78.052
4567.458 0.181 -78.155 0.979 10.447 0.979 10.447 0.181 -78.155
4592.417 0.179 -78.257 0.979 10.328 0.979 10.328 0.179 -78.257
4617.375 0.177 -78.359 0.98 10.21 0.98 10.21 0.177 -78.359
4642.333 0.175 -78.459 0.98 10.093 0.98 10.093 0.175 -78.459
4667.292 0.173 -78.558 0.98 9.977 0.98 9.977 0.173 -78.558
4692.25 0.171 -78.656 0.981 9.861 0.981 9.861 0.171 -78.656
4717.208 0.169 -78.753 0.981 9.747 0.981 9.747 0.169 -78.753
4742.167 0.167 -78.848 0.981 9.633 0.981 9.633 0.167 -78.848
4767.125 0.165 -78.943 0.982 9.52 0.982 9.52 0.165 -78.943
4792.083 0.164 -79.037 0.982 9.407 0.982 9.407 0.164 -79.037
4817.042 0.162 -79.129 0.982 9.296 0.982 9.296 0.162 -79.129
4842 0.16 -79.221 0.983 9.185 0.983 9.185 0.16 -79.221
4866.958 0.158 -79.311 0.983 9.075 0.983 9.075 0.158 -79.311
4891.917 0.156 -79.401 0.983 8.966 0.983 8.966 0.156 -79.401
4916.875 0.154 -79.489 0.984 8.857 0.984 8.857 0.154 -79.489
4941.833 0.152 -79.576 0.984 8.749 0.984 8.749 0.152 -79.576
4966.792 0.15 -79.662 0.984 8.642 0.984 8.642 0.15 -79.662
4991.75 0.148 -79.747 0.984 8.536 0.984 8.536 0.148 -79.747
5016.708 0.147 -79.831 0.985 8.43 0.985 8.43 0.147 -79.831
5041.667 0.145 -79.914 0.985 8.325 0.985 8.325 0.145 -79.914
5066.625 0.143 -79.996 0.985 8.22 0.985 8.22 0.143 -79.996
5091.583 0.141 -80.076 0.986 8.116 0.986 8.116 0.141 -80.076
5116.542 0.139 -80.156 0.986 8.013 0.986 8.013 0.139 -80.156
5141.5 0.138 -80.235 0.986 7.911 0.986 7.911 0.138 -80.235
5166.458 0.136 -80.312 0.986 7.809 0.986 7.809 0.136 -80.312
5191.417 0.134 -80.388 0.987 7.707 0.987 7.707 0.134 -80.388
5216.375 0.132 -80.463 0.987 7.607 0.987 7.607 0.132 -80.463
5241.333 0.131 -80.537 0.987 7.507 0.987 7.507 0.131 -80.537
5266.292 0.129 -80.61 0.987 7.407 0.987 7.407 0.129 -80.61
5291.25 0.127 -80.682 0.987 7.308 0.987 7.308 0.127 -80.682
5316.208 0.126 -80.753 0.988 7.21 0.988 7.21 0.126 -80.753
5341.167 0.124 -80.822 0.988 7.112 0.988 7.112 0.124 -80.822
5366.125 0.122 -80.891 0.988 7.015 0.988 7.015 0.122 -80.891
5391.083 0.121 -80.958 0.988 6.918 0.988 6.918 0.121 -80.958
5416.042 0.119 -81.024 0.988 6.822 0.988 6.822 0.119 -81.024
5441 0.117 -81.088 0.989 6.727 0.989 6.727 0.117 -81.088
5465.958 0.116 -81.152 0.989 6.632 0.989 6.632 0.116 -81.152
5490.917 0.114 -81.214 0.989 6.537 0.989 6.537 0.114 -81.214
5515.875 0.112 -81.275 0.989 6.444 0.989 6.444 0.112 -81.275
5540.833 0.111 -81.334 0.989 6.35 0.989 6.35 0.111 -81.334
5565.792 0.109 -81.393 0.99 6.257 0.99 6.257 0.109 -81.393
5590.75 0.107 -81.449 0.99 6.165 0.99 6.165 0.107 -81.449
5615.708 0.106 -81.505 0.99 6.073 0.99 6.073 0.106 -81.505
5640.667 0.104 -81.559 0.99 5.982 0.99 5.982 0.104 -81.559
5665.625 0.103 -81.612 0.99 5.891 0.99 5.891 0.103 -81.612
5690.583 0.101 -81.663 0.99 5.8 0.99 5.8 0.101 -81.663
5715.542 0.1 -81.713 0.991 5.711 0.991 5.711 0.1 -81.713
5740.5 0.098 -81.761 0.991 5.621 0.991 5.621 0.098 -81.761
5765.458 0.097 -81.808 0.991 5.532 0.991 5.532 0.097 -81.808
5790.417 0.095 -81.853 0.991 5.444 0.991 5.444 0.095 -81.853
5815.375 0.093 -81.896 0.991 5.356 0.991 5.356 0.093 -81.896
5840.333 0.092 -81.938 0.991 5.268 0.991 5.268 0.092 -81.938
5865.292 0.09 -81.978 0.991 5.181 0.991 5.181 0.09 -81.978
5890.25 0.089 -82.016 0.992 5.094 0.992 5.094 0.089 -82.016
5915.208 0.087 -82.052 0.992 5.008 0.992 5.008 0.087 -82.052
5940.167 0.086 -82.087 0.992 4.922 0.992 4.922 0.086 -82.087
5965.125 0.084 -82.119 0.992 4.836 0.992 4.836 0.084 -82.119
5990.083 0.083 -82.15 0.992 4.751 0.992 4.751 0.083 -82.15
6015.042 0.081 -82.178 0.992 4.667 0.992 4.667 0.081 -82.178
6040 0.08 -82.204 0.992 4.583 0.992 4.583 0.08 -82.204
6064.958 0.079 -82.228 0.992 4.499 0.992 4.499 0.079 -82.228
6089.917 0.077 -82.249 0.993 4.415 0.993 4.415 0.077 -82.249
6114.875 0.076 -82.268 0.993 4.332 0.993 4.332 0.076 -82.268
6139.833 0.074 -82.285 0.993 4.25 0.993 4.25 0.074 -82.285
6164.792 0.073 -82.298 0.993 4.168 0.993 4.168 0.073 -82.298
6189.75 0.071 -82.309 0.993 4.086 0.993 4.086 0.071 -82.309
6214.708 0.07 -82.318 0.993 4.004 0.993 4.004 0.07 -82.318
6239.667 0.069 -82.323 0.993 3.923 0.993 3.923 0.069 -82.323
6264.625 0.067 -82.324 0.993 3.843 0.993 3.843 0.067 -82.324
6289.583 0.066 -82.323 0.993 3.762 0.993 3.762 0.066 -82.323
6314.542 0.064 -82.318 0.993 3.682 0.993 3.682 0.064 -82.318
6339.5 0.063 -82.309 0.994 3.603 0.994 3.603 0.063 -82.309
6364.458 0.062 -82.297 0.994 3.523 0.994 3.523 0.062 -82.297
6389.417 0.06 -82.28 0.994 3.444 0.994 3.444 0.06 -82.28
6414.375 0.059 -82.259 0.994 3.366 0.994 3.366 0.059 -82.259
6439.333 0.058 -82.233 0.994 3.288 0.994 3.288 0.058 -82.233
6464.292 0.056 -82.202 0.994 3.21 0.994 3.21 0.056 -82.202
6489.25 0.055 -82.167 0.994 3.132 0.994 3.132 0.055 -82.167
6514.208 0.053 -82.125 0.994 3.055 0.994 3.055 0.053 -82.125
6539.167 0.052 -82.078 0.994 2.978 0.994 2.978 0.052 -82.078
6564.125 0.051 -82.025 0.994 2.902 0.994 2.902 0.051 -82.025
6589.083 0.049 -81.965 0.994 2.825 0.994 2.825 0.049 -81.965
6614.042 0.048 -81.897 0.994 2.749 0.994 2.749 0.048 -81.897
6639 0.047 -81.822 0.994 2.674 0.994 2.674 0.047 -81.822
6663.958 0.046 -81.739 0.994 2.599 0.994 2.599 0.046 -81.739
6688.917 0.044 -81.647 0.995 2.524 0.995 2.524 0.044 -81.647
6713.875 0.043 -81.544 0.995 2.449 0.995 2.449 0.043 -81.544
6738.833 0.042 -81.432 0.995 2.374 0.995 2.374 0.042 -81.432
6763.792 0.04 -81.308 0.995 2.3 0.995 2.3 0.04 -81.308
6788.75 0.039 -81.172 0.995 2.227 0.995 2.227 0.039 -81.172
6813.708 0.038 -81.022 0.995 2.153 0.995 2.153 0.038 -81.022
6838.667 0.037 -80.857 0.995 2.08 0.995 2.08 0.037 -80.857
6863.625 0.035 -80.676 0.995 2.007 0.995 2.007 0.035 -80.676
6888.583 0.034 -80.476 0.995 1.934 0.995 1.934 0.034 -80.476
6913.542 0.033 -80.257 0.995 1.862 0.995 1.862 0.033 -80.257
6938.5 0.032 -80.016 0.995 1.79 0.995 1.79 0.032 -80.016
6963.458 0.03 -79.75 0.995 1.718 0.995 1.718 0.03 -79.75
6988.417 0.029 -79.457 0.995 1.647 0.995 1.647 0.029 -79.457
7013.375 0.028 -79.133 0.995 1.575 0.995 1.575 0.028 -79.133
7038.333 0.027 -78.773 0.995 1.504 0.995 1.504 0.027 -78.773
7063.292 0.025 -78.374 0.995 1.434 0.995 1.434 0.025 -78.374
7088.25 0.024 -77.929 0.995 1.363 0.995 1.363 0.024 -77.929
7113.208 0.023 -77.433 0.995 1.293 0.995 1.293 0.023 -77.433
7138.167 0.022 -76.876 0.995 1.223 0.995 1.223 0.022 -76.876
7163.125 0.021 -76.249 0.995 1.154 0.995 1.154 0.021 -76.249
7188.083 0.019 -75.54 0.995 1.084 0.995 1.084 0.019 -75.54
7213.042 0.018 -74.733 0.995 1.015 0.995 1.015 0.018 -74.733
7238 0.017 -73.81 0.995 0.946 0.995 0.946 0.017 -73.81
7262.958 0.016 -72.747 0.995 0.877 0.995 0.877 0.016 -72.747
7287.917 0.015 -71.513 0.995 0.809 0.995 0.809 0.015 -71.513
7312.875 0.014 -70.069 0.995 0.741 0.995 0.741 0.014 -70.069
7337.833 0.013 -68.36 0.995 0.673 0.995 0.673 0.013 -68.36
7362.792 0.011 -66.316 0.995 0.605 0.995 0.605 0.011 -66.316
7387.75 0.01 -63.84 0.995 0.538 0.995 0.538 0.01 -63.84
7412.708 9.361e-3 -60.8 0.995 0.47 0.995 0.47 9.361e-3 -60.8
7437.667 8.355e-3 -57.008 0.995 0.403 0.995 0.403 8.355e-3 -57.008
7462.625 7.399e-3 -52.207 0.995 0.337 0.995 0.337 7.399e-3 -52.207
7487.583 6.515e-3 -46.047 0.995 0.27 0.995 0.27 6.515e-3 -46.047
7512.542 5.734e-3 -38.097 0.995 0.204 0.995 0.204 5.734e-3 -38.097
7537.5 5.1e-3 -27.934 0.995 0.138 0.995 0.138 5.1e-3 -27.934
7562.458 4.67e-3 -15.45 0.995 0.072 0.995 0.072 4.67e-3 -15.45
7587.417 4.501e-3 -1.31 0.995 5.925e-3 0.995 5.925e-3 4.501e-3 -1.31
7612.375 4.618e-3 12.944 0.995 -0.06 0.995 -0.06 4.618e-3 12.944
7637.333 4.999e-3 25.703 0.995 -0.125 0.995 -0.125 4.999e-3 25.703
7662.292 5.588e-3 36.174 0.995 -0.19 0.995 -0.19 5.588e-3 36.174
7687.25 6.325e-3 44.392 0.995 -0.255 0.995 -0.255 6.325e-3 44.392
7712.208 7.163e-3 50.759 0.995 -0.319 0.995 -0.319 7.163e-3 50.759
7737.167 8.068e-3 55.717 0.995 -0.384 0.995 -0.384 8.068e-3 55.717
7762.125 9.02e-3 59.627 0.995 -0.448 0.995 -0.448 9.02e-3 59.627
7787.083 0.01 62.757 0.995 -0.512 0.995 -0.512 0.01 62.757
7812.042 0.011 65.301 0.995 -0.576 0.995 -0.576 0.011 65.301
7837 0.012 67.398 0.995 -0.639 0.995 -0.639 0.012 67.398
7861.958 0.013 69.151 0.995 -0.703 0.995 -0.703 0.013 69.151
7886.917 0.014 70.631 0.995 -0.766 0.995 -0.766 0.014 70.631
7911.875 0.015 71.896 0.995 -0.829 0.995 -0.829 0.015 71.896
7936.833 0.016 72.985 0.995 -0.892 0.995 -0.892 0.016 72.985
7961.792 0.017 73.93 0.995 -0.954 0.995 -0.954 0.017 73.93
7986.75 0.018 74.757 0.995 -1.017 0.995 -1.017 0.018 74.757
8011.708 0.019 75.485 0.995 -1.079 0.995 -1.079 0.019 75.485
8036.667 0.02 76.13 0.995 -1.141 0.995 -1.141 0.02 76.13
8061.625 0.021 76.703 0.995 -1.203 0.995 -1.203 0.021 76.703
8086.583 0.023 77.216 0.995 -1.265 0.995 -1.265 0.023 77.216
8111.542 0.024 77.675 0.995 -1.326 0.995 -1.326 0.024 77.675
8136.5 0.025 78.089 0.995 -1.388 0.995 -1.388 0.025 78.089
8161.458 0.026 78.463 0.995 -1.449 0.995 -1.449 0.026 78.463
8186.417 0.027 78.802 0.995 -1.51 0.995 -1.51 0.027 78.802
