# MHZ S MA R 50

50 1 -0.81 0.014 89.182 0.014 89.182 1 -0.81
74.958 1 -1.214 0.021 88.774 0.021 88.774 1 -1.214
99.917 1 -1.618 0.028 88.366 0.028 88.366 1 -1.618
124.875 0.999 -2.022 0.035 87.958 0.035 87.958 0.999 -2.022
149.833 0.999 -2.426 0.042 87.55 0.042 87.55 0.999 -2.426
174.792 0.999 -2.83 0.049 87.143 0.049 87.143 0.999 -2.83
199.75 0.998 -3.233 0.056 86.735 0.056 86.735 0.998 -3.233
224.708 0.998 -3.637 0.063 86.328 0.063 86.328 0.998 -3.637
249.667 0.997 -4.039 0.07 85.921 0.07 85.921 0.997 -4.039
274.625 0.997 -4.442 0.077 85.515 0.077 85.515 0.997 -4.442
299.583 0.996 -4.844 0.084 85.108 0.084 85.108 0.996 -4.844
324.542 0.996 -5.246 0.091 84.702 0.091 84.702 0.996 -5.246
349.5 0.995 -5.648 0.098 84.297 0.098 84.297 0.995 -5.648
374.458 0.994 -6.049 0.105 83.892 0.105 83.892 0.994 -6.049
399.417 0.994 -6.45 0.112 83.487 0.112 83.487 0.994 -6.45
424.375 0.993 -6.85 0.119 83.083 0.119 83.083 0.993 -6.85
449.333 0.992 -7.25 0.126 82.679 0.126 82.679 0.992 -7.25
474.292 0.991 -7.649 0.133 82.276 0.133 82.276 0.991 -7.649
499.25 0.99 -8.047 0.14 81.874 0.14 81.874 0.99 -8.047
524.208 0.989 -8.445 0.147 81.472 0.147 81.472 0.989 -8.445
549.167 0.988 -8.843 0.154 81.071 0.154 81.071 0.988 -8.843
574.125 0.987 -9.239 0.161 80.67 0.161 80.67 0.987 -9.239
599.083 0.986 -9.635 0.167 80.27 0.167 80.27 0.986 -9.635
624.042 0.984 -10.031 0.174 79.871 0.174 79.871 0.984 -10.031
649 0.983 -10.425 0.181 79.472 0.181 79.472 0.983 -10.425
673.958 0.982 -10.819 0.188 79.074 0.188 79.074 0.982 -10.819
698.917 0.981 -11.212 0.194 78.677 0.194 78.677 0.981 -11.212
723.875 0.979 -11.605 0.201 78.281 0.201 78.281 0.979 -11.605
748.833 0.978 -11.996 0.208 77.886 0.208 77.886 0.978 -11.996
773.792 0.976 -12.387 0.215 77.491 0.215 77.491 0.976 -12.387
798.75 0.975 -12.776 0.221 77.097 0.221 77.097 0.975 -12.776
823.708 0.973 -13.165 0.228 76.705 0.228 76.705 0.973 -13.165
848.667 0.972 -13.553 0.234 76.313 0.234 76.313 0.972 -13.553
873.625 0.97 -13.94 0.241 75.922 0.241 75.922 0.97 -13.94
898.583 0.968 -14.326 0.247 75.532 0.247 75.532 0.968 -14.326
923.542 0.967 -14.711 0.254 75.143 0.254 75.143 0.967 -14.711
948.5 0.965 -15.095 0.26 74.755 0.26 74.755 0.965 -15.095
973.458 0.963 -15.478 0.267 74.368 0.267 74.368 0.963 -15.478
998.417 0.961 -15.859 0.273 73.982 0.273 73.982 0.961 -15.859
1023.375 0.959 -16.24 0.28 73.597 0.28 73.597 0.959 -16.24
1048.333 0.957 -16.62 0.286 73.214 0.286 73.214 0.957 -16.62
1073.292 0.955 -16.998 0.292 72.831 0.292 72.831 0.955 -16.998
1098.25 0.953 -17.376 0.299 72.45 0.299 72.45 0.953 -17.376
1123.208 0.951 -17.752 0.305 72.069 0.305 72.069 0.951 -17.752
1148.167 0.949 -18.127 0.311 71.69 0.311 71.69 0.949 -18.127
1173.125 0.947 -18.501 0.317 71.312 0.317 71.312 0.947 -18.501
1198.083 0.945 -18.874 0.323 70.936 0.323 70.936 0.945 -18.874
1223.042 0.943 -19.245 0.33 70.56 0.33 70.56 0.943 -19.245
1248 0.941 -19.615 0.336 70.186 0.336 70.186 0.941 -19.615
1272.958 0.939 -19.984 0.342 69.813 0.342 69.813 0.939 -19.984
1297.917 0.936 -20.352 0.348 69.441 0.348 69.441 0.936 -20.352
1322.875 0.934 -20.718 0.354 69.071 0.354 69.071 0.934 -20.718
1347.833 0.932 -21.083 0.36 68.702 0.36 68.702 0.932 -21.083
1372.792 0.929 -21.447 0.366 68.334 0.366 68.334 0.929 -21.447
1397.75 0.927 -21.809 0.372 67.967 0.372 67.967 0.927 -21.809
1422.708 0.925 -22.17 0.377 67.602 0.377 67.602 0.925 -22.17
1447.667 0.922 -22.53 0.383 67.239 0.383 67.239 0.922 -22.53
1472.625 0.92 -22.888 0.389 66.876 0.389 66.876 0.92 -22.888
1497.583 0.917 -23.245 0.395 66.515 0.395 66.515 0.917 -23.245
1522.542 0.915 -23.601 0.4 66.155 0.4 66.155 0.915 -23.601
1547.5 0.912 -23.955 0.406 65.797 0.406 65.797 0.912 -23.955
1572.458 0.91 -24.308 0.412 65.44 0.412 65.44 0.91 -24.308
1597.417 0.907 -24.659 0.417 65.085 0.417 65.085 0.907 -24.659
1622.375 0.904 -25.009 0.423 64.731 0.423 64.731 0.904 -25.009
1647.333 0.902 -25.357 0.428 64.378 0.428 64.378 0.902 -25.357
1672.292 0.899 -25.704 0.434 64.027 0.434 64.027 0.899 -25.704
1697.25 0.896 -26.049 0.439 63.678 0.439 63.678 0.896 -26.049
1722.208 0.894 -26.393 0.445 63.329 0.445 63.329 0.894 -26.393
1747.167 0.891 -26.736 0.45 62.983 0.45 62.983 0.891 -26.736
1772.125 0.888 -27.077 0.455 62.637 0.455 62.637 0.888 -27.077
1797.083 0.885 -27.417 0.46 62.294 0.46 62.294 0.885 -27.417
1822.042 0.883 -27.755 0.466 61.951 0.466 61.951 0.883 -27.755
1847 0.88 -28.091 0.471 61.611 0.471 61.611 0.88 -28.091
1871.958 0.877 -28.426 0.476 61.271 0.476 61.271 0.877 -28.426
1896.917 0.874 -28.76 0.481 60.934 0.481 60.934 0.874 -28.76
1921.875 0.871 -29.092 0.486 60.598 0.486 60.598 0.871 -29.092
1946.833 0.868 -29.422 0.491 60.263 0.491 60.263 0.868 -29.422
1971.792 0.865 -29.751 0.496 59.93 0.496 59.93 0.865 -29.751
1996.75 0.863 -30.078 0.501 59.598 0.501 59.598 0.863 -30.078
2021.708 0.86 -30.404 0.506 59.268 0.506 59.268 0.86 -30.404
2046.667 0.857 -30.728 0.511 58.939 0.511 58.939 0.857 -30.728
2071.625 0.854 -31.051 0.516 58.612 0.516 58.612 0.854 -31.051
2096.583 0.851 -31.372 0.521 58.287 0.521 58.287 0.851 -31.372
2121.542 0.848 -31.692 0.525 57.963 0.525 57.963 0.848 -31.692
2146.5 0.845 -32.01 0.53 57.64 0.53 57.64 0.845 -32.01
2171.458 0.842 -32.327 0.535 57.319 0.535 57.319 0.842 -32.327
2196.417 0.839 -32.642 0.539 57 0.539 57 0.839 -32.642
2221.375 0.836 -32.955 0.544 56.682 0.544 56.682 0.836 -32.955
2246.333 0.833 -33.267 0.549 56.366 0.549 56.366 0.833 -33.267
2271.292 0.83 -33.577 0.553 56.051 0.553 56.051 0.83 -33.577
2296.25 0.826 -33.886 0.558 55.738 0.558 55.738 0.826 -33.886
2321.208 0.823 -34.193 0.562 55.426 0.562 55.426 0.823 -34.193
2346.167 0.82 -34.499 0.566 55.116 0.566 55.116 0.82 -34.499
2371.125 0.817 -34.803 0.571 54.808 0.571 54.808 0.817 -34.803
2396.083 0.814 -35.106 0.575 54.501 0.575 54.501 0.814 -35.106
2421.042 0.811 -35.407 0.579 54.195 0.579 54.195 0.811 -35.407
2446 0.808 -35.706 0.584 53.891 0.584 53.891 0.808 -35.706
2470.958 0.805 -36.004 0.588 53.589 0.588 53.589 0.805 -36.004
2495.917 0.802 -36.301 0.592 53.288 0.592 53.288 0.802 -36.301
2520.875 0.799 -36.595 0.596 52.989 0.596 52.989 0.799 -36.595
2545.833 0.795 -36.889 0.6 52.691 0.6 52.691 0.795 -36.889
2570.792 0.792 -37.18 0.604 52.395 0.604 52.395 0.792 -37.18
2595.75 0.789 -37.471 0.608 52.1 0.608 52.1 0.789 -37.471
2620.708 0.786 -37.759 0.612 51.807 0.612 51.807 0.786 -37.759
2645.667 0.783 -38.047 0.616 51.515 0.616 51.515 0.783 -38.047
2670.625 0.78 -38.332 0.62 51.225 0.62 51.225 0.78 -38.332
2695.583 0.776 -38.616 0.624 50.936 0.624 50.936 0.776 -38.616
2720.542 0.773 -38.899 0.628 50.649 0.628 50.649 0.773 -38.899
2745.5 0.77 -39.18 0.632 50.363 0.632 50.363 0.77 -39.18
2770.458 0.767 -39.46 0.636 50.079 0.636 50.079 0.767 -39.46
2795.417 0.764 -39.738 0.639 49.796 0.639 49.796 0.764 -39.738
2820.375 0.761 -40.014 0.643 49.515 0.643 49.515 0.761 -40.014
2845.333 0.757 -40.289 0.647 49.235 0.647 49.235 0.757 -40.289
2870.292 0.754 -40.563 0.65 48.957 0.65 48.957 0.754 -40.563
2895.25 0.751 -40.835 0.654 48.68 0.654 48.68 0.751 -40.835
2920.208 0.748 -41.106 0.657 48.405 0.657 48.405 0.748 -41.106
2945.167 0.745 -41.375 0.661 48.131 0.661 48.131 0.745 -41.375
2970.125 0.742 -41.642 0.665 47.858 0.665 47.858 0.742 -41.642
2995.083 0.738 -41.909 0.668 47.587 0.668 47.587 0.738 -41.909
3020.042 0.735 -42.173 0.671 47.318 0.671 47.318 0.735 -42.173
3045 0.732 -42.437 0.675 47.05 0.675 47.05 0.732 -42.437
3069.958 0.729 -42.699 0.678 46.783 0.678 46.783 0.729 -42.699
3094.917 0.726 -42.959 0.682 46.518 0.682 46.518 0.726 -42.959
3119.875 0.722 -43.218 0.685 46.254 0.685 46.254 0.722 -43.218
3144.833 0.719 -43.476 0.688 45.992 0.688 45.992 0.719 -43.476
3169.792 0.716 -43.732 0.691 45.731 0.691 45.731 0.716 -43.732
3194.75 0.713 -43.986 0.695 45.471 0.695 45.471 0.713 -43.986
3219.708 0.71 -44.24 0.698 45.213 0.698 45.213 0.71 -44.24
3244.667 0.707 -44.492 0.701 44.956 0.701 44.956 0.707 -44.492
3269.625 0.703 -44.742 0.704 44.7 0.704 44.7 0.703 -44.742
3294.583 0.7 -44.991 0.707 44.446 0.707 44.446 0.7 -44.991
3319.542 0.697 -45.239 0.71 44.194 0.71 44.194 0.697 -45.239
3344.5 0.694 -45.485 0.713 43.942 0.713 43.942 0.694 -45.485
3369.458 0.691 -45.73 0.716 43.692 0.716 43.692 0.691 -45.73
3394.417 0.688 -45.974 0.719 43.444 0.719 43.444 0.688 -45.974
3419.375 0.685 -46.216 0.722 43.196 0.722 43.196 0.685 -46.216
3444.333 0.681 -46.457 0.725 42.95 0.725 42.95 0.681 -46.457
3469.292 0.678 -46.697 0.728 42.706 0.728 42.706 0.678 -46.697
3494.25 0.675 -46.935 0.731 42.462 0.731 42.462 0.675 -46.935
3519.208 0.672 -47.172 0.733 42.22 0.733 42.22 0.672 -47.172
3544.167 0.669 -47.408 0.736 41.979 0.736 41.979 0.669 -47.408
3569.125 0.666 -47.642 0.739 41.74 0.739 41.74 0.666 -47.642
3594.083 0.663 -47.875 0.742 41.502 0.742 41.502 0.663 -47.875
3619.042 0.66 -48.107 0.744 41.265 0.744 41.265 0.66 -48.107
3644 0.656 -48.337 0.747 41.029 0.747 41.029 0.656 -48.337
3668.958 0.653 -48.566 0.75 40.795 0.75 40.795 0.653 -48.566
3693.917 0.65 -48.794 0.752 40.562 0.752 40.562 0.65 -48.794
3718.875 0.647 -49.02 0.755 40.33 0.755 40.33 0.647 -49.02
3743.833 0.644 -49.246 0.758 40.099 0.758 40.099 0.644 -49.246
3768.792 0.641 -49.47 0.76 39.87 0.76 39.87 0.641 -49.47
3793.75 0.638 -49.693 0.763 39.642 0.763 39.642 0.638 -49.693
3818.708 0.635 -49.914 0.765 39.415 0.765 39.415 0.635 -49.914
3843.667 0.632 -50.134 0.768 39.189 0.768 39.189 0.632 -50.134
3868.625 0.629 -50.354 0.77 38.964 0.77 38.964 0.629 -50.354
3893.583 0.626 -50.571 0.772 38.741 0.772 38.741 0.626 -50.571
3918.542 0.623 -50.788 0.775 38.519 0.775 38.519 0.623 -50.788
3943.5 0.62 -51.004 0.777 38.298 0.777 38.298 0.62 -51.004
3968.458 0.617 -51.218 0.78 38.078 0.78 38.078 0.617 -51.218
3993.417 0.614 -51.431 0.782 37.86 0.782 37.86 0.614 -51.431
4018.375 0.611 -51.643 0.784 37.642 0.784 37.642 0.611 -51.643
4043.333 0.608 -51.853 0.786 37.426 0.786 37.426 0.608 -51.853
4068.292 0.605 -52.063 0.789 37.211 0.789 37.211 0.605 -52.063
4093.25 0.602 -52.271 0.791 36.996 0.791 36.996 0.602 -52.271
4118.208 0.599 -52.479 0.793 36.784 0.793 36.784 0.599 -52.479
4143.167 0.596 -52.685 0.795 36.572 0.795 36.572 0.596 -52.685
4168.125 0.593 -52.89 0.798 36.361 0.798 36.361 0.593 -52.89
4193.083 0.59 -53.094 0.8 36.151 0.8 36.151 0.59 -53.094
4218.042 0.587 -53.296 0.802 35.943 0.802 35.943 0.587 -53.296
4243 0.584 -53.498 0.804 35.736 0.804 35.736 0.584 -53.498
4267.958 0.581 -53.698 0.806 35.529 0.806 35.529 0.581 -53.698
4292.917 0.578 -53.898 0.808 35.324 0.808 35.324 0.578 -53.898
4317.875 0.575 -54.096 0.81 35.12 0.81 35.12 0.575 -54.096
4342.833 0.572 -54.293 0.812 34.917 0.812 34.917 0.572 -54.293
4367.792 0.57 -54.489 0.814 34.715 0.814 34.715 0.57 -54.489
4392.75 0.567 -54.684 0.816 34.514 0.816 34.514 0.567 -54.684
4417.708 0.564 -54.878 0.818 34.314 0.818 34.314 0.564 -54.878
4442.667 0.561 -55.071 0.82 34.115 0.82 34.115 0.561 -55.071
4467.625 0.558 -55.263 0.822 33.917 0.822 33.917 0.558 -55.263
4492.583 0.555 -55.454 0.824 33.72 0.824 33.72 0.555 -55.454
4517.542 0.552 -55.644 0.826 33.524 0.826 33.524 0.552 -55.644
4542.5 0.55 -55.832 0.827 33.329 0.827 33.329 0.55 -55.832
4567.458 0.547 -56.02 0.829 33.135 0.829 33.135 0.547 -56.02
4592.417 0.544 -56.207 0.831 32.942 0.831 32.942 0.544 -56.207
4617.375 0.541 -56.392 0.833 32.75 0.833 32.75 0.541 -56.392
4642.333 0.538 -56.577 0.835 32.559 0.835 32.559 0.538 -56.577
4667.292 0.535 -56.761 0.836 32.369 0.836 32.369 0.535 -56.761
4692.25 0.533 -56.943 0.838 32.18 0.838 32.18 0.533 -56.943
4717.208 0.53 -57.125 0.84 31.992 0.84 31.992 0.53 -57.125
4742.167 0.527 -57.306 0.842 31.805 0.842 31.805 0.527 -57.306
4767.125 0.524 -57.485 0.843 31.619 0.843 31.619 0.524 -57.485
4792.083 0.522 -57.664 0.845 31.433 0.845 31.433 0.522 -57.664
4817.042 0.519 -57.842 0.847 31.249 0.847 31.249 0.519 -57.842
4842 0.516 -58.019 0.848 31.066 0.848 31.066 0.516 -58.019
4866.958 0.513 -58.195 0.85 30.883 0.85 30.883 0.513 -58.195
4891.917 0.511 -58.37 0.852 30.702 0.852 30.702 0.511 -58.37
4916.875 0.508 -58.544 0.853 30.521 0.853 30.521 0.508 -58.544
4941.833 0.505 -58.717 0.855 30.341 0.855 30.341 0.505 -58.717
4966.792 0.503 -58.889 0.856 30.162 0.856 30.162 0.503 -58.889
4991.75 0.5 -59.06 0.858 29.984 0.858 29.984 0.5 -59.06
5016.708 0.497 -59.23 0.859 29.807 0.859 29.807 0.497 -59.23
5041.667 0.494 -59.4 0.861 29.631 0.861 29.631 0.494 -59.4
5066.625 0.492 -59.568 0.862 29.455 0.862 29.455 0.492 -59.568
5091.583 0.489 -59.736 0.864 29.28 0.864 29.28 0.489 -59.736
5116.542 0.487 -59.903 0.865 29.107 0.865 29.107 0.487 -59.903
5141.5 0.484 -60.068 0.867 28.934 0.867 28.934 0.484 -60.068
5166.458 0.481 -60.233 0.868 28.762 0.868 28.762 0.481 -60.233
5191.417 0.479 -60.398 0.87 28.59 0.87 28.59 0.479 -60.398
5216.375 0.476 -60.561 0.871 28.42 0.871 28.42 0.476 -60.561
5241.333 0.473 -60.723 0.872 28.25 0.872 28.25 0.473 -60.723
5266.292 0.471 -60.885 0.874 28.082 0.874 28.082 0.471 -60.885
5291.25 0.468 -61.045 0.875 27.914 0.875 27.914 0.468 -61.045
5316.208 0.466 -61.205 0.876 27.746 0.876 27.746 0.466 -61.205
5341.167 0.463 -61.364 0.878 27.58 0.878 27.58 0.463 -61.364
5366.125 0.461 -61.522 0.879 27.414 0.879 27.414 0.461 -61.522
5391.083 0.458 -61.68 0.88 27.25 0.88 27.25 0.458 -61.68
5416.042 0.455 -61.836 0.882 27.085 0.882 27.085 0.455 -61.836
5441 0.453 -61.992 0.883 26.922 0.883 26.922 0.453 -61.992
5465.958 0.45 -62.147 0.884 26.76 0.884 26.76 0.45 -62.147
5490.917 0.448 -62.301 0.886 26.598 0.886 26.598 0.448 -62.301
5515.875 0.445 -62.454 0.887 26.437 0.887 26.437 0.445 -62.454
5540.833 0.443 -62.606 0.888 26.277 0.888 26.277 0.443 -62.606
5565.792 0.44 -62.758 0.889 26.117 0.889 26.117 0.44 -62.758
5590.75 0.438 -62.909 0.89 25.958 0.89 25.958 0.438 -62.909
5615.708 0.435 -63.059 0.892 25.8 0.892 25.8 0.435 -63.059
5640.667 0.433 -63.208 0.893 25.643 0.893 25.643 0.433 -63.208
5665.625 0.43 -63.357 0.894 25.486 0.894 25.486 0.43 -63.357
5690.583 0.428 -63.505 0.895 25.33 0.895 25.33 0.428 -63.505
5715.542 0.425 -63.652 0.896 25.175 0.896 25.175 0.425 -63.652
5740.5 0.423 -63.798 0.897 25.021 0.897 25.021 0.423 -63.798
5765.458 0.421 -63.943 0.899 24.867 0.899 24.867 0.421 -63.943
5790.417 0.418 -64.088 0.9 24.714 0.9 24.714 0.418 -64.088
5815.375 0.416 -64.232 0.901 24.561 0.901 24.561 0.416 -64.232
5840.333 0.413 -64.375 0.902 24.41 0.902 24.41 0.413 -64.375
5865.292 0.411 -64.518 0.903 24.258 0.903 24.258 0.411 -64.518
5890.25 0.409 -64.659 0.904 24.108 0.904 24.108 0.409 -64.659
5915.208 0.406 -64.8 0.905 23.958 0.905 23.958 0.406 -64.8
5940.167 0.404 -64.941 0.906 23.809 0.906 23.809 0.404 -64.941
5965.125 0.401 -65.08 0.907 23.661 0.907 23.661 0.401 -65.08
5990.083 0.399 -65.219 0.908 23.513 0.908 23.513 0.399 -65.219
6015.042 0.397 -65.357 0.909 23.366 0.909 23.366 0.397 -65.357
6040 0.394 -65.495 0.91 23.22 0.91 23.22 0.394 -65.495
6064.958 0.392 -65.632 0.911 23.074 0.911 23.074 0.392 -65.632
6089.917 0.39 -65.768 0.912 22.929 0.912 22.929 0.39 -65.768
6114.875 0.387 -65.903 0.913 22.784 0.913 22.784 0.387 -65.903
6139.833 0.385 -66.038 0.914 22.64 0.914 22.64 0.385 -66.038
6164.792 0.383 -66.172 0.915 22.497 0.915 22.497 0.383 -66.172
6189.75 0.38 -66.305 0.916 22.354 0.916 22.354 0.38 -66.305
6214.708 0.378 -66.437 0.917 22.212 0.917 22.212 0.378 -66.437
6239.667 0.376 -66.569 0.918 22.071 0.918 22.071 0.376 -66.569
6264.625 0.374 -66.7 0.919 21.93 0.919 21.93 0.374 -66.7
6289.583 0.371 -66.831 0.92 21.789 0.92 21.789 0.371 -66.831
6314.542 0.369 -66.961 0.921 21.65 0.921 21.65 0.369 -66.961
6339.5 0.367 -67.09 0.921 21.511 0.921 21.511 0.367 -67.09
6364.458 0.365 -67.219 0.922 21.372 0.922 21.372 0.365 -67.219
6389.417 0.362 -67.347 0.923 21.234 0.923 21.234 0.362 -67.347
6414.375 0.36 -67.474 0.924 21.097 0.924 21.097 0.36 -67.474
6439.333 0.358 -67.6 0.925 20.96 0.925 20.96 0.358 -67.6
6464.292 0.356 -67.726 0.926 20.824 0.926 20.824 0.356 -67.726
6489.25 0.353 -67.851 0.927 20.688 0.927 20.688 0.353 -67.851
6514.208 0.351 -67.976 0.927 20.553 0.927 20.553 0.351 -67.976
6539.167 0.349 -68.1 0.928 20.419 0.928 20.419 0.349 -68.1
6564.125 0.347 -68.223 0.929 20.285 0.929 20.285 0.347 -68.223
6589.083 0.345 -68.346 0.93 20.151 0.93 20.151 0.345 -68.346
6614.042 0.342 -68.468 0.931 20.018 0.931 20.018 0.342 -68.468
6639 0.34 -68.59 0.931 19.886 0.931 19.886 0.34 -68.59
6663.958 0.338 -68.71 0.932 19.754 0.932 19.754 0.338 -68.71
6688.917 0.336 -68.831 0.933 19.623 0.933 19.623 0.336 -68.831
6713.875 0.334 -68.95 0.934 19.492 0.934 19.492 0.334 -68.95
6738.833 0.332 -69.069 0.934 19.362 0.934 19.362 0.332 -69.069
6763.792 0.33 -69.187 0.935 19.232 0.935 19.232 0.33 -69.187
6788.75 0.327 -69.305 0.936 19.103 0.936 19.103 0.327 -69.305
6813.708 0.325 -69.422 0.937 18.974 0.937 18.974 0.325 -69.422
6838.667 0.323 -69.538 0.937 18.846 0.937 18.846 0.323 -69.538
6863.625 0.321 -69.654 0.938 18.718 0.938 18.718 0.321 -69.654
6888.583 0.319 -69.769 0.939 18.591 0.939 18.591 0.319 -69.769
6913.542 0.317 -69.884 0.939 18.464 0.939 18.464 0.317 -69.884
6938.5 0.315 -69.998 0.94 18.338 0.94 18.338 0.315 -69.998
6963.458 0.313 -70.111 0.941 18.213 0.941 18.213 0.313 -70.111
6988.417 0.311 -70.224 0.941 18.087 0.941 18.087 0.311 -70.224
7013.375 0.309 -70.336 0.942 17.963 0.942 17.963 0.309 -70.336
7038.333 0.306 -70.448 0.943 17.838 0.943 17.838 0.306 -70.448
7063.292 0.304 -70.559 0.943 17.715 0.943 17.715 0.304 -70.559
7088.25 0.302 -70.669 0.944 17.591 0.944 17.591 0.302 -70.669
7113.208 0.3 -70.779 0.945 17.469 0.945 17.469 0.3 -70.779
7138.167 0.298 -70.888 0.945 17.346 0.945 17.346 0.298 -70.888
7163.125 0.296 -70.997 0.946 17.224 0.946 17.224 0.296 -70.997
7188.083 0.294 -71.105 0.947 17.103 0.947 17.103 0.294 -71.105
7213.042 0.292 -71.213 0.947 16.982 0.947 16.982 0.292 -71.213
7238 0.29 -71.319 0.948 16.861 0.948 16.861 0.29 -71.319
7262.958 0.288 -71.426 0.948 16.741 0.948 16.741 0.288 -71.426
7287.917 0.286 -71.531 0.949 16.622 0.949 16.622 0.286 -71.531
7312.875 0.284 -71.636 0.95 16.502 0.95 16.502 0.284 -71.636
7337.833 0.282 -71.741 0.95 16.384 0.95 16.384 0.282 -71.741
7362.792 0.28 -71.845 0.951 16.265 0.951 16.265 0.28 -71.845
7387.75 0.278 -71.948 0.951 16.148 0.951 16.148 0.278 -71.948
7412.708 0.276 -72.051 0.952 16.03 0.952 16.03 0.276 -72.051
7437.667 0.274 -72.153 0.952 15.913 0.952 15.913 0.274 -72.153
7462.625 0.272 -72.254 0.953 15.797 0.953 15.797 0.272 -72.254
7487.583 0.27 -72.355 0.954 15.68 0.954 15.68 0.27 -72.355
7512.542 0.268 -72.456 0.954 15.565 0.954 15.565 0.268 -72.456
7537.5 0.267 -72.556 0.955 15.449 0.955 15.449 0.267 -72.556
7562.458 0.265 -72.655 0.955 15.335 0.955 15.335 0.265 -72.655
7587.417 0.263 -72.753 0.956 15.22 0.956 15.22 0.263 -72.753
7612.375 0.261 -72.851 0.956 15.106 0.956 15.106 0.261 -72.851
7637.333 0.259 -72.949 0.957 14.992 0.957 14.992 0.259 -72.949
7662.292 0.257 -73.046 0.957 14.879 0.957 14.879 0.257 -73.046
7687.25 0.255 -73.142 0.958 14.766 0.958 14.766 0.255 -73.142
7712.208 0.253 -73.238 0.958 14.654 0.958 14.654 0.253 -73.238
7737.167 0.251 -73.333 0.959 14.542 0.959 14.542 0.251 -73.333
7762.125 0.249 -73.427 0.959 14.43 0.959 14.43 0.249 -73.427
7787.083 0.247 -73.521 0.96 14.319 0.96 14.319 0.247 -73.521
7812.042 0.246 -73.615 0.96 14.208 0.96 14.208 0.246 -73.615
7837 0.244 -73.707 0.961 14.097 0.961 14.097 0.244 -73.707
7861.958 0.242 -73.8 0.961 13.987 0.961 13.987 0.242 -73.8
7886.917 0.24 -73.891 0.961 13.877 0.961 13.877 0.24 -73.891
7911.875 0.238 -73.982 0.962 13.768 0.962 13.768 0.238 -73.982
7936.833 0.236 -74.072 0.962 13.659 0.962 13.659 0.236 -74.072
7961.792 0.234 -74.162 0.963 13.55 0.963 13.55 0.234 -74.162
7986.75 0.233 -74.251 0.963 13.442 0.963 13.442 0.233 -74.251
8011.708 0.231 -74.34 0.964 13.334 0.964 13.334 0.231 -74.34
8036.667 0.229 -74.428 0.964 13.227 0.964 13.227 0.229 -74.428
8061.625 0.227 -74.515 0.965 13.119 0.965 13.119 0.227 -74.515
8086.583 0.225 -74.602 0.965 13.013 0.965 13.013 0.225 -74.602
8111.542 0.224 -74.688 0.965 12.906 0.965 12.906 0.224 -74.688
8136.5 0.222 -74.774 0.966 12.8 0.966 12.8 0.222 -74.774
8161.458 0.22 -74.858 0.966 12.694 0.966 12.694 0.22 -74.858
