# MHZ S MA R 50

50 0.992 -7.34 0.128 82.644 0.128 82.644 0.992 -7.34
74.958 0.982 -10.932 0.19 79.045 0.19 79.045 0.982 -10.932
99.917 0.968 -14.44 0.249 75.529 0.249 75.529 0.968 -14.44
124.875 0.952 -17.844 0.306 72.118 0.306 72.118 0.952 -17.844
149.833 0.933 -21.124 0.36 68.83 0.36 68.83 0.933 -21.124
174.792 0.911 -24.269 0.411 65.677 0.411 65.677 0.911 -24.269
199.75 0.888 -27.269 0.458 62.67 0.458 62.67 0.888 -27.269
224.708 0.864 -30.119 0.502 59.812 0.502 59.812 0.864 -30.119
249.667 0.84 -32.818 0.542 57.106 0.542 57.106 0.84 -32.818
274.625 0.815 -35.366 0.579 54.55 0.579 54.55 0.815 -35.366
299.583 0.79 -37.766 0.612 52.142 0.612 52.142 0.79 -37.766
324.542 0.765 -40.025 0.643 49.875 0.643 49.875 0.765 -40.025
349.5 0.74 -42.148 0.671 47.745 0.671 47.745 0.74 -42.148
374.458 0.716 -44.141 0.696 45.743 0.696 45.743 0.716 -44.141
399.417 0.693 -46.013 0.72 43.863 0.72 43.863 0.693 -46.013
424.375 0.67 -47.771 0.74 42.098 0.74 42.098 0.67 -47.771
449.333 0.649 -49.422 0.76 40.439 0.76 40.439 0.649 -49.422
474.292 0.628 -50.973 0.777 38.881 0.777 38.881 0.628 -50.973
499.25 0.608 -52.431 0.793 37.415 0.793 37.415 0.608 -52.431
524.208 0.588 -53.802 0.807 36.035 0.807 36.035 0.588 -53.802
549.167 0.57 -55.094 0.82 34.735 0.82 34.735 0.57 -55.094
574.125 0.552 -56.312 0.832 33.509 0.832 33.509 0.552 -56.312
599.083 0.535 -57.46 0.843 32.353 0.843 32.353 0.535 -57.46
624.042 0.519 -58.545 0.853 31.26 0.853 31.26 0.519 -58.545
649 0.503 -59.57 0.862 30.227 0.862 30.227 0.503 -59.57
673.958 0.489 -60.54 0.871 29.248 0.871 29.248 0.489 -60.54
698.917 0.474 -61.46 0.878 28.321 0.878 28.321 0.474 -61.46
723.875 0.461 -62.331 0.886 27.441 0.886 27.441 0.461 -62.331
748.833 0.448 -63.159 0.892 26.605 0.892 26.605 0.448 -63.159
773.792 0.435 -63.945 0.898 25.81 0.898 25.81 0.435 -63.945
798.75 0.423 -64.693 0.904 25.053 0.904 25.053 0.423 -64.693
823.708 0.412 -65.406 0.909 24.332 0.909 24.332 0.412 -65.406
848.667 0.401 -66.085 0.914 23.645 0.914 23.645 0.401 -66.085
873.625 0.391 -66.733 0.919 22.988 0.919 22.988 0.391 -66.733
898.583 0.38 -67.352 0.923 22.361 0.923 22.361 0.38 -67.352
923.542 0.371 -67.943 0.927 21.76 0.927 21.76 0.371 -67.943
948.5 0.361 -68.509 0.93 21.186 0.93 21.186 0.361 -68.509
973.458 0.352 -69.051 0.934 20.635 0.934 20.635 0.352 -69.051
998.417 0.344 -69.571 0.937 20.106 0.937 20.106 0.344 -69.571
1023.375 0.335 -70.069 0.94 19.599 0.94 19.599 0.335 -70.069
1048.333 0.327 -70.547 0.943 19.111 0.943 19.111 0.327 -70.547
1073.292 0.32 -71.007 0.946 18.642 0.946 18.642 0.32 -71.007
1098.25 0.312 -71.449 0.948 18.191 0.948 18.191 0.312 -71.449
1123.208 0.305 -71.874 0.95 17.756 0.95 17.756 0.305 -71.874
1148.167 0.298 -72.284 0.953 17.337 0.953 17.337 0.298 -72.284
1173.125 0.291 -72.678 0.955 16.933 0.955 16.933 0.291 -72.678
1198.083 0.285 -73.059 0.957 16.543 0.957 16.543 0.285 -73.059
1223.042 0.278 -73.426 0.958 16.166 0.958 16.166 0.278 -73.426
1248 0.272 -73.781 0.96 15.801 0.96 15.801 0.272 -73.781
1272.958 0.266 -74.123 0.962 15.449 0.962 15.449 0.266 -74.123
1297.917 0.261 -74.454 0.963 15.107 0.963 15.107 0.261 -74.454
1322.875 0.255 -74.774 0.965 14.777 0.965 14.777 0.255 -74.774
1347.833 0.25 -75.084 0.966 14.457 0.966 14.457 0.25 -75.084
1372.792 0.244 -75.384 0.968 14.146 0.968 14.146 0.244 -75.384
1397.75 0.239 -75.675 0.969 13.845 0.969 13.845 0.239 -75.675
1422.708 0.234 -75.957 0.97 13.552 0.97 13.552 0.234 -75.957
1447.667 0.23 -76.23 0.971 13.268 0.971 13.268 0.23 -76.23
1472.625 0.225 -76.495 0.972 12.992 0.972 12.992 0.225 -76.495
1497.583 0.22 -76.753 0.973 12.723 0.973 12.723 0.22 -76.753
1522.542 0.216 -77.003 0.974 12.462 0.974 12.462 0.216 -77.003
1547.5 0.211 -77.245 0.975 12.207 0.975 12.207 0.211 -77.245
1572.458 0.207 -77.482 0.976 11.96 0.976 11.96 0.207 -77.482
1597.417 0.203 -77.711 0.977 11.718 0.977 11.718 0.203 -77.711
1622.375 0.199 -77.934 0.978 11.483 0.978 11.483 0.199 -77.934
1647.333 0.195 -78.151 0.979 11.254 0.979 11.254 0.195 -78.151
1672.292 0.191 -78.363 0.979 11.03 0.979 11.03 0.191 -78.363
1697.25 0.188 -78.569 0.98 10.811 0.98 10.811 0.188 -78.569
1722.208 0.184 -78.769 0.981 10.598 0.981 10.598 0.184 -78.769
1747.167 0.18 -78.965 0.982 10.39 0.982 10.39 0.18 -78.965
1772.125 0.177 -79.155 0.982 10.186 0.982 10.186 0.177 -79.155
1797.083 0.173 -79.341 0.983 9.987 0.983 9.987 0.173 -79.341
1822.042 0.17 -79.522 0.983 9.792 0.983 9.792 0.17 -79.522
1847 0.167 -79.698 0.984 9.602 0.984 9.602 0.167 -79.698
1871.958 0.164 -79.871 0.984 9.416 0.984 9.416 0.164 -79.871
1896.917 0.16 -80.039 0.985 9.233 0.985 9.233 0.16 -80.039
1921.875 0.157 -80.203 0.985 9.054 0.985 9.054 0.157 -80.203
1946.833 0.154 -80.363 0.986 8.879 0.986 8.879 0.154 -80.363
1971.792 0.151 -80.519 0.986 8.708 0.986 8.708 0.151 -80.519
1996.75 0.149 -80.672 0.987 8.539 0.987 8.539 0.149 -80.672
2021.708 0.146 -80.821 0.987 8.374 0.987 8.374 0.146 -80.821
2046.667 0.143 -80.967 0.988 8.213 0.988 8.213 0.143 -80.967
2071.625 0.14 -81.11 0.988 8.054 0.988 8.054 0.14 -81.11
2096.583 0.137 -81.249 0.988 7.898 0.988 7.898 0.137 -81.249
2121.542 0.135 -81.385 0.989 7.745 0.989 7.745 0.135 -81.385
2146.5 0.132 -81.518 0.989 7.595 0.989 7.595 0.132 -81.518
2171.458 0.13 -81.648 0.99 7.447 0.99 7.447 0.13 -81.648
2196.417 0.127 -81.775 0.99 7.302 0.99 7.302 0.127 -81.775
2221.375 0.125 -81.899 0.99 7.159 0.99 7.159 0.125 -81.899
2246.333 0.122 -82.02 0.99 7.019 0.99 7.019 0.122 -82.02
2271.292 0.12 -82.138 0.991 6.881 0.991 6.881 0.12 -82.138
2296.25 0.117 -82.254 0.991 6.745 0.991 6.745 0.117 -82.254
2321.208 0.115 -82.367 0.991 6.612 0.991 6.612 0.115 -82.367
2346.167 0.113 -82.478 0.992 6.48 0.992 6.48 0.113 -82.478
2371.125 0.111 -82.586 0.992 6.351 0.992 6.351 0.111 -82.586
2396.083 0.108 -82.691 0.992 6.224 0.992 6.224 0.108 -82.691
2421.042 0.106 -82.794 0.992 6.098 0.992 6.098 0.106 -82.794
2446 0.104 -82.894 0.993 5.975 0.993 5.975 0.104 -82.894
2470.958 0.102 -82.993 0.993 5.853 0.993 5.853 0.102 -82.993
2495.917 0.1 -83.088 0.993 5.733 0.993 5.733 0.1 -83.088
2520.875 0.098 -83.182 0.993 5.615 0.993 5.615 0.098 -83.182
2545.833 0.096 -83.272 0.993 5.498 0.993 5.498 0.096 -83.272
2570.792 0.094 -83.361 0.994 5.383 0.994 5.383 0.094 -83.361
2595.75 0.092 -83.447 0.994 5.27 0.994 5.27 0.092 -83.447
2620.708 0.09 -83.531 0.994 5.158 0.994 5.158 0.09 -83.531
2645.667 0.088 -83.613 0.994 5.047 0.994 5.047 0.088 -83.613
2670.625 0.086 -83.692 0.994 4.938 0.994 4.938 0.086 -83.692
2695.583 0.084 -83.769 0.994 4.831 0.994 4.831 0.084 -83.769
2720.542 0.082 -83.844 0.995 4.724 0.995 4.724 0.082 -83.844
2745.5 0.081 -83.916 0.995 4.62 0.995 4.62 0.081 -83.916
2770.458 0.079 -83.986 0.995 4.516 0.995 4.516 0.079 -83.986
2795.417 0.077 -84.053 0.995 4.414 0.995 4.414 0.077 -84.053
2820.375 0.075 -84.118 0.995 4.313 0.995 4.313 0.075 -84.118
2845.333 0.073 -84.181 0.995 4.213 0.995 4.213 0.073 -84.181
2870.292 0.072 -84.241 0.995 4.114 0.995 4.114 0.072 -84.241
2895.25 0.07 -84.298 0.995 4.016 0.995 4.016 0.07 -84.298
2920.208 0.068 -84.353 0.996 3.92 0.996 3.92 0.068 -84.353
2945.167 0.067 -84.405 0.996 3.825 0.996 3.825 0.067 -84.405
2970.125 0.065 -84.455 0.996 3.73 0.996 3.73 0.065 -84.455
2995.083 0.063 -84.501 0.996 3.637 0.996 3.637 0.063 -84.501
3020.042 0.062 -84.545 0.996 3.545 0.996 3.545 0.062 -84.545
3045 0.06 -84.586 0.996 3.453 0.996 3.453 0.06 -84.586
3069.958 0.059 -84.623 0.996 3.363 0.996 3.363 0.059 -84.623
3094.917 0.057 -84.658 0.996 3.274 0.996 3.274 0.057 -84.658
3119.875 0.056 -84.689 0.996 3.185 0.996 3.185 0.056 -84.689
3144.833 0.054 -84.716 0.996 3.098 0.996 3.098 0.054 -84.716
3169.792 0.053 -84.74 0.997 3.011 0.997 3.011 0.053 -84.74
3194.75 0.051 -84.76 0.997 2.925 0.997 2.925 0.051 -84.76
3219.708 0.05 -84.775 0.997 2.84 0.997 2.84 0.05 -84.775
3244.667 0.048 -84.787 0.997 2.756 0.997 2.756 0.048 -84.787
3269.625 0.047 -84.793 0.997 2.672 0.997 2.672 0.047 -84.793
3294.583 0.045 -84.795 0.997 2.59 0.997 2.59 0.045 -84.795
3319.542 0.044 -84.792 0.997 2.508 0.997 2.508 0.044 -84.792
3344.5 0.042 -84.782 0.997 2.427 0.997 2.427 0.042 -84.782
3369.458 0.041 -84.767 0.997 2.346 0.997 2.346 0.041 -84.767
3394.417 0.04 -84.745 0.997 2.266 0.997 2.266 0.04 -84.745
3419.375 0.038 -84.717 0.997 2.187 0.997 2.187 0.038 -84.717
3444.333 0.037 -84.68 0.997 2.109 0.997 2.109 0.037 -84.68
3469.292 0.036 -84.635 0.997 2.031 0.997 2.031 0.036 -84.635
3494.25 0.034 -84.581 0.997 1.954 0.997 1.954 0.034 -84.581
3519.208 0.033 -84.517 0.997 1.878 0.997 1.878 0.033 -84.517
3544.167 0.032 -84.441 0.997 1.802 0.997 1.802 0.032 -84.441
3569.125 0.03 -84.354 0.997 1.727 0.997 1.727 0.03 -84.354
3594.083 0.029 -84.252 0.998 1.653 0.998 1.653 0.029 -84.252
3619.042 0.028 -84.135 0.998 1.579 0.998 1.579 0.028 -84.135
3644 0.026 -84 0.998 1.505 0.998 1.505 0.026 -84
3668.958 0.025 -83.845 0.998 1.433 0.998 1.433 0.025 -83.845
3693.917 0.024 -83.668 0.998 1.36 0.998 1.36 0.024 -83.668
3718.875 0.023 -83.464 0.998 1.289 0.998 1.289 0.023 -83.464
3743.833 0.021 -83.231 0.998 1.218 0.998 1.218 0.021 -83.231
3768.792 0.02 -82.961 0.998 1.147 0.998 1.147 0.02 -82.961
3793.75 0.019 -82.651 0.998 1.077 0.998 1.077 0.019 -82.651
3818.708 0.018 -82.291 0.998 1.007 0.998 1.007 0.018 -82.291
3843.667 0.017 -81.871 0.998 0.938 0.998 0.938 0.017 -81.871
3868.625 0.015 -81.378 0.998 0.869 0.998 0.869 0.015 -81.378
3893.583 0.014 -80.796 0.998 0.801 0.998 0.801 0.014 -80.796
3918.542 0.013 -80.1 0.998 0.734 0.998 0.734 0.013 -80.1
3943.5 0.012 -79.261 0.998 0.666 0.998 0.666 0.012 -79.261
3968.458 0.011 -78.232 0.998 0.599 0.998 0.599 0.011 -78.232
3993.417 9.532e-3 -76.95 0.998 0.533 0.998 0.533 9.532e-3 -76.95
4018.375 8.412e-3 -75.317 0.998 0.467 0.998 0.467 8.412e-3 -75.317
4043.333 7.309e-3 -73.181 0.998 0.402 0.998 0.402 7.309e-3 -73.181
4068.292 6.228e-3 -70.292 0.998 0.337 0.998 0.337 6.228e-3 -70.292
4093.25 5.177e-3 -66.209 0.998 0.272 0.998 0.272 5.177e-3 -66.209
4118.208 4.173e-3 -60.116 0.998 0.208 0.998 0.208 4.173e-3 -60.116
4143.167 3.251e-3 -50.406 0.998 0.144 0.998 0.144 3.251e-3 -50.406
4168.125 2.497e-3 -34.094 0.998 0.08 0.998 0.08 2.497e-3 -34.094
4193.083 2.088e-3 -8.281 0.998 0.017 0.998 0.017 2.088e-3 -8.281
4218.042 2.213e-3 20.964 0.998 -0.045 0.998 -0.045 2.213e-3 20.964
4243 2.794e-3 42.221 0.998 -0.108 0.998 -0.108 2.794e-3 42.221
4267.958 3.613e-3 54.952 0.998 -0.17 0.998 -0.17 3.613e-3 54.952
4292.917 4.537e-3 62.683 0.998 -0.231 0.998 -0.231 4.537e-3 62.683
4317.875 5.511e-3 67.692 0.998 -0.293 0.998 -0.293 5.511e-3 67.692
4342.833 6.509e-3 71.143 0.998 -0.354 0.998 -0.354 6.509e-3 71.143
4367.792 7.52e-3 73.641 0.998 -0.414 0.998 -0.414 7.52e-3 73.641
4392.75 8.536e-3 75.52 0.998 -0.475 0.998 -0.475 8.536e-3 75.52
4417.708 9.555e-3 76.979 0.998 -0.535 0.998 -0.535 9.555e-3 76.979
4442.667 0.011 78.139 0.998 -0.594 0.998 -0.594 0.011 78.139
4467.625 0.012 79.079 0.998 -0.653 0.998 -0.653 0.012 79.079
4492.583 0.013 79.855 0.998 -0.712 0.998 -0.712 0.013 79.855
4517.542 0.014 80.503 0.998 -0.771 0.998 -0.771 0.014 80.503
4542.5 0.015 81.05 0.998 -0.83 0.998 -0.83 0.015 81.05
4567.458 0.016 81.517 0.998 -0.888 0.998 -0.888 0.016 81.517
4592.417 0.017 81.919 0.998 -0.945 0.998 -0.945 0.017 81.919
4617.375 0.018 82.267 0.998 -1.003 0.998 -1.003 0.018 82.267
4642.333 0.019 82.57 0.998 -1.06 0.998 -1.06 0.019 82.57
4667.292 0.02 82.835 0.998 -1.117 0.998 -1.117 0.02 82.835
4692.25 0.021 83.069 0.998 -1.174 0.998 -1.174 0.021 83.069
4717.208 0.022 83.275 0.998 -1.23 0.998 -1.23 0.022 83.275
4742.167 0.023 83.457 0.998 -1.286 0.998 -1.286 0.023 83.457
4767.125 0.024 83.619 0.998 -1.342 0.998 -1.342 0.024 83.619
4792.083 0.024 83.763 0.998 -1.398 0.998 -1.398 0.024 83.763
4817.042 0.025 83.891 0.998 -1.453 0.998 -1.453 0.025 83.891
4842 0.026 84.005 0.998 -1.508 0.998 -1.508 0.026 84.005
4866.958 0.027 84.108 0.998 -1.563 0.998 -1.563 0.027 84.108
4891.917 0.028 84.199 0.998 -1.618 0.998 -1.618 0.028 84.199
4916.875 0.029 84.28 0.998 -1.672 0.998 -1.672 0.029 84.28
4941.833 0.03 84.352 0.997 -1.726 0.997 -1.726 0.03 84.352
4966.792 0.031 84.417 0.997 -1.78 0.997 -1.78 0.031 84.417
4991.75 0.032 84.474 0.997 -1.834 0.997 -1.834 0.032 84.474
5016.708 0.033 84.525 0.997 -1.887 0.997 -1.887 0.033 84.525
5041.667 0.034 84.57 0.997 -1.941 0.997 -1.941 0.034 84.57
5066.625 0.035 84.61 0.997 -1.994 0.997 -1.994 0.035 84.61
5091.583 0.036 84.645 0.997 -2.047 0.997 -2.047 0.036 84.645
5116.542 0.037 84.675 0.997 -2.099 0.997 -2.099 0.037 84.675
5141.5 0.038 84.701 0.997 -2.152 0.997 -2.152 0.038 84.701
5166.458 0.039 84.723 0.997 -2.204 0.997 -2.204 0.039 84.723
5191.417 0.039 84.742 0.997 -2.256 0.997 -2.256 0.039 84.742
5216.375 0.04 84.758 0.997 -2.307 0.997 -2.307 0.04 84.758
5241.333 0.041 84.77 0.997 -2.359 0.997 -2.359 0.041 84.77
5266.292 0.042 84.78 0.997 -2.41 0.997 -2.41 0.042 84.78
5291.25 0.043 84.787 0.997 -2.462 0.997 -2.462 0.043 84.787
5316.208 0.044 84.792 0.997 -2.513 0.997 -2.513 0.044 84.792
5341.167 0.045 84.795 0.997 -2.563 0.997 -2.563 0.045 84.795
5366.125 0.046 84.795 0.997 -2.614 0.997 -2.614 0.046 84.795
5391.083 0.047 84.794 0.997 -2.664 0.997 -2.664 0.047 84.794
5416.042 0.047 84.79 0.997 -2.715 0.997 -2.715 0.047 84.79
5441 0.048 84.786 0.997 -2.765 0.997 -2.765 0.048 84.786
5465.958 0.049 84.779 0.997 -2.815 0.997 -2.815 0.049 84.779
5490.917 0.05 84.771 0.997 -2.865 0.997 -2.865 0.05 84.771
5515.875 0.051 84.762 0.997 -2.914 0.997 -2.914 0.051 84.762
5540.833 0.052 84.751 0.997 -2.963 0.997 -2.963 0.052 84.751
5565.792 0.053 84.739 0.997 -3.013 0.997 -3.013 0.053 84.739
5590.75 0.053 84.726 0.997 -3.062 0.997 -3.062 0.053 84.726
5615.708 0.054 84.712 0.996 -3.111 0.996 -3.111 0.054 84.712
5640.667 0.055 84.697 0.996 -3.159 0.996 -3.159 0.055 84.697
5665.625 0.056 84.681 0.996 -3.208 0.996 -3.208 0.056 84.681
5690.583 0.057 84.664 0.996 -3.256 0.996 -3.256 0.057 84.664
5715.542 0.058 84.646 0.996 -3.305 0.996 -3.305 0.058 84.646
5740.5 0.059 84.628 0.996 -3.353 0.996 -3.353 0.059 84.628
5765.458 0.059 84.608 0.996 -3.401 0.996 -3.401 0.059 84.608
5790.417 0.06 84.588 0.996 -3.449 0.996 -3.449 0.06 84.588
5815.375 0.061 84.567 0.996 -3.496 0.996 -3.496 0.061 84.567
5840.333 0.062 84.546 0.996 -3.544 0.996 -3.544 0.062 84.546
5865.292 0.063 84.523 0.996 -3.591 0.996 -3.591 0.063 84.523
5890.25 0.063 84.501 0.996 -3.639 0.996 -3.639 0.063 84.501
5915.208 0.064 84.477 0.996 -3.686 0.996 -3.686 0.064 84.477
5940.167 0.065 84.454 0.996 -3.733 0.996 -3.733 0.065 84.454
5965.125 0.066 84.429 0.996 -3.779 0.996 -3.779 0.066 84.429
5990.083 0.067 84.405 0.996 -3.826 0.996 -3.826 0.067 84.405
6015.042 0.068 84.379 0.996 -3.873 0.996 -3.873 0.068 84.379
6040 0.068 84.354 0.996 -3.919 0.996 -3.919 0.068 84.354
6064.958 0.069 84.328 0.996 -3.965 0.996 -3.965 0.069 84.328
6089.917 0.07 84.301 0.995 -4.012 0.995 -4.012 0.07 84.301
6114.875 0.071 84.274 0.995 -4.058 0.995 -4.058 0.071 84.274
6139.833 0.072 84.247 0.995 -4.104 0.995 -4.104 0.072 84.247
6164.792 0.072 84.219 0.995 -4.149 0.995 -4.149 0.072 84.219
6189.75 0.073 84.192 0.995 -4.195 0.995 -4.195 0.073 84.192
6214.708 0.074 84.163 0.995 -4.241 0.995 -4.241 0.074 84.163
6239.667 0.075 84.135 0.995 -4.286 0.995 -4.286 0.075 84.135
6264.625 0.076 84.106 0.995 -4.331 0.995 -4.331 0.076 84.106
6289.583 0.076 84.077 0.995 -4.377 0.995 -4.377 0.076 84.077
6314.542 0.077 84.048 0.995 -4.422 0.995 -4.422 0.077 84.048
6339.5 0.078 84.018 0.995 -4.467 0.995 -4.467 0.078 84.018
6364.458 0.079 83.989 0.995 -4.511 0.995 -4.511 0.079 83.989
6389.417 0.079 83.959 0.995 -4.556 0.995 -4.556 0.079 83.959
6414.375 0.08 83.929 0.995 -4.601 0.995 -4.601 0.08 83.929
6439.333 0.081 83.898 0.995 -4.645 0.995 -4.645 0.081 83.898
6464.292 0.082 83.868 0.995 -4.69 0.995 -4.69 0.082 83.868
6489.25 0.083 83.837 0.995 -4.734 0.995 -4.734 0.083 83.837
6514.208 0.083 83.806 0.994 -4.778 0.994 -4.778 0.083 83.806
6539.167 0.084 83.775 0.994 -4.822 0.994 -4.822 0.084 83.775
6564.125 0.085 83.744 0.994 -4.866 0.994 -4.866 0.085 83.744
6589.083 0.086 83.712 0.994 -4.91 0.994 -4.91 0.086 83.712
6614.042 0.086 83.681 0.994 -4.954 0.994 -4.954 0.086 83.681
6639 0.087 83.649 0.994 -4.998 0.994 -4.998 0.087 83.649
6663.958 0.088 83.617 0.994 -5.041 0.994 -5.041 0.088 83.617
6688.917 0.089 83.585 0.994 -5.085 0.994 -5.085 0.089 83.585
6713.875 0.089 83.553 0.994 -5.128 0.994 -5.128 0.089 83.553
6738.833 0.09 83.521 0.994 -5.172 0.994 -5.172 0.09 83.521
6763.792 0.091 83.489 0.994 -5.215 0.994 -5.215 0.091 83.489
6788.75 0.092 83.456 0.994 -5.258 0.994 -5.258 0.092 83.456
6813.708 0.092 83.424 0.994 -5.301 0.994 -5.301 0.092 83.424
6838.667 0.093 83.391 0.994 -5.344 0.994 -5.344 0.093 83.391
6863.625 0.094 83.358 0.994 -5.387 0.994 -5.387 0.094 83.358
6888.583 0.095 83.325 0.993 -5.429 0.993 -5.429 0.095 83.325
6913.542 0.095 83.293 0.993 -5.472 0.993 -5.472 0.095 83.293
6938.5 0.096 83.26 0.993 -5.515 0.993 -5.515 0.096 83.26
6963.458 0.097 83.227 0.993 -5.557 0.993 -5.557 0.097 83.227
6988.417 0.098 83.193 0.993 -5.599 0.993 -5.599 0.098 83.193
7013.375 0.098 83.16 0.993 -5.642 0.993 -5.642 0.098 83.16
7038.333 0.099 83.127 0.993 -5.684 0.993 -5.684 0.099 83.127
7063.292 0.1 83.094 0.993 -5.726 0.993 -5.726 0.1 83.094
7088.25 0.101 83.06 0.993 -5.768 0.993 -5.768 0.101 83.06
7113.208 0.101 83.027 0.993 -5.81 0.993 -5.81 0.101 83.027
7138.167 0.102 82.993 0.993 -5.852 0.993 -5.852 0.102 82.993
7163.125 0.103 82.96 0.993 -5.894 0.993 -5.894 0.103 82.96
7188.083 0.103 82.926 0.993 -5.935 0.993 -5.935 0.103 82.926
7213.042 0.104 82.892 0.993 -5.977 0.993 -5.977 0.104 82.892
7238 0.105 82.859 0.992 -6.019 0.992 -6.019 0.105 82.859
7262.958 0.106 82.825 0.992 -6.06 0.992 -6.06 0.106 82.825
7287.917 0.106 82.791 0.992 -6.102 0.992 -6.102 0.106 82.791
7312.875 0.107 82.757 0.992 -6.143 0.992 -6.143 0.107 82.757
7337.833 0.108 82.724 0.992 -6.184 0.992 -6.184 0.108 82.724
7362.792 0.108 82.69 0.992 -6.225 0.992 -6.225 0.108 82.69
7387.75 0.109 82.656 0.992 -6.266 0.992 -6.266 0.109 82.656
7412.708 0.11 82.622 0.992 -6.307 0.992 -6.307 0.11 82.622
7437.667 0.111 82.588 0.992 -6.348 0.992 -6.348 0.111 82.588
7462.625 0.111 82.554 0.992 -6.389 0.992 -6.389 0.111 82.554
7487.583 0.112 82.52 0.992 -6.43 0.992 -6.43 0.112 82.52
7512.542 0.113 82.486 0.992 -6.471 0.992 -6.471 0.113 82.486
7537.5 0.113 82.452 0.991 -6.511 0.991 -6.511 0.113 82.452
7562.458 0.114 82.418 0.991 -6.552 0.991 -6.552 0.114 82.418
7587.417 0.115 82.383 0.991 -6.593 0.991 -6.593 0.115 82.383
7612.375 0.116 82.349 0.991 -6.633 0.991 -6.633 0.116 82.349
7637.333 0.116 82.315 0.991 -6.673 0.991 -6.673 0.116 82.315
7662.292 0.117 82.281 0.991 -6.714 0.991 -6.714 0.117 82.281
7687.25 0.118 82.247 0.991 -6.754 0.991 -6.754 0.118 82.247
7712.208 0.118 82.212 0.991 -6.794 0.991 -6.794 0.118 82.212
7737.167 0.119 82.178 0.991 -6.834 0.991 -6.834 0.119 82.178
7762.125 0.12 82.144 0.991 -6.874 0.991 -6.874 0.12 82.144
7787.083 0.12 82.11 0.991 -6.914 0.991 -6.914 0.12 82.11
7812.042 0.121 82.075 0.991 -6.954 0.991 -6.954 0.121 82.075
7837 0.122 82.041 0.991 -6.994 0.991 -6.994 0.122 82.041
7861.958 0.122 82.007 0.99 -7.034 0.99 -7.034 0.122 82.007
7886.917 0.123 81.973 0.99 -7.074 0.99 -7.074 0.123 81.973
7911.875 0.124 81.938 0.99 -7.113 0.99 -7.113 0.124 81.938
7936.833 0.125 81.904 0.99 -7.153 0.99 -7.153 0.125 81.904
7961.792 0.125 81.87 0.99 -7.192 0.99 -7.192 0.125 81.87
7986.75 0.126 81.835 0.99 -7.232 0.99 -7.232 0.126 81.835
8011.708 0.127 81.801 0.99 -7.271 0.99 -7.271 0.127 81.801
8036.667 0.127 81.767 0.99 -7.311 0.99 -7.311 0.127 81.767
8061.625 0.128 81.732 0.99 -7.35 0.99 -7.35 0.128 81.732
8086.583 0.129 81.698 0.99 -7.389 0.99 -7.389 0.129 81.698
8111.542 0.129 81.664 0.99 -7.428 0.99 -7.428 0.129 81.664
8136.5 0.13 81.63 0.989 -7.468 0.989 -7.468 0.13 81.63
8161.458 0.131 81.595 0.989 -7.507 0.989 -7.507 0.131 81.595
8186.417 0.131 81.561 0.989 -7.546 0.989 -7.546 0.131 81.561
8211.375 0.132 81.527 0.989 -7.585 0.989 -7.585 0.132 81.527
8236.333 0.133 81.492 0.989 -7.623 0.989 -7.623 0.133 81.492
8261.292 0.133 81.458 0.989 -7.662 0.989 -7.662 0.133 81.458
