# MHZ S MA R 50

50 1 -1.71 0.03 88.281 0.03 88.281 1 -1.71
74.958 0.999 -2.562 0.045 87.424 0.045 87.424 0.999 -2.562
99.917 0.998 -3.413 0.06 86.568 0.06 86.568 0.998 -3.413
124.875 0.997 -4.264 0.074 85.713 0.074 85.713 0.997 -4.264
149.833 0.996 -5.112 0.089 84.86 0.089 84.86 0.996 -5.112
174.792 0.995 -5.958 0.104 84.009 0.104 84.009 0.995 -5.958
199.75 0.993 -6.802 0.118 83.16 0.118 83.16 0.993 -6.802
224.708 0.991 -7.644 0.133 82.314 0.133 82.314 0.991 -7.644
249.667 0.989 -8.482 0.148 81.471 0.148 81.471 0.989 -8.482
274.625 0.987 -9.317 0.162 80.631 0.162 80.631 0.987 -9.317
299.583 0.984 -10.149 0.176 79.795 0.176 79.795 0.984 -10.149
324.542 0.982 -10.976 0.19 78.963 0.19 78.963 0.982 -10.976
349.5 0.979 -11.8 0.204 78.134 0.204 78.134 0.979 -11.8
374.458 0.976 -12.619 0.218 77.311 0.218 77.311 0.976 -12.619
399.417 0.972 -13.433 0.232 76.492 0.232 76.492 0.972 -13.433
424.375 0.969 -14.243 0.246 75.677 0.246 75.677 0.969 -14.243
449.333 0.965 -15.047 0.26 74.868 0.26 74.868 0.965 -15.047
474.292 0.962 -15.846 0.273 74.065 0.273 74.065 0.962 -15.846
499.25 0.958 -16.639 0.286 73.267 0.286 73.267 0.958 -16.639
524.208 0.954 -17.426 0.299 72.475 0.299 72.475 0.954 -17.426
549.167 0.949 -18.208 0.312 71.689 0.312 71.689 0.949 -18.208
574.125 0.945 -18.983 0.325 70.909 0.325 70.909 0.945 -18.983
599.083 0.941 -19.752 0.338 70.136 0.338 70.136 0.941 -19.752
624.042 0.936 -20.514 0.35 69.369 0.35 69.369 0.936 -20.514
649 0.931 -21.269 0.363 68.608 0.363 68.608 0.931 -21.269
673.958 0.926 -22.018 0.375 67.855 0.375 67.855 0.926 -22.018
698.917 0.921 -22.759 0.387 67.109 0.387 67.109 0.921 -22.759
723.875 0.916 -23.494 0.399 66.369 0.399 66.369 0.916 -23.494
748.833 0.911 -24.221 0.41 65.637 0.41 65.637 0.911 -24.221
773.792 0.906 -24.941 0.422 64.912 0.422 64.912 0.906 -24.941
798.75 0.9 -25.654 0.433 64.195 0.433 64.195 0.9 -25.654
823.708 0.895 -26.359 0.444 63.485 0.444 63.485 0.895 -26.359
848.667 0.889 -27.057 0.455 62.783 0.455 62.783 0.889 -27.057
873.625 0.884 -27.747 0.466 62.088 0.466 62.088 0.884 -27.747
898.583 0.878 -28.429 0.476 61.4 0.476 61.4 0.878 -28.429
923.542 0.872 -29.104 0.486 60.721 0.486 60.721 0.872 -29.104
948.5 0.866 -29.771 0.497 60.049 0.497 60.049 0.866 -29.771
973.458 0.861 -30.431 0.506 59.384 0.506 59.384 0.861 -30.431
998.417 0.855 -31.082 0.516 58.728 0.516 58.728 0.855 -31.082
1023.375 0.849 -31.726 0.526 58.079 0.526 58.079 0.849 -31.726
1048.333 0.843 -32.363 0.535 57.438 0.535 57.438 0.843 -32.363
1073.292 0.837 -32.991 0.545 56.805 0.545 56.805 0.837 -32.991
1098.25 0.831 -33.612 0.554 56.179 0.554 56.179 0.831 -33.612
1123.208 0.825 -34.225 0.562 55.561 0.562 55.561 0.825 -34.225
1148.167 0.819 -34.831 0.571 54.95 0.571 54.95 0.819 -34.831
1173.125 0.813 -35.428 0.58 54.348 0.58 54.348 0.813 -35.428
1198.083 0.806 -36.019 0.588 53.752 0.588 53.752 0.806 -36.019
1223.042 0.8 -36.602 0.596 53.165 0.596 53.165 0.8 -36.602
1248 0.794 -37.177 0.604 52.584 0.604 52.584 0.794 -37.177
1272.958 0.788 -37.745 0.612 52.011 0.612 52.011 0.788 -37.745
1297.917 0.782 -38.305 0.62 51.446 0.62 51.446 0.782 -38.305
1322.875 0.776 -38.858 0.627 50.888 0.627 50.888 0.776 -38.858
1347.833 0.77 -39.404 0.635 50.337 0.635 50.337 0.77 -39.404
1372.792 0.764 -39.943 0.642 49.793 0.642 49.793 0.764 -39.943
1397.75 0.758 -40.475 0.649 49.256 0.649 49.256 0.758 -40.475
1422.708 0.752 -40.999 0.656 48.727 0.656 48.727 0.752 -40.999
1447.667 0.746 -41.517 0.663 48.204 0.663 48.204 0.746 -41.517
1472.625 0.74 -42.027 0.669 47.688 0.669 47.688 0.74 -42.027
1497.583 0.733 -42.531 0.676 47.179 0.676 47.179 0.733 -42.531
1522.542 0.728 -43.028 0.682 46.677 0.682 46.677 0.728 -43.028
1547.5 0.722 -43.519 0.689 46.182 0.689 46.182 0.722 -43.519
1572.458 0.716 -44.003 0.695 45.693 0.695 45.693 0.716 -44.003
1597.417 0.71 -44.48 0.701 45.21 0.701 45.21 0.71 -44.48
1622.375 0.704 -44.951 0.707 44.734 0.707 44.734 0.704 -44.951
1647.333 0.698 -45.415 0.712 44.264 0.712 44.264 0.698 -45.415
1672.292 0.692 -45.874 0.718 43.801 0.718 43.801 0.692 -45.874
1697.25 0.686 -46.326 0.723 43.343 0.723 43.343 0.686 -46.326
1722.208 0.681 -46.772 0.729 42.892 0.729 42.892 0.681 -46.772
1747.167 0.675 -47.212 0.734 42.447 0.734 42.447 0.675 -47.212
1772.125 0.669 -47.646 0.739 42.007 0.739 42.007 0.669 -47.646
1797.083 0.664 -48.074 0.744 41.573 0.744 41.573 0.664 -48.074
1822.042 0.658 -48.497 0.749 41.145 0.749 41.145 0.658 -48.497
1847 0.652 -48.914 0.754 40.723 0.754 40.723 0.652 -48.914
1871.958 0.647 -49.325 0.758 40.306 0.758 40.306 0.647 -49.325
1896.917 0.641 -49.731 0.763 39.895 0.763 39.895 0.641 -49.731
1921.875 0.636 -50.132 0.768 39.489 0.768 39.489 0.636 -50.132
1946.833 0.631 -50.527 0.772 39.089 0.772 39.089 0.631 -50.527
1971.792 0.625 -50.917 0.776 38.693 0.776 38.693 0.625 -50.917
1996.75 0.62 -51.302 0.78 38.303 0.78 38.303 0.62 -51.302
2021.708 0.615 -51.681 0.785 37.918 0.785 37.918 0.615 -51.681
2046.667 0.609 -52.056 0.789 37.538 0.789 37.538 0.609 -52.056
2071.625 0.604 -52.426 0.793 37.162 0.793 37.162 0.604 -52.426
2096.583 0.599 -52.791 0.796 36.792 0.796 36.792 0.599 -52.791
2121.542 0.594 -53.151 0.8 36.426 0.8 36.426 0.594 -53.151
2146.5 0.589 -53.506 0.804 36.065 0.804 36.065 0.589 -53.506
2171.458 0.584 -53.857 0.808 35.709 0.808 35.709 0.584 -53.857
2196.417 0.579 -54.203 0.811 35.357 0.811 35.357 0.579 -54.203
2221.375 0.574 -54.545 0.815 35.009 0.815 35.009 0.574 -54.545
2246.333 0.569 -54.883 0.818 34.666 0.818 34.666 0.569 -54.883
2271.292 0.564 -55.216 0.821 34.327 0.821 34.327 0.564 -55.216
2296.25 0.559 -55.545 0.825 33.992 0.825 33.992 0.559 -55.545
2321.208 0.554 -55.869 0.828 33.662 0.828 33.662 0.554 -55.869
2346.167 0.55 -56.19 0.831 33.335 0.831 33.335 0.55 -56.19
2371.125 0.545 -56.507 0.834 33.013 0.834 33.013 0.545 -56.507
2396.083 0.54 -56.819 0.837 32.694 0.837 32.694 0.54 -56.819
2421.042 0.536 -57.128 0.84 32.38 0.84 32.38 0.536 -57.128
2446 0.531 -57.433 0.843 32.069 0.843 32.069 0.531 -57.433
2470.958 0.526 -57.734 0.846 31.762 0.846 31.762 0.526 -57.734
2495.917 0.522 -58.031 0.848 31.458 0.848 31.458 0.522 -58.031
2520.875 0.517 -58.325 0.851 31.159 0.851 31.159 0.517 -58.325
2545.833 0.513 -58.615 0.854 30.863 0.854 30.863 0.513 -58.615
2570.792 0.509 -58.901 0.856 30.57 0.856 30.57 0.509 -58.901
2595.75 0.504 -59.185 0.859 30.281 0.859 30.281 0.504 -59.185
2620.708 0.5 -59.464 0.861 29.995 0.861 29.995 0.5 -59.464
2645.667 0.496 -59.741 0.864 29.712 0.864 29.712 0.496 -59.741
2670.625 0.491 -60.014 0.866 29.433 0.866 29.433 0.491 -60.014
2695.583 0.487 -60.283 0.869 29.157 0.869 29.157 0.487 -60.283
2720.542 0.483 -60.55 0.871 28.884 0.871 28.884 0.483 -60.55
2745.5 0.479 -60.813 0.873 28.614 0.873 28.614 0.479 -60.813
2770.458 0.475 -61.074 0.875 28.348 0.875 28.348 0.475 -61.074
2795.417 0.471 -61.331 0.877 28.084 0.877 28.084 0.471 -61.331
2820.375 0.467 -61.585 0.88 27.823 0.88 27.823 0.467 -61.585
2845.333 0.463 -61.836 0.882 27.565 0.882 27.565 0.463 -61.836
2870.292 0.459 -62.085 0.884 27.31 0.884 27.31 0.459 -62.085
2895.25 0.455 -62.33 0.886 27.058 0.886 27.058 0.455 -62.33
2920.208 0.451 -62.573 0.888 26.809 0.888 26.809 0.451 -62.573
2945.167 0.447 -62.813 0.89 26.562 0.89 26.562 0.447 -62.813
2970.125 0.443 -63.05 0.891 26.318 0.891 26.318 0.443 -63.05
2995.083 0.44 -63.285 0.893 26.077 0.893 26.077 0.44 -63.285
3020.042 0.436 -63.517 0.895 25.838 0.895 25.838 0.436 -63.517
3045 0.432 -63.746 0.897 25.602 0.897 25.602 0.432 -63.746
3069.958 0.428 -63.973 0.899 25.368 0.899 25.368 0.428 -63.973
3094.917 0.425 -64.198 0.9 25.137 0.9 25.137 0.425 -64.198
3119.875 0.421 -64.419 0.902 24.908 0.902 24.908 0.421 -64.419
3144.833 0.418 -64.639 0.904 24.682 0.904 24.682 0.418 -64.639
3169.792 0.414 -64.856 0.905 24.457 0.905 24.457 0.414 -64.856
3194.75 0.411 -65.071 0.907 24.236 0.907 24.236 0.411 -65.071
3219.708 0.407 -65.283 0.908 24.016 0.908 24.016 0.407 -65.283
3244.667 0.404 -65.493 0.91 23.799 0.91 23.799 0.404 -65.493
3269.625 0.4 -65.701 0.911 23.584 0.911 23.584 0.4 -65.701
3294.583 0.397 -65.907 0.913 23.371 0.913 23.371 0.397 -65.907
3319.542 0.393 -66.11 0.914 23.16 0.914 23.16 0.393 -66.11
3344.5 0.39 -66.311 0.916 22.951 0.916 22.951 0.39 -66.311
3369.458 0.387 -66.511 0.917 22.744 0.917 22.744 0.387 -66.511
3394.417 0.383 -66.708 0.919 22.54 0.919 22.54 0.383 -66.708
3419.375 0.38 -66.903 0.92 22.337 0.92 22.337 0.38 -66.903
3444.333 0.377 -67.096 0.921 22.136 0.921 22.136 0.377 -67.096
3469.292 0.374 -67.287 0.923 21.938 0.923 21.938 0.374 -67.287
3494.25 0.37 -67.476 0.924 21.741 0.924 21.741 0.37 -67.476
3519.208 0.367 -67.663 0.925 21.546 0.925 21.546 0.367 -67.663
3544.167 0.364 -67.849 0.926 21.353 0.926 21.353 0.364 -67.849
3569.125 0.361 -68.032 0.927 21.161 0.927 21.161 0.361 -68.032
3594.083 0.358 -68.214 0.929 20.972 0.929 20.972 0.358 -68.214
3619.042 0.355 -68.393 0.93 20.784 0.93 20.784 0.355 -68.393
3644 0.352 -68.571 0.931 20.598 0.931 20.598 0.352 -68.571
3668.958 0.349 -68.748 0.932 20.413 0.932 20.413 0.349 -68.748
3693.917 0.346 -68.922 0.933 20.231 0.933 20.231 0.346 -68.922
3718.875 0.343 -69.095 0.934 20.05 0.934 20.05 0.343 -69.095
3743.833 0.34 -69.266 0.935 19.87 0.935 19.87 0.34 -69.266
3768.792 0.337 -69.435 0.936 19.692 0.936 19.692 0.337 -69.435
3793.75 0.334 -69.603 0.937 19.516 0.937 19.516 0.334 -69.603
3818.708 0.331 -69.769 0.938 19.342 0.938 19.342 0.331 -69.769
3843.667 0.328 -69.933 0.939 19.168 0.939 19.168 0.328 -69.933
3868.625 0.326 -70.096 0.94 18.997 0.94 18.997 0.326 -70.096
3893.583 0.323 -70.258 0.941 18.827 0.941 18.827 0.323 -70.258
3918.542 0.32 -70.417 0.942 18.658 0.942 18.658 0.32 -70.417
3943.5 0.317 -70.576 0.943 18.491 0.943 18.491 0.317 -70.576
3968.458 0.314 -70.732 0.944 18.325 0.944 18.325 0.314 -70.732
3993.417 0.312 -70.888 0.945 18.16 0.945 18.16 0.312 -70.888
4018.375 0.309 -71.041 0.946 17.997 0.946 17.997 0.309 -71.041
4043.333 0.306 -71.194 0.947 17.836 0.947 17.836 0.306 -71.194
4068.292 0.304 -71.345 0.948 17.675 0.948 17.675 0.304 -71.345
4093.25 0.301 -71.494 0.948 17.516 0.948 17.516 0.301 -71.494
4118.208 0.298 -71.643 0.949 17.359 0.949 17.359 0.298 -71.643
4143.167 0.296 -71.789 0.95 17.202 0.95 17.202 0.296 -71.789
4168.125 0.293 -71.935 0.951 17.047 0.951 17.047 0.293 -71.935
4193.083 0.291 -72.079 0.952 16.893 0.952 16.893 0.291 -72.079
4218.042 0.288 -72.222 0.952 16.74 0.952 16.74 0.288 -72.222
4243 0.286 -72.363 0.953 16.589 0.953 16.589 0.286 -72.363
4267.958 0.283 -72.503 0.954 16.438 0.954 16.438 0.283 -72.503
4292.917 0.281 -72.642 0.955 16.289 0.955 16.289 0.281 -72.642
4317.875 0.278 -72.78 0.955 16.141 0.955 16.141 0.278 -72.78
4342.833 0.276 -72.916 0.956 15.994 0.956 15.994 0.276 -72.916
4367.792 0.273 -73.051 0.957 15.849 0.957 15.849 0.273 -73.051
4392.75 0.271 -73.185 0.957 15.704 0.957 15.704 0.271 -73.185
4417.708 0.268 -73.318 0.958 15.561 0.958 15.561 0.268 -73.318
4442.667 0.266 -73.449 0.959 15.418 0.959 15.418 0.266 -73.449
4467.625 0.264 -73.58 0.959 15.277 0.959 15.277 0.264 -73.58
4492.583 0.261 -73.709 0.96 15.137 0.96 15.137 0.261 -73.709
4517.542 0.259 -73.837 0.961 14.997 0.961 14.997 0.259 -73.837
4542.5 0.256 -73.964 0.961 14.859 0.961 14.859 0.256 -73.964
4567.458 0.254 -74.09 0.962 14.722 0.962 14.722 0.254 -74.09
4592.417 0.252 -74.214 0.962 14.586 0.962 14.586 0.252 -74.214
4617.375 0.25 -74.338 0.963 14.45 0.963 14.45 0.25 -74.338
4642.333 0.247 -74.46 0.964 14.316 0.964 14.316 0.247 -74.46
4667.292 0.245 -74.582 0.964 14.183 0.964 14.183 0.245 -74.582
4692.25 0.243 -74.702 0.965 14.051 0.965 14.051 0.243 -74.702
4717.208 0.241 -74.821 0.965 13.919 0.965 13.919 0.241 -74.821
4742.167 0.238 -74.939 0.966 13.789 0.966 13.789 0.238 -74.939
4767.125 0.236 -75.056 0.966 13.659 0.966 13.659 0.236 -75.056
4792.083 0.234 -75.172 0.967 13.53 0.967 13.53 0.234 -75.172
4817.042 0.232 -75.287 0.967 13.402 0.967 13.402 0.232 -75.287
4842 0.23 -75.401 0.968 13.275 0.968 13.275 0.23 -75.401
4866.958 0.228 -75.514 0.968 13.149 0.968 13.149 0.228 -75.514
4891.917 0.225 -75.626 0.969 13.024 0.969 13.024 0.225 -75.626
4916.875 0.223 -75.737 0.969 12.9 0.969 12.9 0.223 -75.737
4941.833 0.221 -75.847 0.97 12.776 0.97 12.776 0.221 -75.847
4966.792 0.219 -75.956 0.97 12.653 0.97 12.653 0.219 -75.956
4991.75 0.217 -76.064 0.971 12.531 0.971 12.531 0.217 -76.064
5016.708 0.215 -76.171 0.971 12.41 0.971 12.41 0.215 -76.171
5041.667 0.213 -76.277 0.972 12.29 0.972 12.29 0.213 -76.277
5066.625 0.211 -76.382 0.972 12.17 0.972 12.17 0.211 -76.382
5091.583 0.209 -76.486 0.973 12.051 0.973 12.051 0.209 -76.486
5116.542 0.207 -76.589 0.973 11.933 0.973 11.933 0.207 -76.589
5141.5 0.205 -76.692 0.973 11.816 0.973 11.816 0.205 -76.692
5166.458 0.203 -76.793 0.974 11.699 0.974 11.699 0.203 -76.793
5191.417 0.201 -76.893 0.974 11.583 0.974 11.583 0.201 -76.893
5216.375 0.199 -76.993 0.975 11.468 0.975 11.468 0.199 -76.993
5241.333 0.197 -77.091 0.975 11.354 0.975 11.354 0.197 -77.091
5266.292 0.195 -77.189 0.975 11.24 0.975 11.24 0.195 -77.189
5291.25 0.193 -77.285 0.976 11.127 0.976 11.127 0.193 -77.285
5316.208 0.191 -77.381 0.976 11.015 0.976 11.015 0.191 -77.381
5341.167 0.189 -77.476 0.977 10.903 0.977 10.903 0.189 -77.476
5366.125 0.187 -77.57 0.977 10.792 0.977 10.792 0.187 -77.57
5391.083 0.185 -77.663 0.977 10.682 0.977 10.682 0.185 -77.663
5416.042 0.184 -77.755 0.978 10.572 0.978 10.572 0.184 -77.755
5441 0.182 -77.846 0.978 10.463 0.978 10.463 0.182 -77.846
5465.958 0.18 -77.937 0.978 10.355 0.978 10.355 0.18 -77.937
5490.917 0.178 -78.026 0.979 10.247 0.979 10.247 0.178 -78.026
5515.875 0.176 -78.115 0.979 10.14 0.979 10.14 0.176 -78.115
5540.833 0.174 -78.202 0.979 10.033 0.979 10.033 0.174 -78.202
5565.792 0.172 -78.289 0.98 9.927 0.98 9.927 0.172 -78.289
5590.75 0.171 -78.375 0.98 9.822 0.98 9.822 0.171 -78.375
5615.708 0.169 -78.46 0.98 9.717 0.98 9.717 0.169 -78.46
5640.667 0.167 -78.544 0.981 9.613 0.981 9.613 0.167 -78.544
5665.625 0.165 -78.627 0.981 9.509 0.981 9.509 0.165 -78.627
5690.583 0.164 -78.709 0.981 9.406 0.981 9.406 0.164 -78.709
5715.542 0.162 -78.79 0.981 9.304 0.981 9.304 0.162 -78.79
5740.5 0.16 -78.871 0.982 9.202 0.982 9.202 0.16 -78.871
5765.458 0.158 -78.95 0.982 9.101 0.982 9.101 0.158 -78.95
5790.417 0.157 -79.029 0.982 9 0.982 9 0.157 -79.029
5815.375 0.155 -79.107 0.983 8.9 0.983 8.9 0.155 -79.107
5840.333 0.153 -79.183 0.983 8.8 0.983 8.8 0.153 -79.183
5865.292 0.151 -79.259 0.983 8.701 0.983 8.701 0.151 -79.259
5890.25 0.15 -79.334 0.983 8.602 0.983 8.602 0.15 -79.334
5915.208 0.148 -79.408 0.984 8.504 0.984 8.504 0.148 -79.408
5940.167 0.146 -79.481 0.984 8.407 0.984 8.407 0.146 -79.481
5965.125 0.145 -79.553 0.984 8.31 0.984 8.31 0.145 -79.553
5990.083 0.143 -79.624 0.984 8.213 0.984 8.213 0.143 -79.624
6015.042 0.141 -79.694 0.985 8.117 0.985 8.117 0.141 -79.694
6040 0.14 -79.764 0.985 8.021 0.985 8.021 0.14 -79.764
6064.958 0.138 -79.832 0.985 7.926 0.985 7.926 0.138 -79.832
6089.917 0.136 -79.899 0.985 7.832 0.985 7.832 0.136 -79.899
6114.875 0.135 -79.965 0.985 7.737 0.985 7.737 0.135 -79.965
6139.833 0.133 -80.031 0.986 7.644 0.986 7.644 0.133 -80.031
6164.792 0.132 -80.095 0.986 7.55 0.986 7.55 0.132 -80.095
6189.75 0.13 -80.158 0.986 7.458 0.986 7.458 0.13 -80.158
6214.708 0.128 -80.22 0.986 7.365 0.986 7.365 0.128 -80.22
6239.667 0.127 -80.281 0.987 7.273 0.987 7.273 0.127 -80.281
6264.625 0.125 -80.341 0.987 7.182 0.987 7.182 0.125 -80.341
6289.583 0.124 -80.4 0.987 7.091 0.987 7.091 0.124 -80.4
6314.542 0.122 -80.458 0.987 7.001 0.987 7.001 0.122 -80.458
6339.5 0.12 -80.515 0.987 6.91 0.987 6.91 0.12 -80.515
6364.458 0.119 -80.57 0.988 6.821 0.988 6.821 0.119 -80.57
6389.417 0.117 -80.625 0.988 6.731 0.988 6.731 0.117 -80.625
6414.375 0.116 -80.678 0.988 6.643 0.988 6.643 0.116 -80.678
6439.333 0.114 -80.73 0.988 6.554 0.988 6.554 0.114 -80.73
6464.292 0.113 -80.781 0.988 6.466 0.988 6.466 0.113 -80.781
6489.25 0.111 -80.83 0.988 6.378 0.988 6.378 0.111 -80.83
6514.208 0.11 -80.878 0.989 6.291 0.989 6.291 0.11 -80.878
6539.167 0.108 -80.925 0.989 6.204 0.989 6.204 0.108 -80.925
6564.125 0.107 -80.971 0.989 6.118 0.989 6.118 0.107 -80.971
6589.083 0.105 -81.015 0.989 6.032 0.989 6.032 0.105 -81.015
6614.042 0.104 -81.058 0.989 5.946 0.989 5.946 0.104 -81.058
6639 0.102 -81.1 0.989 5.861 0.989 5.861 0.102 -81.1
6663.958 0.101 -81.14 0.99 5.776 0.99 5.776 0.101 -81.14
6688.917 0.099 -81.178 0.99 5.691 0.99 5.691 0.099 -81.178
6713.875 0.098 -81.215 0.99 5.607 0.99 5.607 0.098 -81.215
6738.833 0.096 -81.251 0.99 5.523 0.99 5.523 0.096 -81.251
6763.792 0.095 -81.284 0.99 5.44 0.99 5.44 0.095 -81.284
6788.75 0.094 -81.316 0.99 5.357 0.99 5.357 0.094 -81.316
6813.708 0.092 -81.347 0.99 5.274 0.99 5.274 0.092 -81.347
6838.667 0.091 -81.375 0.99 5.192 0.99 5.192 0.091 -81.375
6863.625 0.089 -81.402 0.991 5.11 0.991 5.11 0.089 -81.402
6888.583 0.088 -81.427 0.991 5.028 0.991 5.028 0.088 -81.427
6913.542 0.086 -81.45 0.991 4.947 0.991 4.947 0.086 -81.45
6938.5 0.085 -81.471 0.991 4.866 0.991 4.866 0.085 -81.471
6963.458 0.084 -81.49 0.991 4.785 0.991 4.785 0.084 -81.49
6988.417 0.082 -81.506 0.991 4.705 0.991 4.705 0.082 -81.506
7013.375 0.081 -81.521 0.991 4.625 0.991 4.625 0.081 -81.521
7038.333 0.079 -81.533 0.991 4.545 0.991 4.545 0.079 -81.533
7063.292 0.078 -81.542 0.992 4.465 0.992 4.465 0.078 -81.542
7088.25 0.077 -81.549 0.992 4.386 0.992 4.386 0.077 -81.549
7113.208 0.075 -81.554 0.992 4.308 0.992 4.308 0.075 -81.554
7138.167 0.074 -81.555 0.992 4.229 0.992 4.229 0.074 -81.555
7163.125 0.073 -81.554 0.992 4.151 0.992 4.151 0.073 -81.554
7188.083 0.071 -81.55 0.992 4.073 0.992 4.073 0.071 -81.55
7213.042 0.07 -81.543 0.992 3.996 0.992 3.996 0.07 -81.543
7238 0.069 -81.532 0.992 3.919 0.992 3.919 0.069 -81.532
7262.958 0.067 -81.518 0.992 3.842 0.992 3.842 0.067 -81.518
7287.917 0.066 -81.5 0.992 3.765 0.992 3.765 0.066 -81.5
7312.875 0.065 -81.479 0.992 3.689 0.992 3.689 0.065 -81.479
7337.833 0.063 -81.453 0.993 3.613 0.993 3.613 0.063 -81.453
7362.792 0.062 -81.424 0.993 3.537 0.993 3.537 0.062 -81.424
7387.75 0.061 -81.389 0.993 3.461 0.993 3.461 0.061 -81.389
7412.708 0.059 -81.351 0.993 3.386 0.993 3.386 0.059 -81.351
7437.667 0.058 -81.307 0.993 3.311 0.993 3.311 0.058 -81.307
7462.625 0.057 -81.258 0.993 3.237 0.993 3.237 0.057 -81.258
7487.583 0.055 -81.203 0.993 3.162 0.993 3.162 0.055 -81.203
7512.542 0.054 -81.143 0.993 3.088 0.993 3.088 0.054 -81.143
7537.5 0.053 -81.076 0.993 3.014 0.993 3.014 0.053 -81.076
7562.458 0.052 -81.003 0.993 2.941 0.993 2.941 0.052 -81.003
7587.417 0.05 -80.922 0.993 2.868 0.993 2.868 0.05 -80.922
7612.375 0.049 -80.834 0.993 2.795 0.993 2.795 0.049 -80.834
7637.333 0.048 -80.738 0.993 2.722 0.993 2.722 0.048 -80.738
7662.292 0.047 -80.633 0.993 2.649 0.993 2.649 0.047 -80.633
7687.25 0.045 -80.518 0.994 2.577 0.994 2.577 0.045 -80.518
7712.208 0.044 -80.393 0.994 2.505 0.994 2.505 0.044 -80.393
7737.167 0.043 -80.258 0.994 2.433 0.994 2.433 0.043 -80.258
7762.125 0.042 -80.11 0.994 2.362 0.994 2.362 0.042 -80.11
7787.083 0.04 -79.95 0.994 2.291 0.994 2.291 0.04 -79.95
7812.042 0.039 -79.775 0.994 2.22 0.994 2.22 0.039 -79.775
7837 0.038 -79.586 0.994 2.149 0.994 2.149 0.038 -79.586
7861.958 0.037 -79.38 0.994 2.078 0.994 2.078 0.037 -79.38
7886.917 0.035 -79.156 0.994 2.008 0.994 2.008 0.035 -79.156
7911.875 0.034 -78.911 0.994 1.938 0.994 1.938 0.034 -78.911
7936.833 0.033 -78.645 0.994 1.868 0.994 1.868 0.033 -78.645
7961.792 0.032 -78.354 0.994 1.799 0.994 1.799 0.032 -78.354
7986.75 0.031 -78.037 0.994 1.729 0.994 1.729 0.031 -78.037
8011.708 0.029 -77.689 0.994 1.66 0.994 1.66 0.029 -77.689
8036.667 0.028 -77.308 0.994 1.591 0.994 1.591 0.028 -77.308
8061.625 0.027 -76.889 0.994 1.523 0.994 1.523 0.027 -76.889
8086.583 0.026 -76.427 0.994 1.454 0.994 1.454 0.026 -76.427
8111.542 0.025 -75.917 0.994 1.386 0.994 1.386 0.025 -75.917
8136.5 0.024 -75.353 0.994 1.318 0.994 1.318 0.024 -75.353
8161.458 0.022 -74.725 0.994 1.25 0.994 1.25 0.022 -74.725
8186.417 0.021 -74.025 0.994 1.182 0.994 1.182 0.021 -74.025
