# MHZ S MA R 50

50 0.998 -3.326 0.058 86.663 0.058 86.663 0.998 -3.326
74.958 0.996 -4.98 0.087 85.004 0.087 85.004 0.996 -4.98
99.917 0.993 -6.626 0.115 83.353 0.115 83.353 0.993 -6.626
124.875 0.99 -8.262 0.144 81.712 0.144 81.712 0.99 -8.262
149.833 0.985 -9.885 0.172 80.084 0.172 80.084 0.985 -9.885
174.792 0.98 -11.492 0.199 78.471 0.199 78.471 0.98 -11.492
199.75 0.974 -13.083 0.226 76.875 0.226 76.875 0.974 -13.083
224.708 0.967 -14.654 0.253 75.299 0.253 75.299 0.967 -14.654
249.667 0.96 -16.204 0.279 73.743 0.279 73.743 0.96 -16.204
274.625 0.952 -17.732 0.305 72.21 0.305 72.21 0.952 -17.732
299.583 0.944 -19.235 0.329 70.702 0.329 70.702 0.944 -19.235
324.542 0.935 -20.712 0.354 69.219 0.354 69.219 0.935 -20.712
349.5 0.926 -22.163 0.377 67.763 0.377 67.763 0.926 -22.163
374.458 0.916 -23.586 0.4 66.335 0.4 66.335 0.916 -23.586
399.417 0.906 -24.981 0.422 64.935 0.422 64.935 0.906 -24.981
424.375 0.895 -26.346 0.444 63.564 0.444 63.564 0.895 -26.346
449.333 0.885 -27.682 0.465 62.223 0.465 62.223 0.885 -27.682
474.292 0.874 -28.988 0.485 60.912 0.485 60.912 0.874 -28.988
499.25 0.863 -30.263 0.504 59.631 0.504 59.631 0.863 -30.263
524.208 0.852 -31.509 0.523 58.38 0.523 58.38 0.852 -31.509
549.167 0.84 -32.724 0.541 57.16 0.541 57.16 0.84 -32.724
574.125 0.829 -33.908 0.558 55.97 0.558 55.97 0.829 -33.908
599.083 0.817 -35.063 0.574 54.809 0.574 54.809 0.817 -35.063
624.042 0.806 -36.189 0.59 53.679 0.59 53.679 0.806 -36.189
649 0.794 -37.285 0.606 52.577 0.606 52.577 0.794 -37.285
673.958 0.783 -38.352 0.62 51.504 0.62 51.504 0.783 -38.352
698.917 0.771 -39.391 0.635 50.46 0.635 50.46 0.771 -39.391
723.875 0.76 -40.402 0.648 49.443 0.648 49.443 0.76 -40.402
748.833 0.748 -41.386 0.661 48.454 0.661 48.454 0.748 -41.386
773.792 0.737 -42.344 0.674 47.491 0.674 47.491 0.737 -42.344
798.75 0.726 -43.275 0.686 46.554 0.686 46.554 0.726 -43.275
823.708 0.715 -44.181 0.697 45.643 0.697 45.643 0.715 -44.181
848.667 0.704 -45.062 0.708 44.756 0.708 44.756 0.704 -45.062
873.625 0.693 -45.92 0.718 43.893 0.718 43.893 0.693 -45.92
898.583 0.683 -46.753 0.728 43.053 0.728 43.053 0.683 -46.753
923.542 0.672 -47.565 0.738 42.236 0.738 42.236 0.672 -47.565
948.5 0.662 -48.354 0.747 41.442 0.747 41.442 0.662 -48.354
973.458 0.652 -49.122 0.756 40.668 0.756 40.668 0.652 -49.122
998.417 0.642 -49.869 0.765 39.915 0.765 39.915 0.642 -49.869
1023.375 0.632 -50.596 0.773 39.183 0.773 39.183 0.632 -50.596
1048.333 0.622 -51.303 0.78 38.47 0.78 38.47 0.622 -51.303
1073.292 0.613 -51.992 0.788 37.775 0.788 37.775 0.613 -51.992
1098.25 0.603 -52.662 0.795 37.099 0.795 37.099 0.603 -52.662
1123.208 0.594 -53.315 0.802 36.441 0.802 36.441 0.594 -53.315
1148.167 0.585 -53.95 0.809 35.799 0.809 35.799 0.585 -53.95
1173.125 0.576 -54.569 0.815 35.175 0.815 35.175 0.576 -54.569
1198.083 0.567 -55.172 0.821 34.566 0.821 34.566 0.567 -55.172
1223.042 0.559 -55.76 0.827 33.972 0.827 33.972 0.559 -55.76
1248 0.55 -56.332 0.832 33.394 0.832 33.394 0.55 -56.332
1272.958 0.542 -56.89 0.838 32.83 0.838 32.83 0.542 -56.89
1297.917 0.534 -57.435 0.843 32.28 0.843 32.28 0.534 -57.435
1322.875 0.526 -57.965 0.848 31.743 0.848 31.743 0.526 -57.965
1347.833 0.518 -58.483 0.852 31.22 0.852 31.22 0.518 -58.483
1372.792 0.511 -58.987 0.857 30.709 0.857 30.709 0.511 -58.987
1397.75 0.503 -59.48 0.861 30.21 0.861 30.21 0.503 -59.48
1422.708 0.496 -59.961 0.866 29.723 0.866 29.723 0.496 -59.961
1447.667 0.489 -60.43 0.87 29.248 0.87 29.248 0.489 -60.43
1472.625 0.482 -60.888 0.874 28.783 0.874 28.783 0.482 -60.888
1497.583 0.475 -61.335 0.877 28.33 0.877 28.33 0.475 -61.335
1522.542 0.468 -61.773 0.881 27.886 0.881 27.886 0.468 -61.773
1547.5 0.461 -62.2 0.885 27.453 0.885 27.453 0.461 -62.2
1572.458 0.454 -62.617 0.888 27.029 0.888 27.029 0.454 -62.617
1597.417 0.448 -63.025 0.891 26.615 0.891 26.615 0.448 -63.025
1622.375 0.442 -63.424 0.894 26.21 0.894 26.21 0.442 -63.424
1647.333 0.435 -63.814 0.897 25.813 0.897 25.813 0.435 -63.814
1672.292 0.429 -64.195 0.9 25.425 0.9 25.425 0.429 -64.195
1697.25 0.423 -64.568 0.903 25.045 0.903 25.045 0.423 -64.568
1722.208 0.417 -64.933 0.906 24.674 0.906 24.674 0.417 -64.933
1747.167 0.412 -65.291 0.908 24.31 0.908 24.31 0.412 -65.291
1772.125 0.406 -65.641 0.911 23.953 0.911 23.953 0.406 -65.641
1797.083 0.4 -65.983 0.913 23.604 0.913 23.604 0.4 -65.983
1822.042 0.395 -66.318 0.916 23.262 0.916 23.262 0.395 -66.318
1847 0.39 -66.647 0.918 22.926 0.918 22.926 0.39 -66.647
1871.958 0.384 -66.969 0.92 22.597 0.92 22.597 0.384 -66.969
1896.917 0.379 -67.284 0.922 22.275 0.922 22.275 0.379 -67.284
1921.875 0.374 -67.594 0.925 21.959 0.925 21.959 0.374 -67.594
1946.833 0.369 -67.897 0.927 21.649 0.927 21.649 0.369 -67.897
1971.792 0.364 -68.194 0.928 21.344 0.928 21.344 0.364 -68.194
1996.75 0.359 -68.485 0.93 21.046 0.93 21.046 0.359 -68.485
2021.708 0.354 -68.771 0.932 20.753 0.932 20.753 0.354 -68.771
2046.667 0.35 -69.051 0.934 20.465 0.934 20.465 0.35 -69.051
2071.625 0.345 -69.327 0.936 20.182 0.936 20.182 0.345 -69.327
2096.583 0.34 -69.597 0.937 19.905 0.937 19.905 0.34 -69.597
2121.542 0.336 -69.862 0.939 19.632 0.939 19.632 0.336 -69.862
2146.5 0.332 -70.122 0.94 19.365 0.94 19.365 0.332 -70.122
2171.458 0.327 -70.377 0.942 19.102 0.942 19.102 0.327 -70.377
2196.417 0.323 -70.628 0.943 18.843 0.943 18.843 0.323 -70.628
2221.375 0.319 -70.875 0.945 18.589 0.945 18.589 0.319 -70.875
2246.333 0.315 -71.117 0.946 18.339 0.946 18.339 0.315 -71.117
2271.292 0.311 -71.354 0.948 18.093 0.948 18.093 0.311 -71.354
2296.25 0.307 -71.588 0.949 17.851 0.949 17.851 0.307 -71.588
2321.208 0.303 -71.818 0.95 17.614 0.95 17.614 0.303 -71.818
2346.167 0.299 -72.044 0.951 17.38 0.951 17.38 0.299 -72.044
2371.125 0.295 -72.266 0.953 17.149 0.953 17.149 0.295 -72.266
2396.083 0.291 -72.484 0.954 16.923 0.954 16.923 0.291 -72.484
2421.042 0.287 -72.699 0.955 16.7 0.955 16.7 0.287 -72.699
2446 0.284 -72.91 0.956 16.48 0.956 16.48 0.284 -72.91
2470.958 0.28 -73.117 0.957 16.264 0.957 16.264 0.28 -73.117
2495.917 0.277 -73.322 0.958 16.051 0.958 16.051 0.277 -73.322
2520.875 0.273 -73.523 0.959 15.841 0.959 15.841 0.273 -73.523
2545.833 0.27 -73.721 0.96 15.634 0.96 15.634 0.27 -73.721
2570.792 0.266 -73.915 0.961 15.431 0.961 15.431 0.266 -73.915
2595.75 0.263 -74.107 0.962 15.23 0.962 15.23 0.263 -74.107
2620.708 0.259 -74.296 0.963 15.032 0.963 15.032 0.259 -74.296
2645.667 0.256 -74.481 0.964 14.837 0.964 14.837 0.256 -74.481
2670.625 0.253 -74.664 0.964 14.645 0.964 14.645 0.253 -74.664
2695.583 0.25 -74.845 0.965 14.455 0.965 14.455 0.25 -74.845
2720.542 0.246 -75.022 0.966 14.268 0.966 14.268 0.246 -75.022
2745.5 0.243 -75.197 0.967 14.084 0.967 14.084 0.243 -75.197
2770.458 0.24 -75.369 0.968 13.902 0.968 13.902 0.24 -75.369
2795.417 0.237 -75.538 0.968 13.722 0.968 13.722 0.237 -75.538
2820.375 0.234 -75.706 0.969 13.545 0.969 13.545 0.234 -75.706
2845.333 0.231 -75.87 0.97 13.37 0.97 13.37 0.231 -75.87
2870.292 0.228 -76.032 0.971 13.198 0.971 13.198 0.228 -76.032
2895.25 0.225 -76.192 0.971 13.027 0.971 13.027 0.225 -76.192
2920.208 0.223 -76.35 0.972 12.859 0.972 12.859 0.223 -76.35
2945.167 0.22 -76.505 0.972 12.693 0.972 12.693 0.22 -76.505
2970.125 0.217 -76.659 0.973 12.529 0.973 12.529 0.217 -76.659
2995.083 0.214 -76.81 0.974 12.367 0.974 12.367 0.214 -76.81
3020.042 0.211 -76.958 0.974 12.207 0.974 12.207 0.211 -76.958
3045 0.209 -77.105 0.975 12.049 0.975 12.049 0.209 -77.105
3069.958 0.206 -77.25 0.975 11.893 0.975 11.893 0.206 -77.25
3094.917 0.203 -77.393 0.976 11.739 0.976 11.739 0.203 -77.393
3119.875 0.201 -77.534 0.977 11.586 0.977 11.586 0.201 -77.534
3144.833 0.198 -77.672 0.977 11.435 0.977 11.435 0.198 -77.672
3169.792 0.196 -77.809 0.978 11.286 0.978 11.286 0.196 -77.809
3194.75 0.193 -77.944 0.978 11.139 0.978 11.139 0.193 -77.944
3219.708 0.191 -78.078 0.979 10.993 0.979 10.993 0.191 -78.078
3244.667 0.188 -78.209 0.979 10.849 0.979 10.849 0.188 -78.209
3269.625 0.186 -78.339 0.979 10.707 0.979 10.707 0.186 -78.339
3294.583 0.183 -78.467 0.98 10.566 0.98 10.566 0.183 -78.467
3319.542 0.181 -78.593 0.98 10.427 0.98 10.427 0.181 -78.593
3344.5 0.179 -78.717 0.981 10.289 0.981 10.289 0.179 -78.717
3369.458 0.176 -78.84 0.981 10.152 0.981 10.152 0.176 -78.84
3394.417 0.174 -78.961 0.982 10.017 0.982 10.017 0.174 -78.961
3419.375 0.172 -79.08 0.982 9.884 0.982 9.884 0.172 -79.08
3444.333 0.169 -79.198 0.982 9.751 0.982 9.751 0.169 -79.198
3469.292 0.167 -79.315 0.983 9.621 0.983 9.621 0.167 -79.315
3494.25 0.165 -79.429 0.983 9.491 0.983 9.491 0.165 -79.429
3519.208 0.163 -79.542 0.984 9.363 0.984 9.363 0.163 -79.542
3544.167 0.161 -79.654 0.984 9.236 0.984 9.236 0.161 -79.654
3569.125 0.158 -79.764 0.984 9.11 0.984 9.11 0.158 -79.764
3594.083 0.156 -79.873 0.985 8.986 0.985 8.986 0.156 -79.873
3619.042 0.154 -79.98 0.985 8.863 0.985 8.863 0.154 -79.98
3644 0.152 -80.086 0.985 8.74 0.985 8.74 0.152 -80.086
3668.958 0.15 -80.19 0.986 8.62 0.986 8.62 0.15 -80.19
3693.917 0.148 -80.293 0.986 8.5 0.986 8.5 0.148 -80.293
3718.875 0.146 -80.394 0.986 8.381 0.986 8.381 0.146 -80.394
3743.833 0.144 -80.494 0.986 8.263 0.986 8.263 0.144 -80.494
3768.792 0.142 -80.592 0.987 8.147 0.987 8.147 0.142 -80.592
3793.75 0.14 -80.689 0.987 8.032 0.987 8.032 0.14 -80.689
3818.708 0.138 -80.785 0.987 7.917 0.987 7.917 0.138 -80.785
3843.667 0.136 -80.879 0.988 7.804 0.988 7.804 0.136 -80.879
3868.625 0.134 -80.972 0.988 7.691 0.988 7.691 0.134 -80.972
3893.583 0.132 -81.064 0.988 7.58 0.988 7.58 0.132 -81.064
3918.542 0.13 -81.154 0.988 7.469 0.988 7.469 0.13 -81.154
3943.5 0.128 -81.243 0.989 7.36 0.989 7.36 0.128 -81.243
3968.458 0.126 -81.33 0.989 7.251 0.989 7.251 0.126 -81.33
3993.417 0.124 -81.417 0.989 7.144 0.989 7.144 0.124 -81.417
4018.375 0.123 -81.501 0.989 7.037 0.989 7.037 0.123 -81.501
4043.333 0.121 -81.585 0.99 6.931 0.99 6.931 0.121 -81.585
4068.292 0.119 -81.667 0.99 6.826 0.99 6.826 0.119 -81.667
4093.25 0.117 -81.747 0.99 6.722 0.99 6.722 0.117 -81.747
4118.208 0.115 -81.826 0.99 6.618 0.99 6.618 0.115 -81.826
4143.167 0.114 -81.904 0.99 6.516 0.99 6.516 0.114 -81.904
4168.125 0.112 -81.981 0.991 6.414 0.991 6.414 0.112 -81.981
4193.083 0.11 -82.056 0.991 6.313 0.991 6.313 0.11 -82.056
4218.042 0.108 -82.13 0.991 6.213 0.991 6.213 0.108 -82.13
4243 0.107 -82.202 0.991 6.114 0.991 6.114 0.107 -82.202
4267.958 0.105 -82.273 0.991 6.015 0.991 6.015 0.105 -82.273
4292.917 0.103 -82.342 0.992 5.917 0.992 5.917 0.103 -82.342
4317.875 0.101 -82.41 0.992 5.82 0.992 5.82 0.101 -82.41
4342.833 0.1 -82.476 0.992 5.723 0.992 5.723 0.1 -82.476
4367.792 0.098 -82.541 0.992 5.628 0.992 5.628 0.098 -82.541
4392.75 0.096 -82.605 0.992 5.533 0.992 5.533 0.096 -82.605
4417.708 0.095 -82.666 0.992 5.438 0.992 5.438 0.095 -82.666
4442.667 0.093 -82.727 0.993 5.345 0.993 5.345 0.093 -82.727
4467.625 0.092 -82.785 0.993 5.252 0.993 5.252 0.092 -82.785
4492.583 0.09 -82.842 0.993 5.159 0.993 5.159 0.09 -82.842
4517.542 0.088 -82.898 0.993 5.068 0.993 5.068 0.088 -82.898
4542.5 0.087 -82.951 0.993 4.976 0.993 4.976 0.087 -82.951
4567.458 0.085 -83.003 0.993 4.886 0.993 4.886 0.085 -83.003
4592.417 0.084 -83.054 0.993 4.796 0.993 4.796 0.084 -83.054
4617.375 0.082 -83.102 0.993 4.707 0.993 4.707 0.082 -83.102
4642.333 0.081 -83.148 0.994 4.618 0.994 4.618 0.081 -83.148
4667.292 0.079 -83.193 0.994 4.53 0.994 4.53 0.079 -83.193
4692.25 0.078 -83.235 0.994 4.443 0.994 4.443 0.078 -83.235
4717.208 0.076 -83.276 0.994 4.356 0.994 4.356 0.076 -83.276
4742.167 0.075 -83.314 0.994 4.269 0.994 4.269 0.075 -83.314
4767.125 0.073 -83.35 0.994 4.184 0.994 4.184 0.073 -83.35
4792.083 0.072 -83.384 0.994 4.098 0.994 4.098 0.072 -83.384
4817.042 0.07 -83.416 0.994 4.014 0.994 4.014 0.07 -83.416
4842 0.069 -83.445 0.995 3.93 0.995 3.93 0.069 -83.445
4866.958 0.067 -83.471 0.995 3.846 0.995 3.846 0.067 -83.471
4891.917 0.066 -83.495 0.995 3.763 0.995 3.763 0.066 -83.495
4916.875 0.064 -83.516 0.995 3.68 0.995 3.68 0.064 -83.516
4941.833 0.063 -83.534 0.995 3.598 0.995 3.598 0.063 -83.534
4966.792 0.061 -83.549 0.995 3.516 0.995 3.516 0.061 -83.549
4991.75 0.06 -83.561 0.995 3.435 0.995 3.435 0.06 -83.561
5016.708 0.059 -83.569 0.995 3.354 0.995 3.354 0.059 -83.569
5041.667 0.057 -83.574 0.995 3.274 0.995 3.274 0.057 -83.574
5066.625 0.056 -83.575 0.995 3.194 0.995 3.194 0.056 -83.575
5091.583 0.054 -83.572 0.995 3.115 0.995 3.115 0.054 -83.572
5116.542 0.053 -83.565 0.995 3.036 0.995 3.036 0.053 -83.565
5141.5 0.052 -83.553 0.996 2.958 0.996 2.958 0.052 -83.553
5166.458 0.05 -83.537 0.996 2.88 0.996 2.88 0.05 -83.537
5191.417 0.049 -83.515 0.996 2.802 0.996 2.802 0.049 -83.515
5216.375 0.048 -83.488 0.996 2.725 0.996 2.725 0.048 -83.488
5241.333 0.046 -83.455 0.996 2.648 0.996 2.648 0.046 -83.455
5266.292 0.045 -83.416 0.996 2.572 0.996 2.572 0.045 -83.416
5291.25 0.044 -83.37 0.996 2.496 0.996 2.496 0.044 -83.37
5316.208 0.042 -83.317 0.996 2.421 0.996 2.421 0.042 -83.317
5341.167 0.041 -83.256 0.996 2.346 0.996 2.346 0.041 -83.256
5366.125 0.04 -83.187 0.996 2.271 0.996 2.271 0.04 -83.187
5391.083 0.038 -83.108 0.996 2.197 0.996 2.197 0.038 -83.108
5416.042 0.037 -83.019 0.996 2.123 0.996 2.123 0.037 -83.019
5441 0.036 -82.919 0.996 2.049 0.996 2.049 0.036 -82.919
5465.958 0.035 -82.807 0.996 1.976 0.996 1.976 0.035 -82.807
5490.917 0.033 -82.681 0.996 1.903 0.996 1.903 0.033 -82.681
5515.875 0.032 -82.54 0.996 1.831 0.996 1.831 0.032 -82.54
5540.833 0.031 -82.383 0.996 1.759 0.996 1.759 0.031 -82.383
5565.792 0.03 -82.207 0.996 1.687 0.996 1.687 0.03 -82.207
5590.75 0.028 -82.011 0.996 1.616 0.996 1.616 0.028 -82.011
5615.708 0.027 -81.791 0.996 1.545 0.996 1.545 0.027 -81.791
5640.667 0.026 -81.545 0.997 1.474 0.997 1.474 0.026 -81.545
5665.625 0.025 -81.269 0.997 1.403 0.997 1.403 0.025 -81.269
5690.583 0.023 -80.959 0.997 1.333 0.997 1.333 0.023 -80.959
5715.542 0.022 -80.609 0.997 1.264 0.997 1.264 0.022 -80.609
5740.5 0.021 -80.213 0.997 1.194 0.997 1.194 0.021 -80.213
5765.458 0.02 -79.764 0.997 1.125 0.997 1.125 0.02 -79.764
5790.417 0.019 -79.25 0.997 1.057 0.997 1.057 0.019 -79.25
5815.375 0.018 -78.662 0.997 0.988 0.997 0.988 0.018 -78.662
5840.333 0.016 -77.982 0.997 0.92 0.997 0.92 0.016 -77.982
5865.292 0.015 -77.191 0.997 0.852 0.997 0.852 0.015 -77.191
5890.25 0.014 -76.263 0.997 0.785 0.997 0.785 0.014 -76.263
5915.208 0.013 -75.164 0.997 0.718 0.997 0.718 0.013 -75.164
5940.167 0.012 -73.846 0.997 0.651 0.997 0.651 0.012 -73.846
5965.125 0.011 -72.243 0.997 0.584 0.997 0.584 0.011 -72.243
5990.083 9.569e-3 -70.262 0.997 0.518 0.997 0.518 9.569e-3 -70.262
6015.042 8.489e-3 -67.765 0.997 0.452 0.997 0.452 8.489e-3 -67.765
6040 7.435e-3 -64.546 0.997 0.386 0.997 0.386 7.435e-3 -64.546
6064.958 6.418e-3 -60.284 0.997 0.32 0.997 0.32 6.418e-3 -60.284
6089.917 5.455e-3 -54.47 0.997 0.255 0.997 0.255 5.455e-3 -54.47
6114.875 4.577e-3 -46.311 0.997 0.19 0.997 0.19 4.577e-3 -46.311
6139.833 3.837e-3 -34.692 0.997 0.126 0.997 0.126 3.837e-3 -34.692
6164.792 3.326e-3 -18.643 0.997 0.061 0.997 0.061 3.326e-3 -18.643
6189.75 3.151e-3 0.965 0.997 -3.05e-3 0.997 -3.05e-3 3.151e-3 0.965
6214.708 3.36e-3 20.284 0.997 -0.067 0.997 -0.067 3.36e-3 20.284
6239.667 3.888e-3 35.756 0.997 -0.131 0.997 -0.131 3.888e-3 35.756
6264.625 4.625e-3 46.869 0.997 -0.194 0.997 -0.194 4.625e-3 46.869
6289.583 5.483e-3 54.676 0.997 -0.257 0.997 -0.257 5.483e-3 54.676
6314.542 6.413e-3 60.257 0.997 -0.32 0.997 -0.32 6.413e-3 60.257
6339.5 7.385e-3 64.366 0.997 -0.383 0.997 -0.383 7.385e-3 64.366
6364.458 8.383e-3 67.481 0.997 -0.445 0.997 -0.445 8.383e-3 67.481
6389.417 9.397e-3 69.906 0.997 -0.507 0.997 -0.507 9.397e-3 69.906
6414.375 0.01 71.837 0.997 -0.569 0.997 -0.569 0.01 71.837
6439.333 0.011 73.404 0.997 -0.631 0.997 -0.631 0.011 73.404
6464.292 0.012 74.697 0.997 -0.692 0.997 -0.692 0.012 74.697
6489.25 0.014 75.778 0.997 -0.754 0.997 -0.754 0.014 75.778
6514.208 0.015 76.693 0.997 -0.815 0.997 -0.815 0.015 76.693
6539.167 0.016 77.476 0.997 -0.875 0.997 -0.875 0.016 77.476
6564.125 0.017 78.15 0.997 -0.936 0.997 -0.936 0.017 78.15
6589.083 0.018 78.737 0.997 -0.996 0.997 -0.996 0.018 78.737
6614.042 0.019 79.25 0.997 -1.057 0.997 -1.057 0.019 79.25
6639 0.02 79.701 0.997 -1.116 0.997 -1.116 0.02 79.701
6663.958 0.021 80.1 0.997 -1.176 0.997 -1.176 0.021 80.1
6688.917 0.022 80.455 0.997 -1.236 0.997 -1.236 0.022 80.455
6713.875 0.023 80.771 0.997 -1.295 0.997 -1.295 0.023 80.771
6738.833 0.024 81.054 0.997 -1.354 0.997 -1.354 0.024 81.054
6763.792 0.025 81.309 0.997 -1.413 0.997 -1.413 0.025 81.309
6788.75 0.026 81.537 0.997 -1.472 0.997 -1.472 0.026 81.537
6813.708 0.027 81.744 0.996 -1.53 0.996 -1.53 0.027 81.744
6838.667 0.028 81.93 0.996 -1.588 0.996 -1.588 0.028 81.93
6863.625 0.029 82.099 0.996 -1.647 0.996 -1.647 0.029 82.099
6888.583 0.03 82.252 0.996 -1.704 0.996 -1.704 0.03 82.252
6913.542 0.031 82.391 0.996 -1.762 0.996 -1.762 0.031 82.391
6938.5 0.032 82.517 0.996 -1.82 0.996 -1.82 0.032 82.517
6963.458 0.033 82.632 0.996 -1.877 0.996 -1.877 0.033 82.632
6988.417 0.034 82.736 0.996 -1.934 0.996 -1.934 0.034 82.736
7013.375 0.035 82.831 0.996 -1.991 0.996 -1.991 0.035 82.831
7038.333 0.036 82.917 0.996 -2.048 0.996 -2.048 0.036 82.917
7063.292 0.037 82.996 0.996 -2.105 0.996 -2.105 0.037 82.996
7088.25 0.038 83.067 0.996 -2.161 0.996 -2.161 0.038 83.067
7113.208 0.039 83.131 0.996 -2.217 0.996 -2.217 0.039 83.131
7138.167 0.04 83.189 0.996 -2.273 0.996 -2.273 0.04 83.189
7163.125 0.041 83.242 0.996 -2.329 0.996 -2.329 0.041 83.242
7188.083 0.042 83.29 0.996 -2.385 0.996 -2.385 0.042 83.29
7213.042 0.043 83.332 0.996 -2.441 0.996 -2.441 0.043 83.332
7238 0.044 83.37 0.996 -2.496 0.996 -2.496 0.044 83.37
7262.958 0.045 83.405 0.996 -2.551 0.996 -2.551 0.045 83.405
7287.917 0.046 83.435 0.996 -2.606 0.996 -2.606 0.046 83.435
7312.875 0.047 83.461 0.996 -2.661 0.996 -2.661 0.047 83.461
7337.833 0.047 83.485 0.996 -2.716 0.996 -2.716 0.047 83.485
7362.792 0.048 83.505 0.996 -2.771 0.996 -2.771 0.048 83.505
7387.75 0.049 83.522 0.996 -2.825 0.996 -2.825 0.049 83.522
7412.708 0.05 83.537 0.996 -2.879 0.996 -2.879 0.05 83.537
7437.667 0.051 83.549 0.996 -2.933 0.996 -2.933 0.051 83.549
7462.625 0.052 83.558 0.995 -2.987 0.995 -2.987 0.052 83.558
7487.583 0.053 83.565 0.995 -3.041 0.995 -3.041 0.053 83.565
7512.542 0.054 83.571 0.995 -3.095 0.995 -3.095 0.054 83.571
7537.5 0.055 83.574 0.995 -3.148 0.995 -3.148 0.055 83.574
7562.458 0.056 83.575 0.995 -3.202 0.995 -3.202 0.056 83.575
7587.417 0.057 83.574 0.995 -3.255 0.995 -3.255 0.057 83.574
7612.375 0.058 83.572 0.995 -3.308 0.995 -3.308 0.058 83.572
7637.333 0.059 83.568 0.995 -3.361 0.995 -3.361 0.059 83.568
7662.292 0.06 83.563 0.995 -3.414 0.995 -3.414 0.06 83.563
7687.25 0.061 83.556 0.995 -3.466 0.995 -3.466 0.061 83.556
7712.208 0.061 83.548 0.995 -3.519 0.995 -3.519 0.061 83.548
7737.167 0.062 83.539 0.995 -3.571 0.995 -3.571 0.062 83.539
7762.125 0.063 83.529 0.995 -3.624 0.995 -3.624 0.063 83.529
7787.083 0.064 83.517 0.995 -3.676 0.995 -3.676 0.064 83.517
7812.042 0.065 83.504 0.995 -3.728 0.995 -3.728 0.065 83.504
7837 0.066 83.49 0.995 -3.779 0.995 -3.779 0.066 83.49
7861.958 0.067 83.475 0.995 -3.831 0.995 -3.831 0.067 83.475
7886.917 0.068 83.46 0.995 -3.883 0.995 -3.883 0.068 83.46
7911.875 0.069 83.443 0.995 -3.934 0.995 -3.934 0.069 83.443
7936.833 0.07 83.426 0.994 -3.985 0.994 -3.985 0.07 83.426
7961.792 0.07 83.407 0.994 -4.037 0.994 -4.037 0.07 83.407
7986.75 0.071 83.388 0.994 -4.088 0.994 -4.088 0.071 83.388
8011.708 0.072 83.368 0.994 -4.139 0.994 -4.139 0.072 83.368
8036.667 0.073 83.348 0.994 -4.189 0.994 -4.189 0.073 83.348
8061.625 0.074 83.327 0.994 -4.24 0.994 -4.24 0.074 83.327
8086.583 0.075 83.305 0.994 -4.291 0.994 -4.291 0.075 83.305
8111.542 0.076 83.282 0.994 -4.341 0.994 -4.341 0.076 83.282
8136.5 0.077 83.259 0.994 -4.391 0.994 -4.391 0.077 83.259
8161.458 0.078 83.236 0.994 -4.442 0.994 -4.442 0.078 83.236
8186.417 0.078 83.212 0.994 -4.492 0.994 -4.492 0.078 83.212
8211.375 0.079 83.187 0.994 -4.542 0.994 -4.542 0.079 83.187
