# MHZ S MA R 50

50 1 -0.54 9.424e-3 89.453 9.424e-3 89.453 1 -0.54
74.958 1 -0.81 0.014 89.18 0.014 89.18 1 -0.81
99.917 1 -1.079 0.019 88.906 0.019 88.906 1 -1.079
124.875 1 -1.348 0.024 88.633 0.024 88.633 1 -1.348
149.833 1 -1.618 0.028 88.36 0.028 88.36 1 -1.618
174.792 0.999 -1.887 0.033 88.087 0.033 88.087 0.999 -1.887
199.75 0.999 -2.157 0.038 87.814 0.038 87.814 0.999 -2.157
224.708 0.999 -2.426 0.042 87.542 0.042 87.542 0.999 -2.426
249.667 0.999 -2.695 0.047 87.269 0.047 87.269 0.999 -2.695
274.625 0.999 -2.964 0.052 86.996 0.052 86.996 0.999 -2.964
299.583 0.998 -3.233 0.056 86.723 0.056 86.723 0.998 -3.233
324.542 0.998 -3.502 0.061 86.451 0.061 86.451 0.998 -3.502
349.5 0.998 -3.771 0.066 86.178 0.066 86.178 0.998 -3.771
374.458 0.997 -4.04 0.07 85.906 0.07 85.906 0.997 -4.04
399.417 0.997 -4.308 0.075 85.634 0.075 85.634 0.997 -4.308
424.375 0.997 -4.577 0.08 85.362 0.08 85.362 0.997 -4.577
449.333 0.996 -4.845 0.084 85.09 0.084 85.09 0.996 -4.845
474.292 0.996 -5.114 0.089 84.818 0.089 84.818 0.996 -5.114
499.25 0.995 -5.382 0.094 84.546 0.094 84.546 0.995 -5.382
524.208 0.995 -5.65 0.098 84.275 0.098 84.275 0.995 -5.65
549.167 0.995 -5.917 0.103 84.003 0.103 84.003 0.995 -5.917
574.125 0.994 -6.185 0.108 83.732 0.108 83.732 0.994 -6.185
599.083 0.993 -6.452 0.112 83.461 0.112 83.461 0.993 -6.452
624.042 0.993 -6.72 0.117 83.19 0.117 83.19 0.993 -6.72
649 0.992 -6.987 0.122 82.919 0.122 82.919 0.992 -6.987
673.958 0.992 -7.254 0.126 82.649 0.126 82.649 0.992 -7.254
698.917 0.991 -7.52 0.131 82.379 0.131 82.379 0.991 -7.52
723.875 0.991 -7.787 0.135 82.109 0.135 82.109 0.991 -7.787
748.833 0.99 -8.053 0.14 81.839 0.14 81.839 0.99 -8.053
773.792 0.989 -8.319 0.145 81.569 0.145 81.569 0.989 -8.319
798.75 0.988 -8.585 0.149 81.3 0.149 81.3 0.988 -8.585
823.708 0.988 -8.85 0.154 81.03 0.154 81.03 0.988 -8.85
848.667 0.987 -9.115 0.158 80.762 0.158 80.762 0.987 -9.115
873.625 0.986 -9.38 0.163 80.493 0.163 80.493 0.986 -9.38
898.583 0.985 -9.645 0.168 80.224 0.168 80.224 0.985 -9.645
923.542 0.985 -9.91 0.172 79.956 0.172 79.956 0.985 -9.91
948.5 0.984 -10.174 0.177 79.688 0.177 79.688 0.984 -10.174
973.458 0.983 -10.438 0.181 79.421 0.181 79.421 0.983 -10.438
998.417 0.982 -10.702 0.186 79.154 0.186 79.154 0.982 -10.702
1023.375 0.981 -10.965 0.19 78.887 0.19 78.887 0.981 -10.965
1048.333 0.98 -11.228 0.195 78.62 0.195 78.62 0.98 -11.228
1073.292 0.979 -11.491 0.199 78.353 0.199 78.353 0.979 -11.491
1098.25 0.978 -11.753 0.204 78.087 0.204 78.087 0.978 -11.753
1123.208 0.977 -12.015 0.208 77.822 0.208 77.822 0.977 -12.015
1148.167 0.977 -12.277 0.213 77.556 0.213 77.556 0.977 -12.277
1173.125 0.976 -12.539 0.217 77.291 0.217 77.291 0.976 -12.539
1198.083 0.974 -12.8 0.222 77.026 0.222 77.026 0.974 -12.8
1223.042 0.973 -13.06 0.226 76.762 0.226 76.762 0.973 -13.06
1248 0.972 -13.321 0.23 76.498 0.23 76.498 0.972 -13.321
1272.958 0.971 -13.581 0.235 76.234 0.235 76.234 0.971 -13.581
1297.917 0.97 -13.841 0.239 75.97 0.239 75.97 0.97 -13.841
1322.875 0.969 -14.1 0.244 75.707 0.244 75.707 0.969 -14.1
1347.833 0.968 -14.359 0.248 75.445 0.248 75.445 0.968 -14.359
1372.792 0.967 -14.618 0.252 75.182 0.252 75.182 0.967 -14.618
1397.75 0.966 -14.876 0.257 74.921 0.257 74.921 0.966 -14.876
1422.708 0.964 -15.133 0.261 74.659 0.261 74.659 0.964 -15.133
1447.667 0.963 -15.391 0.265 74.398 0.265 74.398 0.963 -15.391
1472.625 0.962 -15.648 0.27 74.137 0.27 74.137 0.962 -15.648
1497.583 0.961 -15.904 0.274 73.877 0.274 73.877 0.961 -15.904
1522.542 0.959 -16.161 0.278 73.617 0.278 73.617 0.959 -16.161
1547.5 0.958 -16.416 0.283 73.358 0.283 73.358 0.958 -16.416
1572.458 0.957 -16.672 0.287 73.099 0.287 73.099 0.957 -16.672
1597.417 0.955 -16.927 0.291 72.84 0.291 72.84 0.955 -16.927
1622.375 0.954 -17.181 0.295 72.582 0.295 72.582 0.954 -17.181
1647.333 0.953 -17.435 0.3 72.324 0.3 72.324 0.953 -17.435
1672.292 0.951 -17.689 0.304 72.067 0.304 72.067 0.951 -17.689
1697.25 0.95 -17.942 0.308 71.81 0.308 71.81 0.95 -17.942
1722.208 0.949 -18.194 0.312 71.553 0.312 71.553 0.949 -18.194
1747.167 0.947 -18.447 0.316 71.297 0.316 71.297 0.947 -18.447
1772.125 0.946 -18.698 0.321 71.042 0.321 71.042 0.946 -18.698
1797.083 0.944 -18.95 0.325 70.787 0.325 70.787 0.944 -18.95
1822.042 0.943 -19.2 0.329 70.532 0.329 70.532 0.943 -19.2
1847 0.941 -19.451 0.333 70.278 0.333 70.278 0.941 -19.451
1871.958 0.94 -19.701 0.337 70.025 0.337 70.025 0.94 -19.701
1896.917 0.938 -19.95 0.341 69.771 0.341 69.771 0.938 -19.95
1921.875 0.937 -20.199 0.345 69.519 0.345 69.519 0.937 -20.199
1946.833 0.935 -20.447 0.349 69.267 0.349 69.267 0.935 -20.447
1971.792 0.934 -20.695 0.353 69.015 0.353 69.015 0.934 -20.695
1996.75 0.932 -20.942 0.357 68.764 0.357 68.764 0.932 -20.942
2021.708 0.931 -21.189 0.361 68.513 0.361 68.513 0.931 -21.189
2046.667 0.929 -21.435 0.365 68.263 0.365 68.263 0.929 -21.435
2071.625 0.927 -21.681 0.369 68.013 0.369 68.013 0.927 -21.681
2096.583 0.926 -21.927 0.373 67.764 0.373 67.764 0.926 -21.927
2121.542 0.924 -22.171 0.377 67.516 0.377 67.516 0.924 -22.171
2146.5 0.922 -22.416 0.381 67.268 0.381 67.268 0.922 -22.416
2171.458 0.921 -22.659 0.385 67.02 0.385 67.02 0.921 -22.659
2196.417 0.919 -22.902 0.389 66.773 0.389 66.773 0.919 -22.902
2221.375 0.917 -23.145 0.393 66.527 0.393 66.527 0.917 -23.145
2246.333 0.916 -23.387 0.397 66.281 0.397 66.281 0.916 -23.387
2271.292 0.914 -23.629 0.401 66.035 0.401 66.035 0.914 -23.629
2296.25 0.912 -23.87 0.405 65.79 0.405 65.79 0.912 -23.87
2321.208 0.91 -24.11 0.408 65.546 0.408 65.546 0.91 -24.11
2346.167 0.909 -24.35 0.412 65.302 0.412 65.302 0.909 -24.35
2371.125 0.907 -24.589 0.416 65.059 0.416 65.059 0.907 -24.589
2396.083 0.905 -24.828 0.42 64.816 0.42 64.816 0.905 -24.828
2421.042 0.903 -25.066 0.424 64.574 0.424 64.574 0.903 -25.066
2446 0.901 -25.304 0.427 64.333 0.427 64.333 0.901 -25.304
2470.958 0.9 -25.541 0.431 64.092 0.431 64.092 0.9 -25.541
2495.917 0.898 -25.778 0.435 63.851 0.435 63.851 0.898 -25.778
2520.875 0.896 -26.013 0.439 63.611 0.439 63.611 0.896 -26.013
2545.833 0.894 -26.249 0.442 63.372 0.442 63.372 0.894 -26.249
2570.792 0.892 -26.484 0.446 63.133 0.446 63.133 0.892 -26.484
2595.75 0.89 -26.718 0.45 62.895 0.45 62.895 0.89 -26.718
2620.708 0.888 -26.951 0.453 62.658 0.453 62.658 0.888 -26.951
2645.667 0.886 -27.184 0.457 62.421 0.457 62.421 0.886 -27.184
2670.625 0.884 -27.417 0.46 62.184 0.46 62.184 0.884 -27.417
2695.583 0.883 -27.649 0.464 61.948 0.464 61.948 0.883 -27.649
2720.542 0.881 -27.88 0.468 61.713 0.468 61.713 0.881 -27.88
2745.5 0.879 -28.111 0.471 61.479 0.471 61.479 0.879 -28.111
2770.458 0.877 -28.341 0.475 61.245 0.475 61.245 0.877 -28.341
2795.417 0.875 -28.57 0.478 61.011 0.478 61.011 0.875 -28.57
2820.375 0.873 -28.799 0.482 60.778 0.482 60.778 0.873 -28.799
2845.333 0.871 -29.027 0.485 60.546 0.485 60.546 0.871 -29.027
2870.292 0.869 -29.255 0.489 60.314 0.489 60.314 0.869 -29.255
2895.25 0.867 -29.482 0.492 60.083 0.492 60.083 0.867 -29.482
2920.208 0.865 -29.708 0.496 59.853 0.496 59.853 0.865 -29.708
2945.167 0.863 -29.934 0.499 59.623 0.499 59.623 0.863 -29.934
2970.125 0.861 -30.159 0.502 59.393 0.502 59.393 0.861 -30.159
2995.083 0.859 -30.384 0.506 59.165 0.506 59.165 0.859 -30.384
3020.042 0.857 -30.608 0.509 58.937 0.509 58.937 0.857 -30.608
3045 0.855 -30.831 0.513 58.709 0.513 58.709 0.855 -30.831
3069.958 0.853 -31.054 0.516 58.482 0.516 58.482 0.853 -31.054
3094.917 0.85 -31.276 0.519 58.256 0.519 58.256 0.85 -31.276
3119.875 0.848 -31.498 0.522 58.03 0.522 58.03 0.848 -31.498
3144.833 0.846 -31.719 0.526 57.805 0.526 57.805 0.846 -31.719
3169.792 0.844 -31.939 0.529 57.581 0.529 57.581 0.844 -31.939
3194.75 0.842 -32.159 0.532 57.357 0.532 57.357 0.842 -32.159
3219.708 0.84 -32.378 0.536 57.134 0.536 57.134 0.84 -32.378
3244.667 0.838 -32.596 0.539 56.911 0.539 56.911 0.838 -32.596
3269.625 0.836 -32.814 0.542 56.689 0.542 56.689 0.836 -32.814
3294.583 0.834 -33.031 0.545 56.468 0.545 56.468 0.834 -33.031
3319.542 0.831 -33.248 0.548 56.247 0.548 56.247 0.831 -33.248
3344.5 0.829 -33.464 0.551 56.027 0.551 56.027 0.829 -33.464
3369.458 0.827 -33.679 0.555 55.808 0.555 55.808 0.827 -33.679
3394.417 0.825 -33.894 0.558 55.589 0.558 55.589 0.825 -33.894
3419.375 0.823 -34.108 0.561 55.37 0.561 55.37 0.823 -34.108
3444.333 0.821 -34.321 0.564 55.153 0.564 55.153 0.821 -34.321
3469.292 0.819 -34.534 0.567 54.936 0.567 54.936 0.819 -34.534
3494.25 0.816 -34.746 0.57 54.719 0.57 54.719 0.816 -34.746
3519.208 0.814 -34.958 0.573 54.503 0.573 54.503 0.814 -34.958
3544.167 0.812 -35.168 0.576 54.288 0.576 54.288 0.812 -35.168
3569.125 0.81 -35.379 0.579 54.074 0.579 54.074 0.81 -35.379
3594.083 0.808 -35.588 0.582 53.86 0.582 53.86 0.808 -35.588
3619.042 0.805 -35.797 0.585 53.646 0.585 53.646 0.805 -35.797
3644 0.803 -36.006 0.588 53.433 0.588 53.433 0.803 -36.006
3668.958 0.801 -36.214 0.591 53.221 0.591 53.221 0.801 -36.214
3693.917 0.799 -36.421 0.594 53.01 0.594 53.01 0.799 -36.421
3718.875 0.797 -36.627 0.597 52.799 0.597 52.799 0.797 -36.627
3743.833 0.794 -36.833 0.6 52.589 0.6 52.589 0.794 -36.833
3768.792 0.792 -37.038 0.602 52.379 0.602 52.379 0.792 -37.038
3793.75 0.79 -37.243 0.605 52.17 0.605 52.17 0.79 -37.243
3818.708 0.788 -37.447 0.608 51.962 0.608 51.962 0.788 -37.447
3843.667 0.785 -37.65 0.611 51.754 0.611 51.754 0.785 -37.65
3868.625 0.783 -37.853 0.614 51.547 0.614 51.547 0.783 -37.853
3893.583 0.781 -38.055 0.616 51.34 0.616 51.34 0.781 -38.055
3918.542 0.779 -38.257 0.619 51.134 0.619 51.134 0.779 -38.257
3943.5 0.776 -38.458 0.622 50.929 0.622 50.929 0.776 -38.458
3968.458 0.774 -38.658 0.625 50.724 0.625 50.724 0.774 -38.658
3993.417 0.772 -38.857 0.627 50.52 0.627 50.52 0.772 -38.857
4018.375 0.77 -39.056 0.63 50.316 0.63 50.316 0.77 -39.056
4043.333 0.767 -39.255 0.633 50.113 0.633 50.113 0.767 -39.255
4068.292 0.765 -39.453 0.635 49.911 0.635 49.911 0.765 -39.453
4093.25 0.763 -39.65 0.638 49.709 0.638 49.709 0.763 -39.65
4118.208 0.761 -39.846 0.641 49.508 0.641 49.508 0.761 -39.846
4143.167 0.758 -40.042 0.643 49.308 0.643 49.308 0.758 -40.042
4168.125 0.756 -40.237 0.646 49.108 0.646 49.108 0.756 -40.237
4193.083 0.754 -40.432 0.649 48.909 0.649 48.909 0.754 -40.432
4218.042 0.751 -40.626 0.651 48.71 0.651 48.71 0.751 -40.626
4243 0.749 -40.819 0.654 48.512 0.654 48.512 0.749 -40.819
4267.958 0.747 -41.012 0.656 48.315 0.656 48.315 0.747 -41.012
4292.917 0.745 -41.204 0.659 48.118 0.659 48.118 0.745 -41.204
4317.875 0.742 -41.396 0.661 47.922 0.661 47.922 0.742 -41.396
4342.833 0.74 -41.587 0.664 47.726 0.664 47.726 0.74 -41.587
4367.792 0.738 -41.777 0.666 47.531 0.666 47.531 0.738 -41.777
4392.75 0.735 -41.967 0.669 47.337 0.669 47.337 0.735 -41.967
4417.708 0.733 -42.156 0.671 47.143 0.671 47.143 0.733 -42.156
4442.667 0.731 -42.344 0.674 46.95 0.674 46.95 0.731 -42.344
4467.625 0.729 -42.532 0.676 46.757 0.676 46.757 0.729 -42.532
4492.583 0.726 -42.719 0.678 46.565 0.678 46.565 0.726 -42.719
4517.542 0.724 -42.906 0.681 46.373 0.681 46.373 0.724 -42.906
4542.5 0.722 -43.092 0.683 46.183 0.683 46.183 0.722 -43.092
4567.458 0.719 -43.278 0.686 45.992 0.686 45.992 0.719 -43.278
4592.417 0.717 -43.462 0.688 45.803 0.688 45.803 0.717 -43.462
4617.375 0.715 -43.647 0.69 45.613 0.69 45.613 0.715 -43.647
4642.333 0.712 -43.83 0.693 45.425 0.693 45.425 0.712 -43.83
4667.292 0.71 -44.013 0.695 45.237 0.695 45.237 0.71 -44.013
4692.25 0.708 -44.196 0.697 45.05 0.697 45.05 0.708 -44.196
4717.208 0.705 -44.378 0.699 44.863 0.699 44.863 0.705 -44.378
4742.167 0.703 -44.559 0.702 44.677 0.702 44.677 0.703 -44.559
4767.125 0.701 -44.739 0.704 44.491 0.704 44.491 0.701 -44.739
4792.083 0.699 -44.919 0.706 44.306 0.706 44.306 0.699 -44.919
4817.042 0.696 -45.099 0.708 44.122 0.708 44.122 0.696 -45.099
4842 0.694 -45.278 0.711 43.938 0.711 43.938 0.694 -45.278
4866.958 0.692 -45.456 0.713 43.754 0.713 43.754 0.692 -45.456
4891.917 0.689 -45.634 0.715 43.572 0.715 43.572 0.689 -45.634
4916.875 0.687 -45.811 0.717 43.39 0.717 43.39 0.687 -45.811
4941.833 0.685 -45.987 0.719 43.208 0.719 43.208 0.685 -45.987
4966.792 0.682 -46.163 0.721 43.027 0.721 43.027 0.682 -46.163
4991.75 0.68 -46.338 0.724 42.847 0.724 42.847 0.68 -46.338
5016.708 0.678 -46.513 0.726 42.667 0.726 42.667 0.678 -46.513
5041.667 0.675 -46.687 0.728 42.487 0.728 42.487 0.675 -46.687
5066.625 0.673 -46.861 0.73 42.309 0.73 42.309 0.673 -46.861
5091.583 0.671 -47.034 0.732 42.13 0.732 42.13 0.671 -47.034
5116.542 0.669 -47.206 0.734 41.953 0.734 41.953 0.669 -47.206
5141.5 0.666 -47.378 0.736 41.776 0.736 41.776 0.666 -47.378
5166.458 0.664 -47.55 0.738 41.599 0.738 41.599 0.664 -47.55
5191.417 0.662 -47.72 0.74 41.423 0.74 41.423 0.662 -47.72
5216.375 0.659 -47.89 0.742 41.248 0.742 41.248 0.659 -47.89
5241.333 0.657 -48.06 0.744 41.073 0.744 41.073 0.657 -48.06
5266.292 0.655 -48.229 0.746 40.898 0.746 40.898 0.655 -48.229
5291.25 0.653 -48.397 0.748 40.725 0.748 40.725 0.653 -48.397
5316.208 0.65 -48.565 0.75 40.551 0.75 40.551 0.65 -48.565
5341.167 0.648 -48.732 0.752 40.379 0.752 40.379 0.648 -48.732
5366.125 0.646 -48.899 0.754 40.206 0.754 40.206 0.646 -48.899
5391.083 0.643 -49.065 0.756 40.035 0.756 40.035 0.643 -49.065
5416.042 0.641 -49.231 0.757 39.864 0.757 39.864 0.641 -49.231
5441 0.639 -49.396 0.759 39.693 0.759 39.693 0.639 -49.396
5465.958 0.636 -49.561 0.761 39.523 0.761 39.523 0.636 -49.561
5490.917 0.634 -49.725 0.763 39.354 0.763 39.354 0.634 -49.725
5515.875 0.632 -49.888 0.765 39.185 0.765 39.185 0.632 -49.888
5540.833 0.63 -50.051 0.767 39.016 0.767 39.016 0.63 -50.051
5565.792 0.627 -50.213 0.769 38.848 0.769 38.848 0.627 -50.213
5590.75 0.625 -50.375 0.77 38.681 0.77 38.681 0.625 -50.375
5615.708 0.623 -50.536 0.772 38.514 0.772 38.514 0.623 -50.536
5640.667 0.621 -50.697 0.774 38.348 0.774 38.348 0.621 -50.697
5665.625 0.618 -50.857 0.776 38.182 0.776 38.182 0.618 -50.857
5690.583 0.616 -51.016 0.777 38.017 0.777 38.017 0.616 -51.016
5715.542 0.614 -51.175 0.779 37.852 0.779 37.852 0.614 -51.175
5740.5 0.611 -51.334 0.781 37.688 0.781 37.688 0.611 -51.334
5765.458 0.609 -51.492 0.783 37.524 0.783 37.524 0.609 -51.492
5790.417 0.607 -51.649 0.784 37.361 0.784 37.361 0.607 -51.649
5815.375 0.605 -51.806 0.786 37.198 0.786 37.198 0.605 -51.806
5840.333 0.602 -51.963 0.788 37.036 0.788 37.036 0.602 -51.963
5865.292 0.6 -52.118 0.789 36.874 0.789 36.874 0.6 -52.118
5890.25 0.598 -52.274 0.791 36.713 0.791 36.713 0.598 -52.274
5915.208 0.596 -52.429 0.793 36.552 0.793 36.552 0.596 -52.429
5940.167 0.593 -52.583 0.794 36.392 0.794 36.392 0.593 -52.583
5965.125 0.591 -52.737 0.796 36.232 0.796 36.232 0.591 -52.737
5990.083 0.589 -52.89 0.798 36.073 0.798 36.073 0.589 -52.89
6015.042 0.587 -53.042 0.799 35.914 0.799 35.914 0.587 -53.042
6040 0.584 -53.195 0.801 35.756 0.801 35.756 0.584 -53.195
6064.958 0.582 -53.346 0.802 35.598 0.802 35.598 0.582 -53.346
6089.917 0.58 -53.497 0.804 35.441 0.804 35.441 0.58 -53.497
6114.875 0.578 -53.648 0.806 35.284 0.806 35.284 0.578 -53.648
6139.833 0.575 -53.798 0.807 35.127 0.807 35.127 0.575 -53.798
6164.792 0.573 -53.948 0.809 34.972 0.809 34.972 0.573 -53.948
6189.75 0.571 -54.097 0.81 34.816 0.81 34.816 0.571 -54.097
6214.708 0.569 -54.245 0.812 34.661 0.812 34.661 0.569 -54.245
6239.667 0.567 -54.394 0.813 34.507 0.813 34.507 0.567 -54.394
6264.625 0.564 -54.541 0.815 34.353 0.815 34.353 0.564 -54.541
6289.583 0.562 -54.688 0.816 34.2 0.816 34.2 0.562 -54.688
6314.542 0.56 -54.835 0.818 34.047 0.818 34.047 0.56 -54.835
6339.5 0.558 -54.981 0.819 33.894 0.819 33.894 0.558 -54.981
6364.458 0.556 -55.126 0.821 33.742 0.821 33.742 0.556 -55.126
6389.417 0.553 -55.271 0.822 33.59 0.822 33.59 0.553 -55.271
6414.375 0.551 -55.416 0.823 33.439 0.823 33.439 0.551 -55.416
6439.333 0.549 -55.56 0.825 33.289 0.825 33.289 0.549 -55.56
6464.292 0.547 -55.704 0.826 33.138 0.826 33.138 0.547 -55.704
6489.25 0.545 -55.847 0.828 32.989 0.828 32.989 0.545 -55.847
6514.208 0.542 -55.989 0.829 32.839 0.829 32.839 0.542 -55.989
6539.167 0.54 -56.132 0.83 32.691 0.83 32.691 0.54 -56.132
6564.125 0.538 -56.273 0.832 32.542 0.832 32.542 0.538 -56.273
6589.083 0.536 -56.414 0.833 32.394 0.833 32.394 0.536 -56.414
6614.042 0.534 -56.555 0.835 32.247 0.835 32.247 0.534 -56.555
6639 0.532 -56.695 0.836 32.1 0.836 32.1 0.532 -56.695
6663.958 0.529 -56.835 0.837 31.953 0.837 31.953 0.529 -56.835
6688.917 0.527 -56.974 0.839 31.807 0.839 31.807 0.527 -56.974
6713.875 0.525 -57.113 0.84 31.661 0.84 31.661 0.525 -57.113
6738.833 0.523 -57.251 0.841 31.516 0.841 31.516 0.523 -57.251
6763.792 0.521 -57.389 0.843 31.371 0.843 31.371 0.521 -57.389
6788.75 0.519 -57.526 0.844 31.227 0.844 31.227 0.519 -57.526
6813.708 0.516 -57.663 0.845 31.083 0.845 31.083 0.516 -57.663
6838.667 0.514 -57.8 0.846 30.939 0.846 30.939 0.514 -57.8
6863.625 0.512 -57.936 0.848 30.796 0.848 30.796 0.512 -57.936
6888.583 0.51 -58.071 0.849 30.654 0.849 30.654 0.51 -58.071
6913.542 0.508 -58.206 0.85 30.511 0.85 30.511 0.508 -58.206
6938.5 0.506 -58.341 0.851 30.37 0.851 30.37 0.506 -58.341
6963.458 0.504 -58.475 0.853 30.228 0.853 30.228 0.504 -58.475
6988.417 0.501 -58.608 0.854 30.087 0.854 30.087 0.501 -58.608
7013.375 0.499 -58.741 0.855 29.947 0.855 29.947 0.499 -58.741
7038.333 0.497 -58.874 0.856 29.806 0.856 29.806 0.497 -58.874
7063.292 0.495 -59.006 0.857 29.667 0.857 29.667 0.495 -59.006
7088.25 0.493 -59.138 0.859 29.527 0.859 29.527 0.493 -59.138
7113.208 0.491 -59.269 0.86 29.388 0.86 29.388 0.491 -59.269
7138.167 0.489 -59.4 0.861 29.25 0.861 29.25 0.489 -59.4
7163.125 0.487 -59.531 0.862 29.112 0.862 29.112 0.487 -59.531
7188.083 0.485 -59.661 0.863 28.974 0.863 28.974 0.485 -59.661
7213.042 0.482 -59.79 0.864 28.837 0.864 28.837 0.482 -59.79
7238 0.48 -59.919 0.866 28.7 0.866 28.7 0.48 -59.919
7262.958 0.478 -60.048 0.867 28.564 0.867 28.564 0.478 -60.048
7287.917 0.476 -60.176 0.868 28.428 0.868 28.428 0.476 -60.176
7312.875 0.474 -60.304 0.869 28.292 0.869 28.292 0.474 -60.304
7337.833 0.472 -60.431 0.87 28.157 0.87 28.157 0.472 -60.431
7362.792 0.47 -60.558 0.871 28.022 0.871 28.022 0.47 -60.558
7387.75 0.468 -60.684 0.872 27.887 0.872 27.887 0.468 -60.684
7412.708 0.466 -60.81 0.873 27.753 0.873 27.753 0.466 -60.81
7437.667 0.464 -60.936 0.874 27.619 0.874 27.619 0.464 -60.936
7462.625 0.462 -61.061 0.875 27.486 0.875 27.486 0.462 -61.061
7487.583 0.46 -61.186 0.876 27.353 0.876 27.353 0.46 -61.186
7512.542 0.458 -61.31 0.878 27.221 0.878 27.221 0.458 -61.31
7537.5 0.456 -61.434 0.879 27.088 0.879 27.088 0.456 -61.434
7562.458 0.453 -61.557 0.88 26.957 0.88 26.957 0.453 -61.557
7587.417 0.451 -61.68 0.881 26.825 0.881 26.825 0.451 -61.68
7612.375 0.449 -61.803 0.882 26.694 0.882 26.694 0.449 -61.803
7637.333 0.447 -61.925 0.883 26.564 0.883 26.564 0.447 -61.925
7662.292 0.445 -62.046 0.884 26.433 0.884 26.433 0.445 -62.046
7687.25 0.443 -62.168 0.885 26.303 0.885 26.303 0.443 -62.168
7712.208 0.441 -62.288 0.886 26.174 0.886 26.174 0.441 -62.288
7737.167 0.439 -62.409 0.887 26.045 0.887 26.045 0.439 -62.409
7762.125 0.437 -62.529 0.888 25.916 0.888 25.916 0.437 -62.529
7787.083 0.435 -62.648 0.889 25.787 0.889 25.787 0.435 -62.648
7812.042 0.433 -62.767 0.889 25.659 0.889 25.659 0.433 -62.767
7837 0.431 -62.886 0.89 25.532 0.89 25.532 0.431 -62.886
7861.958 0.429 -63.004 0.891 25.404 0.891 25.404 0.429 -63.004
7886.917 0.427 -63.122 0.892 25.277 0.892 25.277 0.427 -63.122
7911.875 0.425 -63.24 0.893 25.151 0.893 25.151 0.425 -63.24
7936.833 0.423 -63.357 0.894 25.024 0.894 25.024 0.423 -63.357
7961.792 0.421 -63.473 0.895 24.899 0.895 24.899 0.421 -63.473
7986.75 0.419 -63.589 0.896 24.773 0.896 24.773 0.419 -63.589
8011.708 0.417 -63.705 0.897 24.648 0.897 24.648 0.417 -63.705
8036.667 0.415 -63.82 0.898 24.523 0.898 24.523 0.415 -63.82
8061.625 0.413 -63.935 0.899 24.398 0.899 24.398 0.413 -63.935
8086.583 0.411 -64.05 0.9 24.274 0.9 24.274 0.411 -64.05
8111.542 0.409 -64.164 0.9 24.15 0.9 24.15 0.409 -64.164
8136.5 0.407 -64.278 0.901 24.027 0.901 24.027 0.407 -64.278
