# MHZ S MA R 50

50 0.998 -3.775 0.066 86.214 0.066 86.214 0.998 -3.775
74.958 0.995 -5.649 0.098 84.334 0.098 84.334 0.995 -5.649
99.917 0.991 -7.512 0.131 82.466 0.131 82.466 0.991 -7.512
124.875 0.987 -9.36 0.163 80.612 0.163 80.612 0.987 -9.36
149.833 0.981 -11.189 0.194 78.778 0.194 78.778 0.981 -11.189
174.792 0.974 -12.996 0.225 76.965 0.225 76.965 0.974 -12.996
199.75 0.967 -14.779 0.255 75.177 0.255 75.177 0.967 -14.779
224.708 0.958 -16.534 0.285 73.416 0.285 73.416 0.958 -16.534
249.667 0.949 -18.259 0.313 71.686 0.313 71.686 0.949 -18.259
274.625 0.94 -19.951 0.341 69.988 0.341 69.988 0.94 -19.951
299.583 0.929 -21.61 0.368 68.323 0.368 68.323 0.929 -21.61
324.542 0.918 -23.234 0.394 66.694 0.394 66.694 0.918 -23.234
349.5 0.907 -24.82 0.42 65.102 0.42 65.102 0.907 -24.82
374.458 0.895 -26.369 0.444 63.547 0.444 63.547 0.895 -26.369
399.417 0.883 -27.88 0.468 62.031 0.468 62.031 0.883 -27.88
424.375 0.871 -29.352 0.49 60.554 0.49 60.554 0.871 -29.352
449.333 0.858 -30.784 0.512 59.116 0.512 59.116 0.858 -30.784
474.292 0.845 -32.177 0.533 57.717 0.533 57.717 0.845 -32.177
499.25 0.833 -33.531 0.552 56.357 0.552 56.357 0.833 -33.531
524.208 0.82 -34.846 0.571 55.036 0.571 55.036 0.82 -34.846
549.167 0.806 -36.123 0.59 53.754 0.59 53.754 0.806 -36.123
574.125 0.793 -37.362 0.607 52.509 0.607 52.509 0.793 -37.362
599.083 0.78 -38.564 0.623 51.302 0.623 51.302 0.78 -38.564
624.042 0.768 -39.73 0.639 50.131 0.639 50.131 0.768 -39.73
649 0.755 -40.859 0.654 48.995 0.654 48.995 0.755 -40.859
673.958 0.742 -41.954 0.669 47.894 0.669 47.894 0.742 -41.954
698.917 0.729 -43.015 0.682 46.828 0.682 46.828 0.729 -43.015
723.875 0.717 -44.043 0.695 45.794 0.695 45.794 0.717 -44.043
748.833 0.705 -45.039 0.708 44.792 0.708 44.792 0.705 -45.039
773.792 0.692 -46.005 0.719 43.821 0.719 43.821 0.692 -46.005
798.75 0.68 -46.94 0.731 42.88 0.731 42.88 0.68 -46.94
823.708 0.669 -47.846 0.741 41.968 0.741 41.968 0.669 -47.846
848.667 0.657 -48.724 0.752 41.084 0.752 41.084 0.657 -48.724
873.625 0.646 -49.575 0.761 40.227 0.761 40.227 0.646 -49.575
898.583 0.635 -50.399 0.771 39.397 0.771 39.397 0.635 -50.399
923.542 0.624 -51.199 0.779 38.591 0.779 38.591 0.624 -51.199
948.5 0.613 -51.974 0.788 37.81 0.788 37.81 0.613 -51.974
973.458 0.603 -52.725 0.796 37.053 0.796 37.053 0.603 -52.725
998.417 0.592 -53.455 0.803 36.318 0.803 36.318 0.592 -53.455
1023.375 0.582 -54.162 0.811 35.604 0.811 35.604 0.582 -54.162
1048.333 0.572 -54.848 0.818 34.912 0.818 34.912 0.572 -54.848
1073.292 0.563 -55.514 0.824 34.24 0.824 34.24 0.563 -55.514
1098.25 0.553 -56.161 0.831 33.587 0.831 33.587 0.553 -56.161
1123.208 0.544 -56.789 0.837 32.953 0.837 32.953 0.544 -56.789
1148.167 0.535 -57.399 0.842 32.336 0.842 32.336 0.535 -57.399
1173.125 0.526 -57.992 0.848 31.737 0.848 31.737 0.526 -57.992
1198.083 0.517 -58.568 0.853 31.155 0.853 31.155 0.517 -58.568
1223.042 0.509 -59.128 0.858 30.589 0.858 30.589 0.509 -59.128
1248 0.501 -59.673 0.863 30.038 0.863 30.038 0.501 -59.673
1272.958 0.492 -60.202 0.868 29.502 0.868 29.502 0.492 -60.202
1297.917 0.485 -60.718 0.872 28.98 0.872 28.98 0.485 -60.718
1322.875 0.477 -61.219 0.876 28.472 0.876 28.472 0.477 -61.219
1347.833 0.469 -61.708 0.881 27.977 0.881 27.977 0.469 -61.708
1372.792 0.462 -62.183 0.884 27.495 0.884 27.495 0.462 -62.183
1397.75 0.454 -62.646 0.888 27.026 0.888 27.026 0.454 -62.646
1422.708 0.447 -63.097 0.892 26.568 0.892 26.568 0.447 -63.097
1447.667 0.44 -63.537 0.895 26.121 0.895 26.121 0.44 -63.537
1472.625 0.433 -63.966 0.899 25.686 0.899 25.686 0.433 -63.966
1497.583 0.427 -64.384 0.902 25.261 0.902 25.261 0.427 -64.384
1522.542 0.42 -64.792 0.905 24.846 0.905 24.846 0.42 -64.792
1547.5 0.414 -65.19 0.908 24.442 0.908 24.442 0.414 -65.19
1572.458 0.407 -65.578 0.911 24.047 0.911 24.047 0.407 -65.578
1597.417 0.401 -65.957 0.913 23.661 0.913 23.661 0.401 -65.957
1622.375 0.395 -66.327 0.916 23.284 0.916 23.284 0.395 -66.327
1647.333 0.389 -66.689 0.918 22.915 0.918 22.915 0.389 -66.689
1672.292 0.384 -67.042 0.921 22.555 0.921 22.555 0.384 -67.042
1697.25 0.378 -67.387 0.923 22.202 0.923 22.202 0.378 -67.387
1722.208 0.372 -67.725 0.925 21.858 0.925 21.858 0.372 -67.725
1747.167 0.367 -68.055 0.928 21.521 0.928 21.521 0.367 -68.055
1772.125 0.361 -68.377 0.93 21.191 0.93 21.191 0.361 -68.377
1797.083 0.356 -68.693 0.932 20.868 0.932 20.868 0.356 -68.693
1822.042 0.351 -69.001 0.934 20.552 0.934 20.552 0.351 -69.001
1847 0.346 -69.303 0.935 20.243 0.935 20.243 0.346 -69.303
1871.958 0.341 -69.599 0.937 19.939 0.937 19.939 0.341 -69.599
1896.917 0.336 -69.889 0.939 19.642 0.939 19.642 0.336 -69.889
1921.875 0.331 -70.172 0.941 19.351 0.941 19.351 0.331 -70.172
1946.833 0.327 -70.45 0.942 19.066 0.942 19.066 0.327 -70.45
1971.792 0.322 -70.722 0.944 18.786 0.944 18.786 0.322 -70.722
1996.75 0.318 -70.989 0.945 18.511 0.945 18.511 0.318 -70.989
2021.708 0.313 -71.25 0.947 18.242 0.947 18.242 0.313 -71.25
2046.667 0.309 -71.506 0.948 17.978 0.948 17.978 0.309 -71.506
2071.625 0.304 -71.757 0.95 17.719 0.95 17.719 0.304 -71.757
2096.583 0.3 -72.004 0.951 17.464 0.951 17.464 0.3 -72.004
2121.542 0.296 -72.245 0.952 17.215 0.952 17.215 0.296 -72.245
2146.5 0.292 -72.482 0.954 16.969 0.954 16.969 0.292 -72.482
2171.458 0.288 -72.715 0.955 16.728 0.955 16.728 0.288 -72.715
2196.417 0.284 -72.943 0.956 16.491 0.956 16.491 0.284 -72.943
2221.375 0.28 -73.167 0.957 16.259 0.957 16.259 0.28 -73.167
2246.333 0.276 -73.387 0.958 16.03 0.958 16.03 0.276 -73.387
2271.292 0.272 -73.603 0.959 15.805 0.959 15.805 0.272 -73.603
2296.25 0.269 -73.815 0.96 15.584 0.96 15.584 0.269 -73.815
2321.208 0.265 -74.024 0.961 15.367 0.961 15.367 0.265 -74.024
2346.167 0.261 -74.229 0.962 15.153 0.962 15.153 0.261 -74.229
2371.125 0.258 -74.43 0.963 14.943 0.963 14.943 0.258 -74.43
2396.083 0.254 -74.627 0.964 14.736 0.964 14.736 0.254 -74.627
2421.042 0.251 -74.822 0.965 14.532 0.965 14.532 0.251 -74.822
2446 0.248 -75.013 0.966 14.332 0.966 14.332 0.248 -75.013
2470.958 0.244 -75.201 0.967 14.135 0.967 14.135 0.244 -75.201
2495.917 0.241 -75.385 0.968 13.94 0.968 13.94 0.241 -75.385
2520.875 0.238 -75.567 0.969 13.749 0.969 13.749 0.238 -75.567
2545.833 0.234 -75.745 0.969 13.56 0.969 13.56 0.234 -75.745
2570.792 0.231 -75.921 0.97 13.375 0.97 13.375 0.231 -75.921
2595.75 0.228 -76.094 0.971 13.192 0.971 13.192 0.228 -76.094
2620.708 0.225 -76.264 0.971 13.011 0.971 13.011 0.225 -76.264
2645.667 0.222 -76.431 0.972 12.834 0.972 12.834 0.222 -76.431
2670.625 0.219 -76.596 0.973 12.658 0.973 12.658 0.219 -76.596
2695.583 0.216 -76.758 0.973 12.486 0.973 12.486 0.216 -76.758
2720.542 0.213 -76.918 0.974 12.315 0.974 12.315 0.213 -76.918
2745.5 0.21 -77.075 0.975 12.147 0.975 12.147 0.21 -77.075
2770.458 0.208 -77.23 0.975 11.982 0.975 11.982 0.208 -77.23
2795.417 0.205 -77.382 0.976 11.818 0.976 11.818 0.205 -77.382
2820.375 0.202 -77.532 0.977 11.657 0.977 11.657 0.202 -77.532
2845.333 0.199 -77.68 0.977 11.498 0.977 11.498 0.199 -77.68
2870.292 0.197 -77.825 0.978 11.34 0.978 11.34 0.197 -77.825
2895.25 0.194 -77.968 0.978 11.185 0.978 11.185 0.194 -77.968
2920.208 0.191 -78.109 0.979 11.032 0.979 11.032 0.191 -78.109
2945.167 0.189 -78.248 0.979 10.881 0.979 10.881 0.189 -78.248
2970.125 0.186 -78.385 0.98 10.732 0.98 10.732 0.186 -78.385
2995.083 0.184 -78.52 0.98 10.584 0.98 10.584 0.184 -78.52
3020.042 0.181 -78.653 0.981 10.438 0.981 10.438 0.181 -78.653
3045 0.179 -78.784 0.981 10.294 0.981 10.294 0.179 -78.784
3069.958 0.176 -78.913 0.981 10.152 0.981 10.152 0.176 -78.913
3094.917 0.174 -79.04 0.982 10.012 0.982 10.012 0.174 -79.04
3119.875 0.171 -79.165 0.982 9.873 0.982 9.873 0.171 -79.165
3144.833 0.169 -79.289 0.983 9.735 0.983 9.735 0.169 -79.289
3169.792 0.167 -79.411 0.983 9.6 0.983 9.6 0.167 -79.411
3194.75 0.164 -79.53 0.984 9.466 0.984 9.466 0.164 -79.53
3219.708 0.162 -79.649 0.984 9.333 0.984 9.333 0.162 -79.649
3244.667 0.16 -79.765 0.984 9.202 0.984 9.202 0.16 -79.765
3269.625 0.158 -79.88 0.985 9.072 0.985 9.072 0.158 -79.88
3294.583 0.155 -79.993 0.985 8.944 0.985 8.944 0.155 -79.993
3319.542 0.153 -80.104 0.985 8.817 0.985 8.817 0.153 -80.104
3344.5 0.151 -80.214 0.986 8.691 0.986 8.691 0.151 -80.214
3369.458 0.149 -80.322 0.986 8.567 0.986 8.567 0.149 -80.322
3394.417 0.147 -80.429 0.986 8.444 0.986 8.444 0.147 -80.429
3419.375 0.145 -80.534 0.987 8.322 0.987 8.322 0.145 -80.534
3444.333 0.143 -80.637 0.987 8.202 0.987 8.202 0.143 -80.637
3469.292 0.141 -80.739 0.987 8.082 0.987 8.082 0.141 -80.739
3494.25 0.139 -80.839 0.987 7.964 0.987 7.964 0.139 -80.839
3519.208 0.137 -80.938 0.988 7.847 0.988 7.847 0.137 -80.938
3544.167 0.135 -81.035 0.988 7.732 0.988 7.732 0.135 -81.035
3569.125 0.133 -81.131 0.988 7.617 0.988 7.617 0.133 -81.131
3594.083 0.131 -81.226 0.989 7.504 0.989 7.504 0.131 -81.226
3619.042 0.129 -81.318 0.989 7.391 0.989 7.391 0.129 -81.318
3644 0.127 -81.41 0.989 7.28 0.989 7.28 0.127 -81.41
3668.958 0.125 -81.5 0.989 7.17 0.989 7.17 0.125 -81.5
3693.917 0.123 -81.588 0.99 7.06 0.99 7.06 0.123 -81.588
3718.875 0.121 -81.675 0.99 6.952 0.99 6.952 0.121 -81.675
3743.833 0.119 -81.761 0.99 6.845 0.99 6.845 0.119 -81.761
3768.792 0.117 -81.845 0.99 6.738 0.99 6.738 0.117 -81.845
3793.75 0.116 -81.928 0.99 6.633 0.99 6.633 0.116 -81.928
3818.708 0.114 -82.009 0.991 6.529 0.991 6.529 0.114 -82.009
3843.667 0.112 -82.089 0.991 6.425 0.991 6.425 0.112 -82.089
3868.625 0.11 -82.167 0.991 6.322 0.991 6.322 0.11 -82.167
3893.583 0.108 -82.244 0.991 6.221 0.991 6.221 0.108 -82.244
3918.542 0.107 -82.319 0.991 6.12 0.991 6.12 0.107 -82.319
3943.5 0.105 -82.393 0.992 6.02 0.992 6.02 0.105 -82.393
3968.458 0.103 -82.466 0.992 5.921 0.992 5.921 0.103 -82.466
3993.417 0.101 -82.537 0.992 5.822 0.992 5.822 0.101 -82.537
4018.375 0.1 -82.606 0.992 5.725 0.992 5.725 0.1 -82.606
4043.333 0.098 -82.674 0.992 5.628 0.992 5.628 0.098 -82.674
4068.292 0.096 -82.74 0.992 5.532 0.992 5.532 0.096 -82.74
4093.25 0.095 -82.805 0.993 5.436 0.993 5.436 0.095 -82.805
4118.208 0.093 -82.868 0.993 5.342 0.993 5.342 0.093 -82.868
4143.167 0.092 -82.93 0.993 5.248 0.993 5.248 0.092 -82.93
4168.125 0.09 -82.99 0.993 5.155 0.993 5.155 0.09 -82.99
4193.083 0.088 -83.048 0.993 5.063 0.993 5.063 0.088 -83.048
4218.042 0.087 -83.105 0.993 4.971 0.993 4.971 0.087 -83.105
4243 0.085 -83.16 0.993 4.88 0.993 4.88 0.085 -83.16
4267.958 0.084 -83.213 0.994 4.79 0.994 4.79 0.084 -83.213
4292.917 0.082 -83.265 0.994 4.7 0.994 4.7 0.082 -83.265
4317.875 0.08 -83.314 0.994 4.611 0.994 4.611 0.08 -83.314
4342.833 0.079 -83.362 0.994 4.523 0.994 4.523 0.079 -83.362
4367.792 0.077 -83.407 0.994 4.435 0.994 4.435 0.077 -83.407
4392.75 0.076 -83.451 0.994 4.348 0.994 4.348 0.076 -83.451
4417.708 0.074 -83.493 0.994 4.262 0.994 4.262 0.074 -83.493
4442.667 0.073 -83.532 0.994 4.176 0.994 4.176 0.073 -83.532
4467.625 0.071 -83.57 0.995 4.091 0.995 4.091 0.071 -83.57
4492.583 0.07 -83.605 0.995 4.006 0.995 4.006 0.07 -83.605
4517.542 0.068 -83.638 0.995 3.922 0.995 3.922 0.068 -83.638
4542.5 0.067 -83.668 0.995 3.839 0.995 3.839 0.067 -83.668
4567.458 0.066 -83.696 0.995 3.756 0.995 3.756 0.066 -83.696
4592.417 0.064 -83.721 0.995 3.673 0.995 3.673 0.064 -83.721
4617.375 0.063 -83.743 0.995 3.591 0.995 3.591 0.063 -83.743
4642.333 0.061 -83.763 0.995 3.51 0.995 3.51 0.061 -83.763
4667.292 0.06 -83.779 0.995 3.429 0.995 3.429 0.06 -83.779
4692.25 0.058 -83.793 0.995 3.349 0.995 3.349 0.058 -83.793
4717.208 0.057 -83.803 0.995 3.269 0.995 3.269 0.057 -83.803
4742.167 0.056 -83.809 0.996 3.19 0.996 3.19 0.056 -83.809
4767.125 0.054 -83.812 0.996 3.111 0.996 3.111 0.054 -83.812
4792.083 0.053 -83.811 0.996 3.033 0.996 3.033 0.053 -83.811
4817.042 0.052 -83.805 0.996 2.955 0.996 2.955 0.052 -83.805
4842 0.05 -83.796 0.996 2.877 0.996 2.877 0.05 -83.796
4866.958 0.049 -83.781 0.996 2.8 0.996 2.8 0.049 -83.781
4891.917 0.048 -83.762 0.996 2.724 0.996 2.724 0.048 -83.762
4916.875 0.046 -83.737 0.996 2.648 0.996 2.648 0.046 -83.737
4941.833 0.045 -83.707 0.996 2.572 0.996 2.572 0.045 -83.707
4966.792 0.044 -83.67 0.996 2.497 0.996 2.497 0.044 -83.67
4991.75 0.042 -83.627 0.996 2.423 0.996 2.423 0.042 -83.627
5016.708 0.041 -83.577 0.996 2.348 0.996 2.348 0.041 -83.577
5041.667 0.04 -83.518 0.996 2.274 0.996 2.274 0.04 -83.518
5066.625 0.039 -83.452 0.996 2.201 0.996 2.201 0.039 -83.452
5091.583 0.037 -83.376 0.996 2.128 0.996 2.128 0.037 -83.376
5116.542 0.036 -83.29 0.996 2.055 0.996 2.055 0.036 -83.29
5141.5 0.035 -83.194 0.996 1.983 0.996 1.983 0.035 -83.194
5166.458 0.033 -83.085 0.997 1.911 0.997 1.911 0.033 -83.085
5191.417 0.032 -82.963 0.997 1.84 0.997 1.84 0.032 -82.963
5216.375 0.031 -82.826 0.997 1.769 0.997 1.769 0.031 -82.826
5241.333 0.03 -82.673 0.997 1.698 0.997 1.698 0.03 -82.673
5266.292 0.029 -82.502 0.997 1.628 0.997 1.628 0.029 -82.502
5291.25 0.027 -82.31 0.997 1.558 0.997 1.558 0.027 -82.31
5316.208 0.026 -82.095 0.997 1.488 0.997 1.488 0.026 -82.095
5341.167 0.025 -81.854 0.997 1.419 0.997 1.419 0.025 -81.854
5366.125 0.024 -81.582 0.997 1.35 0.997 1.35 0.024 -81.582
5391.083 0.023 -81.277 0.997 1.281 0.997 1.281 0.023 -81.277
5416.042 0.021 -80.932 0.997 1.213 0.997 1.213 0.021 -80.932
5441 0.02 -80.54 0.997 1.145 0.997 1.145 0.02 -80.54
5465.958 0.019 -80.094 0.997 1.078 0.997 1.078 0.019 -80.094
5490.917 0.018 -79.584 0.997 1.01 0.997 1.01 0.018 -79.584
5515.875 0.017 -78.997 0.997 0.944 0.997 0.944 0.017 -78.997
5540.833 0.016 -78.317 0.997 0.877 0.997 0.877 0.016 -78.317
5565.792 0.014 -77.523 0.997 0.811 0.997 0.811 0.014 -77.523
5590.75 0.013 -76.588 0.997 0.745 0.997 0.745 0.013 -76.588
5615.708 0.012 -75.474 0.997 0.679 0.997 0.679 0.012 -75.474
5640.667 0.011 -74.131 0.997 0.614 0.997 0.614 0.011 -74.131
5665.625 0.01 -72.486 0.997 0.549 0.997 0.549 0.01 -72.486
5690.583 8.937e-3 -70.435 0.997 0.484 0.997 0.484 8.937e-3 -70.435
5715.542 7.883e-3 -67.825 0.997 0.419 0.997 0.419 7.883e-3 -67.825
5740.5 6.855e-3 -64.417 0.997 0.355 0.997 0.355 6.855e-3 -64.417
5765.458 5.865e-3 -59.833 0.997 0.291 0.997 0.291 5.865e-3 -59.833
5790.417 4.934e-3 -53.46 0.997 0.228 0.997 0.228 4.934e-3 -53.46
5815.375 4.096e-3 -44.326 0.997 0.164 0.997 0.164 4.096e-3 -44.326
5840.333 3.416e-3 -31.1 0.997 0.101 0.997 0.101 3.416e-3 -31.1
5865.292 2.998e-3 -12.944 0.997 0.039 0.997 0.039 2.998e-3 -12.944
5890.25 2.951e-3 8.112 0.997 -0.024 0.997 -0.024 2.951e-3 8.112
5915.208 3.286e-3 27.158 0.997 -0.086 0.997 -0.086 3.286e-3 27.158
5940.167 3.902e-3 41.37 0.997 -0.148 0.997 -0.148 3.902e-3 41.37
5965.125 4.686e-3 51.222 0.997 -0.21 0.997 -0.21 4.686e-3 51.222
5990.083 5.566e-3 58.065 0.997 -0.271 0.997 -0.271 5.566e-3 58.065
6015.042 6.5e-3 62.955 0.997 -0.333 0.997 -0.333 6.5e-3 62.955
6040 7.466e-3 66.569 0.997 -0.394 0.997 -0.394 7.466e-3 66.569
6064.958 8.452e-3 69.322 0.997 -0.454 0.997 -0.454 8.452e-3 69.322
6089.917 9.449e-3 71.475 0.997 -0.515 0.997 -0.515 9.449e-3 71.475
6114.875 0.01 73.198 0.997 -0.575 0.997 -0.575 0.01 73.198
6139.833 0.011 74.601 0.997 -0.635 0.997 -0.635 0.011 74.601
6164.792 0.012 75.762 0.997 -0.695 0.997 -0.695 0.012 75.762
6189.75 0.013 76.737 0.997 -0.755 0.997 -0.755 0.013 76.737
6214.708 0.015 77.564 0.997 -0.814 0.997 -0.814 0.015 77.564
6239.667 0.016 78.272 0.997 -0.873 0.997 -0.873 0.016 78.272
6264.625 0.017 78.885 0.997 -0.932 0.997 -0.932 0.017 78.885
6289.583 0.018 79.418 0.997 -0.99 0.997 -0.99 0.018 79.418
6314.542 0.019 79.885 0.997 -1.049 0.997 -1.049 0.019 79.885
6339.5 0.02 80.296 0.997 -1.107 0.997 -1.107 0.02 80.296
6364.458 0.021 80.66 0.997 -1.165 0.997 -1.165 0.021 80.66
6389.417 0.022 80.984 0.997 -1.223 0.997 -1.223 0.022 80.984
6414.375 0.023 81.273 0.997 -1.281 0.997 -1.281 0.023 81.273
6439.333 0.024 81.532 0.997 -1.338 0.997 -1.338 0.024 81.532
6464.292 0.025 81.764 0.997 -1.395 0.997 -1.395 0.025 81.764
6489.25 0.026 81.973 0.997 -1.452 0.997 -1.452 0.026 81.973
6514.208 0.026 82.162 0.997 -1.509 0.997 -1.509 0.026 82.162
6539.167 0.027 82.332 0.997 -1.565 0.997 -1.565 0.027 82.332
6564.125 0.028 82.487 0.997 -1.622 0.997 -1.622 0.028 82.487
6589.083 0.029 82.626 0.997 -1.678 0.997 -1.678 0.029 82.626
6614.042 0.03 82.753 0.997 -1.734 0.997 -1.734 0.03 82.753
6639 0.031 82.869 0.997 -1.79 0.997 -1.79 0.031 82.869
6663.958 0.032 82.973 0.997 -1.845 0.997 -1.845 0.032 82.973
6688.917 0.033 83.068 0.997 -1.901 0.997 -1.901 0.033 83.068
6713.875 0.034 83.154 0.996 -1.956 0.996 -1.956 0.034 83.154
6738.833 0.035 83.233 0.996 -2.011 0.996 -2.011 0.035 83.233
6763.792 0.036 83.304 0.996 -2.066 0.996 -2.066 0.036 83.304
6788.75 0.037 83.368 0.996 -2.121 0.996 -2.121 0.037 83.368
6813.708 0.038 83.426 0.996 -2.175 0.996 -2.175 0.038 83.426
6838.667 0.039 83.479 0.996 -2.23 0.996 -2.23 0.039 83.479
6863.625 0.04 83.526 0.996 -2.284 0.996 -2.284 0.04 83.526
6888.583 0.041 83.569 0.996 -2.338 0.996 -2.338 0.041 83.569
6913.542 0.042 83.607 0.996 -2.392 0.996 -2.392 0.042 83.607
6938.5 0.043 83.641 0.996 -2.445 0.996 -2.445 0.043 83.641
6963.458 0.044 83.671 0.996 -2.499 0.996 -2.499 0.044 83.671
6988.417 0.045 83.698 0.996 -2.552 0.996 -2.552 0.045 83.698
7013.375 0.046 83.721 0.996 -2.605 0.996 -2.605 0.046 83.721
7038.333 0.046 83.741 0.996 -2.658 0.996 -2.658 0.046 83.741
7063.292 0.047 83.758 0.996 -2.711 0.996 -2.711 0.047 83.758
7088.25 0.048 83.773 0.996 -2.764 0.996 -2.764 0.048 83.773
7113.208 0.049 83.785 0.996 -2.817 0.996 -2.817 0.049 83.785
7138.167 0.05 83.794 0.996 -2.869 0.996 -2.869 0.05 83.794
7163.125 0.051 83.802 0.996 -2.921 0.996 -2.921 0.051 83.802
7188.083 0.052 83.807 0.996 -2.973 0.996 -2.973 0.052 83.807
7213.042 0.053 83.81 0.996 -3.025 0.996 -3.025 0.053 83.81
7238 0.054 83.812 0.996 -3.077 0.996 -3.077 0.054 83.812
7262.958 0.055 83.812 0.996 -3.129 0.996 -3.129 0.055 83.812
7287.917 0.056 83.81 0.996 -3.18 0.996 -3.18 0.056 83.81
7312.875 0.056 83.806 0.995 -3.232 0.995 -3.232 0.056 83.806
7337.833 0.057 83.801 0.995 -3.283 0.995 -3.283 0.057 83.801
7362.792 0.058 83.795 0.995 -3.334 0.995 -3.334 0.058 83.795
7387.75 0.059 83.787 0.995 -3.385 0.995 -3.385 0.059 83.787
7412.708 0.06 83.778 0.995 -3.436 0.995 -3.436 0.06 83.778
7437.667 0.061 83.768 0.995 -3.486 0.995 -3.486 0.061 83.768
7462.625 0.062 83.757 0.995 -3.537 0.995 -3.537 0.062 83.757
7487.583 0.063 83.744 0.995 -3.587 0.995 -3.587 0.063 83.744
7512.542 0.064 83.731 0.995 -3.637 0.995 -3.637 0.064 83.731
7537.5 0.064 83.717 0.995 -3.688 0.995 -3.688 0.064 83.717
7562.458 0.065 83.702 0.995 -3.738 0.995 -3.738 0.065 83.702
7587.417 0.066 83.685 0.995 -3.787 0.995 -3.787 0.066 83.685
7612.375 0.067 83.669 0.995 -3.837 0.995 -3.837 0.067 83.669
7637.333 0.068 83.651 0.995 -3.887 0.995 -3.887 0.068 83.651
7662.292 0.069 83.632 0.995 -3.936 0.995 -3.936 0.069 83.632
7687.25 0.07 83.613 0.995 -3.986 0.995 -3.986 0.07 83.613
7712.208 0.07 83.593 0.995 -4.035 0.995 -4.035 0.07 83.593
7737.167 0.071 83.573 0.995 -4.084 0.995 -4.084 0.071 83.573
7762.125 0.072 83.552 0.994 -4.133 0.994 -4.133 0.072 83.552
7787.083 0.073 83.53 0.994 -4.182 0.994 -4.182 0.073 83.53
7812.042 0.074 83.508 0.994 -4.231 0.994 -4.231 0.074 83.508
7837 0.075 83.485 0.994 -4.279 0.994 -4.279 0.075 83.485
7861.958 0.076 83.461 0.994 -4.328 0.994 -4.328 0.076 83.461
7886.917 0.076 83.437 0.994 -4.376 0.994 -4.376 0.076 83.437
7911.875 0.077 83.413 0.994 -4.424 0.994 -4.424 0.077 83.413
7936.833 0.078 83.388 0.994 -4.473 0.994 -4.473 0.078 83.388
7961.792 0.079 83.363 0.994 -4.521 0.994 -4.521 0.079 83.363
7986.75 0.08 83.337 0.994 -4.568 0.994 -4.568 0.08 83.337
8011.708 0.081 83.311 0.994 -4.616 0.994 -4.616 0.081 83.311
8036.667 0.081 83.285 0.994 -4.664 0.994 -4.664 0.081 83.285
8061.625 0.082 83.258 0.994 -4.712 0.994 -4.712 0.082 83.258
8086.583 0.083 83.231 0.994 -4.759 0.994 -4.759 0.083 83.231
8111.542 0.084 83.203 0.994 -4.807 0.994 -4.807 0.084 83.203
8136.5 0.085 83.176 0.994 -4.854 0.994 -4.854 0.085 83.176
8161.458 0.085 83.148 0.993 -4.901 0.993 -4.901 0.085 83.148
8186.417 0.086 83.119 0.993 -4.948 0.993 -4.948 0.086 83.119
8211.375 0.087 83.09 0.993 -4.995 0.993 -4.995 0.087 83.09
