# MHZ S MA R 50

50 1 -0.27 4.712e-3 89.723 4.712e-3 89.723 1 -0.27
74.958 1 -0.405 7.065e-3 89.585 7.065e-3 89.585 1 -0.405
99.917 1 -0.54 9.417e-3 89.447 9.417e-3 89.447 1 -0.54
124.875 1 -0.674 0.012 89.309 0.012 89.309 1 -0.674
149.833 1 -0.809 0.014 89.171 0.014 89.171 1 -0.809
174.792 1 -0.944 0.016 89.033 0.016 89.033 1 -0.944
199.75 1 -1.079 0.019 88.895 0.019 88.895 1 -1.079
224.708 1 -1.213 0.021 88.757 0.021 88.757 1 -1.213
249.667 1 -1.348 0.024 88.619 0.024 88.619 1 -1.348
274.625 1 -1.483 0.026 88.481 0.026 88.481 1 -1.483
299.583 1 -1.618 0.028 88.343 0.028 88.343 1 -1.618
324.542 1 -1.753 0.031 88.205 0.031 88.205 1 -1.753
349.5 0.999 -1.887 0.033 88.067 0.033 88.067 0.999 -1.887
374.458 0.999 -2.022 0.035 87.929 0.035 87.929 0.999 -2.022
399.417 0.999 -2.157 0.038 87.791 0.038 87.791 0.999 -2.157
424.375 0.999 -2.292 0.04 87.653 0.04 87.653 0.999 -2.292
449.333 0.999 -2.426 0.042 87.515 0.042 87.515 0.999 -2.426
474.292 0.999 -2.561 0.045 87.377 0.045 87.377 0.999 -2.561
499.25 0.999 -2.696 0.047 87.239 0.047 87.239 0.999 -2.696
524.208 0.999 -2.831 0.049 87.101 0.049 87.101 0.999 -2.831
549.167 0.999 -2.966 0.052 86.963 0.052 86.963 0.999 -2.966
574.125 0.998 -3.1 0.054 86.825 0.054 86.825 0.998 -3.1
599.083 0.998 -3.235 0.056 86.687 0.056 86.687 0.998 -3.235
624.042 0.998 -3.37 0.059 86.549 0.059 86.549 0.998 -3.37
649 0.998 -3.505 0.061 86.411 0.061 86.411 0.998 -3.505
673.958 0.998 -3.64 0.063 86.273 0.063 86.273 0.998 -3.64
698.917 0.998 -3.774 0.066 86.135 0.066 86.135 0.998 -3.774
723.875 0.998 -3.909 0.068 85.997 0.068 85.997 0.998 -3.909
748.833 0.997 -4.044 0.071 85.858 0.071 85.858 0.997 -4.044
773.792 0.997 -4.179 0.073 85.72 0.073 85.72 0.997 -4.179
798.75 0.997 -4.314 0.075 85.582 0.075 85.582 0.997 -4.314
823.708 0.997 -4.449 0.078 85.444 0.078 85.444 0.997 -4.449
848.667 0.997 -4.583 0.08 85.306 0.08 85.306 0.997 -4.583
873.625 0.996 -4.718 0.082 85.168 0.082 85.168 0.996 -4.718
898.583 0.996 -4.853 0.085 85.03 0.085 85.03 0.996 -4.853
923.542 0.996 -4.988 0.087 84.892 0.087 84.892 0.996 -4.988
948.5 0.996 -5.123 0.089 84.754 0.089 84.754 0.996 -5.123
973.458 0.996 -5.258 0.092 84.616 0.092 84.616 0.996 -5.258
998.417 0.995 -5.392 0.094 84.477 0.094 84.477 0.995 -5.392
1023.375 0.995 -5.527 0.096 84.339 0.096 84.339 0.995 -5.527
1048.333 0.995 -5.662 0.099 84.201 0.099 84.201 0.995 -5.662
1073.292 0.995 -5.797 0.101 84.063 0.101 84.063 0.995 -5.797
1098.25 0.994 -5.932 0.103 83.925 0.103 83.925 0.994 -5.932
1123.208 0.994 -6.067 0.106 83.787 0.106 83.787 0.994 -6.067
1148.167 0.994 -6.202 0.108 83.649 0.108 83.649 0.994 -6.202
1173.125 0.994 -6.336 0.11 83.511 0.11 83.511 0.994 -6.336
1198.083 0.993 -6.471 0.113 83.372 0.113 83.372 0.993 -6.471
1223.042 0.993 -6.606 0.115 83.234 0.115 83.234 0.993 -6.606
1248 0.993 -6.741 0.117 83.096 0.117 83.096 0.993 -6.741
1272.958 0.992 -6.876 0.12 82.958 0.12 82.958 0.992 -6.876
1297.917 0.992 -7.011 0.122 82.82 0.122 82.82 0.992 -7.011
1322.875 0.992 -7.146 0.124 82.681 0.124 82.681 0.992 -7.146
1347.833 0.992 -7.281 0.127 82.543 0.127 82.543 0.992 -7.281
1372.792 0.991 -7.416 0.129 82.405 0.129 82.405 0.991 -7.416
1397.75 0.991 -7.55 0.131 82.267 0.131 82.267 0.991 -7.55
1422.708 0.991 -7.685 0.134 82.129 0.134 82.129 0.991 -7.685
1447.667 0.99 -7.82 0.136 81.99 0.136 81.99 0.99 -7.82
1472.625 0.99 -7.955 0.138 81.852 0.138 81.852 0.99 -7.955
1497.583 0.99 -8.09 0.141 81.714 0.141 81.714 0.99 -8.09
1522.542 0.989 -8.225 0.143 81.576 0.143 81.576 0.989 -8.225
1547.5 0.989 -8.36 0.145 81.437 0.145 81.437 0.989 -8.36
1572.458 0.988 -8.495 0.148 81.299 0.148 81.299 0.988 -8.495
1597.417 0.988 -8.63 0.15 81.161 0.15 81.161 0.988 -8.63
1622.375 0.988 -8.765 0.152 81.023 0.152 81.023 0.988 -8.765
1647.333 0.987 -8.9 0.155 80.884 0.155 80.884 0.987 -8.9
1672.292 0.987 -9.035 0.157 80.746 0.157 80.746 0.987 -9.035
1697.25 0.987 -9.17 0.159 80.608 0.159 80.608 0.987 -9.17
1722.208 0.986 -9.305 0.162 80.469 0.162 80.469 0.986 -9.305
1747.167 0.986 -9.44 0.164 80.331 0.164 80.331 0.986 -9.44
1772.125 0.985 -9.575 0.166 80.193 0.166 80.193 0.985 -9.575
1797.083 0.985 -9.71 0.169 80.055 0.169 80.055 0.985 -9.71
1822.042 0.985 -9.845 0.171 79.916 0.171 79.916 0.985 -9.845
1847 0.984 -9.98 0.173 79.778 0.173 79.778 0.984 -9.98
1871.958 0.984 -10.115 0.176 79.639 0.176 79.639 0.984 -10.115
1896.917 0.983 -10.25 0.178 79.501 0.178 79.501 0.983 -10.25
1921.875 0.983 -10.385 0.18 79.363 0.18 79.363 0.983 -10.385
1946.833 0.982 -10.52 0.183 79.224 0.183 79.224 0.982 -10.52
1971.792 0.982 -10.655 0.185 79.086 0.185 79.086 0.982 -10.655
1996.75 0.981 -10.79 0.187 78.948 0.187 78.948 0.981 -10.79
2021.708 0.981 -10.925 0.19 78.809 0.19 78.809 0.981 -10.925
2046.667 0.981 -11.06 0.192 78.671 0.192 78.671 0.981 -11.06
2071.625 0.98 -11.195 0.194 78.532 0.194 78.532 0.98 -11.195
2096.583 0.98 -11.33 0.196 78.394 0.196 78.394 0.98 -11.33
2121.542 0.979 -11.465 0.199 78.255 0.199 78.255 0.979 -11.465
2146.5 0.979 -11.6 0.201 78.117 0.201 78.117 0.979 -11.6
2171.458 0.978 -11.735 0.203 77.978 0.203 77.978 0.978 -11.735
2196.417 0.978 -11.87 0.206 77.84 0.206 77.84 0.978 -11.87
2221.375 0.977 -12.005 0.208 77.701 0.208 77.701 0.977 -12.005
2246.333 0.977 -12.14 0.21 77.563 0.21 77.563 0.977 -12.14
2271.292 0.976 -12.275 0.213 77.424 0.213 77.424 0.976 -12.275
2296.25 0.975 -12.411 0.215 77.286 0.215 77.286 0.975 -12.411
2321.208 0.975 -12.546 0.217 77.147 0.217 77.147 0.975 -12.546
2346.167 0.974 -12.681 0.22 77.009 0.22 77.009 0.974 -12.681
2371.125 0.974 -12.816 0.222 76.87 0.222 76.87 0.974 -12.816
2396.083 0.973 -12.951 0.224 76.732 0.224 76.732 0.973 -12.951
2421.042 0.973 -13.086 0.226 76.593 0.226 76.593 0.973 -13.086
2446 0.972 -13.221 0.229 76.455 0.229 76.455 0.972 -13.221
2470.958 0.972 -13.356 0.231 76.316 0.231 76.316 0.972 -13.356
2495.917 0.971 -13.492 0.233 76.177 0.233 76.177 0.971 -13.492
2520.875 0.97 -13.627 0.236 76.039 0.236 76.039 0.97 -13.627
2545.833 0.97 -13.762 0.238 75.9 0.238 75.9 0.97 -13.762
2570.792 0.969 -13.897 0.24 75.762 0.24 75.762 0.969 -13.897
2595.75 0.969 -14.032 0.242 75.623 0.242 75.623 0.969 -14.032
2620.708 0.968 -14.167 0.245 75.484 0.245 75.484 0.968 -14.167
2645.667 0.967 -14.303 0.247 75.346 0.247 75.346 0.967 -14.303
2670.625 0.967 -14.438 0.249 75.207 0.249 75.207 0.967 -14.438
2695.583 0.966 -14.573 0.252 75.068 0.252 75.068 0.966 -14.573
2720.542 0.966 -14.708 0.254 74.93 0.254 74.93 0.966 -14.708
2745.5 0.965 -14.843 0.256 74.791 0.256 74.791 0.965 -14.843
2770.458 0.964 -14.979 0.258 74.652 0.258 74.652 0.964 -14.979
2795.417 0.964 -15.114 0.261 74.514 0.261 74.514 0.964 -15.114
2820.375 0.963 -15.249 0.263 74.375 0.263 74.375 0.963 -15.249
2845.333 0.962 -15.384 0.265 74.236 0.265 74.236 0.962 -15.384
2870.292 0.962 -15.519 0.268 74.097 0.268 74.097 0.962 -15.519
2895.25 0.961 -15.655 0.27 73.959 0.27 73.959 0.961 -15.655
2920.208 0.96 -15.79 0.272 73.82 0.272 73.82 0.96 -15.79
2945.167 0.96 -15.925 0.274 73.681 0.274 73.681 0.96 -15.925
2970.125 0.959 -16.06 0.277 73.542 0.277 73.542 0.959 -16.06
2995.083 0.958 -16.196 0.279 73.403 0.279 73.403 0.958 -16.196
3020.042 0.958 -16.331 0.281 73.265 0.281 73.265 0.958 -16.331
3045 0.957 -16.466 0.283 73.126 0.283 73.126 0.957 -16.466
3069.958 0.956 -16.602 0.286 72.987 0.286 72.987 0.956 -16.602
3094.917 0.956 -16.737 0.288 72.848 0.288 72.848 0.956 -16.737
3119.875 0.955 -16.872 0.29 72.709 0.29 72.709 0.955 -16.872
3144.833 0.954 -17.007 0.293 72.57 0.293 72.57 0.954 -17.007
3169.792 0.953 -17.143 0.295 72.431 0.295 72.431 0.953 -17.143
3194.75 0.953 -17.278 0.297 72.292 0.297 72.292 0.953 -17.278
3219.708 0.952 -17.413 0.299 72.154 0.299 72.154 0.952 -17.413
3244.667 0.951 -17.549 0.302 72.015 0.302 72.015 0.951 -17.549
3269.625 0.95 -17.684 0.304 71.876 0.304 71.876 0.95 -17.684
3294.583 0.95 -17.819 0.306 71.737 0.306 71.737 0.95 -17.819
3319.542 0.949 -17.955 0.308 71.598 0.308 71.598 0.949 -17.955
3344.5 0.948 -18.09 0.311 71.459 0.311 71.459 0.948 -18.09
3369.458 0.947 -18.225 0.313 71.32 0.313 71.32 0.947 -18.225
3394.417 0.947 -18.361 0.315 71.181 0.315 71.181 0.947 -18.361
3419.375 0.946 -18.496 0.317 71.042 0.317 71.042 0.946 -18.496
3444.333 0.945 -18.631 0.319 70.903 0.319 70.903 0.945 -18.631
3469.292 0.944 -18.767 0.322 70.764 0.322 70.764 0.944 -18.767
3494.25 0.943 -18.902 0.324 70.625 0.324 70.625 0.943 -18.902
3519.208 0.943 -19.038 0.326 70.486 0.326 70.486 0.943 -19.038
3544.167 0.942 -19.173 0.328 70.347 0.328 70.347 0.942 -19.173
3569.125 0.941 -19.308 0.331 70.208 0.331 70.208 0.941 -19.308
3594.083 0.94 -19.444 0.333 70.069 0.333 70.069 0.94 -19.444
3619.042 0.939 -19.579 0.335 69.929 0.335 69.929 0.939 -19.579
3644 0.938 -19.714 0.337 69.79 0.337 69.79 0.938 -19.714
3668.958 0.938 -19.85 0.34 69.651 0.34 69.651 0.938 -19.85
3693.917 0.937 -19.985 0.342 69.512 0.342 69.512 0.937 -19.985
3718.875 0.936 -20.121 0.344 69.373 0.344 69.373 0.936 -20.121
3743.833 0.935 -20.256 0.346 69.234 0.346 69.234 0.935 -20.256
3768.792 0.934 -20.391 0.348 69.095 0.348 69.095 0.934 -20.391
3793.75 0.933 -20.527 0.351 68.956 0.351 68.956 0.933 -20.527
3818.708 0.932 -20.662 0.353 68.816 0.353 68.816 0.932 -20.662
3843.667 0.932 -20.798 0.355 68.677 0.355 68.677 0.932 -20.798
3868.625 0.931 -20.933 0.357 68.538 0.357 68.538 0.931 -20.933
3893.583 0.93 -21.069 0.36 68.399 0.36 68.399 0.93 -21.069
3918.542 0.929 -21.204 0.362 68.26 0.362 68.26 0.929 -21.204
3943.5 0.928 -21.339 0.364 68.12 0.364 68.12 0.928 -21.339
3968.458 0.927 -21.475 0.366 67.981 0.366 67.981 0.927 -21.475
3993.417 0.926 -21.61 0.368 67.842 0.368 67.842 0.926 -21.61
4018.375 0.925 -21.746 0.371 67.703 0.371 67.703 0.925 -21.746
4043.333 0.924 -21.881 0.373 67.563 0.373 67.563 0.924 -21.881
4068.292 0.923 -22.017 0.375 67.424 0.375 67.424 0.923 -22.017
4093.25 0.922 -22.152 0.377 67.285 0.377 67.285 0.922 -22.152
4118.208 0.922 -22.287 0.379 67.146 0.379 67.146 0.922 -22.287
4143.167 0.921 -22.423 0.381 67.006 0.381 67.006 0.921 -22.423
4168.125 0.92 -22.558 0.384 66.867 0.384 66.867 0.92 -22.558
4193.083 0.919 -22.694 0.386 66.728 0.386 66.728 0.919 -22.694
4218.042 0.918 -22.829 0.388 66.588 0.388 66.588 0.918 -22.829
4243 0.917 -22.965 0.39 66.449 0.39 66.449 0.917 -22.965
4267.958 0.916 -23.1 0.392 66.31 0.392 66.31 0.916 -23.1
4292.917 0.915 -23.236 0.395 66.17 0.395 66.17 0.915 -23.236
4317.875 0.914 -23.371 0.397 66.031 0.397 66.031 0.914 -23.371
4342.833 0.913 -23.507 0.399 65.892 0.399 65.892 0.913 -23.507
4367.792 0.912 -23.642 0.401 65.752 0.401 65.752 0.912 -23.642
4392.75 0.911 -23.777 0.403 65.613 0.403 65.613 0.911 -23.777
4417.708 0.91 -23.913 0.405 65.473 0.405 65.473 0.91 -23.913
4442.667 0.909 -24.048 0.408 65.334 0.408 65.334 0.909 -24.048
4467.625 0.908 -24.184 0.41 65.195 0.41 65.195 0.908 -24.184
4492.583 0.907 -24.319 0.412 65.055 0.412 65.055 0.907 -24.319
4517.542 0.906 -24.455 0.414 64.916 0.414 64.916 0.906 -24.455
4542.5 0.905 -24.59 0.416 64.776 0.416 64.776 0.905 -24.59
4567.458 0.904 -24.726 0.418 64.637 0.418 64.637 0.904 -24.726
4592.417 0.903 -24.861 0.42 64.497 0.42 64.497 0.903 -24.861
4617.375 0.902 -24.996 0.423 64.358 0.423 64.358 0.902 -24.996
4642.333 0.901 -25.132 0.425 64.218 0.425 64.218 0.901 -25.132
4667.292 0.899 -25.267 0.427 64.079 0.427 64.079 0.899 -25.267
4692.25 0.898 -25.403 0.429 63.939 0.429 63.939 0.898 -25.403
4717.208 0.897 -25.538 0.431 63.8 0.431 63.8 0.897 -25.538
4742.167 0.896 -25.674 0.433 63.66 0.433 63.66 0.896 -25.674
4767.125 0.895 -25.809 0.435 63.521 0.435 63.521 0.895 -25.809
4792.083 0.894 -25.944 0.438 63.381 0.438 63.381 0.894 -25.944
4817.042 0.893 -26.08 0.44 63.242 0.44 63.242 0.893 -26.08
4842 0.892 -26.215 0.442 63.102 0.442 63.102 0.892 -26.215
4866.958 0.891 -26.351 0.444 62.963 0.444 62.963 0.891 -26.351
4891.917 0.89 -26.486 0.446 62.823 0.446 62.823 0.89 -26.486
4916.875 0.889 -26.622 0.448 62.684 0.448 62.684 0.889 -26.622
4941.833 0.887 -26.757 0.45 62.544 0.45 62.544 0.887 -26.757
4966.792 0.886 -26.892 0.452 62.405 0.452 62.405 0.886 -26.892
4991.75 0.885 -27.028 0.454 62.265 0.454 62.265 0.885 -27.028
5016.708 0.884 -27.163 0.457 62.126 0.457 62.126 0.884 -27.163
5041.667 0.883 -27.298 0.459 61.986 0.459 61.986 0.883 -27.298
5066.625 0.882 -27.434 0.461 61.846 0.461 61.846 0.882 -27.434
5091.583 0.881 -27.569 0.463 61.707 0.463 61.707 0.881 -27.569
5116.542 0.879 -27.705 0.465 61.567 0.465 61.567 0.879 -27.705
5141.5 0.878 -27.84 0.467 61.428 0.467 61.428 0.878 -27.84
5166.458 0.877 -27.975 0.469 61.288 0.469 61.288 0.877 -27.975
5191.417 0.876 -28.111 0.471 61.148 0.471 61.148 0.876 -28.111
5216.375 0.875 -28.246 0.473 61.009 0.473 61.009 0.875 -28.246
5241.333 0.874 -28.381 0.475 60.869 0.475 60.869 0.874 -28.381
5266.292 0.872 -28.517 0.477 60.73 0.477 60.73 0.872 -28.517
5291.25 0.871 -28.652 0.48 60.59 0.48 60.59 0.871 -28.652
5316.208 0.87 -28.787 0.482 60.45 0.482 60.45 0.87 -28.787
5341.167 0.869 -28.922 0.484 60.311 0.484 60.311 0.869 -28.922
5366.125 0.868 -29.058 0.486 60.171 0.486 60.171 0.868 -29.058
5391.083 0.866 -29.193 0.488 60.031 0.488 60.031 0.866 -29.193
5416.042 0.865 -29.328 0.49 59.892 0.49 59.892 0.865 -29.328
5441 0.864 -29.463 0.492 59.752 0.492 59.752 0.864 -29.463
5465.958 0.863 -29.599 0.494 59.613 0.494 59.613 0.863 -29.599
5490.917 0.861 -29.734 0.496 59.473 0.496 59.473 0.861 -29.734
5515.875 0.86 -29.869 0.498 59.333 0.498 59.333 0.86 -29.869
5540.833 0.859 -30.004 0.5 59.194 0.5 59.194 0.859 -30.004
5565.792 0.858 -30.139 0.502 59.054 0.502 59.054 0.858 -30.139
5590.75 0.856 -30.275 0.504 58.914 0.504 58.914 0.856 -30.275
5615.708 0.855 -30.41 0.506 58.775 0.506 58.775 0.855 -30.41
5640.667 0.854 -30.545 0.508 58.635 0.508 58.635 0.854 -30.545
5665.625 0.853 -30.68 0.51 58.495 0.51 58.495 0.853 -30.68
5690.583 0.851 -30.815 0.512 58.356 0.512 58.356 0.851 -30.815
5715.542 0.85 -30.95 0.514 58.216 0.514 58.216 0.85 -30.95
5740.5 0.849 -31.085 0.516 58.077 0.516 58.077 0.849 -31.085
5765.458 0.848 -31.221 0.518 57.937 0.518 57.937 0.848 -31.221
5790.417 0.846 -31.356 0.52 57.797 0.52 57.797 0.846 -31.356
5815.375 0.845 -31.491 0.522 57.658 0.522 57.658 0.845 -31.491
5840.333 0.844 -31.626 0.524 57.518 0.524 57.518 0.844 -31.626
5865.292 0.842 -31.761 0.526 57.378 0.526 57.378 0.842 -31.761
5890.25 0.841 -31.896 0.528 57.239 0.528 57.239 0.841 -31.896
5915.208 0.84 -32.031 0.53 57.099 0.53 57.099 0.84 -32.031
5940.167 0.838 -32.166 0.532 56.959 0.532 56.959 0.838 -32.166
5965.125 0.837 -32.301 0.534 56.82 0.534 56.82 0.837 -32.301
5990.083 0.836 -32.436 0.536 56.68 0.536 56.68 0.836 -32.436
6015.042 0.834 -32.571 0.538 56.541 0.538 56.541 0.834 -32.571
6040 0.833 -32.705 0.54 56.401 0.54 56.401 0.833 -32.705
6064.958 0.832 -32.84 0.542 56.261 0.542 56.261 0.832 -32.84
6089.917 0.83 -32.975 0.544 56.122 0.544 56.122 0.83 -32.975
6114.875 0.829 -33.11 0.546 55.982 0.546 55.982 0.829 -33.11
6139.833 0.828 -33.245 0.548 55.843 0.548 55.843 0.828 -33.245
6164.792 0.826 -33.38 0.55 55.703 0.55 55.703 0.826 -33.38
6189.75 0.825 -33.514 0.552 55.563 0.552 55.563 0.825 -33.514
6214.708 0.823 -33.649 0.554 55.424 0.554 55.424 0.823 -33.649
6239.667 0.822 -33.784 0.556 55.284 0.556 55.284 0.822 -33.784
6264.625 0.821 -33.919 0.558 55.145 0.558 55.145 0.821 -33.919
6289.583 0.819 -34.053 0.56 55.005 0.56 55.005 0.819 -34.053
6314.542 0.818 -34.188 0.562 54.866 0.562 54.866 0.818 -34.188
6339.5 0.817 -34.323 0.564 54.726 0.564 54.726 0.817 -34.323
6364.458 0.815 -34.457 0.566 54.586 0.566 54.586 0.815 -34.457
6389.417 0.814 -34.592 0.568 54.447 0.568 54.447 0.814 -34.592
6414.375 0.812 -34.726 0.57 54.307 0.57 54.307 0.812 -34.726
6439.333 0.811 -34.861 0.572 54.168 0.572 54.168 0.811 -34.861
6464.292 0.809 -34.996 0.574 54.028 0.574 54.028 0.809 -34.996
6489.25 0.808 -35.13 0.576 53.889 0.576 53.889 0.808 -35.13
6514.208 0.807 -35.264 0.577 53.749 0.577 53.749 0.807 -35.264
6539.167 0.805 -35.399 0.579 53.61 0.579 53.61 0.805 -35.399
6564.125 0.804 -35.533 0.581 53.47 0.581 53.47 0.804 -35.533
6589.083 0.802 -35.668 0.583 53.331 0.583 53.331 0.802 -35.668
6614.042 0.801 -35.802 0.585 53.191 0.585 53.191 0.801 -35.802
6639 0.799 -35.936 0.587 53.052 0.587 53.052 0.799 -35.936
6663.958 0.798 -36.071 0.589 52.913 0.589 52.913 0.798 -36.071
6688.917 0.796 -36.205 0.591 52.773 0.591 52.773 0.796 -36.205
6713.875 0.795 -36.339 0.593 52.634 0.593 52.634 0.795 -36.339
6738.833 0.793 -36.473 0.595 52.494 0.595 52.494 0.793 -36.473
6763.792 0.792 -36.608 0.596 52.355 0.596 52.355 0.792 -36.608
6788.75 0.79 -36.742 0.598 52.215 0.598 52.215 0.79 -36.742
6813.708 0.789 -36.876 0.6 52.076 0.6 52.076 0.789 -36.876
6838.667 0.787 -37.01 0.602 51.937 0.602 51.937 0.787 -37.01
6863.625 0.786 -37.144 0.604 51.797 0.604 51.797 0.786 -37.144
6888.583 0.784 -37.278 0.606 51.658 0.606 51.658 0.784 -37.278
6913.542 0.783 -37.412 0.608 51.519 0.608 51.519 0.783 -37.412
6938.5 0.781 -37.546 0.61 51.379 0.61 51.379 0.781 -37.546
6963.458 0.78 -37.68 0.611 51.24 0.611 51.24 0.78 -37.68
6988.417 0.778 -37.814 0.613 51.101 0.613 51.101 0.778 -37.814
7013.375 0.777 -37.948 0.615 50.962 0.615 50.962 0.777 -37.948
7038.333 0.775 -38.081 0.617 50.822 0.617 50.822 0.775 -38.081
7063.292 0.774 -38.215 0.619 50.683 0.619 50.683 0.774 -38.215
7088.25 0.772 -38.349 0.621 50.544 0.621 50.544 0.772 -38.349
7113.208 0.771 -38.483 0.622 50.405 0.622 50.405 0.771 -38.483
7138.167 0.769 -38.616 0.624 50.266 0.624 50.266 0.769 -38.616
7163.125 0.768 -38.75 0.626 50.127 0.626 50.127 0.768 -38.75
7188.083 0.766 -38.884 0.628 49.987 0.628 49.987 0.766 -38.884
7213.042 0.764 -39.017 0.63 49.848 0.63 49.848 0.764 -39.017
7238 0.763 -39.151 0.631 49.709 0.631 49.709 0.763 -39.151
7262.958 0.761 -39.284 0.633 49.57 0.633 49.57 0.761 -39.284
7287.917 0.76 -39.417 0.635 49.431 0.635 49.431 0.76 -39.417
7312.875 0.758 -39.551 0.637 49.292 0.637 49.292 0.758 -39.551
7337.833 0.757 -39.684 0.639 49.153 0.639 49.153 0.757 -39.684
7362.792 0.755 -39.817 0.64 49.014 0.64 49.014 0.755 -39.817
7387.75 0.753 -39.951 0.642 48.875 0.642 48.875 0.753 -39.951
7412.708 0.752 -40.084 0.644 48.736 0.644 48.736 0.752 -40.084
7437.667 0.75 -40.217 0.646 48.597 0.646 48.597 0.75 -40.217
7462.625 0.749 -40.35 0.648 48.458 0.648 48.458 0.749 -40.35
7487.583 0.747 -40.483 0.649 48.319 0.649 48.319 0.747 -40.483
7512.542 0.745 -40.616 0.651 48.18 0.651 48.18 0.745 -40.616
7537.5 0.744 -40.749 0.653 48.042 0.653 48.042 0.744 -40.749
7562.458 0.742 -40.882 0.655 47.903 0.655 47.903 0.742 -40.882
7587.417 0.741 -41.015 0.656 47.764 0.656 47.764 0.741 -41.015
7612.375 0.739 -41.148 0.658 47.625 0.658 47.625 0.739 -41.148
7637.333 0.737 -41.281 0.66 47.487 0.66 47.487 0.737 -41.281
7662.292 0.736 -41.413 0.662 47.348 0.662 47.348 0.736 -41.413
7687.25 0.734 -41.546 0.663 47.209 0.663 47.209 0.734 -41.546
7712.208 0.732 -41.678 0.665 47.07 0.665 47.07 0.732 -41.678
7737.167 0.731 -41.811 0.667 46.932 0.667 46.932 0.731 -41.811
7762.125 0.729 -41.944 0.669 46.793 0.669 46.793 0.729 -41.944
7787.083 0.727 -42.076 0.67 46.655 0.67 46.655 0.727 -42.076
7812.042 0.726 -42.208 0.672 46.516 0.672 46.516 0.726 -42.208
7837 0.724 -42.341 0.674 46.377 0.674 46.377 0.724 -42.341
7861.958 0.722 -42.473 0.675 46.239 0.675 46.239 0.722 -42.473
7886.917 0.721 -42.605 0.677 46.101 0.677 46.101 0.721 -42.605
7911.875 0.719 -42.737 0.679 45.962 0.679 45.962 0.719 -42.737
7936.833 0.717 -42.87 0.681 45.824 0.681 45.824 0.717 -42.87
7961.792 0.716 -43.002 0.682 45.685 0.682 45.685 0.716 -43.002
7986.75 0.714 -43.134 0.684 45.547 0.684 45.547 0.714 -43.134
8011.708 0.712 -43.266 0.686 45.409 0.686 45.409 0.712 -43.266
8036.667 0.711 -43.397 0.687 45.27 0.687 45.27 0.711 -43.397
8061.625 0.709 -43.529 0.689 45.132 0.689 45.132 0.709 -43.529
8086.583 0.707 -43.661 0.691 44.994 0.691 44.994 0.707 -43.661
8111.542 0.706 -43.793 0.692 44.856 0.692 44.856 0.706 -43.793
8136.5 0.704 -43.924 0.694 44.717 0.694 44.717 0.704 -43.924
8161.458 0.702 -44.056 0.696 44.579 0.696 44.579 0.702 -44.056
8186.417 0.7 -44.187 0.697 44.441 0.697 44.441 0.7 -44.187
