# MHZ S MA R 50

50 0.999 -2.339 0.041 87.651 0.041 87.651 0.999 -2.339
74.958 0.998 -3.504 0.061 86.481 0.061 86.481 0.998 -3.504
99.917 0.997 -4.666 0.081 85.314 0.081 85.314 0.997 -4.666
124.875 0.995 -5.825 0.101 84.15 0.101 84.15 0.995 -5.825
149.833 0.993 -6.98 0.122 82.991 0.122 82.991 0.993 -6.98
174.792 0.99 -8.129 0.141 81.837 0.141 81.837 0.99 -8.129
199.75 0.987 -9.272 0.161 80.688 0.161 80.688 0.987 -9.272
224.708 0.983 -10.409 0.181 79.547 0.181 79.547 0.983 -10.409
249.667 0.98 -11.537 0.2 78.414 0.2 78.414 0.98 -11.537
274.625 0.975 -12.658 0.219 77.289 0.219 77.289 0.975 -12.658
299.583 0.971 -13.769 0.238 76.172 0.238 76.172 0.971 -13.769
324.542 0.966 -14.87 0.257 75.066 0.257 75.066 0.966 -14.87
349.5 0.961 -15.962 0.275 73.97 0.275 73.97 0.961 -15.962
374.458 0.956 -17.042 0.293 72.884 0.293 72.884 0.956 -17.042
399.417 0.95 -18.111 0.311 71.811 0.311 71.811 0.95 -18.111
424.375 0.944 -19.168 0.328 70.749 0.328 70.749 0.944 -19.168
449.333 0.938 -20.213 0.346 69.699 0.346 69.699 0.938 -20.213
474.292 0.931 -21.244 0.362 68.662 0.362 68.662 0.931 -21.244
499.25 0.925 -22.263 0.379 67.638 0.379 67.638 0.925 -22.263
524.208 0.918 -23.268 0.395 66.628 0.395 66.628 0.918 -23.268
549.167 0.911 -24.26 0.411 65.632 0.411 65.632 0.911 -24.26
574.125 0.904 -25.238 0.426 64.649 0.426 64.649 0.904 -25.238
599.083 0.896 -26.201 0.442 63.681 0.442 63.681 0.896 -26.201
624.042 0.889 -27.15 0.456 62.727 0.456 62.727 0.889 -27.15
649 0.881 -28.084 0.471 61.787 0.471 61.787 0.881 -28.084
673.958 0.873 -29.004 0.485 60.862 0.485 60.862 0.873 -29.004
698.917 0.866 -29.909 0.499 59.952 0.499 59.952 0.866 -29.909
723.875 0.858 -30.8 0.512 59.057 0.512 59.057 0.858 -30.8
748.833 0.85 -31.676 0.525 58.176 0.525 58.176 0.85 -31.676
773.792 0.842 -32.537 0.538 57.31 0.538 57.31 0.842 -32.537
798.75 0.833 -33.383 0.55 56.459 0.55 56.459 0.833 -33.383
823.708 0.825 -34.215 0.562 55.622 0.562 55.622 0.825 -34.215
848.667 0.817 -35.032 0.574 54.8 0.574 54.8 0.817 -35.032
873.625 0.809 -35.834 0.585 53.992 0.585 53.992 0.809 -35.834
898.583 0.801 -36.623 0.597 53.199 0.597 53.199 0.801 -36.623
923.542 0.792 -37.397 0.607 52.419 0.607 52.419 0.792 -37.397
948.5 0.784 -38.157 0.618 51.654 0.618 51.654 0.784 -38.157
973.458 0.776 -38.903 0.628 50.903 0.628 50.903 0.776 -38.903
998.417 0.768 -39.635 0.638 50.165 0.638 50.165 0.768 -39.635
1023.375 0.76 -40.354 0.648 49.441 0.648 49.441 0.76 -40.354
1048.333 0.752 -41.06 0.657 48.731 0.657 48.731 0.752 -41.06
1073.292 0.744 -41.752 0.666 48.033 0.666 48.033 0.744 -41.752
1098.25 0.735 -42.431 0.675 47.348 0.675 47.348 0.735 -42.431
1123.208 0.727 -43.098 0.683 46.676 0.683 46.676 0.727 -43.098
1148.167 0.72 -43.752 0.692 46.017 0.692 46.017 0.72 -43.752
1173.125 0.712 -44.394 0.7 45.37 0.7 45.37 0.712 -44.394
1198.083 0.704 -45.024 0.707 44.735 0.707 44.735 0.704 -45.024
1223.042 0.696 -45.642 0.715 44.112 0.715 44.112 0.696 -45.642
1248 0.688 -46.248 0.722 43.5 0.722 43.5 0.688 -46.248
1272.958 0.681 -46.843 0.729 42.9 0.729 42.9 0.681 -46.843
1297.917 0.673 -47.426 0.736 42.311 0.736 42.311 0.673 -47.426
1322.875 0.666 -47.999 0.743 41.733 0.743 41.733 0.666 -47.999
1347.833 0.658 -48.561 0.75 41.166 0.75 41.166 0.658 -48.561
1372.792 0.651 -49.112 0.756 40.609 0.756 40.609 0.651 -49.112
1397.75 0.644 -49.653 0.762 40.063 0.762 40.063 0.644 -49.653
1422.708 0.636 -50.184 0.768 39.526 0.768 39.526 0.636 -50.184
1447.667 0.629 -50.705 0.774 39 0.774 39 0.629 -50.705
1472.625 0.622 -51.217 0.78 38.483 0.78 38.483 0.622 -51.217
1497.583 0.615 -51.719 0.785 37.975 0.785 37.975 0.615 -51.719
1522.542 0.608 -52.211 0.79 37.477 0.79 37.477 0.608 -52.211
1547.5 0.602 -52.695 0.795 36.987 0.795 36.987 0.602 -52.695
1572.458 0.595 -53.17 0.8 36.507 0.8 36.507 0.595 -53.17
1597.417 0.588 -53.636 0.805 36.035 0.805 36.035 0.588 -53.636
1622.375 0.582 -54.094 0.81 35.571 0.81 35.571 0.582 -54.094
1647.333 0.575 -54.544 0.815 35.116 0.815 35.116 0.575 -54.544
1672.292 0.569 -54.985 0.819 34.669 0.819 34.669 0.569 -54.985
1697.25 0.563 -55.419 0.823 34.229 0.823 34.229 0.563 -55.419
1722.208 0.556 -55.845 0.828 33.798 0.828 33.798 0.556 -55.845
1747.167 0.55 -56.264 0.832 33.373 0.832 33.373 0.55 -56.264
1772.125 0.544 -56.675 0.836 32.956 0.836 32.956 0.544 -56.675
1797.083 0.538 -57.079 0.839 32.546 0.839 32.546 0.538 -57.079
1822.042 0.532 -57.476 0.843 32.144 0.843 32.144 0.532 -57.476
1847 0.526 -57.866 0.847 31.748 0.847 31.748 0.526 -57.866
1871.958 0.52 -58.249 0.85 31.358 0.85 31.358 0.52 -58.249
1896.917 0.515 -58.626 0.854 30.975 0.854 30.975 0.515 -58.626
1921.875 0.509 -58.997 0.857 30.599 0.857 30.599 0.509 -58.997
1946.833 0.503 -59.361 0.86 30.228 0.86 30.228 0.503 -59.361
1971.792 0.498 -59.719 0.864 29.864 0.864 29.864 0.498 -59.719
1996.75 0.493 -60.072 0.867 29.506 0.867 29.506 0.493 -60.072
2021.708 0.487 -60.418 0.87 29.153 0.87 29.153 0.487 -60.418
2046.667 0.482 -60.759 0.873 28.806 0.873 28.806 0.482 -60.759
2071.625 0.477 -61.094 0.875 28.465 0.875 28.465 0.477 -61.094
2096.583 0.471 -61.424 0.878 28.129 0.878 28.129 0.471 -61.424
2121.542 0.466 -61.748 0.881 27.798 0.881 27.798 0.466 -61.748
2146.5 0.461 -62.068 0.884 27.473 0.884 27.473 0.461 -62.068
2171.458 0.456 -62.382 0.886 27.152 0.886 27.152 0.456 -62.382
2196.417 0.451 -62.691 0.889 26.836 0.889 26.836 0.451 -62.691
2221.375 0.447 -62.995 0.891 26.526 0.891 26.526 0.447 -62.995
2246.333 0.442 -63.295 0.893 26.22 0.893 26.22 0.442 -63.295
2271.292 0.437 -63.59 0.896 25.918 0.896 25.918 0.437 -63.59
2296.25 0.432 -63.88 0.898 25.621 0.898 25.621 0.432 -63.88
2321.208 0.428 -64.167 0.9 25.328 0.9 25.328 0.428 -64.167
2346.167 0.423 -64.448 0.902 25.04 0.902 25.04 0.423 -64.448
2371.125 0.419 -64.726 0.904 24.756 0.904 24.756 0.419 -64.726
2396.083 0.414 -64.999 0.906 24.476 0.906 24.476 0.414 -64.999
2421.042 0.41 -65.268 0.908 24.2 0.908 24.2 0.41 -65.268
2446 0.406 -65.534 0.91 23.928 0.91 23.928 0.406 -65.534
2470.958 0.401 -65.795 0.912 23.659 0.912 23.659 0.401 -65.795
2495.917 0.397 -66.053 0.914 23.395 0.914 23.395 0.397 -66.053
2520.875 0.393 -66.306 0.916 23.134 0.916 23.134 0.393 -66.306
2545.833 0.389 -66.557 0.917 22.877 0.917 22.877 0.389 -66.557
2570.792 0.385 -66.803 0.919 22.623 0.919 22.623 0.385 -66.803
2595.75 0.381 -67.047 0.921 22.373 0.921 22.373 0.381 -67.047
2620.708 0.377 -67.286 0.922 22.126 0.922 22.126 0.377 -67.286
2645.667 0.373 -67.523 0.924 21.882 0.924 21.882 0.373 -67.523
2670.625 0.369 -67.756 0.926 21.642 0.926 21.642 0.369 -67.756
2695.583 0.365 -67.986 0.927 21.404 0.927 21.404 0.365 -67.986
2720.542 0.361 -68.213 0.929 21.17 0.929 21.17 0.361 -68.213
2745.5 0.357 -68.436 0.93 20.939 0.93 20.939 0.357 -68.436
2770.458 0.354 -68.657 0.931 20.711 0.931 20.711 0.354 -68.657
2795.417 0.35 -68.875 0.933 20.486 0.933 20.486 0.35 -68.875
2820.375 0.346 -69.089 0.934 20.263 0.934 20.263 0.346 -69.089
2845.333 0.343 -69.301 0.936 20.043 0.936 20.043 0.343 -69.301
2870.292 0.339 -69.51 0.937 19.827 0.937 19.827 0.339 -69.51
2895.25 0.336 -69.717 0.938 19.612 0.938 19.612 0.336 -69.717
2920.208 0.332 -69.92 0.939 19.401 0.939 19.401 0.332 -69.92
2945.167 0.329 -70.122 0.94 19.192 0.94 19.192 0.329 -70.122
2970.125 0.325 -70.32 0.942 18.985 0.942 18.985 0.325 -70.32
2995.083 0.322 -70.516 0.943 18.781 0.943 18.781 0.322 -70.516
3020.042 0.319 -70.71 0.944 18.579 0.944 18.579 0.319 -70.71
3045 0.315 -70.901 0.945 18.38 0.945 18.38 0.315 -70.901
3069.958 0.312 -71.089 0.946 18.183 0.946 18.183 0.312 -71.089
3094.917 0.309 -71.275 0.947 17.988 0.947 17.988 0.309 -71.275
3119.875 0.306 -71.459 0.948 17.796 0.948 17.796 0.306 -71.459
3144.833 0.302 -71.641 0.949 17.605 0.949 17.605 0.302 -71.641
3169.792 0.299 -71.821 0.95 17.417 0.95 17.417 0.299 -71.821
3194.75 0.296 -71.998 0.951 17.231 0.951 17.231 0.296 -71.998
3219.708 0.293 -72.173 0.952 17.047 0.952 17.047 0.293 -72.173
3244.667 0.29 -72.346 0.953 16.865 0.953 16.865 0.29 -72.346
3269.625 0.287 -72.517 0.954 16.685 0.954 16.685 0.287 -72.517
3294.583 0.284 -72.686 0.955 16.507 0.955 16.507 0.284 -72.686
3319.542 0.281 -72.853 0.956 16.331 0.956 16.331 0.281 -72.853
3344.5 0.278 -73.018 0.956 16.157 0.956 16.157 0.278 -73.018
3369.458 0.275 -73.181 0.957 15.985 0.957 15.985 0.275 -73.181
3394.417 0.273 -73.342 0.958 15.814 0.958 15.814 0.273 -73.342
3419.375 0.27 -73.501 0.959 15.645 0.959 15.645 0.27 -73.501
3444.333 0.267 -73.659 0.96 15.478 0.96 15.478 0.267 -73.659
3469.292 0.264 -73.814 0.96 15.313 0.96 15.313 0.264 -73.814
3494.25 0.261 -73.968 0.961 15.149 0.961 15.149 0.261 -73.968
3519.208 0.259 -74.12 0.962 14.987 0.962 14.987 0.259 -74.12
3544.167 0.256 -74.27 0.963 14.827 0.963 14.827 0.256 -74.27
3569.125 0.253 -74.419 0.963 14.668 0.963 14.668 0.253 -74.419
3594.083 0.251 -74.566 0.964 14.511 0.964 14.511 0.251 -74.566
3619.042 0.248 -74.711 0.965 14.355 0.965 14.355 0.248 -74.711
3644 0.245 -74.855 0.965 14.201 0.965 14.201 0.245 -74.855
3668.958 0.243 -74.997 0.966 14.048 0.966 14.048 0.243 -74.997
3693.917 0.24 -75.137 0.967 13.897 0.967 13.897 0.24 -75.137
3718.875 0.238 -75.276 0.967 13.747 0.967 13.747 0.238 -75.276
3743.833 0.235 -75.413 0.968 13.599 0.968 13.599 0.235 -75.413
3768.792 0.233 -75.549 0.969 13.451 0.969 13.451 0.233 -75.549
3793.75 0.23 -75.683 0.969 13.306 0.969 13.306 0.23 -75.683
3818.708 0.228 -75.816 0.97 13.161 0.97 13.161 0.228 -75.816
3843.667 0.225 -75.948 0.97 13.018 0.97 13.018 0.225 -75.948
3868.625 0.223 -76.078 0.971 12.877 0.971 12.877 0.223 -76.078
3893.583 0.22 -76.206 0.971 12.736 0.971 12.736 0.22 -76.206
3918.542 0.218 -76.333 0.972 12.597 0.972 12.597 0.218 -76.333
3943.5 0.216 -76.459 0.972 12.459 0.972 12.459 0.216 -76.459
3968.458 0.213 -76.583 0.973 12.322 0.973 12.322 0.213 -76.583
3993.417 0.211 -76.706 0.973 12.187 0.973 12.187 0.211 -76.706
4018.375 0.209 -76.828 0.974 12.052 0.974 12.052 0.209 -76.828
4043.333 0.207 -76.949 0.974 11.919 0.974 11.919 0.207 -76.949
4068.292 0.204 -77.068 0.975 11.787 0.975 11.787 0.204 -77.068
4093.25 0.202 -77.185 0.975 11.656 0.975 11.656 0.202 -77.185
4118.208 0.2 -77.302 0.976 11.526 0.976 11.526 0.2 -77.302
4143.167 0.198 -77.417 0.976 11.397 0.976 11.397 0.198 -77.417
4168.125 0.195 -77.531 0.977 11.269 0.977 11.269 0.195 -77.531
4193.083 0.193 -77.644 0.977 11.142 0.977 11.142 0.193 -77.644
4218.042 0.191 -77.756 0.977 11.017 0.977 11.017 0.191 -77.756
4243 0.189 -77.866 0.978 10.892 0.978 10.892 0.189 -77.866
4267.958 0.187 -77.975 0.978 10.768 0.978 10.768 0.187 -77.975
4292.917 0.185 -78.083 0.979 10.645 0.979 10.645 0.185 -78.083
4317.875 0.183 -78.19 0.979 10.524 0.979 10.524 0.183 -78.19
4342.833 0.181 -78.295 0.979 10.403 0.979 10.403 0.181 -78.295
4367.792 0.179 -78.4 0.98 10.283 0.98 10.283 0.179 -78.4
4392.75 0.177 -78.503 0.98 10.164 0.98 10.164 0.177 -78.503
4417.708 0.174 -78.605 0.981 10.046 0.981 10.046 0.174 -78.605
4442.667 0.172 -78.706 0.981 9.929 0.981 9.929 0.172 -78.706
4467.625 0.17 -78.806 0.981 9.812 0.981 9.812 0.17 -78.806
4492.583 0.168 -78.904 0.982 9.697 0.982 9.697 0.168 -78.904
4517.542 0.167 -79.002 0.982 9.582 0.982 9.582 0.167 -79.002
4542.5 0.165 -79.098 0.982 9.468 0.982 9.468 0.165 -79.098
4567.458 0.163 -79.194 0.983 9.356 0.983 9.356 0.163 -79.194
4592.417 0.161 -79.288 0.983 9.243 0.983 9.243 0.161 -79.288
4617.375 0.159 -79.381 0.983 9.132 0.983 9.132 0.159 -79.381
4642.333 0.157 -79.473 0.984 9.022 0.984 9.022 0.157 -79.473
4667.292 0.155 -79.564 0.984 8.912 0.984 8.912 0.155 -79.564
4692.25 0.153 -79.653 0.984 8.803 0.984 8.803 0.153 -79.653
4717.208 0.151 -79.742 0.984 8.695 0.984 8.695 0.151 -79.742
4742.167 0.149 -79.83 0.985 8.587 0.985 8.587 0.149 -79.83
4767.125 0.148 -79.916 0.985 8.481 0.985 8.481 0.148 -79.916
4792.083 0.146 -80.002 0.985 8.375 0.985 8.375 0.146 -80.002
4817.042 0.144 -80.086 0.985 8.269 0.985 8.269 0.144 -80.086
4842 0.142 -80.169 0.986 8.165 0.986 8.165 0.142 -80.169
4866.958 0.14 -80.251 0.986 8.061 0.986 8.061 0.14 -80.251
4891.917 0.139 -80.332 0.986 7.958 0.986 7.958 0.139 -80.332
4916.875 0.137 -80.412 0.986 7.855 0.986 7.855 0.137 -80.412
4941.833 0.135 -80.491 0.987 7.754 0.987 7.754 0.135 -80.491
4966.792 0.133 -80.569 0.987 7.652 0.987 7.652 0.133 -80.569
4991.75 0.131 -80.645 0.987 7.552 0.987 7.552 0.131 -80.645
5016.708 0.13 -80.721 0.987 7.452 0.987 7.452 0.13 -80.721
5041.667 0.128 -80.795 0.988 7.353 0.988 7.353 0.128 -80.795
5066.625 0.126 -80.868 0.988 7.254 0.988 7.254 0.126 -80.868
5091.583 0.125 -80.94 0.988 7.156 0.988 7.156 0.125 -80.94
5116.542 0.123 -81.011 0.988 7.059 0.988 7.059 0.123 -81.011
5141.5 0.121 -81.081 0.988 6.962 0.988 6.962 0.121 -81.081
5166.458 0.12 -81.149 0.989 6.866 0.989 6.866 0.12 -81.149
5191.417 0.118 -81.217 0.989 6.77 0.989 6.77 0.118 -81.217
5216.375 0.116 -81.283 0.989 6.675 0.989 6.675 0.116 -81.283
5241.333 0.115 -81.348 0.989 6.581 0.989 6.581 0.115 -81.348
5266.292 0.113 -81.412 0.989 6.487 0.989 6.487 0.113 -81.412
5291.25 0.111 -81.474 0.99 6.393 0.99 6.393 0.111 -81.474
5316.208 0.11 -81.535 0.99 6.3 0.99 6.3 0.11 -81.535
5341.167 0.108 -81.595 0.99 6.208 0.99 6.208 0.108 -81.595
5366.125 0.107 -81.654 0.99 6.116 0.99 6.116 0.107 -81.654
5391.083 0.105 -81.711 0.99 6.025 0.99 6.025 0.105 -81.711
5416.042 0.103 -81.767 0.99 5.934 0.99 5.934 0.103 -81.767
5441 0.102 -81.821 0.991 5.844 0.991 5.844 0.102 -81.821
5465.958 0.1 -81.874 0.991 5.755 0.991 5.755 0.1 -81.874
5490.917 0.099 -81.926 0.991 5.665 0.991 5.665 0.099 -81.926
5515.875 0.097 -81.976 0.991 5.577 0.991 5.577 0.097 -81.976
5540.833 0.096 -82.025 0.991 5.489 0.991 5.489 0.096 -82.025
5565.792 0.094 -82.072 0.991 5.401 0.991 5.401 0.094 -82.072
5590.75 0.093 -82.117 0.992 5.314 0.992 5.314 0.093 -82.117
5615.708 0.091 -82.161 0.992 5.227 0.992 5.227 0.091 -82.161
5640.667 0.09 -82.204 0.992 5.14 0.992 5.14 0.09 -82.204
5665.625 0.088 -82.244 0.992 5.055 0.992 5.055 0.088 -82.244
5690.583 0.087 -82.283 0.992 4.969 0.992 4.969 0.087 -82.283
5715.542 0.085 -82.32 0.992 4.884 0.992 4.884 0.085 -82.32
5740.5 0.084 -82.355 0.992 4.8 0.992 4.8 0.084 -82.355
5765.458 0.082 -82.388 0.992 4.716 0.992 4.716 0.082 -82.388
5790.417 0.081 -82.42 0.993 4.632 0.993 4.632 0.081 -82.42
5815.375 0.079 -82.449 0.993 4.549 0.993 4.549 0.079 -82.449
5840.333 0.078 -82.476 0.993 4.466 0.993 4.466 0.078 -82.476
5865.292 0.077 -82.501 0.993 4.384 0.993 4.384 0.077 -82.501
5890.25 0.075 -82.523 0.993 4.302 0.993 4.302 0.075 -82.523
5915.208 0.074 -82.543 0.993 4.22 0.993 4.22 0.074 -82.543
5940.167 0.072 -82.561 0.993 4.139 0.993 4.139 0.072 -82.561
5965.125 0.071 -82.576 0.993 4.058 0.993 4.058 0.071 -82.576
5990.083 0.069 -82.588 0.993 3.978 0.993 3.978 0.069 -82.588
6015.042 0.068 -82.598 0.994 3.898 0.994 3.898 0.068 -82.598
6040 0.067 -82.604 0.994 3.818 0.994 3.818 0.067 -82.604
6064.958 0.065 -82.607 0.994 3.739 0.994 3.739 0.065 -82.607
6089.917 0.064 -82.608 0.994 3.66 0.994 3.66 0.064 -82.608
6114.875 0.063 -82.604 0.994 3.581 0.994 3.581 0.063 -82.604
6139.833 0.061 -82.597 0.994 3.503 0.994 3.503 0.061 -82.597
6164.792 0.06 -82.587 0.994 3.426 0.994 3.426 0.06 -82.587
6189.75 0.059 -82.572 0.994 3.348 0.994 3.348 0.059 -82.572
6214.708 0.057 -82.553 0.994 3.271 0.994 3.271 0.057 -82.553
6239.667 0.056 -82.53 0.994 3.194 0.994 3.194 0.056 -82.53
6264.625 0.055 -82.502 0.994 3.118 0.994 3.118 0.055 -82.502
6289.583 0.053 -82.468 0.994 3.042 0.994 3.042 0.053 -82.468
6314.542 0.052 -82.43 0.994 2.966 0.994 2.966 0.052 -82.43
6339.5 0.051 -82.385 0.995 2.891 0.995 2.891 0.051 -82.385
6364.458 0.049 -82.335 0.995 2.816 0.995 2.816 0.049 -82.335
6389.417 0.048 -82.278 0.995 2.741 0.995 2.741 0.048 -82.278
6414.375 0.047 -82.214 0.995 2.667 0.995 2.667 0.047 -82.214
6439.333 0.045 -82.142 0.995 2.593 0.995 2.593 0.045 -82.142
6464.292 0.044 -82.063 0.995 2.519 0.995 2.519 0.044 -82.063
6489.25 0.043 -81.974 0.995 2.446 0.995 2.446 0.043 -81.974
6514.208 0.042 -81.877 0.995 2.373 0.995 2.373 0.042 -81.877
6539.167 0.04 -81.768 0.995 2.3 0.995 2.3 0.04 -81.768
6564.125 0.039 -81.649 0.995 2.227 0.995 2.227 0.039 -81.649
6589.083 0.038 -81.518 0.995 2.155 0.995 2.155 0.038 -81.518
6614.042 0.037 -81.373 0.995 2.083 0.995 2.083 0.037 -81.373
6639 0.035 -81.213 0.995 2.012 0.995 2.012 0.035 -81.213
6663.958 0.034 -81.038 0.995 1.94 0.995 1.94 0.034 -81.038
6688.917 0.033 -80.845 0.995 1.869 0.995 1.869 0.033 -80.845
6713.875 0.032 -80.632 0.995 1.799 0.995 1.799 0.032 -80.632
6738.833 0.03 -80.398 0.995 1.728 0.995 1.728 0.03 -80.398
6763.792 0.029 -80.139 0.995 1.658 0.995 1.658 0.029 -80.139
6788.75 0.028 -79.853 0.995 1.588 0.995 1.588 0.028 -79.853
6813.708 0.027 -79.536 0.995 1.519 0.995 1.519 0.027 -79.536
6838.667 0.026 -79.184 0.996 1.449 0.996 1.449 0.026 -79.184
6863.625 0.024 -78.793 0.996 1.38 0.996 1.38 0.024 -78.793
6888.583 0.023 -78.357 0.996 1.311 0.996 1.311 0.023 -78.357
6913.542 0.022 -77.869 0.996 1.243 0.996 1.243 0.022 -77.869
6938.5 0.021 -77.32 0.996 1.174 0.996 1.174 0.021 -77.32
6963.458 0.02 -76.701 0.996 1.106 0.996 1.106 0.02 -76.701
6988.417 0.019 -75.999 0.996 1.039 0.996 1.039 0.019 -75.999
7013.375 0.017 -75.198 0.996 0.971 0.996 0.971 0.017 -75.198
7038.333 0.016 -74.279 0.996 0.904 0.996 0.904 0.016 -74.279
7063.292 0.015 -73.217 0.996 0.837 0.996 0.837 0.015 -73.217
7088.25 0.014 -71.979 0.996 0.77 0.996 0.77 0.014 -71.979
7113.208 0.013 -70.523 0.996 0.703 0.996 0.703 0.013 -70.523
7138.167 0.012 -68.792 0.996 0.637 0.996 0.637 0.012 -68.792
7163.125 0.011 -66.708 0.996 0.571 0.996 0.571 0.011 -66.708
7188.083 9.753e-3 -64.165 0.996 0.505 0.996 0.505 9.753e-3 -64.165
7213.042 8.732e-3 -61.014 0.996 0.439 0.996 0.439 8.732e-3 -61.014
7238 7.749e-3 -57.045 0.996 0.374 0.996 0.374 7.749e-3 -57.045
7262.958 6.818e-3 -51.957 0.996 0.309 0.996 0.309 6.818e-3 -51.957
7287.917 5.963e-3 -45.344 0.996 0.244 0.996 0.244 5.963e-3 -45.344
7312.875 5.216e-3 -36.695 0.996 0.179 0.996 0.179 5.216e-3 -36.695
7337.833 4.629e-3 -25.546 0.996 0.115 0.996 0.115 4.629e-3 -25.546
7362.792 4.265e-3 -11.9 0.996 0.051 0.996 0.051 4.265e-3 -11.9
7387.75 4.179e-3 3.203 0.996 -0.013 0.996 -0.013 4.179e-3 3.203
7412.708 4.385e-3 17.83 0.996 -0.077 0.996 -0.077 4.385e-3 17.83
7437.667 4.843e-3 30.365 0.996 -0.141 0.996 -0.141 4.843e-3 30.365
7462.625 5.488e-3 40.305 0.996 -0.204 0.996 -0.204 5.488e-3 40.305
7487.583 6.261e-3 47.938 0.996 -0.267 0.996 -0.267 6.261e-3 47.938
7512.542 7.118e-3 53.782 0.996 -0.33 0.996 -0.33 7.118e-3 53.782
7537.5 8.032e-3 58.306 0.996 -0.393 0.996 -0.393 8.032e-3 58.306
7562.458 8.983e-3 61.865 0.996 -0.456 0.996 -0.456 8.983e-3 61.865
7587.417 9.959e-3 64.713 0.996 -0.518 0.996 -0.518 9.959e-3 64.713
7612.375 0.011 67.029 0.996 -0.58 0.996 -0.58 0.011 67.029
7637.333 0.012 68.941 0.996 -0.642 0.996 -0.642 0.012 68.941
7662.292 0.013 70.54 0.996 -0.704 0.996 -0.704 0.013 70.54
7687.25 0.014 71.893 0.996 -0.766 0.996 -0.766 0.014 71.893
7712.208 0.015 73.05 0.996 -0.827 0.996 -0.827 0.015 73.05
7737.167 0.016 74.047 0.996 -0.888 0.996 -0.888 0.016 74.047
7762.125 0.017 74.914 0.996 -0.949 0.996 -0.949 0.017 74.914
7787.083 0.018 75.674 0.996 -1.01 0.996 -1.01 0.018 75.674
7812.042 0.019 76.343 0.996 -1.071 0.996 -1.071 0.019 76.343
7837 0.02 76.935 0.996 -1.131 0.996 -1.131 0.02 76.935
7861.958 0.021 77.463 0.996 -1.191 0.996 -1.191 0.021 77.463
7886.917 0.022 77.934 0.996 -1.251 0.996 -1.251 0.022 77.934
7911.875 0.023 78.358 0.996 -1.311 0.996 -1.311 0.023 78.358
7936.833 0.024 78.739 0.996 -1.371 0.996 -1.371 0.024 78.739
7961.792 0.025 79.083 0.996 -1.431 0.996 -1.431 0.025 79.083
7986.75 0.026 79.396 0.995 -1.49 0.995 -1.49 0.026 79.396
8011.708 0.027 79.679 0.995 -1.549 0.995 -1.549 0.027 79.679
8036.667 0.028 79.938 0.995 -1.608 0.995 -1.608 0.028 79.938
8061.625 0.029 80.173 0.995 -1.667 0.995 -1.667 0.029 80.173
8086.583 0.03 80.389 0.995 -1.726 0.995 -1.726 0.03 80.389
8111.542 0.031 80.586 0.995 -1.784 0.995 -1.784 0.031 80.586
8136.5 0.032 80.767 0.995 -1.843 0.995 -1.843 0.032 80.767
8161.458 0.033 80.932 0.995 -1.901 0.995 -1.901 0.033 80.932
8186.417 0.034 81.085 0.995 -1.959 0.995 -1.959 0.034 81.085
