# MHZ S MA R 50

50 1 -1.26 0.022 88.731 0.022 88.731 1 -1.26
74.958 0.999 -1.888 0.033 88.098 0.033 88.098 0.999 -1.888
99.917 0.999 -2.517 0.044 87.466 0.044 87.466 0.999 -2.517
124.875 0.998 -3.144 0.055 86.834 0.055 86.834 0.998 -3.144
149.833 0.998 -3.771 0.066 86.203 0.066 86.203 0.998 -3.771
174.792 0.997 -4.397 0.077 85.572 0.077 85.572 0.997 -4.397
199.75 0.996 -5.023 0.088 84.942 0.088 84.942 0.996 -5.023
224.708 0.995 -5.647 0.098 84.314 0.098 84.314 0.995 -5.647
249.667 0.994 -6.27 0.109 83.686 0.109 83.686 0.994 -6.27
274.625 0.993 -6.892 0.12 83.06 0.12 83.06 0.993 -6.892
299.583 0.991 -7.513 0.131 82.435 0.131 82.435 0.991 -7.513
324.542 0.99 -8.132 0.141 81.812 0.141 81.812 0.99 -8.132
349.5 0.988 -8.749 0.152 81.19 0.152 81.19 0.988 -8.749
374.458 0.986 -9.365 0.163 80.57 0.163 80.57 0.986 -9.365
399.417 0.985 -9.979 0.173 79.952 0.173 79.952 0.985 -9.979
424.375 0.983 -10.59 0.184 79.335 0.184 79.335 0.983 -10.59
449.333 0.981 -11.2 0.194 78.721 0.194 78.721 0.981 -11.2
474.292 0.979 -11.808 0.205 78.109 0.205 78.109 0.979 -11.808
499.25 0.976 -12.413 0.215 77.499 0.215 77.499 0.976 -12.413
524.208 0.974 -13.016 0.225 76.892 0.225 76.892 0.974 -13.016
549.167 0.971 -13.617 0.235 76.287 0.235 76.287 0.971 -13.617
574.125 0.969 -14.215 0.246 75.685 0.246 75.685 0.969 -14.215
599.083 0.966 -14.81 0.256 75.085 0.256 75.085 0.966 -14.81
624.042 0.964 -15.402 0.266 74.488 0.266 74.488 0.964 -15.402
649 0.961 -15.992 0.276 73.894 0.276 73.894 0.961 -15.992
673.958 0.958 -16.579 0.285 73.303 0.285 73.303 0.958 -16.579
698.917 0.955 -17.163 0.295 72.714 0.295 72.714 0.955 -17.163
723.875 0.952 -17.744 0.305 72.129 0.305 72.129 0.952 -17.744
748.833 0.949 -18.321 0.314 71.547 0.314 71.547 0.949 -18.321
773.792 0.945 -18.895 0.324 70.968 0.324 70.968 0.945 -18.895
798.75 0.942 -19.467 0.333 70.393 0.333 70.393 0.942 -19.467
823.708 0.939 -20.034 0.343 69.821 0.343 69.821 0.939 -20.034
848.667 0.935 -20.599 0.352 69.252 0.352 69.252 0.935 -20.599
873.625 0.932 -21.159 0.361 68.687 0.361 68.687 0.932 -21.159
898.583 0.928 -21.717 0.37 68.125 0.37 68.125 0.928 -21.717
923.542 0.924 -22.27 0.379 67.567 0.379 67.567 0.924 -22.27
948.5 0.921 -22.821 0.388 67.012 0.388 67.012 0.921 -22.821
973.458 0.917 -23.367 0.397 66.461 0.397 66.461 0.917 -23.367
998.417 0.913 -23.91 0.405 65.914 0.405 65.914 0.913 -23.91
1023.375 0.909 -24.449 0.414 65.37 0.414 65.37 0.909 -24.449
1048.333 0.905 -24.984 0.422 64.831 0.422 64.831 0.905 -24.984
1073.292 0.901 -25.515 0.431 64.295 0.431 64.295 0.901 -25.515
1098.25 0.897 -26.043 0.439 63.763 0.439 63.763 0.897 -26.043
1123.208 0.893 -26.566 0.447 63.235 0.447 63.235 0.893 -26.566
1148.167 0.889 -27.086 0.455 62.71 0.455 62.71 0.889 -27.086
1173.125 0.885 -27.602 0.463 62.19 0.463 62.19 0.885 -27.602
1198.083 0.88 -28.114 0.471 61.674 0.471 61.674 0.88 -28.114
1223.042 0.876 -28.621 0.479 61.161 0.479 61.161 0.876 -28.621
1248 0.872 -29.125 0.487 60.653 0.487 60.653 0.872 -29.125
1272.958 0.867 -29.625 0.494 60.149 0.494 60.149 0.867 -29.625
1297.917 0.863 -30.121 0.502 59.648 0.502 59.648 0.863 -30.121
1322.875 0.859 -30.613 0.509 59.152 0.509 59.152 0.859 -30.613
1347.833 0.854 -31.1 0.517 58.659 0.517 58.659 0.854 -31.1
1372.792 0.85 -31.584 0.524 58.171 0.524 58.171 0.85 -31.584
1397.75 0.845 -32.064 0.531 57.687 0.531 57.687 0.845 -32.064
1422.708 0.841 -32.54 0.538 57.206 0.538 57.206 0.841 -32.54
1447.667 0.836 -33.011 0.545 56.73 0.545 56.73 0.836 -33.011
1472.625 0.832 -33.479 0.552 56.258 0.552 56.258 0.832 -33.479
1497.583 0.827 -33.942 0.558 55.79 0.558 55.79 0.827 -33.942
1522.542 0.822 -34.402 0.565 55.325 0.565 55.325 0.822 -34.402
1547.5 0.818 -34.857 0.572 54.865 0.572 54.865 0.818 -34.857
1572.458 0.813 -35.309 0.578 54.409 0.578 54.409 0.813 -35.309
1597.417 0.809 -35.756 0.584 53.957 0.584 53.957 0.809 -35.756
1622.375 0.804 -36.2 0.591 53.508 0.591 53.508 0.804 -36.2
1647.333 0.799 -36.64 0.597 53.064 0.597 53.064 0.799 -36.64
1672.292 0.795 -37.075 0.603 52.624 0.603 52.624 0.795 -37.075
1697.25 0.79 -37.507 0.609 52.187 0.609 52.187 0.79 -37.507
1722.208 0.785 -37.935 0.615 51.754 0.615 51.754 0.785 -37.935
1747.167 0.781 -38.359 0.621 51.326 0.621 51.326 0.781 -38.359
1772.125 0.776 -38.779 0.626 50.901 0.626 50.901 0.776 -38.779
1797.083 0.771 -39.195 0.632 50.48 0.632 50.48 0.771 -39.195
1822.042 0.767 -39.607 0.638 50.063 0.638 50.063 0.767 -39.607
1847 0.762 -40.016 0.643 49.649 0.643 49.649 0.762 -40.016
1871.958 0.757 -40.421 0.648 49.239 0.648 49.239 0.757 -40.421
1896.917 0.753 -40.822 0.654 48.833 0.654 48.833 0.753 -40.822
1921.875 0.748 -41.219 0.659 48.431 0.659 48.431 0.748 -41.219
1946.833 0.744 -41.613 0.664 48.033 0.664 48.033 0.744 -41.613
1971.792 0.739 -42.003 0.669 47.638 0.669 47.638 0.739 -42.003
1996.75 0.734 -42.389 0.674 47.247 0.674 47.247 0.734 -42.389
2021.708 0.73 -42.771 0.679 46.859 0.679 46.859 0.73 -42.771
2046.667 0.725 -43.151 0.684 46.475 0.684 46.475 0.725 -43.151
2071.625 0.72 -43.526 0.689 46.094 0.689 46.094 0.72 -43.526
2096.583 0.716 -43.898 0.693 45.717 0.693 45.717 0.716 -43.898
2121.542 0.711 -44.266 0.698 45.344 0.698 45.344 0.711 -44.266
2146.5 0.707 -44.631 0.703 44.974 0.703 44.974 0.707 -44.631
2171.458 0.702 -44.993 0.707 44.607 0.707 44.607 0.702 -44.993
2196.417 0.698 -45.351 0.711 44.244 0.711 44.244 0.698 -45.351
2221.375 0.693 -45.706 0.716 43.884 0.716 43.884 0.693 -45.706
2246.333 0.689 -46.057 0.72 43.527 0.72 43.527 0.689 -46.057
2271.292 0.684 -46.405 0.724 43.174 0.724 43.174 0.684 -46.405
2296.25 0.68 -46.75 0.728 42.824 0.728 42.824 0.68 -46.75
2321.208 0.675 -47.092 0.732 42.477 0.732 42.477 0.675 -47.092
2346.167 0.671 -47.43 0.736 42.134 0.736 42.134 0.671 -47.43
2371.125 0.666 -47.765 0.74 41.794 0.74 41.794 0.666 -47.765
2396.083 0.662 -48.097 0.744 41.456 0.744 41.456 0.662 -48.097
2421.042 0.658 -48.426 0.748 41.122 0.748 41.122 0.658 -48.426
2446 0.653 -48.752 0.752 40.791 0.752 40.791 0.653 -48.752
2470.958 0.649 -49.075 0.756 40.463 0.756 40.463 0.649 -49.075
2495.917 0.645 -49.394 0.759 40.138 0.759 40.138 0.645 -49.394
2520.875 0.64 -49.711 0.763 39.816 0.763 39.816 0.64 -49.711
2545.833 0.636 -50.025 0.766 39.497 0.766 39.497 0.636 -50.025
2570.792 0.632 -50.335 0.77 39.181 0.77 39.181 0.632 -50.335
2595.75 0.628 -50.643 0.773 38.867 0.773 38.867 0.628 -50.643
2620.708 0.623 -50.948 0.777 38.557 0.777 38.557 0.623 -50.948
2645.667 0.619 -51.25 0.78 38.249 0.78 38.249 0.619 -51.25
2670.625 0.615 -51.55 0.783 37.945 0.783 37.945 0.615 -51.55
2695.583 0.611 -51.846 0.786 37.643 0.786 37.643 0.611 -51.846
2720.542 0.607 -52.14 0.79 37.343 0.79 37.343 0.607 -52.14
2745.5 0.602 -52.431 0.793 37.047 0.793 37.047 0.602 -52.431
2770.458 0.598 -52.719 0.796 36.753 0.796 36.753 0.598 -52.719
2795.417 0.594 -53.005 0.799 36.461 0.799 36.461 0.594 -53.005
2820.375 0.59 -53.288 0.802 36.172 0.802 36.172 0.59 -53.288
2845.333 0.586 -53.569 0.805 35.886 0.805 35.886 0.586 -53.569
2870.292 0.582 -53.847 0.807 35.603 0.807 35.603 0.582 -53.847
2895.25 0.578 -54.122 0.81 35.321 0.81 35.321 0.578 -54.122
2920.208 0.574 -54.395 0.813 35.043 0.813 35.043 0.574 -54.395
2945.167 0.57 -54.665 0.816 34.767 0.816 34.767 0.57 -54.665
2970.125 0.566 -54.933 0.819 34.493 0.819 34.493 0.566 -54.933
2995.083 0.562 -55.199 0.821 34.221 0.821 34.221 0.562 -55.199
3020.042 0.559 -55.462 0.824 33.952 0.824 33.952 0.559 -55.462
3045 0.555 -55.723 0.826 33.686 0.826 33.686 0.555 -55.723
3069.958 0.551 -55.981 0.829 33.421 0.829 33.421 0.551 -55.981
3094.917 0.547 -56.237 0.831 33.159 0.831 33.159 0.547 -56.237
3119.875 0.543 -56.491 0.834 32.9 0.834 32.9 0.543 -56.491
3144.833 0.539 -56.742 0.836 32.642 0.836 32.642 0.539 -56.742
3169.792 0.536 -56.992 0.839 32.387 0.839 32.387 0.536 -56.992
3194.75 0.532 -57.239 0.841 32.133 0.841 32.133 0.532 -57.239
3219.708 0.528 -57.484 0.843 31.882 0.843 31.882 0.528 -57.484
3244.667 0.525 -57.726 0.846 31.634 0.846 31.634 0.525 -57.726
3269.625 0.521 -57.967 0.848 31.387 0.848 31.387 0.521 -57.967
3294.583 0.517 -58.205 0.85 31.142 0.85 31.142 0.517 -58.205
3319.542 0.514 -58.442 0.852 30.899 0.852 30.899 0.514 -58.442
3344.5 0.51 -58.676 0.854 30.659 0.854 30.659 0.51 -58.676
3369.458 0.506 -58.908 0.856 30.42 0.856 30.42 0.506 -58.908
3394.417 0.503 -59.139 0.858 30.183 0.858 30.183 0.503 -59.139
3419.375 0.499 -59.367 0.861 29.949 0.861 29.949 0.499 -59.367
3444.333 0.496 -59.593 0.863 29.716 0.863 29.716 0.496 -59.593
3469.292 0.492 -59.818 0.864 29.485 0.864 29.485 0.492 -59.818
3494.25 0.489 -60.04 0.866 29.256 0.866 29.256 0.489 -60.04
3519.208 0.485 -60.261 0.868 29.029 0.868 29.029 0.485 -60.261
3544.167 0.482 -60.48 0.87 28.803 0.87 28.803 0.482 -60.48
3569.125 0.478 -60.696 0.872 28.58 0.872 28.58 0.478 -60.696
3594.083 0.475 -60.911 0.874 28.358 0.874 28.358 0.475 -60.911
3619.042 0.472 -61.125 0.876 28.138 0.876 28.138 0.472 -61.125
3644 0.468 -61.336 0.878 27.92 0.878 27.92 0.468 -61.336
3668.958 0.465 -61.546 0.879 27.703 0.879 27.703 0.465 -61.546
3693.917 0.462 -61.754 0.881 27.489 0.881 27.489 0.462 -61.754
3718.875 0.458 -61.96 0.883 27.275 0.883 27.275 0.458 -61.96
3743.833 0.455 -62.164 0.884 27.064 0.884 27.064 0.455 -62.164
3768.792 0.452 -62.367 0.886 26.854 0.886 26.854 0.452 -62.367
3793.75 0.449 -62.568 0.888 26.646 0.888 26.646 0.449 -62.568
3818.708 0.445 -62.767 0.889 26.44 0.889 26.44 0.445 -62.767
3843.667 0.442 -62.965 0.891 26.235 0.891 26.235 0.442 -62.965
3868.625 0.439 -63.161 0.892 26.031 0.892 26.031 0.439 -63.161
3893.583 0.436 -63.356 0.894 25.829 0.894 25.829 0.436 -63.356
3918.542 0.433 -63.549 0.895 25.629 0.895 25.629 0.433 -63.549
3943.5 0.429 -63.741 0.897 25.43 0.897 25.43 0.429 -63.741
3968.458 0.426 -63.93 0.898 25.233 0.898 25.233 0.426 -63.93
3993.417 0.423 -64.119 0.9 25.037 0.9 25.037 0.423 -64.119
4018.375 0.42 -64.306 0.901 24.843 0.901 24.843 0.42 -64.306
4043.333 0.417 -64.491 0.903 24.65 0.903 24.65 0.417 -64.491
4068.292 0.414 -64.675 0.904 24.458 0.904 24.458 0.414 -64.675
4093.25 0.411 -64.857 0.905 24.268 0.905 24.268 0.411 -64.857
4118.208 0.408 -65.038 0.907 24.079 0.907 24.079 0.408 -65.038
4143.167 0.405 -65.218 0.908 23.892 0.908 23.892 0.405 -65.218
4168.125 0.402 -65.396 0.909 23.706 0.909 23.706 0.402 -65.396
4193.083 0.399 -65.573 0.911 23.521 0.911 23.521 0.399 -65.573
4218.042 0.396 -65.748 0.912 23.338 0.912 23.338 0.396 -65.748
4243 0.393 -65.922 0.913 23.156 0.913 23.156 0.393 -65.922
4267.958 0.39 -66.095 0.914 22.975 0.914 22.975 0.39 -66.095
4292.917 0.387 -66.266 0.916 22.796 0.916 22.796 0.387 -66.266
4317.875 0.385 -66.436 0.917 22.617 0.917 22.617 0.385 -66.436
4342.833 0.382 -66.605 0.918 22.44 0.918 22.44 0.382 -66.605
4367.792 0.379 -66.772 0.919 22.265 0.919 22.265 0.379 -66.772
4392.75 0.376 -66.938 0.92 22.09 0.92 22.09 0.376 -66.938
4417.708 0.373 -67.103 0.921 21.917 0.921 21.917 0.373 -67.103
4442.667 0.371 -67.267 0.922 21.745 0.922 21.745 0.371 -67.267
4467.625 0.368 -67.429 0.924 21.574 0.924 21.574 0.368 -67.429
4492.583 0.365 -67.59 0.925 21.404 0.925 21.404 0.365 -67.59
4517.542 0.362 -67.75 0.926 21.235 0.926 21.235 0.362 -67.75
4542.5 0.36 -67.908 0.927 21.068 0.927 21.068 0.36 -67.908
4567.458 0.357 -68.066 0.928 20.902 0.928 20.902 0.357 -68.066
4592.417 0.354 -68.222 0.929 20.736 0.929 20.736 0.354 -68.222
4617.375 0.351 -68.377 0.93 20.572 0.93 20.572 0.351 -68.377
4642.333 0.349 -68.531 0.931 20.409 0.931 20.409 0.349 -68.531
4667.292 0.346 -68.684 0.932 20.247 0.932 20.247 0.346 -68.684
4692.25 0.343 -68.836 0.933 20.086 0.933 20.086 0.343 -68.836
4717.208 0.341 -68.986 0.934 19.926 0.934 19.926 0.341 -68.986
4742.167 0.338 -69.135 0.935 19.767 0.935 19.767 0.338 -69.135
4767.125 0.336 -69.284 0.936 19.61 0.936 19.61 0.336 -69.284
4792.083 0.333 -69.431 0.936 19.453 0.936 19.453 0.333 -69.431
4817.042 0.331 -69.577 0.937 19.297 0.937 19.297 0.331 -69.577
4842 0.328 -69.722 0.938 19.142 0.938 19.142 0.328 -69.722
4866.958 0.325 -69.866 0.939 18.988 0.939 18.988 0.325 -69.866
4891.917 0.323 -70.009 0.94 18.835 0.94 18.835 0.323 -70.009
4916.875 0.32 -70.151 0.941 18.683 0.941 18.683 0.32 -70.151
4941.833 0.318 -70.291 0.942 18.532 0.942 18.532 0.318 -70.291
4966.792 0.315 -70.431 0.942 18.382 0.942 18.382 0.315 -70.431
4991.75 0.313 -70.57 0.943 18.233 0.943 18.233 0.313 -70.57
5016.708 0.31 -70.708 0.944 18.085 0.944 18.085 0.31 -70.708
5041.667 0.308 -70.844 0.945 17.938 0.945 17.938 0.308 -70.844
5066.625 0.306 -70.98 0.946 17.791 0.946 17.791 0.306 -70.98
5091.583 0.303 -71.115 0.946 17.646 0.946 17.646 0.303 -71.115
5116.542 0.301 -71.248 0.947 17.501 0.947 17.501 0.301 -71.248
5141.5 0.298 -71.381 0.948 17.357 0.948 17.357 0.298 -71.381
5166.458 0.296 -71.513 0.949 17.214 0.949 17.214 0.296 -71.513
5191.417 0.294 -71.644 0.949 17.072 0.949 17.072 0.294 -71.644
5216.375 0.291 -71.774 0.95 16.931 0.95 16.931 0.291 -71.774
5241.333 0.289 -71.903 0.951 16.791 0.951 16.791 0.289 -71.903
5266.292 0.287 -72.031 0.951 16.651 0.951 16.651 0.287 -72.031
5291.25 0.284 -72.158 0.952 16.512 0.952 16.512 0.284 -72.158
5316.208 0.282 -72.284 0.953 16.374 0.953 16.374 0.282 -72.284
5341.167 0.28 -72.409 0.954 16.237 0.954 16.237 0.28 -72.409
5366.125 0.277 -72.533 0.954 16.101 0.954 16.101 0.277 -72.533
5391.083 0.275 -72.657 0.955 15.965 0.955 15.965 0.275 -72.657
5416.042 0.273 -72.779 0.955 15.83 0.955 15.83 0.273 -72.779
5441 0.271 -72.901 0.956 15.696 0.956 15.696 0.271 -72.901
5465.958 0.268 -73.022 0.957 15.563 0.957 15.563 0.268 -73.022
5490.917 0.266 -73.141 0.957 15.43 0.957 15.43 0.266 -73.141
5515.875 0.264 -73.26 0.958 15.298 0.958 15.298 0.264 -73.26
5540.833 0.262 -73.378 0.959 15.167 0.959 15.167 0.262 -73.378
5565.792 0.26 -73.496 0.959 15.037 0.959 15.037 0.26 -73.496
5590.75 0.257 -73.612 0.96 14.907 0.96 14.907 0.257 -73.612
5615.708 0.255 -73.727 0.96 14.778 0.96 14.778 0.255 -73.727
5640.667 0.253 -73.842 0.961 14.65 0.961 14.65 0.253 -73.842
5665.625 0.251 -73.956 0.961 14.522 0.961 14.522 0.251 -73.956
5690.583 0.249 -74.069 0.962 14.395 0.962 14.395 0.249 -74.069
5715.542 0.247 -74.181 0.962 14.269 0.962 14.269 0.247 -74.181
5740.5 0.244 -74.292 0.963 14.143 0.963 14.143 0.244 -74.292
5765.458 0.242 -74.402 0.964 14.018 0.964 14.018 0.242 -74.402
5790.417 0.24 -74.512 0.964 13.894 0.964 13.894 0.24 -74.512
5815.375 0.238 -74.621 0.965 13.771 0.965 13.771 0.238 -74.621
5840.333 0.236 -74.729 0.965 13.648 0.965 13.648 0.236 -74.729
5865.292 0.234 -74.836 0.966 13.525 0.966 13.525 0.234 -74.836
5890.25 0.232 -74.942 0.966 13.404 0.966 13.404 0.232 -74.942
5915.208 0.23 -75.047 0.967 13.283 0.967 13.283 0.23 -75.047
5940.167 0.228 -75.152 0.967 13.162 0.967 13.162 0.228 -75.152
5965.125 0.226 -75.256 0.967 13.042 0.967 13.042 0.226 -75.256
5990.083 0.224 -75.359 0.968 12.923 0.968 12.923 0.224 -75.359
6015.042 0.222 -75.461 0.968 12.804 0.968 12.804 0.222 -75.461
6040 0.22 -75.562 0.969 12.686 0.969 12.686 0.22 -75.562
6064.958 0.218 -75.663 0.969 12.569 0.969 12.569 0.218 -75.663
6089.917 0.216 -75.763 0.97 12.452 0.97 12.452 0.216 -75.763
6114.875 0.214 -75.862 0.97 12.336 0.97 12.336 0.214 -75.862
6139.833 0.212 -75.96 0.971 12.22 0.971 12.22 0.212 -75.96
6164.792 0.21 -76.057 0.971 12.105 0.971 12.105 0.21 -76.057
6189.75 0.208 -76.154 0.971 11.99 0.971 11.99 0.208 -76.154
6214.708 0.206 -76.249 0.972 11.876 0.972 11.876 0.206 -76.249
6239.667 0.204 -76.344 0.972 11.763 0.972 11.763 0.204 -76.344
6264.625 0.202 -76.438 0.973 11.65 0.973 11.65 0.202 -76.438
6289.583 0.2 -76.532 0.973 11.537 0.973 11.537 0.2 -76.532
6314.542 0.198 -76.624 0.973 11.425 0.973 11.425 0.198 -76.624
6339.5 0.196 -76.716 0.974 11.314 0.974 11.314 0.196 -76.716
6364.458 0.194 -76.807 0.974 11.203 0.974 11.203 0.194 -76.807
6389.417 0.193 -76.897 0.975 11.093 0.975 11.093 0.193 -76.897
6414.375 0.191 -76.986 0.975 10.983 0.975 10.983 0.191 -76.986
6439.333 0.189 -77.074 0.975 10.874 0.975 10.874 0.189 -77.074
6464.292 0.187 -77.162 0.976 10.765 0.976 10.765 0.187 -77.162
6489.25 0.185 -77.249 0.976 10.656 0.976 10.656 0.185 -77.249
6514.208 0.183 -77.335 0.976 10.549 0.976 10.549 0.183 -77.335
6539.167 0.181 -77.42 0.977 10.441 0.977 10.441 0.181 -77.42
6564.125 0.18 -77.504 0.977 10.334 0.977 10.334 0.18 -77.504
6589.083 0.178 -77.587 0.977 10.228 0.977 10.228 0.178 -77.587
6614.042 0.176 -77.67 0.978 10.122 0.978 10.122 0.176 -77.67
6639 0.174 -77.752 0.978 10.017 0.978 10.017 0.174 -77.752
6663.958 0.172 -77.833 0.978 9.912 0.978 9.912 0.172 -77.833
6688.917 0.17 -77.913 0.979 9.807 0.979 9.807 0.17 -77.913
6713.875 0.169 -77.992 0.979 9.703 0.979 9.703 0.169 -77.992
6738.833 0.167 -78.07 0.979 9.6 0.979 9.6 0.167 -78.07
6763.792 0.165 -78.147 0.98 9.497 0.98 9.497 0.165 -78.147
6788.75 0.163 -78.224 0.98 9.394 0.98 9.394 0.163 -78.224
6813.708 0.162 -78.299 0.98 9.292 0.98 9.292 0.162 -78.299
6838.667 0.16 -78.374 0.98 9.19 0.98 9.19 0.16 -78.374
6863.625 0.158 -78.448 0.981 9.088 0.981 9.088 0.158 -78.448
6888.583 0.156 -78.521 0.981 8.987 0.981 8.987 0.156 -78.521
6913.542 0.155 -78.593 0.981 8.887 0.981 8.887 0.155 -78.593
6938.5 0.153 -78.664 0.981 8.787 0.981 8.787 0.153 -78.664
6963.458 0.151 -78.734 0.982 8.687 0.982 8.687 0.151 -78.734
6988.417 0.149 -78.803 0.982 8.588 0.982 8.588 0.149 -78.803
7013.375 0.148 -78.871 0.982 8.489 0.982 8.489 0.148 -78.871
7038.333 0.146 -78.938 0.982 8.391 0.982 8.391 0.146 -78.938
7063.292 0.144 -79.004 0.983 8.293 0.983 8.293 0.144 -79.004
7088.25 0.143 -79.069 0.983 8.195 0.983 8.195 0.143 -79.069
7113.208 0.141 -79.133 0.983 8.098 0.983 8.098 0.141 -79.133
7138.167 0.139 -79.196 0.983 8.001 0.983 8.001 0.139 -79.196
7163.125 0.138 -79.258 0.984 7.904 0.984 7.904 0.138 -79.258
7188.083 0.136 -79.318 0.984 7.808 0.984 7.808 0.136 -79.318
7213.042 0.134 -79.378 0.984 7.712 0.984 7.712 0.134 -79.378
7238 0.133 -79.437 0.984 7.617 0.984 7.617 0.133 -79.437
7262.958 0.131 -79.494 0.985 7.522 0.985 7.522 0.131 -79.494
7287.917 0.129 -79.55 0.985 7.428 0.985 7.428 0.129 -79.55
7312.875 0.128 -79.605 0.985 7.333 0.985 7.333 0.128 -79.605
7337.833 0.126 -79.659 0.985 7.24 0.985 7.24 0.126 -79.659
7362.792 0.125 -79.712 0.985 7.146 0.985 7.146 0.125 -79.712
7387.75 0.123 -79.763 0.986 7.053 0.986 7.053 0.123 -79.763
7412.708 0.121 -79.813 0.986 6.96 0.986 6.96 0.121 -79.813
7437.667 0.12 -79.862 0.986 6.868 0.986 6.868 0.12 -79.862
7462.625 0.118 -79.909 0.986 6.776 0.986 6.776 0.118 -79.909
7487.583 0.117 -79.955 0.986 6.684 0.986 6.684 0.117 -79.955
7512.542 0.115 -79.999 0.987 6.593 0.987 6.593 0.115 -79.999
7537.5 0.113 -80.042 0.987 6.501 0.987 6.501 0.113 -80.042
7562.458 0.112 -80.084 0.987 6.411 0.987 6.411 0.112 -80.084
7587.417 0.11 -80.124 0.987 6.32 0.987 6.32 0.11 -80.124
7612.375 0.109 -80.162 0.987 6.23 0.987 6.23 0.109 -80.162
7637.333 0.107 -80.199 0.987 6.141 0.987 6.141 0.107 -80.199
7662.292 0.106 -80.234 0.988 6.051 0.988 6.051 0.106 -80.234
7687.25 0.104 -80.267 0.988 5.962 0.988 5.962 0.104 -80.267
7712.208 0.103 -80.299 0.988 5.874 0.988 5.874 0.103 -80.299
7737.167 0.101 -80.328 0.988 5.785 0.988 5.785 0.101 -80.328
7762.125 0.1 -80.356 0.988 5.697 0.988 5.697 0.1 -80.356
7787.083 0.098 -80.382 0.988 5.609 0.988 5.609 0.098 -80.382
7812.042 0.096 -80.406 0.989 5.522 0.989 5.522 0.096 -80.406
7837 0.095 -80.427 0.989 5.435 0.989 5.435 0.095 -80.427
7861.958 0.093 -80.447 0.989 5.348 0.989 5.348 0.093 -80.447
7886.917 0.092 -80.464 0.989 5.261 0.989 5.261 0.092 -80.464
7911.875 0.09 -80.479 0.989 5.175 0.989 5.175 0.09 -80.479
7936.833 0.089 -80.492 0.989 5.089 0.989 5.089 0.089 -80.492
7961.792 0.087 -80.501 0.989 5.003 0.989 5.003 0.087 -80.501
7986.75 0.086 -80.509 0.989 4.918 0.989 4.918 0.086 -80.509
8011.708 0.085 -80.513 0.99 4.833 0.99 4.833 0.085 -80.513
8036.667 0.083 -80.515 0.99 4.748 0.99 4.748 0.083 -80.515
8061.625 0.082 -80.514 0.99 4.664 0.99 4.664 0.082 -80.514
8086.583 0.08 -80.509 0.99 4.58 0.99 4.58 0.08 -80.509
8111.542 0.079 -80.501 0.99 4.496 0.99 4.496 0.079 -80.501
8136.5 0.077 -80.49 0.99 4.412 0.99 4.412 0.077 -80.49
8161.458 0.076 -80.476 0.99 4.329 0.99 4.329 0.076 -80.476
