# MHZ S MA R 50

50 0.936 -20.66 0.353 69.311 0.353 69.311 0.936 -20.66
74.958 0.87 -29.485 0.492 60.471 0.492 60.471 0.87 -29.485
99.917 0.798 -37.015 0.602 52.926 0.602 52.926 0.798 -37.015
124.875 0.727 -43.312 0.686 46.615 0.686 46.615 0.727 -43.312
149.833 0.661 -48.538 0.749 41.375 0.749 41.375 0.661 -48.538
174.792 0.602 -52.878 0.797 37.019 0.797 37.019 0.602 -52.878
199.75 0.55 -56.503 0.834 33.38 0.834 33.38 0.55 -56.503
224.708 0.505 -59.553 0.862 30.315 0.862 30.315 0.505 -59.553
249.667 0.465 -62.142 0.884 27.711 0.884 27.711 0.465 -62.142
274.625 0.43 -64.359 0.902 25.479 0.902 25.479 0.43 -64.359
299.583 0.4 -66.274 0.915 23.548 0.915 23.548 0.4 -66.274
324.542 0.372 -67.942 0.927 21.865 0.927 21.865 0.372 -67.942
349.5 0.348 -69.406 0.936 20.386 0.936 20.386 0.348 -69.406
374.458 0.327 -70.699 0.944 19.077 0.944 19.077 0.327 -70.699
399.417 0.308 -71.849 0.95 17.911 0.95 17.911 0.308 -71.849
424.375 0.29 -72.879 0.956 16.867 0.956 16.867 0.29 -72.879
449.333 0.274 -73.804 0.96 15.925 0.96 15.925 0.274 -73.804
474.292 0.26 -74.642 0.964 15.072 0.964 15.072 0.26 -74.642
499.25 0.247 -75.402 0.968 14.295 0.968 14.295 0.247 -75.402
524.208 0.235 -76.095 0.971 13.585 0.971 13.585 0.235 -76.095
549.167 0.224 -76.73 0.973 12.933 0.973 12.933 0.224 -76.73
574.125 0.214 -77.314 0.976 12.333 0.976 12.333 0.214 -77.314
599.083 0.204 -77.852 0.978 11.777 0.978 11.777 0.204 -77.852
624.042 0.195 -78.35 0.979 11.262 0.979 11.262 0.195 -78.35
649 0.187 -78.812 0.981 10.782 0.981 10.782 0.187 -78.812
673.958 0.179 -79.242 0.982 10.335 0.982 10.335 0.179 -79.242
698.917 0.172 -79.642 0.984 9.916 0.984 9.916 0.172 -79.642
723.875 0.165 -80.016 0.985 9.523 0.985 9.523 0.165 -80.016
748.833 0.159 -80.367 0.986 9.154 0.986 9.154 0.159 -80.367
773.792 0.153 -80.696 0.987 8.805 0.987 8.805 0.153 -80.696
798.75 0.147 -81.005 0.988 8.476 0.988 8.476 0.147 -81.005
823.708 0.142 -81.296 0.989 8.165 0.989 8.165 0.142 -81.296
848.667 0.137 -81.571 0.989 7.87 0.989 7.87 0.137 -81.571
873.625 0.132 -81.831 0.99 7.59 0.99 7.59 0.132 -81.831
898.583 0.127 -82.076 0.991 7.323 0.991 7.323 0.127 -82.076
923.542 0.123 -82.308 0.991 7.069 0.991 7.069 0.123 -82.308
948.5 0.119 -82.529 0.992 6.826 0.992 6.826 0.119 -82.529
973.458 0.115 -82.738 0.992 6.594 0.992 6.594 0.115 -82.738
998.417 0.111 -82.936 0.992 6.372 0.992 6.372 0.111 -82.936
1023.375 0.107 -83.125 0.993 6.159 0.993 6.159 0.107 -83.125
1048.333 0.104 -83.305 0.993 5.955 0.993 5.955 0.104 -83.305
1073.292 0.1 -83.476 0.994 5.758 0.994 5.758 0.1 -83.476
1098.25 0.097 -83.638 0.994 5.57 0.994 5.57 0.097 -83.638
1123.208 0.094 -83.793 0.994 5.388 0.994 5.388 0.094 -83.793
1148.167 0.091 -83.941 0.995 5.212 0.995 5.212 0.091 -83.941
1173.125 0.088 -84.082 0.995 5.043 0.995 5.043 0.088 -84.082
1198.083 0.085 -84.216 0.995 4.879 0.995 4.879 0.085 -84.216
1223.042 0.082 -84.344 0.995 4.721 0.995 4.721 0.082 -84.344
1248 0.08 -84.465 0.995 4.568 0.995 4.568 0.08 -84.465
1272.958 0.077 -84.581 0.996 4.42 0.996 4.42 0.077 -84.581
1297.917 0.075 -84.691 0.996 4.276 0.996 4.276 0.075 -84.691
1322.875 0.072 -84.796 0.996 4.136 0.996 4.136 0.072 -84.796
1347.833 0.07 -84.895 0.996 4 0.996 4 0.07 -84.895
1372.792 0.067 -84.989 0.996 3.869 0.996 3.869 0.067 -84.989
1397.75 0.065 -85.078 0.997 3.74 0.997 3.74 0.065 -85.078
1422.708 0.063 -85.162 0.997 3.616 0.997 3.616 0.063 -85.162
1447.667 0.061 -85.241 0.997 3.494 0.997 3.494 0.061 -85.241
1472.625 0.059 -85.315 0.997 3.376 0.997 3.376 0.059 -85.315
1497.583 0.057 -85.384 0.997 3.26 0.997 3.26 0.057 -85.384
1522.542 0.055 -85.448 0.997 3.147 0.997 3.147 0.055 -85.448
1547.5 0.053 -85.507 0.997 3.037 0.997 3.037 0.053 -85.507
1572.458 0.051 -85.561 0.997 2.93 0.997 2.93 0.051 -85.561
1597.417 0.049 -85.61 0.997 2.824 0.997 2.824 0.049 -85.61
1622.375 0.048 -85.654 0.998 2.721 0.998 2.721 0.048 -85.654
1647.333 0.046 -85.692 0.998 2.621 0.998 2.621 0.046 -85.692
1672.292 0.044 -85.725 0.998 2.522 0.998 2.522 0.044 -85.725
1697.25 0.042 -85.751 0.998 2.426 0.998 2.426 0.042 -85.751
1722.208 0.041 -85.772 0.998 2.331 0.998 2.331 0.041 -85.772
1747.167 0.039 -85.786 0.998 2.238 0.998 2.238 0.039 -85.786
1772.125 0.037 -85.793 0.998 2.147 0.998 2.147 0.037 -85.793
1797.083 0.036 -85.793 0.998 2.057 0.998 2.057 0.036 -85.793
1822.042 0.034 -85.785 0.998 1.97 0.998 1.97 0.034 -85.785
1847 0.033 -85.769 0.998 1.883 0.998 1.883 0.033 -85.769
1871.958 0.031 -85.743 0.998 1.799 0.998 1.799 0.031 -85.743
1896.917 0.03 -85.707 0.998 1.715 0.998 1.715 0.03 -85.707
1921.875 0.029 -85.66 0.998 1.633 0.998 1.633 0.029 -85.66
1946.833 0.027 -85.6 0.998 1.553 0.998 1.553 0.027 -85.6
1971.792 0.026 -85.526 0.998 1.473 0.998 1.473 0.026 -85.526
1996.75 0.024 -85.436 0.998 1.395 0.998 1.395 0.024 -85.436
2021.708 0.023 -85.329 0.998 1.318 0.998 1.318 0.023 -85.329
2046.667 0.022 -85.201 0.998 1.243 0.998 1.243 0.022 -85.201
2071.625 0.02 -85.048 0.998 1.168 0.998 1.168 0.02 -85.048
2096.583 0.019 -84.868 0.998 1.094 0.998 1.094 0.019 -84.868
2121.542 0.018 -84.655 0.998 1.022 0.998 1.022 0.018 -84.655
2146.5 0.017 -84.402 0.999 0.95 0.999 0.95 0.017 -84.402
2171.458 0.015 -84.1 0.999 0.879 0.999 0.879 0.015 -84.1
2196.417 0.014 -83.74 0.999 0.81 0.999 0.81 0.014 -83.74
2221.375 0.013 -83.305 0.999 0.741 0.999 0.741 0.013 -83.305
2246.333 0.012 -82.777 0.999 0.673 0.999 0.673 0.012 -82.777
2271.292 0.011 -82.124 0.999 0.606 0.999 0.606 0.011 -82.124
2296.25 9.506e-3 -81.307 0.999 0.539 0.999 0.539 9.506e-3 -81.307
2321.208 8.374e-3 -80.262 0.999 0.474 0.999 0.474 8.374e-3 -80.262
2346.167 7.26e-3 -78.888 0.999 0.409 0.999 0.409 7.26e-3 -78.888
2371.125 6.164e-3 -77.02 0.999 0.345 0.999 0.345 6.164e-3 -77.02
2396.083 5.09e-3 -74.358 0.999 0.281 0.999 0.281 5.09e-3 -74.358
2421.042 4.045e-3 -70.311 0.999 0.219 0.999 0.219 4.045e-3 -70.311
2446 3.045e-3 -63.566 0.999 0.156 0.999 0.156 3.045e-3 -63.566
2470.958 2.138e-3 -50.806 0.999 0.095 0.999 0.095 2.138e-3 -50.806
2495.917 1.475e-3 -23.9 0.999 0.034 0.999 0.034 1.475e-3 -23.9
2520.875 1.422e-3 18.493 0.999 -0.026 0.999 -0.026 1.422e-3 18.493
2545.833 2.011e-3 47.8 0.999 -0.085 0.999 -0.085 2.011e-3 47.8
2570.792 2.859e-3 61.718 0.999 -0.144 0.999 -0.144 2.859e-3 61.718
2595.75 3.789e-3 68.953 0.999 -0.203 0.999 -0.203 3.789e-3 68.953
2620.708 4.747e-3 73.239 0.999 -0.261 0.999 -0.261 4.747e-3 73.239
2645.667 5.714e-3 76.035 0.999 -0.318 0.999 -0.318 5.714e-3 76.035
2670.625 6.683e-3 77.986 0.999 -0.375 0.999 -0.375 6.683e-3 77.986
2695.583 7.649e-3 79.417 0.999 -0.431 0.999 -0.431 7.649e-3 79.417
2720.542 8.611e-3 80.505 0.999 -0.487 0.999 -0.487 8.611e-3 80.505
2745.5 9.567e-3 81.356 0.999 -0.543 0.999 -0.543 9.567e-3 81.356
2770.458 0.011 82.038 0.999 -0.598 0.999 -0.598 0.011 82.038
2795.417 0.011 82.593 0.999 -0.652 0.999 -0.652 0.011 82.593
2820.375 0.012 83.052 0.999 -0.706 0.999 -0.706 0.012 83.052
2845.333 0.013 83.436 0.999 -0.76 0.999 -0.76 0.013 83.436
2870.292 0.014 83.76 0.999 -0.813 0.999 -0.813 0.014 83.76
2895.25 0.015 84.037 0.999 -0.866 0.999 -0.866 0.015 84.037
2920.208 0.016 84.274 0.999 -0.918 0.999 -0.918 0.016 84.274
2945.167 0.017 84.479 0.999 -0.971 0.999 -0.971 0.017 84.479
2970.125 0.018 84.656 0.998 -1.022 0.998 -1.022 0.018 84.656
2995.083 0.019 84.811 0.998 -1.074 0.998 -1.074 0.019 84.811
3020.042 0.02 84.946 0.998 -1.125 0.998 -1.125 0.02 84.946
3045 0.021 85.064 0.998 -1.175 0.998 -1.175 0.021 85.064
3069.958 0.021 85.168 0.998 -1.225 0.998 -1.225 0.021 85.168
3094.917 0.022 85.259 0.998 -1.275 0.998 -1.275 0.022 85.259
3119.875 0.023 85.339 0.998 -1.325 0.998 -1.325 0.023 85.339
3144.833 0.024 85.409 0.998 -1.374 0.998 -1.374 0.024 85.409
3169.792 0.025 85.471 0.998 -1.423 0.998 -1.423 0.025 85.471
3194.75 0.026 85.525 0.998 -1.472 0.998 -1.472 0.026 85.525
3219.708 0.027 85.572 0.998 -1.521 0.998 -1.521 0.027 85.572
3244.667 0.027 85.613 0.998 -1.569 0.998 -1.569 0.027 85.613
3269.625 0.028 85.648 0.998 -1.617 0.998 -1.617 0.028 85.648
3294.583 0.029 85.679 0.998 -1.664 0.998 -1.664 0.029 85.679
3319.542 0.03 85.705 0.998 -1.712 0.998 -1.712 0.03 85.705
3344.5 0.031 85.727 0.998 -1.759 0.998 -1.759 0.031 85.727
3369.458 0.032 85.745 0.998 -1.806 0.998 -1.806 0.032 85.745
3394.417 0.032 85.76 0.998 -1.852 0.998 -1.852 0.032 85.76
3419.375 0.033 85.772 0.998 -1.898 0.998 -1.898 0.033 85.772
3444.333 0.034 85.781 0.998 -1.945 0.998 -1.945 0.034 85.781
3469.292 0.035 85.788 0.998 -1.99 0.998 -1.99 0.035 85.788
3494.25 0.036 85.792 0.998 -2.036 0.998 -2.036 0.036 85.792
3519.208 0.036 85.794 0.998 -2.081 0.998 -2.081 0.036 85.794
3544.167 0.037 85.794 0.998 -2.127 0.998 -2.127 0.037 85.794
3569.125 0.038 85.792 0.998 -2.172 0.998 -2.172 0.038 85.792
3594.083 0.039 85.788 0.998 -2.216 0.998 -2.216 0.039 85.788
3619.042 0.039 85.783 0.998 -2.261 0.998 -2.261 0.039 85.783
3644 0.04 85.776 0.998 -2.305 0.998 -2.305 0.04 85.776
3668.958 0.041 85.768 0.998 -2.349 0.998 -2.349 0.041 85.768
3693.917 0.042 85.759 0.998 -2.393 0.998 -2.393 0.042 85.759
3718.875 0.043 85.748 0.998 -2.437 0.998 -2.437 0.043 85.748
3743.833 0.043 85.737 0.998 -2.481 0.998 -2.481 0.043 85.737
3768.792 0.044 85.724 0.998 -2.524 0.998 -2.524 0.044 85.724
3793.75 0.045 85.71 0.998 -2.567 0.998 -2.567 0.045 85.71
3818.708 0.046 85.696 0.998 -2.61 0.998 -2.61 0.046 85.696
3843.667 0.046 85.68 0.998 -2.653 0.998 -2.653 0.046 85.68
3868.625 0.047 85.664 0.998 -2.696 0.998 -2.696 0.047 85.664
3893.583 0.048 85.647 0.998 -2.738 0.998 -2.738 0.048 85.647
3918.542 0.049 85.629 0.997 -2.781 0.997 -2.781 0.049 85.629
3943.5 0.049 85.611 0.997 -2.823 0.997 -2.823 0.049 85.611
3968.458 0.05 85.592 0.997 -2.865 0.997 -2.865 0.05 85.592
3993.417 0.051 85.572 0.997 -2.907 0.997 -2.907 0.051 85.572
4018.375 0.051 85.552 0.997 -2.949 0.997 -2.949 0.051 85.552
4043.333 0.052 85.531 0.997 -2.99 0.997 -2.99 0.052 85.531
4068.292 0.053 85.51 0.997 -3.032 0.997 -3.032 0.053 85.51
4093.25 0.054 85.488 0.997 -3.073 0.997 -3.073 0.054 85.488
4118.208 0.054 85.466 0.997 -3.114 0.997 -3.114 0.054 85.466
4143.167 0.055 85.444 0.997 -3.155 0.997 -3.155 0.055 85.444
4168.125 0.056 85.421 0.997 -3.196 0.997 -3.196 0.056 85.421
4193.083 0.056 85.397 0.997 -3.237 0.997 -3.237 0.056 85.397
4218.042 0.057 85.374 0.997 -3.278 0.997 -3.278 0.057 85.374
4243 0.058 85.35 0.997 -3.318 0.997 -3.318 0.058 85.35
4267.958 0.059 85.325 0.997 -3.359 0.997 -3.359 0.059 85.325
4292.917 0.059 85.301 0.997 -3.399 0.997 -3.399 0.059 85.301
4317.875 0.06 85.276 0.997 -3.439 0.997 -3.439 0.06 85.276
4342.833 0.061 85.25 0.997 -3.479 0.997 -3.479 0.061 85.25
4367.792 0.061 85.225 0.997 -3.519 0.997 -3.519 0.061 85.225
4392.75 0.062 85.199 0.997 -3.559 0.997 -3.559 0.062 85.199
4417.708 0.063 85.173 0.997 -3.598 0.997 -3.598 0.063 85.173
4442.667 0.063 85.147 0.997 -3.638 0.997 -3.638 0.063 85.147
4467.625 0.064 85.121 0.997 -3.677 0.997 -3.677 0.064 85.121
4492.583 0.065 85.094 0.997 -3.717 0.997 -3.717 0.065 85.094
4517.542 0.066 85.067 0.997 -3.756 0.997 -3.756 0.066 85.067
4542.5 0.066 85.041 0.996 -3.795 0.996 -3.795 0.066 85.041
4567.458 0.067 85.013 0.996 -3.834 0.996 -3.834 0.067 85.013
4592.417 0.068 84.986 0.996 -3.873 0.996 -3.873 0.068 84.986
4617.375 0.068 84.959 0.996 -3.912 0.996 -3.912 0.068 84.959
4642.333 0.069 84.931 0.996 -3.95 0.996 -3.95 0.069 84.931
4667.292 0.07 84.903 0.996 -3.989 0.996 -3.989 0.07 84.903
4692.25 0.07 84.875 0.996 -4.028 0.996 -4.028 0.07 84.875
4717.208 0.071 84.847 0.996 -4.066 0.996 -4.066 0.071 84.847
4742.167 0.072 84.819 0.996 -4.104 0.996 -4.104 0.072 84.819
4767.125 0.072 84.791 0.996 -4.143 0.996 -4.143 0.072 84.791
4792.083 0.073 84.763 0.996 -4.181 0.996 -4.181 0.073 84.763
4817.042 0.074 84.734 0.996 -4.219 0.996 -4.219 0.074 84.734
4842 0.074 84.705 0.996 -4.257 0.996 -4.257 0.074 84.705
4866.958 0.075 84.677 0.996 -4.295 0.996 -4.295 0.075 84.677
4891.917 0.076 84.648 0.996 -4.333 0.996 -4.333 0.076 84.648
4916.875 0.076 84.619 0.996 -4.37 0.996 -4.37 0.076 84.619
4941.833 0.077 84.59 0.996 -4.408 0.996 -4.408 0.077 84.59
4966.792 0.078 84.561 0.996 -4.445 0.996 -4.445 0.078 84.561
4991.75 0.078 84.532 0.996 -4.483 0.996 -4.483 0.078 84.532
5016.708 0.079 84.503 0.996 -4.52 0.996 -4.52 0.079 84.503
5041.667 0.079 84.473 0.995 -4.558 0.995 -4.558 0.079 84.473
5066.625 0.08 84.444 0.995 -4.595 0.995 -4.595 0.08 84.444
5091.583 0.081 84.415 0.995 -4.632 0.995 -4.632 0.081 84.415
5116.542 0.081 84.385 0.995 -4.669 0.995 -4.669 0.081 84.385
5141.5 0.082 84.356 0.995 -4.706 0.995 -4.706 0.082 84.356
5166.458 0.083 84.326 0.995 -4.743 0.995 -4.743 0.083 84.326
5191.417 0.083 84.296 0.995 -4.78 0.995 -4.78 0.083 84.296
5216.375 0.084 84.267 0.995 -4.817 0.995 -4.817 0.084 84.267
5241.333 0.085 84.237 0.995 -4.853 0.995 -4.853 0.085 84.237
5266.292 0.085 84.207 0.995 -4.89 0.995 -4.89 0.085 84.207
5291.25 0.086 84.177 0.995 -4.927 0.995 -4.927 0.086 84.177
5316.208 0.087 84.147 0.995 -4.963 0.995 -4.963 0.087 84.147
5341.167 0.087 84.117 0.995 -5 0.995 -5 0.087 84.117
5366.125 0.088 84.087 0.995 -5.036 0.995 -5.036 0.088 84.087
5391.083 0.088 84.057 0.995 -5.072 0.995 -5.072 0.088 84.057
5416.042 0.089 84.027 0.995 -5.109 0.995 -5.109 0.089 84.027
5441 0.09 83.997 0.995 -5.145 0.995 -5.145 0.09 83.997
5465.958 0.09 83.967 0.995 -5.181 0.995 -5.181 0.09 83.967
5490.917 0.091 83.937 0.995 -5.217 0.995 -5.217 0.091 83.937
5515.875 0.092 83.907 0.994 -5.253 0.994 -5.253 0.092 83.907
5540.833 0.092 83.877 0.994 -5.289 0.994 -5.289 0.092 83.877
5565.792 0.093 83.846 0.994 -5.325 0.994 -5.325 0.093 83.846
5590.75 0.093 83.816 0.994 -5.361 0.994 -5.361 0.093 83.816
5615.708 0.094 83.786 0.994 -5.396 0.994 -5.396 0.094 83.786
5640.667 0.095 83.755 0.994 -5.432 0.994 -5.432 0.095 83.755
5665.625 0.095 83.725 0.994 -5.468 0.994 -5.468 0.095 83.725
5690.583 0.096 83.695 0.994 -5.503 0.994 -5.503 0.096 83.695
5715.542 0.097 83.664 0.994 -5.539 0.994 -5.539 0.097 83.664
5740.5 0.097 83.634 0.994 -5.575 0.994 -5.575 0.097 83.634
5765.458 0.098 83.604 0.994 -5.61 0.994 -5.61 0.098 83.604
5790.417 0.098 83.573 0.994 -5.645 0.994 -5.645 0.098 83.573
5815.375 0.099 83.543 0.994 -5.681 0.994 -5.681 0.099 83.543
5840.333 0.1 83.512 0.994 -5.716 0.994 -5.716 0.1 83.512
5865.292 0.1 83.482 0.994 -5.751 0.994 -5.751 0.1 83.482
5890.25 0.101 83.451 0.994 -5.786 0.994 -5.786 0.101 83.451
5915.208 0.101 83.421 0.994 -5.822 0.994 -5.822 0.101 83.421
5940.167 0.102 83.39 0.993 -5.857 0.993 -5.857 0.102 83.39
5965.125 0.103 83.36 0.993 -5.892 0.993 -5.892 0.103 83.36
5990.083 0.103 83.329 0.993 -5.927 0.993 -5.927 0.103 83.329
6015.042 0.104 83.299 0.993 -5.962 0.993 -5.962 0.104 83.299
6040 0.104 83.268 0.993 -5.996 0.993 -5.996 0.104 83.268
6064.958 0.105 83.238 0.993 -6.031 0.993 -6.031 0.105 83.238
6089.917 0.106 83.207 0.993 -6.066 0.993 -6.066 0.106 83.207
6114.875 0.106 83.176 0.993 -6.101 0.993 -6.101 0.106 83.176
6139.833 0.107 83.146 0.993 -6.136 0.993 -6.136 0.107 83.146
6164.792 0.107 83.115 0.993 -6.17 0.993 -6.17 0.107 83.115
6189.75 0.108 83.085 0.993 -6.205 0.993 -6.205 0.108 83.085
6214.708 0.109 83.054 0.993 -6.239 0.993 -6.239 0.109 83.054
6239.667 0.109 83.023 0.993 -6.274 0.993 -6.274 0.109 83.023
6264.625 0.11 82.993 0.993 -6.308 0.993 -6.308 0.11 82.993
6289.583 0.11 82.962 0.993 -6.343 0.993 -6.343 0.11 82.962
6314.542 0.111 82.932 0.992 -6.377 0.992 -6.377 0.111 82.932
6339.5 0.112 82.901 0.992 -6.412 0.992 -6.412 0.112 82.901
6364.458 0.112 82.87 0.992 -6.446 0.992 -6.446 0.112 82.87
6389.417 0.113 82.84 0.992 -6.48 0.992 -6.48 0.113 82.84
6414.375 0.113 82.809 0.992 -6.514 0.992 -6.514 0.113 82.809
6439.333 0.114 82.778 0.992 -6.549 0.992 -6.549 0.114 82.778
6464.292 0.115 82.748 0.992 -6.583 0.992 -6.583 0.115 82.748
6489.25 0.115 82.717 0.992 -6.617 0.992 -6.617 0.115 82.717
6514.208 0.116 82.686 0.992 -6.651 0.992 -6.651 0.116 82.686
6539.167 0.116 82.656 0.992 -6.685 0.992 -6.685 0.116 82.656
6564.125 0.117 82.625 0.992 -6.719 0.992 -6.719 0.117 82.625
6589.083 0.118 82.595 0.992 -6.753 0.992 -6.753 0.118 82.595
6614.042 0.118 82.564 0.992 -6.787 0.992 -6.787 0.118 82.564
6639 0.119 82.533 0.992 -6.821 0.992 -6.821 0.119 82.533
6663.958 0.119 82.503 0.992 -6.855 0.992 -6.855 0.119 82.503
6688.917 0.12 82.472 0.991 -6.889 0.991 -6.889 0.12 82.472
6713.875 0.121 82.441 0.991 -6.922 0.991 -6.922 0.121 82.441
6738.833 0.121 82.411 0.991 -6.956 0.991 -6.956 0.121 82.411
6763.792 0.122 82.38 0.991 -6.99 0.991 -6.99 0.122 82.38
6788.75 0.122 82.349 0.991 -7.023 0.991 -7.023 0.122 82.349
6813.708 0.123 82.319 0.991 -7.057 0.991 -7.057 0.123 82.319
6838.667 0.123 82.288 0.991 -7.091 0.991 -7.091 0.123 82.288
6863.625 0.124 82.258 0.991 -7.124 0.991 -7.124 0.124 82.258
6888.583 0.125 82.227 0.991 -7.158 0.991 -7.158 0.125 82.227
6913.542 0.125 82.196 0.991 -7.191 0.991 -7.191 0.125 82.196
6938.5 0.126 82.166 0.991 -7.225 0.991 -7.225 0.126 82.166
6963.458 0.126 82.135 0.991 -7.258 0.991 -7.258 0.126 82.135
6988.417 0.127 82.105 0.991 -7.292 0.991 -7.292 0.127 82.105
7013.375 0.128 82.074 0.991 -7.325 0.991 -7.325 0.128 82.074
7038.333 0.128 82.043 0.99 -7.358 0.99 -7.358 0.128 82.043
7063.292 0.129 82.013 0.99 -7.392 0.99 -7.392 0.129 82.013
7088.25 0.129 81.982 0.99 -7.425 0.99 -7.425 0.129 81.982
7113.208 0.13 81.952 0.99 -7.458 0.99 -7.458 0.13 81.952
7138.167 0.13 81.921 0.99 -7.491 0.99 -7.491 0.13 81.921
7163.125 0.131 81.89 0.99 -7.525 0.99 -7.525 0.131 81.89
7188.083 0.132 81.86 0.99 -7.558 0.99 -7.558 0.132 81.86
7213.042 0.132 81.829 0.99 -7.591 0.99 -7.591 0.132 81.829
7238 0.133 81.799 0.99 -7.624 0.99 -7.624 0.133 81.799
7262.958 0.133 81.768 0.99 -7.657 0.99 -7.657 0.133 81.768
7287.917 0.134 81.738 0.99 -7.69 0.99 -7.69 0.134 81.738
7312.875 0.134 81.707 0.99 -7.723 0.99 -7.723 0.134 81.707
7337.833 0.135 81.677 0.99 -7.756 0.99 -7.756 0.135 81.677
7362.792 0.136 81.646 0.989 -7.789 0.989 -7.789 0.136 81.646
7387.75 0.136 81.616 0.989 -7.822 0.989 -7.822 0.136 81.616
7412.708 0.137 81.585 0.989 -7.855 0.989 -7.855 0.137 81.585
7437.667 0.137 81.555 0.989 -7.888 0.989 -7.888 0.137 81.555
7462.625 0.138 81.524 0.989 -7.921 0.989 -7.921 0.138 81.524
7487.583 0.138 81.494 0.989 -7.953 0.989 -7.953 0.138 81.494
7512.542 0.139 81.463 0.989 -7.986 0.989 -7.986 0.139 81.463
7537.5 0.14 81.433 0.989 -8.019 0.989 -8.019 0.14 81.433
7562.458 0.14 81.402 0.989 -8.052 0.989 -8.052 0.14 81.402
7587.417 0.141 81.372 0.989 -8.084 0.989 -8.084 0.141 81.372
7612.375 0.141 81.341 0.989 -8.117 0.989 -8.117 0.141 81.341
7637.333 0.142 81.311 0.989 -8.15 0.989 -8.15 0.142 81.311
7662.292 0.142 81.28 0.988 -8.182 0.988 -8.182 0.142 81.28
7687.25 0.143 81.25 0.988 -8.215 0.988 -8.215 0.143 81.25
7712.208 0.143 81.219 0.988 -8.248 0.988 -8.248 0.143 81.219
7737.167 0.144 81.189 0.988 -8.28 0.988 -8.28 0.144 81.189
7762.125 0.145 81.159 0.988 -8.313 0.988 -8.313 0.145 81.159
7787.083 0.145 81.128 0.988 -8.345 0.988 -8.345 0.145 81.128
7812.042 0.146 81.098 0.988 -8.378 0.988 -8.378 0.146 81.098
7837 0.146 81.067 0.988 -8.41 0.988 -8.41 0.146 81.067
7861.958 0.147 81.037 0.988 -8.442 0.988 -8.442 0.147 81.037
7886.917 0.147 81.007 0.988 -8.475 0.988 -8.475 0.147 81.007
7911.875 0.148 80.976 0.988 -8.507 0.988 -8.507 0.148 80.976
7936.833 0.148 80.946 0.988 -8.54 0.988 -8.54 0.148 80.946
7961.792 0.149 80.916 0.987 -8.572 0.987 -8.572 0.149 80.916
7986.75 0.15 80.885 0.987 -8.604 0.987 -8.604 0.15 80.885
8011.708 0.15 80.855 0.987 -8.637 0.987 -8.637 0.15 80.855
8036.667 0.151 80.825 0.987 -8.669 0.987 -8.669 0.151 80.825
8061.625 0.151 80.794 0.987 -8.701 0.987 -8.701 0.151 80.794
8086.583 0.152 80.764 0.987 -8.733 0.987 -8.733 0.152 80.764
8111.542 0.152 80.734 0.987 -8.765 0.987 -8.765 0.152 80.734
8136.5 0.153 80.703 0.987 -8.798 0.987 -8.798 0.153 80.703
8161.458 0.154 80.673 0.987 -8.83 0.987 -8.83 0.154 80.673
8186.417 0.154 80.643 0.987 -8.862 0.987 -8.862 0.154 80.643
8211.375 0.155 80.612 0.987 -8.894 0.987 -8.894 0.155 80.612
8236.333 0.155 80.582 0.987 -8.926 0.987 -8.926 0.155 80.582
8261.292 0.156 80.552 0.986 -8.958 0.986 -8.958 0.156 80.552
8286.25 0.156 80.522 0.986 -8.99 0.986 -8.99 0.156 80.522
