# MHZ S MA R 50

50 0.987 -9.104 0.158 80.88 0.158 80.88 0.987 -9.104
74.958 0.972 -13.51 0.234 76.465 0.234 76.465 0.972 -13.51
99.917 0.952 -17.762 0.305 72.205 0.305 72.205 0.952 -17.762
124.875 0.928 -21.824 0.372 68.135 0.372 68.135 0.928 -21.824
149.833 0.901 -25.672 0.433 64.279 0.433 64.279 0.901 -25.672
174.792 0.872 -29.291 0.489 60.652 0.489 60.652 0.872 -29.291
199.75 0.841 -32.674 0.54 57.26 0.54 57.26 0.841 -32.674
224.708 0.81 -35.825 0.585 54.102 0.585 54.102 0.81 -35.825
249.667 0.779 -38.748 0.626 51.17 0.626 51.17 0.779 -38.748
274.625 0.748 -41.455 0.662 48.455 0.662 48.455 0.748 -41.455
299.583 0.719 -43.959 0.694 45.943 0.694 45.943 0.719 -43.959
324.542 0.69 -46.273 0.723 43.62 0.723 43.62 0.69 -46.273
349.5 0.662 -48.412 0.748 41.473 0.748 41.473 0.662 -48.412
374.458 0.636 -50.389 0.77 39.487 0.77 39.487 0.636 -50.389
399.417 0.611 -52.22 0.79 37.648 0.79 37.648 0.611 -52.22
424.375 0.587 -53.916 0.808 35.944 0.808 35.944 0.587 -53.916
449.333 0.564 -55.489 0.824 34.362 0.824 34.362 0.564 -55.489
474.292 0.543 -56.951 0.838 32.892 0.838 32.892 0.543 -56.951
499.25 0.523 -58.311 0.851 31.523 0.851 31.523 0.523 -58.311
524.208 0.504 -59.578 0.862 30.248 0.862 30.248 0.504 -59.578
549.167 0.486 -60.761 0.873 29.056 0.873 29.056 0.486 -60.761
574.125 0.469 -61.867 0.882 27.941 0.882 27.941 0.469 -61.867
599.083 0.452 -62.902 0.89 26.897 0.89 26.897 0.452 -62.902
624.042 0.437 -63.874 0.898 25.917 0.898 25.917 0.437 -63.874
649 0.423 -64.786 0.905 24.995 0.905 24.995 0.423 -64.786
673.958 0.409 -65.645 0.911 24.128 0.911 24.128 0.409 -65.645
698.917 0.396 -66.454 0.917 23.31 0.917 23.31 0.396 -66.454
723.875 0.383 -67.218 0.922 22.537 0.922 22.537 0.383 -67.218
748.833 0.371 -67.939 0.927 21.806 0.927 21.806 0.371 -67.939
773.792 0.36 -68.622 0.931 21.114 0.931 21.114 0.36 -68.622
798.75 0.35 -69.269 0.935 20.458 0.935 20.458 0.35 -69.269
823.708 0.339 -69.884 0.939 19.834 0.939 19.834 0.339 -69.884
848.667 0.33 -70.467 0.942 19.241 0.942 19.241 0.33 -70.467
873.625 0.32 -71.022 0.946 18.677 0.946 18.677 0.32 -71.022
898.583 0.311 -71.551 0.949 18.138 0.949 18.138 0.311 -71.551
923.542 0.303 -72.055 0.951 17.625 0.951 17.625 0.303 -72.055
948.5 0.295 -72.536 0.954 17.134 0.954 17.134 0.295 -72.536
973.458 0.287 -72.995 0.956 16.664 0.956 16.664 0.287 -72.995
998.417 0.279 -73.435 0.959 16.215 0.959 16.215 0.279 -73.435
1023.375 0.272 -73.856 0.961 15.784 0.961 15.784 0.272 -73.856
1048.333 0.265 -74.259 0.963 15.371 0.963 15.371 0.265 -74.259
1073.292 0.258 -74.646 0.964 14.973 0.964 14.973 0.258 -74.646
1098.25 0.252 -75.017 0.966 14.592 0.966 14.592 0.252 -75.017
1123.208 0.246 -75.374 0.968 14.224 0.968 14.224 0.246 -75.374
1148.167 0.24 -75.717 0.969 13.871 0.969 13.871 0.24 -75.717
1173.125 0.234 -76.047 0.971 13.53 0.971 13.53 0.234 -76.047
1198.083 0.228 -76.365 0.972 13.201 0.972 13.201 0.228 -76.365
1223.042 0.223 -76.671 0.973 12.884 0.973 12.884 0.223 -76.671
1248 0.218 -76.966 0.974 12.577 0.974 12.577 0.218 -76.966
1272.958 0.213 -77.251 0.975 12.281 0.975 12.281 0.213 -77.251
1297.917 0.208 -77.526 0.976 11.994 0.976 11.994 0.208 -77.526
1322.875 0.203 -77.792 0.977 11.717 0.977 11.717 0.203 -77.792
1347.833 0.198 -78.049 0.978 11.448 0.978 11.448 0.198 -78.049
1372.792 0.194 -78.298 0.979 11.187 0.979 11.187 0.194 -78.298
1397.75 0.19 -78.539 0.98 10.934 0.98 10.934 0.19 -78.539
1422.708 0.185 -78.772 0.981 10.689 0.981 10.689 0.185 -78.772
1447.667 0.181 -78.998 0.982 10.45 0.982 10.45 0.181 -78.998
1472.625 0.177 -79.216 0.982 10.219 0.982 10.219 0.177 -79.216
1497.583 0.174 -79.429 0.983 9.994 0.983 9.994 0.174 -79.429
1522.542 0.17 -79.634 0.984 9.775 0.984 9.775 0.17 -79.634
1547.5 0.166 -79.834 0.984 9.561 0.984 9.561 0.166 -79.834
1572.458 0.163 -80.028 0.985 9.354 0.985 9.354 0.163 -80.028
1597.417 0.159 -80.217 0.986 9.151 0.986 9.151 0.159 -80.217
1622.375 0.156 -80.4 0.986 8.954 0.986 8.954 0.156 -80.4
1647.333 0.152 -80.578 0.987 8.762 0.987 8.762 0.152 -80.578
1672.292 0.149 -80.751 0.987 8.574 0.987 8.574 0.149 -80.751
1697.25 0.146 -80.919 0.988 8.391 0.988 8.391 0.146 -80.919
1722.208 0.143 -81.083 0.988 8.212 0.988 8.212 0.143 -81.083
1747.167 0.14 -81.242 0.988 8.037 0.988 8.037 0.14 -81.242
1772.125 0.137 -81.397 0.989 7.866 0.989 7.866 0.137 -81.397
1797.083 0.134 -81.548 0.989 7.699 0.989 7.699 0.134 -81.548
1822.042 0.131 -81.695 0.99 7.535 0.99 7.535 0.131 -81.695
1847 0.128 -81.838 0.99 7.375 0.99 7.375 0.128 -81.838
1871.958 0.126 -81.977 0.99 7.219 0.99 7.219 0.126 -81.977
1896.917 0.123 -82.113 0.991 7.065 0.991 7.065 0.123 -82.113
1921.875 0.12 -82.245 0.991 6.915 0.991 6.915 0.12 -82.245
1946.833 0.118 -82.374 0.991 6.768 0.991 6.768 0.118 -82.374
1971.792 0.115 -82.5 0.992 6.623 0.992 6.623 0.115 -82.5
1996.75 0.113 -82.622 0.992 6.482 0.992 6.482 0.113 -82.622
2021.708 0.11 -82.741 0.992 6.343 0.992 6.343 0.11 -82.741
2046.667 0.108 -82.857 0.992 6.206 0.992 6.206 0.108 -82.857
2071.625 0.106 -82.97 0.993 6.073 0.993 6.073 0.106 -82.97
2096.583 0.104 -83.081 0.993 5.941 0.993 5.941 0.104 -83.081
2121.542 0.101 -83.188 0.993 5.812 0.993 5.812 0.101 -83.188
2146.5 0.099 -83.292 0.993 5.685 0.993 5.685 0.099 -83.292
2171.458 0.097 -83.394 0.994 5.56 0.994 5.56 0.097 -83.394
2196.417 0.095 -83.493 0.994 5.438 0.994 5.438 0.095 -83.493
2221.375 0.093 -83.589 0.994 5.317 0.994 5.317 0.093 -83.589
2246.333 0.091 -83.683 0.994 5.198 0.994 5.198 0.091 -83.683
2271.292 0.089 -83.773 0.994 5.082 0.994 5.082 0.089 -83.773
2296.25 0.087 -83.862 0.994 4.967 0.994 4.967 0.087 -83.862
2321.208 0.085 -83.947 0.995 4.854 0.995 4.854 0.085 -83.947
2346.167 0.083 -84.031 0.995 4.742 0.995 4.742 0.083 -84.031
2371.125 0.081 -84.111 0.995 4.633 0.995 4.633 0.081 -84.111
2396.083 0.079 -84.189 0.995 4.525 0.995 4.525 0.079 -84.189
2421.042 0.077 -84.264 0.995 4.418 0.995 4.418 0.077 -84.264
2446 0.075 -84.337 0.995 4.313 0.995 4.313 0.075 -84.337
2470.958 0.073 -84.407 0.996 4.21 0.996 4.21 0.073 -84.407
2495.917 0.072 -84.475 0.996 4.108 0.996 4.108 0.072 -84.475
2520.875 0.07 -84.54 0.996 4.007 0.996 4.007 0.07 -84.54
2545.833 0.068 -84.602 0.996 3.908 0.996 3.908 0.068 -84.602
2570.792 0.066 -84.662 0.996 3.81 0.996 3.81 0.066 -84.662
2595.75 0.065 -84.719 0.996 3.713 0.996 3.713 0.065 -84.719
2620.708 0.063 -84.772 0.996 3.617 0.996 3.617 0.063 -84.772
2645.667 0.061 -84.824 0.996 3.523 0.996 3.523 0.061 -84.824
2670.625 0.06 -84.872 0.996 3.43 0.996 3.43 0.06 -84.872
2695.583 0.058 -84.917 0.997 3.338 0.997 3.338 0.058 -84.917
2720.542 0.057 -84.959 0.997 3.247 0.997 3.247 0.057 -84.959
2745.5 0.055 -84.997 0.997 3.158 0.997 3.158 0.055 -84.997
2770.458 0.054 -85.033 0.997 3.069 0.997 3.069 0.054 -85.033
2795.417 0.052 -85.064 0.997 2.981 0.997 2.981 0.052 -85.064
2820.375 0.051 -85.093 0.997 2.895 0.997 2.895 0.051 -85.093
2845.333 0.049 -85.117 0.997 2.809 0.997 2.809 0.049 -85.117
2870.292 0.048 -85.137 0.997 2.724 0.997 2.724 0.048 -85.137
2895.25 0.046 -85.153 0.997 2.641 0.997 2.641 0.046 -85.153
2920.208 0.045 -85.164 0.997 2.558 0.997 2.558 0.045 -85.164
2945.167 0.043 -85.171 0.997 2.476 0.997 2.476 0.043 -85.171
2970.125 0.042 -85.172 0.997 2.395 0.997 2.395 0.042 -85.172
2995.083 0.04 -85.168 0.997 2.314 0.997 2.314 0.04 -85.168
3020.042 0.039 -85.158 0.997 2.235 0.997 2.235 0.039 -85.158
3045 0.038 -85.142 0.998 2.156 0.998 2.156 0.038 -85.142
3069.958 0.036 -85.118 0.998 2.078 0.998 2.078 0.036 -85.118
3094.917 0.035 -85.087 0.998 2.001 0.998 2.001 0.035 -85.087
3119.875 0.034 -85.048 0.998 1.925 0.998 1.925 0.034 -85.048
3144.833 0.032 -85 0.998 1.849 0.998 1.849 0.032 -85
3169.792 0.031 -84.942 0.998 1.774 0.998 1.774 0.031 -84.942
3194.75 0.03 -84.873 0.998 1.7 0.998 1.7 0.03 -84.873
3219.708 0.028 -84.792 0.998 1.626 0.998 1.626 0.028 -84.792
3244.667 0.027 -84.697 0.998 1.553 0.998 1.553 0.027 -84.697
3269.625 0.026 -84.587 0.998 1.481 0.998 1.481 0.026 -84.587
3294.583 0.025 -84.459 0.998 1.409 0.998 1.409 0.025 -84.459
3319.542 0.023 -84.311 0.998 1.338 0.998 1.338 0.023 -84.311
3344.5 0.022 -84.141 0.998 1.268 0.998 1.268 0.022 -84.141
3369.458 0.021 -83.944 0.998 1.198 0.998 1.198 0.021 -83.944
3394.417 0.02 -83.717 0.998 1.128 0.998 1.128 0.02 -83.717
3419.375 0.019 -83.453 0.998 1.06 0.998 1.06 0.019 -83.453
3444.333 0.017 -83.147 0.998 0.992 0.998 0.992 0.017 -83.147
3469.292 0.016 -82.788 0.998 0.924 0.998 0.924 0.016 -82.788
3494.25 0.015 -82.368 0.998 0.857 0.998 0.857 0.015 -82.368
3519.208 0.014 -81.869 0.998 0.79 0.998 0.79 0.014 -81.869
3544.167 0.013 -81.274 0.998 0.724 0.998 0.724 0.013 -81.274
3569.125 0.012 -80.555 0.998 0.659 0.998 0.659 0.012 -80.555
3594.083 0.011 -79.674 0.998 0.594 0.998 0.594 0.011 -79.674
3619.042 9.402e-3 -78.577 0.998 0.529 0.998 0.529 9.402e-3 -78.577
3644 8.306e-3 -77.181 0.998 0.465 0.998 0.465 8.306e-3 -77.181
3668.958 7.224e-3 -75.359 0.998 0.401 0.998 0.401 7.224e-3 -75.359
3693.917 6.16e-3 -72.896 0.998 0.338 0.998 0.338 6.16e-3 -72.896
3718.875 5.121e-3 -69.419 0.998 0.275 0.998 0.275 5.121e-3 -69.419
3743.833 4.117e-3 -64.219 0.998 0.213 0.998 0.213 4.117e-3 -64.219
3768.792 3.177e-3 -55.835 0.998 0.151 0.998 0.151 3.177e-3 -55.835
3793.75 2.364e-3 -41.179 0.998 0.089 0.998 0.089 2.364e-3 -41.179
3818.708 1.844e-3 -15.471 0.998 0.028 0.998 0.028 1.844e-3 -15.471
3843.667 1.865e-3 17.66 0.998 -0.032 0.998 -0.032 1.865e-3 17.66
3868.625 2.404e-3 42.255 0.998 -0.093 0.998 -0.093 2.404e-3 42.255
3893.583 3.204e-3 56.16 0.998 -0.153 0.998 -0.153 3.204e-3 56.16
3918.542 4.109e-3 64.166 0.998 -0.212 0.998 -0.212 4.109e-3 64.166
3943.5 5.061e-3 69.171 0.998 -0.271 0.998 -0.271 5.061e-3 69.171
3968.458 6.033e-3 72.539 0.998 -0.33 0.998 -0.33 6.033e-3 72.539
3993.417 7.014e-3 74.936 0.998 -0.389 0.998 -0.389 7.014e-3 74.936
4018.375 8e-3 76.719 0.998 -0.447 0.998 -0.447 8e-3 76.719
4043.333 8.986e-3 78.09 0.998 -0.505 0.998 -0.505 8.986e-3 78.09
4068.292 9.97e-3 79.172 0.998 -0.562 0.998 -0.562 9.97e-3 79.172
4093.25 0.011 80.044 0.998 -0.619 0.998 -0.619 0.011 80.044
4118.208 0.012 80.759 0.998 -0.676 0.998 -0.676 0.012 80.759
4143.167 0.013 81.354 0.998 -0.732 0.998 -0.732 0.013 81.354
4168.125 0.014 81.855 0.998 -0.789 0.998 -0.789 0.014 81.855
4193.083 0.015 82.281 0.998 -0.844 0.998 -0.844 0.015 82.281
4218.042 0.016 82.646 0.998 -0.9 0.998 -0.9 0.016 82.646
4243 0.017 82.961 0.998 -0.955 0.998 -0.955 0.017 82.961
4267.958 0.018 83.235 0.998 -1.01 0.998 -1.01 0.018 83.235
4292.917 0.019 83.474 0.998 -1.065 0.998 -1.065 0.019 83.474
4317.875 0.02 83.684 0.998 -1.119 0.998 -1.119 0.02 83.684
4342.833 0.021 83.868 0.998 -1.173 0.998 -1.173 0.021 83.868
4367.792 0.021 84.031 0.998 -1.227 0.998 -1.227 0.021 84.031
4392.75 0.022 84.175 0.998 -1.281 0.998 -1.281 0.022 84.175
4417.708 0.023 84.302 0.998 -1.334 0.998 -1.334 0.023 84.302
4442.667 0.024 84.416 0.998 -1.387 0.998 -1.387 0.024 84.416
4467.625 0.025 84.516 0.998 -1.44 0.998 -1.44 0.025 84.516
4492.583 0.026 84.606 0.998 -1.492 0.998 -1.492 0.026 84.606
4517.542 0.027 84.685 0.998 -1.545 0.998 -1.545 0.027 84.685
4542.5 0.028 84.756 0.998 -1.597 0.998 -1.597 0.028 84.756
4567.458 0.029 84.818 0.998 -1.648 0.998 -1.648 0.029 84.818
4592.417 0.03 84.874 0.998 -1.7 0.998 -1.7 0.03 84.874
4617.375 0.031 84.922 0.998 -1.751 0.998 -1.751 0.031 84.922
4642.333 0.032 84.966 0.998 -1.802 0.998 -1.802 0.032 84.966
4667.292 0.032 85.003 0.998 -1.853 0.998 -1.853 0.032 85.003
4692.25 0.033 85.036 0.998 -1.904 0.998 -1.904 0.033 85.036
4717.208 0.034 85.065 0.998 -1.954 0.998 -1.954 0.034 85.065
4742.167 0.035 85.089 0.998 -2.005 0.998 -2.005 0.035 85.089
4767.125 0.036 85.11 0.998 -2.055 0.998 -2.055 0.036 85.11
4792.083 0.037 85.127 0.998 -2.104 0.998 -2.104 0.037 85.127
4817.042 0.038 85.141 0.998 -2.154 0.998 -2.154 0.038 85.141
4842 0.038 85.152 0.997 -2.203 0.997 -2.203 0.038 85.152
4866.958 0.039 85.161 0.997 -2.253 0.997 -2.253 0.039 85.161
4891.917 0.04 85.167 0.997 -2.302 0.997 -2.302 0.04 85.167
4916.875 0.041 85.171 0.997 -2.35 0.997 -2.35 0.041 85.171
4941.833 0.042 85.172 0.997 -2.399 0.997 -2.399 0.042 85.172
4966.792 0.043 85.172 0.997 -2.447 0.997 -2.447 0.043 85.172
4991.75 0.044 85.17 0.997 -2.496 0.997 -2.496 0.044 85.17
5016.708 0.044 85.166 0.997 -2.544 0.997 -2.544 0.044 85.166
5041.667 0.045 85.16 0.997 -2.592 0.997 -2.592 0.045 85.16
5066.625 0.046 85.153 0.997 -2.639 0.997 -2.639 0.046 85.153
5091.583 0.047 85.145 0.997 -2.687 0.997 -2.687 0.047 85.145
5116.542 0.048 85.135 0.997 -2.734 0.997 -2.734 0.048 85.135
5141.5 0.049 85.124 0.997 -2.781 0.997 -2.781 0.049 85.124
5166.458 0.049 85.112 0.997 -2.828 0.997 -2.828 0.049 85.112
5191.417 0.05 85.098 0.997 -2.875 0.997 -2.875 0.05 85.098
5216.375 0.051 85.084 0.997 -2.922 0.997 -2.922 0.051 85.084
5241.333 0.052 85.069 0.997 -2.968 0.997 -2.968 0.052 85.069
5266.292 0.053 85.053 0.997 -3.015 0.997 -3.015 0.053 85.053
5291.25 0.053 85.036 0.997 -3.061 0.997 -3.061 0.053 85.036
5316.208 0.054 85.018 0.997 -3.107 0.997 -3.107 0.054 85.018
5341.167 0.055 84.999 0.997 -3.153 0.997 -3.153 0.055 84.999
5366.125 0.056 84.98 0.997 -3.199 0.997 -3.199 0.056 84.98
5391.083 0.057 84.96 0.997 -3.244 0.997 -3.244 0.057 84.96
5416.042 0.057 84.939 0.997 -3.29 0.997 -3.29 0.057 84.939
5441 0.058 84.918 0.997 -3.335 0.997 -3.335 0.058 84.918
5465.958 0.059 84.896 0.996 -3.38 0.996 -3.38 0.059 84.896
5490.917 0.06 84.874 0.996 -3.425 0.996 -3.425 0.06 84.874
5515.875 0.061 84.851 0.996 -3.47 0.996 -3.47 0.061 84.851
5540.833 0.061 84.828 0.996 -3.515 0.996 -3.515 0.061 84.828
5565.792 0.062 84.804 0.996 -3.56 0.996 -3.56 0.062 84.804
5590.75 0.063 84.78 0.996 -3.604 0.996 -3.604 0.063 84.78
5615.708 0.064 84.755 0.996 -3.649 0.996 -3.649 0.064 84.755
5640.667 0.064 84.73 0.996 -3.693 0.996 -3.693 0.064 84.73
5665.625 0.065 84.705 0.996 -3.737 0.996 -3.737 0.065 84.705
5690.583 0.066 84.679 0.996 -3.781 0.996 -3.781 0.066 84.679
5715.542 0.067 84.653 0.996 -3.825 0.996 -3.825 0.067 84.653
5740.5 0.067 84.626 0.996 -3.869 0.996 -3.869 0.067 84.626
5765.458 0.068 84.599 0.996 -3.912 0.996 -3.912 0.068 84.599
5790.417 0.069 84.572 0.996 -3.956 0.996 -3.956 0.069 84.572
5815.375 0.07 84.545 0.996 -3.999 0.996 -3.999 0.07 84.545
5840.333 0.071 84.517 0.996 -4.042 0.996 -4.042 0.071 84.517
5865.292 0.071 84.489 0.996 -4.086 0.996 -4.086 0.071 84.489
5890.25 0.072 84.461 0.996 -4.129 0.996 -4.129 0.072 84.461
5915.208 0.073 84.433 0.996 -4.171 0.996 -4.171 0.073 84.433
5940.167 0.074 84.404 0.996 -4.214 0.996 -4.214 0.074 84.404
5965.125 0.074 84.375 0.995 -4.257 0.995 -4.257 0.074 84.375
5990.083 0.075 84.346 0.995 -4.3 0.995 -4.3 0.075 84.346
6015.042 0.076 84.317 0.995 -4.342 0.995 -4.342 0.076 84.317
6040 0.076 84.288 0.995 -4.384 0.995 -4.384 0.076 84.288
6064.958 0.077 84.258 0.995 -4.427 0.995 -4.427 0.077 84.258
6089.917 0.078 84.229 0.995 -4.469 0.995 -4.469 0.078 84.229
6114.875 0.079 84.199 0.995 -4.511 0.995 -4.511 0.079 84.199
6139.833 0.079 84.169 0.995 -4.553 0.995 -4.553 0.079 84.169
6164.792 0.08 84.139 0.995 -4.595 0.995 -4.595 0.08 84.139
6189.75 0.081 84.108 0.995 -4.637 0.995 -4.637 0.081 84.108
6214.708 0.082 84.078 0.995 -4.678 0.995 -4.678 0.082 84.078
6239.667 0.082 84.047 0.995 -4.72 0.995 -4.72 0.082 84.047
6264.625 0.083 84.017 0.995 -4.761 0.995 -4.761 0.083 84.017
6289.583 0.084 83.986 0.995 -4.803 0.995 -4.803 0.084 83.986
6314.542 0.084 83.955 0.995 -4.844 0.995 -4.844 0.084 83.955
6339.5 0.085 83.924 0.995 -4.885 0.995 -4.885 0.085 83.924
6364.458 0.086 83.893 0.995 -4.926 0.995 -4.926 0.086 83.893
6389.417 0.087 83.861 0.994 -4.967 0.994 -4.967 0.087 83.861
6414.375 0.087 83.83 0.994 -5.008 0.994 -5.008 0.087 83.83
6439.333 0.088 83.799 0.994 -5.049 0.994 -5.049 0.088 83.799
6464.292 0.089 83.767 0.994 -5.09 0.994 -5.09 0.089 83.767
6489.25 0.089 83.736 0.994 -5.13 0.994 -5.13 0.089 83.736
6514.208 0.09 83.704 0.994 -5.171 0.994 -5.171 0.09 83.704
6539.167 0.091 83.672 0.994 -5.211 0.994 -5.211 0.091 83.672
6564.125 0.092 83.641 0.994 -5.252 0.994 -5.252 0.092 83.641
6589.083 0.092 83.609 0.994 -5.292 0.994 -5.292 0.092 83.609
6614.042 0.093 83.577 0.994 -5.332 0.994 -5.332 0.093 83.577
6639 0.094 83.545 0.994 -5.373 0.994 -5.373 0.094 83.545
6663.958 0.094 83.513 0.994 -5.413 0.994 -5.413 0.094 83.513
6688.917 0.095 83.481 0.994 -5.453 0.994 -5.453 0.095 83.481
6713.875 0.096 83.449 0.994 -5.493 0.994 -5.493 0.096 83.449
6738.833 0.096 83.417 0.994 -5.532 0.994 -5.532 0.096 83.417
6763.792 0.097 83.384 0.994 -5.572 0.994 -5.572 0.097 83.384
6788.75 0.098 83.352 0.993 -5.612 0.993 -5.612 0.098 83.352
6813.708 0.098 83.32 0.993 -5.651 0.993 -5.651 0.098 83.32
6838.667 0.099 83.287 0.993 -5.691 0.993 -5.691 0.099 83.287
6863.625 0.1 83.255 0.993 -5.73 0.993 -5.73 0.1 83.255
6888.583 0.101 83.223 0.993 -5.77 0.993 -5.77 0.101 83.223
6913.542 0.101 83.19 0.993 -5.809 0.993 -5.809 0.101 83.19
6938.5 0.102 83.158 0.993 -5.848 0.993 -5.848 0.102 83.158
6963.458 0.103 83.125 0.993 -5.888 0.993 -5.888 0.103 83.125
6988.417 0.103 83.093 0.993 -5.927 0.993 -5.927 0.103 83.093
7013.375 0.104 83.06 0.993 -5.966 0.993 -5.966 0.104 83.06
7038.333 0.105 83.027 0.993 -6.005 0.993 -6.005 0.105 83.027
7063.292 0.105 82.995 0.993 -6.044 0.993 -6.044 0.105 82.995
7088.25 0.106 82.962 0.993 -6.082 0.993 -6.082 0.106 82.962
7113.208 0.107 82.93 0.993 -6.121 0.993 -6.121 0.107 82.93
7138.167 0.107 82.897 0.992 -6.16 0.992 -6.16 0.107 82.897
7163.125 0.108 82.864 0.992 -6.198 0.992 -6.198 0.108 82.864
7188.083 0.109 82.831 0.992 -6.237 0.992 -6.237 0.109 82.831
7213.042 0.109 82.799 0.992 -6.275 0.992 -6.275 0.109 82.799
7238 0.11 82.766 0.992 -6.314 0.992 -6.314 0.11 82.766
7262.958 0.111 82.733 0.992 -6.352 0.992 -6.352 0.111 82.733
7287.917 0.111 82.7 0.992 -6.391 0.992 -6.391 0.111 82.7
7312.875 0.112 82.668 0.992 -6.429 0.992 -6.429 0.112 82.668
7337.833 0.113 82.635 0.992 -6.467 0.992 -6.467 0.113 82.635
7362.792 0.113 82.602 0.992 -6.505 0.992 -6.505 0.113 82.602
7387.75 0.114 82.569 0.992 -6.543 0.992 -6.543 0.114 82.569
7412.708 0.115 82.536 0.992 -6.581 0.992 -6.581 0.115 82.536
7437.667 0.115 82.504 0.992 -6.619 0.992 -6.619 0.115 82.504
7462.625 0.116 82.471 0.991 -6.657 0.991 -6.657 0.116 82.471
7487.583 0.117 82.438 0.991 -6.695 0.991 -6.695 0.117 82.438
7512.542 0.117 82.405 0.991 -6.733 0.991 -6.733 0.117 82.405
7537.5 0.118 82.372 0.991 -6.77 0.991 -6.77 0.118 82.372
7562.458 0.119 82.339 0.991 -6.808 0.991 -6.808 0.119 82.339
7587.417 0.119 82.306 0.991 -6.845 0.991 -6.845 0.119 82.306
7612.375 0.12 82.274 0.991 -6.883 0.991 -6.883 0.12 82.274
7637.333 0.121 82.241 0.991 -6.92 0.991 -6.92 0.121 82.241
7662.292 0.121 82.208 0.991 -6.958 0.991 -6.958 0.121 82.208
7687.25 0.122 82.175 0.991 -6.995 0.991 -6.995 0.122 82.175
7712.208 0.122 82.142 0.991 -7.033 0.991 -7.033 0.122 82.142
7737.167 0.123 82.109 0.991 -7.07 0.991 -7.07 0.123 82.109
7762.125 0.124 82.076 0.991 -7.107 0.991 -7.107 0.124 82.076
7787.083 0.124 82.044 0.99 -7.144 0.99 -7.144 0.124 82.044
7812.042 0.125 82.011 0.99 -7.181 0.99 -7.181 0.125 82.011
7837 0.126 81.978 0.99 -7.218 0.99 -7.218 0.126 81.978
7861.958 0.126 81.945 0.99 -7.255 0.99 -7.255 0.126 81.945
7886.917 0.127 81.912 0.99 -7.292 0.99 -7.292 0.127 81.912
7911.875 0.128 81.879 0.99 -7.329 0.99 -7.329 0.128 81.879
7936.833 0.128 81.846 0.99 -7.366 0.99 -7.366 0.128 81.846
7961.792 0.129 81.814 0.99 -7.403 0.99 -7.403 0.129 81.814
7986.75 0.129 81.781 0.99 -7.44 0.99 -7.44 0.129 81.781
8011.708 0.13 81.748 0.99 -7.476 0.99 -7.476 0.13 81.748
8036.667 0.131 81.715 0.99 -7.513 0.99 -7.513 0.131 81.715
8061.625 0.131 81.682 0.99 -7.55 0.99 -7.55 0.131 81.682
8086.583 0.132 81.649 0.989 -7.586 0.989 -7.586 0.132 81.649
8111.542 0.133 81.617 0.989 -7.623 0.989 -7.623 0.133 81.617
8136.5 0.133 81.584 0.989 -7.659 0.989 -7.659 0.133 81.584
8161.458 0.134 81.551 0.989 -7.695 0.989 -7.695 0.134 81.551
8186.417 0.135 81.518 0.989 -7.732 0.989 -7.732 0.135 81.518
8211.375 0.135 81.486 0.989 -7.768 0.989 -7.768 0.135 81.486
8236.333 0.136 81.453 0.989 -7.804 0.989 -7.804 0.136 81.453
8261.292 0.136 81.42 0.989 -7.841 0.989 -7.841 0.136 81.42
