# MHZ S MA R 50

50 0.87 -29.49 0.492 60.466 0.492 60.466 0.87 -29.49
74.958 0.762 -40.297 0.647 49.637 0.647 49.637 0.762 -40.297
99.917 0.661 -48.506 0.749 41.406 0.749 41.406 0.661 -48.506
124.875 0.576 -54.717 0.816 35.172 0.816 35.172 0.576 -54.717
149.833 0.506 -59.478 0.861 30.389 0.861 30.389 0.506 -59.478
174.792 0.449 -63.197 0.893 26.648 0.893 26.648 0.449 -63.197
199.75 0.401 -66.159 0.915 23.663 0.915 23.663 0.401 -66.159
224.708 0.362 -68.562 0.931 21.238 0.931 21.238 0.362 -68.562
249.667 0.329 -70.545 0.943 19.232 0.943 19.232 0.329 -70.545
274.625 0.302 -72.205 0.952 17.549 0.952 17.549 0.302 -72.205
299.583 0.278 -73.612 0.959 16.118 0.959 16.118 0.278 -73.612
324.542 0.257 -74.82 0.965 14.887 0.965 14.887 0.257 -74.82
349.5 0.239 -75.867 0.97 13.816 0.97 13.816 0.239 -75.867
374.458 0.223 -76.783 0.974 12.877 0.974 12.877 0.223 -76.783
399.417 0.209 -77.59 0.977 12.046 0.977 12.046 0.209 -77.59
424.375 0.196 -78.306 0.979 11.305 0.979 11.305 0.196 -78.306
449.333 0.185 -78.946 0.981 10.64 0.981 10.64 0.185 -78.946
474.292 0.174 -79.52 0.983 10.04 0.983 10.04 0.174 -79.52
499.25 0.165 -80.039 0.985 9.496 0.985 9.496 0.165 -80.039
524.208 0.156 -80.51 0.986 8.999 0.986 8.999 0.156 -80.51
549.167 0.149 -80.938 0.988 8.543 0.988 8.543 0.149 -80.938
574.125 0.141 -81.33 0.989 8.125 0.989 8.125 0.141 -81.33
599.083 0.135 -81.69 0.99 7.737 0.99 7.737 0.135 -81.69
624.042 0.128 -82.021 0.99 7.378 0.99 7.378 0.128 -82.021
649 0.123 -82.326 0.991 7.045 0.991 7.045 0.123 -82.326
673.958 0.117 -82.608 0.992 6.733 0.992 6.733 0.117 -82.608
698.917 0.112 -82.869 0.992 6.441 0.992 6.441 0.112 -82.869
723.875 0.107 -83.112 0.993 6.168 0.993 6.168 0.107 -83.112
748.833 0.103 -83.338 0.993 5.91 0.993 5.91 0.103 -83.338
773.792 0.099 -83.549 0.994 5.667 0.994 5.667 0.099 -83.549
798.75 0.095 -83.745 0.994 5.437 0.994 5.437 0.095 -83.745
823.708 0.091 -83.928 0.995 5.22 0.995 5.22 0.091 -83.928
848.667 0.087 -84.1 0.995 5.013 0.995 5.013 0.087 -84.1
873.625 0.084 -84.26 0.995 4.817 0.995 4.817 0.084 -84.26
898.583 0.081 -84.409 0.995 4.63 0.995 4.63 0.081 -84.409
923.542 0.078 -84.549 0.996 4.451 0.996 4.451 0.078 -84.549
948.5 0.075 -84.68 0.996 4.281 0.996 4.281 0.075 -84.68
973.458 0.072 -84.802 0.996 4.117 0.996 4.117 0.072 -84.802
998.417 0.069 -84.915 0.996 3.961 0.996 3.961 0.069 -84.915
1023.375 0.066 -85.021 0.996 3.81 0.996 3.81 0.066 -85.021
1048.333 0.064 -85.12 0.997 3.666 0.997 3.666 0.064 -85.12
1073.292 0.062 -85.211 0.997 3.527 0.997 3.527 0.062 -85.211
1098.25 0.059 -85.295 0.997 3.393 0.997 3.393 0.059 -85.295
1123.208 0.057 -85.372 0.997 3.263 0.997 3.263 0.057 -85.372
1148.167 0.055 -85.443 0.997 3.138 0.997 3.138 0.055 -85.443
1173.125 0.053 -85.507 0.997 3.017 0.997 3.017 0.053 -85.507
1198.083 0.051 -85.564 0.997 2.9 0.997 2.9 0.051 -85.564
1223.042 0.049 -85.615 0.997 2.787 0.997 2.787 0.049 -85.615
1248 0.047 -85.659 0.998 2.677 0.998 2.677 0.047 -85.659
1272.958 0.045 -85.697 0.998 2.57 0.998 2.57 0.045 -85.697
1297.917 0.043 -85.727 0.998 2.466 0.998 2.466 0.043 -85.727
1322.875 0.041 -85.751 0.998 2.365 0.998 2.365 0.041 -85.751
1347.833 0.04 -85.768 0.998 2.267 0.998 2.267 0.04 -85.768
1372.792 0.038 -85.777 0.998 2.172 0.998 2.172 0.038 -85.777
1397.75 0.036 -85.778 0.998 2.079 0.998 2.079 0.036 -85.778
1422.708 0.035 -85.771 0.998 1.988 0.998 1.988 0.035 -85.771
1447.667 0.033 -85.755 0.998 1.899 0.998 1.899 0.033 -85.755
1472.625 0.032 -85.73 0.998 1.812 0.998 1.812 0.032 -85.73
1497.583 0.03 -85.694 0.998 1.728 0.998 1.728 0.03 -85.694
1522.542 0.029 -85.647 0.998 1.645 0.998 1.645 0.029 -85.647
1547.5 0.027 -85.588 0.998 1.564 0.998 1.564 0.027 -85.588
1572.458 0.026 -85.515 0.998 1.484 0.998 1.484 0.026 -85.515
1597.417 0.025 -85.428 0.998 1.407 0.998 1.407 0.025 -85.428
1622.375 0.023 -85.323 0.998 1.331 0.998 1.331 0.023 -85.323
1647.333 0.022 -85.199 0.998 1.256 0.998 1.256 0.022 -85.199
1672.292 0.021 -85.053 0.998 1.183 0.998 1.183 0.021 -85.053
1697.25 0.019 -84.882 0.998 1.111 0.998 1.111 0.019 -84.882
1722.208 0.018 -84.681 0.998 1.04 0.998 1.04 0.018 -84.681
1747.167 0.017 -84.445 0.998 0.971 0.998 0.971 0.017 -84.445
1772.125 0.016 -84.168 0.999 0.902 0.999 0.902 0.016 -84.168
1797.083 0.015 -83.841 0.999 0.835 0.999 0.835 0.015 -83.841
1822.042 0.013 -83.453 0.999 0.769 0.999 0.769 0.013 -83.453
1847 0.012 -82.989 0.999 0.704 0.999 0.704 0.012 -82.989
1871.958 0.011 -82.428 0.999 0.64 0.999 0.64 0.011 -82.428
1896.917 0.01 -81.742 0.999 0.577 0.999 0.577 0.01 -81.742
1921.875 9.088e-3 -80.89 0.999 0.515 0.999 0.515 9.088e-3 -80.89
1946.833 8.033e-3 -79.812 0.999 0.454 0.999 0.454 8.033e-3 -79.812
1971.792 6.996e-3 -78.413 0.999 0.393 0.999 0.393 6.996e-3 -78.413
1996.75 5.98e-3 -76.538 0.999 0.334 0.999 0.334 5.98e-3 -76.538
2021.708 4.986e-3 -73.918 0.999 0.275 0.999 0.275 4.986e-3 -73.918
2046.667 4.021e-3 -70.043 0.999 0.217 0.999 0.217 4.021e-3 -70.043
2071.625 3.099e-3 -63.845 0.999 0.16 0.999 0.16 3.099e-3 -63.845
2096.583 2.253e-3 -52.829 0.999 0.103 0.999 0.103 2.253e-3 -52.829
2121.542 1.588e-3 -31.154 0.999 0.047 0.999 0.047 1.588e-3 -31.154
2146.5 1.366e-3 5.931 0.999 -8.095e-3 0.999 -8.095e-3 1.366e-3 5.931
2171.458 1.744e-3 38.789 0.999 -0.063 0.999 -0.063 1.744e-3 38.789
2196.417 2.448e-3 56.177 0.999 -0.117 0.999 -0.117 2.448e-3 56.177
2221.375 3.264e-3 65.238 0.999 -0.17 0.999 -0.17 3.264e-3 65.238
2246.333 4.12e-3 70.527 0.999 -0.223 0.999 -0.223 4.12e-3 70.527
2271.292 4.99e-3 73.929 0.999 -0.275 0.999 -0.275 4.99e-3 73.929
2296.25 5.863e-3 76.279 0.999 -0.327 0.999 -0.327 5.863e-3 76.279
2321.208 6.735e-3 77.988 0.999 -0.378 0.999 -0.378 6.735e-3 77.988
2346.167 7.604e-3 79.282 0.999 -0.429 0.999 -0.429 7.604e-3 79.282
2371.125 8.467e-3 80.291 0.999 -0.479 0.999 -0.479 8.467e-3 80.291
2396.083 9.325e-3 81.096 0.999 -0.529 0.999 -0.529 9.325e-3 81.096
2421.042 0.01 81.752 0.999 -0.578 0.999 -0.578 0.01 81.752
2446 0.011 82.295 0.999 -0.627 0.999 -0.627 0.011 82.295
2470.958 0.012 82.749 0.999 -0.675 0.999 -0.675 0.012 82.749
2495.917 0.013 83.134 0.999 -0.723 0.999 -0.723 0.013 83.134
2520.875 0.014 83.463 0.999 -0.771 0.999 -0.771 0.014 83.463
2545.833 0.014 83.746 0.999 -0.818 0.999 -0.818 0.014 83.746
2570.792 0.015 83.992 0.999 -0.865 0.999 -0.865 0.015 83.992
2595.75 0.016 84.207 0.999 -0.911 0.999 -0.911 0.016 84.207
2620.708 0.017 84.394 0.999 -0.957 0.999 -0.957 0.017 84.394
2645.667 0.018 84.56 0.998 -1.003 0.998 -1.003 0.018 84.56
2670.625 0.018 84.706 0.998 -1.048 0.998 -1.048 0.018 84.706
2695.583 0.019 84.835 0.998 -1.093 0.998 -1.093 0.019 84.835
2720.542 0.02 84.95 0.998 -1.138 0.998 -1.138 0.02 84.95
2745.5 0.021 85.052 0.998 -1.182 0.998 -1.182 0.021 85.052
2770.458 0.021 85.143 0.998 -1.226 0.998 -1.226 0.021 85.143
2795.417 0.022 85.224 0.998 -1.27 0.998 -1.27 0.022 85.224
2820.375 0.023 85.296 0.998 -1.313 0.998 -1.313 0.023 85.296
2845.333 0.024 85.361 0.998 -1.357 0.998 -1.357 0.024 85.361
2870.292 0.024 85.419 0.998 -1.4 0.998 -1.4 0.024 85.419
2895.25 0.025 85.47 0.998 -1.442 0.998 -1.442 0.025 85.47
2920.208 0.026 85.516 0.998 -1.485 0.998 -1.485 0.026 85.516
2945.167 0.027 85.556 0.998 -1.527 0.998 -1.527 0.027 85.556
2970.125 0.027 85.592 0.998 -1.569 0.998 -1.569 0.027 85.592
2995.083 0.028 85.624 0.998 -1.61 0.998 -1.61 0.028 85.624
3020.042 0.029 85.652 0.998 -1.652 0.998 -1.652 0.029 85.652
3045 0.03 85.676 0.998 -1.693 0.998 -1.693 0.03 85.676
3069.958 0.03 85.697 0.998 -1.734 0.998 -1.734 0.03 85.697
3094.917 0.031 85.715 0.998 -1.775 0.998 -1.775 0.031 85.715
3119.875 0.032 85.731 0.998 -1.815 0.998 -1.815 0.032 85.731
3144.833 0.032 85.744 0.998 -1.856 0.998 -1.856 0.032 85.744
3169.792 0.033 85.754 0.998 -1.896 0.998 -1.896 0.033 85.754
3194.75 0.034 85.763 0.998 -1.936 0.998 -1.936 0.034 85.763
3219.708 0.034 85.769 0.998 -1.975 0.998 -1.975 0.034 85.769
3244.667 0.035 85.774 0.998 -2.015 0.998 -2.015 0.035 85.774
3269.625 0.036 85.777 0.998 -2.054 0.998 -2.054 0.036 85.777
3294.583 0.037 85.779 0.998 -2.093 0.998 -2.093 0.037 85.779
3319.542 0.037 85.778 0.998 -2.132 0.998 -2.132 0.037 85.778
3344.5 0.038 85.777 0.998 -2.171 0.998 -2.171 0.038 85.777
3369.458 0.039 85.774 0.998 -2.21 0.998 -2.21 0.039 85.774
3394.417 0.039 85.77 0.998 -2.248 0.998 -2.248 0.039 85.77
3419.375 0.04 85.765 0.998 -2.287 0.998 -2.287 0.04 85.765
3444.333 0.041 85.759 0.998 -2.325 0.998 -2.325 0.041 85.759
3469.292 0.041 85.752 0.998 -2.363 0.998 -2.363 0.041 85.752
3494.25 0.042 85.744 0.998 -2.401 0.998 -2.401 0.042 85.744
3519.208 0.043 85.735 0.998 -2.438 0.998 -2.438 0.043 85.735
3544.167 0.043 85.725 0.998 -2.476 0.998 -2.476 0.043 85.725
3569.125 0.044 85.714 0.998 -2.513 0.998 -2.513 0.044 85.714
3594.083 0.045 85.703 0.998 -2.551 0.998 -2.551 0.045 85.703
3619.042 0.045 85.691 0.998 -2.588 0.998 -2.588 0.045 85.691
3644 0.046 85.678 0.998 -2.625 0.998 -2.625 0.046 85.678
3668.958 0.046 85.665 0.998 -2.662 0.998 -2.662 0.046 85.665
3693.917 0.047 85.651 0.998 -2.698 0.998 -2.698 0.047 85.651
3718.875 0.048 85.636 0.998 -2.735 0.998 -2.735 0.048 85.636
3743.833 0.048 85.621 0.997 -2.771 0.997 -2.771 0.048 85.621
3768.792 0.049 85.606 0.997 -2.808 0.997 -2.808 0.049 85.606
3793.75 0.05 85.59 0.997 -2.844 0.997 -2.844 0.05 85.59
3818.708 0.05 85.573 0.997 -2.88 0.997 -2.88 0.05 85.573
3843.667 0.051 85.556 0.997 -2.916 0.997 -2.916 0.051 85.556
3868.625 0.052 85.539 0.997 -2.952 0.997 -2.952 0.052 85.539
3893.583 0.052 85.521 0.997 -2.988 0.997 -2.988 0.052 85.521
3918.542 0.053 85.503 0.997 -3.024 0.997 -3.024 0.053 85.503
3943.5 0.053 85.485 0.997 -3.059 0.997 -3.059 0.053 85.485
3968.458 0.054 85.466 0.997 -3.095 0.997 -3.095 0.054 85.466
3993.417 0.055 85.447 0.997 -3.13 0.997 -3.13 0.055 85.447
4018.375 0.055 85.428 0.997 -3.165 0.997 -3.165 0.055 85.428
4043.333 0.056 85.408 0.997 -3.2 0.997 -3.2 0.056 85.408
4068.292 0.056 85.388 0.997 -3.235 0.997 -3.235 0.056 85.388
4093.25 0.057 85.368 0.997 -3.27 0.997 -3.27 0.057 85.368
4118.208 0.058 85.347 0.997 -3.305 0.997 -3.305 0.058 85.347
4143.167 0.058 85.327 0.997 -3.34 0.997 -3.34 0.058 85.327
4168.125 0.059 85.306 0.997 -3.375 0.997 -3.375 0.059 85.306
4193.083 0.059 85.285 0.997 -3.409 0.997 -3.409 0.059 85.285
4218.042 0.06 85.263 0.997 -3.444 0.997 -3.444 0.06 85.263
4243 0.061 85.242 0.997 -3.478 0.997 -3.478 0.061 85.242
4267.958 0.061 85.22 0.997 -3.513 0.997 -3.513 0.061 85.22
4292.917 0.062 85.198 0.997 -3.547 0.997 -3.547 0.062 85.198
4317.875 0.062 85.176 0.997 -3.581 0.997 -3.581 0.062 85.176
4342.833 0.063 85.153 0.997 -3.615 0.997 -3.615 0.063 85.153
4367.792 0.064 85.131 0.997 -3.649 0.997 -3.649 0.064 85.131
4392.75 0.064 85.108 0.997 -3.683 0.997 -3.683 0.064 85.108
4417.708 0.065 85.085 0.997 -3.717 0.997 -3.717 0.065 85.085
4442.667 0.065 85.062 0.997 -3.751 0.997 -3.751 0.065 85.062
4467.625 0.066 85.039 0.996 -3.785 0.996 -3.785 0.066 85.039
4492.583 0.067 85.016 0.996 -3.818 0.996 -3.818 0.067 85.016
4517.542 0.067 84.993 0.996 -3.852 0.996 -3.852 0.067 84.993
4542.5 0.068 84.969 0.996 -3.885 0.996 -3.885 0.068 84.969
4567.458 0.068 84.945 0.996 -3.919 0.996 -3.919 0.068 84.945
4592.417 0.069 84.922 0.996 -3.952 0.996 -3.952 0.069 84.922
4617.375 0.07 84.898 0.996 -3.985 0.996 -3.985 0.07 84.898
4642.333 0.07 84.874 0.996 -4.019 0.996 -4.019 0.07 84.874
4667.292 0.071 84.85 0.996 -4.052 0.996 -4.052 0.071 84.85
4692.25 0.071 84.826 0.996 -4.085 0.996 -4.085 0.071 84.826
4717.208 0.072 84.801 0.996 -4.118 0.996 -4.118 0.072 84.801
4742.167 0.072 84.777 0.996 -4.151 0.996 -4.151 0.072 84.777
4767.125 0.073 84.752 0.996 -4.184 0.996 -4.184 0.073 84.752
4792.083 0.074 84.728 0.996 -4.217 0.996 -4.217 0.074 84.728
4817.042 0.074 84.703 0.996 -4.249 0.996 -4.249 0.074 84.703
4842 0.075 84.679 0.996 -4.282 0.996 -4.282 0.075 84.679
4866.958 0.075 84.654 0.996 -4.315 0.996 -4.315 0.075 84.654
4891.917 0.076 84.629 0.996 -4.347 0.996 -4.347 0.076 84.629
4916.875 0.076 84.604 0.996 -4.38 0.996 -4.38 0.076 84.604
4941.833 0.077 84.579 0.996 -4.412 0.996 -4.412 0.077 84.579
4966.792 0.078 84.554 0.996 -4.445 0.996 -4.445 0.078 84.554
4991.75 0.078 84.529 0.996 -4.477 0.996 -4.477 0.078 84.529
5016.708 0.079 84.504 0.996 -4.51 0.996 -4.51 0.079 84.504
5041.667 0.079 84.478 0.996 -4.542 0.996 -4.542 0.079 84.478
5066.625 0.08 84.453 0.995 -4.574 0.995 -4.574 0.08 84.453
5091.583 0.08 84.428 0.995 -4.606 0.995 -4.606 0.08 84.428
5116.542 0.081 84.402 0.995 -4.639 0.995 -4.639 0.081 84.402
5141.5 0.081 84.377 0.995 -4.671 0.995 -4.671 0.081 84.377
5166.458 0.082 84.351 0.995 -4.703 0.995 -4.703 0.082 84.351
5191.417 0.083 84.326 0.995 -4.735 0.995 -4.735 0.083 84.326
5216.375 0.083 84.3 0.995 -4.767 0.995 -4.767 0.083 84.3
5241.333 0.084 84.275 0.995 -4.798 0.995 -4.798 0.084 84.275
5266.292 0.084 84.249 0.995 -4.83 0.995 -4.83 0.084 84.249
5291.25 0.085 84.223 0.995 -4.862 0.995 -4.862 0.085 84.223
5316.208 0.085 84.197 0.995 -4.894 0.995 -4.894 0.085 84.197
5341.167 0.086 84.171 0.995 -4.926 0.995 -4.926 0.086 84.171
5366.125 0.086 84.146 0.995 -4.957 0.995 -4.957 0.086 84.146
5391.083 0.087 84.12 0.995 -4.989 0.995 -4.989 0.087 84.12
5416.042 0.088 84.094 0.995 -5.02 0.995 -5.02 0.088 84.094
5441 0.088 84.068 0.995 -5.052 0.995 -5.052 0.088 84.068
5465.958 0.089 84.042 0.995 -5.083 0.995 -5.083 0.089 84.042
5490.917 0.089 84.016 0.995 -5.115 0.995 -5.115 0.089 84.016
5515.875 0.09 83.99 0.995 -5.146 0.995 -5.146 0.09 83.99
5540.833 0.09 83.963 0.995 -5.178 0.995 -5.178 0.09 83.963
5565.792 0.091 83.937 0.995 -5.209 0.995 -5.209 0.091 83.937
5590.75 0.091 83.911 0.994 -5.24 0.994 -5.24 0.091 83.911
5615.708 0.092 83.885 0.994 -5.272 0.994 -5.272 0.092 83.885
5640.667 0.092 83.859 0.994 -5.303 0.994 -5.303 0.092 83.859
5665.625 0.093 83.833 0.994 -5.334 0.994 -5.334 0.093 83.833
5690.583 0.094 83.806 0.994 -5.365 0.994 -5.365 0.094 83.806
5715.542 0.094 83.78 0.994 -5.396 0.994 -5.396 0.094 83.78
5740.5 0.095 83.754 0.994 -5.427 0.994 -5.427 0.095 83.754
5765.458 0.095 83.727 0.994 -5.458 0.994 -5.458 0.095 83.727
5790.417 0.096 83.701 0.994 -5.489 0.994 -5.489 0.096 83.701
5815.375 0.096 83.674 0.994 -5.52 0.994 -5.52 0.096 83.674
5840.333 0.097 83.648 0.994 -5.551 0.994 -5.551 0.097 83.648
5865.292 0.097 83.622 0.994 -5.582 0.994 -5.582 0.097 83.622
5890.25 0.098 83.595 0.994 -5.613 0.994 -5.613 0.098 83.595
5915.208 0.098 83.569 0.994 -5.644 0.994 -5.644 0.098 83.569
5940.167 0.099 83.542 0.994 -5.675 0.994 -5.675 0.099 83.542
5965.125 0.099 83.516 0.994 -5.705 0.994 -5.705 0.099 83.516
5990.083 0.1 83.489 0.994 -5.736 0.994 -5.736 0.1 83.489
6015.042 0.1 83.463 0.994 -5.767 0.994 -5.767 0.1 83.463
6040 0.101 83.436 0.994 -5.797 0.994 -5.797 0.101 83.436
6064.958 0.102 83.41 0.993 -5.828 0.993 -5.828 0.102 83.41
6089.917 0.102 83.383 0.993 -5.859 0.993 -5.859 0.102 83.383
6114.875 0.103 83.356 0.993 -5.889 0.993 -5.889 0.103 83.356
6139.833 0.103 83.33 0.993 -5.92 0.993 -5.92 0.103 83.33
6164.792 0.104 83.303 0.993 -5.95 0.993 -5.95 0.104 83.303
6189.75 0.104 83.276 0.993 -5.981 0.993 -5.981 0.104 83.276
6214.708 0.105 83.25 0.993 -6.011 0.993 -6.011 0.105 83.25
6239.667 0.105 83.223 0.993 -6.042 0.993 -6.042 0.105 83.223
6264.625 0.106 83.196 0.993 -6.072 0.993 -6.072 0.106 83.196
6289.583 0.106 83.17 0.993 -6.102 0.993 -6.102 0.106 83.17
6314.542 0.107 83.143 0.993 -6.133 0.993 -6.133 0.107 83.143
6339.5 0.107 83.116 0.993 -6.163 0.993 -6.163 0.107 83.116
6364.458 0.108 83.09 0.993 -6.193 0.993 -6.193 0.108 83.09
6389.417 0.108 83.063 0.993 -6.224 0.993 -6.224 0.108 83.063
6414.375 0.109 83.036 0.993 -6.254 0.993 -6.254 0.109 83.036
6439.333 0.109 83.009 0.993 -6.284 0.993 -6.284 0.109 83.009
6464.292 0.11 82.983 0.993 -6.314 0.993 -6.314 0.11 82.983
6489.25 0.111 82.956 0.993 -6.344 0.993 -6.344 0.111 82.956
6514.208 0.111 82.929 0.992 -6.374 0.992 -6.374 0.111 82.929
6539.167 0.112 82.902 0.992 -6.404 0.992 -6.404 0.112 82.902
6564.125 0.112 82.875 0.992 -6.435 0.992 -6.435 0.112 82.875
6589.083 0.113 82.849 0.992 -6.465 0.992 -6.465 0.113 82.849
6614.042 0.113 82.822 0.992 -6.495 0.992 -6.495 0.113 82.822
6639 0.114 82.795 0.992 -6.525 0.992 -6.525 0.114 82.795
6663.958 0.114 82.768 0.992 -6.554 0.992 -6.554 0.114 82.768
6688.917 0.115 82.741 0.992 -6.584 0.992 -6.584 0.115 82.741
6713.875 0.115 82.715 0.992 -6.614 0.992 -6.614 0.115 82.715
6738.833 0.116 82.688 0.992 -6.644 0.992 -6.644 0.116 82.688
6763.792 0.116 82.661 0.992 -6.674 0.992 -6.674 0.116 82.661
6788.75 0.117 82.634 0.992 -6.704 0.992 -6.704 0.117 82.634
6813.708 0.117 82.607 0.992 -6.734 0.992 -6.734 0.117 82.607
6838.667 0.118 82.58 0.992 -6.764 0.992 -6.764 0.118 82.58
6863.625 0.118 82.553 0.992 -6.793 0.992 -6.793 0.118 82.553
6888.583 0.119 82.527 0.992 -6.823 0.992 -6.823 0.119 82.527
6913.542 0.119 82.5 0.992 -6.853 0.992 -6.853 0.119 82.5
6938.5 0.12 82.473 0.991 -6.882 0.991 -6.882 0.12 82.473
6963.458 0.12 82.446 0.991 -6.912 0.991 -6.912 0.12 82.446
6988.417 0.121 82.419 0.991 -6.942 0.991 -6.942 0.121 82.419
7013.375 0.121 82.392 0.991 -6.971 0.991 -6.971 0.121 82.392
7038.333 0.122 82.365 0.991 -7.001 0.991 -7.001 0.122 82.365
7063.292 0.122 82.338 0.991 -7.031 0.991 -7.031 0.122 82.338
7088.25 0.123 82.311 0.991 -7.06 0.991 -7.06 0.123 82.311
7113.208 0.123 82.285 0.991 -7.09 0.991 -7.09 0.123 82.285
7138.167 0.124 82.258 0.991 -7.119 0.991 -7.119 0.124 82.258
7163.125 0.124 82.231 0.991 -7.149 0.991 -7.149 0.124 82.231
7188.083 0.125 82.204 0.991 -7.178 0.991 -7.178 0.125 82.204
7213.042 0.125 82.177 0.991 -7.208 0.991 -7.208 0.125 82.177
7238 0.126 82.15 0.991 -7.237 0.991 -7.237 0.126 82.15
7262.958 0.126 82.123 0.991 -7.267 0.991 -7.267 0.126 82.123
7287.917 0.127 82.096 0.991 -7.296 0.991 -7.296 0.127 82.096
7312.875 0.128 82.069 0.99 -7.325 0.99 -7.325 0.128 82.069
7337.833 0.128 82.042 0.99 -7.355 0.99 -7.355 0.128 82.042
7362.792 0.129 82.015 0.99 -7.384 0.99 -7.384 0.129 82.015
7387.75 0.129 81.988 0.99 -7.413 0.99 -7.413 0.129 81.988
7412.708 0.13 81.962 0.99 -7.443 0.99 -7.443 0.13 81.962
7437.667 0.13 81.935 0.99 -7.472 0.99 -7.472 0.13 81.935
7462.625 0.131 81.908 0.99 -7.501 0.99 -7.501 0.131 81.908
7487.583 0.131 81.881 0.99 -7.531 0.99 -7.531 0.131 81.881
7512.542 0.132 81.854 0.99 -7.56 0.99 -7.56 0.132 81.854
7537.5 0.132 81.827 0.99 -7.589 0.99 -7.589 0.132 81.827
7562.458 0.133 81.8 0.99 -7.618 0.99 -7.618 0.133 81.8
7587.417 0.133 81.773 0.99 -7.647 0.99 -7.647 0.133 81.773
7612.375 0.134 81.746 0.99 -7.677 0.99 -7.677 0.134 81.746
7637.333 0.134 81.719 0.99 -7.706 0.99 -7.706 0.134 81.719
7662.292 0.135 81.692 0.99 -7.735 0.99 -7.735 0.135 81.692
7687.25 0.135 81.665 0.989 -7.764 0.989 -7.764 0.135 81.665
7712.208 0.136 81.638 0.989 -7.793 0.989 -7.793 0.136 81.638
7737.167 0.136 81.611 0.989 -7.822 0.989 -7.822 0.136 81.611
7762.125 0.137 81.585 0.989 -7.851 0.989 -7.851 0.137 81.585
7787.083 0.137 81.558 0.989 -7.88 0.989 -7.88 0.137 81.558
7812.042 0.138 81.531 0.989 -7.909 0.989 -7.909 0.138 81.531
7837 0.138 81.504 0.989 -7.938 0.989 -7.938 0.138 81.504
7861.958 0.139 81.477 0.989 -7.967 0.989 -7.967 0.139 81.477
7886.917 0.139 81.45 0.989 -7.996 0.989 -7.996 0.139 81.45
7911.875 0.14 81.423 0.989 -8.025 0.989 -8.025 0.14 81.423
7936.833 0.14 81.396 0.989 -8.054 0.989 -8.054 0.14 81.396
7961.792 0.141 81.369 0.989 -8.083 0.989 -8.083 0.141 81.369
7986.75 0.141 81.342 0.989 -8.112 0.989 -8.112 0.141 81.342
8011.708 0.142 81.315 0.989 -8.141 0.989 -8.141 0.142 81.315
8036.667 0.142 81.288 0.989 -8.17 0.989 -8.17 0.142 81.288
8061.625 0.143 81.261 0.988 -8.198 0.988 -8.198 0.143 81.261
8086.583 0.143 81.235 0.988 -8.227 0.988 -8.227 0.143 81.235
8111.542 0.144 81.208 0.988 -8.256 0.988 -8.256 0.144 81.208
8136.5 0.144 81.181 0.988 -8.285 0.988 -8.285 0.144 81.181
8161.458 0.145 81.154 0.988 -8.314 0.988 -8.314 0.145 81.154
8186.417 0.145 81.127 0.988 -8.342 0.988 -8.342 0.145 81.127
8211.375 0.146 81.1 0.988 -8.371 0.988 -8.371 0.146 81.1
8236.333 0.146 81.073 0.988 -8.4 0.988 -8.4 0.146 81.073
8261.292 0.147 81.046 0.988 -8.429 0.988 -8.429 0.147 81.046
8286.25 0.147 81.019 0.988 -8.457 0.988 -8.457 0.147 81.019
