# MHZ S MA R 50

50 0.989 -8.4 0.146 81.584 0.146 81.584 0.989 -8.4
74.958 0.976 -12.485 0.216 77.491 0.216 77.491 0.976 -12.485
99.917 0.959 -16.447 0.283 73.521 0.283 73.521 0.959 -16.447
124.875 0.938 -20.256 0.346 69.704 0.346 69.704 0.938 -20.256
149.833 0.914 -23.891 0.405 66.061 0.405 66.061 0.914 -23.891
174.792 0.888 -27.336 0.459 62.608 0.459 62.608 0.888 -27.336
199.75 0.86 -30.583 0.509 59.352 0.509 59.352 0.86 -30.583
224.708 0.832 -33.632 0.554 56.296 0.554 56.296 0.832 -33.632
249.667 0.803 -36.483 0.595 53.437 0.595 53.437 0.803 -36.483
274.625 0.775 -39.143 0.631 50.769 0.631 50.769 0.775 -39.143
299.583 0.746 -41.621 0.664 48.282 0.664 48.282 0.746 -41.621
324.542 0.719 -43.928 0.694 45.968 0.694 45.968 0.719 -43.928
349.5 0.692 -46.073 0.72 43.815 0.72 43.815 0.692 -46.073
374.458 0.667 -48.068 0.744 41.811 0.744 41.811 0.667 -48.068
399.417 0.642 -49.924 0.765 39.947 0.765 39.947 0.642 -49.924
424.375 0.619 -51.653 0.784 38.21 0.784 38.21 0.619 -51.653
449.333 0.596 -53.263 0.801 36.591 0.801 36.591 0.596 -53.263
474.292 0.575 -54.766 0.817 35.08 0.817 35.08 0.575 -54.766
499.25 0.554 -56.169 0.831 33.669 0.831 33.669 0.554 -56.169
524.208 0.535 -57.481 0.843 32.348 0.843 32.348 0.535 -57.481
549.167 0.517 -58.71 0.855 31.111 0.855 31.111 0.517 -58.71
574.125 0.499 -59.861 0.865 29.951 0.865 29.951 0.499 -59.861
599.083 0.483 -60.943 0.874 28.861 0.874 28.861 0.483 -60.943
624.042 0.467 -61.96 0.883 27.835 0.883 27.835 0.467 -61.96
649 0.452 -62.917 0.89 26.87 0.89 26.87 0.452 -62.917
673.958 0.438 -63.82 0.897 25.958 0.897 25.958 0.438 -63.82
698.917 0.424 -64.672 0.904 25.097 0.904 25.097 0.424 -64.672
723.875 0.411 -65.477 0.91 24.283 0.91 24.283 0.411 -65.477
748.833 0.399 -66.24 0.915 23.512 0.915 23.512 0.399 -66.24
773.792 0.387 -66.962 0.92 22.78 0.92 22.78 0.387 -66.962
798.75 0.376 -67.648 0.925 22.086 0.925 22.086 0.376 -67.648
823.708 0.365 -68.299 0.929 21.425 0.929 21.425 0.365 -68.299
848.667 0.355 -68.919 0.933 20.796 0.933 20.796 0.355 -68.919
873.625 0.345 -69.509 0.937 20.197 0.937 20.197 0.345 -69.509
898.583 0.336 -70.072 0.94 19.625 0.94 19.625 0.336 -70.072
923.542 0.327 -70.608 0.943 19.079 0.943 19.079 0.327 -70.608
948.5 0.318 -71.121 0.946 18.557 0.946 18.557 0.318 -71.121
973.458 0.31 -71.611 0.949 18.057 0.949 18.057 0.31 -71.611
998.417 0.302 -72.081 0.952 17.578 0.952 17.578 0.302 -72.081
1023.375 0.294 -72.53 0.954 17.119 0.954 17.119 0.294 -72.53
1048.333 0.287 -72.961 0.956 16.678 0.956 16.678 0.287 -72.961
1073.292 0.28 -73.375 0.958 16.254 0.958 16.254 0.28 -73.375
1098.25 0.273 -73.772 0.96 15.847 0.96 15.847 0.273 -73.772
1123.208 0.266 -74.154 0.962 15.455 0.962 15.455 0.266 -74.154
1148.167 0.26 -74.522 0.964 15.077 0.964 15.077 0.26 -74.522
1173.125 0.254 -74.876 0.965 14.713 0.965 14.713 0.254 -74.876
1198.083 0.248 -75.217 0.967 14.361 0.967 14.361 0.248 -75.217
1223.042 0.242 -75.545 0.968 14.022 0.968 14.022 0.242 -75.545
1248 0.237 -75.862 0.97 13.694 0.97 13.694 0.237 -75.862
1272.958 0.231 -76.168 0.971 13.377 0.971 13.377 0.231 -76.168
1297.917 0.226 -76.464 0.972 13.07 0.972 13.07 0.226 -76.464
1322.875 0.221 -76.75 0.973 12.773 0.973 12.773 0.221 -76.75
1347.833 0.216 -77.026 0.975 12.486 0.975 12.486 0.216 -77.026
1372.792 0.211 -77.294 0.976 12.207 0.976 12.207 0.211 -77.294
1397.75 0.207 -77.552 0.977 11.936 0.977 11.936 0.207 -77.552
1422.708 0.202 -77.803 0.977 11.673 0.977 11.673 0.202 -77.803
1447.667 0.198 -78.046 0.978 11.418 0.978 11.418 0.198 -78.046
1472.625 0.194 -78.282 0.979 11.17 0.979 11.17 0.194 -78.282
1497.583 0.19 -78.511 0.98 10.929 0.98 10.929 0.19 -78.511
1522.542 0.186 -78.733 0.981 10.695 0.981 10.695 0.186 -78.733
1547.5 0.182 -78.948 0.982 10.466 0.982 10.466 0.182 -78.948
1572.458 0.178 -79.158 0.982 10.244 0.982 10.244 0.178 -79.158
1597.417 0.174 -79.361 0.983 10.028 0.983 10.028 0.174 -79.361
1622.375 0.171 -79.559 0.984 9.816 0.984 9.816 0.171 -79.559
1647.333 0.167 -79.751 0.984 9.61 0.984 9.61 0.167 -79.751
1672.292 0.164 -79.938 0.985 9.41 0.985 9.41 0.164 -79.938
1697.25 0.16 -80.12 0.985 9.213 0.985 9.213 0.16 -80.12
1722.208 0.157 -80.297 0.986 9.022 0.986 9.022 0.157 -80.297
1747.167 0.154 -80.47 0.986 8.835 0.986 8.835 0.154 -80.47
1772.125 0.15 -80.638 0.987 8.652 0.987 8.652 0.15 -80.638
1797.083 0.147 -80.801 0.987 8.473 0.987 8.473 0.147 -80.801
1822.042 0.144 -80.961 0.988 8.298 0.988 8.298 0.144 -80.961
1847 0.141 -81.116 0.988 8.127 0.988 8.127 0.141 -81.116
1871.958 0.138 -81.268 0.988 7.959 0.988 7.959 0.138 -81.268
1896.917 0.136 -81.415 0.989 7.795 0.989 7.795 0.136 -81.415
1921.875 0.133 -81.559 0.989 7.634 0.989 7.634 0.133 -81.559
1946.833 0.13 -81.699 0.99 7.477 0.99 7.477 0.13 -81.699
1971.792 0.127 -81.836 0.99 7.323 0.99 7.323 0.127 -81.836
1996.75 0.125 -81.97 0.99 7.171 0.99 7.171 0.125 -81.97
2021.708 0.122 -82.1 0.991 7.023 0.991 7.023 0.122 -82.1
2046.667 0.12 -82.227 0.991 6.877 0.991 6.877 0.12 -82.227
2071.625 0.117 -82.351 0.991 6.734 0.991 6.734 0.117 -82.351
2096.583 0.115 -82.472 0.992 6.593 0.992 6.593 0.115 -82.472
2121.542 0.112 -82.589 0.992 6.455 0.992 6.455 0.112 -82.589
2146.5 0.11 -82.704 0.992 6.32 0.992 6.32 0.11 -82.704
2171.458 0.108 -82.816 0.992 6.186 0.992 6.186 0.108 -82.816
2196.417 0.106 -82.926 0.993 6.056 0.993 6.056 0.106 -82.926
2221.375 0.103 -83.032 0.993 5.927 0.993 5.927 0.103 -83.032
2246.333 0.101 -83.136 0.993 5.8 0.993 5.8 0.101 -83.136
2271.292 0.099 -83.237 0.993 5.676 0.993 5.676 0.099 -83.237
2296.25 0.097 -83.335 0.993 5.553 0.993 5.553 0.097 -83.335
2321.208 0.095 -83.431 0.994 5.432 0.994 5.432 0.095 -83.431
2346.167 0.093 -83.524 0.994 5.313 0.994 5.313 0.093 -83.524
2371.125 0.091 -83.615 0.994 5.196 0.994 5.196 0.091 -83.615
2396.083 0.089 -83.703 0.994 5.081 0.994 5.081 0.089 -83.703
2421.042 0.087 -83.789 0.994 4.968 0.994 4.968 0.087 -83.789
2446 0.085 -83.872 0.995 4.856 0.995 4.856 0.085 -83.872
2470.958 0.083 -83.953 0.995 4.745 0.995 4.745 0.083 -83.953
2495.917 0.081 -84.031 0.995 4.637 0.995 4.637 0.081 -84.031
2520.875 0.079 -84.106 0.995 4.529 0.995 4.529 0.079 -84.106
2545.833 0.077 -84.179 0.995 4.424 0.995 4.424 0.077 -84.179
2570.792 0.075 -84.25 0.995 4.319 0.995 4.319 0.075 -84.25
2595.75 0.074 -84.318 0.995 4.216 0.995 4.216 0.074 -84.318
2620.708 0.072 -84.383 0.996 4.115 0.996 4.115 0.072 -84.383
2645.667 0.07 -84.446 0.996 4.014 0.996 4.014 0.07 -84.446
2670.625 0.068 -84.506 0.996 3.915 0.996 3.915 0.068 -84.506
2695.583 0.067 -84.563 0.996 3.817 0.996 3.817 0.067 -84.563
2720.542 0.065 -84.617 0.996 3.721 0.996 3.721 0.065 -84.617
2745.5 0.063 -84.669 0.996 3.625 0.996 3.625 0.063 -84.669
2770.458 0.062 -84.718 0.996 3.531 0.996 3.531 0.062 -84.718
2795.417 0.06 -84.763 0.996 3.438 0.996 3.438 0.06 -84.763
2820.375 0.058 -84.806 0.996 3.346 0.996 3.346 0.058 -84.806
2845.333 0.057 -84.845 0.997 3.255 0.997 3.255 0.057 -84.845
2870.292 0.055 -84.881 0.997 3.165 0.997 3.165 0.055 -84.881
2895.25 0.054 -84.913 0.997 3.076 0.997 3.076 0.054 -84.913
2920.208 0.052 -84.942 0.997 2.988 0.997 2.988 0.052 -84.942
2945.167 0.051 -84.967 0.997 2.901 0.997 2.901 0.051 -84.967
2970.125 0.049 -84.988 0.997 2.814 0.997 2.814 0.049 -84.988
2995.083 0.048 -85.004 0.997 2.729 0.997 2.729 0.048 -85.004
3020.042 0.046 -85.016 0.997 2.645 0.997 2.645 0.046 -85.016
3045 0.045 -85.024 0.997 2.561 0.997 2.561 0.045 -85.024
3069.958 0.043 -85.026 0.997 2.479 0.997 2.479 0.043 -85.026
3094.917 0.042 -85.022 0.997 2.397 0.997 2.397 0.042 -85.022
3119.875 0.04 -85.013 0.997 2.316 0.997 2.316 0.04 -85.013
3144.833 0.039 -84.998 0.997 2.236 0.997 2.236 0.039 -84.998
3169.792 0.038 -84.975 0.997 2.156 0.997 2.156 0.038 -84.975
3194.75 0.036 -84.945 0.997 2.077 0.997 2.077 0.036 -84.945
3219.708 0.035 -84.907 0.998 1.999 0.998 1.999 0.035 -84.907
3244.667 0.034 -84.86 0.998 1.922 0.998 1.922 0.034 -84.86
3269.625 0.032 -84.804 0.998 1.845 0.998 1.845 0.032 -84.804
3294.583 0.031 -84.736 0.998 1.77 0.998 1.77 0.031 -84.736
3319.542 0.03 -84.656 0.998 1.694 0.998 1.694 0.03 -84.656
3344.5 0.028 -84.563 0.998 1.62 0.998 1.62 0.028 -84.563
3369.458 0.027 -84.455 0.998 1.546 0.998 1.546 0.027 -84.455
3394.417 0.026 -84.33 0.998 1.472 0.998 1.472 0.026 -84.33
3419.375 0.024 -84.185 0.998 1.4 0.998 1.4 0.024 -84.185
3444.333 0.023 -84.018 0.998 1.328 0.998 1.328 0.023 -84.018
3469.292 0.022 -83.826 0.998 1.256 0.998 1.256 0.022 -83.826
3494.25 0.021 -83.604 0.998 1.185 0.998 1.185 0.021 -83.604
3519.208 0.02 -83.347 0.998 1.115 0.998 1.115 0.02 -83.347
3544.167 0.018 -83.049 0.998 1.045 0.998 1.045 0.018 -83.049
3569.125 0.017 -82.702 0.998 0.976 0.998 0.976 0.017 -82.702
3594.083 0.016 -82.296 0.998 0.907 0.998 0.907 0.016 -82.296
3619.042 0.015 -81.816 0.998 0.839 0.998 0.839 0.015 -81.816
3644 0.014 -81.246 0.998 0.771 0.998 0.771 0.014 -81.246
3668.958 0.012 -80.562 0.998 0.704 0.998 0.704 0.012 -80.562
3693.917 0.011 -79.729 0.998 0.637 0.998 0.637 0.011 -79.729
3718.875 0.01 -78.7 0.998 0.57 0.998 0.57 0.01 -78.7
3743.833 9.007e-3 -77.405 0.998 0.505 0.998 0.505 9.007e-3 -77.405
3768.792 7.895e-3 -75.735 0.998 0.439 0.998 0.439 7.895e-3 -75.735
3793.75 6.8e-3 -73.518 0.998 0.374 0.998 0.374 6.8e-3 -73.518
3818.708 5.727e-3 -70.458 0.998 0.31 0.998 0.31 5.727e-3 -70.458
3843.667 4.686e-3 -66.015 0.998 0.246 0.998 0.246 4.686e-3 -66.015
3868.625 3.697e-3 -59.134 0.998 0.182 0.998 0.182 3.697e-3 -59.134
3893.583 2.805e-3 -47.621 0.998 0.119 0.998 0.119 2.805e-3 -47.621
3918.542 2.126e-3 -27.4 0.998 0.056 0.998 0.056 2.126e-3 -27.4
3943.5 1.89e-3 3.293 0.998 -6.232e-3 0.998 -6.232e-3 1.89e-3 3.293
3968.458 2.231e-3 32.194 0.998 -0.068 0.998 -0.068 2.231e-3 32.194
3993.417 2.949e-3 50.095 0.998 -0.13 0.998 -0.13 2.949e-3 50.095
4018.375 3.832e-3 60.313 0.998 -0.191 0.998 -0.191 3.832e-3 60.313
4043.333 4.785e-3 66.528 0.998 -0.252 0.998 -0.252 4.785e-3 66.528
4068.292 5.77e-3 70.605 0.998 -0.312 0.998 -0.312 5.77e-3 70.605
4093.25 6.771e-3 73.45 0.998 -0.373 0.998 -0.373 6.771e-3 73.45
4118.208 7.779e-3 75.532 0.998 -0.432 0.998 -0.432 7.779e-3 75.532
4143.167 8.789e-3 77.113 0.998 -0.492 0.998 -0.492 8.789e-3 77.113
4168.125 9.799e-3 78.349 0.998 -0.551 0.998 -0.551 9.799e-3 78.349
4193.083 0.011 79.337 0.998 -0.61 0.998 -0.61 0.011 79.337
4218.042 0.012 80.142 0.998 -0.668 0.998 -0.668 0.012 80.142
4243 0.013 80.809 0.998 -0.726 0.998 -0.726 0.013 80.809
4267.958 0.014 81.367 0.998 -0.784 0.998 -0.784 0.014 81.367
4292.917 0.015 81.839 0.998 -0.842 0.998 -0.842 0.015 81.839
4317.875 0.016 82.243 0.998 -0.899 0.998 -0.899 0.016 82.243
4342.833 0.017 82.591 0.998 -0.956 0.998 -0.956 0.017 82.591
4367.792 0.018 82.893 0.998 -1.012 0.998 -1.012 0.018 82.893
4392.75 0.019 83.155 0.998 -1.068 0.998 -1.068 0.019 83.155
4417.708 0.02 83.385 0.998 -1.124 0.998 -1.124 0.02 83.385
4442.667 0.021 83.587 0.998 -1.18 0.998 -1.18 0.021 83.587
4467.625 0.022 83.766 0.998 -1.236 0.998 -1.236 0.022 83.766
4492.583 0.023 83.923 0.998 -1.291 0.998 -1.291 0.023 83.923
4517.542 0.024 84.063 0.998 -1.346 0.998 -1.346 0.024 84.063
4542.5 0.025 84.187 0.998 -1.4 0.998 -1.4 0.025 84.187
4567.458 0.025 84.297 0.998 -1.455 0.998 -1.455 0.025 84.297
4592.417 0.026 84.394 0.998 -1.509 0.998 -1.509 0.026 84.394
4617.375 0.027 84.481 0.998 -1.563 0.998 -1.563 0.027 84.481
4642.333 0.028 84.559 0.998 -1.616 0.998 -1.616 0.028 84.559
4667.292 0.029 84.627 0.998 -1.67 0.998 -1.67 0.029 84.627
4692.25 0.03 84.688 0.998 -1.723 0.998 -1.723 0.03 84.688
4717.208 0.031 84.742 0.998 -1.776 0.998 -1.776 0.031 84.742
4742.167 0.032 84.789 0.998 -1.828 0.998 -1.828 0.032 84.789
4767.125 0.033 84.831 0.998 -1.881 0.998 -1.881 0.033 84.831
4792.083 0.034 84.868 0.998 -1.933 0.998 -1.933 0.034 84.868
4817.042 0.035 84.899 0.998 -1.985 0.998 -1.985 0.035 84.899
4842 0.036 84.927 0.997 -2.037 0.997 -2.037 0.036 84.927
4866.958 0.036 84.95 0.997 -2.088 0.997 -2.088 0.036 84.95
4891.917 0.037 84.97 0.997 -2.14 0.997 -2.14 0.037 84.97
4916.875 0.038 84.986 0.997 -2.191 0.997 -2.191 0.038 84.986
4941.833 0.039 84.999 0.997 -2.242 0.997 -2.242 0.039 84.999
4966.792 0.04 85.009 0.997 -2.293 0.997 -2.293 0.04 85.009
4991.75 0.041 85.017 0.997 -2.343 0.997 -2.343 0.041 85.017
5016.708 0.042 85.022 0.997 -2.393 0.997 -2.393 0.042 85.022
5041.667 0.043 85.025 0.997 -2.444 0.997 -2.444 0.043 85.025
5066.625 0.044 85.026 0.997 -2.494 0.997 -2.494 0.044 85.026
5091.583 0.044 85.025 0.997 -2.543 0.997 -2.543 0.044 85.025
5116.542 0.045 85.022 0.997 -2.593 0.997 -2.593 0.045 85.022
5141.5 0.046 85.017 0.997 -2.642 0.997 -2.642 0.046 85.017
5166.458 0.047 85.01 0.997 -2.692 0.997 -2.692 0.047 85.01
5191.417 0.048 85.002 0.997 -2.741 0.997 -2.741 0.048 85.002
5216.375 0.049 84.993 0.997 -2.789 0.997 -2.789 0.049 84.993
5241.333 0.05 84.983 0.997 -2.838 0.997 -2.838 0.05 84.983
5266.292 0.05 84.971 0.997 -2.887 0.997 -2.887 0.05 84.971
5291.25 0.051 84.958 0.997 -2.935 0.997 -2.935 0.051 84.958
5316.208 0.052 84.944 0.997 -2.983 0.997 -2.983 0.052 84.944
5341.167 0.053 84.928 0.997 -3.031 0.997 -3.031 0.053 84.928
5366.125 0.054 84.912 0.997 -3.079 0.997 -3.079 0.054 84.912
5391.083 0.055 84.895 0.997 -3.127 0.997 -3.127 0.055 84.895
5416.042 0.055 84.877 0.997 -3.174 0.997 -3.174 0.055 84.877
5441 0.056 84.859 0.997 -3.222 0.997 -3.222 0.056 84.859
5465.958 0.057 84.839 0.996 -3.269 0.996 -3.269 0.057 84.839
5490.917 0.058 84.819 0.996 -3.316 0.996 -3.316 0.058 84.819
5515.875 0.059 84.798 0.996 -3.363 0.996 -3.363 0.059 84.798
5540.833 0.06 84.777 0.996 -3.41 0.996 -3.41 0.06 84.777
5565.792 0.06 84.755 0.996 -3.456 0.996 -3.456 0.06 84.755
5590.75 0.061 84.732 0.996 -3.503 0.996 -3.503 0.061 84.732
5615.708 0.062 84.709 0.996 -3.549 0.996 -3.549 0.062 84.709
5640.667 0.063 84.685 0.996 -3.595 0.996 -3.595 0.063 84.685
5665.625 0.064 84.661 0.996 -3.641 0.996 -3.641 0.064 84.661
5690.583 0.064 84.636 0.996 -3.687 0.996 -3.687 0.064 84.636
5715.542 0.065 84.611 0.996 -3.733 0.996 -3.733 0.065 84.611
5740.5 0.066 84.585 0.996 -3.779 0.996 -3.779 0.066 84.585
5765.458 0.067 84.559 0.996 -3.824 0.996 -3.824 0.067 84.559
5790.417 0.068 84.533 0.996 -3.869 0.996 -3.869 0.068 84.533
5815.375 0.068 84.506 0.996 -3.915 0.996 -3.915 0.068 84.506
5840.333 0.069 84.479 0.996 -3.96 0.996 -3.96 0.069 84.479
5865.292 0.07 84.452 0.996 -4.005 0.996 -4.005 0.07 84.452
5890.25 0.071 84.424 0.996 -4.05 0.996 -4.05 0.071 84.424
5915.208 0.071 84.396 0.996 -4.095 0.996 -4.095 0.071 84.396
5940.167 0.072 84.367 0.996 -4.139 0.996 -4.139 0.072 84.367
5965.125 0.073 84.339 0.995 -4.184 0.995 -4.184 0.073 84.339
5990.083 0.074 84.31 0.995 -4.228 0.995 -4.228 0.074 84.31
6015.042 0.075 84.281 0.995 -4.272 0.995 -4.272 0.075 84.281
6040 0.075 84.252 0.995 -4.317 0.995 -4.317 0.075 84.252
6064.958 0.076 84.222 0.995 -4.361 0.995 -4.361 0.076 84.222
6089.917 0.077 84.192 0.995 -4.405 0.995 -4.405 0.077 84.192
6114.875 0.078 84.162 0.995 -4.448 0.995 -4.448 0.078 84.162
6139.833 0.078 84.132 0.995 -4.492 0.995 -4.492 0.078 84.132
6164.792 0.079 84.102 0.995 -4.536 0.995 -4.536 0.079 84.102
6189.75 0.08 84.071 0.995 -4.579 0.995 -4.579 0.08 84.071
6214.708 0.081 84.041 0.995 -4.623 0.995 -4.623 0.081 84.041
6239.667 0.081 84.01 0.995 -4.666 0.995 -4.666 0.081 84.01
6264.625 0.082 83.979 0.995 -4.709 0.995 -4.709 0.082 83.979
6289.583 0.083 83.948 0.995 -4.752 0.995 -4.752 0.083 83.948
6314.542 0.084 83.916 0.995 -4.795 0.995 -4.795 0.084 83.916
6339.5 0.084 83.885 0.995 -4.838 0.995 -4.838 0.084 83.885
6364.458 0.085 83.853 0.994 -4.881 0.994 -4.881 0.085 83.853
6389.417 0.086 83.822 0.994 -4.924 0.994 -4.924 0.086 83.822
6414.375 0.087 83.79 0.994 -4.966 0.994 -4.966 0.087 83.79
6439.333 0.087 83.758 0.994 -5.009 0.994 -5.009 0.087 83.758
6464.292 0.088 83.726 0.994 -5.051 0.994 -5.051 0.088 83.726
6489.25 0.089 83.694 0.994 -5.093 0.994 -5.093 0.089 83.694
6514.208 0.09 83.662 0.994 -5.136 0.994 -5.136 0.09 83.662
6539.167 0.09 83.63 0.994 -5.178 0.994 -5.178 0.09 83.63
6564.125 0.091 83.597 0.994 -5.22 0.994 -5.22 0.091 83.597
6589.083 0.092 83.565 0.994 -5.262 0.994 -5.262 0.092 83.565
6614.042 0.092 83.532 0.994 -5.304 0.994 -5.304 0.092 83.532
6639 0.093 83.5 0.994 -5.345 0.994 -5.345 0.093 83.5
6663.958 0.094 83.467 0.994 -5.387 0.994 -5.387 0.094 83.467
6688.917 0.095 83.434 0.994 -5.429 0.994 -5.429 0.095 83.434
6713.875 0.095 83.401 0.994 -5.47 0.994 -5.47 0.095 83.401
6738.833 0.096 83.368 0.993 -5.512 0.993 -5.512 0.096 83.368
6763.792 0.097 83.335 0.993 -5.553 0.993 -5.553 0.097 83.335
6788.75 0.097 83.302 0.993 -5.594 0.993 -5.594 0.097 83.302
6813.708 0.098 83.269 0.993 -5.635 0.993 -5.635 0.098 83.269
6838.667 0.099 83.236 0.993 -5.676 0.993 -5.676 0.099 83.236
6863.625 0.1 83.203 0.993 -5.717 0.993 -5.717 0.1 83.203
6888.583 0.1 83.17 0.993 -5.758 0.993 -5.758 0.1 83.17
6913.542 0.101 83.137 0.993 -5.799 0.993 -5.799 0.101 83.137
6938.5 0.102 83.103 0.993 -5.84 0.993 -5.84 0.102 83.103
6963.458 0.102 83.07 0.993 -5.881 0.993 -5.881 0.102 83.07
6988.417 0.103 83.037 0.993 -5.921 0.993 -5.921 0.103 83.037
7013.375 0.104 83.003 0.993 -5.962 0.993 -5.962 0.104 83.003
7038.333 0.105 82.97 0.993 -6.002 0.993 -6.002 0.105 82.97
7063.292 0.105 82.936 0.993 -6.043 0.993 -6.043 0.105 82.936
7088.25 0.106 82.903 0.992 -6.083 0.992 -6.083 0.106 82.903
7113.208 0.107 82.869 0.992 -6.123 0.992 -6.123 0.107 82.869
7138.167 0.107 82.836 0.992 -6.163 0.992 -6.163 0.107 82.836
7163.125 0.108 82.802 0.992 -6.203 0.992 -6.203 0.108 82.802
7188.083 0.109 82.769 0.992 -6.243 0.992 -6.243 0.109 82.769
7213.042 0.109 82.735 0.992 -6.283 0.992 -6.283 0.109 82.735
7238 0.11 82.701 0.992 -6.323 0.992 -6.323 0.11 82.701
7262.958 0.111 82.668 0.992 -6.363 0.992 -6.363 0.111 82.668
7287.917 0.112 82.634 0.992 -6.403 0.992 -6.403 0.112 82.634
7312.875 0.112 82.6 0.992 -6.443 0.992 -6.443 0.112 82.6
7337.833 0.113 82.566 0.992 -6.482 0.992 -6.482 0.113 82.566
7362.792 0.114 82.533 0.992 -6.522 0.992 -6.522 0.114 82.533
7387.75 0.114 82.499 0.992 -6.561 0.992 -6.561 0.114 82.499
7412.708 0.115 82.465 0.991 -6.601 0.991 -6.601 0.115 82.465
7437.667 0.116 82.431 0.991 -6.64 0.991 -6.64 0.116 82.431
7462.625 0.116 82.398 0.991 -6.679 0.991 -6.679 0.116 82.398
7487.583 0.117 82.364 0.991 -6.719 0.991 -6.719 0.117 82.364
7512.542 0.118 82.33 0.991 -6.758 0.991 -6.758 0.118 82.33
7537.5 0.118 82.296 0.991 -6.797 0.991 -6.797 0.118 82.296
7562.458 0.119 82.262 0.991 -6.836 0.991 -6.836 0.119 82.262
7587.417 0.12 82.229 0.991 -6.875 0.991 -6.875 0.12 82.229
7612.375 0.12 82.195 0.991 -6.914 0.991 -6.914 0.12 82.195
7637.333 0.121 82.161 0.991 -6.953 0.991 -6.953 0.121 82.161
7662.292 0.122 82.127 0.991 -6.991 0.991 -6.991 0.122 82.127
7687.25 0.122 82.093 0.991 -7.03 0.991 -7.03 0.122 82.093
7712.208 0.123 82.06 0.991 -7.069 0.991 -7.069 0.123 82.06
7737.167 0.124 82.026 0.99 -7.107 0.99 -7.107 0.124 82.026
7762.125 0.124 81.992 0.99 -7.146 0.99 -7.146 0.124 81.992
7787.083 0.125 81.958 0.99 -7.185 0.99 -7.185 0.125 81.958
7812.042 0.126 81.924 0.99 -7.223 0.99 -7.223 0.126 81.924
7837 0.126 81.89 0.99 -7.261 0.99 -7.261 0.126 81.89
7861.958 0.127 81.856 0.99 -7.3 0.99 -7.3 0.127 81.856
7886.917 0.128 81.823 0.99 -7.338 0.99 -7.338 0.128 81.823
7911.875 0.128 81.789 0.99 -7.376 0.99 -7.376 0.128 81.789
7936.833 0.129 81.755 0.99 -7.414 0.99 -7.414 0.129 81.755
7961.792 0.13 81.721 0.99 -7.453 0.99 -7.453 0.13 81.721
7986.75 0.13 81.687 0.99 -7.491 0.99 -7.491 0.13 81.687
8011.708 0.131 81.654 0.99 -7.529 0.99 -7.529 0.131 81.654
8036.667 0.132 81.62 0.989 -7.567 0.989 -7.567 0.132 81.62
8061.625 0.132 81.586 0.989 -7.604 0.989 -7.604 0.132 81.586
8086.583 0.133 81.552 0.989 -7.642 0.989 -7.642 0.133 81.552
8111.542 0.134 81.518 0.989 -7.68 0.989 -7.68 0.134 81.518
8136.5 0.134 81.485 0.989 -7.718 0.989 -7.718 0.134 81.485
8161.458 0.135 81.451 0.989 -7.756 0.989 -7.756 0.135 81.451
8186.417 0.136 81.417 0.989 -7.793 0.989 -7.793 0.136 81.417
8211.375 0.136 81.383 0.989 -7.831 0.989 -7.831 0.136 81.383
8236.333 0.137 81.349 0.989 -7.868 0.989 -7.868 0.137 81.349
8261.292 0.138 81.316 0.989 -7.906 0.989 -7.906 0.138 81.316
