# MHZ S MA R 50

50 0.997 -4.491 0.078 85.497 0.078 85.497 0.997 -4.491
74.958 0.993 -6.716 0.117 83.265 0.117 83.265 0.993 -6.716
99.917 0.988 -8.922 0.155 81.054 0.155 81.054 0.988 -8.922
124.875 0.981 -11.103 0.193 78.867 0.193 78.867 0.981 -11.103
149.833 0.973 -13.252 0.229 76.712 0.229 76.712 0.973 -13.252
174.792 0.964 -15.365 0.265 74.592 0.265 74.592 0.964 -15.365
199.75 0.954 -17.438 0.3 72.513 0.3 72.513 0.954 -17.438
224.708 0.943 -19.467 0.333 70.479 0.333 70.479 0.943 -19.467
249.667 0.93 -21.448 0.366 68.492 0.366 68.492 0.93 -21.448
274.625 0.917 -23.378 0.397 66.555 0.397 66.555 0.917 -23.378
299.583 0.904 -25.256 0.427 64.671 0.427 64.671 0.904 -25.256
324.542 0.89 -27.08 0.455 62.841 0.455 62.841 0.89 -27.08
349.5 0.875 -28.849 0.482 61.067 0.482 61.067 0.875 -28.849
374.458 0.86 -30.562 0.508 59.348 0.508 59.348 0.86 -30.562
399.417 0.845 -32.219 0.533 57.684 0.533 57.684 0.845 -32.219
424.375 0.83 -33.82 0.557 56.077 0.557 56.077 0.83 -33.82
449.333 0.814 -35.367 0.579 54.524 0.579 54.524 0.814 -35.367
474.292 0.799 -36.859 0.6 53.026 0.6 53.026 0.799 -36.859
499.25 0.783 -38.297 0.62 51.581 0.62 51.581 0.783 -38.297
524.208 0.768 -39.684 0.639 50.188 0.639 50.188 0.768 -39.684
549.167 0.753 -41.02 0.656 48.846 0.656 48.846 0.753 -41.02
574.125 0.738 -42.307 0.673 47.553 0.673 47.553 0.738 -42.307
599.083 0.723 -43.546 0.689 46.308 0.689 46.308 0.723 -43.546
624.042 0.708 -44.739 0.704 45.108 0.704 45.108 0.708 -44.739
649 0.694 -45.888 0.718 43.953 0.718 43.953 0.694 -45.888
673.958 0.68 -46.994 0.731 42.841 0.731 42.841 0.68 -46.994
698.917 0.666 -48.059 0.744 41.77 0.744 41.77 0.666 -48.059
723.875 0.653 -49.084 0.756 40.738 0.756 40.738 0.653 -49.084
748.833 0.639 -50.072 0.767 39.744 0.767 39.744 0.639 -50.072
773.792 0.626 -51.023 0.777 38.786 0.777 38.786 0.626 -51.023
798.75 0.614 -51.94 0.787 37.863 0.787 37.863 0.614 -51.94
823.708 0.601 -52.824 0.797 36.972 0.797 36.972 0.601 -52.824
848.667 0.589 -53.676 0.806 36.114 0.806 36.114 0.589 -53.676
873.625 0.578 -54.498 0.814 35.286 0.814 35.286 0.578 -54.498
898.583 0.566 -55.29 0.822 34.487 0.822 34.487 0.566 -55.29
923.542 0.555 -56.055 0.83 33.715 0.83 33.715 0.555 -56.055
948.5 0.544 -56.794 0.837 32.97 0.837 32.97 0.544 -56.794
973.458 0.534 -57.507 0.843 32.25 0.843 32.25 0.534 -57.507
998.417 0.523 -58.196 0.85 31.554 0.85 31.554 0.523 -58.196
1023.375 0.513 -58.862 0.856 30.881 0.856 30.881 0.513 -58.862
1048.333 0.503 -59.506 0.862 30.231 0.862 30.231 0.503 -59.506
1073.292 0.494 -60.129 0.867 29.601 0.867 29.601 0.494 -60.129
1098.25 0.485 -60.732 0.872 28.991 0.872 28.991 0.485 -60.732
1123.208 0.476 -61.316 0.877 28.401 0.877 28.401 0.476 -61.316
1148.167 0.467 -61.881 0.882 27.829 0.882 27.829 0.467 -61.881
1173.125 0.458 -62.428 0.886 27.275 0.886 27.275 0.458 -62.428
1198.083 0.45 -62.959 0.891 26.737 0.891 26.737 0.45 -62.959
1223.042 0.442 -63.473 0.895 26.216 0.895 26.216 0.442 -63.473
1248 0.434 -63.972 0.899 25.709 0.899 25.709 0.434 -63.972
1272.958 0.426 -64.457 0.902 25.218 0.902 25.218 0.426 -64.457
1297.917 0.419 -64.927 0.906 24.741 0.906 24.741 0.419 -64.927
1322.875 0.411 -65.383 0.909 24.277 0.909 24.277 0.411 -65.383
1347.833 0.404 -65.827 0.912 23.827 0.912 23.827 0.404 -65.827
1372.792 0.397 -66.258 0.915 23.388 0.915 23.388 0.397 -66.258
1397.75 0.39 -66.676 0.918 22.962 0.918 22.962 0.39 -66.676
1422.708 0.383 -67.084 0.921 22.547 0.921 22.547 0.383 -67.084
1447.667 0.377 -67.48 0.924 22.143 0.924 22.143 0.377 -67.48
1472.625 0.371 -67.866 0.926 21.75 0.926 21.75 0.371 -67.866
1497.583 0.364 -68.242 0.929 21.367 0.929 21.367 0.364 -68.242
1522.542 0.358 -68.607 0.931 20.994 0.931 20.994 0.358 -68.607
1547.5 0.352 -68.964 0.933 20.63 0.933 20.63 0.352 -68.964
1572.458 0.347 -69.311 0.936 20.275 0.936 20.275 0.347 -69.311
1597.417 0.341 -69.649 0.938 19.928 0.938 19.928 0.341 -69.649
1622.375 0.335 -69.979 0.94 19.59 0.94 19.59 0.335 -69.979
1647.333 0.33 -70.301 0.942 19.26 0.942 19.26 0.33 -70.301
1672.292 0.325 -70.616 0.943 18.938 0.943 18.938 0.325 -70.616
1697.25 0.319 -70.922 0.945 18.623 0.945 18.623 0.319 -70.922
1722.208 0.314 -71.222 0.947 18.316 0.947 18.316 0.314 -71.222
1747.167 0.309 -71.514 0.948 18.015 0.948 18.015 0.309 -71.514
1772.125 0.304 -71.8 0.95 17.721 0.95 17.721 0.304 -71.8
1797.083 0.3 -72.079 0.952 17.434 0.952 17.434 0.3 -72.079
1822.042 0.295 -72.351 0.953 17.152 0.953 17.152 0.295 -72.351
1847 0.29 -72.618 0.954 16.877 0.954 16.877 0.29 -72.618
1871.958 0.286 -72.879 0.956 16.608 0.956 16.608 0.286 -72.879
1896.917 0.281 -73.134 0.957 16.344 0.957 16.344 0.281 -73.134
1921.875 0.277 -73.384 0.958 16.085 0.958 16.085 0.277 -73.384
1946.833 0.273 -73.628 0.959 15.832 0.959 15.832 0.273 -73.628
1971.792 0.269 -73.867 0.961 15.584 0.961 15.584 0.269 -73.867
1996.75 0.265 -74.101 0.962 15.341 0.962 15.341 0.265 -74.101
2021.708 0.261 -74.33 0.963 15.102 0.963 15.102 0.261 -74.33
2046.667 0.257 -74.555 0.964 14.868 0.964 14.868 0.257 -74.555
2071.625 0.253 -74.775 0.965 14.639 0.965 14.639 0.253 -74.775
2096.583 0.249 -74.99 0.966 14.414 0.966 14.414 0.249 -74.99
2121.542 0.245 -75.202 0.967 14.193 0.967 14.193 0.245 -75.202
2146.5 0.242 -75.409 0.968 13.976 0.968 13.976 0.242 -75.409
2171.458 0.238 -75.612 0.969 13.763 0.969 13.763 0.238 -75.612
2196.417 0.234 -75.811 0.97 13.553 0.97 13.553 0.234 -75.811
2221.375 0.231 -76.007 0.97 13.348 0.97 13.348 0.231 -76.007
2246.333 0.227 -76.198 0.971 13.146 0.971 13.146 0.227 -76.198
2271.292 0.224 -76.387 0.972 12.947 0.972 12.947 0.224 -76.387
2296.25 0.221 -76.571 0.973 12.752 0.973 12.752 0.221 -76.571
2321.208 0.217 -76.752 0.973 12.56 0.973 12.56 0.217 -76.752
2346.167 0.214 -76.93 0.974 12.371 0.974 12.371 0.214 -76.93
2371.125 0.211 -77.105 0.975 12.186 0.975 12.186 0.211 -77.105
2396.083 0.208 -77.277 0.976 12.003 0.976 12.003 0.208 -77.277
2421.042 0.205 -77.445 0.976 11.823 0.976 11.823 0.205 -77.445
2446 0.202 -77.611 0.977 11.646 0.977 11.646 0.202 -77.611
2470.958 0.199 -77.773 0.977 11.472 0.977 11.472 0.199 -77.773
2495.917 0.196 -77.933 0.978 11.301 0.978 11.301 0.196 -77.933
2520.875 0.193 -78.09 0.979 11.132 0.979 11.132 0.193 -78.09
2545.833 0.19 -78.244 0.979 10.965 0.979 10.965 0.19 -78.244
2570.792 0.187 -78.396 0.98 10.801 0.98 10.801 0.187 -78.396
2595.75 0.185 -78.545 0.98 10.64 0.98 10.64 0.185 -78.545
2620.708 0.182 -78.691 0.981 10.481 0.981 10.481 0.182 -78.691
2645.667 0.179 -78.836 0.981 10.324 0.981 10.324 0.179 -78.836
2670.625 0.177 -78.977 0.982 10.169 0.982 10.169 0.177 -78.977
2695.583 0.174 -79.116 0.982 10.016 0.982 10.016 0.174 -79.116
2720.542 0.171 -79.253 0.983 9.866 0.983 9.866 0.171 -79.253
2745.5 0.169 -79.388 0.983 9.718 0.983 9.718 0.169 -79.388
2770.458 0.166 -79.521 0.983 9.571 0.983 9.571 0.166 -79.521
2795.417 0.164 -79.651 0.984 9.427 0.984 9.427 0.164 -79.651
2820.375 0.161 -79.779 0.984 9.284 0.984 9.284 0.161 -79.779
2845.333 0.159 -79.905 0.985 9.144 0.985 9.144 0.159 -79.905
2870.292 0.157 -80.029 0.985 9.005 0.985 9.005 0.157 -80.029
2895.25 0.154 -80.151 0.985 8.868 0.985 8.868 0.154 -80.151
2920.208 0.152 -80.271 0.986 8.732 0.986 8.732 0.152 -80.271
2945.167 0.15 -80.389 0.986 8.598 0.986 8.598 0.15 -80.389
2970.125 0.147 -80.505 0.986 8.466 0.986 8.466 0.147 -80.505
2995.083 0.145 -80.619 0.987 8.336 0.987 8.336 0.145 -80.619
3020.042 0.143 -80.731 0.987 8.207 0.987 8.207 0.143 -80.731
3045 0.141 -80.842 0.987 8.08 0.987 8.08 0.141 -80.842
3069.958 0.138 -80.95 0.988 7.954 0.988 7.954 0.138 -80.95
3094.917 0.136 -81.057 0.988 7.829 0.988 7.829 0.136 -81.057
3119.875 0.134 -81.162 0.988 7.706 0.988 7.706 0.134 -81.162
3144.833 0.132 -81.265 0.989 7.585 0.989 7.585 0.132 -81.265
3169.792 0.13 -81.367 0.989 7.464 0.989 7.464 0.13 -81.367
3194.75 0.128 -81.467 0.989 7.346 0.989 7.346 0.128 -81.467
3219.708 0.126 -81.565 0.989 7.228 0.989 7.228 0.126 -81.565
3244.667 0.124 -81.661 0.99 7.112 0.99 7.112 0.124 -81.661
3269.625 0.122 -81.756 0.99 6.997 0.99 6.997 0.122 -81.756
3294.583 0.12 -81.849 0.99 6.883 0.99 6.883 0.12 -81.849
3319.542 0.118 -81.94 0.99 6.77 0.99 6.77 0.118 -81.94
3344.5 0.116 -82.03 0.991 6.659 0.991 6.659 0.116 -82.03
3369.458 0.114 -82.118 0.991 6.548 0.991 6.548 0.114 -82.118
3394.417 0.112 -82.204 0.991 6.439 0.991 6.439 0.112 -82.204
3419.375 0.11 -82.289 0.991 6.331 0.991 6.331 0.11 -82.289
3444.333 0.108 -82.372 0.991 6.224 0.991 6.224 0.108 -82.372
3469.292 0.107 -82.454 0.992 6.118 0.992 6.118 0.107 -82.454
3494.25 0.105 -82.533 0.992 6.013 0.992 6.013 0.105 -82.533
3519.208 0.103 -82.612 0.992 5.909 0.992 5.909 0.103 -82.612
3544.167 0.101 -82.688 0.992 5.806 0.992 5.806 0.101 -82.688
3569.125 0.099 -82.763 0.992 5.704 0.992 5.704 0.099 -82.763
3594.083 0.098 -82.836 0.993 5.603 0.993 5.603 0.098 -82.836
3619.042 0.096 -82.908 0.993 5.503 0.993 5.503 0.096 -82.908
3644 0.094 -82.978 0.993 5.404 0.993 5.404 0.094 -82.978
3668.958 0.093 -83.046 0.993 5.305 0.993 5.305 0.093 -83.046
3693.917 0.091 -83.112 0.993 5.208 0.993 5.208 0.091 -83.112
3718.875 0.089 -83.177 0.993 5.111 0.993 5.111 0.089 -83.177
3743.833 0.087 -83.24 0.994 5.016 0.994 5.016 0.087 -83.24
3768.792 0.086 -83.301 0.994 4.921 0.994 4.921 0.086 -83.301
3793.75 0.084 -83.36 0.994 4.827 0.994 4.827 0.084 -83.36
3818.708 0.083 -83.418 0.994 4.733 0.994 4.733 0.083 -83.418
3843.667 0.081 -83.473 0.994 4.641 0.994 4.641 0.081 -83.473
3868.625 0.079 -83.527 0.994 4.549 0.994 4.549 0.079 -83.527
3893.583 0.078 -83.578 0.994 4.458 0.994 4.458 0.078 -83.578
3918.542 0.076 -83.628 0.994 4.368 0.994 4.368 0.076 -83.628
3943.5 0.075 -83.675 0.995 4.278 0.995 4.278 0.075 -83.675
3968.458 0.073 -83.721 0.995 4.19 0.995 4.19 0.073 -83.721
3993.417 0.072 -83.764 0.995 4.102 0.995 4.102 0.072 -83.764
4018.375 0.07 -83.804 0.995 4.014 0.995 4.014 0.07 -83.804
4043.333 0.069 -83.843 0.995 3.927 0.995 3.927 0.069 -83.843
4068.292 0.067 -83.879 0.995 3.841 0.995 3.841 0.067 -83.879
4093.25 0.066 -83.912 0.995 3.756 0.995 3.756 0.066 -83.912
4118.208 0.064 -83.943 0.995 3.671 0.995 3.671 0.064 -83.943
4143.167 0.063 -83.971 0.995 3.587 0.995 3.587 0.063 -83.971
4168.125 0.061 -83.996 0.995 3.504 0.995 3.504 0.061 -83.996
4193.083 0.06 -84.019 0.996 3.421 0.996 3.421 0.06 -84.019
4218.042 0.058 -84.038 0.996 3.338 0.996 3.338 0.058 -84.038
4243 0.057 -84.054 0.996 3.257 0.996 3.257 0.057 -84.054
4267.958 0.055 -84.066 0.996 3.176 0.996 3.176 0.055 -84.066
4292.917 0.054 -84.075 0.996 3.095 0.996 3.095 0.054 -84.075
4317.875 0.053 -84.08 0.996 3.015 0.996 3.015 0.053 -84.08
4342.833 0.051 -84.08 0.996 2.936 0.996 2.936 0.051 -84.08
4367.792 0.05 -84.077 0.996 2.857 0.996 2.857 0.05 -84.077
4392.75 0.049 -84.069 0.996 2.778 0.996 2.778 0.049 -84.069
4417.708 0.047 -84.056 0.996 2.7 0.996 2.7 0.047 -84.056
4442.667 0.046 -84.038 0.996 2.623 0.996 2.623 0.046 -84.038
4467.625 0.045 -84.014 0.996 2.546 0.996 2.546 0.045 -84.014
4492.583 0.043 -83.984 0.996 2.47 0.996 2.47 0.043 -83.984
4517.542 0.042 -83.948 0.996 2.394 0.996 2.394 0.042 -83.948
4542.5 0.041 -83.904 0.997 2.319 0.997 2.319 0.041 -83.904
4567.458 0.039 -83.853 0.997 2.244 0.997 2.244 0.039 -83.853
4592.417 0.038 -83.794 0.997 2.169 0.997 2.169 0.038 -83.794
4617.375 0.037 -83.726 0.997 2.095 0.997 2.095 0.037 -83.726
4642.333 0.035 -83.648 0.997 2.022 0.997 2.022 0.035 -83.648
4667.292 0.034 -83.559 0.997 1.949 0.997 1.949 0.034 -83.559
4692.25 0.033 -83.459 0.997 1.876 0.997 1.876 0.033 -83.459
4717.208 0.032 -83.345 0.997 1.804 0.997 1.804 0.032 -83.345
4742.167 0.03 -83.216 0.997 1.732 0.997 1.732 0.03 -83.216
4767.125 0.029 -83.072 0.997 1.661 0.997 1.661 0.029 -83.072
4792.083 0.028 -82.909 0.997 1.59 0.997 1.59 0.028 -82.909
4817.042 0.027 -82.726 0.997 1.519 0.997 1.519 0.027 -82.726
4842 0.025 -82.519 0.997 1.449 0.997 1.449 0.025 -82.519
4866.958 0.024 -82.286 0.997 1.379 0.997 1.379 0.024 -82.286
4891.917 0.023 -82.023 0.997 1.31 0.997 1.31 0.023 -82.023
4916.875 0.022 -81.725 0.997 1.241 0.997 1.241 0.022 -81.725
4941.833 0.021 -81.386 0.997 1.172 0.997 1.172 0.021 -81.386
4966.792 0.019 -81 0.997 1.104 0.997 1.104 0.019 -81
4991.75 0.018 -80.558 0.997 1.036 0.997 1.036 0.018 -80.558
5016.708 0.017 -80.05 0.997 0.969 0.997 0.969 0.017 -80.05
5041.667 0.016 -79.46 0.997 0.902 0.997 0.902 0.016 -79.46
5066.625 0.015 -78.772 0.997 0.835 0.997 0.835 0.015 -78.772
5091.583 0.014 -77.962 0.997 0.769 0.997 0.769 0.014 -77.962
5116.542 0.013 -76.999 0.997 0.702 0.997 0.702 0.013 -76.999
5141.5 0.011 -75.839 0.997 0.637 0.997 0.637 0.011 -75.839
5166.458 0.01 -74.422 0.997 0.571 0.997 0.571 0.01 -74.422
5191.417 9.23e-3 -72.66 0.997 0.506 0.997 0.506 9.23e-3 -72.66
5216.375 8.154e-3 -70.423 0.997 0.441 0.997 0.441 8.154e-3 -70.423
5241.333 7.101e-3 -67.511 0.997 0.377 0.997 0.377 7.101e-3 -67.511
5266.292 6.079e-3 -63.6 0.997 0.313 0.997 0.313 6.079e-3 -63.6
5291.25 5.102e-3 -58.152 0.997 0.249 0.997 0.249 5.102e-3 -58.152
5316.208 4.198e-3 -50.26 0.997 0.185 0.997 0.185 4.198e-3 -50.26
5341.167 3.42e-3 -38.463 0.997 0.122 0.997 0.122 3.42e-3 -38.463
5366.125 2.866e-3 -21.095 0.997 0.059 0.997 0.059 2.866e-3 -21.095
5391.083 2.674e-3 1.259 0.997 -3.374e-3 0.997 -3.374e-3 2.674e-3 1.259
5416.042 2.909e-3 23.16 0.997 -0.066 0.997 -0.066 2.909e-3 23.16
5441 3.481e-3 39.713 0.997 -0.128 0.997 -0.128 3.481e-3 39.713
5465.958 4.254e-3 50.876 0.997 -0.19 0.997 -0.19 4.254e-3 50.876
5490.917 5.133e-3 58.366 0.997 -0.251 0.997 -0.251 5.133e-3 58.366
5515.875 6.071e-3 63.565 0.997 -0.312 0.997 -0.312 6.071e-3 63.565
5540.833 7.042e-3 67.318 0.997 -0.373 0.997 -0.373 7.042e-3 67.318
5565.792 8.032e-3 70.127 0.997 -0.434 0.997 -0.434 8.032e-3 70.127
5590.75 9.033e-3 72.294 0.997 -0.494 0.997 -0.494 9.033e-3 72.294
5615.708 0.01 74.007 0.997 -0.555 0.997 -0.555 0.01 74.007
5640.667 0.011 75.39 0.997 -0.614 0.997 -0.614 0.011 75.39
5665.625 0.012 76.527 0.997 -0.674 0.997 -0.674 0.012 76.527
5690.583 0.013 77.474 0.997 -0.734 0.997 -0.734 0.013 77.474
5715.542 0.014 78.273 0.997 -0.793 0.997 -0.793 0.014 78.273
5740.5 0.015 78.954 0.997 -0.852 0.997 -0.852 0.015 78.954
5765.458 0.016 79.54 0.997 -0.91 0.997 -0.91 0.016 79.54
5790.417 0.017 80.048 0.997 -0.969 0.997 -0.969 0.017 80.048
5815.375 0.018 80.491 0.997 -1.027 0.997 -1.027 0.018 80.491
5840.333 0.019 80.881 0.997 -1.085 0.997 -1.085 0.019 80.881
5865.292 0.02 81.224 0.997 -1.143 0.997 -1.143 0.02 81.224
5890.25 0.021 81.528 0.997 -1.2 0.997 -1.2 0.021 81.528
5915.208 0.022 81.799 0.997 -1.257 0.997 -1.257 0.022 81.799
5940.167 0.023 82.041 0.997 -1.314 0.997 -1.314 0.023 82.041
5965.125 0.024 82.257 0.997 -1.371 0.997 -1.371 0.024 82.257
5990.083 0.025 82.451 0.997 -1.428 0.997 -1.428 0.025 82.451
6015.042 0.026 82.626 0.997 -1.484 0.997 -1.484 0.026 82.626
6040 0.027 82.783 0.997 -1.541 0.997 -1.541 0.027 82.783
6064.958 0.028 82.925 0.997 -1.597 0.997 -1.597 0.028 82.925
6089.917 0.029 83.054 0.997 -1.652 0.997 -1.652 0.029 83.054
6114.875 0.03 83.169 0.997 -1.708 0.997 -1.708 0.03 83.169
6139.833 0.031 83.274 0.997 -1.763 0.997 -1.763 0.031 83.274
6164.792 0.032 83.369 0.997 -1.819 0.997 -1.819 0.032 83.369
6189.75 0.033 83.455 0.997 -1.874 0.997 -1.874 0.033 83.455
6214.708 0.034 83.532 0.997 -1.928 0.997 -1.928 0.034 83.532
6239.667 0.035 83.602 0.997 -1.983 0.997 -1.983 0.035 83.602
6264.625 0.036 83.665 0.997 -2.037 0.997 -2.037 0.036 83.665
6289.583 0.037 83.722 0.997 -2.092 0.997 -2.092 0.037 83.722
6314.542 0.038 83.773 0.997 -2.146 0.997 -2.146 0.038 83.773
6339.5 0.038 83.819 0.997 -2.199 0.997 -2.199 0.038 83.819
6364.458 0.039 83.86 0.997 -2.253 0.997 -2.253 0.039 83.86
6389.417 0.04 83.897 0.997 -2.307 0.997 -2.307 0.04 83.897
6414.375 0.041 83.929 0.996 -2.36 0.996 -2.36 0.041 83.929
6439.333 0.042 83.957 0.996 -2.413 0.996 -2.413 0.042 83.957
6464.292 0.043 83.982 0.996 -2.466 0.996 -2.466 0.043 83.982
6489.25 0.044 84.004 0.996 -2.519 0.996 -2.519 0.044 84.004
6514.208 0.045 84.022 0.996 -2.572 0.996 -2.572 0.045 84.022
6539.167 0.046 84.038 0.996 -2.624 0.996 -2.624 0.046 84.038
6564.125 0.047 84.051 0.996 -2.676 0.996 -2.676 0.047 84.051
6589.083 0.048 84.061 0.996 -2.728 0.996 -2.728 0.048 84.061
6614.042 0.049 84.069 0.996 -2.78 0.996 -2.78 0.049 84.069
6639 0.049 84.075 0.996 -2.832 0.996 -2.832 0.049 84.075
6663.958 0.05 84.079 0.996 -2.884 0.996 -2.884 0.05 84.079
6688.917 0.051 84.08 0.996 -2.935 0.996 -2.935 0.051 84.08
6713.875 0.052 84.08 0.996 -2.987 0.996 -2.987 0.052 84.08
6738.833 0.053 84.079 0.996 -3.038 0.996 -3.038 0.053 84.079
6763.792 0.054 84.075 0.996 -3.089 0.996 -3.089 0.054 84.075
6788.75 0.055 84.07 0.996 -3.14 0.996 -3.14 0.055 84.07
6813.708 0.056 84.064 0.996 -3.19 0.996 -3.19 0.056 84.064
6838.667 0.057 84.056 0.996 -3.241 0.996 -3.241 0.057 84.056
6863.625 0.057 84.047 0.996 -3.291 0.996 -3.291 0.057 84.047
6888.583 0.058 84.037 0.996 -3.342 0.996 -3.342 0.058 84.037
6913.542 0.059 84.026 0.996 -3.392 0.996 -3.392 0.059 84.026
6938.5 0.06 84.013 0.996 -3.442 0.996 -3.442 0.06 84.013
6963.458 0.061 84 0.995 -3.492 0.995 -3.492 0.061 84
6988.417 0.062 83.985 0.995 -3.542 0.995 -3.542 0.062 83.985
7013.375 0.063 83.97 0.995 -3.591 0.995 -3.591 0.063 83.97
7038.333 0.064 83.954 0.995 -3.641 0.995 -3.641 0.064 83.954
7063.292 0.064 83.937 0.995 -3.69 0.995 -3.69 0.064 83.937
7088.25 0.065 83.919 0.995 -3.739 0.995 -3.739 0.065 83.919
7113.208 0.066 83.9 0.995 -3.788 0.995 -3.788 0.066 83.9
7138.167 0.067 83.881 0.995 -3.837 0.995 -3.837 0.067 83.881
7163.125 0.068 83.861 0.995 -3.886 0.995 -3.886 0.068 83.861
7188.083 0.069 83.84 0.995 -3.934 0.995 -3.934 0.069 83.84
7213.042 0.07 83.818 0.995 -3.983 0.995 -3.983 0.07 83.818
7238 0.07 83.797 0.995 -4.031 0.995 -4.031 0.07 83.797
7262.958 0.071 83.774 0.995 -4.08 0.995 -4.08 0.071 83.774
7287.917 0.072 83.751 0.995 -4.128 0.995 -4.128 0.072 83.751
7312.875 0.073 83.727 0.995 -4.176 0.995 -4.176 0.073 83.727
7337.833 0.074 83.703 0.995 -4.224 0.995 -4.224 0.074 83.703
7362.792 0.075 83.679 0.995 -4.272 0.995 -4.272 0.075 83.679
7387.75 0.075 83.654 0.994 -4.319 0.994 -4.319 0.075 83.654
7412.708 0.076 83.628 0.994 -4.367 0.994 -4.367 0.076 83.628
7437.667 0.077 83.603 0.994 -4.414 0.994 -4.414 0.077 83.603
7462.625 0.078 83.576 0.994 -4.462 0.994 -4.462 0.078 83.576
7487.583 0.079 83.55 0.994 -4.509 0.994 -4.509 0.079 83.55
7512.542 0.079 83.523 0.994 -4.556 0.994 -4.556 0.079 83.523
7537.5 0.08 83.495 0.994 -4.603 0.994 -4.603 0.08 83.495
7562.458 0.081 83.468 0.994 -4.65 0.994 -4.65 0.081 83.468
7587.417 0.082 83.44 0.994 -4.697 0.994 -4.697 0.082 83.44
7612.375 0.083 83.412 0.994 -4.743 0.994 -4.743 0.083 83.412
7637.333 0.084 83.383 0.994 -4.79 0.994 -4.79 0.084 83.383
7662.292 0.084 83.354 0.994 -4.836 0.994 -4.836 0.084 83.354
7687.25 0.085 83.325 0.994 -4.883 0.994 -4.883 0.085 83.325
7712.208 0.086 83.296 0.994 -4.929 0.994 -4.929 0.086 83.296
7737.167 0.087 83.266 0.994 -4.975 0.994 -4.975 0.087 83.266
7762.125 0.088 83.236 0.993 -5.021 0.993 -5.021 0.088 83.236
7787.083 0.088 83.206 0.993 -5.067 0.993 -5.067 0.088 83.206
7812.042 0.089 83.176 0.993 -5.113 0.993 -5.113 0.089 83.176
7837 0.09 83.146 0.993 -5.158 0.993 -5.158 0.09 83.146
7861.958 0.091 83.115 0.993 -5.204 0.993 -5.204 0.091 83.115
7886.917 0.092 83.084 0.993 -5.25 0.993 -5.25 0.092 83.084
7911.875 0.092 83.053 0.993 -5.295 0.993 -5.295 0.092 83.053
7936.833 0.093 83.022 0.993 -5.34 0.993 -5.34 0.093 83.022
7961.792 0.094 82.99 0.993 -5.385 0.993 -5.385 0.094 82.99
7986.75 0.095 82.959 0.993 -5.431 0.993 -5.431 0.095 82.959
8011.708 0.095 82.927 0.993 -5.476 0.993 -5.476 0.095 82.927
8036.667 0.096 82.895 0.993 -5.521 0.993 -5.521 0.096 82.895
8061.625 0.097 82.863 0.993 -5.565 0.993 -5.565 0.097 82.863
8086.583 0.098 82.831 0.993 -5.61 0.993 -5.61 0.098 82.831
8111.542 0.099 82.799 0.992 -5.655 0.992 -5.655 0.099 82.799
8136.5 0.099 82.766 0.992 -5.699 0.992 -5.699 0.099 82.766
8161.458 0.1 82.734 0.992 -5.744 0.992 -5.744 0.1 82.734
8186.417 0.101 82.701 0.992 -5.788 0.992 -5.788 0.101 82.701
8211.375 0.102 82.668 0.992 -5.833 0.992 -5.833 0.102 82.668
8236.333 0.102 82.636 0.992 -5.877 0.992 -5.877 0.102 82.636
