# MHZ S MA R 50

50 0.996 -5.027 0.088 84.96 0.088 84.96 0.996 -5.027
74.958 0.991 -7.514 0.131 82.467 0.131 82.467 0.991 -7.514
99.917 0.985 -9.973 0.173 80.002 0.173 80.002 0.985 -9.973
124.875 0.977 -12.396 0.215 77.572 0.215 77.572 0.977 -12.396
149.833 0.967 -14.777 0.255 75.185 0.255 75.185 0.967 -14.777
174.792 0.956 -17.108 0.294 72.848 0.294 72.848 0.956 -17.108
199.75 0.943 -19.384 0.332 70.565 0.332 70.565 0.943 -19.384
224.708 0.929 -21.6 0.368 68.343 0.368 68.343 0.929 -21.6
249.667 0.915 -23.753 0.403 66.184 0.403 66.184 0.915 -23.753
274.625 0.899 -25.838 0.436 64.092 0.436 64.092 0.899 -25.838
299.583 0.884 -27.856 0.467 62.068 0.467 62.068 0.884 -27.856
324.542 0.867 -29.803 0.497 60.114 0.497 60.114 0.867 -29.803
349.5 0.85 -31.68 0.525 58.23 0.525 58.23 0.85 -31.68
374.458 0.833 -33.488 0.552 56.417 0.552 56.417 0.833 -33.488
399.417 0.816 -35.225 0.577 54.673 0.577 54.673 0.816 -35.225
424.375 0.799 -36.894 0.6 52.997 0.6 52.997 0.799 -36.894
449.333 0.781 -38.497 0.622 51.388 0.622 51.388 0.781 -38.497
474.292 0.764 -40.034 0.643 49.845 0.643 49.845 0.764 -40.034
499.25 0.747 -41.507 0.663 48.364 0.663 48.364 0.747 -41.507
524.208 0.731 -42.92 0.681 46.945 0.681 46.945 0.731 -42.92
549.167 0.714 -44.274 0.698 45.585 0.698 45.585 0.714 -44.274
574.125 0.698 -45.572 0.714 44.281 0.714 44.281 0.698 -45.572
599.083 0.682 -46.815 0.729 43.031 0.729 43.031 0.682 -46.815
624.042 0.667 -48.006 0.743 41.833 0.743 41.833 0.667 -48.006
649 0.652 -49.148 0.756 40.684 0.756 40.684 0.652 -49.148
673.958 0.637 -50.243 0.769 39.583 0.769 39.583 0.637 -50.243
698.917 0.623 -51.293 0.78 38.526 0.78 38.526 0.623 -51.293
723.875 0.609 -52.3 0.791 37.513 0.791 37.513 0.609 -52.3
748.833 0.595 -53.266 0.801 36.54 0.801 36.54 0.595 -53.266
773.792 0.582 -54.193 0.811 35.606 0.811 35.606 0.582 -54.193
798.75 0.569 -55.084 0.82 34.708 0.82 34.708 0.569 -55.084
823.708 0.557 -55.939 0.828 33.846 0.828 33.846 0.557 -55.939
848.667 0.545 -56.762 0.836 33.017 0.836 33.017 0.545 -56.762
873.625 0.533 -57.552 0.844 32.219 0.844 32.219 0.533 -57.552
898.583 0.522 -58.313 0.851 31.451 0.851 31.451 0.522 -58.313
923.542 0.511 -59.045 0.858 30.712 0.858 30.712 0.511 -59.045
948.5 0.5 -59.75 0.864 30 0.864 30 0.5 -59.75
973.458 0.49 -60.43 0.87 29.314 0.87 29.314 0.49 -60.43
998.417 0.479 -61.085 0.875 28.652 0.875 28.652 0.479 -61.085
1023.375 0.47 -61.716 0.881 28.013 0.881 28.013 0.47 -61.716
1048.333 0.46 -62.325 0.886 27.397 0.886 27.397 0.46 -62.325
1073.292 0.451 -62.914 0.89 26.801 0.89 26.801 0.451 -62.914
1098.25 0.442 -63.482 0.895 26.226 0.895 26.226 0.442 -63.482
1123.208 0.433 -64.031 0.899 25.67 0.899 25.67 0.433 -64.031
1148.167 0.425 -64.562 0.903 25.131 0.903 25.131 0.425 -64.562
1173.125 0.416 -65.075 0.907 24.611 0.907 24.611 0.416 -65.075
1198.083 0.408 -65.572 0.91 24.106 0.91 24.106 0.408 -65.572
1223.042 0.401 -66.053 0.914 23.618 0.914 23.618 0.401 -66.053
1248 0.393 -66.519 0.917 23.144 0.917 23.144 0.393 -66.519
1272.958 0.386 -66.97 0.92 22.685 0.92 22.685 0.386 -66.97
1297.917 0.378 -67.408 0.923 22.24 0.923 22.24 0.378 -67.408
1322.875 0.371 -67.832 0.926 21.808 0.926 21.808 0.371 -67.832
1347.833 0.365 -68.244 0.929 21.388 0.929 21.388 0.365 -68.244
1372.792 0.358 -68.644 0.931 20.98 0.931 20.98 0.358 -68.644
1397.75 0.352 -69.033 0.934 20.584 0.934 20.584 0.352 -69.033
1422.708 0.345 -69.41 0.936 20.199 0.936 20.199 0.345 -69.41
1447.667 0.339 -69.777 0.938 19.824 0.938 19.824 0.339 -69.777
1472.625 0.333 -70.133 0.941 19.459 0.941 19.459 0.333 -70.133
1497.583 0.327 -70.48 0.943 19.104 0.943 19.104 0.327 -70.48
1522.542 0.322 -70.817 0.945 18.759 0.945 18.759 0.322 -70.817
1547.5 0.316 -71.146 0.946 18.422 0.946 18.422 0.316 -71.146
1572.458 0.311 -71.466 0.948 18.094 0.948 18.094 0.311 -71.466
1597.417 0.305 -71.777 0.95 17.774 0.95 17.774 0.305 -71.777
1622.375 0.3 -72.081 0.952 17.461 0.952 17.461 0.3 -72.081
1647.333 0.295 -72.377 0.953 17.157 0.953 17.157 0.295 -72.377
1672.292 0.29 -72.665 0.955 16.86 0.955 16.86 0.29 -72.665
1697.25 0.285 -72.947 0.956 16.569 0.956 16.569 0.285 -72.947
1722.208 0.28 -73.221 0.957 16.286 0.957 16.286 0.28 -73.221
1747.167 0.276 -73.489 0.959 16.009 0.959 16.009 0.276 -73.489
1772.125 0.271 -73.751 0.96 15.738 0.96 15.738 0.271 -73.751
1797.083 0.267 -74.006 0.961 15.473 0.961 15.473 0.267 -74.006
1822.042 0.262 -74.256 0.963 15.214 0.963 15.214 0.262 -74.256
1847 0.258 -74.5 0.964 14.961 0.964 14.961 0.258 -74.5
1871.958 0.254 -74.738 0.965 14.713 0.965 14.713 0.254 -74.738
1896.917 0.25 -74.971 0.966 14.471 0.966 14.471 0.25 -74.971
1921.875 0.246 -75.199 0.967 14.233 0.967 14.233 0.246 -75.199
1946.833 0.242 -75.422 0.968 14 0.968 14 0.242 -75.422
1971.792 0.238 -75.64 0.969 13.772 0.969 13.772 0.238 -75.64
1996.75 0.234 -75.854 0.97 13.549 0.97 13.549 0.234 -75.854
2021.708 0.231 -76.063 0.971 13.329 0.971 13.329 0.231 -76.063
2046.667 0.227 -76.267 0.971 13.115 0.971 13.115 0.227 -76.267
2071.625 0.223 -76.467 0.972 12.904 0.972 12.904 0.223 -76.467
2096.583 0.22 -76.664 0.973 12.697 0.973 12.697 0.22 -76.664
2121.542 0.216 -76.856 0.974 12.494 0.974 12.494 0.216 -76.856
2146.5 0.213 -77.044 0.975 12.295 0.975 12.295 0.213 -77.044
2171.458 0.21 -77.229 0.975 12.099 0.975 12.099 0.21 -77.229
2196.417 0.206 -77.41 0.976 11.907 0.976 11.907 0.206 -77.41
2221.375 0.203 -77.587 0.977 11.719 0.977 11.719 0.203 -77.587
2246.333 0.2 -77.761 0.977 11.533 0.977 11.533 0.2 -77.761
2271.292 0.197 -77.932 0.978 11.351 0.978 11.351 0.197 -77.932
2296.25 0.194 -78.099 0.979 11.172 0.979 11.172 0.194 -78.099
2321.208 0.191 -78.263 0.979 10.996 0.979 10.996 0.191 -78.263
2346.167 0.188 -78.424 0.98 10.822 0.98 10.822 0.188 -78.424
2371.125 0.185 -78.582 0.98 10.652 0.98 10.652 0.185 -78.582
2396.083 0.182 -78.737 0.981 10.484 0.981 10.484 0.182 -78.737
2421.042 0.179 -78.89 0.981 10.319 0.981 10.319 0.179 -78.89
2446 0.176 -79.039 0.982 10.157 0.982 10.157 0.176 -79.039
2470.958 0.174 -79.186 0.982 9.997 0.982 9.997 0.174 -79.186
2495.917 0.171 -79.33 0.983 9.84 0.983 9.84 0.171 -79.33
2520.875 0.168 -79.471 0.983 9.685 0.983 9.685 0.168 -79.471
2545.833 0.166 -79.61 0.984 9.532 0.984 9.532 0.166 -79.61
2570.792 0.163 -79.747 0.984 9.381 0.984 9.381 0.163 -79.747
2595.75 0.16 -79.881 0.985 9.233 0.985 9.233 0.16 -79.881
2620.708 0.158 -80.013 0.985 9.087 0.985 9.087 0.158 -80.013
2645.667 0.155 -80.142 0.985 8.943 0.985 8.943 0.155 -80.142
2670.625 0.153 -80.269 0.986 8.801 0.986 8.801 0.153 -80.269
2695.583 0.151 -80.394 0.986 8.661 0.986 8.661 0.151 -80.394
2720.542 0.148 -80.516 0.986 8.523 0.986 8.523 0.148 -80.516
2745.5 0.146 -80.637 0.987 8.386 0.987 8.386 0.146 -80.637
2770.458 0.144 -80.755 0.987 8.252 0.987 8.252 0.144 -80.755
2795.417 0.141 -80.871 0.987 8.119 0.987 8.119 0.141 -80.871
2820.375 0.139 -80.986 0.988 7.988 0.988 7.988 0.139 -80.986
2845.333 0.137 -81.098 0.988 7.859 0.988 7.859 0.137 -81.098
2870.292 0.135 -81.208 0.988 7.731 0.988 7.731 0.135 -81.208
2895.25 0.132 -81.316 0.989 7.605 0.989 7.605 0.132 -81.316
2920.208 0.13 -81.423 0.989 7.48 0.989 7.48 0.13 -81.423
2945.167 0.128 -81.527 0.989 7.358 0.989 7.358 0.128 -81.527
2970.125 0.126 -81.63 0.99 7.236 0.99 7.236 0.126 -81.63
2995.083 0.124 -81.73 0.99 7.116 0.99 7.116 0.124 -81.73
3020.042 0.122 -81.829 0.99 6.997 0.99 6.997 0.122 -81.829
3045 0.12 -81.926 0.99 6.88 0.99 6.88 0.12 -81.926
3069.958 0.118 -82.021 0.991 6.764 0.991 6.764 0.118 -82.021
3094.917 0.116 -82.115 0.991 6.65 0.991 6.65 0.116 -82.115
3119.875 0.114 -82.207 0.991 6.537 0.991 6.537 0.114 -82.207
3144.833 0.112 -82.296 0.991 6.425 0.991 6.425 0.112 -82.296
3169.792 0.11 -82.385 0.991 6.314 0.991 6.314 0.11 -82.385
3194.75 0.108 -82.471 0.992 6.204 0.992 6.204 0.108 -82.471
3219.708 0.106 -82.556 0.992 6.096 0.992 6.096 0.106 -82.556
3244.667 0.104 -82.638 0.992 5.989 0.992 5.989 0.104 -82.638
3269.625 0.103 -82.72 0.992 5.883 0.992 5.883 0.103 -82.72
3294.583 0.101 -82.799 0.992 5.778 0.992 5.778 0.101 -82.799
3319.542 0.099 -82.877 0.993 5.674 0.993 5.674 0.099 -82.877
3344.5 0.097 -82.953 0.993 5.571 0.993 5.571 0.097 -82.953
3369.458 0.095 -83.027 0.993 5.469 0.993 5.469 0.095 -83.027
3394.417 0.094 -83.099 0.993 5.369 0.993 5.369 0.094 -83.099
3419.375 0.092 -83.17 0.993 5.269 0.993 5.269 0.092 -83.17
3444.333 0.09 -83.238 0.993 5.17 0.993 5.17 0.09 -83.238
3469.292 0.088 -83.305 0.994 5.072 0.994 5.072 0.088 -83.305
3494.25 0.087 -83.371 0.994 4.975 0.994 4.975 0.087 -83.371
3519.208 0.085 -83.434 0.994 4.879 0.994 4.879 0.085 -83.434
3544.167 0.083 -83.495 0.994 4.784 0.994 4.784 0.083 -83.495
3569.125 0.082 -83.555 0.994 4.69 0.994 4.69 0.082 -83.555
3594.083 0.08 -83.612 0.994 4.597 0.994 4.597 0.08 -83.612
3619.042 0.079 -83.668 0.994 4.504 0.994 4.504 0.079 -83.668
3644 0.077 -83.722 0.995 4.412 0.995 4.412 0.077 -83.722
3668.958 0.075 -83.773 0.995 4.321 0.995 4.321 0.075 -83.773
3693.917 0.074 -83.823 0.995 4.231 0.995 4.231 0.074 -83.823
3718.875 0.072 -83.87 0.995 4.142 0.995 4.142 0.072 -83.87
3743.833 0.071 -83.915 0.995 4.053 0.995 4.053 0.071 -83.915
3768.792 0.069 -83.958 0.995 3.966 0.995 3.966 0.069 -83.958
3793.75 0.068 -83.998 0.995 3.879 0.995 3.879 0.068 -83.998
3818.708 0.066 -84.036 0.995 3.792 0.995 3.792 0.066 -84.036
3843.667 0.065 -84.071 0.995 3.707 0.995 3.707 0.065 -84.071
3868.625 0.063 -84.104 0.995 3.622 0.995 3.622 0.063 -84.104
3893.583 0.062 -84.134 0.996 3.537 0.996 3.537 0.062 -84.134
3918.542 0.06 -84.161 0.996 3.454 0.996 3.454 0.06 -84.161
3943.5 0.059 -84.185 0.996 3.371 0.996 3.371 0.059 -84.185
3968.458 0.057 -84.206 0.996 3.289 0.996 3.289 0.057 -84.206
3993.417 0.056 -84.224 0.996 3.207 0.996 3.207 0.056 -84.224
4018.375 0.055 -84.239 0.996 3.126 0.996 3.126 0.055 -84.239
4043.333 0.053 -84.249 0.996 3.045 0.996 3.045 0.053 -84.249
4068.292 0.052 -84.256 0.996 2.965 0.996 2.965 0.052 -84.256
4093.25 0.05 -84.259 0.996 2.886 0.996 2.886 0.05 -84.259
4118.208 0.049 -84.258 0.996 2.808 0.996 2.808 0.049 -84.258
4143.167 0.048 -84.252 0.996 2.729 0.996 2.729 0.048 -84.252
4168.125 0.046 -84.241 0.996 2.652 0.996 2.652 0.046 -84.241
4193.083 0.045 -84.226 0.996 2.575 0.996 2.575 0.045 -84.226
4218.042 0.044 -84.204 0.997 2.498 0.997 2.498 0.044 -84.204
4243 0.042 -84.177 0.997 2.422 0.997 2.422 0.042 -84.177
4267.958 0.041 -84.143 0.997 2.347 0.997 2.347 0.041 -84.143
4292.917 0.04 -84.103 0.997 2.272 0.997 2.272 0.04 -84.103
4317.875 0.038 -84.054 0.997 2.198 0.997 2.198 0.038 -84.054
4342.833 0.037 -83.998 0.997 2.124 0.997 2.124 0.037 -83.998
4367.792 0.036 -83.933 0.997 2.05 0.997 2.05 0.036 -83.933
4392.75 0.035 -83.858 0.997 1.977 0.997 1.977 0.035 -83.858
4417.708 0.033 -83.773 0.997 1.905 0.997 1.905 0.033 -83.773
4442.667 0.032 -83.675 0.997 1.833 0.997 1.833 0.032 -83.675
4467.625 0.031 -83.565 0.997 1.761 0.997 1.761 0.031 -83.565
4492.583 0.03 -83.44 0.997 1.69 0.997 1.69 0.03 -83.44
4517.542 0.028 -83.3 0.997 1.62 0.997 1.62 0.028 -83.3
4542.5 0.027 -83.141 0.997 1.549 0.997 1.549 0.027 -83.141
4567.458 0.026 -82.961 0.997 1.48 0.997 1.48 0.026 -82.961
4592.417 0.025 -82.759 0.997 1.41 0.997 1.41 0.025 -82.759
4617.375 0.024 -82.53 0.997 1.341 0.997 1.341 0.024 -82.53
4642.333 0.022 -82.271 0.997 1.273 0.997 1.273 0.022 -82.271
4667.292 0.021 -81.977 0.997 1.204 0.997 1.204 0.021 -81.977
4692.25 0.02 -81.643 0.997 1.137 0.997 1.137 0.02 -81.643
4717.208 0.019 -81.26 0.997 1.069 0.997 1.069 0.019 -81.26
4742.167 0.018 -80.821 0.997 1.002 0.997 1.002 0.018 -80.821
4767.125 0.017 -80.314 0.997 0.936 0.997 0.936 0.017 -80.314
4792.083 0.015 -79.725 0.997 0.869 0.997 0.869 0.015 -79.725
4817.042 0.014 -79.035 0.997 0.804 0.997 0.804 0.014 -79.035
4842 0.013 -78.219 0.997 0.738 0.997 0.738 0.013 -78.219
4866.958 0.012 -77.245 0.997 0.673 0.997 0.673 0.012 -77.245
4891.917 0.011 -76.065 0.997 0.608 0.997 0.608 0.011 -76.065
4916.875 9.814e-3 -74.615 0.997 0.544 0.997 0.544 9.814e-3 -74.615
4941.833 8.736e-3 -72.798 0.997 0.479 0.997 0.479 8.736e-3 -72.798
4966.792 7.677e-3 -70.47 0.997 0.416 0.997 0.416 7.677e-3 -70.47
4991.75 6.64e-3 -67.401 0.997 0.352 0.997 0.352 6.64e-3 -67.401
5016.708 5.635e-3 -63.217 0.997 0.289 0.997 0.289 5.635e-3 -63.217
5041.667 4.679e-3 -57.278 0.997 0.226 0.997 0.226 4.679e-3 -57.278
5066.625 3.804e-3 -48.477 0.997 0.164 0.997 0.164 3.804e-3 -48.477
5091.583 3.074e-3 -35.045 0.997 0.101 0.997 0.101 3.074e-3 -35.045
5116.542 2.607e-3 -15.297 0.997 0.04 0.997 0.04 2.607e-3 -15.297
5141.5 2.543e-3 8.7 0.997 -0.022 0.997 -0.022 2.543e-3 8.7
5166.458 2.905e-3 29.988 0.997 -0.083 0.997 -0.083 2.905e-3 29.988
5191.417 3.56e-3 44.929 0.997 -0.144 0.997 -0.144 3.56e-3 44.929
5216.375 4.375e-3 54.719 0.997 -0.205 0.997 -0.205 4.375e-3 54.719
5241.333 5.273e-3 61.26 0.997 -0.266 0.997 -0.266 5.273e-3 61.26
5266.292 6.216e-3 65.818 0.997 -0.326 0.997 -0.326 6.216e-3 65.818
5291.25 7.184e-3 69.131 0.997 -0.386 0.997 -0.386 7.184e-3 69.131
5316.208 8.166e-3 71.626 0.997 -0.445 0.997 -0.445 8.166e-3 71.626
5341.167 9.157e-3 73.562 0.997 -0.505 0.997 -0.505 9.157e-3 73.562
5366.125 0.01 75.1 0.997 -0.564 0.997 -0.564 0.01 75.1
5391.083 0.011 76.347 0.997 -0.622 0.997 -0.622 0.011 76.347
5416.042 0.012 77.376 0.997 -0.681 0.997 -0.681 0.012 77.376
5441 0.013 78.235 0.997 -0.739 0.997 -0.739 0.013 78.235
5465.958 0.014 78.962 0.997 -0.797 0.997 -0.797 0.014 78.962
5490.917 0.015 79.583 0.997 -0.855 0.997 -0.855 0.015 79.583
5515.875 0.016 80.119 0.997 -0.913 0.997 -0.913 0.016 80.119
5540.833 0.017 80.583 0.997 -0.97 0.997 -0.97 0.017 80.583
5565.792 0.018 80.989 0.997 -1.027 0.997 -1.027 0.018 80.989
5590.75 0.019 81.346 0.997 -1.084 0.997 -1.084 0.019 81.346
5615.708 0.02 81.661 0.997 -1.14 0.997 -1.14 0.02 81.661
5640.667 0.021 81.941 0.997 -1.197 0.997 -1.197 0.021 81.941
5665.625 0.022 82.189 0.997 -1.253 0.997 -1.253 0.022 82.189
5690.583 0.023 82.411 0.997 -1.309 0.997 -1.309 0.023 82.411
5715.542 0.024 82.61 0.997 -1.364 0.997 -1.364 0.024 82.61
5740.5 0.025 82.789 0.997 -1.42 0.997 -1.42 0.025 82.789
5765.458 0.026 82.949 0.997 -1.475 0.997 -1.475 0.026 82.949
5790.417 0.027 83.093 0.997 -1.53 0.997 -1.53 0.027 83.093
5815.375 0.028 83.224 0.997 -1.585 0.997 -1.585 0.028 83.224
5840.333 0.029 83.341 0.997 -1.639 0.997 -1.639 0.029 83.341
5865.292 0.03 83.447 0.997 -1.694 0.997 -1.694 0.03 83.447
5890.25 0.031 83.543 0.997 -1.748 0.997 -1.748 0.031 83.543
5915.208 0.032 83.63 0.997 -1.802 0.997 -1.802 0.032 83.63
5940.167 0.032 83.708 0.997 -1.856 0.997 -1.856 0.032 83.708
5965.125 0.033 83.778 0.997 -1.909 0.997 -1.909 0.033 83.778
5990.083 0.034 83.842 0.997 -1.963 0.997 -1.963 0.034 83.842
6015.042 0.035 83.899 0.997 -2.016 0.997 -2.016 0.035 83.899
6040 0.036 83.951 0.997 -2.069 0.997 -2.069 0.036 83.951
6064.958 0.037 83.997 0.997 -2.122 0.997 -2.122 0.037 83.997
6089.917 0.038 84.038 0.997 -2.175 0.997 -2.175 0.038 84.038
6114.875 0.039 84.074 0.997 -2.227 0.997 -2.227 0.039 84.074
6139.833 0.04 84.107 0.997 -2.279 0.997 -2.279 0.04 84.107
6164.792 0.041 84.135 0.997 -2.331 0.997 -2.331 0.041 84.135
6189.75 0.042 84.16 0.997 -2.383 0.997 -2.383 0.042 84.16
6214.708 0.043 84.182 0.997 -2.435 0.997 -2.435 0.043 84.182
6239.667 0.043 84.2 0.997 -2.487 0.997 -2.487 0.043 84.2
6264.625 0.044 84.216 0.997 -2.538 0.997 -2.538 0.044 84.216
6289.583 0.045 84.229 0.996 -2.589 0.996 -2.589 0.045 84.229
6314.542 0.046 84.239 0.996 -2.641 0.996 -2.641 0.046 84.239
6339.5 0.047 84.247 0.996 -2.691 0.996 -2.691 0.047 84.247
6364.458 0.048 84.253 0.996 -2.742 0.996 -2.742 0.048 84.253
6389.417 0.049 84.257 0.996 -2.793 0.996 -2.793 0.049 84.257
6414.375 0.05 84.259 0.996 -2.843 0.996 -2.843 0.05 84.259
6439.333 0.051 84.259 0.996 -2.894 0.996 -2.894 0.051 84.259
6464.292 0.051 84.258 0.996 -2.944 0.996 -2.944 0.051 84.258
6489.25 0.052 84.254 0.996 -2.994 0.996 -2.994 0.052 84.254
6514.208 0.053 84.25 0.996 -3.043 0.996 -3.043 0.053 84.25
6539.167 0.054 84.243 0.996 -3.093 0.996 -3.093 0.054 84.243
6564.125 0.055 84.236 0.996 -3.143 0.996 -3.143 0.055 84.236
6589.083 0.056 84.227 0.996 -3.192 0.996 -3.192 0.056 84.227
6614.042 0.057 84.217 0.996 -3.241 0.996 -3.241 0.057 84.217
6639 0.057 84.206 0.996 -3.29 0.996 -3.29 0.057 84.206
6663.958 0.058 84.194 0.996 -3.339 0.996 -3.339 0.058 84.194
6688.917 0.059 84.18 0.996 -3.388 0.996 -3.388 0.059 84.18
6713.875 0.06 84.166 0.996 -3.437 0.996 -3.437 0.06 84.166
6738.833 0.061 84.151 0.996 -3.485 0.996 -3.485 0.061 84.151
6763.792 0.062 84.135 0.996 -3.534 0.996 -3.534 0.062 84.135
6788.75 0.063 84.118 0.996 -3.582 0.996 -3.582 0.063 84.118
6813.708 0.063 84.101 0.995 -3.63 0.995 -3.63 0.063 84.101
6838.667 0.064 84.082 0.995 -3.678 0.995 -3.678 0.064 84.082
6863.625 0.065 84.063 0.995 -3.726 0.995 -3.726 0.065 84.063
6888.583 0.066 84.044 0.995 -3.774 0.995 -3.774 0.066 84.044
6913.542 0.067 84.023 0.995 -3.821 0.995 -3.821 0.067 84.023
6938.5 0.068 84.002 0.995 -3.869 0.995 -3.869 0.068 84.002
6963.458 0.068 83.981 0.995 -3.916 0.995 -3.916 0.068 83.981
6988.417 0.069 83.959 0.995 -3.963 0.995 -3.963 0.069 83.959
7013.375 0.07 83.936 0.995 -4.01 0.995 -4.01 0.07 83.936
7038.333 0.071 83.913 0.995 -4.057 0.995 -4.057 0.071 83.913
7063.292 0.072 83.889 0.995 -4.104 0.995 -4.104 0.072 83.889
7088.25 0.072 83.865 0.995 -4.151 0.995 -4.151 0.072 83.865
7113.208 0.073 83.841 0.995 -4.197 0.995 -4.197 0.073 83.841
7138.167 0.074 83.816 0.995 -4.244 0.995 -4.244 0.074 83.816
7163.125 0.075 83.79 0.995 -4.29 0.995 -4.29 0.075 83.79
7188.083 0.076 83.765 0.995 -4.337 0.995 -4.337 0.076 83.765
7213.042 0.076 83.739 0.995 -4.383 0.995 -4.383 0.076 83.739
7238 0.077 83.712 0.995 -4.429 0.995 -4.429 0.077 83.712
7262.958 0.078 83.685 0.994 -4.475 0.994 -4.475 0.078 83.685
7287.917 0.079 83.658 0.994 -4.52 0.994 -4.52 0.079 83.658
7312.875 0.08 83.631 0.994 -4.566 0.994 -4.566 0.08 83.631
7337.833 0.08 83.603 0.994 -4.612 0.994 -4.612 0.08 83.603
7362.792 0.081 83.575 0.994 -4.657 0.994 -4.657 0.081 83.575
7387.75 0.082 83.547 0.994 -4.703 0.994 -4.703 0.082 83.547
7412.708 0.083 83.518 0.994 -4.748 0.994 -4.748 0.083 83.518
7437.667 0.084 83.49 0.994 -4.793 0.994 -4.793 0.084 83.49
7462.625 0.084 83.461 0.994 -4.838 0.994 -4.838 0.084 83.461
7487.583 0.085 83.431 0.994 -4.883 0.994 -4.883 0.085 83.431
7512.542 0.086 83.402 0.994 -4.928 0.994 -4.928 0.086 83.402
7537.5 0.087 83.372 0.994 -4.973 0.994 -4.973 0.087 83.372
7562.458 0.087 83.342 0.994 -5.017 0.994 -5.017 0.087 83.342
7587.417 0.088 83.312 0.994 -5.062 0.994 -5.062 0.088 83.312
7612.375 0.089 83.282 0.994 -5.106 0.994 -5.106 0.089 83.282
7637.333 0.09 83.252 0.993 -5.151 0.993 -5.151 0.09 83.252
7662.292 0.091 83.221 0.993 -5.195 0.993 -5.195 0.091 83.221
7687.25 0.091 83.19 0.993 -5.239 0.993 -5.239 0.091 83.19
7712.208 0.092 83.159 0.993 -5.283 0.993 -5.283 0.092 83.159
7737.167 0.093 83.128 0.993 -5.327 0.993 -5.327 0.093 83.128
7762.125 0.094 83.097 0.993 -5.371 0.993 -5.371 0.094 83.097
7787.083 0.094 83.066 0.993 -5.415 0.993 -5.415 0.094 83.066
7812.042 0.095 83.034 0.993 -5.459 0.993 -5.459 0.095 83.034
7837 0.096 83.003 0.993 -5.502 0.993 -5.502 0.096 83.003
7861.958 0.097 82.971 0.993 -5.546 0.993 -5.546 0.097 82.971
7886.917 0.097 82.939 0.993 -5.589 0.993 -5.589 0.097 82.939
7911.875 0.098 82.907 0.993 -5.633 0.993 -5.633 0.098 82.907
7936.833 0.099 82.875 0.993 -5.676 0.993 -5.676 0.099 82.875
7961.792 0.1 82.843 0.993 -5.719 0.993 -5.719 0.1 82.843
7986.75 0.1 82.811 0.992 -5.762 0.992 -5.762 0.1 82.811
8011.708 0.101 82.778 0.992 -5.805 0.992 -5.805 0.101 82.778
8036.667 0.102 82.746 0.992 -5.848 0.992 -5.848 0.102 82.746
8061.625 0.103 82.713 0.992 -5.891 0.992 -5.891 0.103 82.713
8086.583 0.103 82.681 0.992 -5.934 0.992 -5.934 0.103 82.681
8111.542 0.104 82.648 0.992 -5.976 0.992 -5.976 0.104 82.648
8136.5 0.105 82.615 0.992 -6.019 0.992 -6.019 0.105 82.615
8161.458 0.106 82.582 0.992 -6.061 0.992 -6.061 0.106 82.582
8186.417 0.106 82.549 0.992 -6.104 0.992 -6.104 0.106 82.549
8211.375 0.107 82.516 0.992 -6.146 0.992 -6.146 0.107 82.516
8236.333 0.108 82.483 0.992 -6.189 0.992 -6.189 0.108 82.483
