# MHZ S MA R 50

50 0.915 -23.745 0.403 66.221 0.403 66.221 0.915 -23.745
74.958 0.834 -33.41 0.551 56.539 0.551 56.539 0.834 -33.41
99.917 0.75 -41.332 0.66 48.6 0.66 48.6 0.75 -41.332
124.875 0.672 -47.717 0.74 42.198 0.74 42.198 0.672 -47.717
149.833 0.602 -52.854 0.797 37.044 0.797 37.044 0.602 -52.854
174.792 0.543 -57.015 0.839 32.865 0.839 32.865 0.543 -57.015
199.75 0.492 -60.422 0.87 29.441 0.87 29.441 0.492 -60.422
224.708 0.448 -63.244 0.893 26.602 0.893 26.602 0.448 -63.244
249.667 0.41 -65.61 0.911 24.218 0.911 24.218 0.41 -65.61
274.625 0.378 -67.616 0.925 22.195 0.925 22.195 0.378 -67.616
299.583 0.35 -69.335 0.936 20.458 0.936 20.458 0.35 -69.335
324.542 0.325 -70.822 0.945 18.953 0.945 18.953 0.325 -70.822
349.5 0.303 -72.119 0.952 17.638 0.952 17.638 0.303 -72.119
374.458 0.284 -73.261 0.958 16.478 0.958 16.478 0.284 -73.261
399.417 0.266 -74.272 0.963 15.449 0.963 15.449 0.266 -74.272
424.375 0.251 -75.173 0.967 14.529 0.967 14.529 0.251 -75.173
449.333 0.237 -75.981 0.97 13.702 0.97 13.702 0.237 -75.981
474.292 0.224 -76.71 0.973 12.954 0.973 12.954 0.224 -76.71
499.25 0.213 -77.371 0.976 12.274 0.976 12.274 0.213 -77.371
524.208 0.202 -77.972 0.978 11.653 0.978 11.653 0.202 -77.972
549.167 0.192 -78.521 0.98 11.084 0.98 11.084 0.192 -78.521
574.125 0.183 -79.025 0.982 10.56 0.982 10.56 0.183 -79.025
599.083 0.175 -79.489 0.983 10.076 0.983 10.076 0.175 -79.489
624.042 0.167 -79.917 0.985 9.627 0.985 9.627 0.167 -79.917
649 0.16 -80.314 0.986 9.21 0.986 9.21 0.16 -80.314
673.958 0.153 -80.682 0.987 8.82 0.987 8.82 0.153 -80.682
698.917 0.147 -81.025 0.988 8.456 0.988 8.456 0.147 -81.025
723.875 0.141 -81.344 0.989 8.114 0.989 8.114 0.141 -81.344
748.833 0.136 -81.643 0.989 7.792 0.989 7.792 0.136 -81.643
773.792 0.13 -81.923 0.99 7.49 0.99 7.49 0.13 -81.923
798.75 0.125 -82.185 0.991 7.203 0.991 7.203 0.125 -82.185
823.708 0.121 -82.432 0.991 6.933 0.991 6.933 0.121 -82.432
848.667 0.116 -82.664 0.992 6.676 0.992 6.676 0.116 -82.664
873.625 0.112 -82.883 0.992 6.432 0.992 6.432 0.112 -82.883
898.583 0.108 -83.089 0.993 6.2 0.993 6.2 0.108 -83.089
923.542 0.104 -83.284 0.993 5.979 0.993 5.979 0.104 -83.284
948.5 0.1 -83.468 0.994 5.767 0.994 5.767 0.1 -83.468
973.458 0.097 -83.642 0.994 5.565 0.994 5.565 0.097 -83.642
998.417 0.094 -83.807 0.994 5.372 0.994 5.372 0.094 -83.807
1023.375 0.09 -83.963 0.995 5.186 0.995 5.186 0.09 -83.963
1048.333 0.087 -84.11 0.995 5.008 0.995 5.008 0.087 -84.11
1073.292 0.084 -84.25 0.995 4.837 0.995 4.837 0.084 -84.25
1098.25 0.081 -84.383 0.995 4.672 0.995 4.672 0.081 -84.383
1123.208 0.079 -84.508 0.996 4.513 0.996 4.513 0.079 -84.508
1148.167 0.076 -84.627 0.996 4.36 0.996 4.36 0.076 -84.627
1173.125 0.073 -84.739 0.996 4.212 0.996 4.212 0.073 -84.739
1198.083 0.071 -84.845 0.996 4.07 0.996 4.07 0.071 -84.845
1223.042 0.069 -84.945 0.996 3.931 0.996 3.931 0.069 -84.945
1248 0.066 -85.039 0.996 3.797 0.996 3.797 0.066 -85.039
1272.958 0.064 -85.127 0.997 3.667 0.997 3.667 0.064 -85.127
1297.917 0.062 -85.21 0.997 3.541 0.997 3.541 0.062 -85.21
1322.875 0.06 -85.288 0.997 3.419 0.997 3.419 0.06 -85.288
1347.833 0.058 -85.36 0.997 3.3 0.997 3.3 0.058 -85.36
1372.792 0.056 -85.427 0.997 3.185 0.997 3.185 0.056 -85.427
1397.75 0.054 -85.489 0.997 3.072 0.997 3.072 0.054 -85.489
1422.708 0.052 -85.545 0.997 2.963 0.997 2.963 0.052 -85.545
1447.667 0.05 -85.596 0.997 2.856 0.997 2.856 0.05 -85.596
1472.625 0.048 -85.641 0.997 2.752 0.997 2.752 0.048 -85.641
1497.583 0.046 -85.681 0.998 2.65 0.998 2.65 0.046 -85.681
1522.542 0.045 -85.716 0.998 2.551 0.998 2.551 0.045 -85.716
1547.5 0.043 -85.744 0.998 2.454 0.998 2.454 0.043 -85.744
1572.458 0.041 -85.766 0.998 2.36 0.998 2.36 0.041 -85.766
1597.417 0.04 -85.782 0.998 2.267 0.998 2.267 0.04 -85.782
1622.375 0.038 -85.792 0.998 2.176 0.998 2.176 0.038 -85.792
1647.333 0.036 -85.794 0.998 2.087 0.998 2.087 0.036 -85.794
1672.292 0.035 -85.789 0.998 2 0.998 2 0.035 -85.789
1697.25 0.033 -85.776 0.998 1.915 0.998 1.915 0.033 -85.776
1722.208 0.032 -85.754 0.998 1.832 0.998 1.832 0.032 -85.754
1747.167 0.031 -85.723 0.998 1.75 0.998 1.75 0.031 -85.723
1772.125 0.029 -85.682 0.998 1.669 0.998 1.669 0.029 -85.682
1797.083 0.028 -85.629 0.998 1.59 0.998 1.59 0.028 -85.629
1822.042 0.026 -85.564 0.998 1.512 0.998 1.512 0.026 -85.564
1847 0.025 -85.485 0.998 1.436 0.998 1.436 0.025 -85.485
1871.958 0.024 -85.391 0.998 1.361 0.998 1.361 0.024 -85.391
1896.917 0.022 -85.278 0.998 1.287 0.998 1.287 0.022 -85.278
1921.875 0.021 -85.146 0.998 1.214 0.998 1.214 0.021 -85.146
1946.833 0.02 -84.99 0.998 1.143 0.998 1.143 0.02 -84.99
1971.792 0.019 -84.807 0.998 1.072 0.998 1.072 0.019 -84.807
1996.75 0.018 -84.592 0.998 1.003 0.998 1.003 0.018 -84.592
2021.708 0.016 -84.34 0.999 0.934 0.999 0.934 0.016 -84.34
2046.667 0.015 -84.042 0.999 0.867 0.999 0.867 0.015 -84.042
2071.625 0.014 -83.688 0.999 0.801 0.999 0.801 0.014 -83.688
2096.583 0.013 -83.265 0.999 0.735 0.999 0.735 0.013 -83.265
2121.542 0.012 -82.756 0.999 0.67 0.999 0.67 0.012 -82.756
2146.5 0.011 -82.135 0.999 0.606 0.999 0.606 0.011 -82.135
2171.458 9.58e-3 -81.367 0.999 0.543 0.999 0.543 9.58e-3 -81.367
2196.417 8.507e-3 -80.399 0.999 0.481 0.999 0.481 8.507e-3 -80.399
2221.375 7.45e-3 -79.153 0.999 0.42 0.999 0.42 7.45e-3 -79.153
2246.333 6.41e-3 -77.5 0.999 0.359 0.999 0.359 6.41e-3 -77.5
2271.292 5.391e-3 -75.218 0.999 0.299 0.999 0.299 5.391e-3 -75.218
2296.25 4.396e-3 -71.902 0.999 0.24 0.999 0.24 4.396e-3 -71.902
2321.208 3.437e-3 -66.72 0.999 0.181 0.999 0.181 3.437e-3 -66.72
2346.167 2.537e-3 -57.772 0.999 0.123 0.999 0.123 2.537e-3 -57.772
2371.125 1.771e-3 -40.34 0.999 0.066 0.999 0.066 1.771e-3 -40.34
2396.083 1.357e-3 -6.636 0.999 9e-3 0.999 9e-3 1.357e-3 -6.636
2421.042 1.58e-3 31.361 0.999 -0.047 0.999 -0.047 1.58e-3 31.361
2446 2.244e-3 52.965 0.999 -0.103 0.999 -0.103 2.244e-3 52.965
2470.958 3.067e-3 63.76 0.999 -0.158 0.999 -0.158 3.067e-3 63.76
2495.917 3.943e-3 69.794 0.999 -0.212 0.999 -0.212 3.943e-3 69.794
2520.875 4.839e-3 73.557 0.999 -0.266 0.999 -0.266 4.839e-3 73.557
2545.833 5.742e-3 76.1 0.999 -0.32 0.999 -0.32 5.742e-3 76.1
2570.792 6.644e-3 77.92 0.999 -0.373 0.999 -0.373 6.644e-3 77.92
2595.75 7.544e-3 79.28 0.999 -0.425 0.999 -0.425 7.544e-3 79.28
2620.708 8.439e-3 80.33 0.999 -0.477 0.999 -0.477 8.439e-3 80.33
2645.667 9.329e-3 81.162 0.999 -0.529 0.999 -0.529 9.329e-3 81.162
2670.625 0.01 81.835 0.999 -0.58 0.999 -0.58 0.01 81.835
2695.583 0.011 82.388 0.999 -0.631 0.999 -0.631 0.011 82.388
2720.542 0.012 82.849 0.999 -0.681 0.999 -0.681 0.012 82.849
2745.5 0.013 83.237 0.999 -0.731 0.999 -0.731 0.013 83.237
2770.458 0.014 83.568 0.999 -0.781 0.999 -0.781 0.014 83.568
2795.417 0.015 83.851 0.999 -0.83 0.999 -0.83 0.015 83.851
2820.375 0.015 84.096 0.999 -0.878 0.999 -0.878 0.015 84.096
2845.333 0.016 84.309 0.999 -0.927 0.999 -0.927 0.016 84.309
2870.292 0.017 84.495 0.999 -0.975 0.999 -0.975 0.017 84.495
2895.25 0.018 84.658 0.998 -1.023 0.998 -1.023 0.018 84.658
2920.208 0.019 84.801 0.998 -1.07 0.998 -1.07 0.019 84.801
2945.167 0.02 84.927 0.998 -1.117 0.998 -1.117 0.02 84.927
2970.125 0.02 85.039 0.998 -1.164 0.998 -1.164 0.02 85.039
2995.083 0.021 85.138 0.998 -1.21 0.998 -1.21 0.021 85.138
3020.042 0.022 85.225 0.998 -1.256 0.998 -1.256 0.022 85.225
3045 0.023 85.303 0.998 -1.302 0.998 -1.302 0.023 85.303
3069.958 0.024 85.372 0.998 -1.348 0.998 -1.348 0.024 85.372
3094.917 0.024 85.433 0.998 -1.393 0.998 -1.393 0.024 85.433
3119.875 0.025 85.487 0.998 -1.438 0.998 -1.438 0.025 85.487
3144.833 0.026 85.535 0.998 -1.483 0.998 -1.483 0.026 85.535
3169.792 0.027 85.578 0.998 -1.527 0.998 -1.527 0.027 85.578
3194.75 0.027 85.615 0.998 -1.571 0.998 -1.571 0.027 85.615
3219.708 0.028 85.647 0.998 -1.615 0.998 -1.615 0.028 85.647
3244.667 0.029 85.676 0.998 -1.659 0.998 -1.659 0.029 85.676
3269.625 0.03 85.7 0.998 -1.702 0.998 -1.702 0.03 85.7
3294.583 0.03 85.721 0.998 -1.745 0.998 -1.745 0.03 85.721
3319.542 0.031 85.739 0.998 -1.788 0.998 -1.788 0.031 85.739
3344.5 0.032 85.754 0.998 -1.831 0.998 -1.831 0.032 85.754
3369.458 0.033 85.766 0.998 -1.874 0.998 -1.874 0.033 85.766
3394.417 0.033 85.776 0.998 -1.916 0.998 -1.916 0.033 85.776
3419.375 0.034 85.784 0.998 -1.958 0.998 -1.958 0.034 85.784
3444.333 0.035 85.789 0.998 -2 0.998 -2 0.035 85.789
3469.292 0.036 85.792 0.998 -2.042 0.998 -2.042 0.036 85.792
3494.25 0.036 85.794 0.998 -2.083 0.998 -2.083 0.036 85.794
3519.208 0.037 85.794 0.998 -2.125 0.998 -2.125 0.037 85.794
3544.167 0.038 85.792 0.998 -2.166 0.998 -2.166 0.038 85.792
3569.125 0.039 85.789 0.998 -2.207 0.998 -2.207 0.039 85.789
3594.083 0.039 85.785 0.998 -2.248 0.998 -2.248 0.039 85.785
3619.042 0.04 85.779 0.998 -2.288 0.998 -2.288 0.04 85.779
3644 0.041 85.772 0.998 -2.329 0.998 -2.329 0.041 85.772
3668.958 0.041 85.764 0.998 -2.369 0.998 -2.369 0.041 85.764
3693.917 0.042 85.755 0.998 -2.409 0.998 -2.409 0.042 85.755
3718.875 0.043 85.745 0.998 -2.449 0.998 -2.449 0.043 85.745
3743.833 0.043 85.735 0.998 -2.489 0.998 -2.489 0.043 85.735
3768.792 0.044 85.723 0.998 -2.528 0.998 -2.528 0.044 85.723
3793.75 0.045 85.71 0.998 -2.568 0.998 -2.568 0.045 85.71
3818.708 0.046 85.697 0.998 -2.607 0.998 -2.607 0.046 85.697
3843.667 0.046 85.683 0.998 -2.646 0.998 -2.646 0.046 85.683
3868.625 0.047 85.668 0.998 -2.685 0.998 -2.685 0.047 85.668
3893.583 0.048 85.653 0.998 -2.724 0.998 -2.724 0.048 85.653
3918.542 0.048 85.637 0.997 -2.763 0.997 -2.763 0.048 85.637
3943.5 0.049 85.62 0.997 -2.801 0.997 -2.801 0.049 85.62
3968.458 0.05 85.603 0.997 -2.84 0.997 -2.84 0.05 85.603
3993.417 0.05 85.586 0.997 -2.878 0.997 -2.878 0.05 85.586
4018.375 0.051 85.568 0.997 -2.916 0.997 -2.916 0.051 85.568
4043.333 0.052 85.549 0.997 -2.954 0.997 -2.954 0.052 85.549
4068.292 0.052 85.53 0.997 -2.992 0.997 -2.992 0.052 85.53
4093.25 0.053 85.511 0.997 -3.03 0.997 -3.03 0.053 85.511
4118.208 0.054 85.491 0.997 -3.068 0.997 -3.068 0.054 85.491
4143.167 0.054 85.471 0.997 -3.106 0.997 -3.106 0.054 85.471
4168.125 0.055 85.45 0.997 -3.143 0.997 -3.143 0.055 85.45
4193.083 0.055 85.43 0.997 -3.18 0.997 -3.18 0.055 85.43
4218.042 0.056 85.408 0.997 -3.218 0.997 -3.218 0.056 85.408
4243 0.057 85.387 0.997 -3.255 0.997 -3.255 0.057 85.387
4267.958 0.057 85.365 0.997 -3.292 0.997 -3.292 0.057 85.365
4292.917 0.058 85.343 0.997 -3.329 0.997 -3.329 0.058 85.343
4317.875 0.059 85.321 0.997 -3.366 0.997 -3.366 0.059 85.321
4342.833 0.059 85.299 0.997 -3.402 0.997 -3.402 0.059 85.299
4367.792 0.06 85.276 0.997 -3.439 0.997 -3.439 0.06 85.276
4392.75 0.061 85.253 0.997 -3.475 0.997 -3.475 0.061 85.253
4417.708 0.061 85.23 0.997 -3.512 0.997 -3.512 0.061 85.23
4442.667 0.062 85.206 0.997 -3.548 0.997 -3.548 0.062 85.206
4467.625 0.063 85.183 0.997 -3.584 0.997 -3.584 0.063 85.183
4492.583 0.063 85.159 0.997 -3.62 0.997 -3.62 0.063 85.159
4517.542 0.064 85.135 0.997 -3.656 0.997 -3.656 0.064 85.135
4542.5 0.064 85.111 0.997 -3.692 0.997 -3.692 0.064 85.111
4567.458 0.065 85.086 0.997 -3.728 0.997 -3.728 0.065 85.086
4592.417 0.066 85.062 0.996 -3.764 0.996 -3.764 0.066 85.062
4617.375 0.066 85.037 0.996 -3.8 0.996 -3.8 0.066 85.037
4642.333 0.067 85.012 0.996 -3.835 0.996 -3.835 0.067 85.012
4667.292 0.068 84.988 0.996 -3.871 0.996 -3.871 0.068 84.988
4692.25 0.068 84.963 0.996 -3.906 0.996 -3.906 0.068 84.963
4717.208 0.069 84.937 0.996 -3.942 0.996 -3.942 0.069 84.937
4742.167 0.069 84.912 0.996 -3.977 0.996 -3.977 0.069 84.912
4767.125 0.07 84.887 0.996 -4.012 0.996 -4.012 0.07 84.887
4792.083 0.071 84.861 0.996 -4.047 0.996 -4.047 0.071 84.861
4817.042 0.071 84.835 0.996 -4.082 0.996 -4.082 0.071 84.835
4842 0.072 84.81 0.996 -4.117 0.996 -4.117 0.072 84.81
4866.958 0.072 84.784 0.996 -4.152 0.996 -4.152 0.072 84.784
4891.917 0.073 84.758 0.996 -4.187 0.996 -4.187 0.073 84.758
4916.875 0.074 84.732 0.996 -4.222 0.996 -4.222 0.074 84.732
4941.833 0.074 84.706 0.996 -4.256 0.996 -4.256 0.074 84.706
4966.792 0.075 84.68 0.996 -4.291 0.996 -4.291 0.075 84.68
4991.75 0.075 84.653 0.996 -4.326 0.996 -4.326 0.075 84.653
5016.708 0.076 84.627 0.996 -4.36 0.996 -4.36 0.076 84.627
5041.667 0.077 84.6 0.996 -4.394 0.996 -4.394 0.077 84.6
5066.625 0.077 84.574 0.996 -4.429 0.996 -4.429 0.077 84.574
5091.583 0.078 84.547 0.996 -4.463 0.996 -4.463 0.078 84.547
5116.542 0.078 84.521 0.996 -4.497 0.996 -4.497 0.078 84.521
5141.5 0.079 84.494 0.996 -4.531 0.996 -4.531 0.079 84.494
5166.458 0.08 84.467 0.995 -4.565 0.995 -4.565 0.08 84.467
5191.417 0.08 84.44 0.995 -4.599 0.995 -4.599 0.08 84.44
5216.375 0.081 84.413 0.995 -4.633 0.995 -4.633 0.081 84.413
5241.333 0.081 84.387 0.995 -4.667 0.995 -4.667 0.081 84.387
5266.292 0.082 84.36 0.995 -4.701 0.995 -4.701 0.082 84.36
5291.25 0.083 84.333 0.995 -4.735 0.995 -4.735 0.083 84.333
5316.208 0.083 84.305 0.995 -4.769 0.995 -4.769 0.083 84.305
5341.167 0.084 84.278 0.995 -4.802 0.995 -4.802 0.084 84.278
5366.125 0.084 84.251 0.995 -4.836 0.995 -4.836 0.084 84.251
5391.083 0.085 84.224 0.995 -4.869 0.995 -4.869 0.085 84.224
5416.042 0.085 84.197 0.995 -4.903 0.995 -4.903 0.085 84.197
5441 0.086 84.169 0.995 -4.936 0.995 -4.936 0.086 84.169
5465.958 0.087 84.142 0.995 -4.97 0.995 -4.97 0.087 84.142
5490.917 0.087 84.115 0.995 -5.003 0.995 -5.003 0.087 84.115
5515.875 0.088 84.087 0.995 -5.036 0.995 -5.036 0.088 84.087
5540.833 0.088 84.06 0.995 -5.07 0.995 -5.07 0.088 84.06
5565.792 0.089 84.032 0.995 -5.103 0.995 -5.103 0.089 84.032
5590.75 0.09 84.005 0.995 -5.136 0.995 -5.136 0.09 84.005
5615.708 0.09 83.977 0.995 -5.169 0.995 -5.169 0.09 83.977
5640.667 0.091 83.949 0.995 -5.202 0.995 -5.202 0.091 83.949
5665.625 0.091 83.922 0.994 -5.235 0.994 -5.235 0.091 83.922
5690.583 0.092 83.894 0.994 -5.268 0.994 -5.268 0.092 83.894
5715.542 0.092 83.867 0.994 -5.301 0.994 -5.301 0.092 83.867
5740.5 0.093 83.839 0.994 -5.334 0.994 -5.334 0.093 83.839
5765.458 0.094 83.811 0.994 -5.367 0.994 -5.367 0.094 83.811
5790.417 0.094 83.783 0.994 -5.399 0.994 -5.399 0.094 83.783
5815.375 0.095 83.756 0.994 -5.432 0.994 -5.432 0.095 83.756
5840.333 0.095 83.728 0.994 -5.465 0.994 -5.465 0.095 83.728
5865.292 0.096 83.7 0.994 -5.497 0.994 -5.497 0.096 83.7
5890.25 0.096 83.672 0.994 -5.53 0.994 -5.53 0.096 83.672
5915.208 0.097 83.644 0.994 -5.562 0.994 -5.562 0.097 83.644
5940.167 0.098 83.617 0.994 -5.595 0.994 -5.595 0.098 83.617
5965.125 0.098 83.589 0.994 -5.627 0.994 -5.627 0.098 83.589
5990.083 0.099 83.561 0.994 -5.66 0.994 -5.66 0.099 83.561
6015.042 0.099 83.533 0.994 -5.692 0.994 -5.692 0.099 83.533
6040 0.1 83.505 0.994 -5.724 0.994 -5.724 0.1 83.505
6064.958 0.1 83.477 0.994 -5.757 0.994 -5.757 0.1 83.477
6089.917 0.101 83.449 0.994 -5.789 0.994 -5.789 0.101 83.449
6114.875 0.101 83.421 0.994 -5.821 0.994 -5.821 0.101 83.421
6139.833 0.102 83.393 0.993 -5.853 0.993 -5.853 0.102 83.393
6164.792 0.103 83.365 0.993 -5.886 0.993 -5.886 0.103 83.365
6189.75 0.103 83.337 0.993 -5.918 0.993 -5.918 0.103 83.337
6214.708 0.104 83.309 0.993 -5.95 0.993 -5.95 0.104 83.309
6239.667 0.104 83.281 0.993 -5.982 0.993 -5.982 0.104 83.281
6264.625 0.105 83.253 0.993 -6.014 0.993 -6.014 0.105 83.253
6289.583 0.105 83.225 0.993 -6.046 0.993 -6.046 0.105 83.225
6314.542 0.106 83.197 0.993 -6.078 0.993 -6.078 0.106 83.197
6339.5 0.106 83.169 0.993 -6.109 0.993 -6.109 0.106 83.169
6364.458 0.107 83.141 0.993 -6.141 0.993 -6.141 0.107 83.141
6389.417 0.108 83.113 0.993 -6.173 0.993 -6.173 0.108 83.113
6414.375 0.108 83.085 0.993 -6.205 0.993 -6.205 0.108 83.085
6439.333 0.109 83.057 0.993 -6.237 0.993 -6.237 0.109 83.057
6464.292 0.109 83.028 0.993 -6.268 0.993 -6.268 0.109 83.028
6489.25 0.11 83 0.993 -6.3 0.993 -6.3 0.11 83
6514.208 0.11 82.972 0.993 -6.332 0.993 -6.332 0.11 82.972
6539.167 0.111 82.944 0.992 -6.363 0.992 -6.363 0.111 82.944
6564.125 0.111 82.916 0.992 -6.395 0.992 -6.395 0.111 82.916
6589.083 0.112 82.888 0.992 -6.426 0.992 -6.426 0.112 82.888
6614.042 0.112 82.86 0.992 -6.458 0.992 -6.458 0.112 82.86
6639 0.113 82.832 0.992 -6.489 0.992 -6.489 0.113 82.832
6663.958 0.114 82.803 0.992 -6.521 0.992 -6.521 0.114 82.803
6688.917 0.114 82.775 0.992 -6.552 0.992 -6.552 0.114 82.775
6713.875 0.115 82.747 0.992 -6.584 0.992 -6.584 0.115 82.747
6738.833 0.115 82.719 0.992 -6.615 0.992 -6.615 0.115 82.719
6763.792 0.116 82.691 0.992 -6.646 0.992 -6.646 0.116 82.691
6788.75 0.116 82.663 0.992 -6.678 0.992 -6.678 0.116 82.663
6813.708 0.117 82.634 0.992 -6.709 0.992 -6.709 0.117 82.634
6838.667 0.117 82.606 0.992 -6.74 0.992 -6.74 0.117 82.606
6863.625 0.118 82.578 0.992 -6.771 0.992 -6.771 0.118 82.578
6888.583 0.118 82.55 0.992 -6.802 0.992 -6.802 0.118 82.55
6913.542 0.119 82.522 0.992 -6.834 0.992 -6.834 0.119 82.522
6938.5 0.12 82.494 0.991 -6.865 0.991 -6.865 0.12 82.494
6963.458 0.12 82.465 0.991 -6.896 0.991 -6.896 0.12 82.465
6988.417 0.121 82.437 0.991 -6.927 0.991 -6.927 0.121 82.437
7013.375 0.121 82.409 0.991 -6.958 0.991 -6.958 0.121 82.409
7038.333 0.122 82.381 0.991 -6.989 0.991 -6.989 0.122 82.381
7063.292 0.122 82.353 0.991 -7.02 0.991 -7.02 0.122 82.353
7088.25 0.123 82.325 0.991 -7.051 0.991 -7.051 0.123 82.325
7113.208 0.123 82.296 0.991 -7.082 0.991 -7.082 0.123 82.296
7138.167 0.124 82.268 0.991 -7.113 0.991 -7.113 0.124 82.268
7163.125 0.124 82.24 0.991 -7.143 0.991 -7.143 0.124 82.24
7188.083 0.125 82.212 0.991 -7.174 0.991 -7.174 0.125 82.212
7213.042 0.125 82.184 0.991 -7.205 0.991 -7.205 0.125 82.184
7238 0.126 82.156 0.991 -7.236 0.991 -7.236 0.126 82.156
7262.958 0.126 82.127 0.991 -7.267 0.991 -7.267 0.126 82.127
7287.917 0.127 82.099 0.991 -7.297 0.991 -7.297 0.127 82.099
7312.875 0.128 82.071 0.99 -7.328 0.99 -7.328 0.128 82.071
7337.833 0.128 82.043 0.99 -7.359 0.99 -7.359 0.128 82.043
7362.792 0.129 82.015 0.99 -7.39 0.99 -7.39 0.129 82.015
7387.75 0.129 81.987 0.99 -7.42 0.99 -7.42 0.129 81.987
7412.708 0.13 81.958 0.99 -7.451 0.99 -7.451 0.13 81.958
7437.667 0.13 81.93 0.99 -7.481 0.99 -7.481 0.13 81.93
7462.625 0.131 81.902 0.99 -7.512 0.99 -7.512 0.131 81.902
7487.583 0.131 81.874 0.99 -7.543 0.99 -7.543 0.131 81.874
7512.542 0.132 81.846 0.99 -7.573 0.99 -7.573 0.132 81.846
7537.5 0.132 81.818 0.99 -7.604 0.99 -7.604 0.132 81.818
7562.458 0.133 81.79 0.99 -7.634 0.99 -7.634 0.133 81.79
7587.417 0.133 81.761 0.99 -7.665 0.99 -7.665 0.133 81.761
7612.375 0.134 81.733 0.99 -7.695 0.99 -7.695 0.134 81.733
7637.333 0.134 81.705 0.99 -7.725 0.99 -7.725 0.134 81.705
7662.292 0.135 81.677 0.99 -7.756 0.99 -7.756 0.135 81.677
7687.25 0.135 81.649 0.989 -7.786 0.989 -7.786 0.135 81.649
7712.208 0.136 81.621 0.989 -7.817 0.989 -7.817 0.136 81.621
7737.167 0.137 81.593 0.989 -7.847 0.989 -7.847 0.137 81.593
7762.125 0.137 81.564 0.989 -7.877 0.989 -7.877 0.137 81.564
7787.083 0.138 81.536 0.989 -7.908 0.989 -7.908 0.138 81.536
7812.042 0.138 81.508 0.989 -7.938 0.989 -7.938 0.138 81.508
7837 0.139 81.48 0.989 -7.968 0.989 -7.968 0.139 81.48
7861.958 0.139 81.452 0.989 -7.998 0.989 -7.998 0.139 81.452
7886.917 0.14 81.424 0.989 -8.028 0.989 -8.028 0.14 81.424
7911.875 0.14 81.396 0.989 -8.059 0.989 -8.059 0.14 81.396
7936.833 0.141 81.368 0.989 -8.089 0.989 -8.089 0.141 81.368
7961.792 0.141 81.34 0.989 -8.119 0.989 -8.119 0.141 81.34
7986.75 0.142 81.311 0.989 -8.149 0.989 -8.149 0.142 81.311
8011.708 0.142 81.283 0.988 -8.179 0.988 -8.179 0.142 81.283
8036.667 0.143 81.255 0.988 -8.209 0.988 -8.209 0.143 81.255
8061.625 0.143 81.227 0.988 -8.239 0.988 -8.239 0.143 81.227
8086.583 0.144 81.199 0.988 -8.269 0.988 -8.269 0.144 81.199
8111.542 0.144 81.171 0.988 -8.299 0.988 -8.299 0.144 81.171
8136.5 0.145 81.143 0.988 -8.329 0.988 -8.329 0.145 81.143
8161.458 0.145 81.115 0.988 -8.359 0.988 -8.359 0.145 81.115
8186.417 0.146 81.087 0.988 -8.389 0.988 -8.389 0.146 81.087
8211.375 0.146 81.059 0.988 -8.419 0.988 -8.419 0.146 81.059
8236.333 0.147 81.031 0.988 -8.449 0.988 -8.449 0.147 81.031
8261.292 0.147 81.003 0.988 -8.479 0.988 -8.479 0.147 81.003
8286.25 0.148 80.975 0.988 -8.509 0.988 -8.509 0.148 80.975
8311.208 0.148 80.947 0.988 -8.539 0.988 -8.539 0.148 80.947
