# MHZ S MA R 50

50 0.999 -3.057 0.053 86.933 0.053 86.933 0.999 -3.057
74.958 0.997 -4.578 0.08 85.407 0.08 85.407 0.997 -4.578
99.917 0.994 -6.093 0.106 83.887 0.106 83.887 0.994 -6.093
124.875 0.991 -7.6 0.132 82.375 0.132 82.375 0.991 -7.6
149.833 0.987 -9.097 0.158 80.873 0.158 80.873 0.987 -9.097
174.792 0.983 -10.582 0.184 79.383 0.184 79.383 0.983 -10.582
199.75 0.978 -12.053 0.209 77.906 0.209 77.906 0.978 -12.053
224.708 0.972 -13.51 0.234 76.445 0.234 76.445 0.972 -13.51
249.667 0.966 -14.95 0.258 75 0.258 75 0.966 -14.95
274.625 0.959 -16.371 0.282 73.573 0.282 73.573 0.959 -16.371
299.583 0.952 -17.774 0.305 72.165 0.305 72.165 0.952 -17.774
324.542 0.944 -19.156 0.328 70.778 0.328 70.778 0.944 -19.156
349.5 0.936 -20.516 0.35 69.413 0.35 69.413 0.936 -20.516
374.458 0.928 -21.855 0.372 68.069 0.372 68.069 0.928 -21.855
399.417 0.919 -23.17 0.393 66.749 0.393 66.749 0.919 -23.17
424.375 0.91 -24.461 0.414 65.453 0.414 65.453 0.91 -24.461
449.333 0.9 -25.727 0.434 64.181 0.434 64.181 0.9 -25.727
474.292 0.89 -26.969 0.454 62.934 0.454 62.934 0.89 -26.969
499.25 0.881 -28.186 0.472 61.712 0.472 61.712 0.881 -28.186
524.208 0.87 -29.378 0.491 60.515 0.491 60.515 0.87 -29.378
549.167 0.86 -30.544 0.508 59.344 0.508 59.344 0.86 -30.544
574.125 0.85 -31.684 0.525 58.199 0.525 58.199 0.85 -31.684
599.083 0.839 -32.799 0.542 57.078 0.542 57.078 0.839 -32.799
624.042 0.829 -33.889 0.558 55.984 0.558 55.984 0.829 -33.889
649 0.818 -34.953 0.573 54.914 0.573 54.914 0.818 -34.953
673.958 0.808 -35.992 0.588 53.869 0.588 53.869 0.808 -35.992
698.917 0.797 -37.007 0.602 52.85 0.602 52.85 0.797 -37.007
723.875 0.786 -37.997 0.616 51.854 0.616 51.854 0.786 -37.997
748.833 0.776 -38.964 0.629 50.883 0.629 50.883 0.776 -38.964
773.792 0.765 -39.906 0.642 49.935 0.642 49.935 0.765 -39.906
798.75 0.755 -40.826 0.654 49.01 0.654 49.01 0.755 -40.826
823.708 0.744 -41.722 0.666 48.108 0.666 48.108 0.744 -41.722
848.667 0.734 -42.597 0.677 47.228 0.677 47.228 0.734 -42.597
873.625 0.724 -43.449 0.688 46.37 0.688 46.37 0.724 -43.449
898.583 0.714 -44.281 0.698 45.534 0.698 45.534 0.714 -44.281
923.542 0.704 -45.091 0.708 44.718 0.708 44.718 0.704 -45.091
948.5 0.694 -45.882 0.718 43.922 0.718 43.922 0.694 -45.882
973.458 0.684 -46.652 0.727 43.146 0.727 43.146 0.684 -46.652
998.417 0.674 -47.403 0.736 42.389 0.736 42.389 0.674 -47.403
1023.375 0.665 -48.136 0.745 41.651 0.745 41.651 0.665 -48.136
1048.333 0.655 -48.85 0.753 40.932 0.753 40.932 0.655 -48.85
1073.292 0.646 -49.547 0.761 40.23 0.761 40.23 0.646 -49.547
1098.25 0.637 -50.226 0.769 39.545 0.769 39.545 0.637 -50.226
1123.208 0.628 -50.889 0.776 38.877 0.776 38.877 0.628 -50.889
1148.167 0.619 -51.535 0.783 38.225 0.783 38.225 0.619 -51.535
1173.125 0.61 -52.166 0.79 37.589 0.79 37.589 0.61 -52.166
1198.083 0.601 -52.781 0.796 36.968 0.796 36.968 0.601 -52.781
1223.042 0.593 -53.381 0.803 36.362 0.803 36.362 0.593 -53.381
1248 0.585 -53.967 0.809 35.77 0.809 35.77 0.585 -53.967
1272.958 0.576 -54.539 0.815 35.192 0.815 35.192 0.576 -54.539
1297.917 0.568 -55.098 0.82 34.628 0.82 34.628 0.568 -55.098
1322.875 0.56 -55.643 0.826 34.077 0.826 34.077 0.56 -55.643
1347.833 0.553 -56.176 0.831 33.539 0.831 33.539 0.553 -56.176
1372.792 0.545 -56.696 0.836 33.013 0.836 33.013 0.545 -56.696
1397.75 0.537 -57.204 0.841 32.499 0.841 32.499 0.537 -57.204
1422.708 0.53 -57.7 0.845 31.997 0.845 31.997 0.53 -57.7
1447.667 0.523 -58.186 0.85 31.506 0.85 31.506 0.523 -58.186
1472.625 0.515 -58.66 0.854 31.026 0.854 31.026 0.515 -58.66
1497.583 0.508 -59.123 0.858 30.556 0.858 30.556 0.508 -59.123
1522.542 0.501 -59.577 0.862 30.097 0.862 30.097 0.501 -59.577
1547.5 0.495 -60.02 0.866 29.648 0.866 29.648 0.495 -60.02
1572.458 0.488 -60.454 0.87 29.208 0.87 29.208 0.488 -60.454
1597.417 0.481 -60.878 0.874 28.778 0.874 28.778 0.481 -60.878
1622.375 0.475 -61.293 0.877 28.357 0.877 28.357 0.475 -61.293
1647.333 0.469 -61.7 0.88 27.944 0.88 27.944 0.469 -61.7
1672.292 0.462 -62.097 0.884 27.54 0.884 27.54 0.462 -62.097
1697.25 0.456 -62.487 0.887 27.145 0.887 27.145 0.456 -62.487
1722.208 0.45 -62.868 0.89 26.757 0.89 26.757 0.45 -62.868
1747.167 0.444 -63.241 0.893 26.377 0.893 26.377 0.444 -63.241
1772.125 0.438 -63.607 0.896 26.005 0.896 26.005 0.438 -63.607
1797.083 0.433 -63.966 0.899 25.64 0.899 25.64 0.433 -63.966
1822.042 0.427 -64.317 0.901 25.283 0.901 25.283 0.427 -64.317
1847 0.422 -64.661 0.904 24.932 0.904 24.932 0.422 -64.661
1871.958 0.416 -64.999 0.906 24.588 0.906 24.588 0.416 -64.999
1896.917 0.411 -65.33 0.909 24.251 0.909 24.251 0.411 -65.33
1921.875 0.405 -65.654 0.911 23.919 0.911 23.919 0.405 -65.654
1946.833 0.4 -65.973 0.913 23.595 0.913 23.595 0.4 -65.973
1971.792 0.395 -66.285 0.916 23.276 0.916 23.276 0.395 -66.285
1996.75 0.39 -66.591 0.918 22.963 0.918 22.963 0.39 -66.591
2021.708 0.385 -66.892 0.92 22.655 0.92 22.655 0.385 -66.892
2046.667 0.38 -67.187 0.922 22.353 0.922 22.353 0.38 -67.187
2071.625 0.376 -67.477 0.924 22.057 0.924 22.057 0.376 -67.477
2096.583 0.371 -67.761 0.926 21.765 0.926 21.765 0.371 -67.761
2121.542 0.366 -68.04 0.927 21.479 0.927 21.479 0.366 -68.04
2146.5 0.362 -68.315 0.929 21.198 0.929 21.198 0.362 -68.315
2171.458 0.357 -68.584 0.931 20.921 0.931 20.921 0.357 -68.584
2196.417 0.353 -68.849 0.933 20.649 0.933 20.649 0.353 -68.849
2221.375 0.348 -69.109 0.934 20.382 0.934 20.382 0.348 -69.109
2246.333 0.344 -69.365 0.936 20.119 0.936 20.119 0.344 -69.365
2271.292 0.34 -69.616 0.937 19.861 0.937 19.861 0.34 -69.616
2296.25 0.336 -69.863 0.939 19.606 0.939 19.606 0.336 -69.863
2321.208 0.331 -70.106 0.94 19.356 0.94 19.356 0.331 -70.106
2346.167 0.327 -70.345 0.942 19.11 0.942 19.11 0.327 -70.345
2371.125 0.323 -70.579 0.943 18.867 0.943 18.867 0.323 -70.579
2396.083 0.319 -70.81 0.944 18.629 0.944 18.629 0.319 -70.81
2421.042 0.316 -71.038 0.946 18.394 0.946 18.394 0.316 -71.038
2446 0.312 -71.261 0.947 18.163 0.947 18.163 0.312 -71.261
2470.958 0.308 -71.481 0.948 17.935 0.948 17.935 0.308 -71.481
2495.917 0.304 -71.698 0.949 17.71 0.949 17.71 0.304 -71.698
2520.875 0.301 -71.911 0.951 17.489 0.951 17.489 0.301 -71.911
2545.833 0.297 -72.121 0.952 17.271 0.952 17.271 0.297 -72.121
2570.792 0.293 -72.327 0.953 17.057 0.953 17.057 0.293 -72.327
2595.75 0.29 -72.53 0.954 16.845 0.954 16.845 0.29 -72.53
2620.708 0.286 -72.731 0.955 16.637 0.955 16.637 0.286 -72.731
2645.667 0.283 -72.928 0.956 16.431 0.956 16.431 0.283 -72.928
2670.625 0.279 -73.122 0.957 16.228 0.957 16.228 0.279 -73.122
2695.583 0.276 -73.313 0.958 16.029 0.958 16.029 0.276 -73.313
2720.542 0.273 -73.502 0.959 15.831 0.959 15.831 0.273 -73.502
2745.5 0.27 -73.688 0.96 15.637 0.96 15.637 0.27 -73.688
2770.458 0.266 -73.871 0.961 15.445 0.961 15.445 0.266 -73.871
2795.417 0.263 -74.051 0.962 15.256 0.962 15.256 0.263 -74.051
2820.375 0.26 -74.229 0.962 15.069 0.962 15.069 0.26 -74.229
2845.333 0.257 -74.404 0.963 14.885 0.963 14.885 0.257 -74.404
2870.292 0.254 -74.577 0.964 14.703 0.964 14.703 0.254 -74.577
2895.25 0.251 -74.747 0.965 14.523 0.965 14.523 0.251 -74.747
2920.208 0.248 -74.915 0.966 14.346 0.966 14.346 0.248 -74.915
2945.167 0.245 -75.08 0.966 14.171 0.966 14.171 0.245 -75.08
2970.125 0.242 -75.244 0.967 13.998 0.967 13.998 0.242 -75.244
2995.083 0.239 -75.405 0.968 13.827 0.968 13.827 0.239 -75.405
3020.042 0.236 -75.564 0.969 13.659 0.969 13.659 0.236 -75.564
3045 0.233 -75.72 0.969 13.492 0.969 13.492 0.233 -75.72
3069.958 0.231 -75.875 0.97 13.327 0.97 13.327 0.231 -75.875
3094.917 0.228 -76.027 0.971 13.165 0.971 13.165 0.228 -76.027
3119.875 0.225 -76.178 0.971 13.004 0.971 13.004 0.225 -76.178
3144.833 0.222 -76.326 0.972 12.845 0.972 12.845 0.222 -76.326
3169.792 0.22 -76.472 0.972 12.688 0.972 12.688 0.22 -76.472
3194.75 0.217 -76.617 0.973 12.533 0.973 12.533 0.217 -76.617
3219.708 0.214 -76.759 0.974 12.379 0.974 12.379 0.214 -76.759
3244.667 0.212 -76.9 0.974 12.228 0.974 12.228 0.212 -76.9
3269.625 0.209 -77.039 0.975 12.078 0.975 12.078 0.209 -77.039
3294.583 0.207 -77.176 0.975 11.929 0.975 11.929 0.207 -77.176
3319.542 0.204 -77.311 0.976 11.782 0.976 11.782 0.204 -77.311
3344.5 0.202 -77.445 0.976 11.637 0.976 11.637 0.202 -77.445
3369.458 0.199 -77.577 0.977 11.494 0.977 11.494 0.199 -77.577
3394.417 0.197 -77.707 0.977 11.351 0.977 11.351 0.197 -77.707
3419.375 0.194 -77.835 0.978 11.211 0.978 11.211 0.194 -77.835
3444.333 0.192 -77.962 0.978 11.072 0.978 11.072 0.192 -77.962
3469.292 0.19 -78.088 0.979 10.934 0.979 10.934 0.19 -78.088
3494.25 0.187 -78.211 0.979 10.798 0.979 10.798 0.187 -78.211
3519.208 0.185 -78.333 0.979 10.663 0.979 10.663 0.185 -78.333
3544.167 0.183 -78.454 0.98 10.529 0.98 10.529 0.183 -78.454
3569.125 0.18 -78.573 0.98 10.397 0.98 10.397 0.18 -78.573
3594.083 0.178 -78.69 0.981 10.266 0.981 10.266 0.178 -78.69
3619.042 0.176 -78.806 0.981 10.137 0.981 10.137 0.176 -78.806
3644 0.174 -78.921 0.982 10.008 0.982 10.008 0.174 -78.921
3668.958 0.172 -79.034 0.982 9.881 0.982 9.881 0.172 -79.034
3693.917 0.169 -79.145 0.982 9.755 0.982 9.755 0.169 -79.145
3718.875 0.167 -79.256 0.983 9.63 0.983 9.63 0.167 -79.256
3743.833 0.165 -79.364 0.983 9.507 0.983 9.507 0.165 -79.364
3768.792 0.163 -79.472 0.983 9.384 0.983 9.384 0.163 -79.472
3793.75 0.161 -79.578 0.984 9.263 0.984 9.263 0.161 -79.578
3818.708 0.159 -79.683 0.984 9.143 0.984 9.143 0.159 -79.683
3843.667 0.157 -79.786 0.984 9.024 0.984 9.024 0.157 -79.786
3868.625 0.155 -79.888 0.985 8.906 0.985 8.906 0.155 -79.888
3893.583 0.153 -79.989 0.985 8.789 0.985 8.789 0.153 -79.989
3918.542 0.151 -80.088 0.985 8.673 0.985 8.673 0.151 -80.088
3943.5 0.149 -80.186 0.986 8.558 0.986 8.558 0.149 -80.186
3968.458 0.147 -80.283 0.986 8.444 0.986 8.444 0.147 -80.283
3993.417 0.145 -80.378 0.986 8.331 0.986 8.331 0.145 -80.378
4018.375 0.143 -80.472 0.986 8.219 0.986 8.219 0.143 -80.472
4043.333 0.141 -80.565 0.987 8.108 0.987 8.108 0.141 -80.565
4068.292 0.139 -80.657 0.987 7.998 0.987 7.998 0.139 -80.657
4093.25 0.137 -80.747 0.987 7.888 0.987 7.888 0.137 -80.747
4118.208 0.135 -80.837 0.988 7.78 0.988 7.78 0.135 -80.837
4143.167 0.134 -80.924 0.988 7.673 0.988 7.673 0.134 -80.924
4168.125 0.132 -81.011 0.988 7.566 0.988 7.566 0.132 -81.011
4193.083 0.13 -81.096 0.988 7.46 0.988 7.46 0.13 -81.096
4218.042 0.128 -81.18 0.988 7.355 0.988 7.355 0.128 -81.18
4243 0.126 -81.263 0.989 7.251 0.989 7.251 0.126 -81.263
4267.958 0.124 -81.345 0.989 7.148 0.989 7.148 0.124 -81.345
4292.917 0.123 -81.425 0.989 7.046 0.989 7.046 0.123 -81.425
4317.875 0.121 -81.504 0.989 6.944 0.989 6.944 0.121 -81.504
4342.833 0.119 -81.582 0.99 6.843 0.99 6.843 0.119 -81.582
4367.792 0.117 -81.659 0.99 6.743 0.99 6.743 0.117 -81.659
4392.75 0.116 -81.734 0.99 6.643 0.99 6.643 0.116 -81.734
4417.708 0.114 -81.808 0.99 6.545 0.99 6.545 0.114 -81.808
4442.667 0.112 -81.881 0.99 6.447 0.99 6.447 0.112 -81.881
4467.625 0.111 -81.952 0.991 6.35 0.991 6.35 0.111 -81.952
4492.583 0.109 -82.022 0.991 6.253 0.991 6.253 0.109 -82.022
4517.542 0.107 -82.091 0.991 6.157 0.991 6.157 0.107 -82.091
4542.5 0.106 -82.159 0.991 6.062 0.991 6.062 0.106 -82.159
4567.458 0.104 -82.225 0.991 5.967 0.991 5.967 0.104 -82.225
4592.417 0.102 -82.289 0.991 5.874 0.991 5.874 0.102 -82.289
4617.375 0.101 -82.353 0.992 5.78 0.992 5.78 0.101 -82.353
4642.333 0.099 -82.415 0.992 5.688 0.992 5.688 0.099 -82.415
4667.292 0.098 -82.475 0.992 5.596 0.992 5.596 0.098 -82.475
4692.25 0.096 -82.535 0.992 5.505 0.992 5.505 0.096 -82.535
4717.208 0.094 -82.592 0.992 5.414 0.992 5.414 0.094 -82.592
4742.167 0.093 -82.648 0.992 5.324 0.992 5.324 0.093 -82.648
4767.125 0.091 -82.703 0.993 5.234 0.993 5.234 0.091 -82.703
4792.083 0.09 -82.756 0.993 5.145 0.993 5.145 0.09 -82.756
4817.042 0.088 -82.808 0.993 5.057 0.993 5.057 0.088 -82.808
4842 0.087 -82.858 0.993 4.969 0.993 4.969 0.087 -82.858
4866.958 0.085 -82.906 0.993 4.882 0.993 4.882 0.085 -82.906
4891.917 0.084 -82.952 0.993 4.795 0.993 4.795 0.084 -82.952
4916.875 0.082 -82.997 0.993 4.709 0.993 4.709 0.082 -82.997
4941.833 0.081 -83.04 0.993 4.624 0.993 4.624 0.081 -83.04
4966.792 0.079 -83.081 0.994 4.539 0.994 4.539 0.079 -83.081
4991.75 0.078 -83.12 0.994 4.454 0.994 4.454 0.078 -83.12
5016.708 0.076 -83.158 0.994 4.37 0.994 4.37 0.076 -83.158
5041.667 0.075 -83.193 0.994 4.287 0.994 4.287 0.075 -83.193
5066.625 0.073 -83.226 0.994 4.204 0.994 4.204 0.073 -83.226
5091.583 0.072 -83.257 0.994 4.121 0.994 4.121 0.072 -83.257
5116.542 0.071 -83.286 0.994 4.039 0.994 4.039 0.071 -83.286
5141.5 0.069 -83.312 0.994 3.958 0.994 3.958 0.069 -83.312
5166.458 0.068 -83.336 0.994 3.876 0.994 3.876 0.068 -83.336
5191.417 0.066 -83.357 0.995 3.796 0.995 3.796 0.066 -83.357
5216.375 0.065 -83.376 0.995 3.716 0.995 3.716 0.065 -83.376
5241.333 0.064 -83.392 0.995 3.636 0.995 3.636 0.064 -83.392
5266.292 0.062 -83.405 0.995 3.557 0.995 3.557 0.062 -83.405
5291.25 0.061 -83.415 0.995 3.478 0.995 3.478 0.061 -83.415
5316.208 0.059 -83.421 0.995 3.399 0.995 3.399 0.059 -83.421
5341.167 0.058 -83.425 0.995 3.322 0.995 3.322 0.058 -83.425
5366.125 0.057 -83.424 0.995 3.244 0.995 3.244 0.057 -83.424
5391.083 0.055 -83.42 0.995 3.167 0.995 3.167 0.055 -83.42
5416.042 0.054 -83.413 0.995 3.09 0.995 3.09 0.054 -83.413
5441 0.053 -83.4 0.995 3.014 0.995 3.014 0.053 -83.4
5465.958 0.051 -83.384 0.995 2.938 0.995 2.938 0.051 -83.384
5490.917 0.05 -83.362 0.995 2.862 0.995 2.862 0.05 -83.362
5515.875 0.049 -83.336 0.996 2.787 0.996 2.787 0.049 -83.336
5540.833 0.047 -83.304 0.996 2.713 0.996 2.713 0.047 -83.304
5565.792 0.046 -83.266 0.996 2.638 0.996 2.638 0.046 -83.266
5590.75 0.045 -83.222 0.996 2.564 0.996 2.564 0.045 -83.222
5615.708 0.044 -83.172 0.996 2.491 0.996 2.491 0.044 -83.172
5640.667 0.042 -83.114 0.996 2.417 0.996 2.417 0.042 -83.114
5665.625 0.041 -83.048 0.996 2.345 0.996 2.345 0.041 -83.048
5690.583 0.04 -82.974 0.996 2.272 0.996 2.272 0.04 -82.974
5715.542 0.039 -82.891 0.996 2.2 0.996 2.2 0.039 -82.891
5740.5 0.037 -82.798 0.996 2.128 0.996 2.128 0.037 -82.798
5765.458 0.036 -82.694 0.996 2.057 0.996 2.057 0.036 -82.694
5790.417 0.035 -82.578 0.996 1.986 0.996 1.986 0.035 -82.578
5815.375 0.034 -82.449 0.996 1.915 0.996 1.915 0.034 -82.449
5840.333 0.032 -82.306 0.996 1.844 0.996 1.844 0.032 -82.306
5865.292 0.031 -82.146 0.996 1.774 0.996 1.774 0.031 -82.146
5890.25 0.03 -81.969 0.996 1.704 0.996 1.704 0.03 -81.969
5915.208 0.029 -81.771 0.996 1.635 0.996 1.635 0.029 -81.771
5940.167 0.028 -81.552 0.996 1.566 0.996 1.566 0.028 -81.552
5965.125 0.026 -81.307 0.996 1.497 0.996 1.497 0.026 -81.307
5990.083 0.025 -81.034 0.996 1.428 0.996 1.428 0.025 -81.034
6015.042 0.024 -80.729 0.996 1.36 0.996 1.36 0.024 -80.729
6040 0.023 -80.387 0.996 1.292 0.996 1.292 0.023 -80.387
6064.958 0.022 -80.002 0.996 1.225 0.996 1.225 0.022 -80.002
6089.917 0.02 -79.567 0.996 1.157 0.996 1.157 0.02 -79.567
6114.875 0.019 -79.074 0.997 1.09 0.997 1.09 0.019 -79.074
6139.833 0.018 -78.513 0.997 1.024 0.997 1.024 0.018 -78.513
6164.792 0.017 -77.871 0.997 0.957 0.997 0.957 0.017 -77.871
6189.75 0.016 -77.13 0.997 0.891 0.997 0.891 0.016 -77.13
6214.708 0.015 -76.269 0.997 0.825 0.997 0.825 0.015 -76.269
6239.667 0.014 -75.262 0.997 0.759 0.997 0.759 0.014 -75.262
6264.625 0.013 -74.069 0.997 0.694 0.997 0.694 0.013 -74.069
6289.583 0.011 -72.641 0.997 0.629 0.997 0.629 0.011 -72.641
6314.542 0.01 -70.908 0.997 0.564 0.997 0.564 0.01 -70.908
6339.5 9.321e-3 -68.771 0.997 0.499 0.997 0.499 9.321e-3 -68.771
6364.458 8.281e-3 -66.086 0.997 0.435 0.997 0.435 8.281e-3 -66.086
6389.417 7.269e-3 -62.637 0.997 0.371 0.997 0.371 7.269e-3 -62.637
6414.375 6.298e-3 -58.099 0.997 0.307 0.997 0.307 6.298e-3 -58.099
6439.333 5.385e-3 -51.968 0.997 0.244 0.997 0.244 5.385e-3 -51.968
6464.292 4.562e-3 -43.499 0.997 0.181 0.997 0.181 4.562e-3 -43.499
6489.25 3.885e-3 -31.741 0.997 0.117 0.997 0.117 3.885e-3 -31.741
6514.208 3.435e-3 -16.076 0.997 0.055 0.997 0.055 3.435e-3 -16.076
6539.167 3.302e-3 2.381 0.997 -7.887e-3 0.997 -7.887e-3 3.302e-3 2.381
6564.125 3.52e-3 20.305 0.997 -0.07 0.997 -0.07 3.52e-3 20.305
6589.083 4.027e-3 34.853 0.997 -0.132 0.997 -0.132 4.027e-3 34.853
6614.042 4.729e-3 45.57 0.997 -0.194 0.997 -0.194 4.729e-3 45.57
6639 5.551e-3 53.276 0.997 -0.256 0.997 -0.256 5.551e-3 53.276
6663.958 6.444e-3 58.887 0.997 -0.317 0.997 -0.317 6.444e-3 58.887
6688.917 7.382e-3 63.072 0.997 -0.378 0.997 -0.378 7.382e-3 63.072
6713.875 8.347e-3 66.277 0.997 -0.439 0.997 -0.439 8.347e-3 66.277
6738.833 9.329e-3 68.79 0.997 -0.5 0.997 -0.5 9.329e-3 68.79
6763.792 0.01 70.803 0.997 -0.561 0.997 -0.561 0.01 70.803
6788.75 0.011 72.444 0.997 -0.621 0.997 -0.621 0.011 72.444
6813.708 0.012 73.803 0.997 -0.681 0.997 -0.681 0.012 73.803
6838.667 0.013 74.943 0.997 -0.741 0.997 -0.741 0.013 74.943
6863.625 0.014 75.912 0.997 -0.8 0.997 -0.8 0.014 75.912
6888.583 0.015 76.742 0.997 -0.86 0.997 -0.86 0.015 76.742
6913.542 0.016 77.459 0.997 -0.919 0.997 -0.919 0.016 77.459
6938.5 0.017 78.084 0.997 -0.978 0.997 -0.978 0.017 78.084
6963.458 0.018 78.632 0.997 -1.037 0.997 -1.037 0.018 78.632
6988.417 0.019 79.116 0.997 -1.096 0.997 -1.096 0.019 79.116
7013.375 0.02 79.544 0.996 -1.154 0.996 -1.154 0.02 79.544
7038.333 0.021 79.926 0.996 -1.212 0.996 -1.212 0.021 79.926
7063.292 0.022 80.267 0.996 -1.27 0.996 -1.27 0.022 80.267
7088.25 0.023 80.573 0.996 -1.328 0.996 -1.328 0.023 80.573
7113.208 0.024 80.848 0.996 -1.386 0.996 -1.386 0.024 80.848
7138.167 0.025 81.096 0.996 -1.443 0.996 -1.443 0.025 81.096
7163.125 0.026 81.321 0.996 -1.501 0.996 -1.501 0.026 81.321
7188.083 0.027 81.525 0.996 -1.558 0.996 -1.558 0.027 81.525
7213.042 0.028 81.709 0.996 -1.615 0.996 -1.615 0.028 81.709
7238 0.029 81.878 0.996 -1.671 0.996 -1.671 0.029 81.878
7262.958 0.03 82.031 0.996 -1.728 0.996 -1.728 0.03 82.031
7287.917 0.031 82.17 0.996 -1.784 0.996 -1.784 0.031 82.17
7312.875 0.032 82.297 0.996 -1.841 0.996 -1.841 0.032 82.297
7337.833 0.033 82.413 0.996 -1.897 0.996 -1.897 0.033 82.413
7362.792 0.034 82.519 0.996 -1.952 0.996 -1.952 0.034 82.519
7387.75 0.035 82.616 0.996 -2.008 0.996 -2.008 0.035 82.616
7412.708 0.036 82.705 0.996 -2.064 0.996 -2.064 0.036 82.705
7437.667 0.037 82.785 0.996 -2.119 0.996 -2.119 0.037 82.785
7462.625 0.038 82.859 0.996 -2.174 0.996 -2.174 0.038 82.859
7487.583 0.039 82.926 0.996 -2.229 0.996 -2.229 0.039 82.926
7512.542 0.04 82.987 0.996 -2.284 0.996 -2.284 0.04 82.987
7537.5 0.041 83.043 0.996 -2.339 0.996 -2.339 0.041 83.043
7562.458 0.042 83.093 0.996 -2.393 0.996 -2.393 0.042 83.093
7587.417 0.043 83.139 0.996 -2.448 0.996 -2.448 0.043 83.139
7612.375 0.044 83.18 0.996 -2.502 0.996 -2.502 0.044 83.18
7637.333 0.045 83.217 0.996 -2.556 0.996 -2.556 0.045 83.217
7662.292 0.046 83.25 0.996 -2.61 0.996 -2.61 0.046 83.25
7687.25 0.047 83.28 0.996 -2.664 0.996 -2.664 0.047 83.28
7712.208 0.048 83.306 0.996 -2.717 0.996 -2.717 0.048 83.306
7737.167 0.048 83.329 0.996 -2.771 0.996 -2.771 0.048 83.329
7762.125 0.049 83.35 0.995 -2.824 0.995 -2.824 0.049 83.35
7787.083 0.05 83.367 0.995 -2.877 0.995 -2.877 0.05 83.367
7812.042 0.051 83.382 0.995 -2.931 0.995 -2.931 0.051 83.382
7837 0.052 83.394 0.995 -2.983 0.995 -2.983 0.052 83.394
7861.958 0.053 83.404 0.995 -3.036 0.995 -3.036 0.053 83.404
7886.917 0.054 83.412 0.995 -3.089 0.995 -3.089 0.054 83.412
7911.875 0.055 83.418 0.995 -3.141 0.995 -3.141 0.055 83.418
7936.833 0.056 83.422 0.995 -3.194 0.995 -3.194 0.056 83.422
7961.792 0.057 83.425 0.995 -3.246 0.995 -3.246 0.057 83.425
7986.75 0.058 83.425 0.995 -3.298 0.995 -3.298 0.058 83.425
8011.708 0.059 83.424 0.995 -3.35 0.995 -3.35 0.059 83.424
8036.667 0.059 83.421 0.995 -3.401 0.995 -3.401 0.059 83.421
8061.625 0.06 83.417 0.995 -3.453 0.995 -3.453 0.06 83.417
8086.583 0.061 83.412 0.995 -3.505 0.995 -3.505 0.061 83.412
8111.542 0.062 83.405 0.995 -3.556 0.995 -3.556 0.062 83.405
8136.5 0.063 83.397 0.995 -3.607 0.995 -3.607 0.063 83.397
8161.458 0.064 83.388 0.995 -3.658 0.995 -3.658 0.064 83.388
8186.417 0.065 83.377 0.995 -3.709 0.995 -3.709 0.065 83.377
