# MHZ S MA R 50

50 1 -1.62 0.028 88.371 0.028 88.371 1 -1.62
74.958 0.999 -2.427 0.042 87.559 0.042 87.559 0.999 -2.427
99.917 0.998 -3.234 0.056 86.747 0.056 86.747 0.998 -3.234
124.875 0.997 -4.04 0.07 85.937 0.07 85.937 0.997 -4.04
149.833 0.996 -4.844 0.084 85.128 0.084 85.128 0.996 -4.844
174.792 0.995 -5.647 0.098 84.32 0.098 84.32 0.995 -5.647
199.75 0.994 -6.447 0.112 83.515 0.112 83.515 0.994 -6.447
224.708 0.992 -7.246 0.126 82.712 0.126 82.712 0.992 -7.246
249.667 0.99 -8.042 0.14 81.912 0.14 81.912 0.99 -8.042
274.625 0.988 -8.835 0.154 81.114 0.154 81.114 0.988 -8.835
299.583 0.986 -9.625 0.167 80.319 0.167 80.319 0.986 -9.625
324.542 0.983 -10.411 0.181 79.528 0.181 79.528 0.983 -10.411
349.5 0.981 -11.195 0.194 78.74 0.194 78.74 0.981 -11.195
374.458 0.978 -11.974 0.207 77.956 0.207 77.956 0.978 -11.974
399.417 0.975 -12.749 0.221 77.176 0.221 77.176 0.975 -12.749
424.375 0.972 -13.521 0.234 76.4 0.234 76.4 0.972 -13.521
449.333 0.969 -14.288 0.247 75.628 0.247 75.628 0.969 -14.288
474.292 0.965 -15.05 0.26 74.861 0.26 74.861 0.965 -15.05
499.25 0.962 -15.807 0.272 74.099 0.272 74.099 0.962 -15.807
524.208 0.958 -16.56 0.285 73.342 0.285 73.342 0.958 -16.56
549.167 0.954 -17.307 0.297 72.59 0.297 72.59 0.954 -17.307
574.125 0.95 -18.049 0.31 71.844 0.31 71.844 0.95 -18.049
599.083 0.946 -18.785 0.322 71.102 0.322 71.102 0.946 -18.785
624.042 0.942 -19.516 0.334 70.367 0.334 70.367 0.942 -19.516
649 0.938 -20.241 0.346 69.637 0.346 69.637 0.938 -20.241
673.958 0.933 -20.96 0.358 68.914 0.358 68.914 0.933 -20.96
698.917 0.928 -21.673 0.369 68.196 0.369 68.196 0.928 -21.673
723.875 0.924 -22.379 0.381 67.484 0.381 67.484 0.924 -22.379
748.833 0.919 -23.08 0.392 66.779 0.392 66.779 0.919 -23.08
773.792 0.914 -23.774 0.403 66.08 0.403 66.08 0.914 -23.774
798.75 0.909 -24.462 0.414 65.388 0.414 65.388 0.909 -24.462
823.708 0.904 -25.143 0.425 64.702 0.425 64.702 0.904 -25.143
848.667 0.899 -25.817 0.436 64.022 0.436 64.022 0.899 -25.817
873.625 0.894 -26.485 0.446 63.35 0.446 63.35 0.894 -26.485
898.583 0.888 -27.147 0.456 62.684 0.456 62.684 0.888 -27.147
923.542 0.883 -27.801 0.466 62.024 0.466 62.024 0.883 -27.801
948.5 0.878 -28.449 0.476 61.372 0.476 61.372 0.878 -28.449
973.458 0.872 -29.089 0.486 60.726 0.486 60.726 0.872 -29.089
998.417 0.867 -29.723 0.496 60.087 0.496 60.087 0.867 -29.723
1023.375 0.861 -30.35 0.505 59.456 0.505 59.456 0.861 -30.35
1048.333 0.856 -30.971 0.515 58.83 0.515 58.83 0.856 -30.971
1073.292 0.85 -31.584 0.524 58.212 0.524 58.212 0.85 -31.584
1098.25 0.844 -32.19 0.533 57.601 0.533 57.601 0.844 -32.19
1123.208 0.839 -32.79 0.542 56.997 0.542 56.997 0.839 -32.79
1148.167 0.833 -33.383 0.55 56.399 0.55 56.399 0.833 -33.383
1173.125 0.827 -33.968 0.559 55.808 0.559 55.808 0.827 -33.968
1198.083 0.821 -34.547 0.567 55.224 0.567 55.224 0.821 -34.547
1223.042 0.816 -35.119 0.575 54.647 0.575 54.647 0.816 -35.119
1248 0.81 -35.685 0.583 54.077 0.583 54.077 0.81 -35.685
1272.958 0.804 -36.243 0.591 53.513 0.591 53.513 0.804 -36.243
1297.917 0.798 -36.795 0.599 52.957 0.599 52.957 0.798 -36.795
1322.875 0.792 -37.341 0.607 52.406 0.607 52.406 0.792 -37.341
1347.833 0.787 -37.879 0.614 51.863 0.614 51.863 0.787 -37.879
1372.792 0.781 -38.411 0.621 51.326 0.621 51.326 0.781 -38.411
1397.75 0.775 -38.937 0.628 50.795 0.628 50.795 0.775 -38.937
1422.708 0.769 -39.456 0.635 50.271 0.635 50.271 0.769 -39.456
1447.667 0.763 -39.968 0.642 49.753 0.642 49.753 0.763 -39.968
1472.625 0.757 -40.474 0.649 49.242 0.649 49.242 0.757 -40.474
1497.583 0.752 -40.974 0.656 48.737 0.656 48.737 0.752 -40.974
1522.542 0.746 -41.468 0.662 48.238 0.662 48.238 0.746 -41.468
1547.5 0.74 -41.955 0.669 47.746 0.669 47.746 0.74 -41.955
1572.458 0.734 -42.437 0.675 47.259 0.675 47.259 0.734 -42.437
1597.417 0.729 -42.912 0.681 46.779 0.681 46.779 0.729 -42.912
1622.375 0.723 -43.381 0.687 46.305 0.687 46.305 0.723 -43.381
1647.333 0.717 -43.845 0.693 45.836 0.693 45.836 0.717 -43.845
1672.292 0.712 -44.302 0.698 45.373 0.698 45.373 0.712 -44.302
1697.25 0.706 -44.754 0.704 44.916 0.704 44.916 0.706 -44.754
1722.208 0.7 -45.2 0.71 44.465 0.71 44.465 0.7 -45.2
1747.167 0.695 -45.64 0.715 44.019 0.715 44.019 0.695 -45.64
1772.125 0.689 -46.075 0.72 43.579 0.72 43.579 0.689 -46.075
1797.083 0.684 -46.505 0.725 43.145 0.725 43.145 0.684 -46.505
1822.042 0.678 -46.928 0.731 42.715 0.731 42.715 0.678 -46.928
1847 0.673 -47.347 0.735 42.292 0.735 42.292 0.673 -47.347
1871.958 0.667 -47.76 0.74 41.873 0.74 41.873 0.667 -47.76
1896.917 0.662 -48.168 0.745 41.46 0.745 41.46 0.662 -48.168
1921.875 0.657 -48.571 0.75 41.051 0.75 41.051 0.657 -48.571
1946.833 0.651 -48.969 0.754 40.648 0.754 40.648 0.651 -48.969
1971.792 0.646 -49.362 0.759 40.25 0.759 40.25 0.646 -49.362
1996.75 0.641 -49.75 0.763 39.857 0.763 39.857 0.641 -49.75
2021.708 0.636 -50.133 0.768 39.468 0.768 39.468 0.636 -50.133
2046.667 0.63 -50.511 0.772 39.084 0.772 39.084 0.63 -50.511
2071.625 0.625 -50.885 0.776 38.705 0.776 38.705 0.625 -50.885
2096.583 0.62 -51.253 0.78 38.331 0.78 38.331 0.62 -51.253
2121.542 0.615 -51.618 0.784 37.961 0.784 37.961 0.615 -51.618
2146.5 0.61 -51.977 0.788 37.596 0.788 37.596 0.61 -51.977
2171.458 0.605 -52.333 0.792 37.235 0.792 37.235 0.605 -52.333
2196.417 0.6 -52.684 0.795 36.878 0.795 36.878 0.6 -52.684
2221.375 0.595 -53.03 0.799 36.526 0.799 36.526 0.595 -53.03
2246.333 0.59 -53.373 0.803 36.178 0.803 36.178 0.59 -53.373
2271.292 0.585 -53.711 0.806 35.834 0.806 35.834 0.585 -53.711
2296.25 0.581 -54.045 0.81 35.494 0.81 35.494 0.581 -54.045
2321.208 0.576 -54.375 0.813 35.158 0.813 35.158 0.576 -54.375
2346.167 0.571 -54.701 0.816 34.826 0.816 34.826 0.571 -54.701
2371.125 0.566 -55.023 0.819 34.498 0.819 34.498 0.566 -55.023
2396.083 0.562 -55.341 0.823 34.174 0.823 34.174 0.562 -55.341
2421.042 0.557 -55.656 0.826 33.854 0.826 33.854 0.557 -55.656
2446 0.553 -55.967 0.829 33.538 0.829 33.538 0.553 -55.967
2470.958 0.548 -56.273 0.832 33.225 0.832 33.225 0.548 -56.273
2495.917 0.543 -56.577 0.835 32.915 0.835 32.915 0.543 -56.577
2520.875 0.539 -56.877 0.838 32.61 0.838 32.61 0.539 -56.877
2545.833 0.534 -57.173 0.84 32.307 0.84 32.307 0.534 -57.173
2570.792 0.53 -57.465 0.843 32.009 0.843 32.009 0.53 -57.465
2595.75 0.526 -57.755 0.846 31.713 0.846 31.713 0.526 -57.755
2620.708 0.521 -58.041 0.848 31.421 0.848 31.421 0.521 -58.041
2645.667 0.517 -58.323 0.851 31.132 0.851 31.132 0.517 -58.323
2670.625 0.513 -58.603 0.854 30.847 0.854 30.847 0.513 -58.603
2695.583 0.509 -58.879 0.856 30.564 0.856 30.564 0.509 -58.879
2720.542 0.504 -59.152 0.859 30.285 0.859 30.285 0.504 -59.152
2745.5 0.5 -59.422 0.861 30.009 0.861 30.009 0.5 -59.422
2770.458 0.496 -59.689 0.863 29.736 0.863 29.736 0.496 -59.689
2795.417 0.492 -59.953 0.866 29.466 0.866 29.466 0.492 -59.953
2820.375 0.488 -60.213 0.868 29.198 0.868 29.198 0.488 -60.213
2845.333 0.484 -60.471 0.87 28.934 0.87 28.934 0.484 -60.471
2870.292 0.48 -60.727 0.872 28.672 0.872 28.672 0.48 -60.727
2895.25 0.476 -60.979 0.874 28.414 0.874 28.414 0.476 -60.979
2920.208 0.472 -61.228 0.877 28.158 0.877 28.158 0.472 -61.228
2945.167 0.468 -61.475 0.879 27.904 0.879 27.904 0.468 -61.475
2970.125 0.464 -61.719 0.881 27.654 0.881 27.654 0.464 -61.719
2995.083 0.46 -61.96 0.883 27.406 0.883 27.406 0.46 -61.96
3020.042 0.457 -62.199 0.885 27.16 0.885 27.16 0.457 -62.199
3045 0.453 -62.435 0.887 26.917 0.887 26.917 0.453 -62.435
3069.958 0.449 -62.669 0.888 26.677 0.888 26.677 0.449 -62.669
3094.917 0.445 -62.9 0.89 26.439 0.89 26.439 0.445 -62.9
3119.875 0.442 -63.128 0.892 26.204 0.892 26.204 0.442 -63.128
3144.833 0.438 -63.355 0.894 25.971 0.894 25.971 0.438 -63.355
3169.792 0.434 -63.578 0.896 25.74 0.896 25.74 0.434 -63.578
3194.75 0.431 -63.8 0.897 25.511 0.897 25.511 0.431 -63.8
3219.708 0.427 -64.019 0.899 25.285 0.899 25.285 0.427 -64.019
3244.667 0.424 -64.236 0.901 25.061 0.901 25.061 0.424 -64.236
3269.625 0.42 -64.45 0.902 24.839 0.902 24.839 0.42 -64.45
3294.583 0.417 -64.663 0.904 24.62 0.904 24.62 0.417 -64.663
3319.542 0.413 -64.873 0.905 24.402 0.905 24.402 0.413 -64.873
3344.5 0.41 -65.081 0.907 24.187 0.907 24.187 0.41 -65.081
3369.458 0.406 -65.287 0.908 23.974 0.908 23.974 0.406 -65.287
3394.417 0.403 -65.491 0.91 23.763 0.91 23.763 0.403 -65.491
3419.375 0.4 -65.692 0.911 23.553 0.911 23.553 0.4 -65.692
3444.333 0.396 -65.892 0.913 23.346 0.913 23.346 0.396 -65.892
3469.292 0.393 -66.09 0.914 23.141 0.914 23.141 0.393 -66.09
3494.25 0.39 -66.286 0.916 22.938 0.916 22.938 0.39 -66.286
3519.208 0.387 -66.479 0.917 22.736 0.917 22.736 0.387 -66.479
3544.167 0.383 -66.671 0.918 22.536 0.918 22.536 0.383 -66.671
3569.125 0.38 -66.861 0.92 22.339 0.92 22.339 0.38 -66.861
3594.083 0.377 -67.049 0.921 22.143 0.921 22.143 0.377 -67.049
3619.042 0.374 -67.236 0.922 21.949 0.922 21.949 0.374 -67.236
3644 0.371 -67.42 0.923 21.756 0.923 21.756 0.371 -67.42
3668.958 0.368 -67.603 0.925 21.565 0.925 21.565 0.368 -67.603
3693.917 0.365 -67.784 0.926 21.376 0.926 21.376 0.365 -67.784
3718.875 0.361 -67.963 0.927 21.189 0.927 21.189 0.361 -67.963
3743.833 0.358 -68.14 0.928 21.003 0.928 21.003 0.358 -68.14
3768.792 0.355 -68.316 0.929 20.819 0.929 20.819 0.355 -68.316
3793.75 0.352 -68.49 0.93 20.637 0.93 20.637 0.352 -68.49
3818.708 0.35 -68.663 0.932 20.456 0.932 20.456 0.35 -68.663
3843.667 0.347 -68.834 0.933 20.277 0.933 20.277 0.347 -68.834
3868.625 0.344 -69.003 0.934 20.099 0.934 20.099 0.344 -69.003
3893.583 0.341 -69.171 0.935 19.923 0.935 19.923 0.341 -69.171
3918.542 0.338 -69.337 0.936 19.748 0.936 19.748 0.338 -69.337
3943.5 0.335 -69.501 0.937 19.574 0.937 19.574 0.335 -69.501
3968.458 0.332 -69.664 0.938 19.403 0.938 19.403 0.332 -69.664
3993.417 0.329 -69.826 0.939 19.232 0.939 19.232 0.329 -69.826
4018.375 0.327 -69.986 0.94 19.063 0.94 19.063 0.327 -69.986
4043.333 0.324 -70.144 0.941 18.895 0.941 18.895 0.324 -70.144
4068.292 0.321 -70.301 0.942 18.729 0.942 18.729 0.321 -70.301
4093.25 0.318 -70.457 0.943 18.564 0.943 18.564 0.318 -70.457
4118.208 0.316 -70.611 0.943 18.401 0.943 18.401 0.316 -70.611
4143.167 0.313 -70.764 0.944 18.238 0.944 18.238 0.313 -70.764
4168.125 0.31 -70.916 0.945 18.077 0.945 18.077 0.31 -70.916
4193.083 0.308 -71.066 0.946 17.918 0.946 17.918 0.308 -71.066
4218.042 0.305 -71.215 0.947 17.759 0.947 17.759 0.305 -71.215
4243 0.302 -71.362 0.948 17.602 0.948 17.602 0.302 -71.362
4267.958 0.3 -71.508 0.949 17.446 0.949 17.446 0.3 -71.508
4292.917 0.297 -71.653 0.949 17.291 0.949 17.291 0.297 -71.653
4317.875 0.295 -71.797 0.95 17.137 0.95 17.137 0.295 -71.797
4342.833 0.292 -71.939 0.951 16.985 0.951 16.985 0.292 -71.939
4367.792 0.29 -72.08 0.952 16.834 0.952 16.834 0.29 -72.08
4392.75 0.287 -72.22 0.952 16.683 0.952 16.683 0.287 -72.22
4417.708 0.285 -72.358 0.953 16.534 0.953 16.534 0.285 -72.358
4442.667 0.282 -72.496 0.954 16.386 0.954 16.386 0.282 -72.496
4467.625 0.28 -72.632 0.955 16.24 0.955 16.24 0.28 -72.632
4492.583 0.277 -72.767 0.955 16.094 0.955 16.094 0.277 -72.767
4517.542 0.275 -72.901 0.956 15.949 0.956 15.949 0.275 -72.901
4542.5 0.272 -73.033 0.957 15.806 0.957 15.806 0.272 -73.033
4567.458 0.27 -73.165 0.957 15.663 0.957 15.663 0.27 -73.165
4592.417 0.268 -73.295 0.958 15.521 0.958 15.521 0.268 -73.295
4617.375 0.265 -73.424 0.959 15.381 0.959 15.381 0.265 -73.424
4642.333 0.263 -73.552 0.959 15.241 0.959 15.241 0.263 -73.552
4667.292 0.261 -73.679 0.96 15.103 0.96 15.103 0.261 -73.679
4692.25 0.258 -73.805 0.961 14.965 0.961 14.965 0.258 -73.805
4717.208 0.256 -73.93 0.961 14.828 0.961 14.828 0.256 -73.93
4742.167 0.254 -74.054 0.962 14.693 0.962 14.693 0.254 -74.054
4767.125 0.251 -74.177 0.962 14.558 0.962 14.558 0.251 -74.177
4792.083 0.249 -74.298 0.963 14.424 0.963 14.424 0.249 -74.298
4817.042 0.247 -74.419 0.963 14.291 0.963 14.291 0.247 -74.419
4842 0.245 -74.538 0.964 14.159 0.964 14.159 0.245 -74.538
4866.958 0.242 -74.657 0.965 14.028 0.965 14.028 0.242 -74.657
4891.917 0.24 -74.774 0.965 13.898 0.965 13.898 0.24 -74.774
4916.875 0.238 -74.891 0.966 13.768 0.966 13.768 0.238 -74.891
4941.833 0.236 -75.006 0.966 13.64 0.966 13.64 0.236 -75.006
4966.792 0.234 -75.12 0.967 13.512 0.967 13.512 0.234 -75.12
4991.75 0.232 -75.234 0.967 13.385 0.967 13.385 0.232 -75.234
5016.708 0.229 -75.346 0.968 13.259 0.968 13.259 0.229 -75.346
5041.667 0.227 -75.458 0.968 13.134 0.968 13.134 0.227 -75.458
5066.625 0.225 -75.568 0.969 13.009 0.969 13.009 0.225 -75.568
5091.583 0.223 -75.678 0.969 12.885 0.969 12.885 0.223 -75.678
5116.542 0.221 -75.786 0.97 12.763 0.97 12.763 0.221 -75.786
5141.5 0.219 -75.894 0.97 12.64 0.97 12.64 0.219 -75.894
5166.458 0.217 -76.001 0.971 12.519 0.971 12.519 0.217 -76.001
5191.417 0.215 -76.106 0.971 12.399 0.971 12.399 0.215 -76.106
5216.375 0.213 -76.211 0.972 12.279 0.972 12.279 0.213 -76.211
5241.333 0.211 -76.315 0.972 12.16 0.972 12.16 0.211 -76.315
5266.292 0.209 -76.418 0.972 12.041 0.972 12.041 0.209 -76.418
5291.25 0.207 -76.52 0.973 11.924 0.973 11.924 0.207 -76.52
5316.208 0.205 -76.621 0.973 11.807 0.973 11.807 0.205 -76.621
5341.167 0.203 -76.721 0.974 11.69 0.974 11.69 0.203 -76.721
5366.125 0.201 -76.821 0.974 11.575 0.974 11.575 0.201 -76.821
5391.083 0.199 -76.919 0.974 11.46 0.974 11.46 0.199 -76.919
5416.042 0.197 -77.016 0.975 11.346 0.975 11.346 0.197 -77.016
5441 0.195 -77.113 0.975 11.232 0.975 11.232 0.195 -77.113
5465.958 0.193 -77.209 0.976 11.119 0.976 11.119 0.193 -77.209
5490.917 0.191 -77.303 0.976 11.007 0.976 11.007 0.191 -77.303
5515.875 0.189 -77.397 0.976 10.895 0.976 10.895 0.189 -77.397
5540.833 0.187 -77.49 0.977 10.785 0.977 10.785 0.187 -77.49
5565.792 0.185 -77.582 0.977 10.674 0.977 10.674 0.185 -77.582
5590.75 0.183 -77.673 0.977 10.565 0.977 10.565 0.183 -77.673
5615.708 0.182 -77.764 0.978 10.455 0.978 10.455 0.182 -77.764
5640.667 0.18 -77.853 0.978 10.347 0.978 10.347 0.18 -77.853
5665.625 0.178 -77.942 0.978 10.239 0.978 10.239 0.178 -77.942
5690.583 0.176 -78.029 0.979 10.132 0.979 10.132 0.176 -78.029
5715.542 0.174 -78.116 0.979 10.025 0.979 10.025 0.174 -78.116
5740.5 0.172 -78.202 0.979 9.919 0.979 9.919 0.172 -78.202
5765.458 0.171 -78.287 0.98 9.814 0.98 9.814 0.171 -78.287
5790.417 0.169 -78.371 0.98 9.709 0.98 9.709 0.169 -78.371
5815.375 0.167 -78.454 0.98 9.604 0.98 9.604 0.167 -78.454
5840.333 0.165 -78.536 0.981 9.501 0.981 9.501 0.165 -78.536
5865.292 0.163 -78.617 0.981 9.397 0.981 9.397 0.163 -78.617
5890.25 0.162 -78.698 0.981 9.294 0.981 9.294 0.162 -78.698
5915.208 0.16 -78.777 0.981 9.192 0.981 9.192 0.16 -78.777
5940.167 0.158 -78.856 0.982 9.091 0.982 9.091 0.158 -78.856
5965.125 0.156 -78.933 0.982 8.99 0.982 8.99 0.156 -78.933
5990.083 0.155 -79.01 0.982 8.889 0.982 8.889 0.155 -79.01
6015.042 0.153 -79.086 0.983 8.789 0.983 8.789 0.153 -79.086
6040 0.151 -79.161 0.983 8.689 0.983 8.689 0.151 -79.161
6064.958 0.149 -79.235 0.983 8.59 0.983 8.59 0.149 -79.235
6089.917 0.148 -79.308 0.983 8.492 0.983 8.492 0.148 -79.308
6114.875 0.146 -79.38 0.984 8.393 0.984 8.393 0.146 -79.38
6139.833 0.144 -79.451 0.984 8.296 0.984 8.296 0.144 -79.451
6164.792 0.143 -79.521 0.984 8.199 0.984 8.199 0.143 -79.521
6189.75 0.141 -79.59 0.984 8.102 0.984 8.102 0.141 -79.59
6214.708 0.139 -79.658 0.985 8.006 0.985 8.006 0.139 -79.658
6239.667 0.138 -79.725 0.985 7.91 0.985 7.91 0.138 -79.725
6264.625 0.136 -79.791 0.985 7.815 0.985 7.815 0.136 -79.791
6289.583 0.134 -79.856 0.985 7.72 0.985 7.72 0.134 -79.856
6314.542 0.133 -79.92 0.985 7.626 0.985 7.626 0.133 -79.92
6339.5 0.131 -79.983 0.986 7.532 0.986 7.532 0.131 -79.983
6364.458 0.13 -80.045 0.986 7.439 0.986 7.439 0.13 -80.045
6389.417 0.128 -80.106 0.986 7.346 0.986 7.346 0.128 -80.106
6414.375 0.126 -80.166 0.986 7.253 0.986 7.253 0.126 -80.166
6439.333 0.125 -80.224 0.987 7.161 0.987 7.161 0.125 -80.224
6464.292 0.123 -80.282 0.987 7.069 0.987 7.069 0.123 -80.282
6489.25 0.122 -80.338 0.987 6.978 0.987 6.978 0.122 -80.338
6514.208 0.12 -80.393 0.987 6.887 0.987 6.887 0.12 -80.393
6539.167 0.118 -80.447 0.987 6.796 0.987 6.796 0.118 -80.447
6564.125 0.117 -80.5 0.987 6.706 0.987 6.706 0.117 -80.5
6589.083 0.115 -80.552 0.988 6.617 0.988 6.617 0.115 -80.552
6614.042 0.114 -80.602 0.988 6.528 0.988 6.528 0.114 -80.602
6639 0.112 -80.651 0.988 6.439 0.988 6.439 0.112 -80.651
6663.958 0.111 -80.699 0.988 6.35 0.988 6.35 0.111 -80.699
6688.917 0.109 -80.745 0.988 6.262 0.988 6.262 0.109 -80.745
6713.875 0.108 -80.79 0.988 6.174 0.988 6.174 0.108 -80.79
6738.833 0.106 -80.833 0.989 6.087 0.989 6.087 0.106 -80.833
6763.792 0.105 -80.875 0.989 6 0.989 6 0.105 -80.875
6788.75 0.103 -80.916 0.989 5.914 0.989 5.914 0.103 -80.916
6813.708 0.102 -80.955 0.989 5.828 0.989 5.828 0.102 -80.955
6838.667 0.1 -80.993 0.989 5.742 0.989 5.742 0.1 -80.993
6863.625 0.099 -81.028 0.989 5.656 0.989 5.656 0.099 -81.028
6888.583 0.097 -81.063 0.99 5.571 0.99 5.571 0.097 -81.063
6913.542 0.096 -81.095 0.99 5.486 0.99 5.486 0.096 -81.095
6938.5 0.094 -81.126 0.99 5.402 0.99 5.402 0.094 -81.126
6963.458 0.093 -81.155 0.99 5.318 0.99 5.318 0.093 -81.155
6988.417 0.091 -81.182 0.99 5.234 0.99 5.234 0.091 -81.182
7013.375 0.09 -81.207 0.99 5.151 0.99 5.151 0.09 -81.207
7038.333 0.089 -81.231 0.99 5.068 0.99 5.068 0.089 -81.231
7063.292 0.087 -81.252 0.991 4.985 0.991 4.985 0.087 -81.252
7088.25 0.086 -81.271 0.991 4.903 0.991 4.903 0.086 -81.271
7113.208 0.084 -81.287 0.991 4.821 0.991 4.821 0.084 -81.287
7138.167 0.083 -81.302 0.991 4.739 0.991 4.739 0.083 -81.302
7163.125 0.081 -81.314 0.991 4.658 0.991 4.658 0.081 -81.314
7188.083 0.08 -81.324 0.991 4.577 0.991 4.577 0.08 -81.324
7213.042 0.079 -81.331 0.991 4.496 0.991 4.496 0.079 -81.331
7238 0.077 -81.335 0.991 4.416 0.991 4.416 0.077 -81.335
7262.958 0.076 -81.337 0.991 4.336 0.991 4.336 0.076 -81.337
7287.917 0.074 -81.335 0.992 4.256 0.992 4.256 0.074 -81.335
7312.875 0.073 -81.331 0.992 4.176 0.992 4.176 0.073 -81.331
7337.833 0.072 -81.324 0.992 4.097 0.992 4.097 0.072 -81.324
7362.792 0.07 -81.313 0.992 4.018 0.992 4.018 0.07 -81.313
7387.75 0.069 -81.298 0.992 3.94 0.992 3.94 0.069 -81.298
7412.708 0.068 -81.28 0.992 3.861 0.992 3.861 0.068 -81.28
7437.667 0.066 -81.258 0.992 3.783 0.992 3.783 0.066 -81.258
7462.625 0.065 -81.232 0.992 3.706 0.992 3.706 0.065 -81.232
7487.583 0.064 -81.202 0.992 3.628 0.992 3.628 0.064 -81.202
7512.542 0.062 -81.167 0.992 3.551 0.992 3.551 0.062 -81.167
7537.5 0.061 -81.127 0.992 3.474 0.992 3.474 0.061 -81.127
7562.458 0.06 -81.083 0.993 3.398 0.993 3.398 0.06 -81.083
7587.417 0.058 -81.033 0.993 3.321 0.993 3.321 0.058 -81.033
7612.375 0.057 -80.977 0.993 3.245 0.993 3.245 0.057 -80.977
7637.333 0.056 -80.915 0.993 3.17 0.993 3.17 0.056 -80.915
7662.292 0.054 -80.847 0.993 3.094 0.993 3.094 0.054 -80.847
7687.25 0.053 -80.773 0.993 3.019 0.993 3.019 0.053 -80.773
7712.208 0.052 -80.691 0.993 2.944 0.993 2.944 0.052 -80.691
7737.167 0.05 -80.601 0.993 2.869 0.993 2.869 0.05 -80.601
7762.125 0.049 -80.502 0.993 2.795 0.993 2.795 0.049 -80.502
7787.083 0.048 -80.395 0.993 2.721 0.993 2.721 0.048 -80.395
7812.042 0.047 -80.279 0.993 2.647 0.993 2.647 0.047 -80.279
7837 0.045 -80.152 0.993 2.573 0.993 2.573 0.045 -80.152
7861.958 0.044 -80.014 0.993 2.5 0.993 2.5 0.044 -80.014
7886.917 0.043 -79.864 0.993 2.427 0.993 2.427 0.043 -79.864
7911.875 0.041 -79.7 0.993 2.354 0.993 2.354 0.041 -79.7
7936.833 0.04 -79.523 0.993 2.281 0.993 2.281 0.04 -79.523
7961.792 0.039 -79.33 0.994 2.209 0.994 2.209 0.039 -79.33
7986.75 0.038 -79.121 0.994 2.137 0.994 2.137 0.038 -79.121
8011.708 0.036 -78.893 0.994 2.065 0.994 2.065 0.036 -78.893
8036.667 0.035 -78.645 0.994 1.993 0.994 1.993 0.035 -78.645
8061.625 0.034 -78.374 0.994 1.922 0.994 1.922 0.034 -78.374
8086.583 0.033 -78.079 0.994 1.85 0.994 1.85 0.033 -78.079
8111.542 0.032 -77.757 0.994 1.779 0.994 1.779 0.032 -77.757
8136.5 0.03 -77.404 0.994 1.709 0.994 1.709 0.03 -77.404
8161.458 0.029 -77.017 0.994 1.638 0.994 1.638 0.029 -77.017
8186.417 0.028 -76.592 0.994 1.568 0.994 1.568 0.028 -76.592
8211.375 0.027 -76.125 0.994 1.498 0.994 1.498 0.027 -76.125
