# MHZ S MA R 50

50 0.992 -7.163 0.125 82.822 0.125 82.822 0.992 -7.163
74.958 0.983 -10.671 0.185 79.306 0.185 79.306 0.983 -10.671
99.917 0.97 -14.102 0.244 75.867 0.244 75.867 0.97 -14.102
124.875 0.954 -17.435 0.3 72.527 0.3 72.527 0.954 -17.435
149.833 0.935 -20.653 0.353 69.301 0.353 69.301 0.935 -20.653
174.792 0.915 -23.744 0.403 66.203 0.403 66.203 0.915 -23.744
199.75 0.893 -26.698 0.449 63.242 0.449 63.242 0.893 -26.698
224.708 0.87 -29.51 0.493 60.422 0.493 60.422 0.87 -29.51
249.667 0.846 -32.177 0.533 57.747 0.533 57.747 0.846 -32.177
274.625 0.821 -34.701 0.569 55.215 0.569 55.215 0.821 -34.701
299.583 0.797 -37.085 0.603 52.824 0.603 52.824 0.797 -37.085
324.542 0.772 -39.331 0.634 50.57 0.634 50.57 0.772 -39.331
349.5 0.748 -41.446 0.662 48.447 0.662 48.447 0.748 -41.446
374.458 0.725 -43.437 0.688 46.449 0.688 46.449 0.725 -43.437
399.417 0.702 -45.308 0.711 44.57 0.711 44.57 0.702 -45.308
424.375 0.679 -47.069 0.732 42.802 0.732 42.802 0.679 -47.069
449.333 0.658 -48.724 0.752 41.138 0.752 41.138 0.658 -48.724
474.292 0.637 -50.282 0.769 39.573 0.769 39.573 0.637 -50.282
499.25 0.617 -51.748 0.785 38.099 0.785 38.099 0.617 -51.748
524.208 0.598 -53.129 0.8 36.709 0.8 36.709 0.598 -53.129
549.167 0.579 -54.432 0.813 35.399 0.813 35.399 0.579 -54.432
574.125 0.562 -55.66 0.826 34.163 0.826 34.163 0.562 -55.66
599.083 0.545 -56.82 0.837 32.995 0.837 32.995 0.545 -56.82
624.042 0.528 -57.917 0.847 31.89 0.847 31.89 0.528 -57.917
649 0.513 -58.954 0.857 30.845 0.857 30.845 0.513 -58.954
673.958 0.498 -59.936 0.865 29.854 0.865 29.854 0.498 -59.936
698.917 0.484 -60.868 0.874 28.915 0.874 28.915 0.484 -60.868
723.875 0.47 -61.752 0.881 28.023 0.881 28.023 0.47 -61.752
748.833 0.457 -62.591 0.888 27.175 0.888 27.175 0.457 -62.591
773.792 0.444 -63.39 0.894 26.368 0.894 26.368 0.444 -63.39
798.75 0.432 -64.15 0.9 25.6 0.9 25.6 0.432 -64.15
823.708 0.421 -64.874 0.905 24.867 0.905 24.867 0.421 -64.874
848.667 0.409 -65.564 0.91 24.168 0.91 24.168 0.409 -65.564
873.625 0.399 -66.223 0.915 23.501 0.915 23.501 0.399 -66.223
898.583 0.389 -66.853 0.92 22.862 0.92 22.862 0.389 -66.853
923.542 0.379 -67.455 0.924 22.251 0.924 22.251 0.379 -67.455
948.5 0.369 -68.032 0.927 21.666 0.927 21.666 0.369 -68.032
973.458 0.36 -68.584 0.931 21.105 0.931 21.105 0.36 -68.584
998.417 0.351 -69.113 0.934 20.567 0.934 20.567 0.351 -69.113
1023.375 0.343 -69.621 0.937 20.049 0.937 20.049 0.343 -69.621
1048.333 0.335 -70.109 0.94 19.552 0.94 19.552 0.335 -70.109
1073.292 0.327 -70.578 0.943 19.074 0.943 19.074 0.327 -70.578
1098.25 0.319 -71.029 0.946 18.614 0.946 18.614 0.319 -71.029
1123.208 0.312 -71.463 0.948 18.171 0.948 18.171 0.312 -71.463
1148.167 0.305 -71.882 0.95 17.743 0.95 17.743 0.305 -71.882
1173.125 0.298 -72.285 0.953 17.331 0.953 17.331 0.298 -72.285
1198.083 0.291 -72.673 0.955 16.932 0.955 16.932 0.291 -72.673
1223.042 0.285 -73.048 0.957 16.547 0.957 16.547 0.285 -73.048
1248 0.279 -73.411 0.958 16.175 0.958 16.175 0.279 -73.411
1272.958 0.273 -73.761 0.96 15.815 0.96 15.815 0.273 -73.761
1297.917 0.267 -74.099 0.962 15.467 0.962 15.467 0.267 -74.099
1322.875 0.261 -74.427 0.963 15.129 0.963 15.129 0.261 -74.427
1347.833 0.255 -74.744 0.965 14.802 0.965 14.802 0.255 -74.744
1372.792 0.25 -75.051 0.966 14.485 0.966 14.485 0.25 -75.051
1397.75 0.245 -75.348 0.968 14.177 0.968 14.177 0.245 -75.348
1422.708 0.24 -75.636 0.969 13.878 0.969 13.878 0.24 -75.636
1447.667 0.235 -75.916 0.97 13.587 0.97 13.587 0.235 -75.916
1472.625 0.23 -76.188 0.971 13.305 0.971 13.305 0.23 -76.188
1497.583 0.225 -76.451 0.972 13.03 0.972 13.03 0.225 -76.451
1522.542 0.221 -76.707 0.973 12.763 0.973 12.763 0.221 -76.707
1547.5 0.216 -76.956 0.974 12.503 0.974 12.503 0.216 -76.956
1572.458 0.212 -77.198 0.975 12.249 0.975 12.249 0.212 -77.198
1597.417 0.208 -77.433 0.976 12.003 0.976 12.003 0.208 -77.433
1622.375 0.204 -77.661 0.977 11.762 0.977 11.762 0.204 -77.661
1647.333 0.2 -77.884 0.978 11.527 0.978 11.527 0.2 -77.884
1672.292 0.196 -78.101 0.979 11.298 0.979 11.298 0.196 -78.101
1697.25 0.192 -78.312 0.979 11.075 0.979 11.075 0.192 -78.312
1722.208 0.188 -78.517 0.98 10.857 0.98 10.857 0.188 -78.517
1747.167 0.185 -78.718 0.981 10.643 0.981 10.643 0.185 -78.718
1772.125 0.181 -78.913 0.981 10.435 0.981 10.435 0.181 -78.913
1797.083 0.178 -79.103 0.982 10.231 0.982 10.231 0.178 -79.103
1822.042 0.174 -79.289 0.983 10.032 0.983 10.032 0.174 -79.289
1847 0.171 -79.47 0.983 9.837 0.983 9.837 0.171 -79.47
1871.958 0.168 -79.647 0.984 9.646 0.984 9.646 0.168 -79.647
1896.917 0.164 -79.82 0.984 9.46 0.984 9.46 0.164 -79.82
1921.875 0.161 -79.988 0.985 9.277 0.985 9.277 0.161 -79.988
1946.833 0.158 -80.153 0.985 9.097 0.985 9.097 0.158 -80.153
1971.792 0.155 -80.313 0.986 8.922 0.986 8.922 0.155 -80.313
1996.75 0.152 -80.47 0.986 8.749 0.986 8.749 0.152 -80.47
2021.708 0.149 -80.624 0.987 8.58 0.987 8.58 0.149 -80.624
2046.667 0.146 -80.774 0.987 8.415 0.987 8.415 0.146 -80.774
2071.625 0.144 -80.92 0.988 8.252 0.988 8.252 0.144 -80.92
2096.583 0.141 -81.063 0.988 8.093 0.988 8.093 0.141 -81.063
2121.542 0.138 -81.203 0.988 7.936 0.988 7.936 0.138 -81.203
2146.5 0.135 -81.339 0.989 7.782 0.989 7.782 0.135 -81.339
2171.458 0.133 -81.473 0.989 7.631 0.989 7.631 0.133 -81.473
2196.417 0.13 -81.604 0.989 7.482 0.989 7.482 0.13 -81.604
2221.375 0.128 -81.731 0.99 7.336 0.99 7.336 0.128 -81.731
2246.333 0.125 -81.856 0.99 7.192 0.99 7.192 0.125 -81.856
2271.292 0.123 -81.978 0.99 7.051 0.99 7.051 0.123 -81.978
2296.25 0.12 -82.097 0.991 6.912 0.991 6.912 0.12 -82.097
2321.208 0.118 -82.214 0.991 6.775 0.991 6.775 0.118 -82.214
2346.167 0.116 -82.328 0.991 6.641 0.991 6.641 0.116 -82.328
2371.125 0.113 -82.439 0.991 6.508 0.991 6.508 0.113 -82.439
2396.083 0.111 -82.548 0.992 6.378 0.992 6.378 0.111 -82.548
2421.042 0.109 -82.654 0.992 6.249 0.992 6.249 0.109 -82.654
2446 0.107 -82.758 0.992 6.123 0.992 6.123 0.107 -82.758
2470.958 0.105 -82.859 0.992 5.998 0.992 5.998 0.105 -82.859
2495.917 0.102 -82.958 0.993 5.875 0.993 5.875 0.102 -82.958
2520.875 0.1 -83.055 0.993 5.754 0.993 5.754 0.1 -83.055
2545.833 0.098 -83.149 0.993 5.634 0.993 5.634 0.098 -83.149
2570.792 0.096 -83.24 0.993 5.517 0.993 5.517 0.096 -83.24
2595.75 0.094 -83.33 0.993 5.4 0.993 5.4 0.094 -83.33
2620.708 0.092 -83.417 0.994 5.286 0.994 5.286 0.092 -83.417
2645.667 0.09 -83.501 0.994 5.173 0.994 5.173 0.09 -83.501
2670.625 0.088 -83.583 0.994 5.061 0.994 5.061 0.088 -83.583
2695.583 0.086 -83.663 0.994 4.951 0.994 4.951 0.086 -83.663
2720.542 0.084 -83.741 0.994 4.842 0.994 4.842 0.084 -83.741
2745.5 0.083 -83.816 0.994 4.734 0.994 4.734 0.083 -83.816
2770.458 0.081 -83.889 0.995 4.628 0.995 4.628 0.081 -83.889
2795.417 0.079 -83.959 0.995 4.523 0.995 4.523 0.079 -83.959
2820.375 0.077 -84.027 0.995 4.42 0.995 4.42 0.077 -84.027
2845.333 0.075 -84.092 0.995 4.318 0.995 4.318 0.075 -84.092
2870.292 0.074 -84.155 0.995 4.216 0.995 4.216 0.074 -84.155
2895.25 0.072 -84.216 0.995 4.116 0.995 4.116 0.072 -84.216
2920.208 0.07 -84.273 0.995 4.018 0.995 4.018 0.07 -84.273
2945.167 0.068 -84.328 0.996 3.92 0.996 3.92 0.068 -84.328
2970.125 0.067 -84.38 0.996 3.823 0.996 3.823 0.067 -84.38
2995.083 0.065 -84.43 0.996 3.728 0.996 3.728 0.065 -84.43
3020.042 0.063 -84.476 0.996 3.633 0.996 3.633 0.063 -84.476
3045 0.062 -84.52 0.996 3.539 0.996 3.539 0.062 -84.52
3069.958 0.06 -84.56 0.996 3.447 0.996 3.447 0.06 -84.56
3094.917 0.059 -84.597 0.996 3.355 0.996 3.355 0.059 -84.597
3119.875 0.057 -84.631 0.996 3.265 0.996 3.265 0.057 -84.631
3144.833 0.055 -84.661 0.996 3.175 0.996 3.175 0.055 -84.661
3169.792 0.054 -84.688 0.996 3.086 0.996 3.086 0.054 -84.688
3194.75 0.052 -84.71 0.997 2.998 0.997 2.998 0.052 -84.71
3219.708 0.051 -84.729 0.997 2.911 0.997 2.911 0.051 -84.729
3244.667 0.049 -84.743 0.997 2.824 0.997 2.824 0.049 -84.743
3269.625 0.048 -84.753 0.997 2.739 0.997 2.739 0.048 -84.753
3294.583 0.046 -84.757 0.997 2.654 0.997 2.654 0.046 -84.757
3319.542 0.045 -84.757 0.997 2.57 0.997 2.57 0.045 -84.757
3344.5 0.043 -84.75 0.997 2.487 0.997 2.487 0.043 -84.75
3369.458 0.042 -84.738 0.997 2.405 0.997 2.405 0.042 -84.738
3394.417 0.041 -84.72 0.997 2.323 0.997 2.323 0.041 -84.72
3419.375 0.039 -84.694 0.997 2.242 0.997 2.242 0.039 -84.694
3444.333 0.038 -84.66 0.997 2.162 0.997 2.162 0.038 -84.66
3469.292 0.036 -84.619 0.997 2.082 0.997 2.082 0.036 -84.619
3494.25 0.035 -84.568 0.997 2.003 0.997 2.003 0.035 -84.568
3519.208 0.034 -84.507 0.997 1.925 0.997 1.925 0.034 -84.507
3544.167 0.032 -84.435 0.997 1.847 0.997 1.847 0.032 -84.435
3569.125 0.031 -84.351 0.997 1.77 0.997 1.77 0.031 -84.351
3594.083 0.03 -84.252 0.997 1.694 0.997 1.694 0.03 -84.252
3619.042 0.028 -84.139 0.998 1.618 0.998 1.618 0.028 -84.139
3644 0.027 -84.008 0.998 1.543 0.998 1.543 0.027 -84.008
3668.958 0.026 -83.858 0.998 1.468 0.998 1.468 0.026 -83.858
3693.917 0.024 -83.685 0.998 1.394 0.998 1.394 0.024 -83.685
3718.875 0.023 -83.486 0.998 1.321 0.998 1.321 0.023 -83.486
3743.833 0.022 -83.257 0.998 1.248 0.998 1.248 0.022 -83.257
3768.792 0.021 -82.993 0.998 1.176 0.998 1.176 0.021 -82.993
3793.75 0.019 -82.688 0.998 1.104 0.998 1.104 0.019 -82.688
3818.708 0.018 -82.333 0.998 1.032 0.998 1.032 0.018 -82.333
3843.667 0.017 -81.92 0.998 0.961 0.998 0.961 0.017 -81.92
3868.625 0.016 -81.435 0.998 0.891 0.998 0.891 0.016 -81.435
3893.583 0.014 -80.861 0.998 0.821 0.998 0.821 0.014 -80.861
3918.542 0.013 -80.174 0.998 0.752 0.998 0.752 0.013 -80.174
3943.5 0.012 -79.345 0.998 0.683 0.998 0.683 0.012 -79.345
3968.458 0.011 -78.328 0.998 0.614 0.998 0.614 0.011 -78.328
3993.417 9.765e-3 -77.061 0.998 0.546 0.998 0.546 9.765e-3 -77.061
4018.375 8.617e-3 -75.445 0.998 0.479 0.998 0.479 8.617e-3 -75.445
4043.333 7.486e-3 -73.33 0.998 0.412 0.998 0.412 7.486e-3 -73.33
4068.292 6.377e-3 -70.467 0.998 0.345 0.998 0.345 6.377e-3 -70.467
4093.25 5.298e-3 -66.418 0.998 0.279 0.998 0.279 5.298e-3 -66.418
4118.208 4.266e-3 -60.364 0.998 0.213 0.998 0.213 4.266e-3 -60.364
4143.167 3.319e-3 -50.692 0.998 0.147 0.998 0.147 3.319e-3 -50.692
4168.125 2.541e-3 -34.367 0.998 0.082 0.998 0.082 2.541e-3 -34.367
4193.083 2.118e-3 -8.366 0.998 0.018 0.998 0.018 2.118e-3 -8.366
4218.042 2.248e-3 21.161 0.998 -0.047 0.998 -0.047 2.248e-3 21.161
4243 2.848e-3 42.513 0.998 -0.111 0.998 -0.111 2.848e-3 42.513
4267.958 3.691e-3 55.224 0.998 -0.174 0.998 -0.174 3.691e-3 55.224
4292.917 4.641e-3 62.915 0.998 -0.237 0.998 -0.237 4.641e-3 62.915
4317.875 5.641e-3 67.889 0.998 -0.3 0.998 -0.3 5.641e-3 67.889
4342.833 6.665e-3 71.311 0.998 -0.363 0.998 -0.363 6.665e-3 71.311
4367.792 7.702e-3 73.785 0.998 -0.425 0.998 -0.425 7.702e-3 73.785
4392.75 8.744e-3 75.647 0.998 -0.486 0.998 -0.486 8.744e-3 75.647
4417.708 9.789e-3 77.09 0.998 -0.548 0.998 -0.548 9.789e-3 77.09
4442.667 0.011 78.237 0.998 -0.609 0.998 -0.609 0.011 78.237
4467.625 0.012 79.166 0.998 -0.67 0.998 -0.67 0.012 79.166
4492.583 0.013 79.932 0.998 -0.73 0.998 -0.73 0.013 79.932
4517.542 0.014 80.571 0.998 -0.79 0.998 -0.79 0.014 80.571
4542.5 0.015 81.111 0.998 -0.85 0.998 -0.85 0.015 81.111
4567.458 0.016 81.572 0.998 -0.91 0.998 -0.91 0.016 81.572
4592.417 0.017 81.968 0.998 -0.969 0.998 -0.969 0.017 81.968
4617.375 0.018 82.31 0.998 -1.028 0.998 -1.028 0.018 82.31
4642.333 0.019 82.608 0.998 -1.087 0.998 -1.087 0.019 82.608
4667.292 0.02 82.869 0.998 -1.145 0.998 -1.145 0.02 82.869
4692.25 0.021 83.098 0.998 -1.203 0.998 -1.203 0.021 83.098
4717.208 0.022 83.3 0.998 -1.261 0.998 -1.261 0.022 83.3
4742.167 0.023 83.478 0.998 -1.318 0.998 -1.318 0.023 83.478
4767.125 0.024 83.637 0.998 -1.376 0.998 -1.376 0.024 83.637
4792.083 0.025 83.777 0.998 -1.433 0.998 -1.433 0.025 83.777
4817.042 0.026 83.902 0.998 -1.489 0.998 -1.489 0.026 83.902
4842 0.027 84.014 0.998 -1.546 0.998 -1.546 0.027 84.014
4866.958 0.028 84.113 0.998 -1.602 0.998 -1.602 0.028 84.113
4891.917 0.029 84.201 0.997 -1.658 0.997 -1.658 0.029 84.201
4916.875 0.03 84.28 0.997 -1.714 0.997 -1.714 0.03 84.28
4941.833 0.031 84.349 0.997 -1.769 0.997 -1.769 0.031 84.349
4966.792 0.032 84.411 0.997 -1.825 0.997 -1.825 0.032 84.411
4991.75 0.033 84.466 0.997 -1.88 0.997 -1.88 0.033 84.466
5016.708 0.034 84.515 0.997 -1.935 0.997 -1.935 0.034 84.515
5041.667 0.035 84.558 0.997 -1.989 0.997 -1.989 0.035 84.558
5066.625 0.036 84.595 0.997 -2.043 0.997 -2.043 0.036 84.595
5091.583 0.037 84.627 0.997 -2.098 0.997 -2.098 0.037 84.627
5116.542 0.038 84.656 0.997 -2.151 0.997 -2.151 0.038 84.656
5141.5 0.039 84.679 0.997 -2.205 0.997 -2.205 0.039 84.679
5166.458 0.039 84.7 0.997 -2.259 0.997 -2.259 0.039 84.7
5191.417 0.04 84.716 0.997 -2.312 0.997 -2.312 0.04 84.716
5216.375 0.041 84.73 0.997 -2.365 0.997 -2.365 0.041 84.73
5241.333 0.042 84.741 0.997 -2.418 0.997 -2.418 0.042 84.741
5266.292 0.043 84.749 0.997 -2.471 0.997 -2.471 0.043 84.749
5291.25 0.044 84.754 0.997 -2.523 0.997 -2.523 0.044 84.754
5316.208 0.045 84.757 0.997 -2.575 0.997 -2.575 0.045 84.757
5341.167 0.046 84.758 0.997 -2.627 0.997 -2.627 0.046 84.758
5366.125 0.047 84.756 0.997 -2.679 0.997 -2.679 0.047 84.756
5391.083 0.048 84.753 0.997 -2.731 0.997 -2.731 0.048 84.753
5416.042 0.049 84.748 0.997 -2.782 0.997 -2.782 0.049 84.748
5441 0.049 84.742 0.997 -2.834 0.997 -2.834 0.049 84.742
5465.958 0.05 84.734 0.997 -2.885 0.997 -2.885 0.05 84.734
5490.917 0.051 84.724 0.997 -2.936 0.997 -2.936 0.051 84.724
5515.875 0.052 84.713 0.997 -2.987 0.997 -2.987 0.052 84.713
5540.833 0.053 84.701 0.997 -3.037 0.997 -3.037 0.053 84.701
5565.792 0.054 84.687 0.996 -3.088 0.996 -3.088 0.054 84.687
5590.75 0.055 84.673 0.996 -3.138 0.996 -3.138 0.055 84.673
5615.708 0.056 84.657 0.996 -3.188 0.996 -3.188 0.056 84.657
5640.667 0.057 84.64 0.996 -3.238 0.996 -3.238 0.057 84.64
5665.625 0.057 84.623 0.996 -3.288 0.996 -3.288 0.057 84.623
5690.583 0.058 84.604 0.996 -3.338 0.996 -3.338 0.058 84.604
5715.542 0.059 84.585 0.996 -3.387 0.996 -3.387 0.059 84.585
5740.5 0.06 84.565 0.996 -3.436 0.996 -3.436 0.06 84.565
5765.458 0.061 84.544 0.996 -3.486 0.996 -3.486 0.061 84.544
5790.417 0.062 84.522 0.996 -3.535 0.996 -3.535 0.062 84.522
5815.375 0.063 84.5 0.996 -3.583 0.996 -3.583 0.063 84.5
5840.333 0.063 84.477 0.996 -3.632 0.996 -3.632 0.063 84.477
5865.292 0.064 84.453 0.996 -3.681 0.996 -3.681 0.064 84.453
5890.25 0.065 84.429 0.996 -3.729 0.996 -3.729 0.065 84.429
5915.208 0.066 84.404 0.996 -3.777 0.996 -3.777 0.066 84.404
5940.167 0.067 84.379 0.996 -3.826 0.996 -3.826 0.067 84.379
5965.125 0.068 84.354 0.996 -3.874 0.996 -3.874 0.068 84.354
5990.083 0.068 84.327 0.996 -3.921 0.996 -3.921 0.068 84.327
6015.042 0.069 84.301 0.996 -3.969 0.996 -3.969 0.069 84.301
6040 0.07 84.274 0.995 -4.017 0.995 -4.017 0.07 84.274
6064.958 0.071 84.246 0.995 -4.064 0.995 -4.064 0.071 84.246
6089.917 0.072 84.218 0.995 -4.111 0.995 -4.111 0.072 84.218
6114.875 0.073 84.19 0.995 -4.159 0.995 -4.159 0.073 84.19
6139.833 0.073 84.162 0.995 -4.206 0.995 -4.206 0.073 84.162
6164.792 0.074 84.133 0.995 -4.253 0.995 -4.253 0.074 84.133
6189.75 0.075 84.104 0.995 -4.299 0.995 -4.299 0.075 84.104
6214.708 0.076 84.074 0.995 -4.346 0.995 -4.346 0.076 84.074
6239.667 0.077 84.045 0.995 -4.393 0.995 -4.393 0.077 84.045
6264.625 0.077 84.014 0.995 -4.439 0.995 -4.439 0.077 84.014
6289.583 0.078 83.984 0.995 -4.485 0.995 -4.485 0.078 83.984
6314.542 0.079 83.954 0.995 -4.532 0.995 -4.532 0.079 83.954
6339.5 0.08 83.923 0.995 -4.578 0.995 -4.578 0.08 83.923
6364.458 0.081 83.892 0.995 -4.624 0.995 -4.624 0.081 83.892
6389.417 0.081 83.861 0.995 -4.67 0.995 -4.67 0.081 83.861
6414.375 0.082 83.829 0.995 -4.715 0.995 -4.715 0.082 83.829
6439.333 0.083 83.798 0.994 -4.761 0.994 -4.761 0.083 83.798
6464.292 0.084 83.766 0.994 -4.806 0.994 -4.806 0.084 83.766
6489.25 0.085 83.734 0.994 -4.852 0.994 -4.852 0.085 83.734
6514.208 0.085 83.702 0.994 -4.897 0.994 -4.897 0.085 83.702
6539.167 0.086 83.669 0.994 -4.942 0.994 -4.942 0.086 83.669
6564.125 0.087 83.637 0.994 -4.987 0.994 -4.987 0.087 83.637
6589.083 0.088 83.604 0.994 -5.032 0.994 -5.032 0.088 83.604
6614.042 0.089 83.572 0.994 -5.077 0.994 -5.077 0.089 83.572
6639 0.089 83.539 0.994 -5.122 0.994 -5.122 0.089 83.539
6663.958 0.09 83.506 0.994 -5.167 0.994 -5.167 0.09 83.506
6688.917 0.091 83.472 0.994 -5.211 0.994 -5.211 0.091 83.472
6713.875 0.092 83.439 0.994 -5.256 0.994 -5.256 0.092 83.439
6738.833 0.092 83.406 0.994 -5.3 0.994 -5.3 0.092 83.406
6763.792 0.093 83.372 0.994 -5.344 0.994 -5.344 0.093 83.372
6788.75 0.094 83.339 0.993 -5.388 0.993 -5.388 0.094 83.339
6813.708 0.095 83.305 0.993 -5.432 0.993 -5.432 0.095 83.305
6838.667 0.095 83.271 0.993 -5.476 0.993 -5.476 0.095 83.271
6863.625 0.096 83.237 0.993 -5.52 0.993 -5.52 0.096 83.237
6888.583 0.097 83.203 0.993 -5.564 0.993 -5.564 0.097 83.203
6913.542 0.098 83.169 0.993 -5.608 0.993 -5.608 0.098 83.169
6938.5 0.098 83.135 0.993 -5.651 0.993 -5.651 0.098 83.135
6963.458 0.099 83.101 0.993 -5.695 0.993 -5.695 0.099 83.101
6988.417 0.1 83.067 0.993 -5.738 0.993 -5.738 0.1 83.067
7013.375 0.101 83.033 0.993 -5.782 0.993 -5.782 0.101 83.033
7038.333 0.102 82.998 0.993 -5.825 0.993 -5.825 0.102 82.998
7063.292 0.102 82.964 0.993 -5.868 0.993 -5.868 0.102 82.964
7088.25 0.103 82.929 0.993 -5.911 0.993 -5.911 0.103 82.929
7113.208 0.104 82.895 0.993 -5.954 0.993 -5.954 0.104 82.895
7138.167 0.104 82.86 0.992 -5.997 0.992 -5.997 0.104 82.86
7163.125 0.105 82.825 0.992 -6.04 0.992 -6.04 0.105 82.825
7188.083 0.106 82.791 0.992 -6.083 0.992 -6.083 0.106 82.791
7213.042 0.107 82.756 0.992 -6.125 0.992 -6.125 0.107 82.756
7238 0.107 82.721 0.992 -6.168 0.992 -6.168 0.107 82.721
7262.958 0.108 82.686 0.992 -6.21 0.992 -6.21 0.108 82.686
7287.917 0.109 82.651 0.992 -6.253 0.992 -6.253 0.109 82.651
7312.875 0.11 82.617 0.992 -6.295 0.992 -6.295 0.11 82.617
7337.833 0.11 82.582 0.992 -6.337 0.992 -6.337 0.11 82.582
7362.792 0.111 82.547 0.992 -6.379 0.992 -6.379 0.111 82.547
7387.75 0.112 82.512 0.992 -6.422 0.992 -6.422 0.112 82.512
7412.708 0.113 82.477 0.992 -6.464 0.992 -6.464 0.113 82.477
7437.667 0.113 82.442 0.991 -6.506 0.991 -6.506 0.113 82.442
7462.625 0.114 82.406 0.991 -6.547 0.991 -6.547 0.114 82.406
7487.583 0.115 82.371 0.991 -6.589 0.991 -6.589 0.115 82.371
7512.542 0.115 82.336 0.991 -6.631 0.991 -6.631 0.115 82.336
7537.5 0.116 82.301 0.991 -6.673 0.991 -6.673 0.116 82.301
7562.458 0.117 82.266 0.991 -6.714 0.991 -6.714 0.117 82.266
7587.417 0.118 82.231 0.991 -6.756 0.991 -6.756 0.118 82.231
7612.375 0.118 82.196 0.991 -6.797 0.991 -6.797 0.118 82.196
7637.333 0.119 82.16 0.991 -6.838 0.991 -6.838 0.119 82.16
7662.292 0.12 82.125 0.991 -6.88 0.991 -6.88 0.12 82.125
7687.25 0.121 82.09 0.991 -6.921 0.991 -6.921 0.121 82.09
7712.208 0.121 82.055 0.991 -6.962 0.991 -6.962 0.121 82.055
7737.167 0.122 82.019 0.99 -7.003 0.99 -7.003 0.122 82.019
7762.125 0.123 81.984 0.99 -7.044 0.99 -7.044 0.123 81.984
7787.083 0.123 81.949 0.99 -7.085 0.99 -7.085 0.123 81.949
7812.042 0.124 81.914 0.99 -7.126 0.99 -7.126 0.124 81.914
7837 0.125 81.878 0.99 -7.167 0.99 -7.167 0.125 81.878
7861.958 0.125 81.843 0.99 -7.208 0.99 -7.208 0.125 81.843
7886.917 0.126 81.808 0.99 -7.248 0.99 -7.248 0.126 81.808
7911.875 0.127 81.772 0.99 -7.289 0.99 -7.289 0.127 81.772
7936.833 0.128 81.737 0.99 -7.33 0.99 -7.33 0.128 81.737
7961.792 0.128 81.702 0.99 -7.37 0.99 -7.37 0.128 81.702
7986.75 0.129 81.666 0.99 -7.41 0.99 -7.41 0.129 81.666
8011.708 0.13 81.631 0.989 -7.451 0.989 -7.451 0.13 81.631
8036.667 0.13 81.596 0.989 -7.491 0.989 -7.491 0.13 81.596
8061.625 0.131 81.56 0.989 -7.531 0.989 -7.531 0.131 81.56
8086.583 0.132 81.525 0.989 -7.572 0.989 -7.572 0.132 81.525
8111.542 0.132 81.49 0.989 -7.612 0.989 -7.612 0.132 81.49
8136.5 0.133 81.454 0.989 -7.652 0.989 -7.652 0.133 81.454
8161.458 0.134 81.419 0.989 -7.692 0.989 -7.692 0.134 81.419
8186.417 0.135 81.384 0.989 -7.732 0.989 -7.732 0.135 81.384
8211.375 0.135 81.349 0.989 -7.772 0.989 -7.772 0.135 81.349
8236.333 0.136 81.313 0.989 -7.811 0.989 -7.811 0.136 81.313
8261.292 0.137 81.278 0.989 -7.851 0.989 -7.851 0.137 81.278
