# MHZ S MA R 50

50 0.99 -8.224 0.143 81.76 0.143 81.76 0.99 -8.224
74.958 0.977 -12.227 0.212 77.749 0.212 77.749 0.977 -12.227
99.917 0.961 -16.115 0.278 73.853 0.278 73.853 0.961 -16.115
124.875 0.94 -19.859 0.34 70.101 0.34 70.101 0.94 -19.859
149.833 0.917 -23.438 0.398 66.514 0.398 66.514 0.917 -23.438
174.792 0.892 -26.837 0.451 63.108 0.451 63.108 0.892 -26.837
199.75 0.865 -30.047 0.501 59.889 0.501 59.889 0.865 -30.047
224.708 0.837 -33.066 0.546 56.862 0.546 56.862 0.837 -33.066
249.667 0.809 -35.896 0.586 54.024 0.586 54.024 0.809 -35.896
274.625 0.781 -38.542 0.623 51.37 0.623 51.37 0.781 -38.542
299.583 0.753 -41.012 0.656 48.892 0.656 48.892 0.753 -41.012
324.542 0.726 -43.314 0.686 46.582 0.686 46.582 0.726 -43.314
349.5 0.7 -45.459 0.713 44.429 0.713 44.429 0.7 -45.459
374.458 0.675 -47.457 0.737 42.423 0.737 42.423 0.675 -47.457
399.417 0.65 -49.319 0.758 40.553 0.758 40.553 0.65 -49.319
424.375 0.627 -51.054 0.778 38.809 0.778 38.809 0.627 -51.054
449.333 0.604 -52.674 0.795 37.181 0.795 37.181 0.604 -52.674
474.292 0.583 -54.186 0.811 35.661 0.811 35.661 0.583 -54.186
499.25 0.563 -55.6 0.825 34.238 0.825 34.238 0.563 -55.6
524.208 0.543 -56.924 0.838 32.906 0.838 32.906 0.543 -56.924
549.167 0.525 -58.164 0.85 31.658 0.85 31.658 0.525 -58.164
574.125 0.507 -59.328 0.86 30.485 0.86 30.485 0.507 -59.328
599.083 0.491 -60.422 0.87 29.383 0.87 29.383 0.491 -60.422
624.042 0.475 -61.451 0.878 28.346 0.878 28.346 0.475 -61.451
649 0.46 -62.42 0.886 27.368 0.886 27.368 0.46 -62.42
673.958 0.445 -63.334 0.894 26.445 0.894 26.445 0.445 -63.334
698.917 0.432 -64.198 0.9 25.572 0.9 25.572 0.432 -64.198
723.875 0.419 -65.015 0.906 24.747 0.906 24.747 0.419 -65.015
748.833 0.406 -65.789 0.912 23.964 0.912 23.964 0.406 -65.789
773.792 0.394 -66.522 0.917 23.222 0.917 23.222 0.394 -66.522
798.75 0.383 -67.219 0.922 22.516 0.922 22.516 0.383 -67.219
823.708 0.372 -67.88 0.926 21.846 0.926 21.846 0.372 -67.88
848.667 0.362 -68.51 0.93 21.207 0.93 21.207 0.362 -68.51
873.625 0.352 -69.11 0.934 20.598 0.934 20.598 0.352 -69.11
898.583 0.342 -69.682 0.938 20.016 0.938 20.016 0.342 -69.682
923.542 0.333 -70.228 0.941 19.461 0.941 19.461 0.333 -70.228
948.5 0.324 -70.75 0.944 18.93 0.944 18.93 0.324 -70.75
973.458 0.316 -71.249 0.947 18.421 0.947 18.421 0.316 -71.249
998.417 0.308 -71.727 0.95 17.934 0.95 17.934 0.308 -71.727
1023.375 0.3 -72.185 0.952 17.466 0.952 17.466 0.3 -72.185
1048.333 0.293 -72.624 0.954 17.018 0.954 17.018 0.293 -72.624
1073.292 0.285 -73.045 0.957 16.586 0.957 16.586 0.285 -73.045
1098.25 0.279 -73.45 0.959 16.171 0.959 16.171 0.279 -73.45
1123.208 0.272 -73.839 0.961 15.772 0.961 15.772 0.272 -73.839
1148.167 0.265 -74.214 0.962 15.387 0.962 15.387 0.265 -74.214
1173.125 0.259 -74.575 0.964 15.016 0.964 15.016 0.259 -74.575
1198.083 0.253 -74.922 0.966 14.658 0.966 14.658 0.253 -74.922
1223.042 0.247 -75.257 0.967 14.312 0.967 14.312 0.247 -75.257
1248 0.242 -75.581 0.969 13.978 0.969 13.978 0.242 -75.581
1272.958 0.236 -75.893 0.97 13.655 0.97 13.655 0.236 -75.893
1297.917 0.231 -76.195 0.971 13.342 0.971 13.342 0.231 -76.195
1322.875 0.226 -76.487 0.972 13.039 0.972 13.039 0.226 -76.487
1347.833 0.221 -76.769 0.973 12.746 0.973 12.746 0.221 -76.769
1372.792 0.216 -77.042 0.975 12.461 0.975 12.461 0.216 -77.042
1397.75 0.211 -77.306 0.976 12.185 0.976 12.185 0.211 -77.306
1422.708 0.207 -77.562 0.977 11.917 0.977 11.917 0.207 -77.562
1447.667 0.202 -77.811 0.977 11.657 0.977 11.657 0.202 -77.811
1472.625 0.198 -78.051 0.978 11.404 0.978 11.404 0.198 -78.051
1497.583 0.194 -78.285 0.979 11.158 0.979 11.158 0.194 -78.285
1522.542 0.189 -78.512 0.98 10.919 0.98 10.919 0.189 -78.512
1547.5 0.185 -78.732 0.981 10.686 0.981 10.686 0.185 -78.732
1572.458 0.182 -78.946 0.981 10.459 0.981 10.459 0.182 -78.946
1597.417 0.178 -79.154 0.982 10.238 0.982 10.238 0.178 -79.154
1622.375 0.174 -79.356 0.983 10.023 0.983 10.023 0.174 -79.356
1647.333 0.17 -79.553 0.983 9.812 0.983 9.812 0.17 -79.553
1672.292 0.167 -79.744 0.984 9.607 0.984 9.607 0.167 -79.744
1697.25 0.163 -79.93 0.985 9.407 0.985 9.407 0.163 -79.93
1722.208 0.16 -80.111 0.985 9.212 0.985 9.212 0.16 -80.111
1747.167 0.157 -80.288 0.986 9.021 0.986 9.021 0.157 -80.288
1772.125 0.154 -80.46 0.986 8.834 0.986 8.834 0.154 -80.46
1797.083 0.15 -80.627 0.987 8.651 0.987 8.651 0.15 -80.627
1822.042 0.147 -80.79 0.987 8.473 0.987 8.473 0.147 -80.79
1847 0.144 -80.949 0.988 8.298 0.988 8.298 0.144 -80.949
1871.958 0.141 -81.104 0.988 8.127 0.988 8.127 0.141 -81.104
1896.917 0.138 -81.255 0.988 7.959 0.988 7.959 0.138 -81.255
1921.875 0.136 -81.403 0.989 7.795 0.989 7.795 0.136 -81.403
1946.833 0.133 -81.547 0.989 7.634 0.989 7.634 0.133 -81.547
1971.792 0.13 -81.687 0.99 7.477 0.99 7.477 0.13 -81.687
1996.75 0.127 -81.824 0.99 7.322 0.99 7.322 0.127 -81.824
2021.708 0.125 -81.957 0.99 7.17 0.99 7.17 0.125 -81.957
2046.667 0.122 -82.087 0.991 7.021 0.991 7.021 0.122 -82.087
2071.625 0.12 -82.214 0.991 6.875 0.991 6.875 0.12 -82.214
2096.583 0.117 -82.338 0.991 6.732 0.991 6.732 0.117 -82.338
2121.542 0.115 -82.459 0.991 6.591 0.991 6.591 0.115 -82.459
2146.5 0.112 -82.577 0.992 6.452 0.992 6.452 0.112 -82.577
2171.458 0.11 -82.692 0.992 6.316 0.992 6.316 0.11 -82.692
2196.417 0.108 -82.804 0.992 6.182 0.992 6.182 0.108 -82.804
2221.375 0.105 -82.913 0.993 6.051 0.993 6.051 0.105 -82.913
2246.333 0.103 -83.02 0.993 5.922 0.993 5.922 0.103 -83.02
2271.292 0.101 -83.124 0.993 5.794 0.993 5.794 0.101 -83.124
2296.25 0.099 -83.225 0.993 5.669 0.993 5.669 0.099 -83.225
2321.208 0.097 -83.324 0.993 5.546 0.993 5.546 0.097 -83.324
2346.167 0.095 -83.419 0.994 5.424 0.994 5.424 0.095 -83.419
2371.125 0.092 -83.513 0.994 5.305 0.994 5.305 0.092 -83.513
2396.083 0.09 -83.604 0.994 5.187 0.994 5.187 0.09 -83.604
2421.042 0.088 -83.692 0.994 5.071 0.994 5.071 0.088 -83.692
2446 0.086 -83.777 0.994 4.957 0.994 4.957 0.086 -83.777
2470.958 0.084 -83.861 0.995 4.844 0.995 4.844 0.084 -83.861
2495.917 0.083 -83.941 0.995 4.733 0.995 4.733 0.083 -83.941
2520.875 0.081 -84.019 0.995 4.623 0.995 4.623 0.081 -84.019
2545.833 0.079 -84.095 0.995 4.515 0.995 4.515 0.079 -84.095
2570.792 0.077 -84.168 0.995 4.408 0.995 4.408 0.077 -84.168
2595.75 0.075 -84.238 0.995 4.303 0.995 4.303 0.075 -84.238
2620.708 0.073 -84.305 0.995 4.199 0.995 4.199 0.073 -84.305
2645.667 0.071 -84.37 0.996 4.097 0.996 4.097 0.071 -84.37
2670.625 0.07 -84.433 0.996 3.996 0.996 3.996 0.07 -84.433
2695.583 0.068 -84.492 0.996 3.896 0.996 3.896 0.068 -84.492
2720.542 0.066 -84.549 0.996 3.797 0.996 3.797 0.066 -84.549
2745.5 0.065 -84.603 0.996 3.699 0.996 3.699 0.065 -84.603
2770.458 0.063 -84.654 0.996 3.603 0.996 3.603 0.063 -84.654
2795.417 0.061 -84.701 0.996 3.508 0.996 3.508 0.061 -84.701
2820.375 0.06 -84.746 0.996 3.414 0.996 3.414 0.06 -84.746
2845.333 0.058 -84.787 0.996 3.321 0.996 3.321 0.058 -84.787
2870.292 0.056 -84.826 0.996 3.229 0.996 3.229 0.056 -84.826
2895.25 0.055 -84.86 0.997 3.138 0.997 3.138 0.055 -84.86
2920.208 0.053 -84.891 0.997 3.048 0.997 3.048 0.053 -84.891
2945.167 0.052 -84.918 0.997 2.959 0.997 2.959 0.052 -84.918
2970.125 0.05 -84.941 0.997 2.871 0.997 2.871 0.05 -84.941
2995.083 0.049 -84.959 0.997 2.783 0.997 2.783 0.049 -84.959
3020.042 0.047 -84.973 0.997 2.697 0.997 2.697 0.047 -84.973
3045 0.046 -84.982 0.997 2.612 0.997 2.612 0.046 -84.982
3069.958 0.044 -84.986 0.997 2.527 0.997 2.527 0.044 -84.986
3094.917 0.043 -84.985 0.997 2.444 0.997 2.444 0.043 -84.985
3119.875 0.041 -84.978 0.997 2.361 0.997 2.361 0.041 -84.978
3144.833 0.04 -84.964 0.997 2.279 0.997 2.279 0.04 -84.964
3169.792 0.038 -84.943 0.997 2.198 0.997 2.198 0.038 -84.943
3194.75 0.037 -84.915 0.997 2.117 0.997 2.117 0.037 -84.915
3219.708 0.036 -84.879 0.997 2.037 0.997 2.037 0.036 -84.879
3244.667 0.034 -84.834 0.998 1.958 0.998 1.958 0.034 -84.834
3269.625 0.033 -84.779 0.998 1.88 0.998 1.88 0.033 -84.779
3294.583 0.032 -84.713 0.998 1.803 0.998 1.803 0.032 -84.713
3319.542 0.03 -84.634 0.998 1.726 0.998 1.726 0.03 -84.634
3344.5 0.029 -84.543 0.998 1.649 0.998 1.649 0.029 -84.543
3369.458 0.028 -84.436 0.998 1.574 0.998 1.574 0.028 -84.436
3394.417 0.026 -84.312 0.998 1.499 0.998 1.499 0.026 -84.312
3419.375 0.025 -84.168 0.998 1.424 0.998 1.424 0.025 -84.168
3444.333 0.024 -84.003 0.998 1.351 0.998 1.351 0.024 -84.003
3469.292 0.022 -83.811 0.998 1.278 0.998 1.278 0.022 -83.811
3494.25 0.021 -83.589 0.998 1.205 0.998 1.205 0.021 -83.589
3519.208 0.02 -83.333 0.998 1.133 0.998 1.133 0.02 -83.333
3544.167 0.019 -83.034 0.998 1.062 0.998 1.062 0.019 -83.034
3569.125 0.017 -82.686 0.998 0.991 0.998 0.991 0.017 -82.686
3594.083 0.016 -82.278 0.998 0.921 0.998 0.921 0.016 -82.278
3619.042 0.015 -81.795 0.998 0.851 0.998 0.851 0.015 -81.795
3644 0.014 -81.221 0.998 0.782 0.998 0.782 0.014 -81.221
3668.958 0.013 -80.53 0.998 0.713 0.998 0.713 0.013 -80.53
3693.917 0.011 -79.687 0.998 0.644 0.998 0.644 0.011 -79.687
3718.875 0.01 -78.644 0.998 0.577 0.998 0.577 0.01 -78.644
3743.833 9.095e-3 -77.327 0.998 0.509 0.998 0.509 9.095e-3 -77.327
3768.792 7.959e-3 -75.624 0.998 0.443 0.998 0.443 7.959e-3 -75.624
3793.75 6.84e-3 -73.353 0.998 0.376 0.998 0.376 6.84e-3 -73.353
3818.708 5.745e-3 -70.202 0.998 0.31 0.998 0.31 5.745e-3 -70.202
3843.667 4.683e-3 -65.598 0.998 0.245 0.998 0.245 4.683e-3 -65.598
3868.625 3.677e-3 -58.404 0.998 0.18 0.998 0.18 3.677e-3 -58.404
3893.583 2.777e-3 -46.248 0.998 0.115 0.998 0.115 2.777e-3 -46.248
3918.542 2.113e-3 -24.843 0.998 0.051 0.998 0.051 2.113e-3 -24.843
3943.5 1.93e-3 6.654 0.998 -0.013 0.998 -0.013 1.93e-3 6.654
3968.458 2.333e-3 34.691 0.998 -0.076 0.998 -0.076 2.333e-3 34.691
3993.417 3.095e-3 51.597 0.998 -0.139 0.998 -0.139 3.095e-3 51.597
4018.375 4.01e-3 61.249 0.998 -0.202 0.998 -0.202 4.01e-3 61.249
4043.333 4.991e-3 67.156 0.998 -0.264 0.998 -0.264 4.991e-3 67.156
4068.292 6.002e-3 71.054 0.998 -0.326 0.998 -0.326 6.002e-3 71.054
4093.25 7.028e-3 73.788 0.998 -0.387 0.998 -0.387 7.028e-3 73.788
4118.208 8.059e-3 75.795 0.998 -0.449 0.998 -0.449 8.059e-3 75.795
4143.167 9.093e-3 77.324 0.998 -0.509 0.998 -0.509 9.093e-3 77.324
4168.125 0.01 78.521 0.998 -0.57 0.998 -0.57 0.01 78.521
4193.083 0.011 79.48 0.998 -0.63 0.998 -0.63 0.011 79.48
4218.042 0.012 80.263 0.998 -0.69 0.998 -0.69 0.012 80.263
4243 0.013 80.911 0.998 -0.749 0.998 -0.749 0.013 80.911
4267.958 0.014 81.454 0.998 -0.808 0.998 -0.808 0.014 81.454
4292.917 0.015 81.914 0.998 -0.867 0.998 -0.867 0.015 81.914
4317.875 0.016 82.308 0.998 -0.925 0.998 -0.925 0.016 82.308
4342.833 0.017 82.646 0.998 -0.983 0.998 -0.983 0.017 82.646
4367.792 0.018 82.94 0.998 -1.041 0.998 -1.041 0.018 82.94
4392.75 0.019 83.195 0.998 -1.099 0.998 -1.099 0.019 83.195
4417.708 0.02 83.419 0.998 -1.156 0.998 -1.156 0.02 83.419
4442.667 0.021 83.615 0.998 -1.213 0.998 -1.213 0.021 83.615
4467.625 0.022 83.789 0.998 -1.27 0.998 -1.27 0.022 83.789
4492.583 0.023 83.941 0.998 -1.326 0.998 -1.326 0.023 83.941
4517.542 0.024 84.077 0.998 -1.382 0.998 -1.382 0.024 84.077
4542.5 0.025 84.197 0.998 -1.438 0.998 -1.438 0.025 84.197
4567.458 0.026 84.303 0.998 -1.494 0.998 -1.494 0.026 84.303
4592.417 0.027 84.397 0.998 -1.549 0.998 -1.549 0.027 84.397
4617.375 0.028 84.481 0.998 -1.604 0.998 -1.604 0.028 84.481
4642.333 0.029 84.555 0.998 -1.659 0.998 -1.659 0.029 84.555
4667.292 0.03 84.621 0.998 -1.714 0.998 -1.714 0.03 84.621
4692.25 0.031 84.679 0.998 -1.768 0.998 -1.768 0.031 84.679
4717.208 0.032 84.73 0.998 -1.822 0.998 -1.822 0.032 84.73
4742.167 0.033 84.775 0.998 -1.876 0.998 -1.876 0.033 84.775
4767.125 0.034 84.815 0.998 -1.93 0.998 -1.93 0.034 84.815
4792.083 0.035 84.849 0.997 -1.983 0.997 -1.983 0.035 84.849
4817.042 0.036 84.878 0.997 -2.036 0.997 -2.036 0.036 84.878
4842 0.037 84.903 0.997 -2.089 0.997 -2.089 0.037 84.903
4866.958 0.037 84.925 0.997 -2.142 0.997 -2.142 0.037 84.925
4891.917 0.038 84.942 0.997 -2.194 0.997 -2.194 0.038 84.942
4916.875 0.039 84.957 0.997 -2.247 0.997 -2.247 0.039 84.957
4941.833 0.04 84.968 0.997 -2.299 0.997 -2.299 0.04 84.968
4966.792 0.041 84.976 0.997 -2.35 0.997 -2.35 0.041 84.976
4991.75 0.042 84.982 0.997 -2.402 0.997 -2.402 0.042 84.982
5016.708 0.043 84.985 0.997 -2.454 0.997 -2.454 0.043 84.985
5041.667 0.044 84.987 0.997 -2.505 0.997 -2.505 0.044 84.987
5066.625 0.045 84.986 0.997 -2.556 0.997 -2.556 0.045 84.986
5091.583 0.046 84.983 0.997 -2.607 0.997 -2.607 0.046 84.983
5116.542 0.046 84.978 0.997 -2.657 0.997 -2.657 0.046 84.978
5141.5 0.047 84.972 0.997 -2.708 0.997 -2.708 0.047 84.972
5166.458 0.048 84.964 0.997 -2.758 0.997 -2.758 0.048 84.964
5191.417 0.049 84.954 0.997 -2.808 0.997 -2.808 0.049 84.954
5216.375 0.05 84.943 0.997 -2.858 0.997 -2.858 0.05 84.943
5241.333 0.051 84.931 0.997 -2.908 0.997 -2.908 0.051 84.931
5266.292 0.052 84.918 0.997 -2.958 0.997 -2.958 0.052 84.918
5291.25 0.052 84.904 0.997 -3.007 0.997 -3.007 0.052 84.904
5316.208 0.053 84.888 0.997 -3.056 0.997 -3.056 0.053 84.888
5341.167 0.054 84.871 0.997 -3.106 0.997 -3.106 0.054 84.871
5366.125 0.055 84.854 0.997 -3.154 0.997 -3.154 0.055 84.854
5391.083 0.056 84.835 0.997 -3.203 0.997 -3.203 0.056 84.835
5416.042 0.057 84.816 0.996 -3.252 0.996 -3.252 0.057 84.816
5441 0.058 84.796 0.996 -3.3 0.996 -3.3 0.058 84.796
5465.958 0.058 84.775 0.996 -3.348 0.996 -3.348 0.058 84.775
5490.917 0.059 84.754 0.996 -3.397 0.996 -3.397 0.059 84.754
5515.875 0.06 84.732 0.996 -3.445 0.996 -3.445 0.06 84.732
5540.833 0.061 84.709 0.996 -3.492 0.996 -3.492 0.061 84.709
5565.792 0.062 84.686 0.996 -3.54 0.996 -3.54 0.062 84.686
5590.75 0.063 84.662 0.996 -3.588 0.996 -3.588 0.063 84.662
5615.708 0.063 84.637 0.996 -3.635 0.996 -3.635 0.063 84.637
5640.667 0.064 84.612 0.996 -3.682 0.996 -3.682 0.064 84.612
5665.625 0.065 84.587 0.996 -3.729 0.996 -3.729 0.065 84.587
5690.583 0.066 84.561 0.996 -3.776 0.996 -3.776 0.066 84.561
5715.542 0.067 84.534 0.996 -3.823 0.996 -3.823 0.067 84.534
5740.5 0.068 84.507 0.996 -3.87 0.996 -3.87 0.068 84.507
5765.458 0.068 84.48 0.996 -3.916 0.996 -3.916 0.068 84.48
5790.417 0.069 84.453 0.996 -3.963 0.996 -3.963 0.069 84.453
5815.375 0.07 84.425 0.996 -4.009 0.996 -4.009 0.07 84.425
5840.333 0.071 84.396 0.996 -4.055 0.996 -4.055 0.071 84.396
5865.292 0.072 84.368 0.996 -4.101 0.996 -4.101 0.072 84.368
5890.25 0.072 84.339 0.995 -4.147 0.995 -4.147 0.072 84.339
5915.208 0.073 84.31 0.995 -4.193 0.995 -4.193 0.073 84.31
5940.167 0.074 84.28 0.995 -4.238 0.995 -4.238 0.074 84.28
5965.125 0.075 84.25 0.995 -4.284 0.995 -4.284 0.075 84.25
5990.083 0.076 84.221 0.995 -4.329 0.995 -4.329 0.076 84.221
6015.042 0.076 84.19 0.995 -4.375 0.995 -4.375 0.076 84.19
6040 0.077 84.16 0.995 -4.42 0.995 -4.42 0.077 84.16
6064.958 0.078 84.129 0.995 -4.465 0.995 -4.465 0.078 84.129
6089.917 0.079 84.098 0.995 -4.51 0.995 -4.51 0.079 84.098
6114.875 0.079 84.067 0.995 -4.555 0.995 -4.555 0.079 84.067
6139.833 0.08 84.036 0.995 -4.599 0.995 -4.599 0.08 84.036
6164.792 0.081 84.005 0.995 -4.644 0.995 -4.644 0.081 84.005
6189.75 0.082 83.973 0.995 -4.688 0.995 -4.688 0.082 83.973
6214.708 0.083 83.941 0.995 -4.733 0.995 -4.733 0.083 83.941
6239.667 0.083 83.909 0.995 -4.777 0.995 -4.777 0.083 83.909
6264.625 0.084 83.877 0.995 -4.821 0.995 -4.821 0.084 83.877
6289.583 0.085 83.845 0.994 -4.865 0.994 -4.865 0.085 83.845
6314.542 0.086 83.813 0.994 -4.909 0.994 -4.909 0.086 83.813
6339.5 0.086 83.78 0.994 -4.953 0.994 -4.953 0.086 83.78
6364.458 0.087 83.748 0.994 -4.997 0.994 -4.997 0.087 83.748
6389.417 0.088 83.715 0.994 -5.04 0.994 -5.04 0.088 83.715
6414.375 0.089 83.682 0.994 -5.084 0.994 -5.084 0.089 83.682
6439.333 0.089 83.649 0.994 -5.127 0.994 -5.127 0.089 83.649
6464.292 0.09 83.616 0.994 -5.171 0.994 -5.171 0.09 83.616
6489.25 0.091 83.583 0.994 -5.214 0.994 -5.214 0.091 83.583
6514.208 0.092 83.55 0.994 -5.257 0.994 -5.257 0.092 83.55
6539.167 0.092 83.516 0.994 -5.3 0.994 -5.3 0.092 83.516
6564.125 0.093 83.483 0.994 -5.343 0.994 -5.343 0.093 83.483
6589.083 0.094 83.449 0.994 -5.386 0.994 -5.386 0.094 83.449
6614.042 0.095 83.416 0.994 -5.429 0.994 -5.429 0.095 83.416
6639 0.095 83.382 0.994 -5.471 0.994 -5.471 0.095 83.382
6663.958 0.096 83.349 0.993 -5.514 0.993 -5.514 0.096 83.349
6688.917 0.097 83.315 0.993 -5.557 0.993 -5.557 0.097 83.315
6713.875 0.098 83.281 0.993 -5.599 0.993 -5.599 0.098 83.281
6738.833 0.098 83.247 0.993 -5.641 0.993 -5.641 0.098 83.247
6763.792 0.099 83.213 0.993 -5.684 0.993 -5.684 0.099 83.213
6788.75 0.1 83.179 0.993 -5.726 0.993 -5.726 0.1 83.179
6813.708 0.101 83.145 0.993 -5.768 0.993 -5.768 0.101 83.145
6838.667 0.101 83.111 0.993 -5.81 0.993 -5.81 0.101 83.111
6863.625 0.102 83.077 0.993 -5.852 0.993 -5.852 0.102 83.077
6888.583 0.103 83.043 0.993 -5.894 0.993 -5.894 0.103 83.043
6913.542 0.103 83.009 0.993 -5.935 0.993 -5.935 0.103 83.009
6938.5 0.104 82.974 0.993 -5.977 0.993 -5.977 0.104 82.974
6963.458 0.105 82.94 0.993 -6.019 0.993 -6.019 0.105 82.94
6988.417 0.106 82.906 0.993 -6.06 0.993 -6.06 0.106 82.906
7013.375 0.106 82.871 0.992 -6.102 0.992 -6.102 0.106 82.871
7038.333 0.107 82.837 0.992 -6.143 0.992 -6.143 0.107 82.837
7063.292 0.108 82.802 0.992 -6.184 0.992 -6.184 0.108 82.802
7088.25 0.108 82.768 0.992 -6.225 0.992 -6.225 0.108 82.768
7113.208 0.109 82.734 0.992 -6.267 0.992 -6.267 0.109 82.734
7138.167 0.11 82.699 0.992 -6.308 0.992 -6.308 0.11 82.699
7163.125 0.111 82.664 0.992 -6.349 0.992 -6.349 0.111 82.664
7188.083 0.111 82.63 0.992 -6.39 0.992 -6.39 0.111 82.63
7213.042 0.112 82.595 0.992 -6.43 0.992 -6.43 0.112 82.595
7238 0.113 82.561 0.992 -6.471 0.992 -6.471 0.113 82.561
7262.958 0.113 82.526 0.992 -6.512 0.992 -6.512 0.113 82.526
7287.917 0.114 82.492 0.992 -6.553 0.992 -6.553 0.114 82.492
7312.875 0.115 82.457 0.991 -6.593 0.991 -6.593 0.115 82.457
7337.833 0.116 82.422 0.991 -6.634 0.991 -6.634 0.116 82.422
7362.792 0.116 82.388 0.991 -6.674 0.991 -6.674 0.116 82.388
7387.75 0.117 82.353 0.991 -6.714 0.991 -6.714 0.117 82.353
7412.708 0.118 82.318 0.991 -6.755 0.991 -6.755 0.118 82.318
7437.667 0.118 82.284 0.991 -6.795 0.991 -6.795 0.118 82.284
7462.625 0.119 82.249 0.991 -6.835 0.991 -6.835 0.119 82.249
7487.583 0.12 82.214 0.991 -6.875 0.991 -6.875 0.12 82.214
7512.542 0.12 82.18 0.991 -6.915 0.991 -6.915 0.12 82.18
7537.5 0.121 82.145 0.991 -6.955 0.991 -6.955 0.121 82.145
7562.458 0.122 82.11 0.991 -6.995 0.991 -6.995 0.122 82.11
7587.417 0.122 82.075 0.991 -7.035 0.991 -7.035 0.122 82.075
7612.375 0.123 82.041 0.99 -7.075 0.99 -7.075 0.123 82.041
7637.333 0.124 82.006 0.99 -7.114 0.99 -7.114 0.124 82.006
7662.292 0.125 81.971 0.99 -7.154 0.99 -7.154 0.125 81.971
7687.25 0.125 81.936 0.99 -7.194 0.99 -7.194 0.125 81.936
7712.208 0.126 81.902 0.99 -7.233 0.99 -7.233 0.126 81.902
7737.167 0.127 81.867 0.99 -7.273 0.99 -7.273 0.127 81.867
7762.125 0.127 81.832 0.99 -7.312 0.99 -7.312 0.127 81.832
7787.083 0.128 81.798 0.99 -7.351 0.99 -7.351 0.128 81.798
7812.042 0.129 81.763 0.99 -7.391 0.99 -7.391 0.129 81.763
7837 0.129 81.728 0.99 -7.43 0.99 -7.43 0.129 81.728
7861.958 0.13 81.693 0.99 -7.469 0.99 -7.469 0.13 81.693
7886.917 0.131 81.659 0.99 -7.508 0.99 -7.508 0.131 81.659
7911.875 0.131 81.624 0.989 -7.547 0.989 -7.547 0.131 81.624
7936.833 0.132 81.589 0.989 -7.586 0.989 -7.586 0.132 81.589
7961.792 0.133 81.555 0.989 -7.625 0.989 -7.625 0.133 81.555
7986.75 0.133 81.52 0.989 -7.664 0.989 -7.664 0.133 81.52
8011.708 0.134 81.485 0.989 -7.703 0.989 -7.703 0.134 81.485
8036.667 0.135 81.451 0.989 -7.742 0.989 -7.742 0.135 81.451
8061.625 0.135 81.416 0.989 -7.781 0.989 -7.781 0.135 81.416
8086.583 0.136 81.381 0.989 -7.819 0.989 -7.819 0.136 81.381
8111.542 0.137 81.347 0.989 -7.858 0.989 -7.858 0.137 81.347
8136.5 0.137 81.312 0.989 -7.896 0.989 -7.896 0.137 81.312
8161.458 0.138 81.277 0.989 -7.935 0.989 -7.935 0.138 81.277
8186.417 0.139 81.243 0.988 -7.973 0.988 -7.973 0.139 81.243
8211.375 0.139 81.208 0.988 -8.012 0.988 -8.012 0.139 81.208
8236.333 0.14 81.173 0.988 -8.05 0.988 -8.05 0.14 81.173
8261.292 0.141 81.139 0.988 -8.089 0.988 -8.089 0.141 81.139
