# MHZ S MA R 50

50 0.915 -23.751 0.403 66.237 0.403 66.237 0.915 -23.751
74.958 0.834 -33.426 0.551 56.555 0.551 56.555 0.834 -33.426
99.917 0.75 -41.364 0.661 48.611 0.661 48.611 0.75 -41.364
124.875 0.672 -47.767 0.74 42.202 0.74 42.202 0.672 -47.767
149.833 0.602 -52.924 0.798 37.039 0.798 37.039 0.602 -52.924
174.792 0.542 -57.106 0.84 32.851 0.84 32.851 0.542 -57.106
199.75 0.491 -60.533 0.871 29.417 0.871 29.417 0.491 -60.533
224.708 0.447 -63.376 0.894 26.568 0.894 26.568 0.447 -63.376
249.667 0.41 -65.763 0.912 24.175 0.912 24.175 0.41 -65.763
274.625 0.377 -67.789 0.926 22.142 0.926 22.142 0.377 -67.789
299.583 0.349 -69.529 0.937 20.396 0.937 20.396 0.349 -69.529
324.542 0.324 -71.036 0.946 18.882 0.946 18.882 0.324 -71.036
349.5 0.302 -72.354 0.953 17.557 0.953 17.557 0.302 -72.354
374.458 0.282 -73.516 0.959 16.389 0.959 16.389 0.282 -73.516
399.417 0.265 -74.547 0.964 15.351 0.964 15.351 0.265 -74.547
424.375 0.249 -75.469 0.968 14.422 0.968 14.422 0.249 -75.469
449.333 0.235 -76.297 0.972 13.586 0.972 13.586 0.235 -76.297
474.292 0.222 -77.047 0.975 12.83 0.975 12.83 0.222 -77.047
499.25 0.21 -77.728 0.977 12.142 0.977 12.142 0.21 -77.728
524.208 0.2 -78.349 0.979 11.513 0.979 11.513 0.2 -78.349
549.167 0.19 -78.919 0.981 10.936 0.981 10.936 0.19 -78.919
574.125 0.181 -79.444 0.983 10.404 0.983 10.404 0.181 -79.444
599.083 0.172 -79.928 0.985 9.911 0.985 9.911 0.172 -79.928
624.042 0.164 -80.377 0.986 9.454 0.986 9.454 0.164 -80.377
649 0.157 -80.795 0.987 9.029 0.987 9.029 0.157 -80.795
673.958 0.15 -81.184 0.988 8.631 0.988 8.631 0.15 -81.184
698.917 0.144 -81.548 0.989 8.259 0.989 8.259 0.144 -81.548
723.875 0.138 -81.889 0.99 7.909 0.99 7.909 0.138 -81.889
748.833 0.132 -82.209 0.991 7.58 0.991 7.58 0.132 -82.209
773.792 0.127 -82.511 0.991 7.269 0.991 7.269 0.127 -82.511
798.75 0.121 -82.796 0.992 6.975 0.992 6.975 0.121 -82.796
823.708 0.117 -83.065 0.993 6.696 0.993 6.696 0.117 -83.065
848.667 0.112 -83.319 0.993 6.432 0.993 6.432 0.112 -83.319
873.625 0.108 -83.561 0.994 6.18 0.994 6.18 0.108 -83.561
898.583 0.103 -83.79 0.994 5.94 0.994 5.94 0.103 -83.79
923.542 0.1 -84.008 0.995 5.711 0.995 5.711 0.1 -84.008
948.5 0.096 -84.216 0.995 5.492 0.995 5.492 0.096 -84.216
973.458 0.092 -84.414 0.995 5.282 0.995 5.282 0.092 -84.414
998.417 0.089 -84.603 0.996 5.081 0.996 5.081 0.089 -84.603
1023.375 0.085 -84.784 0.996 4.888 0.996 4.888 0.085 -84.784
1048.333 0.082 -84.957 0.996 4.702 0.996 4.702 0.082 -84.957
1073.292 0.079 -85.122 0.996 4.523 0.996 4.523 0.079 -85.122
1098.25 0.076 -85.28 0.997 4.351 0.997 4.351 0.076 -85.28
1123.208 0.073 -85.432 0.997 4.184 0.997 4.184 0.073 -85.432
1148.167 0.07 -85.578 0.997 4.023 0.997 4.023 0.07 -85.578
1173.125 0.067 -85.717 0.997 3.868 0.997 3.868 0.067 -85.717
1198.083 0.065 -85.851 0.997 3.717 0.997 3.717 0.065 -85.851
1223.042 0.062 -85.979 0.998 3.571 0.998 3.571 0.062 -85.979
1248 0.06 -86.102 0.998 3.43 0.998 3.43 0.06 -86.102
1272.958 0.057 -86.22 0.998 3.292 0.998 3.292 0.057 -86.22
1297.917 0.055 -86.333 0.998 3.159 0.998 3.159 0.055 -86.333
1322.875 0.053 -86.441 0.998 3.029 0.998 3.029 0.053 -86.441
1347.833 0.051 -86.544 0.998 2.902 0.998 2.902 0.051 -86.544
1372.792 0.048 -86.643 0.998 2.779 0.998 2.779 0.048 -86.643
1397.75 0.046 -86.737 0.998 2.659 0.998 2.659 0.046 -86.737
1422.708 0.044 -86.826 0.999 2.542 0.999 2.542 0.044 -86.826
1447.667 0.042 -86.91 0.999 2.428 0.999 2.428 0.042 -86.91
1472.625 0.04 -86.99 0.999 2.316 0.999 2.316 0.04 -86.99
1497.583 0.039 -87.065 0.999 2.207 0.999 2.207 0.039 -87.065
1522.542 0.037 -87.135 0.999 2.1 0.999 2.1 0.037 -87.135
1547.5 0.035 -87.199 0.999 1.996 0.999 1.996 0.035 -87.199
1572.458 0.033 -87.258 0.999 1.893 0.999 1.893 0.033 -87.258
1597.417 0.031 -87.31 0.999 1.793 0.999 1.793 0.031 -87.31
1622.375 0.03 -87.357 0.999 1.695 0.999 1.695 0.03 -87.357
1647.333 0.028 -87.396 0.999 1.598 0.999 1.598 0.028 -87.396
1672.292 0.026 -87.427 0.999 1.504 0.999 1.504 0.026 -87.427
1697.25 0.025 -87.45 0.999 1.411 0.999 1.411 0.025 -87.45
1722.208 0.023 -87.462 0.999 1.32 0.999 1.32 0.023 -87.462
1747.167 0.021 -87.463 0.999 1.23 0.999 1.23 0.021 -87.463
1772.125 0.02 -87.45 0.999 1.142 0.999 1.142 0.02 -87.45
1797.083 0.018 -87.421 0.999 1.055 0.999 1.055 0.018 -87.421
1822.042 0.017 -87.373 0.999 0.97 0.999 0.97 0.017 -87.373
1847 0.015 -87.3 0.999 0.886 0.999 0.886 0.015 -87.3
1871.958 0.014 -87.196 0.999 0.804 0.999 0.804 0.014 -87.196
1896.917 0.013 -87.052 0.999 0.722 0.999 0.722 0.013 -87.052
1921.875 0.011 -86.855 0.999 0.642 0.999 0.642 0.011 -86.855
1946.833 9.837e-3 -86.583 0.999 0.563 0.999 0.563 9.837e-3 -86.583
1971.792 8.478e-3 -86.203 0.999 0.485 0.999 0.485 8.478e-3 -86.203
1996.75 7.138e-3 -85.657 0.999 0.408 0.999 0.408 7.138e-3 -85.657
2021.708 5.817e-3 -84.837 0.999 0.332 0.999 0.332 5.817e-3 -84.837
2046.667 4.515e-3 -83.515 1 0.257 1 0.257 4.515e-3 -83.515
2071.625 3.235e-3 -81.107 1 0.183 1 0.183 3.235e-3 -81.107
2096.583 1.984e-3 -75.594 1 0.11 1 0.11 1.984e-3 -75.594
2121.542 824e-6 -53.486 1 0.038 1 0.038 824e-6 -53.486
2146.5 761e-6 49.9 1 -0.033 1 -0.033 761e-6 49.9
2171.458 1.878e-3 74.777 1 -0.104 1 -0.104 1.878e-3 74.777
2196.417 3.069e-3 80.643 1 -0.174 1 -0.174 3.069e-3 80.643
2221.375 4.262e-3 83.157 1 -0.243 1 -0.243 4.262e-3 83.157
2246.333 5.446e-3 84.529 0.999 -0.311 0.999 -0.311 5.446e-3 84.529
2271.292 6.62e-3 85.378 0.999 -0.378 0.999 -0.378 6.62e-3 85.378
2296.25 7.784e-3 85.947 0.999 -0.445 0.999 -0.445 7.784e-3 85.947
2321.208 8.936e-3 86.346 0.999 -0.511 0.999 -0.511 8.936e-3 86.346
2346.167 0.01 86.637 0.999 -0.577 0.999 -0.577 0.01 86.637
2371.125 0.011 86.854 0.999 -0.642 0.999 -0.642 0.011 86.854
2396.083 0.012 87.017 0.999 -0.706 0.999 -0.706 0.012 87.017
2421.042 0.013 87.142 0.999 -0.769 0.999 -0.769 0.013 87.142
2446 0.015 87.237 0.999 -0.833 0.999 -0.833 0.015 87.237
2470.958 0.016 87.309 0.999 -0.895 0.999 -0.895 0.016 87.309
2495.917 0.017 87.363 0.999 -0.957 0.999 -0.957 0.017 87.363
2520.875 0.018 87.403 0.999 -1.019 0.999 -1.019 0.018 87.403
2545.833 0.019 87.431 0.999 -1.079 0.999 -1.079 0.019 87.431
2570.792 0.02 87.45 0.999 -1.14 0.999 -1.14 0.02 87.45
2595.75 0.021 87.46 0.999 -1.2 0.999 -1.2 0.021 87.46
2620.708 0.022 87.464 0.999 -1.259 0.999 -1.259 0.022 87.464
2645.667 0.023 87.462 0.999 -1.318 0.999 -1.318 0.023 87.462
2670.625 0.024 87.456 0.999 -1.377 0.999 -1.377 0.024 87.456
2695.583 0.025 87.445 0.999 -1.435 0.999 -1.435 0.025 87.445
2720.542 0.026 87.43 0.999 -1.493 0.999 -1.493 0.026 87.43
2745.5 0.027 87.413 0.999 -1.55 0.999 -1.55 0.027 87.413
2770.458 0.028 87.393 0.999 -1.607 0.999 -1.607 0.028 87.393
2795.417 0.029 87.37 0.999 -1.664 0.999 -1.664 0.029 87.37
2820.375 0.03 87.345 0.999 -1.72 0.999 -1.72 0.03 87.345
2845.333 0.031 87.319 0.999 -1.776 0.999 -1.776 0.031 87.319
2870.292 0.032 87.291 0.999 -1.832 0.999 -1.832 0.032 87.291
2895.25 0.033 87.261 0.999 -1.887 0.999 -1.887 0.033 87.261
2920.208 0.034 87.231 0.999 -1.941 0.999 -1.941 0.034 87.231
2945.167 0.035 87.199 0.999 -1.996 0.999 -1.996 0.035 87.199
2970.125 0.036 87.166 0.999 -2.05 0.999 -2.05 0.036 87.166
2995.083 0.037 87.132 0.999 -2.104 0.999 -2.104 0.037 87.132
3020.042 0.038 87.097 0.999 -2.158 0.999 -2.158 0.038 87.097
3045 0.039 87.062 0.999 -2.211 0.999 -2.211 0.039 87.062
3069.958 0.04 87.026 0.999 -2.264 0.999 -2.264 0.04 87.026
3094.917 0.04 86.99 0.999 -2.316 0.999 -2.316 0.04 86.99
3119.875 0.041 86.953 0.999 -2.369 0.999 -2.369 0.041 86.953
3144.833 0.042 86.915 0.999 -2.421 0.999 -2.421 0.042 86.915
3169.792 0.043 86.877 0.999 -2.473 0.999 -2.473 0.043 86.877
3194.75 0.044 86.839 0.999 -2.524 0.999 -2.524 0.044 86.839
3219.708 0.045 86.8 0.999 -2.576 0.999 -2.576 0.045 86.8
3244.667 0.046 86.761 0.998 -2.627 0.998 -2.627 0.046 86.761
3269.625 0.047 86.722 0.998 -2.678 0.998 -2.678 0.047 86.722
3294.583 0.048 86.683 0.998 -2.728 0.998 -2.728 0.048 86.683
3319.542 0.048 86.643 0.998 -2.779 0.998 -2.779 0.048 86.643
3344.5 0.049 86.603 0.998 -2.829 0.998 -2.829 0.049 86.603
3369.458 0.05 86.563 0.998 -2.879 0.998 -2.879 0.05 86.563
3394.417 0.051 86.523 0.998 -2.929 0.998 -2.929 0.051 86.523
3419.375 0.052 86.482 0.998 -2.978 0.998 -2.978 0.052 86.482
3444.333 0.053 86.442 0.998 -3.027 0.998 -3.027 0.053 86.442
3469.292 0.054 86.401 0.998 -3.077 0.998 -3.077 0.054 86.401
3494.25 0.055 86.361 0.998 -3.125 0.998 -3.125 0.055 86.361
3519.208 0.055 86.32 0.998 -3.174 0.998 -3.174 0.055 86.32
3544.167 0.056 86.279 0.998 -3.223 0.998 -3.223 0.056 86.279
3569.125 0.057 86.238 0.998 -3.271 0.998 -3.271 0.057 86.238
3594.083 0.058 86.197 0.998 -3.319 0.998 -3.319 0.058 86.197
3619.042 0.059 86.156 0.998 -3.367 0.998 -3.367 0.059 86.156
3644 0.06 86.115 0.998 -3.415 0.998 -3.415 0.06 86.115
3668.958 0.06 86.074 0.998 -3.463 0.998 -3.463 0.06 86.074
3693.917 0.061 86.032 0.998 -3.51 0.998 -3.51 0.061 86.032
3718.875 0.062 85.991 0.998 -3.557 0.998 -3.557 0.062 85.991
3743.833 0.063 85.95 0.998 -3.605 0.998 -3.605 0.063 85.95
3768.792 0.064 85.909 0.997 -3.651 0.997 -3.651 0.064 85.909
3793.75 0.065 85.867 0.997 -3.698 0.997 -3.698 0.065 85.867
3818.708 0.065 85.826 0.997 -3.745 0.997 -3.745 0.065 85.826
3843.667 0.066 85.785 0.997 -3.792 0.997 -3.792 0.066 85.785
3868.625 0.067 85.744 0.997 -3.838 0.997 -3.838 0.067 85.744
3893.583 0.068 85.702 0.997 -3.884 0.997 -3.884 0.068 85.702
3918.542 0.069 85.661 0.997 -3.93 0.997 -3.93 0.069 85.661
3943.5 0.069 85.62 0.997 -3.976 0.997 -3.976 0.069 85.62
3968.458 0.07 85.579 0.997 -4.022 0.997 -4.022 0.07 85.579
3993.417 0.071 85.538 0.997 -4.068 0.997 -4.068 0.071 85.538
4018.375 0.072 85.496 0.997 -4.113 0.997 -4.113 0.072 85.496
4043.333 0.073 85.455 0.997 -4.159 0.997 -4.159 0.073 85.455
4068.292 0.073 85.414 0.997 -4.204 0.997 -4.204 0.073 85.414
4093.25 0.074 85.373 0.997 -4.249 0.997 -4.249 0.074 85.373
4118.208 0.075 85.332 0.997 -4.294 0.997 -4.294 0.075 85.332
4143.167 0.076 85.291 0.997 -4.339 0.997 -4.339 0.076 85.291
4168.125 0.076 85.25 0.997 -4.384 0.997 -4.384 0.076 85.25
4193.083 0.077 85.209 0.997 -4.429 0.997 -4.429 0.077 85.209
4218.042 0.078 85.168 0.996 -4.473 0.996 -4.473 0.078 85.168
4243 0.079 85.127 0.996 -4.518 0.996 -4.518 0.079 85.127
4267.958 0.08 85.086 0.996 -4.562 0.996 -4.562 0.08 85.086
4292.917 0.08 85.045 0.996 -4.606 0.996 -4.606 0.08 85.045
4317.875 0.081 85.005 0.996 -4.65 0.996 -4.65 0.081 85.005
4342.833 0.082 84.964 0.996 -4.694 0.996 -4.694 0.082 84.964
4367.792 0.083 84.923 0.996 -4.738 0.996 -4.738 0.083 84.923
4392.75 0.083 84.882 0.996 -4.782 0.996 -4.782 0.083 84.882
4417.708 0.084 84.842 0.996 -4.826 0.996 -4.826 0.084 84.842
4442.667 0.085 84.801 0.996 -4.869 0.996 -4.869 0.085 84.801
4467.625 0.086 84.761 0.996 -4.913 0.996 -4.913 0.086 84.761
4492.583 0.086 84.72 0.996 -4.956 0.996 -4.956 0.086 84.72
4517.542 0.087 84.68 0.996 -5 0.996 -5 0.087 84.68
4542.5 0.088 84.639 0.996 -5.043 0.996 -5.043 0.088 84.639
4567.458 0.089 84.599 0.996 -5.086 0.996 -5.086 0.089 84.599
4592.417 0.089 84.558 0.996 -5.129 0.996 -5.129 0.089 84.558
4617.375 0.09 84.518 0.995 -5.172 0.995 -5.172 0.09 84.518
4642.333 0.091 84.478 0.995 -5.215 0.995 -5.215 0.091 84.478
4667.292 0.092 84.437 0.995 -5.258 0.995 -5.258 0.092 84.437
4692.25 0.092 84.397 0.995 -5.3 0.995 -5.3 0.092 84.397
4717.208 0.093 84.357 0.995 -5.343 0.995 -5.343 0.093 84.357
4742.167 0.094 84.317 0.995 -5.386 0.995 -5.386 0.094 84.317
4767.125 0.095 84.277 0.995 -5.428 0.995 -5.428 0.095 84.277
4792.083 0.095 84.236 0.995 -5.47 0.995 -5.47 0.095 84.236
4817.042 0.096 84.196 0.995 -5.513 0.995 -5.513 0.096 84.196
4842 0.097 84.156 0.995 -5.555 0.995 -5.555 0.097 84.156
4866.958 0.098 84.116 0.995 -5.597 0.995 -5.597 0.098 84.116
4891.917 0.098 84.077 0.995 -5.639 0.995 -5.639 0.098 84.077
4916.875 0.099 84.037 0.995 -5.681 0.995 -5.681 0.099 84.037
4941.833 0.1 83.997 0.995 -5.723 0.995 -5.723 0.1 83.997
4966.792 0.1 83.957 0.994 -5.765 0.994 -5.765 0.1 83.957
4991.75 0.101 83.917 0.994 -5.807 0.994 -5.807 0.101 83.917
5016.708 0.102 83.878 0.994 -5.848 0.994 -5.848 0.102 83.878
5041.667 0.103 83.838 0.994 -5.89 0.994 -5.89 0.103 83.838
5066.625 0.103 83.798 0.994 -5.932 0.994 -5.932 0.103 83.798
5091.583 0.104 83.759 0.994 -5.973 0.994 -5.973 0.104 83.759
5116.542 0.105 83.719 0.994 -6.015 0.994 -6.015 0.105 83.719
5141.5 0.106 83.679 0.994 -6.056 0.994 -6.056 0.106 83.679
5166.458 0.106 83.64 0.994 -6.097 0.994 -6.097 0.106 83.64
5191.417 0.107 83.601 0.994 -6.138 0.994 -6.138 0.107 83.601
5216.375 0.108 83.561 0.994 -6.18 0.994 -6.18 0.108 83.561
5241.333 0.108 83.522 0.994 -6.221 0.994 -6.221 0.108 83.522
5266.292 0.109 83.482 0.994 -6.262 0.994 -6.262 0.109 83.482
5291.25 0.11 83.443 0.993 -6.303 0.993 -6.303 0.11 83.443
5316.208 0.11 83.404 0.993 -6.344 0.993 -6.344 0.11 83.404
5341.167 0.111 83.365 0.993 -6.385 0.993 -6.385 0.111 83.365
5366.125 0.112 83.325 0.993 -6.425 0.993 -6.425 0.112 83.325
5391.083 0.113 83.286 0.993 -6.466 0.993 -6.466 0.113 83.286
5416.042 0.113 83.247 0.993 -6.507 0.993 -6.507 0.113 83.247
5441 0.114 83.208 0.993 -6.548 0.993 -6.548 0.114 83.208
5465.958 0.115 83.169 0.993 -6.588 0.993 -6.588 0.115 83.169
5490.917 0.115 83.13 0.993 -6.629 0.993 -6.629 0.115 83.13
5515.875 0.116 83.091 0.993 -6.669 0.993 -6.669 0.116 83.091
5540.833 0.117 83.052 0.993 -6.709 0.993 -6.709 0.117 83.052
5565.792 0.118 83.013 0.993 -6.75 0.993 -6.75 0.118 83.013
5590.75 0.118 82.974 0.992 -6.79 0.992 -6.79 0.118 82.974
5615.708 0.119 82.935 0.992 -6.83 0.992 -6.83 0.119 82.935
5640.667 0.12 82.896 0.992 -6.871 0.992 -6.871 0.12 82.896
5665.625 0.12 82.858 0.992 -6.911 0.992 -6.911 0.12 82.858
5690.583 0.121 82.819 0.992 -6.951 0.992 -6.951 0.121 82.819
5715.542 0.122 82.78 0.992 -6.991 0.992 -6.991 0.122 82.78
5740.5 0.122 82.741 0.992 -7.031 0.992 -7.031 0.122 82.741
5765.458 0.123 82.703 0.992 -7.071 0.992 -7.071 0.123 82.703
5790.417 0.124 82.664 0.992 -7.111 0.992 -7.111 0.124 82.664
5815.375 0.124 82.626 0.992 -7.151 0.992 -7.151 0.124 82.626
5840.333 0.125 82.587 0.992 -7.19 0.992 -7.19 0.125 82.587
5865.292 0.126 82.549 0.992 -7.23 0.992 -7.23 0.126 82.549
5890.25 0.127 82.51 0.991 -7.27 0.991 -7.27 0.127 82.51
5915.208 0.127 82.472 0.991 -7.31 0.991 -7.31 0.127 82.472
5940.167 0.128 82.433 0.991 -7.349 0.991 -7.349 0.128 82.433
5965.125 0.129 82.395 0.991 -7.389 0.991 -7.389 0.129 82.395
5990.083 0.129 82.356 0.991 -7.428 0.991 -7.428 0.129 82.356
6015.042 0.13 82.318 0.991 -7.468 0.991 -7.468 0.13 82.318
6040 0.131 82.28 0.991 -7.507 0.991 -7.507 0.131 82.28
6064.958 0.131 82.241 0.991 -7.547 0.991 -7.547 0.131 82.241
6089.917 0.132 82.203 0.991 -7.586 0.991 -7.586 0.132 82.203
6114.875 0.133 82.165 0.991 -7.625 0.991 -7.625 0.133 82.165
6139.833 0.133 82.127 0.991 -7.665 0.991 -7.665 0.133 82.127
6164.792 0.134 82.089 0.99 -7.704 0.99 -7.704 0.134 82.089
6189.75 0.135 82.051 0.99 -7.743 0.99 -7.743 0.135 82.051
6214.708 0.135 82.012 0.99 -7.782 0.99 -7.782 0.135 82.012
6239.667 0.136 81.974 0.99 -7.821 0.99 -7.821 0.136 81.974
6264.625 0.137 81.936 0.99 -7.86 0.99 -7.86 0.137 81.936
6289.583 0.137 81.898 0.99 -7.899 0.99 -7.899 0.137 81.898
6314.542 0.138 81.86 0.99 -7.938 0.99 -7.938 0.138 81.86
6339.5 0.139 81.822 0.99 -7.977 0.99 -7.977 0.139 81.822
6364.458 0.139 81.784 0.99 -8.016 0.99 -8.016 0.139 81.784
6389.417 0.14 81.747 0.99 -8.055 0.99 -8.055 0.14 81.747
6414.375 0.141 81.709 0.99 -8.094 0.99 -8.094 0.141 81.709
6439.333 0.141 81.671 0.989 -8.133 0.989 -8.133 0.141 81.671
6464.292 0.142 81.633 0.989 -8.172 0.989 -8.172 0.142 81.633
6489.25 0.143 81.595 0.989 -8.21 0.989 -8.21 0.143 81.595
6514.208 0.143 81.557 0.989 -8.249 0.989 -8.249 0.143 81.557
6539.167 0.144 81.52 0.989 -8.288 0.989 -8.288 0.144 81.52
6564.125 0.145 81.482 0.989 -8.326 0.989 -8.326 0.145 81.482
6589.083 0.145 81.444 0.989 -8.365 0.989 -8.365 0.145 81.444
6614.042 0.146 81.407 0.989 -8.403 0.989 -8.403 0.146 81.407
6639 0.147 81.369 0.989 -8.442 0.989 -8.442 0.147 81.369
6663.958 0.147 81.331 0.989 -8.48 0.989 -8.48 0.147 81.331
6688.917 0.148 81.294 0.988 -8.519 0.988 -8.519 0.148 81.294
6713.875 0.149 81.256 0.988 -8.557 0.988 -8.557 0.149 81.256
6738.833 0.149 81.219 0.988 -8.596 0.988 -8.596 0.149 81.219
6763.792 0.15 81.181 0.988 -8.634 0.988 -8.634 0.15 81.181
6788.75 0.151 81.144 0.988 -8.672 0.988 -8.672 0.151 81.144
6813.708 0.151 81.106 0.988 -8.71 0.988 -8.71 0.151 81.106
6838.667 0.152 81.069 0.988 -8.749 0.988 -8.749 0.152 81.069
6863.625 0.153 81.031 0.988 -8.787 0.988 -8.787 0.153 81.031
6888.583 0.153 80.994 0.988 -8.825 0.988 -8.825 0.153 80.994
6913.542 0.154 80.957 0.988 -8.863 0.988 -8.863 0.154 80.957
6938.5 0.155 80.919 0.987 -8.901 0.987 -8.901 0.155 80.919
6963.458 0.155 80.882 0.987 -8.939 0.987 -8.939 0.155 80.882
6988.417 0.156 80.845 0.987 -8.977 0.987 -8.977 0.156 80.845
7013.375 0.157 80.808 0.987 -9.015 0.987 -9.015 0.157 80.808
7038.333 0.157 80.77 0.987 -9.053 0.987 -9.053 0.157 80.77
7063.292 0.158 80.733 0.987 -9.091 0.987 -9.091 0.158 80.733
7088.25 0.159 80.696 0.987 -9.129 0.987 -9.129 0.159 80.696
7113.208 0.159 80.659 0.987 -9.167 0.987 -9.167 0.159 80.659
7138.167 0.16 80.622 0.987 -9.205 0.987 -9.205 0.16 80.622
7163.125 0.161 80.585 0.987 -9.243 0.987 -9.243 0.161 80.585
7188.083 0.161 80.547 0.986 -9.281 0.986 -9.281 0.161 80.547
7213.042 0.162 80.51 0.986 -9.319 0.986 -9.319 0.162 80.51
7238 0.163 80.473 0.986 -9.356 0.986 -9.356 0.163 80.473
7262.958 0.163 80.436 0.986 -9.394 0.986 -9.394 0.163 80.436
7287.917 0.164 80.399 0.986 -9.432 0.986 -9.432 0.164 80.399
7312.875 0.165 80.362 0.986 -9.469 0.986 -9.469 0.165 80.362
7337.833 0.165 80.325 0.986 -9.507 0.986 -9.507 0.165 80.325
7362.792 0.166 80.288 0.986 -9.545 0.986 -9.545 0.166 80.288
7387.75 0.166 80.252 0.986 -9.582 0.986 -9.582 0.166 80.252
7412.708 0.167 80.215 0.985 -9.62 0.985 -9.62 0.167 80.215
7437.667 0.168 80.178 0.985 -9.657 0.985 -9.657 0.168 80.178
7462.625 0.168 80.141 0.985 -9.695 0.985 -9.695 0.168 80.141
7487.583 0.169 80.104 0.985 -9.732 0.985 -9.732 0.169 80.104
7512.542 0.17 80.067 0.985 -9.77 0.985 -9.77 0.17 80.067
7537.5 0.17 80.031 0.985 -9.807 0.985 -9.807 0.17 80.031
7562.458 0.171 79.994 0.985 -9.844 0.985 -9.844 0.171 79.994
7587.417 0.172 79.957 0.985 -9.882 0.985 -9.882 0.172 79.957
7612.375 0.172 79.92 0.985 -9.919 0.985 -9.919 0.172 79.92
7637.333 0.173 79.884 0.984 -9.956 0.984 -9.956 0.173 79.884
7662.292 0.174 79.847 0.984 -9.994 0.984 -9.994 0.174 79.847
7687.25 0.174 79.81 0.984 -10.031 0.984 -10.031 0.174 79.81
7712.208 0.175 79.774 0.984 -10.068 0.984 -10.068 0.175 79.774
7737.167 0.175 79.737 0.984 -10.105 0.984 -10.105 0.175 79.737
7762.125 0.176 79.701 0.984 -10.142 0.984 -10.142 0.176 79.701
7787.083 0.177 79.664 0.984 -10.18 0.984 -10.18 0.177 79.664
7812.042 0.177 79.627 0.984 -10.217 0.984 -10.217 0.177 79.627
7837 0.178 79.591 0.984 -10.254 0.984 -10.254 0.178 79.591
7861.958 0.179 79.554 0.983 -10.291 0.983 -10.291 0.179 79.554
7886.917 0.179 79.518 0.983 -10.328 0.983 -10.328 0.179 79.518
7911.875 0.18 79.482 0.983 -10.365 0.983 -10.365 0.18 79.482
7936.833 0.181 79.445 0.983 -10.402 0.983 -10.402 0.181 79.445
7961.792 0.181 79.409 0.983 -10.439 0.983 -10.439 0.181 79.409
7986.75 0.182 79.372 0.983 -10.476 0.983 -10.476 0.182 79.372
8011.708 0.182 79.336 0.983 -10.513 0.983 -10.513 0.182 79.336
8036.667 0.183 79.299 0.983 -10.55 0.983 -10.55 0.183 79.299
8061.625 0.184 79.263 0.982 -10.587 0.982 -10.587 0.184 79.263
8086.583 0.184 79.227 0.982 -10.623 0.982 -10.623 0.184 79.227
8111.542 0.185 79.191 0.982 -10.66 0.982 -10.66 0.185 79.191
8136.5 0.186 79.154 0.982 -10.697 0.982 -10.697 0.186 79.154
8161.458 0.186 79.118 0.982 -10.734 0.982 -10.734 0.186 79.118
8186.417 0.187 79.082 0.982 -10.771 0.982 -10.771 0.187 79.082
8211.375 0.188 79.046 0.982 -10.807 0.982 -10.807 0.188 79.046
8236.333 0.188 79.009 0.982 -10.844 0.982 -10.844 0.188 79.009
8261.292 0.189 78.973 0.982 -10.881 0.982 -10.881 0.189 78.973
8286.25 0.189 78.937 0.981 -10.917 0.981 -10.917 0.189 78.937
8311.208 0.19 78.901 0.981 -10.954 0.981 -10.954 0.19 78.901
