# MHZ S MA R 50

50 1 -0.99 0.017 89.006 0.017 89.006 1 -0.99
74.958 1 -1.484 0.026 88.511 0.026 88.511 1 -1.484
99.917 0.999 -1.978 0.035 88.015 0.035 88.015 0.999 -1.978
124.875 0.999 -2.471 0.043 87.52 0.043 87.52 0.999 -2.471
149.833 0.999 -2.965 0.052 87.025 0.052 87.025 0.999 -2.965
174.792 0.998 -3.458 0.06 86.53 0.06 86.53 0.998 -3.458
199.75 0.998 -3.95 0.069 86.036 0.069 86.036 0.998 -3.95
224.708 0.997 -4.442 0.077 85.542 0.077 85.542 0.997 -4.442
249.667 0.996 -4.934 0.086 85.048 0.086 85.048 0.996 -4.934
274.625 0.995 -5.425 0.095 84.556 0.095 84.556 0.995 -5.425
299.583 0.995 -5.915 0.103 84.063 0.103 84.063 0.995 -5.915
324.542 0.994 -6.405 0.112 83.572 0.112 83.572 0.994 -6.405
349.5 0.993 -6.893 0.12 83.081 0.12 83.081 0.993 -6.893
374.458 0.992 -7.381 0.128 82.592 0.128 82.592 0.992 -7.381
399.417 0.991 -7.869 0.137 82.102 0.137 82.102 0.991 -7.869
424.375 0.989 -8.355 0.145 81.614 0.145 81.614 0.989 -8.355
449.333 0.988 -8.84 0.154 81.127 0.154 81.127 0.988 -8.84
474.292 0.987 -9.325 0.162 80.641 0.162 80.641 0.987 -9.325
499.25 0.985 -9.808 0.17 80.156 0.17 80.156 0.985 -9.808
524.208 0.984 -10.29 0.179 79.672 0.179 79.672 0.984 -10.29
549.167 0.982 -10.771 0.187 79.189 0.187 79.189 0.982 -10.771
574.125 0.981 -11.251 0.195 78.708 0.195 78.708 0.981 -11.251
599.083 0.979 -11.729 0.203 78.227 0.203 78.227 0.979 -11.729
624.042 0.977 -12.207 0.211 77.748 0.211 77.748 0.977 -12.207
649 0.975 -12.682 0.22 77.271 0.22 77.271 0.975 -12.682
673.958 0.974 -13.157 0.228 76.795 0.228 76.795 0.974 -13.157
698.917 0.972 -13.63 0.236 76.32 0.236 76.32 0.972 -13.63
723.875 0.97 -14.101 0.244 75.846 0.244 75.846 0.97 -14.101
748.833 0.968 -14.571 0.252 75.375 0.252 75.375 0.968 -14.571
773.792 0.965 -15.04 0.259 74.904 0.259 74.904 0.965 -15.04
798.75 0.963 -15.506 0.267 74.436 0.267 74.436 0.963 -15.506
823.708 0.961 -15.971 0.275 73.969 0.275 73.969 0.961 -15.971
848.667 0.959 -16.435 0.283 73.504 0.283 73.504 0.959 -16.435
873.625 0.957 -16.896 0.291 73.04 0.291 73.04 0.957 -16.896
898.583 0.954 -17.356 0.298 72.579 0.298 72.579 0.954 -17.356
923.542 0.952 -17.814 0.306 72.119 0.306 72.119 0.952 -17.814
948.5 0.949 -18.271 0.314 71.661 0.314 71.661 0.949 -18.271
973.458 0.947 -18.725 0.321 71.204 0.321 71.204 0.947 -18.725
998.417 0.944 -19.178 0.328 70.75 0.328 70.75 0.944 -19.178
1023.375 0.941 -19.628 0.336 70.298 0.336 70.298 0.941 -19.628
1048.333 0.939 -20.077 0.343 69.847 0.343 69.847 0.939 -20.077
1073.292 0.936 -20.523 0.351 69.399 0.351 69.399 0.936 -20.523
1098.25 0.933 -20.968 0.358 68.952 0.358 68.952 0.933 -20.968
1123.208 0.93 -21.41 0.365 68.508 0.365 68.508 0.93 -21.41
1148.167 0.928 -21.851 0.372 68.066 0.372 68.066 0.928 -21.851
1173.125 0.925 -22.289 0.379 67.625 0.379 67.625 0.925 -22.289
1198.083 0.922 -22.725 0.386 67.187 0.386 67.187 0.922 -22.725
1223.042 0.919 -23.16 0.393 66.751 0.393 66.751 0.919 -23.16
1248 0.916 -23.591 0.4 66.318 0.4 66.318 0.916 -23.591
1272.958 0.913 -24.021 0.407 65.886 0.407 65.886 0.913 -24.021
1297.917 0.91 -24.449 0.414 65.457 0.414 65.457 0.91 -24.449
1322.875 0.907 -24.874 0.421 65.029 0.421 65.029 0.907 -24.874
1347.833 0.903 -25.297 0.427 64.604 0.427 64.604 0.903 -25.297
1372.792 0.9 -25.718 0.434 64.182 0.434 64.182 0.9 -25.718
1397.75 0.897 -26.137 0.441 63.761 0.441 63.761 0.897 -26.137
1422.708 0.894 -26.553 0.447 63.343 0.447 63.343 0.894 -26.553
1447.667 0.89 -26.967 0.453 62.927 0.453 62.927 0.89 -26.967
1472.625 0.887 -27.378 0.46 62.514 0.46 62.514 0.887 -27.378
1497.583 0.884 -27.788 0.466 62.102 0.466 62.102 0.884 -27.788
1522.542 0.88 -28.195 0.472 61.694 0.472 61.694 0.88 -28.195
1547.5 0.877 -28.599 0.479 61.287 0.479 61.287 0.877 -28.599
1572.458 0.874 -29.002 0.485 60.883 0.485 60.883 0.874 -29.002
1597.417 0.87 -29.402 0.491 60.481 0.491 60.481 0.87 -29.402
1622.375 0.867 -29.799 0.497 60.081 0.497 60.081 0.867 -29.799
1647.333 0.863 -30.195 0.503 59.684 0.503 59.684 0.863 -30.195
1672.292 0.86 -30.587 0.509 59.289 0.509 59.289 0.86 -30.587
1697.25 0.856 -30.978 0.515 58.897 0.515 58.897 0.856 -30.978
1722.208 0.853 -31.366 0.521 58.507 0.521 58.507 0.853 -31.366
1747.167 0.849 -31.752 0.526 58.119 0.526 58.119 0.849 -31.752
1772.125 0.846 -32.135 0.532 57.734 0.532 57.734 0.846 -32.135
1797.083 0.842 -32.516 0.538 57.351 0.538 57.351 0.842 -32.516
1822.042 0.838 -32.895 0.543 56.971 0.543 56.971 0.838 -32.895
1847 0.835 -33.271 0.549 56.593 0.549 56.593 0.835 -33.271
1871.958 0.831 -33.645 0.554 56.217 0.554 56.217 0.831 -33.645
1896.917 0.828 -34.016 0.559 55.843 0.559 55.843 0.828 -34.016
1921.875 0.824 -34.385 0.565 55.472 0.565 55.472 0.824 -34.385
1946.833 0.82 -34.752 0.57 55.104 0.57 55.104 0.82 -34.752
1971.792 0.817 -35.116 0.575 54.738 0.575 54.738 0.817 -35.116
1996.75 0.813 -35.478 0.58 54.374 0.58 54.374 0.813 -35.478
2021.708 0.809 -35.837 0.585 54.012 0.585 54.012 0.809 -35.837
2046.667 0.805 -36.194 0.591 53.653 0.591 53.653 0.805 -36.194
2071.625 0.802 -36.549 0.596 53.296 0.596 53.296 0.802 -36.549
2096.583 0.798 -36.902 0.6 52.942 0.6 52.942 0.798 -36.902
2121.542 0.794 -37.252 0.605 52.59 0.605 52.59 0.794 -37.252
2146.5 0.791 -37.599 0.61 52.24 0.61 52.24 0.791 -37.599
2171.458 0.787 -37.945 0.615 51.893 0.615 51.893 0.787 -37.945
2196.417 0.783 -38.288 0.62 51.548 0.62 51.548 0.783 -38.288
2221.375 0.779 -38.629 0.624 51.205 0.624 51.205 0.779 -38.629
2246.333 0.776 -38.967 0.629 50.864 0.629 50.864 0.776 -38.967
2271.292 0.772 -39.303 0.633 50.526 0.633 50.526 0.772 -39.303
2296.25 0.768 -39.637 0.638 50.19 0.638 50.19 0.768 -39.637
2321.208 0.764 -39.969 0.642 49.857 0.642 49.857 0.764 -39.969
2346.167 0.761 -40.298 0.647 49.525 0.647 49.525 0.761 -40.298
2371.125 0.757 -40.625 0.651 49.196 0.651 49.196 0.757 -40.625
2396.083 0.753 -40.95 0.655 48.869 0.655 48.869 0.753 -40.95
2421.042 0.749 -41.272 0.66 48.544 0.66 48.544 0.749 -41.272
2446 0.746 -41.593 0.664 48.222 0.664 48.222 0.746 -41.593
2470.958 0.742 -41.911 0.668 47.902 0.668 47.902 0.742 -41.911
2495.917 0.738 -42.227 0.672 47.584 0.672 47.584 0.738 -42.227
2520.875 0.735 -42.541 0.676 47.268 0.676 47.268 0.735 -42.541
2545.833 0.731 -42.852 0.68 46.954 0.68 46.954 0.731 -42.852
2570.792 0.727 -43.162 0.684 46.643 0.684 46.643 0.727 -43.162
2595.75 0.723 -43.469 0.688 46.333 0.688 46.333 0.723 -43.469
2620.708 0.72 -43.774 0.692 46.026 0.692 46.026 0.72 -43.774
2645.667 0.716 -44.077 0.696 45.721 0.696 45.721 0.716 -44.077
2670.625 0.712 -44.378 0.699 45.418 0.699 45.418 0.712 -44.378
2695.583 0.709 -44.676 0.703 45.117 0.703 45.117 0.709 -44.676
2720.542 0.705 -44.973 0.707 44.818 0.707 44.818 0.705 -44.973
2745.5 0.701 -45.268 0.71 44.522 0.71 44.522 0.701 -45.268
2770.458 0.698 -45.56 0.714 44.227 0.714 44.227 0.698 -45.56
2795.417 0.694 -45.851 0.718 43.934 0.718 43.934 0.694 -45.851
2820.375 0.69 -46.139 0.721 43.643 0.721 43.643 0.69 -46.139
2845.333 0.687 -46.426 0.724 43.355 0.724 43.355 0.687 -46.426
2870.292 0.683 -46.71 0.728 43.068 0.728 43.068 0.683 -46.71
2895.25 0.679 -46.992 0.731 42.784 0.731 42.784 0.679 -46.992
2920.208 0.676 -47.273 0.735 42.501 0.735 42.501 0.676 -47.273
2945.167 0.672 -47.551 0.738 42.22 0.738 42.22 0.672 -47.551
2970.125 0.668 -47.828 0.741 41.941 0.741 41.941 0.668 -47.828
2995.083 0.665 -48.103 0.744 41.664 0.744 41.664 0.665 -48.103
3020.042 0.661 -48.375 0.748 41.39 0.748 41.39 0.661 -48.375
3045 0.658 -48.646 0.751 41.116 0.751 41.116 0.658 -48.646
3069.958 0.654 -48.915 0.754 40.845 0.754 40.845 0.654 -48.915
3094.917 0.65 -49.182 0.757 40.576 0.757 40.576 0.65 -49.182
3119.875 0.647 -49.447 0.76 40.309 0.76 40.309 0.647 -49.447
3144.833 0.643 -49.71 0.763 40.043 0.763 40.043 0.643 -49.71
3169.792 0.64 -49.972 0.766 39.779 0.766 39.779 0.64 -49.972
3194.75 0.636 -50.232 0.769 39.517 0.769 39.517 0.636 -50.232
3219.708 0.633 -50.489 0.772 39.257 0.772 39.257 0.633 -50.489
3244.667 0.629 -50.746 0.774 38.998 0.774 38.998 0.629 -50.746
3269.625 0.626 -51 0.777 38.742 0.777 38.742 0.626 -51
3294.583 0.622 -51.252 0.78 38.487 0.78 38.487 0.622 -51.252
3319.542 0.619 -51.503 0.783 38.234 0.783 38.234 0.619 -51.503
3344.5 0.615 -51.752 0.785 37.982 0.785 37.982 0.615 -51.752
3369.458 0.612 -52 0.788 37.733 0.788 37.733 0.612 -52
3394.417 0.609 -52.245 0.791 37.484 0.791 37.484 0.609 -52.245
3419.375 0.605 -52.489 0.793 37.238 0.793 37.238 0.605 -52.489
3444.333 0.602 -52.731 0.796 36.993 0.796 36.993 0.602 -52.731
3469.292 0.598 -52.972 0.798 36.75 0.798 36.75 0.598 -52.972
3494.25 0.595 -53.211 0.801 36.509 0.801 36.509 0.595 -53.211
3519.208 0.592 -53.448 0.803 36.269 0.803 36.269 0.592 -53.448
3544.167 0.588 -53.684 0.806 36.031 0.806 36.031 0.588 -53.684
3569.125 0.585 -53.918 0.808 35.794 0.808 35.794 0.585 -53.918
3594.083 0.582 -54.151 0.811 35.559 0.811 35.559 0.582 -54.151
3619.042 0.578 -54.382 0.813 35.326 0.813 35.326 0.578 -54.382
3644 0.575 -54.611 0.815 35.094 0.815 35.094 0.575 -54.611
3668.958 0.572 -54.839 0.818 34.864 0.818 34.864 0.572 -54.839
3693.917 0.568 -55.065 0.82 34.635 0.82 34.635 0.568 -55.065
3718.875 0.565 -55.29 0.822 34.407 0.822 34.407 0.565 -55.29
3743.833 0.562 -55.513 0.824 34.181 0.824 34.181 0.562 -55.513
3768.792 0.559 -55.735 0.826 33.957 0.826 33.957 0.559 -55.735
3793.75 0.555 -55.955 0.829 33.734 0.829 33.734 0.555 -55.955
3818.708 0.552 -56.174 0.831 33.513 0.831 33.513 0.552 -56.174
3843.667 0.549 -56.392 0.833 33.293 0.833 33.293 0.549 -56.392
3868.625 0.546 -56.608 0.835 33.074 0.835 33.074 0.546 -56.608
3893.583 0.543 -56.822 0.837 32.857 0.837 32.857 0.543 -56.822
3918.542 0.539 -57.035 0.839 32.641 0.839 32.641 0.539 -57.035
3943.5 0.536 -57.247 0.841 32.427 0.841 32.427 0.536 -57.247
3968.458 0.533 -57.457 0.843 32.214 0.843 32.214 0.533 -57.457
3993.417 0.53 -57.666 0.845 32.002 0.845 32.002 0.53 -57.666
4018.375 0.527 -57.873 0.847 31.792 0.847 31.792 0.527 -57.873
4043.333 0.524 -58.08 0.849 31.583 0.849 31.583 0.524 -58.08
4068.292 0.521 -58.284 0.851 31.376 0.851 31.376 0.521 -58.284
4093.25 0.518 -58.488 0.853 31.169 0.853 31.169 0.518 -58.488
4118.208 0.515 -58.69 0.854 30.964 0.854 30.964 0.515 -58.69
4143.167 0.511 -58.891 0.856 30.761 0.856 30.761 0.511 -58.891
4168.125 0.508 -59.091 0.858 30.558 0.858 30.558 0.508 -59.091
4193.083 0.505 -59.289 0.86 30.357 0.86 30.357 0.505 -59.289
4218.042 0.502 -59.486 0.862 30.157 0.862 30.157 0.502 -59.486
4243 0.499 -59.682 0.863 29.959 0.863 29.959 0.499 -59.682
4267.958 0.496 -59.876 0.865 29.761 0.865 29.761 0.496 -59.876
4292.917 0.493 -60.069 0.867 29.565 0.867 29.565 0.493 -60.069
4317.875 0.49 -60.261 0.868 29.37 0.868 29.37 0.49 -60.261
4342.833 0.488 -60.452 0.87 29.176 0.87 29.176 0.488 -60.452
4367.792 0.485 -60.642 0.872 28.984 0.872 28.984 0.485 -60.642
4392.75 0.482 -60.83 0.873 28.793 0.873 28.793 0.482 -60.83
4417.708 0.479 -61.018 0.875 28.602 0.875 28.602 0.479 -61.018
4442.667 0.476 -61.204 0.876 28.413 0.876 28.413 0.476 -61.204
4467.625 0.473 -61.389 0.878 28.225 0.878 28.225 0.473 -61.389
4492.583 0.47 -61.572 0.879 28.039 0.879 28.039 0.47 -61.572
4517.542 0.467 -61.755 0.881 27.853 0.881 27.853 0.467 -61.755
4542.5 0.464 -61.936 0.882 27.668 0.882 27.668 0.464 -61.936
4567.458 0.462 -62.117 0.884 27.485 0.884 27.485 0.462 -62.117
4592.417 0.459 -62.296 0.885 27.302 0.885 27.302 0.459 -62.296
4617.375 0.456 -62.474 0.887 27.121 0.887 27.121 0.456 -62.474
4642.333 0.453 -62.651 0.888 26.941 0.888 26.941 0.453 -62.651
4667.292 0.45 -62.827 0.89 26.762 0.89 26.762 0.45 -62.827
4692.25 0.448 -63.002 0.891 26.584 0.891 26.584 0.448 -63.002
4717.208 0.445 -63.176 0.892 26.407 0.892 26.407 0.445 -63.176
4742.167 0.442 -63.349 0.894 26.231 0.894 26.231 0.442 -63.349
4767.125 0.439 -63.52 0.895 26.056 0.895 26.056 0.439 -63.52
4792.083 0.437 -63.691 0.896 25.882 0.896 25.882 0.437 -63.691
4817.042 0.434 -63.861 0.898 25.709 0.898 25.709 0.434 -63.861
4842 0.431 -64.029 0.899 25.537 0.899 25.537 0.431 -64.029
4866.958 0.428 -64.197 0.9 25.366 0.9 25.366 0.428 -64.197
4891.917 0.426 -64.364 0.902 25.196 0.902 25.196 0.426 -64.364
4916.875 0.423 -64.529 0.903 25.027 0.903 25.027 0.423 -64.529
4941.833 0.42 -64.694 0.904 24.859 0.904 24.859 0.42 -64.694
4966.792 0.418 -64.858 0.905 24.692 0.905 24.692 0.418 -64.858
4991.75 0.415 -65.02 0.906 24.525 0.906 24.525 0.415 -65.02
5016.708 0.412 -65.182 0.908 24.36 0.908 24.36 0.412 -65.182
5041.667 0.41 -65.343 0.909 24.196 0.909 24.196 0.41 -65.343
5066.625 0.407 -65.503 0.91 24.032 0.91 24.032 0.407 -65.503
5091.583 0.405 -65.662 0.911 23.87 0.911 23.87 0.405 -65.662
5116.542 0.402 -65.82 0.912 23.708 0.912 23.708 0.402 -65.82
5141.5 0.4 -65.977 0.913 23.547 0.913 23.547 0.4 -65.977
5166.458 0.397 -66.133 0.915 23.388 0.915 23.388 0.397 -66.133
5191.417 0.394 -66.288 0.916 23.229 0.916 23.229 0.394 -66.288
5216.375 0.392 -66.443 0.917 23.071 0.917 23.071 0.392 -66.443
5241.333 0.389 -66.596 0.918 22.913 0.918 22.913 0.389 -66.596
5266.292 0.387 -66.749 0.919 22.757 0.919 22.757 0.387 -66.749
5291.25 0.384 -66.901 0.92 22.601 0.92 22.601 0.384 -66.901
5316.208 0.382 -67.052 0.921 22.447 0.921 22.447 0.382 -67.052
5341.167 0.379 -67.202 0.922 22.293 0.922 22.293 0.379 -67.202
5366.125 0.377 -67.351 0.923 22.14 0.923 22.14 0.377 -67.351
5391.083 0.374 -67.499 0.924 21.987 0.924 21.987 0.374 -67.499
5416.042 0.372 -67.647 0.925 21.836 0.925 21.836 0.372 -67.647
5441 0.37 -67.794 0.926 21.685 0.926 21.685 0.37 -67.794
5465.958 0.367 -67.939 0.927 21.535 0.927 21.535 0.367 -67.939
5490.917 0.365 -68.085 0.928 21.386 0.928 21.386 0.365 -68.085
5515.875 0.362 -68.229 0.929 21.238 0.929 21.238 0.362 -68.229
5540.833 0.36 -68.372 0.93 21.09 0.93 21.09 0.36 -68.372
5565.792 0.357 -68.515 0.931 20.944 0.931 20.944 0.357 -68.515
5590.75 0.355 -68.657 0.931 20.798 0.931 20.798 0.355 -68.657
5615.708 0.353 -68.798 0.932 20.652 0.932 20.652 0.353 -68.798
5640.667 0.35 -68.938 0.933 20.508 0.933 20.508 0.35 -68.938
5665.625 0.348 -69.078 0.934 20.364 0.934 20.364 0.348 -69.078
5690.583 0.346 -69.217 0.935 20.221 0.935 20.221 0.346 -69.217
5715.542 0.343 -69.355 0.936 20.078 0.936 20.078 0.343 -69.355
5740.5 0.341 -69.492 0.937 19.937 0.937 19.937 0.341 -69.492
5765.458 0.339 -69.628 0.938 19.796 0.938 19.796 0.339 -69.628
5790.417 0.336 -69.764 0.938 19.656 0.938 19.656 0.336 -69.764
5815.375 0.334 -69.899 0.939 19.516 0.939 19.516 0.334 -69.899
5840.333 0.332 -70.034 0.94 19.377 0.94 19.377 0.332 -70.034
5865.292 0.33 -70.167 0.941 19.239 0.941 19.239 0.33 -70.167
5890.25 0.327 -70.3 0.942 19.102 0.942 19.102 0.327 -70.3
5915.208 0.325 -70.432 0.942 18.965 0.942 18.965 0.325 -70.432
5940.167 0.323 -70.564 0.943 18.829 0.943 18.829 0.323 -70.564
5965.125 0.321 -70.694 0.944 18.693 0.944 18.693 0.321 -70.694
5990.083 0.318 -70.824 0.945 18.558 0.945 18.558 0.318 -70.824
6015.042 0.316 -70.954 0.945 18.424 0.945 18.424 0.316 -70.954
6040 0.314 -71.082 0.946 18.291 0.946 18.291 0.314 -71.082
6064.958 0.312 -71.21 0.947 18.158 0.947 18.158 0.312 -71.21
6089.917 0.309 -71.338 0.947 18.025 0.947 18.025 0.309 -71.338
6114.875 0.307 -71.464 0.948 17.894 0.948 17.894 0.307 -71.464
6139.833 0.305 -71.59 0.949 17.763 0.949 17.763 0.305 -71.59
6164.792 0.303 -71.716 0.95 17.632 0.95 17.632 0.303 -71.716
6189.75 0.301 -71.84 0.95 17.502 0.95 17.502 0.301 -71.84
6214.708 0.299 -71.964 0.951 17.373 0.951 17.373 0.299 -71.964
6239.667 0.296 -72.088 0.952 17.245 0.952 17.245 0.296 -72.088
6264.625 0.294 -72.21 0.952 17.117 0.952 17.117 0.294 -72.21
6289.583 0.292 -72.332 0.953 16.989 0.953 16.989 0.292 -72.332
6314.542 0.29 -72.454 0.954 16.862 0.954 16.862 0.29 -72.454
6339.5 0.288 -72.575 0.954 16.736 0.954 16.736 0.288 -72.575
6364.458 0.286 -72.695 0.955 16.61 0.955 16.61 0.286 -72.695
6389.417 0.284 -72.814 0.955 16.485 0.955 16.485 0.284 -72.814
6414.375 0.282 -72.933 0.956 16.361 0.956 16.361 0.282 -72.933
6439.333 0.28 -73.051 0.957 16.237 0.957 16.237 0.28 -73.051
6464.292 0.278 -73.169 0.957 16.113 0.957 16.113 0.278 -73.169
6489.25 0.276 -73.286 0.958 15.991 0.958 15.991 0.276 -73.286
6514.208 0.273 -73.403 0.958 15.868 0.958 15.868 0.273 -73.403
6539.167 0.271 -73.519 0.959 15.746 0.959 15.746 0.271 -73.519
6564.125 0.269 -73.634 0.96 15.625 0.96 15.625 0.269 -73.634
6589.083 0.267 -73.748 0.96 15.504 0.96 15.504 0.267 -73.748
6614.042 0.265 -73.863 0.961 15.384 0.961 15.384 0.265 -73.863
6639 0.263 -73.976 0.961 15.265 0.961 15.265 0.263 -73.976
6663.958 0.261 -74.089 0.962 15.145 0.962 15.145 0.261 -74.089
6688.917 0.259 -74.201 0.962 15.027 0.962 15.027 0.259 -74.201
6713.875 0.257 -74.313 0.963 14.909 0.963 14.909 0.257 -74.313
6738.833 0.255 -74.424 0.963 14.791 0.963 14.791 0.255 -74.424
6763.792 0.253 -74.535 0.964 14.674 0.964 14.674 0.253 -74.535
6788.75 0.251 -74.645 0.964 14.557 0.964 14.557 0.251 -74.645
6813.708 0.249 -74.754 0.965 14.441 0.965 14.441 0.249 -74.754
6838.667 0.247 -74.863 0.965 14.325 0.965 14.325 0.247 -74.863
6863.625 0.246 -74.971 0.966 14.21 0.966 14.21 0.246 -74.971
6888.583 0.244 -75.079 0.966 14.096 0.966 14.096 0.244 -75.079
6913.542 0.242 -75.186 0.967 13.981 0.967 13.981 0.242 -75.186
6938.5 0.24 -75.293 0.967 13.868 0.967 13.868 0.24 -75.293
6963.458 0.238 -75.399 0.968 13.754 0.968 13.754 0.238 -75.399
6988.417 0.236 -75.504 0.968 13.642 0.968 13.642 0.236 -75.504
7013.375 0.234 -75.609 0.969 13.529 0.969 13.529 0.234 -75.609
7038.333 0.232 -75.714 0.969 13.418 0.969 13.418 0.232 -75.714
7063.292 0.23 -75.818 0.97 13.306 0.97 13.306 0.23 -75.818
7088.25 0.228 -75.921 0.97 13.195 0.97 13.195 0.228 -75.921
7113.208 0.226 -76.024 0.971 13.085 0.971 13.085 0.226 -76.024
7138.167 0.225 -76.126 0.971 12.975 0.971 12.975 0.225 -76.126
7163.125 0.223 -76.228 0.971 12.865 0.971 12.865 0.223 -76.228
7188.083 0.221 -76.329 0.972 12.756 0.972 12.756 0.221 -76.329
7213.042 0.219 -76.429 0.972 12.647 0.972 12.647 0.219 -76.429
7238 0.217 -76.53 0.973 12.539 0.973 12.539 0.217 -76.53
7262.958 0.215 -76.629 0.973 12.431 0.973 12.431 0.215 -76.629
7287.917 0.213 -76.728 0.973 12.323 0.973 12.323 0.213 -76.728
7312.875 0.212 -76.827 0.974 12.216 0.974 12.216 0.212 -76.827
7337.833 0.21 -76.925 0.974 12.11 0.974 12.11 0.21 -76.925
7362.792 0.208 -77.022 0.975 12.003 0.975 12.003 0.208 -77.022
7387.75 0.206 -77.119 0.975 11.898 0.975 11.898 0.206 -77.119
7412.708 0.204 -77.215 0.975 11.792 0.975 11.792 0.204 -77.215
7437.667 0.203 -77.311 0.976 11.687 0.976 11.687 0.203 -77.311
7462.625 0.201 -77.406 0.976 11.582 0.976 11.582 0.201 -77.406
7487.583 0.199 -77.501 0.976 11.478 0.976 11.478 0.199 -77.501
7512.542 0.197 -77.595 0.977 11.374 0.977 11.374 0.197 -77.595
7537.5 0.195 -77.689 0.977 11.271 0.977 11.271 0.195 -77.689
7562.458 0.194 -77.782 0.978 11.168 0.978 11.168 0.194 -77.782
7587.417 0.192 -77.875 0.978 11.065 0.978 11.065 0.192 -77.875
7612.375 0.19 -77.967 0.978 10.963 0.978 10.963 0.19 -77.967
7637.333 0.188 -78.059 0.979 10.861 0.979 10.861 0.188 -78.059
7662.292 0.187 -78.15 0.979 10.76 0.979 10.76 0.187 -78.15
7687.25 0.185 -78.24 0.979 10.658 0.979 10.658 0.185 -78.24
7712.208 0.183 -78.33 0.98 10.558 0.98 10.558 0.183 -78.33
7737.167 0.182 -78.42 0.98 10.457 0.98 10.457 0.182 -78.42
7762.125 0.18 -78.509 0.98 10.357 0.98 10.357 0.18 -78.509
7787.083 0.178 -78.597 0.98 10.258 0.98 10.258 0.178 -78.597
7812.042 0.176 -78.685 0.981 10.158 0.981 10.158 0.176 -78.685
7837 0.175 -78.772 0.981 10.059 0.981 10.059 0.175 -78.772
7861.958 0.173 -78.859 0.981 9.961 0.981 9.961 0.173 -78.859
7886.917 0.171 -78.946 0.982 9.862 0.982 9.862 0.171 -78.946
7911.875 0.17 -79.031 0.982 9.765 0.982 9.765 0.17 -79.031
7936.833 0.168 -79.116 0.982 9.667 0.982 9.667 0.168 -79.116
7961.792 0.166 -79.201 0.983 9.57 0.983 9.57 0.166 -79.201
7986.75 0.165 -79.285 0.983 9.473 0.983 9.473 0.165 -79.285
8011.708 0.163 -79.369 0.983 9.376 0.983 9.376 0.163 -79.369
8036.667 0.161 -79.452 0.983 9.28 0.983 9.28 0.161 -79.452
8061.625 0.16 -79.534 0.984 9.184 0.984 9.184 0.16 -79.534
8086.583 0.158 -79.616 0.984 9.089 0.984 9.089 0.158 -79.616
8111.542 0.156 -79.697 0.984 8.994 0.984 8.994 0.156 -79.697
8136.5 0.155 -79.778 0.984 8.899 0.984 8.899 0.155 -79.778
