# MHZ S MA R 50

50 0.991 -7.695 0.134 82.302 0.134 82.302 0.991 -7.695
74.958 0.98 -11.453 0.199 78.542 0.199 78.542 0.98 -11.453
99.917 0.965 -15.117 0.261 74.876 0.261 74.876 0.965 -15.117
124.875 0.947 -18.662 0.32 71.329 0.32 71.329 0.947 -18.662
149.833 0.927 -22.07 0.376 67.919 0.376 67.919 0.927 -22.07
174.792 0.904 -25.326 0.428 64.662 0.428 64.662 0.904 -25.326
199.75 0.879 -28.421 0.476 61.564 0.476 61.564 0.879 -28.421
224.708 0.854 -31.352 0.52 58.632 0.52 58.632 0.854 -31.352
249.667 0.828 -34.116 0.561 55.866 0.561 55.866 0.828 -34.116
274.625 0.801 -36.718 0.598 53.262 0.598 53.262 0.801 -36.718
299.583 0.775 -39.162 0.632 50.817 0.632 50.817 0.775 -39.162
324.542 0.749 -41.454 0.662 48.523 0.662 48.523 0.749 -41.454
349.5 0.724 -43.601 0.69 46.373 0.69 46.373 0.724 -43.601
374.458 0.699 -45.613 0.715 44.36 0.715 44.36 0.699 -45.613
399.417 0.675 -47.497 0.737 42.474 0.737 42.474 0.675 -47.497
424.375 0.652 -49.262 0.758 40.707 0.758 40.707 0.652 -49.262
449.333 0.63 -50.917 0.776 39.051 0.776 39.051 0.63 -50.917
474.292 0.609 -52.468 0.793 37.498 0.793 37.498 0.609 -52.468
499.25 0.588 -53.924 0.808 36.039 0.808 36.039 0.588 -53.924
524.208 0.569 -55.293 0.822 34.669 0.822 34.669 0.569 -55.293
549.167 0.55 -56.579 0.835 33.381 0.835 33.381 0.55 -56.579
574.125 0.532 -57.791 0.846 32.167 0.846 32.167 0.532 -57.791
599.083 0.515 -58.933 0.857 31.023 0.857 31.023 0.515 -58.933
624.042 0.499 -60.01 0.866 29.944 0.866 29.944 0.499 -60.01
649 0.484 -61.028 0.875 28.924 0.875 28.924 0.484 -61.028
673.958 0.469 -61.991 0.883 27.959 0.883 27.959 0.469 -61.991
698.917 0.455 -62.903 0.89 27.045 0.89 27.045 0.455 -62.903
723.875 0.441 -63.768 0.897 26.179 0.897 26.179 0.441 -63.768
748.833 0.428 -64.588 0.903 25.356 0.903 25.356 0.428 -64.588
773.792 0.416 -65.368 0.909 24.574 0.909 24.574 0.416 -65.368
798.75 0.404 -66.11 0.914 23.83 0.914 23.83 0.404 -66.11
823.708 0.393 -66.817 0.919 23.121 0.919 23.121 0.393 -66.817
848.667 0.382 -67.491 0.924 22.445 0.924 22.445 0.382 -67.491
873.625 0.371 -68.134 0.928 21.8 0.928 21.8 0.371 -68.134
898.583 0.361 -68.749 0.932 21.183 0.932 21.183 0.361 -68.749
923.542 0.352 -69.337 0.936 20.593 0.936 20.593 0.352 -69.337
948.5 0.342 -69.9 0.939 20.028 0.939 20.028 0.342 -69.9
973.458 0.334 -70.439 0.942 19.486 0.942 19.486 0.334 -70.439
998.417 0.325 -70.957 0.945 18.967 0.945 18.967 0.325 -70.957
1023.375 0.317 -71.453 0.948 18.468 0.948 18.468 0.317 -71.453
1048.333 0.309 -71.931 0.951 17.988 0.951 17.988 0.309 -71.931
1073.292 0.301 -72.39 0.953 17.527 0.953 17.527 0.301 -72.39
1098.25 0.294 -72.832 0.955 17.083 0.955 17.083 0.294 -72.832
1123.208 0.287 -73.257 0.958 16.655 0.958 16.655 0.287 -73.257
1148.167 0.28 -73.668 0.96 16.242 0.96 16.242 0.28 -73.668
1173.125 0.273 -74.063 0.962 15.844 0.962 15.844 0.273 -74.063
1198.083 0.267 -74.446 0.963 15.459 0.963 15.459 0.267 -74.446
1223.042 0.26 -74.815 0.965 15.087 0.965 15.087 0.26 -74.815
1248 0.254 -75.172 0.967 14.728 0.967 14.728 0.254 -75.172
1272.958 0.248 -75.518 0.968 14.38 0.968 14.38 0.248 -75.518
1297.917 0.243 -75.852 0.97 14.042 0.97 14.042 0.243 -75.852
1322.875 0.237 -76.176 0.971 13.716 0.971 13.716 0.237 -76.176
1347.833 0.232 -76.49 0.972 13.399 0.972 13.399 0.232 -76.49
1372.792 0.227 -76.795 0.974 13.092 0.974 13.092 0.227 -76.795
1397.75 0.221 -77.091 0.975 12.793 0.975 12.793 0.221 -77.091
1422.708 0.216 -77.378 0.976 12.503 0.976 12.503 0.216 -77.378
1447.667 0.212 -77.657 0.977 12.222 0.977 12.222 0.212 -77.657
1472.625 0.207 -77.928 0.978 11.947 0.978 11.947 0.207 -77.928
1497.583 0.202 -78.192 0.979 11.681 0.979 11.681 0.202 -78.192
1522.542 0.198 -78.448 0.98 11.421 0.98 11.421 0.198 -78.448
1547.5 0.194 -78.698 0.981 11.168 0.981 11.168 0.194 -78.698
1572.458 0.189 -78.942 0.981 10.922 0.981 10.922 0.189 -78.942
1597.417 0.185 -79.179 0.982 10.681 0.982 10.681 0.185 -79.179
1622.375 0.181 -79.41 0.983 10.447 0.983 10.447 0.181 -79.41
1647.333 0.177 -79.636 0.984 10.218 0.984 10.218 0.177 -79.636
1672.292 0.174 -79.856 0.984 9.995 0.984 9.995 0.174 -79.856
1697.25 0.17 -80.071 0.985 9.776 0.985 9.776 0.17 -80.071
1722.208 0.166 -80.28 0.986 9.563 0.986 9.563 0.166 -80.28
1747.167 0.163 -80.485 0.986 9.355 0.986 9.355 0.163 -80.485
1772.125 0.159 -80.686 0.987 9.151 0.987 9.151 0.159 -80.686
1797.083 0.156 -80.882 0.987 8.951 0.987 8.951 0.156 -80.882
1822.042 0.152 -81.073 0.988 8.756 0.988 8.756 0.152 -81.073
1847 0.149 -81.26 0.988 8.565 0.988 8.565 0.149 -81.26
1871.958 0.146 -81.444 0.989 8.377 0.989 8.377 0.146 -81.444
1896.917 0.143 -81.623 0.989 8.194 0.989 8.194 0.143 -81.623
1921.875 0.139 -81.799 0.99 8.014 0.99 8.014 0.139 -81.799
1946.833 0.136 -81.971 0.99 7.837 0.99 7.837 0.136 -81.971
1971.792 0.133 -82.14 0.991 7.664 0.991 7.664 0.133 -82.14
1996.75 0.13 -82.305 0.991 7.494 0.991 7.494 0.13 -82.305
2021.708 0.128 -82.467 0.991 7.328 0.991 7.328 0.128 -82.467
2046.667 0.125 -82.626 0.992 7.164 0.992 7.164 0.125 -82.626
2071.625 0.122 -82.782 0.992 7.003 0.992 7.003 0.122 -82.782
2096.583 0.119 -82.935 0.992 6.845 0.992 6.845 0.119 -82.935
2121.542 0.116 -83.085 0.993 6.69 0.993 6.69 0.116 -83.085
2146.5 0.114 -83.233 0.993 6.537 0.993 6.537 0.114 -83.233
2171.458 0.111 -83.377 0.993 6.387 0.993 6.387 0.111 -83.377
2196.417 0.109 -83.519 0.994 6.24 0.994 6.24 0.109 -83.519
2221.375 0.106 -83.659 0.994 6.094 0.994 6.094 0.106 -83.659
2246.333 0.104 -83.796 0.994 5.952 0.994 5.952 0.104 -83.796
2271.292 0.101 -83.93 0.994 5.811 0.994 5.811 0.101 -83.93
2296.25 0.099 -84.062 0.995 5.672 0.995 5.672 0.099 -84.062
2321.208 0.096 -84.192 0.995 5.536 0.995 5.536 0.096 -84.192
2346.167 0.094 -84.32 0.995 5.402 0.995 5.402 0.094 -84.32
2371.125 0.092 -84.445 0.995 5.269 0.995 5.269 0.092 -84.445
2396.083 0.09 -84.568 0.996 5.139 0.996 5.139 0.09 -84.568
2421.042 0.087 -84.689 0.996 5.01 0.996 5.01 0.087 -84.689
2446 0.085 -84.808 0.996 4.883 0.996 4.883 0.085 -84.808
2470.958 0.083 -84.925 0.996 4.758 0.996 4.758 0.083 -84.925
2495.917 0.081 -85.04 0.996 4.635 0.996 4.635 0.081 -85.04
2520.875 0.079 -85.153 0.996 4.513 0.996 4.513 0.079 -85.153
2545.833 0.077 -85.264 0.997 4.393 0.997 4.393 0.077 -85.264
2570.792 0.075 -85.373 0.997 4.274 0.997 4.274 0.075 -85.373
2595.75 0.072 -85.481 0.997 4.157 0.997 4.157 0.072 -85.481
2620.708 0.07 -85.586 0.997 4.041 0.997 4.041 0.07 -85.586
2645.667 0.068 -85.689 0.997 3.927 0.997 3.927 0.068 -85.689
2670.625 0.067 -85.791 0.997 3.814 0.997 3.814 0.067 -85.791
2695.583 0.065 -85.89 0.997 3.703 0.997 3.703 0.065 -85.89
2720.542 0.063 -85.988 0.998 3.592 0.998 3.592 0.063 -85.988
2745.5 0.061 -86.083 0.998 3.484 0.998 3.484 0.061 -86.083
2770.458 0.059 -86.177 0.998 3.376 0.998 3.376 0.059 -86.177
2795.417 0.057 -86.269 0.998 3.269 0.998 3.269 0.057 -86.269
2820.375 0.055 -86.359 0.998 3.164 0.998 3.164 0.055 -86.359
2845.333 0.053 -86.447 0.998 3.06 0.998 3.06 0.053 -86.447
2870.292 0.052 -86.533 0.998 2.957 0.998 2.957 0.052 -86.533
2895.25 0.05 -86.616 0.998 2.855 0.998 2.855 0.05 -86.616
2920.208 0.048 -86.698 0.998 2.754 0.998 2.754 0.048 -86.698
2945.167 0.046 -86.777 0.998 2.655 0.998 2.655 0.046 -86.777
2970.125 0.045 -86.854 0.999 2.556 0.999 2.556 0.045 -86.854
2995.083 0.043 -86.928 0.999 2.458 0.999 2.458 0.043 -86.928
3020.042 0.041 -87 0.999 2.361 0.999 2.361 0.041 -87
3045 0.04 -87.068 0.999 2.266 0.999 2.266 0.04 -87.068
3069.958 0.038 -87.134 0.999 2.171 0.999 2.171 0.038 -87.134
3094.917 0.036 -87.197 0.999 2.077 0.999 2.077 0.036 -87.197
3119.875 0.035 -87.256 0.999 1.983 0.999 1.983 0.035 -87.256
3144.833 0.033 -87.311 0.999 1.891 0.999 1.891 0.033 -87.311
3169.792 0.031 -87.362 0.999 1.8 0.999 1.8 0.031 -87.362
3194.75 0.03 -87.408 0.999 1.709 0.999 1.709 0.03 -87.408
3219.708 0.028 -87.449 0.999 1.619 0.999 1.619 0.028 -87.449
3244.667 0.027 -87.483 0.999 1.53 0.999 1.53 0.027 -87.483
3269.625 0.025 -87.511 0.999 1.442 0.999 1.442 0.025 -87.511
3294.583 0.024 -87.531 0.999 1.354 0.999 1.354 0.024 -87.531
3319.542 0.022 -87.541 0.999 1.268 0.999 1.268 0.022 -87.541
3344.5 0.021 -87.541 0.999 1.181 0.999 1.181 0.021 -87.541
3369.458 0.019 -87.527 0.999 1.096 0.999 1.096 0.019 -87.527
3394.417 0.018 -87.496 0.999 1.011 0.999 1.011 0.018 -87.496
3419.375 0.016 -87.445 0.999 0.927 0.999 0.927 0.016 -87.445
3444.333 0.015 -87.367 0.999 0.844 0.999 0.844 0.015 -87.367
3469.292 0.013 -87.256 0.999 0.761 0.999 0.761 0.013 -87.256
3494.25 0.012 -87.099 0.999 0.679 0.999 0.679 0.012 -87.099
3519.208 0.01 -86.877 0.999 0.598 0.999 0.598 0.01 -86.877
3544.167 9.03e-3 -86.564 0.999 0.517 0.999 0.517 9.03e-3 -86.564
3569.125 7.631e-3 -86.108 1 0.436 1 0.436 7.631e-3 -86.108
3594.083 6.243e-3 -85.418 1 0.357 1 0.357 6.243e-3 -85.418
3619.042 4.866e-3 -84.298 1 0.278 1 0.278 4.866e-3 -84.298
3644 3.503e-3 -82.256 1 0.199 1 0.199 3.503e-3 -82.256
3668.958 2.16e-3 -77.583 1 0.121 1 0.121 2.16e-3 -77.583
3693.917 886.3e-6 -58.69 1 0.043 1 0.043 886.3e-6 -58.69
3718.875 745.1e-6 51.844 1 -0.034 1 -0.034 745.1e-6 51.844
3743.833 1.975e-3 76.424 1 -0.11 1 -0.11 1.975e-3 76.424
3768.792 3.279e-3 81.751 1 -0.186 1 -0.186 3.279e-3 81.751
3793.75 4.587e-3 83.984 1 -0.262 1 -0.262 4.587e-3 83.984
3818.708 5.891e-3 85.185 1 -0.337 1 -0.337 5.891e-3 85.185
3843.667 7.188e-3 85.92 1 -0.411 1 -0.411 7.188e-3 85.92
3868.625 8.479e-3 86.405 1 -0.485 1 -0.485 8.479e-3 86.405
3893.583 9.761e-3 86.74 0.999 -0.559 0.999 -0.559 9.761e-3 86.74
3918.542 0.011 86.98 0.999 -0.632 0.999 -0.632 0.011 86.98
3943.5 0.012 87.153 0.999 -0.705 0.999 -0.705 0.012 87.153
3968.458 0.014 87.28 0.999 -0.777 0.999 -0.777 0.014 87.28
3993.417 0.015 87.373 0.999 -0.849 0.999 -0.849 0.015 87.373
4018.375 0.016 87.439 0.999 -0.92 0.999 -0.92 0.016 87.439
4043.333 0.017 87.486 0.999 -0.991 0.999 -0.991 0.017 87.486
4068.292 0.019 87.516 0.999 -1.062 0.999 -1.062 0.019 87.516
4093.25 0.02 87.534 0.999 -1.132 0.999 -1.132 0.02 87.534
4118.208 0.021 87.542 0.999 -1.202 0.999 -1.202 0.021 87.542
4143.167 0.022 87.541 0.999 -1.271 0.999 -1.271 0.022 87.541
4168.125 0.023 87.533 0.999 -1.34 0.999 -1.34 0.023 87.533
4193.083 0.025 87.52 0.999 -1.409 0.999 -1.409 0.025 87.52
4218.042 0.026 87.501 0.999 -1.477 0.999 -1.477 0.026 87.501
4243 0.027 87.478 0.999 -1.545 0.999 -1.545 0.027 87.478
4267.958 0.028 87.451 0.999 -1.613 0.999 -1.613 0.028 87.451
4292.917 0.029 87.421 0.999 -1.68 0.999 -1.68 0.029 87.421
4317.875 0.03 87.389 0.999 -1.747 0.999 -1.747 0.03 87.389
4342.833 0.032 87.354 0.999 -1.814 0.999 -1.814 0.032 87.354
4367.792 0.033 87.317 0.999 -1.88 0.999 -1.88 0.033 87.317
4392.75 0.034 87.278 0.999 -1.946 0.999 -1.946 0.034 87.278
4417.708 0.035 87.238 0.999 -2.012 0.999 -2.012 0.035 87.238
4442.667 0.036 87.196 0.999 -2.077 0.999 -2.077 0.036 87.196
4467.625 0.037 87.153 0.999 -2.142 0.999 -2.142 0.037 87.153
4492.583 0.039 87.109 0.999 -2.207 0.999 -2.207 0.039 87.109
4517.542 0.04 87.064 0.999 -2.271 0.999 -2.271 0.04 87.064
4542.5 0.041 87.018 0.999 -2.336 0.999 -2.336 0.041 87.018
4567.458 0.042 86.972 0.999 -2.399 0.999 -2.399 0.042 86.972
4592.417 0.043 86.924 0.999 -2.463 0.999 -2.463 0.043 86.924
4617.375 0.044 86.876 0.999 -2.526 0.999 -2.526 0.044 86.876
4642.333 0.045 86.828 0.999 -2.589 0.999 -2.589 0.045 86.828
4667.292 0.046 86.779 0.998 -2.652 0.998 -2.652 0.046 86.779
4692.25 0.047 86.73 0.998 -2.715 0.998 -2.715 0.047 86.73
4717.208 0.048 86.68 0.998 -2.777 0.998 -2.777 0.048 86.68
4742.167 0.05 86.63 0.998 -2.839 0.998 -2.839 0.05 86.63
4767.125 0.051 86.579 0.998 -2.901 0.998 -2.901 0.051 86.579
4792.083 0.052 86.529 0.998 -2.962 0.998 -2.962 0.052 86.529
4817.042 0.053 86.478 0.998 -3.023 0.998 -3.023 0.053 86.478
4842 0.054 86.427 0.998 -3.084 0.998 -3.084 0.054 86.427
4866.958 0.055 86.375 0.998 -3.145 0.998 -3.145 0.055 86.375
4891.917 0.056 86.324 0.998 -3.206 0.998 -3.206 0.056 86.324
4916.875 0.057 86.272 0.998 -3.266 0.998 -3.266 0.057 86.272
4941.833 0.058 86.221 0.998 -3.326 0.998 -3.326 0.058 86.221
4966.792 0.059 86.169 0.998 -3.386 0.998 -3.386 0.059 86.169
4991.75 0.06 86.117 0.998 -3.445 0.998 -3.445 0.06 86.117
5016.708 0.061 86.065 0.998 -3.505 0.998 -3.505 0.061 86.065
5041.667 0.062 86.013 0.998 -3.564 0.998 -3.564 0.062 86.013
5066.625 0.063 85.961 0.998 -3.623 0.998 -3.623 0.063 85.961
5091.583 0.064 85.909 0.997 -3.682 0.997 -3.682 0.064 85.909
5116.542 0.065 85.857 0.997 -3.74 0.997 -3.74 0.065 85.857
5141.5 0.066 85.805 0.997 -3.798 0.997 -3.798 0.066 85.805
5166.458 0.067 85.752 0.997 -3.857 0.997 -3.857 0.067 85.752
5191.417 0.068 85.7 0.997 -3.914 0.997 -3.914 0.068 85.7
5216.375 0.069 85.648 0.997 -3.972 0.997 -3.972 0.069 85.648
5241.333 0.07 85.596 0.997 -4.03 0.997 -4.03 0.07 85.596
5266.292 0.071 85.544 0.997 -4.087 0.997 -4.087 0.071 85.544
5291.25 0.072 85.492 0.997 -4.144 0.997 -4.144 0.072 85.492
5316.208 0.073 85.44 0.997 -4.201 0.997 -4.201 0.073 85.44
5341.167 0.074 85.388 0.997 -4.258 0.997 -4.258 0.074 85.388
5366.125 0.075 85.336 0.997 -4.315 0.997 -4.315 0.075 85.336
5391.083 0.076 85.284 0.997 -4.371 0.997 -4.371 0.076 85.284
5416.042 0.077 85.232 0.997 -4.427 0.997 -4.427 0.077 85.232
5441 0.078 85.18 0.996 -4.483 0.996 -4.483 0.078 85.18
5465.958 0.079 85.129 0.996 -4.539 0.996 -4.539 0.079 85.129
5490.917 0.08 85.077 0.996 -4.595 0.996 -4.595 0.08 85.077
5515.875 0.081 85.025 0.996 -4.651 0.996 -4.651 0.081 85.025
5540.833 0.082 84.974 0.996 -4.706 0.996 -4.706 0.082 84.974
5565.792 0.083 84.922 0.996 -4.761 0.996 -4.761 0.083 84.922
5590.75 0.084 84.871 0.996 -4.816 0.996 -4.816 0.084 84.871
5615.708 0.085 84.819 0.996 -4.871 0.996 -4.871 0.085 84.819
5640.667 0.086 84.768 0.996 -4.926 0.996 -4.926 0.086 84.768
5665.625 0.087 84.717 0.996 -4.981 0.996 -4.981 0.087 84.717
5690.583 0.088 84.666 0.996 -5.035 0.996 -5.035 0.088 84.666
5715.542 0.089 84.614 0.996 -5.09 0.996 -5.09 0.089 84.614
5740.5 0.09 84.563 0.996 -5.144 0.996 -5.144 0.09 84.563
5765.458 0.091 84.512 0.995 -5.198 0.995 -5.198 0.091 84.512
5790.417 0.092 84.462 0.995 -5.252 0.995 -5.252 0.092 84.462
5815.375 0.092 84.411 0.995 -5.305 0.995 -5.305 0.092 84.411
5840.333 0.093 84.36 0.995 -5.359 0.995 -5.359 0.093 84.36
5865.292 0.094 84.309 0.995 -5.412 0.995 -5.412 0.094 84.309
5890.25 0.095 84.259 0.995 -5.466 0.995 -5.466 0.095 84.259
5915.208 0.096 84.208 0.995 -5.519 0.995 -5.519 0.096 84.208
5940.167 0.097 84.158 0.995 -5.572 0.995 -5.572 0.097 84.158
5965.125 0.098 84.108 0.995 -5.625 0.995 -5.625 0.098 84.108
5990.083 0.099 84.057 0.995 -5.678 0.995 -5.678 0.099 84.057
6015.042 0.1 84.007 0.995 -5.73 0.995 -5.73 0.1 84.007
6040 0.101 83.957 0.994 -5.783 0.994 -5.783 0.101 83.957
6064.958 0.102 83.907 0.994 -5.835 0.994 -5.835 0.102 83.907
6089.917 0.103 83.857 0.994 -5.887 0.994 -5.887 0.103 83.857
6114.875 0.103 83.807 0.994 -5.94 0.994 -5.94 0.103 83.807
6139.833 0.104 83.757 0.994 -5.992 0.994 -5.992 0.104 83.757
6164.792 0.105 83.708 0.994 -6.043 0.994 -6.043 0.105 83.708
6189.75 0.106 83.658 0.994 -6.095 0.994 -6.095 0.106 83.658
6214.708 0.107 83.608 0.994 -6.147 0.994 -6.147 0.107 83.608
6239.667 0.108 83.559 0.994 -6.198 0.994 -6.198 0.108 83.559
6264.625 0.109 83.51 0.994 -6.25 0.994 -6.25 0.109 83.51
6289.583 0.11 83.46 0.994 -6.301 0.994 -6.301 0.11 83.46
6314.542 0.111 83.411 0.993 -6.352 0.993 -6.352 0.111 83.411
6339.5 0.112 83.362 0.993 -6.403 0.993 -6.403 0.112 83.362
6364.458 0.112 83.313 0.993 -6.454 0.993 -6.454 0.112 83.313
6389.417 0.113 83.264 0.993 -6.505 0.993 -6.505 0.113 83.264
6414.375 0.114 83.215 0.993 -6.556 0.993 -6.556 0.114 83.215
6439.333 0.115 83.166 0.993 -6.606 0.993 -6.606 0.115 83.166
6464.292 0.116 83.117 0.993 -6.657 0.993 -6.657 0.116 83.117
6489.25 0.117 83.069 0.993 -6.707 0.993 -6.707 0.117 83.069
6514.208 0.118 83.02 0.993 -6.758 0.993 -6.758 0.118 83.02
6539.167 0.119 82.971 0.992 -6.808 0.992 -6.808 0.119 82.971
6564.125 0.119 82.923 0.992 -6.858 0.992 -6.858 0.119 82.923
6589.083 0.12 82.875 0.992 -6.908 0.992 -6.908 0.12 82.875
6614.042 0.121 82.826 0.992 -6.958 0.992 -6.958 0.121 82.826
6639 0.122 82.778 0.992 -7.007 0.992 -7.007 0.122 82.778
6663.958 0.123 82.73 0.992 -7.057 0.992 -7.057 0.123 82.73
6688.917 0.124 82.682 0.992 -7.107 0.992 -7.107 0.124 82.682
6713.875 0.125 82.634 0.992 -7.156 0.992 -7.156 0.125 82.634
6738.833 0.125 82.586 0.992 -7.206 0.992 -7.206 0.125 82.586
6763.792 0.126 82.538 0.992 -7.255 0.992 -7.255 0.126 82.538
6788.75 0.127 82.49 0.991 -7.304 0.991 -7.304 0.127 82.49
6813.708 0.128 82.443 0.991 -7.353 0.991 -7.353 0.128 82.443
6838.667 0.129 82.395 0.991 -7.402 0.991 -7.402 0.129 82.395
6863.625 0.13 82.347 0.991 -7.451 0.991 -7.451 0.13 82.347
6888.583 0.131 82.3 0.991 -7.5 0.991 -7.5 0.131 82.3
6913.542 0.131 82.252 0.991 -7.549 0.991 -7.549 0.131 82.252
6938.5 0.132 82.205 0.991 -7.597 0.991 -7.597 0.132 82.205
6963.458 0.133 82.158 0.991 -7.646 0.991 -7.646 0.133 82.158
6988.417 0.134 82.111 0.991 -7.694 0.991 -7.694 0.134 82.111
7013.375 0.135 82.063 0.99 -7.743 0.99 -7.743 0.135 82.063
7038.333 0.136 82.016 0.99 -7.791 0.99 -7.791 0.136 82.016
7063.292 0.136 81.969 0.99 -7.839 0.99 -7.839 0.136 81.969
7088.25 0.137 81.922 0.99 -7.887 0.99 -7.887 0.137 81.922
7113.208 0.138 81.875 0.99 -7.935 0.99 -7.935 0.138 81.875
7138.167 0.139 81.829 0.99 -7.983 0.99 -7.983 0.139 81.829
7163.125 0.14 81.782 0.99 -8.031 0.99 -8.031 0.14 81.782
7188.083 0.141 81.735 0.99 -8.079 0.99 -8.079 0.141 81.735
7213.042 0.141 81.689 0.99 -8.127 0.99 -8.127 0.141 81.689
7238 0.142 81.642 0.989 -8.174 0.989 -8.174 0.142 81.642
7262.958 0.143 81.596 0.989 -8.222 0.989 -8.222 0.143 81.596
7287.917 0.144 81.549 0.989 -8.269 0.989 -8.269 0.144 81.549
7312.875 0.145 81.503 0.989 -8.317 0.989 -8.317 0.145 81.503
7337.833 0.145 81.457 0.989 -8.364 0.989 -8.364 0.145 81.457
7362.792 0.146 81.41 0.989 -8.411 0.989 -8.411 0.146 81.41
7387.75 0.147 81.364 0.989 -8.459 0.989 -8.459 0.147 81.364
7412.708 0.148 81.318 0.989 -8.506 0.989 -8.506 0.148 81.318
7437.667 0.149 81.272 0.988 -8.553 0.988 -8.553 0.149 81.272
7462.625 0.15 81.226 0.988 -8.6 0.988 -8.6 0.15 81.226
7487.583 0.15 81.18 0.988 -8.646 0.988 -8.646 0.15 81.18
7512.542 0.151 81.134 0.988 -8.693 0.988 -8.693 0.151 81.134
7537.5 0.152 81.089 0.988 -8.74 0.988 -8.74 0.152 81.089
7562.458 0.153 81.043 0.988 -8.787 0.988 -8.787 0.153 81.043
7587.417 0.154 80.997 0.988 -8.833 0.988 -8.833 0.154 80.997
7612.375 0.154 80.952 0.988 -8.88 0.988 -8.88 0.154 80.952
7637.333 0.155 80.906 0.987 -8.926 0.987 -8.926 0.155 80.906
7662.292 0.156 80.861 0.987 -8.973 0.987 -8.973 0.156 80.861
7687.25 0.157 80.815 0.987 -9.019 0.987 -9.019 0.157 80.815
7712.208 0.158 80.77 0.987 -9.065 0.987 -9.065 0.158 80.77
7737.167 0.158 80.724 0.987 -9.111 0.987 -9.111 0.158 80.724
7762.125 0.159 80.679 0.987 -9.157 0.987 -9.157 0.159 80.679
7787.083 0.16 80.634 0.987 -9.203 0.987 -9.203 0.16 80.634
7812.042 0.161 80.589 0.987 -9.249 0.987 -9.249 0.161 80.589
7837 0.162 80.544 0.986 -9.295 0.986 -9.295 0.162 80.544
7861.958 0.162 80.499 0.986 -9.341 0.986 -9.341 0.162 80.499
7886.917 0.163 80.454 0.986 -9.387 0.986 -9.387 0.163 80.454
7911.875 0.164 80.409 0.986 -9.433 0.986 -9.433 0.164 80.409
7936.833 0.165 80.364 0.986 -9.478 0.986 -9.478 0.165 80.364
7961.792 0.165 80.319 0.986 -9.524 0.986 -9.524 0.165 80.319
7986.75 0.166 80.274 0.986 -9.569 0.986 -9.569 0.166 80.274
8011.708 0.167 80.23 0.985 -9.615 0.985 -9.615 0.167 80.23
8036.667 0.168 80.185 0.985 -9.66 0.985 -9.66 0.168 80.185
8061.625 0.169 80.14 0.985 -9.705 0.985 -9.705 0.169 80.14
8086.583 0.169 80.096 0.985 -9.751 0.985 -9.751 0.169 80.096
8111.542 0.17 80.051 0.985 -9.796 0.985 -9.796 0.17 80.051
8136.5 0.171 80.007 0.985 -9.841 0.985 -9.841 0.171 80.007
8161.458 0.172 79.963 0.985 -9.886 0.985 -9.886 0.172 79.963
8186.417 0.172 79.918 0.985 -9.931 0.985 -9.931 0.172 79.918
8211.375 0.173 79.874 0.984 -9.976 0.984 -9.976 0.173 79.874
8236.333 0.174 79.83 0.984 -10.021 0.984 -10.021 0.174 79.83
8261.292 0.175 79.786 0.984 -10.066 0.984 -10.066 0.175 79.786
8286.25 0.176 79.742 0.984 -10.111 0.984 -10.111 0.176 79.742
8311.208 0.176 79.697 0.984 -10.155 0.984 -10.155 0.176 79.697
