# MHZ S MA R 50

50 0.997 -4.67 0.081 85.326 0.081 85.326 0.997 -4.67
74.958 0.993 -6.983 0.122 83.011 0.122 83.011 0.993 -6.983
99.917 0.987 -9.275 0.161 80.717 0.161 80.717 0.987 -9.275
124.875 0.98 -11.538 0.2 78.451 0.2 78.451 0.98 -11.538
149.833 0.971 -13.767 0.238 76.22 0.238 76.22 0.971 -13.767
174.792 0.961 -15.957 0.275 74.028 0.275 74.028 0.961 -15.957
199.75 0.95 -18.103 0.311 71.881 0.311 71.881 0.95 -18.103
224.708 0.938 -20.2 0.345 69.781 0.345 69.781 0.938 -20.2
249.667 0.925 -22.245 0.379 67.734 0.379 67.734 0.925 -22.245
274.625 0.912 -24.235 0.41 65.742 0.41 65.742 0.912 -24.235
299.583 0.897 -26.169 0.441 63.806 0.441 63.806 0.897 -26.169
324.542 0.882 -28.044 0.47 61.929 0.47 61.929 0.882 -28.044
349.5 0.867 -29.86 0.498 60.111 0.498 60.111 0.867 -29.86
374.458 0.851 -31.616 0.524 58.352 0.524 58.352 0.851 -31.616
399.417 0.835 -33.312 0.549 56.654 0.549 56.654 0.835 -33.312
424.375 0.819 -34.95 0.573 55.014 0.573 55.014 0.819 -34.95
449.333 0.803 -36.528 0.595 53.433 0.595 53.433 0.803 -36.528
474.292 0.787 -38.05 0.616 51.91 0.616 51.91 0.787 -38.05
499.25 0.771 -39.515 0.636 50.442 0.636 50.442 0.771 -39.515
524.208 0.755 -40.925 0.655 49.03 0.655 49.03 0.755 -40.925
549.167 0.739 -42.283 0.673 47.67 0.673 47.67 0.739 -42.283
574.125 0.724 -43.589 0.689 46.362 0.689 46.362 0.724 -43.589
599.083 0.708 -44.846 0.705 45.103 0.705 45.103 0.708 -44.846
624.042 0.693 -46.054 0.72 43.892 0.72 43.892 0.693 -46.054
649 0.679 -47.217 0.734 42.727 0.734 42.727 0.679 -47.217
673.958 0.664 -48.336 0.747 41.606 0.747 41.606 0.664 -48.336
698.917 0.65 -49.412 0.759 40.527 0.759 40.527 0.65 -49.412
723.875 0.636 -50.448 0.771 39.489 0.771 39.489 0.636 -50.448
748.833 0.622 -51.446 0.782 38.49 0.782 38.49 0.622 -51.446
773.792 0.609 -52.406 0.792 37.527 0.792 37.527 0.609 -52.406
798.75 0.596 -53.331 0.802 36.6 0.802 36.6 0.596 -53.331
823.708 0.584 -54.222 0.811 35.706 0.811 35.706 0.584 -54.222
848.667 0.571 -55.081 0.82 34.845 0.82 34.845 0.571 -55.081
873.625 0.559 -55.909 0.828 34.015 0.828 34.015 0.559 -55.909
898.583 0.548 -56.708 0.836 33.213 0.836 33.213 0.548 -56.708
923.542 0.536 -57.479 0.843 32.44 0.843 32.44 0.536 -57.479
948.5 0.525 -58.223 0.85 31.694 0.85 31.694 0.525 -58.223
973.458 0.515 -58.942 0.857 30.973 0.857 30.973 0.515 -58.942
998.417 0.504 -59.636 0.863 30.276 0.863 30.276 0.504 -59.636
1023.375 0.494 -60.307 0.869 29.602 0.869 29.602 0.494 -60.307
1048.333 0.484 -60.956 0.874 28.95 0.874 28.95 0.484 -60.956
1073.292 0.474 -61.584 0.88 28.32 0.88 28.32 0.474 -61.584
1098.25 0.465 -62.192 0.885 27.71 0.885 27.71 0.465 -62.192
1123.208 0.456 -62.781 0.889 27.118 0.889 27.118 0.456 -62.781
1148.167 0.447 -63.351 0.894 26.546 0.894 26.546 0.447 -63.351
1173.125 0.438 -63.904 0.898 25.99 0.898 25.99 0.438 -63.904
1198.083 0.43 -64.44 0.902 25.452 0.902 25.452 0.43 -64.44
1223.042 0.422 -64.96 0.906 24.93 0.906 24.93 0.422 -64.96
1248 0.413 -65.464 0.91 24.422 0.91 24.422 0.413 -65.464
1272.958 0.406 -65.954 0.913 23.93 0.913 23.93 0.406 -65.954
1297.917 0.398 -66.43 0.917 23.451 0.917 23.451 0.398 -66.43
1322.875 0.391 -66.892 0.92 22.987 0.92 22.987 0.391 -66.892
1347.833 0.383 -67.341 0.923 22.534 0.923 22.534 0.383 -67.341
1372.792 0.376 -67.778 0.926 22.095 0.926 22.095 0.376 -67.778
1397.75 0.369 -68.204 0.929 21.667 0.929 21.667 0.369 -68.204
1422.708 0.362 -68.617 0.931 21.25 0.931 21.25 0.362 -68.617
1447.667 0.356 -69.02 0.934 20.844 0.934 20.844 0.356 -69.02
1472.625 0.349 -69.413 0.936 20.449 0.936 20.449 0.349 -69.413
1497.583 0.343 -69.795 0.938 20.064 0.938 20.064 0.343 -69.795
1522.542 0.337 -70.168 0.941 19.688 0.941 19.688 0.337 -70.168
1547.5 0.331 -70.531 0.943 19.322 0.943 19.322 0.331 -70.531
1572.458 0.325 -70.886 0.945 18.964 0.945 18.964 0.325 -70.886
1597.417 0.319 -71.232 0.947 18.615 0.947 18.615 0.319 -71.232
1622.375 0.314 -71.57 0.949 18.274 0.949 18.274 0.314 -71.57
1647.333 0.308 -71.899 0.951 17.941 0.951 17.941 0.308 -71.899
1672.292 0.303 -72.221 0.952 17.616 0.952 17.616 0.303 -72.221
1697.25 0.297 -72.536 0.954 17.298 0.954 17.298 0.297 -72.536
1722.208 0.292 -72.844 0.956 16.988 0.956 16.988 0.292 -72.844
1747.167 0.287 -73.145 0.957 16.684 0.957 16.684 0.287 -73.145
1772.125 0.282 -73.439 0.959 16.386 0.959 16.386 0.282 -73.439
1797.083 0.277 -73.726 0.96 16.095 0.96 16.095 0.277 -73.726
1822.042 0.272 -74.008 0.961 15.81 0.961 15.81 0.272 -74.008
1847 0.268 -74.284 0.963 15.531 0.963 15.531 0.268 -74.284
1871.958 0.263 -74.554 0.964 15.257 0.964 15.257 0.263 -74.554
1896.917 0.259 -74.818 0.965 14.989 0.965 14.989 0.259 -74.818
1921.875 0.254 -75.077 0.966 14.727 0.966 14.727 0.254 -75.077
1946.833 0.25 -75.331 0.967 14.469 0.967 14.469 0.25 -75.331
1971.792 0.246 -75.58 0.969 14.217 0.969 14.217 0.246 -75.58
1996.75 0.241 -75.824 0.97 13.969 0.97 13.969 0.241 -75.824
2021.708 0.237 -76.063 0.971 13.726 0.971 13.726 0.237 -76.063
2046.667 0.233 -76.298 0.972 13.487 0.972 13.487 0.233 -76.298
2071.625 0.229 -76.528 0.972 13.253 0.972 13.253 0.229 -76.528
2096.583 0.225 -76.754 0.973 13.023 0.973 13.023 0.225 -76.754
2121.542 0.222 -76.976 0.974 12.797 0.974 12.797 0.222 -76.976
2146.5 0.218 -77.194 0.975 12.575 0.975 12.575 0.218 -77.194
2171.458 0.214 -77.408 0.976 12.357 0.976 12.357 0.214 -77.408
2196.417 0.21 -77.618 0.977 12.143 0.977 12.143 0.21 -77.618
2221.375 0.207 -77.824 0.978 11.932 0.978 11.932 0.207 -77.824
2246.333 0.203 -78.027 0.978 11.724 0.978 11.724 0.203 -78.027
2271.292 0.2 -78.227 0.979 11.52 0.979 11.52 0.2 -78.227
2296.25 0.196 -78.423 0.98 11.32 0.98 11.32 0.196 -78.423
2321.208 0.193 -78.616 0.98 11.122 0.98 11.122 0.193 -78.616
2346.167 0.19 -78.805 0.981 10.928 0.981 10.928 0.19 -78.805
2371.125 0.186 -78.992 0.982 10.736 0.982 10.736 0.186 -78.992
2396.083 0.183 -79.175 0.982 10.548 0.982 10.548 0.183 -79.175
2421.042 0.18 -79.356 0.983 10.362 0.983 10.362 0.18 -79.356
2446 0.177 -79.534 0.983 10.179 0.983 10.179 0.177 -79.534
2470.958 0.174 -79.709 0.984 9.999 0.984 9.999 0.174 -79.709
2495.917 0.171 -79.881 0.984 9.822 0.984 9.822 0.171 -79.881
2520.875 0.168 -80.05 0.985 9.646 0.985 9.646 0.168 -80.05
2545.833 0.165 -80.217 0.985 9.474 0.985 9.474 0.165 -80.217
2570.792 0.162 -80.382 0.986 9.304 0.986 9.304 0.162 -80.382
2595.75 0.159 -80.544 0.986 9.136 0.986 9.136 0.159 -80.544
2620.708 0.156 -80.703 0.987 8.97 0.987 8.97 0.156 -80.703
2645.667 0.153 -80.86 0.987 8.807 0.987 8.807 0.153 -80.86
2670.625 0.15 -81.015 0.988 8.646 0.988 8.646 0.15 -81.015
2695.583 0.148 -81.168 0.988 8.487 0.988 8.487 0.148 -81.168
2720.542 0.145 -81.318 0.989 8.33 0.989 8.33 0.145 -81.318
2745.5 0.142 -81.467 0.989 8.175 0.989 8.175 0.142 -81.467
2770.458 0.14 -81.613 0.989 8.022 0.989 8.022 0.14 -81.613
2795.417 0.137 -81.757 0.99 7.87 0.99 7.87 0.137 -81.757
2820.375 0.134 -81.899 0.99 7.721 0.99 7.721 0.134 -81.899
2845.333 0.132 -82.039 0.99 7.573 0.99 7.573 0.132 -82.039
2870.292 0.129 -82.177 0.991 7.428 0.991 7.428 0.129 -82.177
2895.25 0.127 -82.313 0.991 7.284 0.991 7.284 0.127 -82.313
2920.208 0.124 -82.447 0.991 7.141 0.991 7.141 0.124 -82.447
2945.167 0.122 -82.58 0.992 7.001 0.992 7.001 0.122 -82.58
2970.125 0.119 -82.71 0.992 6.861 0.992 6.861 0.119 -82.71
2995.083 0.117 -82.839 0.992 6.724 0.992 6.724 0.117 -82.839
3020.042 0.115 -82.966 0.993 6.588 0.993 6.588 0.115 -82.966
3045 0.112 -83.091 0.993 6.453 0.993 6.453 0.112 -83.091
3069.958 0.11 -83.214 0.993 6.32 0.993 6.32 0.11 -83.214
3094.917 0.108 -83.336 0.993 6.189 0.993 6.189 0.108 -83.336
3119.875 0.106 -83.456 0.994 6.058 0.994 6.058 0.106 -83.456
3144.833 0.103 -83.574 0.994 5.929 0.994 5.929 0.103 -83.574
3169.792 0.101 -83.691 0.994 5.802 0.994 5.802 0.101 -83.691
3194.75 0.099 -83.806 0.994 5.675 0.994 5.675 0.099 -83.806
3219.708 0.097 -83.919 0.994 5.55 0.994 5.55 0.097 -83.919
3244.667 0.095 -84.031 0.995 5.427 0.995 5.427 0.095 -84.031
3269.625 0.092 -84.141 0.995 5.304 0.995 5.304 0.092 -84.141
3294.583 0.09 -84.249 0.995 5.183 0.995 5.183 0.09 -84.249
3319.542 0.088 -84.356 0.995 5.063 0.995 5.063 0.088 -84.356
3344.5 0.086 -84.461 0.995 4.943 0.995 4.943 0.086 -84.461
3369.458 0.084 -84.564 0.996 4.826 0.996 4.826 0.084 -84.564
3394.417 0.082 -84.666 0.996 4.709 0.996 4.709 0.082 -84.666
3419.375 0.08 -84.766 0.996 4.593 0.996 4.593 0.08 -84.766
3444.333 0.078 -84.864 0.996 4.478 0.996 4.478 0.078 -84.864
3469.292 0.076 -84.96 0.996 4.364 0.996 4.364 0.076 -84.96
3494.25 0.074 -85.055 0.996 4.252 0.996 4.252 0.074 -85.055
3519.208 0.072 -85.148 0.996 4.14 0.996 4.14 0.072 -85.148
3544.167 0.07 -85.239 0.997 4.029 0.997 4.029 0.07 -85.239
3569.125 0.068 -85.328 0.997 3.919 0.997 3.919 0.068 -85.328
3594.083 0.066 -85.416 0.997 3.811 0.997 3.811 0.066 -85.416
3619.042 0.065 -85.501 0.997 3.703 0.997 3.703 0.065 -85.501
3644 0.063 -85.584 0.997 3.595 0.997 3.595 0.063 -85.584
3668.958 0.061 -85.666 0.997 3.489 0.997 3.489 0.061 -85.666
3693.917 0.059 -85.745 0.997 3.384 0.997 3.384 0.059 -85.745
3718.875 0.057 -85.821 0.997 3.279 0.997 3.279 0.057 -85.821
3743.833 0.055 -85.896 0.998 3.176 0.998 3.176 0.055 -85.896
3768.792 0.054 -85.967 0.998 3.073 0.998 3.073 0.054 -85.967
3793.75 0.052 -86.036 0.998 2.971 0.998 2.971 0.052 -86.036
3818.708 0.05 -86.103 0.998 2.869 0.998 2.869 0.05 -86.103
3843.667 0.048 -86.166 0.998 2.769 0.998 2.769 0.048 -86.166
3868.625 0.047 -86.226 0.998 2.669 0.998 2.669 0.047 -86.226
3893.583 0.045 -86.282 0.998 2.57 0.998 2.57 0.045 -86.282
3918.542 0.043 -86.335 0.998 2.472 0.998 2.472 0.043 -86.335
3943.5 0.041 -86.383 0.998 2.374 0.998 2.374 0.041 -86.383
3968.458 0.04 -86.427 0.998 2.277 0.998 2.277 0.04 -86.427
3993.417 0.038 -86.466 0.998 2.181 0.998 2.181 0.038 -86.466
4018.375 0.036 -86.5 0.998 2.085 0.998 2.085 0.036 -86.5
4043.333 0.035 -86.527 0.998 1.99 0.998 1.99 0.035 -86.527
4068.292 0.033 -86.548 0.999 1.896 0.999 1.896 0.033 -86.548
4093.25 0.031 -86.56 0.999 1.803 0.999 1.803 0.031 -86.56
4118.208 0.03 -86.564 0.999 1.71 0.999 1.71 0.03 -86.564
4143.167 0.028 -86.558 0.999 1.617 0.999 1.617 0.028 -86.558
4168.125 0.027 -86.54 0.999 1.525 0.999 1.525 0.027 -86.54
4193.083 0.025 -86.508 0.999 1.434 0.999 1.434 0.025 -86.508
4218.042 0.023 -86.46 0.999 1.344 0.999 1.344 0.023 -86.46
4243 0.022 -86.393 0.999 1.254 0.999 1.254 0.022 -86.393
4267.958 0.02 -86.301 0.999 1.164 0.999 1.164 0.02 -86.301
4292.917 0.019 -86.181 0.999 1.075 0.999 1.075 0.019 -86.181
4317.875 0.017 -86.024 0.999 0.987 0.999 0.987 0.017 -86.024
4342.833 0.016 -85.82 0.999 0.899 0.999 0.899 0.016 -85.82
4367.792 0.014 -85.556 0.999 0.812 0.999 0.812 0.014 -85.556
4392.75 0.013 -85.209 0.999 0.725 0.999 0.725 0.013 -85.209
4417.708 0.011 -84.748 0.999 0.639 0.999 0.639 0.011 -84.748
4442.667 9.692e-3 -84.123 0.999 0.553 0.999 0.553 9.692e-3 -84.123
4467.625 8.212e-3 -83.244 0.999 0.468 0.999 0.468 8.212e-3 -83.244
4492.583 6.743e-3 -81.952 0.999 0.383 0.999 0.383 6.743e-3 -81.952
4517.542 5.289e-3 -79.91 0.999 0.299 0.999 0.299 5.289e-3 -79.91
4542.5 3.855e-3 -76.294 0.999 0.215 0.999 0.215 3.855e-3 -76.294
4567.458 2.464e-3 -68.459 0.999 0.131 0.999 0.131 2.464e-3 -68.459
4592.417 1.236e-3 -43.238 0.999 0.049 0.999 0.049 1.236e-3 -43.238
4617.375 1.077e-3 33.309 0.999 -0.034 0.999 -0.034 1.077e-3 33.309
4642.333 2.214e-3 65.914 0.999 -0.116 0.999 -0.116 2.214e-3 65.914
4667.292 3.562e-3 75.177 0.999 -0.197 0.999 -0.197 3.562e-3 75.177
4692.25 4.945e-3 79.242 0.999 -0.279 0.999 -0.279 4.945e-3 79.242
4717.208 6.336e-3 81.479 0.999 -0.359 0.999 -0.359 6.336e-3 81.479
4742.167 7.725e-3 82.875 0.999 -0.44 0.999 -0.44 7.725e-3 82.875
4767.125 9.112e-3 83.815 0.999 -0.52 0.999 -0.52 9.112e-3 83.815
4792.083 0.01 84.484 0.999 -0.599 0.999 -0.599 0.01 84.484
4817.042 0.012 84.976 0.999 -0.678 0.999 -0.678 0.012 84.976
4842 0.013 85.348 0.999 -0.757 0.999 -0.757 0.013 85.348
4866.958 0.015 85.634 0.999 -0.835 0.999 -0.835 0.015 85.634
4891.917 0.016 85.857 0.999 -0.913 0.999 -0.913 0.016 85.857
4916.875 0.017 86.031 0.999 -0.991 0.999 -0.991 0.017 86.031
4941.833 0.019 86.169 0.999 -1.068 0.999 -1.068 0.019 86.169
4966.792 0.02 86.278 0.999 -1.145 0.999 -1.145 0.02 86.278
4991.75 0.021 86.362 0.999 -1.221 0.999 -1.221 0.021 86.362
5016.708 0.023 86.428 0.999 -1.297 0.999 -1.297 0.023 86.428
5041.667 0.024 86.478 0.999 -1.373 0.999 -1.373 0.024 86.478
5066.625 0.025 86.514 0.999 -1.448 0.999 -1.448 0.025 86.514
5091.583 0.027 86.539 0.999 -1.523 0.999 -1.523 0.027 86.539
5116.542 0.028 86.555 0.999 -1.598 0.999 -1.598 0.028 86.555
5141.5 0.029 86.563 0.999 -1.672 0.999 -1.672 0.029 86.563
5166.458 0.03 86.564 0.999 -1.746 0.999 -1.746 0.03 86.564
5191.417 0.032 86.559 0.999 -1.82 0.999 -1.82 0.032 86.559
5216.375 0.033 86.548 0.999 -1.894 0.999 -1.894 0.033 86.548
5241.333 0.034 86.533 0.999 -1.967 0.999 -1.967 0.034 86.533
5266.292 0.036 86.514 0.998 -2.039 0.998 -2.039 0.036 86.514
5291.25 0.037 86.491 0.998 -2.112 0.998 -2.112 0.037 86.491
5316.208 0.038 86.465 0.998 -2.184 0.998 -2.184 0.038 86.465
5341.167 0.039 86.436 0.998 -2.256 0.998 -2.256 0.039 86.436
5366.125 0.041 86.405 0.998 -2.328 0.998 -2.328 0.041 86.405
5391.083 0.042 86.371 0.998 -2.399 0.998 -2.399 0.042 86.371
5416.042 0.043 86.335 0.998 -2.47 0.998 -2.47 0.043 86.335
5441 0.044 86.298 0.998 -2.541 0.998 -2.541 0.044 86.298
5465.958 0.046 86.259 0.998 -2.611 0.998 -2.611 0.046 86.259
5490.917 0.047 86.218 0.998 -2.681 0.998 -2.681 0.047 86.218
5515.875 0.048 86.176 0.998 -2.751 0.998 -2.751 0.048 86.176
5540.833 0.049 86.133 0.998 -2.821 0.998 -2.821 0.049 86.133
5565.792 0.05 86.089 0.998 -2.89 0.998 -2.89 0.05 86.089
5590.75 0.052 86.044 0.998 -2.96 0.998 -2.96 0.052 86.044
5615.708 0.053 85.998 0.998 -3.028 0.998 -3.028 0.053 85.998
5640.667 0.054 85.951 0.998 -3.097 0.998 -3.097 0.054 85.951
5665.625 0.055 85.903 0.998 -3.165 0.998 -3.165 0.055 85.903
5690.583 0.056 85.854 0.998 -3.233 0.998 -3.233 0.056 85.854
5715.542 0.058 85.805 0.997 -3.301 0.997 -3.301 0.058 85.805
5740.5 0.059 85.756 0.997 -3.369 0.997 -3.369 0.059 85.756
5765.458 0.06 85.705 0.997 -3.436 0.997 -3.436 0.06 85.705
5790.417 0.061 85.655 0.997 -3.504 0.997 -3.504 0.061 85.655
5815.375 0.062 85.604 0.997 -3.57 0.997 -3.57 0.062 85.604
5840.333 0.063 85.552 0.997 -3.637 0.997 -3.637 0.063 85.552
5865.292 0.065 85.5 0.997 -3.704 0.997 -3.704 0.065 85.5
5890.25 0.066 85.448 0.997 -3.77 0.997 -3.77 0.066 85.448
5915.208 0.067 85.396 0.997 -3.836 0.997 -3.836 0.067 85.396
5940.167 0.068 85.343 0.997 -3.902 0.997 -3.902 0.068 85.343
5965.125 0.069 85.29 0.997 -3.967 0.997 -3.967 0.069 85.29
5990.083 0.07 85.236 0.997 -4.033 0.997 -4.033 0.07 85.236
6015.042 0.071 85.183 0.997 -4.098 0.997 -4.098 0.071 85.183
6040 0.073 85.129 0.996 -4.163 0.996 -4.163 0.073 85.129
6064.958 0.074 85.075 0.996 -4.227 0.996 -4.227 0.074 85.075
6089.917 0.075 85.021 0.996 -4.292 0.996 -4.292 0.075 85.021
6114.875 0.076 84.967 0.996 -4.356 0.996 -4.356 0.076 84.967
6139.833 0.077 84.913 0.996 -4.42 0.996 -4.42 0.077 84.913
6164.792 0.078 84.859 0.996 -4.484 0.996 -4.484 0.078 84.859
6189.75 0.079 84.804 0.996 -4.548 0.996 -4.548 0.079 84.804
6214.708 0.08 84.75 0.996 -4.612 0.996 -4.612 0.08 84.75
6239.667 0.082 84.695 0.996 -4.675 0.996 -4.675 0.082 84.695
6264.625 0.083 84.64 0.996 -4.738 0.996 -4.738 0.083 84.64
6289.583 0.084 84.585 0.996 -4.801 0.996 -4.801 0.084 84.585
6314.542 0.085 84.531 0.996 -4.864 0.996 -4.864 0.085 84.531
6339.5 0.086 84.476 0.995 -4.926 0.995 -4.926 0.086 84.476
6364.458 0.087 84.421 0.995 -4.989 0.995 -4.989 0.087 84.421
6389.417 0.088 84.366 0.995 -5.051 0.995 -5.051 0.088 84.366
6414.375 0.089 84.311 0.995 -5.113 0.995 -5.113 0.089 84.311
6439.333 0.09 84.256 0.995 -5.175 0.995 -5.175 0.09 84.256
6464.292 0.091 84.201 0.995 -5.237 0.995 -5.237 0.091 84.201
6489.25 0.092 84.146 0.995 -5.298 0.995 -5.298 0.092 84.146
6514.208 0.093 84.091 0.995 -5.36 0.995 -5.36 0.093 84.091
6539.167 0.094 84.036 0.995 -5.421 0.995 -5.421 0.094 84.036
6564.125 0.096 83.981 0.995 -5.482 0.995 -5.482 0.096 83.981
6589.083 0.097 83.926 0.994 -5.543 0.994 -5.543 0.097 83.926
6614.042 0.098 83.871 0.994 -5.603 0.994 -5.603 0.098 83.871
6639 0.099 83.817 0.994 -5.664 0.994 -5.664 0.099 83.817
6663.958 0.1 83.762 0.994 -5.724 0.994 -5.724 0.1 83.762
6688.917 0.101 83.707 0.994 -5.784 0.994 -5.784 0.101 83.707
6713.875 0.102 83.652 0.994 -5.844 0.994 -5.844 0.102 83.652
6738.833 0.103 83.597 0.994 -5.904 0.994 -5.904 0.103 83.597
6763.792 0.104 83.543 0.994 -5.964 0.994 -5.964 0.104 83.543
6788.75 0.105 83.488 0.994 -6.024 0.994 -6.024 0.105 83.488
6813.708 0.106 83.433 0.993 -6.083 0.993 -6.083 0.106 83.433
6838.667 0.107 83.379 0.993 -6.142 0.993 -6.142 0.107 83.379
6863.625 0.108 83.324 0.993 -6.202 0.993 -6.202 0.108 83.324
6888.583 0.109 83.27 0.993 -6.261 0.993 -6.261 0.109 83.27
6913.542 0.11 83.215 0.993 -6.319 0.993 -6.319 0.11 83.215
6938.5 0.111 83.161 0.993 -6.378 0.993 -6.378 0.111 83.161
6963.458 0.112 83.106 0.993 -6.437 0.993 -6.437 0.112 83.106
6988.417 0.113 83.052 0.993 -6.495 0.993 -6.495 0.113 83.052
7013.375 0.114 82.998 0.993 -6.553 0.993 -6.553 0.114 82.998
7038.333 0.115 82.944 0.992 -6.612 0.992 -6.612 0.115 82.944
7063.292 0.116 82.89 0.992 -6.67 0.992 -6.67 0.116 82.89
7088.25 0.117 82.836 0.992 -6.727 0.992 -6.727 0.117 82.836
7113.208 0.118 82.782 0.992 -6.785 0.992 -6.785 0.118 82.782
7138.167 0.119 82.728 0.992 -6.843 0.992 -6.843 0.119 82.728
7163.125 0.12 82.674 0.992 -6.9 0.992 -6.9 0.12 82.674
7188.083 0.121 82.62 0.992 -6.958 0.992 -6.958 0.121 82.62
7213.042 0.122 82.566 0.992 -7.015 0.992 -7.015 0.122 82.566
7238 0.123 82.513 0.991 -7.072 0.991 -7.072 0.123 82.513
7262.958 0.124 82.459 0.991 -7.129 0.991 -7.129 0.124 82.459
7287.917 0.125 82.406 0.991 -7.186 0.991 -7.186 0.125 82.406
7312.875 0.126 82.352 0.991 -7.242 0.991 -7.242 0.126 82.352
7337.833 0.127 82.299 0.991 -7.299 0.991 -7.299 0.127 82.299
7362.792 0.128 82.245 0.991 -7.355 0.991 -7.355 0.128 82.245
7387.75 0.129 82.192 0.991 -7.412 0.991 -7.412 0.129 82.192
7412.708 0.13 82.139 0.991 -7.468 0.991 -7.468 0.13 82.139
7437.667 0.131 82.086 0.99 -7.524 0.99 -7.524 0.131 82.086
7462.625 0.132 82.033 0.99 -7.58 0.99 -7.58 0.132 82.033
7487.583 0.133 81.98 0.99 -7.636 0.99 -7.636 0.133 81.98
7512.542 0.134 81.927 0.99 -7.692 0.99 -7.692 0.134 81.927
7537.5 0.135 81.874 0.99 -7.747 0.99 -7.747 0.135 81.874
7562.458 0.136 81.821 0.99 -7.803 0.99 -7.803 0.136 81.821
7587.417 0.137 81.768 0.99 -7.858 0.99 -7.858 0.137 81.768
7612.375 0.138 81.716 0.99 -7.913 0.99 -7.913 0.138 81.716
7637.333 0.139 81.663 0.989 -7.969 0.989 -7.969 0.139 81.663
7662.292 0.14 81.611 0.989 -8.024 0.989 -8.024 0.14 81.611
7687.25 0.141 81.558 0.989 -8.079 0.989 -8.079 0.141 81.558
7712.208 0.141 81.506 0.989 -8.134 0.989 -8.134 0.141 81.506
7737.167 0.142 81.454 0.989 -8.188 0.989 -8.188 0.142 81.454
7762.125 0.143 81.401 0.989 -8.243 0.989 -8.243 0.143 81.401
7787.083 0.144 81.349 0.989 -8.297 0.989 -8.297 0.144 81.349
7812.042 0.145 81.297 0.989 -8.352 0.989 -8.352 0.145 81.297
7837 0.146 81.245 0.988 -8.406 0.988 -8.406 0.146 81.245
7861.958 0.147 81.193 0.988 -8.46 0.988 -8.46 0.147 81.193
7886.917 0.148 81.141 0.988 -8.514 0.988 -8.514 0.148 81.141
7911.875 0.149 81.09 0.988 -8.568 0.988 -8.568 0.149 81.09
7936.833 0.15 81.038 0.988 -8.622 0.988 -8.622 0.15 81.038
7961.792 0.151 80.986 0.988 -8.676 0.988 -8.676 0.151 80.986
7986.75 0.152 80.935 0.988 -8.73 0.988 -8.73 0.152 80.935
8011.708 0.153 80.883 0.987 -8.783 0.987 -8.783 0.153 80.883
8036.667 0.154 80.832 0.987 -8.837 0.987 -8.837 0.154 80.832
8061.625 0.155 80.78 0.987 -8.89 0.987 -8.89 0.155 80.78
8086.583 0.155 80.729 0.987 -8.944 0.987 -8.944 0.155 80.729
8111.542 0.156 80.678 0.987 -8.997 0.987 -8.997 0.156 80.678
8136.5 0.157 80.626 0.987 -9.05 0.987 -9.05 0.157 80.626
8161.458 0.158 80.575 0.987 -9.103 0.987 -9.103 0.158 80.575
8186.417 0.159 80.524 0.986 -9.156 0.986 -9.156 0.159 80.524
8211.375 0.16 80.473 0.986 -9.209 0.986 -9.209 0.16 80.473
8236.333 0.161 80.422 0.986 -9.261 0.986 -9.261 0.161 80.422
8261.292 0.162 80.372 0.986 -9.314 0.986 -9.314 0.162 80.372
