# MHZ S MA R 50

50 0.999 -1.889 0.033 88.106 0.033 88.106 0.999 -1.889
74.958 0.999 -2.831 0.049 87.162 0.049 87.162 0.999 -2.831
99.917 0.998 -3.772 0.066 86.22 0.066 86.22 0.998 -3.772
124.875 0.997 -4.711 0.082 85.279 0.082 85.279 0.997 -4.711
149.833 0.995 -5.647 0.098 84.34 0.098 84.34 0.995 -5.647
174.792 0.993 -6.581 0.115 83.404 0.115 83.404 0.993 -6.581
199.75 0.991 -7.512 0.131 82.472 0.131 82.472 0.991 -7.512
224.708 0.989 -8.439 0.147 81.542 0.147 81.542 0.989 -8.439
249.667 0.987 -9.362 0.163 80.617 0.163 80.617 0.987 -9.362
274.625 0.984 -10.281 0.178 79.696 0.178 79.696 0.984 -10.281
299.583 0.981 -11.195 0.194 78.78 0.194 78.78 0.981 -11.195
324.542 0.978 -12.103 0.21 77.869 0.21 77.869 0.978 -12.103
349.5 0.974 -13.007 0.225 76.964 0.225 76.964 0.974 -13.007
374.458 0.971 -13.904 0.24 76.064 0.24 76.064 0.971 -13.904
399.417 0.967 -14.796 0.255 75.171 0.255 75.171 0.967 -14.796
424.375 0.963 -15.68 0.27 74.284 0.27 74.284 0.963 -15.68
449.333 0.958 -16.558 0.285 73.404 0.285 73.404 0.958 -16.558
474.292 0.954 -17.429 0.3 72.531 0.3 72.531 0.954 -17.429
499.25 0.949 -18.293 0.314 71.665 0.314 71.665 0.949 -18.293
524.208 0.944 -19.149 0.328 70.807 0.328 70.807 0.944 -19.149
549.167 0.939 -19.997 0.342 69.957 0.342 69.957 0.939 -19.997
574.125 0.934 -20.838 0.356 69.114 0.356 69.114 0.934 -20.838
599.083 0.929 -21.67 0.369 68.28 0.369 68.28 0.929 -21.67
624.042 0.924 -22.493 0.383 67.454 0.383 67.454 0.924 -22.493
649 0.918 -23.308 0.396 66.637 0.396 66.637 0.918 -23.308
673.958 0.912 -24.114 0.409 65.829 0.409 65.829 0.912 -24.114
698.917 0.907 -24.912 0.421 65.029 0.421 65.029 0.907 -24.912
723.875 0.901 -25.7 0.434 64.239 0.434 64.239 0.901 -25.7
748.833 0.895 -26.48 0.446 63.457 0.446 63.457 0.895 -26.48
773.792 0.888 -27.25 0.458 62.685 0.458 62.685 0.888 -27.25
798.75 0.882 -28.011 0.47 61.922 0.47 61.922 0.882 -28.011
823.708 0.876 -28.762 0.481 61.168 0.481 61.168 0.876 -28.762
848.667 0.87 -29.505 0.492 60.423 0.492 60.423 0.87 -29.505
873.625 0.863 -30.238 0.504 59.688 0.504 59.688 0.863 -30.238
898.583 0.857 -30.961 0.514 58.963 0.514 58.963 0.857 -30.961
923.542 0.85 -31.676 0.525 58.246 0.525 58.246 0.85 -31.676
948.5 0.844 -32.38 0.536 57.539 0.536 57.539 0.844 -32.38
973.458 0.837 -33.076 0.546 56.842 0.546 56.842 0.837 -33.076
998.417 0.831 -33.762 0.556 56.153 0.556 56.153 0.831 -33.762
1023.375 0.824 -34.439 0.566 55.474 0.566 55.474 0.824 -34.439
1048.333 0.817 -35.106 0.575 54.805 0.575 54.805 0.817 -35.106
1073.292 0.81 -35.764 0.584 54.144 0.584 54.144 0.81 -35.764
1098.25 0.804 -36.413 0.594 53.493 0.594 53.493 0.804 -36.413
1123.208 0.797 -37.053 0.603 52.851 0.603 52.851 0.797 -37.053
1148.167 0.79 -37.684 0.611 52.218 0.611 52.218 0.79 -37.684
1173.125 0.784 -38.306 0.62 51.594 0.62 51.594 0.784 -38.306
1198.083 0.777 -38.919 0.628 50.979 0.628 50.979 0.777 -38.919
1223.042 0.77 -39.523 0.636 50.373 0.636 50.373 0.77 -39.523
1248 0.764 -40.118 0.644 49.775 0.644 49.775 0.764 -40.118
1272.958 0.757 -40.705 0.652 49.186 0.652 49.186 0.757 -40.705
1297.917 0.75 -41.283 0.66 48.606 0.66 48.606 0.75 -41.283
1322.875 0.744 -41.853 0.667 48.034 0.667 48.034 0.744 -41.853
1347.833 0.737 -42.414 0.674 47.47 0.674 47.47 0.737 -42.414
1372.792 0.73 -42.967 0.682 46.915 0.682 46.915 0.73 -42.967
1397.75 0.724 -43.512 0.689 46.368 0.689 46.368 0.724 -43.512
1422.708 0.717 -44.049 0.695 45.828 0.695 45.828 0.717 -44.049
1447.667 0.711 -44.578 0.702 45.297 0.702 45.297 0.711 -44.578
1472.625 0.704 -45.099 0.708 44.773 0.708 44.773 0.704 -45.099
1497.583 0.698 -45.613 0.715 44.258 0.715 44.258 0.698 -45.613
1522.542 0.692 -46.119 0.721 43.749 0.721 43.749 0.692 -46.119
1547.5 0.685 -46.617 0.727 43.249 0.727 43.249 0.685 -46.617
1572.458 0.679 -47.108 0.733 42.755 0.733 42.755 0.679 -47.108
1597.417 0.673 -47.592 0.738 42.269 0.738 42.269 0.673 -47.592
1622.375 0.666 -48.069 0.744 41.79 0.744 41.79 0.666 -48.069
1647.333 0.66 -48.539 0.749 41.317 0.749 41.317 0.66 -48.539
1672.292 0.654 -49.002 0.755 40.852 0.755 40.852 0.654 -49.002
1697.25 0.648 -49.458 0.76 40.394 0.76 40.394 0.648 -49.458
1722.208 0.642 -49.907 0.765 39.942 0.765 39.942 0.642 -49.907
1747.167 0.636 -50.35 0.77 39.497 0.77 39.497 0.636 -50.35
1772.125 0.63 -50.787 0.775 39.058 0.775 39.058 0.63 -50.787
1797.083 0.624 -51.217 0.78 38.625 0.78 38.625 0.624 -51.217
1822.042 0.618 -51.641 0.784 38.199 0.784 38.199 0.618 -51.641
1847 0.613 -52.058 0.789 37.779 0.789 37.779 0.613 -52.058
1871.958 0.607 -52.47 0.793 37.364 0.793 37.364 0.607 -52.47
1896.917 0.601 -52.876 0.797 36.956 0.797 36.956 0.601 -52.876
1921.875 0.596 -53.276 0.802 36.553 0.802 36.553 0.596 -53.276
1946.833 0.59 -53.671 0.806 36.157 0.806 36.157 0.59 -53.671
1971.792 0.584 -54.059 0.81 35.765 0.81 35.765 0.584 -54.059
1996.75 0.579 -54.443 0.814 35.379 0.814 35.379 0.579 -54.443
2021.708 0.574 -54.821 0.817 34.999 0.817 34.999 0.574 -54.821
2046.667 0.568 -55.193 0.821 34.624 0.821 34.624 0.568 -55.193
2071.625 0.563 -55.561 0.825 34.254 0.825 34.254 0.563 -55.561
2096.583 0.558 -55.923 0.828 33.889 0.828 33.889 0.558 -55.923
2121.542 0.552 -56.28 0.832 33.529 0.832 33.529 0.552 -56.28
2146.5 0.547 -56.633 0.835 33.174 0.835 33.174 0.547 -56.633
2171.458 0.542 -56.98 0.838 32.824 0.838 32.824 0.542 -56.98
2196.417 0.537 -57.323 0.842 32.478 0.842 32.478 0.537 -57.323
2221.375 0.532 -57.662 0.845 32.137 0.845 32.137 0.532 -57.662
2246.333 0.527 -57.995 0.848 31.801 0.848 31.801 0.527 -57.995
2271.292 0.522 -58.324 0.851 31.469 0.851 31.469 0.522 -58.324
2296.25 0.517 -58.649 0.854 31.142 0.854 31.142 0.517 -58.649
2321.208 0.512 -58.97 0.857 30.818 0.857 30.818 0.512 -58.97
2346.167 0.508 -59.286 0.86 30.5 0.86 30.5 0.508 -59.286
2371.125 0.503 -59.598 0.863 30.185 0.863 30.185 0.503 -59.598
2396.083 0.498 -59.906 0.865 29.874 0.865 29.874 0.498 -59.906
2421.042 0.493 -60.21 0.868 29.567 0.868 29.567 0.493 -60.21
2446 0.489 -60.51 0.87 29.264 0.87 29.264 0.489 -60.51
2470.958 0.484 -60.806 0.873 28.965 0.873 28.965 0.484 -60.806
2495.917 0.48 -61.099 0.875 28.67 0.875 28.67 0.48 -61.099
2520.875 0.475 -61.387 0.878 28.379 0.878 28.379 0.475 -61.387
2545.833 0.471 -61.672 0.88 28.091 0.88 28.091 0.471 -61.672
2570.792 0.466 -61.954 0.883 27.807 0.883 27.807 0.466 -61.954
2595.75 0.462 -62.232 0.885 27.526 0.885 27.526 0.462 -62.232
2620.708 0.458 -62.506 0.887 27.248 0.887 27.248 0.458 -62.506
2645.667 0.454 -62.777 0.889 26.974 0.889 26.974 0.454 -62.777
2670.625 0.449 -63.045 0.891 26.704 0.891 26.704 0.449 -63.045
2695.583 0.445 -63.31 0.893 26.436 0.893 26.436 0.445 -63.31
2720.542 0.441 -63.571 0.895 26.172 0.895 26.172 0.441 -63.571
2745.5 0.437 -63.829 0.897 25.911 0.897 25.911 0.437 -63.829
2770.458 0.433 -64.084 0.899 25.653 0.899 25.653 0.433 -64.084
2795.417 0.429 -64.336 0.901 25.398 0.901 25.398 0.429 -64.336
2820.375 0.425 -64.585 0.903 25.146 0.903 25.146 0.425 -64.585
2845.333 0.421 -64.831 0.905 24.897 0.905 24.897 0.421 -64.831
2870.292 0.417 -65.074 0.907 24.65 0.907 24.65 0.417 -65.074
2895.25 0.413 -65.315 0.909 24.407 0.909 24.407 0.413 -65.315
2920.208 0.409 -65.552 0.91 24.166 0.91 24.166 0.409 -65.552
2945.167 0.406 -65.787 0.912 23.928 0.912 23.928 0.406 -65.787
2970.125 0.402 -66.019 0.914 23.693 0.914 23.693 0.402 -66.019
2995.083 0.398 -66.248 0.915 23.46 0.915 23.46 0.398 -66.248
3020.042 0.394 -66.475 0.917 23.23 0.917 23.23 0.394 -66.475
3045 0.391 -66.7 0.918 23.003 0.918 23.003 0.391 -66.7
3069.958 0.387 -66.922 0.92 22.777 0.92 22.777 0.387 -66.922
3094.917 0.384 -67.141 0.921 22.555 0.921 22.555 0.384 -67.141
3119.875 0.38 -67.358 0.923 22.335 0.923 22.335 0.38 -67.358
3144.833 0.376 -67.572 0.924 22.117 0.924 22.117 0.376 -67.572
3169.792 0.373 -67.785 0.926 21.901 0.926 21.901 0.373 -67.785
3194.75 0.37 -67.995 0.927 21.688 0.927 21.688 0.37 -67.995
3219.708 0.366 -68.202 0.929 21.477 0.929 21.477 0.366 -68.202
3244.667 0.363 -68.408 0.93 21.268 0.93 21.268 0.363 -68.408
3269.625 0.359 -68.611 0.931 21.061 0.931 21.061 0.359 -68.611
3294.583 0.356 -68.812 0.932 20.856 0.932 20.856 0.356 -68.812
3319.542 0.353 -69.011 0.934 20.654 0.934 20.654 0.353 -69.011
3344.5 0.349 -69.208 0.935 20.453 0.935 20.453 0.349 -69.208
3369.458 0.346 -69.403 0.936 20.255 0.936 20.255 0.346 -69.403
3394.417 0.343 -69.596 0.937 20.058 0.937 20.058 0.343 -69.596
3419.375 0.34 -69.787 0.938 19.864 0.938 19.864 0.34 -69.787
3444.333 0.337 -69.976 0.94 19.671 0.94 19.671 0.337 -69.976
3469.292 0.333 -70.163 0.941 19.48 0.941 19.48 0.333 -70.163
3494.25 0.33 -70.348 0.942 19.291 0.942 19.291 0.33 -70.348
3519.208 0.327 -70.531 0.943 19.104 0.943 19.104 0.327 -70.531
3544.167 0.324 -70.712 0.944 18.919 0.944 18.919 0.324 -70.712
3569.125 0.321 -70.892 0.945 18.735 0.945 18.735 0.321 -70.892
3594.083 0.318 -71.07 0.946 18.554 0.946 18.554 0.318 -71.07
3619.042 0.315 -71.246 0.947 18.373 0.947 18.373 0.315 -71.246
3644 0.312 -71.42 0.948 18.195 0.948 18.195 0.312 -71.42
3668.958 0.309 -71.593 0.949 18.018 0.949 18.018 0.309 -71.593
3693.917 0.306 -71.764 0.95 17.843 0.95 17.843 0.306 -71.764
3718.875 0.304 -71.934 0.951 17.67 0.951 17.67 0.304 -71.934
3743.833 0.301 -72.101 0.952 17.498 0.952 17.498 0.301 -72.101
3768.792 0.298 -72.268 0.953 17.327 0.953 17.327 0.298 -72.268
3793.75 0.295 -72.432 0.953 17.158 0.953 17.158 0.295 -72.432
3818.708 0.292 -72.595 0.954 16.991 0.954 16.991 0.292 -72.595
3843.667 0.289 -72.757 0.955 16.825 0.955 16.825 0.289 -72.757
3868.625 0.287 -72.917 0.956 16.661 0.956 16.661 0.287 -72.917
3893.583 0.284 -73.076 0.957 16.498 0.957 16.498 0.284 -73.076
3918.542 0.281 -73.233 0.958 16.336 0.958 16.336 0.281 -73.233
3943.5 0.279 -73.389 0.958 16.176 0.958 16.176 0.279 -73.389
3968.458 0.276 -73.543 0.959 16.017 0.959 16.017 0.276 -73.543
3993.417 0.273 -73.696 0.96 15.859 0.96 15.859 0.273 -73.696
4018.375 0.271 -73.847 0.961 15.703 0.961 15.703 0.271 -73.847
4043.333 0.268 -73.997 0.961 15.548 0.961 15.548 0.268 -73.997
4068.292 0.265 -74.146 0.962 15.395 0.962 15.395 0.265 -74.146
4093.25 0.263 -74.294 0.963 15.242 0.963 15.242 0.263 -74.294
4118.208 0.26 -74.44 0.963 15.091 0.963 15.091 0.26 -74.44
4143.167 0.258 -74.585 0.964 14.941 0.964 14.941 0.258 -74.585
4168.125 0.255 -74.729 0.965 14.793 0.965 14.793 0.255 -74.729
4193.083 0.253 -74.871 0.965 14.645 0.965 14.645 0.253 -74.871
4218.042 0.25 -75.012 0.966 14.499 0.966 14.499 0.25 -75.012
4243 0.248 -75.152 0.967 14.354 0.967 14.354 0.248 -75.152
4267.958 0.245 -75.291 0.967 14.21 0.967 14.21 0.245 -75.291
4292.917 0.243 -75.429 0.968 14.067 0.968 14.067 0.243 -75.429
4317.875 0.241 -75.565 0.968 13.925 0.968 13.925 0.241 -75.565
4342.833 0.238 -75.7 0.969 13.785 0.969 13.785 0.238 -75.7
4367.792 0.236 -75.834 0.97 13.645 0.97 13.645 0.236 -75.834
4392.75 0.234 -75.967 0.97 13.507 0.97 13.507 0.234 -75.967
4417.708 0.231 -76.099 0.971 13.369 0.971 13.369 0.231 -76.099
4442.667 0.229 -76.23 0.971 13.233 0.971 13.233 0.229 -76.23
4467.625 0.227 -76.36 0.972 13.097 0.972 13.097 0.227 -76.36
4492.583 0.224 -76.488 0.972 12.963 0.972 12.963 0.224 -76.488
4517.542 0.222 -76.616 0.973 12.829 0.973 12.829 0.222 -76.616
4542.5 0.22 -76.742 0.973 12.697 0.973 12.697 0.22 -76.742
4567.458 0.218 -76.868 0.974 12.565 0.974 12.565 0.218 -76.868
4592.417 0.215 -76.992 0.974 12.435 0.974 12.435 0.215 -76.992
4617.375 0.213 -77.116 0.975 12.305 0.975 12.305 0.213 -77.116
4642.333 0.211 -77.238 0.975 12.176 0.975 12.176 0.211 -77.238
4667.292 0.209 -77.36 0.976 12.048 0.976 12.048 0.209 -77.36
4692.25 0.207 -77.48 0.976 11.922 0.976 11.922 0.207 -77.48
4717.208 0.204 -77.599 0.977 11.795 0.977 11.795 0.204 -77.599
4742.167 0.202 -77.718 0.977 11.67 0.977 11.67 0.202 -77.718
4767.125 0.2 -77.835 0.978 11.546 0.978 11.546 0.2 -77.835
4792.083 0.198 -77.952 0.978 11.423 0.978 11.423 0.198 -77.952
4817.042 0.196 -78.068 0.978 11.3 0.978 11.3 0.196 -78.068
4842 0.194 -78.182 0.979 11.178 0.979 11.178 0.194 -78.182
4866.958 0.192 -78.296 0.979 11.057 0.979 11.057 0.192 -78.296
4891.917 0.19 -78.409 0.98 10.937 0.98 10.937 0.19 -78.409
4916.875 0.188 -78.521 0.98 10.818 0.98 10.818 0.188 -78.521
4941.833 0.186 -78.632 0.98 10.699 0.98 10.699 0.186 -78.632
4966.792 0.184 -78.742 0.981 10.581 0.981 10.581 0.184 -78.742
4991.75 0.182 -78.852 0.981 10.464 0.981 10.464 0.182 -78.852
5016.708 0.18 -78.96 0.982 10.348 0.982 10.348 0.18 -78.96
5041.667 0.178 -79.068 0.982 10.232 0.982 10.232 0.178 -79.068
5066.625 0.176 -79.175 0.982 10.117 0.982 10.117 0.176 -79.175
5091.583 0.174 -79.281 0.983 10.003 0.983 10.003 0.174 -79.281
5116.542 0.172 -79.386 0.983 9.89 0.983 9.89 0.172 -79.386
5141.5 0.17 -79.49 0.983 9.777 0.983 9.777 0.17 -79.49
5166.458 0.168 -79.593 0.984 9.665 0.984 9.665 0.168 -79.593
5191.417 0.166 -79.696 0.984 9.554 0.984 9.554 0.166 -79.696
5216.375 0.164 -79.797 0.984 9.443 0.984 9.443 0.164 -79.797
5241.333 0.162 -79.898 0.985 9.333 0.985 9.333 0.162 -79.898
5266.292 0.16 -79.998 0.985 9.224 0.985 9.224 0.16 -79.998
5291.25 0.158 -80.097 0.985 9.115 0.985 9.115 0.158 -80.097
5316.208 0.157 -80.196 0.985 9.007 0.985 9.007 0.157 -80.196
5341.167 0.155 -80.294 0.986 8.9 0.986 8.9 0.155 -80.294
5366.125 0.153 -80.39 0.986 8.793 0.986 8.793 0.153 -80.39
5391.083 0.151 -80.486 0.986 8.687 0.986 8.687 0.151 -80.486
5416.042 0.149 -80.582 0.987 8.581 0.987 8.581 0.149 -80.582
5441 0.147 -80.676 0.987 8.476 0.987 8.476 0.147 -80.676
5465.958 0.146 -80.77 0.987 8.372 0.987 8.372 0.146 -80.77
5490.917 0.144 -80.862 0.987 8.268 0.987 8.268 0.144 -80.862
5515.875 0.142 -80.954 0.988 8.165 0.988 8.165 0.142 -80.954
5540.833 0.14 -81.046 0.988 8.062 0.988 8.062 0.14 -81.046
5565.792 0.139 -81.136 0.988 7.96 0.988 7.96 0.139 -81.136
5590.75 0.137 -81.226 0.988 7.859 0.988 7.859 0.137 -81.226
5615.708 0.135 -81.314 0.989 7.758 0.989 7.758 0.135 -81.314
5640.667 0.133 -81.402 0.989 7.658 0.989 7.658 0.133 -81.402
5665.625 0.132 -81.49 0.989 7.558 0.989 7.558 0.132 -81.49
5690.583 0.13 -81.576 0.989 7.459 0.989 7.459 0.13 -81.576
5715.542 0.128 -81.662 0.99 7.36 0.99 7.36 0.128 -81.662
5740.5 0.126 -81.747 0.99 7.262 0.99 7.262 0.126 -81.747
5765.458 0.125 -81.831 0.99 7.164 0.99 7.164 0.125 -81.831
5790.417 0.123 -81.914 0.99 7.067 0.99 7.067 0.123 -81.914
5815.375 0.121 -81.996 0.99 6.97 0.99 6.97 0.121 -81.996
5840.333 0.12 -82.078 0.991 6.874 0.991 6.874 0.12 -82.078
5865.292 0.118 -82.158 0.991 6.779 0.991 6.779 0.118 -82.158
5890.25 0.116 -82.238 0.991 6.683 0.991 6.683 0.116 -82.238
5915.208 0.115 -82.317 0.991 6.589 0.991 6.589 0.115 -82.317
5940.167 0.113 -82.396 0.991 6.494 0.991 6.494 0.113 -82.396
5965.125 0.112 -82.473 0.992 6.401 0.992 6.401 0.112 -82.473
5990.083 0.11 -82.549 0.992 6.308 0.992 6.308 0.11 -82.549
6015.042 0.108 -82.625 0.992 6.215 0.992 6.215 0.108 -82.625
6040 0.107 -82.7 0.992 6.122 0.992 6.122 0.107 -82.7
6064.958 0.105 -82.774 0.992 6.03 0.992 6.03 0.105 -82.774
6089.917 0.103 -82.846 0.992 5.939 0.992 5.939 0.103 -82.846
6114.875 0.102 -82.918 0.993 5.848 0.993 5.848 0.102 -82.918
6139.833 0.1 -82.989 0.993 5.757 0.993 5.757 0.1 -82.989
6164.792 0.099 -83.059 0.993 5.667 0.993 5.667 0.099 -83.059
6189.75 0.097 -83.129 0.993 5.578 0.993 5.578 0.097 -83.129
6214.708 0.096 -83.197 0.993 5.488 0.993 5.488 0.096 -83.197
6239.667 0.094 -83.264 0.993 5.4 0.993 5.4 0.094 -83.264
6264.625 0.093 -83.33 0.994 5.311 0.994 5.311 0.093 -83.33
6289.583 0.091 -83.395 0.994 5.223 0.994 5.223 0.091 -83.395
6314.542 0.09 -83.459 0.994 5.135 0.994 5.135 0.09 -83.459
6339.5 0.088 -83.522 0.994 5.048 0.994 5.048 0.088 -83.522
6364.458 0.087 -83.583 0.994 4.961 0.994 4.961 0.087 -83.583
6389.417 0.085 -83.644 0.994 4.875 0.994 4.875 0.085 -83.644
6414.375 0.084 -83.703 0.994 4.789 0.994 4.789 0.084 -83.703
6439.333 0.082 -83.761 0.994 4.703 0.994 4.703 0.082 -83.761
6464.292 0.081 -83.818 0.995 4.618 0.995 4.618 0.081 -83.818
6489.25 0.079 -83.873 0.995 4.533 0.995 4.533 0.079 -83.873
6514.208 0.078 -83.928 0.995 4.449 0.995 4.449 0.078 -83.928
6539.167 0.076 -83.98 0.995 4.364 0.995 4.364 0.076 -83.98
6564.125 0.075 -84.032 0.995 4.281 0.995 4.281 0.075 -84.032
6589.083 0.073 -84.081 0.995 4.197 0.995 4.197 0.073 -84.081
6614.042 0.072 -84.13 0.995 4.114 0.995 4.114 0.072 -84.13
6639 0.07 -84.176 0.995 4.031 0.995 4.031 0.07 -84.176
6663.958 0.069 -84.221 0.995 3.949 0.995 3.949 0.069 -84.221
6688.917 0.067 -84.264 0.996 3.867 0.996 3.867 0.067 -84.264
6713.875 0.066 -84.305 0.996 3.785 0.996 3.785 0.066 -84.305
6738.833 0.065 -84.345 0.996 3.704 0.996 3.704 0.065 -84.345
6763.792 0.063 -84.382 0.996 3.623 0.996 3.623 0.063 -84.382
6788.75 0.062 -84.417 0.996 3.542 0.996 3.542 0.062 -84.417
6813.708 0.06 -84.45 0.996 3.462 0.996 3.462 0.06 -84.45
6838.667 0.059 -84.481 0.996 3.382 0.996 3.382 0.059 -84.481
6863.625 0.058 -84.509 0.996 3.302 0.996 3.302 0.058 -84.509
6888.583 0.056 -84.534 0.996 3.223 0.996 3.223 0.056 -84.534
6913.542 0.055 -84.557 0.996 3.144 0.996 3.144 0.055 -84.557
6938.5 0.054 -84.576 0.996 3.065 0.996 3.065 0.054 -84.576
6963.458 0.052 -84.593 0.996 2.987 0.996 2.987 0.052 -84.593
6988.417 0.051 -84.606 0.997 2.908 0.997 2.908 0.051 -84.606
7013.375 0.049 -84.615 0.997 2.831 0.997 2.831 0.049 -84.615
7038.333 0.048 -84.621 0.997 2.753 0.997 2.753 0.048 -84.621
7063.292 0.047 -84.622 0.997 2.676 0.997 2.676 0.047 -84.622
7088.25 0.045 -84.619 0.997 2.599 0.997 2.599 0.045 -84.619
7113.208 0.044 -84.611 0.997 2.522 0.997 2.522 0.044 -84.611
7138.167 0.043 -84.598 0.997 2.446 0.997 2.446 0.043 -84.598
7163.125 0.041 -84.58 0.997 2.37 0.997 2.37 0.041 -84.58
7188.083 0.04 -84.555 0.997 2.294 0.997 2.294 0.04 -84.555
7213.042 0.039 -84.523 0.997 2.219 0.997 2.219 0.039 -84.523
7238 0.037 -84.484 0.997 2.144 0.997 2.144 0.037 -84.484
7262.958 0.036 -84.437 0.997 2.069 0.997 2.069 0.036 -84.437
7287.917 0.035 -84.381 0.997 1.994 0.997 1.994 0.035 -84.381
7312.875 0.034 -84.315 0.997 1.92 0.997 1.92 0.034 -84.315
7337.833 0.032 -84.239 0.997 1.845 0.997 1.845 0.032 -84.239
7362.792 0.031 -84.15 0.997 1.772 0.997 1.772 0.031 -84.15
7387.75 0.03 -84.047 0.997 1.698 0.997 1.698 0.03 -84.047
7412.708 0.028 -83.929 0.997 1.625 0.997 1.625 0.028 -83.929
7437.667 0.027 -83.794 0.997 1.552 0.997 1.552 0.027 -83.794
7462.625 0.026 -83.638 0.997 1.479 0.997 1.479 0.026 -83.638
7487.583 0.025 -83.46 0.997 1.406 0.997 1.406 0.025 -83.46
7512.542 0.023 -83.256 0.998 1.334 0.998 1.334 0.023 -83.256
7537.5 0.022 -83.021 0.998 1.262 0.998 1.262 0.022 -83.021
7562.458 0.021 -82.75 0.998 1.19 0.998 1.19 0.021 -82.75
7587.417 0.02 -82.437 0.998 1.119 0.998 1.119 0.02 -82.437
7612.375 0.018 -82.073 0.998 1.047 0.998 1.047 0.018 -82.073
7637.333 0.017 -81.649 0.998 0.976 0.998 0.976 0.017 -81.649
7662.292 0.016 -81.15 0.998 0.905 0.998 0.905 0.016 -81.15
7687.25 0.015 -80.558 0.998 0.835 0.998 0.835 0.015 -80.558
7712.208 0.014 -79.85 0.998 0.764 0.998 0.764 0.014 -79.85
7737.167 0.012 -78.991 0.998 0.694 0.998 0.694 0.012 -78.991
7762.125 0.011 -77.935 0.998 0.624 0.998 0.624 0.011 -77.935
7787.083 9.93e-3 -76.613 0.998 0.555 0.998 0.555 9.93e-3 -76.613
7812.042 8.753e-3 -74.921 0.998 0.485 0.998 0.485 8.753e-3 -74.921
7837 7.59e-3 -72.692 0.998 0.416 0.998 0.416 7.59e-3 -72.692
7861.958 6.447e-3 -69.65 0.998 0.347 0.998 0.347 6.447e-3 -69.65
7886.917 5.335e-3 -65.305 0.998 0.278 0.998 0.278 5.335e-3 -65.305
7911.875 4.275e-3 -58.731 0.998 0.21 0.998 0.21 4.275e-3 -58.731
7936.833 3.311e-3 -48.089 0.998 0.141 0.998 0.141 3.311e-3 -48.089
7961.792 2.55e-3 -30.067 0.998 0.073 0.998 0.073 2.55e-3 -30.067
7986.75 2.208e-3 -2.473 0.998 5.469e-3 0.998 5.469e-3 2.208e-3 -2.473
8011.708 2.458e-3 26.152 0.998 -0.062 0.998 -0.062 2.458e-3 26.152
8036.667 3.16e-3 45.616 0.998 -0.13 0.998 -0.13 3.16e-3 45.616
8061.625 4.084e-3 57.121 0.998 -0.197 0.998 -0.197 4.084e-3 57.121
8086.583 5.109e-3 64.16 0.998 -0.264 0.998 -0.264 5.109e-3 64.16
8111.542 6.182e-3 68.767 0.998 -0.331 0.998 -0.331 6.182e-3 68.767
8136.5 7.28e-3 71.969 0.998 -0.398 0.998 -0.398 7.28e-3 71.969
8161.458 8.393e-3 74.302 0.998 -0.464 0.998 -0.464 8.393e-3 74.302
