# MHZ S MA R 50

50 0.999 -1.979 0.035 88.016 0.035 88.016 0.999 -1.979
74.958 0.999 -2.966 0.052 87.028 0.052 87.028 0.999 -2.966
99.917 0.998 -3.951 0.069 86.04 0.069 86.04 0.998 -3.951
124.875 0.996 -4.934 0.086 85.055 0.086 85.055 0.996 -4.934
149.833 0.995 -5.914 0.103 84.073 0.103 84.073 0.995 -5.914
174.792 0.993 -6.892 0.12 83.094 0.12 83.094 0.993 -6.892
199.75 0.991 -7.865 0.137 82.118 0.137 82.118 0.991 -7.865
224.708 0.988 -8.835 0.154 81.146 0.154 81.146 0.988 -8.835
249.667 0.985 -9.8 0.17 80.179 0.17 80.179 0.985 -9.8
274.625 0.982 -10.76 0.187 79.217 0.187 79.217 0.982 -10.76
299.583 0.979 -11.714 0.203 78.261 0.203 78.261 0.979 -11.714
324.542 0.976 -12.663 0.219 77.31 0.219 77.31 0.976 -12.663
349.5 0.972 -13.605 0.235 76.365 0.235 76.365 0.972 -13.605
374.458 0.968 -14.54 0.251 75.428 0.251 75.428 0.968 -14.54
399.417 0.964 -15.469 0.267 74.497 0.267 74.497 0.964 -15.469
424.375 0.959 -16.39 0.282 73.574 0.282 73.574 0.959 -16.39
449.333 0.955 -17.303 0.297 72.658 0.297 72.658 0.955 -17.303
474.292 0.95 -18.209 0.312 71.751 0.312 71.751 0.95 -18.209
499.25 0.945 -19.106 0.327 70.852 0.327 70.852 0.945 -19.106
524.208 0.939 -19.994 0.342 69.961 0.342 69.961 0.939 -19.994
549.167 0.934 -20.874 0.356 69.08 0.356 69.08 0.934 -20.874
574.125 0.929 -21.744 0.37 68.207 0.37 68.207 0.929 -21.744
599.083 0.923 -22.605 0.384 67.344 0.384 67.344 0.923 -22.605
624.042 0.917 -23.457 0.398 66.49 0.398 66.49 0.917 -23.457
649 0.911 -24.299 0.412 65.645 0.412 65.645 0.911 -24.299
673.958 0.905 -25.131 0.425 64.811 0.425 64.811 0.905 -25.131
698.917 0.899 -25.954 0.438 63.986 0.438 63.986 0.899 -25.954
723.875 0.892 -26.766 0.45 63.172 0.45 63.172 0.892 -26.766
748.833 0.886 -27.568 0.463 62.368 0.463 62.368 0.886 -27.568
773.792 0.879 -28.36 0.475 61.573 0.475 61.573 0.879 -28.36
798.75 0.873 -29.142 0.487 60.789 0.487 60.789 0.873 -29.142
823.708 0.866 -29.914 0.499 60.016 0.499 60.016 0.866 -29.914
848.667 0.859 -30.675 0.51 59.252 0.51 59.252 0.859 -30.675
873.625 0.853 -31.426 0.521 58.499 0.521 58.499 0.853 -31.426
898.583 0.846 -32.166 0.532 57.757 0.532 57.757 0.846 -32.166
923.542 0.839 -32.896 0.543 57.024 0.543 57.024 0.839 -32.896
948.5 0.832 -33.616 0.554 56.302 0.554 56.302 0.832 -33.616
973.458 0.825 -34.326 0.564 55.59 0.564 55.59 0.825 -34.326
998.417 0.818 -35.025 0.574 54.889 0.574 54.889 0.818 -35.025
1023.375 0.811 -35.714 0.584 54.198 0.584 54.198 0.811 -35.714
1048.333 0.804 -36.393 0.593 53.516 0.593 53.516 0.804 -36.393
1073.292 0.797 -37.062 0.603 52.845 0.603 52.845 0.797 -37.062
1098.25 0.79 -37.721 0.612 52.184 0.612 52.184 0.79 -37.721
1123.208 0.783 -38.37 0.621 51.533 0.621 51.533 0.783 -38.37
1148.167 0.776 -39.01 0.629 50.891 0.629 50.891 0.776 -39.01
1173.125 0.769 -39.639 0.638 50.259 0.638 50.259 0.769 -39.639
1198.083 0.762 -40.259 0.646 49.637 0.646 49.637 0.762 -40.259
1223.042 0.755 -40.87 0.654 49.024 0.654 49.024 0.755 -40.87
1248 0.748 -41.471 0.662 48.42 0.662 48.42 0.748 -41.471
1272.958 0.741 -42.063 0.67 47.826 0.67 47.826 0.741 -42.063
1297.917 0.734 -42.646 0.677 47.241 0.677 47.241 0.734 -42.646
1322.875 0.727 -43.22 0.685 46.665 0.685 46.665 0.727 -43.22
1347.833 0.721 -43.785 0.692 46.098 0.692 46.098 0.721 -43.785
1372.792 0.714 -44.341 0.699 45.539 0.699 45.539 0.714 -44.341
1397.75 0.707 -44.888 0.706 44.989 0.706 44.989 0.707 -44.888
1422.708 0.7 -45.427 0.712 44.448 0.712 44.448 0.7 -45.427
1447.667 0.694 -45.958 0.719 43.915 0.719 43.915 0.694 -45.958
1472.625 0.687 -46.481 0.725 43.39 0.725 43.39 0.687 -46.481
1497.583 0.68 -46.995 0.731 42.873 0.731 42.873 0.68 -46.995
1522.542 0.674 -47.501 0.737 42.364 0.737 42.364 0.674 -47.501
1547.5 0.667 -48 0.743 41.864 0.743 41.864 0.667 -48
1572.458 0.661 -48.491 0.749 41.37 0.749 41.37 0.661 -48.491
1597.417 0.655 -48.974 0.754 40.885 0.754 40.885 0.655 -48.974
1622.375 0.648 -49.45 0.76 40.406 0.76 40.406 0.648 -49.45
1647.333 0.642 -49.918 0.765 39.935 0.765 39.935 0.642 -49.918
1672.292 0.636 -50.38 0.77 39.472 0.77 39.472 0.636 -50.38
1697.25 0.63 -50.834 0.775 39.015 0.775 39.015 0.63 -50.834
1722.208 0.623 -51.281 0.78 38.565 0.78 38.565 0.623 -51.281
1747.167 0.617 -51.722 0.785 38.122 0.785 38.122 0.617 -51.722
1772.125 0.611 -52.156 0.79 37.686 0.79 37.686 0.611 -52.156
1797.083 0.605 -52.583 0.794 37.256 0.794 37.256 0.605 -52.583
1822.042 0.599 -53.004 0.799 36.833 0.799 36.833 0.599 -53.004
1847 0.594 -53.419 0.803 36.415 0.803 36.415 0.594 -53.419
1871.958 0.588 -53.827 0.807 36.005 0.807 36.005 0.588 -53.827
1896.917 0.582 -54.229 0.811 35.6 0.811 35.6 0.582 -54.229
1921.875 0.576 -54.626 0.815 35.201 0.815 35.201 0.576 -54.626
1946.833 0.571 -55.016 0.819 34.808 0.819 34.808 0.571 -55.016
1971.792 0.565 -55.401 0.823 34.42 0.823 34.42 0.565 -55.401
1996.75 0.56 -55.78 0.827 34.039 0.827 34.039 0.56 -55.78
2021.708 0.554 -56.154 0.831 33.662 0.831 33.662 0.554 -56.154
2046.667 0.549 -56.522 0.834 33.291 0.834 33.291 0.549 -56.522
2071.625 0.544 -56.885 0.838 32.926 0.838 32.926 0.544 -56.885
2096.583 0.538 -57.243 0.841 32.566 0.841 32.566 0.538 -57.243
2121.542 0.533 -57.595 0.844 32.21 0.844 32.21 0.533 -57.595
2146.5 0.528 -57.943 0.848 31.86 0.848 31.86 0.528 -57.943
2171.458 0.523 -58.286 0.851 31.515 0.851 31.515 0.523 -58.286
2196.417 0.518 -58.624 0.854 31.174 0.854 31.174 0.518 -58.624
2221.375 0.513 -58.957 0.857 30.838 0.857 30.838 0.513 -58.957
2246.333 0.508 -59.285 0.86 30.507 0.86 30.507 0.508 -59.285
2271.292 0.503 -59.61 0.863 30.18 0.863 30.18 0.503 -59.61
2296.25 0.498 -59.929 0.865 29.858 0.865 29.858 0.498 -59.929
2321.208 0.493 -60.244 0.868 29.54 0.868 29.54 0.493 -60.244
2346.167 0.488 -60.555 0.871 29.226 0.871 29.226 0.488 -60.555
2371.125 0.484 -60.862 0.873 28.916 0.873 28.916 0.484 -60.862
2396.083 0.479 -61.165 0.876 28.611 0.876 28.611 0.479 -61.165
2421.042 0.474 -61.463 0.879 28.31 0.879 28.31 0.474 -61.463
2446 0.47 -61.758 0.881 28.012 0.881 28.012 0.47 -61.758
2470.958 0.465 -62.048 0.883 27.719 0.883 27.719 0.465 -62.048
2495.917 0.461 -62.335 0.886 27.429 0.886 27.429 0.461 -62.335
2520.875 0.456 -62.619 0.888 27.143 0.888 27.143 0.456 -62.619
2545.833 0.452 -62.898 0.89 26.86 0.89 26.86 0.452 -62.898
2570.792 0.447 -63.174 0.892 26.581 0.892 26.581 0.447 -63.174
2595.75 0.443 -63.446 0.895 26.306 0.895 26.306 0.443 -63.446
2620.708 0.439 -63.715 0.897 26.034 0.897 26.034 0.439 -63.715
2645.667 0.435 -63.981 0.899 25.766 0.899 25.766 0.435 -63.981
2670.625 0.431 -64.243 0.901 25.5 0.901 25.5 0.431 -64.243
2695.583 0.426 -64.502 0.903 25.238 0.903 25.238 0.426 -64.502
2720.542 0.422 -64.758 0.905 24.98 0.905 24.98 0.422 -64.758
2745.5 0.418 -65.01 0.906 24.724 0.906 24.724 0.418 -65.01
2770.458 0.414 -65.26 0.908 24.471 0.908 24.471 0.414 -65.26
2795.417 0.41 -65.506 0.91 24.222 0.91 24.222 0.41 -65.506
2820.375 0.406 -65.75 0.912 23.975 0.912 23.975 0.406 -65.75
2845.333 0.402 -65.99 0.913 23.732 0.913 23.732 0.402 -65.99
2870.292 0.399 -66.228 0.915 23.491 0.915 23.491 0.399 -66.228
2895.25 0.395 -66.462 0.917 23.253 0.917 23.253 0.395 -66.462
2920.208 0.391 -66.695 0.918 23.017 0.918 23.017 0.391 -66.695
2945.167 0.387 -66.924 0.92 22.785 0.92 22.785 0.387 -66.924
2970.125 0.384 -67.151 0.922 22.555 0.922 22.555 0.384 -67.151
2995.083 0.38 -67.375 0.923 22.327 0.923 22.327 0.38 -67.375
3020.042 0.376 -67.596 0.925 22.103 0.925 22.103 0.376 -67.596
3045 0.373 -67.815 0.926 21.88 0.926 21.88 0.373 -67.815
3069.958 0.369 -68.031 0.927 21.66 0.927 21.66 0.369 -68.031
3094.917 0.366 -68.245 0.929 21.443 0.929 21.443 0.366 -68.245
3119.875 0.362 -68.457 0.93 21.228 0.93 21.228 0.362 -68.457
3144.833 0.359 -68.666 0.931 21.015 0.931 21.015 0.359 -68.666
3169.792 0.355 -68.873 0.933 20.805 0.933 20.805 0.355 -68.873
3194.75 0.352 -69.078 0.934 20.596 0.934 20.596 0.352 -69.078
3219.708 0.348 -69.28 0.935 20.39 0.935 20.39 0.348 -69.28
3244.667 0.345 -69.481 0.937 20.187 0.937 20.187 0.345 -69.481
3269.625 0.342 -69.679 0.938 19.985 0.938 19.985 0.342 -69.679
3294.583 0.339 -69.875 0.939 19.785 0.939 19.785 0.339 -69.875
3319.542 0.335 -70.068 0.94 19.588 0.94 19.588 0.335 -70.068
3344.5 0.332 -70.26 0.941 19.392 0.941 19.392 0.332 -70.26
3369.458 0.329 -70.45 0.942 19.199 0.942 19.199 0.329 -70.45
3394.417 0.326 -70.638 0.943 19.007 0.943 19.007 0.326 -70.638
3419.375 0.323 -70.824 0.945 18.817 0.945 18.817 0.323 -70.824
3444.333 0.319 -71.007 0.946 18.63 0.946 18.63 0.319 -71.007
3469.292 0.316 -71.189 0.947 18.444 0.947 18.444 0.316 -71.189
3494.25 0.313 -71.37 0.948 18.26 0.948 18.26 0.313 -71.37
3519.208 0.31 -71.548 0.949 18.077 0.949 18.077 0.31 -71.548
3544.167 0.307 -71.724 0.95 17.897 0.95 17.897 0.307 -71.724
3569.125 0.304 -71.899 0.951 17.718 0.951 17.718 0.304 -71.899
3594.083 0.301 -72.072 0.951 17.541 0.951 17.541 0.301 -72.072
3619.042 0.298 -72.243 0.952 17.365 0.952 17.365 0.298 -72.243
3644 0.296 -72.413 0.953 17.191 0.953 17.191 0.296 -72.413
3668.958 0.293 -72.581 0.954 17.019 0.954 17.019 0.293 -72.581
3693.917 0.29 -72.747 0.955 16.849 0.955 16.849 0.29 -72.747
3718.875 0.287 -72.912 0.956 16.68 0.956 16.68 0.287 -72.912
3743.833 0.284 -73.075 0.957 16.512 0.957 16.512 0.284 -73.075
3768.792 0.281 -73.237 0.958 16.346 0.958 16.346 0.281 -73.237
3793.75 0.279 -73.397 0.958 16.182 0.958 16.182 0.279 -73.397
3818.708 0.276 -73.555 0.959 16.019 0.959 16.019 0.276 -73.555
3843.667 0.273 -73.712 0.96 15.857 0.96 15.857 0.273 -73.712
3868.625 0.271 -73.868 0.961 15.697 0.961 15.697 0.271 -73.868
3893.583 0.268 -74.022 0.961 15.538 0.961 15.538 0.268 -74.022
3918.542 0.265 -74.174 0.962 15.381 0.962 15.381 0.265 -74.174
3943.5 0.263 -74.325 0.963 15.225 0.963 15.225 0.263 -74.325
3968.458 0.26 -74.475 0.964 15.07 0.964 15.07 0.26 -74.475
3993.417 0.257 -74.624 0.964 14.917 0.964 14.917 0.257 -74.624
4018.375 0.255 -74.771 0.965 14.765 0.965 14.765 0.255 -74.771
4043.333 0.252 -74.917 0.966 14.614 0.966 14.614 0.252 -74.917
4068.292 0.25 -75.061 0.966 14.465 0.966 14.465 0.25 -75.061
4093.25 0.247 -75.204 0.967 14.316 0.967 14.316 0.247 -75.204
4118.208 0.245 -75.346 0.968 14.169 0.968 14.169 0.245 -75.346
4143.167 0.242 -75.487 0.968 14.023 0.968 14.023 0.242 -75.487
4168.125 0.24 -75.626 0.969 13.879 0.969 13.879 0.24 -75.626
4193.083 0.237 -75.764 0.969 13.735 0.969 13.735 0.237 -75.764
4218.042 0.235 -75.901 0.97 13.593 0.97 13.593 0.235 -75.901
4243 0.233 -76.037 0.97 13.451 0.97 13.451 0.233 -76.037
4267.958 0.23 -76.172 0.971 13.311 0.971 13.311 0.23 -76.172
4292.917 0.228 -76.305 0.972 13.172 0.972 13.172 0.228 -76.305
4317.875 0.226 -76.437 0.972 13.034 0.972 13.034 0.226 -76.437
4342.833 0.223 -76.568 0.973 12.897 0.973 12.897 0.223 -76.568
4367.792 0.221 -76.698 0.973 12.761 0.973 12.761 0.221 -76.698
4392.75 0.219 -76.827 0.974 12.627 0.974 12.627 0.219 -76.827
4417.708 0.216 -76.955 0.974 12.493 0.974 12.493 0.216 -76.955
4442.667 0.214 -77.082 0.975 12.36 0.975 12.36 0.214 -77.082
4467.625 0.212 -77.207 0.975 12.228 0.975 12.228 0.212 -77.207
4492.583 0.21 -77.332 0.976 12.097 0.976 12.097 0.21 -77.332
4517.542 0.207 -77.455 0.976 11.967 0.976 11.967 0.207 -77.455
4542.5 0.205 -77.578 0.977 11.838 0.977 11.838 0.205 -77.578
4567.458 0.203 -77.699 0.977 11.71 0.977 11.71 0.203 -77.699
4592.417 0.201 -77.82 0.978 11.583 0.978 11.583 0.201 -77.82
4617.375 0.199 -77.939 0.978 11.457 0.978 11.457 0.199 -77.939
4642.333 0.197 -78.058 0.978 11.332 0.978 11.332 0.197 -78.058
4667.292 0.194 -78.175 0.979 11.207 0.979 11.207 0.194 -78.175
4692.25 0.192 -78.291 0.979 11.084 0.979 11.084 0.192 -78.291
4717.208 0.19 -78.407 0.98 10.961 0.98 10.961 0.19 -78.407
4742.167 0.188 -78.522 0.98 10.839 0.98 10.839 0.188 -78.522
4767.125 0.186 -78.635 0.98 10.718 0.98 10.718 0.186 -78.635
4792.083 0.184 -78.748 0.981 10.598 0.981 10.598 0.184 -78.748
4817.042 0.182 -78.86 0.981 10.479 0.981 10.479 0.182 -78.86
4842 0.18 -78.97 0.982 10.36 0.982 10.36 0.18 -78.97
4866.958 0.178 -79.08 0.982 10.242 0.982 10.242 0.178 -79.08
4891.917 0.176 -79.189 0.982 10.125 0.982 10.125 0.176 -79.189
4916.875 0.174 -79.298 0.983 10.009 0.983 10.009 0.174 -79.298
4941.833 0.172 -79.405 0.983 9.894 0.983 9.894 0.172 -79.405
4966.792 0.17 -79.511 0.983 9.779 0.983 9.779 0.17 -79.511
4991.75 0.168 -79.617 0.984 9.665 0.984 9.665 0.168 -79.617
5016.708 0.166 -79.721 0.984 9.552 0.984 9.552 0.166 -79.721
5041.667 0.164 -79.825 0.984 9.439 0.984 9.439 0.164 -79.825
5066.625 0.162 -79.928 0.985 9.327 0.985 9.327 0.162 -79.928
5091.583 0.16 -80.03 0.985 9.216 0.985 9.216 0.16 -80.03
5116.542 0.158 -80.131 0.985 9.106 0.985 9.106 0.158 -80.131
5141.5 0.156 -80.231 0.986 8.996 0.986 8.996 0.156 -80.231
5166.458 0.154 -80.331 0.986 8.887 0.986 8.887 0.154 -80.331
5191.417 0.153 -80.429 0.986 8.778 0.986 8.778 0.153 -80.429
5216.375 0.151 -80.527 0.986 8.671 0.986 8.671 0.151 -80.527
5241.333 0.149 -80.624 0.987 8.563 0.987 8.563 0.149 -80.624
5266.292 0.147 -80.72 0.987 8.457 0.987 8.457 0.147 -80.72
5291.25 0.145 -80.815 0.987 8.351 0.987 8.351 0.145 -80.815
5316.208 0.143 -80.91 0.988 8.246 0.988 8.246 0.143 -80.91
5341.167 0.142 -81.003 0.988 8.141 0.988 8.141 0.142 -81.003
5366.125 0.14 -81.096 0.988 8.037 0.988 8.037 0.14 -81.096
5391.083 0.138 -81.188 0.988 7.934 0.988 7.934 0.138 -81.188
5416.042 0.136 -81.279 0.989 7.831 0.989 7.831 0.136 -81.279
5441 0.135 -81.37 0.989 7.729 0.989 7.729 0.135 -81.37
5465.958 0.133 -81.459 0.989 7.627 0.989 7.627 0.133 -81.459
5490.917 0.131 -81.548 0.989 7.526 0.989 7.526 0.131 -81.548
5515.875 0.129 -81.636 0.989 7.426 0.989 7.426 0.129 -81.636
5540.833 0.128 -81.723 0.99 7.326 0.99 7.326 0.128 -81.723
5565.792 0.126 -81.809 0.99 7.226 0.99 7.226 0.126 -81.809
5590.75 0.124 -81.894 0.99 7.127 0.99 7.127 0.124 -81.894
5615.708 0.122 -81.978 0.99 7.029 0.99 7.029 0.122 -81.978
5640.667 0.121 -82.062 0.991 6.931 0.991 6.931 0.121 -82.062
5665.625 0.119 -82.145 0.991 6.834 0.991 6.834 0.119 -82.145
5690.583 0.117 -82.227 0.991 6.737 0.991 6.737 0.117 -82.227
5715.542 0.116 -82.308 0.991 6.641 0.991 6.641 0.116 -82.308
5740.5 0.114 -82.388 0.991 6.545 0.991 6.545 0.114 -82.388
5765.458 0.112 -82.468 0.992 6.45 0.992 6.45 0.112 -82.468
5790.417 0.111 -82.546 0.992 6.355 0.992 6.355 0.111 -82.546
5815.375 0.109 -82.624 0.992 6.261 0.992 6.261 0.109 -82.624
5840.333 0.107 -82.7 0.992 6.167 0.992 6.167 0.107 -82.7
5865.292 0.106 -82.776 0.992 6.074 0.992 6.074 0.106 -82.776
5890.25 0.104 -82.851 0.992 5.981 0.992 5.981 0.104 -82.851
5915.208 0.103 -82.925 0.993 5.889 0.993 5.889 0.103 -82.925
5940.167 0.101 -82.998 0.993 5.797 0.993 5.797 0.101 -82.998
5965.125 0.099 -83.07 0.993 5.706 0.993 5.706 0.099 -83.07
5990.083 0.098 -83.141 0.993 5.615 0.993 5.615 0.098 -83.141
6015.042 0.096 -83.211 0.993 5.524 0.993 5.524 0.096 -83.211
6040 0.095 -83.28 0.993 5.434 0.993 5.434 0.095 -83.28
6064.958 0.093 -83.348 0.994 5.345 0.994 5.345 0.093 -83.348
6089.917 0.092 -83.414 0.994 5.255 0.994 5.255 0.092 -83.414
6114.875 0.09 -83.48 0.994 5.167 0.994 5.167 0.09 -83.48
6139.833 0.089 -83.545 0.994 5.078 0.994 5.078 0.089 -83.545
6164.792 0.087 -83.608 0.994 4.99 0.994 4.99 0.087 -83.608
6189.75 0.085 -83.671 0.994 4.903 0.994 4.903 0.085 -83.671
6214.708 0.084 -83.732 0.994 4.816 0.994 4.816 0.084 -83.732
6239.667 0.082 -83.792 0.994 4.729 0.994 4.729 0.082 -83.792
6264.625 0.081 -83.851 0.995 4.643 0.995 4.643 0.081 -83.851
6289.583 0.079 -83.908 0.995 4.557 0.995 4.557 0.079 -83.908
6314.542 0.078 -83.964 0.995 4.471 0.995 4.471 0.078 -83.964
6339.5 0.077 -84.019 0.995 4.386 0.995 4.386 0.077 -84.019
6364.458 0.075 -84.072 0.995 4.301 0.995 4.301 0.075 -84.072
6389.417 0.074 -84.124 0.995 4.217 0.995 4.217 0.074 -84.124
6414.375 0.072 -84.174 0.995 4.133 0.995 4.133 0.072 -84.174
6439.333 0.071 -84.223 0.995 4.049 0.995 4.049 0.071 -84.223
6464.292 0.069 -84.269 0.995 3.966 0.995 3.966 0.069 -84.269
6489.25 0.068 -84.315 0.996 3.883 0.996 3.883 0.068 -84.315
6514.208 0.066 -84.358 0.996 3.801 0.996 3.801 0.066 -84.358
6539.167 0.065 -84.399 0.996 3.719 0.996 3.719 0.065 -84.399
6564.125 0.063 -84.439 0.996 3.637 0.996 3.637 0.063 -84.439
6589.083 0.062 -84.476 0.996 3.555 0.996 3.555 0.062 -84.476
6614.042 0.061 -84.511 0.996 3.474 0.996 3.474 0.061 -84.511
6639 0.059 -84.544 0.996 3.393 0.996 3.393 0.059 -84.544
6663.958 0.058 -84.574 0.996 3.313 0.996 3.313 0.058 -84.574
6688.917 0.056 -84.602 0.996 3.233 0.996 3.233 0.056 -84.602
6713.875 0.055 -84.627 0.996 3.153 0.996 3.153 0.055 -84.627
6738.833 0.054 -84.649 0.996 3.073 0.996 3.073 0.054 -84.649
6763.792 0.052 -84.668 0.997 2.994 0.997 2.994 0.052 -84.668
6788.75 0.051 -84.683 0.997 2.915 0.997 2.915 0.051 -84.683
6813.708 0.05 -84.695 0.997 2.837 0.997 2.837 0.05 -84.695
6838.667 0.048 -84.703 0.997 2.759 0.997 2.759 0.048 -84.703
6863.625 0.047 -84.707 0.997 2.681 0.997 2.681 0.047 -84.707
6888.583 0.045 -84.707 0.997 2.603 0.997 2.603 0.045 -84.707
6913.542 0.044 -84.702 0.997 2.526 0.997 2.526 0.044 -84.702
6938.5 0.043 -84.692 0.997 2.449 0.997 2.449 0.043 -84.692
6963.458 0.041 -84.676 0.997 2.372 0.997 2.372 0.041 -84.676
6988.417 0.04 -84.655 0.997 2.296 0.997 2.296 0.04 -84.655
7013.375 0.039 -84.626 0.997 2.22 0.997 2.22 0.039 -84.626
7038.333 0.037 -84.591 0.997 2.144 0.997 2.144 0.037 -84.591
7063.292 0.036 -84.547 0.997 2.069 0.997 2.069 0.036 -84.547
7088.25 0.035 -84.495 0.997 1.993 0.997 1.993 0.035 -84.495
7113.208 0.034 -84.433 0.997 1.919 0.997 1.919 0.034 -84.433
7138.167 0.032 -84.36 0.997 1.844 0.997 1.844 0.032 -84.36
7163.125 0.031 -84.276 0.997 1.77 0.997 1.77 0.031 -84.276
7188.083 0.03 -84.177 0.997 1.695 0.997 1.695 0.03 -84.177
7213.042 0.028 -84.064 0.997 1.622 0.997 1.622 0.028 -84.064
7238 0.027 -83.933 0.997 1.548 0.997 1.548 0.027 -83.933
7262.958 0.026 -83.783 0.998 1.475 0.998 1.475 0.026 -83.783
7287.917 0.025 -83.61 0.998 1.402 0.998 1.402 0.025 -83.61
7312.875 0.023 -83.411 0.998 1.329 0.998 1.329 0.023 -83.411
7337.833 0.022 -83.182 0.998 1.256 0.998 1.256 0.022 -83.182
7362.792 0.021 -82.917 0.998 1.184 0.998 1.184 0.021 -82.917
7387.75 0.02 -82.61 0.998 1.112 0.998 1.112 0.02 -82.61
7412.708 0.018 -82.252 0.998 1.04 0.998 1.04 0.018 -82.252
7437.667 0.017 -81.834 0.998 0.969 0.998 0.969 0.017 -81.834
7462.625 0.016 -81.34 0.998 0.898 0.998 0.898 0.016 -81.34
7487.583 0.015 -80.754 0.998 0.827 0.998 0.827 0.015 -80.754
7512.542 0.013 -80.049 0.998 0.756 0.998 0.756 0.013 -80.049
7537.5 0.012 -79.192 0.998 0.685 0.998 0.685 0.012 -79.192
7562.458 0.011 -78.134 0.998 0.615 0.998 0.615 0.011 -78.134
7587.417 9.75e-3 -76.802 0.998 0.545 0.998 0.545 9.75e-3 -76.802
7612.375 8.566e-3 -75.087 0.998 0.475 0.998 0.475 8.566e-3 -75.087
7637.333 7.396e-3 -72.81 0.998 0.406 0.998 0.406 7.396e-3 -72.81
7662.292 6.247e-3 -69.672 0.998 0.336 0.998 0.336 6.247e-3 -69.672
7687.25 5.13e-3 -65.13 0.998 0.267 0.998 0.267 5.13e-3 -65.13
7712.208 4.068e-3 -58.13 0.998 0.198 0.998 0.198 4.068e-3 -58.13
7737.167 3.112e-3 -46.532 0.998 0.13 0.998 0.13 3.112e-3 -46.532
7762.125 2.388e-3 -26.523 0.998 0.061 0.998 0.061 2.388e-3 -26.523
7787.083 2.139e-3 3.262 0.998 -6.99e-3 0.998 -6.99e-3 2.139e-3 3.262
7812.042 2.505e-3 31.428 0.998 -0.075 0.998 -0.075 2.505e-3 31.428
7837 3.282e-3 49.261 0.998 -0.143 0.998 -0.143 3.282e-3 49.261
7861.958 4.248e-3 59.603 0.998 -0.21 0.998 -0.21 4.248e-3 59.603
7886.917 5.297e-3 65.944 0.998 -0.278 0.998 -0.278 5.297e-3 65.944
7911.875 6.387e-3 70.12 0.998 -0.345 0.998 -0.345 6.387e-3 70.12
7936.833 7.498e-3 73.04 0.998 -0.412 0.998 -0.412 7.498e-3 73.04
7961.792 8.621e-3 75.178 0.998 -0.479 0.998 -0.479 8.621e-3 75.178
7986.75 9.751e-3 76.803 0.998 -0.545 0.998 -0.545 9.751e-3 76.803
8011.708 0.011 78.071 0.998 -0.611 0.998 -0.611 0.011 78.071
8036.667 0.012 79.085 0.998 -0.678 0.998 -0.678 0.012 79.085
8061.625 0.013 79.91 0.998 -0.743 0.998 -0.743 0.013 79.91
8086.583 0.014 80.592 0.998 -0.809 0.998 -0.809 0.014 80.592
8111.542 0.015 81.162 0.998 -0.875 0.998 -0.875 0.015 81.162
8136.5 0.017 81.644 0.998 -0.94 0.998 -0.94 0.017 81.644
8161.458 0.018 82.055 0.998 -1.005 0.998 -1.005 0.018 82.055
