# MHZ S MA R 50

50 1 -0.81 0.014 89.186 0.014 89.186 1 -0.81
74.958 1 -1.214 0.021 88.78 0.021 88.78 1 -1.214
99.917 1 -1.618 0.028 88.374 0.028 88.374 1 -1.618
124.875 0.999 -2.022 0.035 87.968 0.035 87.968 0.999 -2.022
149.833 0.999 -2.426 0.042 87.563 0.042 87.563 0.999 -2.426
174.792 0.999 -2.83 0.049 87.157 0.049 87.157 0.999 -2.83
199.75 0.998 -3.233 0.056 86.752 0.056 86.752 0.998 -3.233
224.708 0.998 -3.637 0.063 86.347 0.063 86.347 0.998 -3.637
249.667 0.997 -4.04 0.07 85.942 0.07 85.942 0.997 -4.04
274.625 0.997 -4.442 0.077 85.537 0.077 85.537 0.997 -4.442
299.583 0.996 -4.845 0.084 85.133 0.084 85.133 0.996 -4.845
324.542 0.996 -5.247 0.091 84.729 0.091 84.729 0.996 -5.247
349.5 0.995 -5.648 0.098 84.326 0.098 84.326 0.995 -5.648
374.458 0.994 -6.049 0.105 83.923 0.105 83.923 0.994 -6.049
399.417 0.994 -6.45 0.112 83.52 0.112 83.52 0.994 -6.45
424.375 0.993 -6.85 0.119 83.118 0.119 83.118 0.993 -6.85
449.333 0.992 -7.25 0.126 82.716 0.126 82.716 0.992 -7.25
474.292 0.991 -7.649 0.133 82.315 0.133 82.315 0.991 -7.649
499.25 0.99 -8.048 0.14 81.915 0.14 81.915 0.99 -8.048
524.208 0.989 -8.446 0.147 81.515 0.147 81.515 0.989 -8.446
549.167 0.988 -8.844 0.154 81.115 0.154 81.115 0.988 -8.844
574.125 0.987 -9.241 0.161 80.717 0.161 80.717 0.987 -9.241
599.083 0.986 -9.637 0.167 80.319 0.167 80.319 0.986 -9.637
624.042 0.985 -10.032 0.174 79.921 0.174 79.921 0.985 -10.032
649 0.983 -10.427 0.181 79.525 0.181 79.525 0.983 -10.427
673.958 0.982 -10.821 0.188 79.129 0.188 79.129 0.982 -10.821
698.917 0.981 -11.214 0.194 78.734 0.194 78.734 0.981 -11.214
723.875 0.979 -11.607 0.201 78.339 0.201 78.339 0.979 -11.607
748.833 0.978 -11.999 0.208 77.946 0.208 77.946 0.978 -11.999
773.792 0.976 -12.389 0.215 77.553 0.215 77.553 0.976 -12.389
798.75 0.975 -12.779 0.221 77.161 0.221 77.161 0.975 -12.779
823.708 0.973 -13.168 0.228 76.77 0.228 76.77 0.973 -13.168
848.667 0.972 -13.557 0.234 76.38 0.234 76.38 0.972 -13.557
873.625 0.97 -13.944 0.241 75.991 0.241 75.991 0.97 -13.944
898.583 0.969 -14.33 0.248 75.603 0.248 75.603 0.969 -14.33
923.542 0.967 -14.715 0.254 75.216 0.254 75.216 0.967 -14.715
948.5 0.965 -15.1 0.261 74.829 0.261 74.829 0.965 -15.1
973.458 0.963 -15.483 0.267 74.444 0.267 74.444 0.963 -15.483
998.417 0.962 -15.865 0.273 74.06 0.273 74.06 0.962 -15.865
1023.375 0.96 -16.247 0.28 73.677 0.28 73.677 0.96 -16.247
1048.333 0.958 -16.627 0.286 73.295 0.286 73.295 0.958 -16.627
1073.292 0.956 -17.006 0.292 72.914 0.292 72.914 0.956 -17.006
1098.25 0.954 -17.384 0.299 72.534 0.299 72.534 0.954 -17.384
1123.208 0.952 -17.76 0.305 72.156 0.305 72.156 0.952 -17.76
1148.167 0.95 -18.136 0.311 71.778 0.311 71.778 0.95 -18.136
1173.125 0.948 -18.51 0.317 71.402 0.317 71.402 0.948 -18.51
1198.083 0.946 -18.884 0.324 71.027 0.324 71.027 0.946 -18.884
1223.042 0.944 -19.256 0.33 70.653 0.33 70.653 0.944 -19.256
1248 0.941 -19.626 0.336 70.28 0.336 70.28 0.941 -19.626
1272.958 0.939 -19.996 0.342 69.908 0.342 69.908 0.939 -19.996
1297.917 0.937 -20.364 0.348 69.538 0.348 69.538 0.937 -20.364
1322.875 0.935 -20.731 0.354 69.169 0.354 69.169 0.935 -20.731
1347.833 0.932 -21.097 0.36 68.802 0.36 68.802 0.932 -21.097
1372.792 0.93 -21.462 0.366 68.435 0.366 68.435 0.93 -21.462
1397.75 0.928 -21.825 0.372 68.07 0.372 68.07 0.928 -21.825
1422.708 0.925 -22.187 0.378 67.706 0.378 67.706 0.925 -22.187
1447.667 0.923 -22.547 0.383 67.344 0.383 67.344 0.923 -22.547
1472.625 0.92 -22.906 0.389 66.983 0.389 66.983 0.92 -22.906
1497.583 0.918 -23.264 0.395 66.623 0.395 66.623 0.918 -23.264
1522.542 0.915 -23.62 0.401 66.265 0.401 66.265 0.915 -23.62
1547.5 0.913 -23.975 0.406 65.908 0.406 65.908 0.913 -23.975
1572.458 0.91 -24.329 0.412 65.552 0.412 65.552 0.91 -24.329
1597.417 0.908 -24.681 0.418 65.198 0.418 65.198 0.908 -24.681
1622.375 0.905 -25.032 0.423 64.845 0.423 64.845 0.905 -25.032
1647.333 0.903 -25.381 0.429 64.494 0.429 64.494 0.903 -25.381
1672.292 0.9 -25.729 0.434 64.144 0.434 64.144 0.9 -25.729
1697.25 0.897 -26.076 0.44 63.795 0.44 63.795 0.897 -26.076
1722.208 0.895 -26.421 0.445 63.448 0.445 63.448 0.895 -26.421
1747.167 0.892 -26.765 0.45 63.103 0.45 63.103 0.892 -26.765
1772.125 0.889 -27.107 0.456 62.759 0.456 62.759 0.889 -27.107
1797.083 0.886 -27.447 0.461 62.416 0.461 62.416 0.886 -27.447
1822.042 0.884 -27.787 0.466 62.075 0.466 62.075 0.884 -27.787
1847 0.881 -28.124 0.471 61.735 0.471 61.735 0.881 -28.124
1871.958 0.878 -28.461 0.477 61.397 0.477 61.397 0.878 -28.461
1896.917 0.875 -28.795 0.482 61.06 0.482 61.06 0.875 -28.795
1921.875 0.872 -29.129 0.487 60.725 0.487 60.725 0.872 -29.129
1946.833 0.869 -29.46 0.492 60.391 0.492 60.391 0.869 -29.46
1971.792 0.867 -29.791 0.497 60.059 0.497 60.059 0.867 -29.791
1996.75 0.864 -30.119 0.502 59.728 0.502 59.728 0.864 -30.119
2021.708 0.861 -30.446 0.507 59.399 0.507 59.399 0.861 -30.446
2046.667 0.858 -30.772 0.512 59.071 0.512 59.071 0.858 -30.772
2071.625 0.855 -31.096 0.516 58.745 0.516 58.745 0.855 -31.096
2096.583 0.852 -31.419 0.521 58.42 0.521 58.42 0.852 -31.419
2121.542 0.849 -31.74 0.526 58.097 0.526 58.097 0.849 -31.74
2146.5 0.846 -32.06 0.531 57.776 0.531 57.776 0.846 -32.06
2171.458 0.843 -32.378 0.536 57.456 0.536 57.456 0.843 -32.378
2196.417 0.84 -32.694 0.54 57.137 0.54 57.137 0.84 -32.694
2221.375 0.837 -33.009 0.545 56.82 0.545 56.82 0.837 -33.009
2246.333 0.834 -33.323 0.549 56.504 0.549 56.504 0.834 -33.323
2271.292 0.831 -33.635 0.554 56.19 0.554 56.19 0.831 -33.635
2296.25 0.828 -33.945 0.558 55.878 0.558 55.878 0.828 -33.945
2321.208 0.825 -34.254 0.563 55.567 0.563 55.567 0.825 -34.254
2346.167 0.822 -34.561 0.567 55.258 0.567 55.258 0.822 -34.561
2371.125 0.819 -34.867 0.572 54.95 0.572 54.95 0.819 -34.867
2396.083 0.816 -35.171 0.576 54.643 0.576 54.643 0.816 -35.171
2421.042 0.812 -35.474 0.58 54.338 0.58 54.338 0.812 -35.474
2446 0.809 -35.775 0.585 54.035 0.585 54.035 0.809 -35.775
2470.958 0.806 -36.075 0.589 53.733 0.589 53.733 0.806 -36.075
2495.917 0.803 -36.373 0.593 53.433 0.593 53.433 0.803 -36.373
2520.875 0.8 -36.67 0.597 53.134 0.597 53.134 0.8 -36.67
2545.833 0.797 -36.965 0.601 52.837 0.601 52.837 0.797 -36.965
2570.792 0.794 -37.259 0.605 52.541 0.605 52.541 0.794 -37.259
2595.75 0.791 -37.551 0.609 52.247 0.609 52.247 0.791 -37.551
2620.708 0.788 -37.841 0.613 51.954 0.613 51.954 0.788 -37.841
2645.667 0.784 -38.131 0.617 51.663 0.617 51.663 0.784 -38.131
2670.625 0.781 -38.418 0.621 51.373 0.621 51.373 0.781 -38.418
2695.583 0.778 -38.704 0.625 51.085 0.625 51.085 0.778 -38.704
2720.542 0.775 -38.989 0.629 50.798 0.629 50.798 0.775 -38.989
2745.5 0.772 -39.272 0.633 50.513 0.633 50.513 0.772 -39.272
2770.458 0.769 -39.554 0.637 50.229 0.637 50.229 0.769 -39.554
2795.417 0.765 -39.834 0.641 49.947 0.641 49.947 0.765 -39.834
2820.375 0.762 -40.112 0.644 49.666 0.644 49.666 0.762 -40.112
2845.333 0.759 -40.39 0.648 49.386 0.648 49.386 0.759 -40.39
2870.292 0.756 -40.665 0.652 49.108 0.652 49.108 0.756 -40.665
2895.25 0.753 -40.94 0.655 48.832 0.655 48.832 0.753 -40.94
2920.208 0.75 -41.212 0.659 48.557 0.659 48.557 0.75 -41.212
2945.167 0.746 -41.484 0.662 48.283 0.662 48.283 0.746 -41.484
2970.125 0.743 -41.754 0.666 48.011 0.666 48.011 0.743 -41.754
2995.083 0.74 -42.022 0.669 47.74 0.669 47.74 0.74 -42.022
3020.042 0.737 -42.289 0.673 47.471 0.673 47.471 0.737 -42.289
3045 0.734 -42.555 0.676 47.203 0.676 47.203 0.734 -42.555
3069.958 0.731 -42.819 0.68 46.937 0.68 46.937 0.731 -42.819
3094.917 0.727 -43.082 0.683 46.672 0.683 46.672 0.727 -43.082
3119.875 0.724 -43.343 0.686 46.408 0.686 46.408 0.724 -43.343
3144.833 0.721 -43.603 0.69 46.146 0.69 46.146 0.721 -43.603
3169.792 0.718 -43.862 0.693 45.885 0.693 45.885 0.718 -43.862
3194.75 0.715 -44.119 0.696 45.626 0.696 45.626 0.715 -44.119
3219.708 0.712 -44.374 0.699 45.368 0.699 45.368 0.712 -44.374
3244.667 0.708 -44.629 0.703 45.111 0.703 45.111 0.708 -44.629
3269.625 0.705 -44.882 0.706 44.856 0.706 44.856 0.705 -44.882
3294.583 0.702 -45.133 0.709 44.602 0.709 44.602 0.702 -45.133
3319.542 0.699 -45.384 0.712 44.349 0.712 44.349 0.699 -45.384
3344.5 0.696 -45.633 0.715 44.098 0.715 44.098 0.696 -45.633
3369.458 0.693 -45.88 0.718 43.848 0.718 43.848 0.693 -45.88
3394.417 0.69 -46.126 0.721 43.599 0.721 43.599 0.69 -46.126
3419.375 0.686 -46.371 0.724 43.352 0.724 43.352 0.686 -46.371
3444.333 0.683 -46.615 0.727 43.106 0.727 43.106 0.683 -46.615
3469.292 0.68 -46.857 0.73 42.862 0.73 42.862 0.68 -46.857
3494.25 0.677 -47.098 0.733 42.618 0.733 42.618 0.677 -47.098
3519.208 0.674 -47.337 0.735 42.376 0.735 42.376 0.674 -47.337
3544.167 0.671 -47.576 0.738 42.136 0.738 42.136 0.671 -47.576
3569.125 0.668 -47.813 0.741 41.896 0.741 41.896 0.668 -47.813
3594.083 0.665 -48.048 0.744 41.658 0.744 41.658 0.665 -48.048
3619.042 0.662 -48.283 0.746 41.421 0.746 41.421 0.662 -48.283
3644 0.659 -48.516 0.749 41.185 0.749 41.185 0.659 -48.516
3668.958 0.655 -48.748 0.752 40.951 0.752 40.951 0.655 -48.748
3693.917 0.652 -48.979 0.754 40.718 0.754 40.718 0.652 -48.979
3718.875 0.649 -49.208 0.757 40.486 0.757 40.486 0.649 -49.208
3743.833 0.646 -49.436 0.76 40.255 0.76 40.255 0.646 -49.436
3768.792 0.643 -49.663 0.762 40.026 0.762 40.026 0.643 -49.663
3793.75 0.64 -49.889 0.765 39.798 0.765 39.798 0.64 -49.889
3818.708 0.637 -50.113 0.767 39.571 0.767 39.571 0.637 -50.113
3843.667 0.634 -50.336 0.77 39.345 0.77 39.345 0.634 -50.336
3868.625 0.631 -50.558 0.772 39.12 0.772 39.12 0.631 -50.558
3893.583 0.628 -50.779 0.775 38.897 0.775 38.897 0.628 -50.779
3918.542 0.625 -50.999 0.777 38.675 0.777 38.675 0.625 -50.999
3943.5 0.622 -51.217 0.78 38.454 0.78 38.454 0.622 -51.217
3968.458 0.619 -51.435 0.782 38.234 0.782 38.234 0.619 -51.435
3993.417 0.616 -51.651 0.784 38.015 0.784 38.015 0.616 -51.651
4018.375 0.613 -51.866 0.787 37.797 0.787 37.797 0.613 -51.866
4043.333 0.61 -52.08 0.789 37.581 0.789 37.581 0.61 -52.08
4068.292 0.607 -52.292 0.791 37.366 0.791 37.366 0.607 -52.292
4093.25 0.604 -52.504 0.793 37.151 0.793 37.151 0.604 -52.504
4118.208 0.601 -52.714 0.796 36.938 0.796 36.938 0.601 -52.714
4143.167 0.598 -52.923 0.798 36.726 0.798 36.726 0.598 -52.923
4168.125 0.595 -53.132 0.8 36.516 0.8 36.516 0.595 -53.132
4193.083 0.592 -53.339 0.802 36.306 0.802 36.306 0.592 -53.339
4218.042 0.589 -53.545 0.804 36.097 0.804 36.097 0.589 -53.545
4243 0.586 -53.749 0.806 35.89 0.806 35.89 0.586 -53.749
4267.958 0.583 -53.953 0.809 35.683 0.809 35.683 0.583 -53.953
4292.917 0.58 -54.156 0.811 35.478 0.811 35.478 0.58 -54.156
4317.875 0.577 -54.357 0.813 35.273 0.813 35.273 0.577 -54.357
4342.833 0.575 -54.558 0.815 35.07 0.815 35.07 0.575 -54.558
4367.792 0.572 -54.757 0.817 34.868 0.817 34.868 0.572 -54.757
4392.75 0.569 -54.956 0.819 34.667 0.819 34.667 0.569 -54.956
4417.708 0.566 -55.153 0.821 34.466 0.821 34.466 0.566 -55.153
4442.667 0.563 -55.349 0.823 34.267 0.823 34.267 0.563 -55.349
4467.625 0.56 -55.545 0.825 34.069 0.825 34.069 0.56 -55.545
4492.583 0.557 -55.739 0.826 33.872 0.826 33.872 0.557 -55.739
4517.542 0.555 -55.932 0.828 33.676 0.828 33.676 0.555 -55.932
4542.5 0.552 -56.124 0.83 33.481 0.83 33.481 0.552 -56.124
4567.458 0.549 -56.315 0.832 33.287 0.832 33.287 0.549 -56.315
4592.417 0.546 -56.506 0.834 33.093 0.834 33.093 0.546 -56.506
4617.375 0.543 -56.695 0.836 32.901 0.836 32.901 0.543 -56.695
4642.333 0.54 -56.883 0.838 32.71 0.838 32.71 0.54 -56.883
4667.292 0.538 -57.07 0.839 32.52 0.839 32.52 0.538 -57.07
4692.25 0.535 -57.257 0.841 32.331 0.841 32.331 0.535 -57.257
4717.208 0.532 -57.442 0.843 32.142 0.843 32.142 0.532 -57.442
4742.167 0.529 -57.626 0.845 31.955 0.845 31.955 0.529 -57.626
4767.125 0.527 -57.81 0.846 31.768 0.846 31.768 0.527 -57.81
4792.083 0.524 -57.992 0.848 31.583 0.848 31.583 0.524 -57.992
4817.042 0.521 -58.174 0.85 31.398 0.85 31.398 0.521 -58.174
4842 0.518 -58.354 0.851 31.215 0.851 31.215 0.518 -58.354
4866.958 0.516 -58.534 0.853 31.032 0.853 31.032 0.516 -58.534
4891.917 0.513 -58.713 0.855 30.85 0.855 30.85 0.513 -58.713
4916.875 0.51 -58.891 0.856 30.669 0.856 30.669 0.51 -58.891
4941.833 0.507 -59.067 0.858 30.489 0.858 30.489 0.507 -59.067
4966.792 0.505 -59.243 0.859 30.31 0.859 30.31 0.505 -59.243
4991.75 0.502 -59.419 0.861 30.131 0.861 30.131 0.502 -59.419
5016.708 0.499 -59.593 0.862 29.954 0.862 29.954 0.499 -59.593
5041.667 0.497 -59.766 0.864 29.777 0.864 29.777 0.497 -59.766
5066.625 0.494 -59.939 0.866 29.601 0.866 29.601 0.494 -59.939
5091.583 0.491 -60.11 0.867 29.427 0.867 29.427 0.491 -60.11
5116.542 0.489 -60.281 0.868 29.253 0.868 29.253 0.489 -60.281
5141.5 0.486 -60.451 0.87 29.079 0.87 29.079 0.486 -60.451
5166.458 0.483 -60.62 0.871 28.907 0.871 28.907 0.483 -60.62
5191.417 0.481 -60.788 0.873 28.735 0.873 28.735 0.481 -60.788
5216.375 0.478 -60.955 0.874 28.565 0.874 28.565 0.478 -60.955
5241.333 0.476 -61.122 0.876 28.395 0.876 28.395 0.476 -61.122
5266.292 0.473 -61.288 0.877 28.226 0.877 28.226 0.473 -61.288
5291.25 0.47 -61.452 0.878 28.057 0.878 28.057 0.47 -61.452
5316.208 0.468 -61.616 0.88 27.89 0.88 27.89 0.468 -61.616
5341.167 0.465 -61.78 0.881 27.723 0.881 27.723 0.465 -61.78
5366.125 0.463 -61.942 0.883 27.557 0.883 27.557 0.463 -61.942
5391.083 0.46 -62.104 0.884 27.392 0.884 27.392 0.46 -62.104
5416.042 0.458 -62.265 0.885 27.228 0.885 27.228 0.458 -62.265
5441 0.455 -62.425 0.886 27.064 0.886 27.064 0.455 -62.425
5465.958 0.452 -62.584 0.888 26.901 0.888 26.901 0.452 -62.584
5490.917 0.45 -62.742 0.889 26.739 0.889 26.739 0.45 -62.742
5515.875 0.447 -62.9 0.89 26.578 0.89 26.578 0.447 -62.9
5540.833 0.445 -63.057 0.891 26.417 0.891 26.417 0.445 -63.057
5565.792 0.442 -63.213 0.893 26.257 0.893 26.257 0.442 -63.213
5590.75 0.44 -63.368 0.894 26.098 0.894 26.098 0.44 -63.368
5615.708 0.437 -63.523 0.895 25.94 0.895 25.94 0.437 -63.523
5640.667 0.435 -63.677 0.896 25.782 0.896 25.782 0.435 -63.677
5665.625 0.433 -63.83 0.898 25.625 0.898 25.625 0.433 -63.83
5690.583 0.43 -63.982 0.899 25.469 0.899 25.469 0.43 -63.982
5715.542 0.428 -64.134 0.9 25.313 0.9 25.313 0.428 -64.134
5740.5 0.425 -64.285 0.901 25.159 0.901 25.159 0.425 -64.285
5765.458 0.423 -64.435 0.902 25.005 0.902 25.005 0.423 -64.435
5790.417 0.42 -64.585 0.903 24.851 0.903 24.851 0.42 -64.585
5815.375 0.418 -64.734 0.904 24.698 0.904 24.698 0.418 -64.734
5840.333 0.415 -64.882 0.905 24.546 0.905 24.546 0.415 -64.882
5865.292 0.413 -65.029 0.907 24.395 0.907 24.395 0.413 -65.029
5890.25 0.411 -65.176 0.908 24.244 0.908 24.244 0.411 -65.176
5915.208 0.408 -65.322 0.909 24.094 0.909 24.094 0.408 -65.322
5940.167 0.406 -65.467 0.91 23.945 0.91 23.945 0.406 -65.467
5965.125 0.404 -65.612 0.911 23.796 0.911 23.796 0.404 -65.612
5990.083 0.401 -65.755 0.912 23.648 0.912 23.648 0.401 -65.755
6015.042 0.399 -65.899 0.913 23.5 0.913 23.5 0.399 -65.899
6040 0.396 -66.041 0.914 23.354 0.914 23.354 0.396 -66.041
6064.958 0.394 -66.183 0.915 23.208 0.915 23.208 0.394 -66.183
6089.917 0.392 -66.324 0.916 23.062 0.916 23.062 0.392 -66.324
6114.875 0.389 -66.465 0.917 22.917 0.917 22.917 0.389 -66.465
6139.833 0.387 -66.605 0.918 22.773 0.918 22.773 0.387 -66.605
6164.792 0.385 -66.744 0.919 22.629 0.919 22.629 0.385 -66.744
6189.75 0.382 -66.883 0.92 22.486 0.92 22.486 0.382 -66.883
6214.708 0.38 -67.021 0.921 22.344 0.921 22.344 0.38 -67.021
6239.667 0.378 -67.158 0.922 22.202 0.922 22.202 0.378 -67.158
6264.625 0.376 -67.295 0.923 22.061 0.923 22.061 0.376 -67.295
6289.583 0.373 -67.431 0.923 21.92 0.923 21.92 0.373 -67.431
6314.542 0.371 -67.566 0.924 21.78 0.924 21.78 0.371 -67.566
6339.5 0.369 -67.701 0.925 21.641 0.925 21.641 0.369 -67.701
6364.458 0.367 -67.835 0.926 21.502 0.926 21.502 0.367 -67.835
6389.417 0.364 -67.969 0.927 21.364 0.927 21.364 0.364 -67.969
6414.375 0.362 -68.102 0.928 21.226 0.928 21.226 0.362 -68.102
6439.333 0.36 -68.234 0.929 21.089 0.929 21.089 0.36 -68.234
6464.292 0.358 -68.366 0.93 20.952 0.93 20.952 0.358 -68.366
6489.25 0.355 -68.497 0.93 20.816 0.93 20.816 0.355 -68.497
6514.208 0.353 -68.627 0.931 20.681 0.931 20.681 0.353 -68.627
6539.167 0.351 -68.757 0.932 20.546 0.932 20.546 0.351 -68.757
6564.125 0.349 -68.886 0.933 20.411 0.933 20.411 0.349 -68.886
6589.083 0.347 -69.015 0.934 20.278 0.934 20.278 0.347 -69.015
6614.042 0.344 -69.143 0.935 20.144 0.935 20.144 0.344 -69.143
6639 0.342 -69.271 0.935 20.012 0.935 20.012 0.342 -69.271
6663.958 0.34 -69.398 0.936 19.88 0.936 19.88 0.34 -69.398
6688.917 0.338 -69.524 0.937 19.748 0.937 19.748 0.338 -69.524
6713.875 0.336 -69.65 0.938 19.617 0.938 19.617 0.336 -69.65
6738.833 0.334 -69.775 0.938 19.486 0.938 19.486 0.334 -69.775
6763.792 0.331 -69.9 0.939 19.356 0.939 19.356 0.331 -69.9
6788.75 0.329 -70.024 0.94 19.227 0.94 19.227 0.329 -70.024
6813.708 0.327 -70.148 0.941 19.098 0.941 19.098 0.327 -70.148
6838.667 0.325 -70.271 0.941 18.969 0.941 18.969 0.325 -70.271
6863.625 0.323 -70.393 0.942 18.841 0.942 18.841 0.323 -70.393
6888.583 0.321 -70.515 0.943 18.714 0.943 18.714 0.321 -70.515
6913.542 0.319 -70.637 0.944 18.587 0.944 18.587 0.319 -70.637
6938.5 0.317 -70.757 0.944 18.46 0.944 18.46 0.317 -70.757
6963.458 0.315 -70.878 0.945 18.334 0.945 18.334 0.315 -70.878
6988.417 0.313 -70.997 0.946 18.208 0.946 18.208 0.313 -70.997
7013.375 0.31 -71.117 0.946 18.083 0.946 18.083 0.31 -71.117
7038.333 0.308 -71.235 0.947 17.959 0.947 17.959 0.308 -71.235
7063.292 0.306 -71.353 0.948 17.835 0.948 17.835 0.306 -71.353
7088.25 0.304 -71.471 0.948 17.711 0.948 17.711 0.304 -71.471
7113.208 0.302 -71.588 0.949 17.588 0.949 17.588 0.302 -71.588
7138.167 0.3 -71.705 0.95 17.465 0.95 17.465 0.3 -71.705
7163.125 0.298 -71.821 0.95 17.343 0.95 17.343 0.298 -71.821
7188.083 0.296 -71.936 0.951 17.221 0.951 17.221 0.296 -71.936
7213.042 0.294 -72.051 0.951 17.1 0.951 17.1 0.294 -72.051
7238 0.292 -72.165 0.952 16.979 0.952 16.979 0.292 -72.165
7262.958 0.29 -72.279 0.953 16.859 0.953 16.859 0.29 -72.279
7287.917 0.288 -72.393 0.953 16.739 0.953 16.739 0.288 -72.393
7312.875 0.286 -72.506 0.954 16.619 0.954 16.619 0.286 -72.506
7337.833 0.284 -72.618 0.954 16.5 0.954 16.5 0.284 -72.618
7362.792 0.282 -72.73 0.955 16.381 0.955 16.381 0.282 -72.73
7387.75 0.28 -72.841 0.956 16.263 0.956 16.263 0.28 -72.841
7412.708 0.278 -72.952 0.956 16.145 0.956 16.145 0.278 -72.952
7437.667 0.276 -73.062 0.957 16.028 0.957 16.028 0.276 -73.062
7462.625 0.274 -73.172 0.957 15.911 0.957 15.911 0.274 -73.172
7487.583 0.272 -73.282 0.958 15.795 0.958 15.795 0.272 -73.282
7512.542 0.27 -73.391 0.958 15.679 0.958 15.679 0.27 -73.391
7537.5 0.268 -73.499 0.959 15.563 0.959 15.563 0.268 -73.499
7562.458 0.266 -73.607 0.959 15.448 0.959 15.448 0.266 -73.607
7587.417 0.264 -73.714 0.96 15.333 0.96 15.333 0.264 -73.714
7612.375 0.263 -73.821 0.961 15.219 0.961 15.219 0.263 -73.821
7637.333 0.261 -73.928 0.961 15.105 0.961 15.105 0.261 -73.928
7662.292 0.259 -74.033 0.962 14.991 0.962 14.991 0.259 -74.033
7687.25 0.257 -74.139 0.962 14.878 0.962 14.878 0.257 -74.139
7712.208 0.255 -74.244 0.963 14.765 0.963 14.765 0.255 -74.244
7737.167 0.253 -74.348 0.963 14.653 0.963 14.653 0.253 -74.348
7762.125 0.251 -74.452 0.964 14.541 0.964 14.541 0.251 -74.452
7787.083 0.249 -74.556 0.964 14.429 0.964 14.429 0.249 -74.556
7812.042 0.247 -74.659 0.965 14.318 0.965 14.318 0.247 -74.659
7837 0.245 -74.761 0.965 14.207 0.965 14.207 0.245 -74.761
7861.958 0.244 -74.863 0.965 14.096 0.965 14.096 0.244 -74.863
7886.917 0.242 -74.965 0.966 13.986 0.966 13.986 0.242 -74.965
7911.875 0.24 -75.066 0.966 13.877 0.966 13.877 0.24 -75.066
7936.833 0.238 -75.167 0.967 13.767 0.967 13.767 0.238 -75.167
7961.792 0.236 -75.267 0.967 13.658 0.967 13.658 0.236 -75.267
7986.75 0.234 -75.366 0.968 13.55 0.968 13.55 0.234 -75.366
8011.708 0.232 -75.465 0.968 13.442 0.968 13.442 0.232 -75.465
8036.667 0.231 -75.564 0.969 13.334 0.969 13.334 0.231 -75.564
8061.625 0.229 -75.662 0.969 13.226 0.969 13.226 0.229 -75.662
8086.583 0.227 -75.76 0.969 13.119 0.969 13.119 0.227 -75.76
8111.542 0.225 -75.857 0.97 13.012 0.97 13.012 0.225 -75.857
8136.5 0.223 -75.954 0.97 12.906 0.97 12.906 0.223 -75.954
