# MHZ S MA R 50

50 0.99 -8.225 0.143 81.772 0.143 81.772 0.99 -8.225
74.958 0.977 -12.229 0.212 77.765 0.212 77.765 0.977 -12.229
99.917 0.961 -16.119 0.278 73.873 0.278 73.873 0.961 -16.119
124.875 0.94 -19.867 0.34 70.124 0.34 70.124 0.94 -19.867
149.833 0.917 -23.45 0.398 66.539 0.398 66.539 0.917 -23.45
174.792 0.892 -26.855 0.452 63.132 0.452 63.132 0.892 -26.855
199.75 0.865 -30.072 0.501 59.913 0.501 59.913 0.865 -30.072
224.708 0.838 -33.1 0.546 56.883 0.546 56.883 0.838 -33.1
249.667 0.809 -35.94 0.587 54.041 0.587 54.041 0.809 -35.94
274.625 0.781 -38.596 0.624 51.383 0.624 51.383 0.781 -38.596
299.583 0.754 -41.077 0.657 48.9 0.657 48.9 0.754 -41.077
324.542 0.726 -43.391 0.687 46.584 0.687 46.584 0.726 -43.391
349.5 0.7 -45.549 0.714 44.425 0.714 44.425 0.7 -45.549
374.458 0.674 -47.56 0.738 42.412 0.738 42.412 0.674 -47.56
399.417 0.65 -49.435 0.76 40.535 0.76 40.535 0.65 -49.435
424.375 0.626 -51.185 0.779 38.783 0.779 38.783 0.626 -51.185
449.333 0.604 -52.818 0.797 37.148 0.797 37.148 0.604 -52.818
474.292 0.582 -54.345 0.813 35.619 0.813 35.619 0.582 -54.345
499.25 0.562 -55.773 0.827 34.189 0.827 34.189 0.562 -55.773
524.208 0.542 -57.111 0.84 32.849 0.84 32.849 0.542 -57.111
549.167 0.524 -58.366 0.851 31.592 0.851 31.592 0.524 -58.366
574.125 0.506 -59.545 0.862 30.411 0.862 30.411 0.506 -59.545
599.083 0.489 -60.653 0.872 29.301 0.872 29.301 0.489 -60.653
624.042 0.473 -61.697 0.88 28.255 0.88 28.255 0.473 -61.697
649 0.458 -62.681 0.888 27.269 0.888 27.269 0.458 -62.681
673.958 0.444 -63.61 0.896 26.338 0.896 26.338 0.444 -63.61
698.917 0.43 -64.489 0.903 25.457 0.903 25.457 0.43 -64.489
723.875 0.417 -65.32 0.909 24.623 0.909 24.623 0.417 -65.32
748.833 0.404 -66.109 0.914 23.833 0.914 23.833 0.404 -66.109
773.792 0.392 -66.857 0.92 23.082 0.92 23.082 0.392 -66.857
798.75 0.381 -67.569 0.924 22.369 0.924 22.369 0.381 -67.569
823.708 0.37 -68.245 0.929 21.69 0.929 21.69 0.37 -68.245
848.667 0.359 -68.89 0.933 21.043 0.933 21.043 0.359 -68.89
873.625 0.349 -69.505 0.937 20.426 0.937 20.426 0.349 -69.505
898.583 0.339 -70.092 0.94 19.837 0.94 19.837 0.339 -70.092
923.542 0.33 -70.653 0.944 19.274 0.944 19.274 0.33 -70.653
948.5 0.321 -71.189 0.947 18.735 0.947 18.735 0.321 -71.189
973.458 0.313 -71.703 0.949 18.218 0.949 18.218 0.313 -71.703
998.417 0.304 -72.196 0.952 17.723 0.952 17.723 0.304 -72.196
1023.375 0.297 -72.669 0.955 17.248 0.955 17.248 0.297 -72.669
1048.333 0.289 -73.123 0.957 16.791 0.957 16.791 0.289 -73.123
1073.292 0.282 -73.56 0.959 16.352 0.959 16.352 0.282 -73.56
1098.25 0.274 -73.98 0.961 15.93 0.961 15.93 0.274 -73.98
1123.208 0.268 -74.384 0.963 15.523 0.963 15.523 0.268 -74.384
1148.167 0.261 -74.774 0.965 15.13 0.965 15.13 0.261 -74.774
1173.125 0.255 -75.15 0.967 14.752 0.967 14.752 0.255 -75.15
1198.083 0.248 -75.513 0.968 14.386 0.968 14.386 0.248 -75.513
1223.042 0.242 -75.864 0.97 14.033 0.97 14.033 0.242 -75.864
1248 0.237 -76.203 0.971 13.692 0.971 13.692 0.237 -76.203
1272.958 0.231 -76.53 0.972 13.361 0.972 13.361 0.231 -76.53
1297.917 0.226 -76.848 0.974 13.041 0.974 13.041 0.226 -76.848
1322.875 0.22 -77.155 0.975 12.731 0.975 12.731 0.22 -77.155
1347.833 0.215 -77.453 0.976 12.43 0.976 12.43 0.215 -77.453
1372.792 0.21 -77.742 0.977 12.138 0.977 12.138 0.21 -77.742
1397.75 0.205 -78.022 0.978 11.855 0.978 11.855 0.205 -78.022
1422.708 0.201 -78.295 0.979 11.58 0.979 11.58 0.201 -78.295
1447.667 0.196 -78.559 0.98 11.312 0.98 11.312 0.196 -78.559
1472.625 0.192 -78.816 0.981 11.052 0.981 11.052 0.192 -78.816
1497.583 0.187 -79.066 0.982 10.799 0.982 10.799 0.187 -79.066
1522.542 0.183 -79.309 0.983 10.552 0.983 10.552 0.183 -79.309
1547.5 0.179 -79.546 0.983 10.312 0.983 10.312 0.179 -79.546
1572.458 0.175 -79.777 0.984 10.078 0.984 10.078 0.175 -79.777
1597.417 0.171 -80.002 0.985 9.85 0.985 9.85 0.171 -80.002
1622.375 0.167 -80.221 0.985 9.627 0.985 9.627 0.167 -80.221
1647.333 0.163 -80.435 0.986 9.41 0.986 9.41 0.163 -80.435
1672.292 0.16 -80.643 0.987 9.198 0.987 9.198 0.16 -80.643
1697.25 0.156 -80.847 0.987 8.99 0.987 8.99 0.156 -80.847
1722.208 0.153 -81.045 0.988 8.788 0.988 8.788 0.153 -81.045
1747.167 0.149 -81.24 0.988 8.59 0.988 8.59 0.149 -81.24
1772.125 0.146 -81.429 0.989 8.396 0.989 8.396 0.146 -81.429
1797.083 0.143 -81.615 0.989 8.206 0.989 8.206 0.143 -81.615
1822.042 0.14 -81.796 0.99 8.021 0.99 8.021 0.14 -81.796
1847 0.136 -81.974 0.99 7.839 0.99 7.839 0.136 -81.974
1871.958 0.133 -82.148 0.991 7.661 0.991 7.661 0.133 -82.148
1896.917 0.13 -82.318 0.991 7.486 0.991 7.486 0.13 -82.318
1921.875 0.127 -82.484 0.991 7.315 0.991 7.315 0.127 -82.484
1946.833 0.124 -82.647 0.992 7.147 0.992 7.147 0.124 -82.647
1971.792 0.122 -82.807 0.992 6.982 0.992 6.982 0.122 -82.807
1996.75 0.119 -82.964 0.992 6.821 0.992 6.821 0.119 -82.964
2021.708 0.116 -83.117 0.993 6.662 0.993 6.662 0.116 -83.117
2046.667 0.113 -83.268 0.993 6.506 0.993 6.506 0.113 -83.268
2071.625 0.111 -83.415 0.993 6.353 0.993 6.353 0.111 -83.415
2096.583 0.108 -83.56 0.994 6.203 0.994 6.203 0.108 -83.56
2121.542 0.105 -83.702 0.994 6.055 0.994 6.055 0.105 -83.702
2146.5 0.103 -83.841 0.994 5.91 0.994 5.91 0.103 -83.841
2171.458 0.1 -83.978 0.994 5.767 0.994 5.767 0.1 -83.978
2196.417 0.098 -84.112 0.995 5.626 0.995 5.626 0.098 -84.112
2221.375 0.096 -84.244 0.995 5.488 0.995 5.488 0.096 -84.244
2246.333 0.093 -84.373 0.995 5.351 0.995 5.351 0.093 -84.373
2271.292 0.091 -84.501 0.995 5.217 0.995 5.217 0.091 -84.501
2296.25 0.089 -84.625 0.996 5.085 0.996 5.085 0.089 -84.625
2321.208 0.086 -84.748 0.996 4.955 0.996 4.955 0.086 -84.748
2346.167 0.084 -84.868 0.996 4.827 0.996 4.827 0.084 -84.868
2371.125 0.082 -84.986 0.996 4.7 0.996 4.7 0.082 -84.986
2396.083 0.08 -85.102 0.996 4.576 0.996 4.576 0.08 -85.102
2421.042 0.078 -85.216 0.997 4.453 0.997 4.453 0.078 -85.216
2446 0.076 -85.328 0.997 4.332 0.997 4.332 0.076 -85.328
2470.958 0.073 -85.438 0.997 4.212 0.997 4.212 0.073 -85.438
2495.917 0.071 -85.546 0.997 4.094 0.997 4.094 0.071 -85.546
2520.875 0.069 -85.652 0.997 3.978 0.997 3.978 0.069 -85.652
2545.833 0.067 -85.755 0.997 3.863 0.997 3.863 0.067 -85.755
2570.792 0.065 -85.857 0.997 3.749 0.997 3.749 0.065 -85.857
2595.75 0.063 -85.957 0.998 3.637 0.998 3.637 0.063 -85.957
2620.708 0.062 -86.055 0.998 3.527 0.998 3.527 0.062 -86.055
2645.667 0.06 -86.151 0.998 3.417 0.998 3.417 0.06 -86.151
2670.625 0.058 -86.245 0.998 3.309 0.998 3.309 0.058 -86.245
2695.583 0.056 -86.337 0.998 3.203 0.998 3.203 0.056 -86.337
2720.542 0.054 -86.426 0.998 3.097 0.998 3.097 0.054 -86.426
2745.5 0.052 -86.514 0.998 2.993 0.998 2.993 0.052 -86.514
2770.458 0.05 -86.6 0.998 2.89 0.998 2.89 0.05 -86.6
2795.417 0.049 -86.683 0.998 2.788 0.998 2.788 0.049 -86.683
2820.375 0.047 -86.764 0.998 2.687 0.998 2.687 0.047 -86.764
2845.333 0.045 -86.842 0.999 2.587 0.999 2.587 0.045 -86.842
2870.292 0.043 -86.918 0.999 2.488 0.999 2.488 0.043 -86.918
2895.25 0.042 -86.992 0.999 2.391 0.999 2.391 0.042 -86.992
2920.208 0.04 -87.062 0.999 2.294 0.999 2.294 0.04 -87.062
2945.167 0.038 -87.13 0.999 2.198 0.999 2.198 0.038 -87.13
2970.125 0.037 -87.195 0.999 2.103 0.999 2.103 0.037 -87.195
2995.083 0.035 -87.256 0.999 2.01 0.999 2.01 0.035 -87.256
3020.042 0.033 -87.313 0.999 1.917 0.999 1.917 0.033 -87.313
3045 0.032 -87.366 0.999 1.825 0.999 1.825 0.032 -87.366
3069.958 0.03 -87.415 0.999 1.733 0.999 1.733 0.03 -87.415
3094.917 0.029 -87.458 0.999 1.643 0.999 1.643 0.029 -87.458
3119.875 0.027 -87.496 0.999 1.553 0.999 1.553 0.027 -87.496
3144.833 0.026 -87.527 0.999 1.465 0.999 1.465 0.026 -87.527
3169.792 0.024 -87.551 0.999 1.377 0.999 1.377 0.024 -87.551
3194.75 0.023 -87.565 0.999 1.29 0.999 1.29 0.023 -87.565
3219.708 0.021 -87.569 0.999 1.203 0.999 1.203 0.021 -87.569
3244.667 0.02 -87.561 0.999 1.118 0.999 1.118 0.02 -87.561
3269.625 0.018 -87.537 0.999 1.033 0.999 1.033 0.018 -87.537
3294.583 0.017 -87.494 0.999 0.948 0.999 0.948 0.017 -87.494
3319.542 0.015 -87.428 0.999 0.865 0.999 0.865 0.015 -87.428
3344.5 0.014 -87.33 0.999 0.782 0.999 0.782 0.014 -87.33
3369.458 0.012 -87.19 0.999 0.7 0.999 0.7 0.012 -87.19
3394.417 0.011 -86.993 0.999 0.618 0.999 0.618 0.011 -86.993
3419.375 9.384e-3 -86.714 1 0.537 1 0.537 9.384e-3 -86.714
3444.333 7.983e-3 -86.312 1 0.457 1 0.457 7.983e-3 -86.312
3469.292 6.594e-3 -85.71 1 0.377 1 0.377 6.594e-3 -85.71
3494.25 5.216e-3 -84.753 1 0.298 1 0.298 5.216e-3 -84.753
3519.208 3.851e-3 -83.071 1 0.219 1 0.219 3.851e-3 -83.071
3544.167 2.504e-3 -79.506 1 0.141 1 0.141 2.504e-3 -79.506
3569.125 1.199e-3 -67.888 1 0.064 1 0.064 1.199e-3 -67.888
3594.083 506.1e-6 27.222 1 -0.013 1 -0.013 506.1e-6 27.222
3619.042 1.628e-3 73.869 1 -0.09 1 -0.09 1.628e-3 73.869
3644 2.924e-3 80.982 1 -0.166 1 -0.166 2.924e-3 80.982
3668.958 4.229e-3 83.651 1 -0.241 1 -0.241 4.229e-3 83.651
3693.917 5.53e-3 85.017 1 -0.316 1 -0.316 5.53e-3 85.017
3718.875 6.824e-3 85.829 1 -0.39 1 -0.39 6.824e-3 85.829
3743.833 8.112e-3 86.356 1 -0.464 1 -0.464 8.112e-3 86.356
3768.792 9.391e-3 86.716 1 -0.537 1 -0.537 9.391e-3 86.716
3793.75 0.011 86.971 0.999 -0.61 0.999 -0.61 0.011 86.971
3818.708 0.012 87.155 0.999 -0.683 0.999 -0.683 0.012 87.155
3843.667 0.013 87.289 0.999 -0.755 0.999 -0.755 0.013 87.289
3868.625 0.014 87.387 0.999 -0.827 0.999 -0.827 0.014 87.387
3893.583 0.016 87.457 0.999 -0.898 0.999 -0.898 0.016 87.457
3918.542 0.017 87.507 0.999 -0.969 0.999 -0.969 0.017 87.507
3943.5 0.018 87.54 0.999 -1.039 0.999 -1.039 0.018 87.54
3968.458 0.019 87.559 0.999 -1.109 0.999 -1.109 0.019 87.559
3993.417 0.021 87.568 0.999 -1.178 0.999 -1.178 0.021 87.568
4018.375 0.022 87.569 0.999 -1.248 0.999 -1.248 0.022 87.569
4043.333 0.023 87.562 0.999 -1.316 0.999 -1.316 0.023 87.562
4068.292 0.024 87.549 0.999 -1.385 0.999 -1.385 0.024 87.549
4093.25 0.025 87.531 0.999 -1.453 0.999 -1.453 0.025 87.531
4118.208 0.027 87.508 0.999 -1.52 0.999 -1.52 0.027 87.508
4143.167 0.028 87.482 0.999 -1.588 0.999 -1.588 0.028 87.482
4168.125 0.029 87.453 0.999 -1.655 0.999 -1.655 0.029 87.453
4193.083 0.03 87.421 0.999 -1.721 0.999 -1.721 0.03 87.421
4218.042 0.031 87.386 0.999 -1.788 0.999 -1.788 0.031 87.386
4243 0.032 87.35 0.999 -1.854 0.999 -1.854 0.032 87.35
4267.958 0.033 87.311 0.999 -1.919 0.999 -1.919 0.033 87.311
4292.917 0.035 87.271 0.999 -1.985 0.999 -1.985 0.035 87.271
4317.875 0.036 87.23 0.999 -2.049 0.999 -2.049 0.036 87.23
4342.833 0.037 87.187 0.999 -2.114 0.999 -2.114 0.037 87.187
4367.792 0.038 87.144 0.999 -2.179 0.999 -2.179 0.038 87.144
4392.75 0.039 87.099 0.999 -2.243 0.999 -2.243 0.039 87.099
4417.708 0.04 87.054 0.999 -2.306 0.999 -2.306 0.04 87.054
4442.667 0.041 87.007 0.999 -2.37 0.999 -2.37 0.041 87.007
4467.625 0.042 86.96 0.999 -2.433 0.999 -2.433 0.042 86.96
4492.583 0.044 86.913 0.999 -2.496 0.999 -2.496 0.044 86.913
4517.542 0.045 86.865 0.999 -2.559 0.999 -2.559 0.045 86.865
4542.5 0.046 86.816 0.999 -2.621 0.999 -2.621 0.046 86.816
4567.458 0.047 86.767 0.998 -2.683 0.998 -2.683 0.047 86.767
4592.417 0.048 86.717 0.998 -2.745 0.998 -2.745 0.048 86.717
4617.375 0.049 86.668 0.998 -2.806 0.998 -2.806 0.049 86.668
4642.333 0.05 86.618 0.998 -2.868 0.998 -2.868 0.05 86.618
4667.292 0.051 86.567 0.998 -2.929 0.998 -2.929 0.051 86.567
4692.25 0.052 86.517 0.998 -2.989 0.998 -2.989 0.052 86.517
4717.208 0.053 86.466 0.998 -3.05 0.998 -3.05 0.053 86.466
4742.167 0.054 86.415 0.998 -3.11 0.998 -3.11 0.054 86.415
4767.125 0.055 86.364 0.998 -3.17 0.998 -3.17 0.055 86.364
4792.083 0.056 86.313 0.998 -3.23 0.998 -3.23 0.056 86.313
4817.042 0.057 86.262 0.998 -3.29 0.998 -3.29 0.057 86.262
4842 0.058 86.21 0.998 -3.349 0.998 -3.349 0.058 86.21
4866.958 0.059 86.159 0.998 -3.408 0.998 -3.408 0.059 86.159
4891.917 0.06 86.107 0.998 -3.467 0.998 -3.467 0.06 86.107
4916.875 0.062 86.056 0.998 -3.526 0.998 -3.526 0.062 86.056
4941.833 0.063 86.004 0.998 -3.585 0.998 -3.585 0.063 86.004
4966.792 0.064 85.952 0.998 -3.643 0.998 -3.643 0.064 85.952
4991.75 0.065 85.901 0.997 -3.701 0.997 -3.701 0.065 85.901
5016.708 0.066 85.849 0.997 -3.759 0.997 -3.759 0.066 85.849
5041.667 0.067 85.797 0.997 -3.816 0.997 -3.816 0.067 85.797
5066.625 0.068 85.745 0.997 -3.874 0.997 -3.874 0.068 85.745
5091.583 0.069 85.694 0.997 -3.931 0.997 -3.931 0.069 85.694
5116.542 0.07 85.642 0.997 -3.988 0.997 -3.988 0.07 85.642
5141.5 0.071 85.59 0.997 -4.045 0.997 -4.045 0.071 85.59
5166.458 0.072 85.539 0.997 -4.102 0.997 -4.102 0.072 85.539
5191.417 0.073 85.487 0.997 -4.158 0.997 -4.158 0.073 85.487
5216.375 0.073 85.435 0.997 -4.215 0.997 -4.215 0.073 85.435
5241.333 0.074 85.384 0.997 -4.271 0.997 -4.271 0.074 85.384
5266.292 0.075 85.332 0.997 -4.327 0.997 -4.327 0.075 85.332
5291.25 0.076 85.281 0.997 -4.383 0.997 -4.383 0.076 85.281
5316.208 0.077 85.229 0.997 -4.438 0.997 -4.438 0.077 85.229
5341.167 0.078 85.178 0.996 -4.494 0.996 -4.494 0.078 85.178
5366.125 0.079 85.127 0.996 -4.549 0.996 -4.549 0.079 85.127
5391.083 0.08 85.076 0.996 -4.604 0.996 -4.604 0.08 85.076
5416.042 0.081 85.024 0.996 -4.659 0.996 -4.659 0.081 85.024
5441 0.082 84.973 0.996 -4.714 0.996 -4.714 0.082 84.973
5465.958 0.083 84.922 0.996 -4.769 0.996 -4.769 0.083 84.922
5490.917 0.084 84.871 0.996 -4.823 0.996 -4.823 0.084 84.871
5515.875 0.085 84.821 0.996 -4.877 0.996 -4.877 0.085 84.821
5540.833 0.086 84.77 0.996 -4.932 0.996 -4.932 0.086 84.77
5565.792 0.087 84.719 0.996 -4.986 0.996 -4.986 0.087 84.719
5590.75 0.088 84.668 0.996 -5.039 0.996 -5.039 0.088 84.668
5615.708 0.089 84.618 0.996 -5.093 0.996 -5.093 0.089 84.618
5640.667 0.09 84.567 0.996 -5.147 0.996 -5.147 0.09 84.567
5665.625 0.091 84.517 0.995 -5.2 0.995 -5.2 0.091 84.517
5690.583 0.092 84.466 0.995 -5.253 0.995 -5.253 0.092 84.466
5715.542 0.092 84.416 0.995 -5.306 0.995 -5.306 0.092 84.416
5740.5 0.093 84.366 0.995 -5.359 0.995 -5.359 0.093 84.366
5765.458 0.094 84.316 0.995 -5.412 0.995 -5.412 0.094 84.316
5790.417 0.095 84.266 0.995 -5.465 0.995 -5.465 0.095 84.266
5815.375 0.096 84.216 0.995 -5.518 0.995 -5.518 0.096 84.216
5840.333 0.097 84.166 0.995 -5.57 0.995 -5.57 0.097 84.166
5865.292 0.098 84.116 0.995 -5.622 0.995 -5.622 0.098 84.116
5890.25 0.099 84.066 0.995 -5.675 0.995 -5.675 0.099 84.066
5915.208 0.1 84.016 0.995 -5.727 0.995 -5.727 0.1 84.016
5940.167 0.101 83.967 0.994 -5.778 0.994 -5.778 0.101 83.967
5965.125 0.102 83.917 0.994 -5.83 0.994 -5.83 0.102 83.917
5990.083 0.102 83.868 0.994 -5.882 0.994 -5.882 0.102 83.868
6015.042 0.103 83.818 0.994 -5.934 0.994 -5.934 0.103 83.818
6040 0.104 83.769 0.994 -5.985 0.994 -5.985 0.104 83.769
6064.958 0.105 83.72 0.994 -6.036 0.994 -6.036 0.105 83.72
6089.917 0.106 83.671 0.994 -6.087 0.994 -6.087 0.106 83.671
6114.875 0.107 83.622 0.994 -6.139 0.994 -6.139 0.107 83.622
6139.833 0.108 83.573 0.994 -6.189 0.994 -6.189 0.108 83.573
6164.792 0.109 83.524 0.994 -6.24 0.994 -6.24 0.109 83.524
6189.75 0.11 83.475 0.994 -6.291 0.994 -6.291 0.11 83.475
6214.708 0.11 83.426 0.993 -6.342 0.993 -6.342 0.11 83.426
6239.667 0.111 83.378 0.993 -6.392 0.993 -6.392 0.111 83.378
6264.625 0.112 83.329 0.993 -6.443 0.993 -6.443 0.112 83.329
6289.583 0.113 83.281 0.993 -6.493 0.993 -6.493 0.113 83.281
6314.542 0.114 83.232 0.993 -6.543 0.993 -6.543 0.114 83.232
6339.5 0.115 83.184 0.993 -6.593 0.993 -6.593 0.115 83.184
6364.458 0.116 83.136 0.993 -6.643 0.993 -6.643 0.116 83.136
6389.417 0.117 83.087 0.993 -6.693 0.993 -6.693 0.117 83.087
6414.375 0.117 83.039 0.993 -6.743 0.993 -6.743 0.117 83.039
6439.333 0.118 82.991 0.993 -6.792 0.993 -6.792 0.118 82.991
6464.292 0.119 82.943 0.992 -6.842 0.992 -6.842 0.119 82.943
6489.25 0.12 82.895 0.992 -6.891 0.992 -6.891 0.12 82.895
6514.208 0.121 82.848 0.992 -6.941 0.992 -6.941 0.121 82.848
6539.167 0.122 82.8 0.992 -6.99 0.992 -6.99 0.122 82.8
6564.125 0.123 82.752 0.992 -7.039 0.992 -7.039 0.123 82.752
6589.083 0.123 82.705 0.992 -7.088 0.992 -7.088 0.123 82.705
6614.042 0.124 82.657 0.992 -7.137 0.992 -7.137 0.124 82.657
6639 0.125 82.61 0.992 -7.186 0.992 -7.186 0.125 82.61
6663.958 0.126 82.562 0.992 -7.235 0.992 -7.235 0.126 82.562
6688.917 0.127 82.515 0.991 -7.283 0.991 -7.283 0.127 82.515
6713.875 0.128 82.468 0.991 -7.332 0.991 -7.332 0.128 82.468
6738.833 0.128 82.42 0.991 -7.38 0.991 -7.38 0.128 82.42
6763.792 0.129 82.373 0.991 -7.429 0.991 -7.429 0.129 82.373
6788.75 0.13 82.326 0.991 -7.477 0.991 -7.477 0.13 82.326
6813.708 0.131 82.279 0.991 -7.525 0.991 -7.525 0.131 82.279
6838.667 0.132 82.232 0.991 -7.574 0.991 -7.574 0.132 82.232
6863.625 0.133 82.186 0.991 -7.622 0.991 -7.622 0.133 82.186
6888.583 0.133 82.139 0.991 -7.67 0.991 -7.67 0.133 82.139
6913.542 0.134 82.092 0.99 -7.718 0.99 -7.718 0.134 82.092
6938.5 0.135 82.046 0.99 -7.765 0.99 -7.765 0.135 82.046
6963.458 0.136 81.999 0.99 -7.813 0.99 -7.813 0.136 81.999
6988.417 0.137 81.953 0.99 -7.861 0.99 -7.861 0.137 81.953
7013.375 0.138 81.906 0.99 -7.908 0.99 -7.908 0.138 81.906
7038.333 0.138 81.86 0.99 -7.956 0.99 -7.956 0.138 81.86
7063.292 0.139 81.814 0.99 -8.003 0.99 -8.003 0.139 81.814
7088.25 0.14 81.767 0.99 -8.05 0.99 -8.05 0.14 81.767
7113.208 0.141 81.721 0.99 -8.098 0.99 -8.098 0.141 81.721
7138.167 0.142 81.675 0.989 -8.145 0.989 -8.145 0.142 81.675
7163.125 0.142 81.629 0.989 -8.192 0.989 -8.192 0.142 81.629
7188.083 0.143 81.583 0.989 -8.239 0.989 -8.239 0.143 81.583
7213.042 0.144 81.537 0.989 -8.286 0.989 -8.286 0.144 81.537
7238 0.145 81.491 0.989 -8.333 0.989 -8.333 0.145 81.491
7262.958 0.146 81.446 0.989 -8.379 0.989 -8.379 0.146 81.446
7287.917 0.147 81.4 0.989 -8.426 0.989 -8.426 0.147 81.4
7312.875 0.147 81.354 0.989 -8.473 0.989 -8.473 0.147 81.354
7337.833 0.148 81.309 0.989 -8.519 0.989 -8.519 0.148 81.309
7362.792 0.149 81.263 0.988 -8.566 0.988 -8.566 0.149 81.263
7387.75 0.15 81.218 0.988 -8.612 0.988 -8.612 0.15 81.218
7412.708 0.151 81.172 0.988 -8.659 0.988 -8.659 0.151 81.172
7437.667 0.151 81.127 0.988 -8.705 0.988 -8.705 0.151 81.127
7462.625 0.152 81.081 0.988 -8.751 0.988 -8.751 0.152 81.081
7487.583 0.153 81.036 0.988 -8.797 0.988 -8.797 0.153 81.036
7512.542 0.154 80.991 0.988 -8.843 0.988 -8.843 0.154 80.991
7537.5 0.155 80.946 0.988 -8.889 0.988 -8.889 0.155 80.946
7562.458 0.155 80.901 0.987 -8.935 0.987 -8.935 0.155 80.901
7587.417 0.156 80.856 0.987 -8.981 0.987 -8.981 0.156 80.856
7612.375 0.157 80.811 0.987 -9.027 0.987 -9.027 0.157 80.811
7637.333 0.158 80.766 0.987 -9.072 0.987 -9.072 0.158 80.766
7662.292 0.158 80.721 0.987 -9.118 0.987 -9.118 0.158 80.721
7687.25 0.159 80.676 0.987 -9.164 0.987 -9.164 0.159 80.676
7712.208 0.16 80.632 0.987 -9.209 0.987 -9.209 0.16 80.632
7737.167 0.161 80.587 0.987 -9.255 0.987 -9.255 0.161 80.587
7762.125 0.162 80.542 0.986 -9.3 0.986 -9.3 0.162 80.542
7787.083 0.162 80.498 0.986 -9.345 0.986 -9.345 0.162 80.498
7812.042 0.163 80.453 0.986 -9.391 0.986 -9.391 0.163 80.453
7837 0.164 80.409 0.986 -9.436 0.986 -9.436 0.164 80.409
7861.958 0.165 80.364 0.986 -9.481 0.986 -9.481 0.165 80.364
7886.917 0.165 80.32 0.986 -9.526 0.986 -9.526 0.165 80.32
7911.875 0.166 80.276 0.986 -9.571 0.986 -9.571 0.166 80.276
7936.833 0.167 80.232 0.986 -9.616 0.986 -9.616 0.167 80.232
7961.792 0.168 80.187 0.985 -9.661 0.985 -9.661 0.168 80.187
7986.75 0.169 80.143 0.985 -9.706 0.985 -9.706 0.169 80.143
8011.708 0.169 80.099 0.985 -9.751 0.985 -9.751 0.169 80.099
8036.667 0.17 80.055 0.985 -9.795 0.985 -9.795 0.17 80.055
8061.625 0.171 80.011 0.985 -9.84 0.985 -9.84 0.171 80.011
8086.583 0.172 79.967 0.985 -9.885 0.985 -9.885 0.172 79.967
8111.542 0.172 79.923 0.985 -9.929 0.985 -9.929 0.172 79.923
8136.5 0.173 79.88 0.984 -9.974 0.984 -9.974 0.173 79.88
8161.458 0.174 79.836 0.984 -10.018 0.984 -10.018 0.174 79.836
8186.417 0.175 79.792 0.984 -10.063 0.984 -10.063 0.175 79.792
8211.375 0.175 79.748 0.984 -10.107 0.984 -10.107 0.175 79.748
8236.333 0.176 79.705 0.984 -10.151 0.984 -10.151 0.176 79.705
8261.292 0.177 79.661 0.984 -10.195 0.984 -10.195 0.177 79.661
8286.25 0.178 79.618 0.984 -10.24 0.984 -10.24 0.178 79.618
8311.208 0.179 79.574 0.983 -10.284 0.983 -10.284 0.179 79.574
