# MHZ S MA R 50

50 0.798 -37.033 0.602 52.952 0.602 52.952 0.798 -37.033
74.958 0.662 -48.541 0.749 41.436 0.749 41.436 0.662 -48.541
99.917 0.552 -56.494 0.834 33.476 0.834 33.476 0.552 -56.494
124.875 0.467 -62.122 0.884 27.84 0.884 27.84 0.467 -62.122
149.833 0.402 -66.245 0.915 23.709 0.915 23.709 0.402 -66.245
174.792 0.351 -69.369 0.936 20.578 0.936 20.578 0.351 -69.369
199.75 0.311 -71.805 0.95 18.134 0.95 18.134 0.311 -71.805
224.708 0.279 -73.754 0.96 16.177 0.96 16.177 0.279 -73.754
249.667 0.252 -75.346 0.967 14.577 0.967 14.577 0.252 -75.346
274.625 0.229 -76.67 0.973 13.245 0.973 13.245 0.229 -76.67
299.583 0.21 -77.788 0.977 12.119 0.977 12.119 0.21 -77.788
324.542 0.193 -78.745 0.981 11.153 0.981 11.153 0.193 -78.745
349.5 0.179 -79.573 0.983 10.316 0.983 10.316 0.179 -79.573
374.458 0.166 -80.298 0.986 9.583 0.986 9.583 0.166 -80.298
399.417 0.155 -80.937 0.988 8.936 0.988 8.936 0.155 -80.937
424.375 0.145 -81.505 0.989 8.358 0.989 8.358 0.145 -81.505
449.333 0.136 -82.014 0.99 7.84 0.99 7.84 0.136 -82.014
474.292 0.128 -82.472 0.991 7.373 0.991 7.373 0.128 -82.472
499.25 0.121 -82.888 0.992 6.948 0.992 6.948 0.121 -82.888
524.208 0.114 -83.266 0.993 6.56 0.993 6.56 0.114 -83.266
549.167 0.108 -83.612 0.994 6.203 0.994 6.203 0.108 -83.612
574.125 0.102 -83.93 0.994 5.875 0.994 5.875 0.102 -83.93
599.083 0.097 -84.223 0.995 5.571 0.995 5.571 0.097 -84.223
624.042 0.092 -84.494 0.995 5.289 0.995 5.289 0.092 -84.494
649 0.088 -84.746 0.996 5.026 0.996 5.026 0.088 -84.746
673.958 0.083 -84.981 0.996 4.78 0.996 4.78 0.083 -84.981
698.917 0.079 -85.199 0.997 4.549 0.997 4.549 0.079 -85.199
723.875 0.076 -85.404 0.997 4.331 0.997 4.331 0.076 -85.404
748.833 0.072 -85.596 0.997 4.126 0.997 4.126 0.072 -85.596
773.792 0.069 -85.776 0.997 3.932 0.997 3.932 0.069 -85.776
798.75 0.065 -85.945 0.998 3.748 0.998 3.748 0.065 -85.945
823.708 0.062 -86.105 0.998 3.574 0.998 3.574 0.062 -86.105
848.667 0.059 -86.256 0.998 3.408 0.998 3.408 0.059 -86.256
873.625 0.057 -86.398 0.998 3.249 0.998 3.249 0.057 -86.398
898.583 0.054 -86.532 0.998 3.097 0.998 3.097 0.054 -86.532
923.542 0.052 -86.659 0.998 2.952 0.998 2.952 0.052 -86.659
948.5 0.049 -86.779 0.998 2.813 0.998 2.813 0.049 -86.779
973.458 0.047 -86.892 0.999 2.679 0.999 2.679 0.047 -86.892
998.417 0.045 -86.999 0.999 2.551 0.999 2.551 0.045 -86.999
1023.375 0.042 -87.1 0.999 2.427 0.999 2.427 0.042 -87.1
1048.333 0.04 -87.195 0.999 2.308 0.999 2.308 0.04 -87.195
1073.292 0.038 -87.284 0.999 2.192 0.999 2.192 0.038 -87.284
1098.25 0.036 -87.367 0.999 2.081 0.999 2.081 0.036 -87.367
1123.208 0.034 -87.445 0.999 1.973 0.999 1.973 0.034 -87.445
1148.167 0.033 -87.517 0.999 1.868 0.999 1.868 0.033 -87.517
1173.125 0.031 -87.583 0.999 1.766 0.999 1.766 0.031 -87.583
1198.083 0.029 -87.644 0.999 1.668 0.999 1.668 0.029 -87.644
1223.042 0.027 -87.697 0.999 1.572 0.999 1.572 0.027 -87.697
1248 0.026 -87.745 0.999 1.479 0.999 1.479 0.026 -87.745
1272.958 0.024 -87.785 0.999 1.388 0.999 1.388 0.024 -87.785
1297.917 0.023 -87.817 0.999 1.299 0.999 1.299 0.023 -87.817
1322.875 0.021 -87.84 0.999 1.213 0.999 1.213 0.021 -87.84
1347.833 0.02 -87.854 0.999 1.128 0.999 1.128 0.02 -87.854
1372.792 0.018 -87.856 0.999 1.046 0.999 1.046 0.018 -87.856
1397.75 0.017 -87.845 1 0.965 1 0.965 0.017 -87.845
1422.708 0.015 -87.818 1 0.886 1 0.886 0.015 -87.818
1447.667 0.014 -87.771 1 0.809 1 0.809 0.014 -87.771
1472.625 0.013 -87.7 1 0.733 1 0.733 0.013 -87.7
1497.583 0.012 -87.598 1 0.659 1 0.659 0.012 -87.598
1522.542 0.01 -87.454 1 0.586 1 0.586 0.01 -87.454
1547.5 8.984e-3 -87.253 1 0.514 1 0.514 8.984e-3 -87.253
1572.458 7.759e-3 -86.971 1 0.444 1 0.444 7.759e-3 -86.971
1597.417 6.556e-3 -86.565 1 0.375 1 0.375 6.556e-3 -86.565
1622.375 5.373e-3 -85.959 1 0.307 1 0.307 5.373e-3 -85.959
1647.333 4.211e-3 -84.993 1 0.24 1 0.24 4.211e-3 -84.993
1672.292 3.07e-3 -83.28 1 0.175 1 0.175 3.07e-3 -83.28
1697.25 1.953e-3 -79.566 1 0.11 1 0.11 1.953e-3 -79.566
1722.208 881.4e-6 -66.56 1 0.046 1 0.046 881.4e-6 -66.56
1747.167 452.6e-6 39.342 1 -0.016 1 -0.016 452.6e-6 39.342
1772.125 1.412e-3 75.567 1 -0.078 1 -0.078 1.412e-3 75.567
1797.083 2.458e-3 81.676 1 -0.139 1 -0.139 2.458e-3 81.676
1822.042 3.502e-3 84.065 1 -0.2 1 -0.2 3.502e-3 84.065
1847 4.536e-3 85.316 1 -0.259 1 -0.259 4.536e-3 85.316
1871.958 5.558e-3 86.072 1 -0.318 1 -0.318 5.558e-3 86.072
1896.917 6.568e-3 86.57 1 -0.376 1 -0.376 6.568e-3 86.57
1921.875 7.567e-3 86.916 1 -0.433 1 -0.433 7.567e-3 86.916
1946.833 8.554e-3 87.166 1 -0.49 1 -0.49 8.554e-3 87.166
1971.792 9.53e-3 87.35 1 -0.546 1 -0.546 9.53e-3 87.35
1996.75 0.01 87.488 1 -0.601 1 -0.601 0.01 87.488
2021.708 0.011 87.593 1 -0.656 1 -0.656 0.011 87.593
2046.667 0.012 87.672 1 -0.71 1 -0.71 0.012 87.672
2071.625 0.013 87.732 1 -0.764 1 -0.764 0.013 87.732
2096.583 0.014 87.777 1 -0.817 1 -0.817 0.014 87.777
2121.542 0.015 87.809 1 -0.869 1 -0.869 0.015 87.809
2146.5 0.016 87.832 1 -0.921 1 -0.921 0.016 87.832
2171.458 0.017 87.847 1 -0.973 1 -0.973 0.017 87.847
2196.417 0.018 87.854 0.999 -1.024 0.999 -1.024 0.018 87.854
2221.375 0.019 87.857 0.999 -1.075 0.999 -1.075 0.019 87.857
2246.333 0.02 87.854 0.999 -1.125 0.999 -1.125 0.02 87.854
2271.292 0.021 87.847 0.999 -1.175 0.999 -1.175 0.021 87.847
2296.25 0.021 87.838 0.999 -1.224 0.999 -1.224 0.021 87.838
2321.208 0.022 87.825 0.999 -1.274 0.999 -1.274 0.022 87.825
2346.167 0.023 87.809 0.999 -1.322 0.999 -1.322 0.023 87.809
2371.125 0.024 87.791 0.999 -1.37 0.999 -1.37 0.024 87.791
2396.083 0.025 87.772 0.999 -1.418 0.999 -1.418 0.025 87.772
2421.042 0.026 87.751 0.999 -1.466 0.999 -1.466 0.026 87.751
2446 0.026 87.728 0.999 -1.513 0.999 -1.513 0.026 87.728
2470.958 0.027 87.704 0.999 -1.56 0.999 -1.56 0.027 87.704
2495.917 0.028 87.678 0.999 -1.607 0.999 -1.607 0.028 87.678
2520.875 0.029 87.652 0.999 -1.653 0.999 -1.653 0.029 87.652
2545.833 0.03 87.625 0.999 -1.699 0.999 -1.699 0.03 87.625
2570.792 0.03 87.597 0.999 -1.745 0.999 -1.745 0.03 87.597
2595.75 0.031 87.568 0.999 -1.79 0.999 -1.79 0.031 87.568
2620.708 0.032 87.539 0.999 -1.836 0.999 -1.836 0.032 87.539
2645.667 0.033 87.509 0.999 -1.88 0.999 -1.88 0.033 87.509
2670.625 0.034 87.478 0.999 -1.925 0.999 -1.925 0.034 87.478
2695.583 0.034 87.447 0.999 -1.97 0.999 -1.97 0.034 87.447
2720.542 0.035 87.416 0.999 -2.014 0.999 -2.014 0.035 87.416
2745.5 0.036 87.384 0.999 -2.058 0.999 -2.058 0.036 87.384
2770.458 0.037 87.352 0.999 -2.101 0.999 -2.101 0.037 87.352
2795.417 0.037 87.32 0.999 -2.145 0.999 -2.145 0.037 87.32
2820.375 0.038 87.287 0.999 -2.188 0.999 -2.188 0.038 87.287
2845.333 0.039 87.254 0.999 -2.231 0.999 -2.231 0.039 87.254
2870.292 0.04 87.221 0.999 -2.274 0.999 -2.274 0.04 87.221
2895.25 0.04 87.188 0.999 -2.317 0.999 -2.317 0.04 87.188
2920.208 0.041 87.154 0.999 -2.359 0.999 -2.359 0.041 87.154
2945.167 0.042 87.121 0.999 -2.401 0.999 -2.401 0.042 87.121
2970.125 0.043 87.087 0.999 -2.443 0.999 -2.443 0.043 87.087
2995.083 0.043 87.053 0.999 -2.485 0.999 -2.485 0.043 87.053
3020.042 0.044 87.019 0.999 -2.527 0.999 -2.527 0.044 87.019
3045 0.045 86.985 0.999 -2.568 0.999 -2.568 0.045 86.985
3069.958 0.046 86.95 0.999 -2.61 0.999 -2.61 0.046 86.95
3094.917 0.046 86.916 0.999 -2.651 0.999 -2.651 0.046 86.916
3119.875 0.047 86.882 0.999 -2.692 0.999 -2.692 0.047 86.882
3144.833 0.048 86.847 0.999 -2.733 0.999 -2.733 0.048 86.847
3169.792 0.048 86.813 0.998 -2.773 0.998 -2.773 0.048 86.813
3194.75 0.049 86.778 0.998 -2.814 0.998 -2.814 0.049 86.778
3219.708 0.05 86.743 0.998 -2.854 0.998 -2.854 0.05 86.743
3244.667 0.051 86.709 0.998 -2.895 0.998 -2.895 0.051 86.709
3269.625 0.051 86.674 0.998 -2.935 0.998 -2.935 0.051 86.674
3294.583 0.052 86.639 0.998 -2.975 0.998 -2.975 0.052 86.639
3319.542 0.053 86.605 0.998 -3.015 0.998 -3.015 0.053 86.605
3344.5 0.053 86.57 0.998 -3.054 0.998 -3.054 0.053 86.57
3369.458 0.054 86.535 0.998 -3.094 0.998 -3.094 0.054 86.535
3394.417 0.055 86.5 0.998 -3.133 0.998 -3.133 0.055 86.5
3419.375 0.055 86.466 0.998 -3.173 0.998 -3.173 0.055 86.466
3444.333 0.056 86.431 0.998 -3.212 0.998 -3.212 0.056 86.431
3469.292 0.057 86.396 0.998 -3.251 0.998 -3.251 0.057 86.396
3494.25 0.057 86.361 0.998 -3.29 0.998 -3.29 0.057 86.361
3519.208 0.058 86.326 0.998 -3.329 0.998 -3.329 0.058 86.326
3544.167 0.059 86.292 0.998 -3.368 0.998 -3.368 0.059 86.292
3569.125 0.059 86.257 0.998 -3.406 0.998 -3.406 0.059 86.257
3594.083 0.06 86.222 0.998 -3.445 0.998 -3.445 0.06 86.222
3619.042 0.061 86.187 0.998 -3.483 0.998 -3.483 0.061 86.187
3644 0.061 86.153 0.998 -3.522 0.998 -3.522 0.061 86.153
3668.958 0.062 86.118 0.998 -3.56 0.998 -3.56 0.062 86.118
3693.917 0.063 86.083 0.998 -3.598 0.998 -3.598 0.063 86.083
3718.875 0.063 86.048 0.998 -3.636 0.998 -3.636 0.063 86.048
3743.833 0.064 86.014 0.998 -3.674 0.998 -3.674 0.064 86.014
3768.792 0.065 85.979 0.998 -3.712 0.998 -3.712 0.065 85.979
3793.75 0.065 85.944 0.998 -3.75 0.998 -3.75 0.065 85.944
3818.708 0.066 85.91 0.997 -3.787 0.997 -3.787 0.066 85.91
3843.667 0.067 85.875 0.997 -3.825 0.997 -3.825 0.067 85.875
3868.625 0.067 85.841 0.997 -3.862 0.997 -3.862 0.067 85.841
3893.583 0.068 85.806 0.997 -3.9 0.997 -3.9 0.068 85.806
3918.542 0.069 85.772 0.997 -3.937 0.997 -3.937 0.069 85.772
3943.5 0.069 85.737 0.997 -3.974 0.997 -3.974 0.069 85.737
3968.458 0.07 85.703 0.997 -4.011 0.997 -4.011 0.07 85.703
3993.417 0.071 85.668 0.997 -4.049 0.997 -4.049 0.071 85.668
4018.375 0.071 85.634 0.997 -4.086 0.997 -4.086 0.071 85.634
4043.333 0.072 85.599 0.997 -4.123 0.997 -4.123 0.072 85.599
4068.292 0.073 85.565 0.997 -4.159 0.997 -4.159 0.073 85.565
4093.25 0.073 85.531 0.997 -4.196 0.997 -4.196 0.073 85.531
4118.208 0.074 85.496 0.997 -4.233 0.997 -4.233 0.074 85.496
4143.167 0.074 85.462 0.997 -4.27 0.997 -4.27 0.074 85.462
4168.125 0.075 85.428 0.997 -4.306 0.997 -4.306 0.075 85.428
4193.083 0.076 85.393 0.997 -4.343 0.997 -4.343 0.076 85.393
4218.042 0.076 85.359 0.997 -4.379 0.997 -4.379 0.076 85.359
4243 0.077 85.325 0.997 -4.415 0.997 -4.415 0.077 85.325
4267.958 0.078 85.291 0.997 -4.452 0.997 -4.452 0.078 85.291
4292.917 0.078 85.257 0.997 -4.488 0.997 -4.488 0.078 85.257
4317.875 0.079 85.222 0.997 -4.524 0.997 -4.524 0.079 85.222
4342.833 0.08 85.188 0.996 -4.56 0.996 -4.56 0.08 85.188
4367.792 0.08 85.154 0.996 -4.596 0.996 -4.596 0.08 85.154
4392.75 0.081 85.12 0.996 -4.632 0.996 -4.632 0.081 85.12
4417.708 0.081 85.086 0.996 -4.668 0.996 -4.668 0.081 85.086
4442.667 0.082 85.052 0.996 -4.704 0.996 -4.704 0.082 85.052
4467.625 0.083 85.018 0.996 -4.74 0.996 -4.74 0.083 85.018
4492.583 0.083 84.984 0.996 -4.776 0.996 -4.776 0.083 84.984
4517.542 0.084 84.95 0.996 -4.811 0.996 -4.811 0.084 84.95
4542.5 0.084 84.916 0.996 -4.847 0.996 -4.847 0.084 84.916
4567.458 0.085 84.883 0.996 -4.883 0.996 -4.883 0.085 84.883
4592.417 0.086 84.849 0.996 -4.918 0.996 -4.918 0.086 84.849
4617.375 0.086 84.815 0.996 -4.954 0.996 -4.954 0.086 84.815
4642.333 0.087 84.781 0.996 -4.989 0.996 -4.989 0.087 84.781
4667.292 0.088 84.747 0.996 -5.025 0.996 -5.025 0.088 84.747
4692.25 0.088 84.714 0.996 -5.06 0.996 -5.06 0.088 84.714
4717.208 0.089 84.68 0.996 -5.095 0.996 -5.095 0.089 84.68
4742.167 0.089 84.646 0.996 -5.13 0.996 -5.13 0.089 84.646
4767.125 0.09 84.613 0.996 -5.166 0.996 -5.166 0.09 84.613
4792.083 0.091 84.579 0.996 -5.201 0.996 -5.201 0.091 84.579
4817.042 0.091 84.545 0.995 -5.236 0.995 -5.236 0.091 84.545
4842 0.092 84.512 0.995 -5.271 0.995 -5.271 0.092 84.512
4866.958 0.092 84.478 0.995 -5.306 0.995 -5.306 0.092 84.478
4891.917 0.093 84.445 0.995 -5.341 0.995 -5.341 0.093 84.445
4916.875 0.094 84.411 0.995 -5.376 0.995 -5.376 0.094 84.411
4941.833 0.094 84.378 0.995 -5.411 0.995 -5.411 0.094 84.378
4966.792 0.095 84.344 0.995 -5.446 0.995 -5.446 0.095 84.344
4991.75 0.096 84.311 0.995 -5.48 0.995 -5.48 0.096 84.311
5016.708 0.096 84.277 0.995 -5.515 0.995 -5.515 0.096 84.277
5041.667 0.097 84.244 0.995 -5.55 0.995 -5.55 0.097 84.244
5066.625 0.097 84.21 0.995 -5.584 0.995 -5.584 0.097 84.21
5091.583 0.098 84.177 0.995 -5.619 0.995 -5.619 0.098 84.177
5116.542 0.099 84.144 0.995 -5.654 0.995 -5.654 0.099 84.144
5141.5 0.099 84.11 0.995 -5.688 0.995 -5.688 0.099 84.11
5166.458 0.1 84.077 0.995 -5.723 0.995 -5.723 0.1 84.077
5191.417 0.1 84.044 0.995 -5.757 0.995 -5.757 0.1 84.044
5216.375 0.101 84.011 0.995 -5.792 0.995 -5.792 0.101 84.011
5241.333 0.102 83.977 0.994 -5.826 0.994 -5.826 0.102 83.977
5266.292 0.102 83.944 0.994 -5.86 0.994 -5.86 0.102 83.944
5291.25 0.103 83.911 0.994 -5.895 0.994 -5.895 0.103 83.911
5316.208 0.103 83.878 0.994 -5.929 0.994 -5.929 0.103 83.878
5341.167 0.104 83.845 0.994 -5.963 0.994 -5.963 0.104 83.845
5366.125 0.104 83.812 0.994 -5.998 0.994 -5.998 0.104 83.812
5391.083 0.105 83.778 0.994 -6.032 0.994 -6.032 0.105 83.778
5416.042 0.106 83.745 0.994 -6.066 0.994 -6.066 0.106 83.745
5441 0.106 83.712 0.994 -6.1 0.994 -6.1 0.106 83.712
5465.958 0.107 83.679 0.994 -6.134 0.994 -6.134 0.107 83.679
5490.917 0.107 83.646 0.994 -6.168 0.994 -6.168 0.107 83.646
5515.875 0.108 83.613 0.994 -6.202 0.994 -6.202 0.108 83.613
5540.833 0.109 83.58 0.994 -6.236 0.994 -6.236 0.109 83.58
5565.792 0.109 83.547 0.994 -6.27 0.994 -6.27 0.109 83.547
5590.75 0.11 83.514 0.994 -6.304 0.994 -6.304 0.11 83.514
5615.708 0.11 83.482 0.994 -6.338 0.994 -6.338 0.11 83.482
5640.667 0.111 83.449 0.993 -6.372 0.993 -6.372 0.111 83.449
5665.625 0.112 83.416 0.993 -6.406 0.993 -6.406 0.112 83.416
5690.583 0.112 83.383 0.993 -6.439 0.993 -6.439 0.112 83.383
5715.542 0.113 83.35 0.993 -6.473 0.993 -6.473 0.113 83.35
5740.5 0.113 83.317 0.993 -6.507 0.993 -6.507 0.113 83.317
5765.458 0.114 83.284 0.993 -6.541 0.993 -6.541 0.114 83.284
5790.417 0.114 83.252 0.993 -6.574 0.993 -6.574 0.114 83.252
5815.375 0.115 83.219 0.993 -6.608 0.993 -6.608 0.115 83.219
5840.333 0.116 83.186 0.993 -6.642 0.993 -6.642 0.116 83.186
5865.292 0.116 83.153 0.993 -6.675 0.993 -6.675 0.116 83.153
5890.25 0.117 83.121 0.993 -6.709 0.993 -6.709 0.117 83.121
5915.208 0.117 83.088 0.993 -6.742 0.993 -6.742 0.117 83.088
5940.167 0.118 83.055 0.993 -6.776 0.993 -6.776 0.118 83.055
5965.125 0.119 83.023 0.993 -6.809 0.993 -6.809 0.119 83.023
5990.083 0.119 82.99 0.993 -6.843 0.993 -6.843 0.119 82.99
6015.042 0.12 82.957 0.992 -6.876 0.992 -6.876 0.12 82.957
6040 0.12 82.925 0.992 -6.91 0.992 -6.91 0.12 82.925
6064.958 0.121 82.892 0.992 -6.943 0.992 -6.943 0.121 82.892
6089.917 0.121 82.86 0.992 -6.976 0.992 -6.976 0.121 82.86
6114.875 0.122 82.827 0.992 -7.01 0.992 -7.01 0.122 82.827
6139.833 0.123 82.795 0.992 -7.043 0.992 -7.043 0.123 82.795
6164.792 0.123 82.762 0.992 -7.076 0.992 -7.076 0.123 82.762
6189.75 0.124 82.73 0.992 -7.11 0.992 -7.11 0.124 82.73
6214.708 0.124 82.697 0.992 -7.143 0.992 -7.143 0.124 82.697
6239.667 0.125 82.665 0.992 -7.176 0.992 -7.176 0.125 82.665
6264.625 0.125 82.632 0.992 -7.209 0.992 -7.209 0.125 82.632
6289.583 0.126 82.6 0.992 -7.242 0.992 -7.242 0.126 82.6
6314.542 0.127 82.567 0.992 -7.276 0.992 -7.276 0.127 82.567
6339.5 0.127 82.535 0.992 -7.309 0.992 -7.309 0.127 82.535
6364.458 0.128 82.503 0.991 -7.342 0.991 -7.342 0.128 82.503
6389.417 0.128 82.47 0.991 -7.375 0.991 -7.375 0.128 82.47
6414.375 0.129 82.438 0.991 -7.408 0.991 -7.408 0.129 82.438
6439.333 0.13 82.406 0.991 -7.441 0.991 -7.441 0.13 82.406
6464.292 0.13 82.373 0.991 -7.474 0.991 -7.474 0.13 82.373
6489.25 0.131 82.341 0.991 -7.507 0.991 -7.507 0.131 82.341
6514.208 0.131 82.309 0.991 -7.54 0.991 -7.54 0.131 82.309
6539.167 0.132 82.276 0.991 -7.573 0.991 -7.573 0.132 82.276
6564.125 0.132 82.244 0.991 -7.606 0.991 -7.606 0.132 82.244
6589.083 0.133 82.212 0.991 -7.639 0.991 -7.639 0.133 82.212
6614.042 0.133 82.18 0.991 -7.671 0.991 -7.671 0.133 82.18
6639 0.134 82.148 0.991 -7.704 0.991 -7.704 0.134 82.148
6663.958 0.135 82.115 0.991 -7.737 0.991 -7.737 0.135 82.115
6688.917 0.135 82.083 0.99 -7.77 0.99 -7.77 0.135 82.083
6713.875 0.136 82.051 0.99 -7.803 0.99 -7.803 0.136 82.051
6738.833 0.136 82.019 0.99 -7.835 0.99 -7.835 0.136 82.019
6763.792 0.137 81.987 0.99 -7.868 0.99 -7.868 0.137 81.987
6788.75 0.137 81.955 0.99 -7.901 0.99 -7.901 0.137 81.955
6813.708 0.138 81.922 0.99 -7.934 0.99 -7.934 0.138 81.922
6838.667 0.139 81.89 0.99 -7.966 0.99 -7.966 0.139 81.89
6863.625 0.139 81.858 0.99 -7.999 0.99 -7.999 0.139 81.858
6888.583 0.14 81.826 0.99 -8.032 0.99 -8.032 0.14 81.826
6913.542 0.14 81.794 0.99 -8.064 0.99 -8.064 0.14 81.794
6938.5 0.141 81.762 0.99 -8.097 0.99 -8.097 0.141 81.762
6963.458 0.141 81.73 0.99 -8.129 0.99 -8.129 0.141 81.73
6988.417 0.142 81.698 0.99 -8.162 0.99 -8.162 0.142 81.698
7013.375 0.143 81.666 0.989 -8.195 0.989 -8.195 0.143 81.666
7038.333 0.143 81.634 0.989 -8.227 0.989 -8.227 0.143 81.634
7063.292 0.144 81.602 0.989 -8.26 0.989 -8.26 0.144 81.602
7088.25 0.144 81.57 0.989 -8.292 0.989 -8.292 0.144 81.57
7113.208 0.145 81.538 0.989 -8.325 0.989 -8.325 0.145 81.538
7138.167 0.145 81.506 0.989 -8.357 0.989 -8.357 0.145 81.506
7163.125 0.146 81.475 0.989 -8.389 0.989 -8.389 0.146 81.475
7188.083 0.146 81.443 0.989 -8.422 0.989 -8.422 0.146 81.443
7213.042 0.147 81.411 0.989 -8.454 0.989 -8.454 0.147 81.411
7238 0.148 81.379 0.989 -8.487 0.989 -8.487 0.148 81.379
7262.958 0.148 81.347 0.989 -8.519 0.989 -8.519 0.148 81.347
7287.917 0.149 81.315 0.989 -8.551 0.989 -8.551 0.149 81.315
7312.875 0.149 81.283 0.988 -8.584 0.988 -8.584 0.149 81.283
7337.833 0.15 81.252 0.988 -8.616 0.988 -8.616 0.15 81.252
7362.792 0.15 81.22 0.988 -8.648 0.988 -8.648 0.15 81.22
7387.75 0.151 81.188 0.988 -8.681 0.988 -8.681 0.151 81.188
7412.708 0.151 81.156 0.988 -8.713 0.988 -8.713 0.151 81.156
7437.667 0.152 81.124 0.988 -8.745 0.988 -8.745 0.152 81.124
7462.625 0.153 81.093 0.988 -8.777 0.988 -8.777 0.153 81.093
7487.583 0.153 81.061 0.988 -8.81 0.988 -8.81 0.153 81.061
7512.542 0.154 81.029 0.988 -8.842 0.988 -8.842 0.154 81.029
7537.5 0.154 80.998 0.988 -8.874 0.988 -8.874 0.154 80.998
7562.458 0.155 80.966 0.988 -8.906 0.988 -8.906 0.155 80.966
7587.417 0.155 80.934 0.988 -8.938 0.988 -8.938 0.155 80.934
7612.375 0.156 80.902 0.987 -8.97 0.987 -8.97 0.156 80.902
7637.333 0.156 80.871 0.987 -9.003 0.987 -9.003 0.156 80.871
7662.292 0.157 80.839 0.987 -9.035 0.987 -9.035 0.157 80.839
7687.25 0.158 80.808 0.987 -9.067 0.987 -9.067 0.158 80.808
7712.208 0.158 80.776 0.987 -9.099 0.987 -9.099 0.158 80.776
7737.167 0.159 80.744 0.987 -9.131 0.987 -9.131 0.159 80.744
7762.125 0.159 80.713 0.987 -9.163 0.987 -9.163 0.159 80.713
7787.083 0.16 80.681 0.987 -9.195 0.987 -9.195 0.16 80.681
7812.042 0.16 80.65 0.987 -9.227 0.987 -9.227 0.16 80.65
7837 0.161 80.618 0.987 -9.259 0.987 -9.259 0.161 80.618
7861.958 0.161 80.586 0.987 -9.291 0.987 -9.291 0.161 80.586
7886.917 0.162 80.555 0.986 -9.323 0.986 -9.323 0.162 80.555
7911.875 0.163 80.523 0.986 -9.355 0.986 -9.355 0.163 80.523
7936.833 0.163 80.492 0.986 -9.387 0.986 -9.387 0.163 80.492
7961.792 0.164 80.46 0.986 -9.419 0.986 -9.419 0.164 80.46
7986.75 0.164 80.429 0.986 -9.451 0.986 -9.451 0.164 80.429
8011.708 0.165 80.397 0.986 -9.482 0.986 -9.482 0.165 80.397
8036.667 0.165 80.366 0.986 -9.514 0.986 -9.514 0.165 80.366
8061.625 0.166 80.335 0.986 -9.546 0.986 -9.546 0.166 80.335
8086.583 0.166 80.303 0.986 -9.578 0.986 -9.578 0.166 80.303
8111.542 0.167 80.272 0.986 -9.61 0.986 -9.61 0.167 80.272
8136.5 0.167 80.24 0.986 -9.642 0.986 -9.642 0.167 80.24
8161.458 0.168 80.209 0.985 -9.673 0.985 -9.673 0.168 80.209
8186.417 0.169 80.178 0.985 -9.705 0.985 -9.705 0.169 80.178
8211.375 0.169 80.146 0.985 -9.737 0.985 -9.737 0.169 80.146
8236.333 0.17 80.115 0.985 -9.769 0.985 -9.769 0.17 80.115
8261.292 0.17 80.083 0.985 -9.8 0.985 -9.8 0.17 80.083
8286.25 0.171 80.052 0.985 -9.832 0.985 -9.832 0.171 80.052
8311.208 0.171 80.021 0.985 -9.864 0.985 -9.864 0.171 80.021
8336.167 0.172 79.989 0.985 -9.896 0.985 -9.896 0.172 79.989
8361.125 0.172 79.958 0.985 -9.927 0.985 -9.927 0.172 79.958
8386.083 0.173 79.927 0.985 -9.959 0.985 -9.959 0.173 79.927
8411.042 0.173 79.896 0.984 -9.991 0.984 -9.991 0.173 79.896
