# MHZ S MA R 50

50 0.999 -2.069 0.036 87.926 0.036 87.926 0.999 -2.069
74.958 0.999 -3.101 0.054 86.893 0.054 86.893 0.999 -3.101
99.917 0.997 -4.13 0.072 85.861 0.072 85.861 0.997 -4.13
124.875 0.996 -5.157 0.09 84.832 0.09 84.832 0.996 -5.157
149.833 0.994 -6.181 0.108 83.806 0.108 83.806 0.994 -6.181
174.792 0.992 -7.202 0.125 82.783 0.125 82.783 0.992 -7.202
199.75 0.99 -8.218 0.143 81.765 0.143 81.765 0.99 -8.218
224.708 0.987 -9.23 0.16 80.751 0.16 80.751 0.987 -9.23
249.667 0.984 -10.236 0.178 79.742 0.178 79.742 0.984 -10.236
274.625 0.981 -11.237 0.195 78.739 0.195 78.739 0.981 -11.237
299.583 0.977 -12.231 0.212 77.743 0.212 77.743 0.977 -12.231
324.542 0.973 -13.219 0.229 76.753 0.229 76.753 0.973 -13.219
349.5 0.969 -14.2 0.245 75.77 0.245 75.77 0.969 -14.2
374.458 0.965 -15.173 0.262 74.795 0.262 74.795 0.965 -15.173
399.417 0.96 -16.138 0.278 73.828 0.278 73.828 0.96 -16.138
424.375 0.956 -17.094 0.294 72.869 0.294 72.869 0.956 -17.094
449.333 0.951 -18.042 0.31 71.919 0.31 71.919 0.951 -18.042
474.292 0.945 -18.981 0.325 70.978 0.325 70.978 0.945 -18.981
499.25 0.94 -19.91 0.341 70.047 0.341 70.047 0.94 -19.91
524.208 0.934 -20.83 0.356 69.125 0.356 69.125 0.934 -20.83
549.167 0.929 -21.74 0.37 68.213 0.37 68.213 0.929 -21.74
574.125 0.923 -22.639 0.385 67.311 0.385 67.311 0.923 -22.639
599.083 0.917 -23.528 0.399 66.42 0.399 66.42 0.917 -23.528
624.042 0.91 -24.407 0.413 65.539 0.413 65.539 0.91 -24.407
649 0.904 -25.274 0.427 64.67 0.427 64.67 0.904 -25.274
673.958 0.897 -26.131 0.44 63.811 0.44 63.811 0.897 -26.131
698.917 0.891 -26.977 0.454 62.963 0.454 62.963 0.891 -26.977
723.875 0.884 -27.812 0.467 62.126 0.467 62.126 0.884 -27.812
748.833 0.877 -28.635 0.479 61.3 0.479 61.3 0.877 -28.635
773.792 0.87 -29.447 0.492 60.486 0.492 60.486 0.87 -29.447
798.75 0.863 -30.248 0.504 59.682 0.504 59.682 0.863 -30.248
823.708 0.856 -31.038 0.516 58.891 0.516 58.891 0.856 -31.038
848.667 0.849 -31.816 0.527 58.11 0.527 58.11 0.849 -31.816
873.625 0.842 -32.583 0.539 57.341 0.539 57.341 0.842 -32.583
898.583 0.835 -33.339 0.55 56.583 0.55 56.583 0.835 -33.339
923.542 0.827 -34.083 0.56 55.837 0.56 55.837 0.827 -34.083
948.5 0.82 -34.816 0.571 55.101 0.571 55.101 0.82 -34.816
973.458 0.813 -35.538 0.581 54.377 0.581 54.377 0.813 -35.538
998.417 0.806 -36.249 0.591 53.664 0.591 53.664 0.806 -36.249
1023.375 0.798 -36.948 0.601 52.962 0.601 52.962 0.798 -36.948
1048.333 0.791 -37.637 0.611 52.271 0.611 52.271 0.791 -37.637
1073.292 0.784 -38.315 0.62 51.591 0.62 51.591 0.784 -38.315
1098.25 0.776 -38.982 0.629 50.921 0.629 50.921 0.776 -38.982
1123.208 0.769 -39.639 0.638 50.263 0.638 50.263 0.769 -39.639
1148.167 0.762 -40.285 0.647 49.614 0.647 49.614 0.762 -40.285
1173.125 0.754 -40.921 0.655 48.976 0.655 48.976 0.754 -40.921
1198.083 0.747 -41.546 0.663 48.348 0.663 48.348 0.747 -41.546
1223.042 0.74 -42.162 0.671 47.731 0.671 47.731 0.74 -42.162
1248 0.733 -42.767 0.679 47.123 0.679 47.123 0.733 -42.767
1272.958 0.726 -43.363 0.687 46.525 0.687 46.525 0.726 -43.363
1297.917 0.719 -43.949 0.694 45.937 0.694 45.937 0.719 -43.949
1322.875 0.712 -44.525 0.701 45.358 0.701 45.358 0.712 -44.525
1347.833 0.704 -45.092 0.708 44.789 0.708 44.789 0.704 -45.092
1372.792 0.698 -45.65 0.715 44.229 0.715 44.229 0.698 -45.65
1397.75 0.691 -46.199 0.722 43.677 0.722 43.677 0.691 -46.199
1422.708 0.684 -46.738 0.728 43.135 0.728 43.135 0.684 -46.738
1447.667 0.677 -47.269 0.735 42.602 0.735 42.602 0.677 -47.269
1472.625 0.67 -47.792 0.741 42.077 0.741 42.077 0.67 -47.792
1497.583 0.663 -48.305 0.747 41.561 0.747 41.561 0.663 -48.305
1522.542 0.657 -48.811 0.753 41.053 0.753 41.053 0.657 -48.811
1547.5 0.65 -49.308 0.758 40.553 0.758 40.553 0.65 -49.308
1572.458 0.644 -49.798 0.764 40.062 0.764 40.062 0.644 -49.798
1597.417 0.637 -50.279 0.769 39.578 0.769 39.578 0.637 -50.279
1622.375 0.631 -50.753 0.774 39.102 0.774 39.102 0.631 -50.753
1647.333 0.624 -51.219 0.78 38.633 0.78 38.633 0.624 -51.219
1672.292 0.618 -51.677 0.785 38.172 0.785 38.172 0.618 -51.677
1697.25 0.612 -52.129 0.789 37.718 0.789 37.718 0.612 -52.129
1722.208 0.606 -52.573 0.794 37.271 0.794 37.271 0.606 -52.573
1747.167 0.599 -53.01 0.799 36.832 0.799 36.832 0.599 -53.01
1772.125 0.593 -53.441 0.803 36.399 0.803 36.399 0.593 -53.441
1797.083 0.587 -53.864 0.808 35.973 0.808 35.973 0.587 -53.864
1822.042 0.581 -54.281 0.812 35.553 0.812 35.553 0.581 -54.281
1847 0.576 -54.692 0.816 35.14 0.816 35.14 0.576 -54.692
1871.958 0.57 -55.096 0.82 34.733 0.82 34.733 0.57 -55.096
1896.917 0.564 -55.494 0.824 34.333 0.824 34.333 0.564 -55.494
1921.875 0.558 -55.886 0.828 33.938 0.828 33.938 0.558 -55.886
1946.833 0.553 -56.271 0.832 33.55 0.832 33.55 0.553 -56.271
1971.792 0.547 -56.651 0.835 33.167 0.835 33.167 0.547 -56.651
1996.75 0.542 -57.026 0.839 32.79 0.839 32.79 0.542 -57.026
2021.708 0.536 -57.394 0.842 32.419 0.842 32.419 0.536 -57.394
2046.667 0.531 -57.758 0.846 32.053 0.846 32.053 0.531 -57.758
2071.625 0.525 -58.115 0.849 31.693 0.849 31.693 0.525 -58.115
2096.583 0.52 -58.468 0.852 31.338 0.852 31.338 0.52 -58.468
2121.542 0.515 -58.815 0.856 30.988 0.856 30.988 0.515 -58.815
2146.5 0.51 -59.157 0.859 30.643 0.859 30.643 0.51 -59.157
2171.458 0.505 -59.495 0.862 30.303 0.862 30.303 0.505 -59.495
2196.417 0.5 -59.827 0.865 29.968 0.865 29.968 0.5 -59.827
2221.375 0.495 -60.155 0.867 29.637 0.867 29.637 0.495 -60.155
2246.333 0.49 -60.478 0.87 29.312 0.87 29.312 0.49 -60.478
2271.292 0.485 -60.796 0.873 28.99 0.873 28.99 0.485 -60.796
2296.25 0.48 -61.11 0.876 28.674 0.876 28.674 0.48 -61.11
2321.208 0.475 -61.419 0.878 28.361 0.878 28.361 0.475 -61.419
2346.167 0.47 -61.724 0.881 28.053 0.881 28.053 0.47 -61.724
2371.125 0.466 -62.025 0.883 27.75 0.883 27.75 0.466 -62.025
2396.083 0.461 -62.322 0.886 27.45 0.886 27.45 0.461 -62.322
2421.042 0.456 -62.615 0.888 27.154 0.888 27.154 0.456 -62.615
2446 0.452 -62.904 0.89 26.863 0.89 26.863 0.452 -62.904
2470.958 0.447 -63.189 0.893 26.575 0.893 26.575 0.447 -63.189
2495.917 0.443 -63.47 0.895 26.291 0.895 26.291 0.443 -63.47
2520.875 0.439 -63.747 0.897 26.01 0.897 26.01 0.439 -63.747
2545.833 0.434 -64.021 0.899 25.734 0.899 25.734 0.434 -64.021
2570.792 0.43 -64.291 0.901 25.461 0.901 25.461 0.43 -64.291
2595.75 0.426 -64.557 0.903 25.191 0.903 25.191 0.426 -64.557
2620.708 0.421 -64.82 0.905 24.925 0.905 24.925 0.421 -64.82
2645.667 0.417 -65.08 0.907 24.662 0.907 24.662 0.417 -65.08
2670.625 0.413 -65.336 0.909 24.403 0.909 24.403 0.413 -65.336
2695.583 0.409 -65.589 0.911 24.147 0.911 24.147 0.409 -65.589
2720.542 0.405 -65.839 0.912 23.894 0.912 23.894 0.405 -65.839
2745.5 0.401 -66.086 0.914 23.644 0.914 23.644 0.401 -66.086
2770.458 0.397 -66.33 0.916 23.397 0.916 23.397 0.397 -66.33
2795.417 0.393 -66.57 0.918 23.153 0.918 23.153 0.393 -66.57
2820.375 0.389 -66.808 0.919 22.912 0.919 22.912 0.389 -66.808
2845.333 0.385 -67.043 0.921 22.674 0.921 22.674 0.385 -67.043
2870.292 0.382 -67.275 0.922 22.439 0.922 22.439 0.382 -67.275
2895.25 0.378 -67.504 0.924 22.206 0.924 22.206 0.378 -67.504
2920.208 0.374 -67.73 0.925 21.976 0.925 21.976 0.374 -67.73
2945.167 0.371 -67.954 0.927 21.749 0.927 21.749 0.371 -67.954
2970.125 0.367 -68.175 0.928 21.525 0.928 21.525 0.367 -68.175
2995.083 0.363 -68.393 0.93 21.303 0.93 21.303 0.363 -68.393
3020.042 0.36 -68.609 0.931 21.084 0.931 21.084 0.36 -68.609
3045 0.356 -68.823 0.932 20.867 0.932 20.867 0.356 -68.823
3069.958 0.353 -69.033 0.934 20.652 0.934 20.652 0.353 -69.033
3094.917 0.349 -69.242 0.935 20.44 0.935 20.44 0.349 -69.242
3119.875 0.346 -69.448 0.936 20.231 0.936 20.231 0.346 -69.448
3144.833 0.342 -69.652 0.938 20.023 0.938 20.023 0.342 -69.652
3169.792 0.339 -69.853 0.939 19.818 0.939 19.818 0.339 -69.853
3194.75 0.336 -70.053 0.94 19.615 0.94 19.615 0.336 -70.053
3219.708 0.332 -70.25 0.941 19.414 0.941 19.414 0.332 -70.25
3244.667 0.329 -70.445 0.942 19.216 0.942 19.216 0.329 -70.445
3269.625 0.326 -70.637 0.943 19.019 0.943 19.019 0.326 -70.637
3294.583 0.323 -70.828 0.945 18.825 0.945 18.825 0.323 -70.828
3319.542 0.319 -71.017 0.946 18.632 0.946 18.632 0.319 -71.017
3344.5 0.316 -71.203 0.947 18.442 0.947 18.442 0.316 -71.203
3369.458 0.313 -71.388 0.948 18.253 0.948 18.253 0.313 -71.388
3394.417 0.31 -71.57 0.949 18.067 0.949 18.067 0.31 -71.57
3419.375 0.307 -71.751 0.95 17.882 0.95 17.882 0.307 -71.751
3444.333 0.304 -71.93 0.951 17.699 0.951 17.699 0.304 -71.93
3469.292 0.301 -72.107 0.952 17.518 0.952 17.518 0.301 -72.107
3494.25 0.298 -72.282 0.953 17.339 0.953 17.339 0.298 -72.282
3519.208 0.295 -72.455 0.954 17.161 0.954 17.161 0.295 -72.455
3544.167 0.292 -72.627 0.954 16.986 0.954 16.986 0.292 -72.627
3569.125 0.289 -72.797 0.955 16.812 0.955 16.812 0.289 -72.797
3594.083 0.286 -72.965 0.956 16.639 0.956 16.639 0.286 -72.965
3619.042 0.283 -73.131 0.957 16.469 0.957 16.469 0.283 -73.131
3644 0.281 -73.296 0.958 16.299 0.958 16.299 0.281 -73.296
3668.958 0.278 -73.459 0.959 16.132 0.959 16.132 0.278 -73.459
3693.917 0.275 -73.62 0.959 15.966 0.959 15.966 0.275 -73.62
3718.875 0.272 -73.78 0.96 15.801 0.96 15.801 0.272 -73.78
3743.833 0.27 -73.939 0.961 15.639 0.961 15.639 0.27 -73.939
3768.792 0.267 -74.095 0.962 15.477 0.962 15.477 0.267 -74.095
3793.75 0.264 -74.251 0.962 15.317 0.962 15.317 0.264 -74.251
3818.708 0.261 -74.404 0.963 15.159 0.963 15.159 0.261 -74.404
3843.667 0.259 -74.557 0.964 15.001 0.964 15.001 0.259 -74.557
3868.625 0.256 -74.708 0.965 14.846 0.965 14.846 0.256 -74.708
3893.583 0.254 -74.857 0.965 14.691 0.965 14.691 0.254 -74.857
3918.542 0.251 -75.005 0.966 14.538 0.966 14.538 0.251 -75.005
3943.5 0.248 -75.152 0.967 14.387 0.967 14.387 0.248 -75.152
3968.458 0.246 -75.297 0.967 14.236 0.967 14.236 0.246 -75.297
3993.417 0.243 -75.441 0.968 14.087 0.968 14.087 0.243 -75.441
4018.375 0.241 -75.584 0.969 13.939 0.969 13.939 0.241 -75.584
4043.333 0.238 -75.725 0.969 13.793 0.969 13.793 0.238 -75.725
4068.292 0.236 -75.865 0.97 13.647 0.97 13.647 0.236 -75.865
4093.25 0.234 -76.004 0.97 13.503 0.97 13.503 0.234 -76.004
4118.208 0.231 -76.141 0.971 13.36 0.971 13.36 0.231 -76.141
4143.167 0.229 -76.278 0.971 13.218 0.971 13.218 0.229 -76.278
4168.125 0.226 -76.413 0.972 13.078 0.972 13.078 0.226 -76.413
4193.083 0.224 -76.547 0.973 12.938 0.973 12.938 0.224 -76.547
4218.042 0.222 -76.679 0.973 12.8 0.973 12.8 0.222 -76.679
4243 0.219 -76.811 0.974 12.662 0.974 12.662 0.219 -76.811
4267.958 0.217 -76.941 0.974 12.526 0.974 12.526 0.217 -76.941
4292.917 0.215 -77.07 0.975 12.391 0.975 12.391 0.215 -77.07
4317.875 0.212 -77.198 0.975 12.257 0.975 12.257 0.212 -77.198
4342.833 0.21 -77.325 0.976 12.124 0.976 12.124 0.21 -77.325
4367.792 0.208 -77.451 0.976 11.992 0.976 11.992 0.208 -77.451
4392.75 0.206 -77.576 0.977 11.861 0.977 11.861 0.206 -77.576
4417.708 0.203 -77.699 0.977 11.73 0.977 11.73 0.203 -77.699
4442.667 0.201 -77.822 0.978 11.601 0.978 11.601 0.201 -77.822
4467.625 0.199 -77.944 0.978 11.473 0.978 11.473 0.199 -77.944
4492.583 0.197 -78.064 0.978 11.346 0.978 11.346 0.197 -78.064
4517.542 0.195 -78.183 0.979 11.22 0.979 11.22 0.195 -78.183
4542.5 0.192 -78.302 0.979 11.094 0.979 11.094 0.192 -78.302
4567.458 0.19 -78.419 0.98 10.97 0.98 10.97 0.19 -78.419
4592.417 0.188 -78.536 0.98 10.846 0.98 10.846 0.188 -78.536
4617.375 0.186 -78.651 0.981 10.724 0.981 10.724 0.186 -78.651
4642.333 0.184 -78.766 0.981 10.602 0.981 10.602 0.184 -78.766
4667.292 0.182 -78.879 0.981 10.481 0.981 10.481 0.182 -78.879
4692.25 0.18 -78.992 0.982 10.361 0.982 10.361 0.18 -78.992
4717.208 0.178 -79.103 0.982 10.242 0.982 10.242 0.178 -79.103
4742.167 0.176 -79.214 0.982 10.123 0.982 10.123 0.176 -79.214
4767.125 0.174 -79.324 0.983 10.006 0.983 10.006 0.174 -79.324
4792.083 0.172 -79.432 0.983 9.889 0.983 9.889 0.172 -79.432
4817.042 0.17 -79.54 0.983 9.773 0.983 9.773 0.17 -79.54
4842 0.168 -79.647 0.984 9.657 0.984 9.657 0.168 -79.647
4866.958 0.166 -79.753 0.984 9.543 0.984 9.543 0.166 -79.753
4891.917 0.164 -79.858 0.984 9.429 0.984 9.429 0.164 -79.858
4916.875 0.162 -79.962 0.985 9.316 0.985 9.316 0.162 -79.962
4941.833 0.16 -80.066 0.985 9.204 0.985 9.204 0.16 -80.066
4966.792 0.158 -80.168 0.985 9.092 0.985 9.092 0.158 -80.168
4991.75 0.156 -80.27 0.986 8.981 0.986 8.981 0.156 -80.27
5016.708 0.154 -80.37 0.986 8.871 0.986 8.871 0.154 -80.37
5041.667 0.152 -80.47 0.986 8.762 0.986 8.762 0.152 -80.47
5066.625 0.15 -80.569 0.987 8.653 0.987 8.653 0.15 -80.569
5091.583 0.149 -80.667 0.987 8.545 0.987 8.545 0.149 -80.667
5116.542 0.147 -80.764 0.987 8.438 0.987 8.438 0.147 -80.764
5141.5 0.145 -80.861 0.987 8.331 0.987 8.331 0.145 -80.861
5166.458 0.143 -80.956 0.988 8.225 0.988 8.225 0.143 -80.956
5191.417 0.141 -81.051 0.988 8.119 0.988 8.119 0.141 -81.051
5216.375 0.139 -81.145 0.988 8.015 0.988 8.015 0.139 -81.145
5241.333 0.138 -81.238 0.988 7.91 0.988 7.91 0.138 -81.238
5266.292 0.136 -81.33 0.989 7.807 0.989 7.807 0.136 -81.33
5291.25 0.134 -81.421 0.989 7.704 0.989 7.704 0.134 -81.421
5316.208 0.132 -81.512 0.989 7.601 0.989 7.601 0.132 -81.512
5341.167 0.131 -81.601 0.989 7.5 0.989 7.5 0.131 -81.601
5366.125 0.129 -81.69 0.99 7.399 0.99 7.399 0.129 -81.69
5391.083 0.127 -81.778 0.99 7.298 0.99 7.298 0.127 -81.778
5416.042 0.125 -81.865 0.99 7.198 0.99 7.198 0.125 -81.865
5441 0.124 -81.951 0.99 7.099 0.99 7.099 0.124 -81.951
5465.958 0.122 -82.036 0.99 7 0.99 7 0.122 -82.036
5490.917 0.12 -82.121 0.991 6.901 0.991 6.901 0.12 -82.121
5515.875 0.118 -82.204 0.991 6.804 0.991 6.804 0.118 -82.204
5540.833 0.117 -82.287 0.991 6.706 0.991 6.706 0.117 -82.287
5565.792 0.115 -82.369 0.991 6.61 0.991 6.61 0.115 -82.369
5590.75 0.113 -82.45 0.991 6.513 0.991 6.513 0.113 -82.45
5615.708 0.112 -82.53 0.992 6.418 0.992 6.418 0.112 -82.53
5640.667 0.11 -82.609 0.992 6.323 0.992 6.323 0.11 -82.609
5665.625 0.109 -82.687 0.992 6.228 0.992 6.228 0.109 -82.687
5690.583 0.107 -82.765 0.992 6.134 0.992 6.134 0.107 -82.765
5715.542 0.105 -82.841 0.992 6.04 0.992 6.04 0.105 -82.841
5740.5 0.104 -82.917 0.993 5.947 0.993 5.947 0.104 -82.917
5765.458 0.102 -82.991 0.993 5.854 0.993 5.854 0.102 -82.991
5790.417 0.1 -83.065 0.993 5.762 0.993 5.762 0.1 -83.065
5815.375 0.099 -83.137 0.993 5.671 0.993 5.671 0.099 -83.137
5840.333 0.097 -83.209 0.993 5.579 0.993 5.579 0.097 -83.209
5865.292 0.096 -83.28 0.993 5.488 0.993 5.488 0.096 -83.28
5890.25 0.094 -83.349 0.994 5.398 0.994 5.398 0.094 -83.349
5915.208 0.093 -83.418 0.994 5.308 0.994 5.308 0.093 -83.418
5940.167 0.091 -83.485 0.994 5.219 0.994 5.219 0.091 -83.485
5965.125 0.089 -83.552 0.994 5.13 0.994 5.13 0.089 -83.552
5990.083 0.088 -83.617 0.994 5.041 0.994 5.041 0.088 -83.617
6015.042 0.086 -83.681 0.994 4.953 0.994 4.953 0.086 -83.681
6040 0.085 -83.744 0.994 4.865 0.994 4.865 0.085 -83.744
6064.958 0.083 -83.806 0.994 4.778 0.994 4.778 0.083 -83.806
6089.917 0.082 -83.866 0.995 4.691 0.995 4.691 0.082 -83.866
6114.875 0.08 -83.926 0.995 4.605 0.995 4.605 0.08 -83.926
6139.833 0.079 -83.984 0.995 4.519 0.995 4.519 0.079 -83.984
6164.792 0.077 -84.04 0.995 4.433 0.995 4.433 0.077 -84.04
6189.75 0.076 -84.095 0.995 4.348 0.995 4.348 0.076 -84.095
6214.708 0.074 -84.149 0.995 4.263 0.995 4.263 0.074 -84.149
6239.667 0.073 -84.201 0.995 4.179 0.995 4.179 0.073 -84.201
6264.625 0.071 -84.252 0.995 4.095 0.995 4.095 0.071 -84.252
6289.583 0.07 -84.301 0.995 4.011 0.995 4.011 0.07 -84.301
6314.542 0.069 -84.349 0.996 3.928 0.996 3.928 0.069 -84.349
6339.5 0.067 -84.394 0.996 3.845 0.996 3.845 0.067 -84.394
6364.458 0.066 -84.438 0.996 3.762 0.996 3.762 0.066 -84.438
6389.417 0.064 -84.48 0.996 3.68 0.996 3.68 0.064 -84.48
6414.375 0.063 -84.52 0.996 3.598 0.996 3.598 0.063 -84.52
6439.333 0.061 -84.558 0.996 3.517 0.996 3.517 0.061 -84.558
6464.292 0.06 -84.593 0.996 3.435 0.996 3.435 0.06 -84.593
6489.25 0.059 -84.627 0.996 3.355 0.996 3.355 0.059 -84.627
6514.208 0.057 -84.657 0.996 3.274 0.996 3.274 0.057 -84.657
6539.167 0.056 -84.686 0.996 3.194 0.996 3.194 0.056 -84.686
6564.125 0.054 -84.711 0.996 3.114 0.996 3.114 0.054 -84.711
6589.083 0.053 -84.733 0.997 3.035 0.997 3.035 0.053 -84.733
6614.042 0.052 -84.753 0.997 2.956 0.997 2.956 0.052 -84.753
6639 0.05 -84.769 0.997 2.877 0.997 2.877 0.05 -84.769
6663.958 0.049 -84.781 0.997 2.799 0.997 2.799 0.049 -84.781
6688.917 0.048 -84.79 0.997 2.721 0.997 2.721 0.048 -84.79
6713.875 0.046 -84.794 0.997 2.643 0.997 2.643 0.046 -84.794
6738.833 0.045 -84.794 0.997 2.565 0.997 2.565 0.045 -84.794
6763.792 0.043 -84.79 0.997 2.488 0.997 2.488 0.043 -84.79
6788.75 0.042 -84.78 0.997 2.411 0.997 2.411 0.042 -84.78
6813.708 0.041 -84.764 0.997 2.335 0.997 2.335 0.041 -84.764
6838.667 0.039 -84.743 0.997 2.259 0.997 2.259 0.039 -84.743
6863.625 0.038 -84.714 0.997 2.183 0.997 2.183 0.038 -84.714
6888.583 0.037 -84.679 0.997 2.107 0.997 2.107 0.037 -84.679
6913.542 0.036 -84.635 0.997 2.032 0.997 2.032 0.036 -84.635
6938.5 0.034 -84.582 0.997 1.957 0.997 1.957 0.034 -84.582
6963.458 0.033 -84.52 0.997 1.882 0.997 1.882 0.033 -84.52
6988.417 0.032 -84.446 0.997 1.807 0.997 1.807 0.032 -84.446
7013.375 0.03 -84.361 0.997 1.733 0.997 1.733 0.03 -84.361
7038.333 0.029 -84.261 0.998 1.659 0.998 1.659 0.029 -84.261
7063.292 0.028 -84.146 0.998 1.585 0.998 1.585 0.028 -84.146
7088.25 0.026 -84.013 0.998 1.512 0.998 1.512 0.026 -84.013
7113.208 0.025 -83.859 0.998 1.439 0.998 1.439 0.025 -83.859
7138.167 0.024 -83.682 0.998 1.366 0.998 1.366 0.024 -83.682
7163.125 0.023 -83.479 0.998 1.294 0.998 1.294 0.023 -83.479
7188.083 0.021 -83.243 0.998 1.221 0.998 1.221 0.021 -83.243
7213.042 0.02 -82.971 0.998 1.149 0.998 1.149 0.02 -82.971
7238 0.019 -82.654 0.998 1.077 0.998 1.077 0.019 -82.654
7262.958 0.018 -82.283 0.998 1.006 0.998 1.006 0.018 -82.283
7287.917 0.016 -81.848 0.998 0.935 0.998 0.935 0.016 -81.848
7312.875 0.015 -81.332 0.998 0.864 0.998 0.864 0.015 -81.332
7337.833 0.014 -80.716 0.998 0.793 0.998 0.793 0.014 -80.716
7362.792 0.013 -79.971 0.998 0.722 0.998 0.722 0.013 -79.971
7387.75 0.012 -79.059 0.998 0.652 0.998 0.652 0.012 -79.059
7412.708 0.01 -77.922 0.998 0.582 0.998 0.582 0.01 -77.922
7437.667 9.176e-3 -76.475 0.998 0.512 0.998 0.512 9.176e-3 -76.475
7462.625 7.997e-3 -74.586 0.998 0.443 0.998 0.443 7.997e-3 -74.586
7487.583 6.836e-3 -72.034 0.998 0.373 0.998 0.373 6.836e-3 -72.034
7512.542 5.698e-3 -68.436 0.998 0.304 0.998 0.304 5.698e-3 -68.436
7537.5 4.599e-3 -63.067 0.998 0.235 0.998 0.235 4.599e-3 -63.067
7562.458 3.569e-3 -54.464 0.998 0.167 0.998 0.167 3.569e-3 -54.464
7587.417 2.686e-3 -39.625 0.998 0.098 0.998 0.098 2.686e-3 -39.625
7612.375 2.132e-3 -14.274 0.998 0.03 0.998 0.03 2.132e-3 -14.274
7637.333 2.169e-3 17.658 0.998 -0.038 0.998 -0.038 2.169e-3 17.658
7662.292 2.768e-3 41.603 0.998 -0.106 0.998 -0.106 2.768e-3 41.603
7687.25 3.659e-3 55.447 0.998 -0.173 0.998 -0.173 3.659e-3 55.447
7712.208 4.675e-3 63.535 0.998 -0.24 0.998 -0.24 4.675e-3 63.535
7737.167 5.749e-3 68.631 0.998 -0.307 0.998 -0.307 5.749e-3 68.631
7762.125 6.851e-3 72.074 0.998 -0.374 0.998 -0.374 6.851e-3 72.074
7787.083 7.968e-3 74.531 0.998 -0.441 0.998 -0.441 7.968e-3 74.531
7812.042 9.093e-3 76.359 0.998 -0.507 0.998 -0.507 9.093e-3 76.359
7837 0.01 77.766 0.998 -0.574 0.998 -0.574 0.01 77.766
7861.958 0.011 78.875 0.998 -0.64 0.998 -0.64 0.011 78.875
7886.917 0.012 79.769 0.998 -0.705 0.998 -0.705 0.012 79.769
7911.875 0.014 80.501 0.998 -0.771 0.998 -0.771 0.014 80.501
7936.833 0.015 81.109 0.998 -0.836 0.998 -0.836 0.015 81.109
7961.792 0.016 81.62 0.998 -0.902 0.998 -0.902 0.016 81.62
7986.75 0.017 82.053 0.998 -0.967 0.998 -0.967 0.017 82.053
8011.708 0.018 82.423 0.998 -1.032 0.998 -1.032 0.018 82.423
8036.667 0.019 82.741 0.998 -1.096 0.998 -1.096 0.019 82.741
8061.625 0.02 83.016 0.998 -1.161 0.998 -1.161 0.02 83.016
8086.583 0.021 83.256 0.998 -1.225 0.998 -1.225 0.021 83.256
8111.542 0.023 83.465 0.998 -1.289 0.998 -1.289 0.023 83.465
8136.5 0.024 83.647 0.998 -1.353 0.998 -1.353 0.024 83.647
8161.458 0.025 83.807 0.998 -1.417 0.998 -1.417 0.025 83.807
8186.417 0.026 83.948 0.998 -1.48 0.998 -1.48 0.026 83.948
