# MHZ S MA R 50

50 0.995 -5.741 0.1 84.254 0.1 84.254 0.995 -5.741
74.958 0.989 -8.573 0.149 81.421 0.149 81.421 0.989 -8.573
99.917 0.98 -11.365 0.197 78.627 0.197 78.627 0.98 -11.365
124.875 0.97 -14.105 0.244 75.885 0.244 75.885 0.97 -14.105
149.833 0.957 -16.784 0.289 73.204 0.289 73.204 0.957 -16.784
174.792 0.943 -19.392 0.332 70.594 0.332 70.594 0.943 -19.392
199.75 0.928 -21.922 0.373 68.062 0.373 68.062 0.928 -21.922
224.708 0.911 -24.369 0.413 65.612 0.413 65.612 0.911 -24.369
249.667 0.893 -26.73 0.45 63.25 0.45 63.25 0.893 -26.73
274.625 0.874 -29 0.485 60.978 0.485 60.978 0.874 -29
299.583 0.855 -31.18 0.518 58.796 0.518 58.796 0.855 -31.18
324.542 0.836 -33.268 0.549 56.706 0.549 56.706 0.836 -33.268
349.5 0.816 -35.266 0.577 54.706 0.577 54.706 0.816 -35.266
374.458 0.796 -37.175 0.604 52.795 0.604 52.795 0.796 -37.175
399.417 0.777 -38.997 0.629 50.97 0.629 50.97 0.777 -38.997
424.375 0.757 -40.736 0.653 49.23 0.653 49.23 0.757 -40.736
449.333 0.738 -42.393 0.674 47.57 0.674 47.57 0.738 -42.393
474.292 0.719 -43.972 0.694 45.989 0.694 45.989 0.719 -43.972
499.25 0.701 -45.478 0.713 44.482 0.713 44.482 0.701 -45.478
524.208 0.683 -46.912 0.73 43.045 0.73 43.045 0.683 -46.912
549.167 0.665 -48.278 0.746 41.677 0.746 41.677 0.665 -48.278
574.125 0.648 -49.581 0.761 40.372 0.761 40.372 0.648 -49.581
599.083 0.631 -50.823 0.775 39.128 0.775 39.128 0.631 -50.823
624.042 0.615 -52.008 0.788 37.941 0.788 37.941 0.615 -52.008
649 0.599 -53.138 0.8 36.809 0.8 36.809 0.599 -53.138
673.958 0.584 -54.217 0.811 35.727 0.811 35.727 0.584 -54.217
698.917 0.569 -55.248 0.822 34.694 0.822 34.694 0.569 -55.248
723.875 0.555 -56.233 0.831 33.707 0.831 33.707 0.555 -56.233
748.833 0.541 -57.175 0.84 32.763 0.84 32.763 0.541 -57.175
773.792 0.528 -58.076 0.849 31.859 0.849 31.859 0.528 -58.076
798.75 0.515 -58.939 0.857 30.994 0.857 30.994 0.515 -58.939
823.708 0.502 -59.766 0.864 30.165 0.864 30.165 0.502 -59.766
848.667 0.49 -60.559 0.871 29.37 0.871 29.37 0.49 -60.559
873.625 0.479 -61.32 0.877 28.607 0.877 28.607 0.479 -61.32
898.583 0.468 -62.05 0.883 27.874 0.883 27.874 0.468 -62.05
923.542 0.457 -62.751 0.889 27.171 0.889 27.171 0.457 -62.751
948.5 0.446 -63.426 0.894 26.494 0.894 26.494 0.446 -63.426
973.458 0.436 -64.074 0.899 25.843 0.899 25.843 0.436 -64.074
998.417 0.426 -64.699 0.904 25.216 0.904 25.216 0.426 -64.699
1023.375 0.416 -65.3 0.909 24.612 0.909 24.612 0.416 -65.3
1048.333 0.407 -65.88 0.913 24.03 0.913 24.03 0.407 -65.88
1073.292 0.398 -66.439 0.917 23.469 0.917 23.469 0.398 -66.439
1098.25 0.39 -66.978 0.92 22.927 0.92 22.927 0.39 -66.978
1123.208 0.381 -67.499 0.924 22.403 0.924 22.403 0.381 -67.499
1148.167 0.373 -68.003 0.927 21.897 0.927 21.897 0.373 -68.003
1173.125 0.365 -68.489 0.93 21.408 0.93 21.408 0.365 -68.489
1198.083 0.357 -68.96 0.933 20.935 0.933 20.935 0.357 -68.96
1223.042 0.35 -69.416 0.936 20.477 0.936 20.477 0.35 -69.416
1248 0.343 -69.857 0.939 20.033 0.939 20.033 0.343 -69.857
1272.958 0.336 -70.284 0.941 19.603 0.941 19.603 0.336 -70.284
1297.917 0.329 -70.698 0.944 19.186 0.944 19.186 0.329 -70.698
1322.875 0.322 -71.1 0.946 18.782 0.946 18.782 0.322 -71.1
1347.833 0.315 -71.49 0.948 18.389 0.948 18.389 0.315 -71.49
1372.792 0.309 -71.869 0.95 18.008 0.95 18.008 0.309 -71.869
1397.75 0.303 -72.237 0.952 17.637 0.952 17.637 0.303 -72.237
1422.708 0.297 -72.594 0.954 17.277 0.954 17.277 0.297 -72.594
1447.667 0.291 -72.942 0.956 16.926 0.956 16.926 0.291 -72.942
1472.625 0.285 -73.28 0.958 16.585 0.958 16.585 0.285 -73.28
1497.583 0.28 -73.609 0.959 16.253 0.959 16.253 0.28 -73.609
1522.542 0.274 -73.929 0.961 15.93 0.961 15.93 0.274 -73.929
1547.5 0.269 -74.242 0.962 15.615 0.962 15.615 0.269 -74.242
1572.458 0.264 -74.546 0.964 15.308 0.964 15.308 0.264 -74.546
1597.417 0.259 -74.842 0.965 15.008 0.965 15.008 0.259 -74.842
1622.375 0.254 -75.131 0.967 14.716 0.967 14.716 0.254 -75.131
1647.333 0.249 -75.413 0.968 14.431 0.968 14.431 0.249 -75.413
1672.292 0.245 -75.688 0.969 14.153 0.969 14.153 0.245 -75.688
1697.25 0.24 -75.957 0.97 13.881 0.97 13.881 0.24 -75.957
1722.208 0.235 -76.22 0.971 13.615 0.971 13.615 0.235 -76.22
1747.167 0.231 -76.476 0.972 13.355 0.972 13.355 0.231 -76.476
1772.125 0.227 -76.727 0.973 13.101 0.973 13.101 0.227 -76.727
1797.083 0.222 -76.972 0.974 12.853 0.974 12.853 0.222 -76.972
1822.042 0.218 -77.211 0.975 12.609 0.975 12.609 0.218 -77.211
1847 0.214 -77.446 0.976 12.371 0.976 12.371 0.214 -77.446
1871.958 0.21 -77.675 0.977 12.138 0.977 12.138 0.21 -77.675
1896.917 0.206 -77.9 0.978 11.91 0.978 11.91 0.206 -77.9
1921.875 0.203 -78.12 0.979 11.686 0.979 11.686 0.203 -78.12
1946.833 0.199 -78.335 0.979 11.467 0.979 11.467 0.199 -78.335
1971.792 0.195 -78.546 0.98 11.252 0.98 11.252 0.195 -78.546
1996.75 0.192 -78.753 0.981 11.041 0.981 11.041 0.192 -78.753
2021.708 0.188 -78.956 0.981 10.834 0.981 10.834 0.188 -78.956
2046.667 0.184 -79.155 0.982 10.631 0.982 10.631 0.184 -79.155
2071.625 0.181 -79.35 0.983 10.432 0.983 10.432 0.181 -79.35
2096.583 0.178 -79.542 0.983 10.236 0.983 10.236 0.178 -79.542
2121.542 0.174 -79.729 0.984 10.044 0.984 10.044 0.174 -79.729
2146.5 0.171 -79.914 0.985 9.855 0.985 9.855 0.171 -79.914
2171.458 0.168 -80.095 0.985 9.67 0.985 9.67 0.168 -80.095
2196.417 0.165 -80.272 0.986 9.488 0.986 9.488 0.165 -80.272
2221.375 0.162 -80.447 0.986 9.308 0.986 9.308 0.162 -80.447
2246.333 0.159 -80.619 0.987 9.132 0.987 9.132 0.159 -80.619
2271.292 0.156 -80.787 0.987 8.959 0.987 8.959 0.156 -80.787
2296.25 0.153 -80.953 0.988 8.788 0.988 8.788 0.153 -80.953
2321.208 0.15 -81.115 0.988 8.62 0.988 8.62 0.15 -81.115
2346.167 0.147 -81.276 0.988 8.455 0.988 8.455 0.147 -81.276
2371.125 0.144 -81.433 0.989 8.292 0.989 8.292 0.144 -81.433
2396.083 0.141 -81.588 0.989 8.132 0.989 8.132 0.141 -81.588
2421.042 0.139 -81.74 0.99 7.974 0.99 7.974 0.139 -81.74
2446 0.136 -81.89 0.99 7.818 0.99 7.818 0.136 -81.89
2470.958 0.133 -82.037 0.99 7.665 0.99 7.665 0.133 -82.037
2495.917 0.131 -82.182 0.991 7.514 0.991 7.514 0.131 -82.182
2520.875 0.128 -82.325 0.991 7.365 0.991 7.365 0.128 -82.325
2545.833 0.126 -82.465 0.991 7.218 0.991 7.218 0.126 -82.465
2570.792 0.123 -82.604 0.992 7.073 0.992 7.073 0.123 -82.604
2595.75 0.121 -82.74 0.992 6.93 0.992 6.93 0.121 -82.74
2620.708 0.118 -82.874 0.992 6.789 0.992 6.789 0.118 -82.874
2645.667 0.116 -83.006 0.993 6.65 0.993 6.65 0.116 -83.006
2670.625 0.113 -83.136 0.993 6.513 0.993 6.513 0.113 -83.136
2695.583 0.111 -83.264 0.993 6.378 0.993 6.378 0.111 -83.264
2720.542 0.109 -83.39 0.993 6.244 0.993 6.244 0.109 -83.39
2745.5 0.106 -83.514 0.994 6.112 0.994 6.112 0.106 -83.514
2770.458 0.104 -83.636 0.994 5.981 0.994 5.981 0.104 -83.636
2795.417 0.102 -83.757 0.994 5.852 0.994 5.852 0.102 -83.757
2820.375 0.1 -83.875 0.994 5.725 0.994 5.725 0.1 -83.875
2845.333 0.098 -83.992 0.995 5.599 0.995 5.599 0.098 -83.992
2870.292 0.095 -84.107 0.995 5.475 0.995 5.475 0.095 -84.107
2895.25 0.093 -84.22 0.995 5.352 0.995 5.352 0.093 -84.22
2920.208 0.091 -84.332 0.995 5.23 0.995 5.23 0.091 -84.332
2945.167 0.089 -84.442 0.995 5.11 0.995 5.11 0.089 -84.442
2970.125 0.087 -84.55 0.996 4.991 0.996 4.991 0.087 -84.55
2995.083 0.085 -84.656 0.996 4.874 0.996 4.874 0.085 -84.656
3020.042 0.083 -84.761 0.996 4.757 0.996 4.757 0.083 -84.761
3045 0.081 -84.864 0.996 4.642 0.996 4.642 0.081 -84.864
3069.958 0.079 -84.965 0.996 4.529 0.996 4.529 0.079 -84.965
3094.917 0.077 -85.065 0.996 4.416 0.996 4.416 0.077 -85.065
3119.875 0.075 -85.163 0.996 4.304 0.996 4.304 0.075 -85.163
3144.833 0.073 -85.259 0.997 4.194 0.997 4.194 0.073 -85.259
3169.792 0.071 -85.354 0.997 4.085 0.997 4.085 0.071 -85.354
3194.75 0.069 -85.447 0.997 3.977 0.997 3.977 0.069 -85.447
3219.708 0.067 -85.538 0.997 3.87 0.997 3.87 0.067 -85.538
3244.667 0.066 -85.627 0.997 3.763 0.997 3.763 0.066 -85.627
3269.625 0.064 -85.715 0.997 3.658 0.997 3.658 0.064 -85.715
3294.583 0.062 -85.8 0.997 3.554 0.997 3.554 0.062 -85.8
3319.542 0.06 -85.884 0.997 3.451 0.997 3.451 0.06 -85.884
3344.5 0.058 -85.966 0.998 3.349 0.998 3.349 0.058 -85.966
3369.458 0.057 -86.046 0.998 3.248 0.998 3.248 0.057 -86.046
3394.417 0.055 -86.124 0.998 3.147 0.998 3.147 0.055 -86.124
3419.375 0.053 -86.199 0.998 3.048 0.998 3.048 0.053 -86.199
3444.333 0.051 -86.273 0.998 2.949 0.998 2.949 0.051 -86.273
3469.292 0.05 -86.344 0.998 2.852 0.998 2.852 0.05 -86.344
3494.25 0.048 -86.412 0.998 2.755 0.998 2.755 0.048 -86.412
3519.208 0.046 -86.478 0.998 2.659 0.998 2.659 0.046 -86.478
3544.167 0.045 -86.541 0.998 2.563 0.998 2.563 0.045 -86.541
3569.125 0.043 -86.601 0.998 2.469 0.998 2.469 0.043 -86.601
3594.083 0.041 -86.658 0.998 2.375 0.998 2.375 0.041 -86.658
3619.042 0.04 -86.712 0.999 2.282 0.999 2.282 0.04 -86.712
3644 0.038 -86.762 0.999 2.19 0.999 2.19 0.038 -86.762
3668.958 0.037 -86.808 0.999 2.098 0.999 2.098 0.037 -86.808
3693.917 0.035 -86.849 0.999 2.007 0.999 2.007 0.035 -86.849
3718.875 0.033 -86.885 0.999 1.917 0.999 1.917 0.033 -86.885
3743.833 0.032 -86.916 0.999 1.828 0.999 1.828 0.032 -86.916
3768.792 0.03 -86.941 0.999 1.739 0.999 1.739 0.03 -86.941
3793.75 0.029 -86.958 0.999 1.651 0.999 1.651 0.029 -86.958
3818.708 0.027 -86.968 0.999 1.563 0.999 1.563 0.027 -86.968
3843.667 0.026 -86.968 0.999 1.476 0.999 1.476 0.026 -86.968
3868.625 0.024 -86.958 0.999 1.39 0.999 1.39 0.024 -86.958
3893.583 0.023 -86.935 0.999 1.304 0.999 1.304 0.023 -86.935
3918.542 0.021 -86.898 0.999 1.219 0.999 1.219 0.021 -86.898
3943.5 0.02 -86.842 0.999 1.135 0.999 1.135 0.02 -86.842
3968.458 0.018 -86.765 0.999 1.051 0.999 1.051 0.018 -86.765
3993.417 0.017 -86.66 0.999 0.968 0.999 0.968 0.017 -86.66
4018.375 0.015 -86.521 0.999 0.885 0.999 0.885 0.015 -86.521
4043.333 0.014 -86.338 0.999 0.803 0.999 0.803 0.014 -86.338
4068.292 0.013 -86.096 0.999 0.721 0.999 0.721 0.013 -86.096
4093.25 0.011 -85.774 0.999 0.64 0.999 0.64 0.011 -85.774
4118.208 9.783e-3 -85.339 0.999 0.559 0.999 0.559 9.783e-3 -85.339
4143.167 8.388e-3 -84.736 0.999 0.479 0.999 0.479 8.388e-3 -84.736
4168.125 7.003e-3 -83.866 0.999 0.399 0.999 0.399 7.003e-3 -83.866
4193.083 5.63e-3 -82.54 0.999 0.32 0.999 0.32 5.63e-3 -82.54
4218.042 4.27e-3 -80.328 0.999 0.241 0.999 0.241 4.27e-3 -80.328
4243 2.932e-3 -76.03 0.999 0.163 0.999 0.163 2.932e-3 -76.03
4267.958 1.646e-3 -64.759 0.999 0.085 0.999 0.085 1.646e-3 -64.759
4292.917 713.7e-6 -11.36 0.999 8.061e-3 0.999 8.061e-3 713.7e-6 -11.36
4317.875 1.39e-3 59.7 0.999 -0.069 0.999 -0.069 1.39e-3 59.7
4342.833 2.629e-3 74.421 0.999 -0.145 0.999 -0.145 2.629e-3 74.421
4367.792 3.924e-3 79.506 0.999 -0.221 0.999 -0.221 3.924e-3 79.506
4392.75 5.227e-3 82.009 0.999 -0.297 0.999 -0.297 5.227e-3 82.009
4417.708 6.529e-3 83.475 0.999 -0.372 0.999 -0.372 6.529e-3 83.475
4442.667 7.827e-3 84.424 0.999 -0.447 0.999 -0.447 7.827e-3 84.424
4467.625 9.119e-3 85.078 0.999 -0.521 0.999 -0.521 9.119e-3 85.078
4492.583 0.01 85.55 0.999 -0.595 0.999 -0.595 0.01 85.55
4517.542 0.012 85.899 0.999 -0.668 0.999 -0.668 0.012 85.899
4542.5 0.013 86.164 0.999 -0.742 0.999 -0.742 0.013 86.164
4567.458 0.014 86.367 0.999 -0.814 0.999 -0.814 0.014 86.367
4592.417 0.015 86.525 0.999 -0.887 0.999 -0.887 0.015 86.525
4617.375 0.017 86.647 0.999 -0.959 0.999 -0.959 0.017 86.647
4642.333 0.018 86.742 0.999 -1.03 0.999 -1.03 0.018 86.742
4667.292 0.019 86.814 0.999 -1.102 0.999 -1.102 0.019 86.814
4692.25 0.02 86.869 0.999 -1.173 0.999 -1.173 0.02 86.869
4717.208 0.022 86.91 0.999 -1.243 0.999 -1.243 0.022 86.91
4742.167 0.023 86.938 0.999 -1.313 0.999 -1.313 0.023 86.938
4767.125 0.024 86.957 0.999 -1.383 0.999 -1.383 0.024 86.957
4792.083 0.025 86.967 0.999 -1.453 0.999 -1.453 0.025 86.967
4817.042 0.027 86.969 0.999 -1.522 0.999 -1.522 0.027 86.969
4842 0.028 86.966 0.999 -1.591 0.999 -1.591 0.028 86.966
4866.958 0.029 86.957 0.999 -1.66 0.999 -1.66 0.029 86.957
4891.917 0.03 86.943 0.999 -1.728 0.999 -1.728 0.03 86.943
4916.875 0.031 86.926 0.999 -1.796 0.999 -1.796 0.031 86.926
4941.833 0.033 86.904 0.999 -1.864 0.999 -1.864 0.033 86.904
4966.792 0.034 86.88 0.999 -1.931 0.999 -1.931 0.034 86.88
4991.75 0.035 86.853 0.999 -1.998 0.999 -1.998 0.035 86.853
5016.708 0.036 86.823 0.999 -2.065 0.999 -2.065 0.036 86.823
5041.667 0.037 86.791 0.999 -2.132 0.999 -2.132 0.037 86.791
5066.625 0.038 86.758 0.999 -2.198 0.999 -2.198 0.038 86.758
5091.583 0.04 86.722 0.999 -2.264 0.999 -2.264 0.04 86.722
5116.542 0.041 86.685 0.998 -2.33 0.998 -2.33 0.041 86.685
5141.5 0.042 86.647 0.998 -2.395 0.998 -2.395 0.042 86.647
5166.458 0.043 86.607 0.998 -2.46 0.998 -2.46 0.043 86.607
5191.417 0.044 86.566 0.998 -2.525 0.998 -2.525 0.044 86.566
5216.375 0.045 86.524 0.998 -2.59 0.998 -2.59 0.045 86.524
5241.333 0.046 86.481 0.998 -2.654 0.998 -2.654 0.046 86.481
5266.292 0.047 86.437 0.998 -2.718 0.998 -2.718 0.047 86.437
5291.25 0.049 86.393 0.998 -2.782 0.998 -2.782 0.049 86.393
5316.208 0.05 86.348 0.998 -2.846 0.998 -2.846 0.05 86.348
5341.167 0.051 86.302 0.998 -2.909 0.998 -2.909 0.051 86.302
5366.125 0.052 86.256 0.998 -2.972 0.998 -2.972 0.052 86.256
5391.083 0.053 86.209 0.998 -3.035 0.998 -3.035 0.053 86.209
5416.042 0.054 86.161 0.998 -3.098 0.998 -3.098 0.054 86.161
5441 0.055 86.114 0.998 -3.16 0.998 -3.16 0.055 86.114
5465.958 0.056 86.065 0.998 -3.222 0.998 -3.222 0.056 86.065
5490.917 0.057 86.017 0.998 -3.284 0.998 -3.284 0.057 86.017
5515.875 0.058 85.968 0.998 -3.346 0.998 -3.346 0.058 85.968
5540.833 0.059 85.919 0.998 -3.408 0.998 -3.408 0.059 85.919
5565.792 0.061 85.87 0.997 -3.469 0.997 -3.469 0.061 85.87
5590.75 0.062 85.82 0.997 -3.53 0.997 -3.53 0.062 85.82
5615.708 0.063 85.77 0.997 -3.591 0.997 -3.591 0.063 85.77
5640.667 0.064 85.72 0.997 -3.652 0.997 -3.652 0.064 85.72
5665.625 0.065 85.67 0.997 -3.712 0.997 -3.712 0.065 85.67
5690.583 0.066 85.619 0.997 -3.773 0.997 -3.773 0.066 85.619
5715.542 0.067 85.569 0.997 -3.833 0.997 -3.833 0.067 85.569
5740.5 0.068 85.518 0.997 -3.893 0.997 -3.893 0.068 85.518
5765.458 0.069 85.467 0.997 -3.952 0.997 -3.952 0.069 85.467
5790.417 0.07 85.416 0.997 -4.012 0.997 -4.012 0.07 85.416
5815.375 0.071 85.365 0.997 -4.071 0.997 -4.071 0.071 85.365
5840.333 0.072 85.314 0.997 -4.13 0.997 -4.13 0.072 85.314
5865.292 0.073 85.263 0.997 -4.189 0.997 -4.189 0.073 85.263
5890.25 0.074 85.212 0.997 -4.248 0.997 -4.248 0.074 85.212
5915.208 0.075 85.161 0.996 -4.307 0.996 -4.307 0.075 85.161
5940.167 0.076 85.11 0.996 -4.365 0.996 -4.365 0.076 85.11
5965.125 0.077 85.058 0.996 -4.423 0.996 -4.423 0.077 85.058
5990.083 0.078 85.007 0.996 -4.481 0.996 -4.481 0.078 85.007
6015.042 0.079 84.956 0.996 -4.539 0.996 -4.539 0.079 84.956
6040 0.08 84.904 0.996 -4.597 0.996 -4.597 0.08 84.904
6064.958 0.081 84.853 0.996 -4.655 0.996 -4.655 0.081 84.853
6089.917 0.082 84.802 0.996 -4.712 0.996 -4.712 0.082 84.802
6114.875 0.083 84.75 0.996 -4.769 0.996 -4.769 0.083 84.75
6139.833 0.084 84.699 0.996 -4.826 0.996 -4.826 0.084 84.699
6164.792 0.085 84.648 0.996 -4.883 0.996 -4.883 0.085 84.648
6189.75 0.086 84.596 0.996 -4.94 0.996 -4.94 0.086 84.596
6214.708 0.087 84.545 0.996 -4.996 0.996 -4.996 0.087 84.545
6239.667 0.088 84.494 0.995 -5.053 0.995 -5.053 0.088 84.494
6264.625 0.089 84.442 0.995 -5.109 0.995 -5.109 0.089 84.442
6289.583 0.09 84.391 0.995 -5.165 0.995 -5.165 0.09 84.391
6314.542 0.091 84.34 0.995 -5.221 0.995 -5.221 0.091 84.34
6339.5 0.092 84.289 0.995 -5.277 0.995 -5.277 0.092 84.289
6364.458 0.093 84.238 0.995 -5.333 0.995 -5.333 0.093 84.238
6389.417 0.094 84.187 0.995 -5.388 0.995 -5.388 0.094 84.187
6414.375 0.095 84.136 0.995 -5.443 0.995 -5.443 0.095 84.136
6439.333 0.096 84.085 0.995 -5.499 0.995 -5.499 0.096 84.085
6464.292 0.097 84.034 0.995 -5.554 0.995 -5.554 0.097 84.034
6489.25 0.098 83.983 0.995 -5.609 0.995 -5.609 0.098 83.983
6514.208 0.099 83.932 0.994 -5.664 0.994 -5.664 0.099 83.932
6539.167 0.1 83.881 0.994 -5.718 0.994 -5.718 0.1 83.881
6564.125 0.101 83.831 0.994 -5.773 0.994 -5.773 0.101 83.831
6589.083 0.102 83.78 0.994 -5.827 0.994 -5.827 0.102 83.78
6614.042 0.102 83.729 0.994 -5.881 0.994 -5.881 0.102 83.729
6639 0.103 83.679 0.994 -5.935 0.994 -5.935 0.103 83.679
6663.958 0.104 83.628 0.994 -5.989 0.994 -5.989 0.104 83.628
6688.917 0.105 83.578 0.994 -6.043 0.994 -6.043 0.105 83.578
6713.875 0.106 83.528 0.994 -6.097 0.994 -6.097 0.106 83.528
6738.833 0.107 83.477 0.994 -6.151 0.994 -6.151 0.107 83.477
6763.792 0.108 83.427 0.993 -6.204 0.993 -6.204 0.108 83.427
6788.75 0.109 83.377 0.993 -6.258 0.993 -6.258 0.109 83.377
6813.708 0.11 83.327 0.993 -6.311 0.993 -6.311 0.11 83.327
6838.667 0.111 83.277 0.993 -6.364 0.993 -6.364 0.111 83.277
6863.625 0.112 83.227 0.993 -6.417 0.993 -6.417 0.112 83.227
6888.583 0.113 83.177 0.993 -6.47 0.993 -6.47 0.113 83.177
6913.542 0.114 83.127 0.993 -6.523 0.993 -6.523 0.114 83.127
6938.5 0.115 83.077 0.993 -6.575 0.993 -6.575 0.115 83.077
6963.458 0.115 83.027 0.993 -6.628 0.993 -6.628 0.115 83.027
6988.417 0.116 82.978 0.993 -6.68 0.993 -6.68 0.116 82.978
7013.375 0.117 82.928 0.992 -6.732 0.992 -6.732 0.117 82.928
7038.333 0.118 82.878 0.992 -6.785 0.992 -6.785 0.118 82.878
7063.292 0.119 82.829 0.992 -6.837 0.992 -6.837 0.119 82.829
7088.25 0.12 82.78 0.992 -6.889 0.992 -6.889 0.12 82.78
7113.208 0.121 82.73 0.992 -6.94 0.992 -6.94 0.121 82.73
7138.167 0.122 82.681 0.992 -6.992 0.992 -6.992 0.122 82.681
7163.125 0.123 82.632 0.992 -7.044 0.992 -7.044 0.123 82.632
7188.083 0.124 82.583 0.992 -7.095 0.992 -7.095 0.124 82.583
7213.042 0.124 82.533 0.992 -7.147 0.992 -7.147 0.124 82.533
7238 0.125 82.484 0.991 -7.198 0.991 -7.198 0.125 82.484
7262.958 0.126 82.435 0.991 -7.249 0.991 -7.249 0.126 82.435
7287.917 0.127 82.387 0.991 -7.3 0.991 -7.3 0.127 82.387
7312.875 0.128 82.338 0.991 -7.351 0.991 -7.351 0.128 82.338
7337.833 0.129 82.289 0.991 -7.402 0.991 -7.402 0.129 82.289
7362.792 0.13 82.24 0.991 -7.453 0.991 -7.453 0.13 82.24
7387.75 0.131 82.192 0.991 -7.504 0.991 -7.504 0.131 82.192
7412.708 0.131 82.143 0.991 -7.554 0.991 -7.554 0.131 82.143
7437.667 0.132 82.095 0.991 -7.605 0.991 -7.605 0.132 82.095
7462.625 0.133 82.046 0.99 -7.655 0.99 -7.655 0.133 82.046
7487.583 0.134 81.998 0.99 -7.706 0.99 -7.706 0.134 81.998
7512.542 0.135 81.95 0.99 -7.756 0.99 -7.756 0.135 81.95
7537.5 0.136 81.901 0.99 -7.806 0.99 -7.806 0.136 81.901
7562.458 0.137 81.853 0.99 -7.856 0.99 -7.856 0.137 81.853
7587.417 0.138 81.805 0.99 -7.906 0.99 -7.906 0.138 81.805
7612.375 0.138 81.757 0.99 -7.956 0.99 -7.956 0.138 81.757
7637.333 0.139 81.709 0.99 -8.006 0.99 -8.006 0.139 81.709
7662.292 0.14 81.661 0.989 -8.055 0.989 -8.055 0.14 81.661
7687.25 0.141 81.613 0.989 -8.105 0.989 -8.105 0.141 81.613
7712.208 0.142 81.566 0.989 -8.154 0.989 -8.154 0.142 81.566
7737.167 0.143 81.518 0.989 -8.204 0.989 -8.204 0.143 81.518
7762.125 0.144 81.47 0.989 -8.253 0.989 -8.253 0.144 81.47
7787.083 0.144 81.423 0.989 -8.302 0.989 -8.302 0.144 81.423
7812.042 0.145 81.375 0.989 -8.352 0.989 -8.352 0.145 81.375
7837 0.146 81.328 0.989 -8.401 0.989 -8.401 0.146 81.328
7861.958 0.147 81.28 0.988 -8.45 0.988 -8.45 0.147 81.28
7886.917 0.148 81.233 0.988 -8.499 0.988 -8.499 0.148 81.233
7911.875 0.149 81.186 0.988 -8.547 0.988 -8.547 0.149 81.186
7936.833 0.149 81.139 0.988 -8.596 0.988 -8.596 0.149 81.139
7961.792 0.15 81.092 0.988 -8.645 0.988 -8.645 0.15 81.092
7986.75 0.151 81.044 0.988 -8.693 0.988 -8.693 0.151 81.044
8011.708 0.152 80.997 0.988 -8.742 0.988 -8.742 0.152 80.997
8036.667 0.153 80.951 0.988 -8.79 0.988 -8.79 0.153 80.951
8061.625 0.154 80.904 0.987 -8.839 0.987 -8.839 0.154 80.904
8086.583 0.154 80.857 0.987 -8.887 0.987 -8.887 0.154 80.857
8111.542 0.155 80.81 0.987 -8.935 0.987 -8.935 0.155 80.81
8136.5 0.156 80.763 0.987 -8.983 0.987 -8.983 0.156 80.763
8161.458 0.157 80.717 0.987 -9.031 0.987 -9.031 0.157 80.717
8186.417 0.158 80.67 0.987 -9.079 0.987 -9.079 0.158 80.67
8211.375 0.159 80.624 0.987 -9.127 0.987 -9.127 0.159 80.624
8236.333 0.159 80.577 0.987 -9.175 0.987 -9.175 0.159 80.577
8261.292 0.16 80.531 0.986 -9.222 0.986 -9.222 0.16 80.531
