# MHZ S MA R 50

50 0.998 -3.954 0.069 86.042 0.069 86.042 0.998 -3.954
74.958 0.995 -5.917 0.103 84.077 0.103 84.077 0.995 -5.917
99.917 0.991 -7.866 0.137 82.125 0.137 82.125 0.991 -7.866
124.875 0.985 -9.799 0.17 80.191 0.17 80.191 0.985 -9.799
149.833 0.979 -11.711 0.203 78.277 0.203 78.277 0.979 -11.711
174.792 0.972 -13.598 0.235 76.388 0.235 76.388 0.972 -13.598
199.75 0.964 -15.457 0.267 74.526 0.267 74.526 0.964 -15.457
224.708 0.955 -17.286 0.297 72.696 0.297 72.696 0.955 -17.286
249.667 0.945 -19.081 0.327 70.899 0.327 70.899 0.945 -19.081
274.625 0.934 -20.84 0.356 69.137 0.356 69.137 0.934 -20.84
299.583 0.923 -22.562 0.384 67.413 0.384 67.413 0.923 -22.562
324.542 0.912 -24.245 0.411 65.729 0.411 65.729 0.912 -24.245
349.5 0.899 -25.887 0.437 64.084 0.437 64.084 0.899 -25.887
374.458 0.887 -27.487 0.462 62.482 0.462 62.482 0.887 -27.487
399.417 0.874 -29.046 0.486 60.921 0.486 60.921 0.874 -29.046
424.375 0.861 -30.562 0.508 59.402 0.508 59.402 0.861 -30.562
449.333 0.847 -32.036 0.53 57.927 0.53 57.927 0.847 -32.036
474.292 0.834 -33.467 0.551 56.493 0.551 56.493 0.834 -33.467
499.25 0.82 -34.856 0.572 55.102 0.572 55.102 0.82 -34.856
524.208 0.806 -36.203 0.591 53.753 0.591 53.753 0.806 -36.203
549.167 0.793 -37.51 0.609 52.445 0.609 52.445 0.793 -37.51
574.125 0.779 -38.775 0.626 51.177 0.626 51.177 0.779 -38.775
599.083 0.765 -40.002 0.643 49.948 0.643 49.948 0.765 -40.002
624.042 0.752 -41.189 0.659 48.759 0.659 48.759 0.752 -41.189
649 0.739 -42.339 0.674 47.607 0.674 47.607 0.739 -42.339
673.958 0.725 -43.452 0.688 46.491 0.688 46.491 0.725 -43.452
698.917 0.712 -44.529 0.701 45.412 0.701 45.412 0.712 -44.529
723.875 0.699 -45.573 0.714 44.367 0.714 44.367 0.699 -45.573
748.833 0.687 -46.582 0.726 43.355 0.726 43.355 0.687 -46.582
773.792 0.674 -47.559 0.738 42.375 0.738 42.375 0.674 -47.559
798.75 0.662 -48.506 0.749 41.427 0.749 41.427 0.662 -48.506
823.708 0.65 -49.422 0.76 40.509 0.76 40.509 0.65 -49.422
848.667 0.638 -50.309 0.769 39.619 0.769 39.619 0.638 -50.309
873.625 0.626 -51.168 0.779 38.758 0.779 38.758 0.626 -51.168
898.583 0.615 -52 0.788 37.924 0.788 37.924 0.615 -52
923.542 0.603 -52.806 0.797 37.115 0.797 37.115 0.603 -52.806
948.5 0.592 -53.587 0.805 36.332 0.805 36.332 0.592 -53.587
973.458 0.582 -54.345 0.813 35.572 0.813 35.572 0.582 -54.345
998.417 0.571 -55.079 0.82 34.836 0.82 34.836 0.571 -55.079
1023.375 0.561 -55.791 0.827 34.121 0.827 34.121 0.561 -55.791
1048.333 0.551 -56.482 0.834 33.428 0.834 33.428 0.551 -56.482
1073.292 0.541 -57.152 0.84 32.755 0.84 32.755 0.541 -57.152
1098.25 0.531 -57.803 0.846 32.102 0.846 32.102 0.531 -57.803
1123.208 0.522 -58.435 0.852 31.468 0.852 31.468 0.522 -58.435
1148.167 0.513 -59.048 0.858 30.852 0.858 30.852 0.513 -59.048
1173.125 0.504 -59.644 0.863 30.253 0.863 30.253 0.504 -59.644
1198.083 0.495 -60.224 0.868 29.672 0.868 29.672 0.495 -60.224
1223.042 0.486 -60.787 0.873 29.106 0.873 29.106 0.486 -60.787
1248 0.478 -61.335 0.877 28.556 0.877 28.556 0.478 -61.335
1272.958 0.47 -61.868 0.882 28.02 0.882 28.02 0.47 -61.868
1297.917 0.462 -62.386 0.886 27.499 0.886 27.499 0.462 -62.386
1322.875 0.454 -62.891 0.89 26.992 0.89 26.992 0.454 -62.891
1347.833 0.446 -63.383 0.894 26.498 0.894 26.498 0.446 -63.383
1372.792 0.439 -63.862 0.898 26.016 0.898 26.016 0.439 -63.862
1397.75 0.431 -64.328 0.901 25.547 0.901 25.547 0.431 -64.328
1422.708 0.424 -64.783 0.905 25.09 0.905 25.09 0.424 -64.783
1447.667 0.417 -65.226 0.908 24.644 0.908 24.644 0.417 -65.226
1472.625 0.41 -65.658 0.911 24.209 0.911 24.209 0.41 -65.658
1497.583 0.403 -66.08 0.914 23.785 0.914 23.785 0.403 -66.08
1522.542 0.397 -66.492 0.917 23.37 0.917 23.37 0.397 -66.492
1547.5 0.39 -66.893 0.92 22.966 0.92 22.966 0.39 -66.893
1572.458 0.384 -67.286 0.922 22.571 0.922 22.571 0.384 -67.286
1597.417 0.378 -67.669 0.925 22.185 0.925 22.185 0.378 -67.669
1622.375 0.371 -68.043 0.927 21.808 0.927 21.808 0.371 -68.043
1647.333 0.366 -68.409 0.93 21.439 0.93 21.439 0.366 -68.409
1672.292 0.36 -68.767 0.932 21.079 0.932 21.079 0.36 -68.767
1697.25 0.354 -69.117 0.934 20.726 0.934 20.726 0.354 -69.117
1722.208 0.348 -69.459 0.936 20.381 0.936 20.381 0.348 -69.459
1747.167 0.343 -69.793 0.938 20.043 0.938 20.043 0.343 -69.793
1772.125 0.337 -70.121 0.94 19.713 0.94 19.713 0.337 -70.121
1797.083 0.332 -70.441 0.942 19.389 0.942 19.389 0.332 -70.441
1822.042 0.327 -70.755 0.944 19.072 0.944 19.072 0.327 -70.755
1847 0.322 -71.063 0.946 18.762 0.946 18.762 0.322 -71.063
1871.958 0.317 -71.364 0.948 18.457 0.948 18.457 0.317 -71.364
1896.917 0.312 -71.659 0.949 18.159 0.949 18.159 0.312 -71.659
1921.875 0.307 -71.949 0.951 17.867 0.951 17.867 0.307 -71.949
1946.833 0.302 -72.232 0.952 17.58 0.952 17.58 0.302 -72.232
1971.792 0.297 -72.51 0.954 17.298 0.954 17.298 0.297 -72.51
1996.75 0.293 -72.783 0.955 17.022 0.955 17.022 0.293 -72.783
2021.708 0.288 -73.051 0.957 16.751 0.957 16.751 0.288 -73.051
2046.667 0.284 -73.313 0.958 16.485 0.958 16.485 0.284 -73.313
2071.625 0.279 -73.571 0.959 16.224 0.959 16.224 0.279 -73.571
2096.583 0.275 -73.824 0.96 15.968 0.96 15.968 0.275 -73.824
2121.542 0.271 -74.073 0.962 15.716 0.962 15.716 0.271 -74.073
2146.5 0.267 -74.317 0.963 15.468 0.963 15.468 0.267 -74.317
2171.458 0.263 -74.556 0.964 15.225 0.964 15.225 0.263 -74.556
2196.417 0.259 -74.792 0.965 14.986 0.965 14.986 0.259 -74.792
2221.375 0.255 -75.023 0.966 14.75 0.966 14.75 0.255 -75.023
2246.333 0.251 -75.251 0.967 14.519 0.967 14.519 0.251 -75.251
2271.292 0.247 -75.475 0.968 14.292 0.968 14.292 0.247 -75.475
2296.25 0.243 -75.695 0.969 14.068 0.969 14.068 0.243 -75.695
2321.208 0.239 -75.911 0.97 13.848 0.97 13.848 0.239 -75.911
2346.167 0.236 -76.124 0.971 13.631 0.971 13.631 0.236 -76.124
2371.125 0.232 -76.333 0.972 13.417 0.972 13.417 0.232 -76.333
2396.083 0.228 -76.539 0.973 13.207 0.973 13.207 0.228 -76.539
2421.042 0.225 -76.742 0.973 13 0.973 13 0.225 -76.742
2446 0.221 -76.941 0.974 12.797 0.974 12.797 0.221 -76.941
2470.958 0.218 -77.138 0.975 12.596 0.975 12.596 0.218 -77.138
2495.917 0.215 -77.331 0.976 12.398 0.976 12.398 0.215 -77.331
2520.875 0.211 -77.521 0.976 12.203 0.976 12.203 0.211 -77.521
2545.833 0.208 -77.709 0.977 12.011 0.977 12.011 0.208 -77.709
2570.792 0.205 -77.894 0.978 11.822 0.978 11.822 0.205 -77.894
2595.75 0.202 -78.076 0.978 11.635 0.978 11.635 0.202 -78.076
2620.708 0.199 -78.255 0.979 11.451 0.979 11.451 0.199 -78.255
2645.667 0.195 -78.432 0.98 11.269 0.98 11.269 0.195 -78.432
2670.625 0.192 -78.606 0.98 11.09 0.98 11.09 0.192 -78.606
2695.583 0.189 -78.778 0.981 10.913 0.981 10.913 0.189 -78.778
2720.542 0.186 -78.947 0.981 10.739 0.981 10.739 0.186 -78.947
2745.5 0.183 -79.114 0.982 10.566 0.982 10.566 0.183 -79.114
2770.458 0.18 -79.279 0.983 10.396 0.983 10.396 0.18 -79.279
2795.417 0.178 -79.441 0.983 10.229 0.983 10.229 0.178 -79.441
2820.375 0.175 -79.602 0.984 10.063 0.984 10.063 0.175 -79.602
2845.333 0.172 -79.76 0.984 9.899 0.984 9.899 0.172 -79.76
2870.292 0.169 -79.915 0.985 9.738 0.985 9.738 0.169 -79.915
2895.25 0.166 -80.069 0.985 9.578 0.985 9.578 0.166 -80.069
2920.208 0.164 -80.221 0.985 9.42 0.985 9.42 0.164 -80.221
2945.167 0.161 -80.371 0.986 9.264 0.986 9.264 0.161 -80.371
2970.125 0.158 -80.518 0.986 9.11 0.986 9.11 0.158 -80.518
2995.083 0.156 -80.664 0.987 8.958 0.987 8.958 0.156 -80.664
3020.042 0.153 -80.808 0.987 8.807 0.987 8.807 0.153 -80.808
3045 0.151 -80.95 0.988 8.659 0.988 8.659 0.151 -80.95
3069.958 0.148 -81.091 0.988 8.512 0.988 8.512 0.148 -81.091
3094.917 0.145 -81.229 0.988 8.366 0.988 8.366 0.145 -81.229
3119.875 0.143 -81.366 0.989 8.222 0.989 8.222 0.143 -81.366
3144.833 0.141 -81.501 0.989 8.08 0.989 8.08 0.141 -81.501
3169.792 0.138 -81.634 0.989 7.939 0.989 7.939 0.138 -81.634
3194.75 0.136 -81.766 0.99 7.8 0.99 7.8 0.136 -81.766
3219.708 0.133 -81.896 0.99 7.662 0.99 7.662 0.133 -81.896
3244.667 0.131 -82.024 0.99 7.525 0.99 7.525 0.131 -82.024
3269.625 0.129 -82.151 0.991 7.39 0.991 7.39 0.129 -82.151
3294.583 0.126 -82.276 0.991 7.257 0.991 7.257 0.126 -82.276
3319.542 0.124 -82.399 0.991 7.124 0.991 7.124 0.124 -82.399
3344.5 0.122 -82.521 0.992 6.993 0.992 6.993 0.122 -82.521
3369.458 0.12 -82.642 0.992 6.863 0.992 6.863 0.12 -82.642
3394.417 0.117 -82.761 0.992 6.735 0.992 6.735 0.117 -82.761
3419.375 0.115 -82.878 0.992 6.608 0.992 6.608 0.115 -82.878
3444.333 0.113 -82.994 0.993 6.482 0.993 6.482 0.113 -82.994
3469.292 0.111 -83.109 0.993 6.357 0.993 6.357 0.111 -83.109
3494.25 0.109 -83.222 0.993 6.233 0.993 6.233 0.109 -83.222
3519.208 0.106 -83.333 0.993 6.111 0.993 6.111 0.106 -83.333
3544.167 0.104 -83.443 0.994 5.989 0.994 5.989 0.104 -83.443
3569.125 0.102 -83.552 0.994 5.869 0.994 5.869 0.102 -83.552
3594.083 0.1 -83.659 0.994 5.75 0.994 5.75 0.1 -83.659
3619.042 0.098 -83.765 0.994 5.631 0.994 5.631 0.098 -83.765
3644 0.096 -83.869 0.994 5.514 0.994 5.514 0.096 -83.869
3668.958 0.094 -83.972 0.995 5.398 0.995 5.398 0.094 -83.972
3693.917 0.092 -84.073 0.995 5.283 0.995 5.283 0.092 -84.073
3718.875 0.09 -84.173 0.995 5.169 0.995 5.169 0.09 -84.173
3743.833 0.088 -84.272 0.995 5.055 0.995 5.055 0.088 -84.272
3768.792 0.086 -84.369 0.995 4.943 0.995 4.943 0.086 -84.369
3793.75 0.084 -84.464 0.995 4.832 0.995 4.832 0.084 -84.464
3818.708 0.082 -84.558 0.996 4.721 0.996 4.721 0.082 -84.558
3843.667 0.08 -84.65 0.996 4.612 0.996 4.612 0.08 -84.65
3868.625 0.079 -84.741 0.996 4.503 0.996 4.503 0.079 -84.741
3893.583 0.077 -84.83 0.996 4.395 0.996 4.395 0.077 -84.83
3918.542 0.075 -84.918 0.996 4.288 0.996 4.288 0.075 -84.918
3943.5 0.073 -85.004 0.996 4.182 0.996 4.182 0.073 -85.004
3968.458 0.071 -85.088 0.996 4.076 0.996 4.076 0.071 -85.088
3993.417 0.069 -85.171 0.997 3.972 0.997 3.972 0.069 -85.171
4018.375 0.067 -85.252 0.997 3.868 0.997 3.868 0.067 -85.252
4043.333 0.066 -85.331 0.997 3.765 0.997 3.765 0.066 -85.331
4068.292 0.064 -85.408 0.997 3.662 0.997 3.662 0.064 -85.408
4093.25 0.062 -85.483 0.997 3.561 0.997 3.561 0.062 -85.483
4118.208 0.06 -85.555 0.997 3.46 0.997 3.46 0.06 -85.555
4143.167 0.059 -85.626 0.997 3.36 0.997 3.36 0.059 -85.626
4168.125 0.057 -85.695 0.997 3.26 0.997 3.26 0.057 -85.695
4193.083 0.055 -85.761 0.997 3.161 0.997 3.161 0.055 -85.761
4218.042 0.053 -85.824 0.998 3.063 0.998 3.063 0.053 -85.824
4243 0.052 -85.885 0.998 2.966 0.998 2.966 0.052 -85.885
4267.958 0.05 -85.943 0.998 2.869 0.998 2.869 0.05 -85.943
4292.917 0.048 -85.998 0.998 2.773 0.998 2.773 0.048 -85.998
4317.875 0.047 -86.049 0.998 2.678 0.998 2.678 0.047 -86.049
4342.833 0.045 -86.098 0.998 2.583 0.998 2.583 0.045 -86.098
4367.792 0.043 -86.142 0.998 2.488 0.998 2.488 0.043 -86.142
4392.75 0.042 -86.182 0.998 2.395 0.998 2.395 0.042 -86.182
4417.708 0.04 -86.217 0.998 2.302 0.998 2.302 0.04 -86.217
4442.667 0.039 -86.248 0.998 2.209 0.998 2.209 0.039 -86.248
4467.625 0.037 -86.273 0.998 2.117 0.998 2.117 0.037 -86.273
4492.583 0.035 -86.291 0.998 2.026 0.998 2.026 0.035 -86.291
4517.542 0.034 -86.303 0.998 1.935 0.998 1.935 0.034 -86.303
4542.5 0.032 -86.307 0.998 1.845 0.998 1.845 0.032 -86.307
4567.458 0.031 -86.303 0.998 1.756 0.998 1.756 0.031 -86.303
4592.417 0.029 -86.288 0.999 1.666 0.999 1.666 0.029 -86.288
4617.375 0.028 -86.262 0.999 1.578 0.999 1.578 0.028 -86.262
4642.333 0.026 -86.222 0.999 1.49 0.999 1.49 0.026 -86.222
4667.292 0.024 -86.167 0.999 1.402 0.999 1.402 0.024 -86.167
4692.25 0.023 -86.093 0.999 1.315 0.999 1.315 0.023 -86.093
4717.208 0.021 -85.997 0.999 1.228 0.999 1.228 0.021 -85.997
4742.167 0.02 -85.874 0.999 1.142 0.999 1.142 0.02 -85.874
4767.125 0.018 -85.719 0.999 1.057 0.999 1.057 0.018 -85.719
4792.083 0.017 -85.522 0.999 0.972 0.999 0.972 0.017 -85.522
4817.042 0.016 -85.273 0.999 0.887 0.999 0.887 0.016 -85.273
4842 0.014 -84.955 0.999 0.803 0.999 0.803 0.014 -84.955
4866.958 0.013 -84.547 0.999 0.719 0.999 0.719 0.013 -84.547
4891.917 0.011 -84.012 0.999 0.636 0.999 0.636 0.011 -84.012
4916.875 9.701e-3 -83.298 0.999 0.553 0.999 0.553 9.701e-3 -83.298
4941.833 8.272e-3 -82.313 0.999 0.47 0.999 0.47 8.272e-3 -82.313
4966.792 6.853e-3 -80.89 0.999 0.388 0.999 0.388 6.853e-3 -80.89
4991.75 5.45e-3 -78.7 0.999 0.307 0.999 0.307 5.45e-3 -78.7
5016.708 4.067e-3 -74.971 0.999 0.225 0.999 0.225 4.067e-3 -74.971
5041.667 2.728e-3 -67.462 0.999 0.145 0.999 0.145 2.728e-3 -67.462
5066.625 1.527e-3 -47.049 0.999 0.064 0.999 0.064 1.527e-3 -47.049
5091.583 1.076e-3 14.933 0.999 -0.016 0.999 -0.016 1.076e-3 14.933
5116.542 1.964e-3 57.964 0.999 -0.096 0.999 -0.096 1.964e-3 57.964
5141.5 3.222e-3 71.008 0.999 -0.175 0.999 -0.175 3.222e-3 71.008
5166.458 4.546e-3 76.532 0.999 -0.254 0.999 -0.254 4.546e-3 76.532
5191.417 5.888e-3 79.502 0.999 -0.332 0.999 -0.332 5.888e-3 79.502
5216.375 7.233e-3 81.33 0.999 -0.41 0.999 -0.41 7.233e-3 81.33
5241.333 8.578e-3 82.554 0.999 -0.488 0.999 -0.488 8.578e-3 82.554
5266.292 9.92e-3 83.422 0.999 -0.565 0.999 -0.565 9.92e-3 83.422
5291.25 0.011 84.062 0.999 -0.642 0.999 -0.642 0.011 84.062
5316.208 0.013 84.547 0.999 -0.719 0.999 -0.719 0.013 84.547
5341.167 0.014 84.923 0.999 -0.795 0.999 -0.795 0.014 84.923
5366.125 0.015 85.22 0.999 -0.871 0.999 -0.871 0.015 85.22
5391.083 0.017 85.455 0.999 -0.947 0.999 -0.947 0.017 85.455
5416.042 0.018 85.645 0.999 -1.022 0.999 -1.022 0.018 85.645
5441 0.019 85.797 0.999 -1.097 0.999 -1.097 0.019 85.797
5465.958 0.02 85.92 0.999 -1.172 0.999 -1.172 0.02 85.92
5490.917 0.022 86.019 0.999 -1.246 0.999 -1.246 0.022 86.019
5515.875 0.023 86.098 0.999 -1.32 0.999 -1.32 0.023 86.098
5540.833 0.024 86.161 0.999 -1.394 0.999 -1.394 0.024 86.161
5565.792 0.026 86.209 0.999 -1.467 0.999 -1.467 0.026 86.209
5590.75 0.027 86.247 0.999 -1.54 0.999 -1.54 0.027 86.247
5615.708 0.028 86.274 0.999 -1.613 0.999 -1.613 0.028 86.274
5640.667 0.029 86.292 0.999 -1.686 0.999 -1.686 0.029 86.292
5665.625 0.031 86.303 0.998 -1.758 0.998 -1.758 0.031 86.303
5690.583 0.032 86.307 0.998 -1.83 0.998 -1.83 0.032 86.307
5715.542 0.033 86.306 0.998 -1.902 0.998 -1.902 0.033 86.306
5740.5 0.034 86.299 0.998 -1.973 0.998 -1.973 0.034 86.299
5765.458 0.036 86.288 0.998 -2.044 0.998 -2.044 0.036 86.288
5790.417 0.037 86.273 0.998 -2.115 0.998 -2.115 0.037 86.273
5815.375 0.038 86.255 0.998 -2.185 0.998 -2.185 0.038 86.255
5840.333 0.039 86.233 0.998 -2.256 0.998 -2.256 0.039 86.233
5865.292 0.041 86.209 0.998 -2.326 0.998 -2.326 0.041 86.209
5890.25 0.042 86.182 0.998 -2.395 0.998 -2.395 0.042 86.182
5915.208 0.043 86.152 0.998 -2.465 0.998 -2.465 0.043 86.152
5940.167 0.044 86.121 0.998 -2.534 0.998 -2.534 0.044 86.121
5965.125 0.045 86.088 0.998 -2.603 0.998 -2.603 0.045 86.088
5990.083 0.047 86.053 0.998 -2.672 0.998 -2.672 0.047 86.053
6015.042 0.048 86.016 0.998 -2.74 0.998 -2.74 0.048 86.016
6040 0.049 85.978 0.998 -2.808 0.998 -2.808 0.049 85.978
6064.958 0.05 85.939 0.998 -2.876 0.998 -2.876 0.05 85.939
6089.917 0.051 85.898 0.998 -2.944 0.998 -2.944 0.051 85.898
6114.875 0.053 85.857 0.998 -3.012 0.998 -3.012 0.053 85.857
6139.833 0.054 85.814 0.998 -3.079 0.998 -3.079 0.054 85.814
6164.792 0.055 85.771 0.997 -3.146 0.997 -3.146 0.055 85.771
6189.75 0.056 85.727 0.997 -3.213 0.997 -3.213 0.056 85.727
6214.708 0.057 85.682 0.997 -3.279 0.997 -3.279 0.057 85.682
6239.667 0.058 85.636 0.997 -3.346 0.997 -3.346 0.058 85.636
6264.625 0.06 85.59 0.997 -3.412 0.997 -3.412 0.06 85.59
6289.583 0.061 85.543 0.997 -3.478 0.997 -3.478 0.061 85.543
6314.542 0.062 85.495 0.997 -3.544 0.997 -3.544 0.062 85.495
6339.5 0.063 85.447 0.997 -3.609 0.997 -3.609 0.063 85.447
6364.458 0.064 85.399 0.997 -3.674 0.997 -3.674 0.064 85.399
6389.417 0.065 85.35 0.997 -3.739 0.997 -3.739 0.065 85.35
6414.375 0.066 85.3 0.997 -3.804 0.997 -3.804 0.066 85.3
6439.333 0.067 85.251 0.997 -3.869 0.997 -3.869 0.067 85.251
6464.292 0.069 85.201 0.997 -3.933 0.997 -3.933 0.069 85.201
6489.25 0.07 85.15 0.997 -3.998 0.997 -3.998 0.07 85.15
6514.208 0.071 85.1 0.996 -4.062 0.996 -4.062 0.071 85.1
6539.167 0.072 85.049 0.996 -4.126 0.996 -4.126 0.072 85.049
6564.125 0.073 84.998 0.996 -4.189 0.996 -4.189 0.073 84.998
6589.083 0.074 84.947 0.996 -4.253 0.996 -4.253 0.074 84.947
6614.042 0.075 84.895 0.996 -4.316 0.996 -4.316 0.075 84.895
6639 0.076 84.843 0.996 -4.379 0.996 -4.379 0.076 84.843
6663.958 0.077 84.791 0.996 -4.442 0.996 -4.442 0.077 84.791
6688.917 0.079 84.739 0.996 -4.505 0.996 -4.505 0.079 84.739
6713.875 0.08 84.687 0.996 -4.567 0.996 -4.567 0.08 84.687
6738.833 0.081 84.635 0.996 -4.63 0.996 -4.63 0.081 84.635
6763.792 0.082 84.583 0.996 -4.692 0.996 -4.692 0.082 84.583
6788.75 0.083 84.53 0.996 -4.754 0.996 -4.754 0.083 84.53
6813.708 0.084 84.477 0.995 -4.816 0.995 -4.816 0.084 84.477
6838.667 0.085 84.425 0.995 -4.878 0.995 -4.878 0.085 84.425
6863.625 0.086 84.372 0.995 -4.939 0.995 -4.939 0.086 84.372
6888.583 0.087 84.319 0.995 -5 0.995 -5 0.087 84.319
6913.542 0.088 84.266 0.995 -5.062 0.995 -5.062 0.088 84.266
6938.5 0.089 84.213 0.995 -5.123 0.995 -5.123 0.089 84.213
6963.458 0.09 84.16 0.995 -5.183 0.995 -5.183 0.09 84.16
6988.417 0.091 84.107 0.995 -5.244 0.995 -5.244 0.091 84.107
7013.375 0.092 84.054 0.995 -5.305 0.995 -5.305 0.092 84.054
7038.333 0.094 84.001 0.995 -5.365 0.995 -5.365 0.094 84.001
7063.292 0.095 83.948 0.994 -5.425 0.994 -5.425 0.095 83.948
7088.25 0.096 83.895 0.994 -5.485 0.994 -5.485 0.096 83.895
7113.208 0.097 83.842 0.994 -5.545 0.994 -5.545 0.097 83.842
7138.167 0.098 83.788 0.994 -5.605 0.994 -5.605 0.098 83.788
7163.125 0.099 83.735 0.994 -5.664 0.994 -5.664 0.099 83.735
7188.083 0.1 83.682 0.994 -5.724 0.994 -5.724 0.1 83.682
7213.042 0.101 83.629 0.994 -5.783 0.994 -5.783 0.101 83.629
7238 0.102 83.576 0.994 -5.842 0.994 -5.842 0.102 83.576
7262.958 0.103 83.523 0.994 -5.901 0.994 -5.901 0.103 83.523
7287.917 0.104 83.47 0.994 -5.96 0.994 -5.96 0.104 83.47
7312.875 0.105 83.417 0.993 -6.019 0.993 -6.019 0.105 83.417
7337.833 0.106 83.364 0.993 -6.077 0.993 -6.077 0.106 83.364
7362.792 0.107 83.31 0.993 -6.136 0.993 -6.136 0.107 83.31
7387.75 0.108 83.257 0.993 -6.194 0.993 -6.194 0.108 83.257
7412.708 0.109 83.205 0.993 -6.252 0.993 -6.252 0.109 83.205
7437.667 0.11 83.152 0.993 -6.31 0.993 -6.31 0.11 83.152
7462.625 0.111 83.099 0.993 -6.368 0.993 -6.368 0.111 83.099
7487.583 0.112 83.046 0.993 -6.426 0.993 -6.426 0.112 83.046
7512.542 0.113 82.993 0.993 -6.483 0.993 -6.483 0.113 82.993
7537.5 0.114 82.94 0.992 -6.541 0.992 -6.541 0.114 82.94
7562.458 0.115 82.887 0.992 -6.598 0.992 -6.598 0.115 82.887
7587.417 0.116 82.835 0.992 -6.655 0.992 -6.655 0.116 82.835
7612.375 0.117 82.782 0.992 -6.712 0.992 -6.712 0.117 82.782
7637.333 0.118 82.729 0.992 -6.769 0.992 -6.769 0.118 82.729
7662.292 0.119 82.677 0.992 -6.826 0.992 -6.826 0.119 82.677
7687.25 0.12 82.624 0.992 -6.882 0.992 -6.882 0.12 82.624
7712.208 0.121 82.572 0.992 -6.939 0.992 -6.939 0.121 82.572
7737.167 0.122 82.519 0.992 -6.995 0.992 -6.995 0.122 82.519
7762.125 0.123 82.467 0.991 -7.052 0.991 -7.052 0.123 82.467
7787.083 0.124 82.415 0.991 -7.108 0.991 -7.108 0.124 82.415
7812.042 0.125 82.362 0.991 -7.164 0.991 -7.164 0.125 82.362
7837 0.126 82.31 0.991 -7.22 0.991 -7.22 0.126 82.31
7861.958 0.127 82.258 0.991 -7.276 0.991 -7.276 0.127 82.258
7886.917 0.128 82.206 0.991 -7.331 0.991 -7.331 0.128 82.206
7911.875 0.129 82.154 0.991 -7.387 0.991 -7.387 0.129 82.154
7936.833 0.13 82.102 0.991 -7.442 0.991 -7.442 0.13 82.102
7961.792 0.13 82.05 0.99 -7.498 0.99 -7.498 0.13 82.05
7986.75 0.131 81.998 0.99 -7.553 0.99 -7.553 0.131 81.998
8011.708 0.132 81.946 0.99 -7.608 0.99 -7.608 0.132 81.946
8036.667 0.133 81.894 0.99 -7.663 0.99 -7.663 0.133 81.894
8061.625 0.134 81.843 0.99 -7.718 0.99 -7.718 0.134 81.843
8086.583 0.135 81.791 0.99 -7.773 0.99 -7.773 0.135 81.791
8111.542 0.136 81.739 0.99 -7.827 0.99 -7.827 0.136 81.739
8136.5 0.137 81.688 0.99 -7.882 0.99 -7.882 0.137 81.688
8161.458 0.138 81.636 0.989 -7.936 0.989 -7.936 0.138 81.636
8186.417 0.139 81.585 0.989 -7.991 0.989 -7.991 0.139 81.585
8211.375 0.14 81.534 0.989 -8.045 0.989 -8.045 0.14 81.534
8236.333 0.141 81.482 0.989 -8.099 0.989 -8.099 0.141 81.482
