# MHZ S MA R 50

50 0.822 -34.666 0.569 55.317 0.569 55.317 0.822 -34.666
74.958 0.694 -46.055 0.72 43.92 0.72 43.92 0.694 -46.055
99.917 0.585 -54.159 0.811 35.808 0.811 35.808 0.585 -54.159
124.875 0.499 -60.007 0.866 29.951 0.866 29.951 0.499 -60.007
149.833 0.432 -64.347 0.901 25.603 0.901 25.603 0.432 -64.347
174.792 0.379 -67.663 0.925 22.278 0.925 22.278 0.379 -67.663
199.75 0.337 -70.264 0.941 19.668 0.941 19.668 0.337 -70.264
224.708 0.302 -72.354 0.953 17.57 0.953 17.57 0.302 -72.354
249.667 0.273 -74.066 0.962 15.849 0.962 15.849 0.273 -74.066
274.625 0.249 -75.493 0.968 14.413 0.968 14.413 0.249 -75.493
299.583 0.228 -76.7 0.973 13.197 0.973 13.197 0.228 -76.7
324.542 0.211 -77.735 0.977 12.153 0.977 12.153 0.211 -77.735
349.5 0.195 -78.631 0.98 11.248 0.98 11.248 0.195 -78.631
374.458 0.181 -79.416 0.983 10.454 0.983 10.454 0.181 -79.416
399.417 0.169 -80.108 0.985 9.752 0.985 9.752 0.169 -80.108
424.375 0.159 -80.724 0.987 9.126 0.987 9.126 0.159 -80.724
449.333 0.149 -81.276 0.988 8.565 0.988 8.565 0.149 -81.276
474.292 0.14 -81.773 0.99 8.057 0.99 8.057 0.14 -81.773
499.25 0.132 -82.223 0.991 7.597 0.991 7.597 0.132 -82.223
524.208 0.125 -82.633 0.992 7.176 0.992 7.176 0.125 -82.633
549.167 0.118 -83.009 0.993 6.789 0.993 6.789 0.118 -83.009
574.125 0.112 -83.353 0.993 6.433 0.993 6.433 0.112 -83.353
599.083 0.106 -83.671 0.994 6.104 0.994 6.104 0.106 -83.671
624.042 0.101 -83.965 0.994 5.798 0.994 5.798 0.101 -83.965
649 0.096 -84.239 0.995 5.512 0.995 5.512 0.096 -84.239
673.958 0.091 -84.493 0.995 5.245 0.995 5.245 0.091 -84.493
698.917 0.087 -84.73 0.996 4.995 0.996 4.995 0.087 -84.73
723.875 0.083 -84.952 0.996 4.759 0.996 4.759 0.083 -84.952
748.833 0.079 -85.16 0.996 4.537 0.996 4.537 0.079 -85.16
773.792 0.075 -85.355 0.997 4.327 0.997 4.327 0.075 -85.355
798.75 0.072 -85.539 0.997 4.128 0.997 4.128 0.072 -85.539
823.708 0.069 -85.712 0.997 3.939 0.997 3.939 0.069 -85.712
848.667 0.066 -85.875 0.997 3.759 0.997 3.759 0.066 -85.875
873.625 0.063 -86.029 0.998 3.587 0.998 3.587 0.063 -86.029
898.583 0.06 -86.175 0.998 3.423 0.998 3.423 0.06 -86.175
923.542 0.057 -86.312 0.998 3.266 0.998 3.266 0.057 -86.312
948.5 0.054 -86.442 0.998 3.116 0.998 3.116 0.054 -86.442
973.458 0.052 -86.565 0.998 2.971 0.998 2.971 0.052 -86.565
998.417 0.049 -86.681 0.998 2.833 0.998 2.833 0.049 -86.681
1023.375 0.047 -86.791 0.998 2.699 0.998 2.699 0.047 -86.791
1048.333 0.045 -86.894 0.999 2.57 0.999 2.57 0.045 -86.894
1073.292 0.043 -86.991 0.999 2.445 0.999 2.445 0.043 -86.991
1098.25 0.041 -87.083 0.999 2.325 0.999 2.325 0.041 -87.083
1123.208 0.039 -87.168 0.999 2.208 0.999 2.208 0.039 -87.168
1148.167 0.037 -87.247 0.999 2.095 0.999 2.095 0.037 -87.247
1173.125 0.035 -87.32 0.999 1.986 0.999 1.986 0.035 -87.32
1198.083 0.033 -87.387 0.999 1.88 0.999 1.88 0.033 -87.387
1223.042 0.031 -87.448 0.999 1.776 0.999 1.776 0.031 -87.448
1248 0.029 -87.502 0.999 1.676 0.999 1.676 0.029 -87.502
1272.958 0.028 -87.549 0.999 1.578 0.999 1.578 0.028 -87.549
1297.917 0.026 -87.588 0.999 1.482 0.999 1.482 0.026 -87.588
1322.875 0.024 -87.619 0.999 1.389 0.999 1.389 0.024 -87.619
1347.833 0.023 -87.64 0.999 1.299 0.999 1.299 0.023 -87.64
1372.792 0.021 -87.651 0.999 1.21 0.999 1.21 0.021 -87.651
1397.75 0.02 -87.65 0.999 1.123 0.999 1.123 0.02 -87.65
1422.708 0.018 -87.634 0.999 1.038 0.999 1.038 0.018 -87.634
1447.667 0.017 -87.602 0.999 0.955 0.999 0.955 0.017 -87.602
1472.625 0.015 -87.549 0.999 0.874 0.999 0.874 0.015 -87.549
1497.583 0.014 -87.471 0.999 0.794 0.999 0.794 0.014 -87.471
1522.542 0.013 -87.36 1 0.716 1 0.716 0.013 -87.36
1547.5 0.011 -87.205 1 0.639 1 0.639 0.011 -87.205
1572.458 9.85e-3 -86.993 1 0.564 1 0.564 9.85e-3 -86.993
1597.417 8.559e-3 -86.698 1 0.49 1 0.49 8.559e-3 -86.698
1622.375 7.291e-3 -86.281 1 0.417 1 0.417 7.291e-3 -86.281
1647.333 6.044e-3 -85.671 1 0.345 1 0.345 6.044e-3 -85.671
1672.292 4.819e-3 -84.727 1 0.275 1 0.275 4.819e-3 -84.727
1697.25 3.616e-3 -83.126 1 0.206 1 0.206 3.616e-3 -83.126
1722.208 2.437e-3 -79.94 1 0.138 1 0.138 2.437e-3 -79.94
1747.167 1.297e-3 -71.035 1 0.07 1 0.07 1.297e-3 -71.035
1772.125 425.7e-6 -9.487 1 4.022e-3 1 4.022e-3 425.7e-6 -9.487
1797.083 1.15e-3 68.516 1 -0.061 1 -0.061 1.15e-3 68.516
1822.042 2.235e-3 79.045 1 -0.126 1 -0.126 2.235e-3 79.045
1847 3.332e-3 82.57 1 -0.189 1 -0.189 3.332e-3 82.57
1871.958 4.421e-3 84.298 1 -0.252 1 -0.252 4.421e-3 84.298
1896.917 5.499e-3 85.306 1 -0.314 1 -0.314 5.499e-3 85.306
1921.875 6.565e-3 85.957 1 -0.375 1 -0.375 6.565e-3 85.957
1946.833 7.619e-3 86.405 1 -0.436 1 -0.436 7.619e-3 86.405
1971.792 8.661e-3 86.726 1 -0.496 1 -0.496 8.661e-3 86.726
1996.75 9.692e-3 86.962 1 -0.555 1 -0.555 9.692e-3 86.962
2021.708 0.011 87.14 1 -0.613 1 -0.613 0.011 87.14
2046.667 0.012 87.276 1 -0.671 1 -0.671 0.012 87.276
2071.625 0.013 87.38 0.999 -0.728 0.999 -0.728 0.013 87.38
2096.583 0.014 87.46 0.999 -0.785 0.999 -0.785 0.014 87.46
2121.542 0.015 87.521 0.999 -0.841 0.999 -0.841 0.015 87.521
2146.5 0.016 87.567 0.999 -0.897 0.999 -0.897 0.016 87.567
2171.458 0.017 87.6 0.999 -0.952 0.999 -0.952 0.017 87.6
2196.417 0.018 87.624 0.999 -1.006 0.999 -1.006 0.018 87.624
2221.375 0.019 87.64 0.999 -1.06 0.999 -1.06 0.019 87.64
2246.333 0.019 87.649 0.999 -1.114 0.999 -1.114 0.019 87.649
2271.292 0.02 87.652 0.999 -1.167 0.999 -1.167 0.02 87.652
2296.25 0.021 87.65 0.999 -1.22 0.999 -1.22 0.021 87.65
2321.208 0.022 87.645 0.999 -1.272 0.999 -1.272 0.022 87.645
2346.167 0.023 87.635 0.999 -1.324 0.999 -1.324 0.023 87.635
2371.125 0.024 87.623 0.999 -1.375 0.999 -1.375 0.024 87.623
2396.083 0.025 87.608 0.999 -1.426 0.999 -1.426 0.025 87.608
2421.042 0.026 87.59 0.999 -1.477 0.999 -1.477 0.026 87.59
2446 0.027 87.57 0.999 -1.527 0.999 -1.527 0.027 87.57
2470.958 0.028 87.549 0.999 -1.577 0.999 -1.577 0.028 87.549
2495.917 0.028 87.526 0.999 -1.627 0.999 -1.627 0.028 87.526
2520.875 0.029 87.502 0.999 -1.676 0.999 -1.676 0.029 87.502
2545.833 0.03 87.476 0.999 -1.725 0.999 -1.725 0.03 87.476
2570.792 0.031 87.449 0.999 -1.774 0.999 -1.774 0.031 87.449
2595.75 0.032 87.422 0.999 -1.822 0.999 -1.822 0.032 87.422
2620.708 0.033 87.393 0.999 -1.87 0.999 -1.87 0.033 87.393
2645.667 0.033 87.364 0.999 -1.918 0.999 -1.918 0.033 87.364
2670.625 0.034 87.334 0.999 -1.965 0.999 -1.965 0.034 87.334
2695.583 0.035 87.303 0.999 -2.012 0.999 -2.012 0.035 87.303
2720.542 0.036 87.272 0.999 -2.059 0.999 -2.059 0.036 87.272
2745.5 0.037 87.24 0.999 -2.106 0.999 -2.106 0.037 87.24
2770.458 0.038 87.208 0.999 -2.152 0.999 -2.152 0.038 87.208
2795.417 0.038 87.175 0.999 -2.198 0.999 -2.198 0.038 87.175
2820.375 0.039 87.142 0.999 -2.244 0.999 -2.244 0.039 87.142
2845.333 0.04 87.108 0.999 -2.29 0.999 -2.29 0.04 87.108
2870.292 0.041 87.075 0.999 -2.336 0.999 -2.336 0.041 87.075
2895.25 0.042 87.041 0.999 -2.381 0.999 -2.381 0.042 87.041
2920.208 0.042 87.006 0.999 -2.426 0.999 -2.426 0.042 87.006
2945.167 0.043 86.972 0.999 -2.471 0.999 -2.471 0.043 86.972
2970.125 0.044 86.937 0.999 -2.515 0.999 -2.515 0.044 86.937
2995.083 0.045 86.902 0.999 -2.56 0.999 -2.56 0.045 86.902
3020.042 0.045 86.867 0.999 -2.604 0.999 -2.604 0.045 86.867
3045 0.046 86.832 0.999 -2.648 0.999 -2.648 0.046 86.832
3069.958 0.047 86.797 0.998 -2.692 0.998 -2.692 0.047 86.797
3094.917 0.048 86.761 0.998 -2.735 0.998 -2.735 0.048 86.761
3119.875 0.048 86.725 0.998 -2.779 0.998 -2.779 0.048 86.725
3144.833 0.049 86.69 0.998 -2.822 0.998 -2.822 0.049 86.69
3169.792 0.05 86.654 0.998 -2.865 0.998 -2.865 0.05 86.654
3194.75 0.051 86.618 0.998 -2.908 0.998 -2.908 0.051 86.618
3219.708 0.051 86.582 0.998 -2.951 0.998 -2.951 0.051 86.582
3244.667 0.052 86.546 0.998 -2.994 0.998 -2.994 0.052 86.546
3269.625 0.053 86.51 0.998 -3.036 0.998 -3.036 0.053 86.51
3294.583 0.054 86.474 0.998 -3.079 0.998 -3.079 0.054 86.474
3319.542 0.054 86.438 0.998 -3.121 0.998 -3.121 0.054 86.438
3344.5 0.055 86.402 0.998 -3.163 0.998 -3.163 0.055 86.402
3369.458 0.056 86.366 0.998 -3.205 0.998 -3.205 0.056 86.366
3394.417 0.057 86.329 0.998 -3.247 0.998 -3.247 0.057 86.329
3419.375 0.057 86.293 0.998 -3.288 0.998 -3.288 0.057 86.293
3444.333 0.058 86.257 0.998 -3.33 0.998 -3.33 0.058 86.257
3469.292 0.059 86.22 0.998 -3.371 0.998 -3.371 0.059 86.22
3494.25 0.06 86.184 0.998 -3.412 0.998 -3.412 0.06 86.184
3519.208 0.06 86.148 0.998 -3.453 0.998 -3.453 0.06 86.148
3544.167 0.061 86.112 0.998 -3.494 0.998 -3.494 0.061 86.112
3569.125 0.062 86.075 0.998 -3.535 0.998 -3.535 0.062 86.075
3594.083 0.062 86.039 0.998 -3.576 0.998 -3.576 0.062 86.039
3619.042 0.063 86.003 0.998 -3.617 0.998 -3.617 0.063 86.003
3644 0.064 85.966 0.998 -3.657 0.998 -3.657 0.064 85.966
3668.958 0.064 85.93 0.997 -3.698 0.997 -3.698 0.064 85.93
3693.917 0.065 85.894 0.997 -3.738 0.997 -3.738 0.065 85.894
3718.875 0.066 85.857 0.997 -3.778 0.997 -3.778 0.066 85.857
3743.833 0.067 85.821 0.997 -3.818 0.997 -3.818 0.067 85.821
3768.792 0.067 85.785 0.997 -3.858 0.997 -3.858 0.067 85.785
3793.75 0.068 85.749 0.997 -3.898 0.997 -3.898 0.068 85.749
3818.708 0.069 85.712 0.997 -3.938 0.997 -3.938 0.069 85.712
3843.667 0.069 85.676 0.997 -3.978 0.997 -3.978 0.069 85.676
3868.625 0.07 85.64 0.997 -4.018 0.997 -4.018 0.07 85.64
3893.583 0.071 85.604 0.997 -4.057 0.997 -4.057 0.071 85.604
3918.542 0.071 85.567 0.997 -4.097 0.997 -4.097 0.071 85.567
3943.5 0.072 85.531 0.997 -4.136 0.997 -4.136 0.072 85.531
3968.458 0.073 85.495 0.997 -4.175 0.997 -4.175 0.073 85.495
3993.417 0.073 85.459 0.997 -4.214 0.997 -4.214 0.073 85.459
4018.375 0.074 85.423 0.997 -4.253 0.997 -4.253 0.074 85.423
4043.333 0.075 85.387 0.997 -4.293 0.997 -4.293 0.075 85.387
4068.292 0.076 85.351 0.997 -4.331 0.997 -4.331 0.076 85.351
4093.25 0.076 85.315 0.997 -4.37 0.997 -4.37 0.076 85.315
4118.208 0.077 85.279 0.997 -4.409 0.997 -4.409 0.077 85.279
4143.167 0.078 85.243 0.997 -4.448 0.997 -4.448 0.078 85.243
4168.125 0.078 85.207 0.997 -4.486 0.997 -4.486 0.078 85.207
4193.083 0.079 85.171 0.996 -4.525 0.996 -4.525 0.079 85.171
4218.042 0.08 85.135 0.996 -4.563 0.996 -4.563 0.08 85.135
4243 0.08 85.099 0.996 -4.602 0.996 -4.602 0.08 85.099
4267.958 0.081 85.063 0.996 -4.64 0.996 -4.64 0.081 85.063
4292.917 0.082 85.028 0.996 -4.678 0.996 -4.678 0.082 85.028
4317.875 0.082 84.992 0.996 -4.717 0.996 -4.717 0.082 84.992
4342.833 0.083 84.956 0.996 -4.755 0.996 -4.755 0.083 84.956
4367.792 0.084 84.92 0.996 -4.793 0.996 -4.793 0.084 84.92
4392.75 0.084 84.885 0.996 -4.831 0.996 -4.831 0.084 84.885
4417.708 0.085 84.849 0.996 -4.869 0.996 -4.869 0.085 84.849
4442.667 0.086 84.813 0.996 -4.907 0.996 -4.907 0.086 84.813
4467.625 0.086 84.778 0.996 -4.944 0.996 -4.944 0.086 84.778
4492.583 0.087 84.742 0.996 -4.982 0.996 -4.982 0.087 84.742
4517.542 0.088 84.706 0.996 -5.02 0.996 -5.02 0.088 84.706
4542.5 0.088 84.671 0.996 -5.057 0.996 -5.057 0.088 84.671
4567.458 0.089 84.635 0.996 -5.095 0.996 -5.095 0.089 84.635
4592.417 0.089 84.6 0.996 -5.132 0.996 -5.132 0.089 84.6
4617.375 0.09 84.564 0.996 -5.17 0.996 -5.17 0.09 84.564
4642.333 0.091 84.529 0.995 -5.207 0.995 -5.207 0.091 84.529
4667.292 0.091 84.493 0.995 -5.245 0.995 -5.245 0.091 84.493
4692.25 0.092 84.458 0.995 -5.282 0.995 -5.282 0.092 84.458
4717.208 0.093 84.422 0.995 -5.319 0.995 -5.319 0.093 84.422
4742.167 0.093 84.387 0.995 -5.356 0.995 -5.356 0.093 84.387
4767.125 0.094 84.352 0.995 -5.393 0.995 -5.393 0.094 84.352
4792.083 0.095 84.316 0.995 -5.43 0.995 -5.43 0.095 84.316
4817.042 0.095 84.281 0.995 -5.467 0.995 -5.467 0.095 84.281
4842 0.096 84.246 0.995 -5.504 0.995 -5.504 0.096 84.246
4866.958 0.097 84.211 0.995 -5.541 0.995 -5.541 0.097 84.211
4891.917 0.097 84.175 0.995 -5.578 0.995 -5.578 0.097 84.175
4916.875 0.098 84.14 0.995 -5.615 0.995 -5.615 0.098 84.14
4941.833 0.098 84.105 0.995 -5.652 0.995 -5.652 0.098 84.105
4966.792 0.099 84.07 0.995 -5.689 0.995 -5.689 0.099 84.07
4991.75 0.1 84.035 0.995 -5.725 0.995 -5.725 0.1 84.035
5016.708 0.1 84 0.995 -5.762 0.995 -5.762 0.1 84
5041.667 0.101 83.965 0.994 -5.798 0.994 -5.798 0.101 83.965
5066.625 0.102 83.93 0.994 -5.835 0.994 -5.835 0.102 83.93
5091.583 0.102 83.895 0.994 -5.871 0.994 -5.871 0.102 83.895
5116.542 0.103 83.86 0.994 -5.908 0.994 -5.908 0.103 83.86
5141.5 0.104 83.825 0.994 -5.944 0.994 -5.944 0.104 83.825
5166.458 0.104 83.79 0.994 -5.981 0.994 -5.981 0.104 83.79
5191.417 0.105 83.755 0.994 -6.017 0.994 -6.017 0.105 83.755
5216.375 0.105 83.72 0.994 -6.053 0.994 -6.053 0.105 83.72
5241.333 0.106 83.685 0.994 -6.09 0.994 -6.09 0.106 83.685
5266.292 0.107 83.65 0.994 -6.126 0.994 -6.126 0.107 83.65
5291.25 0.107 83.615 0.994 -6.162 0.994 -6.162 0.107 83.615
5316.208 0.108 83.58 0.994 -6.198 0.994 -6.198 0.108 83.58
5341.167 0.109 83.546 0.994 -6.234 0.994 -6.234 0.109 83.546
5366.125 0.109 83.511 0.994 -6.27 0.994 -6.27 0.109 83.511
5391.083 0.11 83.476 0.994 -6.306 0.994 -6.306 0.11 83.476
5416.042 0.11 83.441 0.993 -6.342 0.993 -6.342 0.11 83.441
5441 0.111 83.407 0.993 -6.378 0.993 -6.378 0.111 83.407
5465.958 0.112 83.372 0.993 -6.414 0.993 -6.414 0.112 83.372
5490.917 0.112 83.337 0.993 -6.45 0.993 -6.45 0.112 83.337
5515.875 0.113 83.303 0.993 -6.486 0.993 -6.486 0.113 83.303
5540.833 0.114 83.268 0.993 -6.521 0.993 -6.521 0.114 83.268
5565.792 0.114 83.233 0.993 -6.557 0.993 -6.557 0.114 83.233
5590.75 0.115 83.199 0.993 -6.593 0.993 -6.593 0.115 83.199
5615.708 0.115 83.164 0.993 -6.629 0.993 -6.629 0.115 83.164
5640.667 0.116 83.13 0.993 -6.664 0.993 -6.664 0.116 83.13
5665.625 0.117 83.095 0.993 -6.7 0.993 -6.7 0.117 83.095
5690.583 0.117 83.061 0.993 -6.735 0.993 -6.735 0.117 83.061
5715.542 0.118 83.026 0.993 -6.771 0.993 -6.771 0.118 83.026
5740.5 0.119 82.992 0.993 -6.807 0.993 -6.807 0.119 82.992
5765.458 0.119 82.957 0.992 -6.842 0.992 -6.842 0.119 82.957
5790.417 0.12 82.923 0.992 -6.877 0.992 -6.877 0.12 82.923
5815.375 0.12 82.889 0.992 -6.913 0.992 -6.913 0.12 82.889
5840.333 0.121 82.854 0.992 -6.948 0.992 -6.948 0.121 82.854
5865.292 0.122 82.82 0.992 -6.984 0.992 -6.984 0.122 82.82
5890.25 0.122 82.786 0.992 -7.019 0.992 -7.019 0.122 82.786
5915.208 0.123 82.751 0.992 -7.054 0.992 -7.054 0.123 82.751
5940.167 0.123 82.717 0.992 -7.09 0.992 -7.09 0.123 82.717
5965.125 0.124 82.683 0.992 -7.125 0.992 -7.125 0.124 82.683
5990.083 0.125 82.648 0.992 -7.16 0.992 -7.16 0.125 82.648
6015.042 0.125 82.614 0.992 -7.195 0.992 -7.195 0.125 82.614
6040 0.126 82.58 0.992 -7.23 0.992 -7.23 0.126 82.58
6064.958 0.126 82.546 0.992 -7.265 0.992 -7.265 0.126 82.546
6089.917 0.127 82.512 0.991 -7.301 0.991 -7.301 0.127 82.512
6114.875 0.128 82.477 0.991 -7.336 0.991 -7.336 0.128 82.477
6139.833 0.128 82.443 0.991 -7.371 0.991 -7.371 0.128 82.443
6164.792 0.129 82.409 0.991 -7.406 0.991 -7.406 0.129 82.409
6189.75 0.13 82.375 0.991 -7.441 0.991 -7.441 0.13 82.375
6214.708 0.13 82.341 0.991 -7.476 0.991 -7.476 0.13 82.341
6239.667 0.131 82.307 0.991 -7.511 0.991 -7.511 0.131 82.307
6264.625 0.131 82.273 0.991 -7.546 0.991 -7.546 0.131 82.273
6289.583 0.132 82.239 0.991 -7.58 0.991 -7.58 0.132 82.239
6314.542 0.133 82.205 0.991 -7.615 0.991 -7.615 0.133 82.205
6339.5 0.133 82.171 0.991 -7.65 0.991 -7.65 0.133 82.171
6364.458 0.134 82.137 0.991 -7.685 0.991 -7.685 0.134 82.137
6389.417 0.134 82.103 0.991 -7.72 0.991 -7.72 0.134 82.103
6414.375 0.135 82.069 0.99 -7.754 0.99 -7.754 0.135 82.069
6439.333 0.136 82.035 0.99 -7.789 0.99 -7.789 0.136 82.035
6464.292 0.136 82.001 0.99 -7.824 0.99 -7.824 0.136 82.001
6489.25 0.137 81.967 0.99 -7.859 0.99 -7.859 0.137 81.967
6514.208 0.137 81.933 0.99 -7.893 0.99 -7.893 0.137 81.933
6539.167 0.138 81.899 0.99 -7.928 0.99 -7.928 0.138 81.899
6564.125 0.139 81.866 0.99 -7.962 0.99 -7.962 0.139 81.866
6589.083 0.139 81.832 0.99 -7.997 0.99 -7.997 0.139 81.832
6614.042 0.14 81.798 0.99 -8.032 0.99 -8.032 0.14 81.798
6639 0.14 81.764 0.99 -8.066 0.99 -8.066 0.14 81.764
6663.958 0.141 81.73 0.99 -8.101 0.99 -8.101 0.141 81.73
6688.917 0.142 81.697 0.99 -8.135 0.99 -8.135 0.142 81.697
6713.875 0.142 81.663 0.989 -8.17 0.989 -8.17 0.142 81.663
6738.833 0.143 81.629 0.989 -8.204 0.989 -8.204 0.143 81.629
6763.792 0.143 81.595 0.989 -8.238 0.989 -8.238 0.143 81.595
6788.75 0.144 81.562 0.989 -8.273 0.989 -8.273 0.144 81.562
6813.708 0.144 81.528 0.989 -8.307 0.989 -8.307 0.144 81.528
6838.667 0.145 81.494 0.989 -8.342 0.989 -8.342 0.145 81.494
6863.625 0.146 81.461 0.989 -8.376 0.989 -8.376 0.146 81.461
6888.583 0.146 81.427 0.989 -8.41 0.989 -8.41 0.146 81.427
6913.542 0.147 81.393 0.989 -8.444 0.989 -8.444 0.147 81.393
6938.5 0.147 81.36 0.989 -8.479 0.989 -8.479 0.147 81.36
6963.458 0.148 81.326 0.989 -8.513 0.989 -8.513 0.148 81.326
6988.417 0.149 81.293 0.988 -8.547 0.988 -8.547 0.149 81.293
7013.375 0.149 81.259 0.988 -8.581 0.988 -8.581 0.149 81.259
7038.333 0.15 81.226 0.988 -8.616 0.988 -8.616 0.15 81.226
7063.292 0.15 81.192 0.988 -8.65 0.988 -8.65 0.15 81.192
7088.25 0.151 81.159 0.988 -8.684 0.988 -8.684 0.151 81.159
7113.208 0.152 81.125 0.988 -8.718 0.988 -8.718 0.152 81.125
7138.167 0.152 81.092 0.988 -8.752 0.988 -8.752 0.152 81.092
7163.125 0.153 81.058 0.988 -8.786 0.988 -8.786 0.153 81.058
7188.083 0.153 81.025 0.988 -8.82 0.988 -8.82 0.153 81.025
7213.042 0.154 80.991 0.988 -8.854 0.988 -8.854 0.154 80.991
7238 0.155 80.958 0.988 -8.888 0.988 -8.888 0.155 80.958
7262.958 0.155 80.924 0.987 -8.922 0.987 -8.922 0.155 80.924
7287.917 0.156 80.891 0.987 -8.956 0.987 -8.956 0.156 80.891
7312.875 0.156 80.858 0.987 -8.99 0.987 -8.99 0.156 80.858
7337.833 0.157 80.824 0.987 -9.024 0.987 -9.024 0.157 80.824
7362.792 0.157 80.791 0.987 -9.058 0.987 -9.058 0.157 80.791
7387.75 0.158 80.758 0.987 -9.092 0.987 -9.092 0.158 80.758
7412.708 0.159 80.724 0.987 -9.126 0.987 -9.126 0.159 80.724
7437.667 0.159 80.691 0.987 -9.16 0.987 -9.16 0.159 80.691
7462.625 0.16 80.658 0.987 -9.194 0.987 -9.194 0.16 80.658
7487.583 0.16 80.624 0.987 -9.228 0.987 -9.228 0.16 80.624
7512.542 0.161 80.591 0.987 -9.261 0.987 -9.261 0.161 80.591
7537.5 0.162 80.558 0.986 -9.295 0.986 -9.295 0.162 80.558
7562.458 0.162 80.525 0.986 -9.329 0.986 -9.329 0.162 80.525
7587.417 0.163 80.491 0.986 -9.363 0.986 -9.363 0.163 80.491
7612.375 0.163 80.458 0.986 -9.396 0.986 -9.396 0.163 80.458
7637.333 0.164 80.425 0.986 -9.43 0.986 -9.43 0.164 80.425
7662.292 0.164 80.392 0.986 -9.464 0.986 -9.464 0.164 80.392
7687.25 0.165 80.359 0.986 -9.498 0.986 -9.498 0.165 80.359
7712.208 0.166 80.325 0.986 -9.531 0.986 -9.531 0.166 80.325
7737.167 0.166 80.292 0.986 -9.565 0.986 -9.565 0.166 80.292
7762.125 0.167 80.259 0.986 -9.598 0.986 -9.598 0.167 80.259
7787.083 0.167 80.226 0.985 -9.632 0.985 -9.632 0.167 80.226
7812.042 0.168 80.193 0.985 -9.666 0.985 -9.666 0.168 80.193
7837 0.168 80.16 0.985 -9.699 0.985 -9.699 0.168 80.16
7861.958 0.169 80.127 0.985 -9.733 0.985 -9.733 0.169 80.127
7886.917 0.17 80.094 0.985 -9.766 0.985 -9.766 0.17 80.094
7911.875 0.17 80.061 0.985 -9.8 0.985 -9.8 0.17 80.061
7936.833 0.171 80.028 0.985 -9.833 0.985 -9.833 0.171 80.028
7961.792 0.171 79.995 0.985 -9.867 0.985 -9.867 0.171 79.995
7986.75 0.172 79.962 0.985 -9.9 0.985 -9.9 0.172 79.962
8011.708 0.173 79.929 0.985 -9.934 0.985 -9.934 0.173 79.929
8036.667 0.173 79.896 0.984 -9.967 0.984 -9.967 0.173 79.896
8061.625 0.174 79.863 0.984 -10.001 0.984 -10.001 0.174 79.863
8086.583 0.174 79.83 0.984 -10.034 0.984 -10.034 0.174 79.83
8111.542 0.175 79.797 0.984 -10.068 0.984 -10.068 0.175 79.797
8136.5 0.175 79.764 0.984 -10.101 0.984 -10.101 0.175 79.764
8161.458 0.176 79.731 0.984 -10.134 0.984 -10.134 0.176 79.731
8186.417 0.177 79.698 0.984 -10.168 0.984 -10.168 0.177 79.698
8211.375 0.177 79.665 0.984 -10.201 0.984 -10.201 0.177 79.665
8236.333 0.178 79.632 0.984 -10.234 0.984 -10.234 0.178 79.632
8261.292 0.178 79.6 0.984 -10.268 0.984 -10.268 0.178 79.6
8286.25 0.179 79.567 0.983 -10.301 0.983 -10.301 0.179 79.567
8311.208 0.179 79.534 0.983 -10.334 0.983 -10.334 0.179 79.534
8336.167 0.18 79.501 0.983 -10.367 0.983 -10.367 0.18 79.501
8361.125 0.181 79.468 0.983 -10.401 0.983 -10.401 0.181 79.468
