# MHZ S MA R 50

50 0.998 -3.596 0.063 86.4 0.063 86.4 0.998 -3.596
74.958 0.996 -5.382 0.094 84.612 0.094 84.612 0.996 -5.382
99.917 0.992 -7.159 0.125 82.833 0.125 82.833 0.992 -7.159
124.875 0.988 -8.922 0.155 81.068 0.155 81.068 0.988 -8.922
149.833 0.983 -10.67 0.185 79.318 0.185 79.318 0.983 -10.67
174.792 0.977 -12.399 0.215 77.587 0.215 77.587 0.977 -12.399
199.75 0.97 -14.106 0.244 75.877 0.244 75.877 0.97 -14.106
224.708 0.962 -15.79 0.272 74.192 0.272 74.192 0.962 -15.79
249.667 0.954 -17.448 0.3 72.532 0.3 72.532 0.954 -17.448
274.625 0.945 -19.078 0.327 70.9 0.327 70.9 0.945 -19.078
299.583 0.935 -20.679 0.353 69.297 0.353 69.297 0.935 -20.679
324.542 0.925 -22.248 0.379 67.726 0.379 67.726 0.925 -22.248
349.5 0.915 -23.785 0.403 66.186 0.403 66.186 0.915 -23.785
374.458 0.904 -25.289 0.427 64.681 0.427 64.681 0.904 -25.289
399.417 0.893 -26.759 0.45 63.209 0.45 63.209 0.893 -26.759
424.375 0.881 -28.194 0.472 61.771 0.472 61.771 0.881 -28.194
449.333 0.869 -29.594 0.494 60.369 0.494 60.369 0.869 -29.594
474.292 0.857 -30.959 0.514 59.002 0.514 59.002 0.857 -30.959
499.25 0.845 -32.289 0.534 57.67 0.534 57.67 0.845 -32.289
524.208 0.833 -33.584 0.553 56.374 0.553 56.374 0.833 -33.584
549.167 0.82 -34.843 0.571 55.112 0.571 55.112 0.82 -34.843
574.125 0.808 -36.069 0.589 53.885 0.589 53.885 0.808 -36.069
599.083 0.795 -37.26 0.605 52.691 0.605 52.691 0.795 -37.26
624.042 0.783 -38.417 0.621 51.532 0.621 51.532 0.783 -38.417
649 0.771 -39.542 0.637 50.405 0.637 50.405 0.771 -39.542
673.958 0.758 -40.634 0.651 49.311 0.651 49.311 0.758 -40.634
698.917 0.746 -41.695 0.665 48.248 0.665 48.248 0.746 -41.695
723.875 0.734 -42.724 0.678 47.216 0.678 47.216 0.734 -42.724
748.833 0.722 -43.724 0.691 46.214 0.691 46.214 0.722 -43.724
773.792 0.71 -44.695 0.703 45.241 0.703 45.241 0.71 -44.695
798.75 0.698 -45.637 0.715 44.297 0.715 44.297 0.698 -45.637
823.708 0.687 -46.552 0.726 43.38 0.726 43.38 0.687 -46.552
848.667 0.675 -47.44 0.737 42.49 0.737 42.49 0.675 -47.44
873.625 0.664 -48.302 0.747 41.626 0.747 41.626 0.664 -48.302
898.583 0.653 -49.139 0.756 40.787 0.756 40.787 0.653 -49.139
923.542 0.642 -49.952 0.766 39.972 0.766 39.972 0.642 -49.952
948.5 0.632 -50.741 0.774 39.18 0.774 39.18 0.632 -50.741
973.458 0.621 -51.508 0.783 38.411 0.783 38.411 0.621 -51.508
998.417 0.611 -52.253 0.791 37.664 0.791 37.664 0.611 -52.253
1023.375 0.601 -52.976 0.798 36.938 0.798 36.938 0.601 -52.976
1048.333 0.591 -53.68 0.806 36.233 0.806 36.233 0.591 -53.68
1073.292 0.581 -54.363 0.813 35.547 0.813 35.547 0.581 -54.363
1098.25 0.572 -55.028 0.819 34.88 0.819 34.88 0.572 -55.028
1123.208 0.563 -55.674 0.826 34.232 0.826 34.232 0.563 -55.674
1148.167 0.553 -56.303 0.832 33.601 0.832 33.601 0.553 -56.303
1173.125 0.544 -56.914 0.838 32.987 0.838 32.987 0.544 -56.914
1198.083 0.536 -57.509 0.843 32.39 0.843 32.39 0.536 -57.509
1223.042 0.527 -58.089 0.849 31.808 0.849 31.808 0.527 -58.089
1248 0.519 -58.653 0.854 31.242 0.854 31.242 0.519 -58.653
1272.958 0.51 -59.202 0.859 30.69 0.859 30.69 0.51 -59.202
1297.917 0.502 -59.737 0.864 30.153 0.864 30.153 0.502 -59.737
1322.875 0.494 -60.258 0.868 29.629 0.868 29.629 0.494 -60.258
1347.833 0.487 -60.767 0.873 29.118 0.873 29.118 0.487 -60.767
1372.792 0.479 -61.262 0.877 28.621 0.877 28.621 0.479 -61.262
1397.75 0.472 -61.745 0.881 28.135 0.881 28.135 0.472 -61.745
1422.708 0.464 -62.216 0.885 27.662 0.885 27.662 0.464 -62.216
1447.667 0.457 -62.676 0.888 27.199 0.888 27.199 0.457 -62.676
1472.625 0.45 -63.124 0.892 26.748 0.892 26.748 0.45 -63.124
1497.583 0.443 -63.562 0.895 26.308 0.895 26.308 0.443 -63.562
1522.542 0.436 -63.99 0.899 25.878 0.899 25.878 0.436 -63.99
1547.5 0.43 -64.408 0.902 25.458 0.902 25.458 0.43 -64.408
1572.458 0.423 -64.816 0.905 25.047 0.905 25.047 0.423 -64.816
1597.417 0.417 -65.214 0.908 24.646 0.908 24.646 0.417 -65.214
1622.375 0.411 -65.604 0.911 24.254 0.911 24.254 0.411 -65.604
1647.333 0.405 -65.985 0.913 23.87 0.913 23.87 0.405 -65.985
1672.292 0.399 -66.357 0.916 23.495 0.916 23.495 0.399 -66.357
1697.25 0.393 -66.722 0.919 23.128 0.919 23.128 0.393 -66.722
1722.208 0.387 -67.078 0.921 22.769 0.921 22.769 0.387 -67.078
1747.167 0.381 -67.427 0.923 22.417 0.923 22.417 0.381 -67.427
1772.125 0.376 -67.769 0.926 22.073 0.926 22.073 0.376 -67.769
1797.083 0.37 -68.103 0.928 21.736 0.928 21.736 0.37 -68.103
1822.042 0.365 -68.431 0.93 21.405 0.93 21.405 0.365 -68.431
1847 0.36 -68.752 0.932 21.082 0.932 21.082 0.36 -68.752
1871.958 0.355 -69.066 0.934 20.765 0.934 20.765 0.355 -69.066
1896.917 0.349 -69.374 0.936 20.454 0.936 20.454 0.349 -69.374
1921.875 0.344 -69.676 0.938 20.149 0.938 20.149 0.344 -69.676
1946.833 0.34 -69.972 0.94 19.85 0.94 19.85 0.34 -69.972
1971.792 0.335 -70.263 0.941 19.557 0.941 19.557 0.335 -70.263
1996.75 0.33 -70.547 0.943 19.269 0.943 19.269 0.33 -70.547
2021.708 0.325 -70.827 0.945 18.987 0.945 18.987 0.325 -70.827
2046.667 0.321 -71.101 0.946 18.71 0.946 18.71 0.321 -71.101
2071.625 0.316 -71.37 0.948 18.438 0.948 18.438 0.316 -71.37
2096.583 0.312 -71.634 0.949 18.17 0.949 18.17 0.312 -71.634
2121.542 0.307 -71.894 0.95 17.908 0.95 17.908 0.307 -71.894
2146.5 0.303 -72.148 0.952 17.65 0.952 17.65 0.303 -72.148
2171.458 0.299 -72.399 0.953 17.397 0.953 17.397 0.299 -72.399
2196.417 0.295 -72.644 0.954 17.148 0.954 17.148 0.295 -72.644
2221.375 0.291 -72.886 0.956 16.903 0.956 16.903 0.291 -72.886
2246.333 0.287 -73.123 0.957 16.662 0.957 16.662 0.287 -73.123
2271.292 0.283 -73.357 0.958 16.426 0.958 16.426 0.283 -73.357
2296.25 0.279 -73.586 0.959 16.193 0.959 16.193 0.279 -73.586
2321.208 0.275 -73.812 0.96 15.964 0.96 15.964 0.275 -73.812
2346.167 0.271 -74.034 0.961 15.739 0.961 15.739 0.271 -74.034
2371.125 0.268 -74.252 0.962 15.517 0.962 15.517 0.268 -74.252
2396.083 0.264 -74.467 0.963 15.299 0.963 15.299 0.264 -74.467
2421.042 0.26 -74.678 0.964 15.084 0.964 15.084 0.26 -74.678
2446 0.257 -74.886 0.965 14.872 0.965 14.872 0.257 -74.886
2470.958 0.253 -75.091 0.966 14.664 0.966 14.664 0.253 -75.091
2495.917 0.25 -75.292 0.967 14.459 0.967 14.459 0.25 -75.292
2520.875 0.246 -75.491 0.968 14.257 0.968 14.257 0.246 -75.491
2545.833 0.243 -75.686 0.969 14.058 0.969 14.058 0.243 -75.686
2570.792 0.24 -75.879 0.97 13.861 0.97 13.861 0.24 -75.879
2595.75 0.236 -76.069 0.971 13.668 0.971 13.668 0.236 -76.069
2620.708 0.233 -76.255 0.971 13.477 0.971 13.477 0.233 -76.255
2645.667 0.23 -76.439 0.972 13.289 0.972 13.289 0.23 -76.439
2670.625 0.227 -76.621 0.973 13.104 0.973 13.104 0.227 -76.621
2695.583 0.224 -76.8 0.974 12.921 0.974 12.921 0.224 -76.8
2720.542 0.221 -76.976 0.974 12.74 0.974 12.74 0.221 -76.976
2745.5 0.218 -77.15 0.975 12.562 0.975 12.562 0.218 -77.15
2770.458 0.215 -77.321 0.976 12.387 0.976 12.387 0.215 -77.321
2795.417 0.212 -77.49 0.976 12.214 0.976 12.214 0.212 -77.49
2820.375 0.209 -77.657 0.977 12.043 0.977 12.043 0.209 -77.657
2845.333 0.206 -77.821 0.978 11.874 0.978 11.874 0.206 -77.821
2870.292 0.203 -77.983 0.978 11.707 0.978 11.707 0.203 -77.983
2895.25 0.2 -78.143 0.979 11.543 0.979 11.543 0.2 -78.143
2920.208 0.197 -78.301 0.979 11.38 0.979 11.38 0.197 -78.301
2945.167 0.195 -78.457 0.98 11.22 0.98 11.22 0.195 -78.457
2970.125 0.192 -78.611 0.98 11.061 0.98 11.061 0.192 -78.611
2995.083 0.189 -78.763 0.981 10.904 0.981 10.904 0.189 -78.763
3020.042 0.187 -78.913 0.981 10.75 0.981 10.75 0.187 -78.913
3045 0.184 -79.061 0.982 10.597 0.982 10.597 0.184 -79.061
3069.958 0.181 -79.207 0.982 10.446 0.982 10.446 0.181 -79.207
3094.917 0.179 -79.351 0.983 10.296 0.983 10.296 0.179 -79.351
3119.875 0.176 -79.493 0.983 10.149 0.983 10.149 0.176 -79.493
3144.833 0.174 -79.634 0.984 10.003 0.984 10.003 0.174 -79.634
3169.792 0.171 -79.773 0.984 9.858 0.984 9.858 0.171 -79.773
3194.75 0.169 -79.91 0.985 9.716 0.985 9.716 0.169 -79.91
3219.708 0.166 -80.045 0.985 9.574 0.985 9.574 0.166 -80.045
3244.667 0.164 -80.179 0.985 9.435 0.985 9.435 0.164 -80.179
3269.625 0.162 -80.312 0.986 9.297 0.986 9.297 0.162 -80.312
3294.583 0.159 -80.442 0.986 9.16 0.986 9.16 0.159 -80.442
3319.542 0.157 -80.571 0.987 9.025 0.987 9.025 0.157 -80.571
3344.5 0.155 -80.699 0.987 8.891 0.987 8.891 0.155 -80.699
3369.458 0.152 -80.825 0.987 8.759 0.987 8.759 0.152 -80.825
3394.417 0.15 -80.95 0.988 8.628 0.988 8.628 0.15 -80.95
3419.375 0.148 -81.073 0.988 8.498 0.988 8.498 0.148 -81.073
3444.333 0.146 -81.195 0.988 8.369 0.988 8.369 0.146 -81.195
3469.292 0.143 -81.315 0.989 8.242 0.989 8.242 0.143 -81.315
3494.25 0.141 -81.434 0.989 8.116 0.989 8.116 0.141 -81.434
3519.208 0.139 -81.552 0.989 7.992 0.989 7.992 0.139 -81.552
3544.167 0.137 -81.668 0.989 7.868 0.989 7.868 0.137 -81.668
3569.125 0.135 -81.783 0.99 7.746 0.99 7.746 0.135 -81.783
3594.083 0.133 -81.896 0.99 7.625 0.99 7.625 0.133 -81.896
3619.042 0.131 -82.009 0.99 7.505 0.99 7.505 0.131 -82.009
3644 0.129 -82.119 0.991 7.386 0.991 7.386 0.129 -82.119
3668.958 0.127 -82.229 0.991 7.268 0.991 7.268 0.127 -82.229
3693.917 0.124 -82.338 0.991 7.151 0.991 7.151 0.124 -82.338
3718.875 0.122 -82.445 0.991 7.036 0.991 7.036 0.122 -82.445
3743.833 0.121 -82.551 0.992 6.921 0.992 6.921 0.121 -82.551
3768.792 0.119 -82.656 0.992 6.807 0.992 6.807 0.119 -82.656
3793.75 0.117 -82.759 0.992 6.695 0.992 6.695 0.117 -82.759
3818.708 0.115 -82.861 0.992 6.583 0.992 6.583 0.115 -82.861
3843.667 0.113 -82.963 0.993 6.472 0.993 6.472 0.113 -82.963
3868.625 0.111 -83.062 0.993 6.363 0.993 6.363 0.111 -83.062
3893.583 0.109 -83.161 0.993 6.254 0.993 6.254 0.109 -83.161
3918.542 0.107 -83.259 0.993 6.146 0.993 6.146 0.107 -83.259
3943.5 0.105 -83.355 0.993 6.039 0.993 6.039 0.105 -83.355
3968.458 0.103 -83.451 0.994 5.932 0.994 5.932 0.103 -83.451
3993.417 0.102 -83.545 0.994 5.827 0.994 5.827 0.102 -83.545
4018.375 0.1 -83.638 0.994 5.723 0.994 5.723 0.1 -83.638
4043.333 0.098 -83.729 0.994 5.619 0.994 5.619 0.098 -83.729
4068.292 0.096 -83.82 0.994 5.516 0.994 5.516 0.096 -83.82
4093.25 0.094 -83.91 0.994 5.414 0.994 5.414 0.094 -83.91
4118.208 0.093 -83.998 0.995 5.313 0.995 5.313 0.093 -83.998
4143.167 0.091 -84.085 0.995 5.212 0.995 5.212 0.091 -84.085
4168.125 0.089 -84.171 0.995 5.112 0.995 5.112 0.089 -84.171
4193.083 0.087 -84.256 0.995 5.013 0.995 5.013 0.087 -84.256
4218.042 0.086 -84.339 0.995 4.915 0.995 4.915 0.086 -84.339
4243 0.084 -84.422 0.995 4.818 0.995 4.818 0.084 -84.422
4267.958 0.082 -84.503 0.995 4.721 0.995 4.721 0.082 -84.503
4292.917 0.081 -84.583 0.996 4.625 0.996 4.625 0.081 -84.583
4317.875 0.079 -84.661 0.996 4.529 0.996 4.529 0.079 -84.661
4342.833 0.077 -84.739 0.996 4.435 0.996 4.435 0.077 -84.739
4367.792 0.076 -84.815 0.996 4.34 0.996 4.34 0.076 -84.815
4392.75 0.074 -84.89 0.996 4.247 0.996 4.247 0.074 -84.89
4417.708 0.072 -84.963 0.996 4.154 0.996 4.154 0.072 -84.963
4442.667 0.071 -85.035 0.996 4.062 0.996 4.062 0.071 -85.035
4467.625 0.069 -85.106 0.996 3.97 0.996 3.97 0.069 -85.106
4492.583 0.068 -85.175 0.997 3.879 0.997 3.879 0.068 -85.175
4517.542 0.066 -85.243 0.997 3.789 0.997 3.789 0.066 -85.243
4542.5 0.065 -85.309 0.997 3.699 0.997 3.699 0.065 -85.309
4567.458 0.063 -85.374 0.997 3.61 0.997 3.61 0.063 -85.374
4592.417 0.061 -85.437 0.997 3.522 0.997 3.522 0.061 -85.437
4617.375 0.06 -85.498 0.997 3.434 0.997 3.434 0.06 -85.498
4642.333 0.058 -85.557 0.997 3.346 0.997 3.346 0.058 -85.557
4667.292 0.057 -85.615 0.997 3.259 0.997 3.259 0.057 -85.615
4692.25 0.055 -85.671 0.997 3.173 0.997 3.173 0.055 -85.671
4717.208 0.054 -85.724 0.997 3.087 0.997 3.087 0.054 -85.724
4742.167 0.052 -85.776 0.998 3.002 0.998 3.002 0.052 -85.776
4767.125 0.051 -85.825 0.998 2.917 0.998 2.917 0.051 -85.825
4792.083 0.049 -85.872 0.998 2.833 0.998 2.833 0.049 -85.872
4817.042 0.048 -85.916 0.998 2.749 0.998 2.749 0.048 -85.916
4842 0.047 -85.957 0.998 2.666 0.998 2.666 0.047 -85.957
4866.958 0.045 -85.996 0.998 2.583 0.998 2.583 0.045 -85.996
4891.917 0.044 -86.032 0.998 2.501 0.998 2.501 0.044 -86.032
4916.875 0.042 -86.064 0.998 2.419 0.998 2.419 0.042 -86.064
4941.833 0.041 -86.092 0.998 2.337 0.998 2.337 0.041 -86.092
4966.792 0.039 -86.117 0.998 2.256 0.998 2.256 0.039 -86.117
4991.75 0.038 -86.137 0.998 2.176 0.998 2.176 0.038 -86.137
5016.708 0.037 -86.153 0.998 2.096 0.998 2.096 0.037 -86.153
5041.667 0.035 -86.163 0.998 2.016 0.998 2.016 0.035 -86.163
5066.625 0.034 -86.168 0.998 1.937 0.998 1.937 0.034 -86.168
5091.583 0.032 -86.166 0.998 1.859 0.998 1.859 0.032 -86.166
5116.542 0.031 -86.158 0.998 1.78 0.998 1.78 0.031 -86.158
5141.5 0.03 -86.141 0.998 1.702 0.998 1.702 0.03 -86.141
5166.458 0.028 -86.116 0.998 1.625 0.998 1.625 0.028 -86.116
5191.417 0.027 -86.081 0.999 1.548 0.999 1.548 0.027 -86.081
5216.375 0.026 -86.034 0.999 1.471 0.999 1.471 0.026 -86.034
5241.333 0.024 -85.974 0.999 1.395 0.999 1.395 0.024 -85.974
5266.292 0.023 -85.899 0.999 1.319 0.999 1.319 0.023 -85.899
5291.25 0.022 -85.806 0.999 1.244 0.999 1.244 0.022 -85.806
5316.208 0.02 -85.691 0.999 1.169 0.999 1.169 0.02 -85.691
5341.167 0.019 -85.552 0.999 1.094 0.999 1.094 0.019 -85.552
5366.125 0.018 -85.382 0.999 1.019 0.999 1.019 0.018 -85.382
5391.083 0.017 -85.175 0.999 0.945 0.999 0.945 0.017 -85.175
5416.042 0.015 -84.922 0.999 0.872 0.999 0.872 0.015 -84.922
5441 0.014 -84.611 0.999 0.798 0.999 0.798 0.014 -84.611
5465.958 0.013 -84.225 0.999 0.726 0.999 0.726 0.013 -84.225
5490.917 0.011 -83.739 0.999 0.653 0.999 0.653 0.011 -83.739
5515.875 0.01 -83.119 0.999 0.581 0.999 0.581 0.01 -83.119
5540.833 8.949e-3 -82.309 0.999 0.509 0.999 0.509 8.949e-3 -82.309
5565.792 7.711e-3 -81.219 0.999 0.437 0.999 0.437 7.711e-3 -81.219
5590.75 6.483e-3 -79.695 0.999 0.366 0.999 0.366 6.483e-3 -79.695
5615.708 5.268e-3 -77.442 0.999 0.295 0.999 0.295 5.268e-3 -77.442
5640.667 4.072e-3 -73.827 0.999 0.224 0.999 0.224 4.072e-3 -73.827
5665.625 2.912e-3 -67.249 0.999 0.154 0.999 0.154 2.912e-3 -67.249
5690.583 1.845e-3 -52.583 0.999 0.084 0.999 0.084 1.845e-3 -52.583
5715.542 1.147e-3 -12.628 0.999 0.014 0.999 0.014 1.147e-3 -12.628
5740.5 1.474e-3 40.567 0.999 -0.055 0.999 -0.055 1.474e-3 40.567
5765.458 2.438e-3 62.548 0.999 -0.124 0.999 -0.124 2.438e-3 62.548
5790.417 3.547e-3 71.418 0.999 -0.193 0.999 -0.193 3.547e-3 71.418
5815.375 4.697e-3 75.955 0.999 -0.261 0.999 -0.261 4.697e-3 75.955
5840.333 5.859e-3 78.661 0.999 -0.33 0.999 -0.33 5.859e-3 78.661
5865.292 7.027e-3 80.439 0.999 -0.397 0.999 -0.397 7.027e-3 80.439
5890.25 8.194e-3 81.686 0.999 -0.465 0.999 -0.465 8.194e-3 81.686
5915.208 9.36e-3 82.601 0.999 -0.532 0.999 -0.532 9.36e-3 82.601
5940.167 0.011 83.296 0.999 -0.6 0.999 -0.6 0.011 83.296
5965.125 0.012 83.838 0.999 -0.666 0.999 -0.666 0.012 83.838
5990.083 0.013 84.267 0.999 -0.733 0.999 -0.733 0.013 84.267
6015.042 0.014 84.614 0.999 -0.799 0.999 -0.799 0.014 84.614
6040 0.015 84.897 0.999 -0.865 0.999 -0.865 0.015 84.897
6064.958 0.016 85.129 0.999 -0.931 0.999 -0.931 0.016 85.129
6089.917 0.017 85.322 0.999 -0.996 0.999 -0.996 0.017 85.322
6114.875 0.019 85.483 0.999 -1.062 0.999 -1.062 0.019 85.483
6139.833 0.02 85.617 0.999 -1.127 0.999 -1.127 0.02 85.617
6164.792 0.021 85.729 0.999 -1.191 0.999 -1.191 0.021 85.729
6189.75 0.022 85.822 0.999 -1.256 0.999 -1.256 0.022 85.822
6214.708 0.023 85.9 0.999 -1.32 0.999 -1.32 0.023 85.9
6239.667 0.024 85.964 0.999 -1.384 0.999 -1.384 0.024 85.964
6264.625 0.025 86.017 0.999 -1.448 0.999 -1.448 0.025 86.017
6289.583 0.026 86.06 0.999 -1.511 0.999 -1.511 0.026 86.06
6314.542 0.028 86.094 0.999 -1.575 0.999 -1.575 0.028 86.094
6339.5 0.029 86.121 0.998 -1.638 0.998 -1.638 0.029 86.121
6364.458 0.03 86.141 0.998 -1.701 0.998 -1.701 0.03 86.141
6389.417 0.031 86.155 0.998 -1.763 0.998 -1.763 0.031 86.155
6414.375 0.032 86.164 0.998 -1.826 0.998 -1.826 0.032 86.164
6439.333 0.033 86.168 0.998 -1.888 0.998 -1.888 0.033 86.168
6464.292 0.034 86.168 0.998 -1.95 0.998 -1.95 0.034 86.168
6489.25 0.035 86.164 0.998 -2.012 0.998 -2.012 0.035 86.164
6514.208 0.036 86.156 0.998 -2.073 0.998 -2.073 0.036 86.156
6539.167 0.037 86.146 0.998 -2.134 0.998 -2.134 0.037 86.146
6564.125 0.038 86.133 0.998 -2.196 0.998 -2.196 0.038 86.133
6589.083 0.039 86.117 0.998 -2.257 0.998 -2.257 0.039 86.117
6614.042 0.04 86.099 0.998 -2.317 0.998 -2.317 0.04 86.099
6639 0.042 86.079 0.998 -2.378 0.998 -2.378 0.042 86.079
6663.958 0.043 86.056 0.998 -2.438 0.998 -2.438 0.043 86.056
6688.917 0.044 86.033 0.998 -2.498 0.998 -2.498 0.044 86.033
6713.875 0.045 86.007 0.998 -2.558 0.998 -2.558 0.045 86.007
6738.833 0.046 85.98 0.998 -2.618 0.998 -2.618 0.046 85.98
6763.792 0.047 85.952 0.998 -2.677 0.998 -2.677 0.047 85.952
6788.75 0.048 85.922 0.998 -2.737 0.998 -2.737 0.048 85.922
6813.708 0.049 85.891 0.998 -2.796 0.998 -2.796 0.049 85.891
6838.667 0.05 85.86 0.998 -2.855 0.998 -2.855 0.05 85.86
6863.625 0.051 85.827 0.998 -2.914 0.998 -2.914 0.051 85.827
6888.583 0.052 85.793 0.998 -2.972 0.998 -2.972 0.052 85.793
6913.542 0.053 85.758 0.997 -3.031 0.997 -3.031 0.053 85.758
6938.5 0.054 85.723 0.997 -3.089 0.997 -3.089 0.054 85.723
6963.458 0.055 85.687 0.997 -3.147 0.997 -3.147 0.055 85.687
6988.417 0.056 85.65 0.997 -3.205 0.997 -3.205 0.056 85.65
7013.375 0.057 85.613 0.997 -3.263 0.997 -3.263 0.057 85.613
7038.333 0.058 85.575 0.997 -3.32 0.997 -3.32 0.058 85.575
7063.292 0.059 85.536 0.997 -3.378 0.997 -3.378 0.059 85.536
7088.25 0.06 85.497 0.997 -3.435 0.997 -3.435 0.06 85.497
7113.208 0.061 85.457 0.997 -3.492 0.997 -3.492 0.061 85.457
7138.167 0.062 85.417 0.997 -3.549 0.997 -3.549 0.062 85.417
7163.125 0.063 85.377 0.997 -3.606 0.997 -3.606 0.063 85.377
7188.083 0.064 85.336 0.997 -3.662 0.997 -3.662 0.064 85.336
7213.042 0.065 85.295 0.997 -3.719 0.997 -3.719 0.065 85.295
7238 0.066 85.253 0.997 -3.775 0.997 -3.775 0.066 85.253
7262.958 0.067 85.212 0.997 -3.831 0.997 -3.831 0.067 85.212
7287.917 0.068 85.169 0.997 -3.887 0.997 -3.887 0.068 85.169
7312.875 0.069 85.127 0.997 -3.943 0.997 -3.943 0.069 85.127
7337.833 0.07 85.084 0.996 -3.998 0.996 -3.998 0.07 85.084
7362.792 0.071 85.041 0.996 -4.054 0.996 -4.054 0.071 85.041
7387.75 0.072 84.998 0.996 -4.109 0.996 -4.109 0.072 84.998
7412.708 0.073 84.955 0.996 -4.165 0.996 -4.165 0.073 84.955
7437.667 0.074 84.911 0.996 -4.22 0.996 -4.22 0.074 84.911
7462.625 0.075 84.868 0.996 -4.274 0.996 -4.274 0.075 84.868
7487.583 0.075 84.824 0.996 -4.329 0.996 -4.329 0.075 84.824
7512.542 0.076 84.78 0.996 -4.384 0.996 -4.384 0.076 84.78
7537.5 0.077 84.736 0.996 -4.438 0.996 -4.438 0.077 84.736
7562.458 0.078 84.691 0.996 -4.493 0.996 -4.493 0.078 84.691
7587.417 0.079 84.647 0.996 -4.547 0.996 -4.547 0.079 84.647
7612.375 0.08 84.602 0.996 -4.601 0.996 -4.601 0.08 84.602
7637.333 0.081 84.558 0.996 -4.655 0.996 -4.655 0.081 84.558
7662.292 0.082 84.513 0.996 -4.709 0.996 -4.709 0.082 84.513
7687.25 0.083 84.468 0.995 -4.762 0.995 -4.762 0.083 84.468
7712.208 0.084 84.423 0.995 -4.816 0.995 -4.816 0.084 84.423
7737.167 0.085 84.378 0.995 -4.869 0.995 -4.869 0.085 84.378
7762.125 0.086 84.333 0.995 -4.923 0.995 -4.923 0.086 84.333
7787.083 0.087 84.288 0.995 -4.976 0.995 -4.976 0.087 84.288
7812.042 0.088 84.243 0.995 -5.029 0.995 -5.029 0.088 84.243
7837 0.089 84.197 0.995 -5.082 0.995 -5.082 0.089 84.197
7861.958 0.089 84.152 0.995 -5.134 0.995 -5.134 0.089 84.152
7886.917 0.09 84.107 0.995 -5.187 0.995 -5.187 0.09 84.107
7911.875 0.091 84.061 0.995 -5.239 0.995 -5.239 0.091 84.061
7936.833 0.092 84.016 0.995 -5.292 0.995 -5.292 0.092 84.016
7961.792 0.093 83.97 0.995 -5.344 0.995 -5.344 0.093 83.97
7986.75 0.094 83.925 0.994 -5.396 0.994 -5.396 0.094 83.925
8011.708 0.095 83.879 0.994 -5.448 0.994 -5.448 0.095 83.879
8036.667 0.096 83.834 0.994 -5.5 0.994 -5.5 0.096 83.834
8061.625 0.097 83.788 0.994 -5.552 0.994 -5.552 0.097 83.788
8086.583 0.098 83.743 0.994 -5.604 0.994 -5.604 0.098 83.743
8111.542 0.099 83.697 0.994 -5.655 0.994 -5.655 0.099 83.697
8136.5 0.099 83.652 0.994 -5.707 0.994 -5.707 0.099 83.652
8161.458 0.1 83.606 0.994 -5.758 0.994 -5.758 0.1 83.606
8186.417 0.101 83.561 0.994 -5.809 0.994 -5.809 0.101 83.561
8211.375 0.102 83.515 0.994 -5.86 0.994 -5.86 0.102 83.515
