# MHZ S MA R 50

50 1 -0.9 0.016 89.096 0.016 89.096 1 -0.9
74.958 1 -1.349 0.024 88.645 0.024 88.645 1 -1.349
99.917 1 -1.798 0.031 88.195 0.031 88.195 1 -1.798
124.875 0.999 -2.247 0.039 87.744 0.039 87.744 0.999 -2.247
149.833 0.999 -2.695 0.047 87.293 0.047 87.293 0.999 -2.695
174.792 0.998 -3.144 0.055 86.843 0.055 86.843 0.998 -3.144
199.75 0.998 -3.592 0.063 86.393 0.063 86.393 0.998 -3.592
224.708 0.997 -4.04 0.07 85.944 0.07 85.944 0.997 -4.04
249.667 0.997 -4.487 0.078 85.495 0.078 85.495 0.997 -4.487
274.625 0.996 -4.934 0.086 85.046 0.086 85.046 0.996 -4.934
299.583 0.996 -5.38 0.094 84.598 0.094 84.598 0.996 -5.38
324.542 0.995 -5.826 0.102 84.15 0.102 84.15 0.995 -5.826
349.5 0.994 -6.272 0.109 83.703 0.109 83.703 0.994 -6.272
374.458 0.993 -6.716 0.117 83.256 0.117 83.256 0.993 -6.716
399.417 0.992 -7.161 0.125 82.81 0.125 82.81 0.992 -7.161
424.375 0.991 -7.604 0.132 82.365 0.132 82.365 0.991 -7.604
449.333 0.99 -8.047 0.14 81.92 0.14 81.92 0.99 -8.047
474.292 0.989 -8.489 0.148 81.476 0.148 81.476 0.989 -8.489
499.25 0.988 -8.93 0.155 81.033 0.155 81.033 0.988 -8.93
524.208 0.987 -9.371 0.163 80.591 0.163 80.591 0.987 -9.371
549.167 0.985 -9.81 0.17 80.149 0.17 80.149 0.985 -9.81
574.125 0.984 -10.249 0.178 79.709 0.178 79.709 0.984 -10.249
599.083 0.983 -10.687 0.185 79.269 0.185 79.269 0.983 -10.687
624.042 0.981 -11.124 0.193 78.83 0.193 78.83 0.981 -11.124
649 0.98 -11.559 0.2 78.393 0.2 78.393 0.98 -11.559
673.958 0.978 -11.994 0.208 77.956 0.208 77.956 0.978 -11.994
698.917 0.976 -12.428 0.215 77.52 0.215 77.52 0.976 -12.428
723.875 0.975 -12.86 0.223 77.086 0.223 77.086 0.975 -12.86
748.833 0.973 -13.292 0.23 76.653 0.23 76.653 0.973 -13.292
773.792 0.971 -13.722 0.237 76.22 0.237 76.22 0.971 -13.722
798.75 0.969 -14.151 0.244 75.79 0.244 75.79 0.969 -14.151
823.708 0.968 -14.579 0.252 75.36 0.252 75.36 0.968 -14.579
848.667 0.966 -15.006 0.259 74.931 0.259 74.931 0.966 -15.006
873.625 0.964 -15.431 0.266 74.504 0.266 74.504 0.964 -15.431
898.583 0.962 -15.855 0.273 74.078 0.273 74.078 0.962 -15.855
923.542 0.96 -16.277 0.28 73.654 0.28 73.654 0.96 -16.277
948.5 0.957 -16.699 0.287 73.231 0.287 73.231 0.957 -16.699
973.458 0.955 -17.119 0.294 72.809 0.294 72.809 0.955 -17.119
998.417 0.953 -17.537 0.301 72.389 0.301 72.389 0.953 -17.537
1023.375 0.951 -17.954 0.308 71.97 0.308 71.97 0.951 -17.954
1048.333 0.949 -18.369 0.315 71.553 0.315 71.553 0.949 -18.369
1073.292 0.946 -18.783 0.322 71.137 0.322 71.137 0.946 -18.783
1098.25 0.944 -19.196 0.329 70.722 0.329 70.722 0.944 -19.196
1123.208 0.942 -19.607 0.336 70.31 0.336 70.31 0.942 -19.607
1148.167 0.939 -20.016 0.342 69.899 0.342 69.899 0.939 -20.016
1173.125 0.937 -20.423 0.349 69.489 0.349 69.489 0.937 -20.423
1198.083 0.934 -20.83 0.356 69.081 0.356 69.081 0.934 -20.83
1223.042 0.932 -21.234 0.362 68.675 0.362 68.675 0.932 -21.234
1248 0.929 -21.637 0.369 68.27 0.369 68.27 0.929 -21.637
1272.958 0.926 -22.038 0.375 67.867 0.375 67.867 0.926 -22.038
1297.917 0.924 -22.437 0.382 67.466 0.382 67.466 0.924 -22.437
1322.875 0.921 -22.835 0.388 67.066 0.388 67.066 0.921 -22.835
1347.833 0.918 -23.231 0.394 66.668 0.394 66.668 0.918 -23.231
1372.792 0.915 -23.625 0.401 66.272 0.401 66.272 0.915 -23.625
1397.75 0.913 -24.018 0.407 65.878 0.407 65.878 0.913 -24.018
1422.708 0.91 -24.408 0.413 65.485 0.413 65.485 0.91 -24.408
1447.667 0.907 -24.797 0.419 65.094 0.419 65.094 0.907 -24.797
1472.625 0.904 -25.184 0.426 64.705 0.426 64.705 0.904 -25.184
1497.583 0.901 -25.57 0.432 64.318 0.432 64.318 0.901 -25.57
1522.542 0.898 -25.953 0.438 63.933 0.438 63.933 0.898 -25.953
1547.5 0.895 -26.335 0.444 63.549 0.444 63.549 0.895 -26.335
1572.458 0.892 -26.714 0.45 63.167 0.45 63.167 0.892 -26.714
1597.417 0.889 -27.092 0.455 62.787 0.455 62.787 0.889 -27.092
1622.375 0.886 -27.468 0.461 62.409 0.461 62.409 0.886 -27.468
1647.333 0.883 -27.843 0.467 62.033 0.467 62.033 0.883 -27.843
1672.292 0.88 -28.215 0.473 61.659 0.473 61.659 0.88 -28.215
1697.25 0.877 -28.585 0.478 61.286 0.478 61.286 0.877 -28.585
1722.208 0.874 -28.954 0.484 60.916 0.484 60.916 0.874 -28.954
1747.167 0.871 -29.32 0.49 60.547 0.49 60.547 0.871 -29.32
1772.125 0.868 -29.685 0.495 60.181 0.495 60.181 0.868 -29.685
1797.083 0.864 -30.048 0.501 59.816 0.501 59.816 0.864 -30.048
1822.042 0.861 -30.409 0.506 59.453 0.506 59.453 0.861 -30.409
1847 0.858 -30.768 0.512 59.092 0.512 59.092 0.858 -30.768
1871.958 0.855 -31.125 0.517 58.733 0.517 58.733 0.855 -31.125
1896.917 0.852 -31.48 0.522 58.376 0.522 58.376 0.852 -31.48
1921.875 0.848 -31.833 0.527 58.021 0.527 58.021 0.848 -31.833
1946.833 0.845 -32.185 0.533 57.667 0.533 57.667 0.845 -32.185
1971.792 0.842 -32.534 0.538 57.316 0.538 57.316 0.842 -32.534
1996.75 0.838 -32.881 0.543 56.967 0.543 56.967 0.838 -32.881
2021.708 0.835 -33.227 0.548 56.619 0.548 56.619 0.835 -33.227
2046.667 0.832 -33.57 0.553 56.273 0.553 56.273 0.832 -33.57
2071.625 0.828 -33.912 0.558 55.93 0.558 55.93 0.828 -33.912
2096.583 0.825 -34.252 0.563 55.588 0.563 55.588 0.825 -34.252
2121.542 0.822 -34.589 0.568 55.248 0.568 55.248 0.822 -34.589
2146.5 0.818 -34.925 0.573 54.91 0.573 54.91 0.818 -34.925
2171.458 0.815 -35.259 0.577 54.575 0.577 54.575 0.815 -35.259
2196.417 0.811 -35.591 0.582 54.241 0.582 54.241 0.811 -35.591
2221.375 0.808 -35.921 0.587 53.908 0.587 53.908 0.808 -35.921
2246.333 0.805 -36.249 0.591 53.578 0.591 53.578 0.805 -36.249
2271.292 0.801 -36.575 0.596 53.25 0.596 53.25 0.801 -36.575
2296.25 0.798 -36.9 0.6 52.924 0.6 52.924 0.798 -36.9
2321.208 0.794 -37.222 0.605 52.599 0.605 52.599 0.794 -37.222
2346.167 0.791 -37.543 0.609 52.276 0.609 52.276 0.791 -37.543
2371.125 0.788 -37.861 0.614 51.956 0.614 51.956 0.788 -37.861
2396.083 0.784 -38.178 0.618 51.637 0.618 51.637 0.784 -38.178
2421.042 0.781 -38.493 0.622 51.32 0.622 51.32 0.781 -38.493
2446 0.777 -38.806 0.627 51.005 0.627 51.005 0.777 -38.806
2470.958 0.774 -39.117 0.631 50.692 0.631 50.692 0.774 -39.117
2495.917 0.77 -39.426 0.635 50.38 0.635 50.38 0.77 -39.426
2520.875 0.767 -39.733 0.639 50.071 0.639 50.071 0.767 -39.733
2545.833 0.763 -40.039 0.643 49.763 0.643 49.763 0.763 -40.039
2570.792 0.76 -40.342 0.647 49.458 0.647 49.458 0.76 -40.342
2595.75 0.756 -40.644 0.651 49.154 0.651 49.154 0.756 -40.644
2620.708 0.753 -40.944 0.655 48.852 0.655 48.852 0.753 -40.944
2645.667 0.75 -41.242 0.659 48.551 0.659 48.551 0.75 -41.242
2670.625 0.746 -41.538 0.663 48.253 0.663 48.253 0.746 -41.538
2695.583 0.743 -41.833 0.667 47.956 0.667 47.956 0.743 -41.833
2720.542 0.739 -42.126 0.671 47.661 0.671 47.661 0.739 -42.126
2745.5 0.736 -42.417 0.675 47.368 0.675 47.368 0.736 -42.417
2770.458 0.732 -42.706 0.678 47.077 0.678 47.077 0.732 -42.706
2795.417 0.729 -42.993 0.682 46.787 0.682 46.787 0.729 -42.993
2820.375 0.725 -43.279 0.686 46.499 0.686 46.499 0.725 -43.279
2845.333 0.722 -43.562 0.689 46.213 0.689 46.213 0.722 -43.562
2870.292 0.718 -43.844 0.693 45.929 0.693 45.929 0.718 -43.844
2895.25 0.715 -44.125 0.696 45.646 0.696 45.646 0.715 -44.125
2920.208 0.712 -44.403 0.7 45.366 0.7 45.366 0.712 -44.403
2945.167 0.708 -44.68 0.703 45.086 0.703 45.086 0.708 -44.68
2970.125 0.705 -44.955 0.707 44.809 0.707 44.809 0.705 -44.955
2995.083 0.701 -45.229 0.71 44.533 0.71 44.533 0.701 -45.229
3020.042 0.698 -45.501 0.713 44.259 0.713 44.259 0.698 -45.501
3045 0.695 -45.771 0.717 43.987 0.717 43.987 0.695 -45.771
3069.958 0.691 -46.039 0.72 43.716 0.72 43.716 0.691 -46.039
3094.917 0.688 -46.306 0.723 43.447 0.723 43.447 0.688 -46.306
3119.875 0.684 -46.571 0.726 43.18 0.726 43.18 0.684 -46.571
3144.833 0.681 -46.834 0.729 42.914 0.729 42.914 0.681 -46.834
3169.792 0.678 -47.096 0.733 42.65 0.733 42.65 0.678 -47.096
3194.75 0.674 -47.356 0.736 42.387 0.736 42.387 0.674 -47.356
3219.708 0.671 -47.615 0.739 42.126 0.739 42.126 0.671 -47.615
3244.667 0.667 -47.872 0.742 41.867 0.742 41.867 0.667 -47.872
3269.625 0.664 -48.127 0.745 41.609 0.745 41.609 0.664 -48.127
3294.583 0.661 -48.381 0.748 41.353 0.748 41.353 0.661 -48.381
3319.542 0.657 -48.633 0.751 41.098 0.751 41.098 0.657 -48.633
3344.5 0.654 -48.884 0.753 40.845 0.753 40.845 0.654 -48.884
3369.458 0.651 -49.133 0.756 40.594 0.756 40.594 0.651 -49.133
3394.417 0.647 -49.381 0.759 40.344 0.759 40.344 0.647 -49.381
3419.375 0.644 -49.627 0.762 40.095 0.762 40.095 0.644 -49.627
3444.333 0.641 -49.871 0.765 39.848 0.765 39.848 0.641 -49.871
3469.292 0.637 -50.114 0.767 39.603 0.767 39.603 0.637 -50.114
3494.25 0.634 -50.356 0.77 39.359 0.77 39.359 0.634 -50.356
3519.208 0.631 -50.596 0.773 39.116 0.773 39.116 0.631 -50.596
3544.167 0.628 -50.834 0.775 38.875 0.775 38.875 0.628 -50.834
3569.125 0.624 -51.071 0.778 38.636 0.778 38.636 0.624 -51.071
3594.083 0.621 -51.307 0.781 38.398 0.781 38.398 0.621 -51.307
3619.042 0.618 -51.541 0.783 38.161 0.783 38.161 0.618 -51.541
3644 0.615 -51.774 0.786 37.926 0.786 37.926 0.615 -51.774
3668.958 0.611 -52.005 0.788 37.692 0.788 37.692 0.611 -52.005
3693.917 0.608 -52.235 0.791 37.459 0.791 37.459 0.608 -52.235
3718.875 0.605 -52.464 0.793 37.228 0.793 37.228 0.605 -52.464
3743.833 0.602 -52.691 0.795 36.998 0.795 36.998 0.602 -52.691
3768.792 0.599 -52.917 0.798 36.77 0.798 36.77 0.599 -52.917
3793.75 0.595 -53.141 0.8 36.543 0.8 36.543 0.595 -53.141
3818.708 0.592 -53.364 0.802 36.318 0.802 36.318 0.592 -53.364
3843.667 0.589 -53.586 0.805 36.093 0.805 36.093 0.589 -53.586
3868.625 0.586 -53.806 0.807 35.87 0.807 35.87 0.586 -53.806
3893.583 0.583 -54.025 0.809 35.649 0.809 35.649 0.583 -54.025
3918.542 0.58 -54.243 0.812 35.428 0.812 35.428 0.58 -54.243
3943.5 0.577 -54.459 0.814 35.209 0.814 35.209 0.577 -54.459
3968.458 0.573 -54.674 0.816 34.992 0.816 34.992 0.573 -54.674
3993.417 0.57 -54.888 0.818 34.775 0.818 34.775 0.57 -54.888
4018.375 0.567 -55.1 0.82 34.56 0.82 34.56 0.567 -55.1
4043.333 0.564 -55.312 0.822 34.346 0.822 34.346 0.564 -55.312
4068.292 0.561 -55.521 0.824 34.133 0.824 34.133 0.561 -55.521
4093.25 0.558 -55.73 0.826 33.922 0.826 33.922 0.558 -55.73
4118.208 0.555 -55.938 0.828 33.712 0.828 33.712 0.555 -55.938
4143.167 0.552 -56.144 0.83 33.503 0.83 33.503 0.552 -56.144
4168.125 0.549 -56.349 0.832 33.295 0.832 33.295 0.549 -56.349
4193.083 0.546 -56.553 0.834 33.088 0.834 33.088 0.546 -56.553
4218.042 0.543 -56.755 0.836 32.883 0.836 32.883 0.543 -56.755
4243 0.54 -56.956 0.838 32.679 0.838 32.679 0.54 -56.956
4267.958 0.537 -57.157 0.84 32.476 0.84 32.476 0.537 -57.157
4292.917 0.534 -57.356 0.842 32.274 0.842 32.274 0.534 -57.356
4317.875 0.531 -57.554 0.844 32.073 0.844 32.073 0.531 -57.554
4342.833 0.528 -57.75 0.846 31.873 0.846 31.873 0.528 -57.75
4367.792 0.525 -57.946 0.848 31.675 0.848 31.675 0.525 -57.946
4392.75 0.522 -58.14 0.849 31.478 0.849 31.478 0.522 -58.14
4417.708 0.519 -58.333 0.851 31.281 0.851 31.281 0.519 -58.333
4442.667 0.516 -58.526 0.853 31.086 0.853 31.086 0.516 -58.526
4467.625 0.513 -58.717 0.855 30.892 0.855 30.892 0.513 -58.717
4492.583 0.511 -58.907 0.856 30.699 0.856 30.699 0.511 -58.907
4517.542 0.508 -59.095 0.858 30.508 0.858 30.508 0.508 -59.095
4542.5 0.505 -59.283 0.86 30.317 0.86 30.317 0.505 -59.283
4567.458 0.502 -59.47 0.861 30.127 0.861 30.127 0.502 -59.47
4592.417 0.499 -59.655 0.863 29.938 0.863 29.938 0.499 -59.655
4617.375 0.496 -59.84 0.865 29.751 0.865 29.751 0.496 -59.84
4642.333 0.493 -60.023 0.866 29.564 0.866 29.564 0.493 -60.023
4667.292 0.491 -60.206 0.868 29.379 0.868 29.379 0.491 -60.206
4692.25 0.488 -60.387 0.869 29.194 0.869 29.194 0.488 -60.387
4717.208 0.485 -60.568 0.871 29.01 0.871 29.01 0.485 -60.568
4742.167 0.482 -60.747 0.872 28.828 0.872 28.828 0.482 -60.747
4767.125 0.479 -60.925 0.874 28.646 0.874 28.646 0.479 -60.925
4792.083 0.477 -61.103 0.876 28.466 0.876 28.466 0.477 -61.103
4817.042 0.474 -61.279 0.877 28.286 0.877 28.286 0.474 -61.279
4842 0.471 -61.454 0.878 28.108 0.878 28.108 0.471 -61.454
4866.958 0.468 -61.629 0.88 27.93 0.88 27.93 0.468 -61.629
4891.917 0.466 -61.802 0.881 27.753 0.881 27.753 0.466 -61.802
4916.875 0.463 -61.975 0.883 27.577 0.883 27.577 0.463 -61.975
4941.833 0.46 -62.146 0.884 27.403 0.884 27.403 0.46 -62.146
4966.792 0.458 -62.317 0.886 27.229 0.886 27.229 0.458 -62.317
4991.75 0.455 -62.486 0.887 27.056 0.887 27.056 0.455 -62.486
5016.708 0.452 -62.655 0.888 26.884 0.888 26.884 0.452 -62.655
5041.667 0.45 -62.823 0.89 26.712 0.89 26.712 0.45 -62.823
5066.625 0.447 -62.989 0.891 26.542 0.891 26.542 0.447 -62.989
5091.583 0.444 -63.155 0.892 26.373 0.892 26.373 0.444 -63.155
5116.542 0.442 -63.32 0.894 26.204 0.894 26.204 0.442 -63.32
5141.5 0.439 -63.484 0.895 26.037 0.895 26.037 0.439 -63.484
5166.458 0.436 -63.648 0.896 25.87 0.896 25.87 0.436 -63.648
5191.417 0.434 -63.81 0.897 25.704 0.897 25.704 0.434 -63.81
5216.375 0.431 -63.971 0.899 25.539 0.899 25.539 0.431 -63.971
5241.333 0.429 -64.132 0.9 25.375 0.9 25.375 0.429 -64.132
5266.292 0.426 -64.292 0.901 25.211 0.901 25.211 0.426 -64.292
5291.25 0.423 -64.451 0.902 25.049 0.902 25.049 0.423 -64.451
5316.208 0.421 -64.609 0.903 24.887 0.903 24.887 0.421 -64.609
5341.167 0.418 -64.766 0.905 24.726 0.905 24.726 0.418 -64.766
5366.125 0.416 -64.922 0.906 24.566 0.906 24.566 0.416 -64.922
5391.083 0.413 -65.078 0.907 24.407 0.907 24.407 0.413 -65.078
5416.042 0.411 -65.232 0.908 24.248 0.908 24.248 0.411 -65.232
5441 0.408 -65.386 0.909 24.091 0.909 24.091 0.408 -65.386
5465.958 0.406 -65.539 0.91 23.934 0.91 23.934 0.406 -65.539
5490.917 0.403 -65.691 0.911 23.778 0.911 23.778 0.403 -65.691
5515.875 0.401 -65.843 0.912 23.622 0.912 23.622 0.401 -65.843
5540.833 0.398 -65.993 0.914 23.468 0.914 23.468 0.398 -65.993
5565.792 0.396 -66.143 0.915 23.314 0.915 23.314 0.396 -66.143
5590.75 0.393 -66.292 0.916 23.161 0.916 23.161 0.393 -66.292
5615.708 0.391 -66.441 0.917 23.008 0.917 23.008 0.391 -66.441
5640.667 0.388 -66.588 0.918 22.857 0.918 22.857 0.388 -66.588
5665.625 0.386 -66.735 0.919 22.706 0.919 22.706 0.386 -66.735
5690.583 0.384 -66.881 0.92 22.556 0.92 22.556 0.384 -66.881
5715.542 0.381 -67.026 0.921 22.406 0.921 22.406 0.381 -67.026
5740.5 0.379 -67.171 0.922 22.258 0.922 22.258 0.379 -67.171
5765.458 0.376 -67.314 0.923 22.11 0.923 22.11 0.376 -67.314
5790.417 0.374 -67.457 0.924 21.962 0.924 21.962 0.374 -67.457
5815.375 0.372 -67.6 0.925 21.816 0.925 21.816 0.372 -67.6
5840.333 0.369 -67.741 0.926 21.67 0.926 21.67 0.369 -67.741
5865.292 0.367 -67.882 0.926 21.525 0.926 21.525 0.367 -67.882
5890.25 0.365 -68.022 0.927 21.38 0.927 21.38 0.365 -68.022
5915.208 0.362 -68.161 0.928 21.236 0.928 21.236 0.362 -68.161
5940.167 0.36 -68.3 0.929 21.093 0.929 21.093 0.36 -68.3
5965.125 0.358 -68.438 0.93 20.951 0.93 20.951 0.358 -68.438
5990.083 0.355 -68.575 0.931 20.809 0.931 20.809 0.355 -68.575
6015.042 0.353 -68.712 0.932 20.668 0.932 20.668 0.353 -68.712
6040 0.351 -68.848 0.933 20.527 0.933 20.527 0.351 -68.848
6064.958 0.348 -68.983 0.934 20.387 0.934 20.387 0.348 -68.983
6089.917 0.346 -69.118 0.934 20.248 0.934 20.248 0.346 -69.118
6114.875 0.344 -69.252 0.935 20.109 0.935 20.109 0.344 -69.252
6139.833 0.342 -69.385 0.936 19.971 0.936 19.971 0.342 -69.385
6164.792 0.339 -69.517 0.937 19.834 0.937 19.834 0.339 -69.517
6189.75 0.337 -69.649 0.938 19.697 0.938 19.697 0.337 -69.649
6214.708 0.335 -69.78 0.938 19.561 0.938 19.561 0.335 -69.78
6239.667 0.333 -69.911 0.939 19.426 0.939 19.426 0.333 -69.911
6264.625 0.33 -70.041 0.94 19.291 0.94 19.291 0.33 -70.041
6289.583 0.328 -70.17 0.941 19.156 0.941 19.156 0.328 -70.17
6314.542 0.326 -70.299 0.942 19.023 0.942 19.023 0.326 -70.299
6339.5 0.324 -70.427 0.942 18.889 0.942 18.889 0.324 -70.427
6364.458 0.322 -70.554 0.943 18.757 0.943 18.757 0.322 -70.554
6389.417 0.319 -70.681 0.944 18.625 0.944 18.625 0.319 -70.681
6414.375 0.317 -70.807 0.944 18.493 0.944 18.493 0.317 -70.807
6439.333 0.315 -70.932 0.945 18.363 0.945 18.363 0.315 -70.932
6464.292 0.313 -71.057 0.946 18.232 0.946 18.232 0.313 -71.057
6489.25 0.311 -71.182 0.947 18.103 0.947 18.103 0.311 -71.182
6514.208 0.309 -71.305 0.947 17.973 0.947 17.973 0.309 -71.305
6539.167 0.306 -71.428 0.948 17.845 0.948 17.845 0.306 -71.428
6564.125 0.304 -71.551 0.949 17.717 0.949 17.717 0.304 -71.551
6589.083 0.302 -71.673 0.949 17.589 0.949 17.589 0.302 -71.673
6614.042 0.3 -71.794 0.95 17.462 0.95 17.462 0.3 -71.794
6639 0.298 -71.915 0.951 17.336 0.951 17.336 0.298 -71.915
6663.958 0.296 -72.035 0.951 17.21 0.951 17.21 0.296 -72.035
6688.917 0.294 -72.154 0.952 17.085 0.952 17.085 0.294 -72.154
6713.875 0.292 -72.273 0.953 16.96 0.953 16.96 0.292 -72.273
6738.833 0.29 -72.391 0.953 16.835 0.953 16.835 0.29 -72.391
6763.792 0.288 -72.509 0.954 16.712 0.954 16.712 0.288 -72.509
6788.75 0.286 -72.626 0.954 16.588 0.954 16.588 0.286 -72.626
6813.708 0.283 -72.743 0.955 16.465 0.955 16.465 0.283 -72.743
6838.667 0.281 -72.859 0.956 16.343 0.956 16.343 0.281 -72.859
6863.625 0.279 -72.974 0.956 16.221 0.956 16.221 0.279 -72.974
6888.583 0.277 -73.089 0.957 16.1 0.957 16.1 0.277 -73.089
6913.542 0.275 -73.204 0.957 15.979 0.957 15.979 0.275 -73.204
6938.5 0.273 -73.317 0.958 15.859 0.958 15.859 0.273 -73.317
6963.458 0.271 -73.431 0.959 15.739 0.959 15.739 0.271 -73.431
6988.417 0.269 -73.543 0.959 15.62 0.959 15.62 0.269 -73.543
7013.375 0.267 -73.656 0.96 15.501 0.96 15.501 0.267 -73.656
7038.333 0.265 -73.767 0.96 15.382 0.96 15.382 0.265 -73.767
7063.292 0.263 -73.878 0.961 15.264 0.961 15.264 0.263 -73.878
7088.25 0.261 -73.989 0.961 15.147 0.961 15.147 0.261 -73.989
7113.208 0.259 -74.099 0.962 15.03 0.962 15.03 0.259 -74.099
7138.167 0.257 -74.208 0.962 14.913 0.962 14.913 0.257 -74.208
7163.125 0.255 -74.317 0.963 14.797 0.963 14.797 0.255 -74.317
7188.083 0.253 -74.425 0.963 14.682 0.963 14.682 0.253 -74.425
7213.042 0.252 -74.533 0.964 14.566 0.964 14.566 0.252 -74.533
7238 0.25 -74.64 0.964 14.452 0.964 14.452 0.25 -74.64
7262.958 0.248 -74.747 0.965 14.337 0.965 14.337 0.248 -74.747
7287.917 0.246 -74.853 0.965 14.223 0.965 14.223 0.246 -74.853
7312.875 0.244 -74.959 0.966 14.11 0.966 14.11 0.244 -74.959
7337.833 0.242 -75.064 0.966 13.997 0.966 13.997 0.242 -75.064
7362.792 0.24 -75.169 0.967 13.884 0.967 13.884 0.24 -75.169
7387.75 0.238 -75.273 0.967 13.772 0.967 13.772 0.238 -75.273
7412.708 0.236 -75.377 0.968 13.661 0.968 13.661 0.236 -75.377
7437.667 0.234 -75.48 0.968 13.549 0.968 13.549 0.234 -75.48
7462.625 0.232 -75.582 0.969 13.438 0.969 13.438 0.232 -75.582
7487.583 0.231 -75.685 0.969 13.328 0.969 13.328 0.231 -75.685
7512.542 0.229 -75.786 0.97 13.218 0.97 13.218 0.229 -75.786
7537.5 0.227 -75.887 0.97 13.108 0.97 13.108 0.227 -75.887
7562.458 0.225 -75.988 0.97 12.999 0.97 12.999 0.225 -75.988
7587.417 0.223 -76.088 0.971 12.89 0.971 12.89 0.223 -76.088
7612.375 0.221 -76.187 0.971 12.781 0.971 12.781 0.221 -76.187
7637.333 0.219 -76.286 0.972 12.673 0.972 12.673 0.219 -76.286
7662.292 0.218 -76.385 0.972 12.566 0.972 12.566 0.218 -76.385
7687.25 0.216 -76.483 0.972 12.458 0.972 12.458 0.216 -76.483
7712.208 0.214 -76.58 0.973 12.352 0.973 12.352 0.214 -76.58
7737.167 0.212 -76.677 0.973 12.245 0.973 12.245 0.212 -76.677
7762.125 0.21 -76.773 0.974 12.139 0.974 12.139 0.21 -76.773
7787.083 0.209 -76.869 0.974 12.033 0.974 12.033 0.209 -76.869
7812.042 0.207 -76.965 0.974 11.928 0.974 11.928 0.207 -76.965
7837 0.205 -77.06 0.975 11.823 0.975 11.823 0.205 -77.06
7861.958 0.203 -77.154 0.975 11.718 0.975 11.718 0.203 -77.154
7886.917 0.201 -77.248 0.976 11.614 0.976 11.614 0.201 -77.248
7911.875 0.2 -77.341 0.976 11.51 0.976 11.51 0.2 -77.341
7936.833 0.198 -77.434 0.976 11.406 0.976 11.406 0.198 -77.434
7961.792 0.196 -77.526 0.977 11.303 0.977 11.303 0.196 -77.526
7986.75 0.194 -77.618 0.977 11.2 0.977 11.2 0.194 -77.618
8011.708 0.193 -77.709 0.977 11.098 0.977 11.098 0.193 -77.709
8036.667 0.191 -77.8 0.978 10.996 0.978 10.996 0.191 -77.8
8061.625 0.189 -77.891 0.978 10.894 0.978 10.894 0.189 -77.891
8086.583 0.187 -77.98 0.978 10.792 0.978 10.792 0.187 -77.98
8111.542 0.186 -78.069 0.979 10.691 0.979 10.691 0.186 -78.069
