# MHZ S MA R 50

50 1 -1.799 0.031 88.196 0.031 88.196 1 -1.799
74.958 0.999 -2.697 0.047 87.297 0.047 87.297 0.999 -2.697
99.917 0.998 -3.593 0.063 86.399 0.063 86.399 0.998 -3.593
124.875 0.997 -4.487 0.078 85.502 0.078 85.502 0.997 -4.487
149.833 0.996 -5.38 0.094 84.608 0.094 84.608 0.996 -5.38
174.792 0.994 -6.27 0.109 83.715 0.109 83.715 0.994 -6.27
199.75 0.992 -7.158 0.125 82.826 0.125 82.826 0.992 -7.158
224.708 0.99 -8.042 0.14 81.939 0.14 81.939 0.99 -8.042
249.667 0.988 -8.923 0.155 81.056 0.155 81.056 0.988 -8.923
274.625 0.985 -9.801 0.17 80.177 0.17 80.177 0.985 -9.801
299.583 0.983 -10.674 0.185 79.301 0.185 79.301 0.983 -10.674
324.542 0.98 -11.543 0.2 78.43 0.2 78.43 0.98 -11.543
349.5 0.977 -12.407 0.215 77.564 0.215 77.564 0.977 -12.407
374.458 0.973 -13.266 0.229 76.703 0.229 76.703 0.973 -13.266
399.417 0.97 -14.12 0.244 75.847 0.244 75.847 0.97 -14.12
424.375 0.966 -14.968 0.258 74.997 0.258 74.997 0.966 -14.968
449.333 0.962 -15.81 0.272 74.153 0.272 74.153 0.962 -15.81
474.292 0.958 -16.646 0.286 73.314 0.286 73.314 0.958 -16.646
499.25 0.954 -17.476 0.3 72.483 0.3 72.483 0.954 -17.476
524.208 0.949 -18.299 0.314 71.657 0.314 71.657 0.949 -18.299
549.167 0.945 -19.116 0.327 70.839 0.327 70.839 0.945 -19.116
574.125 0.94 -19.925 0.341 70.027 0.341 70.027 0.94 -19.925
599.083 0.935 -20.727 0.354 69.223 0.354 69.223 0.935 -20.727
624.042 0.93 -21.522 0.367 68.426 0.367 68.426 0.93 -21.522
649 0.925 -22.309 0.38 67.637 0.38 67.637 0.925 -22.309
673.958 0.92 -23.089 0.392 66.855 0.392 66.855 0.92 -23.089
698.917 0.914 -23.861 0.405 66.081 0.405 66.081 0.914 -23.861
723.875 0.909 -24.625 0.417 65.315 0.417 65.315 0.909 -24.625
748.833 0.903 -25.381 0.429 64.557 0.429 64.557 0.903 -25.381
773.792 0.897 -26.128 0.44 63.807 0.44 63.807 0.897 -26.128
798.75 0.892 -26.868 0.452 63.066 0.452 63.066 0.892 -26.868
823.708 0.886 -27.599 0.463 62.332 0.463 62.332 0.886 -27.599
848.667 0.88 -28.322 0.474 61.607 0.474 61.607 0.88 -28.322
873.625 0.874 -29.037 0.485 60.89 0.485 60.89 0.874 -29.037
898.583 0.868 -29.743 0.496 60.182 0.496 60.182 0.868 -29.743
923.542 0.861 -30.441 0.507 59.482 0.507 59.482 0.861 -30.441
948.5 0.855 -31.13 0.517 58.791 0.517 58.791 0.855 -31.13
973.458 0.849 -31.811 0.527 58.108 0.527 58.108 0.849 -31.811
998.417 0.843 -32.483 0.537 57.433 0.537 57.433 0.843 -32.483
1023.375 0.836 -33.147 0.547 56.767 0.547 56.767 0.836 -33.147
1048.333 0.83 -33.803 0.556 56.11 0.556 56.11 0.83 -33.803
1073.292 0.824 -34.45 0.566 55.46 0.566 55.46 0.824 -34.45
1098.25 0.817 -35.089 0.575 54.819 0.575 54.819 0.817 -35.089
1123.208 0.811 -35.719 0.584 54.187 0.584 54.187 0.811 -35.719
1148.167 0.805 -36.341 0.593 53.562 0.593 53.562 0.805 -36.341
1173.125 0.798 -36.955 0.601 52.946 0.601 52.946 0.798 -36.955
1198.083 0.792 -37.561 0.61 52.338 0.61 52.338 0.792 -37.561
1223.042 0.785 -38.158 0.618 51.739 0.618 51.739 0.785 -38.158
1248 0.779 -38.748 0.626 51.147 0.626 51.147 0.779 -38.748
1272.958 0.772 -39.329 0.634 50.563 0.634 50.563 0.772 -39.329
1297.917 0.766 -39.903 0.641 49.987 0.641 49.987 0.766 -39.903
1322.875 0.759 -40.469 0.649 49.419 0.649 49.419 0.759 -40.469
1347.833 0.753 -41.027 0.656 48.859 0.656 48.859 0.753 -41.027
1372.792 0.747 -41.577 0.664 48.307 0.664 48.307 0.747 -41.577
1397.75 0.74 -42.12 0.671 47.762 0.671 47.762 0.74 -42.12
1422.708 0.734 -42.655 0.678 47.224 0.678 47.224 0.734 -42.655
1447.667 0.728 -43.183 0.684 46.694 0.684 46.694 0.728 -43.183
1472.625 0.721 -43.704 0.691 46.171 0.691 46.171 0.721 -43.704
1497.583 0.715 -44.217 0.697 45.656 0.697 45.656 0.715 -44.217
1522.542 0.709 -44.723 0.704 45.147 0.704 45.147 0.709 -44.723
1547.5 0.703 -45.222 0.71 44.646 0.71 44.646 0.703 -45.222
1572.458 0.697 -45.714 0.716 44.151 0.716 44.151 0.697 -45.714
1597.417 0.69 -46.2 0.722 43.664 0.722 43.664 0.69 -46.2
1622.375 0.684 -46.678 0.728 43.183 0.728 43.183 0.684 -46.678
1647.333 0.678 -47.15 0.733 42.708 0.733 42.708 0.678 -47.15
1672.292 0.672 -47.616 0.739 42.241 0.739 42.241 0.672 -47.616
1697.25 0.666 -48.075 0.744 41.779 0.744 41.779 0.666 -48.075
1722.208 0.66 -48.527 0.749 41.324 0.749 41.324 0.66 -48.527
1747.167 0.654 -48.974 0.754 40.876 0.754 40.876 0.654 -48.974
1772.125 0.649 -49.414 0.759 40.433 0.759 40.433 0.649 -49.414
1797.083 0.643 -49.848 0.764 39.997 0.764 39.997 0.643 -49.848
1822.042 0.637 -50.276 0.769 39.566 0.769 39.566 0.637 -50.276
1847 0.631 -50.698 0.774 39.142 0.774 39.142 0.631 -50.698
1871.958 0.626 -51.115 0.778 38.723 0.778 38.723 0.626 -51.115
1896.917 0.62 -51.526 0.783 38.309 0.783 38.309 0.62 -51.526
1921.875 0.614 -51.931 0.787 37.902 0.787 37.902 0.614 -51.931
1946.833 0.609 -52.33 0.792 37.5 0.792 37.5 0.609 -52.33
1971.792 0.603 -52.725 0.796 37.103 0.796 37.103 0.603 -52.725
1996.75 0.598 -53.114 0.8 36.711 0.8 36.711 0.598 -53.114
2021.708 0.592 -53.497 0.804 36.325 0.804 36.325 0.592 -53.497
2046.667 0.587 -53.876 0.808 35.944 0.808 35.944 0.587 -53.876
2071.625 0.582 -54.25 0.812 35.568 0.812 35.568 0.582 -54.25
2096.583 0.576 -54.618 0.815 35.197 0.815 35.197 0.576 -54.618
2121.542 0.571 -54.982 0.819 34.831 0.819 34.831 0.571 -54.982
2146.5 0.566 -55.341 0.823 34.469 0.823 34.469 0.566 -55.341
2171.458 0.561 -55.695 0.826 34.112 0.826 34.112 0.561 -55.695
2196.417 0.556 -56.045 0.829 33.76 0.829 33.76 0.556 -56.045
2221.375 0.551 -56.39 0.833 33.413 0.833 33.413 0.551 -56.39
2246.333 0.546 -56.73 0.836 33.069 0.836 33.069 0.546 -56.73
2271.292 0.541 -57.066 0.839 32.731 0.839 32.731 0.541 -57.066
2296.25 0.536 -57.398 0.842 32.396 0.842 32.396 0.536 -57.398
2321.208 0.531 -57.726 0.846 32.066 0.846 32.066 0.531 -57.726
2346.167 0.526 -58.049 0.849 31.74 0.849 31.74 0.526 -58.049
2371.125 0.521 -58.369 0.851 31.418 0.851 31.418 0.521 -58.369
2396.083 0.517 -58.684 0.854 31.1 0.854 31.1 0.517 -58.684
2421.042 0.512 -58.995 0.857 30.786 0.857 30.786 0.512 -58.995
2446 0.507 -59.303 0.86 30.476 0.86 30.476 0.507 -59.303
2470.958 0.503 -59.606 0.863 30.169 0.863 30.169 0.503 -59.606
2495.917 0.498 -59.906 0.865 29.867 0.865 29.867 0.498 -59.906
2520.875 0.493 -60.203 0.868 29.568 0.868 29.568 0.493 -60.203
2545.833 0.489 -60.495 0.87 29.272 0.87 29.272 0.489 -60.495
2570.792 0.485 -60.784 0.873 28.98 0.873 28.98 0.485 -60.784
2595.75 0.48 -61.07 0.875 28.692 0.875 28.692 0.48 -61.07
2620.708 0.476 -61.352 0.878 28.407 0.878 28.407 0.476 -61.352
2645.667 0.471 -61.631 0.88 28.125 0.88 28.125 0.471 -61.631
2670.625 0.467 -61.906 0.882 27.847 0.882 27.847 0.467 -61.906
2695.583 0.463 -62.178 0.884 27.572 0.884 27.572 0.463 -62.178
2720.542 0.459 -62.447 0.887 27.3 0.887 27.3 0.459 -62.447
2745.5 0.454 -62.713 0.889 27.032 0.889 27.032 0.454 -62.713
2770.458 0.45 -62.976 0.891 26.766 0.891 26.766 0.45 -62.976
2795.417 0.446 -63.235 0.893 26.503 0.893 26.503 0.446 -63.235
2820.375 0.442 -63.492 0.895 26.244 0.895 26.244 0.442 -63.492
2845.333 0.438 -63.746 0.897 25.987 0.897 25.987 0.438 -63.746
2870.292 0.434 -63.997 0.899 25.733 0.899 25.733 0.434 -63.997
2895.25 0.43 -64.245 0.901 25.482 0.901 25.482 0.43 -64.245
2920.208 0.426 -64.49 0.903 25.233 0.903 25.233 0.426 -64.49
2945.167 0.422 -64.732 0.904 24.988 0.904 24.988 0.422 -64.732
2970.125 0.419 -64.972 0.906 24.745 0.906 24.745 0.419 -64.972
2995.083 0.415 -65.209 0.908 24.505 0.908 24.505 0.415 -65.209
3020.042 0.411 -65.444 0.91 24.267 0.91 24.267 0.411 -65.444
3045 0.407 -65.676 0.911 24.032 0.911 24.032 0.407 -65.676
3069.958 0.404 -65.905 0.913 23.799 0.913 23.799 0.404 -65.905
3094.917 0.4 -66.132 0.914 23.569 0.914 23.569 0.4 -66.132
3119.875 0.396 -66.357 0.916 23.341 0.916 23.341 0.396 -66.357
3144.833 0.393 -66.579 0.918 23.116 0.918 23.116 0.393 -66.579
3169.792 0.389 -66.799 0.919 22.893 0.919 22.893 0.389 -66.799
3194.75 0.385 -67.016 0.921 22.672 0.921 22.672 0.385 -67.016
3219.708 0.382 -67.231 0.922 22.453 0.922 22.453 0.382 -67.231
3244.667 0.378 -67.444 0.924 22.237 0.924 22.237 0.378 -67.444
3269.625 0.375 -67.655 0.925 22.023 0.925 22.023 0.375 -67.655
3294.583 0.372 -67.863 0.926 21.811 0.926 21.811 0.372 -67.863
3319.542 0.368 -68.07 0.928 21.601 0.928 21.601 0.368 -68.07
3344.5 0.365 -68.274 0.929 21.393 0.929 21.393 0.365 -68.274
3369.458 0.361 -68.476 0.93 21.188 0.93 21.188 0.361 -68.476
3394.417 0.358 -68.676 0.932 20.984 0.932 20.984 0.358 -68.676
3419.375 0.355 -68.874 0.933 20.782 0.933 20.782 0.355 -68.874
3444.333 0.352 -69.071 0.934 20.582 0.934 20.582 0.352 -69.071
3469.292 0.348 -69.265 0.935 20.384 0.935 20.384 0.348 -69.265
3494.25 0.345 -69.457 0.936 20.188 0.936 20.188 0.345 -69.457
3519.208 0.342 -69.648 0.938 19.994 0.938 19.994 0.342 -69.648
3544.167 0.339 -69.836 0.939 19.802 0.939 19.802 0.339 -69.836
3569.125 0.336 -70.023 0.94 19.611 0.94 19.611 0.336 -70.023
3594.083 0.333 -70.208 0.941 19.422 0.941 19.422 0.333 -70.208
3619.042 0.329 -70.391 0.942 19.235 0.942 19.235 0.329 -70.391
3644 0.326 -70.572 0.943 19.05 0.943 19.05 0.326 -70.572
3668.958 0.323 -70.752 0.944 18.866 0.944 18.866 0.323 -70.752
3693.917 0.32 -70.93 0.945 18.684 0.945 18.684 0.32 -70.93
3718.875 0.317 -71.107 0.946 18.504 0.946 18.504 0.317 -71.107
3743.833 0.314 -71.281 0.947 18.325 0.947 18.325 0.314 -71.281
3768.792 0.311 -71.454 0.948 18.148 0.948 18.148 0.311 -71.454
3793.75 0.309 -71.626 0.949 17.972 0.949 17.972 0.309 -71.626
3818.708 0.306 -71.796 0.95 17.798 0.95 17.798 0.306 -71.796
3843.667 0.303 -71.964 0.951 17.626 0.951 17.626 0.303 -71.964
3868.625 0.3 -72.131 0.952 17.454 0.952 17.454 0.3 -72.131
3893.583 0.297 -72.296 0.953 17.285 0.953 17.285 0.297 -72.296
3918.542 0.294 -72.46 0.954 17.117 0.954 17.117 0.294 -72.46
3943.5 0.292 -72.622 0.954 16.95 0.954 16.95 0.292 -72.622
3968.458 0.289 -72.783 0.955 16.784 0.955 16.784 0.289 -72.783
3993.417 0.286 -72.943 0.956 16.62 0.956 16.62 0.286 -72.943
4018.375 0.283 -73.101 0.957 16.458 0.957 16.458 0.283 -73.101
4043.333 0.281 -73.258 0.958 16.296 0.958 16.296 0.281 -73.258
4068.292 0.278 -73.413 0.958 16.136 0.958 16.136 0.278 -73.413
4093.25 0.275 -73.567 0.959 15.978 0.959 15.978 0.275 -73.567
4118.208 0.273 -73.72 0.96 15.82 0.96 15.82 0.273 -73.72
4143.167 0.27 -73.871 0.961 15.664 0.961 15.664 0.27 -73.871
4168.125 0.267 -74.021 0.961 15.509 0.961 15.509 0.267 -74.021
4193.083 0.265 -74.17 0.962 15.355 0.962 15.355 0.265 -74.17
4218.042 0.262 -74.317 0.963 15.203 0.963 15.203 0.262 -74.317
4243 0.26 -74.464 0.963 15.052 0.963 15.052 0.26 -74.464
4267.958 0.257 -74.609 0.964 14.901 0.964 14.901 0.257 -74.609
4292.917 0.255 -74.752 0.965 14.752 0.965 14.752 0.255 -74.752
4317.875 0.252 -74.895 0.965 14.605 0.965 14.605 0.252 -74.895
4342.833 0.25 -75.037 0.966 14.458 0.966 14.458 0.25 -75.037
4367.792 0.247 -75.177 0.967 14.312 0.967 14.312 0.247 -75.177
4392.75 0.245 -75.316 0.967 14.168 0.967 14.168 0.245 -75.316
4417.708 0.242 -75.454 0.968 14.024 0.968 14.024 0.242 -75.454
4442.667 0.24 -75.591 0.969 13.882 0.969 13.882 0.24 -75.591
4467.625 0.238 -75.726 0.969 13.74 0.969 13.74 0.238 -75.726
4492.583 0.235 -75.861 0.97 13.6 0.97 13.6 0.235 -75.861
4517.542 0.233 -75.995 0.97 13.461 0.97 13.461 0.233 -75.995
4542.5 0.23 -76.127 0.971 13.323 0.971 13.323 0.23 -76.127
4567.458 0.228 -76.258 0.971 13.185 0.971 13.185 0.228 -76.258
4592.417 0.226 -76.389 0.972 13.049 0.972 13.049 0.226 -76.389
4617.375 0.223 -76.518 0.972 12.913 0.972 12.913 0.223 -76.518
4642.333 0.221 -76.646 0.973 12.779 0.973 12.779 0.221 -76.646
4667.292 0.219 -76.773 0.974 12.645 0.974 12.645 0.219 -76.773
4692.25 0.217 -76.9 0.974 12.513 0.974 12.513 0.217 -76.9
4717.208 0.214 -77.025 0.975 12.381 0.975 12.381 0.214 -77.025
4742.167 0.212 -77.149 0.975 12.25 0.975 12.25 0.212 -77.149
4767.125 0.21 -77.272 0.975 12.121 0.975 12.121 0.21 -77.272
4792.083 0.208 -77.395 0.976 11.992 0.976 11.992 0.208 -77.395
4817.042 0.206 -77.516 0.976 11.863 0.976 11.863 0.206 -77.516
4842 0.203 -77.636 0.977 11.736 0.977 11.736 0.203 -77.636
4866.958 0.201 -77.756 0.977 11.61 0.977 11.61 0.201 -77.756
4891.917 0.199 -77.874 0.978 11.484 0.978 11.484 0.199 -77.874
4916.875 0.197 -77.992 0.978 11.359 0.978 11.359 0.197 -77.992
4941.833 0.195 -78.109 0.979 11.235 0.979 11.235 0.195 -78.109
4966.792 0.193 -78.224 0.979 11.112 0.979 11.112 0.193 -78.224
4991.75 0.191 -78.339 0.979 10.99 0.979 10.99 0.191 -78.339
5016.708 0.189 -78.453 0.98 10.868 0.98 10.868 0.189 -78.453
5041.667 0.186 -78.566 0.98 10.747 0.98 10.747 0.186 -78.566
5066.625 0.184 -78.678 0.981 10.627 0.981 10.627 0.184 -78.678
5091.583 0.182 -78.79 0.981 10.508 0.981 10.508 0.182 -78.79
5116.542 0.18 -78.9 0.981 10.389 0.981 10.389 0.18 -78.9
5141.5 0.178 -79.01 0.982 10.271 0.982 10.271 0.178 -79.01
5166.458 0.176 -79.118 0.982 10.154 0.982 10.154 0.176 -79.118
5191.417 0.174 -79.226 0.982 10.037 0.982 10.037 0.174 -79.226
5216.375 0.172 -79.333 0.983 9.922 0.983 9.922 0.172 -79.333
5241.333 0.17 -79.439 0.983 9.807 0.983 9.807 0.17 -79.439
5266.292 0.168 -79.545 0.983 9.692 0.983 9.692 0.168 -79.545
5291.25 0.166 -79.649 0.984 9.578 0.984 9.578 0.166 -79.649
5316.208 0.164 -79.753 0.984 9.465 0.984 9.465 0.164 -79.753
5341.167 0.163 -79.856 0.984 9.353 0.984 9.353 0.163 -79.856
5366.125 0.161 -79.958 0.985 9.241 0.985 9.241 0.161 -79.958
5391.083 0.159 -80.059 0.985 9.13 0.985 9.13 0.159 -80.059
5416.042 0.157 -80.159 0.985 9.02 0.985 9.02 0.157 -80.159
5441 0.155 -80.259 0.986 8.91 0.986 8.91 0.155 -80.259
5465.958 0.153 -80.357 0.986 8.801 0.986 8.801 0.153 -80.357
5490.917 0.151 -80.455 0.986 8.692 0.986 8.692 0.151 -80.455
5515.875 0.149 -80.552 0.987 8.584 0.987 8.584 0.149 -80.552
5540.833 0.147 -80.649 0.987 8.477 0.987 8.477 0.147 -80.649
5565.792 0.146 -80.744 0.987 8.37 0.987 8.37 0.146 -80.744
5590.75 0.144 -80.839 0.987 8.264 0.987 8.264 0.144 -80.839
5615.708 0.142 -80.933 0.988 8.158 0.988 8.158 0.142 -80.933
5640.667 0.14 -81.026 0.988 8.053 0.988 8.053 0.14 -81.026
5665.625 0.138 -81.118 0.988 7.949 0.988 7.949 0.138 -81.118
5690.583 0.137 -81.209 0.988 7.845 0.988 7.845 0.137 -81.209
5715.542 0.135 -81.3 0.989 7.741 0.989 7.741 0.135 -81.3
5740.5 0.133 -81.39 0.989 7.638 0.989 7.638 0.133 -81.39
5765.458 0.131 -81.479 0.989 7.536 0.989 7.536 0.131 -81.479
5790.417 0.129 -81.567 0.989 7.434 0.989 7.434 0.129 -81.567
5815.375 0.128 -81.654 0.99 7.333 0.99 7.333 0.128 -81.654
5840.333 0.126 -81.74 0.99 7.232 0.99 7.232 0.126 -81.74
5865.292 0.124 -81.826 0.99 7.132 0.99 7.132 0.124 -81.826
5890.25 0.122 -81.911 0.99 7.033 0.99 7.033 0.122 -81.911
5915.208 0.121 -81.995 0.99 6.933 0.99 6.933 0.121 -81.995
5940.167 0.119 -82.078 0.991 6.835 0.991 6.835 0.119 -82.078
5965.125 0.117 -82.16 0.991 6.737 0.991 6.737 0.117 -82.16
5990.083 0.116 -82.241 0.991 6.639 0.991 6.639 0.116 -82.241
6015.042 0.114 -82.322 0.991 6.542 0.991 6.542 0.114 -82.322
6040 0.112 -82.401 0.991 6.445 0.991 6.445 0.112 -82.401
6064.958 0.111 -82.48 0.992 6.349 0.992 6.349 0.111 -82.48
6089.917 0.109 -82.558 0.992 6.253 0.992 6.253 0.109 -82.558
6114.875 0.107 -82.634 0.992 6.157 0.992 6.157 0.107 -82.634
6139.833 0.106 -82.71 0.992 6.062 0.992 6.062 0.106 -82.71
6164.792 0.104 -82.785 0.992 5.968 0.992 5.968 0.104 -82.785
6189.75 0.102 -82.859 0.992 5.874 0.992 5.874 0.102 -82.859
6214.708 0.101 -82.932 0.993 5.78 0.993 5.78 0.101 -82.932
6239.667 0.099 -83.004 0.993 5.687 0.993 5.687 0.099 -83.004
6264.625 0.098 -83.075 0.993 5.595 0.993 5.595 0.098 -83.075
6289.583 0.096 -83.145 0.993 5.502 0.993 5.502 0.096 -83.145
6314.542 0.094 -83.213 0.993 5.411 0.993 5.411 0.094 -83.213
6339.5 0.093 -83.281 0.993 5.319 0.993 5.319 0.093 -83.281
6364.458 0.091 -83.347 0.994 5.228 0.994 5.228 0.091 -83.347
6389.417 0.09 -83.413 0.994 5.138 0.994 5.138 0.09 -83.413
6414.375 0.088 -83.477 0.994 5.047 0.994 5.047 0.088 -83.477
6439.333 0.086 -83.54 0.994 4.958 0.994 4.958 0.086 -83.54
6464.292 0.085 -83.602 0.994 4.868 0.994 4.868 0.085 -83.602
6489.25 0.083 -83.662 0.994 4.779 0.994 4.779 0.083 -83.662
6514.208 0.082 -83.721 0.994 4.691 0.994 4.691 0.082 -83.721
6539.167 0.08 -83.779 0.995 4.602 0.995 4.602 0.08 -83.779
6564.125 0.079 -83.835 0.995 4.515 0.995 4.515 0.079 -83.835
6589.083 0.077 -83.89 0.995 4.427 0.995 4.427 0.077 -83.89
6614.042 0.076 -83.943 0.995 4.34 0.995 4.34 0.076 -83.943
6639 0.074 -83.994 0.995 4.253 0.995 4.253 0.074 -83.994
6663.958 0.073 -84.044 0.995 4.167 0.995 4.167 0.073 -84.044
6688.917 0.071 -84.093 0.995 4.081 0.995 4.081 0.071 -84.093
6713.875 0.07 -84.139 0.995 3.995 0.995 3.995 0.07 -84.139
6738.833 0.068 -84.183 0.995 3.91 0.995 3.91 0.068 -84.183
6763.792 0.067 -84.226 0.996 3.825 0.996 3.825 0.067 -84.226
6788.75 0.065 -84.266 0.996 3.74 0.996 3.74 0.065 -84.266
6813.708 0.064 -84.305 0.996 3.656 0.996 3.656 0.064 -84.305
6838.667 0.062 -84.34 0.996 3.572 0.996 3.572 0.062 -84.34
6863.625 0.061 -84.374 0.996 3.489 0.996 3.489 0.061 -84.374
6888.583 0.059 -84.405 0.996 3.406 0.996 3.406 0.059 -84.405
6913.542 0.058 -84.433 0.996 3.323 0.996 3.323 0.058 -84.433
6938.5 0.057 -84.458 0.996 3.24 0.996 3.24 0.057 -84.458
6963.458 0.055 -84.481 0.996 3.158 0.996 3.158 0.055 -84.481
6988.417 0.054 -84.5 0.996 3.076 0.996 3.076 0.054 -84.5
7013.375 0.052 -84.515 0.996 2.994 0.996 2.994 0.052 -84.515
7038.333 0.051 -84.527 0.996 2.913 0.996 2.913 0.051 -84.527
7063.292 0.049 -84.535 0.997 2.832 0.997 2.832 0.049 -84.535
7088.25 0.048 -84.538 0.997 2.751 0.997 2.751 0.048 -84.538
7113.208 0.047 -84.537 0.997 2.671 0.997 2.671 0.047 -84.537
7138.167 0.045 -84.531 0.997 2.591 0.997 2.591 0.045 -84.531
7163.125 0.044 -84.519 0.997 2.511 0.997 2.511 0.044 -84.519
7188.083 0.042 -84.502 0.997 2.432 0.997 2.432 0.042 -84.502
7213.042 0.041 -84.478 0.997 2.353 0.997 2.353 0.041 -84.478
7238 0.04 -84.447 0.997 2.274 0.997 2.274 0.04 -84.447
7262.958 0.038 -84.408 0.997 2.195 0.997 2.195 0.038 -84.408
7287.917 0.037 -84.361 0.997 2.117 0.997 2.117 0.037 -84.361
7312.875 0.036 -84.304 0.997 2.039 0.997 2.039 0.036 -84.304
7337.833 0.034 -84.237 0.997 1.961 0.997 1.961 0.034 -84.237
7362.792 0.033 -84.159 0.997 1.884 0.997 1.884 0.033 -84.159
7387.75 0.032 -84.068 0.997 1.807 0.997 1.807 0.032 -84.068
7412.708 0.03 -83.962 0.997 1.73 0.997 1.73 0.03 -83.962
7437.667 0.029 -83.839 0.997 1.653 0.997 1.653 0.029 -83.839
7462.625 0.028 -83.698 0.997 1.577 0.997 1.577 0.028 -83.698
7487.583 0.026 -83.536 0.997 1.501 0.997 1.501 0.026 -83.536
7512.542 0.025 -83.349 0.997 1.425 0.997 1.425 0.025 -83.349
7537.5 0.024 -83.133 0.997 1.349 0.997 1.349 0.024 -83.133
7562.458 0.022 -82.884 0.997 1.274 0.997 1.274 0.022 -82.884
7587.417 0.021 -82.597 0.998 1.199 0.998 1.199 0.021 -82.597
7612.375 0.02 -82.262 0.998 1.124 0.998 1.124 0.02 -82.262
7637.333 0.018 -81.871 0.998 1.05 0.998 1.05 0.018 -81.871
7662.292 0.017 -81.413 0.998 0.975 0.998 0.975 0.017 -81.413
7687.25 0.016 -80.869 0.998 0.901 0.998 0.901 0.016 -80.869
7712.208 0.015 -80.221 0.998 0.828 0.998 0.828 0.015 -80.221
7737.167 0.013 -79.437 0.998 0.754 0.998 0.754 0.013 -79.437
7762.125 0.012 -78.478 0.998 0.681 0.998 0.681 0.012 -78.478
7787.083 0.011 -77.284 0.998 0.608 0.998 0.608 0.011 -77.284
7812.042 9.607e-3 -75.767 0.998 0.535 0.998 0.535 9.607e-3 -75.767
7837 8.382e-3 -73.788 0.998 0.462 0.998 0.462 8.382e-3 -73.788
7861.958 7.175e-3 -71.122 0.998 0.39 0.998 0.39 7.175e-3 -71.122
7886.917 5.994e-3 -67.376 0.998 0.318 0.998 0.318 5.994e-3 -67.376
7911.875 4.857e-3 -61.821 0.998 0.246 0.998 0.246 4.857e-3 -61.821
7936.833 3.797e-3 -53.018 0.998 0.174 0.998 0.174 3.797e-3 -53.018
7961.792 2.897e-3 -38.148 0.998 0.103 0.998 0.103 2.897e-3 -38.148
7986.75 2.341e-3 -13.578 0.998 0.032 0.998 0.032 2.341e-3 -13.578
8011.708 2.377e-3 16.788 0.998 -0.039 0.998 -0.039 2.377e-3 16.788
8036.667 2.979e-3 40.098 0.998 -0.11 0.998 -0.11 2.979e-3 40.098
8061.625 3.889e-3 54.018 0.998 -0.181 0.998 -0.181 3.889e-3 54.018
8086.583 4.937e-3 62.31 0.998 -0.251 0.998 -0.251 4.937e-3 62.31
8111.542 6.05e-3 67.588 0.998 -0.321 0.998 -0.321 6.05e-3 67.588
8136.5 7.195e-3 71.175 0.998 -0.391 0.998 -0.391 7.195e-3 71.175
8161.458 8.358e-3 73.743 0.998 -0.461 0.998 -0.461 8.358e-3 73.743
