# MHZ S MA R 50

50 0.662 -48.546 0.749 41.447 0.749 41.447 0.662 -48.546
74.958 0.507 -59.526 0.862 30.464 0.862 30.464 0.507 -59.526
99.917 0.403 -66.218 0.915 23.767 0.915 23.767 0.403 -66.218
124.875 0.332 -70.619 0.943 19.363 0.943 19.363 0.332 -70.619
149.833 0.28 -73.703 0.96 16.276 0.96 16.276 0.28 -73.703
174.792 0.242 -75.975 0.97 14 0.97 14 0.242 -75.975
199.75 0.212 -77.716 0.977 12.255 0.977 12.255 0.212 -77.716
224.708 0.189 -79.092 0.982 10.875 0.982 10.875 0.189 -79.092
249.667 0.169 -80.207 0.985 9.756 0.985 9.756 0.169 -80.207
274.625 0.154 -81.129 0.988 8.83 0.988 8.83 0.154 -81.129
299.583 0.14 -81.906 0.99 8.049 0.99 8.049 0.14 -81.906
324.542 0.128 -82.569 0.992 7.382 0.992 7.382 0.128 -82.569
349.5 0.118 -83.142 0.993 6.805 0.993 6.805 0.118 -83.142
374.458 0.11 -83.644 0.994 6.299 0.994 6.299 0.11 -83.644
399.417 0.102 -84.086 0.995 5.852 0.995 5.852 0.102 -84.086
424.375 0.095 -84.48 0.995 5.454 0.995 5.454 0.095 -84.48
449.333 0.089 -84.833 0.996 5.096 0.996 5.096 0.089 -84.833
474.292 0.083 -85.152 0.996 4.773 0.996 4.773 0.083 -85.152
499.25 0.078 -85.441 0.997 4.478 0.997 4.478 0.078 -85.441
524.208 0.073 -85.705 0.997 4.209 0.997 4.209 0.073 -85.705
549.167 0.069 -85.947 0.998 3.962 0.998 3.962 0.069 -85.947
574.125 0.065 -86.171 0.998 3.733 0.998 3.733 0.065 -86.171
599.083 0.061 -86.377 0.998 3.521 0.998 3.521 0.061 -86.377
624.042 0.058 -86.568 0.998 3.323 0.998 3.323 0.058 -86.568
649 0.055 -86.747 0.998 3.138 0.998 3.138 0.055 -86.747
673.958 0.052 -86.913 0.999 2.965 0.999 2.965 0.052 -86.913
698.917 0.049 -87.069 0.999 2.802 0.999 2.802 0.049 -87.069
723.875 0.046 -87.216 0.999 2.648 0.999 2.648 0.046 -87.216
748.833 0.044 -87.353 0.999 2.502 0.999 2.502 0.044 -87.353
773.792 0.041 -87.483 0.999 2.364 0.999 2.364 0.041 -87.483
798.75 0.039 -87.605 0.999 2.233 0.999 2.233 0.039 -87.605
823.708 0.037 -87.721 0.999 2.108 0.999 2.108 0.037 -87.721
848.667 0.035 -87.83 0.999 1.988 0.999 1.988 0.035 -87.83
873.625 0.033 -87.933 0.999 1.874 0.999 1.874 0.033 -87.933
898.583 0.031 -88.031 0.999 1.764 0.999 1.764 0.031 -88.031
923.542 0.029 -88.124 0.999 1.659 0.999 1.659 0.029 -88.124
948.5 0.027 -88.211 1 1.557 1 1.557 0.027 -88.211
973.458 0.025 -88.293 1 1.46 1 1.46 0.025 -88.293
998.417 0.024 -88.37 1 1.365 1 1.365 0.024 -88.37
1023.375 0.022 -88.442 1 1.274 1 1.274 0.022 -88.442
1048.333 0.021 -88.509 1 1.186 1 1.186 0.021 -88.509
1073.292 0.019 -88.571 1 1.101 1 1.101 0.019 -88.571
1098.25 0.018 -88.627 1 1.018 1 1.018 0.018 -88.627
1123.208 0.016 -88.677 1 0.937 1 0.937 0.016 -88.677
1148.167 0.015 -88.72 1 0.859 1 0.859 0.015 -88.72
1173.125 0.014 -88.756 1 0.783 1 0.783 0.014 -88.756
1198.083 0.012 -88.782 1 0.709 1 0.709 0.012 -88.782
1223.042 0.011 -88.796 1 0.636 1 0.636 0.011 -88.796
1248 9.873e-3 -88.796 1 0.566 1 0.566 9.873e-3 -88.796
1272.958 8.667e-3 -88.776 1 0.497 1 0.497 8.667e-3 -88.776
1297.917 7.489e-3 -88.729 1 0.429 1 0.429 7.489e-3 -88.729
1322.875 6.336e-3 -88.642 1 0.363 1 0.363 6.336e-3 -88.642
1347.833 5.206e-3 -88.491 1 0.298 1 0.298 5.206e-3 -88.491
1372.792 4.099e-3 -88.227 1 0.235 1 0.235 4.099e-3 -88.227
1397.75 3.014e-3 -87.735 1 0.173 1 0.173 3.014e-3 -87.735
1422.708 1.949e-3 -86.652 1 0.112 1 0.112 1.949e-3 -86.652
1447.667 906.4e-6 -82.975 1 0.052 1 0.052 906.4e-6 -82.975
1472.625 169.4e-6 49.465 1 -7.375e-3 1 -7.375e-3 169.4e-6 49.465
1497.583 1.145e-3 84.42 1 -0.065 1 -0.065 1.145e-3 84.42
1522.542 2.138e-3 86.927 1 -0.122 1 -0.122 2.138e-3 86.927
1547.5 3.116e-3 87.798 1 -0.178 1 -0.178 3.116e-3 87.798
1572.458 4.08e-3 88.221 1 -0.234 1 -0.234 4.08e-3 88.221
1597.417 5.03e-3 88.458 1 -0.288 1 -0.288 5.03e-3 88.458
1622.375 5.966e-3 88.601 1 -0.342 1 -0.342 5.966e-3 88.601
1647.333 6.889e-3 88.69 1 -0.395 1 -0.395 6.889e-3 88.69
1672.292 7.801e-3 88.745 1 -0.447 1 -0.447 7.801e-3 88.745
1697.25 8.7e-3 88.777 1 -0.498 1 -0.498 8.7e-3 88.777
1722.208 9.588e-3 88.793 1 -0.549 1 -0.549 9.588e-3 88.793
1747.167 0.01 88.798 1 -0.6 1 -0.6 0.01 88.798
1772.125 0.011 88.794 1 -0.649 1 -0.649 0.011 88.794
1797.083 0.012 88.784 1 -0.698 1 -0.698 0.012 88.784
1822.042 0.013 88.769 1 -0.747 1 -0.747 0.013 88.769
1847 0.014 88.751 1 -0.795 1 -0.795 0.014 88.751
1871.958 0.015 88.729 1 -0.843 1 -0.843 0.015 88.729
1896.917 0.016 88.704 1 -0.89 1 -0.89 0.016 88.704
1921.875 0.016 88.678 1 -0.936 1 -0.936 0.016 88.678
1946.833 0.017 88.65 1 -0.982 1 -0.982 0.017 88.65
1971.792 0.018 88.621 1 -1.028 1 -1.028 0.018 88.621
1996.75 0.019 88.59 1 -1.073 1 -1.073 0.019 88.59
2021.708 0.02 88.559 1 -1.118 1 -1.118 0.02 88.559
2046.667 0.02 88.526 1 -1.163 1 -1.163 0.02 88.526
2071.625 0.021 88.494 1 -1.207 1 -1.207 0.021 88.494
2096.583 0.022 88.46 1 -1.251 1 -1.251 0.022 88.46
2121.542 0.023 88.427 1 -1.294 1 -1.294 0.023 88.427
2146.5 0.023 88.392 1 -1.337 1 -1.337 0.023 88.392
2171.458 0.024 88.358 1 -1.38 1 -1.38 0.024 88.358
2196.417 0.025 88.323 1 -1.423 1 -1.423 0.025 88.323
2221.375 0.026 88.288 1 -1.465 1 -1.465 0.026 88.288
2246.333 0.026 88.253 1 -1.507 1 -1.507 0.026 88.253
2271.292 0.027 88.218 1 -1.549 1 -1.549 0.027 88.218
2296.25 0.028 88.183 1 -1.59 1 -1.59 0.028 88.183
2321.208 0.028 88.148 0.999 -1.631 0.999 -1.631 0.028 88.148
2346.167 0.029 88.112 0.999 -1.672 0.999 -1.672 0.029 88.112
2371.125 0.03 88.077 0.999 -1.712 0.999 -1.712 0.03 88.077
2396.083 0.031 88.041 0.999 -1.753 0.999 -1.753 0.031 88.041
2421.042 0.031 88.006 0.999 -1.793 0.999 -1.793 0.031 88.006
2446 0.032 87.97 0.999 -1.833 0.999 -1.833 0.032 87.97
2470.958 0.033 87.935 0.999 -1.873 0.999 -1.873 0.033 87.935
2495.917 0.033 87.899 0.999 -1.912 0.999 -1.912 0.033 87.899
2520.875 0.034 87.864 0.999 -1.951 0.999 -1.951 0.034 87.864
2545.833 0.035 87.828 0.999 -1.99 0.999 -1.99 0.035 87.828
2570.792 0.035 87.793 0.999 -2.029 0.999 -2.029 0.035 87.793
2595.75 0.036 87.757 0.999 -2.068 0.999 -2.068 0.036 87.757
2620.708 0.037 87.722 0.999 -2.106 0.999 -2.106 0.037 87.722
2645.667 0.037 87.687 0.999 -2.145 0.999 -2.145 0.037 87.687
2670.625 0.038 87.652 0.999 -2.183 0.999 -2.183 0.038 87.652
2695.583 0.039 87.616 0.999 -2.221 0.999 -2.221 0.039 87.616
2720.542 0.039 87.581 0.999 -2.259 0.999 -2.259 0.039 87.581
2745.5 0.04 87.546 0.999 -2.296 0.999 -2.296 0.04 87.546
2770.458 0.041 87.511 0.999 -2.334 0.999 -2.334 0.041 87.511
2795.417 0.041 87.476 0.999 -2.371 0.999 -2.371 0.041 87.476
2820.375 0.042 87.441 0.999 -2.409 0.999 -2.409 0.042 87.441
2845.333 0.043 87.407 0.999 -2.446 0.999 -2.446 0.043 87.407
2870.292 0.043 87.372 0.999 -2.483 0.999 -2.483 0.043 87.372
2895.25 0.044 87.337 0.999 -2.519 0.999 -2.519 0.044 87.337
2920.208 0.045 87.303 0.999 -2.556 0.999 -2.556 0.045 87.303
2945.167 0.045 87.268 0.999 -2.593 0.999 -2.593 0.045 87.268
2970.125 0.046 87.234 0.999 -2.629 0.999 -2.629 0.046 87.234
2995.083 0.047 87.199 0.999 -2.665 0.999 -2.665 0.047 87.199
3020.042 0.047 87.165 0.999 -2.702 0.999 -2.702 0.047 87.165
3045 0.048 87.13 0.999 -2.738 0.999 -2.738 0.048 87.13
3069.958 0.048 87.096 0.999 -2.774 0.999 -2.774 0.048 87.096
3094.917 0.049 87.062 0.999 -2.809 0.999 -2.809 0.049 87.062
3119.875 0.05 87.028 0.999 -2.845 0.999 -2.845 0.05 87.028
3144.833 0.05 86.994 0.999 -2.881 0.999 -2.881 0.05 86.994
3169.792 0.051 86.96 0.999 -2.916 0.999 -2.916 0.051 86.96
3194.75 0.051 86.926 0.999 -2.952 0.999 -2.952 0.051 86.926
3219.708 0.052 86.892 0.999 -2.987 0.999 -2.987 0.052 86.892
3244.667 0.053 86.858 0.998 -3.022 0.998 -3.022 0.053 86.858
3269.625 0.053 86.824 0.998 -3.057 0.998 -3.057 0.053 86.824
3294.583 0.054 86.791 0.998 -3.092 0.998 -3.092 0.054 86.791
3319.542 0.055 86.757 0.998 -3.127 0.998 -3.127 0.055 86.757
3344.5 0.055 86.724 0.998 -3.162 0.998 -3.162 0.055 86.724
3369.458 0.056 86.69 0.998 -3.197 0.998 -3.197 0.056 86.69
3394.417 0.056 86.657 0.998 -3.232 0.998 -3.232 0.056 86.657
3419.375 0.057 86.623 0.998 -3.266 0.998 -3.266 0.057 86.623
3444.333 0.058 86.59 0.998 -3.301 0.998 -3.301 0.058 86.59
3469.292 0.058 86.556 0.998 -3.335 0.998 -3.335 0.058 86.556
3494.25 0.059 86.523 0.998 -3.37 0.998 -3.37 0.059 86.523
3519.208 0.059 86.49 0.998 -3.404 0.998 -3.404 0.059 86.49
3544.167 0.06 86.457 0.998 -3.438 0.998 -3.438 0.06 86.457
3569.125 0.061 86.424 0.998 -3.472 0.998 -3.472 0.061 86.424
3594.083 0.061 86.391 0.998 -3.506 0.998 -3.506 0.061 86.391
3619.042 0.062 86.358 0.998 -3.54 0.998 -3.54 0.062 86.358
3644 0.062 86.325 0.998 -3.574 0.998 -3.574 0.062 86.325
3668.958 0.063 86.292 0.998 -3.608 0.998 -3.608 0.063 86.292
3693.917 0.064 86.259 0.998 -3.642 0.998 -3.642 0.064 86.259
3718.875 0.064 86.226 0.998 -3.676 0.998 -3.676 0.064 86.226
3743.833 0.065 86.193 0.998 -3.709 0.998 -3.709 0.065 86.193
3768.792 0.065 86.16 0.998 -3.743 0.998 -3.743 0.065 86.16
3793.75 0.066 86.128 0.998 -3.777 0.998 -3.777 0.066 86.128
3818.708 0.066 86.095 0.998 -3.81 0.998 -3.81 0.066 86.095
3843.667 0.067 86.063 0.998 -3.844 0.998 -3.844 0.067 86.063
3868.625 0.068 86.03 0.998 -3.877 0.998 -3.877 0.068 86.03
3893.583 0.068 85.997 0.998 -3.91 0.998 -3.91 0.068 85.997
3918.542 0.069 85.965 0.998 -3.944 0.998 -3.944 0.069 85.965
3943.5 0.069 85.933 0.997 -3.977 0.997 -3.977 0.069 85.933
3968.458 0.07 85.9 0.997 -4.01 0.997 -4.01 0.07 85.9
3993.417 0.071 85.868 0.997 -4.043 0.997 -4.043 0.071 85.868
4018.375 0.071 85.835 0.997 -4.076 0.997 -4.076 0.071 85.835
4043.333 0.072 85.803 0.997 -4.109 0.997 -4.109 0.072 85.803
4068.292 0.072 85.771 0.997 -4.142 0.997 -4.142 0.072 85.771
4093.25 0.073 85.739 0.997 -4.175 0.997 -4.175 0.073 85.739
4118.208 0.073 85.707 0.997 -4.208 0.997 -4.208 0.073 85.707
4143.167 0.074 85.674 0.997 -4.241 0.997 -4.241 0.074 85.674
4168.125 0.075 85.642 0.997 -4.273 0.997 -4.273 0.075 85.642
4193.083 0.075 85.61 0.997 -4.306 0.997 -4.306 0.075 85.61
4218.042 0.076 85.578 0.997 -4.339 0.997 -4.339 0.076 85.578
4243 0.076 85.546 0.997 -4.371 0.997 -4.371 0.076 85.546
4267.958 0.077 85.514 0.997 -4.404 0.997 -4.404 0.077 85.514
4292.917 0.077 85.482 0.997 -4.436 0.997 -4.436 0.077 85.482
4317.875 0.078 85.45 0.997 -4.469 0.997 -4.469 0.078 85.45
4342.833 0.078 85.419 0.997 -4.501 0.997 -4.501 0.078 85.419
4367.792 0.079 85.387 0.997 -4.534 0.997 -4.534 0.079 85.387
4392.75 0.08 85.355 0.997 -4.566 0.997 -4.566 0.08 85.355
4417.708 0.08 85.323 0.997 -4.598 0.997 -4.598 0.08 85.323
4442.667 0.081 85.291 0.997 -4.631 0.997 -4.631 0.081 85.291
4467.625 0.081 85.26 0.997 -4.663 0.997 -4.663 0.081 85.26
4492.583 0.082 85.228 0.997 -4.695 0.997 -4.695 0.082 85.228
4517.542 0.082 85.196 0.996 -4.727 0.996 -4.727 0.082 85.196
4542.5 0.083 85.165 0.996 -4.759 0.996 -4.759 0.083 85.165
4567.458 0.084 85.133 0.996 -4.792 0.996 -4.792 0.084 85.133
4592.417 0.084 85.102 0.996 -4.824 0.996 -4.824 0.084 85.102
4617.375 0.085 85.07 0.996 -4.856 0.996 -4.856 0.085 85.07
4642.333 0.085 85.039 0.996 -4.888 0.996 -4.888 0.085 85.039
4667.292 0.086 85.007 0.996 -4.92 0.996 -4.92 0.086 85.007
4692.25 0.086 84.976 0.996 -4.951 0.996 -4.951 0.086 84.976
4717.208 0.087 84.944 0.996 -4.983 0.996 -4.983 0.087 84.944
4742.167 0.087 84.913 0.996 -5.015 0.996 -5.015 0.087 84.913
4767.125 0.088 84.882 0.996 -5.047 0.996 -5.047 0.088 84.882
4792.083 0.089 84.85 0.996 -5.079 0.996 -5.079 0.089 84.85
4817.042 0.089 84.819 0.996 -5.111 0.996 -5.111 0.089 84.819
4842 0.09 84.788 0.996 -5.142 0.996 -5.142 0.09 84.788
4866.958 0.09 84.756 0.996 -5.174 0.996 -5.174 0.09 84.756
4891.917 0.091 84.725 0.996 -5.206 0.996 -5.206 0.091 84.725
4916.875 0.091 84.694 0.996 -5.237 0.996 -5.237 0.091 84.694
4941.833 0.092 84.663 0.996 -5.269 0.996 -5.269 0.092 84.663
4966.792 0.092 84.631 0.996 -5.301 0.996 -5.301 0.092 84.631
4991.75 0.093 84.6 0.996 -5.332 0.996 -5.332 0.093 84.6
5016.708 0.093 84.569 0.996 -5.364 0.996 -5.364 0.093 84.569
5041.667 0.094 84.538 0.995 -5.395 0.995 -5.395 0.094 84.538
5066.625 0.095 84.507 0.995 -5.427 0.995 -5.427 0.095 84.507
5091.583 0.095 84.476 0.995 -5.458 0.995 -5.458 0.095 84.476
5116.542 0.096 84.445 0.995 -5.489 0.995 -5.489 0.096 84.445
5141.5 0.096 84.414 0.995 -5.521 0.995 -5.521 0.096 84.414
5166.458 0.097 84.383 0.995 -5.552 0.995 -5.552 0.097 84.383
5191.417 0.097 84.352 0.995 -5.583 0.995 -5.583 0.097 84.352
5216.375 0.098 84.321 0.995 -5.615 0.995 -5.615 0.098 84.321
5241.333 0.098 84.29 0.995 -5.646 0.995 -5.646 0.098 84.29
5266.292 0.099 84.259 0.995 -5.677 0.995 -5.677 0.099 84.259
5291.25 0.099 84.228 0.995 -5.709 0.995 -5.709 0.099 84.228
5316.208 0.1 84.197 0.995 -5.74 0.995 -5.74 0.1 84.197
5341.167 0.101 84.167 0.995 -5.771 0.995 -5.771 0.101 84.167
5366.125 0.101 84.136 0.995 -5.802 0.995 -5.802 0.101 84.136
5391.083 0.102 84.105 0.995 -5.833 0.995 -5.833 0.102 84.105
5416.042 0.102 84.074 0.995 -5.864 0.995 -5.864 0.102 84.074
5441 0.103 84.043 0.995 -5.895 0.995 -5.895 0.103 84.043
5465.958 0.103 84.013 0.995 -5.927 0.995 -5.927 0.103 84.013
5490.917 0.104 83.982 0.994 -5.958 0.994 -5.958 0.104 83.982
5515.875 0.104 83.951 0.994 -5.989 0.994 -5.989 0.104 83.951
5540.833 0.105 83.921 0.994 -6.02 0.994 -6.02 0.105 83.921
5565.792 0.105 83.89 0.994 -6.051 0.994 -6.051 0.105 83.89
5590.75 0.106 83.859 0.994 -6.082 0.994 -6.082 0.106 83.859
5615.708 0.106 83.829 0.994 -6.112 0.994 -6.112 0.106 83.829
5640.667 0.107 83.798 0.994 -6.143 0.994 -6.143 0.107 83.798
5665.625 0.108 83.767 0.994 -6.174 0.994 -6.174 0.108 83.767
5690.583 0.108 83.737 0.994 -6.205 0.994 -6.205 0.108 83.737
5715.542 0.109 83.706 0.994 -6.236 0.994 -6.236 0.109 83.706
5740.5 0.109 83.676 0.994 -6.267 0.994 -6.267 0.109 83.676
5765.458 0.11 83.645 0.994 -6.298 0.994 -6.298 0.11 83.645
5790.417 0.11 83.615 0.994 -6.328 0.994 -6.328 0.11 83.615
5815.375 0.111 83.584 0.994 -6.359 0.994 -6.359 0.111 83.584
5840.333 0.111 83.554 0.994 -6.39 0.994 -6.39 0.111 83.554
5865.292 0.112 83.523 0.994 -6.421 0.994 -6.421 0.112 83.523
5890.25 0.112 83.493 0.994 -6.451 0.994 -6.451 0.112 83.493
5915.208 0.113 83.462 0.993 -6.482 0.993 -6.482 0.113 83.462
5940.167 0.113 83.432 0.993 -6.513 0.993 -6.513 0.113 83.432
5965.125 0.114 83.402 0.993 -6.543 0.993 -6.543 0.114 83.402
5990.083 0.114 83.371 0.993 -6.574 0.993 -6.574 0.114 83.371
6015.042 0.115 83.341 0.993 -6.605 0.993 -6.605 0.115 83.341
6040 0.116 83.311 0.993 -6.635 0.993 -6.635 0.116 83.311
6064.958 0.116 83.28 0.993 -6.666 0.993 -6.666 0.116 83.28
6089.917 0.117 83.25 0.993 -6.696 0.993 -6.696 0.117 83.25
6114.875 0.117 83.22 0.993 -6.727 0.993 -6.727 0.117 83.22
6139.833 0.118 83.189 0.993 -6.757 0.993 -6.757 0.118 83.189
6164.792 0.118 83.159 0.993 -6.788 0.993 -6.788 0.118 83.159
6189.75 0.119 83.129 0.993 -6.818 0.993 -6.818 0.119 83.129
6214.708 0.119 83.098 0.993 -6.849 0.993 -6.849 0.119 83.098
6239.667 0.12 83.068 0.993 -6.879 0.993 -6.879 0.12 83.068
6264.625 0.12 83.038 0.993 -6.91 0.993 -6.91 0.12 83.038
6289.583 0.121 83.008 0.993 -6.94 0.993 -6.94 0.121 83.008
6314.542 0.121 82.978 0.992 -6.971 0.992 -6.971 0.121 82.978
6339.5 0.122 82.947 0.992 -7.001 0.992 -7.001 0.122 82.947
6364.458 0.122 82.917 0.992 -7.032 0.992 -7.032 0.122 82.917
6389.417 0.123 82.887 0.992 -7.062 0.992 -7.062 0.123 82.887
6414.375 0.123 82.857 0.992 -7.092 0.992 -7.092 0.123 82.857
6439.333 0.124 82.827 0.992 -7.123 0.992 -7.123 0.124 82.827
6464.292 0.125 82.797 0.992 -7.153 0.992 -7.153 0.125 82.797
6489.25 0.125 82.767 0.992 -7.183 0.992 -7.183 0.125 82.767
6514.208 0.126 82.737 0.992 -7.213 0.992 -7.213 0.126 82.737
6539.167 0.126 82.707 0.992 -7.244 0.992 -7.244 0.126 82.707
6564.125 0.127 82.677 0.992 -7.274 0.992 -7.274 0.127 82.677
6589.083 0.127 82.647 0.992 -7.304 0.992 -7.304 0.127 82.647
6614.042 0.128 82.617 0.992 -7.334 0.992 -7.334 0.128 82.617
6639 0.128 82.587 0.992 -7.365 0.992 -7.365 0.128 82.587
6663.958 0.129 82.557 0.992 -7.395 0.992 -7.395 0.129 82.557
6688.917 0.129 82.527 0.992 -7.425 0.992 -7.425 0.129 82.527
6713.875 0.13 82.497 0.991 -7.455 0.991 -7.455 0.13 82.497
6738.833 0.13 82.467 0.991 -7.485 0.991 -7.485 0.13 82.467
6763.792 0.131 82.437 0.991 -7.515 0.991 -7.515 0.131 82.437
6788.75 0.131 82.407 0.991 -7.546 0.991 -7.546 0.131 82.407
6813.708 0.132 82.377 0.991 -7.576 0.991 -7.576 0.132 82.377
6838.667 0.132 82.347 0.991 -7.606 0.991 -7.606 0.132 82.347
6863.625 0.133 82.317 0.991 -7.636 0.991 -7.636 0.133 82.317
6888.583 0.133 82.287 0.991 -7.666 0.991 -7.666 0.133 82.287
6913.542 0.134 82.257 0.991 -7.696 0.991 -7.696 0.134 82.257
6938.5 0.134 82.227 0.991 -7.726 0.991 -7.726 0.134 82.227
6963.458 0.135 82.198 0.991 -7.756 0.991 -7.756 0.135 82.198
6988.417 0.135 82.168 0.991 -7.786 0.991 -7.786 0.135 82.168
7013.375 0.136 82.138 0.991 -7.816 0.991 -7.816 0.136 82.138
7038.333 0.137 82.108 0.991 -7.846 0.991 -7.846 0.137 82.108
7063.292 0.137 82.078 0.99 -7.876 0.99 -7.876 0.137 82.078
7088.25 0.138 82.049 0.99 -7.906 0.99 -7.906 0.138 82.049
7113.208 0.138 82.019 0.99 -7.936 0.99 -7.936 0.138 82.019
7138.167 0.139 81.989 0.99 -7.966 0.99 -7.966 0.139 81.989
7163.125 0.139 81.959 0.99 -7.996 0.99 -7.996 0.139 81.959
7188.083 0.14 81.929 0.99 -8.026 0.99 -8.026 0.14 81.929
7213.042 0.14 81.9 0.99 -8.056 0.99 -8.056 0.14 81.9
7238 0.141 81.87 0.99 -8.086 0.99 -8.086 0.141 81.87
7262.958 0.141 81.84 0.99 -8.115 0.99 -8.115 0.141 81.84
7287.917 0.142 81.811 0.99 -8.145 0.99 -8.145 0.142 81.811
7312.875 0.142 81.781 0.99 -8.175 0.99 -8.175 0.142 81.781
7337.833 0.143 81.751 0.99 -8.205 0.99 -8.205 0.143 81.751
7362.792 0.143 81.722 0.99 -8.235 0.99 -8.235 0.143 81.722
7387.75 0.144 81.692 0.99 -8.265 0.99 -8.265 0.144 81.692
7412.708 0.144 81.662 0.989 -8.294 0.989 -8.294 0.144 81.662
7437.667 0.145 81.633 0.989 -8.324 0.989 -8.324 0.145 81.633
7462.625 0.145 81.603 0.989 -8.354 0.989 -8.354 0.145 81.603
7487.583 0.146 81.573 0.989 -8.384 0.989 -8.384 0.146 81.573
7512.542 0.146 81.544 0.989 -8.413 0.989 -8.413 0.146 81.544
7537.5 0.147 81.514 0.989 -8.443 0.989 -8.443 0.147 81.514
7562.458 0.147 81.485 0.989 -8.473 0.989 -8.473 0.147 81.485
7587.417 0.148 81.455 0.989 -8.503 0.989 -8.503 0.148 81.455
7612.375 0.148 81.426 0.989 -8.532 0.989 -8.532 0.148 81.426
7637.333 0.149 81.396 0.989 -8.562 0.989 -8.562 0.149 81.396
7662.292 0.149 81.367 0.989 -8.592 0.989 -8.592 0.149 81.367
7687.25 0.15 81.337 0.989 -8.621 0.989 -8.621 0.15 81.337
7712.208 0.15 81.308 0.989 -8.651 0.989 -8.651 0.15 81.308
7737.167 0.151 81.278 0.988 -8.681 0.988 -8.681 0.151 81.278
7762.125 0.151 81.249 0.988 -8.71 0.988 -8.71 0.151 81.249
7787.083 0.152 81.219 0.988 -8.74 0.988 -8.74 0.152 81.219
7812.042 0.152 81.19 0.988 -8.77 0.988 -8.77 0.152 81.19
7837 0.153 81.16 0.988 -8.799 0.988 -8.799 0.153 81.16
7861.958 0.153 81.131 0.988 -8.829 0.988 -8.829 0.153 81.131
7886.917 0.154 81.101 0.988 -8.858 0.988 -8.858 0.154 81.101
7911.875 0.155 81.072 0.988 -8.888 0.988 -8.888 0.155 81.072
7936.833 0.155 81.042 0.988 -8.917 0.988 -8.917 0.155 81.042
7961.792 0.156 81.013 0.988 -8.947 0.988 -8.947 0.156 81.013
7986.75 0.156 80.984 0.988 -8.976 0.988 -8.976 0.156 80.984
8011.708 0.157 80.954 0.988 -9.006 0.988 -9.006 0.157 80.954
8036.667 0.157 80.925 0.987 -9.036 0.987 -9.036 0.157 80.925
8061.625 0.158 80.895 0.987 -9.065 0.987 -9.065 0.158 80.895
8086.583 0.158 80.866 0.987 -9.095 0.987 -9.095 0.158 80.866
8111.542 0.159 80.837 0.987 -9.124 0.987 -9.124 0.159 80.837
8136.5 0.159 80.807 0.987 -9.153 0.987 -9.153 0.159 80.807
8161.458 0.16 80.778 0.987 -9.183 0.987 -9.183 0.16 80.778
8186.417 0.16 80.749 0.987 -9.212 0.987 -9.212 0.16 80.749
8211.375 0.161 80.719 0.987 -9.242 0.987 -9.242 0.161 80.719
8236.333 0.161 80.69 0.987 -9.271 0.987 -9.271 0.161 80.69
8261.292 0.162 80.661 0.987 -9.301 0.987 -9.301 0.162 80.661
8286.25 0.162 80.632 0.987 -9.33 0.987 -9.33 0.162 80.632
8311.208 0.163 80.602 0.987 -9.359 0.987 -9.359 0.163 80.602
8336.167 0.163 80.573 0.986 -9.389 0.986 -9.389 0.163 80.573
8361.125 0.164 80.544 0.986 -9.418 0.986 -9.418 0.164 80.544
8386.083 0.164 80.514 0.986 -9.448 0.986 -9.448 0.164 80.514
8411.042 0.165 80.485 0.986 -9.477 0.986 -9.477 0.165 80.485
8436 0.165 80.456 0.986 -9.506 0.986 -9.506 0.165 80.456
8460.958 0.166 80.427 0.986 -9.536 0.986 -9.536 0.166 80.427
