# MHZ S MA R 50

50 0.999 -2.968 0.052 87.028 0.052 87.028 0.999 -2.968
74.958 0.997 -4.444 0.077 85.549 0.077 85.549 0.997 -4.444
99.917 0.995 -5.915 0.103 84.076 0.103 84.076 0.995 -5.915
124.875 0.992 -7.379 0.128 82.61 0.128 82.61 0.992 -7.379
149.833 0.988 -8.834 0.154 81.153 0.154 81.153 0.988 -8.834
174.792 0.984 -10.278 0.178 79.707 0.178 79.707 0.984 -10.278
199.75 0.979 -11.711 0.203 78.272 0.203 78.272 0.979 -11.711
224.708 0.974 -13.129 0.227 76.852 0.227 76.852 0.974 -13.129
249.667 0.968 -14.532 0.251 75.446 0.251 75.446 0.968 -14.532
274.625 0.962 -15.919 0.274 74.057 0.274 74.057 0.962 -15.919
299.583 0.955 -17.289 0.297 72.686 0.297 72.686 0.955 -17.289
324.542 0.947 -18.639 0.32 71.333 0.32 71.333 0.947 -18.639
349.5 0.94 -19.97 0.342 70 0.342 70 0.94 -19.97
374.458 0.932 -21.281 0.363 68.687 0.363 68.687 0.932 -21.281
399.417 0.923 -22.57 0.384 67.395 0.384 67.395 0.923 -22.57
424.375 0.914 -23.838 0.404 66.126 0.404 66.126 0.914 -23.838
449.333 0.905 -25.083 0.424 64.879 0.424 64.879 0.905 -25.083
474.292 0.896 -26.305 0.443 63.654 0.443 63.654 0.896 -26.305
499.25 0.887 -27.504 0.462 62.453 0.462 62.453 0.887 -27.504
524.208 0.877 -28.679 0.48 61.276 0.48 61.276 0.877 -28.679
549.167 0.867 -29.831 0.497 60.122 0.497 60.122 0.867 -29.831
574.125 0.857 -30.959 0.514 58.992 0.514 58.992 0.857 -30.959
599.083 0.847 -32.063 0.531 57.885 0.531 57.885 0.847 -32.063
624.042 0.837 -33.144 0.547 56.803 0.547 56.803 0.837 -33.144
649 0.827 -34.2 0.562 55.744 0.562 55.744 0.827 -34.2
673.958 0.816 -35.233 0.577 54.709 0.577 54.709 0.816 -35.233
698.917 0.806 -36.243 0.591 53.696 0.591 53.696 0.806 -36.243
723.875 0.796 -37.23 0.605 52.707 0.605 52.707 0.796 -37.23
748.833 0.785 -38.194 0.618 51.741 0.618 51.741 0.785 -38.194
773.792 0.775 -39.136 0.631 50.797 0.631 50.797 0.775 -39.136
798.75 0.765 -40.056 0.644 49.875 0.644 49.875 0.765 -40.056
823.708 0.754 -40.954 0.655 48.975 0.655 48.975 0.754 -40.954
848.667 0.744 -41.831 0.667 48.096 0.667 48.096 0.744 -41.831
873.625 0.734 -42.687 0.678 47.237 0.678 47.237 0.734 -42.687
898.583 0.724 -43.522 0.689 46.4 0.689 46.4 0.724 -43.522
923.542 0.714 -44.338 0.699 45.582 0.699 45.582 0.714 -44.338
948.5 0.704 -45.134 0.709 44.783 0.709 44.783 0.704 -45.134
973.458 0.695 -45.911 0.718 44.004 0.718 44.004 0.695 -45.911
998.417 0.685 -46.67 0.727 43.243 0.727 43.243 0.685 -46.67
1023.375 0.676 -47.41 0.736 42.501 0.736 42.501 0.676 -47.41
1048.333 0.666 -48.133 0.745 41.776 0.745 41.776 0.666 -48.133
1073.292 0.657 -48.838 0.753 41.068 0.753 41.068 0.657 -48.838
1098.25 0.648 -49.527 0.761 40.377 0.761 40.377 0.648 -49.527
1123.208 0.639 -50.2 0.768 39.702 0.768 39.702 0.639 -50.2
1148.167 0.63 -50.856 0.776 39.043 0.776 39.043 0.63 -50.856
1173.125 0.621 -51.498 0.783 38.399 0.783 38.399 0.621 -51.498
1198.083 0.613 -52.124 0.789 37.771 0.789 37.771 0.613 -52.124
1223.042 0.604 -52.735 0.796 37.157 0.796 37.157 0.604 -52.735
1248 0.596 -53.333 0.802 36.557 0.802 36.557 0.596 -53.333
1272.958 0.587 -53.917 0.808 35.97 0.808 35.97 0.587 -53.917
1297.917 0.579 -54.487 0.814 35.397 0.814 35.397 0.579 -54.487
1322.875 0.571 -55.045 0.82 34.837 0.82 34.837 0.571 -55.045
1347.833 0.563 -55.59 0.825 34.29 0.825 34.29 0.563 -55.59
1372.792 0.556 -56.123 0.83 33.755 0.83 33.755 0.556 -56.123
1397.75 0.548 -56.644 0.835 33.231 0.835 33.231 0.548 -56.644
1422.708 0.541 -57.153 0.84 32.72 0.84 32.72 0.541 -57.153
1447.667 0.533 -57.651 0.845 32.219 0.845 32.219 0.533 -57.651
1472.625 0.526 -58.139 0.849 31.729 0.849 31.729 0.526 -58.139
1497.583 0.519 -58.616 0.854 31.25 0.854 31.25 0.519 -58.616
1522.542 0.512 -59.082 0.858 30.78 0.858 30.78 0.512 -59.082
1547.5 0.505 -59.539 0.862 30.321 0.862 30.321 0.505 -59.539
1572.458 0.498 -59.986 0.866 29.871 0.866 29.871 0.498 -59.986
1597.417 0.491 -60.424 0.87 29.431 0.87 29.431 0.491 -60.424
1622.375 0.485 -60.853 0.873 29 0.873 29 0.485 -60.853
1647.333 0.478 -61.273 0.877 28.577 0.877 28.577 0.478 -61.273
1672.292 0.472 -61.684 0.88 28.163 0.88 28.163 0.472 -61.684
1697.25 0.466 -62.087 0.884 27.758 0.884 27.758 0.466 -62.087
1722.208 0.46 -62.482 0.887 27.36 0.887 27.36 0.46 -62.482
1747.167 0.454 -62.869 0.89 26.97 0.89 26.97 0.454 -62.869
1772.125 0.448 -63.249 0.893 26.588 0.893 26.588 0.448 -63.249
1797.083 0.442 -63.621 0.896 26.213 0.896 26.213 0.442 -63.621
1822.042 0.436 -63.986 0.899 25.845 0.899 25.845 0.436 -63.986
1847 0.43 -64.344 0.901 25.485 0.901 25.485 0.43 -64.344
1871.958 0.425 -64.695 0.904 25.131 0.904 25.131 0.425 -64.695
1896.917 0.419 -65.039 0.907 24.783 0.907 24.783 0.419 -65.039
1921.875 0.414 -65.378 0.909 24.442 0.909 24.442 0.414 -65.378
1946.833 0.408 -65.71 0.911 24.108 0.911 24.108 0.408 -65.71
1971.792 0.403 -66.035 0.914 23.779 0.914 23.779 0.403 -66.035
1996.75 0.398 -66.355 0.916 23.456 0.916 23.456 0.398 -66.355
2021.708 0.393 -66.67 0.918 23.139 0.918 23.139 0.393 -66.67
2046.667 0.388 -66.978 0.92 22.827 0.92 22.827 0.388 -66.978
2071.625 0.383 -67.281 0.922 22.521 0.922 22.521 0.383 -67.281
2096.583 0.378 -67.579 0.924 22.22 0.924 22.22 0.378 -67.579
2121.542 0.373 -67.872 0.926 21.925 0.926 21.925 0.373 -67.872
2146.5 0.369 -68.16 0.928 21.634 0.928 21.634 0.369 -68.16
2171.458 0.364 -68.443 0.93 21.348 0.93 21.348 0.364 -68.443
2196.417 0.359 -68.721 0.932 21.067 0.932 21.067 0.359 -68.721
2221.375 0.355 -68.994 0.934 20.79 0.934 20.79 0.355 -68.994
2246.333 0.351 -69.263 0.935 20.518 0.935 20.518 0.351 -69.263
2271.292 0.346 -69.528 0.937 20.25 0.937 20.25 0.346 -69.528
2296.25 0.342 -69.788 0.938 19.987 0.938 19.987 0.342 -69.788
2321.208 0.338 -70.044 0.94 19.728 0.94 19.728 0.338 -70.044
2346.167 0.333 -70.296 0.941 19.472 0.941 19.472 0.333 -70.296
2371.125 0.329 -70.544 0.943 19.221 0.943 19.221 0.329 -70.544
2396.083 0.325 -70.789 0.944 18.973 0.944 18.973 0.325 -70.789
2421.042 0.321 -71.029 0.946 18.73 0.946 18.73 0.321 -71.029
2446 0.317 -71.266 0.947 18.49 0.947 18.49 0.317 -71.266
2470.958 0.313 -71.499 0.948 18.253 0.948 18.253 0.313 -71.499
2495.917 0.309 -71.728 0.95 18.02 0.95 18.02 0.309 -71.728
2520.875 0.306 -71.955 0.951 17.79 0.951 17.79 0.306 -71.955
2545.833 0.302 -72.177 0.952 17.564 0.952 17.564 0.302 -72.177
2570.792 0.298 -72.397 0.953 17.341 0.953 17.341 0.298 -72.397
2595.75 0.294 -72.613 0.954 17.121 0.954 17.121 0.294 -72.613
2620.708 0.291 -72.827 0.955 16.904 0.955 16.904 0.291 -72.827
2645.667 0.287 -73.037 0.957 16.69 0.957 16.69 0.287 -73.037
2670.625 0.284 -73.244 0.958 16.479 0.958 16.479 0.284 -73.244
2695.583 0.28 -73.449 0.959 16.271 0.959 16.271 0.28 -73.449
2720.542 0.277 -73.65 0.96 16.066 0.96 16.066 0.277 -73.65
2745.5 0.273 -73.849 0.961 15.863 0.961 15.863 0.273 -73.849
2770.458 0.27 -74.045 0.961 15.663 0.961 15.663 0.27 -74.045
2795.417 0.267 -74.238 0.962 15.466 0.962 15.466 0.267 -74.238
2820.375 0.263 -74.429 0.963 15.271 0.963 15.271 0.263 -74.429
2845.333 0.26 -74.617 0.964 15.079 0.964 15.079 0.26 -74.617
2870.292 0.257 -74.803 0.965 14.889 0.965 14.889 0.257 -74.803
2895.25 0.254 -74.986 0.966 14.702 0.966 14.702 0.254 -74.986
2920.208 0.251 -75.167 0.967 14.517 0.967 14.517 0.251 -75.167
2945.167 0.248 -75.346 0.967 14.334 0.967 14.334 0.248 -75.346
2970.125 0.245 -75.522 0.968 14.154 0.968 14.154 0.245 -75.522
2995.083 0.242 -75.696 0.969 13.975 0.969 13.975 0.242 -75.696
3020.042 0.239 -75.868 0.97 13.799 0.97 13.799 0.239 -75.868
3045 0.236 -76.038 0.97 13.625 0.97 13.625 0.236 -76.038
3069.958 0.233 -76.205 0.971 13.453 0.971 13.453 0.233 -76.205
3094.917 0.23 -76.371 0.972 13.283 0.972 13.283 0.23 -76.371
3119.875 0.227 -76.534 0.973 13.115 0.973 13.115 0.227 -76.534
3144.833 0.224 -76.696 0.973 12.948 0.973 12.948 0.224 -76.696
3169.792 0.221 -76.855 0.974 12.784 0.974 12.784 0.221 -76.855
3194.75 0.219 -77.013 0.974 12.622 0.974 12.622 0.219 -77.013
3219.708 0.216 -77.169 0.975 12.461 0.975 12.461 0.216 -77.169
3244.667 0.213 -77.323 0.976 12.302 0.976 12.302 0.213 -77.323
3269.625 0.21 -77.475 0.976 12.145 0.976 12.145 0.21 -77.475
3294.583 0.208 -77.625 0.977 11.989 0.977 11.989 0.208 -77.625
3319.542 0.205 -77.774 0.977 11.835 0.977 11.835 0.205 -77.774
3344.5 0.203 -77.921 0.978 11.683 0.978 11.683 0.203 -77.921
3369.458 0.2 -78.066 0.978 11.533 0.978 11.533 0.2 -78.066
3394.417 0.197 -78.21 0.979 11.384 0.979 11.384 0.197 -78.21
3419.375 0.195 -78.352 0.979 11.236 0.979 11.236 0.195 -78.352
3444.333 0.192 -78.492 0.98 11.09 0.98 11.09 0.192 -78.492
3469.292 0.19 -78.631 0.98 10.946 0.98 10.946 0.19 -78.631
3494.25 0.187 -78.768 0.981 10.803 0.981 10.803 0.187 -78.768
3519.208 0.185 -78.904 0.981 10.661 0.981 10.661 0.185 -78.904
3544.167 0.183 -79.039 0.982 10.521 0.982 10.521 0.183 -79.039
3569.125 0.18 -79.171 0.982 10.382 0.982 10.382 0.18 -79.171
3594.083 0.178 -79.303 0.983 10.244 0.983 10.244 0.178 -79.303
3619.042 0.176 -79.433 0.983 10.108 0.983 10.108 0.176 -79.433
3644 0.173 -79.561 0.983 9.973 0.983 9.973 0.173 -79.561
3668.958 0.171 -79.689 0.984 9.839 0.984 9.839 0.171 -79.689
3693.917 0.169 -79.815 0.984 9.707 0.984 9.707 0.169 -79.815
3718.875 0.166 -79.939 0.985 9.576 0.985 9.576 0.166 -79.939
3743.833 0.164 -80.062 0.985 9.446 0.985 9.446 0.164 -80.062
3768.792 0.162 -80.184 0.985 9.317 0.985 9.317 0.162 -80.184
3793.75 0.16 -80.305 0.986 9.189 0.986 9.189 0.16 -80.305
3818.708 0.158 -80.424 0.986 9.063 0.986 9.063 0.158 -80.424
3843.667 0.155 -80.542 0.986 8.937 0.986 8.937 0.155 -80.542
3868.625 0.153 -80.659 0.987 8.813 0.987 8.813 0.153 -80.659
3893.583 0.151 -80.775 0.987 8.69 0.987 8.69 0.151 -80.775
3918.542 0.149 -80.889 0.987 8.568 0.987 8.568 0.149 -80.889
3943.5 0.147 -81.002 0.988 8.447 0.988 8.447 0.147 -81.002
3968.458 0.145 -81.114 0.988 8.326 0.988 8.326 0.145 -81.114
3993.417 0.143 -81.225 0.988 8.207 0.988 8.207 0.143 -81.225
4018.375 0.141 -81.335 0.989 8.089 0.989 8.089 0.141 -81.335
4043.333 0.139 -81.444 0.989 7.972 0.989 7.972 0.139 -81.444
4068.292 0.137 -81.551 0.989 7.856 0.989 7.856 0.137 -81.551
4093.25 0.135 -81.657 0.989 7.74 0.989 7.74 0.135 -81.657
4118.208 0.133 -81.763 0.99 7.626 0.99 7.626 0.133 -81.763
4143.167 0.131 -81.867 0.99 7.513 0.99 7.513 0.131 -81.867
4168.125 0.129 -81.97 0.99 7.4 0.99 7.4 0.129 -81.97
4193.083 0.127 -82.072 0.991 7.288 0.991 7.288 0.127 -82.072
4218.042 0.125 -82.173 0.991 7.178 0.991 7.178 0.125 -82.173
4243 0.123 -82.272 0.991 7.068 0.991 7.068 0.123 -82.272
4267.958 0.121 -82.371 0.991 6.959 0.991 6.959 0.121 -82.371
4292.917 0.119 -82.469 0.991 6.85 0.991 6.85 0.119 -82.469
4317.875 0.117 -82.565 0.992 6.743 0.992 6.743 0.117 -82.565
4342.833 0.116 -82.661 0.992 6.636 0.992 6.636 0.116 -82.661
4367.792 0.114 -82.755 0.992 6.53 0.992 6.53 0.114 -82.755
4392.75 0.112 -82.848 0.992 6.425 0.992 6.425 0.112 -82.848
4417.708 0.11 -82.941 0.993 6.321 0.993 6.321 0.11 -82.941
4442.667 0.108 -83.032 0.993 6.217 0.993 6.217 0.108 -83.032
4467.625 0.107 -83.122 0.993 6.114 0.993 6.114 0.107 -83.122
4492.583 0.105 -83.211 0.993 6.012 0.993 6.012 0.105 -83.211
4517.542 0.103 -83.299 0.993 5.91 0.993 5.91 0.103 -83.299
4542.5 0.101 -83.386 0.993 5.81 0.993 5.81 0.101 -83.386
4567.458 0.099 -83.472 0.994 5.709 0.994 5.709 0.099 -83.472
4592.417 0.098 -83.557 0.994 5.61 0.994 5.61 0.098 -83.557
4617.375 0.096 -83.641 0.994 5.511 0.994 5.511 0.096 -83.641
4642.333 0.094 -83.723 0.994 5.413 0.994 5.413 0.094 -83.723
4667.292 0.093 -83.805 0.994 5.316 0.994 5.316 0.093 -83.805
4692.25 0.091 -83.885 0.994 5.219 0.994 5.219 0.091 -83.885
4717.208 0.089 -83.964 0.995 5.123 0.995 5.123 0.089 -83.964
4742.167 0.088 -84.043 0.995 5.027 0.995 5.027 0.088 -84.043
4767.125 0.086 -84.119 0.995 4.932 0.995 4.932 0.086 -84.119
4792.083 0.084 -84.195 0.995 4.838 0.995 4.838 0.084 -84.195
4817.042 0.083 -84.27 0.995 4.744 0.995 4.744 0.083 -84.27
4842 0.081 -84.343 0.995 4.651 0.995 4.651 0.081 -84.343
4866.958 0.079 -84.415 0.995 4.559 0.995 4.559 0.079 -84.415
4891.917 0.078 -84.486 0.996 4.467 0.996 4.467 0.078 -84.486
4916.875 0.076 -84.555 0.996 4.375 0.996 4.375 0.076 -84.555
4941.833 0.075 -84.624 0.996 4.284 0.996 4.284 0.075 -84.624
4966.792 0.073 -84.69 0.996 4.194 0.996 4.194 0.073 -84.69
4991.75 0.072 -84.756 0.996 4.104 0.996 4.104 0.072 -84.756
5016.708 0.07 -84.819 0.996 4.015 0.996 4.015 0.07 -84.819
5041.667 0.068 -84.882 0.996 3.926 0.996 3.926 0.068 -84.882
5066.625 0.067 -84.942 0.996 3.838 0.996 3.838 0.067 -84.942
5091.583 0.065 -85.002 0.996 3.75 0.996 3.75 0.065 -85.002
5116.542 0.064 -85.059 0.997 3.663 0.997 3.663 0.064 -85.059
5141.5 0.062 -85.115 0.997 3.576 0.997 3.576 0.062 -85.115
5166.458 0.061 -85.169 0.997 3.49 0.997 3.49 0.061 -85.169
5191.417 0.059 -85.22 0.997 3.404 0.997 3.404 0.059 -85.22
5216.375 0.058 -85.27 0.997 3.319 0.997 3.319 0.058 -85.27
5241.333 0.056 -85.318 0.997 3.234 0.997 3.234 0.056 -85.318
5266.292 0.055 -85.364 0.997 3.15 0.997 3.15 0.055 -85.364
5291.25 0.054 -85.407 0.997 3.066 0.997 3.066 0.054 -85.407
5316.208 0.052 -85.447 0.997 2.982 0.997 2.982 0.052 -85.447
5341.167 0.051 -85.485 0.997 2.899 0.997 2.899 0.051 -85.485
5366.125 0.049 -85.52 0.997 2.817 0.997 2.817 0.049 -85.52
5391.083 0.048 -85.553 0.997 2.735 0.997 2.735 0.048 -85.553
5416.042 0.046 -85.582 0.998 2.653 0.998 2.653 0.046 -85.582
5441 0.045 -85.607 0.998 2.572 0.998 2.572 0.045 -85.607
5465.958 0.043 -85.629 0.998 2.491 0.998 2.491 0.043 -85.629
5490.917 0.042 -85.646 0.998 2.41 0.998 2.41 0.042 -85.646
5515.875 0.041 -85.66 0.998 2.33 0.998 2.33 0.041 -85.66
5540.833 0.039 -85.668 0.998 2.25 0.998 2.25 0.039 -85.668
5565.792 0.038 -85.671 0.998 2.171 0.998 2.171 0.038 -85.671
5590.75 0.037 -85.669 0.998 2.092 0.998 2.092 0.037 -85.669
5615.708 0.035 -85.66 0.998 2.014 0.998 2.014 0.035 -85.66
5640.667 0.034 -85.644 0.998 1.936 0.998 1.936 0.034 -85.644
5665.625 0.032 -85.621 0.998 1.858 0.998 1.858 0.032 -85.621
5690.583 0.031 -85.589 0.998 1.781 0.998 1.781 0.031 -85.589
5715.542 0.03 -85.547 0.998 1.704 0.998 1.704 0.03 -85.547
5740.5 0.028 -85.494 0.998 1.627 0.998 1.627 0.028 -85.494
5765.458 0.027 -85.429 0.998 1.551 0.998 1.551 0.027 -85.429
5790.417 0.026 -85.35 0.998 1.475 0.998 1.475 0.026 -85.35
5815.375 0.024 -85.254 0.998 1.399 0.998 1.399 0.024 -85.254
5840.333 0.023 -85.14 0.998 1.324 0.998 1.324 0.023 -85.14
5865.292 0.022 -85.003 0.998 1.249 0.998 1.249 0.022 -85.003
5890.25 0.021 -84.84 0.998 1.174 0.998 1.174 0.021 -84.84
5915.208 0.019 -84.647 0.998 1.1 0.998 1.1 0.019 -84.647
5940.167 0.018 -84.416 0.998 1.026 0.998 1.026 0.018 -84.416
5965.125 0.017 -84.139 0.998 0.953 0.998 0.953 0.017 -84.139
5990.083 0.015 -83.805 0.998 0.88 0.998 0.88 0.015 -83.805
6015.042 0.014 -83.401 0.998 0.807 0.998 0.807 0.014 -83.401
6040 0.013 -82.905 0.998 0.734 0.998 0.734 0.013 -82.905
6064.958 0.012 -82.288 0.999 0.662 0.999 0.662 0.012 -82.288
6089.917 0.01 -81.51 0.999 0.59 0.999 0.59 0.01 -81.51
6114.875 9.152e-3 -80.505 0.999 0.518 0.999 0.518 9.152e-3 -80.505
6139.833 7.924e-3 -79.17 0.999 0.447 0.999 0.447 7.924e-3 -79.17
6164.792 6.707e-3 -77.329 0.999 0.375 0.999 0.375 6.707e-3 -77.329
6189.75 5.506e-3 -74.66 0.999 0.305 0.999 0.305 5.506e-3 -74.66
6214.708 4.329e-3 -70.5 0.999 0.234 0.999 0.234 4.329e-3 -70.5
6239.667 3.197e-3 -63.301 0.999 0.164 0.999 0.164 3.197e-3 -63.301
6264.625 2.174e-3 -48.841 0.999 0.094 0.999 0.094 2.174e-3 -48.841
6289.583 1.49e-3 -16.478 0.999 0.024 0.999 0.024 1.49e-3 -16.478
6314.542 1.631e-3 28.847 0.999 -0.045 0.999 -0.045 1.631e-3 28.847
6339.5 2.453e-3 54.282 0.999 -0.114 0.999 -0.114 2.453e-3 54.282
6364.458 3.501e-3 65.741 0.999 -0.183 0.999 -0.183 3.501e-3 65.741
6389.417 4.62e-3 71.741 0.999 -0.252 0.999 -0.252 4.62e-3 71.741
6414.375 5.766e-3 75.338 0.999 -0.32 0.999 -0.32 5.766e-3 75.338
6439.333 6.923e-3 77.706 0.999 -0.388 0.999 -0.388 6.923e-3 77.706
6464.292 8.085e-3 79.369 0.999 -0.456 0.999 -0.456 8.085e-3 79.369
6489.25 9.248e-3 80.592 0.999 -0.523 0.999 -0.523 9.248e-3 80.592
6514.208 0.01 81.523 0.999 -0.591 0.999 -0.591 0.01 81.523
6539.167 0.012 82.252 0.999 -0.658 0.999 -0.658 0.012 82.252
6564.125 0.013 82.833 0.998 -0.725 0.998 -0.725 0.013 82.833
6589.083 0.014 83.304 0.998 -0.791 0.998 -0.791 0.014 83.304
6614.042 0.015 83.692 0.998 -0.858 0.998 -0.858 0.015 83.692
6639 0.016 84.013 0.998 -0.924 0.998 -0.924 0.016 84.013
6663.958 0.017 84.283 0.998 -0.989 0.998 -0.989 0.017 84.283
6688.917 0.018 84.51 0.998 -1.055 0.998 -1.055 0.018 84.51
6713.875 0.02 84.703 0.998 -1.12 0.998 -1.12 0.02 84.703
6738.833 0.021 84.866 0.998 -1.186 0.998 -1.186 0.021 84.866
6763.792 0.022 85.006 0.998 -1.25 0.998 -1.25 0.022 85.006
6788.75 0.023 85.125 0.998 -1.315 0.998 -1.315 0.023 85.125
6813.708 0.024 85.226 0.998 -1.38 0.998 -1.38 0.024 85.226
6838.667 0.025 85.313 0.998 -1.444 0.998 -1.444 0.025 85.313
6863.625 0.026 85.386 0.998 -1.508 0.998 -1.508 0.026 85.386
6888.583 0.027 85.449 0.998 -1.572 0.998 -1.572 0.027 85.449
6913.542 0.029 85.501 0.998 -1.635 0.998 -1.635 0.029 85.501
6938.5 0.03 85.544 0.998 -1.699 0.998 -1.699 0.03 85.544
6963.458 0.031 85.58 0.998 -1.762 0.998 -1.762 0.031 85.58
6988.417 0.032 85.608 0.998 -1.825 0.998 -1.825 0.032 85.608
7013.375 0.033 85.631 0.998 -1.888 0.998 -1.888 0.033 85.631
7038.333 0.034 85.648 0.998 -1.95 0.998 -1.95 0.034 85.648
7063.292 0.035 85.66 0.998 -2.012 0.998 -2.012 0.035 85.66
7088.25 0.036 85.667 0.998 -2.075 0.998 -2.075 0.036 85.667
7113.208 0.037 85.671 0.998 -2.137 0.998 -2.137 0.037 85.671
7138.167 0.038 85.671 0.998 -2.198 0.998 -2.198 0.038 85.671
7163.125 0.039 85.667 0.998 -2.26 0.998 -2.26 0.039 85.667
7188.083 0.041 85.661 0.998 -2.321 0.998 -2.321 0.041 85.661
7213.042 0.042 85.651 0.998 -2.382 0.998 -2.382 0.042 85.651
7238 0.043 85.64 0.998 -2.443 0.998 -2.443 0.043 85.64
7262.958 0.044 85.625 0.998 -2.504 0.998 -2.504 0.044 85.625
7287.917 0.045 85.609 0.998 -2.565 0.998 -2.565 0.045 85.609
7312.875 0.046 85.591 0.998 -2.625 0.998 -2.625 0.046 85.591
7337.833 0.047 85.57 0.997 -2.686 0.997 -2.686 0.047 85.57
7362.792 0.048 85.548 0.997 -2.746 0.997 -2.746 0.048 85.548
7387.75 0.049 85.525 0.997 -2.806 0.997 -2.806 0.049 85.525
7412.708 0.05 85.5 0.997 -2.865 0.997 -2.865 0.05 85.5
7437.667 0.051 85.474 0.997 -2.925 0.997 -2.925 0.051 85.474
7462.625 0.052 85.446 0.997 -2.984 0.997 -2.984 0.052 85.446
7487.583 0.053 85.418 0.997 -3.043 0.997 -3.043 0.053 85.418
7512.542 0.054 85.388 0.997 -3.102 0.997 -3.102 0.054 85.388
7537.5 0.055 85.357 0.997 -3.161 0.997 -3.161 0.055 85.357
7562.458 0.056 85.326 0.997 -3.22 0.997 -3.22 0.056 85.326
7587.417 0.057 85.293 0.997 -3.279 0.997 -3.279 0.057 85.293
7612.375 0.058 85.26 0.997 -3.337 0.997 -3.337 0.058 85.26
7637.333 0.059 85.226 0.997 -3.395 0.997 -3.395 0.059 85.226
7662.292 0.06 85.191 0.997 -3.453 0.997 -3.453 0.06 85.191
7687.25 0.061 85.155 0.997 -3.511 0.997 -3.511 0.061 85.155
7712.208 0.062 85.119 0.997 -3.569 0.997 -3.569 0.062 85.119
7737.167 0.063 85.083 0.997 -3.626 0.997 -3.626 0.063 85.083
7762.125 0.064 85.045 0.997 -3.684 0.997 -3.684 0.064 85.045
7787.083 0.065 85.008 0.996 -3.741 0.996 -3.741 0.065 85.008
7812.042 0.066 84.969 0.996 -3.798 0.996 -3.798 0.066 84.969
7837 0.067 84.931 0.996 -3.855 0.996 -3.855 0.067 84.931
7861.958 0.068 84.891 0.996 -3.912 0.996 -3.912 0.068 84.891
7886.917 0.069 84.852 0.996 -3.969 0.996 -3.969 0.069 84.852
7911.875 0.07 84.812 0.996 -4.025 0.996 -4.025 0.07 84.812
7936.833 0.071 84.772 0.996 -4.082 0.996 -4.082 0.071 84.772
7961.792 0.072 84.731 0.996 -4.138 0.996 -4.138 0.072 84.731
7986.75 0.073 84.69 0.996 -4.194 0.996 -4.194 0.073 84.69
8011.708 0.074 84.649 0.996 -4.25 0.996 -4.25 0.074 84.649
8036.667 0.075 84.608 0.996 -4.306 0.996 -4.306 0.075 84.608
8061.625 0.076 84.566 0.996 -4.361 0.996 -4.361 0.076 84.566
8086.583 0.077 84.524 0.996 -4.417 0.996 -4.417 0.077 84.524
8111.542 0.078 84.482 0.996 -4.472 0.996 -4.472 0.078 84.482
8136.5 0.079 84.439 0.995 -4.527 0.995 -4.527 0.079 84.439
8161.458 0.08 84.397 0.995 -4.583 0.995 -4.583 0.08 84.397
8186.417 0.081 84.354 0.995 -4.638 0.995 -4.638 0.081 84.354
8211.375 0.082 84.311 0.995 -4.692 0.995 -4.692 0.082 84.311
