# MHZ S MA R 50

50 0.99 -8.048 0.14 81.948 0.14 81.948 0.99 -8.048
74.958 0.978 -11.971 0.207 78.024 0.207 78.024 0.978 -11.971
99.917 0.962 -15.786 0.272 74.206 0.272 74.206 0.962 -15.786
124.875 0.943 -19.467 0.333 70.524 0.333 70.524 0.943 -19.467
149.833 0.92 -22.993 0.391 66.996 0.391 66.996 0.92 -22.993
174.792 0.896 -26.349 0.444 63.638 0.444 63.638 0.896 -26.349
199.75 0.87 -29.528 0.493 60.458 0.493 60.458 0.87 -29.528
224.708 0.843 -32.524 0.538 57.459 0.538 57.459 0.843 -32.524
249.667 0.816 -35.34 0.578 54.641 0.578 54.641 0.816 -35.34
274.625 0.788 -37.98 0.615 52 0.615 52 0.788 -37.98
299.583 0.761 -40.45 0.649 49.528 0.649 49.528 0.761 -40.45
324.542 0.734 -42.758 0.679 47.219 0.679 47.219 0.734 -42.758
349.5 0.708 -44.913 0.706 45.061 0.706 45.061 0.708 -44.913
374.458 0.683 -46.925 0.73 43.047 0.73 43.047 0.683 -46.925
399.417 0.658 -48.804 0.752 41.166 0.752 41.166 0.658 -48.804
424.375 0.635 -50.559 0.772 39.409 0.772 39.409 0.635 -50.559
449.333 0.612 -52.2 0.79 37.766 0.79 37.766 0.612 -52.2
474.292 0.591 -53.736 0.806 36.229 0.806 36.229 0.591 -53.736
499.25 0.571 -55.174 0.821 34.789 0.821 34.789 0.571 -55.174
524.208 0.551 -56.522 0.834 33.439 0.834 33.439 0.551 -56.522
549.167 0.532 -57.787 0.846 32.172 0.846 32.172 0.532 -57.787
574.125 0.515 -58.977 0.857 30.98 0.857 30.98 0.515 -58.977
599.083 0.498 -60.096 0.867 29.859 0.867 29.859 0.498 -60.096
624.042 0.482 -61.151 0.876 28.802 0.876 28.802 0.482 -61.151
649 0.466 -62.146 0.884 27.805 0.884 27.805 0.466 -62.146
673.958 0.452 -63.086 0.892 26.863 0.892 26.863 0.452 -63.086
698.917 0.438 -63.976 0.899 25.971 0.899 25.971 0.438 -63.976
723.875 0.425 -64.818 0.905 25.127 0.905 25.127 0.425 -64.818
748.833 0.412 -65.617 0.911 24.326 0.911 24.326 0.412 -65.617
773.792 0.4 -66.376 0.916 23.565 0.916 23.565 0.4 -66.376
798.75 0.388 -67.097 0.921 22.842 0.921 22.842 0.388 -67.097
823.708 0.377 -67.783 0.926 22.153 0.926 22.153 0.377 -67.783
848.667 0.366 -68.437 0.93 21.497 0.93 21.497 0.366 -68.437
873.625 0.356 -69.061 0.934 20.871 0.934 20.871 0.356 -69.061
898.583 0.346 -69.657 0.938 20.273 0.938 20.273 0.346 -69.657
923.542 0.337 -70.227 0.941 19.701 0.941 19.701 0.337 -70.227
948.5 0.328 -70.772 0.944 19.154 0.944 19.154 0.328 -70.772
973.458 0.319 -71.294 0.947 18.63 0.947 18.63 0.319 -71.294
998.417 0.311 -71.794 0.95 18.127 0.95 18.127 0.311 -71.794
1023.375 0.303 -72.275 0.953 17.644 0.953 17.644 0.303 -72.275
1048.333 0.295 -72.736 0.955 17.18 0.955 17.18 0.295 -72.736
1073.292 0.288 -73.18 0.957 16.734 0.957 16.734 0.288 -73.18
1098.25 0.281 -73.607 0.959 16.305 0.959 16.305 0.281 -73.607
1123.208 0.274 -74.018 0.961 15.891 0.961 15.891 0.274 -74.018
1148.167 0.267 -74.415 0.963 15.492 0.963 15.492 0.267 -74.415
1173.125 0.261 -74.797 0.965 15.108 0.965 15.108 0.261 -74.797
1198.083 0.254 -75.166 0.967 14.736 0.967 14.736 0.254 -75.166
1223.042 0.248 -75.522 0.968 14.377 0.968 14.377 0.248 -75.522
1248 0.242 -75.867 0.97 14.03 0.97 14.03 0.242 -75.867
1272.958 0.237 -76.2 0.971 13.694 0.971 13.694 0.237 -76.2
1297.917 0.231 -76.523 0.972 13.368 0.972 13.368 0.231 -76.523
1322.875 0.226 -76.836 0.974 13.053 0.974 13.053 0.226 -76.836
1347.833 0.221 -77.139 0.975 12.747 0.975 12.747 0.221 -77.139
1372.792 0.216 -77.433 0.976 12.451 0.976 12.451 0.216 -77.433
1397.75 0.211 -77.718 0.977 12.163 0.977 12.163 0.211 -77.718
1422.708 0.206 -77.995 0.978 11.883 0.978 11.883 0.206 -77.995
1447.667 0.201 -78.264 0.979 11.611 0.979 11.611 0.201 -78.264
1472.625 0.197 -78.525 0.98 11.346 0.98 11.346 0.197 -78.525
1497.583 0.192 -78.779 0.981 11.089 0.981 11.089 0.192 -78.779
1522.542 0.188 -79.027 0.982 10.838 0.982 10.838 0.188 -79.027
1547.5 0.184 -79.268 0.983 10.594 0.983 10.594 0.184 -79.268
1572.458 0.18 -79.502 0.983 10.356 0.983 10.356 0.18 -79.502
1597.417 0.176 -79.731 0.984 10.125 0.984 10.125 0.176 -79.731
1622.375 0.172 -79.954 0.985 9.898 0.985 9.898 0.172 -79.954
1647.333 0.168 -80.171 0.985 9.677 0.985 9.677 0.168 -80.171
1672.292 0.164 -80.384 0.986 9.462 0.986 9.462 0.164 -80.384
1697.25 0.161 -80.591 0.987 9.251 0.987 9.251 0.161 -80.591
1722.208 0.157 -80.793 0.987 9.045 0.987 9.045 0.157 -80.793
1747.167 0.154 -80.99 0.988 8.844 0.988 8.844 0.154 -80.99
1772.125 0.15 -81.183 0.988 8.647 0.988 8.647 0.15 -81.183
1797.083 0.147 -81.372 0.989 8.454 0.989 8.454 0.147 -81.372
1822.042 0.144 -81.557 0.989 8.266 0.989 8.266 0.144 -81.557
1847 0.141 -81.737 0.99 8.081 0.99 8.081 0.141 -81.737
1871.958 0.137 -81.914 0.99 7.9 0.99 7.9 0.137 -81.914
1896.917 0.134 -82.087 0.99 7.723 0.99 7.723 0.134 -82.087
1921.875 0.131 -82.256 0.991 7.549 0.991 7.549 0.131 -82.256
1946.833 0.128 -82.422 0.991 7.379 0.991 7.379 0.128 -82.422
1971.792 0.126 -82.585 0.992 7.212 0.992 7.212 0.126 -82.585
1996.75 0.123 -82.744 0.992 7.047 0.992 7.047 0.123 -82.744
2021.708 0.12 -82.9 0.992 6.886 0.992 6.886 0.12 -82.9
2046.667 0.117 -83.053 0.993 6.728 0.993 6.728 0.117 -83.053
2071.625 0.114 -83.203 0.993 6.573 0.993 6.573 0.114 -83.203
2096.583 0.112 -83.351 0.993 6.42 0.993 6.42 0.112 -83.351
2121.542 0.109 -83.495 0.994 6.27 0.994 6.27 0.109 -83.495
2146.5 0.107 -83.637 0.994 6.123 0.994 6.123 0.107 -83.637
2171.458 0.104 -83.776 0.994 5.977 0.994 5.977 0.104 -83.776
2196.417 0.102 -83.913 0.994 5.835 0.994 5.835 0.102 -83.913
2221.375 0.099 -84.047 0.995 5.694 0.995 5.694 0.099 -84.047
2246.333 0.097 -84.179 0.995 5.556 0.995 5.556 0.097 -84.179
2271.292 0.094 -84.308 0.995 5.42 0.995 5.42 0.094 -84.308
2296.25 0.092 -84.435 0.995 5.286 0.995 5.286 0.092 -84.435
2321.208 0.09 -84.56 0.996 5.154 0.996 5.154 0.09 -84.56
2346.167 0.088 -84.683 0.996 5.024 0.996 5.024 0.088 -84.683
2371.125 0.085 -84.803 0.996 4.896 0.996 4.896 0.085 -84.803
2396.083 0.083 -84.922 0.996 4.769 0.996 4.769 0.083 -84.922
2421.042 0.081 -85.038 0.996 4.645 0.996 4.645 0.081 -85.038
2446 0.079 -85.152 0.996 4.522 0.996 4.522 0.079 -85.152
2470.958 0.077 -85.264 0.997 4.401 0.997 4.401 0.077 -85.264
2495.917 0.075 -85.374 0.997 4.281 0.997 4.281 0.075 -85.374
2520.875 0.073 -85.482 0.997 4.163 0.997 4.163 0.073 -85.482
2545.833 0.071 -85.589 0.997 4.047 0.997 4.047 0.071 -85.589
2570.792 0.069 -85.693 0.997 3.932 0.997 3.932 0.069 -85.693
2595.75 0.067 -85.795 0.997 3.818 0.997 3.818 0.067 -85.795
2620.708 0.065 -85.896 0.997 3.706 0.997 3.706 0.065 -85.896
2645.667 0.063 -85.994 0.998 3.596 0.998 3.596 0.063 -85.994
2670.625 0.061 -86.091 0.998 3.486 0.998 3.486 0.061 -86.091
2695.583 0.059 -86.185 0.998 3.378 0.998 3.378 0.059 -86.185
2720.542 0.057 -86.278 0.998 3.271 0.998 3.271 0.057 -86.278
2745.5 0.055 -86.368 0.998 3.166 0.998 3.166 0.055 -86.368
2770.458 0.053 -86.457 0.998 3.061 0.998 3.061 0.053 -86.457
2795.417 0.052 -86.543 0.998 2.958 0.998 2.958 0.052 -86.543
2820.375 0.05 -86.627 0.998 2.856 0.998 2.856 0.05 -86.627
2845.333 0.048 -86.709 0.998 2.755 0.998 2.755 0.048 -86.709
2870.292 0.046 -86.789 0.998 2.655 0.998 2.655 0.046 -86.789
2895.25 0.045 -86.866 0.999 2.556 0.999 2.556 0.045 -86.866
2920.208 0.043 -86.941 0.999 2.458 0.999 2.458 0.043 -86.941
2945.167 0.041 -87.013 0.999 2.361 0.999 2.361 0.041 -87.013
2970.125 0.04 -87.083 0.999 2.266 0.999 2.266 0.04 -87.083
2995.083 0.038 -87.149 0.999 2.171 0.999 2.171 0.038 -87.149
3020.042 0.036 -87.212 0.999 2.077 0.999 2.077 0.036 -87.212
3045 0.035 -87.272 0.999 1.983 0.999 1.983 0.035 -87.272
3069.958 0.033 -87.328 0.999 1.891 0.999 1.891 0.033 -87.328
3094.917 0.031 -87.38 0.999 1.8 0.999 1.8 0.031 -87.38
3119.875 0.03 -87.427 0.999 1.709 0.999 1.709 0.03 -87.427
3144.833 0.028 -87.469 0.999 1.62 0.999 1.62 0.028 -87.469
3169.792 0.027 -87.505 0.999 1.531 0.999 1.531 0.027 -87.505
3194.75 0.025 -87.534 0.999 1.443 0.999 1.443 0.025 -87.534
3219.708 0.024 -87.555 0.999 1.355 0.999 1.355 0.024 -87.555
3244.667 0.022 -87.567 0.999 1.269 0.999 1.269 0.022 -87.567
3269.625 0.021 -87.569 0.999 1.183 0.999 1.183 0.021 -87.569
3294.583 0.019 -87.557 0.999 1.098 0.999 1.098 0.019 -87.557
3319.542 0.018 -87.529 0.999 1.013 0.999 1.013 0.018 -87.529
3344.5 0.016 -87.482 0.999 0.929 0.999 0.929 0.016 -87.482
3369.458 0.015 -87.409 0.999 0.846 0.999 0.846 0.015 -87.409
3394.417 0.013 -87.303 0.999 0.764 0.999 0.764 0.013 -87.303
3419.375 0.012 -87.153 0.999 0.682 0.999 0.682 0.012 -87.153
3444.333 0.01 -86.942 0.999 0.601 0.999 0.601 0.01 -86.942
3469.292 9.092e-3 -86.643 1 0.52 1 0.52 9.092e-3 -86.643
3494.25 7.698e-3 -86.209 1 0.44 1 0.44 7.698e-3 -86.209
3519.208 6.316e-3 -85.553 1 0.361 1 0.361 6.316e-3 -85.553
3544.167 4.945e-3 -84.497 1 0.282 1 0.282 4.945e-3 -84.497
3569.125 3.588e-3 -82.591 1 0.204 1 0.204 3.588e-3 -82.591
3594.083 2.249e-3 -78.334 1 0.126 1 0.126 2.249e-3 -78.334
3619.042 968.7e-6 -62.272 1 0.049 1 0.049 968.7e-6 -62.272
3644 657.1e-6 46.755 1 -0.027 1 -0.027 657.1e-6 46.755
3668.958 1.862e-3 75.91 1 -0.104 1 -0.104 1.862e-3 75.91
3693.917 3.158e-3 81.628 1 -0.179 1 -0.179 3.158e-3 81.628
3718.875 4.458e-3 83.953 1 -0.254 1 -0.254 4.458e-3 83.953
3743.833 5.754e-3 85.186 1 -0.329 1 -0.329 5.754e-3 85.186
3768.792 7.044e-3 85.935 1 -0.403 1 -0.403 7.044e-3 85.935
3793.75 8.327e-3 86.426 1 -0.476 1 -0.476 8.327e-3 86.426
3818.708 9.602e-3 86.764 1 -0.55 1 -0.55 9.602e-3 86.764
3843.667 0.011 87.005 0.999 -0.622 0.999 -0.622 0.011 87.005
3868.625 0.012 87.179 0.999 -0.694 0.999 -0.694 0.012 87.179
3893.583 0.013 87.307 0.999 -0.766 0.999 -0.766 0.013 87.307
3918.542 0.015 87.399 0.999 -0.838 0.999 -0.838 0.015 87.399
3943.5 0.016 87.466 0.999 -0.909 0.999 -0.909 0.016 87.466
3968.458 0.017 87.513 0.999 -0.979 0.999 -0.979 0.017 87.513
3993.417 0.018 87.543 0.999 -1.049 0.999 -1.049 0.018 87.543
4018.375 0.02 87.561 0.999 -1.119 0.999 -1.119 0.02 87.561
4043.333 0.021 87.569 0.999 -1.188 0.999 -1.188 0.021 87.569
4068.292 0.022 87.568 0.999 -1.257 0.999 -1.257 0.022 87.568
4093.25 0.023 87.56 0.999 -1.326 0.999 -1.326 0.023 87.56
4118.208 0.024 87.547 0.999 -1.394 0.999 -1.394 0.024 87.547
4143.167 0.026 87.528 0.999 -1.462 0.999 -1.462 0.026 87.528
4168.125 0.027 87.505 0.999 -1.529 0.999 -1.529 0.027 87.505
4193.083 0.028 87.478 0.999 -1.597 0.999 -1.597 0.028 87.478
4218.042 0.029 87.449 0.999 -1.663 0.999 -1.663 0.029 87.449
4243 0.03 87.417 0.999 -1.73 0.999 -1.73 0.03 87.417
4267.958 0.031 87.382 0.999 -1.796 0.999 -1.796 0.031 87.382
4292.917 0.032 87.345 0.999 -1.862 0.999 -1.862 0.032 87.345
4317.875 0.034 87.307 0.999 -1.927 0.999 -1.927 0.034 87.307
4342.833 0.035 87.267 0.999 -1.992 0.999 -1.992 0.035 87.267
4367.792 0.036 87.225 0.999 -2.057 0.999 -2.057 0.036 87.225
4392.75 0.037 87.182 0.999 -2.122 0.999 -2.122 0.037 87.182
4417.708 0.038 87.139 0.999 -2.186 0.999 -2.186 0.038 87.139
4442.667 0.039 87.094 0.999 -2.25 0.999 -2.25 0.039 87.094
4467.625 0.04 87.048 0.999 -2.313 0.999 -2.313 0.04 87.048
4492.583 0.041 87.002 0.999 -2.377 0.999 -2.377 0.041 87.002
4517.542 0.043 86.955 0.999 -2.44 0.999 -2.44 0.043 86.955
4542.5 0.044 86.907 0.999 -2.503 0.999 -2.503 0.044 86.907
4567.458 0.045 86.859 0.999 -2.565 0.999 -2.565 0.045 86.859
4592.417 0.046 86.811 0.998 -2.627 0.998 -2.627 0.046 86.811
4617.375 0.047 86.762 0.998 -2.689 0.998 -2.689 0.047 86.762
4642.333 0.048 86.712 0.998 -2.751 0.998 -2.751 0.048 86.712
4667.292 0.049 86.663 0.998 -2.812 0.998 -2.812 0.049 86.663
4692.25 0.05 86.613 0.998 -2.874 0.998 -2.874 0.05 86.613
4717.208 0.051 86.562 0.998 -2.935 0.998 -2.935 0.051 86.562
4742.167 0.052 86.512 0.998 -2.995 0.998 -2.995 0.052 86.512
4767.125 0.053 86.461 0.998 -3.056 0.998 -3.056 0.053 86.461
4792.083 0.054 86.41 0.998 -3.116 0.998 -3.116 0.054 86.41
4817.042 0.055 86.359 0.998 -3.176 0.998 -3.176 0.055 86.359
4842 0.056 86.308 0.998 -3.236 0.998 -3.236 0.056 86.308
4866.958 0.057 86.257 0.998 -3.295 0.998 -3.295 0.057 86.257
4891.917 0.059 86.206 0.998 -3.355 0.998 -3.355 0.059 86.206
4916.875 0.06 86.154 0.998 -3.414 0.998 -3.414 0.06 86.154
4941.833 0.061 86.103 0.998 -3.472 0.998 -3.472 0.061 86.103
4966.792 0.062 86.051 0.998 -3.531 0.998 -3.531 0.062 86.051
4991.75 0.063 86 0.998 -3.589 0.998 -3.589 0.063 86
5016.708 0.064 85.948 0.998 -3.648 0.998 -3.648 0.064 85.948
5041.667 0.065 85.896 0.997 -3.706 0.997 -3.706 0.065 85.896
5066.625 0.066 85.845 0.997 -3.764 0.997 -3.764 0.066 85.845
5091.583 0.067 85.793 0.997 -3.821 0.997 -3.821 0.067 85.793
5116.542 0.068 85.741 0.997 -3.879 0.997 -3.879 0.068 85.741
5141.5 0.069 85.69 0.997 -3.936 0.997 -3.936 0.069 85.69
5166.458 0.07 85.638 0.997 -3.993 0.997 -3.993 0.07 85.638
5191.417 0.071 85.586 0.997 -4.05 0.997 -4.05 0.071 85.586
5216.375 0.072 85.535 0.997 -4.106 0.997 -4.106 0.072 85.535
5241.333 0.073 85.483 0.997 -4.163 0.997 -4.163 0.073 85.483
5266.292 0.074 85.432 0.997 -4.219 0.997 -4.219 0.074 85.432
5291.25 0.075 85.38 0.997 -4.275 0.997 -4.275 0.075 85.38
5316.208 0.076 85.329 0.997 -4.331 0.997 -4.331 0.076 85.329
5341.167 0.076 85.277 0.997 -4.387 0.997 -4.387 0.076 85.277
5366.125 0.077 85.226 0.997 -4.442 0.997 -4.442 0.077 85.226
5391.083 0.078 85.175 0.996 -4.498 0.996 -4.498 0.078 85.175
5416.042 0.079 85.123 0.996 -4.553 0.996 -4.553 0.079 85.123
5441 0.08 85.072 0.996 -4.608 0.996 -4.608 0.08 85.072
5465.958 0.081 85.021 0.996 -4.663 0.996 -4.663 0.081 85.021
5490.917 0.082 84.97 0.996 -4.718 0.996 -4.718 0.082 84.97
5515.875 0.083 84.919 0.996 -4.772 0.996 -4.772 0.083 84.919
5540.833 0.084 84.868 0.996 -4.827 0.996 -4.827 0.084 84.868
5565.792 0.085 84.817 0.996 -4.881 0.996 -4.881 0.085 84.817
5590.75 0.086 84.766 0.996 -4.935 0.996 -4.935 0.086 84.766
5615.708 0.087 84.716 0.996 -4.989 0.996 -4.989 0.087 84.716
5640.667 0.088 84.665 0.996 -5.043 0.996 -5.043 0.088 84.665
5665.625 0.089 84.615 0.996 -5.096 0.996 -5.096 0.089 84.615
5690.583 0.09 84.564 0.996 -5.15 0.996 -5.15 0.09 84.564
5715.542 0.091 84.514 0.995 -5.203 0.995 -5.203 0.091 84.514
5740.5 0.092 84.463 0.995 -5.256 0.995 -5.256 0.092 84.463
5765.458 0.093 84.413 0.995 -5.309 0.995 -5.309 0.093 84.413
5790.417 0.093 84.363 0.995 -5.362 0.995 -5.362 0.093 84.363
5815.375 0.094 84.313 0.995 -5.415 0.995 -5.415 0.094 84.313
5840.333 0.095 84.263 0.995 -5.468 0.995 -5.468 0.095 84.263
5865.292 0.096 84.213 0.995 -5.52 0.995 -5.52 0.096 84.213
5890.25 0.097 84.163 0.995 -5.573 0.995 -5.573 0.097 84.163
5915.208 0.098 84.113 0.995 -5.625 0.995 -5.625 0.098 84.113
5940.167 0.099 84.063 0.995 -5.677 0.995 -5.677 0.099 84.063
5965.125 0.1 84.014 0.995 -5.729 0.995 -5.729 0.1 84.014
5990.083 0.101 83.964 0.994 -5.781 0.994 -5.781 0.101 83.964
6015.042 0.102 83.915 0.994 -5.833 0.994 -5.833 0.102 83.915
6040 0.103 83.865 0.994 -5.885 0.994 -5.885 0.103 83.865
6064.958 0.103 83.816 0.994 -5.936 0.994 -5.936 0.103 83.816
6089.917 0.104 83.767 0.994 -5.987 0.994 -5.987 0.104 83.767
6114.875 0.105 83.718 0.994 -6.039 0.994 -6.039 0.105 83.718
6139.833 0.106 83.669 0.994 -6.09 0.994 -6.09 0.106 83.669
6164.792 0.107 83.62 0.994 -6.141 0.994 -6.141 0.107 83.62
6189.75 0.108 83.571 0.994 -6.192 0.994 -6.192 0.108 83.571
6214.708 0.109 83.522 0.994 -6.243 0.994 -6.243 0.109 83.522
6239.667 0.11 83.473 0.994 -6.293 0.994 -6.293 0.11 83.473
6264.625 0.11 83.424 0.993 -6.344 0.993 -6.344 0.11 83.424
6289.583 0.111 83.376 0.993 -6.394 0.993 -6.394 0.111 83.376
6314.542 0.112 83.327 0.993 -6.445 0.993 -6.445 0.112 83.327
6339.5 0.113 83.279 0.993 -6.495 0.993 -6.495 0.113 83.279
6364.458 0.114 83.23 0.993 -6.545 0.993 -6.545 0.114 83.23
6389.417 0.115 83.182 0.993 -6.595 0.993 -6.595 0.115 83.182
6414.375 0.116 83.134 0.993 -6.645 0.993 -6.645 0.116 83.134
6439.333 0.117 83.086 0.993 -6.695 0.993 -6.695 0.117 83.086
6464.292 0.117 83.038 0.993 -6.744 0.993 -6.744 0.117 83.038
6489.25 0.118 82.989 0.993 -6.794 0.993 -6.794 0.118 82.989
6514.208 0.119 82.942 0.992 -6.844 0.992 -6.844 0.119 82.942
6539.167 0.12 82.894 0.992 -6.893 0.992 -6.893 0.12 82.894
6564.125 0.121 82.846 0.992 -6.942 0.992 -6.942 0.121 82.846
6589.083 0.122 82.798 0.992 -6.992 0.992 -6.992 0.122 82.798
6614.042 0.123 82.751 0.992 -7.041 0.992 -7.041 0.123 82.751
6639 0.123 82.703 0.992 -7.09 0.992 -7.09 0.123 82.703
6663.958 0.124 82.656 0.992 -7.139 0.992 -7.139 0.124 82.656
6688.917 0.125 82.608 0.992 -7.187 0.992 -7.187 0.125 82.608
6713.875 0.126 82.561 0.992 -7.236 0.992 -7.236 0.126 82.561
6738.833 0.127 82.514 0.991 -7.285 0.991 -7.285 0.127 82.514
6763.792 0.128 82.466 0.991 -7.333 0.991 -7.333 0.128 82.466
6788.75 0.128 82.419 0.991 -7.382 0.991 -7.382 0.128 82.419
6813.708 0.129 82.372 0.991 -7.43 0.991 -7.43 0.129 82.372
6838.667 0.13 82.325 0.991 -7.478 0.991 -7.478 0.13 82.325
6863.625 0.131 82.278 0.991 -7.527 0.991 -7.527 0.131 82.278
6888.583 0.132 82.231 0.991 -7.575 0.991 -7.575 0.132 82.231
6913.542 0.133 82.185 0.991 -7.623 0.991 -7.623 0.133 82.185
6938.5 0.133 82.138 0.991 -7.671 0.991 -7.671 0.133 82.138
6963.458 0.134 82.091 0.99 -7.719 0.99 -7.719 0.134 82.091
6988.417 0.135 82.045 0.99 -7.766 0.99 -7.766 0.135 82.045
7013.375 0.136 81.998 0.99 -7.814 0.99 -7.814 0.136 81.998
7038.333 0.137 81.952 0.99 -7.862 0.99 -7.862 0.137 81.952
7063.292 0.138 81.905 0.99 -7.909 0.99 -7.909 0.138 81.905
7088.25 0.138 81.859 0.99 -7.957 0.99 -7.957 0.138 81.859
7113.208 0.139 81.813 0.99 -8.004 0.99 -8.004 0.139 81.813
7138.167 0.14 81.767 0.99 -8.051 0.99 -8.051 0.14 81.767
7163.125 0.141 81.72 0.99 -8.098 0.99 -8.098 0.141 81.72
7188.083 0.142 81.674 0.989 -8.145 0.989 -8.145 0.142 81.674
7213.042 0.143 81.628 0.989 -8.193 0.989 -8.193 0.143 81.628
7238 0.143 81.582 0.989 -8.239 0.989 -8.239 0.143 81.582
7262.958 0.144 81.537 0.989 -8.286 0.989 -8.286 0.144 81.537
7287.917 0.145 81.491 0.989 -8.333 0.989 -8.333 0.145 81.491
7312.875 0.146 81.445 0.989 -8.38 0.989 -8.38 0.146 81.445
7337.833 0.147 81.399 0.989 -8.427 0.989 -8.427 0.147 81.399
7362.792 0.147 81.354 0.989 -8.473 0.989 -8.473 0.147 81.354
7387.75 0.148 81.308 0.989 -8.52 0.989 -8.52 0.148 81.308
7412.708 0.149 81.263 0.988 -8.566 0.988 -8.566 0.149 81.263
7437.667 0.15 81.217 0.988 -8.612 0.988 -8.612 0.15 81.217
7462.625 0.151 81.172 0.988 -8.659 0.988 -8.659 0.151 81.172
7487.583 0.151 81.127 0.988 -8.705 0.988 -8.705 0.151 81.127
7512.542 0.152 81.081 0.988 -8.751 0.988 -8.751 0.152 81.081
7537.5 0.153 81.036 0.988 -8.797 0.988 -8.797 0.153 81.036
7562.458 0.154 80.991 0.988 -8.843 0.988 -8.843 0.154 80.991
7587.417 0.155 80.946 0.988 -8.889 0.988 -8.889 0.155 80.946
7612.375 0.155 80.901 0.987 -8.935 0.987 -8.935 0.155 80.901
7637.333 0.156 80.856 0.987 -8.981 0.987 -8.981 0.156 80.856
7662.292 0.157 80.811 0.987 -9.027 0.987 -9.027 0.157 80.811
7687.25 0.158 80.766 0.987 -9.072 0.987 -9.072 0.158 80.766
7712.208 0.158 80.721 0.987 -9.118 0.987 -9.118 0.158 80.721
7737.167 0.159 80.677 0.987 -9.164 0.987 -9.164 0.159 80.677
7762.125 0.16 80.632 0.987 -9.209 0.987 -9.209 0.16 80.632
7787.083 0.161 80.587 0.987 -9.254 0.987 -9.254 0.161 80.587
7812.042 0.162 80.543 0.986 -9.3 0.986 -9.3 0.162 80.543
7837 0.162 80.498 0.986 -9.345 0.986 -9.345 0.162 80.498
7861.958 0.163 80.454 0.986 -9.39 0.986 -9.39 0.163 80.454
7886.917 0.164 80.409 0.986 -9.436 0.986 -9.436 0.164 80.409
7911.875 0.165 80.365 0.986 -9.481 0.986 -9.481 0.165 80.365
7936.833 0.165 80.321 0.986 -9.526 0.986 -9.526 0.165 80.321
7961.792 0.166 80.276 0.986 -9.571 0.986 -9.571 0.166 80.276
7986.75 0.167 80.232 0.986 -9.616 0.986 -9.616 0.167 80.232
8011.708 0.168 80.188 0.985 -9.66 0.985 -9.66 0.168 80.188
8036.667 0.169 80.144 0.985 -9.705 0.985 -9.705 0.169 80.144
8061.625 0.169 80.1 0.985 -9.75 0.985 -9.75 0.169 80.1
8086.583 0.17 80.056 0.985 -9.795 0.985 -9.795 0.17 80.056
8111.542 0.171 80.012 0.985 -9.839 0.985 -9.839 0.171 80.012
8136.5 0.172 79.968 0.985 -9.884 0.985 -9.884 0.172 79.968
8161.458 0.172 79.924 0.985 -9.928 0.985 -9.928 0.172 79.924
8186.417 0.173 79.88 0.984 -9.973 0.984 -9.973 0.173 79.88
8211.375 0.174 79.837 0.984 -10.017 0.984 -10.017 0.174 79.837
8236.333 0.175 79.793 0.984 -10.062 0.984 -10.062 0.175 79.793
8261.292 0.175 79.749 0.984 -10.106 0.984 -10.106 0.175 79.749
8286.25 0.176 79.706 0.984 -10.15 0.984 -10.15 0.176 79.706
8311.208 0.177 79.662 0.984 -10.194 0.984 -10.194 0.177 79.662
