# MHZ S MA R 50

50 0.992 -7.164 0.125 82.833 0.125 82.833 0.992 -7.164
74.958 0.983 -10.673 0.185 79.322 0.185 79.322 0.983 -10.673
99.917 0.97 -14.105 0.244 75.888 0.244 75.888 0.97 -14.105
124.875 0.954 -17.441 0.3 72.551 0.3 72.551 0.954 -17.441
149.833 0.936 -20.662 0.353 69.328 0.353 69.328 0.936 -20.662
174.792 0.915 -23.757 0.403 66.231 0.403 66.231 0.915 -23.757
199.75 0.893 -26.717 0.45 63.27 0.45 63.27 0.893 -26.717
224.708 0.87 -29.535 0.493 60.449 0.493 60.449 0.87 -29.535
249.667 0.846 -32.211 0.533 57.772 0.533 57.772 0.846 -32.211
274.625 0.822 -34.744 0.57 55.237 0.57 55.237 0.822 -34.744
299.583 0.797 -37.137 0.604 52.843 0.604 52.843 0.797 -37.137
324.542 0.773 -39.393 0.635 50.585 0.635 50.585 0.773 -39.393
349.5 0.748 -41.519 0.663 48.457 0.663 48.457 0.748 -41.519
374.458 0.725 -43.521 0.689 46.453 0.689 46.453 0.725 -43.521
399.417 0.702 -45.405 0.712 44.568 0.712 44.568 0.702 -45.405
424.375 0.679 -47.177 0.733 42.794 0.733 42.794 0.679 -47.177
449.333 0.658 -48.845 0.753 41.124 0.753 41.124 0.658 -48.845
474.292 0.637 -50.416 0.771 39.551 0.771 39.551 0.637 -50.416
499.25 0.617 -51.895 0.787 38.07 0.787 38.07 0.617 -51.895
524.208 0.597 -53.29 0.802 36.674 0.802 36.674 0.597 -53.29
549.167 0.579 -54.606 0.815 35.356 0.815 35.356 0.579 -54.606
574.125 0.561 -55.848 0.828 34.113 0.828 34.113 0.561 -55.848
599.083 0.544 -57.021 0.839 32.937 0.839 32.937 0.544 -57.021
624.042 0.527 -58.132 0.849 31.825 0.849 31.825 0.527 -58.132
649 0.512 -59.183 0.859 30.772 0.859 30.772 0.512 -59.183
673.958 0.497 -60.179 0.868 29.774 0.868 29.774 0.497 -60.179
698.917 0.482 -61.125 0.876 28.826 0.876 28.826 0.482 -61.125
723.875 0.468 -62.023 0.883 27.927 0.883 27.927 0.468 -62.023
748.833 0.455 -62.876 0.89 27.071 0.89 27.071 0.455 -62.876
773.792 0.442 -63.689 0.896 26.257 0.896 26.257 0.442 -63.689
798.75 0.43 -64.463 0.902 25.481 0.902 25.481 0.43 -64.463
823.708 0.419 -65.201 0.908 24.741 0.908 24.741 0.419 -65.201
848.667 0.407 -65.905 0.913 24.034 0.913 24.034 0.407 -65.905
873.625 0.396 -66.579 0.918 23.359 0.918 23.359 0.396 -66.579
898.583 0.386 -67.222 0.922 22.713 0.922 22.713 0.386 -67.222
923.542 0.376 -67.839 0.926 22.095 0.926 22.095 0.376 -67.839
948.5 0.367 -68.429 0.93 21.502 0.93 21.502 0.367 -68.429
973.458 0.357 -68.996 0.934 20.934 0.934 20.934 0.357 -68.996
998.417 0.348 -69.539 0.937 20.388 0.937 20.388 0.348 -69.539
1023.375 0.34 -70.062 0.94 19.864 0.94 19.864 0.34 -70.062
1048.333 0.331 -70.564 0.943 19.359 0.943 19.359 0.331 -70.564
1073.292 0.323 -71.047 0.946 18.874 0.946 18.874 0.323 -71.047
1098.25 0.316 -71.512 0.948 18.407 0.948 18.407 0.316 -71.512
1123.208 0.308 -71.961 0.951 17.956 0.951 17.956 0.308 -71.961
1148.167 0.301 -72.393 0.953 17.521 0.953 17.521 0.301 -72.393
1173.125 0.294 -72.811 0.955 17.102 0.955 17.102 0.294 -72.811
1198.083 0.287 -73.214 0.957 16.696 0.957 16.696 0.287 -73.214
1223.042 0.281 -73.604 0.959 16.304 0.959 16.304 0.281 -73.604
1248 0.274 -73.981 0.961 15.925 0.961 15.925 0.274 -73.981
1272.958 0.268 -74.345 0.963 15.558 0.963 15.558 0.268 -74.345
1297.917 0.262 -74.698 0.965 15.203 0.965 15.203 0.262 -74.698
1322.875 0.256 -75.041 0.966 14.858 0.966 14.858 0.256 -75.041
1347.833 0.251 -75.372 0.968 14.524 0.968 14.524 0.251 -75.372
1372.792 0.245 -75.694 0.969 14.199 0.969 14.199 0.245 -75.694
1397.75 0.24 -76.006 0.97 13.885 0.97 13.885 0.24 -76.006
1422.708 0.235 -76.31 0.972 13.579 0.972 13.579 0.235 -76.31
1447.667 0.23 -76.605 0.973 13.281 0.973 13.281 0.23 -76.605
1472.625 0.225 -76.891 0.974 12.992 0.974 12.992 0.225 -76.891
1497.583 0.22 -77.17 0.975 12.711 0.975 12.711 0.22 -77.17
1522.542 0.215 -77.441 0.976 12.437 0.976 12.437 0.215 -77.441
1547.5 0.211 -77.705 0.977 12.17 0.977 12.17 0.211 -77.705
1572.458 0.206 -77.963 0.978 11.91 0.978 11.91 0.206 -77.963
1597.417 0.202 -78.213 0.979 11.656 0.979 11.656 0.202 -78.213
1622.375 0.198 -78.458 0.98 11.409 0.98 11.409 0.198 -78.458
1647.333 0.194 -78.696 0.981 11.167 0.981 11.167 0.194 -78.696
1672.292 0.19 -78.929 0.981 10.932 0.981 10.932 0.19 -78.929
1697.25 0.186 -79.156 0.982 10.702 0.982 10.702 0.186 -79.156
1722.208 0.182 -79.378 0.983 10.477 0.983 10.477 0.182 -79.378
1747.167 0.178 -79.594 0.984 10.257 0.984 10.257 0.178 -79.594
1772.125 0.174 -79.806 0.984 10.042 0.984 10.042 0.174 -79.806
1797.083 0.171 -80.013 0.985 9.831 0.985 9.831 0.171 -80.013
1822.042 0.167 -80.216 0.985 9.626 0.985 9.626 0.167 -80.216
1847 0.164 -80.414 0.986 9.424 0.986 9.424 0.164 -80.414
1871.958 0.16 -80.607 0.987 9.227 0.987 9.227 0.16 -80.607
1896.917 0.157 -80.797 0.987 9.033 0.987 9.033 0.157 -80.797
1921.875 0.154 -80.983 0.988 8.844 0.988 8.844 0.154 -80.983
1946.833 0.151 -81.165 0.988 8.658 0.988 8.658 0.151 -81.165
1971.792 0.147 -81.343 0.989 8.476 0.989 8.476 0.147 -81.343
1996.75 0.144 -81.518 0.989 8.297 0.989 8.297 0.144 -81.518
2021.708 0.141 -81.69 0.99 8.122 0.99 8.122 0.141 -81.69
2046.667 0.138 -81.858 0.99 7.949 0.99 7.949 0.138 -81.858
2071.625 0.135 -82.023 0.99 7.78 0.99 7.78 0.135 -82.023
2096.583 0.133 -82.184 0.991 7.614 0.991 7.614 0.133 -82.184
2121.542 0.13 -82.343 0.991 7.451 0.991 7.451 0.13 -82.343
2146.5 0.127 -82.499 0.991 7.291 0.991 7.291 0.127 -82.499
2171.458 0.124 -82.652 0.992 7.133 0.992 7.133 0.124 -82.652
2196.417 0.121 -82.802 0.992 6.978 0.992 6.978 0.121 -82.802
2221.375 0.119 -82.95 0.992 6.825 0.992 6.825 0.119 -82.95
2246.333 0.116 -83.095 0.993 6.675 0.993 6.675 0.116 -83.095
2271.292 0.114 -83.237 0.993 6.528 0.993 6.528 0.114 -83.237
2296.25 0.111 -83.377 0.993 6.382 0.993 6.382 0.111 -83.377
2321.208 0.109 -83.515 0.994 6.239 0.994 6.239 0.109 -83.515
2346.167 0.106 -83.65 0.994 6.098 0.994 6.098 0.106 -83.65
2371.125 0.104 -83.783 0.994 5.959 0.994 5.959 0.104 -83.783
2396.083 0.101 -83.914 0.994 5.822 0.994 5.822 0.101 -83.914
2421.042 0.099 -84.042 0.995 5.687 0.995 5.687 0.099 -84.042
2446 0.097 -84.169 0.995 5.554 0.995 5.554 0.097 -84.169
2470.958 0.095 -84.293 0.995 5.423 0.995 5.423 0.095 -84.293
2495.917 0.092 -84.415 0.995 5.294 0.995 5.294 0.092 -84.415
2520.875 0.09 -84.536 0.995 5.167 0.995 5.167 0.09 -84.536
2545.833 0.088 -84.654 0.996 5.041 0.996 5.041 0.088 -84.654
2570.792 0.086 -84.77 0.996 4.917 0.996 4.917 0.086 -84.77
2595.75 0.084 -84.885 0.996 4.794 0.996 4.794 0.084 -84.885
2620.708 0.081 -84.997 0.996 4.673 0.996 4.673 0.081 -84.997
2645.667 0.079 -85.108 0.996 4.554 0.996 4.554 0.079 -85.108
2670.625 0.077 -85.217 0.997 4.436 0.997 4.436 0.077 -85.217
2695.583 0.075 -85.324 0.997 4.319 0.997 4.319 0.075 -85.324
2720.542 0.073 -85.43 0.997 4.204 0.997 4.204 0.073 -85.43
2745.5 0.071 -85.533 0.997 4.09 0.997 4.09 0.071 -85.533
2770.458 0.069 -85.635 0.997 3.978 0.997 3.978 0.069 -85.635
2795.417 0.067 -85.735 0.997 3.867 0.997 3.867 0.067 -85.735
2820.375 0.066 -85.833 0.997 3.757 0.997 3.757 0.066 -85.833
2845.333 0.064 -85.929 0.998 3.648 0.998 3.648 0.064 -85.929
2870.292 0.062 -86.024 0.998 3.541 0.998 3.541 0.062 -86.024
2895.25 0.06 -86.117 0.998 3.435 0.998 3.435 0.06 -86.117
2920.208 0.058 -86.208 0.998 3.33 0.998 3.33 0.058 -86.208
2945.167 0.056 -86.297 0.998 3.226 0.998 3.226 0.056 -86.297
2970.125 0.054 -86.384 0.998 3.123 0.998 3.123 0.054 -86.384
2995.083 0.053 -86.469 0.998 3.021 0.998 3.021 0.053 -86.469
3020.042 0.051 -86.552 0.998 2.92 0.998 2.92 0.051 -86.552
3045 0.049 -86.633 0.998 2.82 0.998 2.82 0.049 -86.633
3069.958 0.047 -86.712 0.998 2.721 0.998 2.721 0.047 -86.712
3094.917 0.046 -86.789 0.998 2.624 0.998 2.624 0.046 -86.789
3119.875 0.044 -86.863 0.999 2.527 0.999 2.527 0.044 -86.863
3144.833 0.042 -86.935 0.999 2.431 0.999 2.431 0.042 -86.935
3169.792 0.041 -87.004 0.999 2.336 0.999 2.336 0.041 -87.004
3194.75 0.039 -87.071 0.999 2.241 0.999 2.241 0.039 -87.071
3219.708 0.037 -87.134 0.999 2.148 0.999 2.148 0.037 -87.134
3244.667 0.036 -87.194 0.999 2.056 0.999 2.056 0.036 -87.194
3269.625 0.034 -87.251 0.999 1.964 0.999 1.964 0.034 -87.251
3294.583 0.033 -87.304 0.999 1.873 0.999 1.873 0.033 -87.304
3319.542 0.031 -87.352 0.999 1.783 0.999 1.783 0.031 -87.352
3344.5 0.03 -87.396 0.999 1.693 0.999 1.693 0.03 -87.396
3369.458 0.028 -87.434 0.999 1.605 0.999 1.605 0.028 -87.434
3394.417 0.026 -87.466 0.999 1.517 0.999 1.517 0.026 -87.466
3419.375 0.025 -87.491 0.999 1.43 0.999 1.43 0.025 -87.491
3444.333 0.023 -87.508 0.999 1.343 0.999 1.343 0.023 -87.508
3469.292 0.022 -87.516 0.999 1.258 0.999 1.258 0.022 -87.516
3494.25 0.02 -87.512 0.999 1.173 0.999 1.173 0.02 -87.512
3519.208 0.019 -87.494 0.999 1.088 0.999 1.088 0.019 -87.494
3544.167 0.018 -87.46 0.999 1.004 0.999 1.004 0.018 -87.46
3569.125 0.016 -87.405 0.999 0.921 0.999 0.921 0.016 -87.405
3594.083 0.015 -87.323 0.999 0.839 0.999 0.839 0.015 -87.323
3619.042 0.013 -87.206 0.999 0.757 0.999 0.757 0.013 -87.206
3644 0.012 -87.042 0.999 0.676 0.999 0.676 0.012 -87.042
3668.958 0.01 -86.813 0.999 0.595 0.999 0.595 0.01 -86.813
3693.917 8.995e-3 -86.49 0.999 0.515 0.999 0.515 8.995e-3 -86.49
3718.875 7.608e-3 -86.023 1 0.435 1 0.435 7.608e-3 -86.023
3743.833 6.232e-3 -85.319 1 0.356 1 0.356 6.232e-3 -85.319
3768.792 4.867e-3 -84.181 1 0.278 1 0.278 4.867e-3 -84.181
3793.75 3.514e-3 -82.115 1 0.2 1 0.2 3.514e-3 -82.115
3818.708 2.182e-3 -77.441 1 0.122 1 0.122 2.182e-3 -77.441
3843.667 917.5e-6 -59.142 1 0.045 1 0.045 917.5e-6 -59.142
3868.625 720.6e-6 49.262 1 -0.031 1 -0.031 720.6e-6 49.262
3893.583 1.93e-3 75.799 1 -0.107 1 -0.107 1.93e-3 75.799
3918.542 3.224e-3 81.434 1 -0.183 1 -0.183 3.224e-3 81.434
3943.5 4.523e-3 83.778 1 -0.258 1 -0.258 4.523e-3 83.778
3968.458 5.818e-3 85.035 1 -0.332 1 -0.332 5.818e-3 85.035
3993.417 7.108e-3 85.802 1 -0.406 1 -0.406 7.108e-3 85.802
4018.375 8.391e-3 86.309 0.999 -0.48 0.999 -0.48 8.391e-3 86.309
4043.333 9.666e-3 86.66 0.999 -0.553 0.999 -0.553 9.666e-3 86.66
4068.292 0.011 86.911 0.999 -0.626 0.999 -0.626 0.011 86.911
4093.25 0.012 87.093 0.999 -0.698 0.999 -0.698 0.012 87.093
4118.208 0.013 87.228 0.999 -0.77 0.999 -0.77 0.013 87.228
4143.167 0.015 87.326 0.999 -0.842 0.999 -0.842 0.015 87.326
4168.125 0.016 87.398 0.999 -0.913 0.999 -0.913 0.016 87.398
4193.083 0.017 87.448 0.999 -0.984 0.999 -0.984 0.017 87.448
4218.042 0.018 87.483 0.999 -1.054 0.999 -1.054 0.018 87.483
4243 0.02 87.504 0.999 -1.124 0.999 -1.124 0.02 87.504
4267.958 0.021 87.514 0.999 -1.193 0.999 -1.193 0.021 87.514
4292.917 0.022 87.516 0.999 -1.263 0.999 -1.263 0.022 87.516
4317.875 0.023 87.51 0.999 -1.332 0.999 -1.332 0.023 87.51
4342.833 0.024 87.498 0.999 -1.4 0.999 -1.4 0.024 87.498
4367.792 0.026 87.481 0.999 -1.468 0.999 -1.468 0.026 87.481
4392.75 0.027 87.46 0.999 -1.536 0.999 -1.536 0.027 87.46
4417.708 0.028 87.435 0.999 -1.603 0.999 -1.603 0.028 87.435
4442.667 0.029 87.406 0.999 -1.671 0.999 -1.671 0.029 87.406
4467.625 0.03 87.375 0.999 -1.737 0.999 -1.737 0.03 87.375
4492.583 0.031 87.341 0.999 -1.804 0.999 -1.804 0.031 87.341
4517.542 0.033 87.305 0.999 -1.87 0.999 -1.87 0.033 87.305
4542.5 0.034 87.268 0.999 -1.936 0.999 -1.936 0.034 87.268
4567.458 0.035 87.228 0.999 -2.001 0.999 -2.001 0.035 87.228
4592.417 0.036 87.187 0.999 -2.067 0.999 -2.067 0.036 87.187
4617.375 0.037 87.145 0.999 -2.131 0.999 -2.131 0.037 87.145
4642.333 0.038 87.102 0.999 -2.196 0.999 -2.196 0.038 87.102
4667.292 0.039 87.057 0.999 -2.26 0.999 -2.26 0.039 87.057
4692.25 0.041 87.012 0.999 -2.325 0.999 -2.325 0.041 87.012
4717.208 0.042 86.966 0.999 -2.388 0.999 -2.388 0.042 86.966
4742.167 0.043 86.919 0.999 -2.452 0.999 -2.452 0.043 86.919
4767.125 0.044 86.872 0.999 -2.515 0.999 -2.515 0.044 86.872
4792.083 0.045 86.824 0.999 -2.578 0.999 -2.578 0.045 86.824
4817.042 0.046 86.775 0.998 -2.641 0.998 -2.641 0.046 86.775
4842 0.047 86.726 0.998 -2.703 0.998 -2.703 0.047 86.726
4866.958 0.048 86.677 0.998 -2.765 0.998 -2.765 0.048 86.677
4891.917 0.049 86.627 0.998 -2.827 0.998 -2.827 0.049 86.627
4916.875 0.05 86.577 0.998 -2.889 0.998 -2.889 0.05 86.577
4941.833 0.051 86.527 0.998 -2.951 0.998 -2.951 0.051 86.527
4966.792 0.053 86.476 0.998 -3.012 0.998 -3.012 0.053 86.476
4991.75 0.054 86.426 0.998 -3.073 0.998 -3.073 0.054 86.426
5016.708 0.055 86.375 0.998 -3.133 0.998 -3.133 0.055 86.375
5041.667 0.056 86.324 0.998 -3.194 0.998 -3.194 0.056 86.324
5066.625 0.057 86.272 0.998 -3.254 0.998 -3.254 0.057 86.272
5091.583 0.058 86.221 0.998 -3.314 0.998 -3.314 0.058 86.221
5116.542 0.059 86.169 0.998 -3.374 0.998 -3.374 0.059 86.169
5141.5 0.06 86.118 0.998 -3.434 0.998 -3.434 0.06 86.118
5166.458 0.061 86.066 0.998 -3.493 0.998 -3.493 0.061 86.066
5191.417 0.062 86.014 0.998 -3.552 0.998 -3.552 0.062 86.014
5216.375 0.063 85.962 0.998 -3.611 0.998 -3.611 0.063 85.962
5241.333 0.064 85.91 0.997 -3.67 0.997 -3.67 0.064 85.91
5266.292 0.065 85.858 0.997 -3.729 0.997 -3.729 0.065 85.858
5291.25 0.066 85.806 0.997 -3.787 0.997 -3.787 0.066 85.806
5316.208 0.067 85.754 0.997 -3.845 0.997 -3.845 0.067 85.754
5341.167 0.068 85.702 0.997 -3.903 0.997 -3.903 0.068 85.702
5366.125 0.069 85.65 0.997 -3.961 0.997 -3.961 0.069 85.65
5391.083 0.07 85.598 0.997 -4.018 0.997 -4.018 0.07 85.598
5416.042 0.071 85.546 0.997 -4.076 0.997 -4.076 0.071 85.546
5441 0.072 85.494 0.997 -4.133 0.997 -4.133 0.072 85.494
5465.958 0.073 85.442 0.997 -4.19 0.997 -4.19 0.073 85.442
5490.917 0.074 85.391 0.997 -4.247 0.997 -4.247 0.074 85.391
5515.875 0.075 85.339 0.997 -4.304 0.997 -4.304 0.075 85.339
5540.833 0.076 85.287 0.997 -4.36 0.997 -4.36 0.076 85.287
5565.792 0.077 85.235 0.997 -4.416 0.997 -4.416 0.077 85.235
5590.75 0.078 85.183 0.996 -4.472 0.996 -4.472 0.078 85.183
5615.708 0.079 85.132 0.996 -4.528 0.996 -4.528 0.079 85.132
5640.667 0.08 85.08 0.996 -4.584 0.996 -4.584 0.08 85.08
5665.625 0.081 85.028 0.996 -4.64 0.996 -4.64 0.081 85.028
5690.583 0.082 84.977 0.996 -4.695 0.996 -4.695 0.082 84.977
5715.542 0.083 84.925 0.996 -4.751 0.996 -4.751 0.083 84.925
5740.5 0.084 84.874 0.996 -4.806 0.996 -4.806 0.084 84.874
5765.458 0.085 84.823 0.996 -4.861 0.996 -4.861 0.085 84.823
5790.417 0.086 84.771 0.996 -4.916 0.996 -4.916 0.086 84.771
5815.375 0.087 84.72 0.996 -4.97 0.996 -4.97 0.087 84.72
5840.333 0.088 84.669 0.996 -5.025 0.996 -5.025 0.088 84.669
5865.292 0.089 84.618 0.996 -5.079 0.996 -5.079 0.089 84.618
5890.25 0.089 84.567 0.996 -5.133 0.996 -5.133 0.089 84.567
5915.208 0.09 84.516 0.995 -5.188 0.995 -5.188 0.09 84.516
5940.167 0.091 84.465 0.995 -5.241 0.995 -5.241 0.091 84.465
5965.125 0.092 84.414 0.995 -5.295 0.995 -5.295 0.092 84.414
5990.083 0.093 84.363 0.995 -5.349 0.995 -5.349 0.093 84.363
6015.042 0.094 84.313 0.995 -5.402 0.995 -5.402 0.094 84.313
6040 0.095 84.262 0.995 -5.456 0.995 -5.456 0.095 84.262
6064.958 0.096 84.212 0.995 -5.509 0.995 -5.509 0.096 84.212
6089.917 0.097 84.161 0.995 -5.562 0.995 -5.562 0.097 84.161
6114.875 0.098 84.111 0.995 -5.615 0.995 -5.615 0.098 84.111
6139.833 0.099 84.061 0.995 -5.668 0.995 -5.668 0.099 84.061
6164.792 0.1 84.011 0.995 -5.721 0.995 -5.721 0.1 84.011
6189.75 0.101 83.96 0.994 -5.773 0.994 -5.773 0.101 83.96
6214.708 0.102 83.91 0.994 -5.826 0.994 -5.826 0.102 83.91
6239.667 0.102 83.86 0.994 -5.878 0.994 -5.878 0.102 83.86
6264.625 0.103 83.811 0.994 -5.93 0.994 -5.93 0.103 83.811
6289.583 0.104 83.761 0.994 -5.982 0.994 -5.982 0.104 83.761
6314.542 0.105 83.711 0.994 -6.034 0.994 -6.034 0.105 83.711
6339.5 0.106 83.661 0.994 -6.086 0.994 -6.086 0.106 83.661
6364.458 0.107 83.612 0.994 -6.138 0.994 -6.138 0.107 83.612
6389.417 0.108 83.562 0.994 -6.189 0.994 -6.189 0.108 83.562
6414.375 0.109 83.513 0.994 -6.241 0.994 -6.241 0.109 83.513
6439.333 0.11 83.464 0.994 -6.292 0.994 -6.292 0.11 83.464
6464.292 0.11 83.414 0.993 -6.343 0.993 -6.343 0.11 83.414
6489.25 0.111 83.365 0.993 -6.394 0.993 -6.394 0.111 83.365
6514.208 0.112 83.316 0.993 -6.445 0.993 -6.445 0.112 83.316
6539.167 0.113 83.267 0.993 -6.496 0.993 -6.496 0.113 83.267
6564.125 0.114 83.218 0.993 -6.547 0.993 -6.547 0.114 83.218
6589.083 0.115 83.169 0.993 -6.598 0.993 -6.598 0.115 83.169
6614.042 0.116 83.121 0.993 -6.648 0.993 -6.648 0.116 83.121
6639 0.117 83.072 0.993 -6.699 0.993 -6.699 0.117 83.072
6663.958 0.118 83.023 0.993 -6.749 0.993 -6.749 0.118 83.023
6688.917 0.118 82.975 0.992 -6.799 0.992 -6.799 0.118 82.975
6713.875 0.119 82.926 0.992 -6.85 0.992 -6.85 0.119 82.926
6738.833 0.12 82.878 0.992 -6.9 0.992 -6.9 0.12 82.878
6763.792 0.121 82.829 0.992 -6.95 0.992 -6.95 0.121 82.829
6788.75 0.122 82.781 0.992 -6.999 0.992 -6.999 0.122 82.781
6813.708 0.123 82.733 0.992 -7.049 0.992 -7.049 0.123 82.733
6838.667 0.124 82.685 0.992 -7.099 0.992 -7.099 0.124 82.685
6863.625 0.124 82.637 0.992 -7.148 0.992 -7.148 0.124 82.637
6888.583 0.125 82.589 0.992 -7.198 0.992 -7.198 0.125 82.589
6913.542 0.126 82.541 0.992 -7.247 0.992 -7.247 0.126 82.541
6938.5 0.127 82.493 0.991 -7.296 0.991 -7.296 0.127 82.493
6963.458 0.128 82.446 0.991 -7.346 0.991 -7.346 0.128 82.446
6988.417 0.129 82.398 0.991 -7.395 0.991 -7.395 0.129 82.398
7013.375 0.13 82.35 0.991 -7.444 0.991 -7.444 0.13 82.35
7038.333 0.13 82.303 0.991 -7.493 0.991 -7.493 0.13 82.303
7063.292 0.131 82.255 0.991 -7.541 0.991 -7.541 0.131 82.255
7088.25 0.132 82.208 0.991 -7.59 0.991 -7.59 0.132 82.208
7113.208 0.133 82.161 0.991 -7.639 0.991 -7.639 0.133 82.161
7138.167 0.134 82.113 0.991 -7.687 0.991 -7.687 0.134 82.113
7163.125 0.135 82.066 0.99 -7.736 0.99 -7.736 0.135 82.066
7188.083 0.135 82.019 0.99 -7.784 0.99 -7.784 0.135 82.019
7213.042 0.136 81.972 0.99 -7.832 0.99 -7.832 0.136 81.972
7238 0.137 81.925 0.99 -7.88 0.99 -7.88 0.137 81.925
7262.958 0.138 81.878 0.99 -7.928 0.99 -7.928 0.138 81.878
7287.917 0.139 81.831 0.99 -7.976 0.99 -7.976 0.139 81.831
7312.875 0.14 81.785 0.99 -8.024 0.99 -8.024 0.14 81.785
7337.833 0.14 81.738 0.99 -8.072 0.99 -8.072 0.14 81.738
7362.792 0.141 81.691 0.99 -8.12 0.99 -8.12 0.141 81.691
7387.75 0.142 81.645 0.989 -8.168 0.989 -8.168 0.142 81.645
7412.708 0.143 81.598 0.989 -8.215 0.989 -8.215 0.143 81.598
7437.667 0.144 81.552 0.989 -8.263 0.989 -8.263 0.144 81.552
7462.625 0.145 81.505 0.989 -8.31 0.989 -8.31 0.145 81.505
7487.583 0.145 81.459 0.989 -8.358 0.989 -8.358 0.145 81.459
7512.542 0.146 81.413 0.989 -8.405 0.989 -8.405 0.146 81.413
7537.5 0.147 81.367 0.989 -8.452 0.989 -8.452 0.147 81.367
7562.458 0.148 81.321 0.989 -8.499 0.989 -8.499 0.148 81.321
7587.417 0.149 81.275 0.988 -8.546 0.988 -8.546 0.149 81.275
7612.375 0.149 81.229 0.988 -8.593 0.988 -8.593 0.149 81.229
7637.333 0.15 81.183 0.988 -8.64 0.988 -8.64 0.15 81.183
7662.292 0.151 81.137 0.988 -8.687 0.988 -8.687 0.151 81.137
7687.25 0.152 81.091 0.988 -8.734 0.988 -8.734 0.152 81.091
7712.208 0.153 81.045 0.988 -8.78 0.988 -8.78 0.153 81.045
7737.167 0.153 81 0.988 -8.827 0.988 -8.827 0.153 81
7762.125 0.154 80.954 0.988 -8.874 0.988 -8.874 0.154 80.954
7787.083 0.155 80.908 0.987 -8.92 0.987 -8.92 0.155 80.908
7812.042 0.156 80.863 0.987 -8.966 0.987 -8.966 0.156 80.863
7837 0.157 80.817 0.987 -9.013 0.987 -9.013 0.157 80.817
7861.958 0.157 80.772 0.987 -9.059 0.987 -9.059 0.157 80.772
7886.917 0.158 80.727 0.987 -9.105 0.987 -9.105 0.158 80.727
7911.875 0.159 80.681 0.987 -9.151 0.987 -9.151 0.159 80.681
7936.833 0.16 80.636 0.987 -9.197 0.987 -9.197 0.16 80.636
7961.792 0.161 80.591 0.987 -9.243 0.987 -9.243 0.161 80.591
7986.75 0.161 80.546 0.986 -9.289 0.986 -9.289 0.161 80.546
8011.708 0.162 80.501 0.986 -9.335 0.986 -9.335 0.162 80.501
8036.667 0.163 80.456 0.986 -9.381 0.986 -9.381 0.163 80.456
8061.625 0.164 80.411 0.986 -9.427 0.986 -9.427 0.164 80.411
8086.583 0.165 80.366 0.986 -9.472 0.986 -9.472 0.165 80.366
8111.542 0.165 80.321 0.986 -9.518 0.986 -9.518 0.165 80.321
8136.5 0.166 80.277 0.986 -9.564 0.986 -9.564 0.166 80.277
8161.458 0.167 80.232 0.986 -9.609 0.986 -9.609 0.167 80.232
8186.417 0.168 80.187 0.985 -9.654 0.985 -9.654 0.168 80.187
8211.375 0.168 80.143 0.985 -9.7 0.985 -9.7 0.168 80.143
8236.333 0.169 80.098 0.985 -9.745 0.985 -9.745 0.169 80.098
8261.292 0.17 80.054 0.985 -9.79 0.985 -9.79 0.17 80.054
8286.25 0.171 80.009 0.985 -9.835 0.985 -9.835 0.171 80.009
