# MHZ S MA R 50

50 1 -1.17 0.02 88.826 0.02 88.826 1 -1.17
74.958 1 -1.754 0.031 88.241 0.031 88.241 1 -1.754
99.917 0.999 -2.337 0.041 87.655 0.041 87.655 0.999 -2.337
124.875 0.999 -2.92 0.051 87.071 0.051 87.071 0.999 -2.92
149.833 0.998 -3.502 0.061 86.486 0.061 86.486 0.998 -3.502
174.792 0.997 -4.084 0.071 85.902 0.071 85.902 0.997 -4.084
199.75 0.997 -4.666 0.081 85.319 0.081 85.319 0.997 -4.666
224.708 0.996 -5.246 0.091 84.737 0.091 84.737 0.996 -5.246
249.667 0.995 -5.825 0.101 84.156 0.101 84.156 0.995 -5.825
274.625 0.994 -6.404 0.112 83.575 0.112 83.575 0.994 -6.404
299.583 0.993 -6.981 0.122 82.996 0.122 82.996 0.993 -6.981
324.542 0.991 -7.558 0.132 82.418 0.132 82.418 0.991 -7.558
349.5 0.99 -8.133 0.141 81.841 0.141 81.841 0.99 -8.133
374.458 0.988 -8.706 0.151 81.265 0.151 81.265 0.988 -8.706
399.417 0.987 -9.278 0.161 80.691 0.161 80.691 0.987 -9.278
424.375 0.985 -9.849 0.171 80.119 0.171 80.119 0.985 -9.849
449.333 0.983 -10.418 0.181 79.548 0.181 79.548 0.983 -10.418
474.292 0.982 -10.985 0.191 78.979 0.191 78.979 0.982 -10.985
499.25 0.98 -11.551 0.2 78.411 0.2 78.411 0.98 -11.551
524.208 0.978 -12.114 0.21 77.846 0.21 77.846 0.978 -12.114
549.167 0.975 -12.676 0.219 77.282 0.219 77.282 0.975 -12.676
574.125 0.973 -13.236 0.229 76.721 0.229 76.721 0.973 -13.236
599.083 0.971 -13.793 0.238 76.161 0.238 76.161 0.971 -13.793
624.042 0.969 -14.349 0.248 75.604 0.248 75.604 0.969 -14.349
649 0.966 -14.902 0.257 75.049 0.257 75.049 0.966 -14.902
673.958 0.964 -15.452 0.266 74.497 0.266 74.497 0.964 -15.452
698.917 0.961 -16.001 0.276 73.946 0.276 73.946 0.961 -16.001
723.875 0.958 -16.547 0.285 73.398 0.285 73.398 0.958 -16.547
748.833 0.956 -17.09 0.294 72.853 0.294 72.853 0.956 -17.09
773.792 0.953 -17.631 0.303 72.31 0.303 72.31 0.953 -17.631
798.75 0.95 -18.169 0.312 71.77 0.312 71.77 0.95 -18.169
823.708 0.947 -18.704 0.321 71.233 0.321 71.233 0.947 -18.704
848.667 0.944 -19.237 0.329 70.698 0.329 70.698 0.944 -19.237
873.625 0.941 -19.767 0.338 70.167 0.338 70.167 0.941 -19.767
898.583 0.938 -20.294 0.347 69.638 0.347 69.638 0.938 -20.294
923.542 0.934 -20.818 0.355 69.112 0.355 69.112 0.934 -20.818
948.5 0.931 -21.339 0.364 68.588 0.364 68.588 0.931 -21.339
973.458 0.928 -21.858 0.372 68.068 0.372 68.068 0.928 -21.858
998.417 0.924 -22.373 0.381 67.551 0.381 67.551 0.924 -22.373
1023.375 0.921 -22.885 0.389 67.037 0.389 67.037 0.921 -22.885
1048.333 0.917 -23.394 0.397 66.526 0.397 66.526 0.917 -23.394
1073.292 0.914 -23.9 0.405 66.018 0.405 66.018 0.914 -23.9
1098.25 0.91 -24.403 0.413 65.514 0.413 65.514 0.91 -24.403
1123.208 0.906 -24.902 0.421 65.012 0.421 65.012 0.906 -24.902
1148.167 0.903 -25.398 0.429 64.514 0.429 64.514 0.903 -25.398
1173.125 0.899 -25.891 0.437 64.019 0.437 64.019 0.899 -25.891
1198.083 0.895 -26.381 0.444 63.527 0.444 63.527 0.895 -26.381
1223.042 0.891 -26.868 0.452 63.039 0.452 63.039 0.891 -26.868
1248 0.887 -27.351 0.459 62.554 0.459 62.554 0.887 -27.351
1272.958 0.884 -27.831 0.467 62.072 0.467 62.072 0.884 -27.831
1297.917 0.88 -28.307 0.474 61.593 0.474 61.593 0.88 -28.307
1322.875 0.876 -28.78 0.481 61.118 0.481 61.118 0.876 -28.78
1347.833 0.872 -29.25 0.489 60.647 0.489 60.647 0.872 -29.25
1372.792 0.868 -29.716 0.496 60.178 0.496 60.178 0.868 -29.716
1397.75 0.864 -30.179 0.503 59.714 0.503 59.714 0.864 -30.179
1422.708 0.859 -30.638 0.51 59.252 0.51 59.252 0.859 -30.638
1447.667 0.855 -31.095 0.516 58.794 0.516 58.794 0.855 -31.095
1472.625 0.851 -31.547 0.523 58.339 0.523 58.339 0.851 -31.547
1497.583 0.847 -31.996 0.53 57.888 0.53 57.888 0.847 -31.996
1522.542 0.843 -32.442 0.536 57.44 0.536 57.44 0.843 -32.442
1547.5 0.839 -32.885 0.543 56.996 0.543 56.996 0.839 -32.885
1572.458 0.834 -33.324 0.549 56.555 0.549 56.555 0.834 -33.324
1597.417 0.83 -33.759 0.556 56.117 0.556 56.117 0.83 -33.759
1622.375 0.826 -34.191 0.562 55.683 0.562 55.683 0.826 -34.191
1647.333 0.822 -34.62 0.568 55.252 0.568 55.252 0.822 -34.62
1672.292 0.817 -35.045 0.574 54.825 0.574 54.825 0.817 -35.045
1697.25 0.813 -35.467 0.58 54.401 0.58 54.401 0.813 -35.467
1722.208 0.809 -35.886 0.586 53.98 0.586 53.98 0.809 -35.886
1747.167 0.805 -36.301 0.592 53.563 0.592 53.563 0.805 -36.301
1772.125 0.8 -36.713 0.598 53.149 0.598 53.149 0.8 -36.713
1797.083 0.796 -37.121 0.604 52.739 0.604 52.739 0.796 -37.121
1822.042 0.792 -37.527 0.609 52.331 0.609 52.331 0.792 -37.527
1847 0.787 -37.928 0.615 51.927 0.615 51.927 0.787 -37.928
1871.958 0.783 -38.327 0.62 51.527 0.62 51.527 0.783 -38.327
1896.917 0.779 -38.722 0.626 51.13 0.626 51.13 0.779 -38.722
1921.875 0.774 -39.114 0.631 50.736 0.631 50.736 0.774 -39.114
1946.833 0.77 -39.503 0.636 50.345 0.636 50.345 0.77 -39.503
1971.792 0.766 -39.888 0.641 49.957 0.641 49.957 0.766 -39.888
1996.75 0.761 -40.27 0.646 49.573 0.646 49.573 0.761 -40.27
2021.708 0.757 -40.649 0.651 49.192 0.651 49.192 0.757 -40.649
2046.667 0.753 -41.025 0.656 48.814 0.656 48.814 0.753 -41.025
2071.625 0.748 -41.398 0.661 48.439 0.661 48.439 0.748 -41.398
2096.583 0.744 -41.767 0.666 48.067 0.666 48.067 0.744 -41.767
2121.542 0.74 -42.134 0.671 47.699 0.671 47.699 0.74 -42.134
2146.5 0.735 -42.497 0.676 47.334 0.676 47.334 0.735 -42.497
2171.458 0.731 -42.857 0.68 46.971 0.68 46.971 0.731 -42.857
2196.417 0.727 -43.214 0.685 46.612 0.685 46.612 0.727 -43.214
2221.375 0.722 -43.568 0.689 46.256 0.689 46.256 0.722 -43.568
2246.333 0.718 -43.919 0.694 45.902 0.694 45.902 0.718 -43.919
2271.292 0.714 -44.267 0.698 45.552 0.698 45.552 0.714 -44.267
2296.25 0.71 -44.613 0.702 45.205 0.702 45.205 0.71 -44.613
2321.208 0.705 -44.955 0.707 44.86 0.707 44.86 0.705 -44.955
2346.167 0.701 -45.294 0.711 44.519 0.711 44.519 0.701 -45.294
2371.125 0.697 -45.63 0.715 44.18 0.715 44.18 0.697 -45.63
2396.083 0.693 -45.964 0.719 43.845 0.719 43.845 0.693 -45.964
2421.042 0.689 -46.294 0.723 43.512 0.723 43.512 0.689 -46.294
2446 0.684 -46.622 0.727 43.182 0.727 43.182 0.684 -46.622
2470.958 0.68 -46.947 0.731 42.855 0.731 42.855 0.68 -46.947
2495.917 0.676 -47.269 0.735 42.53 0.735 42.53 0.676 -47.269
2520.875 0.672 -47.589 0.738 42.208 0.738 42.208 0.672 -47.589
2545.833 0.668 -47.905 0.742 41.889 0.742 41.889 0.668 -47.905
2570.792 0.664 -48.219 0.746 41.573 0.746 41.573 0.664 -48.219
2595.75 0.659 -48.531 0.749 41.26 0.749 41.26 0.659 -48.531
2620.708 0.655 -48.84 0.753 40.948 0.753 40.948 0.655 -48.84
2645.667 0.651 -49.146 0.756 40.64 0.756 40.64 0.651 -49.146
2670.625 0.647 -49.449 0.76 40.334 0.76 40.334 0.647 -49.449
2695.583 0.643 -49.75 0.763 40.031 0.763 40.031 0.643 -49.75
2720.542 0.639 -50.048 0.767 39.73 0.767 39.73 0.639 -50.048
2745.5 0.635 -50.344 0.77 39.432 0.77 39.432 0.635 -50.344
2770.458 0.631 -50.637 0.773 39.137 0.773 39.137 0.631 -50.637
2795.417 0.627 -50.928 0.776 38.843 0.776 38.843 0.627 -50.928
2820.375 0.623 -51.217 0.78 38.553 0.78 38.553 0.623 -51.217
2845.333 0.619 -51.503 0.783 38.264 0.783 38.264 0.619 -51.503
2870.292 0.615 -51.786 0.786 37.978 0.786 37.978 0.615 -51.786
2895.25 0.611 -52.067 0.789 37.695 0.789 37.695 0.611 -52.067
2920.208 0.608 -52.346 0.792 37.413 0.792 37.413 0.608 -52.346
2945.167 0.604 -52.623 0.795 37.134 0.795 37.134 0.604 -52.623
2970.125 0.6 -52.897 0.798 36.858 0.798 36.858 0.6 -52.897
2995.083 0.596 -53.169 0.8 36.583 0.8 36.583 0.596 -53.169
3020.042 0.592 -53.438 0.803 36.311 0.803 36.311 0.592 -53.438
3045 0.588 -53.706 0.806 36.041 0.806 36.041 0.588 -53.706
3069.958 0.585 -53.971 0.809 35.774 0.809 35.774 0.585 -53.971
3094.917 0.581 -54.234 0.811 35.508 0.811 35.508 0.581 -54.234
3119.875 0.577 -54.495 0.814 35.245 0.814 35.245 0.577 -54.495
3144.833 0.573 -54.754 0.817 34.983 0.817 34.983 0.573 -54.754
3169.792 0.57 -55.01 0.819 34.724 0.819 34.724 0.57 -55.01
3194.75 0.566 -55.265 0.822 34.467 0.822 34.467 0.566 -55.265
3219.708 0.562 -55.517 0.824 34.212 0.824 34.212 0.562 -55.517
3244.667 0.559 -55.768 0.827 33.959 0.827 33.959 0.559 -55.768
3269.625 0.555 -56.016 0.829 33.708 0.829 33.708 0.555 -56.016
3294.583 0.551 -56.262 0.832 33.459 0.832 33.459 0.551 -56.262
3319.542 0.548 -56.507 0.834 33.212 0.834 33.212 0.548 -56.507
3344.5 0.544 -56.749 0.836 32.967 0.836 32.967 0.544 -56.749
3369.458 0.541 -56.989 0.839 32.724 0.839 32.724 0.541 -56.989
3394.417 0.537 -57.228 0.841 32.483 0.841 32.483 0.537 -57.228
3419.375 0.534 -57.465 0.843 32.244 0.843 32.244 0.534 -57.465
3444.333 0.53 -57.699 0.845 32.006 0.845 32.006 0.53 -57.699
3469.292 0.527 -57.932 0.847 31.771 0.847 31.771 0.527 -57.932
3494.25 0.523 -58.163 0.85 31.537 0.85 31.537 0.523 -58.163
3519.208 0.52 -58.392 0.852 31.305 0.852 31.305 0.52 -58.392
3544.167 0.516 -58.62 0.854 31.075 0.854 31.075 0.516 -58.62
3569.125 0.513 -58.845 0.856 30.847 0.856 30.847 0.513 -58.845
3594.083 0.509 -59.069 0.858 30.62 0.858 30.62 0.509 -59.069
3619.042 0.506 -59.291 0.86 30.395 0.86 30.395 0.506 -59.291
3644 0.503 -59.512 0.862 30.172 0.862 30.172 0.503 -59.512
3668.958 0.499 -59.731 0.864 29.95 0.864 29.95 0.499 -59.731
3693.917 0.496 -59.948 0.866 29.73 0.866 29.73 0.496 -59.948
3718.875 0.493 -60.163 0.867 29.512 0.867 29.512 0.493 -60.163
3743.833 0.489 -60.377 0.869 29.296 0.869 29.296 0.489 -60.377
3768.792 0.486 -60.589 0.871 29.081 0.871 29.081 0.486 -60.589
3793.75 0.483 -60.799 0.873 28.867 0.873 28.867 0.483 -60.799
3818.708 0.48 -61.008 0.875 28.655 0.875 28.655 0.48 -61.008
3843.667 0.476 -61.215 0.876 28.445 0.876 28.445 0.476 -61.215
3868.625 0.473 -61.421 0.878 28.236 0.878 28.236 0.473 -61.421
3893.583 0.47 -61.625 0.88 28.029 0.88 28.029 0.47 -61.625
3918.542 0.467 -61.828 0.882 27.824 0.882 27.824 0.467 -61.828
3943.5 0.464 -62.029 0.883 27.619 0.883 27.619 0.464 -62.029
3968.458 0.46 -62.229 0.885 27.417 0.885 27.417 0.46 -62.229
3993.417 0.457 -62.427 0.886 27.215 0.886 27.215 0.457 -62.427
4018.375 0.454 -62.624 0.888 27.016 0.888 27.016 0.454 -62.624
4043.333 0.451 -62.819 0.89 26.817 0.89 26.817 0.451 -62.819
4068.292 0.448 -63.013 0.891 26.62 0.891 26.62 0.448 -63.013
4093.25 0.445 -63.205 0.893 26.425 0.893 26.425 0.445 -63.205
4118.208 0.442 -63.396 0.894 26.231 0.894 26.231 0.442 -63.396
4143.167 0.439 -63.586 0.896 26.038 0.896 26.038 0.439 -63.586
4168.125 0.436 -63.774 0.897 25.846 0.897 25.846 0.436 -63.774
4193.083 0.433 -63.961 0.899 25.656 0.899 25.656 0.433 -63.961
4218.042 0.43 -64.147 0.9 25.467 0.9 25.467 0.43 -64.147
4243 0.427 -64.331 0.901 25.28 0.901 25.28 0.427 -64.331
4267.958 0.424 -64.514 0.903 25.093 0.903 25.093 0.424 -64.514
4292.917 0.421 -64.695 0.904 24.908 0.904 24.908 0.421 -64.695
4317.875 0.418 -64.876 0.905 24.725 0.905 24.725 0.418 -64.876
4342.833 0.415 -65.055 0.907 24.542 0.907 24.542 0.415 -65.055
4367.792 0.412 -65.233 0.908 24.361 0.908 24.361 0.412 -65.233
4392.75 0.41 -65.409 0.909 24.181 0.909 24.181 0.41 -65.409
4417.708 0.407 -65.585 0.911 24.002 0.911 24.002 0.407 -65.585
4442.667 0.404 -65.759 0.912 23.825 0.912 23.825 0.404 -65.759
4467.625 0.401 -65.932 0.913 23.648 0.913 23.648 0.401 -65.932
4492.583 0.398 -66.103 0.914 23.473 0.914 23.473 0.398 -66.103
4517.542 0.396 -66.274 0.916 23.299 0.916 23.299 0.396 -66.274
4542.5 0.393 -66.443 0.917 23.126 0.917 23.126 0.393 -66.443
4567.458 0.39 -66.612 0.918 22.954 0.918 22.954 0.39 -66.612
4592.417 0.387 -66.779 0.919 22.783 0.919 22.783 0.387 -66.779
4617.375 0.385 -66.945 0.92 22.614 0.92 22.614 0.385 -66.945
4642.333 0.382 -67.11 0.921 22.445 0.921 22.445 0.382 -67.11
4667.292 0.379 -67.273 0.922 22.278 0.922 22.278 0.379 -67.273
4692.25 0.376 -67.436 0.923 22.111 0.923 22.111 0.376 -67.436
4717.208 0.374 -67.597 0.925 21.946 0.925 21.946 0.374 -67.597
4742.167 0.371 -67.758 0.926 21.782 0.926 21.782 0.371 -67.758
4767.125 0.368 -67.917 0.927 21.619 0.927 21.619 0.368 -67.917
4792.083 0.366 -68.076 0.928 21.456 0.928 21.456 0.366 -68.076
4817.042 0.363 -68.233 0.929 21.295 0.929 21.295 0.363 -68.233
4842 0.361 -68.389 0.93 21.135 0.93 21.135 0.361 -68.389
4866.958 0.358 -68.545 0.931 20.976 0.931 20.976 0.358 -68.545
4891.917 0.355 -68.699 0.932 20.817 0.932 20.817 0.355 -68.699
4916.875 0.353 -68.852 0.933 20.66 0.933 20.66 0.353 -68.852
4941.833 0.35 -69.004 0.934 20.504 0.934 20.504 0.35 -69.004
4966.792 0.348 -69.156 0.935 20.349 0.935 20.349 0.348 -69.156
4991.75 0.345 -69.306 0.936 20.194 0.936 20.194 0.345 -69.306
5016.708 0.343 -69.455 0.936 20.041 0.936 20.041 0.343 -69.455
5041.667 0.34 -69.603 0.937 19.888 0.937 19.888 0.34 -69.603
5066.625 0.338 -69.751 0.938 19.736 0.938 19.736 0.338 -69.751
5091.583 0.335 -69.897 0.939 19.586 0.939 19.586 0.335 -69.897
5116.542 0.333 -70.043 0.94 19.436 0.94 19.436 0.333 -70.043
5141.5 0.33 -70.188 0.941 19.287 0.941 19.287 0.33 -70.188
5166.458 0.328 -70.331 0.942 19.139 0.942 19.139 0.328 -70.331
5191.417 0.325 -70.474 0.943 18.992 0.943 18.992 0.325 -70.474
5216.375 0.323 -70.616 0.943 18.845 0.943 18.845 0.323 -70.616
5241.333 0.321 -70.757 0.944 18.7 0.944 18.7 0.321 -70.757
5266.292 0.318 -70.897 0.945 18.555 0.945 18.555 0.318 -70.897
5291.25 0.316 -71.036 0.946 18.411 0.946 18.411 0.316 -71.036
5316.208 0.313 -71.175 0.947 18.268 0.947 18.268 0.313 -71.175
5341.167 0.311 -71.312 0.947 18.126 0.947 18.126 0.311 -71.312
5366.125 0.309 -71.449 0.948 17.984 0.948 17.984 0.309 -71.449
5391.083 0.306 -71.585 0.949 17.844 0.949 17.844 0.306 -71.585
5416.042 0.304 -71.72 0.95 17.704 0.95 17.704 0.304 -71.72
5441 0.302 -71.854 0.95 17.565 0.95 17.565 0.302 -71.854
5465.958 0.299 -71.988 0.951 17.426 0.951 17.426 0.299 -71.988
5490.917 0.297 -72.12 0.952 17.289 0.952 17.289 0.297 -72.12
5515.875 0.295 -72.252 0.952 17.152 0.952 17.152 0.295 -72.252
5540.833 0.293 -72.383 0.953 17.016 0.953 17.016 0.293 -72.383
5565.792 0.29 -72.513 0.954 16.881 0.954 16.881 0.29 -72.513
5590.75 0.288 -72.643 0.955 16.746 0.955 16.746 0.288 -72.643
5615.708 0.286 -72.771 0.955 16.612 0.955 16.612 0.286 -72.771
5640.667 0.284 -72.899 0.956 16.479 0.956 16.479 0.284 -72.899
5665.625 0.281 -73.026 0.956 16.347 0.956 16.347 0.281 -73.026
5690.583 0.279 -73.153 0.957 16.215 0.957 16.215 0.279 -73.153
5715.542 0.277 -73.278 0.958 16.084 0.958 16.084 0.277 -73.278
5740.5 0.275 -73.403 0.958 15.954 0.958 15.954 0.275 -73.403
5765.458 0.273 -73.527 0.959 15.824 0.959 15.824 0.273 -73.527
5790.417 0.271 -73.65 0.96 15.695 0.96 15.695 0.271 -73.65
5815.375 0.268 -73.773 0.96 15.567 0.96 15.567 0.268 -73.773
5840.333 0.266 -73.895 0.961 15.439 0.961 15.439 0.266 -73.895
5865.292 0.264 -74.016 0.961 15.312 0.961 15.312 0.264 -74.016
5890.25 0.262 -74.137 0.962 15.186 0.962 15.186 0.262 -74.137
5915.208 0.26 -74.256 0.963 15.06 0.963 15.06 0.26 -74.256
5940.167 0.258 -74.376 0.963 14.935 0.963 14.935 0.258 -74.376
5965.125 0.256 -74.494 0.964 14.811 0.964 14.811 0.256 -74.494
5990.083 0.254 -74.612 0.964 14.687 0.964 14.687 0.254 -74.612
6015.042 0.251 -74.729 0.965 14.564 0.965 14.564 0.251 -74.729
6040 0.249 -74.845 0.965 14.441 0.965 14.441 0.249 -74.845
6064.958 0.247 -74.96 0.966 14.319 0.966 14.319 0.247 -74.96
6089.917 0.245 -75.075 0.966 14.198 0.966 14.198 0.245 -75.075
6114.875 0.243 -75.19 0.967 14.077 0.967 14.077 0.243 -75.19
6139.833 0.241 -75.303 0.967 13.957 0.967 13.957 0.241 -75.303
6164.792 0.239 -75.416 0.968 13.837 0.968 13.837 0.239 -75.416
6189.75 0.237 -75.528 0.968 13.718 0.968 13.718 0.237 -75.528
6214.708 0.235 -75.64 0.969 13.6 0.969 13.6 0.235 -75.64
6239.667 0.233 -75.751 0.969 13.482 0.969 13.482 0.233 -75.751
6264.625 0.231 -75.861 0.97 13.365 0.97 13.365 0.231 -75.861
6289.583 0.229 -75.971 0.97 13.248 0.97 13.248 0.229 -75.971
6314.542 0.227 -76.08 0.971 13.132 0.971 13.132 0.227 -76.08
6339.5 0.225 -76.188 0.971 13.016 0.971 13.016 0.225 -76.188
6364.458 0.223 -76.296 0.972 12.901 0.972 12.901 0.223 -76.296
6389.417 0.221 -76.403 0.972 12.786 0.972 12.786 0.221 -76.403
6414.375 0.219 -76.51 0.973 12.672 0.973 12.672 0.219 -76.51
6439.333 0.217 -76.616 0.973 12.559 0.973 12.559 0.217 -76.616
6464.292 0.216 -76.721 0.973 12.446 0.973 12.446 0.216 -76.721
6489.25 0.214 -76.826 0.974 12.333 0.974 12.333 0.214 -76.826
6514.208 0.212 -76.93 0.974 12.221 0.974 12.221 0.212 -76.93
6539.167 0.21 -77.033 0.975 12.11 0.975 12.11 0.21 -77.033
6564.125 0.208 -77.136 0.975 11.999 0.975 11.999 0.208 -77.136
6589.083 0.206 -77.238 0.975 11.888 0.975 11.888 0.206 -77.238
6614.042 0.204 -77.34 0.976 11.778 0.976 11.778 0.204 -77.34
6639 0.202 -77.441 0.976 11.669 0.976 11.669 0.202 -77.441
6663.958 0.2 -77.541 0.977 11.56 0.977 11.56 0.2 -77.541
6688.917 0.199 -77.641 0.977 11.451 0.977 11.451 0.199 -77.641
6713.875 0.197 -77.74 0.977 11.343 0.977 11.343 0.197 -77.74
6738.833 0.195 -77.838 0.978 11.236 0.978 11.236 0.195 -77.838
6763.792 0.193 -77.936 0.978 11.129 0.978 11.129 0.193 -77.936
6788.75 0.191 -78.034 0.978 11.022 0.978 11.022 0.191 -78.034
6813.708 0.189 -78.13 0.979 10.916 0.979 10.916 0.189 -78.13
6838.667 0.188 -78.227 0.979 10.81 0.979 10.81 0.188 -78.227
6863.625 0.186 -78.322 0.979 10.705 0.979 10.705 0.186 -78.322
6888.583 0.184 -78.417 0.98 10.6 0.98 10.6 0.184 -78.417
6913.542 0.182 -78.511 0.98 10.496 0.98 10.496 0.182 -78.511
6938.5 0.18 -78.605 0.98 10.392 0.98 10.392 0.18 -78.605
6963.458 0.179 -78.698 0.981 10.288 0.981 10.288 0.179 -78.698
6988.417 0.177 -78.791 0.981 10.185 0.981 10.185 0.177 -78.791
7013.375 0.175 -78.883 0.981 10.083 0.981 10.083 0.175 -78.883
7038.333 0.173 -78.974 0.982 9.981 0.982 9.981 0.173 -78.974
7063.292 0.172 -79.065 0.982 9.879 0.982 9.879 0.172 -79.065
7088.25 0.17 -79.155 0.982 9.777 0.982 9.777 0.17 -79.155
7113.208 0.168 -79.245 0.983 9.676 0.983 9.676 0.168 -79.245
7138.167 0.166 -79.334 0.983 9.576 0.983 9.576 0.166 -79.334
7163.125 0.165 -79.422 0.983 9.476 0.983 9.476 0.165 -79.422
7188.083 0.163 -79.51 0.983 9.376 0.983 9.376 0.163 -79.51
7213.042 0.161 -79.597 0.984 9.277 0.984 9.277 0.161 -79.597
7238 0.16 -79.684 0.984 9.178 0.984 9.178 0.16 -79.684
7262.958 0.158 -79.77 0.984 9.079 0.984 9.079 0.158 -79.77
7287.917 0.156 -79.855 0.985 8.981 0.985 8.981 0.156 -79.855
7312.875 0.154 -79.94 0.985 8.883 0.985 8.883 0.154 -79.94
7337.833 0.153 -80.024 0.985 8.786 0.985 8.786 0.153 -80.024
7362.792 0.151 -80.108 0.985 8.689 0.985 8.689 0.151 -80.108
7387.75 0.149 -80.191 0.986 8.592 0.986 8.592 0.149 -80.191
7412.708 0.148 -80.273 0.986 8.496 0.986 8.496 0.148 -80.273
7437.667 0.146 -80.355 0.986 8.4 0.986 8.4 0.146 -80.355
7462.625 0.144 -80.436 0.986 8.305 0.986 8.305 0.144 -80.436
7487.583 0.143 -80.516 0.987 8.209 0.987 8.209 0.143 -80.516
7512.542 0.141 -80.596 0.987 8.115 0.987 8.115 0.141 -80.596
7537.5 0.14 -80.675 0.987 8.02 0.987 8.02 0.14 -80.675
7562.458 0.138 -80.753 0.987 7.926 0.987 7.926 0.138 -80.753
7587.417 0.136 -80.831 0.987 7.832 0.987 7.832 0.136 -80.831
7612.375 0.135 -80.908 0.988 7.739 0.988 7.739 0.135 -80.908
7637.333 0.133 -80.984 0.988 7.646 0.988 7.646 0.133 -80.984
7662.292 0.131 -81.06 0.988 7.553 0.988 7.553 0.131 -81.06
7687.25 0.13 -81.135 0.988 7.461 0.988 7.461 0.13 -81.135
7712.208 0.128 -81.209 0.989 7.369 0.989 7.369 0.128 -81.209
7737.167 0.127 -81.283 0.989 7.277 0.989 7.277 0.127 -81.283
7762.125 0.125 -81.356 0.989 7.186 0.989 7.186 0.125 -81.356
7787.083 0.124 -81.428 0.989 7.095 0.989 7.095 0.124 -81.428
7812.042 0.122 -81.499 0.989 7.004 0.989 7.004 0.122 -81.499
7837 0.12 -81.57 0.99 6.914 0.99 6.914 0.12 -81.57
7861.958 0.119 -81.64 0.99 6.824 0.99 6.824 0.119 -81.64
7886.917 0.117 -81.709 0.99 6.734 0.99 6.734 0.117 -81.709
7911.875 0.116 -81.777 0.99 6.645 0.99 6.645 0.116 -81.777
7936.833 0.114 -81.844 0.99 6.556 0.99 6.556 0.114 -81.844
7961.792 0.113 -81.911 0.99 6.467 0.99 6.467 0.113 -81.911
7986.75 0.111 -81.977 0.991 6.378 0.991 6.378 0.111 -81.977
8011.708 0.11 -82.042 0.991 6.29 0.991 6.29 0.11 -82.042
8036.667 0.108 -82.106 0.991 6.202 0.991 6.202 0.108 -82.106
8061.625 0.107 -82.169 0.991 6.115 0.991 6.115 0.107 -82.169
8086.583 0.105 -82.231 0.991 6.027 0.991 6.027 0.105 -82.231
8111.542 0.104 -82.292 0.991 5.94 0.991 5.94 0.104 -82.292
8136.5 0.102 -82.353 0.992 5.854 0.992 5.854 0.102 -82.353
8161.458 0.101 -82.412 0.992 5.767 0.992 5.767 0.101 -82.412
