# MHZ S MA R 50

50 0.997 -4.133 0.072 85.863 0.072 85.863 0.997 -4.133
74.958 0.994 -6.184 0.108 83.81 0.108 83.81 0.994 -6.184
99.917 0.99 -8.219 0.143 81.772 0.143 81.772 0.99 -8.219
124.875 0.984 -10.235 0.178 79.754 0.178 79.754 0.984 -10.235
149.833 0.977 -12.228 0.212 77.76 0.212 77.76 0.977 -12.228
174.792 0.969 -14.192 0.245 75.793 0.245 75.793 0.969 -14.192
199.75 0.961 -16.125 0.278 73.859 0.278 73.859 0.961 -16.125
224.708 0.951 -18.022 0.309 71.959 0.309 71.959 0.951 -18.022
249.667 0.94 -19.883 0.34 70.096 0.34 70.096 0.94 -19.883
274.625 0.929 -21.703 0.37 68.274 0.37 68.274 0.929 -21.703
299.583 0.917 -23.481 0.398 66.494 0.398 66.494 0.917 -23.481
324.542 0.905 -25.215 0.426 64.758 0.426 64.758 0.905 -25.215
349.5 0.892 -26.904 0.452 63.067 0.452 63.067 0.892 -26.904
374.458 0.878 -28.547 0.478 61.421 0.478 61.421 0.878 -28.547
399.417 0.864 -30.144 0.502 59.822 0.502 59.822 0.864 -30.144
424.375 0.851 -31.694 0.525 58.27 0.525 58.27 0.851 -31.694
449.333 0.836 -33.198 0.548 56.764 0.548 56.764 0.836 -33.198
474.292 0.822 -34.655 0.569 55.305 0.569 55.305 0.822 -34.655
499.25 0.808 -36.067 0.589 53.891 0.589 53.891 0.808 -36.067
524.208 0.794 -37.434 0.608 52.522 0.608 52.522 0.794 -37.434
549.167 0.779 -38.756 0.626 51.198 0.626 51.198 0.779 -38.756
574.125 0.765 -40.035 0.643 49.917 0.643 49.917 0.765 -40.035
599.083 0.751 -41.271 0.66 48.678 0.66 48.678 0.751 -41.271
624.042 0.737 -42.467 0.675 47.48 0.675 47.48 0.737 -42.467
649 0.723 -43.622 0.69 46.322 0.69 46.322 0.723 -43.622
673.958 0.71 -44.739 0.704 45.204 0.704 45.204 0.71 -44.739
698.917 0.696 -45.818 0.717 44.122 0.717 44.122 0.696 -45.818
723.875 0.683 -46.861 0.73 43.077 0.73 43.077 0.683 -46.861
748.833 0.67 -47.869 0.742 42.066 0.742 42.066 0.67 -47.869
773.792 0.657 -48.844 0.753 41.09 0.753 41.09 0.657 -48.844
798.75 0.645 -49.786 0.764 40.146 0.764 40.146 0.645 -49.786
823.708 0.632 -50.696 0.774 39.233 0.774 39.233 0.632 -50.696
848.667 0.62 -51.577 0.783 38.35 0.783 38.35 0.62 -51.577
873.625 0.609 -52.429 0.793 37.496 0.793 37.496 0.609 -52.429
898.583 0.597 -53.253 0.801 36.669 0.801 36.669 0.597 -53.253
923.542 0.586 -54.051 0.81 35.869 0.81 35.869 0.586 -54.051
948.5 0.575 -54.823 0.817 35.095 0.817 35.095 0.575 -54.823
973.458 0.564 -55.57 0.825 34.345 0.825 34.345 0.564 -55.57
998.417 0.554 -56.294 0.832 33.618 0.832 33.618 0.554 -56.294
1023.375 0.543 -56.996 0.839 32.915 0.839 32.915 0.543 -56.996
1048.333 0.533 -57.676 0.845 32.232 0.845 32.232 0.533 -57.676
1073.292 0.524 -58.335 0.851 31.571 0.851 31.571 0.524 -58.335
1098.25 0.514 -58.974 0.857 30.929 0.857 30.929 0.514 -58.974
1123.208 0.505 -59.595 0.862 30.306 0.862 30.306 0.505 -59.595
1148.167 0.495 -60.197 0.868 29.702 0.868 29.702 0.495 -60.197
1173.125 0.487 -60.781 0.873 29.115 0.873 29.115 0.487 -60.781
1198.083 0.478 -61.349 0.878 28.545 0.878 28.545 0.478 -61.349
1223.042 0.469 -61.9 0.882 27.991 0.882 27.991 0.469 -61.9
1248 0.461 -62.436 0.886 27.453 0.886 27.453 0.461 -62.436
1272.958 0.453 -62.957 0.891 26.929 0.891 26.929 0.453 -62.957
1297.917 0.445 -63.463 0.895 26.42 0.895 26.42 0.445 -63.463
1322.875 0.437 -63.956 0.898 25.925 0.898 25.925 0.437 -63.956
1347.833 0.43 -64.436 0.902 25.442 0.902 25.442 0.43 -64.436
1372.792 0.422 -64.903 0.906 24.973 0.906 24.973 0.422 -64.903
1397.75 0.415 -65.358 0.909 24.515 0.909 24.515 0.415 -65.358
1422.708 0.408 -65.801 0.912 24.07 0.912 24.07 0.408 -65.801
1447.667 0.401 -66.233 0.915 23.635 0.915 23.635 0.401 -66.233
1472.625 0.394 -66.653 0.918 23.212 0.918 23.212 0.394 -66.653
1497.583 0.387 -67.064 0.921 22.798 0.921 22.798 0.387 -67.064
1522.542 0.381 -67.464 0.924 22.395 0.924 22.395 0.381 -67.464
1547.5 0.375 -67.855 0.926 22.002 0.926 22.002 0.375 -67.855
1572.458 0.368 -68.236 0.929 21.618 0.929 21.618 0.368 -68.236
1597.417 0.362 -68.609 0.931 21.243 0.931 21.243 0.362 -68.609
1622.375 0.356 -68.972 0.933 20.876 0.933 20.876 0.356 -68.972
1647.333 0.351 -69.327 0.936 20.518 0.936 20.518 0.351 -69.327
1672.292 0.345 -69.675 0.938 20.168 0.938 20.168 0.345 -69.675
1697.25 0.339 -70.014 0.94 19.826 0.94 19.826 0.339 -70.014
1722.208 0.334 -70.346 0.942 19.491 0.942 19.491 0.334 -70.346
1747.167 0.328 -70.671 0.944 19.163 0.944 19.163 0.328 -70.671
1772.125 0.323 -70.988 0.945 18.842 0.945 18.842 0.323 -70.988
1797.083 0.318 -71.299 0.947 18.528 0.947 18.528 0.318 -71.299
1822.042 0.313 -71.603 0.949 18.221 0.949 18.221 0.313 -71.603
1847 0.308 -71.901 0.951 17.92 0.951 17.92 0.308 -71.901
1871.958 0.303 -72.193 0.952 17.625 0.952 17.625 0.303 -72.193
1896.917 0.298 -72.479 0.954 17.336 0.954 17.336 0.298 -72.479
1921.875 0.293 -72.759 0.955 17.052 0.955 17.052 0.293 -72.759
1946.833 0.289 -73.034 0.956 16.775 0.956 16.775 0.289 -73.034
1971.792 0.284 -73.303 0.958 16.502 0.958 16.502 0.284 -73.303
1996.75 0.28 -73.567 0.959 16.235 0.959 16.235 0.28 -73.567
2021.708 0.275 -73.826 0.96 15.972 0.96 15.972 0.275 -73.826
2046.667 0.271 -74.08 0.962 15.715 0.962 15.715 0.271 -74.08
2071.625 0.267 -74.329 0.963 15.462 0.963 15.462 0.267 -74.329
2096.583 0.262 -74.574 0.964 15.213 0.964 15.213 0.262 -74.574
2121.542 0.258 -74.814 0.965 14.969 0.965 14.969 0.258 -74.814
2146.5 0.254 -75.05 0.966 14.73 0.966 14.73 0.254 -75.05
2171.458 0.25 -75.282 0.967 14.494 0.967 14.494 0.25 -75.282
2196.417 0.246 -75.51 0.968 14.263 0.968 14.263 0.246 -75.51
2221.375 0.243 -75.733 0.969 14.035 0.969 14.035 0.243 -75.733
2246.333 0.239 -75.953 0.97 13.812 0.97 13.812 0.239 -75.953
2271.292 0.235 -76.169 0.971 13.592 0.971 13.592 0.235 -76.169
2296.25 0.231 -76.382 0.972 13.375 0.972 13.375 0.231 -76.382
2321.208 0.228 -76.591 0.973 13.162 0.973 13.162 0.228 -76.591
2346.167 0.224 -76.796 0.974 12.952 0.974 12.952 0.224 -76.796
2371.125 0.221 -76.998 0.974 12.746 0.974 12.746 0.221 -76.998
2396.083 0.217 -77.197 0.975 12.543 0.975 12.543 0.217 -77.197
2421.042 0.214 -77.393 0.976 12.343 0.976 12.343 0.214 -77.393
2446 0.21 -77.586 0.977 12.146 0.977 12.146 0.21 -77.586
2470.958 0.207 -77.775 0.977 11.952 0.977 11.952 0.207 -77.775
2495.917 0.204 -77.962 0.978 11.76 0.978 11.76 0.204 -77.962
2520.875 0.201 -78.146 0.979 11.572 0.979 11.572 0.201 -78.146
2545.833 0.197 -78.327 0.979 11.386 0.979 11.386 0.197 -78.327
2570.792 0.194 -78.505 0.98 11.203 0.98 11.203 0.194 -78.505
2595.75 0.191 -78.681 0.981 11.022 0.981 11.022 0.191 -78.681
2620.708 0.188 -78.854 0.981 10.844 0.981 10.844 0.188 -78.854
2645.667 0.185 -79.024 0.982 10.669 0.982 10.669 0.185 -79.024
2670.625 0.182 -79.192 0.982 10.495 0.982 10.495 0.182 -79.192
2695.583 0.179 -79.358 0.983 10.324 0.983 10.324 0.179 -79.358
2720.542 0.176 -79.521 0.983 10.156 0.983 10.156 0.176 -79.521
2745.5 0.173 -79.682 0.984 9.989 0.984 9.989 0.173 -79.682
2770.458 0.171 -79.841 0.984 9.825 0.984 9.825 0.171 -79.841
2795.417 0.168 -79.998 0.985 9.663 0.985 9.663 0.168 -79.998
2820.375 0.165 -80.152 0.985 9.502 0.985 9.502 0.165 -80.152
2845.333 0.162 -80.304 0.986 9.344 0.986 9.344 0.162 -80.304
2870.292 0.16 -80.455 0.986 9.188 0.986 9.188 0.16 -80.455
2895.25 0.157 -80.603 0.987 9.033 0.987 9.033 0.157 -80.603
2920.208 0.154 -80.749 0.987 8.881 0.987 8.881 0.154 -80.749
2945.167 0.152 -80.893 0.987 8.73 0.987 8.73 0.152 -80.893
2970.125 0.149 -81.036 0.988 8.581 0.988 8.581 0.149 -81.036
2995.083 0.147 -81.176 0.988 8.434 0.988 8.434 0.147 -81.176
3020.042 0.144 -81.315 0.989 8.288 0.989 8.288 0.144 -81.315
3045 0.142 -81.451 0.989 8.145 0.989 8.145 0.142 -81.451
3069.958 0.139 -81.586 0.989 8.002 0.989 8.002 0.139 -81.586
3094.917 0.137 -81.72 0.99 7.862 0.99 7.862 0.137 -81.72
3119.875 0.134 -81.851 0.99 7.722 0.99 7.722 0.134 -81.851
3144.833 0.132 -81.981 0.99 7.585 0.99 7.585 0.132 -81.981
3169.792 0.13 -82.109 0.991 7.449 0.991 7.449 0.13 -82.109
3194.75 0.127 -82.236 0.991 7.314 0.991 7.314 0.127 -82.236
3219.708 0.125 -82.361 0.991 7.18 0.991 7.18 0.125 -82.361
3244.667 0.123 -82.484 0.991 7.048 0.991 7.048 0.123 -82.484
3269.625 0.12 -82.606 0.992 6.918 0.992 6.918 0.12 -82.606
3294.583 0.118 -82.726 0.992 6.789 0.992 6.789 0.118 -82.726
3319.542 0.116 -82.844 0.992 6.661 0.992 6.661 0.116 -82.844
3344.5 0.114 -82.961 0.993 6.534 0.993 6.534 0.114 -82.961
3369.458 0.112 -83.077 0.993 6.408 0.993 6.408 0.112 -83.077
3394.417 0.109 -83.191 0.993 6.284 0.993 6.284 0.109 -83.191
3419.375 0.107 -83.303 0.993 6.161 0.993 6.161 0.107 -83.303
3444.333 0.105 -83.414 0.993 6.039 0.993 6.039 0.105 -83.414
3469.292 0.103 -83.524 0.994 5.918 0.994 5.918 0.103 -83.524
3494.25 0.101 -83.632 0.994 5.798 0.994 5.798 0.101 -83.632
3519.208 0.099 -83.739 0.994 5.68 0.994 5.68 0.099 -83.739
3544.167 0.097 -83.844 0.994 5.562 0.994 5.562 0.097 -83.844
3569.125 0.095 -83.948 0.994 5.446 0.994 5.446 0.095 -83.948
3594.083 0.093 -84.05 0.995 5.33 0.995 5.33 0.093 -84.05
3619.042 0.091 -84.151 0.995 5.216 0.995 5.216 0.091 -84.151
3644 0.089 -84.25 0.995 5.103 0.995 5.103 0.089 -84.25
3668.958 0.087 -84.348 0.995 4.99 0.995 4.99 0.087 -84.348
3693.917 0.085 -84.444 0.995 4.879 0.995 4.879 0.085 -84.444
3718.875 0.083 -84.539 0.996 4.768 0.996 4.768 0.083 -84.539
3743.833 0.081 -84.632 0.996 4.658 0.996 4.658 0.081 -84.632
3768.792 0.079 -84.724 0.996 4.55 0.996 4.55 0.079 -84.724
3793.75 0.077 -84.814 0.996 4.442 0.996 4.442 0.077 -84.814
3818.708 0.076 -84.902 0.996 4.335 0.996 4.335 0.076 -84.902
3843.667 0.074 -84.989 0.996 4.228 0.996 4.228 0.074 -84.989
3868.625 0.072 -85.075 0.996 4.123 0.996 4.123 0.072 -85.075
3893.583 0.07 -85.158 0.997 4.019 0.997 4.019 0.07 -85.158
3918.542 0.068 -85.24 0.997 3.915 0.997 3.915 0.068 -85.24
3943.5 0.066 -85.32 0.997 3.812 0.997 3.812 0.066 -85.32
3968.458 0.065 -85.398 0.997 3.71 0.997 3.71 0.065 -85.398
3993.417 0.063 -85.475 0.997 3.609 0.997 3.609 0.063 -85.475
4018.375 0.061 -85.549 0.997 3.508 0.997 3.508 0.061 -85.549
4043.333 0.059 -85.621 0.997 3.408 0.997 3.408 0.059 -85.621
4068.292 0.058 -85.691 0.997 3.309 0.997 3.309 0.058 -85.691
4093.25 0.056 -85.759 0.997 3.21 0.997 3.21 0.056 -85.759
4118.208 0.054 -85.824 0.998 3.113 0.998 3.113 0.054 -85.824
4143.167 0.053 -85.887 0.998 3.016 0.998 3.016 0.053 -85.887
4168.125 0.051 -85.947 0.998 2.919 0.998 2.919 0.051 -85.947
4193.083 0.049 -86.004 0.998 2.824 0.998 2.824 0.049 -86.004
4218.042 0.048 -86.058 0.998 2.728 0.998 2.728 0.048 -86.058
4243 0.046 -86.109 0.998 2.634 0.998 2.634 0.046 -86.109
4267.958 0.044 -86.157 0.998 2.54 0.998 2.54 0.044 -86.157
4292.917 0.043 -86.2 0.998 2.447 0.998 2.447 0.043 -86.2
4317.875 0.041 -86.239 0.998 2.354 0.998 2.354 0.041 -86.239
4342.833 0.039 -86.274 0.998 2.263 0.998 2.263 0.039 -86.274
4367.792 0.038 -86.304 0.998 2.171 0.998 2.171 0.038 -86.304
4392.75 0.036 -86.328 0.998 2.08 0.998 2.08 0.036 -86.328
4417.708 0.035 -86.346 0.998 1.99 0.998 1.99 0.035 -86.346
4442.667 0.033 -86.357 0.998 1.9 0.998 1.9 0.033 -86.357
4467.625 0.032 -86.361 0.998 1.811 0.998 1.811 0.032 -86.361
4492.583 0.03 -86.355 0.999 1.723 0.999 1.723 0.03 -86.355
4517.542 0.029 -86.34 0.999 1.635 0.999 1.635 0.029 -86.34
4542.5 0.027 -86.313 0.999 1.547 0.999 1.547 0.027 -86.313
4567.458 0.026 -86.272 0.999 1.46 0.999 1.46 0.026 -86.272
4592.417 0.024 -86.216 0.999 1.374 0.999 1.374 0.024 -86.216
4617.375 0.022 -86.142 0.999 1.288 0.999 1.288 0.022 -86.142
4642.333 0.021 -86.044 0.999 1.202 0.999 1.202 0.021 -86.044
4667.292 0.02 -85.92 0.999 1.117 0.999 1.117 0.02 -85.92
4692.25 0.018 -85.763 0.999 1.033 0.999 1.033 0.018 -85.763
4717.208 0.017 -85.564 0.999 0.949 0.999 0.949 0.017 -85.564
4742.167 0.015 -85.311 0.999 0.865 0.999 0.865 0.015 -85.311
4767.125 0.014 -84.989 0.999 0.782 0.999 0.782 0.014 -84.989
4792.083 0.012 -84.574 0.999 0.699 0.999 0.699 0.012 -84.574
4817.042 0.011 -84.03 0.999 0.617 0.999 0.617 0.011 -84.03
4842 9.398e-3 -83.3 0.999 0.535 0.999 0.535 9.398e-3 -83.3
4866.958 7.988e-3 -82.288 0.999 0.454 0.999 0.454 7.988e-3 -82.288
4891.917 6.59e-3 -80.817 0.999 0.373 0.999 0.373 6.59e-3 -80.817
4916.875 5.206e-3 -78.529 0.999 0.293 0.999 0.293 5.206e-3 -78.529
4941.833 3.844e-3 -74.566 0.999 0.213 0.999 0.213 3.844e-3 -74.566
4966.792 2.529e-3 -66.345 0.999 0.133 0.999 0.133 2.529e-3 -66.345
4991.75 1.376e-3 -42.76 0.999 0.054 0.999 0.054 1.376e-3 -42.76
5016.708 1.102e-3 23.61 0.999 -0.025 0.999 -0.025 1.102e-3 23.61
5041.667 2.074e-3 60.773 0.999 -0.104 0.999 -0.104 2.074e-3 60.773
5066.625 3.331e-3 72.182 0.999 -0.182 0.999 -0.182 3.331e-3 72.182
5091.583 4.642e-3 77.184 0.999 -0.26 0.999 -0.26 4.642e-3 77.184
5116.542 5.967e-3 79.926 0.999 -0.337 0.999 -0.337 5.967e-3 79.926
5141.5 7.295e-3 81.634 0.999 -0.414 0.999 -0.414 7.295e-3 81.634
5166.458 8.621e-3 82.787 0.999 -0.491 0.999 -0.491 8.621e-3 82.787
5191.417 9.944e-3 83.608 0.999 -0.567 0.999 -0.567 9.944e-3 83.608
5216.375 0.011 84.216 0.999 -0.643 0.999 -0.643 0.011 84.216
5241.333 0.013 84.679 0.999 -0.718 0.999 -0.718 0.013 84.679
5266.292 0.014 85.039 0.999 -0.793 0.999 -0.793 0.014 85.039
5291.25 0.015 85.322 0.999 -0.868 0.999 -0.868 0.015 85.322
5316.208 0.016 85.548 0.999 -0.943 0.999 -0.943 0.016 85.548
5341.167 0.018 85.729 0.999 -1.017 0.999 -1.017 0.018 85.729
5366.125 0.019 85.875 0.999 -1.091 0.999 -1.091 0.019 85.875
5391.083 0.02 85.993 0.999 -1.164 0.999 -1.164 0.02 85.993
5416.042 0.022 86.088 0.999 -1.238 0.999 -1.238 0.022 86.088
5441 0.023 86.163 0.999 -1.311 0.999 -1.311 0.023 86.163
5465.958 0.024 86.223 0.999 -1.383 0.999 -1.383 0.024 86.223
5490.917 0.025 86.27 0.999 -1.456 0.999 -1.456 0.025 86.27
5515.875 0.027 86.305 0.999 -1.528 0.999 -1.528 0.027 86.305
5540.833 0.028 86.33 0.999 -1.599 0.999 -1.599 0.028 86.33
5565.792 0.029 86.348 0.999 -1.671 0.999 -1.671 0.029 86.348
5590.75 0.03 86.357 0.999 -1.742 0.999 -1.742 0.03 86.357
5615.708 0.032 86.361 0.998 -1.813 0.998 -1.813 0.032 86.361
5640.667 0.033 86.359 0.998 -1.883 0.998 -1.883 0.033 86.359
5665.625 0.034 86.352 0.998 -1.953 0.998 -1.953 0.034 86.352
5690.583 0.035 86.34 0.998 -2.023 0.998 -2.023 0.035 86.34
5715.542 0.037 86.325 0.998 -2.093 0.998 -2.093 0.037 86.325
5740.5 0.038 86.306 0.998 -2.162 0.998 -2.162 0.038 86.306
5765.458 0.039 86.285 0.998 -2.232 0.998 -2.232 0.039 86.285
5790.417 0.04 86.26 0.998 -2.301 0.998 -2.301 0.04 86.26
5815.375 0.041 86.233 0.998 -2.369 0.998 -2.369 0.041 86.233
5840.333 0.043 86.204 0.998 -2.438 0.998 -2.438 0.043 86.204
5865.292 0.044 86.173 0.998 -2.506 0.998 -2.506 0.044 86.173
5890.25 0.045 86.14 0.998 -2.574 0.998 -2.574 0.045 86.14
5915.208 0.046 86.105 0.998 -2.641 0.998 -2.641 0.046 86.105
5940.167 0.047 86.069 0.998 -2.709 0.998 -2.709 0.047 86.069
5965.125 0.048 86.032 0.998 -2.776 0.998 -2.776 0.048 86.032
5990.083 0.05 85.993 0.998 -2.843 0.998 -2.843 0.05 85.993
6015.042 0.051 85.953 0.998 -2.909 0.998 -2.909 0.051 85.953
6040 0.052 85.912 0.998 -2.976 0.998 -2.976 0.052 85.912
6064.958 0.053 85.87 0.998 -3.042 0.998 -3.042 0.053 85.87
6089.917 0.054 85.827 0.998 -3.108 0.998 -3.108 0.054 85.827
6114.875 0.055 85.784 0.997 -3.174 0.997 -3.174 0.055 85.784
6139.833 0.057 85.739 0.997 -3.239 0.997 -3.239 0.057 85.739
6164.792 0.058 85.694 0.997 -3.305 0.997 -3.305 0.058 85.694
6189.75 0.059 85.648 0.997 -3.37 0.997 -3.37 0.059 85.648
6214.708 0.06 85.602 0.997 -3.435 0.997 -3.435 0.06 85.602
6239.667 0.061 85.555 0.997 -3.499 0.997 -3.499 0.061 85.555
6264.625 0.062 85.508 0.997 -3.564 0.997 -3.564 0.062 85.508
6289.583 0.063 85.46 0.997 -3.628 0.997 -3.628 0.063 85.46
6314.542 0.064 85.412 0.997 -3.692 0.997 -3.692 0.064 85.412
6339.5 0.066 85.363 0.997 -3.756 0.997 -3.756 0.066 85.363
6364.458 0.067 85.315 0.997 -3.819 0.997 -3.819 0.067 85.315
6389.417 0.068 85.265 0.997 -3.883 0.997 -3.883 0.068 85.265
6414.375 0.069 85.216 0.997 -3.946 0.997 -3.946 0.069 85.216
6439.333 0.07 85.166 0.997 -4.009 0.997 -4.009 0.07 85.166
6464.292 0.071 85.116 0.996 -4.072 0.996 -4.072 0.071 85.116
6489.25 0.072 85.066 0.996 -4.135 0.996 -4.135 0.072 85.066
6514.208 0.073 85.015 0.996 -4.197 0.996 -4.197 0.073 85.015
6539.167 0.074 84.964 0.996 -4.259 0.996 -4.259 0.074 84.964
6564.125 0.075 84.913 0.996 -4.321 0.996 -4.321 0.075 84.913
6589.083 0.076 84.862 0.996 -4.383 0.996 -4.383 0.076 84.862
6614.042 0.078 84.811 0.996 -4.445 0.996 -4.445 0.078 84.811
6639 0.079 84.76 0.996 -4.507 0.996 -4.507 0.079 84.76
6663.958 0.08 84.708 0.996 -4.568 0.996 -4.568 0.08 84.708
6688.917 0.081 84.657 0.996 -4.629 0.996 -4.629 0.081 84.657
6713.875 0.082 84.605 0.996 -4.69 0.996 -4.69 0.082 84.605
6738.833 0.083 84.553 0.996 -4.751 0.996 -4.751 0.083 84.553
6763.792 0.084 84.501 0.995 -4.812 0.995 -4.812 0.084 84.501
6788.75 0.085 84.45 0.995 -4.872 0.995 -4.872 0.085 84.45
6813.708 0.086 84.398 0.995 -4.932 0.995 -4.932 0.086 84.398
6838.667 0.087 84.346 0.995 -4.993 0.995 -4.993 0.087 84.346
6863.625 0.088 84.293 0.995 -5.053 0.995 -5.053 0.088 84.293
6888.583 0.089 84.241 0.995 -5.112 0.995 -5.112 0.089 84.241
6913.542 0.09 84.189 0.995 -5.172 0.995 -5.172 0.09 84.189
6938.5 0.091 84.137 0.995 -5.232 0.995 -5.232 0.091 84.137
6963.458 0.092 84.085 0.995 -5.291 0.995 -5.291 0.092 84.085
6988.417 0.093 84.032 0.995 -5.35 0.995 -5.35 0.093 84.032
7013.375 0.094 83.98 0.995 -5.409 0.995 -5.409 0.094 83.98
7038.333 0.095 83.928 0.994 -5.468 0.994 -5.468 0.095 83.928
7063.292 0.096 83.876 0.994 -5.527 0.994 -5.527 0.096 83.876
7088.25 0.097 83.823 0.994 -5.585 0.994 -5.585 0.097 83.823
7113.208 0.098 83.771 0.994 -5.644 0.994 -5.644 0.098 83.771
7138.167 0.099 83.719 0.994 -5.702 0.994 -5.702 0.099 83.719
7163.125 0.1 83.666 0.994 -5.76 0.994 -5.76 0.1 83.666
7188.083 0.101 83.614 0.994 -5.818 0.994 -5.818 0.101 83.614
7213.042 0.102 83.562 0.994 -5.876 0.994 -5.876 0.102 83.562
7238 0.103 83.51 0.994 -5.934 0.994 -5.934 0.103 83.51
7262.958 0.104 83.458 0.994 -5.992 0.994 -5.992 0.104 83.458
7287.917 0.105 83.405 0.993 -6.049 0.993 -6.049 0.105 83.405
7312.875 0.106 83.353 0.993 -6.106 0.993 -6.106 0.106 83.353
7337.833 0.107 83.301 0.993 -6.163 0.993 -6.163 0.107 83.301
7362.792 0.108 83.249 0.993 -6.22 0.993 -6.22 0.108 83.249
7387.75 0.109 83.197 0.993 -6.277 0.993 -6.277 0.109 83.197
7412.708 0.11 83.145 0.993 -6.334 0.993 -6.334 0.11 83.145
7437.667 0.111 83.093 0.993 -6.391 0.993 -6.391 0.111 83.093
7462.625 0.112 83.041 0.993 -6.447 0.993 -6.447 0.112 83.041
7487.583 0.113 82.989 0.993 -6.504 0.993 -6.504 0.113 82.989
7512.542 0.114 82.937 0.992 -6.56 0.992 -6.56 0.114 82.937
7537.5 0.115 82.885 0.992 -6.616 0.992 -6.616 0.115 82.885
7562.458 0.116 82.834 0.992 -6.672 0.992 -6.672 0.116 82.834
7587.417 0.117 82.782 0.992 -6.728 0.992 -6.728 0.117 82.782
7612.375 0.118 82.73 0.992 -6.784 0.992 -6.784 0.118 82.73
7637.333 0.119 82.679 0.992 -6.839 0.992 -6.839 0.119 82.679
7662.292 0.12 82.627 0.992 -6.895 0.992 -6.895 0.12 82.627
7687.25 0.121 82.576 0.992 -6.95 0.992 -6.95 0.121 82.576
7712.208 0.122 82.524 0.992 -7.005 0.992 -7.005 0.122 82.524
7737.167 0.123 82.473 0.991 -7.06 0.991 -7.06 0.123 82.473
7762.125 0.124 82.421 0.991 -7.115 0.991 -7.115 0.124 82.421
7787.083 0.125 82.37 0.991 -7.17 0.991 -7.17 0.125 82.37
7812.042 0.126 82.319 0.991 -7.225 0.991 -7.225 0.126 82.319
7837 0.127 82.268 0.991 -7.28 0.991 -7.28 0.127 82.268
7861.958 0.128 82.216 0.991 -7.334 0.991 -7.334 0.128 82.216
7886.917 0.129 82.165 0.991 -7.389 0.991 -7.389 0.129 82.165
7911.875 0.13 82.114 0.991 -7.443 0.991 -7.443 0.13 82.114
7936.833 0.13 82.063 0.99 -7.497 0.99 -7.497 0.13 82.063
7961.792 0.131 82.012 0.99 -7.551 0.99 -7.551 0.131 82.012
7986.75 0.132 81.962 0.99 -7.605 0.99 -7.605 0.132 81.962
8011.708 0.133 81.911 0.99 -7.659 0.99 -7.659 0.133 81.911
8036.667 0.134 81.86 0.99 -7.713 0.99 -7.713 0.134 81.86
8061.625 0.135 81.809 0.99 -7.767 0.99 -7.767 0.135 81.809
8086.583 0.136 81.759 0.99 -7.82 0.99 -7.82 0.136 81.759
8111.542 0.137 81.708 0.99 -7.874 0.99 -7.874 0.137 81.708
8136.5 0.138 81.658 0.989 -7.927 0.989 -7.927 0.138 81.658
8161.458 0.139 81.607 0.989 -7.98 0.989 -7.98 0.139 81.607
8186.417 0.14 81.557 0.989 -8.034 0.989 -8.034 0.14 81.557
8211.375 0.141 81.506 0.989 -8.087 0.989 -8.087 0.141 81.506
8236.333 0.142 81.456 0.989 -8.139 0.989 -8.139 0.142 81.456
