# MHZ S MA R 50

50 0.997 -4.491 0.078 85.504 0.078 85.504 0.997 -4.491
74.958 0.993 -6.717 0.117 83.277 0.117 83.277 0.993 -6.717
99.917 0.988 -8.923 0.155 81.068 0.155 81.068 0.988 -8.923
124.875 0.981 -11.105 0.193 78.884 0.193 78.884 0.981 -11.105
149.833 0.973 -13.256 0.229 76.731 0.229 76.731 0.973 -13.256
174.792 0.964 -15.372 0.265 74.613 0.265 74.613 0.964 -15.372
199.75 0.954 -17.448 0.3 72.535 0.3 72.535 0.954 -17.448
224.708 0.943 -19.48 0.333 70.501 0.333 70.501 0.943 -19.48
249.667 0.931 -21.466 0.366 68.513 0.366 68.513 0.931 -21.466
274.625 0.918 -23.402 0.397 66.575 0.397 66.575 0.918 -23.402
299.583 0.904 -25.286 0.427 64.689 0.427 64.689 0.904 -25.286
324.542 0.89 -27.117 0.456 62.856 0.456 62.856 0.89 -27.117
349.5 0.875 -28.893 0.483 61.077 0.483 61.077 0.875 -28.893
374.458 0.86 -30.614 0.509 59.354 0.509 59.354 0.86 -30.614
399.417 0.845 -32.281 0.534 57.685 0.534 57.685 0.845 -32.281
424.375 0.83 -33.892 0.558 56.072 0.558 56.072 0.83 -33.892
449.333 0.814 -35.449 0.58 54.513 0.58 54.513 0.814 -35.449
474.292 0.799 -36.952 0.601 53.008 0.601 53.008 0.799 -36.952
499.25 0.783 -38.402 0.621 51.555 0.621 51.555 0.783 -38.402
524.208 0.768 -39.801 0.64 50.154 0.64 50.154 0.768 -39.801
549.167 0.752 -41.149 0.658 48.804 0.658 48.804 0.752 -41.149
574.125 0.737 -42.449 0.675 47.502 0.675 47.502 0.737 -42.449
599.083 0.722 -43.701 0.691 46.247 0.691 46.247 0.722 -43.701
624.042 0.708 -44.908 0.706 45.038 0.706 45.038 0.708 -44.908
649 0.693 -46.071 0.72 43.873 0.72 43.873 0.693 -46.071
673.958 0.679 -47.191 0.734 42.751 0.734 42.751 0.679 -47.191
698.917 0.665 -48.27 0.746 41.669 0.746 41.669 0.665 -48.27
723.875 0.651 -49.31 0.758 40.627 0.758 40.627 0.651 -49.31
748.833 0.638 -50.313 0.77 39.622 0.77 39.622 0.638 -50.313
773.792 0.625 -51.28 0.78 38.653 0.78 38.653 0.625 -51.28
798.75 0.612 -52.212 0.79 37.719 0.79 37.719 0.612 -52.212
823.708 0.599 -53.111 0.8 36.817 0.8 36.817 0.599 -53.111
848.667 0.587 -53.978 0.809 35.948 0.809 35.948 0.587 -53.978
873.625 0.575 -54.815 0.817 35.108 0.817 35.108 0.575 -54.815
898.583 0.563 -55.624 0.825 34.297 0.825 34.297 0.563 -55.624
923.542 0.552 -56.405 0.833 33.514 0.833 33.514 0.552 -56.405
948.5 0.541 -57.159 0.84 32.757 0.84 32.757 0.541 -57.159
973.458 0.53 -57.888 0.847 32.026 0.847 32.026 0.53 -57.888
998.417 0.52 -58.593 0.853 31.318 0.853 31.318 0.52 -58.593
1023.375 0.51 -59.275 0.86 30.634 0.86 30.634 0.51 -59.275
1048.333 0.5 -59.935 0.865 29.972 0.865 29.972 0.5 -59.935
1073.292 0.49 -60.574 0.871 29.33 0.871 29.33 0.49 -60.574
1098.25 0.48 -61.193 0.876 28.709 0.876 28.709 0.48 -61.193
1123.208 0.471 -61.792 0.881 28.107 0.881 28.107 0.471 -61.792
1148.167 0.462 -62.374 0.886 27.523 0.886 27.523 0.462 -62.374
1173.125 0.453 -62.937 0.891 26.957 0.891 26.957 0.453 -62.937
1198.083 0.445 -63.484 0.895 26.408 0.895 26.408 0.445 -63.484
1223.042 0.436 -64.015 0.899 25.874 0.899 25.874 0.436 -64.015
1248 0.428 -64.53 0.903 25.357 0.903 25.357 0.428 -64.53
1272.958 0.42 -65.03 0.907 24.854 0.907 24.854 0.42 -65.03
1297.917 0.413 -65.516 0.91 24.365 0.91 24.365 0.413 -65.516
1322.875 0.405 -65.989 0.913 23.89 0.913 23.89 0.405 -65.989
1347.833 0.398 -66.448 0.917 23.427 0.917 23.427 0.398 -66.448
1372.792 0.39 -66.896 0.92 22.977 0.92 22.977 0.39 -66.896
1397.75 0.383 -67.331 0.923 22.54 0.923 22.54 0.383 -67.331
1422.708 0.376 -67.754 0.926 22.113 0.926 22.113 0.376 -67.754
1447.667 0.37 -68.167 0.928 21.698 0.928 21.698 0.37 -68.167
1472.625 0.363 -68.569 0.931 21.293 0.931 21.293 0.363 -68.569
1497.583 0.357 -68.961 0.933 20.898 0.933 20.898 0.357 -68.961
1522.542 0.35 -69.343 0.936 20.514 0.936 20.514 0.35 -69.343
1547.5 0.344 -69.715 0.938 20.138 0.938 20.138 0.344 -69.715
1572.458 0.338 -70.078 0.94 19.772 0.94 19.772 0.338 -70.078
1597.417 0.332 -70.433 0.942 19.414 0.942 19.414 0.332 -70.433
1622.375 0.327 -70.78 0.944 19.065 0.944 19.065 0.327 -70.78
1647.333 0.321 -71.118 0.946 18.723 0.946 18.723 0.321 -71.118
1672.292 0.315 -71.448 0.948 18.39 0.948 18.39 0.315 -71.448
1697.25 0.31 -71.771 0.95 18.064 0.95 18.064 0.31 -71.771
1722.208 0.305 -72.087 0.952 17.745 0.952 17.745 0.305 -72.087
1747.167 0.3 -72.395 0.953 17.433 0.953 17.433 0.3 -72.395
1772.125 0.295 -72.697 0.955 17.128 0.955 17.128 0.295 -72.697
1797.083 0.29 -72.993 0.956 16.829 0.956 16.829 0.29 -72.993
1822.042 0.285 -73.282 0.958 16.537 0.958 16.537 0.285 -73.282
1847 0.28 -73.565 0.959 16.251 0.959 16.251 0.28 -73.565
1871.958 0.275 -73.842 0.961 15.97 0.961 15.97 0.275 -73.842
1896.917 0.271 -74.113 0.962 15.695 0.962 15.695 0.271 -74.113
1921.875 0.266 -74.379 0.963 15.426 0.963 15.426 0.266 -74.379
1946.833 0.262 -74.64 0.964 15.161 0.964 15.161 0.262 -74.64
1971.792 0.257 -74.896 0.965 14.902 0.965 14.902 0.257 -74.896
1996.75 0.253 -75.146 0.967 14.648 0.967 14.648 0.253 -75.146
2021.708 0.249 -75.392 0.968 14.398 0.968 14.398 0.249 -75.392
2046.667 0.245 -75.633 0.969 14.153 0.969 14.153 0.245 -75.633
2071.625 0.24 -75.87 0.97 13.913 0.97 13.913 0.24 -75.87
2096.583 0.236 -76.102 0.971 13.677 0.971 13.677 0.236 -76.102
2121.542 0.233 -76.33 0.972 13.445 0.972 13.445 0.233 -76.33
2146.5 0.229 -76.554 0.973 13.217 0.973 13.217 0.229 -76.554
2171.458 0.225 -76.773 0.973 12.993 0.973 12.993 0.225 -76.773
2196.417 0.221 -76.989 0.974 12.773 0.974 12.773 0.221 -76.989
2221.375 0.217 -77.202 0.975 12.557 0.975 12.557 0.217 -77.202
2246.333 0.214 -77.41 0.976 12.344 0.976 12.344 0.214 -77.41
2271.292 0.21 -77.615 0.977 12.135 0.977 12.135 0.21 -77.615
2296.25 0.207 -77.817 0.977 11.929 0.977 11.929 0.207 -77.817
2321.208 0.203 -78.015 0.978 11.726 0.978 11.726 0.203 -78.015
2346.167 0.2 -78.21 0.979 11.526 0.979 11.526 0.2 -78.21
2371.125 0.196 -78.401 0.98 11.33 0.98 11.33 0.196 -78.401
2396.083 0.193 -78.59 0.98 11.137 0.98 11.137 0.193 -78.59
2421.042 0.19 -78.776 0.981 10.946 0.981 10.946 0.19 -78.776
2446 0.187 -78.958 0.981 10.759 0.981 10.759 0.187 -78.958
2470.958 0.184 -79.138 0.982 10.574 0.982 10.574 0.184 -79.138
2495.917 0.18 -79.315 0.983 10.391 0.983 10.391 0.18 -79.315
2520.875 0.177 -79.489 0.983 10.212 0.983 10.212 0.177 -79.489
2545.833 0.174 -79.661 0.984 10.035 0.984 10.035 0.174 -79.661
2570.792 0.171 -79.83 0.984 9.86 0.984 9.86 0.171 -79.83
2595.75 0.168 -79.996 0.985 9.688 0.985 9.688 0.168 -79.996
2620.708 0.165 -80.16 0.985 9.518 0.985 9.518 0.165 -80.16
2645.667 0.162 -80.322 0.986 9.351 0.986 9.351 0.162 -80.322
2670.625 0.16 -80.481 0.986 9.186 0.986 9.186 0.16 -80.481
2695.583 0.157 -80.638 0.987 9.023 0.987 9.023 0.157 -80.638
2720.542 0.154 -80.793 0.987 8.862 0.987 8.862 0.154 -80.793
2745.5 0.151 -80.946 0.988 8.703 0.988 8.703 0.151 -80.946
2770.458 0.149 -81.096 0.988 8.546 0.988 8.546 0.149 -81.096
2795.417 0.146 -81.244 0.988 8.391 0.988 8.391 0.146 -81.244
2820.375 0.143 -81.39 0.989 8.238 0.989 8.238 0.143 -81.39
2845.333 0.141 -81.534 0.989 8.087 0.989 8.087 0.141 -81.534
2870.292 0.138 -81.677 0.989 7.937 0.989 7.937 0.138 -81.677
2895.25 0.136 -81.817 0.99 7.79 0.99 7.79 0.136 -81.817
2920.208 0.133 -81.955 0.99 7.644 0.99 7.644 0.133 -81.955
2945.167 0.131 -82.091 0.991 7.5 0.991 7.5 0.131 -82.091
2970.125 0.128 -82.226 0.991 7.357 0.991 7.357 0.128 -82.226
2995.083 0.126 -82.358 0.991 7.217 0.991 7.217 0.126 -82.358
3020.042 0.123 -82.489 0.991 7.077 0.991 7.077 0.123 -82.489
3045 0.121 -82.618 0.992 6.939 0.992 6.939 0.121 -82.618
3069.958 0.118 -82.746 0.992 6.803 0.992 6.803 0.118 -82.746
3094.917 0.116 -82.871 0.992 6.668 0.992 6.668 0.116 -82.871
3119.875 0.114 -82.995 0.993 6.535 0.993 6.535 0.114 -82.995
3144.833 0.112 -83.117 0.993 6.403 0.993 6.403 0.112 -83.117
3169.792 0.109 -83.238 0.993 6.273 0.993 6.273 0.109 -83.238
3194.75 0.107 -83.357 0.993 6.143 0.993 6.143 0.107 -83.357
3219.708 0.105 -83.474 0.994 6.016 0.994 6.016 0.105 -83.474
3244.667 0.103 -83.589 0.994 5.889 0.994 5.889 0.103 -83.589
3269.625 0.1 -83.703 0.994 5.764 0.994 5.764 0.1 -83.703
3294.583 0.098 -83.816 0.994 5.639 0.994 5.639 0.098 -83.816
3319.542 0.096 -83.926 0.994 5.516 0.994 5.516 0.096 -83.926
3344.5 0.094 -84.035 0.995 5.395 0.995 5.395 0.094 -84.035
3369.458 0.092 -84.143 0.995 5.274 0.995 5.274 0.092 -84.143
3394.417 0.09 -84.249 0.995 5.155 0.995 5.155 0.09 -84.249
3419.375 0.088 -84.353 0.995 5.036 0.995 5.036 0.088 -84.353
3444.333 0.086 -84.456 0.995 4.919 0.995 4.919 0.086 -84.456
3469.292 0.084 -84.557 0.996 4.803 0.996 4.803 0.084 -84.557
3494.25 0.082 -84.656 0.996 4.688 0.996 4.688 0.082 -84.656
3519.208 0.08 -84.754 0.996 4.574 0.996 4.574 0.08 -84.754
3544.167 0.078 -84.85 0.996 4.46 0.996 4.46 0.078 -84.85
3569.125 0.076 -84.944 0.996 4.348 0.996 4.348 0.076 -84.944
3594.083 0.074 -85.037 0.996 4.237 0.996 4.237 0.074 -85.037
3619.042 0.072 -85.127 0.996 4.127 0.996 4.127 0.072 -85.127
3644 0.07 -85.216 0.997 4.017 0.997 4.017 0.07 -85.216
3668.958 0.068 -85.303 0.997 3.909 0.997 3.909 0.068 -85.303
3693.917 0.066 -85.389 0.997 3.801 0.997 3.801 0.066 -85.389
3718.875 0.064 -85.472 0.997 3.695 0.997 3.695 0.064 -85.472
3743.833 0.063 -85.553 0.997 3.589 0.997 3.589 0.063 -85.553
3768.792 0.061 -85.632 0.997 3.484 0.997 3.484 0.061 -85.632
3793.75 0.059 -85.709 0.997 3.38 0.997 3.38 0.059 -85.709
3818.708 0.057 -85.784 0.997 3.276 0.997 3.276 0.057 -85.784
3843.667 0.055 -85.856 0.998 3.174 0.998 3.174 0.055 -85.856
3868.625 0.054 -85.925 0.998 3.072 0.998 3.072 0.054 -85.925
3893.583 0.052 -85.992 0.998 2.971 0.998 2.971 0.052 -85.992
3918.542 0.05 -86.056 0.998 2.871 0.998 2.871 0.05 -86.056
3943.5 0.048 -86.117 0.998 2.771 0.998 2.771 0.048 -86.117
3968.458 0.047 -86.175 0.998 2.672 0.998 2.672 0.047 -86.175
3993.417 0.045 -86.229 0.998 2.574 0.998 2.574 0.045 -86.229
4018.375 0.043 -86.279 0.998 2.477 0.998 2.477 0.043 -86.279
4043.333 0.042 -86.325 0.998 2.38 0.998 2.38 0.042 -86.325
4068.292 0.04 -86.367 0.998 2.284 0.998 2.284 0.04 -86.367
4093.25 0.038 -86.403 0.998 2.189 0.998 2.189 0.038 -86.403
4118.208 0.037 -86.434 0.998 2.094 0.998 2.094 0.037 -86.434
4143.167 0.035 -86.459 0.998 2 0.998 2 0.035 -86.459
4168.125 0.033 -86.477 0.999 1.906 0.999 1.906 0.033 -86.477
4193.083 0.032 -86.487 0.999 1.813 0.999 1.813 0.032 -86.487
4218.042 0.03 -86.488 0.999 1.721 0.999 1.721 0.03 -86.488
4243 0.028 -86.479 0.999 1.629 0.999 1.629 0.028 -86.479
4267.958 0.027 -86.458 0.999 1.538 0.999 1.538 0.027 -86.458
4292.917 0.025 -86.424 0.999 1.448 0.999 1.448 0.025 -86.424
4317.875 0.024 -86.373 0.999 1.358 0.999 1.358 0.024 -86.373
4342.833 0.022 -86.302 0.999 1.268 0.999 1.268 0.022 -86.302
4367.792 0.021 -86.208 0.999 1.18 0.999 1.18 0.021 -86.208
4392.75 0.019 -86.086 0.999 1.091 0.999 1.091 0.019 -86.086
4417.708 0.018 -85.927 0.999 1.004 0.999 1.004 0.018 -85.927
4442.667 0.016 -85.722 0.999 0.916 0.999 0.916 0.016 -85.722
4467.625 0.015 -85.458 0.999 0.83 0.999 0.83 0.015 -85.458
4492.583 0.013 -85.115 0.999 0.743 0.999 0.743 0.013 -85.115
4517.542 0.012 -84.663 0.999 0.658 0.999 0.658 0.012 -84.663
4542.5 0.01 -84.055 0.999 0.572 0.999 0.572 0.01 -84.055
4567.458 8.561e-3 -83.213 0.999 0.488 0.999 0.488 8.561e-3 -83.213
4592.417 7.101e-3 -81.995 0.999 0.403 0.999 0.403 7.101e-3 -81.995
4617.375 5.654e-3 -80.117 0.999 0.319 0.999 0.319 5.654e-3 -80.117
4642.333 4.226e-3 -76.922 0.999 0.236 0.999 0.236 4.226e-3 -76.922
4667.292 2.834e-3 -70.488 0.999 0.153 0.999 0.153 2.834e-3 -70.488
4692.25 1.551e-3 -52.658 0.999 0.071 0.999 0.071 1.551e-3 -52.658
4717.208 959.9e-6 11.844 0.999 -0.011 0.999 -0.011 959.9e-6 11.844
4742.167 1.874e-3 59.818 0.999 -0.093 0.999 -0.093 1.874e-3 59.818
4767.125 3.18e-3 72.643 0.999 -0.174 0.999 -0.174 3.18e-3 72.643
4792.083 4.545e-3 77.818 0.999 -0.255 0.999 -0.255 4.545e-3 77.818
4817.042 5.924e-3 80.541 0.999 -0.335 0.999 -0.335 5.924e-3 80.541
4842 7.305e-3 82.196 0.999 -0.415 0.999 -0.415 7.305e-3 82.196
4866.958 8.683e-3 83.295 0.999 -0.495 0.999 -0.495 8.683e-3 83.295
4891.917 0.01 84.067 0.999 -0.574 0.999 -0.574 0.01 84.067
4916.875 0.011 84.632 0.999 -0.652 0.999 -0.652 0.011 84.632
4941.833 0.013 85.057 0.999 -0.731 0.999 -0.731 0.013 85.057
4966.792 0.014 85.384 0.999 -0.809 0.999 -0.809 0.014 85.384
4991.75 0.015 85.639 0.999 -0.886 0.999 -0.886 0.015 85.639
5016.708 0.017 85.84 0.999 -0.964 0.999 -0.964 0.017 85.84
5041.667 0.018 85.999 0.999 -1.04 0.999 -1.04 0.018 85.999
5066.625 0.02 86.125 0.999 -1.117 0.999 -1.117 0.02 86.125
5091.583 0.021 86.224 0.999 -1.193 0.999 -1.193 0.021 86.224
5116.542 0.022 86.303 0.999 -1.269 0.999 -1.269 0.022 86.303
5141.5 0.023 86.363 0.999 -1.344 0.999 -1.344 0.023 86.363
5166.458 0.025 86.41 0.999 -1.42 0.999 -1.42 0.025 86.41
5191.417 0.026 86.443 0.999 -1.494 0.999 -1.494 0.026 86.443
5216.375 0.027 86.467 0.999 -1.569 0.999 -1.569 0.027 86.467
5241.333 0.029 86.481 0.999 -1.643 0.999 -1.643 0.029 86.481
5266.292 0.03 86.488 0.999 -1.717 0.999 -1.717 0.03 86.488
5291.25 0.031 86.488 0.999 -1.79 0.999 -1.79 0.031 86.488
5316.208 0.033 86.483 0.999 -1.863 0.999 -1.863 0.033 86.483
5341.167 0.034 86.472 0.998 -1.936 0.998 -1.936 0.034 86.472
5366.125 0.035 86.457 0.998 -2.009 0.998 -2.009 0.035 86.457
5391.083 0.036 86.438 0.998 -2.081 0.998 -2.081 0.036 86.438
5416.042 0.038 86.416 0.998 -2.153 0.998 -2.153 0.038 86.416
5441 0.039 86.39 0.998 -2.225 0.998 -2.225 0.039 86.39
5465.958 0.04 86.362 0.998 -2.296 0.998 -2.296 0.04 86.362
5490.917 0.041 86.331 0.998 -2.367 0.998 -2.367 0.041 86.331
5515.875 0.043 86.298 0.998 -2.438 0.998 -2.438 0.043 86.298
5540.833 0.044 86.263 0.998 -2.509 0.998 -2.509 0.044 86.263
5565.792 0.045 86.226 0.998 -2.579 0.998 -2.579 0.045 86.226
5590.75 0.046 86.188 0.998 -2.649 0.998 -2.649 0.046 86.188
5615.708 0.047 86.148 0.998 -2.719 0.998 -2.719 0.047 86.148
5640.667 0.049 86.107 0.998 -2.788 0.998 -2.788 0.049 86.107
5665.625 0.05 86.064 0.998 -2.858 0.998 -2.858 0.05 86.064
5690.583 0.051 86.021 0.998 -2.927 0.998 -2.927 0.051 86.021
5715.542 0.052 85.976 0.998 -2.995 0.998 -2.995 0.052 85.976
5740.5 0.053 85.931 0.998 -3.064 0.998 -3.064 0.053 85.931
5765.458 0.055 85.885 0.998 -3.132 0.998 -3.132 0.055 85.885
5790.417 0.056 85.837 0.998 -3.2 0.998 -3.2 0.056 85.837
5815.375 0.057 85.79 0.997 -3.268 0.997 -3.268 0.057 85.79
5840.333 0.058 85.741 0.997 -3.335 0.997 -3.335 0.058 85.741
5865.292 0.059 85.692 0.997 -3.402 0.997 -3.402 0.059 85.692
5890.25 0.061 85.643 0.997 -3.469 0.997 -3.469 0.061 85.643
5915.208 0.062 85.593 0.997 -3.536 0.997 -3.536 0.062 85.593
5940.167 0.063 85.542 0.997 -3.603 0.997 -3.603 0.063 85.542
5965.125 0.064 85.492 0.997 -3.669 0.997 -3.669 0.064 85.492
5990.083 0.065 85.44 0.997 -3.735 0.997 -3.735 0.065 85.44
6015.042 0.066 85.389 0.997 -3.801 0.997 -3.801 0.066 85.389
6040 0.067 85.337 0.997 -3.867 0.997 -3.867 0.067 85.337
6064.958 0.069 85.285 0.997 -3.932 0.997 -3.932 0.069 85.285
6089.917 0.07 85.232 0.997 -3.997 0.997 -3.997 0.07 85.232
6114.875 0.071 85.18 0.997 -4.062 0.997 -4.062 0.071 85.18
6139.833 0.072 85.127 0.996 -4.127 0.996 -4.127 0.072 85.127
6164.792 0.073 85.074 0.996 -4.192 0.996 -4.192 0.073 85.074
6189.75 0.074 85.021 0.996 -4.256 0.996 -4.256 0.074 85.021
6214.708 0.075 84.967 0.996 -4.321 0.996 -4.321 0.075 84.967
6239.667 0.076 84.914 0.996 -4.385 0.996 -4.385 0.076 84.914
6264.625 0.078 84.86 0.996 -4.448 0.996 -4.448 0.078 84.86
6289.583 0.079 84.806 0.996 -4.512 0.996 -4.512 0.079 84.806
6314.542 0.08 84.752 0.996 -4.575 0.996 -4.575 0.08 84.752
6339.5 0.081 84.698 0.996 -4.639 0.996 -4.639 0.081 84.698
6364.458 0.082 84.644 0.996 -4.702 0.996 -4.702 0.082 84.644
6389.417 0.083 84.59 0.996 -4.765 0.996 -4.765 0.083 84.59
6414.375 0.084 84.535 0.996 -4.827 0.996 -4.827 0.084 84.535
6439.333 0.085 84.481 0.995 -4.89 0.995 -4.89 0.085 84.481
6464.292 0.086 84.427 0.995 -4.952 0.995 -4.952 0.086 84.427
6489.25 0.087 84.372 0.995 -5.014 0.995 -5.014 0.087 84.372
6514.208 0.088 84.318 0.995 -5.076 0.995 -5.076 0.088 84.318
6539.167 0.09 84.263 0.995 -5.138 0.995 -5.138 0.09 84.263
6564.125 0.091 84.209 0.995 -5.2 0.995 -5.2 0.091 84.209
6589.083 0.092 84.154 0.995 -5.261 0.995 -5.261 0.092 84.154
6614.042 0.093 84.1 0.995 -5.322 0.995 -5.322 0.093 84.1
6639 0.094 84.045 0.995 -5.383 0.995 -5.383 0.094 84.045
6663.958 0.095 83.991 0.995 -5.444 0.995 -5.444 0.095 83.991
6688.917 0.096 83.936 0.994 -5.505 0.994 -5.505 0.096 83.936
6713.875 0.097 83.882 0.994 -5.566 0.994 -5.566 0.097 83.882
6738.833 0.098 83.827 0.994 -5.626 0.994 -5.626 0.098 83.827
6763.792 0.099 83.773 0.994 -5.687 0.994 -5.687 0.099 83.773
6788.75 0.1 83.718 0.994 -5.747 0.994 -5.747 0.1 83.718
6813.708 0.101 83.664 0.994 -5.807 0.994 -5.807 0.101 83.664
6838.667 0.102 83.61 0.994 -5.866 0.994 -5.866 0.102 83.61
6863.625 0.103 83.555 0.994 -5.926 0.994 -5.926 0.103 83.555
6888.583 0.104 83.501 0.994 -5.986 0.994 -5.986 0.104 83.501
6913.542 0.105 83.447 0.994 -6.045 0.994 -6.045 0.105 83.447
6938.5 0.106 83.392 0.993 -6.104 0.993 -6.104 0.106 83.392
6963.458 0.107 83.338 0.993 -6.163 0.993 -6.163 0.107 83.338
6988.417 0.108 83.284 0.993 -6.222 0.993 -6.222 0.108 83.284
7013.375 0.109 83.23 0.993 -6.281 0.993 -6.281 0.109 83.23
7038.333 0.11 83.176 0.993 -6.34 0.993 -6.34 0.11 83.176
7063.292 0.111 83.122 0.993 -6.398 0.993 -6.398 0.111 83.122
7088.25 0.112 83.068 0.993 -6.457 0.993 -6.457 0.112 83.068
7113.208 0.113 83.014 0.993 -6.515 0.993 -6.515 0.113 83.014
7138.167 0.114 82.96 0.992 -6.573 0.992 -6.573 0.114 82.96
7163.125 0.115 82.906 0.992 -6.631 0.992 -6.631 0.115 82.906
7188.083 0.116 82.852 0.992 -6.689 0.992 -6.689 0.116 82.852
7213.042 0.117 82.799 0.992 -6.746 0.992 -6.746 0.117 82.799
7238 0.118 82.745 0.992 -6.804 0.992 -6.804 0.118 82.745
7262.958 0.119 82.691 0.992 -6.861 0.992 -6.861 0.119 82.691
7287.917 0.12 82.638 0.992 -6.919 0.992 -6.919 0.12 82.638
7312.875 0.121 82.584 0.992 -6.976 0.992 -6.976 0.121 82.584
7337.833 0.122 82.531 0.992 -7.033 0.992 -7.033 0.122 82.531
7362.792 0.123 82.478 0.991 -7.09 0.991 -7.09 0.123 82.478
7387.75 0.124 82.424 0.991 -7.146 0.991 -7.146 0.124 82.424
7412.708 0.125 82.371 0.991 -7.203 0.991 -7.203 0.125 82.371
7437.667 0.126 82.318 0.991 -7.26 0.991 -7.26 0.126 82.318
7462.625 0.127 82.265 0.991 -7.316 0.991 -7.316 0.127 82.265
7487.583 0.128 82.212 0.991 -7.372 0.991 -7.372 0.128 82.212
7512.542 0.129 82.159 0.991 -7.428 0.991 -7.428 0.129 82.159
7537.5 0.13 82.106 0.991 -7.484 0.991 -7.484 0.13 82.106
7562.458 0.131 82.053 0.99 -7.54 0.99 -7.54 0.131 82.053
7587.417 0.132 82 0.99 -7.596 0.99 -7.596 0.132 82
7612.375 0.133 81.948 0.99 -7.652 0.99 -7.652 0.133 81.948
7637.333 0.134 81.895 0.99 -7.707 0.99 -7.707 0.134 81.895
7662.292 0.135 81.842 0.99 -7.763 0.99 -7.763 0.135 81.842
7687.25 0.136 81.79 0.99 -7.818 0.99 -7.818 0.136 81.79
7712.208 0.137 81.737 0.99 -7.873 0.99 -7.873 0.137 81.737
7737.167 0.138 81.685 0.99 -7.928 0.99 -7.928 0.138 81.685
7762.125 0.139 81.633 0.989 -7.983 0.989 -7.983 0.139 81.633
7787.083 0.14 81.58 0.989 -8.038 0.989 -8.038 0.14 81.58
7812.042 0.141 81.528 0.989 -8.093 0.989 -8.093 0.141 81.528
7837 0.142 81.476 0.989 -8.148 0.989 -8.148 0.142 81.476
7861.958 0.143 81.424 0.989 -8.202 0.989 -8.202 0.143 81.424
7886.917 0.144 81.372 0.989 -8.257 0.989 -8.257 0.144 81.372
7911.875 0.145 81.32 0.989 -8.311 0.989 -8.311 0.145 81.32
7936.833 0.145 81.268 0.988 -8.365 0.988 -8.365 0.145 81.268
7961.792 0.146 81.217 0.988 -8.42 0.988 -8.42 0.146 81.217
7986.75 0.147 81.165 0.988 -8.474 0.988 -8.474 0.147 81.165
8011.708 0.148 81.113 0.988 -8.528 0.988 -8.528 0.148 81.113
8036.667 0.149 81.062 0.988 -8.581 0.988 -8.581 0.149 81.062
8061.625 0.15 81.01 0.988 -8.635 0.988 -8.635 0.15 81.01
8086.583 0.151 80.959 0.988 -8.689 0.988 -8.689 0.151 80.959
8111.542 0.152 80.908 0.987 -8.742 0.987 -8.742 0.152 80.908
8136.5 0.153 80.856 0.987 -8.796 0.987 -8.796 0.153 80.856
8161.458 0.154 80.805 0.987 -8.849 0.987 -8.849 0.154 80.805
8186.417 0.155 80.754 0.987 -8.902 0.987 -8.902 0.155 80.754
8211.375 0.156 80.703 0.987 -8.956 0.987 -8.956 0.156 80.703
8236.333 0.157 80.652 0.987 -9.009 0.987 -9.009 0.157 80.652
8261.292 0.157 80.601 0.987 -9.062 0.987 -9.062 0.157 80.601
