# MHZ S MA R 50

50 1 -1.35 0.024 88.646 0.024 88.646 1 -1.35
74.958 0.999 -2.023 0.035 87.971 0.035 87.971 0.999 -2.023
99.917 0.999 -2.696 0.047 87.296 0.047 87.296 0.999 -2.696
124.875 0.998 -3.368 0.059 86.622 0.059 86.622 0.998 -3.368
149.833 0.998 -4.04 0.07 85.948 0.07 85.948 0.998 -4.04
174.792 0.997 -4.71 0.082 85.276 0.082 85.276 0.997 -4.71
199.75 0.996 -5.38 0.094 84.605 0.094 84.605 0.996 -5.38
224.708 0.994 -6.048 0.105 83.934 0.105 83.934 0.994 -6.048
249.667 0.993 -6.715 0.117 83.266 0.117 83.266 0.993 -6.715
274.625 0.992 -7.38 0.128 82.599 0.128 82.599 0.992 -7.38
299.583 0.99 -8.043 0.14 81.933 0.14 81.933 0.99 -8.043
324.542 0.988 -8.705 0.151 81.269 0.151 81.269 0.988 -8.705
349.5 0.987 -9.365 0.163 80.608 0.163 80.608 0.987 -9.365
374.458 0.985 -10.022 0.174 79.948 0.174 79.948 0.985 -10.022
399.417 0.983 -10.678 0.185 79.291 0.185 79.291 0.983 -10.678
424.375 0.98 -11.33 0.196 78.636 0.196 78.636 0.98 -11.33
449.333 0.978 -11.981 0.208 77.984 0.208 77.984 0.978 -11.981
474.292 0.976 -12.629 0.219 77.334 0.219 77.334 0.976 -12.629
499.25 0.973 -13.274 0.23 76.687 0.23 76.687 0.973 -13.274
524.208 0.97 -13.916 0.24 76.043 0.24 76.043 0.97 -13.916
549.167 0.968 -14.555 0.251 75.402 0.251 75.402 0.968 -14.555
574.125 0.965 -15.191 0.262 74.764 0.262 74.764 0.965 -15.191
599.083 0.962 -15.823 0.273 74.129 0.273 74.129 0.962 -15.823
624.042 0.959 -16.453 0.283 73.498 0.283 73.498 0.959 -16.453
649 0.956 -17.079 0.294 72.87 0.294 72.87 0.956 -17.079
673.958 0.952 -17.701 0.304 72.246 0.304 72.246 0.952 -17.701
698.917 0.949 -18.32 0.314 71.625 0.314 71.625 0.949 -18.32
723.875 0.946 -18.935 0.324 71.008 0.324 71.008 0.946 -18.935
748.833 0.942 -19.547 0.335 70.394 0.335 70.394 0.942 -19.547
773.792 0.938 -20.154 0.345 69.785 0.345 69.785 0.938 -20.154
798.75 0.935 -20.758 0.354 69.179 0.354 69.179 0.935 -20.758
823.708 0.931 -21.357 0.364 68.578 0.364 68.578 0.931 -21.357
848.667 0.927 -21.953 0.374 67.98 0.374 67.98 0.927 -21.953
873.625 0.923 -22.544 0.383 67.387 0.383 67.387 0.923 -22.544
898.583 0.919 -23.131 0.393 66.798 0.393 66.798 0.919 -23.131
923.542 0.915 -23.714 0.402 66.213 0.402 66.213 0.915 -23.714
948.5 0.911 -24.293 0.411 65.632 0.411 65.632 0.911 -24.293
973.458 0.907 -24.867 0.421 65.056 0.421 65.056 0.907 -24.867
998.417 0.902 -25.437 0.43 64.484 0.43 64.484 0.902 -25.437
1023.375 0.898 -26.002 0.438 63.917 0.438 63.917 0.898 -26.002
1048.333 0.894 -26.563 0.447 63.354 0.447 63.354 0.894 -26.563
1073.292 0.889 -27.12 0.456 62.795 0.456 62.795 0.889 -27.12
1098.25 0.885 -27.672 0.464 62.241 0.464 62.241 0.885 -27.672
1123.208 0.88 -28.219 0.473 61.692 0.473 61.692 0.88 -28.219
1148.167 0.876 -28.762 0.481 61.147 0.481 61.147 0.876 -28.762
1173.125 0.871 -29.3 0.489 60.607 0.489 60.607 0.871 -29.3
1198.083 0.867 -29.834 0.497 60.071 0.497 60.071 0.867 -29.834
1223.042 0.862 -30.363 0.505 59.54 0.505 59.54 0.862 -30.363
1248 0.857 -30.887 0.513 59.013 0.513 59.013 0.857 -30.887
1272.958 0.853 -31.407 0.521 58.492 0.521 58.492 0.853 -31.407
1297.917 0.848 -31.922 0.529 57.974 0.529 57.974 0.848 -31.922
1322.875 0.843 -32.432 0.536 57.462 0.536 57.462 0.843 -32.432
1347.833 0.838 -32.938 0.544 56.954 0.544 56.954 0.838 -32.938
1372.792 0.833 -33.439 0.551 56.451 0.551 56.451 0.833 -33.439
1397.75 0.829 -33.936 0.558 55.952 0.558 55.952 0.829 -33.936
1422.708 0.824 -34.428 0.565 55.458 0.565 55.458 0.824 -34.428
1447.667 0.819 -34.915 0.572 54.968 0.572 54.968 0.819 -34.915
1472.625 0.814 -35.398 0.579 54.483 0.579 54.483 0.814 -35.398
1497.583 0.809 -35.876 0.586 54.003 0.586 54.003 0.809 -35.876
1522.542 0.804 -36.35 0.593 53.527 0.593 53.527 0.804 -36.35
1547.5 0.799 -36.819 0.599 53.056 0.599 53.056 0.799 -36.819
1572.458 0.794 -37.284 0.606 52.589 0.606 52.589 0.794 -37.284
1597.417 0.789 -37.744 0.612 52.127 0.612 52.127 0.789 -37.744
1622.375 0.784 -38.199 0.618 51.669 0.618 51.669 0.784 -38.199
1647.333 0.78 -38.651 0.625 51.216 0.625 51.216 0.78 -38.651
1672.292 0.775 -39.097 0.631 50.767 0.631 50.767 0.775 -39.097
1697.25 0.77 -39.54 0.637 50.323 0.637 50.323 0.77 -39.54
1722.208 0.765 -39.978 0.642 49.883 0.642 49.883 0.765 -39.978
1747.167 0.76 -40.411 0.648 49.447 0.648 49.447 0.76 -40.411
1772.125 0.755 -40.841 0.654 49.015 0.654 49.015 0.755 -40.841
1797.083 0.75 -41.266 0.66 48.588 0.66 48.588 0.75 -41.266
1822.042 0.745 -41.687 0.665 48.165 0.665 48.165 0.745 -41.687
1847 0.74 -42.103 0.67 47.746 0.67 47.746 0.74 -42.103
1871.958 0.735 -42.516 0.676 47.332 0.676 47.332 0.735 -42.516
1896.917 0.73 -42.924 0.681 46.921 0.681 46.921 0.73 -42.924
1921.875 0.726 -43.328 0.686 46.515 0.686 46.515 0.726 -43.328
1946.833 0.721 -43.728 0.691 46.112 0.691 46.112 0.721 -43.728
1971.792 0.716 -44.124 0.696 45.714 0.696 45.714 0.716 -44.124
1996.75 0.711 -44.517 0.701 45.32 0.701 45.32 0.711 -44.517
2021.708 0.706 -44.905 0.706 44.929 0.706 44.929 0.706 -44.905
2046.667 0.701 -45.289 0.711 44.543 0.711 44.543 0.701 -45.289
2071.625 0.697 -45.669 0.715 44.16 0.715 44.16 0.697 -45.669
2096.583 0.692 -46.046 0.72 43.781 0.72 43.781 0.692 -46.046
2121.542 0.687 -46.419 0.724 43.406 0.724 43.406 0.687 -46.419
2146.5 0.682 -46.788 0.729 43.035 0.729 43.035 0.682 -46.788
2171.458 0.678 -47.153 0.733 42.667 0.733 42.667 0.678 -47.153
2196.417 0.673 -47.514 0.737 42.303 0.737 42.303 0.673 -47.514
2221.375 0.668 -47.872 0.742 41.943 0.742 41.943 0.668 -47.872
2246.333 0.664 -48.227 0.746 41.587 0.746 41.587 0.664 -48.227
2271.292 0.659 -48.578 0.75 41.233 0.75 41.233 0.659 -48.578
2296.25 0.655 -48.925 0.754 40.884 0.754 40.884 0.655 -48.925
2321.208 0.65 -49.269 0.758 40.538 0.758 40.538 0.65 -49.269
2346.167 0.645 -49.609 0.762 40.195 0.762 40.195 0.645 -49.609
2371.125 0.641 -49.946 0.765 39.856 0.765 39.856 0.641 -49.946
2396.083 0.636 -50.279 0.769 39.52 0.769 39.52 0.636 -50.279
2421.042 0.632 -50.61 0.773 39.187 0.773 39.187 0.632 -50.61
2446 0.627 -50.937 0.776 38.858 0.776 38.858 0.627 -50.937
2470.958 0.623 -51.26 0.78 38.532 0.78 38.532 0.623 -51.26
2495.917 0.619 -51.581 0.783 38.209 0.783 38.209 0.619 -51.581
2520.875 0.614 -51.898 0.787 37.889 0.787 37.889 0.614 -51.898
2545.833 0.61 -52.212 0.79 37.572 0.79 37.572 0.61 -52.212
2570.792 0.605 -52.523 0.794 37.259 0.794 37.259 0.605 -52.523
2595.75 0.601 -52.831 0.797 36.948 0.797 36.948 0.601 -52.831
2620.708 0.597 -53.136 0.8 36.641 0.8 36.641 0.597 -53.136
2645.667 0.593 -53.438 0.803 36.336 0.803 36.336 0.593 -53.438
2670.625 0.588 -53.737 0.806 36.035 0.806 36.035 0.588 -53.737
2695.583 0.584 -54.034 0.809 35.736 0.809 35.736 0.584 -54.034
2720.542 0.58 -54.327 0.812 35.44 0.812 35.44 0.58 -54.327
2745.5 0.576 -54.617 0.815 35.147 0.815 35.147 0.576 -54.617
2770.458 0.572 -54.905 0.818 34.857 0.818 34.857 0.572 -54.905
2795.417 0.567 -55.19 0.821 34.57 0.821 34.57 0.567 -55.19
2820.375 0.563 -55.472 0.824 34.285 0.824 34.285 0.563 -55.472
2845.333 0.559 -55.751 0.827 34.003 0.827 34.003 0.559 -55.751
2870.292 0.555 -56.028 0.829 33.723 0.829 33.723 0.555 -56.028
2895.25 0.551 -56.302 0.832 33.447 0.832 33.447 0.551 -56.302
2920.208 0.547 -56.574 0.835 33.173 0.835 33.173 0.547 -56.574
2945.167 0.543 -56.843 0.837 32.901 0.837 32.901 0.543 -56.843
2970.125 0.539 -57.109 0.84 32.632 0.84 32.632 0.539 -57.109
2995.083 0.535 -57.373 0.842 32.365 0.842 32.365 0.535 -57.373
3020.042 0.531 -57.635 0.845 32.101 0.845 32.101 0.531 -57.635
3045 0.528 -57.894 0.847 31.839 0.847 31.839 0.528 -57.894
3069.958 0.524 -58.151 0.849 31.58 0.849 31.58 0.524 -58.151
3094.917 0.52 -58.405 0.852 31.323 0.852 31.323 0.52 -58.405
3119.875 0.516 -58.657 0.854 31.068 0.854 31.068 0.516 -58.657
3144.833 0.512 -58.907 0.856 30.816 0.856 30.816 0.512 -58.907
3169.792 0.509 -59.154 0.859 30.566 0.859 30.566 0.509 -59.154
3194.75 0.505 -59.399 0.861 30.318 0.861 30.318 0.505 -59.399
3219.708 0.501 -59.642 0.863 30.072 0.863 30.072 0.501 -59.642
3244.667 0.497 -59.883 0.865 29.828 0.865 29.828 0.497 -59.883
3269.625 0.494 -60.121 0.867 29.587 0.867 29.587 0.494 -60.121
3294.583 0.49 -60.357 0.869 29.348 0.869 29.348 0.49 -60.357
3319.542 0.487 -60.592 0.871 29.111 0.871 29.111 0.487 -60.592
3344.5 0.483 -60.824 0.873 28.876 0.873 28.876 0.483 -60.824
3369.458 0.479 -61.054 0.875 28.643 0.875 28.643 0.479 -61.054
3394.417 0.476 -61.282 0.877 28.412 0.877 28.412 0.476 -61.282
3419.375 0.472 -61.508 0.879 28.183 0.879 28.183 0.472 -61.508
3444.333 0.469 -61.732 0.881 27.956 0.881 27.956 0.469 -61.732
3469.292 0.465 -61.954 0.883 27.73 0.883 27.73 0.465 -61.954
3494.25 0.462 -62.175 0.884 27.507 0.884 27.507 0.462 -62.175
3519.208 0.458 -62.393 0.886 27.286 0.886 27.286 0.458 -62.393
3544.167 0.455 -62.609 0.888 27.066 0.888 27.066 0.455 -62.609
3569.125 0.452 -62.824 0.89 26.849 0.89 26.849 0.452 -62.824
3594.083 0.448 -63.037 0.891 26.633 0.891 26.633 0.448 -63.037
3619.042 0.445 -63.247 0.893 26.419 0.893 26.419 0.445 -63.247
3644 0.442 -63.457 0.895 26.207 0.895 26.207 0.442 -63.457
3668.958 0.438 -63.664 0.896 25.996 0.896 25.996 0.438 -63.664
3693.917 0.435 -63.87 0.898 25.787 0.898 25.787 0.435 -63.87
3718.875 0.432 -64.073 0.899 25.58 0.899 25.58 0.432 -64.073
3743.833 0.429 -64.276 0.901 25.375 0.901 25.375 0.429 -64.276
3768.792 0.425 -64.476 0.902 25.171 0.902 25.171 0.425 -64.476
3793.75 0.422 -64.675 0.904 24.969 0.904 24.969 0.422 -64.675
3818.708 0.419 -64.872 0.905 24.769 0.905 24.769 0.419 -64.872
3843.667 0.416 -65.068 0.907 24.57 0.907 24.57 0.416 -65.068
3868.625 0.413 -65.262 0.908 24.372 0.908 24.372 0.413 -65.262
3893.583 0.41 -65.454 0.91 24.177 0.91 24.177 0.41 -65.454
3918.542 0.406 -65.645 0.911 23.982 0.911 23.982 0.406 -65.645
3943.5 0.403 -65.834 0.912 23.79 0.912 23.79 0.403 -65.834
3968.458 0.4 -66.022 0.914 23.598 0.914 23.598 0.4 -66.022
3993.417 0.397 -66.209 0.915 23.409 0.915 23.409 0.397 -66.209
4018.375 0.394 -66.393 0.916 23.22 0.916 23.22 0.394 -66.393
4043.333 0.391 -66.577 0.918 23.034 0.918 23.034 0.391 -66.577
4068.292 0.388 -66.759 0.919 22.848 0.919 22.848 0.388 -66.759
4093.25 0.385 -66.939 0.92 22.664 0.92 22.664 0.385 -66.939
4118.208 0.382 -67.118 0.921 22.481 0.921 22.481 0.382 -67.118
4143.167 0.379 -67.296 0.923 22.3 0.923 22.3 0.379 -67.296
4168.125 0.377 -67.472 0.924 22.12 0.924 22.12 0.377 -67.472
4193.083 0.374 -67.647 0.925 21.942 0.925 21.942 0.374 -67.647
4218.042 0.371 -67.821 0.926 21.764 0.926 21.764 0.371 -67.821
4243 0.368 -67.993 0.927 21.588 0.927 21.588 0.368 -67.993
4267.958 0.365 -68.164 0.928 21.414 0.928 21.414 0.365 -68.164
4292.917 0.362 -68.333 0.929 21.24 0.929 21.24 0.362 -68.333
4317.875 0.359 -68.502 0.93 21.068 0.93 21.068 0.359 -68.502
4342.833 0.357 -68.669 0.932 20.897 0.932 20.897 0.357 -68.669
4367.792 0.354 -68.835 0.933 20.727 0.933 20.727 0.354 -68.835
4392.75 0.351 -68.999 0.934 20.559 0.934 20.559 0.351 -68.999
4417.708 0.348 -69.163 0.935 20.392 0.935 20.392 0.348 -69.163
4442.667 0.346 -69.325 0.936 20.226 0.936 20.226 0.346 -69.325
4467.625 0.343 -69.486 0.937 20.061 0.937 20.061 0.343 -69.486
4492.583 0.34 -69.645 0.938 19.897 0.938 19.897 0.34 -69.645
4517.542 0.338 -69.804 0.939 19.734 0.939 19.734 0.338 -69.804
4542.5 0.335 -69.961 0.939 19.573 0.939 19.573 0.335 -69.961
4567.458 0.332 -70.118 0.94 19.412 0.94 19.412 0.332 -70.118
4592.417 0.33 -70.273 0.941 19.253 0.941 19.253 0.33 -70.273
4617.375 0.327 -70.427 0.942 19.094 0.942 19.094 0.327 -70.427
4642.333 0.325 -70.58 0.943 18.937 0.943 18.937 0.325 -70.58
4667.292 0.322 -70.732 0.944 18.781 0.944 18.781 0.322 -70.732
4692.25 0.319 -70.882 0.945 18.626 0.945 18.626 0.319 -70.882
4717.208 0.317 -71.032 0.946 18.472 0.946 18.472 0.317 -71.032
4742.167 0.314 -71.181 0.947 18.319 0.947 18.319 0.314 -71.181
4767.125 0.312 -71.328 0.947 18.167 0.947 18.167 0.312 -71.328
4792.083 0.309 -71.475 0.948 18.016 0.948 18.016 0.309 -71.475
4817.042 0.307 -71.62 0.949 17.866 0.949 17.866 0.307 -71.62
4842 0.304 -71.765 0.95 17.717 0.95 17.717 0.304 -71.765
4866.958 0.302 -71.908 0.951 17.569 0.951 17.569 0.302 -71.908
4891.917 0.299 -72.051 0.951 17.421 0.951 17.421 0.299 -72.051
4916.875 0.297 -72.192 0.952 17.275 0.952 17.275 0.297 -72.192
4941.833 0.295 -72.333 0.953 17.13 0.953 17.13 0.295 -72.333
4966.792 0.292 -72.472 0.954 16.985 0.954 16.985 0.292 -72.472
4991.75 0.29 -72.611 0.954 16.842 0.954 16.842 0.29 -72.611
5016.708 0.287 -72.748 0.955 16.699 0.955 16.699 0.287 -72.748
5041.667 0.285 -72.885 0.956 16.558 0.956 16.558 0.285 -72.885
5066.625 0.283 -73.021 0.956 16.417 0.956 16.417 0.283 -73.021
5091.583 0.28 -73.156 0.957 16.277 0.957 16.277 0.28 -73.156
5116.542 0.278 -73.29 0.958 16.138 0.958 16.138 0.278 -73.29
5141.5 0.276 -73.423 0.958 15.999 0.958 15.999 0.276 -73.423
5166.458 0.273 -73.555 0.959 15.862 0.959 15.862 0.273 -73.555
5191.417 0.271 -73.686 0.96 15.725 0.96 15.725 0.271 -73.686
5216.375 0.269 -73.816 0.96 15.59 0.96 15.59 0.269 -73.816
5241.333 0.266 -73.946 0.961 15.455 0.961 15.455 0.266 -73.946
5266.292 0.264 -74.075 0.962 15.321 0.962 15.321 0.264 -74.075
5291.25 0.262 -74.202 0.962 15.187 0.962 15.187 0.262 -74.202
5316.208 0.26 -74.329 0.963 15.055 0.963 15.055 0.26 -74.329
5341.167 0.258 -74.456 0.963 14.923 0.963 14.923 0.258 -74.456
5366.125 0.255 -74.581 0.964 14.792 0.964 14.792 0.255 -74.581
5391.083 0.253 -74.705 0.965 14.661 0.965 14.661 0.253 -74.705
5416.042 0.251 -74.829 0.965 14.532 0.965 14.532 0.251 -74.829
5441 0.249 -74.952 0.966 14.403 0.966 14.403 0.249 -74.952
5465.958 0.247 -75.074 0.966 14.275 0.966 14.275 0.247 -75.074
5490.917 0.244 -75.195 0.967 14.148 0.967 14.148 0.244 -75.195
5515.875 0.242 -75.316 0.967 14.021 0.967 14.021 0.242 -75.316
5540.833 0.24 -75.435 0.968 13.895 0.968 13.895 0.24 -75.435
5565.792 0.238 -75.554 0.968 13.77 0.968 13.77 0.238 -75.554
5590.75 0.236 -75.672 0.969 13.645 0.969 13.645 0.236 -75.672
5615.708 0.234 -75.79 0.969 13.521 0.969 13.521 0.234 -75.79
5640.667 0.232 -75.906 0.97 13.398 0.97 13.398 0.232 -75.906
5665.625 0.23 -76.022 0.97 13.276 0.97 13.276 0.23 -76.022
5690.583 0.228 -76.137 0.971 13.154 0.971 13.154 0.228 -76.137
5715.542 0.226 -76.252 0.971 13.033 0.971 13.033 0.226 -76.252
5740.5 0.223 -76.365 0.972 12.912 0.972 12.912 0.223 -76.365
5765.458 0.221 -76.478 0.972 12.792 0.972 12.792 0.221 -76.478
5790.417 0.219 -76.59 0.973 12.673 0.973 12.673 0.219 -76.59
5815.375 0.217 -76.702 0.973 12.554 0.973 12.554 0.217 -76.702
5840.333 0.215 -76.812 0.974 12.436 0.974 12.436 0.215 -76.812
5865.292 0.213 -76.922 0.974 12.319 0.974 12.319 0.213 -76.922
5890.25 0.211 -77.032 0.975 12.202 0.975 12.202 0.211 -77.032
5915.208 0.209 -77.14 0.975 12.086 0.975 12.086 0.209 -77.14
5940.167 0.207 -77.248 0.975 11.97 0.975 11.97 0.207 -77.248
5965.125 0.205 -77.355 0.976 11.855 0.976 11.855 0.205 -77.355
5990.083 0.204 -77.462 0.976 11.741 0.976 11.741 0.204 -77.462
6015.042 0.202 -77.568 0.977 11.627 0.977 11.627 0.202 -77.568
6040 0.2 -77.673 0.977 11.514 0.977 11.514 0.2 -77.673
6064.958 0.198 -77.777 0.977 11.401 0.977 11.401 0.198 -77.777
6089.917 0.196 -77.881 0.978 11.289 0.978 11.289 0.196 -77.881
6114.875 0.194 -77.984 0.978 11.178 0.978 11.178 0.194 -77.984
6139.833 0.192 -78.086 0.979 11.067 0.979 11.067 0.192 -78.086
6164.792 0.19 -78.188 0.979 10.956 0.979 10.956 0.19 -78.188
6189.75 0.188 -78.289 0.979 10.846 0.979 10.846 0.188 -78.289
6214.708 0.186 -78.389 0.98 10.737 0.98 10.737 0.186 -78.389
6239.667 0.184 -78.489 0.98 10.628 0.98 10.628 0.184 -78.489
6264.625 0.183 -78.588 0.98 10.52 0.98 10.52 0.183 -78.588
6289.583 0.181 -78.687 0.981 10.412 0.981 10.412 0.181 -78.687
6314.542 0.179 -78.784 0.981 10.304 0.981 10.304 0.179 -78.784
6339.5 0.177 -78.881 0.981 10.198 0.981 10.198 0.177 -78.881
6364.458 0.175 -78.978 0.982 10.091 0.982 10.091 0.175 -78.978
6389.417 0.173 -79.073 0.982 9.986 0.982 9.986 0.173 -79.073
6414.375 0.172 -79.169 0.982 9.88 0.982 9.88 0.172 -79.169
6439.333 0.17 -79.263 0.983 9.775 0.983 9.775 0.17 -79.263
6464.292 0.168 -79.357 0.983 9.671 0.983 9.671 0.168 -79.357
6489.25 0.166 -79.45 0.983 9.567 0.983 9.567 0.166 -79.45
6514.208 0.164 -79.542 0.984 9.464 0.984 9.464 0.164 -79.542
6539.167 0.163 -79.634 0.984 9.361 0.984 9.361 0.163 -79.634
6564.125 0.161 -79.725 0.984 9.258 0.984 9.258 0.161 -79.725
6589.083 0.159 -79.816 0.984 9.156 0.984 9.156 0.159 -79.816
6614.042 0.157 -79.905 0.985 9.055 0.985 9.055 0.157 -79.905
6639 0.156 -79.995 0.985 8.954 0.985 8.954 0.156 -79.995
6663.958 0.154 -80.083 0.985 8.853 0.985 8.853 0.154 -80.083
6688.917 0.152 -80.171 0.985 8.753 0.985 8.753 0.152 -80.171
6713.875 0.15 -80.258 0.986 8.653 0.986 8.653 0.15 -80.258
6738.833 0.149 -80.345 0.986 8.554 0.986 8.554 0.149 -80.345
6763.792 0.147 -80.43 0.986 8.455 0.986 8.455 0.147 -80.43
6788.75 0.145 -80.516 0.987 8.357 0.987 8.357 0.145 -80.516
6813.708 0.144 -80.6 0.987 8.259 0.987 8.259 0.144 -80.6
6838.667 0.142 -80.684 0.987 8.161 0.987 8.161 0.142 -80.684
6863.625 0.14 -80.767 0.987 8.064 0.987 8.064 0.14 -80.767
6888.583 0.139 -80.849 0.987 7.967 0.987 7.967 0.139 -80.849
6913.542 0.137 -80.931 0.988 7.871 0.988 7.871 0.137 -80.931
6938.5 0.135 -81.012 0.988 7.775 0.988 7.775 0.135 -81.012
6963.458 0.134 -81.092 0.988 7.679 0.988 7.679 0.134 -81.092
6988.417 0.132 -81.172 0.988 7.584 0.988 7.584 0.132 -81.172
7013.375 0.13 -81.251 0.989 7.489 0.989 7.489 0.13 -81.251
7038.333 0.129 -81.329 0.989 7.395 0.989 7.395 0.129 -81.329
7063.292 0.127 -81.406 0.989 7.301 0.989 7.301 0.127 -81.406
7088.25 0.125 -81.483 0.989 7.207 0.989 7.207 0.125 -81.483
7113.208 0.124 -81.559 0.989 7.114 0.989 7.114 0.124 -81.559
7138.167 0.122 -81.634 0.99 7.021 0.99 7.021 0.122 -81.634
7163.125 0.121 -81.708 0.99 6.928 0.99 6.928 0.121 -81.708
7188.083 0.119 -81.782 0.99 6.836 0.99 6.836 0.119 -81.782
7213.042 0.117 -81.855 0.99 6.744 0.99 6.744 0.117 -81.855
7238 0.116 -81.927 0.99 6.653 0.99 6.653 0.116 -81.927
7262.958 0.114 -81.998 0.991 6.562 0.991 6.562 0.114 -81.998
7287.917 0.113 -82.068 0.991 6.471 0.991 6.471 0.113 -82.068
7312.875 0.111 -82.138 0.991 6.381 0.991 6.381 0.111 -82.138
7337.833 0.11 -82.206 0.991 6.291 0.991 6.291 0.11 -82.206
7362.792 0.108 -82.274 0.991 6.201 0.991 6.201 0.108 -82.274
7387.75 0.107 -82.341 0.991 6.112 0.991 6.112 0.107 -82.341
7412.708 0.105 -82.407 0.992 6.023 0.992 6.023 0.105 -82.407
7437.667 0.103 -82.472 0.992 5.934 0.992 5.934 0.103 -82.472
7462.625 0.102 -82.536 0.992 5.846 0.992 5.846 0.102 -82.536
7487.583 0.1 -82.599 0.992 5.758 0.992 5.758 0.1 -82.599
7512.542 0.099 -82.661 0.992 5.671 0.992 5.671 0.099 -82.661
7537.5 0.097 -82.722 0.992 5.583 0.992 5.583 0.097 -82.722
7562.458 0.096 -82.782 0.993 5.496 0.993 5.496 0.096 -82.782
7587.417 0.094 -82.841 0.993 5.41 0.993 5.41 0.094 -82.841
7612.375 0.093 -82.899 0.993 5.323 0.993 5.323 0.093 -82.899
7637.333 0.091 -82.956 0.993 5.237 0.993 5.237 0.091 -82.956
7662.292 0.09 -83.011 0.993 5.152 0.993 5.152 0.09 -83.011
7687.25 0.088 -83.065 0.993 5.066 0.993 5.066 0.088 -83.065
7712.208 0.087 -83.118 0.993 4.981 0.993 4.981 0.087 -83.118
7737.167 0.085 -83.17 0.993 4.896 0.993 4.896 0.085 -83.17
7762.125 0.084 -83.221 0.994 4.812 0.994 4.812 0.084 -83.221
7787.083 0.082 -83.27 0.994 4.728 0.994 4.728 0.082 -83.27
7812.042 0.081 -83.317 0.994 4.644 0.994 4.644 0.081 -83.317
7837 0.08 -83.363 0.994 4.56 0.994 4.56 0.08 -83.363
7861.958 0.078 -83.408 0.994 4.477 0.994 4.477 0.078 -83.408
7886.917 0.077 -83.451 0.994 4.394 0.994 4.394 0.077 -83.451
7911.875 0.075 -83.492 0.994 4.311 0.994 4.311 0.075 -83.492
7936.833 0.074 -83.531 0.994 4.229 0.994 4.229 0.074 -83.531
7961.792 0.072 -83.569 0.994 4.147 0.994 4.147 0.072 -83.569
7986.75 0.071 -83.605 0.995 4.065 0.995 4.065 0.071 -83.605
8011.708 0.07 -83.639 0.995 3.983 0.995 3.983 0.07 -83.639
8036.667 0.068 -83.67 0.995 3.902 0.995 3.902 0.068 -83.67
8061.625 0.067 -83.7 0.995 3.821 0.995 3.821 0.067 -83.7
8086.583 0.065 -83.727 0.995 3.74 0.995 3.74 0.065 -83.727
8111.542 0.064 -83.751 0.995 3.659 0.995 3.659 0.064 -83.751
8136.5 0.062 -83.774 0.995 3.579 0.995 3.579 0.062 -83.774
8161.458 0.061 -83.793 0.995 3.499 0.995 3.499 0.061 -83.793
