# MHZ S MA R 50

50 0.978 -12.062 0.209 77.932 0.209 77.932 0.978 -12.062
74.958 0.952 -17.77 0.305 72.222 0.305 72.222 0.952 -17.77
99.917 0.919 -23.143 0.393 66.846 0.393 66.846 0.919 -23.143
124.875 0.882 -28.127 0.471 61.86 0.471 61.86 0.882 -28.127
149.833 0.841 -32.697 0.54 57.286 0.54 57.286 0.841 -32.697
174.792 0.8 -36.855 0.6 53.126 0.6 53.126 0.8 -36.855
199.75 0.759 -40.616 0.651 49.362 0.651 49.362 0.759 -40.616
224.708 0.719 -44.009 0.695 45.966 0.695 45.966 0.719 -44.009
249.667 0.681 -47.066 0.732 42.907 0.732 42.907 0.681 -47.066
274.625 0.645 -49.82 0.764 40.15 0.764 40.15 0.645 -49.82
299.583 0.611 -52.304 0.791 37.662 0.791 37.662 0.611 -52.304
324.542 0.579 -54.55 0.815 35.414 0.815 35.414 0.579 -54.55
349.5 0.55 -56.584 0.835 33.377 0.835 33.377 0.55 -56.584
374.458 0.523 -58.432 0.852 31.526 0.852 31.526 0.523 -58.432
399.417 0.498 -60.115 0.867 29.84 0.867 29.84 0.498 -60.115
424.375 0.474 -61.653 0.88 28.299 0.88 28.299 0.474 -61.653
449.333 0.452 -63.062 0.891 26.887 0.891 26.887 0.452 -63.062
474.292 0.432 -64.357 0.902 25.59 0.902 25.59 0.432 -64.357
499.25 0.413 -65.55 0.91 24.393 0.91 24.393 0.413 -65.55
524.208 0.395 -66.652 0.918 23.288 0.918 23.288 0.395 -66.652
549.167 0.379 -67.674 0.925 22.263 0.925 22.263 0.379 -67.674
574.125 0.363 -68.623 0.931 21.311 0.931 21.311 0.363 -68.623
599.083 0.349 -69.507 0.937 20.424 0.937 20.424 0.349 -69.507
624.042 0.335 -70.332 0.942 19.596 0.942 19.596 0.335 -70.332
649 0.323 -71.104 0.946 18.82 0.946 18.82 0.323 -71.104
673.958 0.311 -71.828 0.95 18.093 0.95 18.093 0.311 -71.828
698.917 0.299 -72.508 0.954 17.41 0.954 17.41 0.299 -72.508
723.875 0.288 -73.148 0.957 16.766 0.957 16.766 0.288 -73.148
748.833 0.278 -73.752 0.96 16.159 0.96 16.159 0.278 -73.752
773.792 0.269 -74.323 0.963 15.585 0.963 15.585 0.269 -74.323
798.75 0.26 -74.863 0.965 15.041 0.965 15.041 0.26 -74.863
823.708 0.251 -75.376 0.968 14.525 0.968 14.525 0.251 -75.376
848.667 0.243 -75.862 0.97 14.035 0.97 14.035 0.243 -75.862
873.625 0.235 -76.325 0.972 13.568 0.972 13.568 0.235 -76.325
898.583 0.227 -76.765 0.973 13.124 0.973 13.124 0.227 -76.765
923.542 0.22 -77.186 0.975 12.7 0.975 12.7 0.22 -77.186
948.5 0.213 -77.587 0.977 12.295 0.977 12.295 0.213 -77.587
973.458 0.206 -77.971 0.978 11.907 0.978 11.907 0.206 -77.971
998.417 0.2 -78.338 0.979 11.535 0.979 11.535 0.2 -78.338
1023.375 0.194 -78.69 0.981 11.179 0.981 11.179 0.194 -78.69
1048.333 0.188 -79.028 0.982 10.837 0.982 10.837 0.188 -79.028
1073.292 0.182 -79.353 0.983 10.508 0.983 10.508 0.182 -79.353
1098.25 0.177 -79.665 0.984 10.191 0.984 10.191 0.177 -79.665
1123.208 0.172 -79.966 0.985 9.886 0.985 9.886 0.172 -79.966
1148.167 0.167 -80.255 0.986 9.592 0.986 9.592 0.167 -80.255
1173.125 0.162 -80.534 0.986 9.309 0.986 9.309 0.162 -80.534
1198.083 0.157 -80.803 0.987 9.034 0.987 9.034 0.157 -80.803
1223.042 0.152 -81.063 0.988 8.769 0.988 8.769 0.152 -81.063
1248 0.148 -81.315 0.989 8.513 0.989 8.513 0.148 -81.315
1272.958 0.144 -81.558 0.989 8.264 0.989 8.264 0.144 -81.558
1297.917 0.14 -81.794 0.99 8.024 0.99 8.024 0.14 -81.794
1322.875 0.136 -82.022 0.99 7.79 0.99 7.79 0.136 -82.022
1347.833 0.132 -82.243 0.991 7.563 0.991 7.563 0.132 -82.243
1372.792 0.128 -82.457 0.991 7.343 0.991 7.343 0.128 -82.457
1397.75 0.124 -82.665 0.992 7.129 0.992 7.129 0.124 -82.665
1422.708 0.12 -82.867 0.992 6.92 0.992 6.92 0.12 -82.867
1447.667 0.117 -83.064 0.993 6.717 0.993 6.717 0.117 -83.064
1472.625 0.114 -83.255 0.993 6.52 0.993 6.52 0.114 -83.255
1497.583 0.11 -83.44 0.993 6.327 0.993 6.327 0.11 -83.44
1522.542 0.107 -83.621 0.994 6.14 0.994 6.14 0.107 -83.621
1547.5 0.104 -83.797 0.994 5.956 0.994 5.956 0.104 -83.797
1572.458 0.101 -83.968 0.994 5.777 0.994 5.777 0.101 -83.968
1597.417 0.098 -84.134 0.995 5.603 0.995 5.603 0.098 -84.134
1622.375 0.095 -84.297 0.995 5.432 0.995 5.432 0.095 -84.297
1647.333 0.092 -84.455 0.995 5.265 0.995 5.265 0.092 -84.455
1672.292 0.089 -84.61 0.996 5.102 0.996 5.102 0.089 -84.61
1697.25 0.086 -84.76 0.996 4.942 0.996 4.942 0.086 -84.76
1722.208 0.083 -84.907 0.996 4.785 0.996 4.785 0.083 -84.907
1747.167 0.081 -85.05 0.996 4.632 0.996 4.632 0.081 -85.05
1772.125 0.078 -85.19 0.996 4.481 0.996 4.481 0.078 -85.19
1797.083 0.076 -85.326 0.997 4.334 0.997 4.334 0.076 -85.326
1822.042 0.073 -85.459 0.997 4.189 0.997 4.189 0.073 -85.459
1847 0.071 -85.588 0.997 4.047 0.997 4.047 0.071 -85.588
1871.958 0.068 -85.715 0.997 3.908 0.997 3.908 0.068 -85.715
1896.917 0.066 -85.838 0.997 3.771 0.997 3.771 0.066 -85.838
1921.875 0.063 -85.958 0.998 3.636 0.998 3.636 0.063 -85.958
1946.833 0.061 -86.075 0.998 3.504 0.998 3.504 0.061 -86.075
1971.792 0.059 -86.188 0.998 3.374 0.998 3.374 0.059 -86.188
1996.75 0.057 -86.299 0.998 3.246 0.998 3.246 0.057 -86.299
2021.708 0.054 -86.406 0.998 3.121 0.998 3.121 0.054 -86.406
2046.667 0.052 -86.511 0.998 2.997 0.998 2.997 0.052 -86.511
2071.625 0.05 -86.612 0.998 2.875 0.998 2.875 0.05 -86.612
2096.583 0.048 -86.709 0.998 2.755 0.998 2.755 0.048 -86.709
2121.542 0.046 -86.803 0.998 2.637 0.998 2.637 0.046 -86.803
2146.5 0.044 -86.894 0.999 2.52 0.999 2.52 0.044 -86.894
2171.458 0.042 -86.981 0.999 2.405 0.999 2.405 0.042 -86.981
2196.417 0.04 -87.064 0.999 2.292 0.999 2.292 0.04 -87.064
2221.375 0.038 -87.142 0.999 2.18 0.999 2.18 0.038 -87.142
2246.333 0.036 -87.217 0.999 2.07 0.999 2.07 0.036 -87.217
2271.292 0.034 -87.286 0.999 1.962 0.999 1.962 0.034 -87.286
2296.25 0.032 -87.349 0.999 1.854 0.999 1.854 0.032 -87.349
2321.208 0.031 -87.407 0.999 1.748 0.999 1.748 0.031 -87.407
2346.167 0.029 -87.458 0.999 1.644 0.999 1.644 0.029 -87.458
2371.125 0.027 -87.501 0.999 1.54 0.999 1.54 0.027 -87.501
2396.083 0.025 -87.535 0.999 1.438 0.999 1.438 0.025 -87.535
2421.042 0.023 -87.558 0.999 1.337 0.999 1.337 0.023 -87.558
2446 0.022 -87.569 0.999 1.238 0.999 1.238 0.022 -87.569
2470.958 0.02 -87.565 0.999 1.139 0.999 1.139 0.02 -87.565
2495.917 0.018 -87.541 0.999 1.042 0.999 1.042 0.018 -87.541
2520.875 0.017 -87.492 0.999 0.945 0.999 0.945 0.017 -87.492
2545.833 0.015 -87.413 0.999 0.85 0.999 0.85 0.015 -87.413
2570.792 0.013 -87.29 0.999 0.755 0.999 0.755 0.013 -87.29
2595.75 0.012 -87.108 0.999 0.662 0.999 0.662 0.012 -87.108
2620.708 9.949e-3 -86.838 1 0.569 1 0.569 9.949e-3 -86.838
2645.667 8.353e-3 -86.434 1 0.478 1 0.478 8.353e-3 -86.434
2670.625 6.775e-3 -85.804 1 0.387 1 0.387 6.775e-3 -85.804
2695.583 5.213e-3 -84.75 1 0.298 1 0.298 5.213e-3 -84.75
2720.542 3.669e-3 -82.747 1 0.209 1 0.209 3.669e-3 -82.747
2745.5 2.152e-3 -77.809 1 0.121 1 0.121 2.152e-3 -77.809
2770.458 735e-6 -52.217 1 0.033 1 0.033 735e-6 -52.217
2795.417 1.032e-3 64.086 1 -0.053 1 -0.053 1.032e-3 64.086
2820.375 2.466e-3 79.347 1 -0.139 1 -0.139 2.466e-3 79.347
2845.333 3.933e-3 83.207 1 -0.224 1 -0.224 3.933e-3 83.207
2870.292 5.397e-3 84.909 1 -0.308 1 -0.308 5.397e-3 84.909
2895.25 6.851e-3 85.842 1 -0.392 1 -0.392 6.851e-3 85.842
2920.208 8.294e-3 86.416 1 -0.475 1 -0.475 8.294e-3 86.416
2945.167 9.726e-3 86.792 1 -0.557 1 -0.557 9.726e-3 86.792
2970.125 0.011 87.049 0.999 -0.638 0.999 -0.638 0.011 87.049
2995.083 0.013 87.228 0.999 -0.719 0.999 -0.719 0.013 87.228
3020.042 0.014 87.353 0.999 -0.799 0.999 -0.799 0.014 87.353
3045 0.015 87.441 0.999 -0.879 0.999 -0.879 0.015 87.441
3069.958 0.017 87.501 0.999 -0.958 0.999 -0.958 0.017 87.501
3094.917 0.018 87.539 0.999 -1.037 0.999 -1.037 0.018 87.539
3119.875 0.019 87.56 0.999 -1.114 0.999 -1.114 0.019 87.56
3144.833 0.021 87.569 0.999 -1.192 0.999 -1.192 0.021 87.569
3169.792 0.022 87.567 0.999 -1.269 0.999 -1.269 0.022 87.567
3194.75 0.023 87.557 0.999 -1.345 0.999 -1.345 0.023 87.557
3219.708 0.025 87.54 0.999 -1.421 0.999 -1.421 0.025 87.54
3244.667 0.026 87.517 0.999 -1.496 0.999 -1.496 0.026 87.517
3269.625 0.027 87.489 0.999 -1.571 0.999 -1.571 0.027 87.489
3294.583 0.029 87.457 0.999 -1.645 0.999 -1.645 0.029 87.457
3319.542 0.03 87.422 0.999 -1.719 0.999 -1.719 0.03 87.422
3344.5 0.031 87.384 0.999 -1.792 0.999 -1.792 0.031 87.384
3369.458 0.033 87.343 0.999 -1.865 0.999 -1.865 0.033 87.343
3394.417 0.034 87.3 0.999 -1.937 0.999 -1.937 0.034 87.3
3419.375 0.035 87.256 0.999 -2.01 0.999 -2.01 0.035 87.256
3444.333 0.036 87.209 0.999 -2.081 0.999 -2.081 0.036 87.209
3469.292 0.038 87.162 0.999 -2.152 0.999 -2.152 0.038 87.162
3494.25 0.039 87.113 0.999 -2.223 0.999 -2.223 0.039 87.113
3519.208 0.04 87.063 0.999 -2.293 0.999 -2.293 0.04 87.063
3544.167 0.041 87.012 0.999 -2.363 0.999 -2.363 0.041 87.012
3569.125 0.042 86.96 0.999 -2.433 0.999 -2.433 0.042 86.96
3594.083 0.044 86.908 0.999 -2.502 0.999 -2.502 0.044 86.908
3619.042 0.045 86.855 0.999 -2.571 0.999 -2.571 0.045 86.855
3644 0.046 86.801 0.998 -2.64 0.998 -2.64 0.046 86.801
3668.958 0.047 86.747 0.998 -2.708 0.998 -2.708 0.047 86.747
3693.917 0.048 86.693 0.998 -2.776 0.998 -2.776 0.048 86.693
3718.875 0.05 86.638 0.998 -2.843 0.998 -2.843 0.05 86.638
3743.833 0.051 86.583 0.998 -2.91 0.998 -2.91 0.051 86.583
3768.792 0.052 86.527 0.998 -2.977 0.998 -2.977 0.052 86.527
3793.75 0.053 86.472 0.998 -3.044 0.998 -3.044 0.053 86.472
3818.708 0.054 86.416 0.998 -3.11 0.998 -3.11 0.054 86.416
3843.667 0.055 86.36 0.998 -3.176 0.998 -3.176 0.055 86.36
3868.625 0.057 86.304 0.998 -3.241 0.998 -3.241 0.057 86.304
3893.583 0.058 86.247 0.998 -3.307 0.998 -3.307 0.058 86.247
3918.542 0.059 86.191 0.998 -3.372 0.998 -3.372 0.059 86.191
3943.5 0.06 86.134 0.998 -3.436 0.998 -3.436 0.06 86.134
3968.458 0.061 86.078 0.998 -3.501 0.998 -3.501 0.061 86.078
3993.417 0.062 86.021 0.998 -3.565 0.998 -3.565 0.062 86.021
4018.375 0.063 85.965 0.998 -3.629 0.998 -3.629 0.063 85.965
4043.333 0.064 85.908 0.997 -3.692 0.997 -3.692 0.064 85.908
4068.292 0.066 85.852 0.997 -3.756 0.997 -3.756 0.066 85.852
4093.25 0.067 85.795 0.997 -3.819 0.997 -3.819 0.067 85.795
4118.208 0.068 85.738 0.997 -3.882 0.997 -3.882 0.068 85.738
4143.167 0.069 85.682 0.997 -3.944 0.997 -3.944 0.069 85.682
4168.125 0.07 85.625 0.997 -4.007 0.997 -4.007 0.07 85.625
4193.083 0.071 85.569 0.997 -4.069 0.997 -4.069 0.071 85.569
4218.042 0.072 85.512 0.997 -4.131 0.997 -4.131 0.072 85.512
4243 0.073 85.456 0.997 -4.192 0.997 -4.192 0.073 85.456
4267.958 0.074 85.4 0.997 -4.254 0.997 -4.254 0.074 85.4
4292.917 0.075 85.343 0.997 -4.315 0.997 -4.315 0.075 85.343
4317.875 0.076 85.287 0.997 -4.376 0.997 -4.376 0.076 85.287
4342.833 0.077 85.231 0.997 -4.437 0.997 -4.437 0.077 85.231
4367.792 0.078 85.175 0.996 -4.497 0.996 -4.497 0.078 85.175
4392.75 0.079 85.119 0.996 -4.557 0.996 -4.557 0.079 85.119
4417.708 0.081 85.063 0.996 -4.618 0.996 -4.618 0.081 85.063
4442.667 0.082 85.007 0.996 -4.678 0.996 -4.678 0.082 85.007
4467.625 0.083 84.952 0.996 -4.737 0.996 -4.737 0.083 84.952
4492.583 0.084 84.896 0.996 -4.797 0.996 -4.797 0.084 84.896
4517.542 0.085 84.84 0.996 -4.856 0.996 -4.856 0.085 84.84
4542.5 0.086 84.785 0.996 -4.915 0.996 -4.915 0.086 84.785
4567.458 0.087 84.729 0.996 -4.974 0.996 -4.974 0.087 84.729
4592.417 0.088 84.674 0.996 -5.033 0.996 -5.033 0.088 84.674
4617.375 0.089 84.619 0.996 -5.092 0.996 -5.092 0.089 84.619
4642.333 0.09 84.564 0.996 -5.15 0.996 -5.15 0.09 84.564
4667.292 0.091 84.509 0.995 -5.208 0.995 -5.208 0.091 84.509
4692.25 0.092 84.454 0.995 -5.266 0.995 -5.266 0.092 84.454
4717.208 0.093 84.399 0.995 -5.324 0.995 -5.324 0.093 84.399
4742.167 0.094 84.344 0.995 -5.382 0.995 -5.382 0.094 84.344
4767.125 0.095 84.29 0.995 -5.44 0.995 -5.44 0.095 84.29
4792.083 0.096 84.235 0.995 -5.497 0.995 -5.497 0.096 84.235
4817.042 0.097 84.181 0.995 -5.554 0.995 -5.554 0.097 84.181
4842 0.098 84.126 0.995 -5.611 0.995 -5.611 0.098 84.126
4866.958 0.099 84.072 0.995 -5.668 0.995 -5.668 0.099 84.072
4891.917 0.1 84.018 0.995 -5.725 0.995 -5.725 0.1 84.018
4916.875 0.101 83.964 0.994 -5.782 0.994 -5.782 0.101 83.964
4941.833 0.102 83.91 0.994 -5.838 0.994 -5.838 0.102 83.91
4966.792 0.103 83.856 0.994 -5.895 0.994 -5.895 0.103 83.856
4991.75 0.104 83.802 0.994 -5.951 0.994 -5.951 0.104 83.802
5016.708 0.105 83.748 0.994 -6.007 0.994 -6.007 0.105 83.748
5041.667 0.106 83.695 0.994 -6.063 0.994 -6.063 0.106 83.695
5066.625 0.107 83.641 0.994 -6.118 0.994 -6.118 0.107 83.641
5091.583 0.108 83.588 0.994 -6.174 0.994 -6.174 0.108 83.588
5116.542 0.109 83.534 0.994 -6.229 0.994 -6.229 0.109 83.534
5141.5 0.109 83.481 0.994 -6.285 0.994 -6.285 0.109 83.481
5166.458 0.11 83.428 0.993 -6.34 0.993 -6.34 0.11 83.428
5191.417 0.111 83.375 0.993 -6.395 0.993 -6.395 0.111 83.375
5216.375 0.112 83.322 0.993 -6.45 0.993 -6.45 0.112 83.322
5241.333 0.113 83.269 0.993 -6.505 0.993 -6.505 0.113 83.269
5266.292 0.114 83.216 0.993 -6.559 0.993 -6.559 0.114 83.216
5291.25 0.115 83.164 0.993 -6.614 0.993 -6.614 0.115 83.164
5316.208 0.116 83.111 0.993 -6.669 0.993 -6.669 0.116 83.111
5341.167 0.117 83.058 0.993 -6.723 0.993 -6.723 0.117 83.058
5366.125 0.118 83.006 0.993 -6.777 0.993 -6.777 0.118 83.006
5391.083 0.119 82.954 0.992 -6.831 0.992 -6.831 0.119 82.954
5416.042 0.12 82.901 0.992 -6.885 0.992 -6.885 0.12 82.901
5441 0.121 82.849 0.992 -6.939 0.992 -6.939 0.121 82.849
5465.958 0.122 82.797 0.992 -6.993 0.992 -6.993 0.122 82.797
5490.917 0.123 82.745 0.992 -7.046 0.992 -7.046 0.123 82.745
5515.875 0.124 82.693 0.992 -7.1 0.992 -7.1 0.124 82.693
5540.833 0.125 82.641 0.992 -7.153 0.992 -7.153 0.125 82.641
5565.792 0.125 82.59 0.992 -7.206 0.992 -7.206 0.125 82.59
5590.75 0.126 82.538 0.992 -7.26 0.992 -7.26 0.126 82.538
5615.708 0.127 82.486 0.991 -7.313 0.991 -7.313 0.127 82.486
5640.667 0.128 82.435 0.991 -7.366 0.991 -7.366 0.128 82.435
5665.625 0.129 82.383 0.991 -7.419 0.991 -7.419 0.129 82.383
5690.583 0.13 82.332 0.991 -7.471 0.991 -7.471 0.13 82.332
5715.542 0.131 82.281 0.991 -7.524 0.991 -7.524 0.131 82.281
5740.5 0.132 82.23 0.991 -7.577 0.991 -7.577 0.132 82.23
5765.458 0.133 82.179 0.991 -7.629 0.991 -7.629 0.133 82.179
5790.417 0.134 82.127 0.991 -7.681 0.991 -7.681 0.134 82.127
5815.375 0.135 82.077 0.99 -7.734 0.99 -7.734 0.135 82.077
5840.333 0.135 82.026 0.99 -7.786 0.99 -7.786 0.135 82.026
5865.292 0.136 81.975 0.99 -7.838 0.99 -7.838 0.136 81.975
5890.25 0.137 81.924 0.99 -7.89 0.99 -7.89 0.137 81.924
5915.208 0.138 81.873 0.99 -7.942 0.99 -7.942 0.138 81.873
5940.167 0.139 81.823 0.99 -7.994 0.99 -7.994 0.139 81.823
5965.125 0.14 81.772 0.99 -8.045 0.99 -8.045 0.14 81.772
5990.083 0.141 81.722 0.99 -8.097 0.99 -8.097 0.141 81.722
6015.042 0.142 81.672 0.989 -8.148 0.989 -8.148 0.142 81.672
6040 0.143 81.621 0.989 -8.2 0.989 -8.2 0.143 81.621
6064.958 0.144 81.571 0.989 -8.251 0.989 -8.251 0.144 81.571
6089.917 0.144 81.521 0.989 -8.302 0.989 -8.302 0.144 81.521
6114.875 0.145 81.471 0.989 -8.354 0.989 -8.354 0.145 81.471
6139.833 0.146 81.421 0.989 -8.405 0.989 -8.405 0.146 81.421
6164.792 0.147 81.371 0.989 -8.456 0.989 -8.456 0.147 81.371
6189.75 0.148 81.321 0.989 -8.507 0.989 -8.507 0.148 81.321
6214.708 0.149 81.271 0.988 -8.557 0.988 -8.557 0.149 81.271
6239.667 0.15 81.221 0.988 -8.608 0.988 -8.608 0.15 81.221
6264.625 0.151 81.172 0.988 -8.659 0.988 -8.659 0.151 81.172
6289.583 0.151 81.122 0.988 -8.709 0.988 -8.709 0.151 81.122
6314.542 0.152 81.073 0.988 -8.76 0.988 -8.76 0.152 81.073
6339.5 0.153 81.023 0.988 -8.81 0.988 -8.81 0.153 81.023
6364.458 0.154 80.974 0.988 -8.861 0.988 -8.861 0.154 80.974
6389.417 0.155 80.925 0.987 -8.911 0.987 -8.911 0.155 80.925
6414.375 0.156 80.875 0.987 -8.961 0.987 -8.961 0.156 80.875
6439.333 0.157 80.826 0.987 -9.011 0.987 -9.011 0.157 80.826
6464.292 0.157 80.777 0.987 -9.061 0.987 -9.061 0.157 80.777
6489.25 0.158 80.728 0.987 -9.111 0.987 -9.111 0.158 80.728
6514.208 0.159 80.679 0.987 -9.161 0.987 -9.161 0.159 80.679
6539.167 0.16 80.63 0.987 -9.211 0.987 -9.211 0.16 80.63
6564.125 0.161 80.581 0.987 -9.261 0.987 -9.261 0.161 80.581
6589.083 0.162 80.532 0.986 -9.311 0.986 -9.311 0.162 80.532
6614.042 0.163 80.483 0.986 -9.36 0.986 -9.36 0.163 80.483
6639 0.163 80.435 0.986 -9.41 0.986 -9.41 0.163 80.435
6663.958 0.164 80.386 0.986 -9.459 0.986 -9.459 0.164 80.386
6688.917 0.165 80.337 0.986 -9.509 0.986 -9.509 0.165 80.337
6713.875 0.166 80.289 0.986 -9.558 0.986 -9.558 0.166 80.289
6738.833 0.167 80.24 0.986 -9.607 0.986 -9.607 0.167 80.24
6763.792 0.168 80.192 0.985 -9.657 0.985 -9.657 0.168 80.192
6788.75 0.169 80.144 0.985 -9.706 0.985 -9.706 0.169 80.144
6813.708 0.169 80.095 0.985 -9.755 0.985 -9.755 0.169 80.095
6838.667 0.17 80.047 0.985 -9.804 0.985 -9.804 0.17 80.047
6863.625 0.171 79.999 0.985 -9.853 0.985 -9.853 0.171 79.999
6888.583 0.172 79.951 0.985 -9.902 0.985 -9.902 0.172 79.951
6913.542 0.173 79.903 0.985 -9.95 0.985 -9.95 0.173 79.903
6938.5 0.174 79.855 0.984 -9.999 0.984 -9.999 0.174 79.855
6963.458 0.174 79.807 0.984 -10.048 0.984 -10.048 0.174 79.807
6988.417 0.175 79.759 0.984 -10.096 0.984 -10.096 0.175 79.759
7013.375 0.176 79.711 0.984 -10.145 0.984 -10.145 0.176 79.711
7038.333 0.177 79.663 0.984 -10.194 0.984 -10.194 0.177 79.663
7063.292 0.178 79.615 0.984 -10.242 0.984 -10.242 0.178 79.615
7088.25 0.179 79.568 0.983 -10.29 0.983 -10.29 0.179 79.568
7113.208 0.179 79.52 0.983 -10.339 0.983 -10.339 0.179 79.52
7138.167 0.18 79.472 0.983 -10.387 0.983 -10.387 0.18 79.472
7163.125 0.181 79.425 0.983 -10.435 0.983 -10.435 0.181 79.425
7188.083 0.182 79.377 0.983 -10.483 0.983 -10.483 0.182 79.377
7213.042 0.183 79.33 0.983 -10.531 0.983 -10.531 0.183 79.33
7238 0.184 79.283 0.983 -10.579 0.983 -10.579 0.184 79.283
7262.958 0.184 79.235 0.982 -10.627 0.982 -10.627 0.184 79.235
7287.917 0.185 79.188 0.982 -10.675 0.982 -10.675 0.185 79.188
7312.875 0.186 79.141 0.982 -10.723 0.982 -10.723 0.186 79.141
7337.833 0.187 79.094 0.982 -10.771 0.982 -10.771 0.187 79.094
7362.792 0.188 79.046 0.982 -10.819 0.982 -10.819 0.188 79.046
7387.75 0.189 78.999 0.982 -10.866 0.982 -10.866 0.189 78.999
7412.708 0.189 78.952 0.981 -10.914 0.981 -10.914 0.189 78.952
7437.667 0.19 78.905 0.981 -10.962 0.981 -10.962 0.19 78.905
7462.625 0.191 78.858 0.981 -11.009 0.981 -11.009 0.191 78.858
7487.583 0.192 78.811 0.981 -11.057 0.981 -11.057 0.192 78.811
7512.542 0.193 78.765 0.981 -11.104 0.981 -11.104 0.193 78.765
7537.5 0.193 78.718 0.981 -11.151 0.981 -11.151 0.193 78.718
7562.458 0.194 78.671 0.981 -11.199 0.981 -11.199 0.194 78.671
7587.417 0.195 78.624 0.98 -11.246 0.98 -11.246 0.195 78.624
7612.375 0.196 78.578 0.98 -11.293 0.98 -11.293 0.196 78.578
7637.333 0.197 78.531 0.98 -11.34 0.98 -11.34 0.197 78.531
7662.292 0.197 78.485 0.98 -11.387 0.98 -11.387 0.197 78.485
7687.25 0.198 78.438 0.98 -11.434 0.98 -11.434 0.198 78.438
7712.208 0.199 78.392 0.98 -11.481 0.98 -11.481 0.199 78.392
7737.167 0.2 78.345 0.979 -11.528 0.979 -11.528 0.2 78.345
7762.125 0.201 78.299 0.979 -11.575 0.979 -11.575 0.201 78.299
7787.083 0.201 78.253 0.979 -11.622 0.979 -11.622 0.201 78.253
7812.042 0.202 78.206 0.979 -11.669 0.979 -11.669 0.202 78.206
7837 0.203 78.16 0.979 -11.716 0.979 -11.716 0.203 78.16
7861.958 0.204 78.114 0.979 -11.762 0.979 -11.762 0.204 78.114
7886.917 0.205 78.068 0.978 -11.809 0.978 -11.809 0.205 78.068
7911.875 0.205 78.022 0.978 -11.856 0.978 -11.856 0.205 78.022
7936.833 0.206 77.975 0.978 -11.902 0.978 -11.902 0.206 77.975
7961.792 0.207 77.929 0.978 -11.949 0.978 -11.949 0.207 77.929
7986.75 0.208 77.884 0.978 -11.995 0.978 -11.995 0.208 77.884
8011.708 0.209 77.838 0.978 -12.042 0.978 -12.042 0.209 77.838
8036.667 0.209 77.792 0.977 -12.088 0.977 -12.088 0.209 77.792
8061.625 0.21 77.746 0.977 -12.134 0.977 -12.134 0.21 77.746
8086.583 0.211 77.7 0.977 -12.18 0.977 -12.18 0.211 77.7
8111.542 0.212 77.654 0.977 -12.227 0.977 -12.227 0.212 77.654
8136.5 0.213 77.609 0.977 -12.273 0.977 -12.273 0.213 77.609
8161.458 0.213 77.563 0.977 -12.319 0.977 -12.319 0.213 77.563
8186.417 0.214 77.517 0.976 -12.365 0.976 -12.365 0.214 77.517
8211.375 0.215 77.472 0.976 -12.411 0.976 -12.411 0.215 77.472
8236.333 0.216 77.426 0.976 -12.457 0.976 -12.457 0.216 77.426
8261.292 0.216 77.381 0.976 -12.503 0.976 -12.503 0.216 77.381
8286.25 0.217 77.335 0.976 -12.549 0.976 -12.549 0.217 77.335
