# MHZ S MA R 50

50 0.996 -5.206 0.091 84.79 0.091 84.79 0.996 -5.206
74.958 0.991 -7.78 0.135 82.214 0.135 82.214 0.991 -7.78
99.917 0.984 -10.323 0.179 79.668 0.179 79.668 0.984 -10.323
124.875 0.975 -12.828 0.222 77.161 0.222 77.161 0.975 -12.828
149.833 0.965 -15.286 0.264 74.701 0.264 74.701 0.965 -15.286
174.792 0.953 -17.691 0.304 72.295 0.304 72.295 0.953 -17.691
199.75 0.939 -20.036 0.343 69.948 0.343 69.948 0.939 -20.036
224.708 0.925 -22.316 0.38 67.665 0.38 67.665 0.925 -22.316
249.667 0.91 -24.527 0.415 65.452 0.415 65.452 0.91 -24.527
274.625 0.893 -26.667 0.449 63.31 0.449 63.31 0.893 -26.667
299.583 0.877 -28.734 0.481 61.241 0.481 61.241 0.877 -28.734
324.542 0.859 -30.727 0.511 59.246 0.511 59.246 0.859 -30.727
349.5 0.842 -32.645 0.539 57.326 0.539 57.326 0.842 -32.645
374.458 0.824 -34.488 0.566 55.48 0.566 55.48 0.824 -34.488
399.417 0.806 -36.258 0.591 53.708 0.591 53.708 0.806 -36.258
424.375 0.788 -37.957 0.615 52.008 0.615 52.008 0.788 -37.957
449.333 0.77 -39.585 0.637 50.377 0.637 50.377 0.77 -39.585
474.292 0.753 -41.145 0.658 48.815 0.658 48.815 0.753 -41.145
499.25 0.735 -42.639 0.677 47.319 0.677 47.319 0.735 -42.639
524.208 0.718 -44.07 0.696 45.886 0.696 45.886 0.718 -44.07
549.167 0.701 -45.44 0.713 44.513 0.713 44.513 0.701 -45.44
574.125 0.685 -46.751 0.728 43.2 0.728 43.2 0.685 -46.751
599.083 0.668 -48.007 0.743 41.942 0.743 41.942 0.668 -48.007
624.042 0.653 -49.21 0.757 40.737 0.757 40.737 0.653 -49.21
649 0.637 -50.362 0.77 39.583 0.77 39.583 0.637 -50.362
673.958 0.622 -51.466 0.782 38.477 0.782 38.477 0.622 -51.466
698.917 0.608 -52.524 0.794 37.416 0.794 37.416 0.608 -52.524
723.875 0.593 -53.538 0.804 36.4 0.804 36.4 0.593 -53.538
748.833 0.58 -54.511 0.814 35.425 0.814 35.425 0.58 -54.511
773.792 0.566 -55.444 0.824 34.489 0.824 34.489 0.566 -55.444
798.75 0.553 -56.341 0.832 33.59 0.832 33.59 0.553 -56.341
823.708 0.541 -57.202 0.841 32.727 0.841 32.727 0.541 -57.202
848.667 0.528 -58.029 0.848 31.897 0.848 31.897 0.528 -58.029
873.625 0.517 -58.825 0.856 31.099 0.856 31.099 0.517 -58.825
898.583 0.505 -59.591 0.862 30.331 0.862 30.331 0.505 -59.591
923.542 0.494 -60.328 0.869 29.592 0.869 29.592 0.494 -60.328
948.5 0.483 -61.037 0.875 28.88 0.875 28.88 0.483 -61.037
973.458 0.472 -61.721 0.881 28.193 0.881 28.193 0.472 -61.721
998.417 0.462 -62.381 0.886 27.531 0.886 27.531 0.462 -62.381
1023.375 0.452 -63.017 0.891 26.893 0.891 26.893 0.452 -63.017
1048.333 0.443 -63.631 0.896 26.276 0.896 26.276 0.443 -63.631
1073.292 0.433 -64.224 0.901 25.68 0.901 25.68 0.433 -64.224
1098.25 0.424 -64.797 0.905 25.105 0.905 25.105 0.424 -64.797
1123.208 0.415 -65.352 0.909 24.548 0.909 24.548 0.415 -65.352
1148.167 0.407 -65.888 0.913 24.01 0.913 24.01 0.407 -65.888
1173.125 0.399 -66.406 0.916 23.488 0.916 23.488 0.399 -66.406
1198.083 0.39 -66.909 0.92 22.983 0.92 22.983 0.39 -66.909
1223.042 0.383 -67.395 0.923 22.494 0.923 22.494 0.383 -67.395
1248 0.375 -67.867 0.926 22.02 0.926 22.02 0.375 -67.867
1272.958 0.367 -68.325 0.929 21.559 0.929 21.559 0.367 -68.325
1297.917 0.36 -68.768 0.932 21.113 0.932 21.113 0.36 -68.768
1322.875 0.353 -69.199 0.935 20.679 0.935 20.679 0.353 -69.199
1347.833 0.346 -69.618 0.937 20.258 0.937 20.258 0.346 -69.618
1372.792 0.34 -70.024 0.94 19.849 0.94 19.849 0.34 -70.024
1397.75 0.333 -70.42 0.942 19.451 0.942 19.451 0.333 -70.42
1422.708 0.327 -70.804 0.944 19.064 0.944 19.064 0.327 -70.804
1447.667 0.32 -71.178 0.947 18.687 0.947 18.687 0.32 -71.178
1472.625 0.314 -71.542 0.949 18.32 0.949 18.32 0.314 -71.542
1497.583 0.308 -71.896 0.95 17.963 0.95 17.963 0.308 -71.896
1522.542 0.303 -72.241 0.952 17.615 0.952 17.615 0.303 -72.241
1547.5 0.297 -72.578 0.954 17.275 0.954 17.275 0.297 -72.578
1572.458 0.291 -72.905 0.956 16.944 0.956 16.944 0.291 -72.905
1597.417 0.286 -73.225 0.957 16.621 0.957 16.621 0.286 -73.225
1622.375 0.281 -73.537 0.959 16.306 0.959 16.306 0.281 -73.537
1647.333 0.276 -73.842 0.961 15.998 0.961 15.998 0.276 -73.842
1672.292 0.271 -74.139 0.962 15.698 0.962 15.698 0.271 -74.139
1697.25 0.266 -74.429 0.963 15.404 0.963 15.404 0.266 -74.429
1722.208 0.261 -74.713 0.965 15.117 0.965 15.117 0.261 -74.713
1747.167 0.256 -74.99 0.966 14.837 0.966 14.837 0.256 -74.99
1772.125 0.251 -75.261 0.967 14.562 0.967 14.562 0.251 -75.261
1797.083 0.247 -75.526 0.968 14.294 0.968 14.294 0.247 -75.526
1822.042 0.242 -75.786 0.969 14.031 0.969 14.031 0.242 -75.786
1847 0.238 -76.039 0.97 13.774 0.97 13.774 0.238 -76.039
1871.958 0.234 -76.288 0.972 13.522 0.972 13.522 0.234 -76.288
1896.917 0.23 -76.531 0.973 13.275 0.973 13.275 0.23 -76.531
1921.875 0.226 -76.769 0.973 13.033 0.973 13.033 0.226 -76.769
1946.833 0.221 -77.003 0.974 12.796 0.974 12.796 0.221 -77.003
1971.792 0.218 -77.231 0.975 12.563 0.975 12.563 0.218 -77.231
1996.75 0.214 -77.456 0.976 12.335 0.976 12.335 0.214 -77.456
2021.708 0.21 -77.676 0.977 12.111 0.977 12.111 0.21 -77.676
2046.667 0.206 -77.891 0.978 11.891 0.978 11.891 0.206 -77.891
2071.625 0.202 -78.103 0.979 11.676 0.979 11.676 0.202 -78.103
2096.583 0.199 -78.31 0.979 11.464 0.979 11.464 0.199 -78.31
2121.542 0.195 -78.514 0.98 11.256 0.98 11.256 0.195 -78.514
2146.5 0.192 -78.714 0.981 11.052 0.981 11.052 0.192 -78.714
2171.458 0.188 -78.91 0.981 10.851 0.981 10.851 0.188 -78.91
2196.417 0.185 -79.103 0.982 10.653 0.982 10.653 0.185 -79.103
2221.375 0.182 -79.292 0.983 10.459 0.983 10.459 0.182 -79.292
2246.333 0.178 -79.479 0.983 10.269 0.983 10.269 0.178 -79.479
2271.292 0.175 -79.661 0.984 10.081 0.984 10.081 0.175 -79.661
2296.25 0.172 -79.841 0.984 9.896 0.984 9.896 0.172 -79.841
2321.208 0.169 -80.018 0.985 9.714 0.985 9.714 0.169 -80.018
2346.167 0.166 -80.192 0.985 9.535 0.985 9.535 0.166 -80.192
2371.125 0.163 -80.363 0.986 9.359 0.986 9.359 0.163 -80.363
2396.083 0.16 -80.531 0.986 9.186 0.986 9.186 0.16 -80.531
2421.042 0.157 -80.696 0.987 9.015 0.987 9.015 0.157 -80.696
2446 0.154 -80.859 0.987 8.847 0.987 8.847 0.154 -80.859
2470.958 0.151 -81.019 0.988 8.681 0.988 8.681 0.151 -81.019
2495.917 0.148 -81.177 0.988 8.517 0.988 8.517 0.148 -81.177
2520.875 0.145 -81.332 0.989 8.356 0.989 8.356 0.145 -81.332
2545.833 0.143 -81.485 0.989 8.197 0.989 8.197 0.143 -81.485
2570.792 0.14 -81.635 0.989 8.04 0.989 8.04 0.14 -81.635
2595.75 0.137 -81.783 0.99 7.886 0.99 7.886 0.137 -81.783
2620.708 0.135 -81.929 0.99 7.733 0.99 7.733 0.135 -81.929
2645.667 0.132 -82.073 0.99 7.583 0.99 7.583 0.132 -82.073
2670.625 0.129 -82.214 0.991 7.434 0.991 7.434 0.129 -82.214
2695.583 0.127 -82.354 0.991 7.288 0.991 7.288 0.127 -82.354
2720.542 0.124 -82.491 0.991 7.143 0.991 7.143 0.124 -82.491
2745.5 0.122 -82.627 0.992 7 0.992 7 0.122 -82.627
2770.458 0.119 -82.76 0.992 6.859 0.992 6.859 0.119 -82.76
2795.417 0.117 -82.891 0.992 6.72 0.992 6.72 0.117 -82.891
2820.375 0.115 -83.021 0.993 6.582 0.993 6.582 0.115 -83.021
2845.333 0.112 -83.148 0.993 6.446 0.993 6.446 0.112 -83.148
2870.292 0.11 -83.274 0.993 6.312 0.993 6.312 0.11 -83.274
2895.25 0.108 -83.398 0.993 6.179 0.993 6.179 0.108 -83.398
2920.208 0.105 -83.52 0.994 6.048 0.994 6.048 0.105 -83.52
2945.167 0.103 -83.64 0.994 5.918 0.994 5.918 0.103 -83.64
2970.125 0.101 -83.759 0.994 5.789 0.994 5.789 0.101 -83.759
2995.083 0.099 -83.876 0.994 5.662 0.994 5.662 0.099 -83.876
3020.042 0.096 -83.991 0.995 5.537 0.995 5.537 0.096 -83.991
3045 0.094 -84.104 0.995 5.413 0.995 5.413 0.094 -84.104
3069.958 0.092 -84.215 0.995 5.29 0.995 5.29 0.092 -84.215
3094.917 0.09 -84.325 0.995 5.168 0.995 5.168 0.09 -84.325
3119.875 0.088 -84.433 0.995 5.048 0.995 5.048 0.088 -84.433
3144.833 0.086 -84.54 0.996 4.929 0.996 4.929 0.086 -84.54
3169.792 0.084 -84.645 0.996 4.811 0.996 4.811 0.084 -84.645
3194.75 0.082 -84.748 0.996 4.694 0.996 4.694 0.082 -84.748
3219.708 0.08 -84.849 0.996 4.579 0.996 4.579 0.08 -84.849
3244.667 0.078 -84.949 0.996 4.464 0.996 4.464 0.078 -84.949
3269.625 0.076 -85.047 0.996 4.351 0.996 4.351 0.076 -85.047
3294.583 0.074 -85.143 0.996 4.239 0.996 4.239 0.074 -85.143
3319.542 0.072 -85.238 0.997 4.127 0.997 4.127 0.072 -85.238
3344.5 0.07 -85.33 0.997 4.017 0.997 4.017 0.07 -85.33
3369.458 0.068 -85.421 0.997 3.908 0.997 3.908 0.068 -85.421
3394.417 0.066 -85.51 0.997 3.8 0.997 3.8 0.066 -85.51
3419.375 0.064 -85.597 0.997 3.693 0.997 3.693 0.064 -85.597
3444.333 0.063 -85.683 0.997 3.587 0.997 3.587 0.063 -85.683
3469.292 0.061 -85.766 0.997 3.481 0.997 3.481 0.061 -85.766
3494.25 0.059 -85.847 0.997 3.377 0.997 3.377 0.059 -85.847
3519.208 0.057 -85.926 0.998 3.273 0.998 3.273 0.057 -85.926
3544.167 0.055 -86.002 0.998 3.171 0.998 3.171 0.055 -86.002
3569.125 0.054 -86.077 0.998 3.069 0.998 3.069 0.054 -86.077
3594.083 0.052 -86.148 0.998 2.968 0.998 2.968 0.052 -86.148
3619.042 0.05 -86.218 0.998 2.868 0.998 2.868 0.05 -86.218
3644 0.048 -86.284 0.998 2.769 0.998 2.769 0.048 -86.284
3668.958 0.047 -86.348 0.998 2.67 0.998 2.67 0.047 -86.348
3693.917 0.045 -86.408 0.998 2.572 0.998 2.572 0.045 -86.408
3718.875 0.043 -86.465 0.998 2.475 0.998 2.475 0.043 -86.465
3743.833 0.042 -86.518 0.998 2.379 0.998 2.379 0.042 -86.518
3768.792 0.04 -86.568 0.998 2.284 0.998 2.284 0.04 -86.568
3793.75 0.038 -86.613 0.998 2.189 0.998 2.189 0.038 -86.613
3818.708 0.037 -86.653 0.999 2.095 0.999 2.095 0.037 -86.653
3843.667 0.035 -86.688 0.999 2.002 0.999 2.002 0.035 -86.688
3868.625 0.033 -86.717 0.999 1.909 0.999 1.909 0.033 -86.717
3893.583 0.032 -86.739 0.999 1.817 0.999 1.817 0.032 -86.739
3918.542 0.03 -86.754 0.999 1.725 0.999 1.725 0.03 -86.754
3943.5 0.029 -86.76 0.999 1.635 0.999 1.635 0.029 -86.76
3968.458 0.027 -86.757 0.999 1.545 0.999 1.545 0.027 -86.757
3993.417 0.025 -86.742 0.999 1.455 0.999 1.455 0.025 -86.742
4018.375 0.024 -86.713 0.999 1.366 0.999 1.366 0.024 -86.713
4043.333 0.022 -86.669 0.999 1.278 0.999 1.278 0.022 -86.669
4068.292 0.021 -86.606 0.999 1.19 0.999 1.19 0.021 -86.606
4093.25 0.019 -86.519 0.999 1.103 0.999 1.103 0.019 -86.519
4118.208 0.018 -86.403 0.999 1.016 0.999 1.016 0.018 -86.403
4143.167 0.016 -86.251 0.999 0.93 0.999 0.93 0.016 -86.251
4168.125 0.015 -86.052 0.999 0.845 0.999 0.845 0.015 -86.052
4193.083 0.013 -85.791 0.999 0.76 0.999 0.76 0.013 -85.791
4218.042 0.012 -85.445 0.999 0.676 0.999 0.676 0.012 -85.445
4243 0.01 -84.981 0.999 0.592 0.999 0.592 0.01 -84.981
4267.958 8.908e-3 -84.342 0.999 0.508 0.999 0.508 8.908e-3 -84.342
4292.917 7.469e-3 -83.429 0.999 0.425 0.999 0.425 7.469e-3 -83.429
4317.875 6.042e-3 -82.052 0.999 0.343 0.999 0.343 6.042e-3 -82.052
4342.833 4.629e-3 -79.791 0.999 0.261 0.999 0.261 4.629e-3 -79.791
4367.792 3.238e-3 -75.525 0.999 0.18 0.999 0.18 3.238e-3 -75.525
4392.75 1.902e-3 -65.036 0.999 0.099 0.999 0.099 1.902e-3 -65.036
4417.708 861.5e-6 -21.829 0.999 0.018 0.999 0.018 861.5e-6 -21.829
4442.667 1.341e-3 53.327 0.999 -0.062 0.999 -0.062 1.341e-3 53.327
4467.625 2.592e-3 71.888 0.999 -0.141 0.999 -0.141 2.592e-3 71.888
4492.583 3.929e-3 78.037 0.999 -0.22 0.999 -0.22 3.929e-3 78.037
4517.542 5.281e-3 80.993 0.999 -0.299 0.999 -0.299 5.281e-3 80.993
4542.5 6.635e-3 82.701 0.999 -0.377 0.999 -0.377 6.635e-3 82.701
4567.458 7.986e-3 83.798 0.999 -0.455 0.999 -0.455 7.986e-3 83.798
4592.417 9.332e-3 84.552 0.999 -0.533 0.999 -0.533 9.332e-3 84.552
4617.375 0.011 85.094 0.999 -0.61 0.999 -0.61 0.011 85.094
4642.333 0.012 85.495 0.999 -0.686 0.999 -0.686 0.012 85.495
4667.292 0.013 85.8 0.999 -0.763 0.999 -0.763 0.013 85.8
4692.25 0.015 86.034 0.999 -0.839 0.999 -0.839 0.015 86.034
4717.208 0.016 86.217 0.999 -0.914 0.999 -0.914 0.016 86.217
4742.167 0.017 86.359 0.999 -0.989 0.999 -0.989 0.017 86.359
4767.125 0.019 86.471 0.999 -1.064 0.999 -1.064 0.019 86.471
4792.083 0.02 86.557 0.999 -1.138 0.999 -1.138 0.02 86.557
4817.042 0.021 86.624 0.999 -1.212 0.999 -1.212 0.021 86.624
4842 0.022 86.674 0.999 -1.286 0.999 -1.286 0.022 86.674
4866.958 0.024 86.711 0.999 -1.359 0.999 -1.359 0.024 86.711
4891.917 0.025 86.736 0.999 -1.432 0.999 -1.432 0.025 86.736
4916.875 0.026 86.752 0.999 -1.505 0.999 -1.505 0.026 86.752
4941.833 0.028 86.759 0.999 -1.577 0.999 -1.577 0.028 86.759
4966.792 0.029 86.76 0.999 -1.649 0.999 -1.649 0.029 86.76
4991.75 0.03 86.755 0.999 -1.721 0.999 -1.721 0.03 86.755
5016.708 0.031 86.744 0.999 -1.792 0.999 -1.792 0.031 86.744
5041.667 0.033 86.729 0.999 -1.863 0.999 -1.863 0.033 86.729
5066.625 0.034 86.71 0.999 -1.934 0.999 -1.934 0.034 86.71
5091.583 0.035 86.687 0.999 -2.004 0.999 -2.004 0.035 86.687
5116.542 0.036 86.661 0.999 -2.074 0.999 -2.074 0.036 86.661
5141.5 0.037 86.632 0.999 -2.144 0.999 -2.144 0.037 86.632
5166.458 0.039 86.601 0.998 -2.214 0.998 -2.214 0.039 86.601
5191.417 0.04 86.568 0.998 -2.283 0.998 -2.283 0.04 86.568
5216.375 0.041 86.533 0.998 -2.352 0.998 -2.352 0.041 86.533
5241.333 0.042 86.496 0.998 -2.42 0.998 -2.42 0.042 86.496
5266.292 0.043 86.457 0.998 -2.489 0.998 -2.489 0.043 86.457
5291.25 0.045 86.417 0.998 -2.557 0.998 -2.557 0.045 86.417
5316.208 0.046 86.376 0.998 -2.625 0.998 -2.625 0.046 86.376
5341.167 0.047 86.334 0.998 -2.692 0.998 -2.692 0.047 86.334
5366.125 0.048 86.29 0.998 -2.759 0.998 -2.759 0.048 86.29
5391.083 0.049 86.246 0.998 -2.826 0.998 -2.826 0.049 86.246
5416.042 0.05 86.2 0.998 -2.893 0.998 -2.893 0.05 86.2
5441 0.052 86.154 0.998 -2.96 0.998 -2.96 0.052 86.154
5465.958 0.053 86.107 0.998 -3.026 0.998 -3.026 0.053 86.107
5490.917 0.054 86.06 0.998 -3.092 0.998 -3.092 0.054 86.06
5515.875 0.055 86.012 0.998 -3.158 0.998 -3.158 0.055 86.012
5540.833 0.056 85.963 0.998 -3.223 0.998 -3.223 0.056 85.963
5565.792 0.057 85.914 0.998 -3.289 0.998 -3.289 0.057 85.914
5590.75 0.059 85.865 0.997 -3.354 0.997 -3.354 0.059 85.865
5615.708 0.06 85.815 0.997 -3.419 0.997 -3.419 0.06 85.815
5640.667 0.061 85.764 0.997 -3.483 0.997 -3.483 0.061 85.764
5665.625 0.062 85.714 0.997 -3.547 0.997 -3.547 0.062 85.714
5690.583 0.063 85.663 0.997 -3.612 0.997 -3.612 0.063 85.663
5715.542 0.064 85.611 0.997 -3.676 0.997 -3.676 0.064 85.611
5740.5 0.065 85.56 0.997 -3.739 0.997 -3.739 0.065 85.56
5765.458 0.066 85.508 0.997 -3.803 0.997 -3.803 0.066 85.508
5790.417 0.067 85.456 0.997 -3.866 0.997 -3.866 0.067 85.456
5815.375 0.069 85.404 0.997 -3.929 0.997 -3.929 0.069 85.404
5840.333 0.07 85.352 0.997 -3.992 0.997 -3.992 0.07 85.352
5865.292 0.071 85.299 0.997 -4.055 0.997 -4.055 0.071 85.299
5890.25 0.072 85.246 0.997 -4.117 0.997 -4.117 0.072 85.246
5915.208 0.073 85.194 0.997 -4.179 0.997 -4.179 0.073 85.194
5940.167 0.074 85.141 0.996 -4.241 0.996 -4.241 0.074 85.141
5965.125 0.075 85.088 0.996 -4.303 0.996 -4.303 0.075 85.088
5990.083 0.076 85.035 0.996 -4.365 0.996 -4.365 0.076 85.035
6015.042 0.077 84.982 0.996 -4.426 0.996 -4.426 0.077 84.982
6040 0.078 84.929 0.996 -4.488 0.996 -4.488 0.078 84.929
6064.958 0.079 84.875 0.996 -4.549 0.996 -4.549 0.079 84.875
6089.917 0.08 84.822 0.996 -4.61 0.996 -4.61 0.08 84.822
6114.875 0.081 84.769 0.996 -4.67 0.996 -4.67 0.081 84.769
6139.833 0.082 84.715 0.996 -4.731 0.996 -4.731 0.082 84.715
6164.792 0.084 84.662 0.996 -4.791 0.996 -4.791 0.084 84.662
6189.75 0.085 84.609 0.996 -4.852 0.996 -4.852 0.085 84.609
6214.708 0.086 84.555 0.996 -4.912 0.996 -4.912 0.086 84.555
6239.667 0.087 84.502 0.995 -4.971 0.995 -4.971 0.087 84.502
6264.625 0.088 84.448 0.995 -5.031 0.995 -5.031 0.088 84.448
6289.583 0.089 84.395 0.995 -5.091 0.995 -5.091 0.089 84.395
6314.542 0.09 84.342 0.995 -5.15 0.995 -5.15 0.09 84.342
6339.5 0.091 84.288 0.995 -5.209 0.995 -5.209 0.091 84.288
6364.458 0.092 84.235 0.995 -5.268 0.995 -5.268 0.092 84.235
6389.417 0.093 84.182 0.995 -5.327 0.995 -5.327 0.093 84.182
6414.375 0.094 84.128 0.995 -5.386 0.995 -5.386 0.094 84.128
6439.333 0.095 84.075 0.995 -5.444 0.995 -5.444 0.095 84.075
6464.292 0.096 84.022 0.995 -5.503 0.995 -5.503 0.096 84.022
6489.25 0.097 83.969 0.994 -5.561 0.994 -5.561 0.097 83.969
6514.208 0.098 83.915 0.994 -5.619 0.994 -5.619 0.098 83.915
6539.167 0.099 83.862 0.994 -5.677 0.994 -5.677 0.099 83.862
6564.125 0.1 83.809 0.994 -5.735 0.994 -5.735 0.1 83.809
6589.083 0.101 83.756 0.994 -5.792 0.994 -5.792 0.101 83.756
6614.042 0.102 83.703 0.994 -5.85 0.994 -5.85 0.102 83.703
6639 0.103 83.65 0.994 -5.907 0.994 -5.907 0.103 83.65
6663.958 0.104 83.597 0.994 -5.964 0.994 -5.964 0.104 83.597
6688.917 0.105 83.544 0.994 -6.021 0.994 -6.021 0.105 83.544
6713.875 0.106 83.492 0.994 -6.078 0.994 -6.078 0.106 83.492
6738.833 0.107 83.439 0.993 -6.135 0.993 -6.135 0.107 83.439
6763.792 0.108 83.386 0.993 -6.192 0.993 -6.192 0.108 83.386
6788.75 0.109 83.333 0.993 -6.248 0.993 -6.248 0.109 83.333
6813.708 0.11 83.281 0.993 -6.304 0.993 -6.304 0.11 83.281
6838.667 0.111 83.228 0.993 -6.361 0.993 -6.361 0.111 83.228
6863.625 0.112 83.176 0.993 -6.417 0.993 -6.417 0.112 83.176
6888.583 0.113 83.124 0.993 -6.473 0.993 -6.473 0.113 83.124
6913.542 0.114 83.071 0.993 -6.528 0.993 -6.528 0.114 83.071
6938.5 0.115 83.019 0.993 -6.584 0.993 -6.584 0.115 83.019
6963.458 0.116 82.967 0.992 -6.64 0.992 -6.64 0.116 82.967
6988.417 0.117 82.915 0.992 -6.695 0.992 -6.695 0.117 82.915
7013.375 0.118 82.862 0.992 -6.75 0.992 -6.75 0.118 82.862
7038.333 0.119 82.81 0.992 -6.806 0.992 -6.806 0.119 82.81
7063.292 0.119 82.759 0.992 -6.861 0.992 -6.861 0.119 82.759
7088.25 0.12 82.707 0.992 -6.916 0.992 -6.916 0.12 82.707
7113.208 0.121 82.655 0.992 -6.97 0.992 -6.97 0.121 82.655
7138.167 0.122 82.603 0.992 -7.025 0.992 -7.025 0.122 82.603
7163.125 0.123 82.551 0.992 -7.08 0.992 -7.08 0.123 82.551
7188.083 0.124 82.5 0.991 -7.134 0.991 -7.134 0.124 82.5
7213.042 0.125 82.448 0.991 -7.189 0.991 -7.189 0.125 82.448
7238 0.126 82.397 0.991 -7.243 0.991 -7.243 0.126 82.397
7262.958 0.127 82.345 0.991 -7.297 0.991 -7.297 0.127 82.345
7287.917 0.128 82.294 0.991 -7.351 0.991 -7.351 0.128 82.294
7312.875 0.129 82.243 0.991 -7.405 0.991 -7.405 0.129 82.243
7337.833 0.13 82.192 0.991 -7.459 0.991 -7.459 0.13 82.192
7362.792 0.131 82.14 0.991 -7.512 0.991 -7.512 0.131 82.14
7387.75 0.132 82.089 0.991 -7.566 0.991 -7.566 0.132 82.089
7412.708 0.133 82.038 0.99 -7.619 0.99 -7.619 0.133 82.038
7437.667 0.134 81.987 0.99 -7.673 0.99 -7.673 0.134 81.987
7462.625 0.134 81.937 0.99 -7.726 0.99 -7.726 0.134 81.937
7487.583 0.135 81.886 0.99 -7.779 0.99 -7.779 0.135 81.886
7512.542 0.136 81.835 0.99 -7.832 0.99 -7.832 0.136 81.835
7537.5 0.137 81.784 0.99 -7.885 0.99 -7.885 0.137 81.784
7562.458 0.138 81.734 0.99 -7.938 0.99 -7.938 0.138 81.734
7587.417 0.139 81.683 0.989 -7.99 0.989 -7.99 0.139 81.683
7612.375 0.14 81.633 0.989 -8.043 0.989 -8.043 0.14 81.633
7637.333 0.141 81.582 0.989 -8.095 0.989 -8.095 0.141 81.582
7662.292 0.142 81.532 0.989 -8.148 0.989 -8.148 0.142 81.532
7687.25 0.143 81.482 0.989 -8.2 0.989 -8.2 0.143 81.482
7712.208 0.144 81.432 0.989 -8.252 0.989 -8.252 0.144 81.432
7737.167 0.144 81.382 0.989 -8.305 0.989 -8.305 0.144 81.382
7762.125 0.145 81.332 0.989 -8.357 0.989 -8.357 0.145 81.332
7787.083 0.146 81.282 0.988 -8.408 0.988 -8.408 0.146 81.282
7812.042 0.147 81.232 0.988 -8.46 0.988 -8.46 0.147 81.232
7837 0.148 81.182 0.988 -8.512 0.988 -8.512 0.148 81.182
7861.958 0.149 81.132 0.988 -8.564 0.988 -8.564 0.149 81.132
7886.917 0.15 81.082 0.988 -8.615 0.988 -8.615 0.15 81.082
7911.875 0.151 81.033 0.988 -8.667 0.988 -8.667 0.151 81.033
7936.833 0.152 80.983 0.988 -8.718 0.988 -8.718 0.152 80.983
7961.792 0.152 80.934 0.988 -8.769 0.988 -8.769 0.152 80.934
7986.75 0.153 80.884 0.987 -8.821 0.987 -8.821 0.153 80.884
8011.708 0.154 80.835 0.987 -8.872 0.987 -8.872 0.154 80.835
8036.667 0.155 80.786 0.987 -8.923 0.987 -8.923 0.155 80.786
8061.625 0.156 80.736 0.987 -8.974 0.987 -8.974 0.156 80.736
8086.583 0.157 80.687 0.987 -9.024 0.987 -9.024 0.157 80.687
8111.542 0.158 80.638 0.987 -9.075 0.987 -9.075 0.158 80.638
8136.5 0.159 80.589 0.987 -9.126 0.987 -9.126 0.159 80.589
8161.458 0.159 80.54 0.986 -9.176 0.986 -9.176 0.159 80.54
8186.417 0.16 80.491 0.986 -9.227 0.986 -9.227 0.16 80.491
8211.375 0.161 80.442 0.986 -9.277 0.986 -9.277 0.161 80.442
8236.333 0.162 80.394 0.986 -9.328 0.986 -9.328 0.162 80.394
