# MHZ S MA R 50

50 0.995 -5.92 0.103 84.076 0.103 84.076 0.995 -5.92
74.958 0.988 -8.837 0.154 81.157 0.154 81.157 0.988 -8.837
99.917 0.979 -11.71 0.203 78.282 0.203 78.282 0.979 -11.71
124.875 0.968 -14.528 0.251 75.462 0.251 75.462 0.968 -14.528
149.833 0.955 -17.277 0.297 72.711 0.297 72.711 0.955 -17.277
174.792 0.94 -19.951 0.341 70.035 0.341 70.035 0.94 -19.951
199.75 0.924 -22.54 0.383 67.444 0.383 67.444 0.924 -22.54
224.708 0.906 -25.039 0.423 64.943 0.423 64.943 0.906 -25.039
249.667 0.887 -27.444 0.461 62.536 0.461 62.536 0.887 -27.444
274.625 0.868 -29.754 0.496 60.224 0.496 60.224 0.868 -29.754
299.583 0.848 -31.966 0.529 58.01 0.529 58.01 0.848 -31.966
324.542 0.828 -34.082 0.56 55.892 0.56 55.892 0.828 -34.082
349.5 0.808 -36.101 0.589 53.87 0.589 53.87 0.808 -36.101
374.458 0.787 -38.028 0.616 51.942 0.616 51.942 0.787 -38.028
399.417 0.767 -39.863 0.641 50.105 0.641 50.105 0.767 -39.863
424.375 0.747 -41.61 0.664 48.356 0.664 48.356 0.747 -41.61
449.333 0.728 -43.272 0.685 46.691 0.685 46.691 0.728 -43.272
474.292 0.708 -44.854 0.705 45.107 0.705 45.107 0.708 -44.854
499.25 0.69 -46.359 0.724 43.601 0.724 43.601 0.69 -46.359
524.208 0.671 -47.791 0.741 42.167 0.741 42.167 0.671 -47.791
549.167 0.653 -49.153 0.756 40.802 0.756 40.802 0.653 -49.153
574.125 0.636 -50.45 0.771 39.504 0.771 39.504 0.636 -50.45
599.083 0.619 -51.684 0.785 38.267 0.785 38.267 0.619 -51.684
624.042 0.603 -52.86 0.797 37.089 0.797 37.089 0.603 -52.86
649 0.587 -53.981 0.809 35.966 0.809 35.966 0.587 -53.981
673.958 0.572 -55.05 0.82 34.895 0.82 34.895 0.572 -55.05
698.917 0.557 -56.07 0.83 33.873 0.83 33.873 0.557 -56.07
723.875 0.543 -57.043 0.839 32.897 0.839 32.897 0.543 -57.043
748.833 0.529 -57.974 0.848 31.965 0.848 31.965 0.529 -57.974
773.792 0.516 -58.863 0.856 31.073 0.856 31.073 0.516 -58.863
798.75 0.503 -59.714 0.864 30.22 0.864 30.22 0.503 -59.714
823.708 0.491 -60.529 0.871 29.403 0.871 29.403 0.491 -60.529
848.667 0.479 -61.309 0.877 28.621 0.877 28.621 0.479 -61.309
873.625 0.467 -62.057 0.883 27.87 0.883 27.87 0.467 -62.057
898.583 0.456 -62.775 0.889 27.15 0.889 27.15 0.456 -62.775
923.542 0.446 -63.464 0.895 26.459 0.895 26.459 0.446 -63.464
948.5 0.435 -64.126 0.9 25.794 0.9 25.794 0.435 -64.126
973.458 0.425 -64.763 0.905 25.156 0.905 25.156 0.425 -64.763
998.417 0.415 -65.375 0.909 24.541 0.909 24.541 0.415 -65.375
1023.375 0.406 -65.965 0.913 23.949 0.913 23.949 0.406 -65.965
1048.333 0.397 -66.533 0.917 23.379 0.917 23.379 0.397 -66.533
1073.292 0.388 -67.08 0.921 22.829 0.921 22.829 0.388 -67.08
1098.25 0.379 -67.608 0.925 22.298 0.925 22.298 0.379 -67.608
1123.208 0.371 -68.118 0.928 21.786 0.928 21.786 0.371 -68.118
1148.167 0.363 -68.61 0.931 21.291 0.931 21.291 0.363 -68.61
1173.125 0.355 -69.086 0.934 20.813 0.934 20.813 0.355 -69.086
1198.083 0.348 -69.546 0.937 20.35 0.937 20.35 0.348 -69.546
1223.042 0.34 -69.991 0.94 19.903 0.94 19.903 0.34 -69.991
1248 0.333 -70.422 0.942 19.469 0.942 19.469 0.333 -70.422
1272.958 0.326 -70.84 0.945 19.049 0.945 19.049 0.326 -70.84
1297.917 0.32 -71.244 0.947 18.642 0.947 18.642 0.32 -71.244
1322.875 0.313 -71.637 0.949 18.247 0.949 18.247 0.313 -71.637
1347.833 0.307 -72.017 0.951 17.864 0.951 17.864 0.307 -72.017
1372.792 0.301 -72.387 0.953 17.492 0.953 17.492 0.301 -72.387
1397.75 0.295 -72.745 0.955 17.13 0.955 17.13 0.295 -72.745
1422.708 0.289 -73.094 0.957 16.779 0.957 16.779 0.289 -73.094
1447.667 0.283 -73.433 0.958 16.437 0.958 16.437 0.283 -73.433
1472.625 0.277 -73.762 0.96 16.105 0.96 16.105 0.277 -73.762
1497.583 0.272 -74.083 0.962 15.781 0.962 15.781 0.272 -74.083
1522.542 0.267 -74.395 0.963 15.466 0.963 15.466 0.267 -74.395
1547.5 0.262 -74.699 0.965 15.159 0.965 15.159 0.262 -74.699
1572.458 0.256 -74.995 0.966 14.86 0.966 14.86 0.256 -74.995
1597.417 0.252 -75.284 0.967 14.568 0.967 14.568 0.252 -75.284
1622.375 0.247 -75.566 0.968 14.284 0.968 14.284 0.247 -75.566
1647.333 0.242 -75.84 0.97 14.006 0.97 14.006 0.242 -75.84
1672.292 0.237 -76.108 0.971 13.735 0.971 13.735 0.237 -76.108
1697.25 0.233 -76.37 0.972 13.47 0.972 13.47 0.233 -76.37
1722.208 0.229 -76.625 0.973 13.211 0.973 13.211 0.229 -76.625
1747.167 0.224 -76.875 0.974 12.959 0.974 12.959 0.224 -76.875
1772.125 0.22 -77.118 0.975 12.711 0.975 12.711 0.22 -77.118
1797.083 0.216 -77.357 0.976 12.47 0.976 12.47 0.216 -77.357
1822.042 0.212 -77.59 0.977 12.233 0.977 12.233 0.212 -77.59
1847 0.208 -77.818 0.977 12.002 0.977 12.002 0.208 -77.818
1871.958 0.204 -78.041 0.978 11.775 0.978 11.775 0.204 -78.041
1896.917 0.2 -78.26 0.979 11.553 0.979 11.553 0.2 -78.26
1921.875 0.197 -78.473 0.98 11.335 0.98 11.335 0.197 -78.473
1946.833 0.193 -78.683 0.981 11.122 0.981 11.122 0.193 -78.683
1971.792 0.189 -78.888 0.981 10.913 0.981 10.913 0.189 -78.888
1996.75 0.186 -79.089 0.982 10.708 0.982 10.708 0.186 -79.089
2021.708 0.182 -79.286 0.983 10.507 0.983 10.507 0.182 -79.286
2046.667 0.179 -79.48 0.983 10.309 0.983 10.309 0.179 -79.48
2071.625 0.176 -79.669 0.984 10.116 0.984 10.116 0.176 -79.669
2096.583 0.172 -79.855 0.984 9.925 0.984 9.925 0.172 -79.855
2121.542 0.169 -80.038 0.985 9.739 0.985 9.739 0.169 -80.038
2146.5 0.166 -80.217 0.985 9.555 0.985 9.555 0.166 -80.217
2171.458 0.163 -80.393 0.986 9.375 0.986 9.375 0.163 -80.393
2196.417 0.16 -80.565 0.986 9.198 0.986 9.198 0.16 -80.565
2221.375 0.157 -80.735 0.987 9.023 0.987 9.023 0.157 -80.735
2246.333 0.154 -80.901 0.987 8.852 0.987 8.852 0.154 -80.901
2271.292 0.151 -81.065 0.988 8.684 0.988 8.684 0.151 -81.065
2296.25 0.148 -81.226 0.988 8.518 0.988 8.518 0.148 -81.226
2321.208 0.145 -81.384 0.989 8.355 0.989 8.355 0.145 -81.384
2346.167 0.143 -81.539 0.989 8.194 0.989 8.194 0.143 -81.539
2371.125 0.14 -81.692 0.99 8.036 0.99 8.036 0.14 -81.692
2396.083 0.137 -81.843 0.99 7.88 0.99 7.88 0.137 -81.843
2421.042 0.134 -81.99 0.99 7.727 0.99 7.727 0.134 -81.99
2446 0.132 -82.136 0.991 7.576 0.991 7.576 0.132 -82.136
2470.958 0.129 -82.279 0.991 7.427 0.991 7.427 0.129 -82.279
2495.917 0.127 -82.419 0.991 7.28 0.991 7.28 0.127 -82.419
2520.875 0.124 -82.558 0.992 7.135 0.992 7.135 0.124 -82.558
2545.833 0.122 -82.694 0.992 6.993 0.992 6.993 0.122 -82.694
2570.792 0.119 -82.829 0.992 6.852 0.992 6.852 0.119 -82.829
2595.75 0.117 -82.961 0.992 6.713 0.992 6.713 0.117 -82.961
2620.708 0.115 -83.091 0.993 6.576 0.993 6.576 0.115 -83.091
2645.667 0.112 -83.219 0.993 6.441 0.993 6.441 0.112 -83.219
2670.625 0.11 -83.345 0.993 6.308 0.993 6.308 0.11 -83.345
2695.583 0.108 -83.469 0.994 6.176 0.994 6.176 0.108 -83.469
2720.542 0.105 -83.591 0.994 6.046 0.994 6.046 0.105 -83.591
2745.5 0.103 -83.712 0.994 5.918 0.994 5.918 0.103 -83.712
2770.458 0.101 -83.83 0.994 5.791 0.994 5.791 0.101 -83.83
2795.417 0.099 -83.947 0.994 5.666 0.994 5.666 0.099 -83.947
2820.375 0.097 -84.062 0.995 5.543 0.995 5.543 0.097 -84.062
2845.333 0.094 -84.175 0.995 5.42 0.995 5.42 0.094 -84.175
2870.292 0.092 -84.287 0.995 5.3 0.995 5.3 0.092 -84.287
2895.25 0.09 -84.396 0.995 5.18 0.995 5.18 0.09 -84.396
2920.208 0.088 -84.505 0.995 5.062 0.995 5.062 0.088 -84.505
2945.167 0.086 -84.611 0.996 4.946 0.996 4.946 0.086 -84.611
2970.125 0.084 -84.716 0.996 4.83 0.996 4.83 0.084 -84.716
2995.083 0.082 -84.819 0.996 4.716 0.996 4.716 0.082 -84.819
3020.042 0.08 -84.92 0.996 4.603 0.996 4.603 0.08 -84.92
3045 0.078 -85.02 0.996 4.491 0.996 4.491 0.078 -85.02
3069.958 0.076 -85.118 0.996 4.381 0.996 4.381 0.076 -85.118
3094.917 0.074 -85.215 0.997 4.272 0.997 4.272 0.074 -85.215
3119.875 0.073 -85.309 0.997 4.163 0.997 4.163 0.073 -85.309
3144.833 0.071 -85.403 0.997 4.056 0.997 4.056 0.071 -85.403
3169.792 0.069 -85.494 0.997 3.95 0.997 3.95 0.069 -85.494
3194.75 0.067 -85.584 0.997 3.845 0.997 3.845 0.067 -85.584
3219.708 0.065 -85.672 0.997 3.741 0.997 3.741 0.065 -85.672
3244.667 0.063 -85.758 0.997 3.638 0.997 3.638 0.063 -85.758
3269.625 0.062 -85.843 0.997 3.536 0.997 3.536 0.062 -85.843
3294.583 0.06 -85.926 0.998 3.435 0.998 3.435 0.06 -85.926
3319.542 0.058 -86.006 0.998 3.335 0.998 3.335 0.058 -86.006
3344.5 0.056 -86.085 0.998 3.236 0.998 3.236 0.056 -86.085
3369.458 0.055 -86.162 0.998 3.138 0.998 3.138 0.055 -86.162
3394.417 0.053 -86.237 0.998 3.04 0.998 3.04 0.053 -86.237
3419.375 0.051 -86.31 0.998 2.944 0.998 2.944 0.051 -86.31
3444.333 0.05 -86.381 0.998 2.848 0.998 2.848 0.05 -86.381
3469.292 0.048 -86.449 0.998 2.753 0.998 2.753 0.048 -86.449
3494.25 0.046 -86.515 0.998 2.659 0.998 2.659 0.046 -86.515
3519.208 0.045 -86.578 0.998 2.566 0.998 2.566 0.045 -86.578
3544.167 0.043 -86.638 0.998 2.473 0.998 2.473 0.043 -86.638
3569.125 0.042 -86.696 0.998 2.381 0.998 2.381 0.042 -86.696
3594.083 0.04 -86.75 0.999 2.29 0.999 2.29 0.04 -86.75
3619.042 0.038 -86.801 0.999 2.2 0.999 2.2 0.038 -86.801
3644 0.037 -86.848 0.999 2.11 0.999 2.11 0.037 -86.848
3668.958 0.035 -86.891 0.999 2.022 0.999 2.022 0.035 -86.891
3693.917 0.034 -86.93 0.999 1.933 0.999 1.933 0.034 -86.93
3718.875 0.032 -86.964 0.999 1.846 0.999 1.846 0.032 -86.964
3743.833 0.031 -86.992 0.999 1.759 0.999 1.759 0.031 -86.992
3768.792 0.029 -87.013 0.999 1.673 0.999 1.673 0.029 -87.013
3793.75 0.028 -87.028 0.999 1.587 0.999 1.587 0.028 -87.028
3818.708 0.026 -87.035 0.999 1.502 0.999 1.502 0.026 -87.035
3843.667 0.025 -87.032 0.999 1.418 0.999 1.418 0.025 -87.032
3868.625 0.023 -87.019 0.999 1.334 0.999 1.334 0.023 -87.019
3893.583 0.022 -86.992 0.999 1.251 0.999 1.251 0.022 -86.992
3918.542 0.02 -86.951 0.999 1.168 0.999 1.168 0.02 -86.951
3943.5 0.019 -86.891 0.999 1.086 0.999 1.086 0.019 -86.891
3968.458 0.018 -86.808 0.999 1.005 0.999 1.005 0.018 -86.808
3993.417 0.016 -86.698 0.999 0.924 0.999 0.924 0.016 -86.698
4018.375 0.015 -86.552 0.999 0.844 0.999 0.844 0.015 -86.552
4043.333 0.013 -86.36 0.999 0.764 0.999 0.764 0.013 -86.36
4068.292 0.012 -86.107 0.999 0.684 0.999 0.684 0.012 -86.107
4093.25 0.011 -85.769 0.999 0.606 0.999 0.606 0.011 -85.769
4118.208 9.228e-3 -85.311 0.999 0.527 0.999 0.527 9.228e-3 -85.311
4143.167 7.874e-3 -84.671 0.999 0.45 0.999 0.45 7.874e-3 -84.671
4168.125 6.53e-3 -83.741 0.999 0.372 0.999 0.372 6.53e-3 -83.741
4193.083 5.197e-3 -82.3 0.999 0.295 0.999 0.295 5.197e-3 -82.3
4218.042 3.879e-3 -79.837 0.999 0.219 0.999 0.219 3.879e-3 -79.837
4243 2.583e-3 -74.828 0.999 0.143 0.999 0.143 2.583e-3 -74.828
4267.958 1.354e-3 -60.288 0.999 0.067 0.999 0.067 1.354e-3 -60.288
4292.917 682.9e-6 11.234 0.999 -7.627e-3 0.999 -7.627e-3 682.9e-6 11.234
4317.875 1.584e-3 64.906 0.999 -0.082 0.999 -0.082 1.584e-3 64.906
4342.833 2.811e-3 76.062 0.999 -0.156 0.999 -0.156 2.811e-3 76.062
4367.792 4.074e-3 80.306 0.999 -0.23 0.999 -0.23 4.074e-3 80.306
4392.75 5.341e-3 82.492 0.999 -0.304 0.999 -0.304 5.341e-3 82.492
4417.708 6.606e-3 83.804 0.999 -0.377 0.999 -0.377 6.606e-3 83.804
4442.667 7.867e-3 84.667 0.999 -0.449 0.999 -0.449 7.867e-3 84.667
4467.625 9.122e-3 85.268 0.999 -0.521 0.999 -0.521 9.122e-3 85.268
4492.583 0.01 85.705 0.999 -0.593 0.999 -0.593 0.01 85.705
4517.542 0.012 86.03 0.999 -0.664 0.999 -0.664 0.012 86.03
4542.5 0.013 86.278 0.999 -0.735 0.999 -0.735 0.013 86.278
4567.458 0.014 86.468 0.999 -0.806 0.999 -0.806 0.014 86.468
4592.417 0.015 86.617 0.999 -0.876 0.999 -0.876 0.015 86.617
4617.375 0.017 86.732 0.999 -0.946 0.999 -0.946 0.017 86.732
4642.333 0.018 86.821 0.999 -1.016 0.999 -1.016 0.018 86.821
4667.292 0.019 86.89 0.999 -1.085 0.999 -1.085 0.019 86.89
4692.25 0.02 86.942 0.999 -1.154 0.999 -1.154 0.02 86.942
4717.208 0.021 86.98 0.999 -1.223 0.999 -1.223 0.021 86.98
4742.167 0.023 87.007 0.999 -1.291 0.999 -1.291 0.023 87.007
4767.125 0.024 87.024 0.999 -1.359 0.999 -1.359 0.024 87.024
4792.083 0.025 87.033 0.999 -1.426 0.999 -1.426 0.025 87.033
4817.042 0.026 87.035 0.999 -1.493 0.999 -1.493 0.026 87.035
4842 0.027 87.031 0.999 -1.56 0.999 -1.56 0.027 87.031
4866.958 0.028 87.022 0.999 -1.627 0.999 -1.627 0.028 87.022
4891.917 0.03 87.009 0.999 -1.693 0.999 -1.693 0.03 87.009
4916.875 0.031 86.991 0.999 -1.759 0.999 -1.759 0.031 86.991
4941.833 0.032 86.971 0.999 -1.825 0.999 -1.825 0.032 86.971
4966.792 0.033 86.947 0.999 -1.891 0.999 -1.891 0.033 86.947
4991.75 0.034 86.921 0.999 -1.956 0.999 -1.956 0.034 86.921
5016.708 0.035 86.892 0.999 -2.021 0.999 -2.021 0.035 86.892
5041.667 0.036 86.861 0.999 -2.085 0.999 -2.085 0.036 86.861
5066.625 0.038 86.828 0.999 -2.15 0.999 -2.15 0.038 86.828
5091.583 0.039 86.794 0.999 -2.214 0.999 -2.214 0.039 86.794
5116.542 0.04 86.758 0.999 -2.277 0.999 -2.277 0.04 86.758
5141.5 0.041 86.72 0.998 -2.341 0.998 -2.341 0.041 86.72
5166.458 0.042 86.682 0.998 -2.404 0.998 -2.404 0.042 86.682
5191.417 0.043 86.642 0.998 -2.467 0.998 -2.467 0.043 86.642
5216.375 0.044 86.601 0.998 -2.53 0.998 -2.53 0.044 86.601
5241.333 0.045 86.56 0.998 -2.593 0.998 -2.593 0.045 86.56
5266.292 0.046 86.518 0.998 -2.655 0.998 -2.655 0.046 86.518
5291.25 0.047 86.474 0.998 -2.717 0.998 -2.717 0.047 86.474
5316.208 0.048 86.431 0.998 -2.779 0.998 -2.779 0.048 86.431
5341.167 0.05 86.386 0.998 -2.84 0.998 -2.84 0.05 86.386
5366.125 0.051 86.341 0.998 -2.902 0.998 -2.902 0.051 86.341
5391.083 0.052 86.296 0.998 -2.963 0.998 -2.963 0.052 86.296
5416.042 0.053 86.25 0.998 -3.024 0.998 -3.024 0.053 86.25
5441 0.054 86.204 0.998 -3.084 0.998 -3.084 0.054 86.204
5465.958 0.055 86.157 0.998 -3.145 0.998 -3.145 0.055 86.157
5490.917 0.056 86.11 0.998 -3.205 0.998 -3.205 0.056 86.11
5515.875 0.057 86.062 0.998 -3.265 0.998 -3.265 0.057 86.062
5540.833 0.058 86.015 0.998 -3.325 0.998 -3.325 0.058 86.015
5565.792 0.059 85.967 0.998 -3.384 0.998 -3.384 0.059 85.967
5590.75 0.06 85.919 0.998 -3.444 0.998 -3.444 0.06 85.919
5615.708 0.061 85.87 0.997 -3.503 0.997 -3.503 0.061 85.87
5640.667 0.062 85.822 0.997 -3.562 0.997 -3.562 0.062 85.822
5665.625 0.063 85.773 0.997 -3.621 0.997 -3.621 0.063 85.773
5690.583 0.064 85.724 0.997 -3.679 0.997 -3.679 0.064 85.724
5715.542 0.065 85.675 0.997 -3.738 0.997 -3.738 0.065 85.675
5740.5 0.066 85.626 0.997 -3.796 0.997 -3.796 0.066 85.626
5765.458 0.067 85.577 0.997 -3.854 0.997 -3.854 0.067 85.577
5790.417 0.068 85.527 0.997 -3.912 0.997 -3.912 0.068 85.527
5815.375 0.069 85.478 0.997 -3.969 0.997 -3.969 0.069 85.478
5840.333 0.07 85.428 0.997 -4.027 0.997 -4.027 0.07 85.428
5865.292 0.071 85.379 0.997 -4.084 0.997 -4.084 0.071 85.379
5890.25 0.072 85.329 0.997 -4.141 0.997 -4.141 0.072 85.329
5915.208 0.073 85.279 0.997 -4.198 0.997 -4.198 0.073 85.279
5940.167 0.074 85.229 0.997 -4.255 0.997 -4.255 0.074 85.229
5965.125 0.075 85.18 0.997 -4.311 0.997 -4.311 0.075 85.18
5990.083 0.076 85.13 0.996 -4.368 0.996 -4.368 0.076 85.13
6015.042 0.077 85.08 0.996 -4.424 0.996 -4.424 0.077 85.08
6040 0.078 85.03 0.996 -4.48 0.996 -4.48 0.078 85.03
6064.958 0.079 84.98 0.996 -4.536 0.996 -4.536 0.079 84.98
6089.917 0.08 84.93 0.996 -4.592 0.996 -4.592 0.08 84.93
6114.875 0.081 84.881 0.996 -4.647 0.996 -4.647 0.081 84.881
6139.833 0.082 84.831 0.996 -4.703 0.996 -4.703 0.082 84.831
6164.792 0.083 84.781 0.996 -4.758 0.996 -4.758 0.083 84.781
6189.75 0.084 84.731 0.996 -4.813 0.996 -4.813 0.084 84.731
6214.708 0.085 84.681 0.996 -4.868 0.996 -4.868 0.085 84.681
6239.667 0.086 84.632 0.996 -4.923 0.996 -4.923 0.086 84.632
6264.625 0.087 84.582 0.996 -4.978 0.996 -4.978 0.087 84.582
6289.583 0.088 84.532 0.995 -5.032 0.995 -5.032 0.088 84.532
6314.542 0.089 84.482 0.995 -5.086 0.995 -5.086 0.089 84.482
6339.5 0.09 84.433 0.995 -5.141 0.995 -5.141 0.09 84.433
6364.458 0.091 84.383 0.995 -5.195 0.995 -5.195 0.091 84.383
6389.417 0.091 84.334 0.995 -5.249 0.995 -5.249 0.091 84.334
6414.375 0.092 84.284 0.995 -5.303 0.995 -5.303 0.092 84.284
6439.333 0.093 84.235 0.995 -5.356 0.995 -5.356 0.093 84.235
6464.292 0.094 84.185 0.995 -5.41 0.995 -5.41 0.094 84.185
6489.25 0.095 84.136 0.995 -5.463 0.995 -5.463 0.095 84.136
6514.208 0.096 84.086 0.995 -5.516 0.995 -5.516 0.096 84.086
6539.167 0.097 84.037 0.995 -5.569 0.995 -5.569 0.097 84.037
6564.125 0.098 83.988 0.995 -5.622 0.995 -5.622 0.098 83.988
6589.083 0.099 83.939 0.994 -5.675 0.994 -5.675 0.099 83.939
6614.042 0.1 83.889 0.994 -5.728 0.994 -5.728 0.1 83.889
6639 0.101 83.84 0.994 -5.781 0.994 -5.781 0.101 83.84
6663.958 0.102 83.791 0.994 -5.833 0.994 -5.833 0.102 83.791
6688.917 0.103 83.742 0.994 -5.885 0.994 -5.885 0.103 83.742
6713.875 0.103 83.693 0.994 -5.938 0.994 -5.938 0.103 83.693
6738.833 0.104 83.644 0.994 -5.99 0.994 -5.99 0.104 83.644
6763.792 0.105 83.596 0.994 -6.042 0.994 -6.042 0.105 83.596
6788.75 0.106 83.547 0.994 -6.094 0.994 -6.094 0.106 83.547
6813.708 0.107 83.498 0.994 -6.145 0.994 -6.145 0.107 83.498
6838.667 0.108 83.45 0.993 -6.197 0.993 -6.197 0.108 83.45
6863.625 0.109 83.401 0.993 -6.249 0.993 -6.249 0.109 83.401
6888.583 0.11 83.352 0.993 -6.3 0.993 -6.3 0.11 83.352
6913.542 0.111 83.304 0.993 -6.351 0.993 -6.351 0.111 83.304
6938.5 0.112 83.256 0.993 -6.402 0.993 -6.402 0.112 83.256
6963.458 0.112 83.207 0.993 -6.453 0.993 -6.453 0.112 83.207
6988.417 0.113 83.159 0.993 -6.504 0.993 -6.504 0.113 83.159
7013.375 0.114 83.111 0.993 -6.555 0.993 -6.555 0.114 83.111
7038.333 0.115 83.063 0.993 -6.606 0.993 -6.606 0.115 83.063
7063.292 0.116 83.015 0.993 -6.657 0.993 -6.657 0.116 83.015
7088.25 0.117 82.967 0.992 -6.707 0.992 -6.707 0.117 82.967
7113.208 0.118 82.919 0.992 -6.758 0.992 -6.758 0.118 82.919
7138.167 0.119 82.871 0.992 -6.808 0.992 -6.808 0.119 82.871
7163.125 0.119 82.823 0.992 -6.858 0.992 -6.858 0.119 82.823
7188.083 0.12 82.775 0.992 -6.908 0.992 -6.908 0.12 82.775
7213.042 0.121 82.727 0.992 -6.958 0.992 -6.958 0.121 82.727
7238 0.122 82.68 0.992 -7.008 0.992 -7.008 0.122 82.68
7262.958 0.123 82.632 0.992 -7.058 0.992 -7.058 0.123 82.632
7287.917 0.124 82.585 0.992 -7.108 0.992 -7.108 0.124 82.585
7312.875 0.125 82.537 0.992 -7.157 0.992 -7.157 0.125 82.537
7337.833 0.125 82.49 0.991 -7.207 0.991 -7.207 0.125 82.49
7362.792 0.126 82.443 0.991 -7.256 0.991 -7.256 0.126 82.443
7387.75 0.127 82.395 0.991 -7.305 0.991 -7.305 0.127 82.395
7412.708 0.128 82.348 0.991 -7.355 0.991 -7.355 0.128 82.348
7437.667 0.129 82.301 0.991 -7.404 0.991 -7.404 0.129 82.301
7462.625 0.13 82.254 0.991 -7.453 0.991 -7.453 0.13 82.254
7487.583 0.131 82.207 0.991 -7.502 0.991 -7.502 0.131 82.207
7512.542 0.131 82.16 0.991 -7.55 0.991 -7.55 0.131 82.16
7537.5 0.132 82.113 0.991 -7.599 0.991 -7.599 0.132 82.113
7562.458 0.133 82.066 0.99 -7.648 0.99 -7.648 0.133 82.066
7587.417 0.134 82.02 0.99 -7.696 0.99 -7.696 0.134 82.02
7612.375 0.135 81.973 0.99 -7.745 0.99 -7.745 0.135 81.973
7637.333 0.136 81.926 0.99 -7.793 0.99 -7.793 0.136 81.926
7662.292 0.136 81.88 0.99 -7.842 0.99 -7.842 0.136 81.88
7687.25 0.137 81.833 0.99 -7.89 0.99 -7.89 0.137 81.833
7712.208 0.138 81.787 0.99 -7.938 0.99 -7.938 0.138 81.787
7737.167 0.139 81.74 0.99 -7.986 0.99 -7.986 0.139 81.74
7762.125 0.14 81.694 0.99 -8.034 0.99 -8.034 0.14 81.694
7787.083 0.141 81.648 0.989 -8.082 0.989 -8.082 0.141 81.648
7812.042 0.141 81.602 0.989 -8.13 0.989 -8.13 0.141 81.602
7837 0.142 81.556 0.989 -8.177 0.989 -8.177 0.142 81.556
7861.958 0.143 81.509 0.989 -8.225 0.989 -8.225 0.143 81.509
7886.917 0.144 81.463 0.989 -8.273 0.989 -8.273 0.144 81.463
7911.875 0.145 81.417 0.989 -8.32 0.989 -8.32 0.145 81.417
7936.833 0.146 81.372 0.989 -8.368 0.989 -8.368 0.146 81.372
7961.792 0.146 81.326 0.989 -8.415 0.989 -8.415 0.146 81.326
7986.75 0.147 81.28 0.988 -8.462 0.988 -8.462 0.147 81.28
8011.708 0.148 81.234 0.988 -8.509 0.988 -8.509 0.148 81.234
8036.667 0.149 81.189 0.988 -8.556 0.988 -8.556 0.149 81.189
8061.625 0.15 81.143 0.988 -8.603 0.988 -8.603 0.15 81.143
8086.583 0.15 81.097 0.988 -8.65 0.988 -8.65 0.15 81.097
8111.542 0.151 81.052 0.988 -8.697 0.988 -8.697 0.151 81.052
8136.5 0.152 81.007 0.988 -8.744 0.988 -8.744 0.152 81.007
8161.458 0.153 80.961 0.988 -8.791 0.988 -8.791 0.153 80.961
8186.417 0.154 80.916 0.987 -8.837 0.987 -8.837 0.154 80.916
8211.375 0.154 80.871 0.987 -8.884 0.987 -8.884 0.154 80.871
8236.333 0.155 80.825 0.987 -8.93 0.987 -8.93 0.155 80.825
8261.292 0.156 80.78 0.987 -8.977 0.987 -8.977 0.156 80.78
