# MHZ S MA R 50

50 0.995 -5.563 0.097 84.433 0.097 84.433 0.995 -5.563
74.958 0.989 -8.309 0.145 81.685 0.145 81.685 0.989 -8.309
99.917 0.982 -11.018 0.191 78.973 0.191 78.973 0.982 -11.018
124.875 0.972 -13.681 0.237 76.309 0.237 76.309 0.972 -13.681
149.833 0.96 -16.287 0.28 73.701 0.28 73.701 0.96 -16.287
174.792 0.946 -18.828 0.323 71.158 0.323 71.158 0.946 -18.828
199.75 0.932 -21.298 0.363 68.686 0.363 68.686 0.932 -21.298
224.708 0.916 -23.691 0.402 66.291 0.402 66.291 0.916 -23.691
249.667 0.899 -26.003 0.438 63.976 0.438 63.976 0.899 -26.003
274.625 0.881 -28.232 0.473 61.745 0.473 61.745 0.881 -28.232
299.583 0.863 -30.376 0.506 59.6 0.506 59.6 0.863 -30.376
324.542 0.844 -32.434 0.536 57.539 0.536 57.539 0.844 -32.434
349.5 0.825 -34.407 0.565 55.564 0.565 55.564 0.825 -34.407
374.458 0.806 -36.296 0.592 53.673 0.592 53.673 0.806 -36.296
399.417 0.787 -38.102 0.617 51.865 0.617 51.865 0.787 -38.102
424.375 0.768 -39.829 0.64 50.136 0.64 50.136 0.768 -39.829
449.333 0.749 -41.478 0.662 48.485 0.662 48.485 0.749 -41.478
474.292 0.73 -43.052 0.683 46.909 0.683 46.909 0.73 -43.052
499.25 0.712 -44.554 0.702 45.404 0.702 45.404 0.712 -44.554
524.208 0.694 -45.988 0.719 43.968 0.719 43.968 0.694 -45.988
549.167 0.677 -47.357 0.736 42.598 0.736 42.598 0.677 -47.357
574.125 0.66 -48.663 0.751 41.289 0.751 41.289 0.66 -48.663
599.083 0.643 -49.91 0.765 40.04 0.765 40.04 0.643 -49.91
624.042 0.627 -51.101 0.778 38.847 0.778 38.847 0.627 -51.101
649 0.612 -52.239 0.791 37.707 0.791 37.707 0.612 -52.239
673.958 0.596 -53.326 0.802 36.618 0.802 36.618 0.596 -53.326
698.917 0.582 -54.366 0.813 35.576 0.813 35.576 0.582 -54.366
723.875 0.568 -55.36 0.823 34.579 0.823 34.579 0.568 -55.36
748.833 0.554 -56.312 0.832 33.625 0.832 33.625 0.554 -56.312
773.792 0.54 -57.224 0.841 32.711 0.841 32.711 0.54 -57.224
798.75 0.527 -58.098 0.849 31.835 0.849 31.835 0.527 -58.098
823.708 0.515 -58.935 0.857 30.995 0.857 30.995 0.515 -58.935
848.667 0.503 -59.739 0.864 30.189 0.864 30.189 0.503 -59.739
873.625 0.491 -60.511 0.87 29.415 0.87 29.415 0.491 -60.511
898.583 0.48 -61.252 0.877 28.672 0.877 28.672 0.48 -61.252
923.542 0.469 -61.964 0.883 27.957 0.883 27.957 0.469 -61.964
948.5 0.458 -62.65 0.888 27.269 0.888 27.269 0.458 -62.65
973.458 0.448 -63.309 0.893 26.607 0.893 26.607 0.448 -63.309
998.417 0.438 -63.945 0.898 25.97 0.898 25.97 0.438 -63.945
1023.375 0.428 -64.557 0.903 25.355 0.903 25.355 0.428 -64.557
1048.333 0.419 -65.147 0.907 24.762 0.907 24.762 0.419 -65.147
1073.292 0.41 -65.716 0.912 24.191 0.912 24.191 0.41 -65.716
1098.25 0.401 -66.266 0.915 23.638 0.915 23.638 0.401 -66.266
1123.208 0.392 -66.797 0.919 23.105 0.919 23.105 0.392 -66.797
1148.167 0.384 -67.31 0.923 22.589 0.923 22.589 0.384 -67.31
1173.125 0.376 -67.806 0.926 22.091 0.926 22.091 0.376 -67.806
1198.083 0.368 -68.287 0.929 21.608 0.929 21.608 0.368 -68.287
1223.042 0.361 -68.751 0.932 21.14 0.932 21.14 0.361 -68.751
1248 0.353 -69.202 0.935 20.688 0.935 20.688 0.353 -69.202
1272.958 0.346 -69.638 0.938 20.249 0.938 20.249 0.346 -69.638
1297.917 0.339 -70.061 0.94 19.823 0.94 19.823 0.339 -70.061
1322.875 0.332 -70.472 0.942 19.41 0.942 19.41 0.332 -70.472
1347.833 0.326 -70.87 0.945 19.009 0.945 19.009 0.326 -70.87
1372.792 0.319 -71.257 0.947 18.619 0.947 18.619 0.319 -71.257
1397.75 0.313 -71.633 0.949 18.24 0.949 18.24 0.313 -71.633
1422.708 0.307 -71.998 0.951 17.872 0.951 17.872 0.307 -71.998
1447.667 0.301 -72.353 0.953 17.514 0.953 17.514 0.301 -72.353
1472.625 0.295 -72.699 0.955 17.166 0.955 17.166 0.295 -72.699
1497.583 0.289 -73.035 0.956 16.826 0.956 16.826 0.289 -73.035
1522.542 0.284 -73.363 0.958 16.496 0.958 16.496 0.284 -73.363
1547.5 0.279 -73.682 0.96 16.174 0.96 16.174 0.279 -73.682
1572.458 0.273 -73.993 0.961 15.86 0.961 15.86 0.273 -73.993
1597.417 0.268 -74.296 0.963 15.554 0.963 15.554 0.268 -74.296
1622.375 0.263 -74.592 0.964 15.255 0.964 15.255 0.263 -74.592
1647.333 0.258 -74.88 0.965 14.963 0.965 14.963 0.258 -74.88
1672.292 0.253 -75.162 0.967 14.679 0.967 14.679 0.253 -75.162
1697.25 0.249 -75.437 0.968 14.401 0.968 14.401 0.249 -75.437
1722.208 0.244 -75.705 0.969 14.129 0.969 14.129 0.244 -75.705
1747.167 0.24 -75.967 0.97 13.863 0.97 13.863 0.24 -75.967
1772.125 0.235 -76.224 0.971 13.603 0.971 13.603 0.235 -76.224
1797.083 0.231 -76.474 0.972 13.349 0.972 13.349 0.231 -76.474
1822.042 0.227 -76.72 0.973 13.101 0.973 13.101 0.227 -76.72
1847 0.223 -76.96 0.974 12.857 0.974 12.857 0.223 -76.96
1871.958 0.218 -77.194 0.975 12.619 0.975 12.619 0.218 -77.194
1896.917 0.214 -77.424 0.976 12.385 0.976 12.385 0.214 -77.424
1921.875 0.211 -77.649 0.977 12.157 0.977 12.157 0.211 -77.649
1946.833 0.207 -77.87 0.978 11.932 0.978 11.932 0.207 -77.87
1971.792 0.203 -78.086 0.978 11.713 0.978 11.713 0.203 -78.086
1996.75 0.199 -78.297 0.979 11.497 0.979 11.497 0.199 -78.297
2021.708 0.196 -78.505 0.98 11.286 0.98 11.286 0.196 -78.505
2046.667 0.192 -78.708 0.981 11.078 0.981 11.078 0.192 -78.708
2071.625 0.189 -78.908 0.981 10.874 0.981 10.874 0.189 -78.908
2096.583 0.185 -79.104 0.982 10.674 0.982 10.674 0.185 -79.104
2121.542 0.182 -79.296 0.983 10.478 0.983 10.478 0.182 -79.296
2146.5 0.179 -79.485 0.983 10.285 0.983 10.285 0.179 -79.485
2171.458 0.175 -79.67 0.984 10.095 0.984 10.095 0.175 -79.67
2196.417 0.172 -79.852 0.984 9.909 0.984 9.909 0.172 -79.852
2221.375 0.169 -80.03 0.985 9.726 0.985 9.726 0.169 -80.03
2246.333 0.166 -80.206 0.985 9.546 0.985 9.546 0.166 -80.206
2271.292 0.163 -80.378 0.986 9.368 0.986 9.368 0.163 -80.378
2296.25 0.16 -80.548 0.986 9.194 0.986 9.194 0.16 -80.548
2321.208 0.157 -80.714 0.987 9.023 0.987 9.023 0.157 -80.714
2346.167 0.154 -80.878 0.987 8.854 0.987 8.854 0.154 -80.878
2371.125 0.151 -81.039 0.988 8.687 0.988 8.687 0.151 -81.039
2396.083 0.148 -81.197 0.988 8.524 0.988 8.524 0.148 -81.197
2421.042 0.145 -81.353 0.989 8.362 0.989 8.362 0.145 -81.353
2446 0.143 -81.506 0.989 8.204 0.989 8.204 0.143 -81.506
2470.958 0.14 -81.657 0.989 8.047 0.989 8.047 0.14 -81.657
2495.917 0.137 -81.806 0.99 7.893 0.99 7.893 0.137 -81.806
2520.875 0.135 -81.952 0.99 7.741 0.99 7.741 0.135 -81.952
2545.833 0.132 -82.096 0.991 7.591 0.991 7.591 0.132 -82.096
2570.792 0.13 -82.237 0.991 7.443 0.991 7.443 0.13 -82.237
2595.75 0.127 -82.376 0.991 7.297 0.991 7.297 0.127 -82.376
2620.708 0.125 -82.514 0.991 7.153 0.991 7.153 0.125 -82.514
2645.667 0.122 -82.649 0.992 7.011 0.992 7.011 0.122 -82.649
2670.625 0.12 -82.782 0.992 6.871 0.992 6.871 0.12 -82.782
2695.583 0.117 -82.913 0.992 6.733 0.992 6.733 0.117 -82.913
2720.542 0.115 -83.042 0.993 6.596 0.993 6.596 0.115 -83.042
2745.5 0.113 -83.169 0.993 6.462 0.993 6.462 0.113 -83.169
2770.458 0.11 -83.295 0.993 6.328 0.993 6.328 0.11 -83.295
2795.417 0.108 -83.418 0.993 6.197 0.993 6.197 0.108 -83.418
2820.375 0.106 -83.54 0.994 6.067 0.994 6.067 0.106 -83.54
2845.333 0.103 -83.659 0.994 5.939 0.994 5.939 0.103 -83.659
2870.292 0.101 -83.777 0.994 5.812 0.994 5.812 0.101 -83.777
2895.25 0.099 -83.894 0.994 5.687 0.994 5.687 0.099 -83.894
2920.208 0.097 -84.008 0.995 5.563 0.995 5.563 0.097 -84.008
2945.167 0.095 -84.121 0.995 5.44 0.995 5.44 0.095 -84.121
2970.125 0.093 -84.232 0.995 5.319 0.995 5.319 0.093 -84.232
2995.083 0.091 -84.341 0.995 5.199 0.995 5.199 0.091 -84.341
3020.042 0.089 -84.449 0.995 5.081 0.995 5.081 0.089 -84.449
3045 0.087 -84.555 0.996 4.964 0.996 4.964 0.087 -84.555
3069.958 0.085 -84.659 0.996 4.848 0.996 4.848 0.085 -84.659
3094.917 0.083 -84.762 0.996 4.733 0.996 4.733 0.083 -84.762
3119.875 0.081 -84.863 0.996 4.619 0.996 4.619 0.081 -84.863
3144.833 0.079 -84.963 0.996 4.507 0.996 4.507 0.079 -84.963
3169.792 0.077 -85.061 0.996 4.396 0.996 4.396 0.077 -85.061
3194.75 0.075 -85.157 0.996 4.285 0.996 4.285 0.075 -85.157
3219.708 0.073 -85.251 0.997 4.176 0.997 4.176 0.073 -85.251
3244.667 0.071 -85.344 0.997 4.068 0.997 4.068 0.071 -85.344
3269.625 0.069 -85.435 0.997 3.961 0.997 3.961 0.069 -85.435
3294.583 0.067 -85.524 0.997 3.855 0.997 3.855 0.067 -85.524
3319.542 0.065 -85.612 0.997 3.751 0.997 3.751 0.065 -85.612
3344.5 0.064 -85.697 0.997 3.647 0.997 3.647 0.064 -85.697
3369.458 0.062 -85.781 0.997 3.543 0.997 3.543 0.062 -85.781
3394.417 0.06 -85.863 0.997 3.441 0.997 3.441 0.06 -85.863
3419.375 0.058 -85.943 0.998 3.34 0.998 3.34 0.058 -85.943
3444.333 0.057 -86.022 0.998 3.24 0.998 3.24 0.057 -86.022
3469.292 0.055 -86.098 0.998 3.14 0.998 3.14 0.055 -86.098
3494.25 0.053 -86.171 0.998 3.042 0.998 3.042 0.053 -86.171
3519.208 0.051 -86.243 0.998 2.944 0.998 2.944 0.051 -86.243
3544.167 0.05 -86.312 0.998 2.847 0.998 2.847 0.05 -86.312
3569.125 0.048 -86.379 0.998 2.751 0.998 2.751 0.048 -86.379
3594.083 0.046 -86.443 0.998 2.656 0.998 2.656 0.046 -86.443
3619.042 0.045 -86.504 0.998 2.561 0.998 2.561 0.045 -86.504
3644 0.043 -86.562 0.998 2.468 0.998 2.468 0.043 -86.562
3668.958 0.041 -86.617 0.998 2.374 0.998 2.374 0.041 -86.617
3693.917 0.04 -86.669 0.998 2.282 0.998 2.282 0.04 -86.669
3718.875 0.038 -86.717 0.999 2.191 0.999 2.191 0.038 -86.717
3743.833 0.037 -86.76 0.999 2.1 0.999 2.1 0.037 -86.76
3768.792 0.035 -86.799 0.999 2.009 0.999 2.009 0.035 -86.799
3793.75 0.034 -86.833 0.999 1.92 0.999 1.92 0.034 -86.833
3818.708 0.032 -86.861 0.999 1.831 0.999 1.831 0.032 -86.861
3843.667 0.03 -86.883 0.999 1.743 0.999 1.743 0.03 -86.883
3868.625 0.029 -86.898 0.999 1.655 0.999 1.655 0.029 -86.898
3893.583 0.027 -86.905 0.999 1.568 0.999 1.568 0.027 -86.905
3918.542 0.026 -86.902 0.999 1.482 0.999 1.482 0.026 -86.902
3943.5 0.024 -86.889 0.999 1.396 0.999 1.396 0.024 -86.889
3968.458 0.023 -86.863 0.999 1.311 0.999 1.311 0.023 -86.863
3993.417 0.021 -86.821 0.999 1.226 0.999 1.226 0.021 -86.821
4018.375 0.02 -86.762 0.999 1.142 0.999 1.142 0.02 -86.762
4043.333 0.018 -86.68 0.999 1.059 0.999 1.059 0.018 -86.68
4068.292 0.017 -86.571 0.999 0.976 0.999 0.976 0.017 -86.571
4093.25 0.016 -86.428 0.999 0.894 0.999 0.894 0.016 -86.428
4118.208 0.014 -86.24 0.999 0.812 0.999 0.812 0.014 -86.24
4143.167 0.013 -85.994 0.999 0.73 0.999 0.73 0.013 -85.994
4168.125 0.011 -85.668 0.999 0.65 0.999 0.65 0.011 -85.668
4193.083 9.962e-3 -85.23 0.999 0.569 0.999 0.569 9.962e-3 -85.23
4218.042 8.574e-3 -84.628 0.999 0.489 0.999 0.489 8.574e-3 -84.628
4243 7.195e-3 -83.769 0.999 0.41 0.999 0.41 7.195e-3 -83.769
4267.958 5.828e-3 -82.476 0.999 0.331 0.999 0.331 5.828e-3 -82.476
4292.917 4.474e-3 -80.361 0.999 0.253 0.999 0.253 4.474e-3 -80.361
4317.875 3.14e-3 -76.389 0.999 0.175 0.999 0.175 3.14e-3 -76.389
4342.833 1.852e-3 -66.702 0.999 0.098 0.999 0.098 1.852e-3 -66.702
4367.792 812.9e-6 -26.132 0.999 0.021 0.999 0.021 812.9e-6 -26.132
4392.75 1.22e-3 53.222 0.999 -0.056 0.999 -0.056 1.22e-3 53.222
4417.708 2.42e-3 72.317 0.999 -0.132 0.999 -0.132 2.42e-3 72.317
4442.667 3.701e-3 78.422 0.999 -0.208 0.999 -0.208 3.701e-3 78.422
4467.625 4.996e-3 81.319 0.999 -0.283 0.999 -0.283 4.996e-3 81.319
4492.583 6.292e-3 82.983 0.999 -0.358 0.999 -0.358 6.292e-3 82.983
4517.542 7.585e-3 84.047 0.999 -0.433 0.999 -0.433 7.585e-3 84.047
4542.5 8.873e-3 84.776 0.999 -0.507 0.999 -0.507 8.873e-3 84.776
4567.458 0.01 85.299 0.999 -0.58 0.999 -0.58 0.01 85.299
4592.417 0.011 85.687 0.999 -0.654 0.999 -0.654 0.011 85.687
4617.375 0.013 85.98 0.999 -0.727 0.999 -0.727 0.013 85.98
4642.333 0.014 86.206 0.999 -0.799 0.999 -0.799 0.014 86.206
4667.292 0.015 86.382 0.999 -0.871 0.999 -0.871 0.015 86.382
4692.25 0.016 86.519 0.999 -0.943 0.999 -0.943 0.016 86.519
4717.208 0.018 86.626 0.999 -1.015 0.999 -1.015 0.018 86.626
4742.167 0.019 86.709 0.999 -1.086 0.999 -1.086 0.019 86.709
4767.125 0.02 86.773 0.999 -1.156 0.999 -1.156 0.02 86.773
4792.083 0.021 86.822 0.999 -1.227 0.999 -1.227 0.021 86.822
4817.042 0.023 86.857 0.999 -1.297 0.999 -1.297 0.023 86.857
4842 0.024 86.881 0.999 -1.367 0.999 -1.367 0.024 86.881
4866.958 0.025 86.897 0.999 -1.436 0.999 -1.436 0.025 86.897
4891.917 0.026 86.904 0.999 -1.505 0.999 -1.505 0.026 86.904
4916.875 0.027 86.905 0.999 -1.574 0.999 -1.574 0.027 86.905
4941.833 0.029 86.9 0.999 -1.643 0.999 -1.643 0.029 86.9
4966.792 0.03 86.89 0.999 -1.711 0.999 -1.711 0.03 86.89
4991.75 0.031 86.875 0.999 -1.779 0.999 -1.779 0.031 86.875
5016.708 0.032 86.857 0.999 -1.846 0.999 -1.846 0.032 86.857
5041.667 0.033 86.835 0.999 -1.913 0.999 -1.913 0.033 86.835
5066.625 0.035 86.811 0.999 -1.98 0.999 -1.98 0.035 86.811
5091.583 0.036 86.783 0.999 -2.047 0.999 -2.047 0.036 86.783
5116.542 0.037 86.754 0.999 -2.113 0.999 -2.113 0.037 86.754
5141.5 0.038 86.722 0.999 -2.18 0.999 -2.18 0.038 86.722
5166.458 0.039 86.688 0.999 -2.245 0.999 -2.245 0.039 86.688
5191.417 0.04 86.653 0.998 -2.311 0.998 -2.311 0.04 86.653
5216.375 0.041 86.616 0.998 -2.376 0.998 -2.376 0.041 86.616
5241.333 0.043 86.578 0.998 -2.441 0.998 -2.441 0.043 86.578
5266.292 0.044 86.539 0.998 -2.506 0.998 -2.506 0.044 86.539
5291.25 0.045 86.498 0.998 -2.571 0.998 -2.571 0.045 86.498
5316.208 0.046 86.457 0.998 -2.635 0.998 -2.635 0.046 86.457
5341.167 0.047 86.414 0.998 -2.699 0.998 -2.699 0.047 86.414
5366.125 0.048 86.371 0.998 -2.763 0.998 -2.763 0.048 86.371
5391.083 0.049 86.327 0.998 -2.826 0.998 -2.826 0.049 86.327
5416.042 0.05 86.282 0.998 -2.89 0.998 -2.89 0.05 86.282
5441 0.052 86.237 0.998 -2.953 0.998 -2.953 0.052 86.237
5465.958 0.053 86.191 0.998 -3.016 0.998 -3.016 0.053 86.191
5490.917 0.054 86.144 0.998 -3.078 0.998 -3.078 0.054 86.144
5515.875 0.055 86.097 0.998 -3.141 0.998 -3.141 0.055 86.097
5540.833 0.056 86.05 0.998 -3.203 0.998 -3.203 0.056 86.05
5565.792 0.057 86.002 0.998 -3.265 0.998 -3.265 0.057 86.002
5590.75 0.058 85.954 0.998 -3.326 0.998 -3.326 0.058 85.954
5615.708 0.059 85.906 0.998 -3.388 0.998 -3.388 0.059 85.906
5640.667 0.06 85.857 0.997 -3.449 0.997 -3.449 0.06 85.857
5665.625 0.061 85.808 0.997 -3.51 0.997 -3.51 0.061 85.808
5690.583 0.062 85.759 0.997 -3.571 0.997 -3.571 0.062 85.759
5715.542 0.063 85.71 0.997 -3.632 0.997 -3.632 0.063 85.71
5740.5 0.064 85.66 0.997 -3.692 0.997 -3.692 0.064 85.66
5765.458 0.065 85.61 0.997 -3.752 0.997 -3.752 0.065 85.61
5790.417 0.066 85.56 0.997 -3.813 0.997 -3.813 0.066 85.56
5815.375 0.068 85.51 0.997 -3.872 0.997 -3.872 0.068 85.51
5840.333 0.069 85.46 0.997 -3.932 0.997 -3.932 0.069 85.46
5865.292 0.07 85.409 0.997 -3.992 0.997 -3.992 0.07 85.409
5890.25 0.071 85.359 0.997 -4.051 0.997 -4.051 0.071 85.359
5915.208 0.072 85.308 0.997 -4.11 0.997 -4.11 0.072 85.308
5940.167 0.073 85.258 0.997 -4.169 0.997 -4.169 0.073 85.258
5965.125 0.074 85.207 0.997 -4.228 0.997 -4.228 0.074 85.207
5990.083 0.075 85.156 0.996 -4.286 0.996 -4.286 0.075 85.156
6015.042 0.076 85.105 0.996 -4.344 0.996 -4.344 0.076 85.105
6040 0.077 85.054 0.996 -4.403 0.996 -4.403 0.077 85.054
6064.958 0.078 85.003 0.996 -4.461 0.996 -4.461 0.078 85.003
6089.917 0.079 84.952 0.996 -4.518 0.996 -4.518 0.079 84.952
6114.875 0.08 84.902 0.996 -4.576 0.996 -4.576 0.08 84.902
6139.833 0.081 84.851 0.996 -4.634 0.996 -4.634 0.081 84.851
6164.792 0.082 84.8 0.996 -4.691 0.996 -4.691 0.082 84.8
6189.75 0.083 84.748 0.996 -4.748 0.996 -4.748 0.083 84.748
6214.708 0.084 84.697 0.996 -4.805 0.996 -4.805 0.084 84.697
6239.667 0.085 84.646 0.996 -4.862 0.996 -4.862 0.085 84.646
6264.625 0.086 84.595 0.996 -4.919 0.996 -4.919 0.086 84.595
6289.583 0.087 84.544 0.996 -4.975 0.996 -4.975 0.087 84.544
6314.542 0.088 84.494 0.995 -5.032 0.995 -5.032 0.088 84.494
6339.5 0.089 84.443 0.995 -5.088 0.995 -5.088 0.089 84.443
6364.458 0.09 84.392 0.995 -5.144 0.995 -5.144 0.09 84.392
6389.417 0.091 84.341 0.995 -5.2 0.995 -5.2 0.091 84.341
6414.375 0.092 84.29 0.995 -5.256 0.995 -5.256 0.092 84.29
6439.333 0.093 84.239 0.995 -5.311 0.995 -5.311 0.093 84.239
6464.292 0.094 84.188 0.995 -5.367 0.995 -5.367 0.094 84.188
6489.25 0.094 84.137 0.995 -5.422 0.995 -5.422 0.094 84.137
6514.208 0.095 84.087 0.995 -5.477 0.995 -5.477 0.095 84.087
6539.167 0.096 84.036 0.995 -5.532 0.995 -5.532 0.096 84.036
6564.125 0.097 83.985 0.995 -5.587 0.995 -5.587 0.097 83.985
6589.083 0.098 83.935 0.994 -5.642 0.994 -5.642 0.098 83.935
6614.042 0.099 83.884 0.994 -5.697 0.994 -5.697 0.099 83.884
6639 0.1 83.834 0.994 -5.751 0.994 -5.751 0.1 83.834
6663.958 0.101 83.783 0.994 -5.805 0.994 -5.805 0.101 83.783
6688.917 0.102 83.733 0.994 -5.86 0.994 -5.86 0.102 83.733
6713.875 0.103 83.683 0.994 -5.914 0.994 -5.914 0.103 83.683
6738.833 0.104 83.632 0.994 -5.968 0.994 -5.968 0.104 83.632
6763.792 0.105 83.582 0.994 -6.022 0.994 -6.022 0.105 83.582
6788.75 0.106 83.532 0.994 -6.075 0.994 -6.075 0.106 83.532
6813.708 0.107 83.482 0.994 -6.129 0.994 -6.129 0.107 83.482
6838.667 0.108 83.432 0.993 -6.182 0.993 -6.182 0.108 83.432
6863.625 0.109 83.382 0.993 -6.236 0.993 -6.236 0.109 83.382
6888.583 0.11 83.332 0.993 -6.289 0.993 -6.289 0.11 83.332
6913.542 0.11 83.282 0.993 -6.342 0.993 -6.342 0.11 83.282
6938.5 0.111 83.232 0.993 -6.395 0.993 -6.395 0.111 83.232
6963.458 0.112 83.182 0.993 -6.448 0.993 -6.448 0.112 83.182
6988.417 0.113 83.133 0.993 -6.501 0.993 -6.501 0.113 83.133
7013.375 0.114 83.083 0.993 -6.553 0.993 -6.553 0.114 83.083
7038.333 0.115 83.033 0.993 -6.606 0.993 -6.606 0.115 83.033
7063.292 0.116 82.984 0.993 -6.658 0.993 -6.658 0.116 82.984
7088.25 0.117 82.934 0.992 -6.71 0.992 -6.71 0.117 82.934
7113.208 0.118 82.885 0.992 -6.763 0.992 -6.763 0.118 82.885
7138.167 0.119 82.836 0.992 -6.815 0.992 -6.815 0.119 82.836
7163.125 0.12 82.786 0.992 -6.866 0.992 -6.866 0.12 82.786
7188.083 0.12 82.737 0.992 -6.918 0.992 -6.918 0.12 82.737
7213.042 0.121 82.688 0.992 -6.97 0.992 -6.97 0.121 82.688
7238 0.122 82.639 0.992 -7.022 0.992 -7.022 0.122 82.639
7262.958 0.123 82.59 0.992 -7.073 0.992 -7.073 0.123 82.59
7287.917 0.124 82.541 0.992 -7.125 0.992 -7.125 0.124 82.541
7312.875 0.125 82.492 0.991 -7.176 0.991 -7.176 0.125 82.492
7337.833 0.126 82.443 0.991 -7.227 0.991 -7.227 0.126 82.443
7362.792 0.127 82.394 0.991 -7.278 0.991 -7.278 0.127 82.394
7387.75 0.128 82.346 0.991 -7.329 0.991 -7.329 0.128 82.346
7412.708 0.128 82.297 0.991 -7.38 0.991 -7.38 0.128 82.297
7437.667 0.129 82.249 0.991 -7.431 0.991 -7.431 0.129 82.249
7462.625 0.13 82.2 0.991 -7.481 0.991 -7.481 0.13 82.2
7487.583 0.131 82.152 0.991 -7.532 0.991 -7.532 0.131 82.152
7512.542 0.132 82.103 0.991 -7.583 0.991 -7.583 0.132 82.103
7537.5 0.133 82.055 0.99 -7.633 0.99 -7.633 0.133 82.055
7562.458 0.134 82.007 0.99 -7.683 0.99 -7.683 0.134 82.007
7587.417 0.135 81.959 0.99 -7.733 0.99 -7.733 0.135 81.959
7612.375 0.135 81.911 0.99 -7.784 0.99 -7.784 0.135 81.911
7637.333 0.136 81.863 0.99 -7.834 0.99 -7.834 0.136 81.863
7662.292 0.137 81.815 0.99 -7.884 0.99 -7.884 0.137 81.815
7687.25 0.138 81.767 0.99 -7.933 0.99 -7.933 0.138 81.767
7712.208 0.139 81.719 0.99 -7.983 0.99 -7.983 0.139 81.719
7737.167 0.14 81.671 0.989 -8.033 0.989 -8.033 0.14 81.671
7762.125 0.141 81.623 0.989 -8.082 0.989 -8.082 0.141 81.623
7787.083 0.141 81.576 0.989 -8.132 0.989 -8.132 0.141 81.576
7812.042 0.142 81.528 0.989 -8.181 0.989 -8.181 0.142 81.528
7837 0.143 81.48 0.989 -8.23 0.989 -8.23 0.143 81.48
7861.958 0.144 81.433 0.989 -8.28 0.989 -8.28 0.144 81.433
7886.917 0.145 81.386 0.989 -8.329 0.989 -8.329 0.145 81.386
7911.875 0.146 81.338 0.989 -8.378 0.989 -8.378 0.146 81.338
7936.833 0.147 81.291 0.988 -8.427 0.988 -8.427 0.147 81.291
7961.792 0.147 81.244 0.988 -8.476 0.988 -8.476 0.147 81.244
7986.75 0.148 81.197 0.988 -8.524 0.988 -8.524 0.148 81.197
8011.708 0.149 81.15 0.988 -8.573 0.988 -8.573 0.149 81.15
8036.667 0.15 81.102 0.988 -8.622 0.988 -8.622 0.15 81.102
8061.625 0.151 81.056 0.988 -8.67 0.988 -8.67 0.151 81.056
8086.583 0.152 81.009 0.988 -8.719 0.988 -8.719 0.152 81.009
8111.542 0.152 80.962 0.988 -8.767 0.988 -8.767 0.152 80.962
8136.5 0.153 80.915 0.987 -8.815 0.987 -8.815 0.153 80.915
8161.458 0.154 80.868 0.987 -8.864 0.987 -8.864 0.154 80.868
8186.417 0.155 80.822 0.987 -8.912 0.987 -8.912 0.155 80.822
8211.375 0.156 80.775 0.987 -8.96 0.987 -8.96 0.156 80.775
8236.333 0.157 80.728 0.987 -9.008 0.987 -9.008 0.157 80.728
