# MHZ S MA R 50

50 1 -0.72 0.013 89.276 0.013 89.276 1 -0.72
74.958 1 -1.079 0.019 88.915 0.019 88.915 1 -1.079
99.917 1 -1.439 0.025 88.554 0.025 88.554 1 -1.439
124.875 1 -1.798 0.031 88.193 0.031 88.193 1 -1.798
149.833 0.999 -2.157 0.038 87.832 0.038 87.832 0.999 -2.157
174.792 0.999 -2.516 0.044 87.471 0.044 87.471 0.999 -2.516
199.75 0.999 -2.875 0.05 87.111 0.05 87.111 0.999 -2.875
224.708 0.998 -3.233 0.056 86.75 0.056 86.75 0.998 -3.233
249.667 0.998 -3.592 0.063 86.39 0.063 86.39 0.998 -3.592
274.625 0.998 -3.95 0.069 86.03 0.069 86.03 0.998 -3.95
299.583 0.997 -4.308 0.075 85.67 0.075 85.67 0.997 -4.308
324.542 0.997 -4.666 0.081 85.31 0.081 85.31 0.997 -4.666
349.5 0.996 -5.024 0.088 84.951 0.088 84.951 0.996 -5.024
374.458 0.996 -5.381 0.094 84.592 0.094 84.592 0.996 -5.381
399.417 0.995 -5.738 0.1 84.233 0.1 84.233 0.995 -5.738
424.375 0.994 -6.095 0.106 83.874 0.106 83.874 0.994 -6.095
449.333 0.994 -6.451 0.112 83.516 0.112 83.516 0.994 -6.451
474.292 0.993 -6.807 0.119 83.158 0.119 83.158 0.993 -6.807
499.25 0.992 -7.163 0.125 82.801 0.125 82.801 0.992 -7.163
524.208 0.991 -7.518 0.131 82.444 0.131 82.444 0.991 -7.518
549.167 0.99 -7.873 0.137 82.087 0.137 82.087 0.99 -7.873
574.125 0.99 -8.227 0.143 81.731 0.143 81.731 0.99 -8.227
599.083 0.989 -8.581 0.149 81.375 0.149 81.375 0.989 -8.581
624.042 0.988 -8.934 0.155 81.02 0.155 81.02 0.988 -8.934
649 0.987 -9.287 0.161 80.665 0.161 80.665 0.987 -9.287
673.958 0.986 -9.64 0.167 80.311 0.167 80.311 0.986 -9.64
698.917 0.985 -9.992 0.174 79.957 0.174 79.957 0.985 -9.992
723.875 0.984 -10.343 0.18 79.604 0.18 79.604 0.984 -10.343
748.833 0.982 -10.694 0.186 79.251 0.186 79.251 0.982 -10.694
773.792 0.981 -11.044 0.192 78.899 0.192 78.899 0.981 -11.044
798.75 0.98 -11.394 0.198 78.548 0.198 78.548 0.98 -11.394
823.708 0.979 -11.743 0.204 78.197 0.204 78.197 0.979 -11.743
848.667 0.978 -12.092 0.209 77.846 0.209 77.846 0.978 -12.092
873.625 0.976 -12.44 0.215 77.497 0.215 77.497 0.976 -12.44
898.583 0.975 -12.787 0.221 77.148 0.221 77.148 0.975 -12.787
923.542 0.974 -13.133 0.227 76.799 0.227 76.799 0.974 -13.133
948.5 0.972 -13.479 0.233 76.451 0.233 76.451 0.972 -13.479
973.458 0.971 -13.824 0.239 76.104 0.239 76.104 0.971 -13.824
998.417 0.969 -14.169 0.245 75.758 0.245 75.758 0.969 -14.169
1023.375 0.968 -14.512 0.251 75.413 0.251 75.413 0.968 -14.512
1048.333 0.966 -14.855 0.256 75.068 0.256 75.068 0.966 -14.855
1073.292 0.965 -15.198 0.262 74.724 0.262 74.724 0.965 -15.198
1098.25 0.963 -15.539 0.268 74.381 0.268 74.381 0.963 -15.539
1123.208 0.961 -15.88 0.274 74.038 0.274 74.038 0.961 -15.88
1148.167 0.96 -16.219 0.279 73.696 0.279 73.696 0.96 -16.219
1173.125 0.958 -16.558 0.285 73.355 0.285 73.355 0.958 -16.558
1198.083 0.956 -16.897 0.291 73.015 0.291 73.015 0.956 -16.897
1223.042 0.955 -17.234 0.296 72.676 0.296 72.676 0.955 -17.234
1248 0.953 -17.57 0.302 72.338 0.302 72.338 0.953 -17.57
1272.958 0.951 -17.906 0.307 72 0.307 72 0.951 -17.906
1297.917 0.949 -18.241 0.313 71.664 0.313 71.664 0.949 -18.241
1322.875 0.947 -18.575 0.319 71.328 0.319 71.328 0.947 -18.575
1347.833 0.945 -18.908 0.324 70.993 0.324 70.993 0.945 -18.908
1372.792 0.944 -19.24 0.33 70.659 0.33 70.659 0.944 -19.24
1397.75 0.942 -19.571 0.335 70.326 0.335 70.326 0.942 -19.571
1422.708 0.94 -19.901 0.34 69.994 0.34 69.994 0.94 -19.901
1447.667 0.938 -20.23 0.346 69.663 0.346 69.663 0.938 -20.23
1472.625 0.936 -20.558 0.351 69.333 0.351 69.333 0.936 -20.558
1497.583 0.934 -20.886 0.357 69.004 0.357 69.004 0.934 -20.886
1522.542 0.932 -21.212 0.362 68.676 0.362 68.676 0.932 -21.212
1547.5 0.929 -21.537 0.367 68.348 0.367 68.348 0.929 -21.537
1572.458 0.927 -21.862 0.372 68.022 0.372 68.022 0.927 -21.862
1597.417 0.925 -22.185 0.378 67.697 0.378 67.697 0.925 -22.185
1622.375 0.923 -22.507 0.383 67.373 0.383 67.373 0.923 -22.507
1647.333 0.921 -22.829 0.388 67.049 0.388 67.049 0.921 -22.829
1672.292 0.919 -23.149 0.393 66.727 0.393 66.727 0.919 -23.149
1697.25 0.916 -23.468 0.398 66.406 0.398 66.406 0.916 -23.468
1722.208 0.914 -23.786 0.403 66.086 0.403 66.086 0.914 -23.786
1747.167 0.912 -24.104 0.408 65.767 0.408 65.767 0.912 -24.104
1772.125 0.91 -24.42 0.413 65.449 0.413 65.449 0.91 -24.42
1797.083 0.907 -24.735 0.418 65.132 0.418 65.132 0.907 -24.735
1822.042 0.905 -25.049 0.423 64.816 0.423 64.816 0.905 -25.049
1847 0.903 -25.361 0.428 64.501 0.428 64.501 0.903 -25.361
1871.958 0.9 -25.673 0.433 64.187 0.433 64.187 0.9 -25.673
1896.917 0.898 -25.984 0.438 63.875 0.438 63.875 0.898 -25.984
1921.875 0.895 -26.293 0.443 63.563 0.443 63.563 0.895 -26.293
1946.833 0.893 -26.602 0.448 63.253 0.448 63.253 0.893 -26.602
1971.792 0.891 -26.909 0.453 62.944 0.453 62.944 0.891 -26.909
1996.75 0.888 -27.216 0.457 62.635 0.457 62.635 0.888 -27.216
2021.708 0.886 -27.521 0.462 62.328 0.462 62.328 0.886 -27.521
2046.667 0.883 -27.825 0.467 62.022 0.467 62.022 0.883 -27.825
2071.625 0.881 -28.128 0.471 61.718 0.471 61.718 0.881 -28.128
2096.583 0.878 -28.429 0.476 61.414 0.476 61.414 0.878 -28.429
2121.542 0.876 -28.73 0.481 61.111 0.481 61.111 0.876 -28.73
2146.5 0.873 -29.029 0.485 60.81 0.485 60.81 0.873 -29.029
2171.458 0.87 -29.328 0.49 60.51 0.49 60.51 0.87 -29.328
2196.417 0.868 -29.625 0.494 60.21 0.494 60.21 0.868 -29.625
2221.375 0.865 -29.921 0.499 59.912 0.499 59.912 0.865 -29.921
2246.333 0.863 -30.216 0.503 59.615 0.503 59.615 0.863 -30.216
2271.292 0.86 -30.509 0.508 59.32 0.508 59.32 0.86 -30.509
2296.25 0.857 -30.802 0.512 59.025 0.512 59.025 0.857 -30.802
2321.208 0.855 -31.093 0.516 58.732 0.516 58.732 0.855 -31.093
2346.167 0.852 -31.384 0.521 58.44 0.521 58.44 0.852 -31.384
2371.125 0.849 -31.673 0.525 58.148 0.525 58.148 0.849 -31.673
2396.083 0.847 -31.96 0.529 57.859 0.529 57.859 0.847 -31.96
2421.042 0.844 -32.247 0.534 57.57 0.534 57.57 0.844 -32.247
2446 0.841 -32.533 0.538 57.282 0.538 57.282 0.841 -32.533
2470.958 0.839 -32.817 0.542 56.996 0.542 56.996 0.839 -32.817
2495.917 0.836 -33.1 0.546 56.711 0.546 56.711 0.836 -33.1
2520.875 0.833 -33.382 0.55 56.426 0.55 56.426 0.833 -33.382
2545.833 0.83 -33.663 0.554 56.144 0.554 56.144 0.83 -33.663
2570.792 0.828 -33.943 0.558 55.862 0.558 55.862 0.828 -33.943
2595.75 0.825 -34.221 0.562 55.581 0.562 55.581 0.825 -34.221
2620.708 0.822 -34.499 0.566 55.302 0.566 55.302 0.822 -34.499
2645.667 0.819 -34.775 0.57 55.024 0.57 55.024 0.819 -34.775
2670.625 0.817 -35.05 0.574 54.746 0.574 54.746 0.817 -35.05
2695.583 0.814 -35.324 0.578 54.471 0.578 54.471 0.814 -35.324
2720.542 0.811 -35.596 0.582 54.196 0.582 54.196 0.811 -35.596
2745.5 0.808 -35.868 0.586 53.922 0.586 53.922 0.808 -35.868
2770.458 0.805 -36.138 0.59 53.65 0.59 53.65 0.805 -36.138
2795.417 0.803 -36.407 0.594 53.379 0.594 53.379 0.803 -36.407
2820.375 0.8 -36.675 0.597 53.108 0.597 53.108 0.8 -36.675
2845.333 0.797 -36.942 0.601 52.839 0.601 52.839 0.797 -36.942
2870.292 0.794 -37.208 0.605 52.572 0.605 52.572 0.794 -37.208
2895.25 0.791 -37.472 0.608 52.305 0.608 52.305 0.791 -37.472
2920.208 0.788 -37.736 0.612 52.04 0.612 52.04 0.788 -37.736
2945.167 0.786 -37.998 0.616 51.775 0.616 51.775 0.786 -37.998
2970.125 0.783 -38.259 0.619 51.512 0.619 51.512 0.783 -38.259
2995.083 0.78 -38.519 0.623 51.25 0.623 51.25 0.78 -38.519
3020.042 0.777 -38.777 0.626 50.989 0.626 50.989 0.777 -38.777
3045 0.774 -39.035 0.63 50.73 0.63 50.73 0.774 -39.035
3069.958 0.771 -39.291 0.633 50.471 0.633 50.471 0.771 -39.291
3094.917 0.768 -39.547 0.637 50.214 0.637 50.214 0.768 -39.547
3119.875 0.766 -39.801 0.64 49.957 0.64 49.957 0.766 -39.801
3144.833 0.763 -40.054 0.644 49.702 0.644 49.702 0.763 -40.054
3169.792 0.76 -40.305 0.647 49.448 0.647 49.448 0.76 -40.305
3194.75 0.757 -40.556 0.65 49.195 0.65 49.195 0.757 -40.556
3219.708 0.754 -40.806 0.654 48.944 0.654 48.944 0.754 -40.806
3244.667 0.751 -41.054 0.657 48.693 0.657 48.693 0.751 -41.054
3269.625 0.748 -41.301 0.66 48.443 0.66 48.443 0.748 -41.301
3294.583 0.745 -41.548 0.663 48.195 0.663 48.195 0.745 -41.548
3319.542 0.743 -41.793 0.666 47.948 0.666 47.948 0.743 -41.793
3344.5 0.74 -42.036 0.67 47.702 0.67 47.702 0.74 -42.036
3369.458 0.737 -42.279 0.673 47.456 0.673 47.456 0.737 -42.279
3394.417 0.734 -42.521 0.676 47.212 0.676 47.212 0.734 -42.521
3419.375 0.731 -42.762 0.679 46.97 0.679 46.97 0.731 -42.762
3444.333 0.728 -43.001 0.682 46.728 0.682 46.728 0.728 -43.001
3469.292 0.725 -43.239 0.685 46.487 0.685 46.487 0.725 -43.239
3494.25 0.722 -43.477 0.688 46.248 0.688 46.248 0.722 -43.477
3519.208 0.719 -43.713 0.691 46.009 0.691 46.009 0.719 -43.713
3544.167 0.717 -43.948 0.694 45.772 0.694 45.772 0.717 -43.948
3569.125 0.714 -44.182 0.697 45.535 0.697 45.535 0.714 -44.182
3594.083 0.711 -44.415 0.7 45.3 0.7 45.3 0.711 -44.415
3619.042 0.708 -44.647 0.703 45.066 0.703 45.066 0.708 -44.647
3644 0.705 -44.878 0.706 44.833 0.706 44.833 0.705 -44.878
3668.958 0.702 -45.107 0.708 44.601 0.708 44.601 0.702 -45.107
3693.917 0.699 -45.336 0.711 44.37 0.711 44.37 0.699 -45.336
3718.875 0.696 -45.564 0.714 44.14 0.714 44.14 0.696 -45.564
3743.833 0.694 -45.79 0.717 43.911 0.717 43.911 0.694 -45.79
3768.792 0.691 -46.016 0.72 43.683 0.72 43.683 0.691 -46.016
3793.75 0.688 -46.24 0.722 43.456 0.722 43.456 0.688 -46.24
3818.708 0.685 -46.464 0.725 43.23 0.725 43.23 0.685 -46.464
3843.667 0.682 -46.686 0.728 43.005 0.728 43.005 0.682 -46.686
3868.625 0.679 -46.907 0.73 42.781 0.73 42.781 0.679 -46.907
3893.583 0.676 -47.128 0.733 42.559 0.733 42.559 0.676 -47.128
3918.542 0.673 -47.347 0.735 42.337 0.735 42.337 0.673 -47.347
3943.5 0.671 -47.565 0.738 42.116 0.738 42.116 0.671 -47.565
3968.458 0.668 -47.783 0.741 41.897 0.741 41.897 0.668 -47.783
3993.417 0.665 -47.999 0.743 41.678 0.743 41.678 0.665 -47.999
4018.375 0.662 -48.214 0.746 41.46 0.746 41.46 0.662 -48.214
4043.333 0.659 -48.428 0.748 41.243 0.748 41.243 0.659 -48.428
4068.292 0.656 -48.641 0.751 41.028 0.751 41.028 0.656 -48.641
4093.25 0.654 -48.854 0.753 40.813 0.753 40.813 0.654 -48.854
4118.208 0.651 -49.065 0.755 40.599 0.755 40.599 0.651 -49.065
4143.167 0.648 -49.275 0.758 40.386 0.758 40.386 0.648 -49.275
4168.125 0.645 -49.485 0.76 40.174 0.76 40.174 0.645 -49.485
4193.083 0.642 -49.693 0.763 39.963 0.763 39.963 0.642 -49.693
4218.042 0.639 -49.9 0.765 39.753 0.765 39.753 0.639 -49.9
4243 0.637 -50.107 0.767 39.545 0.767 39.545 0.637 -50.107
4267.958 0.634 -50.312 0.77 39.336 0.77 39.336 0.634 -50.312
4292.917 0.631 -50.517 0.772 39.129 0.772 39.129 0.631 -50.517
4317.875 0.628 -50.72 0.774 38.923 0.774 38.923 0.628 -50.72
4342.833 0.625 -50.923 0.776 38.718 0.776 38.718 0.625 -50.923
4367.792 0.623 -51.125 0.779 38.514 0.779 38.514 0.623 -51.125
4392.75 0.62 -51.325 0.781 38.31 0.781 38.31 0.62 -51.325
4417.708 0.617 -51.525 0.783 38.108 0.783 38.108 0.617 -51.525
4442.667 0.614 -51.724 0.785 37.906 0.785 37.906 0.614 -51.724
4467.625 0.612 -51.922 0.787 37.706 0.787 37.706 0.612 -51.922
4492.583 0.609 -52.119 0.789 37.506 0.789 37.506 0.609 -52.119
4517.542 0.606 -52.315 0.791 37.307 0.791 37.307 0.606 -52.315
4542.5 0.603 -52.51 0.793 37.109 0.793 37.109 0.603 -52.51
4567.458 0.601 -52.705 0.796 36.912 0.796 36.912 0.601 -52.705
4592.417 0.598 -52.898 0.798 36.716 0.798 36.716 0.598 -52.898
4617.375 0.595 -53.091 0.8 36.521 0.8 36.521 0.595 -53.091
4642.333 0.592 -53.282 0.802 36.326 0.802 36.326 0.592 -53.282
4667.292 0.59 -53.473 0.804 36.133 0.804 36.133 0.59 -53.473
4692.25 0.587 -53.663 0.806 35.94 0.806 35.94 0.587 -53.663
4717.208 0.584 -53.852 0.808 35.748 0.808 35.748 0.584 -53.852
4742.167 0.582 -54.04 0.809 35.557 0.809 35.557 0.582 -54.04
4767.125 0.579 -54.227 0.811 35.367 0.811 35.367 0.579 -54.227
4792.083 0.576 -54.414 0.813 35.178 0.813 35.178 0.576 -54.414
4817.042 0.573 -54.6 0.815 34.989 0.815 34.989 0.573 -54.6
4842 0.571 -54.784 0.817 34.801 0.817 34.801 0.571 -54.784
4866.958 0.568 -54.968 0.819 34.615 0.819 34.615 0.568 -54.968
4891.917 0.565 -55.151 0.821 34.429 0.821 34.429 0.565 -55.151
4916.875 0.563 -55.334 0.822 34.243 0.822 34.243 0.563 -55.334
4941.833 0.56 -55.515 0.824 34.059 0.824 34.059 0.56 -55.515
4966.792 0.557 -55.696 0.826 33.876 0.826 33.876 0.557 -55.696
4991.75 0.555 -55.875 0.828 33.693 0.828 33.693 0.555 -55.875
5016.708 0.552 -56.054 0.83 33.511 0.83 33.511 0.552 -56.054
5041.667 0.549 -56.232 0.831 33.33 0.831 33.33 0.549 -56.232
5066.625 0.547 -56.41 0.833 33.149 0.833 33.149 0.547 -56.41
5091.583 0.544 -56.586 0.835 32.97 0.835 32.97 0.544 -56.586
5116.542 0.542 -56.762 0.836 32.791 0.836 32.791 0.542 -56.762
5141.5 0.539 -56.937 0.838 32.613 0.838 32.613 0.539 -56.937
5166.458 0.536 -57.111 0.84 32.436 0.84 32.436 0.536 -57.111
5191.417 0.534 -57.284 0.841 32.259 0.841 32.259 0.534 -57.284
5216.375 0.531 -57.457 0.843 32.084 0.843 32.084 0.531 -57.457
5241.333 0.529 -57.629 0.845 31.909 0.845 31.909 0.529 -57.629
5266.292 0.526 -57.8 0.846 31.734 0.846 31.734 0.526 -57.8
5291.25 0.523 -57.97 0.848 31.561 0.848 31.561 0.523 -57.97
5316.208 0.521 -58.14 0.849 31.388 0.849 31.388 0.521 -58.14
5341.167 0.518 -58.309 0.851 31.216 0.851 31.216 0.518 -58.309
5366.125 0.516 -58.477 0.852 31.045 0.852 31.045 0.516 -58.477
5391.083 0.513 -58.644 0.854 30.874 0.854 30.874 0.513 -58.644
5416.042 0.511 -58.81 0.855 30.705 0.855 30.705 0.511 -58.81
5441 0.508 -58.976 0.857 30.536 0.857 30.536 0.508 -58.976
5465.958 0.506 -59.141 0.858 30.367 0.858 30.367 0.506 -59.141
5490.917 0.503 -59.306 0.86 30.2 0.86 30.2 0.503 -59.306
5515.875 0.501 -59.469 0.861 30.033 0.861 30.033 0.501 -59.469
5540.833 0.498 -59.632 0.863 29.866 0.863 29.866 0.498 -59.632
5565.792 0.495 -59.794 0.864 29.701 0.864 29.701 0.495 -59.794
5590.75 0.493 -59.956 0.866 29.536 0.866 29.536 0.493 -59.956
5615.708 0.49 -60.117 0.867 29.372 0.867 29.372 0.49 -60.117
5640.667 0.488 -60.277 0.868 29.208 0.868 29.208 0.488 -60.277
5665.625 0.486 -60.436 0.87 29.046 0.87 29.046 0.486 -60.436
5690.583 0.483 -60.595 0.871 28.883 0.871 28.883 0.483 -60.595
5715.542 0.481 -60.753 0.873 28.722 0.873 28.722 0.481 -60.753
5740.5 0.478 -60.91 0.874 28.561 0.874 28.561 0.478 -60.91
5765.458 0.476 -61.066 0.875 28.401 0.875 28.401 0.476 -61.066
5790.417 0.473 -61.222 0.877 28.242 0.877 28.242 0.473 -61.222
5815.375 0.471 -61.377 0.878 28.083 0.878 28.083 0.471 -61.377
5840.333 0.468 -61.532 0.879 27.925 0.879 27.925 0.468 -61.532
5865.292 0.466 -61.686 0.88 27.767 0.88 27.767 0.466 -61.686
5890.25 0.463 -61.839 0.882 27.61 0.882 27.61 0.463 -61.839
5915.208 0.461 -61.992 0.883 27.454 0.883 27.454 0.461 -61.992
5940.167 0.459 -62.144 0.884 27.299 0.884 27.299 0.459 -62.144
5965.125 0.456 -62.295 0.885 27.144 0.885 27.144 0.456 -62.295
5990.083 0.454 -62.445 0.887 26.989 0.887 26.989 0.454 -62.445
6015.042 0.451 -62.595 0.888 26.836 0.888 26.836 0.451 -62.595
6040 0.449 -62.745 0.889 26.682 0.889 26.682 0.449 -62.745
6064.958 0.447 -62.893 0.89 26.53 0.89 26.53 0.447 -62.893
6089.917 0.444 -63.041 0.891 26.378 0.891 26.378 0.444 -63.041
6114.875 0.442 -63.189 0.893 26.227 0.893 26.227 0.442 -63.189
6139.833 0.44 -63.335 0.894 26.076 0.894 26.076 0.44 -63.335
6164.792 0.437 -63.482 0.895 25.926 0.895 25.926 0.437 -63.482
6189.75 0.435 -63.627 0.896 25.777 0.896 25.777 0.435 -63.627
6214.708 0.433 -63.772 0.897 25.628 0.897 25.628 0.433 -63.772
6239.667 0.43 -63.916 0.898 25.479 0.898 25.479 0.43 -63.916
6264.625 0.428 -64.06 0.899 25.332 0.899 25.332 0.428 -64.06
6289.583 0.426 -64.203 0.9 25.185 0.9 25.185 0.426 -64.203
6314.542 0.423 -64.346 0.901 25.038 0.901 25.038 0.423 -64.346
6339.5 0.421 -64.487 0.903 24.892 0.903 24.892 0.421 -64.487
6364.458 0.419 -64.629 0.904 24.747 0.904 24.747 0.419 -64.629
6389.417 0.416 -64.769 0.905 24.602 0.905 24.602 0.416 -64.769
6414.375 0.414 -64.909 0.906 24.458 0.906 24.458 0.414 -64.909
6439.333 0.412 -65.049 0.907 24.314 0.907 24.314 0.412 -65.049
6464.292 0.409 -65.188 0.908 24.171 0.908 24.171 0.409 -65.188
6489.25 0.407 -65.326 0.909 24.028 0.909 24.028 0.407 -65.326
6514.208 0.405 -65.464 0.91 23.886 0.91 23.886 0.405 -65.464
6539.167 0.403 -65.601 0.911 23.745 0.911 23.745 0.403 -65.601
6564.125 0.4 -65.738 0.912 23.604 0.912 23.604 0.4 -65.738
6589.083 0.398 -65.874 0.913 23.463 0.913 23.463 0.398 -65.874
6614.042 0.396 -66.009 0.914 23.323 0.914 23.323 0.396 -66.009
6639 0.394 -66.144 0.915 23.184 0.915 23.184 0.394 -66.144
6663.958 0.391 -66.278 0.916 23.045 0.916 23.045 0.391 -66.278
6688.917 0.389 -66.412 0.917 22.907 0.917 22.907 0.389 -66.412
6713.875 0.387 -66.545 0.917 22.769 0.917 22.769 0.387 -66.545
6738.833 0.385 -66.678 0.918 22.631 0.918 22.631 0.385 -66.678
6763.792 0.383 -66.81 0.919 22.495 0.919 22.495 0.383 -66.81
6788.75 0.38 -66.942 0.92 22.358 0.92 22.358 0.38 -66.942
6813.708 0.378 -67.073 0.921 22.223 0.921 22.223 0.378 -67.073
6838.667 0.376 -67.203 0.922 22.087 0.922 22.087 0.376 -67.203
6863.625 0.374 -67.333 0.923 21.953 0.923 21.953 0.374 -67.333
6888.583 0.372 -67.462 0.924 21.818 0.924 21.818 0.372 -67.462
6913.542 0.37 -67.591 0.925 21.685 0.925 21.685 0.37 -67.591
6938.5 0.367 -67.72 0.925 21.551 0.925 21.551 0.367 -67.72
6963.458 0.365 -67.848 0.926 21.419 0.926 21.419 0.365 -67.848
6988.417 0.363 -67.975 0.927 21.286 0.927 21.286 0.363 -67.975
7013.375 0.361 -68.102 0.928 21.154 0.928 21.154 0.361 -68.102
7038.333 0.359 -68.228 0.929 21.023 0.929 21.023 0.359 -68.228
7063.292 0.357 -68.354 0.93 20.892 0.93 20.892 0.357 -68.354
7088.25 0.355 -68.479 0.93 20.762 0.93 20.762 0.355 -68.479
7113.208 0.352 -68.603 0.931 20.632 0.931 20.632 0.352 -68.603
7138.167 0.35 -68.728 0.932 20.502 0.932 20.502 0.35 -68.728
7163.125 0.348 -68.851 0.933 20.373 0.933 20.373 0.348 -68.851
7188.083 0.346 -68.975 0.934 20.245 0.934 20.245 0.346 -68.975
7213.042 0.344 -69.097 0.934 20.117 0.934 20.117 0.344 -69.097
7238 0.342 -69.219 0.935 19.989 0.935 19.989 0.342 -69.219
7262.958 0.34 -69.341 0.936 19.862 0.936 19.862 0.34 -69.341
7287.917 0.338 -69.462 0.937 19.735 0.937 19.735 0.338 -69.462
7312.875 0.336 -69.583 0.937 19.609 0.937 19.609 0.336 -69.583
7337.833 0.334 -69.703 0.938 19.483 0.938 19.483 0.334 -69.703
7362.792 0.331 -69.823 0.939 19.358 0.939 19.358 0.331 -69.823
7387.75 0.329 -69.942 0.939 19.233 0.939 19.233 0.329 -69.942
7412.708 0.327 -70.061 0.94 19.108 0.94 19.108 0.327 -70.061
7437.667 0.325 -70.179 0.941 18.984 0.941 18.984 0.325 -70.179
7462.625 0.323 -70.297 0.942 18.86 0.942 18.86 0.323 -70.297
7487.583 0.321 -70.414 0.942 18.737 0.942 18.737 0.321 -70.414
7512.542 0.319 -70.531 0.943 18.614 0.943 18.614 0.319 -70.531
7537.5 0.317 -70.647 0.944 18.492 0.944 18.492 0.317 -70.647
7562.458 0.315 -70.763 0.944 18.37 0.944 18.37 0.315 -70.763
7587.417 0.313 -70.878 0.945 18.249 0.945 18.249 0.313 -70.878
7612.375 0.311 -70.993 0.946 18.127 0.946 18.127 0.311 -70.993
7637.333 0.309 -71.108 0.946 18.007 0.946 18.007 0.309 -71.108
7662.292 0.307 -71.222 0.947 17.886 0.947 17.886 0.307 -71.222
7687.25 0.305 -71.335 0.948 17.766 0.948 17.766 0.305 -71.335
7712.208 0.303 -71.448 0.948 17.647 0.948 17.647 0.303 -71.448
7737.167 0.301 -71.561 0.949 17.528 0.949 17.528 0.301 -71.561
7762.125 0.299 -71.673 0.949 17.409 0.949 17.409 0.299 -71.673
7787.083 0.297 -71.784 0.95 17.291 0.95 17.291 0.297 -71.784
7812.042 0.295 -71.895 0.951 17.173 0.951 17.173 0.295 -71.895
7837 0.293 -72.006 0.951 17.055 0.951 17.055 0.293 -72.006
7861.958 0.291 -72.116 0.952 16.938 0.952 16.938 0.291 -72.116
7886.917 0.289 -72.226 0.952 16.822 0.952 16.822 0.289 -72.226
7911.875 0.287 -72.336 0.953 16.705 0.953 16.705 0.287 -72.336
7936.833 0.286 -72.444 0.954 16.589 0.954 16.589 0.286 -72.444
7961.792 0.284 -72.553 0.954 16.474 0.954 16.474 0.284 -72.553
7986.75 0.282 -72.661 0.955 16.358 0.955 16.358 0.282 -72.661
8011.708 0.28 -72.768 0.955 16.244 0.955 16.244 0.28 -72.768
8036.667 0.278 -72.875 0.956 16.129 0.956 16.129 0.278 -72.875
8061.625 0.276 -72.982 0.956 16.015 0.956 16.015 0.276 -72.982
8086.583 0.274 -73.088 0.957 15.901 0.957 15.901 0.274 -73.088
8111.542 0.272 -73.194 0.957 15.788 0.957 15.788 0.272 -73.194
8136.5 0.27 -73.299 0.958 15.675 0.958 15.675 0.27 -73.299
