# MHZ S MA R 50

50 0.998 -3.326 0.058 86.669 0.058 86.669 0.998 -3.326
74.958 0.996 -4.98 0.087 85.013 0.087 85.013 0.996 -4.98
99.917 0.993 -6.626 0.115 83.365 0.115 83.365 0.993 -6.626
124.875 0.99 -8.262 0.144 81.727 0.144 81.727 0.99 -8.262
149.833 0.985 -9.885 0.172 80.102 0.172 80.102 0.985 -9.885
174.792 0.98 -11.493 0.199 78.492 0.199 78.492 0.98 -11.493
199.75 0.974 -13.084 0.226 76.899 0.226 76.899 0.974 -13.084
224.708 0.967 -14.656 0.253 75.325 0.253 75.325 0.967 -14.656
249.667 0.96 -16.207 0.279 73.772 0.279 73.772 0.96 -16.207
274.625 0.952 -17.735 0.305 72.242 0.305 72.242 0.952 -17.735
299.583 0.944 -19.239 0.33 70.735 0.33 70.735 0.944 -19.239
324.542 0.935 -20.718 0.354 69.255 0.354 69.255 0.935 -20.718
349.5 0.926 -22.17 0.377 67.8 0.377 67.8 0.926 -22.17
374.458 0.916 -23.595 0.4 66.374 0.4 66.374 0.916 -23.595
399.417 0.906 -24.991 0.422 64.975 0.422 64.975 0.906 -24.991
424.375 0.896 -26.359 0.444 63.606 0.444 63.606 0.896 -26.359
449.333 0.885 -27.696 0.465 62.266 0.465 62.266 0.885 -27.696
474.292 0.874 -29.004 0.485 60.956 0.485 60.956 0.874 -29.004
499.25 0.863 -30.282 0.504 59.676 0.504 59.676 0.863 -30.282
524.208 0.852 -31.53 0.523 58.426 0.523 58.426 0.852 -31.53
549.167 0.841 -32.747 0.541 57.206 0.541 57.206 0.841 -32.747
574.125 0.829 -33.935 0.558 56.017 0.558 56.017 0.829 -33.935
599.083 0.818 -35.093 0.575 54.857 0.575 54.857 0.818 -35.093
624.042 0.806 -36.221 0.591 53.726 0.591 53.726 0.806 -36.221
649 0.795 -37.32 0.606 52.625 0.606 52.625 0.795 -37.32
673.958 0.783 -38.391 0.621 51.552 0.621 51.552 0.783 -38.391
698.917 0.772 -39.433 0.635 50.508 0.635 50.508 0.772 -39.433
723.875 0.76 -40.448 0.649 49.491 0.649 49.491 0.76 -40.448
748.833 0.749 -41.435 0.662 48.502 0.662 48.502 0.749 -41.435
773.792 0.738 -42.396 0.674 47.538 0.674 47.538 0.738 -42.396
798.75 0.727 -43.331 0.686 46.601 0.686 46.601 0.727 -43.331
823.708 0.716 -44.241 0.698 45.689 0.698 45.689 0.716 -44.241
848.667 0.705 -45.126 0.709 44.802 0.709 44.802 0.705 -45.126
873.625 0.694 -45.987 0.719 43.938 0.719 43.938 0.694 -45.987
898.583 0.683 -46.825 0.729 43.098 0.729 43.098 0.683 -46.825
923.542 0.673 -47.64 0.739 42.281 0.739 42.281 0.673 -47.64
948.5 0.662 -48.434 0.748 41.485 0.748 41.485 0.662 -48.434
973.458 0.652 -49.206 0.757 40.711 0.757 40.711 0.652 -49.206
998.417 0.642 -49.957 0.766 39.958 0.766 39.958 0.642 -49.957
1023.375 0.632 -50.688 0.774 39.224 0.774 39.224 0.632 -50.688
1048.333 0.623 -51.4 0.782 38.51 0.782 38.51 0.623 -51.4
1073.292 0.613 -52.093 0.789 37.815 0.789 37.815 0.613 -52.093
1098.25 0.604 -52.767 0.796 37.138 0.796 37.138 0.604 -52.767
1123.208 0.595 -53.425 0.803 36.479 0.803 36.479 0.595 -53.425
1148.167 0.585 -54.065 0.81 35.836 0.81 35.836 0.585 -54.065
1173.125 0.577 -54.688 0.816 35.211 0.816 35.211 0.577 -54.688
1198.083 0.568 -55.296 0.822 34.601 0.822 34.601 0.568 -55.296
1223.042 0.559 -55.888 0.828 34.006 0.828 34.006 0.559 -55.888
1248 0.551 -56.465 0.834 33.427 0.834 33.427 0.551 -56.465
1272.958 0.543 -57.027 0.839 32.862 0.839 32.862 0.543 -57.027
1297.917 0.535 -57.576 0.844 32.311 0.844 32.311 0.535 -57.576
1322.875 0.527 -58.111 0.849 31.773 0.849 31.773 0.527 -58.111
1347.833 0.519 -58.633 0.854 31.249 0.854 31.249 0.519 -58.633
1372.792 0.511 -59.143 0.858 30.737 0.858 30.737 0.511 -59.143
1397.75 0.504 -59.64 0.863 30.237 0.863 30.237 0.504 -59.64
1422.708 0.496 -60.126 0.867 29.749 0.867 29.749 0.496 -60.126
1447.667 0.489 -60.6 0.871 29.273 0.871 29.273 0.489 -60.6
1472.625 0.482 -61.063 0.875 28.807 0.875 28.807 0.482 -61.063
1497.583 0.475 -61.515 0.879 28.352 0.879 28.352 0.475 -61.515
1522.542 0.468 -61.957 0.883 27.908 0.883 27.908 0.468 -61.957
1547.5 0.461 -62.389 0.886 27.474 0.886 27.474 0.461 -62.389
1572.458 0.455 -62.811 0.89 27.049 0.89 27.049 0.455 -62.811
1597.417 0.448 -63.224 0.893 26.633 0.893 26.633 0.448 -63.224
1622.375 0.442 -63.628 0.896 26.227 0.896 26.227 0.442 -63.628
1647.333 0.436 -64.022 0.899 25.83 0.899 25.83 0.436 -64.022
1672.292 0.43 -64.409 0.902 25.441 0.902 25.441 0.43 -64.409
1697.25 0.424 -64.787 0.905 25.06 0.905 25.06 0.424 -64.787
1722.208 0.418 -65.157 0.907 24.687 0.907 24.687 0.418 -65.157
1747.167 0.412 -65.52 0.91 24.322 0.91 24.322 0.412 -65.52
1772.125 0.406 -65.875 0.913 23.964 0.913 23.964 0.406 -65.875
1797.083 0.401 -66.222 0.915 23.614 0.915 23.614 0.401 -66.222
1822.042 0.395 -66.563 0.917 23.271 0.917 23.271 0.395 -66.563
1847 0.39 -66.896 0.92 22.934 0.92 22.934 0.39 -66.896
1871.958 0.384 -67.224 0.922 22.605 0.922 22.605 0.384 -67.224
1896.917 0.379 -67.544 0.924 22.281 0.924 22.281 0.379 -67.544
1921.875 0.374 -67.859 0.926 21.964 0.926 21.964 0.374 -67.859
1946.833 0.369 -68.167 0.928 21.653 0.928 21.653 0.369 -68.167
1971.792 0.364 -68.469 0.93 21.348 0.93 21.348 0.364 -68.469
1996.75 0.359 -68.766 0.932 21.048 0.932 21.048 0.359 -68.766
2021.708 0.354 -69.057 0.934 20.754 0.934 20.754 0.354 -69.057
2046.667 0.35 -69.343 0.936 20.465 0.936 20.465 0.35 -69.343
2071.625 0.345 -69.624 0.937 20.182 0.937 20.182 0.345 -69.624
2096.583 0.34 -69.899 0.939 19.903 0.939 19.903 0.34 -69.899
2121.542 0.336 -70.17 0.941 19.63 0.941 19.63 0.336 -70.17
2146.5 0.332 -70.435 0.942 19.361 0.942 19.361 0.332 -70.435
2171.458 0.327 -70.696 0.944 19.097 0.944 19.097 0.327 -70.696
2196.417 0.323 -70.953 0.945 18.838 0.945 18.838 0.323 -70.953
2221.375 0.319 -71.205 0.947 18.582 0.947 18.582 0.319 -71.205
2246.333 0.315 -71.452 0.948 18.332 0.948 18.332 0.315 -71.452
2271.292 0.31 -71.696 0.949 18.085 0.949 18.085 0.31 -71.696
2296.25 0.306 -71.935 0.951 17.842 0.951 17.842 0.306 -71.935
2321.208 0.302 -72.171 0.952 17.603 0.952 17.603 0.302 -72.171
2346.167 0.299 -72.403 0.953 17.369 0.953 17.369 0.299 -72.403
2371.125 0.295 -72.63 0.954 17.137 0.954 17.137 0.295 -72.63
2396.083 0.291 -72.855 0.956 16.91 0.956 16.91 0.291 -72.855
2421.042 0.287 -73.075 0.957 16.686 0.957 16.686 0.287 -73.075
2446 0.283 -73.292 0.958 16.465 0.958 16.465 0.283 -73.292
2470.958 0.28 -73.506 0.959 16.248 0.959 16.248 0.28 -73.506
2495.917 0.276 -73.717 0.96 16.034 0.96 16.034 0.276 -73.717
2520.875 0.273 -73.924 0.961 15.824 0.961 15.824 0.273 -73.924
2545.833 0.269 -74.128 0.962 15.616 0.962 15.616 0.269 -74.128
2570.792 0.266 -74.329 0.963 15.412 0.963 15.412 0.266 -74.329
2595.75 0.262 -74.527 0.964 15.21 0.964 15.21 0.262 -74.527
2620.708 0.259 -74.722 0.965 15.011 0.965 15.011 0.259 -74.722
2645.667 0.256 -74.914 0.966 14.815 0.966 14.815 0.256 -74.914
2670.625 0.252 -75.103 0.966 14.622 0.966 14.622 0.252 -75.103
2695.583 0.249 -75.29 0.967 14.432 0.967 14.432 0.249 -75.29
2720.542 0.246 -75.474 0.968 14.244 0.968 14.244 0.246 -75.474
2745.5 0.243 -75.656 0.969 14.059 0.969 14.059 0.243 -75.656
2770.458 0.24 -75.834 0.97 13.876 0.97 13.876 0.24 -75.834
2795.417 0.237 -76.011 0.97 13.695 0.97 13.695 0.237 -76.011
2820.375 0.234 -76.185 0.971 13.517 0.971 13.517 0.234 -76.185
2845.333 0.231 -76.356 0.972 13.342 0.972 13.342 0.231 -76.356
2870.292 0.228 -76.526 0.972 13.168 0.972 13.168 0.228 -76.526
2895.25 0.225 -76.693 0.973 12.997 0.973 12.997 0.225 -76.693
2920.208 0.222 -76.858 0.974 12.828 0.974 12.828 0.222 -76.858
2945.167 0.219 -77.02 0.974 12.661 0.974 12.661 0.219 -77.02
2970.125 0.216 -77.181 0.975 12.496 0.975 12.496 0.216 -77.181
2995.083 0.214 -77.339 0.976 12.334 0.976 12.334 0.214 -77.339
3020.042 0.211 -77.495 0.976 12.173 0.976 12.173 0.211 -77.495
3045 0.208 -77.65 0.977 12.014 0.977 12.014 0.208 -77.65
3069.958 0.205 -77.802 0.977 11.857 0.977 11.857 0.205 -77.802
3094.917 0.203 -77.953 0.978 11.702 0.978 11.702 0.203 -77.953
3119.875 0.2 -78.101 0.979 11.548 0.979 11.548 0.2 -78.101
3144.833 0.198 -78.248 0.979 11.397 0.979 11.397 0.198 -78.248
3169.792 0.195 -78.393 0.98 11.247 0.98 11.247 0.195 -78.393
3194.75 0.193 -78.536 0.98 11.099 0.98 11.099 0.193 -78.536
3219.708 0.19 -78.678 0.981 10.953 0.981 10.953 0.19 -78.678
3244.667 0.188 -78.818 0.981 10.808 0.981 10.808 0.188 -78.818
3269.625 0.185 -78.956 0.982 10.664 0.982 10.664 0.185 -78.956
3294.583 0.183 -79.092 0.982 10.523 0.982 10.523 0.183 -79.092
3319.542 0.18 -79.227 0.982 10.383 0.982 10.383 0.18 -79.227
3344.5 0.178 -79.36 0.983 10.244 0.983 10.244 0.178 -79.36
3369.458 0.175 -79.492 0.983 10.107 0.983 10.107 0.175 -79.492
3394.417 0.173 -79.622 0.984 9.971 0.984 9.971 0.173 -79.622
3419.375 0.171 -79.751 0.984 9.837 0.984 9.837 0.171 -79.751
3444.333 0.169 -79.878 0.984 9.704 0.984 9.704 0.169 -79.878
3469.292 0.166 -80.004 0.985 9.572 0.985 9.572 0.166 -80.004
3494.25 0.164 -80.128 0.985 9.442 0.985 9.442 0.164 -80.128
3519.208 0.162 -80.251 0.986 9.313 0.986 9.313 0.162 -80.251
3544.167 0.16 -80.372 0.986 9.185 0.986 9.185 0.16 -80.372
3569.125 0.157 -80.493 0.986 9.059 0.986 9.059 0.157 -80.493
3594.083 0.155 -80.611 0.987 8.933 0.987 8.933 0.155 -80.611
3619.042 0.153 -80.729 0.987 8.809 0.987 8.809 0.153 -80.729
3644 0.151 -80.845 0.987 8.687 0.987 8.687 0.151 -80.845
3668.958 0.149 -80.96 0.988 8.565 0.988 8.565 0.149 -80.96
3693.917 0.147 -81.074 0.988 8.444 0.988 8.444 0.147 -81.074
3718.875 0.145 -81.186 0.988 8.325 0.988 8.325 0.145 -81.186
3743.833 0.143 -81.297 0.989 8.207 0.989 8.207 0.143 -81.297
3768.792 0.141 -81.407 0.989 8.089 0.989 8.089 0.141 -81.407
3793.75 0.139 -81.516 0.989 7.973 0.989 7.973 0.139 -81.516
3818.708 0.137 -81.624 0.989 7.858 0.989 7.858 0.137 -81.624
3843.667 0.135 -81.73 0.99 7.744 0.99 7.744 0.135 -81.73
3868.625 0.133 -81.835 0.99 7.631 0.99 7.631 0.133 -81.835
3893.583 0.131 -81.939 0.99 7.519 0.99 7.519 0.131 -81.939
3918.542 0.129 -82.042 0.99 7.407 0.99 7.407 0.129 -82.042
3943.5 0.127 -82.144 0.991 7.297 0.991 7.297 0.127 -82.144
3968.458 0.125 -82.245 0.991 7.188 0.991 7.188 0.125 -82.245
3993.417 0.123 -82.344 0.991 7.079 0.991 7.079 0.123 -82.344
4018.375 0.121 -82.443 0.991 6.972 0.991 6.972 0.121 -82.443
4043.333 0.12 -82.54 0.992 6.865 0.992 6.865 0.12 -82.54
4068.292 0.118 -82.637 0.992 6.76 0.992 6.76 0.118 -82.637
4093.25 0.116 -82.732 0.992 6.655 0.992 6.655 0.116 -82.732
4118.208 0.114 -82.826 0.992 6.551 0.992 6.551 0.114 -82.826
4143.167 0.112 -82.92 0.992 6.447 0.992 6.447 0.112 -82.92
4168.125 0.111 -83.012 0.993 6.345 0.993 6.345 0.111 -83.012
4193.083 0.109 -83.103 0.993 6.243 0.993 6.243 0.109 -83.103
4218.042 0.107 -83.193 0.993 6.142 0.993 6.142 0.107 -83.193
4243 0.105 -83.282 0.993 6.042 0.993 6.042 0.105 -83.282
4267.958 0.104 -83.37 0.993 5.943 0.993 5.943 0.104 -83.37
4292.917 0.102 -83.457 0.994 5.844 0.994 5.844 0.102 -83.457
4317.875 0.1 -83.543 0.994 5.747 0.994 5.747 0.1 -83.543
4342.833 0.098 -83.627 0.994 5.649 0.994 5.649 0.098 -83.627
4367.792 0.097 -83.711 0.994 5.553 0.994 5.553 0.097 -83.711
4392.75 0.095 -83.794 0.994 5.457 0.994 5.457 0.095 -83.794
4417.708 0.093 -83.876 0.994 5.362 0.994 5.362 0.093 -83.876
4442.667 0.092 -83.956 0.995 5.268 0.995 5.268 0.092 -83.956
4467.625 0.09 -84.036 0.995 5.174 0.995 5.174 0.09 -84.036
4492.583 0.089 -84.114 0.995 5.081 0.995 5.081 0.089 -84.114
4517.542 0.087 -84.192 0.995 4.989 0.995 4.989 0.087 -84.192
4542.5 0.085 -84.268 0.995 4.897 0.995 4.897 0.085 -84.268
4567.458 0.084 -84.343 0.995 4.806 0.995 4.806 0.084 -84.343
4592.417 0.082 -84.417 0.995 4.715 0.995 4.715 0.082 -84.417
4617.375 0.081 -84.49 0.995 4.625 0.995 4.625 0.081 -84.49
4642.333 0.079 -84.562 0.996 4.536 0.996 4.536 0.079 -84.562
4667.292 0.078 -84.633 0.996 4.447 0.996 4.447 0.078 -84.633
4692.25 0.076 -84.702 0.996 4.359 0.996 4.359 0.076 -84.702
4717.208 0.074 -84.771 0.996 4.272 0.996 4.272 0.074 -84.771
4742.167 0.073 -84.838 0.996 4.185 0.996 4.185 0.073 -84.838
4767.125 0.071 -84.903 0.996 4.098 0.996 4.098 0.071 -84.903
4792.083 0.07 -84.968 0.996 4.012 0.996 4.012 0.07 -84.968
4817.042 0.068 -85.031 0.996 3.927 0.996 3.927 0.068 -85.031
4842 0.067 -85.093 0.997 3.842 0.997 3.842 0.067 -85.093
4866.958 0.066 -85.153 0.997 3.758 0.997 3.758 0.066 -85.153
4891.917 0.064 -85.212 0.997 3.674 0.997 3.674 0.064 -85.212
4916.875 0.063 -85.27 0.997 3.59 0.997 3.59 0.063 -85.27
4941.833 0.061 -85.325 0.997 3.508 0.997 3.508 0.061 -85.325
4966.792 0.06 -85.38 0.997 3.425 0.997 3.425 0.06 -85.38
4991.75 0.058 -85.432 0.997 3.343 0.997 3.343 0.058 -85.432
5016.708 0.057 -85.483 0.997 3.262 0.997 3.262 0.057 -85.483
5041.667 0.056 -85.532 0.997 3.181 0.997 3.181 0.056 -85.532
5066.625 0.054 -85.579 0.997 3.101 0.997 3.101 0.054 -85.579
5091.583 0.053 -85.624 0.997 3.021 0.997 3.021 0.053 -85.624
5116.542 0.051 -85.667 0.997 2.941 0.997 2.941 0.051 -85.667
5141.5 0.05 -85.707 0.998 2.862 0.998 2.862 0.05 -85.707
5166.458 0.049 -85.745 0.998 2.783 0.998 2.783 0.049 -85.745
5191.417 0.047 -85.781 0.998 2.705 0.998 2.705 0.047 -85.781
5216.375 0.046 -85.814 0.998 2.627 0.998 2.627 0.046 -85.814
5241.333 0.045 -85.844 0.998 2.55 0.998 2.55 0.045 -85.844
5266.292 0.043 -85.871 0.998 2.473 0.998 2.473 0.043 -85.871
5291.25 0.042 -85.894 0.998 2.397 0.998 2.397 0.042 -85.894
5316.208 0.041 -85.914 0.998 2.321 0.998 2.321 0.041 -85.914
5341.167 0.039 -85.931 0.998 2.245 0.998 2.245 0.039 -85.931
5366.125 0.038 -85.943 0.998 2.169 0.998 2.169 0.038 -85.943
5391.083 0.037 -85.95 0.998 2.095 0.998 2.095 0.037 -85.95
5416.042 0.035 -85.952 0.998 2.02 0.998 2.02 0.035 -85.952
5441 0.034 -85.949 0.998 1.946 0.998 1.946 0.034 -85.949
5465.958 0.033 -85.94 0.998 1.872 0.998 1.872 0.033 -85.94
5490.917 0.031 -85.924 0.998 1.799 0.998 1.799 0.031 -85.924
5515.875 0.03 -85.901 0.998 1.725 0.998 1.725 0.03 -85.901
5540.833 0.029 -85.869 0.998 1.653 0.998 1.653 0.029 -85.869
5565.792 0.028 -85.828 0.998 1.58 0.998 1.58 0.028 -85.828
5590.75 0.026 -85.777 0.998 1.508 0.998 1.508 0.026 -85.777
5615.708 0.025 -85.713 0.998 1.437 0.998 1.437 0.025 -85.713
5640.667 0.024 -85.636 0.998 1.365 0.998 1.365 0.024 -85.636
5665.625 0.023 -85.542 0.998 1.294 0.998 1.294 0.023 -85.542
5690.583 0.021 -85.431 0.999 1.224 0.999 1.224 0.021 -85.431
5715.542 0.02 -85.298 0.999 1.153 0.999 1.153 0.02 -85.298
5740.5 0.019 -85.139 0.999 1.083 0.999 1.083 0.019 -85.139
5765.458 0.018 -84.95 0.999 1.014 0.999 1.014 0.018 -84.95
5790.417 0.017 -84.724 0.999 0.944 0.999 0.944 0.017 -84.724
5815.375 0.015 -84.452 0.999 0.875 0.999 0.875 0.015 -84.452
5840.333 0.014 -84.125 0.999 0.807 0.999 0.807 0.014 -84.125
5865.292 0.013 -83.726 0.999 0.738 0.999 0.738 0.013 -83.726
5890.25 0.012 -83.235 0.999 0.67 0.999 0.67 0.012 -83.235
5915.208 0.011 -82.623 0.999 0.602 0.999 0.602 0.011 -82.623
5940.167 9.415e-3 -81.844 0.999 0.535 0.999 0.535 9.415e-3 -81.844
5965.125 8.253e-3 -80.831 0.999 0.467 0.999 0.467 8.253e-3 -80.831
5990.083 7.1e-3 -79.471 0.999 0.4 0.999 0.4 7.1e-3 -79.471
6015.042 5.958e-3 -77.569 0.999 0.334 0.999 0.334 5.958e-3 -77.569
6040 4.831e-3 -74.754 0.999 0.267 0.999 0.267 4.831e-3 -74.754
6064.958 3.729e-3 -70.233 0.999 0.201 0.999 0.201 3.729e-3 -70.233
6089.917 2.674e-3 -62.023 0.999 0.135 0.999 0.135 2.674e-3 -62.023
6114.875 1.746e-3 -44.26 0.999 0.07 0.999 0.07 1.746e-3 -44.26
6139.833 1.251e-3 -3.667 0.999 4.591e-3 0.999 4.591e-3 1.251e-3 -3.667
6164.792 1.635e-3 40.132 0.999 -0.06 0.999 -0.06 1.635e-3 40.132
6189.75 2.517e-3 60.133 0.999 -0.125 0.999 -0.125 2.517e-3 60.133
6214.708 3.539e-3 69.15 0.999 -0.19 0.999 -0.19 3.539e-3 69.15
6239.667 4.606e-3 74.014 0.999 -0.254 0.999 -0.254 4.606e-3 74.014
6264.625 5.689e-3 77.002 0.999 -0.318 0.999 -0.318 5.689e-3 77.002
6289.583 6.779e-3 79.004 0.999 -0.382 0.999 -0.382 6.779e-3 79.004
6314.542 7.871e-3 80.427 0.999 -0.445 0.999 -0.445 7.871e-3 80.427
6339.5 8.963e-3 81.483 0.999 -0.509 0.999 -0.509 8.963e-3 81.483
6364.458 0.01 82.294 0.999 -0.572 0.999 -0.572 0.01 82.294
6389.417 0.011 82.931 0.999 -0.634 0.999 -0.634 0.011 82.931
6414.375 0.012 83.442 0.999 -0.697 0.999 -0.697 0.012 83.442
6439.333 0.013 83.857 0.999 -0.759 0.999 -0.759 0.013 83.857
6464.292 0.014 84.2 0.999 -0.821 0.999 -0.821 0.014 84.2
6489.25 0.015 84.486 0.999 -0.883 0.999 -0.883 0.015 84.486
6514.208 0.017 84.725 0.999 -0.945 0.999 -0.945 0.017 84.725
6539.167 0.018 84.927 0.999 -1.006 0.999 -1.006 0.018 84.927
6564.125 0.019 85.098 0.999 -1.067 0.999 -1.067 0.019 85.098
6589.083 0.02 85.244 0.999 -1.128 0.999 -1.128 0.02 85.244
6614.042 0.021 85.368 0.999 -1.189 0.999 -1.189 0.021 85.368
6639 0.022 85.474 0.999 -1.25 0.999 -1.25 0.022 85.474
6663.958 0.023 85.564 0.998 -1.31 0.998 -1.31 0.023 85.564
6688.917 0.024 85.641 0.998 -1.37 0.998 -1.37 0.024 85.641
6713.875 0.025 85.706 0.998 -1.43 0.998 -1.43 0.025 85.706
6738.833 0.026 85.761 0.998 -1.49 0.998 -1.49 0.026 85.761
6763.792 0.027 85.807 0.998 -1.549 0.998 -1.549 0.027 85.807
6788.75 0.028 85.845 0.998 -1.608 0.998 -1.608 0.028 85.845
6813.708 0.029 85.876 0.998 -1.667 0.998 -1.667 0.029 85.876
6838.667 0.03 85.901 0.998 -1.726 0.998 -1.726 0.03 85.901
6863.625 0.031 85.92 0.998 -1.785 0.998 -1.785 0.031 85.92
6888.583 0.032 85.935 0.998 -1.844 0.998 -1.844 0.032 85.935
6913.542 0.033 85.945 0.998 -1.902 0.998 -1.902 0.033 85.945
6938.5 0.034 85.95 0.998 -1.96 0.998 -1.96 0.034 85.95
6963.458 0.035 85.952 0.998 -2.018 0.998 -2.018 0.035 85.952
6988.417 0.036 85.951 0.998 -2.076 0.998 -2.076 0.036 85.951
7013.375 0.037 85.947 0.998 -2.133 0.998 -2.133 0.037 85.947
7038.333 0.038 85.94 0.998 -2.191 0.998 -2.191 0.038 85.94
7063.292 0.039 85.93 0.998 -2.248 0.998 -2.248 0.039 85.93
7088.25 0.04 85.918 0.998 -2.305 0.998 -2.305 0.04 85.918
7113.208 0.041 85.904 0.998 -2.362 0.998 -2.362 0.041 85.904
7138.167 0.042 85.888 0.998 -2.418 0.998 -2.418 0.042 85.888
7163.125 0.043 85.87 0.998 -2.475 0.998 -2.475 0.043 85.87
7188.083 0.044 85.851 0.998 -2.531 0.998 -2.531 0.044 85.851
7213.042 0.045 85.83 0.998 -2.587 0.998 -2.587 0.045 85.83
7238 0.046 85.807 0.998 -2.643 0.998 -2.643 0.046 85.807
7262.958 0.047 85.784 0.998 -2.699 0.998 -2.699 0.047 85.784
7287.917 0.048 85.759 0.998 -2.755 0.998 -2.755 0.048 85.759
7312.875 0.049 85.732 0.998 -2.81 0.998 -2.81 0.049 85.732
7337.833 0.05 85.705 0.998 -2.866 0.998 -2.866 0.05 85.705
7362.792 0.051 85.677 0.997 -2.921 0.997 -2.921 0.051 85.677
7387.75 0.052 85.648 0.997 -2.976 0.997 -2.976 0.052 85.648
7412.708 0.053 85.618 0.997 -3.031 0.997 -3.031 0.053 85.618
7437.667 0.054 85.587 0.997 -3.085 0.997 -3.085 0.054 85.587
7462.625 0.055 85.556 0.997 -3.14 0.997 -3.14 0.055 85.556
7487.583 0.056 85.524 0.997 -3.194 0.997 -3.194 0.056 85.524
7512.542 0.057 85.491 0.997 -3.249 0.997 -3.249 0.057 85.491
7537.5 0.058 85.458 0.997 -3.303 0.997 -3.303 0.058 85.458
7562.458 0.059 85.424 0.997 -3.357 0.997 -3.357 0.059 85.424
7587.417 0.06 85.389 0.997 -3.41 0.997 -3.41 0.06 85.389
7612.375 0.06 85.354 0.997 -3.464 0.997 -3.464 0.06 85.354
7637.333 0.061 85.319 0.997 -3.518 0.997 -3.518 0.061 85.319
7662.292 0.062 85.283 0.997 -3.571 0.997 -3.571 0.062 85.283
7687.25 0.063 85.246 0.997 -3.624 0.997 -3.624 0.063 85.246
7712.208 0.064 85.21 0.997 -3.677 0.997 -3.677 0.064 85.21
7737.167 0.065 85.172 0.997 -3.73 0.997 -3.73 0.065 85.172
7762.125 0.066 85.135 0.997 -3.783 0.997 -3.783 0.066 85.135
7787.083 0.067 85.097 0.997 -3.836 0.997 -3.836 0.067 85.097
7812.042 0.068 85.059 0.996 -3.888 0.996 -3.888 0.068 85.059
7837 0.069 85.021 0.996 -3.941 0.996 -3.941 0.069 85.021
7861.958 0.07 84.982 0.996 -3.993 0.996 -3.993 0.07 84.982
7886.917 0.071 84.943 0.996 -4.045 0.996 -4.045 0.071 84.943
7911.875 0.071 84.904 0.996 -4.097 0.996 -4.097 0.071 84.904
7936.833 0.072 84.865 0.996 -4.149 0.996 -4.149 0.072 84.865
7961.792 0.073 84.825 0.996 -4.201 0.996 -4.201 0.073 84.825
7986.75 0.074 84.786 0.996 -4.252 0.996 -4.252 0.074 84.786
8011.708 0.075 84.746 0.996 -4.304 0.996 -4.304 0.075 84.746
8036.667 0.076 84.705 0.996 -4.355 0.996 -4.355 0.076 84.705
8061.625 0.077 84.665 0.996 -4.406 0.996 -4.406 0.077 84.665
8086.583 0.078 84.625 0.996 -4.457 0.996 -4.457 0.078 84.625
8111.542 0.079 84.584 0.996 -4.508 0.996 -4.508 0.079 84.584
8136.5 0.08 84.544 0.996 -4.559 0.996 -4.559 0.08 84.544
8161.458 0.08 84.503 0.996 -4.61 0.996 -4.61 0.08 84.503
8186.417 0.081 84.462 0.995 -4.661 0.995 -4.661 0.081 84.462
8211.375 0.082 84.421 0.995 -4.711 0.995 -4.711 0.082 84.421
