# MHZ S MA R 50

50 1 -1.26 0.022 88.736 0.022 88.736 1 -1.26
74.958 0.999 -1.888 0.033 88.106 0.033 88.106 0.999 -1.888
99.917 0.999 -2.517 0.044 87.476 0.044 87.476 0.999 -2.517
124.875 0.998 -3.144 0.055 86.846 0.055 86.846 0.998 -3.144
149.833 0.998 -3.771 0.066 86.217 0.066 86.217 0.998 -3.771
174.792 0.997 -4.397 0.077 85.589 0.077 85.589 0.997 -4.397
199.75 0.996 -5.023 0.088 84.962 0.088 84.962 0.996 -5.023
224.708 0.995 -5.647 0.098 84.336 0.098 84.336 0.995 -5.647
249.667 0.994 -6.271 0.109 83.711 0.109 83.711 0.994 -6.271
274.625 0.993 -6.893 0.12 83.087 0.12 83.087 0.993 -6.893
299.583 0.991 -7.513 0.131 82.464 0.131 82.464 0.991 -7.513
324.542 0.99 -8.132 0.141 81.843 0.141 81.843 0.99 -8.132
349.5 0.988 -8.75 0.152 81.224 0.152 81.224 0.988 -8.75
374.458 0.987 -9.366 0.163 80.606 0.163 80.606 0.987 -9.366
399.417 0.985 -9.98 0.173 79.99 0.173 79.99 0.985 -9.98
424.375 0.983 -10.592 0.184 79.376 0.184 79.376 0.983 -10.592
449.333 0.981 -11.202 0.194 78.764 0.194 78.764 0.981 -11.202
474.292 0.979 -11.81 0.205 78.154 0.205 78.154 0.979 -11.81
499.25 0.976 -12.416 0.215 77.546 0.215 77.546 0.976 -12.416
524.208 0.974 -13.019 0.225 76.941 0.225 76.941 0.974 -13.019
549.167 0.972 -13.62 0.235 76.338 0.235 76.338 0.972 -13.62
574.125 0.969 -14.218 0.246 75.738 0.246 75.738 0.969 -14.218
599.083 0.967 -14.814 0.256 75.14 0.256 75.14 0.967 -14.814
624.042 0.964 -15.407 0.266 74.545 0.266 74.545 0.964 -15.407
649 0.961 -15.998 0.276 73.953 0.276 73.953 0.961 -15.998
673.958 0.958 -16.585 0.285 73.364 0.285 73.364 0.958 -16.585
698.917 0.955 -17.169 0.295 72.777 0.295 72.777 0.955 -17.169
723.875 0.952 -17.751 0.305 72.194 0.305 72.194 0.952 -17.751
748.833 0.949 -18.329 0.314 71.614 0.314 71.614 0.949 -18.329
773.792 0.946 -18.904 0.324 71.037 0.324 71.037 0.946 -18.904
798.75 0.942 -19.476 0.333 70.463 0.333 70.463 0.942 -19.476
823.708 0.939 -20.045 0.343 69.892 0.343 69.892 0.939 -20.045
848.667 0.936 -20.61 0.352 69.325 0.352 69.325 0.936 -20.61
873.625 0.932 -21.172 0.361 68.761 0.361 68.761 0.932 -21.172
898.583 0.928 -21.73 0.37 68.201 0.37 68.201 0.928 -21.73
923.542 0.925 -22.285 0.379 67.644 0.379 67.644 0.925 -22.285
948.5 0.921 -22.836 0.388 67.091 0.388 67.091 0.921 -22.836
973.458 0.917 -23.384 0.397 66.542 0.397 66.542 0.917 -23.384
998.417 0.914 -23.928 0.406 65.996 0.406 65.996 0.914 -23.928
1023.375 0.91 -24.468 0.414 65.454 0.414 65.454 0.91 -24.468
1048.333 0.906 -25.005 0.423 64.915 0.423 64.915 0.906 -25.005
1073.292 0.902 -25.537 0.431 64.381 0.431 64.381 0.902 -25.537
1098.25 0.898 -26.066 0.439 63.85 0.439 63.85 0.898 -26.066
1123.208 0.894 -26.591 0.448 63.323 0.448 63.323 0.894 -26.591
1148.167 0.889 -27.112 0.456 62.799 0.456 62.799 0.889 -27.112
1173.125 0.885 -27.63 0.464 62.28 0.464 62.28 0.885 -27.63
1198.083 0.881 -28.143 0.472 61.765 0.472 61.765 0.881 -28.143
1223.042 0.877 -28.653 0.479 61.253 0.479 61.253 0.877 -28.653
1248 0.872 -29.158 0.487 60.746 0.487 60.746 0.872 -29.158
1272.958 0.868 -29.66 0.495 60.242 0.495 60.242 0.868 -29.66
1297.917 0.864 -30.157 0.502 59.743 0.502 59.743 0.864 -30.157
1322.875 0.859 -30.651 0.51 59.247 0.51 59.247 0.859 -30.651
1347.833 0.855 -31.14 0.517 58.756 0.517 58.756 0.855 -31.14
1372.792 0.851 -31.626 0.524 58.268 0.524 58.268 0.851 -31.626
1397.75 0.846 -32.108 0.532 57.784 0.532 57.784 0.846 -32.108
1422.708 0.842 -32.585 0.539 57.305 0.539 57.305 0.842 -32.585
1447.667 0.837 -33.059 0.546 56.829 0.546 56.829 0.837 -33.059
1472.625 0.833 -33.529 0.552 56.357 0.552 56.357 0.833 -33.529
1497.583 0.828 -33.994 0.559 55.889 0.559 55.889 0.828 -33.994
1522.542 0.823 -34.456 0.566 55.426 0.566 55.426 0.823 -34.456
1547.5 0.819 -34.914 0.572 54.966 0.572 54.966 0.819 -34.914
1572.458 0.814 -35.368 0.579 54.51 0.579 54.51 0.814 -35.368
1597.417 0.81 -35.818 0.585 54.058 0.585 54.058 0.81 -35.818
1622.375 0.805 -36.263 0.592 53.61 0.592 53.61 0.805 -36.263
1647.333 0.8 -36.705 0.598 53.166 0.598 53.166 0.8 -36.705
1672.292 0.796 -37.144 0.604 52.726 0.604 52.726 0.796 -37.144
1697.25 0.791 -37.578 0.61 52.29 0.61 52.29 0.791 -37.578
1722.208 0.786 -38.008 0.616 51.857 0.616 51.857 0.786 -38.008
1747.167 0.782 -38.434 0.622 51.429 0.622 51.429 0.782 -38.434
1772.125 0.777 -38.857 0.627 51.004 0.627 51.004 0.777 -38.857
1797.083 0.773 -39.276 0.633 50.583 0.633 50.583 0.773 -39.276
1822.042 0.768 -39.691 0.639 50.166 0.639 50.166 0.768 -39.691
1847 0.763 -40.102 0.644 49.753 0.644 49.753 0.763 -40.102
1871.958 0.759 -40.51 0.65 49.343 0.65 49.343 0.759 -40.51
1896.917 0.754 -40.914 0.655 48.937 0.655 48.937 0.754 -40.914
1921.875 0.749 -41.314 0.66 48.535 0.66 48.535 0.749 -41.314
1946.833 0.745 -41.71 0.665 48.136 0.665 48.136 0.745 -41.71
1971.792 0.74 -42.103 0.67 47.741 0.67 47.741 0.74 -42.103
1996.75 0.736 -42.492 0.675 47.35 0.675 47.35 0.736 -42.492
2021.708 0.731 -42.878 0.68 46.962 0.68 46.962 0.731 -42.878
2046.667 0.726 -43.26 0.685 46.578 0.685 46.578 0.726 -43.26
2071.625 0.722 -43.638 0.69 46.197 0.69 46.197 0.722 -43.638
2096.583 0.717 -44.013 0.695 45.82 0.695 45.82 0.717 -44.013
2121.542 0.713 -44.385 0.699 45.446 0.699 45.446 0.713 -44.385
2146.5 0.708 -44.753 0.704 45.076 0.704 45.076 0.708 -44.753
2171.458 0.704 -45.118 0.709 44.709 0.709 44.709 0.704 -45.118
2196.417 0.699 -45.479 0.713 44.346 0.713 44.346 0.699 -45.479
2221.375 0.694 -45.837 0.717 43.986 0.717 43.986 0.694 -45.837
2246.333 0.69 -46.191 0.722 43.629 0.722 43.629 0.69 -46.191
2271.292 0.686 -46.543 0.726 43.275 0.726 43.275 0.686 -46.543
2296.25 0.681 -46.891 0.73 42.925 0.73 42.925 0.681 -46.891
2321.208 0.677 -47.236 0.734 42.578 0.734 42.578 0.677 -47.236
2346.167 0.672 -47.577 0.738 42.234 0.738 42.234 0.672 -47.577
2371.125 0.668 -47.916 0.742 41.893 0.742 41.893 0.668 -47.916
2396.083 0.663 -48.251 0.746 41.555 0.746 41.555 0.663 -48.251
2421.042 0.659 -48.583 0.75 41.221 0.75 41.221 0.659 -48.583
2446 0.655 -48.913 0.754 40.889 0.754 40.889 0.655 -48.913
2470.958 0.65 -49.239 0.757 40.561 0.757 40.561 0.65 -49.239
2495.917 0.646 -49.562 0.761 40.235 0.761 40.235 0.646 -49.562
2520.875 0.642 -49.882 0.765 39.913 0.765 39.913 0.642 -49.882
2545.833 0.637 -50.199 0.768 39.593 0.768 39.593 0.637 -50.199
2570.792 0.633 -50.514 0.772 39.277 0.772 39.277 0.633 -50.514
2595.75 0.629 -50.825 0.775 38.963 0.775 38.963 0.629 -50.825
2620.708 0.625 -51.134 0.779 38.652 0.779 38.652 0.625 -51.134
2645.667 0.62 -51.44 0.782 38.344 0.782 38.344 0.62 -51.44
2670.625 0.616 -51.743 0.785 38.038 0.785 38.038 0.616 -51.743
2695.583 0.612 -52.043 0.788 37.736 0.788 37.736 0.612 -52.043
2720.542 0.608 -52.34 0.792 37.436 0.792 37.436 0.608 -52.34
2745.5 0.604 -52.635 0.795 37.139 0.795 37.139 0.604 -52.635
2770.458 0.6 -52.927 0.798 36.844 0.798 36.844 0.6 -52.927
2795.417 0.596 -53.217 0.801 36.552 0.801 36.552 0.596 -53.217
2820.375 0.591 -53.504 0.804 36.263 0.804 36.263 0.591 -53.504
2845.333 0.587 -53.788 0.807 35.976 0.807 35.976 0.587 -53.788
2870.292 0.583 -54.07 0.81 35.692 0.81 35.692 0.583 -54.07
2895.25 0.579 -54.349 0.813 35.41 0.813 35.41 0.579 -54.349
2920.208 0.575 -54.626 0.815 35.131 0.815 35.131 0.575 -54.626
2945.167 0.571 -54.9 0.818 34.854 0.818 34.854 0.571 -54.9
2970.125 0.568 -55.172 0.821 34.579 0.821 34.579 0.568 -55.172
2995.083 0.564 -55.441 0.824 34.307 0.824 34.307 0.564 -55.441
3020.042 0.56 -55.709 0.826 34.038 0.826 34.038 0.56 -55.709
3045 0.556 -55.973 0.829 33.77 0.829 33.77 0.556 -55.973
3069.958 0.552 -56.236 0.831 33.505 0.831 33.505 0.552 -56.236
3094.917 0.548 -56.496 0.834 33.243 0.834 33.243 0.548 -56.496
3119.875 0.544 -56.754 0.836 32.982 0.836 32.982 0.544 -56.754
3144.833 0.541 -57.009 0.839 32.724 0.839 32.724 0.541 -57.009
3169.792 0.537 -57.263 0.841 32.468 0.841 32.468 0.537 -57.263
3194.75 0.533 -57.514 0.844 32.214 0.844 32.214 0.533 -57.514
3219.708 0.529 -57.763 0.846 31.962 0.846 31.962 0.529 -57.763
3244.667 0.526 -58.01 0.848 31.713 0.848 31.713 0.526 -58.01
3269.625 0.522 -58.255 0.85 31.465 0.85 31.465 0.522 -58.255
3294.583 0.518 -58.498 0.853 31.22 0.853 31.22 0.518 -58.498
3319.542 0.515 -58.738 0.855 30.976 0.855 30.976 0.515 -58.738
3344.5 0.511 -58.977 0.857 30.735 0.857 30.735 0.511 -58.977
3369.458 0.507 -59.214 0.859 30.495 0.859 30.495 0.507 -59.214
3394.417 0.504 -59.448 0.861 30.258 0.861 30.258 0.504 -59.448
3419.375 0.5 -59.681 0.863 30.022 0.863 30.022 0.5 -59.681
3444.333 0.497 -59.912 0.865 29.789 0.865 29.789 0.497 -59.912
3469.292 0.493 -60.141 0.867 29.557 0.867 29.557 0.493 -60.141
3494.25 0.49 -60.367 0.869 29.327 0.869 29.327 0.49 -60.367
3519.208 0.486 -60.592 0.871 29.1 0.871 29.1 0.486 -60.592
3544.167 0.483 -60.816 0.873 28.873 0.873 28.873 0.483 -60.816
3569.125 0.479 -61.037 0.875 28.649 0.875 28.649 0.479 -61.037
3594.083 0.476 -61.257 0.877 28.427 0.877 28.427 0.476 -61.257
3619.042 0.473 -61.474 0.879 28.206 0.879 28.206 0.473 -61.474
3644 0.469 -61.69 0.88 27.987 0.88 27.987 0.469 -61.69
3668.958 0.466 -61.905 0.882 27.77 0.882 27.77 0.466 -61.905
3693.917 0.463 -62.117 0.884 27.554 0.884 27.554 0.463 -62.117
3718.875 0.459 -62.328 0.886 27.34 0.886 27.34 0.459 -62.328
3743.833 0.456 -62.537 0.887 27.128 0.887 27.128 0.456 -62.537
3768.792 0.453 -62.745 0.889 26.918 0.889 26.918 0.453 -62.745
3793.75 0.449 -62.951 0.891 26.709 0.891 26.709 0.449 -62.951
3818.708 0.446 -63.155 0.892 26.501 0.892 26.501 0.446 -63.155
3843.667 0.443 -63.357 0.894 26.296 0.894 26.296 0.443 -63.357
3868.625 0.44 -63.558 0.895 26.091 0.895 26.091 0.44 -63.558
3893.583 0.437 -63.758 0.897 25.889 0.897 25.889 0.437 -63.758
3918.542 0.433 -63.956 0.898 25.688 0.898 25.688 0.433 -63.956
3943.5 0.43 -64.152 0.9 25.488 0.9 25.488 0.43 -64.152
3968.458 0.427 -64.347 0.901 25.29 0.901 25.29 0.427 -64.347
3993.417 0.424 -64.54 0.903 25.093 0.903 25.093 0.424 -64.54
4018.375 0.421 -64.732 0.904 24.898 0.904 24.898 0.421 -64.732
4043.333 0.418 -64.923 0.906 24.705 0.906 24.705 0.418 -64.923
4068.292 0.415 -65.112 0.907 24.512 0.907 24.512 0.415 -65.112
4093.25 0.412 -65.299 0.909 24.321 0.909 24.321 0.412 -65.299
4118.208 0.409 -65.485 0.91 24.132 0.91 24.132 0.409 -65.485
4143.167 0.406 -65.67 0.911 23.944 0.911 23.944 0.406 -65.67
4168.125 0.403 -65.854 0.913 23.757 0.913 23.757 0.403 -65.854
4193.083 0.4 -66.036 0.914 23.572 0.914 23.572 0.4 -66.036
4218.042 0.397 -66.216 0.915 23.387 0.915 23.387 0.397 -66.216
4243 0.394 -66.396 0.916 23.205 0.916 23.205 0.394 -66.396
4267.958 0.391 -66.574 0.918 23.023 0.918 23.023 0.391 -66.574
4292.917 0.388 -66.75 0.919 22.843 0.919 22.843 0.388 -66.75
4317.875 0.385 -66.926 0.92 22.664 0.92 22.664 0.385 -66.926
4342.833 0.382 -67.1 0.921 22.486 0.921 22.486 0.382 -67.1
4367.792 0.38 -67.273 0.922 22.31 0.922 22.31 0.38 -67.273
4392.75 0.377 -67.444 0.924 22.134 0.924 22.134 0.377 -67.444
4417.708 0.374 -67.615 0.925 21.96 0.925 21.96 0.374 -67.615
4442.667 0.371 -67.784 0.926 21.787 0.926 21.787 0.371 -67.784
4467.625 0.368 -67.952 0.927 21.616 0.927 21.616 0.368 -67.952
4492.583 0.366 -68.118 0.928 21.445 0.928 21.445 0.366 -68.118
4517.542 0.363 -68.284 0.929 21.276 0.929 21.276 0.363 -68.284
4542.5 0.36 -68.448 0.93 21.108 0.93 21.108 0.36 -68.448
4567.458 0.357 -68.612 0.931 20.94 0.931 20.94 0.357 -68.612
4592.417 0.355 -68.774 0.932 20.774 0.932 20.774 0.355 -68.774
4617.375 0.352 -68.935 0.933 20.61 0.933 20.61 0.352 -68.935
4642.333 0.349 -69.095 0.934 20.446 0.934 20.446 0.349 -69.095
4667.292 0.347 -69.253 0.935 20.283 0.935 20.283 0.347 -69.253
4692.25 0.344 -69.411 0.936 20.121 0.936 20.121 0.344 -69.411
4717.208 0.341 -69.567 0.937 19.961 0.937 19.961 0.341 -69.567
4742.167 0.339 -69.723 0.938 19.801 0.938 19.801 0.339 -69.723
4767.125 0.336 -69.877 0.939 19.642 0.939 19.642 0.336 -69.877
4792.083 0.334 -70.031 0.94 19.485 0.94 19.485 0.334 -70.031
4817.042 0.331 -70.183 0.941 19.328 0.941 19.328 0.331 -70.183
4842 0.328 -70.334 0.942 19.173 0.942 19.173 0.328 -70.334
4866.958 0.326 -70.485 0.943 19.018 0.943 19.018 0.326 -70.485
4891.917 0.323 -70.634 0.943 18.864 0.943 18.864 0.323 -70.634
4916.875 0.321 -70.782 0.944 18.712 0.944 18.712 0.321 -70.782
4941.833 0.318 -70.929 0.945 18.56 0.945 18.56 0.318 -70.929
4966.792 0.316 -71.076 0.946 18.409 0.946 18.409 0.316 -71.076
4991.75 0.313 -71.221 0.947 18.259 0.947 18.259 0.313 -71.221
5016.708 0.311 -71.366 0.948 18.11 0.948 18.11 0.311 -71.366
5041.667 0.308 -71.509 0.948 17.962 0.948 17.962 0.308 -71.509
5066.625 0.306 -71.651 0.949 17.815 0.949 17.815 0.306 -71.651
5091.583 0.304 -71.793 0.95 17.669 0.95 17.669 0.304 -71.793
5116.542 0.301 -71.934 0.951 17.524 0.951 17.524 0.301 -71.934
5141.5 0.299 -72.073 0.951 17.379 0.951 17.379 0.299 -72.073
5166.458 0.296 -72.212 0.952 17.235 0.952 17.235 0.296 -72.212
5191.417 0.294 -72.35 0.953 17.093 0.953 17.093 0.294 -72.35
5216.375 0.292 -72.487 0.954 16.951 0.954 16.951 0.292 -72.487
5241.333 0.289 -72.623 0.954 16.809 0.954 16.809 0.289 -72.623
5266.292 0.287 -72.758 0.955 16.669 0.955 16.669 0.287 -72.758
5291.25 0.285 -72.893 0.956 16.53 0.956 16.53 0.285 -72.893
5316.208 0.282 -73.026 0.956 16.391 0.956 16.391 0.282 -73.026
5341.167 0.28 -73.159 0.957 16.253 0.957 16.253 0.28 -73.159
5366.125 0.278 -73.291 0.958 16.116 0.958 16.116 0.278 -73.291
5391.083 0.275 -73.422 0.958 15.98 0.958 15.98 0.275 -73.422
5416.042 0.273 -73.552 0.959 15.844 0.959 15.844 0.273 -73.552
5441 0.271 -73.681 0.96 15.709 0.96 15.709 0.271 -73.681
5465.958 0.269 -73.81 0.96 15.575 0.96 15.575 0.269 -73.81
5490.917 0.266 -73.938 0.961 15.442 0.961 15.442 0.266 -73.938
5515.875 0.264 -74.065 0.962 15.309 0.962 15.309 0.264 -74.065
5540.833 0.262 -74.191 0.962 15.177 0.962 15.177 0.262 -74.191
5565.792 0.26 -74.316 0.963 15.046 0.963 15.046 0.26 -74.316
5590.75 0.257 -74.441 0.963 14.916 0.963 14.916 0.257 -74.441
5615.708 0.255 -74.565 0.964 14.786 0.964 14.786 0.255 -74.565
5640.667 0.253 -74.688 0.965 14.657 0.965 14.657 0.253 -74.688
5665.625 0.251 -74.81 0.965 14.529 0.965 14.529 0.251 -74.81
5690.583 0.249 -74.931 0.966 14.401 0.966 14.401 0.249 -74.931
5715.542 0.247 -75.052 0.966 14.274 0.966 14.274 0.247 -75.052
5740.5 0.244 -75.172 0.967 14.148 0.967 14.148 0.244 -75.172
5765.458 0.242 -75.291 0.967 14.022 0.967 14.022 0.242 -75.291
5790.417 0.24 -75.41 0.968 13.897 0.968 13.897 0.24 -75.41
5815.375 0.238 -75.528 0.968 13.773 0.968 13.773 0.238 -75.528
5840.333 0.236 -75.645 0.969 13.649 0.969 13.649 0.236 -75.645
5865.292 0.234 -75.761 0.969 13.526 0.969 13.526 0.234 -75.761
5890.25 0.232 -75.877 0.97 13.404 0.97 13.404 0.232 -75.877
5915.208 0.23 -75.992 0.97 13.282 0.97 13.282 0.23 -75.992
5940.167 0.228 -76.106 0.971 13.161 0.971 13.161 0.228 -76.106
5965.125 0.226 -76.219 0.971 13.041 0.971 13.041 0.226 -76.219
5990.083 0.224 -76.332 0.972 12.921 0.972 12.921 0.224 -76.332
6015.042 0.222 -76.444 0.972 12.801 0.972 12.801 0.222 -76.444
6040 0.22 -76.556 0.973 12.683 0.973 12.683 0.22 -76.556
6064.958 0.218 -76.667 0.973 12.564 0.973 12.564 0.218 -76.667
6089.917 0.216 -76.777 0.974 12.447 0.974 12.447 0.216 -76.777
6114.875 0.214 -76.886 0.974 12.33 0.974 12.33 0.214 -76.886
6139.833 0.212 -76.995 0.974 12.214 0.974 12.214 0.212 -76.995
6164.792 0.21 -77.103 0.975 12.098 0.975 12.098 0.21 -77.103
6189.75 0.208 -77.21 0.975 11.982 0.975 11.982 0.208 -77.21
6214.708 0.206 -77.317 0.976 11.868 0.976 11.868 0.206 -77.317
6239.667 0.204 -77.423 0.976 11.753 0.976 11.753 0.204 -77.423
6264.625 0.202 -77.528 0.977 11.64 0.977 11.64 0.202 -77.528
6289.583 0.2 -77.633 0.977 11.527 0.977 11.527 0.2 -77.633
6314.542 0.198 -77.737 0.977 11.414 0.977 11.414 0.198 -77.737
6339.5 0.196 -77.84 0.978 11.302 0.978 11.302 0.196 -77.84
6364.458 0.194 -77.943 0.978 11.191 0.978 11.191 0.194 -77.943
6389.417 0.192 -78.045 0.978 11.08 0.978 11.08 0.192 -78.045
6414.375 0.19 -78.147 0.979 10.969 0.979 10.969 0.19 -78.147
6439.333 0.188 -78.247 0.979 10.859 0.979 10.859 0.188 -78.247
6464.292 0.187 -78.347 0.98 10.75 0.98 10.75 0.187 -78.347
6489.25 0.185 -78.447 0.98 10.641 0.98 10.641 0.185 -78.447
6514.208 0.183 -78.546 0.98 10.532 0.98 10.532 0.183 -78.546
6539.167 0.181 -78.644 0.981 10.424 0.981 10.424 0.181 -78.644
6564.125 0.179 -78.742 0.981 10.317 0.981 10.317 0.179 -78.742
6589.083 0.177 -78.839 0.981 10.21 0.981 10.21 0.177 -78.839
6614.042 0.175 -78.935 0.982 10.103 0.982 10.103 0.175 -78.935
6639 0.174 -79.031 0.982 9.997 0.982 9.997 0.174 -79.031
6663.958 0.172 -79.126 0.982 9.892 0.982 9.892 0.172 -79.126
6688.917 0.17 -79.22 0.983 9.786 0.983 9.786 0.17 -79.22
6713.875 0.168 -79.314 0.983 9.682 0.983 9.682 0.168 -79.314
6738.833 0.166 -79.407 0.983 9.578 0.983 9.578 0.166 -79.407
6763.792 0.165 -79.499 0.983 9.474 0.983 9.474 0.165 -79.499
6788.75 0.163 -79.591 0.984 9.37 0.984 9.37 0.163 -79.591
6813.708 0.161 -79.682 0.984 9.268 0.984 9.268 0.161 -79.682
6838.667 0.159 -79.773 0.984 9.165 0.984 9.165 0.159 -79.773
6863.625 0.158 -79.862 0.985 9.063 0.985 9.063 0.158 -79.862
6888.583 0.156 -79.952 0.985 8.962 0.985 8.962 0.156 -79.952
6913.542 0.154 -80.04 0.985 8.86 0.985 8.86 0.154 -80.04
6938.5 0.152 -80.128 0.985 8.76 0.985 8.76 0.152 -80.128
6963.458 0.151 -80.215 0.986 8.659 0.986 8.659 0.151 -80.215
6988.417 0.149 -80.302 0.986 8.559 0.986 8.559 0.149 -80.302
7013.375 0.147 -80.388 0.986 8.46 0.986 8.46 0.147 -80.388
7038.333 0.145 -80.473 0.986 8.361 0.986 8.361 0.145 -80.473
7063.292 0.144 -80.558 0.987 8.262 0.987 8.262 0.144 -80.558
7088.25 0.142 -80.641 0.987 8.164 0.987 8.164 0.142 -80.641
7113.208 0.14 -80.725 0.987 8.066 0.987 8.066 0.14 -80.725
7138.167 0.139 -80.807 0.987 7.969 0.987 7.969 0.139 -80.807
7163.125 0.137 -80.889 0.988 7.871 0.988 7.871 0.137 -80.889
7188.083 0.135 -80.97 0.988 7.775 0.988 7.775 0.135 -80.97
7213.042 0.134 -81.05 0.988 7.678 0.988 7.678 0.134 -81.05
7238 0.132 -81.13 0.988 7.583 0.988 7.583 0.132 -81.13
7262.958 0.13 -81.209 0.989 7.487 0.989 7.487 0.13 -81.209
7287.917 0.129 -81.287 0.989 7.392 0.989 7.392 0.129 -81.287
7312.875 0.127 -81.365 0.989 7.297 0.989 7.297 0.127 -81.365
7337.833 0.125 -81.441 0.989 7.202 0.989 7.202 0.125 -81.441
7362.792 0.124 -81.517 0.989 7.108 0.989 7.108 0.124 -81.517
7387.75 0.122 -81.593 0.99 7.015 0.99 7.015 0.122 -81.593
7412.708 0.121 -81.667 0.99 6.921 0.99 6.921 0.121 -81.667
7437.667 0.119 -81.741 0.99 6.828 0.99 6.828 0.119 -81.741
7462.625 0.117 -81.813 0.99 6.736 0.99 6.736 0.117 -81.813
7487.583 0.116 -81.885 0.99 6.643 0.99 6.643 0.116 -81.885
7512.542 0.114 -81.957 0.99 6.551 0.99 6.551 0.114 -81.957
7537.5 0.113 -82.027 0.991 6.46 0.991 6.46 0.113 -82.027
7562.458 0.111 -82.096 0.991 6.368 0.991 6.368 0.111 -82.096
7587.417 0.109 -82.165 0.991 6.277 0.991 6.277 0.109 -82.165
7612.375 0.108 -82.232 0.991 6.187 0.991 6.187 0.108 -82.232
7637.333 0.106 -82.299 0.991 6.097 0.991 6.097 0.106 -82.299
7662.292 0.105 -82.365 0.992 6.007 0.992 6.007 0.105 -82.365
7687.25 0.103 -82.43 0.992 5.917 0.992 5.917 0.103 -82.43
7712.208 0.102 -82.494 0.992 5.828 0.992 5.828 0.102 -82.494
7737.167 0.1 -82.556 0.992 5.739 0.992 5.739 0.1 -82.556
7762.125 0.098 -82.618 0.992 5.65 0.992 5.65 0.098 -82.618
7787.083 0.097 -82.679 0.992 5.562 0.992 5.562 0.097 -82.679
7812.042 0.095 -82.738 0.992 5.474 0.992 5.474 0.095 -82.738
7837 0.094 -82.797 0.993 5.386 0.993 5.386 0.094 -82.797
7861.958 0.092 -82.854 0.993 5.298 0.993 5.298 0.092 -82.854
7886.917 0.091 -82.91 0.993 5.211 0.993 5.211 0.091 -82.91
7911.875 0.089 -82.965 0.993 5.124 0.993 5.124 0.089 -82.965
7936.833 0.088 -83.019 0.993 5.038 0.993 5.038 0.088 -83.019
7961.792 0.086 -83.071 0.993 4.952 0.993 4.952 0.086 -83.071
7986.75 0.085 -83.122 0.993 4.866 0.993 4.866 0.085 -83.122
8011.708 0.083 -83.171 0.994 4.78 0.994 4.78 0.083 -83.171
8036.667 0.082 -83.219 0.994 4.695 0.994 4.695 0.082 -83.219
8061.625 0.08 -83.265 0.994 4.61 0.994 4.61 0.08 -83.265
8086.583 0.079 -83.31 0.994 4.525 0.994 4.525 0.079 -83.31
8111.542 0.077 -83.353 0.994 4.441 0.994 4.441 0.077 -83.353
8136.5 0.076 -83.395 0.994 4.356 0.994 4.356 0.076 -83.395
8161.458 0.075 -83.434 0.994 4.272 0.994 4.272 0.075 -83.434
