# MHZ S MA R 50

50 0.954 -17.447 0.3 72.545 0.3 72.545 0.954 -17.447
74.958 0.904 -25.238 0.426 64.749 0.426 64.749 0.904 -25.238
99.917 0.846 -32.159 0.532 57.824 0.532 57.824 0.846 -32.159
124.875 0.786 -38.184 0.618 51.795 0.618 51.795 0.786 -38.184
149.833 0.727 -43.369 0.687 46.605 0.687 46.605 0.727 -43.369
174.792 0.671 -47.813 0.741 42.157 0.741 42.157 0.671 -47.813
199.75 0.62 -51.622 0.784 38.344 0.784 38.344 0.62 -51.622
224.708 0.574 -54.898 0.818 35.063 0.818 35.063 0.574 -54.898
249.667 0.533 -57.729 0.846 32.228 0.846 32.228 0.533 -57.729
274.625 0.496 -60.191 0.868 29.762 0.868 29.762 0.496 -60.191
299.583 0.463 -62.344 0.886 27.605 0.886 27.605 0.463 -62.344
324.542 0.434 -64.239 0.901 25.705 0.901 25.705 0.434 -64.239
349.5 0.407 -65.917 0.913 24.023 0.913 24.023 0.407 -65.917
374.458 0.383 -67.412 0.923 22.523 0.923 22.523 0.383 -67.412
399.417 0.361 -68.751 0.932 21.18 0.932 21.18 0.361 -68.751
424.375 0.342 -69.956 0.939 19.97 0.939 19.97 0.342 -69.956
449.333 0.323 -71.047 0.946 18.874 0.946 18.874 0.323 -71.047
474.292 0.307 -72.038 0.951 17.878 0.951 17.878 0.307 -72.038
499.25 0.292 -72.943 0.956 16.968 0.956 16.968 0.292 -72.943
524.208 0.278 -73.773 0.96 16.134 0.96 16.134 0.278 -73.773
549.167 0.265 -74.536 0.964 15.366 0.964 15.366 0.265 -74.536
574.125 0.253 -75.24 0.967 14.657 0.967 14.657 0.253 -75.24
599.083 0.242 -75.892 0.97 14 0.97 14 0.242 -75.892
624.042 0.232 -76.498 0.972 13.389 0.972 13.389 0.232 -76.498
649 0.222 -77.062 0.975 12.819 0.975 12.819 0.222 -77.062
673.958 0.213 -77.589 0.977 12.287 0.977 12.287 0.213 -77.589
698.917 0.204 -78.083 0.978 11.788 0.978 11.788 0.204 -78.083
723.875 0.196 -78.546 0.98 11.319 0.98 11.319 0.196 -78.546
748.833 0.189 -78.982 0.982 10.878 0.982 10.878 0.189 -78.982
773.792 0.182 -79.393 0.983 10.461 0.983 10.461 0.182 -79.393
798.75 0.175 -79.781 0.984 10.067 0.984 10.067 0.175 -79.781
823.708 0.168 -80.148 0.985 9.694 0.985 9.694 0.168 -80.148
848.667 0.162 -80.496 0.986 9.34 0.986 9.34 0.162 -80.496
873.625 0.156 -80.827 0.987 9.003 0.987 9.003 0.156 -80.827
898.583 0.151 -81.141 0.988 8.683 0.988 8.683 0.151 -81.141
923.542 0.146 -81.44 0.989 8.377 0.989 8.377 0.146 -81.44
948.5 0.141 -81.726 0.99 8.084 0.99 8.084 0.141 -81.726
973.458 0.136 -81.999 0.99 7.805 0.99 7.805 0.136 -81.999
998.417 0.131 -82.26 0.991 7.537 0.991 7.537 0.131 -82.26
1023.375 0.127 -82.509 0.991 7.28 0.991 7.28 0.127 -82.509
1048.333 0.122 -82.749 0.992 7.033 0.992 7.033 0.122 -82.749
1073.292 0.118 -82.978 0.993 6.796 0.993 6.796 0.118 -82.978
1098.25 0.114 -83.199 0.993 6.567 0.993 6.567 0.114 -83.199
1123.208 0.111 -83.411 0.993 6.347 0.993 6.347 0.111 -83.411
1148.167 0.107 -83.615 0.994 6.134 0.994 6.134 0.107 -83.615
1173.125 0.103 -83.812 0.994 5.929 0.994 5.929 0.103 -83.812
1198.083 0.1 -84.001 0.995 5.73 0.995 5.73 0.1 -84.001
1223.042 0.097 -84.184 0.995 5.538 0.995 5.538 0.097 -84.184
1248 0.093 -84.36 0.995 5.352 0.995 5.352 0.093 -84.36
1272.958 0.09 -84.531 0.995 5.172 0.995 5.172 0.09 -84.531
1297.917 0.087 -84.695 0.996 4.997 0.996 4.997 0.087 -84.695
1322.875 0.084 -84.854 0.996 4.827 0.996 4.827 0.084 -84.854
1347.833 0.081 -85.008 0.996 4.662 0.996 4.662 0.081 -85.008
1372.792 0.078 -85.157 0.996 4.501 0.996 4.501 0.078 -85.157
1397.75 0.076 -85.301 0.997 4.345 0.997 4.345 0.076 -85.301
1422.708 0.073 -85.44 0.997 4.193 0.997 4.193 0.073 -85.44
1447.667 0.071 -85.575 0.997 4.044 0.997 4.044 0.071 -85.575
1472.625 0.068 -85.706 0.997 3.899 0.997 3.899 0.068 -85.706
1497.583 0.066 -85.832 0.997 3.758 0.997 3.758 0.066 -85.832
1522.542 0.063 -85.954 0.998 3.62 0.998 3.62 0.063 -85.954
1547.5 0.061 -86.072 0.998 3.486 0.998 3.486 0.061 -86.072
1572.458 0.059 -86.187 0.998 3.354 0.998 3.354 0.059 -86.187
1597.417 0.056 -86.297 0.998 3.225 0.998 3.225 0.056 -86.297
1622.375 0.054 -86.404 0.998 3.099 0.998 3.099 0.054 -86.404
1647.333 0.052 -86.507 0.998 2.975 0.998 2.975 0.052 -86.507
1672.292 0.05 -86.606 0.998 2.855 0.998 2.855 0.05 -86.606
1697.25 0.048 -86.701 0.998 2.736 0.998 2.736 0.048 -86.701
1722.208 0.046 -86.792 0.998 2.62 0.998 2.62 0.046 -86.792
1747.167 0.044 -86.879 0.999 2.506 0.999 2.506 0.044 -86.879
1772.125 0.042 -86.962 0.999 2.394 0.999 2.394 0.042 -86.962
1797.083 0.04 -87.041 0.999 2.284 0.999 2.284 0.04 -87.041
1822.042 0.038 -87.116 0.999 2.176 0.999 2.176 0.038 -87.116
1847 0.036 -87.185 0.999 2.069 0.999 2.069 0.036 -87.185
1871.958 0.034 -87.25 0.999 1.965 0.999 1.965 0.034 -87.25
1896.917 0.033 -87.31 0.999 1.862 0.999 1.862 0.033 -87.31
1921.875 0.031 -87.363 0.999 1.761 0.999 1.761 0.031 -87.363
1946.833 0.029 -87.41 0.999 1.662 0.999 1.662 0.029 -87.41
1971.792 0.027 -87.45 0.999 1.564 0.999 1.564 0.027 -87.45
1996.75 0.026 -87.482 0.999 1.468 0.999 1.468 0.026 -87.482
2021.708 0.024 -87.504 0.999 1.373 0.999 1.373 0.024 -87.504
2046.667 0.022 -87.515 0.999 1.279 0.999 1.279 0.022 -87.515
2071.625 0.021 -87.514 0.999 1.187 0.999 1.187 0.021 -87.514
2096.583 0.019 -87.497 0.999 1.096 0.999 1.096 0.019 -87.497
2121.542 0.018 -87.461 0.999 1.006 0.999 1.006 0.018 -87.461
2146.5 0.016 -87.402 0.999 0.917 0.999 0.917 0.016 -87.402
2171.458 0.014 -87.312 0.999 0.83 0.999 0.83 0.014 -87.312
2196.417 0.013 -87.182 0.999 0.743 0.999 0.743 0.013 -87.182
2221.375 0.011 -86.999 0.999 0.658 0.999 0.658 0.011 -86.999
2246.333 0.01 -86.74 0.999 0.574 0.999 0.574 0.01 -86.74
2271.292 8.573e-3 -86.368 0.999 0.49 0.999 0.49 8.573e-3 -86.368
2296.25 7.139e-3 -85.818 1 0.408 1 0.408 7.139e-3 -85.818
2321.208 5.723e-3 -84.963 1 0.327 1 0.327 5.723e-3 -84.963
2346.167 4.324e-3 -83.515 1 0.246 1 0.246 4.324e-3 -83.515
2371.125 2.947e-3 -80.659 1 0.167 1 0.167 2.947e-3 -80.659
2396.083 1.605e-3 -72.891 1 0.088 1 0.088 1.605e-3 -72.891
2421.042 501.5e-6 -20.42 1 0.01 1 0.01 501.5e-6 -20.42
2446 1.262e-3 68.068 1 -0.067 1 -0.067 1.262e-3 68.068
2470.958 2.547e-3 79.226 1 -0.143 1 -0.143 2.547e-3 79.226
2495.917 3.852e-3 82.773 1 -0.219 1 -0.219 3.852e-3 82.773
2520.875 5.151e-3 84.472 1 -0.294 1 -0.294 5.151e-3 84.472
2545.833 6.441e-3 85.448 1 -0.368 1 -0.368 6.441e-3 85.448
2570.792 7.72e-3 86.069 1 -0.442 1 -0.442 7.72e-3 86.069
2595.75 8.988e-3 86.489 0.999 -0.514 0.999 -0.514 8.988e-3 86.489
2620.708 0.01 86.785 0.999 -0.586 0.999 -0.586 0.01 86.785
2645.667 0.011 86.999 0.999 -0.658 0.999 -0.658 0.011 86.999
2670.625 0.013 87.156 0.999 -0.729 0.999 -0.729 0.013 87.156
2695.583 0.014 87.271 0.999 -0.799 0.999 -0.799 0.014 87.271
2720.542 0.015 87.356 0.999 -0.869 0.999 -0.869 0.015 87.356
2745.5 0.016 87.418 0.999 -0.938 0.999 -0.938 0.016 87.418
2770.458 0.018 87.461 0.999 -1.007 0.999 -1.007 0.018 87.461
2795.417 0.019 87.49 0.999 -1.075 0.999 -1.075 0.019 87.49
2820.375 0.02 87.508 0.999 -1.142 0.999 -1.142 0.02 87.508
2845.333 0.021 87.515 0.999 -1.209 0.999 -1.209 0.021 87.515
2870.292 0.022 87.515 0.999 -1.276 0.999 -1.276 0.022 87.515
2895.25 0.023 87.509 0.999 -1.342 0.999 -1.342 0.023 87.509
2920.208 0.025 87.497 0.999 -1.407 0.999 -1.407 0.025 87.497
2945.167 0.026 87.48 0.999 -1.472 0.999 -1.472 0.026 87.48
2970.125 0.027 87.46 0.999 -1.537 0.999 -1.537 0.027 87.46
2995.083 0.028 87.436 0.999 -1.601 0.999 -1.601 0.028 87.436
3020.042 0.029 87.409 0.999 -1.665 0.999 -1.665 0.029 87.409
3045 0.03 87.379 0.999 -1.729 0.999 -1.729 0.03 87.379
3069.958 0.031 87.348 0.999 -1.792 0.999 -1.792 0.031 87.348
3094.917 0.032 87.314 0.999 -1.854 0.999 -1.854 0.032 87.314
3119.875 0.033 87.279 0.999 -1.916 0.999 -1.916 0.033 87.279
3144.833 0.035 87.242 0.999 -1.978 0.999 -1.978 0.035 87.242
3169.792 0.036 87.204 0.999 -2.04 0.999 -2.04 0.036 87.204
3194.75 0.037 87.165 0.999 -2.101 0.999 -2.101 0.037 87.165
3219.708 0.038 87.125 0.999 -2.161 0.999 -2.161 0.038 87.125
3244.667 0.039 87.084 0.999 -2.222 0.999 -2.222 0.039 87.084
3269.625 0.04 87.042 0.999 -2.282 0.999 -2.282 0.04 87.042
3294.583 0.041 87 0.999 -2.342 0.999 -2.342 0.041 87
3319.542 0.042 86.957 0.999 -2.401 0.999 -2.401 0.042 86.957
3344.5 0.043 86.913 0.999 -2.46 0.999 -2.46 0.043 86.913
3369.458 0.044 86.869 0.999 -2.519 0.999 -2.519 0.044 86.869
3394.417 0.045 86.825 0.999 -2.577 0.999 -2.577 0.045 86.825
3419.375 0.046 86.78 0.998 -2.636 0.998 -2.636 0.046 86.78
3444.333 0.047 86.734 0.998 -2.693 0.998 -2.693 0.047 86.734
3469.292 0.048 86.689 0.998 -2.751 0.998 -2.751 0.048 86.689
3494.25 0.049 86.643 0.998 -2.808 0.998 -2.808 0.049 86.643
3519.208 0.05 86.597 0.998 -2.865 0.998 -2.865 0.05 86.597
3544.167 0.051 86.55 0.998 -2.922 0.998 -2.922 0.051 86.55
3569.125 0.052 86.504 0.998 -2.979 0.998 -2.979 0.052 86.504
3594.083 0.053 86.457 0.998 -3.035 0.998 -3.035 0.053 86.457
3619.042 0.054 86.41 0.998 -3.091 0.998 -3.091 0.054 86.41
3644 0.055 86.363 0.998 -3.147 0.998 -3.147 0.055 86.363
3668.958 0.056 86.316 0.998 -3.202 0.998 -3.202 0.056 86.316
3693.917 0.057 86.269 0.998 -3.258 0.998 -3.258 0.057 86.269
3718.875 0.058 86.222 0.998 -3.313 0.998 -3.313 0.058 86.222
3743.833 0.059 86.175 0.998 -3.368 0.998 -3.368 0.059 86.175
3768.792 0.06 86.127 0.998 -3.422 0.998 -3.422 0.06 86.127
3793.75 0.061 86.08 0.998 -3.477 0.998 -3.477 0.061 86.08
3818.708 0.062 86.033 0.998 -3.531 0.998 -3.531 0.062 86.033
3843.667 0.063 85.985 0.998 -3.585 0.998 -3.585 0.063 85.985
3868.625 0.063 85.938 0.998 -3.639 0.998 -3.639 0.063 85.938
3893.583 0.064 85.89 0.997 -3.692 0.997 -3.692 0.064 85.89
3918.542 0.065 85.843 0.997 -3.746 0.997 -3.746 0.065 85.843
3943.5 0.066 85.796 0.997 -3.799 0.997 -3.799 0.066 85.796
3968.458 0.067 85.748 0.997 -3.852 0.997 -3.852 0.067 85.748
3993.417 0.068 85.701 0.997 -3.905 0.997 -3.905 0.068 85.701
4018.375 0.069 85.653 0.997 -3.957 0.997 -3.957 0.069 85.653
4043.333 0.07 85.606 0.997 -4.01 0.997 -4.01 0.07 85.606
4068.292 0.071 85.559 0.997 -4.062 0.997 -4.062 0.071 85.559
4093.25 0.072 85.511 0.997 -4.114 0.997 -4.114 0.072 85.511
4118.208 0.073 85.464 0.997 -4.166 0.997 -4.166 0.073 85.464
4143.167 0.074 85.417 0.997 -4.218 0.997 -4.218 0.074 85.417
4168.125 0.074 85.37 0.997 -4.27 0.997 -4.27 0.074 85.37
4193.083 0.075 85.323 0.997 -4.321 0.997 -4.321 0.075 85.323
4218.042 0.076 85.276 0.997 -4.372 0.997 -4.372 0.076 85.276
4243 0.077 85.229 0.997 -4.423 0.997 -4.423 0.077 85.229
4267.958 0.078 85.182 0.996 -4.474 0.996 -4.474 0.078 85.182
4292.917 0.079 85.135 0.996 -4.525 0.996 -4.525 0.079 85.135
4317.875 0.08 85.088 0.996 -4.576 0.996 -4.576 0.08 85.088
4342.833 0.081 85.041 0.996 -4.626 0.996 -4.626 0.081 85.041
4367.792 0.082 84.994 0.996 -4.677 0.996 -4.677 0.082 84.994
4392.75 0.082 84.947 0.996 -4.727 0.996 -4.727 0.082 84.947
4417.708 0.083 84.901 0.996 -4.777 0.996 -4.777 0.083 84.901
4442.667 0.084 84.854 0.996 -4.827 0.996 -4.827 0.084 84.854
4467.625 0.085 84.808 0.996 -4.877 0.996 -4.877 0.085 84.808
4492.583 0.086 84.761 0.996 -4.926 0.996 -4.926 0.086 84.761
4517.542 0.087 84.715 0.996 -4.976 0.996 -4.976 0.087 84.715
4542.5 0.088 84.668 0.996 -5.025 0.996 -5.025 0.088 84.668
4567.458 0.088 84.622 0.996 -5.075 0.996 -5.075 0.088 84.622
4592.417 0.089 84.576 0.996 -5.124 0.996 -5.124 0.089 84.576
4617.375 0.09 84.53 0.995 -5.173 0.995 -5.173 0.09 84.53
4642.333 0.091 84.484 0.995 -5.222 0.995 -5.222 0.091 84.484
4667.292 0.092 84.438 0.995 -5.271 0.995 -5.271 0.092 84.438
4692.25 0.093 84.392 0.995 -5.319 0.995 -5.319 0.093 84.392
4717.208 0.094 84.346 0.995 -5.368 0.995 -5.368 0.094 84.346
4742.167 0.094 84.3 0.995 -5.416 0.995 -5.416 0.094 84.3
4767.125 0.095 84.254 0.995 -5.465 0.995 -5.465 0.095 84.254
4792.083 0.096 84.208 0.995 -5.513 0.995 -5.513 0.096 84.208
4817.042 0.097 84.163 0.995 -5.561 0.995 -5.561 0.097 84.163
4842 0.098 84.117 0.995 -5.609 0.995 -5.609 0.098 84.117
4866.958 0.099 84.071 0.995 -5.657 0.995 -5.657 0.099 84.071
4891.917 0.099 84.026 0.995 -5.705 0.995 -5.705 0.099 84.026
4916.875 0.1 83.98 0.994 -5.752 0.994 -5.752 0.1 83.98
4941.833 0.101 83.935 0.994 -5.8 0.994 -5.8 0.101 83.935
4966.792 0.102 83.89 0.994 -5.847 0.994 -5.847 0.102 83.89
4991.75 0.103 83.844 0.994 -5.895 0.994 -5.895 0.103 83.844
5016.708 0.104 83.799 0.994 -5.942 0.994 -5.942 0.104 83.799
5041.667 0.104 83.754 0.994 -5.989 0.994 -5.989 0.104 83.754
5066.625 0.105 83.709 0.994 -6.036 0.994 -6.036 0.105 83.709
5091.583 0.106 83.664 0.994 -6.083 0.994 -6.083 0.106 83.664
5116.542 0.107 83.619 0.994 -6.13 0.994 -6.13 0.107 83.619
5141.5 0.108 83.574 0.994 -6.177 0.994 -6.177 0.108 83.574
5166.458 0.108 83.529 0.994 -6.224 0.994 -6.224 0.108 83.529
5191.417 0.109 83.485 0.994 -6.27 0.994 -6.27 0.109 83.485
5216.375 0.11 83.44 0.993 -6.317 0.993 -6.317 0.11 83.44
5241.333 0.111 83.395 0.993 -6.363 0.993 -6.363 0.111 83.395
5266.292 0.112 83.351 0.993 -6.41 0.993 -6.41 0.112 83.351
5291.25 0.112 83.306 0.993 -6.456 0.993 -6.456 0.112 83.306
5316.208 0.113 83.262 0.993 -6.502 0.993 -6.502 0.113 83.262
5341.167 0.114 83.217 0.993 -6.548 0.993 -6.548 0.114 83.217
5366.125 0.115 83.173 0.993 -6.594 0.993 -6.594 0.115 83.173
5391.083 0.116 83.128 0.993 -6.64 0.993 -6.64 0.116 83.128
5416.042 0.116 83.084 0.993 -6.686 0.993 -6.686 0.116 83.084
5441 0.117 83.04 0.993 -6.732 0.993 -6.732 0.117 83.04
5465.958 0.118 82.996 0.993 -6.778 0.993 -6.778 0.118 82.996
5490.917 0.119 82.952 0.992 -6.823 0.992 -6.823 0.119 82.952
5515.875 0.12 82.908 0.992 -6.869 0.992 -6.869 0.12 82.908
5540.833 0.12 82.864 0.992 -6.914 0.992 -6.914 0.12 82.864
5565.792 0.121 82.82 0.992 -6.96 0.992 -6.96 0.121 82.82
5590.75 0.122 82.776 0.992 -7.005 0.992 -7.005 0.122 82.776
5615.708 0.123 82.732 0.992 -7.05 0.992 -7.05 0.123 82.732
5640.667 0.124 82.688 0.992 -7.096 0.992 -7.096 0.124 82.688
5665.625 0.124 82.644 0.992 -7.141 0.992 -7.141 0.124 82.644
5690.583 0.125 82.601 0.992 -7.186 0.992 -7.186 0.125 82.601
5715.542 0.126 82.557 0.992 -7.231 0.992 -7.231 0.126 82.557
5740.5 0.127 82.513 0.991 -7.276 0.991 -7.276 0.127 82.513
5765.458 0.127 82.47 0.991 -7.32 0.991 -7.32 0.127 82.47
5790.417 0.128 82.426 0.991 -7.365 0.991 -7.365 0.128 82.426
5815.375 0.129 82.383 0.991 -7.41 0.991 -7.41 0.129 82.383
5840.333 0.13 82.34 0.991 -7.455 0.991 -7.455 0.13 82.34
5865.292 0.131 82.296 0.991 -7.499 0.991 -7.499 0.131 82.296
5890.25 0.131 82.253 0.991 -7.544 0.991 -7.544 0.131 82.253
5915.208 0.132 82.21 0.991 -7.588 0.991 -7.588 0.132 82.21
5940.167 0.133 82.167 0.991 -7.633 0.991 -7.633 0.133 82.167
5965.125 0.134 82.123 0.991 -7.677 0.991 -7.677 0.134 82.123
5990.083 0.134 82.08 0.99 -7.721 0.99 -7.721 0.134 82.08
6015.042 0.135 82.037 0.99 -7.765 0.99 -7.765 0.135 82.037
6040 0.136 81.994 0.99 -7.809 0.99 -7.809 0.136 81.994
6064.958 0.137 81.951 0.99 -7.854 0.99 -7.854 0.137 81.951
6089.917 0.137 81.908 0.99 -7.898 0.99 -7.898 0.137 81.908
6114.875 0.138 81.865 0.99 -7.942 0.99 -7.942 0.138 81.865
6139.833 0.139 81.823 0.99 -7.985 0.99 -7.985 0.139 81.823
6164.792 0.14 81.78 0.99 -8.029 0.99 -8.029 0.14 81.78
6189.75 0.14 81.737 0.99 -8.073 0.99 -8.073 0.14 81.737
6214.708 0.141 81.694 0.99 -8.117 0.99 -8.117 0.141 81.694
6239.667 0.142 81.652 0.989 -8.161 0.989 -8.161 0.142 81.652
6264.625 0.143 81.609 0.989 -8.204 0.989 -8.204 0.143 81.609
6289.583 0.143 81.567 0.989 -8.248 0.989 -8.248 0.143 81.567
6314.542 0.144 81.524 0.989 -8.291 0.989 -8.291 0.144 81.524
6339.5 0.145 81.481 0.989 -8.335 0.989 -8.335 0.145 81.481
6364.458 0.146 81.439 0.989 -8.378 0.989 -8.378 0.146 81.439
6389.417 0.146 81.397 0.989 -8.421 0.989 -8.421 0.146 81.397
6414.375 0.147 81.354 0.989 -8.465 0.989 -8.465 0.147 81.354
6439.333 0.148 81.312 0.989 -8.508 0.989 -8.508 0.148 81.312
6464.292 0.149 81.27 0.988 -8.551 0.988 -8.551 0.149 81.27
6489.25 0.149 81.227 0.988 -8.594 0.988 -8.594 0.149 81.227
6514.208 0.15 81.185 0.988 -8.637 0.988 -8.637 0.15 81.185
6539.167 0.151 81.143 0.988 -8.681 0.988 -8.681 0.151 81.143
6564.125 0.152 81.101 0.988 -8.724 0.988 -8.724 0.152 81.101
6589.083 0.152 81.059 0.988 -8.766 0.988 -8.766 0.152 81.059
6614.042 0.153 81.017 0.988 -8.809 0.988 -8.809 0.153 81.017
6639 0.154 80.975 0.988 -8.852 0.988 -8.852 0.154 80.975
6663.958 0.155 80.933 0.988 -8.895 0.988 -8.895 0.155 80.933
6688.917 0.155 80.891 0.987 -8.938 0.987 -8.938 0.155 80.891
6713.875 0.156 80.849 0.987 -8.981 0.987 -8.981 0.156 80.849
6738.833 0.157 80.807 0.987 -9.023 0.987 -9.023 0.157 80.807
6763.792 0.158 80.765 0.987 -9.066 0.987 -9.066 0.158 80.765
6788.75 0.158 80.724 0.987 -9.108 0.987 -9.108 0.158 80.724
6813.708 0.159 80.682 0.987 -9.151 0.987 -9.151 0.159 80.682
6838.667 0.16 80.64 0.987 -9.193 0.987 -9.193 0.16 80.64
6863.625 0.16 80.599 0.987 -9.236 0.987 -9.236 0.16 80.599
6888.583 0.161 80.557 0.986 -9.278 0.986 -9.278 0.161 80.557
6913.542 0.162 80.515 0.986 -9.321 0.986 -9.321 0.162 80.515
6938.5 0.163 80.474 0.986 -9.363 0.986 -9.363 0.163 80.474
6963.458 0.163 80.432 0.986 -9.405 0.986 -9.405 0.163 80.432
6988.417 0.164 80.391 0.986 -9.447 0.986 -9.447 0.164 80.391
7013.375 0.165 80.349 0.986 -9.49 0.986 -9.49 0.165 80.349
7038.333 0.166 80.308 0.986 -9.532 0.986 -9.532 0.166 80.308
7063.292 0.166 80.267 0.986 -9.574 0.986 -9.574 0.166 80.267
7088.25 0.167 80.225 0.985 -9.616 0.985 -9.616 0.167 80.225
7113.208 0.168 80.184 0.985 -9.658 0.985 -9.658 0.168 80.184
7138.167 0.168 80.143 0.985 -9.7 0.985 -9.7 0.168 80.143
7163.125 0.169 80.101 0.985 -9.742 0.985 -9.742 0.169 80.101
7188.083 0.17 80.06 0.985 -9.784 0.985 -9.784 0.17 80.06
7213.042 0.171 80.019 0.985 -9.825 0.985 -9.825 0.171 80.019
7238 0.171 79.978 0.985 -9.867 0.985 -9.867 0.171 79.978
7262.958 0.172 79.937 0.985 -9.909 0.985 -9.909 0.172 79.937
7287.917 0.173 79.896 0.984 -9.951 0.984 -9.951 0.173 79.896
7312.875 0.174 79.855 0.984 -9.992 0.984 -9.992 0.174 79.855
7337.833 0.174 79.814 0.984 -10.034 0.984 -10.034 0.174 79.814
7362.792 0.175 79.773 0.984 -10.076 0.984 -10.076 0.175 79.773
7387.75 0.176 79.732 0.984 -10.117 0.984 -10.117 0.176 79.732
7412.708 0.176 79.691 0.984 -10.159 0.984 -10.159 0.176 79.691
7437.667 0.177 79.65 0.984 -10.2 0.984 -10.2 0.177 79.65
7462.625 0.178 79.609 0.984 -10.242 0.984 -10.242 0.178 79.609
7487.583 0.179 79.568 0.983 -10.283 0.983 -10.283 0.179 79.568
7512.542 0.179 79.528 0.983 -10.325 0.983 -10.325 0.179 79.528
7537.5 0.18 79.487 0.983 -10.366 0.983 -10.366 0.18 79.487
7562.458 0.181 79.446 0.983 -10.407 0.983 -10.407 0.181 79.446
7587.417 0.181 79.406 0.983 -10.448 0.983 -10.448 0.181 79.406
7612.375 0.182 79.365 0.983 -10.49 0.983 -10.49 0.182 79.365
7637.333 0.183 79.324 0.983 -10.531 0.983 -10.531 0.183 79.324
7662.292 0.183 79.284 0.983 -10.572 0.983 -10.572 0.183 79.284
7687.25 0.184 79.243 0.982 -10.613 0.982 -10.613 0.184 79.243
7712.208 0.185 79.203 0.982 -10.654 0.982 -10.654 0.185 79.203
7737.167 0.186 79.162 0.982 -10.695 0.982 -10.695 0.186 79.162
7762.125 0.186 79.122 0.982 -10.736 0.982 -10.736 0.186 79.122
7787.083 0.187 79.081 0.982 -10.777 0.982 -10.777 0.187 79.081
7812.042 0.188 79.041 0.982 -10.818 0.982 -10.818 0.188 79.041
7837 0.188 79 0.982 -10.859 0.982 -10.859 0.188 79
7861.958 0.189 78.96 0.981 -10.9 0.981 -10.9 0.189 78.96
7886.917 0.19 78.92 0.981 -10.941 0.981 -10.941 0.19 78.92
7911.875 0.19 78.879 0.981 -10.982 0.981 -10.982 0.19 78.879
7936.833 0.191 78.839 0.981 -11.023 0.981 -11.023 0.191 78.839
7961.792 0.192 78.799 0.981 -11.063 0.981 -11.063 0.192 78.799
7986.75 0.193 78.759 0.981 -11.104 0.981 -11.104 0.193 78.759
8011.708 0.193 78.719 0.981 -11.145 0.981 -11.145 0.193 78.719
8036.667 0.194 78.678 0.981 -11.185 0.981 -11.185 0.194 78.678
8061.625 0.195 78.638 0.98 -11.226 0.98 -11.226 0.195 78.638
8086.583 0.195 78.598 0.98 -11.267 0.98 -11.267 0.195 78.598
8111.542 0.196 78.558 0.98 -11.307 0.98 -11.307 0.196 78.558
8136.5 0.197 78.518 0.98 -11.348 0.98 -11.348 0.197 78.518
8161.458 0.197 78.478 0.98 -11.388 0.98 -11.388 0.197 78.478
8186.417 0.198 78.438 0.98 -11.429 0.98 -11.429 0.198 78.438
8211.375 0.199 78.398 0.98 -11.469 0.98 -11.469 0.199 78.398
8236.333 0.2 78.358 0.979 -11.51 0.979 -11.51 0.2 78.358
8261.292 0.2 78.318 0.979 -11.55 0.979 -11.55 0.2 78.318
8286.25 0.201 78.278 0.979 -11.59 0.979 -11.59 0.201 78.278
8311.208 0.202 78.239 0.979 -11.631 0.979 -11.631 0.202 78.239
