# MHZ S MA R 50

50 1 -0.54 9.424e-3 89.456 9.424e-3 89.456 1 -0.54
74.958 1 -0.81 0.014 89.184 0.014 89.184 1 -0.81
99.917 1 -1.079 0.019 88.913 0.019 88.913 1 -1.079
124.875 1 -1.348 0.024 88.641 0.024 88.641 1 -1.348
149.833 1 -1.618 0.028 88.37 0.028 88.37 1 -1.618
174.792 0.999 -1.887 0.033 88.098 0.033 88.098 0.999 -1.887
199.75 0.999 -2.157 0.038 87.827 0.038 87.827 0.999 -2.157
224.708 0.999 -2.426 0.042 87.556 0.042 87.556 0.999 -2.426
249.667 0.999 -2.695 0.047 87.285 0.047 87.285 0.999 -2.695
274.625 0.999 -2.964 0.052 87.013 0.052 87.013 0.999 -2.964
299.583 0.998 -3.233 0.056 86.742 0.056 86.742 0.998 -3.233
324.542 0.998 -3.502 0.061 86.471 0.061 86.471 0.998 -3.502
349.5 0.998 -3.771 0.066 86.201 0.066 86.201 0.998 -3.771
374.458 0.997 -4.04 0.07 85.93 0.07 85.93 0.997 -4.04
399.417 0.997 -4.309 0.075 85.659 0.075 85.659 0.997 -4.309
424.375 0.997 -4.577 0.08 85.388 0.08 85.388 0.997 -4.577
449.333 0.996 -4.846 0.084 85.118 0.084 85.118 0.996 -4.846
474.292 0.996 -5.114 0.089 84.848 0.089 84.848 0.996 -5.114
499.25 0.996 -5.382 0.094 84.578 0.094 84.578 0.996 -5.382
524.208 0.995 -5.65 0.098 84.308 0.098 84.308 0.995 -5.65
549.167 0.995 -5.918 0.103 84.038 0.103 84.038 0.995 -5.918
574.125 0.994 -6.185 0.108 83.768 0.108 83.768 0.994 -6.185
599.083 0.994 -6.453 0.112 83.499 0.112 83.499 0.994 -6.453
624.042 0.993 -6.72 0.117 83.229 0.117 83.229 0.993 -6.72
649 0.992 -6.987 0.122 82.96 0.122 82.96 0.992 -6.987
673.958 0.992 -7.254 0.126 82.691 0.126 82.691 0.992 -7.254
698.917 0.991 -7.521 0.131 82.422 0.131 82.422 0.991 -7.521
723.875 0.991 -7.788 0.136 82.154 0.136 82.154 0.991 -7.788
748.833 0.99 -8.054 0.14 81.885 0.14 81.885 0.99 -8.054
773.792 0.989 -8.32 0.145 81.617 0.145 81.617 0.989 -8.32
798.75 0.989 -8.586 0.149 81.349 0.149 81.349 0.989 -8.586
823.708 0.988 -8.852 0.154 81.082 0.154 81.082 0.988 -8.852
848.667 0.987 -9.117 0.158 80.814 0.158 80.814 0.987 -9.117
873.625 0.986 -9.382 0.163 80.547 0.163 80.547 0.986 -9.382
898.583 0.986 -9.647 0.168 80.28 0.168 80.28 0.986 -9.647
923.542 0.985 -9.912 0.172 80.013 0.172 80.013 0.985 -9.912
948.5 0.984 -10.176 0.177 79.747 0.177 79.747 0.984 -10.176
973.458 0.983 -10.44 0.181 79.481 0.181 79.481 0.983 -10.44
998.417 0.982 -10.704 0.186 79.215 0.186 79.215 0.982 -10.704
1023.375 0.981 -10.968 0.19 78.949 0.19 78.949 0.981 -10.968
1048.333 0.981 -11.231 0.195 78.684 0.195 78.684 0.981 -11.231
1073.292 0.98 -11.494 0.199 78.419 0.199 78.419 0.98 -11.494
1098.25 0.979 -11.757 0.204 78.154 0.204 78.154 0.979 -11.757
1123.208 0.978 -12.019 0.208 77.89 0.208 77.89 0.978 -12.019
1148.167 0.977 -12.281 0.213 77.626 0.213 77.626 0.977 -12.281
1173.125 0.976 -12.543 0.217 77.362 0.217 77.362 0.976 -12.543
1198.083 0.975 -12.804 0.222 77.098 0.222 77.098 0.975 -12.804
1223.042 0.974 -13.065 0.226 76.835 0.226 76.835 0.974 -13.065
1248 0.973 -13.326 0.23 76.572 0.23 76.572 0.973 -13.326
1272.958 0.972 -13.586 0.235 76.31 0.235 76.31 0.972 -13.586
1297.917 0.97 -13.846 0.239 76.048 0.239 76.048 0.97 -13.846
1322.875 0.969 -14.106 0.244 75.786 0.244 75.786 0.969 -14.106
1347.833 0.968 -14.365 0.248 75.525 0.248 75.525 0.968 -14.365
1372.792 0.967 -14.624 0.252 75.264 0.252 75.264 0.967 -14.624
1397.75 0.966 -14.883 0.257 75.003 0.257 75.003 0.966 -14.883
1422.708 0.965 -15.141 0.261 74.743 0.261 74.743 0.965 -15.141
1447.667 0.964 -15.399 0.266 74.483 0.266 74.483 0.964 -15.399
1472.625 0.962 -15.656 0.27 74.224 0.27 74.224 0.962 -15.656
1497.583 0.961 -15.913 0.274 73.965 0.274 73.965 0.961 -15.913
1522.542 0.96 -16.17 0.278 73.706 0.278 73.706 0.96 -16.17
1547.5 0.959 -16.426 0.283 73.448 0.283 73.448 0.959 -16.426
1572.458 0.957 -16.682 0.287 73.19 0.287 73.19 0.957 -16.682
1597.417 0.956 -16.937 0.291 72.932 0.291 72.932 0.956 -16.937
1622.375 0.955 -17.192 0.296 72.675 0.296 72.675 0.955 -17.192
1647.333 0.953 -17.447 0.3 72.419 0.3 72.419 0.953 -17.447
1672.292 0.952 -17.701 0.304 72.162 0.304 72.162 0.952 -17.701
1697.25 0.951 -17.954 0.308 71.907 0.308 71.907 0.951 -17.954
1722.208 0.949 -18.207 0.312 71.651 0.312 71.651 0.949 -18.207
1747.167 0.948 -18.46 0.317 71.397 0.317 71.397 0.948 -18.46
1772.125 0.946 -18.713 0.321 71.142 0.321 71.142 0.946 -18.713
1797.083 0.945 -18.964 0.325 70.888 0.325 70.888 0.945 -18.964
1822.042 0.943 -19.216 0.329 70.635 0.329 70.635 0.943 -19.216
1847 0.942 -19.467 0.333 70.382 0.333 70.382 0.942 -19.467
1871.958 0.94 -19.717 0.337 70.129 0.337 70.129 0.94 -19.717
1896.917 0.939 -19.967 0.341 69.877 0.341 69.877 0.939 -19.967
1921.875 0.937 -20.217 0.346 69.625 0.346 69.625 0.937 -20.217
1946.833 0.936 -20.466 0.35 69.374 0.35 69.374 0.936 -20.466
1971.792 0.934 -20.714 0.354 69.124 0.354 69.124 0.934 -20.714
1996.75 0.933 -20.962 0.358 68.873 0.358 68.873 0.933 -20.962
2021.708 0.931 -21.21 0.362 68.624 0.362 68.624 0.931 -21.21
2046.667 0.93 -21.457 0.366 68.374 0.366 68.374 0.93 -21.457
2071.625 0.928 -21.703 0.37 68.126 0.37 68.126 0.928 -21.703
2096.583 0.926 -21.949 0.374 67.878 0.374 67.878 0.926 -21.949
2121.542 0.925 -22.195 0.378 67.63 0.378 67.63 0.925 -22.195
2146.5 0.923 -22.44 0.382 67.383 0.382 67.383 0.923 -22.44
2171.458 0.921 -22.684 0.386 67.136 0.386 67.136 0.921 -22.684
2196.417 0.92 -22.928 0.39 66.89 0.39 66.89 0.92 -22.928
2221.375 0.918 -23.172 0.393 66.644 0.393 66.644 0.918 -23.172
2246.333 0.916 -23.415 0.397 66.399 0.397 66.399 0.916 -23.415
2271.292 0.915 -23.657 0.401 66.155 0.401 66.155 0.915 -23.657
2296.25 0.913 -23.899 0.405 65.911 0.405 65.911 0.913 -23.899
2321.208 0.911 -24.141 0.409 65.667 0.409 65.667 0.911 -24.141
2346.167 0.909 -24.381 0.413 65.424 0.413 65.424 0.909 -24.381
2371.125 0.908 -24.622 0.417 65.182 0.417 65.182 0.908 -24.622
2396.083 0.906 -24.861 0.42 64.94 0.42 64.94 0.906 -24.861
2421.042 0.904 -25.1 0.424 64.698 0.424 64.698 0.904 -25.1
2446 0.902 -25.339 0.428 64.458 0.428 64.458 0.902 -25.339
2470.958 0.9 -25.577 0.432 64.217 0.432 64.217 0.9 -25.577
2495.917 0.899 -25.815 0.435 63.978 0.435 63.978 0.899 -25.815
2520.875 0.897 -26.052 0.439 63.738 0.439 63.738 0.897 -26.052
2545.833 0.895 -26.288 0.443 63.5 0.443 63.5 0.895 -26.288
2570.792 0.893 -26.524 0.447 63.262 0.447 63.262 0.893 -26.524
2595.75 0.891 -26.759 0.45 63.024 0.45 63.024 0.891 -26.759
2620.708 0.889 -26.994 0.454 62.787 0.454 62.787 0.889 -26.994
2645.667 0.887 -27.228 0.458 62.551 0.458 62.551 0.887 -27.228
2670.625 0.886 -27.462 0.461 62.315 0.461 62.315 0.886 -27.462
2695.583 0.884 -27.695 0.465 62.08 0.465 62.08 0.884 -27.695
2720.542 0.882 -27.927 0.468 61.845 0.468 61.845 0.882 -27.927
2745.5 0.88 -28.159 0.472 61.611 0.472 61.611 0.88 -28.159
2770.458 0.878 -28.39 0.475 61.378 0.475 61.378 0.878 -28.39
2795.417 0.876 -28.621 0.479 61.145 0.479 61.145 0.876 -28.621
2820.375 0.874 -28.851 0.483 60.912 0.483 60.912 0.874 -28.851
2845.333 0.872 -29.08 0.486 60.681 0.486 60.681 0.872 -29.08
2870.292 0.87 -29.309 0.49 60.45 0.49 60.45 0.87 -29.309
2895.25 0.868 -29.538 0.493 60.219 0.493 60.219 0.868 -29.538
2920.208 0.866 -29.765 0.496 59.989 0.496 59.989 0.866 -29.765
2945.167 0.864 -29.992 0.5 59.76 0.5 59.76 0.864 -29.992
2970.125 0.862 -30.219 0.503 59.531 0.503 59.531 0.862 -30.219
2995.083 0.86 -30.445 0.507 59.302 0.507 59.302 0.86 -30.445
3020.042 0.858 -30.67 0.51 59.075 0.51 59.075 0.858 -30.67
3045 0.856 -30.895 0.513 58.848 0.513 58.848 0.856 -30.895
3069.958 0.854 -31.119 0.517 58.621 0.517 58.621 0.854 -31.119
3094.917 0.852 -31.343 0.52 58.395 0.52 58.395 0.852 -31.343
3119.875 0.85 -31.566 0.523 58.17 0.523 58.17 0.85 -31.566
3144.833 0.848 -31.788 0.527 57.945 0.527 57.945 0.848 -31.788
3169.792 0.845 -32.01 0.53 57.721 0.53 57.721 0.845 -32.01
3194.75 0.843 -32.231 0.533 57.498 0.533 57.498 0.843 -32.231
3219.708 0.841 -32.452 0.537 57.275 0.537 57.275 0.841 -32.452
3244.667 0.839 -32.672 0.54 57.053 0.54 57.053 0.839 -32.672
3269.625 0.837 -32.891 0.543 56.831 0.543 56.831 0.837 -32.891
3294.583 0.835 -33.11 0.546 56.61 0.546 56.61 0.835 -33.11
3319.542 0.833 -33.328 0.549 56.389 0.549 56.389 0.833 -33.328
3344.5 0.831 -33.545 0.553 56.17 0.553 56.17 0.831 -33.545
3369.458 0.829 -33.762 0.556 55.95 0.556 55.95 0.829 -33.762
3394.417 0.826 -33.978 0.559 55.732 0.559 55.732 0.826 -33.978
3419.375 0.824 -34.194 0.562 55.514 0.562 55.514 0.824 -34.194
3444.333 0.822 -34.409 0.565 55.296 0.565 55.296 0.822 -34.409
3469.292 0.82 -34.624 0.568 55.079 0.568 55.079 0.82 -34.624
3494.25 0.818 -34.838 0.571 54.863 0.571 54.863 0.818 -34.838
3519.208 0.816 -35.051 0.574 54.647 0.574 54.647 0.816 -35.051
3544.167 0.813 -35.263 0.577 54.432 0.577 54.432 0.813 -35.263
3569.125 0.811 -35.476 0.58 54.218 0.58 54.218 0.811 -35.476
3594.083 0.809 -35.687 0.583 54.004 0.583 54.004 0.809 -35.687
3619.042 0.807 -35.898 0.586 53.791 0.586 53.791 0.807 -35.898
3644 0.805 -36.108 0.589 53.578 0.589 53.578 0.805 -36.108
3668.958 0.802 -36.317 0.592 53.366 0.592 53.366 0.802 -36.317
3693.917 0.8 -36.526 0.595 53.155 0.595 53.155 0.8 -36.526
3718.875 0.798 -36.735 0.598 52.944 0.598 52.944 0.798 -36.735
3743.833 0.796 -36.943 0.601 52.734 0.601 52.734 0.796 -36.943
3768.792 0.794 -37.15 0.604 52.524 0.604 52.524 0.794 -37.15
3793.75 0.791 -37.356 0.607 52.315 0.607 52.315 0.791 -37.356
3818.708 0.789 -37.562 0.61 52.107 0.61 52.107 0.789 -37.562
3843.667 0.787 -37.767 0.612 51.899 0.612 51.899 0.787 -37.767
3868.625 0.785 -37.972 0.615 51.692 0.615 51.692 0.785 -37.972
3893.583 0.782 -38.176 0.618 51.485 0.618 51.485 0.782 -38.176
3918.542 0.78 -38.38 0.621 51.279 0.621 51.279 0.78 -38.38
3943.5 0.778 -38.582 0.624 51.074 0.624 51.074 0.778 -38.582
3968.458 0.776 -38.785 0.626 50.869 0.626 50.869 0.776 -38.785
3993.417 0.773 -38.986 0.629 50.665 0.629 50.665 0.773 -38.986
4018.375 0.771 -39.187 0.632 50.461 0.632 50.461 0.771 -39.187
4043.333 0.769 -39.388 0.635 50.258 0.635 50.258 0.769 -39.388
4068.292 0.767 -39.588 0.637 50.056 0.637 50.056 0.767 -39.588
4093.25 0.764 -39.787 0.64 49.854 0.64 49.854 0.764 -39.787
4118.208 0.762 -39.985 0.643 49.653 0.643 49.653 0.762 -39.985
4143.167 0.76 -40.183 0.645 49.453 0.645 49.453 0.76 -40.183
4168.125 0.758 -40.381 0.648 49.253 0.648 49.253 0.758 -40.381
4193.083 0.755 -40.578 0.65 49.053 0.65 49.053 0.755 -40.578
4218.042 0.753 -40.774 0.653 48.854 0.653 48.854 0.753 -40.774
4243 0.751 -40.969 0.656 48.656 0.656 48.656 0.751 -40.969
4267.958 0.748 -41.164 0.658 48.459 0.658 48.459 0.748 -41.164
4292.917 0.746 -41.359 0.661 48.262 0.661 48.262 0.746 -41.359
4317.875 0.744 -41.553 0.663 48.065 0.663 48.065 0.744 -41.553
4342.833 0.742 -41.746 0.666 47.869 0.666 47.869 0.742 -41.746
4367.792 0.739 -41.938 0.668 47.674 0.668 47.674 0.739 -41.938
4392.75 0.737 -42.13 0.671 47.48 0.671 47.48 0.737 -42.13
4417.708 0.735 -42.322 0.673 47.286 0.673 47.286 0.735 -42.322
4442.667 0.732 -42.512 0.676 47.092 0.676 47.092 0.732 -42.512
4467.625 0.73 -42.703 0.678 46.899 0.678 46.899 0.73 -42.703
4492.583 0.728 -42.892 0.681 46.707 0.681 46.707 0.728 -42.892
4517.542 0.726 -43.081 0.683 46.515 0.683 46.515 0.726 -43.081
4542.5 0.723 -43.27 0.685 46.324 0.685 46.324 0.723 -43.27
4567.458 0.721 -43.458 0.688 46.134 0.688 46.134 0.721 -43.458
4592.417 0.719 -43.645 0.69 45.944 0.69 45.944 0.719 -43.645
4617.375 0.716 -43.831 0.693 45.754 0.693 45.754 0.716 -43.831
4642.333 0.714 -44.017 0.695 45.565 0.695 45.565 0.714 -44.017
4667.292 0.712 -44.203 0.697 45.377 0.697 45.377 0.712 -44.203
4692.25 0.709 -44.388 0.7 45.19 0.7 45.19 0.709 -44.388
4717.208 0.707 -44.572 0.702 45.002 0.702 45.002 0.707 -44.572
4742.167 0.705 -44.756 0.704 44.816 0.704 44.816 0.705 -44.756
4767.125 0.703 -44.939 0.706 44.63 0.706 44.63 0.703 -44.939
4792.083 0.7 -45.122 0.709 44.445 0.709 44.445 0.7 -45.122
4817.042 0.698 -45.304 0.711 44.26 0.711 44.26 0.698 -45.304
4842 0.696 -45.485 0.713 44.076 0.713 44.076 0.696 -45.485
4866.958 0.693 -45.666 0.715 43.892 0.715 43.892 0.693 -45.666
4891.917 0.691 -45.846 0.717 43.709 0.717 43.709 0.691 -45.846
4916.875 0.689 -46.026 0.72 43.526 0.72 43.526 0.689 -46.026
4941.833 0.686 -46.205 0.722 43.344 0.722 43.344 0.686 -46.205
4966.792 0.684 -46.384 0.724 43.163 0.724 43.163 0.684 -46.384
4991.75 0.682 -46.562 0.726 42.982 0.726 42.982 0.682 -46.562
5016.708 0.679 -46.739 0.728 42.802 0.728 42.802 0.679 -46.739
5041.667 0.677 -46.916 0.73 42.622 0.73 42.622 0.677 -46.916
5066.625 0.675 -47.092 0.732 42.443 0.732 42.443 0.675 -47.092
5091.583 0.673 -47.268 0.735 42.264 0.735 42.264 0.673 -47.268
5116.542 0.67 -47.443 0.737 42.086 0.737 42.086 0.67 -47.443
5141.5 0.668 -47.618 0.739 41.908 0.739 41.908 0.668 -47.618
5166.458 0.666 -47.792 0.741 41.731 0.741 41.731 0.666 -47.792
5191.417 0.663 -47.965 0.743 41.555 0.743 41.555 0.663 -47.965
5216.375 0.661 -48.138 0.745 41.379 0.745 41.379 0.661 -48.138
5241.333 0.659 -48.31 0.747 41.204 0.747 41.204 0.659 -48.31
5266.292 0.656 -48.482 0.749 41.029 0.749 41.029 0.656 -48.482
5291.25 0.654 -48.654 0.751 40.855 0.751 40.855 0.654 -48.654
5316.208 0.652 -48.824 0.753 40.681 0.753 40.681 0.652 -48.824
5341.167 0.65 -48.994 0.755 40.508 0.755 40.508 0.65 -48.994
5366.125 0.647 -49.164 0.757 40.335 0.757 40.335 0.647 -49.164
5391.083 0.645 -49.333 0.759 40.163 0.759 40.163 0.645 -49.333
5416.042 0.643 -49.502 0.76 39.991 0.76 39.991 0.643 -49.502
5441 0.64 -49.67 0.762 39.82 0.762 39.82 0.64 -49.67
5465.958 0.638 -49.837 0.764 39.649 0.764 39.649 0.638 -49.837
5490.917 0.636 -50.004 0.766 39.479 0.766 39.479 0.636 -50.004
5515.875 0.634 -50.171 0.768 39.31 0.768 39.31 0.634 -50.171
5540.833 0.631 -50.336 0.77 39.141 0.77 39.141 0.631 -50.336
5565.792 0.629 -50.502 0.772 38.972 0.772 38.972 0.629 -50.502
5590.75 0.627 -50.667 0.774 38.804 0.774 38.804 0.627 -50.667
5615.708 0.624 -50.831 0.775 38.637 0.775 38.637 0.624 -50.831
5640.667 0.622 -50.995 0.777 38.47 0.777 38.47 0.622 -50.995
5665.625 0.62 -51.158 0.779 38.304 0.779 38.304 0.62 -51.158
5690.583 0.618 -51.32 0.781 38.138 0.781 38.138 0.618 -51.32
5715.542 0.615 -51.483 0.782 37.972 0.782 37.972 0.615 -51.483
5740.5 0.613 -51.644 0.784 37.807 0.784 37.807 0.613 -51.644
5765.458 0.611 -51.805 0.786 37.643 0.786 37.643 0.611 -51.805
5790.417 0.609 -51.966 0.788 37.479 0.788 37.479 0.609 -51.966
5815.375 0.606 -52.126 0.789 37.316 0.789 37.316 0.606 -52.126
5840.333 0.604 -52.286 0.791 37.153 0.791 37.153 0.604 -52.286
5865.292 0.602 -52.445 0.793 36.991 0.793 36.991 0.602 -52.445
5890.25 0.599 -52.603 0.794 36.829 0.794 36.829 0.599 -52.603
5915.208 0.597 -52.761 0.796 36.667 0.796 36.667 0.597 -52.761
5940.167 0.595 -52.919 0.798 36.507 0.798 36.507 0.595 -52.919
5965.125 0.593 -53.076 0.799 36.346 0.799 36.346 0.593 -53.076
5990.083 0.59 -53.232 0.801 36.186 0.801 36.186 0.59 -53.232
6015.042 0.588 -53.388 0.803 36.027 0.803 36.027 0.588 -53.388
6040 0.586 -53.544 0.804 35.868 0.804 35.868 0.586 -53.544
6064.958 0.584 -53.699 0.806 35.709 0.806 35.709 0.584 -53.699
6089.917 0.581 -53.853 0.808 35.551 0.808 35.551 0.581 -53.853
6114.875 0.579 -54.007 0.809 35.394 0.809 35.394 0.579 -54.007
6139.833 0.577 -54.161 0.811 35.237 0.811 35.237 0.577 -54.161
6164.792 0.575 -54.314 0.812 35.08 0.812 35.08 0.575 -54.314
6189.75 0.573 -54.466 0.814 34.924 0.814 34.924 0.573 -54.466
6214.708 0.57 -54.618 0.815 34.769 0.815 34.769 0.57 -54.618
6239.667 0.568 -54.77 0.817 34.614 0.817 34.614 0.568 -54.77
6264.625 0.566 -54.921 0.818 34.459 0.818 34.459 0.566 -54.921
6289.583 0.564 -55.071 0.82 34.305 0.82 34.305 0.564 -55.071
6314.542 0.561 -55.222 0.821 34.151 0.821 34.151 0.561 -55.222
6339.5 0.559 -55.371 0.823 33.998 0.823 33.998 0.559 -55.371
6364.458 0.557 -55.52 0.824 33.845 0.824 33.845 0.557 -55.52
6389.417 0.555 -55.669 0.826 33.693 0.826 33.693 0.555 -55.669
6414.375 0.553 -55.817 0.827 33.541 0.827 33.541 0.553 -55.817
6439.333 0.55 -55.965 0.829 33.39 0.829 33.39 0.55 -55.965
6464.292 0.548 -56.112 0.83 33.239 0.83 33.239 0.548 -56.112
6489.25 0.546 -56.259 0.832 33.088 0.832 33.088 0.546 -56.259
6514.208 0.544 -56.405 0.833 32.938 0.833 32.938 0.544 -56.405
6539.167 0.542 -56.551 0.834 32.789 0.834 32.789 0.542 -56.551
6564.125 0.539 -56.696 0.836 32.64 0.836 32.64 0.539 -56.696
6589.083 0.537 -56.841 0.837 32.491 0.837 32.491 0.537 -56.841
6614.042 0.535 -56.985 0.839 32.343 0.839 32.343 0.535 -56.985
6639 0.533 -57.129 0.84 32.195 0.84 32.195 0.533 -57.129
6663.958 0.531 -57.273 0.841 32.048 0.841 32.048 0.531 -57.273
6688.917 0.528 -57.416 0.843 31.901 0.843 31.901 0.528 -57.416
6713.875 0.526 -57.558 0.844 31.754 0.844 31.754 0.526 -57.558
6738.833 0.524 -57.701 0.845 31.608 0.845 31.608 0.524 -57.701
6763.792 0.522 -57.842 0.847 31.463 0.847 31.463 0.522 -57.842
6788.75 0.52 -57.983 0.848 31.317 0.848 31.317 0.52 -57.983
6813.708 0.518 -58.124 0.849 31.173 0.849 31.173 0.518 -58.124
6838.667 0.516 -58.264 0.851 31.028 0.851 31.028 0.516 -58.264
6863.625 0.513 -58.404 0.852 30.884 0.852 30.884 0.513 -58.404
6888.583 0.511 -58.544 0.853 30.741 0.853 30.741 0.511 -58.544
6913.542 0.509 -58.683 0.854 30.598 0.854 30.598 0.509 -58.683
6938.5 0.507 -58.821 0.856 30.455 0.856 30.455 0.507 -58.821
6963.458 0.505 -58.959 0.857 30.313 0.857 30.313 0.505 -58.959
6988.417 0.503 -59.097 0.858 30.171 0.858 30.171 0.503 -59.097
7013.375 0.5 -59.234 0.859 30.03 0.859 30.03 0.5 -59.234
7038.333 0.498 -59.371 0.861 29.889 0.861 29.889 0.498 -59.371
7063.292 0.496 -59.507 0.862 29.749 0.862 29.749 0.496 -59.507
7088.25 0.494 -59.643 0.863 29.608 0.863 29.608 0.494 -59.643
7113.208 0.492 -59.778 0.864 29.469 0.864 29.469 0.492 -59.778
7138.167 0.49 -59.913 0.865 29.329 0.865 29.329 0.49 -59.913
7163.125 0.488 -60.048 0.867 29.191 0.867 29.191 0.488 -60.048
7188.083 0.486 -60.182 0.868 29.052 0.868 29.052 0.486 -60.182
7213.042 0.484 -60.316 0.869 28.914 0.869 28.914 0.484 -60.316
7238 0.481 -60.449 0.87 28.776 0.87 28.776 0.481 -60.449
7262.958 0.479 -60.582 0.871 28.639 0.871 28.639 0.479 -60.582
7287.917 0.477 -60.715 0.872 28.502 0.872 28.502 0.477 -60.715
7312.875 0.475 -60.847 0.873 28.366 0.873 28.366 0.475 -60.847
7337.833 0.473 -60.978 0.875 28.229 0.875 28.229 0.473 -60.978
7362.792 0.471 -61.109 0.876 28.094 0.876 28.094 0.471 -61.109
7387.75 0.469 -61.24 0.877 27.958 0.877 27.958 0.469 -61.24
7412.708 0.467 -61.37 0.878 27.823 0.878 27.823 0.467 -61.37
7437.667 0.465 -61.5 0.879 27.689 0.879 27.689 0.465 -61.5
7462.625 0.463 -61.63 0.88 27.555 0.88 27.555 0.463 -61.63
7487.583 0.461 -61.759 0.881 27.421 0.881 27.421 0.461 -61.759
7512.542 0.459 -61.888 0.882 27.288 0.882 27.288 0.459 -61.888
7537.5 0.456 -62.016 0.883 27.155 0.883 27.155 0.456 -62.016
7562.458 0.454 -62.144 0.884 27.022 0.884 27.022 0.454 -62.144
7587.417 0.452 -62.271 0.885 26.89 0.885 26.89 0.452 -62.271
7612.375 0.45 -62.398 0.886 26.758 0.886 26.758 0.45 -62.398
7637.333 0.448 -62.525 0.887 26.626 0.887 26.626 0.448 -62.525
7662.292 0.446 -62.651 0.888 26.495 0.888 26.495 0.446 -62.651
7687.25 0.444 -62.777 0.889 26.364 0.889 26.364 0.444 -62.777
7712.208 0.442 -62.903 0.89 26.234 0.89 26.234 0.442 -62.903
7737.167 0.44 -63.028 0.891 26.104 0.891 26.104 0.44 -63.028
7762.125 0.438 -63.152 0.892 25.974 0.892 25.974 0.438 -63.152
7787.083 0.436 -63.277 0.893 25.845 0.893 25.845 0.436 -63.277
7812.042 0.434 -63.401 0.894 25.716 0.894 25.716 0.434 -63.401
7837 0.432 -63.524 0.895 25.588 0.895 25.588 0.432 -63.524
7861.958 0.43 -63.647 0.896 25.459 0.896 25.459 0.43 -63.647
7886.917 0.428 -63.77 0.897 25.331 0.897 25.331 0.428 -63.77
7911.875 0.426 -63.892 0.898 25.204 0.898 25.204 0.426 -63.892
7936.833 0.424 -64.014 0.899 25.077 0.899 25.077 0.424 -64.014
7961.792 0.422 -64.136 0.9 24.95 0.9 24.95 0.422 -64.136
7986.75 0.42 -64.257 0.901 24.824 0.901 24.824 0.42 -64.257
8011.708 0.418 -64.377 0.902 24.698 0.902 24.698 0.418 -64.377
8036.667 0.416 -64.498 0.903 24.572 0.903 24.572 0.416 -64.498
8061.625 0.414 -64.618 0.904 24.446 0.904 24.446 0.414 -64.618
8086.583 0.412 -64.737 0.904 24.321 0.904 24.321 0.412 -64.737
8111.542 0.41 -64.857 0.905 24.197 0.905 24.197 0.41 -64.857
8136.5 0.408 -64.975 0.906 24.072 0.906 24.072 0.408 -64.975
