# MHZ S MA R 50

50 0.999 -2.698 0.047 87.298 0.047 87.298 0.999 -2.698
74.958 0.998 -4.042 0.07 85.952 0.07 85.952 0.998 -4.042
99.917 0.996 -5.381 0.094 84.611 0.094 84.611 0.996 -5.381
124.875 0.993 -6.715 0.117 83.275 0.117 83.275 0.993 -6.715
149.833 0.99 -8.042 0.14 81.945 0.14 81.945 0.99 -8.042
174.792 0.987 -9.361 0.163 80.624 0.163 80.624 0.987 -9.361
199.75 0.983 -10.671 0.185 79.312 0.185 79.312 0.983 -10.671
224.708 0.978 -11.97 0.207 78.01 0.207 78.01 0.978 -11.97
249.667 0.973 -13.259 0.229 76.72 0.229 76.72 0.973 -13.259
274.625 0.968 -14.534 0.251 75.442 0.251 75.442 0.968 -14.534
299.583 0.962 -15.797 0.272 74.178 0.272 74.178 0.962 -15.797
324.542 0.956 -17.045 0.293 72.928 0.293 72.928 0.956 -17.045
349.5 0.949 -18.277 0.314 71.693 0.314 71.693 0.949 -18.277
374.458 0.942 -19.494 0.334 70.474 0.334 70.474 0.942 -19.494
399.417 0.935 -20.695 0.353 69.271 0.353 69.271 0.935 -20.695
424.375 0.928 -21.878 0.373 68.086 0.373 68.086 0.928 -21.878
449.333 0.92 -23.043 0.391 66.918 0.391 66.918 0.92 -23.043
474.292 0.912 -24.191 0.41 65.769 0.41 65.769 0.912 -24.191
499.25 0.904 -25.32 0.428 64.638 0.428 64.638 0.904 -25.32
524.208 0.895 -26.43 0.445 63.526 0.445 63.526 0.895 -26.43
549.167 0.886 -27.521 0.462 62.433 0.462 62.433 0.886 -27.521
574.125 0.878 -28.592 0.479 61.359 0.479 61.359 0.878 -28.592
599.083 0.869 -29.644 0.495 60.305 0.495 60.305 0.869 -29.644
624.042 0.86 -30.677 0.51 59.27 0.51 59.27 0.86 -30.677
649 0.85 -31.69 0.525 58.255 0.525 58.255 0.85 -31.69
673.958 0.841 -32.683 0.54 57.259 0.54 57.259 0.841 -32.683
698.917 0.832 -33.657 0.554 56.283 0.554 56.283 0.832 -33.657
723.875 0.822 -34.612 0.568 55.326 0.568 55.326 0.822 -34.612
748.833 0.813 -35.547 0.581 54.388 0.581 54.388 0.813 -35.547
773.792 0.804 -36.464 0.594 53.47 0.594 53.47 0.804 -36.464
798.75 0.794 -37.361 0.607 52.57 0.607 52.57 0.794 -37.361
823.708 0.785 -38.24 0.619 51.689 0.619 51.689 0.785 -38.24
848.667 0.775 -39.1 0.631 50.827 0.631 50.827 0.775 -39.1
873.625 0.766 -39.942 0.642 49.983 0.642 49.983 0.766 -39.942
898.583 0.756 -40.766 0.653 49.156 0.653 49.156 0.756 -40.766
923.542 0.747 -41.573 0.664 48.347 0.664 48.347 0.747 -41.573
948.5 0.738 -42.362 0.674 47.556 0.674 47.556 0.738 -42.362
973.458 0.729 -43.134 0.684 46.781 0.684 46.781 0.729 -43.134
998.417 0.72 -43.89 0.693 46.023 0.693 46.023 0.72 -43.89
1023.375 0.711 -44.629 0.703 45.282 0.703 45.282 0.711 -44.629
1048.333 0.702 -45.353 0.711 44.556 0.711 44.556 0.702 -45.353
1073.292 0.693 -46.061 0.72 43.846 0.72 43.846 0.693 -46.061
1098.25 0.684 -46.753 0.728 43.151 0.728 43.151 0.684 -46.753
1123.208 0.675 -47.431 0.736 42.471 0.736 42.471 0.675 -47.431
1148.167 0.667 -48.094 0.744 41.806 0.744 41.806 0.667 -48.094
1173.125 0.658 -48.743 0.752 41.155 0.752 41.155 0.658 -48.743
1198.083 0.65 -49.377 0.759 40.517 0.759 40.517 0.65 -49.377
1223.042 0.641 -49.999 0.766 39.894 0.766 39.894 0.641 -49.999
1248 0.633 -50.607 0.773 39.283 0.773 39.283 0.633 -50.607
1272.958 0.625 -51.202 0.779 38.686 0.779 38.686 0.625 -51.202
1297.917 0.617 -51.784 0.786 38.101 0.786 38.101 0.617 -51.784
1322.875 0.609 -52.355 0.792 37.528 0.792 37.528 0.609 -52.355
1347.833 0.601 -52.913 0.798 36.967 0.798 36.967 0.601 -52.913
1372.792 0.594 -53.46 0.803 36.418 0.803 36.418 0.594 -53.46
1397.75 0.586 -53.995 0.809 35.881 0.809 35.881 0.586 -53.995
1422.708 0.579 -54.52 0.814 35.354 0.814 35.354 0.579 -54.52
1447.667 0.571 -55.033 0.819 34.838 0.819 34.838 0.571 -55.033
1472.625 0.564 -55.536 0.824 34.332 0.824 34.332 0.564 -55.536
1497.583 0.557 -56.029 0.829 33.837 0.829 33.837 0.557 -56.029
1522.542 0.55 -56.512 0.834 33.351 0.834 33.351 0.55 -56.512
1547.5 0.543 -56.986 0.839 32.875 0.839 32.875 0.543 -56.986
1572.458 0.536 -57.45 0.843 32.409 0.843 32.409 0.536 -57.45
1597.417 0.529 -57.904 0.847 31.952 0.847 31.952 0.529 -57.904
1622.375 0.523 -58.35 0.851 31.503 0.851 31.503 0.523 -58.35
1647.333 0.516 -58.788 0.855 31.063 0.855 31.063 0.516 -58.788
1672.292 0.51 -59.216 0.859 30.632 0.859 30.632 0.51 -59.216
1697.25 0.503 -59.637 0.863 30.209 0.863 30.209 0.503 -59.637
1722.208 0.497 -60.05 0.866 29.794 0.866 29.794 0.497 -60.05
1747.167 0.491 -60.454 0.87 29.386 0.87 29.386 0.491 -60.454
1772.125 0.485 -60.852 0.873 28.986 0.873 28.986 0.485 -60.852
1797.083 0.479 -61.241 0.877 28.594 0.877 28.594 0.479 -61.241
1822.042 0.473 -61.624 0.88 28.208 0.88 28.208 0.473 -61.624
1847 0.467 -62 0.883 27.83 0.883 27.83 0.467 -62
1871.958 0.461 -62.369 0.886 27.458 0.886 27.458 0.461 -62.369
1896.917 0.455 -62.731 0.889 27.094 0.889 27.094 0.455 -62.731
1921.875 0.45 -63.087 0.892 26.735 0.892 26.735 0.45 -63.087
1946.833 0.444 -63.436 0.894 26.383 0.894 26.383 0.444 -63.436
1971.792 0.439 -63.779 0.897 26.037 0.897 26.037 0.439 -63.779
1996.75 0.434 -64.117 0.9 25.697 0.9 25.697 0.434 -64.117
2021.708 0.428 -64.448 0.902 25.362 0.902 25.362 0.428 -64.448
2046.667 0.423 -64.774 0.905 25.034 0.905 25.034 0.423 -64.774
2071.625 0.418 -65.094 0.907 24.71 0.907 24.71 0.418 -65.094
2096.583 0.413 -65.409 0.909 24.393 0.909 24.393 0.413 -65.409
2121.542 0.408 -65.719 0.912 24.08 0.912 24.08 0.408 -65.719
2146.5 0.403 -66.024 0.914 23.772 0.914 23.772 0.403 -66.024
2171.458 0.398 -66.323 0.916 23.47 0.916 23.47 0.398 -66.323
2196.417 0.394 -66.618 0.918 23.172 0.918 23.172 0.394 -66.618
2221.375 0.389 -66.908 0.92 22.879 0.92 22.879 0.389 -66.908
2246.333 0.384 -67.193 0.922 22.591 0.922 22.591 0.384 -67.193
2271.292 0.38 -67.474 0.924 22.307 0.924 22.307 0.38 -67.474
2296.25 0.375 -67.75 0.926 22.028 0.926 22.028 0.375 -67.75
2321.208 0.371 -68.022 0.927 21.753 0.927 21.753 0.371 -68.022
2346.167 0.366 -68.29 0.929 21.482 0.929 21.482 0.366 -68.29
2371.125 0.362 -68.554 0.931 21.215 0.931 21.215 0.362 -68.554
2396.083 0.358 -68.813 0.932 20.952 0.932 20.952 0.358 -68.813
2421.042 0.353 -69.069 0.934 20.693 0.934 20.693 0.353 -69.069
2446 0.349 -69.321 0.936 20.438 0.936 20.438 0.349 -69.321
2470.958 0.345 -69.57 0.937 20.186 0.937 20.186 0.345 -69.57
2495.917 0.341 -69.814 0.939 19.938 0.939 19.938 0.341 -69.814
2520.875 0.337 -70.055 0.94 19.694 0.94 19.694 0.337 -70.055
2545.833 0.333 -70.293 0.941 19.453 0.941 19.453 0.333 -70.293
2570.792 0.329 -70.527 0.943 19.215 0.943 19.215 0.329 -70.527
2595.75 0.325 -70.758 0.944 18.981 0.944 18.981 0.325 -70.758
2620.708 0.321 -70.985 0.945 18.75 0.945 18.75 0.321 -70.985
2645.667 0.318 -71.21 0.947 18.522 0.947 18.522 0.318 -71.21
2670.625 0.314 -71.431 0.948 18.297 0.948 18.297 0.314 -71.431
2695.583 0.31 -71.649 0.949 18.075 0.949 18.075 0.31 -71.649
2720.542 0.307 -71.865 0.95 17.857 0.95 17.857 0.307 -71.865
2745.5 0.303 -72.077 0.951 17.64 0.951 17.64 0.303 -72.077
2770.458 0.299 -72.287 0.953 17.427 0.953 17.427 0.299 -72.287
2795.417 0.296 -72.493 0.954 17.217 0.954 17.217 0.296 -72.493
2820.375 0.293 -72.697 0.955 17.009 0.955 17.009 0.293 -72.697
2845.333 0.289 -72.899 0.956 16.804 0.956 16.804 0.289 -72.899
2870.292 0.286 -73.097 0.957 16.601 0.957 16.601 0.286 -73.097
2895.25 0.282 -73.294 0.958 16.401 0.958 16.401 0.282 -73.294
2920.208 0.279 -73.487 0.959 16.204 0.959 16.204 0.279 -73.487
2945.167 0.276 -73.679 0.96 16.008 0.96 16.008 0.276 -73.679
2970.125 0.273 -73.867 0.961 15.815 0.961 15.815 0.273 -73.867
2995.083 0.269 -74.054 0.962 15.625 0.962 15.625 0.269 -74.054
3020.042 0.266 -74.238 0.962 15.437 0.962 15.437 0.266 -74.238
3045 0.263 -74.42 0.963 15.251 0.963 15.251 0.263 -74.42
3069.958 0.26 -74.6 0.964 15.067 0.964 15.067 0.26 -74.6
3094.917 0.257 -74.777 0.965 14.885 0.965 14.885 0.257 -74.777
3119.875 0.254 -74.953 0.966 14.705 0.966 14.705 0.254 -74.953
3144.833 0.251 -75.126 0.967 14.527 0.967 14.527 0.251 -75.126
3169.792 0.248 -75.297 0.967 14.352 0.967 14.352 0.248 -75.297
3194.75 0.245 -75.466 0.968 14.178 0.968 14.178 0.245 -75.466
3219.708 0.242 -75.634 0.969 14.006 0.969 14.006 0.242 -75.634
3244.667 0.239 -75.799 0.969 13.836 0.969 13.836 0.239 -75.799
3269.625 0.236 -75.962 0.97 13.668 0.97 13.668 0.236 -75.962
3294.583 0.233 -76.124 0.971 13.502 0.971 13.502 0.233 -76.124
3319.542 0.231 -76.284 0.972 13.338 0.972 13.338 0.231 -76.284
3344.5 0.228 -76.441 0.972 13.175 0.972 13.175 0.228 -76.441
3369.458 0.225 -76.598 0.973 13.014 0.973 13.014 0.225 -76.598
3394.417 0.222 -76.752 0.973 12.854 0.973 12.854 0.222 -76.752
3419.375 0.22 -76.905 0.974 12.697 0.974 12.697 0.22 -76.905
3444.333 0.217 -77.056 0.975 12.54 0.975 12.54 0.217 -77.056
3469.292 0.215 -77.205 0.975 12.386 0.975 12.386 0.215 -77.205
3494.25 0.212 -77.353 0.976 12.233 0.976 12.233 0.212 -77.353
3519.208 0.209 -77.499 0.976 12.081 0.976 12.081 0.209 -77.499
3544.167 0.207 -77.644 0.977 11.931 0.977 11.931 0.207 -77.644
3569.125 0.204 -77.787 0.977 11.783 0.977 11.783 0.204 -77.787
3594.083 0.202 -77.928 0.978 11.636 0.978 11.636 0.202 -77.928
3619.042 0.199 -78.068 0.978 11.49 0.978 11.49 0.199 -78.068
3644 0.197 -78.207 0.979 11.346 0.979 11.346 0.197 -78.207
3668.958 0.194 -78.344 0.979 11.203 0.979 11.203 0.194 -78.344
3693.917 0.192 -78.479 0.98 11.061 0.98 11.061 0.192 -78.479
3718.875 0.189 -78.614 0.98 10.921 0.98 10.921 0.189 -78.614
3743.833 0.187 -78.747 0.981 10.782 0.981 10.782 0.187 -78.747
3768.792 0.185 -78.878 0.981 10.644 0.981 10.644 0.185 -78.878
3793.75 0.182 -79.008 0.982 10.507 0.982 10.507 0.182 -79.008
3818.708 0.18 -79.137 0.982 10.372 0.982 10.372 0.18 -79.137
3843.667 0.178 -79.265 0.983 10.238 0.983 10.238 0.178 -79.265
3868.625 0.175 -79.391 0.983 10.105 0.983 10.105 0.175 -79.391
3893.583 0.173 -79.516 0.983 9.973 0.983 9.973 0.173 -79.516
3918.542 0.171 -79.64 0.984 9.842 0.984 9.842 0.171 -79.64
3943.5 0.169 -79.762 0.984 9.713 0.984 9.713 0.169 -79.762
3968.458 0.167 -79.884 0.984 9.585 0.984 9.585 0.167 -79.884
3993.417 0.164 -80.004 0.985 9.457 0.985 9.457 0.164 -80.004
4018.375 0.162 -80.122 0.985 9.331 0.985 9.331 0.162 -80.122
4043.333 0.16 -80.24 0.986 9.206 0.986 9.206 0.16 -80.24
4068.292 0.158 -80.357 0.986 9.081 0.986 9.081 0.158 -80.357
4093.25 0.156 -80.472 0.986 8.958 0.986 8.958 0.156 -80.472
4118.208 0.154 -80.586 0.987 8.836 0.987 8.836 0.154 -80.586
4143.167 0.152 -80.699 0.987 8.715 0.987 8.715 0.152 -80.699
4168.125 0.149 -80.811 0.987 8.594 0.987 8.594 0.149 -80.811
4193.083 0.147 -80.922 0.988 8.475 0.988 8.475 0.147 -80.922
4218.042 0.145 -81.032 0.988 8.357 0.988 8.357 0.145 -81.032
4243 0.143 -81.14 0.988 8.239 0.988 8.239 0.143 -81.14
4267.958 0.141 -81.248 0.988 8.123 0.988 8.123 0.141 -81.248
4292.917 0.139 -81.354 0.989 8.007 0.989 8.007 0.139 -81.354
4317.875 0.137 -81.46 0.989 7.892 0.989 7.892 0.137 -81.46
4342.833 0.135 -81.564 0.989 7.778 0.989 7.778 0.135 -81.564
4367.792 0.133 -81.668 0.99 7.665 0.99 7.665 0.133 -81.668
4392.75 0.131 -81.77 0.99 7.553 0.99 7.553 0.131 -81.77
4417.708 0.13 -81.871 0.99 7.441 0.99 7.441 0.13 -81.871
4442.667 0.128 -81.971 0.99 7.331 0.99 7.331 0.128 -81.971
4467.625 0.126 -82.07 0.991 7.221 0.991 7.221 0.126 -82.07
4492.583 0.124 -82.168 0.991 7.112 0.991 7.112 0.124 -82.168
4517.542 0.122 -82.266 0.991 7.003 0.991 7.003 0.122 -82.266
4542.5 0.12 -82.362 0.991 6.896 0.991 6.896 0.12 -82.362
4567.458 0.118 -82.457 0.991 6.789 0.991 6.789 0.118 -82.457
4592.417 0.116 -82.551 0.992 6.683 0.992 6.683 0.116 -82.551
4617.375 0.115 -82.644 0.992 6.577 0.992 6.577 0.115 -82.644
4642.333 0.113 -82.736 0.992 6.473 0.992 6.473 0.113 -82.736
4667.292 0.111 -82.826 0.992 6.369 0.992 6.369 0.111 -82.826
4692.25 0.109 -82.916 0.992 6.266 0.992 6.266 0.109 -82.916
4717.208 0.107 -83.005 0.993 6.163 0.993 6.163 0.107 -83.005
4742.167 0.106 -83.093 0.993 6.061 0.993 6.061 0.106 -83.093
4767.125 0.104 -83.18 0.993 5.96 0.993 5.96 0.104 -83.18
4792.083 0.102 -83.265 0.993 5.859 0.993 5.859 0.102 -83.265
4817.042 0.1 -83.35 0.993 5.759 0.993 5.759 0.1 -83.35
4842 0.099 -83.434 0.994 5.66 0.994 5.66 0.099 -83.434
4866.958 0.097 -83.516 0.994 5.561 0.994 5.561 0.097 -83.516
4891.917 0.095 -83.598 0.994 5.463 0.994 5.463 0.095 -83.598
4916.875 0.094 -83.678 0.994 5.366 0.994 5.366 0.094 -83.678
4941.833 0.092 -83.757 0.994 5.269 0.994 5.269 0.092 -83.757
4966.792 0.09 -83.835 0.994 5.173 0.994 5.173 0.09 -83.835
4991.75 0.089 -83.912 0.995 5.077 0.995 5.077 0.089 -83.912
5016.708 0.087 -83.988 0.995 4.982 0.995 4.982 0.087 -83.988
5041.667 0.085 -84.062 0.995 4.887 0.995 4.887 0.085 -84.062
5066.625 0.084 -84.135 0.995 4.793 0.995 4.793 0.084 -84.135
5091.583 0.082 -84.207 0.995 4.7 0.995 4.7 0.082 -84.207
5116.542 0.08 -84.278 0.995 4.607 0.995 4.607 0.08 -84.278
5141.5 0.079 -84.348 0.995 4.515 0.995 4.515 0.079 -84.348
5166.458 0.077 -84.416 0.995 4.423 0.995 4.423 0.077 -84.416
5191.417 0.076 -84.483 0.996 4.332 0.996 4.332 0.076 -84.483
5216.375 0.074 -84.548 0.996 4.241 0.996 4.241 0.074 -84.548
5241.333 0.072 -84.612 0.996 4.151 0.996 4.151 0.072 -84.612
5266.292 0.071 -84.674 0.996 4.061 0.996 4.061 0.071 -84.674
5291.25 0.069 -84.735 0.996 3.972 0.996 3.972 0.069 -84.735
5316.208 0.068 -84.794 0.996 3.883 0.996 3.883 0.068 -84.794
5341.167 0.066 -84.851 0.996 3.794 0.996 3.794 0.066 -84.851
5366.125 0.065 -84.907 0.996 3.707 0.996 3.707 0.065 -84.907
5391.083 0.063 -84.961 0.996 3.619 0.996 3.619 0.063 -84.961
5416.042 0.062 -85.013 0.997 3.532 0.997 3.532 0.062 -85.013
5441 0.06 -85.063 0.997 3.446 0.997 3.446 0.06 -85.063
5465.958 0.059 -85.11 0.997 3.36 0.997 3.36 0.059 -85.11
5490.917 0.057 -85.156 0.997 3.274 0.997 3.274 0.057 -85.156
5515.875 0.056 -85.199 0.997 3.189 0.997 3.189 0.056 -85.199
5540.833 0.054 -85.24 0.997 3.105 0.997 3.105 0.054 -85.24
5565.792 0.053 -85.278 0.997 3.02 0.997 3.02 0.053 -85.278
5590.75 0.051 -85.313 0.997 2.937 0.997 2.937 0.051 -85.313
5615.708 0.05 -85.345 0.997 2.853 0.997 2.853 0.05 -85.345
5640.667 0.048 -85.374 0.997 2.77 0.997 2.77 0.048 -85.374
5665.625 0.047 -85.399 0.997 2.688 0.997 2.688 0.047 -85.399
5690.583 0.045 -85.421 0.997 2.606 0.997 2.606 0.045 -85.421
5715.542 0.044 -85.439 0.997 2.524 0.997 2.524 0.044 -85.439
5740.5 0.043 -85.452 0.998 2.442 0.998 2.442 0.043 -85.452
5765.458 0.041 -85.461 0.998 2.362 0.998 2.362 0.041 -85.461
5790.417 0.04 -85.465 0.998 2.281 0.998 2.281 0.04 -85.465
5815.375 0.038 -85.463 0.998 2.201 0.998 2.201 0.038 -85.463
5840.333 0.037 -85.455 0.998 2.121 0.998 2.121 0.037 -85.455
5865.292 0.036 -85.44 0.998 2.041 0.998 2.041 0.036 -85.44
5890.25 0.034 -85.418 0.998 1.962 0.998 1.962 0.034 -85.418
5915.208 0.033 -85.387 0.998 1.884 0.998 1.884 0.033 -85.387
5940.167 0.032 -85.347 0.998 1.805 0.998 1.805 0.032 -85.347
5965.125 0.03 -85.296 0.998 1.727 0.998 1.727 0.03 -85.296
5990.083 0.029 -85.234 0.998 1.65 0.998 1.65 0.029 -85.234
6015.042 0.027 -85.158 0.998 1.572 0.998 1.572 0.027 -85.158
6040 0.026 -85.067 0.998 1.495 0.998 1.495 0.026 -85.067
6064.958 0.025 -84.959 0.998 1.419 0.998 1.419 0.025 -84.959
6089.917 0.023 -84.83 0.998 1.342 0.998 1.342 0.023 -84.83
6114.875 0.022 -84.676 0.998 1.266 0.998 1.266 0.022 -84.676
6139.833 0.021 -84.495 0.998 1.191 0.998 1.191 0.021 -84.495
6164.792 0.02 -84.28 0.998 1.115 0.998 1.115 0.02 -84.28
6189.75 0.018 -84.025 0.998 1.04 0.998 1.04 0.018 -84.025
6214.708 0.017 -83.719 0.998 0.966 0.998 0.966 0.017 -83.719
6239.667 0.016 -83.353 0.998 0.891 0.998 0.891 0.016 -83.353
6264.625 0.014 -82.909 0.998 0.817 0.998 0.817 0.014 -82.909
6289.583 0.013 -82.366 0.998 0.743 0.998 0.743 0.013 -82.366
6314.542 0.012 -81.692 0.998 0.67 0.998 0.67 0.012 -81.692
6339.5 0.011 -80.841 0.998 0.597 0.998 0.597 0.011 -80.841
6364.458 9.274e-3 -79.744 0.998 0.524 0.998 0.524 9.274e-3 -79.744
6389.417 8.028e-3 -78.287 0.998 0.451 0.998 0.451 8.028e-3 -78.287
6414.375 6.795e-3 -76.281 0.998 0.379 0.998 0.379 6.795e-3 -76.281
6439.333 5.58e-3 -73.373 0.998 0.307 0.998 0.307 5.58e-3 -73.373
6464.292 4.392e-3 -68.85 0.998 0.235 0.998 0.235 4.392e-3 -68.85
6489.25 3.258e-3 -61.067 0.998 0.164 0.998 0.164 3.258e-3 -61.067
6514.208 2.25e-3 -45.723 0.998 0.092 0.998 0.092 2.25e-3 -45.723
6539.167 1.612e-3 -13.449 0.998 0.022 0.998 0.022 1.612e-3 -13.449
6564.125 1.787e-3 28.621 0.998 -0.049 0.998 -0.049 1.787e-3 28.621
6589.083 2.609e-3 52.945 0.998 -0.119 0.998 -0.119 2.609e-3 52.945
6614.042 3.662e-3 64.459 0.998 -0.19 0.998 -0.19 3.662e-3 64.459
6639 4.792e-3 70.642 0.998 -0.259 0.998 -0.259 4.792e-3 70.642
6663.958 5.953e-3 74.4 0.998 -0.329 0.998 -0.329 5.953e-3 74.4
6688.917 7.127e-3 76.894 0.998 -0.398 0.998 -0.398 7.127e-3 76.894
6713.875 8.307e-3 78.654 0.998 -0.467 0.998 -0.467 8.307e-3 78.654
6738.833 9.49e-3 79.954 0.998 -0.536 0.998 -0.536 9.49e-3 79.954
6763.792 0.011 80.947 0.998 -0.605 0.998 -0.605 0.011 80.947
6788.75 0.012 81.726 0.998 -0.673 0.998 -0.673 0.012 81.726
6813.708 0.013 82.349 0.998 -0.741 0.998 -0.741 0.013 82.349
6838.667 0.014 82.856 0.998 -0.809 0.998 -0.809 0.014 82.856
6863.625 0.015 83.273 0.998 -0.877 0.998 -0.877 0.015 83.273
6888.583 0.017 83.621 0.998 -0.944 0.998 -0.944 0.017 83.621
6913.542 0.018 83.913 0.998 -1.011 0.998 -1.011 0.018 83.913
6938.5 0.019 84.159 0.998 -1.078 0.998 -1.078 0.019 84.159
6963.458 0.02 84.369 0.998 -1.145 0.998 -1.145 0.02 84.369
6988.417 0.021 84.548 0.998 -1.211 0.998 -1.211 0.021 84.548
7013.375 0.022 84.701 0.998 -1.277 0.998 -1.277 0.022 84.701
7038.333 0.023 84.832 0.998 -1.343 0.998 -1.343 0.023 84.832
7063.292 0.025 84.944 0.998 -1.409 0.998 -1.409 0.025 84.944
7088.25 0.026 85.04 0.998 -1.475 0.998 -1.475 0.026 85.04
7113.208 0.027 85.123 0.998 -1.54 0.998 -1.54 0.027 85.123
7138.167 0.028 85.193 0.998 -1.605 0.998 -1.605 0.028 85.193
7163.125 0.029 85.252 0.998 -1.67 0.998 -1.67 0.029 85.252
7188.083 0.03 85.302 0.998 -1.735 0.998 -1.735 0.03 85.302
7213.042 0.031 85.344 0.998 -1.799 0.998 -1.799 0.031 85.344
7238 0.033 85.378 0.998 -1.864 0.998 -1.864 0.033 85.378
7262.958 0.034 85.405 0.998 -1.928 0.998 -1.928 0.034 85.405
7287.917 0.035 85.427 0.998 -1.992 0.998 -1.992 0.035 85.427
7312.875 0.036 85.443 0.998 -2.055 0.998 -2.055 0.036 85.443
7337.833 0.037 85.455 0.998 -2.119 0.998 -2.119 0.037 85.455
7362.792 0.038 85.462 0.998 -2.182 0.998 -2.182 0.038 85.462
7387.75 0.039 85.465 0.998 -2.245 0.998 -2.245 0.039 85.465
7412.708 0.04 85.464 0.998 -2.308 0.998 -2.308 0.04 85.464
7437.667 0.041 85.46 0.998 -2.371 0.998 -2.371 0.041 85.46
7462.625 0.042 85.454 0.998 -2.433 0.998 -2.433 0.042 85.454
7487.583 0.044 85.444 0.997 -2.496 0.997 -2.496 0.044 85.444
7512.542 0.045 85.432 0.997 -2.558 0.997 -2.558 0.045 85.432
7537.5 0.046 85.418 0.997 -2.62 0.997 -2.62 0.046 85.418
7562.458 0.047 85.401 0.997 -2.682 0.997 -2.682 0.047 85.401
7587.417 0.048 85.383 0.997 -2.743 0.997 -2.743 0.048 85.383
7612.375 0.049 85.362 0.997 -2.805 0.997 -2.805 0.049 85.362
7637.333 0.05 85.34 0.997 -2.866 0.997 -2.866 0.05 85.34
7662.292 0.051 85.317 0.997 -2.927 0.997 -2.927 0.051 85.317
7687.25 0.052 85.292 0.997 -2.988 0.997 -2.988 0.052 85.292
7712.208 0.053 85.265 0.997 -3.049 0.997 -3.049 0.053 85.265
7737.167 0.054 85.237 0.997 -3.109 0.997 -3.109 0.054 85.237
7762.125 0.055 85.209 0.997 -3.17 0.997 -3.17 0.055 85.209
7787.083 0.056 85.179 0.997 -3.23 0.997 -3.23 0.056 85.179
7812.042 0.057 85.148 0.997 -3.29 0.997 -3.29 0.057 85.148
7837 0.058 85.116 0.997 -3.35 0.997 -3.35 0.058 85.116
7861.958 0.059 85.083 0.997 -3.409 0.997 -3.409 0.059 85.083
7886.917 0.061 85.049 0.997 -3.469 0.997 -3.469 0.061 85.049
7911.875 0.062 85.015 0.997 -3.528 0.997 -3.528 0.062 85.015
7936.833 0.063 84.98 0.996 -3.588 0.996 -3.588 0.063 84.98
7961.792 0.064 84.944 0.996 -3.647 0.996 -3.647 0.064 84.944
7986.75 0.065 84.908 0.996 -3.706 0.996 -3.706 0.065 84.908
8011.708 0.066 84.87 0.996 -3.764 0.996 -3.764 0.066 84.87
8036.667 0.067 84.833 0.996 -3.823 0.996 -3.823 0.067 84.833
8061.625 0.068 84.795 0.996 -3.882 0.996 -3.882 0.068 84.795
8086.583 0.069 84.756 0.996 -3.94 0.996 -3.94 0.069 84.756
8111.542 0.07 84.717 0.996 -3.998 0.996 -3.998 0.07 84.717
8136.5 0.071 84.677 0.996 -4.056 0.996 -4.056 0.071 84.677
8161.458 0.072 84.637 0.996 -4.114 0.996 -4.114 0.072 84.637
8186.417 0.073 84.597 0.996 -4.172 0.996 -4.172 0.073 84.597
8211.375 0.074 84.556 0.996 -4.229 0.996 -4.229 0.074 84.556
