# MHZ S MA R 50

50 1 -1.44 0.025 88.556 0.025 88.556 1 -1.44
74.958 0.999 -2.158 0.038 87.836 0.038 87.836 0.999 -2.158
99.917 0.999 -2.876 0.05 87.116 0.05 87.116 0.999 -2.876
124.875 0.998 -3.592 0.063 86.398 0.063 86.398 0.998 -3.592
149.833 0.997 -4.308 0.075 85.68 0.075 85.68 0.997 -4.308
174.792 0.996 -5.023 0.088 84.963 0.088 84.963 0.996 -5.023
199.75 0.995 -5.736 0.1 84.248 0.1 84.248 0.995 -5.736
224.708 0.994 -6.448 0.112 83.534 0.112 83.534 0.994 -6.448
249.667 0.992 -7.158 0.125 82.822 0.125 82.822 0.992 -7.158
274.625 0.991 -7.866 0.137 82.112 0.137 82.112 0.991 -7.866
299.583 0.989 -8.572 0.149 81.404 0.149 81.404 0.989 -8.572
324.542 0.987 -9.276 0.161 80.698 0.161 80.698 0.987 -9.276
349.5 0.985 -9.977 0.173 79.995 0.173 79.995 0.985 -9.977
374.458 0.983 -10.676 0.185 79.294 0.185 79.294 0.983 -10.676
399.417 0.98 -11.372 0.197 78.596 0.197 78.596 0.98 -11.372
424.375 0.978 -12.065 0.209 77.901 0.209 77.901 0.978 -12.065
449.333 0.975 -12.755 0.221 77.209 0.221 77.209 0.975 -12.755
474.292 0.972 -13.442 0.232 76.52 0.232 76.52 0.972 -13.442
499.25 0.97 -14.126 0.244 75.834 0.244 75.834 0.97 -14.126
524.208 0.967 -14.806 0.256 75.152 0.256 75.152 0.967 -14.806
549.167 0.964 -15.482 0.267 74.474 0.267 74.474 0.964 -15.482
574.125 0.96 -16.154 0.278 73.799 0.278 73.799 0.96 -16.154
599.083 0.957 -16.823 0.289 73.129 0.289 73.129 0.957 -16.823
624.042 0.954 -17.488 0.301 72.462 0.301 72.462 0.954 -17.488
649 0.95 -18.148 0.311 71.8 0.311 71.8 0.95 -18.148
673.958 0.946 -18.804 0.322 71.141 0.322 71.141 0.946 -18.804
698.917 0.943 -19.456 0.333 70.487 0.333 70.487 0.943 -19.456
723.875 0.939 -20.104 0.344 69.838 0.344 69.838 0.939 -20.104
748.833 0.935 -20.747 0.354 69.193 0.354 69.193 0.935 -20.747
773.792 0.931 -21.385 0.365 68.553 0.365 68.553 0.931 -21.385
798.75 0.927 -22.019 0.375 67.917 0.375 67.917 0.927 -22.019
823.708 0.922 -22.648 0.385 67.286 0.385 67.286 0.922 -22.648
848.667 0.918 -23.272 0.395 66.66 0.395 66.66 0.918 -23.272
873.625 0.914 -23.891 0.405 66.039 0.405 66.039 0.914 -23.891
898.583 0.909 -24.505 0.415 65.422 0.415 65.422 0.909 -24.505
923.542 0.905 -25.114 0.424 64.811 0.424 64.811 0.905 -25.114
948.5 0.9 -25.718 0.434 64.205 0.434 64.205 0.9 -25.718
973.458 0.896 -26.317 0.443 63.604 0.443 63.604 0.896 -26.317
998.417 0.891 -26.911 0.453 63.008 0.453 63.008 0.891 -26.911
1023.375 0.886 -27.5 0.462 62.418 0.462 62.418 0.886 -27.5
1048.333 0.882 -28.083 0.471 61.832 0.471 61.832 0.882 -28.083
1073.292 0.877 -28.661 0.48 61.252 0.48 61.252 0.877 -28.661
1098.25 0.872 -29.234 0.488 60.677 0.488 60.677 0.872 -29.234
1123.208 0.867 -29.802 0.497 60.107 0.497 60.107 0.867 -29.802
1148.167 0.862 -30.364 0.505 59.543 0.505 59.543 0.862 -30.364
1173.125 0.857 -30.921 0.514 58.984 0.514 58.984 0.857 -30.921
1198.083 0.852 -31.472 0.522 58.43 0.522 58.43 0.852 -31.472
1223.042 0.847 -32.019 0.53 57.882 0.53 57.882 0.847 -32.019
1248 0.842 -32.56 0.538 57.339 0.538 57.339 0.842 -32.56
1272.958 0.837 -33.095 0.546 56.801 0.546 56.801 0.837 -33.095
1297.917 0.832 -33.626 0.554 56.268 0.554 56.268 0.832 -33.626
1322.875 0.827 -34.151 0.561 55.741 0.561 55.741 0.827 -34.151
1347.833 0.821 -34.671 0.569 55.219 0.569 55.219 0.821 -34.671
1372.792 0.816 -35.185 0.576 54.703 0.576 54.703 0.816 -35.185
1397.75 0.811 -35.694 0.583 54.191 0.583 54.191 0.811 -35.694
1422.708 0.806 -36.198 0.591 53.685 0.591 53.685 0.806 -36.198
1447.667 0.801 -36.697 0.598 53.184 0.598 53.184 0.801 -36.697
1472.625 0.795 -37.191 0.604 52.689 0.604 52.689 0.795 -37.191
1497.583 0.79 -37.679 0.611 52.198 0.611 52.198 0.79 -37.679
1522.542 0.785 -38.162 0.618 51.713 0.618 51.713 0.785 -38.162
1547.5 0.78 -38.641 0.624 51.232 0.624 51.232 0.78 -38.641
1572.458 0.774 -39.114 0.631 50.757 0.631 50.757 0.774 -39.114
1597.417 0.769 -39.582 0.637 50.287 0.637 50.287 0.769 -39.582
1622.375 0.764 -40.045 0.643 49.821 0.643 49.821 0.764 -40.045
1647.333 0.759 -40.503 0.649 49.361 0.649 49.361 0.759 -40.503
1672.292 0.754 -40.956 0.655 48.905 0.655 48.905 0.754 -40.956
1697.25 0.748 -41.405 0.661 48.455 0.661 48.455 0.748 -41.405
1722.208 0.743 -41.848 0.667 48.009 0.667 48.009 0.743 -41.848
1747.167 0.738 -42.287 0.673 47.568 0.673 47.568 0.738 -42.287
1772.125 0.733 -42.721 0.678 47.132 0.678 47.132 0.733 -42.721
1797.083 0.728 -43.15 0.684 46.7 0.684 46.7 0.728 -43.15
1822.042 0.723 -43.575 0.689 46.274 0.689 46.274 0.723 -43.575
1847 0.718 -43.995 0.695 45.851 0.695 45.851 0.718 -43.995
1871.958 0.712 -44.411 0.7 45.434 0.7 45.434 0.712 -44.411
1896.917 0.707 -44.821 0.705 45.02 0.705 45.02 0.707 -44.821
1921.875 0.702 -45.228 0.71 44.612 0.71 44.612 0.702 -45.228
1946.833 0.697 -45.63 0.715 44.207 0.715 44.207 0.697 -45.63
1971.792 0.692 -46.028 0.72 43.807 0.72 43.807 0.692 -46.028
1996.75 0.687 -46.421 0.724 43.412 0.724 43.412 0.687 -46.421
2021.708 0.682 -46.81 0.729 43.02 0.729 43.02 0.682 -46.81
2046.667 0.677 -47.195 0.734 42.633 0.734 42.633 0.677 -47.195
2071.625 0.672 -47.575 0.738 42.25 0.738 42.25 0.672 -47.575
2096.583 0.667 -47.952 0.743 41.872 0.743 41.872 0.667 -47.952
2121.542 0.663 -48.324 0.747 41.497 0.747 41.497 0.663 -48.324
2146.5 0.658 -48.693 0.751 41.126 0.751 41.126 0.658 -48.693
2171.458 0.653 -49.057 0.755 40.759 0.755 40.759 0.653 -49.057
2196.417 0.648 -49.417 0.759 40.397 0.759 40.397 0.648 -49.417
2221.375 0.643 -49.774 0.764 40.038 0.764 40.038 0.643 -49.774
2246.333 0.639 -50.127 0.767 39.683 0.767 39.683 0.639 -50.127
2271.292 0.634 -50.475 0.771 39.331 0.771 39.331 0.634 -50.475
2296.25 0.629 -50.821 0.775 38.984 0.775 38.984 0.629 -50.821
2321.208 0.624 -51.162 0.779 38.64 0.779 38.64 0.624 -51.162
2346.167 0.62 -51.5 0.783 38.3 0.783 38.3 0.62 -51.5
2371.125 0.615 -51.834 0.786 37.963 0.786 37.963 0.615 -51.834
2396.083 0.611 -52.165 0.79 37.63 0.79 37.63 0.611 -52.165
2421.042 0.606 -52.492 0.793 37.301 0.793 37.301 0.606 -52.492
2446 0.601 -52.815 0.797 36.974 0.797 36.974 0.601 -52.815
2470.958 0.597 -53.135 0.8 36.652 0.8 36.652 0.597 -53.135
2495.917 0.592 -53.452 0.803 36.332 0.803 36.332 0.592 -53.452
2520.875 0.588 -53.766 0.807 36.016 0.807 36.016 0.588 -53.766
2545.833 0.584 -54.076 0.81 35.704 0.81 35.704 0.584 -54.076
2570.792 0.579 -54.383 0.813 35.394 0.813 35.394 0.579 -54.383
2595.75 0.575 -54.687 0.816 35.088 0.816 35.088 0.575 -54.687
2620.708 0.571 -54.987 0.819 34.785 0.819 34.785 0.571 -54.987
2645.667 0.566 -55.285 0.822 34.485 0.822 34.485 0.566 -55.285
2670.625 0.562 -55.579 0.825 34.188 0.825 34.188 0.562 -55.579
2695.583 0.558 -55.871 0.828 33.894 0.828 33.894 0.558 -55.871
2720.542 0.553 -56.159 0.831 33.603 0.831 33.603 0.553 -56.159
2745.5 0.549 -56.444 0.833 33.315 0.833 33.315 0.549 -56.444
2770.458 0.545 -56.727 0.836 33.03 0.836 33.03 0.545 -56.727
2795.417 0.541 -57.007 0.839 32.747 0.839 32.747 0.541 -57.007
2820.375 0.537 -57.284 0.841 32.468 0.841 32.468 0.537 -57.284
2845.333 0.533 -57.558 0.844 32.191 0.844 32.191 0.533 -57.558
2870.292 0.529 -57.829 0.846 31.917 0.846 31.917 0.529 -57.829
2895.25 0.525 -58.097 0.849 31.646 0.849 31.646 0.525 -58.097
2920.208 0.521 -58.363 0.851 31.377 0.851 31.377 0.521 -58.363
2945.167 0.517 -58.627 0.854 31.111 0.854 31.111 0.517 -58.627
2970.125 0.513 -58.887 0.856 30.848 0.856 30.848 0.513 -58.887
2995.083 0.509 -59.145 0.858 30.587 0.858 30.587 0.509 -59.145
3020.042 0.505 -59.401 0.861 30.328 0.861 30.328 0.505 -59.401
3045 0.501 -59.654 0.863 30.072 0.863 30.072 0.501 -59.654
3069.958 0.497 -59.905 0.865 29.819 0.865 29.819 0.497 -59.905
3094.917 0.493 -60.153 0.867 29.568 0.867 29.568 0.493 -60.153
3119.875 0.49 -60.399 0.869 29.319 0.869 29.319 0.49 -60.399
3144.833 0.486 -60.642 0.872 29.073 0.872 29.073 0.486 -60.642
3169.792 0.482 -60.883 0.874 28.829 0.874 28.829 0.482 -60.883
3194.75 0.479 -61.122 0.876 28.587 0.876 28.587 0.479 -61.122
3219.708 0.475 -61.359 0.878 28.348 0.878 28.348 0.475 -61.359
3244.667 0.471 -61.593 0.88 28.111 0.88 28.111 0.471 -61.593
3269.625 0.468 -61.825 0.882 27.876 0.882 27.876 0.468 -61.825
3294.583 0.464 -62.055 0.883 27.643 0.883 27.643 0.464 -62.055
3319.542 0.46 -62.283 0.885 27.412 0.885 27.412 0.46 -62.283
3344.5 0.457 -62.508 0.887 27.183 0.887 27.183 0.457 -62.508
3369.458 0.453 -62.732 0.889 26.957 0.889 26.957 0.453 -62.732
3394.417 0.45 -62.954 0.891 26.732 0.891 26.732 0.45 -62.954
3419.375 0.446 -63.173 0.892 26.51 0.892 26.51 0.446 -63.173
3444.333 0.443 -63.391 0.894 26.289 0.894 26.289 0.443 -63.391
3469.292 0.439 -63.606 0.896 26.07 0.896 26.07 0.439 -63.606
3494.25 0.436 -63.82 0.897 25.854 0.897 25.854 0.436 -63.82
3519.208 0.433 -64.031 0.899 25.639 0.899 25.639 0.433 -64.031
3544.167 0.429 -64.241 0.901 25.426 0.901 25.426 0.429 -64.241
3569.125 0.426 -64.449 0.902 25.215 0.902 25.215 0.426 -64.449
3594.083 0.423 -64.655 0.904 25.006 0.904 25.006 0.423 -64.655
3619.042 0.419 -64.859 0.905 24.798 0.905 24.798 0.419 -64.859
3644 0.416 -65.062 0.907 24.592 0.907 24.592 0.416 -65.062
3668.958 0.413 -65.262 0.908 24.389 0.908 24.389 0.413 -65.262
3693.917 0.41 -65.461 0.91 24.186 0.91 24.186 0.41 -65.461
3718.875 0.407 -65.658 0.911 23.986 0.911 23.986 0.407 -65.658
3743.833 0.403 -65.854 0.913 23.787 0.913 23.787 0.403 -65.854
3768.792 0.4 -66.048 0.914 23.59 0.914 23.59 0.4 -66.048
3793.75 0.397 -66.24 0.915 23.394 0.915 23.394 0.397 -66.24
3818.708 0.394 -66.43 0.917 23.2 0.917 23.2 0.394 -66.43
3843.667 0.391 -66.619 0.918 23.008 0.918 23.008 0.391 -66.619
3868.625 0.388 -66.806 0.919 22.817 0.919 22.817 0.388 -66.806
3893.583 0.385 -66.992 0.92 22.628 0.92 22.628 0.385 -66.992
3918.542 0.382 -67.176 0.922 22.44 0.922 22.44 0.382 -67.176
3943.5 0.379 -67.359 0.923 22.254 0.923 22.254 0.379 -67.359
3968.458 0.376 -67.54 0.924 22.069 0.924 22.069 0.376 -67.54
3993.417 0.373 -67.72 0.925 21.886 0.925 21.886 0.373 -67.72
4018.375 0.37 -67.898 0.927 21.704 0.927 21.704 0.37 -67.898
4043.333 0.367 -68.074 0.928 21.524 0.928 21.524 0.367 -68.074
4068.292 0.364 -68.25 0.929 21.345 0.929 21.345 0.364 -68.25
4093.25 0.361 -68.424 0.93 21.168 0.93 21.168 0.361 -68.424
4118.208 0.358 -68.596 0.931 20.991 0.931 20.991 0.358 -68.596
4143.167 0.355 -68.767 0.932 20.817 0.932 20.817 0.355 -68.767
4168.125 0.353 -68.937 0.933 20.643 0.933 20.643 0.353 -68.937
4193.083 0.35 -69.105 0.934 20.471 0.934 20.471 0.35 -69.105
4218.042 0.347 -69.272 0.935 20.3 0.935 20.3 0.347 -69.272
4243 0.344 -69.438 0.936 20.131 0.936 20.131 0.344 -69.438
4267.958 0.341 -69.602 0.937 19.962 0.937 19.962 0.341 -69.602
4292.917 0.339 -69.765 0.938 19.795 0.938 19.795 0.339 -69.765
4317.875 0.336 -69.927 0.939 19.629 0.939 19.629 0.336 -69.927
4342.833 0.333 -70.087 0.94 19.465 0.94 19.465 0.333 -70.087
4367.792 0.331 -70.247 0.941 19.301 0.941 19.301 0.331 -70.247
4392.75 0.328 -70.405 0.942 19.139 0.942 19.139 0.328 -70.405
4417.708 0.325 -70.562 0.943 18.978 0.943 18.978 0.325 -70.562
4442.667 0.323 -70.717 0.944 18.818 0.944 18.818 0.323 -70.717
4467.625 0.32 -70.872 0.945 18.66 0.945 18.66 0.32 -70.872
4492.583 0.317 -71.025 0.946 18.502 0.946 18.502 0.317 -71.025
4517.542 0.315 -71.177 0.947 18.346 0.947 18.346 0.315 -71.177
4542.5 0.312 -71.328 0.947 18.19 0.947 18.19 0.312 -71.328
4567.458 0.31 -71.478 0.948 18.036 0.948 18.036 0.31 -71.478
4592.417 0.307 -71.627 0.949 17.883 0.949 17.883 0.307 -71.627
4617.375 0.305 -71.774 0.95 17.731 0.95 17.731 0.305 -71.774
4642.333 0.302 -71.921 0.951 17.579 0.951 17.579 0.302 -71.921
4667.292 0.3 -72.066 0.951 17.429 0.951 17.429 0.3 -72.066
4692.25 0.297 -72.211 0.952 17.28 0.952 17.28 0.297 -72.211
4717.208 0.295 -72.354 0.953 17.132 0.953 17.132 0.295 -72.354
4742.167 0.292 -72.496 0.954 16.985 0.954 16.985 0.292 -72.496
4767.125 0.29 -72.638 0.954 16.839 0.954 16.839 0.29 -72.638
4792.083 0.287 -72.778 0.955 16.694 0.955 16.694 0.287 -72.778
4817.042 0.285 -72.917 0.956 16.55 0.956 16.55 0.285 -72.917
4842 0.282 -73.055 0.957 16.407 0.957 16.407 0.282 -73.055
4866.958 0.28 -73.193 0.957 16.265 0.957 16.265 0.28 -73.193
4891.917 0.278 -73.329 0.958 16.123 0.958 16.123 0.278 -73.329
4916.875 0.275 -73.464 0.959 15.983 0.959 15.983 0.275 -73.464
4941.833 0.273 -73.599 0.959 15.844 0.959 15.844 0.273 -73.599
4966.792 0.271 -73.732 0.96 15.705 0.96 15.705 0.271 -73.732
4991.75 0.268 -73.865 0.961 15.567 0.961 15.567 0.268 -73.865
5016.708 0.266 -73.996 0.961 15.43 0.961 15.43 0.266 -73.996
5041.667 0.264 -74.127 0.962 15.295 0.962 15.295 0.264 -74.127
5066.625 0.262 -74.256 0.963 15.159 0.963 15.159 0.262 -74.256
5091.583 0.259 -74.385 0.963 15.025 0.963 15.025 0.259 -74.385
5116.542 0.257 -74.513 0.964 14.892 0.964 14.892 0.257 -74.513
5141.5 0.255 -74.64 0.964 14.759 0.964 14.759 0.255 -74.64
5166.458 0.253 -74.766 0.965 14.627 0.965 14.627 0.253 -74.766
5191.417 0.25 -74.891 0.965 14.496 0.965 14.496 0.25 -74.891
5216.375 0.248 -75.016 0.966 14.366 0.966 14.366 0.248 -75.016
5241.333 0.246 -75.139 0.967 14.237 0.967 14.237 0.246 -75.139
5266.292 0.244 -75.262 0.967 14.108 0.967 14.108 0.244 -75.262
5291.25 0.242 -75.384 0.968 13.98 0.968 13.98 0.242 -75.384
5316.208 0.239 -75.505 0.968 13.853 0.968 13.853 0.239 -75.505
5341.167 0.237 -75.625 0.969 13.727 0.969 13.727 0.237 -75.625
5366.125 0.235 -75.745 0.969 13.601 0.969 13.601 0.235 -75.745
5391.083 0.233 -75.863 0.97 13.476 0.97 13.476 0.233 -75.863
5416.042 0.231 -75.981 0.97 13.352 0.97 13.352 0.231 -75.981
5441 0.229 -76.098 0.971 13.229 0.971 13.229 0.229 -76.098
5465.958 0.227 -76.214 0.971 13.106 0.971 13.106 0.227 -76.214
5490.917 0.225 -76.33 0.972 12.984 0.972 12.984 0.225 -76.33
5515.875 0.223 -76.444 0.972 12.863 0.972 12.863 0.223 -76.444
5540.833 0.221 -76.558 0.973 12.742 0.973 12.742 0.221 -76.558
5565.792 0.219 -76.671 0.973 12.622 0.973 12.622 0.219 -76.671
5590.75 0.217 -76.783 0.974 12.503 0.974 12.503 0.217 -76.783
5615.708 0.214 -76.895 0.974 12.384 0.974 12.384 0.214 -76.895
5640.667 0.212 -77.006 0.974 12.266 0.974 12.266 0.212 -77.006
5665.625 0.21 -77.116 0.975 12.149 0.975 12.149 0.21 -77.116
5690.583 0.208 -77.225 0.975 12.032 0.975 12.032 0.208 -77.225
5715.542 0.206 -77.334 0.976 11.916 0.976 11.916 0.206 -77.334
5740.5 0.205 -77.442 0.976 11.801 0.976 11.801 0.205 -77.442
5765.458 0.203 -77.549 0.977 11.686 0.977 11.686 0.203 -77.549
5790.417 0.201 -77.655 0.977 11.572 0.977 11.572 0.201 -77.655
5815.375 0.199 -77.761 0.977 11.458 0.977 11.458 0.199 -77.761
5840.333 0.197 -77.866 0.978 11.345 0.978 11.345 0.197 -77.866
5865.292 0.195 -77.97 0.978 11.233 0.978 11.233 0.195 -77.97
5890.25 0.193 -78.074 0.979 11.121 0.979 11.121 0.193 -78.074
5915.208 0.191 -78.177 0.979 11.01 0.979 11.01 0.191 -78.177
5940.167 0.189 -78.279 0.979 10.899 0.979 10.899 0.189 -78.279
5965.125 0.187 -78.38 0.98 10.789 0.98 10.789 0.187 -78.38
5990.083 0.185 -78.481 0.98 10.679 0.98 10.679 0.185 -78.481
6015.042 0.183 -78.581 0.98 10.57 0.98 10.57 0.183 -78.581
6040 0.182 -78.681 0.981 10.462 0.981 10.462 0.182 -78.681
6064.958 0.18 -78.779 0.981 10.354 0.981 10.354 0.18 -78.779
6089.917 0.178 -78.878 0.981 10.247 0.981 10.247 0.178 -78.878
6114.875 0.176 -78.975 0.982 10.14 0.982 10.14 0.176 -78.975
6139.833 0.174 -79.072 0.982 10.034 0.982 10.034 0.174 -79.072
6164.792 0.172 -79.168 0.982 9.928 0.982 9.928 0.172 -79.168
6189.75 0.171 -79.263 0.983 9.823 0.983 9.823 0.171 -79.263
6214.708 0.169 -79.358 0.983 9.718 0.983 9.718 0.169 -79.358
6239.667 0.167 -79.452 0.983 9.614 0.983 9.614 0.167 -79.452
6264.625 0.165 -79.545 0.984 9.51 0.984 9.51 0.165 -79.545
6289.583 0.163 -79.637 0.984 9.407 0.984 9.407 0.163 -79.637
6314.542 0.162 -79.729 0.984 9.304 0.984 9.304 0.162 -79.729
6339.5 0.16 -79.821 0.984 9.202 0.984 9.202 0.16 -79.821
6364.458 0.158 -79.911 0.985 9.101 0.985 9.101 0.158 -79.911
6389.417 0.156 -80.001 0.985 8.999 0.985 8.999 0.156 -80.001
6414.375 0.155 -80.091 0.985 8.898 0.985 8.898 0.155 -80.091
6439.333 0.153 -80.179 0.986 8.798 0.986 8.798 0.153 -80.179
6464.292 0.151 -80.267 0.986 8.698 0.986 8.698 0.151 -80.267
6489.25 0.15 -80.354 0.986 8.599 0.986 8.599 0.15 -80.354
6514.208 0.148 -80.441 0.986 8.5 0.986 8.5 0.148 -80.441
6539.167 0.146 -80.527 0.987 8.402 0.987 8.402 0.146 -80.527
6564.125 0.144 -80.612 0.987 8.304 0.987 8.304 0.144 -80.612
6589.083 0.143 -80.696 0.987 8.206 0.987 8.206 0.143 -80.696
6614.042 0.141 -80.78 0.987 8.109 0.987 8.109 0.141 -80.78
6639 0.139 -80.863 0.988 8.012 0.988 8.012 0.139 -80.863
6663.958 0.138 -80.946 0.988 7.916 0.988 7.916 0.138 -80.946
6688.917 0.136 -81.028 0.988 7.82 0.988 7.82 0.136 -81.028
6713.875 0.134 -81.109 0.988 7.724 0.988 7.724 0.134 -81.109
6738.833 0.133 -81.189 0.988 7.629 0.988 7.629 0.133 -81.189
6763.792 0.131 -81.269 0.989 7.535 0.989 7.535 0.131 -81.269
6788.75 0.13 -81.347 0.989 7.441 0.989 7.441 0.13 -81.347
6813.708 0.128 -81.426 0.989 7.347 0.989 7.347 0.128 -81.426
6838.667 0.126 -81.503 0.989 7.253 0.989 7.253 0.126 -81.503
6863.625 0.125 -81.58 0.989 7.16 0.989 7.16 0.125 -81.58
6888.583 0.123 -81.656 0.99 7.068 0.99 7.068 0.123 -81.656
6913.542 0.121 -81.731 0.99 6.976 0.99 6.976 0.121 -81.731
6938.5 0.12 -81.805 0.99 6.884 0.99 6.884 0.12 -81.805
6963.458 0.118 -81.879 0.99 6.792 0.99 6.792 0.118 -81.879
6988.417 0.117 -81.952 0.99 6.701 0.99 6.701 0.117 -81.952
7013.375 0.115 -82.024 0.991 6.611 0.991 6.611 0.115 -82.024
7038.333 0.114 -82.095 0.991 6.52 0.991 6.52 0.114 -82.095
7063.292 0.112 -82.165 0.991 6.43 0.991 6.43 0.112 -82.165
7088.25 0.11 -82.235 0.991 6.341 0.991 6.341 0.11 -82.235
7113.208 0.109 -82.304 0.991 6.251 0.991 6.251 0.109 -82.304
7138.167 0.107 -82.372 0.991 6.163 0.991 6.163 0.107 -82.372
7163.125 0.106 -82.439 0.992 6.074 0.992 6.074 0.106 -82.439
7188.083 0.104 -82.505 0.992 5.986 0.992 5.986 0.104 -82.505
7213.042 0.103 -82.57 0.992 5.898 0.992 5.898 0.103 -82.57
7238 0.101 -82.634 0.992 5.811 0.992 5.811 0.101 -82.634
7262.958 0.1 -82.698 0.992 5.723 0.992 5.723 0.1 -82.698
7287.917 0.098 -82.76 0.992 5.637 0.992 5.637 0.098 -82.76
7312.875 0.097 -82.821 0.993 5.55 0.993 5.55 0.097 -82.821
7337.833 0.095 -82.882 0.993 5.464 0.993 5.464 0.095 -82.882
7362.792 0.094 -82.941 0.993 5.378 0.993 5.378 0.094 -82.941
7387.75 0.092 -82.999 0.993 5.293 0.993 5.293 0.092 -82.999
7412.708 0.091 -83.056 0.993 5.208 0.993 5.208 0.091 -83.056
7437.667 0.089 -83.112 0.993 5.123 0.993 5.123 0.089 -83.112
7462.625 0.088 -83.167 0.993 5.038 0.993 5.038 0.088 -83.167
7487.583 0.086 -83.22 0.994 4.954 0.994 4.954 0.086 -83.22
7512.542 0.085 -83.273 0.994 4.87 0.994 4.87 0.085 -83.273
7537.5 0.083 -83.324 0.994 4.787 0.994 4.787 0.083 -83.324
7562.458 0.082 -83.373 0.994 4.704 0.994 4.704 0.082 -83.373
7587.417 0.081 -83.422 0.994 4.621 0.994 4.621 0.081 -83.422
7612.375 0.079 -83.468 0.994 4.538 0.994 4.538 0.079 -83.468
7637.333 0.078 -83.514 0.994 4.456 0.994 4.456 0.078 -83.514
7662.292 0.076 -83.558 0.994 4.374 0.994 4.374 0.076 -83.558
7687.25 0.075 -83.6 0.994 4.292 0.994 4.292 0.075 -83.6
7712.208 0.073 -83.64 0.995 4.21 0.995 4.21 0.073 -83.64
7737.167 0.072 -83.679 0.995 4.129 0.995 4.129 0.072 -83.679
7762.125 0.071 -83.716 0.995 4.048 0.995 4.048 0.071 -83.716
7787.083 0.069 -83.751 0.995 3.968 0.995 3.968 0.069 -83.751
7812.042 0.068 -83.784 0.995 3.887 0.995 3.887 0.068 -83.784
7837 0.066 -83.815 0.995 3.807 0.995 3.807 0.066 -83.815
7861.958 0.065 -83.844 0.995 3.728 0.995 3.728 0.065 -83.844
7886.917 0.064 -83.871 0.995 3.648 0.995 3.648 0.064 -83.871
7911.875 0.062 -83.895 0.995 3.569 0.995 3.569 0.062 -83.895
7936.833 0.061 -83.916 0.995 3.49 0.995 3.49 0.061 -83.916
7961.792 0.06 -83.935 0.995 3.411 0.995 3.411 0.06 -83.935
7986.75 0.058 -83.951 0.996 3.333 0.996 3.333 0.058 -83.951
8011.708 0.057 -83.964 0.996 3.255 0.996 3.255 0.057 -83.964
8036.667 0.055 -83.973 0.996 3.177 0.996 3.177 0.055 -83.973
8061.625 0.054 -83.98 0.996 3.099 0.996 3.099 0.054 -83.98
8086.583 0.053 -83.982 0.996 3.022 0.996 3.022 0.053 -83.982
8111.542 0.051 -83.981 0.996 2.945 0.996 2.945 0.051 -83.981
8136.5 0.05 -83.975 0.996 2.868 0.996 2.868 0.05 -83.975
8161.458 0.049 -83.966 0.996 2.792 0.996 2.792 0.049 -83.966
8186.417 0.047 -83.951 0.996 2.715 0.996 2.715 0.047 -83.951
