# MHZ S MA R 50

50 1 -1.08 0.019 88.916 0.019 88.916 1 -1.08
74.958 1 -1.619 0.028 88.376 0.028 88.376 1 -1.619
99.917 0.999 -2.157 0.038 87.835 0.038 87.835 0.999 -2.157
124.875 0.999 -2.696 0.047 87.295 0.047 87.295 0.999 -2.696
149.833 0.998 -3.234 0.056 86.755 0.056 86.755 0.998 -3.234
174.792 0.998 -3.771 0.066 86.216 0.066 86.216 0.998 -3.771
199.75 0.997 -4.308 0.075 85.677 0.075 85.677 0.997 -4.308
224.708 0.996 -4.844 0.084 85.139 0.084 85.139 0.996 -4.844
249.667 0.996 -5.38 0.094 84.602 0.094 84.602 0.996 -5.38
274.625 0.995 -5.915 0.103 84.065 0.103 84.065 0.995 -5.915
299.583 0.994 -6.449 0.112 83.529 0.112 83.529 0.994 -6.449
324.542 0.993 -6.982 0.122 82.994 0.122 82.994 0.993 -6.982
349.5 0.991 -7.514 0.131 82.46 0.131 82.46 0.991 -7.514
374.458 0.99 -8.045 0.14 81.927 0.14 81.927 0.99 -8.045
399.417 0.989 -8.575 0.149 81.395 0.149 81.395 0.989 -8.575
424.375 0.987 -9.104 0.158 80.865 0.158 80.865 0.987 -9.104
449.333 0.986 -9.631 0.167 80.336 0.167 80.336 0.986 -9.631
474.292 0.984 -10.157 0.176 79.808 0.176 79.808 0.984 -10.157
499.25 0.983 -10.682 0.185 79.281 0.185 79.281 0.983 -10.682
524.208 0.981 -11.205 0.194 78.756 0.194 78.756 0.981 -11.205
549.167 0.979 -11.727 0.203 78.232 0.203 78.232 0.979 -11.727
574.125 0.977 -12.247 0.212 77.71 0.212 77.71 0.977 -12.247
599.083 0.975 -12.765 0.221 77.19 0.221 77.19 0.975 -12.765
624.042 0.973 -13.282 0.23 76.671 0.23 76.671 0.973 -13.282
649 0.971 -13.797 0.238 76.154 0.238 76.154 0.971 -13.797
673.958 0.969 -14.31 0.247 75.639 0.247 75.639 0.969 -14.31
698.917 0.966 -14.822 0.256 75.126 0.256 75.126 0.966 -14.822
723.875 0.964 -15.331 0.264 74.615 0.264 74.615 0.964 -15.331
748.833 0.962 -15.838 0.273 74.106 0.273 74.106 0.962 -15.838
773.792 0.959 -16.344 0.281 73.599 0.281 73.599 0.959 -16.344
798.75 0.957 -16.847 0.29 73.094 0.29 73.094 0.957 -16.847
823.708 0.954 -17.348 0.298 72.591 0.298 72.591 0.954 -17.348
848.667 0.952 -17.847 0.306 72.09 0.306 72.09 0.952 -17.847
873.625 0.949 -18.344 0.315 71.591 0.315 71.591 0.949 -18.344
898.583 0.946 -18.838 0.323 71.095 0.323 71.095 0.946 -18.838
923.542 0.943 -19.33 0.331 70.601 0.331 70.601 0.943 -19.33
948.5 0.94 -19.82 0.339 70.109 0.339 70.109 0.94 -19.82
973.458 0.937 -20.307 0.347 69.62 0.347 69.62 0.937 -20.307
998.417 0.934 -20.792 0.355 69.133 0.355 69.133 0.934 -20.792
1023.375 0.931 -21.274 0.363 68.649 0.363 68.649 0.931 -21.274
1048.333 0.928 -21.754 0.371 68.167 0.371 68.167 0.928 -21.754
1073.292 0.925 -22.232 0.378 67.688 0.378 67.688 0.925 -22.232
1098.25 0.922 -22.707 0.386 67.211 0.386 67.211 0.922 -22.707
1123.208 0.919 -23.179 0.394 66.737 0.394 66.737 0.919 -23.179
1148.167 0.915 -23.648 0.401 66.265 0.401 66.265 0.915 -23.648
1173.125 0.912 -24.115 0.409 65.797 0.409 65.797 0.912 -24.115
1198.083 0.909 -24.58 0.416 65.33 0.416 65.33 0.909 -24.58
1223.042 0.905 -25.041 0.423 64.867 0.423 64.867 0.905 -25.041
1248 0.902 -25.5 0.431 64.406 0.431 64.406 0.902 -25.5
1272.958 0.898 -25.956 0.438 63.948 0.438 63.948 0.898 -25.956
1297.917 0.895 -26.41 0.445 63.493 0.445 63.493 0.895 -26.41
1322.875 0.891 -26.86 0.452 63.04 0.452 63.04 0.891 -26.86
1347.833 0.888 -27.308 0.459 62.59 0.459 62.59 0.888 -27.308
1372.792 0.884 -27.753 0.466 62.143 0.466 62.143 0.884 -27.753
1397.75 0.88 -28.195 0.472 61.699 0.472 61.699 0.88 -28.195
1422.708 0.877 -28.635 0.479 61.258 0.479 61.258 0.877 -28.635
1447.667 0.873 -29.071 0.486 60.819 0.486 60.819 0.873 -29.071
1472.625 0.869 -29.505 0.493 60.383 0.493 60.383 0.869 -29.505
1497.583 0.866 -29.936 0.499 59.951 0.499 59.951 0.866 -29.936
1522.542 0.862 -30.364 0.505 59.521 0.505 59.521 0.862 -30.364
1547.5 0.858 -30.789 0.512 59.094 0.512 59.094 0.858 -30.789
1572.458 0.854 -31.211 0.518 58.669 0.518 58.669 0.854 -31.211
1597.417 0.85 -31.631 0.524 58.248 0.524 58.248 0.85 -31.631
1622.375 0.846 -32.047 0.531 57.83 0.531 57.83 0.846 -32.047
1647.333 0.843 -32.461 0.537 57.414 0.537 57.414 0.843 -32.461
1672.292 0.839 -32.872 0.543 57.001 0.543 57.001 0.839 -32.872
1697.25 0.835 -33.279 0.549 56.591 0.549 56.591 0.835 -33.279
1722.208 0.831 -33.684 0.555 56.184 0.555 56.184 0.831 -33.684
1747.167 0.827 -34.087 0.56 55.78 0.56 55.78 0.827 -34.087
1772.125 0.823 -34.486 0.566 55.379 0.566 55.379 0.823 -34.486
1797.083 0.819 -34.882 0.572 54.981 0.572 54.981 0.819 -34.882
1822.042 0.815 -35.276 0.578 54.585 0.578 54.585 0.815 -35.276
1847 0.811 -35.666 0.583 54.192 0.583 54.192 0.811 -35.666
1871.958 0.807 -36.054 0.589 53.802 0.589 53.802 0.807 -36.054
1896.917 0.803 -36.439 0.594 53.415 0.594 53.415 0.803 -36.439
1921.875 0.799 -36.821 0.599 53.031 0.599 53.031 0.799 -36.821
1946.833 0.795 -37.201 0.605 52.65 0.605 52.65 0.795 -37.201
1971.792 0.791 -37.577 0.61 52.271 0.61 52.271 0.791 -37.577
1996.75 0.787 -37.951 0.615 51.896 0.615 51.896 0.787 -37.951
2021.708 0.783 -38.322 0.62 51.523 0.62 51.523 0.783 -38.322
2046.667 0.779 -38.69 0.625 51.152 0.625 51.152 0.779 -38.69
2071.625 0.775 -39.055 0.63 50.785 0.63 50.785 0.775 -39.055
2096.583 0.771 -39.418 0.635 50.42 0.635 50.42 0.771 -39.418
2121.542 0.767 -39.778 0.64 50.058 0.64 50.058 0.767 -39.778
2146.5 0.763 -40.135 0.645 49.699 0.645 49.699 0.763 -40.135
2171.458 0.759 -40.489 0.649 49.343 0.649 49.343 0.759 -40.489
2196.417 0.755 -40.841 0.654 48.989 0.654 48.989 0.755 -40.841
2221.375 0.751 -41.19 0.659 48.638 0.659 48.638 0.751 -41.19
2246.333 0.747 -41.536 0.663 48.289 0.663 48.289 0.747 -41.536
2271.292 0.742 -41.88 0.668 47.944 0.668 47.944 0.742 -41.88
2296.25 0.738 -42.221 0.672 47.6 0.672 47.6 0.738 -42.221
2321.208 0.734 -42.559 0.676 47.26 0.676 47.26 0.734 -42.559
2346.167 0.73 -42.895 0.681 46.922 0.681 46.922 0.73 -42.895
2371.125 0.726 -43.228 0.685 46.587 0.685 46.587 0.726 -43.228
2396.083 0.722 -43.559 0.689 46.254 0.689 46.254 0.722 -43.559
2421.042 0.718 -43.887 0.693 45.923 0.693 45.923 0.718 -43.887
2446 0.714 -44.212 0.697 45.596 0.697 45.596 0.714 -44.212
2470.958 0.71 -44.535 0.701 45.271 0.701 45.271 0.71 -44.535
2495.917 0.706 -44.856 0.705 44.948 0.705 44.948 0.706 -44.856
2520.875 0.703 -45.174 0.709 44.628 0.709 44.628 0.703 -45.174
2545.833 0.699 -45.489 0.713 44.31 0.713 44.31 0.699 -45.489
2570.792 0.695 -45.802 0.717 43.995 0.717 43.995 0.695 -45.802
2595.75 0.691 -46.113 0.721 43.682 0.721 43.682 0.691 -46.113
2620.708 0.687 -46.421 0.724 43.371 0.724 43.371 0.687 -46.421
2645.667 0.683 -46.727 0.728 43.063 0.728 43.063 0.683 -46.727
2670.625 0.679 -47.031 0.732 42.757 0.732 42.757 0.679 -47.031
2695.583 0.675 -47.332 0.735 42.454 0.735 42.454 0.675 -47.332
2720.542 0.671 -47.631 0.739 42.153 0.739 42.153 0.671 -47.631
2745.5 0.667 -47.927 0.742 41.854 0.742 41.854 0.667 -47.927
2770.458 0.663 -48.221 0.746 41.558 0.746 41.558 0.663 -48.221
2795.417 0.66 -48.513 0.749 41.264 0.749 41.264 0.66 -48.513
2820.375 0.656 -48.803 0.752 40.972 0.752 40.972 0.656 -48.803
2845.333 0.652 -49.09 0.756 40.682 0.756 40.682 0.652 -49.09
2870.292 0.648 -49.375 0.759 40.394 0.759 40.394 0.648 -49.375
2895.25 0.644 -49.658 0.762 40.109 0.762 40.109 0.644 -49.658
2920.208 0.64 -49.939 0.765 39.826 0.765 39.826 0.64 -49.939
2945.167 0.637 -50.218 0.768 39.545 0.768 39.545 0.637 -50.218
2970.125 0.633 -50.494 0.772 39.266 0.772 39.266 0.633 -50.494
2995.083 0.629 -50.769 0.775 38.989 0.775 38.989 0.629 -50.769
3020.042 0.625 -51.041 0.778 38.715 0.778 38.715 0.625 -51.041
3045 0.622 -51.311 0.781 38.442 0.781 38.442 0.622 -51.311
3069.958 0.618 -51.579 0.783 38.172 0.783 38.172 0.618 -51.579
3094.917 0.614 -51.845 0.786 37.903 0.786 37.903 0.614 -51.845
3119.875 0.611 -52.109 0.789 37.637 0.789 37.637 0.611 -52.109
3144.833 0.607 -52.371 0.792 37.372 0.792 37.372 0.607 -52.371
3169.792 0.603 -52.631 0.795 37.11 0.795 37.11 0.603 -52.631
3194.75 0.6 -52.889 0.797 36.849 0.797 36.849 0.6 -52.889
3219.708 0.596 -53.145 0.8 36.591 0.8 36.591 0.596 -53.145
3244.667 0.592 -53.4 0.803 36.334 0.803 36.334 0.592 -53.4
3269.625 0.589 -53.652 0.805 36.079 0.805 36.079 0.589 -53.652
3294.583 0.585 -53.902 0.808 35.826 0.808 35.826 0.585 -53.902
3319.542 0.582 -54.151 0.811 35.576 0.811 35.576 0.582 -54.151
3344.5 0.578 -54.397 0.813 35.326 0.813 35.326 0.578 -54.397
3369.458 0.575 -54.642 0.816 35.079 0.816 35.079 0.575 -54.642
3394.417 0.571 -54.885 0.818 34.834 0.818 34.834 0.571 -54.885
3419.375 0.568 -55.126 0.82 34.59 0.82 34.59 0.568 -55.126
3444.333 0.564 -55.365 0.823 34.348 0.823 34.348 0.564 -55.365
3469.292 0.561 -55.603 0.825 34.108 0.825 34.108 0.561 -55.603
3494.25 0.557 -55.839 0.827 33.87 0.827 33.87 0.557 -55.839
3519.208 0.554 -56.073 0.83 33.633 0.83 33.633 0.554 -56.073
3544.167 0.55 -56.305 0.832 33.398 0.832 33.398 0.55 -56.305
3569.125 0.547 -56.536 0.834 33.165 0.834 33.165 0.547 -56.536
3594.083 0.544 -56.764 0.836 32.933 0.836 32.933 0.544 -56.764
3619.042 0.54 -56.992 0.839 32.703 0.839 32.703 0.54 -56.992
3644 0.537 -57.217 0.841 32.475 0.841 32.475 0.537 -57.217
3668.958 0.534 -57.441 0.843 32.248 0.843 32.248 0.534 -57.441
3693.917 0.53 -57.664 0.845 32.023 0.845 32.023 0.53 -57.664
3718.875 0.527 -57.884 0.847 31.8 0.847 31.8 0.527 -57.884
3743.833 0.524 -58.103 0.849 31.578 0.849 31.578 0.524 -58.103
3768.792 0.52 -58.321 0.851 31.358 0.851 31.358 0.52 -58.321
3793.75 0.517 -58.537 0.853 31.139 0.853 31.139 0.517 -58.537
3818.708 0.514 -58.751 0.855 30.922 0.855 30.922 0.514 -58.751
3843.667 0.511 -58.964 0.857 30.706 0.857 30.706 0.511 -58.964
3868.625 0.507 -59.176 0.859 30.492 0.859 30.492 0.507 -59.176
3893.583 0.504 -59.386 0.861 30.279 0.861 30.279 0.504 -59.386
3918.542 0.501 -59.594 0.862 30.068 0.862 30.068 0.501 -59.594
3943.5 0.498 -59.801 0.864 29.858 0.864 29.858 0.498 -59.801
3968.458 0.495 -60.007 0.866 29.649 0.866 29.649 0.495 -60.007
3993.417 0.492 -60.211 0.868 29.442 0.868 29.442 0.492 -60.211
4018.375 0.488 -60.413 0.87 29.237 0.87 29.237 0.488 -60.413
4043.333 0.485 -60.614 0.871 29.033 0.871 29.033 0.485 -60.614
4068.292 0.482 -60.814 0.873 28.83 0.873 28.83 0.482 -60.814
4093.25 0.479 -61.013 0.875 28.628 0.875 28.628 0.479 -61.013
4118.208 0.476 -61.21 0.876 28.428 0.876 28.428 0.476 -61.21
4143.167 0.473 -61.405 0.878 28.23 0.878 28.23 0.473 -61.405
4168.125 0.47 -61.6 0.88 28.032 0.88 28.032 0.47 -61.6
4193.083 0.467 -61.793 0.881 27.836 0.881 27.836 0.467 -61.793
4218.042 0.464 -61.985 0.883 27.641 0.883 27.641 0.464 -61.985
4243 0.461 -62.175 0.884 27.448 0.884 27.448 0.461 -62.175
4267.958 0.458 -62.364 0.886 27.256 0.886 27.256 0.458 -62.364
4292.917 0.455 -62.552 0.887 27.065 0.887 27.065 0.455 -62.552
4317.875 0.452 -62.738 0.889 26.875 0.889 26.875 0.452 -62.738
4342.833 0.449 -62.924 0.89 26.686 0.89 26.686 0.449 -62.924
4367.792 0.446 -63.108 0.892 26.499 0.892 26.499 0.446 -63.108
4392.75 0.443 -63.291 0.893 26.313 0.893 26.313 0.443 -63.291
4417.708 0.44 -63.472 0.895 26.128 0.895 26.128 0.44 -63.472
4442.667 0.438 -63.653 0.896 25.945 0.896 25.945 0.438 -63.653
4467.625 0.435 -63.832 0.898 25.762 0.898 25.762 0.435 -63.832
4492.583 0.432 -64.01 0.899 25.581 0.899 25.581 0.432 -64.01
4517.542 0.429 -64.187 0.9 25.4 0.9 25.4 0.429 -64.187
4542.5 0.426 -64.363 0.902 25.221 0.902 25.221 0.426 -64.363
4567.458 0.423 -64.537 0.903 25.043 0.903 25.043 0.423 -64.537
4592.417 0.421 -64.711 0.904 24.867 0.904 24.867 0.421 -64.711
4617.375 0.418 -64.883 0.905 24.691 0.905 24.691 0.418 -64.883
4642.333 0.415 -65.054 0.907 24.516 0.907 24.516 0.415 -65.054
4667.292 0.412 -65.224 0.908 24.343 0.908 24.343 0.412 -65.224
4692.25 0.409 -65.393 0.909 24.17 0.909 24.17 0.409 -65.393
4717.208 0.407 -65.561 0.91 23.999 0.91 23.999 0.407 -65.561
4742.167 0.404 -65.728 0.912 23.828 0.912 23.828 0.404 -65.728
4767.125 0.401 -65.894 0.913 23.659 0.913 23.659 0.401 -65.894
4792.083 0.399 -66.059 0.914 23.491 0.914 23.491 0.399 -66.059
4817.042 0.396 -66.222 0.915 23.323 0.915 23.323 0.396 -66.222
4842 0.393 -66.385 0.916 23.157 0.916 23.157 0.393 -66.385
4866.958 0.391 -66.547 0.917 22.992 0.917 22.992 0.391 -66.547
4891.917 0.388 -66.707 0.919 22.827 0.919 22.827 0.388 -66.707
4916.875 0.385 -66.867 0.92 22.664 0.92 22.664 0.385 -66.867
4941.833 0.383 -67.026 0.921 22.501 0.921 22.501 0.383 -67.026
4966.792 0.38 -67.183 0.922 22.34 0.922 22.34 0.38 -67.183
4991.75 0.378 -67.34 0.923 22.179 0.923 22.179 0.378 -67.34
5016.708 0.375 -67.496 0.924 22.02 0.924 22.02 0.375 -67.496
5041.667 0.372 -67.65 0.925 21.861 0.925 21.861 0.372 -67.65
5066.625 0.37 -67.804 0.926 21.704 0.926 21.704 0.37 -67.804
5091.583 0.367 -67.957 0.927 21.547 0.927 21.547 0.367 -67.957
5116.542 0.365 -68.109 0.928 21.391 0.928 21.391 0.365 -68.109
5141.5 0.362 -68.26 0.929 21.236 0.929 21.236 0.362 -68.26
5166.458 0.36 -68.41 0.93 21.082 0.93 21.082 0.36 -68.41
5191.417 0.357 -68.559 0.931 20.928 0.931 20.928 0.357 -68.559
5216.375 0.355 -68.708 0.932 20.776 0.932 20.776 0.355 -68.708
5241.333 0.352 -68.855 0.933 20.624 0.933 20.624 0.352 -68.855
5266.292 0.35 -69.002 0.934 20.474 0.934 20.474 0.35 -69.002
5291.25 0.347 -69.147 0.935 20.324 0.935 20.324 0.347 -69.147
5316.208 0.345 -69.292 0.935 20.175 0.935 20.175 0.345 -69.292
5341.167 0.342 -69.436 0.936 20.027 0.936 20.027 0.342 -69.436
5366.125 0.34 -69.579 0.937 19.879 0.937 19.879 0.34 -69.579
5391.083 0.338 -69.721 0.938 19.733 0.938 19.733 0.338 -69.721
5416.042 0.335 -69.863 0.939 19.587 0.939 19.587 0.335 -69.863
5441 0.333 -70.003 0.94 19.442 0.94 19.442 0.333 -70.003
5465.958 0.33 -70.143 0.941 19.298 0.941 19.298 0.33 -70.143
5490.917 0.328 -70.282 0.941 19.154 0.941 19.154 0.328 -70.282
5515.875 0.326 -70.42 0.942 19.012 0.942 19.012 0.326 -70.42
5540.833 0.323 -70.557 0.943 18.87 0.943 18.87 0.323 -70.557
5565.792 0.321 -70.694 0.944 18.729 0.944 18.729 0.321 -70.694
5590.75 0.319 -70.829 0.945 18.588 0.945 18.588 0.319 -70.829
5615.708 0.316 -70.964 0.945 18.449 0.945 18.449 0.316 -70.964
5640.667 0.314 -71.098 0.946 18.31 0.946 18.31 0.314 -71.098
5665.625 0.312 -71.232 0.947 18.171 0.947 18.171 0.312 -71.232
5690.583 0.31 -71.364 0.948 18.034 0.948 18.034 0.31 -71.364
5715.542 0.307 -71.496 0.948 17.897 0.948 17.897 0.307 -71.496
5740.5 0.305 -71.627 0.949 17.761 0.949 17.761 0.305 -71.627
5765.458 0.303 -71.758 0.95 17.626 0.95 17.626 0.303 -71.758
5790.417 0.301 -71.887 0.951 17.491 0.951 17.491 0.301 -71.887
5815.375 0.298 -72.016 0.951 17.357 0.951 17.357 0.298 -72.016
5840.333 0.296 -72.144 0.952 17.224 0.952 17.224 0.296 -72.144
5865.292 0.294 -72.272 0.953 17.091 0.953 17.091 0.294 -72.272
5890.25 0.292 -72.399 0.953 16.959 0.953 16.959 0.292 -72.399
5915.208 0.29 -72.525 0.954 16.828 0.954 16.828 0.29 -72.525
5940.167 0.287 -72.65 0.955 16.697 0.955 16.697 0.287 -72.65
5965.125 0.285 -72.774 0.955 16.567 0.955 16.567 0.285 -72.774
5990.083 0.283 -72.898 0.956 16.438 0.956 16.438 0.283 -72.898
6015.042 0.281 -73.021 0.956 16.309 0.956 16.309 0.281 -73.021
6040 0.279 -73.144 0.957 16.181 0.957 16.181 0.279 -73.144
6064.958 0.277 -73.266 0.958 16.054 0.958 16.054 0.277 -73.266
6089.917 0.274 -73.387 0.958 15.927 0.958 15.927 0.274 -73.387
6114.875 0.272 -73.507 0.959 15.8 0.959 15.8 0.272 -73.507
6139.833 0.27 -73.627 0.96 15.675 0.96 15.675 0.27 -73.627
6164.792 0.268 -73.746 0.96 15.55 0.96 15.55 0.268 -73.746
6189.75 0.266 -73.865 0.961 15.425 0.961 15.425 0.266 -73.865
6214.708 0.264 -73.983 0.961 15.301 0.961 15.301 0.264 -73.983
6239.667 0.262 -74.1 0.962 15.178 0.962 15.178 0.262 -74.1
6264.625 0.26 -74.216 0.962 15.056 0.962 15.056 0.26 -74.216
6289.583 0.258 -74.332 0.963 14.933 0.963 14.933 0.258 -74.332
6314.542 0.256 -74.447 0.963 14.812 0.963 14.812 0.256 -74.447
6339.5 0.254 -74.562 0.964 14.691 0.964 14.691 0.254 -74.562
6364.458 0.252 -74.676 0.965 14.571 0.965 14.571 0.252 -74.676
6389.417 0.25 -74.789 0.965 14.451 0.965 14.451 0.25 -74.789
6414.375 0.248 -74.902 0.966 14.331 0.966 14.331 0.248 -74.902
6439.333 0.246 -75.014 0.966 14.213 0.966 14.213 0.246 -75.014
6464.292 0.244 -75.125 0.967 14.094 0.967 14.094 0.244 -75.125
6489.25 0.242 -75.236 0.967 13.977 0.967 13.977 0.242 -75.236
6514.208 0.24 -75.347 0.968 13.86 0.968 13.86 0.24 -75.347
6539.167 0.238 -75.456 0.968 13.743 0.968 13.743 0.238 -75.456
6564.125 0.236 -75.565 0.969 13.627 0.969 13.627 0.236 -75.565
6589.083 0.234 -75.674 0.969 13.511 0.969 13.511 0.234 -75.674
6614.042 0.232 -75.781 0.969 13.396 0.969 13.396 0.232 -75.781
6639 0.23 -75.889 0.97 13.282 0.97 13.282 0.23 -75.889
6663.958 0.228 -75.995 0.97 13.168 0.97 13.168 0.228 -75.995
6688.917 0.226 -76.101 0.971 13.054 0.971 13.054 0.226 -76.101
6713.875 0.224 -76.207 0.971 12.941 0.971 12.941 0.224 -76.207
6738.833 0.222 -76.312 0.972 12.828 0.972 12.828 0.222 -76.312
6763.792 0.22 -76.416 0.972 12.716 0.972 12.716 0.22 -76.416
6788.75 0.218 -76.519 0.973 12.605 0.973 12.605 0.218 -76.519
6813.708 0.216 -76.623 0.973 12.493 0.973 12.493 0.216 -76.623
6838.667 0.214 -76.725 0.973 12.383 0.973 12.383 0.214 -76.725
6863.625 0.213 -76.827 0.974 12.273 0.974 12.273 0.213 -76.827
6888.583 0.211 -76.928 0.974 12.163 0.974 12.163 0.211 -76.928
6913.542 0.209 -77.029 0.975 12.054 0.975 12.054 0.209 -77.029
6938.5 0.207 -77.129 0.975 11.945 0.975 11.945 0.207 -77.129
6963.458 0.205 -77.229 0.975 11.836 0.975 11.836 0.205 -77.229
6988.417 0.203 -77.328 0.976 11.729 0.976 11.729 0.203 -77.328
7013.375 0.201 -77.427 0.976 11.621 0.976 11.621 0.201 -77.427
7038.333 0.2 -77.524 0.977 11.514 0.977 11.514 0.2 -77.524
7063.292 0.198 -77.622 0.977 11.407 0.977 11.407 0.198 -77.622
7088.25 0.196 -77.719 0.977 11.301 0.977 11.301 0.196 -77.719
7113.208 0.194 -77.815 0.978 11.196 0.978 11.196 0.194 -77.815
7138.167 0.192 -77.91 0.978 11.09 0.978 11.09 0.192 -77.91
7163.125 0.191 -78.006 0.978 10.985 0.978 10.985 0.191 -78.006
7188.083 0.189 -78.1 0.979 10.881 0.979 10.881 0.189 -78.1
7213.042 0.187 -78.194 0.979 10.777 0.979 10.777 0.187 -78.194
7238 0.185 -78.287 0.979 10.673 0.979 10.673 0.185 -78.287
7262.958 0.183 -78.38 0.98 10.57 0.98 10.57 0.183 -78.38
7287.917 0.182 -78.472 0.98 10.467 0.98 10.467 0.182 -78.472
7312.875 0.18 -78.564 0.98 10.365 0.98 10.365 0.18 -78.564
7337.833 0.178 -78.655 0.981 10.263 0.981 10.263 0.178 -78.655
7362.792 0.176 -78.746 0.981 10.161 0.981 10.161 0.176 -78.746
7387.75 0.175 -78.836 0.981 10.06 0.981 10.06 0.175 -78.836
7412.708 0.173 -78.925 0.982 9.959 0.982 9.959 0.173 -78.925
7437.667 0.171 -79.014 0.982 9.859 0.982 9.859 0.171 -79.014
7462.625 0.17 -79.102 0.982 9.759 0.982 9.759 0.17 -79.102
7487.583 0.168 -79.19 0.982 9.659 0.982 9.659 0.168 -79.19
7512.542 0.166 -79.277 0.983 9.56 0.983 9.56 0.166 -79.277
7537.5 0.164 -79.364 0.983 9.461 0.983 9.461 0.164 -79.364
7562.458 0.163 -79.45 0.983 9.363 0.983 9.363 0.163 -79.45
7587.417 0.161 -79.535 0.984 9.264 0.984 9.264 0.161 -79.535
7612.375 0.159 -79.62 0.984 9.167 0.984 9.167 0.159 -79.62
7637.333 0.158 -79.704 0.984 9.069 0.984 9.069 0.158 -79.704
7662.292 0.156 -79.787 0.984 8.972 0.984 8.972 0.156 -79.787
7687.25 0.154 -79.87 0.985 8.875 0.985 8.875 0.154 -79.87
7712.208 0.153 -79.953 0.985 8.779 0.985 8.779 0.153 -79.953
7737.167 0.151 -80.035 0.985 8.683 0.985 8.683 0.151 -80.035
7762.125 0.149 -80.116 0.985 8.587 0.985 8.587 0.149 -80.116
7787.083 0.148 -80.196 0.986 8.492 0.986 8.492 0.148 -80.196
7812.042 0.146 -80.276 0.986 8.397 0.986 8.397 0.146 -80.276
7837 0.144 -80.355 0.986 8.302 0.986 8.302 0.144 -80.355
7861.958 0.143 -80.434 0.986 8.208 0.986 8.208 0.143 -80.434
7886.917 0.141 -80.512 0.987 8.114 0.987 8.114 0.141 -80.512
7911.875 0.14 -80.59 0.987 8.021 0.987 8.021 0.14 -80.59
7936.833 0.138 -80.666 0.987 7.927 0.987 7.927 0.138 -80.666
7961.792 0.136 -80.742 0.987 7.834 0.987 7.834 0.136 -80.742
7986.75 0.135 -80.818 0.987 7.742 0.987 7.742 0.135 -80.818
8011.708 0.133 -80.892 0.988 7.649 0.988 7.649 0.133 -80.892
8036.667 0.132 -80.967 0.988 7.557 0.988 7.557 0.132 -80.967
8061.625 0.13 -81.04 0.988 7.466 0.988 7.466 0.13 -81.04
8086.583 0.128 -81.113 0.988 7.374 0.988 7.374 0.128 -81.113
8111.542 0.127 -81.184 0.989 7.283 0.989 7.283 0.127 -81.184
8136.5 0.125 -81.256 0.989 7.193 0.989 7.193 0.125 -81.256
