# MHZ S MA R 50

50 1 -0.09 1.571e-3 89.909 1.571e-3 89.909 1 -0.09
74.958 1 -0.135 2.355e-3 89.863 2.355e-3 89.863 1 -0.135
99.917 1 -0.18 3.139e-3 89.818 3.139e-3 89.818 1 -0.18
124.875 1 -0.225 3.923e-3 89.772 3.923e-3 89.772 1 -0.225
149.833 1 -0.27 4.707e-3 89.727 4.707e-3 89.727 1 -0.27
174.792 1 -0.315 5.492e-3 89.681 5.492e-3 89.681 1 -0.315
199.75 1 -0.36 6.276e-3 89.636 6.276e-3 89.636 1 -0.36
224.708 1 -0.405 7.06e-3 89.591 7.06e-3 89.591 1 -0.405
249.667 1 -0.449 7.844e-3 89.545 7.844e-3 89.545 1 -0.449
274.625 1 -0.494 8.629e-3 89.5 8.629e-3 89.5 1 -0.494
299.583 1 -0.539 9.413e-3 89.454 9.413e-3 89.454 1 -0.539
324.542 1 -0.584 0.01 89.409 0.01 89.409 1 -0.584
349.5 1 -0.629 0.011 89.363 0.011 89.363 1 -0.629
374.458 1 -0.674 0.012 89.318 0.012 89.318 1 -0.674
399.417 1 -0.719 0.013 89.272 0.013 89.272 1 -0.719
424.375 1 -0.764 0.013 89.227 0.013 89.227 1 -0.764
449.333 1 -0.809 0.014 89.181 0.014 89.181 1 -0.809
474.292 1 -0.854 0.015 89.135 0.015 89.135 1 -0.854
499.25 1 -0.899 0.016 89.09 0.016 89.09 1 -0.899
524.208 1 -0.944 0.016 89.044 0.016 89.044 1 -0.944
549.167 1 -0.989 0.017 88.999 0.017 88.999 1 -0.989
574.125 1 -1.034 0.018 88.953 0.018 88.953 1 -1.034
599.083 1 -1.079 0.019 88.908 0.019 88.908 1 -1.079
624.042 1 -1.124 0.02 88.862 0.02 88.862 1 -1.124
649 1 -1.169 0.02 88.817 0.02 88.817 1 -1.169
673.958 1 -1.214 0.021 88.771 0.021 88.771 1 -1.214
698.917 1 -1.259 0.022 88.725 0.022 88.725 1 -1.259
723.875 1 -1.304 0.023 88.68 0.023 88.68 1 -1.304
748.833 1 -1.349 0.024 88.634 0.024 88.634 1 -1.349
773.792 1 -1.394 0.024 88.589 0.024 88.589 1 -1.394
798.75 1 -1.44 0.025 88.543 0.025 88.543 1 -1.44
823.708 1 -1.485 0.026 88.497 0.026 88.497 1 -1.485
848.667 1 -1.53 0.027 88.452 0.027 88.452 1 -1.53
873.625 1 -1.575 0.027 88.406 0.027 88.406 1 -1.575
898.583 1 -1.62 0.028 88.36 0.028 88.36 1 -1.62
923.542 1 -1.665 0.029 88.315 0.029 88.315 1 -1.665
948.5 1 -1.71 0.03 88.269 0.03 88.269 1 -1.71
973.458 1 -1.755 0.031 88.223 0.031 88.223 1 -1.755
998.417 0.999 -1.801 0.031 88.177 0.031 88.177 0.999 -1.801
1023.375 0.999 -1.846 0.032 88.132 0.032 88.132 0.999 -1.846
1048.333 0.999 -1.891 0.033 88.086 0.033 88.086 0.999 -1.891
1073.292 0.999 -1.936 0.034 88.04 0.034 88.04 0.999 -1.936
1098.25 0.999 -1.982 0.035 87.994 0.035 87.994 0.999 -1.982
1123.208 0.999 -2.027 0.035 87.949 0.035 87.949 0.999 -2.027
1148.167 0.999 -2.072 0.036 87.903 0.036 87.903 0.999 -2.072
1173.125 0.999 -2.117 0.037 87.857 0.037 87.857 0.999 -2.117
1198.083 0.999 -2.163 0.038 87.811 0.038 87.811 0.999 -2.163
1223.042 0.999 -2.208 0.039 87.765 0.039 87.765 0.999 -2.208
1248 0.999 -2.253 0.039 87.719 0.039 87.719 0.999 -2.253
1272.958 0.999 -2.299 0.04 87.673 0.04 87.673 0.999 -2.299
1297.917 0.999 -2.344 0.041 87.627 0.041 87.627 0.999 -2.344
1322.875 0.999 -2.389 0.042 87.582 0.042 87.582 0.999 -2.389
1347.833 0.999 -2.435 0.042 87.536 0.042 87.536 0.999 -2.435
1372.792 0.999 -2.48 0.043 87.49 0.043 87.49 0.999 -2.48
1397.75 0.999 -2.526 0.044 87.444 0.044 87.444 0.999 -2.526
1422.708 0.999 -2.571 0.045 87.398 0.045 87.398 0.999 -2.571
1447.667 0.999 -2.616 0.046 87.352 0.046 87.352 0.999 -2.616
1472.625 0.999 -2.662 0.046 87.306 0.046 87.306 0.999 -2.662
1497.583 0.999 -2.707 0.047 87.26 0.047 87.26 0.999 -2.707
1522.542 0.999 -2.753 0.048 87.213 0.048 87.213 0.999 -2.753
1547.5 0.999 -2.799 0.049 87.167 0.049 87.167 0.999 -2.799
1572.458 0.999 -2.844 0.05 87.121 0.05 87.121 0.999 -2.844
1597.417 0.999 -2.89 0.05 87.075 0.05 87.075 0.999 -2.89
1622.375 0.999 -2.935 0.051 87.029 0.051 87.029 0.999 -2.935
1647.333 0.999 -2.981 0.052 86.983 0.052 86.983 0.999 -2.981
1672.292 0.999 -3.027 0.053 86.937 0.053 86.937 0.999 -3.027
1697.25 0.999 -3.072 0.054 86.89 0.054 86.89 0.999 -3.072
1722.208 0.998 -3.118 0.054 86.844 0.054 86.844 0.998 -3.118
1747.167 0.998 -3.164 0.055 86.798 0.055 86.798 0.998 -3.164
1772.125 0.998 -3.209 0.056 86.751 0.056 86.751 0.998 -3.209
1797.083 0.998 -3.255 0.057 86.705 0.057 86.705 0.998 -3.255
1822.042 0.998 -3.301 0.058 86.659 0.058 86.659 0.998 -3.301
1847 0.998 -3.347 0.058 86.612 0.058 86.612 0.998 -3.347
1871.958 0.998 -3.393 0.059 86.566 0.059 86.566 0.998 -3.393
1896.917 0.998 -3.439 0.06 86.52 0.06 86.52 0.998 -3.439
1921.875 0.998 -3.484 0.061 86.473 0.061 86.473 0.998 -3.484
1946.833 0.998 -3.53 0.062 86.427 0.062 86.427 0.998 -3.53
1971.792 0.998 -3.576 0.062 86.38 0.062 86.38 0.998 -3.576
1996.75 0.998 -3.622 0.063 86.334 0.063 86.334 0.998 -3.622
2021.708 0.998 -3.668 0.064 86.287 0.064 86.287 0.998 -3.668
2046.667 0.998 -3.714 0.065 86.24 0.065 86.24 0.998 -3.714
2071.625 0.998 -3.76 0.066 86.194 0.066 86.194 0.998 -3.76
2096.583 0.998 -3.806 0.066 86.147 0.066 86.147 0.998 -3.806
2121.542 0.998 -3.852 0.067 86.101 0.067 86.101 0.998 -3.852
2146.5 0.998 -3.899 0.068 86.054 0.068 86.054 0.998 -3.899
2171.458 0.998 -3.945 0.069 86.007 0.069 86.007 0.998 -3.945
2196.417 0.998 -3.991 0.07 85.96 0.07 85.96 0.998 -3.991
2221.375 0.997 -4.037 0.07 85.914 0.07 85.914 0.997 -4.037
2246.333 0.997 -4.083 0.071 85.867 0.071 85.867 0.997 -4.083
2271.292 0.997 -4.13 0.072 85.82 0.072 85.82 0.997 -4.13
2296.25 0.997 -4.176 0.073 85.773 0.073 85.773 0.997 -4.176
2321.208 0.997 -4.222 0.074 85.726 0.074 85.726 0.997 -4.222
2346.167 0.997 -4.269 0.074 85.679 0.074 85.679 0.997 -4.269
2371.125 0.997 -4.315 0.075 85.632 0.075 85.632 0.997 -4.315
2396.083 0.997 -4.362 0.076 85.585 0.076 85.585 0.997 -4.362
2421.042 0.997 -4.408 0.077 85.538 0.077 85.538 0.997 -4.408
2446 0.997 -4.455 0.078 85.491 0.078 85.491 0.997 -4.455
2470.958 0.997 -4.501 0.078 85.444 0.078 85.444 0.997 -4.501
2495.917 0.997 -4.548 0.079 85.397 0.079 85.397 0.997 -4.548
2520.875 0.997 -4.594 0.08 85.35 0.08 85.35 0.997 -4.594
2545.833 0.997 -4.641 0.081 85.302 0.081 85.302 0.997 -4.641
2570.792 0.997 -4.688 0.082 85.255 0.082 85.255 0.997 -4.688
2595.75 0.997 -4.734 0.083 85.208 0.083 85.208 0.997 -4.734
2620.708 0.996 -4.781 0.083 85.161 0.083 85.161 0.996 -4.781
2645.667 0.996 -4.828 0.084 85.113 0.084 85.113 0.996 -4.828
2670.625 0.996 -4.875 0.085 85.066 0.085 85.066 0.996 -4.875
2695.583 0.996 -4.921 0.086 85.018 0.086 85.018 0.996 -4.921
2720.542 0.996 -4.968 0.087 84.971 0.087 84.971 0.996 -4.968
2745.5 0.996 -5.015 0.087 84.924 0.087 84.924 0.996 -5.015
2770.458 0.996 -5.062 0.088 84.876 0.088 84.876 0.996 -5.062
2795.417 0.996 -5.109 0.089 84.828 0.089 84.828 0.996 -5.109
2820.375 0.996 -5.156 0.09 84.781 0.09 84.781 0.996 -5.156
2845.333 0.996 -5.203 0.091 84.733 0.091 84.733 0.996 -5.203
2870.292 0.996 -5.25 0.092 84.685 0.092 84.685 0.996 -5.25
2895.25 0.996 -5.298 0.092 84.638 0.092 84.638 0.996 -5.298
2920.208 0.996 -5.345 0.093 84.59 0.093 84.59 0.996 -5.345
2945.167 0.995 -5.392 0.094 84.542 0.094 84.542 0.995 -5.392
2970.125 0.995 -5.439 0.095 84.494 0.095 84.494 0.995 -5.439
2995.083 0.995 -5.487 0.096 84.446 0.096 84.446 0.995 -5.487
3020.042 0.995 -5.534 0.096 84.398 0.096 84.398 0.995 -5.534
3045 0.995 -5.581 0.097 84.35 0.097 84.35 0.995 -5.581
3069.958 0.995 -5.629 0.098 84.302 0.098 84.302 0.995 -5.629
3094.917 0.995 -5.676 0.099 84.254 0.099 84.254 0.995 -5.676
3119.875 0.995 -5.724 0.1 84.206 0.1 84.206 0.995 -5.724
3144.833 0.995 -5.771 0.101 84.158 0.101 84.158 0.995 -5.771
3169.792 0.995 -5.819 0.101 84.11 0.101 84.11 0.995 -5.819
3194.75 0.995 -5.867 0.102 84.062 0.102 84.062 0.995 -5.867
3219.708 0.995 -5.914 0.103 84.013 0.103 84.013 0.995 -5.914
3244.667 0.994 -5.962 0.104 83.965 0.104 83.965 0.994 -5.962
3269.625 0.994 -6.01 0.105 83.917 0.105 83.917 0.994 -6.01
3294.583 0.994 -6.058 0.106 83.868 0.106 83.868 0.994 -6.058
3319.542 0.994 -6.106 0.106 83.82 0.106 83.82 0.994 -6.106
3344.5 0.994 -6.154 0.107 83.771 0.107 83.771 0.994 -6.154
3369.458 0.994 -6.202 0.108 83.723 0.108 83.723 0.994 -6.202
3394.417 0.994 -6.25 0.109 83.674 0.109 83.674 0.994 -6.25
3419.375 0.994 -6.298 0.11 83.625 0.11 83.625 0.994 -6.298
3444.333 0.994 -6.346 0.111 83.577 0.111 83.577 0.994 -6.346
3469.292 0.994 -6.394 0.111 83.528 0.111 83.528 0.994 -6.394
3494.25 0.994 -6.442 0.112 83.479 0.112 83.479 0.994 -6.442
3519.208 0.993 -6.49 0.113 83.43 0.113 83.43 0.993 -6.49
3544.167 0.993 -6.539 0.114 83.381 0.114 83.381 0.993 -6.539
3569.125 0.993 -6.587 0.115 83.332 0.115 83.332 0.993 -6.587
3594.083 0.993 -6.635 0.116 83.283 0.116 83.283 0.993 -6.635
3619.042 0.993 -6.684 0.116 83.234 0.116 83.234 0.993 -6.684
3644 0.993 -6.732 0.117 83.185 0.117 83.185 0.993 -6.732
3668.958 0.993 -6.781 0.118 83.136 0.118 83.136 0.993 -6.781
3693.917 0.993 -6.83 0.119 83.087 0.119 83.087 0.993 -6.83
3718.875 0.993 -6.878 0.12 83.038 0.12 83.038 0.993 -6.878
3743.833 0.993 -6.927 0.121 82.988 0.121 82.988 0.993 -6.927
3768.792 0.992 -6.976 0.121 82.939 0.121 82.939 0.992 -6.976
3793.75 0.992 -7.025 0.122 82.89 0.122 82.89 0.992 -7.025
3818.708 0.992 -7.073 0.123 82.84 0.123 82.84 0.992 -7.073
3843.667 0.992 -7.122 0.124 82.791 0.124 82.791 0.992 -7.122
3868.625 0.992 -7.171 0.125 82.741 0.125 82.741 0.992 -7.171
3893.583 0.992 -7.22 0.126 82.691 0.126 82.691 0.992 -7.22
3918.542 0.992 -7.269 0.127 82.642 0.127 82.642 0.992 -7.269
3943.5 0.992 -7.319 0.127 82.592 0.127 82.592 0.992 -7.319
3968.458 0.992 -7.368 0.128 82.542 0.128 82.542 0.992 -7.368
3993.417 0.991 -7.417 0.129 82.492 0.129 82.492 0.991 -7.417
4018.375 0.991 -7.466 0.13 82.442 0.13 82.442 0.991 -7.466
4043.333 0.991 -7.516 0.131 82.392 0.131 82.392 0.991 -7.516
4068.292 0.991 -7.565 0.132 82.342 0.132 82.342 0.991 -7.565
4093.25 0.991 -7.615 0.133 82.292 0.133 82.292 0.991 -7.615
4118.208 0.991 -7.664 0.133 82.242 0.133 82.242 0.991 -7.664
4143.167 0.991 -7.714 0.134 82.192 0.134 82.192 0.991 -7.714
4168.125 0.991 -7.764 0.135 82.141 0.135 82.141 0.991 -7.764
4193.083 0.99 -7.813 0.136 82.091 0.136 82.091 0.99 -7.813
4218.042 0.99 -7.863 0.137 82.041 0.137 82.041 0.99 -7.863
4243 0.99 -7.913 0.138 81.99 0.138 81.99 0.99 -7.913
4267.958 0.99 -7.963 0.139 81.94 0.139 81.94 0.99 -7.963
4292.917 0.99 -8.013 0.139 81.889 0.139 81.889 0.99 -8.013
4317.875 0.99 -8.063 0.14 81.838 0.14 81.838 0.99 -8.063
4342.833 0.99 -8.113 0.141 81.788 0.141 81.788 0.99 -8.113
4367.792 0.99 -8.163 0.142 81.737 0.142 81.737 0.99 -8.163
4392.75 0.989 -8.213 0.143 81.686 0.143 81.686 0.989 -8.213
4417.708 0.989 -8.264 0.144 81.635 0.144 81.635 0.989 -8.264
4442.667 0.989 -8.314 0.145 81.584 0.145 81.584 0.989 -8.314
4467.625 0.989 -8.364 0.145 81.533 0.145 81.533 0.989 -8.364
4492.583 0.989 -8.415 0.146 81.482 0.146 81.482 0.989 -8.415
4517.542 0.989 -8.465 0.147 81.431 0.147 81.431 0.989 -8.465
4542.5 0.989 -8.516 0.148 81.38 0.148 81.38 0.989 -8.516
4567.458 0.989 -8.567 0.149 81.328 0.149 81.328 0.989 -8.567
4592.417 0.988 -8.617 0.15 81.277 0.15 81.277 0.988 -8.617
4617.375 0.988 -8.668 0.151 81.225 0.151 81.225 0.988 -8.668
4642.333 0.988 -8.719 0.152 81.174 0.152 81.174 0.988 -8.719
4667.292 0.988 -8.77 0.152 81.122 0.152 81.122 0.988 -8.77
4692.25 0.988 -8.821 0.153 81.071 0.153 81.071 0.988 -8.821
4717.208 0.988 -8.872 0.154 81.019 0.154 81.019 0.988 -8.872
4742.167 0.988 -8.923 0.155 80.967 0.155 80.967 0.988 -8.923
4767.125 0.987 -8.975 0.156 80.915 0.156 80.915 0.987 -8.975
4792.083 0.987 -9.026 0.157 80.863 0.157 80.863 0.987 -9.026
4817.042 0.987 -9.077 0.158 80.811 0.158 80.811 0.987 -9.077
4842 0.987 -9.129 0.159 80.759 0.159 80.759 0.987 -9.129
4866.958 0.987 -9.18 0.16 80.707 0.16 80.707 0.987 -9.18
4891.917 0.987 -9.232 0.16 80.655 0.16 80.655 0.987 -9.232
4916.875 0.987 -9.283 0.161 80.603 0.161 80.603 0.987 -9.283
4941.833 0.986 -9.335 0.162 80.55 0.162 80.55 0.986 -9.335
4966.792 0.986 -9.387 0.163 80.498 0.163 80.498 0.986 -9.387
4991.75 0.986 -9.439 0.164 80.445 0.164 80.445 0.986 -9.439
5016.708 0.986 -9.491 0.165 80.393 0.165 80.393 0.986 -9.491
5041.667 0.986 -9.543 0.166 80.34 0.166 80.34 0.986 -9.543
5066.625 0.986 -9.595 0.167 80.287 0.167 80.287 0.986 -9.595
5091.583 0.986 -9.647 0.168 80.234 0.168 80.234 0.986 -9.647
5116.542 0.985 -9.699 0.168 80.182 0.168 80.182 0.985 -9.699
5141.5 0.985 -9.752 0.169 80.129 0.169 80.129 0.985 -9.752
5166.458 0.985 -9.804 0.17 80.076 0.17 80.076 0.985 -9.804
5191.417 0.985 -9.856 0.171 80.022 0.171 80.022 0.985 -9.856
5216.375 0.985 -9.909 0.172 79.969 0.172 79.969 0.985 -9.909
5241.333 0.985 -9.962 0.173 79.916 0.173 79.916 0.985 -9.962
5266.292 0.984 -10.014 0.174 79.862 0.174 79.862 0.984 -10.014
5291.25 0.984 -10.067 0.175 79.809 0.175 79.809 0.984 -10.067
5316.208 0.984 -10.12 0.176 79.755 0.176 79.755 0.984 -10.12
5341.167 0.984 -10.173 0.177 79.702 0.177 79.702 0.984 -10.173
5366.125 0.984 -10.226 0.178 79.648 0.178 79.648 0.984 -10.226
5391.083 0.984 -10.279 0.178 79.594 0.178 79.594 0.984 -10.279
5416.042 0.983 -10.332 0.179 79.54 0.179 79.54 0.983 -10.332
5441 0.983 -10.386 0.18 79.486 0.18 79.486 0.983 -10.386
5465.958 0.983 -10.439 0.181 79.432 0.181 79.432 0.983 -10.439
5490.917 0.983 -10.493 0.182 79.378 0.182 79.378 0.983 -10.493
5515.875 0.983 -10.546 0.183 79.324 0.183 79.324 0.983 -10.546
5540.833 0.983 -10.6 0.184 79.27 0.184 79.27 0.983 -10.6
5565.792 0.982 -10.653 0.185 79.215 0.185 79.215 0.982 -10.653
5590.75 0.982 -10.707 0.186 79.161 0.186 79.161 0.982 -10.707
5615.708 0.982 -10.761 0.187 79.106 0.187 79.106 0.982 -10.761
5640.667 0.982 -10.815 0.188 79.052 0.188 79.052 0.982 -10.815
5665.625 0.982 -10.869 0.189 78.997 0.189 78.997 0.982 -10.869
5690.583 0.981 -10.923 0.189 78.942 0.189 78.942 0.981 -10.923
5715.542 0.981 -10.977 0.19 78.887 0.19 78.887 0.981 -10.977
5740.5 0.981 -11.032 0.191 78.832 0.191 78.832 0.981 -11.032
5765.458 0.981 -11.086 0.192 78.777 0.192 78.777 0.981 -11.086
5790.417 0.981 -11.141 0.193 78.722 0.193 78.722 0.981 -11.141
5815.375 0.981 -11.195 0.194 78.667 0.194 78.667 0.981 -11.195
5840.333 0.98 -11.25 0.195 78.611 0.195 78.611 0.98 -11.25
5865.292 0.98 -11.305 0.196 78.556 0.196 78.556 0.98 -11.305
5890.25 0.98 -11.36 0.197 78.5 0.197 78.5 0.98 -11.36
5915.208 0.98 -11.415 0.198 78.445 0.198 78.445 0.98 -11.415
5940.167 0.98 -11.47 0.199 78.389 0.199 78.389 0.98 -11.47
5965.125 0.979 -11.525 0.2 78.333 0.2 78.333 0.979 -11.525
5990.083 0.979 -11.58 0.201 78.277 0.201 78.277 0.979 -11.58
6015.042 0.979 -11.635 0.202 78.221 0.202 78.221 0.979 -11.635
6040 0.979 -11.691 0.203 78.165 0.203 78.165 0.979 -11.691
6064.958 0.979 -11.746 0.204 78.109 0.204 78.109 0.979 -11.746
6089.917 0.978 -11.802 0.205 78.052 0.205 78.052 0.978 -11.802
6114.875 0.978 -11.858 0.205 77.996 0.205 77.996 0.978 -11.858
6139.833 0.978 -11.913 0.206 77.939 0.206 77.939 0.978 -11.913
6164.792 0.978 -11.969 0.207 77.883 0.207 77.883 0.978 -11.969
6189.75 0.978 -12.025 0.208 77.826 0.208 77.826 0.978 -12.025
6214.708 0.977 -12.081 0.209 77.769 0.209 77.769 0.977 -12.081
6239.667 0.977 -12.138 0.21 77.712 0.21 77.712 0.977 -12.138
6264.625 0.977 -12.194 0.211 77.655 0.211 77.655 0.977 -12.194
6289.583 0.977 -12.25 0.212 77.598 0.212 77.598 0.977 -12.25
6314.542 0.976 -12.307 0.213 77.541 0.213 77.541 0.976 -12.307
6339.5 0.976 -12.364 0.214 77.484 0.214 77.484 0.976 -12.364
6364.458 0.976 -12.42 0.215 77.426 0.215 77.426 0.976 -12.42
6389.417 0.976 -12.477 0.216 77.369 0.216 77.369 0.976 -12.477
6414.375 0.976 -12.534 0.217 77.311 0.217 77.311 0.976 -12.534
6439.333 0.975 -12.591 0.218 77.253 0.218 77.253 0.975 -12.591
6464.292 0.975 -12.648 0.219 77.195 0.219 77.195 0.975 -12.648
6489.25 0.975 -12.705 0.22 77.137 0.22 77.137 0.975 -12.705
6514.208 0.975 -12.763 0.221 77.079 0.221 77.079 0.975 -12.763
6539.167 0.974 -12.82 0.222 77.021 0.222 77.021 0.974 -12.82
6564.125 0.974 -12.878 0.223 76.963 0.223 76.963 0.974 -12.878
6589.083 0.974 -12.935 0.224 76.904 0.224 76.904 0.974 -12.935
6614.042 0.974 -12.993 0.225 76.846 0.225 76.846 0.974 -12.993
6639 0.974 -13.051 0.226 76.787 0.226 76.787 0.974 -13.051
6663.958 0.973 -13.109 0.227 76.729 0.227 76.729 0.973 -13.109
6688.917 0.973 -13.167 0.228 76.67 0.228 76.67 0.973 -13.167
6713.875 0.973 -13.225 0.229 76.611 0.229 76.611 0.973 -13.225
6738.833 0.973 -13.284 0.23 76.552 0.23 76.552 0.973 -13.284
6763.792 0.972 -13.342 0.231 76.492 0.231 76.492 0.972 -13.342
6788.75 0.972 -13.401 0.232 76.433 0.232 76.433 0.972 -13.401
6813.708 0.972 -13.459 0.233 76.374 0.233 76.374 0.972 -13.459
6838.667 0.972 -13.518 0.234 76.314 0.234 76.314 0.972 -13.518
6863.625 0.971 -13.577 0.235 76.255 0.235 76.255 0.971 -13.577
6888.583 0.971 -13.636 0.236 76.195 0.236 76.195 0.971 -13.636
6913.542 0.971 -13.695 0.237 76.135 0.237 76.135 0.971 -13.695
6938.5 0.971 -13.754 0.238 76.075 0.238 76.075 0.971 -13.754
6963.458 0.97 -13.814 0.239 76.015 0.239 76.015 0.97 -13.814
6988.417 0.97 -13.873 0.24 75.955 0.24 75.955 0.97 -13.873
7013.375 0.97 -13.933 0.241 75.894 0.241 75.894 0.97 -13.933
7038.333 0.97 -13.992 0.242 75.834 0.242 75.834 0.97 -13.992
7063.292 0.969 -14.052 0.243 75.773 0.243 75.773 0.969 -14.052
7088.25 0.969 -14.112 0.244 75.712 0.244 75.712 0.969 -14.112
7113.208 0.969 -14.172 0.245 75.652 0.245 75.652 0.969 -14.172
7138.167 0.969 -14.232 0.246 75.591 0.246 75.591 0.969 -14.232
7163.125 0.968 -14.293 0.247 75.53 0.247 75.53 0.968 -14.293
7188.083 0.968 -14.353 0.248 75.468 0.248 75.468 0.968 -14.353
7213.042 0.968 -14.414 0.249 75.407 0.249 75.407 0.968 -14.414
7238 0.967 -14.474 0.25 75.346 0.25 75.346 0.967 -14.474
7262.958 0.967 -14.535 0.251 75.284 0.251 75.284 0.967 -14.535
7287.917 0.967 -14.596 0.252 75.222 0.252 75.222 0.967 -14.596
7312.875 0.967 -14.657 0.253 75.16 0.253 75.16 0.967 -14.657
7337.833 0.966 -14.718 0.254 75.098 0.254 75.098 0.966 -14.718
7362.792 0.966 -14.78 0.255 75.036 0.255 75.036 0.966 -14.78
7387.75 0.966 -14.841 0.256 74.974 0.256 74.974 0.966 -14.841
7412.708 0.966 -14.903 0.257 74.912 0.257 74.912 0.966 -14.903
7437.667 0.965 -14.964 0.258 74.849 0.258 74.849 0.965 -14.964
7462.625 0.965 -15.026 0.259 74.787 0.259 74.787 0.965 -15.026
7487.583 0.965 -15.088 0.26 74.724 0.26 74.724 0.965 -15.088
7512.542 0.964 -15.15 0.261 74.661 0.261 74.661 0.964 -15.15
7537.5 0.964 -15.212 0.262 74.598 0.262 74.598 0.964 -15.212
7562.458 0.964 -15.275 0.263 74.535 0.263 74.535 0.964 -15.275
7587.417 0.964 -15.337 0.265 74.471 0.265 74.471 0.964 -15.337
7612.375 0.963 -15.4 0.266 74.408 0.266 74.408 0.963 -15.4
7637.333 0.963 -15.463 0.267 74.344 0.267 74.344 0.963 -15.463
7662.292 0.963 -15.525 0.268 74.281 0.268 74.281 0.963 -15.525
7687.25 0.962 -15.588 0.269 74.217 0.269 74.217 0.962 -15.588
7712.208 0.962 -15.652 0.27 74.153 0.27 74.153 0.962 -15.652
7737.167 0.962 -15.715 0.271 74.089 0.271 74.089 0.962 -15.715
7762.125 0.961 -15.778 0.272 74.025 0.272 74.025 0.961 -15.778
7787.083 0.961 -15.842 0.273 73.96 0.273 73.96 0.961 -15.842
7812.042 0.961 -15.906 0.274 73.896 0.274 73.896 0.961 -15.906
7837 0.96 -15.969 0.275 73.831 0.275 73.831 0.96 -15.969
7861.958 0.96 -16.033 0.276 73.766 0.276 73.766 0.96 -16.033
7886.917 0.96 -16.098 0.277 73.701 0.277 73.701 0.96 -16.098
7911.875 0.959 -16.162 0.278 73.636 0.278 73.636 0.959 -16.162
7936.833 0.959 -16.226 0.279 73.571 0.279 73.571 0.959 -16.226
7961.792 0.959 -16.291 0.281 73.505 0.281 73.505 0.959 -16.291
7986.75 0.959 -16.355 0.282 73.44 0.282 73.44 0.959 -16.355
8011.708 0.958 -16.42 0.283 73.374 0.283 73.374 0.958 -16.42
8036.667 0.958 -16.485 0.284 73.308 0.284 73.308 0.958 -16.485
8061.625 0.958 -16.55 0.285 73.242 0.285 73.242 0.958 -16.55
8086.583 0.957 -16.616 0.286 73.176 0.286 73.176 0.957 -16.616
8111.542 0.957 -16.681 0.287 73.11 0.287 73.11 0.957 -16.681
8136.5 0.957 -16.747 0.288 73.043 0.288 73.043 0.957 -16.747
8161.458 0.956 -16.813 0.289 72.977 0.289 72.977 0.956 -16.813
8186.417 0.956 -16.878 0.29 72.91 0.29 72.91 0.956 -16.878
8211.375 0.956 -16.944 0.291 72.843 0.291 72.843 0.956 -16.944
8236.333 0.955 -17.011 0.293 72.776 0.293 72.776 0.955 -17.011
8261.292 0.955 -17.077 0.294 72.709 0.294 72.709 0.955 -17.077
8286.25 0.954 -17.143 0.295 72.641 0.295 72.641 0.954 -17.143
8311.208 0.954 -17.21 0.296 72.574 0.296 72.574 0.954 -17.21
8336.167 0.954 -17.277 0.297 72.506 0.297 72.506 0.954 -17.277
8361.125 0.953 -17.344 0.298 72.438 0.298 72.438 0.953 -17.344
