# MHZ S MA R 50

50 0.632 -50.818 0.775 39.175 0.775 39.175 0.632 -50.818
74.958 0.477 -61.509 0.879 28.48 0.879 28.48 0.477 -61.509
99.917 0.376 -67.893 0.926 22.092 0.926 22.092 0.376 -67.893
124.875 0.308 -72.048 0.951 17.935 0.951 17.935 0.308 -72.048
149.833 0.259 -74.943 0.966 15.035 0.966 15.035 0.259 -74.943
174.792 0.223 -77.071 0.975 12.904 0.975 12.904 0.223 -77.071
199.75 0.195 -78.699 0.981 11.272 0.981 11.272 0.195 -78.699
224.708 0.173 -79.986 0.985 9.982 0.985 9.982 0.173 -79.986
249.667 0.155 -81.028 0.988 8.935 0.988 8.935 0.155 -81.028
274.625 0.14 -81.892 0.99 8.068 0.99 8.068 0.14 -81.892
299.583 0.128 -82.619 0.992 7.337 0.992 7.337 0.128 -82.619
324.542 0.117 -83.241 0.993 6.71 0.993 6.71 0.117 -83.241
349.5 0.107 -83.78 0.994 6.167 0.994 6.167 0.107 -83.78
374.458 0.099 -84.251 0.995 5.691 0.995 5.691 0.099 -84.251
399.417 0.092 -84.669 0.996 5.269 0.996 5.269 0.092 -84.669
424.375 0.085 -85.041 0.996 4.892 0.996 4.892 0.085 -85.041
449.333 0.079 -85.375 0.997 4.553 0.997 4.553 0.079 -85.375
474.292 0.074 -85.677 0.997 4.245 0.997 4.245 0.074 -85.677
499.25 0.069 -85.952 0.998 3.965 0.998 3.965 0.069 -85.952
524.208 0.065 -86.204 0.998 3.708 0.998 3.708 0.065 -86.204
549.167 0.061 -86.435 0.998 3.47 0.998 3.47 0.061 -86.435
574.125 0.057 -86.649 0.998 3.25 0.998 3.25 0.057 -86.649
599.083 0.053 -86.847 0.998 3.046 0.998 3.046 0.053 -86.847
624.042 0.05 -87.03 0.999 2.855 0.999 2.855 0.05 -87.03
649 0.047 -87.202 0.999 2.675 0.999 2.675 0.047 -87.202
673.958 0.044 -87.362 0.999 2.507 0.999 2.507 0.044 -87.362
698.917 0.041 -87.513 0.999 2.348 0.999 2.348 0.041 -87.513
723.875 0.038 -87.654 0.999 2.197 0.999 2.197 0.038 -87.654
748.833 0.036 -87.786 0.999 2.054 0.999 2.054 0.036 -87.786
773.792 0.033 -87.911 0.999 1.918 0.999 1.918 0.033 -87.911
798.75 0.031 -88.028 0.999 1.788 0.999 1.788 0.031 -88.028
823.708 0.029 -88.139 0.999 1.664 0.999 1.664 0.029 -88.139
848.667 0.027 -88.243 1 1.545 1 1.545 0.027 -88.243
873.625 0.025 -88.34 1 1.431 1 1.431 0.025 -88.34
898.583 0.023 -88.431 1 1.321 1 1.321 0.023 -88.431
923.542 0.021 -88.515 1 1.215 1 1.215 0.021 -88.515
948.5 0.019 -88.592 1 1.113 1 1.113 0.019 -88.592
973.458 0.018 -88.662 1 1.014 1 1.014 0.018 -88.662
998.417 0.016 -88.724 1 0.918 1 0.918 0.016 -88.724
1023.375 0.014 -88.777 1 0.826 1 0.826 0.014 -88.777
1048.333 0.013 -88.818 1 0.736 1 0.736 0.013 -88.818
1073.292 0.011 -88.845 1 0.648 1 0.648 0.011 -88.845
1098.25 9.831e-3 -88.854 1 0.563 1 0.563 9.831e-3 -88.854
1123.208 8.385e-3 -88.836 1 0.48 1 0.48 8.385e-3 -88.836
1148.167 6.975e-3 -88.778 1 0.4 1 0.4 6.975e-3 -88.778
1173.125 5.598e-3 -88.655 1 0.321 1 0.321 5.598e-3 -88.655
1198.083 4.253e-3 -88.408 1 0.244 1 0.244 4.253e-3 -88.408
1223.042 2.937e-3 -87.88 1 0.168 1 0.168 2.937e-3 -87.88
1248 1.65e-3 -86.43 1 0.094 1 0.094 1.65e-3 -86.43
1272.958 398.1e-6 -75.422 1 0.022 1 0.022 398.1e-6 -75.422
1297.917 857.9e-6 83.254 1 -0.049 1 -0.049 857.9e-6 83.254
1322.875 2.069e-3 87.109 1 -0.118 1 -0.118 2.069e-3 87.109
1347.833 3.26e-3 88.054 1 -0.187 1 -0.187 3.26e-3 88.054
1372.792 4.431e-3 88.452 1 -0.254 1 -0.254 4.431e-3 88.452
1397.75 5.582e-3 88.653 1 -0.32 1 -0.32 5.582e-3 88.653
1422.708 6.715e-3 88.762 1 -0.385 1 -0.385 6.715e-3 88.762
1447.667 7.83e-3 88.819 1 -0.449 1 -0.449 7.83e-3 88.819
1472.625 8.929e-3 88.846 1 -0.512 1 -0.512 8.929e-3 88.846
1497.583 0.01 88.854 1 -0.574 1 -0.574 0.01 88.854
1522.542 0.011 88.848 1 -0.635 1 -0.635 0.011 88.848
1547.5 0.012 88.832 1 -0.695 1 -0.695 0.012 88.832
1572.458 0.013 88.81 1 -0.755 1 -0.755 0.013 88.81
1597.417 0.014 88.783 1 -0.813 1 -0.813 0.014 88.783
1622.375 0.015 88.752 1 -0.871 1 -0.871 0.015 88.752
1647.333 0.016 88.718 1 -0.929 1 -0.929 0.016 88.718
1672.292 0.017 88.681 1 -0.986 1 -0.986 0.017 88.681
1697.25 0.018 88.643 1 -1.042 1 -1.042 0.018 88.643
1722.208 0.019 88.603 1 -1.097 1 -1.097 0.019 88.603
1747.167 0.02 88.563 1 -1.152 1 -1.152 0.02 88.563
1772.125 0.021 88.521 1 -1.207 1 -1.207 0.021 88.521
1797.083 0.022 88.479 1 -1.26 1 -1.26 0.022 88.479
1822.042 0.023 88.436 1 -1.314 1 -1.314 0.023 88.436
1847 0.024 88.393 1 -1.367 1 -1.367 0.024 88.393
1871.958 0.025 88.349 1 -1.419 1 -1.419 0.025 88.349
1896.917 0.026 88.306 1 -1.471 1 -1.471 0.026 88.306
1921.875 0.027 88.262 1 -1.523 1 -1.523 0.027 88.262
1946.833 0.027 88.218 1 -1.574 1 -1.574 0.027 88.218
1971.792 0.028 88.173 0.999 -1.625 0.999 -1.625 0.028 88.173
1996.75 0.029 88.129 0.999 -1.675 0.999 -1.675 0.029 88.129
2021.708 0.03 88.085 0.999 -1.725 0.999 -1.725 0.03 88.085
2046.667 0.031 88.04 0.999 -1.775 0.999 -1.775 0.031 88.04
2071.625 0.032 87.996 0.999 -1.824 0.999 -1.824 0.032 87.996
2096.583 0.033 87.952 0.999 -1.873 0.999 -1.873 0.033 87.952
2121.542 0.034 87.908 0.999 -1.921 0.999 -1.921 0.034 87.908
2146.5 0.034 87.864 0.999 -1.97 0.999 -1.97 0.034 87.864
2171.458 0.035 87.819 0.999 -2.018 0.999 -2.018 0.035 87.819
2196.417 0.036 87.775 0.999 -2.066 0.999 -2.066 0.036 87.775
2221.375 0.037 87.732 0.999 -2.113 0.999 -2.113 0.037 87.732
2246.333 0.038 87.688 0.999 -2.16 0.999 -2.16 0.038 87.688
2271.292 0.039 87.644 0.999 -2.207 0.999 -2.207 0.039 87.644
2296.25 0.039 87.6 0.999 -2.254 0.999 -2.254 0.039 87.6
2321.208 0.04 87.557 0.999 -2.3 0.999 -2.3 0.04 87.557
2346.167 0.041 87.514 0.999 -2.347 0.999 -2.347 0.041 87.514
2371.125 0.042 87.47 0.999 -2.393 0.999 -2.393 0.042 87.47
2396.083 0.043 87.427 0.999 -2.438 0.999 -2.438 0.043 87.427
2421.042 0.043 87.384 0.999 -2.484 0.999 -2.484 0.043 87.384
2446 0.044 87.341 0.999 -2.529 0.999 -2.529 0.044 87.341
2470.958 0.045 87.298 0.999 -2.574 0.999 -2.574 0.045 87.298
2495.917 0.046 87.255 0.999 -2.619 0.999 -2.619 0.046 87.255
2520.875 0.046 87.213 0.999 -2.664 0.999 -2.664 0.046 87.213
2545.833 0.047 87.17 0.999 -2.709 0.999 -2.709 0.047 87.17
2570.792 0.048 87.128 0.999 -2.753 0.999 -2.753 0.048 87.128
2595.75 0.049 87.085 0.999 -2.797 0.999 -2.797 0.049 87.085
2620.708 0.05 87.043 0.999 -2.841 0.999 -2.841 0.05 87.043
2645.667 0.05 87.001 0.999 -2.885 0.999 -2.885 0.05 87.001
2670.625 0.051 86.959 0.999 -2.929 0.999 -2.929 0.051 86.959
2695.583 0.052 86.917 0.999 -2.972 0.999 -2.972 0.052 86.917
2720.542 0.053 86.875 0.999 -3.016 0.999 -3.016 0.053 86.875
2745.5 0.053 86.834 0.998 -3.059 0.998 -3.059 0.053 86.834
2770.458 0.054 86.792 0.998 -3.102 0.998 -3.102 0.054 86.792
2795.417 0.055 86.75 0.998 -3.145 0.998 -3.145 0.055 86.75
2820.375 0.056 86.709 0.998 -3.188 0.998 -3.188 0.056 86.709
2845.333 0.056 86.668 0.998 -3.231 0.998 -3.231 0.056 86.668
2870.292 0.057 86.626 0.998 -3.273 0.998 -3.273 0.057 86.626
2895.25 0.058 86.585 0.998 -3.316 0.998 -3.316 0.058 86.585
2920.208 0.059 86.544 0.998 -3.358 0.998 -3.358 0.059 86.544
2945.167 0.059 86.503 0.998 -3.4 0.998 -3.4 0.059 86.503
2970.125 0.06 86.462 0.998 -3.442 0.998 -3.442 0.06 86.462
2995.083 0.061 86.421 0.998 -3.484 0.998 -3.484 0.061 86.421
3020.042 0.062 86.381 0.998 -3.526 0.998 -3.526 0.062 86.381
3045 0.062 86.34 0.998 -3.568 0.998 -3.568 0.062 86.34
3069.958 0.063 86.299 0.998 -3.61 0.998 -3.61 0.063 86.299
3094.917 0.064 86.259 0.998 -3.651 0.998 -3.651 0.064 86.259
3119.875 0.064 86.218 0.998 -3.693 0.998 -3.693 0.064 86.218
3144.833 0.065 86.178 0.998 -3.734 0.998 -3.734 0.065 86.178
3169.792 0.066 86.138 0.998 -3.775 0.998 -3.775 0.066 86.138
3194.75 0.067 86.098 0.998 -3.817 0.998 -3.817 0.067 86.098
3219.708 0.067 86.057 0.998 -3.858 0.998 -3.858 0.067 86.057
3244.667 0.068 86.017 0.998 -3.899 0.998 -3.899 0.068 86.017
3269.625 0.069 85.977 0.998 -3.939 0.998 -3.939 0.069 85.977
3294.583 0.069 85.937 0.997 -3.98 0.997 -3.98 0.069 85.937
3319.542 0.07 85.897 0.997 -4.021 0.997 -4.021 0.07 85.897
3344.5 0.071 85.858 0.997 -4.062 0.997 -4.062 0.071 85.858
3369.458 0.072 85.818 0.997 -4.102 0.997 -4.102 0.072 85.818
3394.417 0.072 85.778 0.997 -4.143 0.997 -4.143 0.072 85.778
3419.375 0.073 85.739 0.997 -4.183 0.997 -4.183 0.073 85.739
3444.333 0.074 85.699 0.997 -4.223 0.997 -4.223 0.074 85.699
3469.292 0.074 85.66 0.997 -4.264 0.997 -4.264 0.074 85.66
3494.25 0.075 85.62 0.997 -4.304 0.997 -4.304 0.075 85.62
3519.208 0.076 85.581 0.997 -4.344 0.997 -4.344 0.076 85.581
3544.167 0.076 85.541 0.997 -4.384 0.997 -4.384 0.076 85.541
3569.125 0.077 85.502 0.997 -4.424 0.997 -4.424 0.077 85.502
3594.083 0.078 85.463 0.997 -4.464 0.997 -4.464 0.078 85.463
3619.042 0.079 85.424 0.997 -4.503 0.997 -4.503 0.079 85.424
3644 0.079 85.385 0.997 -4.543 0.997 -4.543 0.079 85.385
3668.958 0.08 85.346 0.997 -4.583 0.997 -4.583 0.08 85.346
3693.917 0.081 85.307 0.997 -4.623 0.997 -4.623 0.081 85.307
3718.875 0.081 85.268 0.997 -4.662 0.997 -4.662 0.081 85.268
3743.833 0.082 85.229 0.997 -4.702 0.997 -4.702 0.082 85.229
3768.792 0.083 85.19 0.996 -4.741 0.996 -4.741 0.083 85.19
3793.75 0.083 85.151 0.996 -4.78 0.996 -4.78 0.083 85.151
3818.708 0.084 85.112 0.996 -4.82 0.996 -4.82 0.084 85.112
3843.667 0.085 85.073 0.996 -4.859 0.996 -4.859 0.085 85.073
3868.625 0.085 85.035 0.996 -4.898 0.996 -4.898 0.085 85.035
3893.583 0.086 84.996 0.996 -4.937 0.996 -4.937 0.086 84.996
3918.542 0.087 84.958 0.996 -4.977 0.996 -4.977 0.087 84.958
3943.5 0.087 84.919 0.996 -5.016 0.996 -5.016 0.087 84.919
3968.458 0.088 84.881 0.996 -5.055 0.996 -5.055 0.088 84.881
3993.417 0.089 84.842 0.996 -5.094 0.996 -5.094 0.089 84.842
4018.375 0.089 84.804 0.996 -5.132 0.996 -5.132 0.089 84.804
4043.333 0.09 84.765 0.996 -5.171 0.996 -5.171 0.09 84.765
4068.292 0.091 84.727 0.996 -5.21 0.996 -5.21 0.091 84.727
4093.25 0.091 84.689 0.996 -5.249 0.996 -5.249 0.091 84.689
4118.208 0.092 84.65 0.996 -5.288 0.996 -5.288 0.092 84.65
4143.167 0.093 84.612 0.996 -5.326 0.996 -5.326 0.093 84.612
4168.125 0.093 84.574 0.996 -5.365 0.996 -5.365 0.093 84.574
4193.083 0.094 84.536 0.995 -5.403 0.995 -5.403 0.094 84.536
4218.042 0.095 84.498 0.995 -5.442 0.995 -5.442 0.095 84.498
4243 0.096 84.46 0.995 -5.48 0.995 -5.48 0.096 84.46
4267.958 0.096 84.422 0.995 -5.519 0.995 -5.519 0.096 84.422
4292.917 0.097 84.384 0.995 -5.557 0.995 -5.557 0.097 84.384
4317.875 0.098 84.346 0.995 -5.596 0.995 -5.596 0.098 84.346
4342.833 0.098 84.308 0.995 -5.634 0.995 -5.634 0.098 84.308
4367.792 0.099 84.27 0.995 -5.672 0.995 -5.672 0.099 84.27
4392.75 0.1 84.232 0.995 -5.71 0.995 -5.71 0.1 84.232
4417.708 0.1 84.194 0.995 -5.749 0.995 -5.749 0.1 84.194
4442.667 0.101 84.157 0.995 -5.787 0.995 -5.787 0.101 84.157
4467.625 0.101 84.119 0.995 -5.825 0.995 -5.825 0.101 84.119
4492.583 0.102 84.081 0.995 -5.863 0.995 -5.863 0.102 84.081
4517.542 0.103 84.043 0.995 -5.901 0.995 -5.901 0.103 84.043
4542.5 0.103 84.006 0.995 -5.939 0.995 -5.939 0.103 84.006
4567.458 0.104 83.968 0.994 -5.977 0.994 -5.977 0.104 83.968
4592.417 0.105 83.931 0.994 -6.015 0.994 -6.015 0.105 83.931
4617.375 0.105 83.893 0.994 -6.053 0.994 -6.053 0.105 83.893
4642.333 0.106 83.855 0.994 -6.091 0.994 -6.091 0.106 83.855
4667.292 0.107 83.818 0.994 -6.129 0.994 -6.129 0.107 83.818
4692.25 0.107 83.78 0.994 -6.166 0.994 -6.166 0.107 83.78
4717.208 0.108 83.743 0.994 -6.204 0.994 -6.204 0.108 83.743
4742.167 0.109 83.706 0.994 -6.242 0.994 -6.242 0.109 83.706
4767.125 0.109 83.668 0.994 -6.28 0.994 -6.28 0.109 83.668
4792.083 0.11 83.631 0.994 -6.317 0.994 -6.317 0.11 83.631
4817.042 0.111 83.594 0.994 -6.355 0.994 -6.355 0.111 83.594
4842 0.111 83.556 0.994 -6.393 0.994 -6.393 0.111 83.556
4866.958 0.112 83.519 0.994 -6.43 0.994 -6.43 0.112 83.519
4891.917 0.113 83.482 0.994 -6.468 0.994 -6.468 0.113 83.482
4916.875 0.113 83.444 0.993 -6.505 0.993 -6.505 0.113 83.444
4941.833 0.114 83.407 0.993 -6.543 0.993 -6.543 0.114 83.407
4966.792 0.115 83.37 0.993 -6.58 0.993 -6.58 0.115 83.37
4991.75 0.115 83.333 0.993 -6.618 0.993 -6.618 0.115 83.333
5016.708 0.116 83.296 0.993 -6.655 0.993 -6.655 0.116 83.296
5041.667 0.117 83.259 0.993 -6.692 0.993 -6.692 0.117 83.259
5066.625 0.117 83.222 0.993 -6.73 0.993 -6.73 0.117 83.222
5091.583 0.118 83.185 0.993 -6.767 0.993 -6.767 0.118 83.185
5116.542 0.118 83.148 0.993 -6.804 0.993 -6.804 0.118 83.148
5141.5 0.119 83.111 0.993 -6.842 0.993 -6.842 0.119 83.111
5166.458 0.12 83.074 0.993 -6.879 0.993 -6.879 0.12 83.074
5191.417 0.12 83.037 0.993 -6.916 0.993 -6.916 0.12 83.037
5216.375 0.121 83 0.993 -6.953 0.993 -6.953 0.121 83
5241.333 0.122 82.963 0.992 -6.99 0.992 -6.99 0.122 82.963
5266.292 0.122 82.926 0.992 -7.027 0.992 -7.027 0.122 82.926
5291.25 0.123 82.889 0.992 -7.065 0.992 -7.065 0.123 82.889
5316.208 0.124 82.852 0.992 -7.102 0.992 -7.102 0.124 82.852
5341.167 0.124 82.815 0.992 -7.139 0.992 -7.139 0.124 82.815
5366.125 0.125 82.779 0.992 -7.176 0.992 -7.176 0.125 82.779
5391.083 0.126 82.742 0.992 -7.213 0.992 -7.213 0.126 82.742
5416.042 0.126 82.705 0.992 -7.25 0.992 -7.25 0.126 82.705
5441 0.127 82.668 0.992 -7.287 0.992 -7.287 0.127 82.668
5465.958 0.127 82.632 0.992 -7.324 0.992 -7.324 0.127 82.632
5490.917 0.128 82.595 0.992 -7.361 0.992 -7.361 0.128 82.595
5515.875 0.129 82.558 0.992 -7.397 0.992 -7.397 0.129 82.558
5540.833 0.129 82.522 0.991 -7.434 0.991 -7.434 0.129 82.522
5565.792 0.13 82.485 0.991 -7.471 0.991 -7.471 0.13 82.485
5590.75 0.131 82.449 0.991 -7.508 0.991 -7.508 0.131 82.449
5615.708 0.131 82.412 0.991 -7.545 0.991 -7.545 0.131 82.412
5640.667 0.132 82.375 0.991 -7.581 0.991 -7.581 0.132 82.375
5665.625 0.133 82.339 0.991 -7.618 0.991 -7.618 0.133 82.339
5690.583 0.133 82.302 0.991 -7.655 0.991 -7.655 0.133 82.302
5715.542 0.134 82.266 0.991 -7.692 0.991 -7.692 0.134 82.266
5740.5 0.134 82.229 0.991 -7.728 0.991 -7.728 0.134 82.229
5765.458 0.135 82.193 0.991 -7.765 0.991 -7.765 0.135 82.193
5790.417 0.136 82.156 0.991 -7.802 0.991 -7.802 0.136 82.156
5815.375 0.136 82.12 0.991 -7.838 0.991 -7.838 0.136 82.12
5840.333 0.137 82.084 0.99 -7.875 0.99 -7.875 0.137 82.084
5865.292 0.138 82.047 0.99 -7.911 0.99 -7.911 0.138 82.047
5890.25 0.138 82.011 0.99 -7.948 0.99 -7.948 0.138 82.011
5915.208 0.139 81.975 0.99 -7.985 0.99 -7.985 0.139 81.975
5940.167 0.14 81.938 0.99 -8.021 0.99 -8.021 0.14 81.938
5965.125 0.14 81.902 0.99 -8.058 0.99 -8.058 0.14 81.902
5990.083 0.141 81.866 0.99 -8.094 0.99 -8.094 0.141 81.866
6015.042 0.141 81.829 0.99 -8.13 0.99 -8.13 0.141 81.829
6040 0.142 81.793 0.99 -8.167 0.99 -8.167 0.142 81.793
6064.958 0.143 81.757 0.99 -8.203 0.99 -8.203 0.143 81.757
6089.917 0.143 81.721 0.99 -8.24 0.99 -8.24 0.143 81.721
6114.875 0.144 81.684 0.989 -8.276 0.989 -8.276 0.144 81.684
6139.833 0.145 81.648 0.989 -8.312 0.989 -8.312 0.145 81.648
6164.792 0.145 81.612 0.989 -8.349 0.989 -8.349 0.145 81.612
6189.75 0.146 81.576 0.989 -8.385 0.989 -8.385 0.146 81.576
6214.708 0.146 81.54 0.989 -8.421 0.989 -8.421 0.146 81.54
6239.667 0.147 81.504 0.989 -8.458 0.989 -8.458 0.147 81.504
6264.625 0.148 81.468 0.989 -8.494 0.989 -8.494 0.148 81.468
6289.583 0.148 81.432 0.989 -8.53 0.989 -8.53 0.148 81.432
6314.542 0.149 81.395 0.989 -8.566 0.989 -8.566 0.149 81.395
6339.5 0.15 81.359 0.989 -8.603 0.989 -8.603 0.15 81.359
6364.458 0.15 81.323 0.989 -8.639 0.989 -8.639 0.15 81.323
6389.417 0.151 81.287 0.988 -8.675 0.988 -8.675 0.151 81.287
6414.375 0.151 81.251 0.988 -8.711 0.988 -8.711 0.151 81.251
6439.333 0.152 81.215 0.988 -8.747 0.988 -8.747 0.152 81.215
6464.292 0.153 81.179 0.988 -8.783 0.988 -8.783 0.153 81.179
6489.25 0.153 81.143 0.988 -8.82 0.988 -8.82 0.153 81.143
6514.208 0.154 81.108 0.988 -8.856 0.988 -8.856 0.154 81.108
6539.167 0.155 81.072 0.988 -8.892 0.988 -8.892 0.155 81.072
6564.125 0.155 81.036 0.988 -8.928 0.988 -8.928 0.155 81.036
6589.083 0.156 81 0.988 -8.964 0.988 -8.964 0.156 81
6614.042 0.156 80.964 0.988 -9 0.988 -9 0.156 80.964
6639 0.157 80.928 0.987 -9.036 0.987 -9.036 0.157 80.928
6663.958 0.158 80.892 0.987 -9.072 0.987 -9.072 0.158 80.892
6688.917 0.158 80.856 0.987 -9.108 0.987 -9.108 0.158 80.856
6713.875 0.159 80.821 0.987 -9.144 0.987 -9.144 0.159 80.821
6738.833 0.16 80.785 0.987 -9.18 0.987 -9.18 0.16 80.785
6763.792 0.16 80.749 0.987 -9.216 0.987 -9.216 0.16 80.749
6788.75 0.161 80.713 0.987 -9.251 0.987 -9.251 0.161 80.713
6813.708 0.161 80.678 0.987 -9.287 0.987 -9.287 0.161 80.678
6838.667 0.162 80.642 0.987 -9.323 0.987 -9.323 0.162 80.642
6863.625 0.163 80.606 0.987 -9.359 0.987 -9.359 0.163 80.606
6888.583 0.163 80.57 0.986 -9.395 0.986 -9.395 0.163 80.57
6913.542 0.164 80.535 0.986 -9.431 0.986 -9.431 0.164 80.535
6938.5 0.164 80.499 0.986 -9.466 0.986 -9.466 0.164 80.499
6963.458 0.165 80.463 0.986 -9.502 0.986 -9.502 0.165 80.463
6988.417 0.166 80.428 0.986 -9.538 0.986 -9.538 0.166 80.428
7013.375 0.166 80.392 0.986 -9.574 0.986 -9.574 0.166 80.392
7038.333 0.167 80.357 0.986 -9.61 0.986 -9.61 0.167 80.357
7063.292 0.168 80.321 0.986 -9.645 0.986 -9.645 0.168 80.321
7088.25 0.168 80.285 0.986 -9.681 0.986 -9.681 0.168 80.285
7113.208 0.169 80.25 0.986 -9.717 0.986 -9.717 0.169 80.25
7138.167 0.169 80.214 0.985 -9.752 0.985 -9.752 0.169 80.214
7163.125 0.17 80.179 0.985 -9.788 0.985 -9.788 0.17 80.179
7188.083 0.171 80.143 0.985 -9.824 0.985 -9.824 0.171 80.143
7213.042 0.171 80.108 0.985 -9.859 0.985 -9.859 0.171 80.108
7238 0.172 80.072 0.985 -9.895 0.985 -9.895 0.172 80.072
7262.958 0.172 80.037 0.985 -9.93 0.985 -9.93 0.172 80.037
7287.917 0.173 80.001 0.985 -9.966 0.985 -9.966 0.173 80.001
7312.875 0.174 79.966 0.985 -10.002 0.985 -10.002 0.174 79.966
7337.833 0.174 79.93 0.985 -10.037 0.985 -10.037 0.174 79.93
7362.792 0.175 79.895 0.984 -10.073 0.984 -10.073 0.175 79.895
7387.75 0.176 79.86 0.984 -10.108 0.984 -10.108 0.176 79.86
7412.708 0.176 79.824 0.984 -10.144 0.984 -10.144 0.176 79.824
7437.667 0.177 79.789 0.984 -10.179 0.984 -10.179 0.177 79.789
7462.625 0.177 79.753 0.984 -10.215 0.984 -10.215 0.177 79.753
7487.583 0.178 79.718 0.984 -10.25 0.984 -10.25 0.178 79.718
7512.542 0.179 79.683 0.984 -10.286 0.984 -10.286 0.179 79.683
7537.5 0.179 79.647 0.984 -10.321 0.984 -10.321 0.179 79.647
7562.458 0.18 79.612 0.984 -10.357 0.984 -10.357 0.18 79.612
7587.417 0.18 79.577 0.983 -10.392 0.983 -10.392 0.18 79.577
7612.375 0.181 79.541 0.983 -10.427 0.983 -10.427 0.181 79.541
7637.333 0.182 79.506 0.983 -10.463 0.983 -10.463 0.182 79.506
7662.292 0.182 79.471 0.983 -10.498 0.983 -10.498 0.182 79.471
7687.25 0.183 79.436 0.983 -10.533 0.983 -10.533 0.183 79.436
7712.208 0.183 79.4 0.983 -10.569 0.983 -10.569 0.183 79.4
7737.167 0.184 79.365 0.983 -10.604 0.983 -10.604 0.184 79.365
7762.125 0.185 79.33 0.983 -10.639 0.983 -10.639 0.185 79.33
7787.083 0.185 79.295 0.983 -10.675 0.983 -10.675 0.185 79.295
7812.042 0.186 79.26 0.982 -10.71 0.982 -10.71 0.186 79.26
7837 0.186 79.225 0.982 -10.745 0.982 -10.745 0.186 79.225
7861.958 0.187 79.189 0.982 -10.78 0.982 -10.78 0.187 79.189
7886.917 0.188 79.154 0.982 -10.816 0.982 -10.816 0.188 79.154
7911.875 0.188 79.119 0.982 -10.851 0.982 -10.851 0.188 79.119
7936.833 0.189 79.084 0.982 -10.886 0.982 -10.886 0.189 79.084
7961.792 0.189 79.049 0.982 -10.921 0.982 -10.921 0.189 79.049
7986.75 0.19 79.014 0.982 -10.957 0.982 -10.957 0.19 79.014
8011.708 0.191 78.979 0.982 -10.992 0.982 -10.992 0.191 78.979
8036.667 0.191 78.944 0.981 -11.027 0.981 -11.027 0.191 78.944
8061.625 0.192 78.909 0.981 -11.062 0.981 -11.062 0.192 78.909
8086.583 0.192 78.874 0.981 -11.097 0.981 -11.097 0.192 78.874
8111.542 0.193 78.839 0.981 -11.132 0.981 -11.132 0.193 78.839
8136.5 0.194 78.804 0.981 -11.167 0.981 -11.167 0.194 78.804
8161.458 0.194 78.769 0.981 -11.202 0.981 -11.202 0.194 78.769
8186.417 0.195 78.734 0.981 -11.237 0.981 -11.237 0.195 78.734
8211.375 0.195 78.699 0.981 -11.273 0.981 -11.273 0.195 78.699
8236.333 0.196 78.664 0.98 -11.308 0.98 -11.308 0.196 78.664
8261.292 0.197 78.629 0.98 -11.343 0.98 -11.343 0.197 78.629
8286.25 0.197 78.594 0.98 -11.378 0.98 -11.378 0.197 78.594
8311.208 0.198 78.559 0.98 -11.413 0.98 -11.413 0.198 78.559
8336.167 0.198 78.524 0.98 -11.448 0.98 -11.448 0.198 78.524
8361.125 0.199 78.489 0.98 -11.483 0.98 -11.483 0.199 78.489
8386.083 0.2 78.454 0.98 -11.518 0.98 -11.518 0.2 78.454
8411.042 0.2 78.419 0.98 -11.552 0.98 -11.552 0.2 78.419
8436 0.201 78.385 0.98 -11.587 0.98 -11.587 0.201 78.385
