# MHZ S MA R 50

50 0.999 -2.608 0.046 87.387 0.046 87.387 0.999 -2.608
74.958 0.998 -3.907 0.068 86.086 0.068 86.086 0.998 -3.907
99.917 0.996 -5.202 0.091 84.789 0.091 84.789 0.996 -5.202
124.875 0.994 -6.493 0.113 83.497 0.113 83.497 0.994 -6.493
149.833 0.991 -7.777 0.135 82.21 0.135 82.21 0.991 -7.777
174.792 0.987 -9.054 0.157 80.931 0.157 80.931 0.987 -9.054
199.75 0.984 -10.323 0.179 79.66 0.179 79.66 0.984 -10.323
224.708 0.98 -11.582 0.201 78.399 0.201 78.399 0.98 -11.582
249.667 0.975 -12.831 0.222 77.148 0.222 77.148 0.975 -12.831
274.625 0.97 -14.069 0.243 75.908 0.243 75.908 0.97 -14.069
299.583 0.964 -15.294 0.264 74.68 0.264 74.68 0.964 -15.294
324.542 0.959 -16.506 0.284 73.466 0.284 73.466 0.959 -16.506
349.5 0.952 -17.705 0.304 72.265 0.304 72.265 0.952 -17.705
374.458 0.946 -18.889 0.324 71.079 0.324 71.079 0.946 -18.889
399.417 0.939 -20.058 0.343 69.907 0.343 69.907 0.939 -20.058
424.375 0.932 -21.211 0.362 68.752 0.362 68.752 0.932 -21.211
449.333 0.925 -22.349 0.38 67.613 0.38 67.613 0.925 -22.349
474.292 0.917 -23.469 0.398 66.49 0.398 66.49 0.917 -23.469
499.25 0.909 -24.572 0.416 65.385 0.416 65.385 0.909 -24.572
524.208 0.901 -25.658 0.433 64.297 0.433 64.297 0.901 -25.658
549.167 0.893 -26.726 0.45 63.226 0.45 63.226 0.893 -26.726
574.125 0.884 -27.777 0.466 62.174 0.466 62.174 0.884 -27.777
599.083 0.876 -28.809 0.482 61.139 0.482 61.139 0.876 -28.809
624.042 0.867 -29.823 0.497 60.123 0.497 60.123 0.867 -29.823
649 0.858 -30.819 0.512 59.125 0.512 59.125 0.858 -30.819
673.958 0.849 -31.797 0.527 58.145 0.527 58.145 0.849 -31.797
698.917 0.84 -32.756 0.541 57.183 0.541 57.183 0.84 -32.756
723.875 0.831 -33.697 0.555 56.24 0.555 56.24 0.831 -33.697
748.833 0.822 -34.621 0.568 55.314 0.568 55.314 0.822 -34.621
773.792 0.813 -35.526 0.581 54.407 0.581 54.407 0.813 -35.526
798.75 0.804 -36.413 0.594 53.517 0.594 53.517 0.804 -36.413
823.708 0.795 -37.283 0.606 52.645 0.606 52.645 0.795 -37.283
848.667 0.786 -38.135 0.618 51.791 0.618 51.791 0.786 -38.135
873.625 0.777 -38.97 0.629 50.954 0.629 50.954 0.777 -38.97
898.583 0.768 -39.788 0.64 50.133 0.64 50.133 0.768 -39.788
923.542 0.758 -40.589 0.651 49.33 0.651 49.33 0.758 -40.589
948.5 0.749 -41.374 0.661 48.543 0.661 48.543 0.749 -41.374
973.458 0.74 -42.143 0.671 47.772 0.671 47.772 0.74 -42.143
998.417 0.732 -42.895 0.681 47.017 0.681 47.017 0.732 -42.895
1023.375 0.723 -43.632 0.69 46.278 0.69 46.278 0.723 -43.632
1048.333 0.714 -44.354 0.699 45.554 0.699 45.554 0.714 -44.354
1073.292 0.705 -45.061 0.708 44.845 0.708 44.845 0.705 -45.061
1098.25 0.697 -45.753 0.716 44.151 0.716 44.151 0.697 -45.753
1123.208 0.688 -46.43 0.725 43.471 0.725 43.471 0.688 -46.43
1148.167 0.68 -47.093 0.732 42.805 0.732 42.805 0.68 -47.093
1173.125 0.671 -47.743 0.74 42.153 0.74 42.153 0.671 -47.743
1198.083 0.663 -48.379 0.748 41.515 0.748 41.515 0.663 -48.379
1223.042 0.655 -49.002 0.755 40.89 0.755 40.89 0.655 -49.002
1248 0.646 -49.612 0.762 40.277 0.762 40.277 0.646 -49.612
1272.958 0.638 -50.21 0.768 39.677 0.768 39.677 0.638 -50.21
1297.917 0.631 -50.795 0.775 39.09 0.775 39.09 0.631 -50.795
1322.875 0.623 -51.368 0.781 38.514 0.781 38.514 0.623 -51.368
1347.833 0.615 -51.93 0.787 37.95 0.787 37.95 0.615 -51.93
1372.792 0.607 -52.48 0.793 37.397 0.793 37.397 0.607 -52.48
1397.75 0.6 -53.019 0.799 36.856 0.799 36.856 0.6 -53.019
1422.708 0.592 -53.547 0.804 36.325 0.804 36.325 0.592 -53.547
1447.667 0.585 -54.065 0.81 35.805 0.81 35.805 0.585 -54.065
1472.625 0.578 -54.572 0.815 35.295 0.815 35.295 0.578 -54.572
1497.583 0.571 -55.069 0.82 34.796 0.82 34.796 0.571 -55.069
1522.542 0.564 -55.557 0.825 34.305 0.825 34.305 0.564 -55.557
1547.5 0.557 -56.035 0.829 33.825 0.829 33.825 0.557 -56.035
1572.458 0.55 -56.504 0.834 33.354 0.834 33.354 0.55 -56.504
1597.417 0.543 -56.963 0.838 32.891 0.838 32.891 0.543 -56.963
1622.375 0.536 -57.414 0.843 32.438 0.843 32.438 0.536 -57.414
1647.333 0.53 -57.857 0.847 31.993 0.847 31.993 0.53 -57.857
1672.292 0.523 -58.291 0.851 31.557 0.851 31.557 0.523 -58.291
1697.25 0.517 -58.716 0.855 31.128 0.855 31.128 0.517 -58.716
1722.208 0.511 -59.134 0.858 30.708 0.858 30.708 0.511 -59.134
1747.167 0.504 -59.544 0.862 30.295 0.862 30.295 0.504 -59.544
1772.125 0.498 -59.947 0.866 29.89 0.866 29.89 0.498 -59.947
1797.083 0.492 -60.342 0.869 29.492 0.869 29.492 0.492 -60.342
1822.042 0.486 -60.73 0.872 29.101 0.872 29.101 0.486 -60.73
1847 0.48 -61.111 0.876 28.718 0.876 28.718 0.48 -61.111
1871.958 0.475 -61.485 0.879 28.341 0.879 28.341 0.475 -61.485
1896.917 0.469 -61.853 0.882 27.97 0.882 27.97 0.469 -61.853
1921.875 0.463 -62.214 0.885 27.606 0.885 27.606 0.463 -62.214
1946.833 0.458 -62.569 0.888 27.249 0.888 27.249 0.458 -62.569
1971.792 0.452 -62.918 0.89 26.897 0.89 26.897 0.452 -62.918
1996.75 0.447 -63.261 0.893 26.551 0.893 26.551 0.447 -63.261
2021.708 0.442 -63.598 0.896 26.212 0.896 26.212 0.442 -63.598
2046.667 0.436 -63.929 0.898 25.878 0.898 25.878 0.436 -63.929
2071.625 0.431 -64.255 0.901 25.549 0.901 25.549 0.431 -64.255
2096.583 0.426 -64.575 0.903 25.226 0.903 25.226 0.426 -64.575
2121.542 0.421 -64.89 0.905 24.908 0.905 24.908 0.421 -64.89
2146.5 0.416 -65.2 0.908 24.595 0.908 24.595 0.416 -65.2
2171.458 0.411 -65.505 0.91 24.287 0.91 24.287 0.411 -65.505
2196.417 0.406 -65.805 0.912 23.984 0.912 23.984 0.406 -65.805
2221.375 0.402 -66.1 0.914 23.686 0.914 23.686 0.402 -66.1
2246.333 0.397 -66.39 0.916 23.393 0.916 23.393 0.397 -66.39
2271.292 0.392 -66.676 0.918 23.104 0.918 23.104 0.392 -66.676
2296.25 0.388 -66.958 0.92 22.819 0.92 22.819 0.388 -66.958
2321.208 0.383 -67.235 0.922 22.539 0.922 22.539 0.383 -67.235
2346.167 0.379 -67.508 0.924 22.263 0.924 22.263 0.379 -67.508
2371.125 0.374 -67.776 0.926 21.991 0.926 21.991 0.374 -67.776
2396.083 0.37 -68.041 0.927 21.723 0.927 21.723 0.37 -68.041
2421.042 0.366 -68.302 0.929 21.459 0.929 21.459 0.366 -68.302
2446 0.362 -68.559 0.931 21.199 0.931 21.199 0.362 -68.559
2470.958 0.357 -68.812 0.932 20.943 0.932 20.943 0.357 -68.812
2495.917 0.353 -69.061 0.934 20.69 0.934 20.69 0.353 -69.061
2520.875 0.349 -69.307 0.935 20.441 0.935 20.441 0.349 -69.307
2545.833 0.345 -69.55 0.937 20.195 0.937 20.195 0.345 -69.55
2570.792 0.341 -69.788 0.938 19.953 0.938 19.953 0.341 -69.788
2595.75 0.337 -70.024 0.94 19.714 0.94 19.714 0.337 -70.024
2620.708 0.333 -70.256 0.941 19.479 0.941 19.479 0.333 -70.256
2645.667 0.33 -70.485 0.943 19.246 0.943 19.246 0.33 -70.485
2670.625 0.326 -70.711 0.944 19.017 0.944 19.017 0.326 -70.711
2695.583 0.322 -70.934 0.945 18.79 0.945 18.79 0.322 -70.934
2720.542 0.318 -71.154 0.946 18.567 0.946 18.567 0.318 -71.154
2745.5 0.315 -71.37 0.948 18.347 0.948 18.347 0.315 -71.37
2770.458 0.311 -71.584 0.949 18.129 0.949 18.129 0.311 -71.584
2795.417 0.308 -71.795 0.95 17.914 0.95 17.914 0.308 -71.795
2820.375 0.304 -72.004 0.951 17.702 0.951 17.702 0.304 -72.004
2845.333 0.301 -72.209 0.952 17.493 0.952 17.493 0.301 -72.209
2870.292 0.297 -72.412 0.953 17.286 0.953 17.286 0.297 -72.412
2895.25 0.294 -72.613 0.954 17.082 0.954 17.082 0.294 -72.613
2920.208 0.29 -72.81 0.955 16.88 0.955 16.88 0.29 -72.81
2945.167 0.287 -73.006 0.956 16.681 0.956 16.681 0.287 -73.006
2970.125 0.284 -73.199 0.957 16.484 0.957 16.484 0.284 -73.199
2995.083 0.28 -73.389 0.958 16.29 0.958 16.29 0.28 -73.389
3020.042 0.277 -73.577 0.959 16.098 0.959 16.098 0.277 -73.577
3045 0.274 -73.763 0.96 15.908 0.96 15.908 0.274 -73.763
3069.958 0.271 -73.947 0.961 15.72 0.961 15.72 0.271 -73.947
3094.917 0.268 -74.128 0.962 15.534 0.962 15.534 0.268 -74.128
3119.875 0.265 -74.307 0.963 15.351 0.963 15.351 0.265 -74.307
3144.833 0.262 -74.484 0.964 15.169 0.964 15.169 0.262 -74.484
3169.792 0.259 -74.659 0.964 14.99 0.964 14.99 0.259 -74.659
3194.75 0.256 -74.832 0.965 14.813 0.965 14.813 0.256 -74.832
3219.708 0.253 -75.003 0.966 14.637 0.966 14.637 0.253 -75.003
3244.667 0.25 -75.172 0.967 14.464 0.967 14.464 0.25 -75.172
3269.625 0.247 -75.339 0.967 14.292 0.967 14.292 0.247 -75.339
3294.583 0.244 -75.505 0.968 14.123 0.968 14.123 0.244 -75.505
3319.542 0.241 -75.668 0.969 13.955 0.969 13.955 0.241 -75.668
3344.5 0.238 -75.829 0.97 13.788 0.97 13.788 0.238 -75.829
3369.458 0.236 -75.989 0.97 13.624 0.97 13.624 0.236 -75.989
3394.417 0.233 -76.147 0.971 13.461 0.971 13.461 0.233 -76.147
3419.375 0.23 -76.303 0.972 13.3 0.972 13.3 0.23 -76.303
3444.333 0.227 -76.457 0.972 13.141 0.972 13.141 0.227 -76.457
3469.292 0.225 -76.61 0.973 12.983 0.973 12.983 0.225 -76.61
3494.25 0.222 -76.761 0.973 12.827 0.973 12.827 0.222 -76.761
3519.208 0.219 -76.911 0.974 12.672 0.974 12.672 0.219 -76.911
3544.167 0.217 -77.059 0.975 12.519 0.975 12.519 0.217 -77.059
3569.125 0.214 -77.205 0.975 12.367 0.975 12.367 0.214 -77.205
3594.083 0.212 -77.35 0.976 12.217 0.976 12.217 0.212 -77.35
3619.042 0.209 -77.493 0.976 12.068 0.976 12.068 0.209 -77.493
3644 0.207 -77.635 0.977 11.921 0.977 11.921 0.207 -77.635
3668.958 0.204 -77.775 0.977 11.775 0.977 11.775 0.204 -77.775
3693.917 0.202 -77.914 0.978 11.63 0.978 11.63 0.202 -77.914
3718.875 0.199 -78.051 0.978 11.487 0.978 11.487 0.199 -78.051
3743.833 0.197 -78.187 0.979 11.345 0.979 11.345 0.197 -78.187
3768.792 0.194 -78.322 0.979 11.205 0.979 11.205 0.194 -78.322
3793.75 0.192 -78.455 0.98 11.065 0.98 11.065 0.192 -78.455
3818.708 0.19 -78.587 0.98 10.927 0.98 10.927 0.19 -78.587
3843.667 0.187 -78.717 0.981 10.79 0.981 10.79 0.187 -78.717
3868.625 0.185 -78.847 0.981 10.655 0.981 10.655 0.185 -78.847
3893.583 0.183 -78.975 0.982 10.52 0.982 10.52 0.183 -78.975
3918.542 0.18 -79.101 0.982 10.387 0.982 10.387 0.18 -79.101
3943.5 0.178 -79.227 0.982 10.255 0.982 10.255 0.178 -79.227
3968.458 0.176 -79.351 0.983 10.123 0.983 10.123 0.176 -79.351
3993.417 0.174 -79.474 0.983 9.994 0.983 9.994 0.174 -79.474
4018.375 0.171 -79.596 0.984 9.865 0.984 9.865 0.171 -79.596
4043.333 0.169 -79.716 0.984 9.737 0.984 9.737 0.169 -79.716
4068.292 0.167 -79.836 0.984 9.61 0.984 9.61 0.167 -79.836
4093.25 0.165 -79.954 0.985 9.484 0.985 9.484 0.165 -79.954
4118.208 0.163 -80.071 0.985 9.36 0.985 9.36 0.163 -80.071
4143.167 0.161 -80.187 0.985 9.236 0.985 9.236 0.161 -80.187
4168.125 0.158 -80.302 0.986 9.113 0.986 9.113 0.158 -80.302
4193.083 0.156 -80.415 0.986 8.992 0.986 8.992 0.156 -80.415
4218.042 0.154 -80.528 0.986 8.871 0.986 8.871 0.154 -80.528
4243 0.152 -80.64 0.987 8.751 0.987 8.751 0.152 -80.64
4267.958 0.15 -80.75 0.987 8.632 0.987 8.632 0.15 -80.75
4292.917 0.148 -80.859 0.987 8.514 0.987 8.514 0.148 -80.859
4317.875 0.146 -80.967 0.988 8.397 0.988 8.397 0.146 -80.967
4342.833 0.144 -81.075 0.988 8.281 0.988 8.281 0.144 -81.075
4367.792 0.142 -81.181 0.988 8.165 0.988 8.165 0.142 -81.181
4392.75 0.14 -81.286 0.989 8.051 0.989 8.051 0.14 -81.286
4417.708 0.138 -81.39 0.989 7.937 0.989 7.937 0.138 -81.39
4442.667 0.136 -81.493 0.989 7.824 0.989 7.824 0.136 -81.493
4467.625 0.134 -81.595 0.989 7.712 0.989 7.712 0.134 -81.595
4492.583 0.132 -81.696 0.99 7.601 0.99 7.601 0.132 -81.696
4517.542 0.13 -81.796 0.99 7.491 0.99 7.491 0.13 -81.796
4542.5 0.128 -81.895 0.99 7.381 0.99 7.381 0.128 -81.895
4567.458 0.127 -81.993 0.99 7.272 0.99 7.272 0.127 -81.993
4592.417 0.125 -82.09 0.991 7.164 0.991 7.164 0.125 -82.09
4617.375 0.123 -82.186 0.991 7.057 0.991 7.057 0.123 -82.186
4642.333 0.121 -82.28 0.991 6.95 0.991 6.95 0.121 -82.28
4667.292 0.119 -82.374 0.991 6.844 0.991 6.844 0.119 -82.374
4692.25 0.117 -82.467 0.991 6.739 0.991 6.739 0.117 -82.467
4717.208 0.116 -82.559 0.992 6.634 0.992 6.634 0.116 -82.559
4742.167 0.114 -82.65 0.992 6.53 0.992 6.53 0.114 -82.65
4767.125 0.112 -82.74 0.992 6.427 0.992 6.427 0.112 -82.74
4792.083 0.11 -82.829 0.992 6.325 0.992 6.325 0.11 -82.829
4817.042 0.108 -82.917 0.992 6.223 0.992 6.223 0.108 -82.917
4842 0.107 -83.003 0.993 6.122 0.993 6.122 0.107 -83.003
4866.958 0.105 -83.089 0.993 6.021 0.993 6.021 0.105 -83.089
4891.917 0.103 -83.174 0.993 5.921 0.993 5.921 0.103 -83.174
4916.875 0.101 -83.258 0.993 5.822 0.993 5.822 0.101 -83.258
4941.833 0.1 -83.34 0.993 5.723 0.993 5.723 0.1 -83.34
4966.792 0.098 -83.422 0.994 5.625 0.994 5.625 0.098 -83.422
4991.75 0.096 -83.503 0.994 5.528 0.994 5.528 0.096 -83.503
5016.708 0.095 -83.582 0.994 5.431 0.994 5.431 0.095 -83.582
5041.667 0.093 -83.66 0.994 5.335 0.994 5.335 0.093 -83.66
5066.625 0.091 -83.738 0.994 5.239 0.994 5.239 0.091 -83.738
5091.583 0.09 -83.814 0.994 5.144 0.994 5.144 0.09 -83.814
5116.542 0.088 -83.889 0.994 5.049 0.994 5.049 0.088 -83.889
5141.5 0.086 -83.963 0.995 4.955 0.995 4.955 0.086 -83.963
5166.458 0.085 -84.035 0.995 4.862 0.995 4.862 0.085 -84.035
5191.417 0.083 -84.106 0.995 4.769 0.995 4.769 0.083 -84.106
5216.375 0.082 -84.177 0.995 4.677 0.995 4.677 0.082 -84.177
5241.333 0.08 -84.245 0.995 4.585 0.995 4.585 0.08 -84.245
5266.292 0.078 -84.313 0.995 4.493 0.995 4.493 0.078 -84.313
5291.25 0.077 -84.379 0.995 4.403 0.995 4.403 0.077 -84.379
5316.208 0.075 -84.444 0.996 4.312 0.996 4.312 0.075 -84.444
5341.167 0.074 -84.507 0.996 4.222 0.996 4.222 0.074 -84.507
5366.125 0.072 -84.569 0.996 4.133 0.996 4.133 0.072 -84.569
5391.083 0.071 -84.629 0.996 4.044 0.996 4.044 0.071 -84.629
5416.042 0.069 -84.688 0.996 3.956 0.996 3.956 0.069 -84.688
5441 0.067 -84.745 0.996 3.868 0.996 3.868 0.067 -84.745
5465.958 0.066 -84.8 0.996 3.78 0.996 3.78 0.066 -84.8
5490.917 0.064 -84.853 0.996 3.693 0.996 3.693 0.064 -84.853
5515.875 0.063 -84.905 0.996 3.607 0.996 3.607 0.063 -84.905
5540.833 0.061 -84.955 0.996 3.521 0.996 3.521 0.061 -84.955
5565.792 0.06 -85.002 0.997 3.435 0.997 3.435 0.06 -85.002
5590.75 0.058 -85.048 0.997 3.35 0.997 3.35 0.058 -85.048
5615.708 0.057 -85.091 0.997 3.265 0.997 3.265 0.057 -85.091
5640.667 0.056 -85.131 0.997 3.181 0.997 3.181 0.056 -85.131
5665.625 0.054 -85.169 0.997 3.097 0.997 3.097 0.054 -85.169
5690.583 0.053 -85.205 0.997 3.013 0.997 3.013 0.053 -85.205
5715.542 0.051 -85.237 0.997 2.93 0.997 2.93 0.051 -85.237
5740.5 0.05 -85.267 0.997 2.847 0.997 2.847 0.05 -85.267
5765.458 0.048 -85.293 0.997 2.765 0.997 2.765 0.048 -85.293
5790.417 0.047 -85.316 0.997 2.683 0.997 2.683 0.047 -85.316
5815.375 0.045 -85.334 0.997 2.602 0.997 2.602 0.045 -85.334
5840.333 0.044 -85.349 0.997 2.52 0.997 2.52 0.044 -85.349
5865.292 0.043 -85.359 0.997 2.44 0.997 2.44 0.043 -85.359
5890.25 0.041 -85.365 0.998 2.359 0.998 2.359 0.041 -85.365
5915.208 0.04 -85.365 0.998 2.279 0.998 2.279 0.04 -85.365
5940.167 0.038 -85.359 0.998 2.2 0.998 2.2 0.038 -85.359
5965.125 0.037 -85.347 0.998 2.12 0.998 2.12 0.037 -85.347
5990.083 0.036 -85.328 0.998 2.041 0.998 2.041 0.036 -85.328
6015.042 0.034 -85.301 0.998 1.963 0.998 1.963 0.034 -85.301
6040 0.033 -85.266 0.998 1.885 0.998 1.885 0.033 -85.266
6064.958 0.032 -85.221 0.998 1.807 0.998 1.807 0.032 -85.221
6089.917 0.03 -85.166 0.998 1.729 0.998 1.729 0.03 -85.166
6114.875 0.029 -85.098 0.998 1.652 0.998 1.652 0.029 -85.098
6139.833 0.028 -85.017 0.998 1.575 0.998 1.575 0.028 -85.017
6164.792 0.026 -84.92 0.998 1.499 0.998 1.499 0.026 -84.92
6189.75 0.025 -84.805 0.998 1.423 0.998 1.423 0.025 -84.805
6214.708 0.024 -84.668 0.998 1.347 0.998 1.347 0.024 -84.668
6239.667 0.022 -84.508 0.998 1.271 0.998 1.271 0.022 -84.508
6264.625 0.021 -84.319 0.998 1.196 0.998 1.196 0.021 -84.319
6289.583 0.02 -84.095 0.998 1.121 0.998 1.121 0.02 -84.095
6314.542 0.018 -83.831 0.998 1.046 0.998 1.046 0.018 -83.831
6339.5 0.017 -83.516 0.998 0.972 0.998 0.972 0.017 -83.516
6364.458 0.016 -83.139 0.998 0.898 0.998 0.898 0.016 -83.139
6389.417 0.014 -82.684 0.998 0.825 0.998 0.825 0.014 -82.684
6414.375 0.013 -82.129 0.998 0.751 0.998 0.751 0.013 -82.129
6439.333 0.012 -81.444 0.998 0.678 0.998 0.678 0.012 -81.444
6464.292 0.011 -80.583 0.998 0.605 0.998 0.605 0.011 -80.583
6489.25 9.441e-3 -79.479 0.998 0.533 0.998 0.533 9.441e-3 -79.479
6514.208 8.203e-3 -78.023 0.998 0.461 0.998 0.461 8.203e-3 -78.023
6539.167 6.977e-3 -76.036 0.998 0.389 0.998 0.389 6.977e-3 -76.036
6564.125 5.768e-3 -73.19 0.998 0.317 0.998 0.317 5.768e-3 -73.19
6589.083 4.587e-3 -68.838 0.998 0.246 0.998 0.246 4.587e-3 -68.838
6614.042 3.456e-3 -61.543 0.998 0.174 0.998 0.174 3.456e-3 -61.543
6639 2.439e-3 -47.712 0.998 0.104 0.998 0.104 2.439e-3 -47.712
6663.958 1.736e-3 -19.318 0.998 0.033 0.998 0.033 1.736e-3 -19.318
6688.917 1.763e-3 21.676 0.998 -0.037 0.998 -0.037 1.763e-3 21.676
6713.875 2.489e-3 48.757 0.998 -0.107 0.998 -0.107 2.489e-3 48.757
6738.833 3.5e-3 61.924 0.998 -0.177 0.998 -0.177 3.5e-3 61.924
6763.792 4.608e-3 68.934 0.998 -0.247 0.998 -0.247 4.608e-3 68.934
6788.75 5.754e-3 73.149 0.998 -0.316 0.998 -0.316 5.754e-3 73.149
6813.708 6.918e-3 75.921 0.998 -0.385 0.998 -0.385 6.918e-3 75.921
6838.667 8.089e-3 77.866 0.998 -0.454 0.998 -0.454 8.089e-3 77.866
6863.625 9.264e-3 79.296 0.998 -0.522 0.998 -0.522 9.264e-3 79.296
6888.583 0.01 80.384 0.998 -0.591 0.998 -0.591 0.01 80.384
6913.542 0.012 81.235 0.998 -0.659 0.998 -0.659 0.012 81.235
6938.5 0.013 81.916 0.998 -0.727 0.998 -0.727 0.013 81.916
6963.458 0.014 82.468 0.998 -0.794 0.998 -0.794 0.014 82.468
6988.417 0.015 82.923 0.998 -0.862 0.998 -0.862 0.015 82.923
7013.375 0.016 83.302 0.998 -0.929 0.998 -0.929 0.016 83.302
7038.333 0.017 83.621 0.998 -0.996 0.998 -0.996 0.017 83.621
7063.292 0.019 83.89 0.998 -1.062 0.998 -1.062 0.019 83.89
7088.25 0.02 84.12 0.998 -1.129 0.998 -1.129 0.02 84.12
7113.208 0.021 84.316 0.998 -1.195 0.998 -1.195 0.021 84.316
7138.167 0.022 84.484 0.998 -1.261 0.998 -1.261 0.022 84.484
7163.125 0.023 84.628 0.998 -1.327 0.998 -1.327 0.023 84.628
7188.083 0.024 84.753 0.998 -1.392 0.998 -1.392 0.024 84.753
7213.042 0.025 84.86 0.998 -1.458 0.998 -1.458 0.025 84.86
7238 0.027 84.952 0.998 -1.523 0.998 -1.523 0.027 84.952
7262.958 0.028 85.031 0.998 -1.588 0.998 -1.588 0.028 85.031
7287.917 0.029 85.098 0.998 -1.652 0.998 -1.652 0.029 85.098
7312.875 0.03 85.156 0.998 -1.717 0.998 -1.717 0.03 85.156
7337.833 0.031 85.204 0.998 -1.781 0.998 -1.781 0.031 85.204
7362.792 0.032 85.245 0.998 -1.845 0.998 -1.845 0.032 85.245
7387.75 0.033 85.278 0.998 -1.909 0.998 -1.909 0.033 85.278
7412.708 0.034 85.305 0.998 -1.973 0.998 -1.973 0.034 85.305
7437.667 0.036 85.327 0.998 -2.036 0.998 -2.036 0.036 85.327
7462.625 0.037 85.343 0.998 -2.1 0.998 -2.1 0.037 85.343
7487.583 0.038 85.354 0.998 -2.163 0.998 -2.163 0.038 85.354
7512.542 0.039 85.361 0.998 -2.226 0.998 -2.226 0.039 85.361
7537.5 0.04 85.365 0.998 -2.288 0.998 -2.288 0.04 85.365
7562.458 0.041 85.365 0.998 -2.351 0.998 -2.351 0.041 85.365
7587.417 0.042 85.361 0.997 -2.413 0.997 -2.413 0.042 85.361
7612.375 0.043 85.355 0.997 -2.476 0.997 -2.476 0.043 85.355
7637.333 0.044 85.346 0.997 -2.538 0.997 -2.538 0.044 85.346
7662.292 0.045 85.335 0.997 -2.599 0.997 -2.599 0.045 85.335
7687.25 0.046 85.321 0.997 -2.661 0.997 -2.661 0.046 85.321
7712.208 0.048 85.305 0.997 -2.722 0.997 -2.722 0.048 85.305
7737.167 0.049 85.287 0.997 -2.784 0.997 -2.784 0.049 85.287
7762.125 0.05 85.268 0.997 -2.845 0.997 -2.845 0.05 85.268
7787.083 0.051 85.246 0.997 -2.906 0.997 -2.906 0.051 85.246
7812.042 0.052 85.223 0.997 -2.967 0.997 -2.967 0.052 85.223
7837 0.053 85.199 0.997 -3.027 0.997 -3.027 0.053 85.199
7861.958 0.054 85.173 0.997 -3.088 0.997 -3.088 0.054 85.173
7886.917 0.055 85.147 0.997 -3.148 0.997 -3.148 0.055 85.147
7911.875 0.056 85.118 0.997 -3.208 0.997 -3.208 0.056 85.118
7936.833 0.057 85.089 0.997 -3.268 0.997 -3.268 0.057 85.089
7961.792 0.058 85.059 0.997 -3.328 0.997 -3.328 0.058 85.059
7986.75 0.059 85.028 0.997 -3.387 0.997 -3.387 0.059 85.028
8011.708 0.06 84.996 0.997 -3.447 0.997 -3.447 0.06 84.996
8036.667 0.061 84.963 0.996 -3.506 0.996 -3.506 0.061 84.963
8061.625 0.062 84.929 0.996 -3.565 0.996 -3.565 0.062 84.929
8086.583 0.063 84.895 0.996 -3.624 0.996 -3.624 0.063 84.895
8111.542 0.064 84.86 0.996 -3.683 0.996 -3.683 0.064 84.86
8136.5 0.065 84.824 0.996 -3.742 0.996 -3.742 0.065 84.824
8161.458 0.066 84.788 0.996 -3.8 0.996 -3.8 0.066 84.788
8186.417 0.067 84.751 0.996 -3.858 0.996 -3.858 0.067 84.751
