# MHZ S MA R 50

50 1 -1.62 0.028 88.376 0.028 88.376 1 -1.62
74.958 0.999 -2.427 0.042 87.566 0.042 87.566 0.999 -2.427
99.917 0.998 -3.234 0.056 86.758 0.056 86.758 0.998 -3.234
124.875 0.998 -4.04 0.07 85.95 0.07 85.95 0.998 -4.04
149.833 0.996 -4.844 0.084 85.143 0.084 85.143 0.996 -4.844
174.792 0.995 -5.647 0.098 84.339 0.098 84.339 0.995 -5.647
199.75 0.994 -6.448 0.112 83.536 0.112 83.536 0.994 -6.448
224.708 0.992 -7.246 0.126 82.735 0.126 82.735 0.992 -7.246
249.667 0.99 -8.042 0.14 81.937 0.14 81.937 0.99 -8.042
274.625 0.988 -8.835 0.154 81.142 0.154 81.142 0.988 -8.835
299.583 0.986 -9.625 0.167 80.35 0.167 80.35 0.986 -9.625
324.542 0.983 -10.412 0.181 79.561 0.181 79.561 0.983 -10.412
349.5 0.981 -11.196 0.194 78.775 0.194 78.775 0.981 -11.196
374.458 0.978 -11.975 0.207 77.994 0.207 77.994 0.978 -11.975
399.417 0.975 -12.751 0.221 77.216 0.221 77.216 0.975 -12.751
424.375 0.972 -13.523 0.234 76.442 0.234 76.442 0.972 -13.523
449.333 0.969 -14.29 0.247 75.673 0.247 75.673 0.969 -14.29
474.292 0.966 -15.053 0.26 74.908 0.26 74.908 0.966 -15.053
499.25 0.962 -15.81 0.272 74.148 0.272 74.148 0.962 -15.81
524.208 0.958 -16.563 0.285 73.393 0.285 73.393 0.958 -16.563
549.167 0.954 -17.311 0.298 72.644 0.298 72.644 0.954 -17.311
574.125 0.951 -18.054 0.31 71.899 0.31 71.899 0.951 -18.054
599.083 0.946 -18.791 0.322 71.16 0.322 71.16 0.946 -18.791
624.042 0.942 -19.522 0.334 70.427 0.334 70.427 0.942 -19.522
649 0.938 -20.248 0.346 69.699 0.346 69.699 0.938 -20.248
673.958 0.933 -20.967 0.358 68.977 0.358 68.977 0.933 -20.967
698.917 0.929 -21.681 0.369 68.261 0.369 68.261 0.929 -21.681
723.875 0.924 -22.389 0.381 67.552 0.381 67.552 0.924 -22.389
748.833 0.919 -23.09 0.392 66.848 0.392 66.848 0.919 -23.09
773.792 0.915 -23.785 0.403 66.151 0.403 66.151 0.915 -23.785
798.75 0.91 -24.474 0.414 65.46 0.414 65.46 0.91 -24.474
823.708 0.905 -25.156 0.425 64.776 0.425 64.776 0.905 -25.156
848.667 0.9 -25.832 0.436 64.098 0.436 64.098 0.9 -25.832
873.625 0.894 -26.501 0.446 63.427 0.446 63.427 0.894 -26.501
898.583 0.889 -27.163 0.457 62.762 0.457 62.762 0.889 -27.163
923.542 0.884 -27.819 0.467 62.104 0.467 62.104 0.884 -27.819
948.5 0.878 -28.468 0.477 61.453 0.477 61.453 0.878 -28.468
973.458 0.873 -29.11 0.486 60.809 0.486 60.809 0.873 -29.11
998.417 0.868 -29.746 0.496 60.172 0.496 60.172 0.868 -29.746
1023.375 0.862 -30.374 0.506 59.541 0.506 59.541 0.862 -30.374
1048.333 0.856 -30.996 0.515 58.917 0.515 58.917 0.856 -30.996
1073.292 0.851 -31.611 0.524 58.3 0.524 58.3 0.851 -31.611
1098.25 0.845 -32.219 0.533 57.69 0.533 57.69 0.845 -32.219
1123.208 0.839 -32.82 0.542 57.087 0.542 57.087 0.839 -32.82
1148.167 0.834 -33.414 0.551 56.49 0.551 56.49 0.834 -33.414
1173.125 0.828 -34.002 0.559 55.9 0.559 55.9 0.828 -34.002
1198.083 0.822 -34.582 0.568 55.318 0.568 55.318 0.822 -34.582
1223.042 0.817 -35.156 0.576 54.741 0.576 54.741 0.817 -35.156
1248 0.811 -35.723 0.584 54.172 0.584 54.172 0.811 -35.723
1272.958 0.805 -36.284 0.592 53.609 0.592 53.609 0.805 -36.284
1297.917 0.799 -36.838 0.6 53.053 0.6 53.053 0.799 -36.838
1322.875 0.793 -37.385 0.607 52.504 0.607 52.504 0.793 -37.385
1347.833 0.788 -37.926 0.615 51.961 0.615 51.961 0.788 -37.926
1372.792 0.782 -38.46 0.622 51.425 0.622 51.425 0.782 -38.46
1397.75 0.776 -38.987 0.629 50.895 0.629 50.895 0.776 -38.987
1422.708 0.77 -39.508 0.636 50.372 0.636 50.372 0.77 -39.508
1447.667 0.764 -40.023 0.643 49.855 0.643 49.855 0.764 -40.023
1472.625 0.759 -40.531 0.65 49.344 0.65 49.344 0.759 -40.531
1497.583 0.753 -41.034 0.657 48.84 0.657 48.84 0.753 -41.034
1522.542 0.747 -41.53 0.663 48.342 0.663 48.342 0.747 -41.53
1547.5 0.741 -42.019 0.669 47.85 0.669 47.85 0.741 -42.019
1572.458 0.736 -42.503 0.676 47.364 0.676 47.364 0.736 -42.503
1597.417 0.73 -42.981 0.682 46.884 0.682 46.884 0.73 -42.981
1622.375 0.724 -43.452 0.688 46.41 0.688 46.41 0.724 -43.452
1647.333 0.719 -43.918 0.694 45.942 0.694 45.942 0.719 -43.918
1672.292 0.713 -44.378 0.699 45.48 0.699 45.48 0.713 -44.378
1697.25 0.707 -44.832 0.705 45.023 0.705 45.023 0.707 -44.832
1722.208 0.702 -45.281 0.711 44.572 0.711 44.572 0.702 -45.281
1747.167 0.696 -45.724 0.716 44.127 0.716 44.127 0.696 -45.724
1772.125 0.691 -46.161 0.721 43.687 0.721 43.687 0.691 -46.161
1797.083 0.685 -46.593 0.726 43.253 0.726 43.253 0.685 -46.593
1822.042 0.68 -47.02 0.732 42.824 0.732 42.824 0.68 -47.02
1847 0.674 -47.441 0.737 42.401 0.737 42.401 0.674 -47.441
1871.958 0.669 -47.857 0.741 41.983 0.741 41.983 0.669 -47.857
1896.917 0.664 -48.267 0.746 41.57 0.746 41.57 0.664 -48.267
1921.875 0.658 -48.673 0.751 41.162 0.751 41.162 0.658 -48.673
1946.833 0.653 -49.074 0.756 40.759 0.756 40.759 0.653 -49.074
1971.792 0.648 -49.469 0.76 40.361 0.76 40.361 0.648 -49.469
1996.75 0.642 -49.86 0.764 39.968 0.764 39.968 0.642 -49.86
2021.708 0.637 -50.246 0.769 39.579 0.769 39.579 0.637 -50.246
2046.667 0.632 -50.627 0.773 39.196 0.773 39.196 0.632 -50.627
2071.625 0.627 -51.003 0.777 38.817 0.777 38.817 0.627 -51.003
2096.583 0.622 -51.375 0.781 38.443 0.781 38.443 0.622 -51.375
2121.542 0.617 -51.742 0.785 38.073 0.785 38.073 0.617 -51.742
2146.5 0.612 -52.105 0.789 37.708 0.789 37.708 0.612 -52.105
2171.458 0.607 -52.463 0.793 37.347 0.793 37.347 0.607 -52.463
2196.417 0.602 -52.817 0.797 36.991 0.797 36.991 0.602 -52.817
2221.375 0.597 -53.167 0.8 36.639 0.8 36.639 0.597 -53.167
2246.333 0.592 -53.512 0.804 36.291 0.804 36.291 0.592 -53.512
2271.292 0.587 -53.854 0.808 35.947 0.808 35.947 0.587 -53.854
2296.25 0.582 -54.191 0.811 35.607 0.811 35.607 0.582 -54.191
2321.208 0.577 -54.524 0.814 35.272 0.814 35.272 0.577 -54.524
2346.167 0.573 -54.853 0.818 34.94 0.818 34.94 0.573 -54.853
2371.125 0.568 -55.178 0.821 34.612 0.821 34.612 0.568 -55.178
2396.083 0.563 -55.5 0.824 34.288 0.824 34.288 0.563 -55.5
2421.042 0.559 -55.817 0.827 33.968 0.827 33.968 0.559 -55.817
2446 0.554 -56.131 0.83 33.652 0.83 33.652 0.554 -56.131
2470.958 0.55 -56.441 0.833 33.339 0.833 33.339 0.55 -56.441
2495.917 0.545 -56.748 0.836 33.03 0.836 33.03 0.545 -56.748
2520.875 0.541 -57.051 0.839 32.724 0.839 32.724 0.541 -57.051
2545.833 0.536 -57.35 0.842 32.422 0.842 32.422 0.536 -57.35
2570.792 0.532 -57.646 0.845 32.123 0.845 32.123 0.532 -57.646
2595.75 0.527 -57.939 0.847 31.828 0.847 31.828 0.527 -57.939
2620.708 0.523 -58.228 0.85 31.536 0.85 31.536 0.523 -58.228
2645.667 0.519 -58.514 0.853 31.247 0.853 31.247 0.519 -58.514
2670.625 0.514 -58.797 0.855 30.962 0.855 30.962 0.514 -58.797
2695.583 0.51 -59.077 0.858 30.679 0.858 30.679 0.51 -59.077
2720.542 0.506 -59.353 0.86 30.4 0.86 30.4 0.506 -59.353
2745.5 0.502 -59.627 0.863 30.124 0.863 30.124 0.502 -59.627
2770.458 0.498 -59.897 0.865 29.851 0.865 29.851 0.498 -59.897
2795.417 0.494 -60.164 0.867 29.581 0.867 29.581 0.494 -60.164
2820.375 0.49 -60.429 0.87 29.314 0.87 29.314 0.49 -60.429
2845.333 0.486 -60.69 0.872 29.049 0.872 29.049 0.486 -60.69
2870.292 0.482 -60.949 0.874 28.788 0.874 28.788 0.482 -60.949
2895.25 0.478 -61.205 0.876 28.529 0.876 28.529 0.478 -61.205
2920.208 0.474 -61.458 0.878 28.273 0.878 28.273 0.474 -61.458
2945.167 0.47 -61.708 0.881 28.02 0.881 28.02 0.47 -61.708
2970.125 0.466 -61.956 0.883 27.77 0.883 27.77 0.466 -61.956
2995.083 0.462 -62.201 0.885 27.522 0.885 27.522 0.462 -62.201
3020.042 0.458 -62.443 0.887 27.276 0.887 27.276 0.458 -62.443
3045 0.455 -62.683 0.888 27.033 0.888 27.033 0.455 -62.683
3069.958 0.451 -62.92 0.89 26.793 0.89 26.793 0.451 -62.92
3094.917 0.447 -63.155 0.892 26.555 0.892 26.555 0.447 -63.155
3119.875 0.443 -63.388 0.894 26.32 0.894 26.32 0.443 -63.388
3144.833 0.44 -63.618 0.896 26.087 0.896 26.087 0.44 -63.618
3169.792 0.436 -63.846 0.898 25.856 0.898 25.856 0.436 -63.846
3194.75 0.433 -64.071 0.899 25.628 0.899 25.628 0.433 -64.071
3219.708 0.429 -64.294 0.901 25.402 0.901 25.402 0.429 -64.294
3244.667 0.425 -64.515 0.903 25.178 0.903 25.178 0.425 -64.515
3269.625 0.422 -64.733 0.904 24.956 0.904 24.956 0.422 -64.733
3294.583 0.418 -64.95 0.906 24.736 0.906 24.736 0.418 -64.95
3319.542 0.415 -65.164 0.908 24.519 0.908 24.519 0.415 -65.164
3344.5 0.412 -65.376 0.909 24.304 0.909 24.304 0.412 -65.376
3369.458 0.408 -65.586 0.911 24.091 0.911 24.091 0.408 -65.586
3394.417 0.405 -65.794 0.912 23.879 0.912 23.879 0.405 -65.794
3419.375 0.401 -66 0.914 23.67 0.914 23.67 0.401 -66
3444.333 0.398 -66.204 0.915 23.463 0.915 23.463 0.398 -66.204
3469.292 0.395 -66.406 0.916 23.258 0.916 23.258 0.395 -66.406
3494.25 0.392 -66.606 0.918 23.055 0.918 23.055 0.392 -66.606
3519.208 0.388 -66.804 0.919 22.853 0.919 22.853 0.388 -66.804
3544.167 0.385 -67 0.921 22.654 0.921 22.654 0.385 -67
3569.125 0.382 -67.194 0.922 22.456 0.922 22.456 0.382 -67.194
3594.083 0.379 -67.387 0.923 22.26 0.923 22.26 0.379 -67.387
3619.042 0.376 -67.577 0.924 22.066 0.924 22.066 0.376 -67.577
3644 0.373 -67.766 0.926 21.873 0.926 21.873 0.373 -67.766
3668.958 0.369 -67.953 0.927 21.683 0.927 21.683 0.369 -67.953
3693.917 0.366 -68.139 0.928 21.494 0.928 21.494 0.366 -68.139
3718.875 0.363 -68.323 0.929 21.307 0.929 21.307 0.363 -68.323
3743.833 0.36 -68.505 0.93 21.121 0.93 21.121 0.36 -68.505
3768.792 0.357 -68.685 0.932 20.937 0.932 20.937 0.357 -68.685
3793.75 0.354 -68.864 0.933 20.755 0.933 20.755 0.354 -68.864
3818.708 0.351 -69.041 0.934 20.574 0.934 20.574 0.351 -69.041
3843.667 0.348 -69.216 0.935 20.395 0.935 20.395 0.348 -69.216
3868.625 0.346 -69.39 0.936 20.217 0.936 20.217 0.346 -69.39
3893.583 0.343 -69.563 0.937 20.041 0.937 20.041 0.343 -69.563
3918.542 0.34 -69.734 0.938 19.866 0.938 19.866 0.34 -69.734
3943.5 0.337 -69.903 0.939 19.693 0.939 19.693 0.337 -69.903
3968.458 0.334 -70.071 0.94 19.521 0.94 19.521 0.334 -70.071
3993.417 0.331 -70.238 0.941 19.35 0.941 19.35 0.331 -70.238
4018.375 0.329 -70.403 0.942 19.182 0.942 19.182 0.329 -70.403
4043.333 0.326 -70.566 0.943 19.014 0.943 19.014 0.326 -70.566
4068.292 0.323 -70.729 0.944 18.848 0.944 18.848 0.323 -70.729
4093.25 0.32 -70.889 0.945 18.683 0.945 18.683 0.32 -70.889
4118.208 0.318 -71.049 0.946 18.519 0.946 18.519 0.318 -71.049
4143.167 0.315 -71.207 0.947 18.357 0.947 18.357 0.315 -71.207
4168.125 0.312 -71.364 0.948 18.196 0.948 18.196 0.312 -71.364
4193.083 0.31 -71.519 0.948 18.037 0.948 18.037 0.31 -71.519
4218.042 0.307 -71.674 0.949 17.878 0.949 17.878 0.307 -71.674
4243 0.304 -71.826 0.95 17.721 0.95 17.721 0.304 -71.826
4267.958 0.302 -71.978 0.951 17.565 0.951 17.565 0.302 -71.978
4292.917 0.299 -72.128 0.952 17.41 0.952 17.41 0.299 -72.128
4317.875 0.297 -72.278 0.953 17.257 0.953 17.257 0.297 -72.278
4342.833 0.294 -72.426 0.953 17.104 0.953 17.104 0.294 -72.426
4367.792 0.292 -72.572 0.954 16.953 0.954 16.953 0.292 -72.572
4392.75 0.289 -72.718 0.955 16.803 0.955 16.803 0.289 -72.718
4417.708 0.287 -72.862 0.956 16.654 0.956 16.654 0.287 -72.862
4442.667 0.284 -73.006 0.956 16.506 0.956 16.506 0.284 -73.006
4467.625 0.282 -73.148 0.957 16.36 0.957 16.36 0.282 -73.148
4492.583 0.279 -73.289 0.958 16.214 0.958 16.214 0.279 -73.289
4517.542 0.277 -73.429 0.959 16.069 0.959 16.069 0.277 -73.429
4542.5 0.274 -73.567 0.959 15.926 0.959 15.926 0.274 -73.567
4567.458 0.272 -73.705 0.96 15.783 0.96 15.783 0.272 -73.705
4592.417 0.27 -73.842 0.961 15.642 0.961 15.642 0.27 -73.842
4617.375 0.267 -73.977 0.961 15.501 0.961 15.501 0.267 -73.977
4642.333 0.265 -74.112 0.962 15.362 0.962 15.362 0.265 -74.112
4667.292 0.263 -74.245 0.962 15.223 0.962 15.223 0.263 -74.245
4692.25 0.26 -74.378 0.963 15.086 0.963 15.086 0.26 -74.378
4717.208 0.258 -74.509 0.964 14.949 0.964 14.949 0.258 -74.509
4742.167 0.256 -74.639 0.964 14.814 0.964 14.814 0.256 -74.639
4767.125 0.253 -74.769 0.965 14.679 0.965 14.679 0.253 -74.769
4792.083 0.251 -74.897 0.966 14.545 0.966 14.545 0.251 -74.897
4817.042 0.249 -75.025 0.966 14.413 0.966 14.413 0.249 -75.025
4842 0.247 -75.151 0.967 14.281 0.967 14.281 0.247 -75.151
4866.958 0.244 -75.277 0.967 14.15 0.967 14.15 0.244 -75.277
4891.917 0.242 -75.401 0.968 14.019 0.968 14.019 0.242 -75.401
4916.875 0.24 -75.525 0.968 13.89 0.968 13.89 0.24 -75.525
4941.833 0.238 -75.648 0.969 13.762 0.969 13.762 0.238 -75.648
4966.792 0.236 -75.77 0.969 13.634 0.969 13.634 0.236 -75.77
4991.75 0.234 -75.891 0.97 13.507 0.97 13.507 0.234 -75.891
5016.708 0.231 -76.011 0.97 13.381 0.97 13.381 0.231 -76.011
5041.667 0.229 -76.13 0.971 13.256 0.971 13.256 0.229 -76.13
5066.625 0.227 -76.248 0.971 13.132 0.971 13.132 0.227 -76.248
5091.583 0.225 -76.366 0.972 13.008 0.972 13.008 0.225 -76.366
5116.542 0.223 -76.482 0.972 12.886 0.972 12.886 0.223 -76.482
5141.5 0.221 -76.598 0.973 12.764 0.973 12.764 0.221 -76.598
5166.458 0.219 -76.713 0.973 12.642 0.973 12.642 0.219 -76.713
5191.417 0.217 -76.827 0.974 12.522 0.974 12.522 0.217 -76.827
5216.375 0.215 -76.94 0.974 12.402 0.974 12.402 0.215 -76.94
5241.333 0.213 -77.053 0.975 12.283 0.975 12.283 0.213 -77.053
5266.292 0.211 -77.164 0.975 12.165 0.975 12.165 0.211 -77.164
5291.25 0.209 -77.275 0.976 12.047 0.976 12.047 0.209 -77.275
5316.208 0.207 -77.385 0.976 11.931 0.976 11.931 0.207 -77.385
5341.167 0.205 -77.494 0.976 11.815 0.976 11.815 0.205 -77.494
5366.125 0.203 -77.603 0.977 11.699 0.977 11.699 0.203 -77.603
5391.083 0.201 -77.71 0.977 11.584 0.977 11.584 0.201 -77.71
5416.042 0.199 -77.817 0.978 11.47 0.978 11.47 0.199 -77.817
5441 0.197 -77.923 0.978 11.357 0.978 11.357 0.197 -77.923
5465.958 0.195 -78.028 0.978 11.244 0.978 11.244 0.195 -78.028
5490.917 0.193 -78.133 0.979 11.132 0.979 11.132 0.193 -78.133
5515.875 0.191 -78.237 0.979 11.021 0.979 11.021 0.191 -78.237
5540.833 0.189 -78.34 0.979 10.91 0.979 10.91 0.189 -78.34
5565.792 0.187 -78.442 0.98 10.8 0.98 10.8 0.187 -78.442
5590.75 0.186 -78.544 0.98 10.69 0.98 10.69 0.186 -78.544
5615.708 0.184 -78.645 0.981 10.581 0.981 10.581 0.184 -78.645
5640.667 0.182 -78.745 0.981 10.473 0.981 10.473 0.182 -78.745
5665.625 0.18 -78.844 0.981 10.365 0.981 10.365 0.18 -78.844
5690.583 0.178 -78.943 0.982 10.258 0.982 10.258 0.178 -78.943
5715.542 0.176 -79.041 0.982 10.152 0.982 10.152 0.176 -79.041
5740.5 0.174 -79.138 0.982 10.046 0.982 10.046 0.174 -79.138
5765.458 0.173 -79.234 0.983 9.94 0.983 9.94 0.173 -79.234
5790.417 0.171 -79.33 0.983 9.836 0.983 9.836 0.171 -79.33
5815.375 0.169 -79.425 0.983 9.731 0.983 9.731 0.169 -79.425
5840.333 0.167 -79.52 0.983 9.628 0.983 9.628 0.167 -79.52
5865.292 0.165 -79.614 0.984 9.525 0.984 9.525 0.165 -79.614
5890.25 0.164 -79.707 0.984 9.422 0.984 9.422 0.164 -79.707
5915.208 0.162 -79.799 0.984 9.32 0.984 9.32 0.162 -79.799
5940.167 0.16 -79.891 0.985 9.218 0.985 9.218 0.16 -79.891
5965.125 0.158 -79.981 0.985 9.117 0.985 9.117 0.158 -79.981
5990.083 0.157 -80.072 0.985 9.017 0.985 9.017 0.157 -80.072
6015.042 0.155 -80.161 0.985 8.917 0.985 8.917 0.155 -80.161
6040 0.153 -80.25 0.986 8.818 0.986 8.818 0.153 -80.25
6064.958 0.152 -80.338 0.986 8.719 0.986 8.719 0.152 -80.338
6089.917 0.15 -80.426 0.986 8.62 0.986 8.62 0.15 -80.426
6114.875 0.148 -80.513 0.986 8.522 0.986 8.522 0.148 -80.513
6139.833 0.147 -80.599 0.987 8.425 0.987 8.425 0.147 -80.599
6164.792 0.145 -80.684 0.987 8.328 0.987 8.328 0.145 -80.684
6189.75 0.143 -80.769 0.987 8.232 0.987 8.232 0.143 -80.769
6214.708 0.142 -80.853 0.987 8.136 0.987 8.136 0.142 -80.853
6239.667 0.14 -80.936 0.988 8.04 0.988 8.04 0.14 -80.936
6264.625 0.138 -81.019 0.988 7.945 0.988 7.945 0.138 -81.019
6289.583 0.137 -81.101 0.988 7.85 0.988 7.85 0.137 -81.101
6314.542 0.135 -81.182 0.988 7.756 0.988 7.756 0.135 -81.182
6339.5 0.133 -81.263 0.989 7.662 0.989 7.662 0.133 -81.263
6364.458 0.132 -81.343 0.989 7.569 0.989 7.569 0.132 -81.343
6389.417 0.13 -81.422 0.989 7.476 0.989 7.476 0.13 -81.422
6414.375 0.129 -81.5 0.989 7.384 0.989 7.384 0.129 -81.5
6439.333 0.127 -81.578 0.989 7.292 0.989 7.292 0.127 -81.578
6464.292 0.125 -81.655 0.99 7.2 0.99 7.2 0.125 -81.655
6489.25 0.124 -81.731 0.99 7.109 0.99 7.109 0.124 -81.731
6514.208 0.122 -81.807 0.99 7.019 0.99 7.019 0.122 -81.807
6539.167 0.121 -81.882 0.99 6.928 0.99 6.928 0.121 -81.882
6564.125 0.119 -81.956 0.99 6.839 0.99 6.839 0.119 -81.956
6589.083 0.118 -82.029 0.991 6.749 0.991 6.749 0.118 -82.029
6614.042 0.116 -82.102 0.991 6.66 0.991 6.66 0.116 -82.102
6639 0.114 -82.173 0.991 6.571 0.991 6.571 0.114 -82.173
6663.958 0.113 -82.245 0.991 6.483 0.991 6.483 0.113 -82.245
6688.917 0.111 -82.315 0.991 6.395 0.991 6.395 0.111 -82.315
6713.875 0.11 -82.384 0.991 6.308 0.991 6.308 0.11 -82.384
6738.833 0.108 -82.453 0.992 6.221 0.992 6.221 0.108 -82.453
6763.792 0.107 -82.521 0.992 6.134 0.992 6.134 0.107 -82.521
6788.75 0.105 -82.588 0.992 6.047 0.992 6.047 0.105 -82.588
6813.708 0.104 -82.654 0.992 5.961 0.992 5.961 0.104 -82.654
6838.667 0.102 -82.719 0.992 5.876 0.992 5.876 0.102 -82.719
6863.625 0.101 -82.784 0.992 5.791 0.992 5.791 0.101 -82.784
6888.583 0.099 -82.847 0.993 5.706 0.993 5.706 0.099 -82.847
6913.542 0.098 -82.91 0.993 5.621 0.993 5.621 0.098 -82.91
6938.5 0.097 -82.972 0.993 5.537 0.993 5.537 0.097 -82.972
6963.458 0.095 -83.032 0.993 5.453 0.993 5.453 0.095 -83.032
6988.417 0.094 -83.092 0.993 5.37 0.993 5.37 0.094 -83.092
7013.375 0.092 -83.151 0.993 5.286 0.993 5.286 0.092 -83.151
7038.333 0.091 -83.209 0.993 5.204 0.993 5.204 0.091 -83.209
7063.292 0.089 -83.266 0.993 5.121 0.993 5.121 0.089 -83.266
7088.25 0.088 -83.321 0.994 5.039 0.994 5.039 0.088 -83.321
7113.208 0.086 -83.376 0.994 4.957 0.994 4.957 0.086 -83.376
7138.167 0.085 -83.43 0.994 4.876 0.994 4.876 0.085 -83.43
7163.125 0.084 -83.482 0.994 4.794 0.994 4.794 0.084 -83.482
7188.083 0.082 -83.533 0.994 4.714 0.994 4.714 0.082 -83.533
7213.042 0.081 -83.583 0.994 4.633 0.994 4.633 0.081 -83.583
7238 0.079 -83.632 0.994 4.553 0.994 4.553 0.079 -83.632
7262.958 0.078 -83.679 0.994 4.473 0.994 4.473 0.078 -83.679
7287.917 0.077 -83.725 0.995 4.393 0.995 4.393 0.077 -83.725
7312.875 0.075 -83.77 0.995 4.314 0.995 4.314 0.075 -83.77
7337.833 0.074 -83.813 0.995 4.235 0.995 4.235 0.074 -83.813
7362.792 0.073 -83.854 0.995 4.156 0.995 4.156 0.073 -83.854
7387.75 0.071 -83.894 0.995 4.078 0.995 4.078 0.071 -83.894
7412.708 0.07 -83.933 0.995 4 0.995 4 0.07 -83.933
7437.667 0.068 -83.97 0.995 3.922 0.995 3.922 0.068 -83.97
7462.625 0.067 -84.004 0.995 3.845 0.995 3.845 0.067 -84.004
7487.583 0.066 -84.037 0.995 3.767 0.995 3.767 0.066 -84.037
7512.542 0.064 -84.069 0.995 3.691 0.995 3.691 0.064 -84.069
7537.5 0.063 -84.098 0.995 3.614 0.995 3.614 0.063 -84.098
7562.458 0.062 -84.124 0.996 3.538 0.996 3.538 0.062 -84.124
7587.417 0.06 -84.149 0.996 3.461 0.996 3.461 0.06 -84.149
7612.375 0.059 -84.171 0.996 3.386 0.996 3.386 0.059 -84.171
7637.333 0.058 -84.191 0.996 3.31 0.996 3.31 0.058 -84.191
7662.292 0.056 -84.208 0.996 3.235 0.996 3.235 0.056 -84.208
7687.25 0.055 -84.222 0.996 3.16 0.996 3.16 0.055 -84.222
7712.208 0.054 -84.234 0.996 3.085 0.996 3.085 0.054 -84.234
7737.167 0.053 -84.242 0.996 3.011 0.996 3.011 0.053 -84.242
7762.125 0.051 -84.247 0.996 2.936 0.996 2.936 0.051 -84.247
7787.083 0.05 -84.248 0.996 2.862 0.996 2.862 0.05 -84.248
7812.042 0.049 -84.245 0.996 2.789 0.996 2.789 0.049 -84.245
7837 0.047 -84.238 0.996 2.715 0.996 2.715 0.047 -84.238
7861.958 0.046 -84.227 0.996 2.642 0.996 2.642 0.046 -84.227
7886.917 0.045 -84.211 0.996 2.569 0.996 2.569 0.045 -84.211
7911.875 0.044 -84.19 0.997 2.496 0.997 2.496 0.044 -84.19
7936.833 0.042 -84.164 0.997 2.424 0.997 2.424 0.042 -84.164
7961.792 0.041 -84.131 0.997 2.352 0.997 2.352 0.041 -84.131
7986.75 0.04 -84.092 0.997 2.28 0.997 2.28 0.04 -84.092
8011.708 0.039 -84.047 0.997 2.208 0.997 2.208 0.039 -84.047
8036.667 0.037 -83.993 0.997 2.137 0.997 2.137 0.037 -83.993
8061.625 0.036 -83.931 0.997 2.065 0.997 2.065 0.036 -83.931
8086.583 0.035 -83.86 0.997 1.994 0.997 1.994 0.035 -83.86
8111.542 0.034 -83.779 0.997 1.924 0.997 1.924 0.034 -83.779
8136.5 0.032 -83.686 0.997 1.853 0.997 1.853 0.032 -83.686
8161.458 0.031 -83.581 0.997 1.783 0.997 1.783 0.031 -83.581
8186.417 0.03 -83.462 0.997 1.713 0.997 1.713 0.03 -83.462
8211.375 0.029 -83.327 0.997 1.643 0.997 1.643 0.029 -83.327
