# MHZ S MA R 50

50 0.999 -2.878 0.05 87.118 0.05 87.118 0.999 -2.878
74.958 0.997 -4.31 0.075 85.684 0.075 85.684 0.997 -4.31
99.917 0.995 -5.737 0.1 84.254 0.1 84.254 0.995 -5.737
124.875 0.992 -7.158 0.125 82.831 0.125 82.831 0.992 -7.158
149.833 0.989 -8.57 0.149 81.417 0.149 81.417 0.989 -8.57
174.792 0.985 -9.973 0.173 80.012 0.173 80.012 0.985 -9.973
199.75 0.98 -11.365 0.197 78.618 0.197 78.618 0.98 -11.365
224.708 0.975 -12.744 0.221 77.237 0.221 77.237 0.975 -12.744
249.667 0.97 -14.109 0.244 75.869 0.244 75.869 0.97 -14.109
274.625 0.964 -15.46 0.267 74.517 0.267 74.517 0.964 -15.46
299.583 0.957 -16.794 0.289 73.181 0.289 73.181 0.957 -16.794
324.542 0.95 -18.111 0.311 71.861 0.311 71.861 0.95 -18.111
349.5 0.943 -19.41 0.332 70.56 0.332 70.56 0.943 -19.41
374.458 0.935 -20.69 0.353 69.278 0.353 69.278 0.935 -20.69
399.417 0.927 -21.95 0.374 68.015 0.374 68.015 0.927 -21.95
424.375 0.919 -23.191 0.394 66.773 0.394 66.773 0.919 -23.191
449.333 0.91 -24.41 0.413 65.551 0.413 65.551 0.91 -24.41
474.292 0.901 -25.608 0.432 64.351 0.432 64.351 0.901 -25.608
499.25 0.892 -26.785 0.451 63.172 0.451 63.172 0.892 -26.785
524.208 0.883 -27.939 0.469 62.016 0.469 62.016 0.883 -27.939
549.167 0.874 -29.072 0.486 60.881 0.486 60.881 0.874 -29.072
574.125 0.864 -30.182 0.503 59.769 0.503 59.769 0.864 -30.182
599.083 0.854 -31.27 0.519 58.679 0.519 58.679 0.854 -31.27
624.042 0.844 -32.335 0.535 57.611 0.535 57.611 0.844 -32.335
649 0.835 -33.379 0.55 56.565 0.55 56.565 0.835 -33.379
673.958 0.825 -34.4 0.565 55.542 0.565 55.542 0.825 -34.4
698.917 0.815 -35.399 0.579 54.541 0.579 54.541 0.815 -35.399
723.875 0.804 -36.376 0.593 53.561 0.593 53.561 0.804 -36.376
748.833 0.794 -37.332 0.606 52.604 0.606 52.604 0.794 -37.332
773.792 0.784 -38.266 0.619 51.667 0.619 51.667 0.784 -38.266
798.75 0.774 -39.179 0.632 50.752 0.632 50.752 0.774 -39.179
823.708 0.764 -40.072 0.644 49.857 0.644 49.857 0.764 -40.072
848.667 0.755 -40.944 0.655 48.982 0.655 48.982 0.755 -40.944
873.625 0.745 -41.796 0.666 48.128 0.666 48.128 0.745 -41.796
898.583 0.735 -42.629 0.677 47.293 0.677 47.293 0.735 -42.629
923.542 0.725 -43.442 0.688 46.477 0.688 46.477 0.725 -43.442
948.5 0.715 -44.237 0.698 45.68 0.698 45.68 0.715 -44.237
973.458 0.706 -45.013 0.707 44.902 0.707 44.902 0.706 -45.013
998.417 0.696 -45.772 0.717 44.141 0.717 44.141 0.696 -45.772
1023.375 0.687 -46.512 0.726 43.398 0.726 43.398 0.687 -46.512
1048.333 0.678 -47.236 0.734 42.672 0.734 42.672 0.678 -47.236
1073.292 0.669 -47.943 0.742 41.963 0.742 41.963 0.669 -47.943
1098.25 0.66 -48.634 0.751 41.27 0.751 41.27 0.66 -48.634
1123.208 0.651 -49.308 0.758 40.593 0.758 40.593 0.651 -49.308
1148.167 0.642 -49.968 0.766 39.931 0.766 39.931 0.642 -49.968
1173.125 0.633 -50.612 0.773 39.284 0.773 39.284 0.633 -50.612
1198.083 0.625 -51.242 0.78 38.652 0.78 38.652 0.625 -51.242
1223.042 0.616 -51.857 0.786 38.035 0.786 38.035 0.616 -51.857
1248 0.608 -52.458 0.793 37.431 0.793 37.431 0.608 -52.458
1272.958 0.6 -53.046 0.799 36.841 0.799 36.841 0.6 -53.046
1297.917 0.591 -53.621 0.805 36.263 0.805 36.263 0.591 -53.621
1322.875 0.584 -54.183 0.811 35.699 0.811 35.699 0.584 -54.183
1347.833 0.576 -54.733 0.816 35.147 0.816 35.147 0.576 -54.733
1372.792 0.568 -55.271 0.822 34.606 0.822 34.606 0.568 -55.271
1397.75 0.56 -55.797 0.827 34.078 0.827 34.078 0.56 -55.797
1422.708 0.553 -56.311 0.832 33.561 0.832 33.561 0.553 -56.311
1447.667 0.545 -56.815 0.837 33.055 0.837 33.055 0.545 -56.815
1472.625 0.538 -57.308 0.842 32.56 0.842 32.56 0.538 -57.308
1497.583 0.531 -57.79 0.846 32.075 0.846 32.075 0.531 -57.79
1522.542 0.524 -58.262 0.85 31.6 0.85 31.6 0.524 -58.262
1547.5 0.517 -58.725 0.855 31.135 0.855 31.135 0.517 -58.725
1572.458 0.51 -59.178 0.859 30.68 0.859 30.68 0.51 -59.178
1597.417 0.504 -59.621 0.863 30.234 0.863 30.234 0.504 -59.621
1622.375 0.497 -60.056 0.867 29.796 0.867 29.796 0.497 -60.056
1647.333 0.49 -60.481 0.87 29.368 0.87 29.368 0.49 -60.481
1672.292 0.484 -60.899 0.874 28.948 0.874 28.948 0.484 -60.899
1697.25 0.478 -61.307 0.877 28.537 0.877 28.537 0.478 -61.307
1722.208 0.472 -61.708 0.881 28.133 0.881 28.133 0.472 -61.708
1747.167 0.465 -62.101 0.884 27.738 0.884 27.738 0.465 -62.101
1772.125 0.459 -62.487 0.887 27.35 0.887 27.35 0.459 -62.487
1797.083 0.454 -62.865 0.89 26.969 0.89 26.969 0.454 -62.865
1822.042 0.448 -63.235 0.893 26.595 0.893 26.595 0.448 -63.235
1847 0.442 -63.599 0.896 26.229 0.896 26.229 0.442 -63.599
1871.958 0.436 -63.956 0.898 25.869 0.898 25.869 0.436 -63.956
1896.917 0.431 -64.307 0.901 25.516 0.901 25.516 0.431 -64.307
1921.875 0.425 -64.651 0.904 25.169 0.904 25.169 0.425 -64.651
1946.833 0.42 -64.988 0.906 24.829 0.906 24.829 0.42 -64.988
1971.792 0.415 -65.32 0.909 24.494 0.909 24.494 0.415 -65.32
1996.75 0.409 -65.645 0.911 24.166 0.911 24.166 0.409 -65.645
2021.708 0.404 -65.965 0.913 23.843 0.913 23.843 0.404 -65.965
2046.667 0.399 -66.28 0.916 23.526 0.916 23.526 0.399 -66.28
2071.625 0.394 -66.588 0.918 23.214 0.918 23.214 0.394 -66.588
2096.583 0.389 -66.892 0.92 22.908 0.92 22.908 0.389 -66.892
2121.542 0.384 -67.19 0.922 22.607 0.922 22.607 0.384 -67.19
2146.5 0.38 -67.483 0.924 22.31 0.924 22.31 0.38 -67.483
2171.458 0.375 -67.771 0.926 22.019 0.926 22.019 0.375 -67.771
2196.417 0.37 -68.055 0.928 21.733 0.928 21.733 0.37 -68.055
2221.375 0.366 -68.334 0.929 21.451 0.929 21.451 0.366 -68.334
2246.333 0.361 -68.608 0.931 21.173 0.931 21.173 0.361 -68.608
2271.292 0.357 -68.878 0.933 20.901 0.933 20.901 0.357 -68.878
2296.25 0.352 -69.143 0.934 20.632 0.934 20.632 0.352 -69.143
2321.208 0.348 -69.404 0.936 20.367 0.936 20.367 0.348 -69.404
2346.167 0.344 -69.661 0.938 20.107 0.938 20.107 0.344 -69.661
2371.125 0.34 -69.915 0.939 19.851 0.939 19.851 0.34 -69.915
2396.083 0.335 -70.164 0.941 19.598 0.941 19.598 0.335 -70.164
2421.042 0.331 -70.409 0.942 19.35 0.942 19.35 0.331 -70.409
2446 0.327 -70.651 0.944 19.105 0.944 19.105 0.327 -70.651
2470.958 0.323 -70.889 0.945 18.863 0.945 18.863 0.323 -70.889
2495.917 0.319 -71.123 0.946 18.626 0.946 18.626 0.319 -71.123
2520.875 0.316 -71.354 0.948 18.391 0.948 18.391 0.316 -71.354
2545.833 0.312 -71.582 0.949 18.16 0.949 18.16 0.312 -71.582
2570.792 0.308 -71.806 0.95 17.932 0.95 17.932 0.308 -71.806
2595.75 0.304 -72.027 0.951 17.708 0.951 17.708 0.304 -72.027
2620.708 0.3 -72.245 0.952 17.487 0.952 17.487 0.3 -72.245
2645.667 0.297 -72.459 0.954 17.268 0.954 17.268 0.297 -72.459
2670.625 0.293 -72.671 0.955 17.053 0.955 17.053 0.293 -72.671
2695.583 0.29 -72.88 0.956 16.84 0.956 16.84 0.29 -72.88
2720.542 0.286 -73.086 0.957 16.631 0.957 16.631 0.286 -73.086
2745.5 0.283 -73.289 0.958 16.424 0.958 16.424 0.283 -73.289
2770.458 0.279 -73.489 0.959 16.22 0.959 16.22 0.279 -73.489
2795.417 0.276 -73.687 0.96 16.018 0.96 16.018 0.276 -73.687
2820.375 0.273 -73.882 0.961 15.819 0.961 15.819 0.273 -73.882
2845.333 0.269 -74.074 0.962 15.623 0.962 15.623 0.269 -74.074
2870.292 0.266 -74.264 0.963 15.429 0.963 15.429 0.266 -74.264
2895.25 0.263 -74.451 0.963 15.238 0.963 15.238 0.263 -74.451
2920.208 0.26 -74.636 0.964 15.049 0.964 15.049 0.26 -74.636
2945.167 0.256 -74.819 0.965 14.862 0.965 14.862 0.256 -74.819
2970.125 0.253 -74.999 0.966 14.678 0.966 14.678 0.253 -74.999
2995.083 0.25 -75.177 0.967 14.495 0.967 14.495 0.25 -75.177
3020.042 0.247 -75.353 0.968 14.315 0.968 14.315 0.247 -75.353
3045 0.244 -75.526 0.968 14.137 0.968 14.137 0.244 -75.526
3069.958 0.241 -75.698 0.969 13.961 0.969 13.961 0.241 -75.698
3094.917 0.238 -75.867 0.97 13.788 0.97 13.788 0.238 -75.867
3119.875 0.235 -76.034 0.97 13.616 0.97 13.616 0.235 -76.034
3144.833 0.233 -76.2 0.971 13.446 0.971 13.446 0.233 -76.2
3169.792 0.23 -76.363 0.972 13.278 0.972 13.278 0.23 -76.363
3194.75 0.227 -76.524 0.972 13.112 0.972 13.112 0.227 -76.524
3219.708 0.224 -76.684 0.973 12.948 0.973 12.948 0.224 -76.684
3244.667 0.221 -76.841 0.974 12.786 0.974 12.786 0.221 -76.841
3269.625 0.219 -76.997 0.974 12.625 0.974 12.625 0.219 -76.997
3294.583 0.216 -77.151 0.975 12.466 0.975 12.466 0.216 -77.151
3319.542 0.213 -77.303 0.976 12.309 0.976 12.309 0.213 -77.303
3344.5 0.211 -77.453 0.976 12.153 0.976 12.153 0.211 -77.453
3369.458 0.208 -77.602 0.977 11.999 0.977 11.999 0.208 -77.602
3394.417 0.205 -77.749 0.977 11.847 0.977 11.847 0.205 -77.749
3419.375 0.203 -77.894 0.978 11.696 0.978 11.696 0.203 -77.894
3444.333 0.2 -78.038 0.978 11.547 0.978 11.547 0.2 -78.038
3469.292 0.198 -78.18 0.979 11.4 0.979 11.4 0.198 -78.18
3494.25 0.195 -78.321 0.979 11.253 0.979 11.253 0.195 -78.321
3519.208 0.193 -78.46 0.98 11.109 0.98 11.109 0.193 -78.46
3544.167 0.19 -78.598 0.98 10.965 0.98 10.965 0.19 -78.598
3569.125 0.188 -78.734 0.981 10.823 0.981 10.823 0.188 -78.734
3594.083 0.185 -78.868 0.981 10.683 0.981 10.683 0.185 -78.868
3619.042 0.183 -79.001 0.982 10.544 0.982 10.544 0.183 -79.001
3644 0.181 -79.133 0.982 10.406 0.982 10.406 0.181 -79.133
3668.958 0.178 -79.263 0.983 10.269 0.983 10.269 0.178 -79.263
3693.917 0.176 -79.392 0.983 10.134 0.983 10.134 0.176 -79.392
3718.875 0.174 -79.52 0.983 10 0.983 10 0.174 -79.52
3743.833 0.171 -79.646 0.984 9.867 0.984 9.867 0.171 -79.646
3768.792 0.169 -79.771 0.984 9.735 0.984 9.735 0.169 -79.771
3793.75 0.167 -79.895 0.985 9.605 0.985 9.605 0.167 -79.895
3818.708 0.165 -80.017 0.985 9.476 0.985 9.476 0.165 -80.017
3843.667 0.162 -80.138 0.985 9.347 0.985 9.347 0.162 -80.138
3868.625 0.16 -80.258 0.986 9.22 0.986 9.22 0.16 -80.258
3893.583 0.158 -80.377 0.986 9.094 0.986 9.094 0.158 -80.377
3918.542 0.156 -80.494 0.986 8.97 0.986 8.97 0.156 -80.494
3943.5 0.154 -80.61 0.987 8.846 0.987 8.846 0.154 -80.61
3968.458 0.152 -80.725 0.987 8.723 0.987 8.723 0.152 -80.725
3993.417 0.15 -80.839 0.987 8.601 0.987 8.601 0.15 -80.839
4018.375 0.147 -80.951 0.988 8.481 0.988 8.481 0.147 -80.951
4043.333 0.145 -81.063 0.988 8.361 0.988 8.361 0.145 -81.063
4068.292 0.143 -81.173 0.988 8.242 0.988 8.242 0.143 -81.173
4093.25 0.141 -81.282 0.988 8.125 0.988 8.125 0.141 -81.282
4118.208 0.139 -81.39 0.989 8.008 0.989 8.008 0.139 -81.39
4143.167 0.137 -81.497 0.989 7.892 0.989 7.892 0.137 -81.497
4168.125 0.135 -81.603 0.989 7.777 0.989 7.777 0.135 -81.603
4193.083 0.133 -81.708 0.99 7.663 0.99 7.663 0.133 -81.708
4218.042 0.131 -81.811 0.99 7.55 0.99 7.55 0.131 -81.811
4243 0.129 -81.914 0.99 7.437 0.99 7.437 0.129 -81.914
4267.958 0.128 -82.015 0.99 7.326 0.99 7.326 0.128 -82.015
4292.917 0.126 -82.116 0.991 7.215 0.991 7.215 0.126 -82.116
4317.875 0.124 -82.215 0.991 7.105 0.991 7.105 0.124 -82.215
4342.833 0.122 -82.314 0.991 6.996 0.991 6.996 0.122 -82.314
4367.792 0.12 -82.411 0.991 6.888 0.991 6.888 0.12 -82.411
4392.75 0.118 -82.507 0.992 6.781 0.992 6.781 0.118 -82.507
4417.708 0.116 -82.602 0.992 6.674 0.992 6.674 0.116 -82.602
4442.667 0.114 -82.696 0.992 6.568 0.992 6.568 0.114 -82.696
4467.625 0.113 -82.789 0.992 6.463 0.992 6.463 0.113 -82.789
4492.583 0.111 -82.881 0.992 6.359 0.992 6.359 0.111 -82.881
4517.542 0.109 -82.972 0.993 6.255 0.993 6.255 0.109 -82.972
4542.5 0.107 -83.062 0.993 6.152 0.993 6.152 0.107 -83.062
4567.458 0.105 -83.151 0.993 6.05 0.993 6.05 0.105 -83.151
4592.417 0.104 -83.239 0.993 5.949 0.993 5.949 0.104 -83.239
4617.375 0.102 -83.325 0.993 5.848 0.993 5.848 0.102 -83.325
4642.333 0.1 -83.411 0.994 5.748 0.994 5.748 0.1 -83.411
4667.292 0.098 -83.495 0.994 5.648 0.994 5.648 0.098 -83.495
4692.25 0.097 -83.579 0.994 5.55 0.994 5.55 0.097 -83.579
4717.208 0.095 -83.661 0.994 5.451 0.994 5.451 0.095 -83.661
4742.167 0.093 -83.743 0.994 5.354 0.994 5.354 0.093 -83.743
4767.125 0.092 -83.823 0.994 5.257 0.994 5.257 0.092 -83.823
4792.083 0.09 -83.902 0.994 5.161 0.994 5.161 0.09 -83.902
4817.042 0.088 -83.98 0.995 5.065 0.995 5.065 0.088 -83.98
4842 0.087 -84.056 0.995 4.97 0.995 4.97 0.087 -84.056
4866.958 0.085 -84.132 0.995 4.875 0.995 4.875 0.085 -84.132
4891.917 0.083 -84.206 0.995 4.782 0.995 4.782 0.083 -84.206
4916.875 0.082 -84.279 0.995 4.688 0.995 4.688 0.082 -84.279
4941.833 0.08 -84.351 0.995 4.596 0.995 4.596 0.08 -84.351
4966.792 0.079 -84.421 0.995 4.503 0.995 4.503 0.079 -84.421
4991.75 0.077 -84.491 0.996 4.412 0.996 4.412 0.077 -84.491
5016.708 0.075 -84.559 0.996 4.321 0.996 4.321 0.075 -84.559
5041.667 0.074 -84.625 0.996 4.23 0.996 4.23 0.074 -84.625
5066.625 0.072 -84.69 0.996 4.14 0.996 4.14 0.072 -84.69
5091.583 0.071 -84.754 0.996 4.051 0.996 4.051 0.071 -84.754
5116.542 0.069 -84.816 0.996 3.962 0.996 3.962 0.069 -84.816
5141.5 0.068 -84.876 0.996 3.873 0.996 3.873 0.068 -84.876
5166.458 0.066 -84.935 0.996 3.785 0.996 3.785 0.066 -84.935
5191.417 0.065 -84.992 0.996 3.698 0.996 3.698 0.065 -84.992
5216.375 0.063 -85.047 0.997 3.611 0.997 3.611 0.063 -85.047
5241.333 0.061 -85.101 0.997 3.524 0.997 3.524 0.061 -85.101
5266.292 0.06 -85.153 0.997 3.438 0.997 3.438 0.06 -85.153
5291.25 0.058 -85.202 0.997 3.353 0.997 3.353 0.058 -85.202
5316.208 0.057 -85.249 0.997 3.267 0.997 3.267 0.057 -85.249
5341.167 0.056 -85.295 0.997 3.183 0.997 3.183 0.056 -85.295
5366.125 0.054 -85.337 0.997 3.099 0.997 3.099 0.054 -85.337
5391.083 0.053 -85.378 0.997 3.015 0.997 3.015 0.053 -85.378
5416.042 0.051 -85.415 0.997 2.932 0.997 2.932 0.051 -85.415
5441 0.05 -85.45 0.997 2.849 0.997 2.849 0.05 -85.45
5465.958 0.048 -85.482 0.997 2.766 0.997 2.766 0.048 -85.482
5490.917 0.047 -85.51 0.997 2.684 0.997 2.684 0.047 -85.51
5515.875 0.045 -85.535 0.997 2.602 0.997 2.602 0.045 -85.535
5540.833 0.044 -85.556 0.998 2.521 0.998 2.521 0.044 -85.556
5565.792 0.043 -85.573 0.998 2.44 0.998 2.44 0.043 -85.573
5590.75 0.041 -85.586 0.998 2.36 0.998 2.36 0.041 -85.586
5615.708 0.04 -85.594 0.998 2.28 0.998 2.28 0.04 -85.594
5640.667 0.038 -85.597 0.998 2.2 0.998 2.2 0.038 -85.597
5665.625 0.037 -85.593 0.998 2.121 0.998 2.121 0.037 -85.593
5690.583 0.036 -85.584 0.998 2.042 0.998 2.042 0.036 -85.584
5715.542 0.034 -85.568 0.998 1.964 0.998 1.964 0.034 -85.568
5740.5 0.033 -85.544 0.998 1.886 0.998 1.886 0.033 -85.544
5765.458 0.032 -85.511 0.998 1.808 0.998 1.808 0.032 -85.511
5790.417 0.03 -85.469 0.998 1.731 0.998 1.731 0.03 -85.469
5815.375 0.029 -85.415 0.998 1.654 0.998 1.654 0.029 -85.415
5840.333 0.028 -85.35 0.998 1.577 0.998 1.577 0.028 -85.35
5865.292 0.026 -85.27 0.998 1.501 0.998 1.501 0.026 -85.27
5890.25 0.025 -85.174 0.998 1.425 0.998 1.425 0.025 -85.174
5915.208 0.024 -85.06 0.998 1.349 0.998 1.349 0.024 -85.06
5940.167 0.022 -84.923 0.998 1.274 0.998 1.274 0.022 -84.923
5965.125 0.021 -84.761 0.998 1.199 0.998 1.199 0.021 -84.761
5990.083 0.02 -84.568 0.998 1.124 0.998 1.124 0.02 -84.568
6015.042 0.018 -84.339 0.998 1.05 0.998 1.05 0.018 -84.339
6040 0.017 -84.065 0.998 0.976 0.998 0.976 0.017 -84.065
6064.958 0.016 -83.736 0.998 0.902 0.998 0.902 0.016 -83.736
6089.917 0.015 -83.338 0.998 0.829 0.998 0.829 0.015 -83.338
6114.875 0.013 -82.852 0.998 0.756 0.998 0.756 0.013 -82.852
6139.833 0.012 -82.251 0.998 0.683 0.998 0.683 0.012 -82.251
6164.792 0.011 -81.496 0.998 0.611 0.998 0.611 0.011 -81.496
6189.75 9.518e-3 -80.528 0.998 0.539 0.998 0.539 9.518e-3 -80.528
6214.708 8.282e-3 -79.253 0.998 0.467 0.998 0.467 8.282e-3 -79.253
6239.667 7.057e-3 -77.515 0.998 0.395 0.998 0.395 7.057e-3 -77.515
6264.625 5.847e-3 -75.034 0.999 0.324 0.999 0.324 5.847e-3 -75.034
6289.583 4.66e-3 -71.253 0.999 0.253 0.999 0.253 4.66e-3 -71.253
6314.542 3.512e-3 -64.929 0.999 0.183 0.999 0.183 3.512e-3 -64.929
6339.5 2.453e-3 -52.833 0.999 0.112 0.999 0.112 2.453e-3 -52.833
6364.458 1.65e-3 -26.37 0.999 0.042 0.999 0.042 1.65e-3 -26.37
6389.417 1.556e-3 18.124 0.999 -0.028 0.999 -0.028 1.556e-3 18.124
6414.375 2.252e-3 48.873 0.999 -0.097 0.999 -0.097 2.252e-3 48.873
6439.333 3.262e-3 62.888 0.999 -0.167 0.999 -0.167 3.262e-3 62.888
6464.292 4.37e-3 69.995 0.999 -0.236 0.999 -0.236 4.37e-3 69.995
6489.25 5.514e-3 74.148 0.999 -0.304 0.999 -0.304 5.514e-3 74.148
6514.208 6.674e-3 76.831 0.999 -0.373 0.999 -0.373 6.674e-3 76.831
6539.167 7.84e-3 78.691 0.998 -0.441 0.998 -0.441 7.84e-3 78.691
6564.125 9.008e-3 80.046 0.998 -0.509 0.998 -0.509 9.008e-3 80.046
6589.083 0.01 81.071 0.998 -0.577 0.998 -0.577 0.01 81.071
6614.042 0.011 81.868 0.998 -0.644 0.998 -0.644 0.011 81.868
6639 0.013 82.501 0.998 -0.712 0.998 -0.712 0.013 82.501
6663.958 0.014 83.014 0.998 -0.779 0.998 -0.779 0.014 83.014
6688.917 0.015 83.434 0.998 -0.845 0.998 -0.845 0.015 83.434
6713.875 0.016 83.782 0.998 -0.912 0.998 -0.912 0.016 83.782
6738.833 0.017 84.074 0.998 -0.978 0.998 -0.978 0.017 84.074
6763.792 0.018 84.319 0.998 -1.044 0.998 -1.044 0.018 84.319
6788.75 0.019 84.527 0.998 -1.11 0.998 -1.11 0.019 84.527
6813.708 0.021 84.704 0.998 -1.176 0.998 -1.176 0.021 84.704
6838.667 0.022 84.855 0.998 -1.241 0.998 -1.241 0.022 84.855
6863.625 0.023 84.984 0.998 -1.306 0.998 -1.306 0.023 84.984
6888.583 0.024 85.095 0.998 -1.371 0.998 -1.371 0.024 85.095
6913.542 0.025 85.189 0.998 -1.436 0.998 -1.436 0.025 85.189
6938.5 0.026 85.269 0.998 -1.5 0.998 -1.5 0.026 85.269
6963.458 0.027 85.338 0.998 -1.564 0.998 -1.564 0.027 85.338
6988.417 0.028 85.395 0.998 -1.628 0.998 -1.628 0.028 85.395
7013.375 0.03 85.443 0.998 -1.692 0.998 -1.692 0.03 85.443
7038.333 0.031 85.484 0.998 -1.756 0.998 -1.756 0.031 85.484
7063.292 0.032 85.516 0.998 -1.819 0.998 -1.819 0.032 85.516
7088.25 0.033 85.542 0.998 -1.882 0.998 -1.882 0.033 85.542
7113.208 0.034 85.563 0.998 -1.945 0.998 -1.945 0.034 85.563
7138.167 0.035 85.578 0.998 -2.008 0.998 -2.008 0.035 85.578
7163.125 0.036 85.588 0.998 -2.071 0.998 -2.071 0.036 85.588
7188.083 0.037 85.594 0.998 -2.133 0.998 -2.133 0.037 85.594
7213.042 0.038 85.597 0.998 -2.195 0.998 -2.195 0.038 85.597
7238 0.039 85.595 0.998 -2.257 0.998 -2.257 0.039 85.595
7262.958 0.04 85.591 0.998 -2.319 0.998 -2.319 0.04 85.591
7287.917 0.042 85.583 0.998 -2.381 0.998 -2.381 0.042 85.583
7312.875 0.043 85.573 0.998 -2.442 0.998 -2.442 0.043 85.573
7337.833 0.044 85.56 0.998 -2.504 0.998 -2.504 0.044 85.56
7362.792 0.045 85.545 0.998 -2.565 0.998 -2.565 0.045 85.545
7387.75 0.046 85.528 0.997 -2.626 0.997 -2.626 0.046 85.528
7412.708 0.047 85.509 0.997 -2.686 0.997 -2.686 0.047 85.509
7437.667 0.048 85.489 0.997 -2.747 0.997 -2.747 0.048 85.489
7462.625 0.049 85.466 0.997 -2.807 0.997 -2.807 0.049 85.466
7487.583 0.05 85.442 0.997 -2.867 0.997 -2.867 0.05 85.442
7512.542 0.051 85.417 0.997 -2.927 0.997 -2.927 0.051 85.417
7537.5 0.052 85.39 0.997 -2.987 0.997 -2.987 0.052 85.39
7562.458 0.053 85.363 0.997 -3.047 0.997 -3.047 0.053 85.363
7587.417 0.054 85.334 0.997 -3.106 0.997 -3.106 0.054 85.334
7612.375 0.055 85.303 0.997 -3.166 0.997 -3.166 0.055 85.303
7637.333 0.056 85.272 0.997 -3.225 0.997 -3.225 0.056 85.272
7662.292 0.057 85.241 0.997 -3.284 0.997 -3.284 0.057 85.241
7687.25 0.058 85.208 0.997 -3.342 0.997 -3.342 0.058 85.208
7712.208 0.059 85.174 0.997 -3.401 0.997 -3.401 0.059 85.174
7737.167 0.06 85.14 0.997 -3.46 0.997 -3.46 0.06 85.14
7762.125 0.061 85.105 0.997 -3.518 0.997 -3.518 0.061 85.105
7787.083 0.062 85.069 0.997 -3.576 0.997 -3.576 0.062 85.069
7812.042 0.063 85.033 0.997 -3.634 0.997 -3.634 0.063 85.033
7837 0.064 84.996 0.996 -3.692 0.996 -3.692 0.064 84.996
7861.958 0.065 84.958 0.996 -3.75 0.996 -3.75 0.065 84.958
7886.917 0.066 84.92 0.996 -3.807 0.996 -3.807 0.066 84.92
7911.875 0.067 84.882 0.996 -3.865 0.996 -3.865 0.067 84.882
7936.833 0.068 84.843 0.996 -3.922 0.996 -3.922 0.068 84.843
7961.792 0.069 84.804 0.996 -3.979 0.996 -3.979 0.069 84.804
7986.75 0.07 84.764 0.996 -4.036 0.996 -4.036 0.07 84.764
8011.708 0.071 84.724 0.996 -4.093 0.996 -4.093 0.071 84.724
8036.667 0.072 84.683 0.996 -4.149 0.996 -4.149 0.072 84.683
8061.625 0.073 84.643 0.996 -4.206 0.996 -4.206 0.073 84.643
8086.583 0.074 84.601 0.996 -4.262 0.996 -4.262 0.074 84.601
8111.542 0.075 84.56 0.996 -4.319 0.996 -4.319 0.075 84.56
8136.5 0.076 84.518 0.996 -4.375 0.996 -4.375 0.076 84.518
8161.458 0.077 84.476 0.996 -4.431 0.996 -4.431 0.077 84.476
8186.417 0.078 84.434 0.995 -4.486 0.995 -4.486 0.078 84.434
8211.375 0.079 84.392 0.995 -4.542 0.995 -4.542 0.079 84.392
