# MHZ S MA R 50

50 0.996 -5.385 0.094 84.611 0.094 84.611 0.996 -5.385
74.958 0.99 -8.044 0.14 81.949 0.14 81.949 0.99 -8.044
99.917 0.983 -10.671 0.185 79.321 0.185 79.321 0.983 -10.671
124.875 0.973 -13.255 0.229 76.735 0.229 76.735 0.973 -13.255
149.833 0.962 -15.788 0.272 74.2 0.272 74.2 0.962 -15.788
174.792 0.95 -18.261 0.313 71.725 0.313 71.725 0.95 -18.261
199.75 0.936 -20.669 0.353 69.315 0.353 69.315 0.936 -20.669
224.708 0.92 -23.006 0.391 66.975 0.391 66.975 0.92 -23.006
249.667 0.904 -25.269 0.427 64.711 0.427 64.711 0.904 -25.269
274.625 0.887 -27.454 0.461 62.523 0.461 62.523 0.887 -27.454
299.583 0.87 -29.56 0.493 60.415 0.493 60.415 0.87 -29.56
324.542 0.852 -31.586 0.524 58.387 0.524 58.387 0.852 -31.586
349.5 0.833 -33.533 0.552 56.438 0.552 56.438 0.833 -33.533
374.458 0.815 -35.4 0.579 54.569 0.579 54.569 0.815 -35.4
399.417 0.796 -37.189 0.604 52.778 0.604 52.778 0.796 -37.189
424.375 0.778 -38.902 0.628 51.063 0.628 51.063 0.778 -38.902
449.333 0.76 -40.541 0.65 49.422 0.65 49.422 0.76 -40.541
474.292 0.741 -42.109 0.671 47.852 0.671 47.852 0.741 -42.109
499.25 0.724 -43.607 0.69 46.351 0.69 46.351 0.724 -43.607
524.208 0.706 -45.04 0.708 44.916 0.708 44.916 0.706 -45.04
549.167 0.689 -46.41 0.724 43.545 0.724 43.545 0.689 -46.41
574.125 0.672 -47.719 0.74 42.233 0.74 42.233 0.672 -47.719
599.083 0.656 -48.97 0.754 40.98 0.754 40.98 0.656 -48.97
624.042 0.64 -50.167 0.768 39.781 0.768 39.781 0.64 -50.167
649 0.624 -51.312 0.781 38.634 0.781 38.634 0.624 -51.312
673.958 0.609 -52.407 0.792 37.536 0.792 37.536 0.609 -52.407
698.917 0.595 -53.456 0.803 36.485 0.803 36.485 0.595 -53.456
723.875 0.58 -54.46 0.814 35.479 0.814 35.479 0.58 -54.46
748.833 0.567 -55.422 0.823 34.515 0.823 34.515 0.567 -55.422
773.792 0.553 -56.344 0.832 33.59 0.832 33.59 0.553 -56.344
798.75 0.54 -57.229 0.841 32.703 0.841 32.703 0.54 -57.229
823.708 0.528 -58.078 0.849 31.852 0.849 31.852 0.528 -58.078
848.667 0.516 -58.893 0.856 31.034 0.856 31.034 0.516 -58.893
873.625 0.504 -59.676 0.863 30.249 0.863 30.249 0.504 -59.676
898.583 0.492 -60.429 0.87 29.494 0.87 29.494 0.492 -60.429
923.542 0.481 -61.153 0.876 28.767 0.876 28.767 0.481 -61.153
948.5 0.471 -61.85 0.882 28.068 0.882 28.068 0.471 -61.85
973.458 0.46 -62.522 0.887 27.394 0.887 27.394 0.46 -62.522
998.417 0.45 -63.168 0.892 26.745 0.892 26.745 0.45 -63.168
1023.375 0.44 -63.792 0.897 26.119 0.897 26.119 0.44 -63.792
1048.333 0.431 -64.393 0.902 25.515 0.902 25.515 0.431 -64.393
1073.292 0.422 -64.974 0.906 24.932 0.906 24.932 0.422 -64.974
1098.25 0.413 -65.535 0.91 24.369 0.91 24.369 0.413 -65.535
1123.208 0.404 -66.077 0.914 23.825 0.914 23.825 0.404 -66.077
1148.167 0.396 -66.6 0.918 23.298 0.918 23.298 0.396 -66.6
1173.125 0.387 -67.107 0.921 22.789 0.921 22.789 0.387 -67.107
1198.083 0.379 -67.598 0.925 22.296 0.925 22.296 0.379 -67.598
1223.042 0.372 -68.073 0.928 21.818 0.928 21.818 0.372 -68.073
1248 0.364 -68.533 0.931 21.355 0.931 21.355 0.364 -68.533
1272.958 0.357 -68.979 0.933 20.907 0.933 20.907 0.357 -68.979
1297.917 0.35 -69.412 0.936 20.471 0.936 20.471 0.35 -69.412
1322.875 0.343 -69.832 0.939 20.049 0.939 20.049 0.343 -69.832
1347.833 0.336 -70.24 0.941 19.638 0.941 19.638 0.336 -70.24
1372.792 0.33 -70.636 0.943 19.239 0.943 19.239 0.33 -70.636
1397.75 0.323 -71.021 0.946 18.852 0.946 18.852 0.323 -71.021
1422.708 0.317 -71.395 0.948 18.475 0.948 18.475 0.317 -71.395
1447.667 0.311 -71.759 0.95 18.108 0.95 18.108 0.311 -71.759
1472.625 0.305 -72.113 0.952 17.751 0.952 17.751 0.305 -72.113
1497.583 0.299 -72.457 0.953 17.404 0.953 17.404 0.299 -72.457
1522.542 0.293 -72.793 0.955 17.065 0.955 17.065 0.293 -72.793
1547.5 0.288 -73.12 0.957 16.735 0.957 16.735 0.288 -73.12
1572.458 0.283 -73.439 0.959 16.414 0.959 16.414 0.283 -73.439
1597.417 0.277 -73.749 0.96 16.1 0.96 16.1 0.277 -73.749
1622.375 0.272 -74.053 0.962 15.794 0.962 15.794 0.272 -74.053
1647.333 0.267 -74.348 0.963 15.495 0.963 15.495 0.267 -74.348
1672.292 0.262 -74.637 0.964 15.203 0.964 15.203 0.262 -74.637
1697.25 0.257 -74.919 0.966 14.918 0.966 14.918 0.257 -74.919
1722.208 0.253 -75.194 0.967 14.639 0.967 14.639 0.253 -75.194
1747.167 0.248 -75.463 0.968 14.367 0.968 14.367 0.248 -75.463
1772.125 0.244 -75.726 0.969 14.1 0.969 14.1 0.244 -75.726
1797.083 0.239 -75.984 0.97 13.84 0.97 13.84 0.239 -75.984
1822.042 0.235 -76.235 0.971 13.585 0.971 13.585 0.235 -76.235
1847 0.231 -76.481 0.972 13.335 0.972 13.335 0.231 -76.481
1871.958 0.226 -76.722 0.973 13.09 0.973 13.09 0.226 -76.722
1896.917 0.222 -76.958 0.974 12.851 0.974 12.851 0.222 -76.958
1921.875 0.218 -77.189 0.975 12.616 0.975 12.616 0.218 -77.189
1946.833 0.215 -77.415 0.976 12.386 0.976 12.386 0.215 -77.415
1971.792 0.211 -77.637 0.977 12.161 0.977 12.161 0.211 -77.637
1996.75 0.207 -77.854 0.978 11.94 0.978 11.94 0.207 -77.854
2021.708 0.203 -78.068 0.978 11.723 0.978 11.723 0.203 -78.068
2046.667 0.2 -78.276 0.979 11.51 0.979 11.51 0.2 -78.276
2071.625 0.196 -78.481 0.98 11.301 0.98 11.301 0.196 -78.481
2096.583 0.192 -78.682 0.981 11.096 0.981 11.096 0.192 -78.682
2121.542 0.189 -78.88 0.981 10.894 0.981 10.894 0.189 -78.88
2146.5 0.186 -79.073 0.982 10.696 0.982 10.696 0.186 -79.073
2171.458 0.182 -79.264 0.983 10.502 0.983 10.502 0.182 -79.264
2196.417 0.179 -79.45 0.983 10.31 0.983 10.31 0.179 -79.45
2221.375 0.176 -79.634 0.984 10.122 0.984 10.122 0.176 -79.634
2246.333 0.173 -79.814 0.984 9.938 0.984 9.938 0.173 -79.814
2271.292 0.169 -79.991 0.985 9.756 0.985 9.756 0.169 -79.991
2296.25 0.166 -80.165 0.985 9.577 0.985 9.577 0.166 -80.165
2321.208 0.163 -80.336 0.986 9.401 0.986 9.401 0.163 -80.336
2346.167 0.16 -80.504 0.986 9.228 0.986 9.228 0.16 -80.504
2371.125 0.157 -80.67 0.987 9.057 0.987 9.057 0.157 -80.67
2396.083 0.155 -80.832 0.987 8.889 0.987 8.889 0.155 -80.832
2421.042 0.152 -80.992 0.988 8.724 0.988 8.724 0.152 -80.992
2446 0.149 -81.15 0.988 8.561 0.988 8.561 0.149 -81.15
2470.958 0.146 -81.305 0.989 8.4 0.989 8.4 0.146 -81.305
2495.917 0.143 -81.457 0.989 8.242 0.989 8.242 0.143 -81.457
2520.875 0.141 -81.607 0.989 8.086 0.989 8.086 0.141 -81.607
2545.833 0.138 -81.755 0.99 7.932 0.99 7.932 0.138 -81.755
2570.792 0.135 -81.901 0.99 7.781 0.99 7.781 0.135 -81.901
2595.75 0.133 -82.044 0.99 7.631 0.99 7.631 0.133 -82.044
2620.708 0.13 -82.185 0.991 7.484 0.991 7.484 0.13 -82.185
2645.667 0.128 -82.324 0.991 7.338 0.991 7.338 0.128 -82.324
2670.625 0.125 -82.461 0.991 7.194 0.991 7.194 0.125 -82.461
2695.583 0.123 -82.596 0.992 7.053 0.992 7.053 0.123 -82.596
2720.542 0.12 -82.728 0.992 6.913 0.992 6.913 0.12 -82.728
2745.5 0.118 -82.859 0.992 6.774 0.992 6.774 0.118 -82.859
2770.458 0.116 -82.988 0.993 6.638 0.993 6.638 0.116 -82.988
2795.417 0.113 -83.115 0.993 6.503 0.993 6.503 0.113 -83.115
2820.375 0.111 -83.24 0.993 6.37 0.993 6.37 0.111 -83.24
2845.333 0.109 -83.363 0.993 6.239 0.993 6.239 0.109 -83.363
2870.292 0.106 -83.485 0.994 6.109 0.994 6.109 0.106 -83.485
2895.25 0.104 -83.604 0.994 5.98 0.994 5.98 0.104 -83.604
2920.208 0.102 -83.722 0.994 5.853 0.994 5.853 0.102 -83.722
2945.167 0.1 -83.839 0.994 5.728 0.994 5.728 0.1 -83.839
2970.125 0.098 -83.953 0.994 5.603 0.994 5.603 0.098 -83.953
2995.083 0.096 -84.066 0.995 5.481 0.995 5.481 0.096 -84.066
3020.042 0.093 -84.177 0.995 5.359 0.995 5.359 0.093 -84.177
3045 0.091 -84.286 0.995 5.239 0.995 5.239 0.091 -84.286
3069.958 0.089 -84.394 0.995 5.12 0.995 5.12 0.089 -84.394
3094.917 0.087 -84.5 0.995 5.003 0.995 5.003 0.087 -84.5
3119.875 0.085 -84.604 0.996 4.886 0.996 4.886 0.085 -84.604
3144.833 0.083 -84.707 0.996 4.771 0.996 4.771 0.083 -84.707
3169.792 0.081 -84.808 0.996 4.657 0.996 4.657 0.081 -84.808
3194.75 0.079 -84.908 0.996 4.544 0.996 4.544 0.079 -84.908
3219.708 0.077 -85.006 0.996 4.433 0.996 4.433 0.077 -85.006
3244.667 0.075 -85.102 0.996 4.322 0.996 4.322 0.075 -85.102
3269.625 0.073 -85.196 0.997 4.213 0.997 4.213 0.073 -85.196
3294.583 0.072 -85.289 0.997 4.104 0.997 4.104 0.072 -85.289
3319.542 0.07 -85.38 0.997 3.997 0.997 3.997 0.07 -85.38
3344.5 0.068 -85.47 0.997 3.89 0.997 3.89 0.068 -85.47
3369.458 0.066 -85.557 0.997 3.785 0.997 3.785 0.066 -85.557
3394.417 0.064 -85.643 0.997 3.68 0.997 3.68 0.064 -85.643
3419.375 0.062 -85.727 0.997 3.577 0.997 3.577 0.062 -85.727
3444.333 0.061 -85.809 0.997 3.474 0.997 3.474 0.061 -85.809
3469.292 0.059 -85.889 0.998 3.372 0.998 3.372 0.059 -85.889
3494.25 0.057 -85.967 0.998 3.271 0.998 3.271 0.057 -85.967
3519.208 0.055 -86.043 0.998 3.171 0.998 3.171 0.055 -86.043
3544.167 0.054 -86.117 0.998 3.072 0.998 3.072 0.054 -86.117
3569.125 0.052 -86.188 0.998 2.974 0.998 2.974 0.052 -86.188
3594.083 0.05 -86.258 0.998 2.876 0.998 2.876 0.05 -86.258
3619.042 0.048 -86.324 0.998 2.779 0.998 2.779 0.048 -86.324
3644 0.047 -86.388 0.998 2.683 0.998 2.683 0.047 -86.388
3668.958 0.045 -86.449 0.998 2.588 0.998 2.588 0.045 -86.449
3693.917 0.044 -86.507 0.998 2.494 0.998 2.494 0.044 -86.507
3718.875 0.042 -86.562 0.998 2.4 0.998 2.4 0.042 -86.562
3743.833 0.04 -86.613 0.998 2.307 0.998 2.307 0.04 -86.613
3768.792 0.039 -86.66 0.998 2.215 0.998 2.215 0.039 -86.66
3793.75 0.037 -86.703 0.999 2.123 0.999 2.123 0.037 -86.703
3818.708 0.035 -86.741 0.999 2.032 0.999 2.032 0.035 -86.741
3843.667 0.034 -86.775 0.999 1.942 0.999 1.942 0.034 -86.775
3868.625 0.032 -86.802 0.999 1.853 0.999 1.853 0.032 -86.802
3893.583 0.031 -86.823 0.999 1.764 0.999 1.764 0.031 -86.823
3918.542 0.029 -86.837 0.999 1.675 0.999 1.675 0.029 -86.837
3943.5 0.028 -86.842 0.999 1.588 0.999 1.588 0.028 -86.842
3968.458 0.026 -86.838 0.999 1.501 0.999 1.501 0.026 -86.838
3993.417 0.025 -86.823 0.999 1.414 0.999 1.414 0.025 -86.823
4018.375 0.023 -86.795 0.999 1.328 0.999 1.328 0.023 -86.795
4043.333 0.022 -86.752 0.999 1.243 0.999 1.243 0.022 -86.752
4068.292 0.02 -86.69 0.999 1.158 0.999 1.158 0.02 -86.69
4093.25 0.019 -86.605 0.999 1.074 0.999 1.074 0.019 -86.605
4118.208 0.017 -86.493 0.999 0.99 0.999 0.99 0.017 -86.493
4143.167 0.016 -86.346 0.999 0.907 0.999 0.907 0.016 -86.346
4168.125 0.014 -86.154 0.999 0.825 0.999 0.825 0.014 -86.154
4193.083 0.013 -85.903 0.999 0.743 0.999 0.743 0.013 -85.903
4218.042 0.012 -85.572 0.999 0.661 0.999 0.661 0.012 -85.572
4243 0.01 -85.128 0.999 0.58 0.999 0.58 0.01 -85.128
4267.958 8.75e-3 -84.52 0.999 0.499 0.999 0.499 8.75e-3 -84.52
4292.917 7.359e-3 -83.655 0.999 0.419 0.999 0.419 7.359e-3 -83.655
4317.875 5.979e-3 -82.361 0.999 0.34 0.999 0.34 5.979e-3 -82.361
4342.833 4.612e-3 -80.259 0.999 0.261 0.999 0.261 4.612e-3 -80.259
4367.792 3.266e-3 -76.368 0.999 0.182 0.999 0.182 3.266e-3 -76.368
4392.75 1.964e-3 -67.146 0.999 0.104 0.999 0.104 1.964e-3 -67.146
4417.708 885.2e-6 -30.86 0.999 0.026 0.999 0.026 885.2e-6 -30.86
4442.667 1.174e-3 49.628 0.999 -0.051 0.999 -0.051 1.174e-3 49.628
4467.625 2.363e-3 71.115 0.999 -0.128 0.999 -0.128 2.363e-3 71.115
4492.583 3.652e-3 77.788 0.999 -0.205 0.999 -0.205 3.652e-3 77.788
4517.542 4.957e-3 80.905 0.999 -0.281 0.999 -0.281 4.957e-3 80.905
4542.5 6.265e-3 82.679 0.999 -0.356 0.999 -0.356 6.265e-3 82.679
4567.458 7.57e-3 83.809 0.999 -0.432 0.999 -0.432 7.57e-3 83.809
4592.417 8.87e-3 84.581 0.999 -0.506 0.999 -0.506 8.87e-3 84.581
4617.375 0.01 85.134 0.999 -0.581 0.999 -0.581 0.01 85.134
4642.333 0.011 85.543 0.999 -0.655 0.999 -0.655 0.011 85.543
4667.292 0.013 85.853 0.999 -0.729 0.999 -0.729 0.013 85.853
4692.25 0.014 86.091 0.999 -0.802 0.999 -0.802 0.014 86.091
4717.208 0.015 86.277 0.999 -0.875 0.999 -0.875 0.015 86.277
4742.167 0.017 86.422 0.999 -0.947 0.999 -0.947 0.017 86.422
4767.125 0.018 86.536 0.999 -1.02 0.999 -1.02 0.018 86.536
4792.083 0.019 86.625 0.999 -1.091 0.999 -1.091 0.019 86.625
4817.042 0.02 86.694 0.999 -1.163 0.999 -1.163 0.02 86.694
4842 0.022 86.746 0.999 -1.234 0.999 -1.234 0.022 86.746
4866.958 0.023 86.785 0.999 -1.305 0.999 -1.305 0.023 86.785
4891.917 0.024 86.812 0.999 -1.375 0.999 -1.375 0.024 86.812
4916.875 0.025 86.83 0.999 -1.446 0.999 -1.446 0.025 86.83
4941.833 0.026 86.84 0.999 -1.515 0.999 -1.515 0.026 86.84
4966.792 0.028 86.842 0.999 -1.585 0.999 -1.585 0.028 86.842
4991.75 0.029 86.839 0.999 -1.654 0.999 -1.654 0.029 86.839
5016.708 0.03 86.83 0.999 -1.723 0.999 -1.723 0.03 86.83
5041.667 0.031 86.817 0.999 -1.792 0.999 -1.792 0.031 86.817
5066.625 0.032 86.8 0.999 -1.86 0.999 -1.86 0.032 86.8
5091.583 0.034 86.779 0.999 -1.928 0.999 -1.928 0.034 86.779
5116.542 0.035 86.755 0.999 -1.996 0.999 -1.996 0.035 86.755
5141.5 0.036 86.729 0.999 -2.063 0.999 -2.063 0.036 86.729
5166.458 0.037 86.7 0.999 -2.13 0.999 -2.13 0.037 86.7
5191.417 0.038 86.669 0.999 -2.197 0.999 -2.197 0.038 86.669
5216.375 0.04 86.635 0.998 -2.264 0.998 -2.264 0.04 86.635
5241.333 0.041 86.6 0.998 -2.33 0.998 -2.33 0.041 86.6
5266.292 0.042 86.564 0.998 -2.396 0.998 -2.396 0.042 86.564
5291.25 0.043 86.526 0.998 -2.462 0.998 -2.462 0.043 86.526
5316.208 0.044 86.487 0.998 -2.527 0.998 -2.527 0.044 86.487
5341.167 0.045 86.446 0.998 -2.593 0.998 -2.593 0.045 86.446
5366.125 0.046 86.405 0.998 -2.658 0.998 -2.658 0.046 86.405
5391.083 0.048 86.362 0.998 -2.722 0.998 -2.722 0.048 86.362
5416.042 0.049 86.319 0.998 -2.787 0.998 -2.787 0.049 86.319
5441 0.05 86.275 0.998 -2.851 0.998 -2.851 0.05 86.275
5465.958 0.051 86.23 0.998 -2.915 0.998 -2.915 0.051 86.23
5490.917 0.052 86.185 0.998 -2.979 0.998 -2.979 0.052 86.185
5515.875 0.053 86.139 0.998 -3.043 0.998 -3.043 0.053 86.139
5540.833 0.054 86.092 0.998 -3.106 0.998 -3.106 0.054 86.092
5565.792 0.055 86.045 0.998 -3.169 0.998 -3.169 0.055 86.045
5590.75 0.056 85.997 0.998 -3.232 0.998 -3.232 0.056 85.997
5615.708 0.057 85.949 0.998 -3.294 0.998 -3.294 0.057 85.949
5640.667 0.059 85.901 0.998 -3.357 0.998 -3.357 0.059 85.901
5665.625 0.06 85.852 0.997 -3.419 0.997 -3.419 0.06 85.852
5690.583 0.061 85.803 0.997 -3.481 0.997 -3.481 0.061 85.803
5715.542 0.062 85.754 0.997 -3.543 0.997 -3.543 0.062 85.754
5740.5 0.063 85.705 0.997 -3.604 0.997 -3.604 0.063 85.705
5765.458 0.064 85.655 0.997 -3.666 0.997 -3.666 0.064 85.655
5790.417 0.065 85.605 0.997 -3.727 0.997 -3.727 0.065 85.605
5815.375 0.066 85.555 0.997 -3.788 0.997 -3.788 0.066 85.555
5840.333 0.067 85.504 0.997 -3.849 0.997 -3.849 0.067 85.504
5865.292 0.068 85.454 0.997 -3.909 0.997 -3.909 0.068 85.454
5890.25 0.069 85.403 0.997 -3.969 0.997 -3.969 0.069 85.403
5915.208 0.07 85.353 0.997 -4.03 0.997 -4.03 0.07 85.353
5940.167 0.071 85.302 0.997 -4.09 0.997 -4.09 0.071 85.302
5965.125 0.072 85.251 0.997 -4.149 0.997 -4.149 0.072 85.251
5990.083 0.073 85.2 0.997 -4.209 0.997 -4.209 0.073 85.2
6015.042 0.074 85.148 0.996 -4.268 0.996 -4.268 0.074 85.148
6040 0.075 85.097 0.996 -4.328 0.996 -4.328 0.075 85.097
6064.958 0.076 85.046 0.996 -4.387 0.996 -4.387 0.076 85.046
6089.917 0.078 84.995 0.996 -4.446 0.996 -4.446 0.078 84.995
6114.875 0.079 84.943 0.996 -4.504 0.996 -4.504 0.079 84.943
6139.833 0.08 84.892 0.996 -4.563 0.996 -4.563 0.08 84.892
6164.792 0.081 84.84 0.996 -4.621 0.996 -4.621 0.081 84.84
6189.75 0.082 84.789 0.996 -4.679 0.996 -4.679 0.082 84.789
6214.708 0.083 84.738 0.996 -4.737 0.996 -4.737 0.083 84.738
6239.667 0.084 84.686 0.996 -4.795 0.996 -4.795 0.084 84.686
6264.625 0.085 84.635 0.996 -4.853 0.996 -4.853 0.085 84.635
6289.583 0.086 84.583 0.996 -4.91 0.996 -4.91 0.086 84.583
6314.542 0.087 84.532 0.995 -4.968 0.995 -4.968 0.087 84.532
6339.5 0.088 84.48 0.995 -5.025 0.995 -5.025 0.088 84.48
6364.458 0.089 84.429 0.995 -5.082 0.995 -5.082 0.089 84.429
6389.417 0.09 84.377 0.995 -5.139 0.995 -5.139 0.09 84.377
6414.375 0.091 84.326 0.995 -5.196 0.995 -5.196 0.091 84.326
6439.333 0.092 84.274 0.995 -5.252 0.995 -5.252 0.092 84.274
6464.292 0.093 84.223 0.995 -5.309 0.995 -5.309 0.093 84.223
6489.25 0.093 84.172 0.995 -5.365 0.995 -5.365 0.093 84.172
6514.208 0.094 84.12 0.995 -5.421 0.995 -5.421 0.094 84.12
6539.167 0.095 84.069 0.995 -5.477 0.995 -5.477 0.095 84.069
6564.125 0.096 84.018 0.995 -5.533 0.995 -5.533 0.096 84.018
6589.083 0.097 83.967 0.994 -5.588 0.994 -5.588 0.097 83.967
6614.042 0.098 83.916 0.994 -5.644 0.994 -5.644 0.098 83.916
6639 0.099 83.864 0.994 -5.699 0.994 -5.699 0.099 83.864
6663.958 0.1 83.813 0.994 -5.755 0.994 -5.755 0.1 83.813
6688.917 0.101 83.762 0.994 -5.81 0.994 -5.81 0.101 83.762
6713.875 0.102 83.711 0.994 -5.865 0.994 -5.865 0.102 83.711
6738.833 0.103 83.661 0.994 -5.92 0.994 -5.92 0.103 83.661
6763.792 0.104 83.61 0.994 -5.974 0.994 -5.974 0.104 83.61
6788.75 0.105 83.559 0.994 -6.029 0.994 -6.029 0.105 83.559
6813.708 0.106 83.508 0.994 -6.083 0.994 -6.083 0.106 83.508
6838.667 0.107 83.457 0.994 -6.138 0.994 -6.138 0.107 83.457
6863.625 0.108 83.407 0.993 -6.192 0.993 -6.192 0.108 83.407
6888.583 0.109 83.356 0.993 -6.246 0.993 -6.246 0.109 83.356
6913.542 0.11 83.306 0.993 -6.3 0.993 -6.3 0.11 83.306
6938.5 0.111 83.255 0.993 -6.354 0.993 -6.354 0.111 83.255
6963.458 0.112 83.205 0.993 -6.408 0.993 -6.408 0.112 83.205
6988.417 0.113 83.154 0.993 -6.461 0.993 -6.461 0.113 83.154
7013.375 0.113 83.104 0.993 -6.515 0.993 -6.515 0.113 83.104
7038.333 0.114 83.054 0.993 -6.568 0.993 -6.568 0.114 83.054
7063.292 0.115 83.004 0.993 -6.621 0.993 -6.621 0.115 83.004
7088.25 0.116 82.954 0.992 -6.674 0.992 -6.674 0.116 82.954
7113.208 0.117 82.904 0.992 -6.727 0.992 -6.727 0.117 82.904
7138.167 0.118 82.854 0.992 -6.78 0.992 -6.78 0.118 82.854
7163.125 0.119 82.804 0.992 -6.833 0.992 -6.833 0.119 82.804
7188.083 0.12 82.754 0.992 -6.886 0.992 -6.886 0.12 82.754
7213.042 0.121 82.704 0.992 -6.938 0.992 -6.938 0.121 82.704
7238 0.122 82.654 0.992 -6.991 0.992 -6.991 0.122 82.654
7262.958 0.123 82.605 0.992 -7.043 0.992 -7.043 0.123 82.605
7287.917 0.124 82.555 0.992 -7.095 0.992 -7.095 0.124 82.555
7312.875 0.124 82.506 0.991 -7.147 0.991 -7.147 0.124 82.506
7337.833 0.125 82.456 0.991 -7.199 0.991 -7.199 0.125 82.456
7362.792 0.126 82.407 0.991 -7.251 0.991 -7.251 0.126 82.407
7387.75 0.127 82.357 0.991 -7.303 0.991 -7.303 0.127 82.357
7412.708 0.128 82.308 0.991 -7.355 0.991 -7.355 0.128 82.308
7437.667 0.129 82.259 0.991 -7.406 0.991 -7.406 0.129 82.259
7462.625 0.13 82.21 0.991 -7.458 0.991 -7.458 0.13 82.21
7487.583 0.131 82.161 0.991 -7.509 0.991 -7.509 0.131 82.161
7512.542 0.132 82.112 0.991 -7.56 0.991 -7.56 0.132 82.112
7537.5 0.132 82.063 0.99 -7.612 0.99 -7.612 0.132 82.063
7562.458 0.133 82.014 0.99 -7.663 0.99 -7.663 0.133 82.014
7587.417 0.134 81.965 0.99 -7.714 0.99 -7.714 0.134 81.965
7612.375 0.135 81.916 0.99 -7.765 0.99 -7.765 0.135 81.916
7637.333 0.136 81.868 0.99 -7.815 0.99 -7.815 0.136 81.868
7662.292 0.137 81.819 0.99 -7.866 0.99 -7.866 0.137 81.819
7687.25 0.138 81.77 0.99 -7.917 0.99 -7.917 0.138 81.77
7712.208 0.139 81.722 0.99 -7.967 0.99 -7.967 0.139 81.722
7737.167 0.139 81.673 0.989 -8.017 0.989 -8.017 0.139 81.673
7762.125 0.14 81.625 0.989 -8.068 0.989 -8.068 0.14 81.625
7787.083 0.141 81.577 0.989 -8.118 0.989 -8.118 0.141 81.577
7812.042 0.142 81.529 0.989 -8.168 0.989 -8.168 0.142 81.529
7837 0.143 81.48 0.989 -8.218 0.989 -8.218 0.143 81.48
7861.958 0.144 81.432 0.989 -8.268 0.989 -8.268 0.144 81.432
7886.917 0.145 81.384 0.989 -8.318 0.989 -8.318 0.145 81.384
7911.875 0.146 81.336 0.989 -8.368 0.989 -8.368 0.146 81.336
7936.833 0.146 81.288 0.988 -8.417 0.988 -8.417 0.146 81.288
7961.792 0.147 81.241 0.988 -8.467 0.988 -8.467 0.147 81.241
7986.75 0.148 81.193 0.988 -8.517 0.988 -8.517 0.148 81.193
8011.708 0.149 81.145 0.988 -8.566 0.988 -8.566 0.149 81.145
8036.667 0.15 81.097 0.988 -8.615 0.988 -8.615 0.15 81.097
8061.625 0.151 81.05 0.988 -8.665 0.988 -8.665 0.151 81.05
8086.583 0.152 81.002 0.988 -8.714 0.988 -8.714 0.152 81.002
8111.542 0.152 80.955 0.988 -8.763 0.988 -8.763 0.152 80.955
8136.5 0.153 80.907 0.987 -8.812 0.987 -8.812 0.153 80.907
8161.458 0.154 80.86 0.987 -8.861 0.987 -8.861 0.154 80.86
8186.417 0.155 80.813 0.987 -8.91 0.987 -8.91 0.155 80.813
8211.375 0.156 80.765 0.987 -8.958 0.987 -8.958 0.156 80.765
8236.333 0.157 80.718 0.987 -9.007 0.987 -9.007 0.157 80.718
8261.292 0.157 80.671 0.987 -9.056 0.987 -9.056 0.157 80.671
