# MHZ S MA R 50

50 0.982 -11.025 0.191 78.97 0.191 78.97 0.982 -11.025
74.958 0.96 -16.287 0.28 73.706 0.28 73.706 0.96 -16.287
99.917 0.932 -21.288 0.363 68.703 0.363 68.703 0.932 -21.288
124.875 0.899 -25.977 0.438 64.01 0.438 64.01 0.899 -25.977
149.833 0.863 -30.329 0.505 59.656 0.505 59.656 0.863 -30.329
174.792 0.826 -34.335 0.564 55.647 0.564 55.647 0.826 -34.335
199.75 0.788 -38.002 0.616 51.978 0.616 51.978 0.788 -38.002
224.708 0.75 -41.346 0.661 48.632 0.661 48.632 0.75 -41.346
249.667 0.714 -44.388 0.7 45.587 0.7 45.587 0.714 -44.388
274.625 0.68 -47.154 0.733 42.818 0.733 42.818 0.68 -47.154
299.583 0.647 -49.67 0.762 40.3 0.762 40.3 0.647 -49.67
324.542 0.616 -51.96 0.788 38.007 0.788 38.007 0.616 -51.96
349.5 0.587 -54.048 0.81 35.917 0.81 35.917 0.587 -54.048
374.458 0.559 -55.955 0.829 34.008 0.829 34.008 0.559 -55.955
399.417 0.534 -57.701 0.845 32.259 0.845 32.259 0.534 -57.701
424.375 0.51 -59.302 0.86 30.655 0.86 30.655 0.51 -59.302
449.333 0.488 -60.775 0.873 29.18 0.873 29.18 0.488 -60.775
474.292 0.467 -62.133 0.884 27.819 0.884 27.819 0.467 -62.133
499.25 0.447 -63.388 0.894 26.561 0.894 26.561 0.447 -63.388
524.208 0.429 -64.551 0.903 25.396 0.903 25.396 0.429 -64.551
549.167 0.412 -65.631 0.911 24.313 0.911 24.313 0.412 -65.631
574.125 0.396 -66.636 0.918 23.306 0.918 23.306 0.396 -66.636
599.083 0.381 -67.573 0.924 22.365 0.924 22.365 0.381 -67.573
624.042 0.366 -68.45 0.93 21.486 0.93 21.486 0.366 -68.45
649 0.353 -69.271 0.935 20.662 0.935 20.662 0.353 -69.271
673.958 0.34 -70.041 0.94 19.889 0.94 19.889 0.34 -70.041
698.917 0.328 -70.766 0.944 19.161 0.944 19.161 0.328 -70.766
723.875 0.317 -71.449 0.948 18.475 0.948 18.475 0.317 -71.449
748.833 0.306 -72.094 0.952 17.828 0.952 17.828 0.306 -72.094
773.792 0.296 -72.703 0.955 17.216 0.955 17.216 0.296 -72.703
798.75 0.286 -73.28 0.958 16.635 0.958 16.635 0.286 -73.28
823.708 0.277 -73.828 0.96 16.085 0.96 16.085 0.277 -73.828
848.667 0.268 -74.348 0.963 15.562 0.963 15.562 0.268 -74.348
873.625 0.26 -74.842 0.965 15.064 0.965 15.064 0.26 -74.842
898.583 0.252 -75.313 0.967 14.59 0.967 14.59 0.252 -75.313
923.542 0.244 -75.763 0.969 14.137 0.969 14.137 0.244 -75.763
948.5 0.237 -76.192 0.971 13.705 0.971 13.705 0.237 -76.192
973.458 0.23 -76.602 0.973 13.291 0.973 13.291 0.23 -76.602
998.417 0.223 -76.995 0.974 12.895 0.974 12.895 0.223 -76.995
1023.375 0.217 -77.372 0.976 12.515 0.976 12.515 0.217 -77.372
1048.333 0.21 -77.733 0.977 12.15 0.977 12.15 0.21 -77.733
1073.292 0.204 -78.08 0.978 11.799 0.978 11.799 0.204 -78.08
1098.25 0.199 -78.414 0.98 11.462 0.98 11.462 0.199 -78.414
1123.208 0.193 -78.735 0.981 11.137 0.981 11.137 0.193 -78.735
1148.167 0.188 -79.044 0.982 10.824 0.982 10.824 0.188 -79.044
1173.125 0.183 -79.342 0.983 10.523 0.983 10.523 0.183 -79.342
1198.083 0.178 -79.629 0.984 10.231 0.984 10.231 0.178 -79.629
1223.042 0.173 -79.907 0.985 9.949 0.985 9.949 0.173 -79.907
1248 0.168 -80.175 0.985 9.677 0.985 9.677 0.168 -80.175
1272.958 0.164 -80.435 0.986 9.413 0.986 9.413 0.164 -80.435
1297.917 0.159 -80.686 0.987 9.158 0.987 9.158 0.159 -80.686
1322.875 0.155 -80.929 0.987 8.91 0.987 8.91 0.155 -80.929
1347.833 0.151 -81.165 0.988 8.67 0.988 8.67 0.151 -81.165
1372.792 0.147 -81.393 0.989 8.437 0.989 8.437 0.147 -81.393
1397.75 0.143 -81.615 0.989 8.21 0.989 8.21 0.143 -81.615
1422.708 0.139 -81.83 0.99 7.99 0.99 7.99 0.139 -81.83
1447.667 0.135 -82.04 0.99 7.776 0.99 7.776 0.135 -82.04
1472.625 0.132 -82.243 0.991 7.567 0.991 7.567 0.132 -82.243
1497.583 0.128 -82.441 0.991 7.364 0.991 7.364 0.128 -82.441
1522.542 0.125 -82.633 0.992 7.166 0.992 7.166 0.125 -82.633
1547.5 0.121 -82.821 0.992 6.973 0.992 6.973 0.121 -82.821
1572.458 0.118 -83.003 0.993 6.785 0.993 6.785 0.118 -83.003
1597.417 0.115 -83.181 0.993 6.601 0.993 6.601 0.115 -83.181
1622.375 0.112 -83.354 0.993 6.422 0.993 6.422 0.112 -83.354
1647.333 0.109 -83.523 0.994 6.246 0.994 6.246 0.109 -83.523
1672.292 0.106 -83.688 0.994 6.075 0.994 6.075 0.106 -83.688
1697.25 0.103 -83.849 0.994 5.907 0.994 5.907 0.103 -83.849
1722.208 0.1 -84.006 0.995 5.743 0.995 5.743 0.1 -84.006
1747.167 0.097 -84.159 0.995 5.583 0.995 5.583 0.097 -84.159
1772.125 0.095 -84.309 0.995 5.426 0.995 5.426 0.095 -84.309
1797.083 0.092 -84.455 0.995 5.272 0.995 5.272 0.092 -84.455
1822.042 0.089 -84.598 0.996 5.121 0.996 5.121 0.089 -84.598
1847 0.087 -84.738 0.996 4.972 0.996 4.972 0.087 -84.738
1871.958 0.084 -84.874 0.996 4.827 0.996 4.827 0.084 -84.874
1896.917 0.082 -85.008 0.996 4.685 0.996 4.685 0.082 -85.008
1921.875 0.079 -85.138 0.996 4.545 0.996 4.545 0.079 -85.138
1946.833 0.077 -85.266 0.997 4.407 0.997 4.407 0.077 -85.266
1971.792 0.074 -85.39 0.997 4.272 0.997 4.272 0.074 -85.39
1996.75 0.072 -85.512 0.997 4.14 0.997 4.14 0.072 -85.512
2021.708 0.07 -85.631 0.997 4.009 0.997 4.009 0.07 -85.631
2046.667 0.068 -85.747 0.997 3.881 0.997 3.881 0.068 -85.747
2071.625 0.065 -85.861 0.997 3.755 0.997 3.755 0.065 -85.861
2096.583 0.063 -85.972 0.998 3.631 0.998 3.631 0.063 -85.972
2121.542 0.061 -86.08 0.998 3.508 0.998 3.508 0.061 -86.08
2146.5 0.059 -86.186 0.998 3.388 0.998 3.388 0.059 -86.186
2171.458 0.057 -86.289 0.998 3.27 0.998 3.27 0.057 -86.289
2196.417 0.055 -86.39 0.998 3.153 0.998 3.153 0.055 -86.39
2221.375 0.053 -86.487 0.998 3.038 0.998 3.038 0.053 -86.487
2246.333 0.051 -86.582 0.998 2.924 0.998 2.924 0.051 -86.582
2271.292 0.049 -86.674 0.998 2.812 0.998 2.812 0.049 -86.674
2296.25 0.047 -86.764 0.998 2.702 0.998 2.702 0.047 -86.764
2321.208 0.045 -86.85 0.999 2.593 0.999 2.593 0.045 -86.85
2346.167 0.043 -86.933 0.999 2.486 0.999 2.486 0.043 -86.933
2371.125 0.042 -87.013 0.999 2.38 0.999 2.38 0.042 -87.013
2396.083 0.04 -87.09 0.999 2.275 0.999 2.275 0.04 -87.09
2421.042 0.038 -87.163 0.999 2.172 0.999 2.172 0.038 -87.163
2446 0.036 -87.232 0.999 2.07 0.999 2.07 0.036 -87.232
2470.958 0.034 -87.298 0.999 1.969 0.999 1.969 0.034 -87.298
2495.917 0.033 -87.358 0.999 1.87 0.999 1.87 0.033 -87.358
2520.875 0.031 -87.414 0.999 1.771 0.999 1.771 0.031 -87.414
2545.833 0.029 -87.463 0.999 1.674 0.999 1.674 0.029 -87.463
2570.792 0.028 -87.507 0.999 1.578 0.999 1.578 0.028 -87.507
2595.75 0.026 -87.543 0.999 1.483 0.999 1.483 0.026 -87.543
2620.708 0.024 -87.572 0.999 1.389 0.999 1.389 0.024 -87.572
2645.667 0.023 -87.59 0.999 1.296 0.999 1.296 0.023 -87.59
2670.625 0.021 -87.597 0.999 1.204 0.999 1.204 0.021 -87.597
2695.583 0.019 -87.59 0.999 1.112 0.999 1.112 0.019 -87.59
2720.542 0.018 -87.565 0.999 1.022 0.999 1.022 0.018 -87.565
2745.5 0.016 -87.519 0.999 0.933 0.999 0.933 0.016 -87.519
2770.458 0.015 -87.446 0.999 0.845 0.999 0.845 0.015 -87.446
2795.417 0.013 -87.336 0.999 0.757 0.999 0.757 0.013 -87.336
2820.375 0.012 -87.176 0.999 0.67 0.999 0.67 0.012 -87.176
2845.333 0.01 -86.946 1 0.584 1 0.584 0.01 -86.946
2870.292 8.724e-3 -86.61 1 0.499 1 0.499 8.724e-3 -86.61
2895.25 7.254e-3 -86.108 1 0.415 1 0.415 7.254e-3 -86.108
2920.208 5.799e-3 -85.317 1 0.331 1 0.331 5.799e-3 -85.317
2945.167 4.358e-3 -83.958 1 0.248 1 0.248 4.358e-3 -83.958
2970.125 2.936e-3 -81.214 1 0.166 1 0.166 2.936e-3 -81.214
2995.083 1.545e-3 -73.369 1 0.085 1 0.085 1.545e-3 -73.369
3020.042 445.7e-6 -9.22 1 4.094e-3 1 4.094e-3 445.7e-6 -9.22
3045 1.398e-3 71.574 1 -0.076 1 -0.076 1.398e-3 71.574
3069.958 2.749e-3 80.633 1 -0.155 1 -0.155 2.749e-3 80.633
3094.917 4.112e-3 83.624 1 -0.234 1 -0.234 4.112e-3 83.624
3119.875 5.471e-3 85.075 1 -0.312 1 -0.312 5.471e-3 85.075
3144.833 6.822e-3 85.912 1 -0.39 1 -0.39 6.822e-3 85.912
3169.792 8.163e-3 86.443 1 -0.467 1 -0.467 8.163e-3 86.443
3194.75 9.495e-3 86.801 1 -0.543 1 -0.543 9.495e-3 86.801
3219.708 0.011 87.05 1 -0.619 1 -0.619 0.011 87.05
3244.667 0.012 87.227 0.999 -0.695 0.999 -0.695 0.012 87.227
3269.625 0.013 87.354 0.999 -0.769 0.999 -0.769 0.013 87.354
3294.583 0.015 87.445 0.999 -0.844 0.999 -0.844 0.015 87.445
3319.542 0.016 87.509 0.999 -0.917 0.999 -0.917 0.016 87.509
3344.5 0.017 87.552 0.999 -0.991 0.999 -0.991 0.017 87.552
3369.458 0.019 87.579 0.999 -1.063 0.999 -1.063 0.019 87.579
3394.417 0.02 87.593 0.999 -1.136 0.999 -1.136 0.02 87.593
3419.375 0.021 87.597 0.999 -1.207 0.999 -1.207 0.021 87.597
3444.333 0.022 87.592 0.999 -1.279 0.999 -1.279 0.022 87.592
3469.292 0.024 87.581 0.999 -1.35 0.999 -1.35 0.024 87.581
3494.25 0.025 87.563 0.999 -1.42 0.999 -1.42 0.025 87.563
3519.208 0.026 87.541 0.999 -1.49 0.999 -1.49 0.026 87.541
3544.167 0.027 87.515 0.999 -1.56 0.999 -1.56 0.027 87.515
3569.125 0.028 87.485 0.999 -1.629 0.999 -1.629 0.028 87.485
3594.083 0.03 87.452 0.999 -1.697 0.999 -1.697 0.03 87.452
3619.042 0.031 87.417 0.999 -1.766 0.999 -1.766 0.031 87.417
3644 0.032 87.379 0.999 -1.834 0.999 -1.834 0.032 87.379
3668.958 0.033 87.339 0.999 -1.901 0.999 -1.901 0.033 87.339
3693.917 0.034 87.298 0.999 -1.968 0.999 -1.968 0.034 87.298
3718.875 0.036 87.255 0.999 -2.035 0.999 -2.035 0.036 87.255
3743.833 0.037 87.211 0.999 -2.102 0.999 -2.102 0.037 87.211
3768.792 0.038 87.166 0.999 -2.168 0.999 -2.168 0.038 87.166
3793.75 0.039 87.12 0.999 -2.234 0.999 -2.234 0.039 87.12
3818.708 0.04 87.073 0.999 -2.299 0.999 -2.299 0.04 87.073
3843.667 0.041 87.025 0.999 -2.364 0.999 -2.364 0.041 87.025
3868.625 0.042 86.977 0.999 -2.429 0.999 -2.429 0.042 86.977
3893.583 0.044 86.928 0.999 -2.493 0.999 -2.493 0.044 86.928
3918.542 0.045 86.878 0.999 -2.557 0.999 -2.557 0.045 86.878
3943.5 0.046 86.828 0.999 -2.621 0.999 -2.621 0.046 86.828
3968.458 0.047 86.778 0.998 -2.685 0.998 -2.685 0.047 86.778
3993.417 0.048 86.727 0.998 -2.748 0.998 -2.748 0.048 86.727
4018.375 0.049 86.676 0.998 -2.811 0.998 -2.811 0.049 86.676
4043.333 0.05 86.624 0.998 -2.874 0.998 -2.874 0.05 86.624
4068.292 0.051 86.573 0.998 -2.936 0.998 -2.936 0.051 86.573
4093.25 0.052 86.521 0.998 -2.998 0.998 -2.998 0.052 86.521
4118.208 0.053 86.469 0.998 -3.06 0.998 -3.06 0.053 86.469
4143.167 0.054 86.416 0.998 -3.121 0.998 -3.121 0.054 86.416
4168.125 0.056 86.364 0.998 -3.182 0.998 -3.182 0.056 86.364
4193.083 0.057 86.312 0.998 -3.243 0.998 -3.243 0.057 86.312
4218.042 0.058 86.259 0.998 -3.304 0.998 -3.304 0.058 86.259
4243 0.059 86.206 0.998 -3.365 0.998 -3.365 0.059 86.206
4267.958 0.06 86.154 0.998 -3.425 0.998 -3.425 0.06 86.154
4292.917 0.061 86.101 0.998 -3.485 0.998 -3.485 0.061 86.101
4317.875 0.062 86.048 0.998 -3.545 0.998 -3.545 0.062 86.048
4342.833 0.063 85.996 0.998 -3.604 0.998 -3.604 0.063 85.996
4367.792 0.064 85.943 0.998 -3.664 0.998 -3.664 0.064 85.943
4392.75 0.065 85.89 0.997 -3.723 0.997 -3.723 0.065 85.89
4417.708 0.066 85.837 0.997 -3.782 0.997 -3.782 0.066 85.837
4442.667 0.067 85.784 0.997 -3.84 0.997 -3.84 0.067 85.784
4467.625 0.068 85.732 0.997 -3.899 0.997 -3.899 0.068 85.732
4492.583 0.069 85.679 0.997 -3.957 0.997 -3.957 0.069 85.679
4517.542 0.07 85.626 0.997 -4.015 0.997 -4.015 0.07 85.626
4542.5 0.071 85.573 0.997 -4.073 0.997 -4.073 0.071 85.573
4567.458 0.072 85.521 0.997 -4.13 0.997 -4.13 0.072 85.521
4592.417 0.073 85.468 0.997 -4.188 0.997 -4.188 0.073 85.468
4617.375 0.074 85.416 0.997 -4.245 0.997 -4.245 0.074 85.416
4642.333 0.075 85.363 0.997 -4.302 0.997 -4.302 0.075 85.363
4667.292 0.076 85.311 0.997 -4.358 0.997 -4.358 0.076 85.311
4692.25 0.077 85.258 0.997 -4.415 0.997 -4.415 0.077 85.258
4717.208 0.078 85.206 0.997 -4.472 0.997 -4.472 0.078 85.206
4742.167 0.079 85.154 0.996 -4.528 0.996 -4.528 0.079 85.154
4767.125 0.08 85.102 0.996 -4.584 0.996 -4.584 0.08 85.102
4792.083 0.081 85.05 0.996 -4.64 0.996 -4.64 0.081 85.05
4817.042 0.082 84.998 0.996 -4.695 0.996 -4.695 0.082 84.998
4842 0.083 84.946 0.996 -4.751 0.996 -4.751 0.083 84.946
4866.958 0.084 84.894 0.996 -4.806 0.996 -4.806 0.084 84.894
4891.917 0.085 84.842 0.996 -4.862 0.996 -4.862 0.085 84.842
4916.875 0.086 84.79 0.996 -4.917 0.996 -4.917 0.086 84.79
4941.833 0.087 84.739 0.996 -4.972 0.996 -4.972 0.087 84.739
4966.792 0.088 84.687 0.996 -5.026 0.996 -5.026 0.088 84.687
4991.75 0.089 84.636 0.996 -5.081 0.996 -5.081 0.089 84.636
5016.708 0.09 84.584 0.996 -5.135 0.996 -5.135 0.09 84.584
5041.667 0.09 84.533 0.995 -5.19 0.995 -5.19 0.09 84.533
5066.625 0.091 84.482 0.995 -5.244 0.995 -5.244 0.091 84.482
5091.583 0.092 84.431 0.995 -5.298 0.995 -5.298 0.092 84.431
5116.542 0.093 84.379 0.995 -5.351 0.995 -5.351 0.093 84.379
5141.5 0.094 84.328 0.995 -5.405 0.995 -5.405 0.094 84.328
5166.458 0.095 84.278 0.995 -5.459 0.995 -5.459 0.095 84.278
5191.417 0.096 84.227 0.995 -5.512 0.995 -5.512 0.096 84.227
5216.375 0.097 84.176 0.995 -5.565 0.995 -5.565 0.097 84.176
5241.333 0.098 84.125 0.995 -5.618 0.995 -5.618 0.098 84.125
5266.292 0.099 84.075 0.995 -5.671 0.995 -5.671 0.099 84.075
5291.25 0.1 84.024 0.995 -5.724 0.995 -5.724 0.1 84.024
5316.208 0.101 83.974 0.994 -5.777 0.994 -5.777 0.101 83.974
5341.167 0.102 83.924 0.994 -5.829 0.994 -5.829 0.102 83.924
5366.125 0.102 83.873 0.994 -5.882 0.994 -5.882 0.102 83.873
5391.083 0.103 83.823 0.994 -5.934 0.994 -5.934 0.103 83.823
5416.042 0.104 83.773 0.994 -5.986 0.994 -5.986 0.104 83.773
5441 0.105 83.723 0.994 -6.038 0.994 -6.038 0.105 83.723
5465.958 0.106 83.673 0.994 -6.09 0.994 -6.09 0.106 83.673
5490.917 0.107 83.624 0.994 -6.142 0.994 -6.142 0.107 83.624
5515.875 0.108 83.574 0.994 -6.194 0.994 -6.194 0.108 83.574
5540.833 0.109 83.524 0.994 -6.246 0.994 -6.246 0.109 83.524
5565.792 0.11 83.475 0.994 -6.297 0.994 -6.297 0.11 83.475
5590.75 0.111 83.425 0.993 -6.348 0.993 -6.348 0.111 83.425
5615.708 0.111 83.376 0.993 -6.4 0.993 -6.4 0.111 83.376
5640.667 0.112 83.326 0.993 -6.451 0.993 -6.451 0.112 83.326
5665.625 0.113 83.277 0.993 -6.502 0.993 -6.502 0.113 83.277
5690.583 0.114 83.228 0.993 -6.553 0.993 -6.553 0.114 83.228
5715.542 0.115 83.179 0.993 -6.603 0.993 -6.603 0.115 83.179
5740.5 0.116 83.13 0.993 -6.654 0.993 -6.654 0.116 83.13
5765.458 0.117 83.081 0.993 -6.705 0.993 -6.705 0.117 83.081
5790.417 0.118 83.032 0.993 -6.755 0.993 -6.755 0.118 83.032
5815.375 0.119 82.983 0.993 -6.806 0.993 -6.806 0.119 82.983
5840.333 0.119 82.934 0.992 -6.856 0.992 -6.856 0.119 82.934
5865.292 0.12 82.886 0.992 -6.906 0.992 -6.906 0.12 82.886
5890.25 0.121 82.837 0.992 -6.956 0.992 -6.956 0.121 82.837
5915.208 0.122 82.789 0.992 -7.006 0.992 -7.006 0.122 82.789
5940.167 0.123 82.74 0.992 -7.056 0.992 -7.056 0.123 82.74
5965.125 0.124 82.692 0.992 -7.106 0.992 -7.106 0.124 82.692
5990.083 0.125 82.644 0.992 -7.155 0.992 -7.155 0.125 82.644
6015.042 0.125 82.596 0.992 -7.205 0.992 -7.205 0.125 82.596
6040 0.126 82.547 0.992 -7.255 0.992 -7.255 0.126 82.547
6064.958 0.127 82.499 0.991 -7.304 0.991 -7.304 0.127 82.499
6089.917 0.128 82.451 0.991 -7.353 0.991 -7.353 0.128 82.451
6114.875 0.129 82.403 0.991 -7.403 0.991 -7.403 0.129 82.403
6139.833 0.13 82.356 0.991 -7.452 0.991 -7.452 0.13 82.356
6164.792 0.131 82.308 0.991 -7.501 0.991 -7.501 0.131 82.308
6189.75 0.131 82.26 0.991 -7.55 0.991 -7.55 0.131 82.26
6214.708 0.132 82.212 0.991 -7.599 0.991 -7.599 0.132 82.212
6239.667 0.133 82.165 0.991 -7.647 0.991 -7.647 0.133 82.165
6264.625 0.134 82.117 0.991 -7.696 0.991 -7.696 0.134 82.117
6289.583 0.135 82.07 0.99 -7.745 0.99 -7.745 0.135 82.07
6314.542 0.136 82.023 0.99 -7.793 0.99 -7.793 0.136 82.023
6339.5 0.136 81.975 0.99 -7.842 0.99 -7.842 0.136 81.975
6364.458 0.137 81.928 0.99 -7.89 0.99 -7.89 0.137 81.928
6389.417 0.138 81.881 0.99 -7.938 0.99 -7.938 0.138 81.881
6414.375 0.139 81.834 0.99 -7.986 0.99 -7.986 0.139 81.834
6439.333 0.14 81.787 0.99 -8.035 0.99 -8.035 0.14 81.787
6464.292 0.141 81.74 0.99 -8.083 0.99 -8.083 0.141 81.74
6489.25 0.141 81.693 0.99 -8.131 0.99 -8.131 0.141 81.693
6514.208 0.142 81.646 0.989 -8.178 0.989 -8.178 0.142 81.646
6539.167 0.143 81.599 0.989 -8.226 0.989 -8.226 0.143 81.599
6564.125 0.144 81.553 0.989 -8.274 0.989 -8.274 0.144 81.553
6589.083 0.145 81.506 0.989 -8.322 0.989 -8.322 0.145 81.506
6614.042 0.146 81.459 0.989 -8.369 0.989 -8.369 0.146 81.459
6639 0.146 81.413 0.989 -8.417 0.989 -8.417 0.146 81.413
6663.958 0.147 81.366 0.989 -8.464 0.989 -8.464 0.147 81.366
6688.917 0.148 81.32 0.989 -8.512 0.989 -8.512 0.148 81.32
6713.875 0.149 81.274 0.988 -8.559 0.988 -8.559 0.149 81.274
6738.833 0.15 81.227 0.988 -8.606 0.988 -8.606 0.15 81.227
6763.792 0.15 81.181 0.988 -8.653 0.988 -8.653 0.15 81.181
6788.75 0.151 81.135 0.988 -8.7 0.988 -8.7 0.151 81.135
6813.708 0.152 81.089 0.988 -8.747 0.988 -8.747 0.152 81.089
6838.667 0.153 81.043 0.988 -8.794 0.988 -8.794 0.153 81.043
6863.625 0.154 80.997 0.988 -8.841 0.988 -8.841 0.154 80.997
6888.583 0.155 80.951 0.988 -8.888 0.988 -8.888 0.155 80.951
6913.542 0.155 80.905 0.987 -8.935 0.987 -8.935 0.155 80.905
6938.5 0.156 80.859 0.987 -8.982 0.987 -8.982 0.156 80.859
6963.458 0.157 80.813 0.987 -9.028 0.987 -9.028 0.157 80.813
6988.417 0.158 80.767 0.987 -9.075 0.987 -9.075 0.158 80.767
7013.375 0.159 80.722 0.987 -9.121 0.987 -9.121 0.159 80.722
7038.333 0.159 80.676 0.987 -9.168 0.987 -9.168 0.159 80.676
7063.292 0.16 80.631 0.987 -9.214 0.987 -9.214 0.16 80.631
7088.25 0.161 80.585 0.987 -9.26 0.987 -9.26 0.161 80.585
7113.208 0.162 80.54 0.986 -9.307 0.986 -9.307 0.162 80.54
7138.167 0.163 80.494 0.986 -9.353 0.986 -9.353 0.163 80.494
7163.125 0.163 80.449 0.986 -9.399 0.986 -9.399 0.163 80.449
7188.083 0.164 80.404 0.986 -9.445 0.986 -9.445 0.164 80.404
7213.042 0.165 80.358 0.986 -9.491 0.986 -9.491 0.165 80.358
7238 0.166 80.313 0.986 -9.537 0.986 -9.537 0.166 80.313
7262.958 0.166 80.268 0.986 -9.583 0.986 -9.583 0.166 80.268
7287.917 0.167 80.223 0.985 -9.628 0.985 -9.628 0.167 80.223
7312.875 0.168 80.178 0.985 -9.674 0.985 -9.674 0.168 80.178
7337.833 0.169 80.133 0.985 -9.72 0.985 -9.72 0.169 80.133
7362.792 0.17 80.088 0.985 -9.766 0.985 -9.766 0.17 80.088
7387.75 0.17 80.043 0.985 -9.811 0.985 -9.811 0.17 80.043
7412.708 0.171 79.998 0.985 -9.857 0.985 -9.857 0.171 79.998
7437.667 0.172 79.953 0.985 -9.902 0.985 -9.902 0.172 79.953
7462.625 0.173 79.909 0.985 -9.948 0.985 -9.948 0.173 79.909
7487.583 0.174 79.864 0.984 -9.993 0.984 -9.993 0.174 79.864
7512.542 0.174 79.819 0.984 -10.038 0.984 -10.038 0.174 79.819
7537.5 0.175 79.775 0.984 -10.084 0.984 -10.084 0.175 79.775
7562.458 0.176 79.73 0.984 -10.129 0.984 -10.129 0.176 79.73
7587.417 0.177 79.686 0.984 -10.174 0.984 -10.174 0.177 79.686
7612.375 0.177 79.641 0.984 -10.219 0.984 -10.219 0.177 79.641
7637.333 0.178 79.597 0.984 -10.264 0.984 -10.264 0.178 79.597
7662.292 0.179 79.552 0.983 -10.309 0.983 -10.309 0.179 79.552
7687.25 0.18 79.508 0.983 -10.354 0.983 -10.354 0.18 79.508
7712.208 0.18 79.464 0.983 -10.399 0.983 -10.399 0.18 79.464
7737.167 0.181 79.42 0.983 -10.444 0.983 -10.444 0.181 79.42
7762.125 0.182 79.375 0.983 -10.488 0.983 -10.488 0.182 79.375
7787.083 0.183 79.331 0.983 -10.533 0.983 -10.533 0.183 79.331
7812.042 0.184 79.287 0.983 -10.578 0.983 -10.578 0.184 79.287
7837 0.184 79.243 0.982 -10.622 0.982 -10.622 0.184 79.243
7861.958 0.185 79.199 0.982 -10.667 0.982 -10.667 0.185 79.199
7886.917 0.186 79.155 0.982 -10.712 0.982 -10.712 0.186 79.155
7911.875 0.187 79.111 0.982 -10.756 0.982 -10.756 0.187 79.111
7936.833 0.187 79.067 0.982 -10.8 0.982 -10.8 0.187 79.067
7961.792 0.188 79.024 0.982 -10.845 0.982 -10.845 0.188 79.024
7986.75 0.189 78.98 0.982 -10.889 0.982 -10.889 0.189 78.98
8011.708 0.19 78.936 0.981 -10.933 0.981 -10.933 0.19 78.936
8036.667 0.19 78.892 0.981 -10.978 0.981 -10.978 0.19 78.892
8061.625 0.191 78.849 0.981 -11.022 0.981 -11.022 0.191 78.849
8086.583 0.192 78.805 0.981 -11.066 0.981 -11.066 0.192 78.805
8111.542 0.193 78.762 0.981 -11.11 0.981 -11.11 0.193 78.762
8136.5 0.193 78.718 0.981 -11.154 0.981 -11.154 0.193 78.718
8161.458 0.194 78.674 0.981 -11.198 0.981 -11.198 0.194 78.674
8186.417 0.195 78.631 0.98 -11.242 0.98 -11.242 0.195 78.631
8211.375 0.196 78.588 0.98 -11.286 0.98 -11.286 0.196 78.588
8236.333 0.196 78.544 0.98 -11.33 0.98 -11.33 0.196 78.544
8261.292 0.197 78.501 0.98 -11.374 0.98 -11.374 0.197 78.501
8286.25 0.198 78.458 0.98 -11.417 0.98 -11.417 0.198 78.458
8311.208 0.199 78.414 0.98 -11.461 0.98 -11.461 0.199 78.414
