# MHZ S MA R 50

50 0.999 -2.249 0.039 87.747 0.039 87.747 0.999 -2.249
74.958 0.998 -3.37 0.059 86.624 0.059 86.624 0.998 -3.37
99.917 0.997 -4.488 0.078 85.503 0.078 85.503 0.997 -4.488
124.875 0.995 -5.603 0.098 84.386 0.098 84.386 0.995 -5.603
149.833 0.993 -6.714 0.117 83.273 0.117 83.273 0.993 -6.714
174.792 0.991 -7.821 0.136 82.164 0.136 82.164 0.991 -7.821
199.75 0.988 -8.922 0.155 81.06 0.155 81.06 0.988 -8.922
224.708 0.985 -10.018 0.174 79.963 0.174 79.963 0.985 -10.018
249.667 0.981 -11.106 0.193 78.872 0.193 78.872 0.981 -11.106
274.625 0.977 -12.188 0.211 77.788 0.211 77.788 0.977 -12.188
299.583 0.973 -13.261 0.229 76.713 0.229 76.713 0.973 -13.261
324.542 0.969 -14.326 0.247 75.646 0.247 75.646 0.969 -14.326
349.5 0.964 -15.382 0.265 74.588 0.265 74.588 0.964 -15.382
374.458 0.959 -16.428 0.283 73.54 0.283 73.54 0.959 -16.428
399.417 0.954 -17.464 0.3 72.501 0.3 72.501 0.954 -17.464
424.375 0.948 -18.489 0.317 71.474 0.317 71.474 0.948 -18.489
449.333 0.942 -19.504 0.334 70.457 0.334 70.457 0.942 -19.504
474.292 0.936 -20.507 0.35 69.452 0.35 69.452 0.936 -20.507
499.25 0.93 -21.498 0.366 68.458 0.366 68.458 0.93 -21.498
524.208 0.924 -22.478 0.382 67.477 0.382 67.477 0.924 -22.478
549.167 0.917 -23.445 0.398 66.507 0.398 66.507 0.917 -23.445
574.125 0.91 -24.399 0.413 65.551 0.413 65.551 0.91 -24.399
599.083 0.903 -25.341 0.428 64.607 0.428 64.607 0.903 -25.341
624.042 0.896 -26.27 0.443 63.676 0.443 63.676 0.896 -26.27
649 0.889 -27.185 0.457 62.758 0.457 62.758 0.889 -27.185
673.958 0.882 -28.088 0.471 61.853 0.471 61.853 0.882 -28.088
698.917 0.874 -28.977 0.484 60.962 0.484 60.962 0.874 -28.977
723.875 0.867 -29.853 0.498 60.084 0.498 60.084 0.867 -29.853
748.833 0.859 -30.715 0.511 59.219 0.511 59.219 0.859 -30.715
773.792 0.851 -31.564 0.523 58.368 0.523 58.368 0.851 -31.564
798.75 0.844 -32.4 0.536 57.53 0.536 57.53 0.844 -32.4
823.708 0.836 -33.222 0.548 56.706 0.548 56.706 0.836 -33.222
848.667 0.828 -34.03 0.56 55.895 0.56 55.895 0.828 -34.03
873.625 0.82 -34.826 0.571 55.097 0.571 55.097 0.82 -34.826
898.583 0.812 -35.608 0.582 54.313 0.582 54.313 0.812 -35.608
923.542 0.804 -36.376 0.593 53.542 0.593 53.542 0.804 -36.376
948.5 0.796 -37.132 0.604 52.784 0.604 52.784 0.796 -37.132
973.458 0.788 -37.875 0.614 52.039 0.614 52.039 0.788 -37.875
998.417 0.78 -38.605 0.624 51.306 0.624 51.306 0.78 -38.605
1023.375 0.773 -39.323 0.634 50.586 0.634 50.586 0.773 -39.323
1048.333 0.765 -40.028 0.643 49.879 0.643 49.879 0.765 -40.028
1073.292 0.757 -40.721 0.652 49.184 0.652 49.184 0.757 -40.721
1098.25 0.749 -41.401 0.661 48.501 0.661 48.501 0.749 -41.401
1123.208 0.741 -42.069 0.67 47.83 0.67 47.83 0.741 -42.069
1148.167 0.733 -42.726 0.678 47.171 0.678 47.171 0.733 -42.726
1173.125 0.726 -43.371 0.687 46.524 0.687 46.524 0.726 -43.371
1198.083 0.718 -44.005 0.695 45.888 0.695 45.888 0.718 -44.005
1223.042 0.71 -44.627 0.702 45.264 0.702 45.264 0.71 -44.627
1248 0.703 -45.238 0.71 44.65 0.71 44.65 0.703 -45.238
1272.958 0.695 -45.839 0.717 44.047 0.717 44.047 0.695 -45.839
1297.917 0.688 -46.428 0.725 43.455 0.725 43.455 0.688 -46.428
1322.875 0.68 -47.008 0.731 42.874 0.731 42.874 0.68 -47.008
1347.833 0.673 -47.576 0.738 42.302 0.738 42.302 0.673 -47.576
1372.792 0.666 -48.135 0.745 41.741 0.745 41.741 0.666 -48.135
1397.75 0.659 -48.684 0.751 41.19 0.751 41.19 0.659 -48.684
1422.708 0.651 -49.223 0.757 40.648 0.757 40.648 0.651 -49.223
1447.667 0.644 -49.753 0.763 40.116 0.763 40.116 0.644 -49.753
1472.625 0.637 -50.274 0.769 39.593 0.769 39.593 0.637 -50.274
1497.583 0.63 -50.785 0.775 39.079 0.775 39.079 0.63 -50.785
1522.542 0.624 -51.287 0.78 38.574 0.78 38.574 0.624 -51.287
1547.5 0.617 -51.781 0.786 38.078 0.786 38.078 0.617 -51.781
1572.458 0.61 -52.266 0.791 37.591 0.791 37.591 0.61 -52.266
1597.417 0.603 -52.743 0.796 37.112 0.796 37.112 0.603 -52.743
1622.375 0.597 -53.211 0.801 36.641 0.801 36.641 0.597 -53.211
1647.333 0.59 -53.671 0.806 36.178 0.806 36.178 0.59 -53.671
1672.292 0.584 -54.124 0.81 35.722 0.81 35.722 0.584 -54.124
1697.25 0.578 -54.569 0.815 35.275 0.815 35.275 0.578 -54.569
1722.208 0.571 -55.006 0.819 34.835 0.819 34.835 0.571 -55.006
1747.167 0.565 -55.436 0.823 34.402 0.823 34.402 0.565 -55.436
1772.125 0.559 -55.859 0.828 33.977 0.828 33.977 0.559 -55.859
1797.083 0.553 -56.275 0.832 33.559 0.832 33.559 0.553 -56.275
1822.042 0.547 -56.684 0.836 33.147 0.836 33.147 0.547 -56.684
1847 0.541 -57.086 0.839 32.742 0.839 32.742 0.541 -57.086
1871.958 0.535 -57.482 0.843 32.344 0.843 32.344 0.535 -57.482
1896.917 0.529 -57.871 0.847 31.952 0.847 31.952 0.529 -57.871
1921.875 0.523 -58.254 0.85 31.567 0.85 31.567 0.523 -58.254
1946.833 0.518 -58.63 0.854 31.187 0.854 31.187 0.518 -58.63
1971.792 0.512 -59.001 0.857 30.814 0.857 30.814 0.512 -59.001
1996.75 0.507 -59.366 0.86 30.446 0.86 30.446 0.507 -59.366
2021.708 0.501 -59.725 0.864 30.085 0.864 30.085 0.501 -59.725
2046.667 0.496 -60.078 0.867 29.728 0.867 29.728 0.496 -60.078
2071.625 0.491 -60.426 0.87 29.378 0.87 29.378 0.491 -60.426
2096.583 0.485 -60.769 0.873 29.032 0.873 29.032 0.485 -60.769
2121.542 0.48 -61.106 0.876 28.692 0.876 28.692 0.48 -61.106
2146.5 0.475 -61.438 0.878 28.357 0.878 28.357 0.475 -61.438
2171.458 0.47 -61.765 0.881 28.027 0.881 28.027 0.47 -61.765
2196.417 0.465 -62.087 0.884 27.702 0.884 27.702 0.465 -62.087
2221.375 0.46 -62.405 0.886 27.382 0.886 27.382 0.46 -62.405
2246.333 0.455 -62.717 0.889 27.067 0.889 27.067 0.455 -62.717
2271.292 0.45 -63.025 0.891 26.756 0.891 26.756 0.45 -63.025
2296.25 0.445 -63.329 0.894 26.449 0.894 26.449 0.445 -63.329
2321.208 0.441 -63.628 0.896 26.147 0.896 26.147 0.441 -63.628
2346.167 0.436 -63.923 0.898 25.85 0.898 25.85 0.436 -63.923
2371.125 0.431 -64.213 0.9 25.556 0.9 25.556 0.431 -64.213
2396.083 0.427 -64.499 0.903 25.267 0.903 25.267 0.427 -64.499
2421.042 0.422 -64.782 0.905 24.981 0.905 24.981 0.422 -64.782
2446 0.418 -65.06 0.907 24.7 0.907 24.7 0.418 -65.06
2470.958 0.413 -65.334 0.909 24.422 0.909 24.422 0.413 -65.334
2495.917 0.409 -65.605 0.911 24.149 0.911 24.149 0.409 -65.605
2520.875 0.405 -65.872 0.913 23.879 0.913 23.879 0.405 -65.872
2545.833 0.401 -66.135 0.915 23.612 0.915 23.612 0.401 -66.135
2570.792 0.396 -66.395 0.916 23.349 0.916 23.349 0.396 -66.395
2595.75 0.392 -66.651 0.918 23.09 0.918 23.09 0.392 -66.651
2620.708 0.388 -66.904 0.92 22.834 0.92 22.834 0.388 -66.904
2645.667 0.384 -67.153 0.922 22.581 0.922 22.581 0.384 -67.153
2670.625 0.38 -67.399 0.923 22.332 0.923 22.332 0.38 -67.399
2695.583 0.376 -67.642 0.925 22.086 0.925 22.086 0.376 -67.642
2720.542 0.372 -67.882 0.926 21.842 0.926 21.842 0.372 -67.882
2745.5 0.368 -68.119 0.928 21.602 0.928 21.602 0.368 -68.119
2770.458 0.364 -68.352 0.929 21.365 0.929 21.365 0.364 -68.352
2795.417 0.361 -68.583 0.931 21.131 0.931 21.131 0.361 -68.583
2820.375 0.357 -68.811 0.932 20.9 0.932 20.9 0.357 -68.811
2845.333 0.353 -69.036 0.934 20.672 0.934 20.672 0.353 -69.036
2870.292 0.349 -69.258 0.935 20.446 0.935 20.446 0.349 -69.258
2895.25 0.346 -69.477 0.937 20.223 0.937 20.223 0.346 -69.477
2920.208 0.342 -69.694 0.938 20.003 0.938 20.003 0.342 -69.694
2945.167 0.339 -69.908 0.939 19.785 0.939 19.785 0.339 -69.908
2970.125 0.335 -70.119 0.94 19.57 0.94 19.57 0.335 -70.119
2995.083 0.331 -70.328 0.942 19.358 0.942 19.358 0.331 -70.328
3020.042 0.328 -70.534 0.943 19.148 0.943 19.148 0.328 -70.534
3045 0.325 -70.738 0.944 18.94 0.944 18.94 0.325 -70.738
3069.958 0.321 -70.94 0.945 18.735 0.945 18.735 0.321 -70.94
3094.917 0.318 -71.139 0.946 18.532 0.946 18.532 0.318 -71.139
3119.875 0.315 -71.336 0.947 18.331 0.947 18.331 0.315 -71.336
3144.833 0.311 -71.531 0.949 18.132 0.949 18.132 0.311 -71.531
3169.792 0.308 -71.723 0.95 17.936 0.95 17.936 0.308 -71.723
3194.75 0.305 -71.913 0.951 17.742 0.951 17.742 0.305 -71.913
3219.708 0.302 -72.101 0.952 17.55 0.952 17.55 0.302 -72.101
3244.667 0.298 -72.287 0.953 17.36 0.953 17.36 0.298 -72.287
3269.625 0.295 -72.471 0.954 17.172 0.954 17.172 0.295 -72.471
3294.583 0.292 -72.653 0.955 16.986 0.955 16.986 0.292 -72.653
3319.542 0.289 -72.833 0.955 16.802 0.955 16.802 0.289 -72.833
3344.5 0.286 -73.011 0.956 16.62 0.956 16.62 0.286 -73.011
3369.458 0.283 -73.186 0.957 16.439 0.957 16.439 0.283 -73.186
3394.417 0.28 -73.361 0.958 16.261 0.958 16.261 0.28 -73.361
3419.375 0.277 -73.533 0.959 16.084 0.959 16.084 0.277 -73.533
3444.333 0.274 -73.703 0.96 15.91 0.96 15.91 0.274 -73.703
3469.292 0.271 -73.872 0.961 15.737 0.961 15.737 0.271 -73.872
3494.25 0.268 -74.038 0.961 15.565 0.961 15.565 0.268 -74.038
3519.208 0.265 -74.203 0.962 15.396 0.962 15.396 0.265 -74.203
3544.167 0.263 -74.367 0.963 15.228 0.963 15.228 0.263 -74.367
3569.125 0.26 -74.528 0.964 15.062 0.964 15.062 0.26 -74.528
3594.083 0.257 -74.688 0.965 14.897 0.965 14.897 0.257 -74.688
3619.042 0.254 -74.847 0.965 14.734 0.965 14.734 0.254 -74.847
3644 0.252 -75.003 0.966 14.572 0.966 14.572 0.252 -75.003
3668.958 0.249 -75.158 0.967 14.412 0.967 14.412 0.249 -75.158
3693.917 0.246 -75.312 0.967 14.253 0.967 14.253 0.246 -75.312
3718.875 0.244 -75.464 0.968 14.096 0.968 14.096 0.244 -75.464
3743.833 0.241 -75.615 0.969 13.941 0.969 13.941 0.241 -75.615
3768.792 0.238 -75.764 0.969 13.786 0.969 13.786 0.238 -75.764
3793.75 0.236 -75.911 0.97 13.634 0.97 13.634 0.236 -75.911
3818.708 0.233 -76.057 0.971 13.482 0.971 13.482 0.233 -76.057
3843.667 0.231 -76.202 0.971 13.332 0.971 13.332 0.231 -76.202
3868.625 0.228 -76.345 0.972 13.183 0.972 13.183 0.228 -76.345
3893.583 0.226 -76.487 0.972 13.036 0.972 13.036 0.226 -76.487
3918.542 0.223 -76.628 0.973 12.89 0.973 12.89 0.223 -76.628
3943.5 0.221 -76.767 0.973 12.745 0.973 12.745 0.221 -76.767
3968.458 0.218 -76.905 0.974 12.601 0.974 12.601 0.218 -76.905
3993.417 0.216 -77.042 0.975 12.458 0.975 12.458 0.216 -77.042
4018.375 0.213 -77.177 0.975 12.317 0.975 12.317 0.213 -77.177
4043.333 0.211 -77.311 0.976 12.177 0.976 12.177 0.211 -77.311
4068.292 0.209 -77.444 0.976 12.038 0.976 12.038 0.209 -77.444
4093.25 0.206 -77.576 0.977 11.9 0.977 11.9 0.206 -77.576
4118.208 0.204 -77.706 0.977 11.764 0.977 11.764 0.204 -77.706
4143.167 0.202 -77.835 0.978 11.628 0.978 11.628 0.202 -77.835
4168.125 0.199 -77.963 0.978 11.494 0.978 11.494 0.199 -77.963
4193.083 0.197 -78.09 0.979 11.36 0.979 11.36 0.197 -78.09
4218.042 0.195 -78.216 0.979 11.228 0.979 11.228 0.195 -78.216
4243 0.192 -78.34 0.979 11.097 0.979 11.097 0.192 -78.34
4267.958 0.19 -78.464 0.98 10.967 0.98 10.967 0.19 -78.464
4292.917 0.188 -78.586 0.98 10.837 0.98 10.837 0.188 -78.586
4317.875 0.186 -78.707 0.981 10.709 0.981 10.709 0.186 -78.707
4342.833 0.184 -78.827 0.981 10.582 0.981 10.582 0.184 -78.827
4367.792 0.181 -78.946 0.982 10.456 0.982 10.456 0.181 -78.946
4392.75 0.179 -79.064 0.982 10.33 0.982 10.33 0.179 -79.064
4417.708 0.177 -79.181 0.982 10.206 0.982 10.206 0.177 -79.181
4442.667 0.175 -79.297 0.983 10.082 0.983 10.082 0.175 -79.297
4467.625 0.173 -79.412 0.983 9.96 0.983 9.96 0.173 -79.412
4492.583 0.171 -79.525 0.983 9.838 0.983 9.838 0.171 -79.525
4517.542 0.169 -79.638 0.984 9.717 0.984 9.717 0.169 -79.638
4542.5 0.167 -79.75 0.984 9.597 0.984 9.597 0.167 -79.75
4567.458 0.165 -79.86 0.984 9.478 0.984 9.478 0.165 -79.86
4592.417 0.163 -79.97 0.985 9.36 0.985 9.36 0.163 -79.97
4617.375 0.161 -80.079 0.985 9.243 0.985 9.243 0.161 -80.079
4642.333 0.159 -80.187 0.985 9.126 0.985 9.126 0.159 -80.187
4667.292 0.157 -80.293 0.986 9.011 0.986 9.011 0.157 -80.293
4692.25 0.155 -80.399 0.986 8.896 0.986 8.896 0.155 -80.399
4717.208 0.153 -80.504 0.986 8.781 0.986 8.781 0.153 -80.504
4742.167 0.151 -80.608 0.987 8.668 0.987 8.668 0.151 -80.608
4767.125 0.149 -80.711 0.987 8.555 0.987 8.555 0.149 -80.711
4792.083 0.147 -80.813 0.987 8.443 0.987 8.443 0.147 -80.813
4817.042 0.145 -80.914 0.988 8.332 0.988 8.332 0.145 -80.914
4842 0.143 -81.014 0.988 8.222 0.988 8.222 0.143 -81.014
4866.958 0.141 -81.113 0.988 8.112 0.988 8.112 0.141 -81.113
4891.917 0.139 -81.212 0.988 8.003 0.988 8.003 0.139 -81.212
4916.875 0.137 -81.309 0.989 7.895 0.989 7.895 0.137 -81.309
4941.833 0.136 -81.406 0.989 7.787 0.989 7.787 0.136 -81.406
4966.792 0.134 -81.501 0.989 7.68 0.989 7.68 0.134 -81.501
4991.75 0.132 -81.596 0.989 7.574 0.989 7.574 0.132 -81.596
5016.708 0.13 -81.689 0.99 7.469 0.99 7.469 0.13 -81.689
5041.667 0.128 -81.782 0.99 7.364 0.99 7.364 0.128 -81.782
5066.625 0.126 -81.874 0.99 7.259 0.99 7.259 0.126 -81.874
5091.583 0.125 -81.965 0.99 7.156 0.99 7.156 0.125 -81.965
5116.542 0.123 -82.055 0.991 7.053 0.991 7.053 0.123 -82.055
5141.5 0.121 -82.144 0.991 6.95 0.991 6.95 0.121 -82.144
5166.458 0.119 -82.232 0.991 6.849 0.991 6.849 0.119 -82.232
5191.417 0.118 -82.319 0.991 6.748 0.991 6.748 0.118 -82.319
5216.375 0.116 -82.406 0.991 6.647 0.991 6.647 0.116 -82.406
5241.333 0.114 -82.491 0.992 6.547 0.992 6.547 0.114 -82.491
5266.292 0.112 -82.576 0.992 6.448 0.992 6.448 0.112 -82.576
5291.25 0.111 -82.659 0.992 6.349 0.992 6.349 0.111 -82.659
5316.208 0.109 -82.742 0.992 6.251 0.992 6.251 0.109 -82.742
5341.167 0.107 -82.823 0.992 6.153 0.992 6.153 0.107 -82.823
5366.125 0.106 -82.904 0.993 6.056 0.993 6.056 0.106 -82.904
5391.083 0.104 -82.983 0.993 5.959 0.993 5.959 0.104 -82.983
5416.042 0.102 -83.062 0.993 5.863 0.993 5.863 0.102 -83.062
5441 0.101 -83.14 0.993 5.768 0.993 5.768 0.101 -83.14
5465.958 0.099 -83.216 0.993 5.673 0.993 5.673 0.099 -83.216
5490.917 0.097 -83.292 0.993 5.578 0.993 5.578 0.097 -83.292
5515.875 0.096 -83.366 0.994 5.484 0.994 5.484 0.096 -83.366
5540.833 0.094 -83.44 0.994 5.391 0.994 5.391 0.094 -83.44
5565.792 0.092 -83.512 0.994 5.298 0.994 5.298 0.092 -83.512
5590.75 0.091 -83.583 0.994 5.205 0.994 5.205 0.091 -83.583
5615.708 0.089 -83.653 0.994 5.113 0.994 5.113 0.089 -83.653
5640.667 0.088 -83.722 0.994 5.022 0.994 5.022 0.088 -83.722
5665.625 0.086 -83.79 0.994 4.931 0.994 4.931 0.086 -83.79
5690.583 0.084 -83.856 0.995 4.84 0.995 4.84 0.084 -83.856
5715.542 0.083 -83.922 0.995 4.75 0.995 4.75 0.083 -83.922
5740.5 0.081 -83.985 0.995 4.661 0.995 4.661 0.081 -83.985
5765.458 0.08 -84.048 0.995 4.572 0.995 4.572 0.08 -84.048
5790.417 0.078 -84.109 0.995 4.483 0.995 4.483 0.078 -84.109
5815.375 0.077 -84.169 0.995 4.395 0.995 4.395 0.077 -84.169
5840.333 0.075 -84.228 0.995 4.307 0.995 4.307 0.075 -84.228
5865.292 0.074 -84.285 0.995 4.219 0.995 4.219 0.074 -84.285
5890.25 0.072 -84.34 0.995 4.132 0.995 4.132 0.072 -84.34
5915.208 0.071 -84.394 0.996 4.046 0.996 4.046 0.071 -84.394
5940.167 0.069 -84.446 0.996 3.96 0.996 3.96 0.069 -84.446
5965.125 0.068 -84.496 0.996 3.874 0.996 3.874 0.068 -84.496
5990.083 0.066 -84.545 0.996 3.789 0.996 3.789 0.066 -84.545
6015.042 0.065 -84.591 0.996 3.704 0.996 3.704 0.065 -84.591
6040 0.063 -84.636 0.996 3.619 0.996 3.619 0.063 -84.636
6064.958 0.062 -84.679 0.996 3.535 0.996 3.535 0.062 -84.679
6089.917 0.06 -84.719 0.996 3.451 0.996 3.451 0.06 -84.719
6114.875 0.059 -84.757 0.996 3.368 0.996 3.368 0.059 -84.757
6139.833 0.057 -84.792 0.996 3.285 0.996 3.285 0.057 -84.792
6164.792 0.056 -84.825 0.997 3.202 0.997 3.202 0.056 -84.825
6189.75 0.054 -84.856 0.997 3.12 0.997 3.12 0.054 -84.856
6214.708 0.053 -84.883 0.997 3.038 0.997 3.038 0.053 -84.883
6239.667 0.052 -84.907 0.997 2.957 0.997 2.957 0.052 -84.907
6264.625 0.05 -84.928 0.997 2.876 0.997 2.876 0.05 -84.928
6289.583 0.049 -84.945 0.997 2.795 0.997 2.795 0.049 -84.945
6314.542 0.047 -84.959 0.997 2.715 0.997 2.715 0.047 -84.959
6339.5 0.046 -84.968 0.997 2.635 0.997 2.635 0.046 -84.968
6364.458 0.045 -84.973 0.997 2.555 0.997 2.555 0.045 -84.973
6389.417 0.043 -84.973 0.997 2.476 0.997 2.476 0.043 -84.973
6414.375 0.042 -84.968 0.997 2.396 0.997 2.396 0.042 -84.968
6439.333 0.04 -84.957 0.997 2.318 0.997 2.318 0.04 -84.957
6464.292 0.039 -84.94 0.997 2.239 0.997 2.239 0.039 -84.94
6489.25 0.038 -84.916 0.997 2.161 0.997 2.161 0.038 -84.916
6514.208 0.036 -84.885 0.997 2.084 0.997 2.084 0.036 -84.885
6539.167 0.035 -84.846 0.997 2.006 0.997 2.006 0.035 -84.846
6564.125 0.034 -84.797 0.998 1.929 0.998 1.929 0.034 -84.797
6589.083 0.032 -84.738 0.998 1.852 0.998 1.852 0.032 -84.738
6614.042 0.031 -84.668 0.998 1.776 0.998 1.776 0.031 -84.668
6639 0.03 -84.586 0.998 1.7 0.998 1.7 0.03 -84.586
6663.958 0.028 -84.488 0.998 1.624 0.998 1.624 0.028 -84.488
6688.917 0.027 -84.375 0.998 1.548 0.998 1.548 0.027 -84.375
6713.875 0.026 -84.242 0.998 1.473 0.998 1.473 0.026 -84.242
6738.833 0.024 -84.089 0.998 1.398 0.998 1.398 0.024 -84.089
6763.792 0.023 -83.91 0.998 1.324 0.998 1.324 0.023 -83.91
6788.75 0.022 -83.702 0.998 1.249 0.998 1.249 0.022 -83.702
6813.708 0.021 -83.459 0.998 1.175 0.998 1.175 0.021 -83.459
6838.667 0.019 -83.175 0.998 1.101 0.998 1.101 0.019 -83.175
6863.625 0.018 -82.842 0.998 1.028 0.998 1.028 0.018 -82.842
6888.583 0.017 -82.449 0.998 0.954 0.998 0.954 0.017 -82.449
6913.542 0.016 -81.981 0.998 0.882 0.998 0.882 0.016 -81.981
6938.5 0.014 -81.42 0.998 0.809 0.998 0.809 0.014 -81.42
6963.458 0.013 -80.738 0.998 0.736 0.998 0.736 0.013 -80.738
6988.417 0.012 -79.9 0.998 0.664 0.998 0.664 0.012 -79.9
7013.375 0.011 -78.851 0.998 0.592 0.998 0.592 0.011 -78.851
7038.333 9.289e-3 -77.509 0.998 0.521 0.998 0.521 9.289e-3 -77.509
7063.292 8.074e-3 -75.746 0.998 0.449 0.998 0.449 8.074e-3 -75.746
7088.25 6.875e-3 -73.348 0.998 0.378 0.998 0.378 6.875e-3 -73.348
7113.208 5.698e-3 -69.931 0.998 0.307 0.998 0.307 5.698e-3 -69.931
7138.167 4.557e-3 -64.754 0.998 0.237 0.998 0.237 4.557e-3 -64.754
7163.125 3.483e-3 -56.251 0.998 0.166 0.998 0.166 3.483e-3 -56.251
7188.083 2.555e-3 -40.953 0.998 0.096 0.998 0.096 2.555e-3 -40.953
7213.042 1.98e-3 -13.344 0.998 0.026 0.998 0.026 1.98e-3 -13.344
7238 2.07e-3 21.423 0.998 -0.043 0.998 -0.043 2.07e-3 21.423
7262.958 2.755e-3 45.51 0.998 -0.113 0.998 -0.113 2.755e-3 45.51
7287.917 3.715e-3 58.578 0.998 -0.182 0.998 -0.182 3.715e-3 58.578
7312.875 4.784e-3 66.003 0.998 -0.251 0.998 -0.251 4.784e-3 66.003
7337.833 5.902e-3 70.627 0.998 -0.32 0.998 -0.32 5.902e-3 70.627
7362.792 7.042e-3 73.734 0.998 -0.388 0.998 -0.388 7.042e-3 73.734
7387.75 8.194e-3 75.945 0.998 -0.456 0.998 -0.456 8.194e-3 75.945
7412.708 9.352e-3 77.587 0.998 -0.524 0.998 -0.524 9.352e-3 77.587
7437.667 0.011 78.848 0.998 -0.592 0.998 -0.592 0.011 78.848
7462.625 0.012 79.841 0.998 -0.66 0.998 -0.66 0.012 79.841
7487.583 0.013 80.64 0.998 -0.727 0.998 -0.727 0.013 80.64
7512.542 0.014 81.293 0.998 -0.794 0.998 -0.794 0.014 81.293
7537.5 0.015 81.834 0.998 -0.861 0.998 -0.861 0.015 81.834
7562.458 0.016 82.288 0.998 -0.928 0.998 -0.928 0.016 82.288
7587.417 0.017 82.671 0.998 -0.994 0.998 -0.994 0.017 82.671
7612.375 0.019 82.998 0.998 -1.061 0.998 -1.061 0.019 82.998
7637.333 0.02 83.278 0.998 -1.127 0.998 -1.127 0.02 83.278
7662.292 0.021 83.52 0.998 -1.193 0.998 -1.193 0.021 83.52
7687.25 0.022 83.728 0.998 -1.258 0.998 -1.258 0.022 83.728
7712.208 0.023 83.91 0.998 -1.324 0.998 -1.324 0.023 83.91
7737.167 0.024 84.068 0.998 -1.389 0.998 -1.389 0.024 84.068
7762.125 0.025 84.205 0.998 -1.454 0.998 -1.454 0.025 84.205
7787.083 0.027 84.325 0.998 -1.519 0.998 -1.519 0.027 84.325
7812.042 0.028 84.43 0.998 -1.583 0.998 -1.583 0.028 84.43
7837 0.029 84.521 0.998 -1.648 0.998 -1.648 0.029 84.521
7861.958 0.03 84.6 0.998 -1.712 0.998 -1.712 0.03 84.6
7886.917 0.031 84.669 0.998 -1.776 0.998 -1.776 0.031 84.669
7911.875 0.032 84.728 0.998 -1.84 0.998 -1.84 0.032 84.728
7936.833 0.033 84.779 0.998 -1.904 0.998 -1.904 0.033 84.779
7961.792 0.034 84.822 0.997 -1.967 0.997 -1.967 0.034 84.822
7986.75 0.035 84.859 0.997 -2.031 0.997 -2.031 0.035 84.859
8011.708 0.037 84.89 0.997 -2.094 0.997 -2.094 0.037 84.89
8036.667 0.038 84.915 0.997 -2.157 0.997 -2.157 0.038 84.915
8061.625 0.039 84.935 0.997 -2.22 0.997 -2.22 0.039 84.935
8086.583 0.04 84.95 0.997 -2.282 0.997 -2.282 0.04 84.95
8111.542 0.041 84.961 0.997 -2.345 0.997 -2.345 0.041 84.961
8136.5 0.042 84.969 0.997 -2.407 0.997 -2.407 0.042 84.969
8161.458 0.043 84.973 0.997 -2.469 0.997 -2.469 0.043 84.973
