# MHZ S MA R 50

50 0.985 -9.98 0.173 80.016 0.173 80.016 0.985 -9.98
74.958 0.967 -14.782 0.255 75.212 0.255 75.212 0.967 -14.782
99.917 0.943 -19.385 0.332 70.607 0.332 70.607 0.943 -19.385
124.875 0.915 -23.747 0.403 66.242 0.403 66.242 0.915 -23.747
149.833 0.884 -27.842 0.467 62.145 0.467 62.145 0.884 -27.842
174.792 0.851 -31.657 0.525 58.328 0.525 58.328 0.851 -31.657
199.75 0.817 -35.19 0.576 54.793 0.576 54.793 0.817 -35.19
224.708 0.783 -38.448 0.622 51.533 0.622 51.533 0.783 -38.448
249.667 0.749 -41.445 0.662 48.534 0.662 48.534 0.749 -41.445
274.625 0.717 -44.197 0.697 45.78 0.697 45.78 0.717 -44.197
299.583 0.685 -46.722 0.728 43.253 0.728 43.253 0.685 -46.722
324.542 0.655 -49.039 0.755 40.933 0.755 40.933 0.655 -49.039
349.5 0.627 -51.167 0.779 38.803 0.779 38.803 0.627 -51.167
374.458 0.6 -53.123 0.8 36.845 0.8 36.845 0.6 -53.123
399.417 0.574 -54.924 0.818 35.042 0.818 35.042 0.574 -54.924
424.375 0.55 -56.585 0.835 33.378 0.835 33.378 0.55 -56.585
449.333 0.528 -58.12 0.849 31.842 0.849 31.842 0.528 -58.12
474.292 0.506 -59.54 0.862 30.419 0.862 30.419 0.506 -59.54
499.25 0.486 -60.858 0.873 29.099 0.873 29.099 0.486 -60.858
524.208 0.468 -62.082 0.884 27.873 0.884 27.873 0.468 -62.082
549.167 0.45 -63.222 0.893 26.73 0.893 26.73 0.45 -63.222
574.125 0.433 -64.286 0.901 25.664 0.901 25.664 0.433 -64.286
599.083 0.417 -65.28 0.908 24.667 0.908 24.667 0.417 -65.28
624.042 0.402 -66.211 0.915 23.734 0.915 23.734 0.402 -66.211
649 0.388 -67.085 0.921 22.858 0.921 22.858 0.388 -67.085
673.958 0.375 -67.907 0.927 22.034 0.927 22.034 0.375 -67.907
698.917 0.363 -68.68 0.932 21.258 0.932 21.258 0.363 -68.68
723.875 0.351 -69.41 0.936 20.526 0.936 20.526 0.351 -69.41
748.833 0.339 -70.099 0.94 19.834 0.94 19.834 0.339 -70.099
773.792 0.329 -70.751 0.944 19.18 0.944 19.18 0.329 -70.751
798.75 0.318 -71.369 0.948 18.559 0.948 18.559 0.318 -71.369
823.708 0.309 -71.956 0.951 17.97 0.951 17.97 0.309 -71.956
848.667 0.299 -72.513 0.954 17.41 0.954 17.41 0.299 -72.513
873.625 0.29 -73.043 0.957 16.877 0.957 16.877 0.29 -73.043
898.583 0.282 -73.548 0.959 16.37 0.959 16.37 0.282 -73.548
923.542 0.274 -74.03 0.961 15.885 0.961 15.885 0.274 -74.03
948.5 0.266 -74.491 0.964 15.422 0.964 15.422 0.266 -74.491
973.458 0.258 -74.931 0.966 14.979 0.966 14.979 0.258 -74.931
998.417 0.251 -75.353 0.968 14.555 0.968 14.555 0.251 -75.353
1023.375 0.244 -75.756 0.969 14.148 0.969 14.148 0.244 -75.756
1048.333 0.238 -76.144 0.971 13.758 0.971 13.758 0.238 -76.144
1073.292 0.231 -76.516 0.972 13.383 0.972 13.383 0.231 -76.516
1098.25 0.225 -76.873 0.974 13.023 0.974 13.023 0.225 -76.873
1123.208 0.219 -77.217 0.975 12.676 0.975 12.676 0.219 -77.217
1148.167 0.214 -77.549 0.976 12.341 0.976 12.341 0.214 -77.549
1173.125 0.208 -77.868 0.978 12.019 0.978 12.019 0.208 -77.868
1198.083 0.203 -78.176 0.979 11.708 0.979 11.708 0.203 -78.176
1223.042 0.198 -78.473 0.98 11.408 0.98 11.408 0.198 -78.473
1248 0.193 -78.76 0.981 11.118 0.981 11.118 0.193 -78.76
1272.958 0.188 -79.038 0.982 10.837 0.982 10.837 0.188 -79.038
1297.917 0.183 -79.306 0.983 10.565 0.983 10.565 0.183 -79.306
1322.875 0.179 -79.566 0.983 10.302 0.983 10.302 0.179 -79.566
1347.833 0.174 -79.818 0.984 10.046 0.984 10.046 0.174 -79.818
1372.792 0.17 -80.062 0.985 9.799 0.985 9.799 0.17 -80.062
1397.75 0.166 -80.299 0.986 9.558 0.986 9.558 0.166 -80.299
1422.708 0.162 -80.529 0.986 9.325 0.986 9.325 0.162 -80.529
1447.667 0.158 -80.752 0.987 9.098 0.987 9.098 0.158 -80.752
1472.625 0.154 -80.969 0.988 8.877 0.988 8.877 0.154 -80.969
1497.583 0.151 -81.18 0.988 8.662 0.988 8.662 0.151 -81.18
1522.542 0.147 -81.385 0.989 8.453 0.989 8.453 0.147 -81.385
1547.5 0.143 -81.584 0.989 8.25 0.989 8.25 0.143 -81.584
1572.458 0.14 -81.779 0.99 8.051 0.99 8.051 0.14 -81.779
1597.417 0.137 -81.968 0.99 7.857 0.99 7.857 0.137 -81.968
1622.375 0.133 -82.153 0.991 7.669 0.991 7.669 0.133 -82.153
1647.333 0.13 -82.333 0.991 7.484 0.991 7.484 0.13 -82.333
1672.292 0.127 -82.508 0.991 7.304 0.991 7.304 0.127 -82.508
1697.25 0.124 -82.68 0.992 7.128 0.992 7.128 0.124 -82.68
1722.208 0.121 -82.847 0.992 6.956 0.992 6.956 0.121 -82.847
1747.167 0.118 -83.01 0.993 6.788 0.993 6.788 0.118 -83.01
1772.125 0.115 -83.17 0.993 6.623 0.993 6.623 0.115 -83.17
1797.083 0.113 -83.325 0.993 6.462 0.993 6.462 0.113 -83.325
1822.042 0.11 -83.478 0.994 6.304 0.994 6.304 0.11 -83.478
1847 0.107 -83.627 0.994 6.15 0.994 6.15 0.107 -83.627
1871.958 0.105 -83.773 0.994 5.998 0.994 5.998 0.105 -83.773
1896.917 0.102 -83.915 0.994 5.85 0.994 5.85 0.102 -83.915
1921.875 0.099 -84.055 0.995 5.704 0.995 5.704 0.099 -84.055
1946.833 0.097 -84.191 0.995 5.561 0.995 5.561 0.097 -84.191
1971.792 0.094 -84.325 0.995 5.421 0.995 5.421 0.094 -84.325
1996.75 0.092 -84.456 0.995 5.284 0.995 5.284 0.092 -84.456
2021.708 0.09 -84.584 0.996 5.148 0.996 5.148 0.09 -84.584
2046.667 0.087 -84.71 0.996 5.016 0.996 5.016 0.087 -84.71
2071.625 0.085 -84.833 0.996 4.885 0.996 4.885 0.085 -84.833
2096.583 0.083 -84.954 0.996 4.757 0.996 4.757 0.083 -84.954
2121.542 0.081 -85.072 0.996 4.631 0.996 4.631 0.081 -85.072
2146.5 0.079 -85.188 0.996 4.507 0.996 4.507 0.079 -85.188
2171.458 0.076 -85.302 0.997 4.385 0.997 4.385 0.076 -85.302
2196.417 0.074 -85.413 0.997 4.264 0.997 4.264 0.074 -85.413
2221.375 0.072 -85.522 0.997 4.146 0.997 4.146 0.072 -85.522
2246.333 0.07 -85.629 0.997 4.03 0.997 4.03 0.07 -85.629
2271.292 0.068 -85.733 0.997 3.915 0.997 3.915 0.068 -85.733
2296.25 0.066 -85.836 0.997 3.802 0.997 3.802 0.066 -85.836
2321.208 0.064 -85.936 0.998 3.69 0.998 3.69 0.064 -85.936
2346.167 0.062 -86.035 0.998 3.581 0.998 3.581 0.062 -86.035
2371.125 0.061 -86.131 0.998 3.472 0.998 3.472 0.061 -86.131
2396.083 0.059 -86.225 0.998 3.366 0.998 3.366 0.059 -86.225
2421.042 0.057 -86.317 0.998 3.26 0.998 3.26 0.057 -86.317
2446 0.055 -86.407 0.998 3.156 0.998 3.156 0.055 -86.407
2470.958 0.053 -86.495 0.998 3.054 0.998 3.054 0.053 -86.495
2495.917 0.052 -86.581 0.998 2.952 0.998 2.952 0.052 -86.581
2520.875 0.05 -86.665 0.998 2.853 0.998 2.853 0.05 -86.665
2545.833 0.048 -86.746 0.998 2.754 0.998 2.754 0.048 -86.746
2570.792 0.046 -86.825 0.999 2.656 0.999 2.656 0.046 -86.825
2595.75 0.045 -86.902 0.999 2.56 0.999 2.56 0.045 -86.902
2620.708 0.043 -86.976 0.999 2.465 0.999 2.465 0.043 -86.976
2645.667 0.041 -87.048 0.999 2.371 0.999 2.371 0.041 -87.048
2670.625 0.04 -87.117 0.999 2.278 0.999 2.278 0.04 -87.117
2695.583 0.038 -87.184 0.999 2.186 0.999 2.186 0.038 -87.184
2720.542 0.037 -87.247 0.999 2.095 0.999 2.095 0.037 -87.247
2745.5 0.035 -87.308 0.999 2.005 0.999 2.005 0.035 -87.308
2770.458 0.033 -87.365 0.999 1.916 0.999 1.916 0.033 -87.365
2795.417 0.032 -87.418 0.999 1.828 0.999 1.828 0.032 -87.418
2820.375 0.03 -87.468 0.999 1.741 0.999 1.741 0.03 -87.468
2845.333 0.029 -87.512 0.999 1.655 0.999 1.655 0.029 -87.512
2870.292 0.027 -87.552 0.999 1.569 0.999 1.569 0.027 -87.552
2895.25 0.026 -87.587 0.999 1.485 0.999 1.485 0.026 -87.587
2920.208 0.024 -87.615 0.999 1.401 0.999 1.401 0.024 -87.615
2945.167 0.023 -87.636 0.999 1.318 0.999 1.318 0.023 -87.636
2970.125 0.022 -87.649 0.999 1.236 0.999 1.236 0.022 -87.649
2995.083 0.02 -87.652 0.999 1.155 0.999 1.155 0.02 -87.652
3020.042 0.019 -87.643 0.999 1.074 0.999 1.074 0.019 -87.643
3045 0.017 -87.62 0.999 0.994 0.999 0.994 0.017 -87.62
3069.958 0.016 -87.579 0.999 0.915 0.999 0.915 0.016 -87.579
3094.917 0.015 -87.516 0.999 0.837 0.999 0.837 0.015 -87.516
3119.875 0.013 -87.426 0.999 0.759 0.999 0.759 0.013 -87.426
3144.833 0.012 -87.298 1 0.682 1 0.682 0.012 -87.298
3169.792 0.011 -87.12 1 0.606 1 0.606 0.011 -87.12
3194.75 9.26e-3 -86.871 1 0.53 1 0.53 9.26e-3 -86.871
3219.708 7.95e-3 -86.517 1 0.455 1 0.455 7.95e-3 -86.517
3244.667 6.651e-3 -85.999 1 0.38 1 0.38 6.651e-3 -85.999
3269.625 5.364e-3 -85.203 1 0.306 1 0.306 5.364e-3 -85.203
3294.583 4.088e-3 -83.871 1 0.233 1 0.233 4.088e-3 -83.871
3319.542 2.827e-3 -81.297 1 0.16 1 0.16 2.827e-3 -81.297
3344.5 1.591e-3 -74.608 1 0.088 1 0.088 1.591e-3 -74.608
3369.458 506.6e-6 -33.981 1 0.016 1 0.016 506.6e-6 -33.981
3394.417 1.047e-3 66.296 1 -0.055 1 -0.055 1.047e-3 66.296
3419.375 2.232e-3 79.03 1 -0.126 1 -0.126 2.232e-3 79.03
3444.333 3.443e-3 82.797 1 -0.196 1 -0.196 3.443e-3 82.797
3469.292 4.652e-3 84.554 1 -0.265 1 -0.265 4.652e-3 84.554
3494.25 5.855e-3 85.552 1 -0.335 1 -0.335 5.855e-3 85.552
3519.208 7.051e-3 86.182 1 -0.403 1 -0.403 7.051e-3 86.182
3544.167 8.24e-3 86.607 1 -0.472 1 -0.472 8.24e-3 86.607
3569.125 9.422e-3 86.906 1 -0.539 1 -0.539 9.422e-3 86.906
3594.083 0.011 87.122 1 -0.607 1 -0.607 0.011 87.122
3619.042 0.012 87.28 1 -0.674 1 -0.674 0.012 87.28
3644 0.013 87.398 0.999 -0.74 0.999 -0.74 0.013 87.398
3668.958 0.014 87.484 0.999 -0.806 0.999 -0.806 0.014 87.484
3693.917 0.015 87.547 0.999 -0.872 0.999 -0.872 0.015 87.547
3718.875 0.016 87.592 0.999 -0.937 0.999 -0.937 0.016 87.592
3743.833 0.017 87.622 0.999 -1.002 0.999 -1.002 0.017 87.622
3768.792 0.019 87.641 0.999 -1.066 0.999 -1.066 0.019 87.641
3793.75 0.02 87.65 0.999 -1.13 0.999 -1.13 0.02 87.65
3818.708 0.021 87.652 0.999 -1.194 0.999 -1.194 0.021 87.652
3843.667 0.022 87.646 0.999 -1.257 0.999 -1.257 0.022 87.646
3868.625 0.023 87.636 0.999 -1.32 0.999 -1.32 0.023 87.636
3893.583 0.024 87.62 0.999 -1.383 0.999 -1.383 0.024 87.62
3918.542 0.025 87.601 0.999 -1.445 0.999 -1.445 0.025 87.601
3943.5 0.026 87.578 0.999 -1.507 0.999 -1.507 0.026 87.578
3968.458 0.027 87.553 0.999 -1.568 0.999 -1.568 0.027 87.553
3993.417 0.028 87.525 0.999 -1.63 0.999 -1.63 0.028 87.525
4018.375 0.03 87.494 0.999 -1.691 0.999 -1.691 0.03 87.494
4043.333 0.031 87.462 0.999 -1.751 0.999 -1.751 0.031 87.462
4068.292 0.032 87.428 0.999 -1.812 0.999 -1.812 0.032 87.428
4093.25 0.033 87.392 0.999 -1.871 0.999 -1.871 0.033 87.392
4118.208 0.034 87.355 0.999 -1.931 0.999 -1.931 0.034 87.355
4143.167 0.035 87.317 0.999 -1.991 0.999 -1.991 0.035 87.317
4168.125 0.036 87.278 0.999 -2.05 0.999 -2.05 0.036 87.278
4193.083 0.037 87.238 0.999 -2.109 0.999 -2.109 0.037 87.238
4218.042 0.038 87.197 0.999 -2.167 0.999 -2.167 0.038 87.197
4243 0.039 87.155 0.999 -2.225 0.999 -2.225 0.039 87.155
4267.958 0.04 87.113 0.999 -2.283 0.999 -2.283 0.04 87.113
4292.917 0.041 87.07 0.999 -2.341 0.999 -2.341 0.041 87.07
4317.875 0.042 87.027 0.999 -2.399 0.999 -2.399 0.042 87.027
4342.833 0.043 86.983 0.999 -2.456 0.999 -2.456 0.043 86.983
4367.792 0.044 86.939 0.999 -2.513 0.999 -2.513 0.044 86.939
4392.75 0.045 86.894 0.999 -2.57 0.999 -2.57 0.045 86.894
4417.708 0.046 86.849 0.999 -2.626 0.999 -2.626 0.046 86.849
4442.667 0.047 86.804 0.998 -2.682 0.998 -2.682 0.047 86.804
4467.625 0.048 86.759 0.998 -2.738 0.998 -2.738 0.048 86.759
4492.583 0.049 86.713 0.998 -2.794 0.998 -2.794 0.049 86.713
4517.542 0.05 86.667 0.998 -2.85 0.998 -2.85 0.05 86.667
4542.5 0.051 86.621 0.998 -2.905 0.998 -2.905 0.051 86.621
4567.458 0.052 86.575 0.998 -2.96 0.998 -2.96 0.052 86.575
4592.417 0.053 86.528 0.998 -3.015 0.998 -3.015 0.053 86.528
4617.375 0.054 86.482 0.998 -3.07 0.998 -3.07 0.054 86.482
4642.333 0.054 86.435 0.998 -3.124 0.998 -3.124 0.054 86.435
4667.292 0.055 86.388 0.998 -3.178 0.998 -3.178 0.055 86.388
4692.25 0.056 86.342 0.998 -3.232 0.998 -3.232 0.056 86.342
4717.208 0.057 86.295 0.998 -3.286 0.998 -3.286 0.057 86.295
4742.167 0.058 86.248 0.998 -3.34 0.998 -3.34 0.058 86.248
4767.125 0.059 86.201 0.998 -3.393 0.998 -3.393 0.059 86.201
4792.083 0.06 86.154 0.998 -3.446 0.998 -3.446 0.06 86.154
4817.042 0.061 86.107 0.998 -3.5 0.998 -3.5 0.061 86.107
4842 0.062 86.06 0.998 -3.552 0.998 -3.552 0.062 86.06
4866.958 0.063 86.013 0.998 -3.605 0.998 -3.605 0.063 86.013
4891.917 0.064 85.966 0.998 -3.658 0.998 -3.658 0.064 85.966
4916.875 0.065 85.919 0.997 -3.71 0.997 -3.71 0.065 85.919
4941.833 0.066 85.872 0.997 -3.762 0.997 -3.762 0.066 85.872
4966.792 0.067 85.825 0.997 -3.814 0.997 -3.814 0.067 85.825
4991.75 0.067 85.778 0.997 -3.866 0.997 -3.866 0.067 85.778
5016.708 0.068 85.731 0.997 -3.918 0.997 -3.918 0.068 85.731
5041.667 0.069 85.684 0.997 -3.969 0.997 -3.969 0.069 85.684
5066.625 0.07 85.637 0.997 -4.02 0.997 -4.02 0.07 85.637
5091.583 0.071 85.59 0.997 -4.071 0.997 -4.071 0.071 85.59
5116.542 0.072 85.544 0.997 -4.122 0.997 -4.122 0.072 85.544
5141.5 0.073 85.497 0.997 -4.173 0.997 -4.173 0.073 85.497
5166.458 0.074 85.45 0.997 -4.224 0.997 -4.224 0.074 85.45
5191.417 0.075 85.404 0.997 -4.275 0.997 -4.275 0.075 85.404
5216.375 0.075 85.357 0.997 -4.325 0.997 -4.325 0.075 85.357
5241.333 0.076 85.31 0.997 -4.375 0.997 -4.375 0.076 85.31
5266.292 0.077 85.264 0.997 -4.425 0.997 -4.425 0.077 85.264
5291.25 0.078 85.217 0.997 -4.475 0.997 -4.475 0.078 85.217
5316.208 0.079 85.171 0.996 -4.525 0.996 -4.525 0.079 85.171
5341.167 0.08 85.125 0.996 -4.575 0.996 -4.575 0.08 85.125
5366.125 0.081 85.078 0.996 -4.624 0.996 -4.624 0.081 85.078
5391.083 0.081 85.032 0.996 -4.673 0.996 -4.673 0.081 85.032
5416.042 0.082 84.986 0.996 -4.723 0.996 -4.723 0.082 84.986
5441 0.083 84.94 0.996 -4.772 0.996 -4.772 0.083 84.94
5465.958 0.084 84.894 0.996 -4.821 0.996 -4.821 0.084 84.894
5490.917 0.085 84.848 0.996 -4.87 0.996 -4.87 0.085 84.848
5515.875 0.086 84.802 0.996 -4.918 0.996 -4.918 0.086 84.802
5540.833 0.087 84.756 0.996 -4.967 0.996 -4.967 0.087 84.756
5565.792 0.087 84.71 0.996 -5.015 0.996 -5.015 0.087 84.71
5590.75 0.088 84.665 0.996 -5.064 0.996 -5.064 0.088 84.665
5615.708 0.089 84.619 0.996 -5.112 0.996 -5.112 0.089 84.619
5640.667 0.09 84.573 0.996 -5.16 0.996 -5.16 0.09 84.573
5665.625 0.091 84.528 0.995 -5.208 0.995 -5.208 0.091 84.528
5690.583 0.092 84.482 0.995 -5.256 0.995 -5.256 0.092 84.482
5715.542 0.092 84.437 0.995 -5.304 0.995 -5.304 0.092 84.437
5740.5 0.093 84.392 0.995 -5.351 0.995 -5.351 0.093 84.392
5765.458 0.094 84.347 0.995 -5.399 0.995 -5.399 0.094 84.347
5790.417 0.095 84.301 0.995 -5.446 0.995 -5.446 0.095 84.301
5815.375 0.096 84.256 0.995 -5.494 0.995 -5.494 0.096 84.256
5840.333 0.097 84.211 0.995 -5.541 0.995 -5.541 0.097 84.211
5865.292 0.097 84.166 0.995 -5.588 0.995 -5.588 0.097 84.166
5890.25 0.098 84.121 0.995 -5.635 0.995 -5.635 0.098 84.121
5915.208 0.099 84.076 0.995 -5.682 0.995 -5.682 0.099 84.076
5940.167 0.1 84.032 0.995 -5.728 0.995 -5.728 0.1 84.032
5965.125 0.101 83.987 0.995 -5.775 0.995 -5.775 0.101 83.987
5990.083 0.101 83.942 0.994 -5.822 0.994 -5.822 0.101 83.942
6015.042 0.102 83.898 0.994 -5.868 0.994 -5.868 0.102 83.898
6040 0.103 83.853 0.994 -5.914 0.994 -5.914 0.103 83.853
6064.958 0.104 83.809 0.994 -5.961 0.994 -5.961 0.104 83.809
6089.917 0.105 83.765 0.994 -6.007 0.994 -6.007 0.105 83.765
6114.875 0.105 83.72 0.994 -6.053 0.994 -6.053 0.105 83.72
6139.833 0.106 83.676 0.994 -6.099 0.994 -6.099 0.106 83.676
6164.792 0.107 83.632 0.994 -6.145 0.994 -6.145 0.107 83.632
6189.75 0.108 83.588 0.994 -6.19 0.994 -6.19 0.108 83.588
6214.708 0.109 83.544 0.994 -6.236 0.994 -6.236 0.109 83.544
6239.667 0.109 83.5 0.994 -6.282 0.994 -6.282 0.109 83.5
6264.625 0.11 83.456 0.993 -6.327 0.993 -6.327 0.11 83.456
6289.583 0.111 83.412 0.993 -6.373 0.993 -6.373 0.111 83.412
6314.542 0.112 83.368 0.993 -6.418 0.993 -6.418 0.112 83.368
6339.5 0.113 83.324 0.993 -6.463 0.993 -6.463 0.113 83.324
6364.458 0.113 83.281 0.993 -6.508 0.993 -6.508 0.113 83.281
6389.417 0.114 83.237 0.993 -6.553 0.993 -6.553 0.114 83.237
6414.375 0.115 83.194 0.993 -6.598 0.993 -6.598 0.115 83.194
6439.333 0.116 83.15 0.993 -6.643 0.993 -6.643 0.116 83.15
6464.292 0.116 83.107 0.993 -6.688 0.993 -6.688 0.116 83.107
6489.25 0.117 83.063 0.993 -6.733 0.993 -6.733 0.117 83.063
6514.208 0.118 83.02 0.993 -6.777 0.993 -6.777 0.118 83.02
6539.167 0.119 82.977 0.993 -6.822 0.993 -6.822 0.119 82.977
6564.125 0.12 82.934 0.992 -6.866 0.992 -6.866 0.12 82.934
6589.083 0.12 82.891 0.992 -6.911 0.992 -6.911 0.12 82.891
6614.042 0.121 82.847 0.992 -6.955 0.992 -6.955 0.121 82.847
6639 0.122 82.805 0.992 -6.999 0.992 -6.999 0.122 82.805
6663.958 0.123 82.762 0.992 -7.044 0.992 -7.044 0.123 82.762
6688.917 0.123 82.719 0.992 -7.088 0.992 -7.088 0.123 82.719
6713.875 0.124 82.676 0.992 -7.132 0.992 -7.132 0.124 82.676
6738.833 0.125 82.633 0.992 -7.176 0.992 -7.176 0.125 82.633
6763.792 0.126 82.59 0.992 -7.22 0.992 -7.22 0.126 82.59
6788.75 0.126 82.548 0.992 -7.263 0.992 -7.263 0.126 82.548
6813.708 0.127 82.505 0.991 -7.307 0.991 -7.307 0.127 82.505
6838.667 0.128 82.463 0.991 -7.351 0.991 -7.351 0.128 82.463
6863.625 0.129 82.42 0.991 -7.394 0.991 -7.394 0.129 82.42
6888.583 0.129 82.378 0.991 -7.438 0.991 -7.438 0.129 82.378
6913.542 0.13 82.335 0.991 -7.481 0.991 -7.481 0.13 82.335
6938.5 0.131 82.293 0.991 -7.525 0.991 -7.525 0.131 82.293
6963.458 0.132 82.251 0.991 -7.568 0.991 -7.568 0.132 82.251
6988.417 0.132 82.209 0.991 -7.611 0.991 -7.611 0.132 82.209
7013.375 0.133 82.166 0.991 -7.654 0.991 -7.654 0.133 82.166
7038.333 0.134 82.124 0.991 -7.698 0.991 -7.698 0.134 82.124
7063.292 0.135 82.082 0.99 -7.741 0.99 -7.741 0.135 82.082
7088.25 0.135 82.04 0.99 -7.784 0.99 -7.784 0.135 82.04
7113.208 0.136 81.998 0.99 -7.826 0.99 -7.826 0.136 81.998
7138.167 0.137 81.957 0.99 -7.869 0.99 -7.869 0.137 81.957
7163.125 0.138 81.915 0.99 -7.912 0.99 -7.912 0.138 81.915
7188.083 0.138 81.873 0.99 -7.955 0.99 -7.955 0.138 81.873
7213.042 0.139 81.831 0.99 -7.998 0.99 -7.998 0.139 81.831
7238 0.14 81.79 0.99 -8.04 0.99 -8.04 0.14 81.79
7262.958 0.141 81.748 0.99 -8.083 0.99 -8.083 0.141 81.748
7287.917 0.141 81.706 0.99 -8.125 0.99 -8.125 0.141 81.706
7312.875 0.142 81.665 0.989 -8.168 0.989 -8.168 0.142 81.665
7337.833 0.143 81.623 0.989 -8.21 0.989 -8.21 0.143 81.623
7362.792 0.144 81.582 0.989 -8.252 0.989 -8.252 0.144 81.582
7387.75 0.144 81.54 0.989 -8.294 0.989 -8.294 0.144 81.54
7412.708 0.145 81.499 0.989 -8.337 0.989 -8.337 0.145 81.499
7437.667 0.146 81.458 0.989 -8.379 0.989 -8.379 0.146 81.458
7462.625 0.146 81.417 0.989 -8.421 0.989 -8.421 0.146 81.417
7487.583 0.147 81.375 0.989 -8.463 0.989 -8.463 0.147 81.375
7512.542 0.148 81.334 0.989 -8.505 0.989 -8.505 0.148 81.334
7537.5 0.149 81.293 0.988 -8.547 0.988 -8.547 0.149 81.293
7562.458 0.149 81.252 0.988 -8.588 0.988 -8.588 0.149 81.252
7587.417 0.15 81.211 0.988 -8.63 0.988 -8.63 0.15 81.211
7612.375 0.151 81.17 0.988 -8.672 0.988 -8.672 0.151 81.17
7637.333 0.151 81.129 0.988 -8.714 0.988 -8.714 0.151 81.129
7662.292 0.152 81.088 0.988 -8.755 0.988 -8.755 0.152 81.088
7687.25 0.153 81.048 0.988 -8.797 0.988 -8.797 0.153 81.048
7712.208 0.154 81.007 0.988 -8.838 0.988 -8.838 0.154 81.007
7737.167 0.154 80.966 0.988 -8.88 0.988 -8.88 0.154 80.966
7762.125 0.155 80.925 0.987 -8.921 0.987 -8.921 0.155 80.925
7787.083 0.156 80.885 0.987 -8.963 0.987 -8.963 0.156 80.885
7812.042 0.157 80.844 0.987 -9.004 0.987 -9.004 0.157 80.844
7837 0.157 80.804 0.987 -9.045 0.987 -9.045 0.157 80.804
7861.958 0.158 80.763 0.987 -9.086 0.987 -9.086 0.158 80.763
7886.917 0.159 80.723 0.987 -9.128 0.987 -9.128 0.159 80.723
7911.875 0.159 80.682 0.987 -9.169 0.987 -9.169 0.159 80.682
7936.833 0.16 80.642 0.987 -9.21 0.987 -9.21 0.16 80.642
7961.792 0.161 80.602 0.987 -9.251 0.987 -9.251 0.161 80.602
7986.75 0.161 80.561 0.986 -9.292 0.986 -9.292 0.161 80.561
8011.708 0.162 80.521 0.986 -9.333 0.986 -9.333 0.162 80.521
8036.667 0.163 80.481 0.986 -9.373 0.986 -9.373 0.163 80.481
8061.625 0.164 80.441 0.986 -9.414 0.986 -9.414 0.164 80.441
8086.583 0.164 80.4 0.986 -9.455 0.986 -9.455 0.164 80.4
8111.542 0.165 80.36 0.986 -9.496 0.986 -9.496 0.165 80.36
8136.5 0.166 80.32 0.986 -9.536 0.986 -9.536 0.166 80.32
8161.458 0.166 80.28 0.986 -9.577 0.986 -9.577 0.166 80.28
8186.417 0.167 80.24 0.986 -9.618 0.986 -9.618 0.167 80.24
8211.375 0.168 80.2 0.985 -9.658 0.985 -9.658 0.168 80.2
8236.333 0.168 80.161 0.985 -9.699 0.985 -9.699 0.168 80.161
8261.292 0.169 80.121 0.985 -9.739 0.985 -9.739 0.169 80.121
8286.25 0.17 80.081 0.985 -9.779 0.985 -9.779 0.17 80.081
8311.208 0.171 80.041 0.985 -9.82 0.985 -9.82 0.171 80.041
8336.167 0.171 80.001 0.985 -9.86 0.985 -9.86 0.171 80.001
8361.125 0.172 79.962 0.985 -9.9 0.985 -9.9 0.172 79.962
