# MHZ S MA R 50

50 0.423 -64.965 0.906 25.002 0.906 25.002 0.423 -64.965
74.958 0.296 -72.742 0.955 17.208 0.955 17.208 0.296 -72.742
99.917 0.225 -76.931 0.974 13.002 0.974 13.002 0.225 -76.931
124.875 0.18 -79.529 0.983 10.387 0.983 10.387 0.18 -79.529
149.833 0.15 -81.296 0.988 8.601 0.988 8.601 0.15 -81.296
174.792 0.127 -82.577 0.992 7.302 0.992 7.302 0.127 -82.577
199.75 0.11 -83.549 0.994 6.311 0.994 6.311 0.11 -83.549
224.708 0.096 -84.312 0.995 5.528 0.995 5.528 0.096 -84.312
249.667 0.085 -84.929 0.996 4.89 0.996 4.89 0.085 -84.929
274.625 0.076 -85.439 0.997 4.358 0.997 4.358 0.076 -85.439
299.583 0.068 -85.866 0.997 3.907 0.997 3.907 0.068 -85.866
324.542 0.061 -86.23 0.998 3.518 0.998 3.518 0.061 -86.23
349.5 0.055 -86.544 0.998 3.177 0.998 3.177 0.055 -86.544
374.458 0.05 -86.816 0.998 2.876 0.998 2.876 0.05 -86.816
399.417 0.045 -87.054 0.999 2.606 0.999 2.606 0.045 -87.054
424.375 0.041 -87.263 0.999 2.362 0.999 2.362 0.041 -87.263
449.333 0.037 -87.446 0.999 2.14 0.999 2.14 0.037 -87.446
474.292 0.034 -87.606 0.999 1.937 0.999 1.937 0.034 -87.606
499.25 0.031 -87.745 0.999 1.749 0.999 1.749 0.031 -87.745
524.208 0.027 -87.863 0.999 1.574 0.999 1.574 0.027 -87.863
549.167 0.025 -87.961 0.999 1.411 0.999 1.411 0.025 -87.961
574.125 0.022 -88.037 0.999 1.258 0.999 1.258 0.022 -88.037
599.083 0.019 -88.09 1 1.114 1 1.114 0.019 -88.09
624.042 0.017 -88.116 1 0.978 1 0.978 0.017 -88.116
649 0.015 -88.107 1 0.849 1 0.849 0.015 -88.107
673.958 0.013 -88.053 1 0.725 1 0.725 0.013 -88.053
698.917 0.011 -87.934 1 0.608 1 0.608 0.011 -87.934
723.875 8.639e-3 -87.714 1 0.495 1 0.495 8.639e-3 -87.714
748.833 6.746e-3 -87.32 1 0.386 1 0.386 6.746e-3 -87.32
773.792 4.923e-3 -86.575 1 0.282 1 0.282 4.923e-3 -86.575
798.75 3.166e-3 -84.927 1 0.181 1 0.181 3.166e-3 -84.927
823.708 1.475e-3 -79.368 1 0.083 1 0.083 1.475e-3 -79.368
848.667 337.4e-6 36.842 1 -0.012 1 -0.012 337.4e-6 36.842
873.625 1.827e-3 81.398 1 -0.104 1 -0.104 1.827e-3 81.398
898.583 3.378e-3 85.223 1 -0.193 1 -0.193 3.378e-3 85.223
923.542 4.895e-3 86.559 1 -0.28 1 -0.28 4.895e-3 86.559
948.5 6.377e-3 87.209 1 -0.365 1 -0.365 6.377e-3 87.209
973.458 7.825e-3 87.575 1 -0.448 1 -0.448 7.825e-3 87.575
998.417 9.242e-3 87.797 1 -0.529 1 -0.529 9.242e-3 87.797
1023.375 0.011 87.936 1 -0.609 1 -0.609 0.011 87.936
1048.333 0.012 88.023 1 -0.687 1 -0.687 0.012 88.023
1073.292 0.013 88.076 1 -0.763 1 -0.763 0.013 88.076
1098.25 0.015 88.105 1 -0.839 1 -0.839 0.015 88.105
1123.208 0.016 88.116 1 -0.912 1 -0.912 0.016 88.116
1148.167 0.017 88.115 1 -0.985 1 -0.985 0.017 88.115
1173.125 0.018 88.105 1 -1.057 1 -1.057 0.018 88.105
1198.083 0.02 88.087 1 -1.127 1 -1.127 0.02 88.087
1223.042 0.021 88.063 1 -1.197 1 -1.197 0.021 88.063
1248 0.022 88.034 0.999 -1.266 0.999 -1.266 0.022 88.034
1272.958 0.023 88.002 0.999 -1.333 0.999 -1.333 0.023 88.002
1297.917 0.024 87.967 0.999 -1.4 0.999 -1.4 0.024 87.967
1322.875 0.026 87.929 0.999 -1.467 0.999 -1.467 0.026 87.929
1347.833 0.027 87.889 0.999 -1.532 0.999 -1.532 0.027 87.889
1372.792 0.028 87.848 0.999 -1.597 0.999 -1.597 0.028 87.848
1397.75 0.029 87.805 0.999 -1.661 0.999 -1.661 0.029 87.805
1422.708 0.03 87.761 0.999 -1.725 0.999 -1.725 0.03 87.761
1447.667 0.031 87.717 0.999 -1.788 0.999 -1.788 0.031 87.717
1472.625 0.032 87.671 0.999 -1.85 0.999 -1.85 0.032 87.671
1497.583 0.033 87.625 0.999 -1.912 0.999 -1.912 0.033 87.625
1522.542 0.034 87.578 0.999 -1.974 0.999 -1.974 0.034 87.578
1547.5 0.036 87.53 0.999 -2.034 0.999 -2.034 0.036 87.53
1572.458 0.037 87.482 0.999 -2.095 0.999 -2.095 0.037 87.482
1597.417 0.038 87.434 0.999 -2.155 0.999 -2.155 0.038 87.434
1622.375 0.039 87.385 0.999 -2.215 0.999 -2.215 0.039 87.385
1647.333 0.04 87.337 0.999 -2.274 0.999 -2.274 0.04 87.337
1672.292 0.041 87.288 0.999 -2.333 0.999 -2.333 0.041 87.288
1697.25 0.042 87.238 0.999 -2.391 0.999 -2.391 0.042 87.238
1722.208 0.043 87.189 0.999 -2.449 0.999 -2.449 0.043 87.189
1747.167 0.044 87.14 0.999 -2.507 0.999 -2.507 0.044 87.14
1772.125 0.045 87.09 0.999 -2.565 0.999 -2.565 0.045 87.09
1797.083 0.046 87.04 0.999 -2.622 0.999 -2.622 0.046 87.04
1822.042 0.047 86.991 0.999 -2.679 0.999 -2.679 0.047 86.991
1847 0.048 86.941 0.999 -2.735 0.999 -2.735 0.048 86.941
1871.958 0.049 86.891 0.999 -2.792 0.999 -2.792 0.049 86.891
1896.917 0.05 86.841 0.998 -2.848 0.998 -2.848 0.05 86.841
1921.875 0.051 86.791 0.998 -2.904 0.998 -2.904 0.051 86.791
1946.833 0.052 86.742 0.998 -2.959 0.998 -2.959 0.052 86.742
1971.792 0.053 86.692 0.998 -3.015 0.998 -3.015 0.053 86.692
1996.75 0.054 86.642 0.998 -3.07 0.998 -3.07 0.054 86.642
2021.708 0.055 86.592 0.998 -3.125 0.998 -3.125 0.055 86.592
2046.667 0.055 86.542 0.998 -3.179 0.998 -3.179 0.055 86.542
2071.625 0.056 86.492 0.998 -3.234 0.998 -3.234 0.056 86.492
2096.583 0.057 86.443 0.998 -3.288 0.998 -3.288 0.057 86.443
2121.542 0.058 86.393 0.998 -3.342 0.998 -3.342 0.058 86.393
2146.5 0.059 86.343 0.998 -3.396 0.998 -3.396 0.059 86.343
2171.458 0.06 86.293 0.998 -3.45 0.998 -3.45 0.06 86.293
2196.417 0.061 86.244 0.998 -3.504 0.998 -3.504 0.061 86.244
2221.375 0.062 86.194 0.998 -3.557 0.998 -3.557 0.062 86.194
2246.333 0.063 86.144 0.998 -3.61 0.998 -3.61 0.063 86.144
2271.292 0.064 86.095 0.998 -3.664 0.998 -3.664 0.064 86.095
2296.25 0.065 86.045 0.998 -3.717 0.998 -3.717 0.065 86.045
2321.208 0.066 85.996 0.998 -3.769 0.998 -3.769 0.066 85.996
2346.167 0.067 85.946 0.998 -3.822 0.998 -3.822 0.067 85.946
2371.125 0.068 85.897 0.997 -3.875 0.997 -3.875 0.068 85.897
2396.083 0.068 85.847 0.997 -3.927 0.997 -3.927 0.068 85.847
2421.042 0.069 85.798 0.997 -3.979 0.997 -3.979 0.069 85.798
2446 0.07 85.749 0.997 -4.032 0.997 -4.032 0.07 85.749
2470.958 0.071 85.7 0.997 -4.084 0.997 -4.084 0.071 85.7
2495.917 0.072 85.65 0.997 -4.136 0.997 -4.136 0.072 85.65
2520.875 0.073 85.601 0.997 -4.188 0.997 -4.188 0.073 85.601
2545.833 0.074 85.552 0.997 -4.239 0.997 -4.239 0.074 85.552
2570.792 0.075 85.503 0.997 -4.291 0.997 -4.291 0.075 85.503
2595.75 0.076 85.454 0.997 -4.342 0.997 -4.342 0.076 85.454
2620.708 0.077 85.405 0.997 -4.394 0.997 -4.394 0.077 85.405
2645.667 0.078 85.356 0.997 -4.445 0.997 -4.445 0.078 85.356
2670.625 0.078 85.307 0.997 -4.496 0.997 -4.496 0.078 85.307
2695.583 0.079 85.258 0.997 -4.547 0.997 -4.547 0.079 85.258
2720.542 0.08 85.209 0.997 -4.599 0.997 -4.599 0.08 85.209
2745.5 0.081 85.16 0.996 -4.649 0.996 -4.649 0.081 85.16
2770.458 0.082 85.112 0.996 -4.7 0.996 -4.7 0.082 85.112
2795.417 0.083 85.063 0.996 -4.751 0.996 -4.751 0.083 85.063
2820.375 0.084 85.014 0.996 -4.802 0.996 -4.802 0.084 85.014
2845.333 0.085 84.965 0.996 -4.852 0.996 -4.852 0.085 84.965
2870.292 0.085 84.917 0.996 -4.903 0.996 -4.903 0.085 84.917
2895.25 0.086 84.868 0.996 -4.953 0.996 -4.953 0.086 84.868
2920.208 0.087 84.82 0.996 -5.004 0.996 -5.004 0.087 84.82
2945.167 0.088 84.771 0.996 -5.054 0.996 -5.054 0.088 84.771
2970.125 0.089 84.723 0.996 -5.104 0.996 -5.104 0.089 84.723
2995.083 0.09 84.674 0.996 -5.154 0.996 -5.154 0.09 84.674
3020.042 0.091 84.626 0.996 -5.205 0.996 -5.205 0.091 84.626
3045 0.092 84.577 0.996 -5.255 0.996 -5.255 0.092 84.577
3069.958 0.092 84.529 0.995 -5.304 0.995 -5.304 0.092 84.529
3094.917 0.093 84.481 0.995 -5.354 0.995 -5.354 0.093 84.481
3119.875 0.094 84.432 0.995 -5.404 0.995 -5.404 0.094 84.432
3144.833 0.095 84.384 0.995 -5.454 0.995 -5.454 0.095 84.384
3169.792 0.096 84.336 0.995 -5.504 0.995 -5.504 0.096 84.336
3194.75 0.097 84.288 0.995 -5.553 0.995 -5.553 0.097 84.288
3219.708 0.098 84.239 0.995 -5.603 0.995 -5.603 0.098 84.239
3244.667 0.098 84.191 0.995 -5.652 0.995 -5.652 0.098 84.191
3269.625 0.099 84.143 0.995 -5.702 0.995 -5.702 0.099 84.143
3294.583 0.1 84.095 0.995 -5.751 0.995 -5.751 0.1 84.095
3319.542 0.101 84.047 0.995 -5.801 0.995 -5.801 0.101 84.047
3344.5 0.102 83.999 0.995 -5.85 0.995 -5.85 0.102 83.999
3369.458 0.103 83.951 0.994 -5.899 0.994 -5.899 0.103 83.951
3394.417 0.104 83.903 0.994 -5.948 0.994 -5.948 0.104 83.903
3419.375 0.104 83.855 0.994 -5.998 0.994 -5.998 0.104 83.855
3444.333 0.105 83.807 0.994 -6.047 0.994 -6.047 0.105 83.807
3469.292 0.106 83.759 0.994 -6.096 0.994 -6.096 0.106 83.759
3494.25 0.107 83.712 0.994 -6.145 0.994 -6.145 0.107 83.712
3519.208 0.108 83.664 0.994 -6.194 0.994 -6.194 0.108 83.664
3544.167 0.109 83.616 0.994 -6.242 0.994 -6.242 0.109 83.616
3569.125 0.11 83.568 0.994 -6.291 0.994 -6.291 0.11 83.568
3594.083 0.11 83.521 0.994 -6.34 0.994 -6.34 0.11 83.521
3619.042 0.111 83.473 0.994 -6.389 0.994 -6.389 0.111 83.473
3644 0.112 83.425 0.993 -6.438 0.993 -6.438 0.112 83.425
3668.958 0.113 83.378 0.993 -6.486 0.993 -6.486 0.113 83.378
3693.917 0.114 83.33 0.993 -6.535 0.993 -6.535 0.114 83.33
3718.875 0.115 83.282 0.993 -6.584 0.993 -6.584 0.115 83.282
3743.833 0.115 83.235 0.993 -6.632 0.993 -6.632 0.115 83.235
3768.792 0.116 83.187 0.993 -6.681 0.993 -6.681 0.116 83.187
3793.75 0.117 83.14 0.993 -6.729 0.993 -6.729 0.117 83.14
3818.708 0.118 83.092 0.993 -6.777 0.993 -6.777 0.118 83.092
3843.667 0.119 83.045 0.993 -6.826 0.993 -6.826 0.119 83.045
3868.625 0.12 82.997 0.993 -6.874 0.993 -6.874 0.12 82.997
3893.583 0.121 82.95 0.992 -6.923 0.992 -6.923 0.121 82.95
3918.542 0.121 82.903 0.992 -6.971 0.992 -6.971 0.121 82.903
3943.5 0.122 82.855 0.992 -7.019 0.992 -7.019 0.122 82.855
3968.458 0.123 82.808 0.992 -7.067 0.992 -7.067 0.123 82.808
3993.417 0.124 82.761 0.992 -7.115 0.992 -7.115 0.124 82.761
4018.375 0.125 82.713 0.992 -7.164 0.992 -7.164 0.125 82.713
4043.333 0.126 82.666 0.992 -7.212 0.992 -7.212 0.126 82.666
4068.292 0.126 82.619 0.992 -7.26 0.992 -7.26 0.126 82.619
4093.25 0.127 82.572 0.992 -7.308 0.992 -7.308 0.127 82.572
4118.208 0.128 82.524 0.992 -7.356 0.992 -7.356 0.128 82.524
4143.167 0.129 82.477 0.991 -7.404 0.991 -7.404 0.129 82.477
4168.125 0.13 82.43 0.991 -7.452 0.991 -7.452 0.13 82.43
4193.083 0.131 82.383 0.991 -7.499 0.991 -7.499 0.131 82.383
4218.042 0.131 82.336 0.991 -7.547 0.991 -7.547 0.131 82.336
4243 0.132 82.289 0.991 -7.595 0.991 -7.595 0.132 82.289
4267.958 0.133 82.242 0.991 -7.643 0.991 -7.643 0.133 82.242
4292.917 0.134 82.195 0.991 -7.691 0.991 -7.691 0.134 82.195
4317.875 0.135 82.148 0.991 -7.738 0.991 -7.738 0.135 82.148
4342.833 0.135 82.101 0.991 -7.786 0.991 -7.786 0.135 82.101
4367.792 0.136 82.054 0.99 -7.834 0.99 -7.834 0.136 82.054
4392.75 0.137 82.007 0.99 -7.881 0.99 -7.881 0.137 82.007
4417.708 0.138 81.96 0.99 -7.929 0.99 -7.929 0.138 81.96
4442.667 0.139 81.913 0.99 -7.977 0.99 -7.977 0.139 81.913
4467.625 0.14 81.866 0.99 -8.024 0.99 -8.024 0.14 81.866
4492.583 0.14 81.819 0.99 -8.072 0.99 -8.072 0.14 81.819
4517.542 0.141 81.772 0.99 -8.119 0.99 -8.119 0.141 81.772
4542.5 0.142 81.726 0.99 -8.167 0.99 -8.167 0.142 81.726
4567.458 0.143 81.679 0.989 -8.214 0.989 -8.214 0.143 81.679
4592.417 0.144 81.632 0.989 -8.261 0.989 -8.261 0.144 81.632
4617.375 0.145 81.585 0.989 -8.309 0.989 -8.309 0.145 81.585
4642.333 0.145 81.538 0.989 -8.356 0.989 -8.356 0.145 81.538
4667.292 0.146 81.492 0.989 -8.403 0.989 -8.403 0.146 81.492
4692.25 0.147 81.445 0.989 -8.451 0.989 -8.451 0.147 81.445
4717.208 0.148 81.398 0.989 -8.498 0.989 -8.498 0.148 81.398
4742.167 0.149 81.352 0.989 -8.545 0.989 -8.545 0.149 81.352
4767.125 0.149 81.305 0.989 -8.592 0.989 -8.592 0.149 81.305
4792.083 0.15 81.258 0.988 -8.64 0.988 -8.64 0.15 81.258
4817.042 0.151 81.212 0.988 -8.687 0.988 -8.687 0.151 81.212
4842 0.152 81.165 0.988 -8.734 0.988 -8.734 0.152 81.165
4866.958 0.153 81.119 0.988 -8.781 0.988 -8.781 0.153 81.119
4891.917 0.153 81.072 0.988 -8.828 0.988 -8.828 0.153 81.072
4916.875 0.154 81.026 0.988 -8.875 0.988 -8.875 0.154 81.026
4941.833 0.155 80.979 0.988 -8.922 0.988 -8.922 0.155 80.979
4966.792 0.156 80.933 0.988 -8.969 0.988 -8.969 0.156 80.933
4991.75 0.157 80.886 0.987 -9.016 0.987 -9.016 0.157 80.886
5016.708 0.158 80.84 0.987 -9.063 0.987 -9.063 0.158 80.84
5041.667 0.158 80.793 0.987 -9.11 0.987 -9.11 0.158 80.793
5066.625 0.159 80.747 0.987 -9.157 0.987 -9.157 0.159 80.747
5091.583 0.16 80.701 0.987 -9.204 0.987 -9.204 0.16 80.701
5116.542 0.161 80.654 0.987 -9.251 0.987 -9.251 0.161 80.654
5141.5 0.162 80.608 0.987 -9.297 0.987 -9.297 0.162 80.608
5166.458 0.162 80.562 0.986 -9.344 0.986 -9.344 0.162 80.562
5191.417 0.163 80.515 0.986 -9.391 0.986 -9.391 0.163 80.515
5216.375 0.164 80.469 0.986 -9.438 0.986 -9.438 0.164 80.469
5241.333 0.165 80.423 0.986 -9.485 0.986 -9.485 0.165 80.423
5266.292 0.166 80.377 0.986 -9.531 0.986 -9.531 0.166 80.377
5291.25 0.166 80.33 0.986 -9.578 0.986 -9.578 0.166 80.33
5316.208 0.167 80.284 0.986 -9.625 0.986 -9.625 0.167 80.284
5341.167 0.168 80.238 0.986 -9.671 0.986 -9.671 0.168 80.238
5366.125 0.169 80.192 0.985 -9.718 0.985 -9.718 0.169 80.192
5391.083 0.17 80.146 0.985 -9.764 0.985 -9.764 0.17 80.146
5416.042 0.17 80.1 0.985 -9.811 0.985 -9.811 0.17 80.1
5441 0.171 80.053 0.985 -9.857 0.985 -9.857 0.171 80.053
5465.958 0.172 80.007 0.985 -9.904 0.985 -9.904 0.172 80.007
5490.917 0.173 79.961 0.985 -9.95 0.985 -9.95 0.173 79.961
5515.875 0.174 79.915 0.985 -9.997 0.985 -9.997 0.174 79.915
5540.833 0.174 79.869 0.984 -10.043 0.984 -10.043 0.174 79.869
5565.792 0.175 79.823 0.984 -10.09 0.984 -10.09 0.175 79.823
5590.75 0.176 79.777 0.984 -10.136 0.984 -10.136 0.176 79.777
5615.708 0.177 79.731 0.984 -10.183 0.984 -10.183 0.177 79.731
5640.667 0.178 79.685 0.984 -10.229 0.984 -10.229 0.178 79.685
5665.625 0.178 79.639 0.984 -10.275 0.984 -10.275 0.178 79.639
5690.583 0.179 79.593 0.984 -10.322 0.984 -10.322 0.179 79.593
5715.542 0.18 79.548 0.983 -10.368 0.983 -10.368 0.18 79.548
5740.5 0.181 79.502 0.983 -10.414 0.983 -10.414 0.181 79.502
5765.458 0.182 79.456 0.983 -10.46 0.983 -10.46 0.182 79.456
5790.417 0.182 79.41 0.983 -10.507 0.983 -10.507 0.182 79.41
5815.375 0.183 79.364 0.983 -10.553 0.983 -10.553 0.183 79.364
5840.333 0.184 79.318 0.983 -10.599 0.983 -10.599 0.184 79.318
5865.292 0.185 79.273 0.983 -10.645 0.983 -10.645 0.185 79.273
5890.25 0.186 79.227 0.982 -10.691 0.982 -10.691 0.186 79.227
5915.208 0.186 79.181 0.982 -10.737 0.982 -10.737 0.186 79.181
5940.167 0.187 79.135 0.982 -10.783 0.982 -10.783 0.187 79.135
5965.125 0.188 79.09 0.982 -10.829 0.982 -10.829 0.188 79.09
5990.083 0.189 79.044 0.982 -10.876 0.982 -10.876 0.189 79.044
6015.042 0.189 78.998 0.982 -10.922 0.982 -10.922 0.189 78.998
6040 0.19 78.953 0.981 -10.968 0.981 -10.968 0.19 78.953
6064.958 0.191 78.907 0.981 -11.014 0.981 -11.014 0.191 78.907
6089.917 0.192 78.861 0.981 -11.059 0.981 -11.059 0.192 78.861
6114.875 0.193 78.816 0.981 -11.105 0.981 -11.105 0.193 78.816
6139.833 0.193 78.77 0.981 -11.151 0.981 -11.151 0.193 78.77
6164.792 0.194 78.725 0.981 -11.197 0.981 -11.197 0.194 78.725
6189.75 0.195 78.679 0.981 -11.243 0.981 -11.243 0.195 78.679
6214.708 0.196 78.634 0.98 -11.289 0.98 -11.289 0.196 78.634
6239.667 0.197 78.588 0.98 -11.335 0.98 -11.335 0.197 78.588
6264.625 0.197 78.543 0.98 -11.381 0.98 -11.381 0.197 78.543
6289.583 0.198 78.497 0.98 -11.426 0.98 -11.426 0.198 78.497
6314.542 0.199 78.452 0.98 -11.472 0.98 -11.472 0.199 78.452
6339.5 0.2 78.406 0.98 -11.518 0.98 -11.518 0.2 78.406
6364.458 0.2 78.361 0.979 -11.564 0.979 -11.564 0.2 78.361
6389.417 0.201 78.315 0.979 -11.609 0.979 -11.609 0.201 78.315
6414.375 0.202 78.27 0.979 -11.655 0.979 -11.655 0.202 78.27
6439.333 0.203 78.225 0.979 -11.701 0.979 -11.701 0.203 78.225
6464.292 0.204 78.179 0.979 -11.746 0.979 -11.746 0.204 78.179
6489.25 0.204 78.134 0.979 -11.792 0.979 -11.792 0.204 78.134
6514.208 0.205 78.089 0.978 -11.837 0.978 -11.837 0.205 78.089
6539.167 0.206 78.043 0.978 -11.883 0.978 -11.883 0.206 78.043
6564.125 0.207 77.998 0.978 -11.929 0.978 -11.929 0.207 77.998
6589.083 0.207 77.953 0.978 -11.974 0.978 -11.974 0.207 77.953
6614.042 0.208 77.908 0.978 -12.02 0.978 -12.02 0.208 77.908
6639 0.209 77.862 0.978 -12.065 0.978 -12.065 0.209 77.862
6663.958 0.21 77.817 0.977 -12.111 0.977 -12.111 0.21 77.817
6688.917 0.211 77.772 0.977 -12.156 0.977 -12.156 0.211 77.772
6713.875 0.211 77.727 0.977 -12.201 0.977 -12.201 0.211 77.727
6738.833 0.212 77.682 0.977 -12.247 0.977 -12.247 0.212 77.682
6763.792 0.213 77.637 0.977 -12.292 0.977 -12.292 0.213 77.637
6788.75 0.214 77.592 0.977 -12.338 0.977 -12.338 0.214 77.592
6813.708 0.214 77.547 0.976 -12.383 0.976 -12.383 0.214 77.547
6838.667 0.215 77.501 0.976 -12.428 0.976 -12.428 0.215 77.501
6863.625 0.216 77.456 0.976 -12.474 0.976 -12.474 0.216 77.456
6888.583 0.217 77.411 0.976 -12.519 0.976 -12.519 0.217 77.411
6913.542 0.218 77.366 0.976 -12.564 0.976 -12.564 0.218 77.366
6938.5 0.218 77.321 0.976 -12.609 0.976 -12.609 0.218 77.321
6963.458 0.219 77.276 0.975 -12.655 0.975 -12.655 0.219 77.276
6988.417 0.22 77.232 0.975 -12.7 0.975 -12.7 0.22 77.232
7013.375 0.221 77.187 0.975 -12.745 0.975 -12.745 0.221 77.187
7038.333 0.221 77.142 0.975 -12.79 0.975 -12.79 0.221 77.142
7063.292 0.222 77.097 0.975 -12.835 0.975 -12.835 0.222 77.097
7088.25 0.223 77.052 0.975 -12.88 0.975 -12.88 0.223 77.052
7113.208 0.224 77.007 0.974 -12.925 0.974 -12.925 0.224 77.007
7138.167 0.224 76.962 0.974 -12.971 0.974 -12.971 0.224 76.962
7163.125 0.225 76.917 0.974 -13.016 0.974 -13.016 0.225 76.917
7188.083 0.226 76.873 0.974 -13.061 0.974 -13.061 0.226 76.873
7213.042 0.227 76.828 0.974 -13.106 0.974 -13.106 0.227 76.828
7238 0.228 76.783 0.974 -13.151 0.974 -13.151 0.228 76.783
7262.958 0.228 76.738 0.973 -13.196 0.973 -13.196 0.228 76.738
7287.917 0.229 76.694 0.973 -13.241 0.973 -13.241 0.229 76.694
7312.875 0.23 76.649 0.973 -13.286 0.973 -13.286 0.23 76.649
7337.833 0.231 76.604 0.973 -13.33 0.973 -13.33 0.231 76.604
7362.792 0.231 76.56 0.973 -13.375 0.973 -13.375 0.231 76.56
7387.75 0.232 76.515 0.972 -13.42 0.972 -13.42 0.232 76.515
7412.708 0.233 76.47 0.972 -13.465 0.972 -13.465 0.233 76.47
7437.667 0.234 76.426 0.972 -13.51 0.972 -13.51 0.234 76.426
7462.625 0.234 76.381 0.972 -13.555 0.972 -13.555 0.234 76.381
7487.583 0.235 76.337 0.972 -13.599 0.972 -13.599 0.235 76.337
7512.542 0.236 76.292 0.972 -13.644 0.972 -13.644 0.236 76.292
7537.5 0.237 76.247 0.971 -13.689 0.971 -13.689 0.237 76.247
7562.458 0.237 76.203 0.971 -13.734 0.971 -13.734 0.237 76.203
7587.417 0.238 76.158 0.971 -13.778 0.971 -13.778 0.238 76.158
7612.375 0.239 76.114 0.971 -13.823 0.971 -13.823 0.239 76.114
7637.333 0.24 76.07 0.971 -13.868 0.971 -13.868 0.24 76.07
7662.292 0.24 76.025 0.97 -13.912 0.97 -13.912 0.24 76.025
7687.25 0.241 75.981 0.97 -13.957 0.97 -13.957 0.241 75.981
7712.208 0.242 75.936 0.97 -14.002 0.97 -14.002 0.242 75.936
7737.167 0.243 75.892 0.97 -14.046 0.97 -14.046 0.243 75.892
7762.125 0.243 75.848 0.97 -14.091 0.97 -14.091 0.243 75.848
7787.083 0.244 75.803 0.969 -14.135 0.969 -14.135 0.244 75.803
7812.042 0.245 75.759 0.969 -14.18 0.969 -14.18 0.245 75.759
7837 0.246 75.715 0.969 -14.224 0.969 -14.224 0.246 75.715
7861.958 0.246 75.67 0.969 -14.269 0.969 -14.269 0.246 75.67
7886.917 0.247 75.626 0.969 -14.313 0.969 -14.313 0.247 75.626
7911.875 0.248 75.582 0.969 -14.358 0.969 -14.358 0.248 75.582
7936.833 0.249 75.538 0.968 -14.402 0.968 -14.402 0.249 75.538
7961.792 0.249 75.493 0.968 -14.446 0.968 -14.446 0.249 75.493
7986.75 0.25 75.449 0.968 -14.491 0.968 -14.491 0.25 75.449
8011.708 0.251 75.405 0.968 -14.535 0.968 -14.535 0.251 75.405
8036.667 0.252 75.361 0.968 -14.579 0.968 -14.579 0.252 75.361
8061.625 0.252 75.317 0.967 -14.624 0.967 -14.624 0.252 75.317
8086.583 0.253 75.273 0.967 -14.668 0.967 -14.668 0.253 75.273
8111.542 0.254 75.229 0.967 -14.712 0.967 -14.712 0.254 75.229
8136.5 0.255 75.185 0.967 -14.757 0.967 -14.757 0.255 75.185
8161.458 0.255 75.141 0.967 -14.801 0.967 -14.801 0.255 75.141
8186.417 0.256 75.097 0.966 -14.845 0.966 -14.845 0.256 75.097
8211.375 0.257 75.053 0.966 -14.889 0.966 -14.889 0.257 75.053
8236.333 0.258 75.009 0.966 -14.933 0.966 -14.933 0.258 75.009
8261.292 0.258 74.965 0.966 -14.977 0.966 -14.977 0.258 74.965
8286.25 0.259 74.921 0.966 -15.022 0.966 -15.022 0.259 74.921
8311.208 0.26 74.877 0.965 -15.066 0.965 -15.066 0.26 74.877
