# MHZ S MA R 50

50 0.882 -28.118 0.471 61.868 0.471 61.868 0.882 -28.118
74.958 0.78 -38.716 0.625 51.263 0.625 51.263 0.78 -38.716
99.917 0.683 -46.924 0.73 43.048 0.73 43.048 0.683 -46.924
124.875 0.598 -53.232 0.801 36.733 0.801 36.733 0.598 -53.232
149.833 0.527 -58.124 0.849 31.833 0.849 31.833 0.527 -58.124
174.792 0.469 -61.981 0.883 27.97 0.883 27.97 0.469 -61.981
199.75 0.421 -65.075 0.907 24.869 0.907 24.869 0.421 -65.075
224.708 0.38 -67.6 0.925 22.336 0.925 22.336 0.38 -67.6
249.667 0.346 -69.694 0.938 20.235 0.938 20.235 0.346 -69.694
274.625 0.317 -71.455 0.948 18.466 0.948 18.466 0.317 -71.455
299.583 0.292 -72.956 0.956 16.958 0.956 16.958 0.292 -72.956
324.542 0.27 -74.248 0.962 15.657 0.962 15.657 0.27 -74.248
349.5 0.251 -75.374 0.968 14.525 0.968 14.525 0.251 -75.374
374.458 0.234 -76.362 0.972 13.529 0.972 13.529 0.234 -76.362
399.417 0.219 -77.236 0.975 12.646 0.975 12.646 0.219 -77.236
424.375 0.205 -78.016 0.978 11.859 0.978 11.859 0.205 -78.016
449.333 0.193 -78.716 0.981 11.151 0.981 11.151 0.193 -78.716
474.292 0.182 -79.347 0.983 10.511 0.983 10.511 0.182 -79.347
499.25 0.172 -79.92 0.985 9.929 0.985 9.929 0.172 -79.92
524.208 0.163 -80.443 0.986 9.398 0.986 9.398 0.163 -80.443
549.167 0.155 -80.922 0.987 8.91 0.987 8.91 0.155 -80.922
574.125 0.147 -81.362 0.989 8.461 0.989 8.461 0.147 -81.362
599.083 0.14 -81.769 0.99 8.045 0.99 8.045 0.14 -81.769
624.042 0.133 -82.145 0.991 7.659 0.991 7.659 0.133 -82.145
649 0.127 -82.495 0.991 7.299 0.991 7.299 0.127 -82.495
673.958 0.121 -82.821 0.992 6.963 0.992 6.963 0.121 -82.821
698.917 0.116 -83.126 0.993 6.648 0.993 6.648 0.116 -83.126
723.875 0.111 -83.411 0.993 6.352 0.993 6.352 0.111 -83.411
748.833 0.106 -83.68 0.994 6.073 0.994 6.073 0.106 -83.68
773.792 0.101 -83.932 0.994 5.809 0.994 5.809 0.101 -83.932
798.75 0.097 -84.17 0.995 5.56 0.995 5.56 0.097 -84.17
823.708 0.093 -84.394 0.995 5.323 0.995 5.323 0.093 -84.394
848.667 0.089 -84.607 0.996 5.098 0.996 5.098 0.089 -84.607
873.625 0.085 -84.808 0.996 4.884 0.996 4.884 0.085 -84.808
898.583 0.082 -84.999 0.996 4.679 0.996 4.679 0.082 -84.999
923.542 0.078 -85.18 0.996 4.484 0.996 4.484 0.078 -85.18
948.5 0.075 -85.353 0.997 4.296 0.997 4.296 0.075 -85.353
973.458 0.072 -85.517 0.997 4.117 0.997 4.117 0.072 -85.517
998.417 0.069 -85.673 0.997 3.945 0.997 3.945 0.069 -85.673
1023.375 0.066 -85.822 0.997 3.779 0.997 3.779 0.066 -85.822
1048.333 0.063 -85.964 0.998 3.62 0.998 3.62 0.063 -85.964
1073.292 0.06 -86.099 0.998 3.466 0.998 3.466 0.06 -86.099
1098.25 0.058 -86.228 0.998 3.317 0.998 3.317 0.058 -86.228
1123.208 0.055 -86.351 0.998 3.174 0.998 3.174 0.055 -86.351
1148.167 0.053 -86.468 0.998 3.035 0.998 3.035 0.053 -86.468
1173.125 0.051 -86.579 0.998 2.9 0.998 2.9 0.051 -86.579
1198.083 0.048 -86.685 0.998 2.77 0.998 2.77 0.048 -86.685
1223.042 0.046 -86.786 0.998 2.644 0.998 2.644 0.046 -86.786
1248 0.044 -86.881 0.999 2.521 0.999 2.521 0.044 -86.881
1272.958 0.042 -86.97 0.999 2.401 0.999 2.401 0.042 -86.97
1297.917 0.04 -87.055 0.999 2.285 0.999 2.285 0.04 -87.055
1322.875 0.038 -87.133 0.999 2.172 0.999 2.172 0.038 -87.133
1347.833 0.036 -87.207 0.999 2.061 0.999 2.061 0.036 -87.207
1372.792 0.034 -87.274 0.999 1.954 0.999 1.954 0.034 -87.274
1397.75 0.032 -87.335 0.999 1.849 0.999 1.849 0.032 -87.335
1422.708 0.03 -87.39 0.999 1.746 0.999 1.746 0.03 -87.39
1447.667 0.029 -87.437 0.999 1.646 0.999 1.646 0.029 -87.437
1472.625 0.027 -87.477 0.999 1.547 0.999 1.547 0.027 -87.477
1497.583 0.025 -87.509 0.999 1.451 0.999 1.451 0.025 -87.509
1522.542 0.024 -87.531 0.999 1.357 0.999 1.357 0.024 -87.531
1547.5 0.022 -87.542 0.999 1.265 0.999 1.265 0.022 -87.542
1572.458 0.021 -87.54 0.999 1.175 0.999 1.175 0.021 -87.54
1597.417 0.019 -87.524 0.999 1.086 0.999 1.086 0.019 -87.524
1622.375 0.017 -87.49 0.999 0.999 0.999 0.999 0.017 -87.49
1647.333 0.016 -87.434 0.999 0.913 0.999 0.913 0.016 -87.434
1672.292 0.014 -87.351 0.999 0.829 0.999 0.829 0.014 -87.351
1697.25 0.013 -87.232 0.999 0.747 0.999 0.747 0.013 -87.232
1722.208 0.012 -87.067 0.999 0.665 0.999 0.665 0.012 -87.067
1747.167 0.01 -86.837 0.999 0.585 0.999 0.585 0.01 -86.837
1772.125 8.855e-3 -86.517 1 0.507 1 0.507 8.855e-3 -86.517
1797.083 7.505e-3 -86.058 1 0.429 1 0.429 7.505e-3 -86.058
1822.042 6.176e-3 -85.377 1 0.353 1 0.353 6.176e-3 -85.377
1847 4.867e-3 -84.301 1 0.278 1 0.278 4.867e-3 -84.301
1871.958 3.581e-3 -82.418 1 0.203 1 0.203 3.581e-3 -82.418
1896.917 2.32e-3 -78.438 1 0.13 1 0.13 2.32e-3 -78.438
1921.875 1.114e-3 -65.556 1 0.058 1 0.058 1.114e-3 -65.556
1946.833 513.7e-6 26.448 1 -0.013 1 -0.013 513.7e-6 26.448
1971.792 1.527e-3 72.393 1 -0.083 1 -0.083 1.527e-3 72.393
1996.75 2.708e-3 80.07 1 -0.153 1 -0.153 2.708e-3 80.07
2021.708 3.894e-3 82.996 1 -0.222 1 -0.222 3.894e-3 82.996
2046.667 5.071e-3 84.507 1 -0.289 1 -0.289 5.071e-3 84.507
2071.625 6.237e-3 85.415 1 -0.356 1 -0.356 6.237e-3 85.415
2096.583 7.391e-3 86.01 1 -0.423 1 -0.423 7.391e-3 86.01
2121.542 8.533e-3 86.423 1 -0.488 1 -0.488 8.533e-3 86.423
2146.5 9.664e-3 86.719 0.999 -0.553 0.999 -0.553 9.664e-3 86.719
2171.458 0.011 86.938 0.999 -0.617 0.999 -0.617 0.011 86.938
2196.417 0.012 87.103 0.999 -0.681 0.999 -0.681 0.012 87.103
2221.375 0.013 87.227 0.999 -0.744 0.999 -0.744 0.013 87.227
2246.333 0.014 87.322 0.999 -0.806 0.999 -0.806 0.014 87.322
2271.292 0.015 87.393 0.999 -0.868 0.999 -0.868 0.015 87.393
2296.25 0.016 87.446 0.999 -0.929 0.999 -0.929 0.016 87.446
2321.208 0.017 87.485 0.999 -0.989 0.999 -0.989 0.017 87.485
2346.167 0.018 87.512 0.999 -1.049 0.999 -1.049 0.018 87.512
2371.125 0.019 87.53 0.999 -1.109 0.999 -1.109 0.019 87.53
2396.083 0.02 87.54 0.999 -1.168 0.999 -1.168 0.02 87.54
2421.042 0.021 87.543 0.999 -1.226 0.999 -1.226 0.021 87.543
2446 0.022 87.541 0.999 -1.284 0.999 -1.284 0.022 87.541
2470.958 0.023 87.533 0.999 -1.342 0.999 -1.342 0.023 87.533
2495.917 0.024 87.522 0.999 -1.399 0.999 -1.399 0.024 87.522
2520.875 0.025 87.507 0.999 -1.456 0.999 -1.456 0.025 87.507
2545.833 0.026 87.49 0.999 -1.512 0.999 -1.512 0.026 87.49
2570.792 0.027 87.469 0.999 -1.568 0.999 -1.568 0.027 87.469
2595.75 0.028 87.447 0.999 -1.623 0.999 -1.623 0.028 87.447
2620.708 0.029 87.422 0.999 -1.679 0.999 -1.679 0.029 87.422
2645.667 0.03 87.396 0.999 -1.733 0.999 -1.733 0.03 87.396
2670.625 0.031 87.368 0.999 -1.788 0.999 -1.788 0.031 87.368
2695.583 0.032 87.339 0.999 -1.842 0.999 -1.842 0.032 87.339
2720.542 0.033 87.308 0.999 -1.895 0.999 -1.895 0.033 87.308
2745.5 0.034 87.277 0.999 -1.949 0.999 -1.949 0.034 87.277
2770.458 0.035 87.244 0.999 -2.002 0.999 -2.002 0.035 87.244
2795.417 0.036 87.211 0.999 -2.054 0.999 -2.054 0.036 87.211
2820.375 0.037 87.177 0.999 -2.107 0.999 -2.107 0.037 87.177
2845.333 0.038 87.142 0.999 -2.159 0.999 -2.159 0.038 87.142
2870.292 0.039 87.107 0.999 -2.211 0.999 -2.211 0.039 87.107
2895.25 0.039 87.071 0.999 -2.262 0.999 -2.262 0.039 87.071
2920.208 0.04 87.034 0.999 -2.313 0.999 -2.313 0.04 87.034
2945.167 0.041 86.998 0.999 -2.364 0.999 -2.364 0.041 86.998
2970.125 0.042 86.96 0.999 -2.415 0.999 -2.415 0.042 86.96
2995.083 0.043 86.923 0.999 -2.465 0.999 -2.465 0.043 86.923
3020.042 0.044 86.885 0.999 -2.516 0.999 -2.516 0.044 86.885
3045 0.045 86.846 0.999 -2.565 0.999 -2.565 0.045 86.846
3069.958 0.046 86.808 0.998 -2.615 0.998 -2.615 0.046 86.808
3094.917 0.046 86.769 0.998 -2.665 0.998 -2.665 0.046 86.769
3119.875 0.047 86.73 0.998 -2.714 0.998 -2.714 0.047 86.73
3144.833 0.048 86.691 0.998 -2.763 0.998 -2.763 0.048 86.691
3169.792 0.049 86.652 0.998 -2.812 0.998 -2.812 0.049 86.652
3194.75 0.05 86.612 0.998 -2.86 0.998 -2.86 0.05 86.612
3219.708 0.051 86.573 0.998 -2.909 0.998 -2.909 0.051 86.573
3244.667 0.052 86.533 0.998 -2.957 0.998 -2.957 0.052 86.533
3269.625 0.052 86.493 0.998 -3.005 0.998 -3.005 0.052 86.493
3294.583 0.053 86.453 0.998 -3.052 0.998 -3.052 0.053 86.453
3319.542 0.054 86.413 0.998 -3.1 0.998 -3.1 0.054 86.413
3344.5 0.055 86.373 0.998 -3.147 0.998 -3.147 0.055 86.373
3369.458 0.056 86.333 0.998 -3.195 0.998 -3.195 0.056 86.333
3394.417 0.057 86.293 0.998 -3.242 0.998 -3.242 0.057 86.293
3419.375 0.057 86.253 0.998 -3.288 0.998 -3.288 0.057 86.253
3444.333 0.058 86.213 0.998 -3.335 0.998 -3.335 0.058 86.213
3469.292 0.059 86.172 0.998 -3.382 0.998 -3.382 0.059 86.172
3494.25 0.06 86.132 0.998 -3.428 0.998 -3.428 0.06 86.132
3519.208 0.061 86.092 0.998 -3.474 0.998 -3.474 0.061 86.092
3544.167 0.061 86.051 0.998 -3.52 0.998 -3.52 0.061 86.051
3569.125 0.062 86.011 0.998 -3.566 0.998 -3.566 0.062 86.011
3594.083 0.063 85.971 0.998 -3.612 0.998 -3.612 0.063 85.971
3619.042 0.064 85.93 0.998 -3.657 0.998 -3.657 0.064 85.93
3644 0.065 85.89 0.997 -3.703 0.997 -3.703 0.065 85.89
3668.958 0.065 85.85 0.997 -3.748 0.997 -3.748 0.065 85.85
3693.917 0.066 85.809 0.997 -3.793 0.997 -3.793 0.066 85.809
3718.875 0.067 85.769 0.997 -3.838 0.997 -3.838 0.067 85.769
3743.833 0.068 85.729 0.997 -3.883 0.997 -3.883 0.068 85.729
3768.792 0.069 85.688 0.997 -3.928 0.997 -3.928 0.069 85.688
3793.75 0.069 85.648 0.997 -3.973 0.997 -3.973 0.069 85.648
3818.708 0.07 85.608 0.997 -4.017 0.997 -4.017 0.07 85.608
3843.667 0.071 85.567 0.997 -4.061 0.997 -4.061 0.071 85.567
3868.625 0.072 85.527 0.997 -4.106 0.997 -4.106 0.072 85.527
3893.583 0.072 85.487 0.997 -4.15 0.997 -4.15 0.072 85.487
3918.542 0.073 85.447 0.997 -4.194 0.997 -4.194 0.073 85.447
3943.5 0.074 85.407 0.997 -4.238 0.997 -4.238 0.074 85.407
3968.458 0.075 85.367 0.997 -4.282 0.997 -4.282 0.075 85.367
3993.417 0.075 85.326 0.997 -4.325 0.997 -4.325 0.075 85.326
4018.375 0.076 85.286 0.997 -4.369 0.997 -4.369 0.076 85.286
4043.333 0.077 85.246 0.997 -4.412 0.997 -4.412 0.077 85.246
4068.292 0.078 85.206 0.997 -4.456 0.997 -4.456 0.078 85.206
4093.25 0.078 85.166 0.996 -4.499 0.996 -4.499 0.078 85.166
4118.208 0.079 85.126 0.996 -4.542 0.996 -4.542 0.079 85.126
4143.167 0.08 85.086 0.996 -4.585 0.996 -4.585 0.08 85.086
4168.125 0.081 85.047 0.996 -4.628 0.996 -4.628 0.081 85.047
4193.083 0.081 85.007 0.996 -4.671 0.996 -4.671 0.081 85.007
4218.042 0.082 84.967 0.996 -4.714 0.996 -4.714 0.082 84.967
4243 0.083 84.927 0.996 -4.756 0.996 -4.756 0.083 84.927
4267.958 0.084 84.887 0.996 -4.799 0.996 -4.799 0.084 84.887
4292.917 0.084 84.848 0.996 -4.841 0.996 -4.841 0.084 84.848
4317.875 0.085 84.808 0.996 -4.884 0.996 -4.884 0.085 84.808
4342.833 0.086 84.768 0.996 -4.926 0.996 -4.926 0.086 84.768
4367.792 0.087 84.729 0.996 -4.968 0.996 -4.968 0.087 84.729
4392.75 0.087 84.689 0.996 -5.01 0.996 -5.01 0.087 84.689
4417.708 0.088 84.65 0.996 -5.052 0.996 -5.052 0.088 84.65
4442.667 0.089 84.61 0.996 -5.094 0.996 -5.094 0.089 84.61
4467.625 0.09 84.571 0.996 -5.136 0.996 -5.136 0.09 84.571
4492.583 0.09 84.531 0.995 -5.178 0.995 -5.178 0.09 84.531
4517.542 0.091 84.492 0.995 -5.22 0.995 -5.22 0.091 84.492
4542.5 0.092 84.453 0.995 -5.261 0.995 -5.261 0.092 84.453
4567.458 0.092 84.413 0.995 -5.303 0.995 -5.303 0.092 84.413
4592.417 0.093 84.374 0.995 -5.344 0.995 -5.344 0.093 84.374
4617.375 0.094 84.335 0.995 -5.386 0.995 -5.386 0.094 84.335
4642.333 0.095 84.295 0.995 -5.427 0.995 -5.427 0.095 84.295
4667.292 0.095 84.256 0.995 -5.468 0.995 -5.468 0.095 84.256
4692.25 0.096 84.217 0.995 -5.51 0.995 -5.51 0.096 84.217
4717.208 0.097 84.178 0.995 -5.551 0.995 -5.551 0.097 84.178
4742.167 0.097 84.139 0.995 -5.592 0.995 -5.592 0.097 84.139
4767.125 0.098 84.1 0.995 -5.633 0.995 -5.633 0.098 84.1
4792.083 0.099 84.061 0.995 -5.674 0.995 -5.674 0.099 84.061
4817.042 0.1 84.022 0.995 -5.715 0.995 -5.715 0.1 84.022
4842 0.1 83.983 0.995 -5.755 0.995 -5.755 0.1 83.983
4866.958 0.101 83.944 0.994 -5.796 0.994 -5.796 0.101 83.944
4891.917 0.102 83.905 0.994 -5.837 0.994 -5.837 0.102 83.905
4916.875 0.102 83.867 0.994 -5.877 0.994 -5.877 0.102 83.867
4941.833 0.103 83.828 0.994 -5.918 0.994 -5.918 0.103 83.828
4966.792 0.104 83.789 0.994 -5.958 0.994 -5.958 0.104 83.789
4991.75 0.105 83.75 0.994 -5.999 0.994 -5.999 0.105 83.75
5016.708 0.105 83.712 0.994 -6.039 0.994 -6.039 0.105 83.712
5041.667 0.106 83.673 0.994 -6.08 0.994 -6.08 0.106 83.673
5066.625 0.107 83.634 0.994 -6.12 0.994 -6.12 0.107 83.634
5091.583 0.107 83.596 0.994 -6.16 0.994 -6.16 0.107 83.596
5116.542 0.108 83.557 0.994 -6.2 0.994 -6.2 0.108 83.557
5141.5 0.109 83.519 0.994 -6.24 0.994 -6.24 0.109 83.519
5166.458 0.109 83.48 0.994 -6.28 0.994 -6.28 0.109 83.48
5191.417 0.11 83.442 0.993 -6.32 0.993 -6.32 0.11 83.442
5216.375 0.111 83.403 0.993 -6.36 0.993 -6.36 0.111 83.403
5241.333 0.111 83.365 0.993 -6.4 0.993 -6.4 0.111 83.365
5266.292 0.112 83.327 0.993 -6.44 0.993 -6.44 0.112 83.327
5291.25 0.113 83.288 0.993 -6.48 0.993 -6.48 0.113 83.288
5316.208 0.114 83.25 0.993 -6.519 0.993 -6.519 0.114 83.25
5341.167 0.114 83.212 0.993 -6.559 0.993 -6.559 0.114 83.212
5366.125 0.115 83.174 0.993 -6.599 0.993 -6.599 0.115 83.174
5391.083 0.116 83.135 0.993 -6.638 0.993 -6.638 0.116 83.135
5416.042 0.116 83.097 0.993 -6.678 0.993 -6.678 0.116 83.097
5441 0.117 83.059 0.993 -6.717 0.993 -6.717 0.117 83.059
5465.958 0.118 83.021 0.993 -6.757 0.993 -6.757 0.118 83.021
5490.917 0.118 82.983 0.993 -6.796 0.993 -6.796 0.118 82.983
5515.875 0.119 82.945 0.992 -6.835 0.992 -6.835 0.119 82.945
5540.833 0.12 82.907 0.992 -6.875 0.992 -6.875 0.12 82.907
5565.792 0.12 82.869 0.992 -6.914 0.992 -6.914 0.12 82.869
5590.75 0.121 82.831 0.992 -6.953 0.992 -6.953 0.121 82.831
5615.708 0.122 82.793 0.992 -6.992 0.992 -6.992 0.122 82.793
5640.667 0.122 82.755 0.992 -7.031 0.992 -7.031 0.122 82.755
5665.625 0.123 82.717 0.992 -7.07 0.992 -7.07 0.123 82.717
5690.583 0.124 82.679 0.992 -7.109 0.992 -7.109 0.124 82.679
5715.542 0.124 82.642 0.992 -7.148 0.992 -7.148 0.124 82.642
5740.5 0.125 82.604 0.992 -7.187 0.992 -7.187 0.125 82.604
5765.458 0.126 82.566 0.992 -7.226 0.992 -7.226 0.126 82.566
5790.417 0.126 82.528 0.992 -7.265 0.992 -7.265 0.126 82.528
5815.375 0.127 82.491 0.991 -7.304 0.991 -7.304 0.127 82.491
5840.333 0.128 82.453 0.991 -7.343 0.991 -7.343 0.128 82.453
5865.292 0.128 82.415 0.991 -7.381 0.991 -7.381 0.128 82.415
5890.25 0.129 82.378 0.991 -7.42 0.991 -7.42 0.129 82.378
5915.208 0.13 82.34 0.991 -7.459 0.991 -7.459 0.13 82.34
5940.167 0.13 82.302 0.991 -7.497 0.991 -7.497 0.13 82.302
5965.125 0.131 82.265 0.991 -7.536 0.991 -7.536 0.131 82.265
5990.083 0.132 82.227 0.991 -7.574 0.991 -7.574 0.132 82.227
6015.042 0.132 82.19 0.991 -7.613 0.991 -7.613 0.132 82.19
6040 0.133 82.152 0.991 -7.651 0.991 -7.651 0.133 82.152
6064.958 0.134 82.115 0.991 -7.69 0.991 -7.69 0.134 82.115
6089.917 0.134 82.078 0.99 -7.728 0.99 -7.728 0.134 82.078
6114.875 0.135 82.04 0.99 -7.767 0.99 -7.767 0.135 82.04
6139.833 0.136 82.003 0.99 -7.805 0.99 -7.805 0.136 82.003
6164.792 0.136 81.965 0.99 -7.843 0.99 -7.843 0.136 81.965
6189.75 0.137 81.928 0.99 -7.881 0.99 -7.881 0.137 81.928
6214.708 0.138 81.891 0.99 -7.92 0.99 -7.92 0.138 81.891
6239.667 0.138 81.854 0.99 -7.958 0.99 -7.958 0.138 81.854
6264.625 0.139 81.816 0.99 -7.996 0.99 -7.996 0.139 81.816
6289.583 0.14 81.779 0.99 -8.034 0.99 -8.034 0.14 81.779
6314.542 0.14 81.742 0.99 -8.072 0.99 -8.072 0.14 81.742
6339.5 0.141 81.705 0.99 -8.11 0.99 -8.11 0.141 81.705
6364.458 0.142 81.668 0.989 -8.148 0.989 -8.148 0.142 81.668
6389.417 0.142 81.631 0.989 -8.186 0.989 -8.186 0.142 81.631
6414.375 0.143 81.593 0.989 -8.224 0.989 -8.224 0.143 81.593
6439.333 0.144 81.556 0.989 -8.262 0.989 -8.262 0.144 81.556
6464.292 0.144 81.519 0.989 -8.3 0.989 -8.3 0.144 81.519
6489.25 0.145 81.482 0.989 -8.338 0.989 -8.338 0.145 81.482
6514.208 0.146 81.445 0.989 -8.376 0.989 -8.376 0.146 81.445
6539.167 0.146 81.408 0.989 -8.413 0.989 -8.413 0.146 81.408
6564.125 0.147 81.371 0.989 -8.451 0.989 -8.451 0.147 81.371
6589.083 0.148 81.334 0.989 -8.489 0.989 -8.489 0.148 81.334
6614.042 0.148 81.298 0.988 -8.527 0.988 -8.527 0.148 81.298
6639 0.149 81.261 0.988 -8.564 0.988 -8.564 0.149 81.261
6663.958 0.15 81.224 0.988 -8.602 0.988 -8.602 0.15 81.224
6688.917 0.15 81.187 0.988 -8.64 0.988 -8.64 0.15 81.187
6713.875 0.151 81.15 0.988 -8.677 0.988 -8.677 0.151 81.15
6738.833 0.152 81.113 0.988 -8.715 0.988 -8.715 0.152 81.113
6763.792 0.152 81.077 0.988 -8.752 0.988 -8.752 0.152 81.077
6788.75 0.153 81.04 0.988 -8.79 0.988 -8.79 0.153 81.04
6813.708 0.153 81.003 0.988 -8.827 0.988 -8.827 0.153 81.003
6838.667 0.154 80.966 0.988 -8.865 0.988 -8.865 0.154 80.966
6863.625 0.155 80.93 0.987 -8.902 0.987 -8.902 0.155 80.93
6888.583 0.155 80.893 0.987 -8.939 0.987 -8.939 0.155 80.893
6913.542 0.156 80.856 0.987 -8.977 0.987 -8.977 0.156 80.856
6938.5 0.157 80.82 0.987 -9.014 0.987 -9.014 0.157 80.82
6963.458 0.157 80.783 0.987 -9.051 0.987 -9.051 0.157 80.783
6988.417 0.158 80.747 0.987 -9.089 0.987 -9.089 0.158 80.747
7013.375 0.159 80.71 0.987 -9.126 0.987 -9.126 0.159 80.71
7038.333 0.159 80.673 0.987 -9.163 0.987 -9.163 0.159 80.673
7063.292 0.16 80.637 0.987 -9.2 0.987 -9.2 0.16 80.637
7088.25 0.161 80.6 0.987 -9.238 0.987 -9.238 0.161 80.6
7113.208 0.161 80.564 0.986 -9.275 0.986 -9.275 0.161 80.564
7138.167 0.162 80.527 0.986 -9.312 0.986 -9.312 0.162 80.527
7163.125 0.162 80.491 0.986 -9.349 0.986 -9.349 0.162 80.491
7188.083 0.163 80.455 0.986 -9.386 0.986 -9.386 0.163 80.455
7213.042 0.164 80.418 0.986 -9.423 0.986 -9.423 0.164 80.418
7238 0.164 80.382 0.986 -9.46 0.986 -9.46 0.164 80.382
7262.958 0.165 80.345 0.986 -9.497 0.986 -9.497 0.165 80.345
7287.917 0.166 80.309 0.986 -9.534 0.986 -9.534 0.166 80.309
7312.875 0.166 80.273 0.986 -9.571 0.986 -9.571 0.166 80.273
7337.833 0.167 80.236 0.986 -9.608 0.986 -9.608 0.167 80.236
7362.792 0.168 80.2 0.985 -9.645 0.985 -9.645 0.168 80.2
7387.75 0.168 80.164 0.985 -9.682 0.985 -9.682 0.168 80.164
7412.708 0.169 80.128 0.985 -9.718 0.985 -9.718 0.169 80.128
7437.667 0.169 80.091 0.985 -9.755 0.985 -9.755 0.169 80.091
7462.625 0.17 80.055 0.985 -9.792 0.985 -9.792 0.17 80.055
7487.583 0.171 80.019 0.985 -9.829 0.985 -9.829 0.171 80.019
7512.542 0.171 79.983 0.985 -9.866 0.985 -9.866 0.171 79.983
7537.5 0.172 79.947 0.985 -9.902 0.985 -9.902 0.172 79.947
7562.458 0.173 79.911 0.985 -9.939 0.985 -9.939 0.173 79.911
7587.417 0.173 79.874 0.984 -9.976 0.984 -9.976 0.173 79.874
7612.375 0.174 79.838 0.984 -10.012 0.984 -10.012 0.174 79.838
7637.333 0.174 79.802 0.984 -10.049 0.984 -10.049 0.174 79.802
7662.292 0.175 79.766 0.984 -10.086 0.984 -10.086 0.175 79.766
7687.25 0.176 79.73 0.984 -10.122 0.984 -10.122 0.176 79.73
7712.208 0.176 79.694 0.984 -10.159 0.984 -10.159 0.176 79.694
7737.167 0.177 79.658 0.984 -10.195 0.984 -10.195 0.177 79.658
7762.125 0.178 79.622 0.984 -10.232 0.984 -10.232 0.178 79.622
7787.083 0.178 79.586 0.984 -10.268 0.984 -10.268 0.178 79.586
7812.042 0.179 79.55 0.983 -10.305 0.983 -10.305 0.179 79.55
7837 0.18 79.514 0.983 -10.341 0.983 -10.341 0.18 79.514
7861.958 0.18 79.478 0.983 -10.378 0.983 -10.378 0.18 79.478
7886.917 0.181 79.443 0.983 -10.414 0.983 -10.414 0.181 79.443
7911.875 0.181 79.407 0.983 -10.45 0.983 -10.45 0.181 79.407
7936.833 0.182 79.371 0.983 -10.487 0.983 -10.487 0.182 79.371
7961.792 0.183 79.335 0.983 -10.523 0.983 -10.523 0.183 79.335
7986.75 0.183 79.299 0.983 -10.559 0.983 -10.559 0.183 79.299
8011.708 0.184 79.263 0.982 -10.596 0.982 -10.596 0.184 79.263
8036.667 0.185 79.228 0.982 -10.632 0.982 -10.632 0.185 79.228
8061.625 0.185 79.192 0.982 -10.668 0.982 -10.668 0.185 79.192
8086.583 0.186 79.156 0.982 -10.704 0.982 -10.704 0.186 79.156
8111.542 0.186 79.12 0.982 -10.741 0.982 -10.741 0.186 79.12
8136.5 0.187 79.085 0.982 -10.777 0.982 -10.777 0.187 79.085
8161.458 0.188 79.049 0.982 -10.813 0.982 -10.813 0.188 79.049
8186.417 0.188 79.013 0.982 -10.849 0.982 -10.849 0.188 79.013
8211.375 0.189 78.978 0.982 -10.885 0.982 -10.885 0.189 78.978
8236.333 0.189 78.942 0.981 -10.921 0.981 -10.921 0.189 78.942
8261.292 0.19 78.906 0.981 -10.958 0.981 -10.958 0.19 78.906
8286.25 0.191 78.871 0.981 -10.994 0.981 -10.994 0.191 78.871
8311.208 0.191 78.835 0.981 -11.03 0.981 -11.03 0.191 78.835
8336.167 0.192 78.8 0.981 -11.066 0.981 -11.066 0.192 78.8
