# MHZ S MA R 50

50 0.999 -3.057 0.053 86.938 0.053 86.938 0.999 -3.057
74.958 0.997 -4.578 0.08 85.415 0.08 85.415 0.997 -4.578
99.917 0.994 -6.093 0.106 83.898 0.106 83.898 0.994 -6.093
124.875 0.991 -7.6 0.132 82.389 0.132 82.389 0.991 -7.6
149.833 0.987 -9.097 0.158 80.89 0.158 80.89 0.987 -9.097
174.792 0.983 -10.583 0.184 79.402 0.184 79.402 0.983 -10.583
199.75 0.978 -12.055 0.209 77.928 0.209 77.928 0.978 -12.055
224.708 0.972 -13.512 0.234 76.469 0.234 76.469 0.972 -13.512
249.667 0.966 -14.952 0.258 75.026 0.258 75.026 0.966 -14.952
274.625 0.959 -16.375 0.282 73.602 0.282 73.602 0.959 -16.375
299.583 0.952 -17.778 0.305 72.196 0.305 72.196 0.952 -17.778
324.542 0.944 -19.162 0.328 70.811 0.328 70.811 0.944 -19.162
349.5 0.936 -20.523 0.351 69.447 0.351 69.447 0.936 -20.523
374.458 0.928 -21.863 0.372 68.105 0.372 68.105 0.928 -21.863
399.417 0.919 -23.18 0.394 66.786 0.394 66.786 0.919 -23.18
424.375 0.91 -24.473 0.414 65.491 0.414 65.491 0.91 -24.473
449.333 0.9 -25.741 0.434 64.22 0.434 64.22 0.9 -25.741
474.292 0.891 -26.985 0.454 62.974 0.454 62.974 0.891 -26.985
499.25 0.881 -28.204 0.473 61.753 0.473 61.753 0.881 -28.204
524.208 0.871 -29.398 0.491 60.557 0.491 60.557 0.871 -29.398
549.167 0.861 -30.567 0.509 59.386 0.509 59.386 0.861 -30.567
574.125 0.85 -31.71 0.526 58.241 0.526 58.241 0.85 -31.71
599.083 0.84 -32.828 0.542 57.121 0.542 57.121 0.84 -32.828
624.042 0.829 -33.92 0.558 56.026 0.558 56.026 0.829 -33.92
649 0.819 -34.988 0.573 54.956 0.573 54.956 0.819 -34.988
673.958 0.808 -36.031 0.588 53.911 0.588 53.911 0.808 -36.031
698.917 0.797 -37.049 0.602 52.891 0.602 52.891 0.797 -37.049
723.875 0.787 -38.042 0.616 51.895 0.616 51.895 0.787 -38.042
748.833 0.776 -39.012 0.629 50.923 0.629 50.923 0.776 -39.012
773.792 0.766 -39.958 0.642 49.975 0.642 49.975 0.766 -39.958
798.75 0.755 -40.882 0.654 49.049 0.654 49.049 0.755 -40.882
823.708 0.745 -41.782 0.666 48.146 0.666 48.146 0.745 -41.782
848.667 0.735 -42.661 0.678 47.266 0.678 47.266 0.735 -42.661
873.625 0.724 -43.517 0.689 46.407 0.689 46.407 0.724 -43.517
898.583 0.714 -44.353 0.699 45.569 0.699 45.569 0.714 -44.353
923.542 0.704 -45.168 0.709 44.752 0.709 44.752 0.704 -45.168
948.5 0.694 -45.962 0.719 43.955 0.719 43.955 0.694 -45.962
973.458 0.684 -46.737 0.728 43.178 0.728 43.178 0.684 -46.737
998.417 0.675 -47.493 0.737 42.42 0.737 42.42 0.675 -47.493
1023.375 0.665 -48.23 0.746 41.681 0.746 41.681 0.665 -48.23
1048.333 0.656 -48.949 0.754 40.96 0.754 40.96 0.656 -48.949
1073.292 0.646 -49.65 0.762 40.256 0.762 40.256 0.646 -49.65
1098.25 0.637 -50.334 0.77 39.57 0.77 39.57 0.637 -50.334
1123.208 0.628 -51.001 0.777 38.9 0.777 38.9 0.628 -51.001
1148.167 0.619 -51.652 0.784 38.247 0.784 38.247 0.619 -51.652
1173.125 0.61 -52.287 0.791 37.609 0.791 37.609 0.61 -52.287
1198.083 0.602 -52.907 0.798 36.987 0.798 36.987 0.602 -52.907
1223.042 0.593 -53.513 0.804 36.379 0.804 36.379 0.593 -53.513
1248 0.585 -54.103 0.81 35.786 0.81 35.786 0.585 -54.103
1272.958 0.577 -54.68 0.816 35.207 0.816 35.207 0.577 -54.68
1297.917 0.568 -55.244 0.822 34.641 0.822 34.641 0.568 -55.244
1322.875 0.56 -55.794 0.827 34.088 0.827 34.088 0.56 -55.794
1347.833 0.553 -56.331 0.832 33.549 0.832 33.549 0.553 -56.331
1372.792 0.545 -56.857 0.837 33.021 0.837 33.021 0.545 -56.857
1397.75 0.537 -57.37 0.842 32.505 0.842 32.505 0.537 -57.37
1422.708 0.53 -57.871 0.847 32.001 0.847 32.001 0.53 -57.871
1447.667 0.523 -58.361 0.851 31.509 0.851 31.509 0.523 -58.361
1472.625 0.515 -58.841 0.856 31.027 0.856 31.027 0.515 -58.841
1497.583 0.508 -59.31 0.86 30.556 0.86 30.556 0.508 -59.31
1522.542 0.501 -59.768 0.864 30.095 0.864 30.095 0.501 -59.768
1547.5 0.495 -60.217 0.868 29.644 0.868 29.644 0.495 -60.217
1572.458 0.488 -60.655 0.872 29.202 0.872 29.202 0.488 -60.655
1597.417 0.481 -61.085 0.875 28.77 0.875 28.77 0.481 -61.085
1622.375 0.475 -61.505 0.879 28.347 0.879 28.347 0.475 -61.505
1647.333 0.468 -61.917 0.882 27.933 0.882 27.933 0.468 -61.917
1672.292 0.462 -62.32 0.886 27.528 0.886 27.528 0.462 -62.32
1697.25 0.456 -62.715 0.889 27.13 0.889 27.13 0.456 -62.715
1722.208 0.45 -63.101 0.892 26.741 0.892 26.741 0.45 -63.101
1747.167 0.444 -63.48 0.895 26.359 0.895 26.359 0.444 -63.48
1772.125 0.438 -63.851 0.898 25.986 0.898 25.986 0.438 -63.851
1797.083 0.432 -64.215 0.9 25.619 0.9 25.619 0.432 -64.215
1822.042 0.427 -64.572 0.903 25.26 0.903 25.26 0.427 -64.572
1847 0.421 -64.921 0.906 24.907 0.906 24.907 0.421 -64.921
1871.958 0.416 -65.264 0.908 24.562 0.908 24.562 0.416 -65.264
1896.917 0.41 -65.601 0.911 24.222 0.911 24.222 0.41 -65.601
1921.875 0.405 -65.931 0.913 23.89 0.913 23.89 0.405 -65.931
1946.833 0.4 -66.255 0.915 23.563 0.915 23.563 0.4 -66.255
1971.792 0.395 -66.572 0.918 23.242 0.918 23.242 0.395 -66.572
1996.75 0.39 -66.884 0.92 22.928 0.92 22.928 0.39 -66.884
2021.708 0.385 -67.19 0.922 22.619 0.922 22.619 0.385 -67.19
2046.667 0.38 -67.491 0.924 22.315 0.924 22.315 0.38 -67.491
2071.625 0.375 -67.786 0.926 22.017 0.926 22.017 0.375 -67.786
2096.583 0.37 -68.077 0.928 21.724 0.928 21.724 0.37 -68.077
2121.542 0.365 -68.361 0.93 21.436 0.93 21.436 0.365 -68.361
2146.5 0.361 -68.641 0.931 21.153 0.931 21.153 0.361 -68.641
2171.458 0.356 -68.917 0.933 20.875 0.933 20.875 0.356 -68.917
2196.417 0.352 -69.187 0.935 20.601 0.935 20.601 0.352 -69.187
2221.375 0.347 -69.453 0.936 20.332 0.936 20.332 0.347 -69.453
2246.333 0.343 -69.714 0.938 20.068 0.938 20.068 0.343 -69.714
2271.292 0.339 -69.972 0.94 19.808 0.94 19.808 0.339 -69.972
2296.25 0.335 -70.224 0.941 19.552 0.941 19.552 0.335 -70.224
2321.208 0.331 -70.473 0.942 19.3 0.942 19.3 0.331 -70.473
2346.167 0.326 -70.718 0.944 19.052 0.944 19.052 0.326 -70.718
2371.125 0.322 -70.959 0.945 18.808 0.945 18.808 0.322 -70.959
2396.083 0.318 -71.196 0.947 18.568 0.947 18.568 0.318 -71.196
2421.042 0.315 -71.429 0.948 18.331 0.948 18.331 0.315 -71.429
2446 0.311 -71.658 0.949 18.098 0.949 18.098 0.311 -71.658
2470.958 0.307 -71.885 0.95 17.869 0.95 17.869 0.307 -71.885
2495.917 0.303 -72.107 0.952 17.643 0.952 17.643 0.303 -72.107
2520.875 0.299 -72.326 0.953 17.42 0.953 17.42 0.299 -72.326
2545.833 0.296 -72.542 0.954 17.201 0.954 17.201 0.296 -72.542
2570.792 0.292 -72.755 0.955 16.984 0.955 16.984 0.292 -72.755
2595.75 0.289 -72.965 0.956 16.771 0.956 16.771 0.289 -72.965
2620.708 0.285 -73.171 0.957 16.561 0.957 16.561 0.285 -73.171
2645.667 0.282 -73.375 0.958 16.354 0.958 16.354 0.282 -73.375
2670.625 0.278 -73.575 0.959 16.15 0.959 16.15 0.278 -73.575
2695.583 0.275 -73.773 0.96 15.948 0.96 15.948 0.275 -73.773
2720.542 0.271 -73.968 0.961 15.75 0.961 15.75 0.271 -73.968
2745.5 0.268 -74.16 0.962 15.554 0.962 15.554 0.268 -74.16
2770.458 0.265 -74.35 0.963 15.36 0.963 15.36 0.265 -74.35
2795.417 0.262 -74.537 0.964 15.17 0.964 15.17 0.262 -74.537
2820.375 0.259 -74.721 0.965 14.981 0.965 14.981 0.259 -74.721
2845.333 0.255 -74.903 0.966 14.795 0.966 14.795 0.255 -74.903
2870.292 0.252 -75.083 0.966 14.612 0.966 14.612 0.252 -75.083
2895.25 0.249 -75.26 0.967 14.431 0.967 14.431 0.249 -75.26
2920.208 0.246 -75.435 0.968 14.252 0.968 14.252 0.246 -75.435
2945.167 0.243 -75.607 0.969 14.075 0.969 14.075 0.243 -75.607
2970.125 0.24 -75.778 0.969 13.901 0.969 13.901 0.24 -75.778
2995.083 0.237 -75.946 0.97 13.729 0.97 13.729 0.237 -75.946
3020.042 0.234 -76.112 0.971 13.559 0.971 13.559 0.234 -76.112
3045 0.232 -76.275 0.971 13.39 0.971 13.39 0.232 -76.275
3069.958 0.229 -76.437 0.972 13.224 0.972 13.224 0.229 -76.437
3094.917 0.226 -76.597 0.973 13.06 0.973 13.06 0.226 -76.597
3119.875 0.223 -76.755 0.973 12.898 0.973 12.898 0.223 -76.755
3144.833 0.22 -76.91 0.974 12.738 0.974 12.738 0.22 -76.91
3169.792 0.218 -77.064 0.975 12.579 0.975 12.579 0.218 -77.064
3194.75 0.215 -77.216 0.975 12.422 0.975 12.422 0.215 -77.216
3219.708 0.212 -77.367 0.976 12.267 0.976 12.267 0.212 -77.367
3244.667 0.21 -77.515 0.976 12.114 0.976 12.114 0.21 -77.515
3269.625 0.207 -77.662 0.977 11.963 0.977 11.963 0.207 -77.662
3294.583 0.205 -77.807 0.977 11.813 0.977 11.813 0.205 -77.807
3319.542 0.202 -77.95 0.978 11.665 0.978 11.665 0.202 -77.95
3344.5 0.2 -78.092 0.979 11.518 0.979 11.518 0.2 -78.092
3369.458 0.197 -78.232 0.979 11.373 0.979 11.373 0.197 -78.232
3394.417 0.195 -78.37 0.979 11.229 0.979 11.229 0.195 -78.37
3419.375 0.192 -78.507 0.98 11.087 0.98 11.087 0.192 -78.507
3444.333 0.19 -78.642 0.98 10.947 0.98 10.947 0.19 -78.642
3469.292 0.188 -78.776 0.981 10.808 0.981 10.808 0.188 -78.776
3494.25 0.185 -78.908 0.981 10.67 0.981 10.67 0.185 -78.908
3519.208 0.183 -79.039 0.982 10.534 0.982 10.534 0.183 -79.039
3544.167 0.181 -79.168 0.982 10.399 0.982 10.399 0.181 -79.168
3569.125 0.178 -79.296 0.983 10.265 0.983 10.265 0.178 -79.296
3594.083 0.176 -79.422 0.983 10.133 0.983 10.133 0.176 -79.422
3619.042 0.174 -79.547 0.983 10.002 0.983 10.002 0.174 -79.547
3644 0.171 -79.671 0.984 9.872 0.984 9.872 0.171 -79.671
3668.958 0.169 -79.793 0.984 9.743 0.984 9.743 0.169 -79.793
3693.917 0.167 -79.915 0.985 9.616 0.985 9.616 0.167 -79.915
3718.875 0.165 -80.034 0.985 9.49 0.985 9.49 0.165 -80.034
3743.833 0.163 -80.153 0.985 9.365 0.985 9.365 0.163 -80.153
3768.792 0.161 -80.27 0.986 9.241 0.986 9.241 0.161 -80.27
3793.75 0.158 -80.386 0.986 9.118 0.986 9.118 0.158 -80.386
3818.708 0.156 -80.501 0.986 8.997 0.986 8.997 0.156 -80.501
3843.667 0.154 -80.614 0.987 8.876 0.987 8.876 0.154 -80.614
3868.625 0.152 -80.727 0.987 8.757 0.987 8.757 0.152 -80.727
3893.583 0.15 -80.838 0.987 8.638 0.987 8.638 0.15 -80.838
3918.542 0.148 -80.948 0.988 8.521 0.988 8.521 0.148 -80.948
3943.5 0.146 -81.057 0.988 8.405 0.988 8.405 0.146 -81.057
3968.458 0.144 -81.165 0.988 8.289 0.988 8.289 0.144 -81.165
3993.417 0.142 -81.271 0.988 8.175 0.988 8.175 0.142 -81.271
4018.375 0.14 -81.377 0.989 8.062 0.989 8.062 0.14 -81.377
4043.333 0.138 -81.481 0.989 7.949 0.989 7.949 0.138 -81.481
4068.292 0.136 -81.584 0.989 7.838 0.989 7.838 0.136 -81.584
4093.25 0.134 -81.687 0.99 7.727 0.99 7.727 0.134 -81.687
4118.208 0.133 -81.788 0.99 7.617 0.99 7.617 0.133 -81.788
4143.167 0.131 -81.888 0.99 7.509 0.99 7.509 0.131 -81.888
4168.125 0.129 -81.987 0.99 7.401 0.99 7.401 0.129 -81.987
4193.083 0.127 -82.085 0.991 7.293 0.991 7.293 0.127 -82.085
4218.042 0.125 -82.182 0.991 7.187 0.991 7.187 0.125 -82.182
4243 0.123 -82.278 0.991 7.082 0.991 7.082 0.123 -82.278
4267.958 0.121 -82.373 0.991 6.977 0.991 6.977 0.121 -82.373
4292.917 0.12 -82.467 0.991 6.873 0.991 6.873 0.12 -82.467
4317.875 0.118 -82.56 0.992 6.77 0.992 6.77 0.118 -82.56
4342.833 0.116 -82.652 0.992 6.668 0.992 6.668 0.116 -82.652
4367.792 0.114 -82.742 0.992 6.566 0.992 6.566 0.114 -82.742
4392.75 0.113 -82.832 0.992 6.466 0.992 6.466 0.113 -82.832
4417.708 0.111 -82.921 0.992 6.366 0.992 6.366 0.111 -82.921
4442.667 0.109 -83.009 0.993 6.266 0.993 6.266 0.109 -83.009
4467.625 0.107 -83.096 0.993 6.168 0.993 6.168 0.107 -83.096
4492.583 0.106 -83.182 0.993 6.07 0.993 6.07 0.106 -83.182
4517.542 0.104 -83.267 0.993 5.973 0.993 5.973 0.104 -83.267
4542.5 0.102 -83.351 0.993 5.876 0.993 5.876 0.102 -83.351
4567.458 0.101 -83.434 0.994 5.78 0.994 5.78 0.101 -83.434
4592.417 0.099 -83.516 0.994 5.685 0.994 5.685 0.099 -83.516
4617.375 0.097 -83.597 0.994 5.591 0.994 5.591 0.097 -83.597
4642.333 0.096 -83.677 0.994 5.497 0.994 5.497 0.096 -83.677
4667.292 0.094 -83.755 0.994 5.404 0.994 5.404 0.094 -83.755
4692.25 0.093 -83.833 0.994 5.311 0.994 5.311 0.093 -83.833
4717.208 0.091 -83.91 0.994 5.219 0.994 5.219 0.091 -83.91
4742.167 0.089 -83.986 0.995 5.128 0.995 5.128 0.089 -83.986
4767.125 0.088 -84.061 0.995 5.037 0.995 5.037 0.088 -84.061
4792.083 0.086 -84.134 0.995 4.947 0.995 4.947 0.086 -84.134
4817.042 0.085 -84.207 0.995 4.857 0.995 4.857 0.085 -84.207
4842 0.083 -84.279 0.995 4.768 0.995 4.768 0.083 -84.279
4866.958 0.082 -84.349 0.995 4.679 0.995 4.679 0.082 -84.349
4891.917 0.08 -84.418 0.995 4.591 0.995 4.591 0.08 -84.418
4916.875 0.079 -84.486 0.996 4.504 0.996 4.504 0.079 -84.486
4941.833 0.077 -84.553 0.996 4.417 0.996 4.417 0.077 -84.553
4966.792 0.076 -84.619 0.996 4.331 0.996 4.331 0.076 -84.619
4991.75 0.074 -84.684 0.996 4.245 0.996 4.245 0.074 -84.684
5016.708 0.073 -84.747 0.996 4.16 0.996 4.16 0.073 -84.747
5041.667 0.071 -84.809 0.996 4.075 0.996 4.075 0.071 -84.809
5066.625 0.07 -84.869 0.996 3.99 0.996 3.99 0.07 -84.869
5091.583 0.068 -84.929 0.996 3.907 0.996 3.907 0.068 -84.929
5116.542 0.067 -84.987 0.996 3.823 0.996 3.823 0.067 -84.987
5141.5 0.065 -85.043 0.996 3.74 0.996 3.74 0.065 -85.043
5166.458 0.064 -85.098 0.997 3.658 0.997 3.658 0.064 -85.098
5191.417 0.062 -85.151 0.997 3.576 0.997 3.576 0.062 -85.151
5216.375 0.061 -85.203 0.997 3.495 0.997 3.495 0.061 -85.203
5241.333 0.06 -85.253 0.997 3.414 0.997 3.414 0.06 -85.253
5266.292 0.058 -85.301 0.997 3.333 0.997 3.333 0.058 -85.301
5291.25 0.057 -85.348 0.997 3.253 0.997 3.253 0.057 -85.348
5316.208 0.055 -85.392 0.997 3.173 0.997 3.173 0.055 -85.392
5341.167 0.054 -85.435 0.997 3.094 0.997 3.094 0.054 -85.435
5366.125 0.053 -85.475 0.997 3.015 0.997 3.015 0.053 -85.475
5391.083 0.051 -85.513 0.997 2.937 0.997 2.937 0.051 -85.513
5416.042 0.05 -85.549 0.997 2.859 0.997 2.859 0.05 -85.549
5441 0.049 -85.582 0.997 2.781 0.997 2.781 0.049 -85.582
5465.958 0.047 -85.612 0.997 2.704 0.997 2.704 0.047 -85.612
5490.917 0.046 -85.64 0.998 2.627 0.998 2.627 0.046 -85.64
5515.875 0.045 -85.664 0.998 2.551 0.998 2.551 0.045 -85.664
5540.833 0.043 -85.685 0.998 2.475 0.998 2.475 0.043 -85.685
5565.792 0.042 -85.703 0.998 2.4 0.998 2.4 0.042 -85.703
5590.75 0.041 -85.717 0.998 2.324 0.998 2.324 0.041 -85.717
5615.708 0.039 -85.726 0.998 2.249 0.998 2.249 0.039 -85.726
5640.667 0.038 -85.731 0.998 2.175 0.998 2.175 0.038 -85.731
5665.625 0.037 -85.732 0.998 2.101 0.998 2.101 0.037 -85.732
5690.583 0.035 -85.727 0.998 2.027 0.998 2.027 0.035 -85.727
5715.542 0.034 -85.716 0.998 1.954 0.998 1.954 0.034 -85.716
5740.5 0.033 -85.698 0.998 1.881 0.998 1.881 0.033 -85.698
5765.458 0.032 -85.674 0.998 1.808 0.998 1.808 0.032 -85.674
5790.417 0.03 -85.641 0.998 1.736 0.998 1.736 0.03 -85.641
5815.375 0.029 -85.6 0.998 1.663 0.998 1.663 0.029 -85.6
5840.333 0.028 -85.548 0.998 1.592 0.998 1.592 0.028 -85.548
5865.292 0.027 -85.485 0.998 1.52 0.998 1.52 0.027 -85.485
5890.25 0.025 -85.41 0.998 1.449 0.998 1.449 0.025 -85.41
5915.208 0.024 -85.32 0.998 1.379 0.998 1.379 0.024 -85.32
5940.167 0.023 -85.213 0.998 1.308 0.998 1.308 0.023 -85.213
5965.125 0.022 -85.086 0.998 1.238 0.998 1.238 0.022 -85.086
5990.083 0.02 -84.937 0.998 1.168 0.998 1.168 0.02 -84.937
6015.042 0.019 -84.761 0.998 1.099 0.998 1.099 0.019 -84.761
6040 0.018 -84.554 0.998 1.03 0.998 1.03 0.018 -84.554
6064.958 0.017 -84.307 0.998 0.961 0.998 0.961 0.017 -84.307
6089.917 0.016 -84.014 0.998 0.892 0.998 0.892 0.016 -84.014
6114.875 0.014 -83.663 0.999 0.824 0.999 0.824 0.014 -83.663
6139.833 0.013 -83.238 0.999 0.756 0.999 0.756 0.013 -83.238
6164.792 0.012 -82.72 0.999 0.688 0.999 0.688 0.012 -82.72
6189.75 0.011 -82.079 0.999 0.621 0.999 0.621 0.011 -82.079
6214.708 9.765e-3 -81.273 0.999 0.554 0.999 0.554 9.765e-3 -81.273
6239.667 8.611e-3 -80.236 0.999 0.487 0.999 0.487 8.611e-3 -80.236
6264.625 7.467e-3 -78.864 0.999 0.42 0.999 0.42 7.467e-3 -78.864
6289.583 6.333e-3 -76.983 0.999 0.354 0.999 0.354 6.333e-3 -76.983
6314.542 5.215e-3 -74.271 0.999 0.288 0.999 0.288 5.215e-3 -74.271
6339.5 4.119e-3 -70.081 0.999 0.222 0.999 0.222 4.119e-3 -70.081
6364.458 3.067e-3 -62.927 0.999 0.157 0.999 0.157 3.067e-3 -62.927
6389.417 2.115e-3 -48.88 0.999 0.091 0.999 0.091 2.115e-3 -48.88
6414.375 1.463e-3 -18.338 0.999 0.026 0.999 0.026 1.463e-3 -18.338
6439.333 1.541e-3 25.702 0.999 -0.038 0.999 -0.038 1.541e-3 25.702
6464.292 2.269e-3 52.181 0.999 -0.103 0.999 -0.103 2.269e-3 52.181
6489.25 3.23e-3 64.379 0.999 -0.167 0.999 -0.167 3.23e-3 64.379
6514.208 4.266e-3 70.778 0.999 -0.231 0.999 -0.231 4.266e-3 70.778
6539.167 5.331e-3 74.61 0.999 -0.295 0.999 -0.295 5.331e-3 74.61
6564.125 6.408e-3 77.129 0.999 -0.358 0.999 -0.358 6.408e-3 77.129
6589.083 7.491e-3 78.897 0.999 -0.422 0.999 -0.422 7.491e-3 78.897
6614.042 8.575e-3 80.197 0.999 -0.485 0.999 -0.485 8.575e-3 80.197
6639 9.658e-3 81.188 0.999 -0.548 0.999 -0.548 9.658e-3 81.188
6663.958 0.011 81.963 0.999 -0.61 0.999 -0.61 0.011 81.963
6688.917 0.012 82.583 0.999 -0.673 0.999 -0.673 0.012 82.583
6713.875 0.013 83.087 0.999 -0.735 0.999 -0.735 0.013 83.087
6738.833 0.014 83.502 0.999 -0.797 0.999 -0.797 0.014 83.502
6763.792 0.015 83.848 0.998 -0.858 0.998 -0.858 0.015 83.848
6788.75 0.016 84.138 0.998 -0.92 0.998 -0.92 0.016 84.138
6813.708 0.017 84.384 0.998 -0.981 0.998 -0.981 0.017 84.384
6838.667 0.018 84.594 0.998 -1.042 0.998 -1.042 0.018 84.594
6863.625 0.019 84.773 0.998 -1.103 0.998 -1.103 0.019 84.773
6888.583 0.02 84.926 0.998 -1.164 0.998 -1.164 0.02 84.926
6913.542 0.021 85.059 0.998 -1.224 0.998 -1.224 0.021 85.059
6938.5 0.022 85.172 0.998 -1.284 0.998 -1.284 0.022 85.172
6963.458 0.024 85.27 0.998 -1.344 0.998 -1.344 0.024 85.27
6988.417 0.025 85.354 0.998 -1.404 0.998 -1.404 0.025 85.354
7013.375 0.026 85.426 0.998 -1.464 0.998 -1.464 0.026 85.426
7038.333 0.027 85.488 0.998 -1.523 0.998 -1.523 0.027 85.488
7063.292 0.028 85.541 0.998 -1.583 0.998 -1.583 0.028 85.541
7088.25 0.029 85.585 0.998 -1.642 0.998 -1.642 0.029 85.585
7113.208 0.03 85.622 0.998 -1.7 0.998 -1.7 0.03 85.622
7138.167 0.031 85.653 0.998 -1.759 0.998 -1.759 0.031 85.653
7163.125 0.032 85.677 0.998 -1.818 0.998 -1.818 0.032 85.677
7188.083 0.033 85.697 0.998 -1.876 0.998 -1.876 0.033 85.697
7213.042 0.034 85.712 0.998 -1.934 0.998 -1.934 0.034 85.712
7238 0.035 85.722 0.998 -1.992 0.998 -1.992 0.035 85.722
7262.958 0.036 85.729 0.998 -2.05 0.998 -2.05 0.036 85.729
7287.917 0.037 85.732 0.998 -2.107 0.998 -2.107 0.037 85.732
7312.875 0.038 85.732 0.998 -2.165 0.998 -2.165 0.038 85.732
7337.833 0.039 85.729 0.998 -2.222 0.998 -2.222 0.039 85.729
7362.792 0.04 85.723 0.998 -2.279 0.998 -2.279 0.04 85.723
7387.75 0.041 85.715 0.998 -2.336 0.998 -2.336 0.041 85.715
7412.708 0.042 85.704 0.998 -2.393 0.998 -2.393 0.042 85.704
7437.667 0.043 85.692 0.998 -2.449 0.998 -2.449 0.043 85.692
7462.625 0.044 85.677 0.998 -2.505 0.998 -2.505 0.044 85.677
7487.583 0.045 85.661 0.998 -2.562 0.998 -2.562 0.045 85.661
7512.542 0.046 85.643 0.998 -2.618 0.998 -2.618 0.046 85.643
7537.5 0.047 85.623 0.998 -2.674 0.998 -2.674 0.047 85.623
7562.458 0.048 85.603 0.997 -2.729 0.997 -2.729 0.048 85.603
7587.417 0.049 85.58 0.997 -2.785 0.997 -2.785 0.049 85.58
7612.375 0.05 85.557 0.997 -2.84 0.997 -2.84 0.05 85.557
7637.333 0.051 85.532 0.997 -2.896 0.997 -2.896 0.051 85.532
7662.292 0.051 85.506 0.997 -2.951 0.997 -2.951 0.051 85.506
7687.25 0.052 85.48 0.997 -3.006 0.997 -3.006 0.052 85.48
7712.208 0.053 85.452 0.997 -3.06 0.997 -3.06 0.053 85.452
7737.167 0.054 85.424 0.997 -3.115 0.997 -3.115 0.054 85.424
7762.125 0.055 85.394 0.997 -3.169 0.997 -3.169 0.055 85.394
7787.083 0.056 85.364 0.997 -3.224 0.997 -3.224 0.056 85.364
7812.042 0.057 85.333 0.997 -3.278 0.997 -3.278 0.057 85.333
7837 0.058 85.302 0.997 -3.332 0.997 -3.332 0.058 85.302
7861.958 0.059 85.27 0.997 -3.386 0.997 -3.386 0.059 85.27
7886.917 0.06 85.237 0.997 -3.44 0.997 -3.44 0.06 85.237
7911.875 0.061 85.204 0.997 -3.493 0.997 -3.493 0.061 85.204
7936.833 0.062 85.17 0.997 -3.547 0.997 -3.547 0.062 85.17
7961.792 0.063 85.136 0.997 -3.6 0.997 -3.6 0.063 85.136
7986.75 0.064 85.101 0.997 -3.653 0.997 -3.653 0.064 85.101
8011.708 0.065 85.066 0.997 -3.706 0.997 -3.706 0.065 85.066
8036.667 0.066 85.03 0.996 -3.759 0.996 -3.759 0.066 85.03
8061.625 0.066 84.994 0.996 -3.812 0.996 -3.812 0.066 84.994
8086.583 0.067 84.958 0.996 -3.865 0.996 -3.865 0.067 84.958
8111.542 0.068 84.921 0.996 -3.917 0.996 -3.917 0.068 84.921
8136.5 0.069 84.884 0.996 -3.97 0.996 -3.97 0.069 84.884
8161.458 0.07 84.847 0.996 -4.022 0.996 -4.022 0.07 84.847
8186.417 0.071 84.809 0.996 -4.074 0.996 -4.074 0.071 84.809
8211.375 0.072 84.771 0.996 -4.126 0.996 -4.126 0.072 84.771
