# MHZ S MA R 50

50 0.993 -6.986 0.122 83.011 0.122 83.011 0.993 -6.986
74.958 0.984 -10.412 0.181 79.584 0.181 79.584 0.984 -10.412
99.917 0.971 -13.766 0.238 76.229 0.238 76.229 0.971 -13.766
124.875 0.956 -17.029 0.293 72.964 0.293 72.964 0.956 -17.029
149.833 0.939 -20.187 0.345 69.805 0.345 69.805 0.939 -20.187
174.792 0.919 -23.225 0.394 66.765 0.394 66.765 0.919 -23.225
199.75 0.898 -26.136 0.441 63.853 0.441 63.853 0.898 -26.136
224.708 0.875 -28.914 0.484 61.074 0.484 61.074 0.875 -28.914
249.667 0.852 -31.556 0.523 58.431 0.523 58.431 0.852 -31.556
274.625 0.828 -34.062 0.56 55.923 0.56 55.923 0.828 -34.062
299.583 0.804 -36.435 0.594 53.55 0.594 53.55 0.804 -36.435
324.542 0.781 -38.676 0.625 51.307 0.625 51.307 0.781 -38.676
349.5 0.757 -40.792 0.653 49.19 0.653 49.19 0.757 -40.792
374.458 0.734 -42.787 0.679 47.193 0.679 47.193 0.734 -42.787
399.417 0.711 -44.668 0.703 45.311 0.703 45.311 0.711 -44.668
424.375 0.689 -46.44 0.725 43.537 0.725 43.537 0.689 -46.44
449.333 0.667 -48.111 0.744 41.866 0.744 41.866 0.667 -48.111
474.292 0.647 -49.686 0.763 40.289 0.763 40.289 0.647 -49.686
499.25 0.627 -51.171 0.779 38.802 0.779 38.802 0.627 -51.171
524.208 0.607 -52.573 0.794 37.399 0.794 37.399 0.607 -52.573
549.167 0.589 -53.897 0.808 36.074 0.808 36.074 0.589 -53.897
574.125 0.571 -55.148 0.821 34.821 0.821 34.821 0.571 -55.148
599.083 0.554 -56.331 0.832 33.637 0.832 33.637 0.554 -56.331
624.042 0.538 -57.452 0.843 32.515 0.843 32.515 0.538 -57.452
649 0.522 -58.513 0.853 31.452 0.853 31.452 0.522 -58.513
673.958 0.507 -59.52 0.862 30.444 0.862 30.444 0.507 -59.52
698.917 0.492 -60.476 0.87 29.486 0.87 29.486 0.492 -60.476
723.875 0.478 -61.385 0.878 28.576 0.878 28.576 0.478 -61.385
748.833 0.465 -62.249 0.885 27.711 0.885 27.711 0.465 -62.249
773.792 0.452 -63.072 0.892 26.886 0.892 26.886 0.452 -63.072
798.75 0.44 -63.856 0.898 26.1 0.898 26.1 0.44 -63.856
823.708 0.428 -64.605 0.903 25.35 0.903 25.35 0.428 -64.605
848.667 0.417 -65.319 0.909 24.634 0.909 24.634 0.417 -65.319
873.625 0.406 -66.002 0.914 23.95 0.914 23.95 0.406 -66.002
898.583 0.395 -66.656 0.918 23.295 0.918 23.295 0.395 -66.656
923.542 0.385 -67.282 0.922 22.667 0.922 22.667 0.385 -67.282
948.5 0.376 -67.882 0.926 22.066 0.926 22.066 0.376 -67.882
973.458 0.366 -68.457 0.93 21.489 0.93 21.489 0.366 -68.457
998.417 0.357 -69.01 0.934 20.935 0.934 20.935 0.357 -69.01
1023.375 0.349 -69.54 0.937 20.402 0.937 20.402 0.349 -69.54
1048.333 0.34 -70.051 0.94 19.89 0.94 19.89 0.34 -70.051
1073.292 0.332 -70.542 0.943 19.397 0.943 19.397 0.332 -70.542
1098.25 0.324 -71.015 0.946 18.923 0.946 18.923 0.324 -71.015
1123.208 0.317 -71.472 0.948 18.465 0.948 18.465 0.317 -71.472
1148.167 0.309 -71.912 0.951 18.023 0.951 18.023 0.309 -71.912
1173.125 0.302 -72.336 0.953 17.597 0.953 17.597 0.302 -72.336
1198.083 0.295 -72.746 0.955 17.185 0.955 17.185 0.295 -72.746
1223.042 0.289 -73.143 0.957 16.787 0.957 16.787 0.289 -73.143
1248 0.282 -73.526 0.959 16.401 0.959 16.401 0.282 -73.526
1272.958 0.276 -73.898 0.961 16.029 0.961 16.029 0.276 -73.898
1297.917 0.27 -74.257 0.962 15.667 0.962 15.667 0.27 -74.257
1322.875 0.264 -74.605 0.964 15.317 0.964 15.317 0.264 -74.605
1347.833 0.258 -74.943 0.966 14.978 0.966 14.978 0.258 -74.943
1372.792 0.253 -75.271 0.967 14.648 0.967 14.648 0.253 -75.271
1397.75 0.247 -75.589 0.969 14.328 0.969 14.328 0.247 -75.589
1422.708 0.242 -75.898 0.97 14.017 0.97 14.017 0.242 -75.898
1447.667 0.237 -76.198 0.971 13.715 0.971 13.715 0.237 -76.198
1472.625 0.232 -76.49 0.972 13.421 0.972 13.421 0.232 -76.49
1497.583 0.227 -76.773 0.973 13.136 0.973 13.136 0.227 -76.773
1522.542 0.223 -77.05 0.975 12.857 0.975 12.857 0.223 -77.05
1547.5 0.218 -77.319 0.976 12.586 0.976 12.586 0.218 -77.319
1572.458 0.213 -77.581 0.977 12.322 0.977 12.322 0.213 -77.581
1597.417 0.209 -77.836 0.978 12.065 0.978 12.065 0.209 -77.836
1622.375 0.205 -78.085 0.978 11.814 0.978 11.814 0.205 -78.085
1647.333 0.201 -78.328 0.979 11.568 0.979 11.568 0.201 -78.328
1672.292 0.196 -78.565 0.98 11.329 0.98 11.329 0.196 -78.565
1697.25 0.192 -78.796 0.981 11.096 0.981 11.096 0.192 -78.796
1722.208 0.189 -79.022 0.982 10.867 0.982 10.867 0.189 -79.022
1747.167 0.185 -79.243 0.982 10.644 0.982 10.644 0.185 -79.243
1772.125 0.181 -79.459 0.983 10.426 0.983 10.426 0.181 -79.459
1797.083 0.177 -79.67 0.984 10.213 0.984 10.213 0.177 -79.67
1822.042 0.174 -79.876 0.984 10.004 0.984 10.004 0.174 -79.876
1847 0.17 -80.078 0.985 9.8 0.985 9.8 0.17 -80.078
1871.958 0.167 -80.275 0.986 9.599 0.986 9.599 0.167 -80.275
1896.917 0.163 -80.469 0.986 9.403 0.986 9.403 0.163 -80.469
1921.875 0.16 -80.658 0.987 9.211 0.987 9.211 0.16 -80.658
1946.833 0.157 -80.844 0.987 9.023 0.987 9.023 0.157 -80.844
1971.792 0.154 -81.025 0.988 8.838 0.988 8.838 0.154 -81.025
1996.75 0.151 -81.204 0.988 8.657 0.988 8.657 0.151 -81.204
2021.708 0.147 -81.378 0.989 8.479 0.989 8.479 0.147 -81.378
2046.667 0.144 -81.55 0.989 8.305 0.989 8.305 0.144 -81.55
2071.625 0.141 -81.718 0.99 8.134 0.99 8.134 0.141 -81.718
2096.583 0.139 -81.883 0.99 7.965 0.99 7.965 0.139 -81.883
2121.542 0.136 -82.045 0.99 7.8 0.99 7.8 0.136 -82.045
2146.5 0.133 -82.204 0.991 7.638 0.991 7.638 0.133 -82.204
2171.458 0.13 -82.36 0.991 7.478 0.991 7.478 0.13 -82.36
2196.417 0.127 -82.514 0.991 7.321 0.991 7.321 0.127 -82.514
2221.375 0.125 -82.665 0.992 7.167 0.992 7.167 0.125 -82.665
2246.333 0.122 -82.813 0.992 7.015 0.992 7.015 0.122 -82.813
2271.292 0.12 -82.958 0.992 6.866 0.992 6.866 0.12 -82.958
2296.25 0.117 -83.101 0.993 6.719 0.993 6.719 0.117 -83.101
2321.208 0.114 -83.242 0.993 6.574 0.993 6.574 0.114 -83.242
2346.167 0.112 -83.381 0.993 6.431 0.993 6.431 0.112 -83.381
2371.125 0.11 -83.517 0.994 6.291 0.994 6.291 0.11 -83.517
2396.083 0.107 -83.651 0.994 6.153 0.994 6.153 0.107 -83.651
2421.042 0.105 -83.783 0.994 6.016 0.994 6.016 0.105 -83.783
2446 0.102 -83.912 0.994 5.882 0.994 5.882 0.102 -83.912
2470.958 0.1 -84.04 0.995 5.75 0.995 5.75 0.1 -84.04
2495.917 0.098 -84.165 0.995 5.619 0.995 5.619 0.098 -84.165
2520.875 0.096 -84.289 0.995 5.49 0.995 5.49 0.096 -84.289
2545.833 0.093 -84.411 0.995 5.363 0.995 5.363 0.093 -84.411
2570.792 0.091 -84.531 0.995 5.238 0.995 5.238 0.091 -84.531
2595.75 0.089 -84.649 0.996 5.114 0.996 5.114 0.089 -84.649
2620.708 0.087 -84.765 0.996 4.992 0.996 4.992 0.087 -84.765
2645.667 0.085 -84.88 0.996 4.872 0.996 4.872 0.085 -84.88
2670.625 0.083 -84.992 0.996 4.753 0.996 4.753 0.083 -84.992
2695.583 0.081 -85.103 0.996 4.635 0.996 4.635 0.081 -85.103
2720.542 0.079 -85.213 0.997 4.519 0.997 4.519 0.079 -85.213
2745.5 0.077 -85.32 0.997 4.404 0.997 4.404 0.077 -85.32
2770.458 0.075 -85.426 0.997 4.291 0.997 4.291 0.075 -85.426
2795.417 0.073 -85.531 0.997 4.179 0.997 4.179 0.073 -85.531
2820.375 0.071 -85.634 0.997 4.068 0.997 4.068 0.071 -85.634
2845.333 0.069 -85.735 0.997 3.959 0.997 3.959 0.069 -85.735
2870.292 0.067 -85.834 0.997 3.851 0.997 3.851 0.067 -85.834
2895.25 0.065 -85.932 0.997 3.744 0.997 3.744 0.065 -85.932
2920.208 0.063 -86.029 0.998 3.638 0.998 3.638 0.063 -86.029
2945.167 0.062 -86.123 0.998 3.533 0.998 3.533 0.062 -86.123
2970.125 0.06 -86.217 0.998 3.43 0.998 3.43 0.06 -86.217
2995.083 0.058 -86.308 0.998 3.327 0.998 3.327 0.058 -86.308
3020.042 0.056 -86.398 0.998 3.226 0.998 3.226 0.056 -86.398
3045 0.055 -86.486 0.998 3.125 0.998 3.125 0.055 -86.486
3069.958 0.053 -86.573 0.998 3.026 0.998 3.026 0.053 -86.573
3094.917 0.051 -86.658 0.998 2.928 0.998 2.928 0.051 -86.658
3119.875 0.049 -86.741 0.998 2.83 0.998 2.83 0.049 -86.741
3144.833 0.048 -86.822 0.998 2.734 0.998 2.734 0.048 -86.822
3169.792 0.046 -86.902 0.999 2.638 0.999 2.638 0.046 -86.902
3194.75 0.044 -86.979 0.999 2.543 0.999 2.543 0.044 -86.979
3219.708 0.043 -87.055 0.999 2.449 0.999 2.449 0.043 -87.055
3244.667 0.041 -87.128 0.999 2.357 0.999 2.357 0.041 -87.128
3269.625 0.04 -87.199 0.999 2.264 0.999 2.264 0.04 -87.199
3294.583 0.038 -87.268 0.999 2.173 0.999 2.173 0.038 -87.268
3319.542 0.036 -87.334 0.999 2.083 0.999 2.083 0.036 -87.334
3344.5 0.035 -87.398 0.999 1.993 0.999 1.993 0.035 -87.398
3369.458 0.033 -87.458 0.999 1.904 0.999 1.904 0.033 -87.458
3394.417 0.032 -87.515 0.999 1.816 0.999 1.816 0.032 -87.515
3419.375 0.03 -87.569 0.999 1.728 0.999 1.728 0.03 -87.569
3444.333 0.029 -87.619 0.999 1.642 0.999 1.642 0.029 -87.619
3469.292 0.027 -87.664 0.999 1.556 0.999 1.556 0.027 -87.664
3494.25 0.026 -87.704 0.999 1.47 0.999 1.47 0.026 -87.704
3519.208 0.024 -87.738 0.999 1.386 0.999 1.386 0.024 -87.738
3544.167 0.023 -87.765 0.999 1.302 0.999 1.302 0.023 -87.765
3569.125 0.021 -87.785 0.999 1.218 0.999 1.218 0.021 -87.785
3594.083 0.02 -87.795 0.999 1.136 0.999 1.136 0.02 -87.795
3619.042 0.018 -87.794 0.999 1.053 0.999 1.053 0.018 -87.794
3644 0.017 -87.778 0.999 0.972 0.999 0.972 0.017 -87.778
3668.958 0.016 -87.746 1 0.891 1 0.891 0.016 -87.746
3693.917 0.014 -87.691 1 0.811 1 0.811 0.014 -87.691
3718.875 0.013 -87.608 1 0.731 1 0.731 0.013 -87.608
3743.833 0.011 -87.485 1 0.652 1 0.652 0.011 -87.485
3768.792 0.01 -87.309 1 0.573 1 0.573 0.01 -87.309
3793.75 8.651e-3 -87.053 1 0.495 1 0.495 8.651e-3 -87.053
3818.708 7.299e-3 -86.676 1 0.418 1 0.418 7.299e-3 -86.676
3843.667 5.957e-3 -86.098 1 0.341 1 0.341 5.957e-3 -86.098
3868.625 4.626e-3 -85.147 1 0.264 1 0.264 4.626e-3 -85.147
3893.583 3.305e-3 -83.383 1 0.188 1 0.188 3.305e-3 -83.383
3918.542 2.001e-3 -79.229 1 0.113 1 0.113 2.001e-3 -79.229
3943.5 754.1e-6 -60.572 1 0.038 1 0.038 754.1e-6 -60.572
3968.458 742.9e-6 60.084 1 -0.037 1 -0.037 742.9e-6 60.084
3993.417 1.972e-3 79.074 1 -0.111 1 -0.111 1.972e-3 79.074
4018.375 3.243e-3 83.264 1 -0.185 1 -0.185 3.243e-3 83.264
4043.333 4.514e-3 85.04 1 -0.258 1 -0.258 4.514e-3 85.04
4068.292 5.781e-3 85.999 1 -0.331 1 -0.331 5.781e-3 85.999
4093.25 7.04e-3 86.584 1 -0.403 1 -0.403 7.04e-3 86.584
4118.208 8.293e-3 86.968 1 -0.475 1 -0.475 8.293e-3 86.968
4143.167 9.539e-3 87.231 1 -0.546 1 -0.546 9.539e-3 87.231
4168.125 0.011 87.415 1 -0.617 1 -0.617 0.011 87.415
4193.083 0.012 87.547 1 -0.688 1 -0.688 0.012 87.547
4218.042 0.013 87.64 1 -0.758 1 -0.758 0.013 87.64
4243 0.014 87.705 1 -0.828 1 -0.828 0.014 87.705
4267.958 0.016 87.749 1 -0.897 1 -0.897 0.016 87.749
4292.917 0.017 87.777 0.999 -0.967 0.999 -0.967 0.017 87.777
4317.875 0.018 87.792 0.999 -1.035 0.999 -1.035 0.018 87.792
4342.833 0.019 87.796 0.999 -1.104 0.999 -1.104 0.019 87.796
4367.792 0.02 87.792 0.999 -1.172 0.999 -1.172 0.02 87.792
4392.75 0.022 87.781 0.999 -1.239 0.999 -1.239 0.022 87.781
4417.708 0.023 87.764 0.999 -1.307 0.999 -1.307 0.023 87.764
4442.667 0.024 87.742 0.999 -1.374 0.999 -1.374 0.024 87.742
4467.625 0.025 87.717 0.999 -1.44 0.999 -1.44 0.025 87.717
4492.583 0.026 87.687 0.999 -1.506 0.999 -1.506 0.026 87.687
4517.542 0.027 87.655 0.999 -1.572 0.999 -1.572 0.027 87.655
4542.5 0.029 87.621 0.999 -1.638 0.999 -1.638 0.029 87.621
4567.458 0.03 87.584 0.999 -1.703 0.999 -1.703 0.03 87.584
4592.417 0.031 87.545 0.999 -1.768 0.999 -1.768 0.031 87.545
4617.375 0.032 87.504 0.999 -1.833 0.999 -1.833 0.032 87.504
4642.333 0.033 87.462 0.999 -1.898 0.999 -1.898 0.033 87.462
4667.292 0.034 87.419 0.999 -1.962 0.999 -1.962 0.034 87.419
4692.25 0.035 87.375 0.999 -2.026 0.999 -2.026 0.035 87.375
4717.208 0.036 87.33 0.999 -2.089 0.999 -2.089 0.036 87.33
4742.167 0.038 87.284 0.999 -2.152 0.999 -2.152 0.038 87.284
4767.125 0.039 87.237 0.999 -2.215 0.999 -2.215 0.039 87.237
4792.083 0.04 87.189 0.999 -2.278 0.999 -2.278 0.04 87.189
4817.042 0.041 87.141 0.999 -2.34 0.999 -2.34 0.041 87.141
4842 0.042 87.092 0.999 -2.403 0.999 -2.403 0.042 87.092
4866.958 0.043 87.043 0.999 -2.465 0.999 -2.465 0.043 87.043
4891.917 0.044 86.993 0.999 -2.526 0.999 -2.526 0.044 86.993
4916.875 0.045 86.943 0.999 -2.588 0.999 -2.588 0.045 86.943
4941.833 0.046 86.893 0.999 -2.649 0.999 -2.649 0.046 86.893
4966.792 0.047 86.842 0.999 -2.71 0.999 -2.71 0.047 86.842
4991.75 0.048 86.791 0.998 -2.77 0.998 -2.77 0.048 86.791
5016.708 0.049 86.74 0.998 -2.831 0.998 -2.831 0.049 86.74
5041.667 0.05 86.689 0.998 -2.891 0.998 -2.891 0.05 86.689
5066.625 0.051 86.638 0.998 -2.951 0.998 -2.951 0.051 86.638
5091.583 0.053 86.586 0.998 -3.011 0.998 -3.011 0.053 86.586
5116.542 0.054 86.535 0.998 -3.07 0.998 -3.07 0.054 86.535
5141.5 0.055 86.483 0.998 -3.129 0.998 -3.129 0.055 86.483
5166.458 0.056 86.431 0.998 -3.188 0.998 -3.188 0.056 86.431
5191.417 0.057 86.379 0.998 -3.247 0.998 -3.247 0.057 86.379
5216.375 0.058 86.327 0.998 -3.306 0.998 -3.306 0.058 86.327
5241.333 0.059 86.275 0.998 -3.364 0.998 -3.364 0.059 86.275
5266.292 0.06 86.223 0.998 -3.423 0.998 -3.423 0.06 86.223
5291.25 0.061 86.171 0.998 -3.481 0.998 -3.481 0.061 86.171
5316.208 0.062 86.119 0.998 -3.538 0.998 -3.538 0.062 86.119
5341.167 0.063 86.067 0.998 -3.596 0.998 -3.596 0.063 86.067
5366.125 0.064 86.015 0.998 -3.653 0.998 -3.653 0.064 86.015
5391.083 0.065 85.963 0.998 -3.711 0.998 -3.711 0.065 85.963
5416.042 0.066 85.91 0.997 -3.768 0.997 -3.768 0.066 85.91
5441 0.067 85.858 0.997 -3.824 0.997 -3.824 0.067 85.858
5465.958 0.068 85.806 0.997 -3.881 0.997 -3.881 0.068 85.806
5490.917 0.069 85.755 0.997 -3.937 0.997 -3.937 0.069 85.755
5515.875 0.07 85.703 0.997 -3.994 0.997 -3.994 0.07 85.703
5540.833 0.071 85.651 0.997 -4.05 0.997 -4.05 0.071 85.651
5565.792 0.072 85.599 0.997 -4.106 0.997 -4.106 0.072 85.599
5590.75 0.073 85.547 0.997 -4.161 0.997 -4.161 0.073 85.547
5615.708 0.074 85.495 0.997 -4.217 0.997 -4.217 0.074 85.495
5640.667 0.074 85.444 0.997 -4.272 0.997 -4.272 0.074 85.444
5665.625 0.075 85.392 0.997 -4.328 0.997 -4.328 0.075 85.392
5690.583 0.076 85.341 0.997 -4.383 0.997 -4.383 0.076 85.341
5715.542 0.077 85.289 0.997 -4.437 0.997 -4.437 0.077 85.289
5740.5 0.078 85.238 0.997 -4.492 0.997 -4.492 0.078 85.238
5765.458 0.079 85.187 0.996 -4.547 0.996 -4.547 0.079 85.187
5790.417 0.08 85.135 0.996 -4.601 0.996 -4.601 0.08 85.135
5815.375 0.081 85.084 0.996 -4.655 0.996 -4.655 0.081 85.084
5840.333 0.082 85.033 0.996 -4.71 0.996 -4.71 0.082 85.033
5865.292 0.083 84.982 0.996 -4.763 0.996 -4.763 0.083 84.982
5890.25 0.084 84.931 0.996 -4.817 0.996 -4.817 0.084 84.931
5915.208 0.085 84.88 0.996 -4.871 0.996 -4.871 0.085 84.88
5940.167 0.086 84.83 0.996 -4.924 0.996 -4.924 0.086 84.83
5965.125 0.087 84.779 0.996 -4.978 0.996 -4.978 0.087 84.779
5990.083 0.088 84.728 0.996 -5.031 0.996 -5.031 0.088 84.728
6015.042 0.089 84.678 0.996 -5.084 0.996 -5.084 0.089 84.678
6040 0.09 84.627 0.996 -5.137 0.996 -5.137 0.09 84.627
6064.958 0.09 84.577 0.996 -5.19 0.996 -5.19 0.09 84.577
6089.917 0.091 84.527 0.995 -5.242 0.995 -5.242 0.091 84.527
6114.875 0.092 84.476 0.995 -5.295 0.995 -5.295 0.092 84.476
6139.833 0.093 84.426 0.995 -5.347 0.995 -5.347 0.093 84.426
6164.792 0.094 84.376 0.995 -5.399 0.995 -5.399 0.094 84.376
6189.75 0.095 84.326 0.995 -5.451 0.995 -5.451 0.095 84.326
6214.708 0.096 84.277 0.995 -5.503 0.995 -5.503 0.096 84.277
6239.667 0.097 84.227 0.995 -5.555 0.995 -5.555 0.097 84.227
6264.625 0.098 84.177 0.995 -5.607 0.995 -5.607 0.098 84.177
6289.583 0.099 84.128 0.995 -5.658 0.995 -5.658 0.099 84.128
6314.542 0.099 84.078 0.995 -5.71 0.995 -5.71 0.099 84.078
6339.5 0.1 84.029 0.995 -5.761 0.995 -5.761 0.1 84.029
6364.458 0.101 83.979 0.994 -5.812 0.994 -5.812 0.101 83.979
6389.417 0.102 83.93 0.994 -5.864 0.994 -5.864 0.102 83.93
6414.375 0.103 83.881 0.994 -5.914 0.994 -5.914 0.103 83.881
6439.333 0.104 83.832 0.994 -5.965 0.994 -5.965 0.104 83.832
6464.292 0.105 83.783 0.994 -6.016 0.994 -6.016 0.105 83.783
6489.25 0.106 83.734 0.994 -6.067 0.994 -6.067 0.106 83.734
6514.208 0.107 83.685 0.994 -6.117 0.994 -6.117 0.107 83.685
6539.167 0.107 83.636 0.994 -6.168 0.994 -6.168 0.107 83.636
6564.125 0.108 83.588 0.994 -6.218 0.994 -6.218 0.108 83.588
6589.083 0.109 83.539 0.994 -6.268 0.994 -6.268 0.109 83.539
6614.042 0.11 83.49 0.994 -6.318 0.994 -6.318 0.11 83.49
6639 0.111 83.442 0.993 -6.368 0.993 -6.368 0.111 83.442
6663.958 0.112 83.394 0.993 -6.418 0.993 -6.418 0.112 83.394
6688.917 0.113 83.345 0.993 -6.468 0.993 -6.468 0.113 83.345
6713.875 0.114 83.297 0.993 -6.517 0.993 -6.517 0.114 83.297
6738.833 0.114 83.249 0.993 -6.567 0.993 -6.567 0.114 83.249
6763.792 0.115 83.201 0.993 -6.616 0.993 -6.616 0.115 83.201
6788.75 0.116 83.153 0.993 -6.665 0.993 -6.665 0.116 83.153
6813.708 0.117 83.105 0.993 -6.715 0.993 -6.715 0.117 83.105
6838.667 0.118 83.057 0.993 -6.764 0.993 -6.764 0.118 83.057
6863.625 0.119 83.01 0.993 -6.813 0.993 -6.813 0.119 83.01
6888.583 0.119 82.962 0.992 -6.862 0.992 -6.862 0.119 82.962
6913.542 0.12 82.915 0.992 -6.91 0.992 -6.91 0.12 82.915
6938.5 0.121 82.867 0.992 -6.959 0.992 -6.959 0.121 82.867
6963.458 0.122 82.82 0.992 -7.008 0.992 -7.008 0.122 82.82
6988.417 0.123 82.772 0.992 -7.056 0.992 -7.056 0.123 82.772
7013.375 0.124 82.725 0.992 -7.105 0.992 -7.105 0.124 82.725
7038.333 0.125 82.678 0.992 -7.153 0.992 -7.153 0.125 82.678
7063.292 0.125 82.631 0.992 -7.201 0.992 -7.201 0.125 82.631
7088.25 0.126 82.584 0.992 -7.249 0.992 -7.249 0.126 82.584
7113.208 0.127 82.537 0.992 -7.298 0.992 -7.298 0.127 82.537
7138.167 0.128 82.49 0.991 -7.345 0.991 -7.345 0.128 82.49
7163.125 0.129 82.443 0.991 -7.393 0.991 -7.393 0.129 82.443
7188.083 0.13 82.396 0.991 -7.441 0.991 -7.441 0.13 82.396
7213.042 0.13 82.35 0.991 -7.489 0.991 -7.489 0.13 82.35
7238 0.131 82.303 0.991 -7.536 0.991 -7.536 0.131 82.303
7262.958 0.132 82.257 0.991 -7.584 0.991 -7.584 0.132 82.257
7287.917 0.133 82.21 0.991 -7.631 0.991 -7.631 0.133 82.21
7312.875 0.134 82.164 0.991 -7.679 0.991 -7.679 0.134 82.164
7337.833 0.134 82.118 0.991 -7.726 0.991 -7.726 0.134 82.118
7362.792 0.135 82.071 0.99 -7.773 0.99 -7.773 0.135 82.071
7387.75 0.136 82.025 0.99 -7.82 0.99 -7.82 0.136 82.025
7412.708 0.137 81.979 0.99 -7.867 0.99 -7.867 0.137 81.979
7437.667 0.138 81.933 0.99 -7.914 0.99 -7.914 0.138 81.933
7462.625 0.139 81.887 0.99 -7.961 0.99 -7.961 0.139 81.887
7487.583 0.139 81.841 0.99 -8.008 0.99 -8.008 0.139 81.841
7512.542 0.14 81.795 0.99 -8.055 0.99 -8.055 0.14 81.795
7537.5 0.141 81.75 0.99 -8.101 0.99 -8.101 0.141 81.75
7562.458 0.142 81.704 0.99 -8.148 0.99 -8.148 0.142 81.704
7587.417 0.143 81.658 0.989 -8.194 0.989 -8.194 0.143 81.658
7612.375 0.143 81.613 0.989 -8.241 0.989 -8.241 0.143 81.613
7637.333 0.144 81.567 0.989 -8.287 0.989 -8.287 0.144 81.567
7662.292 0.145 81.522 0.989 -8.333 0.989 -8.333 0.145 81.522
7687.25 0.146 81.476 0.989 -8.38 0.989 -8.38 0.146 81.476
7712.208 0.147 81.431 0.989 -8.426 0.989 -8.426 0.147 81.431
7737.167 0.147 81.386 0.989 -8.472 0.989 -8.472 0.147 81.386
7762.125 0.148 81.341 0.989 -8.518 0.989 -8.518 0.148 81.341
7787.083 0.149 81.296 0.988 -8.564 0.988 -8.564 0.149 81.296
7812.042 0.15 81.25 0.988 -8.609 0.988 -8.609 0.15 81.25
7837 0.15 81.205 0.988 -8.655 0.988 -8.655 0.15 81.205
7861.958 0.151 81.161 0.988 -8.701 0.988 -8.701 0.151 81.161
7886.917 0.152 81.116 0.988 -8.746 0.988 -8.746 0.152 81.116
7911.875 0.153 81.071 0.988 -8.792 0.988 -8.792 0.153 81.071
7936.833 0.154 81.026 0.988 -8.837 0.988 -8.837 0.154 81.026
7961.792 0.154 80.981 0.988 -8.883 0.988 -8.883 0.154 80.981
7986.75 0.155 80.937 0.988 -8.928 0.988 -8.928 0.155 80.937
8011.708 0.156 80.892 0.987 -8.973 0.987 -8.973 0.156 80.892
8036.667 0.157 80.848 0.987 -9.019 0.987 -9.019 0.157 80.848
8061.625 0.158 80.803 0.987 -9.064 0.987 -9.064 0.158 80.803
8086.583 0.158 80.759 0.987 -9.109 0.987 -9.109 0.158 80.759
8111.542 0.159 80.714 0.987 -9.154 0.987 -9.154 0.159 80.714
8136.5 0.16 80.67 0.987 -9.199 0.987 -9.199 0.16 80.67
8161.458 0.161 80.626 0.987 -9.244 0.987 -9.244 0.161 80.626
8186.417 0.161 80.582 0.987 -9.289 0.987 -9.289 0.161 80.582
8211.375 0.162 80.538 0.986 -9.333 0.986 -9.333 0.162 80.538
8236.333 0.163 80.494 0.986 -9.378 0.986 -9.378 0.163 80.494
8261.292 0.164 80.45 0.986 -9.423 0.986 -9.423 0.164 80.45
8286.25 0.164 80.406 0.986 -9.467 0.986 -9.467 0.164 80.406
8311.208 0.165 80.362 0.986 -9.512 0.986 -9.512 0.165 80.362
8336.167 0.166 80.318 0.986 -9.556 0.986 -9.556 0.166 80.318
