# MHZ S MA R 50

50 0.999 -2.339 0.041 87.657 0.041 87.657 0.999 -2.339
74.958 0.998 -3.504 0.061 86.489 0.061 86.489 0.998 -3.504
99.917 0.997 -4.667 0.081 85.325 0.081 85.325 0.997 -4.667
124.875 0.995 -5.826 0.102 84.163 0.102 84.163 0.995 -5.826
149.833 0.993 -6.98 0.122 83.007 0.122 83.007 0.993 -6.98
174.792 0.99 -8.13 0.141 81.855 0.141 81.855 0.99 -8.13
199.75 0.987 -9.273 0.161 80.709 0.161 80.709 0.987 -9.273
224.708 0.983 -10.41 0.181 79.57 0.181 79.57 0.983 -10.41
249.667 0.98 -11.54 0.2 78.439 0.2 78.439 0.98 -11.54
274.625 0.976 -12.661 0.219 77.316 0.219 77.316 0.976 -12.661
299.583 0.971 -13.773 0.238 76.201 0.238 76.201 0.971 -13.773
324.542 0.966 -14.875 0.257 75.097 0.257 75.097 0.966 -14.875
349.5 0.961 -15.968 0.275 74.002 0.275 74.002 0.961 -15.968
374.458 0.956 -17.049 0.293 72.918 0.293 72.918 0.956 -17.049
399.417 0.95 -18.12 0.311 71.846 0.311 71.846 0.95 -18.12
424.375 0.944 -19.178 0.329 70.785 0.329 70.785 0.944 -19.178
449.333 0.938 -20.225 0.346 69.736 0.346 69.736 0.938 -20.225
474.292 0.932 -21.259 0.363 68.7 0.363 68.7 0.932 -21.259
499.25 0.925 -22.28 0.379 67.677 0.379 67.677 0.925 -22.28
524.208 0.918 -23.287 0.395 66.667 0.395 66.667 0.918 -23.287
549.167 0.911 -24.281 0.411 65.671 0.411 65.671 0.911 -24.281
574.125 0.904 -25.262 0.427 64.688 0.427 64.688 0.904 -25.262
599.083 0.897 -26.228 0.442 63.72 0.442 63.72 0.897 -26.228
624.042 0.889 -27.18 0.457 62.765 0.457 62.765 0.889 -27.18
649 0.882 -28.118 0.471 61.826 0.471 61.826 0.882 -28.118
673.958 0.874 -29.041 0.485 60.9 0.485 60.9 0.874 -29.041
698.917 0.866 -29.95 0.499 59.989 0.499 59.989 0.866 -29.95
723.875 0.858 -30.844 0.513 59.093 0.513 59.093 0.858 -30.844
748.833 0.85 -31.724 0.526 58.211 0.526 58.211 0.85 -31.724
773.792 0.842 -32.589 0.539 57.344 0.539 57.344 0.842 -32.589
798.75 0.834 -33.439 0.551 56.491 0.551 56.491 0.834 -33.439
823.708 0.826 -34.275 0.563 55.653 0.563 55.653 0.826 -34.275
848.667 0.817 -35.097 0.575 54.829 0.575 54.829 0.817 -35.097
873.625 0.809 -35.904 0.586 54.019 0.586 54.019 0.809 -35.904
898.583 0.801 -36.697 0.598 53.224 0.598 53.224 0.801 -36.697
923.542 0.793 -37.476 0.608 52.443 0.608 52.443 0.793 -37.476
948.5 0.785 -38.241 0.619 51.675 0.619 51.675 0.785 -38.241
973.458 0.776 -38.992 0.629 50.922 0.629 50.922 0.776 -38.992
998.417 0.768 -39.73 0.639 50.182 0.639 50.182 0.768 -39.73
1023.375 0.76 -40.454 0.649 49.455 0.649 49.455 0.76 -40.454
1048.333 0.752 -41.165 0.658 48.742 0.658 48.742 0.752 -41.165
1073.292 0.744 -41.863 0.667 48.042 0.667 48.042 0.744 -41.863
1098.25 0.736 -42.548 0.676 47.354 0.676 47.354 0.736 -42.548
1123.208 0.728 -43.221 0.685 46.68 0.685 46.68 0.728 -43.221
1148.167 0.72 -43.881 0.693 46.017 0.693 46.017 0.72 -43.881
1173.125 0.712 -44.528 0.701 45.367 0.701 45.367 0.712 -44.528
1198.083 0.704 -45.164 0.709 44.729 0.709 44.729 0.704 -45.164
1223.042 0.696 -45.788 0.717 44.103 0.717 44.103 0.696 -45.788
1248 0.688 -46.4 0.724 43.488 0.724 43.488 0.688 -46.4
1272.958 0.681 -47.001 0.731 42.885 0.731 42.885 0.681 -47.001
1297.917 0.673 -47.591 0.738 42.292 0.738 42.292 0.673 -47.591
1322.875 0.665 -48.17 0.745 41.711 0.745 41.711 0.665 -48.17
1347.833 0.658 -48.739 0.752 41.14 0.752 41.14 0.658 -48.739
1372.792 0.651 -49.296 0.758 40.58 0.758 40.58 0.651 -49.296
1397.75 0.643 -49.844 0.764 40.03 0.764 40.03 0.643 -49.844
1422.708 0.636 -50.382 0.77 39.49 0.77 39.49 0.636 -50.382
1447.667 0.629 -50.909 0.776 38.96 0.776 38.96 0.629 -50.909
1472.625 0.622 -51.427 0.782 38.439 0.782 38.439 0.622 -51.427
1497.583 0.615 -51.936 0.787 37.928 0.787 37.928 0.615 -51.936
1522.542 0.608 -52.436 0.793 37.426 0.793 37.426 0.608 -52.436
1547.5 0.601 -52.926 0.798 36.933 0.798 36.933 0.601 -52.926
1572.458 0.594 -53.408 0.803 36.449 0.803 36.449 0.594 -53.408
1597.417 0.587 -53.881 0.808 35.973 0.808 35.973 0.587 -53.881
1622.375 0.581 -54.346 0.813 35.505 0.813 35.505 0.581 -54.346
1647.333 0.574 -54.803 0.817 35.046 0.817 35.046 0.574 -54.803
1672.292 0.568 -55.251 0.822 34.595 0.822 34.595 0.568 -55.251
1697.25 0.561 -55.692 0.826 34.152 0.826 34.152 0.561 -55.692
1722.208 0.555 -56.125 0.83 33.716 0.83 33.716 0.555 -56.125
1747.167 0.549 -56.551 0.834 33.288 0.834 33.288 0.549 -56.551
1772.125 0.543 -56.969 0.838 32.867 0.838 32.867 0.543 -56.969
1797.083 0.537 -57.38 0.842 32.453 0.842 32.453 0.537 -57.38
1822.042 0.531 -57.784 0.846 32.047 0.846 32.047 0.531 -57.784
1847 0.525 -58.182 0.85 31.647 0.85 31.647 0.525 -58.182
1871.958 0.519 -58.572 0.853 31.253 0.853 31.253 0.519 -58.572
1896.917 0.513 -58.957 0.857 30.866 0.857 30.866 0.513 -58.957
1921.875 0.507 -59.334 0.86 30.486 0.86 30.486 0.507 -59.334
1946.833 0.502 -59.706 0.863 30.112 0.863 30.112 0.502 -59.706
1971.792 0.496 -60.071 0.867 29.743 0.867 29.743 0.496 -60.071
1996.75 0.491 -60.431 0.87 29.381 0.87 29.381 0.491 -60.431
2021.708 0.485 -60.785 0.873 29.024 0.873 29.024 0.485 -60.785
2046.667 0.48 -61.133 0.876 28.674 0.876 28.674 0.48 -61.133
2071.625 0.475 -61.476 0.879 28.328 0.879 28.328 0.475 -61.476
2096.583 0.469 -61.813 0.881 27.988 0.881 27.988 0.469 -61.813
2121.542 0.464 -62.145 0.884 27.653 0.884 27.653 0.464 -62.145
2146.5 0.459 -62.471 0.887 27.324 0.887 27.324 0.459 -62.471
2171.458 0.454 -62.793 0.889 26.999 0.889 26.999 0.454 -62.793
2196.417 0.449 -63.11 0.892 26.68 0.892 26.68 0.449 -63.11
2221.375 0.444 -63.422 0.894 26.365 0.894 26.365 0.444 -63.422
2246.333 0.439 -63.729 0.897 26.055 0.897 26.055 0.439 -63.729
2271.292 0.434 -64.031 0.899 25.749 0.899 25.749 0.434 -64.031
2296.25 0.43 -64.329 0.901 25.448 0.901 25.448 0.43 -64.329
2321.208 0.425 -64.623 0.904 25.152 0.904 25.152 0.425 -64.623
2346.167 0.42 -64.912 0.906 24.859 0.906 24.859 0.42 -64.912
2371.125 0.416 -65.197 0.908 24.571 0.908 24.571 0.416 -65.197
2396.083 0.411 -65.478 0.91 24.287 0.91 24.287 0.411 -65.478
2421.042 0.407 -65.755 0.912 24.007 0.912 24.007 0.407 -65.755
2446 0.402 -66.028 0.914 23.731 0.914 23.731 0.402 -66.028
2470.958 0.398 -66.297 0.916 23.459 0.916 23.459 0.398 -66.297
2495.917 0.394 -66.563 0.918 23.19 0.918 23.19 0.394 -66.563
2520.875 0.39 -66.824 0.919 22.925 0.919 22.925 0.39 -66.824
2545.833 0.385 -67.082 0.921 22.664 0.921 22.664 0.385 -67.082
2570.792 0.381 -67.337 0.923 22.406 0.923 22.406 0.381 -67.337
2595.75 0.377 -67.588 0.924 22.152 0.924 22.152 0.377 -67.588
2620.708 0.373 -67.835 0.926 21.901 0.926 21.901 0.373 -67.835
2645.667 0.369 -68.08 0.928 21.654 0.928 21.654 0.369 -68.08
2670.625 0.365 -68.321 0.929 21.409 0.929 21.409 0.365 -68.321
2695.583 0.361 -68.558 0.931 21.168 0.931 21.168 0.361 -68.558
2720.542 0.357 -68.793 0.932 20.93 0.932 20.93 0.357 -68.793
2745.5 0.353 -69.025 0.934 20.695 0.934 20.695 0.353 -69.025
2770.458 0.35 -69.253 0.935 20.463 0.935 20.463 0.35 -69.253
2795.417 0.346 -69.479 0.937 20.234 0.937 20.234 0.346 -69.479
2820.375 0.342 -69.702 0.938 20.007 0.938 20.007 0.342 -69.702
2845.333 0.338 -69.922 0.939 19.784 0.939 19.784 0.338 -69.922
2870.292 0.335 -70.139 0.941 19.563 0.941 19.563 0.335 -70.139
2895.25 0.331 -70.354 0.942 19.345 0.942 19.345 0.331 -70.354
2920.208 0.328 -70.565 0.943 19.129 0.943 19.129 0.328 -70.565
2945.167 0.324 -70.775 0.944 18.917 0.944 18.917 0.324 -70.775
2970.125 0.321 -70.981 0.945 18.706 0.945 18.706 0.321 -70.981
2995.083 0.317 -71.186 0.947 18.498 0.947 18.498 0.317 -71.186
3020.042 0.314 -71.387 0.948 18.293 0.948 18.293 0.314 -71.387
3045 0.311 -71.587 0.949 18.089 0.949 18.089 0.311 -71.587
3069.958 0.307 -71.783 0.95 17.889 0.95 17.889 0.307 -71.783
3094.917 0.304 -71.978 0.951 17.69 0.951 17.69 0.304 -71.978
3119.875 0.301 -72.17 0.952 17.494 0.952 17.494 0.301 -72.17
3144.833 0.297 -72.361 0.953 17.3 0.953 17.3 0.297 -72.361
3169.792 0.294 -72.548 0.954 17.108 0.954 17.108 0.294 -72.548
3194.75 0.291 -72.734 0.955 16.918 0.955 16.918 0.291 -72.734
3219.708 0.288 -72.918 0.956 16.73 0.956 16.73 0.288 -72.918
3244.667 0.285 -73.099 0.957 16.544 0.957 16.544 0.285 -73.099
3269.625 0.282 -73.279 0.958 16.361 0.958 16.361 0.282 -73.279
3294.583 0.279 -73.456 0.959 16.179 0.959 16.179 0.279 -73.456
3319.542 0.276 -73.632 0.959 15.999 0.959 15.999 0.276 -73.632
3344.5 0.273 -73.806 0.96 15.821 0.96 15.821 0.273 -73.806
3369.458 0.27 -73.977 0.961 15.645 0.961 15.645 0.27 -73.977
3394.417 0.267 -74.147 0.962 15.47 0.962 15.47 0.267 -74.147
3419.375 0.264 -74.315 0.963 15.298 0.963 15.298 0.264 -74.315
3444.333 0.261 -74.482 0.964 15.127 0.964 15.127 0.261 -74.482
3469.292 0.258 -74.646 0.964 14.958 0.964 14.958 0.258 -74.646
3494.25 0.255 -74.809 0.965 14.79 0.965 14.79 0.255 -74.809
3519.208 0.252 -74.97 0.966 14.625 0.966 14.625 0.252 -74.97
3544.167 0.25 -75.129 0.967 14.461 0.967 14.461 0.25 -75.129
3569.125 0.247 -75.287 0.967 14.298 0.967 14.298 0.247 -75.287
3594.083 0.244 -75.443 0.968 14.137 0.968 14.137 0.244 -75.443
3619.042 0.242 -75.597 0.969 13.978 0.969 13.978 0.242 -75.597
3644 0.239 -75.75 0.969 13.82 0.969 13.82 0.239 -75.75
3668.958 0.236 -75.901 0.97 13.663 0.97 13.663 0.236 -75.901
3693.917 0.234 -76.051 0.971 13.508 0.971 13.508 0.234 -76.051
3718.875 0.231 -76.199 0.971 13.355 0.971 13.355 0.231 -76.199
3743.833 0.228 -76.346 0.972 13.203 0.972 13.203 0.228 -76.346
3768.792 0.226 -76.491 0.972 13.052 0.972 13.052 0.226 -76.491
3793.75 0.223 -76.635 0.973 12.903 0.973 12.903 0.223 -76.635
3818.708 0.221 -76.778 0.974 12.755 0.974 12.755 0.221 -76.778
3843.667 0.218 -76.919 0.974 12.608 0.974 12.608 0.218 -76.919
3868.625 0.216 -77.059 0.975 12.463 0.975 12.463 0.216 -77.059
3893.583 0.213 -77.197 0.975 12.319 0.975 12.319 0.213 -77.197
3918.542 0.211 -77.334 0.976 12.176 0.976 12.176 0.211 -77.334
3943.5 0.208 -77.47 0.976 12.034 0.976 12.034 0.208 -77.47
3968.458 0.206 -77.604 0.977 11.894 0.977 11.894 0.206 -77.604
3993.417 0.204 -77.737 0.977 11.754 0.977 11.754 0.204 -77.737
4018.375 0.201 -77.869 0.978 11.616 0.978 11.616 0.201 -77.869
4043.333 0.199 -78 0.978 11.479 0.978 11.479 0.199 -78
4068.292 0.197 -78.129 0.979 11.344 0.979 11.344 0.197 -78.129
4093.25 0.194 -78.257 0.979 11.209 0.979 11.209 0.194 -78.257
4118.208 0.192 -78.384 0.98 11.075 0.98 11.075 0.192 -78.384
4143.167 0.19 -78.51 0.98 10.943 0.98 10.943 0.19 -78.51
4168.125 0.188 -78.634 0.98 10.812 0.98 10.812 0.188 -78.634
4193.083 0.185 -78.758 0.981 10.681 0.981 10.681 0.185 -78.758
4218.042 0.183 -78.88 0.981 10.552 0.981 10.552 0.183 -78.88
4243 0.181 -79.001 0.982 10.424 0.982 10.424 0.181 -79.001
4267.958 0.179 -79.121 0.982 10.296 0.982 10.296 0.179 -79.121
4292.917 0.177 -79.24 0.982 10.17 0.982 10.17 0.177 -79.24
4317.875 0.174 -79.358 0.983 10.045 0.983 10.045 0.174 -79.358
4342.833 0.172 -79.475 0.983 9.92 0.983 9.92 0.172 -79.475
4367.792 0.17 -79.59 0.984 9.797 0.984 9.797 0.17 -79.59
4392.75 0.168 -79.705 0.984 9.674 0.984 9.674 0.168 -79.705
4417.708 0.166 -79.819 0.984 9.553 0.984 9.553 0.166 -79.819
4442.667 0.164 -79.931 0.985 9.432 0.985 9.432 0.164 -79.931
4467.625 0.162 -80.043 0.985 9.312 0.985 9.312 0.162 -80.043
4492.583 0.16 -80.153 0.985 9.193 0.985 9.193 0.16 -80.153
4517.542 0.158 -80.263 0.986 9.075 0.986 9.075 0.158 -80.263
4542.5 0.156 -80.371 0.986 8.958 0.986 8.958 0.156 -80.371
4567.458 0.154 -80.479 0.986 8.841 0.986 8.841 0.154 -80.479
4592.417 0.152 -80.585 0.987 8.726 0.987 8.726 0.152 -80.585
4617.375 0.15 -80.69 0.987 8.611 0.987 8.611 0.15 -80.69
4642.333 0.148 -80.795 0.987 8.497 0.987 8.497 0.148 -80.795
4667.292 0.146 -80.898 0.987 8.384 0.987 8.384 0.146 -80.898
4692.25 0.144 -81.001 0.988 8.271 0.988 8.271 0.144 -81.001
4717.208 0.142 -81.103 0.988 8.159 0.988 8.159 0.142 -81.103
4742.167 0.14 -81.203 0.988 8.048 0.988 8.048 0.14 -81.203
4767.125 0.138 -81.303 0.989 7.938 0.989 7.938 0.138 -81.303
4792.083 0.136 -81.402 0.989 7.829 0.989 7.829 0.136 -81.402
4817.042 0.134 -81.499 0.989 7.72 0.989 7.72 0.134 -81.499
4842 0.132 -81.596 0.989 7.612 0.989 7.612 0.132 -81.596
4866.958 0.131 -81.692 0.99 7.505 0.99 7.505 0.131 -81.692
4891.917 0.129 -81.787 0.99 7.398 0.99 7.398 0.129 -81.787
4916.875 0.127 -81.881 0.99 7.292 0.99 7.292 0.127 -81.881
4941.833 0.125 -81.974 0.99 7.187 0.99 7.187 0.125 -81.974
4966.792 0.123 -82.066 0.991 7.082 0.991 7.082 0.123 -82.066
4991.75 0.122 -82.157 0.991 6.978 0.991 6.978 0.122 -82.157
5016.708 0.12 -82.247 0.991 6.875 0.991 6.875 0.12 -82.247
5041.667 0.118 -82.337 0.991 6.772 0.991 6.772 0.118 -82.337
5066.625 0.116 -82.425 0.991 6.67 0.991 6.67 0.116 -82.425
5091.583 0.114 -82.512 0.992 6.569 0.992 6.569 0.114 -82.512
5116.542 0.113 -82.599 0.992 6.468 0.992 6.468 0.113 -82.599
5141.5 0.111 -82.684 0.992 6.368 0.992 6.368 0.111 -82.684
5166.458 0.109 -82.769 0.992 6.268 0.992 6.268 0.109 -82.769
5191.417 0.107 -82.852 0.992 6.169 0.992 6.169 0.107 -82.852
5216.375 0.106 -82.935 0.993 6.07 0.993 6.07 0.106 -82.935
5241.333 0.104 -83.016 0.993 5.973 0.993 5.973 0.104 -83.016
5266.292 0.102 -83.096 0.993 5.875 0.993 5.875 0.102 -83.096
5291.25 0.101 -83.176 0.993 5.779 0.993 5.779 0.101 -83.176
5316.208 0.099 -83.254 0.993 5.682 0.993 5.682 0.099 -83.254
5341.167 0.097 -83.332 0.993 5.587 0.993 5.587 0.097 -83.332
5366.125 0.096 -83.408 0.994 5.491 0.994 5.491 0.096 -83.408
5391.083 0.094 -83.483 0.994 5.397 0.994 5.397 0.094 -83.483
5416.042 0.092 -83.557 0.994 5.303 0.994 5.303 0.092 -83.557
5441 0.091 -83.63 0.994 5.209 0.994 5.209 0.091 -83.63
5465.958 0.089 -83.702 0.994 5.116 0.994 5.116 0.089 -83.702
5490.917 0.088 -83.773 0.994 5.024 0.994 5.024 0.088 -83.773
5515.875 0.086 -83.842 0.994 4.932 0.994 4.932 0.086 -83.842
5540.833 0.084 -83.911 0.995 4.84 0.995 4.84 0.084 -83.911
5565.792 0.083 -83.978 0.995 4.749 0.995 4.749 0.083 -83.978
5590.75 0.081 -84.043 0.995 4.658 0.995 4.658 0.081 -84.043
5615.708 0.08 -84.108 0.995 4.568 0.995 4.568 0.08 -84.108
5640.667 0.078 -84.171 0.995 4.478 0.995 4.478 0.078 -84.171
5665.625 0.077 -84.232 0.995 4.389 0.995 4.389 0.077 -84.232
5690.583 0.075 -84.293 0.995 4.3 0.995 4.3 0.075 -84.293
5715.542 0.073 -84.351 0.995 4.212 0.995 4.212 0.073 -84.351
5740.5 0.072 -84.408 0.996 4.124 0.996 4.124 0.072 -84.408
5765.458 0.07 -84.464 0.996 4.037 0.996 4.037 0.07 -84.464
5790.417 0.069 -84.518 0.996 3.95 0.996 3.95 0.069 -84.518
5815.375 0.067 -84.57 0.996 3.863 0.996 3.863 0.067 -84.57
5840.333 0.066 -84.62 0.996 3.777 0.996 3.777 0.066 -84.62
5865.292 0.064 -84.669 0.996 3.691 0.996 3.691 0.064 -84.669
5890.25 0.063 -84.715 0.996 3.606 0.996 3.606 0.063 -84.715
5915.208 0.061 -84.76 0.996 3.521 0.996 3.521 0.061 -84.76
5940.167 0.06 -84.802 0.996 3.437 0.996 3.437 0.06 -84.802
5965.125 0.059 -84.842 0.996 3.353 0.996 3.353 0.059 -84.842
5990.083 0.057 -84.879 0.997 3.269 0.997 3.269 0.057 -84.879
6015.042 0.056 -84.914 0.997 3.186 0.997 3.186 0.056 -84.914
6040 0.054 -84.946 0.997 3.103 0.997 3.103 0.054 -84.946
6064.958 0.053 -84.975 0.997 3.02 0.997 3.02 0.053 -84.975
6089.917 0.051 -85.001 0.997 2.938 0.997 2.938 0.051 -85.001
6114.875 0.05 -85.024 0.997 2.856 0.997 2.856 0.05 -85.024
6139.833 0.048 -85.043 0.997 2.775 0.997 2.775 0.048 -85.043
6164.792 0.047 -85.058 0.997 2.694 0.997 2.694 0.047 -85.058
6189.75 0.046 -85.069 0.997 2.613 0.997 2.613 0.046 -85.069
6214.708 0.044 -85.076 0.997 2.533 0.997 2.533 0.044 -85.076
6239.667 0.043 -85.078 0.997 2.453 0.997 2.453 0.043 -85.078
6264.625 0.041 -85.075 0.997 2.373 0.997 2.373 0.041 -85.075
6289.583 0.04 -85.066 0.997 2.294 0.997 2.294 0.04 -85.066
6314.542 0.039 -85.051 0.997 2.215 0.997 2.215 0.039 -85.051
6339.5 0.037 -85.029 0.997 2.136 0.997 2.136 0.037 -85.029
6364.458 0.036 -85 0.998 2.058 0.998 2.058 0.036 -85
6389.417 0.035 -84.962 0.998 1.98 0.998 1.98 0.035 -84.962
6414.375 0.033 -84.915 0.998 1.903 0.998 1.903 0.033 -84.915
6439.333 0.032 -84.858 0.998 1.825 0.998 1.825 0.032 -84.858
6464.292 0.031 -84.789 0.998 1.748 0.998 1.748 0.031 -84.789
6489.25 0.029 -84.707 0.998 1.672 0.998 1.672 0.029 -84.707
6514.208 0.028 -84.611 0.998 1.595 0.998 1.595 0.028 -84.611
6539.167 0.027 -84.497 0.998 1.519 0.998 1.519 0.027 -84.497
6564.125 0.025 -84.365 0.998 1.444 0.998 1.444 0.025 -84.365
6589.083 0.024 -84.21 0.998 1.368 0.998 1.368 0.024 -84.21
6614.042 0.023 -84.029 0.998 1.293 0.998 1.293 0.023 -84.029
6639 0.021 -83.818 0.998 1.218 0.998 1.218 0.021 -83.818
6663.958 0.02 -83.571 0.998 1.144 0.998 1.144 0.02 -83.571
6688.917 0.019 -83.28 0.998 1.069 0.998 1.069 0.019 -83.28
6713.875 0.017 -82.937 0.998 0.995 0.998 0.995 0.017 -82.937
6738.833 0.016 -82.53 0.998 0.922 0.998 0.922 0.016 -82.53
6763.792 0.015 -82.042 0.998 0.848 0.998 0.848 0.015 -82.042
6788.75 0.014 -81.453 0.998 0.775 0.998 0.775 0.014 -81.453
6813.708 0.012 -80.731 0.998 0.702 0.998 0.702 0.012 -80.731
6838.667 0.011 -79.834 0.998 0.63 0.998 0.63 0.011 -79.834
6863.625 9.905e-3 -78.697 0.998 0.558 0.998 0.558 9.905e-3 -78.697
6888.583 8.674e-3 -77.22 0.998 0.486 0.998 0.486 8.674e-3 -77.22
6913.542 7.455e-3 -75.242 0.998 0.414 0.998 0.414 7.455e-3 -75.242
6938.5 6.254e-3 -72.48 0.998 0.342 0.998 0.342 6.254e-3 -72.48
6963.458 5.079e-3 -68.406 0.998 0.271 0.998 0.271 5.079e-3 -68.406
6988.417 3.951e-3 -61.931 0.998 0.2 0.998 0.2 3.951e-3 -61.931
7013.375 2.917e-3 -50.595 0.998 0.129 0.998 0.129 2.917e-3 -50.595
7038.333 2.114e-3 -29.055 0.998 0.059 0.998 0.059 2.114e-3 -29.055
7063.292 1.857e-3 6.076 0.998 -0.011 0.998 -0.011 1.857e-3 6.076
7088.25 2.329e-3 37.437 0.998 -0.081 0.998 -0.081 2.329e-3 37.437
7113.208 3.218e-3 54.822 0.998 -0.151 0.998 -0.151 3.218e-3 54.822
7138.167 4.268e-3 64.139 0.998 -0.22 0.998 -0.22 4.268e-3 64.139
7163.125 5.383e-3 69.644 0.998 -0.29 0.998 -0.29 5.383e-3 69.644
7188.083 6.527e-3 73.205 0.998 -0.359 0.998 -0.359 6.527e-3 73.205
7213.042 7.686e-3 75.669 0.998 -0.427 0.998 -0.427 7.686e-3 75.669
7238 8.852e-3 77.461 0.998 -0.496 0.998 -0.496 8.852e-3 77.461
7262.958 0.01 78.815 0.998 -0.564 0.998 -0.564 0.01 78.815
7287.917 0.011 79.868 0.998 -0.632 0.998 -0.632 0.011 79.868
7312.875 0.012 80.706 0.998 -0.7 0.998 -0.7 0.012 80.706
7337.833 0.014 81.386 0.998 -0.768 0.998 -0.768 0.014 81.386
7362.792 0.015 81.945 0.998 -0.835 0.998 -0.835 0.015 81.945
7387.75 0.016 82.41 0.998 -0.902 0.998 -0.902 0.016 82.41
7412.708 0.017 82.801 0.998 -0.969 0.998 -0.969 0.017 82.801
7437.667 0.018 83.133 0.998 -1.036 0.998 -1.036 0.018 83.133
7462.625 0.019 83.416 0.998 -1.103 0.998 -1.103 0.019 83.416
7487.583 0.02 83.659 0.998 -1.169 0.998 -1.169 0.02 83.659
7512.542 0.022 83.869 0.998 -1.235 0.998 -1.235 0.022 83.869
7537.5 0.023 84.05 0.998 -1.301 0.998 -1.301 0.023 84.05
7562.458 0.024 84.207 0.998 -1.367 0.998 -1.367 0.024 84.207
7587.417 0.025 84.343 0.998 -1.432 0.998 -1.432 0.025 84.343
7612.375 0.026 84.461 0.998 -1.497 0.998 -1.497 0.026 84.461
7637.333 0.027 84.564 0.998 -1.562 0.998 -1.562 0.027 84.564
7662.292 0.028 84.653 0.998 -1.627 0.998 -1.627 0.028 84.653
7687.25 0.03 84.73 0.998 -1.692 0.998 -1.692 0.03 84.73
7712.208 0.031 84.797 0.998 -1.757 0.998 -1.757 0.031 84.797
7737.167 0.032 84.854 0.998 -1.821 0.998 -1.821 0.032 84.854
7762.125 0.033 84.903 0.998 -1.885 0.998 -1.885 0.033 84.903
7787.083 0.034 84.944 0.998 -1.949 0.998 -1.949 0.034 84.944
7812.042 0.035 84.979 0.998 -2.013 0.998 -2.013 0.035 84.979
7837 0.036 85.007 0.997 -2.076 0.997 -2.076 0.036 85.007
7861.958 0.037 85.03 0.997 -2.139 0.997 -2.139 0.037 85.03
7886.917 0.038 85.048 0.997 -2.203 0.997 -2.203 0.038 85.048
7911.875 0.04 85.062 0.997 -2.266 0.997 -2.266 0.04 85.062
7936.833 0.041 85.071 0.997 -2.328 0.997 -2.328 0.041 85.071
7961.792 0.042 85.076 0.997 -2.391 0.997 -2.391 0.042 85.076
7986.75 0.043 85.078 0.997 -2.453 0.997 -2.453 0.043 85.078
8011.708 0.044 85.077 0.997 -2.516 0.997 -2.516 0.044 85.077
8036.667 0.045 85.073 0.997 -2.578 0.997 -2.578 0.045 85.073
8061.625 0.046 85.066 0.997 -2.64 0.997 -2.64 0.046 85.066
8086.583 0.047 85.057 0.997 -2.701 0.997 -2.701 0.047 85.057
8111.542 0.048 85.045 0.997 -2.763 0.997 -2.763 0.048 85.045
8136.5 0.049 85.032 0.997 -2.824 0.997 -2.824 0.049 85.032
8161.458 0.05 85.016 0.997 -2.886 0.997 -2.886 0.05 85.016
8186.417 0.051 84.998 0.997 -2.947 0.997 -2.947 0.051 84.998
