# MHZ S MA R 50

50 0.999 -2.519 0.044 87.477 0.044 87.477 0.999 -2.519
74.958 0.998 -3.773 0.066 86.221 0.066 86.221 0.998 -3.773
99.917 0.996 -5.024 0.088 84.967 0.088 84.967 0.996 -5.024
124.875 0.994 -6.271 0.109 83.719 0.109 83.719 0.994 -6.271
149.833 0.991 -7.512 0.131 82.475 0.131 82.475 0.991 -7.512
174.792 0.988 -8.746 0.152 81.238 0.152 81.238 0.988 -8.746
199.75 0.985 -9.974 0.173 80.009 0.173 80.009 0.985 -9.974
224.708 0.981 -11.192 0.194 78.788 0.194 78.788 0.981 -11.192
249.667 0.977 -12.402 0.215 77.577 0.215 77.577 0.977 -12.402
274.625 0.972 -13.601 0.235 76.375 0.235 76.375 0.972 -13.601
299.583 0.967 -14.789 0.255 75.185 0.255 75.185 0.967 -14.789
324.542 0.961 -15.965 0.275 74.006 0.275 74.006 0.961 -15.965
349.5 0.955 -17.129 0.295 72.84 0.295 72.84 0.955 -17.129
374.458 0.949 -18.28 0.314 71.688 0.314 71.688 0.949 -18.28
399.417 0.943 -19.417 0.332 70.549 0.332 70.549 0.943 -19.417
424.375 0.936 -20.539 0.351 69.424 0.351 69.424 0.936 -20.539
449.333 0.929 -21.647 0.369 68.314 0.369 68.314 0.929 -21.647
474.292 0.922 -22.74 0.387 67.219 0.387 67.219 0.922 -22.74
499.25 0.915 -23.816 0.404 66.14 0.404 66.14 0.915 -23.816
524.208 0.907 -24.877 0.421 65.077 0.421 65.077 0.907 -24.877
549.167 0.899 -25.922 0.437 64.031 0.437 64.031 0.899 -25.922
574.125 0.891 -26.95 0.453 63 0.453 63 0.891 -26.95
599.083 0.883 -27.961 0.469 61.987 0.469 61.987 0.883 -27.961
624.042 0.875 -28.956 0.484 60.99 0.484 60.99 0.875 -28.956
649 0.866 -29.934 0.499 60.01 0.499 60.01 0.866 -29.934
673.958 0.858 -30.894 0.513 59.047 0.513 59.047 0.858 -30.894
698.917 0.849 -31.838 0.528 58.101 0.528 58.101 0.849 -31.838
723.875 0.84 -32.765 0.541 57.172 0.541 57.172 0.84 -32.765
748.833 0.832 -33.675 0.554 56.26 0.554 56.26 0.832 -33.675
773.792 0.823 -34.568 0.567 55.365 0.567 55.365 0.823 -34.568
798.75 0.814 -35.444 0.58 54.486 0.58 54.486 0.814 -35.444
823.708 0.805 -36.304 0.592 53.624 0.592 53.624 0.805 -36.304
848.667 0.796 -37.147 0.604 52.779 0.604 52.779 0.796 -37.147
873.625 0.787 -37.974 0.615 51.95 0.615 51.95 0.787 -37.974
898.583 0.779 -38.785 0.626 51.136 0.626 51.136 0.779 -38.785
923.542 0.77 -39.58 0.637 50.339 0.637 50.339 0.77 -39.58
948.5 0.761 -40.359 0.648 49.558 0.648 49.558 0.761 -40.359
973.458 0.752 -41.123 0.658 48.791 0.658 48.791 0.752 -41.123
998.417 0.744 -41.872 0.667 48.04 0.667 48.04 0.744 -41.872
1023.375 0.735 -42.605 0.677 47.304 0.677 47.304 0.735 -42.605
1048.333 0.726 -43.324 0.686 46.583 0.686 46.583 0.726 -43.324
1073.292 0.718 -44.029 0.695 45.876 0.695 45.876 0.718 -44.029
1098.25 0.709 -44.719 0.704 45.183 0.704 45.183 0.709 -44.719
1123.208 0.701 -45.396 0.712 44.504 0.712 44.504 0.701 -45.396
1148.167 0.693 -46.059 0.72 43.839 0.72 43.839 0.693 -46.059
1173.125 0.684 -46.709 0.728 43.187 0.728 43.187 0.684 -46.709
1198.083 0.676 -47.346 0.735 42.548 0.735 42.548 0.676 -47.346
1223.042 0.668 -47.97 0.743 41.921 0.743 41.921 0.668 -47.97
1248 0.66 -48.581 0.75 41.307 0.75 41.307 0.66 -48.581
1272.958 0.652 -49.181 0.757 40.706 0.757 40.706 0.652 -49.181
1297.917 0.644 -49.768 0.763 40.116 0.763 40.116 0.644 -49.768
1322.875 0.637 -50.344 0.77 39.538 0.77 39.538 0.637 -50.344
1347.833 0.629 -50.908 0.776 38.971 0.776 38.971 0.629 -50.908
1372.792 0.621 -51.461 0.782 38.415 0.782 38.415 0.621 -51.461
1397.75 0.614 -52.004 0.788 37.871 0.788 37.871 0.614 -52.004
1422.708 0.606 -52.535 0.794 37.336 0.794 37.336 0.606 -52.535
1447.667 0.599 -53.057 0.799 36.812 0.799 36.812 0.599 -53.057
1472.625 0.592 -53.568 0.805 36.299 0.805 36.299 0.592 -53.568
1497.583 0.585 -54.07 0.81 35.795 0.81 35.795 0.585 -54.07
1522.542 0.578 -54.562 0.815 35.3 0.815 35.3 0.578 -54.562
1547.5 0.571 -55.044 0.82 34.815 0.82 34.815 0.571 -55.044
1572.458 0.564 -55.518 0.824 34.339 0.824 34.339 0.564 -55.518
1597.417 0.557 -55.982 0.829 33.872 0.829 33.872 0.557 -55.982
1622.375 0.551 -56.438 0.833 33.414 0.833 33.414 0.551 -56.438
1647.333 0.544 -56.885 0.838 32.964 0.838 32.964 0.544 -56.885
1672.292 0.538 -57.324 0.842 32.523 0.842 32.523 0.538 -57.324
1697.25 0.531 -57.755 0.846 32.089 0.846 32.089 0.531 -57.755
1722.208 0.525 -58.178 0.85 31.663 0.85 31.663 0.525 -58.178
1747.167 0.519 -58.593 0.853 31.245 0.853 31.245 0.519 -58.593
1772.125 0.513 -59.001 0.857 30.835 0.857 30.835 0.513 -59.001
1797.083 0.507 -59.402 0.861 30.432 0.861 30.432 0.507 -59.402
1822.042 0.501 -59.795 0.864 30.035 0.864 30.035 0.501 -59.795
1847 0.495 -60.182 0.868 29.646 0.868 29.646 0.495 -60.182
1871.958 0.489 -60.562 0.871 29.264 0.871 29.264 0.489 -60.562
1896.917 0.483 -60.935 0.874 28.888 0.874 28.888 0.483 -60.935
1921.875 0.477 -61.302 0.877 28.518 0.877 28.518 0.477 -61.302
1946.833 0.472 -61.662 0.88 28.155 0.88 28.155 0.472 -61.662
1971.792 0.466 -62.016 0.883 27.798 0.883 27.798 0.466 -62.016
1996.75 0.461 -62.365 0.886 27.447 0.886 27.447 0.461 -62.365
2021.708 0.456 -62.707 0.889 27.102 0.889 27.102 0.456 -62.707
2046.667 0.45 -63.044 0.891 26.762 0.891 26.762 0.45 -63.044
2071.625 0.445 -63.375 0.894 26.428 0.894 26.428 0.445 -63.375
2096.583 0.44 -63.701 0.896 26.099 0.896 26.099 0.44 -63.701
2121.542 0.435 -64.021 0.899 25.776 0.899 25.776 0.435 -64.021
2146.5 0.43 -64.337 0.901 25.458 0.901 25.458 0.43 -64.337
2171.458 0.425 -64.647 0.904 25.144 0.904 25.144 0.425 -64.647
2196.417 0.42 -64.953 0.906 24.836 0.906 24.836 0.42 -64.953
2221.375 0.415 -65.253 0.908 24.532 0.908 24.532 0.415 -65.253
2246.333 0.41 -65.549 0.91 24.234 0.91 24.234 0.41 -65.549
2271.292 0.406 -65.84 0.912 23.939 0.912 23.939 0.406 -65.84
2296.25 0.401 -66.127 0.914 23.649 0.914 23.649 0.401 -66.127
2321.208 0.397 -66.41 0.916 23.364 0.916 23.364 0.397 -66.41
2346.167 0.392 -66.688 0.918 23.083 0.918 23.083 0.392 -66.688
2371.125 0.388 -66.962 0.92 22.805 0.92 22.805 0.388 -66.962
2396.083 0.383 -67.232 0.922 22.532 0.922 22.532 0.383 -67.232
2421.042 0.379 -67.498 0.924 22.263 0.924 22.263 0.379 -67.498
2446 0.375 -67.76 0.926 21.998 0.926 21.998 0.375 -67.76
2470.958 0.37 -68.018 0.927 21.736 0.927 21.736 0.37 -68.018
2495.917 0.366 -68.273 0.929 21.479 0.929 21.479 0.366 -68.273
2520.875 0.362 -68.524 0.931 21.225 0.931 21.225 0.362 -68.524
2545.833 0.358 -68.771 0.932 20.974 0.932 20.974 0.358 -68.771
2570.792 0.354 -69.015 0.934 20.727 0.934 20.727 0.354 -69.015
2595.75 0.35 -69.255 0.935 20.483 0.935 20.483 0.35 -69.255
2620.708 0.346 -69.492 0.937 20.242 0.937 20.242 0.346 -69.492
2645.667 0.342 -69.726 0.938 20.005 0.938 20.005 0.342 -69.726
2670.625 0.338 -69.957 0.939 19.771 0.939 19.771 0.338 -69.957
2695.583 0.334 -70.184 0.941 19.54 0.941 19.54 0.334 -70.184
2720.542 0.331 -70.409 0.942 19.312 0.942 19.312 0.331 -70.409
2745.5 0.327 -70.63 0.943 19.087 0.943 19.087 0.327 -70.63
2770.458 0.323 -70.849 0.945 18.865 0.945 18.865 0.323 -70.849
2795.417 0.32 -71.065 0.946 18.645 0.946 18.645 0.32 -71.065
2820.375 0.316 -71.278 0.947 18.429 0.947 18.429 0.316 -71.278
2845.333 0.313 -71.488 0.948 18.215 0.948 18.215 0.313 -71.488
2870.292 0.309 -71.695 0.949 18.004 0.949 18.004 0.309 -71.695
2895.25 0.306 -71.9 0.951 17.795 0.951 17.795 0.306 -71.9
2920.208 0.302 -72.102 0.952 17.589 0.952 17.589 0.302 -72.102
2945.167 0.299 -72.302 0.953 17.386 0.953 17.386 0.299 -72.302
2970.125 0.295 -72.499 0.954 17.184 0.954 17.184 0.295 -72.499
2995.083 0.292 -72.694 0.955 16.986 0.955 16.986 0.292 -72.694
3020.042 0.289 -72.886 0.956 16.789 0.956 16.789 0.289 -72.886
3045 0.286 -73.076 0.957 16.595 0.957 16.595 0.286 -73.076
3069.958 0.282 -73.264 0.958 16.403 0.958 16.403 0.282 -73.264
3094.917 0.279 -73.45 0.959 16.214 0.959 16.214 0.279 -73.45
3119.875 0.276 -73.633 0.959 16.026 0.959 16.026 0.276 -73.633
3144.833 0.273 -73.814 0.96 15.841 0.96 15.841 0.273 -73.814
3169.792 0.27 -73.993 0.961 15.658 0.961 15.658 0.27 -73.993
3194.75 0.267 -74.17 0.962 15.476 0.962 15.476 0.267 -74.17
3219.708 0.264 -74.345 0.963 15.297 0.963 15.297 0.264 -74.345
3244.667 0.261 -74.518 0.964 15.12 0.964 15.12 0.261 -74.518
3269.625 0.258 -74.689 0.965 14.944 0.965 14.944 0.258 -74.689
3294.583 0.255 -74.858 0.965 14.771 0.965 14.771 0.255 -74.858
3319.542 0.252 -75.025 0.966 14.599 0.966 14.599 0.252 -75.025
3344.5 0.249 -75.19 0.967 14.429 0.967 14.429 0.249 -75.19
3369.458 0.246 -75.354 0.968 14.261 0.968 14.261 0.246 -75.354
3394.417 0.244 -75.515 0.968 14.095 0.968 14.095 0.244 -75.515
3419.375 0.241 -75.675 0.969 13.93 0.969 13.93 0.241 -75.675
3444.333 0.238 -75.833 0.97 13.767 0.97 13.767 0.238 -75.833
3469.292 0.235 -75.99 0.97 13.606 0.97 13.606 0.235 -75.99
3494.25 0.233 -76.145 0.971 13.446 0.971 13.446 0.233 -76.145
3519.208 0.23 -76.298 0.972 13.288 0.972 13.288 0.23 -76.298
3544.167 0.227 -76.449 0.972 13.132 0.972 13.132 0.227 -76.449
3569.125 0.225 -76.599 0.973 12.977 0.973 12.977 0.225 -76.599
3594.083 0.222 -76.747 0.973 12.823 0.973 12.823 0.222 -76.747
3619.042 0.219 -76.894 0.974 12.671 0.974 12.671 0.219 -76.894
3644 0.217 -77.039 0.975 12.52 0.975 12.52 0.217 -77.039
3668.958 0.214 -77.183 0.975 12.371 0.975 12.371 0.214 -77.183
3693.917 0.212 -77.325 0.976 12.223 0.976 12.223 0.212 -77.325
3718.875 0.209 -77.466 0.976 12.077 0.976 12.077 0.209 -77.466
3743.833 0.207 -77.605 0.977 11.932 0.977 11.932 0.207 -77.605
3768.792 0.204 -77.743 0.977 11.788 0.977 11.788 0.204 -77.743
3793.75 0.202 -77.88 0.978 11.646 0.978 11.646 0.202 -77.88
3818.708 0.199 -78.015 0.978 11.505 0.978 11.505 0.199 -78.015
3843.667 0.197 -78.149 0.979 11.365 0.979 11.365 0.197 -78.149
3868.625 0.195 -78.281 0.979 11.226 0.979 11.226 0.195 -78.281
3893.583 0.192 -78.412 0.98 11.088 0.98 11.088 0.192 -78.412
3918.542 0.19 -78.542 0.98 10.952 0.98 10.952 0.19 -78.542
3943.5 0.188 -78.671 0.981 10.817 0.981 10.817 0.188 -78.671
3968.458 0.185 -78.798 0.981 10.683 0.981 10.683 0.185 -78.798
3993.417 0.183 -78.924 0.981 10.55 0.981 10.55 0.183 -78.924
4018.375 0.181 -79.049 0.982 10.419 0.982 10.419 0.181 -79.049
4043.333 0.179 -79.173 0.982 10.288 0.982 10.288 0.179 -79.173
4068.292 0.176 -79.296 0.983 10.159 0.983 10.159 0.176 -79.296
4093.25 0.174 -79.417 0.983 10.03 0.983 10.03 0.174 -79.417
4118.208 0.172 -79.537 0.983 9.903 0.983 9.903 0.172 -79.537
4143.167 0.17 -79.656 0.984 9.776 0.984 9.776 0.17 -79.656
4168.125 0.168 -79.774 0.984 9.651 0.984 9.651 0.168 -79.774
4193.083 0.166 -79.891 0.985 9.527 0.985 9.527 0.166 -79.891
4218.042 0.163 -80.006 0.985 9.403 0.985 9.403 0.163 -80.006
4243 0.161 -80.121 0.985 9.281 0.985 9.281 0.161 -80.121
4267.958 0.159 -80.234 0.986 9.159 0.986 9.159 0.159 -80.234
4292.917 0.157 -80.346 0.986 9.039 0.986 9.039 0.157 -80.346
4317.875 0.155 -80.458 0.986 8.919 0.986 8.919 0.155 -80.458
4342.833 0.153 -80.568 0.987 8.8 0.987 8.8 0.153 -80.568
4367.792 0.151 -80.677 0.987 8.682 0.987 8.682 0.151 -80.677
4392.75 0.149 -80.785 0.987 8.565 0.987 8.565 0.149 -80.785
4417.708 0.147 -80.892 0.987 8.449 0.987 8.449 0.147 -80.892
4442.667 0.145 -80.998 0.988 8.334 0.988 8.334 0.145 -80.998
4467.625 0.143 -81.103 0.988 8.22 0.988 8.22 0.143 -81.103
4492.583 0.141 -81.207 0.988 8.106 0.988 8.106 0.141 -81.207
4517.542 0.139 -81.31 0.989 7.993 0.989 7.993 0.139 -81.31
4542.5 0.137 -81.412 0.989 7.881 0.989 7.881 0.137 -81.412
4567.458 0.135 -81.513 0.989 7.77 0.989 7.77 0.135 -81.513
4592.417 0.133 -81.613 0.989 7.66 0.989 7.66 0.133 -81.613
4617.375 0.131 -81.712 0.99 7.55 0.99 7.55 0.131 -81.712
4642.333 0.13 -81.81 0.99 7.441 0.99 7.441 0.13 -81.81
4667.292 0.128 -81.907 0.99 7.333 0.99 7.333 0.128 -81.907
4692.25 0.126 -82.003 0.99 7.226 0.99 7.226 0.126 -82.003
4717.208 0.124 -82.098 0.991 7.119 0.991 7.119 0.124 -82.098
4742.167 0.122 -82.192 0.991 7.013 0.991 7.013 0.122 -82.192
4767.125 0.12 -82.285 0.991 6.908 0.991 6.908 0.12 -82.285
4792.083 0.118 -82.377 0.991 6.803 0.991 6.803 0.118 -82.377
4817.042 0.117 -82.468 0.991 6.699 0.991 6.699 0.117 -82.468
4842 0.115 -82.558 0.992 6.596 0.992 6.596 0.115 -82.558
4866.958 0.113 -82.647 0.992 6.493 0.992 6.493 0.113 -82.647
4891.917 0.111 -82.735 0.992 6.391 0.992 6.391 0.111 -82.735
4916.875 0.11 -82.822 0.992 6.29 0.992 6.29 0.11 -82.822
4941.833 0.108 -82.909 0.992 6.189 0.992 6.189 0.108 -82.909
4966.792 0.106 -82.994 0.993 6.089 0.993 6.089 0.106 -82.994
4991.75 0.104 -83.078 0.993 5.99 0.993 5.99 0.104 -83.078
5016.708 0.103 -83.161 0.993 5.891 0.993 5.891 0.103 -83.161
5041.667 0.101 -83.243 0.993 5.793 0.993 5.793 0.101 -83.243
5066.625 0.099 -83.324 0.993 5.695 0.993 5.695 0.099 -83.324
5091.583 0.098 -83.404 0.994 5.598 0.994 5.598 0.098 -83.404
5116.542 0.096 -83.483 0.994 5.502 0.994 5.502 0.096 -83.483
5141.5 0.094 -83.56 0.994 5.406 0.994 5.406 0.094 -83.56
5166.458 0.093 -83.637 0.994 5.311 0.994 5.311 0.093 -83.637
5191.417 0.091 -83.713 0.994 5.216 0.994 5.216 0.091 -83.713
5216.375 0.089 -83.787 0.994 5.122 0.994 5.122 0.089 -83.787
5241.333 0.088 -83.86 0.994 5.028 0.994 5.028 0.088 -83.86
5266.292 0.086 -83.932 0.995 4.935 0.995 4.935 0.086 -83.932
5291.25 0.084 -84.003 0.995 4.842 0.995 4.842 0.084 -84.003
5316.208 0.083 -84.073 0.995 4.75 0.995 4.75 0.083 -84.073
5341.167 0.081 -84.141 0.995 4.658 0.995 4.658 0.081 -84.141
5366.125 0.08 -84.208 0.995 4.567 0.995 4.567 0.08 -84.208
5391.083 0.078 -84.274 0.995 4.477 0.995 4.477 0.078 -84.274
5416.042 0.077 -84.338 0.995 4.387 0.995 4.387 0.077 -84.338
5441 0.075 -84.401 0.995 4.297 0.995 4.297 0.075 -84.401
5465.958 0.073 -84.463 0.996 4.208 0.996 4.208 0.073 -84.463
5490.917 0.072 -84.523 0.996 4.119 0.996 4.119 0.072 -84.523
5515.875 0.07 -84.581 0.996 4.031 0.996 4.031 0.07 -84.581
5540.833 0.069 -84.638 0.996 3.943 0.996 3.943 0.069 -84.638
5565.792 0.067 -84.693 0.996 3.856 0.996 3.856 0.067 -84.693
5590.75 0.066 -84.746 0.996 3.769 0.996 3.769 0.066 -84.746
5615.708 0.064 -84.798 0.996 3.683 0.996 3.683 0.064 -84.798
5640.667 0.063 -84.847 0.996 3.597 0.996 3.597 0.063 -84.847
5665.625 0.061 -84.895 0.996 3.511 0.996 3.511 0.061 -84.895
5690.583 0.06 -84.94 0.997 3.426 0.997 3.426 0.06 -84.94
5715.542 0.058 -84.983 0.997 3.341 0.997 3.341 0.058 -84.983
5740.5 0.057 -85.024 0.997 3.257 0.997 3.257 0.057 -85.024
5765.458 0.055 -85.063 0.997 3.173 0.997 3.173 0.055 -85.063
5790.417 0.054 -85.098 0.997 3.09 0.997 3.09 0.054 -85.098
5815.375 0.052 -85.131 0.997 3.007 0.997 3.007 0.052 -85.131
5840.333 0.051 -85.161 0.997 2.924 0.997 2.924 0.051 -85.161
5865.292 0.05 -85.188 0.997 2.842 0.997 2.842 0.05 -85.188
5890.25 0.048 -85.212 0.997 2.76 0.997 2.76 0.048 -85.212
5915.208 0.047 -85.231 0.997 2.679 0.997 2.679 0.047 -85.231
5940.167 0.045 -85.247 0.997 2.598 0.997 2.598 0.045 -85.247
5965.125 0.044 -85.259 0.997 2.517 0.997 2.517 0.044 -85.259
5990.083 0.043 -85.266 0.997 2.437 0.997 2.437 0.043 -85.266
6015.042 0.041 -85.268 0.997 2.357 0.997 2.357 0.041 -85.268
6040 0.04 -85.264 0.998 2.277 0.998 2.277 0.04 -85.264
6064.958 0.038 -85.255 0.998 2.198 0.998 2.198 0.038 -85.255
6089.917 0.037 -85.239 0.998 2.119 0.998 2.119 0.037 -85.239
6114.875 0.036 -85.216 0.998 2.04 0.998 2.04 0.036 -85.216
6139.833 0.034 -85.185 0.998 1.962 0.998 1.962 0.034 -85.185
6164.792 0.033 -85.145 0.998 1.884 0.998 1.884 0.033 -85.145
6189.75 0.032 -85.095 0.998 1.807 0.998 1.807 0.032 -85.095
6214.708 0.03 -85.034 0.998 1.729 0.998 1.729 0.03 -85.034
6239.667 0.029 -84.961 0.998 1.653 0.998 1.653 0.029 -84.961
6264.625 0.028 -84.873 0.998 1.576 0.998 1.576 0.028 -84.873
6289.583 0.026 -84.769 0.998 1.5 0.998 1.5 0.026 -84.769
6314.542 0.025 -84.647 0.998 1.424 0.998 1.424 0.025 -84.647
6339.5 0.024 -84.503 0.998 1.348 0.998 1.348 0.024 -84.503
6364.458 0.022 -84.334 0.998 1.273 0.998 1.273 0.022 -84.334
6389.417 0.021 -84.135 0.998 1.198 0.998 1.198 0.021 -84.135
6414.375 0.02 -83.901 0.998 1.124 0.998 1.124 0.02 -83.901
6439.333 0.018 -83.625 0.998 1.049 0.998 1.049 0.018 -83.625
6464.292 0.017 -83.297 0.998 0.975 0.998 0.975 0.017 -83.297
6489.25 0.016 -82.906 0.998 0.901 0.998 0.901 0.016 -82.906
6514.208 0.015 -82.435 0.998 0.828 0.998 0.828 0.015 -82.435
6539.167 0.013 -81.862 0.998 0.755 0.998 0.755 0.013 -81.862
6564.125 0.012 -81.156 0.998 0.682 0.998 0.682 0.012 -81.156
6589.083 0.011 -80.272 0.998 0.609 0.998 0.609 0.011 -80.272
6614.042 9.529e-3 -79.141 0.998 0.537 0.998 0.537 9.529e-3 -79.141
6639 8.295e-3 -77.657 0.998 0.465 0.998 0.465 8.295e-3 -77.657
6663.958 7.075e-3 -75.641 0.998 0.393 0.998 0.393 7.075e-3 -75.641
6688.917 5.872e-3 -72.773 0.998 0.322 0.998 0.322 5.872e-3 -72.773
6713.875 4.696e-3 -68.431 0.998 0.251 0.998 0.251 4.696e-3 -68.431
6738.833 3.572e-3 -61.262 0.998 0.18 0.998 0.18 3.572e-3 -61.262
6763.792 2.557e-3 -47.999 0.998 0.109 0.998 0.109 2.557e-3 -47.999
6788.75 1.836e-3 -21.517 0.998 0.039 0.998 0.039 1.836e-3 -21.517
6813.708 1.794e-3 17.822 0.998 -0.032 0.998 -0.032 1.794e-3 17.822
6838.667 2.459e-3 45.929 0.998 -0.101 0.998 -0.101 2.459e-3 45.929
6863.625 3.439e-3 60.064 0.998 -0.171 0.998 -0.171 3.439e-3 60.064
6888.583 4.531e-3 67.621 0.998 -0.24 0.998 -0.24 4.531e-3 67.621
6913.542 5.667e-3 72.155 0.998 -0.31 0.998 -0.31 5.667e-3 72.155
6938.5 6.823e-3 75.13 0.998 -0.378 0.998 -0.378 6.823e-3 75.13
6963.458 7.989e-3 77.212 0.998 -0.447 0.998 -0.447 7.989e-3 77.212
6988.417 9.159e-3 78.741 0.998 -0.516 0.998 -0.516 9.159e-3 78.741
7013.375 0.01 79.903 0.998 -0.584 0.998 -0.584 0.01 79.903
7038.333 0.012 80.811 0.998 -0.652 0.998 -0.652 0.012 80.811
7063.292 0.013 81.537 0.998 -0.719 0.998 -0.719 0.013 81.537
7088.25 0.014 82.127 0.998 -0.787 0.998 -0.787 0.014 82.127
7113.208 0.015 82.612 0.998 -0.854 0.998 -0.854 0.015 82.612
7138.167 0.016 83.017 0.998 -0.921 0.998 -0.921 0.016 83.017
7163.125 0.017 83.357 0.998 -0.988 0.998 -0.988 0.017 83.357
7188.083 0.018 83.646 0.998 -1.054 0.998 -1.054 0.018 83.646
7213.042 0.02 83.892 0.998 -1.121 0.998 -1.121 0.02 83.892
7238 0.021 84.102 0.998 -1.187 0.998 -1.187 0.021 84.102
7262.958 0.022 84.283 0.998 -1.253 0.998 -1.253 0.022 84.283
7287.917 0.023 84.439 0.998 -1.319 0.998 -1.319 0.023 84.439
7312.875 0.024 84.574 0.998 -1.384 0.998 -1.384 0.024 84.574
7337.833 0.025 84.69 0.998 -1.449 0.998 -1.449 0.025 84.69
7362.792 0.026 84.79 0.998 -1.514 0.998 -1.514 0.026 84.79
7387.75 0.028 84.877 0.998 -1.579 0.998 -1.579 0.028 84.877
7412.708 0.029 84.951 0.998 -1.644 0.998 -1.644 0.029 84.951
7437.667 0.03 85.015 0.998 -1.708 0.998 -1.708 0.03 85.015
7462.625 0.031 85.07 0.998 -1.773 0.998 -1.773 0.031 85.07
7487.583 0.032 85.115 0.998 -1.837 0.998 -1.837 0.032 85.115
7512.542 0.033 85.154 0.998 -1.901 0.998 -1.901 0.033 85.154
7537.5 0.034 85.186 0.998 -1.964 0.998 -1.964 0.034 85.186
7562.458 0.035 85.211 0.998 -2.028 0.998 -2.028 0.035 85.211
7587.417 0.037 85.232 0.998 -2.091 0.998 -2.091 0.037 85.232
7612.375 0.038 85.247 0.998 -2.154 0.998 -2.154 0.038 85.247
7637.333 0.039 85.258 0.998 -2.217 0.998 -2.217 0.039 85.258
7662.292 0.04 85.264 0.998 -2.28 0.998 -2.28 0.04 85.264
7687.25 0.041 85.267 0.997 -2.342 0.997 -2.342 0.041 85.267
7712.208 0.042 85.267 0.997 -2.404 0.997 -2.404 0.042 85.267
7737.167 0.043 85.264 0.997 -2.467 0.997 -2.467 0.043 85.264
7762.125 0.044 85.257 0.997 -2.529 0.997 -2.529 0.044 85.257
7787.083 0.045 85.248 0.997 -2.59 0.997 -2.59 0.045 85.248
7812.042 0.046 85.237 0.997 -2.652 0.997 -2.652 0.046 85.237
7837 0.047 85.223 0.997 -2.713 0.997 -2.713 0.047 85.223
7861.958 0.048 85.208 0.997 -2.775 0.997 -2.775 0.048 85.208
7886.917 0.05 85.19 0.997 -2.836 0.997 -2.836 0.05 85.19
7911.875 0.051 85.171 0.997 -2.897 0.997 -2.897 0.051 85.171
7936.833 0.052 85.15 0.997 -2.958 0.997 -2.958 0.052 85.15
7961.792 0.053 85.127 0.997 -3.018 0.997 -3.018 0.053 85.127
7986.75 0.054 85.103 0.997 -3.079 0.997 -3.079 0.054 85.103
8011.708 0.055 85.078 0.997 -3.139 0.997 -3.139 0.055 85.078
8036.667 0.056 85.051 0.997 -3.199 0.997 -3.199 0.056 85.051
8061.625 0.057 85.024 0.997 -3.259 0.997 -3.259 0.057 85.024
8086.583 0.058 84.995 0.997 -3.319 0.997 -3.319 0.058 84.995
8111.542 0.059 84.965 0.997 -3.378 0.997 -3.378 0.059 84.965
8136.5 0.06 84.934 0.996 -3.438 0.996 -3.438 0.06 84.934
8161.458 0.061 84.903 0.996 -3.497 0.996 -3.497 0.061 84.903
8186.417 0.062 84.87 0.996 -3.556 0.996 -3.556 0.062 84.87
