# MHZ S MA R 50

50 0.926 -22.224 0.378 67.765 0.378 67.765 0.926 -22.224
74.958 0.852 -31.503 0.523 58.48 0.523 58.48 0.852 -31.503
99.917 0.774 -39.269 0.633 50.709 0.633 50.709 0.774 -39.269
124.875 0.699 -45.646 0.715 44.326 0.715 44.326 0.699 -45.646
149.833 0.631 -50.86 0.776 39.107 0.776 39.107 0.631 -50.86
174.792 0.571 -55.138 0.821 34.824 0.821 34.824 0.571 -55.138
199.75 0.519 -58.676 0.854 31.28 0.854 31.28 0.519 -58.676
224.708 0.474 -61.632 0.88 28.318 0.88 28.318 0.474 -61.632
249.667 0.435 -64.128 0.9 25.816 0.9 25.816 0.435 -64.128
274.625 0.402 -66.257 0.915 23.682 0.915 23.682 0.402 -66.257
299.583 0.372 -68.09 0.928 21.842 0.928 21.842 0.372 -68.09
324.542 0.346 -69.684 0.938 20.243 0.938 20.243 0.346 -69.684
349.5 0.323 -71.08 0.946 18.841 0.946 18.841 0.323 -71.08
374.458 0.302 -72.314 0.953 17.601 0.953 17.601 0.302 -72.314
399.417 0.284 -73.41 0.958 16.499 0.958 16.499 0.284 -73.41
424.375 0.267 -74.392 0.963 15.511 0.963 15.511 0.267 -74.392
449.333 0.252 -75.275 0.967 14.622 0.967 14.622 0.252 -75.275
474.292 0.239 -76.075 0.971 13.816 0.971 13.816 0.239 -76.075
499.25 0.226 -76.802 0.974 13.082 0.974 13.082 0.226 -76.802
524.208 0.215 -77.466 0.976 12.412 0.976 12.412 0.215 -77.466
549.167 0.204 -78.075 0.978 11.796 0.978 11.796 0.204 -78.075
574.125 0.195 -78.637 0.98 11.228 0.98 11.228 0.195 -78.637
599.083 0.186 -79.155 0.982 10.702 0.982 10.702 0.186 -79.155
624.042 0.177 -79.636 0.984 10.214 0.984 10.214 0.177 -79.636
649 0.17 -80.083 0.985 9.76 0.985 9.76 0.17 -80.083
673.958 0.162 -80.501 0.986 9.335 0.986 9.335 0.162 -80.501
698.917 0.155 -80.891 0.987 8.938 0.987 8.938 0.155 -80.891
723.875 0.149 -81.257 0.988 8.564 0.988 8.564 0.149 -81.257
748.833 0.143 -81.601 0.989 8.213 0.989 8.213 0.143 -81.601
773.792 0.137 -81.925 0.99 7.881 0.99 7.881 0.137 -81.925
798.75 0.132 -82.23 0.991 7.567 0.991 7.567 0.132 -82.23
823.708 0.127 -82.519 0.991 7.27 0.991 7.27 0.127 -82.519
848.667 0.122 -82.793 0.992 6.987 0.992 6.987 0.122 -82.793
873.625 0.117 -83.053 0.993 6.719 0.993 6.719 0.117 -83.053
898.583 0.113 -83.299 0.993 6.463 0.993 6.463 0.113 -83.299
923.542 0.108 -83.534 0.994 6.219 0.994 6.219 0.108 -83.534
948.5 0.104 -83.758 0.994 5.985 0.994 5.985 0.104 -83.758
973.458 0.1 -83.972 0.994 5.761 0.994 5.761 0.1 -83.972
998.417 0.097 -84.176 0.995 5.547 0.995 5.547 0.097 -84.176
1023.375 0.093 -84.371 0.995 5.341 0.995 5.341 0.093 -84.371
1048.333 0.09 -84.558 0.996 5.143 0.996 5.143 0.09 -84.558
1073.292 0.086 -84.736 0.996 4.953 0.996 4.953 0.086 -84.736
1098.25 0.083 -84.908 0.996 4.769 0.996 4.769 0.083 -84.908
1123.208 0.08 -85.073 0.996 4.592 0.996 4.592 0.08 -85.073
1148.167 0.077 -85.231 0.997 4.421 0.997 4.421 0.077 -85.231
1173.125 0.074 -85.382 0.997 4.256 0.997 4.256 0.074 -85.382
1198.083 0.071 -85.528 0.997 4.096 0.997 4.096 0.071 -85.528
1223.042 0.069 -85.669 0.997 3.941 0.997 3.941 0.069 -85.669
1248 0.066 -85.803 0.997 3.79 0.997 3.79 0.066 -85.803
1272.958 0.064 -85.933 0.998 3.644 0.998 3.644 0.064 -85.933
1297.917 0.061 -86.058 0.998 3.502 0.998 3.502 0.061 -86.058
1322.875 0.059 -86.178 0.998 3.364 0.998 3.364 0.059 -86.178
1347.833 0.056 -86.293 0.998 3.23 0.998 3.23 0.056 -86.293
1372.792 0.054 -86.403 0.998 3.1 0.998 3.1 0.054 -86.403
1397.75 0.052 -86.509 0.998 2.972 0.998 2.972 0.052 -86.509
1422.708 0.05 -86.611 0.998 2.848 0.998 2.848 0.05 -86.611
1447.667 0.048 -86.708 0.998 2.727 0.998 2.727 0.048 -86.708
1472.625 0.046 -86.8 0.998 2.609 0.998 2.609 0.046 -86.8
1497.583 0.044 -86.888 0.999 2.493 0.999 2.493 0.044 -86.888
1522.542 0.042 -86.972 0.999 2.38 0.999 2.38 0.042 -86.972
1547.5 0.04 -87.051 0.999 2.27 0.999 2.27 0.04 -87.051
1572.458 0.038 -87.125 0.999 2.162 0.999 2.162 0.038 -87.125
1597.417 0.036 -87.194 0.999 2.056 0.999 2.056 0.036 -87.194
1622.375 0.034 -87.258 0.999 1.952 0.999 1.952 0.034 -87.258
1647.333 0.032 -87.316 0.999 1.85 0.999 1.85 0.032 -87.316
1672.292 0.031 -87.369 0.999 1.75 0.999 1.75 0.031 -87.369
1697.25 0.029 -87.414 0.999 1.652 0.999 1.652 0.029 -87.414
1722.208 0.027 -87.453 0.999 1.556 0.999 1.556 0.027 -87.453
1747.167 0.026 -87.483 0.999 1.461 0.999 1.461 0.026 -87.483
1772.125 0.024 -87.505 0.999 1.369 0.999 1.369 0.024 -87.505
1797.083 0.022 -87.515 0.999 1.277 0.999 1.277 0.022 -87.515
1822.042 0.021 -87.514 0.999 1.187 0.999 1.187 0.021 -87.514
1847 0.019 -87.498 0.999 1.099 0.999 1.099 0.019 -87.498
1871.958 0.018 -87.464 0.999 1.012 0.999 1.012 0.018 -87.464
1896.917 0.016 -87.409 0.999 0.926 0.999 0.926 0.016 -87.409
1921.875 0.015 -87.326 0.999 0.842 0.999 0.842 0.015 -87.326
1946.833 0.013 -87.209 0.999 0.759 0.999 0.759 0.013 -87.209
1971.792 0.012 -87.045 0.999 0.677 0.999 0.677 0.012 -87.045
1996.75 0.01 -86.817 0.999 0.596 0.999 0.596 0.01 -86.817
2021.708 9.016e-3 -86.497 0.999 0.516 0.999 0.516 9.016e-3 -86.497
2046.667 7.644e-3 -86.039 1 0.437 1 0.437 7.644e-3 -86.039
2071.625 6.291e-3 -85.357 1 0.359 1 0.359 6.291e-3 -85.357
2096.583 4.957e-3 -84.278 1 0.283 1 0.283 4.957e-3 -84.278
2121.542 3.642e-3 -82.381 1 0.207 1 0.207 3.642e-3 -82.381
2146.5 2.353e-3 -78.346 1 0.132 1 0.132 2.353e-3 -78.346
2171.458 1.117e-3 -65.074 1 0.058 1 0.058 1.117e-3 -65.074
2196.417 538.3e-6 29.186 1 -0.015 1 -0.015 538.3e-6 29.186
2221.375 1.595e-3 72.784 1 -0.087 1 -0.087 1.595e-3 72.784
2246.333 2.812e-3 80.223 1 -0.159 1 -0.159 2.812e-3 80.223
2271.292 4.035e-3 83.083 1 -0.23 1 -0.23 4.035e-3 83.083
2296.25 5.25e-3 84.566 1 -0.3 1 -0.3 5.25e-3 84.566
2321.208 6.455e-3 85.457 1 -0.369 1 -0.369 6.455e-3 85.457
2346.167 7.649e-3 86.041 1 -0.437 1 -0.437 7.649e-3 86.041
2371.125 8.832e-3 86.445 0.999 -0.505 0.999 -0.505 8.832e-3 86.445
2396.083 0.01 86.735 0.999 -0.573 0.999 -0.573 0.01 86.735
2421.042 0.011 86.949 0.999 -0.639 0.999 -0.639 0.011 86.949
2446 0.012 87.108 0.999 -0.705 0.999 -0.705 0.012 87.108
2470.958 0.013 87.228 0.999 -0.771 0.999 -0.771 0.013 87.228
2495.917 0.015 87.319 0.999 -0.835 0.999 -0.835 0.015 87.319
2520.875 0.016 87.386 0.999 -0.9 0.999 -0.9 0.016 87.386
2545.833 0.017 87.436 0.999 -0.963 0.999 -0.963 0.017 87.436
2570.792 0.018 87.471 0.999 -1.026 0.999 -1.026 0.018 87.471
2595.75 0.019 87.495 0.999 -1.089 0.999 -1.089 0.019 87.495
2620.708 0.02 87.509 0.999 -1.151 0.999 -1.151 0.02 87.509
2645.667 0.021 87.516 0.999 -1.213 0.999 -1.213 0.021 87.516
2670.625 0.022 87.516 0.999 -1.274 0.999 -1.274 0.022 87.516
2695.583 0.023 87.51 0.999 -1.335 0.999 -1.335 0.023 87.51
2720.542 0.024 87.5 0.999 -1.395 0.999 -1.395 0.024 87.5
2745.5 0.025 87.485 0.999 -1.455 0.999 -1.455 0.025 87.485
2770.458 0.026 87.467 0.999 -1.514 0.999 -1.514 0.026 87.467
2795.417 0.027 87.447 0.999 -1.573 0.999 -1.573 0.027 87.447
2820.375 0.028 87.423 0.999 -1.632 0.999 -1.632 0.028 87.423
2845.333 0.029 87.398 0.999 -1.69 0.999 -1.69 0.029 87.398
2870.292 0.031 87.37 0.999 -1.748 0.999 -1.748 0.031 87.37
2895.25 0.032 87.341 0.999 -1.805 0.999 -1.805 0.032 87.341
2920.208 0.033 87.31 0.999 -1.862 0.999 -1.862 0.033 87.31
2945.167 0.033 87.277 0.999 -1.919 0.999 -1.919 0.033 87.277
2970.125 0.034 87.244 0.999 -1.976 0.999 -1.976 0.034 87.244
2995.083 0.035 87.209 0.999 -2.032 0.999 -2.032 0.035 87.209
3020.042 0.036 87.174 0.999 -2.087 0.999 -2.087 0.036 87.174
3045 0.037 87.138 0.999 -2.143 0.999 -2.143 0.037 87.138
3069.958 0.038 87.101 0.999 -2.198 0.999 -2.198 0.038 87.101
3094.917 0.039 87.063 0.999 -2.253 0.999 -2.253 0.039 87.063
3119.875 0.04 87.025 0.999 -2.307 0.999 -2.307 0.04 87.025
3144.833 0.041 86.986 0.999 -2.361 0.999 -2.361 0.041 86.986
3169.792 0.042 86.947 0.999 -2.415 0.999 -2.415 0.042 86.947
3194.75 0.043 86.907 0.999 -2.469 0.999 -2.469 0.043 86.907
3219.708 0.044 86.867 0.999 -2.522 0.999 -2.522 0.044 86.867
3244.667 0.045 86.826 0.999 -2.575 0.999 -2.575 0.045 86.826
3269.625 0.046 86.785 0.998 -2.628 0.998 -2.628 0.046 86.785
3294.583 0.047 86.744 0.998 -2.681 0.998 -2.681 0.047 86.744
3319.542 0.048 86.703 0.998 -2.733 0.998 -2.733 0.048 86.703
3344.5 0.049 86.662 0.998 -2.785 0.998 -2.785 0.049 86.662
3369.458 0.049 86.62 0.998 -2.837 0.998 -2.837 0.049 86.62
3394.417 0.05 86.578 0.998 -2.889 0.998 -2.889 0.05 86.578
3419.375 0.051 86.536 0.998 -2.94 0.998 -2.94 0.051 86.536
3444.333 0.052 86.494 0.998 -2.991 0.998 -2.991 0.052 86.494
3469.292 0.053 86.451 0.998 -3.042 0.998 -3.042 0.053 86.451
3494.25 0.054 86.409 0.998 -3.093 0.998 -3.093 0.054 86.409
3519.208 0.055 86.366 0.998 -3.143 0.998 -3.143 0.055 86.366
3544.167 0.056 86.324 0.998 -3.194 0.998 -3.194 0.056 86.324
3569.125 0.057 86.281 0.998 -3.244 0.998 -3.244 0.057 86.281
3594.083 0.057 86.239 0.998 -3.294 0.998 -3.294 0.057 86.239
3619.042 0.058 86.196 0.998 -3.343 0.998 -3.343 0.058 86.196
3644 0.059 86.153 0.998 -3.393 0.998 -3.393 0.059 86.153
3668.958 0.06 86.11 0.998 -3.442 0.998 -3.442 0.06 86.11
3693.917 0.061 86.067 0.998 -3.491 0.998 -3.491 0.061 86.067
3718.875 0.062 86.024 0.998 -3.54 0.998 -3.54 0.062 86.024
3743.833 0.063 85.982 0.998 -3.589 0.998 -3.589 0.063 85.982
3768.792 0.063 85.939 0.998 -3.638 0.998 -3.638 0.063 85.939
3793.75 0.064 85.896 0.997 -3.686 0.997 -3.686 0.064 85.896
3818.708 0.065 85.853 0.997 -3.735 0.997 -3.735 0.065 85.853
3843.667 0.066 85.81 0.997 -3.783 0.997 -3.783 0.066 85.81
3868.625 0.067 85.767 0.997 -3.831 0.997 -3.831 0.067 85.767
3893.583 0.068 85.724 0.997 -3.879 0.997 -3.879 0.068 85.724
3918.542 0.068 85.681 0.997 -3.926 0.997 -3.926 0.068 85.681
3943.5 0.069 85.639 0.997 -3.974 0.997 -3.974 0.069 85.639
3968.458 0.07 85.596 0.997 -4.021 0.997 -4.021 0.07 85.596
3993.417 0.071 85.553 0.997 -4.069 0.997 -4.069 0.071 85.553
4018.375 0.072 85.51 0.997 -4.116 0.997 -4.116 0.072 85.51
4043.333 0.073 85.467 0.997 -4.163 0.997 -4.163 0.073 85.467
4068.292 0.073 85.425 0.997 -4.209 0.997 -4.209 0.073 85.425
4093.25 0.074 85.382 0.997 -4.256 0.997 -4.256 0.074 85.382
4118.208 0.075 85.339 0.997 -4.303 0.997 -4.303 0.075 85.339
4143.167 0.076 85.297 0.997 -4.349 0.997 -4.349 0.076 85.297
4168.125 0.077 85.254 0.997 -4.395 0.997 -4.395 0.077 85.254
4193.083 0.077 85.212 0.997 -4.442 0.997 -4.442 0.077 85.212
4218.042 0.078 85.169 0.996 -4.488 0.996 -4.488 0.078 85.169
4243 0.079 85.127 0.996 -4.534 0.996 -4.534 0.079 85.127
4267.958 0.08 85.084 0.996 -4.579 0.996 -4.579 0.08 85.084
4292.917 0.081 85.042 0.996 -4.625 0.996 -4.625 0.081 85.042
4317.875 0.081 85 0.996 -4.671 0.996 -4.671 0.081 85
4342.833 0.082 84.957 0.996 -4.716 0.996 -4.716 0.082 84.957
4367.792 0.083 84.915 0.996 -4.762 0.996 -4.762 0.083 84.915
4392.75 0.084 84.873 0.996 -4.807 0.996 -4.807 0.084 84.873
4417.708 0.085 84.831 0.996 -4.852 0.996 -4.852 0.085 84.831
4442.667 0.085 84.789 0.996 -4.897 0.996 -4.897 0.085 84.789
4467.625 0.086 84.747 0.996 -4.942 0.996 -4.942 0.086 84.747
4492.583 0.087 84.705 0.996 -4.987 0.996 -4.987 0.087 84.705
4517.542 0.088 84.663 0.996 -5.031 0.996 -5.031 0.088 84.663
4542.5 0.088 84.621 0.996 -5.076 0.996 -5.076 0.088 84.621
4567.458 0.089 84.579 0.996 -5.121 0.996 -5.121 0.089 84.579
4592.417 0.09 84.537 0.995 -5.165 0.995 -5.165 0.09 84.537
4617.375 0.091 84.495 0.995 -5.209 0.995 -5.209 0.091 84.495
4642.333 0.092 84.454 0.995 -5.254 0.995 -5.254 0.092 84.454
4667.292 0.092 84.412 0.995 -5.298 0.995 -5.298 0.092 84.412
4692.25 0.093 84.37 0.995 -5.342 0.995 -5.342 0.093 84.37
4717.208 0.094 84.329 0.995 -5.386 0.995 -5.386 0.094 84.329
4742.167 0.095 84.287 0.995 -5.43 0.995 -5.43 0.095 84.287
4767.125 0.095 84.246 0.995 -5.473 0.995 -5.473 0.095 84.246
4792.083 0.096 84.204 0.995 -5.517 0.995 -5.517 0.096 84.204
4817.042 0.097 84.163 0.995 -5.561 0.995 -5.561 0.097 84.163
4842 0.098 84.121 0.995 -5.604 0.995 -5.604 0.098 84.121
4866.958 0.098 84.08 0.995 -5.648 0.995 -5.648 0.098 84.08
4891.917 0.099 84.039 0.995 -5.691 0.995 -5.691 0.099 84.039
4916.875 0.1 83.998 0.995 -5.734 0.995 -5.734 0.1 83.998
4941.833 0.101 83.956 0.994 -5.778 0.994 -5.778 0.101 83.956
4966.792 0.101 83.915 0.994 -5.821 0.994 -5.821 0.101 83.915
4991.75 0.102 83.874 0.994 -5.864 0.994 -5.864 0.102 83.874
5016.708 0.103 83.833 0.994 -5.907 0.994 -5.907 0.103 83.833
5041.667 0.104 83.792 0.994 -5.95 0.994 -5.95 0.104 83.792
5066.625 0.104 83.751 0.994 -5.992 0.994 -5.992 0.104 83.751
5091.583 0.105 83.71 0.994 -6.035 0.994 -6.035 0.105 83.71
5116.542 0.106 83.669 0.994 -6.078 0.994 -6.078 0.106 83.669
5141.5 0.107 83.628 0.994 -6.121 0.994 -6.121 0.107 83.628
5166.458 0.107 83.588 0.994 -6.163 0.994 -6.163 0.107 83.588
5191.417 0.108 83.547 0.994 -6.206 0.994 -6.206 0.108 83.547
5216.375 0.109 83.506 0.994 -6.248 0.994 -6.248 0.109 83.506
5241.333 0.11 83.465 0.994 -6.29 0.994 -6.29 0.11 83.465
5266.292 0.11 83.425 0.993 -6.333 0.993 -6.333 0.11 83.425
5291.25 0.111 83.384 0.993 -6.375 0.993 -6.375 0.111 83.384
5316.208 0.112 83.344 0.993 -6.417 0.993 -6.417 0.112 83.344
5341.167 0.112 83.303 0.993 -6.459 0.993 -6.459 0.112 83.303
5366.125 0.113 83.263 0.993 -6.501 0.993 -6.501 0.113 83.263
5391.083 0.114 83.222 0.993 -6.543 0.993 -6.543 0.114 83.222
5416.042 0.115 83.182 0.993 -6.585 0.993 -6.585 0.115 83.182
5441 0.115 83.142 0.993 -6.627 0.993 -6.627 0.115 83.142
5465.958 0.116 83.101 0.993 -6.668 0.993 -6.668 0.116 83.101
5490.917 0.117 83.061 0.993 -6.71 0.993 -6.71 0.117 83.061
5515.875 0.118 83.021 0.993 -6.752 0.993 -6.752 0.118 83.021
5540.833 0.118 82.981 0.993 -6.793 0.993 -6.793 0.118 82.981
5565.792 0.119 82.941 0.992 -6.835 0.992 -6.835 0.119 82.941
5590.75 0.12 82.9 0.992 -6.876 0.992 -6.876 0.12 82.9
5615.708 0.12 82.86 0.992 -6.918 0.992 -6.918 0.12 82.86
5640.667 0.121 82.82 0.992 -6.959 0.992 -6.959 0.121 82.82
5665.625 0.122 82.78 0.992 -7 0.992 -7 0.122 82.78
5690.583 0.123 82.74 0.992 -7.042 0.992 -7.042 0.123 82.74
5715.542 0.123 82.701 0.992 -7.083 0.992 -7.083 0.123 82.701
5740.5 0.124 82.661 0.992 -7.124 0.992 -7.124 0.124 82.661
5765.458 0.125 82.621 0.992 -7.165 0.992 -7.165 0.125 82.621
5790.417 0.125 82.581 0.992 -7.206 0.992 -7.206 0.125 82.581
5815.375 0.126 82.541 0.992 -7.247 0.992 -7.247 0.126 82.541
5840.333 0.127 82.502 0.991 -7.288 0.991 -7.288 0.127 82.502
5865.292 0.128 82.462 0.991 -7.329 0.991 -7.329 0.128 82.462
5890.25 0.128 82.422 0.991 -7.37 0.991 -7.37 0.128 82.422
5915.208 0.129 82.383 0.991 -7.41 0.991 -7.41 0.129 82.383
5940.167 0.13 82.343 0.991 -7.451 0.991 -7.451 0.13 82.343
5965.125 0.13 82.303 0.991 -7.492 0.991 -7.492 0.13 82.303
5990.083 0.131 82.264 0.991 -7.532 0.991 -7.532 0.131 82.264
6015.042 0.132 82.224 0.991 -7.573 0.991 -7.573 0.132 82.224
6040 0.132 82.185 0.991 -7.614 0.991 -7.614 0.132 82.185
6064.958 0.133 82.146 0.991 -7.654 0.991 -7.654 0.133 82.146
6089.917 0.134 82.106 0.991 -7.695 0.991 -7.695 0.134 82.106
6114.875 0.135 82.067 0.99 -7.735 0.99 -7.735 0.135 82.067
6139.833 0.135 82.028 0.99 -7.775 0.99 -7.775 0.135 82.028
6164.792 0.136 81.988 0.99 -7.816 0.99 -7.816 0.136 81.988
6189.75 0.137 81.949 0.99 -7.856 0.99 -7.856 0.137 81.949
6214.708 0.137 81.91 0.99 -7.896 0.99 -7.896 0.137 81.91
6239.667 0.138 81.871 0.99 -7.936 0.99 -7.936 0.138 81.871
6264.625 0.139 81.831 0.99 -7.976 0.99 -7.976 0.139 81.831
6289.583 0.139 81.792 0.99 -8.016 0.99 -8.016 0.139 81.792
6314.542 0.14 81.753 0.99 -8.057 0.99 -8.057 0.14 81.753
6339.5 0.141 81.714 0.99 -8.097 0.99 -8.097 0.141 81.714
6364.458 0.142 81.675 0.989 -8.137 0.989 -8.137 0.142 81.675
6389.417 0.142 81.636 0.989 -8.176 0.989 -8.176 0.142 81.636
6414.375 0.143 81.597 0.989 -8.216 0.989 -8.216 0.143 81.597
6439.333 0.144 81.558 0.989 -8.256 0.989 -8.256 0.144 81.558
6464.292 0.144 81.519 0.989 -8.296 0.989 -8.296 0.144 81.519
6489.25 0.145 81.48 0.989 -8.336 0.989 -8.336 0.145 81.48
6514.208 0.146 81.442 0.989 -8.375 0.989 -8.375 0.146 81.442
6539.167 0.146 81.403 0.989 -8.415 0.989 -8.415 0.146 81.403
6564.125 0.147 81.364 0.989 -8.455 0.989 -8.455 0.147 81.364
6589.083 0.148 81.325 0.989 -8.494 0.989 -8.494 0.148 81.325
6614.042 0.148 81.287 0.988 -8.534 0.988 -8.534 0.148 81.287
6639 0.149 81.248 0.988 -8.574 0.988 -8.574 0.149 81.248
6663.958 0.15 81.209 0.988 -8.613 0.988 -8.613 0.15 81.209
6688.917 0.15 81.171 0.988 -8.652 0.988 -8.652 0.15 81.171
6713.875 0.151 81.132 0.988 -8.692 0.988 -8.692 0.151 81.132
6738.833 0.152 81.093 0.988 -8.731 0.988 -8.731 0.152 81.093
6763.792 0.152 81.055 0.988 -8.771 0.988 -8.771 0.152 81.055
6788.75 0.153 81.016 0.988 -8.81 0.988 -8.81 0.153 81.016
6813.708 0.154 80.978 0.988 -8.849 0.988 -8.849 0.154 80.978
6838.667 0.155 80.939 0.988 -8.888 0.988 -8.888 0.155 80.939
6863.625 0.155 80.901 0.987 -8.928 0.987 -8.928 0.155 80.901
6888.583 0.156 80.862 0.987 -8.967 0.987 -8.967 0.156 80.862
6913.542 0.157 80.824 0.987 -9.006 0.987 -9.006 0.157 80.824
6938.5 0.157 80.786 0.987 -9.045 0.987 -9.045 0.157 80.786
6963.458 0.158 80.747 0.987 -9.084 0.987 -9.084 0.158 80.747
6988.417 0.159 80.709 0.987 -9.123 0.987 -9.123 0.159 80.709
7013.375 0.159 80.671 0.987 -9.162 0.987 -9.162 0.159 80.671
7038.333 0.16 80.633 0.987 -9.201 0.987 -9.201 0.16 80.633
7063.292 0.161 80.594 0.987 -9.24 0.987 -9.24 0.161 80.594
7088.25 0.161 80.556 0.986 -9.279 0.986 -9.279 0.161 80.556
7113.208 0.162 80.518 0.986 -9.318 0.986 -9.318 0.162 80.518
7138.167 0.163 80.48 0.986 -9.357 0.986 -9.357 0.163 80.48
7163.125 0.163 80.442 0.986 -9.396 0.986 -9.396 0.163 80.442
7188.083 0.164 80.404 0.986 -9.434 0.986 -9.434 0.164 80.404
7213.042 0.165 80.366 0.986 -9.473 0.986 -9.473 0.165 80.366
7238 0.165 80.327 0.986 -9.512 0.986 -9.512 0.165 80.327
7262.958 0.166 80.289 0.986 -9.55 0.986 -9.55 0.166 80.289
7287.917 0.167 80.251 0.986 -9.589 0.986 -9.589 0.167 80.251
7312.875 0.167 80.214 0.985 -9.628 0.985 -9.628 0.167 80.214
7337.833 0.168 80.176 0.985 -9.666 0.985 -9.666 0.168 80.176
7362.792 0.169 80.138 0.985 -9.705 0.985 -9.705 0.169 80.138
7387.75 0.169 80.1 0.985 -9.743 0.985 -9.743 0.169 80.1
7412.708 0.17 80.062 0.985 -9.782 0.985 -9.782 0.17 80.062
7437.667 0.171 80.024 0.985 -9.82 0.985 -9.82 0.171 80.024
7462.625 0.171 79.986 0.985 -9.859 0.985 -9.859 0.171 79.986
7487.583 0.172 79.948 0.985 -9.897 0.985 -9.897 0.172 79.948
7512.542 0.173 79.911 0.985 -9.936 0.985 -9.936 0.173 79.911
7537.5 0.173 79.873 0.984 -9.974 0.984 -9.974 0.173 79.873
7562.458 0.174 79.835 0.984 -10.012 0.984 -10.012 0.174 79.835
7587.417 0.175 79.797 0.984 -10.051 0.984 -10.051 0.175 79.797
7612.375 0.175 79.76 0.984 -10.089 0.984 -10.089 0.175 79.76
7637.333 0.176 79.722 0.984 -10.127 0.984 -10.127 0.176 79.722
7662.292 0.176 79.684 0.984 -10.165 0.984 -10.165 0.176 79.684
7687.25 0.177 79.647 0.984 -10.204 0.984 -10.204 0.177 79.647
7712.208 0.178 79.609 0.984 -10.242 0.984 -10.242 0.178 79.609
7737.167 0.178 79.572 0.983 -10.28 0.983 -10.28 0.178 79.572
7762.125 0.179 79.534 0.983 -10.318 0.983 -10.318 0.179 79.534
7787.083 0.18 79.497 0.983 -10.356 0.983 -10.356 0.18 79.497
7812.042 0.18 79.459 0.983 -10.394 0.983 -10.394 0.18 79.459
7837 0.181 79.422 0.983 -10.432 0.983 -10.432 0.181 79.422
7861.958 0.182 79.384 0.983 -10.47 0.983 -10.47 0.182 79.384
7886.917 0.182 79.347 0.983 -10.508 0.983 -10.508 0.182 79.347
7911.875 0.183 79.309 0.983 -10.546 0.983 -10.546 0.183 79.309
7936.833 0.184 79.272 0.983 -10.584 0.983 -10.584 0.184 79.272
7961.792 0.184 79.235 0.982 -10.622 0.982 -10.622 0.184 79.235
7986.75 0.185 79.197 0.982 -10.66 0.982 -10.66 0.185 79.197
8011.708 0.186 79.16 0.982 -10.697 0.982 -10.697 0.186 79.16
8036.667 0.186 79.123 0.982 -10.735 0.982 -10.735 0.186 79.123
8061.625 0.187 79.085 0.982 -10.773 0.982 -10.773 0.187 79.085
8086.583 0.188 79.048 0.982 -10.811 0.982 -10.811 0.188 79.048
8111.542 0.188 79.011 0.982 -10.848 0.982 -10.848 0.188 79.011
8136.5 0.189 78.974 0.982 -10.886 0.982 -10.886 0.189 78.974
8161.458 0.19 78.937 0.981 -10.924 0.981 -10.924 0.19 78.937
8186.417 0.19 78.899 0.981 -10.962 0.981 -10.962 0.19 78.899
8211.375 0.191 78.862 0.981 -10.999 0.981 -10.999 0.191 78.862
8236.333 0.191 78.825 0.981 -11.037 0.981 -11.037 0.191 78.825
8261.292 0.192 78.788 0.981 -11.074 0.981 -11.074 0.192 78.788
8286.25 0.193 78.751 0.981 -11.112 0.981 -11.112 0.193 78.751
8311.208 0.193 78.714 0.981 -11.149 0.981 -11.149 0.193 78.714
