# MHZ S MA R 50

50 0.999 -2.429 0.042 87.567 0.042 87.567 0.999 -2.429
74.958 0.998 -3.638 0.063 86.355 0.063 86.355 0.998 -3.638
99.917 0.996 -4.845 0.084 85.146 0.084 85.146 0.996 -4.845
124.875 0.994 -6.048 0.105 83.941 0.105 83.941 0.994 -6.048
149.833 0.992 -7.246 0.126 82.741 0.126 82.741 0.992 -7.246
174.792 0.989 -8.438 0.147 81.546 0.147 81.546 0.989 -8.438
199.75 0.986 -9.624 0.167 80.359 0.167 80.359 0.986 -9.624
224.708 0.982 -10.802 0.187 79.179 0.187 79.179 0.982 -10.802
249.667 0.978 -11.971 0.207 78.007 0.207 78.007 0.978 -11.971
274.625 0.974 -13.132 0.227 76.845 0.227 76.845 0.974 -13.132
299.583 0.969 -14.282 0.247 75.692 0.247 75.692 0.969 -14.282
324.542 0.964 -15.422 0.266 74.55 0.266 74.55 0.964 -15.422
349.5 0.958 -16.55 0.285 73.419 0.285 73.419 0.958 -16.55
374.458 0.953 -17.667 0.303 72.301 0.303 72.301 0.953 -17.667
399.417 0.947 -18.771 0.322 71.195 0.322 71.195 0.947 -18.771
424.375 0.94 -19.862 0.34 70.101 0.34 70.101 0.94 -19.862
449.333 0.934 -20.939 0.357 69.022 0.357 69.022 0.934 -20.939
474.292 0.927 -22.003 0.375 67.956 0.375 67.956 0.927 -22.003
499.25 0.92 -23.052 0.392 66.904 0.392 66.904 0.92 -23.052
524.208 0.913 -24.087 0.408 65.867 0.408 65.867 0.913 -24.087
549.167 0.905 -25.107 0.424 64.845 0.424 64.845 0.905 -25.107
574.125 0.898 -26.112 0.44 63.838 0.44 63.838 0.898 -26.112
599.083 0.89 -27.101 0.456 62.847 0.456 62.847 0.89 -27.101
624.042 0.882 -28.075 0.471 61.87 0.471 61.87 0.882 -28.075
649 0.874 -29.033 0.485 60.91 0.485 60.91 0.874 -29.033
673.958 0.866 -29.976 0.5 59.965 0.5 59.965 0.866 -29.976
698.917 0.857 -30.903 0.514 59.036 0.514 59.036 0.857 -30.903
723.875 0.849 -31.814 0.527 58.123 0.527 58.123 0.849 -31.814
748.833 0.841 -32.709 0.54 57.225 0.54 57.225 0.841 -32.709
773.792 0.832 -33.589 0.553 56.343 0.553 56.343 0.832 -33.589
798.75 0.824 -34.453 0.566 55.477 0.566 55.477 0.824 -34.453
823.708 0.815 -35.302 0.578 54.626 0.578 54.626 0.815 -35.302
848.667 0.807 -36.135 0.59 53.791 0.59 53.791 0.807 -36.135
873.625 0.798 -36.952 0.601 52.971 0.601 52.971 0.798 -36.952
898.583 0.79 -37.755 0.612 52.166 0.612 52.166 0.79 -37.755
923.542 0.781 -38.542 0.623 51.376 0.623 51.376 0.781 -38.542
948.5 0.773 -39.315 0.634 50.601 0.634 50.601 0.773 -39.315
973.458 0.764 -40.073 0.644 49.841 0.644 49.841 0.764 -40.073
998.417 0.756 -40.817 0.654 49.095 0.654 49.095 0.756 -40.817
1023.375 0.747 -41.547 0.663 48.363 0.663 48.363 0.747 -41.547
1048.333 0.739 -42.262 0.673 47.645 0.673 47.645 0.739 -42.262
1073.292 0.731 -42.964 0.682 46.941 0.682 46.941 0.731 -42.964
1098.25 0.722 -43.652 0.69 46.25 0.69 46.25 0.722 -43.652
1123.208 0.714 -44.327 0.699 45.573 0.699 45.573 0.714 -44.327
1148.167 0.706 -44.989 0.707 44.908 0.707 44.908 0.706 -44.989
1173.125 0.698 -45.639 0.715 44.257 0.715 44.257 0.698 -45.639
1198.083 0.69 -46.275 0.723 43.618 0.723 43.618 0.69 -46.275
1223.042 0.682 -46.9 0.73 42.991 0.73 42.991 0.682 -46.9
1248 0.674 -47.512 0.737 42.376 0.737 42.376 0.674 -47.512
1272.958 0.666 -48.113 0.744 41.773 0.744 41.773 0.666 -48.113
1297.917 0.658 -48.702 0.751 41.182 0.751 41.182 0.658 -48.702
1322.875 0.651 -49.279 0.758 40.602 0.758 40.602 0.651 -49.279
1347.833 0.643 -49.846 0.764 40.033 0.764 40.033 0.643 -49.846
1372.792 0.636 -50.402 0.771 39.474 0.771 39.474 0.636 -50.402
1397.75 0.628 -50.947 0.777 38.927 0.777 38.927 0.628 -50.947
1422.708 0.621 -51.482 0.782 38.389 0.782 38.389 0.621 -51.482
1447.667 0.614 -52.007 0.788 37.862 0.788 37.862 0.614 -52.007
1472.625 0.607 -52.522 0.794 37.344 0.794 37.344 0.607 -52.522
1497.583 0.6 -53.027 0.799 36.837 0.799 36.837 0.6 -53.027
1522.542 0.593 -53.523 0.804 36.338 0.804 36.338 0.593 -53.523
1547.5 0.586 -54.01 0.809 35.849 0.809 35.849 0.586 -54.01
1572.458 0.579 -54.488 0.814 35.369 0.814 35.369 0.579 -54.488
1597.417 0.572 -54.957 0.819 34.897 0.819 34.897 0.572 -54.957
1622.375 0.565 -55.417 0.823 34.434 0.823 34.434 0.565 -55.417
1647.333 0.559 -55.869 0.828 33.979 0.828 33.979 0.559 -55.869
1672.292 0.552 -56.313 0.832 33.533 0.832 33.533 0.552 -56.313
1697.25 0.546 -56.749 0.836 33.094 0.836 33.094 0.546 -56.749
1722.208 0.54 -57.178 0.84 32.664 0.84 32.664 0.54 -57.178
1747.167 0.533 -57.598 0.844 32.24 0.844 32.24 0.533 -57.598
1772.125 0.527 -58.011 0.848 31.825 0.848 31.825 0.527 -58.011
1797.083 0.521 -58.417 0.852 31.416 0.852 31.416 0.521 -58.417
1822.042 0.515 -58.816 0.856 31.014 0.856 31.014 0.515 -58.816
1847 0.509 -59.208 0.859 30.62 0.859 30.62 0.509 -59.208
1871.958 0.504 -59.594 0.862 30.232 0.862 30.232 0.504 -59.594
1896.917 0.498 -59.972 0.866 29.85 0.866 29.85 0.498 -59.972
1921.875 0.492 -60.345 0.869 29.475 0.869 29.475 0.492 -60.345
1946.833 0.486 -60.711 0.872 29.106 0.872 29.106 0.486 -60.711
1971.792 0.481 -61.071 0.875 28.744 0.875 28.744 0.481 -61.071
1996.75 0.475 -61.425 0.878 28.387 0.878 28.387 0.475 -61.425
2021.708 0.47 -61.773 0.881 28.036 0.881 28.036 0.47 -61.773
2046.667 0.465 -62.115 0.884 27.691 0.884 27.691 0.465 -62.115
2071.625 0.459 -62.452 0.887 27.351 0.887 27.351 0.459 -62.452
2096.583 0.454 -62.784 0.889 27.017 0.889 27.017 0.454 -62.784
2121.542 0.449 -63.11 0.892 26.688 0.892 26.688 0.449 -63.11
2146.5 0.444 -63.431 0.894 26.364 0.894 26.364 0.444 -63.431
2171.458 0.439 -63.747 0.897 26.045 0.897 26.045 0.439 -63.747
2196.417 0.434 -64.058 0.899 25.731 0.899 25.731 0.434 -64.058
2221.375 0.429 -64.364 0.902 25.422 0.902 25.422 0.429 -64.364
2246.333 0.424 -64.666 0.904 25.117 0.904 25.117 0.424 -64.666
2271.292 0.42 -64.962 0.906 24.817 0.906 24.817 0.42 -64.962
2296.25 0.415 -65.255 0.908 24.522 0.908 24.522 0.415 -65.255
2321.208 0.41 -65.543 0.91 24.231 0.91 24.231 0.41 -65.543
2346.167 0.406 -65.827 0.912 23.944 0.912 23.944 0.406 -65.827
2371.125 0.401 -66.106 0.914 23.662 0.914 23.662 0.401 -66.106
2396.083 0.397 -66.381 0.916 23.383 0.916 23.383 0.397 -66.381
2421.042 0.392 -66.653 0.918 23.109 0.918 23.109 0.392 -66.653
2446 0.388 -66.92 0.92 22.838 0.92 22.838 0.388 -66.92
2470.958 0.384 -67.184 0.922 22.571 0.922 22.571 0.384 -67.184
2495.917 0.38 -67.444 0.924 22.308 0.924 22.308 0.38 -67.444
2520.875 0.375 -67.7 0.925 22.049 0.925 22.049 0.375 -67.7
2545.833 0.371 -67.953 0.927 21.793 0.927 21.793 0.371 -67.953
2570.792 0.367 -68.202 0.929 21.54 0.929 21.54 0.367 -68.202
2595.75 0.363 -68.447 0.93 21.291 0.93 21.291 0.363 -68.447
2620.708 0.359 -68.69 0.932 21.046 0.932 21.046 0.359 -68.69
2645.667 0.355 -68.929 0.933 20.803 0.933 20.803 0.355 -68.929
2670.625 0.351 -69.164 0.935 20.564 0.935 20.564 0.351 -69.164
2695.583 0.347 -69.397 0.936 20.328 0.936 20.328 0.347 -69.397
2720.542 0.344 -69.626 0.937 20.095 0.937 20.095 0.344 -69.626
2745.5 0.34 -69.853 0.939 19.865 0.939 19.865 0.34 -69.853
2770.458 0.336 -70.076 0.94 19.638 0.94 19.638 0.336 -70.076
2795.417 0.332 -70.297 0.941 19.414 0.941 19.414 0.332 -70.297
2820.375 0.329 -70.515 0.943 19.193 0.943 19.193 0.329 -70.515
2845.333 0.325 -70.73 0.944 18.974 0.944 18.974 0.325 -70.73
2870.292 0.322 -70.942 0.945 18.758 0.945 18.758 0.322 -70.942
2895.25 0.318 -71.152 0.946 18.545 0.946 18.545 0.318 -71.152
2920.208 0.315 -71.358 0.948 18.334 0.948 18.334 0.315 -71.358
2945.167 0.311 -71.563 0.949 18.126 0.949 18.126 0.311 -71.563
2970.125 0.308 -71.765 0.95 17.92 0.95 17.92 0.308 -71.765
2995.083 0.304 -71.964 0.951 17.717 0.951 17.717 0.304 -71.964
3020.042 0.301 -72.161 0.952 17.516 0.952 17.516 0.301 -72.161
3045 0.298 -72.356 0.953 17.318 0.953 17.318 0.298 -72.356
3069.958 0.294 -72.548 0.954 17.122 0.954 17.122 0.294 -72.548
3094.917 0.291 -72.738 0.955 16.928 0.955 16.928 0.291 -72.738
3119.875 0.288 -72.926 0.956 16.736 0.956 16.736 0.288 -72.926
3144.833 0.285 -73.111 0.957 16.546 0.957 16.546 0.285 -73.111
3169.792 0.282 -73.295 0.958 16.359 0.958 16.359 0.282 -73.295
3194.75 0.279 -73.476 0.959 16.173 0.959 16.173 0.279 -73.476
3219.708 0.275 -73.655 0.96 15.99 0.96 15.99 0.275 -73.655
3244.667 0.272 -73.832 0.96 15.808 0.96 15.808 0.272 -73.832
3269.625 0.269 -74.007 0.961 15.629 0.961 15.629 0.269 -74.007
3294.583 0.266 -74.18 0.962 15.451 0.962 15.451 0.266 -74.18
3319.542 0.263 -74.352 0.963 15.275 0.963 15.275 0.263 -74.352
3344.5 0.261 -74.521 0.964 15.102 0.964 15.102 0.261 -74.521
3369.458 0.258 -74.688 0.965 14.93 0.965 14.93 0.258 -74.688
3394.417 0.255 -74.854 0.965 14.759 0.965 14.759 0.255 -74.854
3419.375 0.252 -75.018 0.966 14.591 0.966 14.591 0.252 -75.018
3444.333 0.249 -75.18 0.967 14.424 0.967 14.424 0.249 -75.18
3469.292 0.246 -75.34 0.967 14.259 0.967 14.259 0.246 -75.34
3494.25 0.244 -75.499 0.968 14.095 0.968 14.095 0.244 -75.499
3519.208 0.241 -75.656 0.969 13.934 0.969 13.934 0.241 -75.656
3544.167 0.238 -75.811 0.97 13.773 0.97 13.773 0.238 -75.811
3569.125 0.235 -75.965 0.97 13.615 0.97 13.615 0.235 -75.965
3594.083 0.233 -76.117 0.971 13.458 0.971 13.458 0.233 -76.117
3619.042 0.23 -76.267 0.971 13.302 0.971 13.302 0.23 -76.267
3644 0.227 -76.416 0.972 13.148 0.972 13.148 0.227 -76.416
3668.958 0.225 -76.564 0.973 12.995 0.973 12.995 0.225 -76.564
3693.917 0.222 -76.71 0.973 12.844 0.973 12.844 0.222 -76.71
3718.875 0.22 -76.854 0.974 12.694 0.974 12.694 0.22 -76.854
3743.833 0.217 -76.997 0.974 12.545 0.974 12.545 0.217 -76.997
3768.792 0.215 -77.139 0.975 12.398 0.975 12.398 0.215 -77.139
3793.75 0.212 -77.279 0.975 12.252 0.975 12.252 0.212 -77.279
3818.708 0.21 -77.417 0.976 12.108 0.976 12.108 0.21 -77.417
3843.667 0.207 -77.555 0.977 11.965 0.977 11.965 0.207 -77.555
3868.625 0.205 -77.691 0.977 11.823 0.977 11.823 0.205 -77.691
3893.583 0.202 -77.825 0.978 11.682 0.978 11.682 0.202 -77.825
3918.542 0.2 -77.959 0.978 11.543 0.978 11.543 0.2 -77.959
3943.5 0.198 -78.091 0.979 11.404 0.979 11.404 0.198 -78.091
3968.458 0.195 -78.222 0.979 11.267 0.979 11.267 0.195 -78.222
3993.417 0.193 -78.351 0.979 11.131 0.979 11.131 0.193 -78.351
4018.375 0.191 -78.479 0.98 10.997 0.98 10.997 0.191 -78.479
4043.333 0.188 -78.607 0.98 10.863 0.98 10.863 0.188 -78.607
4068.292 0.186 -78.732 0.981 10.73 0.981 10.73 0.186 -78.732
4093.25 0.184 -78.857 0.981 10.599 0.981 10.599 0.184 -78.857
4118.208 0.182 -78.98 0.982 10.468 0.982 10.468 0.182 -78.98
4143.167 0.179 -79.103 0.982 10.339 0.982 10.339 0.179 -79.103
4168.125 0.177 -79.224 0.982 10.211 0.982 10.211 0.177 -79.224
4193.083 0.175 -79.344 0.983 10.084 0.983 10.084 0.175 -79.344
4218.042 0.173 -79.463 0.983 9.957 0.983 9.957 0.173 -79.463
4243 0.171 -79.581 0.984 9.832 0.984 9.832 0.171 -79.581
4267.958 0.169 -79.697 0.984 9.708 0.984 9.708 0.169 -79.697
4292.917 0.167 -79.813 0.984 9.584 0.984 9.584 0.167 -79.813
4317.875 0.164 -79.927 0.985 9.462 0.985 9.462 0.164 -79.927
4342.833 0.162 -80.041 0.985 9.34 0.985 9.34 0.162 -80.041
4367.792 0.16 -80.153 0.985 9.22 0.985 9.22 0.16 -80.153
4392.75 0.158 -80.264 0.986 9.1 0.986 9.1 0.158 -80.264
4417.708 0.156 -80.374 0.986 8.981 0.986 8.981 0.156 -80.374
4442.667 0.154 -80.484 0.986 8.863 0.986 8.863 0.154 -80.484
4467.625 0.152 -80.592 0.987 8.746 0.987 8.746 0.152 -80.592
4492.583 0.15 -80.699 0.987 8.63 0.987 8.63 0.15 -80.699
4517.542 0.148 -80.805 0.987 8.515 0.987 8.515 0.148 -80.805
4542.5 0.146 -80.91 0.988 8.4 0.988 8.4 0.146 -80.91
4567.458 0.144 -81.014 0.988 8.287 0.988 8.287 0.144 -81.014
4592.417 0.142 -81.117 0.988 8.174 0.988 8.174 0.142 -81.117
4617.375 0.14 -81.22 0.988 8.061 0.988 8.061 0.14 -81.22
4642.333 0.138 -81.321 0.989 7.95 0.989 7.95 0.138 -81.321
4667.292 0.136 -81.421 0.989 7.84 0.989 7.84 0.136 -81.421
4692.25 0.135 -81.52 0.989 7.73 0.989 7.73 0.135 -81.52
4717.208 0.133 -81.618 0.989 7.621 0.989 7.621 0.133 -81.618
4742.167 0.131 -81.716 0.99 7.512 0.99 7.512 0.131 -81.716
4767.125 0.129 -81.812 0.99 7.404 0.99 7.404 0.129 -81.812
4792.083 0.127 -81.907 0.99 7.298 0.99 7.298 0.127 -81.907
4817.042 0.125 -82.002 0.99 7.191 0.99 7.191 0.125 -82.002
4842 0.123 -82.095 0.991 7.086 0.991 7.086 0.123 -82.095
4866.958 0.122 -82.188 0.991 6.981 0.991 6.981 0.122 -82.188
4891.917 0.12 -82.279 0.991 6.877 0.991 6.877 0.12 -82.279
4916.875 0.118 -82.37 0.991 6.773 0.991 6.773 0.118 -82.37
4941.833 0.116 -82.459 0.991 6.67 0.991 6.67 0.116 -82.459
4966.792 0.114 -82.548 0.992 6.568 0.992 6.568 0.114 -82.548
4991.75 0.113 -82.635 0.992 6.466 0.992 6.466 0.113 -82.635
5016.708 0.111 -82.722 0.992 6.365 0.992 6.365 0.111 -82.722
5041.667 0.109 -82.808 0.992 6.265 0.992 6.265 0.109 -82.808
5066.625 0.107 -82.892 0.992 6.165 0.992 6.165 0.107 -82.892
5091.583 0.106 -82.976 0.993 6.066 0.993 6.066 0.106 -82.976
5116.542 0.104 -83.059 0.993 5.967 0.993 5.967 0.104 -83.059
5141.5 0.102 -83.14 0.993 5.869 0.993 5.869 0.102 -83.14
5166.458 0.101 -83.221 0.993 5.772 0.993 5.772 0.101 -83.221
5191.417 0.099 -83.3 0.993 5.675 0.993 5.675 0.099 -83.3
5216.375 0.097 -83.379 0.993 5.579 0.993 5.579 0.097 -83.379
5241.333 0.096 -83.456 0.994 5.483 0.994 5.483 0.096 -83.456
5266.292 0.094 -83.533 0.994 5.388 0.994 5.388 0.094 -83.533
5291.25 0.092 -83.608 0.994 5.293 0.994 5.293 0.092 -83.608
5316.208 0.091 -83.682 0.994 5.199 0.994 5.199 0.091 -83.682
5341.167 0.089 -83.755 0.994 5.106 0.994 5.106 0.089 -83.755
5366.125 0.087 -83.827 0.994 5.013 0.994 5.013 0.087 -83.827
5391.083 0.086 -83.897 0.995 4.92 0.995 4.92 0.086 -83.897
5416.042 0.084 -83.967 0.995 4.828 0.995 4.828 0.084 -83.967
5441 0.083 -84.035 0.995 4.737 0.995 4.737 0.083 -84.035
5465.958 0.081 -84.102 0.995 4.645 0.995 4.645 0.081 -84.102
5490.917 0.079 -84.167 0.995 4.555 0.995 4.555 0.079 -84.167
5515.875 0.078 -84.231 0.995 4.465 0.995 4.465 0.078 -84.231
5540.833 0.076 -84.294 0.995 4.375 0.995 4.375 0.076 -84.294
5565.792 0.075 -84.356 0.995 4.286 0.995 4.286 0.075 -84.356
5590.75 0.073 -84.415 0.996 4.197 0.996 4.197 0.073 -84.415
5615.708 0.072 -84.474 0.996 4.109 0.996 4.109 0.072 -84.474
5640.667 0.07 -84.53 0.996 4.021 0.996 4.021 0.07 -84.53
5665.625 0.069 -84.586 0.996 3.934 0.996 3.934 0.069 -84.586
5690.583 0.067 -84.639 0.996 3.847 0.996 3.847 0.067 -84.639
5715.542 0.066 -84.69 0.996 3.761 0.996 3.761 0.066 -84.69
5740.5 0.064 -84.74 0.996 3.675 0.996 3.675 0.064 -84.74
5765.458 0.063 -84.788 0.996 3.589 0.996 3.589 0.063 -84.788
5790.417 0.061 -84.833 0.996 3.504 0.996 3.504 0.061 -84.833
5815.375 0.06 -84.877 0.996 3.419 0.996 3.419 0.06 -84.877
5840.333 0.058 -84.918 0.997 3.335 0.997 3.335 0.058 -84.918
5865.292 0.057 -84.957 0.997 3.251 0.997 3.251 0.057 -84.957
5890.25 0.055 -84.993 0.997 3.168 0.997 3.168 0.055 -84.993
5915.208 0.054 -85.027 0.997 3.085 0.997 3.085 0.054 -85.027
5940.167 0.052 -85.057 0.997 3.002 0.997 3.002 0.052 -85.057
5965.125 0.051 -85.085 0.997 2.919 0.997 2.919 0.051 -85.085
5990.083 0.05 -85.109 0.997 2.838 0.997 2.838 0.05 -85.109
6015.042 0.048 -85.13 0.997 2.756 0.997 2.756 0.048 -85.13
6040 0.047 -85.147 0.997 2.675 0.997 2.675 0.047 -85.147
6064.958 0.045 -85.16 0.997 2.594 0.997 2.594 0.045 -85.16
6089.917 0.044 -85.168 0.997 2.513 0.997 2.513 0.044 -85.168
6114.875 0.042 -85.172 0.997 2.433 0.997 2.433 0.042 -85.172
6139.833 0.041 -85.171 0.997 2.354 0.997 2.354 0.041 -85.171
6164.792 0.04 -85.163 0.997 2.274 0.997 2.274 0.04 -85.163
6189.75 0.038 -85.15 0.997 2.195 0.997 2.195 0.038 -85.15
6214.708 0.037 -85.13 0.998 2.116 0.998 2.116 0.037 -85.13
6239.667 0.036 -85.103 0.998 2.038 0.998 2.038 0.036 -85.103
6264.625 0.034 -85.067 0.998 1.96 0.998 1.96 0.034 -85.067
6289.583 0.033 -85.022 0.998 1.882 0.998 1.882 0.033 -85.022
6314.542 0.032 -84.967 0.998 1.805 0.998 1.805 0.032 -84.967
6339.5 0.03 -84.901 0.998 1.728 0.998 1.728 0.03 -84.901
6364.458 0.029 -84.821 0.998 1.651 0.998 1.651 0.029 -84.821
6389.417 0.028 -84.727 0.998 1.575 0.998 1.575 0.028 -84.727
6414.375 0.026 -84.615 0.998 1.499 0.998 1.499 0.026 -84.615
6439.333 0.025 -84.485 0.998 1.423 0.998 1.423 0.025 -84.485
6464.292 0.024 -84.332 0.998 1.348 0.998 1.348 0.024 -84.332
6489.25 0.022 -84.153 0.998 1.272 0.998 1.272 0.022 -84.153
6514.208 0.021 -83.943 0.998 1.198 0.998 1.198 0.021 -83.943
6539.167 0.02 -83.697 0.998 1.123 0.998 1.123 0.02 -83.697
6564.125 0.018 -83.406 0.998 1.049 0.998 1.049 0.018 -83.406
6589.083 0.017 -83.062 0.998 0.975 0.998 0.975 0.017 -83.062
6614.042 0.016 -82.653 0.998 0.901 0.998 0.901 0.016 -82.653
6639 0.015 -82.16 0.998 0.828 0.998 0.828 0.015 -82.16
6663.958 0.013 -81.561 0.998 0.755 0.998 0.755 0.013 -81.561
6688.917 0.012 -80.825 0.998 0.682 0.998 0.682 0.012 -80.825
6713.875 0.011 -79.904 0.998 0.609 0.998 0.609 0.011 -79.904
6738.833 9.54e-3 -78.728 0.998 0.537 0.998 0.537 9.54e-3 -78.728
6763.792 8.309e-3 -77.186 0.998 0.465 0.998 0.465 8.309e-3 -77.186
6788.75 7.092e-3 -75.094 0.998 0.393 0.998 0.393 7.092e-3 -75.094
6813.708 5.893e-3 -72.125 0.998 0.322 0.998 0.322 5.893e-3 -72.125
6838.667 4.723e-3 -67.647 0.998 0.251 0.998 0.251 4.723e-3 -67.647
6863.625 3.607e-3 -60.298 0.998 0.18 0.998 0.18 3.607e-3 -60.298
6888.583 2.605e-3 -46.879 0.998 0.109 0.998 0.109 2.605e-3 -46.879
6913.542 1.901e-3 -20.792 0.998 0.039 0.998 0.039 1.901e-3 -20.792
6938.5 1.86e-3 17.112 0.998 -0.031 0.998 -0.031 1.86e-3 17.112
6963.458 2.507e-3 44.753 0.998 -0.101 0.998 -0.101 2.507e-3 44.753
6988.417 3.473e-3 59.051 0.998 -0.171 0.998 -0.171 3.473e-3 59.051
7013.375 4.556e-3 66.801 0.998 -0.24 0.998 -0.24 4.556e-3 66.801
7038.333 5.687e-3 71.481 0.998 -0.31 0.998 -0.31 5.687e-3 71.481
7063.292 6.84e-3 74.562 0.998 -0.378 0.998 -0.378 6.84e-3 74.562
7088.25 8.003e-3 76.724 0.998 -0.447 0.998 -0.447 8.003e-3 76.724
7113.208 9.172e-3 78.312 0.998 -0.516 0.998 -0.516 9.172e-3 78.312
7138.167 0.01 79.522 0.998 -0.584 0.998 -0.584 0.01 79.522
7163.125 0.012 80.469 0.998 -0.652 0.998 -0.652 0.012 80.469
7188.083 0.013 81.226 0.998 -0.719 0.998 -0.719 0.013 81.226
7213.042 0.014 81.841 0.998 -0.787 0.998 -0.787 0.014 81.841
7238 0.015 82.349 0.998 -0.854 0.998 -0.854 0.015 82.349
7262.958 0.016 82.773 0.998 -0.921 0.998 -0.921 0.016 82.773
7287.917 0.017 83.129 0.998 -0.988 0.998 -0.988 0.017 83.129
7312.875 0.018 83.432 0.998 -1.055 0.998 -1.055 0.018 83.432
7337.833 0.02 83.69 0.998 -1.121 0.998 -1.121 0.02 83.69
7362.792 0.021 83.912 0.998 -1.187 0.998 -1.187 0.021 83.912
7387.75 0.022 84.103 0.998 -1.253 0.998 -1.253 0.022 84.103
7412.708 0.023 84.268 0.998 -1.319 0.998 -1.319 0.023 84.268
7437.667 0.024 84.41 0.998 -1.385 0.998 -1.385 0.024 84.41
7462.625 0.025 84.534 0.998 -1.45 0.998 -1.45 0.025 84.534
7487.583 0.027 84.641 0.998 -1.515 0.998 -1.515 0.027 84.641
7512.542 0.028 84.734 0.998 -1.58 0.998 -1.58 0.028 84.734
7537.5 0.029 84.814 0.998 -1.645 0.998 -1.645 0.029 84.814
7562.458 0.03 84.883 0.998 -1.709 0.998 -1.709 0.03 84.883
7587.417 0.031 84.942 0.998 -1.774 0.998 -1.774 0.031 84.942
7612.375 0.032 84.992 0.998 -1.838 0.998 -1.838 0.032 84.992
7637.333 0.033 85.035 0.998 -1.902 0.998 -1.902 0.033 85.035
7662.292 0.034 85.07 0.998 -1.966 0.998 -1.966 0.034 85.07
7687.25 0.035 85.099 0.998 -2.029 0.998 -2.029 0.035 85.099
7712.208 0.037 85.123 0.998 -2.093 0.998 -2.093 0.037 85.123
7737.167 0.038 85.141 0.998 -2.156 0.998 -2.156 0.038 85.141
7762.125 0.039 85.155 0.997 -2.219 0.997 -2.219 0.039 85.155
7787.083 0.04 85.164 0.997 -2.282 0.997 -2.282 0.04 85.164
7812.042 0.041 85.17 0.997 -2.344 0.997 -2.344 0.041 85.17
7837 0.042 85.172 0.997 -2.407 0.997 -2.407 0.042 85.172
7861.958 0.043 85.171 0.997 -2.469 0.997 -2.469 0.043 85.171
7886.917 0.044 85.167 0.997 -2.531 0.997 -2.531 0.044 85.167
7911.875 0.045 85.16 0.997 -2.593 0.997 -2.593 0.045 85.16
7936.833 0.046 85.15 0.997 -2.655 0.997 -2.655 0.046 85.15
7961.792 0.047 85.139 0.997 -2.716 0.997 -2.716 0.047 85.139
7986.75 0.048 85.125 0.997 -2.778 0.997 -2.778 0.048 85.125
8011.708 0.05 85.109 0.997 -2.839 0.997 -2.839 0.05 85.109
8036.667 0.051 85.091 0.997 -2.9 0.997 -2.9 0.051 85.091
8061.625 0.052 85.071 0.997 -2.961 0.997 -2.961 0.052 85.071
8086.583 0.053 85.05 0.997 -3.021 0.997 -3.021 0.053 85.05
8111.542 0.054 85.028 0.997 -3.082 0.997 -3.082 0.054 85.028
8136.5 0.055 85.004 0.997 -3.142 0.997 -3.142 0.055 85.004
8161.458 0.056 84.978 0.997 -3.203 0.997 -3.203 0.056 84.978
8186.417 0.057 84.952 0.997 -3.263 0.997 -3.263 0.057 84.952
