# MHZ S MA R 50

50 0.727 -43.325 0.686 46.668 0.686 46.668 0.727 -43.325
74.958 0.577 -54.757 0.817 35.233 0.817 35.233 0.577 -54.757
99.917 0.468 -62.105 0.884 27.882 0.884 27.882 0.468 -62.105
124.875 0.389 -67.079 0.921 22.904 0.921 22.904 0.389 -67.079
149.833 0.331 -70.625 0.943 19.356 0.943 19.356 0.331 -70.625
174.792 0.288 -73.263 0.958 16.714 0.958 16.714 0.288 -73.263
199.75 0.253 -75.297 0.967 14.676 0.967 14.676 0.253 -75.297
224.708 0.226 -76.911 0.974 13.059 0.974 13.059 0.226 -76.911
249.667 0.204 -78.222 0.979 11.744 0.979 11.744 0.204 -78.222
274.625 0.185 -79.309 0.983 10.655 0.983 10.655 0.185 -79.309
299.583 0.169 -80.224 0.985 9.736 0.985 9.736 0.169 -80.224
324.542 0.156 -81.005 0.988 8.951 0.988 8.951 0.156 -81.005
349.5 0.144 -81.681 0.989 8.272 0.989 8.272 0.144 -81.681
374.458 0.134 -82.271 0.991 7.678 0.991 7.678 0.134 -82.271
399.417 0.125 -82.792 0.992 7.153 0.992 7.153 0.125 -82.792
424.375 0.116 -83.255 0.993 6.687 0.993 6.687 0.116 -83.255
449.333 0.109 -83.669 0.994 6.268 0.994 6.268 0.109 -83.669
474.292 0.103 -84.043 0.995 5.89 0.995 5.89 0.103 -84.043
499.25 0.097 -84.382 0.995 5.547 0.995 5.547 0.097 -84.382
524.208 0.091 -84.691 0.996 5.234 0.996 5.234 0.091 -84.691
549.167 0.086 -84.974 0.996 4.947 0.996 4.947 0.086 -84.974
574.125 0.082 -85.234 0.997 4.682 0.997 4.682 0.082 -85.234
599.083 0.077 -85.475 0.997 4.437 0.997 4.437 0.077 -85.475
624.042 0.073 -85.697 0.997 4.209 0.997 4.209 0.073 -85.697
649 0.07 -85.905 0.997 3.997 0.997 3.997 0.07 -85.905
673.958 0.066 -86.098 0.998 3.798 0.998 3.798 0.066 -86.098
698.917 0.063 -86.279 0.998 3.612 0.998 3.612 0.063 -86.279
723.875 0.06 -86.449 0.998 3.436 0.998 3.436 0.06 -86.449
748.833 0.057 -86.609 0.998 3.271 0.998 3.271 0.057 -86.609
773.792 0.054 -86.759 0.998 3.114 0.998 3.114 0.054 -86.759
798.75 0.052 -86.902 0.999 2.966 0.999 2.966 0.052 -86.902
823.708 0.049 -87.036 0.999 2.825 0.999 2.825 0.049 -87.036
848.667 0.047 -87.163 0.999 2.69 0.999 2.69 0.047 -87.163
873.625 0.045 -87.284 0.999 2.562 0.999 2.562 0.045 -87.284
898.583 0.043 -87.399 0.999 2.44 0.999 2.44 0.043 -87.399
923.542 0.041 -87.508 0.999 2.322 0.999 2.322 0.041 -87.508
948.5 0.039 -87.612 0.999 2.21 0.999 2.21 0.039 -87.612
973.458 0.037 -87.711 0.999 2.102 0.999 2.102 0.037 -87.711
998.417 0.035 -87.805 0.999 1.997 0.999 1.997 0.035 -87.805
1023.375 0.033 -87.895 0.999 1.897 0.999 1.897 0.033 -87.895
1048.333 0.031 -87.981 0.999 1.8 0.999 1.8 0.031 -87.981
1073.292 0.03 -88.062 0.999 1.707 0.999 1.707 0.03 -88.062
1098.25 0.028 -88.14 0.999 1.617 0.999 1.617 0.028 -88.14
1123.208 0.027 -88.213 1 1.529 1 1.529 0.027 -88.213
1148.167 0.025 -88.283 1 1.444 1 1.444 0.025 -88.283
1173.125 0.024 -88.349 1 1.362 1 1.362 0.024 -88.349
1198.083 0.022 -88.411 1 1.282 1 1.282 0.022 -88.411
1223.042 0.021 -88.469 1 1.204 1 1.204 0.021 -88.469
1248 0.02 -88.523 1 1.128 1 1.128 0.02 -88.523
1272.958 0.018 -88.572 1 1.054 1 1.054 0.018 -88.572
1297.917 0.017 -88.617 1 0.982 1 0.982 0.017 -88.617
1322.875 0.016 -88.656 1 0.912 1 0.912 0.016 -88.656
1347.833 0.015 -88.69 1 0.843 1 0.843 0.015 -88.69
1372.792 0.014 -88.716 1 0.776 1 0.776 0.014 -88.716
1397.75 0.012 -88.735 1 0.71 1 0.71 0.012 -88.735
1422.708 0.011 -88.744 1 0.646 1 0.646 0.011 -88.744
1447.667 0.01 -88.741 1 0.583 1 0.583 0.01 -88.741
1472.625 9.099e-3 -88.723 1 0.521 1 0.521 9.099e-3 -88.723
1497.583 8.043e-3 -88.684 1 0.461 1 0.461 8.043e-3 -88.684
1522.542 7.006e-3 -88.617 1 0.401 1 0.401 7.006e-3 -88.617
1547.5 5.988e-3 -88.508 1 0.343 1 0.343 5.988e-3 -88.508
1572.458 4.988e-3 -88.335 1 0.286 1 0.286 4.988e-3 -88.335
1597.417 4.005e-3 -88.053 1 0.229 1 0.229 4.005e-3 -88.053
1622.375 3.038e-3 -87.562 1 0.174 1 0.174 3.038e-3 -87.562
1647.333 2.088e-3 -86.584 1 0.119 1 0.119 2.088e-3 -86.584
1672.292 1.154e-3 -83.962 1 0.066 1 0.066 1.154e-3 -83.962
1697.25 254.8e-6 -61.879 1 0.013 1 0.013 254.8e-6 -61.879
1722.208 694.9e-6 80.013 1 -0.039 1 -0.039 694.9e-6 80.013
1747.167 1.585e-3 85.566 1 -0.091 1 -0.091 1.585e-3 85.566
1772.125 2.468e-3 87.07 1 -0.141 1 -0.141 2.468e-3 87.07
1797.083 3.339e-3 87.748 1 -0.191 1 -0.191 3.339e-3 87.748
1822.042 4.199e-3 88.121 1 -0.24 1 -0.24 4.199e-3 88.121
1847 5.048e-3 88.348 1 -0.289 1 -0.289 5.048e-3 88.348
1871.958 5.887e-3 88.494 1 -0.337 1 -0.337 5.887e-3 88.494
1896.917 6.716e-3 88.591 1 -0.385 1 -0.385 6.716e-3 88.591
1921.875 7.535e-3 88.655 1 -0.432 1 -0.432 7.535e-3 88.655
1946.833 8.345e-3 88.698 1 -0.478 1 -0.478 8.345e-3 88.698
1971.792 9.146e-3 88.724 1 -0.524 1 -0.524 9.146e-3 88.724
1996.75 9.939e-3 88.739 1 -0.569 1 -0.569 9.939e-3 88.739
2021.708 0.011 88.744 1 -0.614 1 -0.614 0.011 88.744
2046.667 0.011 88.743 1 -0.659 1 -0.659 0.011 88.743
2071.625 0.012 88.736 1 -0.703 1 -0.703 0.012 88.736
2096.583 0.013 88.726 1 -0.746 1 -0.746 0.013 88.726
2121.542 0.014 88.711 1 -0.79 1 -0.79 0.014 88.711
2146.5 0.015 88.694 1 -0.832 1 -0.832 0.015 88.694
2171.458 0.015 88.675 1 -0.875 1 -0.875 0.015 88.675
2196.417 0.016 88.653 1 -0.917 1 -0.917 0.016 88.653
2221.375 0.017 88.63 1 -0.959 1 -0.959 0.017 88.63
2246.333 0.017 88.606 1 -1 1 -1 0.017 88.606
2271.292 0.018 88.581 1 -1.041 1 -1.041 0.018 88.581
2296.25 0.019 88.554 1 -1.082 1 -1.082 0.019 88.554
2321.208 0.02 88.527 1 -1.122 1 -1.122 0.02 88.527
2346.167 0.02 88.499 1 -1.162 1 -1.162 0.02 88.499
2371.125 0.021 88.47 1 -1.202 1 -1.202 0.021 88.47
2396.083 0.022 88.441 1 -1.241 1 -1.241 0.022 88.441
2421.042 0.022 88.412 1 -1.28 1 -1.28 0.022 88.412
2446 0.023 88.382 1 -1.319 1 -1.319 0.023 88.382
2470.958 0.024 88.352 1 -1.358 1 -1.358 0.024 88.352
2495.917 0.024 88.321 1 -1.396 1 -1.396 0.024 88.321
2520.875 0.025 88.291 1 -1.435 1 -1.435 0.025 88.291
2545.833 0.026 88.26 1 -1.473 1 -1.473 0.026 88.26
2570.792 0.026 88.229 1 -1.51 1 -1.51 0.026 88.229
2595.75 0.027 88.198 1 -1.548 1 -1.548 0.027 88.198
2620.708 0.028 88.166 0.999 -1.585 0.999 -1.585 0.028 88.166
2645.667 0.028 88.135 0.999 -1.622 0.999 -1.622 0.028 88.135
2670.625 0.029 88.104 0.999 -1.659 0.999 -1.659 0.029 88.104
2695.583 0.03 88.072 0.999 -1.696 0.999 -1.696 0.03 88.072
2720.542 0.03 88.041 0.999 -1.732 0.999 -1.732 0.03 88.041
2745.5 0.031 88.009 0.999 -1.768 0.999 -1.768 0.031 88.009
2770.458 0.031 87.977 0.999 -1.804 0.999 -1.804 0.031 87.977
2795.417 0.032 87.946 0.999 -1.84 0.999 -1.84 0.032 87.946
2820.375 0.033 87.914 0.999 -1.876 0.999 -1.876 0.033 87.914
2845.333 0.033 87.882 0.999 -1.912 0.999 -1.912 0.033 87.882
2870.292 0.034 87.851 0.999 -1.947 0.999 -1.947 0.034 87.851
2895.25 0.035 87.819 0.999 -1.982 0.999 -1.982 0.035 87.819
2920.208 0.035 87.787 0.999 -2.017 0.999 -2.017 0.035 87.787
2945.167 0.036 87.756 0.999 -2.052 0.999 -2.052 0.036 87.756
2970.125 0.036 87.724 0.999 -2.087 0.999 -2.087 0.036 87.724
2995.083 0.037 87.693 0.999 -2.122 0.999 -2.122 0.037 87.693
3020.042 0.038 87.661 0.999 -2.156 0.999 -2.156 0.038 87.661
3045 0.038 87.63 0.999 -2.19 0.999 -2.19 0.038 87.63
3069.958 0.039 87.598 0.999 -2.225 0.999 -2.225 0.039 87.598
3094.917 0.039 87.567 0.999 -2.259 0.999 -2.259 0.039 87.567
3119.875 0.04 87.536 0.999 -2.293 0.999 -2.293 0.04 87.536
3144.833 0.041 87.504 0.999 -2.326 0.999 -2.326 0.041 87.504
3169.792 0.041 87.473 0.999 -2.36 0.999 -2.36 0.041 87.473
3194.75 0.042 87.442 0.999 -2.394 0.999 -2.394 0.042 87.442
3219.708 0.042 87.411 0.999 -2.427 0.999 -2.427 0.042 87.411
3244.667 0.043 87.379 0.999 -2.46 0.999 -2.46 0.043 87.379
3269.625 0.044 87.348 0.999 -2.494 0.999 -2.494 0.044 87.348
3294.583 0.044 87.317 0.999 -2.527 0.999 -2.527 0.044 87.317
3319.542 0.045 87.286 0.999 -2.56 0.999 -2.56 0.045 87.286
3344.5 0.045 87.255 0.999 -2.593 0.999 -2.593 0.045 87.255
3369.458 0.046 87.224 0.999 -2.626 0.999 -2.626 0.046 87.224
3394.417 0.046 87.194 0.999 -2.658 0.999 -2.658 0.046 87.194
3419.375 0.047 87.163 0.999 -2.691 0.999 -2.691 0.047 87.163
3444.333 0.048 87.132 0.999 -2.723 0.999 -2.723 0.048 87.132
3469.292 0.048 87.101 0.999 -2.756 0.999 -2.756 0.048 87.101
3494.25 0.049 87.071 0.999 -2.788 0.999 -2.788 0.049 87.071
3519.208 0.049 87.04 0.999 -2.82 0.999 -2.82 0.049 87.04
3544.167 0.05 87.009 0.999 -2.853 0.999 -2.853 0.05 87.009
3569.125 0.05 86.979 0.999 -2.885 0.999 -2.885 0.05 86.979
3594.083 0.051 86.948 0.999 -2.917 0.999 -2.917 0.051 86.948
3619.042 0.051 86.918 0.999 -2.948 0.999 -2.948 0.051 86.918
3644 0.052 86.888 0.999 -2.98 0.999 -2.98 0.052 86.888
3668.958 0.053 86.857 0.998 -3.012 0.998 -3.012 0.053 86.857
3693.917 0.053 86.827 0.998 -3.044 0.998 -3.044 0.053 86.827
3718.875 0.054 86.797 0.998 -3.075 0.998 -3.075 0.054 86.797
3743.833 0.054 86.767 0.998 -3.107 0.998 -3.107 0.054 86.767
3768.792 0.055 86.736 0.998 -3.138 0.998 -3.138 0.055 86.736
3793.75 0.055 86.706 0.998 -3.169 0.998 -3.169 0.055 86.706
3818.708 0.056 86.676 0.998 -3.201 0.998 -3.201 0.056 86.676
3843.667 0.056 86.646 0.998 -3.232 0.998 -3.232 0.056 86.646
3868.625 0.057 86.616 0.998 -3.263 0.998 -3.263 0.057 86.616
3893.583 0.057 86.586 0.998 -3.294 0.998 -3.294 0.057 86.586
3918.542 0.058 86.556 0.998 -3.325 0.998 -3.325 0.058 86.556
3943.5 0.059 86.527 0.998 -3.356 0.998 -3.356 0.059 86.527
3968.458 0.059 86.497 0.998 -3.387 0.998 -3.387 0.059 86.497
3993.417 0.06 86.467 0.998 -3.418 0.998 -3.418 0.06 86.467
4018.375 0.06 86.437 0.998 -3.449 0.998 -3.449 0.06 86.437
4043.333 0.061 86.408 0.998 -3.479 0.998 -3.479 0.061 86.408
4068.292 0.061 86.378 0.998 -3.51 0.998 -3.51 0.061 86.378
4093.25 0.062 86.348 0.998 -3.541 0.998 -3.541 0.062 86.348
4118.208 0.062 86.319 0.998 -3.571 0.998 -3.571 0.062 86.319
4143.167 0.063 86.289 0.998 -3.602 0.998 -3.602 0.063 86.289
4168.125 0.063 86.26 0.998 -3.632 0.998 -3.632 0.063 86.26
4193.083 0.064 86.23 0.998 -3.662 0.998 -3.662 0.064 86.23
4218.042 0.064 86.201 0.998 -3.693 0.998 -3.693 0.064 86.201
4243 0.065 86.171 0.998 -3.723 0.998 -3.723 0.065 86.171
4267.958 0.065 86.142 0.998 -3.753 0.998 -3.753 0.065 86.142
4292.917 0.066 86.113 0.998 -3.783 0.998 -3.783 0.066 86.113
4317.875 0.067 86.083 0.998 -3.813 0.998 -3.813 0.067 86.083
4342.833 0.067 86.054 0.998 -3.843 0.998 -3.843 0.067 86.054
4367.792 0.068 86.025 0.998 -3.873 0.998 -3.873 0.068 86.025
4392.75 0.068 85.996 0.998 -3.903 0.998 -3.903 0.068 85.996
4417.708 0.069 85.967 0.998 -3.933 0.998 -3.933 0.069 85.967
4442.667 0.069 85.938 0.997 -3.963 0.997 -3.963 0.069 85.938
4467.625 0.07 85.908 0.997 -3.993 0.997 -3.993 0.07 85.908
4492.583 0.07 85.879 0.997 -4.023 0.997 -4.023 0.07 85.879
4517.542 0.071 85.85 0.997 -4.052 0.997 -4.052 0.071 85.85
4542.5 0.071 85.821 0.997 -4.082 0.997 -4.082 0.071 85.821
4567.458 0.072 85.792 0.997 -4.112 0.997 -4.112 0.072 85.792
4592.417 0.072 85.764 0.997 -4.141 0.997 -4.141 0.072 85.764
4617.375 0.073 85.735 0.997 -4.171 0.997 -4.171 0.073 85.735
4642.333 0.073 85.706 0.997 -4.2 0.997 -4.2 0.073 85.706
4667.292 0.074 85.677 0.997 -4.23 0.997 -4.23 0.074 85.677
4692.25 0.074 85.648 0.997 -4.259 0.997 -4.259 0.074 85.648
4717.208 0.075 85.619 0.997 -4.289 0.997 -4.289 0.075 85.619
4742.167 0.075 85.591 0.997 -4.318 0.997 -4.318 0.075 85.591
4767.125 0.076 85.562 0.997 -4.348 0.997 -4.348 0.076 85.562
4792.083 0.076 85.533 0.997 -4.377 0.997 -4.377 0.076 85.533
4817.042 0.077 85.505 0.997 -4.406 0.997 -4.406 0.077 85.505
4842 0.077 85.476 0.997 -4.435 0.997 -4.435 0.077 85.476
4866.958 0.078 85.447 0.997 -4.464 0.997 -4.464 0.078 85.447
4891.917 0.078 85.419 0.997 -4.494 0.997 -4.494 0.078 85.419
4916.875 0.079 85.39 0.997 -4.523 0.997 -4.523 0.079 85.39
4941.833 0.079 85.362 0.997 -4.552 0.997 -4.552 0.079 85.362
4966.792 0.08 85.333 0.997 -4.581 0.997 -4.581 0.08 85.333
4991.75 0.08 85.305 0.997 -4.61 0.997 -4.61 0.08 85.305
5016.708 0.081 85.276 0.997 -4.639 0.997 -4.639 0.081 85.276
5041.667 0.081 85.248 0.997 -4.668 0.997 -4.668 0.081 85.248
5066.625 0.082 85.22 0.997 -4.697 0.997 -4.697 0.082 85.22
5091.583 0.082 85.191 0.996 -4.726 0.996 -4.726 0.082 85.191
5116.542 0.083 85.163 0.996 -4.754 0.996 -4.754 0.083 85.163
5141.5 0.083 85.134 0.996 -4.783 0.996 -4.783 0.083 85.134
5166.458 0.084 85.106 0.996 -4.812 0.996 -4.812 0.084 85.106
5191.417 0.084 85.078 0.996 -4.841 0.996 -4.841 0.084 85.078
5216.375 0.085 85.05 0.996 -4.87 0.996 -4.87 0.085 85.05
5241.333 0.085 85.021 0.996 -4.898 0.996 -4.898 0.085 85.021
5266.292 0.086 84.993 0.996 -4.927 0.996 -4.927 0.086 84.993
5291.25 0.086 84.965 0.996 -4.956 0.996 -4.956 0.086 84.965
5316.208 0.087 84.937 0.996 -4.984 0.996 -4.984 0.087 84.937
5341.167 0.087 84.909 0.996 -5.013 0.996 -5.013 0.087 84.909
5366.125 0.088 84.881 0.996 -5.041 0.996 -5.041 0.088 84.881
5391.083 0.088 84.852 0.996 -5.07 0.996 -5.07 0.088 84.852
5416.042 0.089 84.824 0.996 -5.099 0.996 -5.099 0.089 84.824
5441 0.089 84.796 0.996 -5.127 0.996 -5.127 0.089 84.796
5465.958 0.09 84.768 0.996 -5.155 0.996 -5.155 0.09 84.768
5490.917 0.09 84.74 0.996 -5.184 0.996 -5.184 0.09 84.74
5515.875 0.091 84.712 0.996 -5.212 0.996 -5.212 0.091 84.712
5540.833 0.091 84.684 0.996 -5.241 0.996 -5.241 0.091 84.684
5565.792 0.092 84.656 0.996 -5.269 0.996 -5.269 0.092 84.656
5590.75 0.092 84.628 0.996 -5.297 0.996 -5.297 0.092 84.628
5615.708 0.093 84.6 0.996 -5.326 0.996 -5.326 0.093 84.6
5640.667 0.093 84.573 0.996 -5.354 0.996 -5.354 0.093 84.573
5665.625 0.094 84.545 0.995 -5.382 0.995 -5.382 0.094 84.545
5690.583 0.094 84.517 0.995 -5.411 0.995 -5.411 0.094 84.517
5715.542 0.095 84.489 0.995 -5.439 0.995 -5.439 0.095 84.489
5740.5 0.095 84.461 0.995 -5.467 0.995 -5.467 0.095 84.461
5765.458 0.096 84.433 0.995 -5.495 0.995 -5.495 0.096 84.433
5790.417 0.096 84.406 0.995 -5.523 0.995 -5.523 0.096 84.406
5815.375 0.097 84.378 0.995 -5.551 0.995 -5.551 0.097 84.378
5840.333 0.097 84.35 0.995 -5.58 0.995 -5.58 0.097 84.35
5865.292 0.098 84.322 0.995 -5.608 0.995 -5.608 0.098 84.322
5890.25 0.098 84.295 0.995 -5.636 0.995 -5.636 0.098 84.295
5915.208 0.099 84.267 0.995 -5.664 0.995 -5.664 0.099 84.267
5940.167 0.099 84.239 0.995 -5.692 0.995 -5.692 0.099 84.239
5965.125 0.1 84.212 0.995 -5.72 0.995 -5.72 0.1 84.212
5990.083 0.1 84.184 0.995 -5.748 0.995 -5.748 0.1 84.184
6015.042 0.101 84.156 0.995 -5.776 0.995 -5.776 0.101 84.156
6040 0.101 84.129 0.995 -5.804 0.995 -5.804 0.101 84.129
6064.958 0.102 84.101 0.995 -5.832 0.995 -5.832 0.102 84.101
6089.917 0.102 84.073 0.995 -5.859 0.995 -5.859 0.102 84.073
6114.875 0.103 84.046 0.995 -5.887 0.995 -5.887 0.103 84.046
6139.833 0.103 84.018 0.995 -5.915 0.995 -5.915 0.103 84.018
6164.792 0.104 83.991 0.995 -5.943 0.995 -5.943 0.104 83.991
6189.75 0.104 83.963 0.994 -5.971 0.994 -5.971 0.104 83.963
6214.708 0.105 83.936 0.994 -5.999 0.994 -5.999 0.105 83.936
6239.667 0.105 83.908 0.994 -6.026 0.994 -6.026 0.105 83.908
6264.625 0.105 83.881 0.994 -6.054 0.994 -6.054 0.105 83.881
6289.583 0.106 83.853 0.994 -6.082 0.994 -6.082 0.106 83.853
6314.542 0.106 83.826 0.994 -6.11 0.994 -6.11 0.106 83.826
6339.5 0.107 83.799 0.994 -6.137 0.994 -6.137 0.107 83.799
6364.458 0.107 83.771 0.994 -6.165 0.994 -6.165 0.107 83.771
6389.417 0.108 83.744 0.994 -6.193 0.994 -6.193 0.108 83.744
6414.375 0.108 83.716 0.994 -6.221 0.994 -6.221 0.108 83.716
6439.333 0.109 83.689 0.994 -6.248 0.994 -6.248 0.109 83.689
6464.292 0.109 83.662 0.994 -6.276 0.994 -6.276 0.109 83.662
6489.25 0.11 83.634 0.994 -6.303 0.994 -6.303 0.11 83.634
6514.208 0.11 83.607 0.994 -6.331 0.994 -6.331 0.11 83.607
6539.167 0.111 83.58 0.994 -6.359 0.994 -6.359 0.111 83.58
6564.125 0.111 83.552 0.994 -6.386 0.994 -6.386 0.111 83.552
6589.083 0.112 83.525 0.994 -6.414 0.994 -6.414 0.112 83.525
6614.042 0.112 83.498 0.994 -6.441 0.994 -6.441 0.112 83.498
6639 0.113 83.471 0.994 -6.469 0.994 -6.469 0.113 83.471
6663.958 0.113 83.443 0.993 -6.496 0.993 -6.496 0.113 83.443
6688.917 0.114 83.416 0.993 -6.524 0.993 -6.524 0.114 83.416
6713.875 0.114 83.389 0.993 -6.551 0.993 -6.551 0.114 83.389
6738.833 0.115 83.362 0.993 -6.579 0.993 -6.579 0.115 83.362
6763.792 0.115 83.334 0.993 -6.606 0.993 -6.606 0.115 83.334
6788.75 0.116 83.307 0.993 -6.634 0.993 -6.634 0.116 83.307
6813.708 0.116 83.28 0.993 -6.661 0.993 -6.661 0.116 83.28
6838.667 0.116 83.253 0.993 -6.688 0.993 -6.688 0.116 83.253
6863.625 0.117 83.226 0.993 -6.716 0.993 -6.716 0.117 83.226
6888.583 0.117 83.199 0.993 -6.743 0.993 -6.743 0.117 83.199
6913.542 0.118 83.172 0.993 -6.77 0.993 -6.77 0.118 83.172
6938.5 0.118 83.144 0.993 -6.798 0.993 -6.798 0.118 83.144
6963.458 0.119 83.117 0.993 -6.825 0.993 -6.825 0.119 83.117
6988.417 0.119 83.09 0.993 -6.852 0.993 -6.852 0.119 83.09
7013.375 0.12 83.063 0.993 -6.88 0.993 -6.88 0.12 83.063
7038.333 0.12 83.036 0.993 -6.907 0.993 -6.907 0.12 83.036
7063.292 0.121 83.009 0.993 -6.934 0.993 -6.934 0.121 83.009
7088.25 0.121 82.982 0.993 -6.962 0.993 -6.962 0.121 82.982
7113.208 0.122 82.955 0.992 -6.989 0.992 -6.989 0.122 82.955
7138.167 0.122 82.928 0.992 -7.016 0.992 -7.016 0.122 82.928
7163.125 0.123 82.901 0.992 -7.043 0.992 -7.043 0.123 82.901
7188.083 0.123 82.874 0.992 -7.07 0.992 -7.07 0.123 82.874
7213.042 0.124 82.847 0.992 -7.098 0.992 -7.098 0.124 82.847
7238 0.124 82.82 0.992 -7.125 0.992 -7.125 0.124 82.82
7262.958 0.125 82.793 0.992 -7.152 0.992 -7.152 0.125 82.793
7287.917 0.125 82.766 0.992 -7.179 0.992 -7.179 0.125 82.766
7312.875 0.125 82.739 0.992 -7.206 0.992 -7.206 0.125 82.739
7337.833 0.126 82.712 0.992 -7.233 0.992 -7.233 0.126 82.712
7362.792 0.126 82.686 0.992 -7.26 0.992 -7.26 0.126 82.686
7387.75 0.127 82.659 0.992 -7.288 0.992 -7.288 0.127 82.659
7412.708 0.127 82.632 0.992 -7.315 0.992 -7.315 0.127 82.632
7437.667 0.128 82.605 0.992 -7.342 0.992 -7.342 0.128 82.605
7462.625 0.128 82.578 0.992 -7.369 0.992 -7.369 0.128 82.578
7487.583 0.129 82.551 0.992 -7.396 0.992 -7.396 0.129 82.551
7512.542 0.129 82.524 0.992 -7.423 0.992 -7.423 0.129 82.524
7537.5 0.13 82.498 0.991 -7.45 0.991 -7.45 0.13 82.498
7562.458 0.13 82.471 0.991 -7.477 0.991 -7.477 0.13 82.471
7587.417 0.131 82.444 0.991 -7.504 0.991 -7.504 0.131 82.444
7612.375 0.131 82.417 0.991 -7.531 0.991 -7.531 0.131 82.417
7637.333 0.132 82.39 0.991 -7.558 0.991 -7.558 0.132 82.39
7662.292 0.132 82.364 0.991 -7.585 0.991 -7.585 0.132 82.364
7687.25 0.132 82.337 0.991 -7.612 0.991 -7.612 0.132 82.337
7712.208 0.133 82.31 0.991 -7.639 0.991 -7.639 0.133 82.31
7737.167 0.133 82.283 0.991 -7.666 0.991 -7.666 0.133 82.283
7762.125 0.134 82.257 0.991 -7.693 0.991 -7.693 0.134 82.257
7787.083 0.134 82.23 0.991 -7.719 0.991 -7.719 0.134 82.23
7812.042 0.135 82.203 0.991 -7.746 0.991 -7.746 0.135 82.203
7837 0.135 82.176 0.991 -7.773 0.991 -7.773 0.135 82.176
7861.958 0.136 82.15 0.991 -7.8 0.991 -7.8 0.136 82.15
7886.917 0.136 82.123 0.991 -7.827 0.991 -7.827 0.136 82.123
7911.875 0.137 82.096 0.991 -7.854 0.991 -7.854 0.137 82.096
7936.833 0.137 82.07 0.99 -7.881 0.99 -7.881 0.137 82.07
7961.792 0.138 82.043 0.99 -7.907 0.99 -7.907 0.138 82.043
7986.75 0.138 82.016 0.99 -7.934 0.99 -7.934 0.138 82.016
8011.708 0.139 81.99 0.99 -7.961 0.99 -7.961 0.139 81.99
8036.667 0.139 81.963 0.99 -7.988 0.99 -7.988 0.139 81.963
8061.625 0.139 81.936 0.99 -8.015 0.99 -8.015 0.139 81.936
8086.583 0.14 81.91 0.99 -8.041 0.99 -8.041 0.14 81.91
8111.542 0.14 81.883 0.99 -8.068 0.99 -8.068 0.14 81.883
8136.5 0.141 81.857 0.99 -8.095 0.99 -8.095 0.141 81.857
8161.458 0.141 81.83 0.99 -8.122 0.99 -8.122 0.141 81.83
8186.417 0.142 81.804 0.99 -8.148 0.99 -8.148 0.142 81.804
8211.375 0.142 81.777 0.99 -8.175 0.99 -8.175 0.142 81.777
8236.333 0.143 81.75 0.99 -8.202 0.99 -8.202 0.143 81.75
8261.292 0.143 81.724 0.99 -8.229 0.99 -8.229 0.143 81.724
8286.25 0.144 81.697 0.99 -8.255 0.99 -8.255 0.144 81.697
8311.208 0.144 81.671 0.989 -8.282 0.989 -8.282 0.144 81.671
8336.167 0.145 81.644 0.989 -8.309 0.989 -8.309 0.145 81.644
8361.125 0.145 81.618 0.989 -8.335 0.989 -8.335 0.145 81.618
8386.083 0.145 81.591 0.989 -8.362 0.989 -8.362 0.145 81.591
8411.042 0.146 81.565 0.989 -8.389 0.989 -8.389 0.146 81.565
8436 0.146 81.538 0.989 -8.415 0.989 -8.415 0.146 81.538
8460.958 0.147 81.512 0.989 -8.442 0.989 -8.442 0.147 81.512
8485.917 0.147 81.485 0.989 -8.468 0.989 -8.468 0.147 81.485
