# MHZ S MA R 50

50 0.936 -20.664 0.353 69.326 0.353 69.326 0.936 -20.664
74.958 0.87 -29.498 0.492 60.487 0.492 60.487 0.87 -29.498
99.917 0.798 -37.041 0.602 52.939 0.602 52.939 0.798 -37.041
124.875 0.727 -43.354 0.687 46.622 0.687 46.622 0.727 -43.354
149.833 0.661 -48.598 0.75 41.373 0.75 41.373 0.661 -48.598
174.792 0.602 -52.958 0.798 37.008 0.798 37.008 0.602 -52.958
199.75 0.55 -56.603 0.835 33.358 0.835 33.358 0.55 -56.603
224.708 0.504 -59.673 0.863 30.283 0.863 30.283 0.504 -59.673
249.667 0.464 -62.283 0.885 27.668 0.885 27.668 0.464 -62.283
274.625 0.429 -64.52 0.903 25.425 0.903 25.425 0.429 -64.52
299.583 0.399 -66.456 0.917 23.485 0.917 23.485 0.399 -66.456
324.542 0.371 -68.144 0.928 21.791 0.928 21.791 0.371 -68.144
349.5 0.347 -69.628 0.937 20.302 0.937 20.302 0.347 -69.628
374.458 0.325 -70.942 0.945 18.983 0.945 18.983 0.325 -70.942
399.417 0.306 -72.112 0.952 17.808 0.952 17.808 0.306 -72.112
424.375 0.288 -73.161 0.957 16.753 0.957 16.753 0.288 -73.161
449.333 0.272 -74.107 0.962 15.802 0.962 15.802 0.272 -74.107
474.292 0.258 -74.964 0.966 14.939 0.966 14.939 0.258 -74.964
499.25 0.245 -75.745 0.969 14.153 0.969 14.153 0.245 -75.745
524.208 0.232 -76.458 0.972 13.434 0.972 13.434 0.232 -76.458
549.167 0.221 -77.113 0.975 12.773 0.975 12.773 0.221 -77.113
574.125 0.211 -77.717 0.977 12.163 0.977 12.163 0.211 -77.717
599.083 0.201 -78.276 0.979 11.599 0.979 11.599 0.201 -78.276
624.042 0.192 -78.794 0.981 11.074 0.981 11.074 0.192 -78.794
649 0.184 -79.276 0.983 10.586 0.983 10.586 0.184 -79.276
673.958 0.176 -79.726 0.984 10.129 0.984 10.129 0.176 -79.726
698.917 0.169 -80.147 0.985 9.702 0.985 9.702 0.169 -80.147
723.875 0.162 -80.543 0.986 9.3 0.986 9.3 0.162 -80.543
748.833 0.155 -80.914 0.987 8.922 0.987 8.922 0.155 -80.914
773.792 0.149 -81.264 0.988 8.565 0.988 8.565 0.149 -81.264
798.75 0.143 -81.595 0.989 8.227 0.989 8.227 0.143 -81.595
823.708 0.138 -81.907 0.99 7.907 0.99 7.907 0.138 -81.907
848.667 0.132 -82.204 0.991 7.603 0.991 7.603 0.132 -82.204
873.625 0.127 -82.485 0.991 7.314 0.991 7.314 0.127 -82.485
898.583 0.123 -82.752 0.992 7.039 0.992 7.039 0.123 -82.752
923.542 0.118 -83.007 0.993 6.776 0.993 6.776 0.118 -83.007
948.5 0.114 -83.25 0.993 6.525 0.993 6.525 0.114 -83.25
973.458 0.109 -83.482 0.994 6.284 0.994 6.284 0.109 -83.482
998.417 0.105 -83.704 0.994 6.053 0.994 6.053 0.105 -83.704
1023.375 0.102 -83.916 0.994 5.832 0.994 5.832 0.102 -83.916
1048.333 0.098 -84.119 0.995 5.619 0.995 5.619 0.098 -84.119
1073.292 0.094 -84.314 0.995 5.414 0.995 5.414 0.094 -84.314
1098.25 0.091 -84.501 0.995 5.217 0.995 5.217 0.091 -84.501
1123.208 0.088 -84.681 0.996 5.026 0.996 5.026 0.088 -84.681
1148.167 0.084 -84.853 0.996 4.842 0.996 4.842 0.084 -84.853
1173.125 0.081 -85.019 0.996 4.665 0.996 4.665 0.081 -85.019
1198.083 0.078 -85.179 0.996 4.493 0.996 4.493 0.078 -85.179
1223.042 0.075 -85.333 0.997 4.326 0.997 4.326 0.075 -85.333
1248 0.073 -85.482 0.997 4.164 0.997 4.164 0.073 -85.482
1272.958 0.07 -85.625 0.997 4.008 0.997 4.008 0.07 -85.625
1297.917 0.067 -85.762 0.997 3.855 0.997 3.855 0.067 -85.762
1322.875 0.065 -85.895 0.997 3.707 0.997 3.707 0.065 -85.895
1347.833 0.062 -86.023 0.998 3.563 0.998 3.563 0.062 -86.023
1372.792 0.06 -86.146 0.998 3.423 0.998 3.423 0.06 -86.146
1397.75 0.057 -86.265 0.998 3.286 0.998 3.286 0.057 -86.265
1422.708 0.055 -86.379 0.998 3.153 0.998 3.153 0.055 -86.379
1447.667 0.053 -86.489 0.998 3.023 0.998 3.023 0.053 -86.489
1472.625 0.051 -86.594 0.998 2.896 0.998 2.896 0.051 -86.594
1497.583 0.048 -86.695 0.998 2.772 0.998 2.772 0.048 -86.695
1522.542 0.046 -86.792 0.998 2.651 0.998 2.651 0.046 -86.792
1547.5 0.044 -86.885 0.999 2.533 0.999 2.533 0.044 -86.885
1572.458 0.042 -86.973 0.999 2.417 0.999 2.417 0.042 -86.973
1597.417 0.04 -87.056 0.999 2.303 0.999 2.303 0.04 -87.056
1622.375 0.038 -87.135 0.999 2.192 0.999 2.192 0.038 -87.135
1647.333 0.036 -87.208 0.999 2.083 0.999 2.083 0.036 -87.208
1672.292 0.034 -87.277 0.999 1.976 0.999 1.976 0.034 -87.277
1697.25 0.033 -87.34 0.999 1.871 0.999 1.871 0.033 -87.34
1722.208 0.031 -87.397 0.999 1.768 0.999 1.768 0.031 -87.397
1747.167 0.029 -87.448 0.999 1.667 0.999 1.667 0.029 -87.448
1772.125 0.027 -87.491 0.999 1.567 0.999 1.567 0.027 -87.491
1797.083 0.026 -87.526 0.999 1.469 0.999 1.469 0.026 -87.526
1822.042 0.024 -87.552 0.999 1.373 0.999 1.373 0.024 -87.552
1847 0.022 -87.567 0.999 1.279 0.999 1.279 0.022 -87.567
1871.958 0.021 -87.569 0.999 1.186 0.999 1.186 0.021 -87.569
1896.917 0.019 -87.556 0.999 1.094 0.999 1.094 0.019 -87.556
1921.875 0.018 -87.525 0.999 1.004 0.999 1.004 0.018 -87.525
1946.833 0.016 -87.471 0.999 0.915 0.999 0.915 0.016 -87.471
1971.792 0.014 -87.388 0.999 0.827 0.999 0.827 0.014 -87.388
1996.75 0.013 -87.266 0.999 0.741 0.999 0.741 0.013 -87.266
2021.708 0.011 -87.092 0.999 0.655 0.999 0.655 0.011 -87.092
2046.667 9.982e-3 -86.845 1 0.571 1 0.571 9.982e-3 -86.845
2071.625 8.535e-3 -86.49 1 0.488 1 0.488 8.535e-3 -86.49
2096.583 7.108e-3 -85.964 1 0.406 1 0.406 7.108e-3 -85.964
2121.542 5.699e-3 -85.147 1 0.326 1 0.326 5.699e-3 -85.147
2146.5 4.31e-3 -83.763 1 0.246 1 0.246 4.31e-3 -83.763
2171.458 2.943e-3 -81.04 1 0.167 1 0.167 2.943e-3 -81.04
2196.417 1.611e-3 -73.689 1 0.089 1 0.089 1.611e-3 -73.689
2221.375 492.4e-6 -23.952 1 0.011 1 0.011 492.4e-6 -23.952
2246.333 1.218e-3 68.249 1 -0.065 1 -0.065 1.218e-3 68.249
2271.292 2.489e-3 79.446 1 -0.14 1 -0.14 2.489e-3 79.446
2296.25 3.778e-3 82.945 1 -0.215 1 -0.215 3.778e-3 82.945
2321.208 5.06e-3 84.61 1 -0.289 1 -0.289 5.06e-3 84.61
2346.167 6.332e-3 85.563 1 -0.362 1 -0.362 6.332e-3 85.563
2371.125 7.592e-3 86.168 1 -0.434 1 -0.434 7.592e-3 86.168
2396.083 8.841e-3 86.577 1 -0.506 1 -0.506 8.841e-3 86.577
2421.042 0.01 86.864 0.999 -0.577 0.999 -0.577 0.01 86.864
2446 0.011 87.072 0.999 -0.647 0.999 -0.647 0.011 87.072
2470.958 0.013 87.224 0.999 -0.717 0.999 -0.717 0.013 87.224
2495.917 0.014 87.335 0.999 -0.786 0.999 -0.786 0.014 87.335
2520.875 0.015 87.417 0.999 -0.854 0.999 -0.854 0.015 87.417
2545.833 0.016 87.477 0.999 -0.922 0.999 -0.922 0.016 87.477
2570.792 0.017 87.518 0.999 -0.989 0.999 -0.989 0.017 87.518
2595.75 0.018 87.546 0.999 -1.056 0.999 -1.056 0.018 87.546
2620.708 0.02 87.562 0.999 -1.122 0.999 -1.122 0.02 87.562
2645.667 0.021 87.569 0.999 -1.188 0.999 -1.188 0.021 87.569
2670.625 0.022 87.569 0.999 -1.253 0.999 -1.253 0.022 87.569
2695.583 0.023 87.562 0.999 -1.317 0.999 -1.317 0.023 87.562
2720.542 0.024 87.55 0.999 -1.381 0.999 -1.381 0.024 87.55
2745.5 0.025 87.533 0.999 -1.445 0.999 -1.445 0.025 87.533
2770.458 0.026 87.513 0.999 -1.508 0.999 -1.508 0.026 87.513
2795.417 0.027 87.489 0.999 -1.571 0.999 -1.571 0.027 87.489
2820.375 0.029 87.463 0.999 -1.633 0.999 -1.633 0.029 87.463
2845.333 0.03 87.434 0.999 -1.695 0.999 -1.695 0.03 87.434
2870.292 0.031 87.403 0.999 -1.757 0.999 -1.757 0.031 87.403
2895.25 0.032 87.37 0.999 -1.818 0.999 -1.818 0.032 87.37
2920.208 0.033 87.336 0.999 -1.878 0.999 -1.878 0.033 87.336
2945.167 0.034 87.3 0.999 -1.939 0.999 -1.939 0.034 87.3
2970.125 0.035 87.263 0.999 -1.998 0.999 -1.998 0.035 87.263
2995.083 0.036 87.225 0.999 -2.058 0.999 -2.058 0.036 87.225
3020.042 0.037 87.186 0.999 -2.117 0.999 -2.117 0.037 87.186
3045 0.038 87.146 0.999 -2.176 0.999 -2.176 0.038 87.146
3069.958 0.039 87.105 0.999 -2.234 0.999 -2.234 0.039 87.105
3094.917 0.04 87.064 0.999 -2.293 0.999 -2.293 0.04 87.064
3119.875 0.041 87.022 0.999 -2.35 0.999 -2.35 0.041 87.022
3144.833 0.042 86.979 0.999 -2.408 0.999 -2.408 0.042 86.979
3169.792 0.043 86.936 0.999 -2.465 0.999 -2.465 0.043 86.936
3194.75 0.044 86.893 0.999 -2.522 0.999 -2.522 0.044 86.893
3219.708 0.045 86.849 0.999 -2.579 0.999 -2.579 0.045 86.849
3244.667 0.046 86.805 0.998 -2.635 0.998 -2.635 0.046 86.805
3269.625 0.047 86.761 0.998 -2.691 0.998 -2.691 0.047 86.761
3294.583 0.048 86.716 0.998 -2.747 0.998 -2.747 0.048 86.716
3319.542 0.049 86.671 0.998 -2.802 0.998 -2.802 0.049 86.671
3344.5 0.05 86.626 0.998 -2.857 0.998 -2.857 0.05 86.626
3369.458 0.051 86.581 0.998 -2.912 0.998 -2.912 0.051 86.581
3394.417 0.052 86.536 0.998 -2.967 0.998 -2.967 0.052 86.536
3419.375 0.053 86.49 0.998 -3.022 0.998 -3.022 0.053 86.49
3444.333 0.054 86.444 0.998 -3.076 0.998 -3.076 0.054 86.444
3469.292 0.055 86.399 0.998 -3.13 0.998 -3.13 0.055 86.399
3494.25 0.056 86.353 0.998 -3.184 0.998 -3.184 0.056 86.353
3519.208 0.056 86.307 0.998 -3.237 0.998 -3.237 0.056 86.307
3544.167 0.057 86.261 0.998 -3.29 0.998 -3.29 0.057 86.261
3569.125 0.058 86.215 0.998 -3.344 0.998 -3.344 0.058 86.215
3594.083 0.059 86.169 0.998 -3.396 0.998 -3.396 0.059 86.169
3619.042 0.06 86.123 0.998 -3.449 0.998 -3.449 0.06 86.123
3644 0.061 86.077 0.998 -3.502 0.998 -3.502 0.061 86.077
3668.958 0.062 86.031 0.998 -3.554 0.998 -3.554 0.062 86.031
3693.917 0.063 85.985 0.998 -3.606 0.998 -3.606 0.063 85.985
3718.875 0.064 85.939 0.998 -3.658 0.998 -3.658 0.064 85.939
3743.833 0.065 85.893 0.997 -3.71 0.997 -3.71 0.065 85.893
3768.792 0.066 85.847 0.997 -3.761 0.997 -3.761 0.066 85.847
3793.75 0.066 85.801 0.997 -3.812 0.997 -3.812 0.066 85.801
3818.708 0.067 85.755 0.997 -3.863 0.997 -3.863 0.067 85.755
3843.667 0.068 85.709 0.997 -3.914 0.997 -3.914 0.068 85.709
3868.625 0.069 85.663 0.997 -3.965 0.997 -3.965 0.069 85.663
3893.583 0.07 85.617 0.997 -4.016 0.997 -4.016 0.07 85.617
3918.542 0.071 85.571 0.997 -4.066 0.997 -4.066 0.071 85.571
3943.5 0.072 85.525 0.997 -4.117 0.997 -4.117 0.072 85.525
3968.458 0.073 85.479 0.997 -4.167 0.997 -4.167 0.073 85.479
3993.417 0.074 85.434 0.997 -4.217 0.997 -4.217 0.074 85.434
4018.375 0.074 85.388 0.997 -4.267 0.997 -4.267 0.074 85.388
4043.333 0.075 85.342 0.997 -4.316 0.997 -4.316 0.075 85.342
4068.292 0.076 85.297 0.997 -4.366 0.997 -4.366 0.076 85.297
4093.25 0.077 85.251 0.997 -4.415 0.997 -4.415 0.077 85.251
4118.208 0.078 85.205 0.997 -4.464 0.997 -4.464 0.078 85.205
4143.167 0.079 85.16 0.996 -4.514 0.996 -4.514 0.079 85.16
4168.125 0.08 85.114 0.996 -4.562 0.996 -4.562 0.08 85.114
4193.083 0.08 85.069 0.996 -4.611 0.996 -4.611 0.08 85.069
4218.042 0.081 85.024 0.996 -4.66 0.996 -4.66 0.081 85.024
4243 0.082 84.978 0.996 -4.709 0.996 -4.709 0.082 84.978
4267.958 0.083 84.933 0.996 -4.757 0.996 -4.757 0.083 84.933
4292.917 0.084 84.888 0.996 -4.805 0.996 -4.805 0.084 84.888
4317.875 0.085 84.843 0.996 -4.853 0.996 -4.853 0.085 84.843
4342.833 0.085 84.798 0.996 -4.902 0.996 -4.902 0.085 84.798
4367.792 0.086 84.753 0.996 -4.949 0.996 -4.949 0.086 84.753
4392.75 0.087 84.708 0.996 -4.997 0.996 -4.997 0.087 84.708
4417.708 0.088 84.663 0.996 -5.045 0.996 -5.045 0.088 84.663
4442.667 0.089 84.618 0.996 -5.093 0.996 -5.093 0.089 84.618
4467.625 0.09 84.573 0.996 -5.14 0.996 -5.14 0.09 84.573
4492.583 0.09 84.529 0.995 -5.187 0.995 -5.187 0.09 84.529
4517.542 0.091 84.484 0.995 -5.235 0.995 -5.235 0.091 84.484
4542.5 0.092 84.439 0.995 -5.282 0.995 -5.282 0.092 84.439
4567.458 0.093 84.395 0.995 -5.329 0.995 -5.329 0.093 84.395
4592.417 0.094 84.35 0.995 -5.376 0.995 -5.376 0.094 84.35
4617.375 0.094 84.306 0.995 -5.422 0.995 -5.422 0.094 84.306
4642.333 0.095 84.262 0.995 -5.469 0.995 -5.469 0.095 84.262
4667.292 0.096 84.217 0.995 -5.516 0.995 -5.516 0.096 84.217
4692.25 0.097 84.173 0.995 -5.562 0.995 -5.562 0.097 84.173
4717.208 0.098 84.129 0.995 -5.609 0.995 -5.609 0.098 84.129
4742.167 0.099 84.085 0.995 -5.655 0.995 -5.655 0.099 84.085
4767.125 0.099 84.041 0.995 -5.701 0.995 -5.701 0.099 84.041
4792.083 0.1 83.997 0.995 -5.747 0.995 -5.747 0.1 83.997
4817.042 0.101 83.953 0.994 -5.793 0.994 -5.793 0.101 83.953
4842 0.102 83.909 0.994 -5.839 0.994 -5.839 0.102 83.909
4866.958 0.103 83.865 0.994 -5.885 0.994 -5.885 0.103 83.865
4891.917 0.103 83.821 0.994 -5.931 0.994 -5.931 0.103 83.821
4916.875 0.104 83.777 0.994 -5.977 0.994 -5.977 0.104 83.777
4941.833 0.105 83.733 0.994 -6.022 0.994 -6.022 0.105 83.733
4966.792 0.106 83.69 0.994 -6.068 0.994 -6.068 0.106 83.69
4991.75 0.106 83.646 0.994 -6.113 0.994 -6.113 0.106 83.646
5016.708 0.107 83.603 0.994 -6.158 0.994 -6.158 0.107 83.603
5041.667 0.108 83.559 0.994 -6.204 0.994 -6.204 0.108 83.559
5066.625 0.109 83.516 0.994 -6.249 0.994 -6.249 0.109 83.516
5091.583 0.11 83.472 0.994 -6.294 0.994 -6.294 0.11 83.472
5116.542 0.11 83.429 0.993 -6.339 0.993 -6.339 0.11 83.429
5141.5 0.111 83.386 0.993 -6.384 0.993 -6.384 0.111 83.386
5166.458 0.112 83.342 0.993 -6.429 0.993 -6.429 0.112 83.342
5191.417 0.113 83.299 0.993 -6.474 0.993 -6.474 0.113 83.299
5216.375 0.114 83.256 0.993 -6.518 0.993 -6.518 0.114 83.256
5241.333 0.114 83.213 0.993 -6.563 0.993 -6.563 0.114 83.213
5266.292 0.115 83.17 0.993 -6.607 0.993 -6.607 0.115 83.17
5291.25 0.116 83.127 0.993 -6.652 0.993 -6.652 0.116 83.127
5316.208 0.117 83.084 0.993 -6.696 0.993 -6.696 0.117 83.084
5341.167 0.117 83.041 0.993 -6.741 0.993 -6.741 0.117 83.041
5366.125 0.118 82.998 0.993 -6.785 0.993 -6.785 0.118 82.998
5391.083 0.119 82.956 0.992 -6.829 0.992 -6.829 0.119 82.956
5416.042 0.12 82.913 0.992 -6.873 0.992 -6.873 0.12 82.913
5441 0.12 82.87 0.992 -6.917 0.992 -6.917 0.12 82.87
5465.958 0.121 82.827 0.992 -6.961 0.992 -6.961 0.121 82.827
5490.917 0.122 82.785 0.992 -7.005 0.992 -7.005 0.122 82.785
5515.875 0.123 82.742 0.992 -7.049 0.992 -7.049 0.123 82.742
5540.833 0.123 82.7 0.992 -7.093 0.992 -7.093 0.123 82.7
5565.792 0.124 82.657 0.992 -7.137 0.992 -7.137 0.124 82.657
5590.75 0.125 82.615 0.992 -7.181 0.992 -7.181 0.125 82.615
5615.708 0.126 82.572 0.992 -7.224 0.992 -7.224 0.126 82.572
5640.667 0.127 82.53 0.992 -7.268 0.992 -7.268 0.127 82.53
5665.625 0.127 82.488 0.991 -7.311 0.991 -7.311 0.127 82.488
5690.583 0.128 82.446 0.991 -7.355 0.991 -7.355 0.128 82.446
5715.542 0.129 82.403 0.991 -7.398 0.991 -7.398 0.129 82.403
5740.5 0.13 82.361 0.991 -7.441 0.991 -7.441 0.13 82.361
5765.458 0.13 82.319 0.991 -7.485 0.991 -7.485 0.13 82.319
5790.417 0.131 82.277 0.991 -7.528 0.991 -7.528 0.131 82.277
5815.375 0.132 82.235 0.991 -7.571 0.991 -7.571 0.132 82.235
5840.333 0.133 82.193 0.991 -7.614 0.991 -7.614 0.133 82.193
5865.292 0.133 82.151 0.991 -7.657 0.991 -7.657 0.133 82.151
5890.25 0.134 82.109 0.991 -7.7 0.991 -7.7 0.134 82.109
5915.208 0.135 82.067 0.99 -7.743 0.99 -7.743 0.135 82.067
5940.167 0.135 82.025 0.99 -7.786 0.99 -7.786 0.135 82.025
5965.125 0.136 81.984 0.99 -7.829 0.99 -7.829 0.136 81.984
5990.083 0.137 81.942 0.99 -7.872 0.99 -7.872 0.137 81.942
6015.042 0.138 81.9 0.99 -7.914 0.99 -7.914 0.138 81.9
6040 0.138 81.858 0.99 -7.957 0.99 -7.957 0.138 81.858
6064.958 0.139 81.817 0.99 -8 0.99 -8 0.139 81.817
6089.917 0.14 81.775 0.99 -8.042 0.99 -8.042 0.14 81.775
6114.875 0.141 81.734 0.99 -8.085 0.99 -8.085 0.141 81.734
6139.833 0.141 81.692 0.99 -8.127 0.99 -8.127 0.141 81.692
6164.792 0.142 81.651 0.989 -8.17 0.989 -8.17 0.142 81.651
6189.75 0.143 81.609 0.989 -8.212 0.989 -8.212 0.143 81.609
6214.708 0.144 81.568 0.989 -8.254 0.989 -8.254 0.144 81.568
6239.667 0.144 81.526 0.989 -8.297 0.989 -8.297 0.144 81.526
6264.625 0.145 81.485 0.989 -8.339 0.989 -8.339 0.145 81.485
6289.583 0.146 81.444 0.989 -8.381 0.989 -8.381 0.146 81.444
6314.542 0.146 81.403 0.989 -8.423 0.989 -8.423 0.146 81.403
6339.5 0.147 81.361 0.989 -8.465 0.989 -8.465 0.147 81.361
6364.458 0.148 81.32 0.989 -8.507 0.989 -8.507 0.148 81.32
6389.417 0.149 81.279 0.988 -8.549 0.988 -8.549 0.149 81.279
6414.375 0.149 81.238 0.988 -8.591 0.988 -8.591 0.149 81.238
6439.333 0.15 81.197 0.988 -8.633 0.988 -8.633 0.15 81.197
6464.292 0.151 81.156 0.988 -8.675 0.988 -8.675 0.151 81.156
6489.25 0.152 81.115 0.988 -8.717 0.988 -8.717 0.152 81.115
6514.208 0.152 81.074 0.988 -8.759 0.988 -8.759 0.152 81.074
6539.167 0.153 81.033 0.988 -8.801 0.988 -8.801 0.153 81.033
6564.125 0.154 80.992 0.988 -8.842 0.988 -8.842 0.154 80.992
6589.083 0.154 80.951 0.988 -8.884 0.988 -8.884 0.154 80.951
6614.042 0.155 80.91 0.987 -8.926 0.987 -8.926 0.155 80.91
6639 0.156 80.869 0.987 -8.967 0.987 -8.967 0.156 80.869
6663.958 0.157 80.829 0.987 -9.009 0.987 -9.009 0.157 80.829
6688.917 0.157 80.788 0.987 -9.05 0.987 -9.05 0.157 80.788
6713.875 0.158 80.747 0.987 -9.092 0.987 -9.092 0.158 80.747
6738.833 0.159 80.707 0.987 -9.133 0.987 -9.133 0.159 80.707
6763.792 0.159 80.666 0.987 -9.174 0.987 -9.174 0.159 80.666
6788.75 0.16 80.625 0.987 -9.216 0.987 -9.216 0.16 80.625
6813.708 0.161 80.585 0.987 -9.257 0.987 -9.257 0.161 80.585
6838.667 0.162 80.544 0.986 -9.298 0.986 -9.298 0.162 80.544
6863.625 0.162 80.504 0.986 -9.339 0.986 -9.339 0.162 80.504
6888.583 0.163 80.463 0.986 -9.381 0.986 -9.381 0.163 80.463
6913.542 0.164 80.423 0.986 -9.422 0.986 -9.422 0.164 80.423
6938.5 0.164 80.382 0.986 -9.463 0.986 -9.463 0.164 80.382
6963.458 0.165 80.342 0.986 -9.504 0.986 -9.504 0.165 80.342
6988.417 0.166 80.302 0.986 -9.545 0.986 -9.545 0.166 80.302
7013.375 0.167 80.261 0.986 -9.586 0.986 -9.586 0.167 80.261
7038.333 0.167 80.221 0.985 -9.627 0.985 -9.627 0.167 80.221
7063.292 0.168 80.181 0.985 -9.668 0.985 -9.668 0.168 80.181
7088.25 0.169 80.141 0.985 -9.709 0.985 -9.709 0.169 80.141
7113.208 0.169 80.1 0.985 -9.75 0.985 -9.75 0.169 80.1
7138.167 0.17 80.06 0.985 -9.79 0.985 -9.79 0.17 80.06
7163.125 0.171 80.02 0.985 -9.831 0.985 -9.831 0.171 80.02
7188.083 0.171 79.98 0.985 -9.872 0.985 -9.872 0.171 79.98
7213.042 0.172 79.94 0.985 -9.913 0.985 -9.913 0.172 79.94
7238 0.173 79.9 0.985 -9.953 0.985 -9.953 0.173 79.9
7262.958 0.174 79.86 0.984 -9.994 0.984 -9.994 0.174 79.86
7287.917 0.174 79.82 0.984 -10.035 0.984 -10.035 0.174 79.82
7312.875 0.175 79.78 0.984 -10.075 0.984 -10.075 0.175 79.78
7337.833 0.176 79.74 0.984 -10.116 0.984 -10.116 0.176 79.74
7362.792 0.176 79.7 0.984 -10.156 0.984 -10.156 0.176 79.7
7387.75 0.177 79.66 0.984 -10.197 0.984 -10.197 0.177 79.66
7412.708 0.178 79.62 0.984 -10.237 0.984 -10.237 0.178 79.62
7437.667 0.178 79.58 0.984 -10.278 0.984 -10.278 0.178 79.58
7462.625 0.179 79.54 0.983 -10.318 0.983 -10.318 0.179 79.54
7487.583 0.18 79.501 0.983 -10.358 0.983 -10.358 0.18 79.501
7512.542 0.18 79.461 0.983 -10.399 0.983 -10.399 0.18 79.461
7537.5 0.181 79.421 0.983 -10.439 0.983 -10.439 0.181 79.421
7562.458 0.182 79.382 0.983 -10.479 0.983 -10.479 0.182 79.382
7587.417 0.183 79.342 0.983 -10.519 0.983 -10.519 0.183 79.342
7612.375 0.183 79.302 0.983 -10.559 0.983 -10.559 0.183 79.302
7637.333 0.184 79.263 0.982 -10.6 0.982 -10.6 0.184 79.263
7662.292 0.185 79.223 0.982 -10.64 0.982 -10.64 0.185 79.223
7687.25 0.185 79.183 0.982 -10.68 0.982 -10.68 0.185 79.183
7712.208 0.186 79.144 0.982 -10.72 0.982 -10.72 0.186 79.144
7737.167 0.187 79.104 0.982 -10.76 0.982 -10.76 0.187 79.104
7762.125 0.187 79.065 0.982 -10.8 0.982 -10.8 0.187 79.065
7787.083 0.188 79.026 0.982 -10.84 0.982 -10.84 0.188 79.026
7812.042 0.189 78.986 0.982 -10.88 0.982 -10.88 0.189 78.986
7837 0.189 78.947 0.981 -10.92 0.981 -10.92 0.189 78.947
7861.958 0.19 78.907 0.981 -10.96 0.981 -10.96 0.19 78.907
7886.917 0.191 78.868 0.981 -10.999 0.981 -10.999 0.191 78.868
7911.875 0.191 78.829 0.981 -11.039 0.981 -11.039 0.191 78.829
7936.833 0.192 78.789 0.981 -11.079 0.981 -11.079 0.192 78.789
7961.792 0.193 78.75 0.981 -11.119 0.981 -11.119 0.193 78.75
7986.75 0.194 78.711 0.981 -11.158 0.981 -11.158 0.194 78.711
8011.708 0.194 78.672 0.981 -11.198 0.981 -11.198 0.194 78.672
8036.667 0.195 78.632 0.98 -11.238 0.98 -11.238 0.195 78.632
8061.625 0.196 78.593 0.98 -11.278 0.98 -11.278 0.196 78.593
8086.583 0.196 78.554 0.98 -11.317 0.98 -11.317 0.196 78.554
8111.542 0.197 78.515 0.98 -11.357 0.98 -11.357 0.197 78.515
8136.5 0.198 78.476 0.98 -11.396 0.98 -11.396 0.198 78.476
8161.458 0.198 78.437 0.98 -11.436 0.98 -11.436 0.198 78.437
8186.417 0.199 78.398 0.98 -11.475 0.98 -11.475 0.199 78.398
8211.375 0.2 78.359 0.979 -11.515 0.979 -11.515 0.2 78.359
8236.333 0.2 78.32 0.979 -11.554 0.979 -11.554 0.2 78.32
8261.292 0.201 78.281 0.979 -11.594 0.979 -11.594 0.201 78.281
8286.25 0.202 78.242 0.979 -11.633 0.979 -11.633 0.202 78.242
8311.208 0.202 78.203 0.979 -11.672 0.979 -11.672 0.202 78.203
