# MHZ S MA R 50

50 0.997 -4.312 0.075 85.683 0.075 85.683 0.997 -4.312
74.958 0.994 -6.45 0.112 83.543 0.112 83.543 0.994 -6.45
99.917 0.989 -8.572 0.149 81.42 0.149 81.42 0.989 -8.572
124.875 0.983 -10.671 0.185 79.319 0.185 79.319 0.983 -10.671
149.833 0.975 -12.743 0.221 77.245 0.221 77.245 0.975 -12.743
174.792 0.967 -14.783 0.255 75.202 0.255 75.202 0.967 -14.783
199.75 0.957 -16.788 0.289 73.195 0.289 73.195 0.957 -16.788
224.708 0.947 -18.753 0.321 71.228 0.321 71.228 0.947 -18.753
249.667 0.935 -20.677 0.353 69.302 0.353 69.302 0.935 -20.677
274.625 0.923 -22.555 0.384 67.421 0.384 67.421 0.923 -22.555
299.583 0.911 -24.387 0.413 65.588 0.413 65.588 0.911 -24.387
324.542 0.897 -26.17 0.441 63.802 0.441 63.802 0.897 -26.17
349.5 0.883 -27.904 0.468 62.067 0.468 62.067 0.883 -27.904
374.458 0.869 -29.587 0.494 60.382 0.494 60.382 0.869 -29.587
399.417 0.855 -31.219 0.518 58.747 0.518 58.747 0.855 -31.219
424.375 0.84 -32.8 0.542 57.164 0.542 57.164 0.84 -32.8
449.333 0.825 -34.331 0.564 55.631 0.564 55.631 0.825 -34.331
474.292 0.811 -35.812 0.585 54.148 0.585 54.148 0.811 -35.812
499.25 0.796 -37.243 0.605 52.714 0.605 52.714 0.796 -37.243
524.208 0.781 -38.626 0.624 51.329 0.624 51.329 0.781 -38.626
549.167 0.766 -39.962 0.642 49.991 0.642 49.991 0.766 -39.962
574.125 0.751 -41.252 0.659 48.7 0.659 48.7 0.751 -41.252
599.083 0.737 -42.496 0.676 47.453 0.676 47.453 0.737 -42.496
624.042 0.722 -43.697 0.691 46.249 0.691 46.249 0.722 -43.697
649 0.708 -44.856 0.705 45.088 0.705 45.088 0.708 -44.856
673.958 0.694 -45.975 0.719 43.968 0.719 43.968 0.694 -45.975
698.917 0.681 -47.054 0.732 42.886 0.732 42.886 0.681 -47.054
723.875 0.667 -48.095 0.744 41.843 0.744 41.843 0.667 -48.095
748.833 0.654 -49.1 0.756 40.836 0.756 40.836 0.654 -49.1
773.792 0.641 -50.07 0.767 39.864 0.767 39.864 0.641 -50.07
798.75 0.628 -51.006 0.777 38.925 0.777 38.925 0.628 -51.006
823.708 0.616 -51.911 0.787 38.018 0.787 38.018 0.616 -51.911
848.667 0.604 -52.784 0.796 37.143 0.796 37.143 0.604 -52.784
873.625 0.592 -53.628 0.805 36.297 0.805 36.297 0.592 -53.628
898.583 0.58 -54.443 0.814 35.479 0.814 35.479 0.58 -54.443
923.542 0.569 -55.231 0.821 34.688 0.821 34.688 0.569 -55.231
948.5 0.558 -55.994 0.829 33.924 0.829 33.924 0.558 -55.994
973.458 0.547 -56.731 0.836 33.184 0.836 33.184 0.547 -56.731
998.417 0.537 -57.444 0.843 32.468 0.843 32.468 0.537 -57.444
1023.375 0.527 -58.135 0.849 31.775 0.849 31.775 0.527 -58.135
1048.333 0.517 -58.804 0.855 31.104 0.855 31.104 0.517 -58.804
1073.292 0.507 -59.452 0.861 30.454 0.861 30.454 0.507 -59.452
1098.25 0.497 -60.08 0.867 29.823 0.867 29.823 0.497 -60.08
1123.208 0.488 -60.688 0.872 29.212 0.872 29.212 0.488 -60.688
1148.167 0.479 -61.279 0.877 28.619 0.877 28.619 0.479 -61.279
1173.125 0.47 -61.851 0.882 28.044 0.882 28.044 0.47 -61.851
1198.083 0.462 -62.407 0.886 27.486 0.886 27.486 0.462 -62.407
1223.042 0.453 -62.947 0.891 26.944 0.891 26.944 0.453 -62.947
1248 0.445 -63.471 0.895 26.417 0.895 26.417 0.445 -63.471
1272.958 0.437 -63.98 0.899 25.905 0.899 25.905 0.437 -63.98
1297.917 0.429 -64.476 0.902 25.407 0.902 25.407 0.429 -64.476
1322.875 0.421 -64.957 0.906 24.924 0.906 24.924 0.421 -64.957
1347.833 0.414 -65.425 0.909 24.453 0.909 24.453 0.414 -65.425
1372.792 0.407 -65.881 0.913 23.994 0.913 23.994 0.407 -65.881
1397.75 0.4 -66.324 0.916 23.548 0.916 23.548 0.4 -66.324
1422.708 0.393 -66.756 0.919 23.114 0.919 23.114 0.393 -66.756
1447.667 0.386 -67.177 0.922 22.69 0.922 22.69 0.386 -67.177
1472.625 0.379 -67.587 0.924 22.277 0.924 22.277 0.379 -67.587
1497.583 0.373 -67.987 0.927 21.875 0.927 21.875 0.373 -67.987
1522.542 0.366 -68.376 0.93 21.482 0.93 21.482 0.366 -68.376
1547.5 0.36 -68.757 0.932 21.099 0.932 21.099 0.36 -68.757
1572.458 0.354 -69.128 0.934 20.726 0.934 20.726 0.354 -69.128
1597.417 0.348 -69.49 0.937 20.361 0.937 20.361 0.348 -69.49
1622.375 0.342 -69.843 0.939 20.004 0.939 20.004 0.342 -69.843
1647.333 0.336 -70.188 0.941 19.656 0.941 19.656 0.336 -70.188
1672.292 0.331 -70.526 0.943 19.316 0.943 19.316 0.331 -70.526
1697.25 0.325 -70.856 0.945 18.983 0.945 18.983 0.325 -70.856
1722.208 0.32 -71.178 0.947 18.658 0.947 18.658 0.32 -71.178
1747.167 0.315 -71.493 0.948 18.339 0.948 18.339 0.315 -71.493
1772.125 0.309 -71.801 0.95 18.028 0.95 18.028 0.309 -71.801
1797.083 0.304 -72.103 0.952 17.723 0.952 17.723 0.304 -72.103
1822.042 0.299 -72.398 0.953 17.425 0.953 17.425 0.299 -72.398
1847 0.295 -72.687 0.955 17.132 0.955 17.132 0.295 -72.687
1871.958 0.29 -72.971 0.956 16.846 0.956 16.846 0.29 -72.971
1896.917 0.285 -73.248 0.958 16.565 0.958 16.565 0.285 -73.248
1921.875 0.281 -73.519 0.959 16.29 0.959 16.29 0.281 -73.519
1946.833 0.276 -73.786 0.96 16.021 0.96 16.021 0.276 -73.786
1971.792 0.272 -74.047 0.961 15.756 0.961 15.756 0.272 -74.047
1996.75 0.267 -74.303 0.963 15.497 0.963 15.497 0.267 -74.303
2021.708 0.263 -74.554 0.964 15.243 0.964 15.243 0.263 -74.554
2046.667 0.259 -74.8 0.965 14.993 0.965 14.993 0.259 -74.8
2071.625 0.255 -75.041 0.966 14.748 0.966 14.748 0.255 -75.041
2096.583 0.25 -75.279 0.967 14.507 0.967 14.507 0.25 -75.279
2121.542 0.246 -75.511 0.968 14.27 0.968 14.27 0.246 -75.511
2146.5 0.243 -75.74 0.969 14.038 0.969 14.038 0.243 -75.74
2171.458 0.239 -75.964 0.97 13.81 0.97 13.81 0.239 -75.964
2196.417 0.235 -76.185 0.971 13.585 0.971 13.585 0.235 -76.185
2221.375 0.231 -76.401 0.972 13.365 0.972 13.365 0.231 -76.401
2246.333 0.227 -76.614 0.973 13.148 0.973 13.148 0.227 -76.614
2271.292 0.224 -76.824 0.974 12.935 0.974 12.935 0.224 -76.824
2296.25 0.22 -77.029 0.974 12.725 0.974 12.725 0.22 -77.029
2321.208 0.217 -77.231 0.975 12.518 0.975 12.518 0.217 -77.231
2346.167 0.213 -77.43 0.976 12.315 0.976 12.315 0.213 -77.43
2371.125 0.21 -77.626 0.977 12.115 0.977 12.115 0.21 -77.626
2396.083 0.207 -77.818 0.977 11.918 0.977 11.918 0.207 -77.818
2421.042 0.203 -78.008 0.978 11.725 0.978 11.725 0.203 -78.008
2446 0.2 -78.194 0.979 11.534 0.979 11.534 0.2 -78.194
2470.958 0.197 -78.378 0.98 11.345 0.98 11.345 0.197 -78.378
2495.917 0.194 -78.558 0.98 11.16 0.98 11.16 0.194 -78.558
2520.875 0.19 -78.736 0.981 10.978 0.981 10.978 0.19 -78.736
2545.833 0.187 -78.911 0.981 10.798 0.981 10.798 0.187 -78.911
2570.792 0.184 -79.084 0.982 10.62 0.982 10.62 0.184 -79.084
2595.75 0.181 -79.254 0.982 10.445 0.982 10.445 0.181 -79.254
2620.708 0.178 -79.421 0.983 10.273 0.983 10.273 0.178 -79.421
2645.667 0.175 -79.586 0.984 10.102 0.984 10.102 0.175 -79.586
2670.625 0.173 -79.748 0.984 9.934 0.984 9.934 0.173 -79.748
2695.583 0.17 -79.909 0.985 9.769 0.985 9.769 0.17 -79.909
2720.542 0.167 -80.066 0.985 9.605 0.985 9.605 0.167 -80.066
2745.5 0.164 -80.222 0.985 9.444 0.985 9.444 0.164 -80.222
2770.458 0.161 -80.376 0.986 9.285 0.986 9.285 0.161 -80.376
2795.417 0.159 -80.527 0.986 9.127 0.986 9.127 0.159 -80.527
2820.375 0.156 -80.676 0.987 8.972 0.987 8.972 0.156 -80.676
2845.333 0.153 -80.823 0.987 8.819 0.987 8.819 0.153 -80.823
2870.292 0.151 -80.968 0.988 8.667 0.988 8.667 0.151 -80.968
2895.25 0.148 -81.111 0.988 8.518 0.988 8.518 0.148 -81.111
2920.208 0.146 -81.253 0.988 8.37 0.988 8.37 0.146 -81.253
2945.167 0.143 -81.392 0.989 8.224 0.989 8.224 0.143 -81.392
2970.125 0.141 -81.529 0.989 8.079 0.989 8.079 0.141 -81.529
2995.083 0.138 -81.665 0.989 7.937 0.989 7.937 0.138 -81.665
3020.042 0.136 -81.799 0.99 7.796 0.99 7.796 0.136 -81.799
3045 0.133 -81.931 0.99 7.656 0.99 7.656 0.133 -81.931
3069.958 0.131 -82.061 0.99 7.518 0.99 7.518 0.131 -82.061
3094.917 0.128 -82.19 0.991 7.382 0.991 7.382 0.128 -82.19
3119.875 0.126 -82.316 0.991 7.247 0.991 7.247 0.126 -82.316
3144.833 0.124 -82.442 0.991 7.113 0.991 7.113 0.124 -82.442
3169.792 0.122 -82.565 0.992 6.981 0.992 6.981 0.122 -82.565
3194.75 0.119 -82.687 0.992 6.851 0.992 6.851 0.119 -82.687
3219.708 0.117 -82.807 0.992 6.721 0.992 6.721 0.117 -82.807
3244.667 0.115 -82.926 0.992 6.593 0.992 6.593 0.115 -82.926
3269.625 0.113 -83.043 0.993 6.467 0.993 6.467 0.113 -83.043
3294.583 0.11 -83.159 0.993 6.341 0.993 6.341 0.11 -83.159
3319.542 0.108 -83.273 0.993 6.217 0.993 6.217 0.108 -83.273
3344.5 0.106 -83.386 0.993 6.094 0.993 6.094 0.106 -83.386
3369.458 0.104 -83.497 0.994 5.972 0.994 5.972 0.104 -83.497
3394.417 0.102 -83.606 0.994 5.852 0.994 5.852 0.102 -83.606
3419.375 0.1 -83.714 0.994 5.732 0.994 5.732 0.1 -83.714
3444.333 0.098 -83.821 0.994 5.614 0.994 5.614 0.098 -83.821
3469.292 0.096 -83.926 0.994 5.497 0.994 5.497 0.096 -83.926
3494.25 0.094 -84.03 0.995 5.381 0.995 5.381 0.094 -84.03
3519.208 0.092 -84.132 0.995 5.266 0.995 5.266 0.092 -84.132
3544.167 0.09 -84.233 0.995 5.151 0.995 5.151 0.09 -84.233
3569.125 0.088 -84.332 0.995 5.038 0.995 5.038 0.088 -84.332
3594.083 0.086 -84.429 0.995 4.926 0.995 4.926 0.086 -84.429
3619.042 0.084 -84.525 0.996 4.815 0.996 4.815 0.084 -84.525
3644 0.082 -84.62 0.996 4.705 0.996 4.705 0.082 -84.62
3668.958 0.08 -84.713 0.996 4.596 0.996 4.596 0.08 -84.713
3693.917 0.078 -84.805 0.996 4.488 0.996 4.488 0.078 -84.805
3718.875 0.076 -84.895 0.996 4.38 0.996 4.38 0.076 -84.895
3743.833 0.075 -84.983 0.996 4.274 0.996 4.274 0.075 -84.983
3768.792 0.073 -85.07 0.996 4.168 0.996 4.168 0.073 -85.07
3793.75 0.071 -85.155 0.997 4.063 0.997 4.063 0.071 -85.155
3818.708 0.069 -85.238 0.997 3.96 0.997 3.96 0.069 -85.238
3843.667 0.067 -85.32 0.997 3.856 0.997 3.856 0.067 -85.32
3868.625 0.065 -85.4 0.997 3.754 0.997 3.754 0.065 -85.4
3893.583 0.064 -85.477 0.997 3.653 0.997 3.653 0.064 -85.477
3918.542 0.062 -85.553 0.997 3.552 0.997 3.552 0.062 -85.553
3943.5 0.06 -85.627 0.997 3.452 0.997 3.452 0.06 -85.627
3968.458 0.058 -85.699 0.997 3.353 0.997 3.353 0.058 -85.699
3993.417 0.057 -85.769 0.997 3.254 0.997 3.254 0.057 -85.769
4018.375 0.055 -85.837 0.998 3.156 0.998 3.156 0.055 -85.837
4043.333 0.053 -85.902 0.998 3.059 0.998 3.059 0.053 -85.902
4068.292 0.052 -85.964 0.998 2.963 0.998 2.963 0.052 -85.964
4093.25 0.05 -86.024 0.998 2.867 0.998 2.867 0.05 -86.024
4118.208 0.048 -86.081 0.998 2.772 0.998 2.772 0.048 -86.081
4143.167 0.047 -86.135 0.998 2.678 0.998 2.678 0.047 -86.135
4168.125 0.045 -86.185 0.998 2.584 0.998 2.584 0.045 -86.185
4193.083 0.043 -86.233 0.998 2.491 0.998 2.491 0.043 -86.233
4218.042 0.042 -86.276 0.998 2.399 0.998 2.399 0.042 -86.276
4243 0.04 -86.315 0.998 2.307 0.998 2.307 0.04 -86.315
4267.958 0.039 -86.349 0.998 2.216 0.998 2.216 0.039 -86.349
4292.917 0.037 -86.379 0.998 2.125 0.998 2.125 0.037 -86.379
4317.875 0.036 -86.402 0.998 2.035 0.998 2.035 0.036 -86.402
4342.833 0.034 -86.42 0.998 1.945 0.998 1.945 0.034 -86.42
4367.792 0.032 -86.431 0.999 1.857 0.999 1.857 0.032 -86.431
4392.75 0.031 -86.433 0.999 1.768 0.999 1.768 0.031 -86.433
4417.708 0.029 -86.427 0.999 1.68 0.999 1.68 0.029 -86.427
4442.667 0.028 -86.411 0.999 1.593 0.999 1.593 0.028 -86.411
4467.625 0.026 -86.383 0.999 1.507 0.999 1.507 0.026 -86.383
4492.583 0.025 -86.341 0.999 1.42 0.999 1.42 0.025 -86.341
4517.542 0.023 -86.283 0.999 1.335 0.999 1.335 0.023 -86.283
4542.5 0.022 -86.206 0.999 1.249 0.999 1.249 0.022 -86.206
4567.458 0.02 -86.106 0.999 1.165 0.999 1.165 0.02 -86.106
4592.417 0.019 -85.978 0.999 1.081 0.999 1.081 0.019 -85.978
4617.375 0.017 -85.815 0.999 0.997 0.999 0.997 0.017 -85.815
4642.333 0.016 -85.608 0.999 0.914 0.999 0.914 0.016 -85.608
4667.292 0.015 -85.345 0.999 0.831 0.999 0.831 0.015 -85.345
4692.25 0.013 -85.009 0.999 0.749 0.999 0.749 0.013 -85.009
4717.208 0.012 -84.572 0.999 0.667 0.999 0.667 0.012 -84.572
4742.167 0.01 -83.995 0.999 0.585 0.999 0.585 0.01 -83.995
4767.125 8.858e-3 -83.213 0.999 0.504 0.999 0.504 8.858e-3 -83.213
4792.083 7.463e-3 -82.113 0.999 0.424 0.999 0.424 7.463e-3 -82.113
4817.042 6.08e-3 -80.482 0.999 0.344 0.999 0.344 6.08e-3 -80.482
4842 4.712e-3 -77.865 0.999 0.264 0.999 0.264 4.712e-3 -77.865
4866.958 3.371e-3 -73.103 0.999 0.185 0.999 0.185 3.371e-3 -73.103
4891.917 2.091e-3 -62.273 0.999 0.106 0.999 0.106 2.091e-3 -62.273
4916.875 1.083e-3 -26.485 0.999 0.028 0.999 0.028 1.083e-3 -26.485
4941.833 1.308e-3 42.133 0.999 -0.05 0.999 -0.05 1.308e-3 42.133
4966.792 2.435e-3 66.412 0.999 -0.128 0.999 -0.128 2.435e-3 66.412
4991.75 3.711e-3 74.653 0.999 -0.205 0.999 -0.205 3.711e-3 74.653
5016.708 5.018e-3 78.581 0.999 -0.282 0.999 -0.282 5.018e-3 78.581
5041.667 6.334e-3 80.838 0.999 -0.359 0.999 -0.359 6.334e-3 80.838
5066.625 7.649e-3 82.285 0.999 -0.435 0.999 -0.435 7.649e-3 82.285
5091.583 8.962e-3 83.281 0.999 -0.511 0.999 -0.511 8.962e-3 83.281
5116.542 0.01 83.999 0.999 -0.586 0.999 -0.586 0.01 83.999
5141.5 0.012 84.536 0.999 -0.661 0.999 -0.661 0.012 84.536
5166.458 0.013 84.947 0.999 -0.736 0.999 -0.736 0.013 84.947
5191.417 0.014 85.268 0.999 -0.81 0.999 -0.81 0.014 85.268
5216.375 0.015 85.521 0.999 -0.884 0.999 -0.884 0.015 85.521
5241.333 0.017 85.724 0.999 -0.958 0.999 -0.958 0.017 85.724
5266.292 0.018 85.886 0.999 -1.031 0.999 -1.031 0.018 85.886
5291.25 0.019 86.017 0.999 -1.104 0.999 -1.104 0.019 86.017
5316.208 0.021 86.122 0.999 -1.177 0.999 -1.177 0.021 86.122
5341.167 0.022 86.206 0.999 -1.249 0.999 -1.249 0.022 86.206
5366.125 0.023 86.272 0.999 -1.321 0.999 -1.321 0.023 86.272
5391.083 0.024 86.324 0.999 -1.393 0.999 -1.393 0.024 86.324
5416.042 0.026 86.364 0.999 -1.464 0.999 -1.464 0.026 86.364
5441 0.027 86.394 0.999 -1.536 0.999 -1.536 0.027 86.394
5465.958 0.028 86.414 0.999 -1.606 0.999 -1.606 0.028 86.414
5490.917 0.029 86.427 0.999 -1.677 0.999 -1.677 0.029 86.427
5515.875 0.031 86.433 0.999 -1.747 0.999 -1.747 0.031 86.433
5540.833 0.032 86.433 0.999 -1.817 0.999 -1.817 0.032 86.433
5565.792 0.033 86.428 0.998 -1.887 0.998 -1.887 0.033 86.428
5590.75 0.034 86.418 0.998 -1.956 0.998 -1.956 0.034 86.418
5615.708 0.035 86.405 0.998 -2.025 0.998 -2.025 0.035 86.405
5640.667 0.037 86.387 0.998 -2.094 0.998 -2.094 0.037 86.387
5665.625 0.038 86.367 0.998 -2.163 0.998 -2.163 0.038 86.367
5690.583 0.039 86.344 0.998 -2.231 0.998 -2.231 0.039 86.344
5715.542 0.04 86.318 0.998 -2.299 0.998 -2.299 0.04 86.318
5740.5 0.041 86.29 0.998 -2.367 0.998 -2.367 0.041 86.29
5765.458 0.042 86.259 0.998 -2.435 0.998 -2.435 0.042 86.259
5790.417 0.044 86.227 0.998 -2.502 0.998 -2.502 0.044 86.227
5815.375 0.045 86.193 0.998 -2.569 0.998 -2.569 0.045 86.193
5840.333 0.046 86.158 0.998 -2.636 0.998 -2.636 0.046 86.158
5865.292 0.047 86.121 0.998 -2.702 0.998 -2.702 0.047 86.121
5890.25 0.048 86.083 0.998 -2.769 0.998 -2.769 0.048 86.083
5915.208 0.049 86.044 0.998 -2.835 0.998 -2.835 0.049 86.044
5940.167 0.051 86.003 0.998 -2.901 0.998 -2.901 0.051 86.003
5965.125 0.052 85.962 0.998 -2.966 0.998 -2.966 0.052 85.962
5990.083 0.053 85.92 0.998 -3.032 0.998 -3.032 0.053 85.92
6015.042 0.054 85.877 0.998 -3.097 0.998 -3.097 0.054 85.877
6040 0.055 85.833 0.998 -3.162 0.998 -3.162 0.055 85.833
6064.958 0.056 85.788 0.997 -3.226 0.997 -3.226 0.056 85.788
6089.917 0.057 85.743 0.997 -3.291 0.997 -3.291 0.057 85.743
6114.875 0.059 85.698 0.997 -3.355 0.997 -3.355 0.059 85.698
6139.833 0.06 85.651 0.997 -3.419 0.997 -3.419 0.06 85.651
6164.792 0.061 85.605 0.997 -3.483 0.997 -3.483 0.061 85.605
6189.75 0.062 85.557 0.997 -3.547 0.997 -3.547 0.062 85.557
6214.708 0.063 85.51 0.997 -3.61 0.997 -3.61 0.063 85.51
6239.667 0.064 85.462 0.997 -3.673 0.997 -3.673 0.064 85.462
6264.625 0.065 85.413 0.997 -3.736 0.997 -3.736 0.065 85.413
6289.583 0.066 85.364 0.997 -3.799 0.997 -3.799 0.066 85.364
6314.542 0.067 85.315 0.997 -3.862 0.997 -3.862 0.067 85.315
6339.5 0.068 85.266 0.997 -3.924 0.997 -3.924 0.068 85.266
6364.458 0.07 85.217 0.997 -3.986 0.997 -3.986 0.07 85.217
6389.417 0.071 85.167 0.997 -4.049 0.997 -4.049 0.071 85.167
6414.375 0.072 85.117 0.996 -4.11 0.996 -4.11 0.072 85.117
6439.333 0.073 85.067 0.996 -4.172 0.996 -4.172 0.073 85.067
6464.292 0.074 85.016 0.996 -4.234 0.996 -4.234 0.074 85.016
6489.25 0.075 84.966 0.996 -4.295 0.996 -4.295 0.075 84.966
6514.208 0.076 84.915 0.996 -4.356 0.996 -4.356 0.076 84.915
6539.167 0.077 84.864 0.996 -4.417 0.996 -4.417 0.077 84.864
6564.125 0.078 84.813 0.996 -4.478 0.996 -4.478 0.078 84.813
6589.083 0.079 84.762 0.996 -4.538 0.996 -4.538 0.079 84.762
6614.042 0.08 84.711 0.996 -4.599 0.996 -4.599 0.08 84.711
6639 0.081 84.66 0.996 -4.659 0.996 -4.659 0.081 84.66
6663.958 0.082 84.608 0.996 -4.719 0.996 -4.719 0.082 84.608
6688.917 0.083 84.557 0.996 -4.779 0.996 -4.779 0.083 84.557
6713.875 0.084 84.505 0.995 -4.838 0.995 -4.838 0.084 84.505
6738.833 0.085 84.454 0.995 -4.898 0.995 -4.898 0.085 84.454
6763.792 0.086 84.402 0.995 -4.957 0.995 -4.957 0.086 84.402
6788.75 0.087 84.351 0.995 -5.017 0.995 -5.017 0.087 84.351
6813.708 0.088 84.299 0.995 -5.076 0.995 -5.076 0.088 84.299
6838.667 0.09 84.247 0.995 -5.135 0.995 -5.135 0.09 84.247
6863.625 0.091 84.196 0.995 -5.193 0.995 -5.193 0.091 84.196
6888.583 0.092 84.144 0.995 -5.252 0.995 -5.252 0.092 84.144
6913.542 0.093 84.092 0.995 -5.31 0.995 -5.31 0.093 84.092
6938.5 0.094 84.04 0.995 -5.369 0.995 -5.369 0.094 84.04
6963.458 0.095 83.989 0.995 -5.427 0.995 -5.427 0.095 83.989
6988.417 0.096 83.937 0.994 -5.485 0.994 -5.485 0.096 83.937
7013.375 0.097 83.885 0.994 -5.543 0.994 -5.543 0.097 83.885
7038.333 0.098 83.833 0.994 -5.6 0.994 -5.6 0.098 83.833
7063.292 0.099 83.782 0.994 -5.658 0.994 -5.658 0.099 83.782
7088.25 0.1 83.73 0.994 -5.715 0.994 -5.715 0.1 83.73
7113.208 0.101 83.678 0.994 -5.773 0.994 -5.773 0.101 83.678
7138.167 0.102 83.626 0.994 -5.83 0.994 -5.83 0.102 83.626
7163.125 0.103 83.575 0.994 -5.887 0.994 -5.887 0.103 83.575
7188.083 0.104 83.523 0.994 -5.943 0.994 -5.943 0.104 83.523
7213.042 0.105 83.471 0.994 -6 0.994 -6 0.105 83.471
7238 0.106 83.42 0.993 -6.057 0.993 -6.057 0.106 83.42
7262.958 0.106 83.368 0.993 -6.113 0.993 -6.113 0.106 83.368
7287.917 0.107 83.317 0.993 -6.169 0.993 -6.169 0.107 83.317
7312.875 0.108 83.265 0.993 -6.226 0.993 -6.226 0.108 83.265
7337.833 0.109 83.214 0.993 -6.282 0.993 -6.282 0.109 83.214
7362.792 0.11 83.162 0.993 -6.338 0.993 -6.338 0.11 83.162
7387.75 0.111 83.111 0.993 -6.393 0.993 -6.393 0.111 83.111
7412.708 0.112 83.06 0.993 -6.449 0.993 -6.449 0.112 83.06
7437.667 0.113 83.008 0.993 -6.504 0.993 -6.504 0.113 83.008
7462.625 0.114 82.957 0.992 -6.56 0.992 -6.56 0.114 82.957
7487.583 0.115 82.906 0.992 -6.615 0.992 -6.615 0.115 82.906
7512.542 0.116 82.855 0.992 -6.67 0.992 -6.67 0.116 82.855
7537.5 0.117 82.804 0.992 -6.725 0.992 -6.725 0.117 82.804
7562.458 0.118 82.753 0.992 -6.78 0.992 -6.78 0.118 82.753
7587.417 0.119 82.702 0.992 -6.835 0.992 -6.835 0.119 82.702
7612.375 0.12 82.651 0.992 -6.89 0.992 -6.89 0.12 82.651
7637.333 0.121 82.6 0.992 -6.944 0.992 -6.944 0.121 82.6
7662.292 0.122 82.549 0.992 -6.999 0.992 -6.999 0.122 82.549
7687.25 0.123 82.498 0.991 -7.053 0.991 -7.053 0.123 82.498
7712.208 0.124 82.448 0.991 -7.107 0.991 -7.107 0.124 82.448
7737.167 0.125 82.397 0.991 -7.161 0.991 -7.161 0.125 82.397
7762.125 0.126 82.346 0.991 -7.215 0.991 -7.215 0.126 82.346
7787.083 0.127 82.296 0.991 -7.269 0.991 -7.269 0.127 82.296
7812.042 0.127 82.245 0.991 -7.323 0.991 -7.323 0.127 82.245
7837 0.128 82.195 0.991 -7.376 0.991 -7.376 0.128 82.195
7861.958 0.129 82.144 0.991 -7.43 0.991 -7.43 0.129 82.144
7886.917 0.13 82.094 0.991 -7.483 0.991 -7.483 0.13 82.094
7911.875 0.131 82.044 0.99 -7.537 0.99 -7.537 0.131 82.044
7936.833 0.132 81.993 0.99 -7.59 0.99 -7.59 0.132 81.993
7961.792 0.133 81.943 0.99 -7.643 0.99 -7.643 0.133 81.943
7986.75 0.134 81.893 0.99 -7.696 0.99 -7.696 0.134 81.893
8011.708 0.135 81.843 0.99 -7.749 0.99 -7.749 0.135 81.843
8036.667 0.136 81.793 0.99 -7.801 0.99 -7.801 0.136 81.793
8061.625 0.137 81.743 0.99 -7.854 0.99 -7.854 0.137 81.743
8086.583 0.138 81.693 0.99 -7.907 0.99 -7.907 0.138 81.693
8111.542 0.138 81.644 0.989 -7.959 0.989 -7.959 0.138 81.644
8136.5 0.139 81.594 0.989 -8.012 0.989 -8.012 0.139 81.594
8161.458 0.14 81.544 0.989 -8.064 0.989 -8.064 0.14 81.544
8186.417 0.141 81.495 0.989 -8.116 0.989 -8.116 0.141 81.495
8211.375 0.142 81.445 0.989 -8.168 0.989 -8.168 0.142 81.445
8236.333 0.143 81.395 0.989 -8.22 0.989 -8.22 0.143 81.395
