# MHZ S MA R 50

50 0.994 -6.453 0.112 83.543 0.112 83.543 0.994 -6.453
74.958 0.986 -9.626 0.167 80.368 0.167 80.368 0.986 -9.626
99.917 0.975 -12.742 0.221 77.251 0.221 77.251 0.975 -12.742
124.875 0.962 -15.785 0.272 74.205 0.272 74.205 0.962 -15.785
149.833 0.947 -18.743 0.321 71.246 0.321 71.246 0.947 -18.743
174.792 0.93 -21.604 0.368 68.383 0.368 68.383 0.93 -21.604
199.75 0.911 -24.36 0.412 65.625 0.412 65.625 0.911 -24.36
224.708 0.891 -27.006 0.454 62.978 0.454 62.978 0.891 -27.006
249.667 0.87 -29.536 0.493 60.445 0.493 60.445 0.87 -29.536
274.625 0.848 -31.951 0.529 58.028 0.529 58.028 0.848 -31.951
299.583 0.826 -34.251 0.563 55.727 0.563 55.727 0.826 -34.251
324.542 0.804 -36.436 0.594 53.54 0.594 53.54 0.804 -36.436
349.5 0.782 -38.51 0.623 51.464 0.623 51.464 0.782 -38.51
374.458 0.76 -40.476 0.649 49.496 0.649 49.496 0.76 -40.476
399.417 0.739 -42.339 0.674 47.631 0.674 47.631 0.739 -42.339
424.375 0.718 -44.104 0.696 45.864 0.696 45.864 0.718 -44.104
449.333 0.697 -45.774 0.717 44.192 0.717 44.192 0.697 -45.774
474.292 0.677 -47.356 0.736 42.609 0.736 42.609 0.677 -47.356
499.25 0.657 -48.853 0.753 41.109 0.753 41.109 0.657 -48.853
524.208 0.639 -50.272 0.769 39.689 0.769 39.689 0.639 -50.272
549.167 0.62 -51.616 0.784 38.342 0.784 38.342 0.62 -51.616
574.125 0.603 -52.891 0.797 37.066 0.797 37.066 0.603 -52.891
599.083 0.586 -54.1 0.81 35.855 0.81 35.855 0.586 -54.1
624.042 0.569 -55.248 0.822 34.705 0.822 34.705 0.569 -55.248
649 0.554 -56.338 0.832 33.612 0.832 33.612 0.554 -56.338
673.958 0.538 -57.375 0.842 32.574 0.842 32.574 0.538 -57.375
698.917 0.524 -58.362 0.851 31.585 0.851 31.585 0.524 -58.362
723.875 0.51 -59.301 0.86 30.644 0.86 30.644 0.51 -59.301
748.833 0.496 -60.196 0.868 29.747 0.868 29.747 0.496 -60.196
773.792 0.483 -61.05 0.875 28.891 0.875 28.891 0.483 -61.05
798.75 0.471 -61.865 0.882 28.074 0.882 28.074 0.471 -61.865
823.708 0.459 -62.644 0.888 27.293 0.888 27.293 0.459 -62.644
848.667 0.447 -63.389 0.894 26.546 0.894 26.546 0.447 -63.389
873.625 0.436 -64.101 0.9 25.831 0.9 25.831 0.436 -64.101
898.583 0.425 -64.784 0.905 25.146 0.905 25.146 0.425 -64.784
923.542 0.415 -65.438 0.91 24.49 0.91 24.49 0.415 -65.438
948.5 0.405 -66.066 0.914 23.86 0.914 23.86 0.405 -66.066
973.458 0.395 -66.669 0.918 23.255 0.918 23.255 0.395 -66.669
998.417 0.385 -67.248 0.922 22.674 0.922 22.674 0.385 -67.248
1023.375 0.376 -67.804 0.926 22.115 0.926 22.115 0.376 -67.804
1048.333 0.368 -68.34 0.929 21.577 0.929 21.577 0.368 -68.34
1073.292 0.359 -68.856 0.933 21.059 0.933 21.059 0.359 -68.856
1098.25 0.351 -69.353 0.936 20.56 0.936 20.56 0.351 -69.353
1123.208 0.343 -69.832 0.939 20.078 0.939 20.078 0.343 -69.832
1148.167 0.336 -70.295 0.941 19.613 0.941 19.613 0.336 -70.295
1173.125 0.328 -70.742 0.944 19.164 0.944 19.164 0.328 -70.742
1198.083 0.321 -71.173 0.946 18.731 0.946 18.731 0.321 -71.173
1223.042 0.314 -71.59 0.949 18.311 0.949 18.311 0.314 -71.59
1248 0.307 -71.994 0.951 17.905 0.951 17.905 0.307 -71.994
1272.958 0.301 -72.385 0.953 17.512 0.953 17.512 0.301 -72.385
1297.917 0.295 -72.763 0.955 17.131 0.955 17.131 0.295 -72.763
1322.875 0.288 -73.13 0.957 16.762 0.957 16.762 0.288 -73.13
1347.833 0.282 -73.485 0.959 16.404 0.959 16.404 0.282 -73.485
1372.792 0.277 -73.83 0.96 16.056 0.96 16.056 0.277 -73.83
1397.75 0.271 -74.165 0.962 15.719 0.962 15.719 0.271 -74.165
1422.708 0.265 -74.49 0.964 15.391 0.964 15.391 0.265 -74.49
1447.667 0.26 -74.806 0.965 15.072 0.965 15.072 0.26 -74.806
1472.625 0.255 -75.114 0.966 14.763 0.966 14.763 0.255 -75.114
1497.583 0.25 -75.412 0.968 14.461 0.968 14.461 0.25 -75.412
1522.542 0.245 -75.703 0.969 14.168 0.969 14.168 0.245 -75.703
1547.5 0.24 -75.986 0.97 13.882 0.97 13.882 0.24 -75.986
1572.458 0.235 -76.262 0.971 13.603 0.971 13.603 0.235 -76.262
1597.417 0.231 -76.53 0.972 13.332 0.972 13.332 0.231 -76.53
1622.375 0.226 -76.792 0.974 13.067 0.974 13.067 0.226 -76.792
1647.333 0.222 -77.047 0.975 12.809 0.975 12.809 0.222 -77.047
1672.292 0.217 -77.297 0.976 12.557 0.976 12.557 0.217 -77.297
1697.25 0.213 -77.54 0.976 12.311 0.976 12.311 0.213 -77.54
1722.208 0.209 -77.777 0.977 12.07 0.977 12.07 0.209 -77.777
1747.167 0.205 -78.009 0.978 11.835 0.978 11.835 0.205 -78.009
1772.125 0.201 -78.235 0.979 11.606 0.979 11.606 0.201 -78.235
1797.083 0.197 -78.457 0.98 11.381 0.98 11.381 0.197 -78.457
1822.042 0.194 -78.673 0.981 11.161 0.981 11.161 0.194 -78.673
1847 0.19 -78.885 0.981 10.946 0.981 10.946 0.19 -78.885
1871.958 0.186 -79.092 0.982 10.736 0.982 10.736 0.186 -79.092
1896.917 0.183 -79.295 0.983 10.53 0.983 10.53 0.183 -79.295
1921.875 0.179 -79.493 0.983 10.328 0.983 10.328 0.179 -79.493
1946.833 0.176 -79.687 0.984 10.13 0.984 10.13 0.176 -79.687
1971.792 0.173 -79.878 0.984 9.936 0.984 9.936 0.173 -79.878
1996.75 0.169 -80.064 0.985 9.746 0.985 9.746 0.169 -80.064
2021.708 0.166 -80.247 0.986 9.559 0.986 9.559 0.166 -80.247
2046.667 0.163 -80.426 0.986 9.376 0.986 9.376 0.163 -80.426
2071.625 0.16 -80.602 0.987 9.196 0.987 9.196 0.16 -80.602
2096.583 0.157 -80.774 0.987 9.02 0.987 9.02 0.157 -80.774
2121.542 0.154 -80.944 0.988 8.847 0.988 8.847 0.154 -80.944
2146.5 0.151 -81.11 0.988 8.676 0.988 8.676 0.151 -81.11
2171.458 0.148 -81.272 0.988 8.509 0.988 8.509 0.148 -81.272
2196.417 0.145 -81.432 0.989 8.345 0.989 8.345 0.145 -81.432
2221.375 0.142 -81.59 0.989 8.183 0.989 8.183 0.142 -81.59
2246.333 0.14 -81.744 0.99 8.025 0.99 8.025 0.14 -81.744
2271.292 0.137 -81.895 0.99 7.868 0.99 7.868 0.137 -81.895
2296.25 0.134 -82.044 0.99 7.715 0.99 7.715 0.134 -82.044
2321.208 0.132 -82.191 0.991 7.563 0.991 7.563 0.132 -82.191
2346.167 0.129 -82.335 0.991 7.414 0.991 7.414 0.129 -82.335
2371.125 0.127 -82.476 0.991 7.268 0.991 7.268 0.127 -82.476
2396.083 0.124 -82.615 0.992 7.123 0.992 7.123 0.124 -82.615
2421.042 0.122 -82.752 0.992 6.981 0.992 6.981 0.122 -82.752
2446 0.119 -82.887 0.992 6.841 0.992 6.841 0.119 -82.887
2470.958 0.117 -83.019 0.993 6.703 0.993 6.703 0.117 -83.019
2495.917 0.114 -83.15 0.993 6.567 0.993 6.567 0.114 -83.15
2520.875 0.112 -83.278 0.993 6.433 0.993 6.433 0.112 -83.278
2545.833 0.11 -83.404 0.993 6.3 0.993 6.3 0.11 -83.404
2570.792 0.107 -83.528 0.994 6.17 0.994 6.17 0.107 -83.528
2595.75 0.105 -83.65 0.994 6.041 0.994 6.041 0.105 -83.65
2620.708 0.103 -83.77 0.994 5.914 0.994 5.914 0.103 -83.77
2645.667 0.101 -83.889 0.994 5.789 0.994 5.789 0.101 -83.889
2670.625 0.099 -84.005 0.995 5.665 0.995 5.665 0.099 -84.005
2695.583 0.097 -84.12 0.995 5.543 0.995 5.543 0.097 -84.12
2720.542 0.095 -84.233 0.995 5.423 0.995 5.423 0.095 -84.233
2745.5 0.092 -84.344 0.995 5.304 0.995 5.304 0.092 -84.344
2770.458 0.09 -84.454 0.995 5.186 0.995 5.186 0.09 -84.454
2795.417 0.088 -84.562 0.996 5.07 0.996 5.07 0.088 -84.562
2820.375 0.086 -84.668 0.996 4.955 0.996 4.955 0.086 -84.668
2845.333 0.084 -84.773 0.996 4.842 0.996 4.842 0.084 -84.773
2870.292 0.082 -84.875 0.996 4.73 0.996 4.73 0.082 -84.875
2895.25 0.081 -84.977 0.996 4.619 0.996 4.619 0.081 -84.977
2920.208 0.079 -85.076 0.996 4.51 0.996 4.51 0.079 -85.076
2945.167 0.077 -85.174 0.996 4.401 0.996 4.401 0.077 -85.174
2970.125 0.075 -85.271 0.997 4.294 0.997 4.294 0.075 -85.271
2995.083 0.073 -85.366 0.997 4.188 0.997 4.188 0.073 -85.366
3020.042 0.071 -85.459 0.997 4.084 0.997 4.084 0.071 -85.459
3045 0.069 -85.551 0.997 3.98 0.997 3.98 0.069 -85.551
3069.958 0.068 -85.641 0.997 3.877 0.997 3.877 0.068 -85.641
3094.917 0.066 -85.729 0.997 3.776 0.997 3.776 0.066 -85.729
3119.875 0.064 -85.816 0.997 3.675 0.997 3.675 0.064 -85.816
3144.833 0.062 -85.902 0.997 3.576 0.997 3.576 0.062 -85.902
3169.792 0.061 -85.985 0.998 3.477 0.998 3.477 0.061 -85.985
3194.75 0.059 -86.067 0.998 3.38 0.998 3.38 0.059 -86.067
3219.708 0.057 -86.147 0.998 3.283 0.998 3.283 0.057 -86.147
3244.667 0.056 -86.226 0.998 3.188 0.998 3.188 0.056 -86.226
3269.625 0.054 -86.303 0.998 3.093 0.998 3.093 0.054 -86.303
3294.583 0.052 -86.378 0.998 2.999 0.998 2.999 0.052 -86.378
3319.542 0.051 -86.451 0.998 2.906 0.998 2.906 0.051 -86.451
3344.5 0.049 -86.522 0.998 2.814 0.998 2.814 0.049 -86.522
3369.458 0.048 -86.591 0.998 2.723 0.998 2.723 0.048 -86.591
3394.417 0.046 -86.658 0.998 2.632 0.998 2.632 0.046 -86.658
3419.375 0.044 -86.722 0.998 2.542 0.998 2.542 0.044 -86.722
3444.333 0.043 -86.785 0.999 2.453 0.999 2.453 0.043 -86.785
3469.292 0.041 -86.844 0.999 2.365 0.999 2.365 0.041 -86.844
3494.25 0.04 -86.901 0.999 2.278 0.999 2.278 0.04 -86.901
3519.208 0.038 -86.956 0.999 2.191 0.999 2.191 0.038 -86.956
3544.167 0.037 -87.007 0.999 2.105 0.999 2.105 0.037 -87.007
3569.125 0.035 -87.054 0.999 2.02 0.999 2.02 0.035 -87.054
3594.083 0.034 -87.099 0.999 1.935 0.999 1.935 0.034 -87.099
3619.042 0.032 -87.139 0.999 1.851 0.999 1.851 0.032 -87.139
3644 0.031 -87.174 0.999 1.768 0.999 1.768 0.031 -87.174
3668.958 0.029 -87.205 0.999 1.685 0.999 1.685 0.029 -87.205
3693.917 0.028 -87.23 0.999 1.603 0.999 1.603 0.028 -87.23
3718.875 0.027 -87.249 0.999 1.522 0.999 1.522 0.027 -87.249
3743.833 0.025 -87.261 0.999 1.441 0.999 1.441 0.025 -87.261
3768.792 0.024 -87.265 0.999 1.361 0.999 1.361 0.024 -87.265
3793.75 0.022 -87.259 0.999 1.281 0.999 1.281 0.022 -87.259
3818.708 0.021 -87.242 0.999 1.202 0.999 1.202 0.021 -87.242
3843.667 0.02 -87.212 0.999 1.124 0.999 1.124 0.02 -87.212
3868.625 0.018 -87.166 0.999 1.046 0.999 1.046 0.018 -87.166
3893.583 0.017 -87.101 0.999 0.968 0.999 0.968 0.017 -87.101
3918.542 0.016 -87.011 0.999 0.891 0.999 0.891 0.016 -87.011
3943.5 0.014 -86.891 0.999 0.815 0.999 0.815 0.014 -86.891
3968.458 0.013 -86.732 0.999 0.739 0.999 0.739 0.013 -86.732
3993.417 0.012 -86.521 0.999 0.664 0.999 0.664 0.012 -86.521
4018.375 0.01 -86.239 0.999 0.589 0.999 0.589 0.01 -86.239
4043.333 9.003e-3 -85.856 0.999 0.515 0.999 0.515 9.003e-3 -85.856
4068.292 7.716e-3 -85.324 0.999 0.441 0.999 0.441 7.716e-3 -85.324
4093.25 6.439e-3 -84.555 0.999 0.367 0.999 0.367 6.439e-3 -84.555
4118.208 5.172e-3 -83.38 0.999 0.295 0.999 0.295 5.172e-3 -83.38
4143.167 3.917e-3 -81.412 0.999 0.222 0.999 0.222 3.917e-3 -81.412
4168.125 2.679e-3 -77.568 0.999 0.15 0.999 0.15 2.679e-3 -77.568
4193.083 1.482e-3 -67.301 0.999 0.078 0.999 0.078 1.482e-3 -67.301
4218.042 583.5e-6 -12.373 0.999 7.167e-3 0.999 7.167e-3 583.5e-6 -12.373
4243 1.248e-3 62.763 0.999 -0.064 0.999 -0.064 1.248e-3 62.763
4267.958 2.407e-3 76.169 0.999 -0.134 0.999 -0.134 2.407e-3 76.169
4292.917 3.604e-3 80.699 0.999 -0.204 0.999 -0.204 3.604e-3 80.699
4317.875 4.807e-3 82.918 0.999 -0.273 0.999 -0.273 4.807e-3 82.918
4342.833 6.007e-3 84.214 0.999 -0.343 0.999 -0.343 6.007e-3 84.214
4367.792 7.203e-3 85.051 0.999 -0.411 0.999 -0.411 7.203e-3 85.051
4392.75 8.394e-3 85.627 0.999 -0.48 0.999 -0.48 8.394e-3 85.627
4417.708 9.578e-3 86.041 0.999 -0.548 0.999 -0.548 9.578e-3 86.041
4442.667 0.011 86.348 0.999 -0.616 0.999 -0.616 0.011 86.348
4467.625 0.012 86.579 0.999 -0.683 0.999 -0.683 0.012 86.579
4492.583 0.013 86.757 0.999 -0.75 0.999 -0.75 0.013 86.757
4517.542 0.014 86.893 0.999 -0.816 0.999 -0.816 0.014 86.893
4542.5 0.015 86.999 0.999 -0.883 0.999 -0.883 0.015 86.999
4567.458 0.017 87.08 0.999 -0.948 0.999 -0.948 0.017 87.08
4592.417 0.018 87.142 0.999 -1.014 0.999 -1.014 0.018 87.142
4617.375 0.019 87.188 0.999 -1.079 0.999 -1.079 0.019 87.188
4642.333 0.02 87.221 0.999 -1.144 0.999 -1.144 0.02 87.221
4667.292 0.021 87.244 0.999 -1.209 0.999 -1.209 0.021 87.244
4692.25 0.022 87.258 0.999 -1.273 0.999 -1.273 0.022 87.258
4717.208 0.023 87.264 0.999 -1.337 0.999 -1.337 0.023 87.264
4742.167 0.024 87.264 0.999 -1.401 0.999 -1.401 0.024 87.264
4767.125 0.026 87.259 0.999 -1.464 0.999 -1.464 0.026 87.259
4792.083 0.027 87.248 0.999 -1.527 0.999 -1.527 0.027 87.248
4817.042 0.028 87.234 0.999 -1.59 0.999 -1.59 0.028 87.234
4842 0.029 87.216 0.999 -1.653 0.999 -1.653 0.029 87.216
4866.958 0.03 87.195 0.999 -1.715 0.999 -1.715 0.03 87.195
4891.917 0.031 87.171 0.999 -1.777 0.999 -1.777 0.031 87.171
4916.875 0.032 87.144 0.999 -1.838 0.999 -1.838 0.032 87.144
4941.833 0.033 87.116 0.999 -1.9 0.999 -1.9 0.033 87.116
4966.792 0.034 87.085 0.999 -1.961 0.999 -1.961 0.034 87.085
4991.75 0.035 87.053 0.999 -2.022 0.999 -2.022 0.035 87.053
5016.708 0.036 87.02 0.999 -2.082 0.999 -2.082 0.036 87.02
5041.667 0.037 86.985 0.999 -2.143 0.999 -2.143 0.037 86.985
5066.625 0.038 86.948 0.999 -2.203 0.999 -2.203 0.038 86.948
5091.583 0.039 86.911 0.999 -2.263 0.999 -2.263 0.039 86.911
5116.542 0.041 86.872 0.999 -2.322 0.999 -2.322 0.041 86.872
5141.5 0.042 86.833 0.999 -2.382 0.999 -2.382 0.042 86.833
5166.458 0.043 86.793 0.999 -2.441 0.999 -2.441 0.043 86.793
5191.417 0.044 86.752 0.998 -2.5 0.998 -2.5 0.044 86.752
5216.375 0.045 86.711 0.998 -2.559 0.998 -2.559 0.045 86.711
5241.333 0.046 86.669 0.998 -2.617 0.998 -2.617 0.046 86.669
5266.292 0.047 86.626 0.998 -2.675 0.998 -2.675 0.047 86.626
5291.25 0.048 86.583 0.998 -2.733 0.998 -2.733 0.048 86.583
5316.208 0.049 86.539 0.998 -2.791 0.998 -2.791 0.049 86.539
5341.167 0.05 86.495 0.998 -2.849 0.998 -2.849 0.05 86.495
5366.125 0.051 86.451 0.998 -2.906 0.998 -2.906 0.051 86.451
5391.083 0.052 86.406 0.998 -2.963 0.998 -2.963 0.052 86.406
5416.042 0.053 86.361 0.998 -3.02 0.998 -3.02 0.053 86.361
5441 0.054 86.316 0.998 -3.077 0.998 -3.077 0.054 86.316
5465.958 0.055 86.27 0.998 -3.133 0.998 -3.133 0.055 86.27
5490.917 0.056 86.224 0.998 -3.19 0.998 -3.19 0.056 86.224
5515.875 0.057 86.178 0.998 -3.246 0.998 -3.246 0.057 86.178
5540.833 0.058 86.132 0.998 -3.302 0.998 -3.302 0.058 86.132
5565.792 0.059 86.086 0.998 -3.358 0.998 -3.358 0.059 86.086
5590.75 0.06 86.039 0.998 -3.413 0.998 -3.413 0.06 86.039
5615.708 0.061 85.993 0.998 -3.469 0.998 -3.469 0.061 85.993
5640.667 0.061 85.946 0.998 -3.524 0.998 -3.524 0.061 85.946
5665.625 0.062 85.899 0.997 -3.579 0.997 -3.579 0.062 85.899
5690.583 0.063 85.852 0.997 -3.634 0.997 -3.634 0.063 85.852
5715.542 0.064 85.805 0.997 -3.688 0.997 -3.688 0.064 85.805
5740.5 0.065 85.758 0.997 -3.743 0.997 -3.743 0.065 85.758
5765.458 0.066 85.711 0.997 -3.797 0.997 -3.797 0.066 85.711
5790.417 0.067 85.664 0.997 -3.851 0.997 -3.851 0.067 85.664
5815.375 0.068 85.616 0.997 -3.905 0.997 -3.905 0.068 85.616
5840.333 0.069 85.569 0.997 -3.959 0.997 -3.959 0.069 85.569
5865.292 0.07 85.522 0.997 -4.013 0.997 -4.013 0.07 85.522
5890.25 0.071 85.474 0.997 -4.066 0.997 -4.066 0.071 85.474
5915.208 0.072 85.427 0.997 -4.12 0.997 -4.12 0.072 85.427
5940.167 0.073 85.38 0.997 -4.173 0.997 -4.173 0.073 85.38
5965.125 0.074 85.332 0.997 -4.226 0.997 -4.226 0.074 85.332
5990.083 0.075 85.285 0.997 -4.279 0.997 -4.279 0.075 85.285
6015.042 0.076 85.237 0.997 -4.331 0.997 -4.331 0.076 85.237
6040 0.076 85.19 0.997 -4.384 0.997 -4.384 0.076 85.19
6064.958 0.077 85.143 0.996 -4.436 0.996 -4.436 0.077 85.143
6089.917 0.078 85.095 0.996 -4.489 0.996 -4.489 0.078 85.095
6114.875 0.079 85.048 0.996 -4.541 0.996 -4.541 0.079 85.048
6139.833 0.08 85.001 0.996 -4.593 0.996 -4.593 0.08 85.001
6164.792 0.081 84.953 0.996 -4.645 0.996 -4.645 0.081 84.953
6189.75 0.082 84.906 0.996 -4.696 0.996 -4.696 0.082 84.906
6214.708 0.083 84.859 0.996 -4.748 0.996 -4.748 0.083 84.859
6239.667 0.084 84.812 0.996 -4.799 0.996 -4.799 0.084 84.812
6264.625 0.085 84.765 0.996 -4.851 0.996 -4.851 0.085 84.765
6289.583 0.085 84.718 0.996 -4.902 0.996 -4.902 0.085 84.718
6314.542 0.086 84.671 0.996 -4.953 0.996 -4.953 0.086 84.671
6339.5 0.087 84.624 0.996 -5.004 0.996 -5.004 0.087 84.624
6364.458 0.088 84.577 0.996 -5.054 0.996 -5.054 0.088 84.577
6389.417 0.089 84.53 0.995 -5.105 0.995 -5.105 0.089 84.53
6414.375 0.09 84.483 0.995 -5.155 0.995 -5.155 0.09 84.483
6439.333 0.091 84.436 0.995 -5.206 0.995 -5.206 0.091 84.436
6464.292 0.092 84.389 0.995 -5.256 0.995 -5.256 0.092 84.389
6489.25 0.092 84.342 0.995 -5.306 0.995 -5.306 0.092 84.342
6514.208 0.093 84.296 0.995 -5.356 0.995 -5.356 0.093 84.296
6539.167 0.094 84.249 0.995 -5.406 0.995 -5.406 0.094 84.249
6564.125 0.095 84.202 0.995 -5.456 0.995 -5.456 0.095 84.202
6589.083 0.096 84.156 0.995 -5.505 0.995 -5.505 0.096 84.156
6614.042 0.097 84.11 0.995 -5.555 0.995 -5.555 0.097 84.11
6639 0.098 84.063 0.995 -5.604 0.995 -5.604 0.098 84.063
6663.958 0.099 84.017 0.995 -5.653 0.995 -5.653 0.099 84.017
6688.917 0.099 83.97 0.994 -5.703 0.994 -5.703 0.099 83.97
6713.875 0.1 83.924 0.994 -5.752 0.994 -5.752 0.1 83.924
6738.833 0.101 83.878 0.994 -5.801 0.994 -5.801 0.101 83.878
6763.792 0.102 83.832 0.994 -5.849 0.994 -5.849 0.102 83.832
6788.75 0.103 83.786 0.994 -5.898 0.994 -5.898 0.103 83.786
6813.708 0.104 83.74 0.994 -5.947 0.994 -5.947 0.104 83.74
6838.667 0.104 83.694 0.994 -5.995 0.994 -5.995 0.104 83.694
6863.625 0.105 83.648 0.994 -6.044 0.994 -6.044 0.105 83.648
6888.583 0.106 83.602 0.994 -6.092 0.994 -6.092 0.106 83.602
6913.542 0.107 83.556 0.994 -6.14 0.994 -6.14 0.107 83.556
6938.5 0.108 83.511 0.994 -6.188 0.994 -6.188 0.108 83.511
6963.458 0.109 83.465 0.994 -6.236 0.994 -6.236 0.109 83.465
6988.417 0.109 83.419 0.993 -6.284 0.993 -6.284 0.109 83.419
7013.375 0.11 83.374 0.993 -6.332 0.993 -6.332 0.11 83.374
7038.333 0.111 83.328 0.993 -6.379 0.993 -6.379 0.111 83.328
7063.292 0.112 83.283 0.993 -6.427 0.993 -6.427 0.112 83.283
7088.25 0.113 83.238 0.993 -6.475 0.993 -6.475 0.113 83.238
7113.208 0.114 83.192 0.993 -6.522 0.993 -6.522 0.114 83.192
7138.167 0.114 83.147 0.993 -6.569 0.993 -6.569 0.114 83.147
7163.125 0.115 83.102 0.993 -6.616 0.993 -6.616 0.115 83.102
7188.083 0.116 83.057 0.993 -6.664 0.993 -6.664 0.116 83.057
7213.042 0.117 83.012 0.993 -6.711 0.993 -6.711 0.117 83.012
7238 0.118 82.967 0.992 -6.757 0.992 -6.757 0.118 82.967
7262.958 0.118 82.922 0.992 -6.804 0.992 -6.804 0.118 82.922
7287.917 0.119 82.877 0.992 -6.851 0.992 -6.851 0.119 82.877
7312.875 0.12 82.832 0.992 -6.898 0.992 -6.898 0.12 82.832
7337.833 0.121 82.788 0.992 -6.944 0.992 -6.944 0.121 82.788
7362.792 0.122 82.743 0.992 -6.991 0.992 -6.991 0.122 82.743
7387.75 0.123 82.698 0.992 -7.037 0.992 -7.037 0.123 82.698
7412.708 0.123 82.654 0.992 -7.083 0.992 -7.083 0.123 82.654
7437.667 0.124 82.609 0.992 -7.13 0.992 -7.13 0.124 82.609
7462.625 0.125 82.565 0.992 -7.176 0.992 -7.176 0.125 82.565
7487.583 0.126 82.521 0.992 -7.222 0.992 -7.222 0.126 82.521
7512.542 0.127 82.476 0.991 -7.268 0.991 -7.268 0.127 82.476
7537.5 0.127 82.432 0.991 -7.314 0.991 -7.314 0.127 82.432
7562.458 0.128 82.388 0.991 -7.359 0.991 -7.359 0.128 82.388
7587.417 0.129 82.344 0.991 -7.405 0.991 -7.405 0.129 82.344
7612.375 0.13 82.3 0.991 -7.451 0.991 -7.451 0.13 82.3
7637.333 0.13 82.256 0.991 -7.496 0.991 -7.496 0.13 82.256
7662.292 0.131 82.212 0.991 -7.542 0.991 -7.542 0.131 82.212
7687.25 0.132 82.168 0.991 -7.587 0.991 -7.587 0.132 82.168
7712.208 0.133 82.124 0.991 -7.632 0.991 -7.632 0.133 82.124
7737.167 0.134 82.08 0.99 -7.678 0.99 -7.678 0.134 82.08
7762.125 0.134 82.036 0.99 -7.723 0.99 -7.723 0.134 82.036
7787.083 0.135 81.993 0.99 -7.768 0.99 -7.768 0.135 81.993
7812.042 0.136 81.949 0.99 -7.813 0.99 -7.813 0.136 81.949
7837 0.137 81.905 0.99 -7.858 0.99 -7.858 0.137 81.905
7861.958 0.137 81.862 0.99 -7.903 0.99 -7.903 0.137 81.862
7886.917 0.138 81.819 0.99 -7.948 0.99 -7.948 0.138 81.819
7911.875 0.139 81.775 0.99 -7.992 0.99 -7.992 0.139 81.775
7936.833 0.14 81.732 0.99 -8.037 0.99 -8.037 0.14 81.732
7961.792 0.141 81.689 0.99 -8.082 0.99 -8.082 0.141 81.689
7986.75 0.141 81.645 0.989 -8.126 0.989 -8.126 0.141 81.645
8011.708 0.142 81.602 0.989 -8.17 0.989 -8.17 0.142 81.602
8036.667 0.143 81.559 0.989 -8.215 0.989 -8.215 0.143 81.559
8061.625 0.144 81.516 0.989 -8.259 0.989 -8.259 0.144 81.516
8086.583 0.144 81.473 0.989 -8.303 0.989 -8.303 0.144 81.473
8111.542 0.145 81.43 0.989 -8.348 0.989 -8.348 0.145 81.43
8136.5 0.146 81.387 0.989 -8.392 0.989 -8.392 0.146 81.387
8161.458 0.147 81.344 0.989 -8.436 0.989 -8.436 0.147 81.344
8186.417 0.147 81.301 0.989 -8.48 0.989 -8.48 0.147 81.301
8211.375 0.148 81.259 0.988 -8.523 0.988 -8.523 0.148 81.259
8236.333 0.149 81.216 0.988 -8.567 0.988 -8.567 0.149 81.216
