# MHZ S MA R 50

50 0.989 -8.401 0.146 81.595 0.146 81.595 0.989 -8.401
74.958 0.976 -12.487 0.216 77.507 0.216 77.507 0.976 -12.487
99.917 0.959 -16.451 0.283 73.541 0.283 73.541 0.959 -16.451
124.875 0.938 -20.265 0.346 69.726 0.346 69.726 0.938 -20.265
149.833 0.914 -23.905 0.405 66.084 0.405 66.084 0.914 -23.905
174.792 0.888 -27.357 0.46 62.629 0.46 62.629 0.888 -27.357
199.75 0.86 -30.613 0.509 59.371 0.509 59.371 0.86 -30.613
224.708 0.832 -33.671 0.554 56.312 0.554 56.312 0.832 -33.671
249.667 0.803 -36.534 0.595 53.447 0.595 53.447 0.803 -36.534
274.625 0.775 -39.206 0.632 50.773 0.632 50.773 0.775 -39.206
299.583 0.746 -41.698 0.665 48.279 0.665 48.279 0.746 -41.698
324.542 0.719 -44.018 0.695 45.957 0.695 45.957 0.719 -44.018
349.5 0.692 -46.177 0.721 43.796 0.721 43.796 0.692 -46.177
374.458 0.666 -48.188 0.745 41.783 0.745 41.783 0.666 -48.188
399.417 0.642 -50.06 0.767 39.909 0.767 39.909 0.642 -50.06
424.375 0.618 -51.804 0.786 38.163 0.786 38.163 0.618 -51.804
449.333 0.595 -53.431 0.803 36.535 0.803 36.535 0.595 -53.431
474.292 0.574 -54.949 0.819 35.014 0.819 35.014 0.574 -54.949
499.25 0.553 -56.369 0.833 33.592 0.833 33.592 0.553 -56.369
524.208 0.534 -57.698 0.845 32.262 0.845 32.262 0.534 -57.698
549.167 0.515 -58.943 0.857 31.014 0.857 31.014 0.515 -58.943
574.125 0.498 -60.111 0.867 29.844 0.867 29.844 0.498 -60.111
599.083 0.481 -61.209 0.876 28.743 0.876 28.743 0.481 -61.209
624.042 0.465 -62.243 0.885 27.708 0.885 27.708 0.465 -62.243
649 0.45 -63.217 0.893 26.732 0.893 26.732 0.45 -63.217
673.958 0.435 -64.136 0.9 25.81 0.9 25.81 0.435 -64.136
698.917 0.422 -65.005 0.906 24.939 0.906 24.939 0.422 -65.005
723.875 0.409 -65.828 0.912 24.115 0.912 24.115 0.409 -65.828
748.833 0.396 -66.607 0.918 23.333 0.918 23.333 0.396 -66.607
773.792 0.384 -67.346 0.923 22.592 0.923 22.592 0.384 -67.346
798.75 0.373 -68.049 0.928 21.887 0.928 21.887 0.373 -68.049
823.708 0.362 -68.717 0.932 21.217 0.932 21.217 0.362 -68.717
848.667 0.351 -69.353 0.936 20.578 0.936 20.578 0.351 -69.353
873.625 0.342 -69.96 0.939 19.969 0.939 19.969 0.342 -69.96
898.583 0.332 -70.54 0.943 19.387 0.943 19.387 0.332 -70.54
923.542 0.323 -71.093 0.946 18.831 0.946 18.831 0.323 -71.093
948.5 0.314 -71.623 0.949 18.299 0.949 18.299 0.314 -71.623
973.458 0.306 -72.13 0.952 17.79 0.952 17.79 0.306 -72.13
998.417 0.297 -72.616 0.954 17.301 0.954 17.301 0.297 -72.616
1023.375 0.29 -73.083 0.957 16.832 0.957 16.832 0.29 -73.083
1048.333 0.282 -73.531 0.959 16.382 0.959 16.382 0.282 -73.531
1073.292 0.275 -73.961 0.961 15.948 0.961 15.948 0.275 -73.961
1098.25 0.268 -74.376 0.963 15.531 0.963 15.531 0.268 -74.376
1123.208 0.261 -74.775 0.965 15.13 0.965 15.13 0.261 -74.775
1148.167 0.254 -75.159 0.967 14.743 0.967 14.743 0.254 -75.159
1173.125 0.248 -75.53 0.968 14.369 0.968 14.369 0.248 -75.53
1198.083 0.242 -75.888 0.97 14.008 0.97 14.008 0.242 -75.888
1223.042 0.236 -76.234 0.971 13.66 0.971 13.66 0.236 -76.234
1248 0.23 -76.569 0.973 13.323 0.973 13.323 0.23 -76.569
1272.958 0.225 -76.892 0.974 12.996 0.974 12.996 0.225 -76.892
1297.917 0.22 -77.205 0.975 12.68 0.975 12.68 0.22 -77.205
1322.875 0.214 -77.508 0.976 12.374 0.976 12.374 0.214 -77.508
1347.833 0.209 -77.802 0.977 12.077 0.977 12.077 0.209 -77.802
1372.792 0.204 -78.087 0.978 11.789 0.978 11.789 0.204 -78.087
1397.75 0.2 -78.364 0.979 11.509 0.979 11.509 0.2 -78.364
1422.708 0.195 -78.633 0.98 11.237 0.98 11.237 0.195 -78.633
1447.667 0.19 -78.894 0.981 10.973 0.981 10.973 0.19 -78.894
1472.625 0.186 -79.148 0.982 10.716 0.982 10.716 0.186 -79.148
1497.583 0.182 -79.394 0.983 10.466 0.983 10.466 0.182 -79.394
1522.542 0.177 -79.635 0.984 10.222 0.984 10.222 0.177 -79.635
1547.5 0.173 -79.868 0.984 9.985 0.984 9.985 0.173 -79.868
1572.458 0.169 -80.096 0.985 9.754 0.985 9.754 0.169 -80.096
1597.417 0.166 -80.318 0.986 9.528 0.986 9.528 0.166 -80.318
1622.375 0.162 -80.535 0.986 9.308 0.986 9.308 0.162 -80.535
1647.333 0.158 -80.746 0.987 9.093 0.987 9.093 0.158 -80.746
1672.292 0.154 -80.952 0.988 8.883 0.988 8.883 0.154 -80.952
1697.25 0.151 -81.153 0.988 8.678 0.988 8.678 0.151 -81.153
1722.208 0.147 -81.349 0.989 8.478 0.989 8.478 0.147 -81.349
1747.167 0.144 -81.541 0.989 8.282 0.989 8.282 0.144 -81.541
1772.125 0.141 -81.729 0.99 8.09 0.99 8.09 0.141 -81.729
1797.083 0.137 -81.912 0.99 7.902 0.99 7.902 0.137 -81.912
1822.042 0.134 -82.091 0.99 7.718 0.99 7.718 0.134 -82.091
1847 0.131 -82.267 0.991 7.538 0.991 7.538 0.131 -82.267
1871.958 0.128 -82.438 0.991 7.362 0.991 7.362 0.128 -82.438
1896.917 0.125 -82.607 0.992 7.189 0.992 7.189 0.125 -82.607
1921.875 0.122 -82.771 0.992 7.019 0.992 7.019 0.122 -82.771
1946.833 0.119 -82.932 0.992 6.853 0.992 6.853 0.119 -82.932
1971.792 0.116 -83.09 0.993 6.69 0.993 6.69 0.116 -83.09
1996.75 0.114 -83.245 0.993 6.53 0.993 6.53 0.114 -83.245
2021.708 0.111 -83.397 0.993 6.372 0.993 6.372 0.111 -83.397
2046.667 0.108 -83.545 0.994 6.218 0.994 6.218 0.108 -83.545
2071.625 0.106 -83.691 0.994 6.066 0.994 6.066 0.106 -83.691
2096.583 0.103 -83.834 0.994 5.917 0.994 5.917 0.103 -83.834
2121.542 0.101 -83.975 0.994 5.77 0.994 5.77 0.101 -83.975
2146.5 0.098 -84.112 0.995 5.626 0.995 5.626 0.098 -84.112
2171.458 0.096 -84.248 0.995 5.484 0.995 5.484 0.096 -84.248
2196.417 0.093 -84.38 0.995 5.344 0.995 5.344 0.093 -84.38
2221.375 0.091 -84.51 0.995 5.207 0.995 5.207 0.091 -84.51
2246.333 0.088 -84.638 0.996 5.071 0.996 5.071 0.088 -84.638
2271.292 0.086 -84.763 0.996 4.938 0.996 4.938 0.086 -84.763
2296.25 0.084 -84.886 0.996 4.807 0.996 4.807 0.084 -84.886
2321.208 0.082 -85.007 0.996 4.678 0.996 4.678 0.082 -85.007
2346.167 0.079 -85.126 0.996 4.55 0.996 4.55 0.079 -85.126
2371.125 0.077 -85.242 0.997 4.424 0.997 4.424 0.077 -85.242
2396.083 0.075 -85.357 0.997 4.301 0.997 4.301 0.075 -85.357
2421.042 0.073 -85.469 0.997 4.178 0.997 4.178 0.073 -85.469
2446 0.071 -85.579 0.997 4.058 0.997 4.058 0.071 -85.579
2470.958 0.069 -85.687 0.997 3.939 0.997 3.939 0.069 -85.687
2495.917 0.067 -85.792 0.997 3.822 0.997 3.822 0.067 -85.792
2520.875 0.065 -85.896 0.997 3.706 0.997 3.706 0.065 -85.896
2545.833 0.063 -85.998 0.998 3.591 0.998 3.591 0.063 -85.998
2570.792 0.061 -86.097 0.998 3.478 0.998 3.478 0.061 -86.097
2595.75 0.059 -86.195 0.998 3.367 0.998 3.367 0.059 -86.195
2620.708 0.057 -86.29 0.998 3.257 0.998 3.257 0.057 -86.29
2645.667 0.055 -86.383 0.998 3.148 0.998 3.148 0.055 -86.383
2670.625 0.053 -86.474 0.998 3.04 0.998 3.04 0.053 -86.474
2695.583 0.051 -86.563 0.998 2.934 0.998 2.934 0.051 -86.563
2720.542 0.049 -86.65 0.998 2.829 0.998 2.829 0.049 -86.65
2745.5 0.048 -86.734 0.998 2.725 0.998 2.725 0.048 -86.734
2770.458 0.046 -86.815 0.999 2.622 0.999 2.622 0.046 -86.815
2795.417 0.044 -86.894 0.999 2.52 0.999 2.52 0.044 -86.894
2820.375 0.042 -86.97 0.999 2.419 0.999 2.419 0.042 -86.97
2845.333 0.04 -87.044 0.999 2.32 0.999 2.32 0.04 -87.044
2870.292 0.039 -87.114 0.999 2.221 0.999 2.221 0.039 -87.114
2895.25 0.037 -87.181 0.999 2.124 0.999 2.124 0.037 -87.181
2920.208 0.035 -87.244 0.999 2.027 0.999 2.027 0.035 -87.244
2945.167 0.034 -87.304 0.999 1.932 0.999 1.932 0.034 -87.304
2970.125 0.032 -87.359 0.999 1.837 0.999 1.837 0.032 -87.359
2995.083 0.03 -87.41 0.999 1.743 0.999 1.743 0.03 -87.41
3020.042 0.029 -87.455 0.999 1.65 0.999 1.65 0.029 -87.455
3045 0.027 -87.494 0.999 1.558 0.999 1.558 0.027 -87.494
3069.958 0.026 -87.526 0.999 1.467 0.999 1.467 0.026 -87.526
3094.917 0.024 -87.551 0.999 1.377 0.999 1.377 0.024 -87.551
3119.875 0.022 -87.565 0.999 1.287 0.999 1.287 0.022 -87.565
3144.833 0.021 -87.569 0.999 1.199 0.999 1.199 0.021 -87.569
3169.792 0.019 -87.56 0.999 1.111 0.999 1.111 0.019 -87.56
3194.75 0.018 -87.534 0.999 1.024 0.999 1.024 0.018 -87.534
3219.708 0.016 -87.487 0.999 0.937 0.999 0.937 0.016 -87.487
3244.667 0.015 -87.414 0.999 0.851 0.999 0.851 0.015 -87.414
3269.625 0.013 -87.307 0.999 0.766 0.999 0.766 0.013 -87.307
3294.583 0.012 -87.153 0.999 0.682 0.999 0.682 0.012 -87.153
3319.542 0.01 -86.934 0.999 0.598 0.999 0.598 0.01 -86.934
3344.5 9.004e-3 -86.62 1 0.515 1 0.515 9.004e-3 -86.62
3369.458 7.568e-3 -86.159 1 0.433 1 0.433 7.568e-3 -86.159
3394.417 6.145e-3 -85.449 1 0.351 1 0.351 6.145e-3 -85.449
3419.375 4.734e-3 -84.276 1 0.27 1 0.27 4.734e-3 -84.276
3444.333 3.338e-3 -82.062 1 0.189 1 0.189 3.338e-3 -82.062
3469.292 1.964e-3 -76.648 1 0.11 1 0.11 1.964e-3 -76.648
3494.25 693.1e-6 -49.485 1 0.03 1 0.03 693.1e-6 -49.485
3519.208 959.9e-6 61.997 1 -0.049 1 -0.049 959.9e-6 61.997
3544.167 2.259e-3 78.381 1 -0.127 1 -0.127 2.259e-3 78.381
3569.125 3.598e-3 82.61 1 -0.205 1 -0.205 3.598e-3 82.61
3594.083 4.936e-3 84.488 1 -0.282 1 -0.282 4.936e-3 84.488
3619.042 6.27e-3 85.526 1 -0.358 1 -0.358 6.27e-3 85.526
3644 7.595e-3 86.169 1 -0.434 1 -0.434 7.595e-3 86.169
3668.958 8.913e-3 86.596 1 -0.51 1 -0.51 8.913e-3 86.596
3693.917 0.01 86.892 0.999 -0.585 0.999 -0.585 0.01 86.892
3718.875 0.012 87.103 0.999 -0.66 0.999 -0.66 0.012 87.103
3743.833 0.013 87.254 0.999 -0.734 0.999 -0.734 0.013 87.254
3768.792 0.014 87.364 0.999 -0.808 0.999 -0.808 0.014 87.364
3793.75 0.015 87.443 0.999 -0.881 0.999 -0.881 0.015 87.443
3818.708 0.017 87.498 0.999 -0.954 0.999 -0.954 0.017 87.498
3843.667 0.018 87.535 0.999 -1.026 0.999 -1.026 0.018 87.535
3868.625 0.019 87.557 0.999 -1.098 0.999 -1.098 0.019 87.557
3893.583 0.02 87.568 0.999 -1.17 0.999 -1.17 0.02 87.568
3918.542 0.022 87.569 0.999 -1.241 0.999 -1.241 0.022 87.569
3943.5 0.023 87.562 0.999 -1.312 0.999 -1.312 0.023 87.562
3968.458 0.024 87.549 0.999 -1.382 0.999 -1.382 0.024 87.549
3993.417 0.025 87.531 0.999 -1.452 0.999 -1.452 0.025 87.531
4018.375 0.027 87.508 0.999 -1.521 0.999 -1.521 0.027 87.508
4043.333 0.028 87.481 0.999 -1.59 0.999 -1.59 0.028 87.481
4068.292 0.029 87.451 0.999 -1.659 0.999 -1.659 0.029 87.451
4093.25 0.03 87.418 0.999 -1.728 0.999 -1.728 0.03 87.418
4118.208 0.031 87.382 0.999 -1.796 0.999 -1.796 0.031 87.382
4143.167 0.033 87.344 0.999 -1.863 0.999 -1.863 0.033 87.344
4168.125 0.034 87.304 0.999 -1.931 0.999 -1.931 0.034 87.304
4193.083 0.035 87.263 0.999 -1.998 0.999 -1.998 0.035 87.263
4218.042 0.036 87.22 0.999 -2.065 0.999 -2.065 0.036 87.22
4243 0.037 87.176 0.999 -2.131 0.999 -2.131 0.037 87.176
4267.958 0.038 87.131 0.999 -2.197 0.999 -2.197 0.038 87.131
4292.917 0.039 87.085 0.999 -2.263 0.999 -2.263 0.039 87.085
4317.875 0.041 87.038 0.999 -2.328 0.999 -2.328 0.041 87.038
4342.833 0.042 86.99 0.999 -2.393 0.999 -2.393 0.042 86.99
4367.792 0.043 86.941 0.999 -2.458 0.999 -2.458 0.043 86.941
4392.75 0.044 86.892 0.999 -2.523 0.999 -2.523 0.044 86.892
4417.708 0.045 86.842 0.999 -2.587 0.999 -2.587 0.045 86.842
4442.667 0.046 86.792 0.998 -2.651 0.998 -2.651 0.046 86.792
4467.625 0.047 86.742 0.998 -2.715 0.998 -2.715 0.047 86.742
4492.583 0.048 86.691 0.998 -2.778 0.998 -2.778 0.048 86.691
4517.542 0.05 86.639 0.998 -2.841 0.998 -2.841 0.05 86.639
4542.5 0.051 86.588 0.998 -2.904 0.998 -2.904 0.051 86.588
4567.458 0.052 86.536 0.998 -2.967 0.998 -2.967 0.052 86.536
4592.417 0.053 86.484 0.998 -3.029 0.998 -3.029 0.053 86.484
4617.375 0.054 86.432 0.998 -3.091 0.998 -3.091 0.054 86.432
4642.333 0.055 86.379 0.998 -3.153 0.998 -3.153 0.055 86.379
4667.292 0.056 86.327 0.998 -3.214 0.998 -3.214 0.056 86.327
4692.25 0.057 86.274 0.998 -3.276 0.998 -3.276 0.057 86.274
4717.208 0.058 86.221 0.998 -3.337 0.998 -3.337 0.058 86.221
4742.167 0.059 86.168 0.998 -3.398 0.998 -3.398 0.059 86.168
4767.125 0.06 86.115 0.998 -3.458 0.998 -3.458 0.06 86.115
4792.083 0.061 86.062 0.998 -3.519 0.998 -3.519 0.061 86.062
4817.042 0.062 86.009 0.998 -3.579 0.998 -3.579 0.062 86.009
4842 0.063 85.956 0.998 -3.639 0.998 -3.639 0.063 85.956
4866.958 0.065 85.903 0.997 -3.698 0.997 -3.698 0.065 85.903
4891.917 0.066 85.849 0.997 -3.758 0.997 -3.758 0.066 85.849
4916.875 0.067 85.796 0.997 -3.817 0.997 -3.817 0.067 85.796
4941.833 0.068 85.743 0.997 -3.876 0.997 -3.876 0.068 85.743
4966.792 0.069 85.69 0.997 -3.935 0.997 -3.935 0.069 85.69
4991.75 0.07 85.637 0.997 -3.994 0.997 -3.994 0.07 85.637
5016.708 0.071 85.584 0.997 -4.052 0.997 -4.052 0.071 85.584
5041.667 0.072 85.531 0.997 -4.111 0.997 -4.111 0.072 85.531
5066.625 0.073 85.478 0.997 -4.169 0.997 -4.169 0.073 85.478
5091.583 0.074 85.425 0.997 -4.227 0.997 -4.227 0.074 85.425
5116.542 0.075 85.372 0.997 -4.284 0.997 -4.284 0.075 85.372
5141.5 0.076 85.319 0.997 -4.342 0.997 -4.342 0.076 85.319
5166.458 0.077 85.266 0.997 -4.399 0.997 -4.399 0.077 85.266
5191.417 0.078 85.213 0.997 -4.456 0.997 -4.456 0.078 85.213
5216.375 0.079 85.16 0.996 -4.513 0.996 -4.513 0.079 85.16
5241.333 0.08 85.108 0.996 -4.57 0.996 -4.57 0.08 85.108
5266.292 0.081 85.055 0.996 -4.627 0.996 -4.627 0.081 85.055
5291.25 0.082 85.002 0.996 -4.683 0.996 -4.683 0.082 85.002
5316.208 0.083 84.95 0.996 -4.739 0.996 -4.739 0.083 84.95
5341.167 0.084 84.897 0.996 -4.795 0.996 -4.795 0.084 84.897
5366.125 0.085 84.845 0.996 -4.851 0.996 -4.851 0.085 84.845
5391.083 0.086 84.793 0.996 -4.907 0.996 -4.907 0.086 84.793
5416.042 0.087 84.741 0.996 -4.963 0.996 -4.963 0.087 84.741
5441 0.087 84.688 0.996 -5.018 0.996 -5.018 0.087 84.688
5465.958 0.088 84.636 0.996 -5.073 0.996 -5.073 0.088 84.636
5490.917 0.089 84.584 0.996 -5.128 0.996 -5.128 0.089 84.584
5515.875 0.09 84.532 0.995 -5.183 0.995 -5.183 0.09 84.532
5540.833 0.091 84.481 0.995 -5.238 0.995 -5.238 0.091 84.481
5565.792 0.092 84.429 0.995 -5.293 0.995 -5.293 0.092 84.429
5590.75 0.093 84.377 0.995 -5.347 0.995 -5.347 0.093 84.377
5615.708 0.094 84.326 0.995 -5.402 0.995 -5.402 0.094 84.326
5640.667 0.095 84.274 0.995 -5.456 0.995 -5.456 0.095 84.274
5665.625 0.096 84.223 0.995 -5.51 0.995 -5.51 0.096 84.223
5690.583 0.097 84.171 0.995 -5.564 0.995 -5.564 0.097 84.171
5715.542 0.098 84.12 0.995 -5.618 0.995 -5.618 0.098 84.12
5740.5 0.099 84.069 0.995 -5.671 0.995 -5.671 0.099 84.069
5765.458 0.1 84.018 0.995 -5.725 0.995 -5.725 0.1 84.018
5790.417 0.101 83.967 0.994 -5.778 0.994 -5.778 0.101 83.967
5815.375 0.102 83.916 0.994 -5.831 0.994 -5.831 0.102 83.916
5840.333 0.103 83.865 0.994 -5.885 0.994 -5.885 0.103 83.865
5865.292 0.103 83.815 0.994 -5.938 0.994 -5.938 0.103 83.815
5890.25 0.104 83.764 0.994 -5.99 0.994 -5.99 0.104 83.764
5915.208 0.105 83.713 0.994 -6.043 0.994 -6.043 0.105 83.713
5940.167 0.106 83.663 0.994 -6.096 0.994 -6.096 0.106 83.663
5965.125 0.107 83.612 0.994 -6.148 0.994 -6.148 0.107 83.612
5990.083 0.108 83.562 0.994 -6.201 0.994 -6.201 0.108 83.562
6015.042 0.109 83.512 0.994 -6.253 0.994 -6.253 0.109 83.512
6040 0.11 83.462 0.994 -6.305 0.994 -6.305 0.11 83.462
6064.958 0.111 83.412 0.993 -6.357 0.993 -6.357 0.111 83.412
6089.917 0.112 83.362 0.993 -6.409 0.993 -6.409 0.112 83.362
6114.875 0.113 83.312 0.993 -6.461 0.993 -6.461 0.113 83.312
6139.833 0.113 83.262 0.993 -6.512 0.993 -6.512 0.113 83.262
6164.792 0.114 83.212 0.993 -6.564 0.993 -6.564 0.114 83.212
6189.75 0.115 83.162 0.993 -6.615 0.993 -6.615 0.115 83.162
6214.708 0.116 83.113 0.993 -6.667 0.993 -6.667 0.116 83.113
6239.667 0.117 83.063 0.993 -6.718 0.993 -6.718 0.117 83.063
6264.625 0.118 83.014 0.993 -6.769 0.993 -6.769 0.118 83.014
6289.583 0.119 82.965 0.992 -6.82 0.992 -6.82 0.119 82.965
6314.542 0.12 82.915 0.992 -6.871 0.992 -6.871 0.12 82.915
6339.5 0.121 82.866 0.992 -6.921 0.992 -6.921 0.121 82.866
6364.458 0.121 82.817 0.992 -6.972 0.992 -6.972 0.121 82.817
6389.417 0.122 82.768 0.992 -7.023 0.992 -7.023 0.122 82.768
6414.375 0.123 82.719 0.992 -7.073 0.992 -7.073 0.123 82.719
6439.333 0.124 82.67 0.992 -7.124 0.992 -7.124 0.124 82.67
6464.292 0.125 82.621 0.992 -7.174 0.992 -7.174 0.125 82.621
6489.25 0.126 82.573 0.992 -7.224 0.992 -7.224 0.126 82.573
6514.208 0.127 82.524 0.992 -7.274 0.992 -7.274 0.127 82.524
6539.167 0.127 82.475 0.991 -7.324 0.991 -7.324 0.127 82.475
6564.125 0.128 82.427 0.991 -7.374 0.991 -7.374 0.128 82.427
6589.083 0.129 82.378 0.991 -7.424 0.991 -7.424 0.129 82.378
6614.042 0.13 82.33 0.991 -7.473 0.991 -7.473 0.13 82.33
6639 0.131 82.282 0.991 -7.523 0.991 -7.523 0.131 82.282
6663.958 0.132 82.234 0.991 -7.572 0.991 -7.572 0.132 82.234
6688.917 0.133 82.185 0.991 -7.622 0.991 -7.622 0.133 82.185
6713.875 0.133 82.137 0.991 -7.671 0.991 -7.671 0.133 82.137
6738.833 0.134 82.089 0.99 -7.72 0.99 -7.72 0.134 82.089
6763.792 0.135 82.042 0.99 -7.77 0.99 -7.77 0.135 82.042
6788.75 0.136 81.994 0.99 -7.819 0.99 -7.819 0.136 81.994
6813.708 0.137 81.946 0.99 -7.868 0.99 -7.868 0.137 81.946
6838.667 0.138 81.898 0.99 -7.916 0.99 -7.916 0.138 81.898
6863.625 0.139 81.851 0.99 -7.965 0.99 -7.965 0.139 81.851
6888.583 0.139 81.803 0.99 -8.014 0.99 -8.014 0.139 81.803
6913.542 0.14 81.755 0.99 -8.063 0.99 -8.063 0.14 81.755
6938.5 0.141 81.708 0.99 -8.111 0.99 -8.111 0.141 81.708
6963.458 0.142 81.661 0.989 -8.159 0.989 -8.159 0.142 81.661
6988.417 0.143 81.613 0.989 -8.208 0.989 -8.208 0.143 81.613
7013.375 0.144 81.566 0.989 -8.256 0.989 -8.256 0.144 81.566
7038.333 0.144 81.519 0.989 -8.304 0.989 -8.304 0.144 81.519
7063.292 0.145 81.472 0.989 -8.352 0.989 -8.352 0.145 81.472
7088.25 0.146 81.425 0.989 -8.401 0.989 -8.401 0.146 81.425
7113.208 0.147 81.378 0.989 -8.449 0.989 -8.449 0.147 81.378
7138.167 0.148 81.331 0.989 -8.496 0.989 -8.496 0.148 81.331
7163.125 0.149 81.284 0.988 -8.544 0.988 -8.544 0.149 81.284
7188.083 0.149 81.237 0.988 -8.592 0.988 -8.592 0.149 81.237
7213.042 0.15 81.191 0.988 -8.64 0.988 -8.64 0.15 81.191
7238 0.151 81.144 0.988 -8.687 0.988 -8.687 0.151 81.144
7262.958 0.152 81.097 0.988 -8.735 0.988 -8.735 0.152 81.097
7287.917 0.153 81.051 0.988 -8.782 0.988 -8.782 0.153 81.051
7312.875 0.153 81.004 0.988 -8.83 0.988 -8.83 0.153 81.004
7337.833 0.154 80.958 0.988 -8.877 0.988 -8.877 0.154 80.958
7362.792 0.155 80.912 0.987 -8.924 0.987 -8.924 0.155 80.912
7387.75 0.156 80.865 0.987 -8.971 0.987 -8.971 0.156 80.865
7412.708 0.157 80.819 0.987 -9.018 0.987 -9.018 0.157 80.819
7437.667 0.158 80.773 0.987 -9.065 0.987 -9.065 0.158 80.773
7462.625 0.158 80.727 0.987 -9.112 0.987 -9.112 0.158 80.727
7487.583 0.159 80.681 0.987 -9.159 0.987 -9.159 0.159 80.681
7512.542 0.16 80.635 0.987 -9.206 0.987 -9.206 0.16 80.635
7537.5 0.161 80.589 0.987 -9.253 0.987 -9.253 0.161 80.589
7562.458 0.162 80.543 0.986 -9.299 0.986 -9.299 0.162 80.543
7587.417 0.162 80.497 0.986 -9.346 0.986 -9.346 0.162 80.497
7612.375 0.163 80.452 0.986 -9.393 0.986 -9.393 0.163 80.452
7637.333 0.164 80.406 0.986 -9.439 0.986 -9.439 0.164 80.406
7662.292 0.165 80.36 0.986 -9.485 0.986 -9.485 0.165 80.36
7687.25 0.166 80.315 0.986 -9.532 0.986 -9.532 0.166 80.315
7712.208 0.166 80.269 0.986 -9.578 0.986 -9.578 0.166 80.269
7737.167 0.167 80.224 0.985 -9.624 0.985 -9.624 0.167 80.224
7762.125 0.168 80.178 0.985 -9.67 0.985 -9.67 0.168 80.178
7787.083 0.169 80.133 0.985 -9.717 0.985 -9.717 0.169 80.133
7812.042 0.17 80.088 0.985 -9.763 0.985 -9.763 0.17 80.088
7837 0.17 80.042 0.985 -9.808 0.985 -9.808 0.17 80.042
7861.958 0.171 79.997 0.985 -9.854 0.985 -9.854 0.171 79.997
7886.917 0.172 79.952 0.985 -9.9 0.985 -9.9 0.172 79.952
7911.875 0.173 79.907 0.985 -9.946 0.985 -9.946 0.173 79.907
7936.833 0.174 79.862 0.984 -9.992 0.984 -9.992 0.174 79.862
7961.792 0.174 79.817 0.984 -10.037 0.984 -10.037 0.174 79.817
7986.75 0.175 79.772 0.984 -10.083 0.984 -10.083 0.175 79.772
8011.708 0.176 79.727 0.984 -10.129 0.984 -10.129 0.176 79.727
8036.667 0.177 79.682 0.984 -10.174 0.984 -10.174 0.177 79.682
8061.625 0.177 79.637 0.984 -10.219 0.984 -10.219 0.177 79.637
8086.583 0.178 79.593 0.984 -10.265 0.984 -10.265 0.178 79.593
8111.542 0.179 79.548 0.983 -10.31 0.983 -10.31 0.179 79.548
8136.5 0.18 79.503 0.983 -10.355 0.983 -10.355 0.18 79.503
8161.458 0.181 79.459 0.983 -10.401 0.983 -10.401 0.181 79.459
8186.417 0.181 79.414 0.983 -10.446 0.983 -10.446 0.181 79.414
8211.375 0.182 79.37 0.983 -10.491 0.983 -10.491 0.182 79.37
8236.333 0.183 79.325 0.983 -10.536 0.983 -10.536 0.183 79.325
8261.292 0.184 79.281 0.983 -10.581 0.983 -10.581 0.184 79.281
8286.25 0.184 79.237 0.982 -10.626 0.982 -10.626 0.184 79.237
