# MHZ S MA R 50

50 0.968 -14.45 0.25 75.543 0.25 75.543 0.968 -14.45
74.958 0.933 -21.13 0.36 68.859 0.36 68.859 0.933 -21.13
99.917 0.889 -27.268 0.458 62.718 0.458 62.718 0.889 -27.268
124.875 0.84 -32.807 0.542 57.175 0.542 57.175 0.84 -32.807
149.833 0.791 -37.745 0.612 52.234 0.612 52.234 0.791 -37.745
174.792 0.742 -42.114 0.671 47.861 0.671 47.861 0.742 -42.114
199.75 0.695 -45.966 0.719 44.005 0.719 44.005 0.695 -45.966
224.708 0.651 -49.361 0.759 40.607 0.759 40.607 0.651 -49.361
249.667 0.61 -52.355 0.792 37.609 0.792 37.609 0.61 -52.355
274.625 0.573 -55.005 0.819 34.956 0.819 34.956 0.573 -55.005
299.583 0.539 -57.356 0.842 32.601 0.842 32.601 0.539 -57.356
324.542 0.508 -59.452 0.861 30.501 0.861 30.501 0.508 -59.452
349.5 0.479 -61.327 0.877 28.622 0.877 28.622 0.479 -61.327
374.458 0.453 -63.013 0.891 26.933 0.891 26.933 0.453 -63.013
399.417 0.429 -64.534 0.903 25.409 0.903 25.409 0.429 -64.534
424.375 0.407 -65.912 0.913 24.027 0.913 24.027 0.407 -65.912
449.333 0.387 -67.165 0.922 22.769 0.922 22.769 0.387 -67.165
474.292 0.368 -68.31 0.929 21.62 0.929 21.62 0.368 -68.31
499.25 0.351 -69.359 0.936 20.567 0.936 20.567 0.351 -69.359
524.208 0.335 -70.324 0.942 19.598 0.942 19.598 0.335 -70.324
549.167 0.321 -71.214 0.947 18.704 0.947 18.704 0.321 -71.214
574.125 0.307 -72.038 0.951 17.877 0.951 17.877 0.307 -72.038
599.083 0.294 -72.802 0.955 17.108 0.955 17.108 0.294 -72.802
624.042 0.282 -73.514 0.959 16.393 0.959 16.393 0.282 -73.514
649 0.271 -74.177 0.962 15.725 0.962 15.725 0.271 -74.177
673.958 0.261 -74.798 0.965 15.1 0.965 15.1 0.261 -74.798
698.917 0.251 -75.38 0.968 14.514 0.968 14.514 0.251 -75.38
723.875 0.241 -75.927 0.97 13.963 0.97 13.963 0.241 -75.927
748.833 0.232 -76.442 0.972 13.443 0.972 13.443 0.232 -76.442
773.792 0.224 -76.927 0.974 12.953 0.974 12.953 0.224 -76.927
798.75 0.216 -77.386 0.976 12.49 0.976 12.49 0.216 -77.386
823.708 0.209 -77.82 0.977 12.051 0.977 12.051 0.209 -77.82
848.667 0.202 -78.233 0.979 11.634 0.979 11.634 0.202 -78.233
873.625 0.195 -78.624 0.98 11.238 0.98 11.238 0.195 -78.624
898.583 0.188 -78.996 0.982 10.86 0.982 10.86 0.188 -78.996
923.542 0.182 -79.351 0.983 10.501 0.983 10.501 0.182 -79.351
948.5 0.176 -79.689 0.984 10.157 0.984 10.157 0.176 -79.689
973.458 0.171 -80.013 0.985 9.829 0.985 9.829 0.171 -80.013
998.417 0.165 -80.322 0.986 9.514 0.986 9.514 0.165 -80.322
1023.375 0.16 -80.618 0.987 9.212 0.987 9.212 0.16 -80.618
1048.333 0.155 -80.902 0.987 8.923 0.987 8.923 0.155 -80.902
1073.292 0.15 -81.174 0.988 8.645 0.988 8.645 0.15 -81.174
1098.25 0.146 -81.436 0.989 8.377 0.989 8.377 0.146 -81.436
1123.208 0.141 -81.688 0.99 8.119 0.99 8.119 0.141 -81.688
1148.167 0.137 -81.93 0.99 7.871 0.99 7.871 0.137 -81.93
1173.125 0.133 -82.164 0.991 7.631 0.991 7.631 0.133 -82.164
1198.083 0.129 -82.389 0.991 7.4 0.991 7.4 0.129 -82.389
1223.042 0.125 -82.606 0.992 7.176 0.992 7.176 0.125 -82.606
1248 0.121 -82.816 0.992 6.959 0.992 6.959 0.121 -82.816
1272.958 0.118 -83.018 0.993 6.749 0.993 6.749 0.118 -83.018
1297.917 0.114 -83.215 0.993 6.546 0.993 6.546 0.114 -83.215
1322.875 0.111 -83.404 0.993 6.348 0.993 6.348 0.111 -83.404
1347.833 0.107 -83.588 0.994 6.157 0.994 6.157 0.107 -83.588
1372.792 0.104 -83.766 0.994 5.971 0.994 5.971 0.104 -83.766
1397.75 0.101 -83.939 0.994 5.79 0.994 5.79 0.101 -83.939
1422.708 0.098 -84.106 0.995 5.614 0.995 5.614 0.098 -84.106
1447.667 0.095 -84.269 0.995 5.443 0.995 5.443 0.095 -84.269
1472.625 0.092 -84.427 0.995 5.276 0.995 5.276 0.092 -84.427
1497.583 0.089 -84.58 0.996 5.113 0.996 5.113 0.089 -84.58
1522.542 0.086 -84.729 0.996 4.954 0.996 4.954 0.086 -84.729
1547.5 0.084 -84.873 0.996 4.799 0.996 4.799 0.084 -84.873
1572.458 0.081 -85.014 0.996 4.648 0.996 4.648 0.081 -85.014
1597.417 0.078 -85.15 0.996 4.5 0.996 4.5 0.078 -85.15
1622.375 0.076 -85.283 0.997 4.356 0.997 4.356 0.076 -85.283
1647.333 0.073 -85.412 0.997 4.215 0.997 4.215 0.073 -85.412
1672.292 0.071 -85.538 0.997 4.076 0.997 4.076 0.071 -85.538
1697.25 0.069 -85.66 0.997 3.941 0.997 3.941 0.069 -85.66
1722.208 0.066 -85.778 0.997 3.809 0.997 3.809 0.066 -85.778
1747.167 0.064 -85.894 0.997 3.679 0.997 3.679 0.064 -85.894
1772.125 0.062 -86.006 0.998 3.551 0.998 3.551 0.062 -86.006
1797.083 0.06 -86.114 0.998 3.426 0.998 3.426 0.06 -86.114
1822.042 0.058 -86.22 0.998 3.304 0.998 3.304 0.058 -86.22
1847 0.056 -86.322 0.998 3.184 0.998 3.184 0.056 -86.322
1871.958 0.053 -86.421 0.998 3.065 0.998 3.065 0.053 -86.421
1896.917 0.051 -86.517 0.998 2.949 0.998 2.949 0.051 -86.517
1921.875 0.049 -86.61 0.998 2.835 0.998 2.835 0.049 -86.61
1946.833 0.048 -86.699 0.998 2.723 0.998 2.723 0.048 -86.699
1971.792 0.046 -86.785 0.998 2.613 0.998 2.613 0.046 -86.785
1996.75 0.044 -86.867 0.999 2.504 0.999 2.504 0.044 -86.867
2021.708 0.042 -86.946 0.999 2.398 0.999 2.398 0.042 -86.946
2046.667 0.04 -87.021 0.999 2.292 0.999 2.292 0.04 -87.021
2071.625 0.038 -87.092 0.999 2.189 0.999 2.189 0.038 -87.092
2096.583 0.036 -87.159 0.999 2.087 0.999 2.087 0.036 -87.159
2121.542 0.035 -87.221 0.999 1.986 0.999 1.986 0.035 -87.221
2146.5 0.033 -87.278 0.999 1.887 0.999 1.887 0.033 -87.278
2171.458 0.031 -87.33 0.999 1.79 0.999 1.79 0.031 -87.33
2196.417 0.03 -87.377 0.999 1.693 0.999 1.693 0.03 -87.377
2221.375 0.028 -87.416 0.999 1.598 0.999 1.598 0.028 -87.416
2246.333 0.026 -87.449 0.999 1.505 0.999 1.505 0.026 -87.449
2271.292 0.025 -87.473 0.999 1.412 0.999 1.412 0.025 -87.473
2296.25 0.023 -87.487 0.999 1.321 0.999 1.321 0.023 -87.487
2321.208 0.021 -87.49 0.999 1.23 0.999 1.23 0.021 -87.49
2346.167 0.02 -87.479 0.999 1.141 0.999 1.141 0.02 -87.479
2371.125 0.018 -87.451 0.999 1.053 0.999 1.053 0.018 -87.451
2396.083 0.017 -87.404 0.999 0.966 0.999 0.966 0.017 -87.404
2421.042 0.015 -87.33 0.999 0.88 0.999 0.88 0.015 -87.33
2446 0.014 -87.224 0.999 0.795 0.999 0.795 0.014 -87.224
2470.958 0.012 -87.074 0.999 0.711 0.999 0.711 0.012 -87.074
2495.917 0.011 -86.863 0.999 0.627 0.999 0.627 0.011 -86.863
2520.875 9.526e-3 -86.567 0.999 0.545 0.999 0.545 9.526e-3 -86.567
2545.833 8.106e-3 -86.142 0.999 0.464 0.999 0.464 8.106e-3 -86.142
2570.792 6.702e-3 -85.511 0.999 0.383 0.999 0.383 6.702e-3 -85.511
2595.75 5.313e-3 -84.514 1 0.303 1 0.303 5.313e-3 -84.514
2620.708 3.941e-3 -82.782 1 0.224 1 0.224 3.941e-3 -82.782
2645.667 2.591e-3 -79.179 1 0.146 1 0.146 2.591e-3 -79.179
2670.625 1.286e-3 -68.016 1 0.068 1 0.068 1.286e-3 -68.016
2695.583 502e-6 17.068 1 -8.447e-3 1 -8.447e-3 502e-6 17.068
2720.542 1.551e-3 71.897 1 -0.085 1 -0.085 1.551e-3 71.897
2745.5 2.832e-3 80.085 1 -0.16 1 -0.16 2.832e-3 80.085
2770.458 4.124e-3 83.082 1 -0.235 1 -0.235 4.124e-3 83.082
2795.417 5.41e-3 84.602 1 -0.309 1 -0.309 5.41e-3 84.602
2820.375 6.688e-3 85.503 0.999 -0.382 0.999 -0.382 6.688e-3 85.503
2845.333 7.956e-3 86.087 0.999 -0.455 0.999 -0.455 7.956e-3 86.087
2870.292 9.214e-3 86.487 0.999 -0.527 0.999 -0.527 9.214e-3 86.487
2895.25 0.01 86.772 0.999 -0.599 0.999 -0.599 0.01 86.772
2920.208 0.012 86.98 0.999 -0.67 0.999 -0.67 0.012 86.98
2945.167 0.013 87.133 0.999 -0.74 0.999 -0.74 0.013 87.133
2970.125 0.014 87.246 0.999 -0.81 0.999 -0.81 0.014 87.246
2995.083 0.015 87.33 0.999 -0.88 0.999 -0.88 0.015 87.33
3020.042 0.017 87.391 0.999 -0.949 0.999 -0.949 0.017 87.391
3045 0.018 87.434 0.999 -1.017 0.999 -1.017 0.018 87.434
3069.958 0.019 87.463 0.999 -1.085 0.999 -1.085 0.019 87.463
3094.917 0.02 87.481 0.999 -1.152 0.999 -1.152 0.02 87.481
3119.875 0.021 87.489 0.999 -1.219 0.999 -1.219 0.021 87.489
3144.833 0.022 87.489 0.999 -1.286 0.999 -1.286 0.022 87.489
3169.792 0.024 87.483 0.999 -1.352 0.999 -1.352 0.024 87.483
3194.75 0.025 87.471 0.999 -1.418 0.999 -1.418 0.025 87.471
3219.708 0.026 87.455 0.999 -1.483 0.999 -1.483 0.026 87.455
3244.667 0.027 87.435 0.999 -1.548 0.999 -1.548 0.027 87.435
3269.625 0.028 87.411 0.999 -1.612 0.999 -1.612 0.028 87.411
3294.583 0.029 87.384 0.999 -1.676 0.999 -1.676 0.029 87.384
3319.542 0.03 87.355 0.999 -1.739 0.999 -1.739 0.03 87.355
3344.5 0.031 87.324 0.999 -1.803 0.999 -1.803 0.031 87.324
3369.458 0.033 87.29 0.999 -1.865 0.999 -1.865 0.033 87.29
3394.417 0.034 87.255 0.999 -1.928 0.999 -1.928 0.034 87.255
3419.375 0.035 87.219 0.999 -1.99 0.999 -1.99 0.035 87.219
3444.333 0.036 87.181 0.999 -2.052 0.999 -2.052 0.036 87.181
3469.292 0.037 87.142 0.999 -2.113 0.999 -2.113 0.037 87.142
3494.25 0.038 87.102 0.999 -2.174 0.999 -2.174 0.038 87.102
3519.208 0.039 87.061 0.999 -2.235 0.999 -2.235 0.039 87.061
3544.167 0.04 87.019 0.999 -2.295 0.999 -2.295 0.04 87.019
3569.125 0.041 86.976 0.999 -2.355 0.999 -2.355 0.041 86.976
3594.083 0.042 86.933 0.999 -2.415 0.999 -2.415 0.042 86.933
3619.042 0.043 86.889 0.999 -2.475 0.999 -2.475 0.043 86.889
3644 0.044 86.845 0.999 -2.534 0.999 -2.534 0.044 86.845
3668.958 0.045 86.8 0.998 -2.593 0.998 -2.593 0.045 86.8
3693.917 0.046 86.755 0.998 -2.651 0.998 -2.651 0.046 86.755
3718.875 0.047 86.709 0.998 -2.71 0.998 -2.71 0.047 86.709
3743.833 0.048 86.664 0.998 -2.768 0.998 -2.768 0.048 86.664
3768.792 0.049 86.617 0.998 -2.825 0.998 -2.825 0.049 86.617
3793.75 0.05 86.571 0.998 -2.883 0.998 -2.883 0.05 86.571
3818.708 0.051 86.524 0.998 -2.94 0.998 -2.94 0.051 86.524
3843.667 0.052 86.478 0.998 -2.997 0.998 -2.997 0.052 86.478
3868.625 0.053 86.431 0.998 -3.054 0.998 -3.054 0.053 86.431
3893.583 0.054 86.383 0.998 -3.111 0.998 -3.111 0.054 86.383
3918.542 0.055 86.336 0.998 -3.167 0.998 -3.167 0.055 86.336
3943.5 0.056 86.289 0.998 -3.223 0.998 -3.223 0.056 86.289
3968.458 0.057 86.241 0.998 -3.279 0.998 -3.279 0.057 86.241
3993.417 0.058 86.194 0.998 -3.334 0.998 -3.334 0.058 86.194
4018.375 0.059 86.146 0.998 -3.39 0.998 -3.39 0.059 86.146
4043.333 0.06 86.099 0.998 -3.445 0.998 -3.445 0.06 86.099
4068.292 0.061 86.051 0.998 -3.5 0.998 -3.5 0.061 86.051
4093.25 0.062 86.003 0.998 -3.554 0.998 -3.554 0.062 86.003
4118.208 0.063 85.955 0.998 -3.609 0.998 -3.609 0.063 85.955
4143.167 0.064 85.907 0.997 -3.663 0.997 -3.663 0.064 85.907
4168.125 0.065 85.86 0.997 -3.717 0.997 -3.717 0.065 85.86
4193.083 0.066 85.812 0.997 -3.771 0.997 -3.771 0.066 85.812
4218.042 0.067 85.764 0.997 -3.825 0.997 -3.825 0.067 85.764
4243 0.068 85.716 0.997 -3.878 0.997 -3.878 0.068 85.716
4267.958 0.069 85.668 0.997 -3.932 0.997 -3.932 0.069 85.668
4292.917 0.069 85.62 0.997 -3.985 0.997 -3.985 0.069 85.62
4317.875 0.07 85.573 0.997 -4.038 0.997 -4.038 0.07 85.573
4342.833 0.071 85.525 0.997 -4.091 0.997 -4.091 0.071 85.525
4367.792 0.072 85.477 0.997 -4.143 0.997 -4.143 0.072 85.477
4392.75 0.073 85.43 0.997 -4.196 0.997 -4.196 0.073 85.43
4417.708 0.074 85.382 0.997 -4.248 0.997 -4.248 0.074 85.382
4442.667 0.075 85.334 0.997 -4.3 0.997 -4.3 0.075 85.334
4467.625 0.076 85.287 0.997 -4.352 0.997 -4.352 0.076 85.287
4492.583 0.077 85.239 0.997 -4.404 0.997 -4.404 0.077 85.239
4517.542 0.078 85.192 0.996 -4.455 0.996 -4.455 0.078 85.192
4542.5 0.079 85.144 0.996 -4.507 0.996 -4.507 0.079 85.144
4567.458 0.079 85.097 0.996 -4.558 0.996 -4.558 0.079 85.097
4592.417 0.08 85.05 0.996 -4.609 0.996 -4.609 0.08 85.05
4617.375 0.081 85.002 0.996 -4.66 0.996 -4.66 0.081 85.002
4642.333 0.082 84.955 0.996 -4.711 0.996 -4.711 0.082 84.955
4667.292 0.083 84.908 0.996 -4.762 0.996 -4.762 0.083 84.908
4692.25 0.084 84.861 0.996 -4.812 0.996 -4.812 0.084 84.861
4717.208 0.085 84.814 0.996 -4.863 0.996 -4.863 0.085 84.814
4742.167 0.086 84.767 0.996 -4.913 0.996 -4.913 0.086 84.767
4767.125 0.087 84.72 0.996 -4.963 0.996 -4.963 0.087 84.72
4792.083 0.087 84.673 0.996 -5.013 0.996 -5.013 0.087 84.673
4817.042 0.088 84.626 0.996 -5.063 0.996 -5.063 0.088 84.626
4842 0.089 84.58 0.996 -5.113 0.996 -5.113 0.089 84.58
4866.958 0.09 84.533 0.995 -5.163 0.995 -5.163 0.09 84.533
4891.917 0.091 84.487 0.995 -5.212 0.995 -5.212 0.091 84.487
4916.875 0.092 84.44 0.995 -5.261 0.995 -5.261 0.092 84.44
4941.833 0.093 84.394 0.995 -5.311 0.995 -5.311 0.093 84.394
4966.792 0.093 84.347 0.995 -5.36 0.995 -5.36 0.093 84.347
4991.75 0.094 84.301 0.995 -5.409 0.995 -5.409 0.094 84.301
5016.708 0.095 84.254 0.995 -5.458 0.995 -5.458 0.095 84.254
5041.667 0.096 84.208 0.995 -5.506 0.995 -5.506 0.096 84.208
5066.625 0.097 84.162 0.995 -5.555 0.995 -5.555 0.097 84.162
5091.583 0.098 84.116 0.995 -5.604 0.995 -5.604 0.098 84.116
5116.542 0.098 84.07 0.995 -5.652 0.995 -5.652 0.098 84.07
5141.5 0.099 84.024 0.995 -5.7 0.995 -5.7 0.099 84.024
5166.458 0.1 83.978 0.994 -5.749 0.994 -5.749 0.1 83.978
5191.417 0.101 83.932 0.994 -5.797 0.994 -5.797 0.101 83.932
5216.375 0.102 83.887 0.994 -5.845 0.994 -5.845 0.102 83.887
5241.333 0.103 83.841 0.994 -5.893 0.994 -5.893 0.103 83.841
5266.292 0.103 83.795 0.994 -5.94 0.994 -5.94 0.103 83.795
5291.25 0.104 83.75 0.994 -5.988 0.994 -5.988 0.104 83.75
5316.208 0.105 83.704 0.994 -6.036 0.994 -6.036 0.105 83.704
5341.167 0.106 83.659 0.994 -6.083 0.994 -6.083 0.106 83.659
5366.125 0.107 83.613 0.994 -6.131 0.994 -6.131 0.107 83.613
5391.083 0.108 83.568 0.994 -6.178 0.994 -6.178 0.108 83.568
5416.042 0.108 83.523 0.994 -6.225 0.994 -6.225 0.108 83.523
5441 0.109 83.478 0.994 -6.272 0.994 -6.272 0.109 83.478
5465.958 0.11 83.432 0.993 -6.319 0.993 -6.319 0.11 83.432
5490.917 0.111 83.387 0.993 -6.366 0.993 -6.366 0.111 83.387
5515.875 0.112 83.342 0.993 -6.413 0.993 -6.413 0.112 83.342
5540.833 0.113 83.297 0.993 -6.46 0.993 -6.46 0.113 83.297
5565.792 0.113 83.252 0.993 -6.506 0.993 -6.506 0.113 83.252
5590.75 0.114 83.208 0.993 -6.553 0.993 -6.553 0.114 83.208
5615.708 0.115 83.163 0.993 -6.599 0.993 -6.599 0.115 83.163
5640.667 0.116 83.118 0.993 -6.646 0.993 -6.646 0.116 83.118
5665.625 0.117 83.073 0.993 -6.692 0.993 -6.692 0.117 83.073
5690.583 0.117 83.029 0.993 -6.738 0.993 -6.738 0.117 83.029
5715.542 0.118 82.984 0.993 -6.785 0.993 -6.785 0.118 82.984
5740.5 0.119 82.94 0.992 -6.831 0.992 -6.831 0.119 82.94
5765.458 0.12 82.895 0.992 -6.877 0.992 -6.877 0.12 82.895
5790.417 0.121 82.851 0.992 -6.922 0.992 -6.922 0.121 82.851
5815.375 0.121 82.807 0.992 -6.968 0.992 -6.968 0.121 82.807
5840.333 0.122 82.762 0.992 -7.014 0.992 -7.014 0.122 82.762
5865.292 0.123 82.718 0.992 -7.06 0.992 -7.06 0.123 82.718
5890.25 0.124 82.674 0.992 -7.105 0.992 -7.105 0.124 82.674
5915.208 0.124 82.63 0.992 -7.151 0.992 -7.151 0.124 82.63
5940.167 0.125 82.586 0.992 -7.196 0.992 -7.196 0.125 82.586
5965.125 0.126 82.542 0.992 -7.242 0.992 -7.242 0.126 82.542
5990.083 0.127 82.498 0.991 -7.287 0.991 -7.287 0.127 82.498
6015.042 0.128 82.454 0.991 -7.332 0.991 -7.332 0.128 82.454
6040 0.128 82.41 0.991 -7.377 0.991 -7.377 0.128 82.41
6064.958 0.129 82.367 0.991 -7.422 0.991 -7.422 0.129 82.367
6089.917 0.13 82.323 0.991 -7.467 0.991 -7.467 0.13 82.323
6114.875 0.131 82.279 0.991 -7.512 0.991 -7.512 0.131 82.279
6139.833 0.132 82.236 0.991 -7.557 0.991 -7.557 0.132 82.236
6164.792 0.132 82.192 0.991 -7.602 0.991 -7.602 0.132 82.192
6189.75 0.133 82.149 0.991 -7.647 0.991 -7.647 0.133 82.149
6214.708 0.134 82.105 0.991 -7.691 0.991 -7.691 0.134 82.105
6239.667 0.135 82.062 0.99 -7.736 0.99 -7.736 0.135 82.062
6264.625 0.135 82.018 0.99 -7.78 0.99 -7.78 0.135 82.018
6289.583 0.136 81.975 0.99 -7.825 0.99 -7.825 0.136 81.975
6314.542 0.137 81.932 0.99 -7.869 0.99 -7.869 0.137 81.932
6339.5 0.138 81.889 0.99 -7.914 0.99 -7.914 0.138 81.889
6364.458 0.138 81.845 0.99 -7.958 0.99 -7.958 0.138 81.845
6389.417 0.139 81.802 0.99 -8.002 0.99 -8.002 0.139 81.802
6414.375 0.14 81.759 0.99 -8.046 0.99 -8.046 0.14 81.759
6439.333 0.141 81.716 0.99 -8.09 0.99 -8.09 0.141 81.716
6464.292 0.141 81.673 0.989 -8.134 0.989 -8.134 0.141 81.673
6489.25 0.142 81.63 0.989 -8.178 0.989 -8.178 0.142 81.63
6514.208 0.143 81.588 0.989 -8.222 0.989 -8.222 0.143 81.588
6539.167 0.144 81.545 0.989 -8.266 0.989 -8.266 0.144 81.545
6564.125 0.145 81.502 0.989 -8.31 0.989 -8.31 0.145 81.502
6589.083 0.145 81.459 0.989 -8.354 0.989 -8.354 0.145 81.459
6614.042 0.146 81.416 0.989 -8.397 0.989 -8.397 0.146 81.416
6639 0.147 81.374 0.989 -8.441 0.989 -8.441 0.147 81.374
6663.958 0.148 81.331 0.989 -8.484 0.989 -8.484 0.148 81.331
6688.917 0.148 81.289 0.988 -8.528 0.988 -8.528 0.148 81.289
6713.875 0.149 81.246 0.988 -8.571 0.988 -8.571 0.149 81.246
6738.833 0.15 81.204 0.988 -8.615 0.988 -8.615 0.15 81.204
6763.792 0.151 81.161 0.988 -8.658 0.988 -8.658 0.151 81.161
6788.75 0.151 81.119 0.988 -8.701 0.988 -8.701 0.151 81.119
6813.708 0.152 81.077 0.988 -8.745 0.988 -8.745 0.152 81.077
6838.667 0.153 81.034 0.988 -8.788 0.988 -8.788 0.153 81.034
6863.625 0.154 80.992 0.988 -8.831 0.988 -8.831 0.154 80.992
6888.583 0.154 80.95 0.988 -8.874 0.988 -8.874 0.154 80.95
6913.542 0.155 80.908 0.987 -8.917 0.987 -8.917 0.155 80.908
6938.5 0.156 80.866 0.987 -8.96 0.987 -8.96 0.156 80.866
6963.458 0.156 80.823 0.987 -9.003 0.987 -9.003 0.156 80.823
6988.417 0.157 80.781 0.987 -9.046 0.987 -9.046 0.157 80.781
7013.375 0.158 80.739 0.987 -9.089 0.987 -9.089 0.158 80.739
7038.333 0.159 80.697 0.987 -9.131 0.987 -9.131 0.159 80.697
7063.292 0.159 80.656 0.987 -9.174 0.987 -9.174 0.159 80.656
7088.25 0.16 80.614 0.987 -9.217 0.987 -9.217 0.16 80.614
7113.208 0.161 80.572 0.986 -9.259 0.986 -9.259 0.161 80.572
7138.167 0.162 80.53 0.986 -9.302 0.986 -9.302 0.162 80.53
7163.125 0.162 80.488 0.986 -9.345 0.986 -9.345 0.162 80.488
7188.083 0.163 80.447 0.986 -9.387 0.986 -9.387 0.163 80.447
7213.042 0.164 80.405 0.986 -9.43 0.986 -9.43 0.164 80.405
7238 0.165 80.363 0.986 -9.472 0.986 -9.472 0.165 80.363
7262.958 0.165 80.322 0.986 -9.514 0.986 -9.514 0.165 80.322
7287.917 0.166 80.28 0.986 -9.557 0.986 -9.557 0.166 80.28
7312.875 0.167 80.239 0.986 -9.599 0.986 -9.599 0.167 80.239
7337.833 0.167 80.197 0.985 -9.641 0.985 -9.641 0.167 80.197
7362.792 0.168 80.156 0.985 -9.683 0.985 -9.683 0.168 80.156
7387.75 0.169 80.114 0.985 -9.725 0.985 -9.725 0.169 80.114
7412.708 0.17 80.073 0.985 -9.767 0.985 -9.767 0.17 80.073
7437.667 0.17 80.031 0.985 -9.809 0.985 -9.809 0.17 80.031
7462.625 0.171 79.99 0.985 -9.851 0.985 -9.851 0.171 79.99
7487.583 0.172 79.949 0.985 -9.893 0.985 -9.893 0.172 79.949
7512.542 0.173 79.908 0.985 -9.935 0.985 -9.935 0.173 79.908
7537.5 0.173 79.866 0.984 -9.977 0.984 -9.977 0.173 79.866
7562.458 0.174 79.825 0.984 -10.019 0.984 -10.019 0.174 79.825
7587.417 0.175 79.784 0.984 -10.061 0.984 -10.061 0.175 79.784
7612.375 0.175 79.743 0.984 -10.103 0.984 -10.103 0.175 79.743
7637.333 0.176 79.702 0.984 -10.144 0.984 -10.144 0.176 79.702
7662.292 0.177 79.661 0.984 -10.186 0.984 -10.186 0.177 79.661
7687.25 0.178 79.62 0.984 -10.228 0.984 -10.228 0.178 79.62
7712.208 0.178 79.579 0.984 -10.269 0.984 -10.269 0.178 79.579
7737.167 0.179 79.538 0.983 -10.311 0.983 -10.311 0.179 79.538
7762.125 0.18 79.497 0.983 -10.352 0.983 -10.352 0.18 79.497
7787.083 0.18 79.456 0.983 -10.394 0.983 -10.394 0.18 79.456
7812.042 0.181 79.416 0.983 -10.435 0.983 -10.435 0.181 79.416
7837 0.182 79.375 0.983 -10.476 0.983 -10.476 0.182 79.375
7861.958 0.183 79.334 0.983 -10.518 0.983 -10.518 0.183 79.334
7886.917 0.183 79.293 0.983 -10.559 0.983 -10.559 0.183 79.293
7911.875 0.184 79.253 0.982 -10.6 0.982 -10.6 0.184 79.253
7936.833 0.185 79.212 0.982 -10.642 0.982 -10.642 0.185 79.212
7961.792 0.185 79.171 0.982 -10.683 0.982 -10.683 0.185 79.171
7986.75 0.186 79.131 0.982 -10.724 0.982 -10.724 0.186 79.131
8011.708 0.187 79.09 0.982 -10.765 0.982 -10.765 0.187 79.09
8036.667 0.187 79.05 0.982 -10.806 0.982 -10.806 0.187 79.05
8061.625 0.188 79.009 0.982 -10.847 0.982 -10.847 0.188 79.009
8086.583 0.189 78.969 0.982 -10.888 0.982 -10.888 0.189 78.969
8111.542 0.19 78.928 0.981 -10.929 0.981 -10.929 0.19 78.928
8136.5 0.19 78.888 0.981 -10.97 0.981 -10.97 0.19 78.888
8161.458 0.191 78.848 0.981 -11.011 0.981 -11.011 0.191 78.848
8186.417 0.192 78.807 0.981 -11.052 0.981 -11.052 0.192 78.807
8211.375 0.192 78.767 0.981 -11.093 0.981 -11.093 0.192 78.767
8236.333 0.193 78.727 0.981 -11.133 0.981 -11.133 0.193 78.727
8261.292 0.194 78.687 0.981 -11.174 0.981 -11.174 0.194 78.687
8286.25 0.194 78.646 0.98 -11.215 0.98 -11.215 0.194 78.646
