# MHZ S MA R 50

50 1 -1.53 0.027 88.466 0.027 88.466 1 -1.53
74.958 0.999 -2.293 0.04 87.701 0.04 87.701 0.999 -2.293
99.917 0.999 -3.055 0.053 86.937 0.053 86.937 0.999 -3.055
124.875 0.998 -3.816 0.067 86.174 0.067 86.174 0.998 -3.816
149.833 0.997 -4.576 0.08 85.411 0.08 85.411 0.997 -4.576
174.792 0.996 -5.335 0.093 84.651 0.093 84.651 0.996 -5.335
199.75 0.994 -6.092 0.106 83.892 0.106 83.892 0.994 -6.092
224.708 0.993 -6.847 0.119 83.134 0.119 83.134 0.993 -6.847
249.667 0.991 -7.6 0.132 82.379 0.132 82.379 0.991 -7.6
274.625 0.989 -8.351 0.145 81.626 0.145 81.626 0.989 -8.351
299.583 0.987 -9.1 0.158 80.876 0.158 80.876 0.987 -9.1
324.542 0.985 -9.845 0.171 80.128 0.171 80.128 0.985 -9.845
349.5 0.983 -10.588 0.184 79.384 0.184 79.384 0.983 -10.588
374.458 0.98 -11.327 0.196 78.642 0.196 78.642 0.98 -11.327
399.417 0.978 -12.063 0.209 77.904 0.209 77.904 0.978 -12.063
424.375 0.975 -12.796 0.221 77.169 0.221 77.169 0.975 -12.796
449.333 0.972 -13.525 0.234 76.438 0.234 76.438 0.972 -13.525
474.292 0.969 -14.25 0.246 75.711 0.246 75.711 0.969 -14.25
499.25 0.966 -14.971 0.258 74.988 0.258 74.988 0.966 -14.971
524.208 0.963 -15.688 0.27 74.269 0.27 74.269 0.963 -15.688
549.167 0.959 -16.401 0.282 73.554 0.282 73.554 0.959 -16.401
574.125 0.956 -17.109 0.294 72.844 0.294 72.844 0.956 -17.109
599.083 0.952 -17.812 0.306 72.139 0.306 72.139 0.952 -17.812
624.042 0.948 -18.511 0.317 71.438 0.317 71.438 0.948 -18.511
649 0.944 -19.205 0.329 70.743 0.329 70.743 0.944 -19.205
673.958 0.94 -19.893 0.34 70.052 0.34 70.052 0.94 -19.893
698.917 0.936 -20.577 0.351 69.366 0.351 69.366 0.936 -20.577
723.875 0.932 -21.255 0.363 68.686 0.363 68.686 0.932 -21.255
748.833 0.927 -21.928 0.373 68.011 0.373 68.011 0.927 -21.928
773.792 0.923 -22.596 0.384 67.341 0.384 67.341 0.923 -22.596
798.75 0.918 -23.258 0.395 66.677 0.395 66.677 0.918 -23.258
823.708 0.914 -23.914 0.405 66.019 0.405 66.019 0.914 -23.914
848.667 0.909 -24.565 0.416 65.366 0.416 65.366 0.909 -24.565
873.625 0.904 -25.21 0.426 64.719 0.426 64.719 0.904 -25.21
898.583 0.899 -25.849 0.436 64.077 0.436 64.077 0.899 -25.849
923.542 0.894 -26.482 0.446 63.442 0.446 63.442 0.894 -26.482
948.5 0.89 -27.11 0.456 62.812 0.456 62.812 0.89 -27.11
973.458 0.884 -27.731 0.465 62.189 0.465 62.189 0.884 -27.731
998.417 0.879 -28.347 0.475 61.571 0.475 61.571 0.879 -28.347
1023.375 0.874 -28.957 0.484 60.959 0.484 60.959 0.874 -28.957
1048.333 0.869 -29.56 0.493 60.354 0.493 60.354 0.869 -29.56
1073.292 0.864 -30.158 0.502 59.754 0.502 59.754 0.864 -30.158
1098.25 0.859 -30.749 0.511 59.16 0.511 59.16 0.859 -30.749
1123.208 0.853 -31.335 0.52 58.573 0.52 58.573 0.853 -31.335
1148.167 0.848 -31.914 0.529 57.991 0.529 57.991 0.848 -31.914
1173.125 0.843 -32.487 0.537 57.416 0.537 57.416 0.843 -32.487
1198.083 0.837 -33.054 0.545 56.847 0.545 56.847 0.837 -33.054
1223.042 0.832 -33.616 0.554 56.283 0.554 56.283 0.832 -33.616
1248 0.826 -34.171 0.562 55.726 0.562 55.726 0.826 -34.171
1272.958 0.821 -34.72 0.57 55.175 0.57 55.175 0.821 -34.72
1297.917 0.815 -35.263 0.577 54.629 0.577 54.629 0.815 -35.263
1322.875 0.81 -35.8 0.585 54.09 0.585 54.09 0.81 -35.8
1347.833 0.804 -36.332 0.592 53.557 0.592 53.557 0.804 -36.332
1372.792 0.799 -36.857 0.6 53.029 0.6 53.029 0.799 -36.857
1397.75 0.793 -37.376 0.607 52.507 0.607 52.507 0.793 -37.376
1422.708 0.788 -37.89 0.614 51.992 0.614 51.992 0.788 -37.89
1447.667 0.782 -38.398 0.621 51.482 0.621 51.482 0.782 -38.398
1472.625 0.777 -38.9 0.628 50.977 0.628 50.977 0.777 -38.9
1497.583 0.771 -39.396 0.635 50.479 0.635 50.479 0.771 -39.396
1522.542 0.766 -39.887 0.641 49.986 0.641 49.986 0.766 -39.887
1547.5 0.76 -40.372 0.648 49.499 0.648 49.499 0.76 -40.372
1572.458 0.755 -40.851 0.654 49.017 0.654 49.017 0.755 -40.851
1597.417 0.749 -41.325 0.66 48.541 0.66 48.541 0.749 -41.325
1622.375 0.744 -41.793 0.666 48.071 0.666 48.071 0.744 -41.793
1647.333 0.739 -42.256 0.672 47.606 0.672 47.606 0.739 -42.256
1672.292 0.733 -42.714 0.678 47.146 0.678 47.146 0.733 -42.714
1697.25 0.728 -43.166 0.684 46.691 0.684 46.691 0.728 -43.166
1722.208 0.722 -43.613 0.69 46.242 0.69 46.242 0.722 -43.613
1747.167 0.717 -44.054 0.695 45.798 0.695 45.798 0.717 -44.054
1772.125 0.712 -44.491 0.701 45.359 0.701 45.359 0.712 -44.491
1797.083 0.706 -44.922 0.706 44.926 0.706 44.926 0.706 -44.922
1822.042 0.701 -45.349 0.711 44.497 0.711 44.497 0.701 -45.349
1847 0.696 -45.77 0.717 44.073 0.717 44.073 0.696 -45.77
1871.958 0.69 -46.187 0.722 43.655 0.722 43.655 0.69 -46.187
1896.917 0.685 -46.598 0.727 43.241 0.727 43.241 0.685 -46.598
1921.875 0.68 -47.005 0.731 42.832 0.731 42.832 0.68 -47.005
1946.833 0.675 -47.407 0.736 42.427 0.736 42.427 0.675 -47.407
1971.792 0.669 -47.804 0.741 42.028 0.741 42.028 0.669 -47.804
1996.75 0.664 -48.197 0.745 41.633 0.745 41.633 0.664 -48.197
2021.708 0.659 -48.585 0.75 41.242 0.75 41.242 0.659 -48.585
2046.667 0.654 -48.969 0.754 40.856 0.754 40.856 0.654 -48.969
2071.625 0.649 -49.348 0.759 40.475 0.759 40.475 0.649 -49.348
2096.583 0.644 -49.722 0.763 40.098 0.763 40.098 0.644 -49.722
2121.542 0.639 -50.093 0.767 39.725 0.767 39.725 0.639 -50.093
2146.5 0.634 -50.459 0.771 39.356 0.771 39.356 0.634 -50.459
2171.458 0.629 -50.821 0.775 38.992 0.775 38.992 0.629 -50.821
2196.417 0.624 -51.179 0.779 38.632 0.779 38.632 0.624 -51.179
2221.375 0.619 -51.532 0.783 38.276 0.783 38.276 0.619 -51.532
2246.333 0.615 -51.882 0.787 37.924 0.787 37.924 0.615 -51.882
2271.292 0.61 -52.227 0.79 37.576 0.79 37.576 0.61 -52.227
2296.25 0.605 -52.569 0.794 37.232 0.794 37.232 0.605 -52.569
2321.208 0.6 -52.907 0.798 36.892 0.798 36.892 0.6 -52.907
2346.167 0.596 -53.24 0.801 36.555 0.801 36.555 0.596 -53.24
2371.125 0.591 -53.571 0.805 36.223 0.805 36.223 0.591 -53.571
2396.083 0.586 -53.897 0.808 35.894 0.808 35.894 0.586 -53.897
2421.042 0.582 -54.22 0.811 35.569 0.811 35.569 0.582 -54.22
2446 0.577 -54.539 0.815 35.247 0.815 35.247 0.577 -54.539
2470.958 0.573 -54.854 0.818 34.929 0.818 34.929 0.573 -54.854
2495.917 0.568 -55.166 0.821 34.614 0.821 34.614 0.568 -55.166
2520.875 0.564 -55.475 0.824 34.303 0.824 34.303 0.564 -55.475
2545.833 0.559 -55.78 0.827 33.995 0.827 33.995 0.559 -55.78
2570.792 0.555 -56.082 0.83 33.691 0.83 33.691 0.555 -56.082
2595.75 0.55 -56.38 0.833 33.39 0.833 33.39 0.55 -56.38
2620.708 0.546 -56.676 0.836 33.092 0.836 33.092 0.546 -56.676
2645.667 0.542 -56.968 0.838 32.797 0.838 32.797 0.542 -56.968
2670.625 0.537 -57.256 0.841 32.506 0.841 32.506 0.537 -57.256
2695.583 0.533 -57.542 0.844 32.218 0.844 32.218 0.533 -57.542
2720.542 0.529 -57.825 0.846 31.932 0.846 31.932 0.529 -57.825
2745.5 0.525 -58.104 0.849 31.65 0.849 31.65 0.525 -58.104
2770.458 0.521 -58.381 0.852 31.371 0.852 31.371 0.521 -58.381
2795.417 0.516 -58.655 0.854 31.094 0.854 31.094 0.516 -58.655
2820.375 0.512 -58.925 0.857 30.821 0.857 30.821 0.512 -58.925
2845.333 0.508 -59.193 0.859 30.55 0.859 30.55 0.508 -59.193
2870.292 0.504 -59.458 0.861 30.282 0.861 30.282 0.504 -59.458
2895.25 0.5 -59.721 0.864 30.017 0.864 30.017 0.5 -59.721
2920.208 0.496 -59.98 0.866 29.755 0.866 29.755 0.496 -59.98
2945.167 0.492 -60.237 0.868 29.495 0.868 29.495 0.492 -60.237
2970.125 0.488 -60.492 0.87 29.238 0.87 29.238 0.488 -60.492
2995.083 0.485 -60.743 0.872 28.983 0.872 28.983 0.485 -60.743
3020.042 0.481 -60.992 0.875 28.731 0.875 28.731 0.481 -60.992
3045 0.477 -61.239 0.877 28.482 0.877 28.482 0.477 -61.239
3069.958 0.473 -61.483 0.879 28.235 0.879 28.235 0.473 -61.483
3094.917 0.469 -61.725 0.881 27.99 0.881 27.99 0.469 -61.725
3119.875 0.466 -61.964 0.883 27.748 0.883 27.748 0.466 -61.964
3144.833 0.462 -62.201 0.885 27.509 0.885 27.509 0.462 -62.201
3169.792 0.458 -62.435 0.886 27.271 0.886 27.271 0.458 -62.435
3194.75 0.455 -62.667 0.888 27.036 0.888 27.036 0.455 -62.667
3219.708 0.451 -62.897 0.89 26.803 0.89 26.803 0.451 -62.897
3244.667 0.447 -63.124 0.892 26.573 0.892 26.573 0.447 -63.124
3269.625 0.444 -63.35 0.894 26.344 0.894 26.344 0.444 -63.35
3294.583 0.44 -63.573 0.896 26.118 0.896 26.118 0.44 -63.573
3319.542 0.437 -63.794 0.897 25.894 0.897 25.894 0.437 -63.794
3344.5 0.433 -64.013 0.899 25.672 0.899 25.672 0.433 -64.013
3369.458 0.43 -64.23 0.901 25.452 0.901 25.452 0.43 -64.23
3394.417 0.426 -64.444 0.902 25.234 0.902 25.234 0.426 -64.444
3419.375 0.423 -64.657 0.904 25.019 0.904 25.019 0.423 -64.657
3444.333 0.42 -64.868 0.905 24.805 0.905 24.805 0.42 -64.868
3469.292 0.416 -65.076 0.907 24.593 0.907 24.593 0.416 -65.076
3494.25 0.413 -65.283 0.908 24.383 0.908 24.383 0.413 -65.283
3519.208 0.41 -65.488 0.91 24.175 0.91 24.175 0.41 -65.488
3544.167 0.406 -65.691 0.911 23.969 0.911 23.969 0.406 -65.691
3569.125 0.403 -65.892 0.913 23.764 0.913 23.764 0.403 -65.892
3594.083 0.4 -66.091 0.914 23.562 0.914 23.562 0.4 -66.091
3619.042 0.397 -66.288 0.916 23.361 0.916 23.361 0.397 -66.288
3644 0.393 -66.484 0.917 23.162 0.917 23.162 0.393 -66.484
3668.958 0.39 -66.678 0.918 22.965 0.918 22.965 0.39 -66.678
3693.917 0.387 -66.87 0.92 22.769 0.92 22.769 0.387 -66.87
3718.875 0.384 -67.06 0.921 22.576 0.921 22.576 0.384 -67.06
3743.833 0.381 -67.249 0.922 22.383 0.922 22.383 0.381 -67.249
3768.792 0.378 -67.436 0.923 22.193 0.923 22.193 0.378 -67.436
3793.75 0.375 -67.621 0.925 22.004 0.925 22.004 0.375 -67.621
3818.708 0.372 -67.805 0.926 21.817 0.926 21.817 0.372 -67.805
3843.667 0.369 -67.987 0.927 21.631 0.927 21.631 0.369 -67.987
3868.625 0.366 -68.167 0.928 21.447 0.928 21.447 0.366 -68.167
3893.583 0.363 -68.346 0.929 21.264 0.929 21.264 0.363 -68.346
3918.542 0.36 -68.524 0.931 21.083 0.931 21.083 0.36 -68.524
3943.5 0.357 -68.7 0.932 20.904 0.932 20.904 0.357 -68.7
3968.458 0.354 -68.874 0.933 20.726 0.933 20.726 0.354 -68.874
3993.417 0.351 -69.047 0.934 20.549 0.934 20.549 0.351 -69.047
4018.375 0.348 -69.218 0.935 20.374 0.935 20.374 0.348 -69.218
4043.333 0.345 -69.388 0.936 20.2 0.936 20.2 0.345 -69.388
4068.292 0.342 -69.557 0.937 20.027 0.937 20.027 0.342 -69.557
4093.25 0.34 -69.724 0.938 19.856 0.938 19.856 0.34 -69.724
4118.208 0.337 -69.89 0.939 19.687 0.939 19.687 0.337 -69.89
4143.167 0.334 -70.054 0.94 19.518 0.94 19.518 0.334 -70.054
4168.125 0.331 -70.217 0.941 19.351 0.941 19.351 0.331 -70.217
4193.083 0.329 -70.379 0.942 19.185 0.942 19.185 0.329 -70.379
4218.042 0.326 -70.54 0.943 19.021 0.943 19.021 0.326 -70.54
4243 0.323 -70.699 0.944 18.858 0.944 18.858 0.323 -70.699
4267.958 0.321 -70.857 0.945 18.696 0.945 18.696 0.321 -70.857
4292.917 0.318 -71.013 0.946 18.535 0.946 18.535 0.318 -71.013
4317.875 0.315 -71.168 0.947 18.376 0.947 18.376 0.315 -71.168
4342.833 0.313 -71.323 0.947 18.217 0.947 18.217 0.313 -71.323
4367.792 0.31 -71.475 0.948 18.06 0.948 18.06 0.31 -71.475
4392.75 0.307 -71.627 0.949 17.904 0.949 17.904 0.307 -71.627
4417.708 0.305 -71.778 0.95 17.749 0.95 17.749 0.305 -71.778
4442.667 0.302 -71.927 0.951 17.596 0.951 17.596 0.302 -71.927
4467.625 0.3 -72.075 0.951 17.443 0.951 17.443 0.3 -72.075
4492.583 0.297 -72.222 0.952 17.292 0.952 17.292 0.297 -72.222
4517.542 0.295 -72.368 0.953 17.141 0.953 17.141 0.295 -72.368
4542.5 0.292 -72.512 0.954 16.992 0.954 16.992 0.292 -72.512
4567.458 0.29 -72.656 0.955 16.844 0.955 16.844 0.29 -72.656
4592.417 0.287 -72.799 0.955 16.697 0.955 16.697 0.287 -72.799
4617.375 0.285 -72.94 0.956 16.55 0.956 16.55 0.285 -72.94
4642.333 0.282 -73.08 0.957 16.405 0.957 16.405 0.282 -73.08
4667.292 0.28 -73.22 0.957 16.261 0.957 16.261 0.28 -73.22
4692.25 0.278 -73.358 0.958 16.118 0.958 16.118 0.278 -73.358
4717.208 0.275 -73.495 0.959 15.976 0.959 15.976 0.275 -73.495
4742.167 0.273 -73.631 0.96 15.835 0.96 15.835 0.273 -73.631
4767.125 0.271 -73.766 0.96 15.695 0.96 15.695 0.271 -73.766
4792.083 0.268 -73.9 0.961 15.555 0.961 15.555 0.268 -73.9
4817.042 0.266 -74.034 0.961 15.417 0.961 15.417 0.266 -74.034
4842 0.264 -74.166 0.962 15.28 0.962 15.28 0.264 -74.166
4866.958 0.261 -74.297 0.963 15.143 0.963 15.143 0.261 -74.297
4891.917 0.259 -74.427 0.963 15.008 0.963 15.008 0.259 -74.427
4916.875 0.257 -74.557 0.964 14.873 0.964 14.873 0.257 -74.557
4941.833 0.254 -74.685 0.965 14.739 0.965 14.739 0.254 -74.685
4966.792 0.252 -74.812 0.965 14.606 0.965 14.606 0.252 -74.812
4991.75 0.25 -74.939 0.966 14.474 0.966 14.474 0.25 -74.939
5016.708 0.248 -75.065 0.966 14.343 0.966 14.343 0.248 -75.065
5041.667 0.246 -75.189 0.967 14.213 0.967 14.213 0.246 -75.189
5066.625 0.243 -75.313 0.967 14.083 0.967 14.083 0.243 -75.313
5091.583 0.241 -75.436 0.968 13.955 0.968 13.955 0.241 -75.436
5116.542 0.239 -75.558 0.968 13.827 0.968 13.827 0.239 -75.558
5141.5 0.237 -75.679 0.969 13.7 0.969 13.7 0.237 -75.679
5166.458 0.235 -75.799 0.97 13.573 0.97 13.573 0.235 -75.799
5191.417 0.233 -75.919 0.97 13.448 0.97 13.448 0.233 -75.919
5216.375 0.23 -76.038 0.971 13.323 0.971 13.323 0.23 -76.038
5241.333 0.228 -76.155 0.971 13.199 0.971 13.199 0.228 -76.155
5266.292 0.226 -76.272 0.971 13.076 0.971 13.076 0.226 -76.272
5291.25 0.224 -76.388 0.972 12.953 0.972 12.953 0.224 -76.388
5316.208 0.222 -76.504 0.972 12.831 0.972 12.831 0.222 -76.504
5341.167 0.22 -76.618 0.973 12.71 0.973 12.71 0.22 -76.618
5366.125 0.218 -76.732 0.973 12.59 0.973 12.59 0.218 -76.732
5391.083 0.216 -76.845 0.974 12.47 0.974 12.47 0.216 -76.845
5416.042 0.214 -76.957 0.974 12.351 0.974 12.351 0.214 -76.957
5441 0.212 -77.068 0.975 12.233 0.975 12.233 0.212 -77.068
5465.958 0.21 -77.179 0.975 12.116 0.975 12.116 0.21 -77.179
5490.917 0.208 -77.289 0.976 11.999 0.976 11.999 0.208 -77.289
5515.875 0.206 -77.398 0.976 11.883 0.976 11.883 0.206 -77.398
5540.833 0.204 -77.506 0.976 11.767 0.976 11.767 0.204 -77.506
5565.792 0.202 -77.613 0.977 11.652 0.977 11.652 0.202 -77.613
5590.75 0.2 -77.72 0.977 11.538 0.977 11.538 0.2 -77.72
5615.708 0.198 -77.826 0.978 11.424 0.978 11.424 0.198 -77.826
5640.667 0.196 -77.931 0.978 11.311 0.978 11.311 0.196 -77.931
5665.625 0.194 -78.036 0.978 11.199 0.978 11.199 0.194 -78.036
5690.583 0.192 -78.14 0.979 11.087 0.979 11.087 0.192 -78.14
5715.542 0.19 -78.243 0.979 10.976 0.979 10.976 0.19 -78.243
5740.5 0.189 -78.345 0.979 10.866 0.979 10.866 0.189 -78.345
5765.458 0.187 -78.447 0.98 10.756 0.98 10.756 0.187 -78.447
5790.417 0.185 -78.548 0.98 10.646 0.98 10.646 0.185 -78.548
5815.375 0.183 -78.648 0.981 10.538 0.981 10.538 0.183 -78.648
5840.333 0.181 -78.748 0.981 10.43 0.981 10.43 0.181 -78.748
5865.292 0.179 -78.846 0.981 10.322 0.981 10.322 0.179 -78.846
5890.25 0.177 -78.945 0.982 10.215 0.982 10.215 0.177 -78.945
5915.208 0.176 -79.042 0.982 10.109 0.982 10.109 0.176 -79.042
5940.167 0.174 -79.139 0.982 10.003 0.982 10.003 0.174 -79.139
5965.125 0.172 -79.235 0.983 9.897 0.983 9.897 0.172 -79.235
5990.083 0.17 -79.33 0.983 9.793 0.983 9.793 0.17 -79.33
6015.042 0.168 -79.425 0.983 9.688 0.983 9.688 0.168 -79.425
6040 0.167 -79.519 0.983 9.585 0.983 9.585 0.167 -79.519
6064.958 0.165 -79.612 0.984 9.481 0.984 9.481 0.165 -79.612
6089.917 0.163 -79.704 0.984 9.379 0.984 9.379 0.163 -79.704
6114.875 0.161 -79.796 0.984 9.276 0.984 9.276 0.161 -79.796
6139.833 0.159 -79.888 0.985 9.175 0.985 9.175 0.159 -79.888
6164.792 0.158 -79.978 0.985 9.074 0.985 9.074 0.158 -79.978
6189.75 0.156 -80.068 0.985 8.973 0.985 8.973 0.156 -80.068
6214.708 0.154 -80.157 0.985 8.873 0.985 8.873 0.154 -80.157
6239.667 0.153 -80.246 0.986 8.773 0.986 8.773 0.153 -80.246
6264.625 0.151 -80.333 0.986 8.674 0.986 8.674 0.151 -80.333
6289.583 0.149 -80.421 0.986 8.575 0.986 8.575 0.149 -80.421
6314.542 0.147 -80.507 0.986 8.477 0.986 8.477 0.147 -80.507
6339.5 0.146 -80.593 0.987 8.379 0.987 8.379 0.146 -80.593
6364.458 0.144 -80.678 0.987 8.282 0.987 8.282 0.144 -80.678
6389.417 0.142 -80.762 0.987 8.185 0.987 8.185 0.142 -80.762
6414.375 0.141 -80.846 0.987 8.089 0.987 8.089 0.141 -80.846
6439.333 0.139 -80.929 0.988 7.993 0.988 7.993 0.139 -80.929
6464.292 0.137 -81.011 0.988 7.897 0.988 7.897 0.137 -81.011
6489.25 0.136 -81.093 0.988 7.802 0.988 7.802 0.136 -81.093
6514.208 0.134 -81.174 0.988 7.707 0.988 7.707 0.134 -81.174
6539.167 0.133 -81.254 0.989 7.613 0.989 7.613 0.133 -81.254
6564.125 0.131 -81.333 0.989 7.519 0.989 7.519 0.131 -81.333
6589.083 0.129 -81.412 0.989 7.426 0.989 7.426 0.129 -81.412
6614.042 0.128 -81.49 0.989 7.333 0.989 7.333 0.128 -81.49
6639 0.126 -81.568 0.989 7.241 0.989 7.241 0.126 -81.568
6663.958 0.124 -81.644 0.99 7.148 0.99 7.148 0.124 -81.644
6688.917 0.123 -81.72 0.99 7.057 0.99 7.057 0.123 -81.72
6713.875 0.121 -81.795 0.99 6.965 0.99 6.965 0.121 -81.795
6738.833 0.12 -81.869 0.99 6.874 0.99 6.874 0.12 -81.869
6763.792 0.118 -81.943 0.99 6.784 0.99 6.784 0.118 -81.943
6788.75 0.117 -82.016 0.991 6.694 0.991 6.694 0.117 -82.016
6813.708 0.115 -82.088 0.991 6.604 0.991 6.604 0.115 -82.088
6838.667 0.113 -82.159 0.991 6.515 0.991 6.515 0.113 -82.159
6863.625 0.112 -82.23 0.991 6.426 0.991 6.426 0.112 -82.23
6888.583 0.11 -82.299 0.991 6.337 0.991 6.337 0.11 -82.299
6913.542 0.109 -82.368 0.991 6.249 0.991 6.249 0.109 -82.368
6938.5 0.107 -82.436 0.992 6.161 0.992 6.161 0.107 -82.436
6963.458 0.106 -82.503 0.992 6.074 0.992 6.074 0.106 -82.503
6988.417 0.104 -82.57 0.992 5.987 0.992 5.987 0.104 -82.57
7013.375 0.103 -82.635 0.992 5.9 0.992 5.9 0.103 -82.635
7038.333 0.101 -82.699 0.992 5.813 0.992 5.813 0.101 -82.699
7063.292 0.1 -82.763 0.992 5.727 0.992 5.727 0.1 -82.763
7088.25 0.098 -82.826 0.993 5.642 0.993 5.642 0.098 -82.826
7113.208 0.097 -82.887 0.993 5.556 0.993 5.556 0.097 -82.887
7138.167 0.095 -82.948 0.993 5.471 0.993 5.471 0.095 -82.948
7163.125 0.094 -83.008 0.993 5.386 0.993 5.386 0.094 -83.008
7188.083 0.092 -83.066 0.993 5.302 0.993 5.302 0.092 -83.066
7213.042 0.091 -83.124 0.993 5.218 0.993 5.218 0.091 -83.124
7238 0.09 -83.18 0.993 5.134 0.993 5.134 0.09 -83.18
7262.958 0.088 -83.236 0.993 5.051 0.993 5.051 0.088 -83.236
7287.917 0.087 -83.29 0.994 4.968 0.994 4.968 0.087 -83.29
7312.875 0.085 -83.343 0.994 4.885 0.994 4.885 0.085 -83.343
7337.833 0.084 -83.395 0.994 4.803 0.994 4.803 0.084 -83.395
7362.792 0.082 -83.446 0.994 4.721 0.994 4.721 0.082 -83.446
7387.75 0.081 -83.495 0.994 4.639 0.994 4.639 0.081 -83.495
7412.708 0.08 -83.543 0.994 4.558 0.994 4.558 0.08 -83.543
7437.667 0.078 -83.59 0.994 4.476 0.994 4.476 0.078 -83.59
7462.625 0.077 -83.635 0.994 4.396 0.994 4.396 0.077 -83.635
7487.583 0.075 -83.679 0.995 4.315 0.995 4.315 0.075 -83.679
7512.542 0.074 -83.721 0.995 4.235 0.995 4.235 0.074 -83.721
7537.5 0.073 -83.761 0.995 4.155 0.995 4.155 0.073 -83.761
7562.458 0.071 -83.8 0.995 4.075 0.995 4.075 0.071 -83.8
7587.417 0.07 -83.837 0.995 3.996 0.995 3.996 0.07 -83.837
7612.375 0.068 -83.872 0.995 3.917 0.995 3.917 0.068 -83.872
7637.333 0.067 -83.906 0.995 3.838 0.995 3.838 0.067 -83.906
7662.292 0.066 -83.937 0.995 3.759 0.995 3.759 0.066 -83.937
7687.25 0.064 -83.966 0.995 3.681 0.995 3.681 0.064 -83.966
7712.208 0.063 -83.993 0.995 3.603 0.995 3.603 0.063 -83.993
7737.167 0.062 -84.018 0.995 3.526 0.995 3.526 0.062 -84.018
7762.125 0.06 -84.04 0.996 3.448 0.996 3.448 0.06 -84.04
7787.083 0.059 -84.059 0.996 3.371 0.996 3.371 0.059 -84.059
7812.042 0.058 -84.076 0.996 3.294 0.996 3.294 0.058 -84.076
7837 0.056 -84.09 0.996 3.218 0.996 3.218 0.056 -84.09
7861.958 0.055 -84.101 0.996 3.141 0.996 3.141 0.055 -84.101
7886.917 0.054 -84.109 0.996 3.065 0.996 3.065 0.054 -84.109
7911.875 0.052 -84.113 0.996 2.989 0.996 2.989 0.052 -84.113
7936.833 0.051 -84.113 0.996 2.914 0.996 2.914 0.051 -84.113
7961.792 0.05 -84.11 0.996 2.839 0.996 2.839 0.05 -84.11
7986.75 0.048 -84.102 0.996 2.764 0.996 2.764 0.048 -84.102
8011.708 0.047 -84.09 0.996 2.689 0.996 2.689 0.047 -84.09
8036.667 0.046 -84.072 0.996 2.614 0.996 2.614 0.046 -84.072
8061.625 0.044 -84.05 0.996 2.54 0.996 2.54 0.044 -84.05
8086.583 0.043 -84.022 0.996 2.466 0.996 2.466 0.043 -84.022
8111.542 0.042 -83.987 0.996 2.392 0.996 2.392 0.042 -83.987
8136.5 0.041 -83.946 0.997 2.319 0.997 2.319 0.041 -83.946
8161.458 0.039 -83.898 0.997 2.245 0.997 2.245 0.039 -83.898
8186.417 0.038 -83.841 0.997 2.172 0.997 2.172 0.038 -83.841
