# MHZ S MA R 50

50 0.904 -25.242 0.426 64.744 0.426 64.744 0.904 -25.242
74.958 0.816 -35.268 0.577 54.711 0.577 54.711 0.816 -35.268
99.917 0.727 -43.332 0.686 46.64 0.686 46.64 0.727 -43.332
124.875 0.646 -49.727 0.763 40.238 0.763 40.238 0.646 -49.727
149.833 0.576 -54.808 0.817 35.151 0.817 35.151 0.576 -54.808
174.792 0.516 -58.884 0.856 31.068 0.856 31.068 0.516 -58.884
199.75 0.466 -62.198 0.885 27.747 0.885 27.747 0.466 -62.198
224.708 0.423 -64.929 0.906 25.008 0.906 25.008 0.423 -64.929
249.667 0.386 -67.212 0.922 22.719 0.922 22.719 0.386 -67.212
274.625 0.355 -69.142 0.934 20.781 0.934 20.781 0.355 -69.142
299.583 0.328 -70.794 0.944 19.122 0.944 19.122 0.328 -70.794
324.542 0.304 -72.222 0.952 17.686 0.952 17.686 0.304 -72.222
349.5 0.283 -73.468 0.959 16.432 0.959 16.432 0.283 -73.468
374.458 0.264 -74.565 0.964 15.328 0.964 15.328 0.264 -74.565
399.417 0.248 -75.537 0.968 14.348 0.968 14.348 0.248 -75.537
424.375 0.233 -76.405 0.972 13.473 0.972 13.473 0.233 -76.405
449.333 0.22 -77.185 0.975 12.685 0.975 12.685 0.22 -77.185
474.292 0.207 -77.889 0.978 11.973 0.978 11.973 0.207 -77.889
499.25 0.196 -78.529 0.98 11.325 0.98 11.325 0.196 -78.529
524.208 0.186 -79.112 0.982 10.733 0.982 10.733 0.186 -79.112
549.167 0.177 -79.647 0.984 10.19 0.984 10.19 0.177 -79.647
574.125 0.168 -80.139 0.985 9.69 0.985 9.69 0.168 -80.139
599.083 0.16 -80.593 0.987 9.227 0.987 9.227 0.16 -80.593
624.042 0.153 -81.014 0.988 8.798 0.988 8.798 0.153 -81.014
649 0.146 -81.405 0.989 8.397 0.989 8.397 0.146 -81.405
673.958 0.14 -81.769 0.99 8.024 0.99 8.024 0.14 -81.769
698.917 0.134 -82.109 0.991 7.674 0.991 7.674 0.134 -82.109
723.875 0.128 -82.428 0.991 7.345 0.991 7.345 0.128 -82.428
748.833 0.122 -82.728 0.992 7.035 0.992 7.035 0.122 -82.728
773.792 0.117 -83.01 0.993 6.743 0.993 6.743 0.117 -83.01
798.75 0.113 -83.276 0.993 6.467 0.993 6.467 0.113 -83.276
823.708 0.108 -83.527 0.994 6.205 0.994 6.205 0.108 -83.527
848.667 0.104 -83.764 0.994 5.956 0.994 5.956 0.104 -83.764
873.625 0.1 -83.989 0.995 5.719 0.995 5.719 0.1 -83.989
898.583 0.096 -84.203 0.995 5.493 0.995 5.493 0.096 -84.203
923.542 0.092 -84.406 0.995 5.277 0.995 5.277 0.092 -84.406
948.5 0.088 -84.6 0.996 5.071 0.996 5.071 0.088 -84.6
973.458 0.085 -84.784 0.996 4.874 0.996 4.874 0.085 -84.784
998.417 0.082 -84.959 0.996 4.684 0.996 4.684 0.082 -84.959
1023.375 0.078 -85.127 0.996 4.502 0.996 4.502 0.078 -85.127
1048.333 0.075 -85.287 0.997 4.327 0.997 4.327 0.075 -85.287
1073.292 0.073 -85.44 0.997 4.159 0.997 4.159 0.073 -85.44
1098.25 0.07 -85.586 0.997 3.996 0.997 3.996 0.07 -85.586
1123.208 0.067 -85.726 0.997 3.839 0.997 3.839 0.067 -85.726
1148.167 0.064 -85.859 0.997 3.687 0.997 3.687 0.064 -85.859
1173.125 0.062 -85.987 0.998 3.54 0.998 3.54 0.062 -85.987
1198.083 0.059 -86.11 0.998 3.398 0.998 3.398 0.059 -86.11
1223.042 0.057 -86.227 0.998 3.26 0.998 3.26 0.057 -86.227
1248 0.055 -86.338 0.998 3.127 0.998 3.127 0.055 -86.338
1272.958 0.052 -86.445 0.998 2.997 0.998 2.997 0.052 -86.445
1297.917 0.05 -86.547 0.998 2.871 0.998 2.871 0.05 -86.547
1322.875 0.048 -86.644 0.998 2.748 0.998 2.748 0.048 -86.644
1347.833 0.046 -86.735 0.998 2.628 0.998 2.628 0.046 -86.735
1372.792 0.044 -86.822 0.999 2.512 0.999 2.512 0.044 -86.822
1397.75 0.042 -86.904 0.999 2.398 0.999 2.398 0.042 -86.904
1422.708 0.04 -86.981 0.999 2.287 0.999 2.287 0.04 -86.981
1447.667 0.038 -87.053 0.999 2.179 0.999 2.179 0.038 -87.053
1472.625 0.036 -87.12 0.999 2.073 0.999 2.073 0.036 -87.12
1497.583 0.034 -87.181 0.999 1.97 0.999 1.97 0.034 -87.181
1522.542 0.033 -87.236 0.999 1.869 0.999 1.869 0.033 -87.236
1547.5 0.031 -87.285 0.999 1.77 0.999 1.77 0.031 -87.285
1572.458 0.029 -87.327 0.999 1.673 0.999 1.673 0.029 -87.327
1597.417 0.028 -87.362 0.999 1.578 0.999 1.578 0.028 -87.362
1622.375 0.026 -87.388 0.999 1.484 0.999 1.484 0.026 -87.388
1647.333 0.024 -87.406 0.999 1.393 0.999 1.393 0.024 -87.406
1672.292 0.023 -87.413 0.999 1.303 0.999 1.303 0.023 -87.413
1697.25 0.021 -87.408 0.999 1.215 0.999 1.215 0.021 -87.408
1722.208 0.02 -87.389 0.999 1.128 0.999 1.128 0.02 -87.389
1747.167 0.018 -87.353 0.999 1.043 0.999 1.043 0.018 -87.353
1772.125 0.017 -87.297 0.999 0.96 0.999 0.96 0.017 -87.297
1797.083 0.015 -87.216 0.999 0.877 0.999 0.877 0.015 -87.216
1822.042 0.014 -87.103 0.999 0.796 0.999 0.796 0.014 -87.103
1847 0.013 -86.948 0.999 0.716 0.999 0.716 0.013 -86.948
1871.958 0.011 -86.74 0.999 0.638 0.999 0.638 0.011 -86.74
1896.917 9.79e-3 -86.455 0.999 0.56 0.999 0.56 9.79e-3 -86.455
1921.875 8.46e-3 -86.061 0.999 0.484 0.999 0.484 8.46e-3 -86.061
1946.833 7.148e-3 -85.501 0.999 0.409 0.999 0.409 7.148e-3 -85.501
1971.792 5.856e-3 -84.671 0.999 0.334 0.999 0.334 5.856e-3 -84.671
1996.75 4.583e-3 -83.352 0.999 0.261 0.999 0.261 4.583e-3 -83.352
2021.708 3.331e-3 -81.008 0.999 0.189 0.999 0.189 3.331e-3 -81.008
2046.667 2.108e-3 -75.886 0.999 0.117 0.999 0.117 2.108e-3 -75.886
2071.625 960.6e-6 -57.896 0.999 0.047 0.999 0.047 960.6e-6 -57.896
2096.583 649.4e-6 38.247 0.999 -0.023 0.999 -0.023 649.4e-6 38.247
2121.542 1.683e-3 72.277 0.999 -0.092 0.999 -0.092 1.683e-3 72.277
2146.5 2.839e-3 79.493 0.999 -0.16 0.999 -0.16 2.839e-3 79.493
2171.458 4e-3 82.449 0.999 -0.227 0.999 -0.227 4e-3 82.449
2196.417 5.154e-3 84.029 0.999 -0.294 0.999 -0.294 5.154e-3 84.029
2221.375 6.299e-3 84.998 0.999 -0.36 0.999 -0.36 6.299e-3 84.998
2246.333 7.433e-3 85.642 0.999 -0.425 0.999 -0.425 7.433e-3 85.642
2271.292 8.556e-3 86.095 0.999 -0.489 0.999 -0.489 8.556e-3 86.095
2296.25 9.669e-3 86.424 0.999 -0.553 0.999 -0.553 9.669e-3 86.424
2321.208 0.011 86.671 0.999 -0.616 0.999 -0.616 0.011 86.671
2346.167 0.012 86.858 0.999 -0.679 0.999 -0.679 0.012 86.858
2371.125 0.013 87.002 0.999 -0.741 0.999 -0.741 0.013 87.002
2396.083 0.014 87.113 0.999 -0.803 0.999 -0.803 0.014 87.113
2421.042 0.015 87.199 0.999 -0.863 0.999 -0.863 0.015 87.199
2446 0.016 87.265 0.999 -0.924 0.999 -0.924 0.016 87.265
2470.958 0.017 87.315 0.999 -0.984 0.999 -0.984 0.017 87.315
2495.917 0.018 87.353 0.999 -1.043 0.999 -1.043 0.018 87.353
2520.875 0.019 87.38 0.999 -1.102 0.999 -1.102 0.019 87.38
2545.833 0.02 87.398 0.999 -1.16 0.999 -1.16 0.02 87.398
2570.792 0.021 87.408 0.999 -1.218 0.999 -1.218 0.021 87.408
2595.75 0.022 87.413 0.999 -1.276 0.999 -1.276 0.022 87.413
2620.708 0.023 87.412 0.999 -1.333 0.999 -1.333 0.023 87.412
2645.667 0.024 87.406 0.999 -1.389 0.999 -1.389 0.024 87.406
2670.625 0.025 87.397 0.999 -1.445 0.999 -1.445 0.025 87.397
2695.583 0.026 87.384 0.999 -1.501 0.999 -1.501 0.026 87.384
2720.542 0.027 87.369 0.999 -1.557 0.999 -1.557 0.027 87.369
2745.5 0.028 87.35 0.999 -1.612 0.999 -1.612 0.028 87.35
2770.458 0.029 87.33 0.999 -1.666 0.999 -1.666 0.029 87.33
2795.417 0.03 87.307 0.999 -1.721 0.999 -1.721 0.03 87.307
2820.375 0.031 87.283 0.999 -1.775 0.999 -1.775 0.031 87.283
2845.333 0.032 87.257 0.999 -1.828 0.999 -1.828 0.032 87.257
2870.292 0.033 87.229 0.999 -1.882 0.999 -1.882 0.033 87.229
2895.25 0.034 87.201 0.999 -1.935 0.999 -1.935 0.034 87.201
2920.208 0.035 87.171 0.999 -1.987 0.999 -1.987 0.035 87.171
2945.167 0.036 87.14 0.999 -2.04 0.999 -2.04 0.036 87.14
2970.125 0.037 87.109 0.999 -2.092 0.999 -2.092 0.037 87.109
2995.083 0.037 87.076 0.999 -2.143 0.999 -2.143 0.037 87.076
3020.042 0.038 87.043 0.999 -2.195 0.999 -2.195 0.038 87.043
3045 0.039 87.009 0.999 -2.246 0.999 -2.246 0.039 87.009
3069.958 0.04 86.975 0.999 -2.297 0.999 -2.297 0.04 86.975
3094.917 0.041 86.94 0.999 -2.348 0.999 -2.348 0.041 86.94
3119.875 0.042 86.904 0.999 -2.398 0.999 -2.398 0.042 86.904
3144.833 0.043 86.869 0.999 -2.448 0.999 -2.448 0.043 86.869
3169.792 0.044 86.832 0.999 -2.498 0.999 -2.498 0.044 86.832
3194.75 0.044 86.796 0.999 -2.548 0.999 -2.548 0.044 86.796
3219.708 0.045 86.759 0.998 -2.597 0.998 -2.597 0.045 86.759
3244.667 0.046 86.722 0.998 -2.646 0.998 -2.646 0.046 86.722
3269.625 0.047 86.684 0.998 -2.695 0.998 -2.695 0.047 86.684
3294.583 0.048 86.647 0.998 -2.744 0.998 -2.744 0.048 86.647
3319.542 0.049 86.609 0.998 -2.792 0.998 -2.792 0.049 86.609
3344.5 0.05 86.571 0.998 -2.841 0.998 -2.841 0.05 86.571
3369.458 0.05 86.532 0.998 -2.889 0.998 -2.889 0.05 86.532
3394.417 0.051 86.494 0.998 -2.937 0.998 -2.937 0.051 86.494
3419.375 0.052 86.455 0.998 -2.985 0.998 -2.985 0.052 86.455
3444.333 0.053 86.416 0.998 -3.032 0.998 -3.032 0.053 86.416
3469.292 0.054 86.378 0.998 -3.079 0.998 -3.079 0.054 86.378
3494.25 0.055 86.339 0.998 -3.127 0.998 -3.127 0.055 86.339
3519.208 0.055 86.3 0.998 -3.173 0.998 -3.173 0.055 86.3
3544.167 0.056 86.261 0.998 -3.22 0.998 -3.22 0.056 86.261
3569.125 0.057 86.221 0.998 -3.267 0.998 -3.267 0.057 86.221
3594.083 0.058 86.182 0.998 -3.313 0.998 -3.313 0.058 86.182
3619.042 0.059 86.143 0.998 -3.36 0.998 -3.36 0.059 86.143
3644 0.059 86.103 0.998 -3.406 0.998 -3.406 0.059 86.103
3668.958 0.06 86.064 0.998 -3.452 0.998 -3.452 0.06 86.064
3693.917 0.061 86.025 0.998 -3.497 0.998 -3.497 0.061 86.025
3718.875 0.062 85.985 0.998 -3.543 0.998 -3.543 0.062 85.985
3743.833 0.063 85.946 0.998 -3.589 0.998 -3.589 0.063 85.946
3768.792 0.063 85.906 0.997 -3.634 0.997 -3.634 0.063 85.906
3793.75 0.064 85.867 0.997 -3.679 0.997 -3.679 0.064 85.867
3818.708 0.065 85.827 0.997 -3.724 0.997 -3.724 0.065 85.827
3843.667 0.066 85.787 0.997 -3.769 0.997 -3.769 0.066 85.787
3868.625 0.067 85.748 0.997 -3.814 0.997 -3.814 0.067 85.748
3893.583 0.067 85.708 0.997 -3.859 0.997 -3.859 0.067 85.708
3918.542 0.068 85.669 0.997 -3.903 0.997 -3.903 0.068 85.669
3943.5 0.069 85.629 0.997 -3.947 0.997 -3.947 0.069 85.629
3968.458 0.07 85.59 0.997 -3.992 0.997 -3.992 0.07 85.59
3993.417 0.07 85.55 0.997 -4.036 0.997 -4.036 0.07 85.55
4018.375 0.071 85.511 0.997 -4.08 0.997 -4.08 0.071 85.511
4043.333 0.072 85.471 0.997 -4.124 0.997 -4.124 0.072 85.471
4068.292 0.073 85.432 0.997 -4.167 0.997 -4.167 0.073 85.432
4093.25 0.073 85.392 0.997 -4.211 0.997 -4.211 0.073 85.392
4118.208 0.074 85.353 0.997 -4.255 0.997 -4.255 0.074 85.353
4143.167 0.075 85.313 0.997 -4.298 0.997 -4.298 0.075 85.313
4168.125 0.076 85.274 0.997 -4.341 0.997 -4.341 0.076 85.274
4193.083 0.076 85.234 0.997 -4.385 0.997 -4.385 0.076 85.234
4218.042 0.077 85.195 0.997 -4.428 0.997 -4.428 0.077 85.195
4243 0.078 85.156 0.996 -4.471 0.996 -4.471 0.078 85.156
4267.958 0.079 85.116 0.996 -4.514 0.996 -4.514 0.079 85.116
4292.917 0.079 85.077 0.996 -4.556 0.996 -4.556 0.079 85.077
4317.875 0.08 85.038 0.996 -4.599 0.996 -4.599 0.08 85.038
4342.833 0.081 84.999 0.996 -4.642 0.996 -4.642 0.081 84.999
4367.792 0.082 84.959 0.996 -4.684 0.996 -4.684 0.082 84.959
4392.75 0.082 84.92 0.996 -4.726 0.996 -4.726 0.082 84.92
4417.708 0.083 84.881 0.996 -4.769 0.996 -4.769 0.083 84.881
4442.667 0.084 84.842 0.996 -4.811 0.996 -4.811 0.084 84.842
4467.625 0.085 84.803 0.996 -4.853 0.996 -4.853 0.085 84.803
4492.583 0.085 84.764 0.996 -4.895 0.996 -4.895 0.085 84.764
4517.542 0.086 84.725 0.996 -4.937 0.996 -4.937 0.086 84.725
4542.5 0.087 84.686 0.996 -4.979 0.996 -4.979 0.087 84.686
4567.458 0.088 84.647 0.996 -5.021 0.996 -5.021 0.088 84.647
4592.417 0.088 84.608 0.996 -5.062 0.996 -5.062 0.088 84.608
4617.375 0.089 84.569 0.996 -5.104 0.996 -5.104 0.089 84.569
4642.333 0.09 84.53 0.995 -5.145 0.995 -5.145 0.09 84.53
4667.292 0.09 84.491 0.995 -5.187 0.995 -5.187 0.09 84.491
4692.25 0.091 84.453 0.995 -5.228 0.995 -5.228 0.091 84.453
4717.208 0.092 84.414 0.995 -5.27 0.995 -5.27 0.092 84.414
4742.167 0.093 84.375 0.995 -5.311 0.995 -5.311 0.093 84.375
4767.125 0.093 84.336 0.995 -5.352 0.995 -5.352 0.093 84.336
4792.083 0.094 84.298 0.995 -5.393 0.995 -5.393 0.094 84.298
4817.042 0.095 84.259 0.995 -5.434 0.995 -5.434 0.095 84.259
4842 0.095 84.22 0.995 -5.475 0.995 -5.475 0.095 84.22
4866.958 0.096 84.182 0.995 -5.516 0.995 -5.516 0.096 84.182
4891.917 0.097 84.143 0.995 -5.556 0.995 -5.556 0.097 84.143
4916.875 0.098 84.105 0.995 -5.597 0.995 -5.597 0.098 84.105
4941.833 0.098 84.066 0.995 -5.638 0.995 -5.638 0.098 84.066
4966.792 0.099 84.028 0.995 -5.678 0.995 -5.678 0.099 84.028
4991.75 0.1 83.99 0.995 -5.719 0.995 -5.719 0.1 83.99
5016.708 0.1 83.951 0.994 -5.759 0.994 -5.759 0.1 83.951
5041.667 0.101 83.913 0.994 -5.799 0.994 -5.799 0.101 83.913
5066.625 0.102 83.875 0.994 -5.84 0.994 -5.84 0.102 83.875
5091.583 0.102 83.836 0.994 -5.88 0.994 -5.88 0.102 83.836
5116.542 0.103 83.798 0.994 -5.92 0.994 -5.92 0.103 83.798
5141.5 0.104 83.76 0.994 -5.96 0.994 -5.96 0.104 83.76
5166.458 0.105 83.722 0.994 -6 0.994 -6 0.105 83.722
5191.417 0.105 83.684 0.994 -6.04 0.994 -6.04 0.105 83.684
5216.375 0.106 83.646 0.994 -6.08 0.994 -6.08 0.106 83.646
5241.333 0.107 83.607 0.994 -6.12 0.994 -6.12 0.107 83.607
5266.292 0.107 83.569 0.994 -6.16 0.994 -6.16 0.107 83.569
5291.25 0.108 83.531 0.994 -6.2 0.994 -6.2 0.108 83.531
5316.208 0.109 83.493 0.994 -6.239 0.994 -6.239 0.109 83.493
5341.167 0.109 83.455 0.993 -6.279 0.993 -6.279 0.109 83.455
5366.125 0.11 83.418 0.993 -6.319 0.993 -6.319 0.11 83.418
5391.083 0.111 83.38 0.993 -6.358 0.993 -6.358 0.111 83.38
5416.042 0.111 83.342 0.993 -6.398 0.993 -6.398 0.111 83.342
5441 0.112 83.304 0.993 -6.437 0.993 -6.437 0.112 83.304
5465.958 0.113 83.266 0.993 -6.476 0.993 -6.476 0.113 83.266
5490.917 0.113 83.229 0.993 -6.516 0.993 -6.516 0.113 83.229
5515.875 0.114 83.191 0.993 -6.555 0.993 -6.555 0.114 83.191
5540.833 0.115 83.153 0.993 -6.594 0.993 -6.594 0.115 83.153
5565.792 0.116 83.115 0.993 -6.633 0.993 -6.633 0.116 83.115
5590.75 0.116 83.078 0.993 -6.672 0.993 -6.672 0.116 83.078
5615.708 0.117 83.04 0.993 -6.712 0.993 -6.712 0.117 83.04
5640.667 0.118 83.003 0.993 -6.751 0.993 -6.751 0.118 83.003
5665.625 0.118 82.965 0.992 -6.79 0.992 -6.79 0.118 82.965
5690.583 0.119 82.928 0.992 -6.828 0.992 -6.828 0.119 82.928
5715.542 0.12 82.89 0.992 -6.867 0.992 -6.867 0.12 82.89
5740.5 0.12 82.853 0.992 -6.906 0.992 -6.906 0.12 82.853
5765.458 0.121 82.815 0.992 -6.945 0.992 -6.945 0.121 82.815
5790.417 0.122 82.778 0.992 -6.984 0.992 -6.984 0.122 82.778
5815.375 0.122 82.74 0.992 -7.022 0.992 -7.022 0.122 82.74
5840.333 0.123 82.703 0.992 -7.061 0.992 -7.061 0.123 82.703
5865.292 0.124 82.666 0.992 -7.1 0.992 -7.1 0.124 82.666
5890.25 0.124 82.629 0.992 -7.138 0.992 -7.138 0.124 82.629
5915.208 0.125 82.591 0.992 -7.177 0.992 -7.177 0.125 82.591
5940.167 0.126 82.554 0.992 -7.215 0.992 -7.215 0.126 82.554
5965.125 0.126 82.517 0.991 -7.254 0.991 -7.254 0.126 82.517
5990.083 0.127 82.48 0.991 -7.292 0.991 -7.292 0.127 82.48
6015.042 0.128 82.443 0.991 -7.33 0.991 -7.33 0.128 82.443
6040 0.128 82.405 0.991 -7.369 0.991 -7.369 0.128 82.405
6064.958 0.129 82.368 0.991 -7.407 0.991 -7.407 0.129 82.368
6089.917 0.13 82.331 0.991 -7.445 0.991 -7.445 0.13 82.331
6114.875 0.13 82.294 0.991 -7.483 0.991 -7.483 0.13 82.294
6139.833 0.131 82.257 0.991 -7.522 0.991 -7.522 0.131 82.257
6164.792 0.132 82.22 0.991 -7.56 0.991 -7.56 0.132 82.22
6189.75 0.132 82.183 0.991 -7.598 0.991 -7.598 0.132 82.183
6214.708 0.133 82.146 0.991 -7.636 0.991 -7.636 0.133 82.146
6239.667 0.134 82.109 0.991 -7.674 0.991 -7.674 0.134 82.109
6264.625 0.134 82.073 0.99 -7.712 0.99 -7.712 0.134 82.073
6289.583 0.135 82.036 0.99 -7.75 0.99 -7.75 0.135 82.036
6314.542 0.136 81.999 0.99 -7.788 0.99 -7.788 0.136 81.999
6339.5 0.136 81.962 0.99 -7.825 0.99 -7.825 0.136 81.962
6364.458 0.137 81.925 0.99 -7.863 0.99 -7.863 0.137 81.925
6389.417 0.137 81.889 0.99 -7.901 0.99 -7.901 0.137 81.889
6414.375 0.138 81.852 0.99 -7.939 0.99 -7.939 0.138 81.852
6439.333 0.139 81.815 0.99 -7.976 0.99 -7.976 0.139 81.815
6464.292 0.139 81.778 0.99 -8.014 0.99 -8.014 0.139 81.778
6489.25 0.14 81.742 0.99 -8.052 0.99 -8.052 0.14 81.742
6514.208 0.141 81.705 0.99 -8.089 0.99 -8.089 0.141 81.705
6539.167 0.141 81.669 0.989 -8.127 0.989 -8.127 0.141 81.669
6564.125 0.142 81.632 0.989 -8.164 0.989 -8.164 0.142 81.632
6589.083 0.143 81.595 0.989 -8.202 0.989 -8.202 0.143 81.595
6614.042 0.143 81.559 0.989 -8.239 0.989 -8.239 0.143 81.559
6639 0.144 81.522 0.989 -8.277 0.989 -8.277 0.144 81.522
6663.958 0.145 81.486 0.989 -8.314 0.989 -8.314 0.145 81.486
6688.917 0.145 81.449 0.989 -8.352 0.989 -8.352 0.145 81.449
6713.875 0.146 81.413 0.989 -8.389 0.989 -8.389 0.146 81.413
6738.833 0.147 81.376 0.989 -8.426 0.989 -8.426 0.147 81.376
6763.792 0.147 81.34 0.989 -8.464 0.989 -8.464 0.147 81.34
6788.75 0.148 81.304 0.989 -8.501 0.989 -8.501 0.148 81.304
6813.708 0.148 81.267 0.988 -8.538 0.988 -8.538 0.148 81.267
6838.667 0.149 81.231 0.988 -8.575 0.988 -8.575 0.149 81.231
6863.625 0.15 81.195 0.988 -8.612 0.988 -8.612 0.15 81.195
6888.583 0.15 81.158 0.988 -8.65 0.988 -8.65 0.15 81.158
6913.542 0.151 81.122 0.988 -8.687 0.988 -8.687 0.151 81.122
6938.5 0.152 81.086 0.988 -8.724 0.988 -8.724 0.152 81.086
6963.458 0.152 81.05 0.988 -8.761 0.988 -8.761 0.152 81.05
6988.417 0.153 81.014 0.988 -8.798 0.988 -8.798 0.153 81.014
7013.375 0.154 80.977 0.988 -8.835 0.988 -8.835 0.154 80.977
7038.333 0.154 80.941 0.988 -8.872 0.988 -8.872 0.154 80.941
7063.292 0.155 80.905 0.987 -8.909 0.987 -8.909 0.155 80.905
7088.25 0.155 80.869 0.987 -8.945 0.987 -8.945 0.155 80.869
7113.208 0.156 80.833 0.987 -8.982 0.987 -8.982 0.156 80.833
7138.167 0.157 80.797 0.987 -9.019 0.987 -9.019 0.157 80.797
7163.125 0.157 80.761 0.987 -9.056 0.987 -9.056 0.157 80.761
7188.083 0.158 80.725 0.987 -9.093 0.987 -9.093 0.158 80.725
7213.042 0.159 80.689 0.987 -9.13 0.987 -9.13 0.159 80.689
7238 0.159 80.653 0.987 -9.166 0.987 -9.166 0.159 80.653
7262.958 0.16 80.617 0.987 -9.203 0.987 -9.203 0.16 80.617
7287.917 0.161 80.581 0.987 -9.24 0.987 -9.24 0.161 80.581
7312.875 0.161 80.545 0.986 -9.276 0.986 -9.276 0.161 80.545
7337.833 0.162 80.509 0.986 -9.313 0.986 -9.313 0.162 80.509
7362.792 0.162 80.473 0.986 -9.349 0.986 -9.349 0.162 80.473
7387.75 0.163 80.437 0.986 -9.386 0.986 -9.386 0.163 80.437
7412.708 0.164 80.401 0.986 -9.423 0.986 -9.423 0.164 80.401
7437.667 0.164 80.366 0.986 -9.459 0.986 -9.459 0.164 80.366
7462.625 0.165 80.33 0.986 -9.496 0.986 -9.496 0.165 80.33
7487.583 0.166 80.294 0.986 -9.532 0.986 -9.532 0.166 80.294
7512.542 0.166 80.258 0.986 -9.568 0.986 -9.568 0.166 80.258
7537.5 0.167 80.222 0.985 -9.605 0.985 -9.605 0.167 80.222
7562.458 0.167 80.187 0.985 -9.641 0.985 -9.641 0.167 80.187
7587.417 0.168 80.151 0.985 -9.678 0.985 -9.678 0.168 80.151
7612.375 0.169 80.115 0.985 -9.714 0.985 -9.714 0.169 80.115
7637.333 0.169 80.08 0.985 -9.75 0.985 -9.75 0.169 80.08
7662.292 0.17 80.044 0.985 -9.787 0.985 -9.787 0.17 80.044
7687.25 0.171 80.008 0.985 -9.823 0.985 -9.823 0.171 80.008
7712.208 0.171 79.973 0.985 -9.859 0.985 -9.859 0.171 79.973
7737.167 0.172 79.937 0.985 -9.895 0.985 -9.895 0.172 79.937
7762.125 0.172 79.902 0.985 -9.932 0.985 -9.932 0.172 79.902
7787.083 0.173 79.866 0.984 -9.968 0.984 -9.968 0.173 79.866
7812.042 0.174 79.831 0.984 -10.004 0.984 -10.004 0.174 79.831
7837 0.174 79.795 0.984 -10.04 0.984 -10.04 0.174 79.795
7861.958 0.175 79.76 0.984 -10.076 0.984 -10.076 0.175 79.76
7886.917 0.176 79.724 0.984 -10.112 0.984 -10.112 0.176 79.724
7911.875 0.176 79.689 0.984 -10.148 0.984 -10.148 0.176 79.689
7936.833 0.177 79.653 0.984 -10.184 0.984 -10.184 0.177 79.653
7961.792 0.177 79.618 0.984 -10.22 0.984 -10.22 0.177 79.618
7986.75 0.178 79.582 0.984 -10.256 0.984 -10.256 0.178 79.582
8011.708 0.179 79.547 0.983 -10.292 0.983 -10.292 0.179 79.547
8036.667 0.179 79.512 0.983 -10.328 0.983 -10.328 0.179 79.512
8061.625 0.18 79.476 0.983 -10.364 0.983 -10.364 0.18 79.476
8086.583 0.181 79.441 0.983 -10.4 0.983 -10.4 0.181 79.441
8111.542 0.181 79.406 0.983 -10.436 0.983 -10.436 0.181 79.406
8136.5 0.182 79.37 0.983 -10.472 0.983 -10.472 0.182 79.37
8161.458 0.182 79.335 0.983 -10.507 0.983 -10.507 0.182 79.335
8186.417 0.183 79.3 0.983 -10.543 0.983 -10.543 0.183 79.3
8211.375 0.184 79.264 0.983 -10.579 0.983 -10.579 0.184 79.264
8236.333 0.184 79.229 0.982 -10.615 0.982 -10.615 0.184 79.229
8261.292 0.185 79.194 0.982 -10.651 0.982 -10.651 0.185 79.194
8286.25 0.185 79.159 0.982 -10.686 0.982 -10.686 0.185 79.159
