# MHZ S MA R 50

50 0.991 -7.518 0.131 82.479 0.131 82.479 0.991 -7.518
74.958 0.981 -11.193 0.194 78.801 0.194 78.801 0.981 -11.193
99.917 0.967 -14.781 0.255 75.212 0.255 75.212 0.967 -14.781
124.875 0.95 -18.257 0.313 71.734 0.313 71.734 0.95 -18.257
149.833 0.93 -21.604 0.368 68.386 0.368 68.386 0.93 -21.604
174.792 0.908 -24.807 0.42 65.18 0.42 65.18 0.908 -24.807
199.75 0.884 -27.859 0.467 62.127 0.467 62.127 0.884 -27.859
224.708 0.859 -30.754 0.511 59.23 0.511 59.23 0.859 -30.754
249.667 0.834 -33.491 0.552 56.492 0.552 56.492 0.834 -33.491
274.625 0.808 -36.071 0.589 53.909 0.589 53.909 0.808 -36.071
299.583 0.782 -38.499 0.623 51.479 0.623 51.479 0.782 -38.499
324.542 0.757 -40.781 0.653 49.196 0.653 49.196 0.757 -40.781
349.5 0.732 -42.923 0.681 47.052 0.681 47.052 0.732 -42.923
374.458 0.708 -44.932 0.706 45.041 0.706 45.041 0.708 -44.932
399.417 0.684 -46.818 0.729 43.154 0.729 43.154 0.684 -46.818
424.375 0.661 -48.586 0.75 41.383 0.75 41.383 0.661 -48.586
449.333 0.639 -50.246 0.769 39.722 0.769 39.722 0.639 -50.246
474.292 0.618 -51.805 0.786 38.161 0.786 38.161 0.618 -51.805
499.25 0.598 -53.269 0.801 36.694 0.801 36.694 0.598 -53.269
524.208 0.578 -54.647 0.816 35.315 0.816 35.315 0.578 -54.647
549.167 0.559 -55.944 0.828 34.016 0.828 34.016 0.559 -55.944
574.125 0.542 -57.166 0.84 32.793 0.84 32.793 0.542 -57.166
599.083 0.525 -58.318 0.851 31.638 0.851 31.638 0.525 -58.318
624.042 0.508 -59.407 0.861 30.547 0.861 30.547 0.508 -59.407
649 0.493 -60.436 0.87 29.516 0.87 29.516 0.493 -60.436
673.958 0.478 -61.41 0.878 28.54 0.878 28.54 0.478 -61.41
698.917 0.464 -62.333 0.886 27.615 0.886 27.615 0.464 -62.333
723.875 0.45 -63.209 0.893 26.737 0.893 26.737 0.45 -63.209
748.833 0.437 -64.041 0.899 25.904 0.899 25.904 0.437 -64.041
773.792 0.424 -64.831 0.905 25.111 0.905 25.111 0.424 -64.831
798.75 0.412 -65.584 0.911 24.356 0.911 24.356 0.412 -65.584
823.708 0.401 -66.301 0.916 23.637 0.916 23.637 0.401 -66.301
848.667 0.39 -66.985 0.92 22.951 0.92 22.951 0.39 -66.985
873.625 0.379 -67.638 0.925 22.296 0.925 22.296 0.379 -67.638
898.583 0.369 -68.263 0.929 21.669 0.929 21.669 0.369 -68.263
923.542 0.36 -68.86 0.933 21.07 0.933 21.07 0.36 -68.86
948.5 0.35 -69.432 0.936 20.496 0.936 20.496 0.35 -69.432
973.458 0.341 -69.98 0.94 19.946 0.94 19.946 0.341 -69.98
998.417 0.332 -70.506 0.943 19.417 0.943 19.417 0.332 -70.506
1023.375 0.324 -71.011 0.946 18.91 0.946 18.91 0.324 -71.011
1048.333 0.316 -71.496 0.948 18.422 0.948 18.422 0.316 -71.496
1073.292 0.308 -71.963 0.951 17.953 0.951 17.953 0.308 -71.963
1098.25 0.301 -72.413 0.953 17.501 0.953 17.501 0.301 -72.413
1123.208 0.293 -72.846 0.956 17.066 0.956 17.066 0.293 -72.846
1148.167 0.286 -73.264 0.958 16.646 0.958 16.646 0.286 -73.264
1173.125 0.28 -73.666 0.96 16.241 0.96 16.241 0.28 -73.666
1198.083 0.273 -74.055 0.962 15.849 0.962 15.849 0.273 -74.055
1223.042 0.267 -74.431 0.963 15.471 0.963 15.471 0.267 -74.431
1248 0.261 -74.795 0.965 15.105 0.965 15.105 0.261 -74.795
1272.958 0.255 -75.147 0.967 14.751 0.967 14.751 0.255 -75.147
1297.917 0.249 -75.487 0.968 14.408 0.968 14.408 0.249 -75.487
1322.875 0.243 -75.817 0.97 14.075 0.97 14.075 0.243 -75.817
1347.833 0.238 -76.137 0.971 13.753 0.971 13.753 0.238 -76.137
1372.792 0.232 -76.447 0.972 13.44 0.972 13.44 0.232 -76.447
1397.75 0.227 -76.748 0.973 13.136 0.973 13.136 0.227 -76.748
1422.708 0.222 -77.041 0.975 12.841 0.975 12.841 0.222 -77.041
1447.667 0.217 -77.325 0.976 12.554 0.976 12.554 0.217 -77.325
1472.625 0.213 -77.601 0.977 12.275 0.977 12.275 0.213 -77.601
1497.583 0.208 -77.87 0.978 12.003 0.978 12.003 0.208 -77.87
1522.542 0.203 -78.131 0.979 11.739 0.979 11.739 0.203 -78.131
1547.5 0.199 -78.385 0.98 11.482 0.98 11.482 0.199 -78.385
1572.458 0.195 -78.633 0.98 11.231 0.98 11.231 0.195 -78.633
1597.417 0.191 -78.875 0.981 10.986 0.981 10.986 0.191 -78.875
1622.375 0.186 -79.11 0.982 10.747 0.982 10.747 0.186 -79.11
1647.333 0.182 -79.34 0.983 10.514 0.983 10.514 0.182 -79.34
1672.292 0.179 -79.564 0.983 10.287 0.983 10.287 0.179 -79.564
1697.25 0.175 -79.783 0.984 10.065 0.984 10.065 0.175 -79.783
1722.208 0.171 -79.997 0.985 9.848 0.985 9.848 0.171 -79.997
1747.167 0.167 -80.205 0.985 9.635 0.985 9.635 0.167 -80.205
1772.125 0.164 -80.409 0.986 9.428 0.986 9.428 0.164 -80.409
1797.083 0.16 -80.609 0.987 9.225 0.987 9.225 0.16 -80.609
1822.042 0.157 -80.804 0.987 9.026 0.987 9.026 0.157 -80.804
1847 0.154 -80.995 0.988 8.831 0.988 8.831 0.154 -80.995
1871.958 0.15 -81.181 0.988 8.641 0.988 8.641 0.15 -81.181
1896.917 0.147 -81.364 0.989 8.454 0.989 8.454 0.147 -81.364
1921.875 0.144 -81.543 0.989 8.271 0.989 8.271 0.144 -81.543
1946.833 0.141 -81.719 0.99 8.091 0.99 8.091 0.141 -81.719
1971.792 0.138 -81.89 0.99 7.915 0.99 7.915 0.138 -81.89
1996.75 0.135 -82.059 0.99 7.743 0.99 7.743 0.135 -82.059
2021.708 0.132 -82.224 0.991 7.573 0.991 7.573 0.132 -82.224
2046.667 0.129 -82.386 0.991 7.406 0.991 7.406 0.129 -82.386
2071.625 0.126 -82.545 0.992 7.243 0.992 7.243 0.126 -82.545
2096.583 0.123 -82.7 0.992 7.082 0.992 7.082 0.123 -82.7
2121.542 0.121 -82.853 0.992 6.924 0.992 6.924 0.121 -82.853
2146.5 0.118 -83.003 0.993 6.769 0.993 6.769 0.118 -83.003
2171.458 0.115 -83.15 0.993 6.617 0.993 6.617 0.115 -83.15
2196.417 0.113 -83.295 0.993 6.467 0.993 6.467 0.113 -83.295
2221.375 0.11 -83.437 0.993 6.319 0.993 6.319 0.11 -83.437
2246.333 0.108 -83.577 0.994 6.174 0.994 6.174 0.108 -83.577
2271.292 0.105 -83.714 0.994 6.031 0.994 6.031 0.105 -83.714
2296.25 0.103 -83.848 0.994 5.89 0.994 5.89 0.103 -83.848
2321.208 0.1 -83.981 0.994 5.751 0.994 5.751 0.1 -83.981
2346.167 0.098 -84.111 0.995 5.615 0.995 5.615 0.098 -84.111
2371.125 0.096 -84.238 0.995 5.48 0.995 5.48 0.096 -84.238
2396.083 0.093 -84.364 0.995 5.347 0.995 5.347 0.093 -84.364
2421.042 0.091 -84.487 0.995 5.217 0.995 5.217 0.091 -84.487
2446 0.089 -84.609 0.996 5.088 0.996 5.088 0.089 -84.609
2470.958 0.086 -84.728 0.996 4.961 0.996 4.961 0.086 -84.728
2495.917 0.084 -84.845 0.996 4.835 0.996 4.835 0.084 -84.845
2520.875 0.082 -84.961 0.996 4.712 0.996 4.712 0.082 -84.961
2545.833 0.08 -85.074 0.996 4.59 0.996 4.59 0.08 -85.074
2570.792 0.078 -85.185 0.996 4.469 0.996 4.469 0.078 -85.185
2595.75 0.076 -85.295 0.997 4.35 0.997 4.35 0.076 -85.295
2620.708 0.074 -85.402 0.997 4.233 0.997 4.233 0.074 -85.402
2645.667 0.072 -85.508 0.997 4.117 0.997 4.117 0.072 -85.508
2670.625 0.07 -85.612 0.997 4.002 0.997 4.002 0.07 -85.612
2695.583 0.068 -85.714 0.997 3.889 0.997 3.889 0.068 -85.714
2720.542 0.066 -85.814 0.997 3.777 0.997 3.777 0.066 -85.814
2745.5 0.064 -85.912 0.997 3.667 0.997 3.667 0.064 -85.912
2770.458 0.062 -86.008 0.998 3.557 0.998 3.557 0.062 -86.008
2795.417 0.06 -86.102 0.998 3.449 0.998 3.449 0.06 -86.102
2820.375 0.058 -86.195 0.998 3.343 0.998 3.343 0.058 -86.195
2845.333 0.056 -86.285 0.998 3.237 0.998 3.237 0.056 -86.285
2870.292 0.055 -86.374 0.998 3.132 0.998 3.132 0.055 -86.374
2895.25 0.053 -86.46 0.998 3.029 0.998 3.029 0.053 -86.46
2920.208 0.051 -86.545 0.998 2.927 0.998 2.927 0.051 -86.545
2945.167 0.049 -86.627 0.998 2.826 0.998 2.826 0.049 -86.627
2970.125 0.048 -86.707 0.998 2.725 0.998 2.725 0.048 -86.707
2995.083 0.046 -86.785 0.998 2.626 0.998 2.626 0.046 -86.785
3020.042 0.044 -86.86 0.999 2.528 0.999 2.528 0.044 -86.86
3045 0.042 -86.933 0.999 2.431 0.999 2.431 0.042 -86.933
3069.958 0.041 -87.003 0.999 2.335 0.999 2.335 0.041 -87.003
3094.917 0.039 -87.07 0.999 2.239 0.999 2.239 0.039 -87.07
3119.875 0.037 -87.134 0.999 2.145 0.999 2.145 0.037 -87.134
3144.833 0.036 -87.194 0.999 2.051 0.999 2.051 0.036 -87.194
3169.792 0.034 -87.251 0.999 1.959 0.999 1.959 0.034 -87.251
3194.75 0.033 -87.304 0.999 1.867 0.999 1.867 0.033 -87.304
3219.708 0.031 -87.353 0.999 1.776 0.999 1.776 0.031 -87.353
3244.667 0.029 -87.397 0.999 1.686 0.999 1.686 0.029 -87.397
3269.625 0.028 -87.435 0.999 1.596 0.999 1.596 0.028 -87.435
3294.583 0.026 -87.466 0.999 1.507 0.999 1.507 0.026 -87.466
3319.542 0.025 -87.49 0.999 1.419 0.999 1.419 0.025 -87.49
3344.5 0.023 -87.506 0.999 1.332 0.999 1.332 0.023 -87.506
3369.458 0.022 -87.512 0.999 1.246 0.999 1.246 0.022 -87.512
3394.417 0.02 -87.506 0.999 1.16 0.999 1.16 0.02 -87.506
3419.375 0.019 -87.486 0.999 1.075 0.999 1.075 0.019 -87.486
3444.333 0.017 -87.447 0.999 0.99 0.999 0.99 0.017 -87.447
3469.292 0.016 -87.387 0.999 0.907 0.999 0.907 0.016 -87.387
3494.25 0.014 -87.298 0.999 0.823 0.999 0.823 0.014 -87.298
3519.208 0.013 -87.171 0.999 0.741 0.999 0.741 0.013 -87.171
3544.167 0.012 -86.994 0.999 0.659 0.999 0.659 0.012 -86.994
3569.125 0.01 -86.746 0.999 0.578 0.999 0.578 0.01 -86.746
3594.083 8.689e-3 -86.393 0.999 0.497 0.999 0.497 8.689e-3 -86.393
3619.042 7.293e-3 -85.877 1 0.417 1 0.417 7.293e-3 -85.877
3644 5.909e-3 -85.086 1 0.337 1 0.337 5.909e-3 -85.086
3668.958 4.536e-3 -83.775 1 0.258 1 0.258 4.536e-3 -83.775
3693.917 3.177e-3 -81.286 1 0.18 1 0.18 3.177e-3 -81.286
3718.875 1.844e-3 -75.081 1 0.102 1 0.102 1.844e-3 -75.081
3743.833 639.4e-6 -42.464 1 0.025 1 0.025 639.4e-6 -42.464
3768.792 1.025e-3 62.551 1 -0.052 1 -0.052 1.025e-3 62.551
3793.75 2.291e-3 77.998 1 -0.128 1 -0.128 2.291e-3 77.998
3818.708 3.598e-3 82.265 1 -0.204 1 -0.204 3.598e-3 82.265
3843.667 4.905e-3 84.204 1 -0.28 1 -0.28 4.905e-3 84.204
3868.625 6.207e-3 85.289 1 -0.355 1 -0.355 6.207e-3 85.289
3893.583 7.503e-3 85.968 1 -0.429 1 -0.429 7.503e-3 85.968
3918.542 8.792e-3 86.423 0.999 -0.503 0.999 -0.503 8.792e-3 86.423
3943.5 0.01 86.741 0.999 -0.577 0.999 -0.577 0.01 86.741
3968.458 0.011 86.969 0.999 -0.65 0.999 -0.65 0.011 86.969
3993.417 0.013 87.136 0.999 -0.722 0.999 -0.722 0.013 87.136
4018.375 0.014 87.258 0.999 -0.794 0.999 -0.794 0.014 87.258
4043.333 0.015 87.348 0.999 -0.866 0.999 -0.866 0.015 87.348
4068.292 0.016 87.412 0.999 -0.938 0.999 -0.938 0.016 87.412
4093.25 0.018 87.457 0.999 -1.009 0.999 -1.009 0.018 87.457
4118.208 0.019 87.487 0.999 -1.079 0.999 -1.079 0.019 87.487
4143.167 0.02 87.504 0.999 -1.149 0.999 -1.149 0.02 87.504
4168.125 0.021 87.512 0.999 -1.219 0.999 -1.219 0.021 87.512
4193.083 0.022 87.511 0.999 -1.289 0.999 -1.289 0.022 87.511
4218.042 0.024 87.503 0.999 -1.358 0.999 -1.358 0.024 87.503
4243 0.025 87.489 0.999 -1.426 0.999 -1.426 0.025 87.489
4267.958 0.026 87.47 0.999 -1.495 0.999 -1.495 0.026 87.47
4292.917 0.027 87.447 0.999 -1.563 0.999 -1.563 0.027 87.447
4317.875 0.028 87.421 0.999 -1.63 0.999 -1.63 0.028 87.421
4342.833 0.03 87.391 0.999 -1.698 0.999 -1.698 0.03 87.391
4367.792 0.031 87.359 0.999 -1.765 0.999 -1.765 0.031 87.359
4392.75 0.032 87.324 0.999 -1.831 0.999 -1.831 0.032 87.324
4417.708 0.033 87.287 0.999 -1.898 0.999 -1.898 0.033 87.287
4442.667 0.034 87.248 0.999 -1.964 0.999 -1.964 0.034 87.248
4467.625 0.035 87.208 0.999 -2.029 0.999 -2.029 0.035 87.208
4492.583 0.037 87.167 0.999 -2.095 0.999 -2.095 0.037 87.167
4517.542 0.038 87.124 0.999 -2.16 0.999 -2.16 0.038 87.124
4542.5 0.039 87.08 0.999 -2.225 0.999 -2.225 0.039 87.08
4567.458 0.04 87.035 0.999 -2.289 0.999 -2.289 0.04 87.035
4592.417 0.041 86.989 0.999 -2.353 0.999 -2.353 0.041 86.989
4617.375 0.042 86.943 0.999 -2.417 0.999 -2.417 0.042 86.943
4642.333 0.043 86.896 0.999 -2.481 0.999 -2.481 0.043 86.896
4667.292 0.044 86.848 0.999 -2.544 0.999 -2.544 0.044 86.848
4692.25 0.045 86.8 0.998 -2.607 0.998 -2.607 0.045 86.8
4717.208 0.047 86.751 0.998 -2.67 0.998 -2.67 0.047 86.751
4742.167 0.048 86.701 0.998 -2.733 0.998 -2.733 0.048 86.701
4767.125 0.049 86.652 0.998 -2.795 0.998 -2.795 0.049 86.652
4792.083 0.05 86.602 0.998 -2.857 0.998 -2.857 0.05 86.602
4817.042 0.051 86.551 0.998 -2.919 0.998 -2.919 0.051 86.551
4842 0.052 86.501 0.998 -2.98 0.998 -2.98 0.052 86.501
4866.958 0.053 86.45 0.998 -3.042 0.998 -3.042 0.053 86.45
4891.917 0.054 86.399 0.998 -3.103 0.998 -3.103 0.054 86.399
4916.875 0.055 86.348 0.998 -3.163 0.998 -3.163 0.055 86.348
4941.833 0.056 86.296 0.998 -3.224 0.998 -3.224 0.056 86.296
4966.792 0.057 86.245 0.998 -3.284 0.998 -3.284 0.057 86.245
4991.75 0.058 86.193 0.998 -3.344 0.998 -3.344 0.058 86.193
5016.708 0.059 86.142 0.998 -3.404 0.998 -3.404 0.059 86.142
5041.667 0.06 86.09 0.998 -3.464 0.998 -3.464 0.06 86.09
5066.625 0.061 86.038 0.998 -3.524 0.998 -3.524 0.061 86.038
5091.583 0.062 85.986 0.998 -3.583 0.998 -3.583 0.062 85.986
5116.542 0.064 85.934 0.998 -3.642 0.998 -3.642 0.064 85.934
5141.5 0.065 85.882 0.997 -3.701 0.997 -3.701 0.065 85.882
5166.458 0.066 85.83 0.997 -3.759 0.997 -3.759 0.066 85.83
5191.417 0.067 85.778 0.997 -3.818 0.997 -3.818 0.067 85.778
5216.375 0.068 85.725 0.997 -3.876 0.997 -3.876 0.068 85.725
5241.333 0.069 85.673 0.997 -3.934 0.997 -3.934 0.069 85.673
5266.292 0.07 85.621 0.997 -3.992 0.997 -3.992 0.07 85.621
5291.25 0.071 85.569 0.997 -4.049 0.997 -4.049 0.071 85.569
5316.208 0.072 85.517 0.997 -4.107 0.997 -4.107 0.072 85.517
5341.167 0.073 85.465 0.997 -4.164 0.997 -4.164 0.073 85.465
5366.125 0.074 85.413 0.997 -4.221 0.997 -4.221 0.074 85.413
5391.083 0.075 85.361 0.997 -4.278 0.997 -4.278 0.075 85.361
5416.042 0.076 85.309 0.997 -4.335 0.997 -4.335 0.076 85.309
5441 0.077 85.257 0.997 -4.391 0.997 -4.391 0.077 85.257
5465.958 0.078 85.205 0.997 -4.448 0.997 -4.448 0.078 85.205
5490.917 0.079 85.153 0.996 -4.504 0.996 -4.504 0.079 85.153
5515.875 0.08 85.101 0.996 -4.56 0.996 -4.56 0.08 85.101
5540.833 0.08 85.05 0.996 -4.616 0.996 -4.616 0.08 85.05
5565.792 0.081 84.998 0.996 -4.671 0.996 -4.671 0.081 84.998
5590.75 0.082 84.946 0.996 -4.727 0.996 -4.727 0.082 84.946
5615.708 0.083 84.895 0.996 -4.782 0.996 -4.782 0.083 84.895
5640.667 0.084 84.843 0.996 -4.837 0.996 -4.837 0.084 84.843
5665.625 0.085 84.792 0.996 -4.892 0.996 -4.892 0.085 84.792
5690.583 0.086 84.741 0.996 -4.947 0.996 -4.947 0.086 84.741
5715.542 0.087 84.689 0.996 -5.002 0.996 -5.002 0.087 84.689
5740.5 0.088 84.638 0.996 -5.057 0.996 -5.057 0.088 84.638
5765.458 0.089 84.587 0.996 -5.111 0.996 -5.111 0.089 84.587
5790.417 0.09 84.536 0.995 -5.165 0.995 -5.165 0.09 84.536
5815.375 0.091 84.485 0.995 -5.219 0.995 -5.219 0.091 84.485
5840.333 0.092 84.434 0.995 -5.273 0.995 -5.273 0.092 84.434
5865.292 0.093 84.383 0.995 -5.327 0.995 -5.327 0.093 84.383
5890.25 0.094 84.332 0.995 -5.381 0.995 -5.381 0.094 84.332
5915.208 0.095 84.282 0.995 -5.434 0.995 -5.434 0.095 84.282
5940.167 0.096 84.231 0.995 -5.488 0.995 -5.488 0.096 84.231
5965.125 0.097 84.181 0.995 -5.541 0.995 -5.541 0.097 84.181
5990.083 0.097 84.13 0.995 -5.594 0.995 -5.594 0.097 84.13
6015.042 0.098 84.08 0.995 -5.647 0.995 -5.647 0.098 84.08
6040 0.099 84.029 0.995 -5.7 0.995 -5.7 0.099 84.029
6064.958 0.1 83.979 0.994 -5.753 0.994 -5.753 0.1 83.979
6089.917 0.101 83.929 0.994 -5.805 0.994 -5.805 0.101 83.929
6114.875 0.102 83.879 0.994 -5.858 0.994 -5.858 0.102 83.879
6139.833 0.103 83.829 0.994 -5.91 0.994 -5.91 0.103 83.829
6164.792 0.104 83.779 0.994 -5.962 0.994 -5.962 0.104 83.779
6189.75 0.105 83.729 0.994 -6.014 0.994 -6.014 0.105 83.729
6214.708 0.106 83.679 0.994 -6.066 0.994 -6.066 0.106 83.679
6239.667 0.107 83.63 0.994 -6.118 0.994 -6.118 0.107 83.63
6264.625 0.107 83.58 0.994 -6.17 0.994 -6.17 0.107 83.58
6289.583 0.108 83.531 0.994 -6.222 0.994 -6.222 0.108 83.531
6314.542 0.109 83.481 0.994 -6.273 0.994 -6.273 0.109 83.481
6339.5 0.11 83.432 0.993 -6.325 0.993 -6.325 0.11 83.432
6364.458 0.111 83.382 0.993 -6.376 0.993 -6.376 0.111 83.382
6389.417 0.112 83.333 0.993 -6.427 0.993 -6.427 0.112 83.333
6414.375 0.113 83.284 0.993 -6.478 0.993 -6.478 0.113 83.284
6439.333 0.114 83.235 0.993 -6.529 0.993 -6.529 0.114 83.235
6464.292 0.115 83.186 0.993 -6.58 0.993 -6.58 0.115 83.186
6489.25 0.115 83.137 0.993 -6.63 0.993 -6.63 0.115 83.137
6514.208 0.116 83.088 0.993 -6.681 0.993 -6.681 0.116 83.088
6539.167 0.117 83.04 0.993 -6.732 0.993 -6.732 0.117 83.04
6564.125 0.118 82.991 0.993 -6.782 0.993 -6.782 0.118 82.991
6589.083 0.119 82.942 0.992 -6.832 0.992 -6.832 0.119 82.942
6614.042 0.12 82.894 0.992 -6.882 0.992 -6.882 0.12 82.894
6639 0.121 82.845 0.992 -6.932 0.992 -6.932 0.121 82.845
6663.958 0.122 82.797 0.992 -6.982 0.992 -6.982 0.122 82.797
6688.917 0.122 82.749 0.992 -7.032 0.992 -7.032 0.122 82.749
6713.875 0.123 82.7 0.992 -7.082 0.992 -7.082 0.123 82.7
6738.833 0.124 82.652 0.992 -7.132 0.992 -7.132 0.124 82.652
6763.792 0.125 82.604 0.992 -7.181 0.992 -7.181 0.125 82.604
6788.75 0.126 82.556 0.992 -7.231 0.992 -7.231 0.126 82.556
6813.708 0.127 82.508 0.991 -7.28 0.991 -7.28 0.127 82.508
6838.667 0.128 82.46 0.991 -7.33 0.991 -7.33 0.128 82.46
6863.625 0.128 82.413 0.991 -7.379 0.991 -7.379 0.128 82.413
6888.583 0.129 82.365 0.991 -7.428 0.991 -7.428 0.129 82.365
6913.542 0.13 82.317 0.991 -7.477 0.991 -7.477 0.13 82.317
6938.5 0.131 82.27 0.991 -7.526 0.991 -7.526 0.131 82.27
6963.458 0.132 82.222 0.991 -7.575 0.991 -7.575 0.132 82.222
6988.417 0.133 82.175 0.991 -7.623 0.991 -7.623 0.133 82.175
7013.375 0.134 82.127 0.991 -7.672 0.991 -7.672 0.134 82.127
7038.333 0.134 82.08 0.99 -7.721 0.99 -7.721 0.134 82.08
7063.292 0.135 82.033 0.99 -7.769 0.99 -7.769 0.135 82.033
7088.25 0.136 81.986 0.99 -7.817 0.99 -7.817 0.136 81.986
7113.208 0.137 81.939 0.99 -7.866 0.99 -7.866 0.137 81.939
7138.167 0.138 81.892 0.99 -7.914 0.99 -7.914 0.138 81.892
7163.125 0.139 81.845 0.99 -7.962 0.99 -7.962 0.139 81.845
7188.083 0.139 81.798 0.99 -8.01 0.99 -8.01 0.139 81.798
7213.042 0.14 81.751 0.99 -8.058 0.99 -8.058 0.14 81.751
7238 0.141 81.704 0.99 -8.106 0.99 -8.106 0.141 81.704
7262.958 0.142 81.658 0.989 -8.154 0.989 -8.154 0.142 81.658
7287.917 0.143 81.611 0.989 -8.202 0.989 -8.202 0.143 81.611
7312.875 0.143 81.564 0.989 -8.249 0.989 -8.249 0.143 81.564
7337.833 0.144 81.518 0.989 -8.297 0.989 -8.297 0.144 81.518
7362.792 0.145 81.472 0.989 -8.344 0.989 -8.344 0.145 81.472
7387.75 0.146 81.425 0.989 -8.392 0.989 -8.392 0.146 81.425
7412.708 0.147 81.379 0.989 -8.439 0.989 -8.439 0.147 81.379
7437.667 0.148 81.333 0.989 -8.486 0.989 -8.486 0.148 81.333
7462.625 0.148 81.287 0.988 -8.533 0.988 -8.533 0.148 81.287
7487.583 0.149 81.24 0.988 -8.581 0.988 -8.581 0.149 81.24
7512.542 0.15 81.194 0.988 -8.628 0.988 -8.628 0.15 81.194
7537.5 0.151 81.148 0.988 -8.674 0.988 -8.674 0.151 81.148
7562.458 0.152 81.103 0.988 -8.721 0.988 -8.721 0.152 81.103
7587.417 0.152 81.057 0.988 -8.768 0.988 -8.768 0.152 81.057
7612.375 0.153 81.011 0.988 -8.815 0.988 -8.815 0.153 81.011
7637.333 0.154 80.965 0.988 -8.862 0.988 -8.862 0.154 80.965
7662.292 0.155 80.919 0.987 -8.908 0.987 -8.908 0.155 80.919
7687.25 0.156 80.874 0.987 -8.955 0.987 -8.955 0.156 80.874
7712.208 0.156 80.828 0.987 -9.001 0.987 -9.001 0.156 80.828
7737.167 0.157 80.783 0.987 -9.048 0.987 -9.048 0.157 80.783
7762.125 0.158 80.737 0.987 -9.094 0.987 -9.094 0.158 80.737
7787.083 0.159 80.692 0.987 -9.14 0.987 -9.14 0.159 80.692
7812.042 0.16 80.647 0.987 -9.186 0.987 -9.186 0.16 80.647
7837 0.16 80.601 0.987 -9.232 0.987 -9.232 0.16 80.601
7861.958 0.161 80.556 0.986 -9.278 0.986 -9.278 0.161 80.556
7886.917 0.162 80.511 0.986 -9.324 0.986 -9.324 0.162 80.511
7911.875 0.163 80.466 0.986 -9.37 0.986 -9.37 0.163 80.466
7936.833 0.164 80.421 0.986 -9.416 0.986 -9.416 0.164 80.421
7961.792 0.164 80.376 0.986 -9.462 0.986 -9.462 0.164 80.376
7986.75 0.165 80.331 0.986 -9.508 0.986 -9.508 0.165 80.331
8011.708 0.166 80.286 0.986 -9.553 0.986 -9.553 0.166 80.286
8036.667 0.167 80.241 0.986 -9.599 0.986 -9.599 0.167 80.241
8061.625 0.168 80.197 0.985 -9.644 0.985 -9.644 0.168 80.197
8086.583 0.168 80.152 0.985 -9.69 0.985 -9.69 0.168 80.152
8111.542 0.169 80.107 0.985 -9.735 0.985 -9.735 0.169 80.107
8136.5 0.17 80.063 0.985 -9.781 0.985 -9.781 0.17 80.063
8161.458 0.171 80.018 0.985 -9.826 0.985 -9.826 0.171 80.018
8186.417 0.171 79.974 0.985 -9.871 0.985 -9.871 0.171 79.974
8211.375 0.172 79.929 0.985 -9.916 0.985 -9.916 0.172 79.929
8236.333 0.173 79.885 0.984 -9.961 0.984 -9.961 0.173 79.885
8261.292 0.174 79.84 0.984 -10.006 0.984 -10.006 0.174 79.84
8286.25 0.175 79.796 0.984 -10.051 0.984 -10.051 0.175 79.796
8311.208 0.175 79.752 0.984 -10.096 0.984 -10.096 0.175 79.752
