# MHZ S MA R 50

50 0.998 -3.147 0.055 86.849 0.055 86.849 0.998 -3.147
74.958 0.997 -4.712 0.082 85.281 0.082 85.281 0.997 -4.712
99.917 0.994 -6.271 0.109 83.72 0.109 83.72 0.994 -6.271
124.875 0.991 -7.821 0.136 82.168 0.136 82.168 0.991 -7.821
149.833 0.987 -9.36 0.163 80.627 0.163 80.627 0.987 -9.36
174.792 0.982 -10.887 0.189 79.098 0.189 79.098 0.982 -10.887
199.75 0.977 -12.399 0.215 77.584 0.215 77.584 0.977 -12.399
224.708 0.971 -13.894 0.24 76.087 0.24 76.087 0.971 -13.894
249.667 0.964 -15.372 0.265 74.607 0.265 74.607 0.964 -15.372
274.625 0.957 -16.831 0.29 73.146 0.29 73.146 0.957 -16.831
299.583 0.949 -18.268 0.313 71.706 0.313 71.706 0.949 -18.268
324.542 0.941 -19.684 0.337 70.289 0.337 70.289 0.941 -19.684
349.5 0.933 -21.076 0.36 68.894 0.36 68.894 0.933 -21.076
374.458 0.924 -22.445 0.382 67.523 0.382 67.523 0.924 -22.445
399.417 0.915 -23.789 0.403 66.177 0.403 66.177 0.915 -23.789
424.375 0.905 -25.108 0.424 64.856 0.424 64.856 0.905 -25.108
449.333 0.895 -26.4 0.445 63.562 0.445 63.562 0.895 -26.4
474.292 0.885 -27.667 0.464 62.293 0.464 62.293 0.885 -27.667
499.25 0.875 -28.906 0.483 61.051 0.483 61.051 0.875 -28.906
524.208 0.865 -30.119 0.502 59.836 0.502 59.836 0.865 -30.119
549.167 0.854 -31.305 0.52 58.648 0.52 58.648 0.854 -31.305
574.125 0.843 -32.464 0.537 57.487 0.537 57.487 0.843 -32.464
599.083 0.832 -33.596 0.553 56.353 0.553 56.353 0.832 -33.596
624.042 0.822 -34.702 0.569 55.245 0.569 55.245 0.822 -34.702
649 0.811 -35.781 0.585 54.164 0.585 54.164 0.811 -35.781
673.958 0.8 -36.833 0.599 53.109 0.599 53.109 0.8 -36.833
698.917 0.789 -37.86 0.614 52.08 0.614 52.08 0.789 -37.86
723.875 0.778 -38.862 0.627 51.076 0.627 51.076 0.778 -38.862
748.833 0.767 -39.839 0.641 50.097 0.641 50.097 0.767 -39.839
773.792 0.756 -40.791 0.653 49.143 0.653 49.143 0.756 -40.791
798.75 0.746 -41.719 0.665 48.213 0.665 48.213 0.746 -41.719
823.708 0.735 -42.623 0.677 47.306 0.677 47.306 0.735 -42.623
848.667 0.724 -43.505 0.688 46.422 0.688 46.422 0.724 -43.505
873.625 0.714 -44.364 0.699 45.561 0.699 45.561 0.714 -44.364
898.583 0.704 -45.201 0.71 44.722 0.71 44.722 0.704 -45.201
923.542 0.693 -46.016 0.72 43.904 0.72 43.904 0.693 -46.016
948.5 0.683 -46.811 0.729 43.107 0.729 43.107 0.683 -46.811
973.458 0.673 -47.586 0.738 42.33 0.738 42.33 0.673 -47.586
998.417 0.664 -48.34 0.747 41.573 0.747 41.573 0.664 -48.34
1023.375 0.654 -49.076 0.756 40.835 0.756 40.835 0.654 -49.076
1048.333 0.644 -49.793 0.764 40.116 0.764 40.116 0.644 -49.793
1073.292 0.635 -50.492 0.772 39.415 0.772 39.415 0.635 -50.492
1098.25 0.626 -51.173 0.779 38.731 0.779 38.731 0.626 -51.173
1123.208 0.617 -51.838 0.786 38.064 0.786 38.064 0.617 -51.838
1148.167 0.608 -52.485 0.793 37.414 0.793 37.414 0.608 -52.485
1173.125 0.599 -53.117 0.8 36.78 0.8 36.78 0.599 -53.117
1198.083 0.59 -53.733 0.806 36.162 0.806 36.162 0.59 -53.733
1223.042 0.582 -54.335 0.812 35.558 0.812 35.558 0.582 -54.335
1248 0.573 -54.921 0.818 34.969 0.818 34.969 0.573 -54.921
1272.958 0.565 -55.493 0.824 34.394 0.824 34.394 0.565 -55.493
1297.917 0.557 -56.052 0.83 33.833 0.83 33.833 0.557 -56.052
1322.875 0.549 -56.598 0.835 33.286 0.835 33.286 0.549 -56.598
1347.833 0.541 -57.13 0.84 32.751 0.84 32.751 0.541 -57.13
1372.792 0.533 -57.65 0.845 32.228 0.845 32.228 0.533 -57.65
1397.75 0.526 -58.158 0.85 31.718 0.85 31.718 0.526 -58.158
1422.708 0.518 -58.655 0.854 31.219 0.854 31.219 0.518 -58.655
1447.667 0.511 -59.14 0.858 30.731 0.858 30.731 0.511 -59.14
1472.625 0.504 -59.614 0.863 30.255 0.863 30.255 0.504 -59.614
1497.583 0.497 -60.077 0.867 29.789 0.867 29.789 0.497 -60.077
1522.542 0.49 -60.53 0.871 29.334 0.871 29.334 0.49 -60.53
1547.5 0.483 -60.973 0.874 28.888 0.874 28.888 0.483 -60.973
1572.458 0.476 -61.406 0.878 28.452 0.878 28.452 0.476 -61.406
1597.417 0.47 -61.83 0.882 28.026 0.882 28.026 0.47 -61.83
1622.375 0.463 -62.245 0.885 27.608 0.885 27.608 0.463 -62.245
1647.333 0.457 -62.651 0.888 27.2 0.888 27.2 0.457 -62.651
1672.292 0.451 -63.049 0.891 26.799 0.891 26.799 0.451 -63.049
1697.25 0.445 -63.438 0.894 26.408 0.894 26.408 0.445 -63.438
1722.208 0.439 -63.819 0.897 26.024 0.897 26.024 0.439 -63.819
1747.167 0.433 -64.192 0.9 25.648 0.9 25.648 0.433 -64.192
1772.125 0.427 -64.558 0.903 25.28 0.903 25.28 0.427 -64.558
1797.083 0.421 -64.916 0.906 24.918 0.906 24.918 0.421 -64.916
1822.042 0.416 -65.268 0.908 24.564 0.908 24.564 0.416 -65.268
1847 0.41 -65.612 0.911 24.217 0.911 24.217 0.41 -65.612
1871.958 0.405 -65.95 0.913 23.877 0.913 23.877 0.405 -65.95
1896.917 0.399 -66.281 0.916 23.543 0.916 23.543 0.399 -66.281
1921.875 0.394 -66.605 0.918 23.216 0.918 23.216 0.394 -66.605
1946.833 0.389 -66.924 0.92 22.894 0.92 22.894 0.389 -66.924
1971.792 0.384 -67.237 0.922 22.579 0.922 22.579 0.384 -67.237
1996.75 0.379 -67.543 0.924 22.269 0.924 22.269 0.379 -67.543
2021.708 0.374 -67.845 0.926 21.965 0.926 21.965 0.374 -67.845
2046.667 0.369 -68.14 0.928 21.667 0.928 21.667 0.369 -68.14
2071.625 0.364 -68.431 0.93 21.374 0.93 21.374 0.364 -68.431
2096.583 0.36 -68.716 0.932 21.085 0.932 21.085 0.36 -68.716
2121.542 0.355 -68.996 0.934 20.802 0.934 20.802 0.355 -68.996
2146.5 0.351 -69.271 0.935 20.524 0.935 20.524 0.351 -69.271
2171.458 0.346 -69.541 0.937 20.251 0.937 20.251 0.346 -69.541
2196.417 0.342 -69.807 0.939 19.982 0.939 19.982 0.342 -69.807
2221.375 0.337 -70.068 0.94 19.718 0.94 19.718 0.337 -70.068
2246.333 0.333 -70.325 0.942 19.458 0.942 19.458 0.333 -70.325
2271.292 0.329 -70.577 0.943 19.203 0.943 19.203 0.329 -70.577
2296.25 0.325 -70.826 0.945 18.951 0.945 18.951 0.325 -70.826
2321.208 0.321 -71.07 0.946 18.704 0.946 18.704 0.321 -71.07
2346.167 0.317 -71.31 0.947 18.46 0.947 18.46 0.317 -71.31
2371.125 0.313 -71.546 0.949 18.221 0.949 18.221 0.313 -71.546
2396.083 0.309 -71.779 0.95 17.985 0.95 17.985 0.309 -71.779
2421.042 0.305 -72.008 0.951 17.753 0.951 17.753 0.305 -72.008
2446 0.301 -72.233 0.952 17.524 0.952 17.524 0.301 -72.233
2470.958 0.297 -72.455 0.953 17.299 0.953 17.299 0.297 -72.455
2495.917 0.294 -72.674 0.955 17.077 0.955 17.077 0.294 -72.674
2520.875 0.29 -72.889 0.956 16.858 0.956 16.858 0.29 -72.889
2545.833 0.286 -73.101 0.957 16.643 0.957 16.643 0.286 -73.101
2570.792 0.283 -73.309 0.958 16.431 0.958 16.431 0.283 -73.309
2595.75 0.279 -73.515 0.959 16.221 0.959 16.221 0.279 -73.515
2620.708 0.276 -73.718 0.96 16.015 0.96 16.015 0.276 -73.718
2645.667 0.272 -73.917 0.961 15.812 0.961 15.812 0.272 -73.917
2670.625 0.269 -74.114 0.962 15.612 0.962 15.612 0.269 -74.114
2695.583 0.266 -74.308 0.963 15.414 0.963 15.414 0.266 -74.308
2720.542 0.263 -74.499 0.964 15.219 0.964 15.219 0.263 -74.499
2745.5 0.259 -74.688 0.965 15.027 0.965 15.027 0.259 -74.688
2770.458 0.256 -74.874 0.965 14.837 0.965 14.837 0.256 -74.874
2795.417 0.253 -75.057 0.966 14.65 0.966 14.65 0.253 -75.057
2820.375 0.25 -75.238 0.967 14.465 0.967 14.465 0.25 -75.238
2845.333 0.247 -75.416 0.968 14.283 0.968 14.283 0.247 -75.416
2870.292 0.244 -75.592 0.969 14.103 0.969 14.103 0.244 -75.592
2895.25 0.241 -75.766 0.969 13.925 0.969 13.925 0.241 -75.766
2920.208 0.238 -75.937 0.97 13.749 0.97 13.749 0.238 -75.937
2945.167 0.235 -76.106 0.971 13.576 0.971 13.576 0.235 -76.106
2970.125 0.232 -76.273 0.971 13.405 0.971 13.405 0.232 -76.273
2995.083 0.229 -76.438 0.972 13.236 0.972 13.236 0.229 -76.438
3020.042 0.226 -76.601 0.973 13.069 0.973 13.069 0.226 -76.601
3045 0.223 -76.761 0.973 12.904 0.973 12.904 0.223 -76.761
3069.958 0.221 -76.92 0.974 12.741 0.974 12.741 0.221 -76.92
3094.917 0.218 -77.076 0.975 12.58 0.975 12.58 0.218 -77.076
3119.875 0.215 -77.231 0.975 12.421 0.975 12.421 0.215 -77.231
3144.833 0.212 -77.384 0.976 12.264 0.976 12.264 0.212 -77.384
3169.792 0.21 -77.534 0.976 12.108 0.976 12.108 0.21 -77.534
3194.75 0.207 -77.683 0.977 11.954 0.977 11.954 0.207 -77.683
3219.708 0.205 -77.831 0.978 11.802 0.978 11.802 0.205 -77.831
3244.667 0.202 -77.976 0.978 11.652 0.978 11.652 0.202 -77.976
3269.625 0.199 -78.12 0.979 11.503 0.979 11.503 0.199 -78.12
3294.583 0.197 -78.262 0.979 11.356 0.979 11.356 0.197 -78.262
3319.542 0.194 -78.402 0.98 11.211 0.98 11.211 0.194 -78.402
3344.5 0.192 -78.541 0.98 11.067 0.98 11.067 0.192 -78.541
3369.458 0.19 -78.678 0.981 10.925 0.981 10.925 0.19 -78.678
3394.417 0.187 -78.814 0.981 10.784 0.981 10.784 0.187 -78.814
3419.375 0.185 -78.948 0.981 10.644 0.981 10.644 0.185 -78.948
3444.333 0.182 -79.08 0.982 10.506 0.982 10.506 0.182 -79.08
3469.292 0.18 -79.211 0.982 10.37 0.982 10.37 0.18 -79.211
3494.25 0.178 -79.341 0.983 10.235 0.983 10.235 0.178 -79.341
3519.208 0.175 -79.469 0.983 10.101 0.983 10.101 0.175 -79.469
3544.167 0.173 -79.595 0.984 9.968 0.984 9.968 0.173 -79.595
3569.125 0.171 -79.72 0.984 9.837 0.984 9.837 0.171 -79.72
3594.083 0.169 -79.844 0.984 9.707 0.984 9.707 0.169 -79.844
3619.042 0.166 -79.967 0.985 9.579 0.985 9.579 0.166 -79.967
3644 0.164 -80.088 0.985 9.451 0.985 9.451 0.164 -80.088
3668.958 0.162 -80.208 0.985 9.325 0.985 9.325 0.162 -80.208
3693.917 0.16 -80.326 0.986 9.2 0.986 9.2 0.16 -80.326
3718.875 0.158 -80.444 0.986 9.076 0.986 9.076 0.158 -80.444
3743.833 0.156 -80.56 0.986 8.954 0.986 8.954 0.156 -80.56
3768.792 0.154 -80.674 0.987 8.832 0.987 8.832 0.154 -80.674
3793.75 0.151 -80.788 0.987 8.712 0.987 8.712 0.151 -80.788
3818.708 0.149 -80.9 0.987 8.592 0.987 8.592 0.149 -80.9
3843.667 0.147 -81.011 0.988 8.474 0.988 8.474 0.147 -81.011
3868.625 0.145 -81.121 0.988 8.357 0.988 8.357 0.145 -81.121
3893.583 0.143 -81.23 0.988 8.241 0.988 8.241 0.143 -81.23
3918.542 0.141 -81.338 0.989 8.125 0.989 8.125 0.141 -81.338
3943.5 0.139 -81.444 0.989 8.011 0.989 8.011 0.139 -81.444
3968.458 0.137 -81.549 0.989 7.898 0.989 7.898 0.137 -81.549
3993.417 0.135 -81.654 0.989 7.785 0.989 7.785 0.135 -81.654
4018.375 0.134 -81.757 0.99 7.674 0.99 7.674 0.134 -81.757
4043.333 0.132 -81.859 0.99 7.564 0.99 7.564 0.132 -81.859
4068.292 0.13 -81.96 0.99 7.454 0.99 7.454 0.13 -81.96
4093.25 0.128 -82.06 0.99 7.346 0.99 7.346 0.128 -82.06
4118.208 0.126 -82.158 0.991 7.238 0.991 7.238 0.126 -82.158
4143.167 0.124 -82.256 0.991 7.131 0.991 7.131 0.124 -82.256
4168.125 0.122 -82.353 0.991 7.025 0.991 7.025 0.122 -82.353
4193.083 0.12 -82.449 0.991 6.92 0.991 6.92 0.12 -82.449
4218.042 0.119 -82.543 0.992 6.815 0.992 6.815 0.119 -82.543
4243 0.117 -82.637 0.992 6.712 0.992 6.712 0.117 -82.637
4267.958 0.115 -82.729 0.992 6.609 0.992 6.609 0.115 -82.729
4292.917 0.113 -82.821 0.992 6.507 0.992 6.507 0.113 -82.821
4317.875 0.112 -82.911 0.992 6.405 0.992 6.405 0.112 -82.911
4342.833 0.11 -83.001 0.993 6.305 0.993 6.305 0.11 -83.001
4367.792 0.108 -83.089 0.993 6.205 0.993 6.205 0.108 -83.089
4392.75 0.106 -83.177 0.993 6.106 0.993 6.106 0.106 -83.177
4417.708 0.105 -83.263 0.993 6.008 0.993 6.008 0.105 -83.263
4442.667 0.103 -83.349 0.993 5.91 0.993 5.91 0.103 -83.349
4467.625 0.101 -83.433 0.994 5.813 0.994 5.813 0.101 -83.433
4492.583 0.1 -83.517 0.994 5.717 0.994 5.717 0.1 -83.517
4517.542 0.098 -83.599 0.994 5.622 0.994 5.622 0.098 -83.599
4542.5 0.096 -83.681 0.994 5.527 0.994 5.527 0.096 -83.681
4567.458 0.095 -83.761 0.994 5.433 0.994 5.433 0.095 -83.761
4592.417 0.093 -83.84 0.994 5.339 0.994 5.339 0.093 -83.84
4617.375 0.091 -83.919 0.994 5.246 0.994 5.246 0.091 -83.919
4642.333 0.09 -83.996 0.995 5.154 0.995 5.154 0.09 -83.996
4667.292 0.088 -84.072 0.995 5.062 0.995 5.062 0.088 -84.072
4692.25 0.087 -84.147 0.995 4.971 0.995 4.971 0.087 -84.147
4717.208 0.085 -84.221 0.995 4.881 0.995 4.881 0.085 -84.221
4742.167 0.084 -84.294 0.995 4.791 0.995 4.791 0.084 -84.294
4767.125 0.082 -84.366 0.995 4.701 0.995 4.701 0.082 -84.366
4792.083 0.08 -84.437 0.995 4.613 0.995 4.613 0.08 -84.437
4817.042 0.079 -84.507 0.996 4.524 0.996 4.524 0.079 -84.507
4842 0.077 -84.575 0.996 4.437 0.996 4.437 0.077 -84.575
4866.958 0.076 -84.642 0.996 4.35 0.996 4.35 0.076 -84.642
4891.917 0.074 -84.708 0.996 4.263 0.996 4.263 0.074 -84.708
4916.875 0.073 -84.773 0.996 4.177 0.996 4.177 0.073 -84.773
4941.833 0.071 -84.836 0.996 4.092 0.996 4.092 0.071 -84.836
4966.792 0.07 -84.899 0.996 4.007 0.996 4.007 0.07 -84.899
4991.75 0.068 -84.959 0.996 3.922 0.996 3.922 0.068 -84.959
5016.708 0.067 -85.019 0.996 3.838 0.996 3.838 0.067 -85.019
5041.667 0.065 -85.077 0.997 3.755 0.997 3.755 0.065 -85.077
5066.625 0.064 -85.133 0.997 3.672 0.997 3.672 0.064 -85.133
5091.583 0.063 -85.188 0.997 3.589 0.997 3.589 0.063 -85.188
5116.542 0.061 -85.242 0.997 3.507 0.997 3.507 0.061 -85.242
5141.5 0.06 -85.293 0.997 3.426 0.997 3.426 0.06 -85.293
5166.458 0.058 -85.343 0.997 3.345 0.997 3.345 0.058 -85.343
5191.417 0.057 -85.392 0.997 3.264 0.997 3.264 0.057 -85.392
5216.375 0.056 -85.438 0.997 3.184 0.997 3.184 0.056 -85.438
5241.333 0.054 -85.482 0.997 3.104 0.997 3.104 0.054 -85.482
5266.292 0.053 -85.524 0.997 3.025 0.997 3.025 0.053 -85.524
5291.25 0.051 -85.564 0.997 2.946 0.997 2.946 0.051 -85.564
5316.208 0.05 -85.602 0.997 2.867 0.997 2.867 0.05 -85.602
5341.167 0.049 -85.637 0.997 2.789 0.997 2.789 0.049 -85.637
5366.125 0.047 -85.67 0.998 2.712 0.998 2.712 0.047 -85.67
5391.083 0.046 -85.699 0.998 2.635 0.998 2.635 0.046 -85.699
5416.042 0.045 -85.726 0.998 2.558 0.998 2.558 0.045 -85.726
5441 0.043 -85.75 0.998 2.481 0.998 2.481 0.043 -85.75
5465.958 0.042 -85.77 0.998 2.405 0.998 2.405 0.042 -85.77
5490.917 0.041 -85.786 0.998 2.33 0.998 2.33 0.041 -85.786
5515.875 0.039 -85.798 0.998 2.254 0.998 2.254 0.039 -85.798
5540.833 0.038 -85.806 0.998 2.18 0.998 2.18 0.038 -85.806
5565.792 0.037 -85.809 0.998 2.105 0.998 2.105 0.037 -85.809
5590.75 0.035 -85.807 0.998 2.031 0.998 2.031 0.035 -85.807
5615.708 0.034 -85.8 0.998 1.957 0.998 1.957 0.034 -85.8
5640.667 0.033 -85.786 0.998 1.884 0.998 1.884 0.033 -85.786
5665.625 0.032 -85.765 0.998 1.811 0.998 1.811 0.032 -85.765
5690.583 0.03 -85.736 0.998 1.738 0.998 1.738 0.03 -85.736
5715.542 0.029 -85.699 0.998 1.666 0.998 1.666 0.029 -85.699
5740.5 0.028 -85.652 0.998 1.594 0.998 1.594 0.028 -85.652
5765.458 0.027 -85.594 0.998 1.522 0.998 1.522 0.027 -85.594
5790.417 0.025 -85.524 0.998 1.451 0.998 1.451 0.025 -85.524
5815.375 0.024 -85.439 0.998 1.38 0.998 1.38 0.024 -85.439
5840.333 0.023 -85.339 0.998 1.309 0.998 1.309 0.023 -85.339
5865.292 0.022 -85.219 0.998 1.239 0.998 1.239 0.022 -85.219
5890.25 0.02 -85.077 0.998 1.169 0.998 1.169 0.02 -85.077
5915.208 0.019 -84.909 0.998 1.099 0.998 1.099 0.019 -84.909
5940.167 0.018 -84.711 0.999 1.029 0.999 1.029 0.018 -84.711
5965.125 0.017 -84.474 0.999 0.96 0.999 0.96 0.017 -84.474
5990.083 0.016 -84.192 0.999 0.892 0.999 0.892 0.016 -84.192
6015.042 0.014 -83.854 0.999 0.823 0.999 0.823 0.014 -83.854
6040 0.013 -83.444 0.999 0.755 0.999 0.755 0.013 -83.444
6064.958 0.012 -82.942 0.999 0.687 0.999 0.687 0.012 -82.942
6089.917 0.011 -82.321 0.999 0.619 0.999 0.619 0.011 -82.321
6114.875 9.724e-3 -81.537 0.999 0.552 0.999 0.552 9.724e-3 -81.537
6139.833 8.566e-3 -80.526 0.999 0.485 0.999 0.485 8.566e-3 -80.526
6164.792 7.417e-3 -79.186 0.999 0.418 0.999 0.418 7.417e-3 -79.186
6189.75 6.279e-3 -77.34 0.999 0.351 0.999 0.351 6.279e-3 -77.34
6214.708 5.155e-3 -74.666 0.999 0.285 0.999 0.285 5.155e-3 -74.666
6239.667 4.054e-3 -70.503 0.999 0.219 0.999 0.219 4.054e-3 -70.503
6264.625 2.996e-3 -63.308 0.999 0.154 0.999 0.154 2.996e-3 -63.308
6289.583 2.039e-3 -48.877 0.999 0.088 0.999 0.088 2.039e-3 -48.877
6314.542 1.397e-3 -16.622 0.999 0.023 0.999 0.023 1.397e-3 -16.622
6339.5 1.526e-3 28.665 0.999 -0.042 0.999 -0.042 1.526e-3 28.665
6364.458 2.293e-3 54.179 0.999 -0.107 0.999 -0.107 2.293e-3 54.179
6389.417 3.272e-3 65.685 0.999 -0.171 0.999 -0.171 3.272e-3 65.685
6414.375 4.319e-3 71.71 0.999 -0.235 0.999 -0.235 4.319e-3 71.71
6439.333 5.391e-3 75.324 0.999 -0.299 0.999 -0.299 5.391e-3 75.324
6464.292 6.473e-3 77.704 0.999 -0.363 0.999 -0.363 6.473e-3 77.704
6489.25 7.56e-3 79.376 0.999 -0.426 0.999 -0.426 7.56e-3 79.376
6514.208 8.648e-3 80.607 0.999 -0.49 0.999 -0.49 8.648e-3 80.607
6539.167 9.735e-3 81.545 0.999 -0.552 0.999 -0.552 9.735e-3 81.545
6564.125 0.011 82.279 0.999 -0.615 0.999 -0.615 0.011 82.279
6589.083 0.012 82.866 0.999 -0.678 0.999 -0.678 0.012 82.866
6614.042 0.013 83.344 0.999 -0.74 0.999 -0.74 0.013 83.344
6639 0.014 83.736 0.999 -0.802 0.999 -0.802 0.014 83.736
6663.958 0.015 84.063 0.999 -0.864 0.999 -0.864 0.015 84.063
6688.917 0.016 84.338 0.999 -0.925 0.999 -0.925 0.016 84.338
6713.875 0.017 84.57 0.999 -0.987 0.999 -0.987 0.017 84.57
6738.833 0.018 84.767 0.998 -1.048 0.998 -1.048 0.018 84.767
6763.792 0.019 84.936 0.998 -1.109 0.998 -1.109 0.019 84.936
6788.75 0.02 85.08 0.998 -1.17 0.998 -1.17 0.02 85.08
6813.708 0.022 85.203 0.998 -1.23 0.998 -1.23 0.022 85.203
6838.667 0.023 85.309 0.998 -1.291 0.998 -1.291 0.023 85.309
6863.625 0.024 85.4 0.998 -1.351 0.998 -1.351 0.024 85.4
6888.583 0.025 85.478 0.998 -1.411 0.998 -1.411 0.025 85.478
6913.542 0.026 85.545 0.998 -1.47 0.998 -1.47 0.026 85.545
6938.5 0.027 85.601 0.998 -1.53 0.998 -1.53 0.027 85.601
6963.458 0.028 85.649 0.998 -1.589 0.998 -1.589 0.028 85.649
6988.417 0.029 85.689 0.998 -1.648 0.998 -1.648 0.029 85.689
7013.375 0.03 85.721 0.998 -1.707 0.998 -1.707 0.03 85.721
7038.333 0.031 85.748 0.998 -1.766 0.998 -1.766 0.031 85.748
7063.292 0.032 85.769 0.998 -1.825 0.998 -1.825 0.032 85.769
7088.25 0.033 85.786 0.998 -1.883 0.998 -1.883 0.033 85.786
7113.208 0.034 85.797 0.998 -1.941 0.998 -1.941 0.034 85.797
7138.167 0.035 85.805 0.998 -1.999 0.998 -1.999 0.035 85.805
7163.125 0.036 85.809 0.998 -2.057 0.998 -2.057 0.036 85.809
7188.083 0.037 85.809 0.998 -2.114 0.998 -2.114 0.037 85.809
7213.042 0.038 85.807 0.998 -2.172 0.998 -2.172 0.038 85.807
7238 0.039 85.801 0.998 -2.229 0.998 -2.229 0.039 85.801
7262.958 0.04 85.794 0.998 -2.286 0.998 -2.286 0.04 85.794
7287.917 0.041 85.783 0.998 -2.343 0.998 -2.343 0.041 85.783
7312.875 0.042 85.771 0.998 -2.4 0.998 -2.4 0.042 85.771
7337.833 0.043 85.756 0.998 -2.457 0.998 -2.457 0.043 85.756
7362.792 0.044 85.74 0.998 -2.513 0.998 -2.513 0.044 85.74
7387.75 0.045 85.722 0.998 -2.569 0.998 -2.569 0.045 85.722
7412.708 0.046 85.703 0.998 -2.625 0.998 -2.625 0.046 85.703
7437.667 0.047 85.682 0.998 -2.681 0.998 -2.681 0.047 85.682
7462.625 0.048 85.659 0.998 -2.737 0.998 -2.737 0.048 85.659
7487.583 0.049 85.636 0.997 -2.793 0.997 -2.793 0.049 85.636
7512.542 0.05 85.611 0.997 -2.848 0.997 -2.848 0.05 85.611
7537.5 0.051 85.585 0.997 -2.903 0.997 -2.903 0.051 85.585
7562.458 0.052 85.558 0.997 -2.958 0.997 -2.958 0.052 85.558
7587.417 0.053 85.53 0.997 -3.013 0.997 -3.013 0.053 85.53
7612.375 0.054 85.501 0.997 -3.068 0.997 -3.068 0.054 85.501
7637.333 0.054 85.472 0.997 -3.123 0.997 -3.123 0.054 85.472
7662.292 0.055 85.441 0.997 -3.177 0.997 -3.177 0.055 85.441
7687.25 0.056 85.41 0.997 -3.232 0.997 -3.232 0.056 85.41
7712.208 0.057 85.379 0.997 -3.286 0.997 -3.286 0.057 85.379
7737.167 0.058 85.346 0.997 -3.34 0.997 -3.34 0.058 85.346
7762.125 0.059 85.313 0.997 -3.394 0.997 -3.394 0.059 85.313
7787.083 0.06 85.28 0.997 -3.448 0.997 -3.448 0.06 85.28
7812.042 0.061 85.245 0.997 -3.501 0.997 -3.501 0.061 85.245
7837 0.062 85.211 0.997 -3.555 0.997 -3.555 0.062 85.211
7861.958 0.063 85.176 0.997 -3.608 0.997 -3.608 0.063 85.176
7886.917 0.064 85.14 0.997 -3.661 0.997 -3.661 0.064 85.14
7911.875 0.065 85.104 0.997 -3.715 0.997 -3.715 0.065 85.104
7936.833 0.066 85.068 0.997 -3.767 0.997 -3.767 0.066 85.068
7961.792 0.067 85.031 0.996 -3.82 0.996 -3.82 0.067 85.031
7986.75 0.068 84.994 0.996 -3.873 0.996 -3.873 0.068 84.994
8011.708 0.068 84.957 0.996 -3.925 0.996 -3.925 0.068 84.957
8036.667 0.069 84.919 0.996 -3.978 0.996 -3.978 0.069 84.919
8061.625 0.07 84.882 0.996 -4.03 0.996 -4.03 0.07 84.882
8086.583 0.071 84.843 0.996 -4.082 0.996 -4.082 0.071 84.843
8111.542 0.072 84.805 0.996 -4.134 0.996 -4.134 0.072 84.805
8136.5 0.073 84.766 0.996 -4.186 0.996 -4.186 0.073 84.766
8161.458 0.074 84.727 0.996 -4.238 0.996 -4.238 0.074 84.727
8186.417 0.075 84.688 0.996 -4.29 0.996 -4.29 0.075 84.688
8211.375 0.076 84.649 0.996 -4.341 0.996 -4.341 0.076 84.649
