# MHZ S MA R 50

50 0.846 -32.157 0.532 57.828 0.532 57.828 0.846 -32.157
74.958 0.727 -43.325 0.686 46.652 0.686 46.652 0.727 -43.325
99.917 0.622 -51.529 0.783 38.439 0.783 38.439 0.622 -51.529
124.875 0.535 -57.586 0.844 32.375 0.844 32.375 0.535 -57.586
149.833 0.466 -62.15 0.884 27.803 0.884 27.803 0.466 -62.15
174.792 0.411 -65.674 0.911 24.271 0.911 24.271 0.411 -65.674
199.75 0.366 -68.46 0.93 21.477 0.93 21.477 0.366 -68.46
224.708 0.329 -70.709 0.944 19.22 0.944 19.22 0.329 -70.709
249.667 0.298 -72.56 0.954 17.361 0.954 17.361 0.298 -72.56
274.625 0.272 -74.107 0.962 15.806 0.962 15.806 0.272 -74.107
299.583 0.25 -75.418 0.968 14.487 0.968 14.487 0.25 -75.418
324.542 0.231 -76.544 0.973 13.352 0.973 13.352 0.231 -76.544
349.5 0.214 -77.521 0.976 12.367 0.976 12.367 0.214 -77.521
374.458 0.199 -78.377 0.979 11.502 0.979 11.502 0.199 -78.377
399.417 0.186 -79.133 0.982 10.737 0.982 10.737 0.186 -79.133
424.375 0.175 -79.806 0.984 10.055 0.984 10.055 0.175 -79.806
449.333 0.164 -80.41 0.986 9.442 0.986 9.442 0.164 -80.41
474.292 0.155 -80.954 0.988 8.889 0.988 8.889 0.155 -80.954
499.25 0.146 -81.447 0.989 8.386 0.989 8.386 0.146 -81.447
524.208 0.138 -81.896 0.99 7.927 0.99 7.927 0.138 -81.896
549.167 0.131 -82.308 0.991 7.505 0.991 7.505 0.131 -82.308
574.125 0.124 -82.686 0.992 7.117 0.992 7.117 0.124 -82.686
599.083 0.118 -83.035 0.993 6.757 0.993 6.757 0.118 -83.035
624.042 0.112 -83.358 0.993 6.423 0.993 6.423 0.112 -83.358
649 0.106 -83.658 0.994 6.112 0.994 6.112 0.106 -83.658
673.958 0.101 -83.937 0.994 5.821 0.994 5.821 0.101 -83.937
698.917 0.097 -84.198 0.995 5.548 0.995 5.548 0.097 -84.198
723.875 0.092 -84.442 0.995 5.292 0.995 5.292 0.092 -84.442
748.833 0.088 -84.672 0.996 5.05 0.996 5.05 0.088 -84.672
773.792 0.084 -84.887 0.996 4.821 0.996 4.821 0.084 -84.887
798.75 0.08 -85.09 0.996 4.604 0.996 4.604 0.08 -85.09
823.708 0.077 -85.281 0.997 4.399 0.997 4.399 0.077 -85.281
848.667 0.073 -85.462 0.997 4.203 0.997 4.203 0.073 -85.462
873.625 0.07 -85.633 0.997 4.016 0.997 4.016 0.07 -85.633
898.583 0.067 -85.795 0.997 3.838 0.997 3.838 0.067 -85.795
923.542 0.064 -85.948 0.998 3.668 0.998 3.668 0.064 -85.948
948.5 0.061 -86.093 0.998 3.504 0.998 3.504 0.061 -86.093
973.458 0.058 -86.231 0.998 3.348 0.998 3.348 0.058 -86.231
998.417 0.056 -86.362 0.998 3.197 0.998 3.197 0.056 -86.362
1023.375 0.053 -86.486 0.998 3.052 0.998 3.052 0.053 -86.486
1048.333 0.051 -86.604 0.998 2.912 0.998 2.912 0.051 -86.604
1073.292 0.048 -86.715 0.998 2.777 0.998 2.777 0.048 -86.715
1098.25 0.046 -86.82 0.999 2.647 0.999 2.647 0.046 -86.82
1123.208 0.044 -86.92 0.999 2.521 0.999 2.521 0.044 -86.92
1148.167 0.042 -87.013 0.999 2.399 0.999 2.399 0.042 -87.013
1173.125 0.04 -87.101 0.999 2.281 0.999 2.281 0.04 -87.101
1198.083 0.038 -87.183 0.999 2.166 0.999 2.166 0.038 -87.183
1223.042 0.036 -87.259 0.999 2.054 0.999 2.054 0.036 -87.259
1248 0.034 -87.329 0.999 1.946 0.999 1.946 0.034 -87.329
1272.958 0.032 -87.393 0.999 1.84 0.999 1.84 0.032 -87.393
1297.917 0.03 -87.451 0.999 1.737 0.999 1.737 0.03 -87.451
1322.875 0.029 -87.501 0.999 1.637 0.999 1.637 0.029 -87.501
1347.833 0.027 -87.544 0.999 1.539 0.999 1.539 0.027 -87.544
1372.792 0.025 -87.579 0.999 1.444 0.999 1.444 0.025 -87.579
1397.75 0.024 -87.605 0.999 1.35 0.999 1.35 0.024 -87.605
1422.708 0.022 -87.62 0.999 1.259 0.999 1.259 0.022 -87.62
1447.667 0.02 -87.624 0.999 1.17 0.999 1.17 0.02 -87.624
1472.625 0.019 -87.614 0.999 1.082 0.999 1.082 0.019 -87.614
1497.583 0.017 -87.588 0.999 0.997 0.999 0.997 0.017 -87.588
1522.542 0.016 -87.541 0.999 0.913 0.999 0.913 0.016 -87.541
1547.5 0.014 -87.47 0.999 0.83 0.999 0.83 0.014 -87.47
1572.458 0.013 -87.368 0.999 0.749 0.999 0.749 0.013 -87.368
1597.417 0.012 -87.225 1 0.67 1 0.67 0.012 -87.225
1622.375 0.01 -87.026 1 0.592 1 0.592 0.01 -87.026
1647.333 9.004e-3 -86.748 1 0.515 1 0.515 9.004e-3 -86.748
1672.292 7.69e-3 -86.356 1 0.44 1 0.44 7.69e-3 -86.356
1697.25 6.398e-3 -85.782 1 0.366 1 0.366 6.398e-3 -85.782
1722.208 5.127e-3 -84.898 1 0.293 1 0.293 5.127e-3 -84.898
1747.167 3.878e-3 -83.415 1 0.221 1 0.221 3.878e-3 -83.415
1772.125 2.653e-3 -80.524 1 0.15 1 0.15 2.653e-3 -80.524
1797.083 1.464e-3 -72.838 1 0.08 1 0.08 1.464e-3 -72.838
1822.042 473.1e-6 -24.655 1 0.011 1 0.011 473.1e-6 -24.655
1847 1.077e-3 66.424 1 -0.057 1 -0.057 1.077e-3 66.424
1871.958 2.2e-3 78.606 1 -0.124 1 -0.124 2.2e-3 78.606
1896.917 3.339e-3 82.414 1 -0.19 1 -0.19 3.339e-3 82.414
1921.875 4.472e-3 84.229 1 -0.255 1 -0.255 4.472e-3 84.229
1946.833 5.594e-3 85.273 1 -0.32 1 -0.32 5.594e-3 85.273
1971.792 6.704e-3 85.94 1 -0.383 1 -0.383 6.704e-3 85.94
1996.75 7.801e-3 86.395 1 -0.446 1 -0.446 7.801e-3 86.395
2021.708 8.887e-3 86.719 1 -0.509 1 -0.509 8.887e-3 86.719
2046.667 9.96e-3 86.956 1 -0.57 1 -0.57 9.96e-3 86.956
2071.625 0.011 87.134 1 -0.631 1 -0.631 0.011 87.134
2096.583 0.012 87.268 0.999 -0.691 0.999 -0.691 0.012 87.268
2121.542 0.013 87.371 0.999 -0.751 0.999 -0.751 0.013 87.371
2146.5 0.014 87.448 0.999 -0.81 0.999 -0.81 0.014 87.448
2171.458 0.015 87.507 0.999 -0.869 0.999 -0.869 0.015 87.507
2196.417 0.016 87.551 0.999 -0.927 0.999 -0.927 0.016 87.551
2221.375 0.017 87.582 0.999 -0.984 0.999 -0.984 0.017 87.582
2246.333 0.018 87.604 0.999 -1.041 0.999 -1.041 0.018 87.604
2271.292 0.019 87.617 0.999 -1.097 0.999 -1.097 0.019 87.617
2296.25 0.02 87.623 0.999 -1.153 0.999 -1.153 0.02 87.623
2321.208 0.021 87.624 0.999 -1.209 0.999 -1.209 0.021 87.624
2346.167 0.022 87.62 0.999 -1.264 0.999 -1.264 0.022 87.62
2371.125 0.023 87.612 0.999 -1.318 0.999 -1.318 0.023 87.612
2396.083 0.024 87.6 0.999 -1.372 0.999 -1.372 0.024 87.6
2421.042 0.025 87.585 0.999 -1.426 0.999 -1.426 0.025 87.585
2446 0.026 87.567 0.999 -1.479 0.999 -1.479 0.026 87.567
2470.958 0.027 87.547 0.999 -1.532 0.999 -1.532 0.027 87.547
2495.917 0.028 87.525 0.999 -1.585 0.999 -1.585 0.028 87.525
2520.875 0.029 87.501 0.999 -1.637 0.999 -1.637 0.029 87.501
2545.833 0.029 87.476 0.999 -1.688 0.999 -1.688 0.029 87.476
2570.792 0.03 87.449 0.999 -1.74 0.999 -1.74 0.03 87.449
2595.75 0.031 87.421 0.999 -1.791 0.999 -1.791 0.031 87.421
2620.708 0.032 87.392 0.999 -1.842 0.999 -1.842 0.032 87.392
2645.667 0.033 87.362 0.999 -1.892 0.999 -1.892 0.033 87.362
2670.625 0.034 87.331 0.999 -1.942 0.999 -1.942 0.034 87.331
2695.583 0.035 87.3 0.999 -1.992 0.999 -1.992 0.035 87.3
2720.542 0.036 87.267 0.999 -2.042 0.999 -2.042 0.036 87.267
2745.5 0.036 87.234 0.999 -2.091 0.999 -2.091 0.036 87.234
2770.458 0.037 87.201 0.999 -2.14 0.999 -2.14 0.037 87.201
2795.417 0.038 87.167 0.999 -2.189 0.999 -2.189 0.038 87.167
2820.375 0.039 87.132 0.999 -2.237 0.999 -2.237 0.039 87.132
2845.333 0.04 87.097 0.999 -2.285 0.999 -2.285 0.04 87.097
2870.292 0.041 87.062 0.999 -2.333 0.999 -2.333 0.041 87.062
2895.25 0.042 87.027 0.999 -2.381 0.999 -2.381 0.042 87.027
2920.208 0.042 86.991 0.999 -2.429 0.999 -2.429 0.042 86.991
2945.167 0.043 86.954 0.999 -2.476 0.999 -2.476 0.043 86.954
2970.125 0.044 86.918 0.999 -2.523 0.999 -2.523 0.044 86.918
2995.083 0.045 86.881 0.999 -2.57 0.999 -2.57 0.045 86.881
3020.042 0.046 86.845 0.999 -2.616 0.999 -2.616 0.046 86.845
3045 0.046 86.808 0.998 -2.663 0.998 -2.663 0.046 86.808
3069.958 0.047 86.771 0.998 -2.709 0.998 -2.709 0.047 86.771
3094.917 0.048 86.733 0.998 -2.755 0.998 -2.755 0.048 86.733
3119.875 0.049 86.696 0.998 -2.801 0.998 -2.801 0.049 86.696
3144.833 0.05 86.658 0.998 -2.846 0.998 -2.846 0.05 86.658
3169.792 0.05 86.621 0.998 -2.892 0.998 -2.892 0.05 86.621
3194.75 0.051 86.583 0.998 -2.937 0.998 -2.937 0.051 86.583
3219.708 0.052 86.545 0.998 -2.982 0.998 -2.982 0.052 86.545
3244.667 0.053 86.507 0.998 -3.027 0.998 -3.027 0.053 86.507
3269.625 0.054 86.47 0.998 -3.071 0.998 -3.071 0.054 86.47
3294.583 0.054 86.432 0.998 -3.116 0.998 -3.116 0.054 86.432
3319.542 0.055 86.394 0.998 -3.16 0.998 -3.16 0.055 86.394
3344.5 0.056 86.355 0.998 -3.205 0.998 -3.205 0.056 86.355
3369.458 0.057 86.317 0.998 -3.249 0.998 -3.249 0.057 86.317
3394.417 0.057 86.279 0.998 -3.293 0.998 -3.293 0.057 86.279
3419.375 0.058 86.241 0.998 -3.336 0.998 -3.336 0.058 86.241
3444.333 0.059 86.203 0.998 -3.38 0.998 -3.38 0.059 86.203
3469.292 0.06 86.165 0.998 -3.423 0.998 -3.423 0.06 86.165
3494.25 0.06 86.127 0.998 -3.467 0.998 -3.467 0.06 86.127
3519.208 0.061 86.088 0.998 -3.51 0.998 -3.51 0.061 86.088
3544.167 0.062 86.05 0.998 -3.553 0.998 -3.553 0.062 86.05
3569.125 0.063 86.012 0.998 -3.596 0.998 -3.596 0.063 86.012
3594.083 0.063 85.974 0.998 -3.639 0.998 -3.639 0.063 85.974
3619.042 0.064 85.936 0.998 -3.681 0.998 -3.681 0.064 85.936
3644 0.065 85.898 0.997 -3.724 0.997 -3.724 0.065 85.898
3668.958 0.066 85.859 0.997 -3.766 0.997 -3.766 0.066 85.859
3693.917 0.066 85.821 0.997 -3.809 0.997 -3.809 0.066 85.821
3718.875 0.067 85.783 0.997 -3.851 0.997 -3.851 0.067 85.783
3743.833 0.068 85.745 0.997 -3.893 0.997 -3.893 0.068 85.745
3768.792 0.069 85.707 0.997 -3.935 0.997 -3.935 0.069 85.707
3793.75 0.069 85.669 0.997 -3.977 0.997 -3.977 0.069 85.669
3818.708 0.07 85.631 0.997 -4.019 0.997 -4.019 0.07 85.631
3843.667 0.071 85.593 0.997 -4.06 0.997 -4.06 0.071 85.593
3868.625 0.072 85.555 0.997 -4.102 0.997 -4.102 0.072 85.555
3893.583 0.072 85.517 0.997 -4.143 0.997 -4.143 0.072 85.517
3918.542 0.073 85.479 0.997 -4.185 0.997 -4.185 0.073 85.479
3943.5 0.074 85.441 0.997 -4.226 0.997 -4.226 0.074 85.441
3968.458 0.074 85.403 0.997 -4.267 0.997 -4.267 0.074 85.403
3993.417 0.075 85.365 0.997 -4.308 0.997 -4.308 0.075 85.365
4018.375 0.076 85.327 0.997 -4.349 0.997 -4.349 0.076 85.327
4043.333 0.077 85.289 0.997 -4.39 0.997 -4.39 0.077 85.289
4068.292 0.077 85.251 0.997 -4.431 0.997 -4.431 0.077 85.251
4093.25 0.078 85.214 0.997 -4.471 0.997 -4.471 0.078 85.214
4118.208 0.079 85.176 0.996 -4.512 0.996 -4.512 0.079 85.176
4143.167 0.079 85.138 0.996 -4.552 0.996 -4.552 0.079 85.138
4168.125 0.08 85.1 0.996 -4.593 0.996 -4.593 0.08 85.1
4193.083 0.081 85.063 0.996 -4.633 0.996 -4.633 0.081 85.063
4218.042 0.081 85.025 0.996 -4.674 0.996 -4.674 0.081 85.025
4243 0.082 84.988 0.996 -4.714 0.996 -4.714 0.082 84.988
4267.958 0.083 84.95 0.996 -4.754 0.996 -4.754 0.083 84.95
4292.917 0.084 84.912 0.996 -4.794 0.996 -4.794 0.084 84.912
4317.875 0.084 84.875 0.996 -4.834 0.996 -4.834 0.084 84.875
4342.833 0.085 84.837 0.996 -4.874 0.996 -4.874 0.085 84.837
4367.792 0.086 84.8 0.996 -4.914 0.996 -4.914 0.086 84.8
4392.75 0.086 84.763 0.996 -4.953 0.996 -4.953 0.086 84.763
4417.708 0.087 84.725 0.996 -4.993 0.996 -4.993 0.087 84.725
4442.667 0.088 84.688 0.996 -5.033 0.996 -5.033 0.088 84.688
4467.625 0.088 84.65 0.996 -5.072 0.996 -5.072 0.088 84.65
4492.583 0.089 84.613 0.996 -5.112 0.996 -5.112 0.089 84.613
4517.542 0.09 84.576 0.996 -5.151 0.996 -5.151 0.09 84.576
4542.5 0.09 84.539 0.995 -5.19 0.995 -5.19 0.09 84.539
4567.458 0.091 84.501 0.995 -5.229 0.995 -5.229 0.091 84.501
4592.417 0.092 84.464 0.995 -5.269 0.995 -5.269 0.092 84.464
4617.375 0.093 84.427 0.995 -5.308 0.995 -5.308 0.093 84.427
4642.333 0.093 84.39 0.995 -5.347 0.995 -5.347 0.093 84.39
4667.292 0.094 84.353 0.995 -5.386 0.995 -5.386 0.094 84.353
4692.25 0.095 84.316 0.995 -5.425 0.995 -5.425 0.095 84.316
4717.208 0.095 84.279 0.995 -5.464 0.995 -5.464 0.095 84.279
4742.167 0.096 84.242 0.995 -5.503 0.995 -5.503 0.096 84.242
4767.125 0.097 84.205 0.995 -5.541 0.995 -5.541 0.097 84.205
4792.083 0.097 84.168 0.995 -5.58 0.995 -5.58 0.097 84.168
4817.042 0.098 84.131 0.995 -5.619 0.995 -5.619 0.098 84.131
4842 0.099 84.094 0.995 -5.657 0.995 -5.657 0.099 84.094
4866.958 0.099 84.057 0.995 -5.696 0.995 -5.696 0.099 84.057
4891.917 0.1 84.02 0.995 -5.734 0.995 -5.734 0.1 84.02
4916.875 0.101 83.983 0.995 -5.773 0.995 -5.773 0.101 83.983
4941.833 0.101 83.947 0.994 -5.811 0.994 -5.811 0.101 83.947
4966.792 0.102 83.91 0.994 -5.85 0.994 -5.85 0.102 83.91
4991.75 0.103 83.873 0.994 -5.888 0.994 -5.888 0.103 83.873
5016.708 0.103 83.837 0.994 -5.926 0.994 -5.926 0.103 83.837
5041.667 0.104 83.8 0.994 -5.964 0.994 -5.964 0.104 83.8
5066.625 0.105 83.763 0.994 -6.002 0.994 -6.002 0.105 83.763
5091.583 0.105 83.727 0.994 -6.041 0.994 -6.041 0.105 83.727
5116.542 0.106 83.69 0.994 -6.079 0.994 -6.079 0.106 83.69
5141.5 0.107 83.654 0.994 -6.117 0.994 -6.117 0.107 83.654
5166.458 0.107 83.617 0.994 -6.155 0.994 -6.155 0.107 83.617
5191.417 0.108 83.58 0.994 -6.192 0.994 -6.192 0.108 83.58
5216.375 0.109 83.544 0.994 -6.23 0.994 -6.23 0.109 83.544
5241.333 0.109 83.508 0.994 -6.268 0.994 -6.268 0.109 83.508
5266.292 0.11 83.471 0.994 -6.306 0.994 -6.306 0.11 83.471
5291.25 0.11 83.435 0.993 -6.344 0.993 -6.344 0.11 83.435
5316.208 0.111 83.398 0.993 -6.381 0.993 -6.381 0.111 83.398
5341.167 0.112 83.362 0.993 -6.419 0.993 -6.419 0.112 83.362
5366.125 0.112 83.326 0.993 -6.457 0.993 -6.457 0.112 83.326
5391.083 0.113 83.289 0.993 -6.494 0.993 -6.494 0.113 83.289
5416.042 0.114 83.253 0.993 -6.532 0.993 -6.532 0.114 83.253
5441 0.114 83.217 0.993 -6.569 0.993 -6.569 0.114 83.217
5465.958 0.115 83.181 0.993 -6.607 0.993 -6.607 0.115 83.181
5490.917 0.116 83.145 0.993 -6.644 0.993 -6.644 0.116 83.145
5515.875 0.116 83.108 0.993 -6.681 0.993 -6.681 0.116 83.108
5540.833 0.117 83.072 0.993 -6.719 0.993 -6.719 0.117 83.072
5565.792 0.118 83.036 0.993 -6.756 0.993 -6.756 0.118 83.036
5590.75 0.118 83 0.993 -6.793 0.993 -6.793 0.118 83
5615.708 0.119 82.964 0.992 -6.83 0.992 -6.83 0.119 82.964
5640.667 0.12 82.928 0.992 -6.867 0.992 -6.867 0.12 82.928
5665.625 0.12 82.892 0.992 -6.905 0.992 -6.905 0.12 82.892
5690.583 0.121 82.856 0.992 -6.942 0.992 -6.942 0.121 82.856
5715.542 0.122 82.82 0.992 -6.979 0.992 -6.979 0.122 82.82
5740.5 0.122 82.784 0.992 -7.016 0.992 -7.016 0.122 82.784
5765.458 0.123 82.748 0.992 -7.053 0.992 -7.053 0.123 82.748
5790.417 0.123 82.712 0.992 -7.09 0.992 -7.09 0.123 82.712
5815.375 0.124 82.676 0.992 -7.127 0.992 -7.127 0.124 82.676
5840.333 0.125 82.641 0.992 -7.163 0.992 -7.163 0.125 82.641
5865.292 0.125 82.605 0.992 -7.2 0.992 -7.2 0.125 82.605
5890.25 0.126 82.569 0.992 -7.237 0.992 -7.237 0.126 82.569
5915.208 0.127 82.533 0.992 -7.274 0.992 -7.274 0.127 82.533
5940.167 0.127 82.497 0.991 -7.311 0.991 -7.311 0.127 82.497
5965.125 0.128 82.462 0.991 -7.347 0.991 -7.347 0.128 82.462
5990.083 0.129 82.426 0.991 -7.384 0.991 -7.384 0.129 82.426
6015.042 0.129 82.39 0.991 -7.421 0.991 -7.421 0.129 82.39
6040 0.13 82.354 0.991 -7.457 0.991 -7.457 0.13 82.354
6064.958 0.13 82.319 0.991 -7.494 0.991 -7.494 0.13 82.319
6089.917 0.131 82.283 0.991 -7.53 0.991 -7.53 0.131 82.283
6114.875 0.132 82.248 0.991 -7.567 0.991 -7.567 0.132 82.248
6139.833 0.132 82.212 0.991 -7.603 0.991 -7.603 0.132 82.212
6164.792 0.133 82.176 0.991 -7.64 0.991 -7.64 0.133 82.176
6189.75 0.134 82.141 0.991 -7.676 0.991 -7.676 0.134 82.141
6214.708 0.134 82.105 0.991 -7.713 0.991 -7.713 0.134 82.105
6239.667 0.135 82.07 0.99 -7.749 0.99 -7.749 0.135 82.07
6264.625 0.135 82.034 0.99 -7.785 0.99 -7.785 0.135 82.034
6289.583 0.136 81.999 0.99 -7.822 0.99 -7.822 0.136 81.999
6314.542 0.137 81.963 0.99 -7.858 0.99 -7.858 0.137 81.963
6339.5 0.137 81.928 0.99 -7.894 0.99 -7.894 0.137 81.928
6364.458 0.138 81.893 0.99 -7.931 0.99 -7.931 0.138 81.893
6389.417 0.139 81.857 0.99 -7.967 0.99 -7.967 0.139 81.857
6414.375 0.139 81.822 0.99 -8.003 0.99 -8.003 0.139 81.822
6439.333 0.14 81.787 0.99 -8.039 0.99 -8.039 0.14 81.787
6464.292 0.14 81.751 0.99 -8.075 0.99 -8.075 0.14 81.751
6489.25 0.141 81.716 0.99 -8.111 0.99 -8.111 0.141 81.716
6514.208 0.142 81.681 0.989 -8.147 0.989 -8.147 0.142 81.681
6539.167 0.142 81.645 0.989 -8.183 0.989 -8.183 0.142 81.645
6564.125 0.143 81.61 0.989 -8.219 0.989 -8.219 0.143 81.61
6589.083 0.144 81.575 0.989 -8.255 0.989 -8.255 0.144 81.575
6614.042 0.144 81.54 0.989 -8.291 0.989 -8.291 0.144 81.54
6639 0.145 81.504 0.989 -8.327 0.989 -8.327 0.145 81.504
6663.958 0.145 81.469 0.989 -8.363 0.989 -8.363 0.145 81.469
6688.917 0.146 81.434 0.989 -8.399 0.989 -8.399 0.146 81.434
6713.875 0.147 81.399 0.989 -8.435 0.989 -8.435 0.147 81.399
6738.833 0.147 81.364 0.989 -8.471 0.989 -8.471 0.147 81.364
6763.792 0.148 81.329 0.989 -8.507 0.989 -8.507 0.148 81.329
6788.75 0.149 81.294 0.988 -8.542 0.988 -8.542 0.149 81.294
6813.708 0.149 81.259 0.988 -8.578 0.988 -8.578 0.149 81.259
6838.667 0.15 81.224 0.988 -8.614 0.988 -8.614 0.15 81.224
6863.625 0.15 81.189 0.988 -8.65 0.988 -8.65 0.15 81.189
6888.583 0.151 81.154 0.988 -8.685 0.988 -8.685 0.151 81.154
6913.542 0.152 81.119 0.988 -8.721 0.988 -8.721 0.152 81.119
6938.5 0.152 81.084 0.988 -8.756 0.988 -8.756 0.152 81.084
6963.458 0.153 81.049 0.988 -8.792 0.988 -8.792 0.153 81.049
6988.417 0.153 81.014 0.988 -8.828 0.988 -8.828 0.153 81.014
7013.375 0.154 80.979 0.988 -8.863 0.988 -8.863 0.154 80.979
7038.333 0.155 80.944 0.988 -8.899 0.988 -8.899 0.155 80.944
7063.292 0.155 80.909 0.987 -8.934 0.987 -8.934 0.155 80.909
7088.25 0.156 80.874 0.987 -8.97 0.987 -8.97 0.156 80.874
7113.208 0.157 80.839 0.987 -9.005 0.987 -9.005 0.157 80.839
7138.167 0.157 80.804 0.987 -9.041 0.987 -9.041 0.157 80.804
7163.125 0.158 80.77 0.987 -9.076 0.987 -9.076 0.158 80.77
7188.083 0.158 80.735 0.987 -9.112 0.987 -9.112 0.158 80.735
7213.042 0.159 80.7 0.987 -9.147 0.987 -9.147 0.159 80.7
7238 0.16 80.665 0.987 -9.182 0.987 -9.182 0.16 80.665
7262.958 0.16 80.63 0.987 -9.218 0.987 -9.218 0.16 80.63
7287.917 0.161 80.596 0.987 -9.253 0.987 -9.253 0.161 80.596
7312.875 0.161 80.561 0.986 -9.288 0.986 -9.288 0.161 80.561
7337.833 0.162 80.526 0.986 -9.324 0.986 -9.324 0.162 80.526
7362.792 0.163 80.492 0.986 -9.359 0.986 -9.359 0.163 80.492
7387.75 0.163 80.457 0.986 -9.394 0.986 -9.394 0.163 80.457
7412.708 0.164 80.422 0.986 -9.429 0.986 -9.429 0.164 80.422
7437.667 0.164 80.388 0.986 -9.465 0.986 -9.465 0.164 80.388
7462.625 0.165 80.353 0.986 -9.5 0.986 -9.5 0.165 80.353
7487.583 0.166 80.318 0.986 -9.535 0.986 -9.535 0.166 80.318
7512.542 0.166 80.284 0.986 -9.57 0.986 -9.57 0.166 80.284
7537.5 0.167 80.249 0.986 -9.605 0.986 -9.605 0.167 80.249
7562.458 0.167 80.215 0.985 -9.64 0.985 -9.64 0.167 80.215
7587.417 0.168 80.18 0.985 -9.675 0.985 -9.675 0.168 80.18
7612.375 0.169 80.146 0.985 -9.71 0.985 -9.71 0.169 80.146
7637.333 0.169 80.111 0.985 -9.745 0.985 -9.745 0.169 80.111
7662.292 0.17 80.077 0.985 -9.78 0.985 -9.78 0.17 80.077
7687.25 0.17 80.042 0.985 -9.815 0.985 -9.815 0.17 80.042
7712.208 0.171 80.008 0.985 -9.85 0.985 -9.85 0.171 80.008
7737.167 0.172 79.973 0.985 -9.885 0.985 -9.885 0.172 79.973
7762.125 0.172 79.939 0.985 -9.92 0.985 -9.92 0.172 79.939
7787.083 0.173 79.904 0.985 -9.955 0.985 -9.955 0.173 79.904
7812.042 0.173 79.87 0.984 -9.99 0.984 -9.99 0.173 79.87
7837 0.174 79.836 0.984 -10.025 0.984 -10.025 0.174 79.836
7861.958 0.175 79.801 0.984 -10.06 0.984 -10.06 0.175 79.801
7886.917 0.175 79.767 0.984 -10.095 0.984 -10.095 0.175 79.767
7911.875 0.176 79.733 0.984 -10.129 0.984 -10.129 0.176 79.733
7936.833 0.176 79.698 0.984 -10.164 0.984 -10.164 0.176 79.698
7961.792 0.177 79.664 0.984 -10.199 0.984 -10.199 0.177 79.664
7986.75 0.178 79.63 0.984 -10.234 0.984 -10.234 0.178 79.63
8011.708 0.178 79.595 0.984 -10.269 0.984 -10.269 0.178 79.595
8036.667 0.179 79.561 0.983 -10.303 0.983 -10.303 0.179 79.561
8061.625 0.179 79.527 0.983 -10.338 0.983 -10.338 0.179 79.527
8086.583 0.18 79.493 0.983 -10.373 0.983 -10.373 0.18 79.493
8111.542 0.181 79.458 0.983 -10.407 0.983 -10.407 0.181 79.458
8136.5 0.181 79.424 0.983 -10.442 0.983 -10.442 0.181 79.424
8161.458 0.182 79.39 0.983 -10.477 0.983 -10.477 0.182 79.39
8186.417 0.182 79.356 0.983 -10.511 0.983 -10.511 0.182 79.356
8211.375 0.183 79.322 0.983 -10.546 0.983 -10.546 0.183 79.322
8236.333 0.184 79.288 0.983 -10.58 0.983 -10.58 0.184 79.288
8261.292 0.184 79.253 0.982 -10.615 0.982 -10.615 0.184 79.253
8286.25 0.185 79.219 0.982 -10.65 0.982 -10.65 0.185 79.219
8311.208 0.185 79.185 0.982 -10.684 0.982 -10.684 0.185 79.185
8336.167 0.186 79.151 0.982 -10.719 0.982 -10.719 0.186 79.151
8361.125 0.187 79.117 0.982 -10.753 0.982 -10.753 0.187 79.117
