# MHZ S MA R 50

50 1 -1.71 0.03 88.286 0.03 88.286 1 -1.71
74.958 0.999 -2.562 0.045 87.432 0.045 87.432 0.999 -2.562
99.917 0.998 -3.414 0.06 86.578 0.06 86.578 0.998 -3.414
124.875 0.997 -4.264 0.074 85.726 0.074 85.726 0.997 -4.264
149.833 0.996 -5.112 0.089 84.875 0.089 84.875 0.996 -5.112
174.792 0.995 -5.959 0.104 84.027 0.104 84.027 0.995 -5.959
199.75 0.993 -6.803 0.118 83.181 0.118 83.181 0.993 -6.803
224.708 0.991 -7.644 0.133 82.337 0.133 82.337 0.991 -7.644
249.667 0.989 -8.483 0.148 81.496 0.148 81.496 0.989 -8.483
274.625 0.987 -9.318 0.162 80.659 0.162 80.659 0.987 -9.318
299.583 0.984 -10.15 0.176 79.825 0.176 79.825 0.984 -10.15
324.542 0.982 -10.978 0.19 78.995 0.19 78.995 0.982 -10.978
349.5 0.979 -11.802 0.205 78.169 0.205 78.169 0.979 -11.802
374.458 0.976 -12.622 0.219 77.347 0.219 77.347 0.976 -12.622
399.417 0.972 -13.437 0.232 76.53 0.232 76.53 0.972 -13.437
424.375 0.969 -14.247 0.246 75.718 0.246 75.718 0.969 -14.247
449.333 0.966 -15.052 0.26 74.911 0.26 74.911 0.966 -15.052
474.292 0.962 -15.852 0.273 74.109 0.273 74.109 0.962 -15.852
499.25 0.958 -16.646 0.286 73.313 0.286 73.313 0.958 -16.646
524.208 0.954 -17.434 0.3 72.522 0.3 72.522 0.954 -17.434
549.167 0.95 -18.217 0.313 71.738 0.313 71.738 0.95 -18.217
574.125 0.945 -18.993 0.325 70.959 0.325 70.959 0.945 -18.993
599.083 0.941 -19.763 0.338 70.187 0.338 70.187 0.941 -19.763
624.042 0.936 -20.527 0.351 69.422 0.351 69.422 0.936 -20.527
649 0.931 -21.284 0.363 68.663 0.363 68.663 0.931 -21.284
673.958 0.927 -22.034 0.375 67.91 0.375 67.91 0.927 -22.034
698.917 0.922 -22.777 0.387 67.165 0.387 67.165 0.922 -22.777
723.875 0.917 -23.513 0.399 66.427 0.399 66.427 0.917 -23.513
748.833 0.911 -24.243 0.411 65.695 0.411 65.695 0.911 -24.243
773.792 0.906 -24.965 0.422 64.971 0.422 64.971 0.906 -24.965
798.75 0.901 -25.679 0.433 64.254 0.433 64.254 0.901 -25.679
823.708 0.895 -26.387 0.444 63.545 0.444 63.545 0.895 -26.387
848.667 0.89 -27.087 0.455 62.843 0.455 62.843 0.89 -27.087
873.625 0.884 -27.779 0.466 62.148 0.466 62.148 0.884 -27.779
898.583 0.878 -28.464 0.477 61.461 0.477 61.461 0.878 -28.464
923.542 0.873 -29.141 0.487 60.782 0.487 60.782 0.873 -29.141
948.5 0.867 -29.811 0.497 60.11 0.497 60.11 0.867 -29.811
973.458 0.861 -30.473 0.507 59.446 0.507 59.446 0.861 -30.473
998.417 0.855 -31.128 0.517 58.789 0.517 58.789 0.855 -31.128
1023.375 0.849 -31.775 0.527 58.14 0.527 58.14 0.849 -31.775
1048.333 0.843 -32.414 0.536 57.499 0.536 57.499 0.843 -32.414
1073.292 0.837 -33.045 0.545 56.865 0.545 56.865 0.837 -33.045
1098.25 0.831 -33.669 0.554 56.239 0.554 56.239 0.831 -33.669
1123.208 0.825 -34.286 0.563 55.62 0.563 55.62 0.825 -34.286
1148.167 0.819 -34.895 0.572 55.009 0.572 55.009 0.819 -34.895
1173.125 0.813 -35.496 0.581 54.406 0.581 54.406 0.813 -35.496
1198.083 0.807 -36.09 0.589 53.81 0.589 53.81 0.807 -36.09
1223.042 0.801 -36.676 0.597 53.221 0.597 53.221 0.801 -36.676
1248 0.795 -37.255 0.605 52.64 0.605 52.64 0.795 -37.255
1272.958 0.789 -37.827 0.613 52.066 0.613 52.066 0.789 -37.827
1297.917 0.783 -38.391 0.621 51.5 0.621 51.5 0.783 -38.391
1322.875 0.776 -38.948 0.629 50.941 0.629 50.941 0.776 -38.948
1347.833 0.77 -39.498 0.636 50.389 0.636 50.389 0.77 -39.498
1372.792 0.764 -40.04 0.643 49.844 0.643 49.844 0.764 -40.04
1397.75 0.758 -40.576 0.65 49.306 0.65 49.306 0.758 -40.576
1422.708 0.752 -41.105 0.657 48.775 0.657 48.775 0.752 -41.105
1447.667 0.746 -41.626 0.664 48.251 0.664 48.251 0.746 -41.626
1472.625 0.74 -42.141 0.671 47.734 0.671 47.734 0.74 -42.141
1497.583 0.734 -42.649 0.678 47.224 0.678 47.224 0.734 -42.649
1522.542 0.728 -43.151 0.684 46.72 0.684 46.72 0.728 -43.151
1547.5 0.722 -43.646 0.69 46.223 0.69 46.223 0.722 -43.646
1572.458 0.716 -44.134 0.696 45.732 0.696 45.732 0.716 -44.134
1597.417 0.71 -44.616 0.702 45.248 0.702 45.248 0.71 -44.616
1622.375 0.704 -45.091 0.708 44.771 0.708 44.771 0.704 -45.091
1647.333 0.698 -45.56 0.714 44.299 0.714 44.299 0.698 -45.56
1672.292 0.693 -46.023 0.72 43.834 0.72 43.834 0.693 -46.023
1697.25 0.687 -46.48 0.725 43.375 0.725 43.375 0.687 -46.48
1722.208 0.681 -46.931 0.731 42.922 0.731 42.922 0.681 -46.931
1747.167 0.675 -47.376 0.736 42.474 0.736 42.474 0.675 -47.376
1772.125 0.67 -47.815 0.741 42.033 0.741 42.033 0.67 -47.815
1797.083 0.664 -48.248 0.746 41.598 0.746 41.598 0.664 -48.248
1822.042 0.658 -48.675 0.751 41.168 0.751 41.168 0.658 -48.675
1847 0.653 -49.097 0.756 40.744 0.756 40.744 0.653 -49.097
1871.958 0.647 -49.513 0.761 40.325 0.761 40.325 0.647 -49.513
1896.917 0.642 -49.924 0.765 39.912 0.765 39.912 0.642 -49.924
1921.875 0.636 -50.33 0.77 39.504 0.77 39.504 0.636 -50.33
1946.833 0.631 -50.73 0.774 39.101 0.774 39.101 0.631 -50.73
1971.792 0.625 -51.125 0.779 38.704 0.779 38.704 0.625 -51.125
1996.75 0.62 -51.515 0.783 38.311 0.783 38.311 0.62 -51.515
2021.708 0.615 -51.9 0.787 37.924 0.787 37.924 0.615 -51.9
2046.667 0.609 -52.28 0.791 37.542 0.791 37.542 0.609 -52.28
2071.625 0.604 -52.654 0.795 37.164 0.795 37.164 0.604 -52.654
2096.583 0.599 -53.025 0.799 36.792 0.799 36.792 0.599 -53.025
2121.542 0.594 -53.39 0.803 36.424 0.803 36.424 0.594 -53.39
2146.5 0.589 -53.751 0.806 36.061 0.806 36.061 0.589 -53.751
2171.458 0.584 -54.107 0.81 35.702 0.81 35.702 0.584 -54.107
2196.417 0.579 -54.459 0.814 35.348 0.814 35.348 0.579 -54.459
2221.375 0.574 -54.806 0.817 34.998 0.817 34.998 0.574 -54.806
2246.333 0.569 -55.149 0.821 34.653 0.821 34.653 0.569 -55.149
2271.292 0.564 -55.487 0.824 34.312 0.824 34.312 0.564 -55.487
2296.25 0.559 -55.822 0.827 33.975 0.827 33.975 0.559 -55.822
2321.208 0.554 -56.152 0.831 33.642 0.831 33.642 0.554 -56.152
2346.167 0.549 -56.478 0.834 33.313 0.834 33.313 0.549 -56.478
2371.125 0.544 -56.8 0.837 32.988 0.837 32.988 0.544 -56.8
2396.083 0.54 -57.118 0.84 32.668 0.84 32.668 0.54 -57.118
2421.042 0.535 -57.433 0.843 32.351 0.843 32.351 0.535 -57.433
2446 0.53 -57.743 0.846 32.038 0.846 32.038 0.53 -57.743
2470.958 0.526 -58.05 0.849 31.728 0.849 31.728 0.526 -58.05
2495.917 0.521 -58.353 0.851 31.423 0.851 31.423 0.521 -58.353
2520.875 0.517 -58.652 0.854 31.121 0.854 31.121 0.517 -58.652
2545.833 0.512 -58.948 0.857 30.822 0.857 30.822 0.512 -58.948
2570.792 0.508 -59.24 0.859 30.527 0.859 30.527 0.508 -59.24
2595.75 0.504 -59.529 0.862 30.236 0.862 30.236 0.504 -59.529
2620.708 0.499 -59.814 0.864 29.947 0.864 29.947 0.499 -59.814
2645.667 0.495 -60.096 0.867 29.663 0.867 29.663 0.495 -60.096
2670.625 0.491 -60.375 0.869 29.381 0.869 29.381 0.491 -60.375
2695.583 0.486 -60.651 0.872 29.103 0.872 29.103 0.486 -60.651
2720.542 0.482 -60.923 0.874 28.827 0.874 28.827 0.482 -60.923
2745.5 0.478 -61.192 0.876 28.555 0.876 28.555 0.478 -61.192
2770.458 0.474 -61.459 0.878 28.286 0.878 28.286 0.474 -61.459
2795.417 0.47 -61.722 0.881 28.02 0.881 28.02 0.47 -61.722
2820.375 0.466 -61.982 0.883 27.757 0.883 27.757 0.466 -61.982
2845.333 0.462 -62.239 0.885 27.497 0.885 27.497 0.462 -62.239
2870.292 0.458 -62.494 0.887 27.24 0.887 27.24 0.458 -62.494
2895.25 0.454 -62.745 0.889 26.985 0.889 26.985 0.454 -62.745
2920.208 0.45 -62.994 0.891 26.734 0.891 26.734 0.45 -62.994
2945.167 0.446 -63.24 0.893 26.485 0.893 26.485 0.446 -63.24
2970.125 0.442 -63.483 0.895 26.238 0.895 26.238 0.442 -63.483
2995.083 0.438 -63.724 0.897 25.995 0.897 25.995 0.438 -63.724
3020.042 0.435 -63.962 0.899 25.753 0.899 25.753 0.435 -63.962
3045 0.431 -64.198 0.9 25.515 0.9 25.515 0.431 -64.198
3069.958 0.427 -64.431 0.902 25.279 0.902 25.279 0.427 -64.431
3094.917 0.423 -64.661 0.904 25.045 0.904 25.045 0.423 -64.661
3119.875 0.42 -64.889 0.906 24.814 0.906 24.814 0.42 -64.889
3144.833 0.416 -65.115 0.907 24.585 0.907 24.585 0.416 -65.115
3169.792 0.412 -65.338 0.909 24.359 0.909 24.359 0.412 -65.338
3194.75 0.409 -65.559 0.91 24.135 0.91 24.135 0.409 -65.559
3219.708 0.405 -65.778 0.912 23.913 0.912 23.913 0.405 -65.778
3244.667 0.402 -65.994 0.914 23.693 0.914 23.693 0.402 -65.994
3269.625 0.398 -66.208 0.915 23.476 0.915 23.476 0.398 -66.208
3294.583 0.395 -66.42 0.917 23.26 0.917 23.26 0.395 -66.42
3319.542 0.391 -66.63 0.918 23.047 0.918 23.047 0.391 -66.63
3344.5 0.388 -66.838 0.919 22.836 0.919 22.836 0.388 -66.838
3369.458 0.385 -67.044 0.921 22.627 0.921 22.627 0.385 -67.044
3394.417 0.381 -67.247 0.922 22.42 0.922 22.42 0.381 -67.247
3419.375 0.378 -67.449 0.924 22.215 0.924 22.215 0.378 -67.449
3444.333 0.375 -67.648 0.925 22.012 0.925 22.012 0.375 -67.648
3469.292 0.372 -67.846 0.926 21.811 0.926 21.811 0.372 -67.846
3494.25 0.368 -68.042 0.927 21.612 0.927 21.612 0.368 -68.042
3519.208 0.365 -68.236 0.929 21.415 0.929 21.415 0.365 -68.236
3544.167 0.362 -68.428 0.93 21.219 0.93 21.219 0.362 -68.428
3569.125 0.359 -68.618 0.931 21.025 0.931 21.025 0.359 -68.618
3594.083 0.356 -68.806 0.932 20.834 0.932 20.834 0.356 -68.806
3619.042 0.353 -68.992 0.934 20.643 0.934 20.643 0.353 -68.992
3644 0.349 -69.177 0.935 20.455 0.935 20.455 0.349 -69.177
3668.958 0.346 -69.36 0.936 20.268 0.936 20.268 0.346 -69.36
3693.917 0.343 -69.541 0.937 20.083 0.937 20.083 0.343 -69.541
3718.875 0.34 -69.721 0.938 19.9 0.938 19.9 0.34 -69.721
3743.833 0.337 -69.899 0.939 19.718 0.939 19.718 0.337 -69.899
3768.792 0.334 -70.075 0.94 19.538 0.94 19.538 0.334 -70.075
3793.75 0.332 -70.25 0.941 19.36 0.941 19.36 0.332 -70.25
3818.708 0.329 -70.423 0.942 19.183 0.942 19.183 0.329 -70.423
3843.667 0.326 -70.594 0.943 19.007 0.943 19.007 0.326 -70.594
3868.625 0.323 -70.764 0.944 18.834 0.944 18.834 0.323 -70.764
3893.583 0.32 -70.933 0.945 18.661 0.945 18.661 0.32 -70.933
3918.542 0.317 -71.1 0.946 18.49 0.946 18.49 0.317 -71.1
3943.5 0.314 -71.265 0.947 18.321 0.947 18.321 0.314 -71.265
3968.458 0.312 -71.429 0.948 18.153 0.948 18.153 0.312 -71.429
3993.417 0.309 -71.591 0.949 17.986 0.949 17.986 0.309 -71.591
4018.375 0.306 -71.753 0.95 17.821 0.95 17.821 0.306 -71.753
4043.333 0.303 -71.912 0.951 17.657 0.951 17.657 0.303 -71.912
4068.292 0.301 -72.071 0.951 17.494 0.951 17.494 0.301 -72.071
4093.25 0.298 -72.228 0.952 17.333 0.952 17.333 0.298 -72.228
4118.208 0.295 -72.383 0.953 17.173 0.953 17.173 0.295 -72.383
4143.167 0.293 -72.537 0.954 17.014 0.954 17.014 0.293 -72.537
4168.125 0.29 -72.69 0.955 16.857 0.955 16.857 0.29 -72.69
4193.083 0.287 -72.842 0.956 16.701 0.956 16.701 0.287 -72.842
4218.042 0.285 -72.993 0.956 16.546 0.956 16.546 0.285 -72.993
4243 0.282 -73.142 0.957 16.392 0.957 16.392 0.282 -73.142
4267.958 0.28 -73.29 0.958 16.239 0.958 16.239 0.28 -73.29
4292.917 0.277 -73.436 0.959 16.088 0.959 16.088 0.277 -73.436
4317.875 0.275 -73.582 0.959 15.938 0.959 15.938 0.275 -73.582
4342.833 0.272 -73.726 0.96 15.789 0.96 15.789 0.272 -73.726
4367.792 0.27 -73.869 0.961 15.641 0.961 15.641 0.27 -73.869
4392.75 0.267 -74.011 0.961 15.494 0.961 15.494 0.267 -74.011
4417.708 0.265 -74.152 0.962 15.348 0.962 15.348 0.265 -74.152
4442.667 0.262 -74.291 0.963 15.204 0.963 15.204 0.262 -74.291
4467.625 0.26 -74.43 0.963 15.06 0.963 15.06 0.26 -74.43
4492.583 0.257 -74.567 0.964 14.918 0.964 14.918 0.257 -74.567
4517.542 0.255 -74.703 0.965 14.776 0.965 14.776 0.255 -74.703
4542.5 0.253 -74.839 0.965 14.636 0.965 14.636 0.253 -74.839
4567.458 0.25 -74.973 0.966 14.497 0.966 14.497 0.25 -74.973
4592.417 0.248 -75.106 0.966 14.358 0.966 14.358 0.248 -75.106
4617.375 0.246 -75.238 0.967 14.221 0.967 14.221 0.246 -75.238
4642.333 0.243 -75.369 0.968 14.084 0.968 14.084 0.243 -75.369
4667.292 0.241 -75.499 0.968 13.949 0.968 13.949 0.241 -75.499
4692.25 0.239 -75.628 0.969 13.814 0.969 13.814 0.239 -75.628
4717.208 0.237 -75.756 0.969 13.681 0.969 13.681 0.237 -75.756
4742.167 0.234 -75.882 0.97 13.548 0.97 13.548 0.234 -75.882
4767.125 0.232 -76.008 0.97 13.416 0.97 13.416 0.232 -76.008
4792.083 0.23 -76.133 0.971 13.286 0.971 13.286 0.23 -76.133
4817.042 0.228 -76.257 0.971 13.156 0.971 13.156 0.228 -76.257
4842 0.225 -76.381 0.972 13.026 0.972 13.026 0.225 -76.381
4866.958 0.223 -76.503 0.972 12.898 0.972 12.898 0.223 -76.503
4891.917 0.221 -76.624 0.973 12.771 0.973 12.771 0.221 -76.624
4916.875 0.219 -76.744 0.973 12.644 0.973 12.644 0.219 -76.744
4941.833 0.217 -76.864 0.974 12.519 0.974 12.519 0.217 -76.864
4966.792 0.215 -76.982 0.974 12.394 0.974 12.394 0.215 -76.982
4991.75 0.213 -77.1 0.975 12.27 0.975 12.27 0.213 -77.1
5016.708 0.21 -77.216 0.975 12.146 0.975 12.146 0.21 -77.216
5041.667 0.208 -77.332 0.976 12.024 0.976 12.024 0.208 -77.332
5066.625 0.206 -77.447 0.976 11.902 0.976 11.902 0.206 -77.447
5091.583 0.204 -77.561 0.977 11.781 0.977 11.781 0.204 -77.561
5116.542 0.202 -77.674 0.977 11.661 0.977 11.661 0.202 -77.674
5141.5 0.2 -77.787 0.977 11.542 0.977 11.542 0.2 -77.787
5166.458 0.198 -77.898 0.978 11.423 0.978 11.423 0.198 -77.898
5191.417 0.196 -78.009 0.978 11.305 0.978 11.305 0.196 -78.009
5216.375 0.194 -78.119 0.979 11.188 0.979 11.188 0.194 -78.119
5241.333 0.192 -78.228 0.979 11.071 0.979 11.071 0.192 -78.228
5266.292 0.19 -78.336 0.979 10.955 0.979 10.955 0.19 -78.336
5291.25 0.188 -78.443 0.98 10.84 0.98 10.84 0.188 -78.443
5316.208 0.186 -78.55 0.98 10.726 0.98 10.726 0.186 -78.55
5341.167 0.184 -78.656 0.981 10.612 0.981 10.612 0.184 -78.656
5366.125 0.182 -78.761 0.981 10.499 0.981 10.499 0.182 -78.761
5391.083 0.18 -78.865 0.981 10.387 0.981 10.387 0.18 -78.865
5416.042 0.178 -78.968 0.982 10.275 0.982 10.275 0.178 -78.968
5441 0.176 -79.071 0.982 10.164 0.982 10.164 0.176 -79.071
5465.958 0.175 -79.173 0.982 10.053 0.982 10.053 0.175 -79.173
5490.917 0.173 -79.274 0.983 9.943 0.983 9.943 0.173 -79.274
5515.875 0.171 -79.374 0.983 9.834 0.983 9.834 0.171 -79.374
5540.833 0.169 -79.474 0.983 9.726 0.983 9.726 0.169 -79.474
5565.792 0.167 -79.573 0.984 9.618 0.984 9.618 0.167 -79.573
5590.75 0.165 -79.671 0.984 9.51 0.984 9.51 0.165 -79.671
5615.708 0.163 -79.768 0.984 9.404 0.984 9.404 0.163 -79.768
5640.667 0.162 -79.865 0.985 9.297 0.985 9.297 0.162 -79.865
5665.625 0.16 -79.96 0.985 9.192 0.985 9.192 0.16 -79.96
5690.583 0.158 -80.055 0.985 9.087 0.985 9.087 0.158 -80.055
5715.542 0.156 -80.15 0.985 8.982 0.985 8.982 0.156 -80.15
5740.5 0.154 -80.243 0.986 8.878 0.986 8.878 0.154 -80.243
5765.458 0.153 -80.336 0.986 8.775 0.986 8.775 0.153 -80.336
5790.417 0.151 -80.428 0.986 8.672 0.986 8.672 0.151 -80.428
5815.375 0.149 -80.52 0.986 8.57 0.986 8.57 0.149 -80.52
5840.333 0.147 -80.61 0.987 8.468 0.987 8.468 0.147 -80.61
5865.292 0.146 -80.7 0.987 8.367 0.987 8.367 0.146 -80.7
5890.25 0.144 -80.789 0.987 8.267 0.987 8.267 0.144 -80.789
5915.208 0.142 -80.878 0.987 8.166 0.987 8.166 0.142 -80.878
5940.167 0.14 -80.965 0.988 8.067 0.988 8.067 0.14 -80.965
5965.125 0.139 -81.052 0.988 7.968 0.988 7.968 0.139 -81.052
5990.083 0.137 -81.138 0.988 7.869 0.988 7.869 0.137 -81.138
6015.042 0.135 -81.224 0.988 7.771 0.988 7.771 0.135 -81.224
6040 0.134 -81.308 0.989 7.673 0.989 7.673 0.134 -81.308
6064.958 0.132 -81.392 0.989 7.576 0.989 7.576 0.132 -81.392
6089.917 0.13 -81.475 0.989 7.48 0.989 7.48 0.13 -81.475
6114.875 0.129 -81.558 0.989 7.383 0.989 7.383 0.129 -81.558
6139.833 0.127 -81.639 0.99 7.288 0.99 7.288 0.127 -81.639
6164.792 0.125 -81.72 0.99 7.193 0.99 7.193 0.125 -81.72
6189.75 0.124 -81.8 0.99 7.098 0.99 7.098 0.124 -81.8
6214.708 0.122 -81.88 0.99 7.004 0.99 7.004 0.122 -81.88
6239.667 0.12 -81.958 0.99 6.91 0.99 6.91 0.12 -81.958
6264.625 0.119 -82.036 0.991 6.816 0.991 6.816 0.119 -82.036
6289.583 0.117 -82.113 0.991 6.723 0.991 6.723 0.117 -82.113
6314.542 0.115 -82.189 0.991 6.631 0.991 6.631 0.115 -82.189
6339.5 0.114 -82.264 0.991 6.539 0.991 6.539 0.114 -82.264
6364.458 0.112 -82.339 0.991 6.447 0.991 6.447 0.112 -82.339
6389.417 0.111 -82.413 0.991 6.356 0.991 6.356 0.111 -82.413
6414.375 0.109 -82.485 0.992 6.265 0.992 6.265 0.109 -82.485
6439.333 0.108 -82.557 0.992 6.175 0.992 6.175 0.108 -82.557
6464.292 0.106 -82.628 0.992 6.085 0.992 6.085 0.106 -82.628
6489.25 0.104 -82.699 0.992 5.995 0.992 5.995 0.104 -82.699
6514.208 0.103 -82.768 0.992 5.906 0.992 5.906 0.103 -82.768
6539.167 0.101 -82.836 0.992 5.817 0.992 5.817 0.101 -82.836
6564.125 0.1 -82.904 0.993 5.729 0.993 5.729 0.1 -82.904
6589.083 0.098 -82.97 0.993 5.641 0.993 5.641 0.098 -82.97
6614.042 0.097 -83.036 0.993 5.553 0.993 5.553 0.097 -83.036
6639 0.095 -83.101 0.993 5.466 0.993 5.466 0.095 -83.101
6663.958 0.094 -83.164 0.993 5.379 0.993 5.379 0.094 -83.164
6688.917 0.092 -83.227 0.993 5.292 0.993 5.292 0.092 -83.227
6713.875 0.091 -83.288 0.993 5.206 0.993 5.206 0.091 -83.288
6738.833 0.089 -83.349 0.994 5.121 0.994 5.121 0.089 -83.349
6763.792 0.088 -83.408 0.994 5.035 0.994 5.035 0.088 -83.408
6788.75 0.086 -83.466 0.994 4.95 0.994 4.95 0.086 -83.466
6813.708 0.085 -83.523 0.994 4.866 0.994 4.866 0.085 -83.523
6838.667 0.083 -83.579 0.994 4.781 0.994 4.781 0.083 -83.579
6863.625 0.082 -83.633 0.994 4.697 0.994 4.697 0.082 -83.633
6888.583 0.08 -83.687 0.994 4.614 0.994 4.614 0.08 -83.687
6913.542 0.079 -83.738 0.994 4.53 0.994 4.53 0.079 -83.738
6938.5 0.078 -83.789 0.995 4.448 0.995 4.448 0.078 -83.789
6963.458 0.076 -83.838 0.995 4.365 0.995 4.365 0.076 -83.838
6988.417 0.075 -83.886 0.995 4.283 0.995 4.283 0.075 -83.886
7013.375 0.073 -83.932 0.995 4.201 0.995 4.201 0.073 -83.932
7038.333 0.072 -83.976 0.995 4.119 0.995 4.119 0.072 -83.976
7063.292 0.07 -84.019 0.995 4.038 0.995 4.038 0.07 -84.019
7088.25 0.069 -84.06 0.995 3.957 0.995 3.957 0.069 -84.06
7113.208 0.068 -84.1 0.995 3.876 0.995 3.876 0.068 -84.1
7138.167 0.066 -84.137 0.995 3.796 0.995 3.796 0.066 -84.137
7163.125 0.065 -84.172 0.996 3.716 0.996 3.716 0.065 -84.172
7188.083 0.063 -84.206 0.996 3.636 0.996 3.636 0.063 -84.206
7213.042 0.062 -84.237 0.996 3.557 0.996 3.557 0.062 -84.237
7238 0.061 -84.266 0.996 3.478 0.996 3.478 0.061 -84.266
7262.958 0.059 -84.292 0.996 3.399 0.996 3.399 0.059 -84.292
7287.917 0.058 -84.316 0.996 3.321 0.996 3.321 0.058 -84.316
7312.875 0.057 -84.337 0.996 3.242 0.996 3.242 0.057 -84.337
7337.833 0.055 -84.355 0.996 3.164 0.996 3.164 0.055 -84.355
7362.792 0.054 -84.371 0.996 3.087 0.996 3.087 0.054 -84.371
7387.75 0.053 -84.383 0.996 3.009 0.996 3.009 0.053 -84.383
7412.708 0.051 -84.391 0.996 2.932 0.996 2.932 0.051 -84.391
7437.667 0.05 -84.396 0.996 2.856 0.996 2.856 0.05 -84.396
7462.625 0.049 -84.397 0.996 2.779 0.996 2.779 0.049 -84.397
7487.583 0.047 -84.393 0.996 2.703 0.996 2.703 0.047 -84.393
7512.542 0.046 -84.385 0.997 2.627 0.997 2.627 0.046 -84.385
7537.5 0.045 -84.372 0.997 2.551 0.997 2.551 0.045 -84.372
7562.458 0.043 -84.354 0.997 2.476 0.997 2.476 0.043 -84.354
7587.417 0.042 -84.33 0.997 2.401 0.997 2.401 0.042 -84.33
7612.375 0.041 -84.3 0.997 2.326 0.997 2.326 0.041 -84.3
7637.333 0.039 -84.263 0.997 2.251 0.997 2.251 0.039 -84.263
7662.292 0.038 -84.218 0.997 2.177 0.997 2.177 0.038 -84.218
7687.25 0.037 -84.166 0.997 2.103 0.997 2.103 0.037 -84.166
7712.208 0.035 -84.104 0.997 2.029 0.997 2.029 0.035 -84.104
7737.167 0.034 -84.033 0.997 1.956 0.997 1.956 0.034 -84.033
7762.125 0.033 -83.95 0.997 1.882 0.997 1.882 0.033 -83.95
7787.083 0.032 -83.855 0.997 1.809 0.997 1.809 0.032 -83.855
7812.042 0.03 -83.747 0.997 1.736 0.997 1.736 0.03 -83.747
7837 0.029 -83.623 0.997 1.664 0.997 1.664 0.029 -83.623
7861.958 0.028 -83.482 0.997 1.591 0.997 1.591 0.028 -83.482
7886.917 0.027 -83.322 0.997 1.519 0.997 1.519 0.027 -83.322
7911.875 0.025 -83.139 0.997 1.447 0.997 1.447 0.025 -83.139
7936.833 0.024 -82.93 0.997 1.376 0.997 1.376 0.024 -82.93
7961.792 0.023 -82.692 0.997 1.304 0.997 1.304 0.023 -82.692
7986.75 0.022 -82.419 0.997 1.233 0.997 1.233 0.022 -82.419
8011.708 0.02 -82.106 0.997 1.162 0.997 1.162 0.02 -82.106
8036.667 0.019 -81.745 0.997 1.092 0.997 1.092 0.019 -81.745
8061.625 0.018 -81.327 0.997 1.021 0.997 1.021 0.018 -81.327
8086.583 0.017 -80.839 0.997 0.951 0.997 0.951 0.017 -80.839
8111.542 0.016 -80.266 0.997 0.881 0.997 0.881 0.016 -80.266
8136.5 0.014 -79.587 0.998 0.811 0.998 0.811 0.014 -79.587
8161.458 0.013 -78.775 0.998 0.741 0.998 0.741 0.013 -78.775
8186.417 0.012 -77.789 0.998 0.672 0.998 0.672 0.012 -77.789
