# MHZ S MA R 50

50 0.893 -26.698 0.449 63.288 0.449 63.288 0.893 -26.698
74.958 0.798 -37.031 0.602 52.948 0.602 52.948 0.798 -37.031
99.917 0.704 -45.184 0.709 44.788 0.709 44.788 0.704 -45.184
124.875 0.621 -51.545 0.783 38.419 0.783 38.419 0.621 -51.545
149.833 0.551 -56.536 0.834 33.421 0.834 33.421 0.551 -56.536
174.792 0.492 -60.503 0.87 29.447 0.87 29.447 0.492 -60.503
199.75 0.442 -63.705 0.897 26.238 0.897 26.238 0.442 -63.705
224.708 0.4 -66.331 0.916 23.605 0.916 23.605 0.4 -66.331
249.667 0.365 -68.516 0.931 21.413 0.931 21.413 0.365 -68.516
274.625 0.335 -70.358 0.942 19.563 0.942 19.563 0.335 -70.358
299.583 0.309 -71.931 0.951 17.983 0.951 17.983 0.309 -71.931
324.542 0.286 -73.288 0.958 16.618 0.958 16.618 0.286 -73.288
349.5 0.266 -74.47 0.963 15.428 0.963 15.428 0.266 -74.47
374.458 0.248 -75.509 0.968 14.381 0.968 14.381 0.248 -75.509
399.417 0.233 -76.43 0.972 13.453 0.972 13.453 0.233 -76.43
424.375 0.219 -77.251 0.975 12.624 0.975 12.624 0.219 -77.251
449.333 0.206 -77.988 0.978 11.878 0.978 11.878 0.206 -77.988
474.292 0.194 -78.654 0.98 11.205 0.98 11.205 0.194 -78.654
499.25 0.184 -79.258 0.982 10.592 0.982 10.592 0.184 -79.258
524.208 0.174 -79.809 0.984 10.033 0.984 10.033 0.174 -79.809
549.167 0.165 -80.313 0.986 9.519 0.986 9.519 0.165 -80.313
574.125 0.157 -80.777 0.987 9.046 0.987 9.046 0.157 -80.777
599.083 0.15 -81.206 0.988 8.609 0.988 8.609 0.15 -81.206
624.042 0.143 -81.603 0.989 8.202 0.989 8.202 0.143 -81.603
649 0.136 -81.972 0.99 7.824 0.99 7.824 0.136 -81.972
673.958 0.13 -82.315 0.991 7.471 0.991 7.471 0.13 -82.315
698.917 0.124 -82.636 0.992 7.14 0.992 7.14 0.124 -82.636
723.875 0.119 -82.937 0.992 6.828 0.992 6.828 0.119 -82.937
748.833 0.114 -83.22 0.993 6.535 0.993 6.535 0.114 -83.22
773.792 0.109 -83.485 0.994 6.259 0.994 6.259 0.109 -83.485
798.75 0.104 -83.736 0.994 5.997 0.994 5.997 0.104 -83.736
823.708 0.1 -83.973 0.994 5.749 0.994 5.749 0.1 -83.973
848.667 0.096 -84.196 0.995 5.513 0.995 5.513 0.096 -84.196
873.625 0.092 -84.409 0.995 5.288 0.995 5.288 0.092 -84.409
898.583 0.088 -84.61 0.996 5.074 0.996 5.074 0.088 -84.61
923.542 0.085 -84.801 0.996 4.87 0.996 4.87 0.085 -84.801
948.5 0.081 -84.983 0.996 4.674 0.996 4.674 0.081 -84.983
973.458 0.078 -85.156 0.996 4.486 0.996 4.486 0.078 -85.156
998.417 0.075 -85.321 0.997 4.306 0.997 4.306 0.075 -85.321
1023.375 0.072 -85.478 0.997 4.133 0.997 4.133 0.072 -85.478
1048.333 0.069 -85.628 0.997 3.967 0.997 3.967 0.069 -85.628
1073.292 0.066 -85.772 0.997 3.806 0.997 3.806 0.066 -85.772
1098.25 0.064 -85.908 0.997 3.652 0.997 3.652 0.064 -85.908
1123.208 0.061 -86.039 0.998 3.502 0.998 3.502 0.061 -86.039
1148.167 0.059 -86.164 0.998 3.358 0.998 3.358 0.059 -86.164
1173.125 0.056 -86.283 0.998 3.218 0.998 3.218 0.056 -86.283
1198.083 0.054 -86.396 0.998 3.082 0.998 3.082 0.054 -86.396
1223.042 0.051 -86.505 0.998 2.951 0.998 2.951 0.051 -86.505
1248 0.049 -86.608 0.998 2.823 0.998 2.823 0.049 -86.608
1272.958 0.047 -86.705 0.998 2.699 0.998 2.699 0.047 -86.705
1297.917 0.045 -86.798 0.998 2.579 0.998 2.579 0.045 -86.798
1322.875 0.043 -86.886 0.999 2.461 0.999 2.461 0.043 -86.886
1347.833 0.041 -86.968 0.999 2.347 0.999 2.347 0.041 -86.968
1372.792 0.039 -87.045 0.999 2.236 0.999 2.236 0.039 -87.045
1397.75 0.037 -87.117 0.999 2.127 0.999 2.127 0.037 -87.117
1422.708 0.035 -87.184 0.999 2.021 0.999 2.021 0.035 -87.184
1447.667 0.033 -87.244 0.999 1.917 0.999 1.917 0.033 -87.244
1472.625 0.032 -87.299 0.999 1.816 0.999 1.816 0.032 -87.299
1497.583 0.03 -87.347 0.999 1.717 0.999 1.717 0.03 -87.347
1522.542 0.028 -87.388 0.999 1.62 0.999 1.62 0.028 -87.388
1547.5 0.027 -87.421 0.999 1.525 0.999 1.525 0.027 -87.421
1572.458 0.025 -87.446 0.999 1.431 0.999 1.431 0.025 -87.446
1597.417 0.023 -87.46 0.999 1.34 0.999 1.34 0.023 -87.46
1622.375 0.022 -87.464 0.999 1.251 0.999 1.251 0.022 -87.464
1647.333 0.02 -87.455 0.999 1.163 0.999 1.163 0.02 -87.455
1672.292 0.019 -87.43 0.999 1.076 0.999 1.076 0.019 -87.43
1697.25 0.017 -87.387 0.999 0.991 0.999 0.991 0.017 -87.387
1722.208 0.016 -87.322 0.999 0.908 0.999 0.908 0.016 -87.322
1747.167 0.014 -87.228 0.999 0.826 0.999 0.826 0.014 -87.228
1772.125 0.013 -87.098 0.999 0.745 0.999 0.745 0.013 -87.098
1797.083 0.012 -86.921 0.999 0.666 0.999 0.666 0.012 -86.921
1822.042 0.01 -86.678 0.999 0.588 0.999 0.588 0.01 -86.678
1847 8.927e-3 -86.344 0.999 0.511 0.999 0.511 8.927e-3 -86.344
1871.958 7.605e-3 -85.872 0.999 0.435 0.999 0.435 7.605e-3 -85.872
1896.917 6.302e-3 -85.182 0.999 0.36 0.999 0.36 6.302e-3 -85.182
1921.875 5.02e-3 -84.114 0.999 0.286 0.999 0.286 5.02e-3 -84.114
1946.833 3.758e-3 -82.296 1 0.213 1 0.213 3.758e-3 -82.296
1971.792 2.52e-3 -78.651 1 0.142 1 0.142 2.52e-3 -78.651
1996.75 1.329e-3 -68.295 1 0.071 1 0.071 1.329e-3 -68.295
2021.708 490e-6 -1.572 1 770.8e-6 1 770.8e-6 490e-6 -1.572
2046.667 1.29e-3 67.611 1 -0.068 1 -0.068 1.29e-3 67.611
2071.625 2.435e-3 78.259 1 -0.137 1 -0.137 2.435e-3 78.259
2096.583 3.597e-3 81.969 1 -0.204 1 -0.204 3.597e-3 81.969
2121.542 4.754e-3 83.814 0.999 -0.271 0.999 -0.271 4.754e-3 83.814
2146.5 5.901e-3 84.901 0.999 -0.337 0.999 -0.337 5.901e-3 84.901
2171.458 7.037e-3 85.606 0.999 -0.402 0.999 -0.402 7.037e-3 85.606
2196.417 8.161e-3 86.092 0.999 -0.467 0.999 -0.467 8.161e-3 86.092
2221.375 9.275e-3 86.442 0.999 -0.531 0.999 -0.531 9.275e-3 86.442
2246.333 0.01 86.701 0.999 -0.594 0.999 -0.594 0.01 86.701
2271.292 0.011 86.896 0.999 -0.657 0.999 -0.657 0.011 86.896
2296.25 0.013 87.045 0.999 -0.719 0.999 -0.719 0.013 87.045
2321.208 0.014 87.159 0.999 -0.78 0.999 -0.78 0.014 87.159
2346.167 0.015 87.248 0.999 -0.841 0.999 -0.841 0.015 87.248
2371.125 0.016 87.315 0.999 -0.901 0.999 -0.901 0.016 87.315
2396.083 0.017 87.366 0.999 -0.961 0.999 -0.961 0.017 87.366
2421.042 0.018 87.404 0.999 -1.02 0.999 -1.02 0.018 87.404
2446 0.019 87.431 0.999 -1.079 0.999 -1.079 0.019 87.431
2470.958 0.02 87.449 0.999 -1.137 0.999 -1.137 0.02 87.449
2495.917 0.021 87.46 0.999 -1.195 0.999 -1.195 0.021 87.46
2520.875 0.022 87.464 0.999 -1.252 0.999 -1.252 0.022 87.464
2545.833 0.023 87.463 0.999 -1.309 0.999 -1.309 0.023 87.463
2570.792 0.024 87.457 0.999 -1.366 0.999 -1.366 0.024 87.457
2595.75 0.025 87.448 0.999 -1.422 0.999 -1.422 0.025 87.448
2620.708 0.026 87.434 0.999 -1.478 0.999 -1.478 0.026 87.434
2645.667 0.027 87.418 0.999 -1.533 0.999 -1.533 0.027 87.418
2670.625 0.028 87.4 0.999 -1.588 0.999 -1.588 0.028 87.4
2695.583 0.029 87.379 0.999 -1.642 0.999 -1.642 0.029 87.379
2720.542 0.03 87.356 0.999 -1.696 0.999 -1.696 0.03 87.356
2745.5 0.031 87.331 0.999 -1.75 0.999 -1.75 0.031 87.331
2770.458 0.031 87.305 0.999 -1.803 0.999 -1.803 0.031 87.305
2795.417 0.032 87.278 0.999 -1.856 0.999 -1.856 0.032 87.278
2820.375 0.033 87.249 0.999 -1.909 0.999 -1.909 0.033 87.249
2845.333 0.034 87.219 0.999 -1.962 0.999 -1.962 0.034 87.219
2870.292 0.035 87.188 0.999 -2.014 0.999 -2.014 0.035 87.188
2895.25 0.036 87.156 0.999 -2.066 0.999 -2.066 0.036 87.156
2920.208 0.037 87.124 0.999 -2.117 0.999 -2.117 0.037 87.124
2945.167 0.038 87.09 0.999 -2.168 0.999 -2.168 0.038 87.09
2970.125 0.039 87.056 0.999 -2.219 0.999 -2.219 0.039 87.056
2995.083 0.04 87.022 0.999 -2.27 0.999 -2.27 0.04 87.022
3020.042 0.04 86.987 0.999 -2.32 0.999 -2.32 0.04 86.987
3045 0.041 86.951 0.999 -2.371 0.999 -2.371 0.041 86.951
3069.958 0.042 86.916 0.999 -2.42 0.999 -2.42 0.042 86.916
3094.917 0.043 86.879 0.999 -2.47 0.999 -2.47 0.043 86.879
3119.875 0.044 86.843 0.999 -2.52 0.999 -2.52 0.044 86.843
3144.833 0.045 86.806 0.999 -2.569 0.999 -2.569 0.045 86.806
3169.792 0.046 86.768 0.998 -2.618 0.998 -2.618 0.046 86.768
3194.75 0.047 86.731 0.998 -2.666 0.998 -2.666 0.047 86.731
3219.708 0.047 86.693 0.998 -2.715 0.998 -2.715 0.047 86.693
3244.667 0.048 86.655 0.998 -2.763 0.998 -2.763 0.048 86.655
3269.625 0.049 86.617 0.998 -2.811 0.998 -2.811 0.049 86.617
3294.583 0.05 86.579 0.998 -2.859 0.998 -2.859 0.05 86.579
3319.542 0.051 86.541 0.998 -2.907 0.998 -2.907 0.051 86.541
3344.5 0.052 86.502 0.998 -2.954 0.998 -2.954 0.052 86.502
3369.458 0.052 86.463 0.998 -3.001 0.998 -3.001 0.052 86.463
3394.417 0.053 86.425 0.998 -3.048 0.998 -3.048 0.053 86.425
3419.375 0.054 86.386 0.998 -3.095 0.998 -3.095 0.054 86.386
3444.333 0.055 86.347 0.998 -3.142 0.998 -3.142 0.055 86.347
3469.292 0.056 86.308 0.998 -3.189 0.998 -3.189 0.056 86.308
3494.25 0.056 86.268 0.998 -3.235 0.998 -3.235 0.056 86.268
3519.208 0.057 86.229 0.998 -3.281 0.998 -3.281 0.057 86.229
3544.167 0.058 86.19 0.998 -3.327 0.998 -3.327 0.058 86.19
3569.125 0.059 86.151 0.998 -3.373 0.998 -3.373 0.059 86.151
3594.083 0.06 86.111 0.998 -3.419 0.998 -3.419 0.06 86.111
3619.042 0.06 86.072 0.998 -3.464 0.998 -3.464 0.06 86.072
3644 0.061 86.033 0.998 -3.51 0.998 -3.51 0.061 86.033
3668.958 0.062 85.993 0.998 -3.555 0.998 -3.555 0.062 85.993
3693.917 0.063 85.954 0.998 -3.6 0.998 -3.6 0.063 85.954
3718.875 0.064 85.914 0.997 -3.645 0.997 -3.645 0.064 85.914
3743.833 0.064 85.875 0.997 -3.69 0.997 -3.69 0.064 85.875
3768.792 0.065 85.836 0.997 -3.734 0.997 -3.734 0.065 85.836
3793.75 0.066 85.796 0.997 -3.779 0.997 -3.779 0.066 85.796
3818.708 0.067 85.757 0.997 -3.823 0.997 -3.823 0.067 85.757
3843.667 0.067 85.717 0.997 -3.868 0.997 -3.868 0.067 85.717
3868.625 0.068 85.678 0.997 -3.912 0.997 -3.912 0.068 85.678
3893.583 0.069 85.638 0.997 -3.956 0.997 -3.956 0.069 85.638
3918.542 0.07 85.599 0.997 -4 0.997 -4 0.07 85.599
3943.5 0.071 85.56 0.997 -4.043 0.997 -4.043 0.071 85.56
3968.458 0.071 85.52 0.997 -4.087 0.997 -4.087 0.071 85.52
3993.417 0.072 85.481 0.997 -4.131 0.997 -4.131 0.072 85.481
4018.375 0.073 85.441 0.997 -4.174 0.997 -4.174 0.073 85.441
4043.333 0.074 85.402 0.997 -4.217 0.997 -4.217 0.074 85.402
4068.292 0.074 85.363 0.997 -4.26 0.997 -4.26 0.074 85.363
4093.25 0.075 85.324 0.997 -4.303 0.997 -4.303 0.075 85.324
4118.208 0.076 85.284 0.997 -4.346 0.997 -4.346 0.076 85.284
4143.167 0.077 85.245 0.997 -4.389 0.997 -4.389 0.077 85.245
4168.125 0.077 85.206 0.997 -4.432 0.997 -4.432 0.077 85.206
4193.083 0.078 85.167 0.996 -4.475 0.996 -4.475 0.078 85.167
4218.042 0.079 85.127 0.996 -4.517 0.996 -4.517 0.079 85.127
4243 0.079 85.088 0.996 -4.56 0.996 -4.56 0.079 85.088
4267.958 0.08 85.049 0.996 -4.602 0.996 -4.602 0.08 85.049
4292.917 0.081 85.01 0.996 -4.644 0.996 -4.644 0.081 85.01
4317.875 0.082 84.971 0.996 -4.686 0.996 -4.686 0.082 84.971
4342.833 0.082 84.932 0.996 -4.729 0.996 -4.729 0.082 84.932
4367.792 0.083 84.893 0.996 -4.771 0.996 -4.771 0.083 84.893
4392.75 0.084 84.854 0.996 -4.812 0.996 -4.812 0.084 84.854
4417.708 0.085 84.815 0.996 -4.854 0.996 -4.854 0.085 84.815
4442.667 0.085 84.776 0.996 -4.896 0.996 -4.896 0.085 84.776
4467.625 0.086 84.738 0.996 -4.938 0.996 -4.938 0.086 84.738
4492.583 0.087 84.699 0.996 -4.979 0.996 -4.979 0.087 84.699
4517.542 0.088 84.66 0.996 -5.021 0.996 -5.021 0.088 84.66
4542.5 0.088 84.621 0.996 -5.062 0.996 -5.062 0.088 84.621
4567.458 0.089 84.582 0.996 -5.103 0.996 -5.103 0.089 84.582
4592.417 0.09 84.544 0.995 -5.144 0.995 -5.144 0.09 84.544
4617.375 0.09 84.505 0.995 -5.186 0.995 -5.186 0.09 84.505
4642.333 0.091 84.466 0.995 -5.227 0.995 -5.227 0.091 84.466
4667.292 0.092 84.428 0.995 -5.268 0.995 -5.268 0.092 84.428
4692.25 0.093 84.389 0.995 -5.309 0.995 -5.309 0.093 84.389
4717.208 0.093 84.351 0.995 -5.349 0.995 -5.349 0.093 84.351
4742.167 0.094 84.312 0.995 -5.39 0.995 -5.39 0.094 84.312
4767.125 0.095 84.274 0.995 -5.431 0.995 -5.431 0.095 84.274
4792.083 0.095 84.235 0.995 -5.472 0.995 -5.472 0.095 84.235
4817.042 0.096 84.197 0.995 -5.512 0.995 -5.512 0.096 84.197
4842 0.097 84.159 0.995 -5.553 0.995 -5.553 0.097 84.159
4866.958 0.097 84.12 0.995 -5.593 0.995 -5.593 0.097 84.12
4891.917 0.098 84.082 0.995 -5.633 0.995 -5.633 0.098 84.082
4916.875 0.099 84.044 0.995 -5.674 0.995 -5.674 0.099 84.044
4941.833 0.1 84.006 0.995 -5.714 0.995 -5.714 0.1 84.006
4966.792 0.1 83.967 0.994 -5.754 0.994 -5.754 0.1 83.967
4991.75 0.101 83.929 0.994 -5.794 0.994 -5.794 0.101 83.929
5016.708 0.102 83.891 0.994 -5.834 0.994 -5.834 0.102 83.891
5041.667 0.102 83.853 0.994 -5.874 0.994 -5.874 0.102 83.853
5066.625 0.103 83.815 0.994 -5.914 0.994 -5.914 0.103 83.815
5091.583 0.104 83.777 0.994 -5.954 0.994 -5.954 0.104 83.777
5116.542 0.104 83.739 0.994 -5.994 0.994 -5.994 0.104 83.739
5141.5 0.105 83.701 0.994 -6.033 0.994 -6.033 0.105 83.701
5166.458 0.106 83.663 0.994 -6.073 0.994 -6.073 0.106 83.663
5191.417 0.106 83.625 0.994 -6.113 0.994 -6.113 0.106 83.625
5216.375 0.107 83.587 0.994 -6.152 0.994 -6.152 0.107 83.587
5241.333 0.108 83.549 0.994 -6.192 0.994 -6.192 0.108 83.549
5266.292 0.109 83.512 0.994 -6.231 0.994 -6.231 0.109 83.512
5291.25 0.109 83.474 0.994 -6.271 0.994 -6.271 0.109 83.474
5316.208 0.11 83.436 0.993 -6.31 0.993 -6.31 0.11 83.436
5341.167 0.111 83.398 0.993 -6.349 0.993 -6.349 0.111 83.398
5366.125 0.111 83.361 0.993 -6.389 0.993 -6.389 0.111 83.361
5391.083 0.112 83.323 0.993 -6.428 0.993 -6.428 0.112 83.323
5416.042 0.113 83.285 0.993 -6.467 0.993 -6.467 0.113 83.285
5441 0.113 83.248 0.993 -6.506 0.993 -6.506 0.113 83.248
5465.958 0.114 83.21 0.993 -6.545 0.993 -6.545 0.114 83.21
5490.917 0.115 83.173 0.993 -6.584 0.993 -6.584 0.115 83.173
5515.875 0.115 83.135 0.993 -6.623 0.993 -6.623 0.115 83.135
5540.833 0.116 83.098 0.993 -6.662 0.993 -6.662 0.116 83.098
5565.792 0.117 83.06 0.993 -6.701 0.993 -6.701 0.117 83.06
5590.75 0.117 83.023 0.993 -6.74 0.993 -6.74 0.117 83.023
5615.708 0.118 82.985 0.993 -6.778 0.993 -6.778 0.118 82.985
5640.667 0.119 82.948 0.992 -6.817 0.992 -6.817 0.119 82.948
5665.625 0.119 82.911 0.992 -6.856 0.992 -6.856 0.119 82.911
5690.583 0.12 82.873 0.992 -6.894 0.992 -6.894 0.12 82.873
5715.542 0.121 82.836 0.992 -6.933 0.992 -6.933 0.121 82.836
5740.5 0.121 82.799 0.992 -6.971 0.992 -6.971 0.121 82.799
5765.458 0.122 82.762 0.992 -7.01 0.992 -7.01 0.122 82.762
5790.417 0.123 82.725 0.992 -7.048 0.992 -7.048 0.123 82.725
5815.375 0.123 82.687 0.992 -7.087 0.992 -7.087 0.123 82.687
5840.333 0.124 82.65 0.992 -7.125 0.992 -7.125 0.124 82.65
5865.292 0.125 82.613 0.992 -7.164 0.992 -7.164 0.125 82.613
5890.25 0.125 82.576 0.992 -7.202 0.992 -7.202 0.125 82.576
5915.208 0.126 82.539 0.992 -7.24 0.992 -7.24 0.126 82.539
5940.167 0.127 82.502 0.991 -7.278 0.991 -7.278 0.127 82.502
5965.125 0.127 82.465 0.991 -7.316 0.991 -7.316 0.127 82.465
5990.083 0.128 82.428 0.991 -7.355 0.991 -7.355 0.128 82.428
6015.042 0.129 82.391 0.991 -7.393 0.991 -7.393 0.129 82.391
6040 0.129 82.354 0.991 -7.431 0.991 -7.431 0.129 82.354
6064.958 0.13 82.317 0.991 -7.469 0.991 -7.469 0.13 82.317
6089.917 0.131 82.28 0.991 -7.507 0.991 -7.507 0.131 82.28
6114.875 0.131 82.244 0.991 -7.545 0.991 -7.545 0.131 82.244
6139.833 0.132 82.207 0.991 -7.582 0.991 -7.582 0.132 82.207
6164.792 0.133 82.17 0.991 -7.62 0.991 -7.62 0.133 82.17
6189.75 0.133 82.133 0.991 -7.658 0.991 -7.658 0.133 82.133
6214.708 0.134 82.096 0.991 -7.696 0.991 -7.696 0.134 82.096
6239.667 0.135 82.06 0.99 -7.734 0.99 -7.734 0.135 82.06
6264.625 0.135 82.023 0.99 -7.771 0.99 -7.771 0.135 82.023
6289.583 0.136 81.986 0.99 -7.809 0.99 -7.809 0.136 81.986
6314.542 0.137 81.95 0.99 -7.847 0.99 -7.847 0.137 81.95
6339.5 0.137 81.913 0.99 -7.884 0.99 -7.884 0.137 81.913
6364.458 0.138 81.876 0.99 -7.922 0.99 -7.922 0.138 81.876
6389.417 0.138 81.84 0.99 -7.959 0.99 -7.959 0.138 81.84
6414.375 0.139 81.803 0.99 -7.997 0.99 -7.997 0.139 81.803
6439.333 0.14 81.767 0.99 -8.034 0.99 -8.034 0.14 81.767
6464.292 0.14 81.73 0.99 -8.072 0.99 -8.072 0.14 81.73
6489.25 0.141 81.694 0.99 -8.109 0.99 -8.109 0.141 81.694
6514.208 0.142 81.657 0.989 -8.147 0.989 -8.147 0.142 81.657
6539.167 0.142 81.621 0.989 -8.184 0.989 -8.184 0.142 81.621
6564.125 0.143 81.584 0.989 -8.221 0.989 -8.221 0.143 81.584
6589.083 0.144 81.548 0.989 -8.259 0.989 -8.259 0.144 81.548
6614.042 0.144 81.512 0.989 -8.296 0.989 -8.296 0.144 81.512
6639 0.145 81.475 0.989 -8.333 0.989 -8.333 0.145 81.475
6663.958 0.146 81.439 0.989 -8.37 0.989 -8.37 0.146 81.439
6688.917 0.146 81.403 0.989 -8.407 0.989 -8.407 0.146 81.403
6713.875 0.147 81.366 0.989 -8.444 0.989 -8.444 0.147 81.366
6738.833 0.147 81.33 0.989 -8.482 0.989 -8.482 0.147 81.33
6763.792 0.148 81.294 0.988 -8.519 0.988 -8.519 0.148 81.294
6788.75 0.149 81.258 0.988 -8.556 0.988 -8.556 0.149 81.258
6813.708 0.149 81.222 0.988 -8.593 0.988 -8.593 0.149 81.222
6838.667 0.15 81.185 0.988 -8.63 0.988 -8.63 0.15 81.185
6863.625 0.151 81.149 0.988 -8.667 0.988 -8.667 0.151 81.149
6888.583 0.151 81.113 0.988 -8.704 0.988 -8.704 0.151 81.113
6913.542 0.152 81.077 0.988 -8.74 0.988 -8.74 0.152 81.077
6938.5 0.153 81.041 0.988 -8.777 0.988 -8.777 0.153 81.041
6963.458 0.153 81.005 0.988 -8.814 0.988 -8.814 0.153 81.005
6988.417 0.154 80.969 0.988 -8.851 0.988 -8.851 0.154 80.969
7013.375 0.154 80.933 0.988 -8.888 0.988 -8.888 0.154 80.933
7038.333 0.155 80.897 0.987 -8.924 0.987 -8.924 0.155 80.897
7063.292 0.156 80.861 0.987 -8.961 0.987 -8.961 0.156 80.861
7088.25 0.156 80.825 0.987 -8.998 0.987 -8.998 0.156 80.825
7113.208 0.157 80.789 0.987 -9.035 0.987 -9.035 0.157 80.789
7138.167 0.158 80.753 0.987 -9.071 0.987 -9.071 0.158 80.753
7163.125 0.158 80.717 0.987 -9.108 0.987 -9.108 0.158 80.717
7188.083 0.159 80.681 0.987 -9.144 0.987 -9.144 0.159 80.681
7213.042 0.16 80.645 0.987 -9.181 0.987 -9.181 0.16 80.645
7238 0.16 80.609 0.987 -9.218 0.987 -9.218 0.16 80.609
7262.958 0.161 80.574 0.987 -9.254 0.987 -9.254 0.161 80.574
7287.917 0.161 80.538 0.986 -9.291 0.986 -9.291 0.161 80.538
7312.875 0.162 80.502 0.986 -9.327 0.986 -9.327 0.162 80.502
7337.833 0.163 80.466 0.986 -9.363 0.986 -9.363 0.163 80.466
7362.792 0.163 80.431 0.986 -9.4 0.986 -9.4 0.163 80.431
7387.75 0.164 80.395 0.986 -9.436 0.986 -9.436 0.164 80.395
7412.708 0.165 80.359 0.986 -9.473 0.986 -9.473 0.165 80.359
7437.667 0.165 80.323 0.986 -9.509 0.986 -9.509 0.165 80.323
7462.625 0.166 80.288 0.986 -9.545 0.986 -9.545 0.166 80.288
7487.583 0.166 80.252 0.986 -9.582 0.986 -9.582 0.166 80.252
7512.542 0.167 80.217 0.985 -9.618 0.985 -9.618 0.167 80.217
7537.5 0.168 80.181 0.985 -9.654 0.985 -9.654 0.168 80.181
7562.458 0.168 80.145 0.985 -9.69 0.985 -9.69 0.168 80.145
7587.417 0.169 80.11 0.985 -9.726 0.985 -9.726 0.169 80.11
7612.375 0.17 80.074 0.985 -9.763 0.985 -9.763 0.17 80.074
7637.333 0.17 80.039 0.985 -9.799 0.985 -9.799 0.17 80.039
7662.292 0.171 80.003 0.985 -9.835 0.985 -9.835 0.171 80.003
7687.25 0.171 79.968 0.985 -9.871 0.985 -9.871 0.171 79.968
7712.208 0.172 79.932 0.985 -9.907 0.985 -9.907 0.172 79.932
7737.167 0.173 79.897 0.984 -9.943 0.984 -9.943 0.173 79.897
7762.125 0.173 79.861 0.984 -9.979 0.984 -9.979 0.173 79.861
7787.083 0.174 79.826 0.984 -10.015 0.984 -10.015 0.174 79.826
7812.042 0.175 79.79 0.984 -10.051 0.984 -10.051 0.175 79.79
7837 0.175 79.755 0.984 -10.087 0.984 -10.087 0.175 79.755
7861.958 0.176 79.72 0.984 -10.123 0.984 -10.123 0.176 79.72
7886.917 0.176 79.684 0.984 -10.159 0.984 -10.159 0.176 79.684
7911.875 0.177 79.649 0.984 -10.195 0.984 -10.195 0.177 79.649
7936.833 0.178 79.614 0.984 -10.231 0.984 -10.231 0.178 79.614
7961.792 0.178 79.578 0.984 -10.267 0.984 -10.267 0.178 79.578
7986.75 0.179 79.543 0.983 -10.302 0.983 -10.302 0.179 79.543
8011.708 0.179 79.508 0.983 -10.338 0.983 -10.338 0.179 79.508
8036.667 0.18 79.473 0.983 -10.374 0.983 -10.374 0.18 79.473
8061.625 0.181 79.437 0.983 -10.41 0.983 -10.41 0.181 79.437
8086.583 0.181 79.402 0.983 -10.446 0.983 -10.446 0.181 79.402
8111.542 0.182 79.367 0.983 -10.481 0.983 -10.481 0.182 79.367
8136.5 0.183 79.332 0.983 -10.517 0.983 -10.517 0.183 79.332
8161.458 0.183 79.297 0.983 -10.553 0.983 -10.553 0.183 79.297
8186.417 0.184 79.261 0.982 -10.588 0.982 -10.588 0.184 79.261
8211.375 0.184 79.226 0.982 -10.624 0.982 -10.624 0.184 79.226
8236.333 0.185 79.191 0.982 -10.66 0.982 -10.66 0.185 79.191
8261.292 0.186 79.156 0.982 -10.695 0.982 -10.695 0.186 79.156
8286.25 0.186 79.121 0.982 -10.731 0.982 -10.731 0.186 79.121
