# MHZ S MA R 50

50 1 -0.45 7.854e-3 89.546 7.854e-3 89.546 1 -0.45
74.958 1 -0.675 0.012 89.32 0.012 89.32 1 -0.675
99.917 1 -0.899 0.016 89.093 0.016 89.093 1 -0.899
124.875 1 -1.124 0.02 88.867 0.02 88.867 1 -1.124
149.833 1 -1.348 0.024 88.641 0.024 88.641 1 -1.348
174.792 1 -1.573 0.027 88.414 0.027 88.414 1 -1.573
199.75 0.999 -1.797 0.031 88.188 0.031 88.188 0.999 -1.797
224.708 0.999 -2.022 0.035 87.962 0.035 87.962 0.999 -2.022
249.667 0.999 -2.246 0.039 87.735 0.039 87.735 0.999 -2.246
274.625 0.999 -2.471 0.043 87.509 0.043 87.509 0.999 -2.471
299.583 0.999 -2.695 0.047 87.283 0.047 87.283 0.999 -2.695
324.542 0.999 -2.92 0.051 87.057 0.051 87.057 0.999 -2.92
349.5 0.998 -3.144 0.055 86.831 0.055 86.831 0.998 -3.144
374.458 0.998 -3.368 0.059 86.605 0.059 86.605 0.998 -3.368
399.417 0.998 -3.592 0.063 86.379 0.063 86.379 0.998 -3.592
424.375 0.998 -3.816 0.067 86.153 0.067 86.153 0.998 -3.816
449.333 0.997 -4.041 0.07 85.927 0.07 85.927 0.997 -4.041
474.292 0.997 -4.265 0.074 85.701 0.074 85.701 0.997 -4.265
499.25 0.997 -4.488 0.078 85.475 0.078 85.475 0.997 -4.488
524.208 0.997 -4.712 0.082 85.249 0.082 85.249 0.997 -4.712
549.167 0.996 -4.936 0.086 85.024 0.086 85.024 0.996 -4.936
574.125 0.996 -5.16 0.09 84.798 0.09 84.798 0.996 -5.16
599.083 0.996 -5.383 0.094 84.573 0.094 84.573 0.996 -5.383
624.042 0.995 -5.607 0.098 84.347 0.098 84.347 0.995 -5.607
649 0.995 -5.831 0.102 84.122 0.102 84.122 0.995 -5.831
673.958 0.994 -6.054 0.105 83.897 0.105 83.897 0.994 -6.054
698.917 0.994 -6.277 0.109 83.672 0.109 83.672 0.994 -6.277
723.875 0.993 -6.5 0.113 83.447 0.113 83.447 0.993 -6.5
748.833 0.993 -6.723 0.117 83.222 0.117 83.222 0.993 -6.723
773.792 0.993 -6.946 0.121 82.997 0.121 82.997 0.993 -6.946
798.75 0.992 -7.169 0.125 82.772 0.125 82.772 0.992 -7.169
823.708 0.992 -7.392 0.129 82.548 0.129 82.548 0.992 -7.392
848.667 0.991 -7.615 0.133 82.323 0.133 82.323 0.991 -7.615
873.625 0.991 -7.837 0.136 82.099 0.136 82.099 0.991 -7.837
898.583 0.99 -8.059 0.14 81.875 0.14 81.875 0.99 -8.059
923.542 0.989 -8.282 0.144 81.651 0.144 81.651 0.989 -8.282
948.5 0.989 -8.504 0.148 81.427 0.148 81.427 0.989 -8.504
973.458 0.988 -8.726 0.152 81.203 0.152 81.203 0.988 -8.726
998.417 0.988 -8.948 0.156 80.979 0.156 80.979 0.988 -8.948
1023.375 0.987 -9.169 0.159 80.756 0.159 80.756 0.987 -9.169
1048.333 0.986 -9.391 0.163 80.532 0.163 80.532 0.986 -9.391
1073.292 0.986 -9.612 0.167 80.309 0.167 80.309 0.986 -9.612
1098.25 0.985 -9.834 0.171 80.086 0.171 80.086 0.985 -9.834
1123.208 0.984 -10.055 0.175 79.863 0.175 79.863 0.984 -10.055
1148.167 0.984 -10.276 0.178 79.64 0.178 79.64 0.984 -10.276
1173.125 0.983 -10.497 0.182 79.417 0.182 79.417 0.983 -10.497
1198.083 0.982 -10.717 0.186 79.195 0.186 79.195 0.982 -10.717
1223.042 0.982 -10.938 0.19 78.972 0.19 78.972 0.982 -10.938
1248 0.981 -11.158 0.194 78.75 0.194 78.75 0.981 -11.158
1272.958 0.98 -11.378 0.197 78.528 0.197 78.528 0.98 -11.378
1297.917 0.979 -11.598 0.201 78.306 0.201 78.306 0.979 -11.598
1322.875 0.978 -11.818 0.205 78.085 0.205 78.085 0.978 -11.818
1347.833 0.978 -12.038 0.209 77.863 0.209 77.863 0.978 -12.038
1372.792 0.977 -12.257 0.212 77.642 0.212 77.642 0.977 -12.257
1397.75 0.976 -12.476 0.216 77.421 0.216 77.421 0.976 -12.476
1422.708 0.975 -12.695 0.22 77.2 0.22 77.2 0.975 -12.695
1447.667 0.974 -12.914 0.223 76.979 0.223 76.979 0.974 -12.914
1472.625 0.973 -13.133 0.227 76.759 0.227 76.759 0.973 -13.133
1497.583 0.973 -13.351 0.231 76.538 0.231 76.538 0.973 -13.351
1522.542 0.972 -13.57 0.235 76.318 0.235 76.318 0.972 -13.57
1547.5 0.971 -13.788 0.238 76.098 0.238 76.098 0.971 -13.788
1572.458 0.97 -14.006 0.242 75.879 0.242 75.879 0.97 -14.006
1597.417 0.969 -14.223 0.246 75.659 0.246 75.659 0.969 -14.223
1622.375 0.968 -14.441 0.249 75.44 0.249 75.44 0.968 -14.441
1647.333 0.967 -14.658 0.253 75.221 0.253 75.221 0.967 -14.658
1672.292 0.966 -14.875 0.257 75.002 0.257 75.002 0.966 -14.875
1697.25 0.965 -15.092 0.26 74.783 0.26 74.783 0.965 -15.092
1722.208 0.964 -15.308 0.264 74.565 0.264 74.565 0.964 -15.308
1747.167 0.963 -15.525 0.268 74.346 0.268 74.346 0.963 -15.525
1772.125 0.962 -15.741 0.271 74.128 0.271 74.128 0.962 -15.741
1797.083 0.961 -15.957 0.275 73.911 0.275 73.911 0.961 -15.957
1822.042 0.96 -16.172 0.279 73.693 0.279 73.693 0.96 -16.172
1847 0.959 -16.388 0.282 73.476 0.282 73.476 0.959 -16.388
1871.958 0.958 -16.603 0.286 73.259 0.286 73.259 0.958 -16.603
1896.917 0.957 -16.818 0.289 73.042 0.289 73.042 0.957 -16.818
1921.875 0.955 -17.032 0.293 72.825 0.293 72.825 0.955 -17.032
1946.833 0.954 -17.247 0.296 72.609 0.296 72.609 0.954 -17.247
1971.792 0.953 -17.461 0.3 72.393 0.3 72.393 0.953 -17.461
1996.75 0.952 -17.675 0.304 72.177 0.304 72.177 0.952 -17.675
2021.708 0.951 -17.888 0.307 71.962 0.307 71.962 0.951 -17.888
2046.667 0.95 -18.102 0.311 71.746 0.311 71.746 0.95 -18.102
2071.625 0.949 -18.315 0.314 71.531 0.314 71.531 0.949 -18.315
2096.583 0.947 -18.528 0.318 71.316 0.318 71.316 0.947 -18.528
2121.542 0.946 -18.74 0.321 71.102 0.321 71.102 0.946 -18.74
2146.5 0.945 -18.953 0.325 70.888 0.325 70.888 0.945 -18.953
2171.458 0.944 -19.165 0.328 70.674 0.328 70.674 0.944 -19.165
2196.417 0.942 -19.377 0.332 70.46 0.332 70.46 0.942 -19.377
2221.375 0.941 -19.588 0.335 70.247 0.335 70.247 0.941 -19.588
2246.333 0.94 -19.799 0.339 70.033 0.339 70.033 0.94 -19.799
2271.292 0.939 -20.01 0.342 69.82 0.342 69.82 0.939 -20.01
2296.25 0.937 -20.221 0.346 69.608 0.346 69.608 0.937 -20.221
2321.208 0.936 -20.431 0.349 69.395 0.349 69.395 0.936 -20.431
2346.167 0.935 -20.642 0.353 69.183 0.353 69.183 0.935 -20.642
2371.125 0.933 -20.851 0.356 68.972 0.356 68.972 0.933 -20.851
2396.083 0.932 -21.061 0.359 68.76 0.359 68.76 0.932 -21.061
2421.042 0.931 -21.27 0.363 68.549 0.363 68.549 0.931 -21.27
2446 0.929 -21.479 0.366 68.338 0.366 68.338 0.929 -21.479
2470.958 0.928 -21.688 0.37 68.127 0.37 68.127 0.928 -21.688
2495.917 0.927 -21.896 0.373 67.917 0.373 67.917 0.927 -21.896
2520.875 0.925 -22.104 0.376 67.707 0.376 67.707 0.925 -22.104
2545.833 0.924 -22.312 0.38 67.497 0.38 67.497 0.924 -22.312
2570.792 0.922 -22.519 0.383 67.288 0.383 67.288 0.922 -22.519
2595.75 0.921 -22.727 0.386 67.079 0.386 67.079 0.921 -22.727
2620.708 0.92 -22.933 0.39 66.87 0.39 66.87 0.92 -22.933
2645.667 0.918 -23.14 0.393 66.661 0.393 66.661 0.918 -23.14
2670.625 0.917 -23.346 0.396 66.453 0.396 66.453 0.917 -23.346
2695.583 0.915 -23.552 0.4 66.245 0.4 66.245 0.915 -23.552
2720.542 0.914 -23.758 0.403 66.038 0.403 66.038 0.914 -23.758
2745.5 0.912 -23.963 0.406 65.83 0.406 65.83 0.912 -23.963
2770.458 0.911 -24.168 0.409 65.624 0.409 65.624 0.911 -24.168
2795.417 0.909 -24.372 0.413 65.417 0.413 65.417 0.909 -24.372
2820.375 0.908 -24.577 0.416 65.211 0.416 65.211 0.908 -24.577
2845.333 0.906 -24.781 0.419 65.005 0.419 65.005 0.906 -24.781
2870.292 0.905 -24.984 0.422 64.799 0.422 64.799 0.905 -24.984
2895.25 0.903 -25.188 0.426 64.594 0.426 64.594 0.903 -25.188
2920.208 0.902 -25.391 0.429 64.388 0.429 64.388 0.902 -25.391
2945.167 0.9 -25.593 0.432 64.184 0.432 64.184 0.9 -25.593
2970.125 0.899 -25.796 0.435 63.979 0.435 63.979 0.899 -25.796
2995.083 0.897 -25.998 0.438 63.775 0.438 63.775 0.897 -25.998
3020.042 0.895 -26.199 0.442 63.572 0.442 63.572 0.895 -26.199
3045 0.894 -26.401 0.445 63.368 0.445 63.368 0.894 -26.401
3069.958 0.892 -26.602 0.448 63.165 0.448 63.165 0.892 -26.602
3094.917 0.891 -26.803 0.451 62.962 0.451 62.962 0.891 -26.803
3119.875 0.889 -27.003 0.454 62.76 0.454 62.76 0.889 -27.003
3144.833 0.887 -27.203 0.457 62.558 0.457 62.558 0.887 -27.203
3169.792 0.886 -27.402 0.46 62.356 0.46 62.356 0.886 -27.402
3194.75 0.884 -27.602 0.463 62.155 0.463 62.155 0.884 -27.602
3219.708 0.883 -27.801 0.466 61.954 0.466 61.954 0.883 -27.801
3244.667 0.881 -27.999 0.469 61.753 0.469 61.753 0.881 -27.999
3269.625 0.879 -28.198 0.473 61.553 0.473 61.553 0.879 -28.198
3294.583 0.878 -28.396 0.476 61.353 0.476 61.353 0.878 -28.396
3319.542 0.876 -28.593 0.479 61.153 0.479 61.153 0.876 -28.593
3344.5 0.874 -28.79 0.482 60.954 0.482 60.954 0.874 -28.79
3369.458 0.873 -28.987 0.485 60.755 0.485 60.755 0.873 -28.987
3394.417 0.871 -29.184 0.488 60.556 0.488 60.556 0.871 -29.184
3419.375 0.869 -29.38 0.491 60.358 0.491 60.358 0.869 -29.38
3444.333 0.867 -29.576 0.494 60.16 0.494 60.16 0.867 -29.576
3469.292 0.866 -29.771 0.497 59.963 0.497 59.963 0.866 -29.771
3494.25 0.864 -29.966 0.499 59.765 0.499 59.765 0.864 -29.966
3519.208 0.862 -30.161 0.502 59.569 0.502 59.569 0.862 -30.161
3544.167 0.861 -30.355 0.505 59.372 0.505 59.372 0.861 -30.355
3569.125 0.859 -30.549 0.508 59.176 0.508 59.176 0.859 -30.549
3594.083 0.857 -30.743 0.511 58.98 0.511 58.98 0.857 -30.743
3619.042 0.855 -30.936 0.514 58.785 0.514 58.785 0.855 -30.936
3644 0.853 -31.129 0.517 58.59 0.517 58.59 0.853 -31.129
3668.958 0.852 -31.322 0.52 58.395 0.52 58.395 0.852 -31.322
3693.917 0.85 -31.514 0.523 58.201 0.523 58.201 0.85 -31.514
3718.875 0.848 -31.706 0.526 58.007 0.526 58.007 0.848 -31.706
3743.833 0.846 -31.897 0.528 57.813 0.528 57.813 0.846 -31.897
3768.792 0.845 -32.088 0.531 57.62 0.531 57.62 0.845 -32.088
3793.75 0.843 -32.279 0.534 57.427 0.534 57.427 0.843 -32.279
3818.708 0.841 -32.469 0.537 57.234 0.537 57.234 0.841 -32.469
3843.667 0.839 -32.659 0.54 57.042 0.54 57.042 0.839 -32.659
3868.625 0.837 -32.849 0.542 56.85 0.542 56.85 0.837 -32.849
3893.583 0.835 -33.038 0.545 56.659 0.545 56.659 0.835 -33.038
3918.542 0.834 -33.227 0.548 56.468 0.548 56.468 0.834 -33.227
3943.5 0.832 -33.415 0.551 56.277 0.551 56.277 0.832 -33.415
3968.458 0.83 -33.604 0.553 56.087 0.553 56.087 0.83 -33.604
3993.417 0.828 -33.791 0.556 55.897 0.556 55.897 0.828 -33.791
4018.375 0.826 -33.979 0.559 55.707 0.559 55.707 0.826 -33.979
4043.333 0.824 -34.166 0.562 55.518 0.562 55.518 0.824 -34.166
4068.292 0.822 -34.352 0.564 55.329 0.564 55.329 0.822 -34.352
4093.25 0.821 -34.538 0.567 55.141 0.567 55.141 0.821 -34.538
4118.208 0.819 -34.724 0.57 54.953 0.57 54.953 0.819 -34.724
4143.167 0.817 -34.91 0.572 54.765 0.572 54.765 0.817 -34.91
4168.125 0.815 -35.095 0.575 54.578 0.575 54.578 0.815 -35.095
4193.083 0.813 -35.28 0.578 54.391 0.578 54.391 0.813 -35.28
4218.042 0.811 -35.464 0.58 54.204 0.58 54.204 0.811 -35.464
4243 0.809 -35.648 0.583 54.018 0.583 54.018 0.809 -35.648
4267.958 0.807 -35.832 0.585 53.832 0.585 53.832 0.807 -35.832
4292.917 0.805 -36.015 0.588 53.646 0.588 53.646 0.805 -36.015
4317.875 0.803 -36.198 0.591 53.461 0.591 53.461 0.803 -36.198
4342.833 0.802 -36.38 0.593 53.276 0.593 53.276 0.802 -36.38
4367.792 0.8 -36.562 0.596 53.092 0.596 53.092 0.8 -36.562
4392.75 0.798 -36.744 0.598 52.908 0.598 52.908 0.798 -36.744
4417.708 0.796 -36.925 0.601 52.724 0.601 52.724 0.796 -36.925
4442.667 0.794 -37.106 0.603 52.541 0.603 52.541 0.794 -37.106
4467.625 0.792 -37.287 0.606 52.358 0.606 52.358 0.792 -37.287
4492.583 0.79 -37.467 0.608 52.175 0.608 52.175 0.79 -37.467
4517.542 0.788 -37.647 0.611 51.993 0.611 51.993 0.788 -37.647
4542.5 0.786 -37.826 0.613 51.812 0.613 51.812 0.786 -37.826
4567.458 0.784 -38.005 0.616 51.63 0.616 51.63 0.784 -38.005
4592.417 0.782 -38.184 0.618 51.449 0.618 51.449 0.782 -38.184
4617.375 0.78 -38.362 0.621 51.268 0.621 51.268 0.78 -38.362
4642.333 0.778 -38.54 0.623 51.088 0.623 51.088 0.778 -38.54
4667.292 0.776 -38.718 0.625 50.908 0.625 50.908 0.776 -38.718
4692.25 0.774 -38.895 0.628 50.729 0.628 50.729 0.774 -38.895
4717.208 0.772 -39.071 0.63 50.55 0.63 50.55 0.772 -39.071
4742.167 0.77 -39.248 0.633 50.371 0.633 50.371 0.77 -39.248
4767.125 0.768 -39.424 0.635 50.192 0.635 50.192 0.768 -39.424
4792.083 0.766 -39.599 0.637 50.014 0.637 50.014 0.766 -39.599
4817.042 0.764 -39.775 0.64 49.837 0.64 49.837 0.764 -39.775
4842 0.762 -39.949 0.642 49.659 0.642 49.659 0.762 -39.949
4866.958 0.76 -40.124 0.644 49.483 0.644 49.483 0.76 -40.124
4891.917 0.758 -40.298 0.647 49.306 0.647 49.306 0.758 -40.298
4916.875 0.756 -40.472 0.649 49.13 0.649 49.13 0.756 -40.472
4941.833 0.754 -40.645 0.651 48.954 0.651 48.954 0.754 -40.645
4966.792 0.752 -40.818 0.654 48.779 0.654 48.779 0.752 -40.818
4991.75 0.75 -40.99 0.656 48.604 0.656 48.604 0.75 -40.99
5016.708 0.748 -41.163 0.658 48.429 0.658 48.429 0.748 -41.163
5041.667 0.746 -41.334 0.66 48.255 0.66 48.255 0.746 -41.334
5066.625 0.744 -41.506 0.663 48.081 0.663 48.081 0.744 -41.506
5091.583 0.742 -41.677 0.665 47.907 0.665 47.907 0.742 -41.677
5116.542 0.74 -41.847 0.667 47.734 0.667 47.734 0.74 -41.847
5141.5 0.738 -42.018 0.669 47.561 0.669 47.561 0.738 -42.018
5166.458 0.736 -42.188 0.672 47.389 0.672 47.389 0.736 -42.188
5191.417 0.734 -42.357 0.674 47.217 0.674 47.217 0.734 -42.357
5216.375 0.732 -42.526 0.676 47.045 0.676 47.045 0.732 -42.526
5241.333 0.73 -42.695 0.678 46.874 0.678 46.874 0.73 -42.695
5266.292 0.728 -42.863 0.68 46.703 0.68 46.703 0.728 -42.863
5291.25 0.726 -43.031 0.682 46.532 0.682 46.532 0.726 -43.031
5316.208 0.724 -43.199 0.685 46.362 0.685 46.362 0.724 -43.199
5341.167 0.722 -43.366 0.687 46.192 0.687 46.192 0.722 -43.366
5366.125 0.72 -43.533 0.689 46.023 0.689 46.023 0.72 -43.533
5391.083 0.718 -43.699 0.691 45.854 0.691 45.854 0.718 -43.699
5416.042 0.716 -43.865 0.693 45.685 0.693 45.685 0.716 -43.865
5441 0.713 -44.031 0.695 45.517 0.695 45.517 0.713 -44.031
5465.958 0.711 -44.196 0.697 45.349 0.697 45.349 0.711 -44.196
5490.917 0.709 -44.361 0.699 45.181 0.699 45.181 0.709 -44.361
5515.875 0.707 -44.526 0.701 45.014 0.701 45.014 0.707 -44.526
5540.833 0.705 -44.69 0.703 44.847 0.703 44.847 0.705 -44.69
5565.792 0.703 -44.854 0.705 44.681 0.705 44.681 0.703 -44.854
5590.75 0.701 -45.017 0.707 44.515 0.707 44.515 0.701 -45.017
5615.708 0.699 -45.18 0.709 44.349 0.709 44.349 0.699 -45.18
5640.667 0.697 -45.343 0.711 44.184 0.711 44.184 0.697 -45.343
5665.625 0.695 -45.505 0.713 44.018 0.713 44.018 0.695 -45.505
5690.583 0.693 -45.667 0.715 43.854 0.715 43.854 0.693 -45.667
5715.542 0.691 -45.828 0.717 43.69 0.717 43.69 0.691 -45.828
5740.5 0.689 -45.99 0.719 43.526 0.719 43.526 0.689 -45.99
5765.458 0.687 -46.15 0.721 43.362 0.721 43.362 0.687 -46.15
5790.417 0.685 -46.311 0.723 43.199 0.723 43.199 0.685 -46.311
5815.375 0.682 -46.471 0.725 43.036 0.725 43.036 0.682 -46.471
5840.333 0.68 -46.631 0.727 42.874 0.727 42.874 0.68 -46.631
5865.292 0.678 -46.79 0.729 42.711 0.729 42.711 0.678 -46.79
5890.25 0.676 -46.949 0.731 42.55 0.731 42.55 0.676 -46.949
5915.208 0.674 -47.107 0.733 42.388 0.733 42.388 0.674 -47.107
5940.167 0.672 -47.265 0.735 42.227 0.735 42.227 0.672 -47.265
5965.125 0.67 -47.423 0.736 42.067 0.736 42.067 0.67 -47.423
5990.083 0.668 -47.581 0.738 41.906 0.738 41.906 0.668 -47.581
6015.042 0.666 -47.738 0.74 41.746 0.74 41.746 0.666 -47.738
6040 0.664 -47.895 0.742 41.587 0.742 41.587 0.664 -47.895
6064.958 0.662 -48.051 0.744 41.427 0.744 41.427 0.662 -48.051
6089.917 0.66 -48.207 0.746 41.269 0.746 41.269 0.66 -48.207
6114.875 0.658 -48.362 0.747 41.11 0.747 41.11 0.658 -48.362
6139.833 0.655 -48.518 0.749 40.952 0.749 40.952 0.655 -48.518
6164.792 0.653 -48.672 0.751 40.794 0.751 40.794 0.653 -48.672
6189.75 0.651 -48.827 0.753 40.637 0.753 40.637 0.651 -48.827
6214.708 0.649 -48.981 0.755 40.479 0.755 40.479 0.649 -48.981
6239.667 0.647 -49.135 0.756 40.323 0.756 40.323 0.647 -49.135
6264.625 0.645 -49.288 0.758 40.166 0.758 40.166 0.645 -49.288
6289.583 0.643 -49.441 0.76 40.01 0.76 40.01 0.643 -49.441
6314.542 0.641 -49.594 0.762 39.854 0.762 39.854 0.641 -49.594
6339.5 0.639 -49.746 0.763 39.699 0.763 39.699 0.639 -49.746
6364.458 0.637 -49.898 0.765 39.544 0.765 39.544 0.637 -49.898
6389.417 0.635 -50.05 0.767 39.389 0.767 39.389 0.635 -50.05
6414.375 0.633 -50.201 0.768 39.235 0.768 39.235 0.633 -50.201
6439.333 0.63 -50.352 0.77 39.081 0.77 39.081 0.63 -50.352
6464.292 0.628 -50.502 0.772 38.928 0.772 38.928 0.628 -50.502
6489.25 0.626 -50.653 0.773 38.774 0.773 38.774 0.626 -50.653
6514.208 0.624 -50.802 0.775 38.621 0.775 38.621 0.624 -50.802
6539.167 0.622 -50.952 0.777 38.469 0.777 38.469 0.622 -50.952
6564.125 0.62 -51.101 0.778 38.317 0.778 38.317 0.62 -51.101
6589.083 0.618 -51.249 0.78 38.165 0.78 38.165 0.618 -51.249
6614.042 0.616 -51.398 0.782 38.013 0.782 38.013 0.616 -51.398
6639 0.614 -51.546 0.783 37.862 0.783 37.862 0.614 -51.546
6663.958 0.612 -51.693 0.785 37.711 0.785 37.711 0.612 -51.693
6688.917 0.61 -51.841 0.786 37.561 0.786 37.561 0.61 -51.841
6713.875 0.608 -51.988 0.788 37.41 0.788 37.41 0.608 -51.988
6738.833 0.605 -52.134 0.789 37.261 0.789 37.261 0.605 -52.134
6763.792 0.603 -52.28 0.791 37.111 0.791 37.111 0.603 -52.28
6788.75 0.601 -52.426 0.793 36.962 0.793 36.962 0.601 -52.426
6813.708 0.599 -52.572 0.794 36.813 0.794 36.813 0.599 -52.572
6838.667 0.597 -52.717 0.796 36.664 0.796 36.664 0.597 -52.717
6863.625 0.595 -52.862 0.797 36.516 0.797 36.516 0.595 -52.862
6888.583 0.593 -53.006 0.799 36.368 0.799 36.368 0.593 -53.006
6913.542 0.591 -53.15 0.8 36.221 0.8 36.221 0.591 -53.15
6938.5 0.589 -53.294 0.802 36.074 0.802 36.074 0.589 -53.294
6963.458 0.587 -53.438 0.803 35.927 0.803 35.927 0.587 -53.438
6988.417 0.585 -53.581 0.805 35.781 0.805 35.781 0.585 -53.581
7013.375 0.583 -53.723 0.806 35.634 0.806 35.634 0.583 -53.723
7038.333 0.581 -53.866 0.808 35.489 0.808 35.489 0.581 -53.866
7063.292 0.579 -54.008 0.809 35.343 0.809 35.343 0.579 -54.008
7088.25 0.576 -54.149 0.811 35.198 0.811 35.198 0.576 -54.149
7113.208 0.574 -54.291 0.812 35.053 0.812 35.053 0.574 -54.291
7138.167 0.572 -54.432 0.813 34.908 0.813 34.908 0.572 -54.432
7163.125 0.57 -54.572 0.815 34.764 0.815 34.764 0.57 -54.572
7188.083 0.568 -54.713 0.816 34.62 0.816 34.62 0.568 -54.713
7213.042 0.566 -54.853 0.818 34.477 0.818 34.477 0.566 -54.853
7238 0.564 -54.992 0.819 34.334 0.819 34.334 0.564 -54.992
7262.958 0.562 -55.132 0.821 34.191 0.821 34.191 0.562 -55.132
7287.917 0.56 -55.271 0.822 34.048 0.822 34.048 0.56 -55.271
7312.875 0.558 -55.409 0.823 33.906 0.823 33.906 0.558 -55.409
7337.833 0.556 -55.547 0.825 33.764 0.825 33.764 0.556 -55.547
7362.792 0.554 -55.685 0.826 33.622 0.826 33.622 0.554 -55.685
7387.75 0.552 -55.823 0.827 33.481 0.827 33.481 0.552 -55.823
7412.708 0.55 -55.96 0.829 33.34 0.829 33.34 0.55 -55.96
7437.667 0.548 -56.097 0.83 33.199 0.83 33.199 0.548 -56.097
7462.625 0.546 -56.234 0.831 33.059 0.831 33.059 0.546 -56.234
7487.583 0.543 -56.37 0.833 32.919 0.833 32.919 0.543 -56.37
7512.542 0.541 -56.506 0.834 32.779 0.834 32.779 0.541 -56.506
7537.5 0.539 -56.641 0.835 32.64 0.835 32.64 0.539 -56.641
7562.458 0.537 -56.777 0.837 32.501 0.837 32.501 0.537 -56.777
7587.417 0.535 -56.912 0.838 32.362 0.838 32.362 0.535 -56.912
7612.375 0.533 -57.046 0.839 32.223 0.839 32.223 0.533 -57.046
7637.333 0.531 -57.18 0.84 32.085 0.84 32.085 0.531 -57.18
7662.292 0.529 -57.314 0.842 31.947 0.842 31.947 0.529 -57.314
7687.25 0.527 -57.448 0.843 31.81 0.843 31.81 0.527 -57.448
7712.208 0.525 -57.581 0.844 31.673 0.844 31.673 0.525 -57.581
7737.167 0.523 -57.714 0.845 31.536 0.845 31.536 0.523 -57.714
7762.125 0.521 -57.847 0.847 31.399 0.847 31.399 0.521 -57.847
7787.083 0.519 -57.979 0.848 31.263 0.848 31.263 0.519 -57.979
7812.042 0.517 -58.111 0.849 31.127 0.849 31.127 0.517 -58.111
7837 0.515 -58.243 0.85 30.991 0.85 30.991 0.515 -58.243
7861.958 0.513 -58.374 0.852 30.856 0.852 30.856 0.513 -58.374
7886.917 0.511 -58.505 0.853 30.72 0.853 30.72 0.511 -58.505
7911.875 0.509 -58.635 0.854 30.586 0.854 30.586 0.509 -58.635
7936.833 0.507 -58.766 0.855 30.451 0.855 30.451 0.507 -58.766
7961.792 0.505 -58.896 0.856 30.317 0.856 30.317 0.505 -58.896
7986.75 0.503 -59.025 0.857 30.183 0.857 30.183 0.503 -59.025
8011.708 0.501 -59.155 0.859 30.049 0.859 30.049 0.501 -59.155
8036.667 0.499 -59.284 0.86 29.916 0.86 29.916 0.499 -59.284
8061.625 0.497 -59.412 0.861 29.783 0.861 29.783 0.497 -59.412
8086.583 0.495 -59.541 0.862 29.65 0.862 29.65 0.495 -59.541
8111.542 0.493 -59.669 0.863 29.518 0.863 29.518 0.493 -59.669
8136.5 0.491 -59.797 0.864 29.386 0.864 29.386 0.491 -59.797
