# MHZ S MA R 50

50 0.987 -9.104 0.158 80.892 0.158 80.892 0.987 -9.104
74.958 0.972 -13.512 0.234 76.482 0.234 76.482 0.972 -13.512
99.917 0.952 -17.767 0.305 72.225 0.305 72.225 0.952 -17.767
124.875 0.928 -21.834 0.372 68.156 0.372 68.156 0.928 -21.834
149.833 0.901 -25.688 0.433 64.3 0.433 64.3 0.901 -25.688
174.792 0.872 -29.314 0.49 60.672 0.49 60.672 0.872 -29.314
199.75 0.841 -32.707 0.54 57.277 0.54 57.277 0.841 -32.707
224.708 0.81 -35.868 0.586 54.114 0.586 54.114 0.81 -35.868
249.667 0.779 -38.803 0.627 51.177 0.627 51.177 0.779 -38.803
274.625 0.748 -41.523 0.663 48.455 0.663 48.455 0.748 -41.523
299.583 0.719 -44.04 0.695 45.936 0.695 45.936 0.719 -44.04
324.542 0.69 -46.369 0.724 43.605 0.724 43.605 0.69 -46.369
349.5 0.662 -48.522 0.749 41.45 0.749 41.45 0.662 -48.522
374.458 0.635 -50.515 0.772 39.455 0.772 39.455 0.635 -50.515
399.417 0.61 -52.361 0.792 37.607 0.792 37.607 0.61 -52.361
424.375 0.586 -54.073 0.81 35.893 0.81 35.893 0.586 -54.073
449.333 0.564 -55.662 0.826 34.302 0.826 34.302 0.564 -55.662
474.292 0.542 -57.14 0.84 32.822 0.84 32.822 0.542 -57.14
499.25 0.522 -58.516 0.853 31.444 0.853 31.444 0.522 -58.516
524.208 0.502 -59.8 0.864 30.158 0.864 30.158 0.502 -59.8
549.167 0.484 -60.999 0.875 28.957 0.875 28.957 0.484 -60.999
574.125 0.467 -62.121 0.884 27.832 0.884 27.832 0.467 -62.121
599.083 0.451 -63.173 0.892 26.778 0.892 26.778 0.451 -63.173
624.042 0.435 -64.161 0.9 25.788 0.9 25.788 0.435 -64.161
649 0.42 -65.09 0.907 24.857 0.907 24.857 0.42 -65.09
673.958 0.406 -65.965 0.913 23.98 0.913 23.98 0.406 -65.965
698.917 0.393 -66.79 0.919 23.152 0.919 23.152 0.393 -66.79
723.875 0.381 -67.57 0.924 22.37 0.924 22.37 0.381 -67.57
748.833 0.369 -68.308 0.929 21.63 0.929 21.63 0.369 -68.308
773.792 0.357 -69.008 0.934 20.928 0.934 20.928 0.357 -69.008
798.75 0.346 -69.671 0.938 20.262 0.938 20.262 0.346 -69.671
823.708 0.336 -70.302 0.941 19.629 0.941 19.629 0.336 -70.302
848.667 0.326 -70.902 0.945 19.027 0.945 19.027 0.326 -70.902
873.625 0.317 -71.473 0.948 18.453 0.948 18.453 0.317 -71.473
898.583 0.307 -72.018 0.951 17.906 0.951 17.906 0.307 -72.018
923.542 0.299 -72.539 0.954 17.383 0.954 17.383 0.299 -72.539
948.5 0.29 -73.036 0.956 16.883 0.956 16.883 0.29 -73.036
973.458 0.282 -73.512 0.959 16.404 0.959 16.404 0.282 -73.512
998.417 0.275 -73.968 0.961 15.946 0.961 15.946 0.275 -73.968
1023.375 0.267 -74.406 0.963 15.506 0.963 15.506 0.267 -74.406
1048.333 0.26 -74.825 0.965 15.083 0.965 15.083 0.26 -74.825
1073.292 0.253 -75.229 0.967 14.677 0.967 14.677 0.253 -75.229
1098.25 0.247 -75.617 0.969 14.286 0.969 14.286 0.247 -75.617
1123.208 0.24 -75.99 0.97 13.91 0.97 13.91 0.24 -75.99
1148.167 0.234 -76.35 0.972 13.548 0.972 13.548 0.234 -76.35
1173.125 0.228 -76.697 0.973 13.198 0.973 13.198 0.228 -76.697
1198.083 0.223 -77.031 0.974 12.861 0.974 12.861 0.223 -77.031
1223.042 0.217 -77.355 0.976 12.534 0.976 12.534 0.217 -77.355
1248 0.212 -77.667 0.977 12.219 0.977 12.219 0.212 -77.667
1272.958 0.206 -77.969 0.978 11.914 0.978 11.914 0.206 -77.969
1297.917 0.201 -78.262 0.979 11.619 0.979 11.619 0.201 -78.262
1322.875 0.197 -78.545 0.98 11.332 0.98 11.332 0.197 -78.545
1347.833 0.192 -78.819 0.981 11.055 0.981 11.055 0.192 -78.819
1372.792 0.187 -79.085 0.982 10.785 0.982 10.785 0.187 -79.085
1397.75 0.183 -79.343 0.983 10.524 0.983 10.524 0.183 -79.343
1422.708 0.178 -79.594 0.984 10.27 0.984 10.27 0.178 -79.594
1447.667 0.174 -79.838 0.984 10.023 0.984 10.023 0.174 -79.838
1472.625 0.17 -80.074 0.985 9.783 0.985 9.783 0.17 -80.074
1497.583 0.166 -80.304 0.986 9.549 0.986 9.549 0.166 -80.304
1522.542 0.162 -80.528 0.986 9.322 0.986 9.322 0.162 -80.528
1547.5 0.158 -80.746 0.987 9.1 0.987 9.1 0.158 -80.746
1572.458 0.154 -80.959 0.988 8.884 0.988 8.884 0.154 -80.959
1597.417 0.151 -81.166 0.988 8.673 0.988 8.673 0.151 -81.166
1622.375 0.147 -81.367 0.989 8.467 0.989 8.467 0.147 -81.367
1647.333 0.144 -81.564 0.989 8.266 0.989 8.266 0.144 -81.564
1672.292 0.14 -81.756 0.99 8.07 0.99 8.07 0.14 -81.756
1697.25 0.137 -81.943 0.99 7.878 0.99 7.878 0.137 -81.943
1722.208 0.134 -82.126 0.991 7.691 0.991 7.691 0.134 -82.126
1747.167 0.131 -82.305 0.991 7.508 0.991 7.508 0.131 -82.305
1772.125 0.128 -82.48 0.991 7.329 0.991 7.329 0.128 -82.48
1797.083 0.125 -82.651 0.992 7.153 0.992 7.153 0.125 -82.651
1822.042 0.122 -82.818 0.992 6.981 0.992 6.981 0.122 -82.818
1847 0.119 -82.981 0.993 6.813 0.993 6.813 0.119 -82.981
1871.958 0.116 -83.141 0.993 6.648 0.993 6.648 0.116 -83.141
1896.917 0.113 -83.297 0.993 6.486 0.993 6.486 0.113 -83.297
1921.875 0.11 -83.45 0.993 6.328 0.993 6.328 0.11 -83.45
1946.833 0.108 -83.6 0.994 6.172 0.994 6.172 0.108 -83.6
1971.792 0.105 -83.747 0.994 6.019 0.994 6.019 0.105 -83.747
1996.75 0.102 -83.891 0.994 5.869 0.994 5.869 0.102 -83.891
2021.708 0.1 -84.032 0.995 5.722 0.995 5.722 0.1 -84.032
2046.667 0.097 -84.17 0.995 5.577 0.995 5.577 0.097 -84.17
2071.625 0.095 -84.306 0.995 5.435 0.995 5.435 0.095 -84.306
2096.583 0.092 -84.439 0.995 5.296 0.995 5.296 0.092 -84.439
2121.542 0.09 -84.569 0.996 5.158 0.996 5.158 0.09 -84.569
2146.5 0.088 -84.697 0.996 5.023 0.996 5.023 0.088 -84.697
2171.458 0.085 -84.822 0.996 4.89 0.996 4.89 0.085 -84.822
2196.417 0.083 -84.945 0.996 4.759 0.996 4.759 0.083 -84.945
2221.375 0.081 -85.065 0.996 4.63 0.996 4.63 0.081 -85.065
2246.333 0.079 -85.184 0.996 4.504 0.996 4.504 0.079 -85.184
2271.292 0.076 -85.3 0.997 4.379 0.997 4.379 0.076 -85.3
2296.25 0.074 -85.413 0.997 4.255 0.997 4.255 0.074 -85.413
2321.208 0.072 -85.525 0.997 4.134 0.997 4.134 0.072 -85.525
2346.167 0.07 -85.634 0.997 4.015 0.997 4.015 0.07 -85.634
2371.125 0.068 -85.742 0.997 3.897 0.997 3.897 0.068 -85.742
2396.083 0.066 -85.847 0.997 3.781 0.997 3.781 0.066 -85.847
2421.042 0.064 -85.95 0.998 3.666 0.998 3.666 0.064 -85.95
2446 0.062 -86.05 0.998 3.553 0.998 3.553 0.062 -86.05
2470.958 0.06 -86.149 0.998 3.441 0.998 3.441 0.06 -86.149
2495.917 0.058 -86.246 0.998 3.331 0.998 3.331 0.058 -86.246
2520.875 0.056 -86.34 0.998 3.222 0.998 3.222 0.056 -86.34
2545.833 0.054 -86.433 0.998 3.115 0.998 3.115 0.054 -86.433
2570.792 0.052 -86.523 0.998 3.009 0.998 3.009 0.052 -86.523
2595.75 0.051 -86.611 0.998 2.904 0.998 2.904 0.051 -86.611
2620.708 0.049 -86.696 0.998 2.8 0.998 2.8 0.049 -86.696
2645.667 0.047 -86.779 0.998 2.698 0.998 2.698 0.047 -86.779
2670.625 0.045 -86.86 0.999 2.597 0.999 2.597 0.045 -86.86
2695.583 0.044 -86.938 0.999 2.497 0.999 2.497 0.044 -86.938
2720.542 0.042 -87.014 0.999 2.398 0.999 2.398 0.042 -87.014
2745.5 0.04 -87.087 0.999 2.3 0.999 2.3 0.04 -87.087
2770.458 0.038 -87.157 0.999 2.203 0.999 2.203 0.038 -87.157
2795.417 0.037 -87.223 0.999 2.107 0.999 2.107 0.037 -87.223
2820.375 0.035 -87.286 0.999 2.013 0.999 2.013 0.035 -87.286
2845.333 0.033 -87.346 0.999 1.919 0.999 1.919 0.033 -87.346
2870.292 0.032 -87.401 0.999 1.826 0.999 1.826 0.032 -87.401
2895.25 0.03 -87.452 0.999 1.734 0.999 1.734 0.03 -87.452
2920.208 0.029 -87.498 0.999 1.643 0.999 1.643 0.029 -87.498
2945.167 0.027 -87.538 0.999 1.553 0.999 1.553 0.027 -87.538
2970.125 0.026 -87.572 0.999 1.464 0.999 1.464 0.026 -87.572
2995.083 0.024 -87.598 0.999 1.376 0.999 1.376 0.024 -87.598
3020.042 0.022 -87.616 0.999 1.288 0.999 1.288 0.022 -87.616
3045 0.021 -87.624 0.999 1.201 0.999 1.201 0.021 -87.624
3069.958 0.019 -87.619 0.999 1.116 0.999 1.116 0.019 -87.619
3094.917 0.018 -87.6 0.999 1.03 0.999 1.03 0.018 -87.6
3119.875 0.017 -87.562 0.999 0.946 0.999 0.946 0.017 -87.562
3144.833 0.015 -87.501 0.999 0.862 0.999 0.862 0.015 -87.501
3169.792 0.014 -87.41 0.999 0.779 0.999 0.779 0.014 -87.41
3194.75 0.012 -87.279 0.999 0.697 0.999 0.697 0.012 -87.279
3219.708 0.011 -87.092 1 0.615 1 0.615 0.011 -87.092
3244.667 9.336e-3 -86.826 1 0.534 1 0.534 9.336e-3 -86.826
3269.625 7.937e-3 -86.44 1 0.454 1 0.454 7.937e-3 -86.44
3294.583 6.549e-3 -85.861 1 0.374 1 0.374 6.549e-3 -85.861
3319.542 5.173e-3 -84.937 1 0.295 1 0.295 5.173e-3 -84.937
3344.5 3.811e-3 -83.304 1 0.217 1 0.217 3.811e-3 -83.304
3369.458 2.465e-3 -79.816 1 0.139 1 0.139 2.465e-3 -79.816
3394.417 1.162e-3 -68.213 1 0.062 1 0.062 1.162e-3 -68.213
3419.375 502.2e-6 31.082 1 -0.015 1 -0.015 502.2e-6 31.082
3444.333 1.645e-3 74.759 1 -0.091 1 -0.091 1.645e-3 74.759
3469.292 2.939e-3 81.421 1 -0.167 1 -0.167 2.939e-3 81.421
3494.25 4.239e-3 83.937 1 -0.242 1 -0.242 4.239e-3 83.937
3519.208 5.535e-3 85.228 1 -0.316 1 -0.316 5.535e-3 85.228
3544.167 6.824e-3 85.997 1 -0.39 1 -0.39 6.824e-3 85.997
3569.125 8.105e-3 86.495 1 -0.464 1 -0.464 8.105e-3 86.495
3594.083 9.378e-3 86.835 1 -0.537 1 -0.537 9.378e-3 86.835
3619.042 0.011 87.075 1 -0.609 1 -0.609 0.011 87.075
3644 0.012 87.248 0.999 -0.681 0.999 -0.681 0.012 87.248
3668.958 0.013 87.373 0.999 -0.753 0.999 -0.753 0.013 87.373
3693.917 0.014 87.464 0.999 -0.824 0.999 -0.824 0.014 87.464
3718.875 0.016 87.528 0.999 -0.895 0.999 -0.895 0.016 87.528
3743.833 0.017 87.573 0.999 -0.965 0.999 -0.965 0.017 87.573
3768.792 0.018 87.602 0.999 -1.035 0.999 -1.035 0.018 87.602
3793.75 0.019 87.618 0.999 -1.104 0.999 -1.104 0.019 87.618
3818.708 0.02 87.624 0.999 -1.173 0.999 -1.173 0.02 87.624
3843.667 0.022 87.622 0.999 -1.242 0.999 -1.242 0.022 87.622
3868.625 0.023 87.613 0.999 -1.31 0.999 -1.31 0.023 87.613
3893.583 0.024 87.598 0.999 -1.378 0.999 -1.378 0.024 87.598
3918.542 0.025 87.578 0.999 -1.446 0.999 -1.446 0.025 87.578
3943.5 0.026 87.554 0.999 -1.513 0.999 -1.513 0.026 87.554
3968.458 0.028 87.527 0.999 -1.579 0.999 -1.579 0.028 87.527
3993.417 0.029 87.497 0.999 -1.646 0.999 -1.646 0.029 87.497
4018.375 0.03 87.464 0.999 -1.712 0.999 -1.712 0.03 87.464
4043.333 0.031 87.429 0.999 -1.777 0.999 -1.777 0.031 87.429
4068.292 0.032 87.392 0.999 -1.843 0.999 -1.843 0.032 87.392
4093.25 0.033 87.353 0.999 -1.908 0.999 -1.908 0.033 87.353
4118.208 0.034 87.312 0.999 -1.972 0.999 -1.972 0.034 87.312
4143.167 0.036 87.271 0.999 -2.037 0.999 -2.037 0.036 87.271
4168.125 0.037 87.228 0.999 -2.101 0.999 -2.101 0.037 87.228
4193.083 0.038 87.184 0.999 -2.164 0.999 -2.164 0.038 87.184
4218.042 0.039 87.139 0.999 -2.228 0.999 -2.228 0.039 87.139
4243 0.04 87.093 0.999 -2.291 0.999 -2.291 0.04 87.093
4267.958 0.041 87.047 0.999 -2.354 0.999 -2.354 0.041 87.047
4292.917 0.042 87 0.999 -2.416 0.999 -2.416 0.042 87
4317.875 0.043 86.952 0.999 -2.478 0.999 -2.478 0.043 86.952
4342.833 0.044 86.904 0.999 -2.54 0.999 -2.54 0.044 86.904
4367.792 0.045 86.856 0.999 -2.602 0.999 -2.602 0.045 86.856
4392.75 0.046 86.807 0.998 -2.663 0.998 -2.663 0.046 86.807
4417.708 0.048 86.758 0.998 -2.724 0.998 -2.724 0.048 86.758
4442.667 0.049 86.708 0.998 -2.785 0.998 -2.785 0.049 86.708
4467.625 0.05 86.659 0.998 -2.846 0.998 -2.846 0.05 86.659
4492.583 0.051 86.609 0.998 -2.906 0.998 -2.906 0.051 86.609
4517.542 0.052 86.558 0.998 -2.966 0.998 -2.966 0.052 86.558
4542.5 0.053 86.508 0.998 -3.026 0.998 -3.026 0.053 86.508
4567.458 0.054 86.457 0.998 -3.086 0.998 -3.086 0.054 86.457
4592.417 0.055 86.407 0.998 -3.145 0.998 -3.145 0.055 86.407
4617.375 0.056 86.356 0.998 -3.204 0.998 -3.204 0.056 86.356
4642.333 0.057 86.305 0.998 -3.263 0.998 -3.263 0.057 86.305
4667.292 0.058 86.254 0.998 -3.322 0.998 -3.322 0.058 86.254
4692.25 0.059 86.203 0.998 -3.38 0.998 -3.38 0.059 86.203
4717.208 0.06 86.152 0.998 -3.438 0.998 -3.438 0.06 86.152
4742.167 0.061 86.1 0.998 -3.496 0.998 -3.496 0.061 86.1
4767.125 0.062 86.049 0.998 -3.554 0.998 -3.554 0.062 86.049
4792.083 0.063 85.998 0.998 -3.612 0.998 -3.612 0.063 85.998
4817.042 0.064 85.947 0.998 -3.669 0.998 -3.669 0.064 85.947
4842 0.065 85.896 0.997 -3.726 0.997 -3.726 0.065 85.896
4866.958 0.066 85.844 0.997 -3.783 0.997 -3.783 0.066 85.844
4891.917 0.067 85.793 0.997 -3.84 0.997 -3.84 0.067 85.793
4916.875 0.068 85.742 0.997 -3.896 0.997 -3.896 0.068 85.742
4941.833 0.069 85.691 0.997 -3.953 0.997 -3.953 0.069 85.691
4966.792 0.07 85.64 0.997 -4.009 0.997 -4.009 0.07 85.64
4991.75 0.071 85.588 0.997 -4.065 0.997 -4.065 0.071 85.588
5016.708 0.072 85.537 0.997 -4.121 0.997 -4.121 0.072 85.537
5041.667 0.073 85.486 0.997 -4.176 0.997 -4.176 0.073 85.486
5066.625 0.074 85.435 0.997 -4.232 0.997 -4.232 0.074 85.435
5091.583 0.075 85.384 0.997 -4.287 0.997 -4.287 0.075 85.384
5116.542 0.076 85.334 0.997 -4.342 0.997 -4.342 0.076 85.334
5141.5 0.077 85.283 0.997 -4.397 0.997 -4.397 0.077 85.283
5166.458 0.078 85.232 0.997 -4.452 0.997 -4.452 0.078 85.232
5191.417 0.079 85.181 0.996 -4.506 0.996 -4.506 0.079 85.181
5216.375 0.08 85.131 0.996 -4.561 0.996 -4.561 0.08 85.131
5241.333 0.08 85.08 0.996 -4.615 0.996 -4.615 0.08 85.08
5266.292 0.081 85.03 0.996 -4.669 0.996 -4.669 0.081 85.03
5291.25 0.082 84.979 0.996 -4.723 0.996 -4.723 0.082 84.979
5316.208 0.083 84.929 0.996 -4.776 0.996 -4.776 0.083 84.929
5341.167 0.084 84.878 0.996 -4.83 0.996 -4.83 0.084 84.878
5366.125 0.085 84.828 0.996 -4.883 0.996 -4.883 0.085 84.828
5391.083 0.086 84.778 0.996 -4.937 0.996 -4.937 0.086 84.778
5416.042 0.087 84.728 0.996 -4.99 0.996 -4.99 0.087 84.728
5441 0.088 84.678 0.996 -5.043 0.996 -5.043 0.088 84.678
5465.958 0.089 84.628 0.996 -5.096 0.996 -5.096 0.089 84.628
5490.917 0.09 84.578 0.996 -5.148 0.996 -5.148 0.09 84.578
5515.875 0.091 84.528 0.995 -5.201 0.995 -5.201 0.091 84.528
5540.833 0.092 84.479 0.995 -5.253 0.995 -5.253 0.092 84.479
5565.792 0.092 84.429 0.995 -5.306 0.995 -5.306 0.092 84.429
5590.75 0.093 84.379 0.995 -5.358 0.995 -5.358 0.093 84.379
5615.708 0.094 84.33 0.995 -5.41 0.995 -5.41 0.094 84.33
5640.667 0.095 84.281 0.995 -5.462 0.995 -5.462 0.095 84.281
5665.625 0.096 84.231 0.995 -5.513 0.995 -5.513 0.096 84.231
5690.583 0.097 84.182 0.995 -5.565 0.995 -5.565 0.097 84.182
5715.542 0.098 84.133 0.995 -5.617 0.995 -5.617 0.098 84.133
5740.5 0.099 84.084 0.995 -5.668 0.995 -5.668 0.099 84.084
5765.458 0.1 84.035 0.995 -5.719 0.995 -5.719 0.1 84.035
5790.417 0.101 83.986 0.995 -5.77 0.995 -5.77 0.101 83.986
5815.375 0.101 83.937 0.994 -5.821 0.994 -5.821 0.101 83.937
5840.333 0.102 83.888 0.994 -5.872 0.994 -5.872 0.102 83.888
5865.292 0.103 83.84 0.994 -5.923 0.994 -5.923 0.103 83.84
5890.25 0.104 83.791 0.994 -5.973 0.994 -5.973 0.104 83.791
5915.208 0.105 83.743 0.994 -6.024 0.994 -6.024 0.105 83.743
5940.167 0.106 83.694 0.994 -6.074 0.994 -6.074 0.106 83.694
5965.125 0.107 83.646 0.994 -6.125 0.994 -6.125 0.107 83.646
5990.083 0.108 83.598 0.994 -6.175 0.994 -6.175 0.108 83.598
6015.042 0.108 83.549 0.994 -6.225 0.994 -6.225 0.108 83.549
6040 0.109 83.501 0.994 -6.275 0.994 -6.275 0.109 83.501
6064.958 0.11 83.453 0.993 -6.325 0.993 -6.325 0.11 83.453
6089.917 0.111 83.405 0.993 -6.374 0.993 -6.374 0.111 83.405
6114.875 0.112 83.357 0.993 -6.424 0.993 -6.424 0.112 83.357
6139.833 0.113 83.309 0.993 -6.473 0.993 -6.473 0.113 83.309
6164.792 0.114 83.262 0.993 -6.523 0.993 -6.523 0.114 83.262
6189.75 0.114 83.214 0.993 -6.572 0.993 -6.572 0.114 83.214
6214.708 0.115 83.166 0.993 -6.621 0.993 -6.621 0.115 83.166
6239.667 0.116 83.119 0.993 -6.67 0.993 -6.67 0.116 83.119
6264.625 0.117 83.071 0.993 -6.719 0.993 -6.719 0.117 83.071
6289.583 0.118 83.024 0.993 -6.768 0.993 -6.768 0.118 83.024
6314.542 0.119 82.977 0.993 -6.817 0.993 -6.817 0.119 82.977
6339.5 0.12 82.93 0.992 -6.866 0.992 -6.866 0.12 82.93
6364.458 0.12 82.882 0.992 -6.914 0.992 -6.914 0.12 82.882
6389.417 0.121 82.835 0.992 -6.963 0.992 -6.963 0.121 82.835
6414.375 0.122 82.788 0.992 -7.011 0.992 -7.011 0.122 82.788
6439.333 0.123 82.741 0.992 -7.06 0.992 -7.06 0.123 82.741
6464.292 0.124 82.695 0.992 -7.108 0.992 -7.108 0.124 82.695
6489.25 0.125 82.648 0.992 -7.156 0.992 -7.156 0.125 82.648
6514.208 0.125 82.601 0.992 -7.204 0.992 -7.204 0.125 82.601
6539.167 0.126 82.554 0.992 -7.252 0.992 -7.252 0.126 82.554
6564.125 0.127 82.508 0.991 -7.3 0.991 -7.3 0.127 82.508
6589.083 0.128 82.461 0.991 -7.348 0.991 -7.348 0.128 82.461
6614.042 0.129 82.415 0.991 -7.395 0.991 -7.395 0.129 82.415
6639 0.13 82.368 0.991 -7.443 0.991 -7.443 0.13 82.368
6663.958 0.13 82.322 0.991 -7.491 0.991 -7.491 0.13 82.322
6688.917 0.131 82.276 0.991 -7.538 0.991 -7.538 0.131 82.276
6713.875 0.132 82.23 0.991 -7.585 0.991 -7.585 0.132 82.23
6738.833 0.133 82.184 0.991 -7.633 0.991 -7.633 0.133 82.184
6763.792 0.134 82.137 0.991 -7.68 0.991 -7.68 0.134 82.137
6788.75 0.134 82.092 0.99 -7.727 0.99 -7.727 0.134 82.092
6813.708 0.135 82.046 0.99 -7.774 0.99 -7.774 0.135 82.046
6838.667 0.136 82 0.99 -7.821 0.99 -7.821 0.136 82
6863.625 0.137 81.954 0.99 -7.868 0.99 -7.868 0.137 81.954
6888.583 0.138 81.908 0.99 -7.915 0.99 -7.915 0.138 81.908
6913.542 0.139 81.863 0.99 -7.961 0.99 -7.961 0.139 81.863
6938.5 0.139 81.817 0.99 -8.008 0.99 -8.008 0.139 81.817
6963.458 0.14 81.771 0.99 -8.054 0.99 -8.054 0.14 81.771
6988.417 0.141 81.726 0.99 -8.101 0.99 -8.101 0.141 81.726
7013.375 0.142 81.681 0.989 -8.147 0.989 -8.147 0.142 81.681
7038.333 0.143 81.635 0.989 -8.194 0.989 -8.194 0.143 81.635
7063.292 0.143 81.59 0.989 -8.24 0.989 -8.24 0.143 81.59
7088.25 0.144 81.545 0.989 -8.286 0.989 -8.286 0.144 81.545
7113.208 0.145 81.499 0.989 -8.332 0.989 -8.332 0.145 81.499
7138.167 0.146 81.454 0.989 -8.378 0.989 -8.378 0.146 81.454
7163.125 0.147 81.409 0.989 -8.424 0.989 -8.424 0.147 81.409
7188.083 0.147 81.364 0.989 -8.47 0.989 -8.47 0.147 81.364
7213.042 0.148 81.319 0.989 -8.516 0.989 -8.516 0.148 81.319
7238 0.149 81.274 0.988 -8.562 0.988 -8.562 0.149 81.274
7262.958 0.15 81.23 0.988 -8.608 0.988 -8.608 0.15 81.23
7287.917 0.15 81.185 0.988 -8.653 0.988 -8.653 0.15 81.185
7312.875 0.151 81.14 0.988 -8.699 0.988 -8.699 0.151 81.14
7337.833 0.152 81.096 0.988 -8.744 0.988 -8.744 0.152 81.096
7362.792 0.153 81.051 0.988 -8.79 0.988 -8.79 0.153 81.051
7387.75 0.154 81.006 0.988 -8.835 0.988 -8.835 0.154 81.006
7412.708 0.154 80.962 0.988 -8.88 0.988 -8.88 0.154 80.962
7437.667 0.155 80.917 0.987 -8.926 0.987 -8.926 0.155 80.917
7462.625 0.156 80.873 0.987 -8.971 0.987 -8.971 0.156 80.873
7487.583 0.157 80.829 0.987 -9.016 0.987 -9.016 0.157 80.829
7512.542 0.157 80.785 0.987 -9.061 0.987 -9.061 0.157 80.785
7537.5 0.158 80.74 0.987 -9.106 0.987 -9.106 0.158 80.74
7562.458 0.159 80.696 0.987 -9.151 0.987 -9.151 0.159 80.696
7587.417 0.16 80.652 0.987 -9.196 0.987 -9.196 0.16 80.652
7612.375 0.161 80.608 0.987 -9.241 0.987 -9.241 0.161 80.608
7637.333 0.161 80.564 0.986 -9.285 0.986 -9.285 0.161 80.564
7662.292 0.162 80.52 0.986 -9.33 0.986 -9.33 0.162 80.52
7687.25 0.163 80.476 0.986 -9.375 0.986 -9.375 0.163 80.476
7712.208 0.164 80.432 0.986 -9.419 0.986 -9.419 0.164 80.432
7737.167 0.164 80.389 0.986 -9.464 0.986 -9.464 0.164 80.389
7762.125 0.165 80.345 0.986 -9.508 0.986 -9.508 0.165 80.345
7787.083 0.166 80.301 0.986 -9.552 0.986 -9.552 0.166 80.301
7812.042 0.167 80.257 0.986 -9.597 0.986 -9.597 0.167 80.257
7837 0.167 80.214 0.985 -9.641 0.985 -9.641 0.167 80.214
7861.958 0.168 80.17 0.985 -9.685 0.985 -9.685 0.168 80.17
7886.917 0.169 80.127 0.985 -9.729 0.985 -9.729 0.169 80.127
7911.875 0.17 80.083 0.985 -9.774 0.985 -9.774 0.17 80.083
7936.833 0.171 80.04 0.985 -9.818 0.985 -9.818 0.171 80.04
7961.792 0.171 79.997 0.985 -9.862 0.985 -9.862 0.171 79.997
7986.75 0.172 79.953 0.985 -9.906 0.985 -9.906 0.172 79.953
8011.708 0.173 79.91 0.985 -9.949 0.985 -9.949 0.173 79.91
8036.667 0.174 79.867 0.984 -9.993 0.984 -9.993 0.174 79.867
8061.625 0.174 79.824 0.984 -10.037 0.984 -10.037 0.174 79.824
8086.583 0.175 79.781 0.984 -10.081 0.984 -10.081 0.175 79.781
8111.542 0.176 79.738 0.984 -10.124 0.984 -10.124 0.176 79.738
8136.5 0.177 79.695 0.984 -10.168 0.984 -10.168 0.177 79.695
8161.458 0.177 79.652 0.984 -10.212 0.984 -10.212 0.177 79.652
8186.417 0.178 79.609 0.984 -10.255 0.984 -10.255 0.178 79.609
8211.375 0.179 79.566 0.983 -10.299 0.983 -10.299 0.179 79.566
8236.333 0.18 79.523 0.983 -10.342 0.983 -10.342 0.18 79.523
8261.292 0.18 79.48 0.983 -10.385 0.983 -10.385 0.18 79.48
8286.25 0.181 79.437 0.983 -10.429 0.983 -10.429 0.181 79.437
8311.208 0.182 79.395 0.983 -10.472 0.983 -10.472 0.182 79.395
8336.167 0.182 79.352 0.983 -10.515 0.983 -10.515 0.182 79.352
