# MHZ S MA R 50

50 0.858 -30.848 0.513 59.137 0.513 59.137 0.858 -30.848
74.958 0.745 -41.861 0.667 48.117 0.667 48.117 0.745 -41.861
99.917 0.641 -50.09 0.767 39.88 0.767 39.88 0.641 -50.09
124.875 0.555 -56.241 0.831 33.721 0.831 33.721 0.555 -56.241
149.833 0.485 -60.918 0.874 29.037 0.874 29.037 0.485 -60.918
174.792 0.429 -64.551 0.903 25.396 0.903 25.396 0.429 -64.551
199.75 0.383 -67.436 0.923 22.503 0.923 22.503 0.383 -67.436
224.708 0.345 -69.772 0.938 20.159 0.938 20.159 0.345 -69.772
249.667 0.313 -71.699 0.949 18.225 0.949 18.225 0.313 -71.699
274.625 0.286 -73.312 0.958 16.603 0.958 16.603 0.286 -73.312
299.583 0.263 -74.682 0.964 15.225 0.964 15.225 0.263 -74.682
324.542 0.243 -75.86 0.97 14.039 0.97 14.039 0.243 -75.86
349.5 0.225 -76.882 0.974 13.008 0.974 13.008 0.225 -76.882
374.458 0.21 -77.779 0.977 12.104 0.977 12.104 0.21 -77.779
399.417 0.196 -78.571 0.98 11.302 0.98 11.302 0.196 -78.571
424.375 0.184 -79.277 0.983 10.588 0.983 10.588 0.184 -79.277
449.333 0.173 -79.91 0.985 9.946 0.985 9.946 0.173 -79.91
474.292 0.163 -80.481 0.986 9.366 0.986 9.366 0.163 -80.481
499.25 0.154 -80.999 0.988 8.839 0.988 8.839 0.154 -80.999
524.208 0.145 -81.471 0.989 8.357 0.989 8.357 0.145 -81.471
549.167 0.138 -81.903 0.99 7.916 0.99 7.916 0.138 -81.903
574.125 0.131 -82.3 0.991 7.508 0.991 7.508 0.131 -82.3
599.083 0.124 -82.667 0.992 7.132 0.992 7.132 0.124 -82.667
624.042 0.118 -83.007 0.993 6.782 0.993 6.782 0.118 -83.007
649 0.112 -83.322 0.993 6.455 0.993 6.455 0.112 -83.322
673.958 0.107 -83.616 0.994 6.15 0.994 6.15 0.107 -83.616
698.917 0.102 -83.89 0.994 5.864 0.994 5.864 0.102 -83.89
723.875 0.098 -84.147 0.995 5.595 0.995 5.595 0.098 -84.147
748.833 0.093 -84.389 0.995 5.342 0.995 5.342 0.093 -84.389
773.792 0.089 -84.615 0.996 5.102 0.996 5.102 0.089 -84.615
798.75 0.085 -84.829 0.996 4.875 0.996 4.875 0.085 -84.829
823.708 0.081 -85.031 0.996 4.66 0.996 4.66 0.081 -85.031
848.667 0.078 -85.221 0.997 4.455 0.997 4.455 0.078 -85.221
873.625 0.074 -85.402 0.997 4.26 0.997 4.26 0.074 -85.402
898.583 0.071 -85.573 0.997 4.073 0.997 4.073 0.071 -85.573
923.542 0.068 -85.735 0.997 3.895 0.997 3.895 0.068 -85.735
948.5 0.065 -85.889 0.997 3.724 0.997 3.724 0.065 -85.889
973.458 0.062 -86.035 0.998 3.56 0.998 3.56 0.062 -86.035
998.417 0.059 -86.174 0.998 3.402 0.998 3.402 0.059 -86.174
1023.375 0.057 -86.305 0.998 3.251 0.998 3.251 0.057 -86.305
1048.333 0.054 -86.431 0.998 3.105 0.998 3.105 0.054 -86.431
1073.292 0.052 -86.55 0.998 2.964 0.998 2.964 0.052 -86.55
1098.25 0.049 -86.662 0.998 2.827 0.998 2.827 0.049 -86.662
1123.208 0.047 -86.769 0.998 2.696 0.998 2.696 0.047 -86.769
1148.167 0.045 -86.87 0.999 2.568 0.999 2.568 0.045 -86.87
1173.125 0.043 -86.965 0.999 2.445 0.999 2.445 0.043 -86.965
1198.083 0.041 -87.054 0.999 2.325 0.999 2.325 0.041 -87.054
1223.042 0.039 -87.138 0.999 2.208 0.999 2.208 0.039 -87.138
1248 0.037 -87.216 0.999 2.095 0.999 2.095 0.037 -87.216
1272.958 0.035 -87.288 0.999 1.985 0.999 1.985 0.035 -87.288
1297.917 0.033 -87.354 0.999 1.877 0.999 1.877 0.033 -87.354
1322.875 0.031 -87.413 0.999 1.773 0.999 1.773 0.031 -87.413
1347.833 0.029 -87.465 0.999 1.671 0.999 1.671 0.029 -87.465
1372.792 0.027 -87.51 0.999 1.571 0.999 1.571 0.027 -87.51
1397.75 0.026 -87.547 0.999 1.474 0.999 1.474 0.026 -87.547
1422.708 0.024 -87.574 0.999 1.379 0.999 1.379 0.024 -87.574
1447.667 0.022 -87.591 0.999 1.286 0.999 1.286 0.022 -87.591
1472.625 0.021 -87.597 0.999 1.195 0.999 1.195 0.021 -87.597
1497.583 0.019 -87.589 0.999 1.105 0.999 1.105 0.019 -87.589
1522.542 0.018 -87.564 0.999 1.018 0.999 1.018 0.018 -87.564
1547.5 0.016 -87.519 0.999 0.932 0.999 0.932 0.016 -87.519
1572.458 0.015 -87.45 0.999 0.848 0.999 0.848 0.015 -87.45
1597.417 0.013 -87.349 0.999 0.766 0.999 0.766 0.013 -87.349
1622.375 0.012 -87.207 0.999 0.684 0.999 0.684 0.012 -87.207
1647.333 0.011 -87.008 1 0.605 1 0.605 0.011 -87.008
1672.292 9.195e-3 -86.732 1 0.526 1 0.526 9.195e-3 -86.732
1697.25 7.85e-3 -86.339 1 0.449 1 0.449 7.85e-3 -86.339
1722.208 6.528e-3 -85.763 1 0.373 1 0.373 6.528e-3 -85.763
1747.167 5.227e-3 -84.874 1 0.298 1 0.298 5.227e-3 -84.874
1772.125 3.948e-3 -83.378 1 0.225 1 0.225 3.948e-3 -83.378
1797.083 2.693e-3 -80.447 1 0.152 1 0.152 2.693e-3 -80.447
1822.042 1.476e-3 -72.576 1 0.081 1 0.081 1.476e-3 -72.576
1847 474.4e-6 -21.964 1 0.01 1 0.01 474.4e-6 -21.964
1871.958 1.127e-3 66.955 1 -0.059 1 -0.059 1.127e-3 66.955
1896.917 2.279e-3 78.741 1 -0.128 1 -0.128 2.279e-3 78.741
1921.875 3.447e-3 82.473 1 -0.196 1 -0.196 3.447e-3 82.473
1946.833 4.609e-3 84.26 1 -0.263 1 -0.263 4.609e-3 84.26
1971.792 5.759e-3 85.29 1 -0.329 1 -0.329 5.759e-3 85.29
1996.75 6.897e-3 85.949 1 -0.394 1 -0.394 6.897e-3 85.949
2021.708 8.023e-3 86.398 1 -0.459 1 -0.459 8.023e-3 86.398
2046.667 9.137e-3 86.718 1 -0.523 1 -0.523 9.137e-3 86.718
2071.625 0.01 86.952 1 -0.586 1 -0.586 0.01 86.952
2096.583 0.011 87.126 0.999 -0.649 0.999 -0.649 0.011 87.126
2121.542 0.012 87.258 0.999 -0.71 0.999 -0.71 0.012 87.258
2146.5 0.013 87.358 0.999 -0.772 0.999 -0.772 0.013 87.358
2171.458 0.015 87.433 0.999 -0.832 0.999 -0.832 0.015 87.433
2196.417 0.016 87.49 0.999 -0.892 0.999 -0.892 0.016 87.49
2221.375 0.017 87.532 0.999 -0.952 0.999 -0.952 0.017 87.532
2246.333 0.018 87.561 0.999 -1.011 0.999 -1.011 0.018 87.561
2271.292 0.019 87.581 0.999 -1.069 0.999 -1.069 0.019 87.581
2296.25 0.02 87.592 0.999 -1.127 0.999 -1.127 0.02 87.592
2321.208 0.021 87.597 0.999 -1.185 0.999 -1.185 0.021 87.597
2346.167 0.022 87.596 0.999 -1.241 0.999 -1.241 0.022 87.596
2371.125 0.023 87.59 0.999 -1.298 0.999 -1.298 0.023 87.59
2396.083 0.024 87.58 0.999 -1.354 0.999 -1.354 0.024 87.58
2421.042 0.025 87.566 0.999 -1.409 0.999 -1.409 0.025 87.566
2446 0.026 87.55 0.999 -1.465 0.999 -1.465 0.026 87.55
2470.958 0.027 87.53 0.999 -1.519 0.999 -1.519 0.027 87.53
2495.917 0.027 87.509 0.999 -1.574 0.999 -1.574 0.027 87.509
2520.875 0.028 87.485 0.999 -1.628 0.999 -1.628 0.028 87.485
2545.833 0.029 87.46 0.999 -1.681 0.999 -1.681 0.029 87.46
2570.792 0.03 87.433 0.999 -1.734 0.999 -1.734 0.03 87.433
2595.75 0.031 87.405 0.999 -1.787 0.999 -1.787 0.031 87.405
2620.708 0.032 87.376 0.999 -1.84 0.999 -1.84 0.032 87.376
2645.667 0.033 87.345 0.999 -1.892 0.999 -1.892 0.033 87.345
2670.625 0.034 87.314 0.999 -1.944 0.999 -1.944 0.034 87.314
2695.583 0.035 87.281 0.999 -1.995 0.999 -1.995 0.035 87.281
2720.542 0.036 87.248 0.999 -2.047 0.999 -2.047 0.036 87.248
2745.5 0.037 87.214 0.999 -2.097 0.999 -2.097 0.037 87.214
2770.458 0.037 87.18 0.999 -2.148 0.999 -2.148 0.037 87.18
2795.417 0.038 87.145 0.999 -2.198 0.999 -2.198 0.038 87.145
2820.375 0.039 87.11 0.999 -2.249 0.999 -2.249 0.039 87.11
2845.333 0.04 87.074 0.999 -2.298 0.999 -2.298 0.04 87.074
2870.292 0.041 87.037 0.999 -2.348 0.999 -2.348 0.041 87.037
2895.25 0.042 87.001 0.999 -2.397 0.999 -2.397 0.042 87.001
2920.208 0.043 86.964 0.999 -2.446 0.999 -2.446 0.043 86.964
2945.167 0.044 86.927 0.999 -2.495 0.999 -2.495 0.044 86.927
2970.125 0.044 86.889 0.999 -2.544 0.999 -2.544 0.044 86.889
2995.083 0.045 86.851 0.999 -2.592 0.999 -2.592 0.045 86.851
3020.042 0.046 86.813 0.998 -2.64 0.998 -2.64 0.046 86.813
3045 0.047 86.775 0.998 -2.688 0.998 -2.688 0.047 86.775
3069.958 0.048 86.737 0.998 -2.735 0.998 -2.735 0.048 86.737
3094.917 0.049 86.699 0.998 -2.783 0.998 -2.783 0.049 86.699
3119.875 0.049 86.66 0.998 -2.83 0.998 -2.83 0.049 86.66
3144.833 0.05 86.621 0.998 -2.877 0.998 -2.877 0.05 86.621
3169.792 0.051 86.582 0.998 -2.924 0.998 -2.924 0.051 86.582
3194.75 0.052 86.544 0.998 -2.971 0.998 -2.971 0.052 86.544
3219.708 0.053 86.505 0.998 -3.017 0.998 -3.017 0.053 86.505
3244.667 0.053 86.466 0.998 -3.064 0.998 -3.064 0.053 86.466
3269.625 0.054 86.426 0.998 -3.11 0.998 -3.11 0.054 86.426
3294.583 0.055 86.387 0.998 -3.156 0.998 -3.156 0.055 86.387
3319.542 0.056 86.348 0.998 -3.201 0.998 -3.201 0.056 86.348
3344.5 0.057 86.309 0.998 -3.247 0.998 -3.247 0.057 86.309
3369.458 0.057 86.269 0.998 -3.292 0.998 -3.292 0.057 86.269
3394.417 0.058 86.23 0.998 -3.338 0.998 -3.338 0.058 86.23
3419.375 0.059 86.191 0.998 -3.383 0.998 -3.383 0.059 86.191
3444.333 0.06 86.151 0.998 -3.428 0.998 -3.428 0.06 86.151
3469.292 0.061 86.112 0.998 -3.473 0.998 -3.473 0.061 86.112
3494.25 0.061 86.073 0.998 -3.517 0.998 -3.517 0.061 86.073
3519.208 0.062 86.033 0.998 -3.562 0.998 -3.562 0.062 86.033
3544.167 0.063 85.994 0.998 -3.606 0.998 -3.606 0.063 85.994
3569.125 0.064 85.955 0.998 -3.65 0.998 -3.65 0.064 85.955
3594.083 0.064 85.915 0.997 -3.695 0.997 -3.695 0.064 85.915
3619.042 0.065 85.876 0.997 -3.738 0.997 -3.738 0.065 85.876
3644 0.066 85.836 0.997 -3.782 0.997 -3.782 0.066 85.836
3668.958 0.067 85.797 0.997 -3.826 0.997 -3.826 0.067 85.797
3693.917 0.067 85.758 0.997 -3.87 0.997 -3.87 0.067 85.758
3718.875 0.068 85.718 0.997 -3.913 0.997 -3.913 0.068 85.718
3743.833 0.069 85.679 0.997 -3.956 0.997 -3.956 0.069 85.679
3768.792 0.07 85.64 0.997 -4 0.997 -4 0.07 85.64
3793.75 0.071 85.601 0.997 -4.043 0.997 -4.043 0.071 85.601
3818.708 0.071 85.561 0.997 -4.086 0.997 -4.086 0.071 85.561
3843.667 0.072 85.522 0.997 -4.129 0.997 -4.129 0.072 85.522
3868.625 0.073 85.483 0.997 -4.172 0.997 -4.172 0.073 85.483
3893.583 0.073 85.444 0.997 -4.214 0.997 -4.214 0.073 85.444
3918.542 0.074 85.405 0.997 -4.257 0.997 -4.257 0.074 85.405
3943.5 0.075 85.365 0.997 -4.299 0.997 -4.299 0.075 85.365
3968.458 0.076 85.326 0.997 -4.342 0.997 -4.342 0.076 85.326
3993.417 0.076 85.287 0.997 -4.384 0.997 -4.384 0.076 85.287
4018.375 0.077 85.248 0.997 -4.426 0.997 -4.426 0.077 85.248
4043.333 0.078 85.209 0.997 -4.468 0.997 -4.468 0.078 85.209
4068.292 0.079 85.17 0.996 -4.51 0.996 -4.51 0.079 85.17
4093.25 0.079 85.131 0.996 -4.552 0.996 -4.552 0.079 85.131
4118.208 0.08 85.092 0.996 -4.594 0.996 -4.594 0.08 85.092
4143.167 0.081 85.054 0.996 -4.636 0.996 -4.636 0.081 85.054
4168.125 0.082 85.015 0.996 -4.677 0.996 -4.677 0.082 85.015
4193.083 0.082 84.976 0.996 -4.719 0.996 -4.719 0.082 84.976
4218.042 0.083 84.937 0.996 -4.76 0.996 -4.76 0.083 84.937
4243 0.084 84.898 0.996 -4.801 0.996 -4.801 0.084 84.898
4267.958 0.084 84.86 0.996 -4.843 0.996 -4.843 0.084 84.86
4292.917 0.085 84.821 0.996 -4.884 0.996 -4.884 0.085 84.821
4317.875 0.086 84.782 0.996 -4.925 0.996 -4.925 0.086 84.782
4342.833 0.087 84.744 0.996 -4.966 0.996 -4.966 0.087 84.744
4367.792 0.087 84.705 0.996 -5.007 0.996 -5.007 0.087 84.705
4392.75 0.088 84.667 0.996 -5.048 0.996 -5.048 0.088 84.667
4417.708 0.089 84.628 0.996 -5.089 0.996 -5.089 0.089 84.628
4442.667 0.089 84.59 0.996 -5.129 0.996 -5.129 0.089 84.59
4467.625 0.09 84.551 0.995 -5.17 0.995 -5.17 0.09 84.551
4492.583 0.091 84.513 0.995 -5.211 0.995 -5.211 0.091 84.513
4517.542 0.092 84.474 0.995 -5.251 0.995 -5.251 0.092 84.474
4542.5 0.092 84.436 0.995 -5.292 0.995 -5.292 0.092 84.436
4567.458 0.093 84.398 0.995 -5.332 0.995 -5.332 0.093 84.398
4592.417 0.094 84.36 0.995 -5.372 0.995 -5.372 0.094 84.36
4617.375 0.094 84.321 0.995 -5.413 0.995 -5.413 0.094 84.321
4642.333 0.095 84.283 0.995 -5.453 0.995 -5.453 0.095 84.283
4667.292 0.096 84.245 0.995 -5.493 0.995 -5.493 0.096 84.245
4692.25 0.096 84.207 0.995 -5.533 0.995 -5.533 0.096 84.207
4717.208 0.097 84.169 0.995 -5.573 0.995 -5.573 0.097 84.169
4742.167 0.098 84.131 0.995 -5.613 0.995 -5.613 0.098 84.131
4767.125 0.099 84.093 0.995 -5.653 0.995 -5.653 0.099 84.093
4792.083 0.099 84.055 0.995 -5.693 0.995 -5.693 0.099 84.055
4817.042 0.1 84.017 0.995 -5.732 0.995 -5.732 0.1 84.017
4842 0.101 83.979 0.994 -5.772 0.994 -5.772 0.101 83.979
4866.958 0.101 83.941 0.994 -5.812 0.994 -5.812 0.101 83.941
4891.917 0.102 83.903 0.994 -5.851 0.994 -5.851 0.102 83.903
4916.875 0.103 83.865 0.994 -5.891 0.994 -5.891 0.103 83.865
4941.833 0.103 83.827 0.994 -5.93 0.994 -5.93 0.103 83.827
4966.792 0.104 83.789 0.994 -5.97 0.994 -5.97 0.104 83.789
4991.75 0.105 83.752 0.994 -6.009 0.994 -6.009 0.105 83.752
5016.708 0.105 83.714 0.994 -6.048 0.994 -6.048 0.105 83.714
5041.667 0.106 83.676 0.994 -6.088 0.994 -6.088 0.106 83.676
5066.625 0.107 83.638 0.994 -6.127 0.994 -6.127 0.107 83.638
5091.583 0.107 83.601 0.994 -6.166 0.994 -6.166 0.107 83.601
5116.542 0.108 83.563 0.994 -6.205 0.994 -6.205 0.108 83.563
5141.5 0.109 83.526 0.994 -6.244 0.994 -6.244 0.109 83.526
5166.458 0.109 83.488 0.994 -6.283 0.994 -6.283 0.109 83.488
5191.417 0.11 83.45 0.993 -6.322 0.993 -6.322 0.11 83.45
5216.375 0.111 83.413 0.993 -6.361 0.993 -6.361 0.111 83.413
5241.333 0.111 83.376 0.993 -6.4 0.993 -6.4 0.111 83.376
5266.292 0.112 83.338 0.993 -6.439 0.993 -6.439 0.112 83.338
5291.25 0.113 83.301 0.993 -6.477 0.993 -6.477 0.113 83.301
5316.208 0.113 83.263 0.993 -6.516 0.993 -6.516 0.113 83.263
5341.167 0.114 83.226 0.993 -6.555 0.993 -6.555 0.114 83.226
5366.125 0.115 83.189 0.993 -6.593 0.993 -6.593 0.115 83.189
5391.083 0.115 83.151 0.993 -6.632 0.993 -6.632 0.115 83.151
5416.042 0.116 83.114 0.993 -6.67 0.993 -6.67 0.116 83.114
5441 0.117 83.077 0.993 -6.709 0.993 -6.709 0.117 83.077
5465.958 0.117 83.04 0.993 -6.747 0.993 -6.747 0.117 83.04
5490.917 0.118 83.002 0.993 -6.786 0.993 -6.786 0.118 83.002
5515.875 0.119 82.965 0.992 -6.824 0.992 -6.824 0.119 82.965
5540.833 0.119 82.928 0.992 -6.863 0.992 -6.863 0.119 82.928
5565.792 0.12 82.891 0.992 -6.901 0.992 -6.901 0.12 82.891
5590.75 0.121 82.854 0.992 -6.939 0.992 -6.939 0.121 82.854
5615.708 0.121 82.817 0.992 -6.977 0.992 -6.977 0.121 82.817
5640.667 0.122 82.78 0.992 -7.015 0.992 -7.015 0.122 82.78
5665.625 0.123 82.743 0.992 -7.054 0.992 -7.054 0.123 82.743
5690.583 0.123 82.706 0.992 -7.092 0.992 -7.092 0.123 82.706
5715.542 0.124 82.669 0.992 -7.13 0.992 -7.13 0.124 82.669
5740.5 0.125 82.632 0.992 -7.168 0.992 -7.168 0.125 82.632
5765.458 0.125 82.595 0.992 -7.206 0.992 -7.206 0.125 82.595
5790.417 0.126 82.558 0.992 -7.244 0.992 -7.244 0.126 82.558
5815.375 0.127 82.521 0.991 -7.281 0.991 -7.281 0.127 82.521
5840.333 0.127 82.484 0.991 -7.319 0.991 -7.319 0.127 82.484
5865.292 0.128 82.448 0.991 -7.357 0.991 -7.357 0.128 82.448
5890.25 0.129 82.411 0.991 -7.395 0.991 -7.395 0.129 82.411
5915.208 0.129 82.374 0.991 -7.433 0.991 -7.433 0.129 82.374
5940.167 0.13 82.337 0.991 -7.47 0.991 -7.47 0.13 82.337
5965.125 0.131 82.301 0.991 -7.508 0.991 -7.508 0.131 82.301
5990.083 0.131 82.264 0.991 -7.546 0.991 -7.546 0.131 82.264
6015.042 0.132 82.227 0.991 -7.583 0.991 -7.583 0.132 82.227
6040 0.133 82.191 0.991 -7.621 0.991 -7.621 0.133 82.191
6064.958 0.133 82.154 0.991 -7.659 0.991 -7.659 0.133 82.154
6089.917 0.134 82.117 0.991 -7.696 0.991 -7.696 0.134 82.117
6114.875 0.135 82.081 0.99 -7.734 0.99 -7.734 0.135 82.081
6139.833 0.135 82.044 0.99 -7.771 0.99 -7.771 0.135 82.044
6164.792 0.136 82.008 0.99 -7.808 0.99 -7.808 0.136 82.008
6189.75 0.137 81.971 0.99 -7.846 0.99 -7.846 0.137 81.971
6214.708 0.137 81.935 0.99 -7.883 0.99 -7.883 0.137 81.935
6239.667 0.138 81.898 0.99 -7.921 0.99 -7.921 0.138 81.898
6264.625 0.138 81.862 0.99 -7.958 0.99 -7.958 0.138 81.862
6289.583 0.139 81.825 0.99 -7.995 0.99 -7.995 0.139 81.825
6314.542 0.14 81.789 0.99 -8.032 0.99 -8.032 0.14 81.789
6339.5 0.14 81.753 0.99 -8.07 0.99 -8.07 0.14 81.753
6364.458 0.141 81.716 0.99 -8.107 0.99 -8.107 0.141 81.716
6389.417 0.142 81.68 0.989 -8.144 0.989 -8.144 0.142 81.68
6414.375 0.142 81.644 0.989 -8.181 0.989 -8.181 0.142 81.644
6439.333 0.143 81.607 0.989 -8.218 0.989 -8.218 0.143 81.607
6464.292 0.144 81.571 0.989 -8.255 0.989 -8.255 0.144 81.571
6489.25 0.144 81.535 0.989 -8.292 0.989 -8.292 0.144 81.535
6514.208 0.145 81.499 0.989 -8.329 0.989 -8.329 0.145 81.499
6539.167 0.145 81.462 0.989 -8.366 0.989 -8.366 0.145 81.462
6564.125 0.146 81.426 0.989 -8.403 0.989 -8.403 0.146 81.426
6589.083 0.147 81.39 0.989 -8.44 0.989 -8.44 0.147 81.39
6614.042 0.147 81.354 0.989 -8.477 0.989 -8.477 0.147 81.354
6639 0.148 81.318 0.989 -8.514 0.989 -8.514 0.148 81.318
6663.958 0.149 81.282 0.988 -8.551 0.988 -8.551 0.149 81.282
6688.917 0.149 81.246 0.988 -8.587 0.988 -8.587 0.149 81.246
6713.875 0.15 81.21 0.988 -8.624 0.988 -8.624 0.15 81.21
6738.833 0.151 81.174 0.988 -8.661 0.988 -8.661 0.151 81.174
6763.792 0.151 81.138 0.988 -8.698 0.988 -8.698 0.151 81.138
6788.75 0.152 81.102 0.988 -8.734 0.988 -8.734 0.152 81.102
6813.708 0.152 81.066 0.988 -8.771 0.988 -8.771 0.152 81.066
6838.667 0.153 81.03 0.988 -8.808 0.988 -8.808 0.153 81.03
6863.625 0.154 80.994 0.988 -8.844 0.988 -8.844 0.154 80.994
6888.583 0.154 80.958 0.988 -8.881 0.988 -8.881 0.154 80.958
6913.542 0.155 80.922 0.987 -8.918 0.987 -8.918 0.155 80.922
6938.5 0.156 80.886 0.987 -8.954 0.987 -8.954 0.156 80.886
6963.458 0.156 80.85 0.987 -8.991 0.987 -8.991 0.156 80.85
6988.417 0.157 80.814 0.987 -9.027 0.987 -9.027 0.157 80.814
7013.375 0.158 80.778 0.987 -9.064 0.987 -9.064 0.158 80.778
7038.333 0.158 80.743 0.987 -9.1 0.987 -9.1 0.158 80.743
7063.292 0.159 80.707 0.987 -9.136 0.987 -9.136 0.159 80.707
7088.25 0.159 80.671 0.987 -9.173 0.987 -9.173 0.159 80.671
7113.208 0.16 80.635 0.987 -9.209 0.987 -9.209 0.16 80.635
7138.167 0.161 80.6 0.987 -9.246 0.987 -9.246 0.161 80.6
7163.125 0.161 80.564 0.986 -9.282 0.986 -9.282 0.161 80.564
7188.083 0.162 80.528 0.986 -9.318 0.986 -9.318 0.162 80.528
7213.042 0.163 80.492 0.986 -9.355 0.986 -9.355 0.163 80.492
7238 0.163 80.457 0.986 -9.391 0.986 -9.391 0.163 80.457
7262.958 0.164 80.421 0.986 -9.427 0.986 -9.427 0.164 80.421
7287.917 0.164 80.385 0.986 -9.463 0.986 -9.463 0.164 80.385
7312.875 0.165 80.35 0.986 -9.499 0.986 -9.499 0.165 80.35
7337.833 0.166 80.314 0.986 -9.536 0.986 -9.536 0.166 80.314
7362.792 0.166 80.279 0.986 -9.572 0.986 -9.572 0.166 80.279
7387.75 0.167 80.243 0.986 -9.608 0.986 -9.608 0.167 80.243
7412.708 0.168 80.208 0.985 -9.644 0.985 -9.644 0.168 80.208
7437.667 0.168 80.172 0.985 -9.68 0.985 -9.68 0.168 80.172
7462.625 0.169 80.137 0.985 -9.716 0.985 -9.716 0.169 80.137
7487.583 0.169 80.101 0.985 -9.752 0.985 -9.752 0.169 80.101
7512.542 0.17 80.066 0.985 -9.788 0.985 -9.788 0.17 80.066
7537.5 0.171 80.03 0.985 -9.824 0.985 -9.824 0.171 80.03
7562.458 0.171 79.995 0.985 -9.86 0.985 -9.86 0.171 79.995
7587.417 0.172 79.959 0.985 -9.896 0.985 -9.896 0.172 79.959
7612.375 0.172 79.924 0.985 -9.932 0.985 -9.932 0.172 79.924
7637.333 0.173 79.889 0.984 -9.968 0.984 -9.968 0.173 79.889
7662.292 0.174 79.853 0.984 -10.004 0.984 -10.004 0.174 79.853
7687.25 0.174 79.818 0.984 -10.04 0.984 -10.04 0.174 79.818
7712.208 0.175 79.782 0.984 -10.076 0.984 -10.076 0.175 79.782
7737.167 0.176 79.747 0.984 -10.111 0.984 -10.111 0.176 79.747
7762.125 0.176 79.712 0.984 -10.147 0.984 -10.147 0.176 79.712
7787.083 0.177 79.677 0.984 -10.183 0.984 -10.183 0.177 79.677
7812.042 0.177 79.641 0.984 -10.219 0.984 -10.219 0.177 79.641
7837 0.178 79.606 0.984 -10.255 0.984 -10.255 0.178 79.606
7861.958 0.179 79.571 0.983 -10.29 0.983 -10.29 0.179 79.571
7886.917 0.179 79.536 0.983 -10.326 0.983 -10.326 0.179 79.536
7911.875 0.18 79.5 0.983 -10.362 0.983 -10.362 0.18 79.5
7936.833 0.18 79.465 0.983 -10.397 0.983 -10.397 0.18 79.465
7961.792 0.181 79.43 0.983 -10.433 0.983 -10.433 0.181 79.43
7986.75 0.182 79.395 0.983 -10.469 0.983 -10.469 0.182 79.395
8011.708 0.182 79.36 0.983 -10.504 0.983 -10.504 0.182 79.36
8036.667 0.183 79.325 0.983 -10.54 0.983 -10.54 0.183 79.325
8061.625 0.184 79.289 0.983 -10.575 0.983 -10.575 0.184 79.289
8086.583 0.184 79.254 0.982 -10.611 0.982 -10.611 0.184 79.254
8111.542 0.185 79.219 0.982 -10.647 0.982 -10.647 0.185 79.219
8136.5 0.185 79.184 0.982 -10.682 0.982 -10.682 0.185 79.184
8161.458 0.186 79.149 0.982 -10.718 0.982 -10.718 0.186 79.149
8186.417 0.187 79.114 0.982 -10.753 0.982 -10.753 0.187 79.114
8211.375 0.187 79.079 0.982 -10.789 0.982 -10.789 0.187 79.079
8236.333 0.188 79.044 0.982 -10.824 0.982 -10.824 0.188 79.044
8261.292 0.188 79.009 0.982 -10.859 0.982 -10.859 0.188 79.009
8286.25 0.189 78.974 0.982 -10.895 0.982 -10.895 0.189 78.974
8311.208 0.19 78.939 0.981 -10.93 0.981 -10.93 0.19 78.939
8336.167 0.19 78.904 0.981 -10.966 0.981 -10.966 0.19 78.904
