# MHZ S MA R 50

50 0.998 -3.775 0.066 86.221 0.066 86.221 0.998 -3.775
74.958 0.995 -5.65 0.098 84.344 0.098 84.344 0.995 -5.65
99.917 0.991 -7.513 0.131 82.479 0.131 82.479 0.991 -7.513
124.875 0.987 -9.361 0.163 80.629 0.163 80.629 0.987 -9.361
149.833 0.981 -11.191 0.194 78.797 0.194 78.797 0.981 -11.191
174.792 0.974 -13 0.225 76.986 0.225 76.986 0.974 -13
199.75 0.967 -14.784 0.255 75.2 0.255 75.2 0.967 -14.784
224.708 0.959 -16.541 0.285 73.441 0.285 73.441 0.959 -16.541
249.667 0.949 -18.268 0.313 71.712 0.313 71.712 0.949 -18.268
274.625 0.94 -19.964 0.341 70.014 0.341 70.014 0.94 -19.964
299.583 0.929 -21.626 0.369 68.35 0.369 68.35 0.929 -21.626
324.542 0.919 -23.253 0.395 66.72 0.395 66.72 0.919 -23.253
349.5 0.907 -24.844 0.42 65.127 0.42 65.127 0.907 -24.844
374.458 0.895 -26.397 0.445 63.572 0.445 63.572 0.895 -26.397
399.417 0.883 -27.913 0.468 62.054 0.468 62.054 0.883 -27.913
424.375 0.871 -29.39 0.491 60.575 0.491 60.575 0.871 -29.39
449.333 0.858 -30.829 0.512 59.134 0.512 59.134 0.858 -30.829
474.292 0.846 -32.228 0.533 57.733 0.533 57.733 0.846 -32.228
499.25 0.833 -33.589 0.553 56.37 0.553 56.37 0.833 -33.589
524.208 0.82 -34.912 0.572 55.045 0.572 55.045 0.82 -34.912
549.167 0.807 -36.196 0.591 53.759 0.591 53.759 0.807 -36.196
574.125 0.793 -37.443 0.608 52.51 0.608 52.51 0.793 -37.443
599.083 0.78 -38.653 0.625 51.298 0.625 51.298 0.78 -38.653
624.042 0.767 -39.827 0.64 50.122 0.64 50.122 0.767 -39.827
649 0.754 -40.965 0.656 48.981 0.656 48.981 0.754 -40.965
673.958 0.742 -42.069 0.67 47.875 0.67 47.875 0.742 -42.069
698.917 0.729 -43.139 0.684 46.803 0.684 46.803 0.729 -43.139
723.875 0.716 -44.177 0.697 45.763 0.697 45.763 0.716 -44.177
748.833 0.704 -45.183 0.709 44.755 0.709 44.755 0.704 -45.183
773.792 0.692 -46.158 0.721 43.778 0.721 43.778 0.692 -46.158
798.75 0.68 -47.103 0.733 42.831 0.733 42.831 0.68 -47.103
823.708 0.668 -48.019 0.743 41.912 0.743 41.912 0.668 -48.019
848.667 0.656 -48.907 0.754 41.022 0.754 41.022 0.656 -48.907
873.625 0.645 -49.768 0.763 40.158 0.763 40.158 0.645 -49.768
898.583 0.634 -50.604 0.773 39.321 0.773 39.321 0.634 -50.604
923.542 0.623 -51.414 0.782 38.509 0.782 38.509 0.623 -51.414
948.5 0.612 -52.199 0.79 37.721 0.79 37.721 0.612 -52.199
973.458 0.601 -52.962 0.798 36.956 0.798 36.956 0.601 -52.962
998.417 0.591 -53.702 0.806 36.214 0.806 36.214 0.591 -53.702
1023.375 0.581 -54.42 0.813 35.493 0.813 35.493 0.581 -54.42
1048.333 0.571 -55.117 0.82 34.794 0.82 34.794 0.571 -55.117
1073.292 0.561 -55.795 0.827 34.114 0.827 34.114 0.561 -55.795
1098.25 0.551 -56.452 0.833 33.454 0.833 33.454 0.551 -56.452
1123.208 0.542 -57.092 0.84 32.812 0.84 32.812 0.542 -57.092
1148.167 0.533 -57.713 0.845 32.189 0.845 32.189 0.533 -57.713
1173.125 0.524 -58.317 0.851 31.582 0.851 31.582 0.524 -58.317
1198.083 0.515 -58.904 0.856 30.993 0.856 30.993 0.515 -58.904
1223.042 0.506 -59.476 0.861 30.419 0.861 30.419 0.506 -59.476
1248 0.498 -60.032 0.866 29.861 0.866 29.861 0.498 -60.032
1272.958 0.49 -60.573 0.871 29.317 0.871 29.317 0.49 -60.573
1297.917 0.482 -61.099 0.875 28.788 0.875 28.788 0.482 -61.099
1322.875 0.474 -61.612 0.88 28.273 0.88 28.273 0.474 -61.612
1347.833 0.466 -62.112 0.884 27.77 0.884 27.77 0.466 -62.112
1372.792 0.458 -62.599 0.888 27.281 0.888 27.281 0.458 -62.599
1397.75 0.451 -63.074 0.892 26.804 0.892 26.804 0.451 -63.074
1422.708 0.444 -63.536 0.895 26.339 0.895 26.339 0.444 -63.536
1447.667 0.437 -63.988 0.899 25.885 0.899 25.885 0.437 -63.988
1472.625 0.43 -64.428 0.902 25.442 0.902 25.442 0.43 -64.428
1497.583 0.423 -64.858 0.905 25.01 0.905 25.01 0.423 -64.858
1522.542 0.416 -65.277 0.908 24.588 0.908 24.588 0.416 -65.277
1547.5 0.41 -65.687 0.911 24.176 0.911 24.176 0.41 -65.687
1572.458 0.403 -66.086 0.914 23.773 0.914 23.773 0.403 -66.086
1597.417 0.397 -66.477 0.917 23.38 0.917 23.38 0.397 -66.477
1622.375 0.391 -66.859 0.92 22.995 0.92 22.995 0.391 -66.859
1647.333 0.385 -67.232 0.922 22.62 0.922 22.62 0.385 -67.232
1672.292 0.379 -67.597 0.925 22.252 0.925 22.252 0.379 -67.597
1697.25 0.373 -67.954 0.927 21.892 0.927 21.892 0.373 -67.954
1722.208 0.367 -68.303 0.929 21.541 0.929 21.541 0.367 -68.303
1747.167 0.362 -68.644 0.931 21.196 0.931 21.196 0.362 -68.644
1772.125 0.356 -68.978 0.933 20.859 0.933 20.859 0.356 -68.978
1797.083 0.351 -69.306 0.935 20.529 0.935 20.529 0.351 -69.306
1822.042 0.345 -69.626 0.937 20.206 0.937 20.206 0.345 -69.626
1847 0.34 -69.94 0.939 19.889 0.939 19.889 0.34 -69.94
1871.958 0.335 -70.248 0.941 19.579 0.941 19.579 0.335 -70.248
1896.917 0.33 -70.549 0.943 19.274 0.943 19.274 0.33 -70.549
1921.875 0.325 -70.844 0.945 18.976 0.945 18.976 0.325 -70.844
1946.833 0.32 -71.134 0.946 18.683 0.946 18.683 0.32 -71.134
1971.792 0.316 -71.418 0.948 18.396 0.948 18.396 0.316 -71.418
1996.75 0.311 -71.696 0.949 18.115 0.949 18.115 0.311 -71.696
2021.708 0.306 -71.969 0.951 17.839 0.951 17.839 0.306 -71.969
2046.667 0.302 -72.237 0.952 17.567 0.952 17.567 0.302 -72.237
2071.625 0.297 -72.5 0.954 17.301 0.954 17.301 0.297 -72.5
2096.583 0.293 -72.759 0.955 17.039 0.955 17.039 0.293 -72.759
2121.542 0.289 -73.012 0.956 16.783 0.956 16.783 0.289 -73.012
2146.5 0.285 -73.261 0.958 16.53 0.958 16.53 0.285 -73.261
2171.458 0.28 -73.506 0.959 16.282 0.959 16.282 0.28 -73.506
2196.417 0.276 -73.747 0.96 16.038 0.96 16.038 0.276 -73.747
2221.375 0.272 -73.983 0.961 15.799 0.961 15.799 0.272 -73.983
2246.333 0.268 -74.215 0.962 15.563 0.962 15.563 0.268 -74.215
2271.292 0.264 -74.443 0.963 15.331 0.963 15.331 0.264 -74.443
2296.25 0.261 -74.667 0.964 15.103 0.964 15.103 0.261 -74.667
2321.208 0.257 -74.888 0.965 14.879 0.965 14.879 0.257 -74.888
2346.167 0.253 -75.105 0.966 14.658 0.966 14.658 0.253 -75.105
2371.125 0.249 -75.319 0.967 14.441 0.967 14.441 0.249 -75.319
2396.083 0.246 -75.529 0.968 14.227 0.968 14.227 0.246 -75.529
2421.042 0.242 -75.735 0.969 14.017 0.969 14.017 0.242 -75.735
2446 0.239 -75.939 0.97 13.81 0.97 13.81 0.239 -75.939
2470.958 0.235 -76.139 0.971 13.605 0.971 13.605 0.235 -76.139
2495.917 0.232 -76.336 0.972 13.404 0.972 13.404 0.232 -76.336
2520.875 0.228 -76.531 0.973 13.206 0.973 13.206 0.228 -76.531
2545.833 0.225 -76.722 0.973 13.011 0.973 13.011 0.225 -76.722
2570.792 0.222 -76.91 0.974 12.818 0.974 12.818 0.222 -76.91
2595.75 0.219 -77.096 0.975 12.628 0.975 12.628 0.219 -77.096
2620.708 0.215 -77.279 0.975 12.441 0.975 12.441 0.215 -77.279
2645.667 0.212 -77.459 0.976 12.257 0.976 12.257 0.212 -77.459
2670.625 0.209 -77.636 0.977 12.074 0.977 12.074 0.209 -77.636
2695.583 0.206 -77.812 0.977 11.895 0.977 11.895 0.206 -77.812
2720.542 0.203 -77.984 0.978 11.718 0.978 11.718 0.203 -77.984
2745.5 0.2 -78.154 0.979 11.543 0.979 11.543 0.2 -78.154
2770.458 0.197 -78.322 0.979 11.371 0.979 11.371 0.197 -78.322
2795.417 0.194 -78.487 0.98 11.2 0.98 11.2 0.194 -78.487
2820.375 0.191 -78.651 0.98 11.032 0.98 11.032 0.191 -78.651
2845.333 0.189 -78.812 0.981 10.866 0.981 10.866 0.189 -78.812
2870.292 0.186 -78.97 0.982 10.702 0.982 10.702 0.186 -78.97
2895.25 0.183 -79.127 0.982 10.541 0.982 10.541 0.183 -79.127
2920.208 0.18 -79.282 0.983 10.381 0.983 10.381 0.18 -79.282
2945.167 0.177 -79.434 0.983 10.223 0.983 10.223 0.177 -79.434
2970.125 0.175 -79.585 0.984 10.067 0.984 10.067 0.175 -79.585
2995.083 0.172 -79.734 0.984 9.913 0.984 9.913 0.172 -79.734
3020.042 0.17 -79.88 0.984 9.76 0.984 9.76 0.17 -79.88
3045 0.167 -80.025 0.985 9.61 0.985 9.61 0.167 -80.025
3069.958 0.164 -80.168 0.985 9.461 0.985 9.461 0.164 -80.168
3094.917 0.162 -80.309 0.986 9.314 0.986 9.314 0.162 -80.309
3119.875 0.159 -80.449 0.986 9.168 0.986 9.168 0.159 -80.449
3144.833 0.157 -80.586 0.987 9.024 0.987 9.024 0.157 -80.586
3169.792 0.154 -80.722 0.987 8.882 0.987 8.882 0.154 -80.722
3194.75 0.152 -80.857 0.987 8.741 0.987 8.741 0.152 -80.857
3219.708 0.15 -80.989 0.988 8.602 0.988 8.602 0.15 -80.989
3244.667 0.147 -81.12 0.988 8.464 0.988 8.464 0.147 -81.12
3269.625 0.145 -81.25 0.988 8.328 0.988 8.328 0.145 -81.25
3294.583 0.143 -81.378 0.989 8.193 0.989 8.193 0.143 -81.378
3319.542 0.14 -81.504 0.989 8.059 0.989 8.059 0.14 -81.504
3344.5 0.138 -81.629 0.989 7.927 0.989 7.927 0.138 -81.629
3369.458 0.136 -81.752 0.99 7.796 0.99 7.796 0.136 -81.752
3394.417 0.133 -81.874 0.99 7.667 0.99 7.667 0.133 -81.874
3419.375 0.131 -81.994 0.99 7.539 0.99 7.539 0.131 -81.994
3444.333 0.129 -82.113 0.991 7.412 0.991 7.412 0.129 -82.113
3469.292 0.127 -82.23 0.991 7.286 0.991 7.286 0.127 -82.23
3494.25 0.125 -82.347 0.991 7.161 0.991 7.161 0.125 -82.347
3519.208 0.123 -82.461 0.991 7.038 0.991 7.038 0.123 -82.461
3544.167 0.12 -82.574 0.992 6.916 0.992 6.916 0.12 -82.574
3569.125 0.118 -82.686 0.992 6.795 0.992 6.795 0.118 -82.686
3594.083 0.116 -82.797 0.992 6.675 0.992 6.675 0.116 -82.797
3619.042 0.114 -82.906 0.992 6.556 0.992 6.556 0.114 -82.906
3644 0.112 -83.014 0.993 6.438 0.993 6.438 0.112 -83.014
3668.958 0.11 -83.121 0.993 6.321 0.993 6.321 0.11 -83.121
3693.917 0.108 -83.226 0.993 6.206 0.993 6.206 0.108 -83.226
3718.875 0.106 -83.33 0.993 6.091 0.993 6.091 0.106 -83.33
3743.833 0.104 -83.432 0.993 5.977 0.993 5.977 0.104 -83.432
3768.792 0.102 -83.534 0.994 5.864 0.994 5.864 0.102 -83.534
3793.75 0.1 -83.634 0.994 5.753 0.994 5.753 0.1 -83.634
3818.708 0.098 -83.732 0.994 5.642 0.994 5.642 0.098 -83.732
3843.667 0.096 -83.83 0.994 5.532 0.994 5.532 0.096 -83.83
3868.625 0.095 -83.926 0.994 5.423 0.994 5.423 0.095 -83.926
3893.583 0.093 -84.021 0.995 5.314 0.995 5.314 0.093 -84.021
3918.542 0.091 -84.114 0.995 5.207 0.995 5.207 0.091 -84.114
3943.5 0.089 -84.207 0.995 5.101 0.995 5.101 0.089 -84.207
3968.458 0.087 -84.297 0.995 4.995 0.995 4.995 0.087 -84.297
3993.417 0.085 -84.387 0.995 4.89 0.995 4.89 0.085 -84.387
4018.375 0.083 -84.475 0.995 4.786 0.995 4.786 0.083 -84.475
4043.333 0.082 -84.562 0.996 4.683 0.996 4.683 0.082 -84.562
4068.292 0.08 -84.648 0.996 4.581 0.996 4.581 0.08 -84.648
4093.25 0.078 -84.732 0.996 4.479 0.996 4.479 0.078 -84.732
4118.208 0.076 -84.814 0.996 4.378 0.996 4.378 0.076 -84.814
4143.167 0.075 -84.895 0.996 4.278 0.996 4.278 0.075 -84.895
4168.125 0.073 -84.975 0.996 4.179 0.996 4.179 0.073 -84.975
4193.083 0.071 -85.053 0.996 4.08 0.996 4.08 0.071 -85.053
4218.042 0.069 -85.13 0.997 3.982 0.997 3.982 0.069 -85.13
4243 0.068 -85.205 0.997 3.885 0.997 3.885 0.068 -85.205
4267.958 0.066 -85.278 0.997 3.788 0.997 3.788 0.066 -85.278
4292.917 0.064 -85.35 0.997 3.692 0.997 3.692 0.064 -85.35
4317.875 0.063 -85.419 0.997 3.597 0.997 3.597 0.063 -85.419
4342.833 0.061 -85.487 0.997 3.503 0.997 3.503 0.061 -85.487
4367.792 0.059 -85.553 0.997 3.409 0.997 3.409 0.059 -85.553
4392.75 0.058 -85.618 0.997 3.315 0.997 3.315 0.058 -85.618
4417.708 0.056 -85.68 0.997 3.222 0.997 3.222 0.056 -85.68
4442.667 0.055 -85.739 0.997 3.13 0.997 3.13 0.055 -85.739
4467.625 0.053 -85.797 0.998 3.039 0.998 3.039 0.053 -85.797
4492.583 0.051 -85.852 0.998 2.948 0.998 2.948 0.051 -85.852
4517.542 0.05 -85.904 0.998 2.857 0.998 2.857 0.05 -85.904
4542.5 0.048 -85.954 0.998 2.768 0.998 2.768 0.048 -85.954
4567.458 0.047 -86 0.998 2.678 0.998 2.678 0.047 -86
4592.417 0.045 -86.044 0.998 2.59 0.998 2.59 0.045 -86.044
4617.375 0.044 -86.083 0.998 2.502 0.998 2.502 0.044 -86.083
4642.333 0.042 -86.12 0.998 2.414 0.998 2.414 0.042 -86.12
4667.292 0.041 -86.152 0.998 2.327 0.998 2.327 0.041 -86.152
4692.25 0.039 -86.18 0.998 2.24 0.998 2.24 0.039 -86.18
4717.208 0.038 -86.202 0.998 2.154 0.998 2.154 0.038 -86.202
4742.167 0.036 -86.22 0.998 2.069 0.998 2.069 0.036 -86.22
4767.125 0.035 -86.232 0.998 1.984 0.998 1.984 0.035 -86.232
4792.083 0.033 -86.237 0.998 1.899 0.998 1.899 0.033 -86.237
4817.042 0.032 -86.235 0.998 1.815 0.998 1.815 0.032 -86.235
4842 0.03 -86.224 0.998 1.732 0.998 1.732 0.03 -86.224
4866.958 0.029 -86.204 0.999 1.649 0.999 1.649 0.029 -86.204
4891.917 0.027 -86.174 0.999 1.566 0.999 1.566 0.027 -86.174
4916.875 0.026 -86.131 0.999 1.484 0.999 1.484 0.026 -86.131
4941.833 0.024 -86.073 0.999 1.402 0.999 1.402 0.024 -86.073
4966.792 0.023 -85.999 0.999 1.321 0.999 1.321 0.023 -85.999
4991.75 0.022 -85.906 0.999 1.24 0.999 1.24 0.022 -85.906
5016.708 0.02 -85.788 0.999 1.159 0.999 1.159 0.02 -85.788
5041.667 0.019 -85.643 0.999 1.079 0.999 1.079 0.019 -85.643
5066.625 0.017 -85.462 0.999 1 0.999 1 0.017 -85.462
5091.583 0.016 -85.237 0.999 0.921 0.999 0.921 0.016 -85.237
5116.542 0.015 -84.958 0.999 0.842 0.999 0.842 0.015 -84.958
5141.5 0.013 -84.606 0.999 0.763 0.999 0.763 0.013 -84.606
5166.458 0.012 -84.16 0.999 0.685 0.999 0.685 0.012 -84.16
5191.417 0.011 -83.584 0.999 0.608 0.999 0.608 0.011 -83.584
5216.375 9.323e-3 -82.823 0.999 0.531 0.999 0.531 9.323e-3 -82.823
5241.333 7.992e-3 -81.787 0.999 0.454 0.999 0.454 7.992e-3 -81.787
5266.292 6.673e-3 -80.316 0.999 0.377 0.999 0.377 6.673e-3 -80.316
5291.25 5.366e-3 -78.098 0.999 0.301 0.999 0.301 5.366e-3 -78.098
5316.208 4.08e-3 -74.438 0.999 0.225 0.999 0.225 4.08e-3 -74.438
5341.167 2.833e-3 -67.459 0.999 0.15 0.999 0.15 2.833e-3 -67.459
5366.125 1.697e-3 -50.444 0.999 0.075 0.999 0.075 1.697e-3 -50.444
5391.083 1.079e-3 -0.356 0.999 385e-6 0.999 385e-6 1.079e-3 -0.356
5416.042 1.682e-3 50.024 0.999 -0.074 0.999 -0.074 1.682e-3 50.024
5441 2.798e-3 67.168 0.999 -0.148 0.999 -0.148 2.798e-3 67.168
5465.958 4.015e-3 74.187 0.999 -0.222 0.999 -0.222 4.015e-3 74.187
5490.917 5.259e-3 77.864 0.999 -0.295 0.999 -0.295 5.259e-3 77.864
5515.875 6.511e-3 80.092 0.999 -0.368 0.999 -0.368 6.511e-3 80.092
5540.833 7.764e-3 81.571 0.999 -0.441 0.999 -0.441 7.764e-3 81.571
5565.792 9.016e-3 82.614 0.999 -0.513 0.999 -0.513 9.016e-3 82.614
5590.75 0.01 83.381 0.999 -0.585 0.999 -0.585 0.01 83.381
5615.708 0.012 83.965 0.999 -0.657 0.999 -0.657 0.012 83.965
5640.667 0.013 84.418 0.999 -0.728 0.999 -0.728 0.013 84.418
5665.625 0.014 84.777 0.999 -0.799 0.999 -0.799 0.014 84.777
5690.583 0.015 85.065 0.999 -0.87 0.999 -0.87 0.015 85.065
5715.542 0.016 85.299 0.999 -0.94 0.999 -0.94 0.016 85.299
5740.5 0.018 85.489 0.999 -1.011 0.999 -1.011 0.018 85.489
5765.458 0.019 85.645 0.999 -1.081 0.999 -1.081 0.019 85.645
5790.417 0.02 85.773 0.999 -1.15 0.999 -1.15 0.02 85.773
5815.375 0.021 85.879 0.999 -1.22 0.999 -1.22 0.021 85.879
5840.333 0.023 85.965 0.999 -1.289 0.999 -1.289 0.023 85.965
5865.292 0.024 86.035 0.999 -1.358 0.999 -1.358 0.024 86.035
5890.25 0.025 86.092 0.999 -1.426 0.999 -1.426 0.025 86.092
5915.208 0.026 86.137 0.999 -1.494 0.999 -1.494 0.026 86.137
5940.167 0.027 86.172 0.999 -1.562 0.999 -1.562 0.027 86.172
5965.125 0.028 86.198 0.999 -1.63 0.999 -1.63 0.028 86.198
5990.083 0.03 86.217 0.998 -1.698 0.998 -1.698 0.03 86.217
6015.042 0.031 86.229 0.998 -1.765 0.998 -1.765 0.031 86.229
6040 0.032 86.236 0.998 -1.832 0.998 -1.832 0.032 86.236
6064.958 0.033 86.237 0.998 -1.899 0.998 -1.899 0.033 86.237
6089.917 0.034 86.233 0.998 -1.965 0.998 -1.965 0.034 86.233
6114.875 0.035 86.226 0.998 -2.031 0.998 -2.031 0.035 86.226
6139.833 0.037 86.215 0.998 -2.097 0.998 -2.097 0.037 86.215
6164.792 0.038 86.2 0.998 -2.163 0.998 -2.163 0.038 86.2
6189.75 0.039 86.183 0.998 -2.229 0.998 -2.229 0.039 86.183
6214.708 0.04 86.163 0.998 -2.294 0.998 -2.294 0.04 86.163
6239.667 0.041 86.141 0.998 -2.359 0.998 -2.359 0.041 86.141
6264.625 0.042 86.116 0.998 -2.424 0.998 -2.424 0.042 86.116
6289.583 0.043 86.089 0.998 -2.488 0.998 -2.488 0.043 86.089
6314.542 0.045 86.061 0.998 -2.553 0.998 -2.553 0.045 86.061
6339.5 0.046 86.031 0.998 -2.617 0.998 -2.617 0.046 86.031
6364.458 0.047 85.999 0.998 -2.681 0.998 -2.681 0.047 85.999
6389.417 0.048 85.966 0.998 -2.745 0.998 -2.745 0.048 85.966
6414.375 0.049 85.932 0.998 -2.808 0.998 -2.808 0.049 85.932
6439.333 0.05 85.896 0.998 -2.871 0.998 -2.871 0.05 85.896
6464.292 0.051 85.86 0.998 -2.934 0.998 -2.934 0.051 85.86
6489.25 0.052 85.822 0.998 -2.997 0.998 -2.997 0.052 85.822
6514.208 0.053 85.784 0.997 -3.06 0.997 -3.06 0.053 85.784
6539.167 0.054 85.744 0.997 -3.123 0.997 -3.123 0.054 85.744
6564.125 0.056 85.704 0.997 -3.185 0.997 -3.185 0.056 85.704
6589.083 0.057 85.663 0.997 -3.247 0.997 -3.247 0.057 85.663
6614.042 0.058 85.622 0.997 -3.309 0.997 -3.309 0.058 85.622
6639 0.059 85.58 0.997 -3.37 0.997 -3.37 0.059 85.58
6663.958 0.06 85.537 0.997 -3.432 0.997 -3.432 0.06 85.537
6688.917 0.061 85.494 0.997 -3.493 0.997 -3.493 0.061 85.494
6713.875 0.062 85.45 0.997 -3.554 0.997 -3.554 0.062 85.45
6738.833 0.063 85.406 0.997 -3.615 0.997 -3.615 0.063 85.406
6763.792 0.064 85.362 0.997 -3.676 0.997 -3.676 0.064 85.362
6788.75 0.065 85.317 0.997 -3.737 0.997 -3.737 0.065 85.317
6813.708 0.066 85.271 0.997 -3.797 0.997 -3.797 0.066 85.271
6838.667 0.067 85.226 0.997 -3.857 0.997 -3.857 0.067 85.226
6863.625 0.068 85.18 0.997 -3.917 0.997 -3.917 0.068 85.18
6888.583 0.069 85.134 0.997 -3.977 0.997 -3.977 0.069 85.134
6913.542 0.07 85.087 0.996 -4.037 0.996 -4.037 0.07 85.087
6938.5 0.071 85.04 0.996 -4.096 0.996 -4.096 0.071 85.04
6963.458 0.072 84.993 0.996 -4.156 0.996 -4.156 0.072 84.993
6988.417 0.074 84.946 0.996 -4.215 0.996 -4.215 0.074 84.946
7013.375 0.075 84.899 0.996 -4.274 0.996 -4.274 0.075 84.899
7038.333 0.076 84.851 0.996 -4.333 0.996 -4.333 0.076 84.851
7063.292 0.077 84.804 0.996 -4.391 0.996 -4.391 0.077 84.804
7088.25 0.078 84.756 0.996 -4.45 0.996 -4.45 0.078 84.756
7113.208 0.079 84.708 0.996 -4.508 0.996 -4.508 0.079 84.708
7138.167 0.08 84.659 0.996 -4.567 0.996 -4.567 0.08 84.659
7163.125 0.081 84.611 0.996 -4.625 0.996 -4.625 0.081 84.611
7188.083 0.082 84.563 0.996 -4.682 0.996 -4.682 0.082 84.563
7213.042 0.083 84.514 0.996 -4.74 0.996 -4.74 0.083 84.514
7238 0.084 84.466 0.995 -4.798 0.995 -4.798 0.084 84.466
7262.958 0.085 84.417 0.995 -4.855 0.995 -4.855 0.085 84.417
7287.917 0.086 84.368 0.995 -4.912 0.995 -4.912 0.086 84.368
7312.875 0.087 84.319 0.995 -4.97 0.995 -4.97 0.087 84.319
7337.833 0.088 84.27 0.995 -5.027 0.995 -5.027 0.088 84.27
7362.792 0.089 84.222 0.995 -5.083 0.995 -5.083 0.089 84.222
7387.75 0.09 84.173 0.995 -5.14 0.995 -5.14 0.09 84.173
7412.708 0.091 84.124 0.995 -5.197 0.995 -5.197 0.091 84.124
7437.667 0.092 84.074 0.995 -5.253 0.995 -5.253 0.092 84.074
7462.625 0.093 84.025 0.995 -5.309 0.995 -5.309 0.093 84.025
7487.583 0.094 83.976 0.995 -5.366 0.995 -5.366 0.094 83.976
7512.542 0.094 83.927 0.994 -5.422 0.994 -5.422 0.094 83.927
7537.5 0.095 83.878 0.994 -5.477 0.994 -5.477 0.095 83.878
7562.458 0.096 83.829 0.994 -5.533 0.994 -5.533 0.096 83.829
7587.417 0.097 83.779 0.994 -5.589 0.994 -5.589 0.097 83.779
7612.375 0.098 83.73 0.994 -5.644 0.994 -5.644 0.098 83.73
7637.333 0.099 83.681 0.994 -5.699 0.994 -5.699 0.099 83.681
7662.292 0.1 83.632 0.994 -5.755 0.994 -5.755 0.1 83.632
7687.25 0.101 83.583 0.994 -5.81 0.994 -5.81 0.101 83.583
7712.208 0.102 83.533 0.994 -5.865 0.994 -5.865 0.102 83.533
7737.167 0.103 83.484 0.994 -5.919 0.994 -5.919 0.103 83.484
7762.125 0.104 83.435 0.993 -5.974 0.993 -5.974 0.104 83.435
7787.083 0.105 83.386 0.993 -6.029 0.993 -6.029 0.105 83.386
7812.042 0.106 83.337 0.993 -6.083 0.993 -6.083 0.106 83.337
7837 0.107 83.288 0.993 -6.137 0.993 -6.137 0.107 83.288
7861.958 0.108 83.238 0.993 -6.192 0.993 -6.192 0.108 83.238
7886.917 0.109 83.189 0.993 -6.246 0.993 -6.246 0.109 83.189
7911.875 0.11 83.14 0.993 -6.3 0.993 -6.3 0.11 83.14
7936.833 0.111 83.091 0.993 -6.353 0.993 -6.353 0.111 83.091
7961.792 0.112 83.042 0.993 -6.407 0.993 -6.407 0.112 83.042
7986.75 0.113 82.993 0.993 -6.461 0.993 -6.461 0.113 82.993
8011.708 0.113 82.944 0.992 -6.514 0.992 -6.514 0.113 82.944
8036.667 0.114 82.895 0.992 -6.568 0.992 -6.568 0.114 82.895
8061.625 0.115 82.847 0.992 -6.621 0.992 -6.621 0.115 82.847
8086.583 0.116 82.798 0.992 -6.674 0.992 -6.674 0.116 82.798
8111.542 0.117 82.749 0.992 -6.727 0.992 -6.727 0.117 82.749
8136.5 0.118 82.7 0.992 -6.78 0.992 -6.78 0.118 82.7
8161.458 0.119 82.651 0.992 -6.833 0.992 -6.833 0.119 82.651
8186.417 0.12 82.603 0.992 -6.885 0.992 -6.885 0.12 82.603
8211.375 0.121 82.554 0.992 -6.938 0.992 -6.938 0.121 82.554
8236.333 0.122 82.505 0.991 -6.99 0.991 -6.99 0.122 82.505
