# MHZ S MA R 50

50 0.998 -3.416 0.06 86.58 0.06 86.58 0.998 -3.416
74.958 0.996 -5.114 0.089 84.879 0.089 84.879 0.996 -5.114
99.917 0.993 -6.804 0.118 83.188 0.118 83.188 0.993 -6.804
124.875 0.989 -8.482 0.148 81.507 0.148 81.507 0.989 -8.482
149.833 0.984 -10.147 0.176 79.841 0.176 79.841 0.984 -10.147
174.792 0.979 -11.795 0.204 78.19 0.204 78.19 0.979 -11.795
199.75 0.973 -13.426 0.232 76.558 0.232 76.558 0.973 -13.426
224.708 0.966 -15.035 0.259 74.946 0.259 74.946 0.966 -15.035
249.667 0.958 -16.622 0.286 73.358 0.286 73.358 0.958 -16.622
274.625 0.95 -18.184 0.312 71.793 0.312 71.793 0.95 -18.184
299.583 0.941 -19.721 0.337 70.254 0.337 70.254 0.941 -19.721
324.542 0.932 -21.23 0.362 68.743 0.362 68.743 0.932 -21.23
349.5 0.922 -22.711 0.386 67.26 0.386 67.26 0.922 -22.711
374.458 0.912 -24.162 0.409 65.807 0.409 65.807 0.912 -24.162
399.417 0.902 -25.583 0.432 64.383 0.432 64.383 0.902 -25.583
424.375 0.891 -26.974 0.454 62.991 0.454 62.991 0.891 -26.974
449.333 0.88 -28.332 0.475 61.63 0.475 61.63 0.88 -28.332
474.292 0.869 -29.66 0.495 60.301 0.495 60.301 0.869 -29.66
499.25 0.857 -30.955 0.514 59.003 0.514 59.003 0.857 -30.955
524.208 0.846 -32.219 0.533 57.738 0.533 57.738 0.846 -32.219
549.167 0.834 -33.451 0.551 56.504 0.551 56.504 0.834 -33.451
574.125 0.822 -34.651 0.569 55.301 0.569 55.301 0.822 -34.651
599.083 0.81 -35.82 0.585 54.13 0.585 54.13 0.81 -35.82
624.042 0.799 -36.958 0.601 52.99 0.601 52.99 0.799 -36.958
649 0.787 -38.066 0.617 51.88 0.617 51.88 0.787 -38.066
673.958 0.775 -39.143 0.631 50.8 0.631 50.8 0.775 -39.143
698.917 0.763 -40.192 0.645 49.749 0.645 49.749 0.763 -40.192
723.875 0.752 -41.211 0.659 48.728 0.659 48.728 0.752 -41.211
748.833 0.74 -42.203 0.672 47.734 0.672 47.734 0.74 -42.203
773.792 0.729 -43.167 0.684 46.768 0.684 46.768 0.729 -43.167
798.75 0.717 -44.104 0.696 45.829 0.696 45.829 0.717 -44.104
823.708 0.706 -45.015 0.707 44.915 0.707 44.915 0.706 -45.015
848.667 0.695 -45.901 0.718 44.027 0.718 44.027 0.695 -45.901
873.625 0.684 -46.762 0.729 43.164 0.729 43.164 0.684 -46.762
898.583 0.673 -47.599 0.738 42.325 0.738 42.325 0.673 -47.599
923.542 0.663 -48.413 0.748 41.508 0.748 41.508 0.663 -48.413
948.5 0.652 -49.205 0.757 40.715 0.757 40.715 0.652 -49.205
973.458 0.642 -49.974 0.766 39.943 0.766 39.943 0.642 -49.974
998.417 0.632 -50.723 0.774 39.192 0.774 39.192 0.632 -50.723
1023.375 0.622 -51.451 0.782 38.462 0.782 38.462 0.622 -51.451
1048.333 0.612 -52.159 0.79 37.751 0.79 37.751 0.612 -52.159
1073.292 0.603 -52.848 0.797 37.06 0.797 37.06 0.603 -52.848
1098.25 0.593 -53.519 0.804 36.387 0.804 36.387 0.593 -53.519
1123.208 0.584 -54.172 0.811 35.732 0.811 35.732 0.584 -54.172
1148.167 0.575 -54.807 0.817 35.094 0.817 35.094 0.575 -54.807
1173.125 0.566 -55.426 0.823 34.473 0.823 34.473 0.566 -55.426
1198.083 0.557 -56.028 0.829 33.869 0.829 33.869 0.557 -56.028
1223.042 0.549 -56.615 0.835 33.279 0.835 33.279 0.549 -56.615
1248 0.54 -57.187 0.84 32.705 0.84 32.705 0.54 -57.187
1272.958 0.532 -57.744 0.846 32.145 0.846 32.145 0.532 -57.744
1297.917 0.524 -58.287 0.851 31.6 0.851 31.6 0.524 -58.287
1322.875 0.516 -58.817 0.856 31.068 0.856 31.068 0.516 -58.817
1347.833 0.508 -59.334 0.86 30.549 0.86 30.549 0.508 -59.334
1372.792 0.501 -59.837 0.865 30.043 0.865 30.043 0.501 -59.837
1397.75 0.493 -60.329 0.869 29.549 0.869 29.549 0.493 -60.329
1422.708 0.486 -60.809 0.873 29.067 0.873 29.067 0.486 -60.809
1447.667 0.479 -61.277 0.877 28.596 0.877 28.596 0.479 -61.277
1472.625 0.472 -61.734 0.881 28.137 0.881 28.137 0.472 -61.734
1497.583 0.465 -62.18 0.884 27.688 0.884 27.688 0.465 -62.18
1522.542 0.458 -62.616 0.888 27.249 0.888 27.249 0.458 -62.616
1547.5 0.451 -63.043 0.891 26.82 0.891 26.82 0.451 -63.043
1572.458 0.445 -63.459 0.895 26.402 0.895 26.402 0.445 -63.459
1597.417 0.438 -63.866 0.898 25.992 0.898 25.992 0.438 -63.866
1622.375 0.432 -64.264 0.901 25.591 0.901 25.591 0.432 -64.264
1647.333 0.426 -64.653 0.904 25.2 0.904 25.2 0.426 -64.653
1672.292 0.42 -65.034 0.907 24.816 0.907 24.816 0.42 -65.034
1697.25 0.414 -65.406 0.909 24.441 0.909 24.441 0.414 -65.406
1722.208 0.408 -65.771 0.912 24.074 0.912 24.074 0.408 -65.771
1747.167 0.402 -66.128 0.914 23.715 0.914 23.715 0.402 -66.128
1772.125 0.397 -66.477 0.917 23.363 0.917 23.363 0.397 -66.477
1797.083 0.391 -66.819 0.919 23.018 0.919 23.018 0.391 -66.819
1822.042 0.386 -67.154 0.922 22.68 0.922 22.68 0.386 -67.154
1847 0.38 -67.482 0.924 22.349 0.924 22.349 0.38 -67.482
1871.958 0.375 -67.804 0.926 22.025 0.926 22.025 0.375 -67.804
1896.917 0.37 -68.119 0.928 21.707 0.928 21.707 0.37 -68.119
1921.875 0.365 -68.429 0.93 21.395 0.93 21.395 0.365 -68.429
1946.833 0.36 -68.732 0.932 21.089 0.932 21.089 0.36 -68.732
1971.792 0.355 -69.029 0.934 20.789 0.934 20.789 0.355 -69.029
1996.75 0.35 -69.321 0.936 20.494 0.936 20.494 0.35 -69.321
2021.708 0.345 -69.607 0.937 20.205 0.937 20.205 0.345 -69.607
2046.667 0.341 -69.887 0.939 19.921 0.939 19.921 0.341 -69.887
2071.625 0.336 -70.163 0.941 19.643 0.941 19.643 0.336 -70.163
2096.583 0.332 -70.434 0.942 19.369 0.942 19.369 0.332 -70.434
2121.542 0.327 -70.699 0.944 19.101 0.944 19.101 0.327 -70.699
2146.5 0.323 -70.96 0.945 18.837 0.945 18.837 0.323 -70.96
2171.458 0.319 -71.217 0.947 18.577 0.947 18.577 0.319 -71.217
2196.417 0.314 -71.468 0.948 18.322 0.948 18.322 0.314 -71.468
2221.375 0.31 -71.716 0.95 18.072 0.95 18.072 0.31 -71.716
2246.333 0.306 -71.959 0.951 17.826 0.951 17.826 0.306 -71.959
2271.292 0.302 -72.198 0.952 17.583 0.952 17.583 0.302 -72.198
2296.25 0.298 -72.433 0.953 17.345 0.953 17.345 0.298 -72.433
2321.208 0.294 -72.664 0.955 17.111 0.955 17.111 0.294 -72.664
2346.167 0.29 -72.891 0.956 16.88 0.956 16.88 0.29 -72.891
2371.125 0.287 -73.115 0.957 16.653 0.957 16.653 0.287 -73.115
2396.083 0.283 -73.335 0.958 16.43 0.958 16.43 0.283 -73.335
2421.042 0.279 -73.551 0.959 16.21 0.959 16.21 0.279 -73.551
2446 0.276 -73.764 0.96 15.994 0.96 15.994 0.276 -73.764
2470.958 0.272 -73.974 0.961 15.781 0.961 15.781 0.272 -73.974
2495.917 0.268 -74.18 0.962 15.571 0.962 15.571 0.268 -74.18
2520.875 0.265 -74.384 0.963 15.364 0.963 15.364 0.265 -74.384
2545.833 0.262 -74.584 0.964 15.161 0.964 15.161 0.262 -74.584
2570.792 0.258 -74.781 0.965 14.96 0.965 14.96 0.258 -74.781
2595.75 0.255 -74.975 0.966 14.762 0.966 14.762 0.255 -74.975
2620.708 0.252 -75.166 0.967 14.567 0.967 14.567 0.252 -75.166
2645.667 0.248 -75.355 0.968 14.375 0.968 14.375 0.248 -75.355
2670.625 0.245 -75.54 0.968 14.186 0.968 14.186 0.245 -75.54
2695.583 0.242 -75.723 0.969 13.999 0.969 13.999 0.242 -75.723
2720.542 0.239 -75.904 0.97 13.815 0.97 13.815 0.239 -75.904
2745.5 0.236 -76.081 0.971 13.633 0.971 13.633 0.236 -76.081
2770.458 0.233 -76.257 0.971 13.454 0.971 13.454 0.233 -76.257
2795.417 0.23 -76.43 0.972 13.277 0.972 13.277 0.23 -76.43
2820.375 0.227 -76.6 0.973 13.102 0.973 13.102 0.227 -76.6
2845.333 0.224 -76.768 0.973 12.93 0.973 12.93 0.224 -76.768
2870.292 0.221 -76.934 0.974 12.76 0.974 12.76 0.221 -76.934
2895.25 0.218 -77.098 0.975 12.592 0.975 12.592 0.218 -77.098
2920.208 0.215 -77.259 0.975 12.426 0.975 12.426 0.215 -77.259
2945.167 0.212 -77.419 0.976 12.263 0.976 12.263 0.212 -77.419
2970.125 0.21 -77.576 0.977 12.101 0.977 12.101 0.21 -77.576
2995.083 0.207 -77.731 0.977 11.941 0.977 11.941 0.207 -77.731
3020.042 0.204 -77.884 0.978 11.784 0.978 11.784 0.204 -77.884
3045 0.202 -78.036 0.978 11.628 0.978 11.628 0.202 -78.036
3069.958 0.199 -78.185 0.979 11.474 0.979 11.474 0.199 -78.185
3094.917 0.196 -78.332 0.979 11.322 0.979 11.322 0.196 -78.332
3119.875 0.194 -78.478 0.98 11.171 0.98 11.171 0.194 -78.478
3144.833 0.191 -78.622 0.98 11.023 0.98 11.023 0.191 -78.622
3169.792 0.189 -78.764 0.981 10.876 0.981 10.876 0.189 -78.764
3194.75 0.186 -78.904 0.981 10.731 0.981 10.731 0.186 -78.904
3219.708 0.184 -79.042 0.982 10.587 0.982 10.587 0.184 -79.042
3244.667 0.181 -79.179 0.982 10.445 0.982 10.445 0.181 -79.179
3269.625 0.179 -79.315 0.983 10.304 0.983 10.304 0.179 -79.315
3294.583 0.176 -79.448 0.983 10.166 0.983 10.166 0.176 -79.448
3319.542 0.174 -79.58 0.984 10.028 0.984 10.028 0.174 -79.58
3344.5 0.172 -79.711 0.984 9.892 0.984 9.892 0.172 -79.711
3369.458 0.169 -79.84 0.984 9.758 0.984 9.758 0.169 -79.84
3394.417 0.167 -79.967 0.985 9.624 0.985 9.624 0.167 -79.967
3419.375 0.165 -80.093 0.985 9.493 0.985 9.493 0.165 -80.093
3444.333 0.163 -80.218 0.985 9.362 0.985 9.362 0.163 -80.218
3469.292 0.16 -80.341 0.986 9.233 0.986 9.233 0.16 -80.341
3494.25 0.158 -80.462 0.986 9.106 0.986 9.106 0.158 -80.462
3519.208 0.156 -80.583 0.987 8.979 0.987 8.979 0.156 -80.583
3544.167 0.154 -80.702 0.987 8.854 0.987 8.854 0.154 -80.702
3569.125 0.152 -80.819 0.987 8.73 0.987 8.73 0.152 -80.819
3594.083 0.15 -80.935 0.988 8.607 0.988 8.607 0.15 -80.935
3619.042 0.148 -81.05 0.988 8.485 0.988 8.485 0.148 -81.05
3644 0.145 -81.164 0.988 8.365 0.988 8.365 0.145 -81.164
3668.958 0.143 -81.277 0.988 8.246 0.988 8.246 0.143 -81.277
3693.917 0.141 -81.388 0.989 8.127 0.989 8.127 0.141 -81.388
3718.875 0.139 -81.498 0.989 8.01 0.989 8.01 0.139 -81.498
3743.833 0.137 -81.606 0.989 7.894 0.989 7.894 0.137 -81.606
3768.792 0.135 -81.714 0.99 7.779 0.99 7.779 0.135 -81.714
3793.75 0.133 -81.82 0.99 7.665 0.99 7.665 0.133 -81.82
3818.708 0.131 -81.925 0.99 7.552 0.99 7.552 0.131 -81.925
3843.667 0.129 -82.029 0.99 7.44 0.99 7.44 0.129 -82.029
3868.625 0.128 -82.132 0.991 7.329 0.991 7.329 0.128 -82.132
3893.583 0.126 -82.234 0.991 7.219 0.991 7.219 0.126 -82.234
3918.542 0.124 -82.335 0.991 7.11 0.991 7.11 0.124 -82.335
3943.5 0.122 -82.434 0.991 7.002 0.991 7.002 0.122 -82.434
3968.458 0.12 -82.533 0.992 6.895 0.992 6.895 0.12 -82.533
3993.417 0.118 -82.63 0.992 6.788 0.992 6.788 0.118 -82.63
4018.375 0.116 -82.726 0.992 6.683 0.992 6.683 0.116 -82.726
4043.333 0.115 -82.821 0.992 6.578 0.992 6.578 0.115 -82.821
4068.292 0.113 -82.915 0.992 6.474 0.992 6.474 0.113 -82.915
4093.25 0.111 -83.008 0.993 6.371 0.993 6.371 0.111 -83.008
4118.208 0.109 -83.1 0.993 6.269 0.993 6.269 0.109 -83.1
4143.167 0.107 -83.191 0.993 6.168 0.993 6.168 0.107 -83.191
4168.125 0.106 -83.281 0.993 6.068 0.993 6.068 0.106 -83.281
4193.083 0.104 -83.37 0.993 5.968 0.993 5.968 0.104 -83.37
4218.042 0.102 -83.457 0.994 5.869 0.994 5.869 0.102 -83.457
4243 0.101 -83.544 0.994 5.771 0.994 5.771 0.101 -83.544
4267.958 0.099 -83.63 0.994 5.673 0.994 5.673 0.099 -83.63
4292.917 0.097 -83.714 0.994 5.576 0.994 5.576 0.097 -83.714
4317.875 0.096 -83.798 0.994 5.48 0.994 5.48 0.096 -83.798
4342.833 0.094 -83.88 0.994 5.385 0.994 5.385 0.094 -83.88
4367.792 0.092 -83.962 0.995 5.29 0.995 5.29 0.092 -83.962
4392.75 0.091 -84.042 0.995 5.196 0.995 5.196 0.091 -84.042
4417.708 0.089 -84.121 0.995 5.103 0.995 5.103 0.089 -84.121
4442.667 0.087 -84.2 0.995 5.01 0.995 5.01 0.087 -84.2
4467.625 0.086 -84.277 0.995 4.918 0.995 4.918 0.086 -84.277
4492.583 0.084 -84.353 0.995 4.827 0.995 4.827 0.084 -84.353
4517.542 0.083 -84.428 0.995 4.736 0.995 4.736 0.083 -84.428
4542.5 0.081 -84.502 0.996 4.646 0.996 4.646 0.081 -84.502
4567.458 0.079 -84.574 0.996 4.557 0.996 4.557 0.079 -84.574
4592.417 0.078 -84.646 0.996 4.468 0.996 4.468 0.078 -84.646
4617.375 0.076 -84.716 0.996 4.38 0.996 4.38 0.076 -84.716
4642.333 0.075 -84.785 0.996 4.292 0.996 4.292 0.075 -84.785
4667.292 0.073 -84.853 0.996 4.205 0.996 4.205 0.073 -84.853
4692.25 0.072 -84.92 0.996 4.118 0.996 4.118 0.072 -84.92
4717.208 0.07 -84.985 0.996 4.032 0.996 4.032 0.07 -84.985
4742.167 0.069 -85.049 0.996 3.947 0.996 3.947 0.069 -85.049
4767.125 0.067 -85.112 0.997 3.862 0.997 3.862 0.067 -85.112
4792.083 0.066 -85.174 0.997 3.777 0.997 3.777 0.066 -85.174
4817.042 0.064 -85.234 0.997 3.694 0.997 3.694 0.064 -85.234
4842 0.063 -85.292 0.997 3.61 0.997 3.61 0.063 -85.292
4866.958 0.062 -85.349 0.997 3.527 0.997 3.527 0.062 -85.349
4891.917 0.06 -85.405 0.997 3.445 0.997 3.445 0.06 -85.405
4916.875 0.059 -85.458 0.997 3.363 0.997 3.363 0.059 -85.458
4941.833 0.057 -85.51 0.997 3.282 0.997 3.282 0.057 -85.51
4966.792 0.056 -85.561 0.997 3.201 0.997 3.201 0.056 -85.561
4991.75 0.054 -85.609 0.997 3.121 0.997 3.121 0.054 -85.609
5016.708 0.053 -85.656 0.997 3.041 0.997 3.041 0.053 -85.656
5041.667 0.052 -85.7 0.997 2.961 0.997 2.961 0.052 -85.7
5066.625 0.05 -85.742 0.998 2.882 0.998 2.882 0.05 -85.742
5091.583 0.049 -85.782 0.998 2.804 0.998 2.804 0.049 -85.782
5116.542 0.048 -85.82 0.998 2.725 0.998 2.725 0.048 -85.82
5141.5 0.046 -85.855 0.998 2.648 0.998 2.648 0.046 -85.855
5166.458 0.045 -85.887 0.998 2.57 0.998 2.57 0.045 -85.887
5191.417 0.044 -85.916 0.998 2.494 0.998 2.494 0.044 -85.916
5216.375 0.042 -85.943 0.998 2.417 0.998 2.417 0.042 -85.943
5241.333 0.041 -85.965 0.998 2.341 0.998 2.341 0.041 -85.965
5266.292 0.04 -85.984 0.998 2.265 0.998 2.265 0.04 -85.984
5291.25 0.038 -85.999 0.998 2.19 0.998 2.19 0.038 -85.999
5316.208 0.037 -86.01 0.998 2.115 0.998 2.115 0.037 -86.01
5341.167 0.036 -86.016 0.998 2.041 0.998 2.041 0.036 -86.016
5366.125 0.034 -86.017 0.998 1.967 0.998 1.967 0.034 -86.017
5391.083 0.033 -86.012 0.998 1.893 0.998 1.893 0.033 -86.012
5416.042 0.032 -86.001 0.998 1.82 0.998 1.82 0.032 -86.001
5441 0.031 -85.983 0.998 1.747 0.998 1.747 0.031 -85.983
5465.958 0.029 -85.958 0.998 1.675 0.998 1.675 0.029 -85.958
5490.917 0.028 -85.923 0.998 1.602 0.998 1.602 0.028 -85.923
5515.875 0.027 -85.879 0.998 1.53 0.998 1.53 0.027 -85.879
5540.833 0.025 -85.824 0.998 1.459 0.998 1.459 0.025 -85.824
5565.792 0.024 -85.756 0.998 1.388 0.998 1.388 0.024 -85.756
5590.75 0.023 -85.673 0.999 1.317 0.999 1.317 0.023 -85.673
5615.708 0.022 -85.574 0.999 1.247 0.999 1.247 0.022 -85.574
5640.667 0.021 -85.455 0.999 1.176 0.999 1.176 0.021 -85.455
5665.625 0.019 -85.313 0.999 1.107 0.999 1.107 0.019 -85.313
5690.583 0.018 -85.143 0.999 1.037 0.999 1.037 0.018 -85.143
5715.542 0.017 -84.94 0.999 0.968 0.999 0.968 0.017 -84.94
5740.5 0.016 -84.696 0.999 0.899 0.999 0.899 0.016 -84.696
5765.458 0.015 -84.403 0.999 0.831 0.999 0.831 0.015 -84.403
5790.417 0.013 -84.047 0.999 0.762 0.999 0.762 0.013 -84.047
5815.375 0.012 -83.61 0.999 0.694 0.999 0.694 0.012 -83.61
5840.333 0.011 -83.068 0.999 0.627 0.999 0.627 0.011 -83.068
5865.292 9.84e-3 -82.384 0.999 0.56 0.999 0.56 9.84e-3 -82.384
5890.25 8.68e-3 -81.503 0.999 0.493 0.999 0.493 8.68e-3 -81.503
5915.208 7.529e-3 -80.335 0.999 0.426 0.999 0.426 7.529e-3 -80.335
5940.167 6.387e-3 -78.731 0.999 0.359 0.999 0.359 6.387e-3 -78.731
5965.125 5.258e-3 -76.415 0.999 0.293 0.999 0.293 5.258e-3 -76.415
5990.083 4.147e-3 -72.826 0.999 0.227 0.999 0.227 4.147e-3 -72.826
6015.042 3.07e-3 -66.651 0.999 0.162 0.999 0.162 3.07e-3 -66.651
6040 2.071e-3 -54.198 0.999 0.096 0.999 0.096 2.071e-3 -54.198
6064.958 1.327e-3 -24.295 0.999 0.031 0.999 0.031 1.327e-3 -24.295
6089.917 1.343e-3 25.765 0.999 -0.033 0.999 -0.033 1.343e-3 25.765
6114.875 2.095e-3 54.653 0.999 -0.098 0.999 -0.098 2.095e-3 54.653
6139.833 3.079e-3 66.724 0.999 -0.162 0.999 -0.162 3.079e-3 66.724
6164.792 4.13e-3 72.755 0.999 -0.226 0.999 -0.226 4.13e-3 72.755
6189.75 5.204e-3 76.279 0.999 -0.29 0.999 -0.29 5.204e-3 76.279
6214.708 6.287e-3 78.562 0.999 -0.354 0.999 -0.354 6.287e-3 78.562
6239.667 7.374e-3 80.148 0.999 -0.417 0.999 -0.417 7.374e-3 80.148
6264.625 8.46e-3 81.306 0.999 -0.48 0.999 -0.48 8.46e-3 81.306
6289.583 9.545e-3 82.182 0.999 -0.543 0.999 -0.543 9.545e-3 82.182
6314.542 0.011 82.865 0.999 -0.605 0.999 -0.605 0.011 82.865
6339.5 0.012 83.407 0.999 -0.667 0.999 -0.667 0.012 83.407
6364.458 0.013 83.846 0.999 -0.729 0.999 -0.729 0.013 83.846
6389.417 0.014 84.206 0.999 -0.791 0.999 -0.791 0.014 84.206
6414.375 0.015 84.504 0.999 -0.853 0.999 -0.853 0.015 84.504
6439.333 0.016 84.753 0.999 -0.914 0.999 -0.914 0.016 84.753
6464.292 0.017 84.963 0.999 -0.975 0.999 -0.975 0.017 84.963
6489.25 0.018 85.14 0.999 -1.036 0.999 -1.036 0.018 85.14
6514.208 0.019 85.29 0.999 -1.097 0.999 -1.097 0.019 85.29
6539.167 0.02 85.418 0.999 -1.157 0.999 -1.157 0.02 85.418
6564.125 0.021 85.527 0.999 -1.217 0.999 -1.217 0.021 85.527
6589.083 0.022 85.62 0.999 -1.278 0.999 -1.278 0.022 85.62
6614.042 0.023 85.699 0.999 -1.337 0.999 -1.337 0.023 85.699
6639 0.024 85.765 0.998 -1.397 0.998 -1.397 0.024 85.765
6663.958 0.025 85.821 0.998 -1.456 0.998 -1.456 0.025 85.821
6688.917 0.026 85.868 0.998 -1.516 0.998 -1.516 0.026 85.868
6713.875 0.028 85.907 0.998 -1.575 0.998 -1.575 0.028 85.907
6738.833 0.029 85.939 0.998 -1.633 0.998 -1.633 0.029 85.939
6763.792 0.03 85.965 0.998 -1.692 0.998 -1.692 0.03 85.965
6788.75 0.031 85.984 0.998 -1.75 0.998 -1.75 0.031 85.984
6813.708 0.032 85.999 0.998 -1.809 0.998 -1.809 0.032 85.999
6838.667 0.033 86.009 0.998 -1.867 0.998 -1.867 0.033 86.009
6863.625 0.034 86.015 0.998 -1.924 0.998 -1.924 0.034 86.015
6888.583 0.035 86.017 0.998 -1.982 0.998 -1.982 0.035 86.017
6913.542 0.036 86.016 0.998 -2.039 0.998 -2.039 0.036 86.016
6938.5 0.037 86.012 0.998 -2.097 0.998 -2.097 0.037 86.012
6963.458 0.038 86.005 0.998 -2.154 0.998 -2.154 0.038 86.005
6988.417 0.039 85.996 0.998 -2.211 0.998 -2.211 0.039 85.996
7013.375 0.04 85.984 0.998 -2.267 0.998 -2.267 0.04 85.984
7038.333 0.041 85.97 0.998 -2.324 0.998 -2.324 0.041 85.97
7063.292 0.042 85.954 0.998 -2.38 0.998 -2.38 0.042 85.954
7088.25 0.043 85.936 0.998 -2.437 0.998 -2.437 0.043 85.936
7113.208 0.044 85.917 0.998 -2.493 0.998 -2.493 0.044 85.917
7138.167 0.044 85.896 0.998 -2.548 0.998 -2.548 0.044 85.896
7163.125 0.045 85.873 0.998 -2.604 0.998 -2.604 0.045 85.873
7188.083 0.046 85.85 0.998 -2.66 0.998 -2.66 0.046 85.85
7213.042 0.047 85.825 0.998 -2.715 0.998 -2.715 0.047 85.825
7238 0.048 85.799 0.998 -2.77 0.998 -2.77 0.048 85.799
7262.958 0.049 85.772 0.998 -2.825 0.998 -2.825 0.049 85.772
7287.917 0.05 85.744 0.998 -2.88 0.998 -2.88 0.05 85.744
7312.875 0.051 85.715 0.997 -2.935 0.997 -2.935 0.051 85.715
7337.833 0.052 85.685 0.997 -2.989 0.997 -2.989 0.052 85.685
7362.792 0.053 85.654 0.997 -3.044 0.997 -3.044 0.053 85.654
7387.75 0.054 85.623 0.997 -3.098 0.997 -3.098 0.054 85.623
7412.708 0.055 85.591 0.997 -3.152 0.997 -3.152 0.055 85.591
7437.667 0.056 85.558 0.997 -3.206 0.997 -3.206 0.056 85.558
7462.625 0.057 85.524 0.997 -3.26 0.997 -3.26 0.057 85.524
7487.583 0.058 85.491 0.997 -3.313 0.997 -3.313 0.058 85.491
7512.542 0.059 85.456 0.997 -3.367 0.997 -3.367 0.059 85.456
7537.5 0.06 85.421 0.997 -3.42 0.997 -3.42 0.06 85.421
7562.458 0.061 85.386 0.997 -3.473 0.997 -3.473 0.061 85.386
7587.417 0.062 85.35 0.997 -3.526 0.997 -3.526 0.062 85.35
7612.375 0.062 85.314 0.997 -3.579 0.997 -3.579 0.062 85.314
7637.333 0.063 85.277 0.997 -3.632 0.997 -3.632 0.063 85.277
7662.292 0.064 85.24 0.997 -3.685 0.997 -3.685 0.064 85.24
7687.25 0.065 85.203 0.997 -3.737 0.997 -3.737 0.065 85.203
7712.208 0.066 85.165 0.997 -3.79 0.997 -3.79 0.066 85.165
7737.167 0.067 85.127 0.997 -3.842 0.997 -3.842 0.067 85.127
7762.125 0.068 85.089 0.996 -3.894 0.996 -3.894 0.068 85.089
7787.083 0.069 85.05 0.996 -3.946 0.996 -3.946 0.069 85.05
7812.042 0.07 85.011 0.996 -3.998 0.996 -3.998 0.07 85.011
7837 0.071 84.972 0.996 -4.049 0.996 -4.049 0.071 84.972
7861.958 0.072 84.933 0.996 -4.101 0.996 -4.101 0.072 84.933
7886.917 0.072 84.894 0.996 -4.152 0.996 -4.152 0.072 84.894
7911.875 0.073 84.854 0.996 -4.204 0.996 -4.204 0.073 84.854
7936.833 0.074 84.814 0.996 -4.255 0.996 -4.255 0.074 84.814
7961.792 0.075 84.774 0.996 -4.306 0.996 -4.306 0.075 84.774
7986.75 0.076 84.734 0.996 -4.357 0.996 -4.357 0.076 84.734
8011.708 0.077 84.694 0.996 -4.407 0.996 -4.407 0.077 84.694
8036.667 0.078 84.654 0.996 -4.458 0.996 -4.458 0.078 84.654
8061.625 0.079 84.613 0.996 -4.509 0.996 -4.509 0.079 84.613
8086.583 0.079 84.572 0.996 -4.559 0.996 -4.559 0.079 84.572
8111.542 0.08 84.532 0.996 -4.609 0.996 -4.609 0.08 84.532
8136.5 0.081 84.491 0.995 -4.66 0.995 -4.66 0.081 84.491
8161.458 0.082 84.45 0.995 -4.71 0.995 -4.71 0.082 84.45
8186.417 0.083 84.409 0.995 -4.76 0.995 -4.76 0.083 84.409
8211.375 0.084 84.367 0.995 -4.809 0.995 -4.809 0.084 84.367
