# MHZ S MA R 50

50 0.991 -7.871 0.137 82.125 0.137 82.125 0.991 -7.871
74.958 0.979 -11.712 0.203 78.282 0.203 78.282 0.979 -11.712
99.917 0.964 -15.452 0.266 74.541 0.266 74.541 0.964 -15.452
124.875 0.945 -19.065 0.327 70.926 0.327 70.926 0.945 -19.065
149.833 0.924 -22.531 0.383 67.458 0.383 67.458 0.924 -22.531
174.792 0.9 -25.837 0.436 64.15 0.436 64.15 0.9 -25.837
199.75 0.875 -28.974 0.484 61.011 0.484 61.011 0.875 -28.974
224.708 0.848 -31.937 0.529 58.046 0.529 58.046 0.848 -31.937
249.667 0.822 -34.727 0.57 55.254 0.57 55.254 0.822 -34.727
274.625 0.795 -37.347 0.607 52.633 0.607 52.633 0.795 -37.347
299.583 0.768 -39.803 0.64 50.175 0.64 50.175 0.768 -39.803
324.542 0.742 -42.102 0.67 47.874 0.67 47.874 0.742 -42.102
349.5 0.716 -44.252 0.698 45.722 0.698 45.722 0.716 -44.252
374.458 0.691 -46.263 0.723 43.709 0.723 43.709 0.691 -46.263
399.417 0.667 -48.143 0.745 41.827 0.745 41.827 0.667 -48.143
424.375 0.644 -49.902 0.765 40.067 0.765 40.067 0.644 -49.902
449.333 0.621 -51.548 0.783 38.419 0.783 38.419 0.621 -51.548
474.292 0.6 -53.09 0.8 36.875 0.8 36.875 0.6 -53.09
499.25 0.58 -54.535 0.814 35.428 0.814 35.428 0.58 -54.535
524.208 0.56 -55.891 0.828 34.07 0.828 34.07 0.56 -55.891
549.167 0.542 -57.166 0.84 32.793 0.84 32.793 0.542 -57.166
574.125 0.524 -58.364 0.851 31.593 0.851 31.593 0.524 -58.364
599.083 0.507 -59.493 0.862 30.462 0.862 30.462 0.507 -59.493
624.042 0.491 -60.557 0.871 29.396 0.871 29.396 0.491 -60.557
649 0.475 -61.562 0.879 28.39 0.879 28.39 0.475 -61.562
673.958 0.461 -62.511 0.887 27.438 0.887 27.438 0.461 -62.511
698.917 0.447 -63.41 0.894 26.538 0.894 26.538 0.447 -63.41
723.875 0.433 -64.261 0.901 25.684 0.901 25.684 0.433 -64.261
748.833 0.421 -65.069 0.907 24.874 0.907 24.874 0.421 -65.069
773.792 0.408 -65.836 0.912 24.105 0.912 24.105 0.408 -65.836
798.75 0.397 -66.566 0.918 23.373 0.918 23.373 0.397 -66.566
823.708 0.386 -67.26 0.922 22.677 0.922 22.677 0.386 -67.26
848.667 0.375 -67.922 0.927 22.013 0.927 22.013 0.375 -67.922
873.625 0.365 -68.554 0.931 21.379 0.931 21.379 0.365 -68.554
898.583 0.355 -69.157 0.935 20.774 0.935 20.774 0.355 -69.157
923.542 0.345 -69.733 0.938 20.195 0.938 20.195 0.345 -69.733
948.5 0.336 -70.285 0.941 19.641 0.941 19.641 0.336 -70.285
973.458 0.327 -70.814 0.944 19.11 0.944 19.11 0.327 -70.814
998.417 0.319 -71.321 0.947 18.601 0.947 18.601 0.319 -71.321
1023.375 0.311 -71.807 0.95 18.112 0.95 18.112 0.311 -71.807
1048.333 0.303 -72.275 0.953 17.642 0.953 17.642 0.303 -72.275
1073.292 0.296 -72.724 0.955 17.191 0.955 17.191 0.296 -72.724
1098.25 0.288 -73.157 0.957 16.756 0.957 16.756 0.288 -73.157
1123.208 0.281 -73.573 0.959 16.337 0.959 16.337 0.281 -73.573
1148.167 0.275 -73.974 0.961 15.933 0.961 15.933 0.275 -73.974
1173.125 0.268 -74.361 0.963 15.544 0.963 15.544 0.268 -74.361
1198.083 0.262 -74.735 0.965 15.168 0.965 15.168 0.262 -74.735
1223.042 0.256 -75.096 0.966 14.804 0.966 14.804 0.256 -75.096
1248 0.25 -75.445 0.968 14.453 0.968 14.453 0.25 -75.445
1272.958 0.244 -75.782 0.969 14.113 0.969 14.113 0.244 -75.782
1297.917 0.238 -76.109 0.971 13.784 0.971 13.784 0.238 -76.109
1322.875 0.233 -76.425 0.972 13.465 0.972 13.465 0.233 -76.425
1347.833 0.228 -76.732 0.973 13.155 0.973 13.155 0.228 -76.732
1372.792 0.222 -77.029 0.974 12.855 0.974 12.855 0.222 -77.029
1397.75 0.218 -77.318 0.976 12.564 0.976 12.564 0.218 -77.318
1422.708 0.213 -77.598 0.977 12.281 0.977 12.281 0.213 -77.598
1447.667 0.208 -77.87 0.978 12.006 0.978 12.006 0.208 -77.87
1472.625 0.203 -78.134 0.979 11.739 0.979 11.739 0.203 -78.134
1497.583 0.199 -78.391 0.98 11.479 0.98 11.479 0.199 -78.391
1522.542 0.195 -78.642 0.98 11.226 0.98 11.226 0.195 -78.642
1547.5 0.19 -78.885 0.981 10.979 0.981 10.979 0.19 -78.885
1572.458 0.186 -79.122 0.982 10.739 0.982 10.739 0.186 -79.122
1597.417 0.182 -79.353 0.983 10.505 0.983 10.505 0.182 -79.353
1622.375 0.178 -79.578 0.984 10.276 0.984 10.276 0.178 -79.578
1647.333 0.175 -79.798 0.984 10.053 0.984 10.053 0.175 -79.798
1672.292 0.171 -80.012 0.985 9.836 0.985 9.836 0.171 -80.012
1697.25 0.167 -80.221 0.985 9.623 0.985 9.623 0.167 -80.221
1722.208 0.164 -80.426 0.986 9.415 0.986 9.415 0.164 -80.426
1747.167 0.16 -80.625 0.987 9.212 0.987 9.212 0.16 -80.625
1772.125 0.157 -80.82 0.987 9.014 0.987 9.014 0.157 -80.82
1797.083 0.153 -81.01 0.988 8.82 0.988 8.82 0.153 -81.01
1822.042 0.15 -81.197 0.988 8.63 0.988 8.63 0.15 -81.197
1847 0.147 -81.379 0.989 8.444 0.989 8.444 0.147 -81.379
1871.958 0.144 -81.557 0.989 8.261 0.989 8.261 0.144 -81.557
1896.917 0.141 -81.732 0.99 8.083 0.99 8.083 0.141 -81.732
1921.875 0.138 -81.902 0.99 7.908 0.99 7.908 0.138 -81.902
1946.833 0.135 -82.07 0.99 7.736 0.99 7.736 0.135 -82.07
1971.792 0.132 -82.234 0.991 7.568 0.991 7.568 0.132 -82.234
1996.75 0.129 -82.394 0.991 7.403 0.991 7.403 0.129 -82.394
2021.708 0.126 -82.552 0.992 7.241 0.992 7.241 0.126 -82.552
2046.667 0.123 -82.706 0.992 7.082 0.992 7.082 0.123 -82.706
2071.625 0.121 -82.857 0.992 6.926 0.992 6.926 0.121 -82.857
2096.583 0.118 -83.006 0.993 6.772 0.993 6.772 0.118 -83.006
2121.542 0.115 -83.152 0.993 6.621 0.993 6.621 0.115 -83.152
2146.5 0.113 -83.294 0.993 6.473 0.993 6.473 0.113 -83.294
2171.458 0.11 -83.435 0.993 6.327 0.993 6.327 0.11 -83.435
2196.417 0.108 -83.573 0.994 6.184 0.994 6.184 0.108 -83.573
2221.375 0.105 -83.708 0.994 6.043 0.994 6.043 0.105 -83.708
2246.333 0.103 -83.841 0.994 5.904 0.994 5.904 0.103 -83.841
2271.292 0.101 -83.971 0.994 5.768 0.994 5.768 0.101 -83.971
2296.25 0.098 -84.099 0.995 5.634 0.995 5.634 0.098 -84.099
2321.208 0.096 -84.225 0.995 5.501 0.995 5.501 0.096 -84.225
2346.167 0.094 -84.349 0.995 5.371 0.995 5.371 0.094 -84.349
2371.125 0.091 -84.47 0.995 5.242 0.995 5.242 0.091 -84.47
2396.083 0.089 -84.59 0.996 5.116 0.996 5.116 0.089 -84.59
2421.042 0.087 -84.707 0.996 4.991 0.996 4.991 0.087 -84.707
2446 0.085 -84.823 0.996 4.868 0.996 4.868 0.085 -84.823
2470.958 0.083 -84.936 0.996 4.747 0.996 4.747 0.083 -84.936
2495.917 0.081 -85.047 0.996 4.627 0.996 4.627 0.081 -85.047
2520.875 0.079 -85.157 0.996 4.509 0.996 4.509 0.079 -85.157
2545.833 0.077 -85.264 0.997 4.392 0.997 4.392 0.077 -85.264
2570.792 0.075 -85.37 0.997 4.278 0.997 4.278 0.075 -85.37
2595.75 0.073 -85.474 0.997 4.164 0.997 4.164 0.073 -85.474
2620.708 0.071 -85.576 0.997 4.052 0.997 4.052 0.071 -85.576
2645.667 0.069 -85.676 0.997 3.941 0.997 3.941 0.069 -85.676
2670.625 0.067 -85.774 0.997 3.832 0.997 3.832 0.067 -85.774
2695.583 0.065 -85.871 0.997 3.724 0.997 3.724 0.065 -85.871
2720.542 0.063 -85.966 0.998 3.617 0.998 3.617 0.063 -85.966
2745.5 0.061 -86.059 0.998 3.512 0.998 3.512 0.061 -86.059
2770.458 0.059 -86.15 0.998 3.408 0.998 3.408 0.059 -86.15
2795.417 0.058 -86.239 0.998 3.305 0.998 3.305 0.058 -86.239
2820.375 0.056 -86.326 0.998 3.203 0.998 3.203 0.056 -86.326
2845.333 0.054 -86.412 0.998 3.102 0.998 3.102 0.054 -86.412
2870.292 0.052 -86.495 0.998 3.002 0.998 3.002 0.052 -86.495
2895.25 0.051 -86.577 0.998 2.904 0.998 2.904 0.051 -86.577
2920.208 0.049 -86.656 0.998 2.806 0.998 2.806 0.049 -86.656
2945.167 0.047 -86.733 0.998 2.71 0.998 2.71 0.047 -86.733
2970.125 0.046 -86.809 0.998 2.614 0.998 2.614 0.046 -86.809
2995.083 0.044 -86.881 0.999 2.52 0.999 2.52 0.044 -86.881
3020.042 0.042 -86.952 0.999 2.426 0.999 2.426 0.042 -86.952
3045 0.041 -87.02 0.999 2.333 0.999 2.333 0.041 -87.02
3069.958 0.039 -87.085 0.999 2.242 0.999 2.242 0.039 -87.085
3094.917 0.038 -87.148 0.999 2.151 0.999 2.151 0.038 -87.148
3119.875 0.036 -87.207 0.999 2.061 0.999 2.061 0.036 -87.207
3144.833 0.034 -87.263 0.999 1.971 0.999 1.971 0.034 -87.263
3169.792 0.033 -87.315 0.999 1.883 0.999 1.883 0.033 -87.315
3194.75 0.031 -87.364 0.999 1.796 0.999 1.796 0.031 -87.364
3219.708 0.03 -87.408 0.999 1.709 0.999 1.709 0.03 -87.408
3244.667 0.028 -87.447 0.999 1.623 0.999 1.623 0.028 -87.447
3269.625 0.027 -87.481 0.999 1.537 0.999 1.537 0.027 -87.481
3294.583 0.025 -87.508 0.999 1.453 0.999 1.453 0.025 -87.508
3319.542 0.024 -87.528 0.999 1.369 0.999 1.369 0.024 -87.528
3344.5 0.022 -87.54 0.999 1.286 0.999 1.286 0.022 -87.54
3369.458 0.021 -87.542 0.999 1.203 0.999 1.203 0.021 -87.542
3394.417 0.02 -87.532 0.999 1.122 0.999 1.122 0.02 -87.532
3419.375 0.018 -87.509 0.999 1.04 0.999 1.04 0.018 -87.509
3444.333 0.017 -87.468 0.999 0.96 0.999 0.96 0.017 -87.468
3469.292 0.015 -87.405 0.999 0.88 0.999 0.88 0.015 -87.405
3494.25 0.014 -87.314 0.999 0.801 0.999 0.801 0.014 -87.314
3519.208 0.013 -87.188 0.999 0.722 0.999 0.722 0.013 -87.188
3544.167 0.011 -87.013 0.999 0.644 0.999 0.644 0.011 -87.013
3569.125 9.899e-3 -86.77 0.999 0.567 0.999 0.567 9.899e-3 -86.77
3594.083 8.558e-3 -86.43 1 0.49 1 0.49 8.558e-3 -86.43
3619.042 7.228e-3 -85.938 1 0.413 1 0.413 7.228e-3 -85.938
3644 5.908e-3 -85.197 1 0.337 1 0.337 5.908e-3 -85.197
3668.958 4.599e-3 -83.997 1 0.262 1 0.262 4.599e-3 -83.997
3693.917 3.303e-3 -81.807 1 0.187 1 0.187 3.303e-3 -81.807
3718.875 2.028e-3 -76.774 1 0.113 1 0.113 2.028e-3 -76.774
3743.833 827.1e-6 -56.17 1 0.039 1 0.039 827.1e-6 -56.17
3768.792 749.2e-6 52.091 1 -0.034 1 -0.034 749.2e-6 52.091
3793.75 1.918e-3 76.015 1 -0.107 1 -0.107 1.918e-3 76.015
3818.708 3.157e-3 81.444 1 -0.179 1 -0.179 3.157e-3 81.444
3843.667 4.402e-3 83.751 1 -0.251 1 -0.251 4.402e-3 83.751
3868.625 5.643e-3 85.002 1 -0.322 1 -0.322 5.643e-3 85.002
3893.583 6.877e-3 85.772 1 -0.393 1 -0.393 6.877e-3 85.772
3918.542 8.106e-3 86.283 1 -0.464 1 -0.464 8.106e-3 86.283
3943.5 9.327e-3 86.64 0.999 -0.534 0.999 -0.534 9.327e-3 86.64
3968.458 0.011 86.896 0.999 -0.603 0.999 -0.603 0.011 86.896
3993.417 0.012 87.084 0.999 -0.673 0.999 -0.673 0.012 87.084
4018.375 0.013 87.223 0.999 -0.741 0.999 -0.741 0.013 87.223
4043.333 0.014 87.326 0.999 -0.81 0.999 -0.81 0.014 87.326
4068.292 0.015 87.403 0.999 -0.878 0.999 -0.878 0.015 87.403
4093.25 0.017 87.458 0.999 -0.946 0.999 -0.946 0.017 87.458
4118.208 0.018 87.497 0.999 -1.013 0.999 -1.013 0.018 87.497
4143.167 0.019 87.522 0.999 -1.08 0.999 -1.08 0.019 87.522
4168.125 0.02 87.537 0.999 -1.146 0.999 -1.146 0.02 87.537
4193.083 0.021 87.542 0.999 -1.213 0.999 -1.213 0.021 87.542
4218.042 0.022 87.541 0.999 -1.278 0.999 -1.278 0.022 87.541
4243 0.023 87.533 0.999 -1.344 0.999 -1.344 0.023 87.533
4267.958 0.025 87.52 0.999 -1.409 0.999 -1.409 0.025 87.52
4292.917 0.026 87.502 0.999 -1.474 0.999 -1.474 0.026 87.502
4317.875 0.027 87.48 0.999 -1.538 0.999 -1.538 0.027 87.48
4342.833 0.028 87.456 0.999 -1.602 0.999 -1.602 0.028 87.456
4367.792 0.029 87.428 0.999 -1.666 0.999 -1.666 0.029 87.428
4392.75 0.03 87.398 0.999 -1.73 0.999 -1.73 0.03 87.398
4417.708 0.031 87.365 0.999 -1.793 0.999 -1.793 0.031 87.365
4442.667 0.032 87.331 0.999 -1.856 0.999 -1.856 0.032 87.331
4467.625 0.033 87.295 0.999 -1.918 0.999 -1.918 0.033 87.295
4492.583 0.035 87.257 0.999 -1.981 0.999 -1.981 0.035 87.257
4517.542 0.036 87.218 0.999 -2.043 0.999 -2.043 0.036 87.218
4542.5 0.037 87.178 0.999 -2.104 0.999 -2.104 0.037 87.178
4567.458 0.038 87.137 0.999 -2.166 0.999 -2.166 0.038 87.137
4592.417 0.039 87.095 0.999 -2.227 0.999 -2.227 0.039 87.095
4617.375 0.04 87.052 0.999 -2.288 0.999 -2.288 0.04 87.052
4642.333 0.041 87.009 0.999 -2.349 0.999 -2.349 0.041 87.009
4667.292 0.042 86.965 0.999 -2.409 0.999 -2.409 0.042 86.965
4692.25 0.043 86.92 0.999 -2.469 0.999 -2.469 0.043 86.92
4717.208 0.044 86.874 0.999 -2.529 0.999 -2.529 0.044 86.874
4742.167 0.045 86.828 0.999 -2.589 0.999 -2.589 0.045 86.828
4767.125 0.046 86.782 0.998 -2.648 0.998 -2.648 0.046 86.782
4792.083 0.047 86.735 0.998 -2.707 0.998 -2.707 0.047 86.735
4817.042 0.048 86.688 0.998 -2.766 0.998 -2.766 0.048 86.688
4842 0.049 86.641 0.998 -2.825 0.998 -2.825 0.049 86.641
4866.958 0.05 86.594 0.998 -2.883 0.998 -2.883 0.05 86.594
4891.917 0.051 86.546 0.998 -2.941 0.998 -2.941 0.051 86.546
4916.875 0.052 86.498 0.998 -2.999 0.998 -2.999 0.052 86.498
4941.833 0.053 86.449 0.998 -3.057 0.998 -3.057 0.053 86.449
4966.792 0.054 86.401 0.998 -3.115 0.998 -3.115 0.054 86.401
4991.75 0.055 86.353 0.998 -3.172 0.998 -3.172 0.055 86.353
5016.708 0.056 86.304 0.998 -3.229 0.998 -3.229 0.056 86.304
5041.667 0.057 86.255 0.998 -3.286 0.998 -3.286 0.057 86.255
5066.625 0.058 86.206 0.998 -3.343 0.998 -3.343 0.058 86.206
5091.583 0.059 86.157 0.998 -3.399 0.998 -3.399 0.059 86.157
5116.542 0.06 86.108 0.998 -3.455 0.998 -3.455 0.06 86.108
5141.5 0.061 86.059 0.998 -3.511 0.998 -3.511 0.061 86.059
5166.458 0.062 86.01 0.998 -3.567 0.998 -3.567 0.062 86.01
5191.417 0.063 85.961 0.998 -3.623 0.998 -3.623 0.063 85.961
5216.375 0.064 85.912 0.997 -3.678 0.997 -3.678 0.064 85.912
5241.333 0.065 85.862 0.997 -3.734 0.997 -3.734 0.065 85.862
5266.292 0.066 85.813 0.997 -3.789 0.997 -3.789 0.066 85.813
5291.25 0.067 85.764 0.997 -3.844 0.997 -3.844 0.067 85.764
5316.208 0.068 85.715 0.997 -3.898 0.997 -3.898 0.068 85.715
5341.167 0.069 85.666 0.997 -3.953 0.997 -3.953 0.069 85.666
5366.125 0.07 85.616 0.997 -4.007 0.997 -4.007 0.07 85.616
5391.083 0.071 85.567 0.997 -4.062 0.997 -4.062 0.071 85.567
5416.042 0.072 85.518 0.997 -4.116 0.997 -4.116 0.072 85.518
5441 0.073 85.469 0.997 -4.17 0.997 -4.17 0.073 85.469
5465.958 0.074 85.42 0.997 -4.223 0.997 -4.223 0.074 85.42
5490.917 0.075 85.371 0.997 -4.277 0.997 -4.277 0.075 85.371
5515.875 0.076 85.322 0.997 -4.33 0.997 -4.33 0.076 85.322
5540.833 0.076 85.273 0.997 -4.384 0.997 -4.384 0.076 85.273
5565.792 0.077 85.224 0.997 -4.437 0.997 -4.437 0.077 85.224
5590.75 0.078 85.175 0.996 -4.49 0.996 -4.49 0.078 85.175
5615.708 0.079 85.126 0.996 -4.542 0.996 -4.542 0.079 85.126
5640.667 0.08 85.077 0.996 -4.595 0.996 -4.595 0.08 85.077
5665.625 0.081 85.028 0.996 -4.647 0.996 -4.647 0.081 85.028
5690.583 0.082 84.98 0.996 -4.7 0.996 -4.7 0.082 84.98
5715.542 0.083 84.931 0.996 -4.752 0.996 -4.752 0.083 84.931
5740.5 0.084 84.883 0.996 -4.804 0.996 -4.804 0.084 84.883
5765.458 0.085 84.834 0.996 -4.856 0.996 -4.856 0.085 84.834
5790.417 0.086 84.786 0.996 -4.907 0.996 -4.907 0.086 84.786
5815.375 0.086 84.737 0.996 -4.959 0.996 -4.959 0.086 84.737
5840.333 0.087 84.689 0.996 -5.01 0.996 -5.01 0.087 84.689
5865.292 0.088 84.641 0.996 -5.062 0.996 -5.062 0.088 84.641
5890.25 0.089 84.592 0.996 -5.113 0.996 -5.113 0.089 84.592
5915.208 0.09 84.544 0.995 -5.164 0.995 -5.164 0.09 84.544
5940.167 0.091 84.496 0.995 -5.215 0.995 -5.215 0.091 84.496
5965.125 0.092 84.448 0.995 -5.266 0.995 -5.266 0.092 84.448
5990.083 0.093 84.4 0.995 -5.316 0.995 -5.316 0.093 84.4
6015.042 0.094 84.353 0.995 -5.367 0.995 -5.367 0.094 84.353
6040 0.094 84.305 0.995 -5.417 0.995 -5.417 0.094 84.305
6064.958 0.095 84.257 0.995 -5.468 0.995 -5.468 0.095 84.257
6089.917 0.096 84.209 0.995 -5.518 0.995 -5.518 0.096 84.209
6114.875 0.097 84.162 0.995 -5.568 0.995 -5.568 0.097 84.162
6139.833 0.098 84.114 0.995 -5.618 0.995 -5.618 0.098 84.114
6164.792 0.099 84.067 0.995 -5.668 0.995 -5.668 0.099 84.067
6189.75 0.1 84.02 0.995 -5.717 0.995 -5.717 0.1 84.02
6214.708 0.1 83.972 0.994 -5.767 0.994 -5.767 0.1 83.972
6239.667 0.101 83.925 0.994 -5.816 0.994 -5.816 0.101 83.925
6264.625 0.102 83.878 0.994 -5.866 0.994 -5.866 0.102 83.878
6289.583 0.103 83.831 0.994 -5.915 0.994 -5.915 0.103 83.831
6314.542 0.104 83.784 0.994 -5.964 0.994 -5.964 0.104 83.784
6339.5 0.105 83.737 0.994 -6.013 0.994 -6.013 0.105 83.737
6364.458 0.106 83.69 0.994 -6.062 0.994 -6.062 0.106 83.69
6389.417 0.106 83.643 0.994 -6.111 0.994 -6.111 0.106 83.643
6414.375 0.107 83.597 0.994 -6.159 0.994 -6.159 0.107 83.597
6439.333 0.108 83.55 0.994 -6.208 0.994 -6.208 0.108 83.55
6464.292 0.109 83.503 0.994 -6.256 0.994 -6.256 0.109 83.503
6489.25 0.11 83.457 0.993 -6.305 0.993 -6.305 0.11 83.457
6514.208 0.111 83.41 0.993 -6.353 0.993 -6.353 0.111 83.41
6539.167 0.111 83.364 0.993 -6.401 0.993 -6.401 0.111 83.364
6564.125 0.112 83.318 0.993 -6.449 0.993 -6.449 0.112 83.318
6589.083 0.113 83.271 0.993 -6.497 0.993 -6.497 0.113 83.271
6614.042 0.114 83.225 0.993 -6.545 0.993 -6.545 0.114 83.225
6639 0.115 83.179 0.993 -6.593 0.993 -6.593 0.115 83.179
6663.958 0.116 83.133 0.993 -6.64 0.993 -6.64 0.116 83.133
6688.917 0.116 83.087 0.993 -6.688 0.993 -6.688 0.116 83.087
6713.875 0.117 83.041 0.993 -6.735 0.993 -6.735 0.117 83.041
6738.833 0.118 82.996 0.993 -6.783 0.993 -6.783 0.118 82.996
6763.792 0.119 82.95 0.992 -6.83 0.992 -6.83 0.119 82.95
6788.75 0.12 82.904 0.992 -6.877 0.992 -6.877 0.12 82.904
6813.708 0.121 82.859 0.992 -6.924 0.992 -6.924 0.121 82.859
6838.667 0.121 82.813 0.992 -6.971 0.992 -6.971 0.121 82.813
6863.625 0.122 82.768 0.992 -7.018 0.992 -7.018 0.122 82.768
6888.583 0.123 82.722 0.992 -7.065 0.992 -7.065 0.123 82.722
6913.542 0.124 82.677 0.992 -7.112 0.992 -7.112 0.124 82.677
6938.5 0.125 82.631 0.992 -7.159 0.992 -7.159 0.125 82.631
6963.458 0.125 82.586 0.992 -7.205 0.992 -7.205 0.125 82.586
6988.417 0.126 82.541 0.992 -7.252 0.992 -7.252 0.126 82.541
7013.375 0.127 82.496 0.991 -7.298 0.991 -7.298 0.127 82.496
7038.333 0.128 82.451 0.991 -7.345 0.991 -7.345 0.128 82.451
7063.292 0.129 82.406 0.991 -7.391 0.991 -7.391 0.129 82.406
7088.25 0.129 82.361 0.991 -7.437 0.991 -7.437 0.129 82.361
7113.208 0.13 82.316 0.991 -7.483 0.991 -7.483 0.13 82.316
7138.167 0.131 82.272 0.991 -7.529 0.991 -7.529 0.131 82.272
7163.125 0.132 82.227 0.991 -7.575 0.991 -7.575 0.132 82.227
7188.083 0.133 82.182 0.991 -7.621 0.991 -7.621 0.133 82.182
7213.042 0.133 82.138 0.991 -7.667 0.991 -7.667 0.133 82.138
7238 0.134 82.093 0.99 -7.712 0.99 -7.712 0.134 82.093
7262.958 0.135 82.049 0.99 -7.758 0.99 -7.758 0.135 82.049
7287.917 0.136 82.004 0.99 -7.803 0.99 -7.803 0.136 82.004
7312.875 0.137 81.96 0.99 -7.849 0.99 -7.849 0.137 81.96
7337.833 0.137 81.916 0.99 -7.894 0.99 -7.894 0.137 81.916
7362.792 0.138 81.871 0.99 -7.94 0.99 -7.94 0.138 81.871
7387.75 0.139 81.827 0.99 -7.985 0.99 -7.985 0.139 81.827
7412.708 0.14 81.783 0.99 -8.03 0.99 -8.03 0.14 81.783
7437.667 0.14 81.739 0.99 -8.075 0.99 -8.075 0.14 81.739
7462.625 0.141 81.695 0.99 -8.12 0.99 -8.12 0.141 81.695
7487.583 0.142 81.651 0.989 -8.165 0.989 -8.165 0.142 81.651
7512.542 0.143 81.607 0.989 -8.21 0.989 -8.21 0.143 81.607
7537.5 0.144 81.564 0.989 -8.255 0.989 -8.255 0.144 81.564
7562.458 0.144 81.52 0.989 -8.3 0.989 -8.3 0.144 81.52
7587.417 0.145 81.476 0.989 -8.344 0.989 -8.344 0.145 81.476
7612.375 0.146 81.432 0.989 -8.389 0.989 -8.389 0.146 81.432
7637.333 0.147 81.389 0.989 -8.433 0.989 -8.433 0.147 81.389
7662.292 0.147 81.345 0.989 -8.478 0.989 -8.478 0.147 81.345
7687.25 0.148 81.302 0.989 -8.522 0.989 -8.522 0.148 81.302
7712.208 0.149 81.258 0.988 -8.567 0.988 -8.567 0.149 81.258
7737.167 0.15 81.215 0.988 -8.611 0.988 -8.611 0.15 81.215
7762.125 0.15 81.172 0.988 -8.655 0.988 -8.655 0.15 81.172
7787.083 0.151 81.128 0.988 -8.699 0.988 -8.699 0.151 81.128
7812.042 0.152 81.085 0.988 -8.743 0.988 -8.743 0.152 81.085
7837 0.153 81.042 0.988 -8.787 0.988 -8.787 0.153 81.042
7861.958 0.154 80.999 0.988 -8.831 0.988 -8.831 0.154 80.999
7886.917 0.154 80.956 0.988 -8.875 0.988 -8.875 0.154 80.956
7911.875 0.155 80.913 0.987 -8.919 0.987 -8.919 0.155 80.913
7936.833 0.156 80.87 0.987 -8.963 0.987 -8.963 0.156 80.87
7961.792 0.157 80.827 0.987 -9.007 0.987 -9.007 0.157 80.827
7986.75 0.157 80.784 0.987 -9.05 0.987 -9.05 0.157 80.784
8011.708 0.158 80.742 0.987 -9.094 0.987 -9.094 0.158 80.742
8036.667 0.159 80.699 0.987 -9.137 0.987 -9.137 0.159 80.699
8061.625 0.16 80.656 0.987 -9.181 0.987 -9.181 0.16 80.656
8086.583 0.16 80.613 0.987 -9.224 0.987 -9.224 0.16 80.613
8111.542 0.161 80.571 0.986 -9.268 0.986 -9.268 0.161 80.571
8136.5 0.162 80.528 0.986 -9.311 0.986 -9.311 0.162 80.528
8161.458 0.163 80.486 0.986 -9.354 0.986 -9.354 0.163 80.486
8186.417 0.163 80.443 0.986 -9.397 0.986 -9.397 0.163 80.443
8211.375 0.164 80.401 0.986 -9.44 0.986 -9.44 0.164 80.401
8236.333 0.165 80.359 0.986 -9.484 0.986 -9.484 0.165 80.359
8261.292 0.166 80.316 0.986 -9.527 0.986 -9.527 0.166 80.316
8286.25 0.166 80.274 0.986 -9.569 0.986 -9.569 0.166 80.274
8311.208 0.167 80.232 0.986 -9.612 0.986 -9.612 0.167 80.232
