# MHZ S MA R 50

50 0.56 -55.925 0.828 34.052 0.828 34.052 0.56 -55.925
74.958 0.41 -65.749 0.912 24.216 0.912 24.216 0.41 -65.749
99.917 0.319 -71.365 0.948 18.589 0.948 18.589 0.319 -71.365
124.875 0.259 -74.94 0.966 15.002 0.966 15.002 0.259 -74.94
149.833 0.217 -77.402 0.976 12.528 0.976 12.528 0.217 -77.402
174.792 0.186 -79.198 0.982 10.72 0.982 10.72 0.186 -79.198
199.75 0.162 -80.565 0.986 9.341 0.986 9.341 0.162 -80.565
224.708 0.144 -81.64 0.989 8.253 0.989 8.253 0.144 -81.64
249.667 0.128 -82.509 0.991 7.371 0.991 7.371 0.128 -82.509
274.625 0.116 -83.226 0.993 6.641 0.993 6.641 0.116 -83.226
299.583 0.105 -83.829 0.994 6.024 0.994 6.024 0.105 -83.829
324.542 0.096 -84.343 0.995 5.496 0.995 5.496 0.096 -84.343
349.5 0.088 -84.787 0.996 5.037 0.996 5.037 0.088 -84.787
374.458 0.081 -85.174 0.996 4.635 0.996 4.635 0.081 -85.174
399.417 0.075 -85.516 0.997 4.277 0.997 4.277 0.075 -85.516
424.375 0.069 -85.819 0.997 3.958 0.997 3.958 0.069 -85.819
449.333 0.064 -86.089 0.998 3.67 0.998 3.67 0.064 -86.089
474.292 0.059 -86.332 0.998 3.408 0.998 3.408 0.059 -86.332
499.25 0.055 -86.552 0.998 3.168 0.998 3.168 0.055 -86.552
524.208 0.051 -86.751 0.998 2.948 0.998 2.948 0.051 -86.751
549.167 0.048 -86.932 0.999 2.745 0.999 2.745 0.048 -86.932
574.125 0.045 -87.097 0.999 2.556 0.999 2.556 0.045 -87.097
599.083 0.042 -87.248 0.999 2.38 0.999 2.38 0.042 -87.248
624.042 0.039 -87.385 0.999 2.215 0.999 2.215 0.039 -87.385
649 0.036 -87.51 0.999 2.06 0.999 2.06 0.036 -87.51
673.958 0.033 -87.623 0.999 1.914 0.999 1.914 0.033 -87.623
698.917 0.031 -87.725 0.999 1.776 0.999 1.776 0.031 -87.725
723.875 0.029 -87.817 0.999 1.645 0.999 1.645 0.029 -87.817
748.833 0.027 -87.897 0.999 1.52 0.999 1.52 0.027 -87.897
773.792 0.024 -87.967 0.999 1.401 0.999 1.401 0.024 -87.967
798.75 0.022 -88.025 0.999 1.287 0.999 1.287 0.022 -88.025
823.708 0.021 -88.07 1 1.177 1 1.177 0.021 -88.07
848.667 0.019 -88.101 1 1.073 1 1.073 0.019 -88.101
873.625 0.017 -88.116 1 0.972 1 0.972 0.017 -88.116
898.583 0.015 -88.112 1 0.874 1 0.874 0.015 -88.112
923.542 0.014 -88.084 1 0.78 1 0.78 0.014 -88.084
948.5 0.012 -88.025 1 0.689 1 0.689 0.012 -88.025
973.458 0.01 -87.925 1 0.601 1 0.601 0.01 -87.925
998.417 9.008e-3 -87.767 1 0.516 1 0.516 9.008e-3 -87.767
1023.375 7.56e-3 -87.521 1 0.433 1 0.433 7.56e-3 -87.521
1048.333 6.151e-3 -87.132 1 0.352 1 0.352 6.151e-3 -87.132
1073.292 4.779e-3 -86.488 1 0.273 1 0.273 4.779e-3 -86.488
1098.25 3.443e-3 -85.306 1 0.197 1 0.197 3.443e-3 -85.306
1123.208 2.142e-3 -82.637 1 0.122 1 0.122 2.142e-3 -82.637
1148.167 889.2e-6 -72.276 1 0.049 1 0.049 889.2e-6 -72.276
1173.125 484.7e-6 56.129 1 -0.023 1 -0.023 484.7e-6 56.129
1198.083 1.649e-3 80.481 1 -0.093 1 -0.093 1.649e-3 80.481
1223.042 2.838e-3 84.38 1 -0.162 1 -0.162 2.838e-3 84.38
1248 4.011e-3 85.911 1 -0.229 1 -0.229 4.011e-3 85.911
1272.958 5.163e-3 86.707 1 -0.295 1 -0.295 5.163e-3 86.707
1297.917 6.295e-3 87.182 1 -0.36 1 -0.36 6.295e-3 87.182
1322.875 7.409e-3 87.488 1 -0.424 1 -0.424 7.409e-3 87.488
1347.833 8.505e-3 87.694 1 -0.487 1 -0.487 8.505e-3 87.694
1372.792 9.583e-3 87.837 1 -0.549 1 -0.549 9.583e-3 87.837
1397.75 0.011 87.937 1 -0.61 1 -0.61 0.011 87.937
1422.708 0.012 88.007 1 -0.67 1 -0.67 0.012 88.007
1447.667 0.013 88.055 1 -0.729 1 -0.729 0.013 88.055
1472.625 0.014 88.087 1 -0.787 1 -0.787 0.014 88.087
1497.583 0.015 88.106 1 -0.845 1 -0.845 0.015 88.106
1522.542 0.016 88.116 1 -0.902 1 -0.902 0.016 88.116
1547.5 0.017 88.117 1 -0.958 1 -0.958 0.017 88.117
1572.458 0.018 88.112 1 -1.014 1 -1.014 0.018 88.112
1597.417 0.019 88.102 1 -1.068 1 -1.068 0.019 88.102
1622.375 0.02 88.088 1 -1.123 1 -1.123 0.02 88.088
1647.333 0.021 88.07 1 -1.177 1 -1.177 0.021 88.07
1672.292 0.021 88.05 0.999 -1.23 0.999 -1.23 0.021 88.05
1697.25 0.022 88.027 0.999 -1.282 0.999 -1.282 0.022 88.027
1722.208 0.023 88.001 0.999 -1.335 0.999 -1.335 0.023 88.001
1747.167 0.024 87.974 0.999 -1.386 0.999 -1.386 0.024 87.974
1772.125 0.025 87.946 0.999 -1.438 0.999 -1.438 0.025 87.946
1797.083 0.026 87.916 0.999 -1.488 0.999 -1.488 0.026 87.916
1822.042 0.027 87.885 0.999 -1.539 0.999 -1.539 0.027 87.885
1847 0.028 87.853 0.999 -1.589 0.999 -1.589 0.028 87.853
1871.958 0.029 87.821 0.999 -1.639 0.999 -1.639 0.029 87.821
1896.917 0.029 87.787 0.999 -1.688 0.999 -1.688 0.029 87.787
1921.875 0.03 87.753 0.999 -1.737 0.999 -1.737 0.03 87.753
1946.833 0.031 87.718 0.999 -1.785 0.999 -1.785 0.031 87.718
1971.792 0.032 87.683 0.999 -1.834 0.999 -1.834 0.032 87.683
1996.75 0.033 87.648 0.999 -1.881 0.999 -1.881 0.033 87.648
2021.708 0.034 87.612 0.999 -1.929 0.999 -1.929 0.034 87.612
2046.667 0.034 87.575 0.999 -1.976 0.999 -1.976 0.034 87.575
2071.625 0.035 87.539 0.999 -2.023 0.999 -2.023 0.035 87.539
2096.583 0.036 87.502 0.999 -2.07 0.999 -2.07 0.036 87.502
2121.542 0.037 87.465 0.999 -2.117 0.999 -2.117 0.037 87.465
2146.5 0.038 87.428 0.999 -2.163 0.999 -2.163 0.038 87.428
2171.458 0.039 87.39 0.999 -2.209 0.999 -2.209 0.039 87.39
2196.417 0.039 87.352 0.999 -2.255 0.999 -2.255 0.039 87.352
2221.375 0.04 87.315 0.999 -2.3 0.999 -2.3 0.04 87.315
2246.333 0.041 87.277 0.999 -2.345 0.999 -2.345 0.041 87.277
2271.292 0.042 87.239 0.999 -2.39 0.999 -2.39 0.042 87.239
2296.25 0.042 87.201 0.999 -2.435 0.999 -2.435 0.042 87.201
2321.208 0.043 87.163 0.999 -2.48 0.999 -2.48 0.043 87.163
2346.167 0.044 87.125 0.999 -2.524 0.999 -2.524 0.044 87.125
2371.125 0.045 87.086 0.999 -2.569 0.999 -2.569 0.045 87.086
2396.083 0.046 87.048 0.999 -2.613 0.999 -2.613 0.046 87.048
2421.042 0.046 87.01 0.999 -2.657 0.999 -2.657 0.046 87.01
2446 0.047 86.972 0.999 -2.701 0.999 -2.701 0.047 86.972
2470.958 0.048 86.933 0.999 -2.744 0.999 -2.744 0.048 86.933
2495.917 0.049 86.895 0.999 -2.788 0.999 -2.788 0.049 86.895
2520.875 0.049 86.856 0.999 -2.831 0.999 -2.831 0.049 86.856
2545.833 0.05 86.818 0.998 -2.874 0.998 -2.874 0.05 86.818
2570.792 0.051 86.78 0.998 -2.917 0.998 -2.917 0.051 86.78
2595.75 0.052 86.741 0.998 -2.96 0.998 -2.96 0.052 86.741
2620.708 0.052 86.703 0.998 -3.002 0.998 -3.002 0.052 86.703
2645.667 0.053 86.664 0.998 -3.045 0.998 -3.045 0.053 86.664
2670.625 0.054 86.626 0.998 -3.087 0.998 -3.087 0.054 86.626
2695.583 0.055 86.588 0.998 -3.13 0.998 -3.13 0.055 86.588
2720.542 0.055 86.549 0.998 -3.172 0.998 -3.172 0.055 86.549
2745.5 0.056 86.511 0.998 -3.214 0.998 -3.214 0.056 86.511
2770.458 0.057 86.472 0.998 -3.256 0.998 -3.256 0.057 86.472
2795.417 0.058 86.434 0.998 -3.297 0.998 -3.297 0.058 86.434
2820.375 0.058 86.396 0.998 -3.339 0.998 -3.339 0.058 86.396
2845.333 0.059 86.358 0.998 -3.381 0.998 -3.381 0.059 86.358
2870.292 0.06 86.319 0.998 -3.422 0.998 -3.422 0.06 86.319
2895.25 0.06 86.281 0.998 -3.463 0.998 -3.463 0.06 86.281
2920.208 0.061 86.243 0.998 -3.505 0.998 -3.505 0.061 86.243
2945.167 0.062 86.205 0.998 -3.546 0.998 -3.546 0.062 86.205
2970.125 0.063 86.166 0.998 -3.587 0.998 -3.587 0.063 86.166
2995.083 0.063 86.128 0.998 -3.628 0.998 -3.628 0.063 86.128
3020.042 0.064 86.09 0.998 -3.669 0.998 -3.669 0.064 86.09
3045 0.065 86.052 0.998 -3.709 0.998 -3.709 0.065 86.052
3069.958 0.065 86.014 0.998 -3.75 0.998 -3.75 0.065 86.014
3094.917 0.066 85.976 0.998 -3.791 0.998 -3.791 0.066 85.976
3119.875 0.067 85.938 0.997 -3.831 0.997 -3.831 0.067 85.938
3144.833 0.068 85.9 0.997 -3.872 0.997 -3.872 0.068 85.9
3169.792 0.068 85.862 0.997 -3.912 0.997 -3.912 0.068 85.862
3194.75 0.069 85.824 0.997 -3.952 0.997 -3.952 0.069 85.824
3219.708 0.07 85.786 0.997 -3.992 0.997 -3.992 0.07 85.786
3244.667 0.07 85.748 0.997 -4.032 0.997 -4.032 0.07 85.748
3269.625 0.071 85.71 0.997 -4.072 0.997 -4.072 0.071 85.71
3294.583 0.072 85.672 0.997 -4.112 0.997 -4.112 0.072 85.672
3319.542 0.072 85.635 0.997 -4.152 0.997 -4.152 0.072 85.635
3344.5 0.073 85.597 0.997 -4.192 0.997 -4.192 0.073 85.597
3369.458 0.074 85.559 0.997 -4.232 0.997 -4.232 0.074 85.559
3394.417 0.074 85.521 0.997 -4.272 0.997 -4.272 0.074 85.521
3419.375 0.075 85.484 0.997 -4.311 0.997 -4.311 0.075 85.484
3444.333 0.076 85.446 0.997 -4.351 0.997 -4.351 0.076 85.446
3469.292 0.077 85.408 0.997 -4.39 0.997 -4.39 0.077 85.408
3494.25 0.077 85.371 0.997 -4.43 0.997 -4.43 0.077 85.371
3519.208 0.078 85.333 0.997 -4.469 0.997 -4.469 0.078 85.333
3544.167 0.079 85.296 0.997 -4.508 0.997 -4.508 0.079 85.296
3569.125 0.079 85.258 0.997 -4.548 0.997 -4.548 0.079 85.258
3594.083 0.08 85.22 0.997 -4.587 0.997 -4.587 0.08 85.22
3619.042 0.081 85.183 0.996 -4.626 0.996 -4.626 0.081 85.183
3644 0.081 85.145 0.996 -4.665 0.996 -4.665 0.081 85.145
3668.958 0.082 85.108 0.996 -4.704 0.996 -4.704 0.082 85.108
3693.917 0.083 85.071 0.996 -4.743 0.996 -4.743 0.083 85.071
3718.875 0.083 85.033 0.996 -4.782 0.996 -4.782 0.083 85.033
3743.833 0.084 84.996 0.996 -4.821 0.996 -4.821 0.084 84.996
3768.792 0.085 84.958 0.996 -4.86 0.996 -4.86 0.085 84.958
3793.75 0.085 84.921 0.996 -4.898 0.996 -4.898 0.085 84.921
3818.708 0.086 84.884 0.996 -4.937 0.996 -4.937 0.086 84.884
3843.667 0.087 84.847 0.996 -4.976 0.996 -4.976 0.087 84.847
3868.625 0.087 84.809 0.996 -5.014 0.996 -5.014 0.087 84.809
3893.583 0.088 84.772 0.996 -5.053 0.996 -5.053 0.088 84.772
3918.542 0.089 84.735 0.996 -5.091 0.996 -5.091 0.089 84.735
3943.5 0.089 84.698 0.996 -5.13 0.996 -5.13 0.089 84.698
3968.458 0.09 84.661 0.996 -5.168 0.996 -5.168 0.09 84.661
3993.417 0.091 84.623 0.996 -5.207 0.996 -5.207 0.091 84.623
4018.375 0.091 84.586 0.996 -5.245 0.996 -5.245 0.091 84.586
4043.333 0.092 84.549 0.995 -5.283 0.995 -5.283 0.092 84.549
4068.292 0.093 84.512 0.995 -5.322 0.995 -5.322 0.093 84.512
4093.25 0.093 84.475 0.995 -5.36 0.995 -5.36 0.093 84.475
4118.208 0.094 84.438 0.995 -5.398 0.995 -5.398 0.094 84.438
4143.167 0.095 84.401 0.995 -5.436 0.995 -5.436 0.095 84.401
4168.125 0.095 84.364 0.995 -5.474 0.995 -5.474 0.095 84.364
4193.083 0.096 84.327 0.995 -5.513 0.995 -5.513 0.096 84.327
4218.042 0.097 84.29 0.995 -5.551 0.995 -5.551 0.097 84.29
4243 0.097 84.253 0.995 -5.589 0.995 -5.589 0.097 84.253
4267.958 0.098 84.216 0.995 -5.627 0.995 -5.627 0.098 84.216
4292.917 0.099 84.179 0.995 -5.665 0.995 -5.665 0.099 84.179
4317.875 0.099 84.143 0.995 -5.702 0.995 -5.702 0.099 84.143
4342.833 0.1 84.106 0.995 -5.74 0.995 -5.74 0.1 84.106
4367.792 0.101 84.069 0.995 -5.778 0.995 -5.778 0.101 84.069
4392.75 0.101 84.032 0.995 -5.816 0.995 -5.816 0.101 84.032
4417.708 0.102 83.995 0.995 -5.854 0.995 -5.854 0.102 83.995
4442.667 0.103 83.959 0.994 -5.891 0.994 -5.891 0.103 83.959
4467.625 0.103 83.922 0.994 -5.929 0.994 -5.929 0.103 83.922
4492.583 0.104 83.885 0.994 -5.967 0.994 -5.967 0.104 83.885
4517.542 0.105 83.848 0.994 -6.004 0.994 -6.004 0.105 83.848
4542.5 0.105 83.812 0.994 -6.042 0.994 -6.042 0.105 83.812
4567.458 0.106 83.775 0.994 -6.08 0.994 -6.08 0.106 83.775
4592.417 0.107 83.738 0.994 -6.117 0.994 -6.117 0.107 83.738
4617.375 0.107 83.702 0.994 -6.155 0.994 -6.155 0.107 83.702
4642.333 0.108 83.665 0.994 -6.192 0.994 -6.192 0.108 83.665
4667.292 0.109 83.629 0.994 -6.23 0.994 -6.23 0.109 83.629
4692.25 0.109 83.592 0.994 -6.267 0.994 -6.267 0.109 83.592
4717.208 0.11 83.555 0.994 -6.304 0.994 -6.304 0.11 83.555
4742.167 0.11 83.519 0.994 -6.342 0.994 -6.342 0.11 83.519
4767.125 0.111 83.482 0.994 -6.379 0.994 -6.379 0.111 83.482
4792.083 0.112 83.446 0.993 -6.417 0.993 -6.417 0.112 83.446
4817.042 0.112 83.409 0.993 -6.454 0.993 -6.454 0.112 83.409
4842 0.113 83.373 0.993 -6.491 0.993 -6.491 0.113 83.373
4866.958 0.114 83.336 0.993 -6.528 0.993 -6.528 0.114 83.336
4891.917 0.114 83.3 0.993 -6.566 0.993 -6.566 0.114 83.3
4916.875 0.115 83.264 0.993 -6.603 0.993 -6.603 0.115 83.264
4941.833 0.116 83.227 0.993 -6.64 0.993 -6.64 0.116 83.227
4966.792 0.116 83.191 0.993 -6.677 0.993 -6.677 0.116 83.191
4991.75 0.117 83.154 0.993 -6.714 0.993 -6.714 0.117 83.154
5016.708 0.118 83.118 0.993 -6.751 0.993 -6.751 0.118 83.118
5041.667 0.118 83.082 0.993 -6.788 0.993 -6.788 0.118 83.082
5066.625 0.119 83.045 0.993 -6.825 0.993 -6.825 0.119 83.045
5091.583 0.119 83.009 0.993 -6.862 0.993 -6.862 0.119 83.009
5116.542 0.12 82.973 0.992 -6.899 0.992 -6.899 0.12 82.973
5141.5 0.121 82.937 0.992 -6.936 0.992 -6.936 0.121 82.937
5166.458 0.121 82.9 0.992 -6.973 0.992 -6.973 0.121 82.9
5191.417 0.122 82.864 0.992 -7.01 0.992 -7.01 0.122 82.864
5216.375 0.123 82.828 0.992 -7.047 0.992 -7.047 0.123 82.828
5241.333 0.123 82.792 0.992 -7.084 0.992 -7.084 0.123 82.792
5266.292 0.124 82.755 0.992 -7.121 0.992 -7.121 0.124 82.755
5291.25 0.125 82.719 0.992 -7.158 0.992 -7.158 0.125 82.719
5316.208 0.125 82.683 0.992 -7.194 0.992 -7.194 0.125 82.683
5341.167 0.126 82.647 0.992 -7.231 0.992 -7.231 0.126 82.647
5366.125 0.127 82.611 0.992 -7.268 0.992 -7.268 0.127 82.611
5391.083 0.127 82.575 0.992 -7.305 0.992 -7.305 0.127 82.575
5416.042 0.128 82.539 0.992 -7.341 0.992 -7.341 0.128 82.539
5441 0.128 82.502 0.991 -7.378 0.991 -7.378 0.128 82.502
5465.958 0.129 82.466 0.991 -7.415 0.991 -7.415 0.129 82.466
5490.917 0.13 82.43 0.991 -7.451 0.991 -7.451 0.13 82.43
5515.875 0.13 82.394 0.991 -7.488 0.991 -7.488 0.13 82.394
5540.833 0.131 82.358 0.991 -7.525 0.991 -7.525 0.131 82.358
5565.792 0.132 82.322 0.991 -7.561 0.991 -7.561 0.132 82.322
5590.75 0.132 82.286 0.991 -7.598 0.991 -7.598 0.132 82.286
5615.708 0.133 82.25 0.991 -7.634 0.991 -7.634 0.133 82.25
5640.667 0.133 82.214 0.991 -7.671 0.991 -7.671 0.133 82.214
5665.625 0.134 82.178 0.991 -7.707 0.991 -7.707 0.134 82.178
5690.583 0.135 82.142 0.991 -7.744 0.991 -7.744 0.135 82.142
5715.542 0.135 82.106 0.991 -7.78 0.991 -7.78 0.135 82.106
5740.5 0.136 82.07 0.99 -7.817 0.99 -7.817 0.136 82.07
5765.458 0.137 82.035 0.99 -7.853 0.99 -7.853 0.137 82.035
5790.417 0.137 81.999 0.99 -7.89 0.99 -7.89 0.137 81.999
5815.375 0.138 81.963 0.99 -7.926 0.99 -7.926 0.138 81.963
5840.333 0.139 81.927 0.99 -7.963 0.99 -7.963 0.139 81.927
5865.292 0.139 81.891 0.99 -7.999 0.99 -7.999 0.139 81.891
5890.25 0.14 81.855 0.99 -8.035 0.99 -8.035 0.14 81.855
5915.208 0.14 81.819 0.99 -8.072 0.99 -8.072 0.14 81.819
5940.167 0.141 81.784 0.99 -8.108 0.99 -8.108 0.141 81.784
5965.125 0.142 81.748 0.99 -8.144 0.99 -8.144 0.142 81.748
5990.083 0.142 81.712 0.99 -8.18 0.99 -8.18 0.142 81.712
6015.042 0.143 81.676 0.989 -8.217 0.989 -8.217 0.143 81.676
6040 0.144 81.64 0.989 -8.253 0.989 -8.253 0.144 81.64
6064.958 0.144 81.605 0.989 -8.289 0.989 -8.289 0.144 81.605
6089.917 0.145 81.569 0.989 -8.325 0.989 -8.325 0.145 81.569
6114.875 0.145 81.533 0.989 -8.362 0.989 -8.362 0.145 81.533
6139.833 0.146 81.497 0.989 -8.398 0.989 -8.398 0.146 81.497
6164.792 0.147 81.462 0.989 -8.434 0.989 -8.434 0.147 81.462
6189.75 0.147 81.426 0.989 -8.47 0.989 -8.47 0.147 81.426
6214.708 0.148 81.39 0.989 -8.506 0.989 -8.506 0.148 81.39
6239.667 0.149 81.355 0.989 -8.542 0.989 -8.542 0.149 81.355
6264.625 0.149 81.319 0.989 -8.578 0.989 -8.578 0.149 81.319
6289.583 0.15 81.283 0.988 -8.614 0.988 -8.614 0.15 81.283
6314.542 0.15 81.248 0.988 -8.65 0.988 -8.65 0.15 81.248
6339.5 0.151 81.212 0.988 -8.686 0.988 -8.686 0.151 81.212
6364.458 0.152 81.177 0.988 -8.723 0.988 -8.723 0.152 81.177
6389.417 0.152 81.141 0.988 -8.759 0.988 -8.759 0.152 81.141
6414.375 0.153 81.105 0.988 -8.795 0.988 -8.795 0.153 81.105
6439.333 0.154 81.07 0.988 -8.83 0.988 -8.83 0.154 81.07
6464.292 0.154 81.034 0.988 -8.866 0.988 -8.866 0.154 81.034
6489.25 0.155 80.999 0.988 -8.902 0.988 -8.902 0.155 80.999
6514.208 0.155 80.963 0.988 -8.938 0.988 -8.938 0.155 80.963
6539.167 0.156 80.928 0.987 -8.974 0.987 -8.974 0.156 80.928
6564.125 0.157 80.892 0.987 -9.01 0.987 -9.01 0.157 80.892
6589.083 0.157 80.857 0.987 -9.046 0.987 -9.046 0.157 80.857
6614.042 0.158 80.821 0.987 -9.082 0.987 -9.082 0.158 80.821
6639 0.158 80.786 0.987 -9.118 0.987 -9.118 0.158 80.786
6663.958 0.159 80.75 0.987 -9.154 0.987 -9.154 0.159 80.75
6688.917 0.16 80.715 0.987 -9.189 0.987 -9.189 0.16 80.715
6713.875 0.16 80.68 0.987 -9.225 0.987 -9.225 0.16 80.68
6738.833 0.161 80.644 0.987 -9.261 0.987 -9.261 0.161 80.644
6763.792 0.162 80.609 0.987 -9.297 0.987 -9.297 0.162 80.609
6788.75 0.162 80.573 0.986 -9.333 0.986 -9.333 0.162 80.573
6813.708 0.163 80.538 0.986 -9.368 0.986 -9.368 0.163 80.538
6838.667 0.163 80.503 0.986 -9.404 0.986 -9.404 0.163 80.503
6863.625 0.164 80.467 0.986 -9.44 0.986 -9.44 0.164 80.467
6888.583 0.165 80.432 0.986 -9.475 0.986 -9.475 0.165 80.432
6913.542 0.165 80.397 0.986 -9.511 0.986 -9.511 0.165 80.397
6938.5 0.166 80.361 0.986 -9.547 0.986 -9.547 0.166 80.361
6963.458 0.166 80.326 0.986 -9.582 0.986 -9.582 0.166 80.326
6988.417 0.167 80.291 0.986 -9.618 0.986 -9.618 0.167 80.291
7013.375 0.168 80.255 0.986 -9.654 0.986 -9.654 0.168 80.255
7038.333 0.168 80.22 0.985 -9.689 0.985 -9.689 0.168 80.22
7063.292 0.169 80.185 0.985 -9.725 0.985 -9.725 0.169 80.185
7088.25 0.17 80.15 0.985 -9.76 0.985 -9.76 0.17 80.15
7113.208 0.17 80.114 0.985 -9.796 0.985 -9.796 0.17 80.114
7138.167 0.171 80.079 0.985 -9.832 0.985 -9.832 0.171 80.079
7163.125 0.171 80.044 0.985 -9.867 0.985 -9.867 0.171 80.044
7188.083 0.172 80.009 0.985 -9.903 0.985 -9.903 0.172 80.009
7213.042 0.173 79.973 0.985 -9.938 0.985 -9.938 0.173 79.973
7238 0.173 79.938 0.985 -9.974 0.985 -9.974 0.173 79.938
7262.958 0.174 79.903 0.985 -10.009 0.985 -10.009 0.174 79.903
7287.917 0.174 79.868 0.984 -10.045 0.984 -10.045 0.174 79.868
7312.875 0.175 79.833 0.984 -10.08 0.984 -10.08 0.175 79.833
7337.833 0.176 79.798 0.984 -10.116 0.984 -10.116 0.176 79.798
7362.792 0.176 79.763 0.984 -10.151 0.984 -10.151 0.176 79.763
7387.75 0.177 79.727 0.984 -10.186 0.984 -10.186 0.177 79.727
7412.708 0.177 79.692 0.984 -10.222 0.984 -10.222 0.177 79.692
7437.667 0.178 79.657 0.984 -10.257 0.984 -10.257 0.178 79.657
7462.625 0.179 79.622 0.984 -10.293 0.984 -10.293 0.179 79.622
7487.583 0.179 79.587 0.984 -10.328 0.984 -10.328 0.179 79.587
7512.542 0.18 79.552 0.983 -10.363 0.983 -10.363 0.18 79.552
7537.5 0.18 79.517 0.983 -10.399 0.983 -10.399 0.18 79.517
7562.458 0.181 79.482 0.983 -10.434 0.983 -10.434 0.181 79.482
7587.417 0.182 79.447 0.983 -10.469 0.983 -10.469 0.182 79.447
7612.375 0.182 79.412 0.983 -10.505 0.983 -10.505 0.182 79.412
7637.333 0.183 79.377 0.983 -10.54 0.983 -10.54 0.183 79.377
7662.292 0.184 79.342 0.983 -10.575 0.983 -10.575 0.184 79.342
7687.25 0.184 79.307 0.983 -10.61 0.983 -10.61 0.184 79.307
7712.208 0.185 79.272 0.983 -10.646 0.983 -10.646 0.185 79.272
7737.167 0.185 79.237 0.982 -10.681 0.982 -10.681 0.185 79.237
7762.125 0.186 79.202 0.982 -10.716 0.982 -10.716 0.186 79.202
7787.083 0.187 79.167 0.982 -10.751 0.982 -10.751 0.187 79.167
7812.042 0.187 79.132 0.982 -10.786 0.982 -10.786 0.187 79.132
7837 0.188 79.097 0.982 -10.822 0.982 -10.822 0.188 79.097
7861.958 0.188 79.063 0.982 -10.857 0.982 -10.857 0.188 79.063
7886.917 0.189 79.028 0.982 -10.892 0.982 -10.892 0.189 79.028
7911.875 0.19 78.993 0.982 -10.927 0.982 -10.927 0.19 78.993
7936.833 0.19 78.958 0.981 -10.962 0.981 -10.962 0.19 78.958
7961.792 0.191 78.923 0.981 -10.997 0.981 -10.997 0.191 78.923
7986.75 0.191 78.888 0.981 -11.032 0.981 -11.032 0.191 78.888
8011.708 0.192 78.853 0.981 -11.068 0.981 -11.068 0.192 78.853
8036.667 0.193 78.819 0.981 -11.103 0.981 -11.103 0.193 78.819
8061.625 0.193 78.784 0.981 -11.138 0.981 -11.138 0.193 78.784
8086.583 0.194 78.749 0.981 -11.173 0.981 -11.173 0.194 78.749
8111.542 0.194 78.714 0.981 -11.208 0.981 -11.208 0.194 78.714
8136.5 0.195 78.679 0.981 -11.243 0.981 -11.243 0.195 78.679
8161.458 0.196 78.645 0.98 -11.278 0.98 -11.278 0.196 78.645
8186.417 0.196 78.61 0.98 -11.313 0.98 -11.313 0.196 78.61
8211.375 0.197 78.575 0.98 -11.348 0.98 -11.348 0.197 78.575
8236.333 0.197 78.54 0.98 -11.383 0.98 -11.383 0.197 78.54
8261.292 0.198 78.506 0.98 -11.418 0.98 -11.418 0.198 78.506
8286.25 0.199 78.471 0.98 -11.453 0.98 -11.453 0.199 78.471
8311.208 0.199 78.436 0.98 -11.488 0.98 -11.488 0.199 78.436
8336.167 0.2 78.402 0.98 -11.522 0.98 -11.522 0.2 78.402
8361.125 0.2 78.367 0.979 -11.557 0.979 -11.557 0.2 78.367
8386.083 0.201 78.332 0.979 -11.592 0.979 -11.592 0.201 78.332
