# MHZ S MA R 50

50 0.694 -46.05 0.72 43.934 0.72 43.934 0.694 -46.05
74.958 0.54 -57.278 0.841 32.698 0.841 32.698 0.54 -57.278
99.917 0.433 -64.288 0.901 25.68 0.901 25.68 0.433 -64.288
124.875 0.358 -68.955 0.933 21.005 0.933 21.005 0.358 -68.955
149.833 0.304 -72.248 0.952 17.704 0.952 17.704 0.304 -72.248
174.792 0.263 -74.682 0.964 15.261 0.964 15.261 0.263 -74.682
199.75 0.231 -76.551 0.973 13.384 0.973 13.384 0.231 -76.551
224.708 0.206 -78.028 0.978 11.898 0.978 11.898 0.206 -78.028
249.667 0.186 -79.225 0.982 10.693 0.982 10.693 0.186 -79.225
274.625 0.168 -80.215 0.985 9.695 0.985 9.695 0.168 -80.215
299.583 0.154 -81.046 0.988 8.855 0.988 8.855 0.154 -81.046
324.542 0.142 -81.755 0.99 8.137 0.99 8.137 0.142 -81.755
349.5 0.131 -82.367 0.991 7.516 0.991 7.516 0.131 -82.367
374.458 0.121 -82.9 0.992 6.973 0.992 6.973 0.121 -82.9
399.417 0.113 -83.37 0.993 6.494 0.993 6.494 0.113 -83.37
424.375 0.106 -83.786 0.994 6.068 0.994 6.068 0.106 -83.786
449.333 0.099 -84.159 0.995 5.686 0.995 5.686 0.099 -84.159
474.292 0.093 -84.493 0.995 5.341 0.995 5.341 0.093 -84.493
499.25 0.088 -84.796 0.996 5.028 0.996 5.028 0.088 -84.796
524.208 0.083 -85.072 0.996 4.742 0.996 4.742 0.083 -85.072
549.167 0.078 -85.323 0.997 4.479 0.997 4.479 0.078 -85.323
574.125 0.074 -85.554 0.997 4.238 0.997 4.238 0.074 -85.554
599.083 0.07 -85.766 0.997 4.014 0.997 4.014 0.07 -85.766
624.042 0.066 -85.962 0.998 3.806 0.998 3.806 0.066 -85.962
649 0.063 -86.143 0.998 3.611 0.998 3.611 0.063 -86.143
673.958 0.06 -86.312 0.998 3.43 0.998 3.43 0.06 -86.312
698.917 0.057 -86.469 0.998 3.259 0.998 3.259 0.057 -86.469
723.875 0.054 -86.615 0.998 3.099 0.998 3.099 0.054 -86.615
748.833 0.051 -86.752 0.998 2.948 0.998 2.948 0.051 -86.752
773.792 0.049 -86.88 0.999 2.804 0.999 2.804 0.049 -86.88
798.75 0.047 -87 0.999 2.669 0.999 2.669 0.047 -87
823.708 0.044 -87.112 0.999 2.539 0.999 2.539 0.044 -87.112
848.667 0.042 -87.217 0.999 2.416 0.999 2.416 0.042 -87.217
873.625 0.04 -87.316 0.999 2.299 0.999 2.299 0.04 -87.316
898.583 0.038 -87.408 0.999 2.187 0.999 2.187 0.038 -87.408
923.542 0.036 -87.495 0.999 2.079 0.999 2.079 0.036 -87.495
948.5 0.034 -87.576 0.999 1.976 0.999 1.976 0.034 -87.576
973.458 0.033 -87.651 0.999 1.877 0.999 1.877 0.033 -87.651
998.417 0.031 -87.721 0.999 1.781 0.999 1.781 0.031 -87.721
1023.375 0.029 -87.786 0.999 1.689 0.999 1.689 0.029 -87.786
1048.333 0.028 -87.846 0.999 1.6 0.999 1.6 0.028 -87.846
1073.292 0.026 -87.9 0.999 1.515 0.999 1.515 0.026 -87.9
1098.25 0.025 -87.95 0.999 1.431 0.999 1.431 0.025 -87.95
1123.208 0.024 -87.993 0.999 1.351 0.999 1.351 0.024 -87.993
1148.167 0.022 -88.031 0.999 1.273 0.999 1.273 0.022 -88.031
1173.125 0.021 -88.063 1 1.197 1 1.197 0.021 -88.063
1198.083 0.02 -88.088 1 1.123 1 1.123 0.02 -88.088
1223.042 0.018 -88.106 1 1.052 1 1.052 0.018 -88.106
1248 0.017 -88.116 1 0.982 1 0.982 0.017 -88.116
1272.958 0.016 -88.116 1 0.914 1 0.914 0.016 -88.116
1297.917 0.015 -88.107 1 0.848 1 0.848 0.015 -88.107
1322.875 0.014 -88.085 1 0.783 1 0.783 0.014 -88.085
1347.833 0.013 -88.049 1 0.72 1 0.72 0.013 -88.049
1372.792 0.011 -87.995 1 0.658 1 0.658 0.011 -87.995
1397.75 0.01 -87.919 1 0.597 1 0.597 0.01 -87.919
1422.708 9.392e-3 -87.815 1 0.538 1 0.538 9.392e-3 -87.815
1447.667 8.379e-3 -87.674 1 0.48 1 0.48 8.379e-3 -87.674
1472.625 7.385e-3 -87.482 1 0.423 1 0.423 7.385e-3 -87.482
1497.583 6.41e-3 -87.219 1 0.367 1 0.367 6.41e-3 -87.219
1522.542 5.454e-3 -86.85 1 0.312 1 0.312 5.454e-3 -86.85
1547.5 4.515e-3 -86.313 1 0.258 1 0.258 4.515e-3 -86.313
1572.458 3.592e-3 -85.485 1 0.205 1 0.205 3.592e-3 -85.485
1597.417 2.687e-3 -84.08 1 0.153 1 0.153 2.687e-3 -84.08
1622.375 1.8e-3 -81.27 1 0.102 1 0.102 1.8e-3 -81.27
1647.333 938.8e-6 -73.235 1 0.052 1 0.052 938.8e-6 -73.235
1672.292 271.9e-6 -6.861 1 1.862e-3 1 1.862e-3 271.9e-6 -6.861
1697.25 864.5e-6 71.756 1 -0.047 1 -0.047 864.5e-6 71.756
1722.208 1.685e-3 80.682 1 -0.095 1 -0.095 1.685e-3 80.682
1747.167 2.507e-3 83.675 1 -0.143 1 -0.143 2.507e-3 83.675
1772.125 3.322e-3 85.149 1 -0.19 1 -0.19 3.322e-3 85.149
1797.083 4.128e-3 86.014 1 -0.236 1 -0.236 4.128e-3 86.014
1822.042 4.923e-3 86.575 1 -0.282 1 -0.282 4.923e-3 86.575
1847 5.71e-3 86.963 1 -0.327 1 -0.327 5.71e-3 86.963
1871.958 6.487e-3 87.243 1 -0.371 1 -0.371 6.487e-3 87.243
1896.917 7.255e-3 87.452 1 -0.415 1 -0.415 7.255e-3 87.452
1921.875 8.014e-3 87.611 1 -0.459 1 -0.459 8.014e-3 87.611
1946.833 8.765e-3 87.733 1 -0.502 1 -0.502 8.765e-3 87.733
1971.792 9.508e-3 87.828 1 -0.545 1 -0.545 9.508e-3 87.828
1996.75 0.01 87.903 1 -0.587 1 -0.587 0.01 87.903
2021.708 0.011 87.962 1 -0.628 1 -0.628 0.011 87.962
2046.667 0.012 88.007 1 -0.67 1 -0.67 0.012 88.007
2071.625 0.012 88.042 1 -0.711 1 -0.711 0.012 88.042
2096.583 0.013 88.069 1 -0.751 1 -0.751 0.013 88.069
2121.542 0.014 88.089 1 -0.791 1 -0.791 0.014 88.089
2146.5 0.015 88.103 1 -0.831 1 -0.831 0.015 88.103
2171.458 0.015 88.111 1 -0.87 1 -0.87 0.015 88.111
2196.417 0.016 88.116 1 -0.909 1 -0.909 0.016 88.116
2221.375 0.017 88.117 1 -0.948 1 -0.948 0.017 88.117
2246.333 0.017 88.115 1 -0.987 1 -0.987 0.017 88.115
2271.292 0.018 88.11 1 -1.025 1 -1.025 0.018 88.11
2296.25 0.019 88.103 1 -1.063 1 -1.063 0.019 88.103
2321.208 0.019 88.094 1 -1.1 1 -1.1 0.019 88.094
2346.167 0.02 88.083 1 -1.137 1 -1.137 0.02 88.083
2371.125 0.02 88.071 1 -1.174 1 -1.174 0.02 88.071
2396.083 0.021 88.057 1 -1.211 1 -1.211 0.021 88.057
2421.042 0.022 88.042 0.999 -1.248 0.999 -1.248 0.022 88.042
2446 0.022 88.026 0.999 -1.284 0.999 -1.284 0.022 88.026
2470.958 0.023 88.009 0.999 -1.32 0.999 -1.32 0.023 88.009
2495.917 0.024 87.991 0.999 -1.356 0.999 -1.356 0.024 87.991
2520.875 0.024 87.972 0.999 -1.391 0.999 -1.391 0.024 87.972
2545.833 0.025 87.952 0.999 -1.427 0.999 -1.427 0.025 87.952
2570.792 0.026 87.932 0.999 -1.462 0.999 -1.462 0.026 87.932
2595.75 0.026 87.911 0.999 -1.497 0.999 -1.497 0.026 87.911
2620.708 0.027 87.89 0.999 -1.531 0.999 -1.531 0.027 87.89
2645.667 0.027 87.868 0.999 -1.566 0.999 -1.566 0.027 87.868
2670.625 0.028 87.846 0.999 -1.6 0.999 -1.6 0.028 87.846
2695.583 0.029 87.823 0.999 -1.635 0.999 -1.635 0.029 87.823
2720.542 0.029 87.8 0.999 -1.669 0.999 -1.669 0.029 87.8
2745.5 0.03 87.777 0.999 -1.702 0.999 -1.702 0.03 87.777
2770.458 0.03 87.754 0.999 -1.736 0.999 -1.736 0.03 87.754
2795.417 0.031 87.73 0.999 -1.77 0.999 -1.77 0.031 87.73
2820.375 0.031 87.706 0.999 -1.803 0.999 -1.803 0.031 87.706
2845.333 0.032 87.681 0.999 -1.836 0.999 -1.836 0.032 87.681
2870.292 0.033 87.657 0.999 -1.869 0.999 -1.869 0.033 87.657
2895.25 0.033 87.632 0.999 -1.902 0.999 -1.902 0.033 87.632
2920.208 0.034 87.607 0.999 -1.935 0.999 -1.935 0.034 87.607
2945.167 0.034 87.582 0.999 -1.967 0.999 -1.967 0.034 87.582
2970.125 0.035 87.557 0.999 -2 0.999 -2 0.035 87.557
2995.083 0.035 87.532 0.999 -2.032 0.999 -2.032 0.035 87.532
3020.042 0.036 87.507 0.999 -2.064 0.999 -2.064 0.036 87.507
3045 0.037 87.481 0.999 -2.096 0.999 -2.096 0.037 87.481
3069.958 0.037 87.455 0.999 -2.128 0.999 -2.128 0.037 87.455
3094.917 0.038 87.43 0.999 -2.16 0.999 -2.16 0.038 87.43
3119.875 0.038 87.404 0.999 -2.192 0.999 -2.192 0.038 87.404
3144.833 0.039 87.378 0.999 -2.224 0.999 -2.224 0.039 87.378
3169.792 0.039 87.352 0.999 -2.255 0.999 -2.255 0.039 87.352
3194.75 0.04 87.326 0.999 -2.286 0.999 -2.286 0.04 87.326
3219.708 0.04 87.3 0.999 -2.318 0.999 -2.318 0.04 87.3
3244.667 0.041 87.274 0.999 -2.349 0.999 -2.349 0.041 87.274
3269.625 0.042 87.248 0.999 -2.38 0.999 -2.38 0.042 87.248
3294.583 0.042 87.222 0.999 -2.411 0.999 -2.411 0.042 87.222
3319.542 0.043 87.195 0.999 -2.442 0.999 -2.442 0.043 87.195
3344.5 0.043 87.169 0.999 -2.473 0.999 -2.473 0.043 87.169
3369.458 0.044 87.143 0.999 -2.503 0.999 -2.503 0.044 87.143
3394.417 0.044 87.117 0.999 -2.534 0.999 -2.534 0.044 87.117
3419.375 0.045 87.09 0.999 -2.564 0.999 -2.564 0.045 87.09
3444.333 0.045 87.064 0.999 -2.595 0.999 -2.595 0.045 87.064
3469.292 0.046 87.037 0.999 -2.625 0.999 -2.625 0.046 87.037
3494.25 0.046 87.011 0.999 -2.655 0.999 -2.655 0.046 87.011
3519.208 0.047 86.985 0.999 -2.686 0.999 -2.686 0.047 86.985
3544.167 0.047 86.958 0.999 -2.716 0.999 -2.716 0.047 86.958
3569.125 0.048 86.932 0.999 -2.746 0.999 -2.746 0.048 86.932
3594.083 0.048 86.905 0.999 -2.776 0.999 -2.776 0.048 86.905
3619.042 0.049 86.879 0.999 -2.805 0.999 -2.805 0.049 86.879
3644 0.049 86.852 0.999 -2.835 0.999 -2.835 0.049 86.852
3668.958 0.05 86.826 0.998 -2.865 0.998 -2.865 0.05 86.826
3693.917 0.05 86.799 0.998 -2.895 0.998 -2.895 0.05 86.799
3718.875 0.051 86.773 0.998 -2.924 0.998 -2.924 0.051 86.773
3743.833 0.052 86.747 0.998 -2.954 0.998 -2.954 0.052 86.747
3768.792 0.052 86.72 0.998 -2.983 0.998 -2.983 0.052 86.72
3793.75 0.053 86.694 0.998 -3.012 0.998 -3.012 0.053 86.694
3818.708 0.053 86.667 0.998 -3.042 0.998 -3.042 0.053 86.667
3843.667 0.054 86.641 0.998 -3.071 0.998 -3.071 0.054 86.641
3868.625 0.054 86.614 0.998 -3.1 0.998 -3.1 0.054 86.614
3893.583 0.055 86.588 0.998 -3.129 0.998 -3.129 0.055 86.588
3918.542 0.055 86.561 0.998 -3.158 0.998 -3.158 0.055 86.561
3943.5 0.056 86.535 0.998 -3.187 0.998 -3.187 0.056 86.535
3968.458 0.056 86.508 0.998 -3.216 0.998 -3.216 0.056 86.508
3993.417 0.057 86.482 0.998 -3.245 0.998 -3.245 0.057 86.482
4018.375 0.057 86.456 0.998 -3.274 0.998 -3.274 0.057 86.456
4043.333 0.058 86.429 0.998 -3.303 0.998 -3.303 0.058 86.429
4068.292 0.058 86.403 0.998 -3.331 0.998 -3.331 0.058 86.403
4093.25 0.059 86.376 0.998 -3.36 0.998 -3.36 0.059 86.376
4118.208 0.059 86.35 0.998 -3.389 0.998 -3.389 0.059 86.35
4143.167 0.06 86.324 0.998 -3.417 0.998 -3.417 0.06 86.324
4168.125 0.06 86.297 0.998 -3.446 0.998 -3.446 0.06 86.297
4193.083 0.061 86.271 0.998 -3.474 0.998 -3.474 0.061 86.271
4218.042 0.061 86.245 0.998 -3.503 0.998 -3.503 0.061 86.245
4243 0.062 86.218 0.998 -3.531 0.998 -3.531 0.062 86.218
4267.958 0.062 86.192 0.998 -3.559 0.998 -3.559 0.062 86.192
4292.917 0.063 86.166 0.998 -3.588 0.998 -3.588 0.063 86.166
4317.875 0.063 86.139 0.998 -3.616 0.998 -3.616 0.063 86.139
4342.833 0.064 86.113 0.998 -3.644 0.998 -3.644 0.064 86.113
4367.792 0.064 86.087 0.998 -3.672 0.998 -3.672 0.064 86.087
4392.75 0.065 86.06 0.998 -3.7 0.998 -3.7 0.065 86.06
4417.708 0.065 86.034 0.998 -3.728 0.998 -3.728 0.065 86.034
4442.667 0.066 86.008 0.998 -3.756 0.998 -3.756 0.066 86.008
4467.625 0.066 85.982 0.998 -3.784 0.998 -3.784 0.066 85.982
4492.583 0.066 85.955 0.998 -3.812 0.998 -3.812 0.066 85.955
4517.542 0.067 85.929 0.997 -3.84 0.997 -3.84 0.067 85.929
4542.5 0.067 85.903 0.997 -3.868 0.997 -3.868 0.067 85.903
4567.458 0.068 85.877 0.997 -3.896 0.997 -3.896 0.068 85.877
4592.417 0.068 85.851 0.997 -3.924 0.997 -3.924 0.068 85.851
4617.375 0.069 85.825 0.997 -3.952 0.997 -3.952 0.069 85.825
4642.333 0.069 85.798 0.997 -3.979 0.997 -3.979 0.069 85.798
4667.292 0.07 85.772 0.997 -4.007 0.997 -4.007 0.07 85.772
4692.25 0.07 85.746 0.997 -4.035 0.997 -4.035 0.07 85.746
4717.208 0.071 85.72 0.997 -4.062 0.997 -4.062 0.071 85.72
4742.167 0.071 85.694 0.997 -4.09 0.997 -4.09 0.071 85.694
4767.125 0.072 85.668 0.997 -4.117 0.997 -4.117 0.072 85.668
4792.083 0.072 85.642 0.997 -4.145 0.997 -4.145 0.072 85.642
4817.042 0.073 85.616 0.997 -4.172 0.997 -4.172 0.073 85.616
4842 0.073 85.59 0.997 -4.2 0.997 -4.2 0.073 85.59
4866.958 0.074 85.564 0.997 -4.227 0.997 -4.227 0.074 85.564
4891.917 0.074 85.538 0.997 -4.254 0.997 -4.254 0.074 85.538
4916.875 0.075 85.512 0.997 -4.282 0.997 -4.282 0.075 85.512
4941.833 0.075 85.486 0.997 -4.309 0.997 -4.309 0.075 85.486
4966.792 0.076 85.46 0.997 -4.336 0.997 -4.336 0.076 85.46
4991.75 0.076 85.434 0.997 -4.364 0.997 -4.364 0.076 85.434
5016.708 0.077 85.408 0.997 -4.391 0.997 -4.391 0.077 85.408
5041.667 0.077 85.382 0.997 -4.418 0.997 -4.418 0.077 85.382
5066.625 0.078 85.356 0.997 -4.445 0.997 -4.445 0.078 85.356
5091.583 0.078 85.33 0.997 -4.472 0.997 -4.472 0.078 85.33
5116.542 0.078 85.304 0.997 -4.499 0.997 -4.499 0.078 85.304
5141.5 0.079 85.278 0.997 -4.527 0.997 -4.527 0.079 85.278
5166.458 0.079 85.252 0.997 -4.554 0.997 -4.554 0.079 85.252
5191.417 0.08 85.226 0.997 -4.581 0.997 -4.581 0.08 85.226
5216.375 0.08 85.2 0.996 -4.608 0.996 -4.608 0.08 85.2
5241.333 0.081 85.175 0.996 -4.635 0.996 -4.635 0.081 85.175
5266.292 0.081 85.149 0.996 -4.662 0.996 -4.662 0.081 85.149
5291.25 0.082 85.123 0.996 -4.688 0.996 -4.688 0.082 85.123
5316.208 0.082 85.097 0.996 -4.715 0.996 -4.715 0.082 85.097
5341.167 0.083 85.071 0.996 -4.742 0.996 -4.742 0.083 85.071
5366.125 0.083 85.046 0.996 -4.769 0.996 -4.769 0.083 85.046
5391.083 0.084 85.02 0.996 -4.796 0.996 -4.796 0.084 85.02
5416.042 0.084 84.994 0.996 -4.823 0.996 -4.823 0.084 84.994
5441 0.085 84.968 0.996 -4.849 0.996 -4.849 0.085 84.968
5465.958 0.085 84.942 0.996 -4.876 0.996 -4.876 0.085 84.942
5490.917 0.085 84.917 0.996 -4.903 0.996 -4.903 0.085 84.917
5515.875 0.086 84.891 0.996 -4.93 0.996 -4.93 0.086 84.891
5540.833 0.086 84.865 0.996 -4.956 0.996 -4.956 0.086 84.865
5565.792 0.087 84.84 0.996 -4.983 0.996 -4.983 0.087 84.84
5590.75 0.087 84.814 0.996 -5.01 0.996 -5.01 0.087 84.814
5615.708 0.088 84.788 0.996 -5.036 0.996 -5.036 0.088 84.788
5640.667 0.088 84.763 0.996 -5.063 0.996 -5.063 0.088 84.763
5665.625 0.089 84.737 0.996 -5.089 0.996 -5.089 0.089 84.737
5690.583 0.089 84.711 0.996 -5.116 0.996 -5.116 0.089 84.711
5715.542 0.09 84.686 0.996 -5.142 0.996 -5.142 0.09 84.686
5740.5 0.09 84.66 0.996 -5.169 0.996 -5.169 0.09 84.66
5765.458 0.091 84.634 0.996 -5.195 0.996 -5.195 0.091 84.634
5790.417 0.091 84.609 0.996 -5.222 0.996 -5.222 0.091 84.609
5815.375 0.091 84.583 0.996 -5.248 0.996 -5.248 0.091 84.583
5840.333 0.092 84.558 0.995 -5.275 0.995 -5.275 0.092 84.558
5865.292 0.092 84.532 0.995 -5.301 0.995 -5.301 0.092 84.532
5890.25 0.093 84.506 0.995 -5.328 0.995 -5.328 0.093 84.506
5915.208 0.093 84.481 0.995 -5.354 0.995 -5.354 0.093 84.481
5940.167 0.094 84.455 0.995 -5.38 0.995 -5.38 0.094 84.455
5965.125 0.094 84.43 0.995 -5.407 0.995 -5.407 0.094 84.43
5990.083 0.095 84.404 0.995 -5.433 0.995 -5.433 0.095 84.404
6015.042 0.095 84.379 0.995 -5.459 0.995 -5.459 0.095 84.379
6040 0.096 84.353 0.995 -5.486 0.995 -5.486 0.096 84.353
6064.958 0.096 84.328 0.995 -5.512 0.995 -5.512 0.096 84.328
6089.917 0.097 84.302 0.995 -5.538 0.995 -5.538 0.097 84.302
6114.875 0.097 84.277 0.995 -5.564 0.995 -5.564 0.097 84.277
6139.833 0.097 84.251 0.995 -5.591 0.995 -5.591 0.097 84.251
6164.792 0.098 84.226 0.995 -5.617 0.995 -5.617 0.098 84.226
6189.75 0.098 84.2 0.995 -5.643 0.995 -5.643 0.098 84.2
6214.708 0.099 84.175 0.995 -5.669 0.995 -5.669 0.099 84.175
6239.667 0.099 84.15 0.995 -5.695 0.995 -5.695 0.099 84.15
6264.625 0.1 84.124 0.995 -5.721 0.995 -5.721 0.1 84.124
6289.583 0.1 84.099 0.995 -5.748 0.995 -5.748 0.1 84.099
6314.542 0.101 84.073 0.995 -5.774 0.995 -5.774 0.101 84.073
6339.5 0.101 84.048 0.995 -5.8 0.995 -5.8 0.101 84.048
6364.458 0.102 84.023 0.995 -5.826 0.995 -5.826 0.102 84.023
6389.417 0.102 83.997 0.995 -5.852 0.995 -5.852 0.102 83.997
6414.375 0.102 83.972 0.994 -5.878 0.994 -5.878 0.102 83.972
6439.333 0.103 83.946 0.994 -5.904 0.994 -5.904 0.103 83.946
6464.292 0.103 83.921 0.994 -5.93 0.994 -5.93 0.103 83.921
6489.25 0.104 83.896 0.994 -5.956 0.994 -5.956 0.104 83.896
6514.208 0.104 83.87 0.994 -5.982 0.994 -5.982 0.104 83.87
6539.167 0.105 83.845 0.994 -6.008 0.994 -6.008 0.105 83.845
6564.125 0.105 83.82 0.994 -6.034 0.994 -6.034 0.105 83.82
6589.083 0.106 83.795 0.994 -6.06 0.994 -6.06 0.106 83.795
6614.042 0.106 83.769 0.994 -6.086 0.994 -6.086 0.106 83.769
6639 0.106 83.744 0.994 -6.111 0.994 -6.111 0.106 83.744
6663.958 0.107 83.719 0.994 -6.137 0.994 -6.137 0.107 83.719
6688.917 0.107 83.693 0.994 -6.163 0.994 -6.163 0.107 83.693
6713.875 0.108 83.668 0.994 -6.189 0.994 -6.189 0.108 83.668
6738.833 0.108 83.643 0.994 -6.215 0.994 -6.215 0.108 83.643
6763.792 0.109 83.618 0.994 -6.241 0.994 -6.241 0.109 83.618
6788.75 0.109 83.592 0.994 -6.267 0.994 -6.267 0.109 83.592
6813.708 0.11 83.567 0.994 -6.292 0.994 -6.292 0.11 83.567
6838.667 0.11 83.542 0.994 -6.318 0.994 -6.318 0.11 83.542
6863.625 0.11 83.517 0.994 -6.344 0.994 -6.344 0.11 83.517
6888.583 0.111 83.492 0.994 -6.37 0.994 -6.37 0.111 83.492
6913.542 0.111 83.466 0.994 -6.396 0.994 -6.396 0.111 83.466
6938.5 0.112 83.441 0.993 -6.421 0.993 -6.421 0.112 83.441
6963.458 0.112 83.416 0.993 -6.447 0.993 -6.447 0.112 83.416
6988.417 0.113 83.391 0.993 -6.473 0.993 -6.473 0.113 83.391
7013.375 0.113 83.366 0.993 -6.498 0.993 -6.498 0.113 83.366
7038.333 0.114 83.341 0.993 -6.524 0.993 -6.524 0.114 83.341
7063.292 0.114 83.315 0.993 -6.55 0.993 -6.55 0.114 83.315
7088.25 0.115 83.29 0.993 -6.575 0.993 -6.575 0.115 83.29
7113.208 0.115 83.265 0.993 -6.601 0.993 -6.601 0.115 83.265
7138.167 0.115 83.24 0.993 -6.627 0.993 -6.627 0.115 83.24
7163.125 0.116 83.215 0.993 -6.652 0.993 -6.652 0.116 83.215
7188.083 0.116 83.19 0.993 -6.678 0.993 -6.678 0.116 83.19
7213.042 0.117 83.165 0.993 -6.704 0.993 -6.704 0.117 83.165
7238 0.117 83.14 0.993 -6.729 0.993 -6.729 0.117 83.14
7262.958 0.118 83.115 0.993 -6.755 0.993 -6.755 0.118 83.115
7287.917 0.118 83.09 0.993 -6.78 0.993 -6.78 0.118 83.09
7312.875 0.119 83.064 0.993 -6.806 0.993 -6.806 0.119 83.064
7337.833 0.119 83.039 0.993 -6.831 0.993 -6.831 0.119 83.039
7362.792 0.119 83.014 0.993 -6.857 0.993 -6.857 0.119 83.014
7387.75 0.12 82.989 0.993 -6.882 0.993 -6.882 0.12 82.989
7412.708 0.12 82.964 0.992 -6.908 0.992 -6.908 0.12 82.964
7437.667 0.121 82.939 0.992 -6.933 0.992 -6.933 0.121 82.939
7462.625 0.121 82.914 0.992 -6.959 0.992 -6.959 0.121 82.914
7487.583 0.122 82.889 0.992 -6.984 0.992 -6.984 0.122 82.889
7512.542 0.122 82.864 0.992 -7.01 0.992 -7.01 0.122 82.864
7537.5 0.122 82.839 0.992 -7.035 0.992 -7.035 0.122 82.839
7562.458 0.123 82.814 0.992 -7.061 0.992 -7.061 0.123 82.814
7587.417 0.123 82.789 0.992 -7.086 0.992 -7.086 0.123 82.789
7612.375 0.124 82.764 0.992 -7.112 0.992 -7.112 0.124 82.764
7637.333 0.124 82.739 0.992 -7.137 0.992 -7.137 0.124 82.739
7662.292 0.125 82.714 0.992 -7.163 0.992 -7.163 0.125 82.714
7687.25 0.125 82.689 0.992 -7.188 0.992 -7.188 0.125 82.689
7712.208 0.126 82.664 0.992 -7.213 0.992 -7.213 0.126 82.664
7737.167 0.126 82.64 0.992 -7.239 0.992 -7.239 0.126 82.64
7762.125 0.126 82.615 0.992 -7.264 0.992 -7.264 0.126 82.615
7787.083 0.127 82.59 0.992 -7.289 0.992 -7.289 0.127 82.59
7812.042 0.127 82.565 0.992 -7.315 0.992 -7.315 0.127 82.565
7837 0.128 82.54 0.992 -7.34 0.992 -7.34 0.128 82.54
7861.958 0.128 82.515 0.991 -7.365 0.991 -7.365 0.128 82.515
7886.917 0.129 82.49 0.991 -7.391 0.991 -7.391 0.129 82.49
7911.875 0.129 82.465 0.991 -7.416 0.991 -7.416 0.129 82.465
7936.833 0.13 82.44 0.991 -7.441 0.991 -7.441 0.13 82.44
7961.792 0.13 82.415 0.991 -7.467 0.991 -7.467 0.13 82.415
7986.75 0.13 82.39 0.991 -7.492 0.991 -7.492 0.13 82.39
8011.708 0.131 82.366 0.991 -7.517 0.991 -7.517 0.131 82.366
8036.667 0.131 82.341 0.991 -7.542 0.991 -7.542 0.131 82.341
8061.625 0.132 82.316 0.991 -7.568 0.991 -7.568 0.132 82.316
8086.583 0.132 82.291 0.991 -7.593 0.991 -7.593 0.132 82.291
8111.542 0.133 82.266 0.991 -7.618 0.991 -7.618 0.133 82.266
8136.5 0.133 82.241 0.991 -7.643 0.991 -7.643 0.133 82.241
8161.458 0.133 82.217 0.991 -7.669 0.991 -7.669 0.133 82.217
8186.417 0.134 82.192 0.991 -7.694 0.991 -7.694 0.134 82.192
8211.375 0.134 82.167 0.991 -7.719 0.991 -7.719 0.134 82.167
8236.333 0.135 82.142 0.991 -7.744 0.991 -7.744 0.135 82.142
8261.292 0.135 82.117 0.991 -7.769 0.991 -7.769 0.135 82.117
8286.25 0.136 82.093 0.99 -7.794 0.99 -7.794 0.136 82.093
8311.208 0.136 82.068 0.99 -7.82 0.99 -7.82 0.136 82.068
8336.167 0.136 82.043 0.99 -7.845 0.99 -7.845 0.136 82.043
8361.125 0.137 82.018 0.99 -7.87 0.99 -7.87 0.137 82.018
8386.083 0.137 81.993 0.99 -7.895 0.99 -7.895 0.137 81.993
8411.042 0.138 81.969 0.99 -7.92 0.99 -7.92 0.138 81.969
8436 0.138 81.944 0.99 -7.945 0.99 -7.945 0.138 81.944
8460.958 0.139 81.919 0.99 -7.97 0.99 -7.97 0.139 81.919
8485.917 0.139 81.894 0.99 -7.995 0.99 -7.995 0.139 81.894
