# MHZ S MA R 50

50 1 -0.18 3.142e-3 89.818 3.142e-3 89.818 1 -0.18
74.958 1 -0.27 4.71e-3 89.727 4.71e-3 89.727 1 -0.27
99.917 1 -0.36 6.278e-3 89.636 6.278e-3 89.636 1 -0.36
124.875 1 -0.45 7.846e-3 89.545 7.846e-3 89.545 1 -0.45
149.833 1 -0.539 9.414e-3 89.455 9.414e-3 89.455 1 -0.539
174.792 1 -0.629 0.011 89.364 0.011 89.364 1 -0.629
199.75 1 -0.719 0.013 89.273 0.013 89.273 1 -0.719
224.708 1 -0.809 0.014 89.182 0.014 89.182 1 -0.809
249.667 1 -0.899 0.016 89.091 0.016 89.091 1 -0.899
274.625 1 -0.989 0.017 89 0.017 89 1 -0.989
299.583 1 -1.079 0.019 88.909 0.019 88.909 1 -1.079
324.542 1 -1.169 0.02 88.818 0.02 88.818 1 -1.169
349.5 1 -1.258 0.022 88.728 0.022 88.728 1 -1.258
374.458 1 -1.348 0.024 88.637 0.024 88.637 1 -1.348
399.417 1 -1.438 0.025 88.546 0.025 88.546 1 -1.438
424.375 1 -1.528 0.027 88.455 0.027 88.455 1 -1.528
449.333 1 -1.618 0.028 88.364 0.028 88.364 1 -1.618
474.292 1 -1.708 0.03 88.273 0.03 88.273 1 -1.708
499.25 0.999 -1.798 0.031 88.182 0.031 88.182 0.999 -1.798
524.208 0.999 -1.888 0.033 88.091 0.033 88.091 0.999 -1.888
549.167 0.999 -1.978 0.035 88 0.035 88 0.999 -1.978
574.125 0.999 -2.068 0.036 87.909 0.036 87.909 0.999 -2.068
599.083 0.999 -2.158 0.038 87.818 0.038 87.818 0.999 -2.158
624.042 0.999 -2.248 0.039 87.727 0.039 87.727 0.999 -2.248
649 0.999 -2.338 0.041 87.636 0.041 87.636 0.999 -2.338
673.958 0.999 -2.428 0.042 87.545 0.042 87.545 0.999 -2.428
698.917 0.999 -2.518 0.044 87.454 0.044 87.454 0.999 -2.518
723.875 0.999 -2.608 0.045 87.363 0.045 87.363 0.999 -2.608
748.833 0.999 -2.698 0.047 87.272 0.047 87.272 0.999 -2.698
773.792 0.999 -2.788 0.049 87.181 0.049 87.181 0.999 -2.788
798.75 0.999 -2.878 0.05 87.09 0.05 87.09 0.999 -2.878
823.708 0.999 -2.968 0.052 86.999 0.052 86.999 0.999 -2.968
848.667 0.999 -3.058 0.053 86.908 0.053 86.908 0.999 -3.058
873.625 0.998 -3.148 0.055 86.817 0.055 86.817 0.998 -3.148
898.583 0.998 -3.238 0.056 86.726 0.056 86.726 0.998 -3.238
923.542 0.998 -3.328 0.058 86.634 0.058 86.634 0.998 -3.328
948.5 0.998 -3.419 0.06 86.543 0.06 86.543 0.998 -3.419
973.458 0.998 -3.509 0.061 86.452 0.061 86.452 0.998 -3.509
998.417 0.998 -3.599 0.063 86.361 0.063 86.361 0.998 -3.599
1023.375 0.998 -3.689 0.064 86.27 0.064 86.27 0.998 -3.689
1048.333 0.998 -3.779 0.066 86.178 0.066 86.178 0.998 -3.779
1073.292 0.998 -3.87 0.067 86.087 0.067 86.087 0.998 -3.87
1098.25 0.998 -3.96 0.069 85.996 0.069 85.996 0.998 -3.96
1123.208 0.997 -4.05 0.071 85.905 0.071 85.905 0.997 -4.05
1148.167 0.997 -4.14 0.072 85.813 0.072 85.813 0.997 -4.14
1173.125 0.997 -4.231 0.074 85.722 0.074 85.722 0.997 -4.231
1198.083 0.997 -4.321 0.075 85.631 0.075 85.631 0.997 -4.321
1223.042 0.997 -4.411 0.077 85.539 0.077 85.539 0.997 -4.411
1248 0.997 -4.502 0.078 85.448 0.078 85.448 0.997 -4.502
1272.958 0.997 -4.592 0.08 85.356 0.08 85.356 0.997 -4.592
1297.917 0.997 -4.683 0.082 85.265 0.082 85.265 0.997 -4.683
1322.875 0.996 -4.773 0.083 85.174 0.083 85.174 0.996 -4.773
1347.833 0.996 -4.864 0.085 85.082 0.085 85.082 0.996 -4.864
1372.792 0.996 -4.954 0.086 84.991 0.086 84.991 0.996 -4.954
1397.75 0.996 -5.045 0.088 84.899 0.088 84.899 0.996 -5.045
1422.708 0.996 -5.135 0.09 84.807 0.09 84.807 0.996 -5.135
1447.667 0.996 -5.226 0.091 84.716 0.091 84.716 0.996 -5.226
1472.625 0.996 -5.316 0.093 84.624 0.093 84.624 0.996 -5.316
1497.583 0.995 -5.407 0.094 84.533 0.094 84.533 0.995 -5.407
1522.542 0.995 -5.497 0.096 84.441 0.096 84.441 0.995 -5.497
1547.5 0.995 -5.588 0.097 84.349 0.097 84.349 0.995 -5.588
1572.458 0.995 -5.679 0.099 84.258 0.099 84.258 0.995 -5.679
1597.417 0.995 -5.77 0.101 84.166 0.101 84.166 0.995 -5.77
1622.375 0.995 -5.86 0.102 84.074 0.102 84.074 0.995 -5.86
1647.333 0.994 -5.951 0.104 83.982 0.104 83.982 0.994 -5.951
1672.292 0.994 -6.042 0.105 83.89 0.105 83.89 0.994 -6.042
1697.25 0.994 -6.133 0.107 83.799 0.107 83.799 0.994 -6.133
1722.208 0.994 -6.224 0.108 83.707 0.108 83.707 0.994 -6.224
1747.167 0.994 -6.314 0.11 83.615 0.11 83.615 0.994 -6.314
1772.125 0.994 -6.405 0.112 83.523 0.112 83.523 0.994 -6.405
1797.083 0.993 -6.496 0.113 83.431 0.113 83.431 0.993 -6.496
1822.042 0.993 -6.587 0.115 83.339 0.115 83.339 0.993 -6.587
1847 0.993 -6.678 0.116 83.247 0.116 83.247 0.993 -6.678
1871.958 0.993 -6.769 0.118 83.155 0.118 83.155 0.993 -6.769
1896.917 0.993 -6.86 0.119 83.063 0.119 83.063 0.993 -6.86
1921.875 0.992 -6.952 0.121 82.971 0.121 82.971 0.992 -6.952
1946.833 0.992 -7.043 0.123 82.878 0.123 82.878 0.992 -7.043
1971.792 0.992 -7.134 0.124 82.786 0.124 82.786 0.992 -7.134
1996.75 0.992 -7.225 0.126 82.694 0.126 82.694 0.992 -7.225
2021.708 0.992 -7.316 0.127 82.602 0.127 82.602 0.992 -7.316
2046.667 0.991 -7.408 0.129 82.509 0.129 82.509 0.991 -7.408
2071.625 0.991 -7.499 0.131 82.417 0.131 82.417 0.991 -7.499
2096.583 0.991 -7.59 0.132 82.325 0.132 82.325 0.991 -7.59
2121.542 0.991 -7.682 0.134 82.232 0.134 82.232 0.991 -7.682
2146.5 0.991 -7.773 0.135 82.14 0.135 82.14 0.991 -7.773
2171.458 0.99 -7.865 0.137 82.047 0.137 82.047 0.99 -7.865
2196.417 0.99 -7.956 0.138 81.955 0.138 81.955 0.99 -7.956
2221.375 0.99 -8.048 0.14 81.862 0.14 81.862 0.99 -8.048
2246.333 0.99 -8.139 0.142 81.769 0.142 81.769 0.99 -8.139
2271.292 0.989 -8.231 0.143 81.677 0.143 81.677 0.989 -8.231
2296.25 0.989 -8.322 0.145 81.584 0.145 81.584 0.989 -8.322
2321.208 0.989 -8.414 0.146 81.491 0.146 81.491 0.989 -8.414
2346.167 0.989 -8.506 0.148 81.399 0.148 81.399 0.989 -8.506
2371.125 0.989 -8.598 0.149 81.306 0.149 81.306 0.989 -8.598
2396.083 0.988 -8.689 0.151 81.213 0.151 81.213 0.988 -8.689
2421.042 0.988 -8.781 0.153 81.12 0.153 81.12 0.988 -8.781
2446 0.988 -8.873 0.154 81.027 0.154 81.027 0.988 -8.873
2470.958 0.988 -8.965 0.156 80.934 0.156 80.934 0.988 -8.965
2495.917 0.987 -9.057 0.157 80.841 0.157 80.841 0.987 -9.057
2520.875 0.987 -9.149 0.159 80.748 0.159 80.748 0.987 -9.149
2545.833 0.987 -9.241 0.161 80.655 0.161 80.655 0.987 -9.241
2570.792 0.986 -9.333 0.162 80.562 0.162 80.562 0.986 -9.333
2595.75 0.986 -9.425 0.164 80.469 0.164 80.469 0.986 -9.425
2620.708 0.986 -9.518 0.165 80.375 0.165 80.375 0.986 -9.518
2645.667 0.986 -9.61 0.167 80.282 0.167 80.282 0.986 -9.61
2670.625 0.985 -9.702 0.169 80.189 0.169 80.189 0.985 -9.702
2695.583 0.985 -9.794 0.17 80.095 0.17 80.095 0.985 -9.794
2720.542 0.985 -9.887 0.172 80.002 0.172 80.002 0.985 -9.887
2745.5 0.985 -9.979 0.173 79.908 0.173 79.908 0.985 -9.979
2770.458 0.984 -10.072 0.175 79.815 0.175 79.815 0.984 -10.072
2795.417 0.984 -10.164 0.176 79.721 0.176 79.721 0.984 -10.164
2820.375 0.984 -10.257 0.178 79.628 0.178 79.628 0.984 -10.257
2845.333 0.983 -10.349 0.18 79.534 0.18 79.534 0.983 -10.349
2870.292 0.983 -10.442 0.181 79.44 0.181 79.44 0.983 -10.442
2895.25 0.983 -10.535 0.183 79.346 0.183 79.346 0.983 -10.535
2920.208 0.982 -10.627 0.184 79.253 0.184 79.253 0.982 -10.627
2945.167 0.982 -10.72 0.186 79.159 0.186 79.159 0.982 -10.72
2970.125 0.982 -10.813 0.188 79.065 0.188 79.065 0.982 -10.813
2995.083 0.982 -10.906 0.189 78.971 0.189 78.971 0.982 -10.906
3020.042 0.981 -10.999 0.191 78.877 0.191 78.877 0.981 -10.999
3045 0.981 -11.092 0.192 78.783 0.192 78.783 0.981 -11.092
3069.958 0.981 -11.185 0.194 78.688 0.194 78.688 0.981 -11.185
3094.917 0.98 -11.278 0.196 78.594 0.196 78.594 0.98 -11.278
3119.875 0.98 -11.371 0.197 78.5 0.197 78.5 0.98 -11.371
3144.833 0.98 -11.465 0.199 78.406 0.199 78.406 0.98 -11.465
3169.792 0.979 -11.558 0.2 78.311 0.2 78.311 0.979 -11.558
3194.75 0.979 -11.651 0.202 78.217 0.202 78.217 0.979 -11.651
3219.708 0.979 -11.745 0.204 78.122 0.204 78.122 0.979 -11.745
3244.667 0.978 -11.838 0.205 78.028 0.205 78.028 0.978 -11.838
3269.625 0.978 -11.932 0.207 77.933 0.207 77.933 0.978 -11.932
3294.583 0.978 -12.025 0.208 77.839 0.208 77.839 0.978 -12.025
3319.542 0.977 -12.119 0.21 77.744 0.21 77.744 0.977 -12.119
3344.5 0.977 -12.212 0.212 77.649 0.212 77.649 0.977 -12.212
3369.458 0.977 -12.306 0.213 77.554 0.213 77.554 0.977 -12.306
3394.417 0.976 -12.4 0.215 77.46 0.215 77.46 0.976 -12.4
3419.375 0.976 -12.494 0.216 77.365 0.216 77.365 0.976 -12.494
3444.333 0.975 -12.588 0.218 77.27 0.218 77.27 0.975 -12.588
3469.292 0.975 -12.682 0.22 77.175 0.22 77.175 0.975 -12.682
3494.25 0.975 -12.776 0.221 77.079 0.221 77.079 0.975 -12.776
3519.208 0.974 -12.87 0.223 76.984 0.223 76.984 0.974 -12.87
3544.167 0.974 -12.964 0.224 76.889 0.224 76.889 0.974 -12.964
3569.125 0.974 -13.058 0.226 76.794 0.226 76.794 0.974 -13.058
3594.083 0.973 -13.152 0.228 76.698 0.228 76.698 0.973 -13.152
3619.042 0.973 -13.246 0.229 76.603 0.229 76.603 0.973 -13.246
3644 0.972 -13.341 0.231 76.507 0.231 76.507 0.972 -13.341
3668.958 0.972 -13.435 0.232 76.412 0.232 76.412 0.972 -13.435
3693.917 0.972 -13.53 0.234 76.316 0.234 76.316 0.972 -13.53
3718.875 0.971 -13.624 0.236 76.221 0.236 76.221 0.971 -13.624
3743.833 0.971 -13.719 0.237 76.125 0.237 76.125 0.971 -13.719
3768.792 0.97 -13.814 0.239 76.029 0.239 76.029 0.97 -13.814
3793.75 0.97 -13.908 0.24 75.933 0.24 75.933 0.97 -13.908
3818.708 0.97 -14.003 0.242 75.837 0.242 75.837 0.97 -14.003
3843.667 0.969 -14.098 0.244 75.741 0.244 75.741 0.969 -14.098
3868.625 0.969 -14.193 0.245 75.645 0.245 75.645 0.969 -14.193
3893.583 0.968 -14.288 0.247 75.549 0.247 75.549 0.968 -14.288
3918.542 0.968 -14.383 0.248 75.453 0.248 75.453 0.968 -14.383
3943.5 0.968 -14.478 0.25 75.357 0.25 75.357 0.968 -14.478
3968.458 0.967 -14.573 0.252 75.26 0.252 75.26 0.967 -14.573
3993.417 0.967 -14.669 0.253 75.164 0.253 75.164 0.967 -14.669
4018.375 0.966 -14.764 0.255 75.067 0.255 75.067 0.966 -14.764
4043.333 0.966 -14.859 0.256 74.971 0.256 74.971 0.966 -14.859
4068.292 0.965 -14.955 0.258 74.874 0.258 74.874 0.965 -14.955
4093.25 0.965 -15.05 0.26 74.778 0.26 74.778 0.965 -15.05
4118.208 0.964 -15.146 0.261 74.681 0.261 74.681 0.964 -15.146
4143.167 0.964 -15.242 0.263 74.584 0.263 74.584 0.964 -15.242
4168.125 0.964 -15.337 0.265 74.487 0.265 74.487 0.964 -15.337
4193.083 0.963 -15.433 0.266 74.39 0.266 74.39 0.963 -15.433
4218.042 0.963 -15.529 0.268 74.293 0.268 74.293 0.963 -15.529
4243 0.962 -15.625 0.269 74.196 0.269 74.196 0.962 -15.625
4267.958 0.962 -15.721 0.271 74.099 0.271 74.099 0.962 -15.721
4292.917 0.961 -15.817 0.273 74.002 0.273 74.002 0.961 -15.817
4317.875 0.961 -15.913 0.274 73.904 0.274 73.904 0.961 -15.913
4342.833 0.96 -16.01 0.276 73.807 0.276 73.807 0.96 -16.01
4367.792 0.96 -16.106 0.277 73.709 0.277 73.709 0.96 -16.106
4392.75 0.959 -16.202 0.279 73.612 0.279 73.612 0.959 -16.202
4417.708 0.959 -16.299 0.281 73.514 0.281 73.514 0.959 -16.299
4442.667 0.958 -16.395 0.282 73.416 0.282 73.416 0.958 -16.395
4467.625 0.958 -16.492 0.284 73.319 0.284 73.319 0.958 -16.492
4492.583 0.957 -16.589 0.286 73.221 0.286 73.221 0.957 -16.589
4517.542 0.957 -16.685 0.287 73.123 0.287 73.123 0.957 -16.685
4542.5 0.956 -16.782 0.289 73.025 0.289 73.025 0.956 -16.782
4567.458 0.956 -16.879 0.29 72.927 0.29 72.927 0.956 -16.879
4592.417 0.955 -16.976 0.292 72.829 0.292 72.829 0.955 -16.976
4617.375 0.955 -17.073 0.294 72.73 0.294 72.73 0.955 -17.073
4642.333 0.954 -17.17 0.295 72.632 0.295 72.632 0.954 -17.17
4667.292 0.954 -17.268 0.297 72.534 0.297 72.534 0.954 -17.268
4692.25 0.953 -17.365 0.298 72.435 0.298 72.435 0.953 -17.365
4717.208 0.953 -17.462 0.3 72.336 0.3 72.336 0.953 -17.462
4742.167 0.952 -17.56 0.302 72.238 0.302 72.238 0.952 -17.56
4767.125 0.952 -17.657 0.303 72.139 0.303 72.139 0.952 -17.657
4792.083 0.951 -17.755 0.305 72.04 0.305 72.04 0.951 -17.755
4817.042 0.951 -17.853 0.307 71.941 0.307 71.941 0.951 -17.853
4842 0.95 -17.95 0.308 71.842 0.308 71.842 0.95 -17.95
4866.958 0.95 -18.048 0.31 71.743 0.31 71.743 0.95 -18.048
4891.917 0.949 -18.146 0.311 71.644 0.311 71.644 0.949 -18.146
4916.875 0.949 -18.244 0.313 71.545 0.313 71.545 0.949 -18.244
4941.833 0.948 -18.342 0.315 71.446 0.315 71.446 0.948 -18.342
4966.792 0.947 -18.44 0.316 71.346 0.316 71.346 0.947 -18.44
4991.75 0.947 -18.539 0.318 71.247 0.318 71.247 0.947 -18.539
5016.708 0.946 -18.637 0.32 71.147 0.32 71.147 0.946 -18.637
5041.667 0.946 -18.735 0.321 71.048 0.321 71.048 0.946 -18.735
5066.625 0.945 -18.834 0.323 70.948 0.323 70.948 0.945 -18.834
5091.583 0.945 -18.932 0.324 70.848 0.324 70.848 0.945 -18.932
5116.542 0.944 -19.031 0.326 70.748 0.326 70.748 0.944 -19.031
5141.5 0.944 -19.13 0.328 70.648 0.328 70.648 0.944 -19.13
5166.458 0.943 -19.229 0.329 70.548 0.329 70.548 0.943 -19.229
5191.417 0.942 -19.328 0.331 70.448 0.331 70.448 0.942 -19.328
5216.375 0.942 -19.427 0.333 70.348 0.333 70.348 0.942 -19.427
5241.333 0.941 -19.526 0.334 70.247 0.334 70.247 0.941 -19.526
5266.292 0.941 -19.625 0.336 70.147 0.336 70.147 0.941 -19.625
5291.25 0.94 -19.724 0.337 70.046 0.337 70.046 0.94 -19.724
5316.208 0.939 -19.823 0.339 69.946 0.339 69.946 0.939 -19.823
5341.167 0.939 -19.923 0.341 69.845 0.341 69.845 0.939 -19.923
5366.125 0.938 -20.022 0.342 69.744 0.342 69.744 0.938 -20.022
5391.083 0.938 -20.122 0.344 69.643 0.344 69.643 0.938 -20.122
5416.042 0.937 -20.222 0.346 69.543 0.346 69.543 0.937 -20.222
5441 0.936 -20.322 0.347 69.441 0.347 69.441 0.936 -20.322
5465.958 0.936 -20.421 0.349 69.34 0.349 69.34 0.936 -20.421
5490.917 0.935 -20.521 0.351 69.239 0.351 69.239 0.935 -20.521
5515.875 0.934 -20.621 0.352 69.138 0.352 69.138 0.934 -20.621
5540.833 0.934 -20.722 0.354 69.036 0.354 69.036 0.934 -20.722
5565.792 0.933 -20.822 0.355 68.935 0.355 68.935 0.933 -20.822
5590.75 0.933 -20.922 0.357 68.833 0.357 68.833 0.933 -20.922
5615.708 0.932 -21.022 0.359 68.732 0.359 68.732 0.932 -21.022
5640.667 0.931 -21.123 0.36 68.63 0.36 68.63 0.931 -21.123
5665.625 0.931 -21.224 0.362 68.528 0.362 68.528 0.931 -21.224
5690.583 0.93 -21.324 0.364 68.426 0.364 68.426 0.93 -21.324
5715.542 0.929 -21.425 0.365 68.324 0.365 68.324 0.929 -21.425
5740.5 0.929 -21.526 0.367 68.222 0.367 68.222 0.929 -21.526
5765.458 0.928 -21.627 0.369 68.119 0.369 68.119 0.928 -21.627
5790.417 0.927 -21.728 0.37 68.017 0.37 68.017 0.927 -21.728
5815.375 0.927 -21.829 0.372 67.915 0.372 67.915 0.927 -21.829
5840.333 0.926 -21.93 0.373 67.812 0.373 67.812 0.926 -21.93
5865.292 0.925 -22.032 0.375 67.709 0.375 67.709 0.925 -22.032
5890.25 0.925 -22.133 0.377 67.607 0.377 67.607 0.925 -22.133
5915.208 0.924 -22.235 0.378 67.504 0.378 67.504 0.924 -22.235
5940.167 0.923 -22.336 0.38 67.401 0.38 67.401 0.923 -22.336
5965.125 0.923 -22.438 0.382 67.298 0.382 67.298 0.923 -22.438
5990.083 0.922 -22.54 0.383 67.195 0.383 67.195 0.922 -22.54
6015.042 0.921 -22.642 0.385 67.091 0.385 67.091 0.921 -22.642
6040 0.92 -22.744 0.387 66.988 0.387 66.988 0.92 -22.744
6064.958 0.92 -22.846 0.388 66.885 0.388 66.885 0.92 -22.846
6089.917 0.919 -22.948 0.39 66.781 0.39 66.781 0.919 -22.948
6114.875 0.918 -23.05 0.392 66.677 0.392 66.677 0.918 -23.05
6139.833 0.918 -23.152 0.393 66.574 0.393 66.574 0.918 -23.152
6164.792 0.917 -23.255 0.395 66.47 0.395 66.47 0.917 -23.255
6189.75 0.916 -23.358 0.396 66.366 0.396 66.366 0.916 -23.358
6214.708 0.915 -23.46 0.398 66.262 0.398 66.262 0.915 -23.46
6239.667 0.915 -23.563 0.4 66.158 0.4 66.158 0.915 -23.563
6264.625 0.914 -23.666 0.401 66.054 0.401 66.054 0.914 -23.666
6289.583 0.913 -23.769 0.403 65.949 0.403 65.949 0.913 -23.769
6314.542 0.912 -23.872 0.405 65.845 0.405 65.845 0.912 -23.872
6339.5 0.912 -23.975 0.406 65.74 0.406 65.74 0.912 -23.975
6364.458 0.911 -24.078 0.408 65.636 0.408 65.636 0.911 -24.078
6389.417 0.91 -24.182 0.41 65.531 0.41 65.531 0.91 -24.182
6414.375 0.909 -24.285 0.411 65.426 0.411 65.426 0.909 -24.285
6439.333 0.909 -24.389 0.413 65.321 0.413 65.321 0.909 -24.389
6464.292 0.908 -24.492 0.415 65.216 0.415 65.216 0.908 -24.492
6489.25 0.907 -24.596 0.416 65.111 0.416 65.111 0.907 -24.596
6514.208 0.906 -24.7 0.418 65.005 0.418 65.005 0.906 -24.7
6539.167 0.906 -24.804 0.42 64.9 0.42 64.9 0.906 -24.804
6564.125 0.905 -24.908 0.421 64.795 0.421 64.795 0.905 -24.908
6589.083 0.904 -25.012 0.423 64.689 0.423 64.689 0.904 -25.012
6614.042 0.903 -25.116 0.424 64.583 0.424 64.583 0.903 -25.116
6639 0.902 -25.221 0.426 64.478 0.426 64.478 0.902 -25.221
6663.958 0.902 -25.325 0.428 64.372 0.428 64.372 0.902 -25.325
6688.917 0.901 -25.43 0.429 64.266 0.429 64.266 0.901 -25.43
6713.875 0.9 -25.534 0.431 64.159 0.431 64.159 0.9 -25.534
6738.833 0.899 -25.639 0.433 64.053 0.433 64.053 0.899 -25.639
6763.792 0.898 -25.744 0.434 63.947 0.434 63.947 0.898 -25.744
6788.75 0.898 -25.849 0.436 63.84 0.436 63.84 0.898 -25.849
6813.708 0.897 -25.954 0.438 63.734 0.438 63.734 0.897 -25.954
6838.667 0.896 -26.059 0.439 63.627 0.439 63.627 0.896 -26.059
6863.625 0.895 -26.165 0.441 63.521 0.441 63.521 0.895 -26.165
6888.583 0.894 -26.27 0.443 63.414 0.443 63.414 0.894 -26.27
6913.542 0.893 -26.376 0.444 63.307 0.444 63.307 0.893 -26.376
6938.5 0.893 -26.481 0.446 63.2 0.446 63.2 0.893 -26.481
6963.458 0.892 -26.587 0.448 63.092 0.448 63.092 0.892 -26.587
6988.417 0.891 -26.693 0.449 62.985 0.449 62.985 0.891 -26.693
7013.375 0.89 -26.799 0.451 62.878 0.451 62.878 0.89 -26.799
7038.333 0.889 -26.905 0.453 62.77 0.453 62.77 0.889 -26.905
7063.292 0.888 -27.011 0.454 62.662 0.454 62.662 0.888 -27.011
7088.25 0.887 -27.117 0.456 62.555 0.456 62.555 0.887 -27.117
7113.208 0.887 -27.223 0.457 62.447 0.457 62.447 0.887 -27.223
7138.167 0.886 -27.33 0.459 62.339 0.459 62.339 0.886 -27.33
7163.125 0.885 -27.437 0.461 62.231 0.461 62.231 0.885 -27.437
7188.083 0.884 -27.543 0.462 62.123 0.462 62.123 0.884 -27.543
7213.042 0.883 -27.65 0.464 62.014 0.464 62.014 0.883 -27.65
7238 0.882 -27.757 0.466 61.906 0.466 61.906 0.882 -27.757
7262.958 0.881 -27.864 0.467 61.797 0.467 61.797 0.881 -27.864
7287.917 0.88 -27.971 0.469 61.689 0.469 61.689 0.88 -27.971
7312.875 0.879 -28.078 0.471 61.58 0.471 61.58 0.879 -28.078
7337.833 0.879 -28.186 0.472 61.471 0.472 61.471 0.879 -28.186
7362.792 0.878 -28.293 0.474 61.362 0.474 61.362 0.878 -28.293
7387.75 0.877 -28.401 0.476 61.253 0.476 61.253 0.877 -28.401
7412.708 0.876 -28.508 0.477 61.144 0.477 61.144 0.876 -28.508
7437.667 0.875 -28.616 0.479 61.034 0.479 61.034 0.875 -28.616
7462.625 0.874 -28.724 0.481 60.925 0.481 60.925 0.874 -28.724
7487.583 0.873 -28.832 0.482 60.815 0.482 60.815 0.873 -28.832
7512.542 0.872 -28.94 0.484 60.706 0.484 60.706 0.872 -28.94
7537.5 0.871 -29.048 0.486 60.596 0.486 60.596 0.871 -29.048
7562.458 0.87 -29.156 0.487 60.486 0.487 60.486 0.87 -29.156
7587.417 0.869 -29.265 0.489 60.376 0.489 60.376 0.869 -29.265
7612.375 0.868 -29.373 0.491 60.266 0.491 60.266 0.868 -29.373
7637.333 0.867 -29.482 0.492 60.155 0.492 60.155 0.867 -29.482
7662.292 0.866 -29.591 0.494 60.045 0.494 60.045 0.866 -29.591
7687.25 0.865 -29.7 0.495 59.935 0.495 59.935 0.865 -29.7
7712.208 0.865 -29.809 0.497 59.824 0.497 59.824 0.865 -29.809
7737.167 0.864 -29.918 0.499 59.713 0.499 59.713 0.864 -29.918
7762.125 0.863 -30.027 0.5 59.602 0.5 59.602 0.863 -30.027
7787.083 0.862 -30.136 0.502 59.492 0.502 59.492 0.862 -30.136
7812.042 0.861 -30.246 0.504 59.38 0.504 59.38 0.861 -30.246
7837 0.86 -30.355 0.505 59.269 0.505 59.269 0.86 -30.355
7861.958 0.859 -30.465 0.507 59.158 0.507 59.158 0.859 -30.465
7886.917 0.858 -30.574 0.509 59.047 0.509 59.047 0.858 -30.574
7911.875 0.857 -30.684 0.51 58.935 0.51 58.935 0.857 -30.684
7936.833 0.856 -30.794 0.512 58.823 0.512 58.823 0.856 -30.794
7961.792 0.855 -30.904 0.514 58.712 0.514 58.712 0.855 -30.904
7986.75 0.854 -31.015 0.515 58.6 0.515 58.6 0.854 -31.015
8011.708 0.853 -31.125 0.517 58.488 0.517 58.488 0.853 -31.125
8036.667 0.852 -31.235 0.519 58.376 0.519 58.376 0.852 -31.235
8061.625 0.85 -31.346 0.52 58.263 0.52 58.263 0.85 -31.346
8086.583 0.849 -31.456 0.522 58.151 0.522 58.151 0.849 -31.456
8111.542 0.848 -31.567 0.524 58.039 0.524 58.039 0.848 -31.567
8136.5 0.847 -31.678 0.525 57.926 0.525 57.926 0.847 -31.678
8161.458 0.846 -31.789 0.527 57.813 0.527 57.813 0.846 -31.789
8186.417 0.845 -31.9 0.528 57.7 0.528 57.7 0.845 -31.9
8211.375 0.844 -32.011 0.53 57.587 0.53 57.587 0.844 -32.011
8236.333 0.843 -32.123 0.532 57.474 0.532 57.474 0.843 -32.123
