# MHZ S MA R 50

50 0.998 -3.237 0.056 86.759 0.056 86.759 0.998 -3.237
74.958 0.996 -4.846 0.084 85.147 0.084 85.147 0.996 -4.846
99.917 0.994 -6.449 0.112 83.543 0.112 83.543 0.994 -6.449
124.875 0.99 -8.042 0.14 81.948 0.14 81.948 0.99 -8.042
149.833 0.986 -9.623 0.167 80.364 0.167 80.364 0.986 -9.623
174.792 0.981 -11.19 0.194 78.795 0.194 78.795 0.981 -11.19
199.75 0.975 -12.742 0.221 77.241 0.221 77.241 0.975 -12.742
224.708 0.969 -14.276 0.247 75.705 0.247 75.705 0.969 -14.276
249.667 0.962 -15.791 0.272 74.188 0.272 74.188 0.962 -15.791
274.625 0.955 -17.284 0.297 72.692 0.297 72.692 0.955 -17.284
299.583 0.947 -18.756 0.322 71.219 0.322 71.219 0.947 -18.756
324.542 0.938 -20.203 0.345 69.769 0.345 69.769 0.938 -20.203
349.5 0.929 -21.626 0.369 68.344 0.369 68.344 0.929 -21.626
374.458 0.92 -23.024 0.391 66.945 0.391 66.945 0.92 -23.024
399.417 0.91 -24.394 0.413 65.572 0.413 65.572 0.91 -24.394
424.375 0.901 -25.738 0.434 64.226 0.434 64.226 0.901 -25.738
449.333 0.89 -27.054 0.455 62.908 0.455 62.908 0.89 -27.054
474.292 0.88 -28.342 0.475 61.618 0.475 61.618 0.88 -28.342
499.25 0.869 -29.601 0.494 60.357 0.494 60.357 0.869 -29.601
524.208 0.858 -30.832 0.513 59.123 0.513 59.123 0.858 -30.832
549.167 0.847 -32.035 0.53 57.919 0.53 57.919 0.847 -32.035
574.125 0.836 -33.209 0.548 56.742 0.548 56.742 0.836 -33.209
599.083 0.825 -34.355 0.564 55.594 0.564 55.594 0.825 -34.355
624.042 0.814 -35.472 0.58 54.475 0.58 54.475 0.814 -35.472
649 0.803 -36.562 0.596 53.382 0.596 53.382 0.803 -36.562
673.958 0.791 -37.625 0.61 52.318 0.61 52.318 0.791 -37.625
698.917 0.78 -38.66 0.625 51.28 0.625 51.28 0.78 -38.66
723.875 0.769 -39.669 0.638 50.269 0.638 50.269 0.769 -39.669
748.833 0.758 -40.652 0.651 49.284 0.651 49.284 0.758 -40.652
773.792 0.747 -41.61 0.664 48.324 0.664 48.324 0.747 -41.61
798.75 0.736 -42.542 0.676 47.389 0.676 47.389 0.736 -42.542
823.708 0.725 -43.45 0.688 46.479 0.688 46.479 0.725 -43.45
848.667 0.714 -44.334 0.699 45.593 0.699 45.593 0.714 -44.334
873.625 0.704 -45.195 0.71 44.73 0.71 44.73 0.704 -45.195
898.583 0.693 -46.033 0.72 43.889 0.72 43.889 0.693 -46.033
923.542 0.683 -46.85 0.73 43.071 0.73 43.071 0.683 -46.85
948.5 0.673 -47.644 0.739 42.274 0.739 42.274 0.673 -47.644
973.458 0.663 -48.419 0.748 41.497 0.748 41.497 0.663 -48.419
998.417 0.653 -49.172 0.757 40.741 0.757 40.741 0.653 -49.172
1023.375 0.643 -49.906 0.765 40.005 0.765 40.005 0.643 -49.906
1048.333 0.633 -50.622 0.773 39.287 0.773 39.287 0.633 -50.622
1073.292 0.624 -51.318 0.781 38.588 0.781 38.588 0.624 -51.318
1098.25 0.614 -51.997 0.788 37.907 0.788 37.907 0.614 -51.997
1123.208 0.605 -52.658 0.795 37.244 0.795 37.244 0.605 -52.658
1148.167 0.596 -53.303 0.802 36.597 0.802 36.597 0.596 -53.303
1173.125 0.587 -53.931 0.808 35.966 0.808 35.966 0.587 -53.931
1198.083 0.579 -54.544 0.815 35.351 0.815 35.351 0.579 -54.544
1223.042 0.57 -55.141 0.821 34.752 0.821 34.752 0.57 -55.141
1248 0.562 -55.724 0.826 34.167 0.826 34.167 0.562 -55.724
1272.958 0.553 -56.292 0.832 33.596 0.832 33.596 0.553 -56.292
1297.917 0.545 -56.846 0.837 33.039 0.837 33.039 0.545 -56.846
1322.875 0.537 -57.387 0.842 32.496 0.842 32.496 0.537 -57.387
1347.833 0.529 -57.915 0.847 31.966 0.847 31.966 0.529 -57.915
1372.792 0.522 -58.431 0.852 31.448 0.852 31.448 0.522 -58.431
1397.75 0.514 -58.934 0.857 30.942 0.857 30.942 0.514 -58.934
1422.708 0.507 -59.425 0.861 30.448 0.861 30.448 0.507 -59.425
1447.667 0.499 -59.905 0.865 29.966 0.865 29.966 0.499 -59.905
1472.625 0.492 -60.374 0.869 29.494 0.869 29.494 0.492 -60.374
1497.583 0.485 -60.833 0.873 29.033 0.873 29.033 0.485 -60.833
1522.542 0.478 -61.281 0.877 28.583 0.877 28.583 0.478 -61.281
1547.5 0.472 -61.719 0.881 28.142 0.881 28.142 0.472 -61.719
1572.458 0.465 -62.147 0.884 27.711 0.884 27.711 0.465 -62.147
1597.417 0.458 -62.566 0.888 27.29 0.888 27.29 0.458 -62.566
1622.375 0.452 -62.976 0.891 26.877 0.891 26.877 0.452 -62.976
1647.333 0.446 -63.377 0.894 26.474 0.894 26.474 0.446 -63.377
1672.292 0.44 -63.769 0.897 26.078 0.897 26.078 0.44 -63.769
1697.25 0.434 -64.154 0.9 25.692 0.9 25.692 0.434 -64.154
1722.208 0.428 -64.53 0.903 25.313 0.903 25.313 0.428 -64.53
1747.167 0.422 -64.898 0.906 24.942 0.906 24.942 0.422 -64.898
1772.125 0.416 -65.259 0.908 24.578 0.908 24.578 0.416 -65.259
1797.083 0.41 -65.613 0.911 24.222 0.911 24.222 0.41 -65.613
1822.042 0.405 -65.959 0.913 23.873 0.913 23.873 0.405 -65.959
1847 0.399 -66.299 0.916 23.531 0.916 23.531 0.399 -66.299
1871.958 0.394 -66.631 0.918 23.195 0.918 23.195 0.394 -66.631
1896.917 0.389 -66.958 0.92 22.866 0.92 22.866 0.389 -66.958
1921.875 0.383 -67.278 0.922 22.543 0.922 22.543 0.383 -67.278
1946.833 0.378 -67.592 0.924 22.226 0.924 22.226 0.378 -67.592
1971.792 0.373 -67.9 0.927 21.915 0.927 21.915 0.373 -67.9
1996.75 0.368 -68.202 0.929 21.61 0.929 21.61 0.368 -68.202
2021.708 0.363 -68.499 0.93 21.311 0.93 21.311 0.363 -68.499
2046.667 0.359 -68.79 0.932 21.016 0.932 21.016 0.359 -68.79
2071.625 0.354 -69.076 0.934 20.728 0.934 20.728 0.354 -69.076
2096.583 0.349 -69.356 0.936 20.444 0.936 20.444 0.349 -69.356
2121.542 0.345 -69.632 0.937 20.165 0.937 20.165 0.345 -69.632
2146.5 0.34 -69.903 0.939 19.891 0.939 19.891 0.34 -69.903
2171.458 0.336 -70.169 0.941 19.622 0.941 19.622 0.336 -70.169
2196.417 0.331 -70.431 0.942 19.357 0.942 19.357 0.331 -70.431
2221.375 0.327 -70.688 0.944 19.097 0.944 19.097 0.327 -70.688
2246.333 0.323 -70.941 0.945 18.841 0.945 18.841 0.323 -70.941
2271.292 0.319 -71.189 0.947 18.59 0.947 18.59 0.319 -71.189
2296.25 0.315 -71.433 0.948 18.342 0.948 18.342 0.315 -71.433
2321.208 0.311 -71.674 0.949 18.099 0.949 18.099 0.311 -71.674
2346.167 0.307 -71.91 0.951 17.859 0.951 17.859 0.307 -71.91
2371.125 0.303 -72.143 0.952 17.623 0.952 17.623 0.303 -72.143
2396.083 0.299 -72.372 0.953 17.391 0.953 17.391 0.299 -72.372
2421.042 0.295 -72.597 0.954 17.162 0.954 17.162 0.295 -72.597
2446 0.291 -72.818 0.955 16.937 0.955 16.937 0.291 -72.818
2470.958 0.288 -73.037 0.957 16.716 0.957 16.716 0.288 -73.037
2495.917 0.284 -73.252 0.958 16.497 0.958 16.497 0.284 -73.252
2520.875 0.28 -73.463 0.959 16.282 0.959 16.282 0.28 -73.463
2545.833 0.277 -73.672 0.96 16.07 0.96 16.07 0.277 -73.672
2570.792 0.273 -73.877 0.961 15.861 0.961 15.861 0.273 -73.877
2595.75 0.27 -74.079 0.962 15.655 0.962 15.655 0.27 -74.079
2620.708 0.266 -74.278 0.963 15.452 0.963 15.452 0.266 -74.278
2645.667 0.263 -74.475 0.964 15.252 0.964 15.252 0.263 -74.475
2670.625 0.26 -74.668 0.964 15.055 0.964 15.055 0.26 -74.668
2695.583 0.256 -74.859 0.965 14.861 0.965 14.861 0.256 -74.859
2720.542 0.253 -75.047 0.966 14.669 0.966 14.669 0.253 -75.047
2745.5 0.25 -75.232 0.967 14.479 0.967 14.479 0.25 -75.232
2770.458 0.247 -75.415 0.968 14.293 0.968 14.293 0.247 -75.415
2795.417 0.244 -75.596 0.969 14.108 0.969 14.108 0.244 -75.596
2820.375 0.241 -75.773 0.969 13.927 0.969 13.927 0.241 -75.773
2845.333 0.238 -75.949 0.97 13.747 0.97 13.747 0.238 -75.949
2870.292 0.235 -76.122 0.971 13.57 0.971 13.57 0.235 -76.122
2895.25 0.232 -76.293 0.972 13.395 0.972 13.395 0.232 -76.293
2920.208 0.229 -76.461 0.972 13.222 0.972 13.222 0.229 -76.461
2945.167 0.226 -76.627 0.973 13.052 0.973 13.052 0.226 -76.627
2970.125 0.223 -76.791 0.974 12.883 0.974 12.883 0.223 -76.791
2995.083 0.22 -76.953 0.974 12.717 0.974 12.717 0.22 -76.953
3020.042 0.217 -77.113 0.975 12.552 0.975 12.552 0.217 -77.113
3045 0.215 -77.271 0.975 12.39 0.975 12.39 0.215 -77.271
3069.958 0.212 -77.427 0.976 12.23 0.976 12.23 0.212 -77.427
3094.917 0.209 -77.581 0.977 12.071 0.977 12.071 0.209 -77.581
3119.875 0.206 -77.733 0.977 11.914 0.977 11.914 0.206 -77.733
3144.833 0.204 -77.883 0.978 11.759 0.978 11.759 0.204 -77.883
3169.792 0.201 -78.031 0.978 11.606 0.978 11.606 0.201 -78.031
3194.75 0.199 -78.178 0.979 11.455 0.979 11.455 0.199 -78.178
3219.708 0.196 -78.323 0.979 11.305 0.979 11.305 0.196 -78.323
3244.667 0.194 -78.466 0.98 11.157 0.98 11.157 0.194 -78.466
3269.625 0.191 -78.607 0.98 11.011 0.98 11.011 0.191 -78.607
3294.583 0.189 -78.747 0.981 10.866 0.981 10.866 0.189 -78.747
3319.542 0.186 -78.885 0.981 10.723 0.981 10.723 0.186 -78.885
3344.5 0.184 -79.021 0.982 10.581 0.982 10.581 0.184 -79.021
3369.458 0.181 -79.156 0.982 10.441 0.982 10.441 0.181 -79.156
3394.417 0.179 -79.289 0.983 10.302 0.983 10.302 0.179 -79.289
3419.375 0.176 -79.421 0.983 10.164 0.983 10.164 0.176 -79.421
3444.333 0.174 -79.551 0.983 10.028 0.983 10.028 0.174 -79.551
3469.292 0.172 -79.679 0.984 9.894 0.984 9.894 0.172 -79.679
3494.25 0.17 -79.807 0.984 9.761 0.984 9.761 0.17 -79.807
3519.208 0.167 -79.933 0.985 9.629 0.985 9.629 0.167 -79.933
3544.167 0.165 -80.057 0.985 9.498 0.985 9.498 0.165 -80.057
3569.125 0.163 -80.18 0.985 9.369 0.985 9.369 0.163 -80.18
3594.083 0.161 -80.302 0.986 9.241 0.986 9.241 0.161 -80.302
3619.042 0.158 -80.422 0.986 9.114 0.986 9.114 0.158 -80.422
3644 0.156 -80.541 0.986 8.989 0.986 8.989 0.156 -80.541
3668.958 0.154 -80.659 0.987 8.864 0.987 8.864 0.154 -80.659
3693.917 0.152 -80.775 0.987 8.741 0.987 8.741 0.152 -80.775
3718.875 0.15 -80.89 0.987 8.619 0.987 8.619 0.15 -80.89
3743.833 0.148 -81.004 0.988 8.498 0.988 8.498 0.148 -81.004
3768.792 0.146 -81.117 0.988 8.378 0.988 8.378 0.146 -81.117
3793.75 0.144 -81.228 0.988 8.259 0.988 8.259 0.144 -81.228
3818.708 0.142 -81.338 0.989 8.141 0.989 8.141 0.142 -81.338
3843.667 0.14 -81.447 0.989 8.025 0.989 8.025 0.14 -81.447
3868.625 0.138 -81.555 0.989 7.909 0.989 7.909 0.138 -81.555
3893.583 0.136 -81.662 0.989 7.794 0.989 7.794 0.136 -81.662
3918.542 0.134 -81.768 0.99 7.681 0.99 7.681 0.134 -81.768
3943.5 0.132 -81.872 0.99 7.568 0.99 7.568 0.132 -81.872
3968.458 0.13 -81.975 0.99 7.456 0.99 7.456 0.13 -81.975
3993.417 0.128 -82.077 0.991 7.345 0.991 7.345 0.128 -82.077
4018.375 0.126 -82.178 0.991 7.236 0.991 7.236 0.126 -82.178
4043.333 0.124 -82.278 0.991 7.127 0.991 7.127 0.124 -82.278
4068.292 0.122 -82.377 0.991 7.018 0.991 7.018 0.122 -82.377
4093.25 0.12 -82.475 0.991 6.911 0.991 6.911 0.12 -82.475
4118.208 0.118 -82.572 0.992 6.805 0.992 6.805 0.118 -82.572
4143.167 0.117 -82.667 0.992 6.699 0.992 6.699 0.117 -82.667
4168.125 0.115 -82.762 0.992 6.594 0.992 6.594 0.115 -82.762
4193.083 0.113 -82.855 0.992 6.491 0.992 6.491 0.113 -82.855
4218.042 0.111 -82.948 0.993 6.387 0.993 6.387 0.111 -82.948
4243 0.109 -83.039 0.993 6.285 0.993 6.285 0.109 -83.039
4267.958 0.108 -83.13 0.993 6.184 0.993 6.184 0.108 -83.13
4292.917 0.106 -83.219 0.993 6.083 0.993 6.083 0.106 -83.219
4317.875 0.104 -83.307 0.993 5.983 0.993 5.983 0.104 -83.307
4342.833 0.103 -83.394 0.993 5.884 0.993 5.884 0.103 -83.394
4367.792 0.101 -83.481 0.994 5.785 0.994 5.785 0.101 -83.481
4392.75 0.099 -83.566 0.994 5.687 0.994 5.687 0.099 -83.566
4417.708 0.097 -83.65 0.994 5.59 0.994 5.59 0.097 -83.65
4442.667 0.096 -83.733 0.994 5.493 0.994 5.493 0.096 -83.733
4467.625 0.094 -83.815 0.994 5.398 0.994 5.398 0.094 -83.815
4492.583 0.092 -83.896 0.994 5.303 0.994 5.303 0.092 -83.896
4517.542 0.091 -83.976 0.995 5.208 0.995 5.208 0.091 -83.976
4542.5 0.089 -84.054 0.995 5.114 0.995 5.114 0.089 -84.054
4567.458 0.088 -84.132 0.995 5.021 0.995 5.021 0.088 -84.132
4592.417 0.086 -84.209 0.995 4.929 0.995 4.929 0.086 -84.209
4617.375 0.084 -84.284 0.995 4.837 0.995 4.837 0.084 -84.284
4642.333 0.083 -84.358 0.995 4.746 0.995 4.746 0.083 -84.358
4667.292 0.081 -84.431 0.995 4.655 0.995 4.655 0.081 -84.431
4692.25 0.08 -84.503 0.996 4.565 0.996 4.565 0.08 -84.503
4717.208 0.078 -84.574 0.996 4.475 0.996 4.475 0.078 -84.574
4742.167 0.076 -84.644 0.996 4.386 0.996 4.386 0.076 -84.644
4767.125 0.075 -84.712 0.996 4.298 0.996 4.298 0.075 -84.712
4792.083 0.073 -84.779 0.996 4.21 0.996 4.21 0.073 -84.779
4817.042 0.072 -84.845 0.996 4.123 0.996 4.123 0.072 -84.845
4842 0.07 -84.91 0.996 4.036 0.996 4.036 0.07 -84.91
4866.958 0.069 -84.973 0.996 3.95 0.996 3.95 0.069 -84.973
4891.917 0.067 -85.034 0.996 3.864 0.996 3.864 0.067 -85.034
4916.875 0.066 -85.095 0.997 3.779 0.997 3.779 0.066 -85.095
4941.833 0.064 -85.153 0.997 3.694 0.997 3.694 0.064 -85.153
4966.792 0.063 -85.211 0.997 3.61 0.997 3.61 0.063 -85.211
4991.75 0.062 -85.266 0.997 3.527 0.997 3.527 0.062 -85.266
5016.708 0.06 -85.32 0.997 3.444 0.997 3.444 0.06 -85.32
5041.667 0.059 -85.372 0.997 3.361 0.997 3.361 0.059 -85.372
5066.625 0.057 -85.423 0.997 3.279 0.997 3.279 0.057 -85.423
5091.583 0.056 -85.471 0.997 3.197 0.997 3.197 0.056 -85.471
5116.542 0.054 -85.518 0.997 3.116 0.997 3.116 0.054 -85.518
5141.5 0.053 -85.562 0.997 3.035 0.997 3.035 0.053 -85.562
5166.458 0.052 -85.604 0.997 2.955 0.997 2.955 0.052 -85.604
5191.417 0.05 -85.644 0.997 2.875 0.997 2.875 0.05 -85.644
5216.375 0.049 -85.681 0.998 2.795 0.998 2.795 0.049 -85.681
5241.333 0.047 -85.716 0.998 2.716 0.998 2.716 0.047 -85.716
5266.292 0.046 -85.748 0.998 2.638 0.998 2.638 0.046 -85.748
5291.25 0.045 -85.776 0.998 2.56 0.998 2.56 0.045 -85.776
5316.208 0.043 -85.802 0.998 2.482 0.998 2.482 0.043 -85.802
5341.167 0.042 -85.824 0.998 2.404 0.998 2.404 0.042 -85.824
5366.125 0.041 -85.843 0.998 2.327 0.998 2.327 0.041 -85.843
5391.083 0.039 -85.857 0.998 2.251 0.998 2.251 0.039 -85.857
5416.042 0.038 -85.867 0.998 2.175 0.998 2.175 0.038 -85.867
5441 0.037 -85.872 0.998 2.099 0.998 2.099 0.037 -85.872
5465.958 0.035 -85.872 0.998 2.024 0.998 2.024 0.035 -85.872
5490.917 0.034 -85.866 0.998 1.949 0.998 1.949 0.034 -85.866
5515.875 0.033 -85.853 0.998 1.874 0.998 1.874 0.033 -85.853
5540.833 0.031 -85.834 0.998 1.8 0.998 1.8 0.031 -85.834
5565.792 0.03 -85.806 0.998 1.726 0.998 1.726 0.03 -85.806
5590.75 0.029 -85.77 0.998 1.652 0.998 1.652 0.029 -85.77
5615.708 0.028 -85.724 0.998 1.579 0.998 1.579 0.028 -85.724
5640.667 0.026 -85.666 0.998 1.506 0.998 1.506 0.026 -85.666
5665.625 0.025 -85.596 0.998 1.434 0.998 1.434 0.025 -85.596
5690.583 0.024 -85.511 0.998 1.362 0.998 1.362 0.024 -85.511
5715.542 0.023 -85.409 0.998 1.29 0.998 1.29 0.023 -85.409
5740.5 0.021 -85.287 0.998 1.218 0.998 1.218 0.021 -85.287
5765.458 0.02 -85.142 0.999 1.147 0.999 1.147 0.02 -85.142
5790.417 0.019 -84.97 0.999 1.076 0.999 1.076 0.019 -84.97
5815.375 0.018 -84.764 0.999 1.006 0.999 1.006 0.018 -84.764
5840.333 0.016 -84.518 0.999 0.936 0.999 0.936 0.016 -84.518
5865.292 0.015 -84.223 0.999 0.866 0.999 0.866 0.015 -84.223
5890.25 0.014 -83.866 0.999 0.796 0.999 0.796 0.014 -83.866
5915.208 0.013 -83.43 0.999 0.727 0.999 0.727 0.013 -83.43
5940.167 0.012 -82.891 0.999 0.658 0.999 0.658 0.012 -82.891
5965.125 0.01 -82.216 0.999 0.589 0.999 0.589 0.01 -82.216
5990.083 9.186e-3 -81.353 0.999 0.521 0.999 0.521 9.186e-3 -81.353
6015.042 8.012e-3 -80.22 0.999 0.453 0.999 0.453 8.012e-3 -80.22
6040 6.848e-3 -78.683 0.999 0.385 0.999 0.385 6.848e-3 -78.683
6064.958 5.695e-3 -76.503 0.999 0.318 0.999 0.318 5.695e-3 -76.503
6089.917 4.561e-3 -73.208 0.999 0.251 0.999 0.251 4.561e-3 -73.208
6114.875 3.457e-3 -67.755 0.999 0.184 0.999 0.184 3.457e-3 -67.755
6139.833 2.419e-3 -57.414 0.999 0.117 0.999 0.117 2.419e-3 -57.414
6164.792 1.57e-3 -34.14 0.999 0.051 0.999 0.051 1.57e-3 -34.14
6189.75 1.327e-3 11.801 0.999 -0.016 0.999 -0.016 1.327e-3 11.801
6214.708 1.925e-3 47.495 0.999 -0.081 0.999 -0.081 1.925e-3 47.495
6239.667 2.876e-3 63.007 0.999 -0.147 0.999 -0.147 2.876e-3 63.007
6264.625 3.927e-3 70.476 0.999 -0.212 0.999 -0.212 3.927e-3 70.476
6289.583 5.013e-3 74.708 0.999 -0.277 0.999 -0.277 5.013e-3 74.708
6314.542 6.112e-3 77.391 0.999 -0.342 0.999 -0.342 6.112e-3 77.391
6339.5 7.217e-3 79.228 0.999 -0.407 0.999 -0.407 7.217e-3 79.228
6364.458 8.324e-3 80.554 0.999 -0.471 0.999 -0.471 8.324e-3 80.554
6389.417 9.43e-3 81.55 0.999 -0.535 0.999 -0.535 9.43e-3 81.55
6414.375 0.011 82.32 0.999 -0.599 0.999 -0.599 0.011 82.32
6439.333 0.012 82.93 0.999 -0.663 0.999 -0.663 0.012 82.93
6464.292 0.013 83.422 0.999 -0.726 0.999 -0.726 0.013 83.422
6489.25 0.014 83.824 0.999 -0.789 0.999 -0.789 0.014 83.824
6514.208 0.015 84.157 0.999 -0.852 0.999 -0.852 0.015 84.157
6539.167 0.016 84.435 0.999 -0.915 0.999 -0.915 0.016 84.435
6564.125 0.017 84.668 0.999 -0.977 0.999 -0.977 0.017 84.668
6589.083 0.018 84.866 0.999 -1.039 0.999 -1.039 0.018 84.866
6614.042 0.019 85.034 0.999 -1.101 0.999 -1.101 0.019 85.034
6639 0.02 85.177 0.998 -1.163 0.998 -1.163 0.02 85.177
6663.958 0.021 85.299 0.998 -1.224 0.998 -1.224 0.021 85.299
6688.917 0.022 85.403 0.998 -1.286 0.998 -1.286 0.022 85.403
6713.875 0.024 85.492 0.998 -1.347 0.998 -1.347 0.024 85.492
6738.833 0.025 85.567 0.998 -1.408 0.998 -1.408 0.025 85.567
6763.792 0.026 85.632 0.998 -1.468 0.998 -1.468 0.026 85.632
6788.75 0.027 85.686 0.998 -1.529 0.998 -1.529 0.027 85.686
6813.708 0.028 85.731 0.998 -1.589 0.998 -1.589 0.028 85.731
6838.667 0.029 85.768 0.998 -1.649 0.998 -1.649 0.029 85.768
6863.625 0.03 85.799 0.998 -1.709 0.998 -1.709 0.03 85.799
6888.583 0.031 85.823 0.998 -1.769 0.998 -1.769 0.031 85.823
6913.542 0.032 85.842 0.998 -1.828 0.998 -1.828 0.032 85.842
6938.5 0.033 85.856 0.998 -1.888 0.998 -1.888 0.033 85.856
6963.458 0.034 85.865 0.998 -1.947 0.998 -1.947 0.034 85.865
6988.417 0.035 85.871 0.998 -2.006 0.998 -2.006 0.035 85.871
7013.375 0.036 85.872 0.998 -2.064 0.998 -2.064 0.036 85.872
7038.333 0.037 85.871 0.998 -2.123 0.998 -2.123 0.037 85.871
7063.292 0.038 85.866 0.998 -2.181 0.998 -2.181 0.038 85.866
7088.25 0.039 85.859 0.998 -2.239 0.998 -2.239 0.039 85.859
7113.208 0.04 85.849 0.998 -2.297 0.998 -2.297 0.04 85.849
7138.167 0.041 85.836 0.998 -2.355 0.998 -2.355 0.041 85.836
7163.125 0.042 85.822 0.998 -2.413 0.998 -2.413 0.042 85.822
7188.083 0.043 85.806 0.998 -2.47 0.998 -2.47 0.043 85.806
7213.042 0.044 85.787 0.998 -2.527 0.998 -2.527 0.044 85.787
7238 0.045 85.768 0.998 -2.585 0.998 -2.585 0.045 85.768
7262.958 0.046 85.746 0.998 -2.641 0.998 -2.641 0.046 85.746
7287.917 0.047 85.723 0.998 -2.698 0.998 -2.698 0.047 85.723
7312.875 0.048 85.699 0.998 -2.755 0.998 -2.755 0.048 85.699
7337.833 0.049 85.674 0.997 -2.811 0.997 -2.811 0.049 85.674
7362.792 0.05 85.647 0.997 -2.867 0.997 -2.867 0.05 85.647
7387.75 0.051 85.62 0.997 -2.924 0.997 -2.924 0.051 85.62
7412.708 0.052 85.591 0.997 -2.98 0.997 -2.98 0.052 85.591
7437.667 0.053 85.562 0.997 -3.035 0.997 -3.035 0.053 85.562
7462.625 0.054 85.531 0.997 -3.091 0.997 -3.091 0.054 85.531
7487.583 0.055 85.5 0.997 -3.146 0.997 -3.146 0.055 85.5
7512.542 0.056 85.468 0.997 -3.202 0.997 -3.202 0.056 85.468
7537.5 0.057 85.436 0.997 -3.257 0.997 -3.257 0.057 85.436
7562.458 0.058 85.403 0.997 -3.312 0.997 -3.312 0.058 85.403
7587.417 0.059 85.369 0.997 -3.367 0.997 -3.367 0.059 85.369
7612.375 0.06 85.334 0.997 -3.421 0.997 -3.421 0.06 85.334
7637.333 0.061 85.299 0.997 -3.476 0.997 -3.476 0.061 85.299
7662.292 0.062 85.264 0.997 -3.53 0.997 -3.53 0.062 85.264
7687.25 0.063 85.228 0.997 -3.585 0.997 -3.585 0.063 85.228
7712.208 0.063 85.192 0.997 -3.639 0.997 -3.639 0.063 85.192
7737.167 0.064 85.155 0.997 -3.693 0.997 -3.693 0.064 85.155
7762.125 0.065 85.117 0.997 -3.746 0.997 -3.746 0.065 85.117
7787.083 0.066 85.08 0.997 -3.8 0.997 -3.8 0.066 85.08
7812.042 0.067 85.042 0.996 -3.854 0.996 -3.854 0.067 85.042
7837 0.068 85.004 0.996 -3.907 0.996 -3.907 0.068 85.004
7861.958 0.069 84.965 0.996 -3.96 0.996 -3.96 0.069 84.965
7886.917 0.07 84.926 0.996 -4.013 0.996 -4.013 0.07 84.926
7911.875 0.071 84.887 0.996 -4.066 0.996 -4.066 0.071 84.887
7936.833 0.072 84.848 0.996 -4.119 0.996 -4.119 0.072 84.848
7961.792 0.073 84.808 0.996 -4.172 0.996 -4.172 0.073 84.808
7986.75 0.074 84.768 0.996 -4.225 0.996 -4.225 0.074 84.768
8011.708 0.075 84.728 0.996 -4.277 0.996 -4.277 0.075 84.728
8036.667 0.076 84.688 0.996 -4.329 0.996 -4.329 0.076 84.688
8061.625 0.076 84.647 0.996 -4.382 0.996 -4.382 0.076 84.647
8086.583 0.077 84.607 0.996 -4.434 0.996 -4.434 0.077 84.607
8111.542 0.078 84.566 0.996 -4.486 0.996 -4.486 0.078 84.566
8136.5 0.079 84.525 0.996 -4.537 0.996 -4.537 0.079 84.525
8161.458 0.08 84.484 0.995 -4.589 0.995 -4.589 0.08 84.484
8186.417 0.081 84.443 0.995 -4.641 0.995 -4.641 0.081 84.443
