# MHZ S MA R 50

50 0.996 -5.028 0.088 84.968 0.088 84.968 0.996 -5.028
74.958 0.991 -7.514 0.131 82.479 0.131 82.479 0.991 -7.514
99.917 0.985 -9.974 0.173 80.017 0.173 80.017 0.985 -9.974
124.875 0.977 -12.399 0.215 77.59 0.215 77.59 0.977 -12.399
149.833 0.967 -14.782 0.255 75.205 0.255 75.205 0.967 -14.782
174.792 0.956 -17.116 0.294 72.869 0.294 72.869 0.956 -17.116
199.75 0.943 -19.396 0.332 70.587 0.332 70.587 0.943 -19.396
224.708 0.93 -21.617 0.368 68.364 0.368 68.364 0.93 -21.617
249.667 0.915 -23.775 0.403 66.204 0.403 66.204 0.915 -23.775
274.625 0.9 -25.867 0.436 64.11 0.436 64.11 0.9 -25.867
299.583 0.884 -27.891 0.468 62.083 0.468 62.083 0.884 -27.891
324.542 0.867 -29.847 0.498 60.126 0.498 60.126 0.867 -29.847
349.5 0.85 -31.733 0.526 58.237 0.526 58.237 0.85 -31.733
374.458 0.833 -33.55 0.553 56.419 0.553 56.419 0.833 -33.55
399.417 0.816 -35.298 0.578 54.669 0.578 54.669 0.816 -35.298
424.375 0.798 -36.978 0.602 52.986 0.602 52.986 0.798 -36.978
449.333 0.781 -38.592 0.624 51.37 0.624 51.37 0.781 -38.592
474.292 0.764 -40.141 0.645 49.819 0.645 49.819 0.764 -40.141
499.25 0.747 -41.627 0.664 48.33 0.664 48.33 0.747 -41.627
524.208 0.73 -43.053 0.683 46.902 0.683 46.902 0.73 -43.053
549.167 0.714 -44.421 0.7 45.533 0.7 45.533 0.714 -44.421
574.125 0.697 -45.732 0.716 44.219 0.716 44.219 0.697 -45.732
599.083 0.681 -46.989 0.731 42.96 0.731 42.96 0.681 -46.989
624.042 0.666 -48.195 0.745 41.752 0.745 41.752 0.666 -48.195
649 0.651 -49.352 0.759 40.593 0.759 40.593 0.651 -49.352
673.958 0.636 -50.461 0.771 39.481 0.771 39.481 0.636 -50.461
698.917 0.621 -51.526 0.783 38.414 0.783 38.414 0.621 -51.526
723.875 0.607 -52.548 0.794 37.389 0.794 37.389 0.607 -52.548
748.833 0.593 -53.53 0.804 36.406 0.804 36.406 0.593 -53.53
773.792 0.58 -54.473 0.814 35.461 0.814 35.461 0.58 -54.473
798.75 0.567 -55.379 0.823 34.552 0.823 34.552 0.567 -55.379
823.708 0.555 -56.25 0.831 33.678 0.831 33.678 0.555 -56.25
848.667 0.542 -57.088 0.84 32.838 0.84 32.838 0.542 -57.088
873.625 0.53 -57.895 0.847 32.029 0.847 32.029 0.53 -57.895
898.583 0.519 -58.671 0.854 31.25 0.854 31.25 0.519 -58.671
923.542 0.508 -59.419 0.861 30.5 0.861 30.5 0.508 -59.419
948.5 0.497 -60.14 0.867 29.776 0.867 29.776 0.497 -60.14
973.458 0.486 -60.836 0.873 29.079 0.873 29.079 0.486 -60.836
998.417 0.476 -61.507 0.879 28.405 0.879 28.405 0.476 -61.507
1023.375 0.466 -62.154 0.884 27.755 0.884 27.755 0.466 -62.154
1048.333 0.456 -62.78 0.889 27.128 0.889 27.128 0.456 -62.78
1073.292 0.447 -63.384 0.894 26.521 0.894 26.521 0.447 -63.384
1098.25 0.437 -63.968 0.899 25.934 0.899 25.934 0.437 -63.968
1123.208 0.428 -64.533 0.903 25.367 0.903 25.367 0.428 -64.533
1148.167 0.42 -65.08 0.907 24.817 0.907 24.817 0.42 -65.08
1173.125 0.411 -65.61 0.911 24.285 0.911 24.285 0.411 -65.61
1198.083 0.403 -66.122 0.914 23.77 0.914 23.77 0.403 -66.122
1223.042 0.395 -66.62 0.918 23.27 0.918 23.27 0.395 -66.62
1248 0.387 -67.102 0.921 22.785 0.921 22.785 0.387 -67.102
1272.958 0.38 -67.569 0.924 22.315 0.924 22.315 0.38 -67.569
1297.917 0.372 -68.023 0.927 21.858 0.927 21.858 0.372 -68.023
1322.875 0.365 -68.464 0.93 21.415 0.93 21.415 0.365 -68.464
1347.833 0.358 -68.892 0.933 20.984 0.933 20.984 0.358 -68.892
1372.792 0.351 -69.308 0.935 20.565 0.935 20.565 0.351 -69.308
1397.75 0.345 -69.712 0.938 20.158 0.938 20.158 0.345 -69.712
1422.708 0.338 -70.106 0.94 19.762 0.94 19.762 0.338 -70.106
1447.667 0.332 -70.489 0.943 19.376 0.943 19.376 0.332 -70.489
1472.625 0.326 -70.861 0.945 19.001 0.945 19.001 0.326 -70.861
1497.583 0.32 -71.224 0.947 18.635 0.947 18.635 0.32 -71.224
1522.542 0.314 -71.578 0.949 18.278 0.949 18.278 0.314 -71.578
1547.5 0.308 -71.923 0.951 17.93 0.951 17.93 0.308 -71.923
1572.458 0.302 -72.259 0.952 17.591 0.952 17.591 0.302 -72.259
1597.417 0.297 -72.587 0.954 17.26 0.954 17.26 0.297 -72.587
1622.375 0.291 -72.906 0.956 16.938 0.956 16.938 0.291 -72.906
1647.333 0.286 -73.219 0.957 16.622 0.957 16.622 0.286 -73.219
1672.292 0.281 -73.523 0.959 16.314 0.959 16.314 0.281 -73.523
1697.25 0.276 -73.821 0.96 16.013 0.96 16.013 0.276 -73.821
1722.208 0.271 -74.112 0.962 15.719 0.962 15.719 0.271 -74.112
1747.167 0.266 -74.397 0.963 15.431 0.963 15.431 0.266 -74.397
1772.125 0.261 -74.675 0.964 15.15 0.964 15.15 0.261 -74.675
1797.083 0.257 -74.947 0.966 14.875 0.966 14.875 0.257 -74.947
1822.042 0.252 -75.213 0.967 14.605 0.967 14.605 0.252 -75.213
1847 0.248 -75.473 0.968 14.341 0.968 14.341 0.248 -75.473
1871.958 0.243 -75.728 0.969 14.083 0.969 14.083 0.243 -75.728
1896.917 0.239 -75.977 0.97 13.829 0.97 13.829 0.239 -75.977
1921.875 0.235 -76.222 0.971 13.581 0.971 13.581 0.235 -76.222
1946.833 0.231 -76.461 0.972 13.338 0.972 13.338 0.231 -76.461
1971.792 0.227 -76.696 0.973 13.1 0.973 13.1 0.227 -76.696
1996.75 0.223 -76.926 0.974 12.866 0.974 12.866 0.223 -76.926
2021.708 0.219 -77.152 0.975 12.636 0.975 12.636 0.219 -77.152
2046.667 0.215 -77.373 0.976 12.411 0.976 12.411 0.215 -77.373
2071.625 0.211 -77.59 0.977 12.19 0.977 12.19 0.211 -77.59
2096.583 0.207 -77.803 0.977 11.972 0.977 11.972 0.207 -77.803
2121.542 0.204 -78.013 0.978 11.759 0.978 11.759 0.204 -78.013
2146.5 0.2 -78.218 0.979 11.549 0.979 11.549 0.2 -78.218
2171.458 0.197 -78.419 0.98 11.344 0.98 11.344 0.197 -78.419
2196.417 0.193 -78.617 0.98 11.141 0.98 11.141 0.193 -78.617
2221.375 0.19 -78.812 0.981 10.942 0.981 10.942 0.19 -78.812
2246.333 0.186 -79.003 0.982 10.746 0.982 10.746 0.186 -79.003
2271.292 0.183 -79.191 0.982 10.554 0.982 10.554 0.183 -79.191
2296.25 0.18 -79.376 0.983 10.365 0.983 10.365 0.18 -79.376
2321.208 0.177 -79.557 0.983 10.178 0.983 10.178 0.177 -79.557
2346.167 0.174 -79.736 0.984 9.995 0.984 9.995 0.174 -79.736
2371.125 0.17 -79.911 0.985 9.814 0.985 9.814 0.17 -79.911
2396.083 0.167 -80.084 0.985 9.636 0.985 9.636 0.167 -80.084
2421.042 0.164 -80.254 0.986 9.461 0.986 9.461 0.164 -80.254
2446 0.161 -80.421 0.986 9.288 0.986 9.288 0.161 -80.421
2470.958 0.158 -80.585 0.987 9.118 0.987 9.118 0.158 -80.585
2495.917 0.156 -80.747 0.987 8.951 0.987 8.951 0.156 -80.747
2520.875 0.153 -80.907 0.987 8.786 0.987 8.786 0.153 -80.907
2545.833 0.15 -81.064 0.988 8.623 0.988 8.623 0.15 -81.064
2570.792 0.147 -81.218 0.988 8.462 0.988 8.462 0.147 -81.218
2595.75 0.144 -81.371 0.989 8.304 0.989 8.304 0.144 -81.371
2620.708 0.142 -81.52 0.989 8.148 0.989 8.148 0.142 -81.52
2645.667 0.139 -81.668 0.989 7.993 0.989 7.993 0.139 -81.668
2670.625 0.136 -81.814 0.99 7.841 0.99 7.841 0.136 -81.814
2695.583 0.134 -81.957 0.99 7.691 0.99 7.691 0.134 -81.957
2720.542 0.131 -82.098 0.991 7.543 0.991 7.543 0.131 -82.098
2745.5 0.129 -82.237 0.991 7.397 0.991 7.397 0.129 -82.237
2770.458 0.126 -82.374 0.991 7.252 0.991 7.252 0.126 -82.374
2795.417 0.124 -82.51 0.991 7.109 0.991 7.109 0.124 -82.51
2820.375 0.121 -82.643 0.992 6.968 0.992 6.968 0.121 -82.643
2845.333 0.119 -82.774 0.992 6.829 0.992 6.829 0.119 -82.774
2870.292 0.117 -82.903 0.992 6.691 0.992 6.691 0.117 -82.903
2895.25 0.114 -83.031 0.993 6.555 0.993 6.555 0.114 -83.031
2920.208 0.112 -83.157 0.993 6.421 0.993 6.421 0.112 -83.157
2945.167 0.11 -83.281 0.993 6.288 0.993 6.288 0.11 -83.281
2970.125 0.107 -83.403 0.993 6.157 0.993 6.157 0.107 -83.403
2995.083 0.105 -83.523 0.994 6.027 0.994 6.027 0.105 -83.523
3020.042 0.103 -83.642 0.994 5.898 0.994 5.898 0.103 -83.642
3045 0.101 -83.759 0.994 5.771 0.994 5.771 0.101 -83.759
3069.958 0.098 -83.874 0.994 5.645 0.994 5.645 0.098 -83.874
3094.917 0.096 -83.987 0.995 5.521 0.995 5.521 0.096 -83.987
3119.875 0.094 -84.099 0.995 5.398 0.995 5.398 0.094 -84.099
3144.833 0.092 -84.209 0.995 5.276 0.995 5.276 0.092 -84.209
3169.792 0.09 -84.318 0.995 5.155 0.995 5.155 0.09 -84.318
3194.75 0.088 -84.425 0.995 5.036 0.995 5.036 0.088 -84.425
3219.708 0.086 -84.53 0.995 4.918 0.995 4.918 0.086 -84.53
3244.667 0.084 -84.633 0.996 4.801 0.996 4.801 0.084 -84.633
3269.625 0.082 -84.735 0.996 4.685 0.996 4.685 0.082 -84.735
3294.583 0.08 -84.835 0.996 4.57 0.996 4.57 0.08 -84.835
3319.542 0.078 -84.934 0.996 4.456 0.996 4.456 0.078 -84.934
3344.5 0.076 -85.031 0.996 4.344 0.996 4.344 0.076 -85.031
3369.458 0.074 -85.126 0.996 4.232 0.996 4.232 0.074 -85.126
3394.417 0.072 -85.219 0.997 4.122 0.997 4.122 0.072 -85.219
3419.375 0.07 -85.31 0.997 4.012 0.997 4.012 0.07 -85.31
3444.333 0.068 -85.4 0.997 3.903 0.997 3.903 0.068 -85.4
3469.292 0.066 -85.488 0.997 3.796 0.997 3.796 0.066 -85.488
3494.25 0.064 -85.574 0.997 3.689 0.997 3.689 0.064 -85.574
3519.208 0.063 -85.658 0.997 3.583 0.997 3.583 0.063 -85.658
3544.167 0.061 -85.74 0.997 3.479 0.997 3.479 0.061 -85.74
3569.125 0.059 -85.819 0.997 3.375 0.997 3.375 0.059 -85.819
3594.083 0.057 -85.897 0.998 3.272 0.998 3.272 0.057 -85.897
3619.042 0.055 -85.972 0.998 3.169 0.998 3.169 0.055 -85.972
3644 0.054 -86.045 0.998 3.068 0.998 3.068 0.054 -86.045
3668.958 0.052 -86.116 0.998 2.967 0.998 2.967 0.052 -86.116
3693.917 0.05 -86.184 0.998 2.867 0.998 2.867 0.05 -86.184
3718.875 0.048 -86.249 0.998 2.768 0.998 2.768 0.048 -86.249
3743.833 0.047 -86.311 0.998 2.67 0.998 2.67 0.047 -86.311
3768.792 0.045 -86.37 0.998 2.573 0.998 2.573 0.045 -86.37
3793.75 0.043 -86.425 0.998 2.476 0.998 2.476 0.043 -86.425
3818.708 0.042 -86.477 0.998 2.38 0.998 2.38 0.042 -86.477
3843.667 0.04 -86.524 0.998 2.285 0.998 2.285 0.04 -86.524
3868.625 0.038 -86.567 0.998 2.19 0.998 2.19 0.038 -86.567
3893.583 0.037 -86.605 0.999 2.096 0.999 2.096 0.037 -86.605
3918.542 0.035 -86.638 0.999 2.003 0.999 2.003 0.035 -86.638
3943.5 0.033 -86.665 0.999 1.91 0.999 1.91 0.033 -86.665
3968.458 0.032 -86.685 0.999 1.818 0.999 1.818 0.032 -86.685
3993.417 0.03 -86.697 0.999 1.727 0.999 1.727 0.03 -86.697
4018.375 0.029 -86.7 0.999 1.636 0.999 1.636 0.029 -86.7
4043.333 0.027 -86.694 0.999 1.546 0.999 1.546 0.027 -86.694
4068.292 0.025 -86.675 0.999 1.457 0.999 1.457 0.025 -86.675
4093.25 0.024 -86.643 0.999 1.368 0.999 1.368 0.024 -86.643
4118.208 0.022 -86.594 0.999 1.28 0.999 1.28 0.022 -86.594
4143.167 0.021 -86.525 0.999 1.192 0.999 1.192 0.021 -86.525
4168.125 0.019 -86.432 0.999 1.105 0.999 1.105 0.019 -86.432
4193.083 0.018 -86.31 0.999 1.019 0.999 1.019 0.018 -86.31
4218.042 0.016 -86.15 0.999 0.932 0.999 0.932 0.016 -86.15
4243 0.015 -85.941 0.999 0.847 0.999 0.847 0.015 -85.941
4267.958 0.013 -85.669 0.999 0.762 0.999 0.762 0.013 -85.669
4292.917 0.012 -85.31 0.999 0.678 0.999 0.678 0.012 -85.31
4317.875 0.01 -84.829 0.999 0.594 0.999 0.594 0.01 -84.829
4342.833 8.943e-3 -84.168 0.999 0.51 0.999 0.51 8.943e-3 -84.168
4367.792 7.503e-3 -83.225 0.999 0.427 0.999 0.427 7.503e-3 -83.225
4392.75 6.075e-3 -81.807 0.999 0.345 0.999 0.345 6.075e-3 -81.807
4417.708 4.662e-3 -79.487 0.999 0.263 0.999 0.263 4.662e-3 -79.487
4442.667 3.272e-3 -75.131 0.999 0.181 0.999 0.181 3.272e-3 -75.131
4467.625 1.937e-3 -64.541 0.999 0.1 0.999 0.1 1.937e-3 -64.541
4492.583 898e-6 -22.486 0.999 0.02 0.999 0.02 898e-6 -22.486
4517.542 1.342e-3 51.764 0.999 -0.06 0.999 -0.06 1.342e-3 51.764
4542.5 2.583e-3 71.127 0.999 -0.14 0.999 -0.14 2.583e-3 71.127
4567.458 3.919e-3 77.559 0.999 -0.219 0.999 -0.219 3.919e-3 77.559
4592.417 5.272e-3 80.648 0.999 -0.298 0.999 -0.298 5.272e-3 80.648
4617.375 6.627e-3 82.432 0.999 -0.377 0.999 -0.377 6.627e-3 82.432
4642.333 7.98e-3 83.578 0.999 -0.455 0.999 -0.455 7.98e-3 83.578
4667.292 9.328e-3 84.366 0.999 -0.532 0.999 -0.532 9.328e-3 84.366
4692.25 0.011 84.932 0.999 -0.61 0.999 -0.61 0.011 84.932
4717.208 0.012 85.352 0.999 -0.686 0.999 -0.686 0.012 85.352
4742.167 0.013 85.672 0.999 -0.763 0.999 -0.763 0.013 85.672
4767.125 0.015 85.918 0.999 -0.839 0.999 -0.839 0.015 85.918
4792.083 0.016 86.11 0.999 -0.914 0.999 -0.914 0.016 86.11
4817.042 0.017 86.261 0.999 -0.99 0.999 -0.99 0.017 86.261
4842 0.019 86.379 0.999 -1.065 0.999 -1.065 0.019 86.379
4866.958 0.02 86.472 0.999 -1.139 0.999 -1.139 0.02 86.472
4891.917 0.021 86.544 0.999 -1.213 0.999 -1.213 0.021 86.544
4916.875 0.022 86.599 0.999 -1.287 0.999 -1.287 0.022 86.599
4941.833 0.024 86.639 0.999 -1.361 0.999 -1.361 0.024 86.639
4966.792 0.025 86.668 0.999 -1.434 0.999 -1.434 0.025 86.668
4991.75 0.026 86.687 0.999 -1.507 0.999 -1.507 0.026 86.687
5016.708 0.028 86.697 0.999 -1.579 0.999 -1.579 0.028 86.697
5041.667 0.029 86.7 0.999 -1.652 0.999 -1.652 0.029 86.7
5066.625 0.03 86.697 0.999 -1.723 0.999 -1.723 0.03 86.697
5091.583 0.031 86.689 0.999 -1.795 0.999 -1.795 0.031 86.689
5116.542 0.033 86.675 0.999 -1.866 0.999 -1.866 0.033 86.675
5141.5 0.034 86.658 0.999 -1.937 0.999 -1.937 0.034 86.658
5166.458 0.035 86.637 0.999 -2.008 0.999 -2.008 0.035 86.637
5191.417 0.036 86.612 0.999 -2.078 0.999 -2.078 0.036 86.612
5216.375 0.037 86.585 0.998 -2.148 0.998 -2.148 0.037 86.585
5241.333 0.039 86.555 0.998 -2.218 0.998 -2.218 0.039 86.555
5266.292 0.04 86.523 0.998 -2.287 0.998 -2.287 0.04 86.523
5291.25 0.041 86.489 0.998 -2.356 0.998 -2.356 0.041 86.489
5316.208 0.042 86.453 0.998 -2.425 0.998 -2.425 0.042 86.453
5341.167 0.044 86.415 0.998 -2.494 0.998 -2.494 0.044 86.415
5366.125 0.045 86.376 0.998 -2.562 0.998 -2.562 0.045 86.376
5391.083 0.046 86.335 0.998 -2.63 0.998 -2.63 0.046 86.335
5416.042 0.047 86.293 0.998 -2.698 0.998 -2.698 0.047 86.293
5441 0.048 86.251 0.998 -2.766 0.998 -2.766 0.048 86.251
5465.958 0.049 86.207 0.998 -2.833 0.998 -2.833 0.049 86.207
5490.917 0.051 86.162 0.998 -2.9 0.998 -2.9 0.051 86.162
5515.875 0.052 86.116 0.998 -2.967 0.998 -2.967 0.052 86.116
5540.833 0.053 86.07 0.998 -3.033 0.998 -3.033 0.053 86.07
5565.792 0.054 86.023 0.998 -3.099 0.998 -3.099 0.054 86.023
5590.75 0.055 85.975 0.998 -3.166 0.998 -3.166 0.055 85.975
5615.708 0.056 85.927 0.998 -3.231 0.998 -3.231 0.056 85.927
5640.667 0.058 85.878 0.998 -3.297 0.998 -3.297 0.058 85.878
5665.625 0.059 85.829 0.997 -3.362 0.997 -3.362 0.059 85.829
5690.583 0.06 85.779 0.997 -3.427 0.997 -3.427 0.06 85.779
5715.542 0.061 85.729 0.997 -3.492 0.997 -3.492 0.061 85.729
5740.5 0.062 85.679 0.997 -3.557 0.997 -3.557 0.062 85.679
5765.458 0.063 85.628 0.997 -3.621 0.997 -3.621 0.063 85.628
5790.417 0.064 85.577 0.997 -3.685 0.997 -3.685 0.064 85.577
5815.375 0.065 85.525 0.997 -3.749 0.997 -3.749 0.065 85.525
5840.333 0.067 85.474 0.997 -3.813 0.997 -3.813 0.067 85.474
5865.292 0.068 85.422 0.997 -3.877 0.997 -3.877 0.068 85.422
5890.25 0.069 85.37 0.997 -3.94 0.997 -3.94 0.069 85.37
5915.208 0.07 85.318 0.997 -4.003 0.997 -4.003 0.07 85.318
5940.167 0.071 85.265 0.997 -4.066 0.997 -4.066 0.071 85.265
5965.125 0.072 85.213 0.997 -4.129 0.997 -4.129 0.072 85.213
5990.083 0.073 85.16 0.996 -4.191 0.996 -4.191 0.073 85.16
6015.042 0.074 85.107 0.996 -4.254 0.996 -4.254 0.074 85.107
6040 0.075 85.054 0.996 -4.316 0.996 -4.316 0.075 85.054
6064.958 0.076 85.001 0.996 -4.378 0.996 -4.378 0.076 85.001
6089.917 0.077 84.948 0.996 -4.44 0.996 -4.44 0.077 84.948
6114.875 0.078 84.895 0.996 -4.501 0.996 -4.501 0.078 84.895
6139.833 0.08 84.842 0.996 -4.562 0.996 -4.562 0.08 84.842
6164.792 0.081 84.789 0.996 -4.624 0.996 -4.624 0.081 84.789
6189.75 0.082 84.735 0.996 -4.685 0.996 -4.685 0.082 84.735
6214.708 0.083 84.682 0.996 -4.745 0.996 -4.745 0.083 84.682
6239.667 0.084 84.629 0.996 -4.806 0.996 -4.806 0.084 84.629
6264.625 0.085 84.575 0.996 -4.867 0.996 -4.867 0.085 84.575
6289.583 0.086 84.522 0.995 -4.927 0.995 -4.927 0.086 84.522
6314.542 0.087 84.468 0.995 -4.987 0.995 -4.987 0.087 84.468
6339.5 0.088 84.415 0.995 -5.047 0.995 -5.047 0.088 84.415
6364.458 0.089 84.361 0.995 -5.107 0.995 -5.107 0.089 84.361
6389.417 0.09 84.308 0.995 -5.166 0.995 -5.166 0.09 84.308
6414.375 0.091 84.254 0.995 -5.226 0.995 -5.226 0.091 84.254
6439.333 0.092 84.201 0.995 -5.285 0.995 -5.285 0.092 84.201
6464.292 0.093 84.148 0.995 -5.344 0.995 -5.344 0.093 84.148
6489.25 0.094 84.094 0.995 -5.403 0.995 -5.403 0.094 84.094
6514.208 0.095 84.041 0.995 -5.462 0.995 -5.462 0.095 84.041
6539.167 0.096 83.988 0.995 -5.521 0.995 -5.521 0.096 83.988
6564.125 0.097 83.934 0.994 -5.579 0.994 -5.579 0.097 83.934
6589.083 0.098 83.881 0.994 -5.638 0.994 -5.638 0.098 83.881
6614.042 0.099 83.828 0.994 -5.696 0.994 -5.696 0.099 83.828
6639 0.1 83.775 0.994 -5.754 0.994 -5.754 0.1 83.775
6663.958 0.101 83.721 0.994 -5.812 0.994 -5.812 0.101 83.721
6688.917 0.102 83.668 0.994 -5.869 0.994 -5.869 0.102 83.668
6713.875 0.103 83.615 0.994 -5.927 0.994 -5.927 0.103 83.615
6738.833 0.104 83.562 0.994 -5.984 0.994 -5.984 0.104 83.562
6763.792 0.105 83.509 0.994 -6.042 0.994 -6.042 0.105 83.509
6788.75 0.106 83.456 0.994 -6.099 0.994 -6.099 0.106 83.456
6813.708 0.107 83.403 0.993 -6.156 0.993 -6.156 0.107 83.403
6838.667 0.108 83.351 0.993 -6.213 0.993 -6.213 0.108 83.351
6863.625 0.109 83.298 0.993 -6.27 0.993 -6.27 0.109 83.298
6888.583 0.11 83.245 0.993 -6.326 0.993 -6.326 0.11 83.245
6913.542 0.111 83.192 0.993 -6.383 0.993 -6.383 0.111 83.192
6938.5 0.112 83.14 0.993 -6.439 0.993 -6.439 0.112 83.14
6963.458 0.113 83.087 0.993 -6.495 0.993 -6.495 0.113 83.087
6988.417 0.114 83.035 0.993 -6.551 0.993 -6.551 0.114 83.035
7013.375 0.115 82.982 0.993 -6.607 0.993 -6.607 0.115 82.982
7038.333 0.116 82.93 0.992 -6.663 0.992 -6.663 0.116 82.93
7063.292 0.117 82.878 0.992 -6.719 0.992 -6.719 0.117 82.878
7088.25 0.118 82.825 0.992 -6.774 0.992 -6.774 0.118 82.825
7113.208 0.119 82.773 0.992 -6.83 0.992 -6.83 0.119 82.773
7138.167 0.12 82.721 0.992 -6.885 0.992 -6.885 0.12 82.721
7163.125 0.121 82.669 0.992 -6.94 0.992 -6.94 0.121 82.669
7188.083 0.122 82.617 0.992 -6.995 0.992 -6.995 0.122 82.617
7213.042 0.123 82.565 0.992 -7.05 0.992 -7.05 0.123 82.565
7238 0.124 82.513 0.991 -7.105 0.991 -7.105 0.124 82.513
7262.958 0.125 82.462 0.991 -7.16 0.991 -7.16 0.125 82.462
7287.917 0.126 82.41 0.991 -7.215 0.991 -7.215 0.126 82.41
7312.875 0.127 82.358 0.991 -7.269 0.991 -7.269 0.127 82.358
7337.833 0.127 82.307 0.991 -7.323 0.991 -7.323 0.127 82.307
7362.792 0.128 82.255 0.991 -7.378 0.991 -7.378 0.128 82.255
7387.75 0.129 82.204 0.991 -7.432 0.991 -7.432 0.129 82.204
7412.708 0.13 82.152 0.991 -7.486 0.991 -7.486 0.13 82.152
7437.667 0.131 82.101 0.991 -7.54 0.991 -7.54 0.131 82.101
7462.625 0.132 82.05 0.99 -7.594 0.99 -7.594 0.132 82.05
7487.583 0.133 81.999 0.99 -7.647 0.99 -7.647 0.133 81.999
7512.542 0.134 81.948 0.99 -7.701 0.99 -7.701 0.134 81.948
7537.5 0.135 81.897 0.99 -7.754 0.99 -7.754 0.135 81.897
7562.458 0.136 81.846 0.99 -7.808 0.99 -7.808 0.136 81.846
7587.417 0.137 81.795 0.99 -7.861 0.99 -7.861 0.137 81.795
7612.375 0.138 81.744 0.99 -7.914 0.99 -7.914 0.138 81.744
7637.333 0.139 81.693 0.99 -7.967 0.99 -7.967 0.139 81.693
7662.292 0.14 81.642 0.989 -8.02 0.989 -8.02 0.14 81.642
7687.25 0.14 81.592 0.989 -8.073 0.989 -8.073 0.14 81.592
7712.208 0.141 81.541 0.989 -8.126 0.989 -8.126 0.141 81.541
7737.167 0.142 81.491 0.989 -8.179 0.989 -8.179 0.142 81.491
7762.125 0.143 81.44 0.989 -8.231 0.989 -8.231 0.143 81.44
7787.083 0.144 81.39 0.989 -8.284 0.989 -8.284 0.144 81.39
7812.042 0.145 81.34 0.989 -8.336 0.989 -8.336 0.145 81.34
7837 0.146 81.289 0.988 -8.388 0.988 -8.388 0.146 81.289
7861.958 0.147 81.239 0.988 -8.44 0.988 -8.44 0.147 81.239
7886.917 0.148 81.189 0.988 -8.492 0.988 -8.492 0.148 81.189
7911.875 0.149 81.139 0.988 -8.544 0.988 -8.544 0.149 81.139
7936.833 0.149 81.089 0.988 -8.596 0.988 -8.596 0.149 81.089
7961.792 0.15 81.039 0.988 -8.648 0.988 -8.648 0.15 81.039
7986.75 0.151 80.99 0.988 -8.7 0.988 -8.7 0.151 80.99
8011.708 0.152 80.94 0.988 -8.751 0.988 -8.751 0.152 80.94
8036.667 0.153 80.89 0.987 -8.803 0.987 -8.803 0.153 80.89
8061.625 0.154 80.841 0.987 -8.854 0.987 -8.854 0.154 80.841
8086.583 0.155 80.791 0.987 -8.906 0.987 -8.906 0.155 80.791
8111.542 0.156 80.741 0.987 -8.957 0.987 -8.957 0.156 80.741
8136.5 0.157 80.692 0.987 -9.008 0.987 -9.008 0.157 80.692
8161.458 0.157 80.643 0.987 -9.059 0.987 -9.059 0.157 80.643
8186.417 0.158 80.593 0.987 -9.11 0.987 -9.11 0.158 80.593
8211.375 0.159 80.544 0.986 -9.161 0.986 -9.161 0.159 80.544
8236.333 0.16 80.495 0.986 -9.212 0.986 -9.212 0.16 80.495
8261.292 0.161 80.446 0.986 -9.263 0.986 -9.263 0.161 80.446
