# MHZ S MA R 50

50 1 -0.36 6.283e-3 89.637 6.283e-3 89.637 1 -0.36
74.958 1 -0.54 9.419e-3 89.455 9.419e-3 89.455 1 -0.54
99.917 1 -0.719 0.013 89.274 0.013 89.274 1 -0.719
124.875 1 -0.899 0.016 89.093 0.016 89.093 1 -0.899
149.833 1 -1.079 0.019 88.911 0.019 88.911 1 -1.079
174.792 1 -1.258 0.022 88.73 0.022 88.73 1 -1.258
199.75 1 -1.438 0.025 88.549 0.025 88.549 1 -1.438
224.708 1 -1.618 0.028 88.367 0.028 88.367 1 -1.618
249.667 0.999 -1.797 0.031 88.186 0.031 88.186 0.999 -1.797
274.625 0.999 -1.977 0.034 88.005 0.034 88.005 0.999 -1.977
299.583 0.999 -2.157 0.038 87.824 0.038 87.824 0.999 -2.157
324.542 0.999 -2.336 0.041 87.642 0.041 87.642 0.999 -2.336
349.5 0.999 -2.516 0.044 87.461 0.044 87.461 0.999 -2.516
374.458 0.999 -2.695 0.047 87.28 0.047 87.28 0.999 -2.695
399.417 0.999 -2.875 0.05 87.099 0.05 87.099 0.999 -2.875
424.375 0.999 -3.055 0.053 86.917 0.053 86.917 0.999 -3.055
449.333 0.998 -3.234 0.056 86.736 0.056 86.736 0.998 -3.234
474.292 0.998 -3.414 0.06 86.555 0.06 86.555 0.998 -3.414
499.25 0.998 -3.593 0.063 86.374 0.063 86.374 0.998 -3.593
524.208 0.998 -3.773 0.066 86.193 0.066 86.193 0.998 -3.773
549.167 0.998 -3.952 0.069 86.012 0.069 86.012 0.998 -3.952
574.125 0.997 -4.131 0.072 85.831 0.072 85.831 0.997 -4.131
599.083 0.997 -4.311 0.075 85.65 0.075 85.65 0.997 -4.311
624.042 0.997 -4.49 0.078 85.469 0.078 85.469 0.997 -4.49
649 0.997 -4.669 0.081 85.288 0.081 85.288 0.997 -4.669
673.958 0.996 -4.849 0.085 85.107 0.085 85.107 0.996 -4.849
698.917 0.996 -5.028 0.088 84.926 0.088 84.926 0.996 -5.028
723.875 0.996 -5.207 0.091 84.745 0.091 84.745 0.996 -5.207
748.833 0.996 -5.386 0.094 84.564 0.094 84.564 0.996 -5.386
773.792 0.995 -5.566 0.097 84.383 0.097 84.383 0.995 -5.566
798.75 0.995 -5.745 0.1 84.203 0.1 84.203 0.995 -5.745
823.708 0.995 -5.924 0.103 84.022 0.103 84.022 0.995 -5.924
848.667 0.994 -6.103 0.106 83.841 0.106 83.841 0.994 -6.103
873.625 0.994 -6.282 0.109 83.66 0.109 83.66 0.994 -6.282
898.583 0.994 -6.461 0.113 83.48 0.113 83.48 0.994 -6.461
923.542 0.993 -6.64 0.116 83.299 0.116 83.299 0.993 -6.64
948.5 0.993 -6.819 0.119 83.119 0.119 83.119 0.993 -6.819
973.458 0.992 -6.998 0.122 82.938 0.122 82.938 0.992 -6.998
998.417 0.992 -7.176 0.125 82.758 0.125 82.758 0.992 -7.176
1023.375 0.992 -7.355 0.128 82.577 0.128 82.577 0.992 -7.355
1048.333 0.991 -7.534 0.131 82.397 0.131 82.397 0.991 -7.534
1073.292 0.991 -7.713 0.134 82.217 0.134 82.217 0.991 -7.713
1098.25 0.99 -7.891 0.137 82.036 0.137 82.036 0.99 -7.891
1123.208 0.99 -8.07 0.14 81.856 0.14 81.856 0.99 -8.07
1148.167 0.989 -8.248 0.143 81.676 0.143 81.676 0.989 -8.248
1173.125 0.989 -8.427 0.147 81.496 0.147 81.496 0.989 -8.427
1198.083 0.989 -8.605 0.15 81.316 0.15 81.316 0.989 -8.605
1223.042 0.988 -8.784 0.153 81.136 0.153 81.136 0.988 -8.784
1248 0.988 -8.962 0.156 80.956 0.156 80.956 0.988 -8.962
1272.958 0.987 -9.14 0.159 80.776 0.159 80.776 0.987 -9.14
1297.917 0.987 -9.318 0.162 80.596 0.162 80.596 0.987 -9.318
1322.875 0.986 -9.497 0.165 80.416 0.165 80.416 0.986 -9.497
1347.833 0.986 -9.675 0.168 80.236 0.168 80.236 0.986 -9.675
1372.792 0.985 -9.853 0.171 80.056 0.171 80.056 0.985 -9.853
1397.75 0.984 -10.031 0.174 79.877 0.174 79.877 0.984 -10.031
1422.708 0.984 -10.209 0.177 79.697 0.177 79.697 0.984 -10.209
1447.667 0.983 -10.386 0.18 79.518 0.18 79.518 0.983 -10.386
1472.625 0.983 -10.564 0.183 79.338 0.183 79.338 0.983 -10.564
1497.583 0.982 -10.742 0.186 79.159 0.186 79.159 0.982 -10.742
1522.542 0.982 -10.919 0.189 78.98 0.189 78.98 0.982 -10.919
1547.5 0.981 -11.097 0.192 78.8 0.192 78.8 0.981 -11.097
1572.458 0.98 -11.275 0.196 78.621 0.196 78.621 0.98 -11.275
1597.417 0.98 -11.452 0.199 78.442 0.199 78.442 0.98 -11.452
1622.375 0.979 -11.629 0.202 78.263 0.202 78.263 0.979 -11.629
1647.333 0.978 -11.807 0.205 78.084 0.205 78.084 0.978 -11.807
1672.292 0.978 -11.984 0.208 77.905 0.208 77.905 0.978 -11.984
1697.25 0.977 -12.161 0.211 77.726 0.211 77.726 0.977 -12.161
1722.208 0.976 -12.338 0.214 77.548 0.214 77.548 0.976 -12.338
1747.167 0.976 -12.515 0.217 77.369 0.217 77.369 0.976 -12.515
1772.125 0.975 -12.692 0.22 77.19 0.22 77.19 0.975 -12.692
1797.083 0.974 -12.869 0.223 77.012 0.223 77.012 0.974 -12.869
1822.042 0.974 -13.046 0.226 76.833 0.226 76.833 0.974 -13.046
1847 0.973 -13.222 0.229 76.655 0.229 76.655 0.973 -13.222
1871.958 0.972 -13.399 0.232 76.477 0.232 76.477 0.972 -13.399
1896.917 0.972 -13.575 0.235 76.298 0.235 76.298 0.972 -13.575
1921.875 0.971 -13.752 0.238 76.12 0.238 76.12 0.971 -13.752
1946.833 0.97 -13.928 0.241 75.942 0.241 75.942 0.97 -13.928
1971.792 0.969 -14.104 0.244 75.764 0.244 75.764 0.969 -14.104
1996.75 0.969 -14.281 0.247 75.586 0.247 75.586 0.969 -14.281
2021.708 0.968 -14.457 0.25 75.409 0.25 75.409 0.968 -14.457
2046.667 0.967 -14.633 0.253 75.231 0.253 75.231 0.967 -14.633
2071.625 0.966 -14.809 0.256 75.053 0.256 75.053 0.966 -14.809
2096.583 0.965 -14.984 0.259 74.876 0.259 74.876 0.965 -14.984
2121.542 0.965 -15.16 0.262 74.698 0.262 74.698 0.965 -15.16
2146.5 0.964 -15.336 0.264 74.521 0.264 74.521 0.964 -15.336
2171.458 0.963 -15.511 0.267 74.344 0.267 74.344 0.963 -15.511
2196.417 0.962 -15.687 0.27 74.166 0.27 74.166 0.962 -15.687
2221.375 0.961 -15.862 0.273 73.989 0.273 73.989 0.961 -15.862
2246.333 0.96 -16.037 0.276 73.812 0.276 73.812 0.96 -16.037
2271.292 0.959 -16.212 0.279 73.635 0.279 73.635 0.959 -16.212
2296.25 0.959 -16.388 0.282 73.459 0.282 73.459 0.959 -16.388
2321.208 0.958 -16.562 0.285 73.282 0.285 73.282 0.958 -16.562
2346.167 0.957 -16.737 0.288 73.105 0.288 73.105 0.957 -16.737
2371.125 0.956 -16.912 0.291 72.929 0.291 72.929 0.956 -16.912
2396.083 0.955 -17.087 0.294 72.752 0.294 72.752 0.955 -17.087
2421.042 0.954 -17.261 0.297 72.576 0.297 72.576 0.954 -17.261
2446 0.953 -17.436 0.3 72.4 0.3 72.4 0.953 -17.436
2470.958 0.952 -17.61 0.303 72.224 0.303 72.224 0.952 -17.61
2495.917 0.951 -17.784 0.305 72.048 0.305 72.048 0.951 -17.784
2520.875 0.95 -17.959 0.308 71.872 0.308 71.872 0.95 -17.959
2545.833 0.949 -18.133 0.311 71.696 0.311 71.696 0.949 -18.133
2570.792 0.948 -18.306 0.314 71.52 0.314 71.52 0.948 -18.306
2595.75 0.947 -18.48 0.317 71.345 0.317 71.345 0.947 -18.48
2620.708 0.946 -18.654 0.32 71.169 0.32 71.169 0.946 -18.654
2645.667 0.945 -18.828 0.323 70.994 0.323 70.994 0.945 -18.828
2670.625 0.944 -19.001 0.326 70.819 0.326 70.819 0.944 -19.001
2695.583 0.943 -19.174 0.328 70.644 0.328 70.644 0.943 -19.174
2720.542 0.942 -19.348 0.331 70.469 0.331 70.469 0.942 -19.348
2745.5 0.941 -19.521 0.334 70.294 0.334 70.294 0.941 -19.521
2770.458 0.94 -19.694 0.337 70.119 0.337 70.119 0.94 -19.694
2795.417 0.939 -19.867 0.34 69.944 0.34 69.944 0.939 -19.867
2820.375 0.938 -20.04 0.343 69.77 0.343 69.77 0.938 -20.04
2845.333 0.937 -20.212 0.345 69.595 0.345 69.595 0.937 -20.212
2870.292 0.936 -20.385 0.348 69.421 0.348 69.421 0.936 -20.385
2895.25 0.935 -20.557 0.351 69.247 0.351 69.247 0.935 -20.557
2920.208 0.934 -20.729 0.354 69.072 0.354 69.072 0.934 -20.729
2945.167 0.933 -20.902 0.357 68.898 0.357 68.898 0.933 -20.902
2970.125 0.932 -21.074 0.36 68.725 0.36 68.725 0.932 -21.074
2995.083 0.931 -21.246 0.362 68.551 0.362 68.551 0.931 -21.246
3020.042 0.93 -21.417 0.365 68.377 0.365 68.377 0.93 -21.417
3045 0.929 -21.589 0.368 68.204 0.368 68.204 0.929 -21.589
3069.958 0.927 -21.761 0.371 68.03 0.371 68.03 0.927 -21.761
3094.917 0.926 -21.932 0.374 67.857 0.374 67.857 0.926 -21.932
3119.875 0.925 -22.103 0.376 67.684 0.376 67.684 0.925 -22.103
3144.833 0.924 -22.275 0.379 67.511 0.379 67.511 0.924 -22.275
3169.792 0.923 -22.446 0.382 67.338 0.382 67.338 0.923 -22.446
3194.75 0.922 -22.617 0.385 67.165 0.385 67.165 0.922 -22.617
3219.708 0.92 -22.787 0.387 66.993 0.387 66.993 0.92 -22.787
3244.667 0.919 -22.958 0.39 66.82 0.39 66.82 0.919 -22.958
3269.625 0.918 -23.129 0.393 66.648 0.393 66.648 0.918 -23.129
3294.583 0.917 -23.299 0.396 66.475 0.396 66.475 0.917 -23.299
3319.542 0.916 -23.469 0.398 66.303 0.398 66.303 0.916 -23.469
3344.5 0.914 -23.639 0.401 66.131 0.401 66.131 0.914 -23.639
3369.458 0.913 -23.809 0.404 65.96 0.404 65.96 0.913 -23.809
3394.417 0.912 -23.979 0.406 65.788 0.406 65.788 0.912 -23.979
3419.375 0.911 -24.149 0.409 65.616 0.409 65.616 0.911 -24.149
3444.333 0.91 -24.319 0.412 65.445 0.412 65.445 0.91 -24.319
3469.292 0.908 -24.488 0.415 65.273 0.415 65.273 0.908 -24.488
3494.25 0.907 -24.657 0.417 65.102 0.417 65.102 0.907 -24.657
3519.208 0.906 -24.826 0.42 64.931 0.42 64.931 0.906 -24.826
3544.167 0.905 -24.996 0.423 64.76 0.423 64.76 0.905 -24.996
3569.125 0.903 -25.164 0.425 64.59 0.425 64.59 0.903 -25.164
3594.083 0.902 -25.333 0.428 64.419 0.428 64.419 0.902 -25.333
3619.042 0.901 -25.502 0.431 64.248 0.431 64.248 0.901 -25.502
3644 0.899 -25.67 0.433 64.078 0.433 64.078 0.899 -25.67
3668.958 0.898 -25.838 0.436 63.908 0.436 63.908 0.898 -25.838
3693.917 0.897 -26.007 0.438 63.738 0.438 63.738 0.897 -26.007
3718.875 0.895 -26.175 0.441 63.568 0.441 63.568 0.895 -26.175
3743.833 0.894 -26.343 0.444 63.398 0.444 63.398 0.894 -26.343
3768.792 0.893 -26.51 0.446 63.228 0.446 63.228 0.893 -26.51
3793.75 0.891 -26.678 0.449 63.059 0.449 63.059 0.891 -26.678
3818.708 0.89 -26.845 0.452 62.89 0.452 62.89 0.89 -26.845
3843.667 0.889 -27.013 0.454 62.72 0.454 62.72 0.889 -27.013
3868.625 0.887 -27.18 0.457 62.551 0.457 62.551 0.887 -27.18
3893.583 0.886 -27.347 0.459 62.382 0.459 62.382 0.886 -27.347
3918.542 0.885 -27.513 0.462 62.214 0.462 62.214 0.885 -27.513
3943.5 0.883 -27.68 0.465 62.045 0.465 62.045 0.883 -27.68
3968.458 0.882 -27.847 0.467 61.877 0.467 61.877 0.882 -27.847
3993.417 0.881 -28.013 0.47 61.708 0.47 61.708 0.881 -28.013
4018.375 0.879 -28.179 0.472 61.54 0.472 61.54 0.879 -28.179
4043.333 0.878 -28.345 0.475 61.372 0.475 61.372 0.878 -28.345
4068.292 0.876 -28.511 0.477 61.204 0.477 61.204 0.876 -28.511
4093.25 0.875 -28.677 0.48 61.036 0.48 61.036 0.875 -28.677
4118.208 0.874 -28.843 0.482 60.869 0.482 60.869 0.874 -28.843
4143.167 0.872 -29.008 0.485 60.701 0.485 60.701 0.872 -29.008
4168.125 0.871 -29.173 0.487 60.534 0.487 60.534 0.871 -29.173
4193.083 0.869 -29.338 0.49 60.367 0.49 60.367 0.869 -29.338
4218.042 0.868 -29.503 0.492 60.2 0.492 60.2 0.868 -29.503
4243 0.866 -29.668 0.495 60.033 0.495 60.033 0.866 -29.668
4267.958 0.865 -29.833 0.497 59.867 0.497 59.867 0.865 -29.833
4292.917 0.863 -29.997 0.5 59.7 0.5 59.7 0.863 -29.997
4317.875 0.862 -30.161 0.502 59.534 0.502 59.534 0.862 -30.161
4342.833 0.86 -30.326 0.505 59.368 0.505 59.368 0.86 -30.326
4367.792 0.859 -30.49 0.507 59.202 0.507 59.202 0.859 -30.49
4392.75 0.858 -30.653 0.51 59.036 0.51 59.036 0.858 -30.653
4417.708 0.856 -30.817 0.512 58.87 0.512 58.87 0.856 -30.817
4442.667 0.855 -30.981 0.515 58.705 0.515 58.705 0.855 -30.981
4467.625 0.853 -31.144 0.517 58.539 0.517 58.539 0.853 -31.144
4492.583 0.852 -31.307 0.52 58.374 0.52 58.374 0.852 -31.307
4517.542 0.85 -31.47 0.522 58.209 0.522 58.209 0.85 -31.47
4542.5 0.848 -31.633 0.524 58.044 0.524 58.044 0.848 -31.633
4567.458 0.847 -31.796 0.527 57.879 0.527 57.879 0.847 -31.796
4592.417 0.845 -31.958 0.529 57.715 0.529 57.715 0.845 -31.958
4617.375 0.844 -32.12 0.532 57.55 0.532 57.55 0.844 -32.12
4642.333 0.842 -32.282 0.534 57.386 0.534 57.386 0.842 -32.282
4667.292 0.841 -32.444 0.536 57.222 0.536 57.222 0.841 -32.444
4692.25 0.839 -32.606 0.539 57.058 0.539 57.058 0.839 -32.606
4717.208 0.838 -32.768 0.541 56.894 0.541 56.894 0.838 -32.768
4742.167 0.836 -32.929 0.544 56.731 0.544 56.731 0.836 -32.929
4767.125 0.835 -33.091 0.546 56.567 0.546 56.567 0.835 -33.091
4792.083 0.833 -33.252 0.548 56.404 0.548 56.404 0.833 -33.252
4817.042 0.831 -33.413 0.551 56.241 0.551 56.241 0.831 -33.413
4842 0.83 -33.574 0.553 56.078 0.553 56.078 0.83 -33.574
4866.958 0.828 -33.734 0.555 55.915 0.555 55.915 0.828 -33.734
4891.917 0.827 -33.895 0.558 55.753 0.558 55.753 0.827 -33.895
4916.875 0.825 -34.055 0.56 55.59 0.56 55.59 0.825 -34.055
4941.833 0.823 -34.215 0.562 55.428 0.562 55.428 0.823 -34.215
4966.792 0.822 -34.375 0.565 55.266 0.565 55.266 0.822 -34.375
4991.75 0.82 -34.535 0.567 55.104 0.567 55.104 0.82 -34.535
5016.708 0.819 -34.694 0.569 54.942 0.569 54.942 0.819 -34.694
5041.667 0.817 -34.853 0.571 54.781 0.571 54.781 0.817 -34.853
5066.625 0.815 -35.013 0.574 54.62 0.574 54.62 0.815 -35.013
5091.583 0.814 -35.172 0.576 54.458 0.576 54.458 0.814 -35.172
5116.542 0.812 -35.331 0.578 54.297 0.578 54.297 0.812 -35.331
5141.5 0.81 -35.489 0.581 54.136 0.581 54.136 0.81 -35.489
5166.458 0.809 -35.648 0.583 53.976 0.583 53.976 0.809 -35.648
5191.417 0.807 -35.806 0.585 53.815 0.585 53.815 0.807 -35.806
5216.375 0.805 -35.964 0.587 53.655 0.587 53.655 0.805 -35.964
5241.333 0.804 -36.122 0.59 53.495 0.59 53.495 0.804 -36.122
5266.292 0.802 -36.28 0.592 53.335 0.592 53.335 0.802 -36.28
5291.25 0.8 -36.437 0.594 53.175 0.594 53.175 0.8 -36.437
5316.208 0.799 -36.595 0.596 53.015 0.596 53.015 0.799 -36.595
5341.167 0.797 -36.752 0.598 52.856 0.598 52.856 0.797 -36.752
5366.125 0.795 -36.909 0.601 52.696 0.601 52.696 0.795 -36.909
5391.083 0.794 -37.066 0.603 52.537 0.603 52.537 0.794 -37.066
5416.042 0.792 -37.222 0.605 52.378 0.605 52.378 0.792 -37.222
5441 0.79 -37.379 0.607 52.22 0.607 52.22 0.79 -37.379
5465.958 0.789 -37.535 0.609 52.061 0.609 52.061 0.789 -37.535
5490.917 0.787 -37.691 0.611 51.903 0.611 51.903 0.787 -37.691
5515.875 0.785 -37.847 0.614 51.744 0.614 51.744 0.785 -37.847
5540.833 0.784 -38.003 0.616 51.586 0.616 51.586 0.784 -38.003
5565.792 0.782 -38.158 0.618 51.429 0.618 51.429 0.782 -38.158
5590.75 0.78 -38.314 0.62 51.271 0.62 51.271 0.78 -38.314
5615.708 0.778 -38.469 0.622 51.113 0.622 51.113 0.778 -38.469
5640.667 0.777 -38.624 0.624 50.956 0.624 50.956 0.777 -38.624
5665.625 0.775 -38.779 0.626 50.799 0.626 50.799 0.775 -38.779
5690.583 0.773 -38.933 0.628 50.642 0.628 50.642 0.773 -38.933
5715.542 0.771 -39.088 0.631 50.485 0.631 50.485 0.771 -39.088
5740.5 0.77 -39.242 0.633 50.329 0.633 50.329 0.77 -39.242
5765.458 0.768 -39.396 0.635 50.172 0.635 50.172 0.768 -39.396
5790.417 0.766 -39.55 0.637 50.016 0.637 50.016 0.766 -39.55
5815.375 0.764 -39.703 0.639 49.86 0.639 49.86 0.764 -39.703
5840.333 0.763 -39.857 0.641 49.704 0.641 49.704 0.763 -39.857
5865.292 0.761 -40.01 0.643 49.548 0.643 49.548 0.761 -40.01
5890.25 0.759 -40.163 0.645 49.393 0.645 49.393 0.759 -40.163
5915.208 0.757 -40.316 0.647 49.237 0.647 49.237 0.757 -40.316
5940.167 0.756 -40.469 0.649 49.082 0.649 49.082 0.756 -40.469
5965.125 0.754 -40.621 0.651 48.927 0.651 48.927 0.754 -40.621
5990.083 0.752 -40.774 0.653 48.772 0.653 48.772 0.752 -40.774
6015.042 0.75 -40.926 0.655 48.618 0.655 48.618 0.75 -40.926
6040 0.749 -41.078 0.657 48.463 0.657 48.463 0.749 -41.078
6064.958 0.747 -41.229 0.659 48.309 0.659 48.309 0.747 -41.229
6089.917 0.745 -41.381 0.661 48.155 0.661 48.155 0.745 -41.381
6114.875 0.743 -41.532 0.663 48.001 0.663 48.001 0.743 -41.532
6139.833 0.741 -41.683 0.665 47.848 0.665 47.848 0.741 -41.683
6164.792 0.74 -41.834 0.667 47.694 0.667 47.694 0.74 -41.834
6189.75 0.738 -41.985 0.669 47.541 0.669 47.541 0.738 -41.985
6214.708 0.736 -42.136 0.671 47.388 0.671 47.388 0.736 -42.136
6239.667 0.734 -42.286 0.673 47.235 0.673 47.235 0.734 -42.286
6264.625 0.732 -42.436 0.675 47.082 0.675 47.082 0.732 -42.436
6289.583 0.731 -42.586 0.677 46.93 0.677 46.93 0.731 -42.586
6314.542 0.729 -42.736 0.679 46.777 0.679 46.777 0.729 -42.736
6339.5 0.727 -42.886 0.681 46.625 0.681 46.625 0.727 -42.886
6364.458 0.725 -43.035 0.682 46.473 0.682 46.473 0.725 -43.035
6389.417 0.723 -43.184 0.684 46.321 0.684 46.321 0.723 -43.184
6414.375 0.721 -43.333 0.686 46.17 0.686 46.17 0.721 -43.333
6439.333 0.72 -43.482 0.688 46.018 0.688 46.018 0.72 -43.482
6464.292 0.718 -43.631 0.69 45.867 0.69 45.867 0.718 -43.631
6489.25 0.716 -43.779 0.692 45.716 0.692 45.716 0.716 -43.779
6514.208 0.714 -43.927 0.694 45.565 0.694 45.565 0.714 -43.927
6539.167 0.712 -44.075 0.696 45.414 0.696 45.414 0.712 -44.075
6564.125 0.71 -44.223 0.697 45.264 0.697 45.264 0.71 -44.223
6589.083 0.709 -44.37 0.699 45.114 0.699 45.114 0.709 -44.37
6614.042 0.707 -44.518 0.701 44.964 0.701 44.964 0.707 -44.518
6639 0.705 -44.665 0.703 44.814 0.703 44.814 0.705 -44.665
6663.958 0.703 -44.812 0.705 44.664 0.705 44.664 0.703 -44.812
6688.917 0.701 -44.959 0.707 44.514 0.707 44.514 0.701 -44.959
6713.875 0.699 -45.105 0.708 44.365 0.708 44.365 0.699 -45.105
6738.833 0.697 -45.252 0.71 44.216 0.71 44.216 0.697 -45.252
6763.792 0.696 -45.398 0.712 44.067 0.712 44.067 0.696 -45.398
6788.75 0.694 -45.544 0.714 43.918 0.714 43.918 0.694 -45.544
6813.708 0.692 -45.69 0.716 43.77 0.716 43.77 0.692 -45.69
6838.667 0.69 -45.835 0.717 43.621 0.717 43.621 0.69 -45.835
6863.625 0.688 -45.981 0.719 43.473 0.719 43.473 0.688 -45.981
6888.583 0.686 -46.126 0.721 43.325 0.721 43.325 0.686 -46.126
6913.542 0.684 -46.271 0.723 43.177 0.723 43.177 0.684 -46.271
6938.5 0.682 -46.416 0.724 43.03 0.724 43.03 0.682 -46.416
6963.458 0.681 -46.56 0.726 42.882 0.726 42.882 0.681 -46.56
6988.417 0.679 -46.705 0.728 42.735 0.728 42.735 0.679 -46.705
7013.375 0.677 -46.849 0.73 42.588 0.73 42.588 0.677 -46.849
7038.333 0.675 -46.993 0.731 42.441 0.731 42.441 0.675 -46.993
7063.292 0.673 -47.136 0.733 42.294 0.733 42.294 0.673 -47.136
7088.25 0.671 -47.28 0.735 42.148 0.735 42.148 0.671 -47.28
7113.208 0.669 -47.423 0.736 42.002 0.736 42.002 0.669 -47.423
7138.167 0.667 -47.566 0.738 41.856 0.738 41.856 0.667 -47.566
7163.125 0.665 -47.709 0.74 41.71 0.74 41.71 0.665 -47.709
7188.083 0.663 -47.852 0.741 41.564 0.741 41.564 0.663 -47.852
7213.042 0.662 -47.995 0.743 41.418 0.743 41.418 0.662 -47.995
7238 0.66 -48.137 0.745 41.273 0.745 41.273 0.66 -48.137
7262.958 0.658 -48.279 0.746 41.128 0.746 41.128 0.658 -48.279
7287.917 0.656 -48.421 0.748 40.983 0.748 40.983 0.656 -48.421
7312.875 0.654 -48.563 0.75 40.838 0.75 40.838 0.654 -48.563
7337.833 0.652 -48.704 0.751 40.694 0.751 40.694 0.652 -48.704
7362.792 0.65 -48.845 0.753 40.549 0.753 40.549 0.65 -48.845
7387.75 0.648 -48.986 0.755 40.405 0.755 40.405 0.648 -48.986
7412.708 0.646 -49.127 0.756 40.261 0.756 40.261 0.646 -49.127
7437.667 0.644 -49.268 0.758 40.117 0.758 40.117 0.644 -49.268
7462.625 0.642 -49.408 0.759 39.974 0.759 39.974 0.642 -49.408
7487.583 0.641 -49.549 0.761 39.83 0.761 39.83 0.641 -49.549
7512.542 0.639 -49.689 0.763 39.687 0.763 39.687 0.639 -49.689
7537.5 0.637 -49.829 0.764 39.544 0.764 39.544 0.637 -49.829
7562.458 0.635 -49.968 0.766 39.401 0.766 39.401 0.635 -49.968
7587.417 0.633 -50.108 0.767 39.259 0.767 39.259 0.633 -50.108
7612.375 0.631 -50.247 0.769 39.116 0.769 39.116 0.631 -50.247
7637.333 0.629 -50.386 0.77 38.974 0.77 38.974 0.629 -50.386
7662.292 0.627 -50.525 0.772 38.832 0.772 38.832 0.627 -50.525
7687.25 0.625 -50.663 0.773 38.69 0.773 38.69 0.625 -50.663
7712.208 0.623 -50.802 0.775 38.549 0.775 38.549 0.623 -50.802
7737.167 0.621 -50.94 0.777 38.407 0.777 38.407 0.621 -50.94
7762.125 0.619 -51.078 0.778 38.266 0.778 38.266 0.619 -51.078
7787.083 0.617 -51.215 0.78 38.125 0.78 38.125 0.617 -51.215
7812.042 0.615 -51.353 0.781 37.984 0.781 37.984 0.615 -51.353
7837 0.614 -51.49 0.783 37.843 0.783 37.843 0.614 -51.49
7861.958 0.612 -51.627 0.784 37.703 0.784 37.703 0.612 -51.627
7886.917 0.61 -51.764 0.786 37.562 0.786 37.562 0.61 -51.764
7911.875 0.608 -51.901 0.787 37.422 0.787 37.422 0.608 -51.901
7936.833 0.606 -52.037 0.788 37.282 0.788 37.282 0.606 -52.037
7961.792 0.604 -52.174 0.79 37.143 0.79 37.143 0.604 -52.174
7986.75 0.602 -52.31 0.791 37.003 0.791 37.003 0.602 -52.31
8011.708 0.6 -52.446 0.793 36.864 0.793 36.864 0.6 -52.446
8036.667 0.598 -52.581 0.794 36.725 0.794 36.725 0.598 -52.581
8061.625 0.596 -52.717 0.796 36.586 0.796 36.586 0.596 -52.717
8086.583 0.594 -52.852 0.797 36.447 0.797 36.447 0.594 -52.852
8111.542 0.592 -52.987 0.799 36.308 0.799 36.308 0.592 -52.987
8136.5 0.59 -53.122 0.8 36.17 0.8 36.17 0.59 -53.122
8161.458 0.588 -53.256 0.801 36.032 0.801 36.032 0.588 -53.256
