# MHZ S MA R 50

50 0.493 -60.42 0.87 29.552 0.87 29.552 0.493 -60.42
74.958 0.353 -69.296 0.935 20.663 0.935 20.663 0.353 -69.296
99.917 0.271 -74.207 0.962 15.738 0.962 15.738 0.271 -74.207
124.875 0.219 -77.287 0.975 12.644 0.975 12.644 0.219 -77.287
149.833 0.183 -79.391 0.983 10.525 0.983 10.525 0.183 -79.391
174.792 0.156 -80.919 0.987 8.983 0.987 8.983 0.156 -80.919
199.75 0.136 -82.079 0.99 7.809 0.99 7.809 0.136 -82.079
224.708 0.12 -82.99 0.993 6.882 0.993 6.882 0.12 -82.99
249.667 0.107 -83.725 0.994 6.131 0.994 6.131 0.107 -83.725
274.625 0.096 -84.331 0.995 5.509 0.995 5.509 0.096 -84.331
299.583 0.087 -84.84 0.996 4.983 0.996 4.983 0.087 -84.84
324.542 0.079 -85.274 0.997 4.531 0.997 4.531 0.079 -85.274
349.5 0.072 -85.647 0.997 4.139 0.997 4.139 0.072 -85.647
374.458 0.066 -85.973 0.998 3.793 0.998 3.793 0.066 -85.973
399.417 0.061 -86.26 0.998 3.486 0.998 3.486 0.061 -86.26
424.375 0.056 -86.513 0.998 3.211 0.998 3.211 0.056 -86.513
449.333 0.052 -86.739 0.998 2.962 0.998 2.962 0.052 -86.739
474.292 0.048 -86.941 0.999 2.736 0.999 2.736 0.048 -86.941
499.25 0.044 -87.122 0.999 2.528 0.999 2.528 0.044 -87.122
524.208 0.041 -87.284 0.999 2.336 0.999 2.336 0.041 -87.284
549.167 0.038 -87.431 0.999 2.159 0.999 2.159 0.038 -87.431
574.125 0.035 -87.562 0.999 1.994 0.999 1.994 0.035 -87.562
599.083 0.032 -87.679 0.999 1.839 0.999 1.839 0.032 -87.679
624.042 0.03 -87.783 0.999 1.694 0.999 1.694 0.03 -87.783
649 0.027 -87.874 0.999 1.557 0.999 1.557 0.027 -87.874
673.958 0.025 -87.952 0.999 1.428 0.999 1.428 0.025 -87.952
698.917 0.023 -88.016 0.999 1.305 0.999 1.305 0.023 -88.016
723.875 0.021 -88.066 1 1.188 1 1.188 0.021 -88.066
748.833 0.019 -88.1 1 1.077 1 1.077 0.019 -88.1
773.792 0.017 -88.116 1 0.97 1 0.97 0.017 -88.116
798.75 0.015 -88.111 1 0.868 1 0.868 0.015 -88.111
823.708 0.013 -88.079 1 0.77 1 0.77 0.013 -88.079
848.667 0.012 -88.012 1 0.675 1 0.675 0.012 -88.012
873.625 0.01 -87.898 1 0.584 1 0.584 0.01 -87.898
898.583 8.651e-3 -87.716 1 0.495 1 0.495 8.651e-3 -87.716
923.542 7.159e-3 -87.429 1 0.41 1 0.41 7.159e-3 -87.429
948.5 5.713e-3 -86.964 1 0.327 1 0.327 5.713e-3 -86.964
973.458 4.309e-3 -86.161 1 0.246 1 0.246 4.309e-3 -86.161
998.417 2.945e-3 -84.572 1 0.168 1 0.168 2.945e-3 -84.572
1023.375 1.623e-3 -80.334 1 0.092 1 0.092 1.623e-3 -80.334
1048.333 404.7e-6 -48.144 1 0.017 1 0.017 404.7e-6 -48.144
1073.292 1.004e-3 74.342 1 -0.055 1 -0.055 1.004e-3 74.342
1098.25 2.223e-3 82.898 1 -0.126 1 -0.126 2.223e-3 82.898
1123.208 3.43e-3 85.29 1 -0.196 1 -0.196 3.43e-3 85.29
1148.167 4.615e-3 86.382 1 -0.264 1 -0.264 4.615e-3 86.382
1173.125 5.778e-3 86.991 1 -0.331 1 -0.331 5.778e-3 86.991
1198.083 6.92e-3 87.368 1 -0.396 1 -0.396 6.92e-3 87.368
1223.042 8.041e-3 87.615 1 -0.46 1 -0.46 8.041e-3 87.615
1248 9.143e-3 87.784 1 -0.524 1 -0.524 9.143e-3 87.784
1272.958 0.01 87.902 1 -0.586 1 -0.586 0.01 87.902
1297.917 0.011 87.983 1 -0.647 1 -0.647 0.011 87.983
1322.875 0.012 88.04 1 -0.707 1 -0.707 0.012 88.04
1347.833 0.013 88.077 1 -0.766 1 -0.766 0.013 88.077
1372.792 0.014 88.101 1 -0.825 1 -0.825 0.014 88.101
1397.75 0.015 88.113 1 -0.883 1 -0.883 0.015 88.113
1422.708 0.016 88.117 1 -0.94 1 -0.94 0.016 88.117
1447.667 0.017 88.114 1 -0.996 1 -0.996 0.017 88.114
1472.625 0.018 88.106 1 -1.052 1 -1.052 0.018 88.106
1497.583 0.019 88.093 1 -1.106 1 -1.106 0.019 88.093
1522.542 0.02 88.076 1 -1.161 1 -1.161 0.02 88.076
1547.5 0.021 88.056 1 -1.215 1 -1.215 0.021 88.056
1572.458 0.022 88.033 0.999 -1.268 0.999 -1.268 0.022 88.033
1597.417 0.023 88.008 0.999 -1.321 0.999 -1.321 0.023 88.008
1622.375 0.024 87.982 0.999 -1.373 0.999 -1.373 0.024 87.982
1647.333 0.025 87.953 0.999 -1.425 0.999 -1.425 0.025 87.953
1672.292 0.026 87.924 0.999 -1.476 0.999 -1.476 0.026 87.924
1697.25 0.027 87.893 0.999 -1.527 0.999 -1.527 0.027 87.893
1722.208 0.028 87.861 0.999 -1.577 0.999 -1.577 0.028 87.861
1747.167 0.028 87.828 0.999 -1.627 0.999 -1.627 0.028 87.828
1772.125 0.029 87.795 0.999 -1.677 0.999 -1.677 0.029 87.795
1797.083 0.03 87.761 0.999 -1.726 0.999 -1.726 0.03 87.761
1822.042 0.031 87.726 0.999 -1.775 0.999 -1.775 0.031 87.726
1847 0.032 87.691 0.999 -1.823 0.999 -1.823 0.032 87.691
1871.958 0.033 87.655 0.999 -1.872 0.999 -1.872 0.033 87.655
1896.917 0.033 87.619 0.999 -1.92 0.999 -1.92 0.033 87.619
1921.875 0.034 87.582 0.999 -1.967 0.999 -1.967 0.034 87.582
1946.833 0.035 87.546 0.999 -2.015 0.999 -2.015 0.035 87.546
1971.792 0.036 87.509 0.999 -2.062 0.999 -2.062 0.036 87.509
1996.75 0.037 87.471 0.999 -2.109 0.999 -2.109 0.037 87.471
2021.708 0.038 87.434 0.999 -2.155 0.999 -2.155 0.038 87.434
2046.667 0.038 87.396 0.999 -2.201 0.999 -2.201 0.038 87.396
2071.625 0.039 87.358 0.999 -2.248 0.999 -2.248 0.039 87.358
2096.583 0.04 87.32 0.999 -2.293 0.999 -2.293 0.04 87.32
2121.542 0.041 87.282 0.999 -2.339 0.999 -2.339 0.041 87.282
2146.5 0.042 87.244 0.999 -2.384 0.999 -2.384 0.042 87.244
2171.458 0.042 87.206 0.999 -2.43 0.999 -2.43 0.042 87.206
2196.417 0.043 87.167 0.999 -2.475 0.999 -2.475 0.043 87.167
2221.375 0.044 87.129 0.999 -2.519 0.999 -2.519 0.044 87.129
2246.333 0.045 87.091 0.999 -2.564 0.999 -2.564 0.045 87.091
2271.292 0.046 87.052 0.999 -2.608 0.999 -2.608 0.046 87.052
2296.25 0.046 87.013 0.999 -2.653 0.999 -2.653 0.046 87.013
2321.208 0.047 86.975 0.999 -2.697 0.999 -2.697 0.047 86.975
2346.167 0.048 86.936 0.999 -2.741 0.999 -2.741 0.048 86.936
2371.125 0.049 86.897 0.999 -2.784 0.999 -2.784 0.049 86.897
2396.083 0.049 86.859 0.999 -2.828 0.999 -2.828 0.049 86.859
2421.042 0.05 86.82 0.998 -2.872 0.998 -2.872 0.05 86.82
2446 0.051 86.781 0.998 -2.915 0.998 -2.915 0.051 86.781
2470.958 0.052 86.743 0.998 -2.958 0.998 -2.958 0.052 86.743
2495.917 0.052 86.704 0.998 -3.001 0.998 -3.001 0.052 86.704
2520.875 0.053 86.665 0.998 -3.044 0.998 -3.044 0.053 86.665
2545.833 0.054 86.626 0.998 -3.087 0.998 -3.087 0.054 86.626
2570.792 0.055 86.588 0.998 -3.129 0.998 -3.129 0.055 86.588
2595.75 0.055 86.549 0.998 -3.172 0.998 -3.172 0.055 86.549
2620.708 0.056 86.51 0.998 -3.214 0.998 -3.214 0.056 86.51
2645.667 0.057 86.472 0.998 -3.257 0.998 -3.257 0.057 86.472
2670.625 0.058 86.433 0.998 -3.299 0.998 -3.299 0.058 86.433
2695.583 0.058 86.394 0.998 -3.341 0.998 -3.341 0.058 86.394
2720.542 0.059 86.356 0.998 -3.383 0.998 -3.383 0.059 86.356
2745.5 0.06 86.317 0.998 -3.425 0.998 -3.425 0.06 86.317
2770.458 0.06 86.278 0.998 -3.466 0.998 -3.466 0.06 86.278
2795.417 0.061 86.24 0.998 -3.508 0.998 -3.508 0.061 86.24
2820.375 0.062 86.201 0.998 -3.55 0.998 -3.55 0.062 86.201
2845.333 0.063 86.162 0.998 -3.591 0.998 -3.591 0.063 86.162
2870.292 0.063 86.124 0.998 -3.632 0.998 -3.632 0.063 86.124
2895.25 0.064 86.085 0.998 -3.674 0.998 -3.674 0.064 86.085
2920.208 0.065 86.047 0.998 -3.715 0.998 -3.715 0.065 86.047
2945.167 0.066 86.008 0.998 -3.756 0.998 -3.756 0.066 86.008
2970.125 0.066 85.97 0.998 -3.797 0.998 -3.797 0.066 85.97
2995.083 0.067 85.931 0.997 -3.838 0.997 -3.838 0.067 85.931
3020.042 0.068 85.893 0.997 -3.879 0.997 -3.879 0.068 85.893
3045 0.068 85.855 0.997 -3.92 0.997 -3.92 0.068 85.855
3069.958 0.069 85.816 0.997 -3.96 0.997 -3.96 0.069 85.816
3094.917 0.07 85.778 0.997 -4.001 0.997 -4.001 0.07 85.778
3119.875 0.07 85.74 0.997 -4.041 0.997 -4.041 0.07 85.74
3144.833 0.071 85.701 0.997 -4.082 0.997 -4.082 0.071 85.701
3169.792 0.072 85.663 0.997 -4.122 0.997 -4.122 0.072 85.663
3194.75 0.073 85.625 0.997 -4.163 0.997 -4.163 0.073 85.625
3219.708 0.073 85.586 0.997 -4.203 0.997 -4.203 0.073 85.586
3244.667 0.074 85.548 0.997 -4.243 0.997 -4.243 0.074 85.548
3269.625 0.075 85.51 0.997 -4.283 0.997 -4.283 0.075 85.51
3294.583 0.075 85.472 0.997 -4.324 0.997 -4.324 0.075 85.472
3319.542 0.076 85.434 0.997 -4.364 0.997 -4.364 0.076 85.434
3344.5 0.077 85.396 0.997 -4.404 0.997 -4.404 0.077 85.396
3369.458 0.077 85.357 0.997 -4.444 0.997 -4.444 0.077 85.357
3394.417 0.078 85.319 0.997 -4.483 0.997 -4.483 0.078 85.319
3419.375 0.079 85.281 0.997 -4.523 0.997 -4.523 0.079 85.281
3444.333 0.08 85.243 0.997 -4.563 0.997 -4.563 0.08 85.243
3469.292 0.08 85.205 0.997 -4.603 0.997 -4.603 0.08 85.205
3494.25 0.081 85.167 0.996 -4.642 0.996 -4.642 0.081 85.167
3519.208 0.082 85.129 0.996 -4.682 0.996 -4.682 0.082 85.129
3544.167 0.082 85.091 0.996 -4.721 0.996 -4.721 0.082 85.091
3569.125 0.083 85.053 0.996 -4.761 0.996 -4.761 0.083 85.053
3594.083 0.084 85.015 0.996 -4.8 0.996 -4.8 0.084 85.015
3619.042 0.084 84.977 0.996 -4.84 0.996 -4.84 0.084 84.977
3644 0.085 84.94 0.996 -4.879 0.996 -4.879 0.085 84.94
3668.958 0.086 84.902 0.996 -4.918 0.996 -4.918 0.086 84.902
3693.917 0.086 84.864 0.996 -4.958 0.996 -4.958 0.086 84.864
3718.875 0.087 84.826 0.996 -4.997 0.996 -4.997 0.087 84.826
3743.833 0.088 84.788 0.996 -5.036 0.996 -5.036 0.088 84.788
3768.792 0.088 84.751 0.996 -5.075 0.996 -5.075 0.088 84.751
3793.75 0.089 84.713 0.996 -5.114 0.996 -5.114 0.089 84.713
3818.708 0.09 84.675 0.996 -5.153 0.996 -5.153 0.09 84.675
3843.667 0.091 84.637 0.996 -5.192 0.996 -5.192 0.091 84.637
3868.625 0.091 84.6 0.996 -5.231 0.996 -5.231 0.091 84.6
3893.583 0.092 84.562 0.996 -5.27 0.996 -5.27 0.092 84.562
3918.542 0.093 84.524 0.995 -5.309 0.995 -5.309 0.093 84.524
3943.5 0.093 84.487 0.995 -5.348 0.995 -5.348 0.093 84.487
3968.458 0.094 84.449 0.995 -5.387 0.995 -5.387 0.094 84.449
3993.417 0.095 84.411 0.995 -5.426 0.995 -5.426 0.095 84.411
4018.375 0.095 84.374 0.995 -5.464 0.995 -5.464 0.095 84.374
4043.333 0.096 84.336 0.995 -5.503 0.995 -5.503 0.096 84.336
4068.292 0.097 84.299 0.995 -5.542 0.995 -5.542 0.097 84.299
4093.25 0.097 84.261 0.995 -5.58 0.995 -5.58 0.097 84.261
4118.208 0.098 84.224 0.995 -5.619 0.995 -5.619 0.098 84.224
4143.167 0.099 84.186 0.995 -5.658 0.995 -5.658 0.099 84.186
4168.125 0.099 84.149 0.995 -5.696 0.995 -5.696 0.099 84.149
4193.083 0.1 84.111 0.995 -5.735 0.995 -5.735 0.1 84.111
4218.042 0.101 84.074 0.995 -5.773 0.995 -5.773 0.101 84.074
4243 0.101 84.037 0.995 -5.811 0.995 -5.811 0.101 84.037
4267.958 0.102 83.999 0.995 -5.85 0.995 -5.85 0.102 83.999
4292.917 0.103 83.962 0.994 -5.888 0.994 -5.888 0.103 83.962
4317.875 0.103 83.924 0.994 -5.927 0.994 -5.927 0.103 83.924
4342.833 0.104 83.887 0.994 -5.965 0.994 -5.965 0.104 83.887
4367.792 0.105 83.85 0.994 -6.003 0.994 -6.003 0.105 83.85
4392.75 0.105 83.812 0.994 -6.041 0.994 -6.041 0.105 83.812
4417.708 0.106 83.775 0.994 -6.08 0.994 -6.08 0.106 83.775
4442.667 0.107 83.738 0.994 -6.118 0.994 -6.118 0.107 83.738
4467.625 0.107 83.701 0.994 -6.156 0.994 -6.156 0.107 83.701
4492.583 0.108 83.663 0.994 -6.194 0.994 -6.194 0.108 83.663
4517.542 0.109 83.626 0.994 -6.232 0.994 -6.232 0.109 83.626
4542.5 0.109 83.589 0.994 -6.27 0.994 -6.27 0.109 83.589
4567.458 0.11 83.552 0.994 -6.308 0.994 -6.308 0.11 83.552
4592.417 0.111 83.514 0.994 -6.346 0.994 -6.346 0.111 83.514
4617.375 0.111 83.477 0.994 -6.384 0.994 -6.384 0.111 83.477
4642.333 0.112 83.44 0.993 -6.422 0.993 -6.422 0.112 83.44
4667.292 0.113 83.403 0.993 -6.46 0.993 -6.46 0.113 83.403
4692.25 0.113 83.366 0.993 -6.498 0.993 -6.498 0.113 83.366
4717.208 0.114 83.329 0.993 -6.536 0.993 -6.536 0.114 83.329
4742.167 0.114 83.292 0.993 -6.574 0.993 -6.574 0.114 83.292
4767.125 0.115 83.255 0.993 -6.612 0.993 -6.612 0.115 83.255
4792.083 0.116 83.218 0.993 -6.65 0.993 -6.65 0.116 83.218
4817.042 0.116 83.181 0.993 -6.688 0.993 -6.688 0.116 83.181
4842 0.117 83.143 0.993 -6.725 0.993 -6.725 0.117 83.143
4866.958 0.118 83.106 0.993 -6.763 0.993 -6.763 0.118 83.106
4891.917 0.118 83.069 0.993 -6.801 0.993 -6.801 0.118 83.069
4916.875 0.119 83.032 0.993 -6.839 0.993 -6.839 0.119 83.032
4941.833 0.12 82.995 0.993 -6.876 0.993 -6.876 0.12 82.995
4966.792 0.12 82.959 0.992 -6.914 0.992 -6.914 0.12 82.959
4991.75 0.121 82.922 0.992 -6.952 0.992 -6.952 0.121 82.922
5016.708 0.122 82.885 0.992 -6.989 0.992 -6.989 0.122 82.885
5041.667 0.122 82.848 0.992 -7.027 0.992 -7.027 0.122 82.848
5066.625 0.123 82.811 0.992 -7.064 0.992 -7.064 0.123 82.811
5091.583 0.124 82.774 0.992 -7.102 0.992 -7.102 0.124 82.774
5116.542 0.124 82.737 0.992 -7.139 0.992 -7.139 0.124 82.737
5141.5 0.125 82.7 0.992 -7.177 0.992 -7.177 0.125 82.7
5166.458 0.126 82.663 0.992 -7.214 0.992 -7.214 0.126 82.663
5191.417 0.126 82.627 0.992 -7.252 0.992 -7.252 0.126 82.627
5216.375 0.127 82.59 0.992 -7.289 0.992 -7.289 0.127 82.59
5241.333 0.128 82.553 0.992 -7.327 0.992 -7.327 0.128 82.553
5266.292 0.128 82.516 0.991 -7.364 0.991 -7.364 0.128 82.516
5291.25 0.129 82.479 0.991 -7.402 0.991 -7.402 0.129 82.479
5316.208 0.129 82.443 0.991 -7.439 0.991 -7.439 0.129 82.443
5341.167 0.13 82.406 0.991 -7.476 0.991 -7.476 0.13 82.406
5366.125 0.131 82.369 0.991 -7.514 0.991 -7.514 0.131 82.369
5391.083 0.131 82.332 0.991 -7.551 0.991 -7.551 0.131 82.332
5416.042 0.132 82.296 0.991 -7.588 0.991 -7.588 0.132 82.296
5441 0.133 82.259 0.991 -7.625 0.991 -7.625 0.133 82.259
5465.958 0.133 82.222 0.991 -7.663 0.991 -7.663 0.133 82.222
5490.917 0.134 82.186 0.991 -7.7 0.991 -7.7 0.134 82.186
5515.875 0.135 82.149 0.991 -7.737 0.991 -7.737 0.135 82.149
5540.833 0.135 82.112 0.991 -7.774 0.991 -7.774 0.135 82.112
5565.792 0.136 82.076 0.99 -7.812 0.99 -7.812 0.136 82.076
5590.75 0.137 82.039 0.99 -7.849 0.99 -7.849 0.137 82.039
5615.708 0.137 82.002 0.99 -7.886 0.99 -7.886 0.137 82.002
5640.667 0.138 81.966 0.99 -7.923 0.99 -7.923 0.138 81.966
5665.625 0.138 81.929 0.99 -7.96 0.99 -7.96 0.138 81.929
5690.583 0.139 81.893 0.99 -7.997 0.99 -7.997 0.139 81.893
5715.542 0.14 81.856 0.99 -8.034 0.99 -8.034 0.14 81.856
5740.5 0.14 81.82 0.99 -8.071 0.99 -8.071 0.14 81.82
5765.458 0.141 81.783 0.99 -8.108 0.99 -8.108 0.141 81.783
5790.417 0.142 81.747 0.99 -8.145 0.99 -8.145 0.142 81.747
5815.375 0.142 81.71 0.99 -8.182 0.99 -8.182 0.142 81.71
5840.333 0.143 81.674 0.989 -8.219 0.989 -8.219 0.143 81.674
5865.292 0.144 81.637 0.989 -8.256 0.989 -8.256 0.144 81.637
5890.25 0.144 81.601 0.989 -8.293 0.989 -8.293 0.144 81.601
5915.208 0.145 81.564 0.989 -8.33 0.989 -8.33 0.145 81.564
5940.167 0.146 81.528 0.989 -8.367 0.989 -8.367 0.146 81.528
5965.125 0.146 81.491 0.989 -8.404 0.989 -8.404 0.146 81.491
5990.083 0.147 81.455 0.989 -8.441 0.989 -8.441 0.147 81.455
6015.042 0.147 81.418 0.989 -8.478 0.989 -8.478 0.147 81.418
6040 0.148 81.382 0.989 -8.515 0.989 -8.515 0.148 81.382
6064.958 0.149 81.346 0.989 -8.551 0.989 -8.551 0.149 81.346
6089.917 0.149 81.309 0.989 -8.588 0.989 -8.588 0.149 81.309
6114.875 0.15 81.273 0.988 -8.625 0.988 -8.625 0.15 81.273
6139.833 0.151 81.237 0.988 -8.662 0.988 -8.662 0.151 81.237
6164.792 0.151 81.2 0.988 -8.699 0.988 -8.699 0.151 81.2
6189.75 0.152 81.164 0.988 -8.735 0.988 -8.735 0.152 81.164
6214.708 0.153 81.128 0.988 -8.772 0.988 -8.772 0.153 81.128
6239.667 0.153 81.091 0.988 -8.809 0.988 -8.809 0.153 81.091
6264.625 0.154 81.055 0.988 -8.846 0.988 -8.846 0.154 81.055
6289.583 0.154 81.019 0.988 -8.882 0.988 -8.882 0.154 81.019
6314.542 0.155 80.982 0.988 -8.919 0.988 -8.919 0.155 80.982
6339.5 0.156 80.946 0.988 -8.956 0.988 -8.956 0.156 80.946
6364.458 0.156 80.91 0.987 -8.992 0.987 -8.992 0.156 80.91
6389.417 0.157 80.874 0.987 -9.029 0.987 -9.029 0.157 80.874
6414.375 0.158 80.837 0.987 -9.066 0.987 -9.066 0.158 80.837
6439.333 0.158 80.801 0.987 -9.102 0.987 -9.102 0.158 80.801
6464.292 0.159 80.765 0.987 -9.139 0.987 -9.139 0.159 80.765
6489.25 0.159 80.729 0.987 -9.175 0.987 -9.175 0.159 80.729
6514.208 0.16 80.693 0.987 -9.212 0.987 -9.212 0.16 80.693
6539.167 0.161 80.656 0.987 -9.248 0.987 -9.248 0.161 80.656
6564.125 0.161 80.62 0.987 -9.285 0.987 -9.285 0.161 80.62
6589.083 0.162 80.584 0.987 -9.322 0.987 -9.322 0.162 80.584
6614.042 0.163 80.548 0.986 -9.358 0.986 -9.358 0.163 80.548
6639 0.163 80.512 0.986 -9.395 0.986 -9.395 0.163 80.512
6663.958 0.164 80.476 0.986 -9.431 0.986 -9.431 0.164 80.476
6688.917 0.164 80.44 0.986 -9.467 0.986 -9.467 0.164 80.44
6713.875 0.165 80.404 0.986 -9.504 0.986 -9.504 0.165 80.404
6738.833 0.166 80.368 0.986 -9.54 0.986 -9.54 0.166 80.368
6763.792 0.166 80.332 0.986 -9.577 0.986 -9.577 0.166 80.332
6788.75 0.167 80.295 0.986 -9.613 0.986 -9.613 0.167 80.295
6813.708 0.168 80.259 0.986 -9.65 0.986 -9.65 0.168 80.259
6838.667 0.168 80.223 0.985 -9.686 0.985 -9.686 0.168 80.223
6863.625 0.169 80.187 0.985 -9.722 0.985 -9.722 0.169 80.187
6888.583 0.169 80.151 0.985 -9.759 0.985 -9.759 0.169 80.151
6913.542 0.17 80.115 0.985 -9.795 0.985 -9.795 0.17 80.115
6938.5 0.171 80.079 0.985 -9.831 0.985 -9.831 0.171 80.079
6963.458 0.171 80.043 0.985 -9.868 0.985 -9.868 0.171 80.043
6988.417 0.172 80.007 0.985 -9.904 0.985 -9.904 0.172 80.007
7013.375 0.173 79.972 0.985 -9.94 0.985 -9.94 0.173 79.972
7038.333 0.173 79.936 0.985 -9.976 0.985 -9.976 0.173 79.936
7063.292 0.174 79.9 0.985 -10.013 0.985 -10.013 0.174 79.9
7088.25 0.174 79.864 0.984 -10.049 0.984 -10.049 0.174 79.864
7113.208 0.175 79.828 0.984 -10.085 0.984 -10.085 0.175 79.828
7138.167 0.176 79.792 0.984 -10.121 0.984 -10.121 0.176 79.792
7163.125 0.176 79.756 0.984 -10.158 0.984 -10.158 0.176 79.756
7188.083 0.177 79.72 0.984 -10.194 0.984 -10.194 0.177 79.72
7213.042 0.178 79.684 0.984 -10.23 0.984 -10.23 0.178 79.684
7238 0.178 79.649 0.984 -10.266 0.984 -10.266 0.178 79.649
7262.958 0.179 79.613 0.984 -10.302 0.984 -10.302 0.179 79.613
7287.917 0.179 79.577 0.983 -10.338 0.983 -10.338 0.179 79.577
7312.875 0.18 79.541 0.983 -10.374 0.983 -10.374 0.18 79.541
7337.833 0.181 79.505 0.983 -10.411 0.983 -10.411 0.181 79.505
7362.792 0.181 79.469 0.983 -10.447 0.983 -10.447 0.181 79.469
7387.75 0.182 79.434 0.983 -10.483 0.983 -10.483 0.182 79.434
7412.708 0.183 79.398 0.983 -10.519 0.983 -10.519 0.183 79.398
7437.667 0.183 79.362 0.983 -10.555 0.983 -10.555 0.183 79.362
7462.625 0.184 79.326 0.983 -10.591 0.983 -10.591 0.184 79.326
7487.583 0.184 79.291 0.983 -10.627 0.983 -10.627 0.184 79.291
7512.542 0.185 79.255 0.982 -10.663 0.982 -10.663 0.185 79.255
7537.5 0.186 79.219 0.982 -10.699 0.982 -10.699 0.186 79.219
7562.458 0.186 79.184 0.982 -10.735 0.982 -10.735 0.186 79.184
7587.417 0.187 79.148 0.982 -10.771 0.982 -10.771 0.187 79.148
7612.375 0.187 79.112 0.982 -10.807 0.982 -10.807 0.187 79.112
7637.333 0.188 79.076 0.982 -10.843 0.982 -10.843 0.188 79.076
7662.292 0.189 79.041 0.982 -10.879 0.982 -10.879 0.189 79.041
7687.25 0.189 79.005 0.982 -10.915 0.982 -10.915 0.189 79.005
7712.208 0.19 78.97 0.982 -10.95 0.982 -10.95 0.19 78.97
7737.167 0.191 78.934 0.981 -10.986 0.981 -10.986 0.191 78.934
7762.125 0.191 78.898 0.981 -11.022 0.981 -11.022 0.191 78.898
7787.083 0.192 78.863 0.981 -11.058 0.981 -11.058 0.192 78.863
7812.042 0.192 78.827 0.981 -11.094 0.981 -11.094 0.192 78.827
7837 0.193 78.792 0.981 -11.13 0.981 -11.13 0.193 78.792
7861.958 0.194 78.756 0.981 -11.166 0.981 -11.166 0.194 78.756
7886.917 0.194 78.72 0.981 -11.201 0.981 -11.201 0.194 78.72
7911.875 0.195 78.685 0.981 -11.237 0.981 -11.237 0.195 78.685
7936.833 0.195 78.649 0.98 -11.273 0.98 -11.273 0.195 78.649
7961.792 0.196 78.614 0.98 -11.309 0.98 -11.309 0.196 78.614
7986.75 0.197 78.578 0.98 -11.345 0.98 -11.345 0.197 78.578
8011.708 0.197 78.543 0.98 -11.38 0.98 -11.38 0.197 78.543
8036.667 0.198 78.507 0.98 -11.416 0.98 -11.416 0.198 78.507
8061.625 0.199 78.472 0.98 -11.452 0.98 -11.452 0.199 78.472
8086.583 0.199 78.436 0.98 -11.488 0.98 -11.488 0.199 78.436
8111.542 0.2 78.401 0.98 -11.523 0.98 -11.523 0.2 78.401
8136.5 0.2 78.365 0.979 -11.559 0.979 -11.559 0.2 78.365
8161.458 0.201 78.33 0.979 -11.595 0.979 -11.595 0.201 78.33
8186.417 0.202 78.295 0.979 -11.63 0.979 -11.63 0.202 78.295
8211.375 0.202 78.259 0.979 -11.666 0.979 -11.666 0.202 78.259
8236.333 0.203 78.224 0.979 -11.702 0.979 -11.702 0.203 78.224
8261.292 0.203 78.188 0.979 -11.737 0.979 -11.737 0.203 78.188
8286.25 0.204 78.153 0.979 -11.773 0.979 -11.773 0.204 78.153
8311.208 0.205 78.118 0.979 -11.808 0.979 -11.808 0.205 78.118
8336.167 0.205 78.082 0.978 -11.844 0.978 -11.844 0.205 78.082
8361.125 0.206 78.047 0.978 -11.88 0.978 -11.88 0.206 78.047
8386.083 0.206 78.012 0.978 -11.915 0.978 -11.915 0.206 78.012
