# MHZ S MA R 50

50 0.87 -29.502 0.492 60.484 0.492 60.484 0.87 -29.502
74.958 0.762 -40.327 0.647 49.652 0.647 49.652 0.762 -40.327
99.917 0.661 -48.559 0.75 41.413 0.75 41.413 0.661 -48.559
124.875 0.576 -54.796 0.817 35.168 0.817 35.168 0.576 -54.796
149.833 0.506 -59.584 0.862 30.373 0.862 30.373 0.506 -59.584
174.792 0.448 -63.33 0.894 26.62 0.894 26.62 0.448 -63.33
199.75 0.401 -66.318 0.916 23.624 0.916 23.624 0.401 -66.318
224.708 0.361 -68.748 0.932 21.187 0.932 21.187 0.361 -68.748
249.667 0.328 -70.757 0.944 19.17 0.944 19.17 0.328 -70.757
274.625 0.3 -72.443 0.953 17.477 0.953 17.477 0.3 -72.443
299.583 0.276 -73.877 0.961 16.035 0.961 16.035 0.276 -73.877
324.542 0.255 -75.111 0.966 14.793 0.966 14.793 0.255 -75.111
349.5 0.237 -76.184 0.971 13.713 0.971 13.713 0.237 -76.184
374.458 0.221 -77.125 0.975 12.763 0.975 12.763 0.221 -77.125
399.417 0.207 -77.958 0.978 11.922 0.978 11.922 0.207 -77.958
424.375 0.194 -78.701 0.981 11.172 0.981 11.172 0.194 -78.701
449.333 0.182 -79.367 0.983 10.497 0.983 10.497 0.182 -79.367
474.292 0.172 -79.968 0.985 9.888 0.985 9.888 0.172 -79.968
499.25 0.162 -80.513 0.986 9.334 0.986 9.334 0.162 -80.513
524.208 0.153 -81.01 0.988 8.827 0.988 8.827 0.153 -81.01
549.167 0.145 -81.466 0.989 8.363 0.989 8.363 0.145 -81.466
574.125 0.138 -81.885 0.99 7.934 0.99 7.934 0.138 -81.885
599.083 0.131 -82.272 0.991 7.538 0.991 7.538 0.131 -82.272
624.042 0.125 -82.63 0.992 7.17 0.992 7.17 0.125 -82.63
649 0.119 -82.963 0.992 6.827 0.992 6.827 0.119 -82.963
673.958 0.113 -83.273 0.993 6.506 0.993 6.506 0.113 -83.273
698.917 0.108 -83.563 0.994 6.205 0.994 6.205 0.108 -83.563
723.875 0.103 -83.835 0.994 5.922 0.994 5.922 0.103 -83.835
748.833 0.099 -84.09 0.995 5.655 0.995 5.655 0.099 -84.09
773.792 0.094 -84.33 0.995 5.403 0.995 5.403 0.094 -84.33
798.75 0.09 -84.557 0.996 5.164 0.996 5.164 0.09 -84.557
823.708 0.086 -84.77 0.996 4.938 0.996 4.938 0.086 -84.77
848.667 0.082 -84.973 0.996 4.722 0.996 4.722 0.082 -84.973
873.625 0.079 -85.164 0.996 4.517 0.996 4.517 0.079 -85.164
898.583 0.075 -85.346 0.997 4.321 0.997 4.321 0.075 -85.346
923.542 0.072 -85.518 0.997 4.133 0.997 4.133 0.072 -85.518
948.5 0.069 -85.682 0.997 3.954 0.997 3.954 0.069 -85.682
973.458 0.066 -85.837 0.997 3.781 0.997 3.781 0.066 -85.837
998.417 0.063 -85.986 0.998 3.616 0.998 3.616 0.063 -85.986
1023.375 0.06 -86.126 0.998 3.456 0.998 3.456 0.06 -86.126
1048.333 0.058 -86.261 0.998 3.303 0.998 3.303 0.058 -86.261
1073.292 0.055 -86.388 0.998 3.155 0.998 3.155 0.055 -86.388
1098.25 0.053 -86.509 0.998 3.011 0.998 3.011 0.053 -86.509
1123.208 0.05 -86.625 0.998 2.873 0.998 2.873 0.05 -86.625
1148.167 0.048 -86.734 0.998 2.739 0.998 2.739 0.048 -86.734
1173.125 0.046 -86.838 0.999 2.609 0.999 2.609 0.046 -86.838
1198.083 0.043 -86.936 0.999 2.483 0.999 2.483 0.043 -86.936
1223.042 0.041 -87.028 0.999 2.361 0.999 2.361 0.041 -87.028
1248 0.039 -87.114 0.999 2.242 0.999 2.242 0.039 -87.114
1272.958 0.037 -87.195 0.999 2.126 0.999 2.126 0.037 -87.195
1297.917 0.035 -87.269 0.999 2.014 0.999 2.014 0.035 -87.269
1322.875 0.033 -87.338 0.999 1.904 0.999 1.904 0.033 -87.338
1347.833 0.031 -87.4 0.999 1.797 0.999 1.797 0.031 -87.4
1372.792 0.03 -87.455 0.999 1.693 0.999 1.693 0.03 -87.455
1397.75 0.028 -87.502 0.999 1.59 0.999 1.59 0.028 -87.502
1422.708 0.026 -87.541 0.999 1.491 0.999 1.491 0.026 -87.541
1447.667 0.024 -87.571 0.999 1.393 0.999 1.393 0.024 -87.571
1472.625 0.023 -87.59 0.999 1.298 0.999 1.298 0.023 -87.59
1497.583 0.021 -87.597 0.999 1.204 0.999 1.204 0.021 -87.597
1522.542 0.019 -87.59 0.999 1.112 0.999 1.112 0.019 -87.59
1547.5 0.018 -87.566 0.999 1.022 0.999 1.022 0.018 -87.566
1572.458 0.016 -87.521 0.999 0.934 0.999 0.934 0.016 -87.521
1597.417 0.015 -87.449 0.999 0.848 0.999 0.848 0.015 -87.449
1622.375 0.013 -87.345 0.999 0.763 0.999 0.763 0.013 -87.345
1647.333 0.012 -87.195 0.999 0.679 0.999 0.679 0.012 -87.195
1672.292 0.01 -86.985 1 0.597 1 0.597 0.01 -86.985
1697.25 9.019e-3 -86.688 1 0.516 1 0.516 9.019e-3 -86.688
1722.208 7.633e-3 -86.26 1 0.437 1 0.437 7.633e-3 -86.26
1747.167 6.27e-3 -85.618 1 0.358 1 0.358 6.27e-3 -85.618
1772.125 4.928e-3 -84.598 1 0.281 1 0.281 4.928e-3 -84.598
1797.083 3.61e-3 -82.795 1 0.205 1 0.205 3.61e-3 -82.795
1822.042 2.318e-3 -78.93 1 0.13 1 0.13 2.318e-3 -78.93
1847 1.081e-3 -65.923 1 0.057 1 0.057 1.081e-3 -65.923
1871.958 523.7e-6 32.844 1 -0.016 1 -0.016 523.7e-6 32.844
1896.917 1.6e-3 73.956 1 -0.088 1 -0.088 1.6e-3 73.956
1921.875 2.812e-3 80.839 1 -0.159 1 -0.159 2.812e-3 80.839
1946.833 4.024e-3 83.495 1 -0.229 1 -0.229 4.024e-3 83.495
1971.792 5.226e-3 84.873 1 -0.298 1 -0.298 5.226e-3 84.873
1996.75 6.416e-3 85.702 1 -0.367 1 -0.367 6.416e-3 85.702
2021.708 7.593e-3 86.245 1 -0.434 1 -0.434 7.593e-3 86.245
2046.667 8.758e-3 86.62 1 -0.501 1 -0.501 8.758e-3 86.62
2071.625 9.91e-3 86.889 1 -0.567 1 -0.567 9.91e-3 86.889
2096.583 0.011 87.086 0.999 -0.633 0.999 -0.633 0.011 87.086
2121.542 0.012 87.233 0.999 -0.697 0.999 -0.697 0.012 87.233
2146.5 0.013 87.343 0.999 -0.761 0.999 -0.761 0.013 87.343
2171.458 0.014 87.425 0.999 -0.825 0.999 -0.825 0.014 87.425
2196.417 0.015 87.486 0.999 -0.887 0.999 -0.887 0.015 87.486
2221.375 0.017 87.53 0.999 -0.95 0.999 -0.95 0.017 87.53
2246.333 0.018 87.561 0.999 -1.011 0.999 -1.011 0.018 87.561
2271.292 0.019 87.581 0.999 -1.072 0.999 -1.072 0.019 87.581
2296.25 0.02 87.593 0.999 -1.133 0.999 -1.133 0.02 87.593
2321.208 0.021 87.597 0.999 -1.193 0.999 -1.193 0.021 87.597
2346.167 0.022 87.595 0.999 -1.252 0.999 -1.252 0.022 87.595
2371.125 0.023 87.588 0.999 -1.311 0.999 -1.311 0.023 87.588
2396.083 0.024 87.576 0.999 -1.37 0.999 -1.37 0.024 87.576
2421.042 0.025 87.561 0.999 -1.428 0.999 -1.428 0.025 87.561
2446 0.026 87.543 0.999 -1.485 0.999 -1.485 0.026 87.543
2470.958 0.027 87.522 0.999 -1.542 0.999 -1.542 0.027 87.522
2495.917 0.028 87.498 0.999 -1.599 0.999 -1.599 0.028 87.498
2520.875 0.029 87.472 0.999 -1.656 0.999 -1.656 0.029 87.472
2545.833 0.03 87.445 0.999 -1.711 0.999 -1.711 0.03 87.445
2570.792 0.031 87.416 0.999 -1.767 0.999 -1.767 0.031 87.416
2595.75 0.032 87.386 0.999 -1.822 0.999 -1.822 0.032 87.386
2620.708 0.033 87.354 0.999 -1.877 0.999 -1.877 0.033 87.354
2645.667 0.034 87.321 0.999 -1.931 0.999 -1.931 0.034 87.321
2670.625 0.035 87.287 0.999 -1.986 0.999 -1.986 0.035 87.287
2695.583 0.036 87.253 0.999 -2.039 0.999 -2.039 0.036 87.253
2720.542 0.037 87.218 0.999 -2.093 0.999 -2.093 0.037 87.218
2745.5 0.037 87.181 0.999 -2.146 0.999 -2.146 0.037 87.181
2770.458 0.038 87.145 0.999 -2.199 0.999 -2.199 0.038 87.145
2795.417 0.039 87.108 0.999 -2.251 0.999 -2.251 0.039 87.108
2820.375 0.04 87.07 0.999 -2.303 0.999 -2.303 0.04 87.07
2845.333 0.041 87.032 0.999 -2.355 0.999 -2.355 0.041 87.032
2870.292 0.042 86.993 0.999 -2.407 0.999 -2.407 0.042 86.993
2895.25 0.043 86.954 0.999 -2.458 0.999 -2.458 0.043 86.954
2920.208 0.044 86.915 0.999 -2.51 0.999 -2.51 0.044 86.915
2945.167 0.045 86.876 0.999 -2.56 0.999 -2.56 0.045 86.876
2970.125 0.046 86.836 0.999 -2.611 0.999 -2.611 0.046 86.836
2995.083 0.046 86.796 0.998 -2.662 0.998 -2.662 0.046 86.796
3020.042 0.047 86.756 0.998 -2.712 0.998 -2.712 0.047 86.756
3045 0.048 86.716 0.998 -2.762 0.998 -2.762 0.048 86.716
3069.958 0.049 86.675 0.998 -2.811 0.998 -2.811 0.049 86.675
3094.917 0.05 86.635 0.998 -2.861 0.998 -2.861 0.05 86.635
3119.875 0.051 86.594 0.998 -2.91 0.998 -2.91 0.051 86.594
3144.833 0.052 86.553 0.998 -2.959 0.998 -2.959 0.052 86.553
3169.792 0.052 86.512 0.998 -3.008 0.998 -3.008 0.052 86.512
3194.75 0.053 86.472 0.998 -3.056 0.998 -3.056 0.053 86.472
3219.708 0.054 86.43 0.998 -3.105 0.998 -3.105 0.054 86.43
3244.667 0.055 86.389 0.998 -3.153 0.998 -3.153 0.055 86.389
3269.625 0.056 86.348 0.998 -3.201 0.998 -3.201 0.056 86.348
3294.583 0.057 86.307 0.998 -3.249 0.998 -3.249 0.057 86.307
3319.542 0.058 86.266 0.998 -3.297 0.998 -3.297 0.058 86.266
3344.5 0.058 86.224 0.998 -3.344 0.998 -3.344 0.058 86.224
3369.458 0.059 86.183 0.998 -3.392 0.998 -3.392 0.059 86.183
3394.417 0.06 86.142 0.998 -3.439 0.998 -3.439 0.06 86.142
3419.375 0.061 86.1 0.998 -3.486 0.998 -3.486 0.061 86.1
3444.333 0.062 86.059 0.998 -3.533 0.998 -3.533 0.062 86.059
3469.292 0.062 86.018 0.998 -3.579 0.998 -3.579 0.062 86.018
3494.25 0.063 85.976 0.998 -3.626 0.998 -3.626 0.063 85.976
3519.208 0.064 85.935 0.998 -3.672 0.998 -3.672 0.064 85.935
3544.167 0.065 85.894 0.997 -3.718 0.997 -3.718 0.065 85.894
3569.125 0.066 85.852 0.997 -3.764 0.997 -3.764 0.066 85.852
3594.083 0.066 85.811 0.997 -3.81 0.997 -3.81 0.066 85.811
3619.042 0.067 85.77 0.997 -3.856 0.997 -3.856 0.067 85.77
3644 0.068 85.729 0.997 -3.902 0.997 -3.902 0.068 85.729
3668.958 0.069 85.687 0.997 -3.947 0.997 -3.947 0.069 85.687
3693.917 0.07 85.646 0.997 -3.993 0.997 -3.993 0.07 85.646
3718.875 0.07 85.605 0.997 -4.038 0.997 -4.038 0.07 85.605
3743.833 0.071 85.564 0.997 -4.083 0.997 -4.083 0.071 85.564
3768.792 0.072 85.523 0.997 -4.128 0.997 -4.128 0.072 85.523
3793.75 0.073 85.482 0.997 -4.173 0.997 -4.173 0.073 85.482
3818.708 0.074 85.44 0.997 -4.218 0.997 -4.218 0.074 85.44
3843.667 0.074 85.399 0.997 -4.262 0.997 -4.262 0.074 85.399
3868.625 0.075 85.358 0.997 -4.307 0.997 -4.307 0.075 85.358
3893.583 0.076 85.317 0.997 -4.351 0.997 -4.351 0.076 85.317
3918.542 0.077 85.276 0.997 -4.396 0.997 -4.396 0.077 85.276
3943.5 0.077 85.235 0.997 -4.44 0.997 -4.44 0.077 85.235
3968.458 0.078 85.195 0.997 -4.484 0.997 -4.484 0.078 85.195
3993.417 0.079 85.154 0.996 -4.528 0.996 -4.528 0.079 85.154
4018.375 0.08 85.113 0.996 -4.572 0.996 -4.572 0.08 85.113
4043.333 0.08 85.072 0.996 -4.616 0.996 -4.616 0.08 85.072
4068.292 0.081 85.031 0.996 -4.659 0.996 -4.659 0.081 85.031
4093.25 0.082 84.991 0.996 -4.703 0.996 -4.703 0.082 84.991
4118.208 0.083 84.95 0.996 -4.746 0.996 -4.746 0.083 84.95
4143.167 0.084 84.909 0.996 -4.79 0.996 -4.79 0.084 84.909
4168.125 0.084 84.869 0.996 -4.833 0.996 -4.833 0.084 84.869
4193.083 0.085 84.828 0.996 -4.876 0.996 -4.876 0.085 84.828
4218.042 0.086 84.788 0.996 -4.919 0.996 -4.919 0.086 84.788
4243 0.087 84.747 0.996 -4.962 0.996 -4.962 0.087 84.747
4267.958 0.087 84.707 0.996 -5.005 0.996 -5.005 0.087 84.707
4292.917 0.088 84.666 0.996 -5.048 0.996 -5.048 0.088 84.666
4317.875 0.089 84.626 0.996 -5.091 0.996 -5.091 0.089 84.626
4342.833 0.089 84.586 0.996 -5.134 0.996 -5.134 0.089 84.586
4367.792 0.09 84.546 0.995 -5.176 0.995 -5.176 0.09 84.546
4392.75 0.091 84.505 0.995 -5.219 0.995 -5.219 0.091 84.505
4417.708 0.092 84.465 0.995 -5.261 0.995 -5.261 0.092 84.465
4442.667 0.092 84.425 0.995 -5.304 0.995 -5.304 0.092 84.425
4467.625 0.093 84.385 0.995 -5.346 0.995 -5.346 0.093 84.385
4492.583 0.094 84.345 0.995 -5.388 0.995 -5.388 0.094 84.345
4517.542 0.095 84.305 0.995 -5.43 0.995 -5.43 0.095 84.305
4542.5 0.095 84.265 0.995 -5.472 0.995 -5.472 0.095 84.265
4567.458 0.096 84.225 0.995 -5.514 0.995 -5.514 0.096 84.225
4592.417 0.097 84.185 0.995 -5.556 0.995 -5.556 0.097 84.185
4617.375 0.098 84.145 0.995 -5.598 0.995 -5.598 0.098 84.145
4642.333 0.098 84.105 0.995 -5.64 0.995 -5.64 0.098 84.105
4667.292 0.099 84.065 0.995 -5.681 0.995 -5.681 0.099 84.065
4692.25 0.1 84.025 0.995 -5.723 0.995 -5.723 0.1 84.025
4717.208 0.1 83.986 0.995 -5.765 0.995 -5.765 0.1 83.986
4742.167 0.101 83.946 0.994 -5.806 0.994 -5.806 0.101 83.946
4767.125 0.102 83.906 0.994 -5.848 0.994 -5.848 0.102 83.906
4792.083 0.103 83.867 0.994 -5.889 0.994 -5.889 0.103 83.867
4817.042 0.103 83.827 0.994 -5.93 0.994 -5.93 0.103 83.827
4842 0.104 83.787 0.994 -5.972 0.994 -5.972 0.104 83.787
4866.958 0.105 83.748 0.994 -6.013 0.994 -6.013 0.105 83.748
4891.917 0.105 83.708 0.994 -6.054 0.994 -6.054 0.105 83.708
4916.875 0.106 83.669 0.994 -6.095 0.994 -6.095 0.106 83.669
4941.833 0.107 83.63 0.994 -6.136 0.994 -6.136 0.107 83.63
4966.792 0.108 83.59 0.994 -6.177 0.994 -6.177 0.108 83.59
4991.75 0.108 83.551 0.994 -6.218 0.994 -6.218 0.108 83.551
5016.708 0.109 83.511 0.994 -6.259 0.994 -6.259 0.109 83.511
5041.667 0.11 83.472 0.994 -6.299 0.994 -6.299 0.11 83.472
5066.625 0.11 83.433 0.993 -6.34 0.993 -6.34 0.11 83.433
5091.583 0.111 83.394 0.993 -6.381 0.993 -6.381 0.111 83.394
5116.542 0.112 83.355 0.993 -6.422 0.993 -6.422 0.112 83.355
5141.5 0.113 83.315 0.993 -6.462 0.993 -6.462 0.113 83.315
5166.458 0.113 83.276 0.993 -6.503 0.993 -6.503 0.113 83.276
5191.417 0.114 83.237 0.993 -6.543 0.993 -6.543 0.114 83.237
5216.375 0.115 83.198 0.993 -6.583 0.993 -6.583 0.115 83.198
5241.333 0.115 83.159 0.993 -6.624 0.993 -6.624 0.115 83.159
5266.292 0.116 83.12 0.993 -6.664 0.993 -6.664 0.116 83.12
5291.25 0.117 83.081 0.993 -6.704 0.993 -6.704 0.117 83.081
5316.208 0.117 83.042 0.993 -6.745 0.993 -6.745 0.117 83.042
5341.167 0.118 83.003 0.993 -6.785 0.993 -6.785 0.118 83.003
5366.125 0.119 82.964 0.992 -6.825 0.992 -6.825 0.119 82.964
5391.083 0.12 82.926 0.992 -6.865 0.992 -6.865 0.12 82.926
5416.042 0.12 82.887 0.992 -6.905 0.992 -6.905 0.12 82.887
5441 0.121 82.848 0.992 -6.945 0.992 -6.945 0.121 82.848
5465.958 0.122 82.809 0.992 -6.985 0.992 -6.985 0.122 82.809
5490.917 0.122 82.771 0.992 -7.025 0.992 -7.025 0.122 82.771
5515.875 0.123 82.732 0.992 -7.065 0.992 -7.065 0.123 82.732
5540.833 0.124 82.693 0.992 -7.104 0.992 -7.104 0.124 82.693
5565.792 0.124 82.655 0.992 -7.144 0.992 -7.144 0.124 82.655
5590.75 0.125 82.616 0.992 -7.184 0.992 -7.184 0.125 82.616
5615.708 0.126 82.577 0.992 -7.224 0.992 -7.224 0.126 82.577
5640.667 0.126 82.539 0.992 -7.263 0.992 -7.263 0.126 82.539
5665.625 0.127 82.5 0.991 -7.303 0.991 -7.303 0.127 82.5
5690.583 0.128 82.462 0.991 -7.342 0.991 -7.342 0.128 82.462
5715.542 0.128 82.423 0.991 -7.382 0.991 -7.382 0.128 82.423
5740.5 0.129 82.385 0.991 -7.421 0.991 -7.421 0.129 82.385
5765.458 0.13 82.347 0.991 -7.461 0.991 -7.461 0.13 82.347
5790.417 0.131 82.308 0.991 -7.5 0.991 -7.5 0.131 82.308
5815.375 0.131 82.27 0.991 -7.54 0.991 -7.54 0.131 82.27
5840.333 0.132 82.232 0.991 -7.579 0.991 -7.579 0.132 82.232
5865.292 0.133 82.193 0.991 -7.618 0.991 -7.618 0.133 82.193
5890.25 0.133 82.155 0.991 -7.657 0.991 -7.657 0.133 82.155
5915.208 0.134 82.117 0.991 -7.697 0.991 -7.697 0.134 82.117
5940.167 0.135 82.079 0.99 -7.736 0.99 -7.736 0.135 82.079
5965.125 0.135 82.04 0.99 -7.775 0.99 -7.775 0.135 82.04
5990.083 0.136 82.002 0.99 -7.814 0.99 -7.814 0.136 82.002
6015.042 0.137 81.964 0.99 -7.853 0.99 -7.853 0.137 81.964
6040 0.137 81.926 0.99 -7.892 0.99 -7.892 0.137 81.926
6064.958 0.138 81.888 0.99 -7.931 0.99 -7.931 0.138 81.888
6089.917 0.139 81.85 0.99 -7.97 0.99 -7.97 0.139 81.85
6114.875 0.139 81.812 0.99 -8.009 0.99 -8.009 0.139 81.812
6139.833 0.14 81.774 0.99 -8.048 0.99 -8.048 0.14 81.774
6164.792 0.141 81.736 0.99 -8.087 0.99 -8.087 0.141 81.736
6189.75 0.141 81.698 0.99 -8.125 0.99 -8.125 0.141 81.698
6214.708 0.142 81.66 0.989 -8.164 0.989 -8.164 0.142 81.66
6239.667 0.143 81.622 0.989 -8.203 0.989 -8.203 0.143 81.622
6264.625 0.143 81.584 0.989 -8.242 0.989 -8.242 0.143 81.584
6289.583 0.144 81.546 0.989 -8.28 0.989 -8.28 0.144 81.546
6314.542 0.145 81.509 0.989 -8.319 0.989 -8.319 0.145 81.509
6339.5 0.145 81.471 0.989 -8.358 0.989 -8.358 0.145 81.471
6364.458 0.146 81.433 0.989 -8.396 0.989 -8.396 0.146 81.433
6389.417 0.147 81.395 0.989 -8.435 0.989 -8.435 0.147 81.395
6414.375 0.147 81.358 0.989 -8.473 0.989 -8.473 0.147 81.358
6439.333 0.148 81.32 0.989 -8.512 0.989 -8.512 0.148 81.32
6464.292 0.149 81.282 0.988 -8.55 0.988 -8.55 0.149 81.282
6489.25 0.149 81.245 0.988 -8.589 0.988 -8.589 0.149 81.245
6514.208 0.15 81.207 0.988 -8.627 0.988 -8.627 0.15 81.207
6539.167 0.151 81.169 0.988 -8.665 0.988 -8.665 0.151 81.169
6564.125 0.151 81.132 0.988 -8.704 0.988 -8.704 0.151 81.132
6589.083 0.152 81.094 0.988 -8.742 0.988 -8.742 0.152 81.094
6614.042 0.153 81.057 0.988 -8.78 0.988 -8.78 0.153 81.057
6639 0.153 81.019 0.988 -8.818 0.988 -8.818 0.153 81.019
6663.958 0.154 80.982 0.988 -8.857 0.988 -8.857 0.154 80.982
6688.917 0.155 80.944 0.988 -8.895 0.988 -8.895 0.155 80.944
6713.875 0.155 80.907 0.987 -8.933 0.987 -8.933 0.155 80.907
6738.833 0.156 80.869 0.987 -8.971 0.987 -8.971 0.156 80.869
6763.792 0.157 80.832 0.987 -9.009 0.987 -9.009 0.157 80.832
6788.75 0.157 80.794 0.987 -9.047 0.987 -9.047 0.157 80.794
6813.708 0.158 80.757 0.987 -9.085 0.987 -9.085 0.158 80.757
6838.667 0.159 80.72 0.987 -9.123 0.987 -9.123 0.159 80.72
6863.625 0.159 80.682 0.987 -9.161 0.987 -9.161 0.159 80.682
6888.583 0.16 80.645 0.987 -9.199 0.987 -9.199 0.16 80.645
6913.542 0.161 80.608 0.987 -9.237 0.987 -9.237 0.161 80.608
6938.5 0.161 80.57 0.986 -9.275 0.986 -9.275 0.161 80.57
6963.458 0.162 80.533 0.986 -9.313 0.986 -9.313 0.162 80.533
6988.417 0.162 80.496 0.986 -9.351 0.986 -9.351 0.162 80.496
7013.375 0.163 80.459 0.986 -9.389 0.986 -9.389 0.163 80.459
7038.333 0.164 80.422 0.986 -9.427 0.986 -9.427 0.164 80.422
7063.292 0.164 80.384 0.986 -9.464 0.986 -9.464 0.164 80.384
7088.25 0.165 80.347 0.986 -9.502 0.986 -9.502 0.165 80.347
7113.208 0.166 80.31 0.986 -9.54 0.986 -9.54 0.166 80.31
7138.167 0.166 80.273 0.986 -9.578 0.986 -9.578 0.166 80.273
7163.125 0.167 80.236 0.986 -9.615 0.986 -9.615 0.167 80.236
7188.083 0.168 80.199 0.985 -9.653 0.985 -9.653 0.168 80.199
7213.042 0.168 80.162 0.985 -9.691 0.985 -9.691 0.168 80.162
7238 0.169 80.125 0.985 -9.728 0.985 -9.728 0.169 80.125
7262.958 0.17 80.088 0.985 -9.766 0.985 -9.766 0.17 80.088
7287.917 0.17 80.051 0.985 -9.803 0.985 -9.803 0.17 80.051
7312.875 0.171 80.014 0.985 -9.841 0.985 -9.841 0.171 80.014
7337.833 0.172 79.977 0.985 -9.878 0.985 -9.878 0.172 79.977
7362.792 0.172 79.94 0.985 -9.916 0.985 -9.916 0.172 79.94
7387.75 0.173 79.903 0.985 -9.953 0.985 -9.953 0.173 79.903
7412.708 0.173 79.866 0.984 -9.991 0.984 -9.991 0.173 79.866
7437.667 0.174 79.829 0.984 -10.028 0.984 -10.028 0.174 79.829
7462.625 0.175 79.793 0.984 -10.065 0.984 -10.065 0.175 79.793
7487.583 0.175 79.756 0.984 -10.103 0.984 -10.103 0.175 79.756
7512.542 0.176 79.719 0.984 -10.14 0.984 -10.14 0.176 79.719
7537.5 0.177 79.682 0.984 -10.177 0.984 -10.177 0.177 79.682
7562.458 0.177 79.645 0.984 -10.215 0.984 -10.215 0.177 79.645
7587.417 0.178 79.609 0.984 -10.252 0.984 -10.252 0.178 79.609
7612.375 0.179 79.572 0.983 -10.289 0.983 -10.289 0.179 79.572
7637.333 0.179 79.535 0.983 -10.327 0.983 -10.327 0.179 79.535
7662.292 0.18 79.498 0.983 -10.364 0.983 -10.364 0.18 79.498
7687.25 0.181 79.462 0.983 -10.401 0.983 -10.401 0.181 79.462
7712.208 0.181 79.425 0.983 -10.438 0.983 -10.438 0.181 79.425
7737.167 0.182 79.388 0.983 -10.475 0.983 -10.475 0.182 79.388
7762.125 0.182 79.352 0.983 -10.512 0.983 -10.512 0.182 79.352
7787.083 0.183 79.315 0.983 -10.549 0.983 -10.549 0.183 79.315
7812.042 0.184 79.279 0.983 -10.586 0.983 -10.586 0.184 79.279
7837 0.184 79.242 0.982 -10.624 0.982 -10.624 0.184 79.242
7861.958 0.185 79.206 0.982 -10.661 0.982 -10.661 0.185 79.206
7886.917 0.186 79.169 0.982 -10.698 0.982 -10.698 0.186 79.169
7911.875 0.186 79.132 0.982 -10.735 0.982 -10.735 0.186 79.132
7936.833 0.187 79.096 0.982 -10.772 0.982 -10.772 0.187 79.096
7961.792 0.188 79.059 0.982 -10.808 0.982 -10.808 0.188 79.059
7986.75 0.188 79.023 0.982 -10.845 0.982 -10.845 0.188 79.023
8011.708 0.189 78.987 0.982 -10.882 0.982 -10.882 0.189 78.987
8036.667 0.189 78.95 0.981 -10.919 0.981 -10.919 0.189 78.95
8061.625 0.19 78.914 0.981 -10.956 0.981 -10.956 0.19 78.914
8086.583 0.191 78.877 0.981 -10.993 0.981 -10.993 0.191 78.877
8111.542 0.191 78.841 0.981 -11.03 0.981 -11.03 0.191 78.841
8136.5 0.192 78.805 0.981 -11.066 0.981 -11.066 0.192 78.805
8161.458 0.193 78.768 0.981 -11.103 0.981 -11.103 0.193 78.768
8186.417 0.193 78.732 0.981 -11.14 0.981 -11.14 0.193 78.732
8211.375 0.194 78.696 0.981 -11.177 0.981 -11.177 0.194 78.696
8236.333 0.194 78.659 0.98 -11.213 0.98 -11.213 0.194 78.659
8261.292 0.195 78.623 0.98 -11.25 0.98 -11.25 0.195 78.623
8286.25 0.196 78.587 0.98 -11.287 0.98 -11.287 0.196 78.587
8311.208 0.196 78.551 0.98 -11.323 0.98 -11.323 0.196 78.551
8336.167 0.197 78.514 0.98 -11.36 0.98 -11.36 0.197 78.514
