# MHZ S MA R 50

50 0.992 -7.341 0.128 82.656 0.128 82.656 0.992 -7.341
74.958 0.982 -10.933 0.19 79.062 0.19 79.062 0.982 -10.933
99.917 0.968 -14.443 0.249 75.55 0.249 75.55 0.968 -14.443
124.875 0.952 -17.849 0.307 72.142 0.307 72.142 0.952 -17.849
149.833 0.933 -21.134 0.361 68.856 0.361 68.856 0.933 -21.134
174.792 0.911 -24.284 0.411 65.704 0.411 65.704 0.911 -24.284
199.75 0.889 -27.289 0.458 62.697 0.458 62.697 0.889 -27.289
224.708 0.865 -30.146 0.502 59.838 0.502 59.838 0.865 -30.146
249.667 0.84 -32.853 0.542 57.13 0.542 57.13 0.84 -32.853
274.625 0.815 -35.41 0.579 54.571 0.579 54.571 0.815 -35.41
299.583 0.79 -37.82 0.613 52.158 0.613 52.158 0.79 -37.82
324.542 0.765 -40.09 0.644 49.887 0.644 49.887 0.765 -40.09
349.5 0.74 -42.224 0.672 47.752 0.672 47.752 0.74 -42.224
374.458 0.716 -44.229 0.698 45.745 0.698 45.745 0.716 -44.229
399.417 0.693 -46.113 0.721 43.859 0.721 43.859 0.693 -46.113
424.375 0.67 -47.883 0.742 42.087 0.742 42.087 0.67 -47.883
449.333 0.648 -49.547 0.761 40.421 0.761 40.421 0.648 -49.547
474.292 0.627 -51.111 0.778 38.855 0.778 38.855 0.627 -51.111
499.25 0.607 -52.583 0.794 37.382 0.794 37.382 0.607 -52.583
524.208 0.588 -53.968 0.809 35.995 0.809 35.995 0.588 -53.968
549.167 0.569 -55.274 0.822 34.687 0.822 34.687 0.569 -55.274
574.125 0.551 -56.505 0.834 33.454 0.834 33.454 0.551 -56.505
599.083 0.534 -57.667 0.845 32.29 0.845 32.29 0.534 -57.667
624.042 0.518 -58.766 0.855 31.189 0.855 31.189 0.518 -58.766
649 0.502 -59.805 0.864 30.148 0.864 30.148 0.502 -59.805
673.958 0.487 -60.79 0.873 29.162 0.873 29.162 0.487 -60.79
698.917 0.473 -61.723 0.881 28.227 0.881 28.227 0.473 -61.723
723.875 0.459 -62.609 0.888 27.339 0.888 27.339 0.459 -62.609
748.833 0.446 -63.45 0.895 26.495 0.895 26.495 0.446 -63.45
773.792 0.434 -64.251 0.901 25.693 0.901 25.693 0.434 -64.251
798.75 0.421 -65.013 0.906 24.929 0.906 24.929 0.421 -65.013
823.708 0.41 -65.74 0.912 24.2 0.912 24.2 0.41 -65.74
848.667 0.399 -66.433 0.917 23.505 0.917 23.505 0.399 -66.433
873.625 0.388 -67.095 0.921 22.84 0.921 22.84 0.388 -67.095
898.583 0.378 -67.728 0.925 22.205 0.925 22.205 0.378 -67.728
923.542 0.368 -68.334 0.929 21.597 0.929 21.597 0.368 -68.334
948.5 0.359 -68.915 0.933 21.015 0.933 21.015 0.359 -68.915
973.458 0.35 -69.471 0.936 20.457 0.936 20.457 0.35 -69.471
998.417 0.341 -70.005 0.94 19.921 0.94 19.921 0.341 -70.005
1023.375 0.332 -70.517 0.943 19.406 0.943 19.406 0.332 -70.517
1048.333 0.324 -71.01 0.946 18.911 0.946 18.911 0.324 -71.01
1073.292 0.316 -71.484 0.948 18.435 0.948 18.435 0.316 -71.484
1098.25 0.309 -71.941 0.951 17.976 0.951 17.976 0.309 -71.941
1123.208 0.301 -72.38 0.953 17.534 0.953 17.534 0.301 -72.38
1148.167 0.294 -72.804 0.955 17.108 0.955 17.108 0.294 -72.804
1173.125 0.287 -73.214 0.957 16.696 0.957 16.696 0.287 -73.214
1198.083 0.281 -73.609 0.959 16.299 0.959 16.299 0.281 -73.609
1223.042 0.274 -73.991 0.961 15.915 0.961 15.915 0.274 -73.991
1248 0.268 -74.36 0.963 15.543 0.963 15.543 0.268 -74.36
1272.958 0.262 -74.717 0.965 15.183 0.965 15.183 0.262 -74.717
1297.917 0.256 -75.063 0.966 14.835 0.966 14.835 0.256 -75.063
1322.875 0.25 -75.398 0.968 14.498 0.968 14.498 0.25 -75.398
1347.833 0.245 -75.723 0.969 14.17 0.969 14.17 0.245 -75.723
1372.792 0.239 -76.038 0.97 13.853 0.97 13.853 0.239 -76.038
1397.75 0.234 -76.344 0.972 13.544 0.972 13.544 0.234 -76.344
1422.708 0.229 -76.641 0.973 13.245 0.973 13.245 0.229 -76.641
1447.667 0.224 -76.929 0.974 12.954 0.974 12.954 0.224 -76.929
1472.625 0.219 -77.209 0.975 12.67 0.975 12.67 0.219 -77.209
1497.583 0.215 -77.482 0.976 12.395 0.976 12.395 0.215 -77.482
1522.542 0.21 -77.748 0.977 12.127 0.977 12.127 0.21 -77.748
1547.5 0.206 -78.006 0.978 11.865 0.978 11.865 0.206 -78.006
1572.458 0.201 -78.258 0.979 11.611 0.979 11.611 0.201 -78.258
1597.417 0.197 -78.503 0.98 11.363 0.98 11.363 0.197 -78.503
1622.375 0.193 -78.742 0.981 11.121 0.981 11.121 0.193 -78.742
1647.333 0.189 -78.975 0.982 10.884 0.982 10.884 0.189 -78.975
1672.292 0.185 -79.203 0.982 10.654 0.982 10.654 0.185 -79.203
1697.25 0.181 -79.425 0.983 10.429 0.983 10.429 0.181 -79.425
1722.208 0.177 -79.641 0.984 10.209 0.984 10.209 0.177 -79.641
1747.167 0.174 -79.853 0.984 9.993 0.984 9.993 0.174 -79.853
1772.125 0.17 -80.06 0.985 9.783 0.985 9.783 0.17 -80.06
1797.083 0.166 -80.263 0.986 9.577 0.986 9.577 0.166 -80.263
1822.042 0.163 -80.46 0.986 9.376 0.986 9.376 0.163 -80.46
1847 0.16 -80.654 0.987 9.179 0.987 9.179 0.16 -80.654
1871.958 0.156 -80.843 0.987 8.986 0.987 8.986 0.156 -80.843
1896.917 0.153 -81.029 0.988 8.797 0.988 8.797 0.153 -81.029
1921.875 0.15 -81.21 0.988 8.611 0.988 8.611 0.15 -81.21
1946.833 0.147 -81.388 0.989 8.429 0.989 8.429 0.147 -81.388
1971.792 0.144 -81.563 0.989 8.251 0.989 8.251 0.144 -81.563
1996.75 0.14 -81.733 0.99 8.076 0.99 8.076 0.14 -81.733
2021.708 0.138 -81.901 0.99 7.905 0.99 7.905 0.138 -81.901
2046.667 0.135 -82.065 0.99 7.736 0.99 7.736 0.135 -82.065
2071.625 0.132 -82.226 0.991 7.571 0.991 7.571 0.132 -82.226
2096.583 0.129 -82.384 0.991 7.408 0.991 7.408 0.129 -82.384
2121.542 0.126 -82.539 0.992 7.249 0.992 7.249 0.126 -82.539
2146.5 0.123 -82.691 0.992 7.092 0.992 7.092 0.123 -82.691
2171.458 0.121 -82.84 0.992 6.938 0.992 6.938 0.121 -82.84
2196.417 0.118 -82.987 0.993 6.786 0.993 6.786 0.118 -82.987
2221.375 0.116 -83.131 0.993 6.637 0.993 6.637 0.116 -83.131
2246.333 0.113 -83.273 0.993 6.49 0.993 6.49 0.113 -83.273
2271.292 0.111 -83.412 0.993 6.345 0.993 6.345 0.111 -83.412
2296.25 0.108 -83.548 0.994 6.203 0.994 6.203 0.108 -83.548
2321.208 0.106 -83.682 0.994 6.063 0.994 6.063 0.106 -83.682
2346.167 0.103 -83.814 0.994 5.925 0.994 5.925 0.103 -83.814
2371.125 0.101 -83.944 0.994 5.789 0.994 5.789 0.101 -83.944
2396.083 0.099 -84.072 0.995 5.656 0.995 5.656 0.099 -84.072
2421.042 0.096 -84.197 0.995 5.524 0.995 5.524 0.096 -84.197
2446 0.094 -84.32 0.995 5.394 0.995 5.394 0.094 -84.32
2470.958 0.092 -84.441 0.995 5.265 0.995 5.265 0.092 -84.441
2495.917 0.09 -84.561 0.996 5.139 0.996 5.139 0.09 -84.561
2520.875 0.087 -84.678 0.996 5.014 0.996 5.014 0.087 -84.678
2545.833 0.085 -84.793 0.996 4.891 0.996 4.891 0.085 -84.793
2570.792 0.083 -84.907 0.996 4.77 0.996 4.77 0.083 -84.907
2595.75 0.081 -85.018 0.996 4.65 0.996 4.65 0.081 -85.018
2620.708 0.079 -85.128 0.996 4.531 0.996 4.531 0.079 -85.128
2645.667 0.077 -85.235 0.997 4.415 0.997 4.415 0.077 -85.235
2670.625 0.075 -85.341 0.997 4.299 0.997 4.299 0.075 -85.341
2695.583 0.073 -85.446 0.997 4.185 0.997 4.185 0.073 -85.446
2720.542 0.071 -85.548 0.997 4.073 0.997 4.073 0.071 -85.548
2745.5 0.069 -85.649 0.997 3.961 0.997 3.961 0.069 -85.649
2770.458 0.067 -85.747 0.997 3.851 0.997 3.851 0.067 -85.747
2795.417 0.065 -85.844 0.997 3.743 0.997 3.743 0.065 -85.844
2820.375 0.063 -85.94 0.998 3.635 0.998 3.635 0.063 -85.94
2845.333 0.062 -86.033 0.998 3.529 0.998 3.529 0.062 -86.033
2870.292 0.06 -86.125 0.998 3.424 0.998 3.424 0.06 -86.125
2895.25 0.058 -86.214 0.998 3.32 0.998 3.32 0.058 -86.214
2920.208 0.056 -86.302 0.998 3.217 0.998 3.217 0.056 -86.302
2945.167 0.054 -86.388 0.998 3.115 0.998 3.115 0.054 -86.388
2970.125 0.053 -86.472 0.998 3.015 0.998 3.015 0.053 -86.472
2995.083 0.051 -86.554 0.998 2.915 0.998 2.915 0.051 -86.554
3020.042 0.049 -86.635 0.998 2.816 0.998 2.816 0.049 -86.635
3045 0.047 -86.712 0.998 2.719 0.998 2.719 0.047 -86.712
3069.958 0.046 -86.788 0.998 2.622 0.998 2.622 0.046 -86.788
3094.917 0.044 -86.861 0.999 2.526 0.999 2.526 0.044 -86.861
3119.875 0.042 -86.932 0.999 2.431 0.999 2.431 0.042 -86.932
3144.833 0.041 -87.001 0.999 2.338 0.999 2.338 0.041 -87.001
3169.792 0.039 -87.066 0.999 2.245 0.999 2.245 0.039 -87.066
3194.75 0.038 -87.129 0.999 2.152 0.999 2.152 0.038 -87.129
3219.708 0.036 -87.188 0.999 2.061 0.999 2.061 0.036 -87.188
3244.667 0.034 -87.244 0.999 1.97 0.999 1.97 0.034 -87.244
3269.625 0.033 -87.297 0.999 1.881 0.999 1.881 0.033 -87.297
3294.583 0.031 -87.345 0.999 1.792 0.999 1.792 0.031 -87.345
3319.542 0.03 -87.388 0.999 1.704 0.999 1.704 0.03 -87.388
3344.5 0.028 -87.427 0.999 1.616 0.999 1.616 0.028 -87.427
3369.458 0.027 -87.459 0.999 1.529 0.999 1.529 0.027 -87.459
3394.417 0.025 -87.485 0.999 1.443 0.999 1.443 0.025 -87.485
3419.375 0.024 -87.503 0.999 1.358 0.999 1.358 0.024 -87.503
3444.333 0.022 -87.512 0.999 1.273 0.999 1.273 0.022 -87.512
3469.292 0.021 -87.51 0.999 1.19 0.999 1.19 0.021 -87.51
3494.25 0.019 -87.495 0.999 1.106 0.999 1.106 0.019 -87.495
3519.208 0.018 -87.465 0.999 1.024 0.999 1.024 0.018 -87.465
3544.167 0.016 -87.415 0.999 0.942 0.999 0.942 0.016 -87.415
3569.125 0.015 -87.341 0.999 0.86 0.999 0.86 0.015 -87.341
3594.083 0.014 -87.236 0.999 0.779 0.999 0.779 0.014 -87.236
3619.042 0.012 -87.089 0.999 0.699 0.999 0.699 0.012 -87.089
3644 0.011 -86.884 0.999 0.62 0.999 0.62 0.011 -86.884
3668.958 9.448e-3 -86.599 0.999 0.541 0.999 0.541 9.448e-3 -86.599
3693.917 8.081e-3 -86.193 0.999 0.462 0.999 0.462 8.081e-3 -86.193
3718.875 6.724e-3 -85.595 1 0.384 1 0.384 6.724e-3 -85.595
3743.833 5.377e-3 -84.663 1 0.307 1 0.307 5.377e-3 -84.663
3768.792 4.042e-3 -83.072 1 0.23 1 0.23 4.042e-3 -83.072
3793.75 2.724e-3 -79.877 1 0.154 1 0.154 2.724e-3 -79.877
3818.708 1.438e-3 -70.786 1 0.078 1 0.078 1.438e-3 -70.786
3843.667 473.5e-6 -5.311 1 2.512e-3 1 2.512e-3 473.5e-6 -5.311
3868.625 1.348e-3 69.451 1 -0.072 1 -0.072 1.348e-3 69.451
3893.583 2.604e-3 79.421 1 -0.147 1 -0.147 2.604e-3 79.421
3918.542 3.879e-3 82.799 1 -0.221 1 -0.221 3.879e-3 82.799
3943.5 5.154e-3 84.457 1 -0.294 1 -0.294 5.154e-3 84.457
3968.458 6.424e-3 85.424 1 -0.367 1 -0.367 6.424e-3 85.424
3993.417 7.687e-3 86.044 0.999 -0.44 0.999 -0.44 7.687e-3 86.044
4018.375 8.943e-3 86.466 0.999 -0.512 0.999 -0.512 8.943e-3 86.466
4043.333 0.01 86.766 0.999 -0.583 0.999 -0.583 0.01 86.766
4068.292 0.011 86.983 0.999 -0.655 0.999 -0.655 0.011 86.983
4093.25 0.013 87.142 0.999 -0.726 0.999 -0.726 0.013 87.142
4118.208 0.014 87.26 0.999 -0.796 0.999 -0.796 0.014 87.26
4143.167 0.015 87.347 0.999 -0.866 0.999 -0.866 0.015 87.347
4168.125 0.016 87.411 0.999 -0.936 0.999 -0.936 0.016 87.411
4193.083 0.018 87.455 0.999 -1.005 0.999 -1.005 0.018 87.455
4218.042 0.019 87.485 0.999 -1.074 0.999 -1.074 0.019 87.485
4243 0.02 87.503 0.999 -1.142 0.999 -1.142 0.02 87.503
4267.958 0.021 87.511 0.999 -1.21 0.999 -1.21 0.021 87.511
4292.917 0.022 87.511 0.999 -1.278 0.999 -1.278 0.022 87.511
4317.875 0.023 87.505 0.999 -1.346 0.999 -1.346 0.023 87.505
4342.833 0.025 87.492 0.999 -1.413 0.999 -1.413 0.025 87.492
4367.792 0.026 87.475 0.999 -1.48 0.999 -1.48 0.026 87.475
4392.75 0.027 87.453 0.999 -1.546 0.999 -1.546 0.027 87.453
4417.708 0.028 87.428 0.999 -1.612 0.999 -1.612 0.028 87.428
4442.667 0.029 87.4 0.999 -1.678 0.999 -1.678 0.029 87.4
4467.625 0.03 87.369 0.999 -1.743 0.999 -1.743 0.03 87.369
4492.583 0.032 87.336 0.999 -1.808 0.999 -1.808 0.032 87.336
4517.542 0.033 87.301 0.999 -1.873 0.999 -1.873 0.033 87.301
4542.5 0.034 87.264 0.999 -1.938 0.999 -1.938 0.034 87.264
4567.458 0.035 87.225 0.999 -2.002 0.999 -2.002 0.035 87.225
4592.417 0.036 87.185 0.999 -2.066 0.999 -2.066 0.036 87.185
4617.375 0.037 87.144 0.999 -2.129 0.999 -2.129 0.037 87.144
4642.333 0.038 87.102 0.999 -2.193 0.999 -2.193 0.038 87.102
4667.292 0.039 87.058 0.999 -2.256 0.999 -2.256 0.039 87.058
4692.25 0.04 87.014 0.999 -2.319 0.999 -2.319 0.04 87.014
4717.208 0.042 86.969 0.999 -2.381 0.999 -2.381 0.042 86.969
4742.167 0.043 86.924 0.999 -2.443 0.999 -2.443 0.043 86.924
4767.125 0.044 86.877 0.999 -2.505 0.999 -2.505 0.044 86.877
4792.083 0.045 86.831 0.999 -2.567 0.999 -2.567 0.045 86.831
4817.042 0.046 86.783 0.998 -2.628 0.998 -2.628 0.046 86.783
4842 0.047 86.735 0.998 -2.69 0.998 -2.69 0.047 86.735
4866.958 0.048 86.687 0.998 -2.751 0.998 -2.751 0.048 86.687
4891.917 0.049 86.639 0.998 -2.811 0.998 -2.811 0.049 86.639
4916.875 0.05 86.59 0.998 -2.872 0.998 -2.872 0.05 86.59
4941.833 0.051 86.541 0.998 -2.932 0.998 -2.932 0.051 86.541
4966.792 0.052 86.491 0.998 -2.992 0.998 -2.992 0.052 86.491
4991.75 0.053 86.442 0.998 -3.052 0.998 -3.052 0.053 86.442
5016.708 0.054 86.392 0.998 -3.111 0.998 -3.111 0.054 86.392
5041.667 0.055 86.342 0.998 -3.17 0.998 -3.17 0.055 86.342
5066.625 0.056 86.292 0.998 -3.23 0.998 -3.23 0.056 86.292
5091.583 0.057 86.241 0.998 -3.288 0.998 -3.288 0.057 86.241
5116.542 0.058 86.191 0.998 -3.347 0.998 -3.347 0.058 86.191
5141.5 0.059 86.141 0.998 -3.405 0.998 -3.405 0.059 86.141
5166.458 0.06 86.09 0.998 -3.464 0.998 -3.464 0.06 86.09
5191.417 0.061 86.039 0.998 -3.522 0.998 -3.522 0.061 86.039
5216.375 0.062 85.989 0.998 -3.58 0.998 -3.58 0.062 85.989
5241.333 0.063 85.938 0.998 -3.637 0.998 -3.637 0.063 85.938
5266.292 0.064 85.887 0.997 -3.695 0.997 -3.695 0.064 85.887
5291.25 0.065 85.836 0.997 -3.752 0.997 -3.752 0.065 85.836
5316.208 0.066 85.785 0.997 -3.809 0.997 -3.809 0.066 85.785
5341.167 0.067 85.735 0.997 -3.866 0.997 -3.866 0.067 85.735
5366.125 0.068 85.684 0.997 -3.922 0.997 -3.922 0.068 85.684
5391.083 0.069 85.633 0.997 -3.979 0.997 -3.979 0.069 85.633
5416.042 0.07 85.582 0.997 -4.035 0.997 -4.035 0.07 85.582
5441 0.071 85.531 0.997 -4.091 0.997 -4.091 0.071 85.531
5465.958 0.072 85.48 0.997 -4.147 0.997 -4.147 0.072 85.48
5490.917 0.073 85.43 0.997 -4.203 0.997 -4.203 0.073 85.43
5515.875 0.074 85.379 0.997 -4.258 0.997 -4.258 0.074 85.379
5540.833 0.075 85.328 0.997 -4.314 0.997 -4.314 0.075 85.328
5565.792 0.076 85.278 0.997 -4.369 0.997 -4.369 0.076 85.278
5590.75 0.077 85.227 0.997 -4.424 0.997 -4.424 0.077 85.227
5615.708 0.078 85.176 0.996 -4.479 0.996 -4.479 0.078 85.176
5640.667 0.079 85.126 0.996 -4.533 0.996 -4.533 0.079 85.126
5665.625 0.08 85.075 0.996 -4.588 0.996 -4.588 0.08 85.075
5690.583 0.081 85.025 0.996 -4.642 0.996 -4.642 0.081 85.025
5715.542 0.082 84.975 0.996 -4.697 0.996 -4.697 0.082 84.975
5740.5 0.083 84.924 0.996 -4.751 0.996 -4.751 0.083 84.924
5765.458 0.084 84.874 0.996 -4.805 0.996 -4.805 0.084 84.874
5790.417 0.085 84.824 0.996 -4.858 0.996 -4.858 0.085 84.824
5815.375 0.086 84.774 0.996 -4.912 0.996 -4.912 0.086 84.774
5840.333 0.087 84.724 0.996 -4.966 0.996 -4.966 0.087 84.724
5865.292 0.087 84.674 0.996 -5.019 0.996 -5.019 0.087 84.674
5890.25 0.088 84.624 0.996 -5.072 0.996 -5.072 0.088 84.624
5915.208 0.089 84.574 0.996 -5.125 0.996 -5.125 0.089 84.574
5940.167 0.09 84.524 0.995 -5.178 0.995 -5.178 0.09 84.524
5965.125 0.091 84.474 0.995 -5.231 0.995 -5.231 0.091 84.474
5990.083 0.092 84.425 0.995 -5.283 0.995 -5.283 0.092 84.425
6015.042 0.093 84.375 0.995 -5.336 0.995 -5.336 0.093 84.375
6040 0.094 84.325 0.995 -5.388 0.995 -5.388 0.094 84.325
6064.958 0.095 84.276 0.995 -5.44 0.995 -5.44 0.095 84.276
6089.917 0.096 84.227 0.995 -5.492 0.995 -5.492 0.096 84.227
6114.875 0.097 84.177 0.995 -5.544 0.995 -5.544 0.097 84.177
6139.833 0.098 84.128 0.995 -5.596 0.995 -5.596 0.098 84.128
6164.792 0.098 84.079 0.995 -5.648 0.995 -5.648 0.098 84.079
6189.75 0.099 84.03 0.995 -5.7 0.995 -5.7 0.099 84.03
6214.708 0.1 83.981 0.994 -5.751 0.994 -5.751 0.1 83.981
6239.667 0.101 83.932 0.994 -5.802 0.994 -5.802 0.101 83.932
6264.625 0.102 83.883 0.994 -5.853 0.994 -5.853 0.102 83.883
6289.583 0.103 83.834 0.994 -5.905 0.994 -5.905 0.103 83.834
6314.542 0.104 83.785 0.994 -5.956 0.994 -5.956 0.104 83.785
6339.5 0.105 83.737 0.994 -6.006 0.994 -6.006 0.105 83.737
6364.458 0.106 83.688 0.994 -6.057 0.994 -6.057 0.106 83.688
6389.417 0.106 83.64 0.994 -6.108 0.994 -6.108 0.106 83.64
6414.375 0.107 83.591 0.994 -6.158 0.994 -6.158 0.107 83.591
6439.333 0.108 83.543 0.994 -6.209 0.994 -6.209 0.108 83.543
6464.292 0.109 83.495 0.994 -6.259 0.994 -6.259 0.109 83.495
6489.25 0.11 83.447 0.993 -6.309 0.993 -6.309 0.11 83.447
6514.208 0.111 83.399 0.993 -6.359 0.993 -6.359 0.111 83.399
6539.167 0.112 83.35 0.993 -6.409 0.993 -6.409 0.112 83.35
6564.125 0.112 83.303 0.993 -6.459 0.993 -6.459 0.112 83.303
6589.083 0.113 83.255 0.993 -6.509 0.993 -6.509 0.113 83.255
6614.042 0.114 83.207 0.993 -6.558 0.993 -6.558 0.114 83.207
6639 0.115 83.159 0.993 -6.608 0.993 -6.608 0.115 83.159
6663.958 0.116 83.111 0.993 -6.657 0.993 -6.657 0.116 83.111
6688.917 0.117 83.064 0.993 -6.706 0.993 -6.706 0.117 83.064
6713.875 0.118 83.016 0.993 -6.756 0.993 -6.756 0.118 83.016
6738.833 0.118 82.969 0.992 -6.805 0.992 -6.805 0.118 82.969
6763.792 0.119 82.921 0.992 -6.854 0.992 -6.854 0.119 82.921
6788.75 0.12 82.874 0.992 -6.903 0.992 -6.903 0.12 82.874
6813.708 0.121 82.827 0.992 -6.951 0.992 -6.951 0.121 82.827
6838.667 0.122 82.78 0.992 -7 0.992 -7 0.122 82.78
6863.625 0.123 82.733 0.992 -7.049 0.992 -7.049 0.123 82.733
6888.583 0.124 82.686 0.992 -7.097 0.992 -7.097 0.124 82.686
6913.542 0.124 82.639 0.992 -7.146 0.992 -7.146 0.124 82.639
6938.5 0.125 82.592 0.992 -7.194 0.992 -7.194 0.125 82.592
6963.458 0.126 82.545 0.992 -7.242 0.992 -7.242 0.126 82.545
6988.417 0.127 82.498 0.991 -7.291 0.991 -7.291 0.127 82.498
7013.375 0.128 82.452 0.991 -7.339 0.991 -7.339 0.128 82.452
7038.333 0.129 82.405 0.991 -7.387 0.991 -7.387 0.129 82.405
7063.292 0.129 82.359 0.991 -7.434 0.991 -7.434 0.129 82.359
7088.25 0.13 82.312 0.991 -7.482 0.991 -7.482 0.13 82.312
7113.208 0.131 82.266 0.991 -7.53 0.991 -7.53 0.131 82.266
7138.167 0.132 82.219 0.991 -7.578 0.991 -7.578 0.132 82.219
7163.125 0.133 82.173 0.991 -7.625 0.991 -7.625 0.133 82.173
7188.083 0.134 82.127 0.991 -7.673 0.991 -7.673 0.134 82.127
7213.042 0.134 82.081 0.99 -7.72 0.99 -7.72 0.134 82.081
7238 0.135 82.035 0.99 -7.767 0.99 -7.767 0.135 82.035
7262.958 0.136 81.989 0.99 -7.814 0.99 -7.814 0.136 81.989
7287.917 0.137 81.943 0.99 -7.862 0.99 -7.862 0.137 81.943
7312.875 0.138 81.897 0.99 -7.909 0.99 -7.909 0.138 81.897
7337.833 0.138 81.851 0.99 -7.956 0.99 -7.956 0.138 81.851
7362.792 0.139 81.805 0.99 -8.003 0.99 -8.003 0.139 81.805
7387.75 0.14 81.76 0.99 -8.049 0.99 -8.049 0.14 81.76
7412.708 0.141 81.714 0.99 -8.096 0.99 -8.096 0.141 81.714
7437.667 0.142 81.668 0.989 -8.143 0.989 -8.143 0.142 81.668
7462.625 0.142 81.623 0.989 -8.189 0.989 -8.189 0.142 81.623
7487.583 0.143 81.578 0.989 -8.236 0.989 -8.236 0.143 81.578
7512.542 0.144 81.532 0.989 -8.282 0.989 -8.282 0.144 81.532
7537.5 0.145 81.487 0.989 -8.329 0.989 -8.329 0.145 81.487
7562.458 0.146 81.442 0.989 -8.375 0.989 -8.375 0.146 81.442
7587.417 0.146 81.396 0.989 -8.421 0.989 -8.421 0.146 81.396
7612.375 0.147 81.351 0.989 -8.467 0.989 -8.467 0.147 81.351
7637.333 0.148 81.306 0.989 -8.513 0.989 -8.513 0.148 81.306
7662.292 0.149 81.261 0.988 -8.559 0.988 -8.559 0.149 81.261
7687.25 0.15 81.216 0.988 -8.605 0.988 -8.605 0.15 81.216
7712.208 0.15 81.171 0.988 -8.651 0.988 -8.651 0.15 81.171
7737.167 0.151 81.127 0.988 -8.697 0.988 -8.697 0.151 81.127
7762.125 0.152 81.082 0.988 -8.742 0.988 -8.742 0.152 81.082
7787.083 0.153 81.037 0.988 -8.788 0.988 -8.788 0.153 81.037
7812.042 0.154 80.993 0.988 -8.834 0.988 -8.834 0.154 80.993
7837 0.154 80.948 0.988 -8.879 0.988 -8.879 0.154 80.948
7861.958 0.155 80.903 0.987 -8.925 0.987 -8.925 0.155 80.903
7886.917 0.156 80.859 0.987 -8.97 0.987 -8.97 0.156 80.859
7911.875 0.157 80.814 0.987 -9.015 0.987 -9.015 0.157 80.814
7936.833 0.157 80.77 0.987 -9.06 0.987 -9.06 0.157 80.77
7961.792 0.158 80.726 0.987 -9.106 0.987 -9.106 0.158 80.726
7986.75 0.159 80.682 0.987 -9.151 0.987 -9.151 0.159 80.682
8011.708 0.16 80.637 0.987 -9.196 0.987 -9.196 0.16 80.637
8036.667 0.161 80.593 0.987 -9.241 0.987 -9.241 0.161 80.593
8061.625 0.161 80.549 0.986 -9.286 0.986 -9.286 0.161 80.549
8086.583 0.162 80.505 0.986 -9.33 0.986 -9.33 0.162 80.505
8111.542 0.163 80.461 0.986 -9.375 0.986 -9.375 0.163 80.461
8136.5 0.164 80.417 0.986 -9.42 0.986 -9.42 0.164 80.417
8161.458 0.164 80.373 0.986 -9.465 0.986 -9.465 0.164 80.373
8186.417 0.165 80.329 0.986 -9.509 0.986 -9.509 0.165 80.329
8211.375 0.166 80.286 0.986 -9.554 0.986 -9.554 0.166 80.286
8236.333 0.167 80.242 0.986 -9.598 0.986 -9.598 0.167 80.242
8261.292 0.168 80.198 0.985 -9.643 0.985 -9.643 0.168 80.198
8286.25 0.168 80.155 0.985 -9.687 0.985 -9.687 0.168 80.155
