# MHZ S MA R 50

50 1 -0.27 4.712e-3 89.727 4.712e-3 89.727 1 -0.27
74.958 1 -0.405 7.065e-3 89.591 7.065e-3 89.591 1 -0.405
99.917 1 -0.54 9.417e-3 89.455 9.417e-3 89.455 1 -0.54
124.875 1 -0.674 0.012 89.319 0.012 89.319 1 -0.674
149.833 1 -0.809 0.014 89.183 0.014 89.183 1 -0.809
174.792 1 -0.944 0.016 89.047 0.016 89.047 1 -0.944
199.75 1 -1.079 0.019 88.91 0.019 88.91 1 -1.079
224.708 1 -1.213 0.021 88.774 0.021 88.774 1 -1.213
249.667 1 -1.348 0.024 88.638 0.024 88.638 1 -1.348
274.625 1 -1.483 0.026 88.502 0.026 88.502 1 -1.483
299.583 1 -1.618 0.028 88.366 0.028 88.366 1 -1.618
324.542 1 -1.753 0.031 88.23 0.031 88.23 1 -1.753
349.5 0.999 -1.887 0.033 88.094 0.033 88.094 0.999 -1.887
374.458 0.999 -2.022 0.035 87.957 0.035 87.957 0.999 -2.022
399.417 0.999 -2.157 0.038 87.821 0.038 87.821 0.999 -2.157
424.375 0.999 -2.292 0.04 87.685 0.04 87.685 0.999 -2.292
449.333 0.999 -2.426 0.042 87.549 0.042 87.549 0.999 -2.426
474.292 0.999 -2.561 0.045 87.413 0.045 87.413 0.999 -2.561
499.25 0.999 -2.696 0.047 87.277 0.047 87.277 0.999 -2.696
524.208 0.999 -2.831 0.049 87.14 0.049 87.14 0.999 -2.831
549.167 0.999 -2.966 0.052 87.004 0.052 87.004 0.999 -2.966
574.125 0.999 -3.1 0.054 86.868 0.054 86.868 0.999 -3.1
599.083 0.998 -3.235 0.056 86.732 0.056 86.732 0.998 -3.235
624.042 0.998 -3.37 0.059 86.596 0.059 86.596 0.998 -3.37
649 0.998 -3.505 0.061 86.46 0.061 86.46 0.998 -3.505
673.958 0.998 -3.639 0.063 86.324 0.063 86.324 0.998 -3.639
698.917 0.998 -3.774 0.066 86.187 0.066 86.187 0.998 -3.774
723.875 0.998 -3.909 0.068 86.051 0.068 86.051 0.998 -3.909
748.833 0.997 -4.044 0.071 85.915 0.071 85.915 0.997 -4.044
773.792 0.997 -4.179 0.073 85.779 0.073 85.779 0.997 -4.179
798.75 0.997 -4.313 0.075 85.643 0.075 85.643 0.997 -4.313
823.708 0.997 -4.448 0.078 85.507 0.078 85.507 0.997 -4.448
848.667 0.997 -4.583 0.08 85.37 0.08 85.37 0.997 -4.583
873.625 0.997 -4.718 0.082 85.234 0.082 85.234 0.997 -4.718
898.583 0.996 -4.853 0.085 85.098 0.085 85.098 0.996 -4.853
923.542 0.996 -4.987 0.087 84.962 0.087 84.962 0.996 -4.987
948.5 0.996 -5.122 0.089 84.826 0.089 84.826 0.996 -5.122
973.458 0.996 -5.257 0.092 84.69 0.092 84.69 0.996 -5.257
998.417 0.995 -5.392 0.094 84.553 0.094 84.553 0.995 -5.392
1023.375 0.995 -5.527 0.096 84.417 0.096 84.417 0.995 -5.527
1048.333 0.995 -5.661 0.099 84.281 0.099 84.281 0.995 -5.661
1073.292 0.995 -5.796 0.101 84.145 0.101 84.145 0.995 -5.796
1098.25 0.995 -5.931 0.103 84.009 0.103 84.009 0.995 -5.931
1123.208 0.994 -6.066 0.106 83.873 0.106 83.873 0.994 -6.066
1148.167 0.994 -6.201 0.108 83.736 0.108 83.736 0.994 -6.201
1173.125 0.994 -6.335 0.11 83.6 0.11 83.6 0.994 -6.335
1198.083 0.994 -6.47 0.113 83.464 0.113 83.464 0.994 -6.47
1223.042 0.993 -6.605 0.115 83.328 0.115 83.328 0.993 -6.605
1248 0.993 -6.74 0.117 83.192 0.117 83.192 0.993 -6.74
1272.958 0.993 -6.875 0.12 83.055 0.12 83.055 0.993 -6.875
1297.917 0.992 -7.009 0.122 82.919 0.122 82.919 0.992 -7.009
1322.875 0.992 -7.144 0.124 82.783 0.124 82.783 0.992 -7.144
1347.833 0.992 -7.279 0.127 82.647 0.127 82.647 0.992 -7.279
1372.792 0.991 -7.414 0.129 82.511 0.129 82.511 0.991 -7.414
1397.75 0.991 -7.549 0.131 82.374 0.131 82.374 0.991 -7.549
1422.708 0.991 -7.683 0.134 82.238 0.134 82.238 0.991 -7.683
1447.667 0.991 -7.818 0.136 82.102 0.136 82.102 0.991 -7.818
1472.625 0.99 -7.953 0.138 81.966 0.138 81.966 0.99 -7.953
1497.583 0.99 -8.088 0.141 81.83 0.141 81.83 0.99 -8.088
1522.542 0.99 -8.223 0.143 81.693 0.143 81.693 0.99 -8.223
1547.5 0.989 -8.358 0.145 81.557 0.145 81.557 0.989 -8.358
1572.458 0.989 -8.492 0.148 81.421 0.148 81.421 0.989 -8.492
1597.417 0.988 -8.627 0.15 81.285 0.15 81.285 0.988 -8.627
1622.375 0.988 -8.762 0.152 81.148 0.152 81.148 0.988 -8.762
1647.333 0.988 -8.897 0.155 81.012 0.155 81.012 0.988 -8.897
1672.292 0.987 -9.032 0.157 80.876 0.157 80.876 0.987 -9.032
1697.25 0.987 -9.166 0.159 80.74 0.159 80.74 0.987 -9.166
1722.208 0.987 -9.301 0.162 80.604 0.162 80.604 0.987 -9.301
1747.167 0.986 -9.436 0.164 80.467 0.164 80.467 0.986 -9.436
1772.125 0.986 -9.571 0.166 80.331 0.166 80.331 0.986 -9.571
1797.083 0.985 -9.706 0.169 80.195 0.169 80.195 0.985 -9.706
1822.042 0.985 -9.841 0.171 80.059 0.171 80.059 0.985 -9.841
1847 0.985 -9.975 0.173 79.922 0.173 79.922 0.985 -9.975
1871.958 0.984 -10.11 0.176 79.786 0.176 79.786 0.984 -10.11
1896.917 0.984 -10.245 0.178 79.65 0.178 79.65 0.984 -10.245
1921.875 0.983 -10.38 0.18 79.514 0.18 79.514 0.983 -10.38
1946.833 0.983 -10.515 0.182 79.377 0.182 79.377 0.983 -10.515
1971.792 0.982 -10.65 0.185 79.241 0.185 79.241 0.982 -10.65
1996.75 0.982 -10.785 0.187 79.105 0.187 79.105 0.982 -10.785
2021.708 0.982 -10.919 0.189 78.969 0.189 78.969 0.982 -10.919
2046.667 0.981 -11.054 0.192 78.832 0.192 78.832 0.981 -11.054
2071.625 0.981 -11.189 0.194 78.696 0.194 78.696 0.981 -11.189
2096.583 0.98 -11.324 0.196 78.56 0.196 78.56 0.98 -11.324
2121.542 0.98 -11.459 0.199 78.423 0.199 78.423 0.98 -11.459
2146.5 0.979 -11.594 0.201 78.287 0.201 78.287 0.979 -11.594
2171.458 0.979 -11.728 0.203 78.151 0.203 78.151 0.979 -11.728
2196.417 0.978 -11.863 0.206 78.015 0.206 78.015 0.978 -11.863
2221.375 0.978 -11.998 0.208 77.878 0.208 77.878 0.978 -11.998
2246.333 0.977 -12.133 0.21 77.742 0.21 77.742 0.977 -12.133
2271.292 0.977 -12.268 0.212 77.606 0.212 77.606 0.977 -12.268
2296.25 0.976 -12.403 0.215 77.47 0.215 77.47 0.976 -12.403
2321.208 0.976 -12.538 0.217 77.333 0.217 77.333 0.976 -12.538
2346.167 0.975 -12.672 0.219 77.197 0.219 77.197 0.975 -12.672
2371.125 0.975 -12.807 0.222 77.061 0.222 77.061 0.975 -12.807
2396.083 0.974 -12.942 0.224 76.924 0.224 76.924 0.974 -12.942
2421.042 0.974 -13.077 0.226 76.788 0.226 76.788 0.974 -13.077
2446 0.973 -13.212 0.229 76.652 0.229 76.652 0.973 -13.212
2470.958 0.972 -13.347 0.231 76.515 0.231 76.515 0.972 -13.347
2495.917 0.972 -13.482 0.233 76.379 0.233 76.379 0.972 -13.482
2520.875 0.971 -13.616 0.235 76.243 0.235 76.243 0.971 -13.616
2545.833 0.971 -13.751 0.238 76.106 0.238 76.106 0.971 -13.751
2570.792 0.97 -13.886 0.24 75.97 0.24 75.97 0.97 -13.886
2595.75 0.97 -14.021 0.242 75.834 0.242 75.834 0.97 -14.021
2620.708 0.969 -14.156 0.245 75.698 0.245 75.698 0.969 -14.156
2645.667 0.968 -14.291 0.247 75.561 0.247 75.561 0.968 -14.291
2670.625 0.968 -14.426 0.249 75.425 0.249 75.425 0.968 -14.426
2695.583 0.967 -14.561 0.251 75.289 0.251 75.289 0.967 -14.561
2720.542 0.967 -14.695 0.254 75.152 0.254 75.152 0.967 -14.695
2745.5 0.966 -14.83 0.256 75.016 0.256 75.016 0.966 -14.83
2770.458 0.965 -14.965 0.258 74.88 0.258 74.88 0.965 -14.965
2795.417 0.965 -15.1 0.261 74.743 0.261 74.743 0.965 -15.1
2820.375 0.964 -15.235 0.263 74.607 0.263 74.607 0.964 -15.235
2845.333 0.963 -15.37 0.265 74.471 0.265 74.471 0.963 -15.37
2870.292 0.963 -15.505 0.267 74.334 0.267 74.334 0.963 -15.505
2895.25 0.962 -15.639 0.27 74.198 0.27 74.198 0.962 -15.639
2920.208 0.962 -15.774 0.272 74.062 0.272 74.062 0.962 -15.774
2945.167 0.961 -15.909 0.274 73.925 0.274 73.925 0.961 -15.909
2970.125 0.96 -16.044 0.276 73.789 0.276 73.789 0.96 -16.044
2995.083 0.96 -16.179 0.279 73.652 0.279 73.652 0.96 -16.179
3020.042 0.959 -16.314 0.281 73.516 0.281 73.516 0.959 -16.314
3045 0.958 -16.449 0.283 73.38 0.283 73.38 0.958 -16.449
3069.958 0.958 -16.584 0.285 73.243 0.285 73.243 0.958 -16.584
3094.917 0.957 -16.718 0.288 73.107 0.288 73.107 0.957 -16.718
3119.875 0.956 -16.853 0.29 72.971 0.29 72.971 0.956 -16.853
3144.833 0.955 -16.988 0.292 72.834 0.292 72.834 0.955 -16.988
3169.792 0.955 -17.123 0.294 72.698 0.294 72.698 0.955 -17.123
3194.75 0.954 -17.258 0.297 72.562 0.297 72.562 0.954 -17.258
3219.708 0.953 -17.393 0.299 72.425 0.299 72.425 0.953 -17.393
3244.667 0.953 -17.528 0.301 72.289 0.301 72.289 0.953 -17.528
3269.625 0.952 -17.662 0.303 72.153 0.303 72.153 0.952 -17.662
3294.583 0.951 -17.797 0.306 72.016 0.306 72.016 0.951 -17.797
3319.542 0.95 -17.932 0.308 71.88 0.308 71.88 0.95 -17.932
3344.5 0.95 -18.067 0.31 71.743 0.31 71.743 0.95 -18.067
3369.458 0.949 -18.202 0.312 71.607 0.312 71.607 0.949 -18.202
3394.417 0.948 -18.337 0.315 71.471 0.315 71.471 0.948 -18.337
3419.375 0.947 -18.472 0.317 71.334 0.317 71.334 0.947 -18.472
3444.333 0.947 -18.606 0.319 71.198 0.319 71.198 0.947 -18.606
3469.292 0.946 -18.741 0.321 71.062 0.321 71.062 0.946 -18.741
3494.25 0.945 -18.876 0.324 70.925 0.324 70.925 0.945 -18.876
3519.208 0.944 -19.011 0.326 70.789 0.326 70.789 0.944 -19.011
3544.167 0.944 -19.146 0.328 70.652 0.328 70.652 0.944 -19.146
3569.125 0.943 -19.281 0.33 70.516 0.33 70.516 0.943 -19.281
3594.083 0.942 -19.415 0.332 70.38 0.332 70.38 0.942 -19.415
3619.042 0.941 -19.55 0.335 70.243 0.335 70.243 0.941 -19.55
3644 0.94 -19.685 0.337 70.107 0.337 70.107 0.94 -19.685
3668.958 0.94 -19.82 0.339 69.971 0.339 69.971 0.94 -19.82
3693.917 0.939 -19.955 0.341 69.834 0.341 69.834 0.939 -19.955
3718.875 0.938 -20.09 0.343 69.698 0.343 69.698 0.938 -20.09
3743.833 0.937 -20.224 0.346 69.561 0.346 69.561 0.937 -20.224
3768.792 0.936 -20.359 0.348 69.425 0.348 69.425 0.936 -20.359
3793.75 0.935 -20.494 0.35 69.289 0.35 69.289 0.935 -20.494
3818.708 0.935 -20.629 0.352 69.152 0.352 69.152 0.935 -20.629
3843.667 0.934 -20.764 0.355 69.016 0.355 69.016 0.934 -20.764
3868.625 0.933 -20.898 0.357 68.88 0.357 68.88 0.933 -20.898
3893.583 0.932 -21.033 0.359 68.743 0.359 68.743 0.932 -21.033
3918.542 0.931 -21.168 0.361 68.607 0.361 68.607 0.931 -21.168
3943.5 0.93 -21.303 0.363 68.47 0.363 68.47 0.93 -21.303
3968.458 0.929 -21.438 0.365 68.334 0.365 68.334 0.929 -21.438
3993.417 0.928 -21.572 0.368 68.198 0.368 68.198 0.928 -21.572
4018.375 0.928 -21.707 0.37 68.061 0.37 68.061 0.928 -21.707
4043.333 0.927 -21.842 0.372 67.925 0.372 67.925 0.927 -21.842
4068.292 0.926 -21.977 0.374 67.789 0.374 67.789 0.926 -21.977
4093.25 0.925 -22.111 0.376 67.652 0.376 67.652 0.925 -22.111
4118.208 0.924 -22.246 0.379 67.516 0.379 67.516 0.924 -22.246
4143.167 0.923 -22.381 0.381 67.38 0.381 67.38 0.923 -22.381
4168.125 0.922 -22.516 0.383 67.243 0.383 67.243 0.922 -22.516
4193.083 0.921 -22.65 0.385 67.107 0.385 67.107 0.921 -22.65
4218.042 0.92 -22.785 0.387 66.971 0.387 66.971 0.92 -22.785
4243 0.919 -22.92 0.389 66.834 0.389 66.834 0.919 -22.92
4267.958 0.918 -23.055 0.392 66.698 0.392 66.698 0.918 -23.055
4292.917 0.917 -23.189 0.394 66.561 0.394 66.561 0.917 -23.189
4317.875 0.917 -23.324 0.396 66.425 0.396 66.425 0.917 -23.324
4342.833 0.916 -23.459 0.398 66.289 0.398 66.289 0.916 -23.459
4367.792 0.915 -23.593 0.4 66.152 0.4 66.152 0.915 -23.593
4392.75 0.914 -23.728 0.402 66.016 0.402 66.016 0.914 -23.728
4417.708 0.913 -23.863 0.405 65.88 0.405 65.88 0.913 -23.863
4442.667 0.912 -23.998 0.407 65.743 0.407 65.743 0.912 -23.998
4467.625 0.911 -24.132 0.409 65.607 0.409 65.607 0.911 -24.132
4492.583 0.91 -24.267 0.411 65.471 0.411 65.471 0.91 -24.267
4517.542 0.909 -24.402 0.413 65.335 0.413 65.335 0.909 -24.402
4542.5 0.908 -24.536 0.415 65.198 0.415 65.198 0.908 -24.536
4567.458 0.907 -24.671 0.417 65.062 0.417 65.062 0.907 -24.671
4592.417 0.906 -24.805 0.42 64.926 0.42 64.926 0.906 -24.805
4617.375 0.905 -24.94 0.422 64.789 0.422 64.789 0.905 -24.94
4642.333 0.904 -25.075 0.424 64.653 0.424 64.653 0.904 -25.075
4667.292 0.903 -25.209 0.426 64.517 0.426 64.517 0.903 -25.209
4692.25 0.902 -25.344 0.428 64.38 0.428 64.38 0.902 -25.344
4717.208 0.901 -25.479 0.43 64.244 0.43 64.244 0.901 -25.479
4742.167 0.9 -25.613 0.432 64.108 0.432 64.108 0.9 -25.613
4767.125 0.899 -25.748 0.434 63.972 0.434 63.972 0.899 -25.748
4792.083 0.898 -25.882 0.437 63.835 0.437 63.835 0.898 -25.882
4817.042 0.896 -26.017 0.439 63.699 0.439 63.699 0.896 -26.017
4842 0.895 -26.151 0.441 63.563 0.441 63.563 0.895 -26.151
4866.958 0.894 -26.286 0.443 63.427 0.443 63.427 0.894 -26.286
4891.917 0.893 -26.42 0.445 63.29 0.445 63.29 0.893 -26.42
4916.875 0.892 -26.555 0.447 63.154 0.447 63.154 0.892 -26.555
4941.833 0.891 -26.689 0.449 63.018 0.449 63.018 0.891 -26.689
4966.792 0.89 -26.824 0.451 62.882 0.451 62.882 0.89 -26.824
4991.75 0.889 -26.958 0.453 62.745 0.453 62.745 0.889 -26.958
5016.708 0.888 -27.093 0.455 62.609 0.455 62.609 0.888 -27.093
5041.667 0.887 -27.227 0.458 62.473 0.458 62.473 0.887 -27.227
5066.625 0.886 -27.362 0.46 62.337 0.46 62.337 0.886 -27.362
5091.583 0.885 -27.496 0.462 62.201 0.462 62.201 0.885 -27.496
5116.542 0.883 -27.631 0.464 62.064 0.464 62.064 0.883 -27.631
5141.5 0.882 -27.765 0.466 61.928 0.466 61.928 0.882 -27.765
5166.458 0.881 -27.9 0.468 61.792 0.468 61.792 0.881 -27.9
5191.417 0.88 -28.034 0.47 61.656 0.47 61.656 0.88 -28.034
5216.375 0.879 -28.168 0.472 61.52 0.472 61.52 0.879 -28.168
5241.333 0.878 -28.303 0.474 61.384 0.474 61.384 0.878 -28.303
5266.292 0.877 -28.437 0.476 61.248 0.476 61.248 0.877 -28.437
5291.25 0.876 -28.571 0.478 61.111 0.478 61.111 0.876 -28.571
5316.208 0.874 -28.706 0.48 60.975 0.48 60.975 0.874 -28.706
5341.167 0.873 -28.84 0.482 60.839 0.482 60.839 0.873 -28.84
5366.125 0.872 -28.974 0.484 60.703 0.484 60.703 0.872 -28.974
5391.083 0.871 -29.109 0.486 60.567 0.486 60.567 0.871 -29.109
5416.042 0.87 -29.243 0.489 60.431 0.489 60.431 0.87 -29.243
5441 0.869 -29.377 0.491 60.295 0.491 60.295 0.869 -29.377
5465.958 0.867 -29.511 0.493 60.159 0.493 60.159 0.867 -29.511
5490.917 0.866 -29.646 0.495 60.023 0.495 60.023 0.866 -29.646
5515.875 0.865 -29.78 0.497 59.887 0.497 59.887 0.865 -29.78
5540.833 0.864 -29.914 0.499 59.751 0.499 59.751 0.864 -29.914
5565.792 0.863 -30.048 0.501 59.615 0.501 59.615 0.863 -30.048
5590.75 0.861 -30.182 0.503 59.479 0.503 59.479 0.861 -30.182
5615.708 0.86 -30.317 0.505 59.343 0.505 59.343 0.86 -30.317
5640.667 0.859 -30.451 0.507 59.207 0.507 59.207 0.859 -30.451
5665.625 0.858 -30.585 0.509 59.071 0.509 59.071 0.858 -30.585
5690.583 0.857 -30.719 0.511 58.935 0.511 58.935 0.857 -30.719
5715.542 0.855 -30.853 0.513 58.799 0.513 58.799 0.855 -30.853
5740.5 0.854 -30.987 0.515 58.663 0.515 58.663 0.854 -30.987
5765.458 0.853 -31.121 0.517 58.527 0.517 58.527 0.853 -31.121
5790.417 0.852 -31.255 0.519 58.391 0.519 58.391 0.852 -31.255
5815.375 0.85 -31.389 0.521 58.255 0.521 58.255 0.85 -31.389
5840.333 0.849 -31.523 0.523 58.12 0.523 58.12 0.849 -31.523
5865.292 0.848 -31.657 0.525 57.984 0.525 57.984 0.848 -31.657
5890.25 0.847 -31.791 0.527 57.848 0.527 57.848 0.847 -31.791
5915.208 0.845 -31.925 0.529 57.712 0.529 57.712 0.845 -31.925
5940.167 0.844 -32.059 0.531 57.576 0.531 57.576 0.844 -32.059
5965.125 0.843 -32.193 0.533 57.44 0.533 57.44 0.843 -32.193
5990.083 0.842 -32.326 0.535 57.305 0.535 57.305 0.842 -32.326
6015.042 0.84 -32.46 0.537 57.169 0.537 57.169 0.84 -32.46
6040 0.839 -32.594 0.539 57.033 0.539 57.033 0.839 -32.594
6064.958 0.838 -32.728 0.541 56.897 0.541 56.897 0.838 -32.728
6089.917 0.836 -32.862 0.543 56.762 0.543 56.762 0.836 -32.862
6114.875 0.835 -32.995 0.545 56.626 0.545 56.626 0.835 -32.995
6139.833 0.834 -33.129 0.547 56.49 0.547 56.49 0.834 -33.129
6164.792 0.833 -33.263 0.548 56.355 0.548 56.355 0.833 -33.263
6189.75 0.831 -33.397 0.55 56.219 0.55 56.219 0.831 -33.397
6214.708 0.83 -33.53 0.552 56.083 0.552 56.083 0.83 -33.53
6239.667 0.829 -33.664 0.554 55.948 0.554 55.948 0.829 -33.664
6264.625 0.827 -33.798 0.556 55.812 0.556 55.812 0.827 -33.798
6289.583 0.826 -33.931 0.558 55.677 0.558 55.677 0.826 -33.931
6314.542 0.825 -34.065 0.56 55.541 0.56 55.541 0.825 -34.065
6339.5 0.823 -34.198 0.562 55.405 0.562 55.405 0.823 -34.198
6364.458 0.822 -34.332 0.564 55.27 0.564 55.27 0.822 -34.332
6389.417 0.821 -34.465 0.566 55.134 0.566 55.134 0.821 -34.465
6414.375 0.819 -34.599 0.568 54.999 0.568 54.999 0.819 -34.599
6439.333 0.818 -34.732 0.57 54.863 0.57 54.863 0.818 -34.732
6464.292 0.816 -34.866 0.572 54.728 0.572 54.728 0.816 -34.866
6489.25 0.815 -34.999 0.574 54.593 0.574 54.593 0.815 -34.999
6514.208 0.814 -35.132 0.575 54.457 0.575 54.457 0.814 -35.132
6539.167 0.812 -35.266 0.577 54.322 0.577 54.322 0.812 -35.266
6564.125 0.811 -35.399 0.579 54.186 0.579 54.186 0.811 -35.399
6589.083 0.81 -35.532 0.581 54.051 0.581 54.051 0.81 -35.532
6614.042 0.808 -35.665 0.583 53.916 0.583 53.916 0.808 -35.665
6639 0.807 -35.799 0.585 53.78 0.585 53.78 0.807 -35.799
6663.958 0.805 -35.932 0.587 53.645 0.587 53.645 0.805 -35.932
6688.917 0.804 -36.065 0.589 53.51 0.589 53.51 0.804 -36.065
6713.875 0.803 -36.198 0.591 53.375 0.591 53.375 0.803 -36.198
6738.833 0.801 -36.331 0.592 53.239 0.592 53.239 0.801 -36.331
6763.792 0.8 -36.464 0.594 53.104 0.594 53.104 0.8 -36.464
6788.75 0.798 -36.597 0.596 52.969 0.596 52.969 0.798 -36.597
6813.708 0.797 -36.73 0.598 52.834 0.598 52.834 0.797 -36.73
6838.667 0.795 -36.863 0.6 52.699 0.6 52.699 0.795 -36.863
6863.625 0.794 -36.996 0.602 52.564 0.602 52.564 0.794 -36.996
6888.583 0.793 -37.129 0.604 52.429 0.604 52.429 0.793 -37.129
6913.542 0.791 -37.262 0.605 52.294 0.605 52.294 0.791 -37.262
6938.5 0.79 -37.395 0.607 52.159 0.607 52.159 0.79 -37.395
6963.458 0.788 -37.528 0.609 52.024 0.609 52.024 0.788 -37.528
6988.417 0.787 -37.66 0.611 51.889 0.611 51.889 0.787 -37.66
7013.375 0.785 -37.793 0.613 51.754 0.613 51.754 0.785 -37.793
7038.333 0.784 -37.926 0.615 51.619 0.615 51.619 0.784 -37.926
7063.292 0.782 -38.059 0.616 51.484 0.616 51.484 0.782 -38.059
7088.25 0.781 -38.191 0.618 51.349 0.618 51.349 0.781 -38.191
7113.208 0.78 -38.324 0.62 51.214 0.62 51.214 0.78 -38.324
7138.167 0.778 -38.456 0.622 51.08 0.622 51.08 0.778 -38.456
7163.125 0.777 -38.589 0.624 50.945 0.624 50.945 0.777 -38.589
7188.083 0.775 -38.721 0.626 50.81 0.626 50.81 0.775 -38.721
7213.042 0.774 -38.854 0.627 50.675 0.627 50.675 0.774 -38.854
7238 0.772 -38.986 0.629 50.541 0.629 50.541 0.772 -38.986
7262.958 0.771 -39.119 0.631 50.406 0.631 50.406 0.771 -39.119
7287.917 0.769 -39.251 0.633 50.271 0.633 50.271 0.769 -39.251
7312.875 0.768 -39.383 0.635 50.137 0.635 50.137 0.768 -39.383
7337.833 0.766 -39.516 0.636 50.002 0.636 50.002 0.766 -39.516
7362.792 0.765 -39.648 0.638 49.868 0.638 49.868 0.765 -39.648
7387.75 0.763 -39.78 0.64 49.733 0.64 49.733 0.763 -39.78
7412.708 0.762 -39.912 0.642 49.599 0.642 49.599 0.762 -39.912
7437.667 0.76 -40.044 0.643 49.464 0.643 49.464 0.76 -40.044
7462.625 0.759 -40.176 0.645 49.33 0.645 49.33 0.759 -40.176
7487.583 0.757 -40.308 0.647 49.196 0.647 49.196 0.757 -40.308
7512.542 0.755 -40.44 0.649 49.061 0.649 49.061 0.755 -40.44
7537.5 0.754 -40.572 0.65 48.927 0.65 48.927 0.754 -40.572
7562.458 0.752 -40.704 0.652 48.793 0.652 48.793 0.752 -40.704
7587.417 0.751 -40.836 0.654 48.658 0.654 48.658 0.751 -40.836
7612.375 0.749 -40.968 0.656 48.524 0.656 48.524 0.749 -40.968
7637.333 0.748 -41.1 0.657 48.39 0.657 48.39 0.748 -41.1
7662.292 0.746 -41.231 0.659 48.256 0.659 48.256 0.746 -41.231
7687.25 0.745 -41.363 0.661 48.122 0.661 48.122 0.745 -41.363
7712.208 0.743 -41.495 0.663 47.988 0.663 47.988 0.743 -41.495
7737.167 0.741 -41.626 0.664 47.854 0.664 47.854 0.741 -41.626
7762.125 0.74 -41.758 0.666 47.72 0.666 47.72 0.74 -41.758
7787.083 0.738 -41.889 0.668 47.586 0.668 47.586 0.738 -41.889
7812.042 0.737 -42.021 0.669 47.452 0.669 47.452 0.737 -42.021
7837 0.735 -42.152 0.671 47.318 0.671 47.318 0.735 -42.152
7861.958 0.734 -42.283 0.673 47.184 0.673 47.184 0.734 -42.283
7886.917 0.732 -42.415 0.675 47.05 0.675 47.05 0.732 -42.415
7911.875 0.73 -42.546 0.676 46.917 0.676 46.917 0.73 -42.546
7936.833 0.729 -42.677 0.678 46.783 0.678 46.783 0.729 -42.677
7961.792 0.727 -42.808 0.68 46.649 0.68 46.649 0.727 -42.808
7986.75 0.726 -42.939 0.681 46.516 0.681 46.516 0.726 -42.939
8011.708 0.724 -43.07 0.683 46.382 0.683 46.382 0.724 -43.07
8036.667 0.722 -43.201 0.685 46.248 0.685 46.248 0.722 -43.201
8061.625 0.721 -43.332 0.686 46.115 0.686 46.115 0.721 -43.332
8086.583 0.719 -43.463 0.688 45.981 0.688 45.981 0.719 -43.463
8111.542 0.718 -43.594 0.69 45.848 0.69 45.848 0.718 -43.594
8136.5 0.716 -43.725 0.691 45.715 0.691 45.715 0.716 -43.725
8161.458 0.714 -43.856 0.693 45.581 0.693 45.581 0.714 -43.856
8186.417 0.713 -43.986 0.695 45.448 0.695 45.448 0.713 -43.986
