# MHZ S MA R 50

50 0.998 -3.506 0.061 86.49 0.061 86.49 0.998 -3.506
74.958 0.996 -5.248 0.091 84.746 0.091 84.746 0.996 -5.248
99.917 0.993 -6.981 0.122 83.011 0.122 83.011 0.993 -6.981
124.875 0.988 -8.702 0.151 81.287 0.151 81.287 0.988 -8.702
149.833 0.984 -10.409 0.181 79.579 0.181 79.579 0.984 -10.409
174.792 0.978 -12.097 0.21 77.888 0.21 77.888 0.978 -12.097
199.75 0.971 -13.766 0.238 76.217 0.238 76.217 0.971 -13.766
224.708 0.964 -15.413 0.266 74.569 0.266 74.569 0.964 -15.413
249.667 0.956 -17.035 0.293 72.944 0.293 72.944 0.956 -17.035
274.625 0.947 -18.632 0.319 71.346 0.319 71.346 0.947 -18.632
299.583 0.938 -20.201 0.345 69.775 0.345 69.775 0.938 -20.201
324.542 0.929 -21.74 0.37 68.233 0.37 68.233 0.929 -21.74
349.5 0.919 -23.249 0.395 66.722 0.395 66.722 0.919 -23.249
374.458 0.908 -24.727 0.418 65.242 0.418 65.242 0.908 -24.727
399.417 0.897 -26.173 0.441 63.795 0.441 63.795 0.897 -26.173
424.375 0.886 -27.586 0.463 62.38 0.463 62.38 0.886 -27.586
449.333 0.875 -28.965 0.484 60.998 0.484 60.998 0.875 -28.965
474.292 0.863 -30.312 0.505 59.649 0.505 59.649 0.863 -30.312
499.25 0.851 -31.625 0.524 58.334 0.524 58.334 0.851 -31.625
524.208 0.839 -32.904 0.543 57.053 0.543 57.053 0.839 -32.904
549.167 0.827 -34.15 0.561 55.805 0.561 55.805 0.827 -34.15
574.125 0.815 -35.363 0.579 54.59 0.579 54.59 0.815 -35.363
599.083 0.803 -36.543 0.595 53.408 0.595 53.408 0.803 -36.543
624.042 0.791 -37.691 0.611 52.258 0.611 52.258 0.791 -37.691
649 0.779 -38.807 0.627 51.14 0.627 51.14 0.779 -38.807
673.958 0.767 -39.892 0.641 50.052 0.641 50.052 0.767 -39.892
698.917 0.755 -40.947 0.655 48.996 0.655 48.996 0.755 -40.947
723.875 0.743 -41.971 0.669 47.969 0.669 47.969 0.743 -41.971
748.833 0.731 -42.967 0.682 46.971 0.682 46.971 0.731 -42.967
773.792 0.719 -43.934 0.694 46.002 0.694 46.002 0.719 -43.934
798.75 0.708 -44.874 0.706 45.06 0.706 45.06 0.708 -44.874
823.708 0.696 -45.787 0.717 44.145 0.717 44.145 0.696 -45.787
848.667 0.685 -46.674 0.727 43.256 0.727 43.256 0.685 -46.674
873.625 0.674 -47.535 0.738 42.392 0.738 42.392 0.674 -47.535
898.583 0.663 -48.372 0.747 41.553 0.747 41.553 0.663 -48.372
923.542 0.653 -49.185 0.757 40.738 0.757 40.738 0.653 -49.185
948.5 0.642 -49.975 0.766 39.945 0.766 39.945 0.642 -49.975
973.458 0.632 -50.743 0.774 39.175 0.774 39.175 0.632 -50.743
998.417 0.622 -51.49 0.782 38.426 0.782 38.426 0.622 -51.49
1023.375 0.612 -52.216 0.79 37.699 0.79 37.699 0.612 -52.216
1048.333 0.602 -52.921 0.798 36.991 0.798 36.991 0.602 -52.921
1073.292 0.592 -53.607 0.805 36.302 0.805 36.302 0.592 -53.607
1098.25 0.583 -54.274 0.812 35.633 0.812 35.633 0.583 -54.274
1123.208 0.573 -54.924 0.818 34.981 0.818 34.981 0.573 -54.924
1148.167 0.564 -55.555 0.825 34.347 0.825 34.347 0.564 -55.555
1173.125 0.555 -56.17 0.831 33.73 0.831 33.73 0.555 -56.17
1198.083 0.547 -56.769 0.836 33.129 0.836 33.129 0.547 -56.769
1223.042 0.538 -57.352 0.842 32.544 0.842 32.544 0.538 -57.352
1248 0.53 -57.919 0.847 31.974 0.847 31.974 0.53 -57.919
1272.958 0.521 -58.472 0.852 31.419 0.852 31.419 0.521 -58.472
1297.917 0.513 -59.011 0.857 30.878 0.857 30.878 0.513 -59.011
1322.875 0.505 -59.536 0.862 30.351 0.862 30.351 0.505 -59.536
1347.833 0.498 -60.048 0.866 29.836 0.866 29.836 0.498 -60.048
1372.792 0.49 -60.547 0.871 29.335 0.871 29.335 0.49 -60.547
1397.75 0.482 -61.034 0.875 28.845 0.875 28.845 0.482 -61.034
1422.708 0.475 -61.509 0.879 28.368 0.879 28.368 0.475 -61.509
1447.667 0.468 -61.973 0.883 27.902 0.883 27.902 0.468 -61.973
1472.625 0.461 -62.425 0.886 27.447 0.886 27.447 0.461 -62.425
1497.583 0.454 -62.867 0.89 27.003 0.89 27.003 0.454 -62.867
1522.542 0.447 -63.298 0.893 26.569 0.893 26.569 0.447 -63.298
1547.5 0.441 -63.72 0.897 26.145 0.897 26.145 0.441 -63.72
1572.458 0.434 -64.131 0.9 25.731 0.9 25.731 0.434 -64.131
1597.417 0.428 -64.534 0.903 25.326 0.903 25.326 0.428 -64.534
1622.375 0.422 -64.927 0.906 24.93 0.906 24.93 0.422 -64.927
1647.333 0.415 -65.312 0.909 24.543 0.909 24.543 0.415 -65.312
1672.292 0.409 -65.688 0.911 24.164 0.911 24.164 0.409 -65.688
1697.25 0.403 -66.056 0.914 23.793 0.914 23.793 0.403 -66.056
1722.208 0.398 -66.416 0.916 23.431 0.916 23.431 0.398 -66.416
1747.167 0.392 -66.769 0.919 23.075 0.919 23.075 0.392 -66.769
1772.125 0.386 -67.114 0.921 22.728 0.921 22.728 0.386 -67.114
1797.083 0.381 -67.452 0.924 22.387 0.924 22.387 0.381 -67.452
1822.042 0.375 -67.782 0.926 22.054 0.926 22.054 0.375 -67.782
1847 0.37 -68.107 0.928 21.727 0.928 21.727 0.37 -68.107
1871.958 0.365 -68.424 0.93 21.406 0.93 21.406 0.365 -68.424
1896.917 0.36 -68.735 0.932 21.092 0.932 21.092 0.36 -68.735
1921.875 0.355 -69.04 0.934 20.785 0.934 20.785 0.355 -69.04
1946.833 0.35 -69.34 0.936 20.483 0.936 20.483 0.35 -69.34
1971.792 0.345 -69.633 0.937 20.186 0.937 20.186 0.345 -69.633
1996.75 0.34 -69.921 0.939 19.896 0.939 19.896 0.34 -69.921
2021.708 0.336 -70.203 0.941 19.611 0.941 19.611 0.336 -70.203
2046.667 0.331 -70.48 0.943 19.331 0.943 19.331 0.331 -70.48
2071.625 0.326 -70.752 0.944 19.056 0.944 19.056 0.326 -70.752
2096.583 0.322 -71.019 0.946 18.786 0.946 18.786 0.322 -71.019
2121.542 0.318 -71.281 0.947 18.521 0.947 18.521 0.318 -71.281
2146.5 0.313 -71.538 0.949 18.26 0.949 18.26 0.313 -71.538
2171.458 0.309 -71.791 0.95 18.004 0.95 18.004 0.309 -71.791
2196.417 0.305 -72.04 0.951 17.753 0.951 17.753 0.305 -72.04
2221.375 0.301 -72.284 0.953 17.506 0.953 17.506 0.301 -72.284
2246.333 0.297 -72.524 0.954 17.263 0.954 17.263 0.297 -72.524
2271.292 0.293 -72.759 0.955 17.024 0.955 17.024 0.293 -72.759
2296.25 0.289 -72.991 0.956 16.789 0.956 16.789 0.289 -72.991
2321.208 0.285 -73.219 0.957 16.558 0.957 16.558 0.285 -73.219
2346.167 0.281 -73.443 0.959 16.33 0.959 16.33 0.281 -73.443
2371.125 0.277 -73.664 0.96 16.106 0.96 16.106 0.277 -73.664
2396.083 0.274 -73.881 0.961 15.886 0.961 15.886 0.274 -73.881
2421.042 0.27 -74.094 0.962 15.669 0.962 15.669 0.27 -74.094
2446 0.266 -74.304 0.963 15.456 0.963 15.456 0.266 -74.304
2470.958 0.263 -74.511 0.964 15.245 0.964 15.245 0.263 -74.511
2495.917 0.259 -74.715 0.965 15.038 0.965 15.038 0.259 -74.715
2520.875 0.256 -74.915 0.966 14.834 0.966 14.834 0.256 -74.915
2545.833 0.253 -75.112 0.966 14.633 0.966 14.633 0.253 -75.112
2570.792 0.249 -75.307 0.967 14.435 0.967 14.435 0.249 -75.307
2595.75 0.246 -75.498 0.968 14.24 0.968 14.24 0.246 -75.498
2620.708 0.243 -75.687 0.969 14.048 0.969 14.048 0.243 -75.687
2645.667 0.24 -75.873 0.97 13.858 0.97 13.858 0.24 -75.873
2670.625 0.236 -76.056 0.971 13.671 0.971 13.671 0.236 -76.056
2695.583 0.233 -76.236 0.971 13.487 0.971 13.487 0.233 -76.236
2720.542 0.23 -76.414 0.972 13.305 0.972 13.305 0.23 -76.414
2745.5 0.227 -76.59 0.973 13.126 0.973 13.126 0.227 -76.59
2770.458 0.224 -76.763 0.973 12.949 0.973 12.949 0.224 -76.763
2795.417 0.221 -76.933 0.974 12.774 0.974 12.774 0.221 -76.933
2820.375 0.218 -77.101 0.975 12.602 0.975 12.602 0.218 -77.101
2845.333 0.215 -77.267 0.975 12.431 0.975 12.431 0.215 -77.267
2870.292 0.212 -77.431 0.976 12.264 0.976 12.264 0.212 -77.431
2895.25 0.21 -77.592 0.977 12.098 0.977 12.098 0.21 -77.592
2920.208 0.207 -77.752 0.977 11.934 0.977 11.934 0.207 -77.752
2945.167 0.204 -77.909 0.978 11.772 0.978 11.772 0.204 -77.909
2970.125 0.201 -78.064 0.978 11.613 0.978 11.613 0.201 -78.064
2995.083 0.199 -78.217 0.979 11.455 0.979 11.455 0.199 -78.217
3020.042 0.196 -78.368 0.979 11.299 0.979 11.299 0.196 -78.368
3045 0.193 -78.517 0.98 11.145 0.98 11.145 0.193 -78.517
3069.958 0.191 -78.665 0.981 10.993 0.981 10.993 0.191 -78.665
3094.917 0.188 -78.81 0.981 10.843 0.981 10.843 0.188 -78.81
3119.875 0.186 -78.954 0.981 10.694 0.981 10.694 0.186 -78.954
3144.833 0.183 -79.096 0.982 10.548 0.982 10.548 0.183 -79.096
3169.792 0.181 -79.236 0.982 10.402 0.982 10.402 0.181 -79.236
3194.75 0.178 -79.374 0.983 10.259 0.983 10.259 0.178 -79.374
3219.708 0.176 -79.511 0.983 10.117 0.983 10.117 0.176 -79.511
3244.667 0.173 -79.646 0.984 9.977 0.984 9.977 0.173 -79.646
3269.625 0.171 -79.779 0.984 9.838 0.984 9.838 0.171 -79.779
3294.583 0.168 -79.911 0.985 9.7 0.985 9.7 0.168 -79.911
3319.542 0.166 -80.042 0.985 9.564 0.985 9.564 0.166 -80.042
3344.5 0.164 -80.17 0.985 9.43 0.985 9.43 0.164 -80.17
3369.458 0.162 -80.297 0.986 9.297 0.986 9.297 0.162 -80.297
3394.417 0.159 -80.423 0.986 9.165 0.986 9.165 0.159 -80.423
3419.375 0.157 -80.547 0.986 9.035 0.986 9.035 0.157 -80.547
3444.333 0.155 -80.67 0.987 8.906 0.987 8.906 0.155 -80.67
3469.292 0.153 -80.792 0.987 8.778 0.987 8.778 0.153 -80.792
3494.25 0.15 -80.912 0.987 8.652 0.987 8.652 0.15 -80.912
3519.208 0.148 -81.03 0.988 8.527 0.988 8.527 0.148 -81.03
3544.167 0.146 -81.148 0.988 8.403 0.988 8.403 0.146 -81.148
3569.125 0.144 -81.264 0.988 8.28 0.988 8.28 0.144 -81.264
3594.083 0.142 -81.378 0.989 8.159 0.989 8.159 0.142 -81.378
3619.042 0.14 -81.492 0.989 8.038 0.989 8.038 0.14 -81.492
3644 0.138 -81.604 0.989 7.919 0.989 7.919 0.138 -81.604
3668.958 0.136 -81.715 0.99 7.801 0.99 7.801 0.136 -81.715
3693.917 0.134 -81.824 0.99 7.684 0.99 7.684 0.134 -81.824
3718.875 0.132 -81.933 0.99 7.568 0.99 7.568 0.132 -81.933
3743.833 0.13 -82.04 0.99 7.453 0.99 7.453 0.13 -82.04
3768.792 0.128 -82.146 0.991 7.339 0.991 7.339 0.128 -82.146
3793.75 0.126 -82.25 0.991 7.226 0.991 7.226 0.126 -82.25
3818.708 0.124 -82.354 0.991 7.114 0.991 7.114 0.124 -82.354
3843.667 0.122 -82.456 0.991 7.003 0.991 7.003 0.122 -82.456
3868.625 0.12 -82.558 0.992 6.893 0.992 6.893 0.12 -82.558
3893.583 0.118 -82.658 0.992 6.784 0.992 6.784 0.118 -82.658
3918.542 0.116 -82.757 0.992 6.676 0.992 6.676 0.116 -82.757
3943.5 0.114 -82.855 0.992 6.569 0.992 6.569 0.114 -82.855
3968.458 0.113 -82.951 0.992 6.462 0.992 6.462 0.113 -82.951
3993.417 0.111 -83.047 0.993 6.357 0.993 6.357 0.111 -83.047
4018.375 0.109 -83.142 0.993 6.252 0.993 6.252 0.109 -83.142
4043.333 0.107 -83.235 0.993 6.149 0.993 6.149 0.107 -83.235
4068.292 0.105 -83.327 0.993 6.046 0.993 6.046 0.105 -83.327
4093.25 0.104 -83.419 0.993 5.944 0.993 5.944 0.104 -83.419
4118.208 0.102 -83.509 0.994 5.842 0.994 5.842 0.102 -83.509
4143.167 0.1 -83.598 0.994 5.742 0.994 5.742 0.1 -83.598
4168.125 0.098 -83.686 0.994 5.642 0.994 5.642 0.098 -83.686
4193.083 0.097 -83.773 0.994 5.543 0.994 5.543 0.097 -83.773
4218.042 0.095 -83.858 0.994 5.445 0.994 5.445 0.095 -83.858
4243 0.093 -83.943 0.994 5.347 0.994 5.347 0.093 -83.943
4267.958 0.092 -84.027 0.995 5.251 0.995 5.251 0.092 -84.027
4292.917 0.09 -84.109 0.995 5.155 0.995 5.155 0.09 -84.109
4317.875 0.088 -84.191 0.995 5.059 0.995 5.059 0.088 -84.191
4342.833 0.087 -84.271 0.995 4.965 0.995 4.965 0.087 -84.271
4367.792 0.085 -84.35 0.995 4.871 0.995 4.871 0.085 -84.35
4392.75 0.083 -84.428 0.995 4.777 0.995 4.777 0.083 -84.428
4417.708 0.082 -84.505 0.996 4.685 0.996 4.685 0.082 -84.505
4442.667 0.08 -84.581 0.996 4.593 0.996 4.593 0.08 -84.581
4467.625 0.078 -84.655 0.996 4.501 0.996 4.501 0.078 -84.655
4492.583 0.077 -84.729 0.996 4.411 0.996 4.411 0.077 -84.729
4517.542 0.075 -84.801 0.996 4.321 0.996 4.321 0.075 -84.801
4542.5 0.074 -84.871 0.996 4.231 0.996 4.231 0.074 -84.871
4567.458 0.072 -84.941 0.996 4.142 0.996 4.142 0.072 -84.941
4592.417 0.071 -85.009 0.996 4.054 0.996 4.054 0.071 -85.009
4617.375 0.069 -85.076 0.996 3.966 0.996 3.966 0.069 -85.076
4642.333 0.068 -85.142 0.997 3.879 0.997 3.879 0.068 -85.142
4667.292 0.066 -85.206 0.997 3.792 0.997 3.792 0.066 -85.206
4692.25 0.065 -85.269 0.997 3.706 0.997 3.706 0.065 -85.269
4717.208 0.063 -85.33 0.997 3.621 0.997 3.621 0.063 -85.33
4742.167 0.062 -85.39 0.997 3.536 0.997 3.536 0.062 -85.39
4767.125 0.06 -85.448 0.997 3.451 0.997 3.451 0.06 -85.448
4792.083 0.059 -85.504 0.997 3.367 0.997 3.367 0.059 -85.504
4817.042 0.057 -85.559 0.997 3.284 0.997 3.284 0.057 -85.559
4842 0.056 -85.612 0.997 3.201 0.997 3.201 0.056 -85.612
4866.958 0.054 -85.663 0.997 3.118 0.997 3.118 0.054 -85.663
4891.917 0.053 -85.712 0.997 3.037 0.997 3.037 0.053 -85.712
4916.875 0.052 -85.759 0.998 2.955 0.998 2.955 0.052 -85.759
4941.833 0.05 -85.804 0.998 2.874 0.998 2.874 0.05 -85.804
4966.792 0.049 -85.846 0.998 2.794 0.998 2.794 0.049 -85.846
4991.75 0.047 -85.886 0.998 2.714 0.998 2.714 0.047 -85.886
5016.708 0.046 -85.923 0.998 2.634 0.998 2.634 0.046 -85.923
5041.667 0.045 -85.957 0.998 2.555 0.998 2.555 0.045 -85.957
5066.625 0.043 -85.989 0.998 2.476 0.998 2.476 0.043 -85.989
5091.583 0.042 -86.017 0.998 2.398 0.998 2.398 0.042 -86.017
5116.542 0.04 -86.041 0.998 2.32 0.998 2.32 0.04 -86.041
5141.5 0.039 -86.062 0.998 2.243 0.998 2.243 0.039 -86.062
5166.458 0.038 -86.079 0.998 2.166 0.998 2.166 0.038 -86.079
5191.417 0.036 -86.091 0.998 2.089 0.998 2.089 0.036 -86.091
5216.375 0.035 -86.098 0.998 2.013 0.998 2.013 0.035 -86.098
5241.333 0.034 -86.1 0.998 1.937 0.998 1.937 0.034 -86.1
5266.292 0.033 -86.096 0.998 1.862 0.998 1.862 0.033 -86.096
5291.25 0.031 -86.086 0.998 1.787 0.998 1.787 0.031 -86.086
5316.208 0.03 -86.068 0.998 1.712 0.998 1.712 0.03 -86.068
5341.167 0.029 -86.041 0.998 1.638 0.998 1.638 0.029 -86.041
5366.125 0.027 -86.006 0.998 1.564 0.998 1.564 0.027 -86.006
5391.083 0.026 -85.959 0.999 1.491 0.999 1.491 0.026 -85.959
5416.042 0.025 -85.901 0.999 1.418 0.999 1.418 0.025 -85.901
5441 0.024 -85.829 0.999 1.345 0.999 1.345 0.024 -85.829
5465.958 0.022 -85.741 0.999 1.273 0.999 1.273 0.022 -85.741
5490.917 0.021 -85.634 0.999 1.201 0.999 1.201 0.021 -85.634
5515.875 0.02 -85.505 0.999 1.129 0.999 1.129 0.02 -85.505
5540.833 0.018 -85.35 0.999 1.058 0.999 1.058 0.018 -85.35
5565.792 0.017 -85.163 0.999 0.987 0.999 0.987 0.017 -85.163
5590.75 0.016 -84.938 0.999 0.916 0.999 0.916 0.016 -84.938
5615.708 0.015 -84.665 0.999 0.846 0.999 0.846 0.015 -84.665
5640.667 0.014 -84.331 0.999 0.776 0.999 0.776 0.014 -84.331
5665.625 0.012 -83.921 0.999 0.706 0.999 0.706 0.012 -83.921
5690.583 0.011 -83.409 0.999 0.637 0.999 0.637 0.011 -83.409
5715.542 9.973e-3 -82.759 0.999 0.568 0.999 0.568 9.973e-3 -82.759
5740.5 8.783e-3 -81.919 0.999 0.499 0.999 0.499 8.783e-3 -81.919
5765.458 7.6e-3 -80.799 0.999 0.43 0.999 0.43 7.6e-3 -80.799
5790.417 6.428e-3 -79.251 0.999 0.362 0.999 0.362 6.428e-3 -79.251
5815.375 5.268e-3 -76.997 0.999 0.294 0.999 0.294 5.268e-3 -76.997
5840.333 4.126e-3 -73.461 0.999 0.227 0.999 0.227 4.126e-3 -73.461
5865.292 3.018e-3 -67.258 0.999 0.16 0.999 0.16 3.018e-3 -67.258
5890.25 1.99e-3 -54.295 0.999 0.093 0.999 0.093 1.99e-3 -54.295
5915.208 1.245e-3 -21.387 0.999 0.026 0.999 0.026 1.245e-3 -21.387
5940.167 1.356e-3 31.243 0.999 -0.04 0.999 -0.04 1.356e-3 31.243
5965.125 2.19e-3 57.94 0.999 -0.106 0.999 -0.106 2.19e-3 57.94
5990.083 3.223e-3 68.751 0.999 -0.172 0.999 -0.172 3.223e-3 68.751
6015.042 4.31e-3 74.164 0.999 -0.238 0.999 -0.238 4.31e-3 74.164
6040 5.416e-3 77.342 0.999 -0.303 0.999 -0.303 5.416e-3 77.342
6064.958 6.53e-3 79.408 0.999 -0.368 0.999 -0.368 6.53e-3 79.408
6089.917 7.645e-3 80.848 0.999 -0.433 0.999 -0.433 7.645e-3 80.848
6114.875 8.759e-3 81.9 0.999 -0.497 0.999 -0.497 8.759e-3 81.9
6139.833 9.872e-3 82.697 0.999 -0.562 0.999 -0.562 9.872e-3 82.697
6164.792 0.011 83.317 0.999 -0.626 0.999 -0.626 0.011 83.317
6189.75 0.012 83.81 0.999 -0.689 0.999 -0.689 0.012 83.81
6214.708 0.013 84.208 0.999 -0.753 0.999 -0.753 0.013 84.208
6239.667 0.014 84.533 0.999 -0.816 0.999 -0.816 0.014 84.533
6264.625 0.015 84.802 0.999 -0.879 0.999 -0.879 0.015 84.802
6289.583 0.016 85.026 0.999 -0.942 0.999 -0.942 0.016 85.026
6314.542 0.018 85.214 0.999 -1.005 0.999 -1.005 0.018 85.214
6339.5 0.019 85.372 0.999 -1.067 0.999 -1.067 0.019 85.372
6364.458 0.02 85.505 0.999 -1.129 0.999 -1.129 0.02 85.505
6389.417 0.021 85.618 0.999 -1.191 0.999 -1.191 0.021 85.618
6414.375 0.022 85.713 0.999 -1.252 0.999 -1.252 0.022 85.713
6439.333 0.023 85.793 0.999 -1.314 0.999 -1.314 0.023 85.793
6464.292 0.024 85.861 0.999 -1.375 0.999 -1.375 0.024 85.861
6489.25 0.025 85.917 0.999 -1.436 0.999 -1.436 0.025 85.917
6514.208 0.026 85.964 0.999 -1.497 0.999 -1.497 0.026 85.964
6539.167 0.027 86.002 0.998 -1.557 0.998 -1.557 0.027 86.002
6564.125 0.028 86.032 0.998 -1.618 0.998 -1.618 0.028 86.032
6589.083 0.029 86.056 0.998 -1.678 0.998 -1.678 0.029 86.056
6614.042 0.03 86.075 0.998 -1.738 0.998 -1.738 0.03 86.075
6639 0.031 86.088 0.998 -1.797 0.998 -1.797 0.031 86.088
6663.958 0.032 86.096 0.998 -1.857 0.998 -1.857 0.032 86.096
6688.917 0.033 86.1 0.998 -1.916 0.998 -1.916 0.033 86.1
6713.875 0.034 86.1 0.998 -1.975 0.998 -1.975 0.034 86.1
6738.833 0.036 86.097 0.998 -2.034 0.998 -2.034 0.036 86.097
6763.792 0.037 86.091 0.998 -2.093 0.998 -2.093 0.037 86.091
6788.75 0.038 86.082 0.998 -2.151 0.998 -2.151 0.038 86.082
6813.708 0.039 86.07 0.998 -2.21 0.998 -2.21 0.039 86.07
6838.667 0.04 86.056 0.998 -2.268 0.998 -2.268 0.04 86.056
6863.625 0.041 86.04 0.998 -2.326 0.998 -2.326 0.041 86.04
6888.583 0.042 86.022 0.998 -2.384 0.998 -2.384 0.042 86.022
6913.542 0.043 86.002 0.998 -2.441 0.998 -2.441 0.043 86.002
6938.5 0.044 85.98 0.998 -2.498 0.998 -2.498 0.044 85.98
6963.458 0.045 85.957 0.998 -2.556 0.998 -2.556 0.045 85.957
6988.417 0.046 85.932 0.998 -2.613 0.998 -2.613 0.046 85.932
7013.375 0.047 85.907 0.998 -2.67 0.998 -2.67 0.047 85.907
7038.333 0.048 85.88 0.998 -2.726 0.998 -2.726 0.048 85.88
7063.292 0.049 85.851 0.998 -2.783 0.998 -2.783 0.049 85.851
7088.25 0.05 85.822 0.998 -2.839 0.998 -2.839 0.05 85.822
7113.208 0.051 85.792 0.998 -2.895 0.998 -2.895 0.051 85.792
7138.167 0.052 85.761 0.998 -2.951 0.998 -2.951 0.052 85.761
7163.125 0.052 85.729 0.997 -3.007 0.997 -3.007 0.052 85.729
7188.083 0.053 85.696 0.997 -3.063 0.997 -3.063 0.053 85.696
7213.042 0.054 85.663 0.997 -3.119 0.997 -3.119 0.054 85.663
7238 0.055 85.629 0.997 -3.174 0.997 -3.174 0.055 85.629
7262.958 0.056 85.594 0.997 -3.229 0.997 -3.229 0.056 85.594
7287.917 0.057 85.559 0.997 -3.284 0.997 -3.284 0.057 85.559
7312.875 0.058 85.523 0.997 -3.339 0.997 -3.339 0.058 85.523
7337.833 0.059 85.487 0.997 -3.394 0.997 -3.394 0.059 85.487
7362.792 0.06 85.45 0.997 -3.448 0.997 -3.448 0.06 85.45
7387.75 0.061 85.413 0.997 -3.503 0.997 -3.503 0.061 85.413
7412.708 0.062 85.375 0.997 -3.557 0.997 -3.557 0.062 85.375
7437.667 0.063 85.337 0.997 -3.611 0.997 -3.611 0.063 85.337
7462.625 0.064 85.298 0.997 -3.665 0.997 -3.665 0.064 85.298
7487.583 0.065 85.259 0.997 -3.719 0.997 -3.719 0.065 85.259
7512.542 0.066 85.22 0.997 -3.773 0.997 -3.773 0.066 85.22
7537.5 0.067 85.181 0.997 -3.826 0.997 -3.826 0.067 85.181
7562.458 0.068 85.141 0.997 -3.88 0.997 -3.88 0.068 85.141
7587.417 0.069 85.101 0.996 -3.933 0.996 -3.933 0.069 85.101
7612.375 0.07 85.061 0.996 -3.986 0.996 -3.986 0.07 85.061
7637.333 0.07 85.021 0.996 -4.039 0.996 -4.039 0.07 85.021
7662.292 0.071 84.98 0.996 -4.092 0.996 -4.092 0.071 84.98
7687.25 0.072 84.939 0.996 -4.145 0.996 -4.145 0.072 84.939
7712.208 0.073 84.898 0.996 -4.197 0.996 -4.197 0.073 84.898
7737.167 0.074 84.857 0.996 -4.25 0.996 -4.25 0.074 84.857
7762.125 0.075 84.815 0.996 -4.302 0.996 -4.302 0.075 84.815
7787.083 0.076 84.774 0.996 -4.354 0.996 -4.354 0.076 84.774
7812.042 0.077 84.732 0.996 -4.406 0.996 -4.406 0.077 84.732
7837 0.078 84.69 0.996 -4.458 0.996 -4.458 0.078 84.69
7861.958 0.079 84.648 0.996 -4.51 0.996 -4.51 0.079 84.648
7886.917 0.08 84.606 0.996 -4.562 0.996 -4.562 0.08 84.606
7911.875 0.08 84.564 0.996 -4.613 0.996 -4.613 0.08 84.564
7936.833 0.081 84.521 0.996 -4.665 0.996 -4.665 0.081 84.521
7961.792 0.082 84.479 0.995 -4.716 0.995 -4.716 0.082 84.479
7986.75 0.083 84.436 0.995 -4.767 0.995 -4.767 0.083 84.436
8011.708 0.084 84.394 0.995 -4.818 0.995 -4.818 0.084 84.394
8036.667 0.085 84.351 0.995 -4.869 0.995 -4.869 0.085 84.351
8061.625 0.086 84.308 0.995 -4.92 0.995 -4.92 0.086 84.308
8086.583 0.087 84.266 0.995 -4.971 0.995 -4.971 0.087 84.266
8111.542 0.088 84.223 0.995 -5.021 0.995 -5.021 0.088 84.223
8136.5 0.088 84.18 0.995 -5.072 0.995 -5.072 0.088 84.18
8161.458 0.089 84.137 0.995 -5.122 0.995 -5.122 0.089 84.137
8186.417 0.09 84.094 0.995 -5.173 0.995 -5.173 0.09 84.094
8211.375 0.091 84.051 0.995 -5.223 0.995 -5.223 0.091 84.051
