# MHZ S MA R 50

50 0.999 -2.788 0.049 87.208 0.049 87.208 0.999 -2.788
74.958 0.997 -4.176 0.073 85.818 0.073 85.818 0.997 -4.176
99.917 0.995 -5.559 0.097 84.432 0.097 84.432 0.995 -5.559
124.875 0.993 -6.936 0.121 83.053 0.121 83.053 0.993 -6.936
149.833 0.989 -8.306 0.144 81.681 0.144 81.681 0.989 -8.306
174.792 0.986 -9.667 0.168 80.318 0.168 80.318 0.986 -9.667
199.75 0.982 -11.018 0.191 78.965 0.191 78.965 0.982 -11.018
224.708 0.977 -12.358 0.214 77.623 0.214 77.623 0.977 -12.358
249.667 0.972 -13.685 0.237 76.294 0.237 76.294 0.972 -13.685
274.625 0.966 -14.998 0.259 74.979 0.259 74.979 0.966 -14.998
299.583 0.96 -16.296 0.281 73.678 0.281 73.678 0.96 -16.296
324.542 0.953 -17.579 0.302 72.393 0.302 72.393 0.953 -17.579
349.5 0.946 -18.845 0.323 71.125 0.323 71.125 0.946 -18.845
374.458 0.939 -20.094 0.344 69.874 0.344 69.874 0.939 -20.094
399.417 0.931 -21.325 0.364 68.641 0.364 68.641 0.931 -21.325
424.375 0.923 -22.537 0.383 67.426 0.383 67.426 0.923 -22.537
449.333 0.915 -23.73 0.402 66.231 0.402 66.231 0.915 -23.73
474.292 0.907 -24.903 0.421 65.056 0.421 65.056 0.907 -24.903
499.25 0.898 -26.057 0.439 63.901 0.439 63.901 0.898 -26.057
524.208 0.889 -27.189 0.457 62.766 0.457 62.766 0.889 -27.189
549.167 0.88 -28.301 0.474 61.651 0.474 61.651 0.88 -28.301
574.125 0.871 -29.393 0.491 60.558 0.491 60.558 0.871 -29.393
599.083 0.861 -30.463 0.507 59.485 0.507 59.485 0.861 -30.463
624.042 0.852 -31.513 0.523 58.433 0.523 58.433 0.852 -31.513
649 0.842 -32.542 0.538 57.402 0.538 57.402 0.842 -32.542
673.958 0.833 -33.549 0.553 56.392 0.553 56.392 0.833 -33.549
698.917 0.823 -34.536 0.567 55.403 0.567 55.403 0.823 -34.536
723.875 0.813 -35.503 0.581 54.434 0.581 54.434 0.813 -35.503
748.833 0.804 -36.449 0.594 53.486 0.594 53.486 0.804 -36.449
773.792 0.794 -37.375 0.607 52.558 0.607 52.558 0.794 -37.375
798.75 0.784 -38.281 0.62 51.65 0.62 51.65 0.784 -38.281
823.708 0.775 -39.167 0.632 50.762 0.632 50.762 0.775 -39.167
848.667 0.765 -40.033 0.643 49.893 0.643 49.893 0.765 -40.033
873.625 0.755 -40.881 0.654 49.043 0.654 49.043 0.755 -40.881
898.583 0.746 -41.71 0.665 48.212 0.665 48.212 0.746 -41.71
923.542 0.736 -42.52 0.676 47.399 0.676 47.399 0.736 -42.52
948.5 0.727 -43.313 0.686 46.604 0.686 46.604 0.727 -43.313
973.458 0.717 -44.087 0.696 45.828 0.696 45.828 0.717 -44.087
998.417 0.708 -44.845 0.705 45.068 0.705 45.068 0.708 -44.845
1023.375 0.699 -45.585 0.714 44.325 0.714 44.325 0.699 -45.585
1048.333 0.69 -46.309 0.723 43.599 0.723 43.599 0.69 -46.309
1073.292 0.681 -47.017 0.732 42.889 0.732 42.889 0.681 -47.017
1098.25 0.672 -47.709 0.74 42.195 0.74 42.195 0.672 -47.709
1123.208 0.663 -48.385 0.748 41.516 0.748 41.516 0.663 -48.385
1148.167 0.654 -49.046 0.755 40.852 0.755 40.852 0.654 -49.046
1173.125 0.646 -49.693 0.763 40.203 0.763 40.203 0.646 -49.693
1198.083 0.637 -50.326 0.77 39.568 0.77 39.568 0.637 -50.326
1223.042 0.629 -50.944 0.777 38.947 0.777 38.947 0.629 -50.944
1248 0.62 -51.549 0.783 38.34 0.783 38.34 0.62 -51.549
1272.958 0.612 -52.141 0.79 37.746 0.79 37.746 0.612 -52.141
1297.917 0.604 -52.72 0.796 37.165 0.796 37.165 0.604 -52.72
1322.875 0.596 -53.286 0.802 36.596 0.802 36.596 0.596 -53.286
1347.833 0.588 -53.84 0.807 36.039 0.807 36.039 0.588 -53.84
1372.792 0.581 -54.383 0.813 35.495 0.813 35.495 0.581 -54.383
1397.75 0.573 -54.913 0.818 34.961 0.818 34.961 0.573 -54.913
1422.708 0.566 -55.433 0.823 34.439 0.823 34.439 0.566 -55.433
1447.667 0.558 -55.942 0.828 33.928 0.828 33.928 0.558 -55.942
1472.625 0.551 -56.44 0.833 33.428 0.833 33.428 0.551 -56.44
1497.583 0.544 -56.927 0.838 32.938 0.838 32.938 0.544 -56.927
1522.542 0.537 -57.405 0.843 32.457 0.843 32.457 0.537 -57.405
1547.5 0.53 -57.873 0.847 31.987 0.847 31.987 0.53 -57.873
1572.458 0.523 -58.331 0.851 31.526 0.851 31.526 0.523 -58.331
1597.417 0.516 -58.78 0.855 31.074 0.855 31.074 0.516 -58.78
1622.375 0.51 -59.221 0.859 30.631 0.859 30.631 0.51 -59.221
1647.333 0.503 -59.652 0.863 30.197 0.863 30.197 0.503 -59.652
1672.292 0.497 -60.075 0.867 29.772 0.867 29.772 0.497 -60.075
1697.25 0.49 -60.49 0.87 29.354 0.87 29.354 0.49 -60.49
1722.208 0.484 -60.897 0.874 28.945 0.874 28.945 0.484 -60.897
1747.167 0.478 -61.295 0.877 28.544 0.877 28.544 0.478 -61.295
1772.125 0.472 -61.687 0.88 28.15 0.88 28.15 0.472 -61.687
1797.083 0.466 -62.071 0.884 27.763 0.884 27.763 0.466 -62.071
1822.042 0.46 -62.447 0.887 27.384 0.887 27.384 0.46 -62.447
1847 0.454 -62.817 0.89 27.011 0.89 27.011 0.454 -62.817
1871.958 0.448 -63.18 0.892 26.646 0.892 26.646 0.448 -63.18
1896.917 0.443 -63.536 0.895 26.287 0.895 26.287 0.443 -63.536
1921.875 0.437 -63.886 0.898 25.934 0.898 25.934 0.437 -63.886
1946.833 0.432 -64.229 0.901 25.588 0.901 25.588 0.432 -64.229
1971.792 0.427 -64.566 0.903 25.248 0.903 25.248 0.427 -64.566
1996.75 0.421 -64.898 0.906 24.914 0.906 24.914 0.421 -64.898
2021.708 0.416 -65.223 0.908 24.585 0.908 24.585 0.416 -65.223
2046.667 0.411 -65.543 0.91 24.262 0.91 24.262 0.411 -65.543
2071.625 0.406 -65.858 0.913 23.945 0.913 23.945 0.406 -65.858
2096.583 0.401 -66.167 0.915 23.633 0.915 23.633 0.401 -66.167
2121.542 0.396 -66.471 0.917 23.326 0.917 23.326 0.396 -66.471
2146.5 0.391 -66.77 0.919 23.024 0.919 23.024 0.391 -66.77
2171.458 0.386 -67.063 0.921 22.728 0.921 22.728 0.386 -67.063
2196.417 0.382 -67.352 0.923 22.436 0.923 22.436 0.382 -67.352
2221.375 0.377 -67.636 0.925 22.148 0.925 22.148 0.377 -67.636
2246.333 0.372 -67.916 0.927 21.866 0.927 21.866 0.372 -67.916
2271.292 0.368 -68.191 0.928 21.587 0.928 21.587 0.368 -68.191
2296.25 0.363 -68.462 0.93 21.314 0.93 21.314 0.363 -68.462
2321.208 0.359 -68.729 0.932 21.044 0.932 21.044 0.359 -68.729
2346.167 0.355 -68.991 0.934 20.778 0.934 20.778 0.355 -68.991
2371.125 0.35 -69.249 0.935 20.517 0.935 20.517 0.35 -69.249
2396.083 0.346 -69.503 0.937 20.259 0.937 20.259 0.346 -69.503
2421.042 0.342 -69.754 0.938 20.006 0.938 20.006 0.342 -69.754
2446 0.338 -70.001 0.94 19.756 0.94 19.756 0.338 -70.001
2470.958 0.334 -70.244 0.941 19.509 0.941 19.509 0.334 -70.244
2495.917 0.33 -70.483 0.943 19.267 0.943 19.267 0.33 -70.483
2520.875 0.326 -70.719 0.944 19.027 0.944 19.027 0.326 -70.719
2545.833 0.322 -70.951 0.945 18.792 0.945 18.792 0.322 -70.951
2570.792 0.318 -71.18 0.947 18.559 0.947 18.559 0.318 -71.18
2595.75 0.314 -71.406 0.948 18.33 0.948 18.33 0.314 -71.406
2620.708 0.311 -71.629 0.949 18.104 0.949 18.104 0.311 -71.629
2645.667 0.307 -71.848 0.95 17.881 0.95 17.881 0.307 -71.848
2670.625 0.303 -72.064 0.951 17.661 0.951 17.661 0.303 -72.064
2695.583 0.3 -72.278 0.953 17.444 0.953 17.444 0.3 -72.278
2720.542 0.296 -72.488 0.954 17.23 0.954 17.23 0.296 -72.488
2745.5 0.293 -72.696 0.955 17.018 0.955 17.018 0.293 -72.696
2770.458 0.289 -72.901 0.956 16.81 0.956 16.81 0.289 -72.901
2795.417 0.286 -73.103 0.957 16.604 0.957 16.604 0.286 -73.103
2820.375 0.282 -73.302 0.958 16.401 0.958 16.401 0.282 -73.302
2845.333 0.279 -73.499 0.959 16.2 0.959 16.2 0.279 -73.499
2870.292 0.276 -73.693 0.96 16.002 0.96 16.002 0.276 -73.693
2895.25 0.272 -73.884 0.961 15.806 0.961 15.806 0.272 -73.884
2920.208 0.269 -74.074 0.962 15.613 0.962 15.613 0.269 -74.074
2945.167 0.266 -74.26 0.963 15.422 0.963 15.422 0.266 -74.26
2970.125 0.263 -74.445 0.963 15.234 0.963 15.234 0.263 -74.445
2995.083 0.26 -74.627 0.964 15.048 0.964 15.048 0.26 -74.627
3020.042 0.257 -74.807 0.965 14.863 0.965 14.863 0.257 -74.807
3045 0.253 -74.984 0.966 14.682 0.966 14.682 0.253 -74.984
3069.958 0.25 -75.16 0.967 14.502 0.967 14.502 0.25 -75.16
3094.917 0.247 -75.333 0.967 14.324 0.967 14.324 0.247 -75.333
3119.875 0.244 -75.504 0.968 14.149 0.968 14.149 0.244 -75.504
3144.833 0.242 -75.673 0.969 13.975 0.969 13.975 0.242 -75.673
3169.792 0.239 -75.84 0.97 13.803 0.97 13.803 0.239 -75.84
3194.75 0.236 -76.005 0.97 13.634 0.97 13.634 0.236 -76.005
3219.708 0.233 -76.169 0.971 13.466 0.971 13.466 0.233 -76.169
3244.667 0.23 -76.33 0.972 13.3 0.972 13.3 0.23 -76.33
3269.625 0.227 -76.489 0.972 13.136 0.972 13.136 0.227 -76.489
3294.583 0.224 -76.647 0.973 12.973 0.973 12.973 0.224 -76.647
3319.542 0.222 -76.803 0.974 12.812 0.974 12.812 0.222 -76.803
3344.5 0.219 -76.957 0.974 12.653 0.974 12.653 0.219 -76.957
3369.458 0.216 -77.109 0.975 12.496 0.975 12.496 0.216 -77.109
3394.417 0.214 -77.26 0.975 12.34 0.975 12.34 0.214 -77.26
3419.375 0.211 -77.408 0.976 12.186 0.976 12.186 0.211 -77.408
3444.333 0.208 -77.556 0.977 12.034 0.977 12.034 0.208 -77.556
3469.292 0.206 -77.701 0.977 11.883 0.977 11.883 0.206 -77.701
3494.25 0.203 -77.845 0.978 11.733 0.978 11.733 0.203 -77.845
3519.208 0.201 -77.988 0.978 11.585 0.978 11.585 0.201 -77.988
3544.167 0.198 -78.129 0.979 11.439 0.979 11.439 0.198 -78.129
3569.125 0.196 -78.268 0.979 11.294 0.979 11.294 0.196 -78.268
3594.083 0.193 -78.406 0.98 11.15 0.98 11.15 0.193 -78.406
3619.042 0.191 -78.542 0.98 11.007 0.98 11.007 0.191 -78.542
3644 0.189 -78.677 0.981 10.866 0.981 10.866 0.189 -78.677
3668.958 0.186 -78.811 0.981 10.727 0.981 10.727 0.186 -78.811
3693.917 0.184 -78.943 0.981 10.588 0.981 10.588 0.184 -78.943
3718.875 0.181 -79.074 0.982 10.451 0.982 10.451 0.181 -79.074
3743.833 0.179 -79.203 0.982 10.316 0.982 10.316 0.179 -79.203
3768.792 0.177 -79.332 0.983 10.181 0.983 10.181 0.177 -79.332
3793.75 0.174 -79.458 0.983 10.048 0.983 10.048 0.174 -79.458
3818.708 0.172 -79.584 0.984 9.915 0.984 9.915 0.172 -79.584
3843.667 0.17 -79.708 0.984 9.784 0.984 9.784 0.17 -79.708
3868.625 0.168 -79.831 0.984 9.655 0.984 9.655 0.168 -79.831
3893.583 0.165 -79.952 0.985 9.526 0.985 9.526 0.165 -79.952
3918.542 0.163 -80.073 0.985 9.398 0.985 9.398 0.163 -80.073
3943.5 0.161 -80.192 0.985 9.272 0.985 9.272 0.161 -80.192
3968.458 0.159 -80.31 0.986 9.146 0.986 9.146 0.159 -80.31
3993.417 0.157 -80.427 0.986 9.022 0.986 9.022 0.157 -80.427
4018.375 0.155 -80.542 0.986 8.898 0.986 8.898 0.155 -80.542
4043.333 0.153 -80.657 0.987 8.776 0.987 8.776 0.153 -80.657
4068.292 0.15 -80.77 0.987 8.655 0.987 8.655 0.15 -80.77
4093.25 0.148 -80.882 0.987 8.534 0.987 8.534 0.148 -80.882
4118.208 0.146 -80.993 0.988 8.415 0.988 8.415 0.146 -80.993
4143.167 0.144 -81.103 0.988 8.297 0.988 8.297 0.144 -81.103
4168.125 0.142 -81.212 0.988 8.179 0.988 8.179 0.142 -81.212
4193.083 0.14 -81.32 0.989 8.062 0.989 8.062 0.14 -81.32
4218.042 0.138 -81.426 0.989 7.947 0.989 7.947 0.138 -81.426
4243 0.136 -81.532 0.989 7.832 0.989 7.832 0.136 -81.532
4267.958 0.134 -81.636 0.989 7.718 0.989 7.718 0.134 -81.636
4292.917 0.132 -81.739 0.99 7.605 0.99 7.605 0.132 -81.739
4317.875 0.13 -81.842 0.99 7.493 0.99 7.493 0.13 -81.842
4342.833 0.128 -81.943 0.99 7.381 0.99 7.381 0.128 -81.943
4367.792 0.127 -82.043 0.99 7.271 0.99 7.271 0.127 -82.043
4392.75 0.125 -82.142 0.991 7.161 0.991 7.161 0.125 -82.142
4417.708 0.123 -82.24 0.991 7.052 0.991 7.052 0.123 -82.24
4442.667 0.121 -82.337 0.991 6.944 0.991 6.944 0.121 -82.337
4467.625 0.119 -82.433 0.991 6.837 0.991 6.837 0.119 -82.433
4492.583 0.117 -82.528 0.992 6.73 0.992 6.73 0.117 -82.528
4517.542 0.115 -82.622 0.992 6.624 0.992 6.624 0.115 -82.622
4542.5 0.114 -82.715 0.992 6.519 0.992 6.519 0.114 -82.715
4567.458 0.112 -82.807 0.992 6.415 0.992 6.415 0.112 -82.807
4592.417 0.11 -82.897 0.992 6.311 0.992 6.311 0.11 -82.897
4617.375 0.108 -82.987 0.993 6.208 0.993 6.208 0.108 -82.987
4642.333 0.106 -83.076 0.993 6.106 0.993 6.106 0.106 -83.076
4667.292 0.105 -83.164 0.993 6.004 0.993 6.004 0.105 -83.164
4692.25 0.103 -83.25 0.993 5.903 0.993 5.903 0.103 -83.25
4717.208 0.101 -83.336 0.993 5.803 0.993 5.803 0.101 -83.336
4742.167 0.099 -83.42 0.994 5.703 0.994 5.703 0.099 -83.42
4767.125 0.098 -83.504 0.994 5.604 0.994 5.604 0.098 -83.504
4792.083 0.096 -83.586 0.994 5.506 0.994 5.506 0.096 -83.586
4817.042 0.094 -83.667 0.994 5.408 0.994 5.408 0.094 -83.667
4842 0.093 -83.747 0.994 5.311 0.994 5.311 0.093 -83.747
4866.958 0.091 -83.826 0.994 5.215 0.994 5.215 0.091 -83.826
4891.917 0.089 -83.904 0.994 5.119 0.994 5.119 0.089 -83.904
4916.875 0.088 -83.981 0.995 5.024 0.995 5.024 0.088 -83.981
4941.833 0.086 -84.056 0.995 4.929 0.995 4.929 0.086 -84.056
4966.792 0.084 -84.13 0.995 4.835 0.995 4.835 0.084 -84.13
4991.75 0.083 -84.203 0.995 4.741 0.995 4.741 0.083 -84.203
5016.708 0.081 -84.275 0.995 4.648 0.995 4.648 0.081 -84.275
5041.667 0.079 -84.346 0.995 4.556 0.995 4.556 0.079 -84.346
5066.625 0.078 -84.415 0.995 4.464 0.995 4.464 0.078 -84.415
5091.583 0.076 -84.483 0.996 4.373 0.996 4.373 0.076 -84.483
5116.542 0.075 -84.549 0.996 4.282 0.996 4.282 0.075 -84.549
5141.5 0.073 -84.614 0.996 4.191 0.996 4.191 0.073 -84.614
5166.458 0.072 -84.678 0.996 4.102 0.996 4.102 0.072 -84.678
5191.417 0.07 -84.74 0.996 4.012 0.996 4.012 0.07 -84.74
5216.375 0.068 -84.8 0.996 3.924 0.996 3.924 0.068 -84.8
5241.333 0.067 -84.859 0.996 3.835 0.996 3.835 0.067 -84.859
5266.292 0.065 -84.916 0.996 3.747 0.996 3.747 0.065 -84.916
5291.25 0.064 -84.972 0.996 3.66 0.996 3.66 0.064 -84.972
5316.208 0.062 -85.025 0.997 3.573 0.997 3.573 0.062 -85.025
5341.167 0.061 -85.077 0.997 3.487 0.997 3.487 0.061 -85.077
5366.125 0.059 -85.126 0.997 3.401 0.997 3.401 0.059 -85.126
5391.083 0.058 -85.174 0.997 3.315 0.997 3.315 0.058 -85.174
5416.042 0.056 -85.219 0.997 3.23 0.997 3.23 0.056 -85.219
5441 0.055 -85.262 0.997 3.146 0.997 3.146 0.055 -85.262
5465.958 0.053 -85.302 0.997 3.062 0.997 3.062 0.053 -85.302
5490.917 0.052 -85.34 0.997 2.978 0.997 2.978 0.052 -85.34
5515.875 0.051 -85.374 0.997 2.895 0.997 2.895 0.051 -85.374
5540.833 0.049 -85.406 0.997 2.812 0.997 2.812 0.049 -85.406
5565.792 0.048 -85.435 0.997 2.73 0.997 2.73 0.048 -85.435
5590.75 0.046 -85.46 0.997 2.648 0.997 2.648 0.046 -85.46
5615.708 0.045 -85.481 0.997 2.566 0.997 2.566 0.045 -85.481
5640.667 0.043 -85.499 0.998 2.485 0.998 2.485 0.043 -85.499
5665.625 0.042 -85.512 0.998 2.404 0.998 2.404 0.042 -85.512
5690.583 0.041 -85.52 0.998 2.324 0.998 2.324 0.041 -85.52
5715.542 0.039 -85.523 0.998 2.243 0.998 2.243 0.039 -85.523
5740.5 0.038 -85.52 0.998 2.164 0.998 2.164 0.038 -85.52
5765.458 0.036 -85.512 0.998 2.085 0.998 2.085 0.036 -85.512
5790.417 0.035 -85.496 0.998 2.006 0.998 2.006 0.035 -85.496
5815.375 0.034 -85.473 0.998 1.927 0.998 1.927 0.034 -85.473
5840.333 0.032 -85.441 0.998 1.849 0.998 1.849 0.032 -85.441
5865.292 0.031 -85.4 0.998 1.771 0.998 1.771 0.031 -85.4
5890.25 0.03 -85.348 0.998 1.694 0.998 1.694 0.03 -85.348
5915.208 0.028 -85.284 0.998 1.617 0.998 1.617 0.028 -85.284
5940.167 0.027 -85.207 0.998 1.54 0.998 1.54 0.027 -85.207
5965.125 0.026 -85.114 0.998 1.464 0.998 1.464 0.026 -85.114
5990.083 0.024 -85.003 0.998 1.387 0.998 1.387 0.024 -85.003
6015.042 0.023 -84.871 0.998 1.312 0.998 1.312 0.023 -84.871
6040 0.022 -84.714 0.998 1.236 0.998 1.236 0.022 -84.714
6064.958 0.02 -84.528 0.998 1.161 0.998 1.161 0.02 -84.528
6089.917 0.019 -84.307 0.998 1.087 0.998 1.087 0.019 -84.307
6114.875 0.018 -84.045 0.998 1.012 0.998 1.012 0.018 -84.045
6139.833 0.016 -83.73 0.998 0.938 0.998 0.938 0.016 -83.73
6164.792 0.015 -83.352 0.998 0.864 0.998 0.864 0.015 -83.352
6189.75 0.014 -82.892 0.998 0.791 0.998 0.791 0.014 -82.892
6214.708 0.013 -82.327 0.998 0.718 0.998 0.718 0.013 -82.327
6239.667 0.011 -81.622 0.998 0.645 0.998 0.645 0.011 -81.622
6264.625 0.01 -80.728 0.998 0.572 0.998 0.572 0.01 -80.728
6289.583 8.856e-3 -79.566 0.998 0.5 0.998 0.5 8.856e-3 -79.566
6314.542 7.622e-3 -78.008 0.998 0.428 0.998 0.428 7.622e-3 -78.008
6339.5 6.401e-3 -75.833 0.998 0.356 0.998 0.356 6.401e-3 -75.833
6364.458 5.199e-3 -72.624 0.998 0.285 0.998 0.285 5.199e-3 -72.624
6389.417 4.029e-3 -67.5 0.998 0.214 0.998 0.214 4.029e-3 -67.5
6414.375 2.923e-3 -58.337 0.998 0.143 0.998 0.143 2.923e-3 -58.337
6439.333 1.98e-3 -39.432 0.998 0.072 0.998 0.072 1.98e-3 -39.432
6464.292 1.528e-3 -1.229 0.998 1.881e-3 0.998 1.881e-3 1.528e-3 -1.229
6489.25 1.936e-3 37.829 0.998 -0.068 0.998 -0.068 1.936e-3 37.829
6514.208 2.851e-3 57.454 0.998 -0.138 0.998 -0.138 2.851e-3 57.454
6539.167 3.929e-3 66.907 0.998 -0.207 0.998 -0.207 3.929e-3 66.907
6564.125 5.064e-3 72.162 0.998 -0.277 0.998 -0.277 5.064e-3 72.162
6589.083 6.222e-3 75.44 0.998 -0.346 0.998 -0.346 6.222e-3 75.44
6614.042 7.391e-3 77.655 0.998 -0.414 0.998 -0.414 7.391e-3 77.655
6639 8.563e-3 79.239 0.998 -0.483 0.998 -0.483 8.563e-3 79.239
6663.958 9.737e-3 80.421 0.998 -0.551 0.998 -0.551 9.737e-3 80.421
6688.917 0.011 81.331 0.998 -0.619 0.998 -0.619 0.011 81.331
6713.875 0.012 82.048 0.998 -0.687 0.998 -0.687 0.012 82.048
6738.833 0.013 82.625 0.998 -0.754 0.998 -0.754 0.013 82.625
6763.792 0.014 83.095 0.998 -0.821 0.998 -0.821 0.014 83.095
6788.75 0.016 83.484 0.998 -0.888 0.998 -0.888 0.016 83.484
6813.708 0.017 83.808 0.998 -0.955 0.998 -0.955 0.017 83.808
6838.667 0.018 84.081 0.998 -1.022 0.998 -1.022 0.018 84.081
6863.625 0.019 84.312 0.998 -1.088 0.998 -1.088 0.019 84.312
6888.583 0.02 84.508 0.998 -1.154 0.998 -1.154 0.02 84.508
6913.542 0.021 84.676 0.998 -1.22 0.998 -1.22 0.021 84.676
6938.5 0.022 84.819 0.998 -1.285 0.998 -1.285 0.022 84.819
6963.458 0.024 84.942 0.998 -1.351 0.998 -1.351 0.024 84.942
6988.417 0.025 85.047 0.998 -1.416 0.998 -1.416 0.025 85.047
7013.375 0.026 85.137 0.998 -1.481 0.998 -1.481 0.026 85.137
7038.333 0.027 85.213 0.998 -1.546 0.998 -1.546 0.027 85.213
7063.292 0.028 85.278 0.998 -1.61 0.998 -1.61 0.028 85.278
7088.25 0.029 85.334 0.998 -1.674 0.998 -1.674 0.029 85.334
7113.208 0.03 85.38 0.998 -1.739 0.998 -1.739 0.03 85.38
7138.167 0.031 85.418 0.998 -1.802 0.998 -1.802 0.031 85.418
7163.125 0.033 85.449 0.998 -1.866 0.998 -1.866 0.033 85.449
7188.083 0.034 85.474 0.998 -1.93 0.998 -1.93 0.034 85.474
7213.042 0.035 85.493 0.998 -1.993 0.998 -1.993 0.035 85.493
7238 0.036 85.507 0.998 -2.056 0.998 -2.056 0.036 85.507
7262.958 0.037 85.516 0.998 -2.119 0.998 -2.119 0.037 85.516
7287.917 0.038 85.521 0.998 -2.182 0.998 -2.182 0.038 85.521
7312.875 0.039 85.523 0.998 -2.244 0.998 -2.244 0.039 85.523
7337.833 0.04 85.521 0.998 -2.306 0.998 -2.306 0.04 85.521
7362.792 0.041 85.516 0.998 -2.368 0.998 -2.368 0.041 85.516
7387.75 0.042 85.508 0.998 -2.43 0.998 -2.43 0.042 85.508
7412.708 0.044 85.497 0.998 -2.492 0.998 -2.492 0.044 85.497
7437.667 0.045 85.484 0.997 -2.554 0.997 -2.554 0.045 85.484
7462.625 0.046 85.469 0.997 -2.615 0.997 -2.615 0.046 85.469
7487.583 0.047 85.451 0.997 -2.676 0.997 -2.676 0.047 85.451
7512.542 0.048 85.432 0.997 -2.737 0.997 -2.737 0.048 85.432
7537.5 0.049 85.411 0.997 -2.798 0.997 -2.798 0.049 85.411
7562.458 0.05 85.389 0.997 -2.859 0.997 -2.859 0.05 85.389
7587.417 0.051 85.364 0.997 -2.919 0.997 -2.919 0.051 85.364
7612.375 0.052 85.339 0.997 -2.98 0.997 -2.98 0.052 85.339
7637.333 0.053 85.312 0.997 -3.04 0.997 -3.04 0.053 85.312
7662.292 0.054 85.284 0.997 -3.1 0.997 -3.1 0.054 85.284
7687.25 0.055 85.255 0.997 -3.159 0.997 -3.159 0.055 85.255
7712.208 0.056 85.225 0.997 -3.219 0.997 -3.219 0.056 85.225
7737.167 0.057 85.194 0.997 -3.278 0.997 -3.278 0.057 85.194
7762.125 0.058 85.161 0.997 -3.338 0.997 -3.338 0.058 85.161
7787.083 0.059 85.129 0.997 -3.397 0.997 -3.397 0.059 85.129
7812.042 0.06 85.095 0.997 -3.456 0.997 -3.456 0.06 85.095
7837 0.061 85.06 0.997 -3.515 0.997 -3.515 0.061 85.06
7861.958 0.062 85.025 0.997 -3.573 0.997 -3.573 0.062 85.025
7886.917 0.063 84.989 0.996 -3.632 0.996 -3.632 0.063 84.989
7911.875 0.064 84.953 0.996 -3.69 0.996 -3.69 0.064 84.953
7936.833 0.065 84.916 0.996 -3.748 0.996 -3.748 0.065 84.916
7961.792 0.066 84.878 0.996 -3.806 0.996 -3.806 0.066 84.878
7986.75 0.067 84.84 0.996 -3.864 0.996 -3.864 0.067 84.84
8011.708 0.068 84.801 0.996 -3.922 0.996 -3.922 0.068 84.801
8036.667 0.069 84.762 0.996 -3.979 0.996 -3.979 0.069 84.762
8061.625 0.07 84.723 0.996 -4.037 0.996 -4.037 0.07 84.723
8086.583 0.071 84.683 0.996 -4.094 0.996 -4.094 0.071 84.683
8111.542 0.072 84.643 0.996 -4.151 0.996 -4.151 0.072 84.643
8136.5 0.073 84.602 0.996 -4.208 0.996 -4.208 0.073 84.602
8161.458 0.074 84.561 0.996 -4.265 0.996 -4.265 0.074 84.561
8186.417 0.075 84.52 0.996 -4.322 0.996 -4.322 0.075 84.52
