# MHZ S MA R 50

50 0.762 -40.325 0.647 49.664 0.647 49.664 0.762 -40.325
74.958 0.617 -51.862 0.787 38.121 0.787 38.121 0.617 -51.862
99.917 0.507 -59.53 0.862 30.448 0.862 30.448 0.507 -59.53
124.875 0.425 -64.825 0.905 25.147 0.905 25.147 0.425 -64.825
149.833 0.364 -68.644 0.931 21.322 0.931 21.322 0.364 -68.644
174.792 0.317 -71.509 0.948 18.452 0.948 18.452 0.317 -71.509
199.75 0.279 -73.728 0.96 16.227 0.96 16.227 0.279 -73.728
224.708 0.25 -75.495 0.968 14.454 0.968 14.454 0.25 -75.495
249.667 0.225 -76.933 0.974 13.01 0.974 13.01 0.225 -76.933
274.625 0.205 -78.127 0.979 11.81 0.979 11.81 0.205 -78.127
299.583 0.187 -79.133 0.982 10.798 0.982 10.798 0.187 -79.133
324.542 0.172 -79.994 0.985 9.931 0.985 9.931 0.172 -79.994
349.5 0.16 -80.738 0.987 9.181 0.987 9.181 0.16 -80.738
374.458 0.148 -81.388 0.989 8.524 0.989 8.524 0.148 -81.388
399.417 0.138 -81.961 0.99 7.944 0.99 7.944 0.138 -81.961
424.375 0.129 -82.471 0.991 7.428 0.991 7.428 0.129 -82.471
449.333 0.121 -82.927 0.992 6.965 0.992 6.965 0.121 -82.927
474.292 0.114 -83.339 0.993 6.546 0.993 6.546 0.114 -83.339
499.25 0.107 -83.711 0.994 6.167 0.994 6.167 0.107 -83.711
524.208 0.101 -84.051 0.995 5.82 0.995 5.82 0.101 -84.051
549.167 0.096 -84.362 0.995 5.502 0.995 5.502 0.096 -84.362
574.125 0.091 -84.647 0.996 5.208 0.996 5.208 0.091 -84.647
599.083 0.086 -84.911 0.996 4.937 0.996 4.937 0.086 -84.911
624.042 0.082 -85.155 0.996 4.684 0.996 4.684 0.082 -85.155
649 0.078 -85.381 0.997 4.449 0.997 4.449 0.078 -85.381
673.958 0.074 -85.593 0.997 4.229 0.997 4.229 0.074 -85.593
698.917 0.07 -85.79 0.997 4.023 0.997 4.023 0.07 -85.79
723.875 0.067 -85.975 0.998 3.828 0.998 3.828 0.067 -85.975
748.833 0.064 -86.148 0.998 3.645 0.998 3.645 0.064 -86.148
773.792 0.061 -86.311 0.998 3.472 0.998 3.472 0.061 -86.311
798.75 0.058 -86.465 0.998 3.307 0.998 3.307 0.058 -86.465
823.708 0.055 -86.61 0.998 3.151 0.998 3.151 0.055 -86.61
848.667 0.052 -86.746 0.998 3.002 0.998 3.002 0.052 -86.746
873.625 0.05 -86.876 0.999 2.86 0.999 2.86 0.05 -86.876
898.583 0.048 -86.998 0.999 2.725 0.999 2.725 0.048 -86.998
923.542 0.045 -87.114 0.999 2.595 0.999 2.595 0.045 -87.114
948.5 0.043 -87.224 0.999 2.47 0.999 2.47 0.043 -87.224
973.458 0.041 -87.328 0.999 2.35 0.999 2.35 0.041 -87.328
998.417 0.039 -87.427 0.999 2.235 0.999 2.235 0.039 -87.427
1023.375 0.037 -87.52 0.999 2.124 0.999 2.124 0.037 -87.52
1048.333 0.035 -87.609 0.999 2.017 0.999 2.017 0.035 -87.609
1073.292 0.033 -87.692 0.999 1.914 0.999 1.914 0.033 -87.692
1098.25 0.032 -87.77 0.999 1.814 0.999 1.814 0.032 -87.77
1123.208 0.03 -87.843 0.999 1.717 0.999 1.717 0.03 -87.843
1148.167 0.028 -87.912 0.999 1.623 0.999 1.623 0.028 -87.912
1173.125 0.027 -87.975 0.999 1.532 0.999 1.532 0.027 -87.975
1198.083 0.025 -88.034 0.999 1.443 0.999 1.443 0.025 -88.034
1223.042 0.024 -88.086 0.999 1.357 0.999 1.357 0.024 -88.086
1248 0.022 -88.134 1 1.274 1 1.274 0.022 -88.134
1272.958 0.021 -88.175 1 1.192 1 1.192 0.021 -88.175
1297.917 0.019 -88.209 1 1.112 1 1.112 0.019 -88.209
1322.875 0.018 -88.236 1 1.035 1 1.035 0.018 -88.236
1347.833 0.017 -88.254 1 0.959 1 0.959 0.017 -88.254
1372.792 0.015 -88.262 1 0.885 1 0.885 0.015 -88.262
1397.75 0.014 -88.258 1 0.812 1 0.812 0.014 -88.258
1422.708 0.013 -88.24 1 0.741 1 0.741 0.013 -88.24
1447.667 0.012 -88.204 1 0.671 1 0.671 0.012 -88.204
1472.625 0.011 -88.145 1 0.603 1 0.603 0.011 -88.145
1497.583 9.366e-3 -88.056 1 0.536 1 0.536 9.366e-3 -88.056
1522.542 8.221e-3 -87.926 1 0.471 1 0.471 8.221e-3 -87.926
1547.5 7.098e-3 -87.737 1 0.406 1 0.406 7.098e-3 -87.737
1572.458 5.995e-3 -87.458 1 0.343 1 0.343 5.995e-3 -87.458
1597.417 4.91e-3 -87.034 1 0.281 1 0.281 4.91e-3 -87.034
1622.375 3.844e-3 -86.35 1 0.22 1 0.22 3.844e-3 -86.35
1647.333 2.797e-3 -85.123 1 0.16 1 0.16 2.797e-3 -85.123
1672.292 1.769e-3 -82.427 1 0.1 1 0.1 1.769e-3 -82.427
1697.25 770.8e-6 -72.596 1 0.042 1 0.042 770.8e-6 -72.596
1722.208 352.6e-6 49.271 1 -0.015 1 -0.015 352.6e-6 49.271
1747.167 1.277e-3 79.549 1 -0.072 1 -0.072 1.277e-3 79.549
1772.125 2.243e-3 83.985 1 -0.128 1 -0.128 2.243e-3 83.985
1797.083 3.201e-3 85.696 1 -0.183 1 -0.183 3.201e-3 85.696
1822.042 4.148e-3 86.584 1 -0.237 1 -0.237 4.148e-3 86.584
1847 5.083e-3 87.116 1 -0.291 1 -0.291 5.083e-3 87.116
1871.958 6.008e-3 87.462 1 -0.344 1 -0.344 6.008e-3 87.462
1896.917 6.921e-3 87.699 1 -0.396 1 -0.396 6.921e-3 87.699
1921.875 7.824e-3 87.867 1 -0.448 1 -0.448 7.824e-3 87.867
1946.833 8.716e-3 87.989 1 -0.499 1 -0.499 8.716e-3 87.989
1971.792 9.599e-3 88.077 1 -0.55 1 -0.55 9.599e-3 88.077
1996.75 0.01 88.142 1 -0.6 1 -0.6 0.01 88.142
2021.708 0.011 88.188 1 -0.649 1 -0.649 0.011 88.188
2046.667 0.012 88.221 1 -0.698 1 -0.698 0.012 88.221
2071.625 0.013 88.242 1 -0.747 1 -0.747 0.013 88.242
2096.583 0.014 88.255 1 -0.795 1 -0.795 0.014 88.255
2121.542 0.015 88.261 1 -0.842 1 -0.842 0.015 88.261
2146.5 0.016 88.262 1 -0.89 1 -0.89 0.016 88.262
2171.458 0.016 88.257 1 -0.936 1 -0.936 0.016 88.257
2196.417 0.017 88.249 1 -0.983 1 -0.983 0.017 88.249
2221.375 0.018 88.237 1 -1.028 1 -1.028 0.018 88.237
2246.333 0.019 88.223 1 -1.074 1 -1.074 0.019 88.223
2271.292 0.02 88.206 1 -1.119 1 -1.119 0.02 88.206
2296.25 0.02 88.187 1 -1.164 1 -1.164 0.02 88.187
2321.208 0.021 88.167 1 -1.208 1 -1.208 0.021 88.167
2346.167 0.022 88.145 1 -1.252 1 -1.252 0.022 88.145
2371.125 0.023 88.121 1 -1.296 1 -1.296 0.023 88.121
2396.083 0.023 88.097 0.999 -1.34 0.999 -1.34 0.023 88.097
2421.042 0.024 88.071 0.999 -1.383 0.999 -1.383 0.024 88.071
2446 0.025 88.045 0.999 -1.426 0.999 -1.426 0.025 88.045
2470.958 0.026 88.018 0.999 -1.468 0.999 -1.468 0.026 88.018
2495.917 0.026 87.99 0.999 -1.51 0.999 -1.51 0.026 87.99
2520.875 0.027 87.961 0.999 -1.552 0.999 -1.552 0.027 87.961
2545.833 0.028 87.932 0.999 -1.594 0.999 -1.594 0.028 87.932
2570.792 0.029 87.903 0.999 -1.636 0.999 -1.636 0.029 87.903
2595.75 0.029 87.873 0.999 -1.677 0.999 -1.677 0.029 87.873
2620.708 0.03 87.843 0.999 -1.718 0.999 -1.718 0.03 87.843
2645.667 0.031 87.812 0.999 -1.759 0.999 -1.759 0.031 87.812
2670.625 0.031 87.781 0.999 -1.799 0.999 -1.799 0.031 87.781
2695.583 0.032 87.75 0.999 -1.839 0.999 -1.839 0.032 87.75
2720.542 0.033 87.719 0.999 -1.88 0.999 -1.88 0.033 87.719
2745.5 0.033 87.687 0.999 -1.919 0.999 -1.919 0.033 87.687
2770.458 0.034 87.656 0.999 -1.959 0.999 -1.959 0.034 87.656
2795.417 0.035 87.624 0.999 -1.999 0.999 -1.999 0.035 87.624
2820.375 0.036 87.592 0.999 -2.038 0.999 -2.038 0.036 87.592
2845.333 0.036 87.56 0.999 -2.077 0.999 -2.077 0.036 87.56
2870.292 0.037 87.527 0.999 -2.116 0.999 -2.116 0.037 87.527
2895.25 0.038 87.495 0.999 -2.155 0.999 -2.155 0.038 87.495
2920.208 0.038 87.463 0.999 -2.193 0.999 -2.193 0.038 87.463
2945.167 0.039 87.43 0.999 -2.231 0.999 -2.231 0.039 87.43
2970.125 0.04 87.398 0.999 -2.27 0.999 -2.27 0.04 87.398
2995.083 0.04 87.365 0.999 -2.308 0.999 -2.308 0.04 87.365
3020.042 0.041 87.333 0.999 -2.346 0.999 -2.346 0.041 87.333
3045 0.042 87.3 0.999 -2.383 0.999 -2.383 0.042 87.3
3069.958 0.042 87.267 0.999 -2.421 0.999 -2.421 0.042 87.267
3094.917 0.043 87.235 0.999 -2.458 0.999 -2.458 0.043 87.235
3119.875 0.044 87.202 0.999 -2.496 0.999 -2.496 0.044 87.202
3144.833 0.044 87.169 0.999 -2.533 0.999 -2.533 0.044 87.169
3169.792 0.045 87.137 0.999 -2.57 0.999 -2.57 0.045 87.137
3194.75 0.045 87.104 0.999 -2.607 0.999 -2.607 0.045 87.104
3219.708 0.046 87.071 0.999 -2.643 0.999 -2.643 0.046 87.071
3244.667 0.047 87.038 0.999 -2.68 0.999 -2.68 0.047 87.038
3269.625 0.047 87.006 0.999 -2.717 0.999 -2.717 0.047 87.006
3294.583 0.048 86.973 0.999 -2.753 0.999 -2.753 0.048 86.973
3319.542 0.049 86.94 0.999 -2.789 0.999 -2.789 0.049 86.94
3344.5 0.049 86.908 0.999 -2.825 0.999 -2.825 0.049 86.908
3369.458 0.05 86.875 0.999 -2.861 0.999 -2.861 0.05 86.875
3394.417 0.051 86.842 0.998 -2.897 0.998 -2.897 0.051 86.842
3419.375 0.051 86.81 0.998 -2.933 0.998 -2.933 0.051 86.81
3444.333 0.052 86.777 0.998 -2.969 0.998 -2.969 0.052 86.777
3469.292 0.052 86.745 0.998 -3.004 0.998 -3.004 0.052 86.745
3494.25 0.053 86.712 0.998 -3.04 0.998 -3.04 0.053 86.712
3519.208 0.054 86.679 0.998 -3.075 0.998 -3.075 0.054 86.679
3544.167 0.054 86.647 0.998 -3.111 0.998 -3.111 0.054 86.647
3569.125 0.055 86.614 0.998 -3.146 0.998 -3.146 0.055 86.614
3594.083 0.055 86.582 0.998 -3.181 0.998 -3.181 0.055 86.582
3619.042 0.056 86.55 0.998 -3.216 0.998 -3.216 0.056 86.55
3644 0.057 86.517 0.998 -3.251 0.998 -3.251 0.057 86.517
3668.958 0.057 86.485 0.998 -3.286 0.998 -3.286 0.057 86.485
3693.917 0.058 86.453 0.998 -3.32 0.998 -3.32 0.058 86.453
3718.875 0.059 86.42 0.998 -3.355 0.998 -3.355 0.059 86.42
3743.833 0.059 86.388 0.998 -3.39 0.998 -3.39 0.059 86.388
3768.792 0.06 86.356 0.998 -3.424 0.998 -3.424 0.06 86.356
3793.75 0.06 86.323 0.998 -3.458 0.998 -3.458 0.06 86.323
3818.708 0.061 86.291 0.998 -3.493 0.998 -3.493 0.061 86.291
3843.667 0.062 86.259 0.998 -3.527 0.998 -3.527 0.062 86.259
3868.625 0.062 86.227 0.998 -3.561 0.998 -3.561 0.062 86.227
3893.583 0.063 86.195 0.998 -3.595 0.998 -3.595 0.063 86.195
3918.542 0.063 86.163 0.998 -3.629 0.998 -3.629 0.063 86.163
3943.5 0.064 86.131 0.998 -3.663 0.998 -3.663 0.064 86.131
3968.458 0.064 86.099 0.998 -3.697 0.998 -3.697 0.064 86.099
3993.417 0.065 86.067 0.998 -3.731 0.998 -3.731 0.065 86.067
4018.375 0.066 86.035 0.998 -3.765 0.998 -3.765 0.066 86.035
4043.333 0.066 86.003 0.998 -3.798 0.998 -3.798 0.066 86.003
4068.292 0.067 85.971 0.998 -3.832 0.998 -3.832 0.067 85.971
4093.25 0.067 85.939 0.997 -3.865 0.997 -3.865 0.067 85.939
4118.208 0.068 85.908 0.997 -3.899 0.997 -3.899 0.068 85.908
4143.167 0.069 85.876 0.997 -3.932 0.997 -3.932 0.069 85.876
4168.125 0.069 85.844 0.997 -3.966 0.997 -3.966 0.069 85.844
4193.083 0.07 85.812 0.997 -3.999 0.997 -3.999 0.07 85.812
4218.042 0.07 85.781 0.997 -4.032 0.997 -4.032 0.07 85.781
4243 0.071 85.749 0.997 -4.065 0.997 -4.065 0.071 85.749
4267.958 0.071 85.717 0.997 -4.099 0.997 -4.099 0.071 85.717
4292.917 0.072 85.686 0.997 -4.132 0.997 -4.132 0.072 85.686
4317.875 0.073 85.654 0.997 -4.165 0.997 -4.165 0.073 85.654
4342.833 0.073 85.623 0.997 -4.198 0.997 -4.198 0.073 85.623
4367.792 0.074 85.591 0.997 -4.231 0.997 -4.231 0.074 85.591
4392.75 0.074 85.56 0.997 -4.263 0.997 -4.263 0.074 85.56
4417.708 0.075 85.528 0.997 -4.296 0.997 -4.296 0.075 85.528
4442.667 0.075 85.497 0.997 -4.329 0.997 -4.329 0.075 85.497
4467.625 0.076 85.466 0.997 -4.362 0.997 -4.362 0.076 85.466
4492.583 0.077 85.434 0.997 -4.394 0.997 -4.394 0.077 85.434
4517.542 0.077 85.403 0.997 -4.427 0.997 -4.427 0.077 85.403
4542.5 0.078 85.372 0.997 -4.459 0.997 -4.459 0.078 85.372
4567.458 0.078 85.34 0.997 -4.492 0.997 -4.492 0.078 85.34
4592.417 0.079 85.309 0.997 -4.524 0.997 -4.524 0.079 85.309
4617.375 0.079 85.278 0.997 -4.557 0.997 -4.557 0.079 85.278
4642.333 0.08 85.247 0.997 -4.589 0.997 -4.589 0.08 85.247
4667.292 0.081 85.216 0.997 -4.621 0.997 -4.621 0.081 85.216
4692.25 0.081 85.184 0.996 -4.654 0.996 -4.654 0.081 85.184
4717.208 0.082 85.153 0.996 -4.686 0.996 -4.686 0.082 85.153
4742.167 0.082 85.122 0.996 -4.718 0.996 -4.718 0.082 85.122
4767.125 0.083 85.091 0.996 -4.75 0.996 -4.75 0.083 85.091
4792.083 0.083 85.06 0.996 -4.782 0.996 -4.782 0.083 85.06
4817.042 0.084 85.029 0.996 -4.814 0.996 -4.814 0.084 85.029
4842 0.084 84.998 0.996 -4.846 0.996 -4.846 0.084 84.998
4866.958 0.085 84.967 0.996 -4.878 0.996 -4.878 0.085 84.967
4891.917 0.086 84.936 0.996 -4.91 0.996 -4.91 0.086 84.936
4916.875 0.086 84.905 0.996 -4.942 0.996 -4.942 0.086 84.905
4941.833 0.087 84.874 0.996 -4.974 0.996 -4.974 0.087 84.874
4966.792 0.087 84.844 0.996 -5.006 0.996 -5.006 0.087 84.844
4991.75 0.088 84.813 0.996 -5.038 0.996 -5.038 0.088 84.813
5016.708 0.088 84.782 0.996 -5.069 0.996 -5.069 0.088 84.782
5041.667 0.089 84.751 0.996 -5.101 0.996 -5.101 0.089 84.751
5066.625 0.089 84.72 0.996 -5.133 0.996 -5.133 0.089 84.72
5091.583 0.09 84.69 0.996 -5.165 0.996 -5.165 0.09 84.69
5116.542 0.091 84.659 0.996 -5.196 0.996 -5.196 0.091 84.659
5141.5 0.091 84.628 0.996 -5.228 0.996 -5.228 0.091 84.628
5166.458 0.092 84.598 0.996 -5.259 0.996 -5.259 0.092 84.598
5191.417 0.092 84.567 0.996 -5.291 0.996 -5.291 0.092 84.567
5216.375 0.093 84.536 0.995 -5.322 0.995 -5.322 0.093 84.536
5241.333 0.093 84.506 0.995 -5.354 0.995 -5.354 0.093 84.506
5266.292 0.094 84.475 0.995 -5.385 0.995 -5.385 0.094 84.475
5291.25 0.094 84.445 0.995 -5.416 0.995 -5.416 0.094 84.445
5316.208 0.095 84.414 0.995 -5.448 0.995 -5.448 0.095 84.414
5341.167 0.095 84.383 0.995 -5.479 0.995 -5.479 0.095 84.383
5366.125 0.096 84.353 0.995 -5.51 0.995 -5.51 0.096 84.353
5391.083 0.097 84.322 0.995 -5.542 0.995 -5.542 0.097 84.322
5416.042 0.097 84.292 0.995 -5.573 0.995 -5.573 0.097 84.292
5441 0.098 84.262 0.995 -5.604 0.995 -5.604 0.098 84.262
5465.958 0.098 84.231 0.995 -5.635 0.995 -5.635 0.098 84.231
5490.917 0.099 84.201 0.995 -5.666 0.995 -5.666 0.099 84.201
5515.875 0.099 84.17 0.995 -5.697 0.995 -5.697 0.099 84.17
5540.833 0.1 84.14 0.995 -5.729 0.995 -5.729 0.1 84.14
5565.792 0.1 84.11 0.995 -5.76 0.995 -5.76 0.1 84.11
5590.75 0.101 84.079 0.995 -5.791 0.995 -5.791 0.101 84.079
5615.708 0.101 84.049 0.995 -5.822 0.995 -5.822 0.101 84.049
5640.667 0.102 84.019 0.995 -5.853 0.995 -5.853 0.102 84.019
5665.625 0.103 83.989 0.995 -5.884 0.995 -5.884 0.103 83.989
5690.583 0.103 83.958 0.994 -5.914 0.994 -5.914 0.103 83.958
5715.542 0.104 83.928 0.994 -5.945 0.994 -5.945 0.104 83.928
5740.5 0.104 83.898 0.994 -5.976 0.994 -5.976 0.104 83.898
5765.458 0.105 83.868 0.994 -6.007 0.994 -6.007 0.105 83.868
5790.417 0.105 83.837 0.994 -6.038 0.994 -6.038 0.105 83.837
5815.375 0.106 83.807 0.994 -6.069 0.994 -6.069 0.106 83.807
5840.333 0.106 83.777 0.994 -6.099 0.994 -6.099 0.106 83.777
5865.292 0.107 83.747 0.994 -6.13 0.994 -6.13 0.107 83.747
5890.25 0.107 83.717 0.994 -6.161 0.994 -6.161 0.107 83.717
5915.208 0.108 83.687 0.994 -6.192 0.994 -6.192 0.108 83.687
5940.167 0.108 83.657 0.994 -6.222 0.994 -6.222 0.108 83.657
5965.125 0.109 83.627 0.994 -6.253 0.994 -6.253 0.109 83.627
5990.083 0.109 83.597 0.994 -6.284 0.994 -6.284 0.109 83.597
6015.042 0.11 83.567 0.994 -6.314 0.994 -6.314 0.11 83.567
6040 0.111 83.537 0.994 -6.345 0.994 -6.345 0.111 83.537
6064.958 0.111 83.507 0.994 -6.375 0.994 -6.375 0.111 83.507
6089.917 0.112 83.477 0.994 -6.406 0.994 -6.406 0.112 83.477
6114.875 0.112 83.447 0.993 -6.436 0.993 -6.436 0.112 83.447
6139.833 0.113 83.417 0.993 -6.467 0.993 -6.467 0.113 83.417
6164.792 0.113 83.387 0.993 -6.497 0.993 -6.497 0.113 83.387
6189.75 0.114 83.357 0.993 -6.528 0.993 -6.528 0.114 83.357
6214.708 0.114 83.327 0.993 -6.558 0.993 -6.558 0.114 83.327
6239.667 0.115 83.297 0.993 -6.589 0.993 -6.589 0.115 83.297
6264.625 0.115 83.267 0.993 -6.619 0.993 -6.619 0.115 83.267
6289.583 0.116 83.238 0.993 -6.649 0.993 -6.649 0.116 83.238
6314.542 0.116 83.208 0.993 -6.68 0.993 -6.68 0.116 83.208
6339.5 0.117 83.178 0.993 -6.71 0.993 -6.71 0.117 83.178
6364.458 0.117 83.148 0.993 -6.74 0.993 -6.74 0.117 83.148
6389.417 0.118 83.118 0.993 -6.771 0.993 -6.771 0.118 83.118
6414.375 0.118 83.089 0.993 -6.801 0.993 -6.801 0.118 83.089
6439.333 0.119 83.059 0.993 -6.831 0.993 -6.831 0.119 83.059
6464.292 0.119 83.029 0.993 -6.861 0.993 -6.861 0.119 83.029
6489.25 0.12 82.999 0.993 -6.892 0.993 -6.892 0.12 82.999
6514.208 0.121 82.97 0.992 -6.922 0.992 -6.922 0.121 82.97
6539.167 0.121 82.94 0.992 -6.952 0.992 -6.952 0.121 82.94
6564.125 0.122 82.91 0.992 -6.982 0.992 -6.982 0.122 82.91
6589.083 0.122 82.881 0.992 -7.012 0.992 -7.012 0.122 82.881
6614.042 0.123 82.851 0.992 -7.042 0.992 -7.042 0.123 82.851
6639 0.123 82.821 0.992 -7.072 0.992 -7.072 0.123 82.821
6663.958 0.124 82.792 0.992 -7.102 0.992 -7.102 0.124 82.792
6688.917 0.124 82.762 0.992 -7.132 0.992 -7.132 0.124 82.762
6713.875 0.125 82.733 0.992 -7.163 0.992 -7.163 0.125 82.733
6738.833 0.125 82.703 0.992 -7.193 0.992 -7.193 0.125 82.703
6763.792 0.126 82.673 0.992 -7.223 0.992 -7.223 0.126 82.673
6788.75 0.126 82.644 0.992 -7.253 0.992 -7.253 0.126 82.644
6813.708 0.127 82.614 0.992 -7.283 0.992 -7.283 0.127 82.614
6838.667 0.127 82.585 0.992 -7.312 0.992 -7.312 0.127 82.585
6863.625 0.128 82.555 0.992 -7.342 0.992 -7.342 0.128 82.555
6888.583 0.128 82.526 0.992 -7.372 0.992 -7.372 0.128 82.526
6913.542 0.129 82.496 0.991 -7.402 0.991 -7.402 0.129 82.496
6938.5 0.129 82.467 0.991 -7.432 0.991 -7.432 0.129 82.467
6963.458 0.13 82.437 0.991 -7.462 0.991 -7.462 0.13 82.437
6988.417 0.13 82.408 0.991 -7.492 0.991 -7.492 0.13 82.408
7013.375 0.131 82.378 0.991 -7.522 0.991 -7.522 0.131 82.378
7038.333 0.131 82.349 0.991 -7.551 0.991 -7.551 0.131 82.349
7063.292 0.132 82.32 0.991 -7.581 0.991 -7.581 0.132 82.32
7088.25 0.132 82.29 0.991 -7.611 0.991 -7.611 0.132 82.29
7113.208 0.133 82.261 0.991 -7.641 0.991 -7.641 0.133 82.261
7138.167 0.133 82.232 0.991 -7.671 0.991 -7.671 0.133 82.232
7163.125 0.134 82.202 0.991 -7.7 0.991 -7.7 0.134 82.202
7188.083 0.135 82.173 0.991 -7.73 0.991 -7.73 0.135 82.173
7213.042 0.135 82.143 0.991 -7.76 0.991 -7.76 0.135 82.143
7238 0.136 82.114 0.991 -7.789 0.991 -7.789 0.136 82.114
7262.958 0.136 82.085 0.99 -7.819 0.99 -7.819 0.136 82.085
7287.917 0.137 82.056 0.99 -7.849 0.99 -7.849 0.137 82.056
7312.875 0.137 82.026 0.99 -7.878 0.99 -7.878 0.137 82.026
7337.833 0.138 81.997 0.99 -7.908 0.99 -7.908 0.138 81.997
7362.792 0.138 81.968 0.99 -7.938 0.99 -7.938 0.138 81.968
7387.75 0.139 81.938 0.99 -7.967 0.99 -7.967 0.139 81.938
7412.708 0.139 81.909 0.99 -7.997 0.99 -7.997 0.139 81.909
7437.667 0.14 81.88 0.99 -8.027 0.99 -8.027 0.14 81.88
7462.625 0.14 81.851 0.99 -8.056 0.99 -8.056 0.14 81.851
7487.583 0.141 81.822 0.99 -8.086 0.99 -8.086 0.141 81.822
7512.542 0.141 81.792 0.99 -8.115 0.99 -8.115 0.141 81.792
7537.5 0.142 81.763 0.99 -8.145 0.99 -8.145 0.142 81.763
7562.458 0.142 81.734 0.99 -8.174 0.99 -8.174 0.142 81.734
7587.417 0.143 81.705 0.99 -8.204 0.99 -8.204 0.143 81.705
7612.375 0.143 81.676 0.989 -8.233 0.989 -8.233 0.143 81.676
7637.333 0.144 81.647 0.989 -8.263 0.989 -8.263 0.144 81.647
7662.292 0.144 81.617 0.989 -8.292 0.989 -8.292 0.144 81.617
7687.25 0.145 81.588 0.989 -8.322 0.989 -8.322 0.145 81.588
7712.208 0.145 81.559 0.989 -8.351 0.989 -8.351 0.145 81.559
7737.167 0.146 81.53 0.989 -8.38 0.989 -8.38 0.146 81.53
7762.125 0.146 81.501 0.989 -8.41 0.989 -8.41 0.146 81.501
7787.083 0.147 81.472 0.989 -8.439 0.989 -8.439 0.147 81.472
7812.042 0.147 81.443 0.989 -8.469 0.989 -8.469 0.147 81.443
7837 0.148 81.414 0.989 -8.498 0.989 -8.498 0.148 81.414
7861.958 0.148 81.385 0.989 -8.527 0.989 -8.527 0.148 81.385
7886.917 0.149 81.356 0.989 -8.557 0.989 -8.557 0.149 81.356
7911.875 0.149 81.327 0.989 -8.586 0.989 -8.586 0.149 81.327
7936.833 0.15 81.298 0.988 -8.615 0.988 -8.615 0.15 81.298
7961.792 0.15 81.269 0.988 -8.644 0.988 -8.644 0.15 81.269
7986.75 0.151 81.24 0.988 -8.674 0.988 -8.674 0.151 81.24
8011.708 0.151 81.211 0.988 -8.703 0.988 -8.703 0.151 81.211
8036.667 0.152 81.182 0.988 -8.732 0.988 -8.732 0.152 81.182
8061.625 0.152 81.153 0.988 -8.762 0.988 -8.762 0.152 81.153
8086.583 0.153 81.124 0.988 -8.791 0.988 -8.791 0.153 81.124
8111.542 0.153 81.095 0.988 -8.82 0.988 -8.82 0.153 81.095
8136.5 0.154 81.066 0.988 -8.849 0.988 -8.849 0.154 81.066
8161.458 0.154 81.037 0.988 -8.878 0.988 -8.878 0.154 81.037
8186.417 0.155 81.008 0.988 -8.908 0.988 -8.908 0.155 81.008
8211.375 0.155 80.979 0.988 -8.937 0.988 -8.937 0.155 80.979
8236.333 0.156 80.951 0.988 -8.966 0.988 -8.966 0.156 80.951
8261.292 0.156 80.922 0.987 -8.995 0.987 -8.995 0.156 80.922
8286.25 0.157 80.893 0.987 -9.024 0.987 -9.024 0.157 80.893
8311.208 0.157 80.864 0.987 -9.053 0.987 -9.053 0.157 80.864
8336.167 0.158 80.835 0.987 -9.082 0.987 -9.082 0.158 80.835
8361.125 0.158 80.806 0.987 -9.111 0.987 -9.111 0.158 80.806
8386.083 0.159 80.777 0.987 -9.141 0.987 -9.141 0.159 80.777
8411.042 0.159 80.749 0.987 -9.17 0.987 -9.17 0.159 80.749
8436 0.16 80.72 0.987 -9.199 0.987 -9.199 0.16 80.72
