# MHZ S MA R 50

50 0.994 -6.098 0.106 83.898 0.106 83.898 0.994 -6.098
74.958 0.987 -9.1 0.158 80.894 0.158 80.894 0.987 -9.1
99.917 0.978 -12.055 0.209 77.937 0.209 77.937 0.978 -12.055
124.875 0.966 -14.949 0.258 75.042 0.258 75.042 0.966 -14.949
149.833 0.952 -17.769 0.305 72.219 0.305 72.219 0.952 -17.769
174.792 0.937 -20.507 0.35 69.48 0.35 69.48 0.937 -20.507
199.75 0.919 -23.153 0.393 66.831 0.393 66.831 0.919 -23.153
224.708 0.901 -25.703 0.434 64.279 0.434 64.279 0.901 -25.703
249.667 0.882 -28.153 0.472 61.828 0.472 61.828 0.882 -28.153
274.625 0.861 -30.5 0.508 59.479 0.508 59.479 0.861 -30.5
299.583 0.841 -32.744 0.541 57.233 0.541 57.233 0.841 -32.744
324.542 0.82 -34.885 0.572 55.089 0.572 55.089 0.82 -34.885
349.5 0.799 -36.926 0.601 53.047 0.601 53.047 0.799 -36.926
374.458 0.778 -38.868 0.628 51.103 0.628 51.103 0.778 -38.868
399.417 0.758 -40.715 0.652 49.254 0.652 49.254 0.758 -40.715
424.375 0.737 -42.47 0.675 47.497 0.675 47.497 0.737 -42.47
449.333 0.717 -44.138 0.696 45.827 0.696 45.827 0.717 -44.138
474.292 0.698 -45.722 0.716 44.241 0.716 44.241 0.698 -45.722
499.25 0.679 -47.227 0.734 42.734 0.734 42.734 0.679 -47.227
524.208 0.66 -48.656 0.751 41.303 0.751 41.303 0.66 -48.656
549.167 0.642 -50.014 0.766 39.943 0.766 39.943 0.642 -50.014
574.125 0.625 -51.305 0.78 38.65 0.78 38.65 0.625 -51.305
599.083 0.608 -52.533 0.794 37.42 0.794 37.42 0.608 -52.533
624.042 0.591 -53.701 0.806 36.25 0.806 36.25 0.591 -53.701
649 0.576 -54.813 0.817 35.136 0.817 35.136 0.576 -54.813
673.958 0.56 -55.873 0.828 34.074 0.828 34.074 0.56 -55.873
698.917 0.546 -56.883 0.838 33.062 0.838 33.062 0.546 -56.883
723.875 0.531 -57.846 0.847 32.096 0.847 32.096 0.531 -57.846
748.833 0.518 -58.766 0.855 31.175 0.855 31.175 0.518 -58.766
773.792 0.504 -59.644 0.863 30.294 0.863 30.294 0.504 -59.644
798.75 0.492 -60.484 0.87 29.452 0.87 29.452 0.492 -60.484
823.708 0.479 -61.288 0.877 28.646 0.877 28.646 0.479 -61.288
848.667 0.468 -62.057 0.883 27.874 0.883 27.874 0.468 -62.057
873.625 0.456 -62.795 0.889 27.135 0.889 27.135 0.456 -62.795
898.583 0.445 -63.502 0.895 26.426 0.895 26.426 0.445 -63.502
923.542 0.434 -64.18 0.9 25.745 0.9 25.745 0.434 -64.18
948.5 0.424 -64.831 0.905 25.091 0.905 25.091 0.424 -64.831
973.458 0.414 -65.457 0.91 24.463 0.91 24.463 0.414 -65.457
998.417 0.404 -66.059 0.914 23.859 0.914 23.859 0.404 -66.059
1023.375 0.395 -66.639 0.918 23.277 0.918 23.277 0.395 -66.639
1048.333 0.386 -67.197 0.922 22.717 0.922 22.717 0.386 -67.197
1073.292 0.377 -67.734 0.925 22.177 0.925 22.177 0.377 -67.734
1098.25 0.369 -68.253 0.929 21.656 0.929 21.656 0.369 -68.253
1123.208 0.361 -68.753 0.932 21.153 0.932 21.153 0.361 -68.753
1148.167 0.353 -69.236 0.935 20.668 0.935 20.668 0.353 -69.236
1173.125 0.345 -69.703 0.938 20.199 0.938 20.199 0.345 -69.703
1198.083 0.338 -70.154 0.941 19.745 0.941 19.745 0.338 -70.154
1223.042 0.331 -70.591 0.943 19.306 0.943 19.306 0.331 -70.591
1248 0.324 -71.013 0.946 18.881 0.946 18.881 0.324 -71.013
1272.958 0.317 -71.422 0.948 18.47 0.948 18.47 0.317 -71.422
1297.917 0.31 -71.819 0.95 18.071 0.95 18.071 0.31 -71.819
1322.875 0.304 -72.203 0.952 17.684 0.952 17.684 0.304 -72.203
1347.833 0.298 -72.576 0.954 17.308 0.954 17.308 0.298 -72.576
1372.792 0.291 -72.938 0.956 16.944 0.956 16.944 0.291 -72.938
1397.75 0.286 -73.289 0.958 16.589 0.958 16.589 0.286 -73.289
1422.708 0.28 -73.631 0.959 16.245 0.959 16.245 0.28 -73.631
1447.667 0.274 -73.963 0.961 15.911 0.961 15.911 0.274 -73.963
1472.625 0.269 -74.285 0.963 15.585 0.963 15.585 0.269 -74.285
1497.583 0.263 -74.6 0.964 15.268 0.964 15.268 0.263 -74.6
1522.542 0.258 -74.905 0.965 14.96 0.965 14.96 0.258 -74.905
1547.5 0.253 -75.203 0.967 14.659 0.967 14.659 0.253 -75.203
1572.458 0.248 -75.493 0.968 14.366 0.968 14.366 0.248 -75.493
1597.417 0.243 -75.775 0.969 14.081 0.969 14.081 0.243 -75.775
1622.375 0.239 -76.051 0.971 13.802 0.971 13.802 0.239 -76.051
1647.333 0.234 -76.32 0.972 13.53 0.972 13.53 0.234 -76.32
1672.292 0.229 -76.582 0.973 13.265 0.973 13.265 0.229 -76.582
1697.25 0.225 -76.838 0.974 13.006 0.974 13.006 0.225 -76.838
1722.208 0.221 -77.088 0.975 12.752 0.975 12.752 0.221 -77.088
1747.167 0.217 -77.332 0.976 12.505 0.976 12.505 0.217 -77.332
1772.125 0.212 -77.571 0.977 12.263 0.977 12.263 0.212 -77.571
1797.083 0.208 -77.804 0.977 12.026 0.977 12.026 0.208 -77.804
1822.042 0.204 -78.033 0.978 11.795 0.978 11.795 0.204 -78.033
1847 0.201 -78.256 0.979 11.568 0.979 11.568 0.201 -78.256
1871.958 0.197 -78.474 0.98 11.346 0.98 11.346 0.197 -78.474
1896.917 0.193 -78.688 0.981 11.128 0.981 11.128 0.193 -78.688
1921.875 0.189 -78.897 0.981 10.915 0.981 10.915 0.189 -78.897
1946.833 0.186 -79.103 0.982 10.707 0.982 10.707 0.186 -79.103
1971.792 0.182 -79.303 0.983 10.502 0.983 10.502 0.182 -79.303
1996.75 0.179 -79.5 0.983 10.301 0.983 10.301 0.179 -79.5
2021.708 0.175 -79.693 0.984 10.104 0.984 10.104 0.175 -79.693
2046.667 0.172 -79.883 0.984 9.911 0.984 9.911 0.172 -79.883
2071.625 0.169 -80.068 0.985 9.721 0.985 9.721 0.169 -80.068
2096.583 0.166 -80.25 0.986 9.535 0.986 9.535 0.166 -80.25
2121.542 0.162 -80.429 0.986 9.352 0.986 9.352 0.162 -80.429
2146.5 0.159 -80.604 0.987 9.172 0.987 9.172 0.159 -80.604
2171.458 0.156 -80.777 0.987 8.995 0.987 8.995 0.156 -80.777
2196.417 0.153 -80.946 0.988 8.822 0.988 8.822 0.153 -80.946
2221.375 0.15 -81.112 0.988 8.651 0.988 8.651 0.15 -81.112
2246.333 0.148 -81.275 0.988 8.483 0.988 8.483 0.148 -81.275
2271.292 0.145 -81.435 0.989 8.318 0.989 8.318 0.145 -81.435
2296.25 0.142 -81.593 0.989 8.156 0.989 8.156 0.142 -81.593
2321.208 0.139 -81.747 0.99 7.996 0.99 7.996 0.139 -81.747
2346.167 0.136 -81.9 0.99 7.838 0.99 7.838 0.136 -81.9
2371.125 0.134 -82.049 0.99 7.683 0.99 7.683 0.134 -82.049
2396.083 0.131 -82.196 0.991 7.531 0.991 7.531 0.131 -82.196
2421.042 0.128 -82.341 0.991 7.38 0.991 7.38 0.128 -82.341
2446 0.126 -82.483 0.991 7.232 0.991 7.232 0.126 -82.483
2470.958 0.123 -82.624 0.992 7.086 0.992 7.086 0.123 -82.624
2495.917 0.121 -82.761 0.992 6.942 0.992 6.942 0.121 -82.761
2520.875 0.118 -82.897 0.992 6.8 0.992 6.8 0.118 -82.897
2545.833 0.116 -83.03 0.993 6.66 0.993 6.66 0.116 -83.03
2570.792 0.114 -83.162 0.993 6.522 0.993 6.522 0.114 -83.162
2595.75 0.111 -83.291 0.993 6.386 0.993 6.386 0.111 -83.291
2620.708 0.109 -83.419 0.993 6.252 0.993 6.252 0.109 -83.419
2645.667 0.107 -83.544 0.994 6.119 0.994 6.119 0.107 -83.544
2670.625 0.104 -83.667 0.994 5.989 0.994 5.989 0.104 -83.667
2695.583 0.102 -83.789 0.994 5.859 0.994 5.859 0.102 -83.789
2720.542 0.1 -83.909 0.994 5.732 0.994 5.732 0.1 -83.909
2745.5 0.098 -84.026 0.995 5.606 0.995 5.606 0.098 -84.026
2770.458 0.096 -84.142 0.995 5.482 0.995 5.482 0.096 -84.142
2795.417 0.093 -84.257 0.995 5.359 0.995 5.359 0.093 -84.257
2820.375 0.091 -84.369 0.995 5.237 0.995 5.237 0.091 -84.369
2845.333 0.089 -84.48 0.995 5.117 0.995 5.117 0.089 -84.48
2870.292 0.087 -84.589 0.996 4.999 0.996 4.999 0.087 -84.589
2895.25 0.085 -84.696 0.996 4.881 0.996 4.881 0.085 -84.696
2920.208 0.083 -84.802 0.996 4.766 0.996 4.766 0.083 -84.802
2945.167 0.081 -84.906 0.996 4.651 0.996 4.651 0.081 -84.906
2970.125 0.079 -85.008 0.996 4.538 0.996 4.538 0.079 -85.008
2995.083 0.077 -85.108 0.996 4.425 0.996 4.425 0.077 -85.108
3020.042 0.075 -85.207 0.997 4.314 0.997 4.314 0.075 -85.207
3045 0.073 -85.304 0.997 4.205 0.997 4.205 0.073 -85.304
3069.958 0.071 -85.4 0.997 4.096 0.997 4.096 0.071 -85.4
3094.917 0.07 -85.494 0.997 3.989 0.997 3.989 0.07 -85.494
3119.875 0.068 -85.586 0.997 3.882 0.997 3.882 0.068 -85.586
3144.833 0.066 -85.677 0.997 3.777 0.997 3.777 0.066 -85.677
3169.792 0.064 -85.765 0.997 3.673 0.997 3.673 0.064 -85.765
3194.75 0.062 -85.852 0.997 3.569 0.997 3.569 0.062 -85.852
3219.708 0.06 -85.937 0.998 3.467 0.998 3.467 0.06 -85.937
3244.667 0.059 -86.021 0.998 3.366 0.998 3.366 0.059 -86.021
3269.625 0.057 -86.102 0.998 3.265 0.998 3.265 0.057 -86.102
3294.583 0.055 -86.182 0.998 3.166 0.998 3.166 0.055 -86.182
3319.542 0.054 -86.259 0.998 3.067 0.998 3.067 0.054 -86.259
3344.5 0.052 -86.335 0.998 2.97 0.998 2.97 0.052 -86.335
3369.458 0.05 -86.408 0.998 2.873 0.998 2.873 0.05 -86.408
3394.417 0.048 -86.479 0.998 2.777 0.998 2.777 0.048 -86.479
3419.375 0.047 -86.548 0.998 2.682 0.998 2.682 0.047 -86.548
3444.333 0.045 -86.614 0.998 2.588 0.998 2.588 0.045 -86.614
3469.292 0.044 -86.677 0.998 2.495 0.998 2.495 0.044 -86.677
3494.25 0.042 -86.738 0.998 2.402 0.998 2.402 0.042 -86.738
3519.208 0.04 -86.795 0.999 2.31 0.999 2.31 0.04 -86.795
3544.167 0.039 -86.85 0.999 2.219 0.999 2.219 0.039 -86.85
3569.125 0.037 -86.901 0.999 2.129 0.999 2.129 0.037 -86.901
3594.083 0.036 -86.948 0.999 2.039 0.999 2.039 0.036 -86.948
3619.042 0.034 -86.99 0.999 1.95 0.999 1.95 0.034 -86.99
3644 0.032 -87.028 0.999 1.862 0.999 1.862 0.032 -87.028
3668.958 0.031 -87.061 0.999 1.774 0.999 1.774 0.031 -87.061
3693.917 0.029 -87.088 0.999 1.687 0.999 1.687 0.029 -87.088
3718.875 0.028 -87.108 0.999 1.601 0.999 1.601 0.028 -87.108
3743.833 0.026 -87.121 0.999 1.515 0.999 1.515 0.026 -87.121
3768.792 0.025 -87.125 0.999 1.43 0.999 1.43 0.025 -87.125
3793.75 0.023 -87.119 0.999 1.346 0.999 1.346 0.023 -87.119
3818.708 0.022 -87.1 0.999 1.262 0.999 1.262 0.022 -87.1
3843.667 0.021 -87.068 0.999 1.179 0.999 1.179 0.021 -87.068
3868.625 0.019 -87.019 0.999 1.097 0.999 1.097 0.019 -87.019
3893.583 0.018 -86.949 0.999 1.015 0.999 1.015 0.018 -86.949
3918.542 0.016 -86.852 0.999 0.933 0.999 0.933 0.016 -86.852
3943.5 0.015 -86.723 0.999 0.852 0.999 0.852 0.015 -86.723
3968.458 0.013 -86.551 0.999 0.772 0.999 0.772 0.013 -86.551
3993.417 0.012 -86.323 0.999 0.692 0.999 0.692 0.012 -86.323
4018.375 0.011 -86.017 0.999 0.613 0.999 0.613 0.011 -86.017
4043.333 9.339e-3 -85.599 0.999 0.534 0.999 0.534 9.339e-3 -85.599
4068.292 7.977e-3 -85.016 0.999 0.456 0.999 0.456 7.977e-3 -85.016
4093.25 6.624e-3 -84.166 0.999 0.378 0.999 0.378 6.624e-3 -84.166
4118.208 5.283e-3 -82.852 0.999 0.301 0.999 0.301 5.283e-3 -82.852
4143.167 3.955e-3 -80.612 0.999 0.224 0.999 0.224 3.955e-3 -80.612
4168.125 2.647e-3 -76.09 0.999 0.147 0.999 0.147 2.647e-3 -76.09
4193.083 1.397e-3 -63.126 0.999 0.071 0.999 0.071 1.397e-3 -63.126
4218.042 633.7e-6 6.347 0.999 -4.016e-3 0.999 -4.016e-3 633.7e-6 6.347
4243 1.516e-3 65.376 0.999 -0.079 0.999 -0.079 1.516e-3 65.376
4267.958 2.754e-3 76.624 0.999 -0.154 0.999 -0.154 2.754e-3 76.624
4292.917 4.024e-3 80.768 0.999 -0.228 0.999 -0.228 4.024e-3 80.768
4317.875 5.298e-3 82.872 0.999 -0.301 0.999 -0.301 5.298e-3 82.872
4342.833 6.57e-3 84.125 0.999 -0.375 0.999 -0.375 6.57e-3 84.125
4367.792 7.838e-3 84.943 0.999 -0.448 0.999 -0.448 7.838e-3 84.943
4392.75 9.099e-3 85.511 0.999 -0.52 0.999 -0.52 9.099e-3 85.511
4417.708 0.01 85.921 0.999 -0.592 0.999 -0.592 0.01 85.921
4442.667 0.012 86.225 0.999 -0.664 0.999 -0.664 0.012 86.225
4467.625 0.013 86.455 0.999 -0.735 0.999 -0.735 0.013 86.455
4492.583 0.014 86.631 0.999 -0.806 0.999 -0.806 0.014 86.631
4517.542 0.015 86.766 0.999 -0.877 0.999 -0.877 0.015 86.766
4542.5 0.017 86.871 0.999 -0.947 0.999 -0.947 0.017 86.871
4567.458 0.018 86.951 0.999 -1.017 0.999 -1.017 0.018 86.951
4592.417 0.019 87.011 0.999 -1.086 0.999 -1.086 0.019 87.011
4617.375 0.02 87.056 0.999 -1.155 0.999 -1.155 0.02 87.056
4642.333 0.021 87.088 0.999 -1.224 0.999 -1.224 0.021 87.088
4667.292 0.023 87.109 0.999 -1.293 0.999 -1.293 0.023 87.109
4692.25 0.024 87.12 0.999 -1.361 0.999 -1.361 0.024 87.12
4717.208 0.025 87.125 0.999 -1.429 0.999 -1.429 0.025 87.125
4742.167 0.026 87.122 0.999 -1.496 0.999 -1.496 0.026 87.122
4767.125 0.027 87.115 0.999 -1.563 0.999 -1.563 0.027 87.115
4792.083 0.028 87.102 0.999 -1.63 0.999 -1.63 0.028 87.102
4817.042 0.03 87.085 0.999 -1.697 0.999 -1.697 0.03 87.085
4842 0.031 87.065 0.999 -1.763 0.999 -1.763 0.031 87.065
4866.958 0.032 87.041 0.999 -1.829 0.999 -1.829 0.032 87.041
4891.917 0.033 87.015 0.999 -1.895 0.999 -1.895 0.033 87.015
4916.875 0.034 86.986 0.999 -1.96 0.999 -1.96 0.034 86.986
4941.833 0.035 86.955 0.999 -2.025 0.999 -2.025 0.035 86.955
4966.792 0.036 86.921 0.999 -2.09 0.999 -2.09 0.036 86.921
4991.75 0.038 86.887 0.999 -2.154 0.999 -2.154 0.038 86.887
5016.708 0.039 86.85 0.999 -2.218 0.999 -2.218 0.039 86.85
5041.667 0.04 86.812 0.999 -2.282 0.999 -2.282 0.04 86.812
5066.625 0.041 86.773 0.999 -2.346 0.999 -2.346 0.041 86.773
5091.583 0.042 86.733 0.998 -2.41 0.998 -2.41 0.042 86.733
5116.542 0.043 86.692 0.998 -2.473 0.998 -2.473 0.043 86.692
5141.5 0.044 86.649 0.998 -2.536 0.998 -2.536 0.044 86.649
5166.458 0.045 86.606 0.998 -2.598 0.998 -2.598 0.045 86.606
5191.417 0.046 86.563 0.998 -2.661 0.998 -2.661 0.046 86.563
5216.375 0.048 86.518 0.998 -2.723 0.998 -2.723 0.048 86.518
5241.333 0.049 86.473 0.998 -2.785 0.998 -2.785 0.049 86.473
5266.292 0.05 86.428 0.998 -2.847 0.998 -2.847 0.05 86.428
5291.25 0.051 86.382 0.998 -2.908 0.998 -2.908 0.051 86.382
5316.208 0.052 86.335 0.998 -2.969 0.998 -2.969 0.052 86.335
5341.167 0.053 86.288 0.998 -3.03 0.998 -3.03 0.053 86.288
5366.125 0.054 86.241 0.998 -3.091 0.998 -3.091 0.054 86.241
5391.083 0.055 86.193 0.998 -3.152 0.998 -3.152 0.055 86.193
5416.042 0.056 86.145 0.998 -3.212 0.998 -3.212 0.056 86.145
5441 0.057 86.097 0.998 -3.272 0.998 -3.272 0.057 86.097
5465.958 0.058 86.048 0.998 -3.332 0.998 -3.332 0.058 86.048
5490.917 0.059 85.999 0.998 -3.392 0.998 -3.392 0.059 85.999
5515.875 0.06 85.95 0.998 -3.451 0.998 -3.451 0.06 85.95
5540.833 0.061 85.901 0.997 -3.511 0.997 -3.511 0.061 85.901
5565.792 0.062 85.852 0.997 -3.57 0.997 -3.57 0.062 85.852
5590.75 0.063 85.802 0.997 -3.629 0.997 -3.629 0.063 85.802
5615.708 0.064 85.753 0.997 -3.687 0.997 -3.687 0.064 85.753
5640.667 0.065 85.703 0.997 -3.746 0.997 -3.746 0.065 85.703
5665.625 0.066 85.653 0.997 -3.804 0.997 -3.804 0.066 85.653
5690.583 0.067 85.603 0.997 -3.862 0.997 -3.862 0.067 85.603
5715.542 0.068 85.553 0.997 -3.92 0.997 -3.92 0.068 85.553
5740.5 0.069 85.503 0.997 -3.978 0.997 -3.978 0.069 85.503
5765.458 0.07 85.453 0.997 -4.035 0.997 -4.035 0.07 85.453
5790.417 0.071 85.403 0.997 -4.093 0.997 -4.093 0.071 85.403
5815.375 0.072 85.353 0.997 -4.15 0.997 -4.15 0.072 85.353
5840.333 0.073 85.302 0.997 -4.207 0.997 -4.207 0.073 85.302
5865.292 0.074 85.252 0.997 -4.264 0.997 -4.264 0.074 85.252
5890.25 0.075 85.202 0.997 -4.321 0.997 -4.321 0.075 85.202
5915.208 0.076 85.151 0.996 -4.377 0.996 -4.377 0.076 85.151
5940.167 0.077 85.101 0.996 -4.433 0.996 -4.433 0.077 85.101
5965.125 0.078 85.051 0.996 -4.49 0.996 -4.49 0.078 85.051
5990.083 0.079 85.001 0.996 -4.546 0.996 -4.546 0.079 85.001
6015.042 0.08 84.95 0.996 -4.601 0.996 -4.601 0.08 84.95
6040 0.081 84.9 0.996 -4.657 0.996 -4.657 0.081 84.9
6064.958 0.082 84.85 0.996 -4.713 0.996 -4.713 0.082 84.85
6089.917 0.083 84.799 0.996 -4.768 0.996 -4.768 0.083 84.799
6114.875 0.084 84.749 0.996 -4.823 0.996 -4.823 0.084 84.749
6139.833 0.085 84.699 0.996 -4.878 0.996 -4.878 0.085 84.699
6164.792 0.086 84.649 0.996 -4.933 0.996 -4.933 0.086 84.649
6189.75 0.087 84.599 0.996 -4.988 0.996 -4.988 0.087 84.599
6214.708 0.088 84.549 0.996 -5.042 0.996 -5.042 0.088 84.549
6239.667 0.089 84.499 0.995 -5.097 0.995 -5.097 0.089 84.499
6264.625 0.09 84.449 0.995 -5.151 0.995 -5.151 0.09 84.449
6289.583 0.091 84.399 0.995 -5.205 0.995 -5.205 0.091 84.399
6314.542 0.092 84.349 0.995 -5.259 0.995 -5.259 0.092 84.349
6339.5 0.093 84.299 0.995 -5.313 0.995 -5.313 0.093 84.299
6364.458 0.094 84.249 0.995 -5.367 0.995 -5.367 0.094 84.249
6389.417 0.094 84.199 0.995 -5.421 0.995 -5.421 0.094 84.199
6414.375 0.095 84.149 0.995 -5.474 0.995 -5.474 0.095 84.149
6439.333 0.096 84.1 0.995 -5.527 0.995 -5.527 0.096 84.1
6464.292 0.097 84.05 0.995 -5.581 0.995 -5.581 0.097 84.05
6489.25 0.098 84.001 0.995 -5.634 0.995 -5.634 0.098 84.001
6514.208 0.099 83.951 0.994 -5.686 0.994 -5.686 0.099 83.951
6539.167 0.1 83.902 0.994 -5.739 0.994 -5.739 0.1 83.902
6564.125 0.101 83.852 0.994 -5.792 0.994 -5.792 0.101 83.852
6589.083 0.102 83.803 0.994 -5.845 0.994 -5.845 0.102 83.803
6614.042 0.103 83.754 0.994 -5.897 0.994 -5.897 0.103 83.754
6639 0.104 83.704 0.994 -5.949 0.994 -5.949 0.104 83.704
6663.958 0.105 83.655 0.994 -6.001 0.994 -6.001 0.105 83.655
6688.917 0.105 83.606 0.994 -6.053 0.994 -6.053 0.105 83.606
6713.875 0.106 83.557 0.994 -6.105 0.994 -6.105 0.106 83.557
6738.833 0.107 83.508 0.994 -6.157 0.994 -6.157 0.107 83.508
6763.792 0.108 83.459 0.994 -6.209 0.994 -6.209 0.108 83.459
6788.75 0.109 83.411 0.993 -6.26 0.993 -6.26 0.109 83.411
6813.708 0.11 83.362 0.993 -6.312 0.993 -6.312 0.11 83.362
6838.667 0.111 83.313 0.993 -6.363 0.993 -6.363 0.111 83.313
6863.625 0.112 83.265 0.993 -6.414 0.993 -6.414 0.112 83.265
6888.583 0.113 83.216 0.993 -6.466 0.993 -6.466 0.113 83.216
6913.542 0.113 83.167 0.993 -6.517 0.993 -6.517 0.113 83.167
6938.5 0.114 83.119 0.993 -6.568 0.993 -6.568 0.114 83.119
6963.458 0.115 83.071 0.993 -6.618 0.993 -6.618 0.115 83.071
6988.417 0.116 83.022 0.993 -6.669 0.993 -6.669 0.116 83.022
7013.375 0.117 82.974 0.993 -6.72 0.993 -6.72 0.117 82.974
7038.333 0.118 82.926 0.992 -6.77 0.992 -6.77 0.118 82.926
7063.292 0.119 82.878 0.992 -6.82 0.992 -6.82 0.119 82.878
7088.25 0.12 82.83 0.992 -6.871 0.992 -6.871 0.12 82.83
7113.208 0.12 82.782 0.992 -6.921 0.992 -6.921 0.12 82.782
7138.167 0.121 82.734 0.992 -6.971 0.992 -6.971 0.121 82.734
7163.125 0.122 82.686 0.992 -7.021 0.992 -7.021 0.122 82.686
7188.083 0.123 82.638 0.992 -7.071 0.992 -7.071 0.123 82.638
7213.042 0.124 82.591 0.992 -7.12 0.992 -7.12 0.124 82.591
7238 0.125 82.543 0.992 -7.17 0.992 -7.17 0.125 82.543
7262.958 0.126 82.495 0.991 -7.22 0.991 -7.22 0.126 82.495
7287.917 0.127 82.448 0.991 -7.269 0.991 -7.269 0.127 82.448
7312.875 0.127 82.401 0.991 -7.318 0.991 -7.318 0.127 82.401
7337.833 0.128 82.353 0.991 -7.368 0.991 -7.368 0.128 82.353
7362.792 0.129 82.306 0.991 -7.417 0.991 -7.417 0.129 82.306
7387.75 0.13 82.259 0.991 -7.466 0.991 -7.466 0.13 82.259
7412.708 0.131 82.211 0.991 -7.515 0.991 -7.515 0.131 82.211
7437.667 0.132 82.164 0.991 -7.564 0.991 -7.564 0.132 82.164
7462.625 0.132 82.117 0.991 -7.613 0.991 -7.613 0.132 82.117
7487.583 0.133 82.07 0.99 -7.661 0.99 -7.661 0.133 82.07
7512.542 0.134 82.023 0.99 -7.71 0.99 -7.71 0.134 82.023
7537.5 0.135 81.977 0.99 -7.759 0.99 -7.759 0.135 81.977
7562.458 0.136 81.93 0.99 -7.807 0.99 -7.807 0.136 81.93
7587.417 0.137 81.883 0.99 -7.855 0.99 -7.855 0.137 81.883
7612.375 0.138 81.836 0.99 -7.904 0.99 -7.904 0.138 81.836
7637.333 0.138 81.79 0.99 -7.952 0.99 -7.952 0.138 81.79
7662.292 0.139 81.743 0.99 -8 0.99 -8 0.139 81.743
7687.25 0.14 81.697 0.99 -8.048 0.99 -8.048 0.14 81.697
7712.208 0.141 81.65 0.989 -8.096 0.989 -8.096 0.141 81.65
7737.167 0.142 81.604 0.989 -8.144 0.989 -8.144 0.142 81.604
7762.125 0.142 81.558 0.989 -8.192 0.989 -8.192 0.142 81.558
7787.083 0.143 81.511 0.989 -8.239 0.989 -8.239 0.143 81.511
7812.042 0.144 81.465 0.989 -8.287 0.989 -8.287 0.144 81.465
7837 0.145 81.419 0.989 -8.334 0.989 -8.334 0.145 81.419
7861.958 0.146 81.373 0.989 -8.382 0.989 -8.382 0.146 81.373
7886.917 0.147 81.327 0.989 -8.429 0.989 -8.429 0.147 81.327
7911.875 0.147 81.281 0.988 -8.477 0.988 -8.477 0.147 81.281
7936.833 0.148 81.235 0.988 -8.524 0.988 -8.524 0.148 81.235
7961.792 0.149 81.19 0.988 -8.571 0.988 -8.571 0.149 81.19
7986.75 0.15 81.144 0.988 -8.618 0.988 -8.618 0.15 81.144
8011.708 0.151 81.098 0.988 -8.665 0.988 -8.665 0.151 81.098
8036.667 0.151 81.053 0.988 -8.712 0.988 -8.712 0.151 81.053
8061.625 0.152 81.007 0.988 -8.759 0.988 -8.759 0.152 81.007
8086.583 0.153 80.961 0.988 -8.806 0.988 -8.806 0.153 80.961
8111.542 0.154 80.916 0.987 -8.852 0.987 -8.852 0.154 80.916
8136.5 0.155 80.871 0.987 -8.899 0.987 -8.899 0.155 80.871
8161.458 0.155 80.825 0.987 -8.945 0.987 -8.945 0.155 80.825
8186.417 0.156 80.78 0.987 -8.992 0.987 -8.992 0.156 80.78
8211.375 0.157 80.735 0.987 -9.038 0.987 -9.038 0.157 80.735
8236.333 0.158 80.69 0.987 -9.085 0.987 -9.085 0.158 80.69
8261.292 0.159 80.645 0.987 -9.131 0.987 -9.131 0.159 80.645
