# MHZ S MA R 50

50 0.994 -6.276 0.109 83.721 0.109 83.721 0.994 -6.276
74.958 0.987 -9.363 0.163 80.631 0.163 80.631 0.987 -9.363
99.917 0.977 -12.399 0.215 77.594 0.215 77.594 0.977 -12.399
124.875 0.964 -15.368 0.265 74.623 0.265 74.623 0.964 -15.368
149.833 0.95 -18.257 0.313 71.731 0.313 71.731 0.95 -18.257
174.792 0.933 -21.057 0.359 68.93 0.359 68.93 0.933 -21.057
199.75 0.915 -23.759 0.403 66.226 0.403 66.226 0.915 -23.759
224.708 0.896 -26.357 0.444 63.626 0.444 63.626 0.896 -26.357
249.667 0.876 -28.848 0.482 61.133 0.482 61.133 0.876 -28.848
274.625 0.855 -31.23 0.518 58.749 0.518 58.749 0.855 -31.23
299.583 0.834 -33.502 0.552 56.475 0.552 56.475 0.834 -33.502
324.542 0.812 -35.666 0.583 54.309 0.583 54.309 0.812 -35.666
349.5 0.791 -37.724 0.612 52.25 0.612 52.25 0.791 -37.724
374.458 0.769 -39.678 0.638 50.293 0.638 50.293 0.769 -39.678
399.417 0.748 -41.534 0.663 48.436 0.663 48.436 0.748 -41.534
424.375 0.727 -43.294 0.686 46.674 0.686 46.674 0.727 -43.294
449.333 0.707 -44.963 0.707 45.002 0.707 45.002 0.707 -44.963
474.292 0.687 -46.546 0.726 43.418 0.726 43.418 0.687 -46.546
499.25 0.668 -48.047 0.744 41.914 0.744 41.914 0.668 -48.047
524.208 0.649 -49.471 0.76 40.489 0.76 40.489 0.649 -49.471
549.167 0.631 -50.822 0.775 39.136 0.775 39.136 0.631 -50.822
574.125 0.614 -52.105 0.789 37.851 0.789 37.851 0.614 -52.105
599.083 0.597 -53.323 0.802 36.631 0.802 36.631 0.597 -53.323
624.042 0.58 -54.481 0.814 35.471 0.814 35.471 0.58 -54.481
649 0.565 -55.582 0.825 34.368 0.825 34.368 0.565 -55.582
673.958 0.549 -56.629 0.835 33.318 0.835 33.318 0.549 -56.629
698.917 0.535 -57.627 0.845 32.319 0.845 32.319 0.535 -57.627
723.875 0.52 -58.578 0.853 31.366 0.853 31.366 0.52 -58.578
748.833 0.507 -59.485 0.861 30.457 0.861 30.457 0.507 -59.485
773.792 0.494 -60.35 0.869 29.589 0.869 29.589 0.494 -60.35
798.75 0.481 -61.177 0.876 28.76 0.876 28.76 0.481 -61.177
823.708 0.469 -61.968 0.883 27.967 0.883 27.967 0.469 -61.968
848.667 0.457 -62.724 0.889 27.209 0.889 27.209 0.457 -62.724
873.625 0.446 -63.449 0.895 26.482 0.895 26.482 0.446 -63.449
898.583 0.435 -64.143 0.9 25.786 0.9 25.786 0.435 -64.143
923.542 0.424 -64.808 0.905 25.118 0.905 25.118 0.424 -64.808
948.5 0.414 -65.447 0.91 24.477 0.91 24.477 0.414 -65.447
973.458 0.405 -66.061 0.914 23.861 0.914 23.861 0.405 -66.061
998.417 0.395 -66.651 0.918 23.269 0.918 23.269 0.395 -66.651
1023.375 0.386 -67.218 0.922 22.7 0.922 22.7 0.386 -67.218
1048.333 0.377 -67.764 0.926 22.152 0.926 22.152 0.377 -67.764
1073.292 0.369 -68.29 0.929 21.623 0.929 21.623 0.369 -68.29
1098.25 0.36 -68.797 0.932 21.114 0.932 21.114 0.36 -68.797
1123.208 0.352 -69.286 0.935 20.622 0.935 20.622 0.352 -69.286
1148.167 0.344 -69.758 0.938 20.148 0.938 20.148 0.344 -69.758
1173.125 0.337 -70.214 0.941 19.69 0.941 19.69 0.337 -70.214
1198.083 0.33 -70.655 0.944 19.247 0.944 19.247 0.33 -70.655
1223.042 0.323 -71.081 0.946 18.818 0.946 18.818 0.323 -71.081
1248 0.316 -71.493 0.948 18.403 0.948 18.403 0.316 -71.493
1272.958 0.309 -71.892 0.95 18.002 0.95 18.002 0.309 -71.892
1297.917 0.303 -72.279 0.953 17.613 0.953 17.613 0.303 -72.279
1322.875 0.296 -72.654 0.955 17.235 0.955 17.235 0.296 -72.654
1347.833 0.29 -73.017 0.956 16.869 0.956 16.869 0.29 -73.017
1372.792 0.284 -73.37 0.958 16.514 0.958 16.514 0.284 -73.37
1397.75 0.278 -73.713 0.96 16.169 0.96 16.169 0.278 -73.713
1422.708 0.273 -74.045 0.961 15.834 0.961 15.834 0.273 -74.045
1447.667 0.267 -74.368 0.963 15.508 0.963 15.508 0.267 -74.368
1472.625 0.262 -74.683 0.964 15.191 0.964 15.191 0.262 -74.683
1497.583 0.257 -74.988 0.966 14.882 0.966 14.882 0.257 -74.988
1522.542 0.252 -75.286 0.967 14.582 0.967 14.582 0.252 -75.286
1547.5 0.247 -75.575 0.968 14.29 0.968 14.29 0.247 -75.575
1572.458 0.242 -75.858 0.97 14.005 0.97 14.005 0.242 -75.858
1597.417 0.237 -76.132 0.971 13.727 0.971 13.727 0.237 -76.132
1622.375 0.233 -76.4 0.972 13.456 0.972 13.456 0.233 -76.4
1647.333 0.228 -76.662 0.973 13.192 0.973 13.192 0.228 -76.662
1672.292 0.224 -76.917 0.974 12.934 0.974 12.934 0.224 -76.917
1697.25 0.22 -77.166 0.975 12.682 0.975 12.682 0.22 -77.166
1722.208 0.215 -77.409 0.976 12.435 0.976 12.435 0.215 -77.409
1747.167 0.211 -77.646 0.977 12.195 0.977 12.195 0.211 -77.646
1772.125 0.207 -77.878 0.978 11.96 0.978 11.96 0.207 -77.878
1797.083 0.203 -78.105 0.979 11.73 0.979 11.73 0.203 -78.105
1822.042 0.199 -78.326 0.979 11.505 0.979 11.505 0.199 -78.326
1847 0.196 -78.543 0.98 11.285 0.98 11.285 0.196 -78.543
1871.958 0.192 -78.755 0.981 11.069 0.981 11.069 0.192 -78.755
1896.917 0.188 -78.963 0.982 10.858 0.982 10.858 0.188 -78.963
1921.875 0.185 -79.166 0.982 10.651 0.982 10.651 0.185 -79.166
1946.833 0.181 -79.365 0.983 10.449 0.983 10.449 0.181 -79.365
1971.792 0.178 -79.56 0.983 10.25 0.983 10.25 0.178 -79.56
1996.75 0.175 -79.751 0.984 10.055 0.984 10.055 0.175 -79.751
2021.708 0.171 -79.938 0.985 9.864 0.985 9.864 0.171 -79.938
2046.667 0.168 -80.122 0.985 9.676 0.985 9.676 0.168 -80.122
2071.625 0.165 -80.302 0.986 9.492 0.986 9.492 0.165 -80.302
2096.583 0.162 -80.479 0.986 9.312 0.986 9.312 0.162 -80.479
2121.542 0.159 -80.652 0.987 9.134 0.987 9.134 0.159 -80.652
2146.5 0.156 -80.822 0.987 8.96 0.987 8.96 0.156 -80.822
2171.458 0.153 -80.989 0.988 8.789 0.988 8.789 0.153 -80.989
2196.417 0.15 -81.153 0.988 8.62 0.988 8.62 0.15 -81.153
2221.375 0.147 -81.314 0.989 8.455 0.989 8.455 0.147 -81.314
2246.333 0.144 -81.472 0.989 8.292 0.989 8.292 0.144 -81.472
2271.292 0.141 -81.627 0.989 8.132 0.989 8.132 0.141 -81.627
2296.25 0.139 -81.78 0.99 7.975 0.99 7.975 0.139 -81.78
2321.208 0.136 -81.93 0.99 7.82 0.99 7.82 0.136 -81.93
2346.167 0.133 -82.077 0.99 7.667 0.99 7.667 0.133 -82.077
2371.125 0.131 -82.222 0.991 7.517 0.991 7.517 0.131 -82.222
2396.083 0.128 -82.365 0.991 7.369 0.991 7.369 0.128 -82.365
2421.042 0.126 -82.505 0.991 7.224 0.991 7.224 0.126 -82.505
2446 0.123 -82.643 0.992 7.08 0.992 7.08 0.123 -82.643
2470.958 0.121 -82.779 0.992 6.939 0.992 6.939 0.121 -82.779
2495.917 0.118 -82.912 0.992 6.799 0.992 6.799 0.118 -82.912
2520.875 0.116 -83.044 0.993 6.662 0.993 6.662 0.116 -83.044
2545.833 0.114 -83.173 0.993 6.527 0.993 6.527 0.114 -83.173
2570.792 0.111 -83.3 0.993 6.393 0.993 6.393 0.111 -83.3
2595.75 0.109 -83.426 0.993 6.261 0.993 6.261 0.109 -83.426
2620.708 0.107 -83.549 0.994 6.131 0.994 6.131 0.107 -83.549
2645.667 0.105 -83.67 0.994 6.003 0.994 6.003 0.105 -83.67
2670.625 0.102 -83.79 0.994 5.876 0.994 5.876 0.102 -83.79
2695.583 0.1 -83.908 0.994 5.751 0.994 5.751 0.1 -83.908
2720.542 0.098 -84.023 0.995 5.628 0.995 5.628 0.098 -84.023
2745.5 0.096 -84.137 0.995 5.506 0.995 5.506 0.096 -84.137
2770.458 0.094 -84.25 0.995 5.386 0.995 5.386 0.094 -84.25
2795.417 0.092 -84.36 0.995 5.267 0.995 5.267 0.092 -84.36
2820.375 0.09 -84.469 0.995 5.149 0.995 5.149 0.09 -84.469
2845.333 0.088 -84.577 0.996 5.033 0.996 5.033 0.088 -84.577
2870.292 0.086 -84.682 0.996 4.919 0.996 4.919 0.086 -84.682
2895.25 0.084 -84.786 0.996 4.805 0.996 4.805 0.084 -84.786
2920.208 0.082 -84.888 0.996 4.693 0.996 4.693 0.082 -84.888
2945.167 0.08 -84.989 0.996 4.582 0.996 4.582 0.08 -84.989
2970.125 0.078 -85.088 0.996 4.473 0.996 4.473 0.078 -85.088
2995.083 0.076 -85.186 0.997 4.364 0.997 4.364 0.076 -85.186
3020.042 0.074 -85.281 0.997 4.257 0.997 4.257 0.074 -85.281
3045 0.072 -85.376 0.997 4.151 0.997 4.151 0.072 -85.376
3069.958 0.071 -85.468 0.997 4.046 0.997 4.046 0.071 -85.468
3094.917 0.069 -85.559 0.997 3.942 0.997 3.942 0.069 -85.559
3119.875 0.067 -85.649 0.997 3.839 0.997 3.839 0.067 -85.649
3144.833 0.065 -85.737 0.997 3.737 0.997 3.737 0.065 -85.737
3169.792 0.063 -85.823 0.997 3.636 0.997 3.636 0.063 -85.823
3194.75 0.062 -85.907 0.997 3.537 0.997 3.537 0.062 -85.907
3219.708 0.06 -85.99 0.998 3.438 0.998 3.438 0.06 -85.99
3244.667 0.058 -86.071 0.998 3.34 0.998 3.34 0.058 -86.071
3269.625 0.057 -86.15 0.998 3.243 0.998 3.243 0.057 -86.15
3294.583 0.055 -86.228 0.998 3.147 0.998 3.147 0.055 -86.228
3319.542 0.053 -86.304 0.998 3.052 0.998 3.052 0.053 -86.304
3344.5 0.052 -86.377 0.998 2.958 0.998 2.958 0.052 -86.377
3369.458 0.05 -86.449 0.998 2.864 0.998 2.864 0.05 -86.449
3394.417 0.048 -86.519 0.998 2.772 0.998 2.772 0.048 -86.519
3419.375 0.047 -86.586 0.998 2.68 0.998 2.68 0.047 -86.586
3444.333 0.045 -86.651 0.998 2.589 0.998 2.589 0.045 -86.651
3469.292 0.044 -86.714 0.998 2.499 0.998 2.499 0.044 -86.714
3494.25 0.042 -86.774 0.999 2.409 0.999 2.409 0.042 -86.774
3519.208 0.04 -86.831 0.999 2.32 0.999 2.32 0.04 -86.831
3544.167 0.039 -86.886 0.999 2.232 0.999 2.232 0.039 -86.886
3569.125 0.037 -86.937 0.999 2.145 0.999 2.145 0.037 -86.937
3594.083 0.036 -86.985 0.999 2.059 0.999 2.059 0.036 -86.985
3619.042 0.034 -87.03 0.999 1.973 0.999 1.973 0.034 -87.03
3644 0.033 -87.07 0.999 1.888 0.999 1.888 0.033 -87.07
3668.958 0.031 -87.105 0.999 1.803 0.999 1.803 0.031 -87.105
3693.917 0.03 -87.136 0.999 1.719 0.999 1.719 0.03 -87.136
3718.875 0.029 -87.161 0.999 1.636 0.999 1.636 0.029 -87.161
3743.833 0.027 -87.179 0.999 1.553 0.999 1.553 0.027 -87.179
3768.792 0.026 -87.191 0.999 1.471 0.999 1.471 0.026 -87.191
3793.75 0.024 -87.194 0.999 1.39 0.999 1.39 0.024 -87.194
3818.708 0.023 -87.187 0.999 1.309 0.999 1.309 0.023 -87.187
3843.667 0.021 -87.169 0.999 1.229 0.999 1.229 0.021 -87.169
3868.625 0.02 -87.138 0.999 1.149 0.999 1.149 0.02 -87.138
3893.583 0.019 -87.09 0.999 1.07 0.999 1.07 0.019 -87.09
3918.542 0.017 -87.023 0.999 0.991 0.999 0.991 0.017 -87.023
3943.5 0.016 -86.932 0.999 0.913 0.999 0.913 0.016 -86.932
3968.458 0.015 -86.81 0.999 0.836 0.999 0.836 0.015 -86.81
3993.417 0.013 -86.648 0.999 0.759 0.999 0.759 0.013 -86.648
4018.375 0.012 -86.434 0.999 0.682 0.999 0.682 0.012 -86.434
4043.333 0.011 -86.15 0.999 0.606 0.999 0.606 0.011 -86.15
4068.292 9.284e-3 -85.765 0.999 0.531 0.999 0.531 9.284e-3 -85.765
4093.25 7.978e-3 -85.232 0.999 0.456 0.999 0.456 7.978e-3 -85.232
4118.208 6.681e-3 -84.468 0.999 0.381 0.999 0.381 6.681e-3 -84.468
4143.167 5.395e-3 -83.309 0.999 0.307 0.999 0.307 5.395e-3 -83.309
4168.125 4.12e-3 -81.394 0.999 0.234 0.999 0.234 4.12e-3 -81.394
4193.083 2.862e-3 -77.741 0.999 0.16 0.999 0.16 2.862e-3 -77.741
4218.042 1.642e-3 -68.487 0.999 0.088 0.999 0.088 1.642e-3 -68.487
4243 656.4e-6 -23.936 0.999 0.015 0.999 0.015 656.4e-6 -23.936
4267.958 1.156e-3 58.689 0.999 -0.057 0.999 -0.057 1.156e-3 58.689
4292.917 2.315e-3 74.854 0.999 -0.128 0.999 -0.128 2.315e-3 74.854
4317.875 3.528e-3 80.01 0.999 -0.199 0.999 -0.199 3.528e-3 80.01
4342.833 4.748e-3 82.472 0.999 -0.27 0.999 -0.27 4.748e-3 82.472
4367.792 5.966e-3 83.89 0.999 -0.34 0.999 -0.34 5.966e-3 83.89
4392.75 7.181e-3 84.798 0.999 -0.41 0.999 -0.41 7.181e-3 84.798
4417.708 8.39e-3 85.421 0.999 -0.479 0.999 -0.479 8.39e-3 85.421
4442.667 9.593e-3 85.867 0.999 -0.549 0.999 -0.549 9.593e-3 85.867
4467.625 0.011 86.196 0.999 -0.617 0.999 -0.617 0.011 86.196
4492.583 0.012 86.445 0.999 -0.686 0.999 -0.686 0.012 86.445
4517.542 0.013 86.636 0.999 -0.754 0.999 -0.754 0.013 86.636
4542.5 0.014 86.783 0.999 -0.821 0.999 -0.821 0.014 86.783
4567.458 0.016 86.897 0.999 -0.889 0.999 -0.889 0.016 86.897
4592.417 0.017 86.985 0.999 -0.956 0.999 -0.956 0.017 86.985
4617.375 0.018 87.052 0.999 -1.022 0.999 -1.022 0.018 87.052
4642.333 0.019 87.103 0.999 -1.089 0.999 -1.089 0.019 87.103
4667.292 0.02 87.141 0.999 -1.155 0.999 -1.155 0.02 87.141
4692.25 0.021 87.167 0.999 -1.22 0.999 -1.22 0.021 87.167
4717.208 0.022 87.183 0.999 -1.286 0.999 -1.286 0.022 87.183
4742.167 0.024 87.192 0.999 -1.351 0.999 -1.351 0.024 87.192
4767.125 0.025 87.194 0.999 -1.415 0.999 -1.415 0.025 87.194
4792.083 0.026 87.19 0.999 -1.48 0.999 -1.48 0.026 87.19
4817.042 0.027 87.181 0.999 -1.544 0.999 -1.544 0.027 87.181
4842 0.028 87.168 0.999 -1.608 0.999 -1.608 0.028 87.168
4866.958 0.029 87.151 0.999 -1.671 0.999 -1.671 0.029 87.151
4891.917 0.03 87.131 0.999 -1.734 0.999 -1.734 0.03 87.131
4916.875 0.031 87.107 0.999 -1.797 0.999 -1.797 0.031 87.107
4941.833 0.032 87.082 0.999 -1.86 0.999 -1.86 0.032 87.082
4966.792 0.034 87.054 0.999 -1.923 0.999 -1.923 0.034 87.054
4991.75 0.035 87.024 0.999 -1.985 0.999 -1.985 0.035 87.024
5016.708 0.036 86.992 0.999 -2.047 0.999 -2.047 0.036 86.992
5041.667 0.037 86.958 0.999 -2.108 0.999 -2.108 0.037 86.958
5066.625 0.038 86.923 0.999 -2.17 0.999 -2.17 0.038 86.923
5091.583 0.039 86.887 0.999 -2.231 0.999 -2.231 0.039 86.887
5116.542 0.04 86.85 0.999 -2.292 0.999 -2.292 0.04 86.85
5141.5 0.041 86.811 0.999 -2.352 0.999 -2.352 0.041 86.811
5166.458 0.042 86.772 0.999 -2.413 0.999 -2.413 0.042 86.772
5191.417 0.043 86.732 0.998 -2.473 0.998 -2.473 0.043 86.732
5216.375 0.044 86.69 0.998 -2.533 0.998 -2.533 0.044 86.69
5241.333 0.045 86.649 0.998 -2.592 0.998 -2.592 0.045 86.649
5266.292 0.046 86.606 0.998 -2.652 0.998 -2.652 0.046 86.606
5291.25 0.047 86.563 0.998 -2.711 0.998 -2.711 0.047 86.563
5316.208 0.048 86.52 0.998 -2.77 0.998 -2.77 0.048 86.52
5341.167 0.049 86.476 0.998 -2.829 0.998 -2.829 0.049 86.476
5366.125 0.05 86.431 0.998 -2.887 0.998 -2.887 0.05 86.431
5391.083 0.051 86.387 0.998 -2.945 0.998 -2.945 0.051 86.387
5416.042 0.052 86.341 0.998 -3.004 0.998 -3.004 0.052 86.341
5441 0.053 86.296 0.998 -3.061 0.998 -3.061 0.053 86.296
5465.958 0.054 86.25 0.998 -3.119 0.998 -3.119 0.054 86.25
5490.917 0.055 86.204 0.998 -3.177 0.998 -3.177 0.055 86.204
5515.875 0.056 86.158 0.998 -3.234 0.998 -3.234 0.056 86.158
5540.833 0.057 86.111 0.998 -3.291 0.998 -3.291 0.057 86.111
5565.792 0.058 86.065 0.998 -3.348 0.998 -3.348 0.058 86.065
5590.75 0.059 86.018 0.998 -3.405 0.998 -3.405 0.059 86.018
5615.708 0.06 85.971 0.998 -3.461 0.998 -3.461 0.06 85.971
5640.667 0.061 85.923 0.998 -3.517 0.998 -3.517 0.061 85.923
5665.625 0.062 85.876 0.997 -3.573 0.997 -3.573 0.062 85.876
5690.583 0.063 85.829 0.997 -3.629 0.997 -3.629 0.063 85.829
5715.542 0.064 85.781 0.997 -3.685 0.997 -3.685 0.064 85.781
5740.5 0.065 85.734 0.997 -3.741 0.997 -3.741 0.065 85.734
5765.458 0.066 85.686 0.997 -3.796 0.997 -3.796 0.066 85.686
5790.417 0.067 85.638 0.997 -3.851 0.997 -3.851 0.067 85.638
5815.375 0.068 85.59 0.997 -3.906 0.997 -3.906 0.068 85.59
5840.333 0.069 85.542 0.997 -3.961 0.997 -3.961 0.069 85.542
5865.292 0.07 85.494 0.997 -4.016 0.997 -4.016 0.07 85.494
5890.25 0.071 85.446 0.997 -4.071 0.997 -4.071 0.071 85.446
5915.208 0.072 85.398 0.997 -4.125 0.997 -4.125 0.072 85.398
5940.167 0.073 85.35 0.997 -4.179 0.997 -4.179 0.073 85.35
5965.125 0.074 85.302 0.997 -4.233 0.997 -4.233 0.074 85.302
5990.083 0.075 85.254 0.997 -4.287 0.997 -4.287 0.075 85.254
6015.042 0.076 85.206 0.997 -4.341 0.997 -4.341 0.076 85.206
6040 0.077 85.158 0.996 -4.394 0.996 -4.394 0.077 85.158
6064.958 0.078 85.11 0.996 -4.448 0.996 -4.448 0.078 85.11
6089.917 0.078 85.062 0.996 -4.501 0.996 -4.501 0.078 85.062
6114.875 0.079 85.014 0.996 -4.554 0.996 -4.554 0.079 85.014
6139.833 0.08 84.966 0.996 -4.607 0.996 -4.607 0.08 84.966
6164.792 0.081 84.918 0.996 -4.66 0.996 -4.66 0.081 84.918
6189.75 0.082 84.87 0.996 -4.713 0.996 -4.713 0.082 84.87
6214.708 0.083 84.822 0.996 -4.765 0.996 -4.765 0.083 84.822
6239.667 0.084 84.774 0.996 -4.818 0.996 -4.818 0.084 84.774
6264.625 0.085 84.727 0.996 -4.87 0.996 -4.87 0.085 84.727
6289.583 0.086 84.679 0.996 -4.922 0.996 -4.922 0.086 84.679
6314.542 0.087 84.631 0.996 -4.974 0.996 -4.974 0.087 84.631
6339.5 0.088 84.583 0.996 -5.026 0.996 -5.026 0.088 84.583
6364.458 0.089 84.536 0.995 -5.078 0.995 -5.078 0.089 84.536
6389.417 0.089 84.488 0.995 -5.129 0.995 -5.129 0.089 84.488
6414.375 0.09 84.44 0.995 -5.181 0.995 -5.181 0.09 84.44
6439.333 0.091 84.393 0.995 -5.232 0.995 -5.232 0.091 84.393
6464.292 0.092 84.345 0.995 -5.283 0.995 -5.283 0.092 84.345
6489.25 0.093 84.298 0.995 -5.334 0.995 -5.334 0.093 84.298
6514.208 0.094 84.25 0.995 -5.385 0.995 -5.385 0.094 84.25
6539.167 0.095 84.203 0.995 -5.436 0.995 -5.436 0.095 84.203
6564.125 0.096 84.156 0.995 -5.487 0.995 -5.487 0.096 84.156
6589.083 0.096 84.108 0.995 -5.537 0.995 -5.537 0.096 84.108
6614.042 0.097 84.061 0.995 -5.588 0.995 -5.588 0.097 84.061
6639 0.098 84.014 0.995 -5.638 0.995 -5.638 0.098 84.014
6663.958 0.099 83.967 0.994 -5.688 0.994 -5.688 0.099 83.967
6688.917 0.1 83.92 0.994 -5.738 0.994 -5.738 0.1 83.92
6713.875 0.101 83.873 0.994 -5.788 0.994 -5.788 0.101 83.873
6738.833 0.102 83.826 0.994 -5.838 0.994 -5.838 0.102 83.826
6763.792 0.103 83.779 0.994 -5.888 0.994 -5.888 0.103 83.779
6788.75 0.103 83.732 0.994 -5.937 0.994 -5.937 0.103 83.732
6813.708 0.104 83.685 0.994 -5.987 0.994 -5.987 0.104 83.685
6838.667 0.105 83.639 0.994 -6.036 0.994 -6.036 0.105 83.639
6863.625 0.106 83.592 0.994 -6.086 0.994 -6.086 0.106 83.592
6888.583 0.107 83.545 0.994 -6.135 0.994 -6.135 0.107 83.545
6913.542 0.108 83.499 0.994 -6.184 0.994 -6.184 0.108 83.499
6938.5 0.109 83.452 0.993 -6.233 0.993 -6.233 0.109 83.452
6963.458 0.109 83.406 0.993 -6.282 0.993 -6.282 0.109 83.406
6988.417 0.11 83.36 0.993 -6.331 0.993 -6.331 0.11 83.36
7013.375 0.111 83.313 0.993 -6.379 0.993 -6.379 0.111 83.313
7038.333 0.112 83.267 0.993 -6.428 0.993 -6.428 0.112 83.267
7063.292 0.113 83.221 0.993 -6.476 0.993 -6.476 0.113 83.221
7088.25 0.114 83.175 0.993 -6.525 0.993 -6.525 0.114 83.175
7113.208 0.114 83.129 0.993 -6.573 0.993 -6.573 0.114 83.129
7138.167 0.115 83.083 0.993 -6.621 0.993 -6.621 0.115 83.083
7163.125 0.116 83.037 0.993 -6.669 0.993 -6.669 0.116 83.037
7188.083 0.117 82.991 0.993 -6.717 0.993 -6.717 0.117 82.991
7213.042 0.118 82.945 0.992 -6.765 0.992 -6.765 0.118 82.945
7238 0.119 82.9 0.992 -6.813 0.992 -6.813 0.119 82.9
7262.958 0.119 82.854 0.992 -6.86 0.992 -6.86 0.119 82.854
7287.917 0.12 82.808 0.992 -6.908 0.992 -6.908 0.12 82.808
7312.875 0.121 82.763 0.992 -6.956 0.992 -6.956 0.121 82.763
7337.833 0.122 82.717 0.992 -7.003 0.992 -7.003 0.122 82.717
7362.792 0.123 82.672 0.992 -7.05 0.992 -7.05 0.123 82.672
7387.75 0.124 82.626 0.992 -7.097 0.992 -7.097 0.124 82.626
7412.708 0.124 82.581 0.992 -7.145 0.992 -7.145 0.124 82.581
7437.667 0.125 82.536 0.992 -7.192 0.992 -7.192 0.125 82.536
7462.625 0.126 82.491 0.991 -7.239 0.991 -7.239 0.126 82.491
7487.583 0.127 82.446 0.991 -7.286 0.991 -7.286 0.127 82.446
7512.542 0.128 82.401 0.991 -7.332 0.991 -7.332 0.128 82.401
7537.5 0.128 82.356 0.991 -7.379 0.991 -7.379 0.128 82.356
7562.458 0.129 82.311 0.991 -7.426 0.991 -7.426 0.129 82.311
7587.417 0.13 82.266 0.991 -7.472 0.991 -7.472 0.13 82.266
7612.375 0.131 82.221 0.991 -7.519 0.991 -7.519 0.131 82.221
7637.333 0.132 82.176 0.991 -7.565 0.991 -7.565 0.132 82.176
7662.292 0.132 82.131 0.991 -7.611 0.991 -7.611 0.132 82.131
7687.25 0.133 82.087 0.99 -7.658 0.99 -7.658 0.133 82.087
7712.208 0.134 82.042 0.99 -7.704 0.99 -7.704 0.134 82.042
7737.167 0.135 81.998 0.99 -7.75 0.99 -7.75 0.135 81.998
7762.125 0.136 81.953 0.99 -7.796 0.99 -7.796 0.136 81.953
7787.083 0.136 81.909 0.99 -7.842 0.99 -7.842 0.136 81.909
7812.042 0.137 81.865 0.99 -7.887 0.99 -7.887 0.137 81.865
7837 0.138 81.82 0.99 -7.933 0.99 -7.933 0.138 81.82
7861.958 0.139 81.776 0.99 -7.979 0.99 -7.979 0.139 81.776
7886.917 0.14 81.732 0.99 -8.024 0.99 -8.024 0.14 81.732
7911.875 0.14 81.688 0.99 -8.07 0.99 -8.07 0.14 81.688
7936.833 0.141 81.644 0.989 -8.115 0.989 -8.115 0.141 81.644
7961.792 0.142 81.6 0.989 -8.161 0.989 -8.161 0.142 81.6
7986.75 0.143 81.556 0.989 -8.206 0.989 -8.206 0.143 81.556
8011.708 0.144 81.512 0.989 -8.251 0.989 -8.251 0.144 81.512
8036.667 0.144 81.468 0.989 -8.296 0.989 -8.296 0.144 81.468
8061.625 0.145 81.424 0.989 -8.341 0.989 -8.341 0.145 81.424
8086.583 0.146 81.38 0.989 -8.386 0.989 -8.386 0.146 81.38
8111.542 0.147 81.337 0.989 -8.431 0.989 -8.431 0.147 81.337
8136.5 0.147 81.293 0.988 -8.476 0.988 -8.476 0.147 81.293
8161.458 0.148 81.25 0.988 -8.521 0.988 -8.521 0.148 81.25
8186.417 0.149 81.206 0.988 -8.566 0.988 -8.566 0.149 81.206
8211.375 0.15 81.163 0.988 -8.61 0.988 -8.61 0.15 81.163
8236.333 0.15 81.119 0.988 -8.655 0.988 -8.655 0.15 81.119
8261.292 0.151 81.076 0.988 -8.7 0.988 -8.7 0.151 81.076
