# MHZ S MA R 50

50 0.993 -6.809 0.119 83.188 0.119 83.188 0.993 -6.809
74.958 0.984 -10.15 0.176 79.845 0.176 79.845 0.984 -10.15
99.917 0.973 -13.425 0.232 76.568 0.232 76.568 0.973 -13.425
124.875 0.958 -16.616 0.286 73.375 0.286 73.375 0.958 -16.616
149.833 0.941 -19.708 0.337 70.282 0.337 70.282 0.941 -19.708
174.792 0.923 -22.689 0.386 67.299 0.386 67.299 0.923 -22.689
199.75 0.902 -25.549 0.431 64.437 0.431 64.437 0.902 -25.549
224.708 0.88 -28.284 0.474 61.7 0.474 61.7 0.88 -28.284
249.667 0.858 -30.891 0.513 59.092 0.513 59.092 0.858 -30.891
274.625 0.835 -33.368 0.55 56.613 0.55 56.613 0.835 -33.368
299.583 0.812 -35.717 0.584 54.262 0.584 54.262 0.812 -35.717
324.542 0.788 -37.941 0.615 52.037 0.615 52.037 0.788 -37.941
349.5 0.765 -40.044 0.643 49.932 0.643 49.932 0.765 -40.044
374.458 0.742 -42.031 0.67 47.943 0.67 47.943 0.742 -42.031
399.417 0.72 -43.906 0.693 46.066 0.693 46.066 0.72 -43.906
424.375 0.698 -45.677 0.715 44.294 0.715 44.294 0.698 -45.677
449.333 0.677 -47.348 0.735 42.621 0.735 42.621 0.677 -47.348
474.292 0.657 -48.926 0.754 41.042 0.754 41.042 0.657 -48.926
499.25 0.637 -50.415 0.771 39.55 0.771 39.55 0.637 -50.415
524.208 0.618 -51.823 0.786 38.141 0.786 38.141 0.618 -51.823
549.167 0.599 -53.154 0.8 36.808 0.8 36.808 0.599 -53.154
574.125 0.581 -54.412 0.813 35.548 0.813 35.548 0.581 -54.412
599.083 0.564 -55.604 0.825 34.354 0.825 34.354 0.564 -55.604
624.042 0.548 -56.733 0.836 33.223 0.836 33.223 0.548 -56.733
649 0.532 -57.804 0.846 32.15 0.846 32.15 0.532 -57.804
673.958 0.517 -58.821 0.856 31.132 0.856 31.132 0.517 -58.821
698.917 0.502 -59.786 0.864 30.164 0.864 30.164 0.502 -59.786
723.875 0.489 -60.704 0.872 29.244 0.872 29.244 0.489 -60.704
748.833 0.475 -61.578 0.879 28.369 0.879 28.369 0.475 -61.578
773.792 0.462 -62.411 0.886 27.534 0.886 27.534 0.462 -62.411
798.75 0.45 -63.205 0.893 26.738 0.893 26.738 0.45 -63.205
823.708 0.438 -63.963 0.899 25.979 0.899 25.979 0.438 -63.963
848.667 0.427 -64.687 0.904 25.253 0.904 25.253 0.427 -64.687
873.625 0.416 -65.379 0.909 24.559 0.909 24.559 0.416 -65.379
898.583 0.405 -66.041 0.914 23.894 0.914 23.894 0.405 -66.041
923.542 0.395 -66.676 0.918 23.258 0.918 23.258 0.395 -66.676
948.5 0.385 -67.284 0.922 22.647 0.922 22.647 0.385 -67.284
973.458 0.376 -67.867 0.926 22.062 0.926 22.062 0.376 -67.867
998.417 0.366 -68.428 0.93 21.499 0.93 21.499 0.366 -68.428
1023.375 0.358 -68.966 0.933 20.959 0.933 20.959 0.358 -68.966
1048.333 0.349 -69.485 0.937 20.439 0.937 20.439 0.349 -69.485
1073.292 0.341 -69.983 0.94 19.938 0.94 19.938 0.341 -69.983
1098.25 0.333 -70.463 0.942 19.456 0.942 19.456 0.333 -70.463
1123.208 0.325 -70.926 0.945 18.99 0.945 18.99 0.325 -70.926
1148.167 0.318 -71.373 0.948 18.542 0.948 18.542 0.318 -71.373
1173.125 0.311 -71.804 0.95 18.108 0.95 18.108 0.311 -71.804
1198.083 0.304 -72.22 0.952 17.69 0.952 17.69 0.304 -72.22
1223.042 0.297 -72.623 0.954 17.285 0.954 17.285 0.297 -72.623
1248 0.291 -73.012 0.956 16.894 0.956 16.894 0.291 -73.012
1272.958 0.284 -73.389 0.958 16.515 0.958 16.515 0.284 -73.389
1297.917 0.278 -73.754 0.96 16.147 0.96 16.147 0.278 -73.754
1322.875 0.272 -74.107 0.962 15.791 0.962 15.791 0.272 -74.107
1347.833 0.266 -74.45 0.963 15.446 0.963 15.446 0.266 -74.45
1372.792 0.261 -74.782 0.965 15.111 0.965 15.111 0.261 -74.782
1397.75 0.255 -75.105 0.966 14.786 0.966 14.786 0.255 -75.105
1422.708 0.25 -75.419 0.968 14.47 0.968 14.47 0.25 -75.419
1447.667 0.245 -75.723 0.969 14.163 0.969 14.163 0.245 -75.723
1472.625 0.24 -76.019 0.97 13.865 0.97 13.865 0.24 -76.019
1497.583 0.235 -76.307 0.972 13.574 0.972 13.574 0.235 -76.307
1522.542 0.23 -76.587 0.973 13.292 0.973 13.292 0.23 -76.587
1547.5 0.225 -76.86 0.974 13.016 0.974 13.016 0.225 -76.86
1572.458 0.221 -77.125 0.975 12.748 0.975 12.748 0.221 -77.125
1597.417 0.216 -77.384 0.976 12.486 0.976 12.486 0.216 -77.384
1622.375 0.212 -77.637 0.977 12.231 0.977 12.231 0.212 -77.637
1647.333 0.208 -77.883 0.978 11.982 0.978 11.982 0.208 -77.883
1672.292 0.203 -78.123 0.979 11.739 0.979 11.739 0.203 -78.123
1697.25 0.199 -78.357 0.979 11.502 0.979 11.502 0.199 -78.357
1722.208 0.195 -78.586 0.98 11.27 0.98 11.27 0.195 -78.586
1747.167 0.192 -78.809 0.981 11.044 0.981 11.044 0.192 -78.809
1772.125 0.188 -79.028 0.982 10.822 0.982 10.822 0.188 -79.028
1797.083 0.184 -79.241 0.982 10.606 0.982 10.606 0.184 -79.241
1822.042 0.18 -79.45 0.983 10.394 0.983 10.394 0.18 -79.45
1847 0.177 -79.654 0.984 10.187 0.984 10.187 0.177 -79.654
1871.958 0.173 -79.854 0.984 9.983 0.984 9.983 0.173 -79.854
1896.917 0.17 -80.049 0.985 9.785 0.985 9.785 0.17 -80.049
1921.875 0.167 -80.241 0.986 9.59 0.986 9.59 0.167 -80.241
1946.833 0.163 -80.428 0.986 9.399 0.986 9.399 0.163 -80.428
1971.792 0.16 -80.612 0.987 9.211 0.987 9.211 0.16 -80.612
1996.75 0.157 -80.792 0.987 9.028 0.987 9.028 0.157 -80.792
2021.708 0.154 -80.968 0.988 8.848 0.988 8.848 0.154 -80.968
2046.667 0.151 -81.141 0.988 8.671 0.988 8.671 0.151 -81.141
2071.625 0.148 -81.311 0.989 8.497 0.989 8.497 0.148 -81.311
2096.583 0.145 -81.478 0.989 8.327 0.989 8.327 0.145 -81.478
2121.542 0.142 -81.641 0.989 8.159 0.989 8.159 0.142 -81.641
2146.5 0.139 -81.801 0.99 7.995 0.99 7.995 0.139 -81.801
2171.458 0.136 -81.959 0.99 7.833 0.99 7.833 0.136 -81.959
2196.417 0.134 -82.113 0.991 7.674 0.991 7.674 0.134 -82.113
2221.375 0.131 -82.265 0.991 7.518 0.991 7.518 0.131 -82.265
2246.333 0.128 -82.414 0.991 7.364 0.991 7.364 0.128 -82.414
2271.292 0.126 -82.561 0.992 7.213 0.992 7.213 0.126 -82.561
2296.25 0.123 -82.705 0.992 7.064 0.992 7.064 0.123 -82.705
2321.208 0.12 -82.846 0.992 6.918 0.992 6.918 0.12 -82.846
2346.167 0.118 -82.985 0.993 6.773 0.993 6.773 0.118 -82.985
2371.125 0.115 -83.122 0.993 6.631 0.993 6.631 0.115 -83.122
2396.083 0.113 -83.257 0.993 6.492 0.993 6.492 0.113 -83.257
2421.042 0.111 -83.389 0.993 6.354 0.993 6.354 0.111 -83.389
2446 0.108 -83.519 0.994 6.218 0.994 6.218 0.108 -83.519
2470.958 0.106 -83.647 0.994 6.084 0.994 6.084 0.106 -83.647
2495.917 0.104 -83.773 0.994 5.952 0.994 5.952 0.104 -83.773
2520.875 0.101 -83.897 0.994 5.822 0.994 5.822 0.101 -83.897
2545.833 0.099 -84.019 0.995 5.694 0.995 5.694 0.099 -84.019
2570.792 0.097 -84.139 0.995 5.567 0.995 5.567 0.097 -84.139
2595.75 0.095 -84.257 0.995 5.442 0.995 5.442 0.095 -84.257
2620.708 0.093 -84.373 0.995 5.319 0.995 5.319 0.093 -84.373
2645.667 0.091 -84.488 0.995 5.197 0.995 5.197 0.091 -84.488
2670.625 0.088 -84.6 0.996 5.077 0.996 5.077 0.088 -84.6
2695.583 0.086 -84.711 0.996 4.959 0.996 4.959 0.086 -84.711
2720.542 0.084 -84.82 0.996 4.841 0.996 4.841 0.084 -84.82
2745.5 0.082 -84.928 0.996 4.726 0.996 4.726 0.082 -84.928
2770.458 0.08 -85.033 0.996 4.611 0.996 4.611 0.08 -85.033
2795.417 0.078 -85.137 0.996 4.498 0.996 4.498 0.078 -85.137
2820.375 0.076 -85.24 0.997 4.387 0.997 4.387 0.076 -85.24
2845.333 0.075 -85.34 0.997 4.277 0.997 4.277 0.075 -85.34
2870.292 0.073 -85.439 0.997 4.167 0.997 4.167 0.073 -85.439
2895.25 0.071 -85.537 0.997 4.06 0.997 4.06 0.071 -85.537
2920.208 0.069 -85.632 0.997 3.953 0.997 3.953 0.069 -85.632
2945.167 0.067 -85.727 0.997 3.848 0.997 3.848 0.067 -85.727
2970.125 0.065 -85.819 0.997 3.743 0.997 3.743 0.065 -85.819
2995.083 0.063 -85.91 0.997 3.64 0.997 3.64 0.063 -85.91
3020.042 0.062 -85.999 0.998 3.538 0.998 3.538 0.062 -85.999
3045 0.06 -86.086 0.998 3.437 0.998 3.437 0.06 -86.086
3069.958 0.058 -86.172 0.998 3.337 0.998 3.337 0.058 -86.172
3094.917 0.056 -86.256 0.998 3.238 0.998 3.238 0.056 -86.256
3119.875 0.055 -86.338 0.998 3.14 0.998 3.14 0.055 -86.338
3144.833 0.053 -86.419 0.998 3.043 0.998 3.043 0.053 -86.419
3169.792 0.051 -86.497 0.998 2.946 0.998 2.946 0.051 -86.497
3194.75 0.05 -86.574 0.998 2.851 0.998 2.851 0.05 -86.574
3219.708 0.048 -86.648 0.998 2.757 0.998 2.757 0.048 -86.648
3244.667 0.046 -86.721 0.998 2.663 0.998 2.663 0.046 -86.721
3269.625 0.045 -86.791 0.998 2.571 0.998 2.571 0.045 -86.791
3294.583 0.043 -86.859 0.999 2.479 0.999 2.479 0.043 -86.859
3319.542 0.042 -86.925 0.999 2.388 0.999 2.388 0.042 -86.925
3344.5 0.04 -86.988 0.999 2.298 0.999 2.298 0.04 -86.988
3369.458 0.039 -87.049 0.999 2.209 0.999 2.209 0.039 -87.049
3394.417 0.037 -87.106 0.999 2.12 0.999 2.12 0.037 -87.106
3419.375 0.035 -87.161 0.999 2.032 0.999 2.032 0.035 -87.161
3444.333 0.034 -87.211 0.999 1.945 0.999 1.945 0.034 -87.211
3469.292 0.032 -87.259 0.999 1.859 0.999 1.859 0.032 -87.259
3494.25 0.031 -87.302 0.999 1.773 0.999 1.773 0.031 -87.302
3519.208 0.029 -87.34 0.999 1.688 0.999 1.688 0.029 -87.34
3544.167 0.028 -87.373 0.999 1.604 0.999 1.604 0.028 -87.373
3569.125 0.027 -87.401 0.999 1.52 0.999 1.52 0.027 -87.401
3594.083 0.025 -87.421 0.999 1.437 0.999 1.437 0.025 -87.421
3619.042 0.024 -87.434 0.999 1.355 0.999 1.355 0.024 -87.434
3644 0.022 -87.438 0.999 1.273 0.999 1.273 0.022 -87.438
3668.958 0.021 -87.432 0.999 1.192 0.999 1.192 0.021 -87.432
3693.917 0.019 -87.412 0.999 1.112 0.999 1.112 0.019 -87.412
3718.875 0.018 -87.378 0.999 1.032 0.999 1.032 0.018 -87.378
3743.833 0.017 -87.325 0.999 0.952 0.999 0.952 0.017 -87.325
3768.792 0.015 -87.249 0.999 0.874 0.999 0.874 0.015 -87.249
3793.75 0.014 -87.142 0.999 0.795 0.999 0.795 0.014 -87.142
3818.708 0.013 -86.997 0.999 0.718 0.999 0.718 0.013 -86.997
3843.667 0.011 -86.799 0.999 0.641 0.999 0.641 0.011 -86.799
3868.625 9.856e-3 -86.529 0.999 0.564 0.999 0.564 9.856e-3 -86.529
3893.583 8.53e-3 -86.152 0.999 0.488 0.999 0.488 8.53e-3 -86.152
3918.542 7.213e-3 -85.613 0.999 0.412 0.999 0.412 7.213e-3 -85.613
3943.5 5.907e-3 -84.807 0.999 0.337 0.999 0.337 5.907e-3 -84.807
3968.458 4.61e-3 -83.512 0.999 0.263 0.999 0.263 4.61e-3 -83.512
3993.417 3.327e-3 -81.169 0.999 0.188 0.999 0.188 3.327e-3 -81.169
4018.375 2.065e-3 -75.875 0.999 0.115 0.999 0.115 2.065e-3 -75.875
4043.333 881.6e-6 -55.41 0.999 0.042 0.999 0.042 881.6e-6 -55.41
4068.292 738.6e-6 47.366 0.999 -0.031 0.999 -0.031 738.6e-6 47.366
4093.25 1.874e-3 74.42 0.999 -0.103 0.999 -0.103 1.874e-3 74.42
4118.208 3.101e-3 80.546 0.999 -0.175 0.999 -0.175 3.101e-3 80.546
4143.167 4.336e-3 83.132 0.999 -0.247 0.999 -0.247 4.336e-3 83.132
4168.125 5.569e-3 84.532 0.999 -0.318 0.999 -0.318 5.569e-3 84.532
4193.083 6.797e-3 85.394 0.999 -0.388 0.999 -0.388 6.797e-3 85.394
4218.042 8.02e-3 85.967 0.999 -0.459 0.999 -0.459 8.02e-3 85.967
4243 9.236e-3 86.369 0.999 -0.528 0.999 -0.528 9.236e-3 86.369
4267.958 0.01 86.659 0.999 -0.598 0.999 -0.598 0.01 86.659
4292.917 0.012 86.874 0.999 -0.667 0.999 -0.667 0.012 86.874
4317.875 0.013 87.034 0.999 -0.735 0.999 -0.735 0.013 87.034
4342.833 0.014 87.155 0.999 -0.804 0.999 -0.804 0.014 87.155
4367.792 0.015 87.246 0.999 -0.872 0.999 -0.872 0.015 87.246
4392.75 0.016 87.314 0.999 -0.939 0.999 -0.939 0.016 87.314
4417.708 0.018 87.363 0.999 -1.006 0.999 -1.006 0.018 87.363
4442.667 0.019 87.398 0.999 -1.073 0.999 -1.073 0.019 87.398
4467.625 0.02 87.421 0.999 -1.14 0.999 -1.14 0.02 87.421
4492.583 0.021 87.434 0.999 -1.206 0.999 -1.206 0.021 87.434
4517.542 0.022 87.438 0.999 -1.272 0.999 -1.272 0.022 87.438
4542.5 0.023 87.436 0.999 -1.337 0.999 -1.337 0.023 87.436
4567.458 0.024 87.428 0.999 -1.402 0.999 -1.402 0.024 87.428
4592.417 0.026 87.415 0.999 -1.467 0.999 -1.467 0.026 87.415
4617.375 0.027 87.397 0.999 -1.532 0.999 -1.532 0.027 87.397
4642.333 0.028 87.376 0.999 -1.596 0.999 -1.596 0.028 87.376
4667.292 0.029 87.352 0.999 -1.66 0.999 -1.66 0.029 87.352
4692.25 0.03 87.325 0.999 -1.724 0.999 -1.724 0.03 87.325
4717.208 0.031 87.295 0.999 -1.787 0.999 -1.787 0.031 87.295
4742.167 0.032 87.263 0.999 -1.85 0.999 -1.85 0.032 87.263
4767.125 0.033 87.23 0.999 -1.913 0.999 -1.913 0.033 87.23
4792.083 0.034 87.194 0.999 -1.975 0.999 -1.975 0.034 87.194
4817.042 0.036 87.157 0.999 -2.037 0.999 -2.037 0.036 87.157
4842 0.037 87.119 0.999 -2.099 0.999 -2.099 0.037 87.119
4866.958 0.038 87.08 0.999 -2.161 0.999 -2.161 0.038 87.08
4891.917 0.039 87.039 0.999 -2.223 0.999 -2.223 0.039 87.039
4916.875 0.04 86.998 0.999 -2.284 0.999 -2.284 0.04 86.998
4941.833 0.041 86.956 0.999 -2.345 0.999 -2.345 0.041 86.956
4966.792 0.042 86.913 0.999 -2.405 0.999 -2.405 0.042 86.913
4991.75 0.043 86.869 0.999 -2.466 0.999 -2.466 0.043 86.869
5016.708 0.044 86.825 0.999 -2.526 0.999 -2.526 0.044 86.825
5041.667 0.045 86.78 0.998 -2.586 0.998 -2.586 0.045 86.78
5066.625 0.046 86.735 0.998 -2.645 0.998 -2.645 0.046 86.735
5091.583 0.047 86.689 0.998 -2.705 0.998 -2.705 0.047 86.689
5116.542 0.048 86.643 0.998 -2.764 0.998 -2.764 0.048 86.643
5141.5 0.049 86.596 0.998 -2.823 0.998 -2.823 0.049 86.596
5166.458 0.05 86.549 0.998 -2.882 0.998 -2.882 0.05 86.549
5191.417 0.051 86.502 0.998 -2.94 0.998 -2.94 0.051 86.502
5216.375 0.052 86.455 0.998 -2.999 0.998 -2.999 0.052 86.455
5241.333 0.053 86.407 0.998 -3.057 0.998 -3.057 0.053 86.407
5266.292 0.054 86.359 0.998 -3.115 0.998 -3.115 0.054 86.359
5291.25 0.055 86.311 0.998 -3.172 0.998 -3.172 0.055 86.311
5316.208 0.056 86.263 0.998 -3.23 0.998 -3.23 0.056 86.263
5341.167 0.057 86.214 0.998 -3.287 0.998 -3.287 0.057 86.214
5366.125 0.058 86.166 0.998 -3.344 0.998 -3.344 0.058 86.166
5391.083 0.059 86.117 0.998 -3.401 0.998 -3.401 0.059 86.117
5416.042 0.06 86.068 0.998 -3.457 0.998 -3.457 0.06 86.068
5441 0.061 86.02 0.998 -3.514 0.998 -3.514 0.061 86.02
5465.958 0.062 85.971 0.998 -3.57 0.998 -3.57 0.062 85.971
5490.917 0.063 85.922 0.997 -3.626 0.997 -3.626 0.063 85.922
5515.875 0.064 85.873 0.997 -3.682 0.997 -3.682 0.064 85.873
5540.833 0.065 85.824 0.997 -3.738 0.997 -3.738 0.065 85.824
5565.792 0.066 85.775 0.997 -3.793 0.997 -3.793 0.066 85.775
5590.75 0.067 85.725 0.997 -3.849 0.997 -3.849 0.067 85.725
5615.708 0.068 85.676 0.997 -3.904 0.997 -3.904 0.068 85.676
5640.667 0.069 85.627 0.997 -3.959 0.997 -3.959 0.069 85.627
5665.625 0.07 85.578 0.997 -4.014 0.997 -4.014 0.07 85.578
5690.583 0.071 85.529 0.997 -4.068 0.997 -4.068 0.071 85.529
5715.542 0.072 85.48 0.997 -4.123 0.997 -4.123 0.072 85.48
5740.5 0.073 85.431 0.997 -4.177 0.997 -4.177 0.073 85.431
5765.458 0.074 85.381 0.997 -4.231 0.997 -4.231 0.074 85.381
5790.417 0.075 85.332 0.997 -4.285 0.997 -4.285 0.075 85.332
5815.375 0.076 85.283 0.997 -4.339 0.997 -4.339 0.076 85.283
5840.333 0.077 85.234 0.997 -4.393 0.997 -4.393 0.077 85.234
5865.292 0.078 85.185 0.996 -4.446 0.996 -4.446 0.078 85.185
5890.25 0.078 85.136 0.996 -4.5 0.996 -4.5 0.078 85.136
5915.208 0.079 85.087 0.996 -4.553 0.996 -4.553 0.079 85.087
5940.167 0.08 85.038 0.996 -4.606 0.996 -4.606 0.08 85.038
5965.125 0.081 84.99 0.996 -4.659 0.996 -4.659 0.081 84.99
5990.083 0.082 84.941 0.996 -4.712 0.996 -4.712 0.082 84.941
6015.042 0.083 84.892 0.996 -4.764 0.996 -4.764 0.083 84.892
6040 0.084 84.843 0.996 -4.817 0.996 -4.817 0.084 84.843
6064.958 0.085 84.795 0.996 -4.869 0.996 -4.869 0.085 84.795
6089.917 0.086 84.746 0.996 -4.921 0.996 -4.921 0.086 84.746
6114.875 0.087 84.697 0.996 -4.973 0.996 -4.973 0.087 84.697
6139.833 0.088 84.649 0.996 -5.025 0.996 -5.025 0.088 84.649
6164.792 0.088 84.601 0.996 -5.077 0.996 -5.077 0.088 84.601
6189.75 0.089 84.552 0.995 -5.129 0.995 -5.129 0.089 84.552
6214.708 0.09 84.504 0.995 -5.18 0.995 -5.18 0.09 84.504
6239.667 0.091 84.456 0.995 -5.232 0.995 -5.232 0.091 84.456
6264.625 0.092 84.407 0.995 -5.283 0.995 -5.283 0.092 84.407
6289.583 0.093 84.359 0.995 -5.334 0.995 -5.334 0.093 84.359
6314.542 0.094 84.311 0.995 -5.385 0.995 -5.385 0.094 84.311
6339.5 0.095 84.263 0.995 -5.436 0.995 -5.436 0.095 84.263
6364.458 0.096 84.215 0.995 -5.486 0.995 -5.486 0.096 84.215
6389.417 0.096 84.167 0.995 -5.537 0.995 -5.537 0.096 84.167
6414.375 0.097 84.12 0.995 -5.588 0.995 -5.588 0.097 84.12
6439.333 0.098 84.072 0.995 -5.638 0.995 -5.638 0.098 84.072
6464.292 0.099 84.024 0.995 -5.688 0.995 -5.688 0.099 84.024
6489.25 0.1 83.977 0.994 -5.738 0.994 -5.738 0.1 83.977
6514.208 0.101 83.929 0.994 -5.788 0.994 -5.788 0.101 83.929
6539.167 0.102 83.882 0.994 -5.838 0.994 -5.838 0.102 83.882
6564.125 0.103 83.834 0.994 -5.888 0.994 -5.888 0.103 83.834
6589.083 0.103 83.787 0.994 -5.938 0.994 -5.938 0.103 83.787
6614.042 0.104 83.74 0.994 -5.987 0.994 -5.987 0.104 83.74
6639 0.105 83.692 0.994 -6.037 0.994 -6.037 0.105 83.692
6663.958 0.106 83.645 0.994 -6.086 0.994 -6.086 0.106 83.645
6688.917 0.107 83.598 0.994 -6.135 0.994 -6.135 0.107 83.598
6713.875 0.108 83.551 0.994 -6.184 0.994 -6.184 0.108 83.551
6738.833 0.109 83.504 0.994 -6.233 0.994 -6.233 0.109 83.504
6763.792 0.109 83.458 0.993 -6.282 0.993 -6.282 0.109 83.458
6788.75 0.11 83.411 0.993 -6.331 0.993 -6.331 0.11 83.411
6813.708 0.111 83.364 0.993 -6.38 0.993 -6.38 0.111 83.364
6838.667 0.112 83.317 0.993 -6.428 0.993 -6.428 0.112 83.317
6863.625 0.113 83.271 0.993 -6.477 0.993 -6.477 0.113 83.271
6888.583 0.114 83.224 0.993 -6.525 0.993 -6.525 0.114 83.224
6913.542 0.114 83.178 0.993 -6.574 0.993 -6.574 0.114 83.178
6938.5 0.115 83.132 0.993 -6.622 0.993 -6.622 0.115 83.132
6963.458 0.116 83.085 0.993 -6.67 0.993 -6.67 0.116 83.085
6988.417 0.117 83.039 0.993 -6.718 0.993 -6.718 0.117 83.039
7013.375 0.118 82.993 0.993 -6.766 0.993 -6.766 0.118 82.993
7038.333 0.119 82.947 0.992 -6.814 0.992 -6.814 0.119 82.947
7063.292 0.119 82.901 0.992 -6.861 0.992 -6.861 0.119 82.901
7088.25 0.12 82.855 0.992 -6.909 0.992 -6.909 0.12 82.855
7113.208 0.121 82.809 0.992 -6.956 0.992 -6.956 0.121 82.809
7138.167 0.122 82.763 0.992 -7.004 0.992 -7.004 0.122 82.763
7163.125 0.123 82.717 0.992 -7.051 0.992 -7.051 0.123 82.717
7188.083 0.124 82.672 0.992 -7.098 0.992 -7.098 0.124 82.672
7213.042 0.124 82.626 0.992 -7.146 0.992 -7.146 0.124 82.626
7238 0.125 82.58 0.992 -7.193 0.992 -7.193 0.125 82.58
7262.958 0.126 82.535 0.992 -7.24 0.992 -7.24 0.126 82.535
7287.917 0.127 82.489 0.991 -7.287 0.991 -7.287 0.127 82.489
7312.875 0.128 82.444 0.991 -7.333 0.991 -7.333 0.128 82.444
7337.833 0.128 82.399 0.991 -7.38 0.991 -7.38 0.128 82.399
7362.792 0.129 82.353 0.991 -7.427 0.991 -7.427 0.129 82.353
7387.75 0.13 82.308 0.991 -7.473 0.991 -7.473 0.13 82.308
7412.708 0.131 82.263 0.991 -7.52 0.991 -7.52 0.131 82.263
7437.667 0.132 82.218 0.991 -7.566 0.991 -7.566 0.132 82.218
7462.625 0.132 82.173 0.991 -7.613 0.991 -7.613 0.132 82.173
7487.583 0.133 82.128 0.991 -7.659 0.991 -7.659 0.133 82.128
7512.542 0.134 82.083 0.99 -7.705 0.99 -7.705 0.134 82.083
7537.5 0.135 82.038 0.99 -7.751 0.99 -7.751 0.135 82.038
7562.458 0.136 81.994 0.99 -7.797 0.99 -7.797 0.136 81.994
7587.417 0.136 81.949 0.99 -7.843 0.99 -7.843 0.136 81.949
7612.375 0.137 81.904 0.99 -7.889 0.99 -7.889 0.137 81.904
7637.333 0.138 81.86 0.99 -7.935 0.99 -7.935 0.138 81.86
7662.292 0.139 81.815 0.99 -7.98 0.99 -7.98 0.139 81.815
7687.25 0.14 81.771 0.99 -8.026 0.99 -8.026 0.14 81.771
7712.208 0.14 81.727 0.99 -8.071 0.99 -8.071 0.14 81.727
7737.167 0.141 81.682 0.989 -8.117 0.989 -8.117 0.141 81.682
7762.125 0.142 81.638 0.989 -8.162 0.989 -8.162 0.142 81.638
7787.083 0.143 81.594 0.989 -8.208 0.989 -8.208 0.143 81.594
7812.042 0.144 81.55 0.989 -8.253 0.989 -8.253 0.144 81.55
7837 0.144 81.505 0.989 -8.298 0.989 -8.298 0.144 81.505
7861.958 0.145 81.461 0.989 -8.343 0.989 -8.343 0.145 81.461
7886.917 0.146 81.417 0.989 -8.388 0.989 -8.388 0.146 81.417
7911.875 0.147 81.374 0.989 -8.433 0.989 -8.433 0.147 81.374
7936.833 0.147 81.33 0.989 -8.478 0.989 -8.478 0.147 81.33
7961.792 0.148 81.286 0.988 -8.523 0.988 -8.523 0.148 81.286
7986.75 0.149 81.242 0.988 -8.568 0.988 -8.568 0.149 81.242
8011.708 0.15 81.198 0.988 -8.612 0.988 -8.612 0.15 81.198
8036.667 0.151 81.155 0.988 -8.657 0.988 -8.657 0.151 81.155
8061.625 0.151 81.111 0.988 -8.702 0.988 -8.702 0.151 81.111
8086.583 0.152 81.068 0.988 -8.746 0.988 -8.746 0.152 81.068
8111.542 0.153 81.024 0.988 -8.791 0.988 -8.791 0.153 81.024
8136.5 0.154 80.981 0.988 -8.835 0.988 -8.835 0.154 80.981
8161.458 0.154 80.937 0.988 -8.879 0.988 -8.879 0.154 80.937
8186.417 0.155 80.894 0.987 -8.923 0.987 -8.923 0.155 80.894
8211.375 0.156 80.851 0.987 -8.968 0.987 -8.968 0.156 80.851
8236.333 0.157 80.808 0.987 -9.012 0.987 -9.012 0.157 80.808
