# MHZ S MA R 50

50 0.961 -15.96 0.275 74.032 0.275 74.032 0.961 -15.96
74.958 0.919 -23.216 0.394 66.772 0.394 66.772 0.919 -23.216
99.917 0.868 -29.774 0.497 60.21 0.497 60.21 0.868 -29.774
124.875 0.813 -35.587 0.582 54.393 0.582 54.393 0.813 -35.587
149.833 0.758 -40.678 0.652 49.299 0.652 49.299 0.758 -40.678
174.792 0.705 -45.108 0.708 44.865 0.708 44.865 0.705 -45.108
199.75 0.656 -48.958 0.754 41.011 0.754 41.011 0.656 -48.958
224.708 0.611 -52.307 0.791 37.659 0.791 37.659 0.611 -52.307
249.667 0.57 -55.229 0.821 34.732 0.821 34.732 0.57 -55.229
274.625 0.532 -57.789 0.846 32.168 0.846 32.168 0.532 -57.789
299.583 0.499 -60.045 0.866 29.909 0.866 29.909 0.499 -60.045
324.542 0.468 -62.041 0.883 27.908 0.883 27.908 0.468 -62.041
349.5 0.44 -63.817 0.897 26.128 0.897 26.128 0.44 -63.817
374.458 0.415 -65.406 0.909 24.535 0.909 24.535 0.415 -65.406
399.417 0.392 -66.833 0.919 23.104 0.919 23.104 0.392 -66.833
424.375 0.372 -68.122 0.928 21.81 0.928 21.81 0.372 -68.122
449.333 0.352 -69.292 0.935 20.637 0.935 20.637 0.352 -69.292
474.292 0.335 -70.357 0.942 19.567 0.942 19.567 0.335 -70.357
499.25 0.319 -71.331 0.947 18.589 0.947 18.589 0.319 -71.331
524.208 0.304 -72.225 0.952 17.691 0.952 17.691 0.304 -72.225
549.167 0.29 -73.048 0.957 16.863 0.957 16.863 0.29 -73.048
574.125 0.277 -73.809 0.96 16.097 0.96 16.097 0.277 -73.809
599.083 0.265 -74.515 0.964 15.387 0.964 15.387 0.265 -74.515
624.042 0.254 -75.171 0.967 14.727 0.967 14.727 0.254 -75.171
649 0.244 -75.782 0.969 14.111 0.969 14.111 0.244 -75.782
673.958 0.234 -76.354 0.972 13.535 0.972 13.535 0.234 -76.354
698.917 0.225 -76.889 0.974 12.994 0.974 12.994 0.225 -76.889
723.875 0.216 -77.392 0.976 12.487 0.976 12.487 0.216 -77.392
748.833 0.208 -77.865 0.978 12.008 0.978 12.008 0.208 -77.865
773.792 0.2 -78.311 0.979 11.557 0.979 11.557 0.2 -78.311
798.75 0.193 -78.733 0.981 11.13 0.981 11.13 0.193 -78.733
823.708 0.186 -79.132 0.982 10.726 0.982 10.726 0.186 -79.132
848.667 0.18 -79.511 0.983 10.342 0.983 10.342 0.18 -79.511
873.625 0.173 -79.87 0.984 9.977 0.984 9.977 0.173 -79.87
898.583 0.167 -80.212 0.985 9.629 0.985 9.629 0.167 -80.212
923.542 0.162 -80.538 0.986 9.297 0.986 9.297 0.162 -80.538
948.5 0.156 -80.849 0.987 8.98 0.987 8.98 0.156 -80.849
973.458 0.151 -81.146 0.988 8.677 0.988 8.677 0.151 -81.146
998.417 0.146 -81.43 0.989 8.387 0.989 8.387 0.146 -81.43
1023.375 0.141 -81.702 0.99 8.109 0.99 8.109 0.141 -81.702
1048.333 0.136 -81.963 0.99 7.841 0.99 7.841 0.136 -81.963
1073.292 0.132 -82.213 0.991 7.584 0.991 7.584 0.132 -82.213
1098.25 0.128 -82.454 0.991 7.337 0.991 7.337 0.128 -82.454
1123.208 0.124 -82.685 0.992 7.098 0.992 7.098 0.124 -82.685
1148.167 0.12 -82.908 0.992 6.868 0.992 6.868 0.12 -82.908
1173.125 0.116 -83.123 0.993 6.646 0.993 6.646 0.116 -83.123
1198.083 0.112 -83.329 0.993 6.432 0.993 6.432 0.112 -83.329
1223.042 0.108 -83.529 0.994 6.224 0.994 6.224 0.108 -83.529
1248 0.105 -83.722 0.994 6.023 0.994 6.023 0.105 -83.722
1272.958 0.102 -83.908 0.994 5.828 0.994 5.828 0.102 -83.908
1297.917 0.098 -84.088 0.995 5.639 0.995 5.639 0.098 -84.088
1322.875 0.095 -84.262 0.995 5.456 0.995 5.456 0.095 -84.262
1347.833 0.092 -84.431 0.995 5.277 0.995 5.277 0.092 -84.431
1372.792 0.089 -84.594 0.996 5.104 0.996 5.104 0.089 -84.594
1397.75 0.086 -84.753 0.996 4.936 0.996 4.936 0.086 -84.753
1422.708 0.083 -84.906 0.996 4.771 0.996 4.771 0.083 -84.906
1447.667 0.08 -85.055 0.996 4.612 0.996 4.612 0.08 -85.055
1472.625 0.078 -85.199 0.997 4.456 0.997 4.456 0.078 -85.199
1497.583 0.075 -85.339 0.997 4.304 0.997 4.304 0.075 -85.339
1522.542 0.072 -85.474 0.997 4.155 0.997 4.155 0.072 -85.474
1547.5 0.07 -85.606 0.997 4.01 0.997 4.01 0.07 -85.606
1572.458 0.067 -85.733 0.997 3.869 0.997 3.869 0.067 -85.733
1597.417 0.065 -85.857 0.997 3.73 0.997 3.73 0.065 -85.857
1622.375 0.063 -85.977 0.998 3.595 0.998 3.595 0.063 -85.977
1647.333 0.06 -86.093 0.998 3.462 0.998 3.462 0.06 -86.093
1672.292 0.058 -86.206 0.998 3.332 0.998 3.332 0.058 -86.206
1697.25 0.056 -86.314 0.998 3.205 0.998 3.205 0.056 -86.314
1722.208 0.054 -86.42 0.998 3.08 0.998 3.08 0.054 -86.42
1747.167 0.052 -86.521 0.998 2.958 0.998 2.958 0.052 -86.521
1772.125 0.05 -86.619 0.998 2.838 0.998 2.838 0.05 -86.619
1797.083 0.047 -86.713 0.998 2.72 0.998 2.72 0.047 -86.713
1822.042 0.045 -86.804 0.998 2.604 0.998 2.604 0.045 -86.804
1847 0.043 -86.891 0.999 2.49 0.999 2.49 0.043 -86.891
1871.958 0.042 -86.973 0.999 2.379 0.999 2.379 0.042 -86.973
1896.917 0.04 -87.052 0.999 2.269 0.999 2.269 0.04 -87.052
1921.875 0.038 -87.126 0.999 2.161 0.999 2.161 0.038 -87.126
1946.833 0.036 -87.195 0.999 2.055 0.999 2.055 0.036 -87.195
1971.792 0.034 -87.259 0.999 1.95 0.999 1.95 0.034 -87.259
1996.75 0.032 -87.318 0.999 1.847 0.999 1.847 0.032 -87.318
2021.708 0.03 -87.371 0.999 1.746 0.999 1.746 0.03 -87.371
2046.667 0.029 -87.417 0.999 1.646 0.999 1.646 0.029 -87.417
2071.625 0.027 -87.456 0.999 1.547 0.999 1.547 0.027 -87.456
2096.583 0.025 -87.486 0.999 1.45 0.999 1.45 0.025 -87.486
2121.542 0.024 -87.507 0.999 1.354 0.999 1.354 0.024 -87.507
2146.5 0.022 -87.516 0.999 1.26 0.999 1.26 0.022 -87.516
2171.458 0.02 -87.511 0.999 1.167 0.999 1.167 0.02 -87.511
2196.417 0.019 -87.49 0.999 1.075 0.999 1.075 0.019 -87.49
2221.375 0.017 -87.449 0.999 0.984 0.999 0.984 0.017 -87.449
2246.333 0.016 -87.381 0.999 0.894 0.999 0.894 0.016 -87.381
2271.292 0.014 -87.28 0.999 0.806 0.999 0.806 0.014 -87.28
2296.25 0.013 -87.135 0.999 0.718 0.999 0.718 0.013 -87.135
2321.208 0.011 -86.927 0.999 0.632 0.999 0.632 0.011 -86.927
2346.167 9.542e-3 -86.631 0.999 0.546 0.999 0.546 9.542e-3 -86.631
2371.125 8.069e-3 -86.2 0.999 0.462 0.999 0.462 8.069e-3 -86.2
2396.083 6.613e-3 -85.547 1 0.378 1 0.378 6.613e-3 -85.547
2421.042 5.174e-3 -84.494 1 0.295 1 0.295 5.174e-3 -84.494
2446 3.755e-3 -82.597 1 0.213 1 0.213 3.755e-3 -82.597
2470.958 2.359e-3 -78.378 1 0.132 1 0.132 2.359e-3 -78.378
2495.917 1.027e-3 -62.72 1 0.052 1 0.052 1.027e-3 -62.72
2520.875 665.6e-6 45.064 1 -0.027 1 -0.027 665.6e-6 45.064
2545.833 1.901e-3 75.587 1 -0.106 1 -0.106 1.901e-3 75.587
2570.792 3.235e-3 81.463 1 -0.183 1 -0.183 3.235e-3 81.463
2595.75 4.57e-3 83.837 1 -0.26 1 -0.26 4.57e-3 83.837
2620.708 5.897e-3 85.092 1 -0.337 1 -0.337 5.897e-3 85.092
2645.667 7.214e-3 85.853 1 -0.412 1 -0.412 7.214e-3 85.853
2670.625 8.52e-3 86.351 0.999 -0.487 0.999 -0.487 8.52e-3 86.351
2695.583 9.815e-3 86.694 0.999 -0.562 0.999 -0.562 9.815e-3 86.694
2720.542 0.011 86.938 0.999 -0.635 0.999 -0.635 0.011 86.938
2745.5 0.012 87.115 0.999 -0.708 0.999 -0.708 0.012 87.115
2770.458 0.014 87.245 0.999 -0.781 0.999 -0.781 0.014 87.245
2795.417 0.015 87.339 0.999 -0.853 0.999 -0.853 0.015 87.339
2820.375 0.016 87.407 0.999 -0.924 0.999 -0.924 0.016 87.407
2845.333 0.017 87.455 0.999 -0.995 0.999 -0.995 0.017 87.455
2870.292 0.019 87.487 0.999 -1.065 0.999 -1.065 0.019 87.487
2895.25 0.02 87.506 0.999 -1.135 0.999 -1.135 0.02 87.506
2920.208 0.021 87.515 0.999 -1.204 0.999 -1.204 0.021 87.515
2945.167 0.022 87.516 0.999 -1.272 0.999 -1.272 0.022 87.516
2970.125 0.023 87.509 0.999 -1.341 0.999 -1.341 0.023 87.509
2995.083 0.025 87.497 0.999 -1.408 0.999 -1.408 0.025 87.497
3020.042 0.026 87.479 0.999 -1.476 0.999 -1.476 0.026 87.479
3045 0.027 87.458 0.999 -1.542 0.999 -1.542 0.027 87.458
3069.958 0.028 87.433 0.999 -1.609 0.999 -1.609 0.028 87.433
3094.917 0.029 87.405 0.999 -1.674 0.999 -1.674 0.029 87.405
3119.875 0.03 87.374 0.999 -1.74 0.999 -1.74 0.03 87.374
3144.833 0.031 87.341 0.999 -1.805 0.999 -1.805 0.031 87.341
3169.792 0.033 87.306 0.999 -1.869 0.999 -1.869 0.033 87.306
3194.75 0.034 87.269 0.999 -1.934 0.999 -1.934 0.034 87.269
3219.708 0.035 87.231 0.999 -1.998 0.999 -1.998 0.035 87.231
3244.667 0.036 87.191 0.999 -2.061 0.999 -2.061 0.036 87.191
3269.625 0.037 87.15 0.999 -2.124 0.999 -2.124 0.037 87.15
3294.583 0.038 87.108 0.999 -2.187 0.999 -2.187 0.038 87.108
3319.542 0.039 87.065 0.999 -2.249 0.999 -2.249 0.039 87.065
3344.5 0.04 87.022 0.999 -2.311 0.999 -2.311 0.04 87.022
3369.458 0.041 86.977 0.999 -2.373 0.999 -2.373 0.041 86.977
3394.417 0.042 86.932 0.999 -2.434 0.999 -2.434 0.042 86.932
3419.375 0.044 86.887 0.999 -2.495 0.999 -2.495 0.044 86.887
3444.333 0.045 86.841 0.999 -2.556 0.999 -2.556 0.045 86.841
3469.292 0.046 86.794 0.998 -2.616 0.998 -2.616 0.046 86.794
3494.25 0.047 86.748 0.998 -2.676 0.998 -2.676 0.047 86.748
3519.208 0.048 86.7 0.998 -2.736 0.998 -2.736 0.048 86.7
3544.167 0.049 86.653 0.998 -2.796 0.998 -2.796 0.049 86.653
3569.125 0.05 86.605 0.998 -2.855 0.998 -2.855 0.05 86.605
3594.083 0.051 86.557 0.998 -2.914 0.998 -2.914 0.051 86.557
3619.042 0.052 86.509 0.998 -2.973 0.998 -2.973 0.052 86.509
3644 0.053 86.461 0.998 -3.031 0.998 -3.031 0.053 86.461
3668.958 0.054 86.412 0.998 -3.089 0.998 -3.089 0.054 86.412
3693.917 0.055 86.363 0.998 -3.147 0.998 -3.147 0.055 86.363
3718.875 0.056 86.314 0.998 -3.205 0.998 -3.205 0.056 86.314
3743.833 0.057 86.266 0.998 -3.262 0.998 -3.262 0.057 86.266
3768.792 0.058 86.217 0.998 -3.319 0.998 -3.319 0.058 86.217
3793.75 0.059 86.168 0.998 -3.376 0.998 -3.376 0.059 86.168
3818.708 0.06 86.118 0.998 -3.433 0.998 -3.433 0.06 86.118
3843.667 0.061 86.069 0.998 -3.489 0.998 -3.489 0.061 86.069
3868.625 0.062 86.02 0.998 -3.545 0.998 -3.545 0.062 86.02
3893.583 0.063 85.971 0.998 -3.601 0.998 -3.601 0.063 85.971
3918.542 0.064 85.922 0.997 -3.657 0.997 -3.657 0.064 85.922
3943.5 0.065 85.872 0.997 -3.713 0.997 -3.713 0.065 85.872
3968.458 0.066 85.823 0.997 -3.768 0.997 -3.768 0.066 85.823
3993.417 0.067 85.774 0.997 -3.823 0.997 -3.823 0.067 85.774
4018.375 0.068 85.725 0.997 -3.878 0.997 -3.878 0.068 85.725
4043.333 0.069 85.676 0.997 -3.933 0.997 -3.933 0.069 85.676
4068.292 0.07 85.626 0.997 -3.987 0.997 -3.987 0.07 85.626
4093.25 0.07 85.577 0.997 -4.042 0.997 -4.042 0.07 85.577
4118.208 0.071 85.528 0.997 -4.096 0.997 -4.096 0.071 85.528
4143.167 0.072 85.479 0.997 -4.15 0.997 -4.15 0.072 85.479
4168.125 0.073 85.43 0.997 -4.204 0.997 -4.204 0.073 85.43
4193.083 0.074 85.381 0.997 -4.257 0.997 -4.257 0.074 85.381
4218.042 0.075 85.332 0.997 -4.311 0.997 -4.311 0.075 85.332
4243 0.076 85.283 0.997 -4.364 0.997 -4.364 0.076 85.283
4267.958 0.077 85.234 0.997 -4.417 0.997 -4.417 0.077 85.234
4292.917 0.078 85.186 0.996 -4.47 0.996 -4.47 0.078 85.186
4317.875 0.079 85.137 0.996 -4.523 0.996 -4.523 0.079 85.137
4342.833 0.08 85.088 0.996 -4.575 0.996 -4.575 0.08 85.088
4367.792 0.081 85.04 0.996 -4.628 0.996 -4.628 0.081 85.04
4392.75 0.082 84.991 0.996 -4.68 0.996 -4.68 0.082 84.991
4417.708 0.083 84.943 0.996 -4.732 0.996 -4.732 0.083 84.943
4442.667 0.083 84.894 0.996 -4.784 0.996 -4.784 0.083 84.894
4467.625 0.084 84.846 0.996 -4.836 0.996 -4.836 0.084 84.846
4492.583 0.085 84.797 0.996 -4.888 0.996 -4.888 0.085 84.797
4517.542 0.086 84.749 0.996 -4.939 0.996 -4.939 0.086 84.749
4542.5 0.087 84.701 0.996 -4.991 0.996 -4.991 0.087 84.701
4567.458 0.088 84.653 0.996 -5.042 0.996 -5.042 0.088 84.653
4592.417 0.089 84.605 0.996 -5.093 0.996 -5.093 0.089 84.605
4617.375 0.09 84.557 0.996 -5.144 0.996 -5.144 0.09 84.557
4642.333 0.091 84.509 0.995 -5.195 0.995 -5.195 0.091 84.509
4667.292 0.091 84.461 0.995 -5.246 0.995 -5.246 0.091 84.461
4692.25 0.092 84.413 0.995 -5.296 0.995 -5.296 0.092 84.413
4717.208 0.093 84.366 0.995 -5.347 0.995 -5.347 0.093 84.366
4742.167 0.094 84.318 0.995 -5.397 0.995 -5.397 0.094 84.318
4767.125 0.095 84.27 0.995 -5.447 0.995 -5.447 0.095 84.27
4792.083 0.096 84.223 0.995 -5.497 0.995 -5.497 0.096 84.223
4817.042 0.097 84.176 0.995 -5.547 0.995 -5.547 0.097 84.176
4842 0.098 84.128 0.995 -5.597 0.995 -5.597 0.098 84.128
4866.958 0.098 84.081 0.995 -5.647 0.995 -5.647 0.098 84.081
4891.917 0.099 84.034 0.995 -5.696 0.995 -5.696 0.099 84.034
4916.875 0.1 83.986 0.995 -5.746 0.995 -5.746 0.1 83.986
4941.833 0.101 83.939 0.994 -5.795 0.994 -5.795 0.101 83.939
4966.792 0.102 83.892 0.994 -5.845 0.994 -5.845 0.102 83.892
4991.75 0.103 83.845 0.994 -5.894 0.994 -5.894 0.103 83.845
5016.708 0.104 83.798 0.994 -5.943 0.994 -5.943 0.104 83.798
5041.667 0.104 83.752 0.994 -5.992 0.994 -5.992 0.104 83.752
5066.625 0.105 83.705 0.994 -6.041 0.994 -6.041 0.105 83.705
5091.583 0.106 83.658 0.994 -6.089 0.994 -6.089 0.106 83.658
5116.542 0.107 83.612 0.994 -6.138 0.994 -6.138 0.107 83.612
5141.5 0.108 83.565 0.994 -6.187 0.994 -6.187 0.108 83.565
5166.458 0.109 83.519 0.994 -6.235 0.994 -6.235 0.109 83.519
5191.417 0.109 83.472 0.994 -6.283 0.994 -6.283 0.109 83.472
5216.375 0.11 83.426 0.993 -6.332 0.993 -6.332 0.11 83.426
5241.333 0.111 83.379 0.993 -6.38 0.993 -6.38 0.111 83.379
5266.292 0.112 83.333 0.993 -6.428 0.993 -6.428 0.112 83.333
5291.25 0.113 83.287 0.993 -6.476 0.993 -6.476 0.113 83.287
5316.208 0.114 83.241 0.993 -6.524 0.993 -6.524 0.114 83.241
5341.167 0.114 83.195 0.993 -6.571 0.993 -6.571 0.114 83.195
5366.125 0.115 83.149 0.993 -6.619 0.993 -6.619 0.115 83.149
5391.083 0.116 83.103 0.993 -6.667 0.993 -6.667 0.116 83.103
5416.042 0.117 83.057 0.993 -6.714 0.993 -6.714 0.117 83.057
5441 0.118 83.011 0.993 -6.762 0.993 -6.762 0.118 83.011
5465.958 0.119 82.965 0.992 -6.809 0.992 -6.809 0.119 82.965
5490.917 0.119 82.92 0.992 -6.856 0.992 -6.856 0.119 82.92
5515.875 0.12 82.874 0.992 -6.903 0.992 -6.903 0.12 82.874
5540.833 0.121 82.829 0.992 -6.951 0.992 -6.951 0.121 82.829
5565.792 0.122 82.783 0.992 -6.998 0.992 -6.998 0.122 82.783
5590.75 0.123 82.738 0.992 -7.044 0.992 -7.044 0.123 82.738
5615.708 0.123 82.692 0.992 -7.091 0.992 -7.091 0.123 82.692
5640.667 0.124 82.647 0.992 -7.138 0.992 -7.138 0.124 82.647
5665.625 0.125 82.602 0.992 -7.185 0.992 -7.185 0.125 82.602
5690.583 0.126 82.556 0.992 -7.231 0.992 -7.231 0.126 82.556
5715.542 0.127 82.511 0.991 -7.278 0.991 -7.278 0.127 82.511
5740.5 0.127 82.466 0.991 -7.324 0.991 -7.324 0.127 82.466
5765.458 0.128 82.421 0.991 -7.371 0.991 -7.371 0.128 82.421
5790.417 0.129 82.376 0.991 -7.417 0.991 -7.417 0.129 82.376
5815.375 0.13 82.331 0.991 -7.463 0.991 -7.463 0.13 82.331
5840.333 0.131 82.286 0.991 -7.509 0.991 -7.509 0.131 82.286
5865.292 0.131 82.241 0.991 -7.556 0.991 -7.556 0.131 82.241
5890.25 0.132 82.197 0.991 -7.602 0.991 -7.602 0.132 82.197
5915.208 0.133 82.152 0.991 -7.648 0.991 -7.648 0.133 82.152
5940.167 0.134 82.107 0.991 -7.693 0.991 -7.693 0.134 82.107
5965.125 0.135 82.063 0.99 -7.739 0.99 -7.739 0.135 82.063
5990.083 0.135 82.018 0.99 -7.785 0.99 -7.785 0.135 82.018
6015.042 0.136 81.974 0.99 -7.831 0.99 -7.831 0.136 81.974
6040 0.137 81.929 0.99 -7.876 0.99 -7.876 0.137 81.929
6064.958 0.138 81.885 0.99 -7.922 0.99 -7.922 0.138 81.885
6089.917 0.139 81.84 0.99 -7.967 0.99 -7.967 0.139 81.84
6114.875 0.139 81.796 0.99 -8.013 0.99 -8.013 0.139 81.796
6139.833 0.14 81.752 0.99 -8.058 0.99 -8.058 0.14 81.752
6164.792 0.141 81.707 0.99 -8.103 0.99 -8.103 0.141 81.707
6189.75 0.142 81.663 0.989 -8.149 0.989 -8.149 0.142 81.663
6214.708 0.143 81.619 0.989 -8.194 0.989 -8.194 0.143 81.619
6239.667 0.143 81.575 0.989 -8.239 0.989 -8.239 0.143 81.575
6264.625 0.144 81.531 0.989 -8.284 0.989 -8.284 0.144 81.531
6289.583 0.145 81.487 0.989 -8.329 0.989 -8.329 0.145 81.487
6314.542 0.146 81.443 0.989 -8.374 0.989 -8.374 0.146 81.443
6339.5 0.146 81.399 0.989 -8.419 0.989 -8.419 0.146 81.399
6364.458 0.147 81.355 0.989 -8.464 0.989 -8.464 0.147 81.355
6389.417 0.148 81.312 0.989 -8.508 0.989 -8.508 0.148 81.312
6414.375 0.149 81.268 0.988 -8.553 0.988 -8.553 0.149 81.268
6439.333 0.149 81.224 0.988 -8.598 0.988 -8.598 0.149 81.224
6464.292 0.15 81.181 0.988 -8.642 0.988 -8.642 0.15 81.181
6489.25 0.151 81.137 0.988 -8.687 0.988 -8.687 0.151 81.137
6514.208 0.152 81.093 0.988 -8.731 0.988 -8.731 0.152 81.093
6539.167 0.153 81.05 0.988 -8.776 0.988 -8.776 0.153 81.05
6564.125 0.153 81.006 0.988 -8.82 0.988 -8.82 0.153 81.006
6589.083 0.154 80.963 0.988 -8.864 0.988 -8.864 0.154 80.963
6614.042 0.155 80.92 0.987 -8.909 0.987 -8.909 0.155 80.92
6639 0.156 80.876 0.987 -8.953 0.987 -8.953 0.156 80.876
6663.958 0.156 80.833 0.987 -8.997 0.987 -8.997 0.156 80.833
6688.917 0.157 80.79 0.987 -9.041 0.987 -9.041 0.157 80.79
6713.875 0.158 80.746 0.987 -9.085 0.987 -9.085 0.158 80.746
6738.833 0.159 80.703 0.987 -9.129 0.987 -9.129 0.159 80.703
6763.792 0.159 80.66 0.987 -9.173 0.987 -9.173 0.159 80.66
6788.75 0.16 80.617 0.987 -9.217 0.987 -9.217 0.16 80.617
6813.708 0.161 80.574 0.987 -9.261 0.987 -9.261 0.161 80.574
6838.667 0.162 80.531 0.986 -9.305 0.986 -9.305 0.162 80.531
6863.625 0.162 80.488 0.986 -9.348 0.986 -9.348 0.162 80.488
6888.583 0.163 80.445 0.986 -9.392 0.986 -9.392 0.163 80.445
6913.542 0.164 80.402 0.986 -9.436 0.986 -9.436 0.164 80.402
6938.5 0.165 80.359 0.986 -9.479 0.986 -9.479 0.165 80.359
6963.458 0.165 80.317 0.986 -9.523 0.986 -9.523 0.165 80.317
6988.417 0.166 80.274 0.986 -9.566 0.986 -9.566 0.166 80.274
7013.375 0.167 80.231 0.986 -9.61 0.986 -9.61 0.167 80.231
7038.333 0.168 80.188 0.985 -9.653 0.985 -9.653 0.168 80.188
7063.292 0.168 80.146 0.985 -9.697 0.985 -9.697 0.168 80.146
7088.25 0.169 80.103 0.985 -9.74 0.985 -9.74 0.169 80.103
7113.208 0.17 80.061 0.985 -9.783 0.985 -9.783 0.17 80.061
7138.167 0.171 80.018 0.985 -9.827 0.985 -9.827 0.171 80.018
7163.125 0.171 79.975 0.985 -9.87 0.985 -9.87 0.171 79.975
7188.083 0.172 79.933 0.985 -9.913 0.985 -9.913 0.172 79.933
7213.042 0.173 79.891 0.984 -9.956 0.984 -9.956 0.173 79.891
7238 0.174 79.848 0.984 -9.999 0.984 -9.999 0.174 79.848
7262.958 0.174 79.806 0.984 -10.042 0.984 -10.042 0.174 79.806
7287.917 0.175 79.764 0.984 -10.085 0.984 -10.085 0.175 79.764
7312.875 0.176 79.721 0.984 -10.128 0.984 -10.128 0.176 79.721
7337.833 0.177 79.679 0.984 -10.171 0.984 -10.171 0.177 79.679
7362.792 0.177 79.637 0.984 -10.214 0.984 -10.214 0.177 79.637
7387.75 0.178 79.595 0.984 -10.257 0.984 -10.257 0.178 79.595
7412.708 0.179 79.553 0.983 -10.299 0.983 -10.299 0.179 79.553
7437.667 0.18 79.51 0.983 -10.342 0.983 -10.342 0.18 79.51
7462.625 0.18 79.468 0.983 -10.385 0.983 -10.385 0.18 79.468
7487.583 0.181 79.426 0.983 -10.427 0.983 -10.427 0.181 79.426
7512.542 0.182 79.384 0.983 -10.47 0.983 -10.47 0.182 79.384
7537.5 0.182 79.342 0.983 -10.513 0.983 -10.513 0.182 79.342
7562.458 0.183 79.3 0.983 -10.555 0.983 -10.555 0.183 79.3
7587.417 0.184 79.259 0.982 -10.598 0.982 -10.598 0.184 79.259
7612.375 0.185 79.217 0.982 -10.64 0.982 -10.64 0.185 79.217
7637.333 0.185 79.175 0.982 -10.682 0.982 -10.682 0.185 79.175
7662.292 0.186 79.133 0.982 -10.725 0.982 -10.725 0.186 79.133
7687.25 0.187 79.091 0.982 -10.767 0.982 -10.767 0.187 79.091
7712.208 0.188 79.05 0.982 -10.809 0.982 -10.809 0.188 79.05
7737.167 0.188 79.008 0.982 -10.852 0.982 -10.852 0.188 79.008
7762.125 0.189 78.966 0.982 -10.894 0.982 -10.894 0.189 78.966
7787.083 0.19 78.925 0.981 -10.936 0.981 -10.936 0.19 78.925
7812.042 0.19 78.883 0.981 -10.978 0.981 -10.978 0.19 78.883
7837 0.191 78.842 0.981 -11.02 0.981 -11.02 0.191 78.842
7861.958 0.192 78.8 0.981 -11.062 0.981 -11.062 0.192 78.8
7886.917 0.193 78.759 0.981 -11.104 0.981 -11.104 0.193 78.759
7911.875 0.193 78.717 0.981 -11.146 0.981 -11.146 0.193 78.717
7936.833 0.194 78.676 0.981 -11.188 0.981 -11.188 0.194 78.676
7961.792 0.195 78.634 0.98 -11.23 0.98 -11.23 0.195 78.634
7986.75 0.195 78.593 0.98 -11.272 0.98 -11.272 0.195 78.593
8011.708 0.196 78.552 0.98 -11.314 0.98 -11.314 0.196 78.552
8036.667 0.197 78.51 0.98 -11.356 0.98 -11.356 0.197 78.51
8061.625 0.198 78.469 0.98 -11.397 0.98 -11.397 0.198 78.469
8086.583 0.198 78.428 0.98 -11.439 0.98 -11.439 0.198 78.428
8111.542 0.199 78.387 0.98 -11.481 0.98 -11.481 0.199 78.387
8136.5 0.2 78.345 0.979 -11.523 0.979 -11.523 0.2 78.345
8161.458 0.2 78.304 0.979 -11.564 0.979 -11.564 0.2 78.304
8186.417 0.201 78.263 0.979 -11.606 0.979 -11.606 0.201 78.263
8211.375 0.202 78.222 0.979 -11.647 0.979 -11.647 0.202 78.222
8236.333 0.203 78.181 0.979 -11.689 0.979 -11.689 0.203 78.181
8261.292 0.203 78.14 0.979 -11.73 0.979 -11.73 0.203 78.14
8286.25 0.204 78.099 0.979 -11.772 0.979 -11.772 0.204 78.099
