# MHZ S MA R 50

50 0.973 -13.262 0.229 76.731 0.229 76.731 0.973 -13.262
74.958 0.943 -19.468 0.333 70.523 0.333 70.523 0.943 -19.468
99.917 0.904 -25.242 0.426 64.746 0.426 64.746 0.904 -25.242
124.875 0.861 -30.525 0.508 59.459 0.508 59.459 0.861 -30.525
149.833 0.816 -35.303 0.578 54.678 0.578 54.678 0.816 -35.303
174.792 0.77 -39.589 0.637 50.389 0.637 50.389 0.77 -39.589
199.75 0.726 -43.415 0.687 46.559 0.687 46.559 0.726 -43.415
224.708 0.684 -46.825 0.729 43.146 0.729 43.146 0.684 -46.825
249.667 0.644 -49.864 0.765 40.104 0.765 40.104 0.644 -49.864
274.625 0.607 -52.576 0.794 37.389 0.794 37.389 0.607 -52.576
299.583 0.573 -55.002 0.819 34.96 0.819 34.96 0.573 -55.002
324.542 0.541 -57.178 0.84 32.78 0.84 32.78 0.541 -57.178
349.5 0.512 -59.136 0.858 30.819 0.858 30.819 0.512 -59.136
374.458 0.486 -60.905 0.874 29.047 0.874 29.047 0.486 -60.905
399.417 0.461 -62.508 0.887 27.44 0.887 27.44 0.461 -62.508
424.375 0.438 -63.966 0.899 25.979 0.899 25.979 0.438 -63.966
449.333 0.417 -65.297 0.908 24.645 0.908 24.645 0.417 -65.297
474.292 0.398 -66.515 0.917 23.422 0.917 23.422 0.398 -66.515
499.25 0.379 -67.635 0.925 22.299 0.925 22.299 0.379 -67.635
524.208 0.363 -68.668 0.931 21.263 0.931 21.263 0.363 -68.668
549.167 0.347 -69.622 0.937 20.305 0.937 20.305 0.347 -69.622
574.125 0.332 -70.507 0.943 19.417 0.943 19.417 0.332 -70.507
599.083 0.319 -71.329 0.947 18.591 0.947 18.591 0.319 -71.329
624.042 0.306 -72.096 0.952 17.821 0.952 17.821 0.306 -72.096
649 0.294 -72.812 0.955 17.101 0.955 17.101 0.294 -72.812
673.958 0.283 -73.482 0.959 16.426 0.959 16.426 0.283 -73.482
698.917 0.272 -74.112 0.962 15.793 0.962 15.793 0.272 -74.112
723.875 0.262 -74.704 0.965 15.197 0.965 15.197 0.262 -74.704
748.833 0.253 -75.262 0.967 14.635 0.967 14.635 0.253 -75.262
773.792 0.244 -75.788 0.969 14.104 0.969 14.104 0.244 -75.788
798.75 0.235 -76.287 0.971 13.602 0.971 13.602 0.235 -76.287
823.708 0.227 -76.759 0.973 13.126 0.973 13.126 0.227 -76.759
848.667 0.219 -77.207 0.975 12.673 0.975 12.673 0.219 -77.207
873.625 0.212 -77.633 0.977 12.243 0.977 12.243 0.212 -77.633
898.583 0.205 -78.039 0.978 11.833 0.978 11.833 0.205 -78.039
923.542 0.198 -78.425 0.98 11.442 0.98 11.442 0.198 -78.425
948.5 0.192 -78.794 0.981 11.068 0.981 11.068 0.192 -78.794
973.458 0.186 -79.147 0.982 10.711 0.982 10.711 0.186 -79.147
998.417 0.18 -79.485 0.983 10.368 0.983 10.368 0.18 -79.485
1023.375 0.174 -79.808 0.984 10.04 0.984 10.04 0.174 -79.808
1048.333 0.169 -80.119 0.985 9.724 0.985 9.724 0.169 -80.119
1073.292 0.164 -80.417 0.986 9.421 0.986 9.421 0.164 -80.417
1098.25 0.159 -80.703 0.987 9.129 0.987 9.129 0.159 -80.703
1123.208 0.154 -80.979 0.988 8.848 0.988 8.848 0.154 -80.979
1148.167 0.149 -81.244 0.988 8.577 0.988 8.577 0.149 -81.244
1173.125 0.145 -81.5 0.989 8.316 0.989 8.316 0.145 -81.5
1198.083 0.14 -81.747 0.99 8.063 0.99 8.063 0.14 -81.747
1223.042 0.136 -81.986 0.99 7.818 0.99 7.818 0.136 -81.986
1248 0.132 -82.216 0.991 7.582 0.991 7.582 0.132 -82.216
1272.958 0.128 -82.439 0.991 7.352 0.991 7.352 0.128 -82.439
1297.917 0.124 -82.655 0.992 7.13 0.992 7.13 0.124 -82.655
1322.875 0.12 -82.863 0.992 6.915 0.992 6.915 0.12 -82.863
1347.833 0.117 -83.066 0.993 6.705 0.993 6.705 0.117 -83.066
1372.792 0.113 -83.262 0.993 6.502 0.993 6.502 0.113 -83.262
1397.75 0.11 -83.452 0.993 6.304 0.993 6.304 0.11 -83.452
1422.708 0.106 -83.637 0.994 6.112 0.994 6.112 0.106 -83.637
1447.667 0.103 -83.816 0.994 5.924 0.994 5.924 0.103 -83.816
1472.625 0.1 -83.991 0.995 5.741 0.995 5.741 0.1 -83.991
1497.583 0.097 -84.16 0.995 5.563 0.995 5.563 0.097 -84.16
1522.542 0.094 -84.325 0.995 5.39 0.995 5.39 0.094 -84.325
1547.5 0.091 -84.485 0.995 5.22 0.995 5.22 0.091 -84.485
1572.458 0.088 -84.641 0.996 5.055 0.996 5.055 0.088 -84.641
1597.417 0.085 -84.792 0.996 4.893 0.996 4.893 0.085 -84.792
1622.375 0.083 -84.94 0.996 4.735 0.996 4.735 0.083 -84.94
1647.333 0.08 -85.084 0.996 4.58 0.996 4.58 0.08 -85.084
1672.292 0.077 -85.224 0.997 4.429 0.997 4.429 0.077 -85.224
1697.25 0.075 -85.36 0.997 4.281 0.997 4.281 0.075 -85.36
1722.208 0.072 -85.492 0.997 4.135 0.997 4.135 0.072 -85.492
1747.167 0.07 -85.621 0.997 3.993 0.997 3.993 0.07 -85.621
1772.125 0.067 -85.747 0.997 3.853 0.997 3.853 0.067 -85.747
1797.083 0.065 -85.869 0.997 3.717 0.997 3.717 0.065 -85.869
1822.042 0.062 -85.988 0.998 3.582 0.998 3.582 0.062 -85.988
1847 0.06 -86.103 0.998 3.45 0.998 3.45 0.06 -86.103
1871.958 0.058 -86.215 0.998 3.321 0.998 3.321 0.058 -86.215
1896.917 0.056 -86.324 0.998 3.194 0.998 3.194 0.056 -86.324
1921.875 0.054 -86.429 0.998 3.069 0.998 3.069 0.054 -86.429
1946.833 0.051 -86.531 0.998 2.946 0.998 2.946 0.051 -86.531
1971.792 0.049 -86.63 0.998 2.825 0.998 2.825 0.049 -86.63
1996.75 0.047 -86.725 0.998 2.706 0.998 2.706 0.047 -86.725
2021.708 0.045 -86.816 0.999 2.589 0.999 2.589 0.045 -86.816
2046.667 0.043 -86.903 0.999 2.473 0.999 2.473 0.043 -86.903
2071.625 0.041 -86.987 0.999 2.36 0.999 2.36 0.041 -86.987
2096.583 0.039 -87.066 0.999 2.248 0.999 2.248 0.039 -87.066
2121.542 0.037 -87.141 0.999 2.138 0.999 2.138 0.037 -87.141
2146.5 0.035 -87.211 0.999 2.029 0.999 2.029 0.035 -87.211
2171.458 0.034 -87.276 0.999 1.922 0.999 1.922 0.034 -87.276
2196.417 0.032 -87.335 0.999 1.816 0.999 1.816 0.032 -87.335
2221.375 0.03 -87.387 0.999 1.712 0.999 1.712 0.03 -87.387
2246.333 0.028 -87.433 0.999 1.609 0.999 1.609 0.028 -87.433
2271.292 0.026 -87.47 0.999 1.507 0.999 1.507 0.026 -87.47
2296.25 0.025 -87.497 0.999 1.407 0.999 1.407 0.025 -87.497
2321.208 0.023 -87.513 0.999 1.308 0.999 1.308 0.023 -87.513
2346.167 0.021 -87.515 0.999 1.21 0.999 1.21 0.021 -87.515
2371.125 0.019 -87.501 0.999 1.113 0.999 1.113 0.019 -87.501
2396.083 0.018 -87.467 0.999 1.018 0.999 1.018 0.018 -87.467
2421.042 0.016 -87.406 0.999 0.923 0.999 0.923 0.016 -87.406
2446 0.014 -87.312 0.999 0.83 0.999 0.83 0.014 -87.312
2470.958 0.013 -87.171 0.999 0.737 0.999 0.737 0.013 -87.171
2495.917 0.011 -86.967 0.999 0.646 0.999 0.646 0.011 -86.967
2520.875 9.707e-3 -86.67 0.999 0.556 0.999 0.556 9.707e-3 -86.67
2545.833 8.147e-3 -86.227 0.999 0.466 0.999 0.466 8.147e-3 -86.227
2570.792 6.605e-3 -85.542 1 0.377 1 0.377 6.605e-3 -85.542
2595.75 5.079e-3 -84.402 1 0.29 1 0.29 5.079e-3 -84.402
2620.708 3.573e-3 -82.24 1 0.203 1 0.203 3.573e-3 -82.24
2645.667 2.095e-3 -76.921 1 0.117 1 0.117 2.095e-3 -76.921
2670.625 727.6e-6 -49.737 1 0.032 1 0.032 727.6e-6 -49.737
2695.583 1.03e-3 62.812 1 -0.053 1 -0.053 1.03e-3 62.812
2720.542 2.422e-3 78.675 1 -0.136 1 -0.136 2.422e-3 78.675
2745.5 3.85e-3 82.771 1 -0.219 1 -0.219 3.85e-3 82.771
2770.458 5.276e-3 84.588 1 -0.301 1 -0.301 5.276e-3 84.588
2795.417 6.692e-3 85.591 1 -0.382 1 -0.382 6.692e-3 85.591
2820.375 8.097e-3 86.21 0.999 -0.463 0.999 -0.463 8.097e-3 86.21
2845.333 9.492e-3 86.619 0.999 -0.543 0.999 -0.543 9.492e-3 86.619
2870.292 0.011 86.901 0.999 -0.623 0.999 -0.623 0.011 86.901
2895.25 0.012 87.1 0.999 -0.701 0.999 -0.701 0.012 87.1
2920.208 0.014 87.242 0.999 -0.779 0.999 -0.779 0.014 87.242
2945.167 0.015 87.343 0.999 -0.857 0.999 -0.857 0.015 87.343
2970.125 0.016 87.415 0.999 -0.934 0.999 -0.934 0.016 87.415
2995.083 0.018 87.463 0.999 -1.01 0.999 -1.01 0.018 87.463
3020.042 0.019 87.494 0.999 -1.086 0.999 -1.086 0.019 87.494
3045 0.02 87.511 0.999 -1.161 0.999 -1.161 0.02 87.511
3069.958 0.022 87.516 0.999 -1.236 0.999 -1.236 0.022 87.516
3094.917 0.023 87.513 0.999 -1.31 0.999 -1.31 0.023 87.513
3119.875 0.024 87.502 0.999 -1.383 0.999 -1.383 0.024 87.502
3144.833 0.025 87.485 0.999 -1.456 0.999 -1.456 0.025 87.485
3169.792 0.027 87.462 0.999 -1.529 0.999 -1.529 0.027 87.462
3194.75 0.028 87.436 0.999 -1.601 0.999 -1.601 0.028 87.436
3219.708 0.029 87.405 0.999 -1.673 0.999 -1.673 0.029 87.405
3244.667 0.03 87.372 0.999 -1.744 0.999 -1.744 0.03 87.372
3269.625 0.032 87.335 0.999 -1.815 0.999 -1.815 0.032 87.335
3294.583 0.033 87.297 0.999 -1.885 0.999 -1.885 0.033 87.297
3319.542 0.034 87.256 0.999 -1.955 0.999 -1.955 0.034 87.256
3344.5 0.035 87.214 0.999 -2.024 0.999 -2.024 0.035 87.214
3369.458 0.037 87.17 0.999 -2.093 0.999 -2.093 0.037 87.17
3394.417 0.038 87.125 0.999 -2.162 0.999 -2.162 0.038 87.125
3419.375 0.039 87.078 0.999 -2.23 0.999 -2.23 0.039 87.078
3444.333 0.04 87.031 0.999 -2.298 0.999 -2.298 0.04 87.031
3469.292 0.041 86.983 0.999 -2.366 0.999 -2.366 0.041 86.983
3494.25 0.042 86.933 0.999 -2.433 0.999 -2.433 0.042 86.933
3519.208 0.044 86.884 0.999 -2.5 0.999 -2.5 0.044 86.884
3544.167 0.045 86.833 0.999 -2.566 0.999 -2.566 0.045 86.833
3569.125 0.046 86.782 0.998 -2.632 0.998 -2.632 0.046 86.782
3594.083 0.047 86.731 0.998 -2.698 0.998 -2.698 0.047 86.731
3619.042 0.048 86.679 0.998 -2.763 0.998 -2.763 0.048 86.679
3644 0.049 86.627 0.998 -2.828 0.998 -2.828 0.049 86.627
3668.958 0.05 86.574 0.998 -2.893 0.998 -2.893 0.05 86.574
3693.917 0.052 86.521 0.998 -2.958 0.998 -2.958 0.052 86.521
3718.875 0.053 86.468 0.998 -3.022 0.998 -3.022 0.053 86.468
3743.833 0.054 86.415 0.998 -3.086 0.998 -3.086 0.054 86.415
3768.792 0.055 86.362 0.998 -3.149 0.998 -3.149 0.055 86.362
3793.75 0.056 86.308 0.998 -3.212 0.998 -3.212 0.056 86.308
3818.708 0.057 86.254 0.998 -3.275 0.998 -3.275 0.057 86.254
3843.667 0.058 86.2 0.998 -3.338 0.998 -3.338 0.058 86.2
3868.625 0.059 86.146 0.998 -3.4 0.998 -3.4 0.059 86.146
3893.583 0.06 86.092 0.998 -3.463 0.998 -3.463 0.06 86.092
3918.542 0.061 86.038 0.998 -3.524 0.998 -3.524 0.061 86.038
3943.5 0.063 85.984 0.998 -3.586 0.998 -3.586 0.063 85.984
3968.458 0.064 85.93 0.998 -3.647 0.998 -3.647 0.064 85.93
3993.417 0.065 85.876 0.997 -3.709 0.997 -3.709 0.065 85.876
4018.375 0.066 85.822 0.997 -3.769 0.997 -3.769 0.066 85.822
4043.333 0.067 85.768 0.997 -3.83 0.997 -3.83 0.067 85.768
4068.292 0.068 85.714 0.997 -3.89 0.997 -3.89 0.068 85.714
4093.25 0.069 85.66 0.997 -3.951 0.997 -3.951 0.069 85.66
4118.208 0.07 85.605 0.997 -4.01 0.997 -4.01 0.07 85.605
4143.167 0.071 85.551 0.997 -4.07 0.997 -4.07 0.071 85.551
4168.125 0.072 85.497 0.997 -4.13 0.997 -4.13 0.072 85.497
4193.083 0.073 85.443 0.997 -4.189 0.997 -4.189 0.073 85.443
4218.042 0.074 85.389 0.997 -4.248 0.997 -4.248 0.074 85.389
4243 0.075 85.336 0.997 -4.307 0.997 -4.307 0.075 85.336
4267.958 0.076 85.282 0.997 -4.366 0.997 -4.366 0.076 85.282
4292.917 0.077 85.228 0.997 -4.424 0.997 -4.424 0.077 85.228
4317.875 0.078 85.174 0.996 -4.482 0.996 -4.482 0.078 85.174
4342.833 0.079 85.121 0.996 -4.54 0.996 -4.54 0.079 85.121
4367.792 0.08 85.067 0.996 -4.598 0.996 -4.598 0.08 85.067
4392.75 0.081 85.014 0.996 -4.656 0.996 -4.656 0.081 85.014
4417.708 0.082 84.96 0.996 -4.713 0.996 -4.713 0.082 84.96
4442.667 0.083 84.907 0.996 -4.771 0.996 -4.771 0.083 84.907
4467.625 0.084 84.854 0.996 -4.828 0.996 -4.828 0.084 84.854
4492.583 0.085 84.8 0.996 -4.885 0.996 -4.885 0.085 84.8
4517.542 0.086 84.747 0.996 -4.941 0.996 -4.941 0.086 84.747
4542.5 0.087 84.694 0.996 -4.998 0.996 -4.998 0.087 84.694
4567.458 0.088 84.641 0.996 -5.054 0.996 -5.054 0.088 84.641
4592.417 0.089 84.588 0.996 -5.111 0.996 -5.111 0.089 84.588
4617.375 0.09 84.536 0.995 -5.167 0.995 -5.167 0.09 84.536
4642.333 0.091 84.483 0.995 -5.223 0.995 -5.223 0.091 84.483
4667.292 0.092 84.43 0.995 -5.278 0.995 -5.278 0.092 84.43
4692.25 0.093 84.378 0.995 -5.334 0.995 -5.334 0.093 84.378
4717.208 0.094 84.325 0.995 -5.389 0.995 -5.389 0.094 84.325
4742.167 0.095 84.273 0.995 -5.445 0.995 -5.445 0.095 84.273
4767.125 0.096 84.221 0.995 -5.5 0.995 -5.5 0.096 84.221
4792.083 0.097 84.168 0.995 -5.555 0.995 -5.555 0.097 84.168
4817.042 0.098 84.116 0.995 -5.61 0.995 -5.61 0.098 84.116
4842 0.099 84.064 0.995 -5.664 0.995 -5.664 0.099 84.064
4866.958 0.1 84.012 0.995 -5.719 0.995 -5.719 0.1 84.012
4891.917 0.101 83.96 0.994 -5.773 0.994 -5.773 0.101 83.96
4916.875 0.102 83.909 0.994 -5.828 0.994 -5.828 0.102 83.909
4941.833 0.102 83.857 0.994 -5.882 0.994 -5.882 0.102 83.857
4966.792 0.103 83.805 0.994 -5.936 0.994 -5.936 0.103 83.805
4991.75 0.104 83.754 0.994 -5.99 0.994 -5.99 0.104 83.754
5016.708 0.105 83.702 0.994 -6.043 0.994 -6.043 0.105 83.702
5041.667 0.106 83.651 0.994 -6.097 0.994 -6.097 0.106 83.651
5066.625 0.107 83.6 0.994 -6.15 0.994 -6.15 0.107 83.6
5091.583 0.108 83.548 0.994 -6.204 0.994 -6.204 0.108 83.548
5116.542 0.109 83.497 0.994 -6.257 0.994 -6.257 0.109 83.497
5141.5 0.11 83.446 0.993 -6.31 0.993 -6.31 0.11 83.446
5166.458 0.111 83.395 0.993 -6.363 0.993 -6.363 0.111 83.395
5191.417 0.112 83.345 0.993 -6.416 0.993 -6.416 0.112 83.345
5216.375 0.113 83.294 0.993 -6.469 0.993 -6.469 0.113 83.294
5241.333 0.114 83.243 0.993 -6.521 0.993 -6.521 0.114 83.243
5266.292 0.114 83.192 0.993 -6.574 0.993 -6.574 0.114 83.192
5291.25 0.115 83.142 0.993 -6.626 0.993 -6.626 0.115 83.142
5316.208 0.116 83.091 0.993 -6.679 0.993 -6.679 0.116 83.091
5341.167 0.117 83.041 0.993 -6.731 0.993 -6.731 0.117 83.041
5366.125 0.118 82.991 0.993 -6.783 0.993 -6.783 0.118 82.991
5391.083 0.119 82.94 0.992 -6.835 0.992 -6.835 0.119 82.94
5416.042 0.12 82.89 0.992 -6.887 0.992 -6.887 0.12 82.89
5441 0.121 82.84 0.992 -6.939 0.992 -6.939 0.121 82.84
5465.958 0.122 82.79 0.992 -6.99 0.992 -6.99 0.122 82.79
5490.917 0.123 82.74 0.992 -7.042 0.992 -7.042 0.123 82.74
5515.875 0.123 82.69 0.992 -7.093 0.992 -7.093 0.123 82.69
5540.833 0.124 82.641 0.992 -7.145 0.992 -7.145 0.124 82.641
5565.792 0.125 82.591 0.992 -7.196 0.992 -7.196 0.125 82.591
5590.75 0.126 82.541 0.992 -7.247 0.992 -7.247 0.126 82.541
5615.708 0.127 82.492 0.991 -7.298 0.991 -7.298 0.127 82.492
5640.667 0.128 82.442 0.991 -7.349 0.991 -7.349 0.128 82.442
5665.625 0.129 82.393 0.991 -7.4 0.991 -7.4 0.129 82.393
5690.583 0.13 82.343 0.991 -7.451 0.991 -7.451 0.13 82.343
5715.542 0.131 82.294 0.991 -7.501 0.991 -7.501 0.131 82.294
5740.5 0.131 82.245 0.991 -7.552 0.991 -7.552 0.131 82.245
5765.458 0.132 82.196 0.991 -7.602 0.991 -7.602 0.132 82.196
5790.417 0.133 82.147 0.991 -7.653 0.991 -7.653 0.133 82.147
5815.375 0.134 82.098 0.991 -7.703 0.991 -7.703 0.134 82.098
5840.333 0.135 82.049 0.99 -7.753 0.99 -7.753 0.135 82.049
5865.292 0.136 82 0.99 -7.804 0.99 -7.804 0.136 82
5890.25 0.137 81.951 0.99 -7.854 0.99 -7.854 0.137 81.951
5915.208 0.138 81.902 0.99 -7.904 0.99 -7.904 0.138 81.902
5940.167 0.138 81.854 0.99 -7.953 0.99 -7.953 0.138 81.854
5965.125 0.139 81.805 0.99 -8.003 0.99 -8.003 0.139 81.805
5990.083 0.14 81.757 0.99 -8.053 0.99 -8.053 0.14 81.757
6015.042 0.141 81.708 0.99 -8.103 0.99 -8.103 0.141 81.708
6040 0.142 81.66 0.989 -8.152 0.989 -8.152 0.142 81.66
6064.958 0.143 81.611 0.989 -8.202 0.989 -8.202 0.143 81.611
6089.917 0.144 81.563 0.989 -8.251 0.989 -8.251 0.144 81.563
6114.875 0.144 81.515 0.989 -8.3 0.989 -8.3 0.144 81.515
6139.833 0.145 81.467 0.989 -8.35 0.989 -8.35 0.145 81.467
6164.792 0.146 81.419 0.989 -8.399 0.989 -8.399 0.146 81.419
6189.75 0.147 81.371 0.989 -8.448 0.989 -8.448 0.147 81.371
6214.708 0.148 81.323 0.989 -8.497 0.989 -8.497 0.148 81.323
6239.667 0.149 81.275 0.988 -8.546 0.988 -8.546 0.149 81.275
6264.625 0.149 81.227 0.988 -8.595 0.988 -8.595 0.149 81.227
6289.583 0.15 81.179 0.988 -8.644 0.988 -8.644 0.15 81.179
6314.542 0.151 81.131 0.988 -8.692 0.988 -8.692 0.151 81.131
6339.5 0.152 81.084 0.988 -8.741 0.988 -8.741 0.152 81.084
6364.458 0.153 81.036 0.988 -8.79 0.988 -8.79 0.153 81.036
6389.417 0.154 80.989 0.988 -8.838 0.988 -8.838 0.154 80.989
6414.375 0.154 80.941 0.988 -8.887 0.988 -8.887 0.154 80.941
6439.333 0.155 80.894 0.987 -8.935 0.987 -8.935 0.155 80.894
6464.292 0.156 80.846 0.987 -8.983 0.987 -8.983 0.156 80.846
6489.25 0.157 80.799 0.987 -9.032 0.987 -9.032 0.157 80.799
6514.208 0.158 80.752 0.987 -9.08 0.987 -9.08 0.158 80.752
6539.167 0.159 80.705 0.987 -9.128 0.987 -9.128 0.159 80.705
6564.125 0.159 80.657 0.987 -9.176 0.987 -9.176 0.159 80.657
6589.083 0.16 80.61 0.987 -9.224 0.987 -9.224 0.16 80.61
6614.042 0.161 80.563 0.986 -9.272 0.986 -9.272 0.161 80.563
6639 0.162 80.516 0.986 -9.32 0.986 -9.32 0.162 80.516
6663.958 0.163 80.469 0.986 -9.367 0.986 -9.367 0.163 80.469
6688.917 0.164 80.422 0.986 -9.415 0.986 -9.415 0.164 80.422
6713.875 0.164 80.376 0.986 -9.463 0.986 -9.463 0.164 80.376
6738.833 0.165 80.329 0.986 -9.51 0.986 -9.51 0.165 80.329
6763.792 0.166 80.282 0.986 -9.558 0.986 -9.558 0.166 80.282
6788.75 0.167 80.235 0.986 -9.605 0.986 -9.605 0.167 80.235
6813.708 0.168 80.189 0.985 -9.653 0.985 -9.653 0.168 80.189
6838.667 0.168 80.142 0.985 -9.7 0.985 -9.7 0.168 80.142
6863.625 0.169 80.096 0.985 -9.748 0.985 -9.748 0.169 80.096
6888.583 0.17 80.049 0.985 -9.795 0.985 -9.795 0.17 80.049
6913.542 0.171 80.003 0.985 -9.842 0.985 -9.842 0.171 80.003
6938.5 0.172 79.956 0.985 -9.889 0.985 -9.889 0.172 79.956
6963.458 0.173 79.91 0.985 -9.936 0.985 -9.936 0.173 79.91
6988.417 0.173 79.864 0.984 -9.983 0.984 -9.983 0.173 79.864
7013.375 0.174 79.818 0.984 -10.03 0.984 -10.03 0.174 79.818
7038.333 0.175 79.771 0.984 -10.077 0.984 -10.077 0.175 79.771
7063.292 0.176 79.725 0.984 -10.124 0.984 -10.124 0.176 79.725
7088.25 0.177 79.679 0.984 -10.171 0.984 -10.171 0.177 79.679
7113.208 0.177 79.633 0.984 -10.217 0.984 -10.217 0.177 79.633
7138.167 0.178 79.587 0.984 -10.264 0.984 -10.264 0.178 79.587
7163.125 0.179 79.541 0.983 -10.311 0.983 -10.311 0.179 79.541
7188.083 0.18 79.495 0.983 -10.357 0.983 -10.357 0.18 79.495
7213.042 0.181 79.449 0.983 -10.404 0.983 -10.404 0.181 79.449
7238 0.181 79.404 0.983 -10.45 0.983 -10.45 0.181 79.404
7262.958 0.182 79.358 0.983 -10.497 0.983 -10.497 0.182 79.358
7287.917 0.183 79.312 0.983 -10.543 0.983 -10.543 0.183 79.312
7312.875 0.184 79.267 0.983 -10.589 0.983 -10.589 0.184 79.267
7337.833 0.185 79.221 0.982 -10.636 0.982 -10.636 0.185 79.221
7362.792 0.185 79.175 0.982 -10.682 0.982 -10.682 0.185 79.175
7387.75 0.186 79.13 0.982 -10.728 0.982 -10.728 0.186 79.13
7412.708 0.187 79.084 0.982 -10.774 0.982 -10.774 0.187 79.084
7437.667 0.188 79.039 0.982 -10.82 0.982 -10.82 0.188 79.039
7462.625 0.189 78.994 0.982 -10.866 0.982 -10.866 0.189 78.994
7487.583 0.189 78.948 0.981 -10.912 0.981 -10.912 0.189 78.948
7512.542 0.19 78.903 0.981 -10.958 0.981 -10.958 0.19 78.903
7537.5 0.191 78.858 0.981 -11.004 0.981 -11.004 0.191 78.858
7562.458 0.192 78.812 0.981 -11.05 0.981 -11.05 0.192 78.812
7587.417 0.192 78.767 0.981 -11.095 0.981 -11.095 0.192 78.767
7612.375 0.193 78.722 0.981 -11.141 0.981 -11.141 0.193 78.722
7637.333 0.194 78.677 0.981 -11.187 0.981 -11.187 0.194 78.677
7662.292 0.195 78.632 0.98 -11.232 0.98 -11.232 0.195 78.632
7687.25 0.196 78.587 0.98 -11.278 0.98 -11.278 0.196 78.587
7712.208 0.196 78.542 0.98 -11.324 0.98 -11.324 0.196 78.542
7737.167 0.197 78.497 0.98 -11.369 0.98 -11.369 0.197 78.497
7762.125 0.198 78.452 0.98 -11.415 0.98 -11.415 0.198 78.452
7787.083 0.199 78.407 0.98 -11.46 0.98 -11.46 0.199 78.407
7812.042 0.199 78.362 0.979 -11.505 0.979 -11.505 0.199 78.362
7837 0.2 78.318 0.979 -11.551 0.979 -11.551 0.2 78.318
7861.958 0.201 78.273 0.979 -11.596 0.979 -11.596 0.201 78.273
7886.917 0.202 78.228 0.979 -11.641 0.979 -11.641 0.202 78.228
7911.875 0.203 78.184 0.979 -11.686 0.979 -11.686 0.203 78.184
7936.833 0.203 78.139 0.979 -11.731 0.979 -11.731 0.203 78.139
7961.792 0.204 78.094 0.978 -11.776 0.978 -11.776 0.204 78.094
7986.75 0.205 78.05 0.978 -11.821 0.978 -11.821 0.205 78.05
8011.708 0.206 78.005 0.978 -11.866 0.978 -11.866 0.206 78.005
8036.667 0.206 77.961 0.978 -11.911 0.978 -11.911 0.206 77.961
8061.625 0.207 77.917 0.978 -11.956 0.978 -11.956 0.207 77.917
8086.583 0.208 77.872 0.978 -12.001 0.978 -12.001 0.208 77.872
8111.542 0.209 77.828 0.978 -12.046 0.978 -12.046 0.209 77.828
8136.5 0.209 77.784 0.977 -12.091 0.977 -12.091 0.209 77.784
8161.458 0.21 77.739 0.977 -12.135 0.977 -12.135 0.21 77.739
8186.417 0.211 77.695 0.977 -12.18 0.977 -12.18 0.211 77.695
8211.375 0.212 77.651 0.977 -12.225 0.977 -12.225 0.212 77.651
8236.333 0.213 77.607 0.977 -12.269 0.977 -12.269 0.213 77.607
8261.292 0.213 77.563 0.977 -12.314 0.977 -12.314 0.213 77.563
8286.25 0.214 77.519 0.976 -12.359 0.976 -12.359 0.214 77.519
