# MHZ S MA R 50

50 0.999 -2.159 0.038 87.837 0.038 87.837 0.999 -2.159
74.958 0.998 -3.235 0.056 86.758 0.056 86.758 0.998 -3.235
99.917 0.997 -4.309 0.075 85.682 0.075 85.682 0.997 -4.309
124.875 0.996 -5.38 0.094 84.609 0.094 84.609 0.996 -5.38
149.833 0.994 -6.448 0.112 83.539 0.112 83.539 0.994 -6.448
174.792 0.991 -7.512 0.131 82.473 0.131 82.473 0.991 -7.512
199.75 0.989 -8.57 0.149 81.412 0.149 81.412 0.989 -8.57
224.708 0.986 -9.624 0.167 80.356 0.167 80.356 0.986 -9.624
249.667 0.983 -10.672 0.185 79.307 0.185 79.307 0.983 -10.672
274.625 0.979 -11.713 0.203 78.263 0.203 78.263 0.979 -11.713
299.583 0.975 -12.747 0.221 77.227 0.221 77.227 0.975 -12.747
324.542 0.971 -13.773 0.238 76.198 0.238 76.198 0.971 -13.773
349.5 0.967 -14.792 0.255 75.178 0.255 75.178 0.967 -14.792
374.458 0.962 -15.802 0.272 74.166 0.272 74.166 0.962 -15.802
399.417 0.957 -16.802 0.289 73.163 0.289 73.163 0.957 -16.802
424.375 0.952 -17.794 0.306 72.169 0.306 72.169 0.952 -17.794
449.333 0.947 -18.775 0.322 71.186 0.322 71.186 0.947 -18.775
474.292 0.941 -19.746 0.338 70.212 0.338 70.212 0.941 -19.746
499.25 0.935 -20.707 0.354 69.25 0.354 69.25 0.935 -20.707
524.208 0.929 -21.657 0.369 68.297 0.369 68.297 0.929 -21.657
549.167 0.923 -22.596 0.384 67.357 0.384 67.357 0.923 -22.596
574.125 0.917 -23.523 0.399 66.427 0.399 66.427 0.917 -23.523
599.083 0.91 -24.439 0.414 65.509 0.414 65.509 0.91 -24.439
624.042 0.903 -25.343 0.428 64.603 0.428 64.603 0.903 -25.343
649 0.897 -26.235 0.442 63.708 0.442 63.708 0.897 -26.235
673.958 0.89 -27.115 0.456 62.826 0.456 62.826 0.89 -27.115
698.917 0.883 -27.983 0.469 61.956 0.469 61.956 0.883 -27.983
723.875 0.875 -28.839 0.482 61.098 0.482 61.098 0.875 -28.839
748.833 0.868 -29.682 0.495 60.252 0.495 60.252 0.868 -29.682
773.792 0.861 -30.513 0.508 59.419 0.508 59.419 0.861 -30.513
798.75 0.854 -31.332 0.52 58.598 0.52 58.598 0.854 -31.332
823.708 0.846 -32.138 0.532 57.79 0.532 57.79 0.846 -32.138
848.667 0.839 -32.932 0.544 56.994 0.544 56.994 0.839 -32.932
873.625 0.831 -33.713 0.555 56.21 0.555 56.21 0.831 -33.713
898.583 0.824 -34.483 0.566 55.439 0.566 55.439 0.824 -34.483
923.542 0.816 -35.239 0.577 54.679 0.577 54.679 0.816 -35.239
948.5 0.808 -35.984 0.588 53.932 0.588 53.932 0.808 -35.984
973.458 0.801 -36.717 0.598 53.197 0.598 53.197 0.801 -36.717
998.417 0.793 -37.438 0.608 52.474 0.608 52.474 0.793 -37.438
1023.375 0.785 -38.147 0.618 51.763 0.618 51.763 0.785 -38.147
1048.333 0.778 -38.844 0.627 51.064 0.627 51.064 0.778 -38.844
1073.292 0.77 -39.53 0.636 50.376 0.636 50.376 0.77 -39.53
1098.25 0.763 -40.204 0.646 49.699 0.646 49.699 0.763 -40.204
1123.208 0.755 -40.867 0.654 49.034 0.654 49.034 0.755 -40.867
1148.167 0.748 -41.518 0.663 48.38 0.663 48.38 0.748 -41.518
1173.125 0.74 -42.159 0.671 47.737 0.671 47.737 0.74 -42.159
1198.083 0.733 -42.788 0.679 47.105 0.679 47.105 0.733 -42.788
1223.042 0.725 -43.407 0.687 46.484 0.687 46.484 0.725 -43.407
1248 0.718 -44.016 0.695 45.873 0.695 45.873 0.718 -44.016
1272.958 0.71 -44.614 0.702 45.273 0.702 45.273 0.71 -44.614
1297.917 0.703 -45.202 0.71 44.682 0.71 44.682 0.703 -45.202
1322.875 0.696 -45.78 0.717 44.102 0.717 44.102 0.696 -45.78
1347.833 0.689 -46.348 0.724 43.532 0.724 43.532 0.689 -46.348
1372.792 0.682 -46.906 0.73 42.971 0.73 42.971 0.682 -46.906
1397.75 0.675 -47.455 0.737 42.42 0.737 42.42 0.675 -47.455
1422.708 0.668 -47.994 0.743 41.878 0.743 41.878 0.668 -47.994
1447.667 0.661 -48.525 0.749 41.345 0.749 41.345 0.661 -48.525
1472.625 0.654 -49.046 0.755 40.822 0.755 40.822 0.654 -49.046
1497.583 0.647 -49.558 0.761 40.307 0.761 40.307 0.647 -49.558
1522.542 0.64 -50.062 0.767 39.8 0.767 39.8 0.64 -50.062
1547.5 0.633 -50.558 0.772 39.303 0.772 39.303 0.633 -50.558
1572.458 0.627 -51.045 0.778 38.813 0.778 38.813 0.627 -51.045
1597.417 0.62 -51.524 0.783 38.332 0.783 38.332 0.62 -51.524
1622.375 0.614 -51.995 0.788 37.858 0.788 37.858 0.614 -51.995
1647.333 0.607 -52.458 0.793 37.393 0.793 37.393 0.607 -52.458
1672.292 0.601 -52.913 0.798 36.935 0.798 36.935 0.601 -52.913
1697.25 0.595 -53.361 0.802 36.484 0.802 36.484 0.595 -53.361
1722.208 0.588 -53.802 0.807 36.041 0.807 36.041 0.588 -53.802
1747.167 0.582 -54.235 0.811 35.605 0.811 35.605 0.582 -54.235
1772.125 0.576 -54.661 0.816 35.176 0.816 35.176 0.576 -54.661
1797.083 0.57 -55.081 0.82 34.755 0.82 34.755 0.57 -55.081
1822.042 0.564 -55.493 0.824 34.339 0.824 34.339 0.564 -55.493
1847 0.558 -55.899 0.828 33.931 0.828 33.931 0.558 -55.899
1871.958 0.552 -56.299 0.832 33.529 0.832 33.529 0.552 -56.299
1896.917 0.547 -56.692 0.836 33.133 0.836 33.133 0.547 -56.692
1921.875 0.541 -57.079 0.839 32.743 0.839 32.743 0.541 -57.079
1946.833 0.535 -57.46 0.843 32.359 0.843 32.359 0.535 -57.46
1971.792 0.53 -57.835 0.847 31.982 0.847 31.982 0.53 -57.835
1996.75 0.524 -58.204 0.85 31.61 0.85 31.61 0.524 -58.204
2021.708 0.519 -58.568 0.853 31.244 0.853 31.244 0.519 -58.568
2046.667 0.513 -58.925 0.857 30.883 0.857 30.883 0.513 -58.925
2071.625 0.508 -59.278 0.86 30.528 0.86 30.528 0.508 -59.278
2096.583 0.503 -59.625 0.863 30.178 0.863 30.178 0.503 -59.625
2121.542 0.497 -59.967 0.866 29.834 0.866 29.834 0.497 -59.967
2146.5 0.492 -60.304 0.869 29.494 0.869 29.494 0.492 -60.304
2171.458 0.487 -60.635 0.872 29.16 0.872 29.16 0.487 -60.635
2196.417 0.482 -60.962 0.874 28.83 0.874 28.83 0.482 -60.962
2221.375 0.477 -61.284 0.877 28.505 0.877 28.505 0.477 -61.284
2246.333 0.472 -61.601 0.88 28.185 0.88 28.185 0.472 -61.601
2271.292 0.467 -61.914 0.882 27.87 0.882 27.87 0.467 -61.914
2296.25 0.463 -62.222 0.885 27.558 0.885 27.558 0.463 -62.222
2321.208 0.458 -62.526 0.887 27.252 0.887 27.252 0.458 -62.526
2346.167 0.453 -62.826 0.89 26.949 0.89 26.949 0.453 -62.826
2371.125 0.449 -63.121 0.892 26.651 0.892 26.651 0.449 -63.121
2396.083 0.444 -63.412 0.894 26.357 0.894 26.357 0.444 -63.412
2421.042 0.439 -63.699 0.896 26.067 0.896 26.067 0.439 -63.699
2446 0.435 -63.982 0.899 25.781 0.899 25.781 0.435 -63.982
2470.958 0.431 -64.261 0.901 25.499 0.901 25.499 0.431 -64.261
2495.917 0.426 -64.536 0.903 25.221 0.903 25.221 0.426 -64.536
2520.875 0.422 -64.808 0.905 24.946 0.905 24.946 0.422 -64.808
2545.833 0.417 -65.076 0.907 24.675 0.907 24.675 0.417 -65.076
2570.792 0.413 -65.34 0.909 24.408 0.909 24.408 0.413 -65.34
2595.75 0.409 -65.601 0.911 24.144 0.911 24.144 0.409 -65.601
2620.708 0.405 -65.858 0.913 23.883 0.913 23.883 0.405 -65.858
2645.667 0.401 -66.112 0.914 23.626 0.914 23.626 0.401 -66.112
2670.625 0.397 -66.363 0.916 23.372 0.916 23.372 0.397 -66.363
2695.583 0.393 -66.611 0.918 23.121 0.918 23.121 0.393 -66.611
2720.542 0.389 -66.855 0.92 22.874 0.92 22.874 0.389 -66.855
2745.5 0.385 -67.096 0.921 22.63 0.921 22.63 0.385 -67.096
2770.458 0.381 -67.334 0.923 22.388 0.923 22.388 0.381 -67.334
2795.417 0.377 -67.569 0.924 22.15 0.924 22.15 0.377 -67.569
2820.375 0.373 -67.801 0.926 21.914 0.926 21.914 0.373 -67.801
2845.333 0.369 -68.031 0.927 21.682 0.927 21.682 0.369 -68.031
2870.292 0.366 -68.257 0.929 21.452 0.929 21.452 0.366 -68.257
2895.25 0.362 -68.481 0.93 21.225 0.93 21.225 0.362 -68.481
2920.208 0.358 -68.702 0.932 21 0.932 21 0.358 -68.702
2945.167 0.355 -68.92 0.933 20.778 0.933 20.778 0.355 -68.92
2970.125 0.351 -69.136 0.934 20.559 0.934 20.559 0.351 -69.136
2995.083 0.348 -69.349 0.936 20.343 0.936 20.343 0.348 -69.349
3020.042 0.344 -69.559 0.937 20.129 0.937 20.129 0.344 -69.559
3045 0.341 -69.767 0.938 19.917 0.938 19.917 0.341 -69.767
3069.958 0.337 -69.973 0.94 19.708 0.94 19.708 0.337 -69.973
3094.917 0.334 -70.176 0.941 19.501 0.941 19.501 0.334 -70.176
3119.875 0.33 -70.377 0.942 19.296 0.942 19.296 0.33 -70.377
3144.833 0.327 -70.576 0.943 19.094 0.943 19.094 0.327 -70.576
3169.792 0.324 -70.772 0.944 18.893 0.944 18.893 0.324 -70.772
3194.75 0.321 -70.967 0.945 18.695 0.945 18.695 0.321 -70.967
3219.708 0.317 -71.159 0.946 18.5 0.946 18.5 0.317 -71.159
3244.667 0.314 -71.348 0.947 18.306 0.947 18.306 0.314 -71.348
3269.625 0.311 -71.536 0.949 18.114 0.949 18.114 0.311 -71.536
3294.583 0.308 -71.722 0.95 17.925 0.95 17.925 0.308 -71.722
3319.542 0.305 -71.905 0.951 17.737 0.951 17.737 0.305 -71.905
3344.5 0.302 -72.087 0.952 17.551 0.952 17.551 0.302 -72.087
3369.458 0.299 -72.267 0.953 17.367 0.953 17.367 0.299 -72.267
3394.417 0.295 -72.445 0.953 17.186 0.953 17.186 0.295 -72.445
3419.375 0.292 -72.62 0.954 17.006 0.954 17.006 0.292 -72.62
3444.333 0.289 -72.794 0.955 16.827 0.955 16.827 0.289 -72.794
3469.292 0.287 -72.967 0.956 16.651 0.956 16.651 0.287 -72.967
3494.25 0.284 -73.137 0.957 16.476 0.957 16.476 0.284 -73.137
3519.208 0.281 -73.306 0.958 16.303 0.958 16.303 0.281 -73.306
3544.167 0.278 -73.472 0.959 16.132 0.959 16.132 0.278 -73.472
3569.125 0.275 -73.638 0.96 15.962 0.96 15.962 0.275 -73.638
3594.083 0.272 -73.801 0.96 15.795 0.96 15.795 0.272 -73.801
3619.042 0.269 -73.963 0.961 15.628 0.961 15.628 0.269 -73.963
3644 0.267 -74.123 0.962 15.463 0.962 15.463 0.267 -74.123
3668.958 0.264 -74.282 0.963 15.3 0.963 15.3 0.264 -74.282
3693.917 0.261 -74.439 0.963 15.139 0.963 15.139 0.261 -74.439
3718.875 0.258 -74.594 0.964 14.978 0.964 14.978 0.258 -74.594
3743.833 0.256 -74.748 0.965 14.82 0.965 14.82 0.256 -74.748
3768.792 0.253 -74.9 0.966 14.662 0.966 14.662 0.253 -74.9
3793.75 0.25 -75.051 0.966 14.507 0.966 14.507 0.25 -75.051
3818.708 0.248 -75.201 0.967 14.352 0.967 14.352 0.248 -75.201
3843.667 0.245 -75.349 0.968 14.199 0.968 14.199 0.245 -75.349
3868.625 0.243 -75.495 0.968 14.047 0.968 14.047 0.243 -75.495
3893.583 0.24 -75.641 0.969 13.897 0.969 13.897 0.24 -75.641
3918.542 0.238 -75.784 0.969 13.748 0.969 13.748 0.238 -75.784
3943.5 0.235 -75.927 0.97 13.6 0.97 13.6 0.235 -75.927
3968.458 0.233 -76.068 0.971 13.454 0.971 13.454 0.233 -76.068
3993.417 0.23 -76.208 0.971 13.309 0.971 13.309 0.23 -76.208
4018.375 0.228 -76.346 0.972 13.165 0.972 13.165 0.228 -76.346
4043.333 0.225 -76.483 0.972 13.022 0.972 13.022 0.225 -76.483
4068.292 0.223 -76.619 0.973 12.88 0.973 12.88 0.223 -76.619
4093.25 0.221 -76.754 0.973 12.74 0.973 12.74 0.221 -76.754
4118.208 0.218 -76.888 0.974 12.601 0.974 12.601 0.218 -76.888
4143.167 0.216 -77.02 0.974 12.463 0.974 12.463 0.216 -77.02
4168.125 0.213 -77.151 0.975 12.326 0.975 12.326 0.213 -77.151
4193.083 0.211 -77.281 0.976 12.19 0.976 12.19 0.211 -77.281
4218.042 0.209 -77.409 0.976 12.055 0.976 12.055 0.209 -77.409
4243 0.207 -77.537 0.976 11.921 0.976 11.921 0.207 -77.537
4267.958 0.204 -77.663 0.977 11.789 0.977 11.789 0.204 -77.663
4292.917 0.202 -77.789 0.977 11.657 0.977 11.657 0.202 -77.789
4317.875 0.2 -77.913 0.978 11.526 0.978 11.526 0.2 -77.913
4342.833 0.198 -78.036 0.978 11.397 0.978 11.397 0.198 -78.036
4367.792 0.195 -78.158 0.979 11.268 0.979 11.268 0.195 -78.158
4392.75 0.193 -78.279 0.979 11.141 0.979 11.141 0.193 -78.279
4417.708 0.191 -78.398 0.98 11.014 0.98 11.014 0.191 -78.398
4442.667 0.189 -78.517 0.98 10.888 0.98 10.888 0.189 -78.517
4467.625 0.187 -78.635 0.98 10.763 0.98 10.763 0.187 -78.635
4492.583 0.185 -78.752 0.981 10.64 0.981 10.64 0.185 -78.752
4517.542 0.183 -78.867 0.981 10.517 0.981 10.517 0.183 -78.867
4542.5 0.18 -78.982 0.982 10.394 0.982 10.394 0.18 -78.982
4567.458 0.178 -79.096 0.982 10.273 0.982 10.273 0.178 -79.096
4592.417 0.176 -79.208 0.982 10.153 0.982 10.153 0.176 -79.208
4617.375 0.174 -79.32 0.983 10.034 0.983 10.034 0.174 -79.32
4642.333 0.172 -79.431 0.983 9.915 0.983 9.915 0.172 -79.431
4667.292 0.17 -79.54 0.983 9.797 0.983 9.797 0.17 -79.54
4692.25 0.168 -79.649 0.984 9.68 0.984 9.68 0.168 -79.649
4717.208 0.166 -79.757 0.984 9.564 0.984 9.564 0.166 -79.757
4742.167 0.164 -79.864 0.984 9.449 0.984 9.449 0.164 -79.864
4767.125 0.162 -79.97 0.985 9.334 0.985 9.334 0.162 -79.97
4792.083 0.16 -80.075 0.985 9.22 0.985 9.22 0.16 -80.075
4817.042 0.158 -80.179 0.985 9.107 0.985 9.107 0.158 -80.179
4842 0.156 -80.283 0.986 8.995 0.986 8.995 0.156 -80.283
4866.958 0.154 -80.385 0.986 8.883 0.986 8.883 0.154 -80.385
4891.917 0.153 -80.486 0.986 8.773 0.986 8.773 0.153 -80.486
4916.875 0.151 -80.587 0.987 8.662 0.987 8.662 0.151 -80.587
4941.833 0.149 -80.686 0.987 8.553 0.987 8.553 0.149 -80.686
4966.792 0.147 -80.785 0.987 8.444 0.987 8.444 0.147 -80.785
4991.75 0.145 -80.883 0.987 8.336 0.987 8.336 0.145 -80.883
5016.708 0.143 -80.98 0.988 8.229 0.988 8.229 0.143 -80.98
5041.667 0.141 -81.076 0.988 8.123 0.988 8.123 0.141 -81.076
5066.625 0.139 -81.171 0.988 8.017 0.988 8.017 0.139 -81.171
5091.583 0.138 -81.266 0.989 7.911 0.989 7.911 0.138 -81.266
5116.542 0.136 -81.359 0.989 7.807 0.989 7.807 0.136 -81.359
5141.5 0.134 -81.452 0.989 7.703 0.989 7.703 0.134 -81.452
5166.458 0.132 -81.543 0.989 7.599 0.989 7.599 0.132 -81.543
5191.417 0.13 -81.634 0.989 7.496 0.989 7.496 0.13 -81.634
5216.375 0.129 -81.724 0.99 7.394 0.99 7.394 0.129 -81.724
5241.333 0.127 -81.813 0.99 7.293 0.99 7.293 0.127 -81.813
5266.292 0.125 -81.902 0.99 7.192 0.99 7.192 0.125 -81.902
5291.25 0.123 -81.989 0.99 7.092 0.99 7.092 0.123 -81.989
5316.208 0.122 -82.076 0.991 6.992 0.991 6.992 0.122 -82.076
5341.167 0.12 -82.161 0.991 6.893 0.991 6.893 0.12 -82.161
5366.125 0.118 -82.246 0.991 6.794 0.991 6.794 0.118 -82.246
5391.083 0.117 -82.33 0.991 6.696 0.991 6.696 0.117 -82.33
5416.042 0.115 -82.413 0.991 6.598 0.991 6.598 0.115 -82.413
5441 0.113 -82.495 0.992 6.502 0.992 6.502 0.113 -82.495
5465.958 0.112 -82.576 0.992 6.405 0.992 6.405 0.112 -82.576
5490.917 0.11 -82.656 0.992 6.309 0.992 6.309 0.11 -82.656
5515.875 0.108 -82.736 0.992 6.214 0.992 6.214 0.108 -82.736
5540.833 0.107 -82.814 0.992 6.119 0.992 6.119 0.107 -82.814
5565.792 0.105 -82.892 0.992 6.025 0.992 6.025 0.105 -82.892
5590.75 0.103 -82.968 0.993 5.931 0.993 5.931 0.103 -82.968
5615.708 0.102 -83.044 0.993 5.838 0.993 5.838 0.102 -83.044
5640.667 0.1 -83.118 0.993 5.745 0.993 5.745 0.1 -83.118
5665.625 0.099 -83.192 0.993 5.653 0.993 5.653 0.099 -83.192
5690.583 0.097 -83.264 0.993 5.561 0.993 5.561 0.097 -83.264
5715.542 0.095 -83.336 0.993 5.47 0.993 5.47 0.095 -83.336
5740.5 0.094 -83.407 0.994 5.379 0.994 5.379 0.094 -83.407
5765.458 0.092 -83.476 0.994 5.288 0.994 5.288 0.092 -83.476
5790.417 0.091 -83.545 0.994 5.198 0.994 5.198 0.091 -83.545
5815.375 0.089 -83.612 0.994 5.109 0.994 5.109 0.089 -83.612
5840.333 0.088 -83.678 0.994 5.02 0.994 5.02 0.088 -83.678
5865.292 0.086 -83.743 0.994 4.931 0.994 4.931 0.086 -83.743
5890.25 0.084 -83.807 0.994 4.843 0.994 4.843 0.084 -83.807
5915.208 0.083 -83.87 0.995 4.756 0.995 4.756 0.083 -83.87
5940.167 0.081 -83.931 0.995 4.668 0.995 4.668 0.081 -83.931
5965.125 0.08 -83.991 0.995 4.581 0.995 4.581 0.08 -83.991
5990.083 0.078 -84.05 0.995 4.495 0.995 4.495 0.078 -84.05
6015.042 0.077 -84.108 0.995 4.409 0.995 4.409 0.077 -84.108
6040 0.075 -84.164 0.995 4.323 0.995 4.323 0.075 -84.164
6064.958 0.074 -84.219 0.995 4.238 0.995 4.238 0.074 -84.219
6089.917 0.072 -84.272 0.995 4.153 0.995 4.153 0.072 -84.272
6114.875 0.071 -84.323 0.995 4.069 0.995 4.069 0.071 -84.323
6139.833 0.07 -84.373 0.996 3.985 0.996 3.985 0.07 -84.373
6164.792 0.068 -84.422 0.996 3.901 0.996 3.901 0.068 -84.422
6189.75 0.067 -84.468 0.996 3.818 0.996 3.818 0.067 -84.468
6214.708 0.065 -84.513 0.996 3.735 0.996 3.735 0.065 -84.513
6239.667 0.064 -84.556 0.996 3.653 0.996 3.653 0.064 -84.556
6264.625 0.062 -84.597 0.996 3.571 0.996 3.571 0.062 -84.597
6289.583 0.061 -84.636 0.996 3.489 0.996 3.489 0.061 -84.636
6314.542 0.059 -84.672 0.996 3.408 0.996 3.408 0.059 -84.672
6339.5 0.058 -84.706 0.996 3.327 0.996 3.327 0.058 -84.706
6364.458 0.057 -84.738 0.996 3.246 0.996 3.246 0.057 -84.738
6389.417 0.055 -84.767 0.996 3.166 0.996 3.166 0.055 -84.767
6414.375 0.054 -84.793 0.997 3.086 0.997 3.086 0.054 -84.793
6439.333 0.052 -84.817 0.997 3.006 0.997 3.006 0.052 -84.817
6464.292 0.051 -84.837 0.997 2.927 0.997 2.927 0.051 -84.837
6489.25 0.05 -84.854 0.997 2.848 0.997 2.848 0.05 -84.854
6514.208 0.048 -84.867 0.997 2.77 0.997 2.77 0.048 -84.867
6539.167 0.047 -84.877 0.997 2.691 0.997 2.691 0.047 -84.877
6564.125 0.046 -84.882 0.997 2.614 0.997 2.614 0.046 -84.882
6589.083 0.044 -84.883 0.997 2.536 0.997 2.536 0.044 -84.883
6614.042 0.043 -84.879 0.997 2.459 0.997 2.459 0.043 -84.879
6639 0.042 -84.87 0.997 2.382 0.997 2.382 0.042 -84.87
6663.958 0.04 -84.856 0.997 2.305 0.997 2.305 0.04 -84.856
6688.917 0.039 -84.835 0.997 2.229 0.997 2.229 0.039 -84.835
6713.875 0.038 -84.807 0.997 2.153 0.997 2.153 0.038 -84.807
6738.833 0.036 -84.772 0.997 2.077 0.997 2.077 0.036 -84.772
6763.792 0.035 -84.729 0.997 2.002 0.997 2.002 0.035 -84.729
6788.75 0.034 -84.677 0.997 1.926 0.997 1.926 0.034 -84.677
6813.708 0.032 -84.615 0.997 1.852 0.997 1.852 0.032 -84.615
6838.667 0.031 -84.541 0.998 1.777 0.998 1.777 0.031 -84.541
6863.625 0.03 -84.455 0.998 1.703 0.998 1.703 0.03 -84.455
6888.583 0.028 -84.355 0.998 1.629 0.998 1.629 0.028 -84.355
6913.542 0.027 -84.239 0.998 1.555 0.998 1.555 0.027 -84.239
6938.5 0.026 -84.105 0.998 1.482 0.998 1.482 0.026 -84.105
6963.458 0.025 -83.95 0.998 1.409 0.998 1.409 0.025 -83.95
6988.417 0.023 -83.771 0.998 1.336 0.998 1.336 0.023 -83.771
7013.375 0.022 -83.564 0.998 1.263 0.998 1.263 0.022 -83.564
7038.333 0.021 -83.324 0.998 1.191 0.998 1.191 0.021 -83.324
7063.292 0.02 -83.045 0.998 1.119 0.998 1.119 0.02 -83.045
7088.25 0.018 -82.72 0.998 1.047 0.998 1.047 0.018 -82.72
7113.208 0.017 -82.339 0.998 0.976 0.998 0.976 0.017 -82.339
7138.167 0.016 -81.889 0.998 0.905 0.998 0.905 0.016 -81.889
7163.125 0.015 -81.353 0.998 0.834 0.998 0.834 0.015 -81.353
7188.083 0.013 -80.71 0.998 0.763 0.998 0.763 0.013 -80.71
7213.042 0.012 -79.927 0.998 0.692 0.998 0.692 0.012 -79.927
7238 0.011 -78.96 0.998 0.622 0.998 0.622 0.011 -78.96
7262.958 9.84e-3 -77.743 0.998 0.552 0.998 0.552 9.84e-3 -77.743
7287.917 8.652e-3 -76.178 0.998 0.482 0.998 0.482 8.652e-3 -76.178
7312.875 7.477e-3 -74.102 0.998 0.413 0.998 0.413 7.477e-3 -74.102
7337.833 6.321e-3 -71.245 0.998 0.344 0.998 0.344 6.321e-3 -71.245
7362.792 5.192e-3 -67.111 0.998 0.275 0.998 0.275 5.192e-3 -67.111
7387.75 4.11e-3 -60.73 0.998 0.206 0.998 0.206 4.11e-3 -60.73
7412.708 3.118e-3 -50.057 0.998 0.137 0.998 0.137 3.118e-3 -50.057
7437.667 2.331e-3 -31.01 0.998 0.069 0.998 0.069 2.331e-3 -31.01
7462.625 1.996e-3 -0.428 0.998 855.7e-6 0.998 855.7e-6 1.996e-3 -0.428
7487.583 2.314e-3 30.294 0.998 -0.067 0.998 -0.067 2.314e-3 30.294
7512.542 3.083e-3 49.516 0.998 -0.135 0.998 -0.135 3.083e-3 49.516
7537.5 4.052e-3 60.283 0.998 -0.202 0.998 -0.202 4.052e-3 60.283
7562.458 5.106e-3 66.713 0.998 -0.269 0.998 -0.269 5.106e-3 66.713
7587.417 6.198e-3 70.875 0.998 -0.336 0.998 -0.336 6.198e-3 70.875
7612.375 7.311e-3 73.75 0.998 -0.403 0.998 -0.403 7.311e-3 73.75
7637.333 8.434e-3 75.839 0.998 -0.47 0.998 -0.47 8.434e-3 75.839
7662.292 9.563e-3 77.414 0.998 -0.536 0.998 -0.536 9.563e-3 77.414
7687.25 0.011 78.639 0.998 -0.602 0.998 -0.602 0.011 78.639
7712.208 0.012 79.614 0.998 -0.668 0.998 -0.668 0.012 79.614
7737.167 0.013 80.404 0.998 -0.734 0.998 -0.734 0.013 80.404
7762.125 0.014 81.055 0.998 -0.799 0.998 -0.799 0.014 81.055
7787.083 0.015 81.598 0.998 -0.864 0.998 -0.864 0.015 81.598
7812.042 0.016 82.055 0.998 -0.929 0.998 -0.929 0.016 82.055
7837 0.017 82.444 0.998 -0.994 0.998 -0.994 0.017 82.444
7861.958 0.019 82.777 0.998 -1.059 0.998 -1.059 0.019 82.777
7886.917 0.02 83.064 0.998 -1.123 0.998 -1.123 0.02 83.064
7911.875 0.021 83.312 0.998 -1.188 0.998 -1.188 0.021 83.312
7936.833 0.022 83.528 0.998 -1.252 0.998 -1.252 0.022 83.528
7961.792 0.023 83.717 0.998 -1.316 0.998 -1.316 0.023 83.717
7986.75 0.024 83.881 0.998 -1.379 0.998 -1.379 0.024 83.881
8011.708 0.025 84.026 0.998 -1.443 0.998 -1.443 0.025 84.026
8036.667 0.026 84.152 0.998 -1.506 0.998 -1.506 0.026 84.152
8061.625 0.027 84.263 0.998 -1.569 0.998 -1.569 0.027 84.263
8086.583 0.029 84.361 0.998 -1.632 0.998 -1.632 0.029 84.361
8111.542 0.03 84.446 0.998 -1.695 0.998 -1.695 0.03 84.446
8136.5 0.031 84.52 0.998 -1.758 0.998 -1.758 0.031 84.52
8161.458 0.032 84.585 0.998 -1.82 0.998 -1.82 0.032 84.585
