# MHZ S MA R 50

50 0.993 -6.631 0.115 83.365 0.115 83.365 0.993 -6.631
74.958 0.985 -9.888 0.172 80.106 0.172 80.106 0.985 -9.888
99.917 0.974 -13.084 0.226 76.909 0.226 76.909 0.974 -13.084
124.875 0.96 -16.202 0.279 73.789 0.279 73.789 0.96 -16.202
149.833 0.944 -19.227 0.329 70.762 0.329 70.762 0.944 -19.227
174.792 0.926 -22.149 0.377 67.839 0.377 67.839 0.926 -22.149
199.75 0.907 -24.958 0.422 65.027 0.422 65.027 0.907 -24.958
224.708 0.886 -27.649 0.464 62.334 0.464 62.334 0.886 -27.649
249.667 0.864 -30.219 0.503 59.763 0.503 59.763 0.864 -30.219
274.625 0.842 -32.666 0.54 57.314 0.54 57.314 0.842 -32.666
299.583 0.819 -34.992 0.573 54.986 0.573 54.986 0.819 -34.992
324.542 0.796 -37.198 0.605 52.779 0.605 52.779 0.796 -37.198
349.5 0.774 -39.287 0.633 50.687 0.633 50.687 0.774 -39.287
374.458 0.751 -41.265 0.66 48.708 0.66 48.708 0.751 -41.265
399.417 0.729 -43.136 0.684 46.835 0.684 46.835 0.729 -43.136
424.375 0.708 -44.904 0.706 45.065 0.706 45.065 0.708 -44.904
449.333 0.687 -46.576 0.726 43.391 0.726 43.391 0.687 -46.576
474.292 0.667 -48.157 0.745 41.809 0.745 41.809 0.667 -48.157
499.25 0.647 -49.651 0.762 40.312 0.762 40.312 0.647 -49.651
524.208 0.628 -51.065 0.778 38.896 0.778 38.896 0.628 -51.065
549.167 0.61 -52.403 0.792 37.556 0.792 37.556 0.61 -52.403
574.125 0.592 -53.671 0.806 36.287 0.806 36.287 0.592 -53.671
599.083 0.575 -54.872 0.818 35.084 0.818 35.084 0.575 -54.872
624.042 0.558 -56.011 0.829 33.943 0.829 33.943 0.558 -56.011
649 0.543 -57.093 0.84 32.86 0.84 32.86 0.543 -57.093
673.958 0.527 -58.12 0.849 31.83 0.849 31.83 0.527 -58.12
698.917 0.513 -59.096 0.858 30.852 0.858 30.852 0.513 -59.096
723.875 0.499 -60.026 0.866 29.921 0.866 29.921 0.499 -60.026
748.833 0.485 -60.911 0.874 29.034 0.874 29.034 0.485 -60.911
773.792 0.472 -61.754 0.881 28.188 0.881 28.188 0.472 -61.754
798.75 0.46 -62.559 0.887 27.381 0.887 27.381 0.46 -62.559
823.708 0.448 -63.328 0.894 26.61 0.894 26.61 0.448 -63.328
848.667 0.436 -64.063 0.899 25.873 0.899 25.873 0.436 -64.063
873.625 0.425 -64.766 0.905 25.169 0.905 25.169 0.425 -64.766
898.583 0.415 -65.438 0.91 24.494 0.91 24.494 0.415 -65.438
923.542 0.404 -66.083 0.914 23.847 0.914 23.847 0.404 -66.083
948.5 0.394 -66.702 0.918 23.226 0.918 23.226 0.394 -66.702
973.458 0.385 -67.295 0.923 22.631 0.923 22.631 0.385 -67.295
998.417 0.376 -67.865 0.926 22.058 0.926 22.058 0.376 -67.865
1023.375 0.367 -68.413 0.93 21.508 0.93 21.508 0.367 -68.413
1048.333 0.358 -68.94 0.933 20.979 0.933 20.979 0.358 -68.94
1073.292 0.35 -69.448 0.936 20.469 0.936 20.469 0.35 -69.448
1098.25 0.342 -69.937 0.939 19.978 0.939 19.978 0.342 -69.937
1123.208 0.334 -70.409 0.942 19.504 0.942 19.504 0.334 -70.409
1148.167 0.326 -70.863 0.945 19.047 0.945 19.047 0.326 -70.863
1173.125 0.319 -71.303 0.947 18.605 0.947 18.605 0.319 -71.303
1198.083 0.312 -71.727 0.95 18.179 0.95 18.179 0.312 -71.727
1223.042 0.305 -72.137 0.952 17.766 0.952 17.766 0.305 -72.137
1248 0.298 -72.534 0.954 17.367 0.954 17.367 0.298 -72.534
1272.958 0.292 -72.918 0.956 16.981 0.956 16.981 0.292 -72.918
1297.917 0.286 -73.29 0.958 16.606 0.958 16.606 0.286 -73.29
1322.875 0.28 -73.65 0.96 16.244 0.96 16.244 0.28 -73.65
1347.833 0.274 -74 0.961 15.892 0.961 15.892 0.274 -74
1372.792 0.268 -74.339 0.963 15.55 0.963 15.55 0.268 -74.339
1397.75 0.262 -74.668 0.964 15.218 0.964 15.218 0.262 -74.668
1422.708 0.257 -74.987 0.966 14.896 0.966 14.896 0.257 -74.987
1447.667 0.252 -75.298 0.967 14.583 0.967 14.583 0.252 -75.298
1472.625 0.247 -75.6 0.969 14.278 0.969 14.278 0.247 -75.6
1497.583 0.242 -75.894 0.97 13.982 0.97 13.982 0.242 -75.894
1522.542 0.237 -76.179 0.971 13.694 0.971 13.694 0.237 -76.179
1547.5 0.232 -76.458 0.972 13.413 0.972 13.413 0.232 -76.458
1572.458 0.227 -76.729 0.973 13.139 0.973 13.139 0.227 -76.729
1597.417 0.223 -76.993 0.974 12.872 0.974 12.872 0.223 -76.993
1622.375 0.218 -77.25 0.975 12.612 0.975 12.612 0.218 -77.25
1647.333 0.214 -77.501 0.976 12.358 0.976 12.358 0.214 -77.501
1672.292 0.21 -77.746 0.977 12.11 0.977 12.11 0.21 -77.746
1697.25 0.206 -77.985 0.978 11.868 0.978 11.868 0.206 -77.985
1722.208 0.202 -78.218 0.979 11.631 0.979 11.631 0.202 -78.218
1747.167 0.198 -78.446 0.98 11.4 0.98 11.4 0.198 -78.446
1772.125 0.194 -78.669 0.981 11.174 0.981 11.174 0.194 -78.669
1797.083 0.19 -78.887 0.981 10.954 0.981 10.954 0.19 -78.887
1822.042 0.186 -79.1 0.982 10.737 0.982 10.737 0.186 -79.1
1847 0.183 -79.308 0.983 10.526 0.983 10.526 0.183 -79.308
1871.958 0.179 -79.511 0.983 10.319 0.983 10.319 0.179 -79.511
1896.917 0.176 -79.711 0.984 10.116 0.984 10.116 0.176 -79.711
1921.875 0.172 -79.906 0.985 9.917 0.985 9.917 0.172 -79.906
1946.833 0.169 -80.097 0.985 9.722 0.985 9.722 0.169 -80.097
1971.792 0.166 -80.285 0.986 9.531 0.986 9.531 0.166 -80.285
1996.75 0.162 -80.468 0.986 9.344 0.986 9.344 0.162 -80.468
2021.708 0.159 -80.648 0.987 9.16 0.987 9.16 0.159 -80.648
2046.667 0.156 -80.825 0.987 8.98 0.987 8.98 0.156 -80.825
2071.625 0.153 -80.998 0.988 8.803 0.988 8.803 0.153 -80.998
2096.583 0.15 -81.167 0.988 8.629 0.988 8.629 0.15 -81.167
2121.542 0.147 -81.334 0.989 8.458 0.989 8.458 0.147 -81.334
2146.5 0.144 -81.497 0.989 8.29 0.989 8.29 0.144 -81.497
2171.458 0.141 -81.658 0.989 8.125 0.989 8.125 0.141 -81.658
2196.417 0.139 -81.815 0.99 7.963 0.99 7.963 0.139 -81.815
2221.375 0.136 -81.97 0.99 7.804 0.99 7.804 0.136 -81.97
2246.333 0.133 -82.122 0.991 7.647 0.991 7.647 0.133 -82.122
2271.292 0.13 -82.271 0.991 7.493 0.991 7.493 0.13 -82.271
2296.25 0.128 -82.418 0.991 7.342 0.991 7.342 0.128 -82.418
2321.208 0.125 -82.562 0.992 7.192 0.992 7.192 0.125 -82.562
2346.167 0.123 -82.704 0.992 7.045 0.992 7.045 0.123 -82.704
2371.125 0.12 -82.844 0.992 6.901 0.992 6.901 0.12 -82.844
2396.083 0.118 -82.981 0.993 6.758 0.993 6.758 0.118 -82.981
2421.042 0.115 -83.116 0.993 6.618 0.993 6.618 0.115 -83.116
2446 0.113 -83.248 0.993 6.479 0.993 6.479 0.113 -83.248
2470.958 0.11 -83.379 0.993 6.343 0.993 6.343 0.11 -83.379
2495.917 0.108 -83.507 0.994 6.209 0.994 6.209 0.108 -83.507
2520.875 0.106 -83.633 0.994 6.076 0.994 6.076 0.106 -83.633
2545.833 0.104 -83.757 0.994 5.945 0.994 5.945 0.104 -83.757
2570.792 0.101 -83.88 0.994 5.817 0.994 5.817 0.101 -83.88
2595.75 0.099 -84 0.995 5.689 0.995 5.689 0.099 -84
2620.708 0.097 -84.119 0.995 5.564 0.995 5.564 0.097 -84.119
2645.667 0.095 -84.235 0.995 5.44 0.995 5.44 0.095 -84.235
2670.625 0.093 -84.35 0.995 5.318 0.995 5.318 0.093 -84.35
2695.583 0.091 -84.463 0.995 5.197 0.995 5.197 0.091 -84.463
2720.542 0.089 -84.574 0.996 5.078 0.996 5.078 0.089 -84.574
2745.5 0.086 -84.684 0.996 4.96 0.996 4.96 0.086 -84.684
2770.458 0.084 -84.791 0.996 4.844 0.996 4.844 0.084 -84.791
2795.417 0.082 -84.897 0.996 4.729 0.996 4.729 0.082 -84.897
2820.375 0.08 -85.002 0.996 4.615 0.996 4.615 0.08 -85.002
2845.333 0.079 -85.104 0.996 4.503 0.996 4.503 0.079 -85.104
2870.292 0.077 -85.205 0.997 4.392 0.997 4.392 0.077 -85.205
2895.25 0.075 -85.305 0.997 4.282 0.997 4.282 0.075 -85.305
2920.208 0.073 -85.402 0.997 4.174 0.997 4.174 0.073 -85.402
2945.167 0.071 -85.498 0.997 4.066 0.997 4.066 0.071 -85.498
2970.125 0.069 -85.593 0.997 3.96 0.997 3.96 0.069 -85.593
2995.083 0.067 -85.686 0.997 3.855 0.997 3.855 0.067 -85.686
3020.042 0.065 -85.777 0.997 3.751 0.997 3.751 0.065 -85.777
3045 0.064 -85.866 0.997 3.649 0.997 3.649 0.064 -85.866
3069.958 0.062 -85.954 0.998 3.547 0.998 3.547 0.062 -85.954
3094.917 0.06 -86.04 0.998 3.446 0.998 3.446 0.06 -86.04
3119.875 0.058 -86.124 0.998 3.347 0.998 3.347 0.058 -86.124
3144.833 0.057 -86.207 0.998 3.248 0.998 3.248 0.057 -86.207
3169.792 0.055 -86.288 0.998 3.15 0.998 3.15 0.055 -86.288
3194.75 0.053 -86.367 0.998 3.053 0.998 3.053 0.053 -86.367
3219.708 0.052 -86.444 0.998 2.958 0.998 2.958 0.052 -86.444
3244.667 0.05 -86.519 0.998 2.863 0.998 2.863 0.05 -86.519
3269.625 0.048 -86.592 0.998 2.768 0.998 2.768 0.048 -86.592
3294.583 0.047 -86.663 0.998 2.675 0.998 2.675 0.047 -86.663
3319.542 0.045 -86.731 0.998 2.583 0.998 2.583 0.045 -86.731
3344.5 0.043 -86.798 0.999 2.491 0.999 2.491 0.043 -86.798
3369.458 0.042 -86.862 0.999 2.401 0.999 2.401 0.042 -86.862
3394.417 0.04 -86.923 0.999 2.311 0.999 2.311 0.04 -86.923
3419.375 0.039 -86.981 0.999 2.221 0.999 2.221 0.039 -86.981
3444.333 0.037 -87.036 0.999 2.133 0.999 2.133 0.037 -87.036
3469.292 0.036 -87.089 0.999 2.045 0.999 2.045 0.036 -87.089
3494.25 0.034 -87.137 0.999 1.958 0.999 1.958 0.034 -87.137
3519.208 0.033 -87.182 0.999 1.872 0.999 1.872 0.033 -87.182
3544.167 0.031 -87.222 0.999 1.787 0.999 1.787 0.031 -87.222
3569.125 0.03 -87.257 0.999 1.702 0.999 1.702 0.03 -87.257
3594.083 0.028 -87.287 0.999 1.617 0.999 1.617 0.028 -87.287
3619.042 0.027 -87.311 0.999 1.534 0.999 1.534 0.027 -87.311
3644 0.025 -87.328 0.999 1.451 0.999 1.451 0.025 -87.328
3668.958 0.024 -87.337 0.999 1.369 0.999 1.369 0.024 -87.337
3693.917 0.022 -87.336 0.999 1.287 0.999 1.287 0.022 -87.336
3718.875 0.021 -87.325 0.999 1.206 0.999 1.206 0.021 -87.325
3743.833 0.02 -87.3 0.999 1.125 0.999 1.125 0.02 -87.3
3768.792 0.018 -87.26 0.999 1.046 0.999 1.046 0.018 -87.26
3793.75 0.017 -87.2 0.999 0.966 0.999 0.966 0.017 -87.2
3818.708 0.015 -87.116 0.999 0.887 0.999 0.887 0.015 -87.116
3843.667 0.014 -87.002 0.999 0.809 0.999 0.809 0.014 -87.002
3868.625 0.013 -86.847 0.999 0.732 0.999 0.732 0.013 -86.847
3893.583 0.011 -86.639 0.999 0.654 0.999 0.654 0.011 -86.639
3918.542 0.01 -86.357 0.999 0.578 0.999 0.578 0.01 -86.357
3943.5 8.771e-3 -85.969 0.999 0.502 0.999 0.502 8.771e-3 -85.969
3968.458 7.453e-3 -85.42 0.999 0.426 0.999 0.426 7.453e-3 -85.42
3993.417 6.146e-3 -84.609 0.999 0.351 0.999 0.351 6.146e-3 -84.609
4018.375 4.849e-3 -83.331 0.999 0.276 0.999 0.276 4.849e-3 -83.331
4043.333 3.565e-3 -81.088 0.999 0.202 0.999 0.202 3.565e-3 -81.088
4068.292 2.302e-3 -76.304 0.999 0.128 0.999 0.128 2.302e-3 -76.304
4093.25 1.1e-3 -60.55 0.999 0.055 0.999 0.055 1.1e-3 -60.55
4118.208 623.9e-6 30.062 0.999 -0.018 0.999 -0.018 623.9e-6 30.062
4143.167 1.666e-3 71.001 0.999 -0.09 0.999 -0.09 1.666e-3 71.001
4168.125 2.883e-3 79.044 0.999 -0.162 0.999 -0.162 2.883e-3 79.044
4193.083 4.116e-3 82.229 0.999 -0.234 0.999 -0.234 4.116e-3 82.229
4218.042 5.349e-3 83.902 0.999 -0.305 0.999 -0.305 5.349e-3 83.902
4243 6.578e-3 84.916 0.999 -0.376 0.999 -0.376 6.578e-3 84.916
4267.958 7.802e-3 85.586 0.999 -0.446 0.999 -0.446 7.802e-3 85.586
4292.917 9.019e-3 86.052 0.999 -0.516 0.999 -0.516 9.019e-3 86.052
4317.875 0.01 86.39 0.999 -0.585 0.999 -0.585 0.01 86.39
4342.833 0.011 86.64 0.999 -0.654 0.999 -0.654 0.011 86.64
4367.792 0.013 86.828 0.999 -0.723 0.999 -0.723 0.013 86.828
4392.75 0.014 86.971 0.999 -0.792 0.999 -0.792 0.014 86.971
4417.708 0.015 87.08 0.999 -0.86 0.999 -0.86 0.015 87.08
4442.667 0.016 87.162 0.999 -0.927 0.999 -0.927 0.016 87.162
4467.625 0.017 87.224 0.999 -0.995 0.999 -0.995 0.017 87.224
4492.583 0.019 87.269 0.999 -1.062 0.999 -1.062 0.019 87.269
4517.542 0.02 87.301 0.999 -1.128 0.999 -1.128 0.02 87.301
4542.5 0.021 87.322 0.999 -1.195 0.999 -1.195 0.021 87.322
4567.458 0.022 87.334 0.999 -1.26 0.999 -1.26 0.022 87.334
4592.417 0.023 87.338 0.999 -1.326 0.999 -1.326 0.023 87.338
4617.375 0.024 87.335 0.999 -1.391 0.999 -1.391 0.024 87.335
4642.333 0.025 87.327 0.999 -1.456 0.999 -1.456 0.025 87.327
4667.292 0.027 87.314 0.999 -1.521 0.999 -1.521 0.027 87.314
4692.25 0.028 87.297 0.999 -1.586 0.999 -1.586 0.028 87.297
4717.208 0.029 87.276 0.999 -1.65 0.999 -1.65 0.029 87.276
4742.167 0.03 87.253 0.999 -1.713 0.999 -1.713 0.03 87.253
4767.125 0.031 87.226 0.999 -1.777 0.999 -1.777 0.031 87.226
4792.083 0.032 87.197 0.999 -1.84 0.999 -1.84 0.032 87.197
4817.042 0.033 87.166 0.999 -1.903 0.999 -1.903 0.033 87.166
4842 0.034 87.133 0.999 -1.966 0.999 -1.966 0.034 87.133
4866.958 0.035 87.098 0.999 -2.028 0.999 -2.028 0.035 87.098
4891.917 0.036 87.062 0.999 -2.09 0.999 -2.09 0.036 87.062
4916.875 0.038 87.025 0.999 -2.152 0.999 -2.152 0.038 87.025
4941.833 0.039 86.986 0.999 -2.214 0.999 -2.214 0.039 86.986
4966.792 0.04 86.946 0.999 -2.275 0.999 -2.275 0.04 86.946
4991.75 0.041 86.906 0.999 -2.336 0.999 -2.336 0.041 86.906
5016.708 0.042 86.864 0.999 -2.397 0.999 -2.397 0.042 86.864
5041.667 0.043 86.822 0.999 -2.457 0.999 -2.457 0.043 86.822
5066.625 0.044 86.779 0.998 -2.518 0.998 -2.518 0.044 86.779
5091.583 0.045 86.735 0.998 -2.578 0.998 -2.578 0.045 86.735
5116.542 0.046 86.691 0.998 -2.637 0.998 -2.637 0.046 86.691
5141.5 0.047 86.646 0.998 -2.697 0.998 -2.697 0.047 86.646
5166.458 0.048 86.601 0.998 -2.756 0.998 -2.756 0.048 86.601
5191.417 0.049 86.555 0.998 -2.816 0.998 -2.816 0.049 86.555
5216.375 0.05 86.509 0.998 -2.874 0.998 -2.874 0.05 86.509
5241.333 0.051 86.463 0.998 -2.933 0.998 -2.933 0.051 86.463
5266.292 0.052 86.416 0.998 -2.992 0.998 -2.992 0.052 86.416
5291.25 0.053 86.37 0.998 -3.05 0.998 -3.05 0.053 86.37
5316.208 0.054 86.322 0.998 -3.108 0.998 -3.108 0.054 86.322
5341.167 0.055 86.275 0.998 -3.166 0.998 -3.166 0.055 86.275
5366.125 0.056 86.227 0.998 -3.223 0.998 -3.223 0.056 86.227
5391.083 0.057 86.18 0.998 -3.281 0.998 -3.281 0.057 86.18
5416.042 0.058 86.132 0.998 -3.338 0.998 -3.338 0.058 86.132
5441 0.059 86.083 0.998 -3.395 0.998 -3.395 0.059 86.083
5465.958 0.06 86.035 0.998 -3.452 0.998 -3.452 0.06 86.035
5490.917 0.061 85.987 0.998 -3.509 0.998 -3.509 0.061 85.987
5515.875 0.062 85.938 0.998 -3.565 0.998 -3.565 0.062 85.938
5540.833 0.063 85.89 0.997 -3.621 0.997 -3.621 0.063 85.89
5565.792 0.064 85.841 0.997 -3.677 0.997 -3.677 0.064 85.841
5590.75 0.065 85.793 0.997 -3.733 0.997 -3.733 0.065 85.793
5615.708 0.066 85.744 0.997 -3.789 0.997 -3.789 0.066 85.744
5640.667 0.067 85.695 0.997 -3.844 0.997 -3.844 0.067 85.695
5665.625 0.068 85.646 0.997 -3.9 0.997 -3.9 0.068 85.646
5690.583 0.069 85.598 0.997 -3.955 0.997 -3.955 0.069 85.598
5715.542 0.07 85.549 0.997 -4.01 0.997 -4.01 0.07 85.549
5740.5 0.071 85.5 0.997 -4.065 0.997 -4.065 0.071 85.5
5765.458 0.072 85.451 0.997 -4.119 0.997 -4.119 0.072 85.451
5790.417 0.073 85.402 0.997 -4.174 0.997 -4.174 0.073 85.402
5815.375 0.074 85.353 0.997 -4.228 0.997 -4.228 0.074 85.353
5840.333 0.075 85.305 0.997 -4.282 0.997 -4.282 0.075 85.305
5865.292 0.076 85.256 0.997 -4.336 0.997 -4.336 0.076 85.256
5890.25 0.077 85.207 0.997 -4.39 0.997 -4.39 0.077 85.207
5915.208 0.077 85.158 0.996 -4.444 0.996 -4.444 0.077 85.158
5940.167 0.078 85.109 0.996 -4.497 0.996 -4.497 0.078 85.109
5965.125 0.079 85.061 0.996 -4.551 0.996 -4.551 0.079 85.061
5990.083 0.08 85.012 0.996 -4.604 0.996 -4.604 0.08 85.012
6015.042 0.081 84.963 0.996 -4.657 0.996 -4.657 0.081 84.963
6040 0.082 84.915 0.996 -4.71 0.996 -4.71 0.082 84.915
6064.958 0.083 84.866 0.996 -4.763 0.996 -4.763 0.083 84.866
6089.917 0.084 84.817 0.996 -4.815 0.996 -4.815 0.084 84.817
6114.875 0.085 84.769 0.996 -4.868 0.996 -4.868 0.085 84.769
6139.833 0.086 84.72 0.996 -4.92 0.996 -4.92 0.086 84.72
6164.792 0.087 84.672 0.996 -4.972 0.996 -4.972 0.087 84.672
6189.75 0.088 84.624 0.996 -5.025 0.996 -5.025 0.088 84.624
6214.708 0.088 84.575 0.996 -5.076 0.996 -5.076 0.088 84.575
6239.667 0.089 84.527 0.995 -5.128 0.995 -5.128 0.089 84.527
6264.625 0.09 84.479 0.995 -5.18 0.995 -5.18 0.09 84.479
6289.583 0.091 84.431 0.995 -5.231 0.995 -5.231 0.091 84.431
6314.542 0.092 84.383 0.995 -5.283 0.995 -5.283 0.092 84.383
6339.5 0.093 84.335 0.995 -5.334 0.995 -5.334 0.093 84.335
6364.458 0.094 84.287 0.995 -5.385 0.995 -5.385 0.094 84.287
6389.417 0.095 84.239 0.995 -5.436 0.995 -5.436 0.095 84.239
6414.375 0.096 84.191 0.995 -5.487 0.995 -5.487 0.096 84.191
6439.333 0.097 84.143 0.995 -5.538 0.995 -5.538 0.097 84.143
6464.292 0.097 84.095 0.995 -5.589 0.995 -5.589 0.097 84.095
6489.25 0.098 84.048 0.995 -5.639 0.995 -5.639 0.098 84.048
6514.208 0.099 84 0.995 -5.69 0.995 -5.69 0.099 84
6539.167 0.1 83.952 0.994 -5.74 0.994 -5.74 0.1 83.952
6564.125 0.101 83.905 0.994 -5.79 0.994 -5.79 0.101 83.905
6589.083 0.102 83.857 0.994 -5.84 0.994 -5.84 0.102 83.857
6614.042 0.103 83.81 0.994 -5.89 0.994 -5.89 0.103 83.81
6639 0.103 83.763 0.994 -5.94 0.994 -5.94 0.103 83.763
6663.958 0.104 83.716 0.994 -5.99 0.994 -5.99 0.104 83.716
6688.917 0.105 83.668 0.994 -6.039 0.994 -6.039 0.105 83.668
6713.875 0.106 83.621 0.994 -6.089 0.994 -6.089 0.106 83.621
6738.833 0.107 83.574 0.994 -6.138 0.994 -6.138 0.107 83.574
6763.792 0.108 83.527 0.994 -6.187 0.994 -6.187 0.108 83.527
6788.75 0.109 83.48 0.994 -6.236 0.994 -6.236 0.109 83.48
6813.708 0.109 83.434 0.993 -6.285 0.993 -6.285 0.109 83.434
6838.667 0.11 83.387 0.993 -6.334 0.993 -6.334 0.11 83.387
6863.625 0.111 83.34 0.993 -6.383 0.993 -6.383 0.111 83.34
6888.583 0.112 83.294 0.993 -6.432 0.993 -6.432 0.112 83.294
6913.542 0.113 83.247 0.993 -6.481 0.993 -6.481 0.113 83.247
6938.5 0.114 83.2 0.993 -6.529 0.993 -6.529 0.114 83.2
6963.458 0.115 83.154 0.993 -6.578 0.993 -6.578 0.115 83.154
6988.417 0.115 83.108 0.993 -6.626 0.993 -6.626 0.115 83.108
7013.375 0.116 83.061 0.993 -6.674 0.993 -6.674 0.116 83.061
7038.333 0.117 83.015 0.993 -6.722 0.993 -6.722 0.117 83.015
7063.292 0.118 82.969 0.992 -6.77 0.992 -6.77 0.118 82.969
7088.25 0.119 82.923 0.992 -6.818 0.992 -6.818 0.119 82.923
7113.208 0.12 82.877 0.992 -6.866 0.992 -6.866 0.12 82.877
7138.167 0.12 82.831 0.992 -6.914 0.992 -6.914 0.12 82.831
7163.125 0.121 82.785 0.992 -6.962 0.992 -6.962 0.121 82.785
7188.083 0.122 82.739 0.992 -7.009 0.992 -7.009 0.122 82.739
7213.042 0.123 82.693 0.992 -7.057 0.992 -7.057 0.123 82.693
7238 0.124 82.648 0.992 -7.104 0.992 -7.104 0.124 82.648
7262.958 0.124 82.602 0.992 -7.152 0.992 -7.152 0.124 82.602
7287.917 0.125 82.556 0.992 -7.199 0.992 -7.199 0.125 82.556
7312.875 0.126 82.511 0.991 -7.246 0.991 -7.246 0.126 82.511
7337.833 0.127 82.465 0.991 -7.293 0.991 -7.293 0.127 82.465
7362.792 0.128 82.42 0.991 -7.34 0.991 -7.34 0.128 82.42
7387.75 0.129 82.375 0.991 -7.387 0.991 -7.387 0.129 82.375
7412.708 0.129 82.329 0.991 -7.434 0.991 -7.434 0.129 82.329
7437.667 0.13 82.284 0.991 -7.48 0.991 -7.48 0.13 82.284
7462.625 0.131 82.239 0.991 -7.527 0.991 -7.527 0.131 82.239
7487.583 0.132 82.194 0.991 -7.573 0.991 -7.573 0.132 82.194
7512.542 0.133 82.149 0.991 -7.62 0.991 -7.62 0.133 82.149
7537.5 0.133 82.104 0.991 -7.666 0.991 -7.666 0.133 82.104
7562.458 0.134 82.059 0.99 -7.713 0.99 -7.713 0.134 82.059
7587.417 0.135 82.014 0.99 -7.759 0.99 -7.759 0.135 82.014
7612.375 0.136 81.969 0.99 -7.805 0.99 -7.805 0.136 81.969
7637.333 0.137 81.925 0.99 -7.851 0.99 -7.851 0.137 81.925
7662.292 0.137 81.88 0.99 -7.897 0.99 -7.897 0.137 81.88
7687.25 0.138 81.835 0.99 -7.943 0.99 -7.943 0.138 81.835
7712.208 0.139 81.791 0.99 -7.989 0.99 -7.989 0.139 81.791
7737.167 0.14 81.746 0.99 -8.034 0.99 -8.034 0.14 81.746
7762.125 0.141 81.702 0.99 -8.08 0.99 -8.08 0.141 81.702
7787.083 0.141 81.658 0.989 -8.126 0.989 -8.126 0.141 81.658
7812.042 0.142 81.613 0.989 -8.171 0.989 -8.171 0.142 81.613
7837 0.143 81.569 0.989 -8.217 0.989 -8.217 0.143 81.569
7861.958 0.144 81.525 0.989 -8.262 0.989 -8.262 0.144 81.525
7886.917 0.144 81.481 0.989 -8.307 0.989 -8.307 0.144 81.481
7911.875 0.145 81.437 0.989 -8.353 0.989 -8.353 0.145 81.437
7936.833 0.146 81.393 0.989 -8.398 0.989 -8.398 0.146 81.393
7961.792 0.147 81.349 0.989 -8.443 0.989 -8.443 0.147 81.349
7986.75 0.148 81.305 0.989 -8.488 0.989 -8.488 0.148 81.305
8011.708 0.148 81.261 0.988 -8.533 0.988 -8.533 0.148 81.261
8036.667 0.149 81.217 0.988 -8.578 0.988 -8.578 0.149 81.217
8061.625 0.15 81.173 0.988 -8.623 0.988 -8.623 0.15 81.173
8086.583 0.151 81.13 0.988 -8.667 0.988 -8.667 0.151 81.13
8111.542 0.151 81.086 0.988 -8.712 0.988 -8.712 0.151 81.086
8136.5 0.152 81.042 0.988 -8.757 0.988 -8.757 0.152 81.042
8161.458 0.153 80.999 0.988 -8.801 0.988 -8.801 0.153 80.999
8186.417 0.154 80.955 0.988 -8.846 0.988 -8.846 0.154 80.955
8211.375 0.155 80.912 0.987 -8.89 0.987 -8.89 0.155 80.912
8236.333 0.155 80.869 0.987 -8.935 0.987 -8.935 0.155 80.869
8261.292 0.156 80.825 0.987 -8.979 0.987 -8.979 0.156 80.825
8286.25 0.157 80.782 0.987 -9.023 0.987 -9.023 0.157 80.782
