# MHZ S MA R 50

50 0.945 -19.071 0.327 70.92 0.327 70.92 0.945 -19.071
74.958 0.888 -27.41 0.46 62.577 0.46 62.577 0.888 -27.41
99.917 0.822 -34.673 0.569 55.309 0.569 55.309 0.822 -34.673
124.875 0.756 -40.871 0.654 49.106 0.654 49.106 0.756 -40.871
149.833 0.693 -46.109 0.721 43.863 0.721 43.863 0.693 -46.109
174.792 0.635 -50.528 0.772 39.44 0.772 39.44 0.635 -50.528
199.75 0.584 -54.265 0.812 35.698 0.812 35.698 0.584 -54.265
224.708 0.538 -57.444 0.843 32.514 0.843 32.514 0.538 -57.444
249.667 0.497 -60.167 0.867 29.787 0.867 29.787 0.497 -60.167
274.625 0.461 -62.517 0.887 27.433 0.887 27.433 0.461 -62.517
299.583 0.429 -64.559 0.903 25.385 0.903 25.385 0.429 -64.559
324.542 0.4 -66.348 0.916 23.591 0.916 23.591 0.4 -66.348
349.5 0.375 -67.926 0.927 22.008 0.927 22.008 0.375 -67.926
374.458 0.352 -69.327 0.936 20.603 0.936 20.603 0.352 -69.327
399.417 0.331 -70.578 0.943 19.347 0.943 19.347 0.331 -70.578
424.375 0.313 -71.702 0.949 18.218 0.949 18.218 0.313 -71.702
449.333 0.296 -72.716 0.955 17.198 0.955 17.198 0.296 -72.716
474.292 0.28 -73.637 0.959 16.273 0.959 16.273 0.28 -73.637
499.25 0.266 -74.476 0.964 15.428 0.964 15.428 0.266 -74.476
524.208 0.253 -75.245 0.967 14.654 0.967 14.654 0.253 -75.245
549.167 0.241 -75.951 0.97 13.943 0.97 13.943 0.241 -75.951
574.125 0.23 -76.602 0.973 13.286 0.973 13.286 0.23 -76.602
599.083 0.219 -77.205 0.975 12.678 0.975 12.678 0.219 -77.205
624.042 0.21 -77.764 0.977 12.113 0.977 12.113 0.21 -77.764
649 0.201 -78.285 0.979 11.586 0.979 11.586 0.201 -78.285
673.958 0.192 -78.771 0.981 11.094 0.981 11.094 0.192 -78.771
698.917 0.185 -79.227 0.982 10.633 0.982 10.633 0.185 -79.227
723.875 0.177 -79.654 0.984 10.199 0.984 10.199 0.177 -79.654
748.833 0.17 -80.056 0.985 9.791 0.985 9.791 0.17 -80.056
773.792 0.163 -80.435 0.986 9.406 0.986 9.406 0.163 -80.435
798.75 0.157 -80.792 0.987 9.042 0.987 9.042 0.157 -80.792
823.708 0.151 -81.131 0.988 8.697 0.988 8.697 0.151 -81.131
848.667 0.146 -81.452 0.989 8.369 0.989 8.369 0.146 -81.452
873.625 0.14 -81.756 0.99 8.057 0.99 8.057 0.14 -81.756
898.583 0.135 -82.046 0.99 7.76 0.99 7.76 0.135 -82.046
923.542 0.13 -82.322 0.991 7.477 0.991 7.477 0.13 -82.322
948.5 0.125 -82.585 0.992 7.206 0.992 7.206 0.125 -82.585
973.458 0.121 -82.837 0.992 6.947 0.992 6.947 0.121 -82.837
998.417 0.117 -83.077 0.993 6.699 0.993 6.699 0.117 -83.077
1023.375 0.113 -83.307 0.993 6.46 0.993 6.46 0.113 -83.307
1048.333 0.109 -83.528 0.994 6.231 0.994 6.231 0.109 -83.528
1073.292 0.105 -83.739 0.994 6.01 0.994 6.01 0.105 -83.739
1098.25 0.101 -83.942 0.994 5.798 0.994 5.798 0.101 -83.942
1123.208 0.097 -84.138 0.995 5.593 0.995 5.593 0.097 -84.138
1148.167 0.094 -84.326 0.995 5.395 0.995 5.395 0.094 -84.326
1173.125 0.091 -84.506 0.995 5.204 0.995 5.204 0.091 -84.506
1198.083 0.087 -84.681 0.996 5.019 0.996 5.019 0.087 -84.681
1223.042 0.084 -84.849 0.996 4.84 0.996 4.84 0.084 -84.849
1248 0.081 -85.01 0.996 4.667 0.996 4.667 0.081 -85.01
1272.958 0.078 -85.167 0.996 4.498 0.996 4.498 0.078 -85.167
1297.917 0.076 -85.317 0.997 4.335 0.997 4.335 0.076 -85.317
1322.875 0.073 -85.463 0.997 4.176 0.997 4.176 0.073 -85.463
1347.833 0.07 -85.604 0.997 4.022 0.997 4.022 0.07 -85.604
1372.792 0.068 -85.739 0.997 3.871 0.997 3.871 0.068 -85.739
1397.75 0.065 -85.87 0.997 3.725 0.997 3.725 0.065 -85.87
1422.708 0.062 -85.997 0.998 3.582 0.998 3.582 0.062 -85.997
1447.667 0.06 -86.119 0.998 3.443 0.998 3.443 0.06 -86.119
1472.625 0.058 -86.237 0.998 3.307 0.998 3.307 0.058 -86.237
1497.583 0.055 -86.35 0.998 3.175 0.998 3.175 0.055 -86.35
1522.542 0.053 -86.459 0.998 3.045 0.998 3.045 0.053 -86.459
1547.5 0.051 -86.565 0.998 2.919 0.998 2.919 0.051 -86.565
1572.458 0.049 -86.666 0.998 2.795 0.998 2.795 0.049 -86.666
1597.417 0.047 -86.762 0.998 2.673 0.998 2.673 0.047 -86.762
1622.375 0.045 -86.855 0.999 2.555 0.999 2.555 0.045 -86.855
1647.333 0.043 -86.943 0.999 2.438 0.999 2.438 0.043 -86.943
1672.292 0.041 -87.027 0.999 2.324 0.999 2.324 0.041 -87.027
1697.25 0.039 -87.106 0.999 2.212 0.999 2.212 0.039 -87.106
1722.208 0.037 -87.18 0.999 2.102 0.999 2.102 0.037 -87.18
1747.167 0.035 -87.249 0.999 1.994 0.999 1.994 0.035 -87.249
1772.125 0.033 -87.312 0.999 1.888 0.999 1.888 0.033 -87.312
1797.083 0.031 -87.37 0.999 1.784 0.999 1.784 0.031 -87.37
1822.042 0.029 -87.421 0.999 1.682 0.999 1.682 0.029 -87.421
1847 0.028 -87.464 0.999 1.581 0.999 1.581 0.028 -87.464
1871.958 0.026 -87.499 0.999 1.482 0.999 1.482 0.026 -87.499
1896.917 0.024 -87.525 0.999 1.385 0.999 1.385 0.024 -87.525
1921.875 0.023 -87.54 0.999 1.289 0.999 1.289 0.023 -87.54
1946.833 0.021 -87.542 0.999 1.195 0.999 1.195 0.021 -87.542
1971.792 0.019 -87.528 0.999 1.102 0.999 1.102 0.019 -87.528
1996.75 0.018 -87.496 0.999 1.01 0.999 1.01 0.018 -87.496
2021.708 0.016 -87.439 0.999 0.919 0.999 0.919 0.016 -87.439
2046.667 0.014 -87.352 0.999 0.83 0.999 0.83 0.014 -87.352
2071.625 0.013 -87.225 0.999 0.742 0.999 0.742 0.013 -87.225
2096.583 0.011 -87.042 0.999 0.655 0.999 0.655 0.011 -87.042
2121.542 9.952e-3 -86.782 0.999 0.57 0.999 0.57 9.952e-3 -86.782
2146.5 8.476e-3 -86.405 1 0.485 1 0.485 8.476e-3 -86.405
2171.458 7.02e-3 -85.842 1 0.401 1 0.401 7.02e-3 -85.842
2196.417 5.582e-3 -84.955 1 0.319 1 0.319 5.582e-3 -84.955
2221.375 4.164e-3 -83.421 1 0.237 1 0.237 4.164e-3 -83.421
2246.333 2.768e-3 -80.281 1 0.156 1 0.156 2.768e-3 -80.281
2271.292 1.414e-3 -70.948 1 0.077 1 0.077 1.414e-3 -70.948
2296.25 461.6e-6 4.905 1 -2.262e-3 1 -2.262e-3 461.6e-6 4.905
2321.208 1.475e-3 71.754 1 -0.08 1 -0.08 1.475e-3 71.754
2346.167 2.788e-3 80.346 1 -0.158 1 -0.158 2.788e-3 80.346
2371.125 4.109e-3 83.34 1 -0.234 1 -0.234 4.109e-3 83.34
2396.083 5.423e-3 84.825 1 -0.31 1 -0.31 5.423e-3 84.825
2421.042 6.726e-3 85.695 1 -0.384 1 -0.384 6.726e-3 85.695
2446 8.018e-3 86.253 1 -0.459 1 -0.459 8.018e-3 86.253
2470.958 9.298e-3 86.633 0.999 -0.532 0.999 -0.532 9.298e-3 86.633
2495.917 0.011 86.901 0.999 -0.605 0.999 -0.605 0.011 86.901
2520.875 0.012 87.094 0.999 -0.677 0.999 -0.677 0.012 87.094
2545.833 0.013 87.235 0.999 -0.748 0.999 -0.748 0.013 87.235
2570.792 0.014 87.339 0.999 -0.819 0.999 -0.819 0.014 87.339
2595.75 0.016 87.414 0.999 -0.89 0.999 -0.89 0.016 87.414
2620.708 0.017 87.467 0.999 -0.959 0.999 -0.959 0.017 87.467
2645.667 0.018 87.504 0.999 -1.028 0.999 -1.028 0.018 87.504
2670.625 0.019 87.527 0.999 -1.097 0.999 -1.097 0.019 87.527
2695.583 0.02 87.539 0.999 -1.165 0.999 -1.165 0.02 87.539
2720.542 0.022 87.543 0.999 -1.232 0.999 -1.232 0.022 87.543
2745.5 0.023 87.539 0.999 -1.299 0.999 -1.299 0.023 87.539
2770.458 0.024 87.529 0.999 -1.365 0.999 -1.365 0.024 87.529
2795.417 0.025 87.514 0.999 -1.431 0.999 -1.431 0.025 87.514
2820.375 0.026 87.495 0.999 -1.497 0.999 -1.497 0.026 87.495
2845.333 0.027 87.472 0.999 -1.562 0.999 -1.562 0.027 87.472
2870.292 0.028 87.446 0.999 -1.626 0.999 -1.626 0.028 87.446
2895.25 0.029 87.417 0.999 -1.69 0.999 -1.69 0.029 87.417
2920.208 0.031 87.386 0.999 -1.754 0.999 -1.754 0.031 87.386
2945.167 0.032 87.352 0.999 -1.817 0.999 -1.817 0.032 87.352
2970.125 0.033 87.317 0.999 -1.88 0.999 -1.88 0.033 87.317
2995.083 0.034 87.281 0.999 -1.942 0.999 -1.942 0.034 87.281
3020.042 0.035 87.243 0.999 -2.004 0.999 -2.004 0.035 87.243
3045 0.036 87.204 0.999 -2.066 0.999 -2.066 0.036 87.204
3069.958 0.037 87.163 0.999 -2.127 0.999 -2.127 0.037 87.163
3094.917 0.038 87.122 0.999 -2.188 0.999 -2.188 0.038 87.122
3119.875 0.039 87.08 0.999 -2.249 0.999 -2.249 0.039 87.08
3144.833 0.04 87.037 0.999 -2.309 0.999 -2.309 0.04 87.037
3169.792 0.041 86.994 0.999 -2.369 0.999 -2.369 0.041 86.994
3194.75 0.042 86.95 0.999 -2.429 0.999 -2.429 0.042 86.95
3219.708 0.043 86.906 0.999 -2.488 0.999 -2.488 0.043 86.906
3244.667 0.044 86.861 0.999 -2.547 0.999 -2.547 0.044 86.861
3269.625 0.045 86.816 0.999 -2.605 0.999 -2.605 0.045 86.816
3294.583 0.046 86.77 0.998 -2.664 0.998 -2.664 0.046 86.77
3319.542 0.047 86.724 0.998 -2.722 0.998 -2.722 0.047 86.724
3344.5 0.048 86.678 0.998 -2.779 0.998 -2.779 0.048 86.678
3369.458 0.049 86.631 0.998 -2.837 0.998 -2.837 0.049 86.631
3394.417 0.05 86.585 0.998 -2.894 0.998 -2.894 0.05 86.585
3419.375 0.051 86.538 0.998 -2.951 0.998 -2.951 0.051 86.538
3444.333 0.052 86.491 0.998 -3.008 0.998 -3.008 0.052 86.491
3469.292 0.053 86.444 0.998 -3.064 0.998 -3.064 0.053 86.444
3494.25 0.054 86.396 0.998 -3.12 0.998 -3.12 0.054 86.396
3519.208 0.055 86.349 0.998 -3.176 0.998 -3.176 0.055 86.349
3544.167 0.056 86.302 0.998 -3.232 0.998 -3.232 0.056 86.302
3569.125 0.057 86.254 0.998 -3.287 0.998 -3.287 0.057 86.254
3594.083 0.058 86.206 0.998 -3.342 0.998 -3.342 0.058 86.206
3619.042 0.059 86.159 0.998 -3.397 0.998 -3.397 0.059 86.159
3644 0.06 86.111 0.998 -3.452 0.998 -3.452 0.06 86.111
3668.958 0.061 86.063 0.998 -3.507 0.998 -3.507 0.061 86.063
3693.917 0.062 86.016 0.998 -3.561 0.998 -3.561 0.062 86.016
3718.875 0.063 85.968 0.998 -3.615 0.998 -3.615 0.063 85.968
3743.833 0.064 85.92 0.997 -3.669 0.997 -3.669 0.064 85.92
3768.792 0.065 85.872 0.997 -3.722 0.997 -3.722 0.065 85.872
3793.75 0.066 85.825 0.997 -3.776 0.997 -3.776 0.066 85.825
3818.708 0.067 85.777 0.997 -3.829 0.997 -3.829 0.067 85.777
3843.667 0.068 85.729 0.997 -3.882 0.997 -3.882 0.068 85.729
3868.625 0.069 85.682 0.997 -3.935 0.997 -3.935 0.069 85.682
3893.583 0.07 85.634 0.997 -3.988 0.997 -3.988 0.07 85.634
3918.542 0.07 85.586 0.997 -4.041 0.997 -4.041 0.07 85.586
3943.5 0.071 85.539 0.997 -4.093 0.997 -4.093 0.071 85.539
3968.458 0.072 85.491 0.997 -4.145 0.997 -4.145 0.072 85.491
3993.417 0.073 85.444 0.997 -4.197 0.997 -4.197 0.073 85.444
4018.375 0.074 85.396 0.997 -4.249 0.997 -4.249 0.074 85.396
4043.333 0.075 85.349 0.997 -4.301 0.997 -4.301 0.075 85.349
4068.292 0.076 85.302 0.997 -4.352 0.997 -4.352 0.076 85.302
4093.25 0.077 85.254 0.997 -4.404 0.997 -4.404 0.077 85.254
4118.208 0.078 85.207 0.997 -4.455 0.997 -4.455 0.078 85.207
4143.167 0.079 85.16 0.996 -4.506 0.996 -4.506 0.079 85.16
4168.125 0.079 85.113 0.996 -4.557 0.996 -4.557 0.079 85.113
4193.083 0.08 85.066 0.996 -4.607 0.996 -4.607 0.08 85.066
4218.042 0.081 85.019 0.996 -4.658 0.996 -4.658 0.081 85.019
4243 0.082 84.972 0.996 -4.709 0.996 -4.709 0.082 84.972
4267.958 0.083 84.925 0.996 -4.759 0.996 -4.759 0.083 84.925
4292.917 0.084 84.878 0.996 -4.809 0.996 -4.809 0.084 84.878
4317.875 0.085 84.831 0.996 -4.859 0.996 -4.859 0.085 84.831
4342.833 0.086 84.784 0.996 -4.909 0.996 -4.909 0.086 84.784
4367.792 0.086 84.738 0.996 -4.959 0.996 -4.959 0.086 84.738
4392.75 0.087 84.691 0.996 -5.008 0.996 -5.008 0.087 84.691
4417.708 0.088 84.644 0.996 -5.058 0.996 -5.058 0.088 84.644
4442.667 0.089 84.598 0.996 -5.107 0.996 -5.107 0.089 84.598
4467.625 0.09 84.551 0.995 -5.157 0.995 -5.157 0.09 84.551
4492.583 0.091 84.505 0.995 -5.206 0.995 -5.206 0.091 84.505
4517.542 0.092 84.459 0.995 -5.255 0.995 -5.255 0.092 84.459
4542.5 0.092 84.412 0.995 -5.304 0.995 -5.304 0.092 84.412
4567.458 0.093 84.366 0.995 -5.352 0.995 -5.352 0.093 84.366
4592.417 0.094 84.32 0.995 -5.401 0.995 -5.401 0.094 84.32
4617.375 0.095 84.274 0.995 -5.45 0.995 -5.45 0.095 84.274
4642.333 0.096 84.228 0.995 -5.498 0.995 -5.498 0.096 84.228
4667.292 0.097 84.182 0.995 -5.546 0.995 -5.546 0.097 84.182
4692.25 0.097 84.136 0.995 -5.595 0.995 -5.595 0.097 84.136
4717.208 0.098 84.09 0.995 -5.643 0.995 -5.643 0.098 84.09
4742.167 0.099 84.045 0.995 -5.691 0.995 -5.691 0.099 84.045
4767.125 0.1 83.999 0.995 -5.739 0.995 -5.739 0.1 83.999
4792.083 0.101 83.953 0.994 -5.787 0.994 -5.787 0.101 83.953
4817.042 0.102 83.908 0.994 -5.834 0.994 -5.834 0.102 83.908
4842 0.102 83.862 0.994 -5.882 0.994 -5.882 0.102 83.862
4866.958 0.103 83.817 0.994 -5.929 0.994 -5.929 0.103 83.817
4891.917 0.104 83.771 0.994 -5.977 0.994 -5.977 0.104 83.771
4916.875 0.105 83.726 0.994 -6.024 0.994 -6.024 0.105 83.726
4941.833 0.106 83.681 0.994 -6.071 0.994 -6.071 0.106 83.681
4966.792 0.107 83.636 0.994 -6.118 0.994 -6.118 0.107 83.636
4991.75 0.107 83.591 0.994 -6.166 0.994 -6.166 0.107 83.591
5016.708 0.108 83.545 0.994 -6.212 0.994 -6.212 0.108 83.545
5041.667 0.109 83.5 0.994 -6.259 0.994 -6.259 0.109 83.5
5066.625 0.11 83.455 0.993 -6.306 0.993 -6.306 0.11 83.455
5091.583 0.111 83.41 0.993 -6.353 0.993 -6.353 0.111 83.41
5116.542 0.111 83.366 0.993 -6.399 0.993 -6.399 0.111 83.366
5141.5 0.112 83.321 0.993 -6.446 0.993 -6.446 0.112 83.321
5166.458 0.113 83.276 0.993 -6.492 0.993 -6.492 0.113 83.276
5191.417 0.114 83.231 0.993 -6.539 0.993 -6.539 0.114 83.231
5216.375 0.115 83.187 0.993 -6.585 0.993 -6.585 0.115 83.187
5241.333 0.115 83.142 0.993 -6.631 0.993 -6.631 0.115 83.142
5266.292 0.116 83.098 0.993 -6.677 0.993 -6.677 0.116 83.098
5291.25 0.117 83.053 0.993 -6.723 0.993 -6.723 0.117 83.053
5316.208 0.118 83.009 0.993 -6.769 0.993 -6.769 0.118 83.009
5341.167 0.119 82.964 0.992 -6.815 0.992 -6.815 0.119 82.964
5366.125 0.119 82.92 0.992 -6.861 0.992 -6.861 0.119 82.92
5391.083 0.12 82.876 0.992 -6.907 0.992 -6.907 0.12 82.876
5416.042 0.121 82.832 0.992 -6.952 0.992 -6.952 0.121 82.832
5441 0.122 82.787 0.992 -6.998 0.992 -6.998 0.122 82.787
5465.958 0.123 82.743 0.992 -7.043 0.992 -7.043 0.123 82.743
5490.917 0.123 82.699 0.992 -7.089 0.992 -7.089 0.123 82.699
5515.875 0.124 82.655 0.992 -7.134 0.992 -7.134 0.124 82.655
5540.833 0.125 82.611 0.992 -7.18 0.992 -7.18 0.125 82.611
5565.792 0.126 82.567 0.992 -7.225 0.992 -7.225 0.126 82.567
5590.75 0.127 82.523 0.992 -7.27 0.992 -7.27 0.127 82.523
5615.708 0.127 82.48 0.991 -7.315 0.991 -7.315 0.127 82.48
5640.667 0.128 82.436 0.991 -7.36 0.991 -7.36 0.128 82.436
5665.625 0.129 82.392 0.991 -7.405 0.991 -7.405 0.129 82.392
5690.583 0.13 82.349 0.991 -7.45 0.991 -7.45 0.13 82.349
5715.542 0.13 82.305 0.991 -7.495 0.991 -7.495 0.13 82.305
5740.5 0.131 82.261 0.991 -7.54 0.991 -7.54 0.131 82.261
5765.458 0.132 82.218 0.991 -7.584 0.991 -7.584 0.132 82.218
5790.417 0.133 82.174 0.991 -7.629 0.991 -7.629 0.133 82.174
5815.375 0.134 82.131 0.991 -7.673 0.991 -7.673 0.134 82.131
5840.333 0.134 82.088 0.99 -7.718 0.99 -7.718 0.134 82.088
5865.292 0.135 82.044 0.99 -7.762 0.99 -7.762 0.135 82.044
5890.25 0.136 82.001 0.99 -7.807 0.99 -7.807 0.136 82.001
5915.208 0.137 81.958 0.99 -7.851 0.99 -7.851 0.137 81.958
5940.167 0.137 81.914 0.99 -7.895 0.99 -7.895 0.137 81.914
5965.125 0.138 81.871 0.99 -7.94 0.99 -7.94 0.138 81.871
5990.083 0.139 81.828 0.99 -7.984 0.99 -7.984 0.139 81.828
6015.042 0.14 81.785 0.99 -8.028 0.99 -8.028 0.14 81.785
6040 0.14 81.742 0.99 -8.072 0.99 -8.072 0.14 81.742
6064.958 0.141 81.699 0.99 -8.116 0.99 -8.116 0.141 81.699
6089.917 0.142 81.656 0.989 -8.16 0.989 -8.16 0.142 81.656
6114.875 0.143 81.613 0.989 -8.204 0.989 -8.204 0.143 81.613
6139.833 0.143 81.57 0.989 -8.248 0.989 -8.248 0.143 81.57
6164.792 0.144 81.528 0.989 -8.292 0.989 -8.292 0.144 81.528
6189.75 0.145 81.485 0.989 -8.335 0.989 -8.335 0.145 81.485
6214.708 0.146 81.442 0.989 -8.379 0.989 -8.379 0.146 81.442
6239.667 0.146 81.399 0.989 -8.423 0.989 -8.423 0.146 81.399
6264.625 0.147 81.357 0.989 -8.466 0.989 -8.466 0.147 81.357
6289.583 0.148 81.314 0.989 -8.51 0.989 -8.51 0.148 81.314
6314.542 0.149 81.272 0.988 -8.553 0.988 -8.553 0.149 81.272
6339.5 0.149 81.229 0.988 -8.597 0.988 -8.597 0.149 81.229
6364.458 0.15 81.187 0.988 -8.64 0.988 -8.64 0.15 81.187
6389.417 0.151 81.144 0.988 -8.683 0.988 -8.683 0.151 81.144
6414.375 0.152 81.102 0.988 -8.727 0.988 -8.727 0.152 81.102
6439.333 0.152 81.059 0.988 -8.77 0.988 -8.77 0.152 81.059
6464.292 0.153 81.017 0.988 -8.813 0.988 -8.813 0.153 81.017
6489.25 0.154 80.975 0.988 -8.856 0.988 -8.856 0.154 80.975
6514.208 0.155 80.933 0.988 -8.899 0.988 -8.899 0.155 80.933
6539.167 0.155 80.89 0.987 -8.942 0.987 -8.942 0.155 80.89
6564.125 0.156 80.848 0.987 -8.985 0.987 -8.985 0.156 80.848
6589.083 0.157 80.806 0.987 -9.028 0.987 -9.028 0.157 80.806
6614.042 0.158 80.764 0.987 -9.071 0.987 -9.071 0.158 80.764
6639 0.158 80.722 0.987 -9.114 0.987 -9.114 0.158 80.722
6663.958 0.159 80.68 0.987 -9.157 0.987 -9.157 0.159 80.68
6688.917 0.16 80.638 0.987 -9.2 0.987 -9.2 0.16 80.638
6713.875 0.161 80.596 0.987 -9.242 0.987 -9.242 0.161 80.596
6738.833 0.161 80.554 0.986 -9.285 0.986 -9.285 0.161 80.554
6763.792 0.162 80.512 0.986 -9.328 0.986 -9.328 0.162 80.512
6788.75 0.163 80.47 0.986 -9.37 0.986 -9.37 0.163 80.47
6813.708 0.164 80.428 0.986 -9.413 0.986 -9.413 0.164 80.428
6838.667 0.164 80.387 0.986 -9.455 0.986 -9.455 0.164 80.387
6863.625 0.165 80.345 0.986 -9.498 0.986 -9.498 0.165 80.345
6888.583 0.166 80.303 0.986 -9.54 0.986 -9.54 0.166 80.303
6913.542 0.166 80.261 0.986 -9.582 0.986 -9.582 0.166 80.261
6938.5 0.167 80.22 0.985 -9.625 0.985 -9.625 0.167 80.22
6963.458 0.168 80.178 0.985 -9.667 0.985 -9.667 0.168 80.178
6988.417 0.169 80.137 0.985 -9.709 0.985 -9.709 0.169 80.137
7013.375 0.169 80.095 0.985 -9.752 0.985 -9.752 0.169 80.095
7038.333 0.17 80.054 0.985 -9.794 0.985 -9.794 0.17 80.054
7063.292 0.171 80.012 0.985 -9.836 0.985 -9.836 0.171 80.012
7088.25 0.172 79.971 0.985 -9.878 0.985 -9.878 0.172 79.971
7113.208 0.172 79.929 0.985 -9.92 0.985 -9.92 0.172 79.929
7138.167 0.173 79.888 0.984 -9.962 0.984 -9.962 0.173 79.888
7163.125 0.174 79.846 0.984 -10.004 0.984 -10.004 0.174 79.846
7188.083 0.174 79.805 0.984 -10.046 0.984 -10.046 0.174 79.805
7213.042 0.175 79.764 0.984 -10.088 0.984 -10.088 0.175 79.764
7238 0.176 79.723 0.984 -10.13 0.984 -10.13 0.176 79.723
7262.958 0.177 79.681 0.984 -10.172 0.984 -10.172 0.177 79.681
7287.917 0.177 79.64 0.984 -10.214 0.984 -10.214 0.177 79.64
7312.875 0.178 79.599 0.984 -10.255 0.984 -10.255 0.178 79.599
7337.833 0.179 79.558 0.983 -10.297 0.983 -10.297 0.179 79.558
7362.792 0.179 79.517 0.983 -10.339 0.983 -10.339 0.179 79.517
7387.75 0.18 79.476 0.983 -10.38 0.983 -10.38 0.18 79.476
7412.708 0.181 79.435 0.983 -10.422 0.983 -10.422 0.181 79.435
7437.667 0.182 79.394 0.983 -10.464 0.983 -10.464 0.182 79.394
7462.625 0.182 79.353 0.983 -10.505 0.983 -10.505 0.182 79.353
7487.583 0.183 79.312 0.983 -10.547 0.983 -10.547 0.183 79.312
7512.542 0.184 79.271 0.983 -10.588 0.983 -10.588 0.184 79.271
7537.5 0.184 79.23 0.982 -10.63 0.982 -10.63 0.184 79.23
7562.458 0.185 79.189 0.982 -10.671 0.982 -10.671 0.185 79.189
7587.417 0.186 79.148 0.982 -10.712 0.982 -10.712 0.186 79.148
7612.375 0.187 79.108 0.982 -10.754 0.982 -10.754 0.187 79.108
7637.333 0.187 79.067 0.982 -10.795 0.982 -10.795 0.187 79.067
7662.292 0.188 79.026 0.982 -10.836 0.982 -10.836 0.188 79.026
7687.25 0.189 78.985 0.982 -10.878 0.982 -10.878 0.189 78.985
7712.208 0.189 78.945 0.981 -10.919 0.981 -10.919 0.189 78.945
7737.167 0.19 78.904 0.981 -10.96 0.981 -10.96 0.19 78.904
7762.125 0.191 78.863 0.981 -11.001 0.981 -11.001 0.191 78.863
7787.083 0.192 78.823 0.981 -11.042 0.981 -11.042 0.192 78.823
7812.042 0.192 78.782 0.981 -11.083 0.981 -11.083 0.192 78.782
7837 0.193 78.742 0.981 -11.124 0.981 -11.124 0.193 78.742
7861.958 0.194 78.701 0.981 -11.165 0.981 -11.165 0.194 78.701
7886.917 0.194 78.661 0.98 -11.206 0.98 -11.206 0.194 78.661
7911.875 0.195 78.62 0.98 -11.247 0.98 -11.247 0.195 78.62
7936.833 0.196 78.58 0.98 -11.288 0.98 -11.288 0.196 78.58
7961.792 0.196 78.539 0.98 -11.329 0.98 -11.329 0.196 78.539
7986.75 0.197 78.499 0.98 -11.37 0.98 -11.37 0.197 78.499
8011.708 0.198 78.459 0.98 -11.411 0.98 -11.411 0.198 78.459
8036.667 0.199 78.418 0.98 -11.451 0.98 -11.451 0.199 78.418
8061.625 0.199 78.378 0.98 -11.492 0.98 -11.492 0.199 78.378
8086.583 0.2 78.338 0.979 -11.533 0.979 -11.533 0.2 78.338
8111.542 0.201 78.298 0.979 -11.574 0.979 -11.574 0.201 78.298
8136.5 0.201 78.257 0.979 -11.614 0.979 -11.614 0.201 78.257
8161.458 0.202 78.217 0.979 -11.655 0.979 -11.655 0.202 78.217
8186.417 0.203 78.177 0.979 -11.696 0.979 -11.696 0.203 78.177
8211.375 0.203 78.137 0.979 -11.736 0.979 -11.736 0.203 78.137
8236.333 0.204 78.097 0.979 -11.777 0.979 -11.777 0.204 78.097
8261.292 0.205 78.057 0.978 -11.817 0.978 -11.817 0.205 78.057
8286.25 0.205 78.017 0.978 -11.858 0.978 -11.858 0.205 78.017
