# MHZ S MA R 50

50 1 -0.63 0.011 89.366 0.011 89.366 1 -0.63
74.958 1 -0.944 0.016 89.05 0.016 89.05 1 -0.944
99.917 1 -1.259 0.022 88.733 0.022 88.733 1 -1.259
124.875 1 -1.573 0.027 88.417 0.027 88.417 1 -1.573
149.833 0.999 -1.887 0.033 88.101 0.033 88.101 0.999 -1.887
174.792 0.999 -2.202 0.038 87.785 0.038 87.785 0.999 -2.202
199.75 0.999 -2.516 0.044 87.469 0.044 87.469 0.999 -2.516
224.708 0.999 -2.83 0.049 87.153 0.049 87.153 0.999 -2.83
249.667 0.998 -3.144 0.055 86.837 0.055 86.837 0.998 -3.144
274.625 0.998 -3.457 0.06 86.522 0.06 86.522 0.998 -3.457
299.583 0.998 -3.771 0.066 86.206 0.066 86.206 0.998 -3.771
324.542 0.997 -4.084 0.071 85.891 0.071 85.891 0.997 -4.084
349.5 0.997 -4.398 0.077 85.576 0.077 85.576 0.997 -4.398
374.458 0.997 -4.711 0.082 85.261 0.082 85.261 0.997 -4.711
399.417 0.996 -5.024 0.088 84.946 0.088 84.946 0.996 -5.024
424.375 0.996 -5.336 0.093 84.631 0.093 84.631 0.996 -5.336
449.333 0.995 -5.649 0.098 84.317 0.098 84.317 0.995 -5.649
474.292 0.995 -5.961 0.104 84.003 0.104 84.003 0.995 -5.961
499.25 0.994 -6.273 0.109 83.689 0.109 83.689 0.994 -6.273
524.208 0.993 -6.585 0.115 83.375 0.115 83.375 0.993 -6.585
549.167 0.993 -6.896 0.12 83.062 0.12 83.062 0.993 -6.896
574.125 0.992 -7.207 0.125 82.749 0.125 82.749 0.992 -7.207
599.083 0.991 -7.518 0.131 82.436 0.131 82.436 0.991 -7.518
624.042 0.991 -7.828 0.136 82.124 0.136 82.124 0.991 -7.828
649 0.99 -8.139 0.142 81.812 0.142 81.812 0.99 -8.139
673.958 0.989 -8.449 0.147 81.5 0.147 81.5 0.989 -8.449
698.917 0.988 -8.758 0.152 81.188 0.152 81.188 0.988 -8.758
723.875 0.987 -9.067 0.158 80.877 0.158 80.877 0.987 -9.067
748.833 0.986 -9.376 0.163 80.566 0.163 80.566 0.986 -9.376
773.792 0.986 -9.684 0.168 80.256 0.168 80.256 0.986 -9.684
798.75 0.985 -9.992 0.174 79.946 0.174 79.946 0.985 -9.992
823.708 0.984 -10.3 0.179 79.637 0.179 79.637 0.984 -10.3
848.667 0.983 -10.607 0.184 79.328 0.184 79.328 0.983 -10.607
873.625 0.982 -10.914 0.189 79.019 0.189 79.019 0.982 -10.914
898.583 0.981 -11.22 0.195 78.711 0.195 78.711 0.981 -11.22
923.542 0.98 -11.526 0.2 78.403 0.2 78.403 0.98 -11.526
948.5 0.978 -11.832 0.205 78.096 0.205 78.096 0.978 -11.832
973.458 0.977 -12.136 0.21 77.789 0.21 77.789 0.977 -12.136
998.417 0.976 -12.441 0.215 77.482 0.215 77.482 0.976 -12.441
1023.375 0.975 -12.745 0.221 77.176 0.221 77.176 0.975 -12.745
1048.333 0.974 -13.048 0.226 76.871 0.226 76.871 0.974 -13.048
1073.292 0.973 -13.351 0.231 76.566 0.231 76.566 0.973 -13.351
1098.25 0.971 -13.654 0.236 76.262 0.236 76.262 0.971 -13.654
1123.208 0.97 -13.955 0.241 75.958 0.241 75.958 0.97 -13.955
1148.167 0.969 -14.257 0.246 75.655 0.246 75.655 0.969 -14.257
1173.125 0.967 -14.558 0.251 75.352 0.251 75.352 0.967 -14.558
1198.083 0.966 -14.858 0.256 75.05 0.256 75.05 0.966 -14.858
1223.042 0.965 -15.157 0.261 74.748 0.261 74.748 0.965 -15.157
1248 0.963 -15.456 0.267 74.447 0.267 74.447 0.963 -15.456
1272.958 0.962 -15.755 0.272 74.147 0.272 74.147 0.962 -15.755
1297.917 0.961 -16.053 0.277 73.847 0.277 73.847 0.961 -16.053
1322.875 0.959 -16.35 0.282 73.548 0.282 73.548 0.959 -16.35
1347.833 0.958 -16.646 0.286 73.25 0.286 73.25 0.958 -16.646
1372.792 0.956 -16.942 0.291 72.952 0.291 72.952 0.956 -16.942
1397.75 0.955 -17.238 0.296 72.654 0.296 72.654 0.955 -17.238
1422.708 0.953 -17.532 0.301 72.358 0.301 72.358 0.953 -17.532
1447.667 0.951 -17.826 0.306 72.062 0.306 72.062 0.951 -17.826
1472.625 0.95 -18.12 0.311 71.766 0.311 71.766 0.95 -18.12
1497.583 0.948 -18.412 0.316 71.472 0.316 71.472 0.948 -18.412
1522.542 0.947 -18.704 0.321 71.178 0.321 71.178 0.947 -18.704
1547.5 0.945 -18.996 0.325 70.884 0.325 70.884 0.945 -18.996
1572.458 0.943 -19.286 0.33 70.592 0.33 70.592 0.943 -19.286
1597.417 0.941 -19.576 0.335 70.3 0.335 70.3 0.941 -19.576
1622.375 0.94 -19.865 0.34 70.009 0.34 70.009 0.94 -19.865
1647.333 0.938 -20.154 0.345 69.718 0.345 69.718 0.938 -20.154
1672.292 0.936 -20.442 0.349 69.428 0.349 69.428 0.936 -20.442
1697.25 0.934 -20.729 0.354 69.139 0.354 69.139 0.934 -20.729
1722.208 0.933 -21.015 0.359 68.851 0.359 68.851 0.933 -21.015
1747.167 0.931 -21.301 0.363 68.564 0.363 68.564 0.931 -21.301
1772.125 0.929 -21.585 0.368 68.277 0.368 68.277 0.929 -21.585
1797.083 0.927 -21.87 0.372 67.991 0.372 67.991 0.927 -21.87
1822.042 0.925 -22.153 0.377 67.705 0.377 67.705 0.925 -22.153
1847 0.923 -22.435 0.382 67.421 0.382 67.421 0.923 -22.435
1871.958 0.921 -22.717 0.386 67.137 0.386 67.137 0.921 -22.717
1896.917 0.92 -22.998 0.391 66.854 0.391 66.854 0.92 -22.998
1921.875 0.918 -23.278 0.395 66.572 0.395 66.572 0.918 -23.278
1946.833 0.916 -23.558 0.4 66.291 0.4 66.291 0.916 -23.558
1971.792 0.914 -23.836 0.404 66.01 0.404 66.01 0.914 -23.836
1996.75 0.912 -24.114 0.409 65.73 0.409 65.73 0.912 -24.114
2021.708 0.91 -24.391 0.413 65.451 0.413 65.451 0.91 -24.391
2046.667 0.908 -24.667 0.417 65.173 0.417 65.173 0.908 -24.667
2071.625 0.906 -24.943 0.422 64.895 0.422 64.895 0.906 -24.943
2096.583 0.903 -25.217 0.426 64.619 0.426 64.619 0.903 -25.217
2121.542 0.901 -25.491 0.43 64.343 0.43 64.343 0.901 -25.491
2146.5 0.899 -25.764 0.435 64.068 0.435 64.068 0.899 -25.764
2171.458 0.897 -26.036 0.439 63.794 0.439 63.794 0.897 -26.036
2196.417 0.895 -26.307 0.443 63.521 0.443 63.521 0.895 -26.307
2221.375 0.893 -26.577 0.447 63.248 0.447 63.248 0.893 -26.577
2246.333 0.891 -26.847 0.452 62.977 0.452 62.977 0.891 -26.847
2271.292 0.889 -27.116 0.456 62.706 0.456 62.706 0.889 -27.116
2296.25 0.886 -27.383 0.46 62.436 0.46 62.436 0.886 -27.383
2321.208 0.884 -27.65 0.464 62.167 0.464 62.167 0.884 -27.65
2346.167 0.882 -27.917 0.468 61.899 0.468 61.899 0.882 -27.917
2371.125 0.88 -28.182 0.472 61.631 0.472 61.631 0.88 -28.182
2396.083 0.878 -28.446 0.476 61.365 0.476 61.365 0.878 -28.446
2421.042 0.875 -28.71 0.48 61.099 0.48 61.099 0.875 -28.71
2446 0.873 -28.973 0.484 60.834 0.484 60.834 0.873 -28.973
2470.958 0.871 -29.234 0.488 60.571 0.488 60.571 0.871 -29.234
2495.917 0.869 -29.495 0.492 60.307 0.492 60.307 0.869 -29.495
2520.875 0.866 -29.755 0.496 60.045 0.496 60.045 0.866 -29.755
2545.833 0.864 -30.015 0.5 59.784 0.5 59.784 0.864 -30.015
2570.792 0.862 -30.273 0.504 59.524 0.504 59.524 0.862 -30.273
2595.75 0.86 -30.53 0.508 59.264 0.508 59.264 0.86 -30.53
2620.708 0.857 -30.787 0.512 59.005 0.512 59.005 0.857 -30.787
2645.667 0.855 -31.043 0.516 58.748 0.516 58.748 0.855 -31.043
2670.625 0.853 -31.297 0.519 58.491 0.519 58.491 0.853 -31.297
2695.583 0.85 -31.551 0.523 58.235 0.523 58.235 0.85 -31.551
2720.542 0.848 -31.804 0.527 57.979 0.527 57.979 0.848 -31.804
2745.5 0.846 -32.056 0.531 57.725 0.531 57.725 0.846 -32.056
2770.458 0.843 -32.308 0.534 57.472 0.534 57.472 0.843 -32.308
2795.417 0.841 -32.558 0.538 57.219 0.538 57.219 0.841 -32.558
2820.375 0.838 -32.808 0.542 56.968 0.542 56.968 0.838 -32.808
2845.333 0.836 -33.056 0.545 56.717 0.545 56.717 0.836 -33.056
2870.292 0.834 -33.304 0.549 56.467 0.549 56.467 0.834 -33.304
2895.25 0.831 -33.551 0.553 56.218 0.553 56.218 0.831 -33.551
2920.208 0.829 -33.797 0.556 55.97 0.556 55.97 0.829 -33.797
2945.167 0.826 -34.042 0.56 55.723 0.56 55.723 0.826 -34.042
2970.125 0.824 -34.286 0.563 55.476 0.563 55.476 0.824 -34.286
2995.083 0.821 -34.529 0.567 55.231 0.567 55.231 0.821 -34.529
3020.042 0.819 -34.771 0.57 54.987 0.57 54.987 0.819 -34.771
3045 0.817 -35.013 0.574 54.743 0.574 54.743 0.817 -35.013
3069.958 0.814 -35.253 0.577 54.5 0.577 54.5 0.814 -35.253
3094.917 0.812 -35.493 0.581 54.258 0.581 54.258 0.812 -35.493
3119.875 0.809 -35.732 0.584 54.017 0.584 54.017 0.809 -35.732
3144.833 0.807 -35.969 0.587 53.777 0.587 53.777 0.807 -35.969
3169.792 0.804 -36.206 0.591 53.538 0.591 53.538 0.804 -36.206
3194.75 0.802 -36.443 0.594 53.3 0.594 53.3 0.802 -36.443
3219.708 0.799 -36.678 0.597 53.062 0.597 53.062 0.799 -36.678
3244.667 0.797 -36.912 0.601 52.826 0.601 52.826 0.797 -36.912
3269.625 0.794 -37.146 0.604 52.59 0.604 52.59 0.794 -37.146
3294.583 0.792 -37.378 0.607 52.355 0.607 52.355 0.792 -37.378
3319.542 0.789 -37.61 0.61 52.121 0.61 52.121 0.789 -37.61
3344.5 0.787 -37.84 0.613 51.888 0.613 51.888 0.787 -37.84
3369.458 0.784 -38.07 0.617 51.656 0.617 51.656 0.784 -38.07
3394.417 0.782 -38.299 0.62 51.425 0.62 51.425 0.782 -38.299
3419.375 0.779 -38.527 0.623 51.194 0.623 51.194 0.779 -38.527
3444.333 0.777 -38.755 0.626 50.965 0.626 50.965 0.777 -38.755
3469.292 0.774 -38.981 0.629 50.736 0.629 50.736 0.774 -38.981
3494.25 0.772 -39.207 0.632 50.509 0.632 50.509 0.772 -39.207
3519.208 0.769 -39.431 0.635 50.282 0.635 50.282 0.769 -39.431
3544.167 0.767 -39.655 0.638 50.056 0.638 50.056 0.767 -39.655
3569.125 0.764 -39.878 0.641 49.83 0.641 49.83 0.764 -39.878
3594.083 0.762 -40.1 0.644 49.606 0.644 49.606 0.762 -40.1
3619.042 0.759 -40.321 0.647 49.383 0.647 49.383 0.759 -40.321
3644 0.757 -40.541 0.65 49.16 0.65 49.16 0.757 -40.541
3668.958 0.754 -40.761 0.653 48.938 0.653 48.938 0.754 -40.761
3693.917 0.751 -40.979 0.656 48.717 0.656 48.717 0.751 -40.979
3718.875 0.749 -41.197 0.659 48.497 0.659 48.497 0.749 -41.197
3743.833 0.746 -41.414 0.661 48.278 0.661 48.278 0.746 -41.414
3768.792 0.744 -41.629 0.664 48.06 0.664 48.06 0.744 -41.629
3793.75 0.741 -41.845 0.667 47.842 0.667 47.842 0.741 -41.845
3818.708 0.739 -42.059 0.67 47.626 0.67 47.626 0.739 -42.059
3843.667 0.736 -42.272 0.673 47.41 0.673 47.41 0.736 -42.272
3868.625 0.734 -42.485 0.675 47.195 0.675 47.195 0.734 -42.485
3893.583 0.731 -42.696 0.678 46.981 0.678 46.981 0.731 -42.696
3918.542 0.729 -42.907 0.681 46.768 0.681 46.768 0.729 -42.907
3943.5 0.726 -43.117 0.684 46.555 0.684 46.555 0.726 -43.117
3968.458 0.724 -43.327 0.686 46.344 0.686 46.344 0.724 -43.327
3993.417 0.721 -43.535 0.689 46.133 0.689 46.133 0.721 -43.535
4018.375 0.718 -43.742 0.691 45.923 0.691 45.923 0.718 -43.742
4043.333 0.716 -43.949 0.694 45.714 0.694 45.714 0.716 -43.949
4068.292 0.713 -44.155 0.697 45.505 0.697 45.505 0.713 -44.155
4093.25 0.711 -44.36 0.699 45.298 0.699 45.298 0.711 -44.36
4118.208 0.708 -44.564 0.702 45.091 0.702 45.091 0.708 -44.564
4143.167 0.706 -44.768 0.704 44.885 0.704 44.885 0.706 -44.768
4168.125 0.703 -44.97 0.707 44.68 0.707 44.68 0.703 -44.97
4193.083 0.701 -45.172 0.709 44.476 0.709 44.476 0.701 -45.172
4218.042 0.698 -45.373 0.712 44.273 0.712 44.273 0.698 -45.373
4243 0.696 -45.573 0.714 44.07 0.714 44.07 0.696 -45.573
4267.958 0.693 -45.772 0.717 43.868 0.717 43.868 0.693 -45.772
4292.917 0.69 -45.971 0.719 43.667 0.719 43.667 0.69 -45.971
4317.875 0.688 -46.168 0.721 43.467 0.721 43.467 0.688 -46.168
4342.833 0.685 -46.365 0.724 43.267 0.724 43.267 0.685 -46.365
4367.792 0.683 -46.561 0.726 43.069 0.726 43.069 0.683 -46.561
4392.75 0.68 -46.757 0.728 42.871 0.728 42.871 0.68 -46.757
4417.708 0.678 -46.951 0.731 42.674 0.731 42.674 0.678 -46.951
4442.667 0.675 -47.145 0.733 42.477 0.733 42.477 0.675 -47.145
4467.625 0.673 -47.338 0.735 42.282 0.735 42.282 0.673 -47.338
4492.583 0.67 -47.53 0.738 42.087 0.738 42.087 0.67 -47.53
4517.542 0.668 -47.722 0.74 41.893 0.74 41.893 0.668 -47.722
4542.5 0.665 -47.912 0.742 41.7 0.742 41.7 0.665 -47.912
4567.458 0.663 -48.102 0.744 41.507 0.744 41.507 0.663 -48.102
4592.417 0.66 -48.291 0.747 41.315 0.747 41.315 0.66 -48.291
4617.375 0.658 -48.48 0.749 41.124 0.749 41.124 0.658 -48.48
4642.333 0.655 -48.667 0.751 40.934 0.751 40.934 0.655 -48.667
4667.292 0.653 -48.854 0.753 40.745 0.753 40.745 0.653 -48.854
4692.25 0.65 -49.04 0.755 40.556 0.755 40.556 0.65 -49.04
4717.208 0.648 -49.225 0.757 40.368 0.757 40.368 0.648 -49.225
4742.167 0.645 -49.41 0.759 40.181 0.759 40.181 0.645 -49.41
4767.125 0.643 -49.594 0.761 39.994 0.761 39.994 0.643 -49.594
4792.083 0.64 -49.777 0.764 39.808 0.764 39.808 0.64 -49.777
4817.042 0.638 -49.959 0.766 39.623 0.766 39.623 0.638 -49.959
4842 0.635 -50.141 0.768 39.439 0.768 39.439 0.635 -50.141
4866.958 0.633 -50.322 0.77 39.255 0.77 39.255 0.633 -50.322
4891.917 0.63 -50.502 0.772 39.072 0.772 39.072 0.63 -50.502
4916.875 0.628 -50.681 0.774 38.89 0.774 38.89 0.628 -50.681
4941.833 0.625 -50.86 0.776 38.709 0.776 38.709 0.625 -50.86
4966.792 0.623 -51.038 0.778 38.528 0.778 38.528 0.623 -51.038
4991.75 0.62 -51.215 0.78 38.348 0.78 38.348 0.62 -51.215
5016.708 0.618 -51.391 0.781 38.169 0.781 38.169 0.618 -51.391
5041.667 0.616 -51.567 0.783 37.99 0.783 37.99 0.616 -51.567
5066.625 0.613 -51.742 0.785 37.812 0.785 37.812 0.613 -51.742
5091.583 0.611 -51.917 0.787 37.635 0.787 37.635 0.611 -51.917
5116.542 0.608 -52.09 0.789 37.458 0.789 37.458 0.608 -52.09
5141.5 0.606 -52.263 0.791 37.282 0.791 37.282 0.606 -52.263
5166.458 0.603 -52.436 0.793 37.107 0.793 37.107 0.603 -52.436
5191.417 0.601 -52.607 0.795 36.933 0.795 36.933 0.601 -52.607
5216.375 0.598 -52.778 0.796 36.759 0.796 36.759 0.598 -52.778
5241.333 0.596 -52.948 0.798 36.586 0.798 36.586 0.596 -52.948
5266.292 0.594 -53.118 0.8 36.413 0.8 36.413 0.594 -53.118
5291.25 0.591 -53.287 0.802 36.241 0.802 36.241 0.591 -53.287
5316.208 0.589 -53.455 0.803 36.07 0.803 36.07 0.589 -53.455
5341.167 0.586 -53.623 0.805 35.9 0.805 35.9 0.586 -53.623
5366.125 0.584 -53.789 0.807 35.73 0.807 35.73 0.584 -53.789
5391.083 0.582 -53.956 0.809 35.561 0.809 35.561 0.582 -53.956
5416.042 0.579 -54.121 0.81 35.392 0.81 35.392 0.579 -54.121
5441 0.577 -54.286 0.812 35.224 0.812 35.224 0.577 -54.286
5465.958 0.574 -54.45 0.814 35.057 0.814 35.057 0.574 -54.45
5490.917 0.572 -54.614 0.815 34.891 0.815 34.891 0.572 -54.614
5515.875 0.57 -54.776 0.817 34.725 0.817 34.725 0.57 -54.776
5540.833 0.567 -54.939 0.819 34.559 0.819 34.559 0.567 -54.939
5565.792 0.565 -55.1 0.82 34.395 0.82 34.395 0.565 -55.1
5590.75 0.563 -55.261 0.822 34.231 0.822 34.231 0.563 -55.261
5615.708 0.56 -55.422 0.823 34.067 0.823 34.067 0.56 -55.422
5640.667 0.558 -55.581 0.825 33.904 0.825 33.904 0.558 -55.581
5665.625 0.555 -55.74 0.827 33.742 0.827 33.742 0.555 -55.74
5690.583 0.553 -55.899 0.828 33.581 0.828 33.581 0.553 -55.899
5715.542 0.551 -56.056 0.83 33.42 0.83 33.42 0.551 -56.056
5740.5 0.548 -56.214 0.831 33.259 0.831 33.259 0.548 -56.214
5765.458 0.546 -56.37 0.833 33.1 0.833 33.1 0.546 -56.37
5790.417 0.544 -56.526 0.834 32.94 0.834 32.94 0.544 -56.526
5815.375 0.541 -56.681 0.836 32.782 0.836 32.782 0.541 -56.681
5840.333 0.539 -56.836 0.837 32.624 0.837 32.624 0.539 -56.836
5865.292 0.537 -56.99 0.839 32.467 0.839 32.467 0.537 -56.99
5890.25 0.535 -57.144 0.84 32.31 0.84 32.31 0.535 -57.144
5915.208 0.532 -57.296 0.842 32.154 0.842 32.154 0.532 -57.296
5940.167 0.53 -57.449 0.843 31.998 0.843 31.998 0.53 -57.449
5965.125 0.528 -57.6 0.844 31.843 0.844 31.843 0.528 -57.6
5990.083 0.525 -57.751 0.846 31.689 0.846 31.689 0.525 -57.751
6015.042 0.523 -57.902 0.847 31.535 0.847 31.535 0.523 -57.902
6040 0.521 -58.052 0.849 31.381 0.849 31.381 0.521 -58.052
6064.958 0.518 -58.201 0.85 31.229 0.85 31.229 0.518 -58.201
6089.917 0.516 -58.35 0.851 31.077 0.851 31.077 0.516 -58.35
6114.875 0.514 -58.498 0.853 30.925 0.853 30.925 0.514 -58.498
6139.833 0.512 -58.646 0.854 30.774 0.854 30.774 0.512 -58.646
6164.792 0.509 -58.793 0.855 30.623 0.855 30.623 0.509 -58.793
6189.75 0.507 -58.939 0.857 30.474 0.857 30.474 0.507 -58.939
6214.708 0.505 -59.085 0.858 30.324 0.858 30.324 0.505 -59.085
6239.667 0.503 -59.23 0.859 30.175 0.859 30.175 0.503 -59.23
6264.625 0.5 -59.375 0.861 30.027 0.861 30.027 0.5 -59.375
6289.583 0.498 -59.519 0.862 29.879 0.862 29.879 0.498 -59.519
6314.542 0.496 -59.663 0.863 29.732 0.863 29.732 0.496 -59.663
6339.5 0.494 -59.806 0.864 29.585 0.864 29.585 0.494 -59.806
6364.458 0.492 -59.948 0.866 29.439 0.866 29.439 0.492 -59.948
6389.417 0.489 -60.09 0.867 29.294 0.867 29.294 0.489 -60.09
6414.375 0.487 -60.231 0.868 29.149 0.868 29.149 0.487 -60.231
6439.333 0.485 -60.372 0.869 29.004 0.869 29.004 0.485 -60.372
6464.292 0.483 -60.513 0.871 28.86 0.871 28.86 0.483 -60.513
6489.25 0.481 -60.652 0.872 28.717 0.872 28.717 0.481 -60.652
6514.208 0.478 -60.792 0.873 28.574 0.873 28.574 0.478 -60.792
6539.167 0.476 -60.93 0.874 28.431 0.874 28.431 0.476 -60.93
6564.125 0.474 -61.068 0.875 28.289 0.875 28.289 0.474 -61.068
6589.083 0.472 -61.206 0.876 28.148 0.876 28.148 0.472 -61.206
6614.042 0.47 -61.343 0.878 28.007 0.878 28.007 0.47 -61.343
6639 0.467 -61.48 0.879 27.866 0.879 27.866 0.467 -61.48
6663.958 0.465 -61.616 0.88 27.726 0.88 27.726 0.465 -61.616
6688.917 0.463 -61.751 0.881 27.587 0.881 27.587 0.463 -61.751
6713.875 0.461 -61.887 0.882 27.448 0.882 27.448 0.461 -61.887
6738.833 0.459 -62.021 0.883 27.309 0.883 27.309 0.459 -62.021
6763.792 0.457 -62.155 0.884 27.171 0.884 27.171 0.457 -62.155
6788.75 0.455 -62.289 0.885 27.034 0.885 27.034 0.455 -62.289
6813.708 0.452 -62.422 0.886 26.897 0.886 26.897 0.452 -62.422
6838.667 0.45 -62.554 0.888 26.76 0.888 26.76 0.45 -62.554
6863.625 0.448 -62.686 0.889 26.624 0.889 26.624 0.448 -62.686
6888.583 0.446 -62.818 0.89 26.489 0.89 26.489 0.446 -62.818
6913.542 0.444 -62.949 0.891 26.354 0.891 26.354 0.444 -62.949
6938.5 0.442 -63.079 0.892 26.219 0.892 26.219 0.442 -63.079
6963.458 0.44 -63.209 0.893 26.085 0.893 26.085 0.44 -63.209
6988.417 0.438 -63.339 0.894 25.951 0.894 25.951 0.438 -63.339
7013.375 0.436 -63.468 0.895 25.818 0.895 25.818 0.436 -63.468
7038.333 0.433 -63.596 0.896 25.685 0.896 25.685 0.433 -63.596
7063.292 0.431 -63.724 0.897 25.553 0.897 25.553 0.431 -63.724
7088.25 0.429 -63.852 0.898 25.421 0.898 25.421 0.429 -63.852
7113.208 0.427 -63.979 0.899 25.289 0.899 25.289 0.427 -63.979
7138.167 0.425 -64.106 0.9 25.158 0.9 25.158 0.425 -64.106
7163.125 0.423 -64.232 0.901 25.028 0.901 25.028 0.423 -64.232
7188.083 0.421 -64.357 0.902 24.898 0.902 24.898 0.421 -64.357
7213.042 0.419 -64.483 0.903 24.768 0.903 24.768 0.419 -64.483
7238 0.417 -64.607 0.903 24.639 0.903 24.639 0.417 -64.607
7262.958 0.415 -64.732 0.904 24.51 0.904 24.51 0.415 -64.732
7287.917 0.413 -64.856 0.905 24.382 0.905 24.382 0.413 -64.856
7312.875 0.411 -64.979 0.906 24.254 0.906 24.254 0.411 -64.979
7337.833 0.409 -65.102 0.907 24.126 0.907 24.126 0.409 -65.102
7362.792 0.407 -65.224 0.908 23.999 0.908 23.999 0.407 -65.224
7387.75 0.405 -65.346 0.909 23.873 0.909 23.873 0.405 -65.346
7412.708 0.403 -65.468 0.91 23.746 0.91 23.746 0.403 -65.468
7437.667 0.401 -65.589 0.911 23.621 0.911 23.621 0.401 -65.589
7462.625 0.399 -65.709 0.912 23.495 0.912 23.495 0.399 -65.709
7487.583 0.397 -65.83 0.912 23.37 0.912 23.37 0.397 -65.83
7512.542 0.395 -65.949 0.913 23.246 0.913 23.246 0.395 -65.949
7537.5 0.393 -66.069 0.914 23.122 0.914 23.122 0.393 -66.069
7562.458 0.391 -66.188 0.915 22.998 0.915 22.998 0.391 -66.188
7587.417 0.389 -66.306 0.916 22.875 0.916 22.875 0.389 -66.306
7612.375 0.387 -66.424 0.917 22.752 0.917 22.752 0.387 -66.424
7637.333 0.385 -66.542 0.917 22.629 0.917 22.629 0.385 -66.542
7662.292 0.383 -66.659 0.918 22.507 0.918 22.507 0.383 -66.659
7687.25 0.381 -66.775 0.919 22.385 0.919 22.385 0.381 -66.775
7712.208 0.379 -66.892 0.92 22.264 0.92 22.264 0.379 -66.892
7737.167 0.377 -67.007 0.921 22.143 0.921 22.143 0.377 -67.007
7762.125 0.375 -67.123 0.921 22.023 0.921 22.023 0.375 -67.123
7787.083 0.373 -67.238 0.922 21.902 0.922 21.902 0.373 -67.238
7812.042 0.371 -67.352 0.923 21.783 0.923 21.783 0.371 -67.352
7837 0.369 -67.466 0.924 21.663 0.924 21.663 0.369 -67.466
7861.958 0.367 -67.58 0.925 21.544 0.925 21.544 0.367 -67.58
7886.917 0.365 -67.693 0.925 21.426 0.925 21.426 0.365 -67.693
7911.875 0.363 -67.806 0.926 21.307 0.926 21.307 0.363 -67.806
7936.833 0.361 -67.919 0.927 21.19 0.927 21.19 0.361 -67.919
7961.792 0.36 -68.031 0.927 21.072 0.927 21.072 0.36 -68.031
7986.75 0.358 -68.142 0.928 20.955 0.928 20.955 0.358 -68.142
8011.708 0.356 -68.254 0.929 20.838 0.929 20.838 0.356 -68.254
8036.667 0.354 -68.364 0.93 20.722 0.93 20.722 0.354 -68.364
8061.625 0.352 -68.475 0.93 20.606 0.93 20.606 0.352 -68.475
8086.583 0.35 -68.585 0.931 20.49 0.931 20.49 0.35 -68.585
8111.542 0.348 -68.694 0.932 20.375 0.932 20.375 0.348 -68.694
8136.5 0.346 -68.804 0.932 20.26 0.932 20.26 0.346 -68.804
