# MHZ S MA R 50

50 0.834 -33.429 0.551 56.554 0.551 56.554 0.834 -33.429
74.958 0.71 -44.722 0.704 45.254 0.704 45.254 0.71 -44.722
99.917 0.603 -52.883 0.797 37.084 0.797 37.084 0.603 -52.883
124.875 0.517 -58.838 0.856 31.121 0.856 31.121 0.517 -58.838
149.833 0.449 -63.289 0.893 26.662 0.893 26.662 0.449 -63.289
174.792 0.395 -66.707 0.918 23.236 0.918 23.236 0.395 -66.707
199.75 0.351 -69.398 0.936 20.536 0.936 20.536 0.351 -69.398
224.708 0.315 -71.565 0.949 18.361 0.949 18.361 0.315 -71.565
249.667 0.285 -73.343 0.958 16.574 0.958 16.574 0.285 -73.343
274.625 0.26 -74.828 0.965 15.081 0.965 15.081 0.26 -74.828
299.583 0.239 -76.085 0.971 13.815 0.971 13.815 0.239 -76.085
324.542 0.22 -77.163 0.975 12.728 0.975 12.728 0.22 -77.163
349.5 0.204 -78.098 0.979 11.784 0.979 11.784 0.204 -78.098
374.458 0.19 -78.916 0.981 10.957 0.981 10.957 0.19 -78.916
399.417 0.178 -79.639 0.984 10.225 0.984 10.225 0.178 -79.639
424.375 0.166 -80.282 0.986 9.572 0.986 9.572 0.166 -80.282
449.333 0.156 -80.858 0.987 8.986 0.987 8.986 0.156 -80.858
474.292 0.147 -81.377 0.989 8.457 0.989 8.457 0.147 -81.377
499.25 0.139 -81.848 0.99 7.976 0.99 7.976 0.139 -81.848
524.208 0.131 -82.276 0.991 7.537 0.991 7.537 0.131 -82.276
549.167 0.124 -82.669 0.992 7.134 0.992 7.134 0.124 -82.669
574.125 0.118 -83.029 0.993 6.763 0.993 6.763 0.118 -83.029
599.083 0.112 -83.362 0.993 6.419 0.993 6.419 0.112 -83.362
624.042 0.106 -83.669 0.994 6.1 0.994 6.1 0.106 -83.669
649 0.101 -83.955 0.994 5.803 0.994 5.803 0.101 -83.955
673.958 0.096 -84.221 0.995 5.525 0.995 5.525 0.096 -84.221
698.917 0.092 -84.469 0.995 5.264 0.995 5.264 0.092 -84.469
723.875 0.087 -84.701 0.996 5.018 0.996 5.018 0.087 -84.701
748.833 0.083 -84.919 0.996 4.787 0.996 4.787 0.083 -84.919
773.792 0.08 -85.124 0.996 4.568 0.996 4.568 0.08 -85.124
798.75 0.076 -85.316 0.997 4.361 0.997 4.361 0.076 -85.316
823.708 0.073 -85.498 0.997 4.164 0.997 4.164 0.073 -85.498
848.667 0.069 -85.669 0.997 3.977 0.997 3.977 0.069 -85.669
873.625 0.066 -85.831 0.997 3.798 0.997 3.798 0.066 -85.831
898.583 0.063 -85.984 0.998 3.627 0.998 3.627 0.063 -85.984
923.542 0.06 -86.129 0.998 3.464 0.998 3.464 0.06 -86.129
948.5 0.058 -86.266 0.998 3.308 0.998 3.308 0.058 -86.266
973.458 0.055 -86.396 0.998 3.158 0.998 3.158 0.055 -86.396
998.417 0.053 -86.519 0.998 3.013 0.998 3.013 0.053 -86.519
1023.375 0.05 -86.635 0.998 2.874 0.998 2.874 0.05 -86.635
1048.333 0.048 -86.745 0.998 2.741 0.998 2.741 0.048 -86.745
1073.292 0.046 -86.849 0.999 2.611 0.999 2.611 0.046 -86.849
1098.25 0.043 -86.946 0.999 2.486 0.999 2.486 0.043 -86.946
1123.208 0.041 -87.038 0.999 2.365 0.999 2.365 0.041 -87.038
1148.167 0.039 -87.124 0.999 2.248 0.999 2.248 0.039 -87.124
1173.125 0.037 -87.204 0.999 2.135 0.999 2.135 0.037 -87.204
1198.083 0.035 -87.279 0.999 2.025 0.999 2.025 0.035 -87.279
1223.042 0.033 -87.347 0.999 1.918 0.999 1.918 0.033 -87.347
1248 0.032 -87.409 0.999 1.813 0.999 1.813 0.032 -87.409
1272.958 0.03 -87.464 0.999 1.712 0.999 1.712 0.03 -87.464
1297.917 0.028 -87.512 0.999 1.613 0.999 1.613 0.028 -87.512
1322.875 0.026 -87.553 0.999 1.517 0.999 1.517 0.026 -87.553
1347.833 0.025 -87.586 0.999 1.423 0.999 1.423 0.025 -87.586
1372.792 0.023 -87.609 0.999 1.331 0.999 1.331 0.023 -87.609
1397.75 0.022 -87.622 0.999 1.242 0.999 1.242 0.022 -87.622
1422.708 0.02 -87.623 0.999 1.154 0.999 1.154 0.02 -87.623
1447.667 0.019 -87.611 0.999 1.068 0.999 1.068 0.019 -87.611
1472.625 0.017 -87.582 0.999 0.984 0.999 0.984 0.017 -87.582
1497.583 0.016 -87.534 0.999 0.902 0.999 0.902 0.016 -87.534
1522.542 0.014 -87.46 0.999 0.821 0.999 0.821 0.014 -87.46
1547.5 0.013 -87.356 0.999 0.742 0.999 0.742 0.013 -87.356
1572.458 0.012 -87.211 1 0.664 1 0.664 0.012 -87.211
1597.417 0.01 -87.011 1 0.587 1 0.587 0.01 -87.011
1622.375 8.952e-3 -86.735 1 0.512 1 0.512 8.952e-3 -86.735
1647.333 7.665e-3 -86.347 1 0.439 1 0.439 7.665e-3 -86.347
1672.292 6.401e-3 -85.783 1 0.366 1 0.366 6.401e-3 -85.783
1697.25 5.157e-3 -84.924 1 0.294 1 0.294 5.157e-3 -84.924
1722.208 3.935e-3 -83.504 1 0.224 1 0.224 3.935e-3 -83.504
1747.167 2.737e-3 -80.807 1 0.155 1 0.155 2.737e-3 -80.807
1772.125 1.571e-3 -74.034 1 0.087 1 0.087 1.571e-3 -74.034
1797.083 546.1e-6 -38.053 1 0.019 1 0.019 546.1e-6 -38.053
1822.042 927.2e-6 62.328 1 -0.047 1 -0.047 927.2e-6 62.328
1847 2.011e-3 77.541 1 -0.113 1 -0.113 2.011e-3 77.541
1871.958 3.121e-3 81.907 1 -0.177 1 -0.177 3.121e-3 81.907
1896.917 4.227e-3 83.922 1 -0.241 1 -0.241 4.227e-3 83.922
1921.875 5.322e-3 85.063 1 -0.304 1 -0.304 5.322e-3 85.063
1946.833 6.405e-3 85.785 1 -0.366 1 -0.366 6.405e-3 85.785
1971.792 7.476e-3 86.276 1 -0.428 1 -0.428 7.476e-3 86.276
1996.75 8.535e-3 86.625 1 -0.488 1 -0.488 8.535e-3 86.625
2021.708 9.583e-3 86.88 1 -0.549 1 -0.549 9.583e-3 86.88
2046.667 0.011 87.072 1 -0.608 1 -0.608 0.011 87.072
2071.625 0.012 87.218 1 -0.667 1 -0.667 0.012 87.218
2096.583 0.013 87.329 0.999 -0.725 0.999 -0.725 0.013 87.329
2121.542 0.014 87.415 0.999 -0.783 0.999 -0.783 0.014 87.415
2146.5 0.015 87.48 0.999 -0.84 0.999 -0.84 0.015 87.48
2171.458 0.016 87.53 0.999 -0.896 0.999 -0.896 0.016 87.53
2196.417 0.017 87.566 0.999 -0.952 0.999 -0.952 0.017 87.566
2221.375 0.018 87.592 0.999 -1.008 0.999 -1.008 0.018 87.592
2246.333 0.019 87.61 0.999 -1.063 0.999 -1.063 0.019 87.61
2271.292 0.02 87.62 0.999 -1.117 0.999 -1.117 0.02 87.62
2296.25 0.02 87.624 0.999 -1.171 0.999 -1.171 0.02 87.624
2321.208 0.021 87.623 0.999 -1.225 0.999 -1.225 0.021 87.623
2346.167 0.022 87.618 0.999 -1.278 0.999 -1.278 0.022 87.618
2371.125 0.023 87.609 0.999 -1.331 0.999 -1.331 0.023 87.609
2396.083 0.024 87.597 0.999 -1.383 0.999 -1.383 0.024 87.597
2421.042 0.025 87.582 0.999 -1.435 0.999 -1.435 0.025 87.582
2446 0.026 87.564 0.999 -1.486 0.999 -1.486 0.026 87.564
2470.958 0.027 87.545 0.999 -1.537 0.999 -1.537 0.027 87.545
2495.917 0.028 87.523 0.999 -1.588 0.999 -1.588 0.028 87.523
2520.875 0.029 87.5 0.999 -1.639 0.999 -1.639 0.029 87.5
2545.833 0.029 87.476 0.999 -1.689 0.999 -1.689 0.029 87.476
2570.792 0.03 87.45 0.999 -1.739 0.999 -1.739 0.03 87.45
2595.75 0.031 87.423 0.999 -1.788 0.999 -1.788 0.031 87.423
2620.708 0.032 87.395 0.999 -1.837 0.999 -1.837 0.032 87.395
2645.667 0.033 87.366 0.999 -1.886 0.999 -1.886 0.033 87.366
2670.625 0.034 87.336 0.999 -1.935 0.999 -1.935 0.034 87.336
2695.583 0.035 87.306 0.999 -1.983 0.999 -1.983 0.035 87.306
2720.542 0.035 87.275 0.999 -2.031 0.999 -2.031 0.035 87.275
2745.5 0.036 87.243 0.999 -2.079 0.999 -2.079 0.036 87.243
2770.458 0.037 87.21 0.999 -2.126 0.999 -2.126 0.037 87.21
2795.417 0.038 87.178 0.999 -2.173 0.999 -2.173 0.038 87.178
2820.375 0.039 87.144 0.999 -2.22 0.999 -2.22 0.039 87.144
2845.333 0.04 87.111 0.999 -2.267 0.999 -2.267 0.04 87.111
2870.292 0.04 87.077 0.999 -2.313 0.999 -2.313 0.04 87.077
2895.25 0.041 87.043 0.999 -2.36 0.999 -2.36 0.041 87.043
2920.208 0.042 87.008 0.999 -2.406 0.999 -2.406 0.042 87.008
2945.167 0.043 86.973 0.999 -2.451 0.999 -2.451 0.043 86.973
2970.125 0.044 86.938 0.999 -2.497 0.999 -2.497 0.044 86.938
2995.083 0.044 86.903 0.999 -2.542 0.999 -2.542 0.044 86.903
3020.042 0.045 86.867 0.999 -2.588 0.999 -2.588 0.045 86.867
3045 0.046 86.832 0.999 -2.633 0.999 -2.633 0.046 86.832
3069.958 0.047 86.796 0.998 -2.677 0.998 -2.677 0.047 86.796
3094.917 0.047 86.76 0.998 -2.722 0.998 -2.722 0.047 86.76
3119.875 0.048 86.724 0.998 -2.766 0.998 -2.766 0.048 86.724
3144.833 0.049 86.688 0.998 -2.81 0.998 -2.81 0.049 86.688
3169.792 0.05 86.652 0.998 -2.854 0.998 -2.854 0.05 86.652
3194.75 0.051 86.615 0.998 -2.898 0.998 -2.898 0.051 86.615
3219.708 0.051 86.579 0.998 -2.942 0.998 -2.942 0.051 86.579
3244.667 0.052 86.542 0.998 -2.986 0.998 -2.986 0.052 86.542
3269.625 0.053 86.506 0.998 -3.029 0.998 -3.029 0.053 86.506
3294.583 0.054 86.469 0.998 -3.072 0.998 -3.072 0.054 86.469
3319.542 0.054 86.432 0.998 -3.115 0.998 -3.115 0.054 86.432
3344.5 0.055 86.395 0.998 -3.158 0.998 -3.158 0.055 86.395
3369.458 0.056 86.359 0.998 -3.201 0.998 -3.201 0.056 86.359
3394.417 0.057 86.322 0.998 -3.243 0.998 -3.243 0.057 86.322
3419.375 0.057 86.285 0.998 -3.286 0.998 -3.286 0.057 86.285
3444.333 0.058 86.248 0.998 -3.328 0.998 -3.328 0.058 86.248
3469.292 0.059 86.211 0.998 -3.37 0.998 -3.37 0.059 86.211
3494.25 0.06 86.174 0.998 -3.413 0.998 -3.413 0.06 86.174
3519.208 0.06 86.137 0.998 -3.454 0.998 -3.454 0.06 86.137
3544.167 0.061 86.101 0.998 -3.496 0.998 -3.496 0.061 86.101
3569.125 0.062 86.064 0.998 -3.538 0.998 -3.538 0.062 86.064
3594.083 0.062 86.027 0.998 -3.58 0.998 -3.58 0.062 86.027
3619.042 0.063 85.99 0.998 -3.621 0.998 -3.621 0.063 85.99
3644 0.064 85.953 0.998 -3.662 0.998 -3.662 0.064 85.953
3668.958 0.065 85.916 0.997 -3.704 0.997 -3.704 0.065 85.916
3693.917 0.065 85.879 0.997 -3.745 0.997 -3.745 0.065 85.879
3718.875 0.066 85.842 0.997 -3.786 0.997 -3.786 0.066 85.842
3743.833 0.067 85.805 0.997 -3.826 0.997 -3.826 0.067 85.805
3768.792 0.067 85.768 0.997 -3.867 0.997 -3.867 0.067 85.768
3793.75 0.068 85.732 0.997 -3.908 0.997 -3.908 0.068 85.732
3818.708 0.069 85.695 0.997 -3.948 0.997 -3.948 0.069 85.695
3843.667 0.07 85.658 0.997 -3.989 0.997 -3.989 0.07 85.658
3868.625 0.07 85.621 0.997 -4.029 0.997 -4.029 0.07 85.621
3893.583 0.071 85.584 0.997 -4.07 0.997 -4.07 0.071 85.584
3918.542 0.072 85.547 0.997 -4.11 0.997 -4.11 0.072 85.547
3943.5 0.072 85.511 0.997 -4.15 0.997 -4.15 0.072 85.511
3968.458 0.073 85.474 0.997 -4.19 0.997 -4.19 0.073 85.474
3993.417 0.074 85.437 0.997 -4.23 0.997 -4.23 0.074 85.437
4018.375 0.074 85.401 0.997 -4.269 0.997 -4.269 0.074 85.401
4043.333 0.075 85.364 0.997 -4.309 0.997 -4.309 0.075 85.364
4068.292 0.076 85.327 0.997 -4.349 0.997 -4.349 0.076 85.327
4093.25 0.077 85.291 0.997 -4.388 0.997 -4.388 0.077 85.291
4118.208 0.077 85.254 0.997 -4.428 0.997 -4.428 0.077 85.254
4143.167 0.078 85.217 0.997 -4.467 0.997 -4.467 0.078 85.217
4168.125 0.079 85.181 0.996 -4.507 0.996 -4.507 0.079 85.181
4193.083 0.079 85.144 0.996 -4.546 0.996 -4.546 0.079 85.144
4218.042 0.08 85.108 0.996 -4.585 0.996 -4.585 0.08 85.108
4243 0.081 85.071 0.996 -4.624 0.996 -4.624 0.081 85.071
4267.958 0.081 85.035 0.996 -4.663 0.996 -4.663 0.081 85.035
4292.917 0.082 84.999 0.996 -4.702 0.996 -4.702 0.082 84.999
4317.875 0.083 84.962 0.996 -4.741 0.996 -4.741 0.083 84.962
4342.833 0.083 84.926 0.996 -4.78 0.996 -4.78 0.083 84.926
4367.792 0.084 84.889 0.996 -4.818 0.996 -4.818 0.084 84.889
4392.75 0.085 84.853 0.996 -4.857 0.996 -4.857 0.085 84.853
4417.708 0.085 84.817 0.996 -4.896 0.996 -4.896 0.085 84.817
4442.667 0.086 84.781 0.996 -4.934 0.996 -4.934 0.086 84.781
4467.625 0.087 84.744 0.996 -4.972 0.996 -4.972 0.087 84.744
4492.583 0.087 84.708 0.996 -5.011 0.996 -5.011 0.087 84.708
4517.542 0.088 84.672 0.996 -5.049 0.996 -5.049 0.088 84.672
4542.5 0.089 84.636 0.996 -5.087 0.996 -5.087 0.089 84.636
4567.458 0.089 84.6 0.996 -5.126 0.996 -5.126 0.089 84.6
4592.417 0.09 84.564 0.996 -5.164 0.996 -5.164 0.09 84.564
4617.375 0.091 84.528 0.995 -5.202 0.995 -5.202 0.091 84.528
4642.333 0.091 84.492 0.995 -5.24 0.995 -5.24 0.091 84.492
4667.292 0.092 84.456 0.995 -5.278 0.995 -5.278 0.092 84.456
4692.25 0.093 84.42 0.995 -5.316 0.995 -5.316 0.093 84.42
4717.208 0.093 84.384 0.995 -5.354 0.995 -5.354 0.093 84.384
4742.167 0.094 84.348 0.995 -5.391 0.995 -5.391 0.094 84.348
4767.125 0.095 84.312 0.995 -5.429 0.995 -5.429 0.095 84.312
4792.083 0.095 84.276 0.995 -5.467 0.995 -5.467 0.095 84.276
4817.042 0.096 84.24 0.995 -5.504 0.995 -5.504 0.096 84.24
4842 0.097 84.204 0.995 -5.542 0.995 -5.542 0.097 84.204
4866.958 0.097 84.168 0.995 -5.579 0.995 -5.579 0.097 84.168
4891.917 0.098 84.133 0.995 -5.617 0.995 -5.617 0.098 84.133
4916.875 0.099 84.097 0.995 -5.654 0.995 -5.654 0.099 84.097
4941.833 0.099 84.061 0.995 -5.692 0.995 -5.692 0.099 84.061
4966.792 0.1 84.025 0.995 -5.729 0.995 -5.729 0.1 84.025
4991.75 0.1 83.99 0.995 -5.766 0.995 -5.766 0.1 83.99
5016.708 0.101 83.954 0.994 -5.803 0.994 -5.803 0.101 83.954
5041.667 0.102 83.919 0.994 -5.841 0.994 -5.841 0.102 83.919
5066.625 0.102 83.883 0.994 -5.878 0.994 -5.878 0.102 83.883
5091.583 0.103 83.847 0.994 -5.915 0.994 -5.915 0.103 83.847
5116.542 0.104 83.812 0.994 -5.952 0.994 -5.952 0.104 83.812
5141.5 0.104 83.776 0.994 -5.989 0.994 -5.989 0.104 83.776
5166.458 0.105 83.741 0.994 -6.026 0.994 -6.026 0.105 83.741
5191.417 0.106 83.705 0.994 -6.063 0.994 -6.063 0.106 83.705
5216.375 0.106 83.67 0.994 -6.1 0.994 -6.1 0.106 83.67
5241.333 0.107 83.634 0.994 -6.136 0.994 -6.136 0.107 83.634
5266.292 0.108 83.599 0.994 -6.173 0.994 -6.173 0.108 83.599
5291.25 0.108 83.564 0.994 -6.21 0.994 -6.21 0.108 83.564
5316.208 0.109 83.528 0.994 -6.247 0.994 -6.247 0.109 83.528
5341.167 0.109 83.493 0.994 -6.283 0.994 -6.283 0.109 83.493
5366.125 0.11 83.458 0.993 -6.32 0.993 -6.32 0.11 83.458
5391.083 0.111 83.422 0.993 -6.356 0.993 -6.356 0.111 83.422
5416.042 0.111 83.387 0.993 -6.393 0.993 -6.393 0.111 83.387
5441 0.112 83.352 0.993 -6.429 0.993 -6.429 0.112 83.352
5465.958 0.113 83.317 0.993 -6.466 0.993 -6.466 0.113 83.317
5490.917 0.113 83.282 0.993 -6.502 0.993 -6.502 0.113 83.282
5515.875 0.114 83.246 0.993 -6.539 0.993 -6.539 0.114 83.246
5540.833 0.115 83.211 0.993 -6.575 0.993 -6.575 0.115 83.211
5565.792 0.115 83.176 0.993 -6.611 0.993 -6.611 0.115 83.176
5590.75 0.116 83.141 0.993 -6.648 0.993 -6.648 0.116 83.141
5615.708 0.116 83.106 0.993 -6.684 0.993 -6.684 0.116 83.106
5640.667 0.117 83.071 0.993 -6.72 0.993 -6.72 0.117 83.071
5665.625 0.118 83.036 0.993 -6.756 0.993 -6.756 0.118 83.036
5690.583 0.118 83.001 0.993 -6.792 0.993 -6.792 0.118 83.001
5715.542 0.119 82.966 0.992 -6.828 0.992 -6.828 0.119 82.966
5740.5 0.12 82.931 0.992 -6.864 0.992 -6.864 0.12 82.931
5765.458 0.12 82.896 0.992 -6.9 0.992 -6.9 0.12 82.896
5790.417 0.121 82.861 0.992 -6.936 0.992 -6.936 0.121 82.861
5815.375 0.121 82.826 0.992 -6.972 0.992 -6.972 0.121 82.826
5840.333 0.122 82.791 0.992 -7.008 0.992 -7.008 0.122 82.791
5865.292 0.123 82.756 0.992 -7.044 0.992 -7.044 0.123 82.756
5890.25 0.123 82.722 0.992 -7.08 0.992 -7.08 0.123 82.722
5915.208 0.124 82.687 0.992 -7.116 0.992 -7.116 0.124 82.687
5940.167 0.124 82.652 0.992 -7.152 0.992 -7.152 0.124 82.652
5965.125 0.125 82.617 0.992 -7.188 0.992 -7.188 0.125 82.617
5990.083 0.126 82.582 0.992 -7.223 0.992 -7.223 0.126 82.582
6015.042 0.126 82.548 0.992 -7.259 0.992 -7.259 0.126 82.548
6040 0.127 82.513 0.991 -7.295 0.991 -7.295 0.127 82.513
6064.958 0.128 82.478 0.991 -7.33 0.991 -7.33 0.128 82.478
6089.917 0.128 82.444 0.991 -7.366 0.991 -7.366 0.128 82.444
6114.875 0.129 82.409 0.991 -7.401 0.991 -7.401 0.129 82.409
6139.833 0.129 82.374 0.991 -7.437 0.991 -7.437 0.129 82.374
6164.792 0.13 82.34 0.991 -7.473 0.991 -7.473 0.13 82.34
6189.75 0.131 82.305 0.991 -7.508 0.991 -7.508 0.131 82.305
6214.708 0.131 82.27 0.991 -7.544 0.991 -7.544 0.131 82.27
6239.667 0.132 82.236 0.991 -7.579 0.991 -7.579 0.132 82.236
6264.625 0.133 82.201 0.991 -7.614 0.991 -7.614 0.133 82.201
6289.583 0.133 82.167 0.991 -7.65 0.991 -7.65 0.133 82.167
6314.542 0.134 82.132 0.991 -7.685 0.991 -7.685 0.134 82.132
6339.5 0.134 82.098 0.991 -7.721 0.991 -7.721 0.134 82.098
6364.458 0.135 82.063 0.99 -7.756 0.99 -7.756 0.135 82.063
6389.417 0.136 82.029 0.99 -7.791 0.99 -7.791 0.136 82.029
6414.375 0.136 81.994 0.99 -7.826 0.99 -7.826 0.136 81.994
6439.333 0.137 81.96 0.99 -7.862 0.99 -7.862 0.137 81.96
6464.292 0.137 81.926 0.99 -7.897 0.99 -7.897 0.137 81.926
6489.25 0.138 81.891 0.99 -7.932 0.99 -7.932 0.138 81.891
6514.208 0.139 81.857 0.99 -7.967 0.99 -7.967 0.139 81.857
6539.167 0.139 81.823 0.99 -8.002 0.99 -8.002 0.139 81.823
6564.125 0.14 81.788 0.99 -8.037 0.99 -8.037 0.14 81.788
6589.083 0.14 81.754 0.99 -8.072 0.99 -8.072 0.14 81.754
6614.042 0.141 81.72 0.99 -8.107 0.99 -8.107 0.141 81.72
6639 0.142 81.685 0.989 -8.143 0.989 -8.143 0.142 81.685
6663.958 0.142 81.651 0.989 -8.178 0.989 -8.178 0.142 81.651
6688.917 0.143 81.617 0.989 -8.212 0.989 -8.212 0.143 81.617
6713.875 0.143 81.583 0.989 -8.247 0.989 -8.247 0.143 81.583
6738.833 0.144 81.548 0.989 -8.282 0.989 -8.282 0.144 81.548
6763.792 0.145 81.514 0.989 -8.317 0.989 -8.317 0.145 81.514
6788.75 0.145 81.48 0.989 -8.352 0.989 -8.352 0.145 81.48
6813.708 0.146 81.446 0.989 -8.387 0.989 -8.387 0.146 81.446
6838.667 0.146 81.412 0.989 -8.422 0.989 -8.422 0.146 81.412
6863.625 0.147 81.378 0.989 -8.457 0.989 -8.457 0.147 81.378
6888.583 0.148 81.343 0.989 -8.492 0.989 -8.492 0.148 81.343
6913.542 0.148 81.309 0.989 -8.526 0.989 -8.526 0.148 81.309
6938.5 0.149 81.275 0.988 -8.561 0.988 -8.561 0.149 81.275
6963.458 0.149 81.241 0.988 -8.596 0.988 -8.596 0.149 81.241
6988.417 0.15 81.207 0.988 -8.63 0.988 -8.63 0.15 81.207
7013.375 0.151 81.173 0.988 -8.665 0.988 -8.665 0.151 81.173
7038.333 0.151 81.139 0.988 -8.7 0.988 -8.7 0.151 81.139
7063.292 0.152 81.105 0.988 -8.734 0.988 -8.734 0.152 81.105
7088.25 0.152 81.071 0.988 -8.769 0.988 -8.769 0.152 81.071
7113.208 0.153 81.037 0.988 -8.804 0.988 -8.804 0.153 81.037
7138.167 0.154 81.003 0.988 -8.838 0.988 -8.838 0.154 81.003
7163.125 0.154 80.969 0.988 -8.873 0.988 -8.873 0.154 80.969
7188.083 0.155 80.935 0.988 -8.907 0.988 -8.907 0.155 80.935
7213.042 0.155 80.902 0.987 -8.942 0.987 -8.942 0.155 80.902
7238 0.156 80.868 0.987 -8.976 0.987 -8.976 0.156 80.868
7262.958 0.157 80.834 0.987 -9.011 0.987 -9.011 0.157 80.834
7287.917 0.157 80.8 0.987 -9.045 0.987 -9.045 0.157 80.8
7312.875 0.158 80.766 0.987 -9.08 0.987 -9.08 0.158 80.766
7337.833 0.158 80.732 0.987 -9.114 0.987 -9.114 0.158 80.732
7362.792 0.159 80.699 0.987 -9.149 0.987 -9.149 0.159 80.699
7387.75 0.16 80.665 0.987 -9.183 0.987 -9.183 0.16 80.665
7412.708 0.16 80.631 0.987 -9.217 0.987 -9.217 0.16 80.631
7437.667 0.161 80.597 0.987 -9.252 0.987 -9.252 0.161 80.597
7462.625 0.161 80.563 0.986 -9.286 0.986 -9.286 0.161 80.563
7487.583 0.162 80.53 0.986 -9.32 0.986 -9.32 0.162 80.53
7512.542 0.163 80.496 0.986 -9.354 0.986 -9.354 0.163 80.496
7537.5 0.163 80.462 0.986 -9.389 0.986 -9.389 0.163 80.462
7562.458 0.164 80.429 0.986 -9.423 0.986 -9.423 0.164 80.429
7587.417 0.164 80.395 0.986 -9.457 0.986 -9.457 0.164 80.395
7612.375 0.165 80.361 0.986 -9.491 0.986 -9.491 0.165 80.361
7637.333 0.165 80.328 0.986 -9.526 0.986 -9.526 0.165 80.328
7662.292 0.166 80.294 0.986 -9.56 0.986 -9.56 0.166 80.294
7687.25 0.167 80.26 0.986 -9.594 0.986 -9.594 0.167 80.26
7712.208 0.167 80.227 0.985 -9.628 0.985 -9.628 0.167 80.227
7737.167 0.168 80.193 0.985 -9.662 0.985 -9.662 0.168 80.193
7762.125 0.168 80.16 0.985 -9.696 0.985 -9.696 0.168 80.16
7787.083 0.169 80.126 0.985 -9.73 0.985 -9.73 0.169 80.126
7812.042 0.17 80.093 0.985 -9.764 0.985 -9.764 0.17 80.093
7837 0.17 80.059 0.985 -9.798 0.985 -9.798 0.17 80.059
7861.958 0.171 80.026 0.985 -9.832 0.985 -9.832 0.171 80.026
7886.917 0.171 79.992 0.985 -9.866 0.985 -9.866 0.171 79.992
7911.875 0.172 79.959 0.985 -9.9 0.985 -9.9 0.172 79.959
7936.833 0.173 79.925 0.985 -9.934 0.985 -9.934 0.173 79.925
7961.792 0.173 79.892 0.984 -9.968 0.984 -9.968 0.173 79.892
7986.75 0.174 79.858 0.984 -10.002 0.984 -10.002 0.174 79.858
8011.708 0.174 79.825 0.984 -10.036 0.984 -10.036 0.174 79.825
8036.667 0.175 79.791 0.984 -10.07 0.984 -10.07 0.175 79.791
8061.625 0.175 79.758 0.984 -10.104 0.984 -10.104 0.175 79.758
8086.583 0.176 79.725 0.984 -10.138 0.984 -10.138 0.176 79.725
8111.542 0.177 79.691 0.984 -10.172 0.984 -10.172 0.177 79.691
8136.5 0.177 79.658 0.984 -10.205 0.984 -10.205 0.177 79.658
8161.458 0.178 79.624 0.984 -10.239 0.984 -10.239 0.178 79.624
8186.417 0.178 79.591 0.984 -10.273 0.984 -10.273 0.178 79.591
8211.375 0.179 79.558 0.983 -10.307 0.983 -10.307 0.179 79.558
8236.333 0.179 79.524 0.983 -10.34 0.983 -10.34 0.179 79.524
8261.292 0.18 79.491 0.983 -10.374 0.983 -10.374 0.18 79.491
8286.25 0.181 79.458 0.983 -10.408 0.983 -10.408 0.181 79.458
8311.208 0.181 79.425 0.983 -10.442 0.983 -10.442 0.181 79.425
8336.167 0.182 79.391 0.983 -10.475 0.983 -10.475 0.182 79.391
