# MHZ S MA R 50

50 0.996 -4.849 0.085 85.147 0.085 85.147 0.996 -4.849
74.958 0.992 -7.249 0.126 82.745 0.126 82.745 0.992 -7.249
99.917 0.986 -9.625 0.167 80.367 0.167 80.367 0.986 -9.625
124.875 0.978 -11.969 0.207 78.02 0.207 78.02 0.978 -11.969
149.833 0.969 -14.276 0.247 75.712 0.247 75.712 0.969 -14.276
174.792 0.959 -16.538 0.285 73.447 0.285 73.447 0.959 -16.538
199.75 0.947 -18.751 0.321 71.232 0.321 71.232 0.947 -18.751
224.708 0.934 -20.911 0.357 69.07 0.357 69.07 0.934 -20.911
249.667 0.92 -23.013 0.391 66.966 0.391 66.966 0.92 -23.013
274.625 0.906 -25.055 0.423 64.922 0.423 64.922 0.906 -25.055
299.583 0.891 -27.035 0.455 62.94 0.455 62.94 0.891 -27.035
324.542 0.875 -28.951 0.484 61.021 0.484 61.021 0.875 -28.951
349.5 0.859 -30.803 0.512 59.167 0.512 59.167 0.859 -30.803
374.458 0.842 -32.591 0.539 57.378 0.539 57.378 0.842 -32.591
399.417 0.826 -34.314 0.564 55.653 0.564 55.653 0.826 -34.314
424.375 0.809 -35.973 0.587 53.991 0.587 53.991 0.809 -35.973
449.333 0.792 -37.57 0.61 52.392 0.61 52.392 0.792 -37.57
474.292 0.776 -39.106 0.631 50.854 0.631 50.854 0.776 -39.106
499.25 0.759 -40.583 0.651 49.375 0.651 49.375 0.759 -40.583
524.208 0.743 -42.001 0.669 47.954 0.669 47.954 0.743 -42.001
549.167 0.726 -43.364 0.687 46.589 0.687 46.589 0.726 -43.364
574.125 0.711 -44.673 0.703 45.278 0.703 45.278 0.711 -44.673
599.083 0.695 -45.931 0.718 44.018 0.718 44.018 0.695 -45.931
624.042 0.68 -47.138 0.733 42.809 0.733 42.809 0.68 -47.138
649 0.665 -48.298 0.747 41.647 0.747 41.647 0.665 -48.298
673.958 0.65 -49.412 0.759 40.53 0.759 40.53 0.65 -49.412
698.917 0.636 -50.483 0.771 39.457 0.771 39.457 0.636 -50.483
723.875 0.622 -51.512 0.783 38.426 0.783 38.426 0.622 -51.512
748.833 0.608 -52.501 0.793 37.435 0.793 37.435 0.608 -52.501
773.792 0.595 -53.452 0.803 36.481 0.803 36.481 0.595 -53.452
798.75 0.582 -54.368 0.813 35.563 0.813 35.563 0.582 -54.368
823.708 0.569 -55.249 0.822 34.68 0.822 34.68 0.569 -55.249
848.667 0.557 -56.097 0.83 33.83 0.83 33.83 0.557 -56.097
873.625 0.545 -56.914 0.838 33.011 0.838 33.011 0.545 -56.914
898.583 0.533 -57.701 0.845 32.221 0.845 32.221 0.533 -57.701
923.542 0.522 -58.46 0.852 31.46 0.852 31.46 0.522 -58.46
948.5 0.511 -59.192 0.859 30.725 0.859 30.725 0.511 -59.192
973.458 0.5 -59.898 0.865 30.016 0.865 30.016 0.5 -59.898
998.417 0.49 -60.58 0.871 29.332 0.871 29.332 0.49 -60.58
1023.375 0.48 -61.239 0.877 28.671 0.877 28.671 0.48 -61.239
1048.333 0.47 -61.876 0.882 28.032 0.882 28.032 0.47 -61.876
1073.292 0.46 -62.491 0.887 27.414 0.887 27.414 0.46 -62.491
1098.25 0.451 -63.086 0.892 26.816 0.892 26.816 0.451 -63.086
1123.208 0.442 -63.663 0.896 26.238 0.896 26.238 0.442 -63.663
1148.167 0.433 -64.22 0.9 25.677 0.9 25.677 0.433 -64.22
1173.125 0.425 -64.761 0.905 25.134 0.905 25.134 0.425 -64.761
1198.083 0.416 -65.284 0.908 24.608 0.908 24.608 0.416 -65.284
1223.042 0.408 -65.792 0.912 24.098 0.912 24.098 0.408 -65.792
1248 0.4 -66.285 0.916 23.603 0.916 23.603 0.4 -66.285
1272.958 0.393 -66.762 0.919 23.122 0.919 23.122 0.393 -66.762
1297.917 0.385 -67.226 0.922 22.656 0.922 22.656 0.385 -67.226
1322.875 0.378 -67.677 0.925 22.202 0.925 22.202 0.378 -67.677
1347.833 0.371 -68.115 0.928 21.762 0.928 21.762 0.371 -68.115
1372.792 0.364 -68.541 0.931 21.333 0.931 21.333 0.364 -68.541
1397.75 0.357 -68.955 0.933 20.916 0.933 20.916 0.357 -68.955
1422.708 0.35 -69.358 0.936 20.511 0.936 20.511 0.35 -69.358
1447.667 0.344 -69.75 0.938 20.116 0.938 20.116 0.344 -69.75
1472.625 0.338 -70.131 0.94 19.731 0.94 19.731 0.338 -70.131
1497.583 0.331 -70.503 0.943 19.357 0.943 19.357 0.331 -70.503
1522.542 0.325 -70.866 0.945 18.991 0.945 18.991 0.325 -70.866
1547.5 0.32 -71.219 0.947 18.635 0.947 18.635 0.32 -71.219
1572.458 0.314 -71.563 0.949 18.288 0.949 18.288 0.314 -71.563
1597.417 0.308 -71.899 0.951 17.949 0.951 17.949 0.308 -71.899
1622.375 0.303 -72.227 0.952 17.618 0.952 17.618 0.303 -72.227
1647.333 0.297 -72.548 0.954 17.294 0.954 17.294 0.297 -72.548
1672.292 0.292 -72.86 0.956 16.979 0.956 16.979 0.292 -72.86
1697.25 0.287 -73.166 0.957 16.67 0.957 16.67 0.287 -73.166
1722.208 0.282 -73.464 0.959 16.368 0.959 16.368 0.282 -73.464
1747.167 0.277 -73.756 0.96 16.073 0.96 16.073 0.277 -73.756
1772.125 0.272 -74.041 0.961 15.785 0.961 15.785 0.272 -74.041
1797.083 0.267 -74.32 0.963 15.502 0.963 15.502 0.267 -74.32
1822.042 0.263 -74.593 0.964 15.226 0.964 15.226 0.263 -74.593
1847 0.258 -74.86 0.965 14.955 0.965 14.955 0.258 -74.86
1871.958 0.254 -75.122 0.966 14.69 0.966 14.69 0.254 -75.122
1896.917 0.249 -75.378 0.968 14.43 0.968 14.43 0.249 -75.378
1921.875 0.245 -75.629 0.969 14.176 0.969 14.176 0.245 -75.629
1946.833 0.241 -75.875 0.97 13.926 0.97 13.926 0.241 -75.875
1971.792 0.237 -76.116 0.971 13.682 0.971 13.682 0.237 -76.116
1996.75 0.232 -76.352 0.972 13.442 0.972 13.442 0.232 -76.352
2021.708 0.228 -76.584 0.973 13.206 0.973 13.206 0.228 -76.584
2046.667 0.225 -76.811 0.974 12.975 0.974 12.975 0.225 -76.811
2071.625 0.221 -77.034 0.975 12.748 0.975 12.748 0.221 -77.034
2096.583 0.217 -77.253 0.975 12.525 0.975 12.525 0.217 -77.253
2121.542 0.213 -77.468 0.976 12.306 0.976 12.306 0.213 -77.468
2146.5 0.209 -77.679 0.977 12.091 0.977 12.091 0.209 -77.679
2171.458 0.206 -77.886 0.978 11.88 0.978 11.88 0.206 -77.886
2196.417 0.202 -78.089 0.978 11.673 0.978 11.673 0.202 -78.089
2221.375 0.199 -78.289 0.979 11.468 0.979 11.468 0.199 -78.289
2246.333 0.195 -78.485 0.98 11.268 0.98 11.268 0.195 -78.485
2271.292 0.192 -78.678 0.981 11.07 0.981 11.07 0.192 -78.678
2296.25 0.189 -78.868 0.981 10.876 0.981 10.876 0.189 -78.868
2321.208 0.185 -79.054 0.982 10.685 0.982 10.685 0.185 -79.054
2346.167 0.182 -79.237 0.982 10.497 0.982 10.497 0.182 -79.237
2371.125 0.179 -79.418 0.983 10.311 0.983 10.311 0.179 -79.418
2396.083 0.176 -79.595 0.984 10.129 0.984 10.129 0.176 -79.595
2421.042 0.173 -79.77 0.984 9.949 0.984 9.949 0.173 -79.77
2446 0.17 -79.942 0.985 9.773 0.985 9.773 0.17 -79.942
2470.958 0.167 -80.111 0.985 9.598 0.985 9.598 0.167 -80.111
2495.917 0.164 -80.277 0.986 9.426 0.986 9.426 0.164 -80.277
2520.875 0.161 -80.441 0.986 9.257 0.986 9.257 0.161 -80.441
2545.833 0.158 -80.602 0.987 9.09 0.987 9.09 0.158 -80.602
2570.792 0.155 -80.761 0.987 8.925 0.987 8.925 0.155 -80.761
2595.75 0.152 -80.917 0.987 8.763 0.987 8.763 0.152 -80.917
2620.708 0.15 -81.072 0.988 8.603 0.988 8.603 0.15 -81.072
2645.667 0.147 -81.223 0.988 8.445 0.988 8.445 0.147 -81.223
2670.625 0.144 -81.373 0.989 8.289 0.989 8.289 0.144 -81.373
2695.583 0.142 -81.52 0.989 8.135 0.989 8.135 0.142 -81.52
2720.542 0.139 -81.666 0.989 7.983 0.989 7.983 0.139 -81.666
2745.5 0.136 -81.809 0.99 7.833 0.99 7.833 0.136 -81.809
2770.458 0.134 -81.95 0.99 7.685 0.99 7.685 0.134 -81.95
2795.417 0.131 -82.089 0.991 7.539 0.991 7.539 0.131 -82.089
2820.375 0.129 -82.226 0.991 7.395 0.991 7.395 0.129 -82.226
2845.333 0.126 -82.361 0.991 7.252 0.991 7.252 0.126 -82.361
2870.292 0.124 -82.494 0.991 7.111 0.991 7.111 0.124 -82.494
2895.25 0.121 -82.625 0.992 6.972 0.992 6.972 0.121 -82.625
2920.208 0.119 -82.755 0.992 6.834 0.992 6.834 0.119 -82.755
2945.167 0.117 -82.883 0.992 6.698 0.992 6.698 0.117 -82.883
2970.125 0.114 -83.008 0.993 6.563 0.993 6.563 0.114 -83.008
2995.083 0.112 -83.133 0.993 6.43 0.993 6.43 0.112 -83.133
3020.042 0.11 -83.255 0.993 6.299 0.993 6.299 0.11 -83.255
3045 0.107 -83.376 0.993 6.169 0.993 6.169 0.107 -83.376
3069.958 0.105 -83.494 0.994 6.04 0.994 6.04 0.105 -83.494
3094.917 0.103 -83.612 0.994 5.913 0.994 5.913 0.103 -83.612
3119.875 0.101 -83.727 0.994 5.787 0.994 5.787 0.101 -83.727
3144.833 0.099 -83.841 0.994 5.662 0.994 5.662 0.099 -83.841
3169.792 0.097 -83.953 0.994 5.539 0.994 5.539 0.097 -83.953
3194.75 0.094 -84.064 0.995 5.417 0.995 5.417 0.094 -84.064
3219.708 0.092 -84.173 0.995 5.296 0.995 5.296 0.092 -84.173
3244.667 0.09 -84.28 0.995 5.176 0.995 5.176 0.09 -84.28
3269.625 0.088 -84.386 0.995 5.058 0.995 5.058 0.088 -84.386
3294.583 0.086 -84.49 0.995 4.94 0.995 4.94 0.086 -84.49
3319.542 0.084 -84.592 0.996 4.824 0.996 4.824 0.084 -84.592
3344.5 0.082 -84.693 0.996 4.709 0.996 4.709 0.082 -84.693
3369.458 0.08 -84.792 0.996 4.595 0.996 4.595 0.08 -84.792
3394.417 0.078 -84.89 0.996 4.482 0.996 4.482 0.078 -84.89
3419.375 0.076 -84.986 0.996 4.37 0.996 4.37 0.076 -84.986
3444.333 0.074 -85.08 0.996 4.259 0.996 4.259 0.074 -85.08
3469.292 0.072 -85.172 0.997 4.149 0.997 4.149 0.072 -85.172
3494.25 0.07 -85.263 0.997 4.04 0.997 4.04 0.07 -85.263
3519.208 0.069 -85.352 0.997 3.932 0.997 3.932 0.069 -85.352
3544.167 0.067 -85.439 0.997 3.825 0.997 3.825 0.067 -85.439
3569.125 0.065 -85.524 0.997 3.719 0.997 3.719 0.065 -85.524
3594.083 0.063 -85.607 0.997 3.613 0.997 3.613 0.063 -85.607
3619.042 0.061 -85.688 0.997 3.509 0.997 3.509 0.061 -85.688
3644 0.059 -85.767 0.997 3.405 0.997 3.405 0.059 -85.767
3668.958 0.058 -85.844 0.997 3.303 0.997 3.303 0.058 -85.844
3693.917 0.056 -85.919 0.998 3.201 0.998 3.201 0.056 -85.919
3718.875 0.054 -85.991 0.998 3.1 0.998 3.1 0.054 -85.991
3743.833 0.052 -86.061 0.998 2.999 0.998 2.999 0.052 -86.061
3768.792 0.051 -86.128 0.998 2.9 0.998 2.9 0.051 -86.128
3793.75 0.049 -86.192 0.998 2.801 0.998 2.801 0.049 -86.192
3818.708 0.047 -86.254 0.998 2.703 0.998 2.703 0.047 -86.254
3843.667 0.045 -86.312 0.998 2.606 0.998 2.606 0.045 -86.312
3868.625 0.044 -86.367 0.998 2.509 0.998 2.509 0.044 -86.367
3893.583 0.042 -86.418 0.998 2.414 0.998 2.414 0.042 -86.418
3918.542 0.04 -86.465 0.998 2.318 0.998 2.318 0.04 -86.465
3943.5 0.039 -86.508 0.998 2.224 0.998 2.224 0.039 -86.508
3968.458 0.037 -86.546 0.998 2.13 0.998 2.13 0.037 -86.546
3993.417 0.036 -86.579 0.999 2.037 0.999 2.037 0.036 -86.579
4018.375 0.034 -86.605 0.999 1.945 0.999 1.945 0.034 -86.605
4043.333 0.032 -86.625 0.999 1.853 0.999 1.853 0.032 -86.625
4068.292 0.031 -86.638 0.999 1.762 0.999 1.762 0.031 -86.638
4093.25 0.029 -86.641 0.999 1.671 0.999 1.671 0.029 -86.641
4118.208 0.028 -86.635 0.999 1.581 0.999 1.581 0.028 -86.635
4143.167 0.026 -86.618 0.999 1.492 0.999 1.492 0.026 -86.618
4168.125 0.024 -86.587 0.999 1.403 0.999 1.403 0.024 -86.587
4193.083 0.023 -86.541 0.999 1.315 0.999 1.315 0.023 -86.541
4218.042 0.021 -86.475 0.999 1.227 0.999 1.227 0.021 -86.475
4243 0.02 -86.387 0.999 1.14 0.999 1.14 0.02 -86.387
4267.958 0.018 -86.27 0.999 1.054 0.999 1.054 0.018 -86.27
4292.917 0.017 -86.119 0.999 0.967 0.999 0.967 0.017 -86.119
4317.875 0.015 -85.922 0.999 0.882 0.999 0.882 0.015 -85.922
4342.833 0.014 -85.668 0.999 0.797 0.999 0.797 0.014 -85.668
4367.792 0.012 -85.334 0.999 0.713 0.999 0.713 0.012 -85.334
4392.75 0.011 -84.892 0.999 0.629 0.999 0.629 0.011 -84.892
4417.708 9.553e-3 -84.293 0.999 0.545 0.999 0.545 9.553e-3 -84.293
4442.667 8.112e-3 -83.456 0.999 0.462 0.999 0.462 8.112e-3 -83.456
4467.625 6.682e-3 -82.23 0.999 0.38 0.999 0.38 6.682e-3 -82.23
4492.583 5.265e-3 -80.307 0.999 0.298 0.999 0.298 5.265e-3 -80.307
4517.542 3.868e-3 -76.944 0.999 0.216 0.999 0.216 3.868e-3 -76.944
4542.5 2.507e-3 -69.816 0.999 0.135 0.999 0.135 2.507e-3 -69.816
4567.458 1.279e-3 -47.726 0.999 0.054 0.999 0.054 1.279e-3 -47.726
4592.417 971.6e-6 27.762 0.999 -0.026 0.999 -0.026 971.6e-6 27.762
4617.375 2.036e-3 64.922 0.999 -0.106 0.999 -0.106 2.036e-3 64.922
4642.333 3.343e-3 74.917 0.999 -0.185 0.999 -0.185 3.343e-3 74.917
4667.292 4.688e-3 79.172 0.999 -0.264 0.999 -0.264 4.688e-3 79.172
4692.25 6.041e-3 81.477 0.999 -0.343 0.999 -0.343 6.041e-3 81.477
4717.208 7.393e-3 82.903 0.999 -0.421 0.999 -0.421 7.393e-3 82.903
4742.167 8.741e-3 83.859 0.999 -0.498 0.999 -0.498 8.741e-3 83.859
4767.125 0.01 84.535 0.999 -0.576 0.999 -0.576 0.01 84.535
4792.083 0.011 85.033 0.999 -0.653 0.999 -0.653 0.011 85.033
4817.042 0.013 85.408 0.999 -0.729 0.999 -0.729 0.013 85.408
4842 0.014 85.696 0.999 -0.805 0.999 -0.805 0.014 85.696
4866.958 0.015 85.92 0.999 -0.881 0.999 -0.881 0.015 85.92
4891.917 0.017 86.097 0.999 -0.957 0.999 -0.957 0.017 86.097
4916.875 0.018 86.236 0.999 -1.032 0.999 -1.032 0.018 86.236
4941.833 0.019 86.345 0.999 -1.106 0.999 -1.106 0.019 86.345
4966.792 0.021 86.431 0.999 -1.181 0.999 -1.181 0.021 86.431
4991.75 0.022 86.498 0.999 -1.255 0.999 -1.255 0.022 86.498
5016.708 0.023 86.549 0.999 -1.328 0.999 -1.328 0.023 86.549
5041.667 0.024 86.587 0.999 -1.402 0.999 -1.402 0.024 86.587
5066.625 0.026 86.613 0.999 -1.475 0.999 -1.475 0.026 86.613
5091.583 0.027 86.63 0.999 -1.547 0.999 -1.547 0.027 86.63
5116.542 0.028 86.639 0.999 -1.62 0.999 -1.62 0.028 86.639
5141.5 0.03 86.641 0.999 -1.692 0.999 -1.692 0.03 86.641
5166.458 0.031 86.637 0.999 -1.764 0.999 -1.764 0.031 86.637
5191.417 0.032 86.628 0.999 -1.835 0.999 -1.835 0.032 86.628
5216.375 0.033 86.614 0.999 -1.906 0.999 -1.906 0.033 86.614
5241.333 0.035 86.597 0.999 -1.977 0.999 -1.977 0.035 86.597
5266.292 0.036 86.575 0.999 -2.047 0.999 -2.047 0.036 86.575
5291.25 0.037 86.551 0.998 -2.118 0.998 -2.118 0.037 86.551
5316.208 0.038 86.523 0.998 -2.187 0.998 -2.187 0.038 86.523
5341.167 0.039 86.494 0.998 -2.257 0.998 -2.257 0.039 86.494
5366.125 0.041 86.462 0.998 -2.326 0.998 -2.326 0.041 86.462
5391.083 0.042 86.427 0.998 -2.396 0.998 -2.396 0.042 86.427
5416.042 0.043 86.392 0.998 -2.464 0.998 -2.464 0.043 86.392
5441 0.044 86.354 0.998 -2.533 0.998 -2.533 0.044 86.354
5465.958 0.045 86.315 0.998 -2.601 0.998 -2.601 0.045 86.315
5490.917 0.047 86.275 0.998 -2.669 0.998 -2.669 0.047 86.275
5515.875 0.048 86.233 0.998 -2.737 0.998 -2.737 0.048 86.233
5540.833 0.049 86.19 0.998 -2.804 0.998 -2.804 0.049 86.19
5565.792 0.05 86.147 0.998 -2.871 0.998 -2.871 0.05 86.147
5590.75 0.051 86.102 0.998 -2.938 0.998 -2.938 0.051 86.102
5615.708 0.052 86.057 0.998 -3.005 0.998 -3.005 0.052 86.057
5640.667 0.054 86.011 0.998 -3.072 0.998 -3.072 0.054 86.011
5665.625 0.055 85.964 0.998 -3.138 0.998 -3.138 0.055 85.964
5690.583 0.056 85.916 0.998 -3.204 0.998 -3.204 0.056 85.916
5715.542 0.057 85.868 0.998 -3.27 0.998 -3.27 0.057 85.868
5740.5 0.058 85.82 0.997 -3.335 0.997 -3.335 0.058 85.82
5765.458 0.059 85.771 0.997 -3.4 0.997 -3.4 0.059 85.771
5790.417 0.06 85.721 0.997 -3.466 0.997 -3.466 0.06 85.721
5815.375 0.062 85.671 0.997 -3.53 0.997 -3.53 0.062 85.671
5840.333 0.063 85.621 0.997 -3.595 0.997 -3.595 0.063 85.621
5865.292 0.064 85.571 0.997 -3.659 0.997 -3.659 0.064 85.571
5890.25 0.065 85.52 0.997 -3.724 0.997 -3.724 0.065 85.52
5915.208 0.066 85.469 0.997 -3.788 0.997 -3.788 0.066 85.469
5940.167 0.067 85.417 0.997 -3.851 0.997 -3.851 0.067 85.417
5965.125 0.068 85.366 0.997 -3.915 0.997 -3.915 0.068 85.366
5990.083 0.069 85.314 0.997 -3.978 0.997 -3.978 0.069 85.314
6015.042 0.07 85.262 0.997 -4.041 0.997 -4.041 0.07 85.262
6040 0.072 85.209 0.997 -4.104 0.997 -4.104 0.072 85.209
6064.958 0.073 85.157 0.996 -4.167 0.996 -4.167 0.073 85.157
6089.917 0.074 85.105 0.996 -4.23 0.996 -4.23 0.074 85.105
6114.875 0.075 85.052 0.996 -4.292 0.996 -4.292 0.075 85.052
6139.833 0.076 84.999 0.996 -4.354 0.996 -4.354 0.076 84.999
6164.792 0.077 84.946 0.996 -4.416 0.996 -4.416 0.077 84.946
6189.75 0.078 84.893 0.996 -4.478 0.996 -4.478 0.078 84.893
6214.708 0.079 84.84 0.996 -4.539 0.996 -4.539 0.079 84.84
6239.667 0.08 84.787 0.996 -4.601 0.996 -4.601 0.08 84.787
6264.625 0.081 84.734 0.996 -4.662 0.996 -4.662 0.081 84.734
6289.583 0.082 84.681 0.996 -4.723 0.996 -4.723 0.082 84.681
6314.542 0.083 84.628 0.996 -4.784 0.996 -4.784 0.083 84.628
6339.5 0.084 84.574 0.996 -4.845 0.996 -4.845 0.084 84.574
6364.458 0.086 84.521 0.995 -4.905 0.995 -4.905 0.086 84.521
6389.417 0.087 84.468 0.995 -4.965 0.995 -4.965 0.087 84.468
6414.375 0.088 84.414 0.995 -5.026 0.995 -5.026 0.088 84.414
6439.333 0.089 84.361 0.995 -5.086 0.995 -5.086 0.089 84.361
6464.292 0.09 84.308 0.995 -5.145 0.995 -5.145 0.09 84.308
6489.25 0.091 84.254 0.995 -5.205 0.995 -5.205 0.091 84.254
6514.208 0.092 84.201 0.995 -5.265 0.995 -5.265 0.092 84.201
6539.167 0.093 84.148 0.995 -5.324 0.995 -5.324 0.093 84.148
6564.125 0.094 84.094 0.995 -5.383 0.995 -5.383 0.094 84.094
6589.083 0.095 84.041 0.995 -5.442 0.995 -5.442 0.095 84.041
6614.042 0.096 83.988 0.995 -5.501 0.995 -5.501 0.096 83.988
6639 0.097 83.934 0.994 -5.56 0.994 -5.56 0.097 83.934
6663.958 0.098 83.881 0.994 -5.618 0.994 -5.618 0.098 83.881
6688.917 0.099 83.828 0.994 -5.677 0.994 -5.677 0.099 83.828
6713.875 0.1 83.775 0.994 -5.735 0.994 -5.735 0.1 83.775
6738.833 0.101 83.722 0.994 -5.793 0.994 -5.793 0.101 83.722
6763.792 0.102 83.669 0.994 -5.851 0.994 -5.851 0.102 83.669
6788.75 0.103 83.615 0.994 -5.909 0.994 -5.909 0.103 83.615
6813.708 0.104 83.562 0.994 -5.966 0.994 -5.966 0.104 83.562
6838.667 0.105 83.509 0.994 -6.024 0.994 -6.024 0.105 83.509
6863.625 0.106 83.456 0.994 -6.081 0.994 -6.081 0.106 83.456
6888.583 0.107 83.404 0.993 -6.139 0.993 -6.139 0.107 83.404
6913.542 0.108 83.351 0.993 -6.196 0.993 -6.196 0.108 83.351
6938.5 0.109 83.298 0.993 -6.253 0.993 -6.253 0.109 83.298
6963.458 0.11 83.245 0.993 -6.309 0.993 -6.309 0.11 83.245
6988.417 0.111 83.193 0.993 -6.366 0.993 -6.366 0.111 83.193
7013.375 0.112 83.14 0.993 -6.423 0.993 -6.423 0.112 83.14
7038.333 0.113 83.087 0.993 -6.479 0.993 -6.479 0.113 83.087
7063.292 0.114 83.035 0.993 -6.535 0.993 -6.535 0.114 83.035
7088.25 0.115 82.982 0.993 -6.591 0.993 -6.591 0.115 82.982
7113.208 0.116 82.93 0.992 -6.647 0.992 -6.647 0.116 82.93
7138.167 0.117 82.878 0.992 -6.703 0.992 -6.703 0.117 82.878
7163.125 0.118 82.825 0.992 -6.759 0.992 -6.759 0.118 82.825
7188.083 0.119 82.773 0.992 -6.815 0.992 -6.815 0.119 82.773
7213.042 0.12 82.721 0.992 -6.87 0.992 -6.87 0.12 82.721
7238 0.121 82.669 0.992 -6.926 0.992 -6.926 0.121 82.669
7262.958 0.122 82.617 0.992 -6.981 0.992 -6.981 0.122 82.617
7287.917 0.122 82.565 0.992 -7.036 0.992 -7.036 0.122 82.565
7312.875 0.123 82.513 0.991 -7.091 0.991 -7.091 0.123 82.513
7337.833 0.124 82.461 0.991 -7.146 0.991 -7.146 0.124 82.461
7362.792 0.125 82.409 0.991 -7.201 0.991 -7.201 0.125 82.409
7387.75 0.126 82.358 0.991 -7.256 0.991 -7.256 0.126 82.358
7412.708 0.127 82.306 0.991 -7.31 0.991 -7.31 0.127 82.306
7437.667 0.128 82.254 0.991 -7.365 0.991 -7.365 0.128 82.254
7462.625 0.129 82.203 0.991 -7.419 0.991 -7.419 0.129 82.203
7487.583 0.13 82.151 0.991 -7.473 0.991 -7.473 0.13 82.151
7512.542 0.131 82.1 0.991 -7.527 0.991 -7.527 0.131 82.1
7537.5 0.132 82.049 0.99 -7.581 0.99 -7.581 0.132 82.049
7562.458 0.133 81.998 0.99 -7.635 0.99 -7.635 0.133 81.998
7587.417 0.134 81.946 0.99 -7.689 0.99 -7.689 0.134 81.946
7612.375 0.135 81.895 0.99 -7.743 0.99 -7.743 0.135 81.895
7637.333 0.136 81.844 0.99 -7.796 0.99 -7.796 0.136 81.844
7662.292 0.137 81.793 0.99 -7.85 0.99 -7.85 0.137 81.793
7687.25 0.137 81.742 0.99 -7.903 0.99 -7.903 0.137 81.742
7712.208 0.138 81.691 0.99 -7.956 0.99 -7.956 0.138 81.691
7737.167 0.139 81.641 0.989 -8.009 0.989 -8.009 0.139 81.641
7762.125 0.14 81.59 0.989 -8.062 0.989 -8.062 0.14 81.59
7787.083 0.141 81.539 0.989 -8.115 0.989 -8.115 0.141 81.539
7812.042 0.142 81.489 0.989 -8.168 0.989 -8.168 0.142 81.489
7837 0.143 81.438 0.989 -8.221 0.989 -8.221 0.143 81.438
7861.958 0.144 81.388 0.989 -8.274 0.989 -8.274 0.144 81.388
7886.917 0.145 81.337 0.989 -8.326 0.989 -8.326 0.145 81.337
7911.875 0.146 81.287 0.988 -8.378 0.988 -8.378 0.146 81.287
7936.833 0.147 81.237 0.988 -8.431 0.988 -8.431 0.147 81.237
7961.792 0.148 81.187 0.988 -8.483 0.988 -8.483 0.148 81.187
7986.75 0.148 81.137 0.988 -8.535 0.988 -8.535 0.148 81.137
8011.708 0.149 81.087 0.988 -8.587 0.988 -8.587 0.149 81.087
8036.667 0.15 81.037 0.988 -8.639 0.988 -8.639 0.15 81.037
8061.625 0.151 80.987 0.988 -8.691 0.988 -8.691 0.151 80.987
8086.583 0.152 80.937 0.988 -8.743 0.988 -8.743 0.152 80.937
8111.542 0.153 80.887 0.987 -8.795 0.987 -8.795 0.153 80.887
8136.5 0.154 80.837 0.987 -8.846 0.987 -8.846 0.154 80.837
8161.458 0.155 80.788 0.987 -8.898 0.987 -8.898 0.155 80.788
8186.417 0.156 80.738 0.987 -8.949 0.987 -8.949 0.156 80.738
8211.375 0.156 80.689 0.987 -9 0.987 -9 0.156 80.689
8236.333 0.157 80.639 0.987 -9.052 0.987 -9.052 0.157 80.639
