# MHZ S MA R 50

50 0.631 -50.806 0.775 39.119 0.775 39.119 0.631 -50.806
74.958 0.476 -61.486 0.879 28.401 0.879 28.401 0.476 -61.486
99.917 0.374 -67.858 0.926 21.99 0.926 21.99 0.374 -67.858
124.875 0.306 -72 0.951 17.809 0.951 17.809 0.306 -72
149.833 0.257 -74.884 0.965 14.886 0.965 14.886 0.257 -74.884
174.792 0.22 -76.998 0.974 12.731 0.974 12.731 0.22 -76.998
199.75 0.192 -78.612 0.98 11.075 0.98 11.075 0.192 -78.612
224.708 0.17 -79.883 0.984 9.761 0.984 9.761 0.17 -79.883
249.667 0.151 -80.908 0.987 8.691 0.987 8.691 0.151 -80.908
274.625 0.136 -81.753 0.99 7.8 0.99 7.8 0.136 -81.753
299.583 0.123 -82.46 0.991 7.044 0.991 7.044 0.123 -82.46
324.542 0.111 -83.059 0.993 6.394 0.993 6.394 0.111 -83.059
349.5 0.102 -83.573 0.994 5.827 0.994 5.827 0.102 -83.573
374.458 0.093 -84.017 0.995 5.327 0.995 5.327 0.093 -84.017
399.417 0.085 -84.402 0.995 4.881 0.995 4.881 0.085 -84.402
424.375 0.078 -84.739 0.996 4.48 0.996 4.48 0.078 -84.739
449.333 0.072 -85.033 0.996 4.116 0.996 4.116 0.072 -85.033
474.292 0.066 -85.289 0.997 3.785 0.997 3.785 0.066 -85.289
499.25 0.061 -85.513 0.997 3.48 0.997 3.48 0.061 -85.513
524.208 0.056 -85.706 0.997 3.199 0.997 3.199 0.056 -85.706
549.167 0.051 -85.869 0.998 2.937 0.998 2.937 0.051 -85.869
574.125 0.047 -86.005 0.998 2.693 0.998 2.693 0.047 -86.005
599.083 0.043 -86.113 0.998 2.465 0.998 2.465 0.043 -86.113
624.042 0.039 -86.192 0.998 2.249 0.998 2.249 0.039 -86.192
649 0.036 -86.24 0.998 2.046 0.998 2.046 0.036 -86.24
673.958 0.032 -86.255 0.998 1.853 0.998 1.853 0.032 -86.255
698.917 0.029 -86.23 0.999 1.67 0.999 1.67 0.029 -86.23
723.875 0.026 -86.16 0.999 1.495 0.999 1.495 0.026 -86.16
748.833 0.023 -86.032 0.999 1.328 0.999 1.328 0.023 -86.032
773.792 0.02 -85.831 0.999 1.168 0.999 1.168 0.02 -85.831
798.75 0.018 -85.53 0.999 1.014 0.999 1.014 0.018 -85.53
823.708 0.015 -85.088 0.999 0.866 0.999 0.866 0.015 -85.088
848.667 0.013 -84.433 0.999 0.723 0.999 0.723 0.013 -84.433
873.625 0.01 -83.432 0.999 0.584 0.999 0.584 0.01 -83.432
898.583 7.933e-3 -81.806 0.999 0.45 0.999 0.45 7.933e-3 -81.806
923.542 5.694e-3 -78.86 0.999 0.32 0.999 0.32 5.694e-3 -78.86
948.5 3.554e-3 -72.303 0.999 0.194 0.999 0.194 3.554e-3 -72.303
973.458 1.642e-3 -49.305 0.999 0.071 0.999 0.071 1.642e-3 -49.305
998.417 1.361e-3 38.194 0.999 -0.048 0.999 -0.048 1.361e-3 38.194
1023.375 3.072e-3 69.472 0.999 -0.165 0.999 -0.165 3.072e-3 69.472
1048.333 4.986e-3 77.341 0.999 -0.279 0.999 -0.279 4.986e-3 77.341
1073.292 6.899e-3 80.697 0.999 -0.391 0.999 -0.391 6.899e-3 80.697
1098.25 8.786e-3 82.512 0.999 -0.5 0.999 -0.5 8.786e-3 82.512
1123.208 0.011 83.628 0.999 -0.607 0.999 -0.607 0.011 83.628
1148.167 0.012 84.369 0.999 -0.711 0.999 -0.711 0.012 84.369
1173.125 0.014 84.885 0.999 -0.814 0.999 -0.814 0.014 84.885
1198.083 0.016 85.258 0.999 -0.916 0.999 -0.916 0.016 85.258
1223.042 0.018 85.532 0.999 -1.015 0.999 -1.015 0.018 85.532
1248 0.019 85.737 0.999 -1.113 0.999 -1.113 0.019 85.737
1272.958 0.021 85.892 0.999 -1.209 0.999 -1.209 0.021 85.892
1297.917 0.023 86.007 0.999 -1.304 0.999 -1.304 0.023 86.007
1322.875 0.024 86.094 0.999 -1.398 0.999 -1.398 0.024 86.094
1347.833 0.026 86.157 0.999 -1.49 0.999 -1.49 0.026 86.157
1372.792 0.028 86.201 0.999 -1.581 0.999 -1.581 0.028 86.201
1397.75 0.029 86.231 0.999 -1.671 0.999 -1.671 0.029 86.231
1422.708 0.031 86.248 0.998 -1.76 0.998 -1.76 0.031 86.248
1447.667 0.032 86.254 0.998 -1.848 0.998 -1.848 0.032 86.254
1472.625 0.034 86.253 0.998 -1.935 0.998 -1.935 0.034 86.253
1497.583 0.035 86.244 0.998 -2.021 0.998 -2.021 0.035 86.244
1522.542 0.037 86.229 0.998 -2.106 0.998 -2.106 0.037 86.229
1547.5 0.038 86.209 0.998 -2.19 0.998 -2.19 0.038 86.209
1572.458 0.04 86.184 0.998 -2.274 0.998 -2.274 0.04 86.184
1597.417 0.041 86.155 0.998 -2.357 0.998 -2.357 0.041 86.155
1622.375 0.043 86.124 0.998 -2.439 0.998 -2.439 0.043 86.124
1647.333 0.044 86.089 0.998 -2.52 0.998 -2.52 0.044 86.089
1672.292 0.045 86.051 0.998 -2.601 0.998 -2.601 0.045 86.051
1697.25 0.047 86.011 0.998 -2.681 0.998 -2.681 0.047 86.011
1722.208 0.048 85.97 0.998 -2.76 0.998 -2.76 0.048 85.97
1747.167 0.05 85.926 0.998 -2.839 0.998 -2.839 0.05 85.926
1772.125 0.051 85.881 0.998 -2.917 0.998 -2.917 0.051 85.881
1797.083 0.052 85.834 0.998 -2.995 0.998 -2.995 0.052 85.834
1822.042 0.054 85.787 0.997 -3.072 0.997 -3.072 0.054 85.787
1847 0.055 85.738 0.997 -3.149 0.997 -3.149 0.055 85.738
1871.958 0.056 85.688 0.997 -3.226 0.997 -3.226 0.056 85.688
1896.917 0.058 85.637 0.997 -3.301 0.997 -3.301 0.058 85.637
1921.875 0.059 85.585 0.997 -3.377 0.997 -3.377 0.059 85.585
1946.833 0.06 85.533 0.997 -3.452 0.997 -3.452 0.06 85.533
1971.792 0.062 85.48 0.997 -3.526 0.997 -3.526 0.062 85.48
1996.75 0.063 85.426 0.997 -3.601 0.997 -3.601 0.063 85.426
2021.708 0.064 85.372 0.997 -3.674 0.997 -3.674 0.064 85.372
2046.667 0.065 85.317 0.997 -3.748 0.997 -3.748 0.065 85.317
2071.625 0.067 85.262 0.997 -3.821 0.997 -3.821 0.067 85.262
2096.583 0.068 85.206 0.997 -3.894 0.997 -3.894 0.068 85.206
2121.542 0.069 85.15 0.997 -3.966 0.997 -3.966 0.069 85.15
2146.5 0.07 85.094 0.996 -4.038 0.996 -4.038 0.07 85.094
2171.458 0.072 85.038 0.996 -4.11 0.996 -4.11 0.072 85.038
2196.417 0.073 84.981 0.996 -4.182 0.996 -4.182 0.073 84.981
2221.375 0.074 84.923 0.996 -4.253 0.996 -4.253 0.074 84.923
2246.333 0.075 84.866 0.996 -4.324 0.996 -4.324 0.075 84.866
2271.292 0.077 84.808 0.996 -4.395 0.996 -4.395 0.077 84.808
2296.25 0.078 84.751 0.996 -4.465 0.996 -4.465 0.078 84.751
2321.208 0.079 84.693 0.996 -4.535 0.996 -4.535 0.079 84.693
2346.167 0.08 84.634 0.996 -4.605 0.996 -4.605 0.08 84.634
2371.125 0.082 84.576 0.996 -4.675 0.996 -4.675 0.082 84.576
2396.083 0.083 84.518 0.996 -4.744 0.996 -4.744 0.083 84.518
2421.042 0.084 84.459 0.995 -4.814 0.995 -4.814 0.084 84.459
2446 0.085 84.4 0.995 -4.883 0.995 -4.883 0.085 84.4
2470.958 0.086 84.342 0.995 -4.952 0.995 -4.952 0.086 84.342
2495.917 0.088 84.283 0.995 -5.02 0.995 -5.02 0.088 84.283
2520.875 0.089 84.224 0.995 -5.089 0.995 -5.089 0.089 84.224
2545.833 0.09 84.165 0.995 -5.157 0.995 -5.157 0.09 84.165
2570.792 0.091 84.105 0.995 -5.225 0.995 -5.225 0.091 84.105
2595.75 0.092 84.046 0.995 -5.293 0.995 -5.293 0.092 84.046
2620.708 0.093 83.987 0.995 -5.36 0.995 -5.36 0.093 83.987
2645.667 0.095 83.928 0.994 -5.428 0.994 -5.428 0.095 83.928
2670.625 0.096 83.868 0.994 -5.495 0.994 -5.495 0.096 83.868
2695.583 0.097 83.809 0.994 -5.562 0.994 -5.562 0.097 83.809
2720.542 0.098 83.749 0.994 -5.629 0.994 -5.629 0.098 83.749
2745.5 0.099 83.69 0.994 -5.696 0.994 -5.696 0.099 83.69
2770.458 0.1 83.63 0.994 -5.763 0.994 -5.763 0.1 83.63
2795.417 0.102 83.571 0.994 -5.829 0.994 -5.829 0.102 83.571
2820.375 0.103 83.511 0.994 -5.896 0.994 -5.896 0.103 83.511
2845.333 0.104 83.452 0.994 -5.962 0.994 -5.962 0.104 83.452
2870.292 0.105 83.392 0.993 -6.028 0.993 -6.028 0.105 83.392
2895.25 0.106 83.332 0.993 -6.094 0.993 -6.094 0.106 83.332
2920.208 0.107 83.273 0.993 -6.16 0.993 -6.16 0.107 83.273
2945.167 0.108 83.213 0.993 -6.226 0.993 -6.226 0.108 83.213
2970.125 0.11 83.153 0.993 -6.291 0.993 -6.291 0.11 83.153
2995.083 0.111 83.094 0.993 -6.357 0.993 -6.357 0.111 83.094
3020.042 0.112 83.034 0.993 -6.422 0.993 -6.422 0.112 83.034
3045 0.113 82.974 0.993 -6.487 0.993 -6.487 0.113 82.974
3069.958 0.114 82.915 0.992 -6.552 0.992 -6.552 0.114 82.915
3094.917 0.115 82.855 0.992 -6.617 0.992 -6.617 0.115 82.855
3119.875 0.116 82.795 0.992 -6.682 0.992 -6.682 0.116 82.795
3144.833 0.117 82.736 0.992 -6.747 0.992 -6.747 0.117 82.736
3169.792 0.119 82.676 0.992 -6.811 0.992 -6.811 0.119 82.676
3194.75 0.12 82.616 0.992 -6.876 0.992 -6.876 0.12 82.616
3219.708 0.121 82.557 0.992 -6.94 0.992 -6.94 0.121 82.557
3244.667 0.122 82.497 0.991 -7.004 0.991 -7.004 0.122 82.497
3269.625 0.123 82.437 0.991 -7.069 0.991 -7.069 0.123 82.437
3294.583 0.124 82.378 0.991 -7.133 0.991 -7.133 0.124 82.378
3319.542 0.125 82.318 0.991 -7.197 0.991 -7.197 0.125 82.318
3344.5 0.126 82.259 0.991 -7.261 0.991 -7.261 0.126 82.259
3369.458 0.127 82.199 0.991 -7.325 0.991 -7.325 0.127 82.199
3394.417 0.129 82.139 0.991 -7.388 0.991 -7.388 0.129 82.139
3419.375 0.13 82.08 0.99 -7.452 0.99 -7.452 0.13 82.08
3444.333 0.131 82.02 0.99 -7.515 0.99 -7.515 0.131 82.02
3469.292 0.132 81.961 0.99 -7.579 0.99 -7.579 0.132 81.961
3494.25 0.133 81.901 0.99 -7.642 0.99 -7.642 0.133 81.901
3519.208 0.134 81.842 0.99 -7.705 0.99 -7.705 0.134 81.842
3544.167 0.135 81.782 0.99 -7.769 0.99 -7.769 0.135 81.782
3569.125 0.136 81.723 0.99 -7.832 0.99 -7.832 0.136 81.723
3594.083 0.137 81.663 0.989 -7.895 0.989 -7.895 0.137 81.663
3619.042 0.138 81.604 0.989 -7.958 0.989 -7.958 0.138 81.604
3644 0.14 81.545 0.989 -8.021 0.989 -8.021 0.14 81.545
3668.958 0.141 81.485 0.989 -8.083 0.989 -8.083 0.141 81.485
3693.917 0.142 81.426 0.989 -8.146 0.989 -8.146 0.142 81.426
3718.875 0.143 81.367 0.989 -8.209 0.989 -8.209 0.143 81.367
3743.833 0.144 81.307 0.989 -8.271 0.989 -8.271 0.144 81.307
3768.792 0.145 81.248 0.988 -8.334 0.988 -8.334 0.145 81.248
3793.75 0.146 81.189 0.988 -8.396 0.988 -8.396 0.146 81.189
3818.708 0.147 81.13 0.988 -8.459 0.988 -8.459 0.147 81.13
3843.667 0.148 81.07 0.988 -8.521 0.988 -8.521 0.148 81.07
3868.625 0.149 81.011 0.988 -8.583 0.988 -8.583 0.149 81.011
3893.583 0.15 80.952 0.988 -8.645 0.988 -8.645 0.15 80.952
3918.542 0.151 80.893 0.987 -8.707 0.987 -8.707 0.151 80.893
3943.5 0.152 80.834 0.987 -8.769 0.987 -8.769 0.152 80.834
3968.458 0.154 80.775 0.987 -8.831 0.987 -8.831 0.154 80.775
3993.417 0.155 80.716 0.987 -8.893 0.987 -8.893 0.155 80.716
4018.375 0.156 80.656 0.987 -8.955 0.987 -8.955 0.156 80.656
4043.333 0.157 80.597 0.987 -9.017 0.987 -9.017 0.157 80.597
4068.292 0.158 80.538 0.986 -9.078 0.986 -9.078 0.158 80.538
4093.25 0.159 80.479 0.986 -9.14 0.986 -9.14 0.159 80.479
4118.208 0.16 80.421 0.986 -9.201 0.986 -9.201 0.16 80.421
4143.167 0.161 80.362 0.986 -9.263 0.986 -9.263 0.161 80.362
4168.125 0.162 80.303 0.986 -9.324 0.986 -9.324 0.162 80.303
4193.083 0.163 80.244 0.986 -9.386 0.986 -9.386 0.163 80.244
4218.042 0.164 80.185 0.985 -9.447 0.985 -9.447 0.164 80.185
4243 0.165 80.126 0.985 -9.508 0.985 -9.508 0.165 80.126
4267.958 0.166 80.067 0.985 -9.569 0.985 -9.569 0.166 80.067
4292.917 0.167 80.009 0.985 -9.63 0.985 -9.63 0.167 80.009
4317.875 0.168 79.95 0.985 -9.692 0.985 -9.692 0.168 79.95
4342.833 0.169 79.891 0.984 -9.753 0.984 -9.753 0.169 79.891
4367.792 0.17 79.832 0.984 -9.813 0.984 -9.813 0.17 79.832
4392.75 0.171 79.774 0.984 -9.874 0.984 -9.874 0.171 79.774
4417.708 0.173 79.715 0.984 -9.935 0.984 -9.935 0.173 79.715
4442.667 0.174 79.657 0.984 -9.996 0.984 -9.996 0.174 79.657
4467.625 0.175 79.598 0.984 -10.057 0.984 -10.057 0.175 79.598
4492.583 0.176 79.539 0.983 -10.117 0.983 -10.117 0.176 79.539
4517.542 0.177 79.481 0.983 -10.178 0.983 -10.178 0.177 79.481
4542.5 0.178 79.422 0.983 -10.239 0.983 -10.239 0.178 79.422
4567.458 0.179 79.364 0.983 -10.299 0.983 -10.299 0.179 79.364
4592.417 0.18 79.305 0.983 -10.36 0.983 -10.36 0.18 79.305
4617.375 0.181 79.247 0.982 -10.42 0.982 -10.42 0.181 79.247
4642.333 0.182 79.189 0.982 -10.48 0.982 -10.48 0.182 79.189
4667.292 0.183 79.13 0.982 -10.541 0.982 -10.541 0.183 79.13
4692.25 0.184 79.072 0.982 -10.601 0.982 -10.601 0.184 79.072
4717.208 0.185 79.014 0.982 -10.661 0.982 -10.661 0.185 79.014
4742.167 0.186 78.955 0.981 -10.721 0.981 -10.721 0.186 78.955
4767.125 0.187 78.897 0.981 -10.781 0.981 -10.781 0.187 78.897
4792.083 0.188 78.839 0.981 -10.841 0.981 -10.841 0.188 78.839
4817.042 0.189 78.781 0.981 -10.901 0.981 -10.901 0.189 78.781
4842 0.19 78.722 0.981 -10.961 0.981 -10.961 0.19 78.722
4866.958 0.191 78.664 0.981 -11.021 0.981 -11.021 0.191 78.664
4891.917 0.192 78.606 0.98 -11.081 0.98 -11.081 0.192 78.606
4916.875 0.193 78.548 0.98 -11.141 0.98 -11.141 0.193 78.548
4941.833 0.194 78.49 0.98 -11.201 0.98 -11.201 0.194 78.49
4966.792 0.195 78.432 0.98 -11.26 0.98 -11.26 0.195 78.432
4991.75 0.196 78.374 0.979 -11.32 0.979 -11.32 0.196 78.374
5016.708 0.197 78.316 0.979 -11.38 0.979 -11.38 0.197 78.316
5041.667 0.198 78.258 0.979 -11.439 0.979 -11.439 0.198 78.258
5066.625 0.199 78.2 0.979 -11.499 0.979 -11.499 0.199 78.2
5091.583 0.2 78.142 0.979 -11.558 0.979 -11.558 0.2 78.142
5116.542 0.201 78.085 0.978 -11.618 0.978 -11.618 0.201 78.085
5141.5 0.202 78.027 0.978 -11.677 0.978 -11.677 0.202 78.027
5166.458 0.203 77.969 0.978 -11.736 0.978 -11.736 0.203 77.969
5191.417 0.204 77.911 0.978 -11.796 0.978 -11.796 0.204 77.911
5216.375 0.205 77.853 0.978 -11.855 0.978 -11.855 0.205 77.853
5241.333 0.206 77.796 0.977 -11.914 0.977 -11.914 0.206 77.796
5266.292 0.207 77.738 0.977 -11.973 0.977 -11.973 0.207 77.738
5291.25 0.208 77.68 0.977 -12.032 0.977 -12.032 0.208 77.68
5316.208 0.209 77.623 0.977 -12.091 0.977 -12.091 0.209 77.623
5341.167 0.21 77.565 0.977 -12.15 0.977 -12.15 0.21 77.565
5366.125 0.211 77.508 0.976 -12.209 0.976 -12.209 0.211 77.508
5391.083 0.212 77.45 0.976 -12.268 0.976 -12.268 0.212 77.45
5416.042 0.213 77.393 0.976 -12.327 0.976 -12.327 0.213 77.393
5441 0.214 77.335 0.976 -12.386 0.976 -12.386 0.214 77.335
5465.958 0.216 77.278 0.975 -12.445 0.975 -12.445 0.216 77.278
5490.917 0.217 77.22 0.975 -12.503 0.975 -12.503 0.217 77.22
5515.875 0.218 77.163 0.975 -12.562 0.975 -12.562 0.218 77.163
5540.833 0.219 77.106 0.975 -12.621 0.975 -12.621 0.219 77.106
5565.792 0.219 77.048 0.975 -12.679 0.975 -12.679 0.219 77.048
5590.75 0.22 76.991 0.974 -12.738 0.974 -12.738 0.22 76.991
5615.708 0.221 76.934 0.974 -12.797 0.974 -12.797 0.221 76.934
5640.667 0.222 76.876 0.974 -12.855 0.974 -12.855 0.222 76.876
5665.625 0.223 76.819 0.974 -12.914 0.974 -12.914 0.223 76.819
5690.583 0.224 76.762 0.973 -12.972 0.973 -12.972 0.224 76.762
5715.542 0.225 76.705 0.973 -13.03 0.973 -13.03 0.225 76.705
5740.5 0.226 76.648 0.973 -13.089 0.973 -13.089 0.226 76.648
5765.458 0.227 76.591 0.973 -13.147 0.973 -13.147 0.227 76.591
5790.417 0.228 76.534 0.973 -13.205 0.973 -13.205 0.228 76.534
5815.375 0.229 76.477 0.972 -13.263 0.972 -13.263 0.229 76.477
5840.333 0.23 76.42 0.972 -13.322 0.972 -13.322 0.23 76.42
5865.292 0.231 76.363 0.972 -13.38 0.972 -13.38 0.231 76.363
5890.25 0.232 76.306 0.972 -13.438 0.972 -13.438 0.232 76.306
5915.208 0.233 76.249 0.971 -13.496 0.971 -13.496 0.233 76.249
5940.167 0.234 76.192 0.971 -13.554 0.971 -13.554 0.234 76.192
5965.125 0.235 76.135 0.971 -13.612 0.971 -13.612 0.235 76.135
5990.083 0.236 76.079 0.971 -13.67 0.971 -13.67 0.236 76.079
6015.042 0.237 76.022 0.97 -13.727 0.97 -13.727 0.237 76.022
6040 0.238 75.965 0.97 -13.785 0.97 -13.785 0.238 75.965
6064.958 0.239 75.908 0.97 -13.843 0.97 -13.843 0.239 75.908
6089.917 0.24 75.852 0.97 -13.901 0.97 -13.901 0.24 75.852
6114.875 0.241 75.795 0.969 -13.959 0.969 -13.959 0.241 75.795
6139.833 0.242 75.738 0.969 -14.016 0.969 -14.016 0.242 75.738
6164.792 0.243 75.682 0.969 -14.074 0.969 -14.074 0.243 75.682
6189.75 0.244 75.625 0.969 -14.131 0.969 -14.131 0.244 75.625
6214.708 0.245 75.569 0.968 -14.189 0.968 -14.189 0.245 75.569
6239.667 0.246 75.512 0.968 -14.246 0.968 -14.246 0.246 75.512
6264.625 0.247 75.456 0.968 -14.304 0.968 -14.304 0.247 75.456
6289.583 0.248 75.399 0.968 -14.361 0.968 -14.361 0.248 75.399
6314.542 0.249 75.343 0.967 -14.419 0.967 -14.419 0.249 75.343
6339.5 0.25 75.287 0.967 -14.476 0.967 -14.476 0.25 75.287
6364.458 0.251 75.23 0.967 -14.533 0.967 -14.533 0.251 75.23
6389.417 0.252 75.174 0.967 -14.591 0.967 -14.591 0.252 75.174
6414.375 0.253 75.118 0.966 -14.648 0.966 -14.648 0.253 75.118
6439.333 0.254 75.062 0.966 -14.705 0.966 -14.705 0.254 75.062
6464.292 0.255 75.005 0.966 -14.762 0.966 -14.762 0.255 75.005
6489.25 0.256 74.949 0.966 -14.819 0.966 -14.819 0.256 74.949
6514.208 0.257 74.893 0.965 -14.876 0.965 -14.876 0.257 74.893
6539.167 0.258 74.837 0.965 -14.933 0.965 -14.933 0.258 74.837
6564.125 0.259 74.781 0.965 -14.99 0.965 -14.99 0.259 74.781
6589.083 0.26 74.725 0.965 -15.047 0.965 -15.047 0.26 74.725
6614.042 0.261 74.669 0.964 -15.104 0.964 -15.104 0.261 74.669
6639 0.262 74.613 0.964 -15.161 0.964 -15.161 0.262 74.613
6663.958 0.262 74.557 0.964 -15.218 0.964 -15.218 0.262 74.557
6688.917 0.263 74.501 0.964 -15.275 0.964 -15.275 0.263 74.501
6713.875 0.264 74.445 0.963 -15.331 0.963 -15.331 0.264 74.445
6738.833 0.265 74.389 0.963 -15.388 0.963 -15.388 0.265 74.389
6763.792 0.266 74.334 0.963 -15.445 0.963 -15.445 0.266 74.334
6788.75 0.267 74.278 0.963 -15.501 0.963 -15.501 0.267 74.278
6813.708 0.268 74.222 0.962 -15.558 0.962 -15.558 0.268 74.222
6838.667 0.269 74.166 0.962 -15.614 0.962 -15.614 0.269 74.166
6863.625 0.27 74.111 0.962 -15.671 0.962 -15.671 0.27 74.111
6888.583 0.271 74.055 0.962 -15.727 0.962 -15.727 0.271 74.055
6913.542 0.272 74 0.961 -15.784 0.961 -15.784 0.272 74
6938.5 0.273 73.944 0.961 -15.84 0.961 -15.84 0.273 73.944
6963.458 0.274 73.888 0.961 -15.896 0.961 -15.896 0.274 73.888
6988.417 0.275 73.833 0.96 -15.953 0.96 -15.953 0.275 73.833
7013.375 0.276 73.777 0.96 -16.009 0.96 -16.009 0.276 73.777
7038.333 0.277 73.722 0.96 -16.065 0.96 -16.065 0.277 73.722
7063.292 0.278 73.667 0.96 -16.121 0.96 -16.121 0.278 73.667
7088.25 0.279 73.611 0.959 -16.178 0.959 -16.178 0.279 73.611
7113.208 0.28 73.556 0.959 -16.234 0.959 -16.234 0.28 73.556
7138.167 0.28 73.501 0.959 -16.29 0.959 -16.29 0.28 73.501
7163.125 0.281 73.445 0.959 -16.346 0.959 -16.346 0.281 73.445
7188.083 0.282 73.39 0.958 -16.402 0.958 -16.402 0.282 73.39
7213.042 0.283 73.335 0.958 -16.458 0.958 -16.458 0.283 73.335
7238 0.284 73.28 0.958 -16.514 0.958 -16.514 0.284 73.28
7262.958 0.285 73.225 0.957 -16.569 0.957 -16.569 0.285 73.225
7287.917 0.286 73.17 0.957 -16.625 0.957 -16.625 0.286 73.17
7312.875 0.287 73.115 0.957 -16.681 0.957 -16.681 0.287 73.115
7337.833 0.288 73.059 0.957 -16.737 0.957 -16.737 0.288 73.059
7362.792 0.289 73.004 0.956 -16.793 0.956 -16.793 0.289 73.004
7387.75 0.29 72.95 0.956 -16.848 0.956 -16.848 0.29 72.95
7412.708 0.291 72.895 0.956 -16.904 0.956 -16.904 0.291 72.895
7437.667 0.292 72.84 0.955 -16.959 0.955 -16.959 0.292 72.84
7462.625 0.293 72.785 0.955 -17.015 0.955 -17.015 0.293 72.785
7487.583 0.294 72.73 0.955 -17.07 0.955 -17.07 0.294 72.73
7512.542 0.294 72.675 0.955 -17.126 0.955 -17.126 0.294 72.675
7537.5 0.295 72.62 0.954 -17.181 0.954 -17.181 0.295 72.62
7562.458 0.296 72.566 0.954 -17.237 0.954 -17.237 0.296 72.566
7587.417 0.297 72.511 0.954 -17.292 0.954 -17.292 0.297 72.511
7612.375 0.298 72.456 0.953 -17.347 0.953 -17.347 0.298 72.456
7637.333 0.299 72.402 0.953 -17.403 0.953 -17.403 0.299 72.402
7662.292 0.3 72.347 0.953 -17.458 0.953 -17.458 0.3 72.347
7687.25 0.301 72.293 0.953 -17.513 0.953 -17.513 0.301 72.293
7712.208 0.302 72.238 0.952 -17.568 0.952 -17.568 0.302 72.238
7737.167 0.303 72.184 0.952 -17.623 0.952 -17.623 0.303 72.184
7762.125 0.304 72.129 0.952 -17.679 0.952 -17.679 0.304 72.129
7787.083 0.305 72.075 0.951 -17.734 0.951 -17.734 0.305 72.075
7812.042 0.306 72.021 0.951 -17.789 0.951 -17.789 0.306 72.021
7837 0.306 71.966 0.951 -17.844 0.951 -17.844 0.306 71.966
7861.958 0.307 71.912 0.951 -17.898 0.951 -17.898 0.307 71.912
7886.917 0.308 71.858 0.95 -17.953 0.95 -17.953 0.308 71.858
7911.875 0.309 71.803 0.95 -18.008 0.95 -18.008 0.309 71.803
7936.833 0.31 71.749 0.95 -18.063 0.95 -18.063 0.31 71.749
7961.792 0.311 71.695 0.949 -18.118 0.949 -18.118 0.311 71.695
7986.75 0.312 71.641 0.949 -18.172 0.949 -18.172 0.312 71.641
8011.708 0.313 71.587 0.949 -18.227 0.949 -18.227 0.313 71.587
8036.667 0.314 71.533 0.949 -18.282 0.949 -18.282 0.314 71.533
8061.625 0.315 71.479 0.948 -18.336 0.948 -18.336 0.315 71.479
8086.583 0.316 71.425 0.948 -18.391 0.948 -18.391 0.316 71.425
8111.542 0.316 71.371 0.948 -18.446 0.948 -18.446 0.316 71.371
8136.5 0.317 71.317 0.947 -18.5 0.947 -18.5 0.317 71.317
8161.458 0.318 71.263 0.947 -18.554 0.947 -18.554 0.318 71.263
8186.417 0.319 71.209 0.947 -18.609 0.947 -18.609 0.319 71.209
8211.375 0.32 71.155 0.946 -18.663 0.946 -18.663 0.32 71.155
