# MHZ S MA R 50

50 0.999 -2.698 0.047 87.296 0.047 87.296 0.999 -2.698
74.958 0.998 -4.042 0.07 85.949 0.07 85.949 0.998 -4.042
99.917 0.996 -5.382 0.094 84.607 0.094 84.607 0.996 -5.382
124.875 0.993 -6.717 0.117 83.269 0.117 83.269 0.993 -6.717
149.833 0.99 -8.046 0.14 81.937 0.14 81.937 0.99 -8.046
174.792 0.987 -9.367 0.163 80.613 0.163 80.613 0.987 -9.367
199.75 0.983 -10.68 0.185 79.297 0.185 79.297 0.983 -10.68
224.708 0.978 -11.983 0.208 77.991 0.208 77.991 0.978 -11.983
249.667 0.973 -13.276 0.23 76.696 0.23 76.696 0.973 -13.276
274.625 0.968 -14.557 0.251 75.412 0.251 75.412 0.968 -14.557
299.583 0.962 -15.825 0.273 74.14 0.273 74.14 0.962 -15.825
324.542 0.956 -17.081 0.294 72.882 0.294 72.882 0.956 -17.081
349.5 0.949 -18.322 0.314 71.638 0.314 71.638 0.949 -18.322
374.458 0.942 -19.548 0.335 70.409 0.335 70.409 0.942 -19.548
399.417 0.935 -20.759 0.354 69.195 0.354 69.195 0.935 -20.759
424.375 0.927 -21.954 0.374 67.997 0.374 67.997 0.927 -21.954
449.333 0.919 -23.133 0.393 66.816 0.393 66.816 0.919 -23.133
474.292 0.911 -24.294 0.411 65.651 0.411 65.651 0.911 -24.294
499.25 0.903 -25.438 0.43 64.504 0.43 64.504 0.903 -25.438
524.208 0.894 -26.564 0.447 63.375 0.447 63.375 0.894 -26.564
549.167 0.885 -27.672 0.464 62.264 0.464 62.264 0.885 -27.672
574.125 0.876 -28.762 0.481 61.171 0.481 61.171 0.876 -28.762
599.083 0.867 -29.834 0.497 60.096 0.497 60.096 0.867 -29.834
624.042 0.858 -30.887 0.513 59.04 0.513 59.04 0.858 -30.887
649 0.848 -31.922 0.529 58.002 0.529 58.002 0.848 -31.922
673.958 0.839 -32.938 0.544 56.983 0.544 56.983 0.839 -32.938
698.917 0.829 -33.936 0.558 55.982 0.558 55.982 0.829 -33.936
723.875 0.819 -34.915 0.572 55 0.572 55 0.819 -34.915
748.833 0.809 -35.876 0.586 54.036 0.586 54.036 0.809 -35.876
773.792 0.8 -36.818 0.599 53.09 0.599 53.09 0.8 -36.818
798.75 0.79 -37.743 0.612 52.163 0.612 52.163 0.79 -37.743
823.708 0.78 -38.65 0.625 51.253 0.625 51.253 0.78 -38.65
848.667 0.77 -39.539 0.637 50.361 0.637 50.361 0.77 -39.539
873.625 0.76 -40.41 0.648 49.486 0.648 49.486 0.76 -40.41
898.583 0.75 -41.264 0.66 48.629 0.66 48.629 0.75 -41.264
923.542 0.741 -42.101 0.67 47.789 0.67 47.789 0.741 -42.101
948.5 0.731 -42.922 0.681 46.965 0.681 46.965 0.731 -42.922
973.458 0.721 -43.726 0.691 46.157 0.691 46.157 0.721 -43.726
998.417 0.712 -44.514 0.701 45.366 0.701 45.366 0.712 -44.514
1023.375 0.702 -45.287 0.711 44.59 0.711 44.59 0.702 -45.287
1048.333 0.693 -46.043 0.72 43.83 0.72 43.83 0.693 -46.043
1073.292 0.683 -46.785 0.729 43.085 0.729 43.085 0.683 -46.785
1098.25 0.674 -47.512 0.737 42.355 0.737 42.355 0.674 -47.512
1123.208 0.664 -48.224 0.746 41.64 0.746 41.64 0.664 -48.224
1148.167 0.655 -48.922 0.754 40.938 0.754 40.938 0.655 -48.922
1173.125 0.646 -49.606 0.762 40.251 0.762 40.251 0.646 -49.606
1198.083 0.637 -50.276 0.769 39.577 0.769 39.577 0.637 -50.276
1223.042 0.628 -50.933 0.776 38.917 0.776 38.917 0.628 -50.933
1248 0.619 -51.577 0.783 38.269 0.783 38.269 0.619 -51.577
1272.958 0.611 -52.209 0.79 37.634 0.79 37.634 0.611 -52.209
1297.917 0.602 -52.828 0.797 37.011 0.797 37.011 0.602 -52.828
1322.875 0.593 -53.435 0.803 36.401 0.803 36.401 0.593 -53.435
1347.833 0.585 -54.03 0.809 35.802 0.809 35.802 0.585 -54.03
1372.792 0.577 -54.614 0.815 35.215 0.815 35.215 0.577 -54.614
1397.75 0.568 -55.186 0.821 34.638 0.821 34.638 0.568 -55.186
1422.708 0.56 -55.748 0.827 34.073 0.827 34.073 0.56 -55.748
1447.667 0.552 -56.299 0.832 33.518 0.832 33.518 0.552 -56.299
1472.625 0.544 -56.839 0.837 32.974 0.837 32.974 0.544 -56.839
1497.583 0.536 -57.37 0.842 32.439 0.842 32.439 0.536 -57.37
1522.542 0.529 -57.89 0.847 31.915 0.847 31.915 0.529 -57.89
1547.5 0.521 -58.402 0.852 31.4 0.852 31.4 0.521 -58.402
1572.458 0.513 -58.903 0.856 30.894 0.856 30.894 0.513 -58.903
1597.417 0.506 -59.396 0.861 30.398 0.861 30.398 0.506 -59.396
1622.375 0.499 -59.879 0.865 29.91 0.865 29.91 0.499 -59.879
1647.333 0.491 -60.355 0.869 29.431 0.869 29.431 0.491 -60.355
1672.292 0.484 -60.821 0.873 28.96 0.873 28.96 0.484 -60.821
1697.25 0.477 -61.28 0.877 28.497 0.877 28.497 0.477 -61.28
1722.208 0.47 -61.73 0.881 28.042 0.881 28.042 0.47 -61.73
1747.167 0.463 -62.173 0.884 27.596 0.884 27.596 0.463 -62.173
1772.125 0.456 -62.607 0.888 27.156 0.888 27.156 0.456 -62.607
1797.083 0.45 -63.035 0.891 26.724 0.891 26.724 0.45 -63.035
1822.042 0.443 -63.455 0.895 26.299 0.895 26.299 0.443 -63.455
1847 0.437 -63.869 0.898 25.881 0.898 25.881 0.437 -63.869
1871.958 0.43 -64.275 0.901 25.47 0.901 25.47 0.43 -64.275
1896.917 0.424 -64.675 0.904 25.066 0.904 25.066 0.424 -64.675
1921.875 0.417 -65.068 0.907 24.668 0.907 24.668 0.417 -65.068
1946.833 0.411 -65.455 0.91 24.276 0.91 24.276 0.411 -65.455
1971.792 0.405 -65.836 0.912 23.891 0.912 23.891 0.405 -65.836
1996.75 0.399 -66.21 0.915 23.511 0.915 23.511 0.399 -66.21
2021.708 0.393 -66.579 0.918 23.137 0.918 23.137 0.393 -66.579
2046.667 0.387 -66.942 0.92 22.769 0.92 22.769 0.387 -66.942
2071.625 0.381 -67.299 0.923 22.407 0.923 22.407 0.381 -67.299
2096.583 0.375 -67.651 0.925 22.049 0.925 22.049 0.375 -67.651
2121.542 0.37 -67.998 0.927 21.698 0.927 21.698 0.37 -67.998
2146.5 0.364 -68.339 0.929 21.351 0.929 21.351 0.364 -68.339
2171.458 0.359 -68.675 0.932 21.009 0.932 21.009 0.359 -68.675
2196.417 0.353 -69.006 0.934 20.672 0.934 20.672 0.353 -69.006
2221.375 0.348 -69.333 0.936 20.34 0.936 20.34 0.348 -69.333
2246.333 0.342 -69.654 0.938 20.013 0.938 20.013 0.342 -69.654
2271.292 0.337 -69.971 0.94 19.69 0.94 19.69 0.337 -69.971
2296.25 0.332 -70.284 0.941 19.371 0.941 19.371 0.332 -70.284
2321.208 0.327 -70.592 0.943 19.057 0.943 19.057 0.327 -70.592
2346.167 0.321 -70.895 0.945 18.748 0.945 18.748 0.321 -70.895
2371.125 0.316 -71.195 0.947 18.442 0.947 18.442 0.316 -71.195
2396.083 0.311 -71.49 0.948 18.14 0.948 18.14 0.311 -71.49
2421.042 0.306 -71.781 0.95 17.842 0.95 17.842 0.306 -71.781
2446 0.302 -72.068 0.951 17.548 0.951 17.548 0.302 -72.068
2470.958 0.297 -72.352 0.953 17.258 0.953 17.258 0.297 -72.352
2495.917 0.292 -72.631 0.954 16.972 0.954 16.972 0.292 -72.631
2520.875 0.287 -72.907 0.956 16.689 0.956 16.689 0.287 -72.907
2545.833 0.283 -73.179 0.957 16.409 0.957 16.409 0.283 -73.179
2570.792 0.278 -73.448 0.959 16.133 0.959 16.133 0.278 -73.448
2595.75 0.273 -73.713 0.96 15.861 0.96 15.861 0.273 -73.713
2620.708 0.269 -73.974 0.961 15.591 0.961 15.591 0.269 -73.974
2645.667 0.264 -74.233 0.962 15.325 0.962 15.325 0.264 -74.233
2670.625 0.26 -74.488 0.964 15.062 0.964 15.062 0.26 -74.488
2695.583 0.255 -74.739 0.965 14.802 0.965 14.802 0.255 -74.739
2720.542 0.251 -74.988 0.966 14.545 0.966 14.545 0.251 -74.988
2745.5 0.247 -75.233 0.967 14.291 0.967 14.291 0.247 -75.233
2770.458 0.243 -75.476 0.968 14.039 0.968 14.039 0.243 -75.476
2795.417 0.238 -75.715 0.969 13.791 0.969 13.791 0.238 -75.715
2820.375 0.234 -75.951 0.97 13.545 0.97 13.545 0.234 -75.951
2845.333 0.23 -76.185 0.971 13.302 0.971 13.302 0.23 -76.185
2870.292 0.226 -76.416 0.972 13.062 0.972 13.062 0.226 -76.416
2895.25 0.222 -76.643 0.973 12.824 0.973 12.824 0.222 -76.643
2920.208 0.218 -76.868 0.974 12.589 0.974 12.589 0.218 -76.868
2945.167 0.214 -77.091 0.975 12.356 0.975 12.356 0.214 -77.091
2970.125 0.21 -77.31 0.976 12.125 0.976 12.125 0.21 -77.31
2995.083 0.206 -77.527 0.976 11.897 0.976 11.897 0.206 -77.527
3020.042 0.202 -77.741 0.977 11.672 0.977 11.672 0.202 -77.741
3045 0.198 -77.953 0.978 11.448 0.978 11.448 0.198 -77.953
3069.958 0.195 -78.162 0.979 11.227 0.979 11.227 0.195 -78.162
3094.917 0.191 -78.369 0.98 11.008 0.98 11.008 0.191 -78.369
3119.875 0.187 -78.573 0.98 10.791 0.98 10.791 0.187 -78.573
3144.833 0.184 -78.775 0.981 10.576 0.981 10.576 0.184 -78.775
3169.792 0.18 -78.974 0.982 10.363 0.982 10.363 0.18 -78.974
3194.75 0.176 -79.171 0.982 10.152 0.982 10.152 0.176 -79.171
3219.708 0.173 -79.365 0.983 9.944 0.983 9.944 0.173 -79.365
3244.667 0.169 -79.557 0.984 9.737 0.984 9.737 0.169 -79.557
3269.625 0.166 -79.746 0.984 9.532 0.984 9.532 0.166 -79.746
3294.583 0.162 -79.933 0.985 9.329 0.985 9.329 0.162 -79.933
3319.542 0.159 -80.118 0.985 9.127 0.985 9.127 0.159 -80.118
3344.5 0.155 -80.301 0.986 8.928 0.986 8.928 0.155 -80.301
3369.458 0.152 -80.481 0.986 8.73 0.986 8.73 0.152 -80.481
3394.417 0.148 -80.658 0.987 8.534 0.987 8.534 0.148 -80.658
3419.375 0.145 -80.833 0.987 8.34 0.987 8.34 0.145 -80.833
3444.333 0.142 -81.006 0.988 8.147 0.988 8.147 0.142 -81.006
3469.292 0.138 -81.177 0.988 7.956 0.988 7.956 0.138 -81.177
3494.25 0.135 -81.345 0.989 7.766 0.989 7.766 0.135 -81.345
3519.208 0.132 -81.51 0.989 7.578 0.989 7.578 0.132 -81.51
3544.167 0.129 -81.674 0.99 7.392 0.99 7.392 0.129 -81.674
3569.125 0.125 -81.834 0.99 7.207 0.99 7.207 0.125 -81.834
3594.083 0.122 -81.992 0.99 7.024 0.99 7.024 0.122 -81.992
3619.042 0.119 -82.148 0.991 6.842 0.991 6.842 0.119 -82.148
3644 0.116 -82.301 0.991 6.661 0.991 6.661 0.116 -82.301
3668.958 0.113 -82.451 0.992 6.482 0.992 6.482 0.113 -82.451
3693.917 0.11 -82.598 0.992 6.305 0.992 6.305 0.11 -82.598
3718.875 0.107 -82.743 0.992 6.128 0.992 6.128 0.107 -82.743
3743.833 0.104 -82.884 0.993 5.953 0.993 5.953 0.104 -82.884
3768.792 0.101 -83.023 0.993 5.78 0.993 5.78 0.101 -83.023
3793.75 0.098 -83.158 0.993 5.607 0.993 5.607 0.098 -83.158
3818.708 0.095 -83.29 0.993 5.436 0.993 5.436 0.095 -83.29
3843.667 0.092 -83.419 0.994 5.266 0.994 5.266 0.092 -83.419
3868.625 0.089 -83.543 0.994 5.098 0.994 5.098 0.089 -83.543
3893.583 0.086 -83.665 0.994 4.93 0.994 4.93 0.086 -83.665
3918.542 0.083 -83.782 0.994 4.764 0.994 4.764 0.083 -83.782
3943.5 0.08 -83.894 0.995 4.599 0.995 4.599 0.08 -83.894
3968.458 0.077 -84.002 0.995 4.435 0.995 4.435 0.077 -84.002
3993.417 0.075 -84.105 0.995 4.272 0.995 4.272 0.075 -84.105
4018.375 0.072 -84.203 0.995 4.111 0.995 4.111 0.072 -84.203
4043.333 0.069 -84.295 0.996 3.95 0.996 3.95 0.069 -84.295
4068.292 0.066 -84.38 0.996 3.791 0.996 3.791 0.066 -84.38
4093.25 0.063 -84.459 0.996 3.632 0.996 3.632 0.063 -84.459
4118.208 0.061 -84.529 0.996 3.475 0.996 3.475 0.061 -84.529
4143.167 0.058 -84.592 0.996 3.318 0.996 3.318 0.058 -84.592
4168.125 0.055 -84.644 0.996 3.163 0.996 3.163 0.055 -84.644
4193.083 0.053 -84.686 0.997 3.009 0.997 3.009 0.053 -84.686
4218.042 0.05 -84.715 0.997 2.855 0.997 2.855 0.05 -84.715
4243 0.047 -84.731 0.997 2.703 0.997 2.703 0.047 -84.731
4267.958 0.045 -84.73 0.997 2.551 0.997 2.551 0.045 -84.73
4292.917 0.042 -84.71 0.997 2.401 0.997 2.401 0.042 -84.71
4317.875 0.039 -84.668 0.997 2.251 0.997 2.251 0.039 -84.668
4342.833 0.037 -84.599 0.997 2.102 0.997 2.102 0.037 -84.599
4367.792 0.034 -84.497 0.997 1.955 0.997 1.955 0.034 -84.497
4392.75 0.032 -84.357 0.997 1.808 0.997 1.808 0.032 -84.357
4417.708 0.029 -84.166 0.997 1.662 0.997 1.662 0.029 -84.166
4442.667 0.027 -83.913 0.998 1.516 0.998 1.516 0.027 -83.913
4467.625 0.024 -83.579 0.998 1.372 0.998 1.372 0.024 -83.579
4492.583 0.022 -83.136 0.998 1.228 0.998 1.228 0.022 -83.136
4517.542 0.019 -82.543 0.998 1.086 0.998 1.086 0.019 -82.543
4542.5 0.017 -81.737 0.998 0.944 0.998 0.944 0.017 -81.737
4567.458 0.014 -80.608 0.998 0.803 0.998 0.803 0.014 -80.608
4592.417 0.012 -78.964 0.998 0.662 0.998 0.662 0.012 -78.964
4617.375 9.364e-3 -76.419 0.998 0.523 0.998 0.523 9.364e-3 -76.419
4642.333 7.026e-3 -72.088 0.998 0.384 0.998 0.384 7.026e-3 -72.088
4667.292 4.783e-3 -63.5 0.998 0.246 0.998 0.246 4.783e-3 -63.5
4692.25 2.839e-3 -41.71 0.998 0.108 0.998 0.108 2.839e-3 -41.71
4717.208 2.172e-3 13.034 0.998 -0.028 0.998 -0.028 2.172e-3 13.034
4742.167 3.56e-3 53.363 0.998 -0.164 0.998 -0.164 3.56e-3 53.363
4767.125 5.634e-3 67.641 0.998 -0.299 0.998 -0.299 5.634e-3 67.641
4792.083 7.858e-3 73.947 0.998 -0.434 0.998 -0.434 7.858e-3 73.947
4817.042 0.01 77.372 0.998 -0.567 0.998 -0.567 0.01 77.372
4842 0.012 79.481 0.998 -0.7 0.998 -0.7 0.012 79.481
4866.958 0.015 80.886 0.998 -0.833 0.998 -0.833 0.015 80.886
4891.917 0.017 81.873 0.998 -0.965 0.998 -0.965 0.017 81.873
4916.875 0.019 82.591 0.998 -1.096 0.998 -1.096 0.019 82.591
4941.833 0.022 83.128 0.998 -1.226 0.998 -1.226 0.022 83.128
4966.792 0.024 83.536 0.998 -1.356 0.998 -1.356 0.024 83.536
4991.75 0.026 83.849 0.998 -1.485 0.998 -1.485 0.026 83.849
5016.708 0.028 84.091 0.997 -1.614 0.997 -1.614 0.028 84.091
5041.667 0.03 84.278 0.997 -1.742 0.997 -1.742 0.03 84.278
5066.625 0.033 84.421 0.997 -1.869 0.997 -1.869 0.033 84.421
5091.583 0.035 84.529 0.997 -1.996 0.997 -1.996 0.035 84.529
5116.542 0.037 84.61 0.997 -2.122 0.997 -2.122 0.037 84.61
5141.5 0.039 84.666 0.997 -2.247 0.997 -2.247 0.039 84.666
5166.458 0.041 84.704 0.997 -2.372 0.997 -2.372 0.041 84.704
5191.417 0.044 84.725 0.997 -2.497 0.997 -2.497 0.044 84.725
5216.375 0.046 84.732 0.997 -2.621 0.997 -2.621 0.046 84.732
5241.333 0.048 84.728 0.997 -2.744 0.997 -2.744 0.048 84.728
5266.292 0.05 84.714 0.997 -2.867 0.997 -2.867 0.05 84.714
5291.25 0.052 84.69 0.997 -2.989 0.997 -2.989 0.052 84.69
5316.208 0.054 84.66 0.996 -3.111 0.996 -3.111 0.054 84.66
5341.167 0.056 84.622 0.996 -3.232 0.996 -3.232 0.056 84.622
5366.125 0.059 84.579 0.996 -3.352 0.996 -3.352 0.059 84.579
5391.083 0.061 84.53 0.996 -3.473 0.996 -3.473 0.061 84.53
5416.042 0.063 84.477 0.996 -3.592 0.996 -3.592 0.063 84.477
5441 0.065 84.42 0.996 -3.711 0.996 -3.711 0.065 84.42
5465.958 0.067 84.36 0.996 -3.83 0.996 -3.83 0.067 84.36
5490.917 0.069 84.296 0.996 -3.948 0.996 -3.948 0.069 84.296
5515.875 0.071 84.229 0.995 -4.065 0.995 -4.065 0.071 84.229
5540.833 0.073 84.16 0.995 -4.183 0.995 -4.183 0.073 84.16
5565.792 0.075 84.089 0.995 -4.299 0.995 -4.299 0.075 84.089
5590.75 0.077 84.015 0.995 -4.415 0.995 -4.415 0.077 84.015
5615.708 0.079 83.939 0.995 -4.531 0.995 -4.531 0.079 83.939
5640.667 0.081 83.862 0.995 -4.646 0.995 -4.646 0.081 83.862
5665.625 0.083 83.784 0.994 -4.761 0.994 -4.761 0.083 83.784
5690.583 0.085 83.703 0.994 -4.876 0.994 -4.876 0.085 83.703
5715.542 0.087 83.622 0.994 -4.989 0.994 -4.989 0.087 83.622
5740.5 0.089 83.54 0.994 -5.103 0.994 -5.103 0.089 83.54
5765.458 0.091 83.456 0.994 -5.216 0.994 -5.216 0.091 83.456
5790.417 0.093 83.372 0.994 -5.328 0.994 -5.328 0.093 83.372
5815.375 0.095 83.287 0.993 -5.441 0.993 -5.441 0.095 83.287
5840.333 0.097 83.201 0.993 -5.552 0.993 -5.552 0.097 83.201
5865.292 0.099 83.114 0.993 -5.664 0.993 -5.664 0.099 83.114
5890.25 0.101 83.027 0.993 -5.775 0.993 -5.775 0.101 83.027
5915.208 0.103 82.939 0.993 -5.885 0.993 -5.885 0.103 82.939
5940.167 0.104 82.851 0.992 -5.995 0.992 -5.995 0.104 82.851
5965.125 0.106 82.762 0.992 -6.105 0.992 -6.105 0.106 82.762
5990.083 0.108 82.673 0.992 -6.214 0.992 -6.214 0.108 82.673
6015.042 0.11 82.583 0.992 -6.323 0.992 -6.323 0.11 82.583
6040 0.112 82.493 0.992 -6.432 0.992 -6.432 0.112 82.493
6064.958 0.114 82.403 0.991 -6.54 0.991 -6.54 0.114 82.403
6089.917 0.116 82.312 0.991 -6.647 0.991 -6.647 0.116 82.312
6114.875 0.118 82.222 0.991 -6.755 0.991 -6.755 0.118 82.222
6139.833 0.119 82.131 0.991 -6.862 0.991 -6.862 0.119 82.131
6164.792 0.121 82.04 0.991 -6.968 0.991 -6.968 0.121 82.04
6189.75 0.123 81.949 0.99 -7.075 0.99 -7.075 0.123 81.949
6214.708 0.125 81.857 0.99 -7.181 0.99 -7.181 0.125 81.857
6239.667 0.127 81.766 0.99 -7.286 0.99 -7.286 0.127 81.766
6264.625 0.129 81.674 0.99 -7.391 0.99 -7.391 0.129 81.674
6289.583 0.13 81.583 0.989 -7.496 0.989 -7.496 0.13 81.583
6314.542 0.132 81.491 0.989 -7.601 0.989 -7.601 0.132 81.491
6339.5 0.134 81.399 0.989 -7.705 0.989 -7.705 0.134 81.399
6364.458 0.136 81.308 0.989 -7.808 0.989 -7.808 0.136 81.308
6389.417 0.138 81.216 0.988 -7.912 0.988 -7.912 0.138 81.216
6414.375 0.139 81.124 0.988 -8.015 0.988 -8.015 0.139 81.124
6439.333 0.141 81.032 0.988 -8.118 0.988 -8.118 0.141 81.032
6464.292 0.143 80.941 0.988 -8.22 0.988 -8.22 0.143 80.941
6489.25 0.145 80.849 0.987 -8.322 0.987 -8.322 0.145 80.849
6514.208 0.147 80.757 0.987 -8.424 0.987 -8.424 0.147 80.757
6539.167 0.148 80.666 0.987 -8.526 0.987 -8.526 0.148 80.666
6564.125 0.15 80.574 0.987 -8.627 0.987 -8.627 0.15 80.574
6589.083 0.152 80.483 0.986 -8.728 0.986 -8.728 0.152 80.483
6614.042 0.153 80.391 0.986 -8.828 0.986 -8.828 0.153 80.391
6639 0.155 80.3 0.986 -8.928 0.986 -8.928 0.155 80.3
6663.958 0.157 80.209 0.986 -9.028 0.986 -9.028 0.157 80.209
6688.917 0.159 80.117 0.985 -9.128 0.985 -9.128 0.159 80.117
6713.875 0.16 80.026 0.985 -9.227 0.985 -9.227 0.16 80.026
6738.833 0.162 79.935 0.985 -9.326 0.985 -9.326 0.162 79.935
6763.792 0.164 79.845 0.984 -9.425 0.984 -9.425 0.164 79.845
6788.75 0.165 79.754 0.984 -9.523 0.984 -9.523 0.165 79.754
6813.708 0.167 79.663 0.984 -9.622 0.984 -9.622 0.167 79.663
6838.667 0.169 79.573 0.984 -9.719 0.984 -9.719 0.169 79.573
6863.625 0.171 79.482 0.983 -9.817 0.983 -9.817 0.171 79.482
6888.583 0.172 79.392 0.983 -9.914 0.983 -9.914 0.172 79.392
6913.542 0.174 79.302 0.983 -10.011 0.983 -10.011 0.174 79.302
6938.5 0.176 79.212 0.982 -10.108 0.982 -10.108 0.176 79.212
6963.458 0.177 79.122 0.982 -10.204 0.982 -10.204 0.177 79.122
6988.417 0.179 79.032 0.982 -10.301 0.982 -10.301 0.179 79.032
7013.375 0.18 78.943 0.982 -10.396 0.982 -10.396 0.18 78.943
7038.333 0.182 78.853 0.981 -10.492 0.981 -10.492 0.182 78.853
7063.292 0.184 78.764 0.981 -10.587 0.981 -10.587 0.184 78.764
7088.25 0.185 78.675 0.981 -10.682 0.981 -10.682 0.185 78.675
7113.208 0.187 78.586 0.98 -10.777 0.98 -10.777 0.187 78.586
7138.167 0.189 78.497 0.98 -10.872 0.98 -10.872 0.189 78.497
7163.125 0.19 78.408 0.98 -10.966 0.98 -10.966 0.19 78.408
7188.083 0.192 78.32 0.979 -11.06 0.979 -11.06 0.192 78.32
7213.042 0.193 78.231 0.979 -11.154 0.979 -11.154 0.193 78.231
7238 0.195 78.143 0.979 -11.247 0.979 -11.247 0.195 78.143
7262.958 0.197 78.055 0.978 -11.341 0.978 -11.341 0.197 78.055
7287.917 0.198 77.967 0.978 -11.434 0.978 -11.434 0.198 77.967
7312.875 0.2 77.879 0.978 -11.527 0.978 -11.527 0.2 77.879
7337.833 0.201 77.791 0.977 -11.619 0.977 -11.619 0.201 77.791
7362.792 0.203 77.704 0.977 -11.711 0.977 -11.711 0.203 77.704
7387.75 0.205 77.616 0.977 -11.803 0.977 -11.803 0.205 77.616
7412.708 0.206 77.529 0.976 -11.895 0.976 -11.895 0.206 77.529
7437.667 0.208 77.442 0.976 -11.987 0.976 -11.987 0.208 77.442
7462.625 0.209 77.355 0.976 -12.078 0.976 -12.078 0.209 77.355
7487.583 0.211 77.269 0.975 -12.169 0.975 -12.169 0.211 77.269
7512.542 0.212 77.182 0.975 -12.26 0.975 -12.26 0.212 77.182
7537.5 0.214 77.096 0.975 -12.351 0.975 -12.351 0.214 77.096
7562.458 0.215 77.009 0.974 -12.441 0.974 -12.441 0.215 77.009
7587.417 0.217 76.923 0.974 -12.531 0.974 -12.531 0.217 76.923
7612.375 0.219 76.837 0.974 -12.621 0.974 -12.621 0.219 76.837
7637.333 0.22 76.752 0.973 -12.711 0.973 -12.711 0.22 76.752
7662.292 0.222 76.666 0.973 -12.8 0.973 -12.8 0.222 76.666
7687.25 0.223 76.581 0.973 -12.89 0.973 -12.89 0.223 76.581
7712.208 0.225 76.495 0.972 -12.979 0.972 -12.979 0.225 76.495
7737.167 0.226 76.41 0.972 -13.067 0.972 -13.067 0.226 76.41
7762.125 0.228 76.325 0.972 -13.156 0.972 -13.156 0.228 76.325
7787.083 0.229 76.241 0.971 -13.244 0.971 -13.244 0.229 76.241
7812.042 0.231 76.156 0.971 -13.333 0.971 -13.333 0.231 76.156
7837 0.232 76.071 0.971 -13.42 0.971 -13.42 0.232 76.071
7861.958 0.234 75.987 0.97 -13.508 0.97 -13.508 0.234 75.987
7886.917 0.235 75.903 0.97 -13.596 0.97 -13.596 0.235 75.903
7911.875 0.237 75.819 0.97 -13.683 0.97 -13.683 0.237 75.819
7936.833 0.238 75.735 0.969 -13.77 0.969 -13.77 0.238 75.735
7961.792 0.24 75.651 0.969 -13.857 0.969 -13.857 0.24 75.651
7986.75 0.241 75.568 0.968 -13.944 0.968 -13.944 0.241 75.568
8011.708 0.242 75.485 0.968 -14.03 0.968 -14.03 0.242 75.485
8036.667 0.244 75.401 0.968 -14.117 0.968 -14.117 0.244 75.401
8061.625 0.245 75.318 0.967 -14.203 0.967 -14.203 0.245 75.318
8086.583 0.247 75.235 0.967 -14.288 0.967 -14.288 0.247 75.235
8111.542 0.248 75.153 0.967 -14.374 0.967 -14.374 0.248 75.153
8136.5 0.25 75.07 0.966 -14.46 0.966 -14.46 0.25 75.07
8161.458 0.251 74.988 0.966 -14.545 0.966 -14.545 0.251 74.988
8186.417 0.253 74.906 0.966 -14.63 0.966 -14.63 0.253 74.906
8211.375 0.254 74.823 0.965 -14.715 0.965 -14.715 0.254 74.823
