# MHZ S MA R 50

50 0.981 -11.027 0.191 78.959 0.191 78.959 0.981 -11.027
74.958 0.96 -16.293 0.281 73.685 0.281 73.685 0.96 -16.293
99.917 0.931 -21.301 0.363 68.67 0.363 68.67 0.931 -21.301
124.875 0.899 -26.001 0.438 63.962 0.438 63.962 0.899 -26.001
149.833 0.862 -30.367 0.506 59.588 0.506 59.588 0.862 -30.367
174.792 0.825 -34.391 0.565 55.557 0.565 55.557 0.825 -34.391
199.75 0.787 -38.077 0.617 51.863 0.617 51.863 0.787 -38.077
224.708 0.749 -41.443 0.662 48.489 0.662 48.489 0.749 -41.443
249.667 0.712 -44.51 0.701 45.415 0.701 45.415 0.712 -44.51
274.625 0.677 -47.301 0.735 42.616 0.735 42.616 0.677 -47.301
299.583 0.644 -49.843 0.764 40.066 0.764 40.066 0.644 -49.843
324.542 0.612 -52.16 0.79 37.742 0.79 37.742 0.612 -52.16
349.5 0.582 -54.275 0.812 35.619 0.812 35.619 0.582 -54.275
374.458 0.554 -56.21 0.831 33.676 0.831 33.676 0.554 -56.21
399.417 0.528 -57.983 0.848 31.895 0.848 31.895 0.528 -57.983
424.375 0.504 -59.613 0.863 30.257 0.863 30.257 0.504 -59.613
449.333 0.481 -61.113 0.876 28.748 0.876 28.748 0.481 -61.113
474.292 0.459 -62.499 0.887 27.354 0.887 27.354 0.459 -62.499
499.25 0.439 -63.782 0.897 26.063 0.897 26.063 0.439 -63.782
524.208 0.42 -64.972 0.906 24.864 0.906 24.864 0.42 -64.972
549.167 0.403 -66.079 0.914 23.748 0.914 23.748 0.403 -66.079
574.125 0.386 -67.111 0.921 22.707 0.921 22.707 0.386 -67.111
599.083 0.37 -68.075 0.928 21.734 0.928 21.734 0.37 -68.075
624.042 0.355 -68.978 0.933 20.822 0.933 20.822 0.355 -68.978
649 0.341 -69.825 0.939 19.965 0.939 19.965 0.341 -69.825
673.958 0.328 -70.622 0.943 19.159 0.943 19.159 0.328 -70.622
698.917 0.316 -71.372 0.948 18.399 0.948 18.399 0.316 -71.372
723.875 0.304 -72.081 0.951 17.681 0.951 17.681 0.304 -72.081
748.833 0.292 -72.75 0.955 17.001 0.955 17.001 0.292 -72.75
773.792 0.282 -73.385 0.958 16.356 0.958 16.356 0.282 -73.385
798.75 0.271 -73.986 0.961 15.744 0.961 15.744 0.271 -73.986
823.708 0.262 -74.558 0.964 15.161 0.964 15.161 0.262 -74.558
848.667 0.252 -75.102 0.966 14.606 0.966 14.606 0.252 -75.102
873.625 0.243 -75.62 0.969 14.076 0.969 14.076 0.243 -75.62
898.583 0.235 -76.115 0.971 13.57 0.971 13.57 0.235 -76.115
923.542 0.226 -76.587 0.973 13.085 0.973 13.085 0.226 -76.587
948.5 0.219 -77.039 0.975 12.621 0.975 12.621 0.219 -77.039
973.458 0.211 -77.471 0.976 12.176 0.976 12.176 0.211 -77.471
998.417 0.204 -77.886 0.978 11.748 0.978 11.748 0.204 -77.886
1023.375 0.197 -78.284 0.979 11.336 0.979 11.336 0.197 -78.284
1048.333 0.19 -78.666 0.981 10.94 0.981 10.94 0.19 -78.666
1073.292 0.183 -79.033 0.982 10.558 0.982 10.558 0.183 -79.033
1098.25 0.177 -79.387 0.983 10.19 0.983 10.19 0.177 -79.387
1123.208 0.171 -79.727 0.984 9.834 0.984 9.834 0.171 -79.727
1148.167 0.165 -80.055 0.985 9.49 0.985 9.49 0.165 -80.055
1173.125 0.159 -80.371 0.986 9.156 0.986 9.156 0.159 -80.371
1198.083 0.154 -80.676 0.987 8.834 0.987 8.834 0.154 -80.676
1223.042 0.148 -80.971 0.988 8.521 0.988 8.521 0.148 -80.971
1248 0.143 -81.255 0.988 8.217 0.988 8.217 0.143 -81.255
1272.958 0.138 -81.53 0.989 7.923 0.989 7.923 0.138 -81.53
1297.917 0.133 -81.796 0.99 7.636 0.99 7.636 0.133 -81.796
1322.875 0.128 -82.053 0.99 7.358 0.99 7.358 0.128 -82.053
1347.833 0.123 -82.301 0.991 7.087 0.991 7.087 0.123 -82.301
1372.792 0.119 -82.541 0.992 6.822 0.992 6.822 0.119 -82.541
1397.75 0.114 -82.774 0.992 6.565 0.992 6.565 0.114 -82.774
1422.708 0.11 -82.998 0.993 6.314 0.993 6.314 0.11 -82.998
1447.667 0.106 -83.215 0.993 6.069 0.993 6.069 0.106 -83.215
1472.625 0.102 -83.425 0.994 5.83 0.994 5.83 0.102 -83.425
1497.583 0.098 -83.627 0.994 5.596 0.994 5.596 0.098 -83.627
1522.542 0.094 -83.823 0.994 5.367 0.994 5.367 0.094 -83.823
1547.5 0.09 -84.011 0.995 5.144 0.995 5.144 0.09 -84.011
1572.458 0.086 -84.192 0.995 4.925 0.995 4.925 0.086 -84.192
1597.417 0.082 -84.366 0.995 4.711 0.995 4.711 0.082 -84.366
1622.375 0.078 -84.532 0.996 4.501 0.996 4.501 0.078 -84.532
1647.333 0.075 -84.692 0.996 4.295 0.996 4.295 0.075 -84.692
1672.292 0.071 -84.844 0.996 4.093 0.996 4.093 0.071 -84.844
1697.25 0.068 -84.987 0.996 3.895 0.996 3.895 0.068 -84.987
1722.208 0.065 -85.123 0.997 3.7 0.997 3.7 0.065 -85.123
1747.167 0.061 -85.25 0.997 3.509 0.997 3.509 0.061 -85.25
1772.125 0.058 -85.367 0.997 3.322 0.997 3.322 0.058 -85.367
1797.083 0.055 -85.474 0.997 3.137 0.997 3.137 0.055 -85.474
1822.042 0.052 -85.57 0.997 2.956 0.997 2.956 0.052 -85.57
1847 0.048 -85.654 0.997 2.778 0.997 2.778 0.048 -85.654
1871.958 0.045 -85.724 0.998 2.602 0.998 2.602 0.045 -85.724
1896.917 0.042 -85.777 0.998 2.429 0.998 2.429 0.042 -85.777
1921.875 0.039 -85.812 0.998 2.259 0.998 2.259 0.039 -85.812
1946.833 0.037 -85.825 0.998 2.091 0.998 2.091 0.037 -85.825
1971.792 0.034 -85.812 0.998 1.926 0.998 1.926 0.034 -85.812
1996.75 0.031 -85.766 0.998 1.763 0.998 1.763 0.031 -85.766
2021.708 0.028 -85.679 0.998 1.603 0.998 1.603 0.028 -85.679
2046.667 0.025 -85.54 0.998 1.444 0.998 1.444 0.025 -85.54
2071.625 0.023 -85.331 0.998 1.288 0.998 1.288 0.023 -85.331
2096.583 0.02 -85.026 0.998 1.134 0.998 1.134 0.02 -85.026
2121.542 0.017 -84.585 0.999 0.982 0.999 0.982 0.017 -84.585
2146.5 0.015 -83.937 0.999 0.831 0.999 0.831 0.015 -83.937
2171.458 0.012 -82.956 0.999 0.683 0.999 0.683 0.012 -82.956
2196.417 9.448e-3 -81.381 0.999 0.536 0.999 0.536 9.448e-3 -81.381
2221.375 6.951e-3 -78.592 0.999 0.391 0.999 0.391 6.951e-3 -78.592
2246.333 4.521e-3 -72.663 0.999 0.248 0.999 0.248 4.521e-3 -72.663
2271.292 2.275e-3 -54.168 0.999 0.106 0.999 0.106 2.275e-3 -54.168
2296.25 1.458e-3 24.267 0.999 -0.034 0.999 -0.034 1.458e-3 24.267
2321.208 3.3e-3 66.085 0.999 -0.173 0.999 -0.173 3.3e-3 66.085
2346.167 5.576e-3 75.906 0.999 -0.31 0.999 -0.31 5.576e-3 75.906
2371.125 7.898e-3 79.87 0.999 -0.446 0.999 -0.446 7.898e-3 79.87
2396.083 0.01 81.949 0.999 -0.58 0.999 -0.58 0.01 81.949
2421.042 0.013 83.198 0.999 -0.714 0.999 -0.714 0.013 83.198
2446 0.015 84.01 0.999 -0.845 0.999 -0.845 0.015 84.01
2470.958 0.017 84.565 0.999 -0.976 0.999 -0.976 0.017 84.565
2495.917 0.019 84.955 0.998 -1.105 0.998 -1.105 0.019 84.955
2520.875 0.022 85.236 0.998 -1.233 0.998 -1.233 0.022 85.236
2545.833 0.024 85.438 0.998 -1.36 0.998 -1.36 0.024 85.438
2570.792 0.026 85.583 0.998 -1.486 0.998 -1.486 0.026 85.583
2595.75 0.028 85.685 0.998 -1.611 0.998 -1.611 0.028 85.685
2620.708 0.03 85.754 0.998 -1.734 0.998 -1.734 0.03 85.754
2645.667 0.032 85.797 0.998 -1.857 0.998 -1.857 0.032 85.797
2670.625 0.035 85.819 0.998 -1.979 0.998 -1.979 0.035 85.819
2695.583 0.037 85.825 0.998 -2.099 0.998 -2.099 0.037 85.825
2720.542 0.039 85.817 0.998 -2.219 0.998 -2.219 0.039 85.817
2745.5 0.041 85.798 0.998 -2.338 0.998 -2.338 0.041 85.798
2770.458 0.043 85.77 0.998 -2.456 0.998 -2.456 0.043 85.77
2795.417 0.045 85.734 0.998 -2.573 0.998 -2.573 0.045 85.734
2820.375 0.047 85.691 0.998 -2.689 0.998 -2.689 0.047 85.691
2845.333 0.049 85.642 0.997 -2.804 0.997 -2.804 0.049 85.642
2870.292 0.051 85.589 0.997 -2.919 0.997 -2.919 0.051 85.589
2895.25 0.053 85.531 0.997 -3.033 0.997 -3.033 0.053 85.531
2920.208 0.055 85.47 0.997 -3.145 0.997 -3.145 0.055 85.47
2945.167 0.057 85.405 0.997 -3.258 0.997 -3.258 0.057 85.405
2970.125 0.059 85.338 0.997 -3.369 0.997 -3.369 0.059 85.338
2995.083 0.061 85.269 0.997 -3.48 0.997 -3.48 0.061 85.269
3020.042 0.063 85.197 0.997 -3.59 0.997 -3.59 0.063 85.197
3045 0.065 85.124 0.997 -3.699 0.997 -3.699 0.065 85.124
3069.958 0.066 85.049 0.996 -3.808 0.996 -3.808 0.066 85.049
3094.917 0.068 84.972 0.996 -3.916 0.996 -3.916 0.068 84.972
3119.875 0.07 84.895 0.996 -4.023 0.996 -4.023 0.07 84.895
3144.833 0.072 84.816 0.996 -4.13 0.996 -4.13 0.072 84.816
3169.792 0.074 84.736 0.996 -4.236 0.996 -4.236 0.074 84.736
3194.75 0.076 84.656 0.996 -4.341 0.996 -4.341 0.076 84.656
3219.708 0.078 84.575 0.996 -4.446 0.996 -4.446 0.078 84.575
3244.667 0.079 84.493 0.996 -4.551 0.996 -4.551 0.079 84.493
3269.625 0.081 84.411 0.995 -4.655 0.995 -4.655 0.081 84.411
3294.583 0.083 84.328 0.995 -4.758 0.995 -4.758 0.083 84.328
3319.542 0.085 84.245 0.995 -4.86 0.995 -4.86 0.085 84.245
3344.5 0.087 84.161 0.995 -4.963 0.995 -4.963 0.087 84.161
3369.458 0.088 84.077 0.995 -5.064 0.995 -5.064 0.088 84.077
3394.417 0.09 83.993 0.995 -5.165 0.995 -5.165 0.09 83.993
3419.375 0.092 83.908 0.994 -5.266 0.994 -5.266 0.092 83.908
3444.333 0.094 83.824 0.994 -5.366 0.994 -5.366 0.094 83.824
3469.292 0.095 83.739 0.994 -5.466 0.994 -5.466 0.095 83.739
3494.25 0.097 83.654 0.994 -5.565 0.994 -5.565 0.097 83.654
3519.208 0.099 83.569 0.994 -5.664 0.994 -5.664 0.099 83.569
3544.167 0.1 83.484 0.994 -5.762 0.994 -5.762 0.1 83.484
3569.125 0.102 83.398 0.993 -5.86 0.993 -5.86 0.102 83.398
3594.083 0.104 83.313 0.993 -5.957 0.993 -5.957 0.104 83.313
3619.042 0.105 83.228 0.993 -6.054 0.993 -6.054 0.105 83.228
3644 0.107 83.143 0.993 -6.151 0.993 -6.151 0.107 83.143
3668.958 0.109 83.057 0.993 -6.247 0.993 -6.247 0.109 83.057
3693.917 0.11 82.972 0.993 -6.343 0.993 -6.343 0.11 82.972
3718.875 0.112 82.887 0.992 -6.438 0.992 -6.438 0.112 82.887
3743.833 0.114 82.802 0.992 -6.533 0.992 -6.533 0.114 82.802
3768.792 0.115 82.717 0.992 -6.628 0.992 -6.628 0.115 82.717
3793.75 0.117 82.632 0.992 -6.722 0.992 -6.722 0.117 82.632
3818.708 0.119 82.547 0.992 -6.816 0.992 -6.816 0.119 82.547
3843.667 0.12 82.462 0.991 -6.91 0.991 -6.91 0.12 82.462
3868.625 0.122 82.377 0.991 -7.003 0.991 -7.003 0.122 82.377
3893.583 0.124 82.293 0.991 -7.096 0.991 -7.096 0.124 82.293
3918.542 0.125 82.208 0.991 -7.188 0.991 -7.188 0.125 82.208
3943.5 0.127 82.124 0.991 -7.28 0.991 -7.28 0.127 82.124
3968.458 0.128 82.04 0.99 -7.372 0.99 -7.372 0.128 82.04
3993.417 0.13 81.955 0.99 -7.464 0.99 -7.464 0.13 81.955
4018.375 0.131 81.871 0.99 -7.555 0.99 -7.555 0.131 81.871
4043.333 0.133 81.787 0.99 -7.646 0.99 -7.646 0.133 81.787
4068.292 0.135 81.704 0.99 -7.736 0.99 -7.736 0.135 81.704
4093.25 0.136 81.62 0.989 -7.826 0.989 -7.826 0.136 81.62
4118.208 0.138 81.536 0.989 -7.916 0.989 -7.916 0.138 81.536
4143.167 0.139 81.453 0.989 -8.006 0.989 -8.006 0.139 81.453
4168.125 0.141 81.37 0.989 -8.095 0.989 -8.095 0.141 81.37
4193.083 0.142 81.286 0.989 -8.184 0.989 -8.184 0.142 81.286
4218.042 0.144 81.203 0.988 -8.273 0.988 -8.273 0.144 81.203
4243 0.145 81.121 0.988 -8.362 0.988 -8.362 0.145 81.121
4267.958 0.147 81.038 0.988 -8.45 0.988 -8.45 0.147 81.038
4292.917 0.148 80.955 0.988 -8.538 0.988 -8.538 0.148 80.955
4317.875 0.15 80.873 0.987 -8.625 0.987 -8.625 0.15 80.873
4342.833 0.151 80.79 0.987 -8.713 0.987 -8.713 0.151 80.79
4367.792 0.153 80.708 0.987 -8.8 0.987 -8.8 0.153 80.708
4392.75 0.154 80.626 0.987 -8.887 0.987 -8.887 0.154 80.626
4417.708 0.156 80.544 0.986 -8.974 0.986 -8.974 0.156 80.544
4442.667 0.157 80.463 0.986 -9.06 0.986 -9.06 0.157 80.463
4467.625 0.159 80.381 0.986 -9.146 0.986 -9.146 0.159 80.381
4492.583 0.16 80.3 0.986 -9.232 0.986 -9.232 0.16 80.3
4517.542 0.162 80.218 0.985 -9.318 0.985 -9.318 0.162 80.218
4542.5 0.163 80.137 0.985 -9.403 0.985 -9.403 0.163 80.137
4567.458 0.165 80.056 0.985 -9.488 0.985 -9.488 0.165 80.056
4592.417 0.166 79.975 0.985 -9.573 0.985 -9.573 0.166 79.975
4617.375 0.168 79.895 0.985 -9.658 0.985 -9.658 0.168 79.895
4642.333 0.169 79.814 0.984 -9.743 0.984 -9.743 0.169 79.814
4667.292 0.171 79.734 0.984 -9.827 0.984 -9.827 0.171 79.734
4692.25 0.172 79.653 0.984 -9.911 0.984 -9.911 0.172 79.653
4717.208 0.174 79.573 0.984 -9.995 0.984 -9.995 0.174 79.573
4742.167 0.175 79.493 0.983 -10.079 0.983 -10.079 0.175 79.493
4767.125 0.176 79.413 0.983 -10.162 0.983 -10.162 0.176 79.413
4792.083 0.178 79.334 0.983 -10.245 0.983 -10.245 0.178 79.334
4817.042 0.179 79.254 0.982 -10.328 0.982 -10.328 0.179 79.254
4842 0.181 79.175 0.982 -10.411 0.982 -10.411 0.181 79.175
4866.958 0.182 79.095 0.982 -10.494 0.982 -10.494 0.182 79.095
4891.917 0.184 79.016 0.982 -10.576 0.982 -10.576 0.184 79.016
4916.875 0.185 78.937 0.981 -10.659 0.981 -10.659 0.185 78.937
4941.833 0.186 78.858 0.981 -10.741 0.981 -10.741 0.186 78.858
4966.792 0.188 78.779 0.981 -10.822 0.981 -10.822 0.188 78.779
4991.75 0.189 78.701 0.981 -10.904 0.981 -10.904 0.189 78.701
5016.708 0.191 78.622 0.98 -10.986 0.98 -10.986 0.191 78.622
5041.667 0.192 78.544 0.98 -11.067 0.98 -11.067 0.192 78.544
5066.625 0.193 78.466 0.98 -11.148 0.98 -11.148 0.193 78.466
5091.583 0.195 78.388 0.98 -11.229 0.98 -11.229 0.195 78.388
5116.542 0.196 78.31 0.979 -11.31 0.979 -11.31 0.196 78.31
5141.5 0.197 78.232 0.979 -11.39 0.979 -11.39 0.197 78.232
5166.458 0.199 78.154 0.979 -11.471 0.979 -11.471 0.199 78.154
5191.417 0.2 78.077 0.978 -11.551 0.978 -11.551 0.2 78.077
5216.375 0.202 77.999 0.978 -11.631 0.978 -11.631 0.202 77.999
5241.333 0.203 77.922 0.978 -11.711 0.978 -11.711 0.203 77.922
5266.292 0.204 77.845 0.978 -11.791 0.978 -11.791 0.204 77.845
5291.25 0.206 77.768 0.977 -11.87 0.977 -11.87 0.206 77.768
5316.208 0.207 77.691 0.977 -11.95 0.977 -11.95 0.207 77.691
5341.167 0.208 77.614 0.977 -12.029 0.977 -12.029 0.208 77.614
5366.125 0.21 77.537 0.976 -12.108 0.976 -12.108 0.21 77.537
5391.083 0.211 77.461 0.976 -12.187 0.976 -12.187 0.211 77.461
5416.042 0.212 77.384 0.976 -12.266 0.976 -12.266 0.212 77.384
5441 0.214 77.308 0.976 -12.344 0.976 -12.344 0.214 77.308
5465.958 0.215 77.232 0.975 -12.423 0.975 -12.423 0.215 77.232
5490.917 0.216 77.156 0.975 -12.501 0.975 -12.501 0.216 77.156
5515.875 0.218 77.08 0.975 -12.579 0.975 -12.579 0.218 77.08
5540.833 0.219 77.004 0.974 -12.657 0.974 -12.657 0.219 77.004
5565.792 0.22 76.928 0.974 -12.735 0.974 -12.735 0.22 76.928
5590.75 0.222 76.853 0.974 -12.813 0.974 -12.813 0.222 76.853
5615.708 0.223 76.777 0.974 -12.89 0.974 -12.89 0.223 76.777
5640.667 0.224 76.702 0.973 -12.968 0.973 -12.968 0.224 76.702
5665.625 0.226 76.627 0.973 -13.045 0.973 -13.045 0.226 76.627
5690.583 0.227 76.552 0.973 -13.122 0.973 -13.122 0.227 76.552
5715.542 0.228 76.477 0.972 -13.199 0.972 -13.199 0.228 76.477
5740.5 0.23 76.402 0.972 -13.276 0.972 -13.276 0.23 76.402
5765.458 0.231 76.327 0.972 -13.352 0.972 -13.352 0.231 76.327
5790.417 0.232 76.252 0.971 -13.429 0.971 -13.429 0.232 76.252
5815.375 0.234 76.178 0.971 -13.505 0.971 -13.505 0.234 76.178
5840.333 0.235 76.103 0.971 -13.582 0.971 -13.582 0.235 76.103
5865.292 0.236 76.029 0.97 -13.658 0.97 -13.658 0.236 76.029
5890.25 0.237 75.955 0.97 -13.734 0.97 -13.734 0.237 75.955
5915.208 0.239 75.881 0.97 -13.81 0.97 -13.81 0.239 75.881
5940.167 0.24 75.807 0.969 -13.885 0.969 -13.885 0.24 75.807
5965.125 0.241 75.733 0.969 -13.961 0.969 -13.961 0.241 75.733
5990.083 0.243 75.659 0.969 -14.036 0.969 -14.036 0.243 75.659
6015.042 0.244 75.585 0.969 -14.112 0.969 -14.112 0.244 75.585
6040 0.245 75.512 0.968 -14.187 0.968 -14.187 0.245 75.512
6064.958 0.246 75.438 0.968 -14.262 0.968 -14.262 0.246 75.438
6089.917 0.248 75.365 0.968 -14.337 0.968 -14.337 0.248 75.365
6114.875 0.249 75.292 0.967 -14.412 0.967 -14.412 0.249 75.292
6139.833 0.25 75.219 0.967 -14.487 0.967 -14.487 0.25 75.219
6164.792 0.251 75.146 0.967 -14.561 0.967 -14.561 0.251 75.146
6189.75 0.253 75.073 0.966 -14.636 0.966 -14.636 0.253 75.073
6214.708 0.254 75 0.966 -14.71 0.966 -14.71 0.254 75
6239.667 0.255 74.927 0.966 -14.784 0.966 -14.784 0.255 74.927
6264.625 0.256 74.855 0.965 -14.858 0.965 -14.858 0.256 74.855
6289.583 0.258 74.782 0.965 -14.932 0.965 -14.932 0.258 74.782
6314.542 0.259 74.71 0.965 -15.006 0.965 -15.006 0.259 74.71
6339.5 0.26 74.638 0.964 -15.08 0.964 -15.08 0.26 74.638
6364.458 0.261 74.566 0.964 -15.153 0.964 -15.153 0.261 74.566
6389.417 0.263 74.493 0.964 -15.227 0.964 -15.227 0.263 74.493
6414.375 0.264 74.421 0.963 -15.3 0.963 -15.3 0.264 74.421
6439.333 0.265 74.35 0.963 -15.374 0.963 -15.374 0.265 74.35
6464.292 0.266 74.278 0.963 -15.447 0.963 -15.447 0.266 74.278
6489.25 0.268 74.206 0.962 -15.52 0.962 -15.52 0.268 74.206
6514.208 0.269 74.135 0.962 -15.593 0.962 -15.593 0.269 74.135
6539.167 0.27 74.063 0.962 -15.665 0.962 -15.665 0.27 74.063
6564.125 0.271 73.992 0.961 -15.738 0.961 -15.738 0.271 73.992
6589.083 0.272 73.92 0.961 -15.811 0.961 -15.811 0.272 73.92
6614.042 0.274 73.849 0.961 -15.883 0.961 -15.883 0.274 73.849
6639 0.275 73.778 0.96 -15.956 0.96 -15.956 0.275 73.778
6663.958 0.276 73.707 0.96 -16.028 0.96 -16.028 0.276 73.707
6688.917 0.277 73.636 0.96 -16.1 0.96 -16.1 0.277 73.636
6713.875 0.279 73.565 0.959 -16.172 0.959 -16.172 0.279 73.565
6738.833 0.28 73.495 0.959 -16.244 0.959 -16.244 0.28 73.495
6763.792 0.281 73.424 0.958 -16.316 0.958 -16.316 0.281 73.424
6788.75 0.282 73.354 0.958 -16.387 0.958 -16.387 0.282 73.354
6813.708 0.283 73.283 0.958 -16.459 0.958 -16.459 0.283 73.283
6838.667 0.285 73.213 0.957 -16.531 0.957 -16.531 0.285 73.213
6863.625 0.286 73.143 0.957 -16.602 0.957 -16.602 0.286 73.143
6888.583 0.287 73.073 0.957 -16.673 0.957 -16.673 0.287 73.073
6913.542 0.288 73.003 0.956 -16.744 0.956 -16.744 0.288 73.003
6938.5 0.289 72.933 0.956 -16.816 0.956 -16.816 0.289 72.933
6963.458 0.29 72.863 0.956 -16.886 0.956 -16.886 0.29 72.863
6988.417 0.292 72.793 0.955 -16.957 0.955 -16.957 0.292 72.793
7013.375 0.293 72.723 0.955 -17.028 0.955 -17.028 0.293 72.723
7038.333 0.294 72.654 0.955 -17.099 0.955 -17.099 0.294 72.654
7063.292 0.295 72.584 0.954 -17.169 0.954 -17.169 0.295 72.584
7088.25 0.296 72.515 0.954 -17.24 0.954 -17.24 0.296 72.515
7113.208 0.298 72.446 0.953 -17.31 0.953 -17.31 0.298 72.446
7138.167 0.299 72.376 0.953 -17.38 0.953 -17.38 0.299 72.376
7163.125 0.3 72.307 0.953 -17.451 0.953 -17.451 0.3 72.307
7188.083 0.301 72.238 0.952 -17.521 0.952 -17.521 0.301 72.238
7213.042 0.302 72.169 0.952 -17.591 0.952 -17.591 0.302 72.169
7238 0.303 72.1 0.952 -17.661 0.952 -17.661 0.303 72.1
7262.958 0.305 72.032 0.951 -17.73 0.951 -17.73 0.305 72.032
7287.917 0.306 71.963 0.951 -17.8 0.951 -17.8 0.306 71.963
7312.875 0.307 71.894 0.95 -17.87 0.95 -17.87 0.307 71.894
7337.833 0.308 71.826 0.95 -17.939 0.95 -17.939 0.308 71.826
7362.792 0.309 71.757 0.95 -18.008 0.95 -18.008 0.309 71.757
7387.75 0.31 71.689 0.949 -18.078 0.949 -18.078 0.31 71.689
7412.708 0.311 71.621 0.949 -18.147 0.949 -18.147 0.311 71.621
7437.667 0.313 71.553 0.949 -18.216 0.949 -18.216 0.313 71.553
7462.625 0.314 71.485 0.948 -18.285 0.948 -18.285 0.314 71.485
7487.583 0.315 71.417 0.948 -18.354 0.948 -18.354 0.315 71.417
7512.542 0.316 71.349 0.947 -18.423 0.947 -18.423 0.316 71.349
7537.5 0.317 71.281 0.947 -18.491 0.947 -18.491 0.317 71.281
7562.458 0.318 71.213 0.947 -18.56 0.947 -18.56 0.318 71.213
7587.417 0.319 71.146 0.946 -18.629 0.946 -18.629 0.319 71.146
7612.375 0.321 71.078 0.946 -18.697 0.946 -18.697 0.321 71.078
7637.333 0.322 71.011 0.946 -18.765 0.946 -18.765 0.322 71.011
7662.292 0.323 70.943 0.945 -18.834 0.945 -18.834 0.323 70.943
7687.25 0.324 70.876 0.945 -18.902 0.945 -18.902 0.324 70.876
7712.208 0.325 70.809 0.944 -18.97 0.944 -18.97 0.325 70.809
7737.167 0.326 70.742 0.944 -19.038 0.944 -19.038 0.326 70.742
7762.125 0.327 70.674 0.944 -19.106 0.944 -19.106 0.327 70.674
7787.083 0.328 70.608 0.943 -19.174 0.943 -19.174 0.328 70.608
7812.042 0.33 70.541 0.943 -19.241 0.943 -19.241 0.33 70.541
7837 0.331 70.474 0.942 -19.309 0.942 -19.309 0.331 70.474
7861.958 0.332 70.407 0.942 -19.376 0.942 -19.376 0.332 70.407
7886.917 0.333 70.341 0.942 -19.444 0.942 -19.444 0.333 70.341
7911.875 0.334 70.274 0.941 -19.511 0.941 -19.511 0.334 70.274
7936.833 0.335 70.208 0.941 -19.578 0.941 -19.578 0.335 70.208
7961.792 0.336 70.141 0.941 -19.646 0.941 -19.646 0.336 70.141
7986.75 0.337 70.075 0.94 -19.713 0.94 -19.713 0.337 70.075
8011.708 0.338 70.009 0.94 -19.78 0.94 -19.78 0.338 70.009
8036.667 0.34 69.942 0.939 -19.847 0.939 -19.847 0.34 69.942
8061.625 0.341 69.876 0.939 -19.913 0.939 -19.913 0.341 69.876
8086.583 0.342 69.81 0.939 -19.98 0.939 -19.98 0.342 69.81
8111.542 0.343 69.745 0.938 -20.047 0.938 -20.047 0.343 69.745
8136.5 0.344 69.679 0.938 -20.113 0.938 -20.113 0.344 69.679
8161.458 0.345 69.613 0.937 -20.18 0.937 -20.18 0.345 69.613
8186.417 0.346 69.547 0.937 -20.246 0.937 -20.246 0.346 69.547
