# MHZ S MA R 50

50 0.994 -6.276 0.109 83.714 0.109 83.714 0.994 -6.276
74.958 0.987 -9.366 0.163 80.62 0.163 80.62 0.987 -9.366
99.917 0.977 -12.404 0.215 77.576 0.215 77.576 0.977 -12.404
124.875 0.964 -15.378 0.265 74.597 0.265 74.597 0.964 -15.378
149.833 0.949 -18.275 0.314 71.695 0.314 71.695 0.949 -18.275
174.792 0.933 -21.084 0.36 68.881 0.36 68.881 0.933 -21.084
199.75 0.915 -23.798 0.404 66.162 0.404 66.162 0.915 -23.798
224.708 0.895 -26.411 0.445 63.545 0.445 63.545 0.895 -26.411
249.667 0.875 -28.919 0.484 61.032 0.484 61.032 0.875 -28.919
274.625 0.854 -31.32 0.52 58.626 0.52 58.626 0.854 -31.32
299.583 0.832 -33.613 0.554 56.327 0.554 56.327 0.832 -33.613
324.542 0.81 -35.801 0.585 54.135 0.585 54.135 0.81 -35.801
349.5 0.789 -37.884 0.614 52.047 0.614 52.047 0.789 -37.884
374.458 0.767 -39.865 0.641 50.061 0.641 50.061 0.767 -39.865
399.417 0.745 -41.748 0.666 48.172 0.666 48.172 0.745 -41.748
424.375 0.724 -43.538 0.689 46.378 0.689 46.378 0.724 -43.538
449.333 0.703 -45.237 0.71 44.673 0.71 44.673 0.703 -45.237
474.292 0.683 -46.851 0.73 43.054 0.73 43.054 0.683 -46.851
499.25 0.663 -48.384 0.748 41.515 0.748 41.515 0.663 -48.384
524.208 0.644 -49.841 0.764 40.054 0.764 40.054 0.644 -49.841
549.167 0.625 -51.225 0.78 38.664 0.78 38.664 0.625 -51.225
574.125 0.607 -52.541 0.794 37.343 0.794 37.343 0.607 -52.541
599.083 0.589 -53.793 0.807 36.085 0.807 36.085 0.589 -53.793
624.042 0.572 -54.985 0.819 34.888 0.819 34.888 0.572 -54.985
649 0.556 -56.12 0.83 33.747 0.83 33.747 0.556 -56.12
673.958 0.54 -57.202 0.841 32.659 0.841 32.659 0.54 -57.202
698.917 0.524 -58.235 0.85 31.621 0.85 31.621 0.524 -58.235
723.875 0.509 -59.22 0.859 30.63 0.859 30.63 0.509 -59.22
748.833 0.495 -60.161 0.867 29.683 0.867 29.683 0.495 -60.161
773.792 0.481 -61.062 0.875 28.777 0.875 28.777 0.481 -61.062
798.75 0.468 -61.923 0.882 27.909 0.882 27.909 0.468 -61.923
823.708 0.455 -62.748 0.889 27.078 0.889 27.078 0.455 -62.748
848.667 0.443 -63.539 0.895 26.282 0.895 26.282 0.443 -63.539
873.625 0.431 -64.297 0.901 25.517 0.901 25.517 0.431 -64.297
898.583 0.419 -65.026 0.907 24.782 0.907 24.782 0.419 -65.026
923.542 0.408 -65.725 0.912 24.076 0.912 24.076 0.408 -65.725
948.5 0.397 -66.398 0.916 23.397 0.916 23.397 0.397 -66.398
973.458 0.387 -67.045 0.921 22.743 0.921 22.743 0.387 -67.045
998.417 0.376 -67.668 0.925 22.113 0.925 22.113 0.376 -67.668
1023.375 0.367 -68.269 0.929 21.506 0.929 21.506 0.367 -68.269
1048.333 0.357 -68.848 0.933 20.92 0.933 20.92 0.357 -68.848
1073.292 0.348 -69.407 0.936 20.353 0.936 20.353 0.348 -69.407
1098.25 0.339 -69.947 0.939 19.806 0.939 19.806 0.339 -69.947
1123.208 0.33 -70.469 0.942 19.277 0.942 19.277 0.33 -70.469
1148.167 0.322 -70.973 0.945 18.765 0.945 18.765 0.322 -70.973
1173.125 0.313 -71.462 0.948 18.27 0.948 18.27 0.313 -71.462
1198.083 0.306 -71.934 0.951 17.789 0.951 17.789 0.306 -71.934
1223.042 0.298 -72.392 0.953 17.324 0.953 17.324 0.298 -72.392
1248 0.29 -72.836 0.955 16.872 0.955 16.872 0.29 -72.836
1272.958 0.283 -73.266 0.958 16.433 0.958 16.433 0.283 -73.266
1297.917 0.276 -73.684 0.96 16.007 0.96 16.007 0.276 -73.684
1322.875 0.269 -74.09 0.962 15.592 0.962 15.592 0.269 -74.09
1347.833 0.262 -74.484 0.964 15.189 0.964 15.189 0.262 -74.484
1372.792 0.255 -74.867 0.965 14.797 0.965 14.797 0.255 -74.867
1397.75 0.249 -75.24 0.967 14.415 0.967 14.415 0.249 -75.24
1422.708 0.243 -75.602 0.969 14.043 0.969 14.043 0.243 -75.602
1447.667 0.237 -75.955 0.97 13.681 0.97 13.681 0.237 -75.955
1472.625 0.231 -76.298 0.972 13.327 0.972 13.327 0.231 -76.298
1497.583 0.225 -76.633 0.973 12.983 0.973 12.983 0.225 -76.633
1522.542 0.219 -76.959 0.974 12.646 0.974 12.646 0.219 -76.959
1547.5 0.213 -77.277 0.975 12.317 0.975 12.317 0.213 -77.277
1572.458 0.208 -77.587 0.977 11.996 0.977 11.996 0.208 -77.587
1597.417 0.202 -77.889 0.978 11.682 0.978 11.682 0.202 -77.889
1622.375 0.197 -78.184 0.979 11.375 0.979 11.375 0.197 -78.184
1647.333 0.192 -78.473 0.98 11.074 0.98 11.074 0.192 -78.473
1672.292 0.187 -78.754 0.981 10.78 0.981 10.78 0.187 -78.754
1697.25 0.182 -79.029 0.982 10.492 0.982 10.492 0.182 -79.029
1722.208 0.177 -79.297 0.983 10.21 0.983 10.21 0.177 -79.297
1747.167 0.173 -79.56 0.983 9.934 0.983 9.934 0.173 -79.56
1772.125 0.168 -79.816 0.984 9.663 0.984 9.663 0.168 -79.816
1797.083 0.163 -80.067 0.985 9.397 0.985 9.397 0.163 -80.067
1822.042 0.159 -80.312 0.986 9.136 0.986 9.136 0.159 -80.312
1847 0.154 -80.552 0.986 8.881 0.986 8.881 0.154 -80.552
1871.958 0.15 -80.786 0.987 8.629 0.987 8.629 0.15 -80.786
1896.917 0.146 -81.015 0.988 8.383 0.988 8.383 0.146 -81.015
1921.875 0.142 -81.24 0.988 8.14 0.988 8.14 0.142 -81.24
1946.833 0.137 -81.459 0.989 7.902 0.989 7.902 0.137 -81.459
1971.792 0.133 -81.673 0.99 7.668 0.99 7.668 0.133 -81.673
1996.75 0.129 -81.883 0.99 7.438 0.99 7.438 0.129 -81.883
2021.708 0.126 -82.088 0.991 7.212 0.991 7.212 0.126 -82.088
2046.667 0.122 -82.288 0.991 6.989 0.991 6.989 0.122 -82.288
2071.625 0.118 -82.483 0.991 6.769 0.991 6.769 0.118 -82.483
2096.583 0.114 -82.674 0.992 6.554 0.992 6.554 0.114 -82.674
2121.542 0.11 -82.861 0.992 6.341 0.992 6.341 0.11 -82.861
2146.5 0.107 -83.043 0.993 6.132 0.993 6.132 0.107 -83.043
2171.458 0.103 -83.22 0.993 5.925 0.993 5.925 0.103 -83.22
2196.417 0.1 -83.393 0.993 5.722 0.993 5.722 0.1 -83.393
2221.375 0.096 -83.561 0.994 5.521 0.994 5.521 0.096 -83.561
2246.333 0.093 -83.725 0.994 5.324 0.994 5.324 0.093 -83.725
2271.292 0.089 -83.883 0.994 5.129 0.994 5.129 0.089 -83.883
2296.25 0.086 -84.037 0.995 4.936 0.995 4.936 0.086 -84.037
2321.208 0.083 -84.185 0.995 4.747 0.995 4.747 0.083 -84.185
2346.167 0.08 -84.329 0.995 4.559 0.995 4.559 0.08 -84.329
2371.125 0.076 -84.466 0.996 4.374 0.996 4.374 0.076 -84.466
2396.083 0.073 -84.598 0.996 4.192 0.996 4.192 0.073 -84.598
2421.042 0.07 -84.724 0.996 4.011 0.996 4.011 0.07 -84.724
2446 0.067 -84.843 0.996 3.833 0.996 3.833 0.067 -84.843
2470.958 0.064 -84.955 0.996 3.657 0.996 3.657 0.064 -84.955
2495.917 0.061 -85.06 0.997 3.483 0.997 3.483 0.061 -85.06
2520.875 0.058 -85.156 0.997 3.311 0.997 3.311 0.058 -85.156
2545.833 0.055 -85.243 0.997 3.141 0.997 3.141 0.055 -85.243
2570.792 0.052 -85.32 0.997 2.973 0.997 2.973 0.052 -85.32
2595.75 0.049 -85.385 0.997 2.807 0.997 2.807 0.049 -85.385
2620.708 0.046 -85.437 0.997 2.643 0.997 2.643 0.046 -85.437
2645.667 0.043 -85.473 0.998 2.48 0.998 2.48 0.043 -85.473
2670.625 0.04 -85.492 0.998 2.319 0.998 2.319 0.04 -85.492
2695.583 0.038 -85.49 0.998 2.16 0.998 2.16 0.038 -85.49
2720.542 0.035 -85.463 0.998 2.002 0.998 2.002 0.035 -85.463
2745.5 0.032 -85.404 0.998 1.846 0.998 1.846 0.032 -85.404
2770.458 0.03 -85.308 0.998 1.691 0.998 1.691 0.03 -85.308
2795.417 0.027 -85.163 0.998 1.538 0.998 1.538 0.027 -85.163
2820.375 0.024 -84.955 0.998 1.387 0.998 1.387 0.024 -84.955
2845.333 0.022 -84.662 0.998 1.237 0.998 1.237 0.022 -84.662
2870.292 0.019 -84.252 0.998 1.088 0.998 1.088 0.019 -84.252
2895.25 0.016 -83.673 0.998 0.94 0.998 0.94 0.016 -83.673
2920.208 0.014 -82.835 0.998 0.794 0.998 0.794 0.014 -82.835
2945.167 0.011 -81.576 0.998 0.65 0.998 0.65 0.011 -81.576
2970.125 8.965e-3 -79.552 0.998 0.506 0.998 0.506 8.965e-3 -79.552
2995.083 6.533e-3 -75.93 0.998 0.364 0.998 0.364 6.533e-3 -75.93
3020.042 4.181e-3 -68.047 0.998 0.223 0.998 0.223 4.181e-3 -68.047
3045 2.115e-3 -42.873 0.998 0.083 0.998 0.083 2.115e-3 -42.873
3069.958 1.833e-3 32.318 0.998 -0.056 0.998 -0.056 1.833e-3 32.318
3094.917 3.721e-3 65.228 0.998 -0.194 0.998 -0.194 3.721e-3 65.228
3119.875 5.972e-3 74.648 0.998 -0.33 0.998 -0.33 5.972e-3 74.648
3144.833 8.279e-3 78.759 0.998 -0.466 0.998 -0.466 8.279e-3 78.759
3169.792 0.011 80.998 0.998 -0.6 0.998 -0.6 0.011 80.998
3194.75 0.013 82.376 0.998 -0.734 0.998 -0.734 0.013 82.376
3219.708 0.015 83.289 0.998 -0.866 0.998 -0.866 0.015 83.289
3244.667 0.017 83.923 0.998 -0.998 0.998 -0.998 0.017 83.923
3269.625 0.02 84.378 0.998 -1.128 0.998 -1.128 0.02 84.378
3294.583 0.022 84.71 0.998 -1.258 0.998 -1.258 0.022 84.71
3319.542 0.024 84.954 0.998 -1.387 0.998 -1.387 0.024 84.954
3344.5 0.026 85.135 0.998 -1.514 0.998 -1.514 0.026 85.135
3369.458 0.029 85.266 0.998 -1.641 0.998 -1.641 0.029 85.266
3394.417 0.031 85.361 0.998 -1.767 0.998 -1.767 0.031 85.361
3419.375 0.033 85.425 0.998 -1.892 0.998 -1.892 0.033 85.425
3444.333 0.035 85.466 0.998 -2.017 0.998 -2.017 0.035 85.466
3469.292 0.037 85.488 0.998 -2.14 0.998 -2.14 0.037 85.488
3494.25 0.04 85.494 0.998 -2.263 0.998 -2.263 0.04 85.494
3519.208 0.042 85.487 0.998 -2.385 0.998 -2.385 0.042 85.487
3544.167 0.044 85.468 0.997 -2.506 0.997 -2.506 0.044 85.468
3569.125 0.046 85.441 0.997 -2.626 0.997 -2.626 0.046 85.441
3594.083 0.048 85.406 0.997 -2.746 0.997 -2.746 0.048 85.406
3619.042 0.05 85.363 0.997 -2.865 0.997 -2.865 0.05 85.363
3644 0.052 85.315 0.997 -2.983 0.997 -2.983 0.052 85.315
3668.958 0.054 85.262 0.997 -3.101 0.997 -3.101 0.054 85.262
3693.917 0.056 85.205 0.997 -3.218 0.997 -3.218 0.056 85.205
3718.875 0.058 85.144 0.997 -3.334 0.997 -3.334 0.058 85.144
3743.833 0.06 85.079 0.997 -3.45 0.997 -3.45 0.06 85.079
3768.792 0.062 85.012 0.997 -3.565 0.997 -3.565 0.062 85.012
3793.75 0.064 84.942 0.996 -3.679 0.996 -3.679 0.064 84.942
3818.708 0.066 84.87 0.996 -3.793 0.996 -3.793 0.066 84.87
3843.667 0.068 84.796 0.996 -3.906 0.996 -3.906 0.068 84.796
3868.625 0.07 84.72 0.996 -4.018 0.996 -4.018 0.07 84.72
3893.583 0.072 84.642 0.996 -4.13 0.996 -4.13 0.072 84.642
3918.542 0.074 84.563 0.996 -4.241 0.996 -4.241 0.074 84.563
3943.5 0.076 84.483 0.996 -4.352 0.996 -4.352 0.076 84.483
3968.458 0.078 84.401 0.995 -4.462 0.995 -4.462 0.078 84.401
3993.417 0.08 84.319 0.995 -4.572 0.995 -4.572 0.08 84.319
4018.375 0.082 84.236 0.995 -4.681 0.995 -4.681 0.082 84.236
4043.333 0.084 84.152 0.995 -4.789 0.995 -4.789 0.084 84.152
4068.292 0.085 84.068 0.995 -4.898 0.995 -4.898 0.085 84.068
4093.25 0.087 83.982 0.995 -5.005 0.995 -5.005 0.087 83.982
4118.208 0.089 83.897 0.994 -5.112 0.994 -5.112 0.089 83.897
4143.167 0.091 83.81 0.994 -5.219 0.994 -5.219 0.091 83.81
4168.125 0.093 83.724 0.994 -5.325 0.994 -5.325 0.093 83.724
4193.083 0.095 83.637 0.994 -5.43 0.994 -5.43 0.095 83.637
4218.042 0.096 83.55 0.994 -5.535 0.994 -5.535 0.096 83.55
4243 0.098 83.462 0.994 -5.64 0.994 -5.64 0.098 83.462
4267.958 0.1 83.374 0.993 -5.744 0.993 -5.744 0.1 83.374
4292.917 0.102 83.286 0.993 -5.848 0.993 -5.848 0.102 83.286
4317.875 0.104 83.198 0.993 -5.951 0.993 -5.951 0.104 83.198
4342.833 0.105 83.11 0.993 -6.054 0.993 -6.054 0.105 83.11
4367.792 0.107 83.022 0.993 -6.156 0.993 -6.156 0.107 83.022
4392.75 0.109 82.933 0.993 -6.258 0.993 -6.258 0.109 82.933
4417.708 0.111 82.845 0.992 -6.36 0.992 -6.36 0.111 82.845
4442.667 0.113 82.756 0.992 -6.461 0.992 -6.461 0.113 82.756
4467.625 0.114 82.667 0.992 -6.562 0.992 -6.562 0.114 82.667
4492.583 0.116 82.579 0.992 -6.662 0.992 -6.662 0.116 82.579
4517.542 0.118 82.49 0.992 -6.762 0.992 -6.762 0.118 82.49
4542.5 0.119 82.401 0.991 -6.862 0.991 -6.862 0.119 82.401
4567.458 0.121 82.313 0.991 -6.961 0.991 -6.961 0.121 82.313
4592.417 0.123 82.224 0.991 -7.06 0.991 -7.06 0.123 82.224
4617.375 0.125 82.136 0.991 -7.158 0.991 -7.158 0.125 82.136
4642.333 0.126 82.047 0.99 -7.256 0.99 -7.256 0.126 82.047
4667.292 0.128 81.959 0.99 -7.354 0.99 -7.354 0.128 81.959
4692.25 0.13 81.871 0.99 -7.451 0.99 -7.451 0.13 81.871
4717.208 0.131 81.783 0.99 -7.548 0.99 -7.548 0.131 81.783
4742.167 0.133 81.694 0.99 -7.645 0.99 -7.645 0.133 81.694
4767.125 0.135 81.607 0.989 -7.741 0.989 -7.741 0.135 81.607
4792.083 0.136 81.519 0.989 -7.837 0.989 -7.837 0.136 81.519
4817.042 0.138 81.431 0.989 -7.933 0.989 -7.933 0.138 81.431
4842 0.14 81.343 0.989 -8.028 0.989 -8.028 0.14 81.343
4866.958 0.141 81.256 0.988 -8.123 0.988 -8.123 0.141 81.256
4891.917 0.143 81.168 0.988 -8.218 0.988 -8.218 0.143 81.168
4916.875 0.145 81.081 0.988 -8.312 0.988 -8.312 0.145 81.081
4941.833 0.146 80.994 0.988 -8.406 0.988 -8.406 0.146 80.994
4966.792 0.148 80.907 0.987 -8.5 0.987 -8.5 0.148 80.907
4991.75 0.149 80.82 0.987 -8.593 0.987 -8.593 0.149 80.82
5016.708 0.151 80.733 0.987 -8.686 0.987 -8.686 0.151 80.733
5041.667 0.153 80.647 0.987 -8.779 0.987 -8.779 0.153 80.647
5066.625 0.154 80.56 0.987 -8.872 0.987 -8.872 0.154 80.56
5091.583 0.156 80.474 0.986 -8.964 0.986 -8.964 0.156 80.474
5116.542 0.157 80.388 0.986 -9.056 0.986 -9.056 0.157 80.388
5141.5 0.159 80.302 0.986 -9.148 0.986 -9.148 0.159 80.302
5166.458 0.161 80.216 0.985 -9.239 0.985 -9.239 0.161 80.216
5191.417 0.162 80.13 0.985 -9.33 0.985 -9.33 0.162 80.13
5216.375 0.164 80.045 0.985 -9.421 0.985 -9.421 0.164 80.045
5241.333 0.165 79.959 0.985 -9.511 0.985 -9.511 0.165 79.959
5266.292 0.167 79.874 0.984 -9.602 0.984 -9.602 0.167 79.874
5291.25 0.168 79.789 0.984 -9.692 0.984 -9.692 0.168 79.789
5316.208 0.17 79.704 0.984 -9.782 0.984 -9.782 0.17 79.704
5341.167 0.171 79.619 0.984 -9.871 0.984 -9.871 0.171 79.619
5366.125 0.173 79.535 0.983 -9.96 0.983 -9.96 0.173 79.535
5391.083 0.175 79.45 0.983 -10.049 0.983 -10.049 0.175 79.45
5416.042 0.176 79.366 0.983 -10.138 0.983 -10.138 0.176 79.366
5441 0.178 79.282 0.983 -10.227 0.983 -10.227 0.178 79.282
5465.958 0.179 79.198 0.982 -10.315 0.982 -10.315 0.179 79.198
5490.917 0.181 79.114 0.982 -10.403 0.982 -10.403 0.181 79.114
5515.875 0.182 79.03 0.982 -10.491 0.982 -10.491 0.182 79.03
5540.833 0.184 78.947 0.981 -10.578 0.981 -10.578 0.184 78.947
5565.792 0.185 78.863 0.981 -10.666 0.981 -10.666 0.185 78.863
5590.75 0.187 78.78 0.981 -10.753 0.981 -10.753 0.187 78.78
5615.708 0.188 78.697 0.981 -10.84 0.981 -10.84 0.188 78.697
5640.667 0.19 78.614 0.98 -10.926 0.98 -10.926 0.19 78.614
5665.625 0.191 78.532 0.98 -11.013 0.98 -11.013 0.191 78.532
5690.583 0.193 78.449 0.98 -11.099 0.98 -11.099 0.193 78.449
5715.542 0.194 78.367 0.979 -11.185 0.979 -11.185 0.194 78.367
5740.5 0.195 78.284 0.979 -11.271 0.979 -11.271 0.195 78.284
5765.458 0.197 78.202 0.979 -11.356 0.979 -11.356 0.197 78.202
5790.417 0.198 78.12 0.979 -11.442 0.979 -11.442 0.198 78.12
5815.375 0.2 78.038 0.978 -11.527 0.978 -11.527 0.2 78.038
5840.333 0.201 77.957 0.978 -11.612 0.978 -11.612 0.201 77.957
5865.292 0.203 77.875 0.978 -11.696 0.978 -11.696 0.203 77.875
5890.25 0.204 77.794 0.977 -11.781 0.977 -11.781 0.204 77.794
5915.208 0.206 77.713 0.977 -11.865 0.977 -11.865 0.206 77.713
5940.167 0.207 77.632 0.977 -11.949 0.977 -11.949 0.207 77.632
5965.125 0.208 77.551 0.977 -12.033 0.977 -12.033 0.208 77.551
5990.083 0.21 77.47 0.976 -12.117 0.976 -12.117 0.21 77.47
6015.042 0.211 77.39 0.976 -12.2 0.976 -12.2 0.211 77.39
6040 0.213 77.309 0.976 -12.283 0.976 -12.283 0.213 77.309
6064.958 0.214 77.229 0.975 -12.367 0.975 -12.367 0.214 77.229
6089.917 0.216 77.149 0.975 -12.449 0.975 -12.449 0.216 77.149
6114.875 0.217 77.069 0.975 -12.532 0.975 -12.532 0.217 77.069
6139.833 0.218 76.989 0.974 -12.615 0.974 -12.615 0.218 76.989
6164.792 0.22 76.909 0.974 -12.697 0.974 -12.697 0.22 76.909
6189.75 0.221 76.83 0.974 -12.779 0.974 -12.779 0.221 76.83
6214.708 0.223 76.75 0.973 -12.861 0.973 -12.861 0.223 76.75
6239.667 0.224 76.671 0.973 -12.943 0.973 -12.943 0.224 76.671
6264.625 0.225 76.592 0.973 -13.025 0.973 -13.025 0.225 76.592
6289.583 0.227 76.513 0.972 -13.106 0.972 -13.106 0.227 76.513
6314.542 0.228 76.434 0.972 -13.187 0.972 -13.187 0.228 76.434
6339.5 0.23 76.355 0.972 -13.268 0.972 -13.268 0.23 76.355
6364.458 0.231 76.277 0.971 -13.349 0.971 -13.349 0.231 76.277
6389.417 0.232 76.198 0.971 -13.43 0.971 -13.43 0.232 76.198
6414.375 0.234 76.12 0.971 -13.511 0.971 -13.511 0.234 76.12
6439.333 0.235 76.042 0.97 -13.591 0.97 -13.591 0.235 76.042
6464.292 0.236 75.964 0.97 -13.671 0.97 -13.671 0.236 75.964
6489.25 0.238 75.886 0.97 -13.751 0.97 -13.751 0.238 75.886
6514.208 0.239 75.809 0.97 -13.831 0.97 -13.831 0.239 75.809
6539.167 0.24 75.731 0.969 -13.911 0.969 -13.911 0.24 75.731
6564.125 0.242 75.654 0.969 -13.991 0.969 -13.991 0.242 75.654
6589.083 0.243 75.576 0.968 -14.07 0.968 -14.07 0.243 75.576
6614.042 0.244 75.499 0.968 -14.149 0.968 -14.149 0.244 75.499
6639 0.246 75.422 0.968 -14.228 0.968 -14.228 0.246 75.422
6663.958 0.247 75.345 0.967 -14.307 0.967 -14.307 0.247 75.345
6688.917 0.248 75.268 0.967 -14.386 0.967 -14.386 0.248 75.268
6713.875 0.25 75.192 0.967 -14.465 0.967 -14.465 0.25 75.192
6738.833 0.251 75.115 0.966 -14.543 0.966 -14.543 0.251 75.115
6763.792 0.252 75.039 0.966 -14.621 0.966 -14.621 0.252 75.039
6788.75 0.254 74.963 0.966 -14.699 0.966 -14.699 0.254 74.963
6813.708 0.255 74.886 0.965 -14.777 0.965 -14.777 0.255 74.886
6838.667 0.256 74.81 0.965 -14.855 0.965 -14.855 0.256 74.81
6863.625 0.258 74.735 0.965 -14.933 0.965 -14.933 0.258 74.735
6888.583 0.259 74.659 0.964 -15.01 0.964 -15.01 0.259 74.659
6913.542 0.26 74.583 0.964 -15.088 0.964 -15.088 0.26 74.583
6938.5 0.262 74.508 0.964 -15.165 0.964 -15.165 0.262 74.508
6963.458 0.263 74.432 0.963 -15.242 0.963 -15.242 0.263 74.432
6988.417 0.264 74.357 0.963 -15.319 0.963 -15.319 0.264 74.357
7013.375 0.265 74.282 0.963 -15.396 0.963 -15.396 0.265 74.282
7038.333 0.267 74.207 0.962 -15.473 0.962 -15.473 0.267 74.207
7063.292 0.268 74.132 0.962 -15.549 0.962 -15.549 0.268 74.132
7088.25 0.269 74.057 0.962 -15.625 0.962 -15.625 0.269 74.057
7113.208 0.271 73.983 0.961 -15.702 0.961 -15.702 0.271 73.983
7138.167 0.272 73.908 0.961 -15.778 0.961 -15.778 0.272 73.908
7163.125 0.273 73.834 0.96 -15.854 0.96 -15.854 0.273 73.834
7188.083 0.274 73.76 0.96 -15.93 0.96 -15.93 0.274 73.76
7213.042 0.276 73.686 0.96 -16.005 0.96 -16.005 0.276 73.686
7238 0.277 73.612 0.959 -16.081 0.959 -16.081 0.277 73.612
7262.958 0.278 73.538 0.959 -16.156 0.959 -16.156 0.278 73.538
7287.917 0.28 73.464 0.959 -16.231 0.959 -16.231 0.28 73.464
7312.875 0.281 73.39 0.958 -16.307 0.958 -16.307 0.281 73.39
7337.833 0.282 73.317 0.958 -16.382 0.958 -16.382 0.282 73.317
7362.792 0.283 73.243 0.958 -16.456 0.958 -16.456 0.283 73.243
7387.75 0.285 73.17 0.957 -16.531 0.957 -16.531 0.285 73.17
7412.708 0.286 73.097 0.957 -16.606 0.957 -16.606 0.286 73.097
7437.667 0.287 73.024 0.956 -16.68 0.956 -16.68 0.287 73.024
7462.625 0.288 72.951 0.956 -16.755 0.956 -16.755 0.288 72.951
7487.583 0.29 72.878 0.956 -16.829 0.956 -16.829 0.29 72.878
7512.542 0.291 72.805 0.955 -16.903 0.955 -16.903 0.291 72.805
7537.5 0.292 72.733 0.955 -16.977 0.955 -16.977 0.292 72.733
7562.458 0.293 72.66 0.955 -17.051 0.955 -17.051 0.293 72.66
7587.417 0.294 72.588 0.954 -17.124 0.954 -17.124 0.294 72.588
7612.375 0.296 72.516 0.954 -17.198 0.954 -17.198 0.296 72.516
7637.333 0.297 72.443 0.953 -17.271 0.953 -17.271 0.297 72.443
7662.292 0.298 72.371 0.953 -17.345 0.953 -17.345 0.298 72.371
7687.25 0.299 72.299 0.953 -17.418 0.953 -17.418 0.299 72.299
7712.208 0.301 72.228 0.952 -17.491 0.952 -17.491 0.301 72.228
7737.167 0.302 72.156 0.952 -17.564 0.952 -17.564 0.302 72.156
7762.125 0.303 72.084 0.952 -17.637 0.952 -17.637 0.303 72.084
7787.083 0.304 72.013 0.951 -17.709 0.951 -17.709 0.304 72.013
7812.042 0.305 71.942 0.951 -17.782 0.951 -17.782 0.305 71.942
7837 0.307 71.87 0.95 -17.854 0.95 -17.854 0.307 71.87
7861.958 0.308 71.799 0.95 -17.927 0.95 -17.927 0.308 71.799
7886.917 0.309 71.728 0.95 -17.999 0.95 -17.999 0.309 71.728
7911.875 0.31 71.657 0.949 -18.071 0.949 -18.071 0.31 71.657
7936.833 0.311 71.586 0.949 -18.143 0.949 -18.143 0.311 71.586
7961.792 0.313 71.516 0.948 -18.215 0.948 -18.215 0.313 71.516
7986.75 0.314 71.445 0.948 -18.287 0.948 -18.287 0.314 71.445
8011.708 0.315 71.374 0.948 -18.358 0.948 -18.358 0.315 71.374
8036.667 0.316 71.304 0.947 -18.43 0.947 -18.43 0.316 71.304
8061.625 0.317 71.234 0.947 -18.501 0.947 -18.501 0.317 71.234
8086.583 0.319 71.163 0.946 -18.573 0.946 -18.573 0.319 71.163
8111.542 0.32 71.093 0.946 -18.644 0.946 -18.644 0.32 71.093
8136.5 0.321 71.023 0.946 -18.715 0.946 -18.715 0.321 71.023
8161.458 0.322 70.954 0.945 -18.786 0.945 -18.786 0.322 70.954
8186.417 0.323 70.884 0.945 -18.857 0.945 -18.857 0.323 70.884
