# MHZ S MA R 50

50 0.999 -2.069 0.036 87.926 0.036 87.926 0.999 -2.069
74.958 0.999 -3.101 0.054 86.892 0.054 86.892 0.999 -3.101
99.917 0.997 -4.131 0.072 85.86 0.072 85.86 0.997 -4.131
124.875 0.996 -5.159 0.09 84.829 0.09 84.829 0.996 -5.159
149.833 0.994 -6.184 0.108 83.802 0.108 83.802 0.994 -6.184
174.792 0.992 -7.206 0.125 82.777 0.125 82.777 0.992 -7.206
199.75 0.99 -8.224 0.143 81.757 0.143 81.757 0.99 -8.224
224.708 0.987 -9.238 0.161 80.74 0.161 80.74 0.987 -9.238
249.667 0.984 -10.247 0.178 79.728 0.178 79.728 0.984 -10.247
274.625 0.981 -11.252 0.195 78.722 0.195 78.722 0.981 -11.252
299.583 0.977 -12.25 0.212 77.721 0.212 77.721 0.977 -12.25
324.542 0.973 -13.243 0.229 76.725 0.229 76.725 0.973 -13.243
349.5 0.969 -14.229 0.246 75.737 0.246 75.737 0.969 -14.229
374.458 0.965 -15.209 0.262 74.755 0.262 74.755 0.965 -15.209
399.417 0.96 -16.181 0.279 73.78 0.279 73.78 0.96 -16.181
424.375 0.955 -17.146 0.295 72.813 0.295 72.813 0.955 -17.146
449.333 0.95 -18.103 0.311 71.853 0.311 71.853 0.95 -18.103
474.292 0.945 -19.052 0.326 70.902 0.326 70.902 0.945 -19.052
499.25 0.939 -19.992 0.342 69.96 0.342 69.96 0.939 -19.992
524.208 0.934 -20.923 0.357 69.026 0.357 69.026 0.934 -20.923
549.167 0.928 -21.846 0.372 68.101 0.372 68.101 0.928 -21.846
574.125 0.922 -22.759 0.387 67.185 0.387 67.185 0.922 -22.759
599.083 0.916 -23.663 0.401 66.279 0.401 66.279 0.916 -23.663
624.042 0.909 -24.557 0.416 65.382 0.416 65.382 0.909 -24.557
649 0.903 -25.441 0.43 64.495 0.43 64.495 0.903 -25.441
673.958 0.896 -26.316 0.443 63.618 0.443 63.618 0.896 -26.316
698.917 0.889 -27.18 0.457 62.751 0.457 62.751 0.889 -27.18
723.875 0.882 -28.034 0.47 61.894 0.47 61.894 0.882 -28.034
748.833 0.875 -28.878 0.483 61.048 0.483 61.048 0.875 -28.878
773.792 0.868 -29.712 0.496 60.212 0.496 60.212 0.868 -29.712
798.75 0.861 -30.535 0.508 59.386 0.508 59.386 0.861 -30.535
823.708 0.853 -31.348 0.52 58.571 0.52 58.571 0.853 -31.348
848.667 0.846 -32.15 0.532 57.766 0.532 57.766 0.846 -32.15
873.625 0.838 -32.942 0.544 56.972 0.544 56.972 0.838 -32.942
898.583 0.831 -33.723 0.555 56.188 0.555 56.188 0.831 -33.723
923.542 0.823 -34.494 0.566 55.414 0.566 55.414 0.823 -34.494
948.5 0.816 -35.254 0.577 54.651 0.577 54.651 0.816 -35.254
973.458 0.808 -36.004 0.588 53.899 0.588 53.899 0.808 -36.004
998.417 0.8 -36.744 0.598 53.156 0.598 53.156 0.8 -36.744
1023.375 0.793 -37.473 0.608 52.424 0.608 52.424 0.793 -37.473
1048.333 0.785 -38.192 0.618 51.703 0.618 51.703 0.785 -38.192
1073.292 0.777 -38.901 0.628 50.991 0.628 50.991 0.777 -38.901
1098.25 0.769 -39.6 0.637 50.29 0.637 50.29 0.769 -39.6
1123.208 0.762 -40.288 0.647 49.598 0.647 49.598 0.762 -40.288
1148.167 0.754 -40.967 0.656 48.917 0.656 48.917 0.754 -40.967
1173.125 0.746 -41.636 0.664 48.245 0.664 48.245 0.746 -41.636
1198.083 0.738 -42.296 0.673 47.583 0.673 47.583 0.738 -42.296
1223.042 0.731 -42.945 0.681 46.93 0.681 46.93 0.731 -42.945
1248 0.723 -43.586 0.689 46.287 0.689 46.287 0.723 -43.586
1272.958 0.715 -44.217 0.697 45.653 0.697 45.653 0.715 -44.217
1297.917 0.707 -44.838 0.705 45.029 0.705 45.029 0.707 -44.838
1322.875 0.7 -45.451 0.713 44.413 0.713 44.413 0.7 -45.451
1347.833 0.692 -46.054 0.72 43.807 0.72 43.807 0.692 -46.054
1372.792 0.685 -46.649 0.727 43.209 0.727 43.209 0.685 -46.649
1397.75 0.677 -47.235 0.734 42.62 0.734 42.62 0.677 -47.235
1422.708 0.67 -47.813 0.741 42.039 0.741 42.039 0.67 -47.813
1447.667 0.662 -48.382 0.748 41.467 0.748 41.467 0.662 -48.382
1472.625 0.655 -48.943 0.754 40.904 0.754 40.904 0.655 -48.943
1497.583 0.647 -49.495 0.76 40.348 0.76 40.348 0.647 -49.495
1522.542 0.64 -50.04 0.766 39.8 0.766 39.8 0.64 -50.04
1547.5 0.633 -50.576 0.772 39.261 0.772 39.261 0.633 -50.576
1572.458 0.626 -51.105 0.778 38.729 0.778 38.729 0.626 -51.105
1597.417 0.618 -51.626 0.784 38.205 0.784 38.205 0.618 -51.626
1622.375 0.611 -52.14 0.79 37.688 0.79 37.688 0.611 -52.14
1647.333 0.604 -52.646 0.795 37.178 0.795 37.178 0.604 -52.646
1672.292 0.597 -53.145 0.8 36.676 0.8 36.676 0.597 -53.145
1697.25 0.59 -53.637 0.805 36.181 0.805 36.181 0.59 -53.637
1722.208 0.583 -54.122 0.81 35.693 0.81 35.693 0.583 -54.122
1747.167 0.577 -54.6 0.815 35.211 0.815 35.211 0.577 -54.6
1772.125 0.57 -55.071 0.82 34.737 0.82 34.737 0.57 -55.071
1797.083 0.563 -55.536 0.824 34.269 0.824 34.269 0.563 -55.536
1822.042 0.556 -55.994 0.829 33.807 0.829 33.807 0.556 -55.994
1847 0.55 -56.446 0.833 33.352 0.833 33.352 0.55 -56.446
1871.958 0.543 -56.891 0.838 32.903 0.838 32.903 0.543 -56.891
1896.917 0.537 -57.331 0.842 32.46 0.842 32.46 0.537 -57.331
1921.875 0.53 -57.764 0.846 32.023 0.846 32.023 0.53 -57.764
1946.833 0.524 -58.191 0.85 31.592 0.85 31.592 0.524 -58.191
1971.792 0.518 -58.613 0.854 31.167 0.854 31.167 0.518 -58.613
1996.75 0.511 -59.029 0.857 30.747 0.857 30.747 0.511 -59.029
2021.708 0.505 -59.44 0.861 30.333 0.861 30.333 0.505 -59.44
2046.667 0.499 -59.845 0.865 29.924 0.865 29.924 0.499 -59.845
2071.625 0.493 -60.244 0.868 29.521 0.868 29.521 0.493 -60.244
2096.583 0.487 -60.638 0.872 29.122 0.872 29.122 0.487 -60.638
2121.542 0.481 -61.028 0.875 28.729 0.875 28.729 0.481 -61.028
2146.5 0.475 -61.412 0.878 28.341 0.878 28.341 0.475 -61.412
2171.458 0.469 -61.791 0.881 27.958 0.881 27.958 0.469 -61.791
2196.417 0.463 -62.165 0.884 27.58 0.884 27.58 0.463 -62.165
2221.375 0.457 -62.535 0.887 27.206 0.887 27.206 0.457 -62.535
2246.333 0.451 -62.899 0.89 26.837 0.89 26.837 0.451 -62.899
2271.292 0.446 -63.259 0.893 26.473 0.893 26.473 0.446 -63.259
2296.25 0.44 -63.615 0.896 26.113 0.896 26.113 0.44 -63.615
2321.208 0.435 -63.966 0.899 25.758 0.899 25.758 0.435 -63.966
2346.167 0.429 -64.313 0.901 25.406 0.901 25.406 0.429 -64.313
2371.125 0.424 -64.656 0.904 25.059 0.904 25.059 0.424 -64.656
2396.083 0.418 -64.994 0.906 24.716 0.906 24.716 0.418 -64.994
2421.042 0.413 -65.329 0.909 24.377 0.909 24.377 0.413 -65.329
2446 0.407 -65.659 0.911 24.043 0.911 24.043 0.407 -65.659
2470.958 0.402 -65.985 0.913 23.711 0.913 23.711 0.402 -65.985
2495.917 0.397 -66.308 0.916 23.384 0.916 23.384 0.397 -66.308
2520.875 0.392 -66.626 0.918 23.061 0.918 23.061 0.392 -66.626
2545.833 0.387 -66.941 0.92 22.741 0.92 22.741 0.387 -66.941
2570.792 0.381 -67.252 0.922 22.425 0.922 22.425 0.381 -67.252
2595.75 0.376 -67.56 0.924 22.112 0.924 22.112 0.376 -67.56
2620.708 0.371 -67.864 0.926 21.803 0.926 21.803 0.371 -67.864
2645.667 0.366 -68.165 0.928 21.497 0.928 21.497 0.366 -68.165
2670.625 0.362 -68.462 0.93 21.195 0.93 21.195 0.362 -68.462
2695.583 0.357 -68.755 0.932 20.896 0.932 20.896 0.357 -68.755
2720.542 0.352 -69.046 0.934 20.6 0.934 20.6 0.352 -69.046
2745.5 0.347 -69.333 0.936 20.307 0.936 20.307 0.347 -69.333
2770.458 0.342 -69.617 0.937 20.017 0.937 20.017 0.342 -69.617
2795.417 0.338 -69.898 0.939 19.73 0.939 19.73 0.338 -69.898
2820.375 0.333 -70.176 0.941 19.447 0.941 19.447 0.333 -70.176
2845.333 0.328 -70.451 0.942 19.166 0.942 19.166 0.328 -70.451
2870.292 0.324 -70.723 0.944 18.888 0.944 18.888 0.324 -70.723
2895.25 0.319 -70.992 0.945 18.613 0.945 18.613 0.319 -70.992
2920.208 0.315 -71.258 0.947 18.341 0.947 18.341 0.315 -71.258
2945.167 0.31 -71.521 0.948 18.071 0.948 18.071 0.31 -71.521
2970.125 0.306 -71.781 0.95 17.804 0.95 17.804 0.306 -71.781
2995.083 0.301 -72.039 0.951 17.54 0.951 17.54 0.301 -72.039
3020.042 0.297 -72.294 0.953 17.278 0.953 17.278 0.297 -72.294
3045 0.293 -72.546 0.954 17.019 0.954 17.019 0.293 -72.546
3069.958 0.288 -72.796 0.955 16.762 0.955 16.762 0.288 -72.796
3094.917 0.284 -73.043 0.957 16.508 0.957 16.508 0.284 -73.043
3119.875 0.28 -73.287 0.958 16.256 0.958 16.256 0.28 -73.287
3144.833 0.276 -73.53 0.959 16.006 0.959 16.006 0.276 -73.53
3169.792 0.272 -73.769 0.96 15.759 0.96 15.759 0.272 -73.769
3194.75 0.267 -74.006 0.961 15.514 0.961 15.514 0.267 -74.006
3219.708 0.263 -74.241 0.962 15.271 0.962 15.271 0.263 -74.241
3244.667 0.259 -74.473 0.964 15.031 0.964 15.031 0.259 -74.473
3269.625 0.255 -74.703 0.965 14.792 0.965 14.792 0.255 -74.703
3294.583 0.251 -74.931 0.966 14.556 0.966 14.556 0.251 -74.931
3319.542 0.247 -75.157 0.967 14.322 0.967 14.322 0.247 -75.157
3344.5 0.243 -75.38 0.968 14.089 0.968 14.089 0.243 -75.38
3369.458 0.24 -75.601 0.969 13.859 0.969 13.859 0.24 -75.601
3394.417 0.236 -75.82 0.97 13.631 0.97 13.631 0.236 -75.82
3419.375 0.232 -76.036 0.97 13.405 0.97 13.405 0.232 -76.036
3444.333 0.228 -76.251 0.971 13.181 0.971 13.181 0.228 -76.251
3469.292 0.224 -76.463 0.972 12.958 0.972 12.958 0.224 -76.463
3494.25 0.22 -76.673 0.973 12.737 0.973 12.737 0.22 -76.673
3519.208 0.217 -76.881 0.974 12.519 0.974 12.519 0.217 -76.881
3544.167 0.213 -77.087 0.975 12.302 0.975 12.302 0.213 -77.087
3569.125 0.209 -77.291 0.976 12.086 0.976 12.086 0.209 -77.291
3594.083 0.206 -77.493 0.976 11.873 0.976 11.873 0.206 -77.493
3619.042 0.202 -77.693 0.977 11.661 0.977 11.661 0.202 -77.693
3644 0.199 -77.891 0.978 11.451 0.978 11.451 0.199 -77.891
3668.958 0.195 -78.087 0.979 11.243 0.979 11.243 0.195 -78.087
3693.917 0.191 -78.281 0.979 11.036 0.979 11.036 0.191 -78.281
3718.875 0.188 -78.473 0.98 10.83 0.98 10.83 0.188 -78.473
3743.833 0.184 -78.663 0.981 10.627 0.981 10.627 0.184 -78.663
3768.792 0.181 -78.851 0.981 10.424 0.981 10.424 0.181 -78.851
3793.75 0.178 -79.038 0.982 10.224 0.982 10.224 0.178 -79.038
3818.708 0.174 -79.222 0.982 10.025 0.982 10.025 0.174 -79.222
3843.667 0.171 -79.404 0.983 9.827 0.983 9.827 0.171 -79.404
3868.625 0.167 -79.584 0.984 9.631 0.984 9.631 0.167 -79.584
3893.583 0.164 -79.762 0.984 9.436 0.984 9.436 0.164 -79.762
3918.542 0.161 -79.939 0.985 9.243 0.985 9.243 0.161 -79.939
3943.5 0.157 -80.113 0.985 9.051 0.985 9.051 0.157 -80.113
3968.458 0.154 -80.285 0.986 8.86 0.986 8.86 0.154 -80.285
3993.417 0.151 -80.456 0.986 8.671 0.986 8.671 0.151 -80.456
4018.375 0.148 -80.624 0.987 8.483 0.987 8.483 0.148 -80.624
4043.333 0.144 -80.79 0.987 8.296 0.987 8.296 0.144 -80.79
4068.292 0.141 -80.955 0.988 8.111 0.988 8.111 0.141 -80.955
4093.25 0.138 -81.117 0.988 7.927 0.988 7.927 0.138 -81.117
4118.208 0.135 -81.277 0.989 7.744 0.989 7.744 0.135 -81.277
4143.167 0.132 -81.435 0.989 7.562 0.989 7.562 0.132 -81.435
4168.125 0.128 -81.59 0.989 7.382 0.989 7.382 0.128 -81.59
4193.083 0.125 -81.744 0.99 7.202 0.99 7.202 0.125 -81.744
4218.042 0.122 -81.895 0.99 7.024 0.99 7.024 0.122 -81.895
4243 0.119 -82.043 0.991 6.847 0.991 6.847 0.119 -82.043
4267.958 0.116 -82.19 0.991 6.672 0.991 6.672 0.116 -82.19
4292.917 0.113 -82.333 0.991 6.497 0.991 6.497 0.113 -82.333
4317.875 0.11 -82.475 0.992 6.323 0.992 6.323 0.11 -82.475
4342.833 0.107 -82.613 0.992 6.151 0.992 6.151 0.107 -82.613
4367.792 0.104 -82.749 0.992 5.98 0.992 5.98 0.104 -82.749
4392.75 0.101 -82.881 0.993 5.809 0.993 5.809 0.101 -82.881
4417.708 0.098 -83.011 0.993 5.64 0.993 5.64 0.098 -83.011
4442.667 0.095 -83.138 0.993 5.472 0.993 5.472 0.095 -83.138
4467.625 0.092 -83.261 0.993 5.305 0.993 5.305 0.092 -83.261
4492.583 0.09 -83.38 0.994 5.139 0.994 5.139 0.09 -83.38
4517.542 0.087 -83.496 0.994 4.973 0.994 4.973 0.087 -83.496
4542.5 0.084 -83.608 0.994 4.809 0.994 4.809 0.084 -83.608
4567.458 0.081 -83.715 0.994 4.646 0.994 4.646 0.081 -83.715
4592.417 0.078 -83.818 0.995 4.484 0.995 4.484 0.078 -83.818
4617.375 0.075 -83.916 0.995 4.322 0.995 4.322 0.075 -83.916
4642.333 0.073 -84.008 0.995 4.162 0.995 4.162 0.073 -84.008
4667.292 0.07 -84.094 0.995 4.002 0.995 4.002 0.07 -84.094
4692.25 0.067 -84.174 0.995 3.844 0.995 3.844 0.067 -84.174
4717.208 0.064 -84.247 0.996 3.686 0.996 3.686 0.064 -84.247
4742.167 0.062 -84.312 0.996 3.529 0.996 3.529 0.062 -84.312
4767.125 0.059 -84.368 0.996 3.373 0.996 3.373 0.059 -84.368
4792.083 0.056 -84.414 0.996 3.218 0.996 3.218 0.056 -84.414
4817.042 0.053 -84.449 0.996 3.064 0.996 3.064 0.053 -84.449
4842 0.051 -84.471 0.996 2.91 0.996 2.91 0.051 -84.471
4866.958 0.048 -84.479 0.997 2.758 0.997 2.758 0.048 -84.479
4891.917 0.046 -84.47 0.997 2.606 0.997 2.606 0.046 -84.47
4916.875 0.043 -84.441 0.997 2.455 0.997 2.455 0.043 -84.441
4941.833 0.04 -84.389 0.997 2.305 0.997 2.305 0.04 -84.389
4966.792 0.038 -84.309 0.997 2.155 0.997 2.155 0.038 -84.309
4991.75 0.035 -84.197 0.997 2.007 0.997 2.007 0.035 -84.197
5016.708 0.033 -84.043 0.997 1.859 0.997 1.859 0.033 -84.043
5041.667 0.03 -83.839 0.997 1.712 0.997 1.712 0.03 -83.839
5066.625 0.027 -83.571 0.997 1.565 0.997 1.565 0.027 -83.571
5091.583 0.025 -83.22 0.997 1.42 0.997 1.42 0.025 -83.22
5116.542 0.022 -82.76 0.997 1.275 0.997 1.275 0.022 -82.76
5141.5 0.02 -82.149 0.997 1.13 0.997 1.13 0.02 -82.149
5166.458 0.017 -81.327 0.998 0.987 0.998 0.987 0.017 -81.327
5191.417 0.015 -80.189 0.998 0.844 0.998 0.844 0.015 -80.189
5216.375 0.012 -78.555 0.998 0.702 0.998 0.702 0.012 -78.555
5241.333 0.01 -76.075 0.998 0.561 0.998 0.561 0.01 -76.075
5266.292 7.69e-3 -71.982 0.998 0.42 0.998 0.42 7.69e-3 -71.982
5291.25 5.411e-3 -64.271 0.998 0.28 0.998 0.28 5.411e-3 -64.271
5316.208 3.38e-3 -46.392 0.998 0.141 0.998 0.141 3.38e-3 -46.392
5341.167 2.325e-3 -0.773 0.998 1.803e-3 0.998 1.803e-3 2.325e-3 -0.773
5366.125 3.326e-3 45.517 0.998 -0.136 0.998 -0.136 3.326e-3 45.517
5391.083 5.313e-3 63.776 0.998 -0.274 0.998 -0.274 5.313e-3 63.776
5416.042 7.533e-3 71.613 0.998 -0.411 0.998 -0.411 7.533e-3 71.613
5441 9.822e-3 75.76 0.998 -0.547 0.998 -0.547 9.822e-3 75.76
5465.958 0.012 78.271 0.998 -0.682 0.998 -0.682 0.012 78.271
5490.917 0.014 79.926 0.998 -0.817 0.998 -0.817 0.014 79.926
5515.875 0.017 81.08 0.998 -0.952 0.998 -0.952 0.017 81.08
5540.833 0.019 81.918 0.997 -1.085 0.997 -1.085 0.019 81.918
5565.792 0.021 82.543 0.997 -1.219 0.997 -1.219 0.021 82.543
5590.75 0.024 83.019 0.997 -1.351 0.997 -1.351 0.024 83.019
5615.708 0.026 83.386 0.997 -1.483 0.997 -1.483 0.026 83.386
5640.667 0.028 83.67 0.997 -1.615 0.997 -1.615 0.028 83.67
5665.625 0.031 83.891 0.997 -1.746 0.997 -1.746 0.031 83.891
5690.583 0.033 84.063 0.997 -1.876 0.997 -1.876 0.033 84.063
5715.542 0.035 84.196 0.997 -2.006 0.997 -2.006 0.035 84.196
5740.5 0.037 84.296 0.997 -2.135 0.997 -2.135 0.037 84.296
5765.458 0.04 84.37 0.997 -2.263 0.997 -2.263 0.04 84.37
5790.417 0.042 84.422 0.997 -2.392 0.997 -2.392 0.042 84.422
5815.375 0.044 84.456 0.997 -2.519 0.997 -2.519 0.044 84.456
5840.333 0.046 84.474 0.997 -2.646 0.997 -2.646 0.046 84.474
5865.292 0.048 84.479 0.997 -2.773 0.997 -2.773 0.048 84.479
5890.25 0.051 84.472 0.996 -2.899 0.996 -2.899 0.051 84.472
5915.208 0.053 84.456 0.996 -3.024 0.996 -3.024 0.053 84.456
5940.167 0.055 84.431 0.996 -3.149 0.996 -3.149 0.055 84.431
5965.125 0.057 84.398 0.996 -3.274 0.996 -3.274 0.057 84.398
5990.083 0.059 84.359 0.996 -3.398 0.996 -3.398 0.059 84.359
6015.042 0.061 84.315 0.996 -3.522 0.996 -3.522 0.061 84.315
6040 0.064 84.265 0.996 -3.645 0.996 -3.645 0.064 84.265
6064.958 0.066 84.21 0.996 -3.767 0.996 -3.767 0.066 84.21
6089.917 0.068 84.152 0.995 -3.889 0.995 -3.889 0.068 84.152
6114.875 0.07 84.09 0.995 -4.011 0.995 -4.011 0.07 84.09
6139.833 0.072 84.024 0.995 -4.132 0.995 -4.132 0.072 84.024
6164.792 0.074 83.956 0.995 -4.253 0.995 -4.253 0.074 83.956
6189.75 0.076 83.885 0.995 -4.373 0.995 -4.373 0.076 83.885
6214.708 0.078 83.812 0.995 -4.493 0.995 -4.493 0.078 83.812
6239.667 0.08 83.737 0.994 -4.612 0.994 -4.612 0.08 83.737
6264.625 0.083 83.66 0.994 -4.731 0.994 -4.731 0.083 83.66
6289.583 0.085 83.581 0.994 -4.85 0.994 -4.85 0.085 83.581
6314.542 0.087 83.5 0.994 -4.968 0.994 -4.968 0.087 83.5
6339.5 0.089 83.418 0.994 -5.085 0.994 -5.085 0.089 83.418
6364.458 0.091 83.335 0.994 -5.203 0.994 -5.203 0.091 83.335
6389.417 0.093 83.25 0.993 -5.319 0.993 -5.319 0.093 83.25
6414.375 0.095 83.165 0.993 -5.436 0.993 -5.436 0.095 83.165
6439.333 0.097 83.078 0.993 -5.552 0.993 -5.552 0.097 83.078
6464.292 0.099 82.991 0.993 -5.667 0.993 -5.667 0.099 82.991
6489.25 0.101 82.902 0.993 -5.782 0.993 -5.782 0.101 82.902
6514.208 0.103 82.813 0.992 -5.897 0.992 -5.897 0.103 82.813
6539.167 0.105 82.724 0.992 -6.011 0.992 -6.011 0.105 82.724
6564.125 0.107 82.634 0.992 -6.125 0.992 -6.125 0.107 82.634
6589.083 0.109 82.543 0.992 -6.239 0.992 -6.239 0.109 82.543
6614.042 0.111 82.452 0.992 -6.352 0.992 -6.352 0.111 82.452
6639 0.113 82.36 0.991 -6.465 0.991 -6.465 0.113 82.36
6663.958 0.115 82.268 0.991 -6.577 0.991 -6.577 0.115 82.268
6688.917 0.117 82.175 0.991 -6.689 0.991 -6.689 0.117 82.175
6713.875 0.118 82.082 0.991 -6.801 0.991 -6.801 0.118 82.082
6738.833 0.12 81.989 0.99 -6.912 0.99 -6.912 0.12 81.989
6763.792 0.122 81.896 0.99 -7.023 0.99 -7.023 0.122 81.896
6788.75 0.124 81.802 0.99 -7.133 0.99 -7.133 0.124 81.802
6813.708 0.126 81.709 0.99 -7.243 0.99 -7.243 0.126 81.709
6838.667 0.128 81.615 0.989 -7.353 0.989 -7.353 0.128 81.615
6863.625 0.13 81.521 0.989 -7.463 0.989 -7.463 0.13 81.521
6888.583 0.132 81.426 0.989 -7.572 0.989 -7.572 0.132 81.426
6913.542 0.134 81.332 0.989 -7.68 0.989 -7.68 0.134 81.332
6938.5 0.136 81.237 0.988 -7.789 0.988 -7.789 0.136 81.237
6963.458 0.137 81.143 0.988 -7.897 0.988 -7.897 0.137 81.143
6988.417 0.139 81.048 0.988 -8.004 0.988 -8.004 0.139 81.048
7013.375 0.141 80.954 0.988 -8.112 0.988 -8.112 0.141 80.954
7038.333 0.143 80.859 0.987 -8.219 0.987 -8.219 0.143 80.859
7063.292 0.145 80.764 0.987 -8.325 0.987 -8.325 0.145 80.764
7088.25 0.147 80.67 0.987 -8.432 0.987 -8.432 0.147 80.67
7113.208 0.148 80.575 0.987 -8.538 0.987 -8.538 0.148 80.575
7138.167 0.15 80.48 0.986 -8.643 0.986 -8.643 0.15 80.48
7163.125 0.152 80.386 0.986 -8.749 0.986 -8.749 0.152 80.386
7188.083 0.154 80.291 0.986 -8.854 0.986 -8.854 0.154 80.291
7213.042 0.156 80.197 0.986 -8.958 0.986 -8.958 0.156 80.197
7238 0.158 80.102 0.985 -9.063 0.985 -9.063 0.158 80.102
7262.958 0.159 80.008 0.985 -9.167 0.985 -9.167 0.159 80.008
7287.917 0.161 79.913 0.985 -9.271 0.985 -9.271 0.161 79.913
7312.875 0.163 79.819 0.984 -9.374 0.984 -9.374 0.163 79.819
7337.833 0.165 79.725 0.984 -9.477 0.984 -9.477 0.165 79.725
7362.792 0.166 79.631 0.984 -9.58 0.984 -9.58 0.166 79.631
7387.75 0.168 79.537 0.983 -9.683 0.983 -9.683 0.168 79.537
7412.708 0.17 79.443 0.983 -9.785 0.983 -9.785 0.17 79.443
7437.667 0.172 79.349 0.983 -9.887 0.983 -9.887 0.172 79.349
7462.625 0.173 79.255 0.983 -9.989 0.983 -9.989 0.173 79.255
7487.583 0.175 79.161 0.982 -10.09 0.982 -10.09 0.175 79.161
7512.542 0.177 79.068 0.982 -10.191 0.982 -10.191 0.177 79.068
7537.5 0.179 78.975 0.982 -10.292 0.982 -10.292 0.179 78.975
7562.458 0.18 78.881 0.981 -10.392 0.981 -10.392 0.18 78.881
7587.417 0.182 78.788 0.981 -10.492 0.981 -10.492 0.182 78.788
7612.375 0.184 78.695 0.981 -10.592 0.981 -10.592 0.184 78.695
7637.333 0.186 78.602 0.98 -10.692 0.98 -10.692 0.186 78.602
7662.292 0.187 78.51 0.98 -10.791 0.98 -10.791 0.187 78.51
7687.25 0.189 78.417 0.98 -10.891 0.98 -10.891 0.189 78.417
7712.208 0.191 78.325 0.979 -10.989 0.979 -10.989 0.191 78.325
7737.167 0.192 78.232 0.979 -11.088 0.979 -11.088 0.192 78.232
7762.125 0.194 78.14 0.979 -11.186 0.979 -11.186 0.194 78.14
7787.083 0.196 78.048 0.978 -11.284 0.978 -11.284 0.196 78.048
7812.042 0.197 77.956 0.978 -11.382 0.978 -11.382 0.197 77.956
7837 0.199 77.865 0.978 -11.479 0.978 -11.479 0.199 77.865
7861.958 0.201 77.773 0.977 -11.577 0.977 -11.577 0.201 77.773
7886.917 0.202 77.682 0.977 -11.674 0.977 -11.674 0.202 77.682
7911.875 0.204 77.59 0.977 -11.77 0.977 -11.77 0.204 77.59
7936.833 0.206 77.499 0.976 -11.867 0.976 -11.867 0.206 77.499
7961.792 0.207 77.408 0.976 -11.963 0.976 -11.963 0.207 77.408
7986.75 0.209 77.318 0.976 -12.059 0.976 -12.059 0.209 77.318
8011.708 0.211 77.227 0.975 -12.154 0.975 -12.154 0.211 77.227
8036.667 0.212 77.137 0.975 -12.25 0.975 -12.25 0.212 77.137
8061.625 0.214 77.046 0.975 -12.345 0.975 -12.345 0.214 77.046
8086.583 0.215 76.956 0.974 -12.44 0.974 -12.44 0.215 76.956
8111.542 0.217 76.866 0.974 -12.534 0.974 -12.534 0.217 76.866
8136.5 0.219 76.777 0.974 -12.629 0.974 -12.629 0.219 76.777
8161.458 0.22 76.687 0.973 -12.723 0.973 -12.723 0.22 76.687
8186.417 0.222 76.597 0.973 -12.817 0.973 -12.817 0.222 76.597
