# MHZ S MA R 50

50 1 -1.08 0.019 88.917 0.019 88.917 1 -1.08
74.958 1 -1.619 0.028 88.376 0.028 88.376 1 -1.619
99.917 0.999 -2.158 0.038 87.836 0.038 87.836 0.999 -2.158
124.875 0.999 -2.696 0.047 87.296 0.047 87.296 0.999 -2.696
149.833 0.998 -3.234 0.056 86.756 0.056 86.756 0.998 -3.234
174.792 0.998 -3.772 0.066 86.216 0.066 86.216 0.998 -3.772
199.75 0.997 -4.309 0.075 85.677 0.075 85.677 0.997 -4.309
224.708 0.996 -4.846 0.084 85.139 0.084 85.139 0.996 -4.846
249.667 0.996 -5.383 0.094 84.601 0.094 84.601 0.996 -5.383
274.625 0.995 -5.919 0.103 84.063 0.103 84.063 0.995 -5.919
299.583 0.994 -6.454 0.112 83.527 0.112 83.527 0.994 -6.454
324.542 0.993 -6.988 0.122 82.99 0.122 82.99 0.993 -6.988
349.5 0.991 -7.522 0.131 82.455 0.131 82.455 0.991 -7.522
374.458 0.99 -8.055 0.14 81.921 0.14 81.921 0.99 -8.055
399.417 0.989 -8.587 0.149 81.387 0.149 81.387 0.989 -8.587
424.375 0.987 -9.118 0.158 80.854 0.158 80.854 0.987 -9.118
449.333 0.986 -9.648 0.168 80.323 0.168 80.323 0.986 -9.648
474.292 0.984 -10.177 0.177 79.792 0.177 79.792 0.984 -10.177
499.25 0.982 -10.705 0.186 79.262 0.186 79.262 0.982 -10.705
524.208 0.981 -11.231 0.195 78.734 0.195 78.734 0.981 -11.231
549.167 0.979 -11.757 0.204 78.207 0.204 78.207 0.979 -11.757
574.125 0.977 -12.281 0.213 77.681 0.213 77.681 0.977 -12.281
599.083 0.975 -12.804 0.222 77.156 0.222 77.156 0.975 -12.804
624.042 0.973 -13.326 0.23 76.633 0.23 76.633 0.973 -13.326
649 0.971 -13.846 0.239 76.111 0.239 76.111 0.971 -13.846
673.958 0.969 -14.365 0.248 75.59 0.248 75.59 0.969 -14.365
698.917 0.966 -14.883 0.257 75.071 0.257 75.071 0.966 -14.883
723.875 0.964 -15.398 0.266 74.554 0.266 74.554 0.964 -15.398
748.833 0.961 -15.913 0.274 74.038 0.274 74.038 0.961 -15.913
773.792 0.959 -16.425 0.283 73.523 0.283 73.523 0.959 -16.425
798.75 0.956 -16.936 0.291 73.011 0.291 73.011 0.956 -16.936
823.708 0.954 -17.446 0.3 72.5 0.3 72.5 0.954 -17.446
848.667 0.951 -17.953 0.308 71.99 0.308 71.99 0.951 -17.953
873.625 0.948 -18.459 0.317 71.483 0.317 71.483 0.948 -18.459
898.583 0.945 -18.963 0.325 70.977 0.325 70.977 0.945 -18.963
923.542 0.942 -19.465 0.333 70.473 0.333 70.473 0.942 -19.465
948.5 0.94 -19.965 0.341 69.971 0.341 69.971 0.94 -19.965
973.458 0.936 -20.464 0.35 69.471 0.35 69.471 0.936 -20.464
998.417 0.933 -20.96 0.358 68.973 0.358 68.973 0.933 -20.96
1023.375 0.93 -21.454 0.366 68.477 0.366 68.477 0.93 -21.454
1048.333 0.927 -21.947 0.374 67.983 0.374 67.983 0.927 -21.947
1073.292 0.924 -22.437 0.382 67.491 0.382 67.491 0.924 -22.437
1098.25 0.921 -22.925 0.39 67.001 0.39 67.001 0.921 -22.925
1123.208 0.917 -23.412 0.397 66.513 0.397 66.513 0.917 -23.412
1148.167 0.914 -23.896 0.405 66.027 0.405 66.027 0.914 -23.896
1173.125 0.91 -24.378 0.413 65.543 0.413 65.543 0.91 -24.378
1198.083 0.907 -24.857 0.42 65.062 0.42 65.062 0.907 -24.857
1223.042 0.903 -25.335 0.428 64.583 0.428 64.583 0.903 -25.335
1248 0.9 -25.81 0.435 64.105 0.435 64.105 0.9 -25.81
1272.958 0.896 -26.283 0.443 63.631 0.443 63.631 0.896 -26.283
1297.917 0.892 -26.754 0.45 63.158 0.45 63.158 0.892 -26.754
1322.875 0.889 -27.223 0.457 62.688 0.457 62.688 0.889 -27.223
1347.833 0.885 -27.689 0.465 62.22 0.465 62.22 0.885 -27.689
1372.792 0.881 -28.153 0.472 61.754 0.472 61.754 0.881 -28.153
1397.75 0.877 -28.615 0.479 61.29 0.479 61.29 0.877 -28.615
1422.708 0.873 -29.074 0.486 60.829 0.486 60.829 0.873 -29.074
1447.667 0.869 -29.531 0.493 60.37 0.493 60.37 0.869 -29.531
1472.625 0.865 -29.985 0.5 59.914 0.5 59.914 0.865 -29.985
1497.583 0.861 -30.438 0.507 59.46 0.507 59.46 0.861 -30.438
1522.542 0.857 -30.887 0.513 59.008 0.513 59.008 0.857 -30.887
1547.5 0.853 -31.335 0.52 58.559 0.52 58.559 0.853 -31.335
1572.458 0.849 -31.78 0.527 58.112 0.527 58.112 0.849 -31.78
1597.417 0.845 -32.222 0.533 57.668 0.533 57.668 0.845 -32.222
1622.375 0.841 -32.663 0.54 57.225 0.54 57.225 0.841 -32.663
1647.333 0.837 -33.1 0.546 56.786 0.546 56.786 0.837 -33.1
1672.292 0.832 -33.536 0.552 56.349 0.552 56.349 0.832 -33.536
1697.25 0.828 -33.969 0.559 55.914 0.559 55.914 0.828 -33.969
1722.208 0.824 -34.399 0.565 55.481 0.565 55.481 0.824 -34.399
1747.167 0.82 -34.827 0.571 55.051 0.571 55.051 0.82 -34.827
1772.125 0.815 -35.253 0.577 54.624 0.577 54.624 0.815 -35.253
1797.083 0.811 -35.676 0.583 54.199 0.583 54.199 0.811 -35.676
1822.042 0.807 -36.097 0.589 53.776 0.589 53.776 0.807 -36.097
1847 0.802 -36.515 0.595 53.356 0.595 53.356 0.802 -36.515
1871.958 0.798 -36.931 0.601 52.938 0.601 52.938 0.798 -36.931
1896.917 0.794 -37.344 0.607 52.523 0.607 52.523 0.794 -37.344
1921.875 0.789 -37.755 0.612 52.11 0.612 52.11 0.789 -37.755
1946.833 0.785 -38.164 0.618 51.699 0.618 51.699 0.785 -38.164
1971.792 0.78 -38.57 0.623 51.291 0.623 51.291 0.78 -38.57
1996.75 0.776 -38.973 0.629 50.885 0.629 50.885 0.776 -38.973
2021.708 0.771 -39.374 0.634 50.482 0.634 50.482 0.771 -39.374
2046.667 0.767 -39.773 0.64 50.081 0.64 50.081 0.767 -39.773
2071.625 0.762 -40.17 0.645 49.683 0.645 49.683 0.762 -40.17
2096.583 0.758 -40.564 0.65 49.287 0.65 49.287 0.758 -40.564
2121.542 0.753 -40.955 0.655 48.893 0.655 48.893 0.753 -40.955
2146.5 0.749 -41.344 0.661 48.502 0.661 48.502 0.749 -41.344
2171.458 0.744 -41.731 0.666 48.113 0.666 48.113 0.744 -41.731
2196.417 0.74 -42.116 0.671 47.727 0.671 47.727 0.74 -42.116
2221.375 0.735 -42.498 0.676 47.342 0.676 47.342 0.735 -42.498
2246.333 0.731 -42.877 0.68 46.961 0.68 46.961 0.731 -42.877
2271.292 0.726 -43.255 0.685 46.581 0.685 46.581 0.726 -43.255
2296.25 0.722 -43.629 0.69 46.204 0.69 46.204 0.722 -43.629
2321.208 0.717 -44.002 0.695 45.829 0.695 45.829 0.717 -44.002
2346.167 0.713 -44.372 0.699 45.457 0.699 45.457 0.713 -44.372
2371.125 0.708 -44.74 0.704 45.086 0.704 45.086 0.708 -44.74
2396.083 0.704 -45.106 0.708 44.718 0.708 44.718 0.704 -45.106
2421.042 0.699 -45.469 0.713 44.353 0.713 44.353 0.699 -45.469
2446 0.695 -45.831 0.717 43.989 0.717 43.989 0.695 -45.831
2470.958 0.69 -46.189 0.722 43.628 0.722 43.628 0.69 -46.189
2495.917 0.685 -46.546 0.726 43.269 0.726 43.269 0.685 -46.546
2520.875 0.681 -46.9 0.73 42.913 0.73 42.913 0.681 -46.9
2545.833 0.676 -47.252 0.734 42.558 0.734 42.558 0.676 -47.252
2570.792 0.672 -47.602 0.738 42.206 0.738 42.206 0.672 -47.602
2595.75 0.667 -47.95 0.743 41.856 0.743 41.856 0.667 -47.95
2620.708 0.663 -48.295 0.747 41.508 0.747 41.508 0.663 -48.295
2645.667 0.658 -48.639 0.751 41.163 0.751 41.163 0.658 -48.639
2670.625 0.654 -48.98 0.754 40.819 0.754 40.819 0.654 -48.98
2695.583 0.649 -49.319 0.758 40.478 0.758 40.478 0.649 -49.319
2720.542 0.645 -49.655 0.762 40.139 0.762 40.139 0.645 -49.655
2745.5 0.64 -49.99 0.766 39.801 0.766 39.801 0.64 -49.99
2770.458 0.636 -50.323 0.77 39.466 0.77 39.466 0.636 -50.323
2795.417 0.631 -50.653 0.773 39.133 0.773 39.133 0.631 -50.653
2820.375 0.627 -50.982 0.777 38.802 0.777 38.802 0.627 -50.982
2845.333 0.622 -51.308 0.781 38.474 0.781 38.474 0.622 -51.308
2870.292 0.618 -51.632 0.784 38.147 0.784 38.147 0.618 -51.632
2895.25 0.613 -51.954 0.788 37.822 0.788 37.822 0.613 -51.954
2920.208 0.609 -52.274 0.791 37.499 0.791 37.499 0.609 -52.274
2945.167 0.604 -52.592 0.794 37.179 0.794 37.179 0.604 -52.592
2970.125 0.6 -52.909 0.798 36.86 0.798 36.86 0.6 -52.909
2995.083 0.595 -53.223 0.801 36.543 0.801 36.543 0.595 -53.223
3020.042 0.591 -53.535 0.804 36.228 0.804 36.228 0.591 -53.535
3045 0.587 -53.845 0.807 35.915 0.807 35.915 0.587 -53.845
3069.958 0.582 -54.153 0.811 35.604 0.811 35.604 0.582 -54.153
3094.917 0.578 -54.459 0.814 35.295 0.814 35.295 0.578 -54.459
3119.875 0.573 -54.764 0.817 34.988 0.817 34.988 0.573 -54.764
3144.833 0.569 -55.066 0.82 34.683 0.82 34.683 0.569 -55.066
3169.792 0.565 -55.367 0.823 34.379 0.823 34.379 0.565 -55.367
3194.75 0.56 -55.666 0.826 34.078 0.826 34.078 0.56 -55.666
3219.708 0.556 -55.962 0.829 33.778 0.829 33.778 0.556 -55.962
3244.667 0.552 -56.257 0.832 33.48 0.832 33.48 0.552 -56.257
3269.625 0.547 -56.55 0.834 33.184 0.834 33.184 0.547 -56.55
3294.583 0.543 -56.842 0.837 32.89 0.837 32.89 0.543 -56.842
3319.542 0.539 -57.131 0.84 32.597 0.84 32.597 0.539 -57.131
3344.5 0.534 -57.419 0.843 32.306 0.843 32.306 0.534 -57.419
3369.458 0.53 -57.705 0.845 32.017 0.845 32.017 0.53 -57.705
3394.417 0.526 -57.989 0.848 31.73 0.848 31.73 0.526 -57.989
3419.375 0.522 -58.271 0.851 31.444 0.851 31.444 0.522 -58.271
3444.333 0.517 -58.552 0.853 31.161 0.853 31.161 0.517 -58.552
3469.292 0.513 -58.831 0.856 30.878 0.856 30.878 0.513 -58.831
3494.25 0.509 -59.108 0.858 30.598 0.858 30.598 0.509 -59.108
3519.208 0.505 -59.384 0.861 30.319 0.861 30.319 0.505 -59.384
3544.167 0.501 -59.658 0.863 30.042 0.863 30.042 0.501 -59.658
3569.125 0.496 -59.93 0.865 29.766 0.865 29.766 0.496 -59.93
3594.083 0.492 -60.2 0.868 29.492 0.868 29.492 0.492 -60.2
3619.042 0.488 -60.469 0.87 29.22 0.87 29.22 0.488 -60.469
3644 0.484 -60.737 0.872 28.949 0.872 28.949 0.484 -60.737
3668.958 0.48 -61.002 0.875 28.68 0.875 28.68 0.48 -61.002
3693.917 0.476 -61.266 0.877 28.413 0.877 28.413 0.476 -61.266
3718.875 0.472 -61.529 0.879 28.147 0.879 28.147 0.472 -61.529
3743.833 0.468 -61.789 0.881 27.882 0.881 27.882 0.468 -61.789
3768.792 0.464 -62.049 0.883 27.619 0.883 27.619 0.464 -62.049
3793.75 0.46 -62.306 0.885 27.358 0.885 27.358 0.46 -62.306
3818.708 0.456 -62.563 0.888 27.098 0.888 27.098 0.456 -62.563
3843.667 0.452 -62.817 0.89 26.839 0.89 26.839 0.452 -62.817
3868.625 0.447 -63.07 0.892 26.582 0.892 26.582 0.447 -63.07
3893.583 0.444 -63.322 0.894 26.327 0.894 26.327 0.444 -63.322
3918.542 0.44 -63.572 0.896 26.073 0.896 26.073 0.44 -63.572
3943.5 0.436 -63.821 0.897 25.82 0.897 25.82 0.436 -63.821
3968.458 0.432 -64.068 0.899 25.569 0.899 25.569 0.432 -64.068
3993.417 0.428 -64.314 0.901 25.319 0.901 25.319 0.428 -64.314
4018.375 0.424 -64.558 0.903 25.071 0.903 25.071 0.424 -64.558
4043.333 0.42 -64.801 0.905 24.824 0.905 24.824 0.42 -64.801
4068.292 0.416 -65.042 0.907 24.578 0.907 24.578 0.416 -65.042
4093.25 0.412 -65.282 0.908 24.334 0.908 24.334 0.412 -65.282
4118.208 0.408 -65.521 0.91 24.091 0.91 24.091 0.408 -65.521
4143.167 0.404 -65.758 0.912 23.849 0.912 23.849 0.404 -65.758
4168.125 0.401 -65.994 0.914 23.609 0.914 23.609 0.401 -65.994
4193.083 0.397 -66.228 0.915 23.37 0.915 23.37 0.397 -66.228
4218.042 0.393 -66.461 0.917 23.132 0.917 23.132 0.393 -66.461
4243 0.389 -66.693 0.918 22.896 0.918 22.896 0.389 -66.693
4267.958 0.385 -66.923 0.92 22.661 0.92 22.661 0.385 -66.923
4292.917 0.382 -67.152 0.922 22.427 0.922 22.427 0.382 -67.152
4317.875 0.378 -67.38 0.923 22.195 0.923 22.195 0.378 -67.38
4342.833 0.374 -67.606 0.925 21.963 0.925 21.963 0.374 -67.606
4367.792 0.37 -67.831 0.926 21.733 0.926 21.733 0.37 -67.831
4392.75 0.367 -68.055 0.928 21.504 0.928 21.504 0.367 -68.055
4417.708 0.363 -68.277 0.929 21.277 0.929 21.277 0.363 -68.277
4442.667 0.359 -68.499 0.93 21.05 0.93 21.05 0.359 -68.499
4467.625 0.356 -68.718 0.932 20.825 0.932 20.825 0.356 -68.718
4492.583 0.352 -68.937 0.933 20.601 0.933 20.601 0.352 -68.937
4517.542 0.348 -69.155 0.935 20.378 0.935 20.378 0.348 -69.155
4542.5 0.345 -69.371 0.936 20.156 0.936 20.156 0.345 -69.371
4567.458 0.341 -69.586 0.937 19.935 0.937 19.935 0.341 -69.586
4592.417 0.337 -69.799 0.939 19.716 0.939 19.716 0.337 -69.799
4617.375 0.334 -70.012 0.94 19.498 0.94 19.498 0.334 -70.012
4642.333 0.33 -70.223 0.941 19.28 0.941 19.28 0.33 -70.223
4667.292 0.327 -70.433 0.942 19.064 0.942 19.064 0.327 -70.433
4692.25 0.323 -70.642 0.944 18.849 0.944 18.849 0.323 -70.642
4717.208 0.32 -70.85 0.945 18.635 0.945 18.635 0.32 -70.85
4742.167 0.316 -71.056 0.946 18.422 0.946 18.422 0.316 -71.056
4767.125 0.313 -71.261 0.947 18.211 0.947 18.211 0.313 -71.261
4792.083 0.309 -71.466 0.948 18 0.948 18 0.309 -71.466
4817.042 0.306 -71.668 0.949 17.79 0.949 17.79 0.306 -71.668
4842 0.302 -71.87 0.95 17.582 0.95 17.582 0.302 -71.87
4866.958 0.299 -72.071 0.951 17.374 0.951 17.374 0.299 -72.071
4891.917 0.295 -72.27 0.953 17.167 0.953 17.167 0.295 -72.27
4916.875 0.292 -72.469 0.954 16.962 0.954 16.962 0.292 -72.469
4941.833 0.288 -72.666 0.955 16.757 0.955 16.757 0.288 -72.666
4966.792 0.285 -72.862 0.956 16.554 0.956 16.554 0.285 -72.862
4991.75 0.282 -73.057 0.957 16.351 0.957 16.351 0.282 -73.057
5016.708 0.278 -73.251 0.958 16.149 0.958 16.149 0.278 -73.251
5041.667 0.275 -73.443 0.959 15.949 0.959 15.949 0.275 -73.443
5066.625 0.271 -73.635 0.96 15.749 0.96 15.749 0.271 -73.635
5091.583 0.268 -73.825 0.96 15.55 0.96 15.55 0.268 -73.825
5116.542 0.265 -74.015 0.961 15.353 0.961 15.353 0.265 -74.015
5141.5 0.261 -74.203 0.962 15.156 0.962 15.156 0.261 -74.203
5166.458 0.258 -74.39 0.963 14.96 0.963 14.96 0.258 -74.39
5191.417 0.255 -74.576 0.964 14.765 0.964 14.765 0.255 -74.576
5216.375 0.252 -74.761 0.965 14.571 0.965 14.571 0.252 -74.761
5241.333 0.248 -74.945 0.966 14.378 0.966 14.378 0.248 -74.945
5266.292 0.245 -75.127 0.967 14.185 0.967 14.185 0.245 -75.127
5291.25 0.242 -75.309 0.967 13.994 0.967 13.994 0.242 -75.309
5316.208 0.239 -75.489 0.968 13.804 0.968 13.804 0.239 -75.489
5341.167 0.235 -75.669 0.969 13.614 0.969 13.614 0.235 -75.669
5366.125 0.232 -75.847 0.97 13.425 0.97 13.425 0.232 -75.847
5391.083 0.229 -76.024 0.97 13.237 0.97 13.237 0.229 -76.024
5416.042 0.226 -76.2 0.971 13.05 0.971 13.05 0.226 -76.2
5441 0.223 -76.375 0.972 12.864 0.972 12.864 0.223 -76.375
5465.958 0.22 -76.549 0.973 12.679 0.973 12.679 0.22 -76.549
5490.917 0.216 -76.722 0.973 12.494 0.973 12.494 0.216 -76.722
5515.875 0.213 -76.894 0.974 12.31 0.974 12.31 0.213 -76.894
5540.833 0.21 -77.064 0.975 12.128 0.975 12.128 0.21 -77.064
5565.792 0.207 -77.234 0.975 11.946 0.975 11.946 0.207 -77.234
5590.75 0.204 -77.402 0.976 11.764 0.976 11.764 0.204 -77.402
5615.708 0.201 -77.569 0.977 11.584 0.977 11.584 0.201 -77.569
5640.667 0.198 -77.735 0.977 11.404 0.977 11.404 0.198 -77.735
5665.625 0.195 -77.9 0.978 11.225 0.978 11.225 0.195 -77.9
5690.583 0.192 -78.063 0.978 11.047 0.978 11.047 0.192 -78.063
5715.542 0.189 -78.226 0.979 10.87 0.979 10.87 0.189 -78.226
5740.5 0.186 -78.387 0.98 10.693 0.98 10.693 0.186 -78.387
5765.458 0.183 -78.547 0.98 10.517 0.98 10.517 0.183 -78.547
5790.417 0.18 -78.706 0.981 10.342 0.981 10.342 0.18 -78.706
5815.375 0.177 -78.864 0.981 10.168 0.981 10.168 0.177 -78.864
5840.333 0.174 -79.02 0.982 9.994 0.982 9.994 0.174 -79.02
5865.292 0.171 -79.175 0.982 9.822 0.982 9.822 0.171 -79.175
5890.25 0.168 -79.329 0.983 9.649 0.983 9.649 0.168 -79.329
5915.208 0.165 -79.482 0.983 9.478 0.983 9.478 0.165 -79.482
5940.167 0.162 -79.633 0.984 9.307 0.984 9.307 0.162 -79.633
5965.125 0.159 -79.783 0.984 9.137 0.984 9.137 0.159 -79.783
5990.083 0.156 -79.931 0.985 8.968 0.985 8.968 0.156 -79.931
6015.042 0.153 -80.079 0.985 8.8 0.985 8.8 0.153 -80.079
6040 0.15 -80.224 0.986 8.632 0.986 8.632 0.15 -80.224
6064.958 0.147 -80.368 0.986 8.465 0.986 8.465 0.147 -80.368
6089.917 0.144 -80.511 0.987 8.298 0.987 8.298 0.144 -80.511
6114.875 0.141 -80.652 0.987 8.132 0.987 8.132 0.141 -80.652
6139.833 0.139 -80.792 0.987 7.967 0.987 7.967 0.139 -80.792
6164.792 0.136 -80.93 0.988 7.803 0.988 7.803 0.136 -80.93
6189.75 0.133 -81.066 0.988 7.639 0.988 7.639 0.133 -81.066
6214.708 0.13 -81.201 0.988 7.476 0.988 7.476 0.13 -81.201
6239.667 0.127 -81.334 0.989 7.313 0.989 7.313 0.127 -81.334
6264.625 0.125 -81.465 0.989 7.151 0.989 7.151 0.125 -81.465
6289.583 0.122 -81.594 0.99 6.99 0.99 6.99 0.122 -81.594
6314.542 0.119 -81.721 0.99 6.829 0.99 6.829 0.119 -81.721
6339.5 0.116 -81.845 0.99 6.67 0.99 6.67 0.116 -81.845
6364.458 0.113 -81.968 0.991 6.51 0.991 6.51 0.113 -81.968
6389.417 0.111 -82.088 0.991 6.352 0.991 6.352 0.111 -82.088
6414.375 0.108 -82.206 0.991 6.193 0.991 6.193 0.108 -82.206
6439.333 0.105 -82.322 0.991 6.036 0.991 6.036 0.105 -82.322
6464.292 0.102 -82.435 0.992 5.879 0.992 5.879 0.102 -82.435
6489.25 0.1 -82.545 0.992 5.723 0.992 5.723 0.1 -82.545
6514.208 0.097 -82.651 0.992 5.567 0.992 5.567 0.097 -82.651
6539.167 0.094 -82.755 0.993 5.412 0.993 5.412 0.094 -82.755
6564.125 0.092 -82.856 0.993 5.258 0.993 5.258 0.092 -82.856
6589.083 0.089 -82.952 0.993 5.104 0.993 5.104 0.089 -82.952
6614.042 0.086 -83.045 0.993 4.95 0.993 4.95 0.086 -83.045
6639 0.084 -83.134 0.993 4.798 0.993 4.798 0.084 -83.134
6663.958 0.081 -83.218 0.994 4.646 0.994 4.646 0.081 -83.218
6688.917 0.078 -83.297 0.994 4.494 0.994 4.494 0.078 -83.297
6713.875 0.076 -83.371 0.994 4.343 0.994 4.343 0.076 -83.371
6738.833 0.073 -83.439 0.994 4.192 0.994 4.192 0.073 -83.439
6763.792 0.071 -83.501 0.994 4.043 0.994 4.043 0.071 -83.501
6788.75 0.068 -83.556 0.995 3.893 0.995 3.893 0.068 -83.556
6813.708 0.065 -83.604 0.995 3.744 0.995 3.744 0.065 -83.604
6838.667 0.063 -83.642 0.995 3.596 0.995 3.596 0.063 -83.642
6863.625 0.06 -83.672 0.995 3.448 0.995 3.448 0.06 -83.672
6888.583 0.058 -83.69 0.995 3.301 0.995 3.301 0.058 -83.69
6913.542 0.055 -83.697 0.995 3.155 0.995 3.155 0.055 -83.697
6938.5 0.053 -83.69 0.996 3.008 0.996 3.008 0.053 -83.69
6963.458 0.05 -83.668 0.996 2.863 0.996 2.863 0.05 -83.668
6988.417 0.048 -83.628 0.996 2.718 0.996 2.718 0.048 -83.628
7013.375 0.045 -83.568 0.996 2.573 0.996 2.573 0.045 -83.568
7038.333 0.042 -83.483 0.996 2.429 0.996 2.429 0.042 -83.483
7063.292 0.04 -83.371 0.996 2.286 0.996 2.286 0.04 -83.371
7088.25 0.038 -83.225 0.996 2.142 0.996 2.142 0.038 -83.225
7113.208 0.035 -83.038 0.996 2 0.996 2 0.035 -83.038
7138.167 0.033 -82.803 0.996 1.858 0.996 1.858 0.033 -82.803
7163.125 0.03 -82.507 0.997 1.716 0.997 1.716 0.03 -82.507
7188.083 0.028 -82.134 0.997 1.575 0.997 1.575 0.028 -82.134
7213.042 0.025 -81.664 0.997 1.435 0.997 1.435 0.025 -81.664
7238 0.023 -81.065 0.997 1.295 0.997 1.295 0.023 -81.065
7262.958 0.02 -80.294 0.997 1.155 0.997 1.155 0.02 -80.294
7287.917 0.018 -79.283 0.997 1.016 0.997 1.016 0.018 -79.283
7312.875 0.016 -77.925 0.997 0.877 0.997 0.877 0.016 -77.925
7337.833 0.013 -76.038 0.997 0.739 0.997 0.739 0.013 -76.038
7362.792 0.011 -73.291 0.997 0.601 0.997 0.601 0.011 -73.291
7387.75 8.65e-3 -69.022 0.997 0.464 0.997 0.464 8.65e-3 -69.022
7412.708 6.469e-3 -61.729 0.997 0.327 0.997 0.327 6.469e-3 -61.729
7437.667 4.508e-3 -47.546 0.997 0.191 0.997 0.191 4.508e-3 -47.546
7462.625 3.181e-3 -17.598 0.997 0.055 0.997 0.055 3.181e-3 -17.598
7487.583 3.338e-3 24.683 0.997 -0.08 0.997 -0.08 3.338e-3 24.683
7512.542 4.825e-3 50.861 0.997 -0.215 0.997 -0.215 4.825e-3 50.861
7537.5 6.813e-3 63.229 0.997 -0.35 0.997 -0.35 6.813e-3 63.229
7562.458 8.969e-3 69.761 0.997 -0.484 0.997 -0.484 8.969e-3 69.761
7587.417 0.011 73.667 0.997 -0.617 0.997 -0.617 0.011 73.667
7612.375 0.013 76.218 0.997 -0.75 0.997 -0.75 0.013 76.218
7637.333 0.016 77.991 0.997 -0.883 0.997 -0.883 0.016 77.991
7662.292 0.018 79.279 0.997 -1.015 0.997 -1.015 0.018 79.279
7687.25 0.02 80.245 0.997 -1.147 0.997 -1.147 0.02 80.245
7712.208 0.023 80.988 0.997 -1.279 0.997 -1.279 0.023 80.988
7737.167 0.025 81.568 0.997 -1.41 0.997 -1.41 0.025 81.568
7762.125 0.027 82.028 0.997 -1.54 0.997 -1.54 0.027 82.028
7787.083 0.029 82.395 0.997 -1.671 0.997 -1.671 0.029 82.395
7812.042 0.032 82.691 0.996 -1.8 0.996 -1.8 0.032 82.691
7837 0.034 82.929 0.996 -1.93 0.996 -1.93 0.034 82.929
7861.958 0.036 83.121 0.996 -2.059 0.996 -2.059 0.036 83.121
7886.917 0.038 83.275 0.996 -2.187 0.996 -2.187 0.038 83.275
7911.875 0.041 83.397 0.996 -2.315 0.996 -2.315 0.041 83.397
7936.833 0.043 83.493 0.996 -2.443 0.996 -2.443 0.043 83.493
7961.792 0.045 83.566 0.996 -2.57 0.996 -2.57 0.045 83.566
7986.75 0.047 83.621 0.996 -2.697 0.996 -2.697 0.047 83.621
8011.708 0.049 83.659 0.996 -2.824 0.996 -2.824 0.049 83.659
8036.667 0.052 83.683 0.996 -2.95 0.996 -2.95 0.052 83.683
8061.625 0.054 83.695 0.996 -3.076 0.996 -3.076 0.054 83.695
8086.583 0.056 83.696 0.995 -3.201 0.995 -3.201 0.056 83.696
8111.542 0.058 83.688 0.995 -3.326 0.995 -3.326 0.058 83.688
8136.5 0.06 83.671 0.995 -3.451 0.995 -3.451 0.06 83.671
8161.458 0.062 83.647 0.995 -3.575 0.995 -3.575 0.062 83.647
8186.417 0.065 83.616 0.995 -3.699 0.995 -3.699 0.065 83.616
