# MHZ S MA R 50

50 0.997 -4.492 0.078 85.501 0.078 85.501 0.997 -4.492
74.958 0.993 -6.718 0.117 83.27 0.117 83.27 0.993 -6.718
99.917 0.988 -8.926 0.155 81.059 0.155 81.059 0.988 -8.926
124.875 0.981 -11.11 0.193 78.871 0.193 78.871 0.981 -11.11
149.833 0.973 -13.265 0.229 76.712 0.229 76.712 0.973 -13.265
174.792 0.964 -15.385 0.265 74.588 0.265 74.588 0.964 -15.385
199.75 0.954 -17.468 0.3 72.502 0.3 72.502 0.954 -17.468
224.708 0.942 -19.508 0.334 70.458 0.334 70.458 0.942 -19.508
249.667 0.93 -21.502 0.367 68.459 0.367 68.459 0.93 -21.502
274.625 0.917 -23.449 0.398 66.509 0.398 66.509 0.917 -23.449
299.583 0.903 -25.345 0.428 64.608 0.428 64.608 0.903 -25.345
324.542 0.889 -27.19 0.457 62.76 0.457 62.76 0.889 -27.19
349.5 0.874 -28.982 0.485 60.964 0.485 60.964 0.874 -28.982
374.458 0.859 -30.721 0.511 59.221 0.511 59.221 0.859 -30.721
399.417 0.844 -32.405 0.536 57.533 0.536 57.533 0.844 -32.405
424.375 0.828 -34.036 0.56 55.898 0.56 55.898 0.828 -34.036
449.333 0.812 -35.614 0.582 54.316 0.582 54.316 0.812 -35.614
474.292 0.796 -37.139 0.604 52.787 0.604 52.787 0.796 -37.139
499.25 0.781 -38.613 0.624 51.309 0.624 51.309 0.781 -38.613
524.208 0.765 -40.036 0.643 49.882 0.643 49.882 0.765 -40.036
549.167 0.749 -41.409 0.661 48.505 0.661 48.505 0.749 -41.409
574.125 0.733 -42.735 0.679 47.175 0.679 47.175 0.733 -42.735
599.083 0.718 -44.014 0.695 45.892 0.695 45.892 0.718 -44.014
624.042 0.703 -45.248 0.71 44.653 0.71 44.653 0.703 -45.248
649 0.688 -46.439 0.725 43.458 0.725 43.458 0.688 -46.439
673.958 0.673 -47.588 0.738 42.306 0.738 42.306 0.673 -47.588
698.917 0.659 -48.696 0.751 41.193 0.751 41.193 0.659 -48.696
723.875 0.644 -49.766 0.763 40.119 0.763 40.119 0.644 -49.766
748.833 0.63 -50.798 0.775 39.082 0.775 39.082 0.63 -50.798
773.792 0.617 -51.795 0.786 38.081 0.786 38.081 0.617 -51.795
798.75 0.603 -52.757 0.796 37.114 0.796 37.114 0.603 -52.757
823.708 0.59 -53.687 0.806 36.18 0.806 36.18 0.59 -53.687
848.667 0.578 -54.585 0.815 35.278 0.815 35.278 0.578 -54.585
873.625 0.565 -55.453 0.824 34.405 0.824 34.405 0.565 -55.453
898.583 0.553 -56.292 0.832 33.561 0.832 33.561 0.553 -56.292
923.542 0.541 -57.104 0.84 32.745 0.84 32.745 0.541 -57.104
948.5 0.529 -57.89 0.847 31.954 0.847 31.954 0.529 -57.89
973.458 0.518 -58.65 0.854 31.189 0.854 31.189 0.518 -58.65
998.417 0.507 -59.386 0.861 30.448 0.861 30.448 0.507 -59.386
1023.375 0.496 -60.1 0.867 29.73 0.867 29.73 0.496 -60.1
1048.333 0.485 -60.791 0.873 29.034 0.873 29.034 0.485 -60.791
1073.292 0.475 -61.461 0.878 28.359 0.878 28.359 0.475 -61.461
1098.25 0.465 -62.111 0.884 27.704 0.884 27.704 0.465 -62.111
1123.208 0.455 -62.742 0.889 27.068 0.889 27.068 0.455 -62.742
1148.167 0.445 -63.354 0.894 26.45 0.894 26.45 0.445 -63.354
1173.125 0.436 -63.949 0.898 25.85 0.898 25.85 0.436 -63.949
1198.083 0.427 -64.527 0.903 25.267 0.903 25.267 0.427 -64.527
1223.042 0.418 -65.088 0.907 24.7 0.907 24.7 0.418 -65.088
1248 0.409 -65.634 0.911 24.149 0.911 24.149 0.409 -65.634
1272.958 0.401 -66.165 0.915 23.612 0.915 23.612 0.401 -66.165
1297.917 0.392 -66.682 0.918 23.09 0.918 23.09 0.392 -66.682
1322.875 0.384 -67.185 0.922 22.581 0.922 22.581 0.384 -67.185
1347.833 0.376 -67.675 0.925 22.085 0.925 22.085 0.376 -67.675
1372.792 0.368 -68.153 0.928 21.602 0.928 21.602 0.368 -68.153
1397.75 0.36 -68.618 0.931 21.13 0.931 21.13 0.36 -68.618
1422.708 0.353 -69.071 0.934 20.671 0.934 20.671 0.353 -69.071
1447.667 0.346 -69.514 0.937 20.222 0.937 20.222 0.346 -69.514
1472.625 0.338 -69.946 0.939 19.784 0.939 19.784 0.338 -69.946
1497.583 0.331 -70.367 0.942 19.356 0.942 19.356 0.331 -70.367
1522.542 0.325 -70.778 0.944 18.938 0.944 18.938 0.325 -70.778
1547.5 0.318 -71.18 0.947 18.53 0.947 18.53 0.318 -71.18
1572.458 0.311 -71.573 0.949 18.13 0.949 18.13 0.311 -71.573
1597.417 0.305 -71.956 0.951 17.74 0.951 17.74 0.305 -71.956
1622.375 0.298 -72.331 0.953 17.357 0.953 17.357 0.298 -72.331
1647.333 0.292 -72.698 0.955 16.983 0.955 16.983 0.292 -72.698
1672.292 0.286 -73.057 0.957 16.617 0.957 16.617 0.286 -73.057
1697.25 0.28 -73.408 0.958 16.258 0.958 16.258 0.28 -73.408
1722.208 0.274 -73.752 0.96 15.907 0.96 15.907 0.274 -73.752
1747.167 0.268 -74.089 0.962 15.562 0.962 15.562 0.268 -74.089
1772.125 0.263 -74.418 0.963 15.225 0.963 15.225 0.263 -74.418
1797.083 0.257 -74.741 0.965 14.893 0.965 14.893 0.257 -74.741
1822.042 0.252 -75.057 0.966 14.568 0.966 14.568 0.252 -75.057
1847 0.246 -75.367 0.968 14.25 0.968 14.25 0.246 -75.367
1871.958 0.241 -75.671 0.969 13.937 0.969 13.937 0.241 -75.671
1896.917 0.236 -75.969 0.97 13.63 0.97 13.63 0.236 -75.969
1921.875 0.231 -76.262 0.971 13.328 0.971 13.328 0.231 -76.262
1946.833 0.225 -76.548 0.973 13.031 0.973 13.031 0.225 -76.548
1971.792 0.221 -76.83 0.974 12.74 0.974 12.74 0.221 -76.83
1996.75 0.216 -77.106 0.975 12.454 0.975 12.454 0.216 -77.106
2021.708 0.211 -77.377 0.976 12.172 0.976 12.172 0.211 -77.377
2046.667 0.206 -77.643 0.977 11.895 0.977 11.895 0.206 -77.643
2071.625 0.201 -77.904 0.978 11.623 0.978 11.623 0.201 -77.904
2096.583 0.197 -78.161 0.979 11.355 0.979 11.355 0.197 -78.161
2121.542 0.192 -78.412 0.98 11.091 0.98 11.091 0.192 -78.412
2146.5 0.188 -78.66 0.981 10.832 0.981 10.832 0.188 -78.66
2171.458 0.184 -78.903 0.981 10.576 0.981 10.576 0.184 -78.903
2196.417 0.179 -79.142 0.982 10.324 0.982 10.324 0.179 -79.142
2221.375 0.175 -79.376 0.983 10.076 0.983 10.076 0.175 -79.376
2246.333 0.171 -79.607 0.984 9.832 0.984 9.832 0.171 -79.607
2271.292 0.167 -79.833 0.984 9.591 0.984 9.591 0.167 -79.833
2296.25 0.163 -80.056 0.985 9.354 0.985 9.354 0.163 -80.056
2321.208 0.159 -80.275 0.986 9.12 0.986 9.12 0.159 -80.275
2346.167 0.155 -80.489 0.986 8.889 0.986 8.889 0.155 -80.489
2371.125 0.151 -80.701 0.987 8.661 0.987 8.661 0.151 -80.701
2396.083 0.147 -80.908 0.988 8.436 0.988 8.436 0.147 -80.908
2421.042 0.143 -81.112 0.988 8.215 0.988 8.215 0.143 -81.112
2446 0.139 -81.312 0.989 7.996 0.989 7.996 0.139 -81.312
2470.958 0.135 -81.508 0.989 7.78 0.989 7.78 0.135 -81.508
2495.917 0.132 -81.701 0.99 7.567 0.99 7.567 0.132 -81.701
2520.875 0.128 -81.891 0.99 7.356 0.99 7.356 0.128 -81.891
2545.833 0.124 -82.077 0.991 7.148 0.991 7.148 0.124 -82.077
2570.792 0.121 -82.259 0.991 6.942 0.991 6.942 0.121 -82.259
2595.75 0.117 -82.438 0.991 6.739 0.991 6.739 0.117 -82.438
2620.708 0.114 -82.613 0.992 6.539 0.992 6.539 0.114 -82.613
2645.667 0.11 -82.784 0.992 6.34 0.992 6.34 0.11 -82.784
2670.625 0.107 -82.952 0.993 6.144 0.993 6.144 0.107 -82.952
2695.583 0.104 -83.117 0.993 5.95 0.993 5.95 0.104 -83.117
2720.542 0.1 -83.277 0.993 5.759 0.993 5.759 0.1 -83.277
2745.5 0.097 -83.434 0.994 5.569 0.994 5.569 0.097 -83.434
2770.458 0.094 -83.586 0.994 5.382 0.994 5.382 0.094 -83.586
2795.417 0.091 -83.735 0.994 5.196 0.994 5.196 0.091 -83.735
2820.375 0.087 -83.879 0.994 5.012 0.994 5.012 0.087 -83.879
2845.333 0.084 -84.019 0.995 4.831 0.995 4.831 0.084 -84.019
2870.292 0.081 -84.154 0.995 4.651 0.995 4.651 0.081 -84.154
2895.25 0.078 -84.284 0.995 4.473 0.995 4.473 0.078 -84.284
2920.208 0.075 -84.409 0.995 4.297 0.995 4.297 0.075 -84.409
2945.167 0.072 -84.529 0.996 4.122 0.996 4.122 0.072 -84.529
2970.125 0.069 -84.642 0.996 3.949 0.996 3.949 0.069 -84.642
2995.083 0.066 -84.749 0.996 3.778 0.996 3.778 0.066 -84.749
3020.042 0.063 -84.85 0.996 3.609 0.996 3.609 0.063 -84.85
3045 0.06 -84.942 0.997 3.441 0.997 3.441 0.06 -84.942
3069.958 0.057 -85.026 0.997 3.274 0.997 3.274 0.057 -85.026
3094.917 0.054 -85.101 0.997 3.109 0.997 3.109 0.054 -85.101
3119.875 0.051 -85.165 0.997 2.946 0.997 2.946 0.051 -85.165
3144.833 0.049 -85.217 0.997 2.784 0.997 2.784 0.049 -85.217
3169.792 0.046 -85.255 0.997 2.623 0.997 2.623 0.046 -85.255
3194.75 0.043 -85.277 0.997 2.464 0.997 2.464 0.043 -85.277
3219.708 0.04 -85.28 0.997 2.306 0.997 2.306 0.04 -85.28
3244.667 0.038 -85.261 0.998 2.15 0.998 2.15 0.038 -85.261
3269.625 0.035 -85.215 0.998 1.994 0.998 1.994 0.035 -85.215
3294.583 0.032 -85.136 0.998 1.84 0.998 1.84 0.032 -85.136
3319.542 0.03 -85.015 0.998 1.688 0.998 1.688 0.03 -85.015
3344.5 0.027 -84.842 0.998 1.536 0.998 1.536 0.027 -84.842
3369.458 0.024 -84.601 0.998 1.386 0.998 1.386 0.024 -84.601
3394.417 0.022 -84.267 0.998 1.237 0.998 1.237 0.022 -84.267
3419.375 0.019 -83.807 0.998 1.089 0.998 1.089 0.019 -83.807
3444.333 0.017 -83.163 0.998 0.942 0.998 0.942 0.017 -83.163
3469.292 0.014 -82.238 0.998 0.796 0.998 0.796 0.014 -82.238
3494.25 0.011 -80.855 0.998 0.651 0.998 0.651 0.011 -80.855
3519.208 9.02e-3 -78.645 0.998 0.508 0.998 0.508 9.02e-3 -78.645
3544.167 6.591e-3 -74.712 0.998 0.365 0.998 0.365 6.591e-3 -74.712
3569.125 4.251e-3 -66.242 0.998 0.223 0.998 0.223 4.251e-3 -66.242
3594.083 2.228e-3 -40.283 0.998 0.083 0.998 0.083 2.228e-3 -40.283
3619.042 1.967e-3 30.308 0.998 -0.057 0.998 -0.057 1.967e-3 30.308
3644 3.814e-3 63.376 0.998 -0.196 0.998 -0.196 3.814e-3 63.376
3668.958 6.062e-3 73.406 0.998 -0.333 0.998 -0.333 6.062e-3 73.406
3693.917 8.381e-3 77.845 0.998 -0.47 0.998 -0.47 8.381e-3 77.845
3718.875 0.011 80.279 0.998 -0.606 0.998 -0.606 0.011 80.279
3743.833 0.013 81.784 0.998 -0.741 0.998 -0.741 0.013 81.784
3768.792 0.015 82.785 0.998 -0.875 0.998 -0.875 0.015 82.785
3793.75 0.018 83.485 0.998 -1.009 0.998 -1.009 0.018 83.485
3818.708 0.02 83.988 0.998 -1.141 0.998 -1.141 0.02 83.988
3843.667 0.022 84.358 0.998 -1.273 0.998 -1.273 0.022 84.358
3868.625 0.025 84.634 0.998 -1.404 0.998 -1.404 0.025 84.634
3893.583 0.027 84.839 0.998 -1.534 0.998 -1.534 0.027 84.839
3918.542 0.029 84.991 0.998 -1.663 0.998 -1.663 0.029 84.991
3943.5 0.031 85.102 0.998 -1.791 0.998 -1.791 0.031 85.102
3968.458 0.034 85.181 0.998 -1.919 0.998 -1.919 0.034 85.181
3993.417 0.036 85.234 0.998 -2.046 0.998 -2.046 0.036 85.234
4018.375 0.038 85.265 0.998 -2.172 0.998 -2.172 0.038 85.265
4043.333 0.04 85.28 0.997 -2.298 0.997 -2.298 0.04 85.28
4068.292 0.042 85.28 0.997 -2.423 0.997 -2.423 0.042 85.28
4093.25 0.044 85.268 0.997 -2.547 0.997 -2.547 0.044 85.268
4118.208 0.047 85.245 0.997 -2.67 0.997 -2.67 0.047 85.245
4143.167 0.049 85.214 0.997 -2.793 0.997 -2.793 0.049 85.214
4168.125 0.051 85.176 0.997 -2.915 0.997 -2.915 0.051 85.176
4193.083 0.053 85.131 0.997 -3.037 0.997 -3.037 0.053 85.131
4218.042 0.055 85.08 0.997 -3.157 0.997 -3.157 0.055 85.08
4243 0.057 85.025 0.997 -3.278 0.997 -3.278 0.057 85.025
4267.958 0.059 84.965 0.997 -3.397 0.997 -3.397 0.059 84.965
4292.917 0.061 84.901 0.996 -3.516 0.996 -3.516 0.061 84.901
4317.875 0.063 84.835 0.996 -3.634 0.996 -3.634 0.063 84.835
4342.833 0.065 84.765 0.996 -3.752 0.996 -3.752 0.065 84.765
4367.792 0.068 84.693 0.996 -3.869 0.996 -3.869 0.068 84.693
4392.75 0.07 84.619 0.996 -3.986 0.996 -3.986 0.07 84.619
4417.708 0.072 84.542 0.996 -4.102 0.996 -4.102 0.072 84.542
4442.667 0.074 84.464 0.996 -4.218 0.996 -4.218 0.074 84.464
4467.625 0.076 84.384 0.995 -4.332 0.995 -4.332 0.076 84.384
4492.583 0.078 84.303 0.995 -4.447 0.995 -4.447 0.078 84.303
4517.542 0.08 84.22 0.995 -4.561 0.995 -4.561 0.08 84.22
4542.5 0.082 84.137 0.995 -4.674 0.995 -4.674 0.082 84.137
4567.458 0.083 84.052 0.995 -4.787 0.995 -4.787 0.083 84.052
4592.417 0.085 83.966 0.995 -4.899 0.995 -4.899 0.085 83.966
4617.375 0.087 83.88 0.994 -5.011 0.994 -5.011 0.087 83.88
4642.333 0.089 83.793 0.994 -5.122 0.994 -5.122 0.089 83.793
4667.292 0.091 83.705 0.994 -5.233 0.994 -5.233 0.091 83.705
4692.25 0.093 83.617 0.994 -5.343 0.994 -5.343 0.093 83.617
4717.208 0.095 83.528 0.994 -5.453 0.994 -5.453 0.095 83.528
4742.167 0.097 83.439 0.994 -5.563 0.994 -5.563 0.097 83.439
4767.125 0.099 83.349 0.993 -5.672 0.993 -5.672 0.099 83.349
4792.083 0.101 83.259 0.993 -5.78 0.993 -5.78 0.101 83.259
4817.042 0.103 83.169 0.993 -5.888 0.993 -5.888 0.103 83.169
4842 0.104 83.078 0.993 -5.996 0.993 -5.996 0.104 83.078
4866.958 0.106 82.988 0.993 -6.103 0.993 -6.103 0.106 82.988
4891.917 0.108 82.897 0.992 -6.21 0.992 -6.21 0.108 82.897
4916.875 0.11 82.806 0.992 -6.316 0.992 -6.316 0.11 82.806
4941.833 0.112 82.714 0.992 -6.422 0.992 -6.422 0.112 82.714
4966.792 0.114 82.623 0.992 -6.527 0.992 -6.527 0.114 82.623
4991.75 0.116 82.531 0.992 -6.632 0.992 -6.632 0.116 82.531
5016.708 0.117 82.44 0.991 -6.737 0.991 -6.737 0.117 82.44
5041.667 0.119 82.348 0.991 -6.841 0.991 -6.841 0.119 82.348
5066.625 0.121 82.257 0.991 -6.945 0.991 -6.945 0.121 82.257
5091.583 0.123 82.165 0.991 -7.048 0.991 -7.048 0.123 82.165
5116.542 0.125 82.073 0.991 -7.151 0.991 -7.151 0.125 82.073
5141.5 0.126 81.982 0.99 -7.254 0.99 -7.254 0.126 81.982
5166.458 0.128 81.89 0.99 -7.356 0.99 -7.356 0.128 81.89
5191.417 0.13 81.799 0.99 -7.458 0.99 -7.458 0.13 81.799
5216.375 0.132 81.707 0.99 -7.56 0.99 -7.56 0.132 81.707
5241.333 0.133 81.616 0.989 -7.661 0.989 -7.661 0.133 81.616
5266.292 0.135 81.525 0.989 -7.762 0.989 -7.762 0.135 81.525
5291.25 0.137 81.433 0.989 -7.863 0.989 -7.863 0.137 81.433
5316.208 0.139 81.342 0.989 -7.963 0.989 -7.963 0.139 81.342
5341.167 0.14 81.251 0.988 -8.062 0.988 -8.062 0.14 81.251
5366.125 0.142 81.16 0.988 -8.162 0.988 -8.162 0.142 81.16
5391.083 0.144 81.069 0.988 -8.261 0.988 -8.261 0.144 81.069
5416.042 0.145 80.978 0.988 -8.36 0.988 -8.36 0.145 80.978
5441 0.147 80.888 0.987 -8.458 0.987 -8.458 0.147 80.888
5465.958 0.149 80.797 0.987 -8.556 0.987 -8.556 0.149 80.797
5490.917 0.15 80.707 0.987 -8.654 0.987 -8.654 0.15 80.707
5515.875 0.152 80.616 0.987 -8.752 0.987 -8.752 0.152 80.616
5540.833 0.154 80.526 0.986 -8.849 0.986 -8.849 0.154 80.526
5565.792 0.156 80.436 0.986 -8.946 0.986 -8.946 0.156 80.436
5590.75 0.157 80.346 0.986 -9.042 0.986 -9.042 0.157 80.346
5615.708 0.159 80.257 0.986 -9.139 0.986 -9.139 0.159 80.257
5640.667 0.16 80.167 0.985 -9.235 0.985 -9.235 0.16 80.167
5665.625 0.162 80.078 0.985 -9.33 0.985 -9.33 0.162 80.078
5690.583 0.164 79.988 0.985 -9.426 0.985 -9.426 0.164 79.988
5715.542 0.165 79.899 0.985 -9.521 0.985 -9.521 0.165 79.899
5740.5 0.167 79.81 0.984 -9.616 0.984 -9.616 0.167 79.81
5765.458 0.169 79.722 0.984 -9.71 0.984 -9.71 0.169 79.722
5790.417 0.17 79.633 0.984 -9.804 0.984 -9.804 0.17 79.633
5815.375 0.172 79.544 0.983 -9.898 0.983 -9.898 0.172 79.544
5840.333 0.174 79.456 0.983 -9.992 0.983 -9.992 0.174 79.456
5865.292 0.175 79.368 0.983 -10.085 0.983 -10.085 0.175 79.368
5890.25 0.177 79.28 0.983 -10.178 0.983 -10.178 0.177 79.28
5915.208 0.178 79.192 0.982 -10.271 0.982 -10.271 0.178 79.192
5940.167 0.18 79.104 0.982 -10.364 0.982 -10.364 0.18 79.104
5965.125 0.181 79.017 0.982 -10.456 0.982 -10.456 0.181 79.017
5990.083 0.183 78.929 0.981 -10.548 0.981 -10.548 0.183 78.929
6015.042 0.185 78.842 0.981 -10.64 0.981 -10.64 0.185 78.842
6040 0.186 78.755 0.981 -10.732 0.981 -10.732 0.186 78.755
6064.958 0.188 78.668 0.981 -10.823 0.981 -10.823 0.188 78.668
6089.917 0.189 78.582 0.98 -10.914 0.98 -10.914 0.189 78.582
6114.875 0.191 78.495 0.98 -11.005 0.98 -11.005 0.191 78.495
6139.833 0.192 78.409 0.98 -11.095 0.98 -11.095 0.192 78.409
6164.792 0.194 78.323 0.979 -11.185 0.979 -11.185 0.194 78.323
6189.75 0.196 78.237 0.979 -11.276 0.979 -11.276 0.196 78.237
6214.708 0.197 78.151 0.979 -11.365 0.979 -11.365 0.197 78.151
6239.667 0.199 78.065 0.978 -11.455 0.978 -11.455 0.199 78.065
6264.625 0.2 77.98 0.978 -11.544 0.978 -11.544 0.2 77.98
6289.583 0.202 77.894 0.978 -11.633 0.978 -11.633 0.202 77.894
6314.542 0.203 77.809 0.977 -11.722 0.977 -11.722 0.203 77.809
6339.5 0.205 77.724 0.977 -11.811 0.977 -11.811 0.205 77.724
6364.458 0.206 77.639 0.977 -11.899 0.977 -11.899 0.206 77.639
6389.417 0.208 77.555 0.977 -11.987 0.977 -11.987 0.208 77.555
6414.375 0.209 77.47 0.976 -12.075 0.976 -12.075 0.209 77.47
6439.333 0.211 77.386 0.976 -12.163 0.976 -12.163 0.211 77.386
6464.292 0.212 77.301 0.976 -12.251 0.976 -12.251 0.212 77.301
6489.25 0.214 77.217 0.975 -12.338 0.975 -12.338 0.214 77.217
6514.208 0.215 77.134 0.975 -12.425 0.975 -12.425 0.215 77.134
6539.167 0.217 77.05 0.975 -12.512 0.975 -12.512 0.217 77.05
6564.125 0.218 76.966 0.974 -12.599 0.974 -12.599 0.218 76.966
6589.083 0.22 76.883 0.974 -12.685 0.974 -12.685 0.22 76.883
6614.042 0.221 76.8 0.974 -12.771 0.974 -12.771 0.221 76.8
6639 0.223 76.717 0.973 -12.857 0.973 -12.857 0.223 76.717
6663.958 0.224 76.634 0.973 -12.943 0.973 -12.943 0.224 76.634
6688.917 0.225 76.551 0.973 -13.029 0.973 -13.029 0.225 76.551
6713.875 0.227 76.468 0.972 -13.114 0.972 -13.114 0.227 76.468
6738.833 0.228 76.386 0.972 -13.199 0.972 -13.199 0.228 76.386
6763.792 0.23 76.304 0.972 -13.284 0.972 -13.284 0.23 76.304
6788.75 0.231 76.222 0.971 -13.369 0.971 -13.369 0.231 76.222
6813.708 0.233 76.14 0.971 -13.454 0.971 -13.454 0.233 76.14
6838.667 0.234 76.058 0.971 -13.538 0.971 -13.538 0.234 76.058
6863.625 0.236 75.976 0.97 -13.622 0.97 -13.622 0.236 75.976
6888.583 0.237 75.895 0.97 -13.706 0.97 -13.706 0.237 75.895
6913.542 0.238 75.813 0.97 -13.79 0.97 -13.79 0.238 75.813
6938.5 0.24 75.732 0.969 -13.874 0.969 -13.874 0.24 75.732
6963.458 0.241 75.651 0.969 -13.957 0.969 -13.957 0.241 75.651
6988.417 0.243 75.57 0.968 -14.041 0.968 -14.041 0.243 75.57
7013.375 0.244 75.49 0.968 -14.124 0.968 -14.124 0.244 75.49
7038.333 0.245 75.409 0.968 -14.207 0.968 -14.207 0.245 75.409
7063.292 0.247 75.329 0.967 -14.289 0.967 -14.289 0.247 75.329
7088.25 0.248 75.248 0.967 -14.372 0.967 -14.372 0.248 75.248
7113.208 0.25 75.168 0.967 -14.454 0.967 -14.454 0.25 75.168
7138.167 0.251 75.088 0.966 -14.537 0.966 -14.537 0.251 75.088
7163.125 0.252 75.009 0.966 -14.619 0.966 -14.619 0.252 75.009
7188.083 0.254 74.929 0.966 -14.7 0.966 -14.7 0.254 74.929
7213.042 0.255 74.849 0.965 -14.782 0.965 -14.782 0.255 74.849
7238 0.257 74.77 0.965 -14.864 0.965 -14.864 0.257 74.77
7262.958 0.258 74.691 0.965 -14.945 0.965 -14.945 0.258 74.691
7287.917 0.259 74.612 0.964 -15.026 0.964 -15.026 0.259 74.612
7312.875 0.261 74.533 0.964 -15.107 0.964 -15.107 0.261 74.533
7337.833 0.262 74.454 0.963 -15.188 0.963 -15.188 0.262 74.454
7362.792 0.263 74.375 0.963 -15.268 0.963 -15.268 0.263 74.375
7387.75 0.265 74.297 0.963 -15.349 0.963 -15.349 0.265 74.297
7412.708 0.266 74.218 0.962 -15.429 0.962 -15.429 0.266 74.218
7437.667 0.267 74.14 0.962 -15.509 0.962 -15.509 0.267 74.14
7462.625 0.269 74.062 0.962 -15.589 0.962 -15.589 0.269 74.062
7487.583 0.27 73.984 0.961 -15.669 0.961 -15.669 0.27 73.984
7512.542 0.271 73.906 0.961 -15.749 0.961 -15.749 0.271 73.906
7537.5 0.273 73.829 0.96 -15.828 0.96 -15.828 0.273 73.829
7562.458 0.274 73.751 0.96 -15.907 0.96 -15.907 0.274 73.751
7587.417 0.275 73.674 0.96 -15.987 0.96 -15.987 0.275 73.674
7612.375 0.277 73.597 0.959 -16.066 0.959 -16.066 0.277 73.597
7637.333 0.278 73.52 0.959 -16.144 0.959 -16.144 0.278 73.52
7662.292 0.279 73.443 0.959 -16.223 0.959 -16.223 0.279 73.443
7687.25 0.281 73.366 0.958 -16.302 0.958 -16.302 0.281 73.366
7712.208 0.282 73.289 0.958 -16.38 0.958 -16.38 0.282 73.289
7737.167 0.283 73.212 0.957 -16.458 0.957 -16.458 0.283 73.212
7762.125 0.285 73.136 0.957 -16.536 0.957 -16.536 0.285 73.136
7787.083 0.286 73.06 0.957 -16.614 0.957 -16.614 0.286 73.06
7812.042 0.287 72.984 0.956 -16.692 0.956 -16.692 0.287 72.984
7837 0.289 72.908 0.956 -16.77 0.956 -16.77 0.289 72.908
7861.958 0.29 72.832 0.955 -16.847 0.955 -16.847 0.29 72.832
7886.917 0.291 72.756 0.955 -16.924 0.955 -16.924 0.291 72.756
7911.875 0.292 72.68 0.955 -17.002 0.955 -17.002 0.292 72.68
7936.833 0.294 72.605 0.954 -17.079 0.954 -17.079 0.294 72.605
7961.792 0.295 72.529 0.954 -17.156 0.954 -17.156 0.295 72.529
7986.75 0.296 72.454 0.953 -17.232 0.953 -17.232 0.296 72.454
8011.708 0.298 72.379 0.953 -17.309 0.953 -17.309 0.298 72.379
8036.667 0.299 72.304 0.953 -17.385 0.953 -17.385 0.299 72.304
8061.625 0.3 72.229 0.952 -17.462 0.952 -17.462 0.3 72.229
8086.583 0.301 72.155 0.952 -17.538 0.952 -17.538 0.301 72.155
8111.542 0.303 72.08 0.952 -17.614 0.952 -17.614 0.303 72.08
8136.5 0.304 72.005 0.951 -17.69 0.951 -17.69 0.304 72.005
8161.458 0.305 71.931 0.951 -17.765 0.951 -17.765 0.305 71.931
8186.417 0.306 71.857 0.95 -17.841 0.95 -17.841 0.306 71.857
