# MHZ S MA R 50

50 0.996 -4.849 0.085 85.143 0.085 85.143 0.996 -4.849
74.958 0.992 -7.25 0.126 82.738 0.126 82.738 0.992 -7.25
99.917 0.986 -9.628 0.167 80.356 0.167 80.356 0.986 -9.628
124.875 0.978 -11.975 0.207 78.005 0.207 78.005 0.978 -11.975
149.833 0.969 -14.285 0.247 75.691 0.247 75.691 0.969 -14.285
174.792 0.958 -16.553 0.285 73.419 0.285 73.419 0.958 -16.553
199.75 0.947 -18.773 0.322 71.195 0.322 71.195 0.947 -18.773
224.708 0.934 -20.941 0.357 69.022 0.357 69.022 0.934 -20.941
249.667 0.92 -23.054 0.392 66.906 0.392 66.906 0.92 -23.054
274.625 0.905 -25.108 0.424 64.848 0.424 64.848 0.905 -25.108
299.583 0.89 -27.101 0.456 62.85 0.456 62.85 0.89 -27.101
324.542 0.874 -29.033 0.485 60.915 0.485 60.915 0.874 -29.033
349.5 0.858 -30.901 0.514 59.042 0.514 59.042 0.858 -30.901
374.458 0.841 -32.707 0.54 57.233 0.54 57.233 0.841 -32.707
399.417 0.824 -34.449 0.566 55.486 0.566 55.486 0.824 -34.449
424.375 0.807 -36.13 0.59 53.801 0.59 53.801 0.807 -36.13
449.333 0.79 -37.749 0.612 52.178 0.612 52.178 0.79 -37.749
474.292 0.773 -39.308 0.633 50.615 0.633 50.615 0.773 -39.308
499.25 0.756 -40.809 0.654 49.11 0.654 49.11 0.756 -40.809
524.208 0.739 -42.252 0.672 47.662 0.672 47.662 0.739 -42.252
549.167 0.723 -43.641 0.69 46.268 0.69 46.268 0.723 -43.641
574.125 0.706 -44.977 0.707 44.929 0.707 44.929 0.706 -44.977
599.083 0.69 -46.261 0.723 43.64 0.723 43.64 0.69 -46.261
624.042 0.674 -47.497 0.737 42.4 0.737 42.4 0.674 -47.497
649 0.659 -48.685 0.751 41.207 0.751 41.207 0.659 -48.685
673.958 0.644 -49.828 0.764 40.06 0.764 40.06 0.644 -49.828
698.917 0.629 -50.927 0.776 38.956 0.776 38.956 0.629 -50.927
723.875 0.614 -51.986 0.788 37.893 0.788 37.893 0.614 -51.986
748.833 0.6 -53.005 0.799 36.87 0.799 36.87 0.6 -53.005
773.792 0.586 -53.986 0.809 35.884 0.809 35.884 0.586 -53.986
798.75 0.573 -54.931 0.818 34.934 0.818 34.934 0.573 -54.931
823.708 0.559 -55.842 0.827 34.018 0.827 34.018 0.559 -55.842
848.667 0.547 -56.721 0.836 33.135 0.836 33.135 0.547 -56.721
873.625 0.534 -57.568 0.844 32.283 0.844 32.283 0.534 -57.568
898.583 0.522 -58.385 0.852 31.46 0.852 31.46 0.522 -58.385
923.542 0.51 -59.175 0.859 30.666 0.859 30.666 0.51 -59.175
948.5 0.498 -59.937 0.865 29.898 0.865 29.898 0.498 -59.937
973.458 0.487 -60.674 0.872 29.156 0.872 29.156 0.487 -60.674
998.417 0.476 -61.387 0.878 28.439 0.878 28.439 0.476 -61.387
1023.375 0.466 -62.076 0.884 27.745 0.884 27.745 0.466 -62.076
1048.333 0.455 -62.743 0.889 27.072 0.889 27.072 0.455 -62.743
1073.292 0.445 -63.389 0.894 26.421 0.894 26.421 0.445 -63.389
1098.25 0.435 -64.014 0.899 25.79 0.899 25.79 0.435 -64.014
1123.208 0.425 -64.621 0.903 25.179 0.903 25.179 0.425 -64.621
1148.167 0.416 -65.208 0.908 24.585 0.908 24.585 0.416 -65.208
1173.125 0.407 -65.779 0.912 24.009 0.912 24.009 0.407 -65.779
1198.083 0.398 -66.332 0.916 23.45 0.916 23.45 0.398 -66.332
1223.042 0.389 -66.87 0.92 22.907 0.92 22.907 0.389 -66.87
1248 0.381 -67.392 0.923 22.379 0.923 22.379 0.381 -67.392
1272.958 0.372 -67.899 0.927 21.865 0.927 21.865 0.372 -67.899
1297.917 0.364 -68.393 0.93 21.366 0.93 21.366 0.364 -68.393
1322.875 0.356 -68.873 0.933 20.88 0.933 20.88 0.356 -68.873
1347.833 0.349 -69.34 0.936 20.407 0.936 20.407 0.349 -69.34
1372.792 0.341 -69.794 0.938 19.945 0.938 19.945 0.341 -69.794
1397.75 0.334 -70.237 0.941 19.496 0.941 19.496 0.334 -70.237
1422.708 0.327 -70.669 0.944 19.058 0.944 19.058 0.327 -70.669
1447.667 0.319 -71.089 0.946 18.631 0.946 18.631 0.319 -71.089
1472.625 0.313 -71.5 0.948 18.214 0.948 18.214 0.313 -71.5
1497.583 0.306 -71.9 0.951 17.806 0.951 17.806 0.306 -71.9
1522.542 0.299 -72.29 0.953 17.409 0.953 17.409 0.299 -72.29
1547.5 0.293 -72.671 0.955 17.021 0.955 17.021 0.293 -72.671
1572.458 0.286 -73.043 0.957 16.641 0.957 16.641 0.286 -73.043
1597.417 0.28 -73.407 0.958 16.27 0.958 16.27 0.28 -73.407
1622.375 0.274 -73.762 0.96 15.907 0.96 15.907 0.274 -73.762
1647.333 0.268 -74.109 0.962 15.551 0.962 15.551 0.268 -74.109
1672.292 0.262 -74.449 0.963 15.204 0.963 15.204 0.262 -74.449
1697.25 0.257 -74.781 0.965 14.863 0.965 14.863 0.257 -74.781
1722.208 0.251 -75.106 0.966 14.53 0.966 14.53 0.251 -75.106
1747.167 0.245 -75.424 0.968 14.203 0.968 14.203 0.245 -75.424
1772.125 0.24 -75.735 0.969 13.883 0.969 13.883 0.24 -75.735
1797.083 0.235 -76.04 0.97 13.569 0.97 13.569 0.235 -76.04
1822.042 0.229 -76.339 0.972 13.261 0.972 13.261 0.229 -76.339
1847 0.224 -76.631 0.973 12.958 0.973 12.958 0.224 -76.631
1871.958 0.219 -76.918 0.974 12.662 0.974 12.662 0.219 -76.918
1896.917 0.214 -77.199 0.975 12.371 0.975 12.371 0.214 -77.199
1921.875 0.209 -77.474 0.976 12.085 0.976 12.085 0.209 -77.474
1946.833 0.205 -77.744 0.977 11.804 0.977 11.804 0.205 -77.744
1971.792 0.2 -78.009 0.978 11.528 0.978 11.528 0.2 -78.009
1996.75 0.195 -78.269 0.979 11.257 0.979 11.257 0.195 -78.269
2021.708 0.191 -78.524 0.98 10.99 0.98 10.99 0.191 -78.524
2046.667 0.186 -78.774 0.981 10.728 0.981 10.728 0.186 -78.774
2071.625 0.182 -79.02 0.982 10.47 0.982 10.47 0.182 -79.02
2096.583 0.177 -79.26 0.983 10.216 0.983 10.216 0.177 -79.26
2121.542 0.173 -79.497 0.983 9.966 0.983 9.966 0.173 -79.497
2146.5 0.169 -79.729 0.984 9.72 0.984 9.72 0.169 -79.729
2171.458 0.165 -79.957 0.985 9.478 0.985 9.478 0.165 -79.957
2196.417 0.161 -80.18 0.985 9.239 0.985 9.239 0.161 -80.18
2221.375 0.157 -80.4 0.986 9.004 0.986 9.004 0.157 -80.4
2246.333 0.153 -80.615 0.987 8.773 0.987 8.773 0.153 -80.615
2271.292 0.149 -80.827 0.987 8.545 0.987 8.545 0.149 -80.827
2296.25 0.145 -81.035 0.988 8.32 0.988 8.32 0.145 -81.035
2321.208 0.141 -81.239 0.988 8.098 0.988 8.098 0.141 -81.239
2346.167 0.137 -81.439 0.989 7.879 0.989 7.879 0.137 -81.439
2371.125 0.133 -81.635 0.989 7.663 0.989 7.663 0.133 -81.635
2396.083 0.13 -81.828 0.99 7.451 0.99 7.451 0.13 -81.828
2421.042 0.126 -82.017 0.99 7.24 0.99 7.24 0.126 -82.017
2446 0.122 -82.202 0.991 7.033 0.991 7.033 0.122 -82.202
2470.958 0.119 -82.383 0.991 6.828 0.991 6.828 0.119 -82.383
2495.917 0.115 -82.561 0.992 6.626 0.992 6.626 0.115 -82.561
2520.875 0.112 -82.735 0.992 6.426 0.992 6.426 0.112 -82.735
2545.833 0.109 -82.906 0.992 6.229 0.992 6.229 0.109 -82.906
2570.792 0.105 -83.073 0.993 6.034 0.993 6.034 0.105 -83.073
2595.75 0.102 -83.236 0.993 5.842 0.993 5.842 0.102 -83.236
2620.708 0.098 -83.395 0.993 5.651 0.993 5.651 0.098 -83.395
2645.667 0.095 -83.55 0.994 5.463 0.994 5.463 0.095 -83.55
2670.625 0.092 -83.701 0.994 5.277 0.994 5.277 0.092 -83.701
2695.583 0.089 -83.848 0.994 5.093 0.994 5.093 0.089 -83.848
2720.542 0.086 -83.99 0.995 4.912 0.995 4.912 0.086 -83.99
2745.5 0.083 -84.128 0.995 4.732 0.995 4.732 0.083 -84.128
2770.458 0.079 -84.261 0.995 4.554 0.995 4.554 0.079 -84.261
2795.417 0.076 -84.389 0.995 4.378 0.995 4.378 0.076 -84.389
2820.375 0.073 -84.512 0.996 4.203 0.996 4.203 0.073 -84.512
2845.333 0.07 -84.63 0.996 4.031 0.996 4.031 0.07 -84.63
2870.292 0.067 -84.741 0.996 3.86 0.996 3.86 0.067 -84.741
2895.25 0.064 -84.846 0.996 3.691 0.996 3.691 0.064 -84.846
2920.208 0.061 -84.944 0.996 3.524 0.996 3.524 0.061 -84.944
2945.167 0.059 -85.034 0.997 3.358 0.997 3.358 0.059 -85.034
2970.125 0.056 -85.115 0.997 3.194 0.997 3.194 0.056 -85.115
2995.083 0.053 -85.187 0.997 3.031 0.997 3.031 0.053 -85.187
3020.042 0.05 -85.248 0.997 2.87 0.997 2.87 0.05 -85.248
3045 0.047 -85.296 0.997 2.71 0.997 2.71 0.047 -85.296
3069.958 0.045 -85.331 0.997 2.552 0.997 2.552 0.045 -85.331
3094.917 0.042 -85.349 0.997 2.395 0.997 2.395 0.042 -85.349
3119.875 0.039 -85.348 0.998 2.24 0.998 2.24 0.039 -85.348
3144.833 0.036 -85.324 0.998 2.086 0.998 2.086 0.036 -85.324
3169.792 0.034 -85.272 0.998 1.933 0.998 1.933 0.034 -85.272
3194.75 0.031 -85.186 0.998 1.781 0.998 1.781 0.031 -85.186
3219.708 0.029 -85.057 0.998 1.631 0.998 1.631 0.029 -85.057
3244.667 0.026 -84.874 0.998 1.482 0.998 1.482 0.026 -84.874
3269.625 0.023 -84.62 0.998 1.334 0.998 1.334 0.023 -84.62
3294.583 0.021 -84.269 0.998 1.188 0.998 1.188 0.021 -84.269
3319.542 0.018 -83.783 0.998 1.042 0.998 1.042 0.018 -83.783
3344.5 0.016 -83.101 0.998 0.898 0.998 0.898 0.016 -83.101
3369.458 0.013 -82.117 0.998 0.755 0.998 0.755 0.013 -82.117
3394.417 0.011 -80.629 0.998 0.613 0.998 0.613 0.011 -80.629
3419.375 8.396e-3 -78.212 0.998 0.472 0.998 0.472 8.396e-3 -78.212
3444.333 6.02e-3 -73.784 0.998 0.332 0.998 0.332 6.02e-3 -73.784
3469.292 3.747e-3 -63.718 0.998 0.193 0.998 0.193 3.747e-3 -63.718
3494.25 1.905e-3 -30.098 0.998 0.055 0.998 0.055 1.905e-3 -30.098
3519.208 2.184e-3 40.941 0.998 -0.082 0.998 -0.082 2.184e-3 40.941
3544.167 4.148e-3 66.38 0.998 -0.218 0.998 -0.218 4.148e-3 66.38
3569.125 6.381e-3 74.683 0.998 -0.353 0.998 -0.353 6.381e-3 74.683
3594.083 8.663e-3 78.55 0.998 -0.487 0.998 -0.487 8.663e-3 78.55
3619.042 0.011 80.73 0.998 -0.621 0.998 -0.621 0.011 80.73
3644 0.013 82.1 0.998 -0.753 0.998 -0.753 0.013 82.1
3668.958 0.016 83.023 0.998 -0.884 0.998 -0.884 0.016 83.023
3693.917 0.018 83.672 0.998 -1.015 0.998 -1.015 0.018 83.672
3718.875 0.02 84.141 0.998 -1.145 0.998 -1.145 0.02 84.141
3743.833 0.022 84.488 0.998 -1.274 0.998 -1.274 0.022 84.488
3768.792 0.025 84.746 0.998 -1.402 0.998 -1.402 0.025 84.746
3793.75 0.027 84.939 0.998 -1.529 0.998 -1.529 0.027 84.939
3818.708 0.029 85.082 0.998 -1.656 0.998 -1.656 0.029 85.082
3843.667 0.031 85.186 0.998 -1.781 0.998 -1.781 0.031 85.186
3868.625 0.033 85.26 0.998 -1.906 0.998 -1.906 0.033 85.26
3893.583 0.035 85.309 0.998 -2.031 0.998 -2.031 0.035 85.309
3918.542 0.038 85.338 0.998 -2.154 0.998 -2.154 0.038 85.338
3943.5 0.04 85.35 0.998 -2.277 0.998 -2.277 0.04 85.35
3968.458 0.042 85.349 0.997 -2.399 0.997 -2.399 0.042 85.349
3993.417 0.044 85.336 0.997 -2.52 0.997 -2.52 0.044 85.336
4018.375 0.046 85.313 0.997 -2.641 0.997 -2.641 0.046 85.313
4043.333 0.048 85.282 0.997 -2.761 0.997 -2.761 0.048 85.282
4068.292 0.05 85.244 0.997 -2.881 0.997 -2.881 0.05 85.244
4093.25 0.052 85.2 0.997 -2.999 0.997 -2.999 0.052 85.2
4118.208 0.054 85.15 0.997 -3.117 0.997 -3.117 0.054 85.15
4143.167 0.056 85.095 0.997 -3.235 0.997 -3.235 0.056 85.095
4168.125 0.058 85.037 0.997 -3.352 0.997 -3.352 0.058 85.037
4193.083 0.061 84.975 0.997 -3.468 0.997 -3.468 0.061 84.975
4218.042 0.063 84.909 0.996 -3.584 0.996 -3.584 0.063 84.909
4243 0.065 84.841 0.996 -3.699 0.996 -3.699 0.065 84.841
4267.958 0.067 84.771 0.996 -3.813 0.996 -3.813 0.067 84.771
4292.917 0.069 84.698 0.996 -3.927 0.996 -3.927 0.069 84.698
4317.875 0.07 84.623 0.996 -4.041 0.996 -4.041 0.07 84.623
4342.833 0.072 84.547 0.996 -4.153 0.996 -4.153 0.072 84.547
4367.792 0.074 84.469 0.996 -4.266 0.996 -4.266 0.074 84.469
4392.75 0.076 84.389 0.995 -4.378 0.995 -4.378 0.076 84.389
4417.708 0.078 84.309 0.995 -4.489 0.995 -4.489 0.078 84.309
4442.667 0.08 84.227 0.995 -4.599 0.995 -4.599 0.08 84.227
4467.625 0.082 84.145 0.995 -4.71 0.995 -4.71 0.082 84.145
4492.583 0.084 84.061 0.995 -4.819 0.995 -4.819 0.084 84.061
4517.542 0.086 83.977 0.995 -4.929 0.995 -4.929 0.086 83.977
4542.5 0.088 83.892 0.994 -5.037 0.994 -5.037 0.088 83.892
4567.458 0.09 83.806 0.994 -5.146 0.994 -5.146 0.09 83.806
4592.417 0.092 83.72 0.994 -5.253 0.994 -5.253 0.092 83.72
4617.375 0.093 83.633 0.994 -5.361 0.994 -5.361 0.093 83.633
4642.333 0.095 83.546 0.994 -5.467 0.994 -5.467 0.095 83.546
4667.292 0.097 83.459 0.994 -5.574 0.994 -5.574 0.097 83.459
4692.25 0.099 83.371 0.993 -5.68 0.993 -5.68 0.099 83.371
4717.208 0.101 83.283 0.993 -5.785 0.993 -5.785 0.101 83.283
4742.167 0.103 83.195 0.993 -5.89 0.993 -5.89 0.103 83.195
4767.125 0.104 83.106 0.993 -5.995 0.993 -5.995 0.104 83.106
4792.083 0.106 83.018 0.993 -6.099 0.993 -6.099 0.106 83.018
4817.042 0.108 82.929 0.993 -6.203 0.993 -6.203 0.108 82.929
4842 0.11 82.84 0.992 -6.306 0.992 -6.306 0.11 82.84
4866.958 0.112 82.75 0.992 -6.409 0.992 -6.409 0.112 82.75
4891.917 0.113 82.661 0.992 -6.512 0.992 -6.512 0.113 82.661
4916.875 0.115 82.572 0.992 -6.614 0.992 -6.614 0.115 82.572
4941.833 0.117 82.483 0.992 -6.716 0.992 -6.716 0.117 82.483
4966.792 0.119 82.393 0.991 -6.817 0.991 -6.817 0.119 82.393
4991.75 0.12 82.304 0.991 -6.918 0.991 -6.918 0.12 82.304
5016.708 0.122 82.215 0.991 -7.019 0.991 -7.019 0.122 82.215
5041.667 0.124 82.125 0.991 -7.119 0.991 -7.119 0.124 82.125
5066.625 0.126 82.036 0.99 -7.219 0.99 -7.219 0.126 82.036
5091.583 0.127 81.947 0.99 -7.318 0.99 -7.318 0.127 81.947
5116.542 0.129 81.857 0.99 -7.418 0.99 -7.418 0.129 81.857
5141.5 0.131 81.768 0.99 -7.516 0.99 -7.516 0.131 81.768
5166.458 0.133 81.679 0.99 -7.615 0.99 -7.615 0.133 81.679
5191.417 0.134 81.59 0.989 -7.713 0.989 -7.713 0.134 81.59
5216.375 0.136 81.501 0.989 -7.811 0.989 -7.811 0.136 81.501
5241.333 0.138 81.412 0.989 -7.908 0.989 -7.908 0.138 81.412
5266.292 0.139 81.323 0.989 -8.005 0.989 -8.005 0.139 81.323
5291.25 0.141 81.235 0.988 -8.102 0.988 -8.102 0.141 81.235
5316.208 0.143 81.146 0.988 -8.199 0.988 -8.199 0.143 81.146
5341.167 0.144 81.058 0.988 -8.295 0.988 -8.295 0.144 81.058
5366.125 0.146 80.969 0.988 -8.391 0.988 -8.391 0.146 80.969
5391.083 0.148 80.881 0.987 -8.486 0.987 -8.486 0.148 80.881
5416.042 0.149 80.793 0.987 -8.581 0.987 -8.581 0.149 80.793
5441 0.151 80.705 0.987 -8.676 0.987 -8.676 0.151 80.705
5465.958 0.152 80.617 0.987 -8.771 0.987 -8.771 0.152 80.617
5490.917 0.154 80.53 0.986 -8.865 0.986 -8.865 0.154 80.53
5515.875 0.156 80.442 0.986 -8.959 0.986 -8.959 0.156 80.442
5540.833 0.157 80.355 0.986 -9.053 0.986 -9.053 0.157 80.355
5565.792 0.159 80.267 0.986 -9.146 0.986 -9.146 0.159 80.267
5590.75 0.161 80.18 0.985 -9.239 0.985 -9.239 0.161 80.18
5615.708 0.162 80.093 0.985 -9.332 0.985 -9.332 0.162 80.093
5640.667 0.164 80.006 0.985 -9.425 0.985 -9.425 0.164 80.006
5665.625 0.165 79.92 0.985 -9.517 0.985 -9.517 0.165 79.92
5690.583 0.167 79.833 0.984 -9.609 0.984 -9.609 0.167 79.833
5715.542 0.169 79.747 0.984 -9.701 0.984 -9.701 0.169 79.747
5740.5 0.17 79.661 0.984 -9.792 0.984 -9.792 0.17 79.661
5765.458 0.172 79.575 0.984 -9.884 0.984 -9.884 0.172 79.575
5790.417 0.173 79.489 0.983 -9.975 0.983 -9.975 0.173 79.489
5815.375 0.175 79.403 0.983 -10.065 0.983 -10.065 0.175 79.403
5840.333 0.176 79.317 0.983 -10.156 0.983 -10.156 0.176 79.317
5865.292 0.178 79.232 0.982 -10.246 0.982 -10.246 0.178 79.232
5890.25 0.179 79.147 0.982 -10.336 0.982 -10.336 0.179 79.147
5915.208 0.181 79.061 0.982 -10.426 0.982 -10.426 0.181 79.061
5940.167 0.182 78.976 0.982 -10.515 0.982 -10.515 0.182 78.976
5965.125 0.184 78.892 0.981 -10.604 0.981 -10.604 0.184 78.892
5990.083 0.186 78.807 0.981 -10.693 0.981 -10.693 0.186 78.807
6015.042 0.187 78.722 0.981 -10.782 0.981 -10.782 0.187 78.722
6040 0.189 78.638 0.98 -10.87 0.98 -10.87 0.189 78.638
6064.958 0.19 78.554 0.98 -10.958 0.98 -10.958 0.19 78.554
6089.917 0.192 78.47 0.98 -11.046 0.98 -11.046 0.192 78.47
6114.875 0.193 78.386 0.98 -11.134 0.98 -11.134 0.193 78.386
6139.833 0.195 78.302 0.979 -11.222 0.979 -11.222 0.195 78.302
6164.792 0.196 78.219 0.979 -11.309 0.979 -11.309 0.196 78.219
6189.75 0.198 78.136 0.979 -11.396 0.979 -11.396 0.198 78.136
6214.708 0.199 78.052 0.978 -11.483 0.978 -11.483 0.199 78.052
6239.667 0.201 77.969 0.978 -11.57 0.978 -11.57 0.201 77.969
6264.625 0.202 77.886 0.978 -11.656 0.978 -11.656 0.202 77.886
6289.583 0.204 77.804 0.977 -11.742 0.977 -11.742 0.204 77.804
6314.542 0.205 77.721 0.977 -11.828 0.977 -11.828 0.205 77.721
6339.5 0.206 77.639 0.977 -11.914 0.977 -11.914 0.206 77.639
6364.458 0.208 77.556 0.977 -12 0.977 -12 0.208 77.556
6389.417 0.209 77.474 0.976 -12.085 0.976 -12.085 0.209 77.474
6414.375 0.211 77.392 0.976 -12.17 0.976 -12.17 0.211 77.392
6439.333 0.212 77.31 0.976 -12.255 0.976 -12.255 0.212 77.31
6464.292 0.214 77.229 0.975 -12.34 0.975 -12.34 0.214 77.229
6489.25 0.215 77.147 0.975 -12.424 0.975 -12.424 0.215 77.147
6514.208 0.217 77.066 0.975 -12.508 0.975 -12.508 0.217 77.066
6539.167 0.218 76.985 0.974 -12.593 0.974 -12.593 0.218 76.985
6564.125 0.219 76.904 0.974 -12.677 0.974 -12.677 0.219 76.904
6589.083 0.221 76.823 0.974 -12.76 0.974 -12.76 0.221 76.823
6614.042 0.222 76.742 0.973 -12.844 0.973 -12.844 0.222 76.742
6639 0.224 76.662 0.973 -12.927 0.973 -12.927 0.224 76.662
6663.958 0.225 76.581 0.973 -13.01 0.973 -13.01 0.225 76.581
6688.917 0.227 76.501 0.972 -13.093 0.972 -13.093 0.227 76.501
6713.875 0.228 76.421 0.972 -13.176 0.972 -13.176 0.228 76.421
6738.833 0.229 76.341 0.972 -13.259 0.972 -13.259 0.229 76.341
6763.792 0.231 76.261 0.971 -13.341 0.971 -13.341 0.231 76.261
6788.75 0.232 76.181 0.971 -13.423 0.971 -13.423 0.232 76.181
6813.708 0.234 76.102 0.971 -13.505 0.971 -13.505 0.234 76.102
6838.667 0.235 76.022 0.97 -13.587 0.97 -13.587 0.235 76.022
6863.625 0.236 75.943 0.97 -13.669 0.97 -13.669 0.236 75.943
6888.583 0.238 75.864 0.97 -13.75 0.97 -13.75 0.238 75.864
6913.542 0.239 75.785 0.969 -13.831 0.969 -13.831 0.239 75.785
6938.5 0.24 75.706 0.969 -13.913 0.969 -13.913 0.24 75.706
6963.458 0.242 75.628 0.969 -13.994 0.969 -13.994 0.242 75.628
6988.417 0.243 75.549 0.968 -14.074 0.968 -14.074 0.243 75.549
7013.375 0.245 75.471 0.968 -14.155 0.968 -14.155 0.245 75.471
7038.333 0.246 75.393 0.968 -14.235 0.968 -14.235 0.246 75.393
7063.292 0.247 75.314 0.967 -14.316 0.967 -14.316 0.247 75.314
7088.25 0.249 75.236 0.967 -14.396 0.967 -14.396 0.249 75.236
7113.208 0.25 75.159 0.967 -14.476 0.967 -14.476 0.25 75.159
7138.167 0.251 75.081 0.966 -14.555 0.966 -14.555 0.251 75.081
7163.125 0.253 75.003 0.966 -14.635 0.966 -14.635 0.253 75.003
7188.083 0.254 74.926 0.966 -14.714 0.966 -14.714 0.254 74.926
7213.042 0.255 74.849 0.965 -14.794 0.965 -14.794 0.255 74.849
7238 0.257 74.772 0.965 -14.873 0.965 -14.873 0.257 74.772
7262.958 0.258 74.695 0.965 -14.952 0.965 -14.952 0.258 74.695
7287.917 0.259 74.618 0.964 -15.031 0.964 -15.031 0.259 74.618
7312.875 0.261 74.541 0.964 -15.109 0.964 -15.109 0.261 74.541
7337.833 0.262 74.465 0.963 -15.188 0.963 -15.188 0.262 74.465
7362.792 0.263 74.388 0.963 -15.266 0.963 -15.266 0.263 74.388
7387.75 0.265 74.312 0.963 -15.344 0.963 -15.344 0.265 74.312
7412.708 0.266 74.236 0.962 -15.422 0.962 -15.422 0.266 74.236
7437.667 0.267 74.16 0.962 -15.5 0.962 -15.5 0.267 74.16
7462.625 0.269 74.084 0.962 -15.578 0.962 -15.578 0.269 74.084
7487.583 0.27 74.008 0.961 -15.655 0.961 -15.655 0.27 74.008
7512.542 0.271 73.932 0.961 -15.733 0.961 -15.733 0.271 73.932
7537.5 0.272 73.857 0.961 -15.81 0.961 -15.81 0.272 73.857
7562.458 0.274 73.781 0.96 -15.887 0.96 -15.887 0.274 73.781
7587.417 0.275 73.706 0.96 -15.964 0.96 -15.964 0.275 73.706
7612.375 0.276 73.631 0.959 -16.041 0.959 -16.041 0.276 73.631
7637.333 0.278 73.556 0.959 -16.117 0.959 -16.117 0.278 73.556
7662.292 0.279 73.481 0.959 -16.194 0.959 -16.194 0.279 73.481
7687.25 0.28 73.406 0.958 -16.27 0.958 -16.27 0.28 73.406
7712.208 0.281 73.332 0.958 -16.346 0.958 -16.346 0.281 73.332
7737.167 0.283 73.257 0.958 -16.422 0.958 -16.422 0.283 73.257
7762.125 0.284 73.183 0.957 -16.498 0.957 -16.498 0.284 73.183
7787.083 0.285 73.109 0.957 -16.574 0.957 -16.574 0.285 73.109
7812.042 0.287 73.035 0.956 -16.65 0.956 -16.65 0.287 73.035
7837 0.288 72.961 0.956 -16.725 0.956 -16.725 0.288 72.961
7861.958 0.289 72.887 0.956 -16.8 0.956 -16.8 0.289 72.887
7886.917 0.29 72.813 0.955 -16.876 0.955 -16.876 0.29 72.813
7911.875 0.292 72.739 0.955 -16.951 0.955 -16.951 0.292 72.739
7936.833 0.293 72.666 0.955 -17.026 0.955 -17.026 0.293 72.666
7961.792 0.294 72.593 0.954 -17.101 0.954 -17.101 0.294 72.593
7986.75 0.295 72.519 0.954 -17.175 0.954 -17.175 0.295 72.519
8011.708 0.297 72.446 0.953 -17.25 0.953 -17.25 0.297 72.446
8036.667 0.298 72.373 0.953 -17.324 0.953 -17.324 0.298 72.373
8061.625 0.299 72.3 0.953 -17.398 0.953 -17.398 0.299 72.3
8086.583 0.3 72.228 0.952 -17.472 0.952 -17.472 0.3 72.228
8111.542 0.301 72.155 0.952 -17.546 0.952 -17.546 0.301 72.155
8136.5 0.303 72.082 0.952 -17.62 0.952 -17.62 0.303 72.082
8161.458 0.304 72.01 0.951 -17.694 0.951 -17.694 0.304 72.01
8186.417 0.305 71.938 0.951 -17.768 0.951 -17.768 0.305 71.938
8211.375 0.306 71.866 0.95 -17.841 0.95 -17.841 0.306 71.866
