# MHZ S MA R 50

50 0.999 -1.979 0.035 88.016 0.035 88.016 0.999 -1.979
74.958 0.999 -2.966 0.052 87.027 0.052 87.027 0.999 -2.966
99.917 0.998 -3.952 0.069 86.039 0.069 86.039 0.998 -3.952
124.875 0.996 -4.935 0.086 85.053 0.086 85.053 0.996 -4.935
149.833 0.995 -5.917 0.103 84.069 0.103 84.069 0.995 -5.917
174.792 0.993 -6.895 0.12 83.088 0.12 83.088 0.993 -6.895
199.75 0.991 -7.871 0.137 82.111 0.137 82.111 0.991 -7.871
224.708 0.988 -8.843 0.154 81.136 0.154 81.136 0.988 -8.843
249.667 0.985 -9.81 0.17 80.166 0.17 80.166 0.985 -9.81
274.625 0.982 -10.774 0.187 79.201 0.187 79.201 0.982 -10.774
299.583 0.979 -11.732 0.203 78.24 0.203 78.24 0.979 -11.732
324.542 0.975 -12.686 0.22 77.284 0.22 77.284 0.975 -12.686
349.5 0.972 -13.633 0.236 76.334 0.236 76.334 0.972 -13.633
374.458 0.968 -14.575 0.252 75.39 0.252 75.39 0.968 -14.575
399.417 0.963 -15.511 0.267 74.452 0.267 74.452 0.963 -15.511
424.375 0.959 -16.44 0.283 73.52 0.283 73.52 0.959 -16.44
449.333 0.954 -17.362 0.298 72.596 0.298 72.596 0.954 -17.362
474.292 0.949 -18.277 0.314 71.678 0.314 71.678 0.949 -18.277
499.25 0.944 -19.185 0.329 70.768 0.329 70.768 0.944 -19.185
524.208 0.939 -20.085 0.343 69.866 0.343 69.866 0.939 -20.085
549.167 0.933 -20.977 0.358 68.971 0.358 68.971 0.933 -20.977
574.125 0.928 -21.861 0.372 68.085 0.372 68.085 0.928 -21.861
599.083 0.922 -22.736 0.386 67.207 0.386 67.207 0.922 -22.736
624.042 0.916 -23.603 0.4 66.337 0.4 66.337 0.916 -23.603
649 0.91 -24.462 0.414 65.477 0.414 65.477 0.91 -24.462
673.958 0.904 -25.311 0.428 64.625 0.428 64.625 0.904 -25.311
698.917 0.897 -26.152 0.441 63.781 0.441 63.781 0.897 -26.152
723.875 0.891 -26.984 0.454 62.947 0.454 62.947 0.891 -26.984
748.833 0.884 -27.806 0.466 62.122 0.466 62.122 0.884 -27.806
773.792 0.877 -28.619 0.479 61.307 0.479 61.307 0.877 -28.619
798.75 0.87 -29.423 0.491 60.5 0.491 60.5 0.87 -29.423
823.708 0.863 -30.218 0.503 59.703 0.503 59.703 0.863 -30.218
848.667 0.856 -31.003 0.515 58.916 0.515 58.916 0.856 -31.003
873.625 0.849 -31.778 0.527 58.138 0.527 58.138 0.849 -31.778
898.583 0.842 -32.545 0.538 57.369 0.538 57.369 0.842 -32.545
923.542 0.835 -33.301 0.549 56.61 0.549 56.61 0.835 -33.301
948.5 0.828 -34.048 0.56 55.86 0.56 55.86 0.828 -34.048
973.458 0.82 -34.786 0.571 55.12 0.571 55.12 0.82 -34.786
998.417 0.813 -35.514 0.581 54.389 0.581 54.389 0.813 -35.514
1023.375 0.806 -36.233 0.591 53.668 0.591 53.668 0.806 -36.233
1048.333 0.798 -36.943 0.601 52.956 0.601 52.956 0.798 -36.943
1073.292 0.791 -37.643 0.611 52.253 0.611 52.253 0.791 -37.643
1098.25 0.783 -38.334 0.62 51.559 0.62 51.559 0.783 -38.334
1123.208 0.776 -39.015 0.63 50.875 0.63 50.875 0.776 -39.015
1148.167 0.768 -39.688 0.639 50.2 0.639 50.2 0.768 -39.688
1173.125 0.761 -40.351 0.647 49.534 0.647 49.534 0.761 -40.351
1198.083 0.753 -41.006 0.656 48.877 0.656 48.877 0.753 -41.006
1223.042 0.746 -41.651 0.665 48.228 0.665 48.228 0.746 -41.651
1248 0.738 -42.288 0.673 47.589 0.673 47.589 0.738 -42.288
1272.958 0.731 -42.916 0.681 46.958 0.681 46.958 0.731 -42.916
1297.917 0.723 -43.535 0.689 46.336 0.689 46.336 0.723 -43.535
1322.875 0.716 -44.146 0.696 45.722 0.696 45.722 0.716 -44.146
1347.833 0.709 -44.749 0.704 45.117 0.704 45.117 0.709 -44.749
1372.792 0.701 -45.343 0.711 44.52 0.711 44.52 0.701 -45.343
1397.75 0.694 -45.929 0.718 43.931 0.718 43.931 0.694 -45.929
1422.708 0.686 -46.507 0.725 43.35 0.725 43.35 0.686 -46.507
1447.667 0.679 -47.077 0.732 42.778 0.732 42.778 0.679 -47.077
1472.625 0.672 -47.639 0.739 42.213 0.739 42.213 0.672 -47.639
1497.583 0.665 -48.193 0.745 41.655 0.745 41.655 0.665 -48.193
1522.542 0.657 -48.739 0.752 41.106 0.752 41.106 0.657 -48.739
1547.5 0.65 -49.279 0.758 40.564 0.758 40.564 0.65 -49.279
1572.458 0.643 -49.81 0.764 40.029 0.764 40.029 0.643 -49.81
1597.417 0.636 -50.335 0.77 39.502 0.77 39.502 0.636 -50.335
1622.375 0.629 -50.852 0.776 38.981 0.776 38.981 0.629 -50.852
1647.333 0.622 -51.362 0.781 38.468 0.781 38.468 0.622 -51.362
1672.292 0.615 -51.865 0.787 37.962 0.787 37.962 0.615 -51.865
1697.25 0.608 -52.362 0.792 37.462 0.792 37.462 0.608 -52.362
1722.208 0.601 -52.851 0.797 36.969 0.797 36.969 0.601 -52.851
1747.167 0.595 -53.334 0.802 36.483 0.802 36.483 0.595 -53.334
1772.125 0.588 -53.811 0.807 36.003 0.807 36.003 0.588 -53.811
1797.083 0.581 -54.281 0.812 35.53 0.812 35.53 0.581 -54.281
1822.042 0.574 -54.745 0.817 35.063 0.817 35.063 0.574 -54.745
1847 0.568 -55.203 0.821 34.602 0.821 34.602 0.568 -55.203
1871.958 0.561 -55.654 0.826 34.147 0.826 34.147 0.561 -55.654
1896.917 0.555 -56.1 0.83 33.698 0.83 33.698 0.555 -56.1
1921.875 0.548 -56.54 0.834 33.254 0.834 33.254 0.548 -56.54
1946.833 0.542 -56.974 0.838 32.817 0.838 32.817 0.542 -56.974
1971.792 0.536 -57.402 0.842 32.385 0.842 32.385 0.536 -57.402
1996.75 0.529 -57.825 0.846 31.958 0.846 31.958 0.529 -57.825
2021.708 0.523 -58.243 0.85 31.537 0.85 31.537 0.523 -58.243
2046.667 0.517 -58.655 0.854 31.122 0.854 31.122 0.517 -58.655
2071.625 0.511 -59.062 0.858 30.711 0.858 30.711 0.511 -59.062
2096.583 0.505 -59.463 0.861 30.306 0.861 30.306 0.505 -59.463
2121.542 0.499 -59.86 0.865 29.905 0.865 29.905 0.499 -59.86
2146.5 0.493 -60.252 0.868 29.51 0.868 29.51 0.493 -60.252
2171.458 0.487 -60.639 0.872 29.119 0.872 29.119 0.487 -60.639
2196.417 0.481 -61.021 0.875 28.733 0.875 28.733 0.481 -61.021
2221.375 0.475 -61.398 0.878 28.352 0.878 28.352 0.475 -61.398
2246.333 0.469 -61.77 0.881 27.975 0.881 27.975 0.469 -61.77
2271.292 0.463 -62.139 0.884 27.603 0.884 27.603 0.463 -62.139
2296.25 0.458 -62.502 0.887 27.236 0.887 27.236 0.458 -62.502
2321.208 0.452 -62.861 0.89 26.872 0.89 26.872 0.452 -62.861
2346.167 0.446 -63.216 0.893 26.513 0.893 26.513 0.446 -63.216
2371.125 0.441 -63.567 0.895 26.158 0.895 26.158 0.441 -63.567
2396.083 0.435 -63.914 0.898 25.807 0.898 25.807 0.435 -63.914
2421.042 0.43 -64.256 0.901 25.46 0.901 25.46 0.43 -64.256
2446 0.424 -64.595 0.903 25.117 0.903 25.117 0.424 -64.595
2470.958 0.419 -64.929 0.906 24.778 0.906 24.778 0.419 -64.929
2495.917 0.414 -65.26 0.908 24.443 0.908 24.443 0.414 -65.26
2520.875 0.409 -65.587 0.911 24.111 0.911 24.111 0.409 -65.587
2545.833 0.403 -65.91 0.913 23.784 0.913 23.784 0.403 -65.91
2570.792 0.398 -66.23 0.915 23.459 0.915 23.459 0.398 -66.23
2595.75 0.393 -66.546 0.917 23.138 0.917 23.138 0.393 -66.546
2620.708 0.388 -66.858 0.92 22.821 0.92 22.821 0.388 -66.858
2645.667 0.383 -67.167 0.922 22.507 0.922 22.507 0.383 -67.167
2670.625 0.378 -67.473 0.924 22.197 0.924 22.197 0.378 -67.473
2695.583 0.373 -67.775 0.926 21.889 0.926 21.889 0.373 -67.775
2720.542 0.368 -68.074 0.928 21.585 0.928 21.585 0.368 -68.074
2745.5 0.363 -68.369 0.93 21.284 0.93 21.284 0.363 -68.369
2770.458 0.358 -68.662 0.931 20.987 0.931 20.987 0.358 -68.662
2795.417 0.353 -68.951 0.933 20.692 0.933 20.692 0.353 -68.951
2820.375 0.349 -69.237 0.935 20.4 0.935 20.4 0.349 -69.237
2845.333 0.344 -69.52 0.937 20.111 0.937 20.111 0.344 -69.52
2870.292 0.339 -69.8 0.939 19.825 0.939 19.825 0.339 -69.8
2895.25 0.335 -70.078 0.94 19.542 0.94 19.542 0.335 -70.078
2920.208 0.33 -70.352 0.942 19.262 0.942 19.262 0.33 -70.352
2945.167 0.325 -70.623 0.943 18.984 0.943 18.984 0.325 -70.623
2970.125 0.321 -70.892 0.945 18.71 0.945 18.71 0.321 -70.892
2995.083 0.316 -71.158 0.946 18.437 0.946 18.437 0.316 -71.158
3020.042 0.312 -71.421 0.948 18.168 0.948 18.168 0.312 -71.421
3045 0.307 -71.682 0.949 17.901 0.949 17.901 0.307 -71.682
3069.958 0.303 -71.939 0.951 17.636 0.951 17.636 0.303 -71.939
3094.917 0.299 -72.195 0.952 17.374 0.952 17.374 0.299 -72.195
3119.875 0.294 -72.447 0.953 17.114 0.953 17.114 0.294 -72.447
3144.833 0.29 -72.698 0.955 16.857 0.955 16.857 0.29 -72.698
3169.792 0.286 -72.945 0.956 16.602 0.956 16.602 0.286 -72.945
3194.75 0.282 -73.191 0.957 16.349 0.957 16.349 0.282 -73.191
3219.708 0.277 -73.434 0.959 16.099 0.959 16.099 0.277 -73.434
3244.667 0.273 -73.674 0.96 15.851 0.96 15.851 0.273 -73.674
3269.625 0.269 -73.912 0.961 15.605 0.961 15.605 0.269 -73.912
3294.583 0.265 -74.148 0.962 15.361 0.962 15.361 0.265 -74.148
3319.542 0.261 -74.381 0.963 15.119 0.963 15.119 0.261 -74.381
3344.5 0.257 -74.613 0.964 14.88 0.964 14.88 0.257 -74.613
3369.458 0.253 -74.842 0.965 14.642 0.965 14.642 0.253 -74.842
3394.417 0.249 -75.068 0.966 14.406 0.966 14.406 0.249 -75.068
3419.375 0.245 -75.293 0.967 14.173 0.967 14.173 0.245 -75.293
3444.333 0.241 -75.515 0.968 13.941 0.968 13.941 0.241 -75.515
3469.292 0.237 -75.736 0.969 13.711 0.969 13.711 0.237 -75.736
3494.25 0.233 -75.954 0.97 13.483 0.97 13.483 0.233 -75.954
3519.208 0.229 -76.17 0.971 13.257 0.971 13.257 0.229 -76.17
3544.167 0.226 -76.384 0.972 13.033 0.972 13.033 0.226 -76.384
3569.125 0.222 -76.596 0.973 12.811 0.973 12.811 0.222 -76.596
3594.083 0.218 -76.806 0.974 12.59 0.974 12.59 0.218 -76.806
3619.042 0.214 -77.014 0.974 12.371 0.974 12.371 0.214 -77.014
3644 0.211 -77.219 0.975 12.154 0.975 12.154 0.211 -77.219
3668.958 0.207 -77.423 0.976 11.939 0.976 11.939 0.207 -77.423
3693.917 0.203 -77.625 0.977 11.725 0.977 11.725 0.203 -77.625
3718.875 0.2 -77.825 0.978 11.513 0.978 11.513 0.2 -77.825
3743.833 0.196 -78.023 0.978 11.302 0.978 11.302 0.196 -78.023
3768.792 0.192 -78.219 0.979 11.093 0.979 11.093 0.192 -78.219
3793.75 0.189 -78.413 0.98 10.885 0.98 10.885 0.189 -78.413
3818.708 0.185 -78.605 0.98 10.679 0.98 10.679 0.185 -78.605
3843.667 0.182 -78.795 0.981 10.475 0.981 10.475 0.182 -78.795
3868.625 0.178 -78.983 0.982 10.272 0.982 10.272 0.178 -78.983
3893.583 0.175 -79.17 0.982 10.071 0.982 10.071 0.175 -79.17
3918.542 0.171 -79.354 0.983 9.871 0.983 9.871 0.171 -79.354
3943.5 0.168 -79.536 0.983 9.672 0.983 9.672 0.168 -79.536
3968.458 0.165 -79.717 0.984 9.475 0.984 9.475 0.165 -79.717
3993.417 0.161 -79.895 0.985 9.279 0.985 9.279 0.161 -79.895
4018.375 0.158 -80.072 0.985 9.084 0.985 9.084 0.158 -80.072
4043.333 0.155 -80.246 0.986 8.891 0.986 8.891 0.155 -80.246
4068.292 0.151 -80.419 0.986 8.699 0.986 8.699 0.151 -80.419
4093.25 0.148 -80.589 0.987 8.509 0.987 8.509 0.148 -80.589
4118.208 0.145 -80.758 0.987 8.32 0.987 8.32 0.145 -80.758
4143.167 0.141 -80.924 0.988 8.132 0.988 8.132 0.141 -80.924
4168.125 0.138 -81.088 0.988 7.945 0.988 7.945 0.138 -81.088
4193.083 0.135 -81.25 0.989 7.759 0.989 7.759 0.135 -81.25
4218.042 0.132 -81.41 0.989 7.575 0.989 7.575 0.132 -81.41
4243 0.129 -81.568 0.989 7.392 0.989 7.392 0.129 -81.568
4267.958 0.126 -81.723 0.99 7.21 0.99 7.21 0.126 -81.723
4292.917 0.122 -81.876 0.99 7.029 0.99 7.029 0.122 -81.876
4317.875 0.119 -82.027 0.991 6.85 0.991 6.85 0.119 -82.027
4342.833 0.116 -82.175 0.991 6.671 0.991 6.671 0.116 -82.175
4367.792 0.113 -82.321 0.991 6.494 0.991 6.494 0.113 -82.321
4392.75 0.11 -82.464 0.992 6.318 0.992 6.318 0.11 -82.464
4417.708 0.107 -82.604 0.992 6.142 0.992 6.142 0.107 -82.604
4442.667 0.104 -82.741 0.992 5.968 0.992 5.968 0.104 -82.741
4467.625 0.101 -82.876 0.993 5.795 0.993 5.795 0.101 -82.876
4492.583 0.098 -83.007 0.993 5.623 0.993 5.623 0.098 -83.007
4517.542 0.095 -83.135 0.993 5.452 0.993 5.452 0.095 -83.135
4542.5 0.092 -83.259 0.993 5.282 0.993 5.282 0.092 -83.259
4567.458 0.089 -83.379 0.994 5.113 0.994 5.113 0.089 -83.379
4592.417 0.086 -83.496 0.994 4.945 0.994 4.945 0.086 -83.496
4617.375 0.083 -83.608 0.994 4.778 0.994 4.778 0.083 -83.608
4642.333 0.08 -83.716 0.994 4.612 0.994 4.612 0.08 -83.716
4667.292 0.078 -83.819 0.995 4.447 0.995 4.447 0.078 -83.819
4692.25 0.075 -83.916 0.995 4.282 0.995 4.282 0.075 -83.916
4717.208 0.072 -84.008 0.995 4.119 0.995 4.119 0.072 -84.008
4742.167 0.069 -84.093 0.995 3.957 0.995 3.957 0.069 -84.093
4767.125 0.066 -84.172 0.995 3.795 0.995 3.795 0.066 -84.172
4792.083 0.063 -84.242 0.996 3.635 0.996 3.635 0.063 -84.242
4817.042 0.061 -84.304 0.996 3.475 0.996 3.475 0.061 -84.304
4842 0.058 -84.356 0.996 3.316 0.996 3.316 0.058 -84.356
4866.958 0.055 -84.398 0.996 3.158 0.996 3.158 0.055 -84.398
4891.917 0.052 -84.427 0.996 3.001 0.996 3.001 0.052 -84.427
4916.875 0.05 -84.442 0.996 2.844 0.996 2.844 0.05 -84.442
4941.833 0.047 -84.44 0.997 2.689 0.997 2.689 0.047 -84.44
4966.792 0.044 -84.42 0.997 2.534 0.997 2.534 0.044 -84.42
4991.75 0.042 -84.377 0.997 2.38 0.997 2.38 0.042 -84.377
5016.708 0.039 -84.308 0.997 2.227 0.997 2.227 0.039 -84.308
5041.667 0.036 -84.206 0.997 2.075 0.997 2.075 0.036 -84.206
5066.625 0.034 -84.065 0.997 1.923 0.997 1.923 0.034 -84.065
5091.583 0.031 -83.876 0.997 1.773 0.997 1.773 0.031 -83.876
5116.542 0.028 -83.625 0.997 1.623 0.997 1.623 0.028 -83.625
5141.5 0.026 -83.295 0.997 1.473 0.997 1.473 0.026 -83.295
5166.458 0.023 -82.86 0.997 1.325 0.997 1.325 0.023 -82.86
5191.417 0.021 -82.284 0.997 1.177 0.997 1.177 0.021 -82.284
5216.375 0.018 -81.506 0.997 1.03 0.997 1.03 0.018 -81.506
5241.333 0.016 -80.433 0.998 0.883 0.998 0.883 0.016 -80.433
5266.292 0.013 -78.898 0.998 0.738 0.998 0.738 0.013 -78.898
5291.25 0.011 -76.583 0.998 0.593 0.998 0.593 0.011 -76.583
5316.208 8.173e-3 -72.805 0.998 0.448 0.998 0.448 8.173e-3 -72.805
5341.167 5.818e-3 -65.817 0.998 0.305 0.998 0.305 5.818e-3 -65.817
5366.125 3.678e-3 -50.021 0.998 0.162 0.998 0.162 3.678e-3 -50.021
5391.083 2.38e-3 -8.232 0.998 0.02 0.998 0.02 2.38e-3 -8.232
5416.042 3.176e-3 42.01 0.998 -0.122 0.998 -0.122 3.176e-3 42.01
5441 5.16e-3 62.58 0.998 -0.263 0.998 -0.263 5.16e-3 62.58
5465.958 7.423e-3 71.101 0.998 -0.403 0.998 -0.403 7.423e-3 71.101
5490.917 9.766e-3 75.504 0.998 -0.543 0.998 -0.543 9.766e-3 75.504
5515.875 0.012 78.129 0.998 -0.682 0.998 -0.682 0.012 78.129
5540.833 0.015 79.842 0.998 -0.821 0.998 -0.821 0.015 79.842
5565.792 0.017 81.029 0.998 -0.958 0.998 -0.958 0.017 81.029
5590.75 0.019 81.884 0.997 -1.096 0.997 -1.096 0.019 81.884
5615.708 0.022 82.52 0.997 -1.232 0.997 -1.232 0.022 82.52
5640.667 0.024 83.001 0.997 -1.368 0.997 -1.368 0.024 83.001
5665.625 0.026 83.37 0.997 -1.504 0.997 -1.504 0.026 83.37
5690.583 0.029 83.655 0.997 -1.639 0.997 -1.639 0.029 83.655
5715.542 0.031 83.876 0.997 -1.773 0.997 -1.773 0.031 83.876
5740.5 0.033 84.047 0.997 -1.907 0.997 -1.907 0.033 84.047
5765.458 0.036 84.177 0.997 -2.04 0.997 -2.04 0.036 84.177
5790.417 0.038 84.275 0.997 -2.172 0.997 -2.172 0.038 84.275
5815.375 0.04 84.346 0.997 -2.304 0.997 -2.304 0.04 84.346
5840.333 0.043 84.395 0.997 -2.436 0.997 -2.436 0.043 84.395
5865.292 0.045 84.426 0.997 -2.567 0.997 -2.567 0.045 84.426
5890.25 0.047 84.441 0.997 -2.697 0.997 -2.697 0.047 84.441
5915.208 0.049 84.443 0.996 -2.827 0.996 -2.827 0.049 84.443
5940.167 0.052 84.433 0.996 -2.956 0.996 -2.956 0.052 84.433
5965.125 0.054 84.413 0.996 -3.085 0.996 -3.085 0.054 84.413
5990.083 0.056 84.385 0.996 -3.213 0.996 -3.213 0.056 84.385
6015.042 0.058 84.349 0.996 -3.341 0.996 -3.341 0.058 84.349
6040 0.061 84.306 0.996 -3.469 0.996 -3.469 0.061 84.306
6064.958 0.063 84.258 0.996 -3.595 0.996 -3.595 0.063 84.258
6089.917 0.065 84.205 0.996 -3.722 0.996 -3.722 0.065 84.205
6114.875 0.067 84.147 0.995 -3.847 0.995 -3.847 0.067 84.147
6139.833 0.069 84.085 0.995 -3.973 0.995 -3.973 0.069 84.085
6164.792 0.071 84.02 0.995 -4.098 0.995 -4.098 0.071 84.02
6189.75 0.074 83.951 0.995 -4.222 0.995 -4.222 0.074 83.951
6214.708 0.076 83.879 0.995 -4.346 0.995 -4.346 0.076 83.879
6239.667 0.078 83.805 0.995 -4.469 0.995 -4.469 0.078 83.805
6264.625 0.08 83.728 0.994 -4.592 0.994 -4.592 0.08 83.728
6289.583 0.082 83.65 0.994 -4.715 0.994 -4.715 0.082 83.65
6314.542 0.084 83.569 0.994 -4.837 0.994 -4.837 0.084 83.569
6339.5 0.086 83.487 0.994 -4.958 0.994 -4.958 0.086 83.487
6364.458 0.089 83.403 0.994 -5.08 0.994 -5.08 0.089 83.403
6389.417 0.091 83.317 0.994 -5.2 0.994 -5.2 0.091 83.317
6414.375 0.093 83.231 0.993 -5.321 0.993 -5.321 0.093 83.231
6439.333 0.095 83.143 0.993 -5.44 0.993 -5.44 0.095 83.143
6464.292 0.097 83.054 0.993 -5.56 0.993 -5.56 0.097 83.054
6489.25 0.099 82.965 0.993 -5.679 0.993 -5.679 0.099 82.965
6514.208 0.101 82.874 0.993 -5.797 0.993 -5.797 0.101 82.874
6539.167 0.103 82.782 0.992 -5.916 0.992 -5.916 0.103 82.782
6564.125 0.105 82.69 0.992 -6.033 0.992 -6.033 0.105 82.69
6589.083 0.107 82.597 0.992 -6.151 0.992 -6.151 0.107 82.597
6614.042 0.109 82.504 0.992 -6.268 0.992 -6.268 0.109 82.504
6639 0.111 82.41 0.991 -6.384 0.991 -6.384 0.111 82.41
6663.958 0.113 82.316 0.991 -6.5 0.991 -6.5 0.113 82.316
6688.917 0.115 82.221 0.991 -6.616 0.991 -6.616 0.115 82.221
6713.875 0.117 82.126 0.991 -6.731 0.991 -6.731 0.117 82.126
6738.833 0.119 82.03 0.991 -6.846 0.991 -6.846 0.119 82.03
6763.792 0.121 81.934 0.99 -6.961 0.99 -6.961 0.121 81.934
6788.75 0.123 81.838 0.99 -7.075 0.99 -7.075 0.123 81.838
6813.708 0.125 81.742 0.99 -7.189 0.99 -7.189 0.125 81.742
6838.667 0.127 81.645 0.99 -7.302 0.99 -7.302 0.127 81.645
6863.625 0.129 81.548 0.989 -7.415 0.989 -7.415 0.129 81.548
6888.583 0.131 81.451 0.989 -7.528 0.989 -7.528 0.131 81.451
6913.542 0.133 81.354 0.989 -7.64 0.989 -7.64 0.133 81.354
6938.5 0.135 81.257 0.989 -7.752 0.989 -7.752 0.135 81.257
6963.458 0.137 81.16 0.988 -7.863 0.988 -7.863 0.137 81.16
6988.417 0.139 81.062 0.988 -7.975 0.988 -7.975 0.139 81.062
7013.375 0.141 80.965 0.988 -8.085 0.988 -8.085 0.141 80.965
7038.333 0.143 80.867 0.987 -8.196 0.987 -8.196 0.143 80.867
7063.292 0.144 80.77 0.987 -8.306 0.987 -8.306 0.144 80.77
7088.25 0.146 80.672 0.987 -8.416 0.987 -8.416 0.146 80.672
7113.208 0.148 80.575 0.987 -8.525 0.987 -8.525 0.148 80.575
7138.167 0.15 80.477 0.986 -8.634 0.986 -8.634 0.15 80.477
7163.125 0.152 80.38 0.986 -8.743 0.986 -8.743 0.152 80.38
7188.083 0.154 80.282 0.986 -8.852 0.986 -8.852 0.154 80.282
7213.042 0.156 80.185 0.985 -8.96 0.985 -8.96 0.156 80.185
7238 0.158 80.087 0.985 -9.067 0.985 -9.067 0.158 80.087
7262.958 0.159 79.99 0.985 -9.175 0.985 -9.175 0.159 79.99
7287.917 0.161 79.893 0.985 -9.282 0.985 -9.282 0.161 79.893
7312.875 0.163 79.795 0.984 -9.389 0.984 -9.389 0.163 79.795
7337.833 0.165 79.698 0.984 -9.495 0.984 -9.495 0.165 79.698
7362.792 0.167 79.601 0.984 -9.601 0.984 -9.601 0.167 79.601
7387.75 0.169 79.504 0.983 -9.707 0.983 -9.707 0.169 79.504
7412.708 0.17 79.407 0.983 -9.813 0.983 -9.813 0.17 79.407
7437.667 0.172 79.311 0.983 -9.918 0.983 -9.918 0.172 79.311
7462.625 0.174 79.214 0.982 -10.023 0.982 -10.023 0.174 79.214
7487.583 0.176 79.117 0.982 -10.127 0.982 -10.127 0.176 79.117
7512.542 0.178 79.021 0.982 -10.231 0.982 -10.231 0.178 79.021
7537.5 0.179 78.925 0.981 -10.335 0.981 -10.335 0.179 78.925
7562.458 0.181 78.829 0.981 -10.439 0.981 -10.439 0.181 78.829
7587.417 0.183 78.733 0.981 -10.542 0.981 -10.542 0.183 78.733
7612.375 0.185 78.637 0.98 -10.646 0.98 -10.646 0.185 78.637
7637.333 0.187 78.541 0.98 -10.748 0.98 -10.748 0.187 78.541
7662.292 0.188 78.445 0.98 -10.851 0.98 -10.851 0.188 78.445
7687.25 0.19 78.35 0.979 -10.953 0.979 -10.953 0.19 78.35
7712.208 0.192 78.255 0.979 -11.055 0.979 -11.055 0.192 78.255
7737.167 0.194 78.159 0.979 -11.156 0.979 -11.156 0.194 78.159
7762.125 0.195 78.064 0.978 -11.258 0.978 -11.258 0.195 78.064
7787.083 0.197 77.97 0.978 -11.359 0.978 -11.359 0.197 77.97
7812.042 0.199 77.875 0.978 -11.46 0.978 -11.46 0.199 77.875
7837 0.2 77.78 0.977 -11.56 0.977 -11.56 0.2 77.78
7861.958 0.202 77.686 0.977 -11.66 0.977 -11.66 0.202 77.686
7886.917 0.204 77.592 0.977 -11.76 0.977 -11.76 0.204 77.592
7911.875 0.206 77.498 0.976 -11.86 0.976 -11.86 0.206 77.498
7936.833 0.207 77.404 0.976 -11.959 0.976 -11.959 0.207 77.404
7961.792 0.209 77.31 0.976 -12.058 0.976 -12.058 0.209 77.31
7986.75 0.211 77.216 0.975 -12.157 0.975 -12.157 0.211 77.216
8011.708 0.212 77.123 0.975 -12.256 0.975 -12.256 0.212 77.123
8036.667 0.214 77.03 0.975 -12.354 0.975 -12.354 0.214 77.03
8061.625 0.216 76.937 0.974 -12.452 0.974 -12.452 0.216 76.937
8086.583 0.217 76.844 0.974 -12.55 0.974 -12.55 0.217 76.844
8111.542 0.219 76.751 0.973 -12.647 0.973 -12.647 0.219 76.751
8136.5 0.221 76.659 0.973 -12.745 0.973 -12.745 0.221 76.659
8161.458 0.222 76.566 0.973 -12.842 0.973 -12.842 0.222 76.566
8186.417 0.224 76.474 0.972 -12.938 0.972 -12.938 0.224 76.474
