# MHZ S MA R 50

50 0.994 -6.454 0.112 83.536 0.112 83.536 0.994 -6.454
74.958 0.986 -9.628 0.167 80.357 0.167 80.357 0.986 -9.628
99.917 0.975 -12.747 0.221 77.233 0.221 77.233 0.975 -12.747
124.875 0.962 -15.796 0.272 74.179 0.272 74.179 0.962 -15.796
149.833 0.947 -18.761 0.322 71.209 0.322 71.209 0.947 -18.761
174.792 0.929 -21.632 0.369 68.333 0.369 68.333 0.929 -21.632
199.75 0.91 -24.4 0.413 65.56 0.413 65.56 0.91 -24.4
224.708 0.89 -27.06 0.455 62.895 0.455 62.895 0.89 -27.06
249.667 0.869 -29.607 0.494 60.342 0.494 60.342 0.869 -29.607
274.625 0.847 -32.041 0.531 57.903 0.531 57.903 0.847 -32.041
299.583 0.825 -34.362 0.564 55.578 0.564 55.578 0.825 -34.362
324.542 0.802 -36.57 0.596 53.365 0.596 53.365 0.802 -36.57
349.5 0.78 -38.668 0.625 51.261 0.625 51.261 0.78 -38.668
374.458 0.758 -40.661 0.652 49.263 0.652 49.263 0.758 -40.661
399.417 0.736 -42.551 0.676 47.368 0.676 47.368 0.736 -42.551
424.375 0.714 -44.344 0.699 45.57 0.699 45.57 0.714 -44.344
449.333 0.693 -46.044 0.72 43.864 0.72 43.864 0.693 -46.044
474.292 0.672 -47.656 0.739 42.247 0.739 42.247 0.672 -47.656
499.25 0.652 -49.184 0.757 40.713 0.757 40.713 0.652 -49.184
524.208 0.633 -50.634 0.773 39.258 0.773 39.258 0.633 -50.634
549.167 0.614 -52.01 0.788 37.876 0.788 37.876 0.614 -52.01
574.125 0.596 -53.317 0.802 36.564 0.802 36.564 0.596 -53.317
599.083 0.578 -54.559 0.815 35.317 0.815 35.317 0.578 -54.559
624.042 0.561 -55.739 0.826 34.13 0.826 34.13 0.561 -55.739
649 0.545 -56.863 0.837 33.001 0.837 33.001 0.545 -56.863
673.958 0.529 -57.933 0.847 31.926 0.847 31.926 0.529 -57.933
698.917 0.514 -58.952 0.857 30.901 0.857 30.901 0.514 -58.952
723.875 0.499 -59.924 0.865 29.923 0.865 29.923 0.499 -59.924
748.833 0.485 -60.853 0.873 28.988 0.873 28.988 0.485 -60.853
773.792 0.471 -61.739 0.881 28.096 0.881 28.096 0.471 -61.739
798.75 0.458 -62.587 0.888 27.241 0.888 27.241 0.458 -62.587
823.708 0.445 -63.399 0.894 26.424 0.894 26.424 0.445 -63.399
848.667 0.433 -64.176 0.9 25.64 0.9 25.64 0.433 -64.176
873.625 0.421 -64.922 0.906 24.888 0.906 24.888 0.421 -64.922
898.583 0.409 -65.637 0.911 24.167 0.911 24.167 0.409 -65.637
923.542 0.398 -66.323 0.916 23.474 0.916 23.474 0.398 -66.323
948.5 0.388 -66.983 0.92 22.807 0.92 22.807 0.388 -66.983
973.458 0.377 -67.618 0.925 22.166 0.925 22.166 0.377 -67.618
998.417 0.367 -68.229 0.929 21.548 0.929 21.548 0.367 -68.229
1023.375 0.358 -68.817 0.932 20.953 0.932 20.953 0.358 -68.817
1048.333 0.348 -69.384 0.936 20.378 0.936 20.378 0.348 -69.384
1073.292 0.339 -69.932 0.939 19.824 0.939 19.824 0.339 -69.932
1098.25 0.33 -70.46 0.942 19.288 0.942 19.288 0.33 -70.46
1123.208 0.322 -70.97 0.945 18.771 0.945 18.771 0.322 -70.97
1148.167 0.313 -71.463 0.948 18.27 0.948 18.27 0.313 -71.463
1173.125 0.305 -71.94 0.951 17.785 0.951 17.785 0.305 -71.94
1198.083 0.298 -72.402 0.953 17.315 0.953 17.315 0.298 -72.402
1223.042 0.29 -72.85 0.956 16.86 0.956 16.86 0.29 -72.85
1248 0.283 -73.283 0.958 16.418 0.958 16.418 0.283 -73.283
1272.958 0.275 -73.703 0.96 15.989 0.96 15.989 0.275 -73.703
1297.917 0.268 -74.111 0.962 15.573 0.962 15.573 0.268 -74.111
1322.875 0.262 -74.507 0.964 15.168 0.964 15.168 0.262 -74.507
1347.833 0.255 -74.891 0.965 14.774 0.965 14.774 0.255 -74.891
1372.792 0.249 -75.265 0.967 14.391 0.967 14.391 0.249 -75.265
1397.75 0.242 -75.628 0.969 14.019 0.969 14.019 0.242 -75.628
1422.708 0.236 -75.982 0.97 13.656 0.97 13.656 0.236 -75.982
1447.667 0.23 -76.325 0.972 13.302 0.972 13.302 0.23 -76.325
1472.625 0.224 -76.66 0.973 12.957 0.973 12.957 0.224 -76.66
1497.583 0.218 -76.986 0.974 12.62 0.974 12.62 0.218 -76.986
1522.542 0.213 -77.304 0.976 12.292 0.976 12.292 0.213 -77.304
1547.5 0.207 -77.613 0.977 11.971 0.977 11.971 0.207 -77.613
1572.458 0.202 -77.915 0.978 11.658 0.978 11.658 0.202 -77.915
1597.417 0.197 -78.21 0.979 11.352 0.979 11.352 0.197 -78.21
1622.375 0.192 -78.497 0.98 11.052 0.98 11.052 0.192 -78.497
1647.333 0.187 -78.777 0.981 10.759 0.981 10.759 0.187 -78.777
1672.292 0.182 -79.051 0.982 10.472 0.982 10.472 0.182 -79.051
1697.25 0.177 -79.318 0.983 10.192 0.983 10.192 0.177 -79.318
1722.208 0.172 -79.579 0.984 9.917 0.984 9.917 0.172 -79.579
1747.167 0.168 -79.834 0.984 9.647 0.984 9.647 0.168 -79.834
1772.125 0.163 -80.084 0.985 9.383 0.985 9.383 0.163 -80.084
1797.083 0.159 -80.327 0.986 9.124 0.986 9.124 0.159 -80.327
1822.042 0.154 -80.565 0.987 8.87 0.987 8.87 0.154 -80.565
1847 0.15 -80.798 0.987 8.621 0.987 8.621 0.15 -80.798
1871.958 0.146 -81.026 0.988 8.376 0.988 8.376 0.146 -81.026
1896.917 0.142 -81.248 0.988 8.136 0.988 8.136 0.142 -81.248
1921.875 0.137 -81.465 0.989 7.9 0.989 7.9 0.137 -81.465
1946.833 0.133 -81.678 0.99 7.668 0.99 7.668 0.133 -81.678
1971.792 0.129 -81.886 0.99 7.439 0.99 7.439 0.129 -81.886
1996.75 0.126 -82.089 0.991 7.215 0.991 7.215 0.126 -82.089
2021.708 0.122 -82.287 0.991 6.995 0.991 6.995 0.122 -82.287
2046.667 0.118 -82.481 0.991 6.778 0.991 6.778 0.118 -82.481
2071.625 0.114 -82.67 0.992 6.564 0.992 6.564 0.114 -82.67
2096.583 0.111 -82.855 0.992 6.354 0.992 6.354 0.111 -82.855
2121.542 0.107 -83.035 0.993 6.147 0.993 6.147 0.107 -83.035
2146.5 0.104 -83.211 0.993 5.943 0.993 5.943 0.104 -83.211
2171.458 0.1 -83.382 0.993 5.742 0.993 5.742 0.1 -83.382
2196.417 0.097 -83.549 0.994 5.544 0.994 5.544 0.097 -83.549
2221.375 0.093 -83.711 0.994 5.348 0.994 5.348 0.093 -83.711
2246.333 0.09 -83.868 0.994 5.156 0.994 5.156 0.09 -83.868
2271.292 0.087 -84.02 0.995 4.966 0.995 4.966 0.087 -84.02
2296.25 0.083 -84.168 0.995 4.779 0.995 4.779 0.083 -84.168
2321.208 0.08 -84.31 0.995 4.594 0.995 4.594 0.08 -84.31
2346.167 0.077 -84.447 0.996 4.411 0.996 4.411 0.077 -84.447
2371.125 0.074 -84.578 0.996 4.231 0.996 4.231 0.074 -84.578
2396.083 0.071 -84.703 0.996 4.053 0.996 4.053 0.071 -84.703
2421.042 0.068 -84.823 0.996 3.878 0.996 3.878 0.068 -84.823
2446 0.065 -84.935 0.996 3.704 0.996 3.704 0.065 -84.935
2470.958 0.062 -85.04 0.997 3.533 0.997 3.533 0.062 -85.04
2495.917 0.059 -85.138 0.997 3.363 0.997 3.363 0.059 -85.138
2520.875 0.056 -85.226 0.997 3.196 0.997 3.196 0.056 -85.226
2545.833 0.053 -85.306 0.997 3.03 0.997 3.03 0.053 -85.306
2570.792 0.05 -85.374 0.997 2.867 0.997 2.867 0.05 -85.374
2595.75 0.047 -85.431 0.997 2.705 0.997 2.705 0.047 -85.431
2620.708 0.044 -85.473 0.997 2.545 0.997 2.545 0.044 -85.473
2645.667 0.042 -85.5 0.998 2.386 0.998 2.386 0.042 -85.5
2670.625 0.039 -85.508 0.998 2.23 0.998 2.23 0.039 -85.508
2695.583 0.036 -85.494 0.998 2.075 0.998 2.075 0.036 -85.494
2720.542 0.034 -85.454 0.998 1.921 0.998 1.921 0.034 -85.454
2745.5 0.031 -85.38 0.998 1.769 0.998 1.769 0.031 -85.38
2770.458 0.028 -85.266 0.998 1.618 0.998 1.618 0.028 -85.266
2795.417 0.026 -85.1 0.998 1.469 0.998 1.469 0.026 -85.1
2820.375 0.023 -84.865 0.998 1.322 0.998 1.322 0.023 -84.865
2845.333 0.021 -84.538 0.998 1.176 0.998 1.176 0.021 -84.538
2870.292 0.018 -84.083 0.998 1.031 0.998 1.031 0.018 -84.083
2895.25 0.016 -83.441 0.998 0.887 0.998 0.887 0.016 -83.441
2920.208 0.013 -82.508 0.998 0.745 0.998 0.745 0.013 -82.508
2945.167 0.011 -81.093 0.998 0.604 0.998 0.604 0.011 -81.093
2970.125 8.242e-3 -78.783 0.998 0.464 0.998 0.464 8.242e-3 -78.783
2995.083 5.883e-3 -74.521 0.998 0.325 0.998 0.325 5.883e-3 -74.521
3020.042 3.622e-3 -64.69 0.998 0.188 0.998 0.188 3.622e-3 -64.69
3045 1.782e-3 -30.311 0.998 0.052 0.998 0.052 1.782e-3 -30.311
3069.958 2.119e-3 43.396 0.998 -0.084 0.998 -0.084 2.119e-3 43.396
3094.917 4.098e-3 67.742 0.998 -0.218 0.998 -0.218 4.098e-3 67.742
3119.875 6.311e-3 75.545 0.998 -0.351 0.998 -0.351 6.311e-3 75.545
3144.833 8.563e-3 79.171 0.998 -0.483 0.998 -0.483 8.563e-3 79.171
3169.792 0.011 81.215 0.998 -0.614 0.998 -0.614 0.011 81.215
3194.75 0.013 82.499 0.998 -0.744 0.998 -0.744 0.013 82.499
3219.708 0.015 83.362 0.998 -0.873 0.998 -0.873 0.015 83.362
3244.667 0.018 83.967 0.998 -1.001 0.998 -1.001 0.018 83.967
3269.625 0.02 84.405 0.998 -1.128 0.998 -1.128 0.02 84.405
3294.583 0.022 84.727 0.998 -1.254 0.998 -1.254 0.022 84.727
3319.542 0.024 84.966 0.998 -1.379 0.998 -1.379 0.024 84.966
3344.5 0.026 85.143 0.998 -1.504 0.998 -1.504 0.026 85.143
3369.458 0.028 85.274 0.998 -1.627 0.998 -1.627 0.028 85.274
3394.417 0.031 85.368 0.998 -1.75 0.998 -1.75 0.031 85.368
3419.375 0.033 85.434 0.998 -1.872 0.998 -1.872 0.033 85.434
3444.333 0.035 85.476 0.998 -1.993 0.998 -1.993 0.035 85.476
3469.292 0.037 85.5 0.998 -2.113 0.998 -2.113 0.037 85.5
3494.25 0.039 85.508 0.998 -2.233 0.998 -2.233 0.039 85.508
3519.208 0.041 85.504 0.998 -2.352 0.998 -2.352 0.041 85.504
3544.167 0.043 85.488 0.998 -2.47 0.998 -2.47 0.043 85.488
3569.125 0.045 85.463 0.997 -2.587 0.997 -2.587 0.045 85.463
3594.083 0.047 85.431 0.997 -2.704 0.997 -2.704 0.047 85.431
3619.042 0.049 85.392 0.997 -2.82 0.997 -2.82 0.049 85.392
3644 0.051 85.347 0.997 -2.935 0.997 -2.935 0.051 85.347
3668.958 0.053 85.297 0.997 -3.049 0.997 -3.049 0.053 85.297
3693.917 0.055 85.243 0.997 -3.163 0.997 -3.163 0.055 85.243
3718.875 0.057 85.185 0.997 -3.277 0.997 -3.277 0.057 85.185
3743.833 0.059 85.123 0.997 -3.389 0.997 -3.389 0.059 85.123
3768.792 0.061 85.059 0.997 -3.501 0.997 -3.501 0.061 85.059
3793.75 0.063 84.992 0.996 -3.613 0.996 -3.613 0.063 84.992
3818.708 0.065 84.923 0.996 -3.723 0.996 -3.723 0.065 84.923
3843.667 0.067 84.852 0.996 -3.833 0.996 -3.833 0.067 84.852
3868.625 0.069 84.779 0.996 -3.943 0.996 -3.943 0.069 84.779
3893.583 0.071 84.704 0.996 -4.052 0.996 -4.052 0.071 84.704
3918.542 0.073 84.628 0.996 -4.161 0.996 -4.161 0.073 84.628
3943.5 0.074 84.551 0.996 -4.269 0.996 -4.269 0.074 84.551
3968.458 0.076 84.473 0.996 -4.376 0.996 -4.376 0.076 84.473
3993.417 0.078 84.393 0.995 -4.483 0.995 -4.483 0.078 84.393
4018.375 0.08 84.313 0.995 -4.589 0.995 -4.589 0.08 84.313
4043.333 0.082 84.232 0.995 -4.695 0.995 -4.695 0.082 84.232
4068.292 0.084 84.151 0.995 -4.8 0.995 -4.8 0.084 84.151
4093.25 0.086 84.068 0.995 -4.905 0.995 -4.905 0.086 84.068
4118.208 0.087 83.986 0.995 -5.009 0.995 -5.009 0.087 83.986
4143.167 0.089 83.902 0.994 -5.113 0.994 -5.113 0.089 83.902
4168.125 0.091 83.818 0.994 -5.216 0.994 -5.216 0.091 83.818
4193.083 0.093 83.734 0.994 -5.319 0.994 -5.319 0.093 83.734
4218.042 0.095 83.65 0.994 -5.422 0.994 -5.422 0.095 83.65
4243 0.096 83.565 0.994 -5.524 0.994 -5.524 0.096 83.565
4267.958 0.098 83.48 0.994 -5.625 0.994 -5.625 0.098 83.48
4292.917 0.1 83.395 0.993 -5.726 0.993 -5.726 0.1 83.395
4317.875 0.102 83.309 0.993 -5.827 0.993 -5.827 0.102 83.309
4342.833 0.103 83.224 0.993 -5.927 0.993 -5.927 0.103 83.224
4367.792 0.105 83.138 0.993 -6.027 0.993 -6.027 0.105 83.138
4392.75 0.107 83.052 0.993 -6.127 0.993 -6.127 0.107 83.052
4417.708 0.108 82.967 0.993 -6.226 0.993 -6.226 0.108 82.967
4442.667 0.11 82.881 0.992 -6.324 0.992 -6.324 0.11 82.881
4467.625 0.112 82.795 0.992 -6.423 0.992 -6.423 0.112 82.795
4492.583 0.114 82.709 0.992 -6.52 0.992 -6.52 0.114 82.709
4517.542 0.115 82.623 0.992 -6.618 0.992 -6.618 0.115 82.623
4542.5 0.117 82.537 0.992 -6.715 0.992 -6.715 0.117 82.537
4567.458 0.119 82.451 0.991 -6.812 0.991 -6.812 0.119 82.451
4592.417 0.12 82.365 0.991 -6.908 0.991 -6.908 0.12 82.365
4617.375 0.122 82.279 0.991 -7.004 0.991 -7.004 0.122 82.279
4642.333 0.124 82.193 0.991 -7.1 0.991 -7.1 0.124 82.193
4667.292 0.125 82.107 0.991 -7.195 0.991 -7.195 0.125 82.107
4692.25 0.127 82.021 0.99 -7.29 0.99 -7.29 0.127 82.021
4717.208 0.129 81.936 0.99 -7.385 0.99 -7.385 0.129 81.936
4742.167 0.13 81.85 0.99 -7.479 0.99 -7.479 0.13 81.85
4767.125 0.132 81.764 0.99 -7.573 0.99 -7.573 0.132 81.764
4792.083 0.133 81.679 0.99 -7.666 0.99 -7.666 0.133 81.679
4817.042 0.135 81.594 0.989 -7.76 0.989 -7.76 0.135 81.594
4842 0.137 81.509 0.989 -7.853 0.989 -7.853 0.137 81.509
4866.958 0.138 81.423 0.989 -7.945 0.989 -7.945 0.138 81.423
4891.917 0.14 81.338 0.989 -8.038 0.989 -8.038 0.14 81.338
4916.875 0.141 81.254 0.988 -8.13 0.988 -8.13 0.141 81.254
4941.833 0.143 81.169 0.988 -8.221 0.988 -8.221 0.143 81.169
4966.792 0.145 81.084 0.988 -8.313 0.988 -8.313 0.145 81.084
4991.75 0.146 81 0.988 -8.404 0.988 -8.404 0.146 81
5016.708 0.148 80.915 0.988 -8.495 0.988 -8.495 0.148 80.915
5041.667 0.149 80.831 0.987 -8.585 0.987 -8.585 0.149 80.831
5066.625 0.151 80.747 0.987 -8.676 0.987 -8.676 0.151 80.747
5091.583 0.152 80.663 0.987 -8.766 0.987 -8.766 0.152 80.663
5116.542 0.154 80.579 0.987 -8.855 0.987 -8.855 0.154 80.579
5141.5 0.155 80.495 0.986 -8.945 0.986 -8.945 0.155 80.495
5166.458 0.157 80.412 0.986 -9.034 0.986 -9.034 0.157 80.412
5191.417 0.159 80.328 0.986 -9.123 0.986 -9.123 0.159 80.328
5216.375 0.16 80.245 0.986 -9.212 0.986 -9.212 0.16 80.245
5241.333 0.162 80.162 0.985 -9.3 0.985 -9.3 0.162 80.162
5266.292 0.163 80.079 0.985 -9.388 0.985 -9.388 0.163 80.079
5291.25 0.165 79.996 0.985 -9.476 0.985 -9.476 0.165 79.996
5316.208 0.166 79.913 0.985 -9.564 0.985 -9.564 0.166 79.913
5341.167 0.168 79.831 0.984 -9.651 0.984 -9.651 0.168 79.831
5366.125 0.169 79.748 0.984 -9.738 0.984 -9.738 0.169 79.748
5391.083 0.171 79.666 0.984 -9.825 0.984 -9.825 0.171 79.666
5416.042 0.172 79.584 0.984 -9.912 0.984 -9.912 0.172 79.584
5441 0.174 79.502 0.983 -9.998 0.983 -9.998 0.174 79.502
5465.958 0.175 79.42 0.983 -10.084 0.983 -10.084 0.175 79.42
5490.917 0.177 79.339 0.983 -10.17 0.983 -10.17 0.177 79.339
5515.875 0.178 79.257 0.983 -10.256 0.983 -10.256 0.178 79.257
5540.833 0.18 79.176 0.982 -10.342 0.982 -10.342 0.18 79.176
5565.792 0.181 79.094 0.982 -10.427 0.982 -10.427 0.181 79.094
5590.75 0.182 79.013 0.982 -10.512 0.982 -10.512 0.182 79.013
5615.708 0.184 78.932 0.981 -10.597 0.981 -10.597 0.184 78.932
5640.667 0.185 78.852 0.981 -10.681 0.981 -10.681 0.185 78.852
5665.625 0.187 78.771 0.981 -10.766 0.981 -10.766 0.187 78.771
5690.583 0.188 78.69 0.981 -10.85 0.981 -10.85 0.188 78.69
5715.542 0.19 78.61 0.98 -10.934 0.98 -10.934 0.19 78.61
5740.5 0.191 78.53 0.98 -11.017 0.98 -11.017 0.191 78.53
5765.458 0.193 78.45 0.98 -11.101 0.98 -11.101 0.193 78.45
5790.417 0.194 78.37 0.979 -11.184 0.979 -11.184 0.194 78.37
5815.375 0.195 78.29 0.979 -11.267 0.979 -11.267 0.195 78.29
5840.333 0.197 78.211 0.979 -11.35 0.979 -11.35 0.197 78.211
5865.292 0.198 78.131 0.979 -11.433 0.979 -11.433 0.198 78.131
5890.25 0.2 78.052 0.978 -11.516 0.978 -11.516 0.2 78.052
5915.208 0.201 77.973 0.978 -11.598 0.978 -11.598 0.201 77.973
5940.167 0.202 77.894 0.978 -11.68 0.978 -11.68 0.202 77.894
5965.125 0.204 77.815 0.977 -11.762 0.977 -11.762 0.204 77.815
5990.083 0.205 77.736 0.977 -11.844 0.977 -11.844 0.205 77.736
6015.042 0.207 77.657 0.977 -11.925 0.977 -11.925 0.207 77.657
6040 0.208 77.579 0.977 -12.007 0.977 -12.007 0.208 77.579
6064.958 0.209 77.501 0.976 -12.088 0.976 -12.088 0.209 77.501
6089.917 0.211 77.422 0.976 -12.169 0.976 -12.169 0.211 77.422
6114.875 0.212 77.344 0.976 -12.25 0.976 -12.25 0.212 77.344
6139.833 0.214 77.266 0.975 -12.33 0.975 -12.33 0.214 77.266
6164.792 0.215 77.189 0.975 -12.411 0.975 -12.411 0.215 77.189
6189.75 0.216 77.111 0.975 -12.491 0.975 -12.491 0.216 77.111
6214.708 0.218 77.034 0.975 -12.571 0.975 -12.571 0.218 77.034
6239.667 0.219 76.956 0.974 -12.651 0.974 -12.651 0.219 76.956
6264.625 0.22 76.879 0.974 -12.731 0.974 -12.731 0.22 76.879
6289.583 0.222 76.802 0.974 -12.811 0.974 -12.811 0.222 76.802
6314.542 0.223 76.725 0.973 -12.89 0.973 -12.89 0.223 76.725
6339.5 0.224 76.648 0.973 -12.969 0.973 -12.969 0.224 76.648
6364.458 0.226 76.572 0.973 -13.048 0.973 -13.048 0.226 76.572
6389.417 0.227 76.495 0.972 -13.127 0.972 -13.127 0.227 76.495
6414.375 0.228 76.419 0.972 -13.206 0.972 -13.206 0.228 76.419
6439.333 0.23 76.342 0.972 -13.285 0.972 -13.285 0.23 76.342
6464.292 0.231 76.266 0.971 -13.363 0.971 -13.363 0.231 76.266
6489.25 0.232 76.19 0.971 -13.441 0.971 -13.441 0.232 76.19
6514.208 0.234 76.114 0.971 -13.519 0.971 -13.519 0.234 76.114
6539.167 0.235 76.038 0.97 -13.597 0.97 -13.597 0.235 76.038
6564.125 0.236 75.963 0.97 -13.675 0.97 -13.675 0.236 75.963
6589.083 0.238 75.887 0.97 -13.753 0.97 -13.753 0.238 75.887
6614.042 0.239 75.812 0.97 -13.83 0.97 -13.83 0.239 75.812
6639 0.24 75.737 0.969 -13.907 0.969 -13.907 0.24 75.737
6663.958 0.242 75.662 0.969 -13.985 0.969 -13.985 0.242 75.662
6688.917 0.243 75.587 0.969 -14.062 0.969 -14.062 0.243 75.587
6713.875 0.244 75.512 0.968 -14.138 0.968 -14.138 0.244 75.512
6738.833 0.246 75.437 0.968 -14.215 0.968 -14.215 0.246 75.437
6763.792 0.247 75.362 0.968 -14.292 0.968 -14.292 0.247 75.362
6788.75 0.248 75.288 0.967 -14.368 0.967 -14.368 0.248 75.288
6813.708 0.249 75.213 0.967 -14.444 0.967 -14.444 0.249 75.213
6838.667 0.251 75.139 0.967 -14.521 0.967 -14.521 0.251 75.139
6863.625 0.252 75.065 0.966 -14.597 0.966 -14.597 0.252 75.065
6888.583 0.253 74.991 0.966 -14.672 0.966 -14.672 0.253 74.991
6913.542 0.255 74.917 0.966 -14.748 0.966 -14.748 0.255 74.917
6938.5 0.256 74.843 0.965 -14.824 0.965 -14.824 0.256 74.843
6963.458 0.257 74.77 0.965 -14.899 0.965 -14.899 0.257 74.77
6988.417 0.258 74.696 0.965 -14.974 0.965 -14.974 0.258 74.696
7013.375 0.26 74.623 0.964 -15.049 0.964 -15.049 0.26 74.623
7038.333 0.261 74.55 0.964 -15.124 0.964 -15.124 0.261 74.55
7063.292 0.262 74.476 0.964 -15.199 0.964 -15.199 0.262 74.476
7088.25 0.263 74.403 0.963 -15.274 0.963 -15.274 0.263 74.403
7113.208 0.265 74.33 0.963 -15.349 0.963 -15.349 0.265 74.33
7138.167 0.266 74.258 0.963 -15.423 0.963 -15.423 0.266 74.258
7163.125 0.267 74.185 0.962 -15.497 0.962 -15.497 0.267 74.185
7188.083 0.268 74.112 0.962 -15.572 0.962 -15.572 0.268 74.112
7213.042 0.27 74.04 0.961 -15.646 0.961 -15.646 0.27 74.04
7238 0.271 73.967 0.961 -15.72 0.961 -15.72 0.271 73.967
7262.958 0.272 73.895 0.961 -15.793 0.961 -15.793 0.272 73.895
7287.917 0.273 73.823 0.96 -15.867 0.96 -15.867 0.273 73.823
7312.875 0.275 73.751 0.96 -15.94 0.96 -15.94 0.275 73.751
7337.833 0.276 73.679 0.96 -16.014 0.96 -16.014 0.276 73.679
7362.792 0.277 73.607 0.959 -16.087 0.959 -16.087 0.277 73.607
7387.75 0.278 73.536 0.959 -16.16 0.959 -16.16 0.278 73.536
7412.708 0.28 73.464 0.959 -16.233 0.959 -16.233 0.28 73.464
7437.667 0.281 73.393 0.958 -16.306 0.958 -16.306 0.281 73.393
7462.625 0.282 73.321 0.958 -16.379 0.958 -16.379 0.282 73.321
7487.583 0.283 73.25 0.958 -16.452 0.958 -16.452 0.283 73.25
7512.542 0.284 73.179 0.957 -16.524 0.957 -16.524 0.284 73.179
7537.5 0.286 73.108 0.957 -16.597 0.957 -16.597 0.286 73.108
7562.458 0.287 73.037 0.957 -16.669 0.957 -16.669 0.287 73.037
7587.417 0.288 72.966 0.956 -16.741 0.956 -16.741 0.288 72.966
7612.375 0.289 72.895 0.956 -16.813 0.956 -16.813 0.289 72.895
7637.333 0.29 72.825 0.955 -16.885 0.955 -16.885 0.29 72.825
7662.292 0.292 72.754 0.955 -16.957 0.955 -16.957 0.292 72.754
7687.25 0.293 72.684 0.955 -17.028 0.955 -17.028 0.293 72.684
7712.208 0.294 72.614 0.954 -17.1 0.954 -17.1 0.294 72.614
7737.167 0.295 72.543 0.954 -17.171 0.954 -17.171 0.295 72.543
7762.125 0.296 72.473 0.954 -17.243 0.954 -17.243 0.296 72.473
7787.083 0.298 72.403 0.953 -17.314 0.953 -17.314 0.298 72.403
7812.042 0.299 72.333 0.953 -17.385 0.953 -17.385 0.299 72.333
7837 0.3 72.264 0.952 -17.456 0.952 -17.456 0.3 72.264
7861.958 0.301 72.194 0.952 -17.527 0.952 -17.527 0.301 72.194
7886.917 0.302 72.124 0.952 -17.598 0.952 -17.598 0.302 72.124
7911.875 0.304 72.055 0.951 -17.668 0.951 -17.668 0.304 72.055
7936.833 0.305 71.986 0.951 -17.739 0.951 -17.739 0.305 71.986
7961.792 0.306 71.916 0.951 -17.809 0.951 -17.809 0.306 71.916
7986.75 0.307 71.847 0.95 -17.88 0.95 -17.88 0.307 71.847
8011.708 0.308 71.778 0.95 -17.95 0.95 -17.95 0.308 71.778
8036.667 0.309 71.709 0.949 -18.02 0.949 -18.02 0.309 71.709
8061.625 0.311 71.64 0.949 -18.09 0.949 -18.09 0.311 71.64
8086.583 0.312 71.572 0.949 -18.16 0.949 -18.16 0.312 71.572
8111.542 0.313 71.503 0.948 -18.229 0.948 -18.229 0.313 71.503
8136.5 0.314 71.435 0.948 -18.299 0.948 -18.299 0.314 71.435
8161.458 0.315 71.366 0.948 -18.369 0.948 -18.369 0.315 71.366
8186.417 0.316 71.298 0.947 -18.438 0.947 -18.438 0.316 71.298
8211.375 0.317 71.229 0.947 -18.507 0.947 -18.507 0.317 71.229
