# MHZ S MA R 50

50 0.985 -9.982 0.173 80.004 0.173 80.004 0.985 -9.982
74.958 0.967 -14.788 0.255 75.192 0.255 75.192 0.967 -14.788
99.917 0.943 -19.398 0.332 70.574 0.332 70.574 0.943 -19.398
124.875 0.915 -23.771 0.403 66.194 0.403 66.194 0.915 -23.771
149.833 0.884 -27.881 0.468 62.077 0.468 62.077 0.884 -27.881
174.792 0.85 -31.715 0.526 58.236 0.526 58.236 0.85 -31.715
199.75 0.816 -35.27 0.577 54.674 0.577 54.674 0.816 -35.27
224.708 0.781 -38.553 0.623 51.384 0.623 51.384 0.781 -38.553
249.667 0.747 -41.577 0.664 48.353 0.664 48.353 0.747 -41.577
274.625 0.714 -44.357 0.699 45.565 0.699 45.565 0.714 -44.357
299.583 0.682 -46.913 0.73 43.003 0.73 43.003 0.682 -46.913
324.542 0.651 -49.261 0.758 40.647 0.758 40.647 0.651 -49.261
349.5 0.622 -51.421 0.782 38.479 0.782 38.479 0.622 -51.421
374.458 0.595 -53.411 0.803 36.482 0.803 36.482 0.595 -53.411
399.417 0.568 -55.245 0.822 34.64 0.822 34.64 0.568 -55.245
424.375 0.544 -56.94 0.838 32.938 0.838 32.938 0.544 -56.94
449.333 0.52 -58.508 0.853 31.362 0.853 31.362 0.52 -58.508
474.292 0.498 -59.962 0.866 29.9 0.866 29.9 0.498 -59.962
499.25 0.478 -61.313 0.877 28.541 0.877 28.541 0.478 -61.313
524.208 0.458 -62.571 0.888 27.275 0.888 27.275 0.458 -62.571
549.167 0.44 -63.745 0.897 26.094 0.897 26.094 0.44 -63.745
574.125 0.422 -64.842 0.905 24.988 0.905 24.988 0.422 -64.842
599.083 0.406 -65.87 0.913 23.953 0.913 23.953 0.406 -65.87
624.042 0.39 -66.834 0.919 22.98 0.919 22.98 0.39 -66.834
649 0.376 -67.74 0.925 22.065 0.925 22.065 0.376 -67.74
673.958 0.362 -68.594 0.931 21.202 0.931 21.202 0.362 -68.594
698.917 0.348 -69.4 0.936 20.388 0.936 20.388 0.348 -69.4
723.875 0.336 -70.161 0.941 19.617 0.941 19.617 0.336 -70.161
748.833 0.324 -70.882 0.945 18.887 0.945 18.887 0.324 -70.882
773.792 0.312 -71.566 0.949 18.194 0.949 18.194 0.312 -71.566
798.75 0.301 -72.215 0.952 17.535 0.952 17.535 0.301 -72.215
823.708 0.291 -72.832 0.955 16.908 0.955 16.908 0.291 -72.832
848.667 0.281 -73.419 0.958 16.311 0.958 16.311 0.281 -73.419
873.625 0.271 -73.98 0.961 15.74 0.961 15.74 0.271 -73.98
898.583 0.262 -74.515 0.964 15.194 0.964 15.194 0.262 -74.515
923.542 0.253 -75.026 0.966 14.672 0.966 14.672 0.253 -75.026
948.5 0.245 -75.516 0.968 14.171 0.968 14.171 0.245 -75.516
973.458 0.237 -75.985 0.97 13.691 0.97 13.691 0.237 -75.985
998.417 0.229 -76.435 0.972 13.229 0.972 13.229 0.229 -76.435
1023.375 0.221 -76.867 0.974 12.785 0.974 12.785 0.221 -76.867
1048.333 0.214 -77.282 0.975 12.358 0.975 12.358 0.214 -77.282
1073.292 0.207 -77.681 0.977 11.946 0.977 11.946 0.207 -77.681
1098.25 0.2 -78.065 0.978 11.548 0.978 11.548 0.2 -78.065
1123.208 0.194 -78.436 0.98 11.164 0.98 11.164 0.194 -78.436
1148.167 0.187 -78.793 0.981 10.793 0.981 10.793 0.187 -78.793
1173.125 0.181 -79.137 0.982 10.434 0.982 10.434 0.181 -79.137
1198.083 0.175 -79.47 0.983 10.086 0.983 10.086 0.175 -79.47
1223.042 0.169 -79.791 0.984 9.749 0.984 9.749 0.169 -79.791
1248 0.164 -80.102 0.985 9.422 0.985 9.422 0.164 -80.102
1272.958 0.158 -80.403 0.986 9.105 0.986 9.105 0.158 -80.403
1297.917 0.153 -80.693 0.987 8.796 0.987 8.796 0.153 -80.693
1322.875 0.148 -80.975 0.988 8.496 0.988 8.496 0.148 -80.975
1347.833 0.143 -81.248 0.988 8.205 0.988 8.205 0.143 -81.248
1372.792 0.138 -81.512 0.989 7.92 0.989 7.92 0.138 -81.512
1397.75 0.133 -81.768 0.99 7.644 0.99 7.644 0.133 -81.768
1422.708 0.128 -82.016 0.99 7.374 0.99 7.374 0.128 -82.016
1447.667 0.124 -82.256 0.991 7.111 0.991 7.111 0.124 -82.256
1472.625 0.119 -82.489 0.991 6.854 0.991 6.854 0.119 -82.489
1497.583 0.115 -82.715 0.992 6.603 0.992 6.603 0.115 -82.715
1522.542 0.111 -82.934 0.992 6.357 0.992 6.357 0.111 -82.934
1547.5 0.107 -83.146 0.993 6.118 0.993 6.118 0.107 -83.146
1572.458 0.103 -83.351 0.993 5.883 0.993 5.883 0.103 -83.351
1597.417 0.099 -83.549 0.994 5.653 0.994 5.653 0.099 -83.549
1622.375 0.095 -83.741 0.994 5.428 0.994 5.428 0.095 -83.741
1647.333 0.091 -83.926 0.994 5.208 0.994 5.208 0.091 -83.926
1672.292 0.087 -84.104 0.995 4.992 0.995 4.992 0.087 -84.104
1697.25 0.083 -84.276 0.995 4.78 0.995 4.78 0.083 -84.276
1722.208 0.08 -84.44 0.995 4.572 0.995 4.572 0.08 -84.44
1747.167 0.076 -84.598 0.996 4.368 0.996 4.368 0.076 -84.598
1772.125 0.073 -84.749 0.996 4.168 0.996 4.168 0.073 -84.749
1797.083 0.069 -84.892 0.996 3.971 0.996 3.971 0.069 -84.892
1822.042 0.066 -85.027 0.996 3.777 0.996 3.777 0.066 -85.027
1847 0.063 -85.153 0.997 3.587 0.997 3.587 0.063 -85.153
1871.958 0.059 -85.271 0.997 3.4 0.997 3.4 0.059 -85.271
1896.917 0.056 -85.379 0.997 3.216 0.997 3.216 0.056 -85.379
1921.875 0.053 -85.476 0.997 3.035 0.997 3.035 0.053 -85.476
1946.833 0.05 -85.561 0.997 2.856 0.997 2.856 0.05 -85.561
1971.792 0.047 -85.633 0.998 2.68 0.998 2.68 0.047 -85.633
1996.75 0.044 -85.69 0.998 2.507 0.998 2.507 0.044 -85.69
2021.708 0.041 -85.729 0.998 2.337 0.998 2.337 0.041 -85.729
2046.667 0.038 -85.747 0.998 2.168 0.998 2.168 0.038 -85.747
2071.625 0.035 -85.74 0.998 2.002 0.998 2.002 0.035 -85.74
2096.583 0.032 -85.703 0.998 1.839 0.998 1.839 0.032 -85.703
2121.542 0.029 -85.628 0.998 1.677 0.998 1.677 0.029 -85.628
2146.5 0.027 -85.504 0.998 1.518 0.998 1.518 0.027 -85.504
2171.458 0.024 -85.318 0.998 1.36 0.998 1.36 0.024 -85.318
2196.417 0.021 -85.046 0.998 1.205 0.998 1.205 0.021 -85.046
2221.375 0.018 -84.653 0.998 1.051 0.998 1.051 0.018 -84.653
2246.333 0.016 -84.084 0.998 0.9 0.998 0.9 0.016 -84.084
2271.292 0.013 -83.237 0.999 0.75 0.999 0.75 0.013 -83.237
2296.25 0.011 -81.918 0.999 0.601 0.999 0.601 0.011 -81.918
2321.208 8.057e-3 -79.695 0.999 0.455 0.999 0.455 8.057e-3 -79.695
2346.167 5.581e-3 -75.393 0.999 0.31 0.999 0.31 5.581e-3 -75.393
2371.125 3.216e-3 -64.458 0.999 0.166 0.999 0.166 3.216e-3 -64.458
2396.083 1.444e-3 -17.294 0.999 0.025 0.999 0.025 1.444e-3 -17.294
2421.042 2.446e-3 55.585 0.999 -0.116 0.999 -0.116 2.446e-3 55.585
2446 4.655e-3 72.521 0.999 -0.255 0.999 -0.255 4.655e-3 72.521
2470.958 6.985e-3 78.227 0.999 -0.392 0.999 -0.392 6.985e-3 78.227
2495.917 9.327e-3 80.974 0.999 -0.529 0.999 -0.529 9.327e-3 80.974
2520.875 0.012 82.549 0.999 -0.663 0.999 -0.663 0.012 82.549
2545.833 0.014 83.545 0.999 -0.797 0.999 -0.797 0.014 83.545
2570.792 0.016 84.215 0.998 -0.93 0.998 -0.93 0.016 84.215
2595.75 0.019 84.682 0.998 -1.061 0.998 -1.061 0.019 84.682
2620.708 0.021 85.016 0.998 -1.191 0.998 -1.191 0.021 85.016
2645.667 0.023 85.256 0.998 -1.32 0.998 -1.32 0.023 85.256
2670.625 0.025 85.43 0.998 -1.448 0.998 -1.448 0.025 85.43
2695.583 0.028 85.555 0.998 -1.574 0.998 -1.574 0.028 85.555
2720.542 0.03 85.641 0.998 -1.7 0.998 -1.7 0.03 85.641
2745.5 0.032 85.698 0.998 -1.825 0.998 -1.825 0.032 85.698
2770.458 0.034 85.731 0.998 -1.948 0.998 -1.948 0.034 85.731
2795.417 0.036 85.746 0.998 -2.071 0.998 -2.071 0.036 85.746
2820.375 0.038 85.746 0.998 -2.193 0.998 -2.193 0.038 85.746
2845.333 0.04 85.732 0.998 -2.313 0.998 -2.313 0.04 85.732
2870.292 0.042 85.709 0.998 -2.433 0.998 -2.433 0.042 85.709
2895.25 0.045 85.677 0.998 -2.552 0.998 -2.552 0.045 85.677
2920.208 0.047 85.637 0.998 -2.671 0.998 -2.671 0.047 85.637
2945.167 0.049 85.591 0.997 -2.788 0.997 -2.788 0.049 85.591
2970.125 0.051 85.539 0.997 -2.905 0.997 -2.905 0.051 85.539
2995.083 0.053 85.483 0.997 -3.02 0.997 -3.02 0.053 85.483
3020.042 0.055 85.423 0.997 -3.135 0.997 -3.135 0.055 85.423
3045 0.057 85.36 0.997 -3.249 0.997 -3.249 0.057 85.36
3069.958 0.059 85.293 0.997 -3.363 0.997 -3.363 0.059 85.293
3094.917 0.061 85.224 0.997 -3.476 0.997 -3.476 0.061 85.224
3119.875 0.063 85.153 0.997 -3.588 0.997 -3.588 0.063 85.153
3144.833 0.065 85.08 0.997 -3.699 0.997 -3.699 0.065 85.08
3169.792 0.066 85.004 0.996 -3.81 0.996 -3.81 0.066 85.004
3194.75 0.068 84.928 0.996 -3.92 0.996 -3.92 0.068 84.928
3219.708 0.07 84.85 0.996 -4.029 0.996 -4.029 0.07 84.85
3244.667 0.072 84.771 0.996 -4.138 0.996 -4.138 0.072 84.771
3269.625 0.074 84.69 0.996 -4.246 0.996 -4.246 0.074 84.69
3294.583 0.076 84.609 0.996 -4.353 0.996 -4.353 0.076 84.609
3319.542 0.078 84.527 0.996 -4.46 0.996 -4.46 0.078 84.527
3344.5 0.08 84.445 0.995 -4.567 0.995 -4.567 0.08 84.445
3369.458 0.081 84.361 0.995 -4.672 0.995 -4.672 0.081 84.361
3394.417 0.083 84.278 0.995 -4.778 0.995 -4.778 0.083 84.278
3419.375 0.085 84.193 0.995 -4.882 0.995 -4.882 0.085 84.193
3444.333 0.087 84.108 0.995 -4.986 0.995 -4.986 0.087 84.108
3469.292 0.089 84.023 0.995 -5.09 0.995 -5.09 0.089 84.023
3494.25 0.091 83.938 0.995 -5.193 0.995 -5.193 0.091 83.938
3519.208 0.092 83.852 0.994 -5.296 0.994 -5.296 0.092 83.852
3544.167 0.094 83.766 0.994 -5.398 0.994 -5.398 0.094 83.766
3569.125 0.096 83.68 0.994 -5.499 0.994 -5.499 0.096 83.68
3594.083 0.098 83.594 0.994 -5.601 0.994 -5.601 0.098 83.594
3619.042 0.099 83.508 0.994 -5.701 0.994 -5.701 0.099 83.508
3644 0.101 83.421 0.994 -5.801 0.994 -5.801 0.101 83.421
3668.958 0.103 83.335 0.993 -5.901 0.993 -5.901 0.103 83.335
3693.917 0.105 83.248 0.993 -6 0.993 -6 0.105 83.248
3718.875 0.106 83.162 0.993 -6.099 0.993 -6.099 0.106 83.162
3743.833 0.108 83.075 0.993 -6.198 0.993 -6.198 0.108 83.075
3768.792 0.11 82.988 0.993 -6.296 0.993 -6.296 0.11 82.988
3793.75 0.111 82.902 0.992 -6.393 0.992 -6.393 0.111 82.902
3818.708 0.113 82.815 0.992 -6.491 0.992 -6.491 0.113 82.815
3843.667 0.115 82.729 0.992 -6.587 0.992 -6.587 0.115 82.729
3868.625 0.116 82.642 0.992 -6.684 0.992 -6.684 0.116 82.642
3893.583 0.118 82.556 0.992 -6.78 0.992 -6.78 0.118 82.556
3918.542 0.12 82.47 0.991 -6.876 0.991 -6.876 0.12 82.47
3943.5 0.121 82.383 0.991 -6.971 0.991 -6.971 0.121 82.383
3968.458 0.123 82.297 0.991 -7.066 0.991 -7.066 0.123 82.297
3993.417 0.125 82.211 0.991 -7.16 0.991 -7.16 0.125 82.211
4018.375 0.126 82.125 0.991 -7.255 0.991 -7.255 0.126 82.125
4043.333 0.128 82.039 0.99 -7.348 0.99 -7.348 0.128 82.039
4068.292 0.13 81.953 0.99 -7.442 0.99 -7.442 0.13 81.953
4093.25 0.131 81.868 0.99 -7.535 0.99 -7.535 0.131 81.868
4118.208 0.133 81.782 0.99 -7.628 0.99 -7.628 0.133 81.782
4143.167 0.134 81.697 0.99 -7.721 0.99 -7.721 0.134 81.697
4168.125 0.136 81.612 0.989 -7.813 0.989 -7.813 0.136 81.612
4193.083 0.138 81.527 0.989 -7.905 0.989 -7.905 0.138 81.527
4218.042 0.139 81.442 0.989 -7.996 0.989 -7.996 0.139 81.442
4243 0.141 81.357 0.989 -8.088 0.989 -8.088 0.141 81.357
4267.958 0.142 81.272 0.988 -8.179 0.988 -8.179 0.142 81.272
4292.917 0.144 81.187 0.988 -8.269 0.988 -8.269 0.144 81.187
4317.875 0.145 81.103 0.988 -8.36 0.988 -8.36 0.145 81.103
4342.833 0.147 81.019 0.988 -8.45 0.988 -8.45 0.147 81.019
4367.792 0.148 80.935 0.988 -8.54 0.988 -8.54 0.148 80.935
4392.75 0.15 80.85 0.987 -8.629 0.987 -8.629 0.15 80.85
4417.708 0.152 80.767 0.987 -8.718 0.987 -8.718 0.152 80.767
4442.667 0.153 80.683 0.987 -8.807 0.987 -8.807 0.153 80.683
4467.625 0.155 80.599 0.987 -8.896 0.987 -8.896 0.155 80.599
4492.583 0.156 80.516 0.986 -8.985 0.986 -8.985 0.156 80.516
4517.542 0.158 80.433 0.986 -9.073 0.986 -9.073 0.158 80.433
4542.5 0.159 80.35 0.986 -9.161 0.986 -9.161 0.159 80.35
4567.458 0.161 80.267 0.986 -9.248 0.986 -9.248 0.161 80.267
4592.417 0.162 80.184 0.985 -9.336 0.985 -9.336 0.162 80.184
4617.375 0.164 80.101 0.985 -9.423 0.985 -9.423 0.164 80.101
4642.333 0.165 80.019 0.985 -9.51 0.985 -9.51 0.165 80.019
4667.292 0.167 79.936 0.985 -9.597 0.985 -9.597 0.167 79.936
4692.25 0.168 79.854 0.984 -9.683 0.984 -9.683 0.168 79.854
4717.208 0.17 79.772 0.984 -9.769 0.984 -9.769 0.17 79.772
4742.167 0.171 79.69 0.984 -9.855 0.984 -9.855 0.171 79.69
4767.125 0.173 79.608 0.984 -9.941 0.984 -9.941 0.173 79.608
4792.083 0.174 79.527 0.983 -10.027 0.983 -10.027 0.174 79.527
4817.042 0.176 79.445 0.983 -10.112 0.983 -10.112 0.176 79.445
4842 0.177 79.364 0.983 -10.197 0.983 -10.197 0.177 79.364
4866.958 0.178 79.283 0.983 -10.282 0.983 -10.282 0.178 79.283
4891.917 0.18 79.202 0.982 -10.367 0.982 -10.367 0.18 79.202
4916.875 0.181 79.121 0.982 -10.451 0.982 -10.451 0.181 79.121
4941.833 0.183 79.04 0.982 -10.535 0.982 -10.535 0.183 79.04
4966.792 0.184 78.959 0.982 -10.619 0.982 -10.619 0.184 78.959
4991.75 0.186 78.879 0.981 -10.703 0.981 -10.703 0.186 78.879
5016.708 0.187 78.799 0.981 -10.787 0.981 -10.787 0.187 78.799
5041.667 0.189 78.718 0.981 -10.87 0.981 -10.87 0.189 78.718
5066.625 0.19 78.638 0.98 -10.954 0.98 -10.954 0.19 78.638
5091.583 0.191 78.558 0.98 -11.037 0.98 -11.037 0.191 78.558
5116.542 0.193 78.479 0.98 -11.119 0.98 -11.119 0.193 78.479
5141.5 0.194 78.399 0.98 -11.202 0.98 -11.202 0.194 78.399
5166.458 0.196 78.32 0.979 -11.285 0.979 -11.285 0.196 78.32
5191.417 0.197 78.24 0.979 -11.367 0.979 -11.367 0.197 78.24
5216.375 0.198 78.161 0.979 -11.449 0.979 -11.449 0.198 78.161
5241.333 0.2 78.082 0.978 -11.531 0.978 -11.531 0.2 78.082
5266.292 0.201 78.003 0.978 -11.613 0.978 -11.613 0.201 78.003
5291.25 0.203 77.924 0.978 -11.694 0.978 -11.694 0.203 77.924
5316.208 0.204 77.846 0.978 -11.775 0.978 -11.775 0.204 77.846
5341.167 0.205 77.767 0.977 -11.857 0.977 -11.857 0.205 77.767
5366.125 0.207 77.689 0.977 -11.938 0.977 -11.938 0.207 77.689
5391.083 0.208 77.611 0.977 -12.018 0.977 -12.018 0.208 77.611
5416.042 0.21 77.532 0.976 -12.099 0.976 -12.099 0.21 77.532
5441 0.211 77.455 0.976 -12.18 0.976 -12.18 0.211 77.455
5465.958 0.212 77.377 0.976 -12.26 0.976 -12.26 0.212 77.377
5490.917 0.214 77.299 0.976 -12.34 0.976 -12.34 0.214 77.299
5515.875 0.215 77.221 0.975 -12.42 0.975 -12.42 0.215 77.221
5540.833 0.216 77.144 0.975 -12.5 0.975 -12.5 0.216 77.144
5565.792 0.218 77.067 0.975 -12.579 0.975 -12.579 0.218 77.067
5590.75 0.219 76.989 0.974 -12.659 0.974 -12.659 0.219 76.989
5615.708 0.221 76.912 0.974 -12.738 0.974 -12.738 0.221 76.912
5640.667 0.222 76.835 0.974 -12.817 0.974 -12.817 0.222 76.835
5665.625 0.223 76.759 0.973 -12.897 0.973 -12.897 0.223 76.759
5690.583 0.225 76.682 0.973 -12.975 0.973 -12.975 0.225 76.682
5715.542 0.226 76.605 0.973 -13.054 0.973 -13.054 0.226 76.605
5740.5 0.227 76.529 0.973 -13.133 0.973 -13.133 0.227 76.529
5765.458 0.229 76.453 0.972 -13.211 0.972 -13.211 0.229 76.453
5790.417 0.23 76.376 0.972 -13.289 0.972 -13.289 0.23 76.376
5815.375 0.231 76.3 0.972 -13.367 0.972 -13.367 0.231 76.3
5840.333 0.233 76.224 0.971 -13.445 0.971 -13.445 0.233 76.224
5865.292 0.234 76.148 0.971 -13.523 0.971 -13.523 0.234 76.148
5890.25 0.235 76.073 0.971 -13.601 0.971 -13.601 0.235 76.073
5915.208 0.236 75.997 0.97 -13.678 0.97 -13.678 0.236 75.997
5940.167 0.238 75.922 0.97 -13.756 0.97 -13.756 0.238 75.922
5965.125 0.239 75.846 0.97 -13.833 0.97 -13.833 0.239 75.846
5990.083 0.24 75.771 0.969 -13.91 0.969 -13.91 0.24 75.771
6015.042 0.242 75.696 0.969 -13.987 0.969 -13.987 0.242 75.696
6040 0.243 75.621 0.969 -14.064 0.969 -14.064 0.243 75.621
6064.958 0.244 75.546 0.968 -14.14 0.968 -14.14 0.244 75.546
6089.917 0.246 75.471 0.968 -14.217 0.968 -14.217 0.246 75.471
6114.875 0.247 75.397 0.968 -14.293 0.968 -14.293 0.247 75.397
6139.833 0.248 75.322 0.967 -14.37 0.967 -14.37 0.248 75.322
6164.792 0.249 75.248 0.967 -14.446 0.967 -14.446 0.249 75.248
6189.75 0.251 75.173 0.967 -14.522 0.967 -14.522 0.251 75.173
6214.708 0.252 75.099 0.966 -14.598 0.966 -14.598 0.252 75.099
6239.667 0.253 75.025 0.966 -14.673 0.966 -14.673 0.253 75.025
6264.625 0.255 74.951 0.966 -14.749 0.966 -14.749 0.255 74.951
6289.583 0.256 74.877 0.965 -14.825 0.965 -14.825 0.256 74.877
6314.542 0.257 74.803 0.965 -14.9 0.965 -14.9 0.257 74.803
6339.5 0.258 74.73 0.965 -14.975 0.965 -14.975 0.258 74.73
6364.458 0.26 74.656 0.964 -15.05 0.964 -15.05 0.26 74.656
6389.417 0.261 74.583 0.964 -15.125 0.964 -15.125 0.261 74.583
6414.375 0.262 74.509 0.964 -15.2 0.964 -15.2 0.262 74.509
6439.333 0.263 74.436 0.963 -15.275 0.963 -15.275 0.263 74.436
6464.292 0.265 74.363 0.963 -15.349 0.963 -15.349 0.265 74.363
6489.25 0.266 74.29 0.963 -15.424 0.963 -15.424 0.266 74.29
6514.208 0.267 74.217 0.962 -15.498 0.962 -15.498 0.267 74.217
6539.167 0.268 74.144 0.962 -15.572 0.962 -15.572 0.268 74.144
6564.125 0.27 74.072 0.962 -15.646 0.962 -15.646 0.27 74.072
6589.083 0.271 73.999 0.961 -15.72 0.961 -15.72 0.271 73.999
6614.042 0.272 73.926 0.961 -15.794 0.961 -15.794 0.272 73.926
6639 0.273 73.854 0.961 -15.868 0.961 -15.868 0.273 73.854
6663.958 0.275 73.782 0.96 -15.942 0.96 -15.942 0.275 73.782
6688.917 0.276 73.71 0.96 -16.015 0.96 -16.015 0.276 73.71
6713.875 0.277 73.638 0.96 -16.089 0.96 -16.089 0.277 73.638
6738.833 0.278 73.566 0.959 -16.162 0.959 -16.162 0.278 73.566
6763.792 0.28 73.494 0.959 -16.235 0.959 -16.235 0.28 73.494
6788.75 0.281 73.422 0.958 -16.308 0.958 -16.308 0.281 73.422
6813.708 0.282 73.35 0.958 -16.381 0.958 -16.381 0.282 73.35
6838.667 0.283 73.279 0.958 -16.454 0.958 -16.454 0.283 73.279
6863.625 0.284 73.207 0.957 -16.527 0.957 -16.527 0.284 73.207
6888.583 0.286 73.136 0.957 -16.599 0.957 -16.599 0.286 73.136
6913.542 0.287 73.065 0.957 -16.672 0.957 -16.672 0.287 73.065
6938.5 0.288 72.993 0.956 -16.744 0.956 -16.744 0.288 72.993
6963.458 0.289 72.922 0.956 -16.816 0.956 -16.816 0.289 72.922
6988.417 0.291 72.851 0.956 -16.888 0.956 -16.888 0.291 72.851
7013.375 0.292 72.781 0.955 -16.96 0.955 -16.96 0.292 72.781
7038.333 0.293 72.71 0.955 -17.032 0.955 -17.032 0.293 72.71
7063.292 0.294 72.639 0.954 -17.104 0.954 -17.104 0.294 72.639
7088.25 0.295 72.569 0.954 -17.176 0.954 -17.176 0.295 72.569
7113.208 0.297 72.498 0.954 -17.248 0.954 -17.248 0.297 72.498
7138.167 0.298 72.428 0.953 -17.319 0.953 -17.319 0.298 72.428
7163.125 0.299 72.357 0.953 -17.39 0.953 -17.39 0.299 72.357
7188.083 0.3 72.287 0.953 -17.462 0.953 -17.462 0.3 72.287
7213.042 0.301 72.217 0.952 -17.533 0.952 -17.533 0.301 72.217
7238 0.302 72.147 0.952 -17.604 0.952 -17.604 0.302 72.147
7262.958 0.304 72.077 0.951 -17.675 0.951 -17.675 0.304 72.077
7287.917 0.305 72.007 0.951 -17.746 0.951 -17.746 0.305 72.007
7312.875 0.306 71.938 0.951 -17.817 0.951 -17.817 0.306 71.938
7337.833 0.307 71.868 0.95 -17.887 0.95 -17.887 0.307 71.868
7362.792 0.308 71.798 0.95 -17.958 0.95 -17.958 0.308 71.798
7387.75 0.309 71.729 0.95 -18.028 0.95 -18.028 0.309 71.729
7412.708 0.311 71.66 0.949 -18.099 0.949 -18.099 0.311 71.66
7437.667 0.312 71.59 0.949 -18.169 0.949 -18.169 0.312 71.59
7462.625 0.313 71.521 0.948 -18.239 0.948 -18.239 0.313 71.521
7487.583 0.314 71.452 0.948 -18.309 0.948 -18.309 0.314 71.452
7512.542 0.315 71.383 0.948 -18.379 0.948 -18.379 0.315 71.383
7537.5 0.316 71.314 0.947 -18.449 0.947 -18.449 0.316 71.314
7562.458 0.318 71.245 0.947 -18.519 0.947 -18.519 0.318 71.245
7587.417 0.319 71.177 0.947 -18.588 0.947 -18.588 0.319 71.177
7612.375 0.32 71.108 0.946 -18.658 0.946 -18.658 0.32 71.108
7637.333 0.321 71.04 0.946 -18.727 0.946 -18.727 0.321 71.04
7662.292 0.322 70.971 0.945 -18.797 0.945 -18.797 0.322 70.971
7687.25 0.323 70.903 0.945 -18.866 0.945 -18.866 0.323 70.903
7712.208 0.325 70.835 0.945 -18.935 0.945 -18.935 0.325 70.835
7737.167 0.326 70.766 0.944 -19.004 0.944 -19.004 0.326 70.766
7762.125 0.327 70.698 0.944 -19.073 0.944 -19.073 0.327 70.698
7787.083 0.328 70.63 0.943 -19.142 0.943 -19.142 0.328 70.63
7812.042 0.329 70.562 0.943 -19.211 0.943 -19.211 0.329 70.562
7837 0.33 70.495 0.943 -19.28 0.943 -19.28 0.33 70.495
7861.958 0.331 70.427 0.942 -19.348 0.942 -19.348 0.331 70.427
7886.917 0.332 70.359 0.942 -19.417 0.942 -19.417 0.332 70.359
7911.875 0.334 70.292 0.941 -19.485 0.941 -19.485 0.334 70.292
7936.833 0.335 70.224 0.941 -19.554 0.941 -19.554 0.335 70.224
7961.792 0.336 70.157 0.941 -19.622 0.941 -19.622 0.336 70.157
7986.75 0.337 70.089 0.94 -19.69 0.94 -19.69 0.337 70.089
8011.708 0.338 70.022 0.94 -19.758 0.94 -19.758 0.338 70.022
8036.667 0.339 69.955 0.939 -19.826 0.939 -19.826 0.339 69.955
8061.625 0.34 69.888 0.939 -19.894 0.939 -19.894 0.34 69.888
8086.583 0.341 69.821 0.939 -19.961 0.939 -19.961 0.341 69.821
8111.542 0.342 69.754 0.938 -20.029 0.938 -20.029 0.342 69.754
8136.5 0.344 69.687 0.938 -20.097 0.938 -20.097 0.344 69.687
8161.458 0.345 69.621 0.937 -20.164 0.937 -20.164 0.345 69.621
8186.417 0.346 69.554 0.937 -20.232 0.937 -20.232 0.346 69.554
8211.375 0.347 69.488 0.937 -20.299 0.937 -20.299 0.347 69.488
