# MHZ S MA R 50

50 0.846 -32.173 0.532 57.786 0.532 57.786 0.846 -32.173
74.958 0.726 -43.365 0.687 46.573 0.687 46.573 0.726 -43.365
99.917 0.62 -51.599 0.784 38.318 0.784 38.318 0.62 -51.599
124.875 0.533 -57.687 0.845 32.209 0.845 32.209 0.533 -57.687
149.833 0.463 -62.283 0.885 27.593 0.885 27.593 0.463 -62.283
174.792 0.407 -65.838 0.912 24.016 0.912 24.016 0.407 -65.838
199.75 0.361 -68.654 0.931 21.178 0.931 21.178 0.361 -68.654
224.708 0.324 -70.933 0.945 18.876 0.945 18.876 0.324 -70.933
249.667 0.292 -72.812 0.955 16.974 0.955 16.974 0.292 -72.812
274.625 0.265 -74.387 0.963 15.376 0.963 15.376 0.265 -74.387
299.583 0.242 -75.726 0.969 14.013 0.969 14.013 0.242 -75.726
324.542 0.222 -76.878 0.974 12.836 0.974 12.836 0.222 -76.878
349.5 0.205 -77.88 0.978 11.808 0.978 11.808 0.205 -77.88
374.458 0.189 -78.761 0.981 10.9 0.981 10.9 0.189 -78.761
399.417 0.175 -79.54 0.983 10.093 0.983 10.093 0.175 -79.54
424.375 0.163 -80.236 0.986 9.368 0.986 9.368 0.163 -80.236
449.333 0.152 -80.86 0.987 8.714 0.987 8.714 0.152 -80.86
474.292 0.141 -81.424 0.989 8.118 0.989 8.118 0.141 -81.424
499.25 0.132 -81.936 0.99 7.573 0.99 7.573 0.132 -81.936
524.208 0.123 -82.402 0.991 7.072 0.991 7.072 0.123 -82.402
549.167 0.115 -82.828 0.992 6.609 0.992 6.609 0.115 -82.828
574.125 0.108 -83.219 0.993 6.178 0.993 6.178 0.108 -83.219
599.083 0.101 -83.578 0.994 5.777 0.994 5.777 0.101 -83.578
624.042 0.094 -83.908 0.994 5.401 0.994 5.401 0.094 -83.908
649 0.088 -84.213 0.995 5.049 0.995 5.049 0.088 -84.213
673.958 0.082 -84.493 0.995 4.716 0.995 4.716 0.082 -84.493
698.917 0.077 -84.751 0.996 4.401 0.996 4.401 0.077 -84.751
723.875 0.072 -84.987 0.996 4.103 0.996 4.103 0.072 -84.987
748.833 0.067 -85.203 0.997 3.82 0.997 3.82 0.067 -85.203
773.792 0.062 -85.399 0.997 3.549 0.997 3.549 0.062 -85.399
798.75 0.057 -85.574 0.997 3.291 0.997 3.291 0.057 -85.574
823.708 0.053 -85.729 0.997 3.044 0.997 3.044 0.053 -85.729
848.667 0.049 -85.863 0.998 2.807 0.998 2.807 0.049 -85.863
873.625 0.045 -85.973 0.998 2.579 0.998 2.579 0.045 -85.973
898.583 0.041 -86.057 0.998 2.359 0.998 2.359 0.041 -86.057
923.542 0.037 -86.113 0.998 2.147 0.998 2.147 0.037 -86.113
948.5 0.034 -86.134 0.998 1.943 0.998 1.943 0.034 -86.134
973.458 0.03 -86.114 0.998 1.745 0.998 1.745 0.03 -86.114
998.417 0.027 -86.041 0.998 1.553 0.998 1.553 0.027 -86.041
1023.375 0.024 -85.9 0.999 1.366 0.999 1.366 0.024 -85.9
1048.333 0.021 -85.664 0.999 1.185 0.999 1.185 0.021 -85.664
1073.292 0.018 -85.291 0.999 1.009 0.999 1.009 0.018 -85.291
1098.25 0.015 -84.707 0.999 0.837 0.999 0.837 0.015 -84.707
1123.208 0.012 -83.768 0.999 0.67 0.999 0.67 0.012 -83.768
1148.167 8.916e-3 -82.156 0.999 0.507 0.999 0.507 8.916e-3 -82.156
1173.125 6.164e-3 -79.007 0.999 0.347 0.999 0.347 6.164e-3 -79.007
1198.083 3.523e-3 -70.95 0.999 0.191 0.999 0.191 3.523e-3 -70.95
1223.042 1.32e-3 -30.339 0.999 0.038 0.999 0.038 1.32e-3 -30.339
1248 2.254e-3 59.537 0.999 -0.111 0.999 -0.111 2.254e-3 59.537
1272.958 4.648e-3 75.559 0.999 -0.258 0.999 -0.258 4.648e-3 75.559
1297.917 7.111e-3 80.383 0.999 -0.402 0.999 -0.402 7.111e-3 80.383
1322.875 9.555e-3 82.612 0.999 -0.544 0.999 -0.544 9.555e-3 82.612
1347.833 0.012 83.857 0.999 -0.683 0.999 -0.683 0.012 83.857
1372.792 0.014 84.627 0.999 -0.819 0.999 -0.819 0.014 84.627
1397.75 0.017 85.132 0.999 -0.954 0.999 -0.954 0.017 85.132
1422.708 0.019 85.476 0.999 -1.086 0.999 -1.086 0.019 85.476
1447.667 0.021 85.713 0.999 -1.216 0.999 -1.216 0.021 85.713
1472.625 0.023 85.878 0.999 -1.345 0.999 -1.345 0.023 85.878
1497.583 0.026 85.99 0.999 -1.471 0.999 -1.471 0.026 85.99
1522.542 0.028 86.064 0.998 -1.596 0.998 -1.596 0.028 86.064
1547.5 0.03 86.108 0.998 -1.72 0.998 -1.72 0.03 86.108
1572.458 0.032 86.13 0.998 -1.841 0.998 -1.841 0.032 86.13
1597.417 0.034 86.134 0.998 -1.962 0.998 -1.962 0.034 86.134
1622.375 0.036 86.124 0.998 -2.081 0.998 -2.081 0.036 86.124
1647.333 0.038 86.102 0.998 -2.198 0.998 -2.198 0.038 86.102
1672.292 0.04 86.071 0.998 -2.315 0.998 -2.315 0.04 86.071
1697.25 0.042 86.033 0.998 -2.43 0.998 -2.43 0.042 86.033
1722.208 0.044 85.988 0.998 -2.544 0.998 -2.544 0.044 85.988
1747.167 0.046 85.938 0.998 -2.656 0.998 -2.656 0.046 85.938
1772.125 0.048 85.883 0.998 -2.768 0.998 -2.768 0.048 85.883
1797.083 0.05 85.824 0.998 -2.879 0.998 -2.879 0.05 85.824
1822.042 0.052 85.762 0.998 -2.988 0.998 -2.988 0.052 85.762
1847 0.054 85.697 0.997 -3.097 0.997 -3.097 0.054 85.697
1871.958 0.056 85.63 0.997 -3.205 0.997 -3.205 0.056 85.63
1896.917 0.058 85.561 0.997 -3.312 0.997 -3.312 0.058 85.561
1921.875 0.06 85.49 0.997 -3.418 0.997 -3.418 0.06 85.49
1946.833 0.061 85.417 0.997 -3.523 0.997 -3.523 0.061 85.417
1971.792 0.063 85.344 0.997 -3.627 0.997 -3.627 0.063 85.344
1996.75 0.065 85.269 0.997 -3.731 0.997 -3.731 0.065 85.269
2021.708 0.067 85.193 0.997 -3.834 0.997 -3.834 0.067 85.193
2046.667 0.069 85.116 0.997 -3.936 0.997 -3.936 0.069 85.116
2071.625 0.07 85.038 0.996 -4.037 0.996 -4.037 0.07 85.038
2096.583 0.072 84.96 0.996 -4.138 0.996 -4.138 0.072 84.96
2121.542 0.074 84.881 0.996 -4.239 0.996 -4.239 0.074 84.881
2146.5 0.076 84.802 0.996 -4.338 0.996 -4.338 0.076 84.802
2171.458 0.077 84.722 0.996 -4.437 0.996 -4.437 0.077 84.722
2196.417 0.079 84.642 0.996 -4.536 0.996 -4.536 0.079 84.642
2221.375 0.081 84.561 0.996 -4.633 0.996 -4.633 0.081 84.561
2246.333 0.082 84.481 0.995 -4.731 0.995 -4.731 0.082 84.481
2271.292 0.084 84.4 0.995 -4.828 0.995 -4.828 0.084 84.4
2296.25 0.086 84.319 0.995 -4.924 0.995 -4.924 0.086 84.319
2321.208 0.088 84.237 0.995 -5.02 0.995 -5.02 0.088 84.237
2346.167 0.089 84.156 0.995 -5.115 0.995 -5.115 0.089 84.156
2371.125 0.091 84.074 0.995 -5.21 0.995 -5.21 0.091 84.074
2396.083 0.092 83.993 0.995 -5.304 0.995 -5.304 0.092 83.993
2421.042 0.094 83.911 0.994 -5.398 0.994 -5.398 0.094 83.911
2446 0.096 83.829 0.994 -5.492 0.994 -5.492 0.096 83.829
2470.958 0.097 83.748 0.994 -5.585 0.994 -5.585 0.097 83.748
2495.917 0.099 83.666 0.994 -5.678 0.994 -5.678 0.099 83.666
2520.875 0.101 83.584 0.994 -5.77 0.994 -5.77 0.101 83.584
2545.833 0.102 83.502 0.994 -5.862 0.994 -5.862 0.102 83.502
2570.792 0.104 83.421 0.993 -5.954 0.993 -5.954 0.104 83.421
2595.75 0.105 83.339 0.993 -6.045 0.993 -6.045 0.105 83.339
2620.708 0.107 83.257 0.993 -6.136 0.993 -6.136 0.107 83.257
2645.667 0.108 83.176 0.993 -6.226 0.993 -6.226 0.108 83.176
2670.625 0.11 83.094 0.993 -6.317 0.993 -6.317 0.11 83.094
2695.583 0.112 83.012 0.993 -6.406 0.993 -6.406 0.112 83.012
2720.542 0.113 82.931 0.992 -6.496 0.992 -6.496 0.113 82.931
2745.5 0.115 82.85 0.992 -6.585 0.992 -6.585 0.115 82.85
2770.458 0.116 82.768 0.992 -6.674 0.992 -6.674 0.116 82.768
2795.417 0.118 82.687 0.992 -6.763 0.992 -6.763 0.118 82.687
2820.375 0.119 82.606 0.992 -6.851 0.992 -6.851 0.119 82.606
2845.333 0.121 82.525 0.992 -6.939 0.992 -6.939 0.121 82.525
2870.292 0.122 82.444 0.991 -7.027 0.991 -7.027 0.122 82.444
2895.25 0.124 82.363 0.991 -7.115 0.991 -7.115 0.124 82.363
2920.208 0.125 82.282 0.991 -7.202 0.991 -7.202 0.125 82.282
2945.167 0.127 82.201 0.991 -7.289 0.991 -7.289 0.127 82.201
2970.125 0.128 82.12 0.991 -7.376 0.991 -7.376 0.128 82.12
2995.083 0.13 82.04 0.99 -7.462 0.99 -7.462 0.13 82.04
3020.042 0.131 81.959 0.99 -7.548 0.99 -7.548 0.131 81.959
3045 0.133 81.879 0.99 -7.635 0.99 -7.635 0.133 81.879
3069.958 0.134 81.798 0.99 -7.72 0.99 -7.72 0.134 81.798
3094.917 0.136 81.718 0.99 -7.806 0.99 -7.806 0.136 81.718
3119.875 0.137 81.638 0.989 -7.891 0.989 -7.891 0.137 81.638
3144.833 0.139 81.558 0.989 -7.976 0.989 -7.976 0.139 81.558
3169.792 0.14 81.478 0.989 -8.061 0.989 -8.061 0.14 81.478
3194.75 0.142 81.398 0.989 -8.146 0.989 -8.146 0.142 81.398
3219.708 0.143 81.318 0.989 -8.231 0.989 -8.231 0.143 81.318
3244.667 0.145 81.239 0.988 -8.315 0.988 -8.315 0.145 81.239
3269.625 0.146 81.159 0.988 -8.399 0.988 -8.399 0.146 81.159
3294.583 0.148 81.08 0.988 -8.483 0.988 -8.483 0.148 81.08
3319.542 0.149 81 0.988 -8.567 0.988 -8.567 0.149 81
3344.5 0.15 80.921 0.987 -8.65 0.987 -8.65 0.15 80.921
3369.458 0.152 80.842 0.987 -8.734 0.987 -8.734 0.152 80.842
3394.417 0.153 80.763 0.987 -8.817 0.987 -8.817 0.153 80.763
3419.375 0.155 80.684 0.987 -8.9 0.987 -8.9 0.155 80.684
3444.333 0.156 80.605 0.987 -8.982 0.987 -8.982 0.156 80.605
3469.292 0.158 80.526 0.986 -9.065 0.986 -9.065 0.158 80.526
3494.25 0.159 80.447 0.986 -9.148 0.986 -9.148 0.159 80.447
3519.208 0.16 80.369 0.986 -9.23 0.986 -9.23 0.16 80.369
3544.167 0.162 80.29 0.986 -9.312 0.986 -9.312 0.162 80.29
3569.125 0.163 80.212 0.985 -9.394 0.985 -9.394 0.163 80.212
3594.083 0.165 80.133 0.985 -9.476 0.985 -9.476 0.165 80.133
3619.042 0.166 80.055 0.985 -9.557 0.985 -9.557 0.166 80.055
3644 0.167 79.977 0.985 -9.639 0.985 -9.639 0.167 79.977
3668.958 0.169 79.899 0.985 -9.72 0.985 -9.72 0.169 79.899
3693.917 0.17 79.821 0.984 -9.801 0.984 -9.801 0.17 79.821
3718.875 0.172 79.743 0.984 -9.883 0.984 -9.883 0.172 79.743
3743.833 0.173 79.665 0.984 -9.963 0.984 -9.963 0.173 79.665
3768.792 0.174 79.587 0.984 -10.044 0.984 -10.044 0.174 79.587
3793.75 0.176 79.51 0.983 -10.125 0.983 -10.125 0.176 79.51
3818.708 0.177 79.432 0.983 -10.205 0.983 -10.205 0.177 79.432
3843.667 0.179 79.355 0.983 -10.286 0.983 -10.286 0.179 79.355
3868.625 0.18 79.278 0.983 -10.366 0.983 -10.366 0.18 79.278
3893.583 0.181 79.2 0.982 -10.446 0.982 -10.446 0.181 79.2
3918.542 0.183 79.123 0.982 -10.526 0.982 -10.526 0.183 79.123
3943.5 0.184 79.046 0.982 -10.606 0.982 -10.606 0.184 79.046
3968.458 0.185 78.969 0.982 -10.685 0.982 -10.685 0.185 78.969
3993.417 0.187 78.892 0.981 -10.765 0.981 -10.765 0.187 78.892
4018.375 0.188 78.815 0.981 -10.844 0.981 -10.844 0.188 78.815
4043.333 0.189 78.739 0.981 -10.923 0.981 -10.923 0.189 78.739
4068.292 0.191 78.662 0.981 -11.003 0.981 -11.003 0.191 78.662
4093.25 0.192 78.585 0.98 -11.082 0.98 -11.082 0.192 78.585
4118.208 0.194 78.509 0.98 -11.16 0.98 -11.16 0.194 78.509
4143.167 0.195 78.432 0.98 -11.239 0.98 -11.239 0.195 78.432
4168.125 0.196 78.356 0.979 -11.318 0.979 -11.318 0.196 78.356
4193.083 0.198 78.28 0.979 -11.396 0.979 -11.396 0.198 78.28
4218.042 0.199 78.204 0.979 -11.475 0.979 -11.475 0.199 78.204
4243 0.2 78.128 0.979 -11.553 0.979 -11.553 0.2 78.128
4267.958 0.202 78.052 0.978 -11.631 0.978 -11.631 0.202 78.052
4292.917 0.203 77.976 0.978 -11.709 0.978 -11.709 0.203 77.976
4317.875 0.204 77.9 0.978 -11.787 0.978 -11.787 0.204 77.9
4342.833 0.206 77.824 0.978 -11.865 0.978 -11.865 0.206 77.824
4367.792 0.207 77.748 0.977 -11.943 0.977 -11.943 0.207 77.748
4392.75 0.208 77.673 0.977 -12.021 0.977 -12.021 0.208 77.673
4417.708 0.21 77.597 0.977 -12.098 0.977 -12.098 0.21 77.597
4442.667 0.211 77.522 0.976 -12.176 0.976 -12.176 0.211 77.522
4467.625 0.212 77.447 0.976 -12.253 0.976 -12.253 0.212 77.447
4492.583 0.214 77.371 0.976 -12.33 0.976 -12.33 0.214 77.371
4517.542 0.215 77.296 0.976 -12.407 0.976 -12.407 0.215 77.296
4542.5 0.216 77.221 0.975 -12.484 0.975 -12.484 0.216 77.221
4567.458 0.217 77.146 0.975 -12.561 0.975 -12.561 0.217 77.146
4592.417 0.219 77.071 0.975 -12.638 0.975 -12.638 0.219 77.071
4617.375 0.22 76.996 0.974 -12.715 0.974 -12.715 0.22 76.996
4642.333 0.221 76.921 0.974 -12.791 0.974 -12.791 0.221 76.921
4667.292 0.223 76.847 0.974 -12.868 0.974 -12.868 0.223 76.847
4692.25 0.224 76.772 0.973 -12.944 0.973 -12.944 0.224 76.772
4717.208 0.225 76.697 0.973 -13.02 0.973 -13.02 0.225 76.697
4742.167 0.227 76.623 0.973 -13.097 0.973 -13.097 0.227 76.623
4767.125 0.228 76.549 0.973 -13.173 0.973 -13.173 0.228 76.549
4792.083 0.229 76.474 0.972 -13.249 0.972 -13.249 0.229 76.474
4817.042 0.23 76.4 0.972 -13.325 0.972 -13.325 0.23 76.4
4842 0.232 76.326 0.972 -13.4 0.972 -13.4 0.232 76.326
4866.958 0.233 76.252 0.971 -13.476 0.971 -13.476 0.233 76.252
4891.917 0.234 76.178 0.971 -13.552 0.971 -13.552 0.234 76.178
4916.875 0.236 76.104 0.971 -13.627 0.971 -13.627 0.236 76.104
4941.833 0.237 76.03 0.97 -13.703 0.97 -13.703 0.237 76.03
4966.792 0.238 75.956 0.97 -13.778 0.97 -13.778 0.238 75.956
4991.75 0.239 75.882 0.97 -13.853 0.97 -13.853 0.239 75.882
5016.708 0.241 75.809 0.969 -13.928 0.969 -13.928 0.241 75.809
5041.667 0.242 75.735 0.969 -14.003 0.969 -14.003 0.242 75.735
5066.625 0.243 75.661 0.969 -14.078 0.969 -14.078 0.243 75.661
5091.583 0.245 75.588 0.969 -14.153 0.969 -14.153 0.245 75.588
5116.542 0.246 75.515 0.968 -14.228 0.968 -14.228 0.246 75.515
5141.5 0.247 75.441 0.968 -14.303 0.968 -14.303 0.247 75.441
5166.458 0.248 75.368 0.968 -14.377 0.968 -14.377 0.248 75.368
5191.417 0.25 75.295 0.967 -14.452 0.967 -14.452 0.25 75.295
5216.375 0.251 75.222 0.967 -14.526 0.967 -14.526 0.251 75.222
5241.333 0.252 75.149 0.967 -14.601 0.967 -14.601 0.252 75.149
5266.292 0.253 75.076 0.966 -14.675 0.966 -14.675 0.253 75.076
5291.25 0.255 75.003 0.966 -14.749 0.966 -14.749 0.255 75.003
5316.208 0.256 74.93 0.966 -14.823 0.966 -14.823 0.256 74.93
5341.167 0.257 74.858 0.965 -14.897 0.965 -14.897 0.257 74.858
5366.125 0.258 74.785 0.965 -14.971 0.965 -14.971 0.258 74.785
5391.083 0.26 74.712 0.965 -15.045 0.965 -15.045 0.26 74.712
5416.042 0.261 74.64 0.964 -15.119 0.964 -15.119 0.261 74.64
5441 0.262 74.567 0.964 -15.192 0.964 -15.192 0.262 74.567
5465.958 0.263 74.495 0.964 -15.266 0.964 -15.266 0.263 74.495
5490.917 0.265 74.423 0.963 -15.339 0.963 -15.339 0.265 74.423
5515.875 0.266 74.35 0.963 -15.413 0.963 -15.413 0.266 74.35
5540.833 0.267 74.278 0.963 -15.486 0.963 -15.486 0.267 74.278
5565.792 0.268 74.206 0.962 -15.559 0.962 -15.559 0.268 74.206
5590.75 0.269 74.134 0.962 -15.633 0.962 -15.633 0.269 74.134
5615.708 0.271 74.062 0.962 -15.706 0.962 -15.706 0.271 74.062
5640.667 0.272 73.99 0.961 -15.779 0.961 -15.779 0.272 73.99
5665.625 0.273 73.919 0.961 -15.852 0.961 -15.852 0.273 73.919
5690.583 0.274 73.847 0.961 -15.924 0.961 -15.924 0.274 73.847
5715.542 0.276 73.775 0.96 -15.997 0.96 -15.997 0.276 73.775
5740.5 0.277 73.704 0.96 -16.07 0.96 -16.07 0.277 73.704
5765.458 0.278 73.632 0.959 -16.142 0.959 -16.142 0.278 73.632
5790.417 0.279 73.561 0.959 -16.215 0.959 -16.215 0.279 73.561
5815.375 0.28 73.489 0.959 -16.287 0.959 -16.287 0.28 73.489
5840.333 0.282 73.418 0.958 -16.36 0.958 -16.36 0.282 73.418
5865.292 0.283 73.347 0.958 -16.432 0.958 -16.432 0.283 73.347
5890.25 0.284 73.276 0.958 -16.504 0.958 -16.504 0.284 73.276
5915.208 0.285 73.205 0.957 -16.576 0.957 -16.576 0.285 73.205
5940.167 0.286 73.133 0.957 -16.648 0.957 -16.648 0.286 73.133
5965.125 0.288 73.063 0.957 -16.72 0.957 -16.72 0.288 73.063
5990.083 0.289 72.992 0.956 -16.792 0.956 -16.792 0.289 72.992
6015.042 0.29 72.921 0.956 -16.864 0.956 -16.864 0.29 72.921
6040 0.291 72.85 0.956 -16.936 0.956 -16.936 0.291 72.85
6064.958 0.292 72.779 0.955 -17.007 0.955 -17.007 0.292 72.779
6089.917 0.294 72.709 0.955 -17.079 0.955 -17.079 0.294 72.709
6114.875 0.295 72.638 0.954 -17.15 0.954 -17.15 0.295 72.638
6139.833 0.296 72.568 0.954 -17.222 0.954 -17.222 0.296 72.568
6164.792 0.297 72.497 0.954 -17.293 0.954 -17.293 0.297 72.497
6189.75 0.298 72.427 0.953 -17.364 0.953 -17.364 0.298 72.427
6214.708 0.3 72.357 0.953 -17.435 0.953 -17.435 0.3 72.357
6239.667 0.301 72.287 0.953 -17.507 0.953 -17.507 0.301 72.287
6264.625 0.302 72.216 0.952 -17.578 0.952 -17.578 0.302 72.216
6289.583 0.303 72.146 0.952 -17.649 0.952 -17.649 0.303 72.146
6314.542 0.304 72.076 0.951 -17.719 0.951 -17.719 0.304 72.076
6339.5 0.306 72.006 0.951 -17.79 0.951 -17.79 0.306 72.006
6364.458 0.307 71.937 0.951 -17.861 0.951 -17.861 0.307 71.937
6389.417 0.308 71.867 0.95 -17.932 0.95 -17.932 0.308 71.867
6414.375 0.309 71.797 0.95 -18.002 0.95 -18.002 0.309 71.797
6439.333 0.31 71.727 0.95 -18.073 0.95 -18.073 0.31 71.727
6464.292 0.311 71.658 0.949 -18.143 0.949 -18.143 0.311 71.658
6489.25 0.313 71.588 0.949 -18.213 0.949 -18.213 0.313 71.588
6514.208 0.314 71.519 0.948 -18.284 0.948 -18.284 0.314 71.519
6539.167 0.315 71.45 0.948 -18.354 0.948 -18.354 0.315 71.45
6564.125 0.316 71.38 0.948 -18.424 0.948 -18.424 0.316 71.38
6589.083 0.317 71.311 0.947 -18.494 0.947 -18.494 0.317 71.311
6614.042 0.318 71.242 0.947 -18.564 0.947 -18.564 0.318 71.242
6639 0.32 71.173 0.947 -18.634 0.947 -18.634 0.32 71.173
6663.958 0.321 71.104 0.946 -18.704 0.946 -18.704 0.321 71.104
6688.917 0.322 71.035 0.946 -18.773 0.946 -18.773 0.322 71.035
6713.875 0.323 70.966 0.945 -18.843 0.945 -18.843 0.323 70.966
6738.833 0.324 70.897 0.945 -18.913 0.945 -18.913 0.324 70.897
6763.792 0.325 70.828 0.945 -18.982 0.945 -18.982 0.325 70.828
6788.75 0.326 70.76 0.944 -19.051 0.944 -19.051 0.326 70.76
6813.708 0.328 70.691 0.944 -19.121 0.944 -19.121 0.328 70.691
6838.667 0.329 70.622 0.943 -19.19 0.943 -19.19 0.329 70.622
6863.625 0.33 70.554 0.943 -19.259 0.943 -19.259 0.33 70.554
6888.583 0.331 70.485 0.943 -19.328 0.943 -19.328 0.331 70.485
6913.542 0.332 70.417 0.942 -19.398 0.942 -19.398 0.332 70.417
6938.5 0.333 70.349 0.942 -19.467 0.942 -19.467 0.333 70.349
6963.458 0.334 70.281 0.941 -19.535 0.941 -19.535 0.334 70.281
6988.417 0.336 70.212 0.941 -19.604 0.941 -19.604 0.336 70.212
7013.375 0.337 70.144 0.941 -19.673 0.941 -19.673 0.337 70.144
7038.333 0.338 70.076 0.94 -19.742 0.94 -19.742 0.338 70.076
7063.292 0.339 70.008 0.94 -19.81 0.94 -19.81 0.339 70.008
7088.25 0.34 69.941 0.939 -19.879 0.939 -19.879 0.34 69.941
7113.208 0.341 69.873 0.939 -19.947 0.939 -19.947 0.341 69.873
7138.167 0.342 69.805 0.939 -20.016 0.939 -20.016 0.342 69.805
7163.125 0.343 69.737 0.938 -20.084 0.938 -20.084 0.343 69.737
7188.083 0.345 69.67 0.938 -20.152 0.938 -20.152 0.345 69.67
7213.042 0.346 69.602 0.937 -20.221 0.937 -20.221 0.346 69.602
7238 0.347 69.535 0.937 -20.289 0.937 -20.289 0.347 69.535
7262.958 0.348 69.467 0.936 -20.357 0.936 -20.357 0.348 69.467
7287.917 0.349 69.4 0.936 -20.425 0.936 -20.425 0.349 69.4
7312.875 0.35 69.333 0.936 -20.493 0.936 -20.493 0.35 69.333
7337.833 0.351 69.266 0.935 -20.56 0.935 -20.56 0.351 69.266
7362.792 0.352 69.198 0.935 -20.628 0.935 -20.628 0.352 69.198
7387.75 0.353 69.131 0.934 -20.696 0.934 -20.696 0.353 69.131
7412.708 0.355 69.064 0.934 -20.763 0.934 -20.763 0.355 69.064
7437.667 0.356 68.997 0.934 -20.831 0.934 -20.831 0.356 68.997
7462.625 0.357 68.931 0.933 -20.898 0.933 -20.898 0.357 68.931
7487.583 0.358 68.864 0.933 -20.966 0.933 -20.966 0.358 68.864
7512.542 0.359 68.797 0.932 -21.033 0.932 -21.033 0.359 68.797
7537.5 0.36 68.731 0.932 -21.1 0.932 -21.1 0.36 68.731
7562.458 0.361 68.664 0.931 -21.168 0.931 -21.168 0.361 68.664
7587.417 0.362 68.597 0.931 -21.235 0.931 -21.235 0.362 68.597
7612.375 0.363 68.531 0.931 -21.302 0.931 -21.302 0.363 68.531
7637.333 0.364 68.465 0.93 -21.369 0.93 -21.369 0.364 68.465
7662.292 0.365 68.398 0.93 -21.435 0.93 -21.435 0.365 68.398
7687.25 0.367 68.332 0.929 -21.502 0.929 -21.502 0.367 68.332
7712.208 0.368 68.266 0.929 -21.569 0.929 -21.569 0.368 68.266
7737.167 0.369 68.2 0.928 -21.636 0.928 -21.636 0.369 68.2
7762.125 0.37 68.134 0.928 -21.702 0.928 -21.702 0.37 68.134
7787.083 0.371 68.068 0.928 -21.769 0.928 -21.769 0.371 68.068
7812.042 0.372 68.002 0.927 -21.835 0.927 -21.835 0.372 68.002
7837 0.373 67.936 0.927 -21.902 0.927 -21.902 0.373 67.936
7861.958 0.374 67.87 0.926 -21.968 0.926 -21.968 0.374 67.87
7886.917 0.375 67.805 0.926 -22.034 0.926 -22.034 0.375 67.805
7911.875 0.376 67.739 0.925 -22.1 0.925 -22.1 0.376 67.739
7936.833 0.377 67.673 0.925 -22.166 0.925 -22.166 0.377 67.673
7961.792 0.378 67.608 0.925 -22.232 0.925 -22.232 0.378 67.608
7986.75 0.379 67.543 0.924 -22.298 0.924 -22.298 0.379 67.543
8011.708 0.38 67.477 0.924 -22.364 0.924 -22.364 0.38 67.477
8036.667 0.382 67.412 0.923 -22.43 0.923 -22.43 0.382 67.412
8061.625 0.383 67.347 0.923 -22.496 0.923 -22.496 0.383 67.347
8086.583 0.384 67.282 0.922 -22.561 0.922 -22.561 0.384 67.282
8111.542 0.385 67.216 0.922 -22.627 0.922 -22.627 0.385 67.216
8136.5 0.386 67.151 0.922 -22.692 0.922 -22.692 0.386 67.151
8161.458 0.387 67.087 0.921 -22.758 0.921 -22.758 0.387 67.087
8186.417 0.388 67.022 0.921 -22.823 0.921 -22.823 0.388 67.022
