# MHZ S MA R 50

50 0.992 -7.342 0.128 82.647 0.128 82.647 0.992 -7.342
74.958 0.982 -10.936 0.19 79.047 0.19 79.047 0.982 -10.936
99.917 0.968 -14.45 0.25 75.528 0.25 75.528 0.968 -14.45
124.875 0.952 -17.863 0.307 72.11 0.307 72.11 0.952 -17.863
149.833 0.932 -21.156 0.361 68.811 0.361 68.811 0.932 -21.156
174.792 0.911 -24.317 0.412 65.644 0.412 65.644 0.911 -24.317
199.75 0.888 -27.337 0.459 62.619 0.459 62.619 0.888 -27.337
224.708 0.864 -30.21 0.503 59.74 0.503 59.74 0.864 -30.21
249.667 0.839 -32.936 0.544 57.009 0.544 57.009 0.839 -32.936
274.625 0.813 -35.514 0.581 54.425 0.581 54.425 0.813 -35.514
299.583 0.788 -37.948 0.615 51.986 0.615 51.986 0.788 -37.948
324.542 0.763 -40.242 0.646 49.686 0.646 49.686 0.763 -40.242
349.5 0.738 -42.402 0.674 47.52 0.674 47.52 0.738 -42.402
374.458 0.713 -44.435 0.7 45.481 0.7 45.481 0.713 -44.435
399.417 0.689 -46.347 0.724 43.563 0.724 43.563 0.689 -46.347
424.375 0.666 -48.147 0.745 41.758 0.745 41.758 0.666 -48.147
449.333 0.644 -49.84 0.764 40.058 0.764 40.058 0.644 -49.84
474.292 0.622 -51.435 0.782 38.458 0.782 38.458 0.622 -51.435
499.25 0.601 -52.937 0.798 36.949 0.798 36.949 0.601 -52.937
524.208 0.581 -54.354 0.813 35.526 0.813 35.526 0.581 -54.354
549.167 0.562 -55.691 0.826 34.183 0.826 34.183 0.562 -55.691
574.125 0.543 -56.954 0.838 32.914 0.838 32.914 0.543 -56.954
599.083 0.526 -58.148 0.849 31.714 0.849 31.714 0.526 -58.148
624.042 0.509 -59.279 0.86 30.577 0.86 30.577 0.509 -59.279
649 0.492 -60.35 0.869 29.499 0.869 29.499 0.492 -60.35
673.958 0.477 -61.366 0.878 28.477 0.878 28.477 0.477 -61.366
698.917 0.462 -62.331 0.886 27.505 0.886 27.505 0.462 -62.331
723.875 0.447 -63.248 0.893 26.581 0.893 26.581 0.447 -63.248
748.833 0.434 -64.121 0.9 25.701 0.9 25.701 0.434 -64.121
773.792 0.42 -64.953 0.906 24.863 0.906 24.863 0.42 -64.953
798.75 0.408 -65.747 0.912 24.062 0.912 24.062 0.408 -65.747
823.708 0.396 -66.505 0.917 23.297 0.917 23.297 0.396 -66.505
848.667 0.384 -67.229 0.922 22.566 0.922 22.566 0.384 -67.229
873.625 0.372 -67.922 0.927 21.866 0.927 21.866 0.372 -67.922
898.583 0.362 -68.585 0.931 21.195 0.931 21.195 0.362 -68.585
923.542 0.351 -69.221 0.935 20.551 0.935 20.551 0.351 -69.221
948.5 0.341 -69.832 0.939 19.933 0.939 19.933 0.341 -69.832
973.458 0.331 -70.418 0.942 19.339 0.942 19.339 0.331 -70.418
998.417 0.322 -70.981 0.945 18.768 0.945 18.768 0.322 -70.981
1023.375 0.313 -71.523 0.948 18.217 0.948 18.217 0.313 -71.523
1048.333 0.304 -72.045 0.951 17.687 0.951 17.687 0.304 -72.045
1073.292 0.295 -72.549 0.954 17.176 0.954 17.176 0.295 -72.549
1098.25 0.287 -73.034 0.956 16.682 0.956 16.682 0.287 -73.034
1123.208 0.279 -73.502 0.959 16.205 0.959 16.205 0.279 -73.502
1148.167 0.271 -73.954 0.961 15.743 0.961 15.743 0.271 -73.954
1173.125 0.264 -74.391 0.963 15.297 0.963 15.297 0.264 -74.391
1198.083 0.257 -74.814 0.965 14.865 0.965 14.865 0.257 -74.814
1223.042 0.249 -75.223 0.967 14.446 0.967 14.446 0.249 -75.223
1248 0.243 -75.62 0.969 14.039 0.969 14.039 0.243 -75.62
1272.958 0.236 -76.004 0.97 13.645 0.97 13.645 0.236 -76.004
1297.917 0.229 -76.376 0.972 13.262 0.972 13.262 0.229 -76.376
1322.875 0.223 -76.737 0.973 12.89 0.973 12.89 0.223 -76.737
1347.833 0.217 -77.088 0.975 12.528 0.975 12.528 0.217 -77.088
1372.792 0.211 -77.429 0.976 12.176 0.976 12.176 0.211 -77.429
1397.75 0.205 -77.76 0.977 11.833 0.977 11.833 0.205 -77.76
1422.708 0.199 -78.081 0.978 11.5 0.978 11.5 0.199 -78.081
1447.667 0.194 -78.394 0.98 11.174 0.98 11.174 0.194 -78.394
1472.625 0.188 -78.699 0.981 10.857 0.981 10.857 0.188 -78.699
1497.583 0.183 -78.995 0.982 10.547 0.982 10.547 0.183 -78.995
1522.542 0.178 -79.283 0.983 10.245 0.983 10.245 0.178 -79.283
1547.5 0.173 -79.564 0.983 9.95 0.983 9.95 0.173 -79.564
1572.458 0.168 -79.838 0.984 9.661 0.984 9.661 0.168 -79.838
1597.417 0.163 -80.105 0.985 9.379 0.985 9.379 0.163 -80.105
1622.375 0.158 -80.365 0.986 9.103 0.986 9.103 0.158 -80.365
1647.333 0.154 -80.618 0.987 8.833 0.987 8.833 0.154 -80.618
1672.292 0.149 -80.865 0.987 8.569 0.987 8.569 0.149 -80.865
1697.25 0.145 -81.106 0.988 8.31 0.988 8.31 0.145 -81.106
1722.208 0.14 -81.341 0.989 8.056 0.989 8.056 0.14 -81.341
1747.167 0.136 -81.571 0.989 7.807 0.989 7.807 0.136 -81.571
1772.125 0.132 -81.794 0.99 7.564 0.99 7.564 0.132 -81.794
1797.083 0.127 -82.012 0.99 7.324 0.99 7.324 0.127 -82.012
1822.042 0.123 -82.225 0.991 7.089 0.991 7.089 0.123 -82.225
1847 0.119 -82.432 0.991 6.859 0.991 6.859 0.119 -82.432
1871.958 0.116 -82.635 0.992 6.632 0.992 6.632 0.116 -82.635
1896.917 0.112 -82.831 0.992 6.41 0.992 6.41 0.112 -82.831
1921.875 0.108 -83.023 0.993 6.191 0.993 6.191 0.108 -83.023
1946.833 0.104 -83.21 0.993 5.976 0.993 5.976 0.104 -83.21
1971.792 0.1 -83.391 0.993 5.764 0.993 5.764 0.1 -83.391
1996.75 0.097 -83.567 0.994 5.556 0.994 5.556 0.097 -83.567
2021.708 0.093 -83.738 0.994 5.352 0.994 5.352 0.093 -83.738
2046.667 0.09 -83.904 0.994 5.15 0.994 5.15 0.09 -83.904
2071.625 0.086 -84.065 0.995 4.951 0.995 4.951 0.086 -84.065
2096.583 0.083 -84.219 0.995 4.756 0.995 4.756 0.083 -84.219
2121.542 0.08 -84.369 0.995 4.563 0.995 4.563 0.08 -84.369
2146.5 0.076 -84.512 0.996 4.373 0.996 4.373 0.076 -84.512
2171.458 0.073 -84.649 0.996 4.186 0.996 4.186 0.073 -84.649
2196.417 0.07 -84.78 0.996 4.001 0.996 4.001 0.07 -84.78
2221.375 0.067 -84.904 0.996 3.819 0.996 3.819 0.067 -84.904
2246.333 0.063 -85.02 0.996 3.64 0.996 3.64 0.063 -85.02
2271.292 0.06 -85.129 0.997 3.462 0.997 3.462 0.06 -85.129
2296.25 0.057 -85.229 0.997 3.287 0.997 3.287 0.057 -85.229
2321.208 0.054 -85.319 0.997 3.115 0.997 3.115 0.054 -85.319
2346.167 0.051 -85.399 0.997 2.944 0.997 2.944 0.051 -85.399
2371.125 0.048 -85.466 0.997 2.775 0.997 2.775 0.048 -85.466
2396.083 0.046 -85.521 0.997 2.609 0.997 2.609 0.046 -85.521
2421.042 0.043 -85.559 0.998 2.444 0.998 2.444 0.043 -85.559
2446 0.04 -85.579 0.998 2.282 0.998 2.282 0.04 -85.579
2470.958 0.037 -85.578 0.998 2.121 0.998 2.121 0.037 -85.578
2495.917 0.034 -85.551 0.998 1.962 0.998 1.962 0.034 -85.551
2520.875 0.032 -85.491 0.998 1.804 0.998 1.804 0.032 -85.491
2545.833 0.029 -85.392 0.998 1.649 0.998 1.649 0.029 -85.392
2570.792 0.026 -85.242 0.998 1.495 0.998 1.495 0.026 -85.242
2595.75 0.023 -85.025 0.998 1.343 0.998 1.343 0.023 -85.025
2620.708 0.021 -84.717 0.998 1.192 0.998 1.192 0.021 -84.717
2645.667 0.018 -84.283 0.998 1.043 0.998 1.043 0.018 -84.283
2670.625 0.016 -83.663 0.998 0.895 0.998 0.895 0.016 -83.663
2695.583 0.013 -82.754 0.998 0.749 0.998 0.749 0.013 -82.754
2720.542 0.011 -81.357 0.998 0.604 0.998 0.604 0.011 -81.357
2745.5 8.167e-3 -79.042 0.998 0.46 0.998 0.46 8.167e-3 -79.042
2770.458 5.744e-3 -74.669 0.998 0.318 0.998 0.318 5.744e-3 -74.669
2795.417 3.429e-3 -64.1 0.999 0.177 0.999 0.177 3.429e-3 -64.1
2820.375 1.624e-3 -23.602 0.999 0.037 0.999 0.037 1.624e-3 -23.602
2845.333 2.308e-3 49.758 0.999 -0.101 0.999 -0.101 2.308e-3 49.758
2870.292 4.418e-3 70.077 0.999 -0.238 0.999 -0.238 4.418e-3 70.077
2895.25 6.701e-3 76.796 0.998 -0.374 0.998 -0.374 6.701e-3 76.796
2920.208 9.012e-3 79.987 0.998 -0.509 0.998 -0.509 9.012e-3 79.987
2945.167 0.011 81.805 0.998 -0.643 0.998 -0.643 0.011 81.805
2970.125 0.014 82.953 0.998 -0.776 0.998 -0.776 0.014 82.953
2995.083 0.016 83.725 0.998 -0.907 0.998 -0.907 0.016 83.725
3020.042 0.018 84.267 0.998 -1.038 0.998 -1.038 0.018 84.267
3045 0.02 84.656 0.998 -1.168 0.998 -1.168 0.02 84.656
3069.958 0.023 84.941 0.998 -1.296 0.998 -1.296 0.023 84.941
3094.917 0.025 85.15 0.998 -1.424 0.998 -1.424 0.025 85.15
3119.875 0.027 85.303 0.998 -1.55 0.998 -1.55 0.027 85.303
3144.833 0.029 85.413 0.998 -1.676 0.998 -1.676 0.029 85.413
3169.792 0.031 85.49 0.998 -1.801 0.998 -1.801 0.031 85.49
3194.75 0.034 85.54 0.998 -1.925 0.998 -1.925 0.034 85.54
3219.708 0.036 85.569 0.998 -2.048 0.998 -2.048 0.036 85.569
3244.667 0.038 85.581 0.998 -2.17 0.998 -2.17 0.038 85.581
3269.625 0.04 85.579 0.998 -2.292 0.998 -2.292 0.04 85.579
3294.583 0.042 85.565 0.998 -2.412 0.998 -2.412 0.042 85.565
3319.542 0.044 85.541 0.998 -2.532 0.998 -2.532 0.044 85.541
3344.5 0.046 85.508 0.997 -2.651 0.997 -2.651 0.046 85.508
3369.458 0.048 85.469 0.997 -2.769 0.997 -2.769 0.048 85.469
3394.417 0.05 85.423 0.997 -2.887 0.997 -2.887 0.05 85.423
3419.375 0.052 85.372 0.997 -3.004 0.997 -3.004 0.052 85.372
3444.333 0.054 85.316 0.997 -3.12 0.997 -3.12 0.054 85.316
3469.292 0.056 85.257 0.997 -3.235 0.997 -3.235 0.056 85.257
3494.25 0.058 85.194 0.997 -3.35 0.997 -3.35 0.058 85.194
3519.208 0.06 85.128 0.997 -3.464 0.997 -3.464 0.06 85.128
3544.167 0.062 85.059 0.997 -3.577 0.997 -3.577 0.062 85.059
3569.125 0.064 84.988 0.996 -3.69 0.996 -3.69 0.064 84.988
3594.083 0.066 84.915 0.996 -3.802 0.996 -3.802 0.066 84.915
3619.042 0.068 84.84 0.996 -3.914 0.996 -3.914 0.068 84.84
3644 0.07 84.764 0.996 -4.024 0.996 -4.024 0.07 84.764
3668.958 0.072 84.686 0.996 -4.135 0.996 -4.135 0.072 84.686
3693.917 0.074 84.607 0.996 -4.244 0.996 -4.244 0.074 84.607
3718.875 0.076 84.527 0.996 -4.353 0.996 -4.353 0.076 84.527
3743.833 0.078 84.446 0.995 -4.462 0.995 -4.462 0.078 84.446
3768.792 0.08 84.364 0.995 -4.57 0.995 -4.57 0.08 84.364
3793.75 0.082 84.281 0.995 -4.677 0.995 -4.677 0.082 84.281
3818.708 0.083 84.197 0.995 -4.784 0.995 -4.784 0.083 84.197
3843.667 0.085 84.113 0.995 -4.89 0.995 -4.89 0.085 84.113
3868.625 0.087 84.029 0.995 -4.996 0.995 -4.996 0.087 84.029
3893.583 0.089 83.943 0.995 -5.102 0.995 -5.102 0.089 83.943
3918.542 0.091 83.858 0.994 -5.206 0.994 -5.206 0.091 83.858
3943.5 0.093 83.772 0.994 -5.311 0.994 -5.311 0.093 83.772
3968.458 0.094 83.686 0.994 -5.415 0.994 -5.415 0.094 83.686
3993.417 0.096 83.599 0.994 -5.518 0.994 -5.518 0.096 83.599
4018.375 0.098 83.513 0.994 -5.621 0.994 -5.621 0.098 83.513
4043.333 0.1 83.426 0.994 -5.723 0.994 -5.723 0.1 83.426
4068.292 0.102 83.339 0.993 -5.825 0.993 -5.825 0.102 83.339
4093.25 0.103 83.252 0.993 -5.927 0.993 -5.927 0.103 83.252
4118.208 0.105 83.165 0.993 -6.028 0.993 -6.028 0.105 83.165
4143.167 0.107 83.077 0.993 -6.129 0.993 -6.129 0.107 83.077
4168.125 0.109 82.99 0.993 -6.229 0.993 -6.229 0.109 82.99
4193.083 0.11 82.902 0.992 -6.329 0.992 -6.329 0.11 82.902
4218.042 0.112 82.815 0.992 -6.428 0.992 -6.428 0.112 82.815
4243 0.114 82.727 0.992 -6.527 0.992 -6.527 0.114 82.727
4267.958 0.115 82.64 0.992 -6.626 0.992 -6.626 0.115 82.64
4292.917 0.117 82.553 0.992 -6.724 0.992 -6.724 0.117 82.553
4317.875 0.119 82.465 0.991 -6.822 0.991 -6.822 0.119 82.465
4342.833 0.12 82.378 0.991 -6.92 0.991 -6.92 0.12 82.378
4367.792 0.122 82.291 0.991 -7.017 0.991 -7.017 0.122 82.291
4392.75 0.124 82.203 0.991 -7.114 0.991 -7.114 0.124 82.203
4417.708 0.126 82.116 0.991 -7.21 0.991 -7.21 0.126 82.116
4442.667 0.127 82.029 0.99 -7.306 0.99 -7.306 0.127 82.029
4467.625 0.129 81.942 0.99 -7.402 0.99 -7.402 0.129 81.942
4492.583 0.13 81.855 0.99 -7.497 0.99 -7.497 0.13 81.855
4517.542 0.132 81.768 0.99 -7.592 0.99 -7.592 0.132 81.768
4542.5 0.134 81.682 0.99 -7.687 0.99 -7.687 0.134 81.682
4567.458 0.135 81.595 0.989 -7.781 0.989 -7.781 0.135 81.595
4592.417 0.137 81.509 0.989 -7.875 0.989 -7.875 0.137 81.509
4617.375 0.139 81.422 0.989 -7.969 0.989 -7.969 0.139 81.422
4642.333 0.14 81.336 0.989 -8.062 0.989 -8.062 0.14 81.336
4667.292 0.142 81.25 0.988 -8.155 0.988 -8.155 0.142 81.25
4692.25 0.143 81.164 0.988 -8.248 0.988 -8.248 0.143 81.164
4717.208 0.145 81.078 0.988 -8.34 0.988 -8.34 0.145 81.078
4742.167 0.147 80.993 0.988 -8.432 0.988 -8.432 0.147 80.993
4767.125 0.148 80.907 0.987 -8.524 0.987 -8.524 0.148 80.907
4792.083 0.15 80.822 0.987 -8.616 0.987 -8.616 0.15 80.822
4817.042 0.151 80.736 0.987 -8.707 0.987 -8.707 0.151 80.736
4842 0.153 80.651 0.987 -8.798 0.987 -8.798 0.153 80.651
4866.958 0.155 80.566 0.987 -8.889 0.987 -8.889 0.155 80.566
4891.917 0.156 80.481 0.986 -8.979 0.986 -8.979 0.156 80.481
4916.875 0.158 80.397 0.986 -9.069 0.986 -9.069 0.158 80.397
4941.833 0.159 80.312 0.986 -9.159 0.986 -9.159 0.159 80.312
4966.792 0.161 80.228 0.986 -9.249 0.986 -9.249 0.161 80.228
4991.75 0.162 80.144 0.985 -9.338 0.985 -9.338 0.162 80.144
5016.708 0.164 80.06 0.985 -9.427 0.985 -9.427 0.164 80.06
5041.667 0.165 79.976 0.985 -9.516 0.985 -9.516 0.165 79.976
5066.625 0.167 79.892 0.985 -9.604 0.985 -9.604 0.167 79.892
5091.583 0.168 79.808 0.984 -9.693 0.984 -9.693 0.168 79.808
5116.542 0.17 79.725 0.984 -9.781 0.984 -9.781 0.17 79.725
5141.5 0.171 79.642 0.984 -9.868 0.984 -9.868 0.171 79.642
5166.458 0.173 79.558 0.983 -9.956 0.983 -9.956 0.173 79.558
5191.417 0.174 79.475 0.983 -10.043 0.983 -10.043 0.174 79.475
5216.375 0.176 79.393 0.983 -10.13 0.983 -10.13 0.176 79.393
5241.333 0.177 79.31 0.983 -10.217 0.983 -10.217 0.177 79.31
5266.292 0.179 79.227 0.982 -10.304 0.982 -10.304 0.179 79.227
5291.25 0.18 79.145 0.982 -10.39 0.982 -10.39 0.18 79.145
5316.208 0.182 79.063 0.982 -10.476 0.982 -10.476 0.182 79.063
5341.167 0.183 78.981 0.982 -10.562 0.982 -10.562 0.183 78.981
5366.125 0.185 78.899 0.981 -10.648 0.981 -10.648 0.185 78.899
5391.083 0.186 78.817 0.981 -10.733 0.981 -10.733 0.186 78.817
5416.042 0.188 78.735 0.981 -10.818 0.981 -10.818 0.188 78.735
5441 0.189 78.654 0.98 -10.903 0.98 -10.903 0.189 78.654
5465.958 0.191 78.573 0.98 -10.988 0.98 -10.988 0.191 78.573
5490.917 0.192 78.491 0.98 -11.073 0.98 -11.073 0.192 78.491
5515.875 0.194 78.41 0.98 -11.157 0.98 -11.157 0.194 78.41
5540.833 0.195 78.33 0.979 -11.241 0.979 -11.241 0.195 78.33
5565.792 0.196 78.249 0.979 -11.325 0.979 -11.325 0.196 78.249
5590.75 0.198 78.168 0.979 -11.409 0.979 -11.409 0.198 78.168
5615.708 0.199 78.088 0.978 -11.493 0.978 -11.493 0.199 78.088
5640.667 0.201 78.008 0.978 -11.576 0.978 -11.576 0.201 78.008
5665.625 0.202 77.927 0.978 -11.659 0.978 -11.659 0.202 77.927
5690.583 0.204 77.847 0.978 -11.742 0.978 -11.742 0.204 77.847
5715.542 0.205 77.768 0.977 -11.825 0.977 -11.825 0.205 77.768
5740.5 0.206 77.688 0.977 -11.908 0.977 -11.908 0.206 77.688
5765.458 0.208 77.608 0.977 -11.99 0.977 -11.99 0.208 77.608
5790.417 0.209 77.529 0.976 -12.072 0.976 -12.072 0.209 77.529
5815.375 0.211 77.45 0.976 -12.154 0.976 -12.154 0.211 77.45
5840.333 0.212 77.371 0.976 -12.236 0.976 -12.236 0.212 77.371
5865.292 0.213 77.292 0.976 -12.318 0.976 -12.318 0.213 77.292
5890.25 0.215 77.213 0.975 -12.399 0.975 -12.399 0.215 77.213
5915.208 0.216 77.134 0.975 -12.481 0.975 -12.481 0.216 77.134
5940.167 0.217 77.056 0.975 -12.562 0.975 -12.562 0.217 77.056
5965.125 0.219 76.977 0.974 -12.643 0.974 -12.643 0.219 76.977
5990.083 0.22 76.899 0.974 -12.724 0.974 -12.724 0.22 76.899
6015.042 0.222 76.821 0.974 -12.804 0.974 -12.804 0.222 76.821
6040 0.223 76.743 0.973 -12.885 0.973 -12.885 0.223 76.743
6064.958 0.224 76.665 0.973 -12.965 0.973 -12.965 0.224 76.665
6089.917 0.226 76.587 0.973 -13.045 0.973 -13.045 0.226 76.587
6114.875 0.227 76.509 0.972 -13.125 0.972 -13.125 0.227 76.509
6139.833 0.228 76.432 0.972 -13.205 0.972 -13.205 0.228 76.432
6164.792 0.23 76.355 0.972 -13.284 0.972 -13.284 0.23 76.355
6189.75 0.231 76.277 0.971 -13.364 0.971 -13.364 0.231 76.277
6214.708 0.232 76.2 0.971 -13.443 0.971 -13.443 0.232 76.2
6239.667 0.234 76.123 0.971 -13.522 0.971 -13.522 0.234 76.123
6264.625 0.235 76.047 0.971 -13.601 0.971 -13.601 0.235 76.047
6289.583 0.236 75.97 0.97 -13.68 0.97 -13.68 0.236 75.97
6314.542 0.238 75.893 0.97 -13.758 0.97 -13.758 0.238 75.893
6339.5 0.239 75.817 0.97 -13.837 0.97 -13.837 0.239 75.817
6364.458 0.24 75.741 0.969 -13.915 0.969 -13.915 0.24 75.741
6389.417 0.242 75.665 0.969 -13.993 0.969 -13.993 0.242 75.665
6414.375 0.243 75.589 0.969 -14.071 0.969 -14.071 0.243 75.589
6439.333 0.244 75.513 0.968 -14.149 0.968 -14.149 0.244 75.513
6464.292 0.246 75.437 0.968 -14.227 0.968 -14.227 0.246 75.437
6489.25 0.247 75.361 0.968 -14.304 0.968 -14.304 0.247 75.361
6514.208 0.248 75.286 0.967 -14.382 0.967 -14.382 0.248 75.286
6539.167 0.25 75.21 0.967 -14.459 0.967 -14.459 0.25 75.21
6564.125 0.251 75.135 0.967 -14.536 0.967 -14.536 0.251 75.135
6589.083 0.252 75.06 0.966 -14.613 0.966 -14.613 0.252 75.06
6614.042 0.254 74.985 0.966 -14.69 0.966 -14.69 0.254 74.985
6639 0.255 74.91 0.966 -14.767 0.966 -14.767 0.255 74.91
6663.958 0.256 74.835 0.965 -14.843 0.965 -14.843 0.256 74.835
6688.917 0.257 74.761 0.965 -14.919 0.965 -14.919 0.257 74.761
6713.875 0.259 74.686 0.965 -14.996 0.965 -14.996 0.259 74.686
6738.833 0.26 74.612 0.964 -15.072 0.964 -15.072 0.26 74.612
6763.792 0.261 74.537 0.964 -15.148 0.964 -15.148 0.261 74.537
6788.75 0.263 74.463 0.963 -15.224 0.963 -15.224 0.263 74.463
6813.708 0.264 74.389 0.963 -15.299 0.963 -15.299 0.264 74.389
6838.667 0.265 74.315 0.963 -15.375 0.963 -15.375 0.265 74.315
6863.625 0.266 74.241 0.962 -15.45 0.962 -15.45 0.266 74.241
6888.583 0.268 74.167 0.962 -15.526 0.962 -15.526 0.268 74.167
6913.542 0.269 74.094 0.962 -15.601 0.962 -15.601 0.269 74.094
6938.5 0.27 74.02 0.961 -15.676 0.961 -15.676 0.27 74.02
6963.458 0.271 73.947 0.961 -15.751 0.961 -15.751 0.271 73.947
6988.417 0.273 73.874 0.961 -15.825 0.961 -15.825 0.273 73.874
7013.375 0.274 73.801 0.96 -15.9 0.96 -15.9 0.274 73.801
7038.333 0.275 73.728 0.96 -15.975 0.96 -15.975 0.275 73.728
7063.292 0.276 73.655 0.96 -16.049 0.96 -16.049 0.276 73.655
7088.25 0.278 73.582 0.959 -16.123 0.959 -16.123 0.278 73.582
7113.208 0.279 73.509 0.959 -16.197 0.959 -16.197 0.279 73.509
7138.167 0.28 73.437 0.959 -16.271 0.959 -16.271 0.28 73.437
7163.125 0.281 73.364 0.958 -16.345 0.958 -16.345 0.281 73.364
7188.083 0.283 73.292 0.958 -16.419 0.958 -16.419 0.283 73.292
7213.042 0.284 73.219 0.957 -16.493 0.957 -16.493 0.284 73.219
7238 0.285 73.147 0.957 -16.566 0.957 -16.566 0.285 73.147
7262.958 0.286 73.075 0.957 -16.639 0.957 -16.639 0.286 73.075
7287.917 0.288 73.003 0.956 -16.713 0.956 -16.713 0.288 73.003
7312.875 0.289 72.932 0.956 -16.786 0.956 -16.786 0.289 72.932
7337.833 0.29 72.86 0.956 -16.859 0.956 -16.859 0.29 72.86
7362.792 0.291 72.788 0.955 -16.932 0.955 -16.932 0.291 72.788
7387.75 0.292 72.717 0.955 -17.004 0.955 -17.004 0.292 72.717
7412.708 0.294 72.645 0.954 -17.077 0.954 -17.077 0.294 72.645
7437.667 0.295 72.574 0.954 -17.15 0.954 -17.15 0.295 72.574
7462.625 0.296 72.503 0.954 -17.222 0.954 -17.222 0.296 72.503
7487.583 0.297 72.432 0.953 -17.294 0.953 -17.294 0.297 72.432
7512.542 0.298 72.361 0.953 -17.367 0.953 -17.367 0.298 72.361
7537.5 0.3 72.29 0.953 -17.439 0.953 -17.439 0.3 72.29
7562.458 0.301 72.219 0.952 -17.511 0.952 -17.511 0.301 72.219
7587.417 0.302 72.149 0.952 -17.582 0.952 -17.582 0.302 72.149
7612.375 0.303 72.078 0.951 -17.654 0.951 -17.654 0.303 72.078
7637.333 0.304 72.008 0.951 -17.726 0.951 -17.726 0.304 72.008
7662.292 0.306 71.937 0.951 -17.797 0.951 -17.797 0.306 71.937
7687.25 0.307 71.867 0.95 -17.869 0.95 -17.869 0.307 71.867
7712.208 0.308 71.797 0.95 -17.94 0.95 -17.94 0.308 71.797
7737.167 0.309 71.727 0.95 -18.011 0.95 -18.011 0.309 71.727
7762.125 0.31 71.657 0.949 -18.082 0.949 -18.082 0.31 71.657
7787.083 0.312 71.587 0.949 -18.153 0.949 -18.153 0.312 71.587
7812.042 0.313 71.517 0.948 -18.224 0.948 -18.224 0.313 71.517
7837 0.314 71.448 0.948 -18.294 0.948 -18.294 0.314 71.448
7861.958 0.315 71.378 0.948 -18.365 0.948 -18.365 0.315 71.378
7886.917 0.316 71.309 0.947 -18.436 0.947 -18.436 0.316 71.309
7911.875 0.317 71.239 0.947 -18.506 0.947 -18.506 0.317 71.239
7936.833 0.319 71.17 0.946 -18.576 0.946 -18.576 0.319 71.17
7961.792 0.32 71.101 0.946 -18.646 0.946 -18.646 0.32 71.101
7986.75 0.321 71.032 0.946 -18.716 0.946 -18.716 0.321 71.032
8011.708 0.322 70.963 0.945 -18.786 0.945 -18.786 0.322 70.963
8036.667 0.323 70.894 0.945 -18.856 0.945 -18.856 0.323 70.894
8061.625 0.324 70.825 0.945 -18.926 0.945 -18.926 0.324 70.825
8086.583 0.325 70.757 0.944 -18.996 0.944 -18.996 0.325 70.757
8111.542 0.327 70.688 0.944 -19.065 0.944 -19.065 0.327 70.688
8136.5 0.328 70.62 0.943 -19.135 0.943 -19.135 0.328 70.62
8161.458 0.329 70.551 0.943 -19.204 0.943 -19.204 0.329 70.551
8186.417 0.33 70.483 0.943 -19.273 0.943 -19.273 0.33 70.483
