# MHZ S MA R 50

50 1 -1.62 0.028 88.376 0.028 88.376 1 -1.62
74.958 0.999 -2.428 0.042 87.566 0.042 87.566 0.999 -2.428
99.917 0.998 -3.235 0.056 86.757 0.056 86.757 0.998 -3.235
124.875 0.998 -4.041 0.07 85.949 0.07 85.949 0.998 -4.041
149.833 0.996 -4.846 0.084 85.141 0.084 85.141 0.996 -4.846
174.792 0.995 -5.649 0.098 84.336 0.098 84.336 0.995 -5.649
199.75 0.994 -6.451 0.112 83.532 0.112 83.532 0.994 -6.451
224.708 0.992 -7.251 0.126 82.73 0.126 82.73 0.992 -7.251
249.667 0.99 -8.049 0.14 81.93 0.14 81.93 0.99 -8.049
274.625 0.988 -8.845 0.154 81.132 0.154 81.132 0.988 -8.845
299.583 0.986 -9.638 0.167 80.337 0.167 80.337 0.986 -9.638
324.542 0.983 -10.428 0.181 79.545 0.181 79.545 0.983 -10.428
349.5 0.981 -11.215 0.194 78.755 0.194 78.755 0.981 -11.215
374.458 0.978 -11.999 0.208 77.969 0.208 77.969 0.978 -11.999
399.417 0.975 -12.78 0.221 77.186 0.221 77.186 0.975 -12.78
424.375 0.972 -13.557 0.234 76.407 0.234 76.407 0.972 -13.557
449.333 0.969 -14.331 0.248 75.632 0.248 75.632 0.969 -14.331
474.292 0.965 -15.1 0.261 74.86 0.261 74.86 0.965 -15.1
499.25 0.962 -15.865 0.273 74.093 0.273 74.093 0.962 -15.865
524.208 0.958 -16.626 0.286 73.329 0.286 73.329 0.958 -16.626
549.167 0.954 -17.383 0.299 72.571 0.299 72.571 0.954 -17.383
574.125 0.95 -18.135 0.311 71.816 0.311 71.816 0.95 -18.135
599.083 0.946 -18.883 0.324 71.067 0.324 71.067 0.946 -18.883
624.042 0.942 -19.625 0.336 70.322 0.336 70.322 0.942 -19.625
649 0.937 -20.363 0.348 69.582 0.348 69.582 0.937 -20.363
673.958 0.933 -21.095 0.36 68.848 0.36 68.848 0.933 -21.095
698.917 0.928 -21.823 0.372 68.118 0.372 68.118 0.928 -21.823
723.875 0.923 -22.545 0.383 67.394 0.383 67.394 0.923 -22.545
748.833 0.918 -23.261 0.395 66.675 0.395 66.675 0.918 -23.261
773.792 0.913 -23.972 0.406 65.962 0.406 65.962 0.913 -23.972
798.75 0.908 -24.678 0.418 65.254 0.418 65.254 0.908 -24.678
823.708 0.903 -25.377 0.429 64.552 0.429 64.552 0.903 -25.377
848.667 0.898 -26.071 0.439 63.856 0.439 63.856 0.898 -26.071
873.625 0.892 -26.76 0.45 63.166 0.45 63.166 0.892 -26.76
898.583 0.887 -27.442 0.461 62.481 0.461 62.481 0.887 -27.442
923.542 0.881 -28.119 0.471 61.802 0.471 61.802 0.881 -28.119
948.5 0.876 -28.789 0.482 61.13 0.482 61.13 0.876 -28.789
973.458 0.87 -29.453 0.492 60.463 0.492 60.463 0.87 -29.453
998.417 0.864 -30.112 0.502 59.802 0.502 59.802 0.864 -30.112
1023.375 0.858 -30.764 0.512 59.148 0.512 59.148 0.858 -30.764
1048.333 0.853 -31.41 0.521 58.499 0.521 58.499 0.853 -31.41
1073.292 0.847 -32.051 0.531 57.857 0.531 57.857 0.847 -32.051
1098.25 0.841 -32.685 0.54 57.22 0.54 57.22 0.841 -32.685
1123.208 0.835 -33.313 0.549 56.59 0.549 56.59 0.835 -33.313
1148.167 0.829 -33.934 0.558 55.966 0.558 55.966 0.829 -33.934
1173.125 0.823 -34.55 0.567 55.348 0.567 55.348 0.823 -34.55
1198.083 0.817 -35.159 0.576 54.736 0.576 54.736 0.817 -35.159
1223.042 0.81 -35.763 0.584 54.131 0.584 54.131 0.81 -35.763
1248 0.804 -36.36 0.593 53.531 0.593 53.531 0.804 -36.36
1272.958 0.798 -36.951 0.601 52.937 0.601 52.937 0.798 -36.951
1297.917 0.792 -37.536 0.609 52.35 0.609 52.35 0.792 -37.536
1322.875 0.786 -38.115 0.617 51.768 0.617 51.768 0.786 -38.115
1347.833 0.779 -38.688 0.625 51.193 0.625 51.193 0.779 -38.688
1372.792 0.773 -39.255 0.633 50.623 0.633 50.623 0.773 -39.255
1397.75 0.767 -39.817 0.64 50.06 0.64 50.06 0.767 -39.817
1422.708 0.76 -40.372 0.648 49.502 0.648 49.502 0.76 -40.372
1447.667 0.754 -40.921 0.655 48.95 0.655 48.95 0.754 -40.921
1472.625 0.748 -41.465 0.662 48.404 0.662 48.404 0.748 -41.465
1497.583 0.742 -42.002 0.669 47.864 0.669 47.864 0.742 -42.002
1522.542 0.735 -42.534 0.676 47.33 0.676 47.33 0.735 -42.534
1547.5 0.729 -43.061 0.683 46.801 0.683 46.801 0.729 -43.061
1572.458 0.723 -43.581 0.689 46.278 0.689 46.278 0.723 -43.581
1597.417 0.716 -44.096 0.696 45.76 0.696 45.76 0.716 -44.096
1622.375 0.71 -44.606 0.702 45.248 0.702 45.248 0.71 -44.606
1647.333 0.704 -45.11 0.708 44.742 0.708 44.742 0.704 -45.11
1672.292 0.698 -45.608 0.715 44.241 0.715 44.241 0.698 -45.608
1697.25 0.691 -46.101 0.721 43.745 0.721 43.745 0.691 -46.101
1722.208 0.685 -46.589 0.726 43.254 0.726 43.254 0.685 -46.589
1747.167 0.679 -47.071 0.732 42.769 0.732 42.769 0.679 -47.071
1772.125 0.673 -47.549 0.738 42.289 0.738 42.289 0.673 -47.549
1797.083 0.667 -48.021 0.743 41.814 0.743 41.814 0.667 -48.021
1822.042 0.661 -48.488 0.749 41.345 0.749 41.345 0.661 -48.488
1847 0.654 -48.95 0.754 40.88 0.754 40.88 0.654 -48.95
1871.958 0.648 -49.407 0.759 40.42 0.759 40.42 0.648 -49.407
1896.917 0.642 -49.859 0.764 39.965 0.764 39.965 0.642 -49.859
1921.875 0.636 -50.306 0.769 39.515 0.769 39.515 0.636 -50.306
1946.833 0.63 -50.748 0.774 39.07 0.774 39.07 0.63 -50.748
1971.792 0.624 -51.186 0.779 38.63 0.779 38.63 0.624 -51.186
1996.75 0.618 -51.619 0.784 38.194 0.784 38.194 0.618 -51.619
2021.708 0.612 -52.047 0.789 37.763 0.789 37.763 0.612 -52.047
2046.667 0.606 -52.471 0.793 37.336 0.793 37.336 0.606 -52.471
2071.625 0.601 -52.89 0.797 36.914 0.797 36.914 0.601 -52.89
2096.583 0.595 -53.305 0.802 36.496 0.802 36.496 0.595 -53.305
2121.542 0.589 -53.715 0.806 36.083 0.806 36.083 0.589 -53.715
2146.5 0.583 -54.121 0.81 35.674 0.81 35.674 0.583 -54.121
2171.458 0.577 -54.523 0.814 35.269 0.814 35.269 0.577 -54.523
2196.417 0.572 -54.92 0.818 34.868 0.818 34.868 0.572 -54.92
2221.375 0.566 -55.313 0.822 34.472 0.822 34.472 0.566 -55.313
2246.333 0.56 -55.703 0.826 34.079 0.826 34.079 0.56 -55.703
2271.292 0.555 -56.088 0.83 33.691 0.83 33.691 0.555 -56.088
2296.25 0.549 -56.469 0.834 33.307 0.834 33.307 0.549 -56.469
2321.208 0.544 -56.846 0.837 32.926 0.837 32.926 0.544 -56.846
2346.167 0.538 -57.219 0.841 32.549 0.841 32.549 0.538 -57.219
2371.125 0.533 -57.589 0.844 32.177 0.844 32.177 0.533 -57.589
2396.083 0.527 -57.955 0.848 31.807 0.848 31.807 0.527 -57.955
2421.042 0.522 -58.317 0.851 31.442 0.851 31.442 0.522 -58.317
2446 0.516 -58.675 0.854 31.08 0.854 31.08 0.516 -58.675
2470.958 0.511 -59.03 0.857 30.722 0.857 30.722 0.511 -59.03
2495.917 0.506 -59.381 0.861 30.367 0.861 30.367 0.506 -59.381
2520.875 0.5 -59.728 0.864 30.016 0.864 30.016 0.5 -59.728
2545.833 0.495 -60.073 0.867 29.669 0.867 29.669 0.495 -60.073
2570.792 0.49 -60.413 0.87 29.324 0.87 29.324 0.49 -60.413
2595.75 0.485 -60.751 0.873 28.983 0.873 28.983 0.485 -60.751
2620.708 0.479 -61.085 0.875 28.645 0.875 28.645 0.479 -61.085
2645.667 0.474 -61.415 0.878 28.311 0.878 28.311 0.474 -61.415
2670.625 0.469 -61.743 0.881 27.979 0.881 27.979 0.469 -61.743
2695.583 0.464 -62.067 0.884 27.651 0.884 27.651 0.464 -62.067
2720.542 0.459 -62.388 0.886 27.326 0.886 27.326 0.459 -62.388
2745.5 0.454 -62.707 0.889 27.004 0.889 27.004 0.454 -62.707
2770.458 0.449 -63.022 0.891 26.685 0.891 26.685 0.449 -63.022
2795.417 0.444 -63.334 0.894 26.369 0.894 26.369 0.444 -63.334
2820.375 0.439 -63.643 0.896 26.056 0.896 26.056 0.439 -63.643
2845.333 0.434 -63.949 0.898 25.745 0.898 25.745 0.434 -63.949
2870.292 0.43 -64.252 0.901 25.438 0.901 25.438 0.43 -64.252
2895.25 0.425 -64.552 0.903 25.133 0.903 25.133 0.425 -64.552
2920.208 0.42 -64.85 0.905 24.831 0.905 24.831 0.42 -64.85
2945.167 0.415 -65.145 0.907 24.532 0.907 24.532 0.415 -65.145
2970.125 0.41 -65.437 0.91 24.235 0.91 24.235 0.41 -65.437
2995.083 0.406 -65.726 0.912 23.941 0.912 23.941 0.406 -65.726
3020.042 0.401 -66.013 0.914 23.65 0.914 23.65 0.401 -66.013
3045 0.397 -66.297 0.916 23.361 0.916 23.361 0.397 -66.297
3069.958 0.392 -66.579 0.918 23.075 0.918 23.075 0.392 -66.579
3094.917 0.387 -66.858 0.92 22.791 0.92 22.791 0.387 -66.858
3119.875 0.383 -67.134 0.921 22.51 0.921 22.51 0.383 -67.134
3144.833 0.378 -67.409 0.923 22.231 0.923 22.231 0.378 -67.409
3169.792 0.374 -67.68 0.925 21.954 0.925 21.954 0.374 -67.68
3194.75 0.369 -67.949 0.927 21.68 0.927 21.68 0.369 -67.949
3219.708 0.365 -68.216 0.929 21.408 0.929 21.408 0.365 -68.216
3244.667 0.361 -68.481 0.93 21.138 0.93 21.138 0.361 -68.481
3269.625 0.356 -68.743 0.932 20.87 0.932 20.87 0.356 -68.743
3294.583 0.352 -69.003 0.934 20.605 0.934 20.605 0.352 -69.003
3319.542 0.348 -69.26 0.935 20.342 0.935 20.342 0.348 -69.26
3344.5 0.343 -69.516 0.937 20.081 0.937 20.081 0.343 -69.516
3369.458 0.339 -69.769 0.938 19.822 0.938 19.822 0.339 -69.769
3394.417 0.335 -70.02 0.94 19.565 0.94 19.565 0.335 -70.02
3419.375 0.331 -70.269 0.941 19.311 0.941 19.311 0.331 -70.269
3444.333 0.327 -70.515 0.943 19.058 0.943 19.058 0.327 -70.515
3469.292 0.322 -70.76 0.944 18.807 0.944 18.807 0.322 -70.76
3494.25 0.318 -71.002 0.946 18.558 0.946 18.558 0.318 -71.002
3519.208 0.314 -71.243 0.947 18.311 0.947 18.311 0.314 -71.243
3544.167 0.31 -71.481 0.948 18.066 0.948 18.066 0.31 -71.481
3569.125 0.306 -71.718 0.95 17.823 0.95 17.823 0.306 -71.718
3594.083 0.302 -71.953 0.951 17.582 0.951 17.582 0.302 -71.953
3619.042 0.298 -72.185 0.952 17.343 0.952 17.343 0.298 -72.185
3644 0.294 -72.416 0.953 17.105 0.953 17.105 0.294 -72.416
3668.958 0.29 -72.644 0.955 16.869 0.955 16.869 0.29 -72.644
3693.917 0.286 -72.871 0.956 16.635 0.956 16.635 0.286 -72.871
3718.875 0.282 -73.096 0.957 16.403 0.957 16.403 0.282 -73.096
3743.833 0.279 -73.319 0.958 16.172 0.958 16.172 0.279 -73.319
3768.792 0.275 -73.541 0.959 15.943 0.959 15.943 0.275 -73.541
3793.75 0.271 -73.76 0.96 15.716 0.96 15.716 0.271 -73.76
3818.708 0.267 -73.978 0.961 15.49 0.961 15.49 0.267 -73.978
3843.667 0.263 -74.194 0.962 15.266 0.962 15.266 0.263 -74.194
3868.625 0.26 -74.408 0.963 15.044 0.963 15.044 0.26 -74.408
3893.583 0.256 -74.62 0.964 14.823 0.964 14.823 0.256 -74.62
3918.542 0.252 -74.831 0.965 14.603 0.965 14.603 0.252 -74.831
3943.5 0.248 -75.04 0.966 14.385 0.966 14.385 0.248 -75.04
3968.458 0.245 -75.247 0.967 14.169 0.967 14.169 0.245 -75.247
3993.417 0.241 -75.452 0.968 13.954 0.968 13.954 0.241 -75.452
4018.375 0.238 -75.656 0.969 13.741 0.969 13.741 0.238 -75.656
4043.333 0.234 -75.858 0.97 13.529 0.97 13.529 0.234 -75.858
4068.292 0.23 -76.059 0.971 13.318 0.971 13.318 0.23 -76.059
4093.25 0.227 -76.258 0.971 13.109 0.971 13.109 0.227 -76.258
4118.208 0.223 -76.455 0.972 12.901 0.972 12.901 0.223 -76.455
4143.167 0.22 -76.65 0.973 12.695 0.973 12.695 0.22 -76.65
4168.125 0.216 -76.844 0.974 12.49 0.974 12.49 0.216 -76.844
4193.083 0.213 -77.036 0.975 12.286 0.975 12.286 0.213 -77.036
4218.042 0.209 -77.227 0.975 12.084 0.975 12.084 0.209 -77.227
4243 0.206 -77.416 0.976 11.883 0.976 11.883 0.206 -77.416
4267.958 0.203 -77.604 0.977 11.683 0.977 11.683 0.203 -77.604
4292.917 0.199 -77.789 0.977 11.485 0.977 11.485 0.199 -77.789
4317.875 0.196 -77.974 0.978 11.287 0.978 11.287 0.196 -77.974
4342.833 0.192 -78.156 0.979 11.091 0.979 11.091 0.192 -78.156
4367.792 0.189 -78.337 0.979 10.897 0.979 10.897 0.189 -78.337
4392.75 0.186 -78.517 0.98 10.703 0.98 10.703 0.186 -78.517
4417.708 0.182 -78.695 0.981 10.511 0.981 10.511 0.182 -78.695
4442.667 0.179 -78.871 0.981 10.319 0.981 10.319 0.179 -78.871
4467.625 0.176 -79.045 0.982 10.129 0.982 10.129 0.176 -79.045
4492.583 0.173 -79.218 0.982 9.94 0.982 9.94 0.173 -79.218
4517.542 0.169 -79.389 0.983 9.753 0.983 9.753 0.169 -79.389
4542.5 0.166 -79.559 0.984 9.566 0.984 9.566 0.166 -79.559
4567.458 0.163 -79.727 0.984 9.38 0.984 9.38 0.163 -79.727
4592.417 0.16 -79.893 0.985 9.196 0.985 9.196 0.16 -79.893
4617.375 0.157 -80.058 0.985 9.012 0.985 9.012 0.157 -80.058
4642.333 0.154 -80.221 0.986 8.83 0.986 8.83 0.154 -80.221
4667.292 0.15 -80.382 0.986 8.649 0.986 8.649 0.15 -80.382
4692.25 0.147 -80.541 0.987 8.468 0.987 8.468 0.147 -80.541
4717.208 0.144 -80.699 0.987 8.289 0.987 8.289 0.144 -80.699
4742.167 0.141 -80.854 0.987 8.111 0.987 8.111 0.141 -80.854
4767.125 0.138 -81.008 0.988 7.934 0.988 7.934 0.138 -81.008
4792.083 0.135 -81.16 0.988 7.757 0.988 7.757 0.135 -81.16
4817.042 0.132 -81.31 0.989 7.582 0.989 7.582 0.132 -81.31
4842 0.129 -81.458 0.989 7.408 0.989 7.408 0.129 -81.458
4866.958 0.126 -81.604 0.989 7.234 0.989 7.234 0.126 -81.604
4891.917 0.123 -81.748 0.99 7.062 0.99 7.062 0.123 -81.748
4916.875 0.12 -81.889 0.99 6.891 0.99 6.891 0.12 -81.889
4941.833 0.117 -82.029 0.991 6.72 0.991 6.72 0.117 -82.029
4966.792 0.114 -82.166 0.991 6.55 0.991 6.55 0.114 -82.166
4991.75 0.111 -82.3 0.991 6.382 0.991 6.382 0.111 -82.3
5016.708 0.108 -82.432 0.992 6.214 0.992 6.214 0.108 -82.432
5041.667 0.105 -82.561 0.992 6.047 0.992 6.047 0.105 -82.561
5066.625 0.102 -82.688 0.992 5.881 0.992 5.881 0.102 -82.688
5091.583 0.1 -82.811 0.992 5.715 0.992 5.715 0.1 -82.811
5116.542 0.097 -82.932 0.993 5.551 0.993 5.551 0.097 -82.932
5141.5 0.094 -83.049 0.993 5.387 0.993 5.387 0.094 -83.049
5166.458 0.091 -83.163 0.993 5.225 0.993 5.225 0.091 -83.163
5191.417 0.088 -83.273 0.994 5.063 0.994 5.063 0.088 -83.273
5216.375 0.085 -83.379 0.994 4.902 0.994 4.902 0.085 -83.379
5241.333 0.083 -83.481 0.994 4.741 0.994 4.741 0.083 -83.481
5266.292 0.08 -83.579 0.994 4.582 0.994 4.582 0.08 -83.579
5291.25 0.077 -83.671 0.994 4.423 0.994 4.423 0.077 -83.671
5316.208 0.074 -83.758 0.995 4.265 0.995 4.265 0.074 -83.758
5341.167 0.072 -83.839 0.995 4.108 0.995 4.108 0.072 -83.839
5366.125 0.069 -83.914 0.995 3.952 0.995 3.952 0.069 -83.914
5391.083 0.066 -83.982 0.995 3.796 0.995 3.796 0.066 -83.982
5416.042 0.064 -84.043 0.995 3.641 0.995 3.641 0.064 -84.043
5441 0.061 -84.094 0.996 3.487 0.996 3.487 0.061 -84.094
5465.958 0.058 -84.136 0.996 3.333 0.996 3.333 0.058 -84.136
5490.917 0.056 -84.167 0.996 3.181 0.996 3.181 0.056 -84.167
5515.875 0.053 -84.186 0.996 3.029 0.996 3.029 0.053 -84.186
5540.833 0.05 -84.191 0.996 2.877 0.996 2.877 0.05 -84.191
5565.792 0.048 -84.18 0.996 2.727 0.996 2.727 0.048 -84.18
5590.75 0.045 -84.15 0.996 2.577 0.996 2.577 0.045 -84.15
5615.708 0.042 -84.098 0.997 2.428 0.997 2.428 0.042 -84.098
5640.667 0.04 -84.02 0.997 2.279 0.997 2.279 0.04 -84.02
5665.625 0.037 -83.912 0.997 2.131 0.997 2.131 0.037 -83.912
5690.583 0.035 -83.766 0.997 1.984 0.997 1.984 0.035 -83.766
5715.542 0.032 -83.575 0.997 1.837 0.997 1.837 0.032 -83.575
5740.5 0.03 -83.327 0.997 1.691 0.997 1.691 0.03 -83.327
5765.458 0.027 -83.006 0.997 1.546 0.997 1.546 0.027 -83.006
5790.417 0.025 -82.593 0.997 1.401 0.997 1.401 0.025 -82.593
5815.375 0.022 -82.054 0.997 1.257 0.997 1.257 0.022 -82.054
5840.333 0.02 -81.346 0.997 1.114 0.997 1.114 0.02 -81.346
5865.292 0.017 -80.396 0.997 0.971 0.997 0.971 0.017 -80.396
5890.25 0.015 -79.086 0.997 0.829 0.997 0.829 0.015 -79.086
5915.208 0.012 -77.207 0.997 0.688 0.997 0.688 0.012 -77.207
5940.167 9.881e-3 -74.355 0.997 0.547 0.997 0.547 9.881e-3 -74.355
5965.125 7.543e-3 -69.643 0.997 0.406 0.997 0.406 7.543e-3 -69.643
5990.083 5.316e-3 -60.774 0.997 0.266 0.997 0.266 5.316e-3 -60.774
6015.042 3.4e-3 -40.674 0.997 0.127 0.997 0.127 3.4e-3 -40.674
6040 2.581e-3 4.374 0.997 -0.011 0.997 -0.011 2.581e-3 4.374
6064.958 3.663e-3 45.212 0.997 -0.149 0.997 -0.149 3.663e-3 45.212
6089.917 5.629e-3 62.502 0.997 -0.287 0.997 -0.287 5.629e-3 62.502
6114.875 7.831e-3 70.387 0.997 -0.424 0.997 -0.424 7.831e-3 70.387
6139.833 0.01 74.689 0.997 -0.56 0.997 -0.56 0.01 74.689
6164.792 0.012 77.339 0.997 -0.696 0.997 -0.696 0.012 77.339
6189.75 0.015 79.108 0.997 -0.831 0.997 -0.831 0.015 79.108
6214.708 0.017 80.354 0.997 -0.966 0.997 -0.966 0.017 80.354
6239.667 0.019 81.265 0.997 -1.1 0.997 -1.1 0.019 81.265
6264.625 0.022 81.951 0.997 -1.234 0.997 -1.234 0.022 81.951
6289.583 0.024 82.476 0.997 -1.367 0.997 -1.367 0.024 82.476
6314.542 0.026 82.885 0.997 -1.499 0.997 -1.499 0.026 82.885
6339.5 0.029 83.205 0.997 -1.632 0.997 -1.632 0.029 83.205
6364.458 0.031 83.457 0.997 -1.763 0.997 -1.763 0.031 83.457
6389.417 0.033 83.656 0.997 -1.894 0.997 -1.894 0.033 83.656
6414.375 0.035 83.811 0.997 -2.025 0.997 -2.025 0.035 83.811
6439.333 0.038 83.932 0.997 -2.155 0.997 -2.155 0.038 83.932
6464.292 0.04 84.024 0.997 -2.284 0.997 -2.284 0.04 84.024
6489.25 0.042 84.092 0.997 -2.414 0.997 -2.414 0.042 84.092
6514.208 0.044 84.14 0.996 -2.542 0.996 -2.542 0.044 84.14
6539.167 0.047 84.171 0.996 -2.67 0.996 -2.67 0.047 84.171
6564.125 0.049 84.187 0.996 -2.798 0.996 -2.798 0.049 84.187
6589.083 0.051 84.191 0.996 -2.925 0.996 -2.925 0.051 84.191
6614.042 0.053 84.184 0.996 -3.052 0.996 -3.052 0.053 84.184
6639 0.055 84.168 0.996 -3.178 0.996 -3.178 0.055 84.168
6663.958 0.058 84.143 0.996 -3.304 0.996 -3.304 0.058 84.143
6688.917 0.06 84.111 0.996 -3.429 0.996 -3.429 0.06 84.111
6713.875 0.062 84.073 0.996 -3.554 0.996 -3.554 0.062 84.073
6738.833 0.064 84.029 0.995 -3.679 0.995 -3.679 0.064 84.029
6763.792 0.066 83.98 0.995 -3.803 0.995 -3.803 0.066 83.98
6788.75 0.069 83.926 0.995 -3.926 0.995 -3.926 0.069 83.926
6813.708 0.071 83.868 0.995 -4.049 0.995 -4.049 0.071 83.868
6838.667 0.073 83.807 0.995 -4.172 0.995 -4.172 0.073 83.807
6863.625 0.075 83.743 0.995 -4.294 0.995 -4.294 0.075 83.743
6888.583 0.077 83.675 0.994 -4.416 0.994 -4.416 0.077 83.675
6913.542 0.079 83.605 0.994 -4.537 0.994 -4.537 0.079 83.605
6938.5 0.081 83.532 0.994 -4.658 0.994 -4.658 0.081 83.532
6963.458 0.083 83.458 0.994 -4.779 0.994 -4.779 0.083 83.458
6988.417 0.085 83.381 0.994 -4.899 0.994 -4.899 0.085 83.381
7013.375 0.088 83.302 0.994 -5.019 0.994 -5.019 0.088 83.302
7038.333 0.09 83.222 0.993 -5.138 0.993 -5.138 0.09 83.222
7063.292 0.092 83.14 0.993 -5.257 0.993 -5.257 0.092 83.14
7088.25 0.094 83.057 0.993 -5.376 0.993 -5.376 0.094 83.057
7113.208 0.096 82.973 0.993 -5.494 0.993 -5.494 0.096 82.973
7138.167 0.098 82.888 0.993 -5.612 0.993 -5.612 0.098 82.888
7163.125 0.1 82.801 0.992 -5.729 0.992 -5.729 0.1 82.801
7188.083 0.102 82.714 0.992 -5.846 0.992 -5.846 0.102 82.714
7213.042 0.104 82.626 0.992 -5.962 0.992 -5.962 0.104 82.626
7238 0.106 82.537 0.992 -6.079 0.992 -6.079 0.106 82.537
7262.958 0.108 82.447 0.992 -6.195 0.992 -6.195 0.108 82.447
7287.917 0.11 82.357 0.991 -6.31 0.991 -6.31 0.11 82.357
7312.875 0.112 82.266 0.991 -6.425 0.991 -6.425 0.112 82.266
7337.833 0.114 82.174 0.991 -6.54 0.991 -6.54 0.114 82.174
7362.792 0.116 82.082 0.991 -6.654 0.991 -6.654 0.116 82.082
7387.75 0.118 81.989 0.99 -6.768 0.99 -6.768 0.118 81.989
7412.708 0.12 81.897 0.99 -6.882 0.99 -6.882 0.12 81.897
7437.667 0.122 81.803 0.99 -6.995 0.99 -6.995 0.122 81.803
7462.625 0.124 81.71 0.99 -7.108 0.99 -7.108 0.124 81.71
7487.583 0.126 81.616 0.99 -7.22 0.99 -7.22 0.126 81.616
7512.542 0.128 81.521 0.989 -7.333 0.989 -7.333 0.128 81.521
7537.5 0.13 81.427 0.989 -7.444 0.989 -7.444 0.13 81.427
7562.458 0.132 81.332 0.989 -7.556 0.989 -7.556 0.132 81.332
7587.417 0.133 81.238 0.989 -7.667 0.989 -7.667 0.133 81.238
7612.375 0.135 81.143 0.988 -7.778 0.988 -7.778 0.135 81.143
7637.333 0.137 81.047 0.988 -7.888 0.988 -7.888 0.137 81.047
7662.292 0.139 80.952 0.988 -7.999 0.988 -7.999 0.139 80.952
7687.25 0.141 80.857 0.987 -8.108 0.987 -8.108 0.141 80.857
7712.208 0.143 80.761 0.987 -8.218 0.987 -8.218 0.143 80.761
7737.167 0.145 80.666 0.987 -8.327 0.987 -8.327 0.145 80.666
7762.125 0.147 80.57 0.987 -8.436 0.987 -8.436 0.147 80.57
7787.083 0.149 80.474 0.986 -8.544 0.986 -8.544 0.149 80.474
7812.042 0.15 80.378 0.986 -8.652 0.986 -8.652 0.15 80.378
7837 0.152 80.283 0.986 -8.76 0.986 -8.76 0.152 80.283
7861.958 0.154 80.187 0.986 -8.868 0.986 -8.868 0.154 80.187
7886.917 0.156 80.091 0.985 -8.975 0.985 -8.975 0.156 80.091
7911.875 0.158 79.995 0.985 -9.082 0.985 -9.082 0.158 79.995
7936.833 0.16 79.9 0.985 -9.189 0.985 -9.189 0.16 79.9
7961.792 0.162 79.804 0.984 -9.295 0.984 -9.295 0.162 79.804
7986.75 0.163 79.708 0.984 -9.401 0.984 -9.401 0.163 79.708
8011.708 0.165 79.613 0.984 -9.507 0.984 -9.507 0.165 79.613
8036.667 0.167 79.517 0.983 -9.612 0.983 -9.612 0.167 79.517
8061.625 0.169 79.422 0.983 -9.717 0.983 -9.717 0.169 79.422
8086.583 0.171 79.326 0.983 -9.822 0.983 -9.822 0.171 79.326
8111.542 0.172 79.231 0.982 -9.926 0.982 -9.926 0.172 79.231
8136.5 0.174 79.136 0.982 -10.03 0.982 -10.03 0.174 79.136
8161.458 0.176 79.041 0.982 -10.134 0.982 -10.134 0.176 79.041
8186.417 0.178 78.946 0.982 -10.238 0.982 -10.238 0.178 78.946
8211.375 0.18 78.851 0.981 -10.341 0.981 -10.341 0.18 78.851
