# MHZ S MA R 50

50 0.762 -40.341 0.647 49.605 0.647 49.605 0.762 -40.341
74.958 0.616 -51.897 0.787 38.021 0.787 38.021 0.616 -51.897
99.917 0.505 -59.587 0.862 30.305 0.862 30.305 0.505 -59.587
124.875 0.422 -64.903 0.906 24.961 0.906 24.961 0.422 -64.903
149.833 0.36 -68.743 0.932 21.092 0.932 21.092 0.36 -68.743
174.792 0.312 -71.627 0.949 18.18 0.949 18.18 0.312 -71.627
199.75 0.274 -73.864 0.961 15.913 0.961 15.913 0.274 -73.864
224.708 0.244 -75.649 0.969 14.098 0.969 14.098 0.244 -75.649
249.667 0.218 -77.104 0.975 12.612 0.975 12.612 0.218 -77.104
274.625 0.197 -78.313 0.979 11.371 0.979 11.371 0.197 -78.313
299.583 0.179 -79.334 0.983 10.317 0.983 10.317 0.179 -79.334
324.542 0.163 -80.208 0.985 9.409 0.985 9.409 0.163 -80.208
349.5 0.15 -80.964 0.988 8.617 0.988 8.617 0.15 -80.964
374.458 0.138 -81.624 0.989 7.919 0.989 7.919 0.138 -81.624
399.417 0.127 -82.206 0.991 7.298 0.991 7.298 0.127 -82.206
424.375 0.117 -82.722 0.992 6.74 0.992 6.74 0.117 -82.722
449.333 0.109 -83.182 0.993 6.236 0.993 6.236 0.109 -83.182
474.292 0.101 -83.595 0.994 5.777 0.994 5.777 0.101 -83.595
499.25 0.093 -83.966 0.995 5.356 0.995 5.356 0.093 -83.966
524.208 0.087 -84.301 0.995 4.968 0.995 4.968 0.087 -84.301
549.167 0.08 -84.603 0.996 4.609 0.996 4.609 0.08 -84.603
574.125 0.075 -84.875 0.996 4.275 0.996 4.275 0.075 -84.875
599.083 0.069 -85.121 0.997 3.962 0.997 3.962 0.069 -85.121
624.042 0.064 -85.34 0.997 3.669 0.997 3.669 0.064 -85.34
649 0.059 -85.536 0.997 3.393 0.997 3.393 0.059 -85.536
673.958 0.055 -85.707 0.997 3.132 0.997 3.132 0.055 -85.707
698.917 0.05 -85.855 0.998 2.885 0.998 2.885 0.05 -85.855
723.875 0.046 -85.978 0.998 2.649 0.998 2.649 0.046 -85.978
748.833 0.042 -86.075 0.998 2.425 0.998 2.425 0.042 -86.075
773.792 0.039 -86.144 0.998 2.211 0.998 2.211 0.039 -86.144
798.75 0.035 -86.181 0.998 2.006 0.998 2.006 0.035 -86.181
823.708 0.032 -86.18 0.998 1.809 0.998 1.809 0.032 -86.18
848.667 0.028 -86.134 0.998 1.619 0.998 1.619 0.028 -86.134
873.625 0.025 -86.032 0.999 1.436 0.999 1.436 0.025 -86.032
898.583 0.022 -85.854 0.999 1.26 0.999 1.26 0.022 -85.854
923.542 0.019 -85.573 0.999 1.089 0.999 1.089 0.019 -85.573
948.5 0.016 -85.143 0.999 0.924 0.999 0.924 0.016 -85.143
973.458 0.013 -84.48 0.999 0.764 0.999 0.764 0.013 -84.48
998.417 0.011 -83.424 0.999 0.608 0.999 0.608 0.011 -83.424
1023.375 8.036e-3 -81.613 0.999 0.456 0.999 0.456 8.036e-3 -81.613
1048.333 5.493e-3 -78.047 0.999 0.308 0.999 0.308 5.493e-3 -78.047
1073.292 3.072e-3 -68.679 0.999 0.164 0.999 0.164 3.072e-3 -68.679
1098.25 1.182e-3 -20.246 0.999 0.023 0.999 0.023 1.182e-3 -20.246
1123.208 2.279e-3 60.769 0.999 -0.114 0.999 -0.114 2.279e-3 60.769
1148.167 4.479e-3 75.417 0.999 -0.249 0.999 -0.249 4.479e-3 75.417
1173.125 6.731e-3 80.138 0.999 -0.38 0.999 -0.38 6.731e-3 80.138
1198.083 8.963e-3 82.384 0.999 -0.51 0.999 -0.51 8.963e-3 82.384
1223.042 0.011 83.662 0.999 -0.636 0.999 -0.636 0.011 83.662
1248 0.013 84.466 0.999 -0.761 0.999 -0.761 0.013 84.466
1272.958 0.015 85.002 0.999 -0.883 0.999 -0.883 0.015 85.002
1297.917 0.018 85.373 0.999 -1.003 0.999 -1.003 0.018 85.373
1322.875 0.02 85.636 0.999 -1.121 0.999 -1.121 0.02 85.636
1347.833 0.022 85.825 0.999 -1.238 0.999 -1.238 0.022 85.825
1372.792 0.024 85.959 0.999 -1.353 0.999 -1.353 0.024 85.959
1397.75 0.026 86.053 0.999 -1.466 0.999 -1.466 0.026 86.053
1422.708 0.028 86.117 0.999 -1.577 0.999 -1.577 0.028 86.117
1447.667 0.029 86.157 0.998 -1.687 0.998 -1.687 0.029 86.157
1472.625 0.031 86.179 0.998 -1.796 0.998 -1.796 0.031 86.179
1497.583 0.033 86.186 0.998 -1.903 0.998 -1.903 0.033 86.186
1522.542 0.035 86.18 0.998 -2.009 0.998 -2.009 0.035 86.18
1547.5 0.037 86.165 0.998 -2.114 0.998 -2.114 0.037 86.165
1572.458 0.039 86.142 0.998 -2.218 0.998 -2.218 0.039 86.142
1597.417 0.041 86.112 0.998 -2.321 0.998 -2.321 0.041 86.112
1622.375 0.042 86.076 0.998 -2.422 0.998 -2.422 0.042 86.076
1647.333 0.044 86.035 0.998 -2.523 0.998 -2.523 0.044 86.035
1672.292 0.046 85.991 0.998 -2.622 0.998 -2.622 0.046 85.991
1697.25 0.047 85.942 0.998 -2.721 0.998 -2.721 0.047 85.942
1722.208 0.049 85.891 0.998 -2.819 0.998 -2.819 0.049 85.891
1747.167 0.051 85.837 0.998 -2.916 0.998 -2.916 0.051 85.837
1772.125 0.053 85.781 0.998 -3.012 0.998 -3.012 0.053 85.781
1797.083 0.054 85.722 0.997 -3.108 0.997 -3.108 0.054 85.722
1822.042 0.056 85.662 0.997 -3.202 0.997 -3.202 0.056 85.662
1847 0.058 85.601 0.997 -3.296 0.997 -3.296 0.058 85.601
1871.958 0.059 85.538 0.997 -3.39 0.997 -3.39 0.059 85.538
1896.917 0.061 85.474 0.997 -3.482 0.997 -3.482 0.061 85.474
1921.875 0.062 85.409 0.997 -3.574 0.997 -3.574 0.062 85.409
1946.833 0.064 85.343 0.997 -3.666 0.997 -3.666 0.064 85.343
1971.792 0.066 85.276 0.997 -3.757 0.997 -3.757 0.066 85.276
1996.75 0.067 85.208 0.997 -3.847 0.997 -3.847 0.067 85.208
2021.708 0.069 85.14 0.997 -3.937 0.997 -3.937 0.069 85.14
2046.667 0.07 85.071 0.996 -4.026 0.996 -4.026 0.07 85.071
2071.625 0.072 85.002 0.996 -4.115 0.996 -4.115 0.072 85.002
2096.583 0.073 84.933 0.996 -4.203 0.996 -4.203 0.073 84.933
2121.542 0.075 84.863 0.996 -4.29 0.996 -4.29 0.075 84.863
2146.5 0.076 84.792 0.996 -4.378 0.996 -4.378 0.076 84.792
2171.458 0.078 84.722 0.996 -4.465 0.996 -4.465 0.078 84.722
2196.417 0.079 84.651 0.996 -4.551 0.996 -4.551 0.079 84.651
2221.375 0.081 84.58 0.996 -4.637 0.996 -4.637 0.081 84.58
2246.333 0.082 84.508 0.996 -4.722 0.996 -4.722 0.082 84.508
2271.292 0.084 84.437 0.995 -4.808 0.995 -4.808 0.084 84.437
2296.25 0.085 84.365 0.995 -4.892 0.995 -4.892 0.085 84.365
2321.208 0.087 84.294 0.995 -4.977 0.995 -4.977 0.087 84.294
2346.167 0.088 84.222 0.995 -5.061 0.995 -5.061 0.088 84.222
2371.125 0.09 84.15 0.995 -5.145 0.995 -5.145 0.09 84.15
2396.083 0.091 84.078 0.995 -5.228 0.995 -5.228 0.091 84.078
2421.042 0.093 84.005 0.995 -5.311 0.995 -5.311 0.093 84.005
2446 0.094 83.933 0.994 -5.394 0.994 -5.394 0.094 83.933
2470.958 0.095 83.861 0.994 -5.476 0.994 -5.476 0.095 83.861
2495.917 0.097 83.789 0.994 -5.559 0.994 -5.559 0.097 83.789
2520.875 0.098 83.716 0.994 -5.64 0.994 -5.64 0.098 83.716
2545.833 0.1 83.644 0.994 -5.722 0.994 -5.722 0.1 83.644
2570.792 0.101 83.571 0.994 -5.803 0.994 -5.803 0.101 83.571
2595.75 0.103 83.499 0.994 -5.884 0.994 -5.884 0.103 83.499
2620.708 0.104 83.427 0.993 -5.965 0.993 -5.965 0.104 83.427
2645.667 0.105 83.354 0.993 -6.046 0.993 -6.046 0.105 83.354
2670.625 0.107 83.282 0.993 -6.126 0.993 -6.126 0.107 83.282
2695.583 0.108 83.21 0.993 -6.206 0.993 -6.206 0.108 83.21
2720.542 0.109 83.137 0.993 -6.286 0.993 -6.286 0.109 83.137
2745.5 0.111 83.065 0.993 -6.365 0.993 -6.365 0.111 83.065
2770.458 0.112 82.993 0.993 -6.445 0.993 -6.445 0.112 82.993
2795.417 0.114 82.921 0.992 -6.524 0.992 -6.524 0.114 82.921
2820.375 0.115 82.848 0.992 -6.603 0.992 -6.603 0.115 82.848
2845.333 0.116 82.776 0.992 -6.682 0.992 -6.682 0.116 82.776
2870.292 0.118 82.704 0.992 -6.76 0.992 -6.76 0.118 82.704
2895.25 0.119 82.632 0.992 -6.838 0.992 -6.838 0.119 82.632
2920.208 0.12 82.56 0.992 -6.916 0.992 -6.916 0.12 82.56
2945.167 0.122 82.488 0.991 -6.994 0.991 -6.994 0.122 82.488
2970.125 0.123 82.416 0.991 -7.072 0.991 -7.072 0.123 82.416
2995.083 0.124 82.344 0.991 -7.15 0.991 -7.15 0.124 82.344
3020.042 0.126 82.272 0.991 -7.227 0.991 -7.227 0.126 82.272
3045 0.127 82.2 0.991 -7.304 0.991 -7.304 0.127 82.2
3069.958 0.128 82.128 0.991 -7.381 0.991 -7.381 0.128 82.128
3094.917 0.13 82.057 0.99 -7.458 0.99 -7.458 0.13 82.057
3119.875 0.131 81.985 0.99 -7.535 0.99 -7.535 0.131 81.985
3144.833 0.132 81.913 0.99 -7.611 0.99 -7.611 0.132 81.913
3169.792 0.134 81.842 0.99 -7.687 0.99 -7.687 0.134 81.842
3194.75 0.135 81.77 0.99 -7.764 0.99 -7.764 0.135 81.77
3219.708 0.136 81.699 0.99 -7.84 0.99 -7.84 0.136 81.699
3244.667 0.138 81.627 0.989 -7.916 0.989 -7.916 0.138 81.627
3269.625 0.139 81.556 0.989 -7.991 0.989 -7.991 0.139 81.556
3294.583 0.14 81.485 0.989 -8.067 0.989 -8.067 0.14 81.485
3319.542 0.142 81.414 0.989 -8.142 0.989 -8.142 0.142 81.414
3344.5 0.143 81.342 0.989 -8.218 0.989 -8.218 0.143 81.342
3369.458 0.144 81.271 0.988 -8.293 0.988 -8.293 0.144 81.271
3394.417 0.146 81.2 0.988 -8.368 0.988 -8.368 0.146 81.2
3419.375 0.147 81.129 0.988 -8.443 0.988 -8.443 0.147 81.129
3444.333 0.148 81.058 0.988 -8.517 0.988 -8.517 0.148 81.058
3469.292 0.149 80.987 0.988 -8.592 0.988 -8.592 0.149 80.987
3494.25 0.151 80.917 0.987 -8.667 0.987 -8.667 0.151 80.917
3519.208 0.152 80.846 0.987 -8.741 0.987 -8.741 0.152 80.846
3544.167 0.153 80.775 0.987 -8.815 0.987 -8.815 0.153 80.775
3569.125 0.155 80.704 0.987 -8.889 0.987 -8.889 0.155 80.704
3594.083 0.156 80.634 0.987 -8.963 0.987 -8.963 0.156 80.634
3619.042 0.157 80.563 0.986 -9.037 0.986 -9.037 0.157 80.563
3644 0.158 80.493 0.986 -9.111 0.986 -9.111 0.158 80.493
3668.958 0.16 80.422 0.986 -9.185 0.986 -9.185 0.16 80.422
3693.917 0.161 80.352 0.986 -9.258 0.986 -9.258 0.161 80.352
3718.875 0.162 80.282 0.986 -9.332 0.986 -9.332 0.162 80.282
3743.833 0.163 80.211 0.985 -9.405 0.985 -9.405 0.163 80.211
3768.792 0.165 80.141 0.985 -9.478 0.985 -9.478 0.165 80.141
3793.75 0.166 80.071 0.985 -9.551 0.985 -9.551 0.166 80.071
3818.708 0.167 80.001 0.985 -9.624 0.985 -9.624 0.167 80.001
3843.667 0.168 79.931 0.985 -9.697 0.985 -9.697 0.168 79.931
3868.625 0.17 79.861 0.984 -9.77 0.984 -9.77 0.17 79.861
3893.583 0.171 79.791 0.984 -9.843 0.984 -9.843 0.171 79.791
3918.542 0.172 79.721 0.984 -9.915 0.984 -9.915 0.172 79.721
3943.5 0.173 79.651 0.984 -9.988 0.984 -9.988 0.173 79.651
3968.458 0.175 79.582 0.984 -10.06 0.984 -10.06 0.175 79.582
3993.417 0.176 79.512 0.983 -10.133 0.983 -10.133 0.176 79.512
4018.375 0.177 79.442 0.983 -10.205 0.983 -10.205 0.177 79.442
4043.333 0.178 79.373 0.983 -10.277 0.983 -10.277 0.178 79.373
4068.292 0.18 79.303 0.983 -10.349 0.983 -10.349 0.18 79.303
4093.25 0.181 79.234 0.982 -10.421 0.982 -10.421 0.181 79.234
4118.208 0.182 79.164 0.982 -10.493 0.982 -10.493 0.182 79.164
4143.167 0.183 79.095 0.982 -10.564 0.982 -10.564 0.183 79.095
4168.125 0.185 79.026 0.982 -10.636 0.982 -10.636 0.185 79.026
4193.083 0.186 78.956 0.981 -10.708 0.981 -10.708 0.186 78.956
4218.042 0.187 78.887 0.981 -10.779 0.981 -10.779 0.187 78.887
4243 0.188 78.818 0.981 -10.85 0.981 -10.85 0.188 78.818
4267.958 0.189 78.749 0.981 -10.922 0.981 -10.922 0.189 78.749
4292.917 0.191 78.68 0.981 -10.993 0.981 -10.993 0.191 78.68
4317.875 0.192 78.611 0.98 -11.064 0.98 -11.064 0.192 78.611
4342.833 0.193 78.542 0.98 -11.135 0.98 -11.135 0.193 78.542
4367.792 0.194 78.473 0.98 -11.206 0.98 -11.206 0.194 78.473
4392.75 0.196 78.405 0.98 -11.277 0.98 -11.277 0.196 78.405
4417.708 0.197 78.336 0.979 -11.348 0.979 -11.348 0.197 78.336
4442.667 0.198 78.267 0.979 -11.418 0.979 -11.418 0.198 78.267
4467.625 0.199 78.198 0.979 -11.489 0.979 -11.489 0.199 78.198
4492.583 0.2 78.13 0.979 -11.559 0.979 -11.559 0.2 78.13
4517.542 0.202 78.061 0.978 -11.63 0.978 -11.63 0.202 78.061
4542.5 0.203 77.993 0.978 -11.7 0.978 -11.7 0.203 77.993
4567.458 0.204 77.924 0.978 -11.771 0.978 -11.771 0.204 77.924
4592.417 0.205 77.856 0.978 -11.841 0.978 -11.841 0.205 77.856
4617.375 0.206 77.788 0.977 -11.911 0.977 -11.911 0.206 77.788
4642.333 0.208 77.72 0.977 -11.981 0.977 -11.981 0.208 77.72
4667.292 0.209 77.651 0.977 -12.051 0.977 -12.051 0.209 77.651
4692.25 0.21 77.583 0.977 -12.121 0.977 -12.121 0.21 77.583
4717.208 0.211 77.515 0.976 -12.191 0.976 -12.191 0.211 77.515
4742.167 0.212 77.447 0.976 -12.261 0.976 -12.261 0.212 77.447
4767.125 0.214 77.379 0.976 -12.33 0.976 -12.33 0.214 77.379
4792.083 0.215 77.311 0.976 -12.4 0.976 -12.4 0.215 77.311
4817.042 0.216 77.243 0.975 -12.469 0.975 -12.469 0.216 77.243
4842 0.217 77.175 0.975 -12.539 0.975 -12.539 0.217 77.175
4866.958 0.218 77.108 0.975 -12.608 0.975 -12.608 0.218 77.108
4891.917 0.219 77.04 0.975 -12.678 0.975 -12.678 0.219 77.04
4916.875 0.221 76.972 0.974 -12.747 0.974 -12.747 0.221 76.972
4941.833 0.222 76.905 0.974 -12.816 0.974 -12.816 0.222 76.905
4966.792 0.223 76.837 0.974 -12.885 0.974 -12.885 0.223 76.837
4991.75 0.224 76.77 0.973 -12.954 0.973 -12.954 0.224 76.77
5016.708 0.225 76.702 0.973 -13.023 0.973 -13.023 0.225 76.702
5041.667 0.227 76.635 0.973 -13.092 0.973 -13.092 0.227 76.635
5066.625 0.228 76.567 0.973 -13.161 0.973 -13.161 0.228 76.567
5091.583 0.229 76.5 0.972 -13.23 0.972 -13.23 0.229 76.5
5116.542 0.23 76.433 0.972 -13.298 0.972 -13.298 0.23 76.433
5141.5 0.231 76.366 0.972 -13.367 0.972 -13.367 0.231 76.366
5166.458 0.232 76.299 0.972 -13.435 0.972 -13.435 0.232 76.299
5191.417 0.234 76.231 0.971 -13.504 0.971 -13.504 0.234 76.231
5216.375 0.235 76.164 0.971 -13.572 0.971 -13.572 0.235 76.164
5241.333 0.236 76.097 0.971 -13.641 0.971 -13.641 0.236 76.097
5266.292 0.237 76.03 0.97 -13.709 0.97 -13.709 0.237 76.03
5291.25 0.238 75.964 0.97 -13.777 0.97 -13.777 0.238 75.964
5316.208 0.239 75.897 0.97 -13.845 0.97 -13.845 0.239 75.897
5341.167 0.24 75.83 0.97 -13.913 0.97 -13.913 0.24 75.83
5366.125 0.242 75.763 0.969 -13.982 0.969 -13.982 0.242 75.763
5391.083 0.243 75.697 0.969 -14.049 0.969 -14.049 0.243 75.697
5416.042 0.244 75.63 0.969 -14.117 0.969 -14.117 0.244 75.63
5441 0.245 75.563 0.968 -14.185 0.968 -14.185 0.245 75.563
5465.958 0.246 75.497 0.968 -14.253 0.968 -14.253 0.246 75.497
5490.917 0.247 75.43 0.968 -14.321 0.968 -14.321 0.247 75.43
5515.875 0.248 75.364 0.968 -14.388 0.968 -14.388 0.248 75.364
5540.833 0.25 75.298 0.967 -14.456 0.967 -14.456 0.25 75.298
5565.792 0.251 75.231 0.967 -14.523 0.967 -14.523 0.251 75.231
5590.75 0.252 75.165 0.967 -14.591 0.967 -14.591 0.252 75.165
5615.708 0.253 75.099 0.966 -14.658 0.966 -14.658 0.253 75.099
5640.667 0.254 75.033 0.966 -14.725 0.966 -14.725 0.254 75.033
5665.625 0.255 74.967 0.966 -14.793 0.966 -14.793 0.255 74.967
5690.583 0.256 74.901 0.965 -14.86 0.965 -14.86 0.256 74.901
5715.542 0.258 74.835 0.965 -14.927 0.965 -14.927 0.258 74.835
5740.5 0.259 74.769 0.965 -14.994 0.965 -14.994 0.259 74.769
5765.458 0.26 74.703 0.965 -15.061 0.965 -15.061 0.26 74.703
5790.417 0.261 74.637 0.964 -15.128 0.964 -15.128 0.261 74.637
5815.375 0.262 74.571 0.964 -15.195 0.964 -15.195 0.262 74.571
5840.333 0.263 74.506 0.964 -15.262 0.964 -15.262 0.263 74.506
5865.292 0.264 74.44 0.963 -15.328 0.963 -15.328 0.264 74.44
5890.25 0.265 74.374 0.963 -15.395 0.963 -15.395 0.265 74.374
5915.208 0.267 74.309 0.963 -15.462 0.963 -15.462 0.267 74.309
5940.167 0.268 74.243 0.962 -15.528 0.962 -15.528 0.268 74.243
5965.125 0.269 74.178 0.962 -15.595 0.962 -15.595 0.269 74.178
5990.083 0.27 74.112 0.962 -15.661 0.962 -15.661 0.27 74.112
6015.042 0.271 74.047 0.961 -15.727 0.961 -15.727 0.271 74.047
6040 0.272 73.982 0.961 -15.794 0.961 -15.794 0.272 73.982
6064.958 0.273 73.916 0.961 -15.86 0.961 -15.86 0.273 73.916
6089.917 0.274 73.851 0.961 -15.926 0.961 -15.926 0.274 73.851
6114.875 0.276 73.786 0.96 -15.992 0.96 -15.992 0.276 73.786
6139.833 0.277 73.721 0.96 -16.058 0.96 -16.058 0.277 73.721
6164.792 0.278 73.656 0.96 -16.124 0.96 -16.124 0.278 73.656
6189.75 0.279 73.591 0.959 -16.19 0.959 -16.19 0.279 73.591
6214.708 0.28 73.526 0.959 -16.256 0.959 -16.256 0.28 73.526
6239.667 0.281 73.461 0.959 -16.322 0.959 -16.322 0.281 73.461
6264.625 0.282 73.396 0.958 -16.388 0.958 -16.388 0.282 73.396
6289.583 0.283 73.331 0.958 -16.454 0.958 -16.454 0.283 73.331
6314.542 0.284 73.267 0.958 -16.519 0.958 -16.519 0.284 73.267
6339.5 0.285 73.202 0.957 -16.585 0.957 -16.585 0.285 73.202
6364.458 0.287 73.137 0.957 -16.65 0.957 -16.65 0.287 73.137
6389.417 0.288 73.073 0.957 -16.716 0.957 -16.716 0.288 73.073
6414.375 0.289 73.008 0.956 -16.781 0.956 -16.781 0.289 73.008
6439.333 0.29 72.944 0.956 -16.847 0.956 -16.847 0.29 72.944
6464.292 0.291 72.879 0.956 -16.912 0.956 -16.912 0.291 72.879
6489.25 0.292 72.815 0.955 -16.977 0.955 -16.977 0.292 72.815
6514.208 0.293 72.75 0.955 -17.042 0.955 -17.042 0.293 72.75
6539.167 0.294 72.686 0.955 -17.107 0.955 -17.107 0.294 72.686
6564.125 0.295 72.622 0.954 -17.172 0.954 -17.172 0.295 72.622
6589.083 0.296 72.558 0.954 -17.237 0.954 -17.237 0.296 72.558
6614.042 0.297 72.494 0.954 -17.302 0.954 -17.302 0.297 72.494
6639 0.298 72.43 0.953 -17.367 0.953 -17.367 0.298 72.43
6663.958 0.3 72.366 0.953 -17.432 0.953 -17.432 0.3 72.366
6688.917 0.301 72.302 0.953 -17.497 0.953 -17.497 0.301 72.302
6713.875 0.302 72.238 0.952 -17.561 0.952 -17.561 0.302 72.238
6738.833 0.303 72.174 0.952 -17.626 0.952 -17.626 0.303 72.174
6763.792 0.304 72.11 0.952 -17.691 0.952 -17.691 0.304 72.11
6788.75 0.305 72.046 0.951 -17.755 0.951 -17.755 0.305 72.046
6813.708 0.306 71.983 0.951 -17.82 0.951 -17.82 0.306 71.983
6838.667 0.307 71.919 0.951 -17.884 0.951 -17.884 0.307 71.919
6863.625 0.308 71.855 0.95 -17.948 0.95 -17.948 0.308 71.855
6888.583 0.309 71.792 0.95 -18.013 0.95 -18.013 0.309 71.792
6913.542 0.31 71.728 0.95 -18.077 0.95 -18.077 0.31 71.728
6938.5 0.311 71.665 0.949 -18.141 0.949 -18.141 0.311 71.665
6963.458 0.312 71.602 0.949 -18.205 0.949 -18.205 0.312 71.602
6988.417 0.313 71.538 0.949 -18.269 0.949 -18.269 0.313 71.538
7013.375 0.315 71.475 0.948 -18.333 0.948 -18.333 0.315 71.475
7038.333 0.316 71.412 0.948 -18.397 0.948 -18.397 0.316 71.412
7063.292 0.317 71.349 0.947 -18.461 0.947 -18.461 0.317 71.349
7088.25 0.318 71.285 0.947 -18.525 0.947 -18.525 0.318 71.285
7113.208 0.319 71.222 0.947 -18.589 0.947 -18.589 0.319 71.222
7138.167 0.32 71.159 0.946 -18.652 0.946 -18.652 0.32 71.159
7163.125 0.321 71.096 0.946 -18.716 0.946 -18.716 0.321 71.096
7188.083 0.322 71.034 0.946 -18.78 0.946 -18.78 0.322 71.034
7213.042 0.323 70.971 0.945 -18.843 0.945 -18.843 0.323 70.971
7238 0.324 70.908 0.945 -18.907 0.945 -18.907 0.324 70.908
7262.958 0.325 70.845 0.945 -18.97 0.945 -18.97 0.325 70.845
7287.917 0.326 70.782 0.944 -19.033 0.944 -19.033 0.326 70.782
7312.875 0.327 70.72 0.944 -19.097 0.944 -19.097 0.327 70.72
7337.833 0.328 70.657 0.944 -19.16 0.944 -19.16 0.328 70.657
7362.792 0.329 70.595 0.943 -19.223 0.943 -19.223 0.329 70.595
7387.75 0.33 70.532 0.943 -19.286 0.943 -19.286 0.33 70.532
7412.708 0.331 70.47 0.942 -19.349 0.942 -19.349 0.331 70.47
7437.667 0.332 70.407 0.942 -19.412 0.942 -19.412 0.332 70.407
7462.625 0.333 70.345 0.942 -19.475 0.942 -19.475 0.333 70.345
7487.583 0.334 70.283 0.941 -19.538 0.941 -19.538 0.334 70.283
7512.542 0.335 70.221 0.941 -19.601 0.941 -19.601 0.335 70.221
7537.5 0.336 70.158 0.941 -19.664 0.941 -19.664 0.336 70.158
7562.458 0.338 70.096 0.94 -19.726 0.94 -19.726 0.338 70.096
7587.417 0.339 70.034 0.94 -19.789 0.94 -19.789 0.339 70.034
7612.375 0.34 69.972 0.94 -19.852 0.94 -19.852 0.34 69.972
7637.333 0.341 69.91 0.939 -19.914 0.939 -19.914 0.341 69.91
7662.292 0.342 69.849 0.939 -19.977 0.939 -19.977 0.342 69.849
7687.25 0.343 69.787 0.938 -20.039 0.938 -20.039 0.343 69.787
7712.208 0.344 69.725 0.938 -20.101 0.938 -20.101 0.344 69.725
7737.167 0.345 69.663 0.938 -20.164 0.938 -20.164 0.345 69.663
7762.125 0.346 69.601 0.937 -20.226 0.937 -20.226 0.346 69.601
7787.083 0.347 69.54 0.937 -20.288 0.937 -20.288 0.347 69.54
7812.042 0.348 69.478 0.937 -20.35 0.937 -20.35 0.348 69.478
7837 0.349 69.417 0.936 -20.412 0.936 -20.412 0.349 69.417
7861.958 0.35 69.355 0.936 -20.474 0.936 -20.474 0.35 69.355
7886.917 0.351 69.294 0.935 -20.536 0.935 -20.536 0.351 69.294
7911.875 0.352 69.233 0.935 -20.598 0.935 -20.598 0.352 69.233
7936.833 0.353 69.171 0.935 -20.66 0.935 -20.66 0.353 69.171
7961.792 0.354 69.11 0.934 -20.722 0.934 -20.722 0.354 69.11
7986.75 0.355 69.049 0.934 -20.784 0.934 -20.784 0.355 69.049
8011.708 0.356 68.988 0.934 -20.845 0.934 -20.845 0.356 68.988
8036.667 0.357 68.927 0.933 -20.907 0.933 -20.907 0.357 68.927
8061.625 0.358 68.866 0.933 -20.969 0.933 -20.969 0.358 68.866
8086.583 0.359 68.805 0.932 -21.03 0.932 -21.03 0.359 68.805
8111.542 0.36 68.744 0.932 -21.092 0.932 -21.092 0.36 68.744
8136.5 0.361 68.683 0.932 -21.153 0.932 -21.153 0.361 68.683
8161.458 0.362 68.622 0.931 -21.214 0.931 -21.214 0.362 68.622
8186.417 0.363 68.561 0.931 -21.276 0.931 -21.276 0.363 68.561
