# MHZ S MA R 50

50 0.995 -5.92 0.103 84.07 0.103 84.07 0.995 -5.92
74.958 0.988 -8.839 0.154 81.147 0.154 81.147 0.988 -8.839
99.917 0.979 -11.715 0.203 78.266 0.203 78.266 0.979 -11.715
124.875 0.968 -14.537 0.251 75.44 0.251 75.44 0.968 -14.537
149.833 0.955 -17.293 0.297 72.679 0.297 72.679 0.955 -17.293
174.792 0.94 -19.974 0.342 69.993 0.342 69.993 0.94 -19.974
199.75 0.923 -22.574 0.384 67.388 0.384 67.388 0.923 -22.574
224.708 0.905 -25.086 0.424 64.872 0.424 64.872 0.905 -25.086
249.667 0.887 -27.507 0.462 62.446 0.462 62.446 0.887 -27.507
274.625 0.867 -29.834 0.497 60.115 0.497 60.115 0.867 -29.834
299.583 0.847 -32.065 0.531 57.878 0.531 57.878 0.847 -32.065
324.542 0.826 -34.202 0.562 55.737 0.562 55.737 0.826 -34.202
349.5 0.806 -36.244 0.591 53.69 0.591 53.69 0.806 -36.244
374.458 0.785 -38.195 0.618 51.734 0.618 51.734 0.785 -38.195
399.417 0.765 -40.056 0.644 49.869 0.644 49.869 0.765 -40.056
424.375 0.744 -41.83 0.667 48.089 0.667 48.089 0.744 -41.83
449.333 0.724 -43.521 0.689 46.394 0.689 46.394 0.724 -43.521
474.292 0.704 -45.132 0.709 44.778 0.709 44.778 0.704 -45.132
499.25 0.685 -46.667 0.727 43.238 0.727 43.238 0.685 -46.667
524.208 0.666 -48.129 0.745 41.77 0.745 41.77 0.666 -48.129
549.167 0.648 -49.523 0.761 40.371 0.761 40.371 0.648 -49.523
574.125 0.63 -50.851 0.776 39.038 0.776 39.038 0.63 -50.851
599.083 0.612 -52.118 0.789 37.766 0.789 37.766 0.612 -52.118
624.042 0.596 -53.327 0.802 36.552 0.802 36.552 0.596 -53.327
649 0.579 -54.48 0.814 35.393 0.814 35.393 0.579 -54.48
673.958 0.563 -55.582 0.825 34.286 0.825 34.286 0.563 -55.582
698.917 0.548 -56.635 0.835 33.228 0.835 33.228 0.548 -56.635
723.875 0.533 -57.642 0.845 32.215 0.845 32.215 0.533 -57.642
748.833 0.519 -58.606 0.854 31.246 0.854 31.246 0.519 -58.606
773.792 0.505 -59.528 0.862 30.318 0.862 30.318 0.505 -59.528
798.75 0.491 -60.412 0.87 29.428 0.87 29.428 0.491 -60.412
823.708 0.478 -61.26 0.877 28.575 0.877 28.575 0.478 -61.26
848.667 0.466 -62.074 0.884 27.755 0.884 27.755 0.466 -62.074
873.625 0.453 -62.855 0.89 26.968 0.89 26.968 0.453 -62.855
898.583 0.442 -63.606 0.896 26.211 0.896 26.211 0.442 -63.606
923.542 0.43 -64.328 0.901 25.483 0.901 25.483 0.43 -64.328
948.5 0.419 -65.024 0.906 24.782 0.906 24.782 0.419 -65.024
973.458 0.408 -65.693 0.911 24.106 0.911 24.106 0.408 -65.693
998.417 0.398 -66.338 0.916 23.455 0.916 23.455 0.398 -66.338
1023.375 0.388 -66.96 0.92 22.827 0.92 22.827 0.388 -66.96
1048.333 0.378 -67.56 0.924 22.22 0.924 22.22 0.378 -67.56
1073.292 0.369 -68.14 0.928 21.633 0.928 21.633 0.369 -68.14
1098.25 0.359 -68.7 0.932 21.066 0.932 21.066 0.359 -68.7
1123.208 0.351 -69.242 0.935 20.518 0.935 20.518 0.351 -69.242
1148.167 0.342 -69.766 0.938 19.987 0.938 19.987 0.342 -69.766
1173.125 0.333 -70.273 0.941 19.473 0.941 19.473 0.333 -70.273
1198.083 0.325 -70.765 0.944 18.974 0.944 18.974 0.325 -70.765
1223.042 0.317 -71.241 0.947 18.49 0.947 18.49 0.317 -71.241
1248 0.309 -71.703 0.949 18.021 0.949 18.021 0.309 -71.703
1272.958 0.302 -72.151 0.952 17.565 0.952 17.565 0.302 -72.151
1297.917 0.294 -72.586 0.954 17.122 0.954 17.122 0.294 -72.586
1322.875 0.287 -73.009 0.956 16.692 0.956 16.692 0.287 -73.009
1347.833 0.28 -73.42 0.958 16.273 0.958 16.273 0.28 -73.42
1372.792 0.273 -73.819 0.96 15.865 0.96 15.865 0.273 -73.819
1397.75 0.267 -74.207 0.962 15.468 0.962 15.468 0.267 -74.207
1422.708 0.26 -74.585 0.964 15.081 0.964 15.081 0.26 -74.585
1447.667 0.254 -74.953 0.966 14.704 0.966 14.704 0.254 -74.953
1472.625 0.248 -75.312 0.967 14.337 0.967 14.337 0.248 -75.312
1497.583 0.242 -75.661 0.969 13.978 0.969 13.978 0.242 -75.661
1522.542 0.236 -76.002 0.97 13.628 0.97 13.628 0.236 -76.002
1547.5 0.23 -76.334 0.972 13.286 0.972 13.286 0.23 -76.334
1572.458 0.224 -76.658 0.973 12.951 0.973 12.951 0.224 -76.658
1597.417 0.219 -76.974 0.974 12.625 0.974 12.625 0.219 -76.974
1622.375 0.213 -77.283 0.975 12.305 0.975 12.305 0.213 -77.283
1647.333 0.208 -77.584 0.977 11.993 0.977 11.993 0.208 -77.584
1672.292 0.203 -77.879 0.978 11.687 0.978 11.687 0.203 -77.879
1697.25 0.197 -78.166 0.979 11.387 0.979 11.387 0.197 -78.166
1722.208 0.192 -78.448 0.98 11.094 0.98 11.094 0.192 -78.448
1747.167 0.188 -78.723 0.981 10.807 0.981 10.807 0.188 -78.723
1772.125 0.183 -78.992 0.982 10.525 0.982 10.525 0.183 -78.992
1797.083 0.178 -79.254 0.983 10.249 0.983 10.249 0.178 -79.254
1822.042 0.173 -79.512 0.983 9.978 0.983 9.978 0.173 -79.512
1847 0.169 -79.763 0.984 9.712 0.984 9.712 0.169 -79.763
1871.958 0.164 -80.01 0.985 9.451 0.985 9.451 0.164 -80.01
1896.917 0.16 -80.251 0.986 9.194 0.986 9.194 0.16 -80.251
1921.875 0.155 -80.487 0.986 8.942 0.986 8.942 0.155 -80.487
1946.833 0.151 -80.718 0.987 8.695 0.987 8.695 0.151 -80.718
1971.792 0.147 -80.944 0.988 8.452 0.988 8.452 0.147 -80.944
1996.75 0.143 -81.165 0.988 8.213 0.988 8.213 0.143 -81.165
2021.708 0.139 -81.381 0.989 7.978 0.989 7.978 0.139 -81.381
2046.667 0.135 -81.593 0.989 7.746 0.989 7.746 0.135 -81.593
2071.625 0.131 -81.801 0.99 7.519 0.99 7.519 0.131 -81.801
2096.583 0.127 -82.004 0.99 7.294 0.99 7.294 0.127 -82.004
2121.542 0.123 -82.202 0.991 7.074 0.991 7.074 0.123 -82.202
2146.5 0.119 -82.396 0.991 6.857 0.991 6.857 0.119 -82.396
2171.458 0.116 -82.586 0.992 6.642 0.992 6.642 0.116 -82.586
2196.417 0.112 -82.772 0.992 6.431 0.992 6.431 0.112 -82.772
2221.375 0.108 -82.953 0.993 6.224 0.993 6.224 0.108 -82.953
2246.333 0.105 -83.129 0.993 6.019 0.993 6.019 0.105 -83.129
2271.292 0.101 -83.302 0.993 5.816 0.993 5.816 0.101 -83.302
2296.25 0.098 -83.47 0.994 5.617 0.994 5.617 0.098 -83.47
2321.208 0.094 -83.633 0.994 5.42 0.994 5.42 0.094 -83.633
2346.167 0.091 -83.792 0.994 5.226 0.994 5.226 0.091 -83.792
2371.125 0.088 -83.946 0.995 5.035 0.995 5.035 0.088 -83.946
2396.083 0.084 -84.095 0.995 4.846 0.995 4.846 0.084 -84.095
2421.042 0.081 -84.239 0.995 4.659 0.995 4.659 0.081 -84.239
2446 0.078 -84.378 0.995 4.474 0.995 4.474 0.078 -84.378
2470.958 0.075 -84.511 0.996 4.292 0.996 4.292 0.075 -84.511
2495.917 0.072 -84.639 0.996 4.112 0.996 4.112 0.072 -84.639
2520.875 0.069 -84.76 0.996 3.934 0.996 3.934 0.069 -84.76
2545.833 0.066 -84.874 0.996 3.758 0.996 3.758 0.066 -84.874
2570.792 0.063 -84.982 0.996 3.585 0.996 3.585 0.063 -84.982
2595.75 0.06 -85.081 0.997 3.413 0.997 3.413 0.06 -85.081
2620.708 0.057 -85.172 0.997 3.243 0.997 3.243 0.057 -85.172
2645.667 0.054 -85.254 0.997 3.074 0.997 3.074 0.054 -85.254
2670.625 0.051 -85.324 0.997 2.908 0.997 2.908 0.051 -85.324
2695.583 0.048 -85.383 0.997 2.744 0.997 2.744 0.048 -85.383
2720.542 0.045 -85.427 0.997 2.581 0.997 2.581 0.045 -85.427
2745.5 0.042 -85.455 0.998 2.419 0.998 2.419 0.042 -85.455
2770.458 0.039 -85.465 0.998 2.26 0.998 2.26 0.039 -85.465
2795.417 0.037 -85.452 0.998 2.102 0.998 2.102 0.037 -85.452
2820.375 0.034 -85.412 0.998 1.945 0.998 1.945 0.034 -85.412
2845.333 0.031 -85.338 0.998 1.79 0.998 1.79 0.031 -85.338
2870.292 0.029 -85.223 0.998 1.637 0.998 1.637 0.029 -85.223
2895.25 0.026 -85.054 0.998 1.485 0.998 1.485 0.026 -85.054
2920.208 0.023 -84.814 0.998 1.334 0.998 1.334 0.023 -84.814
2945.167 0.021 -84.48 0.998 1.185 0.998 1.185 0.021 -84.48
2970.125 0.018 -84.011 0.998 1.037 0.998 1.037 0.018 -84.011
2995.083 0.016 -83.347 0.998 0.89 0.998 0.89 0.016 -83.347
3020.042 0.013 -82.376 0.998 0.745 0.998 0.745 0.013 -82.376
3045 0.011 -80.889 0.998 0.6 0.998 0.6 0.011 -80.889
3069.958 8.134e-3 -78.43 0.998 0.457 0.998 0.457 8.134e-3 -78.43
3094.917 5.725e-3 -73.791 0.998 0.315 0.998 0.315 5.725e-3 -73.791
3119.875 3.431e-3 -62.631 0.998 0.175 0.998 0.175 3.431e-3 -62.631
3144.833 1.685e-3 -21.424 0.998 0.035 0.998 0.035 1.685e-3 -21.424
3169.792 2.387e-3 48.834 0.998 -0.103 0.998 -0.103 2.387e-3 48.834
3194.75 4.48e-3 69.274 0.998 -0.24 0.998 -0.24 4.48e-3 69.274
3219.708 6.76e-3 76.212 0.998 -0.377 0.998 -0.377 6.76e-3 76.212
3244.667 9.072e-3 79.537 0.998 -0.512 0.998 -0.512 9.072e-3 79.537
3269.625 0.011 81.44 0.998 -0.646 0.998 -0.646 0.011 81.44
3294.583 0.014 82.647 0.998 -0.779 0.998 -0.779 0.014 82.647
3319.542 0.016 83.462 0.998 -0.912 0.998 -0.912 0.016 83.462
3344.5 0.018 84.035 0.998 -1.043 0.998 -1.043 0.018 84.035
3369.458 0.021 84.45 0.998 -1.173 0.998 -1.173 0.021 84.45
3394.417 0.023 84.754 0.998 -1.303 0.998 -1.303 0.023 84.754
3419.375 0.025 84.979 0.998 -1.432 0.998 -1.432 0.025 84.979
3444.333 0.027 85.144 0.998 -1.559 0.998 -1.559 0.027 85.144
3469.292 0.029 85.265 0.998 -1.686 0.998 -1.686 0.029 85.265
3494.25 0.032 85.351 0.998 -1.812 0.998 -1.812 0.032 85.351
3519.208 0.034 85.409 0.998 -1.937 0.998 -1.937 0.034 85.409
3544.167 0.036 85.445 0.998 -2.062 0.998 -2.062 0.036 85.445
3569.125 0.038 85.462 0.998 -2.185 0.998 -2.185 0.038 85.462
3594.083 0.04 85.464 0.998 -2.308 0.998 -2.308 0.04 85.464
3619.042 0.042 85.454 0.998 -2.43 0.998 -2.43 0.042 85.454
3644 0.045 85.433 0.997 -2.552 0.997 -2.552 0.045 85.433
3668.958 0.047 85.404 0.997 -2.672 0.997 -2.672 0.047 85.404
3693.917 0.049 85.367 0.997 -2.792 0.997 -2.792 0.049 85.367
3718.875 0.051 85.323 0.997 -2.911 0.997 -2.911 0.051 85.323
3743.833 0.053 85.274 0.997 -3.03 0.997 -3.03 0.053 85.274
3768.792 0.055 85.219 0.997 -3.148 0.997 -3.148 0.055 85.219
3793.75 0.057 85.161 0.997 -3.265 0.997 -3.265 0.057 85.161
3818.708 0.059 85.099 0.997 -3.381 0.997 -3.381 0.059 85.099
3843.667 0.061 85.033 0.997 -3.497 0.997 -3.497 0.061 85.033
3868.625 0.063 84.965 0.996 -3.612 0.996 -3.612 0.063 84.965
3893.583 0.065 84.894 0.996 -3.727 0.996 -3.727 0.065 84.894
3918.542 0.067 84.821 0.996 -3.841 0.996 -3.841 0.067 84.821
3943.5 0.069 84.746 0.996 -3.954 0.996 -3.954 0.069 84.746
3968.458 0.071 84.67 0.996 -4.067 0.996 -4.067 0.071 84.67
3993.417 0.073 84.592 0.996 -4.179 0.996 -4.179 0.073 84.592
4018.375 0.075 84.512 0.996 -4.291 0.996 -4.291 0.075 84.512
4043.333 0.077 84.431 0.995 -4.402 0.995 -4.402 0.077 84.431
4068.292 0.079 84.349 0.995 -4.512 0.995 -4.512 0.079 84.349
4093.25 0.081 84.267 0.995 -4.622 0.995 -4.622 0.081 84.267
4118.208 0.083 84.183 0.995 -4.732 0.995 -4.732 0.083 84.183
4143.167 0.084 84.099 0.995 -4.841 0.995 -4.841 0.084 84.099
4168.125 0.086 84.013 0.995 -4.949 0.995 -4.949 0.086 84.013
4193.083 0.088 83.928 0.995 -5.057 0.995 -5.057 0.088 83.928
4218.042 0.09 83.842 0.994 -5.165 0.994 -5.165 0.09 83.842
4243 0.092 83.755 0.994 -5.272 0.994 -5.272 0.092 83.755
4267.958 0.094 83.668 0.994 -5.378 0.994 -5.378 0.094 83.668
4292.917 0.096 83.58 0.994 -5.484 0.994 -5.484 0.096 83.58
4317.875 0.097 83.493 0.994 -5.589 0.994 -5.589 0.097 83.493
4342.833 0.099 83.405 0.994 -5.695 0.994 -5.695 0.099 83.405
4367.792 0.101 83.316 0.993 -5.799 0.993 -5.799 0.101 83.316
4392.75 0.103 83.228 0.993 -5.903 0.993 -5.903 0.103 83.228
4417.708 0.105 83.139 0.993 -6.007 0.993 -6.007 0.105 83.139
4442.667 0.106 83.051 0.993 -6.11 0.993 -6.11 0.106 83.051
4467.625 0.108 82.962 0.993 -6.213 0.993 -6.213 0.108 82.962
4492.583 0.11 82.873 0.992 -6.315 0.992 -6.315 0.11 82.873
4517.542 0.112 82.784 0.992 -6.417 0.992 -6.417 0.112 82.784
4542.5 0.114 82.695 0.992 -6.519 0.992 -6.519 0.114 82.695
4567.458 0.115 82.606 0.992 -6.62 0.992 -6.62 0.115 82.606
4592.417 0.117 82.517 0.992 -6.721 0.992 -6.721 0.117 82.517
4617.375 0.119 82.428 0.991 -6.821 0.991 -6.821 0.119 82.428
4642.333 0.121 82.339 0.991 -6.921 0.991 -6.921 0.121 82.339
4667.292 0.122 82.25 0.991 -7.021 0.991 -7.021 0.122 82.25
4692.25 0.124 82.161 0.991 -7.12 0.991 -7.12 0.124 82.161
4717.208 0.126 82.072 0.991 -7.219 0.991 -7.219 0.126 82.072
4742.167 0.127 81.983 0.99 -7.318 0.99 -7.318 0.127 81.983
4767.125 0.129 81.894 0.99 -7.416 0.99 -7.416 0.129 81.894
4792.083 0.131 81.805 0.99 -7.514 0.99 -7.514 0.131 81.805
4817.042 0.132 81.717 0.99 -7.611 0.99 -7.611 0.132 81.717
4842 0.134 81.628 0.989 -7.708 0.989 -7.708 0.134 81.628
4866.958 0.136 81.54 0.989 -7.805 0.989 -7.805 0.136 81.54
4891.917 0.137 81.451 0.989 -7.902 0.989 -7.902 0.137 81.451
4916.875 0.139 81.363 0.989 -7.998 0.989 -7.998 0.139 81.363
4941.833 0.141 81.275 0.988 -8.093 0.988 -8.093 0.141 81.275
4966.792 0.142 81.187 0.988 -8.189 0.988 -8.189 0.142 81.187
4991.75 0.144 81.099 0.988 -8.284 0.988 -8.284 0.144 81.099
5016.708 0.146 81.011 0.988 -8.379 0.988 -8.379 0.146 81.011
5041.667 0.147 80.924 0.988 -8.473 0.988 -8.473 0.147 80.924
5066.625 0.149 80.836 0.987 -8.567 0.987 -8.567 0.149 80.836
5091.583 0.151 80.749 0.987 -8.661 0.987 -8.661 0.151 80.749
5116.542 0.152 80.662 0.987 -8.755 0.987 -8.755 0.152 80.662
5141.5 0.154 80.575 0.987 -8.848 0.987 -8.848 0.154 80.575
5166.458 0.155 80.488 0.986 -8.941 0.986 -8.941 0.155 80.488
5191.417 0.157 80.401 0.986 -9.034 0.986 -9.034 0.157 80.401
5216.375 0.159 80.314 0.986 -9.126 0.986 -9.126 0.159 80.314
5241.333 0.16 80.228 0.986 -9.218 0.986 -9.218 0.16 80.228
5266.292 0.162 80.142 0.985 -9.31 0.985 -9.31 0.162 80.142
5291.25 0.163 80.056 0.985 -9.402 0.985 -9.402 0.163 80.056
5316.208 0.165 79.97 0.985 -9.493 0.985 -9.493 0.165 79.97
5341.167 0.167 79.884 0.984 -9.584 0.984 -9.584 0.167 79.884
5366.125 0.168 79.798 0.984 -9.675 0.984 -9.675 0.168 79.798
5391.083 0.17 79.713 0.984 -9.765 0.984 -9.765 0.17 79.713
5416.042 0.171 79.627 0.984 -9.856 0.984 -9.856 0.171 79.627
5441 0.173 79.542 0.983 -9.946 0.983 -9.946 0.173 79.542
5465.958 0.174 79.457 0.983 -10.035 0.983 -10.035 0.174 79.457
5490.917 0.176 79.372 0.983 -10.125 0.983 -10.125 0.176 79.372
5515.875 0.177 79.287 0.983 -10.214 0.983 -10.214 0.177 79.287
5540.833 0.179 79.203 0.982 -10.303 0.982 -10.303 0.179 79.203
5565.792 0.18 79.118 0.982 -10.392 0.982 -10.392 0.18 79.118
5590.75 0.182 79.034 0.982 -10.48 0.982 -10.48 0.182 79.034
5615.708 0.183 78.95 0.981 -10.568 0.981 -10.568 0.183 78.95
5640.667 0.185 78.866 0.981 -10.656 0.981 -10.656 0.185 78.866
5665.625 0.186 78.782 0.981 -10.744 0.981 -10.744 0.186 78.782
5690.583 0.188 78.699 0.981 -10.832 0.981 -10.832 0.188 78.699
5715.542 0.189 78.615 0.98 -10.919 0.98 -10.919 0.189 78.615
5740.5 0.191 78.532 0.98 -11.006 0.98 -11.006 0.191 78.532
5765.458 0.192 78.449 0.98 -11.093 0.98 -11.093 0.192 78.449
5790.417 0.194 78.366 0.979 -11.18 0.979 -11.18 0.194 78.366
5815.375 0.195 78.283 0.979 -11.266 0.979 -11.266 0.195 78.283
5840.333 0.197 78.2 0.979 -11.352 0.979 -11.352 0.197 78.2
5865.292 0.198 78.118 0.979 -11.438 0.979 -11.438 0.198 78.118
5890.25 0.2 78.036 0.978 -11.524 0.978 -11.524 0.2 78.036
5915.208 0.201 77.953 0.978 -11.609 0.978 -11.609 0.201 77.953
5940.167 0.203 77.871 0.978 -11.695 0.978 -11.695 0.203 77.871
5965.125 0.204 77.79 0.977 -11.78 0.977 -11.78 0.204 77.79
5990.083 0.206 77.708 0.977 -11.865 0.977 -11.865 0.206 77.708
6015.042 0.207 77.626 0.977 -11.949 0.977 -11.949 0.207 77.626
6040 0.208 77.545 0.976 -12.034 0.976 -12.034 0.208 77.545
6064.958 0.21 77.464 0.976 -12.118 0.976 -12.118 0.21 77.464
6089.917 0.211 77.382 0.976 -12.202 0.976 -12.202 0.211 77.382
6114.875 0.213 77.301 0.976 -12.286 0.976 -12.286 0.213 77.301
6139.833 0.214 77.221 0.975 -12.37 0.975 -12.37 0.214 77.221
6164.792 0.216 77.14 0.975 -12.453 0.975 -12.453 0.216 77.14
6189.75 0.217 77.059 0.975 -12.537 0.975 -12.537 0.217 77.059
6214.708 0.218 76.979 0.974 -12.62 0.974 -12.62 0.218 76.979
6239.667 0.22 76.899 0.974 -12.703 0.974 -12.703 0.22 76.899
6264.625 0.221 76.819 0.974 -12.785 0.974 -12.785 0.221 76.819
6289.583 0.223 76.739 0.973 -12.868 0.973 -12.868 0.223 76.739
6314.542 0.224 76.659 0.973 -12.95 0.973 -12.95 0.224 76.659
6339.5 0.226 76.58 0.973 -13.032 0.973 -13.032 0.226 76.58
6364.458 0.227 76.5 0.972 -13.114 0.972 -13.114 0.227 76.5
6389.417 0.228 76.421 0.972 -13.196 0.972 -13.196 0.228 76.421
6414.375 0.23 76.342 0.972 -13.278 0.972 -13.278 0.23 76.342
6439.333 0.231 76.262 0.971 -13.359 0.971 -13.359 0.231 76.262
6464.292 0.232 76.184 0.971 -13.441 0.971 -13.441 0.232 76.184
6489.25 0.234 76.105 0.971 -13.522 0.971 -13.522 0.234 76.105
6514.208 0.235 76.026 0.97 -13.603 0.97 -13.603 0.235 76.026
6539.167 0.237 75.948 0.97 -13.683 0.97 -13.683 0.237 75.948
6564.125 0.238 75.869 0.97 -13.764 0.97 -13.764 0.238 75.869
6589.083 0.239 75.791 0.969 -13.844 0.969 -13.844 0.239 75.791
6614.042 0.241 75.713 0.969 -13.925 0.969 -13.925 0.241 75.713
6639 0.242 75.635 0.969 -14.005 0.969 -14.005 0.242 75.635
6663.958 0.243 75.557 0.968 -14.085 0.968 -14.085 0.243 75.557
6688.917 0.245 75.48 0.968 -14.164 0.968 -14.164 0.245 75.48
6713.875 0.246 75.402 0.968 -14.244 0.968 -14.244 0.246 75.402
6738.833 0.247 75.325 0.967 -14.323 0.967 -14.323 0.247 75.325
6763.792 0.249 75.248 0.967 -14.403 0.967 -14.403 0.249 75.248
6788.75 0.25 75.171 0.967 -14.482 0.967 -14.482 0.25 75.171
6813.708 0.251 75.094 0.966 -14.561 0.966 -14.561 0.251 75.094
6838.667 0.253 75.017 0.966 -14.639 0.966 -14.639 0.253 75.017
6863.625 0.254 74.94 0.966 -14.718 0.966 -14.718 0.254 74.94
6888.583 0.255 74.863 0.965 -14.796 0.965 -14.796 0.255 74.863
6913.542 0.257 74.787 0.965 -14.875 0.965 -14.875 0.257 74.787
6938.5 0.258 74.711 0.965 -14.953 0.965 -14.953 0.258 74.711
6963.458 0.259 74.635 0.964 -15.031 0.964 -15.031 0.259 74.635
6988.417 0.261 74.559 0.964 -15.109 0.964 -15.109 0.261 74.559
7013.375 0.262 74.483 0.964 -15.186 0.964 -15.186 0.262 74.483
7038.333 0.263 74.407 0.963 -15.264 0.963 -15.264 0.263 74.407
7063.292 0.265 74.331 0.963 -15.341 0.963 -15.341 0.265 74.331
7088.25 0.266 74.256 0.962 -15.419 0.962 -15.419 0.266 74.256
7113.208 0.267 74.18 0.962 -15.496 0.962 -15.496 0.267 74.18
7138.167 0.268 74.105 0.962 -15.573 0.962 -15.573 0.268 74.105
7163.125 0.27 74.03 0.961 -15.65 0.961 -15.65 0.27 74.03
7188.083 0.271 73.955 0.961 -15.726 0.961 -15.726 0.271 73.955
7213.042 0.272 73.88 0.961 -15.803 0.961 -15.803 0.272 73.88
7238 0.274 73.805 0.96 -15.879 0.96 -15.879 0.274 73.805
7262.958 0.275 73.73 0.96 -15.955 0.96 -15.955 0.275 73.73
7287.917 0.276 73.656 0.96 -16.031 0.96 -16.031 0.276 73.656
7312.875 0.277 73.581 0.959 -16.107 0.959 -16.107 0.277 73.581
7337.833 0.279 73.507 0.959 -16.183 0.959 -16.183 0.279 73.507
7362.792 0.28 73.433 0.959 -16.259 0.959 -16.259 0.28 73.433
7387.75 0.281 73.359 0.958 -16.334 0.958 -16.334 0.281 73.359
7412.708 0.283 73.285 0.958 -16.41 0.958 -16.41 0.283 73.285
7437.667 0.284 73.211 0.957 -16.485 0.957 -16.485 0.284 73.211
7462.625 0.285 73.138 0.957 -16.56 0.957 -16.56 0.285 73.138
7487.583 0.286 73.064 0.957 -16.635 0.957 -16.635 0.286 73.064
7512.542 0.288 72.991 0.956 -16.71 0.956 -16.71 0.288 72.991
7537.5 0.289 72.917 0.956 -16.785 0.956 -16.785 0.289 72.917
7562.458 0.29 72.844 0.956 -16.86 0.956 -16.86 0.29 72.844
7587.417 0.291 72.771 0.955 -16.934 0.955 -16.934 0.291 72.771
7612.375 0.293 72.698 0.955 -17.008 0.955 -17.008 0.293 72.698
7637.333 0.294 72.625 0.954 -17.083 0.954 -17.083 0.294 72.625
7662.292 0.295 72.552 0.954 -17.157 0.954 -17.157 0.295 72.552
7687.25 0.296 72.48 0.954 -17.231 0.954 -17.231 0.296 72.48
7712.208 0.297 72.407 0.953 -17.304 0.953 -17.304 0.297 72.407
7737.167 0.299 72.335 0.953 -17.378 0.953 -17.378 0.299 72.335
7762.125 0.3 72.263 0.952 -17.452 0.952 -17.452 0.3 72.263
7787.083 0.301 72.19 0.952 -17.525 0.952 -17.525 0.301 72.19
7812.042 0.302 72.118 0.952 -17.598 0.952 -17.598 0.302 72.118
7837 0.304 72.046 0.951 -17.672 0.951 -17.672 0.304 72.046
7861.958 0.305 71.975 0.951 -17.745 0.951 -17.745 0.305 71.975
7886.917 0.306 71.903 0.951 -17.818 0.951 -17.818 0.306 71.903
7911.875 0.307 71.831 0.95 -17.89 0.95 -17.89 0.307 71.831
7936.833 0.308 71.76 0.95 -17.963 0.95 -17.963 0.308 71.76
7961.792 0.31 71.688 0.949 -18.036 0.949 -18.036 0.31 71.688
7986.75 0.311 71.617 0.949 -18.108 0.949 -18.108 0.311 71.617
8011.708 0.312 71.546 0.949 -18.181 0.949 -18.181 0.312 71.546
8036.667 0.313 71.475 0.948 -18.253 0.948 -18.253 0.313 71.475
8061.625 0.314 71.404 0.948 -18.325 0.948 -18.325 0.314 71.404
8086.583 0.316 71.333 0.947 -18.397 0.947 -18.397 0.316 71.333
8111.542 0.317 71.262 0.947 -18.469 0.947 -18.469 0.317 71.262
8136.5 0.318 71.192 0.947 -18.54 0.947 -18.54 0.318 71.192
8161.458 0.319 71.121 0.946 -18.612 0.946 -18.612 0.319 71.121
8186.417 0.32 71.051 0.946 -18.684 0.946 -18.684 0.32 71.051
