# MHZ S MA R 50

50 0.559 -55.912 0.828 33.998 0.828 33.998 0.559 -55.912
74.958 0.409 -65.725 0.912 24.139 0.912 24.139 0.409 -65.725
99.917 0.317 -71.33 0.947 18.489 0.947 18.489 0.317 -71.33
124.875 0.257 -74.893 0.965 14.878 0.965 14.878 0.257 -74.893
149.833 0.214 -77.343 0.976 12.381 0.976 12.381 0.214 -77.343
174.792 0.183 -79.125 0.982 10.549 0.982 10.549 0.183 -79.125
199.75 0.159 -80.477 0.986 9.147 0.986 9.147 0.159 -80.477
224.708 0.14 -81.535 0.989 8.035 0.989 8.035 0.14 -81.535
249.667 0.124 -82.386 0.991 7.129 0.991 7.129 0.124 -82.386
274.625 0.111 -83.083 0.993 6.374 0.993 6.374 0.111 -83.083
299.583 0.1 -83.662 0.994 5.734 0.994 5.734 0.1 -83.662
324.542 0.09 -84.149 0.995 5.182 0.995 5.182 0.09 -84.149
349.5 0.082 -84.563 0.996 4.699 0.996 4.699 0.082 -84.563
374.458 0.075 -84.915 0.996 4.272 0.996 4.272 0.075 -84.915
399.417 0.068 -85.217 0.997 3.891 0.997 3.891 0.068 -85.217
424.375 0.062 -85.474 0.997 3.548 0.997 3.548 0.062 -85.474
449.333 0.056 -85.691 0.997 3.235 0.997 3.235 0.056 -85.691
474.292 0.051 -85.873 0.998 2.95 0.998 2.95 0.051 -85.873
499.25 0.047 -86.021 0.998 2.686 0.998 2.686 0.047 -86.021
524.208 0.043 -86.136 0.998 2.442 0.998 2.442 0.043 -86.136
549.167 0.039 -86.217 0.998 2.215 0.998 2.215 0.039 -86.217
574.125 0.035 -86.263 0.998 2.002 0.998 2.002 0.035 -86.263
599.083 0.031 -86.27 0.998 1.802 0.998 1.802 0.031 -86.27
624.042 0.028 -86.233 0.999 1.613 0.999 1.613 0.028 -86.233
649 0.025 -86.144 0.999 1.434 0.999 1.434 0.025 -86.144
673.958 0.022 -85.988 0.999 1.264 0.999 1.264 0.022 -85.988
698.917 0.019 -85.746 0.999 1.101 0.999 1.101 0.019 -85.746
723.875 0.017 -85.385 0.999 0.946 0.999 0.946 0.017 -85.385
748.833 0.014 -84.851 0.999 0.797 0.999 0.797 0.014 -84.851
773.792 0.011 -84.047 0.999 0.654 0.999 0.654 0.011 -84.047
798.75 9.072e-3 -82.781 0.999 0.516 0.999 0.516 9.072e-3 -82.781
823.708 6.769e-3 -80.617 0.999 0.383 0.999 0.383 6.769e-3 -80.617
848.667 4.561e-3 -76.321 0.999 0.254 0.999 0.254 4.561e-3 -76.321
873.625 2.492e-3 -64.725 0.999 0.129 0.999 0.129 2.492e-3 -64.725
898.583 1.068e-3 -7.458 0.999 7.952e-3 0.999 7.952e-3 1.068e-3 -7.458
923.542 2.193e-3 61.015 0.999 -0.11 0.999 -0.11 2.193e-3 61.015
948.5 4.066e-3 74.679 0.999 -0.225 0.999 -0.225 4.066e-3 74.679
973.458 5.976e-3 79.457 0.999 -0.337 0.999 -0.337 5.976e-3 79.457
998.417 7.864e-3 81.815 0.999 -0.446 0.999 -0.446 7.864e-3 81.815
1023.375 9.718e-3 83.191 0.999 -0.553 0.999 -0.553 9.718e-3 83.191
1048.333 0.012 84.076 0.999 -0.658 0.999 -0.658 0.012 84.076
1073.292 0.013 84.68 0.999 -0.761 0.999 -0.761 0.013 84.68
1098.25 0.015 85.111 0.999 -0.862 0.999 -0.862 0.015 85.111
1123.208 0.017 85.425 0.999 -0.96 0.999 -0.96 0.017 85.425
1148.167 0.018 85.659 0.999 -1.058 0.999 -1.058 0.018 85.659
1173.125 0.02 85.835 0.999 -1.153 0.999 -1.153 0.02 85.835
1198.083 0.022 85.968 0.999 -1.247 0.999 -1.247 0.022 85.968
1223.042 0.023 86.068 0.999 -1.34 0.999 -1.34 0.023 86.068
1248 0.025 86.142 0.999 -1.431 0.999 -1.431 0.025 86.142
1272.958 0.027 86.195 0.999 -1.521 0.999 -1.521 0.027 86.195
1297.917 0.028 86.232 0.999 -1.61 0.999 -1.61 0.028 86.232
1322.875 0.03 86.256 0.999 -1.698 0.999 -1.698 0.03 86.256
1347.833 0.031 86.269 0.998 -1.785 0.998 -1.785 0.031 86.269
1372.792 0.033 86.272 0.998 -1.87 0.998 -1.87 0.033 86.272
1397.75 0.034 86.268 0.998 -1.955 0.998 -1.955 0.034 86.268
1422.708 0.036 86.257 0.998 -2.039 0.998 -2.039 0.036 86.257
1447.667 0.037 86.241 0.998 -2.122 0.998 -2.122 0.037 86.241
1472.625 0.038 86.22 0.998 -2.205 0.998 -2.205 0.038 86.22
1497.583 0.04 86.194 0.998 -2.286 0.998 -2.286 0.04 86.194
1522.542 0.041 86.166 0.998 -2.367 0.998 -2.367 0.041 86.166
1547.5 0.043 86.134 0.998 -2.447 0.998 -2.447 0.043 86.134
1572.458 0.044 86.099 0.998 -2.526 0.998 -2.526 0.044 86.099
1597.417 0.045 86.062 0.998 -2.605 0.998 -2.605 0.045 86.062
1622.375 0.047 86.022 0.998 -2.683 0.998 -2.683 0.047 86.022
1647.333 0.048 85.981 0.998 -2.761 0.998 -2.761 0.048 85.981
1672.292 0.05 85.938 0.998 -2.838 0.998 -2.838 0.05 85.938
1697.25 0.051 85.894 0.998 -2.914 0.998 -2.914 0.051 85.894
1722.208 0.052 85.848 0.998 -2.991 0.998 -2.991 0.052 85.848
1747.167 0.053 85.801 0.998 -3.066 0.998 -3.066 0.053 85.801
1772.125 0.055 85.753 0.997 -3.141 0.997 -3.141 0.055 85.753
1797.083 0.056 85.704 0.997 -3.216 0.997 -3.216 0.056 85.704
1822.042 0.057 85.655 0.997 -3.29 0.997 -3.29 0.057 85.655
1847 0.059 85.604 0.997 -3.364 0.997 -3.364 0.059 85.604
1871.958 0.06 85.553 0.997 -3.437 0.997 -3.437 0.06 85.553
1896.917 0.061 85.501 0.997 -3.51 0.997 -3.51 0.061 85.501
1921.875 0.063 85.448 0.997 -3.583 0.997 -3.583 0.063 85.448
1946.833 0.064 85.395 0.997 -3.655 0.997 -3.655 0.064 85.395
1971.792 0.065 85.341 0.997 -3.727 0.997 -3.727 0.065 85.341
1996.75 0.066 85.287 0.997 -3.799 0.997 -3.799 0.066 85.287
2021.708 0.068 85.233 0.997 -3.87 0.997 -3.87 0.068 85.233
2046.667 0.069 85.178 0.997 -3.941 0.997 -3.941 0.069 85.178
2071.625 0.07 85.123 0.996 -4.012 0.996 -4.012 0.07 85.123
2096.583 0.071 85.067 0.996 -4.083 0.996 -4.083 0.071 85.067
2121.542 0.072 85.012 0.996 -4.153 0.996 -4.153 0.072 85.012
2146.5 0.074 84.956 0.996 -4.223 0.996 -4.223 0.074 84.956
2171.458 0.075 84.899 0.996 -4.292 0.996 -4.292 0.075 84.899
2196.417 0.076 84.843 0.996 -4.362 0.996 -4.362 0.076 84.843
2221.375 0.077 84.786 0.996 -4.431 0.996 -4.431 0.077 84.786
2246.333 0.078 84.729 0.996 -4.5 0.996 -4.5 0.078 84.729
2271.292 0.08 84.672 0.996 -4.569 0.996 -4.569 0.08 84.672
2296.25 0.081 84.615 0.996 -4.637 0.996 -4.637 0.081 84.615
2321.208 0.082 84.557 0.996 -4.706 0.996 -4.706 0.082 84.557
2346.167 0.083 84.5 0.995 -4.774 0.995 -4.774 0.083 84.5
2371.125 0.084 84.442 0.995 -4.842 0.995 -4.842 0.084 84.442
2396.083 0.086 84.384 0.995 -4.909 0.995 -4.909 0.086 84.384
2421.042 0.087 84.327 0.995 -4.977 0.995 -4.977 0.087 84.327
2446 0.088 84.269 0.995 -5.044 0.995 -5.044 0.088 84.269
2470.958 0.089 84.21 0.995 -5.111 0.995 -5.111 0.089 84.21
2495.917 0.09 84.152 0.995 -5.178 0.995 -5.178 0.09 84.152
2520.875 0.091 84.094 0.995 -5.245 0.995 -5.245 0.091 84.094
2545.833 0.093 84.036 0.995 -5.312 0.995 -5.312 0.093 84.036
2570.792 0.094 83.977 0.995 -5.378 0.995 -5.378 0.094 83.977
2595.75 0.095 83.919 0.994 -5.445 0.994 -5.445 0.095 83.919
2620.708 0.096 83.86 0.994 -5.511 0.994 -5.511 0.096 83.86
2645.667 0.097 83.802 0.994 -5.577 0.994 -5.577 0.097 83.802
2670.625 0.098 83.743 0.994 -5.643 0.994 -5.643 0.098 83.743
2695.583 0.099 83.685 0.994 -5.708 0.994 -5.708 0.099 83.685
2720.542 0.101 83.626 0.994 -5.774 0.994 -5.774 0.101 83.626
2745.5 0.102 83.567 0.994 -5.84 0.994 -5.84 0.102 83.567
2770.458 0.103 83.508 0.994 -5.905 0.994 -5.905 0.103 83.508
2795.417 0.104 83.45 0.994 -5.97 0.994 -5.97 0.104 83.45
2820.375 0.105 83.391 0.993 -6.035 0.993 -6.035 0.105 83.391
2845.333 0.106 83.332 0.993 -6.1 0.993 -6.1 0.106 83.332
2870.292 0.107 83.273 0.993 -6.165 0.993 -6.165 0.107 83.273
2895.25 0.109 83.214 0.993 -6.23 0.993 -6.23 0.109 83.214
2920.208 0.11 83.155 0.993 -6.294 0.993 -6.294 0.11 83.155
2945.167 0.111 83.097 0.993 -6.359 0.993 -6.359 0.111 83.097
2970.125 0.112 83.038 0.993 -6.423 0.993 -6.423 0.112 83.038
2995.083 0.113 82.979 0.993 -6.488 0.993 -6.488 0.113 82.979
3020.042 0.114 82.92 0.992 -6.552 0.992 -6.552 0.114 82.92
3045 0.115 82.861 0.992 -6.616 0.992 -6.616 0.115 82.861
3069.958 0.116 82.802 0.992 -6.68 0.992 -6.68 0.116 82.802
3094.917 0.117 82.743 0.992 -6.744 0.992 -6.744 0.117 82.743
3119.875 0.119 82.684 0.992 -6.808 0.992 -6.808 0.119 82.684
3144.833 0.12 82.625 0.992 -6.871 0.992 -6.871 0.12 82.625
3169.792 0.121 82.566 0.992 -6.935 0.992 -6.935 0.121 82.566
3194.75 0.122 82.507 0.991 -6.998 0.991 -6.998 0.122 82.507
3219.708 0.123 82.448 0.991 -7.062 0.991 -7.062 0.123 82.448
3244.667 0.124 82.389 0.991 -7.125 0.991 -7.125 0.124 82.389
3269.625 0.125 82.33 0.991 -7.188 0.991 -7.188 0.125 82.33
3294.583 0.126 82.272 0.991 -7.252 0.991 -7.252 0.126 82.272
3319.542 0.127 82.213 0.991 -7.315 0.991 -7.315 0.127 82.213
3344.5 0.128 82.154 0.991 -7.378 0.991 -7.378 0.128 82.154
3369.458 0.13 82.095 0.991 -7.441 0.991 -7.441 0.13 82.095
3394.417 0.131 82.036 0.99 -7.503 0.99 -7.503 0.131 82.036
3419.375 0.132 81.977 0.99 -7.566 0.99 -7.566 0.132 81.977
3444.333 0.133 81.918 0.99 -7.629 0.99 -7.629 0.133 81.918
3469.292 0.134 81.859 0.99 -7.691 0.99 -7.691 0.134 81.859
3494.25 0.135 81.8 0.99 -7.754 0.99 -7.754 0.135 81.8
3519.208 0.136 81.742 0.99 -7.816 0.99 -7.816 0.136 81.742
3544.167 0.137 81.683 0.99 -7.879 0.99 -7.879 0.137 81.683
3569.125 0.138 81.624 0.989 -7.941 0.989 -7.941 0.138 81.624
3594.083 0.139 81.565 0.989 -8.003 0.989 -8.003 0.139 81.565
3619.042 0.14 81.506 0.989 -8.066 0.989 -8.066 0.14 81.506
3644 0.141 81.447 0.989 -8.128 0.989 -8.128 0.141 81.447
3668.958 0.142 81.389 0.989 -8.19 0.989 -8.19 0.142 81.389
3693.917 0.144 81.33 0.989 -8.252 0.989 -8.252 0.144 81.33
3718.875 0.145 81.271 0.988 -8.314 0.988 -8.314 0.145 81.271
3743.833 0.146 81.212 0.988 -8.375 0.988 -8.375 0.146 81.212
3768.792 0.147 81.154 0.988 -8.437 0.988 -8.437 0.147 81.154
3793.75 0.148 81.095 0.988 -8.499 0.988 -8.499 0.148 81.095
3818.708 0.149 81.036 0.988 -8.56 0.988 -8.56 0.149 81.036
3843.667 0.15 80.978 0.988 -8.622 0.988 -8.622 0.15 80.978
3868.625 0.151 80.919 0.987 -8.684 0.987 -8.684 0.151 80.919
3893.583 0.152 80.86 0.987 -8.745 0.987 -8.745 0.152 80.86
3918.542 0.153 80.802 0.987 -8.806 0.987 -8.806 0.153 80.802
3943.5 0.154 80.743 0.987 -8.868 0.987 -8.868 0.154 80.743
3968.458 0.155 80.685 0.987 -8.929 0.987 -8.929 0.155 80.685
3993.417 0.156 80.626 0.987 -8.99 0.987 -8.99 0.156 80.626
4018.375 0.157 80.568 0.987 -9.051 0.987 -9.051 0.157 80.568
4043.333 0.158 80.509 0.986 -9.113 0.986 -9.113 0.158 80.509
4068.292 0.159 80.451 0.986 -9.174 0.986 -9.174 0.159 80.451
4093.25 0.16 80.392 0.986 -9.235 0.986 -9.235 0.16 80.392
4118.208 0.162 80.334 0.986 -9.295 0.986 -9.295 0.162 80.334
4143.167 0.163 80.275 0.986 -9.356 0.986 -9.356 0.163 80.275
4168.125 0.164 80.217 0.985 -9.417 0.985 -9.417 0.164 80.217
4193.083 0.165 80.159 0.985 -9.478 0.985 -9.478 0.165 80.159
4218.042 0.166 80.1 0.985 -9.539 0.985 -9.539 0.166 80.1
4243 0.167 80.042 0.985 -9.599 0.985 -9.599 0.167 80.042
4267.958 0.168 79.984 0.985 -9.66 0.985 -9.66 0.168 79.984
4292.917 0.169 79.925 0.985 -9.721 0.985 -9.721 0.169 79.925
4317.875 0.17 79.867 0.984 -9.781 0.984 -9.781 0.17 79.867
4342.833 0.171 79.809 0.984 -9.842 0.984 -9.842 0.171 79.809
4367.792 0.172 79.75 0.984 -9.902 0.984 -9.902 0.172 79.75
4392.75 0.173 79.692 0.984 -9.962 0.984 -9.962 0.173 79.692
4417.708 0.174 79.634 0.984 -10.023 0.984 -10.023 0.174 79.634
4442.667 0.175 79.576 0.984 -10.083 0.984 -10.083 0.175 79.576
4467.625 0.176 79.518 0.983 -10.143 0.983 -10.143 0.176 79.518
4492.583 0.177 79.46 0.983 -10.203 0.983 -10.203 0.177 79.46
4517.542 0.178 79.402 0.983 -10.263 0.983 -10.263 0.178 79.402
4542.5 0.179 79.343 0.983 -10.323 0.983 -10.323 0.179 79.343
4567.458 0.18 79.285 0.983 -10.383 0.983 -10.383 0.18 79.285
4592.417 0.181 79.227 0.982 -10.443 0.982 -10.443 0.181 79.227
4617.375 0.182 79.169 0.982 -10.503 0.982 -10.503 0.182 79.169
4642.333 0.183 79.111 0.982 -10.563 0.982 -10.563 0.183 79.111
4667.292 0.184 79.053 0.982 -10.623 0.982 -10.623 0.184 79.053
4692.25 0.185 78.996 0.982 -10.683 0.982 -10.683 0.185 78.996
4717.208 0.186 78.938 0.981 -10.742 0.981 -10.742 0.186 78.938
4742.167 0.187 78.88 0.981 -10.802 0.981 -10.802 0.187 78.88
4767.125 0.188 78.822 0.981 -10.862 0.981 -10.862 0.188 78.822
4792.083 0.189 78.764 0.981 -10.921 0.981 -10.921 0.189 78.764
4817.042 0.19 78.706 0.981 -10.981 0.981 -10.981 0.19 78.706
4842 0.192 78.649 0.98 -11.04 0.98 -11.04 0.192 78.649
4866.958 0.193 78.591 0.98 -11.1 0.98 -11.1 0.193 78.591
4891.917 0.194 78.533 0.98 -11.159 0.98 -11.159 0.194 78.533
4916.875 0.195 78.475 0.98 -11.219 0.98 -11.219 0.195 78.475
4941.833 0.196 78.418 0.98 -11.278 0.98 -11.278 0.196 78.418
4966.792 0.197 78.36 0.979 -11.337 0.979 -11.337 0.197 78.36
4991.75 0.198 78.302 0.979 -11.397 0.979 -11.397 0.198 78.302
5016.708 0.199 78.245 0.979 -11.456 0.979 -11.456 0.199 78.245
5041.667 0.2 78.187 0.979 -11.515 0.979 -11.515 0.2 78.187
5066.625 0.201 78.13 0.979 -11.574 0.979 -11.574 0.201 78.13
5091.583 0.202 78.072 0.978 -11.633 0.978 -11.633 0.202 78.072
5116.542 0.203 78.015 0.978 -11.692 0.978 -11.692 0.203 78.015
5141.5 0.204 77.957 0.978 -11.751 0.978 -11.751 0.204 77.957
5166.458 0.205 77.9 0.978 -11.81 0.978 -11.81 0.205 77.9
5191.417 0.206 77.842 0.978 -11.869 0.978 -11.869 0.206 77.842
5216.375 0.207 77.785 0.977 -11.928 0.977 -11.928 0.207 77.785
5241.333 0.208 77.727 0.977 -11.987 0.977 -11.987 0.208 77.727
5266.292 0.209 77.67 0.977 -12.045 0.977 -12.045 0.209 77.67
5291.25 0.21 77.613 0.977 -12.104 0.977 -12.104 0.21 77.613
5316.208 0.211 77.556 0.977 -12.163 0.977 -12.163 0.211 77.556
5341.167 0.212 77.498 0.976 -12.222 0.976 -12.222 0.212 77.498
5366.125 0.213 77.441 0.976 -12.28 0.976 -12.28 0.213 77.441
5391.083 0.214 77.384 0.976 -12.339 0.976 -12.339 0.214 77.384
5416.042 0.215 77.327 0.976 -12.397 0.976 -12.397 0.215 77.327
5441 0.216 77.27 0.975 -12.456 0.975 -12.456 0.216 77.27
5465.958 0.217 77.212 0.975 -12.514 0.975 -12.514 0.217 77.212
5490.917 0.218 77.155 0.975 -12.573 0.975 -12.573 0.218 77.155
5515.875 0.219 77.098 0.975 -12.631 0.975 -12.631 0.219 77.098
5540.833 0.22 77.041 0.975 -12.689 0.975 -12.689 0.22 77.041
5565.792 0.221 76.984 0.974 -12.748 0.974 -12.748 0.221 76.984
5590.75 0.222 76.927 0.974 -12.806 0.974 -12.806 0.222 76.927
5615.708 0.223 76.87 0.974 -12.864 0.974 -12.864 0.223 76.87
5640.667 0.224 76.813 0.974 -12.922 0.974 -12.922 0.224 76.813
5665.625 0.225 76.756 0.973 -12.98 0.973 -12.98 0.225 76.756
5690.583 0.226 76.7 0.973 -13.038 0.973 -13.038 0.226 76.7
5715.542 0.227 76.643 0.973 -13.096 0.973 -13.096 0.227 76.643
5740.5 0.228 76.586 0.973 -13.154 0.973 -13.154 0.228 76.586
5765.458 0.229 76.529 0.972 -13.212 0.972 -13.212 0.229 76.529
5790.417 0.23 76.472 0.972 -13.27 0.972 -13.27 0.23 76.472
5815.375 0.231 76.416 0.972 -13.328 0.972 -13.328 0.231 76.416
5840.333 0.232 76.359 0.972 -13.386 0.972 -13.386 0.232 76.359
5865.292 0.232 76.302 0.972 -13.444 0.972 -13.444 0.232 76.302
5890.25 0.233 76.246 0.971 -13.502 0.971 -13.502 0.233 76.246
5915.208 0.234 76.189 0.971 -13.559 0.971 -13.559 0.234 76.189
5940.167 0.235 76.132 0.971 -13.617 0.971 -13.617 0.235 76.132
5965.125 0.236 76.076 0.971 -13.675 0.971 -13.675 0.236 76.076
5990.083 0.237 76.019 0.97 -13.732 0.97 -13.732 0.237 76.019
6015.042 0.238 75.963 0.97 -13.79 0.97 -13.79 0.238 75.963
6040 0.239 75.906 0.97 -13.847 0.97 -13.847 0.239 75.906
6064.958 0.24 75.85 0.97 -13.905 0.97 -13.905 0.24 75.85
6089.917 0.241 75.793 0.969 -13.962 0.969 -13.962 0.241 75.793
6114.875 0.242 75.737 0.969 -14.02 0.969 -14.02 0.242 75.737
6139.833 0.243 75.681 0.969 -14.077 0.969 -14.077 0.243 75.681
6164.792 0.244 75.624 0.969 -14.135 0.969 -14.135 0.244 75.624
6189.75 0.245 75.568 0.968 -14.192 0.968 -14.192 0.245 75.568
6214.708 0.246 75.512 0.968 -14.249 0.968 -14.249 0.246 75.512
6239.667 0.247 75.456 0.968 -14.306 0.968 -14.306 0.247 75.456
6264.625 0.248 75.399 0.968 -14.364 0.968 -14.364 0.248 75.399
6289.583 0.249 75.343 0.967 -14.421 0.967 -14.421 0.249 75.343
6314.542 0.25 75.287 0.967 -14.478 0.967 -14.478 0.25 75.287
6339.5 0.251 75.231 0.967 -14.535 0.967 -14.535 0.251 75.231
6364.458 0.252 75.175 0.967 -14.592 0.967 -14.592 0.252 75.175
6389.417 0.253 75.119 0.966 -14.649 0.966 -14.649 0.253 75.119
6414.375 0.254 75.063 0.966 -14.706 0.966 -14.706 0.254 75.063
6439.333 0.255 75.007 0.966 -14.763 0.966 -14.763 0.255 75.007
6464.292 0.256 74.951 0.966 -14.82 0.966 -14.82 0.256 74.951
6489.25 0.257 74.895 0.965 -14.877 0.965 -14.877 0.257 74.895
6514.208 0.258 74.839 0.965 -14.933 0.965 -14.933 0.258 74.839
6539.167 0.259 74.783 0.965 -14.99 0.965 -14.99 0.259 74.783
6564.125 0.26 74.727 0.965 -15.047 0.965 -15.047 0.26 74.727
6589.083 0.261 74.672 0.964 -15.104 0.964 -15.104 0.261 74.672
6614.042 0.262 74.616 0.964 -15.16 0.964 -15.16 0.262 74.616
6639 0.262 74.56 0.964 -15.217 0.964 -15.217 0.262 74.56
6663.958 0.263 74.504 0.964 -15.273 0.964 -15.273 0.263 74.504
6688.917 0.264 74.449 0.963 -15.33 0.963 -15.33 0.264 74.449
6713.875 0.265 74.393 0.963 -15.386 0.963 -15.386 0.265 74.393
6738.833 0.266 74.337 0.963 -15.443 0.963 -15.443 0.266 74.337
6763.792 0.267 74.282 0.963 -15.499 0.963 -15.499 0.267 74.282
6788.75 0.268 74.226 0.962 -15.556 0.962 -15.556 0.268 74.226
6813.708 0.269 74.171 0.962 -15.612 0.962 -15.612 0.269 74.171
6838.667 0.27 74.115 0.962 -15.668 0.962 -15.668 0.27 74.115
6863.625 0.271 74.06 0.962 -15.725 0.962 -15.725 0.271 74.06
6888.583 0.272 74.004 0.961 -15.781 0.961 -15.781 0.272 74.004
6913.542 0.273 73.949 0.961 -15.837 0.961 -15.837 0.273 73.949
6938.5 0.274 73.894 0.961 -15.893 0.961 -15.893 0.274 73.894
6963.458 0.275 73.838 0.96 -15.949 0.96 -15.949 0.275 73.838
6988.417 0.276 73.783 0.96 -16.005 0.96 -16.005 0.276 73.783
7013.375 0.277 73.728 0.96 -16.062 0.96 -16.062 0.277 73.728
7038.333 0.278 73.672 0.96 -16.118 0.96 -16.118 0.278 73.672
7063.292 0.279 73.617 0.959 -16.173 0.959 -16.173 0.279 73.617
7088.25 0.279 73.562 0.959 -16.229 0.959 -16.229 0.279 73.562
7113.208 0.28 73.507 0.959 -16.285 0.959 -16.285 0.28 73.507
7138.167 0.281 73.452 0.959 -16.341 0.959 -16.341 0.281 73.452
7163.125 0.282 73.397 0.958 -16.397 0.958 -16.397 0.282 73.397
7188.083 0.283 73.342 0.958 -16.453 0.958 -16.453 0.283 73.342
7213.042 0.284 73.287 0.958 -16.509 0.958 -16.509 0.284 73.287
7238 0.285 73.232 0.957 -16.564 0.957 -16.564 0.285 73.232
7262.958 0.286 73.177 0.957 -16.62 0.957 -16.62 0.286 73.177
7287.917 0.287 73.122 0.957 -16.675 0.957 -16.675 0.287 73.122
7312.875 0.288 73.067 0.957 -16.731 0.957 -16.731 0.288 73.067
7337.833 0.289 73.012 0.956 -16.787 0.956 -16.787 0.289 73.012
7362.792 0.29 72.957 0.956 -16.842 0.956 -16.842 0.29 72.957
7387.75 0.291 72.903 0.956 -16.898 0.956 -16.898 0.291 72.903
7412.708 0.292 72.848 0.956 -16.953 0.956 -16.953 0.292 72.848
7437.667 0.293 72.793 0.955 -17.008 0.955 -17.008 0.293 72.793
7462.625 0.293 72.738 0.955 -17.064 0.955 -17.064 0.293 72.738
7487.583 0.294 72.684 0.955 -17.119 0.955 -17.119 0.294 72.684
7512.542 0.295 72.629 0.954 -17.174 0.954 -17.174 0.295 72.629
7537.5 0.296 72.575 0.954 -17.23 0.954 -17.23 0.296 72.575
7562.458 0.297 72.52 0.954 -17.285 0.954 -17.285 0.297 72.52
7587.417 0.298 72.466 0.954 -17.34 0.954 -17.34 0.298 72.466
7612.375 0.299 72.411 0.953 -17.395 0.953 -17.395 0.299 72.411
7637.333 0.3 72.357 0.953 -17.45 0.953 -17.45 0.3 72.357
7662.292 0.301 72.302 0.953 -17.505 0.953 -17.505 0.301 72.302
7687.25 0.302 72.248 0.952 -17.56 0.952 -17.56 0.302 72.248
7712.208 0.303 72.194 0.952 -17.615 0.952 -17.615 0.303 72.194
7737.167 0.304 72.139 0.952 -17.67 0.952 -17.67 0.304 72.139
7762.125 0.304 72.085 0.952 -17.725 0.952 -17.725 0.304 72.085
7787.083 0.305 72.031 0.951 -17.78 0.951 -17.78 0.305 72.031
7812.042 0.306 71.977 0.951 -17.835 0.951 -17.835 0.306 71.977
7837 0.307 71.922 0.951 -17.89 0.951 -17.89 0.307 71.922
7861.958 0.308 71.868 0.95 -17.944 0.95 -17.944 0.308 71.868
7886.917 0.309 71.814 0.95 -17.999 0.95 -17.999 0.309 71.814
7911.875 0.31 71.76 0.95 -18.054 0.95 -18.054 0.31 71.76
7936.833 0.311 71.706 0.949 -18.108 0.949 -18.108 0.311 71.706
7961.792 0.312 71.652 0.949 -18.163 0.949 -18.163 0.312 71.652
7986.75 0.313 71.598 0.949 -18.218 0.949 -18.218 0.313 71.598
8011.708 0.314 71.544 0.949 -18.272 0.949 -18.272 0.314 71.544
8036.667 0.314 71.49 0.948 -18.327 0.948 -18.327 0.314 71.49
8061.625 0.315 71.436 0.948 -18.381 0.948 -18.381 0.315 71.436
8086.583 0.316 71.383 0.948 -18.435 0.948 -18.435 0.316 71.383
8111.542 0.317 71.329 0.947 -18.49 0.947 -18.49 0.317 71.329
8136.5 0.318 71.275 0.947 -18.544 0.947 -18.544 0.318 71.275
8161.458 0.319 71.221 0.947 -18.598 0.947 -18.598 0.319 71.221
8186.417 0.32 71.168 0.946 -18.653 0.946 -18.653 0.32 71.168
8211.375 0.321 71.114 0.946 -18.707 0.946 -18.707 0.321 71.114
