# MHZ S MA R 50

50 0.693 -46.066 0.72 43.869 0.72 43.869 0.693 -46.066
74.958 0.539 -57.31 0.842 32.592 0.842 32.592 0.539 -57.31
99.917 0.431 -64.337 0.901 25.532 0.901 25.532 0.431 -64.337
124.875 0.355 -69.021 0.934 20.815 0.934 20.815 0.355 -69.021
149.833 0.3 -72.329 0.953 17.473 0.953 17.473 0.3 -72.329
174.792 0.259 -74.778 0.965 14.989 0.965 14.989 0.259 -74.778
199.75 0.226 -76.66 0.973 13.072 0.973 13.072 0.226 -76.66
224.708 0.2 -78.15 0.979 11.545 0.979 11.545 0.2 -78.15
249.667 0.179 -79.358 0.983 10.299 0.983 10.299 0.179 -79.358
274.625 0.161 -80.357 0.986 9.261 0.986 9.261 0.161 -80.357
299.583 0.146 -81.196 0.988 8.38 0.988 8.38 0.146 -81.196
324.542 0.133 -81.912 0.99 7.622 0.99 7.622 0.133 -81.912
349.5 0.121 -82.528 0.992 6.961 0.992 6.961 0.121 -82.528
374.458 0.111 -83.064 0.993 6.378 0.993 6.378 0.111 -83.064
399.417 0.102 -83.533 0.994 5.859 0.994 5.859 0.102 -83.533
424.375 0.094 -83.946 0.994 5.393 0.994 5.393 0.094 -83.946
449.333 0.087 -84.312 0.995 4.971 0.995 4.971 0.087 -84.312
474.292 0.08 -84.636 0.996 4.586 0.996 4.586 0.08 -84.636
499.25 0.074 -84.925 0.996 4.232 0.996 4.232 0.074 -84.925
524.208 0.068 -85.18 0.997 3.906 0.997 3.906 0.068 -85.18
549.167 0.063 -85.406 0.997 3.604 0.997 3.604 0.063 -85.406
574.125 0.058 -85.603 0.997 3.322 0.997 3.322 0.058 -85.603
599.083 0.053 -85.774 0.997 3.058 0.997 3.058 0.053 -85.774
624.042 0.049 -85.919 0.998 2.81 0.998 2.81 0.049 -85.919
649 0.045 -86.037 0.998 2.576 0.998 2.576 0.045 -86.037
673.958 0.041 -86.128 0.998 2.355 0.998 2.355 0.041 -86.128
698.917 0.037 -86.19 0.998 2.144 0.998 2.144 0.037 -86.19
723.875 0.034 -86.219 0.998 1.944 0.998 1.944 0.034 -86.219
748.833 0.031 -86.209 0.998 1.753 0.998 1.753 0.031 -86.209
773.792 0.027 -86.155 0.999 1.569 0.999 1.569 0.027 -86.155
798.75 0.024 -86.044 0.999 1.394 0.999 1.394 0.024 -86.044
823.708 0.021 -85.859 0.999 1.225 0.999 1.225 0.021 -85.859
848.667 0.019 -85.576 0.999 1.062 0.999 1.062 0.019 -85.576
873.625 0.016 -85.15 0.999 0.904 0.999 0.904 0.016 -85.15
898.583 0.013 -84.507 0.999 0.752 0.999 0.752 0.013 -84.507
923.542 0.011 -83.506 0.999 0.605 0.999 0.605 0.011 -83.506
948.5 8.133e-3 -81.844 0.999 0.462 0.999 0.462 8.133e-3 -81.844
973.458 5.738e-3 -78.737 0.999 0.323 0.999 0.323 5.738e-3 -78.737
998.417 3.448e-3 -71.405 0.999 0.187 0.999 0.187 3.448e-3 -71.405
1023.375 1.459e-3 -41.66 0.999 0.056 0.999 0.056 1.459e-3 -41.66
1048.333 1.676e-3 49.417 0.999 -0.073 0.999 -0.073 1.676e-3 49.417
1073.292 3.634e-3 72.368 0.999 -0.199 0.999 -0.199 3.634e-3 72.368
1098.25 5.717e-3 78.698 0.999 -0.322 0.999 -0.322 5.717e-3 78.698
1123.208 7.787e-3 81.521 0.999 -0.442 0.999 -0.442 7.787e-3 81.521
1148.167 9.828e-3 83.079 0.999 -0.56 0.999 -0.56 9.828e-3 83.079
1173.125 0.012 84.046 0.999 -0.675 0.999 -0.675 0.012 84.046
1198.083 0.014 84.688 0.999 -0.789 0.999 -0.789 0.014 84.688
1223.042 0.016 85.135 0.999 -0.9 0.999 -0.9 0.016 85.135
1248 0.018 85.455 0.999 -1.01 0.999 -1.01 0.018 85.455
1272.958 0.02 85.687 0.999 -1.117 0.999 -1.117 0.02 85.687
1297.917 0.021 85.858 0.999 -1.223 0.999 -1.223 0.021 85.858
1322.875 0.023 85.983 0.999 -1.328 0.999 -1.328 0.023 85.983
1347.833 0.025 86.073 0.999 -1.431 0.999 -1.431 0.025 86.073
1372.792 0.027 86.137 0.999 -1.532 0.999 -1.532 0.027 86.137
1397.75 0.029 86.18 0.999 -1.633 0.999 -1.633 0.029 86.18
1422.708 0.03 86.206 0.998 -1.732 0.998 -1.732 0.03 86.206
1447.667 0.032 86.218 0.998 -1.83 0.998 -1.83 0.032 86.218
1472.625 0.034 86.219 0.998 -1.926 0.998 -1.926 0.034 86.219
1497.583 0.035 86.211 0.998 -2.022 0.998 -2.022 0.035 86.211
1522.542 0.037 86.196 0.998 -2.116 0.998 -2.116 0.037 86.196
1547.5 0.039 86.174 0.998 -2.21 0.998 -2.21 0.039 86.174
1572.458 0.04 86.146 0.998 -2.302 0.998 -2.302 0.04 86.146
1597.417 0.042 86.114 0.998 -2.394 0.998 -2.394 0.042 86.114
1622.375 0.043 86.078 0.998 -2.485 0.998 -2.485 0.043 86.078
1647.333 0.045 86.038 0.998 -2.575 0.998 -2.575 0.045 86.038
1672.292 0.046 85.995 0.998 -2.664 0.998 -2.664 0.046 85.995
1697.25 0.048 85.95 0.998 -2.753 0.998 -2.753 0.048 85.95
1722.208 0.05 85.902 0.998 -2.84 0.998 -2.84 0.05 85.902
1747.167 0.051 85.853 0.998 -2.928 0.998 -2.928 0.051 85.853
1772.125 0.053 85.801 0.998 -3.014 0.998 -3.014 0.053 85.801
1797.083 0.054 85.748 0.997 -3.1 0.997 -3.1 0.054 85.748
1822.042 0.056 85.694 0.997 -3.185 0.997 -3.185 0.056 85.694
1847 0.057 85.638 0.997 -3.27 0.997 -3.27 0.057 85.638
1871.958 0.059 85.582 0.997 -3.354 0.997 -3.354 0.059 85.582
1896.917 0.06 85.524 0.997 -3.437 0.997 -3.437 0.06 85.524
1921.875 0.061 85.466 0.997 -3.52 0.997 -3.52 0.061 85.466
1946.833 0.063 85.406 0.997 -3.603 0.997 -3.603 0.063 85.406
1971.792 0.064 85.347 0.997 -3.685 0.997 -3.685 0.064 85.347
1996.75 0.066 85.286 0.997 -3.766 0.997 -3.766 0.066 85.286
2021.708 0.067 85.225 0.997 -3.847 0.997 -3.847 0.067 85.225
2046.667 0.069 85.163 0.997 -3.928 0.997 -3.928 0.069 85.163
2071.625 0.07 85.101 0.996 -4.008 0.996 -4.008 0.07 85.101
2096.583 0.071 85.039 0.996 -4.088 0.996 -4.088 0.071 85.039
2121.542 0.073 84.976 0.996 -4.168 0.996 -4.168 0.073 84.976
2146.5 0.074 84.913 0.996 -4.247 0.996 -4.247 0.074 84.913
2171.458 0.075 84.849 0.996 -4.326 0.996 -4.326 0.075 84.849
2196.417 0.077 84.786 0.996 -4.404 0.996 -4.404 0.077 84.786
2221.375 0.078 84.722 0.996 -4.482 0.996 -4.482 0.078 84.722
2246.333 0.08 84.658 0.996 -4.56 0.996 -4.56 0.08 84.658
2271.292 0.081 84.593 0.996 -4.637 0.996 -4.637 0.081 84.593
2296.25 0.082 84.529 0.996 -4.715 0.996 -4.715 0.082 84.529
2321.208 0.084 84.464 0.995 -4.791 0.995 -4.791 0.084 84.464
2346.167 0.085 84.4 0.995 -4.868 0.995 -4.868 0.085 84.4
2371.125 0.086 84.335 0.995 -4.944 0.995 -4.944 0.086 84.335
2396.083 0.088 84.27 0.995 -5.02 0.995 -5.02 0.088 84.27
2421.042 0.089 84.205 0.995 -5.096 0.995 -5.096 0.089 84.205
2446 0.09 84.139 0.995 -5.171 0.995 -5.171 0.09 84.139
2470.958 0.091 84.074 0.995 -5.246 0.995 -5.246 0.091 84.074
2495.917 0.093 84.009 0.995 -5.321 0.995 -5.321 0.093 84.009
2520.875 0.094 83.943 0.994 -5.396 0.994 -5.396 0.094 83.943
2545.833 0.095 83.878 0.994 -5.471 0.994 -5.471 0.095 83.878
2570.792 0.097 83.812 0.994 -5.545 0.994 -5.545 0.097 83.812
2595.75 0.098 83.747 0.994 -5.619 0.994 -5.619 0.098 83.747
2620.708 0.099 83.681 0.994 -5.693 0.994 -5.693 0.099 83.681
2645.667 0.1 83.616 0.994 -5.766 0.994 -5.766 0.1 83.616
2670.625 0.102 83.55 0.994 -5.84 0.994 -5.84 0.102 83.55
2695.583 0.103 83.485 0.994 -5.913 0.994 -5.913 0.103 83.485
2720.542 0.104 83.419 0.993 -5.986 0.993 -5.986 0.104 83.419
2745.5 0.106 83.353 0.993 -6.059 0.993 -6.059 0.106 83.353
2770.458 0.107 83.288 0.993 -6.132 0.993 -6.132 0.107 83.288
2795.417 0.108 83.222 0.993 -6.204 0.993 -6.204 0.108 83.222
2820.375 0.109 83.156 0.993 -6.276 0.993 -6.276 0.109 83.156
2845.333 0.111 83.091 0.993 -6.348 0.993 -6.348 0.111 83.091
2870.292 0.112 83.025 0.993 -6.42 0.993 -6.42 0.112 83.025
2895.25 0.113 82.96 0.993 -6.492 0.993 -6.492 0.113 82.96
2920.208 0.114 82.894 0.992 -6.564 0.992 -6.564 0.114 82.894
2945.167 0.116 82.828 0.992 -6.635 0.992 -6.635 0.116 82.828
2970.125 0.117 82.763 0.992 -6.707 0.992 -6.707 0.117 82.763
2995.083 0.118 82.697 0.992 -6.778 0.992 -6.778 0.118 82.697
3020.042 0.119 82.632 0.992 -6.849 0.992 -6.849 0.119 82.632
3045 0.12 82.566 0.992 -6.92 0.992 -6.92 0.12 82.566
3069.958 0.122 82.501 0.991 -6.99 0.991 -6.99 0.122 82.501
3094.917 0.123 82.435 0.991 -7.061 0.991 -7.061 0.123 82.435
3119.875 0.124 82.37 0.991 -7.132 0.991 -7.132 0.124 82.37
3144.833 0.125 82.304 0.991 -7.202 0.991 -7.202 0.125 82.304
3169.792 0.127 82.239 0.991 -7.272 0.991 -7.272 0.127 82.239
3194.75 0.128 82.174 0.991 -7.342 0.991 -7.342 0.128 82.174
3219.708 0.129 82.108 0.991 -7.412 0.991 -7.412 0.129 82.108
3244.667 0.13 82.043 0.99 -7.482 0.99 -7.482 0.13 82.043
3269.625 0.131 81.978 0.99 -7.552 0.99 -7.552 0.131 81.978
3294.583 0.133 81.913 0.99 -7.621 0.99 -7.621 0.133 81.913
3319.542 0.134 81.847 0.99 -7.691 0.99 -7.691 0.134 81.847
3344.5 0.135 81.782 0.99 -7.76 0.99 -7.76 0.135 81.782
3369.458 0.136 81.717 0.99 -7.829 0.99 -7.829 0.136 81.717
3394.417 0.137 81.652 0.989 -7.898 0.989 -7.898 0.137 81.652
3419.375 0.139 81.587 0.989 -7.967 0.989 -7.967 0.139 81.587
3444.333 0.14 81.522 0.989 -8.036 0.989 -8.036 0.14 81.522
3469.292 0.141 81.457 0.989 -8.105 0.989 -8.105 0.141 81.457
3494.25 0.142 81.392 0.989 -8.174 0.989 -8.174 0.142 81.392
3519.208 0.143 81.327 0.989 -8.242 0.989 -8.242 0.143 81.327
3544.167 0.145 81.262 0.988 -8.311 0.988 -8.311 0.145 81.262
3569.125 0.146 81.197 0.988 -8.379 0.988 -8.379 0.146 81.197
3594.083 0.147 81.132 0.988 -8.448 0.988 -8.448 0.147 81.132
3619.042 0.148 81.067 0.988 -8.516 0.988 -8.516 0.148 81.067
3644 0.149 81.003 0.988 -8.584 0.988 -8.584 0.149 81.003
3668.958 0.15 80.938 0.988 -8.652 0.988 -8.652 0.15 80.938
3693.917 0.152 80.873 0.987 -8.72 0.987 -8.72 0.152 80.873
3718.875 0.153 80.809 0.987 -8.788 0.987 -8.788 0.153 80.809
3743.833 0.154 80.744 0.987 -8.855 0.987 -8.855 0.154 80.744
3768.792 0.155 80.68 0.987 -8.923 0.987 -8.923 0.155 80.68
3793.75 0.156 80.615 0.987 -8.991 0.987 -8.991 0.156 80.615
3818.708 0.157 80.55 0.986 -9.058 0.986 -9.058 0.157 80.55
3843.667 0.159 80.486 0.986 -9.126 0.986 -9.126 0.159 80.486
3868.625 0.16 80.422 0.986 -9.193 0.986 -9.193 0.16 80.422
3893.583 0.161 80.357 0.986 -9.26 0.986 -9.26 0.161 80.357
3918.542 0.162 80.293 0.986 -9.327 0.986 -9.327 0.162 80.293
3943.5 0.163 80.229 0.986 -9.394 0.986 -9.394 0.163 80.229
3968.458 0.164 80.164 0.985 -9.461 0.985 -9.461 0.164 80.164
3993.417 0.166 80.1 0.985 -9.528 0.985 -9.528 0.166 80.1
4018.375 0.167 80.036 0.985 -9.595 0.985 -9.595 0.167 80.036
4043.333 0.168 79.972 0.985 -9.662 0.985 -9.662 0.168 79.972
4068.292 0.169 79.908 0.985 -9.728 0.985 -9.728 0.169 79.908
4093.25 0.17 79.844 0.984 -9.795 0.984 -9.795 0.17 79.844
4118.208 0.171 79.78 0.984 -9.861 0.984 -9.861 0.171 79.78
4143.167 0.172 79.716 0.984 -9.928 0.984 -9.928 0.172 79.716
4168.125 0.174 79.652 0.984 -9.994 0.984 -9.994 0.174 79.652
4193.083 0.175 79.588 0.984 -10.061 0.984 -10.061 0.175 79.588
4218.042 0.176 79.524 0.983 -10.127 0.983 -10.127 0.176 79.524
4243 0.177 79.46 0.983 -10.193 0.983 -10.193 0.177 79.46
4267.958 0.178 79.396 0.983 -10.259 0.983 -10.259 0.178 79.396
4292.917 0.179 79.332 0.983 -10.325 0.983 -10.325 0.179 79.332
4317.875 0.18 79.269 0.983 -10.391 0.983 -10.391 0.18 79.269
4342.833 0.181 79.205 0.982 -10.457 0.982 -10.457 0.181 79.205
4367.792 0.183 79.141 0.982 -10.523 0.982 -10.523 0.183 79.141
4392.75 0.184 79.078 0.982 -10.588 0.982 -10.588 0.184 79.078
4417.708 0.185 79.014 0.982 -10.654 0.982 -10.654 0.185 79.014
4442.667 0.186 78.951 0.981 -10.72 0.981 -10.72 0.186 78.951
4467.625 0.187 78.887 0.981 -10.785 0.981 -10.785 0.187 78.887
4492.583 0.188 78.824 0.981 -10.851 0.981 -10.851 0.188 78.824
4517.542 0.189 78.76 0.981 -10.916 0.981 -10.916 0.189 78.76
4542.5 0.19 78.697 0.981 -10.981 0.981 -10.981 0.19 78.697
4567.458 0.192 78.634 0.98 -11.047 0.98 -11.047 0.192 78.634
4592.417 0.193 78.57 0.98 -11.112 0.98 -11.112 0.193 78.57
4617.375 0.194 78.507 0.98 -11.177 0.98 -11.177 0.194 78.507
4642.333 0.195 78.444 0.98 -11.242 0.98 -11.242 0.195 78.444
4667.292 0.196 78.381 0.98 -11.307 0.98 -11.307 0.196 78.381
4692.25 0.197 78.318 0.979 -11.372 0.979 -11.372 0.197 78.318
4717.208 0.198 78.255 0.979 -11.437 0.979 -11.437 0.198 78.255
4742.167 0.199 78.192 0.979 -11.502 0.979 -11.502 0.199 78.192
4767.125 0.201 78.129 0.979 -11.567 0.979 -11.567 0.201 78.129
4792.083 0.202 78.066 0.978 -11.631 0.978 -11.631 0.202 78.066
4817.042 0.203 78.003 0.978 -11.696 0.978 -11.696 0.203 78.003
4842 0.204 77.94 0.978 -11.761 0.978 -11.761 0.204 77.94
4866.958 0.205 77.877 0.978 -11.825 0.978 -11.825 0.205 77.877
4891.917 0.206 77.814 0.977 -11.89 0.977 -11.89 0.206 77.814
4916.875 0.207 77.751 0.977 -11.954 0.977 -11.954 0.207 77.751
4941.833 0.208 77.689 0.977 -12.018 0.977 -12.018 0.208 77.689
4966.792 0.209 77.626 0.977 -12.083 0.977 -12.083 0.209 77.626
4991.75 0.21 77.563 0.977 -12.147 0.977 -12.147 0.21 77.563
5016.708 0.212 77.501 0.976 -12.211 0.976 -12.211 0.212 77.501
5041.667 0.213 77.438 0.976 -12.275 0.976 -12.275 0.213 77.438
5066.625 0.214 77.375 0.976 -12.339 0.976 -12.339 0.214 77.375
5091.583 0.215 77.313 0.976 -12.403 0.976 -12.403 0.215 77.313
5116.542 0.216 77.251 0.975 -12.467 0.975 -12.467 0.216 77.251
5141.5 0.217 77.188 0.975 -12.531 0.975 -12.531 0.217 77.188
5166.458 0.218 77.126 0.975 -12.595 0.975 -12.595 0.218 77.126
5191.417 0.219 77.063 0.975 -12.659 0.975 -12.659 0.219 77.063
5216.375 0.22 77.001 0.974 -12.723 0.974 -12.723 0.22 77.001
5241.333 0.221 76.939 0.974 -12.786 0.974 -12.786 0.221 76.939
5266.292 0.222 76.877 0.974 -12.85 0.974 -12.85 0.222 76.877
5291.25 0.223 76.814 0.974 -12.913 0.974 -12.913 0.223 76.814
5316.208 0.225 76.752 0.973 -12.977 0.973 -12.977 0.225 76.752
5341.167 0.226 76.69 0.973 -13.04 0.973 -13.04 0.226 76.69
5366.125 0.227 76.628 0.973 -13.104 0.973 -13.104 0.227 76.628
5391.083 0.228 76.566 0.973 -13.167 0.973 -13.167 0.228 76.566
5416.042 0.229 76.504 0.972 -13.23 0.972 -13.23 0.229 76.504
5441 0.23 76.442 0.972 -13.294 0.972 -13.294 0.23 76.442
5465.958 0.231 76.38 0.972 -13.357 0.972 -13.357 0.231 76.38
5490.917 0.232 76.318 0.972 -13.42 0.972 -13.42 0.232 76.318
5515.875 0.233 76.257 0.971 -13.483 0.971 -13.483 0.233 76.257
5540.833 0.234 76.195 0.971 -13.546 0.971 -13.546 0.234 76.195
5565.792 0.235 76.133 0.971 -13.609 0.971 -13.609 0.235 76.133
5590.75 0.236 76.071 0.971 -13.672 0.971 -13.672 0.236 76.071
5615.708 0.237 76.01 0.97 -13.735 0.97 -13.735 0.237 76.01
5640.667 0.238 75.948 0.97 -13.798 0.97 -13.798 0.238 75.948
5665.625 0.24 75.887 0.97 -13.861 0.97 -13.861 0.24 75.887
5690.583 0.241 75.825 0.97 -13.923 0.97 -13.923 0.241 75.825
5715.542 0.242 75.764 0.969 -13.986 0.969 -13.986 0.242 75.764
5740.5 0.243 75.702 0.969 -14.049 0.969 -14.049 0.243 75.702
5765.458 0.244 75.641 0.969 -14.111 0.969 -14.111 0.244 75.641
5790.417 0.245 75.579 0.969 -14.174 0.969 -14.174 0.245 75.579
5815.375 0.246 75.518 0.968 -14.236 0.968 -14.236 0.246 75.518
5840.333 0.247 75.457 0.968 -14.299 0.968 -14.299 0.247 75.457
5865.292 0.248 75.395 0.968 -14.361 0.968 -14.361 0.248 75.395
5890.25 0.249 75.334 0.967 -14.423 0.967 -14.423 0.249 75.334
5915.208 0.25 75.273 0.967 -14.486 0.967 -14.486 0.25 75.273
5940.167 0.251 75.212 0.967 -14.548 0.967 -14.548 0.251 75.212
5965.125 0.252 75.151 0.967 -14.61 0.967 -14.61 0.252 75.151
5990.083 0.253 75.09 0.966 -14.672 0.966 -14.672 0.253 75.09
6015.042 0.254 75.029 0.966 -14.734 0.966 -14.734 0.254 75.029
6040 0.255 74.968 0.966 -14.796 0.966 -14.796 0.255 74.968
6064.958 0.256 74.907 0.966 -14.858 0.966 -14.858 0.256 74.907
6089.917 0.257 74.846 0.965 -14.92 0.965 -14.92 0.257 74.846
6114.875 0.259 74.785 0.965 -14.982 0.965 -14.982 0.259 74.785
6139.833 0.26 74.724 0.965 -15.044 0.965 -15.044 0.26 74.724
6164.792 0.261 74.663 0.964 -15.105 0.964 -15.105 0.261 74.663
6189.75 0.262 74.603 0.964 -15.167 0.964 -15.167 0.262 74.603
6214.708 0.263 74.542 0.964 -15.229 0.964 -15.229 0.263 74.542
6239.667 0.264 74.481 0.964 -15.29 0.964 -15.29 0.264 74.481
6264.625 0.265 74.421 0.963 -15.352 0.963 -15.352 0.265 74.421
6289.583 0.266 74.36 0.963 -15.413 0.963 -15.413 0.266 74.36
6314.542 0.267 74.3 0.963 -15.475 0.963 -15.475 0.267 74.3
6339.5 0.268 74.239 0.962 -15.536 0.962 -15.536 0.268 74.239
6364.458 0.269 74.179 0.962 -15.598 0.962 -15.598 0.269 74.179
6389.417 0.27 74.118 0.962 -15.659 0.962 -15.659 0.27 74.118
6414.375 0.271 74.058 0.962 -15.72 0.962 -15.72 0.271 74.058
6439.333 0.272 73.998 0.961 -15.782 0.961 -15.782 0.272 73.998
6464.292 0.273 73.937 0.961 -15.843 0.961 -15.843 0.273 73.937
6489.25 0.274 73.877 0.961 -15.904 0.961 -15.904 0.274 73.877
6514.208 0.275 73.817 0.96 -15.965 0.96 -15.965 0.275 73.817
6539.167 0.276 73.757 0.96 -16.026 0.96 -16.026 0.276 73.757
6564.125 0.277 73.697 0.96 -16.087 0.96 -16.087 0.277 73.697
6589.083 0.278 73.637 0.96 -16.148 0.96 -16.148 0.278 73.637
6614.042 0.279 73.577 0.959 -16.209 0.959 -16.209 0.279 73.577
6639 0.28 73.517 0.959 -16.27 0.959 -16.27 0.28 73.517
6663.958 0.281 73.457 0.959 -16.33 0.959 -16.33 0.281 73.457
6688.917 0.282 73.397 0.958 -16.391 0.958 -16.391 0.282 73.397
6713.875 0.283 73.337 0.958 -16.452 0.958 -16.452 0.283 73.337
6738.833 0.284 73.277 0.958 -16.512 0.958 -16.512 0.284 73.277
6763.792 0.285 73.217 0.957 -16.573 0.957 -16.573 0.285 73.217
6788.75 0.286 73.158 0.957 -16.634 0.957 -16.634 0.286 73.158
6813.708 0.287 73.098 0.957 -16.694 0.957 -16.694 0.287 73.098
6838.667 0.288 73.038 0.957 -16.754 0.957 -16.754 0.288 73.038
6863.625 0.289 72.979 0.956 -16.815 0.956 -16.815 0.289 72.979
6888.583 0.29 72.919 0.956 -16.875 0.956 -16.875 0.29 72.919
6913.542 0.291 72.86 0.956 -16.936 0.956 -16.936 0.291 72.86
6938.5 0.292 72.8 0.955 -16.996 0.955 -16.996 0.292 72.8
6963.458 0.293 72.741 0.955 -17.056 0.955 -17.056 0.293 72.741
6988.417 0.294 72.681 0.955 -17.116 0.955 -17.116 0.294 72.681
7013.375 0.295 72.622 0.954 -17.176 0.954 -17.176 0.295 72.622
7038.333 0.296 72.563 0.954 -17.236 0.954 -17.236 0.296 72.563
7063.292 0.297 72.503 0.954 -17.296 0.954 -17.296 0.297 72.503
7088.25 0.298 72.444 0.953 -17.356 0.953 -17.356 0.298 72.444
7113.208 0.299 72.385 0.953 -17.416 0.953 -17.416 0.299 72.385
7138.167 0.3 72.326 0.953 -17.476 0.953 -17.476 0.3 72.326
7163.125 0.301 72.267 0.952 -17.536 0.952 -17.536 0.301 72.267
7188.083 0.302 72.208 0.952 -17.596 0.952 -17.596 0.302 72.208
7213.042 0.303 72.149 0.952 -17.655 0.952 -17.655 0.303 72.149
7238 0.304 72.09 0.952 -17.715 0.952 -17.715 0.304 72.09
7262.958 0.305 72.031 0.951 -17.775 0.951 -17.775 0.305 72.031
7287.917 0.306 71.972 0.951 -17.834 0.951 -17.834 0.306 71.972
7312.875 0.307 71.913 0.951 -17.894 0.951 -17.894 0.307 71.913
7337.833 0.308 71.854 0.95 -17.953 0.95 -17.953 0.308 71.854
7362.792 0.309 71.795 0.95 -18.013 0.95 -18.013 0.309 71.795
7387.75 0.31 71.737 0.95 -18.072 0.95 -18.072 0.31 71.737
7412.708 0.311 71.678 0.949 -18.131 0.949 -18.131 0.311 71.678
7437.667 0.312 71.619 0.949 -18.191 0.949 -18.191 0.312 71.619
7462.625 0.313 71.561 0.949 -18.25 0.949 -18.25 0.313 71.561
7487.583 0.314 71.502 0.948 -18.309 0.948 -18.309 0.314 71.502
7512.542 0.315 71.444 0.948 -18.368 0.948 -18.368 0.315 71.444
7537.5 0.316 71.385 0.948 -18.427 0.948 -18.427 0.316 71.385
7562.458 0.317 71.327 0.947 -18.487 0.947 -18.487 0.317 71.327
7587.417 0.318 71.268 0.947 -18.546 0.947 -18.546 0.318 71.268
7612.375 0.319 71.21 0.947 -18.604 0.947 -18.604 0.319 71.21
7637.333 0.32 71.152 0.946 -18.663 0.946 -18.663 0.32 71.152
7662.292 0.321 71.094 0.946 -18.722 0.946 -18.722 0.321 71.094
7687.25 0.322 71.035 0.946 -18.781 0.946 -18.781 0.322 71.035
7712.208 0.323 70.977 0.945 -18.84 0.945 -18.84 0.323 70.977
7737.167 0.324 70.919 0.945 -18.899 0.945 -18.899 0.324 70.919
7762.125 0.325 70.861 0.945 -18.957 0.945 -18.957 0.325 70.861
7787.083 0.326 70.803 0.944 -19.016 0.944 -19.016 0.326 70.803
7812.042 0.327 70.745 0.944 -19.074 0.944 -19.074 0.327 70.745
7837 0.328 70.687 0.944 -19.133 0.944 -19.133 0.328 70.687
7861.958 0.329 70.629 0.943 -19.191 0.943 -19.191 0.329 70.629
7886.917 0.33 70.571 0.943 -19.25 0.943 -19.25 0.33 70.571
7911.875 0.331 70.514 0.943 -19.308 0.943 -19.308 0.331 70.514
7936.833 0.332 70.456 0.942 -19.367 0.942 -19.367 0.332 70.456
7961.792 0.333 70.398 0.942 -19.425 0.942 -19.425 0.333 70.398
7986.75 0.334 70.34 0.942 -19.483 0.942 -19.483 0.334 70.34
8011.708 0.334 70.283 0.941 -19.541 0.941 -19.541 0.334 70.283
8036.667 0.335 70.225 0.941 -19.599 0.941 -19.599 0.335 70.225
8061.625 0.336 70.168 0.941 -19.658 0.941 -19.658 0.336 70.168
8086.583 0.337 70.11 0.94 -19.716 0.94 -19.716 0.337 70.11
8111.542 0.338 70.053 0.94 -19.774 0.94 -19.774 0.338 70.053
8136.5 0.339 69.995 0.94 -19.832 0.94 -19.832 0.339 69.995
8161.458 0.34 69.938 0.939 -19.889 0.939 -19.889 0.34 69.938
8186.417 0.341 69.881 0.939 -19.947 0.939 -19.947 0.341 69.881
8211.375 0.342 69.823 0.939 -20.005 0.939 -20.005 0.342 69.823
