# MHZ S MA R 50

50 1 -1.44 0.025 88.556 0.025 88.556 1 -1.44
74.958 0.999 -2.158 0.038 87.836 0.038 87.836 0.999 -2.158
99.917 0.999 -2.876 0.05 87.116 0.05 87.116 0.999 -2.876
124.875 0.998 -3.593 0.063 86.397 0.063 86.397 0.998 -3.593
149.833 0.997 -4.309 0.075 85.679 0.075 85.679 0.997 -4.309
174.792 0.996 -5.025 0.088 84.962 0.088 84.962 0.996 -5.025
199.75 0.995 -5.739 0.1 84.245 0.1 84.245 0.995 -5.739
224.708 0.994 -6.452 0.112 83.531 0.112 83.531 0.994 -6.452
249.667 0.992 -7.163 0.125 82.817 0.125 82.817 0.992 -7.163
274.625 0.991 -7.873 0.137 82.105 0.137 82.105 0.991 -7.873
299.583 0.989 -8.581 0.149 81.395 0.149 81.395 0.989 -8.581
324.542 0.987 -9.288 0.161 80.687 0.161 80.687 0.987 -9.288
349.5 0.985 -9.992 0.174 79.981 0.174 79.981 0.985 -9.992
374.458 0.983 -10.694 0.186 79.277 0.186 79.277 0.983 -10.694
399.417 0.98 -11.394 0.198 78.575 0.198 78.575 0.98 -11.394
424.375 0.978 -12.091 0.209 77.876 0.209 77.876 0.978 -12.091
449.333 0.975 -12.786 0.221 77.179 0.221 77.179 0.975 -12.786
474.292 0.972 -13.478 0.233 76.485 0.233 76.485 0.972 -13.478
499.25 0.969 -14.167 0.245 75.794 0.245 75.794 0.969 -14.167
524.208 0.966 -14.853 0.256 75.106 0.256 75.106 0.966 -14.853
549.167 0.963 -15.537 0.268 74.42 0.268 74.42 0.963 -15.537
574.125 0.96 -16.217 0.279 73.738 0.279 73.738 0.96 -16.217
599.083 0.957 -16.893 0.291 73.06 0.291 73.06 0.957 -16.893
624.042 0.953 -17.566 0.302 72.384 0.302 72.384 0.953 -17.566
649 0.949 -18.236 0.313 71.713 0.313 71.713 0.949 -18.236
673.958 0.946 -18.902 0.324 71.045 0.324 71.045 0.946 -18.902
698.917 0.942 -19.565 0.335 70.38 0.335 70.38 0.942 -19.565
723.875 0.938 -20.224 0.346 69.719 0.346 69.719 0.938 -20.224
748.833 0.934 -20.878 0.356 69.063 0.356 69.063 0.934 -20.878
773.792 0.93 -21.529 0.367 68.41 0.367 68.41 0.93 -21.529
798.75 0.926 -22.176 0.377 67.761 0.377 67.761 0.926 -22.176
823.708 0.921 -22.819 0.388 67.116 0.388 67.116 0.921 -22.819
848.667 0.917 -23.457 0.398 66.475 0.398 66.475 0.917 -23.457
873.625 0.912 -24.092 0.408 65.839 0.408 65.839 0.912 -24.092
898.583 0.908 -24.722 0.418 65.207 0.418 65.207 0.908 -24.722
923.542 0.903 -25.348 0.428 64.579 0.428 64.579 0.903 -25.348
948.5 0.898 -25.969 0.438 63.956 0.438 63.956 0.898 -25.969
973.458 0.894 -26.586 0.448 63.337 0.448 63.337 0.894 -26.586
998.417 0.889 -27.198 0.457 62.722 0.457 62.722 0.889 -27.198
1023.375 0.884 -27.806 0.466 62.112 0.466 62.112 0.884 -27.806
1048.333 0.879 -28.41 0.476 61.507 0.476 61.507 0.879 -28.41
1073.292 0.874 -29.008 0.485 60.906 0.485 60.906 0.874 -29.008
1098.25 0.869 -29.602 0.494 60.31 0.494 60.31 0.869 -29.602
1123.208 0.864 -30.192 0.503 59.718 0.503 59.718 0.864 -30.192
1148.167 0.858 -30.777 0.512 59.131 0.512 59.131 0.858 -30.777
1173.125 0.853 -31.357 0.52 58.549 0.52 58.549 0.853 -31.357
1198.083 0.848 -31.932 0.529 57.971 0.529 57.971 0.848 -31.932
1223.042 0.842 -32.503 0.537 57.398 0.537 57.398 0.842 -32.503
1248 0.837 -33.069 0.546 56.83 0.546 56.83 0.837 -33.069
1272.958 0.832 -33.631 0.554 56.266 0.554 56.266 0.832 -33.631
1297.917 0.826 -34.187 0.562 55.708 0.562 55.708 0.826 -34.187
1322.875 0.821 -34.739 0.57 55.154 0.57 55.154 0.821 -34.739
1347.833 0.815 -35.286 0.578 54.604 0.578 54.604 0.815 -35.286
1372.792 0.81 -35.829 0.585 54.06 0.585 54.06 0.81 -35.829
1397.75 0.804 -36.366 0.593 53.52 0.593 53.52 0.804 -36.366
1422.708 0.798 -36.899 0.6 52.984 0.6 52.984 0.798 -36.899
1447.667 0.793 -37.428 0.608 52.454 0.608 52.454 0.793 -37.428
1472.625 0.787 -37.951 0.615 51.928 0.615 51.928 0.787 -37.951
1497.583 0.782 -38.47 0.622 51.406 0.622 51.406 0.782 -38.47
1522.542 0.776 -38.985 0.629 50.89 0.629 50.89 0.776 -38.985
1547.5 0.77 -39.494 0.636 50.378 0.636 50.378 0.77 -39.494
1572.458 0.765 -40 0.643 49.87 0.643 49.87 0.765 -40
1597.417 0.759 -40.5 0.649 49.367 0.649 49.367 0.759 -40.5
1622.375 0.753 -40.996 0.656 48.869 0.656 48.869 0.753 -40.996
1647.333 0.748 -41.488 0.662 48.375 0.662 48.375 0.748 -41.488
1672.292 0.742 -41.975 0.669 47.886 0.669 47.886 0.742 -41.975
1697.25 0.736 -42.457 0.675 47.401 0.675 47.401 0.736 -42.457
1722.208 0.73 -42.935 0.681 46.92 0.681 46.92 0.73 -42.935
1747.167 0.725 -43.409 0.687 46.444 0.687 46.444 0.725 -43.409
1772.125 0.719 -43.878 0.693 45.973 0.693 45.973 0.719 -43.878
1797.083 0.713 -44.343 0.699 45.505 0.699 45.505 0.713 -44.343
1822.042 0.708 -44.804 0.705 45.042 0.705 45.042 0.708 -44.804
1847 0.702 -45.26 0.71 44.583 0.71 44.583 0.702 -45.26
1871.958 0.696 -45.712 0.716 44.129 0.716 44.129 0.696 -45.712
1896.917 0.691 -46.16 0.721 43.678 0.721 43.678 0.691 -46.16
1921.875 0.685 -46.604 0.727 43.232 0.727 43.232 0.685 -46.604
1946.833 0.679 -47.043 0.732 42.79 0.732 42.79 0.679 -47.043
1971.792 0.674 -47.479 0.737 42.352 0.737 42.352 0.674 -47.479
1996.75 0.668 -47.91 0.742 41.918 0.742 41.918 0.668 -47.91
2021.708 0.662 -48.338 0.747 41.488 0.747 41.488 0.662 -48.338
2046.667 0.657 -48.761 0.752 41.062 0.752 41.062 0.657 -48.761
2071.625 0.651 -49.181 0.757 40.64 0.757 40.64 0.651 -49.181
2096.583 0.646 -49.596 0.761 40.221 0.761 40.221 0.646 -49.596
2121.542 0.64 -50.008 0.766 39.807 0.766 39.807 0.64 -50.008
2146.5 0.635 -50.416 0.771 39.396 0.771 39.396 0.635 -50.416
2171.458 0.629 -50.82 0.775 38.989 0.775 38.989 0.629 -50.82
2196.417 0.624 -51.22 0.78 38.586 0.78 38.586 0.624 -51.22
2221.375 0.618 -51.617 0.784 38.187 0.784 38.187 0.618 -51.617
2246.333 0.613 -52.01 0.788 37.791 0.788 37.791 0.613 -52.01
2271.292 0.607 -52.399 0.792 37.399 0.792 37.399 0.607 -52.399
2296.25 0.602 -52.785 0.796 37.01 0.796 37.01 0.602 -52.785
2321.208 0.597 -53.167 0.8 36.625 0.8 36.625 0.597 -53.167
2346.167 0.591 -53.546 0.804 36.243 0.804 36.243 0.591 -53.546
2371.125 0.586 -53.921 0.808 35.865 0.808 35.865 0.586 -53.921
2396.083 0.581 -54.293 0.812 35.49 0.812 35.49 0.581 -54.293
2421.042 0.575 -54.662 0.816 35.119 0.816 35.119 0.575 -54.662
2446 0.57 -55.027 0.819 34.751 0.819 34.751 0.57 -55.027
2470.958 0.565 -55.389 0.823 34.386 0.823 34.386 0.565 -55.389
2495.917 0.56 -55.747 0.827 34.024 0.827 34.024 0.56 -55.747
2520.875 0.554 -56.102 0.83 33.666 0.83 33.666 0.554 -56.102
2545.833 0.549 -56.454 0.833 33.311 0.833 33.311 0.549 -56.454
2570.792 0.544 -56.803 0.837 32.959 0.837 32.959 0.544 -56.803
2595.75 0.539 -57.149 0.84 32.61 0.84 32.61 0.539 -57.149
2620.708 0.534 -57.492 0.843 32.264 0.843 32.264 0.534 -57.492
2645.667 0.529 -57.832 0.846 31.921 0.846 31.921 0.529 -57.832
2670.625 0.524 -58.168 0.85 31.581 0.85 31.581 0.524 -58.168
2695.583 0.519 -58.502 0.853 31.244 0.853 31.244 0.519 -58.502
2720.542 0.514 -58.833 0.856 30.909 0.856 30.909 0.514 -58.833
2745.5 0.509 -59.161 0.859 30.578 0.859 30.578 0.509 -59.161
2770.458 0.504 -59.486 0.862 30.25 0.862 30.25 0.504 -59.486
2795.417 0.499 -59.808 0.864 29.924 0.864 29.924 0.499 -59.808
2820.375 0.494 -60.127 0.867 29.601 0.867 29.601 0.494 -60.127
2845.333 0.489 -60.444 0.87 29.281 0.87 29.281 0.489 -60.444
2870.292 0.484 -60.758 0.873 28.963 0.873 28.963 0.484 -60.758
2895.25 0.479 -61.069 0.875 28.649 0.875 28.649 0.479 -61.069
2920.208 0.475 -61.378 0.878 28.336 0.878 28.336 0.475 -61.378
2945.167 0.47 -61.683 0.88 28.027 0.88 28.027 0.47 -61.683
2970.125 0.465 -61.987 0.883 27.72 0.883 27.72 0.465 -61.987
2995.083 0.46 -62.287 0.885 27.415 0.885 27.415 0.46 -62.287
3020.042 0.456 -62.586 0.888 27.113 0.888 27.113 0.456 -62.586
3045 0.451 -62.881 0.89 26.813 0.89 26.813 0.451 -62.881
3069.958 0.446 -63.175 0.892 26.516 0.892 26.516 0.446 -63.175
3094.917 0.442 -63.465 0.895 26.221 0.895 26.221 0.442 -63.465
3119.875 0.437 -63.754 0.897 25.929 0.897 25.929 0.437 -63.754
3144.833 0.433 -64.04 0.899 25.639 0.899 25.639 0.433 -64.04
3169.792 0.428 -64.323 0.901 25.351 0.901 25.351 0.428 -64.323
3194.75 0.424 -64.605 0.903 25.065 0.903 25.065 0.424 -64.605
3219.708 0.419 -64.884 0.905 24.782 0.905 24.782 0.419 -64.884
3244.667 0.415 -65.16 0.908 24.501 0.908 24.501 0.415 -65.16
3269.625 0.41 -65.435 0.91 24.222 0.91 24.222 0.41 -65.435
3294.583 0.406 -65.707 0.911 23.945 0.911 23.945 0.406 -65.707
3319.542 0.401 -65.977 0.913 23.671 0.913 23.671 0.401 -65.977
3344.5 0.397 -66.245 0.915 23.398 0.915 23.398 0.397 -66.245
3369.458 0.393 -66.511 0.917 23.128 0.917 23.128 0.393 -66.511
3394.417 0.388 -66.775 0.919 22.859 0.919 22.859 0.388 -66.775
3419.375 0.384 -67.036 0.921 22.593 0.921 22.593 0.384 -67.036
3444.333 0.38 -67.296 0.923 22.329 0.923 22.329 0.38 -67.296
3469.292 0.376 -67.553 0.924 22.066 0.924 22.066 0.376 -67.553
3494.25 0.371 -67.808 0.926 21.806 0.926 21.806 0.371 -67.808
3519.208 0.367 -68.062 0.928 21.547 0.928 21.547 0.367 -68.062
3544.167 0.363 -68.313 0.929 21.291 0.929 21.291 0.363 -68.313
3569.125 0.359 -68.563 0.931 21.036 0.931 21.036 0.359 -68.563
3594.083 0.355 -68.81 0.932 20.783 0.932 20.783 0.355 -68.81
3619.042 0.351 -69.056 0.934 20.532 0.934 20.532 0.351 -69.056
3644 0.347 -69.3 0.935 20.283 0.935 20.283 0.347 -69.3
3668.958 0.343 -69.542 0.937 20.035 0.937 20.035 0.343 -69.542
3693.917 0.339 -69.782 0.938 19.789 0.938 19.789 0.339 -69.782
3718.875 0.335 -70.02 0.94 19.545 0.94 19.545 0.335 -70.02
3743.833 0.331 -70.256 0.941 19.303 0.941 19.303 0.331 -70.256
3768.792 0.327 -70.491 0.943 19.063 0.943 19.063 0.327 -70.491
3793.75 0.323 -70.724 0.944 18.824 0.944 18.824 0.323 -70.724
3818.708 0.319 -70.955 0.945 18.586 0.945 18.586 0.319 -70.955
3843.667 0.315 -71.184 0.947 18.351 0.947 18.351 0.315 -71.184
3868.625 0.311 -71.412 0.948 18.117 0.948 18.117 0.311 -71.412
3893.583 0.307 -71.638 0.949 17.884 0.949 17.884 0.307 -71.638
3918.542 0.303 -71.862 0.95 17.653 0.95 17.653 0.303 -71.862
3943.5 0.299 -72.084 0.952 17.424 0.952 17.424 0.299 -72.084
3968.458 0.296 -72.305 0.953 17.196 0.953 17.196 0.296 -72.305
3993.417 0.292 -72.524 0.954 16.97 0.954 16.97 0.292 -72.524
4018.375 0.288 -72.742 0.955 16.745 0.955 16.745 0.288 -72.742
4043.333 0.284 -72.958 0.956 16.522 0.956 16.522 0.284 -72.958
4068.292 0.281 -73.172 0.957 16.3 0.957 16.3 0.281 -73.172
4093.25 0.277 -73.385 0.958 16.079 0.958 16.079 0.277 -73.385
4118.208 0.273 -73.596 0.959 15.86 0.959 15.86 0.273 -73.596
4143.167 0.27 -73.806 0.96 15.643 0.96 15.643 0.27 -73.806
4168.125 0.266 -74.014 0.961 15.427 0.961 15.427 0.266 -74.014
4193.083 0.262 -74.221 0.962 15.212 0.962 15.212 0.262 -74.221
4218.042 0.259 -74.426 0.963 14.998 0.963 14.998 0.259 -74.426
4243 0.255 -74.629 0.964 14.786 0.964 14.786 0.255 -74.629
4267.958 0.252 -74.831 0.965 14.575 0.965 14.575 0.252 -74.831
4292.917 0.248 -75.032 0.966 14.366 0.966 14.366 0.248 -75.032
4317.875 0.245 -75.231 0.967 14.157 0.967 14.157 0.245 -75.231
4342.833 0.241 -75.428 0.968 13.95 0.968 13.95 0.241 -75.428
4367.792 0.238 -75.624 0.969 13.745 0.969 13.745 0.238 -75.624
4392.75 0.234 -75.819 0.97 13.54 0.97 13.54 0.234 -75.819
4417.708 0.231 -76.012 0.97 13.337 0.97 13.337 0.231 -76.012
4442.667 0.227 -76.204 0.971 13.135 0.971 13.135 0.227 -76.204
4467.625 0.224 -76.394 0.972 12.934 0.972 12.934 0.224 -76.394
4492.583 0.22 -76.583 0.973 12.734 0.973 12.734 0.22 -76.583
4517.542 0.217 -76.77 0.974 12.536 0.974 12.536 0.217 -76.77
4542.5 0.214 -76.956 0.974 12.339 0.974 12.339 0.214 -76.956
4567.458 0.21 -77.14 0.975 12.143 0.975 12.143 0.21 -77.14
4592.417 0.207 -77.323 0.976 11.948 0.976 11.948 0.207 -77.323
4617.375 0.204 -77.505 0.976 11.754 0.976 11.754 0.204 -77.505
4642.333 0.2 -77.685 0.977 11.561 0.977 11.561 0.2 -77.685
4667.292 0.197 -77.863 0.978 11.369 0.978 11.369 0.197 -77.863
4692.25 0.194 -78.041 0.978 11.179 0.978 11.179 0.194 -78.041
4717.208 0.191 -78.216 0.979 10.989 0.979 10.989 0.191 -78.216
4742.167 0.187 -78.391 0.98 10.8 0.98 10.8 0.187 -78.391
4767.125 0.184 -78.563 0.98 10.613 0.98 10.613 0.184 -78.563
4792.083 0.181 -78.735 0.981 10.427 0.981 10.427 0.181 -78.735
4817.042 0.178 -78.905 0.981 10.241 0.981 10.241 0.178 -78.905
4842 0.175 -79.073 0.982 10.057 0.982 10.057 0.175 -79.073
4866.958 0.171 -79.24 0.983 9.873 0.983 9.873 0.171 -79.24
4891.917 0.168 -79.405 0.983 9.691 0.983 9.691 0.168 -79.405
4916.875 0.165 -79.569 0.984 9.51 0.984 9.51 0.165 -79.569
4941.833 0.162 -79.731 0.984 9.329 0.984 9.329 0.162 -79.731
4966.792 0.159 -79.892 0.985 9.15 0.985 9.15 0.159 -79.892
4991.75 0.156 -80.051 0.985 8.971 0.985 8.971 0.156 -80.051
5016.708 0.153 -80.209 0.986 8.794 0.986 8.794 0.153 -80.209
5041.667 0.15 -80.365 0.986 8.617 0.986 8.617 0.15 -80.365
5066.625 0.147 -80.519 0.987 8.441 0.987 8.441 0.147 -80.519
5091.583 0.144 -80.672 0.987 8.266 0.987 8.266 0.144 -80.672
5116.542 0.141 -80.822 0.987 8.092 0.987 8.092 0.141 -80.822
5141.5 0.138 -80.971 0.988 7.919 0.988 7.919 0.138 -80.971
5166.458 0.135 -81.119 0.988 7.747 0.988 7.747 0.135 -81.119
5191.417 0.132 -81.264 0.989 7.576 0.989 7.576 0.132 -81.264
5216.375 0.129 -81.408 0.989 7.405 0.989 7.405 0.129 -81.408
5241.333 0.126 -81.549 0.989 7.236 0.989 7.236 0.126 -81.549
5266.292 0.123 -81.688 0.99 7.067 0.99 7.067 0.123 -81.688
5291.25 0.12 -81.826 0.99 6.899 0.99 6.899 0.12 -81.826
5316.208 0.117 -81.961 0.99 6.732 0.99 6.732 0.117 -81.961
5341.167 0.114 -82.094 0.991 6.566 0.991 6.566 0.114 -82.094
5366.125 0.112 -82.224 0.991 6.4 0.991 6.4 0.112 -82.224
5391.083 0.109 -82.352 0.991 6.235 0.991 6.235 0.109 -82.352
5416.042 0.106 -82.478 0.992 6.071 0.992 6.071 0.106 -82.478
5441 0.103 -82.601 0.992 5.908 0.992 5.908 0.103 -82.601
5465.958 0.1 -82.721 0.992 5.746 0.992 5.746 0.1 -82.721
5490.917 0.097 -82.838 0.993 5.584 0.993 5.584 0.097 -82.838
5515.875 0.095 -82.951 0.993 5.424 0.993 5.424 0.095 -82.951
5540.833 0.092 -83.062 0.993 5.264 0.993 5.264 0.092 -83.062
5565.792 0.089 -83.169 0.993 5.104 0.993 5.104 0.089 -83.169
5590.75 0.086 -83.272 0.994 4.946 0.994 4.946 0.086 -83.272
5615.708 0.084 -83.37 0.994 4.788 0.994 4.788 0.084 -83.37
5640.667 0.081 -83.465 0.994 4.631 0.994 4.631 0.081 -83.465
5665.625 0.078 -83.554 0.994 4.474 0.994 4.474 0.078 -83.554
5690.583 0.075 -83.639 0.994 4.318 0.994 4.318 0.075 -83.639
5715.542 0.073 -83.718 0.995 4.163 0.995 4.163 0.073 -83.718
5740.5 0.07 -83.79 0.995 4.009 0.995 4.009 0.07 -83.79
5765.458 0.067 -83.856 0.995 3.855 0.995 3.855 0.067 -83.856
5790.417 0.065 -83.914 0.995 3.703 0.995 3.703 0.065 -83.914
5815.375 0.062 -83.964 0.995 3.55 0.995 3.55 0.062 -83.964
5840.333 0.059 -84.005 0.996 3.399 0.996 3.399 0.059 -84.005
5865.292 0.057 -84.035 0.996 3.248 0.996 3.248 0.057 -84.035
5890.25 0.054 -84.053 0.996 3.097 0.996 3.097 0.054 -84.053
5915.208 0.051 -84.058 0.996 2.948 0.996 2.948 0.051 -84.058
5940.167 0.049 -84.048 0.996 2.799 0.996 2.799 0.049 -84.048
5965.125 0.046 -84.02 0.996 2.65 0.996 2.65 0.046 -84.02
5990.083 0.044 -83.971 0.996 2.503 0.996 2.503 0.044 -83.971
6015.042 0.041 -83.898 0.996 2.355 0.996 2.355 0.041 -83.898
6040 0.039 -83.797 0.997 2.209 0.997 2.209 0.039 -83.797
6064.958 0.036 -83.661 0.997 2.063 0.997 2.063 0.036 -83.661
6089.917 0.034 -83.483 0.997 1.918 0.997 1.918 0.034 -83.483
6114.875 0.031 -83.254 0.997 1.773 0.997 1.773 0.031 -83.254
6139.833 0.029 -82.961 0.997 1.629 0.997 1.629 0.029 -82.961
6164.792 0.026 -82.585 0.997 1.486 0.997 1.486 0.026 -82.585
6189.75 0.024 -82.102 0.997 1.343 0.997 1.343 0.024 -82.102
6214.708 0.021 -81.475 0.997 1.2 0.997 1.2 0.021 -81.475
6239.667 0.019 -80.648 0.997 1.059 0.997 1.059 0.019 -80.648
6264.625 0.016 -79.535 0.997 0.917 0.997 0.917 0.016 -79.535
6289.583 0.014 -77.987 0.997 0.777 0.997 0.777 0.014 -77.987
6314.542 0.011 -75.739 0.997 0.637 0.997 0.637 0.011 -75.739
6339.5 9.086e-3 -72.259 0.997 0.497 0.997 0.497 9.086e-3 -72.259
6364.458 6.808e-3 -66.336 0.997 0.358 0.997 0.358 6.808e-3 -66.336
6389.417 4.687e-3 -54.71 0.997 0.22 0.997 0.22 4.687e-3 -54.71
6414.375 3.05e-3 -27.888 0.997 0.082 0.997 0.082 3.05e-3 -27.888
6439.333 2.862e-3 19.687 0.997 -0.055 0.997 -0.055 2.862e-3 19.687
6464.292 4.302e-3 51.044 0.997 -0.192 0.997 -0.192 4.302e-3 51.044
6489.25 6.334e-3 64.506 0.997 -0.328 0.997 -0.328 6.334e-3 64.506
6514.208 8.538e-3 71.148 0.997 -0.464 0.997 -0.464 8.538e-3 71.148
6539.167 0.011 74.965 0.997 -0.599 0.997 -0.599 0.011 74.965
6564.125 0.013 77.396 0.997 -0.734 0.997 -0.734 0.013 77.396
6589.083 0.015 79.056 0.997 -0.868 0.997 -0.868 0.015 79.056
6614.042 0.018 80.244 0.997 -1.002 0.997 -1.002 0.018 80.244
6639 0.02 81.125 0.997 -1.135 0.997 -1.135 0.02 81.125
6663.958 0.022 81.794 0.997 -1.268 0.997 -1.268 0.022 81.794
6688.917 0.025 82.312 0.997 -1.4 0.997 -1.4 0.025 82.312
6713.875 0.027 82.717 0.997 -1.532 0.997 -1.532 0.027 82.717
6738.833 0.029 83.037 0.997 -1.663 0.997 -1.663 0.029 83.037
6763.792 0.031 83.291 0.997 -1.794 0.997 -1.794 0.031 83.291
6788.75 0.034 83.492 0.997 -1.924 0.997 -1.924 0.034 83.492
6813.708 0.036 83.651 0.997 -2.054 0.997 -2.054 0.036 83.651
6838.667 0.038 83.776 0.997 -2.183 0.997 -2.183 0.038 83.776
6863.625 0.04 83.872 0.996 -2.312 0.996 -2.312 0.04 83.872
6888.583 0.043 83.944 0.996 -2.441 0.996 -2.441 0.043 83.944
6913.542 0.045 83.996 0.996 -2.569 0.996 -2.569 0.045 83.996
6938.5 0.047 84.03 0.996 -2.696 0.996 -2.696 0.047 84.03
6963.458 0.049 84.051 0.996 -2.823 0.996 -2.823 0.049 84.051
6988.417 0.052 84.058 0.996 -2.95 0.996 -2.95 0.052 84.058
7013.375 0.054 84.055 0.996 -3.076 0.996 -3.076 0.054 84.055
7038.333 0.056 84.042 0.996 -3.202 0.996 -3.202 0.056 84.042
7063.292 0.058 84.02 0.996 -3.327 0.996 -3.327 0.058 84.02
7088.25 0.06 83.991 0.995 -3.452 0.995 -3.452 0.06 83.991
7113.208 0.062 83.956 0.995 -3.576 0.995 -3.576 0.062 83.956
7138.167 0.065 83.915 0.995 -3.7 0.995 -3.7 0.065 83.915
7163.125 0.067 83.868 0.995 -3.824 0.995 -3.824 0.067 83.868
7188.083 0.069 83.817 0.995 -3.947 0.995 -3.947 0.069 83.817
7213.042 0.071 83.762 0.995 -4.07 0.995 -4.07 0.071 83.762
7238 0.073 83.703 0.995 -4.192 0.995 -4.192 0.073 83.703
7262.958 0.075 83.641 0.994 -4.314 0.994 -4.314 0.075 83.641
7287.917 0.077 83.576 0.994 -4.436 0.994 -4.436 0.077 83.576
7312.875 0.079 83.508 0.994 -4.557 0.994 -4.557 0.079 83.508
7337.833 0.082 83.437 0.994 -4.678 0.994 -4.678 0.082 83.437
7362.792 0.084 83.364 0.994 -4.798 0.994 -4.798 0.084 83.364
7387.75 0.086 83.289 0.994 -4.918 0.994 -4.918 0.086 83.289
7412.708 0.088 83.212 0.993 -5.037 0.993 -5.037 0.088 83.212
7437.667 0.09 83.134 0.993 -5.157 0.993 -5.157 0.09 83.134
7462.625 0.092 83.054 0.993 -5.275 0.993 -5.275 0.092 83.054
7487.583 0.094 82.972 0.993 -5.394 0.993 -5.394 0.094 82.972
7512.542 0.096 82.889 0.993 -5.512 0.993 -5.512 0.096 82.889
7537.5 0.098 82.805 0.992 -5.629 0.992 -5.629 0.098 82.805
7562.458 0.1 82.72 0.992 -5.747 0.992 -5.747 0.1 82.72
7587.417 0.102 82.634 0.992 -5.864 0.992 -5.864 0.102 82.634
7612.375 0.104 82.547 0.992 -5.98 0.992 -5.98 0.104 82.547
7637.333 0.106 82.459 0.992 -6.096 0.992 -6.096 0.106 82.459
7662.292 0.108 82.371 0.991 -6.212 0.991 -6.212 0.108 82.371
7687.25 0.11 82.281 0.991 -6.327 0.991 -6.327 0.11 82.281
7712.208 0.112 82.191 0.991 -6.442 0.991 -6.442 0.112 82.191
7737.167 0.114 82.101 0.991 -6.557 0.991 -6.557 0.114 82.101
7762.125 0.116 82.009 0.991 -6.671 0.991 -6.671 0.116 82.009
7787.083 0.118 81.918 0.99 -6.785 0.99 -6.785 0.118 81.918
7812.042 0.12 81.826 0.99 -6.899 0.99 -6.899 0.12 81.826
7837 0.122 81.733 0.99 -7.012 0.99 -7.012 0.122 81.733
7861.958 0.124 81.64 0.99 -7.125 0.99 -7.125 0.124 81.64
7886.917 0.126 81.547 0.989 -7.238 0.989 -7.238 0.126 81.547
7911.875 0.128 81.454 0.989 -7.35 0.989 -7.35 0.128 81.454
7936.833 0.13 81.36 0.989 -7.462 0.989 -7.462 0.13 81.36
7961.792 0.132 81.266 0.989 -7.574 0.989 -7.574 0.132 81.266
7986.75 0.134 81.172 0.988 -7.685 0.988 -7.685 0.134 81.172
8011.708 0.136 81.077 0.988 -7.796 0.988 -7.796 0.136 81.077
8036.667 0.138 80.982 0.988 -7.907 0.988 -7.907 0.138 80.982
8061.625 0.139 80.888 0.988 -8.017 0.988 -8.017 0.139 80.888
8086.583 0.141 80.793 0.987 -8.127 0.987 -8.127 0.141 80.793
8111.542 0.143 80.698 0.987 -8.236 0.987 -8.236 0.143 80.698
8136.5 0.145 80.602 0.987 -8.346 0.987 -8.346 0.145 80.602
8161.458 0.147 80.507 0.986 -8.455 0.986 -8.455 0.147 80.507
8186.417 0.149 80.412 0.986 -8.563 0.986 -8.563 0.149 80.412
8211.375 0.151 80.317 0.986 -8.672 0.986 -8.672 0.151 80.317
