# MHZ S MA R 50

50 0.997 -4.313 0.075 85.68 0.075 85.68 0.997 -4.313
74.958 0.994 -6.451 0.112 83.537 0.112 83.537 0.994 -6.451
99.917 0.989 -8.574 0.149 81.411 0.149 81.411 0.989 -8.574
124.875 0.983 -10.675 0.185 79.306 0.185 79.306 0.983 -10.675
149.833 0.975 -12.751 0.221 77.227 0.221 77.227 0.975 -12.751
174.792 0.967 -14.796 0.255 75.178 0.255 75.178 0.967 -14.796
199.75 0.957 -16.806 0.289 73.164 0.289 73.164 0.957 -16.806
224.708 0.947 -18.779 0.322 71.187 0.322 71.187 0.947 -18.779
249.667 0.935 -20.711 0.354 69.252 0.354 69.252 0.935 -20.711
274.625 0.923 -22.6 0.384 67.359 0.384 67.359 0.923 -22.6
299.583 0.91 -24.443 0.414 65.512 0.414 65.512 0.91 -24.443
324.542 0.897 -26.24 0.442 63.711 0.442 63.711 0.897 -26.24
349.5 0.883 -27.988 0.469 61.959 0.469 61.959 0.883 -27.988
374.458 0.868 -29.688 0.495 60.256 0.495 60.256 0.868 -29.688
399.417 0.854 -31.338 0.52 58.602 0.52 58.602 0.854 -31.338
424.375 0.839 -32.938 0.544 56.998 0.544 56.998 0.839 -32.938
449.333 0.824 -34.489 0.566 55.443 0.566 55.443 0.824 -34.489
474.292 0.808 -35.991 0.588 53.937 0.588 53.937 0.808 -35.991
499.25 0.793 -37.445 0.608 52.479 0.608 52.479 0.793 -37.445
524.208 0.778 -38.852 0.627 51.068 0.627 51.068 0.778 -38.852
549.167 0.763 -40.212 0.646 49.704 0.646 49.704 0.763 -40.212
574.125 0.748 -41.527 0.663 48.385 0.663 48.385 0.748 -41.527
599.083 0.733 -42.798 0.679 47.11 0.679 47.11 0.733 -42.798
624.042 0.718 -44.027 0.695 45.878 0.695 45.878 0.718 -44.027
649 0.703 -45.213 0.71 44.687 0.71 44.687 0.703 -45.213
673.958 0.689 -46.36 0.724 43.537 0.724 43.537 0.689 -46.36
698.917 0.675 -47.468 0.737 42.425 0.737 42.425 0.675 -47.468
723.875 0.661 -48.538 0.749 41.35 0.749 41.35 0.661 -48.538
748.833 0.647 -49.573 0.761 40.311 0.761 40.311 0.647 -49.573
773.792 0.633 -50.573 0.772 39.307 0.772 39.307 0.633 -50.573
798.75 0.62 -51.539 0.783 38.336 0.783 38.336 0.62 -51.539
823.708 0.607 -52.474 0.793 37.397 0.793 37.397 0.607 -52.474
848.667 0.595 -53.378 0.803 36.489 0.803 36.489 0.595 -53.378
873.625 0.582 -54.253 0.812 35.609 0.812 35.609 0.582 -54.253
898.583 0.57 -55.1 0.82 34.758 0.82 34.758 0.57 -55.1
923.542 0.558 -55.919 0.828 33.934 0.828 33.934 0.558 -55.919
948.5 0.547 -56.713 0.836 33.136 0.836 33.136 0.547 -56.713
973.458 0.535 -57.482 0.843 32.363 0.843 32.363 0.535 -57.482
998.417 0.524 -58.227 0.85 31.613 0.85 31.613 0.524 -58.227
1023.375 0.513 -58.949 0.857 30.886 0.857 30.886 0.513 -58.949
1048.333 0.503 -59.65 0.863 30.181 0.863 30.181 0.503 -59.65
1073.292 0.492 -60.329 0.869 29.497 0.869 29.497 0.492 -60.329
1098.25 0.482 -60.989 0.875 28.833 0.875 28.833 0.482 -60.989
1123.208 0.472 -61.629 0.88 28.188 0.88 28.188 0.472 -61.629
1148.167 0.463 -62.251 0.885 27.561 0.885 27.561 0.463 -62.251
1173.125 0.453 -62.855 0.89 26.952 0.89 26.952 0.453 -62.855
1198.083 0.444 -63.442 0.894 26.359 0.894 26.359 0.444 -63.442
1223.042 0.435 -64.013 0.899 25.783 0.899 25.783 0.435 -64.013
1248 0.426 -64.569 0.903 25.222 0.903 25.222 0.426 -64.569
1272.958 0.417 -65.109 0.907 24.676 0.907 24.676 0.417 -65.109
1297.917 0.409 -65.636 0.911 24.145 0.911 24.145 0.409 -65.636
1322.875 0.401 -66.148 0.915 23.627 0.915 23.627 0.401 -66.148
1347.833 0.393 -66.647 0.918 23.122 0.918 23.122 0.393 -66.647
1372.792 0.385 -67.134 0.921 22.63 0.921 22.63 0.385 -67.134
1397.75 0.377 -67.608 0.925 22.15 0.925 22.15 0.377 -67.608
1422.708 0.369 -68.071 0.928 21.682 0.928 21.682 0.369 -68.071
1447.667 0.362 -68.522 0.931 21.225 0.931 21.225 0.362 -68.522
1472.625 0.355 -68.962 0.933 20.778 0.933 20.778 0.355 -68.962
1497.583 0.348 -69.392 0.936 20.342 0.936 20.342 0.348 -69.392
1522.542 0.341 -69.812 0.939 19.916 0.939 19.916 0.341 -69.812
1547.5 0.334 -70.222 0.941 19.5 0.941 19.5 0.334 -70.222
1572.458 0.327 -70.623 0.943 19.093 0.943 19.093 0.327 -70.623
1597.417 0.321 -71.015 0.946 18.694 0.946 18.694 0.321 -71.015
1622.375 0.314 -71.398 0.948 18.305 0.948 18.305 0.314 -71.398
1647.333 0.308 -71.772 0.95 17.923 0.95 17.923 0.308 -71.772
1672.292 0.302 -72.139 0.952 17.55 0.952 17.55 0.302 -72.139
1697.25 0.295 -72.498 0.954 17.184 0.954 17.184 0.295 -72.498
1722.208 0.289 -72.849 0.956 16.826 0.956 16.826 0.289 -72.849
1747.167 0.284 -73.193 0.957 16.474 0.957 16.474 0.284 -73.193
1772.125 0.278 -73.53 0.959 16.13 0.959 16.13 0.278 -73.53
1797.083 0.272 -73.86 0.961 15.792 0.961 15.792 0.272 -73.86
1822.042 0.267 -74.183 0.962 15.461 0.962 15.461 0.267 -74.183
1847 0.261 -74.5 0.964 15.136 0.964 15.136 0.261 -74.5
1871.958 0.256 -74.811 0.965 14.817 0.965 14.817 0.256 -74.811
1896.917 0.25 -75.116 0.966 14.504 0.966 14.504 0.25 -75.116
1921.875 0.245 -75.415 0.968 14.196 0.968 14.196 0.245 -75.415
1946.833 0.24 -75.708 0.969 13.894 0.969 13.894 0.24 -75.708
1971.792 0.235 -75.996 0.97 13.597 0.97 13.597 0.235 -75.996
1996.75 0.23 -76.279 0.971 13.305 0.971 13.305 0.23 -76.279
2021.708 0.225 -76.556 0.973 13.018 0.973 13.018 0.225 -76.556
2046.667 0.22 -76.829 0.974 12.736 0.974 12.736 0.22 -76.829
2071.625 0.216 -77.096 0.975 12.458 0.975 12.458 0.216 -77.096
2096.583 0.211 -77.359 0.976 12.185 0.976 12.185 0.211 -77.359
2121.542 0.206 -77.617 0.977 11.917 0.977 11.917 0.206 -77.617
2146.5 0.202 -77.871 0.978 11.652 0.978 11.652 0.202 -77.871
2171.458 0.198 -78.12 0.979 11.392 0.979 11.392 0.198 -78.12
2196.417 0.193 -78.365 0.979 11.136 0.979 11.136 0.193 -78.365
2221.375 0.189 -78.605 0.98 10.883 0.98 10.883 0.189 -78.605
2246.333 0.185 -78.842 0.981 10.634 0.981 10.634 0.185 -78.842
2271.292 0.18 -79.074 0.982 10.389 0.982 10.389 0.18 -79.074
2296.25 0.176 -79.303 0.983 10.147 0.983 10.147 0.176 -79.303
2321.208 0.172 -79.528 0.983 9.909 0.983 9.909 0.172 -79.528
2346.167 0.168 -79.749 0.984 9.674 0.984 9.674 0.168 -79.749
2371.125 0.164 -79.966 0.985 9.443 0.985 9.443 0.164 -79.966
2396.083 0.16 -80.179 0.985 9.214 0.985 9.214 0.16 -80.179
2421.042 0.156 -80.389 0.986 8.989 0.986 8.989 0.156 -80.389
2446 0.152 -80.596 0.987 8.766 0.987 8.766 0.152 -80.596
2470.958 0.149 -80.799 0.987 8.546 0.987 8.546 0.149 -80.799
2495.917 0.145 -80.998 0.988 8.33 0.988 8.33 0.145 -80.998
2520.875 0.141 -81.194 0.988 8.116 0.988 8.116 0.141 -81.194
2545.833 0.138 -81.387 0.989 7.904 0.989 7.904 0.138 -81.387
2570.792 0.134 -81.576 0.989 7.695 0.989 7.695 0.134 -81.576
2595.75 0.13 -81.762 0.99 7.489 0.99 7.489 0.13 -81.762
2620.708 0.127 -81.945 0.99 7.285 0.99 7.285 0.127 -81.945
2645.667 0.123 -82.124 0.991 7.084 0.991 7.084 0.123 -82.124
2670.625 0.12 -82.3 0.991 6.885 0.991 6.885 0.12 -82.3
2695.583 0.116 -82.473 0.991 6.688 0.991 6.688 0.116 -82.473
2720.542 0.113 -82.642 0.992 6.493 0.992 6.493 0.113 -82.642
2745.5 0.11 -82.808 0.992 6.301 0.992 6.301 0.11 -82.808
2770.458 0.106 -82.97 0.993 6.111 0.993 6.111 0.106 -82.97
2795.417 0.103 -83.129 0.993 5.922 0.993 5.922 0.103 -83.129
2820.375 0.1 -83.284 0.993 5.736 0.993 5.736 0.1 -83.284
2845.333 0.097 -83.436 0.994 5.552 0.994 5.552 0.097 -83.436
2870.292 0.094 -83.584 0.994 5.37 0.994 5.37 0.094 -83.584
2895.25 0.09 -83.727 0.994 5.189 0.994 5.189 0.09 -83.727
2920.208 0.087 -83.867 0.994 5.011 0.994 5.011 0.087 -83.867
2945.167 0.084 -84.003 0.995 4.834 0.995 4.834 0.084 -84.003
2970.125 0.081 -84.134 0.995 4.659 0.995 4.659 0.081 -84.134
2995.083 0.078 -84.261 0.995 4.485 0.995 4.485 0.078 -84.261
3020.042 0.075 -84.382 0.995 4.314 0.995 4.314 0.075 -84.382
3045 0.072 -84.499 0.996 4.143 0.996 4.143 0.072 -84.499
3069.958 0.069 -84.609 0.996 3.975 0.996 3.975 0.069 -84.609
3094.917 0.066 -84.714 0.996 3.808 0.996 3.808 0.066 -84.714
3119.875 0.064 -84.812 0.996 3.643 0.996 3.643 0.064 -84.812
3144.833 0.061 -84.903 0.996 3.479 0.996 3.479 0.061 -84.903
3169.792 0.058 -84.986 0.997 3.316 0.997 3.316 0.058 -84.986
3194.75 0.055 -85.06 0.997 3.155 0.997 3.155 0.055 -85.06
3219.708 0.052 -85.125 0.997 2.995 0.997 2.995 0.052 -85.125
3244.667 0.05 -85.178 0.997 2.837 0.997 2.837 0.05 -85.178
3269.625 0.047 -85.219 0.997 2.68 0.997 2.68 0.047 -85.219
3294.583 0.044 -85.245 0.997 2.525 0.997 2.525 0.044 -85.245
3319.542 0.041 -85.254 0.997 2.37 0.997 2.37 0.041 -85.254
3344.5 0.039 -85.243 0.998 2.217 0.998 2.217 0.039 -85.243
3369.458 0.036 -85.208 0.998 2.065 0.998 2.065 0.036 -85.208
3394.417 0.033 -85.144 0.998 1.915 0.998 1.915 0.033 -85.144
3419.375 0.031 -85.045 0.998 1.765 0.998 1.765 0.031 -85.045
3444.333 0.028 -84.901 0.998 1.617 0.998 1.617 0.028 -84.901
3469.292 0.026 -84.701 0.998 1.47 0.998 1.47 0.026 -84.701
3494.25 0.023 -84.425 0.998 1.324 0.998 1.324 0.023 -84.425
3519.208 0.021 -84.049 0.998 1.179 0.998 1.179 0.021 -84.049
3544.167 0.018 -83.533 0.998 1.035 0.998 1.035 0.018 -83.533
3569.125 0.016 -82.812 0.998 0.892 0.998 0.892 0.016 -82.812
3594.083 0.013 -81.775 0.998 0.75 0.998 0.75 0.013 -81.775
3619.042 0.011 -80.213 0.998 0.609 0.998 0.609 0.011 -80.213
3644 8.367e-3 -77.686 0.998 0.469 0.998 0.469 8.367e-3 -77.686
3668.958 6.015e-3 -73.08 0.998 0.33 0.998 0.33 6.015e-3 -73.08
3693.917 3.771e-3 -62.716 0.998 0.192 0.998 0.192 3.771e-3 -62.716
3718.875 1.971e-3 -29.311 0.998 0.055 0.998 0.055 1.971e-3 -29.311
3743.833 2.221e-3 39.277 0.998 -0.081 0.998 -0.081 2.221e-3 39.277
3768.792 4.141e-3 65.28 0.998 -0.216 0.998 -0.216 4.141e-3 65.28
3793.75 6.348e-3 73.954 0.998 -0.35 0.998 -0.35 6.348e-3 73.954
3818.708 8.613e-3 78.015 0.998 -0.484 0.998 -0.484 8.613e-3 78.015
3843.667 0.011 80.311 0.998 -0.616 0.998 -0.616 0.011 80.311
3868.625 0.013 81.757 0.998 -0.748 0.998 -0.748 0.013 81.757
3893.583 0.015 82.733 0.998 -0.879 0.998 -0.879 0.015 82.733
3918.542 0.018 83.421 0.998 -1.009 0.998 -1.009 0.018 83.421
3943.5 0.02 83.921 0.998 -1.138 0.998 -1.138 0.02 83.921
3968.458 0.022 84.292 0.998 -1.267 0.998 -1.267 0.022 84.292
3993.417 0.024 84.57 0.998 -1.394 0.998 -1.394 0.024 84.57
4018.375 0.027 84.779 0.998 -1.521 0.998 -1.521 0.027 84.779
4043.333 0.029 84.936 0.998 -1.648 0.998 -1.648 0.029 84.936
4068.292 0.031 85.052 0.998 -1.773 0.998 -1.773 0.031 85.052
4093.25 0.033 85.135 0.998 -1.898 0.998 -1.898 0.033 85.135
4118.208 0.035 85.193 0.998 -2.022 0.998 -2.022 0.035 85.193
4143.167 0.037 85.23 0.998 -2.145 0.998 -2.145 0.037 85.23
4168.125 0.04 85.249 0.998 -2.268 0.998 -2.268 0.04 85.249
4193.083 0.042 85.254 0.997 -2.39 0.997 -2.39 0.042 85.254
4218.042 0.044 85.246 0.997 -2.512 0.997 -2.512 0.044 85.246
4243 0.046 85.228 0.997 -2.632 0.997 -2.632 0.046 85.228
4267.958 0.048 85.202 0.997 -2.752 0.997 -2.752 0.048 85.202
4292.917 0.05 85.167 0.997 -2.872 0.997 -2.872 0.05 85.167
4317.875 0.052 85.127 0.997 -2.991 0.997 -2.991 0.052 85.127
4342.833 0.054 85.08 0.997 -3.109 0.997 -3.109 0.054 85.08
4367.792 0.056 85.028 0.997 -3.227 0.997 -3.227 0.056 85.028
4392.75 0.058 84.973 0.997 -3.344 0.997 -3.344 0.058 84.973
4417.708 0.06 84.913 0.996 -3.46 0.996 -3.46 0.06 84.913
4442.667 0.062 84.85 0.996 -3.576 0.996 -3.576 0.062 84.85
4467.625 0.064 84.784 0.996 -3.691 0.996 -3.691 0.064 84.784
4492.583 0.066 84.715 0.996 -3.806 0.996 -3.806 0.066 84.715
4517.542 0.068 84.644 0.996 -3.92 0.996 -3.92 0.068 84.644
4542.5 0.07 84.571 0.996 -4.034 0.996 -4.034 0.07 84.571
4567.458 0.072 84.496 0.996 -4.147 0.996 -4.147 0.072 84.496
4592.417 0.074 84.419 0.996 -4.26 0.996 -4.26 0.074 84.419
4617.375 0.076 84.341 0.995 -4.372 0.995 -4.372 0.076 84.341
4642.333 0.078 84.262 0.995 -4.483 0.995 -4.483 0.078 84.262
4667.292 0.08 84.181 0.995 -4.594 0.995 -4.594 0.08 84.181
4692.25 0.082 84.1 0.995 -4.705 0.995 -4.705 0.082 84.1
4717.208 0.084 84.017 0.995 -4.815 0.995 -4.815 0.084 84.017
4742.167 0.086 83.934 0.995 -4.925 0.995 -4.925 0.086 83.934
4767.125 0.088 83.849 0.994 -5.034 0.994 -5.034 0.088 83.849
4792.083 0.09 83.764 0.994 -5.142 0.994 -5.142 0.09 83.764
4817.042 0.092 83.679 0.994 -5.251 0.994 -5.251 0.092 83.679
4842 0.093 83.593 0.994 -5.358 0.994 -5.358 0.093 83.593
4866.958 0.095 83.506 0.994 -5.466 0.994 -5.466 0.095 83.506
4891.917 0.097 83.419 0.994 -5.572 0.994 -5.572 0.097 83.419
4916.875 0.099 83.332 0.993 -5.679 0.993 -5.679 0.099 83.332
4941.833 0.101 83.244 0.993 -5.785 0.993 -5.785 0.101 83.244
4966.792 0.103 83.156 0.993 -5.89 0.993 -5.89 0.103 83.156
4991.75 0.104 83.068 0.993 -5.995 0.993 -5.995 0.104 83.068
5016.708 0.106 82.979 0.993 -6.1 0.993 -6.1 0.106 82.979
5041.667 0.108 82.89 0.992 -6.204 0.992 -6.204 0.108 82.89
5066.625 0.11 82.802 0.992 -6.308 0.992 -6.308 0.11 82.802
5091.583 0.112 82.713 0.992 -6.412 0.992 -6.412 0.112 82.713
5116.542 0.113 82.623 0.992 -6.515 0.992 -6.515 0.113 82.623
5141.5 0.115 82.534 0.992 -6.618 0.992 -6.618 0.115 82.534
5166.458 0.117 82.445 0.991 -6.72 0.991 -6.72 0.117 82.445
5191.417 0.119 82.356 0.991 -6.822 0.991 -6.822 0.119 82.356
5216.375 0.121 82.266 0.991 -6.923 0.991 -6.923 0.121 82.266
5241.333 0.122 82.177 0.991 -7.025 0.991 -7.025 0.122 82.177
5266.292 0.124 82.087 0.991 -7.125 0.991 -7.125 0.124 82.087
5291.25 0.126 81.998 0.99 -7.226 0.99 -7.226 0.126 81.998
5316.208 0.128 81.909 0.99 -7.326 0.99 -7.326 0.128 81.909
5341.167 0.129 81.819 0.99 -7.426 0.99 -7.426 0.129 81.819
5366.125 0.131 81.73 0.99 -7.525 0.99 -7.525 0.131 81.73
5391.083 0.133 81.641 0.989 -7.624 0.989 -7.624 0.133 81.641
5416.042 0.134 81.551 0.989 -7.723 0.989 -7.723 0.134 81.551
5441 0.136 81.462 0.989 -7.821 0.989 -7.821 0.136 81.462
5465.958 0.138 81.373 0.989 -7.919 0.989 -7.919 0.138 81.373
5490.917 0.139 81.284 0.989 -8.017 0.989 -8.017 0.139 81.284
5515.875 0.141 81.195 0.988 -8.114 0.988 -8.114 0.141 81.195
5540.833 0.143 81.107 0.988 -8.212 0.988 -8.212 0.143 81.107
5565.792 0.145 81.018 0.988 -8.308 0.988 -8.308 0.145 81.018
5590.75 0.146 80.929 0.988 -8.405 0.988 -8.405 0.146 80.929
5615.708 0.148 80.841 0.987 -8.501 0.987 -8.501 0.148 80.841
5640.667 0.149 80.753 0.987 -8.597 0.987 -8.597 0.149 80.753
5665.625 0.151 80.664 0.987 -8.692 0.987 -8.692 0.151 80.664
5690.583 0.153 80.576 0.987 -8.787 0.987 -8.787 0.153 80.576
5715.542 0.154 80.488 0.986 -8.882 0.986 -8.882 0.154 80.488
5740.5 0.156 80.4 0.986 -8.977 0.986 -8.977 0.156 80.4
5765.458 0.158 80.313 0.986 -9.071 0.986 -9.071 0.158 80.313
5790.417 0.159 80.225 0.986 -9.165 0.986 -9.165 0.159 80.225
5815.375 0.161 80.138 0.985 -9.259 0.985 -9.259 0.161 80.138
5840.333 0.163 80.05 0.985 -9.352 0.985 -9.352 0.163 80.05
5865.292 0.164 79.963 0.985 -9.445 0.985 -9.445 0.164 79.963
5890.25 0.166 79.876 0.984 -9.538 0.984 -9.538 0.166 79.876
5915.208 0.167 79.789 0.984 -9.631 0.984 -9.631 0.167 79.789
5940.167 0.169 79.703 0.984 -9.723 0.984 -9.723 0.169 79.703
5965.125 0.17 79.616 0.984 -9.815 0.984 -9.815 0.17 79.616
5990.083 0.172 79.53 0.983 -9.907 0.983 -9.907 0.172 79.53
6015.042 0.174 79.443 0.983 -9.999 0.983 -9.999 0.174 79.443
6040 0.175 79.357 0.983 -10.09 0.983 -10.09 0.175 79.357
6064.958 0.177 79.271 0.983 -10.181 0.983 -10.181 0.177 79.271
6089.917 0.178 79.185 0.982 -10.272 0.982 -10.272 0.178 79.185
6114.875 0.18 79.1 0.982 -10.362 0.982 -10.362 0.18 79.1
6139.833 0.181 79.014 0.982 -10.452 0.982 -10.452 0.181 79.014
6164.792 0.183 78.929 0.981 -10.542 0.981 -10.542 0.183 78.929
6189.75 0.185 78.844 0.981 -10.632 0.981 -10.632 0.185 78.844
6214.708 0.186 78.759 0.981 -10.722 0.981 -10.722 0.186 78.759
6239.667 0.188 78.674 0.981 -10.811 0.981 -10.811 0.188 78.674
6264.625 0.189 78.589 0.98 -10.9 0.98 -10.9 0.189 78.589
6289.583 0.191 78.504 0.98 -10.989 0.98 -10.989 0.191 78.504
6314.542 0.192 78.42 0.98 -11.077 0.98 -11.077 0.192 78.42
6339.5 0.194 78.336 0.979 -11.166 0.979 -11.166 0.194 78.336
6364.458 0.195 78.252 0.979 -11.254 0.979 -11.254 0.195 78.252
6389.417 0.197 78.168 0.979 -11.342 0.979 -11.342 0.197 78.168
6414.375 0.198 78.084 0.978 -11.429 0.978 -11.429 0.198 78.084
6439.333 0.2 78 0.978 -11.517 0.978 -11.517 0.2 78
6464.292 0.201 77.917 0.978 -11.604 0.978 -11.604 0.201 77.917
6489.25 0.203 77.834 0.978 -11.691 0.978 -11.691 0.203 77.834
6514.208 0.204 77.751 0.977 -11.777 0.977 -11.777 0.204 77.751
6539.167 0.206 77.668 0.977 -11.864 0.977 -11.864 0.206 77.668
6564.125 0.207 77.585 0.977 -11.95 0.977 -11.95 0.207 77.585
6589.083 0.209 77.502 0.976 -12.036 0.976 -12.036 0.209 77.502
6614.042 0.21 77.42 0.976 -12.122 0.976 -12.122 0.21 77.42
6639 0.211 77.337 0.976 -12.208 0.976 -12.208 0.211 77.337
6663.958 0.213 77.255 0.975 -12.293 0.975 -12.293 0.213 77.255
6688.917 0.214 77.173 0.975 -12.379 0.975 -12.379 0.214 77.173
6713.875 0.216 77.091 0.975 -12.464 0.975 -12.464 0.216 77.091
6738.833 0.217 77.009 0.974 -12.548 0.974 -12.548 0.217 77.009
6763.792 0.219 76.928 0.974 -12.633 0.974 -12.633 0.219 76.928
6788.75 0.22 76.847 0.974 -12.717 0.974 -12.717 0.22 76.847
6813.708 0.222 76.765 0.973 -12.802 0.973 -12.802 0.222 76.765
6838.667 0.223 76.684 0.973 -12.886 0.973 -12.886 0.223 76.684
6863.625 0.224 76.603 0.973 -12.97 0.973 -12.97 0.224 76.603
6888.583 0.226 76.522 0.972 -13.053 0.972 -13.053 0.226 76.522
6913.542 0.227 76.442 0.972 -13.137 0.972 -13.137 0.227 76.442
6938.5 0.229 76.361 0.972 -13.22 0.972 -13.22 0.229 76.361
6963.458 0.23 76.281 0.971 -13.303 0.971 -13.303 0.23 76.281
6988.417 0.232 76.201 0.971 -13.386 0.971 -13.386 0.232 76.201
7013.375 0.233 76.121 0.971 -13.468 0.971 -13.468 0.233 76.121
7038.333 0.234 76.041 0.97 -13.551 0.97 -13.551 0.234 76.041
7063.292 0.236 75.961 0.97 -13.633 0.97 -13.633 0.236 75.961
7088.25 0.237 75.881 0.97 -13.715 0.97 -13.715 0.237 75.881
7113.208 0.238 75.802 0.969 -13.797 0.969 -13.797 0.238 75.802
7138.167 0.24 75.723 0.969 -13.879 0.969 -13.879 0.24 75.723
7163.125 0.241 75.643 0.969 -13.961 0.969 -13.961 0.241 75.643
7188.083 0.243 75.564 0.968 -14.042 0.968 -14.042 0.243 75.564
7213.042 0.244 75.486 0.968 -14.123 0.968 -14.123 0.244 75.486
7238 0.245 75.407 0.968 -14.204 0.968 -14.204 0.245 75.407
7262.958 0.247 75.328 0.967 -14.285 0.967 -14.285 0.247 75.328
7287.917 0.248 75.25 0.967 -14.366 0.967 -14.366 0.248 75.25
7312.875 0.249 75.172 0.967 -14.446 0.967 -14.446 0.249 75.172
7337.833 0.251 75.093 0.966 -14.527 0.966 -14.527 0.251 75.093
7362.792 0.252 75.015 0.966 -14.607 0.966 -14.607 0.252 75.015
7387.75 0.254 74.938 0.966 -14.687 0.966 -14.687 0.254 74.938
7412.708 0.255 74.86 0.965 -14.767 0.965 -14.767 0.255 74.86
7437.667 0.256 74.782 0.965 -14.847 0.965 -14.847 0.256 74.782
7462.625 0.258 74.705 0.965 -14.926 0.965 -14.926 0.258 74.705
7487.583 0.259 74.627 0.964 -15.005 0.964 -15.005 0.259 74.627
7512.542 0.26 74.55 0.964 -15.085 0.964 -15.085 0.26 74.55
7537.5 0.262 74.473 0.964 -15.164 0.964 -15.164 0.262 74.473
7562.458 0.263 74.396 0.963 -15.243 0.963 -15.243 0.263 74.396
7587.417 0.264 74.32 0.963 -15.321 0.963 -15.321 0.264 74.32
7612.375 0.266 74.243 0.962 -15.4 0.962 -15.4 0.266 74.243
7637.333 0.267 74.166 0.962 -15.478 0.962 -15.478 0.267 74.166
7662.292 0.268 74.09 0.962 -15.556 0.962 -15.556 0.268 74.09
7687.25 0.27 74.014 0.961 -15.634 0.961 -15.634 0.27 74.014
7712.208 0.271 73.938 0.961 -15.712 0.961 -15.712 0.271 73.938
7737.167 0.272 73.862 0.961 -15.79 0.961 -15.79 0.272 73.862
7762.125 0.273 73.786 0.96 -15.868 0.96 -15.868 0.273 73.786
7787.083 0.275 73.71 0.96 -15.945 0.96 -15.945 0.275 73.71
7812.042 0.276 73.635 0.96 -16.022 0.96 -16.022 0.276 73.635
7837 0.277 73.559 0.959 -16.1 0.959 -16.1 0.277 73.559
7861.958 0.279 73.484 0.959 -16.177 0.959 -16.177 0.279 73.484
7886.917 0.28 73.409 0.958 -16.253 0.958 -16.253 0.28 73.409
7911.875 0.281 73.334 0.958 -16.33 0.958 -16.33 0.281 73.334
7936.833 0.282 73.259 0.958 -16.407 0.958 -16.407 0.282 73.259
7961.792 0.284 73.184 0.957 -16.483 0.957 -16.483 0.284 73.184
7986.75 0.285 73.11 0.957 -16.559 0.957 -16.559 0.285 73.11
8011.708 0.286 73.035 0.956 -16.635 0.956 -16.635 0.286 73.035
8036.667 0.288 72.961 0.956 -16.711 0.956 -16.711 0.288 72.961
8061.625 0.289 72.887 0.956 -16.787 0.956 -16.787 0.289 72.887
8086.583 0.29 72.812 0.955 -16.863 0.955 -16.863 0.29 72.812
8111.542 0.291 72.738 0.955 -16.938 0.955 -16.938 0.291 72.738
8136.5 0.293 72.665 0.955 -17.014 0.955 -17.014 0.293 72.665
8161.458 0.294 72.591 0.954 -17.089 0.954 -17.089 0.294 72.591
8186.417 0.295 72.517 0.954 -17.164 0.954 -17.164 0.295 72.517
8211.375 0.296 72.444 0.953 -17.239 0.953 -17.239 0.296 72.444
