# MHZ S MA R 50

50 0.935 -20.671 0.353 69.303 0.353 69.303 0.935 -20.671
74.958 0.87 -29.518 0.493 60.444 0.493 60.444 0.87 -29.518
99.917 0.797 -37.08 0.603 52.869 0.603 52.869 0.797 -37.08
124.875 0.726 -43.416 0.687 46.519 0.687 46.519 0.726 -43.416
149.833 0.659 -48.688 0.751 41.235 0.751 41.235 0.659 -48.688
174.792 0.599 -53.076 0.799 36.833 0.799 36.833 0.599 -53.076
199.75 0.547 -56.75 0.836 33.145 0.836 33.145 0.547 -56.75
224.708 0.5 -59.85 0.865 30.032 0.865 30.032 0.5 -59.85
249.667 0.46 -62.489 0.887 27.379 0.887 27.379 0.46 -62.489
274.625 0.424 -64.756 0.905 25.098 0.905 25.098 0.424 -64.756
299.583 0.393 -66.721 0.919 23.12 0.919 23.12 0.393 -66.721
324.542 0.365 -68.438 0.93 21.388 0.93 21.388 0.365 -68.438
349.5 0.34 -69.949 0.939 19.862 0.939 19.862 0.34 -69.949
374.458 0.317 -71.291 0.947 18.506 0.947 18.506 0.317 -71.291
399.417 0.297 -72.488 0.954 17.293 0.954 17.293 0.297 -72.488
424.375 0.279 -73.564 0.959 16.202 0.959 16.202 0.279 -73.564
449.333 0.262 -74.536 0.964 15.214 0.964 15.214 0.262 -74.536
474.292 0.247 -75.419 0.968 14.314 0.968 14.314 0.247 -75.419
499.25 0.233 -76.224 0.971 13.492 0.971 13.492 0.233 -76.224
524.208 0.22 -76.962 0.974 12.737 0.974 12.737 0.22 -76.962
549.167 0.209 -77.641 0.977 12.039 0.977 12.039 0.209 -77.641
574.125 0.198 -78.268 0.979 11.394 0.979 11.394 0.198 -78.268
599.083 0.187 -78.85 0.981 10.793 0.981 10.793 0.187 -78.85
624.042 0.178 -79.39 0.983 10.233 0.983 10.233 0.178 -79.39
649 0.169 -79.893 0.985 9.709 0.985 9.709 0.169 -79.893
673.958 0.16 -80.364 0.986 9.216 0.986 9.216 0.16 -80.364
698.917 0.152 -80.805 0.987 8.753 0.987 8.753 0.152 -80.805
723.875 0.145 -81.218 0.988 8.316 0.988 8.316 0.145 -81.218
748.833 0.137 -81.607 0.989 7.902 0.989 7.902 0.137 -81.607
773.792 0.131 -81.974 0.99 7.509 0.99 7.509 0.131 -81.974
798.75 0.124 -82.32 0.991 7.136 0.991 7.136 0.124 -82.32
823.708 0.118 -82.646 0.992 6.781 0.992 6.781 0.118 -82.646
848.667 0.112 -82.955 0.993 6.442 0.993 6.442 0.112 -82.955
873.625 0.107 -83.247 0.993 6.117 0.993 6.117 0.107 -83.247
898.583 0.101 -83.524 0.994 5.807 0.994 5.807 0.101 -83.524
923.542 0.096 -83.785 0.994 5.508 0.994 5.508 0.096 -83.785
948.5 0.091 -84.033 0.995 5.222 0.995 5.222 0.091 -84.033
973.458 0.086 -84.267 0.995 4.946 0.995 4.946 0.086 -84.267
998.417 0.082 -84.488 0.995 4.68 0.995 4.68 0.082 -84.488
1023.375 0.077 -84.696 0.996 4.424 0.996 4.424 0.077 -84.696
1048.333 0.073 -84.891 0.996 4.176 0.996 4.176 0.073 -84.891
1073.292 0.069 -85.074 0.996 3.936 0.996 3.936 0.069 -85.074
1098.25 0.065 -85.244 0.997 3.703 0.997 3.703 0.065 -85.244
1123.208 0.061 -85.401 0.997 3.478 0.997 3.478 0.061 -85.401
1148.167 0.057 -85.545 0.997 3.259 0.997 3.259 0.057 -85.545
1173.125 0.053 -85.674 0.997 3.046 0.997 3.046 0.053 -85.674
1198.083 0.05 -85.788 0.998 2.839 0.998 2.839 0.05 -85.788
1223.042 0.046 -85.884 0.998 2.638 0.998 2.638 0.046 -85.884
1248 0.043 -85.962 0.998 2.441 0.998 2.441 0.043 -85.962
1272.958 0.039 -86.017 0.998 2.25 0.998 2.25 0.039 -86.017
1297.917 0.036 -86.047 0.998 2.062 0.998 2.062 0.036 -86.047
1322.875 0.033 -86.046 0.998 1.879 0.998 1.879 0.033 -86.046
1347.833 0.03 -86.007 0.998 1.701 0.998 1.701 0.03 -86.007
1372.792 0.027 -85.919 0.998 1.526 0.998 1.526 0.027 -85.919
1397.75 0.024 -85.767 0.999 1.354 0.999 1.354 0.024 -85.767
1422.708 0.021 -85.528 0.999 1.186 0.999 1.186 0.021 -85.528
1447.667 0.018 -85.164 0.999 1.022 0.999 1.022 0.018 -85.164
1472.625 0.015 -84.612 0.999 0.86 0.999 0.86 0.015 -84.612
1497.583 0.012 -83.752 0.999 0.701 0.999 0.701 0.012 -83.752
1522.542 9.594e-3 -82.337 0.999 0.545 0.999 0.545 9.594e-3 -82.337
1547.5 6.949e-3 -79.759 0.999 0.392 0.999 0.392 6.949e-3 -79.759
1572.458 4.382e-3 -74.02 0.999 0.242 0.999 0.242 4.382e-3 -74.02
1597.417 2.019e-3 -53.833 0.999 0.093 0.999 0.093 2.019e-3 -53.833
1622.375 1.5e-3 37.509 0.999 -0.052 0.999 -0.052 1.5e-3 37.509
1647.333 3.622e-3 70.645 0.999 -0.196 0.999 -0.196 3.622e-3 70.645
1672.292 6.01e-3 78.255 0.999 -0.338 0.999 -0.338 6.01e-3 78.255
1697.25 8.411e-3 81.398 0.999 -0.477 0.999 -0.477 8.411e-3 81.398
1722.208 0.011 83.062 0.999 -0.615 0.999 -0.615 0.011 83.062
1747.167 0.013 84.063 0.999 -0.75 0.999 -0.75 0.013 84.063
1772.125 0.015 84.712 0.999 -0.884 0.999 -0.884 0.015 84.712
1797.083 0.018 85.151 0.999 -1.017 0.999 -1.017 0.018 85.151
1822.042 0.02 85.455 0.999 -1.147 0.999 -1.147 0.02 85.455
1847 0.022 85.669 0.999 -1.276 0.999 -1.276 0.022 85.669
1871.958 0.025 85.819 0.999 -1.404 0.999 -1.404 0.025 85.819
1896.917 0.027 85.921 0.998 -1.53 0.998 -1.53 0.027 85.921
1921.875 0.029 85.989 0.998 -1.654 0.998 -1.654 0.029 85.989
1946.833 0.031 86.029 0.998 -1.778 0.998 -1.778 0.031 86.029
1971.792 0.033 86.048 0.998 -1.9 0.998 -1.9 0.033 86.048
1996.75 0.035 86.05 0.998 -2.02 0.998 -2.02 0.035 86.05
2021.708 0.037 86.038 0.998 -2.14 0.998 -2.14 0.037 86.038
2046.667 0.039 86.015 0.998 -2.258 0.998 -2.258 0.039 86.015
2071.625 0.041 85.983 0.998 -2.376 0.998 -2.376 0.041 85.983
2096.583 0.043 85.943 0.998 -2.492 0.998 -2.492 0.043 85.943
2121.542 0.045 85.898 0.998 -2.607 0.998 -2.607 0.045 85.898
2146.5 0.047 85.846 0.998 -2.721 0.998 -2.721 0.047 85.846
2171.458 0.049 85.79 0.998 -2.834 0.998 -2.834 0.049 85.79
2196.417 0.051 85.731 0.997 -2.946 0.997 -2.946 0.051 85.731
2221.375 0.053 85.667 0.997 -3.058 0.997 -3.058 0.053 85.667
2246.333 0.055 85.602 0.997 -3.168 0.997 -3.168 0.055 85.602
2271.292 0.057 85.533 0.997 -3.278 0.997 -3.278 0.057 85.533
2296.25 0.059 85.463 0.997 -3.386 0.997 -3.386 0.059 85.463
2321.208 0.061 85.39 0.997 -3.494 0.997 -3.494 0.061 85.39
2346.167 0.063 85.317 0.997 -3.601 0.997 -3.601 0.063 85.317
2371.125 0.065 85.241 0.997 -3.708 0.997 -3.708 0.065 85.241
2396.083 0.067 85.165 0.997 -3.813 0.997 -3.813 0.067 85.165
2421.042 0.068 85.087 0.996 -3.918 0.996 -3.918 0.068 85.087
2446 0.07 85.009 0.996 -4.023 0.996 -4.023 0.07 85.009
2470.958 0.072 84.93 0.996 -4.126 0.996 -4.126 0.072 84.93
2495.917 0.074 84.85 0.996 -4.229 0.996 -4.229 0.074 84.85
2520.875 0.076 84.769 0.996 -4.332 0.996 -4.332 0.076 84.769
2545.833 0.077 84.688 0.996 -4.433 0.996 -4.433 0.077 84.688
2570.792 0.079 84.607 0.996 -4.534 0.996 -4.534 0.079 84.607
2595.75 0.081 84.525 0.996 -4.635 0.996 -4.635 0.081 84.525
2620.708 0.083 84.443 0.995 -4.735 0.995 -4.735 0.083 84.443
2645.667 0.084 84.36 0.995 -4.834 0.995 -4.834 0.084 84.36
2670.625 0.086 84.278 0.995 -4.933 0.995 -4.933 0.086 84.278
2695.583 0.088 84.195 0.995 -5.031 0.995 -5.031 0.088 84.195
2720.542 0.089 84.112 0.995 -5.129 0.995 -5.129 0.089 84.112
2745.5 0.091 84.029 0.995 -5.227 0.995 -5.227 0.091 84.029
2770.458 0.093 83.946 0.995 -5.323 0.995 -5.323 0.093 83.946
2795.417 0.094 83.862 0.994 -5.42 0.994 -5.42 0.094 83.862
2820.375 0.096 83.779 0.994 -5.516 0.994 -5.516 0.096 83.779
2845.333 0.098 83.696 0.994 -5.611 0.994 -5.611 0.098 83.696
2870.292 0.099 83.612 0.994 -5.706 0.994 -5.706 0.099 83.612
2895.25 0.101 83.529 0.994 -5.801 0.994 -5.801 0.101 83.529
2920.208 0.103 83.445 0.994 -5.895 0.994 -5.895 0.103 83.445
2945.167 0.104 83.362 0.993 -5.989 0.993 -5.989 0.104 83.362
2970.125 0.106 83.279 0.993 -6.082 0.993 -6.082 0.106 83.279
2995.083 0.108 83.195 0.993 -6.175 0.993 -6.175 0.108 83.195
3020.042 0.109 83.112 0.993 -6.268 0.993 -6.268 0.109 83.112
3045 0.111 83.029 0.993 -6.36 0.993 -6.36 0.111 83.029
3069.958 0.112 82.946 0.992 -6.452 0.992 -6.452 0.112 82.946
3094.917 0.114 82.863 0.992 -6.544 0.992 -6.544 0.114 82.863
3119.875 0.116 82.78 0.992 -6.635 0.992 -6.635 0.116 82.78
3144.833 0.117 82.697 0.992 -6.726 0.992 -6.726 0.117 82.697
3169.792 0.119 82.614 0.992 -6.816 0.992 -6.816 0.119 82.614
3194.75 0.12 82.531 0.992 -6.906 0.992 -6.906 0.12 82.531
3219.708 0.122 82.449 0.991 -6.996 0.991 -6.996 0.122 82.449
3244.667 0.123 82.366 0.991 -7.086 0.991 -7.086 0.123 82.366
3269.625 0.125 82.284 0.991 -7.175 0.991 -7.175 0.125 82.284
3294.583 0.126 82.202 0.991 -7.264 0.991 -7.264 0.126 82.202
3319.542 0.128 82.12 0.991 -7.352 0.991 -7.352 0.128 82.12
3344.5 0.13 82.038 0.99 -7.441 0.99 -7.441 0.13 82.038
3369.458 0.131 81.956 0.99 -7.529 0.99 -7.529 0.131 81.956
3394.417 0.133 81.874 0.99 -7.617 0.99 -7.617 0.133 81.874
3419.375 0.134 81.792 0.99 -7.704 0.99 -7.704 0.134 81.792
3444.333 0.136 81.711 0.99 -7.791 0.99 -7.791 0.136 81.711
3469.292 0.137 81.629 0.989 -7.878 0.989 -7.878 0.137 81.629
3494.25 0.139 81.548 0.989 -7.965 0.989 -7.965 0.139 81.548
3519.208 0.14 81.467 0.989 -8.052 0.989 -8.052 0.14 81.467
3544.167 0.142 81.386 0.989 -8.138 0.989 -8.138 0.142 81.386
3569.125 0.143 81.305 0.989 -8.224 0.989 -8.224 0.143 81.305
3594.083 0.145 81.224 0.988 -8.31 0.988 -8.31 0.145 81.224
3619.042 0.146 81.143 0.988 -8.395 0.988 -8.395 0.146 81.143
3644 0.147 81.063 0.988 -8.48 0.988 -8.48 0.147 81.063
3668.958 0.149 80.982 0.988 -8.565 0.988 -8.565 0.149 80.982
3693.917 0.15 80.902 0.987 -8.65 0.987 -8.65 0.15 80.902
3718.875 0.152 80.822 0.987 -8.735 0.987 -8.735 0.152 80.822
3743.833 0.153 80.742 0.987 -8.819 0.987 -8.819 0.153 80.742
3768.792 0.155 80.662 0.987 -8.903 0.987 -8.903 0.155 80.662
3793.75 0.156 80.582 0.987 -8.987 0.987 -8.987 0.156 80.582
3818.708 0.158 80.502 0.986 -9.071 0.986 -9.071 0.158 80.502
3843.667 0.159 80.423 0.986 -9.154 0.986 -9.154 0.159 80.423
3868.625 0.161 80.343 0.986 -9.238 0.986 -9.238 0.161 80.343
3893.583 0.162 80.264 0.986 -9.321 0.986 -9.321 0.162 80.264
3918.542 0.163 80.185 0.985 -9.404 0.985 -9.404 0.163 80.185
3943.5 0.165 80.106 0.985 -9.487 0.985 -9.487 0.165 80.106
3968.458 0.166 80.027 0.985 -9.569 0.985 -9.569 0.166 80.027
3993.417 0.168 79.948 0.985 -9.652 0.985 -9.652 0.168 79.948
4018.375 0.169 79.869 0.984 -9.734 0.984 -9.734 0.169 79.869
4043.333 0.17 79.791 0.984 -9.816 0.984 -9.816 0.17 79.791
4068.292 0.172 79.712 0.984 -9.898 0.984 -9.898 0.172 79.712
4093.25 0.173 79.634 0.984 -9.979 0.984 -9.979 0.173 79.634
4118.208 0.175 79.555 0.983 -10.061 0.983 -10.061 0.175 79.555
4143.167 0.176 79.477 0.983 -10.142 0.983 -10.142 0.176 79.477
4168.125 0.177 79.399 0.983 -10.223 0.983 -10.223 0.177 79.399
4193.083 0.179 79.321 0.983 -10.304 0.983 -10.304 0.179 79.321
4218.042 0.18 79.243 0.982 -10.385 0.982 -10.385 0.18 79.243
4243 0.182 79.166 0.982 -10.466 0.982 -10.466 0.182 79.166
4267.958 0.183 79.088 0.982 -10.546 0.982 -10.546 0.183 79.088
4292.917 0.184 79.011 0.982 -10.626 0.982 -10.626 0.184 79.011
4317.875 0.186 78.933 0.981 -10.706 0.981 -10.706 0.186 78.933
4342.833 0.187 78.856 0.981 -10.786 0.981 -10.786 0.187 78.856
4367.792 0.189 78.779 0.981 -10.866 0.981 -10.866 0.189 78.779
4392.75 0.19 78.702 0.981 -10.946 0.981 -10.946 0.19 78.702
4417.708 0.191 78.625 0.98 -11.026 0.98 -11.026 0.191 78.625
4442.667 0.193 78.548 0.98 -11.105 0.98 -11.105 0.193 78.548
4467.625 0.194 78.471 0.98 -11.184 0.98 -11.184 0.194 78.471
4492.583 0.195 78.395 0.98 -11.263 0.98 -11.263 0.195 78.395
4517.542 0.197 78.318 0.979 -11.342 0.979 -11.342 0.197 78.318
4542.5 0.198 78.242 0.979 -11.421 0.979 -11.421 0.198 78.242
4567.458 0.199 78.165 0.979 -11.5 0.979 -11.5 0.199 78.165
4592.417 0.201 78.089 0.978 -11.578 0.978 -11.578 0.201 78.089
4617.375 0.202 78.013 0.978 -11.657 0.978 -11.657 0.202 78.013
4642.333 0.203 77.937 0.978 -11.735 0.978 -11.735 0.203 77.937
4667.292 0.205 77.861 0.978 -11.813 0.978 -11.813 0.205 77.861
4692.25 0.206 77.786 0.977 -11.891 0.977 -11.891 0.206 77.786
4717.208 0.207 77.71 0.977 -11.969 0.977 -11.969 0.207 77.71
4742.167 0.209 77.634 0.977 -12.047 0.977 -12.047 0.209 77.634
4767.125 0.21 77.559 0.977 -12.124 0.977 -12.124 0.21 77.559
4792.083 0.211 77.483 0.976 -12.202 0.976 -12.202 0.211 77.483
4817.042 0.213 77.408 0.976 -12.279 0.976 -12.279 0.213 77.408
4842 0.214 77.333 0.976 -12.356 0.976 -12.356 0.214 77.333
4866.958 0.215 77.258 0.975 -12.433 0.975 -12.433 0.215 77.258
4891.917 0.217 77.183 0.975 -12.51 0.975 -12.51 0.217 77.183
4916.875 0.218 77.108 0.975 -12.587 0.975 -12.587 0.218 77.108
4941.833 0.219 77.033 0.975 -12.664 0.975 -12.664 0.219 77.033
4966.792 0.221 76.958 0.974 -12.74 0.974 -12.74 0.221 76.958
4991.75 0.222 76.884 0.974 -12.817 0.974 -12.817 0.222 76.884
5016.708 0.223 76.809 0.974 -12.893 0.974 -12.893 0.223 76.809
5041.667 0.224 76.735 0.973 -12.97 0.973 -12.97 0.224 76.735
5066.625 0.226 76.66 0.973 -13.046 0.973 -13.046 0.226 76.66
5091.583 0.227 76.586 0.973 -13.122 0.973 -13.122 0.227 76.586
5116.542 0.228 76.512 0.972 -13.198 0.972 -13.198 0.228 76.512
5141.5 0.23 76.438 0.972 -13.273 0.972 -13.273 0.23 76.438
5166.458 0.231 76.364 0.972 -13.349 0.972 -13.349 0.231 76.364
5191.417 0.232 76.29 0.972 -13.425 0.972 -13.425 0.232 76.29
5216.375 0.233 76.216 0.971 -13.5 0.971 -13.5 0.233 76.216
5241.333 0.235 76.143 0.971 -13.575 0.971 -13.575 0.235 76.143
5266.292 0.236 76.069 0.971 -13.651 0.971 -13.651 0.236 76.069
5291.25 0.237 75.995 0.97 -13.726 0.97 -13.726 0.237 75.995
5316.208 0.239 75.922 0.97 -13.801 0.97 -13.801 0.239 75.922
5341.167 0.24 75.849 0.97 -13.876 0.97 -13.876 0.24 75.849
5366.125 0.241 75.775 0.969 -13.95 0.969 -13.95 0.241 75.775
5391.083 0.242 75.702 0.969 -14.025 0.969 -14.025 0.242 75.702
5416.042 0.244 75.629 0.969 -14.1 0.969 -14.1 0.244 75.629
5441 0.245 75.556 0.968 -14.174 0.968 -14.174 0.245 75.556
5465.958 0.246 75.483 0.968 -14.249 0.968 -14.249 0.246 75.483
5490.917 0.247 75.41 0.968 -14.323 0.968 -14.323 0.247 75.41
5515.875 0.249 75.338 0.967 -14.397 0.967 -14.397 0.249 75.338
5540.833 0.25 75.265 0.967 -14.471 0.967 -14.471 0.25 75.265
5565.792 0.251 75.192 0.967 -14.545 0.967 -14.545 0.251 75.192
5590.75 0.252 75.12 0.966 -14.619 0.966 -14.619 0.252 75.12
5615.708 0.254 75.048 0.966 -14.693 0.966 -14.693 0.254 75.048
5640.667 0.255 74.975 0.966 -14.766 0.966 -14.766 0.255 74.975
5665.625 0.256 74.903 0.965 -14.84 0.965 -14.84 0.256 74.903
5690.583 0.257 74.831 0.965 -14.913 0.965 -14.913 0.257 74.831
5715.542 0.259 74.759 0.965 -14.987 0.965 -14.987 0.259 74.759
5740.5 0.26 74.687 0.965 -15.06 0.965 -15.06 0.26 74.687
5765.458 0.261 74.615 0.964 -15.133 0.964 -15.133 0.261 74.615
5790.417 0.262 74.543 0.964 -15.206 0.964 -15.206 0.262 74.543
5815.375 0.264 74.471 0.964 -15.279 0.964 -15.279 0.264 74.471
5840.333 0.265 74.4 0.963 -15.352 0.963 -15.352 0.265 74.4
5865.292 0.266 74.328 0.963 -15.425 0.963 -15.425 0.266 74.328
5890.25 0.267 74.257 0.962 -15.498 0.962 -15.498 0.267 74.257
5915.208 0.268 74.185 0.962 -15.57 0.962 -15.57 0.268 74.185
5940.167 0.27 74.114 0.962 -15.643 0.962 -15.643 0.27 74.114
5965.125 0.271 74.043 0.961 -15.715 0.961 -15.715 0.271 74.043
5990.083 0.272 73.972 0.961 -15.788 0.961 -15.788 0.272 73.972
6015.042 0.273 73.9 0.961 -15.86 0.961 -15.86 0.273 73.9
6040 0.274 73.829 0.96 -15.932 0.96 -15.932 0.274 73.829
6064.958 0.276 73.759 0.96 -16.004 0.96 -16.004 0.276 73.759
6089.917 0.277 73.688 0.96 -16.076 0.96 -16.076 0.277 73.688
6114.875 0.278 73.617 0.959 -16.148 0.959 -16.148 0.278 73.617
6139.833 0.279 73.546 0.959 -16.22 0.959 -16.22 0.279 73.546
6164.792 0.281 73.476 0.959 -16.291 0.959 -16.291 0.281 73.476
6189.75 0.282 73.405 0.958 -16.363 0.958 -16.363 0.282 73.405
6214.708 0.283 73.335 0.958 -16.434 0.958 -16.434 0.283 73.335
6239.667 0.284 73.264 0.958 -16.506 0.958 -16.506 0.284 73.264
6264.625 0.285 73.194 0.957 -16.577 0.957 -16.577 0.285 73.194
6289.583 0.286 73.124 0.957 -16.648 0.957 -16.648 0.286 73.124
6314.542 0.288 73.054 0.957 -16.719 0.957 -16.719 0.288 73.054
6339.5 0.289 72.984 0.956 -16.791 0.956 -16.791 0.289 72.984
6364.458 0.29 72.914 0.956 -16.862 0.956 -16.862 0.29 72.914
6389.417 0.291 72.844 0.956 -16.932 0.956 -16.932 0.291 72.844
6414.375 0.292 72.774 0.955 -17.003 0.955 -17.003 0.292 72.774
6439.333 0.294 72.704 0.955 -17.074 0.955 -17.074 0.294 72.704
6464.292 0.295 72.635 0.954 -17.145 0.954 -17.145 0.295 72.635
6489.25 0.296 72.565 0.954 -17.215 0.954 -17.215 0.296 72.565
6514.208 0.297 72.495 0.954 -17.286 0.954 -17.286 0.297 72.495
6539.167 0.298 72.426 0.953 -17.356 0.953 -17.356 0.298 72.426
6564.125 0.299 72.357 0.953 -17.426 0.953 -17.426 0.299 72.357
6589.083 0.301 72.287 0.953 -17.496 0.953 -17.496 0.301 72.287
6614.042 0.302 72.218 0.952 -17.567 0.952 -17.567 0.302 72.218
6639 0.303 72.149 0.952 -17.637 0.952 -17.637 0.303 72.149
6663.958 0.304 72.08 0.951 -17.707 0.951 -17.707 0.304 72.08
6688.917 0.305 72.011 0.951 -17.776 0.951 -17.776 0.305 72.011
6713.875 0.306 71.942 0.951 -17.846 0.951 -17.846 0.306 71.942
6738.833 0.308 71.873 0.95 -17.916 0.95 -17.916 0.308 71.873
6763.792 0.309 71.805 0.95 -17.986 0.95 -17.986 0.309 71.805
6788.75 0.31 71.736 0.95 -18.055 0.95 -18.055 0.31 71.736
6813.708 0.311 71.667 0.949 -18.125 0.949 -18.125 0.311 71.667
6838.667 0.312 71.599 0.949 -18.194 0.949 -18.194 0.312 71.599
6863.625 0.313 71.53 0.948 -18.263 0.948 -18.263 0.313 71.53
6888.583 0.315 71.462 0.948 -18.332 0.948 -18.332 0.315 71.462
6913.542 0.316 71.394 0.948 -18.402 0.948 -18.402 0.316 71.394
6938.5 0.317 71.325 0.947 -18.471 0.947 -18.471 0.317 71.325
6963.458 0.318 71.257 0.947 -18.54 0.947 -18.54 0.318 71.257
6988.417 0.319 71.189 0.947 -18.609 0.947 -18.609 0.319 71.189
7013.375 0.32 71.121 0.946 -18.677 0.946 -18.677 0.32 71.121
7038.333 0.321 71.053 0.946 -18.746 0.946 -18.746 0.321 71.053
7063.292 0.323 70.985 0.945 -18.815 0.945 -18.815 0.323 70.985
7088.25 0.324 70.918 0.945 -18.883 0.945 -18.883 0.324 70.918
7113.208 0.325 70.85 0.945 -18.952 0.945 -18.952 0.325 70.85
7138.167 0.326 70.782 0.944 -19.02 0.944 -19.02 0.326 70.782
7163.125 0.327 70.715 0.944 -19.089 0.944 -19.089 0.327 70.715
7188.083 0.328 70.647 0.944 -19.157 0.944 -19.157 0.328 70.647
7213.042 0.329 70.58 0.943 -19.225 0.943 -19.225 0.329 70.58
7238 0.33 70.512 0.943 -19.293 0.943 -19.293 0.33 70.512
7262.958 0.332 70.445 0.942 -19.361 0.942 -19.361 0.332 70.445
7287.917 0.333 70.378 0.942 -19.429 0.942 -19.429 0.333 70.378
7312.875 0.334 70.311 0.942 -19.497 0.942 -19.497 0.334 70.311
7337.833 0.335 70.244 0.941 -19.565 0.941 -19.565 0.335 70.244
7362.792 0.336 70.177 0.941 -19.632 0.941 -19.632 0.336 70.177
7387.75 0.337 70.11 0.94 -19.7 0.94 -19.7 0.337 70.11
7412.708 0.338 70.043 0.94 -19.767 0.94 -19.767 0.338 70.043
7437.667 0.339 69.976 0.94 -19.835 0.94 -19.835 0.339 69.976
7462.625 0.34 69.909 0.939 -19.902 0.939 -19.902 0.34 69.909
7487.583 0.342 69.843 0.939 -19.97 0.939 -19.97 0.342 69.843
7512.542 0.343 69.776 0.938 -20.037 0.938 -20.037 0.343 69.776
7537.5 0.344 69.71 0.938 -20.104 0.938 -20.104 0.344 69.71
7562.458 0.345 69.643 0.938 -20.171 0.938 -20.171 0.345 69.643
7587.417 0.346 69.577 0.937 -20.238 0.937 -20.238 0.346 69.577
7612.375 0.347 69.511 0.937 -20.305 0.937 -20.305 0.347 69.511
7637.333 0.348 69.445 0.936 -20.372 0.936 -20.372 0.348 69.445
7662.292 0.349 69.379 0.936 -20.439 0.936 -20.439 0.349 69.379
7687.25 0.35 69.312 0.936 -20.505 0.936 -20.505 0.35 69.312
7712.208 0.351 69.246 0.935 -20.572 0.935 -20.572 0.351 69.246
7737.167 0.352 69.181 0.935 -20.639 0.935 -20.639 0.352 69.181
7762.125 0.354 69.115 0.934 -20.705 0.934 -20.705 0.354 69.115
7787.083 0.355 69.049 0.934 -20.771 0.934 -20.771 0.355 69.049
7812.042 0.356 68.983 0.933 -20.838 0.933 -20.838 0.356 68.983
7837 0.357 68.918 0.933 -20.904 0.933 -20.904 0.357 68.918
7861.958 0.358 68.852 0.933 -20.97 0.933 -20.97 0.358 68.852
7886.917 0.359 68.787 0.932 -21.036 0.932 -21.036 0.359 68.787
7911.875 0.36 68.721 0.932 -21.102 0.932 -21.102 0.36 68.721
7936.833 0.361 68.656 0.931 -21.168 0.931 -21.168 0.361 68.656
7961.792 0.362 68.591 0.931 -21.234 0.931 -21.234 0.362 68.591
7986.75 0.363 68.525 0.931 -21.3 0.931 -21.3 0.363 68.525
8011.708 0.364 68.46 0.93 -21.366 0.93 -21.366 0.364 68.46
8036.667 0.365 68.395 0.93 -21.431 0.93 -21.431 0.365 68.395
8061.625 0.366 68.33 0.929 -21.497 0.929 -21.497 0.366 68.33
8086.583 0.368 68.265 0.929 -21.562 0.929 -21.562 0.368 68.265
8111.542 0.369 68.201 0.928 -21.628 0.928 -21.628 0.369 68.201
8136.5 0.37 68.136 0.928 -21.693 0.928 -21.693 0.37 68.136
8161.458 0.371 68.071 0.928 -21.758 0.928 -21.758 0.371 68.071
8186.417 0.372 68.006 0.927 -21.823 0.927 -21.823 0.372 68.006
