# MHZ S MA R 50

50 0.87 -29.513 0.493 60.45 0.493 60.45 0.87 -29.513
74.958 0.761 -40.355 0.648 49.589 0.648 49.589 0.761 -40.355
99.917 0.66 -48.609 0.75 41.315 0.75 41.315 0.66 -48.609
124.875 0.574 -54.871 0.818 35.035 0.818 35.035 0.574 -54.871
149.833 0.503 -59.683 0.863 30.202 0.863 30.202 0.503 -59.683
174.792 0.445 -63.454 0.895 26.413 0.895 26.413 0.445 -63.454
199.75 0.397 -66.467 0.917 23.38 0.917 23.38 0.397 -66.467
224.708 0.357 -68.92 0.933 20.906 0.933 20.906 0.357 -68.92
249.667 0.323 -70.952 0.945 18.853 0.945 18.853 0.323 -70.952
274.625 0.294 -72.661 0.955 17.124 0.955 17.124 0.294 -72.661
299.583 0.27 -74.117 0.962 15.646 0.962 15.646 0.27 -74.117
324.542 0.248 -75.372 0.968 14.369 0.968 14.369 0.248 -75.372
349.5 0.229 -76.465 0.972 13.253 0.972 13.253 0.229 -76.465
374.458 0.212 -77.427 0.976 12.268 0.976 12.268 0.212 -77.427
399.417 0.198 -78.279 0.979 11.392 0.979 11.392 0.198 -78.279
424.375 0.184 -79.039 0.982 10.606 0.982 10.606 0.184 -79.039
449.333 0.172 -79.723 0.984 9.897 0.984 9.897 0.172 -79.723
474.292 0.161 -80.34 0.986 9.252 0.986 9.252 0.161 -80.34
499.25 0.151 -80.901 0.987 8.663 0.987 8.663 0.151 -80.901
524.208 0.141 -81.413 0.989 8.122 0.989 8.122 0.141 -81.413
549.167 0.133 -81.881 0.99 7.623 0.99 7.623 0.133 -81.881
574.125 0.125 -82.312 0.991 7.16 0.991 7.16 0.125 -82.312
599.083 0.117 -82.709 0.992 6.728 0.992 6.728 0.117 -82.709
624.042 0.11 -83.075 0.993 6.326 0.993 6.326 0.11 -83.075
649 0.104 -83.415 0.993 5.948 0.993 5.948 0.104 -83.415
673.958 0.097 -83.729 0.994 5.593 0.994 5.593 0.097 -83.729
698.917 0.092 -84.021 0.995 5.257 0.995 5.257 0.092 -84.021
723.875 0.086 -84.292 0.995 4.94 0.995 4.94 0.086 -84.292
748.833 0.081 -84.543 0.996 4.639 0.996 4.639 0.081 -84.543
773.792 0.076 -84.776 0.996 4.352 0.996 4.352 0.076 -84.776
798.75 0.071 -84.99 0.996 4.079 0.996 4.079 0.071 -84.99
823.708 0.067 -85.187 0.997 3.818 0.997 3.818 0.067 -85.187
848.667 0.062 -85.367 0.997 3.568 0.997 3.568 0.062 -85.367
873.625 0.058 -85.53 0.997 3.328 0.997 3.328 0.058 -85.53
898.583 0.054 -85.675 0.997 3.098 0.997 3.098 0.054 -85.675
923.542 0.05 -85.803 0.998 2.876 0.998 2.876 0.05 -85.803
948.5 0.046 -85.91 0.998 2.662 0.998 2.662 0.046 -85.91
973.458 0.043 -85.997 0.998 2.455 0.998 2.455 0.043 -85.997
998.417 0.039 -86.059 0.998 2.256 0.998 2.256 0.039 -86.059
1023.375 0.036 -86.095 0.998 2.062 0.998 2.062 0.036 -86.095
1048.333 0.033 -86.098 0.998 1.874 0.998 1.874 0.033 -86.098
1073.292 0.03 -86.061 0.998 1.692 0.998 1.692 0.03 -86.061
1098.25 0.026 -85.976 0.998 1.515 0.998 1.515 0.026 -85.976
1123.208 0.023 -85.826 0.999 1.342 0.999 1.342 0.023 -85.826
1148.167 0.021 -85.589 0.999 1.174 0.999 1.174 0.021 -85.589
1173.125 0.018 -85.229 0.999 1.01 0.999 1.01 0.018 -85.229
1198.083 0.015 -84.683 0.999 0.85 0.999 0.85 0.015 -84.683
1223.042 0.012 -83.837 0.999 0.693 0.999 0.693 0.012 -83.837
1248 9.502e-3 -82.455 0.999 0.54 0.999 0.54 9.502e-3 -82.455
1272.958 6.915e-3 -79.963 0.999 0.391 0.999 0.391 6.915e-3 -79.963
1297.917 4.412e-3 -74.529 0.999 0.244 0.999 0.244 4.412e-3 -74.529
1322.875 2.096e-3 -56.337 0.999 0.1 0.999 0.1 2.096e-3 -56.337
1347.833 1.362e-3 31.681 0.999 -0.041 0.999 -0.041 1.362e-3 31.681
1372.792 3.342e-3 69.53 0.999 -0.18 0.999 -0.18 3.342e-3 69.53
1397.75 5.63e-3 77.807 0.999 -0.316 0.999 -0.316 5.63e-3 77.807
1422.708 7.93e-3 81.148 0.999 -0.449 0.999 -0.449 7.93e-3 81.148
1447.667 0.01 82.9 0.999 -0.581 0.999 -0.581 0.01 82.9
1472.625 0.012 83.952 0.999 -0.711 0.999 -0.711 0.012 83.952
1497.583 0.015 84.633 0.999 -0.838 0.999 -0.838 0.015 84.633
1522.542 0.017 85.096 0.999 -0.964 0.999 -0.964 0.017 85.096
1547.5 0.019 85.419 0.999 -1.088 0.999 -1.088 0.019 85.419
1572.458 0.021 85.649 0.999 -1.21 0.999 -1.21 0.021 85.649
1597.417 0.023 85.813 0.999 -1.33 0.999 -1.33 0.023 85.813
1622.375 0.025 85.928 0.999 -1.449 0.999 -1.449 0.025 85.928
1647.333 0.027 86.007 0.998 -1.567 0.998 -1.567 0.027 86.007
1672.292 0.029 86.058 0.998 -1.683 0.998 -1.683 0.029 86.058
1697.25 0.031 86.088 0.998 -1.797 0.998 -1.797 0.031 86.088
1722.208 0.033 86.1 0.998 -1.911 0.998 -1.911 0.033 86.1
1747.167 0.035 86.098 0.998 -2.023 0.998 -2.023 0.035 86.098
1772.125 0.037 86.085 0.998 -2.134 0.998 -2.134 0.037 86.085
1797.083 0.039 86.062 0.998 -2.243 0.998 -2.243 0.039 86.062
1822.042 0.041 86.032 0.998 -2.352 0.998 -2.352 0.041 86.032
1847 0.043 85.995 0.998 -2.46 0.998 -2.46 0.043 85.995
1871.958 0.045 85.953 0.998 -2.566 0.998 -2.566 0.045 85.953
1896.917 0.047 85.906 0.998 -2.672 0.998 -2.672 0.047 85.906
1921.875 0.048 85.855 0.998 -2.777 0.998 -2.777 0.048 85.855
1946.833 0.05 85.8 0.998 -2.88 0.998 -2.88 0.05 85.8
1971.792 0.052 85.743 0.997 -2.983 0.997 -2.983 0.052 85.743
1996.75 0.054 85.683 0.997 -3.085 0.997 -3.085 0.054 85.683
2021.708 0.056 85.621 0.997 -3.187 0.997 -3.187 0.056 85.621
2046.667 0.057 85.557 0.997 -3.287 0.997 -3.287 0.057 85.557
2071.625 0.059 85.491 0.997 -3.387 0.997 -3.387 0.059 85.491
2096.583 0.061 85.424 0.997 -3.486 0.997 -3.486 0.061 85.424
2121.542 0.063 85.356 0.997 -3.584 0.997 -3.584 0.063 85.356
2146.5 0.064 85.286 0.997 -3.682 0.997 -3.682 0.064 85.286
2171.458 0.066 85.216 0.997 -3.779 0.997 -3.779 0.066 85.216
2196.417 0.068 85.145 0.997 -3.875 0.997 -3.875 0.068 85.145
2221.375 0.069 85.073 0.996 -3.971 0.996 -3.971 0.069 85.073
2246.333 0.071 85 0.996 -4.066 0.996 -4.066 0.071 85
2271.292 0.073 84.927 0.996 -4.16 0.996 -4.16 0.073 84.927
2296.25 0.074 84.853 0.996 -4.254 0.996 -4.254 0.074 84.853
2321.208 0.076 84.779 0.996 -4.348 0.996 -4.348 0.076 84.779
2346.167 0.077 84.704 0.996 -4.441 0.996 -4.441 0.077 84.704
2371.125 0.079 84.629 0.996 -4.533 0.996 -4.533 0.079 84.629
2396.083 0.081 84.554 0.996 -4.625 0.996 -4.625 0.081 84.554
2421.042 0.082 84.479 0.995 -4.717 0.995 -4.717 0.082 84.479
2446 0.084 84.403 0.995 -4.808 0.995 -4.808 0.084 84.403
2470.958 0.085 84.327 0.995 -4.898 0.995 -4.898 0.085 84.327
2495.917 0.087 84.251 0.995 -4.988 0.995 -4.988 0.087 84.251
2520.875 0.089 84.175 0.995 -5.078 0.995 -5.078 0.089 84.175
2545.833 0.09 84.099 0.995 -5.167 0.995 -5.167 0.09 84.099
2570.792 0.092 84.022 0.995 -5.256 0.995 -5.256 0.092 84.022
2595.75 0.093 83.946 0.994 -5.344 0.994 -5.344 0.093 83.946
2620.708 0.095 83.869 0.994 -5.432 0.994 -5.432 0.095 83.869
2645.667 0.096 83.793 0.994 -5.52 0.994 -5.52 0.096 83.793
2670.625 0.098 83.716 0.994 -5.607 0.994 -5.607 0.098 83.716
2695.583 0.099 83.64 0.994 -5.694 0.994 -5.694 0.099 83.64
2720.542 0.101 83.563 0.994 -5.781 0.994 -5.781 0.101 83.563
2745.5 0.102 83.487 0.994 -5.867 0.994 -5.867 0.102 83.487
2770.458 0.104 83.41 0.993 -5.953 0.993 -5.953 0.104 83.41
2795.417 0.105 83.333 0.993 -6.039 0.993 -6.039 0.105 83.333
2820.375 0.107 83.257 0.993 -6.124 0.993 -6.124 0.107 83.257
2845.333 0.108 83.18 0.993 -6.209 0.993 -6.209 0.108 83.18
2870.292 0.11 83.104 0.993 -6.294 0.993 -6.294 0.11 83.104
2895.25 0.111 83.028 0.993 -6.378 0.993 -6.378 0.111 83.028
2920.208 0.113 82.951 0.992 -6.463 0.992 -6.463 0.113 82.951
2945.167 0.114 82.875 0.992 -6.547 0.992 -6.547 0.114 82.875
2970.125 0.115 82.799 0.992 -6.63 0.992 -6.63 0.115 82.799
2995.083 0.117 82.723 0.992 -6.713 0.992 -6.713 0.117 82.723
3020.042 0.118 82.646 0.992 -6.797 0.992 -6.797 0.118 82.646
3045 0.12 82.57 0.992 -6.879 0.992 -6.879 0.12 82.57
3069.958 0.121 82.494 0.991 -6.962 0.991 -6.962 0.121 82.494
3094.917 0.123 82.418 0.991 -7.044 0.991 -7.044 0.123 82.418
3119.875 0.124 82.343 0.991 -7.126 0.991 -7.126 0.124 82.343
3144.833 0.125 82.267 0.991 -7.208 0.991 -7.208 0.125 82.267
3169.792 0.127 82.191 0.991 -7.29 0.991 -7.29 0.127 82.191
3194.75 0.128 82.116 0.991 -7.371 0.991 -7.371 0.128 82.116
3219.708 0.13 82.04 0.99 -7.452 0.99 -7.452 0.13 82.04
3244.667 0.131 81.965 0.99 -7.533 0.99 -7.533 0.131 81.965
3269.625 0.133 81.889 0.99 -7.614 0.99 -7.614 0.133 81.889
3294.583 0.134 81.814 0.99 -7.695 0.99 -7.695 0.134 81.814
3319.542 0.135 81.739 0.99 -7.775 0.99 -7.775 0.135 81.739
3344.5 0.137 81.664 0.989 -7.855 0.989 -7.855 0.137 81.664
3369.458 0.138 81.589 0.989 -7.935 0.989 -7.935 0.138 81.589
3394.417 0.139 81.514 0.989 -8.015 0.989 -8.015 0.139 81.514
3419.375 0.141 81.439 0.989 -8.094 0.989 -8.094 0.141 81.439
3444.333 0.142 81.364 0.989 -8.174 0.989 -8.174 0.142 81.364
3469.292 0.144 81.289 0.988 -8.253 0.988 -8.253 0.144 81.289
3494.25 0.145 81.215 0.988 -8.332 0.988 -8.332 0.145 81.215
3519.208 0.146 81.14 0.988 -8.411 0.988 -8.411 0.146 81.14
3544.167 0.148 81.066 0.988 -8.49 0.988 -8.49 0.148 81.066
3569.125 0.149 80.991 0.988 -8.568 0.988 -8.568 0.149 80.991
3594.083 0.15 80.917 0.987 -8.646 0.987 -8.646 0.15 80.917
3619.042 0.152 80.843 0.987 -8.725 0.987 -8.725 0.152 80.843
3644 0.153 80.769 0.987 -8.803 0.987 -8.803 0.153 80.769
3668.958 0.154 80.695 0.987 -8.88 0.987 -8.88 0.154 80.695
3693.917 0.156 80.621 0.987 -8.958 0.987 -8.958 0.156 80.621
3718.875 0.157 80.547 0.986 -9.036 0.986 -9.036 0.157 80.547
3743.833 0.158 80.473 0.986 -9.113 0.986 -9.113 0.158 80.473
3768.792 0.16 80.399 0.986 -9.19 0.986 -9.19 0.16 80.399
3793.75 0.161 80.326 0.986 -9.267 0.986 -9.267 0.161 80.326
3818.708 0.162 80.252 0.986 -9.344 0.986 -9.344 0.162 80.252
3843.667 0.164 80.179 0.985 -9.421 0.985 -9.421 0.164 80.179
3868.625 0.165 80.105 0.985 -9.498 0.985 -9.498 0.165 80.105
3893.583 0.166 80.032 0.985 -9.574 0.985 -9.574 0.166 80.032
3918.542 0.168 79.959 0.985 -9.651 0.985 -9.651 0.168 79.959
3943.5 0.169 79.886 0.984 -9.727 0.984 -9.727 0.169 79.886
3968.458 0.17 79.813 0.984 -9.803 0.984 -9.803 0.17 79.813
3993.417 0.172 79.74 0.984 -9.879 0.984 -9.879 0.172 79.74
4018.375 0.173 79.667 0.984 -9.955 0.984 -9.955 0.173 79.667
4043.333 0.174 79.594 0.984 -10.03 0.984 -10.03 0.174 79.594
4068.292 0.175 79.522 0.983 -10.106 0.983 -10.106 0.175 79.522
4093.25 0.177 79.449 0.983 -10.181 0.983 -10.181 0.177 79.449
4118.208 0.178 79.376 0.983 -10.257 0.983 -10.257 0.178 79.376
4143.167 0.179 79.304 0.983 -10.332 0.983 -10.332 0.179 79.304
4168.125 0.181 79.231 0.982 -10.407 0.982 -10.407 0.181 79.231
4193.083 0.182 79.159 0.982 -10.482 0.982 -10.482 0.182 79.159
4218.042 0.183 79.087 0.982 -10.557 0.982 -10.557 0.183 79.087
4243 0.184 79.015 0.982 -10.632 0.982 -10.632 0.184 79.015
4267.958 0.186 78.943 0.981 -10.706 0.981 -10.706 0.186 78.943
4292.917 0.187 78.871 0.981 -10.781 0.981 -10.781 0.187 78.871
4317.875 0.188 78.799 0.981 -10.855 0.981 -10.855 0.188 78.799
4342.833 0.19 78.727 0.981 -10.929 0.981 -10.929 0.19 78.727
4367.792 0.191 78.655 0.98 -11.003 0.98 -11.003 0.191 78.655
4392.75 0.192 78.583 0.98 -11.077 0.98 -11.077 0.192 78.583
4417.708 0.193 78.512 0.98 -11.151 0.98 -11.151 0.193 78.512
4442.667 0.195 78.44 0.98 -11.225 0.98 -11.225 0.195 78.44
4467.625 0.196 78.369 0.979 -11.299 0.979 -11.299 0.196 78.369
4492.583 0.197 78.297 0.979 -11.373 0.979 -11.373 0.197 78.297
4517.542 0.198 78.226 0.979 -11.446 0.979 -11.446 0.198 78.226
4542.5 0.2 78.155 0.979 -11.519 0.979 -11.519 0.2 78.155
4567.458 0.201 78.084 0.978 -11.593 0.978 -11.593 0.201 78.084
4592.417 0.202 78.012 0.978 -11.666 0.978 -11.666 0.202 78.012
4617.375 0.203 77.941 0.978 -11.739 0.978 -11.739 0.203 77.941
4642.333 0.205 77.87 0.978 -11.812 0.978 -11.812 0.205 77.87
4667.292 0.206 77.8 0.977 -11.885 0.977 -11.885 0.206 77.8
4692.25 0.207 77.729 0.977 -11.958 0.977 -11.958 0.207 77.729
4717.208 0.208 77.658 0.977 -12.03 0.977 -12.03 0.208 77.658
4742.167 0.21 77.587 0.977 -12.103 0.977 -12.103 0.21 77.587
4767.125 0.211 77.517 0.976 -12.176 0.976 -12.176 0.211 77.517
4792.083 0.212 77.446 0.976 -12.248 0.976 -12.248 0.212 77.446
4817.042 0.213 77.376 0.976 -12.32 0.976 -12.32 0.213 77.376
4842 0.215 77.305 0.976 -12.393 0.976 -12.393 0.215 77.305
4866.958 0.216 77.235 0.975 -12.465 0.975 -12.465 0.216 77.235
4891.917 0.217 77.165 0.975 -12.537 0.975 -12.537 0.217 77.165
4916.875 0.218 77.094 0.975 -12.609 0.975 -12.609 0.218 77.094
4941.833 0.22 77.024 0.974 -12.681 0.974 -12.681 0.22 77.024
4966.792 0.221 76.954 0.974 -12.752 0.974 -12.752 0.221 76.954
4991.75 0.222 76.884 0.974 -12.824 0.974 -12.824 0.222 76.884
5016.708 0.223 76.814 0.974 -12.896 0.974 -12.896 0.223 76.814
5041.667 0.224 76.745 0.973 -12.967 0.973 -12.967 0.224 76.745
5066.625 0.226 76.675 0.973 -13.039 0.973 -13.039 0.226 76.675
5091.583 0.227 76.605 0.973 -13.11 0.973 -13.11 0.227 76.605
5116.542 0.228 76.535 0.973 -13.181 0.973 -13.181 0.228 76.535
5141.5 0.229 76.466 0.972 -13.252 0.972 -13.252 0.229 76.466
5166.458 0.23 76.396 0.972 -13.323 0.972 -13.323 0.23 76.396
5191.417 0.232 76.327 0.972 -13.394 0.972 -13.394 0.232 76.327
5216.375 0.233 76.257 0.971 -13.465 0.971 -13.465 0.233 76.257
5241.333 0.234 76.188 0.971 -13.536 0.971 -13.536 0.234 76.188
5266.292 0.235 76.119 0.971 -13.607 0.971 -13.607 0.235 76.119
5291.25 0.236 76.05 0.971 -13.677 0.971 -13.677 0.236 76.05
5316.208 0.238 75.981 0.97 -13.748 0.97 -13.748 0.238 75.981
5341.167 0.239 75.912 0.97 -13.818 0.97 -13.818 0.239 75.912
5366.125 0.24 75.843 0.97 -13.889 0.97 -13.889 0.24 75.843
5391.083 0.241 75.774 0.969 -13.959 0.969 -13.959 0.241 75.774
5416.042 0.242 75.705 0.969 -14.029 0.969 -14.029 0.242 75.705
5441 0.244 75.636 0.969 -14.1 0.969 -14.1 0.244 75.636
5465.958 0.245 75.567 0.968 -14.17 0.968 -14.17 0.245 75.567
5490.917 0.246 75.499 0.968 -14.24 0.968 -14.24 0.246 75.499
5515.875 0.247 75.43 0.968 -14.31 0.968 -14.31 0.247 75.43
5540.833 0.248 75.362 0.968 -14.379 0.968 -14.379 0.248 75.362
5565.792 0.25 75.293 0.967 -14.449 0.967 -14.449 0.25 75.293
5590.75 0.251 75.225 0.967 -14.519 0.967 -14.519 0.251 75.225
5615.708 0.252 75.156 0.967 -14.589 0.967 -14.589 0.252 75.156
5640.667 0.253 75.088 0.966 -14.658 0.966 -14.658 0.253 75.088
5665.625 0.254 75.02 0.966 -14.727 0.966 -14.727 0.254 75.02
5690.583 0.255 74.952 0.966 -14.797 0.966 -14.797 0.255 74.952
5715.542 0.257 74.884 0.965 -14.866 0.965 -14.866 0.257 74.884
5740.5 0.258 74.816 0.965 -14.935 0.965 -14.935 0.258 74.816
5765.458 0.259 74.748 0.965 -15.005 0.965 -15.005 0.259 74.748
5790.417 0.26 74.68 0.964 -15.074 0.964 -15.074 0.26 74.68
5815.375 0.261 74.612 0.964 -15.143 0.964 -15.143 0.261 74.612
5840.333 0.262 74.544 0.964 -15.212 0.964 -15.212 0.262 74.544
5865.292 0.264 74.477 0.964 -15.28 0.964 -15.28 0.264 74.477
5890.25 0.265 74.409 0.963 -15.349 0.963 -15.349 0.265 74.409
5915.208 0.266 74.341 0.963 -15.418 0.963 -15.418 0.266 74.341
5940.167 0.267 74.274 0.963 -15.487 0.963 -15.487 0.267 74.274
5965.125 0.268 74.206 0.962 -15.555 0.962 -15.555 0.268 74.206
5990.083 0.269 74.139 0.962 -15.624 0.962 -15.624 0.269 74.139
6015.042 0.27 74.072 0.962 -15.692 0.962 -15.692 0.27 74.072
6040 0.272 74.004 0.961 -15.76 0.961 -15.76 0.272 74.004
6064.958 0.273 73.937 0.961 -15.829 0.961 -15.829 0.273 73.937
6089.917 0.274 73.87 0.961 -15.897 0.961 -15.897 0.274 73.87
6114.875 0.275 73.803 0.96 -15.965 0.96 -15.965 0.275 73.803
6139.833 0.276 73.736 0.96 -16.033 0.96 -16.033 0.276 73.736
6164.792 0.277 73.669 0.96 -16.101 0.96 -16.101 0.277 73.669
6189.75 0.278 73.602 0.959 -16.169 0.959 -16.169 0.278 73.602
6214.708 0.28 73.535 0.959 -16.237 0.959 -16.237 0.28 73.535
6239.667 0.281 73.469 0.959 -16.304 0.959 -16.304 0.281 73.469
6264.625 0.282 73.402 0.958 -16.372 0.958 -16.372 0.282 73.402
6289.583 0.283 73.335 0.958 -16.44 0.958 -16.44 0.283 73.335
6314.542 0.284 73.269 0.958 -16.507 0.958 -16.507 0.284 73.269
6339.5 0.285 73.202 0.957 -16.575 0.957 -16.575 0.285 73.202
6364.458 0.286 73.136 0.957 -16.642 0.957 -16.642 0.286 73.136
6389.417 0.288 73.069 0.957 -16.71 0.957 -16.71 0.288 73.069
6414.375 0.289 73.003 0.956 -16.777 0.956 -16.777 0.289 73.003
6439.333 0.29 72.937 0.956 -16.844 0.956 -16.844 0.29 72.937
6464.292 0.291 72.87 0.956 -16.911 0.956 -16.911 0.291 72.87
6489.25 0.292 72.804 0.955 -16.978 0.955 -16.978 0.292 72.804
6514.208 0.293 72.738 0.955 -17.045 0.955 -17.045 0.293 72.738
6539.167 0.294 72.672 0.955 -17.112 0.955 -17.112 0.294 72.672
6564.125 0.295 72.606 0.954 -17.179 0.954 -17.179 0.295 72.606
6589.083 0.296 72.54 0.954 -17.246 0.954 -17.246 0.296 72.54
6614.042 0.298 72.474 0.954 -17.313 0.954 -17.313 0.298 72.474
6639 0.299 72.409 0.953 -17.379 0.953 -17.379 0.299 72.409
6663.958 0.3 72.343 0.953 -17.446 0.953 -17.446 0.3 72.343
6688.917 0.301 72.277 0.953 -17.512 0.953 -17.512 0.301 72.277
6713.875 0.302 72.212 0.952 -17.579 0.952 -17.579 0.302 72.212
6738.833 0.303 72.146 0.952 -17.645 0.952 -17.645 0.303 72.146
6763.792 0.304 72.081 0.951 -17.711 0.951 -17.711 0.304 72.081
6788.75 0.305 72.015 0.951 -17.778 0.951 -17.778 0.305 72.015
6813.708 0.306 71.95 0.951 -17.844 0.951 -17.844 0.306 71.95
6838.667 0.308 71.885 0.95 -17.91 0.95 -17.91 0.308 71.885
6863.625 0.309 71.819 0.95 -17.976 0.95 -17.976 0.309 71.819
6888.583 0.31 71.754 0.95 -18.042 0.95 -18.042 0.31 71.754
6913.542 0.311 71.689 0.949 -18.108 0.949 -18.108 0.311 71.689
6938.5 0.312 71.624 0.949 -18.174 0.949 -18.174 0.312 71.624
6963.458 0.313 71.559 0.949 -18.239 0.949 -18.239 0.313 71.559
6988.417 0.314 71.494 0.948 -18.305 0.948 -18.305 0.314 71.494
7013.375 0.315 71.429 0.948 -18.371 0.948 -18.371 0.315 71.429
7038.333 0.316 71.364 0.948 -18.436 0.948 -18.436 0.316 71.364
7063.292 0.317 71.3 0.947 -18.502 0.947 -18.502 0.317 71.3
7088.25 0.318 71.235 0.947 -18.567 0.947 -18.567 0.318 71.235
7113.208 0.32 71.17 0.946 -18.633 0.946 -18.633 0.32 71.17
7138.167 0.321 71.106 0.946 -18.698 0.946 -18.698 0.321 71.106
7163.125 0.322 71.041 0.946 -18.763 0.946 -18.763 0.322 71.041
7188.083 0.323 70.977 0.945 -18.829 0.945 -18.829 0.323 70.977
7213.042 0.324 70.912 0.945 -18.894 0.945 -18.894 0.324 70.912
7238 0.325 70.848 0.945 -18.959 0.945 -18.959 0.325 70.848
7262.958 0.326 70.784 0.944 -19.024 0.944 -19.024 0.326 70.784
7287.917 0.327 70.72 0.944 -19.089 0.944 -19.089 0.327 70.72
7312.875 0.328 70.655 0.944 -19.153 0.944 -19.153 0.328 70.655
7337.833 0.329 70.591 0.943 -19.218 0.943 -19.218 0.329 70.591
7362.792 0.33 70.527 0.943 -19.283 0.943 -19.283 0.33 70.527
7387.75 0.331 70.463 0.942 -19.348 0.942 -19.348 0.331 70.463
7412.708 0.332 70.399 0.942 -19.412 0.942 -19.412 0.332 70.399
7437.667 0.333 70.335 0.942 -19.477 0.942 -19.477 0.333 70.335
7462.625 0.334 70.272 0.941 -19.541 0.941 -19.541 0.334 70.272
7487.583 0.336 70.208 0.941 -19.606 0.941 -19.606 0.336 70.208
7512.542 0.337 70.144 0.941 -19.67 0.941 -19.67 0.337 70.144
7537.5 0.338 70.081 0.94 -19.734 0.94 -19.734 0.338 70.081
7562.458 0.339 70.017 0.94 -19.798 0.94 -19.798 0.339 70.017
7587.417 0.34 69.954 0.939 -19.863 0.939 -19.863 0.34 69.954
7612.375 0.341 69.89 0.939 -19.927 0.939 -19.927 0.341 69.89
7637.333 0.342 69.827 0.939 -19.991 0.939 -19.991 0.342 69.827
7662.292 0.343 69.764 0.938 -20.055 0.938 -20.055 0.343 69.764
7687.25 0.344 69.7 0.938 -20.118 0.938 -20.118 0.344 69.7
7712.208 0.345 69.637 0.938 -20.182 0.938 -20.182 0.345 69.637
7737.167 0.346 69.574 0.937 -20.246 0.937 -20.246 0.346 69.574
7762.125 0.347 69.511 0.937 -20.31 0.937 -20.31 0.347 69.511
7787.083 0.348 69.448 0.936 -20.373 0.936 -20.373 0.348 69.448
7812.042 0.349 69.385 0.936 -20.437 0.936 -20.437 0.349 69.385
7837 0.35 69.322 0.936 -20.5 0.936 -20.5 0.35 69.322
7861.958 0.351 69.259 0.935 -20.564 0.935 -20.564 0.351 69.259
7886.917 0.352 69.196 0.935 -20.627 0.935 -20.627 0.352 69.196
7911.875 0.353 69.134 0.934 -20.691 0.934 -20.691 0.353 69.134
7936.833 0.354 69.071 0.934 -20.754 0.934 -20.754 0.354 69.071
7961.792 0.355 69.008 0.934 -20.817 0.934 -20.817 0.355 69.008
7986.75 0.356 68.946 0.933 -20.88 0.933 -20.88 0.356 68.946
8011.708 0.357 68.883 0.933 -20.943 0.933 -20.943 0.357 68.883
8036.667 0.358 68.821 0.932 -21.006 0.932 -21.006 0.358 68.821
8061.625 0.359 68.759 0.932 -21.069 0.932 -21.069 0.359 68.759
8086.583 0.361 68.696 0.932 -21.132 0.932 -21.132 0.361 68.696
8111.542 0.362 68.634 0.931 -21.195 0.931 -21.195 0.362 68.634
8136.5 0.363 68.572 0.931 -21.257 0.931 -21.257 0.363 68.572
8161.458 0.364 68.51 0.93 -21.32 0.93 -21.32 0.364 68.51
8186.417 0.365 68.448 0.93 -21.383 0.93 -21.383 0.365 68.448
8211.375 0.366 68.386 0.93 -21.445 0.93 -21.445 0.366 68.386
