# MHZ S MA R 50

50 0.999 -2.249 0.039 87.746 0.039 87.746 0.999 -2.249
74.958 0.998 -3.37 0.059 86.622 0.059 86.622 0.998 -3.37
99.917 0.997 -4.489 0.078 85.501 0.078 85.501 0.997 -4.489
124.875 0.995 -5.605 0.098 84.382 0.098 84.382 0.995 -5.605
149.833 0.993 -6.717 0.117 83.267 0.117 83.267 0.993 -6.717
174.792 0.991 -7.826 0.136 82.156 0.136 82.156 0.991 -7.826
199.75 0.988 -8.929 0.155 81.05 0.155 81.05 0.988 -8.929
224.708 0.985 -10.027 0.174 79.95 0.174 79.95 0.985 -10.027
249.667 0.981 -11.12 0.193 78.855 0.193 78.855 0.981 -11.12
274.625 0.977 -12.205 0.211 77.767 0.211 77.767 0.977 -12.205
299.583 0.973 -13.283 0.23 76.686 0.23 76.686 0.973 -13.283
324.542 0.969 -14.354 0.248 75.613 0.248 75.613 0.969 -14.354
349.5 0.964 -15.417 0.266 74.547 0.266 74.547 0.964 -15.417
374.458 0.959 -16.47 0.284 73.491 0.284 73.491 0.959 -16.47
399.417 0.953 -17.515 0.301 72.444 0.301 72.444 0.953 -17.515
424.375 0.948 -18.55 0.318 71.406 0.318 71.406 0.948 -18.55
449.333 0.942 -19.575 0.335 70.379 0.335 70.379 0.942 -19.575
474.292 0.936 -20.59 0.352 69.361 0.352 69.361 0.936 -20.59
499.25 0.929 -21.594 0.368 68.355 0.368 68.355 0.929 -21.594
524.208 0.923 -22.587 0.384 67.359 0.384 67.359 0.923 -22.587
549.167 0.916 -23.569 0.4 66.375 0.4 66.375 0.916 -23.569
574.125 0.909 -24.539 0.415 65.402 0.415 65.402 0.909 -24.539
599.083 0.902 -25.498 0.43 64.44 0.43 64.44 0.902 -25.498
624.042 0.895 -26.444 0.445 63.491 0.445 63.491 0.895 -26.444
649 0.887 -27.379 0.46 62.554 0.46 62.554 0.887 -27.379
673.958 0.88 -28.301 0.474 61.629 0.474 61.629 0.88 -28.301
698.917 0.872 -29.211 0.488 60.716 0.488 60.716 0.872 -29.211
723.875 0.864 -30.109 0.502 59.815 0.502 59.815 0.864 -30.109
748.833 0.857 -30.995 0.515 58.927 0.515 58.927 0.857 -30.995
773.792 0.849 -31.867 0.528 58.052 0.528 58.052 0.849 -31.867
798.75 0.84 -32.728 0.541 57.189 0.541 57.189 0.84 -32.728
823.708 0.832 -33.575 0.553 56.338 0.553 56.338 0.832 -33.575
848.667 0.824 -34.411 0.565 55.5 0.565 55.5 0.824 -34.411
873.625 0.816 -35.234 0.577 54.674 0.577 54.674 0.816 -35.234
898.583 0.808 -36.044 0.588 53.861 0.588 53.861 0.808 -36.044
923.542 0.799 -36.842 0.6 53.06 0.6 53.06 0.799 -36.842
948.5 0.791 -37.628 0.611 52.272 0.611 52.272 0.791 -37.628
973.458 0.783 -38.401 0.621 51.495 0.621 51.495 0.783 -38.401
998.417 0.774 -39.163 0.632 50.731 0.632 50.731 0.774 -39.163
1023.375 0.766 -39.912 0.642 49.979 0.642 49.979 0.766 -39.912
1048.333 0.757 -40.65 0.651 49.238 0.651 49.238 0.757 -40.65
1073.292 0.749 -41.376 0.661 48.509 0.661 48.509 0.749 -41.376
1098.25 0.741 -42.091 0.67 47.792 0.67 47.792 0.741 -42.091
1123.208 0.732 -42.794 0.679 47.086 0.679 47.086 0.732 -42.794
1148.167 0.724 -43.485 0.688 46.391 0.688 46.391 0.724 -43.485
1173.125 0.716 -44.166 0.697 45.707 0.697 45.707 0.716 -44.166
1198.083 0.708 -44.836 0.705 45.035 0.705 45.035 0.708 -44.836
1223.042 0.699 -45.494 0.713 44.373 0.713 44.373 0.699 -45.494
1248 0.691 -46.143 0.721 43.722 0.721 43.722 0.691 -46.143
1272.958 0.683 -46.78 0.729 43.081 0.729 43.081 0.683 -46.78
1297.917 0.675 -47.408 0.736 42.45 0.736 42.45 0.675 -47.408
1322.875 0.667 -48.025 0.743 41.83 0.743 41.83 0.667 -48.025
1347.833 0.659 -48.633 0.75 41.219 0.75 41.219 0.659 -48.633
1372.792 0.651 -49.231 0.757 40.618 0.757 40.618 0.651 -49.231
1397.75 0.643 -49.819 0.764 40.027 0.764 40.027 0.643 -49.819
1422.708 0.635 -50.397 0.77 39.445 0.77 39.445 0.635 -50.397
1447.667 0.628 -50.967 0.777 38.872 0.777 38.872 0.628 -50.967
1472.625 0.62 -51.527 0.783 38.308 0.783 38.308 0.62 -51.527
1497.583 0.612 -52.079 0.789 37.754 0.789 37.754 0.612 -52.079
1522.542 0.605 -52.622 0.795 37.207 0.795 37.207 0.605 -52.622
1547.5 0.597 -53.156 0.8 36.67 0.8 36.67 0.597 -53.156
1572.458 0.59 -53.682 0.806 36.141 0.806 36.141 0.59 -53.682
1597.417 0.582 -54.199 0.811 35.619 0.811 35.619 0.582 -54.199
1622.375 0.575 -54.709 0.816 35.106 0.816 35.106 0.575 -54.709
1647.333 0.568 -55.211 0.821 34.601 0.821 34.601 0.568 -55.211
1672.292 0.561 -55.705 0.826 34.104 0.826 34.104 0.561 -55.705
1697.25 0.554 -56.191 0.831 33.614 0.831 33.614 0.554 -56.191
1722.208 0.547 -56.67 0.836 33.131 0.836 33.131 0.547 -56.67
1747.167 0.54 -57.142 0.84 32.656 0.84 32.656 0.54 -57.142
1772.125 0.533 -57.606 0.844 32.187 0.844 32.187 0.533 -57.606
1797.083 0.526 -58.064 0.849 31.726 0.849 31.726 0.526 -58.064
1822.042 0.519 -58.515 0.853 31.271 0.853 31.271 0.519 -58.515
1847 0.512 -58.959 0.857 30.823 0.857 30.823 0.512 -58.959
1871.958 0.506 -59.397 0.861 30.382 0.861 30.382 0.506 -59.397
1896.917 0.499 -59.828 0.865 29.947 0.865 29.947 0.499 -59.828
1921.875 0.493 -60.253 0.868 29.518 0.868 29.518 0.493 -60.253
1946.833 0.486 -60.672 0.872 29.095 0.872 29.095 0.486 -60.672
1971.792 0.48 -61.085 0.875 28.678 0.875 28.678 0.48 -61.085
1996.75 0.474 -61.492 0.879 28.267 0.879 28.267 0.474 -61.492
2021.708 0.467 -61.893 0.882 27.862 0.882 27.862 0.467 -61.893
2046.667 0.461 -62.288 0.885 27.462 0.885 27.462 0.461 -62.288
2071.625 0.455 -62.679 0.888 27.067 0.888 27.067 0.455 -62.679
2096.583 0.449 -63.063 0.892 26.679 0.892 26.679 0.449 -63.063
2121.542 0.443 -63.442 0.894 26.295 0.894 26.295 0.443 -63.442
2146.5 0.437 -63.817 0.897 25.916 0.897 25.916 0.437 -63.817
2171.458 0.431 -64.186 0.9 25.543 0.9 25.543 0.431 -64.186
2196.417 0.425 -64.55 0.903 25.174 0.903 25.174 0.425 -64.55
2221.375 0.42 -64.909 0.906 24.81 0.906 24.81 0.42 -64.909
2246.333 0.414 -65.263 0.908 24.451 0.908 24.451 0.414 -65.263
2271.292 0.408 -65.613 0.911 24.097 0.911 24.097 0.408 -65.613
2296.25 0.403 -65.958 0.913 23.747 0.913 23.747 0.403 -65.958
2321.208 0.397 -66.299 0.916 23.401 0.916 23.401 0.397 -66.299
2346.167 0.392 -66.635 0.918 23.06 0.918 23.06 0.392 -66.635
2371.125 0.386 -66.967 0.92 22.723 0.92 22.723 0.386 -66.967
2396.083 0.381 -67.295 0.923 22.39 0.923 22.39 0.381 -67.295
2421.042 0.376 -67.619 0.925 22.061 0.925 22.061 0.376 -67.619
2446 0.37 -67.938 0.927 21.736 0.927 21.736 0.37 -67.938
2470.958 0.365 -68.254 0.929 21.415 0.929 21.415 0.365 -68.254
2495.917 0.36 -68.565 0.931 21.098 0.931 21.098 0.36 -68.565
2520.875 0.355 -68.873 0.933 20.785 0.933 20.785 0.355 -68.873
2545.833 0.35 -69.177 0.935 20.475 0.935 20.475 0.35 -69.177
2570.792 0.345 -69.478 0.937 20.169 0.937 20.169 0.345 -69.478
2595.75 0.34 -69.774 0.938 19.866 0.938 19.866 0.34 -69.774
2620.708 0.335 -70.068 0.94 19.567 0.94 19.567 0.335 -70.068
2645.667 0.33 -70.357 0.942 19.271 0.942 19.271 0.33 -70.357
2670.625 0.325 -70.644 0.943 18.979 0.943 18.979 0.325 -70.644
2695.583 0.32 -70.927 0.945 18.69 0.945 18.69 0.32 -70.927
2720.542 0.316 -71.206 0.947 18.404 0.947 18.404 0.316 -71.206
2745.5 0.311 -71.483 0.948 18.121 0.948 18.121 0.311 -71.483
2770.458 0.306 -71.756 0.95 17.841 0.95 17.841 0.306 -71.756
2795.417 0.302 -72.026 0.951 17.564 0.951 17.564 0.302 -72.026
2820.375 0.297 -72.293 0.953 17.29 0.953 17.29 0.297 -72.293
2845.333 0.293 -72.557 0.954 17.019 0.954 17.019 0.293 -72.557
2870.292 0.288 -72.818 0.955 16.751 0.955 16.751 0.288 -72.818
2895.25 0.284 -73.076 0.957 16.485 0.957 16.485 0.284 -73.076
2920.208 0.279 -73.332 0.958 16.222 0.958 16.222 0.279 -73.332
2945.167 0.275 -73.584 0.959 15.962 0.959 15.962 0.275 -73.584
2970.125 0.271 -73.834 0.96 15.705 0.96 15.705 0.271 -73.834
2995.083 0.266 -74.081 0.962 15.45 0.962 15.45 0.266 -74.081
3020.042 0.262 -74.325 0.963 15.197 0.963 15.197 0.262 -74.325
3045 0.258 -74.567 0.964 14.947 0.964 14.947 0.258 -74.567
3069.958 0.254 -74.805 0.965 14.7 0.965 14.7 0.254 -74.805
3094.917 0.25 -75.042 0.966 14.455 0.966 14.455 0.25 -75.042
3119.875 0.246 -75.276 0.967 14.212 0.967 14.212 0.246 -75.276
3144.833 0.241 -75.507 0.968 13.971 0.968 13.971 0.241 -75.507
3169.792 0.237 -75.736 0.969 13.733 0.969 13.733 0.237 -75.736
3194.75 0.233 -75.962 0.97 13.497 0.97 13.497 0.233 -75.962
3219.708 0.229 -76.186 0.971 13.263 0.971 13.263 0.229 -76.186
3244.667 0.225 -76.408 0.972 13.031 0.972 13.031 0.225 -76.408
3269.625 0.222 -76.627 0.973 12.801 0.973 12.801 0.222 -76.627
3294.583 0.218 -76.844 0.974 12.574 0.974 12.574 0.218 -76.844
3319.542 0.214 -77.059 0.975 12.348 0.975 12.348 0.214 -77.059
3344.5 0.21 -77.271 0.975 12.124 0.975 12.124 0.21 -77.271
3369.458 0.206 -77.482 0.976 11.903 0.976 11.903 0.206 -77.482
3394.417 0.203 -77.689 0.977 11.683 0.977 11.683 0.203 -77.689
3419.375 0.199 -77.895 0.978 11.465 0.978 11.465 0.199 -77.895
3444.333 0.195 -78.099 0.979 11.249 0.979 11.249 0.195 -78.099
3469.292 0.191 -78.3 0.979 11.035 0.979 11.035 0.191 -78.3
3494.25 0.188 -78.499 0.98 10.822 0.98 10.822 0.188 -78.499
3519.208 0.184 -78.696 0.981 10.611 0.981 10.611 0.184 -78.696
3544.167 0.181 -78.891 0.981 10.402 0.981 10.402 0.181 -78.891
3569.125 0.177 -79.083 0.982 10.195 0.982 10.195 0.177 -79.083
3594.083 0.173 -79.274 0.983 9.989 0.983 9.989 0.173 -79.274
3619.042 0.17 -79.462 0.983 9.785 0.983 9.785 0.17 -79.462
3644 0.166 -79.648 0.984 9.583 0.984 9.583 0.166 -79.648
3668.958 0.163 -79.832 0.984 9.382 0.984 9.382 0.163 -79.832
3693.917 0.16 -80.014 0.985 9.183 0.985 9.183 0.16 -80.014
3718.875 0.156 -80.194 0.985 8.985 0.985 8.985 0.156 -80.194
3743.833 0.153 -80.372 0.986 8.789 0.986 8.789 0.153 -80.372
3768.792 0.149 -80.547 0.987 8.594 0.987 8.594 0.149 -80.547
3793.75 0.146 -80.72 0.987 8.401 0.987 8.401 0.146 -80.72
3818.708 0.143 -80.891 0.988 8.209 0.988 8.209 0.143 -80.891
3843.667 0.14 -81.06 0.988 8.019 0.988 8.019 0.14 -81.06
3868.625 0.136 -81.227 0.988 7.83 0.988 7.83 0.136 -81.227
3893.583 0.133 -81.391 0.989 7.642 0.989 7.642 0.133 -81.391
3918.542 0.13 -81.553 0.989 7.456 0.989 7.456 0.13 -81.553
3943.5 0.127 -81.712 0.99 7.271 0.99 7.271 0.127 -81.712
3968.458 0.123 -81.869 0.99 7.087 0.99 7.087 0.123 -81.869
3993.417 0.12 -82.024 0.99 6.904 0.99 6.904 0.12 -82.024
4018.375 0.117 -82.176 0.991 6.723 0.991 6.723 0.117 -82.176
4043.333 0.114 -82.325 0.991 6.543 0.991 6.543 0.114 -82.325
4068.292 0.111 -82.472 0.992 6.365 0.992 6.365 0.111 -82.472
4093.25 0.108 -82.616 0.992 6.187 0.992 6.187 0.108 -82.616
4118.208 0.105 -82.757 0.992 6.011 0.992 6.011 0.105 -82.757
4143.167 0.102 -82.895 0.993 5.836 0.993 5.836 0.102 -82.895
4168.125 0.099 -83.029 0.993 5.662 0.993 5.662 0.099 -83.029
4193.083 0.096 -83.161 0.993 5.489 0.993 5.489 0.096 -83.161
4218.042 0.093 -83.289 0.993 5.317 0.993 5.317 0.093 -83.289
4243 0.09 -83.413 0.994 5.146 0.994 5.146 0.09 -83.413
4267.958 0.087 -83.533 0.994 4.977 0.994 4.977 0.087 -83.533
4292.917 0.084 -83.649 0.994 4.808 0.994 4.808 0.084 -83.649
4317.875 0.081 -83.76 0.994 4.641 0.994 4.641 0.081 -83.76
4342.833 0.078 -83.867 0.995 4.475 0.995 4.475 0.078 -83.867
4367.792 0.075 -83.969 0.995 4.309 0.995 4.309 0.075 -83.969
4392.75 0.072 -84.065 0.995 4.145 0.995 4.145 0.072 -84.065
4417.708 0.069 -84.154 0.995 3.982 0.995 3.982 0.069 -84.154
4442.667 0.067 -84.237 0.996 3.819 0.996 3.819 0.067 -84.237
4467.625 0.064 -84.313 0.996 3.658 0.996 3.658 0.064 -84.313
4492.583 0.061 -84.38 0.996 3.497 0.996 3.497 0.061 -84.38
4517.542 0.058 -84.438 0.996 3.338 0.996 3.338 0.058 -84.438
4542.5 0.056 -84.485 0.996 3.179 0.996 3.179 0.056 -84.485
4567.458 0.053 -84.521 0.996 3.022 0.996 3.022 0.053 -84.521
4592.417 0.05 -84.543 0.996 2.865 0.996 2.865 0.05 -84.543
4617.375 0.047 -84.55 0.997 2.709 0.997 2.709 0.047 -84.55
4642.333 0.045 -84.539 0.997 2.554 0.997 2.554 0.045 -84.539
4667.292 0.042 -84.506 0.997 2.4 0.997 2.4 0.042 -84.506
4692.25 0.039 -84.449 0.997 2.247 0.997 2.247 0.039 -84.449
4717.208 0.037 -84.361 0.997 2.094 0.997 2.094 0.037 -84.361
4742.167 0.034 -84.237 0.997 1.943 0.997 1.943 0.034 -84.237
4767.125 0.031 -84.067 0.997 1.792 0.997 1.792 0.031 -84.067
4792.083 0.029 -83.84 0.997 1.642 0.997 1.642 0.029 -83.84
4817.042 0.026 -83.54 0.997 1.493 0.997 1.493 0.026 -83.54
4842 0.024 -83.143 0.997 1.345 0.997 1.345 0.024 -83.143
4866.958 0.021 -82.616 0.998 1.197 0.998 1.197 0.021 -82.616
4891.917 0.018 -81.906 0.998 1.05 0.998 1.05 0.018 -81.906
4916.875 0.016 -80.928 0.998 0.904 0.998 0.904 0.016 -80.928
4941.833 0.013 -79.537 0.998 0.759 0.998 0.759 0.013 -79.537
4966.792 0.011 -77.459 0.998 0.614 0.998 0.614 0.011 -77.459
4991.75 8.521e-3 -74.112 0.998 0.471 0.998 0.471 8.521e-3 -74.112
5016.708 6.15e-3 -68.057 0.998 0.328 0.998 0.328 6.15e-3 -68.057
5041.667 3.947e-3 -54.79 0.998 0.185 0.998 0.185 3.947e-3 -54.79
5066.625 2.389e-3 -18.497 0.998 0.044 0.998 0.044 2.389e-3 -18.497
5091.583 2.833e-3 36.799 0.998 -0.097 0.998 -0.097 2.833e-3 36.799
5116.542 4.727e-3 61.128 0.998 -0.238 0.998 -0.238 4.727e-3 61.128
5141.5 6.964e-3 70.64 0.998 -0.377 0.998 -0.377 6.964e-3 70.64
5166.458 9.291e-3 75.372 0.998 -0.516 0.998 -0.516 9.291e-3 75.372
5191.417 0.012 78.129 0.998 -0.655 0.998 -0.655 0.012 78.129
5216.375 0.014 79.903 0.998 -0.792 0.998 -0.792 0.014 79.903
5241.333 0.016 81.119 0.998 -0.929 0.998 -0.929 0.016 81.119
5266.292 0.019 81.99 0.998 -1.065 0.998 -1.065 0.019 81.99
5291.25 0.021 82.632 0.998 -1.201 0.998 -1.201 0.021 82.632
5316.208 0.023 83.117 0.997 -1.336 0.997 -1.336 0.023 83.117
5341.167 0.026 83.487 0.997 -1.471 0.997 -1.471 0.026 83.487
5366.125 0.028 83.772 0.997 -1.604 0.997 -1.604 0.028 83.772
5391.083 0.03 83.992 0.997 -1.738 0.997 -1.738 0.03 83.992
5416.042 0.033 84.161 0.997 -1.87 0.997 -1.87 0.033 84.161
5441 0.035 84.29 0.997 -2.002 0.997 -2.002 0.035 84.29
5465.958 0.037 84.387 0.997 -2.134 0.997 -2.134 0.037 84.387
5490.917 0.04 84.457 0.997 -2.265 0.997 -2.265 0.04 84.457
5515.875 0.042 84.505 0.997 -2.395 0.997 -2.395 0.042 84.505
5540.833 0.044 84.534 0.997 -2.525 0.997 -2.525 0.044 84.534
5565.792 0.046 84.548 0.997 -2.654 0.997 -2.654 0.046 84.548
5590.75 0.049 84.549 0.997 -2.783 0.997 -2.783 0.049 84.549
5615.708 0.051 84.538 0.996 -2.911 0.996 -2.911 0.051 84.538
5640.667 0.053 84.518 0.996 -3.038 0.996 -3.038 0.053 84.518
5665.625 0.055 84.489 0.996 -3.165 0.996 -3.165 0.055 84.489
5690.583 0.057 84.453 0.996 -3.292 0.996 -3.292 0.057 84.453
5715.542 0.06 84.41 0.996 -3.418 0.996 -3.418 0.06 84.41
5740.5 0.062 84.362 0.996 -3.543 0.996 -3.543 0.062 84.362
5765.458 0.064 84.308 0.996 -3.668 0.996 -3.668 0.064 84.308
5790.417 0.066 84.25 0.996 -3.793 0.996 -3.793 0.066 84.25
5815.375 0.068 84.188 0.995 -3.917 0.995 -3.917 0.068 84.188
5840.333 0.07 84.123 0.995 -4.04 0.995 -4.04 0.07 84.123
5865.292 0.073 84.054 0.995 -4.163 0.995 -4.163 0.073 84.054
5890.25 0.075 83.983 0.995 -4.285 0.995 -4.285 0.075 83.983
5915.208 0.077 83.909 0.995 -4.407 0.995 -4.407 0.077 83.909
5940.167 0.079 83.833 0.995 -4.529 0.995 -4.529 0.079 83.833
5965.125 0.081 83.755 0.994 -4.65 0.994 -4.65 0.081 83.755
5990.083 0.083 83.675 0.994 -4.771 0.994 -4.771 0.083 83.675
6015.042 0.085 83.593 0.994 -4.891 0.994 -4.891 0.085 83.593
6040 0.087 83.51 0.994 -5.01 0.994 -5.01 0.087 83.51
6064.958 0.089 83.425 0.994 -5.129 0.994 -5.129 0.089 83.425
6089.917 0.091 83.339 0.994 -5.248 0.994 -5.248 0.091 83.339
6114.875 0.094 83.252 0.993 -5.367 0.993 -5.367 0.094 83.252
6139.833 0.096 83.164 0.993 -5.484 0.993 -5.484 0.096 83.164
6164.792 0.098 83.075 0.993 -5.602 0.993 -5.602 0.098 83.075
6189.75 0.1 82.985 0.993 -5.719 0.993 -5.719 0.1 82.985
6214.708 0.102 82.895 0.993 -5.835 0.993 -5.835 0.102 82.895
6239.667 0.104 82.804 0.992 -5.952 0.992 -5.952 0.104 82.804
6264.625 0.106 82.712 0.992 -6.067 0.992 -6.067 0.106 82.712
6289.583 0.108 82.619 0.992 -6.183 0.992 -6.183 0.108 82.619
6314.542 0.11 82.526 0.992 -6.298 0.992 -6.298 0.11 82.526
6339.5 0.112 82.433 0.991 -6.412 0.991 -6.412 0.112 82.433
6364.458 0.114 82.339 0.991 -6.526 0.991 -6.526 0.114 82.339
6389.417 0.116 82.245 0.991 -6.64 0.991 -6.64 0.116 82.245
6414.375 0.118 82.151 0.991 -6.753 0.991 -6.753 0.118 82.151
6439.333 0.12 82.056 0.991 -6.866 0.991 -6.866 0.12 82.056
6464.292 0.122 81.961 0.99 -6.979 0.99 -6.979 0.122 81.961
6489.25 0.123 81.866 0.99 -7.091 0.99 -7.091 0.123 81.866
6514.208 0.125 81.77 0.99 -7.203 0.99 -7.203 0.125 81.77
6539.167 0.127 81.675 0.99 -7.314 0.99 -7.314 0.127 81.675
6564.125 0.129 81.579 0.989 -7.425 0.989 -7.425 0.129 81.579
6589.083 0.131 81.483 0.989 -7.536 0.989 -7.536 0.131 81.483
6614.042 0.133 81.387 0.989 -7.646 0.989 -7.646 0.133 81.387
6639 0.135 81.291 0.989 -7.756 0.989 -7.756 0.135 81.291
6663.958 0.137 81.195 0.988 -7.865 0.988 -7.865 0.137 81.195
6688.917 0.139 81.099 0.988 -7.975 0.988 -7.975 0.139 81.099
6713.875 0.141 81.003 0.988 -8.083 0.988 -8.083 0.141 81.003
6738.833 0.143 80.906 0.988 -8.192 0.988 -8.192 0.143 80.906
6763.792 0.144 80.81 0.987 -8.3 0.987 -8.3 0.144 80.81
6788.75 0.146 80.714 0.987 -8.408 0.987 -8.408 0.146 80.714
6813.708 0.148 80.618 0.987 -8.515 0.987 -8.515 0.148 80.618
6838.667 0.15 80.522 0.986 -8.622 0.986 -8.622 0.15 80.522
6863.625 0.152 80.426 0.986 -8.729 0.986 -8.729 0.152 80.426
6888.583 0.154 80.329 0.986 -8.836 0.986 -8.836 0.154 80.329
6913.542 0.155 80.233 0.986 -8.942 0.986 -8.942 0.155 80.233
6938.5 0.157 80.137 0.985 -9.048 0.985 -9.048 0.157 80.137
6963.458 0.159 80.042 0.985 -9.153 0.985 -9.153 0.159 80.042
6988.417 0.161 79.946 0.985 -9.258 0.985 -9.258 0.161 79.946
7013.375 0.163 79.85 0.984 -9.363 0.984 -9.363 0.163 79.85
7038.333 0.165 79.754 0.984 -9.467 0.984 -9.467 0.165 79.754
7063.292 0.166 79.659 0.984 -9.572 0.984 -9.572 0.166 79.659
7088.25 0.168 79.563 0.984 -9.675 0.984 -9.675 0.168 79.563
7113.208 0.17 79.468 0.983 -9.779 0.983 -9.779 0.17 79.468
7138.167 0.172 79.373 0.983 -9.882 0.983 -9.882 0.172 79.373
7163.125 0.173 79.278 0.983 -9.985 0.983 -9.985 0.173 79.278
7188.083 0.175 79.183 0.982 -10.088 0.982 -10.088 0.175 79.183
7213.042 0.177 79.088 0.982 -10.19 0.982 -10.19 0.177 79.088
7238 0.179 78.993 0.982 -10.292 0.982 -10.292 0.179 78.993
7262.958 0.18 78.899 0.981 -10.394 0.981 -10.394 0.18 78.899
7287.917 0.182 78.804 0.981 -10.495 0.981 -10.495 0.182 78.804
7312.875 0.184 78.71 0.981 -10.596 0.981 -10.596 0.184 78.71
7337.833 0.186 78.616 0.98 -10.697 0.98 -10.697 0.186 78.616
7362.792 0.187 78.522 0.98 -10.798 0.98 -10.798 0.187 78.522
7387.75 0.189 78.428 0.98 -10.898 0.98 -10.898 0.189 78.428
7412.708 0.191 78.334 0.979 -10.998 0.979 -10.998 0.191 78.334
7437.667 0.192 78.241 0.979 -11.098 0.979 -11.098 0.192 78.241
7462.625 0.194 78.147 0.979 -11.197 0.979 -11.197 0.194 78.147
7487.583 0.196 78.054 0.978 -11.296 0.978 -11.296 0.196 78.054
7512.542 0.198 77.961 0.978 -11.395 0.978 -11.395 0.198 77.961
7537.5 0.199 77.868 0.978 -11.494 0.978 -11.494 0.199 77.868
7562.458 0.201 77.775 0.977 -11.592 0.977 -11.592 0.201 77.775
7587.417 0.203 77.683 0.977 -11.69 0.977 -11.69 0.203 77.683
7612.375 0.204 77.59 0.977 -11.788 0.977 -11.788 0.204 77.59
7637.333 0.206 77.498 0.976 -11.885 0.976 -11.885 0.206 77.498
7662.292 0.208 77.406 0.976 -11.983 0.976 -11.983 0.208 77.406
7687.25 0.209 77.314 0.976 -12.08 0.976 -12.08 0.209 77.314
7712.208 0.211 77.222 0.975 -12.176 0.975 -12.176 0.211 77.222
7737.167 0.213 77.131 0.975 -12.273 0.975 -12.273 0.213 77.131
7762.125 0.214 77.039 0.975 -12.369 0.975 -12.369 0.214 77.039
7787.083 0.216 76.948 0.974 -12.465 0.974 -12.465 0.216 76.948
7812.042 0.217 76.857 0.974 -12.561 0.974 -12.561 0.217 76.857
7837 0.219 76.766 0.973 -12.656 0.973 -12.656 0.219 76.766
7861.958 0.221 76.675 0.973 -12.751 0.973 -12.751 0.221 76.675
7886.917 0.222 76.585 0.973 -12.846 0.973 -12.846 0.222 76.585
7911.875 0.224 76.494 0.972 -12.941 0.972 -12.941 0.224 76.494
7936.833 0.226 76.404 0.972 -13.035 0.972 -13.035 0.226 76.404
7961.792 0.227 76.314 0.972 -13.13 0.972 -13.13 0.227 76.314
7986.75 0.229 76.224 0.971 -13.224 0.971 -13.224 0.229 76.224
8011.708 0.23 76.134 0.971 -13.317 0.971 -13.317 0.23 76.134
8036.667 0.232 76.045 0.971 -13.411 0.971 -13.411 0.232 76.045
8061.625 0.234 75.956 0.97 -13.504 0.97 -13.504 0.234 75.956
8086.583 0.235 75.866 0.97 -13.597 0.97 -13.597 0.235 75.866
8111.542 0.237 75.777 0.969 -13.69 0.969 -13.69 0.237 75.777
8136.5 0.238 75.689 0.969 -13.782 0.969 -13.782 0.238 75.689
8161.458 0.24 75.6 0.969 -13.875 0.969 -13.875 0.24 75.6
8186.417 0.241 75.511 0.968 -13.967 0.968 -13.967 0.241 75.511
