# MHZ S MA R 50

50 1 -1.71 0.03 88.286 0.03 88.286 1 -1.71
74.958 0.999 -2.562 0.045 87.431 0.045 87.431 0.999 -2.562
99.917 0.998 -3.414 0.06 86.577 0.06 86.577 0.998 -3.414
124.875 0.997 -4.265 0.074 85.724 0.074 85.724 0.997 -4.265
149.833 0.996 -5.114 0.089 84.873 0.089 84.873 0.996 -5.114
174.792 0.995 -5.961 0.104 84.023 0.104 84.023 0.995 -5.961
199.75 0.993 -6.807 0.119 83.176 0.119 83.176 0.993 -6.807
224.708 0.991 -7.65 0.133 82.33 0.133 82.33 0.991 -7.65
249.667 0.989 -8.491 0.148 81.488 0.148 81.488 0.989 -8.491
274.625 0.987 -9.329 0.162 80.647 0.162 80.647 0.987 -9.329
299.583 0.984 -10.164 0.176 79.81 0.176 79.81 0.984 -10.164
324.542 0.982 -10.995 0.191 78.977 0.191 78.977 0.982 -10.995
349.5 0.979 -11.823 0.205 78.146 0.205 78.146 0.979 -11.823
374.458 0.976 -12.648 0.219 77.32 0.219 77.32 0.976 -12.648
399.417 0.972 -13.468 0.233 76.498 0.233 76.498 0.972 -13.468
424.375 0.969 -14.284 0.247 75.679 0.247 75.679 0.969 -14.284
449.333 0.965 -15.095 0.26 74.866 0.26 74.866 0.965 -15.095
474.292 0.962 -15.902 0.274 74.056 0.274 74.056 0.962 -15.902
499.25 0.958 -16.705 0.287 73.252 0.287 73.252 0.958 -16.705
524.208 0.953 -17.502 0.301 72.453 0.301 72.453 0.953 -17.502
549.167 0.949 -18.294 0.314 71.659 0.314 71.659 0.949 -18.294
574.125 0.945 -19.08 0.327 70.87 0.327 70.87 0.945 -19.08
599.083 0.94 -19.861 0.34 70.087 0.34 70.087 0.94 -19.861
624.042 0.935 -20.637 0.352 69.309 0.352 69.309 0.935 -20.637
649 0.931 -21.406 0.365 68.537 0.365 68.537 0.931 -21.406
673.958 0.926 -22.17 0.377 67.771 0.377 67.771 0.926 -22.17
698.917 0.921 -22.927 0.39 67.012 0.39 67.012 0.921 -22.927
723.875 0.915 -23.679 0.402 66.258 0.402 66.258 0.915 -23.679
748.833 0.91 -24.424 0.413 65.511 0.413 65.511 0.91 -24.424
773.792 0.905 -25.162 0.425 64.77 0.425 64.77 0.905 -25.162
798.75 0.899 -25.895 0.437 64.035 0.437 64.035 0.899 -25.895
823.708 0.893 -26.62 0.448 63.307 0.448 63.307 0.893 -26.62
848.667 0.888 -27.339 0.459 62.586 0.459 62.586 0.888 -27.339
873.625 0.882 -28.052 0.47 61.871 0.47 61.871 0.882 -28.052
898.583 0.876 -28.757 0.481 61.163 0.481 61.163 0.876 -28.757
923.542 0.87 -29.456 0.492 60.462 0.492 60.462 0.87 -29.456
948.5 0.864 -30.148 0.502 59.768 0.502 59.768 0.864 -30.148
973.458 0.858 -30.834 0.513 59.08 0.513 59.08 0.858 -30.834
998.417 0.852 -31.512 0.523 58.399 0.523 58.399 0.852 -31.512
1023.375 0.846 -32.183 0.533 57.726 0.533 57.726 0.846 -32.183
1048.333 0.839 -32.848 0.542 57.059 0.542 57.059 0.839 -32.848
1073.292 0.833 -33.505 0.552 56.399 0.552 56.399 0.833 -33.505
1098.25 0.827 -34.156 0.561 55.746 0.561 55.746 0.827 -34.156
1123.208 0.82 -34.8 0.571 55.1 0.571 55.1 0.82 -34.8
1148.167 0.814 -35.437 0.58 54.46 0.58 54.46 0.814 -35.437
1173.125 0.807 -36.067 0.589 53.828 0.589 53.828 0.807 -36.067
1198.083 0.801 -36.69 0.597 53.202 0.597 53.202 0.801 -36.69
1223.042 0.794 -37.306 0.606 52.584 0.606 52.584 0.794 -37.306
1248 0.788 -37.916 0.615 51.972 0.615 51.972 0.788 -37.916
1272.958 0.781 -38.518 0.623 51.367 0.623 51.367 0.781 -38.518
1297.917 0.775 -39.114 0.631 50.768 0.631 50.768 0.775 -39.114
1322.875 0.768 -39.704 0.639 50.176 0.639 50.176 0.768 -39.704
1347.833 0.761 -40.286 0.647 49.591 0.647 49.591 0.761 -40.286
1372.792 0.755 -40.862 0.654 49.013 0.654 49.013 0.755 -40.862
1397.75 0.748 -41.432 0.662 48.441 0.662 48.441 0.748 -41.432
1422.708 0.742 -41.995 0.669 47.875 0.669 47.875 0.742 -41.995
1447.667 0.735 -42.551 0.676 47.316 0.676 47.316 0.735 -42.551
1472.625 0.729 -43.101 0.683 46.763 0.683 46.763 0.729 -43.101
1497.583 0.722 -43.645 0.69 46.217 0.69 46.217 0.722 -43.645
1522.542 0.715 -44.183 0.697 45.677 0.697 45.677 0.715 -44.183
1547.5 0.709 -44.714 0.704 45.143 0.704 45.143 0.709 -44.714
1572.458 0.702 -45.239 0.71 44.615 0.71 44.615 0.702 -45.239
1597.417 0.696 -45.758 0.716 44.093 0.716 44.093 0.696 -45.758
1622.375 0.689 -46.271 0.723 43.577 0.723 43.577 0.689 -46.271
1647.333 0.683 -46.778 0.729 43.068 0.729 43.068 0.683 -46.778
1672.292 0.676 -47.279 0.735 42.564 0.735 42.564 0.676 -47.279
1697.25 0.67 -47.775 0.741 42.065 0.741 42.065 0.67 -47.775
1722.208 0.664 -48.265 0.746 41.573 0.746 41.573 0.664 -48.265
1747.167 0.657 -48.749 0.752 41.086 0.752 41.086 0.657 -48.749
1772.125 0.651 -49.227 0.757 40.605 0.757 40.605 0.651 -49.227
1797.083 0.645 -49.7 0.763 40.129 0.763 40.129 0.645 -49.7
1822.042 0.638 -50.167 0.768 39.659 0.768 39.659 0.638 -50.167
1847 0.632 -50.629 0.773 39.194 0.773 39.194 0.632 -50.629
1871.958 0.626 -51.086 0.778 38.734 0.778 38.734 0.626 -51.086
1896.917 0.62 -51.538 0.783 38.28 0.783 38.28 0.62 -51.538
1921.875 0.613 -51.984 0.788 37.83 0.788 37.83 0.613 -51.984
1946.833 0.607 -52.425 0.793 37.386 0.793 37.386 0.607 -52.425
1971.792 0.601 -52.862 0.797 36.947 0.797 36.947 0.601 -52.862
1996.75 0.595 -53.293 0.802 36.513 0.802 36.513 0.595 -53.293
2021.708 0.589 -53.719 0.806 36.083 0.806 36.083 0.589 -53.719
2046.667 0.583 -54.141 0.81 35.658 0.81 35.658 0.583 -54.141
2071.625 0.577 -54.558 0.815 35.238 0.815 35.238 0.577 -54.558
2096.583 0.571 -54.97 0.819 34.823 0.819 34.823 0.571 -54.97
2121.542 0.565 -55.377 0.823 34.412 0.823 34.412 0.565 -55.377
2146.5 0.559 -55.78 0.827 34.006 0.827 34.006 0.559 -55.78
2171.458 0.553 -56.179 0.831 33.605 0.831 33.605 0.553 -56.179
2196.417 0.548 -56.573 0.835 33.207 0.835 33.207 0.548 -56.573
2221.375 0.542 -56.963 0.838 32.814 0.838 32.814 0.542 -56.963
2246.333 0.536 -57.348 0.842 32.425 0.842 32.425 0.536 -57.348
2271.292 0.531 -57.729 0.846 32.041 0.846 32.041 0.531 -57.729
2296.25 0.525 -58.106 0.849 31.66 0.849 31.66 0.525 -58.106
2321.208 0.519 -58.479 0.852 31.284 0.852 31.284 0.519 -58.479
2346.167 0.514 -58.848 0.856 30.911 0.856 30.911 0.514 -58.848
2371.125 0.508 -59.213 0.859 30.543 0.859 30.543 0.508 -59.213
2396.083 0.503 -59.574 0.862 30.178 0.862 30.178 0.503 -59.574
2421.042 0.497 -59.932 0.865 29.817 0.865 29.817 0.497 -59.932
2446 0.492 -60.285 0.869 29.46 0.869 29.46 0.492 -60.285
2470.958 0.486 -60.635 0.872 29.107 0.872 29.107 0.486 -60.635
2495.917 0.481 -60.981 0.874 28.757 0.874 28.757 0.481 -60.981
2520.875 0.476 -61.323 0.877 28.411 0.877 28.411 0.476 -61.323
2545.833 0.471 -61.662 0.88 28.068 0.88 28.068 0.471 -61.662
2570.792 0.465 -61.997 0.883 27.729 0.883 27.729 0.465 -61.997
2595.75 0.46 -62.329 0.886 27.393 0.886 27.393 0.46 -62.329
2620.708 0.455 -62.658 0.888 27.06 0.888 27.06 0.455 -62.658
2645.667 0.45 -62.983 0.891 26.731 0.891 26.731 0.45 -62.983
2670.625 0.445 -63.305 0.893 26.405 0.893 26.405 0.445 -63.305
2695.583 0.44 -63.623 0.896 26.083 0.896 26.083 0.44 -63.623
2720.542 0.435 -63.939 0.898 25.763 0.898 25.763 0.435 -63.939
2745.5 0.43 -64.251 0.901 25.447 0.901 25.447 0.43 -64.251
2770.458 0.425 -64.56 0.903 25.133 0.903 25.133 0.425 -64.56
2795.417 0.42 -64.866 0.905 24.823 0.905 24.823 0.42 -64.866
2820.375 0.415 -65.169 0.908 24.515 0.908 24.515 0.415 -65.169
2845.333 0.41 -65.469 0.91 24.211 0.91 24.211 0.41 -65.469
2870.292 0.405 -65.766 0.912 23.909 0.912 23.909 0.405 -65.766
2895.25 0.401 -66.06 0.914 23.61 0.914 23.61 0.401 -66.06
2920.208 0.396 -66.351 0.916 23.314 0.916 23.314 0.396 -66.351
2945.167 0.391 -66.64 0.918 23.021 0.918 23.021 0.391 -66.64
2970.125 0.386 -66.926 0.92 22.73 0.92 22.73 0.386 -66.926
2995.083 0.382 -67.209 0.922 22.442 0.922 22.442 0.382 -67.209
3020.042 0.377 -67.489 0.924 22.157 0.924 22.157 0.377 -67.489
3045 0.373 -67.767 0.926 21.874 0.926 21.874 0.373 -67.767
3069.958 0.368 -68.042 0.927 21.594 0.927 21.594 0.368 -68.042
3094.917 0.364 -68.315 0.929 21.316 0.929 21.316 0.364 -68.315
3119.875 0.359 -68.585 0.931 21.041 0.931 21.041 0.359 -68.585
3144.833 0.355 -68.852 0.933 20.768 0.933 20.768 0.355 -68.852
3169.792 0.35 -69.117 0.934 20.497 0.934 20.497 0.35 -69.117
3194.75 0.346 -69.38 0.936 20.229 0.936 20.229 0.346 -69.38
3219.708 0.341 -69.64 0.938 19.963 0.938 19.963 0.341 -69.64
3244.667 0.337 -69.898 0.939 19.699 0.939 19.699 0.337 -69.898
3269.625 0.333 -70.154 0.941 19.438 0.941 19.438 0.333 -70.154
3294.583 0.329 -70.407 0.942 19.179 0.942 19.179 0.329 -70.407
3319.542 0.324 -70.658 0.944 18.922 0.944 18.922 0.324 -70.658
3344.5 0.32 -70.907 0.945 18.667 0.945 18.667 0.32 -70.907
3369.458 0.316 -71.153 0.946 18.414 0.946 18.414 0.316 -71.153
3394.417 0.312 -71.398 0.948 18.163 0.948 18.163 0.312 -71.398
3419.375 0.308 -71.64 0.949 17.915 0.949 17.915 0.308 -71.64
3444.333 0.304 -71.88 0.95 17.668 0.95 17.668 0.304 -71.88
3469.292 0.299 -72.118 0.952 17.423 0.952 17.423 0.299 -72.118
3494.25 0.295 -72.354 0.953 17.18 0.953 17.18 0.295 -72.354
3519.208 0.291 -72.587 0.954 16.94 0.954 16.94 0.291 -72.587
3544.167 0.287 -72.819 0.955 16.701 0.955 16.701 0.287 -72.819
3569.125 0.283 -73.049 0.957 16.464 0.957 16.464 0.283 -73.049
3594.083 0.279 -73.277 0.958 16.228 0.958 16.228 0.279 -73.277
3619.042 0.276 -73.503 0.959 15.995 0.959 15.995 0.276 -73.503
3644 0.272 -73.726 0.96 15.763 0.96 15.763 0.272 -73.726
3668.958 0.268 -73.948 0.961 15.533 0.961 15.533 0.268 -73.948
3693.917 0.264 -74.168 0.962 15.305 0.962 15.305 0.264 -74.168
3718.875 0.26 -74.387 0.963 15.079 0.963 15.079 0.26 -74.387
3743.833 0.256 -74.603 0.964 14.854 0.964 14.854 0.256 -74.603
3768.792 0.253 -74.817 0.965 14.631 0.965 14.631 0.253 -74.817
3793.75 0.249 -75.03 0.966 14.409 0.966 14.409 0.249 -75.03
3818.708 0.245 -75.241 0.967 14.19 0.967 14.19 0.245 -75.241
3843.667 0.241 -75.45 0.968 13.971 0.968 13.971 0.241 -75.45
3868.625 0.238 -75.657 0.969 13.755 0.969 13.755 0.238 -75.657
3893.583 0.234 -75.862 0.97 13.539 0.97 13.539 0.234 -75.862
3918.542 0.231 -76.066 0.971 13.326 0.971 13.326 0.231 -76.066
3943.5 0.227 -76.268 0.971 13.114 0.971 13.114 0.227 -76.268
3968.458 0.223 -76.468 0.972 12.903 0.972 12.903 0.223 -76.468
3993.417 0.22 -76.667 0.973 12.694 0.973 12.694 0.22 -76.667
4018.375 0.216 -76.863 0.974 12.486 0.974 12.486 0.216 -76.863
4043.333 0.213 -77.058 0.975 12.28 0.975 12.28 0.213 -77.058
4068.292 0.209 -77.252 0.975 12.075 0.975 12.075 0.209 -77.252
4093.25 0.206 -77.443 0.976 11.871 0.976 11.871 0.206 -77.443
4118.208 0.202 -77.633 0.977 11.669 0.977 11.669 0.202 -77.633
4143.167 0.199 -77.822 0.978 11.468 0.978 11.468 0.199 -77.822
4168.125 0.195 -78.008 0.978 11.269 0.978 11.269 0.195 -78.008
4193.083 0.192 -78.193 0.979 11.071 0.979 11.071 0.192 -78.193
4218.042 0.189 -78.376 0.98 10.874 0.98 10.874 0.189 -78.376
4243 0.185 -78.558 0.98 10.678 0.98 10.678 0.185 -78.558
4267.958 0.182 -78.738 0.981 10.484 0.981 10.484 0.182 -78.738
4292.917 0.179 -78.916 0.981 10.291 0.981 10.291 0.179 -78.916
4317.875 0.175 -79.093 0.982 10.099 0.982 10.099 0.175 -79.093
4342.833 0.172 -79.267 0.983 9.908 0.983 9.908 0.172 -79.267
4367.792 0.169 -79.44 0.983 9.718 0.983 9.718 0.169 -79.44
4392.75 0.166 -79.612 0.984 9.53 0.984 9.53 0.166 -79.612
4417.708 0.162 -79.782 0.984 9.343 0.984 9.343 0.162 -79.782
4442.667 0.159 -79.949 0.985 9.157 0.985 9.157 0.159 -79.949
4467.625 0.156 -80.116 0.985 8.972 0.985 8.972 0.156 -80.116
4492.583 0.153 -80.28 0.986 8.788 0.986 8.788 0.153 -80.28
4517.542 0.15 -80.443 0.986 8.606 0.986 8.606 0.15 -80.443
4542.5 0.147 -80.603 0.987 8.424 0.987 8.424 0.147 -80.603
4567.458 0.143 -80.762 0.987 8.244 0.987 8.244 0.143 -80.762
4592.417 0.14 -80.919 0.988 8.064 0.988 8.064 0.14 -80.919
4617.375 0.137 -81.074 0.988 7.886 0.988 7.886 0.137 -81.074
4642.333 0.134 -81.227 0.988 7.708 0.988 7.708 0.134 -81.227
4667.292 0.131 -81.379 0.989 7.532 0.989 7.532 0.131 -81.379
4692.25 0.128 -81.528 0.989 7.357 0.989 7.357 0.128 -81.528
4717.208 0.125 -81.675 0.99 7.182 0.99 7.182 0.125 -81.675
4742.167 0.122 -81.819 0.99 7.009 0.99 7.009 0.122 -81.819
4767.125 0.119 -81.962 0.99 6.837 0.99 6.837 0.119 -81.962
4792.083 0.116 -82.102 0.991 6.665 0.991 6.665 0.116 -82.102
4817.042 0.113 -82.24 0.991 6.495 0.991 6.495 0.113 -82.24
4842 0.11 -82.375 0.991 6.325 0.991 6.325 0.11 -82.375
4866.958 0.107 -82.508 0.992 6.157 0.992 6.157 0.107 -82.508
4891.917 0.104 -82.638 0.992 5.989 0.992 5.989 0.104 -82.638
4916.875 0.101 -82.765 0.992 5.822 0.992 5.822 0.101 -82.765
4941.833 0.099 -82.889 0.993 5.657 0.993 5.657 0.099 -82.889
4966.792 0.096 -83.01 0.993 5.492 0.993 5.492 0.096 -83.01
4991.75 0.093 -83.128 0.993 5.327 0.993 5.327 0.093 -83.128
5016.708 0.09 -83.242 0.993 5.164 0.993 5.164 0.09 -83.242
5041.667 0.087 -83.353 0.994 5.002 0.994 5.002 0.087 -83.353
5066.625 0.084 -83.459 0.994 4.84 0.994 4.84 0.084 -83.459
5091.583 0.082 -83.561 0.994 4.68 0.994 4.68 0.082 -83.561
5116.542 0.079 -83.659 0.994 4.52 0.994 4.52 0.079 -83.659
5141.5 0.076 -83.751 0.995 4.361 0.995 4.361 0.076 -83.751
5166.458 0.073 -83.838 0.995 4.202 0.995 4.202 0.073 -83.838
5191.417 0.071 -83.919 0.995 4.045 0.995 4.045 0.071 -83.919
5216.375 0.068 -83.993 0.995 3.888 0.995 3.888 0.068 -83.993
5241.333 0.065 -84.06 0.995 3.732 0.995 3.732 0.065 -84.06
5266.292 0.062 -84.12 0.996 3.577 0.996 3.577 0.062 -84.12
5291.25 0.06 -84.17 0.996 3.423 0.996 3.423 0.06 -84.17
5316.208 0.057 -84.21 0.996 3.269 0.996 3.269 0.057 -84.21
5341.167 0.054 -84.24 0.996 3.116 0.996 3.116 0.054 -84.24
5366.125 0.052 -84.256 0.996 2.964 0.996 2.964 0.052 -84.256
5391.083 0.049 -84.258 0.996 2.813 0.996 2.813 0.049 -84.258
5416.042 0.047 -84.243 0.996 2.662 0.996 2.662 0.047 -84.243
5441 0.044 -84.208 0.997 2.512 0.997 2.512 0.044 -84.208
5465.958 0.041 -84.15 0.997 2.363 0.997 2.363 0.041 -84.15
5490.917 0.039 -84.065 0.997 2.214 0.997 2.214 0.039 -84.065
5515.875 0.036 -83.948 0.997 2.066 0.997 2.066 0.036 -83.948
5540.833 0.034 -83.79 0.997 1.919 0.997 1.919 0.034 -83.79
5565.792 0.031 -83.583 0.997 1.773 0.997 1.773 0.031 -83.583
5590.75 0.029 -83.314 0.997 1.627 0.997 1.627 0.029 -83.314
5615.708 0.026 -82.966 0.997 1.482 0.997 1.482 0.026 -82.966
5640.667 0.023 -82.515 0.997 1.337 0.997 1.337 0.023 -82.515
5665.625 0.021 -81.924 0.997 1.193 0.997 1.193 0.021 -81.924
5690.583 0.018 -81.138 0.997 1.05 0.997 1.05 0.018 -81.138
5715.542 0.016 -80.072 0.997 0.907 0.997 0.907 0.016 -80.072
5740.5 0.014 -78.575 0.997 0.765 0.997 0.765 0.014 -78.575
5765.458 0.011 -76.376 0.997 0.624 0.997 0.624 0.011 -76.376
5790.417 8.8e-3 -72.916 0.997 0.483 0.997 0.483 8.8e-3 -72.916
5815.375 6.493e-3 -66.877 0.997 0.343 0.997 0.343 6.493e-3 -66.877
5840.333 4.351e-3 -54.5 0.997 0.203 0.997 0.203 4.351e-3 -54.5
5865.292 2.755e-3 -24.065 0.997 0.065 0.997 0.065 2.755e-3 -24.065
5890.25 2.825e-3 27.062 0.997 -0.074 0.997 -0.074 2.825e-3 27.062
5915.208 4.468e-3 55.543 0.997 -0.212 0.997 -0.212 4.468e-3 55.543
5940.167 6.586e-3 67.211 0.997 -0.349 0.997 -0.349 6.586e-3 67.211
5965.125 8.837e-3 72.986 0.997 -0.485 0.997 -0.485 8.837e-3 72.986
5990.083 0.011 76.329 0.997 -0.621 0.997 -0.621 0.011 76.329
6015.042 0.013 78.469 0.997 -0.757 0.997 -0.757 0.013 78.469
6040 0.016 79.934 0.997 -0.892 0.997 -0.892 0.016 79.934
6064.958 0.018 80.985 0.997 -1.026 0.997 -1.026 0.018 80.985
6089.917 0.02 81.763 0.997 -1.16 0.997 -1.16 0.02 81.763
6114.875 0.023 82.353 0.997 -1.293 0.997 -1.293 0.023 82.353
6139.833 0.025 82.807 0.997 -1.426 0.997 -1.426 0.025 82.807
6164.792 0.027 83.162 0.997 -1.558 0.997 -1.558 0.027 83.162
6189.75 0.03 83.44 0.997 -1.69 0.997 -1.69 0.03 83.44
6214.708 0.032 83.658 0.997 -1.821 0.997 -1.821 0.032 83.658
6239.667 0.034 83.829 0.997 -1.952 0.997 -1.952 0.034 83.829
6264.625 0.036 83.962 0.997 -2.082 0.997 -2.082 0.036 83.962
6289.583 0.039 84.064 0.997 -2.212 0.997 -2.212 0.039 84.064
6314.542 0.041 84.14 0.997 -2.341 0.997 -2.341 0.041 84.14
6339.5 0.043 84.194 0.997 -2.47 0.997 -2.47 0.043 84.194
6364.458 0.045 84.23 0.996 -2.598 0.996 -2.598 0.045 84.23
6389.417 0.048 84.251 0.996 -2.725 0.996 -2.725 0.048 84.251
6414.375 0.05 84.259 0.996 -2.853 0.996 -2.853 0.05 84.259
6439.333 0.052 84.255 0.996 -2.979 0.996 -2.979 0.052 84.255
6464.292 0.054 84.241 0.996 -3.106 0.996 -3.106 0.054 84.241
6489.25 0.056 84.219 0.996 -3.231 0.996 -3.231 0.056 84.219
6514.208 0.059 84.189 0.996 -3.357 0.996 -3.357 0.059 84.189
6539.167 0.061 84.152 0.996 -3.482 0.996 -3.482 0.061 84.152
6564.125 0.063 84.109 0.996 -3.606 0.996 -3.606 0.063 84.109
6589.083 0.065 84.061 0.995 -3.73 0.995 -3.73 0.065 84.061
6614.042 0.067 84.009 0.995 -3.853 0.995 -3.853 0.067 84.009
6639 0.069 83.952 0.995 -3.976 0.995 -3.976 0.069 83.952
6663.958 0.072 83.892 0.995 -4.099 0.995 -4.099 0.072 83.892
6688.917 0.074 83.828 0.995 -4.221 0.995 -4.221 0.074 83.828
6713.875 0.076 83.761 0.995 -4.343 0.995 -4.343 0.076 83.761
6738.833 0.078 83.691 0.994 -4.464 0.994 -4.464 0.078 83.691
6763.792 0.08 83.619 0.994 -4.585 0.994 -4.585 0.08 83.619
6788.75 0.082 83.545 0.994 -4.705 0.994 -4.705 0.082 83.545
6813.708 0.084 83.469 0.994 -4.825 0.994 -4.825 0.084 83.469
6838.667 0.086 83.39 0.994 -4.945 0.994 -4.945 0.086 83.39
6863.625 0.088 83.311 0.994 -5.064 0.994 -5.064 0.088 83.311
6888.583 0.09 83.229 0.993 -5.183 0.993 -5.183 0.09 83.229
6913.542 0.092 83.147 0.993 -5.301 0.993 -5.301 0.092 83.147
6938.5 0.094 83.063 0.993 -5.419 0.993 -5.419 0.094 83.063
6963.458 0.097 82.977 0.993 -5.537 0.993 -5.537 0.097 82.977
6988.417 0.099 82.891 0.993 -5.654 0.993 -5.654 0.099 82.891
7013.375 0.101 82.804 0.992 -5.771 0.992 -5.771 0.101 82.804
7038.333 0.103 82.716 0.992 -5.887 0.992 -5.887 0.103 82.716
7063.292 0.105 82.627 0.992 -6.003 0.992 -6.003 0.105 82.627
7088.25 0.107 82.538 0.992 -6.119 0.992 -6.119 0.107 82.538
7113.208 0.109 82.447 0.992 -6.234 0.992 -6.234 0.109 82.447
7138.167 0.111 82.357 0.991 -6.349 0.991 -6.349 0.111 82.357
7163.125 0.113 82.265 0.991 -6.463 0.991 -6.463 0.113 82.265
7188.083 0.115 82.173 0.991 -6.578 0.991 -6.578 0.115 82.173
7213.042 0.117 82.081 0.991 -6.691 0.991 -6.691 0.117 82.081
7238 0.119 81.988 0.99 -6.805 0.99 -6.805 0.119 81.988
7262.958 0.12 81.895 0.99 -6.918 0.99 -6.918 0.12 81.895
7287.917 0.122 81.802 0.99 -7.03 0.99 -7.03 0.122 81.802
7312.875 0.124 81.708 0.99 -7.143 0.99 -7.143 0.124 81.708
7337.833 0.126 81.614 0.99 -7.255 0.99 -7.255 0.126 81.614
7362.792 0.128 81.52 0.989 -7.366 0.989 -7.366 0.128 81.52
7387.75 0.13 81.425 0.989 -7.477 0.989 -7.477 0.13 81.425
7412.708 0.132 81.33 0.989 -7.588 0.989 -7.588 0.132 81.33
7437.667 0.134 81.236 0.988 -7.699 0.988 -7.699 0.134 81.236
7462.625 0.136 81.141 0.988 -7.809 0.988 -7.809 0.136 81.141
7487.583 0.138 81.046 0.988 -7.919 0.988 -7.919 0.138 81.046
7512.542 0.14 80.95 0.988 -8.028 0.988 -8.028 0.14 80.95
7537.5 0.142 80.855 0.987 -8.138 0.987 -8.138 0.142 80.855
7562.458 0.143 80.76 0.987 -8.246 0.987 -8.246 0.143 80.76
7587.417 0.145 80.664 0.987 -8.355 0.987 -8.355 0.145 80.664
7612.375 0.147 80.569 0.987 -8.463 0.987 -8.463 0.147 80.569
7637.333 0.149 80.473 0.986 -8.571 0.986 -8.571 0.149 80.473
7662.292 0.151 80.378 0.986 -8.679 0.986 -8.679 0.151 80.378
7687.25 0.153 80.282 0.986 -8.786 0.986 -8.786 0.153 80.282
7712.208 0.155 80.187 0.985 -8.893 0.985 -8.893 0.155 80.187
7737.167 0.156 80.091 0.985 -8.999 0.985 -8.999 0.156 80.091
7762.125 0.158 79.996 0.985 -9.106 0.985 -9.106 0.158 79.996
7787.083 0.16 79.9 0.985 -9.212 0.985 -9.212 0.16 79.9
7812.042 0.162 79.805 0.984 -9.317 0.984 -9.317 0.162 79.805
7837 0.164 79.709 0.984 -9.423 0.984 -9.423 0.164 79.709
7861.958 0.166 79.614 0.984 -9.528 0.984 -9.528 0.166 79.614
7886.917 0.167 79.519 0.983 -9.632 0.983 -9.632 0.167 79.519
7911.875 0.169 79.424 0.983 -9.737 0.983 -9.737 0.169 79.424
7936.833 0.171 79.329 0.983 -9.841 0.983 -9.841 0.171 79.329
7961.792 0.173 79.234 0.982 -9.945 0.982 -9.945 0.173 79.234
7986.75 0.174 79.139 0.982 -10.048 0.982 -10.048 0.174 79.139
8011.708 0.176 79.044 0.982 -10.152 0.982 -10.152 0.176 79.044
8036.667 0.178 78.949 0.982 -10.255 0.982 -10.255 0.178 78.949
8061.625 0.18 78.855 0.981 -10.357 0.981 -10.357 0.18 78.855
8086.583 0.182 78.76 0.981 -10.46 0.981 -10.46 0.182 78.76
8111.542 0.183 78.666 0.981 -10.562 0.981 -10.562 0.183 78.666
8136.5 0.185 78.571 0.98 -10.664 0.98 -10.664 0.185 78.571
8161.458 0.187 78.477 0.98 -10.765 0.98 -10.765 0.187 78.477
8186.417 0.189 78.383 0.98 -10.866 0.98 -10.866 0.189 78.383
8211.375 0.19 78.289 0.979 -10.967 0.979 -10.967 0.19 78.289
