# MHZ S MA R 50

50 1 -0.54 9.425e-3 89.458 9.425e-3 89.458 1 -0.54
74.958 1 -0.81 0.014 89.187 0.014 89.187 1 -0.81
99.917 1 -1.079 0.019 88.917 0.019 88.917 1 -1.079
124.875 1 -1.349 0.024 88.646 0.024 88.646 1 -1.349
149.833 1 -1.618 0.028 88.375 0.028 88.375 1 -1.618
174.792 0.999 -1.888 0.033 88.105 0.033 88.105 0.999 -1.888
199.75 0.999 -2.157 0.038 87.834 0.038 87.834 0.999 -2.157
224.708 0.999 -2.427 0.042 87.564 0.042 87.564 0.999 -2.427
249.667 0.999 -2.696 0.047 87.293 0.047 87.293 0.999 -2.696
274.625 0.999 -2.965 0.052 87.023 0.052 87.023 0.999 -2.965
299.583 0.998 -3.235 0.056 86.752 0.056 86.752 0.998 -3.235
324.542 0.998 -3.504 0.061 86.482 0.061 86.482 0.998 -3.504
349.5 0.998 -3.773 0.066 86.211 0.066 86.211 0.998 -3.773
374.458 0.997 -4.043 0.07 85.941 0.07 85.941 0.997 -4.043
399.417 0.997 -4.312 0.075 85.671 0.075 85.671 0.997 -4.312
424.375 0.997 -4.581 0.08 85.401 0.08 85.401 0.997 -4.581
449.333 0.996 -4.85 0.085 85.13 0.085 85.13 0.996 -4.85
474.292 0.996 -5.119 0.089 84.86 0.089 84.86 0.996 -5.119
499.25 0.996 -5.388 0.094 84.59 0.094 84.59 0.996 -5.388
524.208 0.995 -5.657 0.099 84.32 0.099 84.32 0.995 -5.657
549.167 0.995 -5.926 0.103 84.05 0.103 84.05 0.995 -5.926
574.125 0.994 -6.195 0.108 83.78 0.108 83.78 0.994 -6.195
599.083 0.994 -6.464 0.113 83.51 0.113 83.51 0.994 -6.464
624.042 0.993 -6.732 0.117 83.24 0.117 83.24 0.993 -6.732
649 0.992 -7.001 0.122 82.971 0.122 82.971 0.992 -7.001
673.958 0.992 -7.27 0.127 82.701 0.127 82.701 0.992 -7.27
698.917 0.991 -7.538 0.131 82.431 0.131 82.431 0.991 -7.538
723.875 0.991 -7.806 0.136 82.162 0.136 82.162 0.991 -7.806
748.833 0.99 -8.075 0.14 81.892 0.14 81.892 0.99 -8.075
773.792 0.989 -8.343 0.145 81.623 0.145 81.623 0.989 -8.343
798.75 0.989 -8.611 0.15 81.354 0.15 81.354 0.989 -8.611
823.708 0.988 -8.879 0.154 81.085 0.154 81.085 0.988 -8.879
848.667 0.987 -9.147 0.159 80.816 0.159 80.816 0.987 -9.147
873.625 0.986 -9.415 0.164 80.547 0.164 80.547 0.986 -9.415
898.583 0.986 -9.683 0.168 80.278 0.168 80.278 0.986 -9.683
923.542 0.985 -9.951 0.173 80.009 0.173 80.009 0.985 -9.951
948.5 0.984 -10.218 0.177 79.74 0.177 79.74 0.984 -10.218
973.458 0.983 -10.486 0.182 79.472 0.182 79.472 0.983 -10.486
998.417 0.982 -10.753 0.187 79.203 0.187 79.203 0.982 -10.753
1023.375 0.981 -11.02 0.191 78.935 0.191 78.935 0.981 -11.02
1048.333 0.981 -11.288 0.196 78.666 0.196 78.666 0.981 -11.288
1073.292 0.98 -11.555 0.2 78.398 0.2 78.398 0.98 -11.555
1098.25 0.979 -11.821 0.205 78.13 0.205 78.13 0.979 -11.821
1123.208 0.978 -12.088 0.209 77.862 0.209 77.862 0.978 -12.088
1148.167 0.977 -12.355 0.214 77.595 0.214 77.595 0.977 -12.355
1173.125 0.976 -12.621 0.219 77.327 0.219 77.327 0.976 -12.621
1198.083 0.975 -12.888 0.223 77.059 0.223 77.059 0.975 -12.888
1223.042 0.974 -13.154 0.228 76.792 0.228 76.792 0.974 -13.154
1248 0.972 -13.42 0.232 76.525 0.232 76.525 0.972 -13.42
1272.958 0.971 -13.686 0.237 76.258 0.237 76.258 0.971 -13.686
1297.917 0.97 -13.952 0.241 75.991 0.241 75.991 0.97 -13.952
1322.875 0.969 -14.218 0.246 75.724 0.246 75.724 0.969 -14.218
1347.833 0.968 -14.484 0.25 75.457 0.25 75.457 0.968 -14.484
1372.792 0.967 -14.749 0.255 75.19 0.255 75.19 0.967 -14.749
1397.75 0.966 -15.014 0.259 74.924 0.259 74.924 0.966 -15.014
1422.708 0.964 -15.279 0.264 74.658 0.264 74.658 0.964 -15.279
1447.667 0.963 -15.544 0.268 74.392 0.268 74.392 0.963 -15.544
1472.625 0.962 -15.809 0.272 74.126 0.272 74.126 0.962 -15.809
1497.583 0.961 -16.074 0.277 73.86 0.277 73.86 0.961 -16.074
1522.542 0.959 -16.338 0.281 73.594 0.281 73.594 0.959 -16.338
1547.5 0.958 -16.603 0.286 73.329 0.286 73.329 0.958 -16.603
1572.458 0.957 -16.867 0.29 73.063 0.29 73.063 0.957 -16.867
1597.417 0.955 -17.131 0.295 72.798 0.295 72.798 0.955 -17.131
1622.375 0.954 -17.395 0.299 72.533 0.299 72.533 0.954 -17.395
1647.333 0.952 -17.658 0.303 72.268 0.303 72.268 0.952 -17.658
1672.292 0.951 -17.922 0.308 72.004 0.308 72.004 0.951 -17.922
1697.25 0.95 -18.185 0.312 71.739 0.312 71.739 0.95 -18.185
1722.208 0.948 -18.448 0.316 71.475 0.316 71.475 0.948 -18.448
1747.167 0.947 -18.711 0.321 71.211 0.321 71.211 0.947 -18.711
1772.125 0.945 -18.974 0.325 70.947 0.325 70.947 0.945 -18.974
1797.083 0.944 -19.236 0.329 70.683 0.329 70.683 0.944 -19.236
1822.042 0.942 -19.499 0.334 70.42 0.334 70.42 0.942 -19.499
1847 0.941 -19.761 0.338 70.156 0.338 70.156 0.941 -19.761
1871.958 0.939 -20.023 0.342 69.893 0.342 69.893 0.939 -20.023
1896.917 0.937 -20.284 0.347 69.63 0.347 69.63 0.937 -20.284
1921.875 0.936 -20.546 0.351 69.368 0.351 69.368 0.936 -20.546
1946.833 0.934 -20.807 0.355 69.105 0.355 69.105 0.934 -20.807
1971.792 0.933 -21.068 0.359 68.843 0.359 68.843 0.933 -21.068
1996.75 0.931 -21.329 0.364 68.581 0.364 68.581 0.931 -21.329
2021.708 0.929 -21.59 0.368 68.319 0.368 68.319 0.929 -21.59
2046.667 0.928 -21.85 0.372 68.057 0.372 68.057 0.928 -21.85
2071.625 0.926 -22.111 0.376 67.796 0.376 67.796 0.926 -22.111
2096.583 0.924 -22.371 0.381 67.534 0.381 67.534 0.924 -22.371
2121.542 0.922 -22.631 0.385 67.273 0.385 67.273 0.922 -22.631
2146.5 0.921 -22.89 0.389 67.012 0.389 67.012 0.921 -22.89
2171.458 0.919 -23.15 0.393 66.752 0.393 66.752 0.919 -23.15
2196.417 0.917 -23.409 0.397 66.491 0.397 66.491 0.917 -23.409
2221.375 0.915 -23.668 0.401 66.231 0.401 66.231 0.915 -23.668
2246.333 0.913 -23.926 0.406 65.971 0.406 65.971 0.913 -23.926
2271.292 0.911 -24.185 0.41 65.712 0.41 65.712 0.911 -24.185
2296.25 0.91 -24.443 0.414 65.452 0.414 65.452 0.91 -24.443
2321.208 0.908 -24.701 0.418 65.193 0.418 65.193 0.908 -24.701
2346.167 0.906 -24.959 0.422 64.934 0.422 64.934 0.906 -24.959
2371.125 0.904 -25.216 0.426 64.675 0.426 64.675 0.904 -25.216
2396.083 0.902 -25.473 0.43 64.417 0.43 64.417 0.902 -25.473
2421.042 0.9 -25.73 0.434 64.158 0.434 64.158 0.9 -25.73
2446 0.898 -25.987 0.438 63.9 0.438 63.9 0.898 -25.987
2470.958 0.896 -26.244 0.442 63.643 0.442 63.643 0.896 -26.244
2495.917 0.894 -26.5 0.446 63.385 0.446 63.385 0.894 -26.5
2520.875 0.892 -26.756 0.45 63.128 0.45 63.128 0.892 -26.756
2545.833 0.89 -27.012 0.454 62.871 0.454 62.871 0.89 -27.012
2570.792 0.888 -27.267 0.458 62.614 0.458 62.614 0.888 -27.267
2595.75 0.886 -27.522 0.462 62.358 0.462 62.358 0.886 -27.522
2620.708 0.884 -27.777 0.466 62.101 0.466 62.101 0.884 -27.777
2645.667 0.882 -28.032 0.47 61.845 0.47 61.845 0.882 -28.032
2670.625 0.88 -28.286 0.474 61.59 0.474 61.59 0.88 -28.286
2695.583 0.877 -28.54 0.478 61.334 0.478 61.334 0.877 -28.54
2720.542 0.875 -28.794 0.482 61.079 0.482 61.079 0.875 -28.794
2745.5 0.873 -29.048 0.486 60.824 0.486 60.824 0.873 -29.048
2770.458 0.871 -29.301 0.489 60.57 0.489 60.57 0.871 -29.301
2795.417 0.869 -29.554 0.493 60.315 0.493 60.315 0.869 -29.554
2820.375 0.867 -29.807 0.497 60.061 0.497 60.061 0.867 -29.807
2845.333 0.864 -30.059 0.501 59.808 0.501 59.808 0.864 -30.059
2870.292 0.862 -30.311 0.505 59.554 0.505 59.554 0.862 -30.311
2895.25 0.86 -30.563 0.508 59.301 0.508 59.301 0.86 -30.563
2920.208 0.858 -30.814 0.512 59.048 0.512 59.048 0.858 -30.814
2945.167 0.855 -31.066 0.516 58.795 0.516 58.795 0.855 -31.066
2970.125 0.853 -31.317 0.52 58.543 0.52 58.543 0.853 -31.317
2995.083 0.851 -31.567 0.524 58.291 0.524 58.291 0.851 -31.567
3020.042 0.848 -31.818 0.527 58.039 0.527 58.039 0.848 -31.818
3045 0.846 -32.068 0.531 57.788 0.531 57.788 0.846 -32.068
3069.958 0.844 -32.318 0.535 57.536 0.535 57.536 0.844 -32.318
3094.917 0.841 -32.567 0.538 57.286 0.538 57.286 0.841 -32.567
3119.875 0.839 -32.816 0.542 57.035 0.542 57.035 0.839 -32.816
3144.833 0.837 -33.065 0.546 56.785 0.546 56.785 0.837 -33.065
3169.792 0.834 -33.314 0.549 56.535 0.549 56.535 0.834 -33.314
3194.75 0.832 -33.562 0.553 56.285 0.553 56.285 0.832 -33.562
3219.708 0.829 -33.81 0.556 56.036 0.556 56.036 0.829 -33.81
3244.667 0.827 -34.057 0.56 55.787 0.56 55.787 0.827 -34.057
3269.625 0.825 -34.305 0.564 55.538 0.564 55.538 0.825 -34.305
3294.583 0.822 -34.551 0.567 55.29 0.567 55.29 0.822 -34.551
3319.542 0.82 -34.798 0.571 55.041 0.571 55.041 0.82 -34.798
3344.5 0.817 -35.044 0.574 54.794 0.574 54.794 0.817 -35.044
3369.458 0.815 -35.29 0.578 54.546 0.578 54.546 0.815 -35.29
3394.417 0.812 -35.536 0.581 54.299 0.581 54.299 0.812 -35.536
3419.375 0.81 -35.781 0.585 54.052 0.585 54.052 0.81 -35.781
3444.333 0.807 -36.026 0.588 53.806 0.588 53.806 0.807 -36.026
3469.292 0.804 -36.271 0.592 53.559 0.592 53.559 0.804 -36.271
3494.25 0.802 -36.515 0.595 53.314 0.595 53.314 0.802 -36.515
3519.208 0.799 -36.759 0.598 53.068 0.598 53.068 0.799 -36.759
3544.167 0.797 -37.003 0.602 52.823 0.602 52.823 0.797 -37.003
3569.125 0.794 -37.246 0.605 52.578 0.605 52.578 0.794 -37.246
3594.083 0.792 -37.489 0.609 52.333 0.609 52.333 0.792 -37.489
3619.042 0.789 -37.732 0.612 52.089 0.612 52.089 0.789 -37.732
3644 0.786 -37.974 0.615 51.845 0.615 51.845 0.786 -37.974
3668.958 0.784 -38.216 0.619 51.602 0.619 51.602 0.784 -38.216
3693.917 0.781 -38.458 0.622 51.359 0.622 51.359 0.781 -38.458
3718.875 0.778 -38.699 0.625 51.116 0.625 51.116 0.778 -38.699
3743.833 0.776 -38.94 0.629 50.873 0.629 50.873 0.776 -38.94
3768.792 0.773 -39.181 0.632 50.631 0.632 50.631 0.773 -39.181
3793.75 0.77 -39.421 0.635 50.389 0.635 50.389 0.77 -39.421
3818.708 0.768 -39.661 0.638 50.148 0.638 50.148 0.768 -39.661
3843.667 0.765 -39.9 0.641 49.906 0.641 49.906 0.765 -39.9
3868.625 0.762 -40.14 0.645 49.666 0.645 49.666 0.762 -40.14
3893.583 0.76 -40.378 0.648 49.425 0.648 49.425 0.76 -40.378
3918.542 0.757 -40.617 0.651 49.185 0.651 49.185 0.757 -40.617
3943.5 0.754 -40.855 0.654 48.945 0.654 48.945 0.754 -40.855
3968.458 0.751 -41.093 0.657 48.706 0.657 48.706 0.751 -41.093
3993.417 0.749 -41.33 0.66 48.467 0.66 48.467 0.749 -41.33
4018.375 0.746 -41.567 0.663 48.228 0.663 48.228 0.746 -41.567
4043.333 0.743 -41.803 0.667 47.99 0.667 47.99 0.743 -41.803
4068.292 0.74 -42.04 0.67 47.752 0.67 47.752 0.74 -42.04
4093.25 0.737 -42.276 0.673 47.514 0.673 47.514 0.737 -42.276
4118.208 0.735 -42.511 0.676 47.277 0.676 47.277 0.735 -42.511
4143.167 0.732 -42.746 0.679 47.04 0.679 47.04 0.732 -42.746
4168.125 0.729 -42.981 0.682 46.803 0.682 46.803 0.729 -42.981
4193.083 0.726 -43.215 0.685 46.567 0.685 46.567 0.726 -43.215
4218.042 0.723 -43.449 0.688 46.331 0.688 46.331 0.723 -43.449
4243 0.721 -43.683 0.691 46.096 0.691 46.096 0.721 -43.683
4267.958 0.718 -43.916 0.694 45.861 0.694 45.861 0.718 -43.916
4292.917 0.715 -44.149 0.697 45.626 0.697 45.626 0.715 -44.149
4317.875 0.712 -44.382 0.699 45.392 0.699 45.392 0.712 -44.382
4342.833 0.709 -44.614 0.702 45.158 0.702 45.158 0.709 -44.614
4367.792 0.706 -44.846 0.705 44.924 0.705 44.924 0.706 -44.846
4392.75 0.703 -45.077 0.708 44.691 0.708 44.691 0.703 -45.077
4417.708 0.7 -45.308 0.711 44.458 0.711 44.458 0.7 -45.308
4442.667 0.697 -45.538 0.714 44.226 0.714 44.226 0.697 -45.538
4467.625 0.695 -45.769 0.717 43.994 0.717 43.994 0.695 -45.769
4492.583 0.692 -45.998 0.719 43.762 0.719 43.762 0.692 -45.998
4517.542 0.689 -46.228 0.722 43.531 0.722 43.531 0.689 -46.228
4542.5 0.686 -46.457 0.725 43.3 0.725 43.3 0.686 -46.457
4567.458 0.683 -46.685 0.728 43.069 0.728 43.069 0.683 -46.685
4592.417 0.68 -46.914 0.73 42.839 0.73 42.839 0.68 -46.914
4617.375 0.677 -47.142 0.733 42.609 0.733 42.609 0.677 -47.142
4642.333 0.674 -47.369 0.736 42.38 0.736 42.38 0.674 -47.369
4667.292 0.671 -47.596 0.738 42.15 0.738 42.15 0.671 -47.596
4692.25 0.668 -47.823 0.741 41.922 0.741 41.922 0.668 -47.823
4717.208 0.665 -48.049 0.744 41.693 0.744 41.693 0.665 -48.049
4742.167 0.662 -48.275 0.746 41.466 0.746 41.466 0.662 -48.275
4767.125 0.659 -48.5 0.749 41.238 0.749 41.238 0.659 -48.5
4792.083 0.656 -48.725 0.752 41.011 0.752 41.011 0.656 -48.725
4817.042 0.653 -48.95 0.754 40.784 0.754 40.784 0.653 -48.95
4842 0.65 -49.174 0.757 40.558 0.757 40.558 0.65 -49.174
4866.958 0.647 -49.398 0.759 40.332 0.759 40.332 0.647 -49.398
4891.917 0.644 -49.621 0.762 40.106 0.762 40.106 0.644 -49.621
4916.875 0.641 -49.844 0.764 39.881 0.764 39.881 0.641 -49.844
4941.833 0.638 -50.067 0.767 39.656 0.767 39.656 0.638 -50.067
4966.792 0.635 -50.289 0.769 39.432 0.769 39.432 0.635 -50.289
4991.75 0.632 -50.511 0.772 39.208 0.772 39.208 0.632 -50.511
5016.708 0.629 -50.732 0.774 38.984 0.774 38.984 0.629 -50.732
5041.667 0.626 -50.953 0.777 38.761 0.777 38.761 0.626 -50.953
5066.625 0.623 -51.174 0.779 38.538 0.779 38.538 0.623 -51.174
5091.583 0.62 -51.394 0.781 38.316 0.781 38.316 0.62 -51.394
5116.542 0.617 -51.614 0.784 38.094 0.784 38.094 0.617 -51.614
5141.5 0.614 -51.833 0.786 37.872 0.786 37.872 0.614 -51.833
5166.458 0.611 -52.052 0.789 37.651 0.789 37.651 0.611 -52.052
5191.417 0.608 -52.27 0.791 37.43 0.791 37.43 0.608 -52.27
5216.375 0.605 -52.488 0.793 37.21 0.793 37.21 0.605 -52.488
5241.333 0.602 -52.706 0.796 36.989 0.796 36.989 0.602 -52.706
5266.292 0.599 -52.923 0.798 36.77 0.798 36.77 0.599 -52.923
5291.25 0.596 -53.14 0.8 36.551 0.8 36.551 0.596 -53.14
5316.208 0.592 -53.356 0.802 36.332 0.802 36.332 0.592 -53.356
5341.167 0.589 -53.572 0.805 36.113 0.805 36.113 0.589 -53.572
5366.125 0.586 -53.788 0.807 35.895 0.807 35.895 0.586 -53.788
5391.083 0.583 -54.003 0.809 35.678 0.809 35.678 0.583 -54.003
5416.042 0.58 -54.217 0.811 35.46 0.811 35.46 0.58 -54.217
5441 0.577 -54.432 0.813 35.244 0.813 35.244 0.577 -54.432
5465.958 0.574 -54.645 0.816 35.027 0.816 35.027 0.574 -54.645
5490.917 0.571 -54.859 0.818 34.811 0.818 34.811 0.571 -54.859
5515.875 0.568 -55.072 0.82 34.596 0.82 34.596 0.568 -55.072
5540.833 0.565 -55.284 0.822 34.38 0.822 34.38 0.565 -55.284
5565.792 0.562 -55.496 0.824 34.166 0.824 34.166 0.562 -55.496
5590.75 0.558 -55.708 0.826 33.951 0.826 33.951 0.558 -55.708
5615.708 0.555 -55.919 0.828 33.737 0.828 33.737 0.555 -55.919
5640.667 0.552 -56.13 0.83 33.524 0.83 33.524 0.552 -56.13
5665.625 0.549 -56.34 0.832 33.31 0.832 33.31 0.549 -56.34
5690.583 0.546 -56.55 0.834 33.098 0.834 33.098 0.546 -56.55
5715.542 0.543 -56.76 0.836 32.885 0.836 32.885 0.543 -56.76
5740.5 0.54 -56.969 0.838 32.673 0.838 32.673 0.54 -56.969
5765.458 0.537 -57.177 0.84 32.462 0.84 32.462 0.537 -57.177
5790.417 0.534 -57.386 0.842 32.251 0.842 32.251 0.534 -57.386
5815.375 0.531 -57.593 0.844 32.04 0.844 32.04 0.531 -57.593
5840.333 0.527 -57.801 0.846 31.83 0.846 31.83 0.527 -57.801
5865.292 0.524 -58.008 0.848 31.62 0.848 31.62 0.524 -58.008
5890.25 0.521 -58.214 0.85 31.41 0.85 31.41 0.521 -58.214
5915.208 0.518 -58.42 0.852 31.201 0.852 31.201 0.518 -58.42
5940.167 0.515 -58.625 0.854 30.993 0.854 30.993 0.515 -58.625
5965.125 0.512 -58.831 0.856 30.784 0.856 30.784 0.512 -58.831
5990.083 0.509 -59.035 0.858 30.576 0.858 30.576 0.509 -59.035
6015.042 0.506 -59.239 0.859 30.369 0.859 30.369 0.506 -59.239
6040 0.502 -59.443 0.861 30.162 0.861 30.162 0.502 -59.443
6064.958 0.499 -59.646 0.863 29.955 0.863 29.955 0.499 -59.646
6089.917 0.496 -59.849 0.865 29.749 0.865 29.749 0.496 -59.849
6114.875 0.493 -60.052 0.866 29.543 0.866 29.543 0.493 -60.052
6139.833 0.49 -60.254 0.868 29.338 0.868 29.338 0.49 -60.254
6164.792 0.487 -60.455 0.87 29.133 0.87 29.133 0.487 -60.455
6189.75 0.484 -60.656 0.872 28.929 0.872 28.929 0.484 -60.656
6214.708 0.481 -60.857 0.873 28.724 0.873 28.724 0.481 -60.857
6239.667 0.477 -61.057 0.875 28.521 0.875 28.521 0.477 -61.057
6264.625 0.474 -61.257 0.877 28.317 0.877 28.317 0.474 -61.257
6289.583 0.471 -61.456 0.878 28.115 0.878 28.115 0.471 -61.456
6314.542 0.468 -61.655 0.88 27.912 0.88 27.912 0.468 -61.655
6339.5 0.465 -61.853 0.882 27.71 0.882 27.71 0.465 -61.853
6364.458 0.462 -62.051 0.883 27.508 0.883 27.508 0.462 -62.051
6389.417 0.459 -62.248 0.885 27.307 0.885 27.307 0.459 -62.248
6414.375 0.456 -62.445 0.887 27.106 0.887 27.106 0.456 -62.445
6439.333 0.453 -62.642 0.888 26.906 0.888 26.906 0.453 -62.642
6464.292 0.449 -62.838 0.89 26.706 0.89 26.706 0.449 -62.838
6489.25 0.446 -63.034 0.891 26.506 0.891 26.506 0.446 -63.034
6514.208 0.443 -63.229 0.893 26.307 0.893 26.307 0.443 -63.229
6539.167 0.44 -63.423 0.894 26.108 0.894 26.108 0.44 -63.423
6564.125 0.437 -63.618 0.896 25.91 0.896 25.91 0.437 -63.618
6589.083 0.434 -63.811 0.897 25.712 0.897 25.712 0.434 -63.811
6614.042 0.431 -64.005 0.899 25.515 0.899 25.515 0.431 -64.005
6639 0.428 -64.198 0.9 25.317 0.9 25.317 0.428 -64.198
6663.958 0.425 -64.39 0.902 25.121 0.902 25.121 0.425 -64.39
6688.917 0.421 -64.582 0.903 24.924 0.903 24.924 0.421 -64.582
6713.875 0.418 -64.773 0.905 24.729 0.905 24.729 0.418 -64.773
6738.833 0.415 -64.964 0.906 24.533 0.906 24.533 0.415 -64.964
6763.792 0.412 -65.155 0.907 24.338 0.907 24.338 0.412 -65.155
6788.75 0.409 -65.345 0.909 24.143 0.909 24.143 0.409 -65.345
6813.708 0.406 -65.534 0.91 23.949 0.91 23.949 0.406 -65.534
6838.667 0.403 -65.723 0.912 23.755 0.912 23.755 0.403 -65.723
6863.625 0.4 -65.912 0.913 23.562 0.913 23.562 0.4 -65.912
6888.583 0.397 -66.1 0.914 23.369 0.914 23.369 0.397 -66.1
6913.542 0.394 -66.288 0.916 23.177 0.916 23.177 0.394 -66.288
6938.5 0.39 -66.475 0.917 22.984 0.917 22.984 0.39 -66.475
6963.458 0.387 -66.661 0.918 22.793 0.918 22.793 0.387 -66.661
6988.417 0.384 -66.848 0.92 22.601 0.92 22.601 0.384 -66.848
7013.375 0.381 -67.033 0.921 22.41 0.921 22.41 0.381 -67.033
7038.333 0.378 -67.218 0.922 22.22 0.922 22.22 0.378 -67.218
7063.292 0.375 -67.403 0.923 22.03 0.923 22.03 0.375 -67.403
7088.25 0.372 -67.587 0.925 21.84 0.925 21.84 0.372 -67.587
7113.208 0.369 -67.771 0.926 21.651 0.926 21.651 0.369 -67.771
7138.167 0.366 -67.954 0.927 21.462 0.927 21.462 0.366 -67.954
7163.125 0.363 -68.137 0.928 21.273 0.928 21.273 0.363 -68.137
7188.083 0.36 -68.32 0.929 21.085 0.929 21.085 0.36 -68.32
7213.042 0.357 -68.501 0.93 20.898 0.93 20.898 0.357 -68.501
7238 0.354 -68.683 0.932 20.711 0.932 20.711 0.354 -68.683
7262.958 0.351 -68.863 0.933 20.524 0.933 20.524 0.351 -68.863
7287.917 0.348 -69.044 0.934 20.337 0.934 20.337 0.348 -69.044
7312.875 0.345 -69.223 0.935 20.151 0.935 20.151 0.345 -69.223
7337.833 0.341 -69.403 0.936 19.966 0.936 19.966 0.341 -69.403
7362.792 0.338 -69.582 0.937 19.78 0.937 19.78 0.338 -69.582
7387.75 0.335 -69.76 0.938 19.596 0.938 19.596 0.335 -69.76
7412.708 0.332 -69.938 0.939 19.411 0.939 19.411 0.332 -69.938
7437.667 0.329 -70.115 0.94 19.227 0.94 19.227 0.329 -70.115
7462.625 0.326 -70.292 0.941 19.044 0.941 19.044 0.326 -70.292
7487.583 0.323 -70.468 0.943 18.861 0.943 18.861 0.323 -70.468
7512.542 0.32 -70.643 0.944 18.678 0.944 18.678 0.32 -70.643
7537.5 0.317 -70.819 0.945 18.495 0.945 18.495 0.317 -70.819
7562.458 0.314 -70.993 0.946 18.314 0.946 18.314 0.314 -70.993
7587.417 0.311 -71.167 0.947 18.132 0.947 18.132 0.311 -71.167
7612.375 0.308 -71.341 0.948 17.951 0.948 17.951 0.308 -71.341
7637.333 0.305 -71.514 0.948 17.77 0.948 17.77 0.305 -71.514
7662.292 0.302 -71.686 0.949 17.59 0.949 17.59 0.302 -71.686
7687.25 0.299 -71.858 0.95 17.41 0.95 17.41 0.299 -71.858
7712.208 0.296 -72.03 0.951 17.23 0.951 17.23 0.296 -72.03
7737.167 0.293 -72.201 0.952 17.051 0.952 17.051 0.293 -72.201
7762.125 0.29 -72.371 0.953 16.872 0.953 16.872 0.29 -72.371
7787.083 0.287 -72.541 0.954 16.694 0.954 16.694 0.287 -72.541
7812.042 0.284 -72.71 0.955 16.516 0.955 16.516 0.284 -72.71
7837 0.281 -72.879 0.956 16.339 0.956 16.339 0.281 -72.879
7861.958 0.278 -73.047 0.957 16.162 0.957 16.162 0.278 -73.047
7886.917 0.275 -73.214 0.957 15.985 0.957 15.985 0.275 -73.214
7911.875 0.272 -73.381 0.958 15.809 0.958 15.809 0.272 -73.381
7936.833 0.269 -73.547 0.959 15.633 0.959 15.633 0.269 -73.547
7961.792 0.267 -73.713 0.96 15.457 0.96 15.457 0.267 -73.713
7986.75 0.264 -73.878 0.961 15.282 0.961 15.282 0.264 -73.878
8011.708 0.261 -74.043 0.962 15.107 0.962 15.107 0.261 -74.043
8036.667 0.258 -74.207 0.962 14.933 0.962 14.933 0.258 -74.207
8061.625 0.255 -74.37 0.963 14.759 0.963 14.759 0.255 -74.37
8086.583 0.252 -74.533 0.964 14.585 0.964 14.585 0.252 -74.533
8111.542 0.249 -74.695 0.965 14.412 0.965 14.412 0.249 -74.695
8136.5 0.246 -74.856 0.965 14.24 0.965 14.24 0.246 -74.856
8161.458 0.243 -75.017 0.966 14.067 0.966 14.067 0.243 -75.017
