# MHZ S MA R 50

50 0.945 -19.077 0.327 70.899 0.327 70.899 0.945 -19.077
74.958 0.887 -27.426 0.461 62.538 0.461 62.538 0.887 -27.426
99.917 0.822 -34.707 0.569 55.246 0.569 55.246 0.822 -34.707
124.875 0.755 -40.926 0.655 49.014 0.655 49.014 0.755 -40.926
149.833 0.691 -46.19 0.722 43.738 0.722 43.738 0.691 -46.19
174.792 0.633 -50.636 0.773 39.28 0.773 39.28 0.633 -50.636
199.75 0.581 -54.402 0.813 35.502 0.813 35.502 0.581 -54.402
224.708 0.534 -57.61 0.844 32.281 0.844 32.281 0.534 -57.61
249.667 0.493 -60.362 0.869 29.517 0.869 29.517 0.493 -60.362
274.625 0.456 -62.74 0.889 27.126 0.889 27.126 0.456 -62.74
299.583 0.423 -64.811 0.905 25.041 0.905 25.041 0.423 -64.811
324.542 0.394 -66.629 0.918 23.211 0.918 23.211 0.394 -66.629
349.5 0.368 -68.235 0.929 21.592 0.929 21.592 0.368 -68.235
374.458 0.344 -69.663 0.938 20.15 0.938 20.15 0.344 -69.663
399.417 0.323 -70.941 0.945 18.858 0.945 18.858 0.323 -70.941
424.375 0.304 -72.091 0.952 17.693 0.952 17.693 0.304 -72.091
449.333 0.286 -73.132 0.957 16.638 0.957 16.638 0.286 -73.132
474.292 0.27 -74.079 0.962 15.676 0.962 15.676 0.27 -74.079
499.25 0.255 -74.943 0.966 14.797 0.966 14.797 0.255 -74.943
524.208 0.242 -75.737 0.969 13.988 0.969 13.988 0.242 -75.737
549.167 0.229 -76.467 0.972 13.241 0.972 13.241 0.229 -76.467
574.125 0.217 -77.142 0.975 12.549 0.975 12.549 0.217 -77.142
599.083 0.206 -77.768 0.977 11.906 0.977 11.906 0.206 -77.768
624.042 0.196 -78.35 0.979 11.306 0.979 11.306 0.196 -78.35
649 0.186 -78.893 0.981 10.745 0.981 10.745 0.186 -78.893
673.958 0.177 -79.401 0.983 10.218 0.983 10.218 0.177 -79.401
698.917 0.169 -79.877 0.984 9.722 0.984 9.722 0.169 -79.877
723.875 0.161 -80.324 0.986 9.254 0.986 9.254 0.161 -80.324
748.833 0.153 -80.745 0.987 8.812 0.987 8.812 0.153 -80.745
773.792 0.146 -81.142 0.988 8.392 0.988 8.392 0.146 -81.142
798.75 0.139 -81.517 0.989 7.993 0.989 7.993 0.139 -81.517
823.708 0.133 -81.872 0.99 7.614 0.99 7.614 0.133 -81.872
848.667 0.126 -82.208 0.991 7.252 0.991 7.252 0.126 -82.208
873.625 0.12 -82.527 0.992 6.906 0.992 6.906 0.12 -82.527
898.583 0.115 -82.829 0.992 6.575 0.992 6.575 0.115 -82.829
923.542 0.109 -83.116 0.993 6.258 0.993 6.258 0.109 -83.116
948.5 0.104 -83.389 0.993 5.953 0.993 5.953 0.104 -83.389
973.458 0.099 -83.648 0.994 5.659 0.994 5.659 0.099 -83.648
998.417 0.094 -83.893 0.994 5.377 0.994 5.377 0.094 -83.893
1023.375 0.089 -84.127 0.995 5.104 0.995 5.104 0.089 -84.127
1048.333 0.084 -84.348 0.995 4.841 0.995 4.841 0.084 -84.348
1073.292 0.08 -84.557 0.996 4.587 0.996 4.587 0.08 -84.557
1098.25 0.076 -84.755 0.996 4.34 0.996 4.34 0.076 -84.755
1123.208 0.072 -84.941 0.996 4.102 0.996 4.102 0.072 -84.941
1148.167 0.068 -85.115 0.997 3.87 0.997 3.87 0.068 -85.115
1173.125 0.064 -85.277 0.997 3.645 0.997 3.645 0.064 -85.277
1198.083 0.06 -85.427 0.997 3.426 0.997 3.426 0.06 -85.427
1223.042 0.056 -85.563 0.997 3.214 0.997 3.214 0.056 -85.563
1248 0.052 -85.686 0.997 3.006 0.997 3.006 0.052 -85.686
1272.958 0.049 -85.794 0.998 2.804 0.998 2.804 0.049 -85.794
1297.917 0.046 -85.885 0.998 2.607 0.998 2.607 0.046 -85.885
1322.875 0.042 -85.957 0.998 2.415 0.998 2.415 0.042 -85.957
1347.833 0.039 -86.007 0.998 2.227 0.998 2.227 0.039 -86.007
1372.792 0.036 -86.032 0.998 2.043 0.998 2.043 0.036 -86.032
1397.75 0.033 -86.026 0.998 1.863 0.998 1.863 0.033 -86.026
1422.708 0.029 -85.982 0.998 1.686 0.998 1.686 0.029 -85.982
1447.667 0.026 -85.889 0.998 1.514 0.998 1.514 0.026 -85.889
1472.625 0.023 -85.731 0.999 1.344 0.999 1.344 0.023 -85.731
1497.583 0.021 -85.486 0.999 1.178 0.999 1.178 0.021 -85.486
1522.542 0.018 -85.114 0.999 1.015 0.999 1.015 0.018 -85.114
1547.5 0.015 -84.552 0.999 0.855 0.999 0.855 0.015 -84.552
1572.458 0.012 -83.679 0.999 0.698 0.999 0.698 0.012 -83.679
1597.417 9.548e-3 -82.245 0.999 0.543 0.999 0.543 9.548e-3 -82.245
1622.375 6.92e-3 -79.634 0.999 0.391 0.999 0.391 6.92e-3 -79.634
1647.333 4.368e-3 -73.832 0.999 0.241 0.999 0.241 4.368e-3 -73.832
1672.292 2.02e-3 -53.508 0.999 0.093 0.999 0.093 2.02e-3 -53.508
1697.25 1.505e-3 37.158 0.999 -0.052 0.999 -0.052 1.505e-3 37.158
1722.208 3.614e-3 70.434 0.999 -0.195 0.999 -0.195 3.614e-3 70.434
1747.167 5.995e-3 78.129 0.999 -0.337 0.999 -0.337 5.995e-3 78.129
1772.125 8.39e-3 81.31 0.999 -0.476 0.999 -0.476 8.39e-3 81.31
1797.083 0.011 82.996 0.999 -0.613 0.999 -0.613 0.011 82.996
1822.042 0.013 84.011 0.999 -0.749 0.999 -0.749 0.013 84.011
1847 0.015 84.668 0.999 -0.883 0.999 -0.883 0.015 84.668
1871.958 0.018 85.114 0.999 -1.015 0.999 -1.015 0.018 85.114
1896.917 0.02 85.424 0.999 -1.146 0.999 -1.146 0.02 85.424
1921.875 0.022 85.642 0.999 -1.275 0.999 -1.275 0.022 85.642
1946.833 0.025 85.794 0.999 -1.402 0.999 -1.402 0.025 85.794
1971.792 0.027 85.899 0.998 -1.529 0.998 -1.529 0.027 85.899
1996.75 0.029 85.969 0.998 -1.653 0.998 -1.653 0.029 85.969
2021.708 0.031 86.01 0.998 -1.777 0.998 -1.777 0.031 86.01
2046.667 0.033 86.03 0.998 -1.899 0.998 -1.899 0.033 86.03
2071.625 0.035 86.033 0.998 -2.021 0.998 -2.021 0.035 86.033
2096.583 0.037 86.023 0.998 -2.14 0.998 -2.14 0.037 86.023
2121.542 0.039 86 0.998 -2.259 0.998 -2.259 0.039 86
2146.5 0.041 85.969 0.998 -2.377 0.998 -2.377 0.041 85.969
2171.458 0.044 85.93 0.998 -2.494 0.998 -2.494 0.044 85.93
2196.417 0.046 85.884 0.998 -2.609 0.998 -2.609 0.046 85.884
2221.375 0.048 85.833 0.998 -2.724 0.998 -2.724 0.048 85.833
2246.333 0.05 85.777 0.998 -2.837 0.998 -2.837 0.05 85.777
2271.292 0.051 85.717 0.997 -2.95 0.997 -2.95 0.051 85.717
2296.25 0.053 85.654 0.997 -3.062 0.997 -3.062 0.053 85.654
2321.208 0.055 85.588 0.997 -3.173 0.997 -3.173 0.055 85.588
2346.167 0.057 85.52 0.997 -3.283 0.997 -3.283 0.057 85.52
2371.125 0.059 85.449 0.997 -3.392 0.997 -3.392 0.059 85.449
2396.083 0.061 85.377 0.997 -3.501 0.997 -3.501 0.061 85.377
2421.042 0.063 85.303 0.997 -3.608 0.997 -3.608 0.063 85.303
2446 0.065 85.227 0.997 -3.715 0.997 -3.715 0.065 85.227
2470.958 0.067 85.15 0.997 -3.822 0.997 -3.822 0.067 85.15
2495.917 0.068 85.072 0.996 -3.927 0.996 -3.927 0.068 85.072
2520.875 0.07 84.994 0.996 -4.032 0.996 -4.032 0.07 84.994
2545.833 0.072 84.914 0.996 -4.136 0.996 -4.136 0.072 84.914
2570.792 0.074 84.834 0.996 -4.24 0.996 -4.24 0.074 84.834
2595.75 0.076 84.753 0.996 -4.343 0.996 -4.343 0.076 84.753
2620.708 0.078 84.672 0.996 -4.445 0.996 -4.445 0.078 84.672
2645.667 0.079 84.59 0.996 -4.547 0.996 -4.547 0.079 84.59
2670.625 0.081 84.507 0.996 -4.648 0.996 -4.648 0.081 84.507
2695.583 0.083 84.425 0.995 -4.748 0.995 -4.748 0.083 84.425
2720.542 0.085 84.342 0.995 -4.848 0.995 -4.848 0.085 84.342
2745.5 0.086 84.259 0.995 -4.948 0.995 -4.948 0.086 84.259
2770.458 0.088 84.176 0.995 -5.047 0.995 -5.047 0.088 84.176
2795.417 0.09 84.092 0.995 -5.145 0.995 -5.145 0.09 84.092
2820.375 0.091 84.009 0.995 -5.243 0.995 -5.243 0.091 84.009
2845.333 0.093 83.925 0.994 -5.34 0.994 -5.34 0.093 83.925
2870.292 0.095 83.841 0.994 -5.437 0.994 -5.437 0.095 83.841
2895.25 0.096 83.757 0.994 -5.534 0.994 -5.534 0.096 83.757
2920.208 0.098 83.673 0.994 -5.63 0.994 -5.63 0.098 83.673
2945.167 0.1 83.59 0.994 -5.725 0.994 -5.725 0.1 83.59
2970.125 0.101 83.506 0.994 -5.821 0.994 -5.821 0.101 83.506
2995.083 0.103 83.422 0.993 -5.915 0.993 -5.915 0.103 83.422
3020.042 0.105 83.338 0.993 -6.01 0.993 -6.01 0.105 83.338
3045 0.106 83.254 0.993 -6.104 0.993 -6.104 0.106 83.254
3069.958 0.108 83.17 0.993 -6.197 0.993 -6.197 0.108 83.17
3094.917 0.11 83.087 0.993 -6.29 0.993 -6.29 0.11 83.087
3119.875 0.111 83.003 0.993 -6.383 0.993 -6.383 0.111 83.003
3144.833 0.113 82.92 0.992 -6.475 0.992 -6.475 0.113 82.92
3169.792 0.114 82.836 0.992 -6.567 0.992 -6.567 0.114 82.836
3194.75 0.116 82.753 0.992 -6.659 0.992 -6.659 0.116 82.753
3219.708 0.118 82.669 0.992 -6.75 0.992 -6.75 0.118 82.669
3244.667 0.119 82.586 0.992 -6.841 0.992 -6.841 0.119 82.586
3269.625 0.121 82.503 0.991 -6.932 0.991 -6.932 0.121 82.503
3294.583 0.122 82.42 0.991 -7.022 0.991 -7.022 0.122 82.42
3319.542 0.124 82.337 0.991 -7.112 0.991 -7.112 0.124 82.337
3344.5 0.125 82.254 0.991 -7.202 0.991 -7.202 0.125 82.254
3369.458 0.127 82.172 0.991 -7.292 0.991 -7.292 0.127 82.172
3394.417 0.128 82.089 0.991 -7.381 0.991 -7.381 0.128 82.089
3419.375 0.13 82.007 0.99 -7.469 0.99 -7.469 0.13 82.007
3444.333 0.132 81.924 0.99 -7.558 0.99 -7.558 0.132 81.924
3469.292 0.133 81.842 0.99 -7.646 0.99 -7.646 0.133 81.842
3494.25 0.135 81.76 0.99 -7.734 0.99 -7.734 0.135 81.76
3519.208 0.136 81.678 0.99 -7.822 0.99 -7.822 0.136 81.678
3544.167 0.138 81.596 0.989 -7.909 0.989 -7.909 0.138 81.596
3569.125 0.139 81.515 0.989 -7.996 0.989 -7.996 0.139 81.515
3594.083 0.141 81.433 0.989 -8.083 0.989 -8.083 0.141 81.433
3619.042 0.142 81.352 0.989 -8.17 0.989 -8.17 0.142 81.352
3644 0.144 81.27 0.988 -8.256 0.988 -8.256 0.144 81.27
3668.958 0.145 81.189 0.988 -8.342 0.988 -8.342 0.145 81.189
3693.917 0.147 81.108 0.988 -8.428 0.988 -8.428 0.147 81.108
3718.875 0.148 81.027 0.988 -8.514 0.988 -8.514 0.148 81.027
3743.833 0.15 80.947 0.988 -8.599 0.988 -8.599 0.15 80.947
3768.792 0.151 80.866 0.987 -8.684 0.987 -8.684 0.151 80.866
3793.75 0.152 80.785 0.987 -8.769 0.987 -8.769 0.152 80.785
3818.708 0.154 80.705 0.987 -8.854 0.987 -8.854 0.154 80.705
3843.667 0.155 80.625 0.987 -8.939 0.987 -8.939 0.155 80.625
3868.625 0.157 80.544 0.986 -9.023 0.986 -9.023 0.157 80.544
3893.583 0.158 80.464 0.986 -9.107 0.986 -9.107 0.158 80.464
3918.542 0.16 80.385 0.986 -9.191 0.986 -9.191 0.16 80.385
3943.5 0.161 80.305 0.986 -9.275 0.986 -9.275 0.161 80.305
3968.458 0.163 80.225 0.986 -9.358 0.986 -9.358 0.163 80.225
3993.417 0.164 80.146 0.985 -9.441 0.985 -9.441 0.164 80.146
4018.375 0.165 80.066 0.985 -9.524 0.985 -9.524 0.165 80.066
4043.333 0.167 79.987 0.985 -9.607 0.985 -9.607 0.167 79.987
4068.292 0.168 79.908 0.985 -9.69 0.985 -9.69 0.168 79.908
4093.25 0.17 79.829 0.984 -9.772 0.984 -9.772 0.17 79.829
4118.208 0.171 79.75 0.984 -9.855 0.984 -9.855 0.171 79.75
4143.167 0.173 79.671 0.984 -9.937 0.984 -9.937 0.173 79.671
4168.125 0.174 79.592 0.984 -10.019 0.984 -10.019 0.174 79.592
4193.083 0.175 79.514 0.983 -10.101 0.983 -10.101 0.175 79.514
4218.042 0.177 79.435 0.983 -10.182 0.983 -10.182 0.177 79.435
4243 0.178 79.357 0.983 -10.264 0.983 -10.264 0.178 79.357
4267.958 0.18 79.279 0.983 -10.345 0.983 -10.345 0.18 79.279
4292.917 0.181 79.201 0.982 -10.426 0.982 -10.426 0.181 79.201
4317.875 0.182 79.123 0.982 -10.507 0.982 -10.507 0.182 79.123
4342.833 0.184 79.045 0.982 -10.587 0.982 -10.587 0.184 79.045
4367.792 0.185 78.967 0.982 -10.668 0.982 -10.668 0.185 78.967
4392.75 0.187 78.89 0.981 -10.748 0.981 -10.748 0.187 78.89
4417.708 0.188 78.812 0.981 -10.829 0.981 -10.829 0.188 78.812
4442.667 0.189 78.735 0.981 -10.909 0.981 -10.909 0.189 78.735
4467.625 0.191 78.658 0.98 -10.989 0.98 -10.989 0.191 78.658
4492.583 0.192 78.58 0.98 -11.068 0.98 -11.068 0.192 78.58
4517.542 0.193 78.503 0.98 -11.148 0.98 -11.148 0.193 78.503
4542.5 0.195 78.426 0.98 -11.228 0.98 -11.228 0.195 78.426
4567.458 0.196 78.35 0.979 -11.307 0.979 -11.307 0.196 78.35
4592.417 0.197 78.273 0.979 -11.386 0.979 -11.386 0.197 78.273
4617.375 0.199 78.196 0.979 -11.465 0.979 -11.465 0.199 78.196
4642.333 0.2 78.12 0.979 -11.544 0.979 -11.544 0.2 78.12
4667.292 0.201 78.043 0.978 -11.623 0.978 -11.623 0.201 78.043
4692.25 0.203 77.967 0.978 -11.701 0.978 -11.701 0.203 77.967
4717.208 0.204 77.891 0.978 -11.78 0.978 -11.78 0.204 77.891
4742.167 0.205 77.815 0.977 -11.858 0.977 -11.858 0.205 77.815
4767.125 0.207 77.739 0.977 -11.936 0.977 -11.936 0.207 77.739
4792.083 0.208 77.663 0.977 -12.014 0.977 -12.014 0.208 77.663
4817.042 0.209 77.587 0.977 -12.092 0.977 -12.092 0.209 77.587
4842 0.211 77.512 0.976 -12.17 0.976 -12.17 0.211 77.512
4866.958 0.212 77.436 0.976 -12.248 0.976 -12.248 0.212 77.436
4891.917 0.213 77.361 0.976 -12.325 0.976 -12.325 0.213 77.361
4916.875 0.215 77.285 0.975 -12.402 0.975 -12.402 0.215 77.285
4941.833 0.216 77.21 0.975 -12.48 0.975 -12.48 0.216 77.21
4966.792 0.217 77.135 0.975 -12.557 0.975 -12.557 0.217 77.135
4991.75 0.219 77.06 0.975 -12.634 0.975 -12.634 0.219 77.06
5016.708 0.22 76.985 0.974 -12.711 0.974 -12.711 0.22 76.985
5041.667 0.221 76.91 0.974 -12.787 0.974 -12.787 0.221 76.91
5066.625 0.223 76.835 0.974 -12.864 0.974 -12.864 0.223 76.835
5091.583 0.224 76.761 0.973 -12.941 0.973 -12.941 0.224 76.761
5116.542 0.225 76.686 0.973 -13.017 0.973 -13.017 0.225 76.686
5141.5 0.227 76.611 0.973 -13.093 0.973 -13.093 0.227 76.611
5166.458 0.228 76.537 0.973 -13.169 0.973 -13.169 0.228 76.537
5191.417 0.229 76.463 0.972 -13.245 0.972 -13.245 0.229 76.463
5216.375 0.23 76.389 0.972 -13.321 0.972 -13.321 0.23 76.389
5241.333 0.232 76.315 0.972 -13.397 0.972 -13.397 0.232 76.315
5266.292 0.233 76.241 0.971 -13.473 0.971 -13.473 0.233 76.241
5291.25 0.234 76.167 0.971 -13.548 0.971 -13.548 0.234 76.167
5316.208 0.236 76.093 0.971 -13.624 0.971 -13.624 0.236 76.093
5341.167 0.237 76.019 0.97 -13.699 0.97 -13.699 0.237 76.019
5366.125 0.238 75.946 0.97 -13.774 0.97 -13.774 0.238 75.946
5391.083 0.239 75.872 0.97 -13.849 0.97 -13.849 0.239 75.872
5416.042 0.241 75.799 0.969 -13.924 0.969 -13.924 0.241 75.799
5441 0.242 75.725 0.969 -13.999 0.969 -13.999 0.242 75.725
5465.958 0.243 75.652 0.969 -14.074 0.969 -14.074 0.243 75.652
5490.917 0.244 75.579 0.969 -14.149 0.969 -14.149 0.244 75.579
5515.875 0.246 75.506 0.968 -14.223 0.968 -14.223 0.246 75.506
5540.833 0.247 75.433 0.968 -14.298 0.968 -14.298 0.247 75.433
5565.792 0.248 75.36 0.968 -14.372 0.968 -14.372 0.248 75.36
5590.75 0.249 75.287 0.967 -14.446 0.967 -14.446 0.249 75.287
5615.708 0.251 75.214 0.967 -14.52 0.967 -14.52 0.251 75.214
5640.667 0.252 75.142 0.967 -14.595 0.967 -14.595 0.252 75.142
5665.625 0.253 75.069 0.966 -14.668 0.966 -14.668 0.253 75.069
5690.583 0.254 74.997 0.966 -14.742 0.966 -14.742 0.254 74.997
5715.542 0.256 74.924 0.966 -14.816 0.966 -14.816 0.256 74.924
5740.5 0.257 74.852 0.965 -14.89 0.965 -14.89 0.257 74.852
5765.458 0.258 74.78 0.965 -14.963 0.965 -14.963 0.258 74.78
5790.417 0.259 74.708 0.965 -15.037 0.965 -15.037 0.259 74.708
5815.375 0.261 74.636 0.964 -15.11 0.964 -15.11 0.261 74.636
5840.333 0.262 74.564 0.964 -15.183 0.964 -15.183 0.262 74.564
5865.292 0.263 74.492 0.964 -15.256 0.964 -15.256 0.263 74.492
5890.25 0.264 74.42 0.963 -15.329 0.963 -15.329 0.264 74.42
5915.208 0.266 74.348 0.963 -15.402 0.963 -15.402 0.266 74.348
5940.167 0.267 74.277 0.963 -15.475 0.963 -15.475 0.267 74.277
5965.125 0.268 74.205 0.962 -15.548 0.962 -15.548 0.268 74.205
5990.083 0.269 74.134 0.962 -15.62 0.962 -15.62 0.269 74.134
6015.042 0.27 74.063 0.962 -15.693 0.962 -15.693 0.27 74.063
6040 0.272 73.991 0.961 -15.765 0.961 -15.765 0.272 73.991
6064.958 0.273 73.92 0.961 -15.838 0.961 -15.838 0.273 73.92
6089.917 0.274 73.849 0.961 -15.91 0.961 -15.91 0.274 73.849
6114.875 0.275 73.778 0.96 -15.982 0.96 -15.982 0.275 73.778
6139.833 0.277 73.707 0.96 -16.054 0.96 -16.054 0.277 73.707
6164.792 0.278 73.636 0.96 -16.126 0.96 -16.126 0.278 73.636
6189.75 0.279 73.565 0.959 -16.198 0.959 -16.198 0.279 73.565
6214.708 0.28 73.495 0.959 -16.27 0.959 -16.27 0.28 73.495
6239.667 0.281 73.424 0.958 -16.342 0.958 -16.342 0.281 73.424
6264.625 0.283 73.354 0.958 -16.413 0.958 -16.413 0.283 73.354
6289.583 0.284 73.283 0.958 -16.485 0.958 -16.485 0.284 73.283
6314.542 0.285 73.213 0.957 -16.556 0.957 -16.556 0.285 73.213
6339.5 0.286 73.142 0.957 -16.627 0.957 -16.627 0.286 73.142
6364.458 0.287 73.072 0.957 -16.699 0.957 -16.699 0.287 73.072
6389.417 0.289 73.002 0.956 -16.77 0.956 -16.77 0.289 73.002
6414.375 0.29 72.932 0.956 -16.841 0.956 -16.841 0.29 72.932
6439.333 0.291 72.862 0.956 -16.912 0.956 -16.912 0.291 72.862
6464.292 0.292 72.792 0.955 -16.983 0.955 -16.983 0.292 72.792
6489.25 0.293 72.722 0.955 -17.054 0.955 -17.054 0.293 72.722
6514.208 0.294 72.653 0.955 -17.124 0.955 -17.124 0.294 72.653
6539.167 0.296 72.583 0.954 -17.195 0.954 -17.195 0.296 72.583
6564.125 0.297 72.513 0.954 -17.265 0.954 -17.265 0.297 72.513
6589.083 0.298 72.444 0.953 -17.336 0.953 -17.336 0.298 72.444
6614.042 0.299 72.375 0.953 -17.406 0.953 -17.406 0.299 72.375
6639 0.3 72.305 0.953 -17.477 0.953 -17.477 0.3 72.305
6663.958 0.301 72.236 0.952 -17.547 0.952 -17.547 0.301 72.236
6688.917 0.303 72.167 0.952 -17.617 0.952 -17.617 0.303 72.167
6713.875 0.304 72.098 0.952 -17.687 0.952 -17.687 0.304 72.098
6738.833 0.305 72.029 0.951 -17.757 0.951 -17.757 0.305 72.029
6763.792 0.306 71.96 0.951 -17.827 0.951 -17.827 0.306 71.96
6788.75 0.307 71.891 0.95 -17.896 0.95 -17.896 0.307 71.891
6813.708 0.308 71.822 0.95 -17.966 0.95 -17.966 0.308 71.822
6838.667 0.31 71.753 0.95 -18.036 0.95 -18.036 0.31 71.753
6863.625 0.311 71.685 0.949 -18.105 0.949 -18.105 0.311 71.685
6888.583 0.312 71.616 0.949 -18.175 0.949 -18.175 0.312 71.616
6913.542 0.313 71.548 0.949 -18.244 0.949 -18.244 0.313 71.548
6938.5 0.314 71.479 0.948 -18.313 0.948 -18.313 0.314 71.479
6963.458 0.315 71.411 0.948 -18.382 0.948 -18.382 0.315 71.411
6988.417 0.317 71.343 0.947 -18.451 0.947 -18.451 0.317 71.343
7013.375 0.318 71.274 0.947 -18.521 0.947 -18.521 0.318 71.274
7038.333 0.319 71.206 0.947 -18.589 0.947 -18.589 0.319 71.206
7063.292 0.32 71.138 0.946 -18.658 0.946 -18.658 0.32 71.138
7088.25 0.321 71.07 0.946 -18.727 0.946 -18.727 0.321 71.07
7113.208 0.322 71.002 0.946 -18.796 0.946 -18.796 0.322 71.002
7138.167 0.323 70.935 0.945 -18.864 0.945 -18.864 0.323 70.935
7163.125 0.324 70.867 0.945 -18.933 0.945 -18.933 0.324 70.867
7188.083 0.326 70.799 0.944 -19.001 0.944 -19.001 0.326 70.799
7213.042 0.327 70.732 0.944 -19.07 0.944 -19.07 0.327 70.732
7238 0.328 70.664 0.944 -19.138 0.944 -19.138 0.328 70.664
7262.958 0.329 70.597 0.943 -19.206 0.943 -19.206 0.329 70.597
7287.917 0.33 70.529 0.943 -19.274 0.943 -19.274 0.33 70.529
7312.875 0.331 70.462 0.942 -19.342 0.942 -19.342 0.331 70.462
7337.833 0.332 70.395 0.942 -19.41 0.942 -19.41 0.332 70.395
7362.792 0.333 70.328 0.942 -19.478 0.942 -19.478 0.333 70.328
7387.75 0.335 70.261 0.941 -19.546 0.941 -19.546 0.335 70.261
7412.708 0.336 70.194 0.941 -19.614 0.941 -19.614 0.336 70.194
7437.667 0.337 70.127 0.94 -19.681 0.94 -19.681 0.337 70.127
7462.625 0.338 70.06 0.94 -19.749 0.94 -19.749 0.338 70.06
7487.583 0.339 69.993 0.94 -19.816 0.94 -19.816 0.339 69.993
7512.542 0.34 69.926 0.939 -19.884 0.939 -19.884 0.34 69.926
7537.5 0.341 69.86 0.939 -19.951 0.939 -19.951 0.341 69.86
7562.458 0.342 69.793 0.938 -20.018 0.938 -20.018 0.342 69.793
7587.417 0.343 69.727 0.938 -20.085 0.938 -20.085 0.343 69.727
7612.375 0.345 69.66 0.938 -20.152 0.938 -20.152 0.345 69.66
7637.333 0.346 69.594 0.937 -20.219 0.937 -20.219 0.346 69.594
7662.292 0.347 69.528 0.937 -20.286 0.937 -20.286 0.347 69.528
7687.25 0.348 69.462 0.936 -20.353 0.936 -20.353 0.348 69.462
7712.208 0.349 69.396 0.936 -20.42 0.936 -20.42 0.349 69.396
7737.167 0.35 69.329 0.936 -20.487 0.936 -20.487 0.35 69.329
7762.125 0.351 69.264 0.935 -20.553 0.935 -20.553 0.351 69.264
7787.083 0.352 69.198 0.935 -20.62 0.935 -20.62 0.352 69.198
7812.042 0.353 69.132 0.934 -20.686 0.934 -20.686 0.353 69.132
7837 0.354 69.066 0.934 -20.753 0.934 -20.753 0.354 69.066
7861.958 0.355 69 0.934 -20.819 0.934 -20.819 0.355 69
7886.917 0.356 68.935 0.933 -20.885 0.933 -20.885 0.356 68.935
7911.875 0.358 68.869 0.933 -20.951 0.933 -20.951 0.358 68.869
7936.833 0.359 68.804 0.932 -21.017 0.932 -21.017 0.359 68.804
7961.792 0.36 68.738 0.932 -21.083 0.932 -21.083 0.36 68.738
7986.75 0.361 68.673 0.932 -21.149 0.932 -21.149 0.361 68.673
8011.708 0.362 68.608 0.931 -21.215 0.931 -21.215 0.362 68.608
8036.667 0.363 68.543 0.931 -21.281 0.931 -21.281 0.363 68.543
8061.625 0.364 68.478 0.93 -21.347 0.93 -21.347 0.364 68.478
8086.583 0.365 68.413 0.93 -21.412 0.93 -21.412 0.365 68.413
8111.542 0.366 68.348 0.929 -21.478 0.929 -21.478 0.366 68.348
8136.5 0.367 68.283 0.929 -21.543 0.929 -21.543 0.367 68.283
8161.458 0.368 68.218 0.929 -21.609 0.929 -21.609 0.368 68.218
8186.417 0.369 68.153 0.928 -21.674 0.928 -21.674 0.369 68.153
