# MHZ S MA R 50

50 0.798 -37.048 0.602 52.903 0.602 52.903 0.798 -37.048
74.958 0.661 -48.577 0.75 41.35 0.75 41.35 0.661 -48.577
99.917 0.55 -56.553 0.834 33.349 0.834 33.349 0.55 -56.553
124.875 0.464 -62.205 0.885 27.672 0.885 27.672 0.464 -62.205
149.833 0.399 -66.352 0.916 23.501 0.916 23.501 0.399 -66.352
174.792 0.347 -69.498 0.937 20.329 0.937 20.329 0.347 -69.498
199.75 0.306 -71.956 0.951 17.845 0.951 17.845 0.306 -71.956
224.708 0.273 -73.926 0.961 15.848 0.961 15.848 0.273 -73.926
249.667 0.245 -75.538 0.968 14.209 0.968 14.209 0.245 -75.538
274.625 0.222 -76.881 0.974 12.837 0.974 12.837 0.222 -76.881
299.583 0.202 -78.018 0.978 11.672 0.978 11.672 0.202 -78.018
324.542 0.185 -78.992 0.982 10.667 0.982 10.667 0.185 -78.992
349.5 0.17 -79.837 0.984 9.791 0.984 9.791 0.17 -79.837
374.458 0.157 -80.577 0.987 9.019 0.987 9.019 0.157 -80.577
399.417 0.145 -81.23 0.988 8.333 0.988 8.333 0.145 -81.23
424.375 0.134 -81.81 0.99 7.717 0.99 7.717 0.134 -81.81
449.333 0.125 -82.33 0.991 7.16 0.991 7.16 0.125 -82.33
474.292 0.116 -82.797 0.992 6.654 0.992 6.654 0.116 -82.797
499.25 0.108 -83.219 0.993 6.19 0.993 6.19 0.108 -83.219
524.208 0.1 -83.601 0.994 5.763 0.994 5.763 0.1 -83.601
549.167 0.094 -83.949 0.994 5.369 0.994 5.369 0.094 -83.949
574.125 0.087 -84.266 0.995 5.002 0.995 5.002 0.087 -84.266
599.083 0.081 -84.554 0.996 4.66 0.996 4.66 0.081 -84.554
624.042 0.076 -84.816 0.996 4.339 0.996 4.339 0.076 -84.816
649 0.07 -85.055 0.996 4.037 0.996 4.037 0.07 -85.055
673.958 0.065 -85.27 0.997 3.753 0.997 3.753 0.065 -85.27
698.917 0.061 -85.464 0.997 3.483 0.997 3.483 0.061 -85.464
723.875 0.056 -85.636 0.997 3.227 0.997 3.227 0.056 -85.636
748.833 0.052 -85.786 0.998 2.984 0.998 2.984 0.052 -85.786
773.792 0.048 -85.915 0.998 2.752 0.998 2.752 0.048 -85.915
798.75 0.044 -86.02 0.998 2.53 0.998 2.53 0.044 -86.02
823.708 0.04 -86.099 0.998 2.317 0.998 2.317 0.04 -86.099
848.667 0.037 -86.15 0.998 2.112 0.998 2.112 0.037 -86.15
873.625 0.033 -86.168 0.998 1.915 0.998 1.915 0.033 -86.168
898.583 0.03 -86.147 0.998 1.725 0.998 1.725 0.03 -86.147
923.542 0.027 -86.078 0.999 1.542 0.999 1.542 0.027 -86.078
948.5 0.024 -85.946 0.999 1.365 0.999 1.365 0.024 -85.946
973.458 0.021 -85.731 0.999 1.193 0.999 1.193 0.021 -85.731
998.417 0.018 -85.399 0.999 1.026 0.999 1.026 0.018 -85.399
1023.375 0.015 -84.892 0.999 0.864 0.999 0.864 0.015 -84.892
1048.333 0.012 -84.107 0.999 0.706 0.999 0.706 0.012 -84.107
1073.292 9.711e-3 -82.831 0.999 0.553 0.999 0.553 9.711e-3 -82.831
1098.25 7.121e-3 -80.558 0.999 0.403 0.999 0.403 7.121e-3 -80.558
1123.208 4.62e-3 -75.727 0.999 0.257 0.999 0.257 4.62e-3 -75.727
1148.167 2.282e-3 -60.532 0.999 0.114 0.999 0.114 2.282e-3 -60.532
1173.125 1.206e-3 21.836 0.999 -0.026 0.999 -0.026 1.206e-3 21.836
1198.083 3.049e-3 68.307 0.999 -0.162 0.999 -0.162 3.049e-3 68.307
1223.042 5.295e-3 77.504 0.999 -0.297 0.999 -0.297 5.295e-3 77.504
1248 7.552e-3 81.053 0.999 -0.428 0.999 -0.428 7.552e-3 81.053
1272.958 9.784e-3 82.877 0.999 -0.557 0.999 -0.557 9.784e-3 82.877
1297.917 0.012 83.959 0.999 -0.684 0.999 -0.684 0.012 83.959
1322.875 0.014 84.657 0.999 -0.808 0.999 -0.808 0.014 84.657
1347.833 0.016 85.129 0.999 -0.931 0.999 -0.931 0.016 85.129
1372.792 0.018 85.459 0.999 -1.051 0.999 -1.051 0.018 85.459
1397.75 0.02 85.694 0.999 -1.17 0.999 -1.17 0.02 85.694
1422.708 0.022 85.862 0.999 -1.287 0.999 -1.287 0.022 85.862
1447.667 0.024 85.981 0.999 -1.402 0.999 -1.402 0.024 85.981
1472.625 0.026 86.063 0.999 -1.516 0.999 -1.516 0.026 86.063
1497.583 0.028 86.118 0.998 -1.628 0.998 -1.628 0.028 86.118
1522.542 0.03 86.15 0.998 -1.739 0.998 -1.739 0.03 86.15
1547.5 0.032 86.166 0.998 -1.848 0.998 -1.848 0.032 86.166
1572.458 0.034 86.168 0.998 -1.957 0.998 -1.957 0.034 86.168
1597.417 0.036 86.158 0.998 -2.064 0.998 -2.064 0.036 86.158
1622.375 0.038 86.139 0.998 -2.169 0.998 -2.169 0.038 86.139
1647.333 0.04 86.112 0.998 -2.274 0.998 -2.274 0.04 86.112
1672.292 0.041 86.079 0.998 -2.378 0.998 -2.378 0.041 86.079
1697.25 0.043 86.04 0.998 -2.48 0.998 -2.48 0.043 86.04
1722.208 0.045 85.997 0.998 -2.582 0.998 -2.582 0.045 85.997
1747.167 0.047 85.95 0.998 -2.682 0.998 -2.682 0.047 85.95
1772.125 0.049 85.899 0.998 -2.782 0.998 -2.782 0.049 85.899
1797.083 0.05 85.845 0.998 -2.881 0.998 -2.881 0.05 85.845
1822.042 0.052 85.789 0.998 -2.979 0.998 -2.979 0.052 85.789
1847 0.054 85.731 0.997 -3.076 0.997 -3.076 0.054 85.731
1871.958 0.055 85.671 0.997 -3.173 0.997 -3.173 0.055 85.671
1896.917 0.057 85.609 0.997 -3.269 0.997 -3.269 0.057 85.609
1921.875 0.059 85.546 0.997 -3.364 0.997 -3.364 0.059 85.546
1946.833 0.06 85.481 0.997 -3.458 0.997 -3.458 0.06 85.481
1971.792 0.062 85.416 0.997 -3.552 0.997 -3.552 0.062 85.416
1996.75 0.064 85.349 0.997 -3.645 0.997 -3.645 0.064 85.349
2021.708 0.065 85.282 0.997 -3.737 0.997 -3.737 0.065 85.282
2046.667 0.067 85.213 0.997 -3.829 0.997 -3.829 0.067 85.213
2071.625 0.068 85.144 0.997 -3.92 0.997 -3.92 0.068 85.144
2096.583 0.07 85.075 0.996 -4.011 0.996 -4.011 0.07 85.075
2121.542 0.072 85.005 0.996 -4.101 0.996 -4.101 0.072 85.005
2146.5 0.073 84.934 0.996 -4.191 0.996 -4.191 0.073 84.934
2171.458 0.075 84.863 0.996 -4.28 0.996 -4.28 0.075 84.863
2196.417 0.076 84.792 0.996 -4.369 0.996 -4.369 0.076 84.792
2221.375 0.078 84.72 0.996 -4.457 0.996 -4.457 0.078 84.72
2246.333 0.079 84.649 0.996 -4.545 0.996 -4.545 0.079 84.649
2271.292 0.081 84.576 0.996 -4.632 0.996 -4.632 0.081 84.576
2296.25 0.082 84.504 0.995 -4.719 0.995 -4.719 0.082 84.504
2321.208 0.084 84.432 0.995 -4.806 0.995 -4.806 0.084 84.432
2346.167 0.085 84.359 0.995 -4.892 0.995 -4.892 0.085 84.359
2371.125 0.087 84.286 0.995 -4.978 0.995 -4.978 0.087 84.286
2396.083 0.088 84.213 0.995 -5.063 0.995 -5.063 0.088 84.213
2421.042 0.09 84.14 0.995 -5.148 0.995 -5.148 0.09 84.14
2446 0.091 84.067 0.995 -5.233 0.995 -5.233 0.091 84.067
2470.958 0.093 83.994 0.995 -5.317 0.995 -5.317 0.093 83.994
2495.917 0.094 83.921 0.994 -5.401 0.994 -5.401 0.094 83.921
2520.875 0.096 83.848 0.994 -5.485 0.994 -5.485 0.096 83.848
2545.833 0.097 83.774 0.994 -5.568 0.994 -5.568 0.097 83.774
2570.792 0.098 83.701 0.994 -5.651 0.994 -5.651 0.098 83.701
2595.75 0.1 83.628 0.994 -5.734 0.994 -5.734 0.1 83.628
2620.708 0.101 83.554 0.994 -5.816 0.994 -5.816 0.101 83.554
2645.667 0.103 83.481 0.994 -5.899 0.994 -5.899 0.103 83.481
2670.625 0.104 83.408 0.993 -5.981 0.993 -5.981 0.104 83.408
2695.583 0.106 83.334 0.993 -6.062 0.993 -6.062 0.106 83.334
2720.542 0.107 83.261 0.993 -6.144 0.993 -6.144 0.107 83.261
2745.5 0.108 83.188 0.993 -6.225 0.993 -6.225 0.108 83.188
2770.458 0.11 83.114 0.993 -6.306 0.993 -6.306 0.11 83.114
2795.417 0.111 83.041 0.993 -6.386 0.993 -6.386 0.111 83.041
2820.375 0.113 82.968 0.993 -6.466 0.993 -6.466 0.113 82.968
2845.333 0.114 82.895 0.992 -6.547 0.992 -6.547 0.114 82.895
2870.292 0.115 82.822 0.992 -6.627 0.992 -6.627 0.115 82.822
2895.25 0.117 82.749 0.992 -6.706 0.992 -6.706 0.117 82.749
2920.208 0.118 82.676 0.992 -6.786 0.992 -6.786 0.118 82.676
2945.167 0.12 82.603 0.992 -6.865 0.992 -6.865 0.12 82.603
2970.125 0.121 82.53 0.992 -6.944 0.992 -6.944 0.121 82.53
2995.083 0.122 82.457 0.991 -7.023 0.991 -7.023 0.122 82.457
3020.042 0.124 82.384 0.991 -7.101 0.991 -7.101 0.124 82.384
3045 0.125 82.311 0.991 -7.18 0.991 -7.18 0.125 82.311
3069.958 0.126 82.238 0.991 -7.258 0.991 -7.258 0.126 82.238
3094.917 0.128 82.166 0.991 -7.336 0.991 -7.336 0.128 82.166
3119.875 0.129 82.093 0.991 -7.414 0.991 -7.414 0.129 82.093
3144.833 0.13 82.021 0.99 -7.492 0.99 -7.492 0.13 82.021
3169.792 0.132 81.948 0.99 -7.569 0.99 -7.569 0.132 81.948
3194.75 0.133 81.876 0.99 -7.647 0.99 -7.647 0.133 81.876
3219.708 0.134 81.803 0.99 -7.724 0.99 -7.724 0.134 81.803
3244.667 0.136 81.731 0.99 -7.801 0.99 -7.801 0.136 81.731
3269.625 0.137 81.659 0.989 -7.878 0.989 -7.878 0.137 81.659
3294.583 0.138 81.587 0.989 -7.954 0.989 -7.954 0.138 81.587
3319.542 0.14 81.515 0.989 -8.031 0.989 -8.031 0.14 81.515
3344.5 0.141 81.443 0.989 -8.107 0.989 -8.107 0.141 81.443
3369.458 0.142 81.371 0.989 -8.184 0.989 -8.184 0.142 81.371
3394.417 0.144 81.299 0.989 -8.26 0.989 -8.26 0.144 81.299
3419.375 0.145 81.227 0.988 -8.336 0.988 -8.336 0.145 81.227
3444.333 0.146 81.155 0.988 -8.411 0.988 -8.411 0.146 81.155
3469.292 0.148 81.083 0.988 -8.487 0.988 -8.487 0.148 81.083
3494.25 0.149 81.012 0.988 -8.562 0.988 -8.562 0.149 81.012
3519.208 0.15 80.94 0.988 -8.638 0.988 -8.638 0.15 80.94
3544.167 0.151 80.869 0.987 -8.713 0.987 -8.713 0.151 80.869
3569.125 0.153 80.797 0.987 -8.788 0.987 -8.788 0.153 80.797
3594.083 0.154 80.726 0.987 -8.863 0.987 -8.863 0.154 80.726
3619.042 0.155 80.654 0.987 -8.938 0.987 -8.938 0.155 80.654
3644 0.157 80.583 0.987 -9.013 0.987 -9.013 0.157 80.583
3668.958 0.158 80.512 0.986 -9.087 0.986 -9.087 0.158 80.512
3693.917 0.159 80.441 0.986 -9.162 0.986 -9.162 0.159 80.441
3718.875 0.161 80.37 0.986 -9.236 0.986 -9.236 0.161 80.37
3743.833 0.162 80.299 0.986 -9.31 0.986 -9.31 0.162 80.299
3768.792 0.163 80.228 0.986 -9.384 0.986 -9.384 0.163 80.228
3793.75 0.164 80.157 0.985 -9.458 0.985 -9.458 0.164 80.157
3818.708 0.166 80.086 0.985 -9.532 0.985 -9.532 0.166 80.086
3843.667 0.167 80.015 0.985 -9.606 0.985 -9.606 0.167 80.015
3868.625 0.168 79.945 0.985 -9.679 0.985 -9.679 0.168 79.945
3893.583 0.169 79.874 0.984 -9.753 0.984 -9.753 0.169 79.874
3918.542 0.171 79.804 0.984 -9.826 0.984 -9.826 0.171 79.804
3943.5 0.172 79.733 0.984 -9.9 0.984 -9.9 0.172 79.733
3968.458 0.173 79.663 0.984 -9.973 0.984 -9.973 0.173 79.663
3993.417 0.174 79.592 0.984 -10.046 0.984 -10.046 0.174 79.592
4018.375 0.176 79.522 0.983 -10.119 0.983 -10.119 0.176 79.522
4043.333 0.177 79.452 0.983 -10.192 0.983 -10.192 0.177 79.452
4068.292 0.178 79.382 0.983 -10.264 0.983 -10.264 0.178 79.382
4093.25 0.179 79.311 0.983 -10.337 0.983 -10.337 0.179 79.311
4118.208 0.181 79.241 0.982 -10.41 0.982 -10.41 0.181 79.241
4143.167 0.182 79.171 0.982 -10.482 0.982 -10.482 0.182 79.171
4168.125 0.183 79.101 0.982 -10.555 0.982 -10.555 0.183 79.101
4193.083 0.184 79.032 0.982 -10.627 0.982 -10.627 0.184 79.032
4218.042 0.186 78.962 0.982 -10.699 0.982 -10.699 0.186 78.962
4243 0.187 78.892 0.981 -10.771 0.981 -10.771 0.187 78.892
4267.958 0.188 78.822 0.981 -10.843 0.981 -10.843 0.188 78.822
4292.917 0.189 78.753 0.981 -10.915 0.981 -10.915 0.189 78.753
4317.875 0.191 78.683 0.981 -10.987 0.981 -10.987 0.191 78.683
4342.833 0.192 78.614 0.98 -11.058 0.98 -11.058 0.192 78.614
4367.792 0.193 78.544 0.98 -11.13 0.98 -11.13 0.193 78.544
4392.75 0.194 78.475 0.98 -11.202 0.98 -11.202 0.194 78.475
4417.708 0.195 78.405 0.98 -11.273 0.98 -11.273 0.195 78.405
4442.667 0.197 78.336 0.979 -11.344 0.979 -11.344 0.197 78.336
4467.625 0.198 78.267 0.979 -11.416 0.979 -11.416 0.198 78.267
4492.583 0.199 78.198 0.979 -11.487 0.979 -11.487 0.199 78.198
4517.542 0.2 78.129 0.979 -11.558 0.979 -11.558 0.2 78.129
4542.5 0.202 78.06 0.978 -11.629 0.978 -11.629 0.202 78.06
4567.458 0.203 77.991 0.978 -11.7 0.978 -11.7 0.203 77.991
4592.417 0.204 77.922 0.978 -11.771 0.978 -11.771 0.204 77.922
4617.375 0.205 77.853 0.978 -11.841 0.978 -11.841 0.205 77.853
4642.333 0.206 77.784 0.977 -11.912 0.977 -11.912 0.206 77.784
4667.292 0.208 77.715 0.977 -11.983 0.977 -11.983 0.208 77.715
4692.25 0.209 77.647 0.977 -12.053 0.977 -12.053 0.209 77.647
4717.208 0.21 77.578 0.977 -12.124 0.977 -12.124 0.21 77.578
4742.167 0.211 77.509 0.976 -12.194 0.976 -12.194 0.211 77.509
4767.125 0.212 77.441 0.976 -12.264 0.976 -12.264 0.212 77.441
4792.083 0.214 77.372 0.976 -12.334 0.976 -12.334 0.214 77.372
4817.042 0.215 77.304 0.976 -12.404 0.976 -12.404 0.215 77.304
4842 0.216 77.236 0.975 -12.474 0.975 -12.474 0.216 77.236
4866.958 0.217 77.167 0.975 -12.544 0.975 -12.544 0.217 77.167
4891.917 0.218 77.099 0.975 -12.614 0.975 -12.614 0.218 77.099
4916.875 0.22 77.031 0.975 -12.684 0.975 -12.684 0.22 77.031
4941.833 0.221 76.963 0.974 -12.754 0.974 -12.754 0.221 76.963
4966.792 0.222 76.895 0.974 -12.823 0.974 -12.823 0.222 76.895
4991.75 0.223 76.827 0.974 -12.893 0.974 -12.893 0.223 76.827
5016.708 0.224 76.759 0.973 -12.963 0.973 -12.963 0.224 76.759
5041.667 0.225 76.691 0.973 -13.032 0.973 -13.032 0.225 76.691
5066.625 0.227 76.623 0.973 -13.101 0.973 -13.101 0.227 76.623
5091.583 0.228 76.555 0.973 -13.171 0.973 -13.171 0.228 76.555
5116.542 0.229 76.488 0.972 -13.24 0.972 -13.24 0.229 76.488
5141.5 0.23 76.42 0.972 -13.309 0.972 -13.309 0.23 76.42
5166.458 0.231 76.352 0.972 -13.378 0.972 -13.378 0.231 76.352
5191.417 0.233 76.285 0.971 -13.447 0.971 -13.447 0.233 76.285
5216.375 0.234 76.217 0.971 -13.516 0.971 -13.516 0.234 76.217
5241.333 0.235 76.15 0.971 -13.585 0.971 -13.585 0.235 76.15
5266.292 0.236 76.083 0.971 -13.654 0.971 -13.654 0.236 76.083
5291.25 0.237 76.015 0.97 -13.722 0.97 -13.722 0.237 76.015
5316.208 0.238 75.948 0.97 -13.791 0.97 -13.791 0.238 75.948
5341.167 0.24 75.881 0.97 -13.859 0.97 -13.859 0.24 75.881
5366.125 0.241 75.814 0.97 -13.928 0.97 -13.928 0.241 75.814
5391.083 0.242 75.746 0.969 -13.996 0.969 -13.996 0.242 75.746
5416.042 0.243 75.679 0.969 -14.065 0.969 -14.065 0.243 75.679
5441 0.244 75.612 0.969 -14.133 0.969 -14.133 0.244 75.612
5465.958 0.245 75.545 0.968 -14.201 0.968 -14.201 0.245 75.545
5490.917 0.246 75.479 0.968 -14.269 0.968 -14.269 0.246 75.479
5515.875 0.248 75.412 0.968 -14.337 0.968 -14.337 0.248 75.412
5540.833 0.249 75.345 0.967 -14.405 0.967 -14.405 0.249 75.345
5565.792 0.25 75.278 0.967 -14.473 0.967 -14.473 0.25 75.278
5590.75 0.251 75.212 0.967 -14.541 0.967 -14.541 0.251 75.212
5615.708 0.252 75.145 0.967 -14.609 0.967 -14.609 0.252 75.145
5640.667 0.253 75.078 0.966 -14.677 0.966 -14.677 0.253 75.078
5665.625 0.255 75.012 0.966 -14.744 0.966 -14.744 0.255 75.012
5690.583 0.256 74.945 0.966 -14.812 0.966 -14.812 0.256 74.945
5715.542 0.257 74.879 0.965 -14.88 0.965 -14.88 0.257 74.879
5740.5 0.258 74.813 0.965 -14.947 0.965 -14.947 0.258 74.813
5765.458 0.259 74.746 0.965 -15.014 0.965 -15.014 0.259 74.746
5790.417 0.26 74.68 0.964 -15.082 0.964 -15.082 0.26 74.68
5815.375 0.261 74.614 0.964 -15.149 0.964 -15.149 0.261 74.614
5840.333 0.262 74.548 0.964 -15.216 0.964 -15.216 0.262 74.548
5865.292 0.264 74.482 0.964 -15.283 0.964 -15.283 0.264 74.482
5890.25 0.265 74.416 0.963 -15.351 0.963 -15.351 0.265 74.416
5915.208 0.266 74.35 0.963 -15.418 0.963 -15.418 0.266 74.35
5940.167 0.267 74.284 0.963 -15.485 0.963 -15.485 0.267 74.284
5965.125 0.268 74.218 0.962 -15.551 0.962 -15.551 0.268 74.218
5990.083 0.269 74.152 0.962 -15.618 0.962 -15.618 0.269 74.152
6015.042 0.27 74.087 0.962 -15.685 0.962 -15.685 0.27 74.087
6040 0.271 74.021 0.961 -15.752 0.961 -15.752 0.271 74.021
6064.958 0.273 73.955 0.961 -15.818 0.961 -15.818 0.273 73.955
6089.917 0.274 73.89 0.961 -15.885 0.961 -15.885 0.274 73.89
6114.875 0.275 73.824 0.96 -15.951 0.96 -15.951 0.275 73.824
6139.833 0.276 73.759 0.96 -16.018 0.96 -16.018 0.276 73.759
6164.792 0.277 73.693 0.96 -16.084 0.96 -16.084 0.277 73.693
6189.75 0.278 73.628 0.959 -16.151 0.959 -16.151 0.278 73.628
6214.708 0.279 73.563 0.959 -16.217 0.959 -16.217 0.279 73.563
6239.667 0.28 73.497 0.959 -16.283 0.959 -16.283 0.28 73.497
6264.625 0.281 73.432 0.958 -16.349 0.958 -16.349 0.281 73.432
6289.583 0.283 73.367 0.958 -16.415 0.958 -16.415 0.283 73.367
6314.542 0.284 73.302 0.958 -16.481 0.958 -16.481 0.284 73.302
6339.5 0.285 73.237 0.958 -16.547 0.958 -16.547 0.285 73.237
6364.458 0.286 73.172 0.957 -16.613 0.957 -16.613 0.286 73.172
6389.417 0.287 73.107 0.957 -16.679 0.957 -16.679 0.287 73.107
6414.375 0.288 73.042 0.957 -16.745 0.957 -16.745 0.288 73.042
6439.333 0.289 72.977 0.956 -16.81 0.956 -16.81 0.289 72.977
6464.292 0.29 72.913 0.956 -16.876 0.956 -16.876 0.29 72.913
6489.25 0.291 72.848 0.956 -16.942 0.956 -16.942 0.291 72.848
6514.208 0.292 72.783 0.955 -17.007 0.955 -17.007 0.292 72.783
6539.167 0.294 72.719 0.955 -17.073 0.955 -17.073 0.294 72.719
6564.125 0.295 72.654 0.955 -17.138 0.955 -17.138 0.295 72.654
6589.083 0.296 72.59 0.954 -17.203 0.954 -17.203 0.296 72.59
6614.042 0.297 72.525 0.954 -17.269 0.954 -17.269 0.297 72.525
6639 0.298 72.461 0.954 -17.334 0.954 -17.334 0.298 72.461
6663.958 0.299 72.396 0.953 -17.399 0.953 -17.399 0.299 72.396
6688.917 0.3 72.332 0.953 -17.464 0.953 -17.464 0.3 72.332
6713.875 0.301 72.268 0.952 -17.529 0.952 -17.529 0.301 72.268
6738.833 0.302 72.204 0.952 -17.594 0.952 -17.594 0.302 72.204
6763.792 0.303 72.14 0.952 -17.659 0.952 -17.659 0.303 72.14
6788.75 0.304 72.076 0.951 -17.724 0.951 -17.724 0.304 72.076
6813.708 0.306 72.012 0.951 -17.788 0.951 -17.788 0.306 72.012
6838.667 0.307 71.948 0.951 -17.853 0.951 -17.853 0.307 71.948
6863.625 0.308 71.884 0.95 -17.918 0.95 -17.918 0.308 71.884
6888.583 0.309 71.82 0.95 -17.982 0.95 -17.982 0.309 71.82
6913.542 0.31 71.756 0.95 -18.047 0.95 -18.047 0.31 71.756
6938.5 0.311 71.692 0.949 -18.111 0.949 -18.111 0.311 71.692
6963.458 0.312 71.629 0.949 -18.176 0.949 -18.176 0.312 71.629
6988.417 0.313 71.565 0.949 -18.24 0.949 -18.24 0.313 71.565
7013.375 0.314 71.502 0.948 -18.305 0.948 -18.305 0.314 71.502
7038.333 0.315 71.438 0.948 -18.369 0.948 -18.369 0.315 71.438
7063.292 0.316 71.375 0.948 -18.433 0.948 -18.433 0.316 71.375
7088.25 0.317 71.311 0.947 -18.497 0.947 -18.497 0.317 71.311
7113.208 0.318 71.248 0.947 -18.561 0.947 -18.561 0.318 71.248
7138.167 0.319 71.185 0.947 -18.625 0.947 -18.625 0.319 71.185
7163.125 0.32 71.121 0.946 -18.689 0.946 -18.689 0.32 71.121
7188.083 0.321 71.058 0.946 -18.753 0.946 -18.753 0.321 71.058
7213.042 0.323 70.995 0.945 -18.817 0.945 -18.817 0.323 70.995
7238 0.324 70.932 0.945 -18.881 0.945 -18.881 0.324 70.932
7262.958 0.325 70.869 0.945 -18.944 0.945 -18.944 0.325 70.869
7287.917 0.326 70.806 0.944 -19.008 0.944 -19.008 0.326 70.806
7312.875 0.327 70.743 0.944 -19.071 0.944 -19.071 0.327 70.743
7337.833 0.328 70.68 0.944 -19.135 0.944 -19.135 0.328 70.68
7362.792 0.329 70.617 0.943 -19.198 0.943 -19.198 0.329 70.617
7387.75 0.33 70.555 0.943 -19.262 0.943 -19.262 0.33 70.555
7412.708 0.331 70.492 0.943 -19.325 0.943 -19.325 0.331 70.492
7437.667 0.332 70.429 0.942 -19.388 0.942 -19.388 0.332 70.429
7462.625 0.333 70.367 0.942 -19.452 0.942 -19.452 0.333 70.367
7487.583 0.334 70.304 0.941 -19.515 0.941 -19.515 0.334 70.304
7512.542 0.335 70.242 0.941 -19.578 0.941 -19.578 0.335 70.242
7537.5 0.336 70.179 0.941 -19.641 0.941 -19.641 0.336 70.179
7562.458 0.337 70.117 0.94 -19.704 0.94 -19.704 0.337 70.117
7587.417 0.338 70.055 0.94 -19.767 0.94 -19.767 0.338 70.055
7612.375 0.339 69.992 0.94 -19.83 0.94 -19.83 0.339 69.992
7637.333 0.34 69.93 0.939 -19.893 0.939 -19.893 0.34 69.93
7662.292 0.341 69.868 0.939 -19.955 0.939 -19.955 0.341 69.868
7687.25 0.342 69.806 0.939 -20.018 0.939 -20.018 0.342 69.806
7712.208 0.343 69.744 0.938 -20.081 0.938 -20.081 0.343 69.744
7737.167 0.344 69.682 0.938 -20.143 0.938 -20.143 0.344 69.682
7762.125 0.345 69.62 0.937 -20.206 0.937 -20.206 0.345 69.62
7787.083 0.346 69.558 0.937 -20.268 0.937 -20.268 0.346 69.558
7812.042 0.347 69.496 0.937 -20.331 0.937 -20.331 0.347 69.496
7837 0.348 69.435 0.936 -20.393 0.936 -20.393 0.348 69.435
7861.958 0.349 69.373 0.936 -20.455 0.936 -20.455 0.349 69.373
7886.917 0.35 69.311 0.936 -20.517 0.936 -20.517 0.35 69.311
7911.875 0.352 69.25 0.935 -20.58 0.935 -20.58 0.352 69.25
7936.833 0.353 69.188 0.935 -20.642 0.935 -20.642 0.353 69.188
7961.792 0.354 69.127 0.934 -20.704 0.934 -20.704 0.354 69.127
7986.75 0.355 69.065 0.934 -20.766 0.934 -20.766 0.355 69.065
8011.708 0.356 69.004 0.934 -20.828 0.934 -20.828 0.356 69.004
8036.667 0.357 68.942 0.933 -20.89 0.933 -20.89 0.357 68.942
8061.625 0.358 68.881 0.933 -20.951 0.933 -20.951 0.358 68.881
8086.583 0.359 68.82 0.932 -21.013 0.932 -21.013 0.359 68.82
8111.542 0.36 68.759 0.932 -21.075 0.932 -21.075 0.36 68.759
8136.5 0.361 68.698 0.932 -21.136 0.932 -21.136 0.361 68.698
8161.458 0.362 68.637 0.931 -21.198 0.931 -21.198 0.362 68.637
8186.417 0.363 68.576 0.931 -21.26 0.931 -21.26 0.363 68.576
