# MHZ S MA R 50

50 0.973 -13.264 0.229 76.719 0.229 76.719 0.973 -13.264
74.958 0.943 -19.475 0.333 70.5 0.333 70.5 0.943 -19.475
99.917 0.904 -25.257 0.427 64.71 0.427 64.71 0.904 -25.257
124.875 0.861 -30.552 0.508 59.406 0.508 59.406 0.861 -30.552
149.833 0.815 -35.344 0.578 54.605 0.578 54.605 0.815 -35.344
174.792 0.769 -39.647 0.638 50.294 0.638 50.294 0.769 -39.647
199.75 0.725 -43.493 0.688 46.439 0.688 46.439 0.725 -43.493
224.708 0.682 -46.923 0.73 43 0.73 43 0.682 -46.923
249.667 0.642 -49.984 0.766 39.931 0.766 39.931 0.642 -49.984
274.625 0.604 -52.718 0.796 37.188 0.796 37.188 0.604 -52.718
299.583 0.57 -55.166 0.821 34.731 0.821 34.731 0.57 -55.166
324.542 0.538 -57.365 0.842 32.523 0.842 32.523 0.538 -57.365
349.5 0.508 -59.346 0.86 30.533 0.86 30.533 0.508 -59.346
374.458 0.481 -61.138 0.876 28.732 0.876 28.732 0.481 -61.138
399.417 0.455 -62.763 0.889 27.097 0.889 27.097 0.455 -62.763
424.375 0.432 -64.244 0.901 25.607 0.901 25.607 0.432 -64.244
449.333 0.411 -65.597 0.911 24.244 0.911 24.244 0.411 -65.597
474.292 0.391 -66.838 0.919 22.993 0.919 22.993 0.391 -66.838
499.25 0.372 -67.98 0.927 21.841 0.927 21.841 0.372 -67.98
524.208 0.355 -69.034 0.934 20.777 0.934 20.777 0.355 -69.034
549.167 0.339 -70.01 0.94 19.791 0.94 19.791 0.339 -70.01
574.125 0.324 -70.916 0.945 18.875 0.945 18.875 0.324 -70.916
599.083 0.309 -71.759 0.95 18.021 0.95 18.021 0.309 -71.759
624.042 0.296 -72.547 0.954 17.223 0.954 17.223 0.296 -72.547
649 0.284 -73.283 0.958 16.475 0.958 16.475 0.284 -73.283
673.958 0.272 -73.974 0.961 15.773 0.961 15.773 0.272 -73.974
698.917 0.261 -74.623 0.964 15.112 0.964 15.112 0.261 -74.623
723.875 0.25 -75.235 0.967 14.488 0.967 14.488 0.25 -75.235
748.833 0.24 -75.812 0.97 13.899 0.97 13.899 0.24 -75.812
773.792 0.231 -76.358 0.972 13.341 0.972 13.341 0.231 -76.358
798.75 0.222 -76.874 0.974 12.811 0.974 12.811 0.222 -76.874
823.708 0.213 -77.365 0.976 12.307 0.976 12.307 0.213 -77.365
848.667 0.205 -77.83 0.978 11.828 0.978 11.828 0.205 -77.83
873.625 0.197 -78.274 0.979 11.37 0.979 11.37 0.197 -78.274
898.583 0.19 -78.696 0.981 10.933 0.981 10.933 0.19 -78.696
923.542 0.183 -79.099 0.982 10.515 0.982 10.515 0.183 -79.099
948.5 0.176 -79.484 0.983 10.115 0.983 10.115 0.176 -79.484
973.458 0.169 -79.853 0.984 9.73 0.984 9.73 0.169 -79.853
998.417 0.163 -80.205 0.985 9.361 0.985 9.361 0.163 -80.205
1023.375 0.157 -80.543 0.986 9.006 0.986 9.006 0.157 -80.543
1048.333 0.151 -80.867 0.987 8.664 0.987 8.664 0.151 -80.867
1073.292 0.145 -81.178 0.988 8.334 0.988 8.334 0.145 -81.178
1098.25 0.139 -81.477 0.989 8.015 0.989 8.015 0.139 -81.477
1123.208 0.134 -81.764 0.99 7.707 0.99 7.707 0.134 -81.764
1148.167 0.129 -82.04 0.99 7.41 0.99 7.41 0.129 -82.04
1173.125 0.124 -82.306 0.991 7.121 0.991 7.121 0.124 -82.306
1198.083 0.119 -82.562 0.992 6.842 0.992 6.842 0.119 -82.562
1223.042 0.114 -82.808 0.992 6.571 0.992 6.571 0.114 -82.808
1248 0.11 -83.045 0.993 6.308 0.993 6.308 0.11 -83.045
1272.958 0.105 -83.273 0.993 6.052 0.993 6.052 0.105 -83.273
1297.917 0.101 -83.493 0.994 5.803 0.994 5.803 0.101 -83.493
1322.875 0.097 -83.704 0.994 5.561 0.994 5.561 0.097 -83.704
1347.833 0.093 -83.907 0.994 5.326 0.994 5.326 0.093 -83.907
1372.792 0.089 -84.102 0.995 5.096 0.995 5.096 0.089 -84.102
1397.75 0.085 -84.289 0.995 4.872 0.995 4.872 0.085 -84.289
1422.708 0.081 -84.468 0.995 4.653 0.995 4.653 0.081 -84.468
1447.667 0.077 -84.639 0.996 4.439 0.996 4.439 0.077 -84.639
1472.625 0.074 -84.803 0.996 4.23 0.996 4.23 0.074 -84.803
1497.583 0.07 -84.958 0.996 4.026 0.996 4.026 0.07 -84.958
1522.542 0.067 -85.104 0.997 3.826 0.997 3.826 0.067 -85.104
1547.5 0.063 -85.242 0.997 3.63 0.997 3.63 0.063 -85.242
1572.458 0.06 -85.371 0.997 3.438 0.997 3.438 0.06 -85.371
1597.417 0.057 -85.49 0.997 3.251 0.997 3.251 0.057 -85.49
1622.375 0.054 -85.598 0.997 3.066 0.997 3.066 0.054 -85.598
1647.333 0.05 -85.695 0.997 2.885 0.997 2.885 0.05 -85.695
1672.292 0.047 -85.78 0.998 2.708 0.998 2.708 0.047 -85.78
1697.25 0.044 -85.85 0.998 2.534 0.998 2.534 0.044 -85.85
1722.208 0.041 -85.904 0.998 2.362 0.998 2.362 0.041 -85.904
1747.167 0.038 -85.939 0.998 2.194 0.998 2.194 0.038 -85.939
1772.125 0.035 -85.952 0.998 2.028 0.998 2.028 0.035 -85.952
1797.083 0.033 -85.939 0.998 1.865 0.998 1.865 0.033 -85.939
1822.042 0.03 -85.893 0.998 1.705 0.998 1.705 0.03 -85.893
1847 0.027 -85.806 0.998 1.547 0.998 1.547 0.027 -85.806
1871.958 0.024 -85.666 0.998 1.392 0.998 1.392 0.024 -85.666
1896.917 0.022 -85.456 0.999 1.238 0.999 1.238 0.022 -85.456
1921.875 0.019 -85.149 0.999 1.087 0.999 1.087 0.019 -85.149
1946.833 0.016 -84.703 0.999 0.939 0.999 0.939 0.016 -84.703
1971.792 0.014 -84.045 0.999 0.792 0.999 0.792 0.014 -84.045
1996.75 0.011 -83.042 0.999 0.647 0.999 0.647 0.011 -83.042
2021.708 8.881e-3 -81.414 0.999 0.504 0.999 0.504 8.881e-3 -81.414
2046.667 6.451e-3 -78.477 0.999 0.363 0.999 0.363 6.451e-3 -78.477
2071.625 4.091e-3 -72.006 0.999 0.223 0.999 0.223 4.091e-3 -72.006
2096.583 1.946e-3 -49.994 0.999 0.086 0.999 0.086 1.946e-3 -49.994
2121.542 1.529e-3 35.204 0.999 -0.051 0.999 -0.051 1.529e-3 35.204
2146.5 3.463e-3 68.678 0.999 -0.185 0.999 -0.185 3.463e-3 68.678
2171.458 5.689e-3 77.003 0.999 -0.318 0.999 -0.318 5.689e-3 77.003
2196.417 7.944e-3 80.507 0.999 -0.449 0.999 -0.449 7.944e-3 80.507
2221.375 0.01 82.383 0.999 -0.58 0.999 -0.58 0.01 82.383
2246.333 0.012 83.523 0.999 -0.708 0.999 -0.708 0.012 83.523
2271.292 0.015 84.271 0.999 -0.835 0.999 -0.835 0.015 84.271
2296.25 0.017 84.784 0.999 -0.961 0.999 -0.961 0.017 84.784
2321.208 0.019 85.146 0.999 -1.086 0.999 -1.086 0.019 85.146
2346.167 0.021 85.406 0.999 -1.21 0.999 -1.21 0.021 85.406
2371.125 0.023 85.594 0.998 -1.332 0.998 -1.332 0.023 85.594
2396.083 0.025 85.729 0.998 -1.453 0.998 -1.453 0.025 85.729
2421.042 0.027 85.824 0.998 -1.573 0.998 -1.573 0.027 85.824
2446 0.03 85.888 0.998 -1.692 0.998 -1.692 0.03 85.888
2470.958 0.032 85.927 0.998 -1.81 0.998 -1.81 0.032 85.927
2495.917 0.034 85.948 0.998 -1.927 0.998 -1.927 0.034 85.948
2520.875 0.036 85.952 0.998 -2.043 0.998 -2.043 0.036 85.952
2545.833 0.038 85.944 0.998 -2.158 0.998 -2.158 0.038 85.944
2570.792 0.04 85.925 0.998 -2.272 0.998 -2.272 0.04 85.925
2595.75 0.042 85.898 0.998 -2.386 0.998 -2.386 0.042 85.898
2620.708 0.044 85.863 0.998 -2.498 0.998 -2.498 0.044 85.863
2645.667 0.046 85.821 0.998 -2.609 0.998 -2.609 0.046 85.821
2670.625 0.047 85.775 0.998 -2.72 0.998 -2.72 0.047 85.775
2695.583 0.049 85.723 0.998 -2.83 0.998 -2.83 0.049 85.723
2720.542 0.051 85.668 0.997 -2.939 0.997 -2.939 0.051 85.668
2745.5 0.053 85.609 0.997 -3.047 0.997 -3.047 0.053 85.609
2770.458 0.055 85.548 0.997 -3.154 0.997 -3.154 0.055 85.548
2795.417 0.057 85.484 0.997 -3.261 0.997 -3.261 0.057 85.484
2820.375 0.059 85.417 0.997 -3.367 0.997 -3.367 0.059 85.417
2845.333 0.061 85.349 0.997 -3.472 0.997 -3.472 0.061 85.349
2870.292 0.062 85.279 0.997 -3.577 0.997 -3.577 0.062 85.279
2895.25 0.064 85.207 0.997 -3.681 0.997 -3.681 0.064 85.207
2920.208 0.066 85.134 0.997 -3.784 0.997 -3.784 0.066 85.134
2945.167 0.068 85.06 0.996 -3.887 0.996 -3.887 0.068 85.06
2970.125 0.07 84.985 0.996 -3.989 0.996 -3.989 0.07 84.985
2995.083 0.071 84.909 0.996 -4.091 0.996 -4.091 0.071 84.909
3020.042 0.073 84.832 0.996 -4.192 0.996 -4.192 0.073 84.832
3045 0.075 84.755 0.996 -4.292 0.996 -4.292 0.075 84.755
3069.958 0.077 84.677 0.996 -4.392 0.996 -4.392 0.077 84.677
3094.917 0.078 84.598 0.996 -4.491 0.996 -4.491 0.078 84.598
3119.875 0.08 84.519 0.996 -4.59 0.996 -4.59 0.08 84.519
3144.833 0.082 84.44 0.995 -4.688 0.995 -4.688 0.082 84.44
3169.792 0.083 84.36 0.995 -4.785 0.995 -4.785 0.083 84.36
3194.75 0.085 84.28 0.995 -4.883 0.995 -4.883 0.085 84.28
3219.708 0.087 84.2 0.995 -4.979 0.995 -4.979 0.087 84.2
3244.667 0.088 84.119 0.995 -5.075 0.995 -5.075 0.088 84.119
3269.625 0.09 84.038 0.995 -5.171 0.995 -5.171 0.09 84.038
3294.583 0.092 83.957 0.995 -5.266 0.995 -5.266 0.092 83.957
3319.542 0.093 83.876 0.994 -5.361 0.994 -5.361 0.093 83.876
3344.5 0.095 83.795 0.994 -5.456 0.994 -5.456 0.095 83.795
3369.458 0.097 83.714 0.994 -5.55 0.994 -5.55 0.097 83.714
3394.417 0.098 83.633 0.994 -5.643 0.994 -5.643 0.098 83.633
3419.375 0.1 83.552 0.994 -5.736 0.994 -5.736 0.1 83.552
3444.333 0.102 83.47 0.994 -5.829 0.994 -5.829 0.102 83.47
3469.292 0.103 83.389 0.993 -5.921 0.993 -5.921 0.103 83.389
3494.25 0.105 83.308 0.993 -6.013 0.993 -6.013 0.105 83.308
3519.208 0.106 83.226 0.993 -6.105 0.993 -6.105 0.106 83.226
3544.167 0.108 83.145 0.993 -6.196 0.993 -6.196 0.108 83.145
3569.125 0.11 83.064 0.993 -6.287 0.993 -6.287 0.11 83.064
3594.083 0.111 82.983 0.993 -6.377 0.993 -6.377 0.111 82.983
3619.042 0.113 82.902 0.992 -6.467 0.992 -6.467 0.113 82.902
3644 0.114 82.821 0.992 -6.557 0.992 -6.557 0.114 82.821
3668.958 0.116 82.74 0.992 -6.646 0.992 -6.646 0.116 82.74
3693.917 0.117 82.659 0.992 -6.735 0.992 -6.735 0.117 82.659
3718.875 0.119 82.578 0.992 -6.824 0.992 -6.824 0.119 82.578
3743.833 0.12 82.497 0.991 -6.913 0.991 -6.913 0.12 82.497
3768.792 0.122 82.417 0.991 -7.001 0.991 -7.001 0.122 82.417
3793.75 0.123 82.336 0.991 -7.089 0.991 -7.089 0.123 82.336
3818.708 0.125 82.256 0.991 -7.176 0.991 -7.176 0.125 82.256
3843.667 0.126 82.175 0.991 -7.263 0.991 -7.263 0.126 82.175
3868.625 0.128 82.095 0.991 -7.35 0.991 -7.35 0.128 82.095
3893.583 0.129 82.015 0.99 -7.437 0.99 -7.437 0.129 82.015
3918.542 0.131 81.935 0.99 -7.523 0.99 -7.523 0.131 81.935
3943.5 0.132 81.855 0.99 -7.609 0.99 -7.609 0.132 81.855
3968.458 0.134 81.776 0.99 -7.695 0.99 -7.695 0.134 81.776
3993.417 0.135 81.696 0.99 -7.78 0.99 -7.78 0.135 81.696
4018.375 0.137 81.617 0.989 -7.865 0.989 -7.865 0.137 81.617
4043.333 0.138 81.537 0.989 -7.95 0.989 -7.95 0.138 81.537
4068.292 0.14 81.458 0.989 -8.035 0.989 -8.035 0.14 81.458
4093.25 0.141 81.379 0.989 -8.12 0.989 -8.12 0.141 81.379
4118.208 0.143 81.3 0.989 -8.204 0.989 -8.204 0.143 81.3
4143.167 0.144 81.221 0.988 -8.288 0.988 -8.288 0.144 81.221
4168.125 0.146 81.143 0.988 -8.371 0.988 -8.371 0.146 81.143
4193.083 0.147 81.064 0.988 -8.455 0.988 -8.455 0.147 81.064
4218.042 0.148 80.985 0.988 -8.538 0.988 -8.538 0.148 80.985
4243 0.15 80.907 0.987 -8.621 0.987 -8.621 0.15 80.907
4267.958 0.151 80.829 0.987 -8.704 0.987 -8.704 0.151 80.829
4292.917 0.153 80.751 0.987 -8.786 0.987 -8.786 0.153 80.751
4317.875 0.154 80.673 0.987 -8.869 0.987 -8.869 0.154 80.673
4342.833 0.156 80.595 0.987 -8.951 0.987 -8.951 0.156 80.595
4367.792 0.157 80.517 0.986 -9.032 0.986 -9.032 0.157 80.517
4392.75 0.158 80.44 0.986 -9.114 0.986 -9.114 0.158 80.44
4417.708 0.16 80.363 0.986 -9.196 0.986 -9.196 0.16 80.363
4442.667 0.161 80.285 0.986 -9.277 0.986 -9.277 0.161 80.285
4467.625 0.163 80.208 0.985 -9.358 0.985 -9.358 0.163 80.208
4492.583 0.164 80.131 0.985 -9.439 0.985 -9.439 0.164 80.131
4517.542 0.165 80.054 0.985 -9.519 0.985 -9.519 0.165 80.054
4542.5 0.167 79.977 0.985 -9.6 0.985 -9.6 0.167 79.977
4567.458 0.168 79.901 0.985 -9.68 0.985 -9.68 0.168 79.901
4592.417 0.17 79.824 0.984 -9.76 0.984 -9.76 0.17 79.824
4617.375 0.171 79.748 0.984 -9.84 0.984 -9.84 0.171 79.748
4642.333 0.172 79.671 0.984 -9.919 0.984 -9.919 0.172 79.671
4667.292 0.174 79.595 0.984 -9.999 0.984 -9.999 0.174 79.595
4692.25 0.175 79.519 0.983 -10.078 0.983 -10.078 0.175 79.519
4717.208 0.176 79.443 0.983 -10.157 0.983 -10.157 0.176 79.443
4742.167 0.178 79.368 0.983 -10.236 0.983 -10.236 0.178 79.368
4767.125 0.179 79.292 0.983 -10.315 0.983 -10.315 0.179 79.292
4792.083 0.18 79.216 0.982 -10.394 0.982 -10.394 0.18 79.216
4817.042 0.182 79.141 0.982 -10.472 0.982 -10.472 0.182 79.141
4842 0.183 79.066 0.982 -10.55 0.982 -10.55 0.183 79.066
4866.958 0.184 78.991 0.982 -10.628 0.982 -10.628 0.184 78.991
4891.917 0.186 78.915 0.981 -10.706 0.981 -10.706 0.186 78.915
4916.875 0.187 78.841 0.981 -10.784 0.981 -10.784 0.187 78.841
4941.833 0.188 78.766 0.981 -10.861 0.981 -10.861 0.188 78.766
4966.792 0.19 78.691 0.981 -10.939 0.981 -10.939 0.19 78.691
4991.75 0.191 78.616 0.98 -11.016 0.98 -11.016 0.191 78.616
5016.708 0.192 78.542 0.98 -11.093 0.98 -11.093 0.192 78.542
5041.667 0.194 78.468 0.98 -11.17 0.98 -11.17 0.194 78.468
5066.625 0.195 78.393 0.98 -11.247 0.98 -11.247 0.195 78.393
5091.583 0.196 78.319 0.979 -11.324 0.979 -11.324 0.196 78.319
5116.542 0.198 78.245 0.979 -11.4 0.979 -11.4 0.198 78.245
5141.5 0.199 78.171 0.979 -11.476 0.979 -11.476 0.199 78.171
5166.458 0.2 78.097 0.979 -11.552 0.979 -11.552 0.2 78.097
5191.417 0.202 78.024 0.978 -11.629 0.978 -11.629 0.202 78.024
5216.375 0.203 77.95 0.978 -11.704 0.978 -11.704 0.203 77.95
5241.333 0.204 77.877 0.978 -11.78 0.978 -11.78 0.204 77.877
5266.292 0.205 77.803 0.977 -11.856 0.977 -11.856 0.205 77.803
5291.25 0.207 77.73 0.977 -11.931 0.977 -11.931 0.207 77.73
5316.208 0.208 77.657 0.977 -12.007 0.977 -12.007 0.208 77.657
5341.167 0.209 77.584 0.977 -12.082 0.977 -12.082 0.209 77.584
5366.125 0.211 77.511 0.976 -12.157 0.976 -12.157 0.211 77.511
5391.083 0.212 77.438 0.976 -12.232 0.976 -12.232 0.212 77.438
5416.042 0.213 77.366 0.976 -12.306 0.976 -12.306 0.213 77.366
5441 0.214 77.293 0.976 -12.381 0.976 -12.381 0.214 77.293
5465.958 0.216 77.22 0.975 -12.456 0.975 -12.456 0.216 77.22
5490.917 0.217 77.148 0.975 -12.53 0.975 -12.53 0.217 77.148
5515.875 0.218 77.076 0.975 -12.604 0.975 -12.604 0.218 77.076
5540.833 0.219 77.004 0.974 -12.678 0.974 -12.678 0.219 77.004
5565.792 0.221 76.932 0.974 -12.752 0.974 -12.752 0.221 76.932
5590.75 0.222 76.86 0.974 -12.826 0.974 -12.826 0.222 76.86
5615.708 0.223 76.788 0.974 -12.9 0.974 -12.9 0.223 76.788
5640.667 0.225 76.716 0.973 -12.974 0.973 -12.974 0.225 76.716
5665.625 0.226 76.644 0.973 -13.047 0.973 -13.047 0.226 76.644
5690.583 0.227 76.573 0.973 -13.12 0.973 -13.12 0.227 76.573
5715.542 0.228 76.501 0.972 -13.194 0.972 -13.194 0.228 76.501
5740.5 0.229 76.43 0.972 -13.267 0.972 -13.267 0.229 76.43
5765.458 0.231 76.358 0.972 -13.34 0.972 -13.34 0.231 76.358
5790.417 0.232 76.287 0.972 -13.413 0.972 -13.413 0.232 76.287
5815.375 0.233 76.216 0.971 -13.485 0.971 -13.485 0.233 76.216
5840.333 0.234 76.145 0.971 -13.558 0.971 -13.558 0.234 76.145
5865.292 0.236 76.074 0.971 -13.631 0.971 -13.631 0.236 76.074
5890.25 0.237 76.003 0.97 -13.703 0.97 -13.703 0.237 76.003
5915.208 0.238 75.933 0.97 -13.775 0.97 -13.775 0.238 75.933
5940.167 0.239 75.862 0.97 -13.848 0.97 -13.848 0.239 75.862
5965.125 0.241 75.792 0.969 -13.92 0.969 -13.92 0.241 75.792
5990.083 0.242 75.721 0.969 -13.992 0.969 -13.992 0.242 75.721
6015.042 0.243 75.651 0.969 -14.063 0.969 -14.063 0.243 75.651
6040 0.244 75.581 0.969 -14.135 0.969 -14.135 0.244 75.581
6064.958 0.245 75.511 0.968 -14.207 0.968 -14.207 0.245 75.511
6089.917 0.247 75.44 0.968 -14.278 0.968 -14.278 0.247 75.44
6114.875 0.248 75.371 0.968 -14.35 0.968 -14.35 0.248 75.371
6139.833 0.249 75.301 0.967 -14.421 0.967 -14.421 0.249 75.301
6164.792 0.25 75.231 0.967 -14.492 0.967 -14.492 0.25 75.231
6189.75 0.251 75.161 0.967 -14.563 0.967 -14.563 0.251 75.161
6214.708 0.253 75.092 0.966 -14.634 0.966 -14.634 0.253 75.092
6239.667 0.254 75.022 0.966 -14.705 0.966 -14.705 0.254 75.022
6264.625 0.255 74.953 0.966 -14.776 0.966 -14.776 0.255 74.953
6289.583 0.256 74.883 0.965 -14.847 0.965 -14.847 0.256 74.883
6314.542 0.257 74.814 0.965 -14.917 0.965 -14.917 0.257 74.814
6339.5 0.259 74.745 0.965 -14.988 0.965 -14.988 0.259 74.745
6364.458 0.26 74.676 0.964 -15.058 0.964 -15.058 0.26 74.676
6389.417 0.261 74.607 0.964 -15.128 0.964 -15.128 0.261 74.607
6414.375 0.262 74.538 0.964 -15.199 0.964 -15.199 0.262 74.538
6439.333 0.263 74.469 0.963 -15.269 0.963 -15.269 0.263 74.469
6464.292 0.265 74.4 0.963 -15.339 0.963 -15.339 0.265 74.4
6489.25 0.266 74.332 0.963 -15.409 0.963 -15.409 0.266 74.332
6514.208 0.267 74.263 0.963 -15.478 0.963 -15.478 0.267 74.263
6539.167 0.268 74.195 0.962 -15.548 0.962 -15.548 0.268 74.195
6564.125 0.269 74.126 0.962 -15.618 0.962 -15.618 0.269 74.126
6589.083 0.27 74.058 0.962 -15.687 0.962 -15.687 0.27 74.058
6614.042 0.272 73.99 0.961 -15.756 0.961 -15.756 0.272 73.99
6639 0.273 73.922 0.961 -15.826 0.961 -15.826 0.273 73.922
6663.958 0.274 73.854 0.961 -15.895 0.961 -15.895 0.274 73.854
6688.917 0.275 73.786 0.96 -15.964 0.96 -15.964 0.275 73.786
6713.875 0.276 73.718 0.96 -16.033 0.96 -16.033 0.276 73.718
6738.833 0.277 73.65 0.96 -16.102 0.96 -16.102 0.277 73.65
6763.792 0.279 73.582 0.959 -16.171 0.959 -16.171 0.279 73.582
6788.75 0.28 73.515 0.959 -16.24 0.959 -16.24 0.28 73.515
6813.708 0.281 73.447 0.959 -16.308 0.959 -16.308 0.281 73.447
6838.667 0.282 73.38 0.958 -16.377 0.958 -16.377 0.282 73.38
6863.625 0.283 73.312 0.958 -16.445 0.958 -16.445 0.283 73.312
6888.583 0.284 73.245 0.958 -16.514 0.958 -16.514 0.284 73.245
6913.542 0.285 73.178 0.957 -16.582 0.957 -16.582 0.285 73.178
6938.5 0.287 73.111 0.957 -16.65 0.957 -16.65 0.287 73.111
6963.458 0.288 73.044 0.957 -16.718 0.957 -16.718 0.288 73.044
6988.417 0.289 72.977 0.956 -16.786 0.956 -16.786 0.289 72.977
7013.375 0.29 72.91 0.956 -16.854 0.956 -16.854 0.29 72.91
7038.333 0.291 72.843 0.956 -16.922 0.956 -16.922 0.291 72.843
7063.292 0.292 72.776 0.955 -16.99 0.955 -16.99 0.292 72.776
7088.25 0.293 72.71 0.955 -17.057 0.955 -17.057 0.293 72.71
7113.208 0.294 72.643 0.954 -17.125 0.954 -17.125 0.294 72.643
7138.167 0.296 72.577 0.954 -17.192 0.954 -17.192 0.296 72.577
7163.125 0.297 72.51 0.954 -17.26 0.954 -17.26 0.297 72.51
7188.083 0.298 72.444 0.953 -17.327 0.953 -17.327 0.298 72.444
7213.042 0.299 72.378 0.953 -17.394 0.953 -17.394 0.299 72.378
7238 0.3 72.311 0.953 -17.461 0.953 -17.461 0.3 72.311
7262.958 0.301 72.245 0.952 -17.528 0.952 -17.528 0.301 72.245
7287.917 0.302 72.179 0.952 -17.595 0.952 -17.595 0.302 72.179
7312.875 0.303 72.113 0.952 -17.662 0.952 -17.662 0.303 72.113
7337.833 0.305 72.047 0.951 -17.729 0.951 -17.729 0.305 72.047
7362.792 0.306 71.982 0.951 -17.796 0.951 -17.796 0.306 71.982
7387.75 0.307 71.916 0.951 -17.862 0.951 -17.862 0.307 71.916
7412.708 0.308 71.85 0.95 -17.929 0.95 -17.929 0.308 71.85
7437.667 0.309 71.785 0.95 -17.995 0.95 -17.995 0.309 71.785
7462.625 0.31 71.719 0.95 -18.061 0.95 -18.061 0.31 71.719
7487.583 0.311 71.654 0.949 -18.128 0.949 -18.128 0.311 71.654
7512.542 0.312 71.588 0.949 -18.194 0.949 -18.194 0.312 71.588
7537.5 0.313 71.523 0.948 -18.26 0.948 -18.26 0.313 71.523
7562.458 0.314 71.458 0.948 -18.326 0.948 -18.326 0.314 71.458
7587.417 0.316 71.393 0.948 -18.392 0.948 -18.392 0.316 71.393
7612.375 0.317 71.328 0.947 -18.458 0.947 -18.458 0.317 71.328
7637.333 0.318 71.263 0.947 -18.524 0.947 -18.524 0.318 71.263
7662.292 0.319 71.198 0.947 -18.589 0.947 -18.589 0.319 71.198
7687.25 0.32 71.133 0.946 -18.655 0.946 -18.655 0.32 71.133
7712.208 0.321 71.068 0.946 -18.721 0.946 -18.721 0.321 71.068
7737.167 0.322 71.004 0.946 -18.786 0.946 -18.786 0.322 71.004
7762.125 0.323 70.939 0.945 -18.851 0.945 -18.851 0.323 70.939
7787.083 0.324 70.874 0.945 -18.917 0.945 -18.917 0.324 70.874
7812.042 0.325 70.81 0.944 -18.982 0.944 -18.982 0.325 70.81
7837 0.326 70.746 0.944 -19.047 0.944 -19.047 0.326 70.746
7861.958 0.327 70.681 0.944 -19.112 0.944 -19.112 0.327 70.681
7886.917 0.328 70.617 0.943 -19.177 0.943 -19.177 0.328 70.617
7911.875 0.33 70.553 0.943 -19.242 0.943 -19.242 0.33 70.553
7936.833 0.331 70.489 0.943 -19.307 0.943 -19.307 0.331 70.489
7961.792 0.332 70.425 0.942 -19.372 0.942 -19.372 0.332 70.425
7986.75 0.333 70.361 0.942 -19.436 0.942 -19.436 0.333 70.361
8011.708 0.334 70.297 0.941 -19.501 0.941 -19.501 0.334 70.297
8036.667 0.335 70.233 0.941 -19.565 0.941 -19.565 0.335 70.233
8061.625 0.336 70.17 0.941 -19.63 0.941 -19.63 0.336 70.17
8086.583 0.337 70.106 0.94 -19.694 0.94 -19.694 0.337 70.106
8111.542 0.338 70.042 0.94 -19.759 0.94 -19.759 0.338 70.042
8136.5 0.339 69.979 0.94 -19.823 0.94 -19.823 0.339 69.979
8161.458 0.34 69.915 0.939 -19.887 0.939 -19.887 0.34 69.915
8186.417 0.341 69.852 0.939 -19.951 0.939 -19.951 0.341 69.852
8211.375 0.342 69.789 0.938 -20.015 0.938 -20.015 0.342 69.789
