# MHZ S MA R 50

50 0.915 -23.758 0.403 66.212 0.403 66.212 0.915 -23.758
74.958 0.834 -33.448 0.551 56.507 0.551 56.507 0.834 -33.448
99.917 0.749 -41.406 0.661 48.534 0.661 48.534 0.749 -41.406
124.875 0.67 -47.833 0.741 42.092 0.741 42.092 0.67 -47.833
149.833 0.6 -53.016 0.799 36.894 0.799 36.894 0.6 -53.016
174.792 0.54 -57.225 0.841 32.67 0.841 32.67 0.54 -57.225
199.75 0.488 -60.679 0.872 29.2 0.872 29.2 0.488 -60.679
224.708 0.443 -63.549 0.895 26.315 0.895 26.315 0.443 -63.549
249.667 0.405 -65.962 0.913 23.886 0.913 23.886 0.405 -65.962
274.625 0.372 -68.014 0.927 21.817 0.927 21.817 0.372 -68.014
299.583 0.343 -69.779 0.938 20.036 0.938 20.036 0.343 -69.779
324.542 0.317 -71.312 0.947 18.486 0.947 18.486 0.317 -71.312
349.5 0.294 -72.654 0.955 17.127 0.955 17.127 0.294 -72.654
374.458 0.274 -73.84 0.96 15.924 0.96 15.924 0.274 -73.84
399.417 0.256 -74.895 0.965 14.851 0.965 14.851 0.256 -74.895
424.375 0.24 -75.839 0.97 13.888 0.97 13.888 0.24 -75.839
449.333 0.225 -76.69 0.973 13.017 0.973 13.017 0.225 -76.69
474.292 0.212 -77.462 0.976 12.227 0.976 12.227 0.212 -77.462
499.25 0.199 -78.164 0.979 11.504 0.979 11.504 0.199 -78.164
524.208 0.188 -78.806 0.981 10.841 0.981 10.841 0.188 -78.806
549.167 0.178 -79.396 0.983 10.23 0.983 10.23 0.178 -79.396
574.125 0.168 -79.939 0.985 9.664 0.985 9.664 0.168 -79.939
599.083 0.159 -80.442 0.986 9.138 0.986 9.138 0.159 -80.442
624.042 0.15 -80.909 0.987 8.647 0.987 8.647 0.15 -80.909
649 0.142 -81.343 0.989 8.188 0.989 8.188 0.142 -81.343
673.958 0.135 -81.748 0.99 7.756 0.99 7.756 0.135 -81.748
698.917 0.128 -82.126 0.991 7.35 0.991 7.35 0.128 -82.126
723.875 0.121 -82.48 0.991 6.967 0.991 6.967 0.121 -82.48
748.833 0.115 -82.813 0.992 6.604 0.992 6.604 0.115 -82.813
773.792 0.109 -83.125 0.993 6.26 0.993 6.26 0.109 -83.125
798.75 0.103 -83.418 0.993 5.932 0.993 5.932 0.103 -83.418
823.708 0.098 -83.693 0.994 5.62 0.994 5.62 0.098 -83.693
848.667 0.093 -83.953 0.995 5.322 0.995 5.322 0.093 -83.953
873.625 0.088 -84.197 0.995 5.037 0.995 5.037 0.088 -84.197
898.583 0.083 -84.426 0.995 4.764 0.995 4.764 0.083 -84.426
923.542 0.078 -84.641 0.996 4.501 0.996 4.501 0.078 -84.641
948.5 0.074 -84.842 0.996 4.249 0.996 4.249 0.074 -84.842
973.458 0.07 -85.03 0.996 4.006 0.996 4.006 0.07 -85.03
998.417 0.066 -85.204 0.997 3.771 0.997 3.771 0.066 -85.204
1023.375 0.062 -85.365 0.997 3.545 0.997 3.545 0.062 -85.365
1048.333 0.058 -85.512 0.997 3.326 0.997 3.326 0.058 -85.512
1073.292 0.054 -85.645 0.997 3.114 0.997 3.114 0.054 -85.645
1098.25 0.051 -85.763 0.998 2.908 0.998 2.908 0.051 -85.763
1123.208 0.047 -85.864 0.998 2.709 0.998 2.709 0.047 -85.864
1148.167 0.044 -85.948 0.998 2.515 0.998 2.515 0.044 -85.948
1173.125 0.041 -86.012 0.998 2.326 0.998 2.326 0.041 -86.012
1198.083 0.037 -86.053 0.998 2.142 0.998 2.142 0.037 -86.053
1223.042 0.034 -86.067 0.998 1.963 0.998 1.963 0.034 -86.067
1248 0.031 -86.05 0.998 1.788 0.998 1.788 0.031 -86.05
1272.958 0.028 -85.992 0.998 1.618 0.998 1.618 0.028 -85.992
1297.917 0.025 -85.885 0.999 1.451 0.999 1.451 0.025 -85.885
1322.875 0.023 -85.711 0.999 1.288 0.999 1.288 0.023 -85.711
1347.833 0.02 -85.448 0.999 1.129 0.999 1.129 0.02 -85.448
1372.792 0.017 -85.056 0.999 0.973 0.999 0.973 0.017 -85.056
1397.75 0.014 -84.47 0.999 0.82 0.999 0.82 0.014 -84.47
1422.708 0.012 -83.571 0.999 0.67 0.999 0.67 0.012 -83.571
1447.667 9.19e-3 -82.109 0.999 0.522 0.999 0.522 9.19e-3 -82.109
1472.625 6.695e-3 -79.482 0.999 0.378 0.999 0.378 6.695e-3 -79.482
1497.583 4.276e-3 -73.763 0.999 0.236 0.999 0.236 4.276e-3 -73.763
1522.542 2.046e-3 -54.725 0.999 0.096 0.999 0.096 2.046e-3 -54.725
1547.5 1.384e-3 31.574 0.999 -0.042 0.999 -0.042 1.384e-3 31.574
1572.458 3.303e-3 68.914 0.999 -0.177 0.999 -0.177 3.303e-3 68.914
1597.417 5.536e-3 77.395 0.999 -0.31 0.999 -0.31 5.536e-3 77.395
1622.375 7.787e-3 80.852 0.999 -0.441 0.999 -0.441 7.787e-3 80.852
1647.333 0.01 82.675 0.999 -0.57 0.999 -0.57 0.01 82.675
1672.292 0.012 83.773 0.999 -0.698 0.999 -0.698 0.012 83.773
1697.25 0.014 84.487 0.999 -0.823 0.999 -0.823 0.014 84.487
1722.208 0.017 84.975 0.999 -0.947 0.999 -0.947 0.017 84.975
1747.167 0.019 85.318 0.999 -1.07 0.999 -1.07 0.019 85.318
1772.125 0.021 85.563 0.999 -1.191 0.999 -1.191 0.021 85.563
1797.083 0.023 85.739 0.999 -1.31 0.999 -1.31 0.023 85.739
1822.042 0.025 85.865 0.999 -1.428 0.999 -1.428 0.025 85.865
1847 0.027 85.952 0.998 -1.545 0.998 -1.545 0.027 85.952
1871.958 0.029 86.011 0.998 -1.66 0.998 -1.66 0.029 86.011
1896.917 0.031 86.046 0.998 -1.774 0.998 -1.774 0.031 86.046
1921.875 0.033 86.064 0.998 -1.887 0.998 -1.887 0.033 86.064
1946.833 0.035 86.067 0.998 -1.999 0.998 -1.999 0.035 86.067
1971.792 0.037 86.058 0.998 -2.109 0.998 -2.109 0.037 86.058
1996.75 0.039 86.039 0.998 -2.219 0.998 -2.219 0.039 86.039
2021.708 0.041 86.011 0.998 -2.327 0.998 -2.327 0.041 86.011
2046.667 0.043 85.977 0.998 -2.435 0.998 -2.435 0.043 85.977
2071.625 0.044 85.937 0.998 -2.542 0.998 -2.542 0.044 85.937
2096.583 0.046 85.892 0.998 -2.647 0.998 -2.647 0.046 85.892
2121.542 0.048 85.843 0.998 -2.752 0.998 -2.752 0.048 85.843
2146.5 0.05 85.791 0.998 -2.856 0.998 -2.856 0.05 85.791
2171.458 0.052 85.735 0.997 -2.959 0.997 -2.959 0.052 85.735
2196.417 0.053 85.676 0.997 -3.061 0.997 -3.061 0.053 85.676
2221.375 0.055 85.615 0.997 -3.163 0.997 -3.163 0.055 85.615
2246.333 0.057 85.552 0.997 -3.263 0.997 -3.263 0.057 85.552
2271.292 0.059 85.488 0.997 -3.363 0.997 -3.363 0.059 85.488
2296.25 0.06 85.421 0.997 -3.462 0.997 -3.462 0.06 85.421
2321.208 0.062 85.354 0.997 -3.561 0.997 -3.561 0.062 85.354
2346.167 0.064 85.285 0.997 -3.659 0.997 -3.659 0.064 85.285
2371.125 0.066 85.215 0.997 -3.756 0.997 -3.756 0.066 85.215
2396.083 0.067 85.144 0.997 -3.853 0.997 -3.853 0.067 85.144
2421.042 0.069 85.073 0.996 -3.949 0.996 -3.949 0.069 85.073
2446 0.071 85.001 0.996 -4.044 0.996 -4.044 0.071 85.001
2470.958 0.072 84.928 0.996 -4.139 0.996 -4.139 0.072 84.928
2495.917 0.074 84.854 0.996 -4.233 0.996 -4.233 0.074 84.854
2520.875 0.075 84.78 0.996 -4.327 0.996 -4.327 0.075 84.78
2545.833 0.077 84.706 0.996 -4.42 0.996 -4.42 0.077 84.706
2570.792 0.079 84.631 0.996 -4.513 0.996 -4.513 0.079 84.631
2595.75 0.08 84.556 0.996 -4.605 0.996 -4.605 0.08 84.556
2620.708 0.082 84.481 0.995 -4.697 0.995 -4.697 0.082 84.481
2645.667 0.083 84.405 0.995 -4.788 0.995 -4.788 0.083 84.405
2670.625 0.085 84.33 0.995 -4.879 0.995 -4.879 0.085 84.33
2695.583 0.087 84.254 0.995 -4.969 0.995 -4.969 0.087 84.254
2720.542 0.088 84.178 0.995 -5.059 0.995 -5.059 0.088 84.178
2745.5 0.09 84.102 0.995 -5.149 0.995 -5.149 0.09 84.102
2770.458 0.091 84.025 0.995 -5.238 0.995 -5.238 0.091 84.025
2795.417 0.093 83.949 0.995 -5.327 0.995 -5.327 0.093 83.949
2820.375 0.094 83.873 0.994 -5.415 0.994 -5.415 0.094 83.873
2845.333 0.096 83.796 0.994 -5.503 0.994 -5.503 0.096 83.796
2870.292 0.097 83.72 0.994 -5.59 0.994 -5.59 0.097 83.72
2895.25 0.099 83.643 0.994 -5.678 0.994 -5.678 0.099 83.643
2920.208 0.1 83.567 0.994 -5.764 0.994 -5.764 0.1 83.567
2945.167 0.102 83.49 0.994 -5.851 0.994 -5.851 0.102 83.49
2970.125 0.103 83.414 0.993 -5.937 0.993 -5.937 0.103 83.414
2995.083 0.105 83.337 0.993 -6.023 0.993 -6.023 0.105 83.337
3020.042 0.106 83.261 0.993 -6.108 0.993 -6.108 0.106 83.261
3045 0.108 83.184 0.993 -6.193 0.993 -6.193 0.108 83.184
3069.958 0.109 83.108 0.993 -6.278 0.993 -6.278 0.109 83.108
3094.917 0.111 83.032 0.993 -6.363 0.993 -6.363 0.111 83.032
3119.875 0.112 82.955 0.993 -6.447 0.993 -6.447 0.112 82.955
3144.833 0.114 82.879 0.992 -6.531 0.992 -6.531 0.114 82.879
3169.792 0.115 82.803 0.992 -6.615 0.992 -6.615 0.115 82.803
3194.75 0.117 82.727 0.992 -6.698 0.992 -6.698 0.117 82.727
3219.708 0.118 82.651 0.992 -6.781 0.992 -6.781 0.118 82.651
3244.667 0.12 82.575 0.992 -6.864 0.992 -6.864 0.12 82.575
3269.625 0.121 82.499 0.991 -6.946 0.991 -6.946 0.121 82.499
3294.583 0.122 82.423 0.991 -7.029 0.991 -7.029 0.122 82.423
3319.542 0.124 82.348 0.991 -7.111 0.991 -7.111 0.124 82.348
3344.5 0.125 82.272 0.991 -7.193 0.991 -7.193 0.125 82.272
3369.458 0.127 82.197 0.991 -7.274 0.991 -7.274 0.127 82.197
3394.417 0.128 82.121 0.991 -7.355 0.991 -7.355 0.128 82.121
3419.375 0.129 82.046 0.99 -7.437 0.99 -7.437 0.129 82.046
3444.333 0.131 81.971 0.99 -7.517 0.99 -7.517 0.131 81.971
3469.292 0.132 81.896 0.99 -7.598 0.99 -7.598 0.132 81.896
3494.25 0.134 81.821 0.99 -7.679 0.99 -7.679 0.134 81.821
3519.208 0.135 81.746 0.99 -7.759 0.99 -7.759 0.135 81.746
3544.167 0.136 81.671 0.989 -7.839 0.989 -7.839 0.136 81.671
3569.125 0.138 81.596 0.989 -7.919 0.989 -7.919 0.138 81.596
3594.083 0.139 81.521 0.989 -7.998 0.989 -7.998 0.139 81.521
3619.042 0.141 81.447 0.989 -8.077 0.989 -8.077 0.141 81.447
3644 0.142 81.372 0.989 -8.157 0.989 -8.157 0.142 81.372
3668.958 0.143 81.298 0.989 -8.236 0.989 -8.236 0.143 81.298
3693.917 0.145 81.223 0.988 -8.314 0.988 -8.314 0.145 81.223
3718.875 0.146 81.149 0.988 -8.393 0.988 -8.393 0.146 81.149
3743.833 0.147 81.075 0.988 -8.471 0.988 -8.471 0.147 81.075
3768.792 0.149 81.001 0.988 -8.55 0.988 -8.55 0.149 81.001
3793.75 0.15 80.927 0.988 -8.628 0.988 -8.628 0.15 80.927
3818.708 0.151 80.853 0.987 -8.706 0.987 -8.706 0.151 80.853
3843.667 0.153 80.78 0.987 -8.783 0.987 -8.783 0.153 80.78
3868.625 0.154 80.706 0.987 -8.861 0.987 -8.861 0.154 80.706
3893.583 0.155 80.632 0.987 -8.938 0.987 -8.938 0.155 80.632
3918.542 0.157 80.559 0.986 -9.015 0.986 -9.015 0.157 80.559
3943.5 0.158 80.486 0.986 -9.092 0.986 -9.092 0.158 80.486
3968.458 0.159 80.412 0.986 -9.169 0.986 -9.169 0.159 80.412
3993.417 0.161 80.339 0.986 -9.246 0.986 -9.246 0.161 80.339
4018.375 0.162 80.266 0.986 -9.322 0.986 -9.322 0.162 80.266
4043.333 0.163 80.193 0.985 -9.399 0.985 -9.399 0.163 80.193
4068.292 0.165 80.12 0.985 -9.475 0.985 -9.475 0.165 80.12
4093.25 0.166 80.047 0.985 -9.551 0.985 -9.551 0.166 80.047
4118.208 0.167 79.975 0.985 -9.627 0.985 -9.627 0.167 79.975
4143.167 0.169 79.902 0.985 -9.703 0.985 -9.703 0.169 79.902
4168.125 0.17 79.83 0.984 -9.779 0.984 -9.779 0.17 79.83
4193.083 0.171 79.757 0.984 -9.854 0.984 -9.854 0.171 79.757
4218.042 0.172 79.685 0.984 -9.929 0.984 -9.929 0.172 79.685
4243 0.174 79.612 0.984 -10.005 0.984 -10.005 0.174 79.612
4267.958 0.175 79.54 0.983 -10.08 0.983 -10.08 0.175 79.54
4292.917 0.176 79.468 0.983 -10.155 0.983 -10.155 0.176 79.468
4317.875 0.178 79.396 0.983 -10.23 0.983 -10.23 0.178 79.396
4342.833 0.179 79.324 0.983 -10.304 0.983 -10.304 0.179 79.324
4367.792 0.18 79.252 0.982 -10.379 0.982 -10.379 0.18 79.252
4392.75 0.181 79.181 0.982 -10.453 0.982 -10.453 0.181 79.181
4417.708 0.183 79.109 0.982 -10.527 0.982 -10.527 0.183 79.109
4442.667 0.184 79.037 0.982 -10.602 0.982 -10.602 0.184 79.037
4467.625 0.185 78.966 0.982 -10.676 0.982 -10.676 0.185 78.966
4492.583 0.187 78.895 0.981 -10.75 0.981 -10.75 0.187 78.895
4517.542 0.188 78.823 0.981 -10.823 0.981 -10.823 0.188 78.823
4542.5 0.189 78.752 0.981 -10.897 0.981 -10.897 0.189 78.752
4567.458 0.19 78.681 0.981 -10.971 0.981 -10.971 0.19 78.681
4592.417 0.192 78.61 0.98 -11.044 0.98 -11.044 0.192 78.61
4617.375 0.193 78.539 0.98 -11.117 0.98 -11.117 0.193 78.539
4642.333 0.194 78.468 0.98 -11.191 0.98 -11.191 0.194 78.468
4667.292 0.195 78.397 0.98 -11.264 0.98 -11.264 0.195 78.397
4692.25 0.197 78.326 0.979 -11.337 0.979 -11.337 0.197 78.326
4717.208 0.198 78.256 0.979 -11.41 0.979 -11.41 0.198 78.256
4742.167 0.199 78.185 0.979 -11.482 0.979 -11.482 0.199 78.185
4767.125 0.2 78.115 0.979 -11.555 0.979 -11.555 0.2 78.115
4792.083 0.202 78.044 0.978 -11.627 0.978 -11.627 0.202 78.044
4817.042 0.203 77.974 0.978 -11.7 0.978 -11.7 0.203 77.974
4842 0.204 77.904 0.978 -11.772 0.978 -11.772 0.204 77.904
4866.958 0.205 77.834 0.978 -11.844 0.978 -11.844 0.205 77.834
4891.917 0.206 77.763 0.977 -11.917 0.977 -11.917 0.206 77.763
4916.875 0.208 77.693 0.977 -11.989 0.977 -11.989 0.208 77.693
4941.833 0.209 77.623 0.977 -12.06 0.977 -12.06 0.209 77.623
4966.792 0.21 77.554 0.977 -12.132 0.977 -12.132 0.21 77.554
4991.75 0.211 77.484 0.976 -12.204 0.976 -12.204 0.211 77.484
5016.708 0.213 77.414 0.976 -12.275 0.976 -12.275 0.213 77.414
5041.667 0.214 77.344 0.976 -12.347 0.976 -12.347 0.214 77.344
5066.625 0.215 77.275 0.975 -12.418 0.975 -12.418 0.215 77.275
5091.583 0.216 77.205 0.975 -12.49 0.975 -12.49 0.216 77.205
5116.542 0.217 77.136 0.975 -12.561 0.975 -12.561 0.217 77.136
5141.5 0.219 77.067 0.975 -12.632 0.975 -12.632 0.219 77.067
5166.458 0.22 76.997 0.974 -12.703 0.974 -12.703 0.22 76.997
5191.417 0.221 76.928 0.974 -12.774 0.974 -12.774 0.221 76.928
5216.375 0.222 76.859 0.974 -12.845 0.974 -12.845 0.222 76.859
5241.333 0.224 76.79 0.974 -12.915 0.974 -12.915 0.224 76.79
5266.292 0.225 76.721 0.973 -12.986 0.973 -12.986 0.225 76.721
5291.25 0.226 76.652 0.973 -13.057 0.973 -13.057 0.226 76.652
5316.208 0.227 76.583 0.973 -13.127 0.973 -13.127 0.227 76.583
5341.167 0.228 76.515 0.972 -13.197 0.972 -13.197 0.228 76.515
5366.125 0.23 76.446 0.972 -13.268 0.972 -13.268 0.23 76.446
5391.083 0.231 76.377 0.972 -13.338 0.972 -13.338 0.231 76.377
5416.042 0.232 76.309 0.972 -13.408 0.972 -13.408 0.232 76.309
5441 0.233 76.24 0.971 -13.478 0.971 -13.478 0.233 76.24
5465.958 0.234 76.172 0.971 -13.548 0.971 -13.548 0.234 76.172
5490.917 0.235 76.104 0.971 -13.618 0.971 -13.618 0.235 76.104
5515.875 0.237 76.035 0.97 -13.687 0.97 -13.687 0.237 76.035
5540.833 0.238 75.967 0.97 -13.757 0.97 -13.757 0.238 75.967
5565.792 0.239 75.899 0.97 -13.826 0.97 -13.826 0.239 75.899
5590.75 0.24 75.831 0.97 -13.896 0.97 -13.896 0.24 75.831
5615.708 0.241 75.763 0.969 -13.965 0.969 -13.965 0.241 75.763
5640.667 0.243 75.695 0.969 -14.035 0.969 -14.035 0.243 75.695
5665.625 0.244 75.627 0.969 -14.104 0.969 -14.104 0.244 75.627
5690.583 0.245 75.56 0.968 -14.173 0.968 -14.173 0.245 75.56
5715.542 0.246 75.492 0.968 -14.242 0.968 -14.242 0.246 75.492
5740.5 0.247 75.424 0.968 -14.311 0.968 -14.311 0.247 75.424
5765.458 0.248 75.357 0.968 -14.38 0.968 -14.38 0.248 75.357
5790.417 0.25 75.289 0.967 -14.449 0.967 -14.449 0.25 75.289
5815.375 0.251 75.222 0.967 -14.517 0.967 -14.517 0.251 75.222
5840.333 0.252 75.155 0.967 -14.586 0.967 -14.586 0.252 75.155
5865.292 0.253 75.087 0.966 -14.654 0.966 -14.654 0.253 75.087
5890.25 0.254 75.02 0.966 -14.723 0.966 -14.723 0.254 75.02
5915.208 0.255 74.953 0.966 -14.791 0.966 -14.791 0.255 74.953
5940.167 0.256 74.886 0.965 -14.86 0.965 -14.86 0.256 74.886
5965.125 0.258 74.819 0.965 -14.928 0.965 -14.928 0.258 74.819
5990.083 0.259 74.752 0.965 -14.996 0.965 -14.996 0.259 74.752
6015.042 0.26 74.685 0.964 -15.064 0.964 -15.064 0.26 74.685
6040 0.261 74.618 0.964 -15.132 0.964 -15.132 0.261 74.618
6064.958 0.262 74.551 0.964 -15.2 0.964 -15.2 0.262 74.551
6089.917 0.263 74.485 0.964 -15.268 0.964 -15.268 0.263 74.485
6114.875 0.264 74.418 0.963 -15.336 0.963 -15.336 0.264 74.418
6139.833 0.266 74.352 0.963 -15.403 0.963 -15.403 0.266 74.352
6164.792 0.267 74.285 0.963 -15.471 0.963 -15.471 0.267 74.285
6189.75 0.268 74.219 0.962 -15.538 0.962 -15.538 0.268 74.219
6214.708 0.269 74.152 0.962 -15.606 0.962 -15.606 0.269 74.152
6239.667 0.27 74.086 0.962 -15.673 0.962 -15.673 0.27 74.086
6264.625 0.271 74.02 0.961 -15.741 0.961 -15.741 0.271 74.02
6289.583 0.272 73.954 0.961 -15.808 0.961 -15.808 0.272 73.954
6314.542 0.274 73.888 0.961 -15.875 0.961 -15.875 0.274 73.888
6339.5 0.275 73.822 0.96 -15.942 0.96 -15.942 0.275 73.822
6364.458 0.276 73.756 0.96 -16.009 0.96 -16.009 0.276 73.756
6389.417 0.277 73.69 0.96 -16.076 0.96 -16.076 0.277 73.69
6414.375 0.278 73.624 0.959 -16.143 0.959 -16.143 0.278 73.624
6439.333 0.279 73.558 0.959 -16.21 0.959 -16.21 0.279 73.558
6464.292 0.28 73.492 0.959 -16.276 0.959 -16.276 0.28 73.492
6489.25 0.281 73.427 0.958 -16.343 0.958 -16.343 0.281 73.427
6514.208 0.283 73.361 0.958 -16.41 0.958 -16.41 0.283 73.361
6539.167 0.284 73.296 0.958 -16.476 0.958 -16.476 0.284 73.296
6564.125 0.285 73.23 0.957 -16.542 0.957 -16.542 0.285 73.23
6589.083 0.286 73.165 0.957 -16.609 0.957 -16.609 0.286 73.165
6614.042 0.287 73.099 0.957 -16.675 0.957 -16.675 0.287 73.099
6639 0.288 73.034 0.956 -16.741 0.956 -16.741 0.288 73.034
6663.958 0.289 72.969 0.956 -16.807 0.956 -16.807 0.289 72.969
6688.917 0.29 72.904 0.956 -16.873 0.956 -16.873 0.29 72.904
6713.875 0.291 72.839 0.955 -16.939 0.955 -16.939 0.291 72.839
6738.833 0.292 72.774 0.955 -17.005 0.955 -17.005 0.292 72.774
6763.792 0.294 72.709 0.955 -17.071 0.955 -17.071 0.294 72.709
6788.75 0.295 72.644 0.954 -17.137 0.954 -17.137 0.295 72.644
6813.708 0.296 72.579 0.954 -17.203 0.954 -17.203 0.296 72.579
6838.667 0.297 72.514 0.954 -17.268 0.954 -17.268 0.297 72.514
6863.625 0.298 72.45 0.953 -17.334 0.953 -17.334 0.298 72.45
6888.583 0.299 72.385 0.953 -17.399 0.953 -17.399 0.299 72.385
6913.542 0.3 72.32 0.953 -17.465 0.953 -17.465 0.3 72.32
6938.5 0.301 72.256 0.952 -17.53 0.952 -17.53 0.301 72.256
6963.458 0.302 72.191 0.952 -17.596 0.952 -17.596 0.302 72.191
6988.417 0.303 72.127 0.952 -17.661 0.952 -17.661 0.303 72.127
7013.375 0.304 72.063 0.951 -17.726 0.951 -17.726 0.304 72.063
7038.333 0.306 71.998 0.951 -17.791 0.951 -17.791 0.306 71.998
7063.292 0.307 71.934 0.951 -17.856 0.951 -17.856 0.307 71.934
7088.25 0.308 71.87 0.95 -17.921 0.95 -17.921 0.308 71.87
7113.208 0.309 71.806 0.95 -17.986 0.95 -17.986 0.309 71.806
7138.167 0.31 71.742 0.95 -18.051 0.95 -18.051 0.31 71.742
7163.125 0.311 71.678 0.949 -18.115 0.949 -18.115 0.311 71.678
7188.083 0.312 71.614 0.949 -18.18 0.949 -18.18 0.312 71.614
7213.042 0.313 71.55 0.949 -18.245 0.949 -18.245 0.313 71.55
7238 0.314 71.487 0.948 -18.309 0.948 -18.309 0.314 71.487
7262.958 0.315 71.423 0.948 -18.374 0.948 -18.374 0.315 71.423
7287.917 0.316 71.359 0.948 -18.438 0.948 -18.438 0.316 71.359
7312.875 0.317 71.296 0.947 -18.503 0.947 -18.503 0.317 71.296
7337.833 0.318 71.232 0.947 -18.567 0.947 -18.567 0.318 71.232
7362.792 0.319 71.169 0.946 -18.631 0.946 -18.631 0.319 71.169
7387.75 0.321 71.105 0.946 -18.695 0.946 -18.695 0.321 71.105
7412.708 0.322 71.042 0.946 -18.759 0.946 -18.759 0.322 71.042
7437.667 0.323 70.979 0.945 -18.823 0.945 -18.823 0.323 70.979
7462.625 0.324 70.915 0.945 -18.887 0.945 -18.887 0.324 70.915
7487.583 0.325 70.852 0.945 -18.951 0.945 -18.951 0.325 70.852
7512.542 0.326 70.789 0.944 -19.015 0.944 -19.015 0.326 70.789
7537.5 0.327 70.726 0.944 -19.079 0.944 -19.079 0.327 70.726
7562.458 0.328 70.663 0.944 -19.142 0.944 -19.142 0.328 70.663
7587.417 0.329 70.6 0.943 -19.206 0.943 -19.206 0.329 70.6
7612.375 0.33 70.537 0.943 -19.269 0.943 -19.269 0.33 70.537
7637.333 0.331 70.475 0.942 -19.333 0.942 -19.333 0.331 70.475
7662.292 0.332 70.412 0.942 -19.396 0.942 -19.396 0.332 70.412
7687.25 0.333 70.349 0.942 -19.46 0.942 -19.46 0.333 70.349
7712.208 0.334 70.287 0.941 -19.523 0.941 -19.523 0.334 70.287
7737.167 0.335 70.224 0.941 -19.586 0.941 -19.586 0.335 70.224
7762.125 0.336 70.161 0.941 -19.649 0.941 -19.649 0.336 70.161
7787.083 0.337 70.099 0.94 -19.712 0.94 -19.712 0.337 70.099
7812.042 0.338 70.037 0.94 -19.775 0.94 -19.775 0.338 70.037
7837 0.339 69.974 0.94 -19.838 0.94 -19.838 0.339 69.974
7861.958 0.34 69.912 0.939 -19.901 0.939 -19.901 0.34 69.912
7886.917 0.341 69.85 0.939 -19.964 0.939 -19.964 0.341 69.85
7911.875 0.342 69.788 0.938 -20.027 0.938 -20.027 0.342 69.788
7936.833 0.343 69.726 0.938 -20.09 0.938 -20.09 0.343 69.726
7961.792 0.345 69.664 0.938 -20.152 0.938 -20.152 0.345 69.664
7986.75 0.346 69.602 0.937 -20.215 0.937 -20.215 0.346 69.602
8011.708 0.347 69.54 0.937 -20.277 0.937 -20.277 0.347 69.54
8036.667 0.348 69.478 0.937 -20.34 0.937 -20.34 0.348 69.478
8061.625 0.349 69.416 0.936 -20.402 0.936 -20.402 0.349 69.416
8086.583 0.35 69.355 0.936 -20.464 0.936 -20.464 0.35 69.355
8111.542 0.351 69.293 0.935 -20.527 0.935 -20.527 0.351 69.293
8136.5 0.352 69.231 0.935 -20.589 0.935 -20.589 0.352 69.231
8161.458 0.353 69.17 0.935 -20.651 0.935 -20.651 0.353 69.17
8186.417 0.354 69.108 0.934 -20.713 0.934 -20.713 0.354 69.108
