# MHZ S MA R 50

50 0.996 -5.207 0.091 84.785 0.091 84.785 0.996 -5.207
74.958 0.991 -7.781 0.135 82.206 0.135 82.206 0.991 -7.781
99.917 0.984 -10.326 0.179 79.657 0.179 79.657 0.984 -10.326
124.875 0.975 -12.834 0.222 77.144 0.222 77.144 0.975 -12.834
149.833 0.964 -15.297 0.264 74.678 0.264 74.678 0.964 -15.297
174.792 0.952 -17.707 0.304 72.263 0.304 72.263 0.952 -17.707
199.75 0.939 -20.06 0.343 69.906 0.343 69.906 0.939 -20.06
224.708 0.925 -22.349 0.38 67.613 0.38 67.613 0.925 -22.349
249.667 0.909 -24.572 0.416 65.386 0.416 65.386 0.909 -24.572
274.625 0.893 -26.724 0.45 63.229 0.45 63.229 0.893 -26.724
299.583 0.876 -28.806 0.482 61.143 0.482 61.143 0.876 -28.806
324.542 0.858 -30.814 0.512 59.131 0.512 59.131 0.858 -30.814
349.5 0.84 -32.749 0.541 57.191 0.541 57.191 0.84 -32.749
374.458 0.822 -34.612 0.568 55.324 0.568 55.324 0.822 -34.612
399.417 0.804 -36.402 0.593 53.529 0.593 53.529 0.804 -36.402
424.375 0.786 -38.122 0.617 51.805 0.617 51.805 0.786 -38.122
449.333 0.768 -39.773 0.64 50.15 0.64 50.15 0.768 -39.773
474.292 0.75 -41.357 0.661 48.562 0.661 48.562 0.75 -41.357
499.25 0.732 -42.875 0.68 47.038 0.68 47.038 0.732 -42.875
524.208 0.714 -44.331 0.699 45.578 0.699 45.578 0.714 -44.331
549.167 0.697 -45.727 0.716 44.177 0.716 44.177 0.697 -45.727
574.125 0.68 -47.065 0.732 42.835 0.732 42.835 0.68 -47.065
599.083 0.663 -48.348 0.747 41.547 0.747 41.547 0.663 -48.348
624.042 0.647 -49.579 0.761 40.312 0.761 40.312 0.647 -49.579
649 0.631 -50.759 0.774 39.127 0.774 39.127 0.631 -50.759
673.958 0.616 -51.891 0.787 37.991 0.787 37.991 0.616 -51.891
698.917 0.6 -52.977 0.798 36.9 0.798 36.9 0.6 -52.977
723.875 0.586 -54.02 0.809 35.852 0.809 35.852 0.586 -54.02
748.833 0.571 -55.022 0.819 34.845 0.819 34.845 0.571 -55.022
773.792 0.557 -55.985 0.829 33.877 0.829 33.877 0.557 -55.985
798.75 0.544 -56.91 0.838 32.947 0.838 32.947 0.544 -56.91
823.708 0.531 -57.8 0.846 32.052 0.846 32.052 0.531 -57.8
848.667 0.518 -58.657 0.854 31.19 0.854 31.19 0.518 -58.657
873.625 0.505 -59.482 0.861 30.359 0.861 30.359 0.505 -59.482
898.583 0.493 -60.277 0.868 29.559 0.868 29.559 0.493 -60.277
923.542 0.482 -61.043 0.875 28.788 0.875 28.788 0.482 -61.043
948.5 0.47 -61.782 0.881 28.044 0.881 28.044 0.47 -61.782
973.458 0.459 -62.496 0.887 27.325 0.887 27.325 0.459 -62.496
998.417 0.448 -63.184 0.892 26.631 0.892 26.631 0.448 -63.184
1023.375 0.438 -63.85 0.898 25.96 0.898 25.96 0.438 -63.85
1048.333 0.428 -64.493 0.903 25.311 0.903 25.311 0.428 -64.493
1073.292 0.418 -65.115 0.907 24.684 0.907 24.684 0.418 -65.115
1098.25 0.408 -65.717 0.912 24.076 0.912 24.076 0.408 -65.717
1123.208 0.399 -66.3 0.916 23.487 0.916 23.487 0.399 -66.3
1148.167 0.389 -66.864 0.92 22.917 0.92 22.917 0.389 -66.864
1173.125 0.38 -67.411 0.923 22.363 0.923 22.363 0.38 -67.411
1198.083 0.372 -67.942 0.927 21.826 0.927 21.826 0.372 -67.942
1223.042 0.363 -68.457 0.93 21.305 0.93 21.305 0.363 -68.457
1248 0.355 -68.957 0.933 20.799 0.933 20.799 0.355 -68.957
1272.958 0.347 -69.442 0.936 20.307 0.936 20.307 0.347 -69.442
1297.917 0.339 -69.914 0.939 19.829 0.939 19.829 0.339 -69.914
1322.875 0.332 -70.372 0.942 19.364 0.942 19.364 0.332 -70.372
1347.833 0.324 -70.818 0.944 18.911 0.944 18.911 0.324 -70.818
1372.792 0.317 -71.252 0.947 18.47 0.947 18.47 0.317 -71.252
1397.75 0.31 -71.675 0.949 18.041 0.949 18.041 0.31 -71.675
1422.708 0.303 -72.086 0.952 17.622 0.952 17.622 0.303 -72.086
1447.667 0.296 -72.487 0.954 17.214 0.954 17.214 0.296 -72.487
1472.625 0.289 -72.877 0.956 16.816 0.956 16.816 0.289 -72.877
1497.583 0.283 -73.258 0.958 16.428 0.958 16.428 0.283 -73.258
1522.542 0.276 -73.629 0.959 16.048 0.959 16.048 0.276 -73.629
1547.5 0.27 -73.992 0.961 15.678 0.961 15.678 0.27 -73.992
1572.458 0.264 -74.346 0.963 15.316 0.963 15.316 0.264 -74.346
1597.417 0.258 -74.691 0.965 14.962 0.965 14.962 0.258 -74.691
1622.375 0.252 -75.029 0.966 14.616 0.966 14.616 0.252 -75.029
1647.333 0.247 -75.358 0.968 14.277 0.968 14.277 0.247 -75.358
1672.292 0.241 -75.681 0.969 13.946 0.969 13.946 0.241 -75.681
1697.25 0.236 -75.996 0.97 13.622 0.97 13.622 0.236 -75.996
1722.208 0.23 -76.304 0.972 13.304 0.972 13.304 0.23 -76.304
1747.167 0.225 -76.605 0.973 12.993 0.973 12.993 0.225 -76.605
1772.125 0.22 -76.9 0.974 12.688 0.974 12.688 0.22 -76.9
1797.083 0.215 -77.189 0.975 12.389 0.975 12.389 0.215 -77.189
1822.042 0.21 -77.472 0.976 12.095 0.976 12.095 0.21 -77.472
1847 0.205 -77.749 0.977 11.808 0.977 11.808 0.205 -77.749
1871.958 0.2 -78.02 0.978 11.525 0.978 11.525 0.2 -78.02
1896.917 0.195 -78.286 0.979 11.248 0.979 11.248 0.195 -78.286
1921.875 0.19 -78.546 0.98 10.976 0.98 10.976 0.19 -78.546
1946.833 0.186 -78.801 0.981 10.708 0.981 10.708 0.186 -78.801
1971.792 0.181 -79.052 0.982 10.446 0.982 10.446 0.181 -79.052
1996.75 0.177 -79.297 0.983 10.187 0.983 10.187 0.177 -79.297
2021.708 0.173 -79.537 0.983 9.933 0.983 9.933 0.173 -79.537
2046.667 0.168 -79.773 0.984 9.684 0.984 9.684 0.168 -79.773
2071.625 0.164 -80.004 0.985 9.438 0.985 9.438 0.164 -80.004
2096.583 0.16 -80.231 0.986 9.196 0.986 9.196 0.16 -80.231
2121.542 0.156 -80.454 0.986 8.958 0.986 8.958 0.156 -80.454
2146.5 0.152 -80.672 0.987 8.724 0.987 8.724 0.152 -80.672
2171.458 0.148 -80.886 0.987 8.494 0.987 8.494 0.148 -80.886
2196.417 0.144 -81.096 0.988 8.266 0.988 8.266 0.144 -81.096
2221.375 0.14 -81.301 0.989 8.043 0.989 8.043 0.14 -81.301
2246.333 0.136 -81.503 0.989 7.822 0.989 7.822 0.136 -81.503
2271.292 0.132 -81.701 0.99 7.605 0.99 7.605 0.132 -81.701
2296.25 0.129 -81.895 0.99 7.39 0.99 7.39 0.129 -81.895
2321.208 0.125 -82.085 0.991 7.179 0.991 7.179 0.125 -82.085
2346.167 0.121 -82.272 0.991 6.97 0.991 6.97 0.121 -82.272
2371.125 0.118 -82.454 0.991 6.765 0.991 6.765 0.118 -82.454
2396.083 0.114 -82.633 0.992 6.562 0.992 6.562 0.114 -82.633
2421.042 0.111 -82.807 0.992 6.361 0.992 6.361 0.111 -82.807
2446 0.107 -82.978 0.993 6.164 0.993 6.164 0.107 -82.978
2470.958 0.104 -83.145 0.993 5.968 0.993 5.968 0.104 -83.145
2495.917 0.101 -83.308 0.993 5.776 0.993 5.776 0.101 -83.308
2520.875 0.097 -83.467 0.994 5.585 0.994 5.585 0.097 -83.467
2545.833 0.094 -83.622 0.994 5.397 0.994 5.397 0.094 -83.622
2570.792 0.091 -83.773 0.994 5.211 0.994 5.211 0.091 -83.773
2595.75 0.088 -83.919 0.995 5.027 0.995 5.027 0.088 -83.919
2620.708 0.084 -84.061 0.995 4.846 0.995 4.846 0.084 -84.061
2645.667 0.081 -84.199 0.995 4.666 0.995 4.666 0.081 -84.199
2670.625 0.078 -84.331 0.995 4.488 0.995 4.488 0.078 -84.331
2695.583 0.075 -84.458 0.996 4.313 0.996 4.313 0.075 -84.458
2720.542 0.072 -84.58 0.996 4.139 0.996 4.139 0.072 -84.58
2745.5 0.069 -84.697 0.996 3.967 0.996 3.967 0.069 -84.697
2770.458 0.066 -84.807 0.996 3.797 0.996 3.797 0.066 -84.807
2795.417 0.063 -84.91 0.996 3.629 0.996 3.629 0.063 -84.91
2820.375 0.06 -85.006 0.997 3.462 0.997 3.462 0.06 -85.006
2845.333 0.058 -85.094 0.997 3.297 0.997 3.297 0.058 -85.094
2870.292 0.055 -85.174 0.997 3.134 0.997 3.134 0.055 -85.174
2895.25 0.052 -85.243 0.997 2.973 0.997 2.973 0.052 -85.243
2920.208 0.049 -85.302 0.997 2.812 0.997 2.812 0.049 -85.302
2945.167 0.046 -85.347 0.997 2.654 0.997 2.654 0.046 -85.347
2970.125 0.044 -85.379 0.997 2.497 0.997 2.497 0.044 -85.379
2995.083 0.041 -85.393 0.998 2.341 0.998 2.341 0.041 -85.393
3020.042 0.038 -85.387 0.998 2.187 0.998 2.187 0.038 -85.387
3045 0.036 -85.358 0.998 2.034 0.998 2.034 0.036 -85.358
3069.958 0.033 -85.3 0.998 1.883 0.998 1.883 0.033 -85.3
3094.917 0.03 -85.206 0.998 1.733 0.998 1.733 0.03 -85.206
3119.875 0.028 -85.068 0.998 1.584 0.998 1.584 0.028 -85.068
3144.833 0.025 -84.872 0.998 1.436 0.998 1.436 0.025 -84.872
3169.792 0.023 -84.6 0.998 1.29 0.998 1.29 0.023 -84.6
3194.75 0.02 -84.226 0.998 1.145 0.998 1.145 0.02 -84.226
3219.708 0.018 -83.708 0.998 1.001 0.998 1.001 0.018 -83.708
3244.667 0.015 -82.976 0.998 0.858 0.998 0.858 0.015 -82.976
3269.625 0.013 -81.91 0.998 0.716 0.998 0.716 0.013 -81.91
3294.583 0.01 -80.278 0.998 0.576 0.998 0.576 0.01 -80.278
3319.542 7.783e-3 -77.568 0.998 0.436 0.998 0.436 7.783e-3 -77.568
3344.5 5.444e-3 -72.414 0.998 0.298 0.998 0.298 5.444e-3 -72.414
3369.458 3.234e-3 -59.826 0.998 0.16 0.998 0.16 3.234e-3 -59.826
3394.417 1.672e-3 -14.563 0.998 0.024 0.998 0.024 1.672e-3 -14.563
3419.375 2.527e-3 50.08 0.998 -0.111 0.998 -0.111 2.527e-3 50.08
3444.333 4.581e-3 69.076 0.998 -0.246 0.998 -0.246 4.581e-3 69.076
3469.292 6.809e-3 75.877 0.998 -0.379 0.998 -0.379 6.809e-3 75.877
3494.25 9.071e-3 79.216 0.998 -0.511 0.998 -0.511 9.071e-3 79.216
3519.208 0.011 81.154 0.998 -0.643 0.998 -0.643 0.011 81.154
3544.167 0.014 82.394 0.998 -0.774 0.998 -0.774 0.014 82.394
3569.125 0.016 83.239 0.998 -0.903 0.998 -0.903 0.016 83.239
3594.083 0.018 83.837 0.998 -1.032 0.998 -1.032 0.018 83.837
3619.042 0.02 84.273 0.998 -1.16 0.998 -1.16 0.02 84.273
3644 0.023 84.595 0.998 -1.287 0.998 -1.287 0.023 84.595
3668.958 0.025 84.836 0.998 -1.414 0.998 -1.414 0.025 84.836
3693.917 0.027 85.016 0.998 -1.539 0.998 -1.539 0.027 85.016
3718.875 0.029 85.149 0.998 -1.664 0.998 -1.664 0.029 85.149
3743.833 0.031 85.246 0.998 -1.788 0.998 -1.788 0.031 85.246
3768.792 0.033 85.313 0.998 -1.911 0.998 -1.911 0.033 85.313
3793.75 0.036 85.358 0.998 -2.034 0.998 -2.034 0.036 85.358
3818.708 0.038 85.383 0.998 -2.155 0.998 -2.155 0.038 85.383
3843.667 0.04 85.393 0.998 -2.277 0.998 -2.277 0.04 85.393
3868.625 0.042 85.39 0.998 -2.397 0.998 -2.397 0.042 85.39
3893.583 0.044 85.375 0.997 -2.516 0.997 -2.516 0.044 85.375
3918.542 0.046 85.352 0.997 -2.635 0.997 -2.635 0.046 85.352
3943.5 0.048 85.32 0.997 -2.754 0.997 -2.754 0.048 85.32
3968.458 0.05 85.281 0.997 -2.871 0.997 -2.871 0.05 85.281
3993.417 0.052 85.237 0.997 -2.988 0.997 -2.988 0.052 85.237
4018.375 0.054 85.187 0.997 -3.105 0.997 -3.105 0.054 85.187
4043.333 0.056 85.133 0.997 -3.22 0.997 -3.22 0.056 85.133
4068.292 0.058 85.075 0.997 -3.335 0.997 -3.335 0.058 85.075
4093.25 0.06 85.013 0.997 -3.45 0.997 -3.45 0.06 85.013
4118.208 0.062 84.948 0.996 -3.564 0.996 -3.564 0.062 84.948
4143.167 0.064 84.881 0.996 -3.677 0.996 -3.677 0.064 84.881
4168.125 0.066 84.811 0.996 -3.79 0.996 -3.79 0.066 84.811
4193.083 0.068 84.739 0.996 -3.902 0.996 -3.902 0.068 84.739
4218.042 0.07 84.666 0.996 -4.013 0.996 -4.013 0.07 84.666
4243 0.072 84.59 0.996 -4.124 0.996 -4.124 0.072 84.59
4267.958 0.074 84.514 0.996 -4.235 0.996 -4.235 0.074 84.514
4292.917 0.076 84.435 0.996 -4.345 0.996 -4.345 0.076 84.435
4317.875 0.078 84.356 0.995 -4.454 0.995 -4.454 0.078 84.356
4342.833 0.08 84.276 0.995 -4.563 0.995 -4.563 0.08 84.276
4367.792 0.081 84.194 0.995 -4.672 0.995 -4.672 0.081 84.194
4392.75 0.083 84.112 0.995 -4.78 0.995 -4.78 0.083 84.112
4417.708 0.085 84.029 0.995 -4.887 0.995 -4.887 0.085 84.029
4442.667 0.087 83.945 0.995 -4.994 0.995 -4.994 0.087 83.945
4467.625 0.089 83.861 0.994 -5.101 0.994 -5.101 0.089 83.861
4492.583 0.091 83.776 0.994 -5.207 0.994 -5.207 0.091 83.776
4517.542 0.093 83.691 0.994 -5.312 0.994 -5.312 0.093 83.691
4542.5 0.094 83.606 0.994 -5.417 0.994 -5.417 0.094 83.606
4567.458 0.096 83.52 0.994 -5.522 0.994 -5.522 0.096 83.52
4592.417 0.098 83.433 0.994 -5.626 0.994 -5.626 0.098 83.433
4617.375 0.1 83.347 0.993 -5.73 0.993 -5.73 0.1 83.347
4642.333 0.102 83.26 0.993 -5.833 0.993 -5.833 0.102 83.26
4667.292 0.103 83.173 0.993 -5.936 0.993 -5.936 0.103 83.173
4692.25 0.105 83.085 0.993 -6.038 0.993 -6.038 0.105 83.085
4717.208 0.107 82.998 0.993 -6.14 0.993 -6.14 0.107 82.998
4742.167 0.109 82.911 0.992 -6.242 0.992 -6.242 0.109 82.911
4767.125 0.11 82.823 0.992 -6.343 0.992 -6.343 0.11 82.823
4792.083 0.112 82.735 0.992 -6.444 0.992 -6.444 0.112 82.735
4817.042 0.114 82.647 0.992 -6.545 0.992 -6.545 0.114 82.647
4842 0.116 82.56 0.992 -6.645 0.992 -6.645 0.116 82.56
4866.958 0.117 82.472 0.991 -6.745 0.991 -6.745 0.117 82.472
4891.917 0.119 82.384 0.991 -6.844 0.991 -6.844 0.119 82.384
4916.875 0.121 82.296 0.991 -6.943 0.991 -6.943 0.121 82.296
4941.833 0.123 82.208 0.991 -7.041 0.991 -7.041 0.123 82.208
4966.792 0.124 82.12 0.991 -7.14 0.991 -7.14 0.124 82.12
4991.75 0.126 82.033 0.99 -7.237 0.99 -7.237 0.126 82.033
5016.708 0.128 81.945 0.99 -7.335 0.99 -7.335 0.128 81.945
5041.667 0.129 81.857 0.99 -7.432 0.99 -7.432 0.129 81.857
5066.625 0.131 81.77 0.99 -7.529 0.99 -7.529 0.131 81.77
5091.583 0.133 81.682 0.99 -7.625 0.99 -7.625 0.133 81.682
5116.542 0.134 81.595 0.989 -7.722 0.989 -7.722 0.134 81.595
5141.5 0.136 81.507 0.989 -7.817 0.989 -7.817 0.136 81.507
5166.458 0.138 81.42 0.989 -7.913 0.989 -7.913 0.138 81.42
5191.417 0.139 81.333 0.989 -8.008 0.989 -8.008 0.139 81.333
5216.375 0.141 81.246 0.988 -8.103 0.988 -8.103 0.141 81.246
5241.333 0.143 81.159 0.988 -8.198 0.988 -8.198 0.143 81.159
5266.292 0.144 81.072 0.988 -8.292 0.988 -8.292 0.144 81.072
5291.25 0.146 80.986 0.988 -8.386 0.988 -8.386 0.146 80.986
5316.208 0.147 80.899 0.987 -8.479 0.987 -8.479 0.147 80.899
5341.167 0.149 80.813 0.987 -8.573 0.987 -8.573 0.149 80.813
5366.125 0.151 80.726 0.987 -8.666 0.987 -8.666 0.151 80.726
5391.083 0.152 80.64 0.987 -8.758 0.987 -8.758 0.152 80.64
5416.042 0.154 80.554 0.986 -8.851 0.986 -8.851 0.154 80.554
5441 0.155 80.468 0.986 -8.943 0.986 -8.943 0.155 80.468
5465.958 0.157 80.382 0.986 -9.035 0.986 -9.035 0.157 80.382
5490.917 0.159 80.297 0.986 -9.126 0.986 -9.126 0.159 80.297
5515.875 0.16 80.211 0.985 -9.218 0.985 -9.218 0.16 80.211
5540.833 0.162 80.126 0.985 -9.309 0.985 -9.309 0.162 80.126
5565.792 0.163 80.041 0.985 -9.4 0.985 -9.4 0.163 80.041
5590.75 0.165 79.955 0.985 -9.49 0.985 -9.49 0.165 79.955
5615.708 0.166 79.871 0.984 -9.58 0.984 -9.58 0.166 79.871
5640.667 0.168 79.786 0.984 -9.67 0.984 -9.67 0.168 79.786
5665.625 0.17 79.701 0.984 -9.76 0.984 -9.76 0.17 79.701
5690.583 0.171 79.617 0.984 -9.849 0.984 -9.849 0.171 79.617
5715.542 0.173 79.532 0.983 -9.939 0.983 -9.939 0.173 79.532
5740.5 0.174 79.448 0.983 -10.028 0.983 -10.028 0.174 79.448
5765.458 0.176 79.364 0.983 -10.116 0.983 -10.116 0.176 79.364
5790.417 0.177 79.28 0.983 -10.205 0.983 -10.205 0.177 79.28
5815.375 0.179 79.197 0.982 -10.293 0.982 -10.293 0.179 79.197
5840.333 0.18 79.113 0.982 -10.381 0.982 -10.381 0.18 79.113
5865.292 0.182 79.03 0.982 -10.469 0.982 -10.469 0.182 79.03
5890.25 0.183 78.946 0.981 -10.556 0.981 -10.556 0.183 78.946
5915.208 0.185 78.863 0.981 -10.643 0.981 -10.643 0.185 78.863
5940.167 0.186 78.78 0.981 -10.73 0.981 -10.73 0.186 78.78
5965.125 0.188 78.698 0.981 -10.817 0.981 -10.817 0.188 78.698
5990.083 0.189 78.615 0.98 -10.904 0.98 -10.904 0.189 78.615
6015.042 0.191 78.533 0.98 -10.99 0.98 -10.99 0.191 78.533
6040 0.192 78.45 0.98 -11.076 0.98 -11.076 0.192 78.45
6064.958 0.194 78.368 0.979 -11.162 0.979 -11.162 0.194 78.368
6089.917 0.195 78.286 0.979 -11.248 0.979 -11.248 0.195 78.286
6114.875 0.197 78.204 0.979 -11.333 0.979 -11.333 0.197 78.204
6139.833 0.198 78.123 0.979 -11.419 0.979 -11.419 0.198 78.123
6164.792 0.199 78.041 0.978 -11.504 0.978 -11.504 0.199 78.041
6189.75 0.201 77.96 0.978 -11.588 0.978 -11.588 0.201 77.96
6214.708 0.202 77.878 0.978 -11.673 0.978 -11.673 0.202 77.878
6239.667 0.204 77.797 0.977 -11.757 0.977 -11.757 0.204 77.797
6264.625 0.205 77.716 0.977 -11.842 0.977 -11.842 0.205 77.716
6289.583 0.207 77.636 0.977 -11.926 0.977 -11.926 0.207 77.636
6314.542 0.208 77.555 0.977 -12.009 0.977 -12.009 0.208 77.555
6339.5 0.21 77.474 0.976 -12.093 0.976 -12.093 0.21 77.474
6364.458 0.211 77.394 0.976 -12.176 0.976 -12.176 0.211 77.394
6389.417 0.212 77.314 0.976 -12.26 0.976 -12.26 0.212 77.314
6414.375 0.214 77.234 0.975 -12.343 0.975 -12.343 0.214 77.234
6439.333 0.215 77.154 0.975 -12.425 0.975 -12.425 0.215 77.154
6464.292 0.217 77.074 0.975 -12.508 0.975 -12.508 0.217 77.074
6489.25 0.218 76.995 0.974 -12.59 0.974 -12.59 0.218 76.995
6514.208 0.219 76.915 0.974 -12.673 0.974 -12.673 0.219 76.915
6539.167 0.221 76.836 0.974 -12.755 0.974 -12.755 0.221 76.836
6564.125 0.222 76.757 0.973 -12.837 0.973 -12.837 0.222 76.757
6589.083 0.224 76.678 0.973 -12.918 0.973 -12.918 0.224 76.678
6614.042 0.225 76.599 0.973 -13 0.973 -13 0.225 76.599
6639 0.226 76.52 0.972 -13.081 0.972 -13.081 0.226 76.52
6663.958 0.228 76.441 0.972 -13.162 0.972 -13.162 0.228 76.441
6688.917 0.229 76.363 0.972 -13.243 0.972 -13.243 0.229 76.363
6713.875 0.23 76.285 0.972 -13.324 0.972 -13.324 0.23 76.285
6738.833 0.232 76.207 0.971 -13.404 0.971 -13.404 0.232 76.207
6763.792 0.233 76.129 0.971 -13.485 0.971 -13.485 0.233 76.129
6788.75 0.235 76.051 0.971 -13.565 0.971 -13.565 0.235 76.051
6813.708 0.236 75.973 0.97 -13.645 0.97 -13.645 0.236 75.973
6838.667 0.237 75.895 0.97 -13.725 0.97 -13.725 0.237 75.895
6863.625 0.239 75.818 0.97 -13.805 0.97 -13.805 0.239 75.818
6888.583 0.24 75.741 0.969 -13.884 0.969 -13.884 0.24 75.741
6913.542 0.241 75.663 0.969 -13.964 0.969 -13.964 0.241 75.663
6938.5 0.243 75.586 0.969 -14.043 0.969 -14.043 0.243 75.586
6963.458 0.244 75.509 0.968 -14.122 0.968 -14.122 0.244 75.509
6988.417 0.245 75.433 0.968 -14.201 0.968 -14.201 0.245 75.433
7013.375 0.247 75.356 0.968 -14.28 0.968 -14.28 0.247 75.356
7038.333 0.248 75.28 0.967 -14.358 0.967 -14.358 0.248 75.28
7063.292 0.249 75.203 0.967 -14.437 0.967 -14.437 0.249 75.203
7088.25 0.251 75.127 0.967 -14.515 0.967 -14.515 0.251 75.127
7113.208 0.252 75.051 0.966 -14.593 0.966 -14.593 0.252 75.051
7138.167 0.253 74.975 0.966 -14.671 0.966 -14.671 0.253 74.975
7163.125 0.255 74.899 0.965 -14.749 0.965 -14.749 0.255 74.899
7188.083 0.256 74.823 0.965 -14.826 0.965 -14.826 0.256 74.823
7213.042 0.257 74.748 0.965 -14.904 0.965 -14.904 0.257 74.748
7238 0.259 74.672 0.964 -14.981 0.964 -14.981 0.259 74.672
7262.958 0.26 74.597 0.964 -15.058 0.964 -15.058 0.26 74.597
7287.917 0.261 74.522 0.964 -15.135 0.964 -15.135 0.261 74.522
7312.875 0.262 74.447 0.963 -15.212 0.963 -15.212 0.262 74.447
7337.833 0.264 74.372 0.963 -15.289 0.963 -15.289 0.264 74.372
7362.792 0.265 74.297 0.963 -15.366 0.963 -15.366 0.265 74.297
7387.75 0.266 74.222 0.962 -15.442 0.962 -15.442 0.266 74.222
7412.708 0.268 74.148 0.962 -15.518 0.962 -15.518 0.268 74.148
7437.667 0.269 74.073 0.962 -15.594 0.962 -15.594 0.269 74.073
7462.625 0.27 73.999 0.961 -15.67 0.961 -15.67 0.27 73.999
7487.583 0.271 73.925 0.961 -15.746 0.961 -15.746 0.271 73.925
7512.542 0.273 73.851 0.961 -15.822 0.961 -15.822 0.273 73.851
7537.5 0.274 73.777 0.96 -15.898 0.96 -15.898 0.274 73.777
7562.458 0.275 73.703 0.96 -15.973 0.96 -15.973 0.275 73.703
7587.417 0.276 73.629 0.959 -16.048 0.959 -16.048 0.276 73.629
7612.375 0.278 73.556 0.959 -16.123 0.959 -16.123 0.278 73.556
7637.333 0.279 73.482 0.959 -16.198 0.959 -16.198 0.279 73.482
7662.292 0.28 73.409 0.958 -16.273 0.958 -16.273 0.28 73.409
7687.25 0.281 73.336 0.958 -16.348 0.958 -16.348 0.281 73.336
7712.208 0.283 73.263 0.958 -16.423 0.958 -16.423 0.283 73.263
7737.167 0.284 73.19 0.957 -16.497 0.957 -16.497 0.284 73.19
7762.125 0.285 73.117 0.957 -16.571 0.957 -16.571 0.285 73.117
7787.083 0.286 73.044 0.957 -16.646 0.957 -16.646 0.286 73.044
7812.042 0.288 72.972 0.956 -16.72 0.956 -16.72 0.288 72.972
7837 0.289 72.899 0.956 -16.794 0.956 -16.794 0.289 72.899
7861.958 0.29 72.827 0.955 -16.867 0.955 -16.867 0.29 72.827
7886.917 0.291 72.755 0.955 -16.941 0.955 -16.941 0.291 72.755
7911.875 0.293 72.683 0.955 -17.015 0.955 -17.015 0.293 72.683
7936.833 0.294 72.611 0.954 -17.088 0.954 -17.088 0.294 72.611
7961.792 0.295 72.539 0.954 -17.161 0.954 -17.161 0.295 72.539
7986.75 0.296 72.467 0.954 -17.234 0.954 -17.234 0.296 72.467
8011.708 0.298 72.395 0.953 -17.307 0.953 -17.307 0.298 72.395
8036.667 0.299 72.324 0.953 -17.38 0.953 -17.38 0.299 72.324
8061.625 0.3 72.252 0.952 -17.453 0.952 -17.453 0.3 72.252
8086.583 0.301 72.181 0.952 -17.526 0.952 -17.526 0.301 72.181
8111.542 0.302 72.11 0.952 -17.598 0.952 -17.598 0.302 72.11
8136.5 0.304 72.038 0.951 -17.671 0.951 -17.671 0.304 72.038
8161.458 0.305 71.968 0.951 -17.743 0.951 -17.743 0.305 71.968
8186.417 0.306 71.897 0.951 -17.815 0.951 -17.815 0.306 71.897
8211.375 0.307 71.826 0.95 -17.887 0.95 -17.887 0.307 71.826
