# MHZ S MA R 50

50 1 -1.8 0.031 88.196 0.031 88.196 1 -1.8
74.958 0.999 -2.697 0.047 87.296 0.047 87.296 0.999 -2.697
99.917 0.998 -3.593 0.063 86.398 0.063 86.398 0.998 -3.593
124.875 0.997 -4.488 0.078 85.501 0.078 85.501 0.997 -4.488
149.833 0.996 -5.382 0.094 84.605 0.094 84.605 0.996 -5.382
174.792 0.994 -6.273 0.109 83.712 0.109 83.712 0.994 -6.273
199.75 0.992 -7.162 0.125 82.821 0.125 82.821 0.992 -7.162
224.708 0.99 -8.048 0.14 81.932 0.14 81.932 0.99 -8.048
249.667 0.988 -8.932 0.155 81.047 0.155 81.047 0.988 -8.932
274.625 0.985 -9.812 0.17 80.164 0.17 80.164 0.985 -9.812
299.583 0.983 -10.688 0.185 79.286 0.185 79.286 0.983 -10.688
324.542 0.98 -11.56 0.2 78.411 0.2 78.411 0.98 -11.56
349.5 0.976 -12.429 0.215 77.541 0.215 77.541 0.976 -12.429
374.458 0.973 -13.293 0.23 76.674 0.23 76.674 0.973 -13.293
399.417 0.97 -14.152 0.244 75.813 0.244 75.813 0.97 -14.152
424.375 0.966 -15.006 0.259 74.956 0.259 74.956 0.966 -15.006
449.333 0.962 -15.855 0.273 74.105 0.273 74.105 0.962 -15.855
474.292 0.958 -16.699 0.287 73.259 0.287 73.259 0.958 -16.699
499.25 0.953 -17.537 0.301 72.419 0.301 72.419 0.953 -17.537
524.208 0.949 -18.369 0.315 71.584 0.315 71.584 0.949 -18.369
549.167 0.944 -19.196 0.329 70.756 0.329 70.756 0.944 -19.196
574.125 0.939 -20.015 0.342 69.934 0.342 69.934 0.939 -20.015
599.083 0.934 -20.829 0.356 69.118 0.356 69.118 0.934 -20.829
624.042 0.929 -21.636 0.369 68.309 0.369 68.309 0.929 -21.636
649 0.924 -22.436 0.382 67.506 0.382 67.506 0.924 -22.436
673.958 0.919 -23.23 0.394 66.711 0.394 66.711 0.919 -23.23
698.917 0.913 -24.016 0.407 65.922 0.407 65.922 0.913 -24.016
723.875 0.907 -24.795 0.419 65.141 0.419 65.141 0.907 -24.795
748.833 0.902 -25.567 0.432 64.366 0.432 64.366 0.902 -25.567
773.792 0.896 -26.332 0.444 63.599 0.444 63.599 0.896 -26.332
798.75 0.89 -27.09 0.455 62.839 0.455 62.839 0.89 -27.09
823.708 0.884 -27.839 0.467 62.087 0.467 62.087 0.884 -27.839
848.667 0.878 -28.582 0.478 61.342 0.478 61.342 0.878 -28.582
873.625 0.871 -29.317 0.49 60.605 0.49 60.605 0.871 -29.317
898.583 0.865 -30.044 0.501 59.876 0.501 59.876 0.865 -30.044
923.542 0.859 -30.763 0.511 59.154 0.511 59.154 0.859 -30.763
948.5 0.852 -31.475 0.522 58.44 0.522 58.44 0.852 -31.475
973.458 0.846 -32.179 0.533 57.733 0.533 57.733 0.846 -32.179
998.417 0.839 -32.876 0.543 57.035 0.543 57.035 0.839 -32.876
1023.375 0.832 -33.564 0.553 56.344 0.553 56.344 0.832 -33.564
1048.333 0.826 -34.245 0.563 55.66 0.563 55.66 0.826 -34.245
1073.292 0.819 -34.918 0.572 54.985 0.572 54.985 0.819 -34.918
1098.25 0.812 -35.583 0.582 54.317 0.582 54.317 0.812 -35.583
1123.208 0.805 -36.241 0.591 53.657 0.591 53.657 0.805 -36.241
1148.167 0.799 -36.891 0.6 53.004 0.6 53.004 0.799 -36.891
1173.125 0.792 -37.534 0.609 52.36 0.609 52.36 0.792 -37.534
1198.083 0.785 -38.169 0.618 51.722 0.618 51.722 0.785 -38.169
1223.042 0.778 -38.796 0.627 51.092 0.627 51.092 0.778 -38.796
1248 0.771 -39.416 0.635 50.47 0.635 50.47 0.771 -39.416
1272.958 0.764 -40.028 0.643 49.855 0.643 49.855 0.764 -40.028
1297.917 0.758 -40.633 0.651 49.248 0.651 49.248 0.758 -40.633
1322.875 0.751 -41.231 0.659 48.648 0.659 48.648 0.751 -41.231
1347.833 0.744 -41.821 0.667 48.055 0.667 48.055 0.744 -41.821
1372.792 0.737 -42.404 0.674 47.469 0.674 47.469 0.737 -42.404
1397.75 0.73 -42.98 0.682 46.89 0.682 46.89 0.73 -42.98
1422.708 0.723 -43.549 0.689 46.319 0.689 46.319 0.723 -43.549
1447.667 0.716 -44.111 0.696 45.754 0.696 45.754 0.716 -44.111
1472.625 0.71 -44.666 0.703 45.197 0.703 45.197 0.71 -44.666
1497.583 0.703 -45.214 0.71 44.646 0.71 44.646 0.703 -45.214
1522.542 0.696 -45.756 0.716 44.102 0.716 44.102 0.696 -45.756
1547.5 0.689 -46.29 0.723 43.564 0.723 43.564 0.689 -46.29
1572.458 0.682 -46.818 0.729 43.033 0.729 43.033 0.682 -46.818
1597.417 0.676 -47.34 0.735 42.509 0.735 42.509 0.676 -47.34
1622.375 0.669 -47.855 0.741 41.991 0.741 41.991 0.669 -47.855
1647.333 0.662 -48.364 0.747 41.48 0.747 41.48 0.662 -48.364
1672.292 0.656 -48.866 0.753 40.974 0.753 40.974 0.656 -48.866
1697.25 0.649 -49.363 0.759 40.475 0.759 40.475 0.649 -49.363
1722.208 0.643 -49.853 0.764 39.982 0.764 39.982 0.643 -49.853
1747.167 0.636 -50.337 0.77 39.495 0.77 39.495 0.636 -50.337
1772.125 0.63 -50.815 0.775 39.014 0.775 39.014 0.63 -50.815
1797.083 0.623 -51.288 0.78 38.538 0.78 38.538 0.623 -51.288
1822.042 0.617 -51.755 0.785 38.069 0.785 38.069 0.617 -51.755
1847 0.61 -52.215 0.79 37.605 0.79 37.605 0.61 -52.215
1871.958 0.604 -52.671 0.795 37.146 0.795 37.146 0.604 -52.671
1896.917 0.598 -53.121 0.8 36.694 0.8 36.694 0.598 -53.121
1921.875 0.591 -53.565 0.805 36.246 0.805 36.246 0.591 -53.565
1946.833 0.585 -54.004 0.809 35.804 0.809 35.804 0.585 -54.004
1971.792 0.579 -54.438 0.813 35.367 0.813 35.367 0.579 -54.438
1996.75 0.573 -54.867 0.818 34.935 0.818 34.935 0.573 -54.867
2021.708 0.567 -55.29 0.822 34.509 0.822 34.509 0.567 -55.29
2046.667 0.56 -55.709 0.826 34.087 0.826 34.087 0.56 -55.709
2071.625 0.554 -56.122 0.83 33.67 0.83 33.67 0.554 -56.122
2096.583 0.548 -56.531 0.834 33.258 0.834 33.258 0.548 -56.531
2121.542 0.542 -56.935 0.838 32.851 0.838 32.851 0.542 -56.935
2146.5 0.537 -57.334 0.842 32.448 0.842 32.448 0.537 -57.334
2171.458 0.531 -57.729 0.846 32.05 0.846 32.05 0.531 -57.729
2196.417 0.525 -58.118 0.849 31.657 0.849 31.657 0.525 -58.118
2221.375 0.519 -58.504 0.853 31.268 0.853 31.268 0.519 -58.504
2246.333 0.513 -58.885 0.856 30.884 0.856 30.884 0.513 -58.885
2271.292 0.508 -59.262 0.86 30.503 0.86 30.503 0.508 -59.262
2296.25 0.502 -59.634 0.863 30.127 0.863 30.127 0.502 -59.634
2321.208 0.496 -60.002 0.866 29.756 0.866 29.756 0.496 -60.002
2346.167 0.491 -60.366 0.869 29.388 0.869 29.388 0.491 -60.366
2371.125 0.485 -60.726 0.872 29.024 0.872 29.024 0.485 -60.726
2396.083 0.48 -61.082 0.875 28.665 0.875 28.665 0.48 -61.082
2421.042 0.474 -61.434 0.878 28.309 0.878 28.309 0.474 -61.434
2446 0.469 -61.782 0.881 27.957 0.881 27.957 0.469 -61.782
2470.958 0.463 -62.127 0.884 27.609 0.884 27.609 0.463 -62.127
2495.917 0.458 -62.467 0.887 27.264 0.887 27.264 0.458 -62.467
2520.875 0.453 -62.804 0.889 26.923 0.889 26.923 0.453 -62.804
2545.833 0.448 -63.137 0.892 26.586 0.892 26.586 0.448 -63.137
2570.792 0.442 -63.467 0.895 26.252 0.895 26.252 0.442 -63.467
2595.75 0.437 -63.793 0.897 25.922 0.897 25.922 0.437 -63.793
2620.708 0.432 -64.116 0.9 25.595 0.9 25.595 0.432 -64.116
2645.667 0.427 -64.435 0.902 25.272 0.902 25.272 0.427 -64.435
2670.625 0.422 -64.751 0.904 24.952 0.904 24.952 0.422 -64.751
2695.583 0.417 -65.064 0.907 24.635 0.907 24.635 0.417 -65.064
2720.542 0.412 -65.373 0.909 24.321 0.909 24.321 0.412 -65.373
2745.5 0.407 -65.679 0.911 24.01 0.911 24.01 0.407 -65.679
2770.458 0.402 -65.982 0.913 23.703 0.913 23.703 0.402 -65.982
2795.417 0.397 -66.282 0.916 23.398 0.916 23.398 0.397 -66.282
2820.375 0.392 -66.579 0.918 23.097 0.918 23.097 0.392 -66.579
2845.333 0.387 -66.873 0.92 22.798 0.92 22.798 0.387 -66.873
2870.292 0.383 -67.164 0.922 22.502 0.922 22.502 0.383 -67.164
2895.25 0.378 -67.452 0.924 22.209 0.924 22.209 0.378 -67.452
2920.208 0.373 -67.737 0.925 21.919 0.925 21.919 0.373 -67.737
2945.167 0.369 -68.019 0.927 21.632 0.927 21.632 0.369 -68.019
2970.125 0.364 -68.299 0.929 21.347 0.929 21.347 0.364 -68.299
2995.083 0.359 -68.575 0.931 21.065 0.931 21.065 0.359 -68.575
3020.042 0.355 -68.849 0.933 20.786 0.933 20.786 0.355 -68.849
3045 0.35 -69.121 0.934 20.509 0.934 20.509 0.35 -69.121
3069.958 0.346 -69.39 0.936 20.235 0.936 20.235 0.346 -69.39
3094.917 0.341 -69.656 0.938 19.963 0.938 19.963 0.341 -69.656
3119.875 0.337 -69.92 0.939 19.694 0.939 19.694 0.337 -69.92
3144.833 0.333 -70.181 0.941 19.427 0.941 19.427 0.333 -70.181
3169.792 0.328 -70.439 0.942 19.163 0.942 19.163 0.328 -70.439
3194.75 0.324 -70.696 0.944 18.9 0.944 18.9 0.324 -70.696
3219.708 0.32 -70.949 0.945 18.64 0.945 18.64 0.32 -70.949
3244.667 0.315 -71.201 0.947 18.383 0.947 18.383 0.315 -71.201
3269.625 0.311 -71.45 0.948 18.127 0.948 18.127 0.311 -71.45
3294.583 0.307 -71.697 0.949 17.874 0.949 17.874 0.307 -71.697
3319.542 0.303 -71.941 0.951 17.623 0.951 17.623 0.303 -71.941
3344.5 0.299 -72.184 0.952 17.374 0.952 17.374 0.299 -72.184
3369.458 0.295 -72.424 0.953 17.127 0.953 17.127 0.295 -72.424
3394.417 0.29 -72.662 0.955 16.882 0.955 16.882 0.29 -72.662
3419.375 0.286 -72.897 0.956 16.64 0.956 16.64 0.286 -72.897
3444.333 0.282 -73.131 0.957 16.399 0.957 16.399 0.282 -73.131
3469.292 0.278 -73.363 0.958 16.16 0.958 16.16 0.278 -73.363
3494.25 0.274 -73.592 0.959 15.923 0.959 15.923 0.274 -73.592
3519.208 0.27 -73.819 0.96 15.688 0.96 15.688 0.27 -73.819
3544.167 0.266 -74.045 0.962 15.455 0.962 15.455 0.266 -74.045
3569.125 0.263 -74.268 0.963 15.224 0.963 15.224 0.263 -74.268
3594.083 0.259 -74.489 0.964 14.994 0.964 14.994 0.259 -74.489
3619.042 0.255 -74.709 0.965 14.767 0.965 14.767 0.255 -74.709
3644 0.251 -74.926 0.966 14.541 0.966 14.541 0.251 -74.926
3668.958 0.247 -75.141 0.967 14.316 0.967 14.316 0.247 -75.141
3693.917 0.244 -75.355 0.968 14.094 0.968 14.094 0.244 -75.355
3718.875 0.24 -75.567 0.968 13.873 0.968 13.873 0.24 -75.567
3743.833 0.236 -75.776 0.969 13.654 0.969 13.654 0.236 -75.776
3768.792 0.232 -75.984 0.97 13.437 0.97 13.437 0.232 -75.984
3793.75 0.229 -76.19 0.971 13.221 0.971 13.221 0.229 -76.19
3818.708 0.225 -76.395 0.972 13.006 0.972 13.006 0.225 -76.395
3843.667 0.221 -76.597 0.973 12.794 0.973 12.794 0.221 -76.597
3868.625 0.218 -76.798 0.974 12.583 0.974 12.583 0.218 -76.798
3893.583 0.214 -76.996 0.974 12.373 0.974 12.373 0.214 -76.996
3918.542 0.211 -77.193 0.975 12.165 0.975 12.165 0.211 -77.193
3943.5 0.207 -77.389 0.976 11.958 0.976 11.958 0.207 -77.389
3968.458 0.204 -77.582 0.977 11.753 0.977 11.753 0.204 -77.582
3993.417 0.2 -77.774 0.977 11.549 0.977 11.549 0.2 -77.774
4018.375 0.197 -77.964 0.978 11.347 0.978 11.347 0.197 -77.964
4043.333 0.193 -78.152 0.979 11.146 0.979 11.146 0.193 -78.152
4068.292 0.19 -78.339 0.979 10.946 0.979 10.946 0.19 -78.339
4093.25 0.187 -78.523 0.98 10.748 0.98 10.748 0.187 -78.523
4118.208 0.183 -78.706 0.981 10.551 0.981 10.551 0.183 -78.706
4143.167 0.18 -78.888 0.981 10.355 0.981 10.355 0.18 -78.888
4168.125 0.176 -79.067 0.982 10.161 0.982 10.161 0.176 -79.067
4193.083 0.173 -79.245 0.983 9.968 0.983 9.968 0.173 -79.245
4218.042 0.17 -79.421 0.983 9.776 0.983 9.776 0.17 -79.421
4243 0.167 -79.595 0.984 9.586 0.984 9.586 0.167 -79.595
4267.958 0.163 -79.768 0.984 9.396 0.984 9.396 0.163 -79.768
4292.917 0.16 -79.938 0.985 9.208 0.985 9.208 0.16 -79.938
4317.875 0.157 -80.107 0.985 9.021 0.985 9.021 0.157 -80.107
4342.833 0.154 -80.274 0.986 8.836 0.986 8.836 0.154 -80.274
4367.792 0.15 -80.44 0.986 8.651 0.986 8.651 0.15 -80.44
4392.75 0.147 -80.603 0.987 8.468 0.987 8.468 0.147 -80.603
4417.708 0.144 -80.764 0.987 8.286 0.987 8.286 0.144 -80.764
4442.667 0.141 -80.924 0.988 8.104 0.988 8.104 0.141 -80.924
4467.625 0.138 -81.082 0.988 7.924 0.988 7.924 0.138 -81.082
4492.583 0.135 -81.237 0.988 7.746 0.988 7.746 0.135 -81.237
4517.542 0.132 -81.391 0.989 7.568 0.989 7.568 0.132 -81.391
4542.5 0.129 -81.543 0.989 7.391 0.989 7.391 0.129 -81.543
4567.458 0.126 -81.692 0.99 7.215 0.99 7.215 0.126 -81.692
4592.417 0.123 -81.839 0.99 7.04 0.99 7.04 0.123 -81.839
4617.375 0.12 -81.985 0.99 6.867 0.99 6.867 0.12 -81.985
4642.333 0.117 -82.127 0.991 6.694 0.991 6.694 0.117 -82.127
4667.292 0.114 -82.268 0.991 6.522 0.991 6.522 0.114 -82.268
4692.25 0.111 -82.406 0.991 6.352 0.991 6.352 0.111 -82.406
4717.208 0.108 -82.541 0.992 6.182 0.992 6.182 0.108 -82.541
4742.167 0.105 -82.674 0.992 6.013 0.992 6.013 0.105 -82.674
4767.125 0.102 -82.803 0.992 5.845 0.992 5.845 0.102 -82.803
4792.083 0.099 -82.93 0.993 5.678 0.993 5.678 0.099 -82.93
4817.042 0.096 -83.054 0.993 5.513 0.993 5.513 0.096 -83.054
4842 0.093 -83.175 0.993 5.347 0.993 5.347 0.093 -83.175
4866.958 0.09 -83.292 0.994 5.183 0.994 5.183 0.09 -83.292
4891.917 0.088 -83.405 0.994 5.02 0.994 5.02 0.088 -83.405
4916.875 0.085 -83.515 0.994 4.858 0.994 4.858 0.085 -83.515
4941.833 0.082 -83.62 0.994 4.696 0.994 4.696 0.082 -83.62
4966.792 0.079 -83.721 0.994 4.536 0.994 4.536 0.079 -83.721
4991.75 0.076 -83.817 0.995 4.376 0.995 4.376 0.076 -83.817
5016.708 0.074 -83.907 0.995 4.217 0.995 4.217 0.074 -83.907
5041.667 0.071 -83.992 0.995 4.059 0.995 4.059 0.071 -83.992
5066.625 0.068 -84.071 0.995 3.901 0.995 3.901 0.068 -84.071
5091.583 0.065 -84.142 0.995 3.745 0.995 3.745 0.065 -84.142
5116.542 0.063 -84.206 0.996 3.589 0.996 3.589 0.063 -84.206
5141.5 0.06 -84.262 0.996 3.434 0.996 3.434 0.06 -84.262
5166.458 0.057 -84.307 0.996 3.28 0.996 3.28 0.057 -84.307
5191.417 0.055 -84.342 0.996 3.127 0.996 3.127 0.055 -84.342
5216.375 0.052 -84.365 0.996 2.974 0.996 2.974 0.052 -84.365
5241.333 0.049 -84.373 0.996 2.822 0.996 2.822 0.049 -84.373
5266.292 0.047 -84.366 0.997 2.671 0.997 2.671 0.047 -84.366
5291.25 0.044 -84.34 0.997 2.521 0.997 2.521 0.044 -84.34
5316.208 0.041 -84.291 0.997 2.371 0.997 2.371 0.041 -84.291
5341.167 0.039 -84.217 0.997 2.222 0.997 2.222 0.039 -84.217
5366.125 0.036 -84.111 0.997 2.074 0.997 2.074 0.036 -84.111
5391.083 0.034 -83.967 0.997 1.927 0.997 1.927 0.034 -83.967
5416.042 0.031 -83.777 0.997 1.78 0.997 1.78 0.031 -83.777
5441 0.029 -83.527 0.997 1.634 0.997 1.634 0.029 -83.527
5465.958 0.026 -83.202 0.997 1.488 0.997 1.488 0.026 -83.202
5490.917 0.024 -82.778 0.997 1.343 0.997 1.343 0.024 -82.778
5515.875 0.021 -82.221 0.997 1.199 0.997 1.199 0.021 -82.221
5540.833 0.019 -81.48 0.997 1.056 0.997 1.056 0.019 -81.48
5565.792 0.016 -80.472 0.997 0.913 0.997 0.913 0.016 -80.472
5590.75 0.014 -79.056 0.997 0.771 0.997 0.771 0.014 -79.056
5615.708 0.011 -76.975 0.998 0.629 0.998 0.629 0.011 -76.975
5640.667 8.863e-3 -73.703 0.998 0.489 0.998 0.489 8.863e-3 -73.703
5665.625 6.542e-3 -67.993 0.998 0.348 0.998 0.348 6.542e-3 -67.993
5690.583 4.371e-3 -56.26 0.998 0.209 0.998 0.209 4.371e-3 -56.26
5715.542 2.704e-3 -26.694 0.998 0.07 0.998 0.07 2.704e-3 -26.694
5740.5 2.695e-3 26.311 0.998 -0.069 0.998 -0.069 2.695e-3 26.311
5765.458 4.337e-3 55.961 0.998 -0.206 0.998 -0.206 4.337e-3 55.961
5790.417 6.465e-3 67.725 0.998 -0.344 0.998 -0.344 6.465e-3 67.725
5815.375 8.722e-3 73.449 0.998 -0.48 0.998 -0.48 8.722e-3 73.449
5840.333 0.011 76.731 0.998 -0.616 0.998 -0.616 0.011 76.731
5865.292 0.013 78.82 0.997 -0.752 0.997 -0.752 0.013 78.82
5890.25 0.016 80.245 0.997 -0.887 0.997 -0.887 0.016 80.245
5915.208 0.018 81.262 0.997 -1.021 0.997 -1.021 0.018 81.262
5940.167 0.02 82.014 0.997 -1.155 0.997 -1.155 0.02 82.014
5965.125 0.023 82.582 0.997 -1.288 0.997 -1.288 0.023 82.582
5990.083 0.025 83.018 0.997 -1.421 0.997 -1.421 0.025 83.018
6015.042 0.027 83.357 0.997 -1.553 0.997 -1.553 0.027 83.357
6040 0.029 83.621 0.997 -1.684 0.997 -1.684 0.029 83.621
6064.958 0.032 83.828 0.997 -1.815 0.997 -1.815 0.032 83.828
6089.917 0.034 83.989 0.997 -1.946 0.997 -1.946 0.034 83.989
6114.875 0.036 84.113 0.997 -2.076 0.997 -2.076 0.036 84.113
6139.833 0.039 84.207 0.997 -2.205 0.997 -2.205 0.039 84.207
6164.792 0.041 84.276 0.997 -2.334 0.997 -2.334 0.041 84.276
6189.75 0.043 84.324 0.997 -2.463 0.997 -2.463 0.043 84.324
6214.708 0.045 84.354 0.997 -2.591 0.997 -2.591 0.045 84.354
6239.667 0.047 84.37 0.996 -2.718 0.996 -2.718 0.047 84.37
6264.625 0.05 84.373 0.996 -2.845 0.996 -2.845 0.05 84.373
6289.583 0.052 84.365 0.996 -2.972 0.996 -2.972 0.052 84.365
6314.542 0.054 84.347 0.996 -3.098 0.996 -3.098 0.054 84.347
6339.5 0.056 84.322 0.996 -3.223 0.996 -3.223 0.056 84.322
6364.458 0.058 84.288 0.996 -3.348 0.996 -3.348 0.058 84.288
6389.417 0.061 84.249 0.996 -3.473 0.996 -3.473 0.061 84.249
6414.375 0.063 84.203 0.996 -3.597 0.996 -3.597 0.063 84.203
6439.333 0.065 84.153 0.995 -3.721 0.995 -3.721 0.065 84.153
6464.292 0.067 84.098 0.995 -3.844 0.995 -3.844 0.067 84.098
6489.25 0.069 84.039 0.995 -3.967 0.995 -3.967 0.069 84.039
6514.208 0.071 83.976 0.995 -4.089 0.995 -4.089 0.071 83.976
6539.167 0.073 83.911 0.995 -4.211 0.995 -4.211 0.073 83.911
6564.125 0.076 83.842 0.995 -4.332 0.995 -4.332 0.076 83.842
6589.083 0.078 83.771 0.995 -4.453 0.995 -4.453 0.078 83.771
6614.042 0.08 83.697 0.994 -4.574 0.994 -4.574 0.08 83.697
6639 0.082 83.622 0.994 -4.694 0.994 -4.694 0.082 83.622
6663.958 0.084 83.544 0.994 -4.814 0.994 -4.814 0.084 83.544
6688.917 0.086 83.465 0.994 -4.933 0.994 -4.933 0.086 83.465
6713.875 0.088 83.384 0.994 -5.052 0.994 -5.052 0.088 83.384
6738.833 0.09 83.301 0.994 -5.17 0.994 -5.17 0.09 83.301
6763.792 0.092 83.217 0.993 -5.288 0.993 -5.288 0.092 83.217
6788.75 0.094 83.133 0.993 -5.406 0.993 -5.406 0.094 83.133
6813.708 0.096 83.047 0.993 -5.523 0.993 -5.523 0.096 83.047
6838.667 0.098 82.96 0.993 -5.64 0.993 -5.64 0.098 82.96
6863.625 0.1 82.872 0.993 -5.756 0.993 -5.756 0.1 82.872
6888.583 0.102 82.783 0.992 -5.872 0.992 -5.872 0.102 82.783
6913.542 0.104 82.693 0.992 -5.988 0.992 -5.988 0.104 82.693
6938.5 0.106 82.603 0.992 -6.103 0.992 -6.103 0.106 82.603
6963.458 0.108 82.512 0.992 -6.218 0.992 -6.218 0.108 82.512
6988.417 0.11 82.421 0.991 -6.332 0.991 -6.332 0.11 82.421
7013.375 0.112 82.329 0.991 -6.446 0.991 -6.446 0.112 82.329
7038.333 0.114 82.237 0.991 -6.56 0.991 -6.56 0.114 82.237
7063.292 0.116 82.144 0.991 -6.673 0.991 -6.673 0.116 82.144
7088.25 0.118 82.051 0.991 -6.786 0.991 -6.786 0.118 82.051
7113.208 0.12 81.958 0.99 -6.899 0.99 -6.899 0.12 81.958
7138.167 0.122 81.864 0.99 -7.011 0.99 -7.011 0.122 81.864
7163.125 0.124 81.77 0.99 -7.123 0.99 -7.123 0.124 81.77
7188.083 0.126 81.676 0.99 -7.235 0.99 -7.235 0.126 81.676
7213.042 0.128 81.581 0.989 -7.346 0.989 -7.346 0.128 81.581
7238 0.13 81.486 0.989 -7.457 0.989 -7.457 0.13 81.486
7262.958 0.132 81.392 0.989 -7.567 0.989 -7.567 0.132 81.392
7287.917 0.134 81.297 0.989 -7.677 0.989 -7.677 0.134 81.297
7312.875 0.136 81.201 0.988 -7.787 0.988 -7.787 0.136 81.201
7337.833 0.137 81.106 0.988 -7.896 0.988 -7.896 0.137 81.106
7362.792 0.139 81.011 0.988 -8.006 0.988 -8.006 0.139 81.011
7387.75 0.141 80.915 0.988 -8.114 0.988 -8.114 0.141 80.915
7412.708 0.143 80.82 0.987 -8.223 0.987 -8.223 0.143 80.82
7437.667 0.145 80.724 0.987 -8.331 0.987 -8.331 0.145 80.724
7462.625 0.147 80.629 0.987 -8.439 0.987 -8.439 0.147 80.629
7487.583 0.149 80.533 0.987 -8.546 0.987 -8.546 0.149 80.533
7512.542 0.15 80.438 0.986 -8.653 0.986 -8.653 0.15 80.438
7537.5 0.152 80.342 0.986 -8.76 0.986 -8.76 0.152 80.342
7562.458 0.154 80.247 0.986 -8.866 0.986 -8.866 0.154 80.247
7587.417 0.156 80.151 0.985 -8.973 0.985 -8.973 0.156 80.151
7612.375 0.158 80.056 0.985 -9.078 0.985 -9.078 0.158 80.056
7637.333 0.16 79.96 0.985 -9.184 0.985 -9.184 0.16 79.96
7662.292 0.161 79.865 0.985 -9.289 0.985 -9.289 0.161 79.865
7687.25 0.163 79.77 0.984 -9.394 0.984 -9.394 0.163 79.77
7712.208 0.165 79.675 0.984 -9.499 0.984 -9.499 0.165 79.675
7737.167 0.167 79.579 0.984 -9.603 0.984 -9.603 0.167 79.579
7762.125 0.169 79.484 0.983 -9.707 0.983 -9.707 0.169 79.484
7787.083 0.17 79.389 0.983 -9.811 0.983 -9.811 0.17 79.389
7812.042 0.172 79.294 0.983 -9.914 0.983 -9.914 0.172 79.294
7837 0.174 79.2 0.982 -10.017 0.982 -10.017 0.174 79.2
7861.958 0.176 79.105 0.982 -10.12 0.982 -10.12 0.176 79.105
7886.917 0.177 79.01 0.982 -10.222 0.982 -10.222 0.177 79.01
7911.875 0.179 78.916 0.981 -10.325 0.981 -10.325 0.179 78.916
7936.833 0.181 78.822 0.981 -10.427 0.981 -10.427 0.181 78.822
7961.792 0.183 78.727 0.981 -10.528 0.981 -10.528 0.183 78.727
7986.75 0.184 78.633 0.98 -10.63 0.98 -10.63 0.184 78.633
8011.708 0.186 78.539 0.98 -10.731 0.98 -10.731 0.186 78.539
8036.667 0.188 78.445 0.98 -10.831 0.98 -10.831 0.188 78.445
8061.625 0.19 78.352 0.979 -10.932 0.979 -10.932 0.19 78.352
8086.583 0.191 78.258 0.979 -11.032 0.979 -11.032 0.191 78.258
8111.542 0.193 78.165 0.979 -11.132 0.979 -11.132 0.193 78.165
8136.5 0.195 78.071 0.978 -11.232 0.978 -11.232 0.195 78.071
8161.458 0.196 77.978 0.978 -11.331 0.978 -11.331 0.196 77.978
8186.417 0.198 77.885 0.978 -11.43 0.978 -11.43 0.198 77.885
8211.375 0.2 77.792 0.977 -11.529 0.977 -11.529 0.2 77.792
