# MHZ S MA R 50

50 0.995 -5.564 0.097 84.427 0.097 84.427 0.995 -5.564
74.958 0.989 -8.311 0.145 81.676 0.145 81.676 0.989 -8.311
99.917 0.981 -11.023 0.191 78.959 0.191 78.959 0.981 -11.023
124.875 0.971 -13.69 0.237 76.288 0.237 76.288 0.971 -13.69
149.833 0.96 -16.302 0.281 73.671 0.281 73.671 0.96 -16.302
174.792 0.946 -18.851 0.323 71.117 0.323 71.117 0.946 -18.851
199.75 0.931 -21.331 0.364 68.633 0.364 68.633 0.931 -21.331
224.708 0.915 -23.737 0.403 66.222 0.403 66.222 0.915 -23.737
249.667 0.898 -26.064 0.439 63.891 0.439 63.891 0.898 -26.064
274.625 0.88 -28.31 0.474 61.64 0.474 61.64 0.88 -28.31
299.583 0.861 -30.473 0.507 59.472 0.507 59.472 0.861 -30.473
324.542 0.842 -32.553 0.538 57.388 0.538 57.388 0.842 -32.553
349.5 0.823 -34.549 0.567 55.387 0.567 55.387 0.823 -34.549
374.458 0.804 -36.463 0.594 53.469 0.594 53.469 0.804 -36.463
399.417 0.784 -38.297 0.62 51.631 0.62 51.631 0.784 -38.297
424.375 0.765 -40.051 0.643 49.872 0.643 49.872 0.765 -40.051
449.333 0.745 -41.73 0.666 48.189 0.666 48.189 0.745 -41.73
474.292 0.726 -43.334 0.686 46.579 0.686 46.579 0.726 -43.334
499.25 0.708 -44.868 0.705 45.04 0.705 45.04 0.708 -44.868
524.208 0.689 -46.335 0.723 43.569 0.723 43.569 0.689 -46.335
549.167 0.671 -47.736 0.74 42.162 0.74 42.162 0.671 -47.736
574.125 0.654 -49.077 0.756 40.817 0.756 40.817 0.654 -49.077
599.083 0.636 -50.358 0.77 39.531 0.77 39.531 0.636 -50.358
624.042 0.62 -51.584 0.784 38.3 0.784 38.3 0.62 -51.584
649 0.604 -52.757 0.796 37.122 0.796 37.122 0.604 -52.757
673.958 0.588 -53.879 0.808 35.995 0.808 35.995 0.588 -53.879
698.917 0.572 -54.955 0.819 34.914 0.819 34.914 0.572 -54.955
723.875 0.557 -55.985 0.829 33.878 0.829 33.878 0.557 -55.985
748.833 0.543 -56.973 0.838 32.885 0.838 32.885 0.543 -56.973
773.792 0.529 -57.921 0.847 31.932 0.847 31.932 0.529 -57.921
798.75 0.515 -58.831 0.856 31.016 0.856 31.016 0.515 -58.831
823.708 0.502 -59.705 0.863 30.137 0.863 30.137 0.502 -59.705
848.667 0.489 -60.546 0.871 29.291 0.871 29.291 0.489 -60.546
873.625 0.477 -61.353 0.878 28.478 0.878 28.478 0.477 -61.353
898.583 0.465 -62.131 0.884 27.695 0.884 27.695 0.465 -62.131
923.542 0.453 -62.88 0.89 26.94 0.89 26.94 0.453 -62.88
948.5 0.442 -63.601 0.896 26.213 0.896 26.213 0.442 -63.601
973.458 0.431 -64.297 0.901 25.511 0.901 25.511 0.431 -64.297
998.417 0.42 -64.968 0.906 24.834 0.906 24.834 0.42 -64.968
1023.375 0.41 -65.616 0.911 24.18 0.911 24.18 0.41 -65.616
1048.333 0.4 -66.241 0.915 23.548 0.915 23.548 0.4 -66.241
1073.292 0.39 -66.846 0.919 22.937 0.919 22.937 0.39 -66.846
1098.25 0.38 -67.431 0.923 22.346 0.923 22.346 0.38 -67.431
1123.208 0.371 -67.998 0.927 21.773 0.927 21.773 0.371 -67.998
1148.167 0.362 -68.546 0.931 21.218 0.931 21.218 0.362 -68.546
1173.125 0.353 -69.077 0.934 20.681 0.934 20.681 0.353 -69.077
1198.083 0.345 -69.592 0.937 20.159 0.937 20.159 0.345 -69.592
1223.042 0.336 -70.091 0.94 19.653 0.94 19.653 0.336 -70.091
1248 0.328 -70.576 0.943 19.161 0.943 19.161 0.328 -70.576
1272.958 0.32 -71.046 0.946 18.683 0.946 18.683 0.32 -71.046
1297.917 0.313 -71.503 0.948 18.219 0.948 18.219 0.313 -71.503
1322.875 0.305 -71.947 0.951 17.767 0.951 17.767 0.305 -71.947
1347.833 0.298 -72.379 0.953 17.327 0.953 17.327 0.298 -72.379
1372.792 0.291 -72.799 0.955 16.899 0.955 16.899 0.291 -72.799
1397.75 0.284 -73.208 0.957 16.482 0.957 16.482 0.284 -73.208
1422.708 0.277 -73.606 0.959 16.076 0.959 16.076 0.277 -73.606
1447.667 0.27 -73.994 0.961 15.68 0.961 15.68 0.27 -73.994
1472.625 0.264 -74.372 0.963 15.293 0.963 15.293 0.264 -74.372
1497.583 0.257 -74.741 0.965 14.916 0.965 14.916 0.257 -74.741
1522.542 0.251 -75.1 0.966 14.547 0.966 14.547 0.251 -75.1
1547.5 0.245 -75.451 0.968 14.187 0.968 14.187 0.245 -75.451
1572.458 0.239 -75.793 0.969 13.835 0.969 13.835 0.239 -75.793
1597.417 0.233 -76.127 0.971 13.491 0.971 13.491 0.233 -76.127
1622.375 0.228 -76.453 0.972 13.155 0.972 13.155 0.228 -76.453
1647.333 0.222 -76.772 0.973 12.826 0.973 12.826 0.222 -76.772
1672.292 0.217 -77.084 0.975 12.504 0.975 12.504 0.217 -77.084
1697.25 0.211 -77.388 0.976 12.188 0.976 12.188 0.211 -77.388
1722.208 0.206 -77.686 0.977 11.879 0.977 11.879 0.206 -77.686
1747.167 0.201 -77.977 0.978 11.576 0.978 11.576 0.201 -77.977
1772.125 0.196 -78.262 0.979 11.279 0.979 11.279 0.196 -78.262
1797.083 0.191 -78.541 0.98 10.987 0.98 10.987 0.191 -78.541
1822.042 0.186 -78.814 0.981 10.701 0.981 10.701 0.186 -78.814
1847 0.181 -79.081 0.982 10.421 0.982 10.421 0.181 -79.081
1871.958 0.176 -79.343 0.983 10.145 0.983 10.145 0.176 -79.343
1896.917 0.172 -79.599 0.984 9.875 0.984 9.875 0.172 -79.599
1921.875 0.167 -79.85 0.984 9.609 0.984 9.609 0.167 -79.85
1946.833 0.162 -80.096 0.985 9.348 0.985 9.348 0.162 -80.096
1971.792 0.158 -80.336 0.986 9.092 0.986 9.092 0.158 -80.336
1996.75 0.154 -80.572 0.987 8.839 0.987 8.839 0.154 -80.572
2021.708 0.149 -80.803 0.987 8.591 0.987 8.591 0.149 -80.803
2046.667 0.145 -81.029 0.988 8.347 0.988 8.347 0.145 -81.029
2071.625 0.141 -81.251 0.988 8.106 0.988 8.106 0.141 -81.251
2096.583 0.137 -81.468 0.989 7.87 0.989 7.87 0.137 -81.468
2121.542 0.133 -81.68 0.99 7.637 0.99 7.637 0.133 -81.68
2146.5 0.129 -81.888 0.99 7.407 0.99 7.407 0.129 -81.888
2171.458 0.125 -82.092 0.991 7.181 0.991 7.181 0.125 -82.092
2196.417 0.121 -82.291 0.991 6.959 0.991 6.959 0.121 -82.291
2221.375 0.117 -82.486 0.992 6.739 0.992 6.739 0.117 -82.486
2246.333 0.114 -82.677 0.992 6.523 0.992 6.523 0.114 -82.677
2271.292 0.11 -82.863 0.992 6.309 0.992 6.309 0.11 -82.863
2296.25 0.106 -83.045 0.993 6.099 0.993 6.099 0.106 -83.045
2321.208 0.103 -83.222 0.993 5.891 0.993 5.891 0.103 -83.222
2346.167 0.099 -83.395 0.993 5.686 0.993 5.686 0.099 -83.395
2371.125 0.096 -83.563 0.994 5.484 0.994 5.484 0.096 -83.563
2396.083 0.092 -83.726 0.994 5.284 0.994 5.284 0.092 -83.726
2421.042 0.089 -83.885 0.994 5.087 0.994 5.087 0.089 -83.885
2446 0.085 -84.039 0.995 4.892 0.995 4.892 0.085 -84.039
2470.958 0.082 -84.187 0.995 4.7 0.995 4.7 0.082 -84.187
2495.917 0.079 -84.33 0.995 4.51 0.995 4.51 0.079 -84.33
2520.875 0.075 -84.467 0.996 4.322 0.996 4.322 0.075 -84.467
2545.833 0.072 -84.598 0.996 4.136 0.996 4.136 0.072 -84.598
2570.792 0.069 -84.723 0.996 3.952 0.996 3.952 0.069 -84.723
2595.75 0.066 -84.84 0.996 3.771 0.996 3.771 0.066 -84.84
2620.708 0.063 -84.95 0.996 3.591 0.996 3.591 0.063 -84.95
2645.667 0.06 -85.052 0.997 3.414 0.997 3.414 0.06 -85.052
2670.625 0.057 -85.144 0.997 3.238 0.997 3.238 0.057 -85.144
2695.583 0.053 -85.226 0.997 3.065 0.997 3.065 0.053 -85.226
2720.542 0.05 -85.296 0.997 2.893 0.997 2.893 0.05 -85.296
2745.5 0.048 -85.353 0.997 2.722 0.997 2.722 0.048 -85.353
2770.458 0.045 -85.395 0.997 2.554 0.997 2.554 0.045 -85.395
2795.417 0.042 -85.418 0.998 2.387 0.998 2.387 0.042 -85.418
2820.375 0.039 -85.42 0.998 2.222 0.998 2.222 0.039 -85.42
2845.333 0.036 -85.396 0.998 2.058 0.998 2.058 0.036 -85.396
2870.292 0.033 -85.341 0.998 1.896 0.998 1.896 0.033 -85.341
2895.25 0.03 -85.246 0.998 1.736 0.998 1.736 0.03 -85.246
2920.208 0.028 -85.101 0.998 1.577 0.998 1.577 0.028 -85.101
2945.167 0.025 -84.891 0.998 1.419 0.998 1.419 0.025 -84.891
2970.125 0.022 -84.592 0.998 1.263 0.998 1.263 0.022 -84.592
2995.083 0.019 -84.17 0.998 1.108 0.998 1.108 0.019 -84.17
3020.042 0.017 -83.568 0.998 0.955 0.998 0.955 0.017 -83.568
3045 0.014 -82.69 0.998 0.802 0.998 0.802 0.014 -82.69
3069.958 0.011 -81.352 0.998 0.652 0.998 0.652 0.011 -81.352
3094.917 8.906e-3 -79.164 0.998 0.502 0.998 0.502 8.906e-3 -79.164
3119.875 6.376e-3 -75.133 0.998 0.354 0.998 0.354 6.376e-3 -75.133
3144.833 3.942e-3 -65.881 0.998 0.206 0.998 0.206 3.942e-3 -65.881
3169.792 1.915e-3 -33.38 0.998 0.06 0.998 0.06 1.915e-3 -33.38
3194.75 2.173e-3 42.591 0.998 -0.084 0.998 -0.084 2.173e-3 42.591
3219.708 4.29e-3 67.908 0.998 -0.228 0.998 -0.228 4.29e-3 67.908
3244.667 6.666e-3 75.76 0.998 -0.371 0.998 -0.371 6.666e-3 75.76
3269.625 9.083e-3 79.357 0.998 -0.512 0.998 -0.512 9.083e-3 79.357
3294.583 0.012 81.365 0.998 -0.653 0.998 -0.653 0.012 81.365
3319.542 0.014 82.617 0.998 -0.792 0.998 -0.792 0.014 82.617
3344.5 0.016 83.453 0.998 -0.931 0.998 -0.931 0.016 83.453
3369.458 0.019 84.034 0.998 -1.068 0.998 -1.068 0.019 84.034
3394.417 0.021 84.451 0.998 -1.205 0.998 -1.205 0.021 84.451
3419.375 0.023 84.753 0.998 -1.34 0.998 -1.34 0.023 84.753
3444.333 0.026 84.974 0.998 -1.475 0.998 -1.475 0.026 84.974
3469.292 0.028 85.135 0.998 -1.609 0.998 -1.609 0.028 85.135
3494.25 0.03 85.25 0.998 -1.742 0.998 -1.742 0.03 85.25
3519.208 0.033 85.33 0.998 -1.873 0.998 -1.873 0.033 85.33
3544.167 0.035 85.382 0.998 -2.005 0.998 -2.005 0.035 85.382
3569.125 0.037 85.411 0.998 -2.135 0.998 -2.135 0.037 85.411
3594.083 0.04 85.422 0.998 -2.264 0.998 -2.264 0.04 85.422
3619.042 0.042 85.417 0.998 -2.393 0.998 -2.393 0.042 85.417
3644 0.044 85.401 0.997 -2.521 0.997 -2.521 0.044 85.401
3668.958 0.046 85.373 0.997 -2.648 0.997 -2.648 0.046 85.373
3693.917 0.048 85.337 0.997 -2.774 0.997 -2.774 0.048 85.337
3718.875 0.051 85.294 0.997 -2.9 0.997 -2.9 0.051 85.294
3743.833 0.053 85.243 0.997 -3.024 0.997 -3.024 0.053 85.243
3768.792 0.055 85.188 0.997 -3.148 0.997 -3.148 0.055 85.188
3793.75 0.057 85.127 0.997 -3.272 0.997 -3.272 0.057 85.127
3818.708 0.059 85.063 0.997 -3.394 0.997 -3.394 0.059 85.063
3843.667 0.061 84.994 0.997 -3.516 0.997 -3.516 0.061 84.994
3868.625 0.063 84.923 0.996 -3.638 0.996 -3.638 0.063 84.923
3893.583 0.066 84.848 0.996 -3.758 0.996 -3.758 0.066 84.848
3918.542 0.068 84.772 0.996 -3.878 0.996 -3.878 0.068 84.772
3943.5 0.07 84.693 0.996 -3.998 0.996 -3.998 0.07 84.693
3968.458 0.072 84.612 0.996 -4.116 0.996 -4.116 0.072 84.612
3993.417 0.074 84.529 0.996 -4.234 0.996 -4.234 0.074 84.529
4018.375 0.076 84.445 0.996 -4.352 0.996 -4.352 0.076 84.445
4043.333 0.078 84.36 0.995 -4.469 0.995 -4.469 0.078 84.36
4068.292 0.08 84.273 0.995 -4.585 0.995 -4.585 0.08 84.273
4093.25 0.082 84.186 0.995 -4.701 0.995 -4.701 0.082 84.186
4118.208 0.084 84.098 0.995 -4.816 0.995 -4.816 0.084 84.098
4143.167 0.086 84.008 0.995 -4.931 0.995 -4.931 0.086 84.008
4168.125 0.088 83.918 0.995 -5.045 0.995 -5.045 0.088 83.918
4193.083 0.09 83.828 0.994 -5.158 0.994 -5.158 0.09 83.828
4218.042 0.092 83.737 0.994 -5.271 0.994 -5.271 0.092 83.737
4243 0.094 83.645 0.994 -5.384 0.994 -5.384 0.094 83.645
4267.958 0.096 83.553 0.994 -5.496 0.994 -5.496 0.096 83.553
4292.917 0.098 83.461 0.994 -5.607 0.994 -5.607 0.098 83.461
4317.875 0.1 83.368 0.993 -5.718 0.993 -5.718 0.1 83.368
4342.833 0.102 83.275 0.993 -5.828 0.993 -5.828 0.102 83.275
4367.792 0.103 83.182 0.993 -5.938 0.993 -5.938 0.103 83.182
4392.75 0.105 83.088 0.993 -6.048 0.993 -6.048 0.105 83.088
4417.708 0.107 82.995 0.993 -6.157 0.993 -6.157 0.107 82.995
4442.667 0.109 82.901 0.992 -6.265 0.992 -6.265 0.109 82.901
4467.625 0.111 82.807 0.992 -6.373 0.992 -6.373 0.111 82.807
4492.583 0.113 82.713 0.992 -6.481 0.992 -6.481 0.113 82.713
4517.542 0.115 82.619 0.992 -6.588 0.992 -6.588 0.115 82.619
4542.5 0.117 82.525 0.992 -6.695 0.992 -6.695 0.117 82.525
4567.458 0.118 82.431 0.991 -6.801 0.991 -6.801 0.118 82.431
4592.417 0.12 82.337 0.991 -6.907 0.991 -6.907 0.12 82.337
4617.375 0.122 82.243 0.991 -7.013 0.991 -7.013 0.122 82.243
4642.333 0.124 82.149 0.991 -7.118 0.991 -7.118 0.124 82.149
4667.292 0.126 82.055 0.99 -7.222 0.99 -7.222 0.126 82.055
4692.25 0.128 81.961 0.99 -7.327 0.99 -7.327 0.128 81.961
4717.208 0.129 81.868 0.99 -7.43 0.99 -7.43 0.129 81.868
4742.167 0.131 81.774 0.99 -7.534 0.99 -7.534 0.131 81.774
4767.125 0.133 81.68 0.99 -7.637 0.99 -7.637 0.133 81.68
4792.083 0.135 81.587 0.989 -7.74 0.989 -7.74 0.135 81.587
4817.042 0.136 81.493 0.989 -7.842 0.989 -7.842 0.136 81.493
4842 0.138 81.4 0.989 -7.944 0.989 -7.944 0.138 81.4
4866.958 0.14 81.307 0.989 -8.046 0.989 -8.046 0.14 81.307
4891.917 0.142 81.214 0.988 -8.147 0.988 -8.147 0.142 81.214
4916.875 0.143 81.121 0.988 -8.248 0.988 -8.248 0.143 81.121
4941.833 0.145 81.028 0.988 -8.348 0.988 -8.348 0.145 81.028
4966.792 0.147 80.935 0.988 -8.448 0.988 -8.448 0.147 80.935
4991.75 0.149 80.843 0.987 -8.548 0.987 -8.548 0.149 80.843
5016.708 0.15 80.751 0.987 -8.648 0.987 -8.648 0.15 80.751
5041.667 0.152 80.658 0.987 -8.747 0.987 -8.747 0.152 80.658
5066.625 0.154 80.566 0.987 -8.846 0.987 -8.846 0.154 80.566
5091.583 0.155 80.474 0.986 -8.944 0.986 -8.944 0.155 80.474
5116.542 0.157 80.383 0.986 -9.042 0.986 -9.042 0.157 80.383
5141.5 0.159 80.291 0.986 -9.14 0.986 -9.14 0.159 80.291
5166.458 0.161 80.2 0.985 -9.237 0.985 -9.237 0.161 80.2
5191.417 0.162 80.108 0.985 -9.335 0.985 -9.335 0.162 80.108
5216.375 0.164 80.017 0.985 -9.432 0.985 -9.432 0.164 80.017
5241.333 0.166 79.926 0.985 -9.528 0.985 -9.528 0.166 79.926
5266.292 0.167 79.836 0.984 -9.624 0.984 -9.624 0.167 79.836
5291.25 0.169 79.745 0.984 -9.72 0.984 -9.72 0.169 79.745
5316.208 0.17 79.655 0.984 -9.816 0.984 -9.816 0.17 79.655
5341.167 0.172 79.565 0.984 -9.912 0.984 -9.912 0.172 79.565
5366.125 0.174 79.474 0.983 -10.007 0.983 -10.007 0.174 79.474
5391.083 0.175 79.385 0.983 -10.102 0.983 -10.102 0.175 79.385
5416.042 0.177 79.295 0.983 -10.196 0.983 -10.196 0.177 79.295
5441 0.179 79.205 0.982 -10.29 0.982 -10.29 0.179 79.205
5465.958 0.18 79.116 0.982 -10.384 0.982 -10.384 0.18 79.116
5490.917 0.182 79.027 0.982 -10.478 0.982 -10.478 0.182 79.027
5515.875 0.183 78.938 0.981 -10.572 0.981 -10.572 0.183 78.938
5540.833 0.185 78.849 0.981 -10.665 0.981 -10.665 0.185 78.849
5565.792 0.187 78.761 0.981 -10.758 0.981 -10.758 0.187 78.761
5590.75 0.188 78.672 0.981 -10.85 0.981 -10.85 0.188 78.672
5615.708 0.19 78.584 0.98 -10.943 0.98 -10.943 0.19 78.584
5640.667 0.191 78.496 0.98 -11.035 0.98 -11.035 0.191 78.496
5665.625 0.193 78.408 0.98 -11.127 0.98 -11.127 0.193 78.408
5690.583 0.195 78.32 0.979 -11.218 0.979 -11.218 0.195 78.32
5715.542 0.196 78.233 0.979 -11.31 0.979 -11.31 0.196 78.233
5740.5 0.198 78.145 0.979 -11.401 0.979 -11.401 0.198 78.145
5765.458 0.199 78.058 0.978 -11.492 0.978 -11.492 0.199 78.058
5790.417 0.201 77.971 0.978 -11.582 0.978 -11.582 0.201 77.971
5815.375 0.202 77.884 0.978 -11.673 0.978 -11.673 0.202 77.884
5840.333 0.204 77.797 0.977 -11.763 0.977 -11.763 0.204 77.797
5865.292 0.205 77.711 0.977 -11.853 0.977 -11.853 0.205 77.711
5890.25 0.207 77.624 0.977 -11.943 0.977 -11.943 0.207 77.624
5915.208 0.208 77.538 0.976 -12.032 0.976 -12.032 0.208 77.538
5940.167 0.21 77.452 0.976 -12.121 0.976 -12.121 0.21 77.452
5965.125 0.212 77.367 0.976 -12.21 0.976 -12.21 0.212 77.367
5990.083 0.213 77.281 0.975 -12.299 0.975 -12.299 0.213 77.281
6015.042 0.215 77.195 0.975 -12.388 0.975 -12.388 0.215 77.195
6040 0.216 77.11 0.975 -12.476 0.975 -12.476 0.216 77.11
6064.958 0.218 77.025 0.974 -12.564 0.974 -12.564 0.218 77.025
6089.917 0.219 76.94 0.974 -12.652 0.974 -12.652 0.219 76.94
6114.875 0.221 76.855 0.974 -12.74 0.974 -12.74 0.221 76.855
6139.833 0.222 76.77 0.973 -12.827 0.973 -12.827 0.222 76.77
6164.792 0.224 76.686 0.973 -12.915 0.973 -12.915 0.224 76.686
6189.75 0.225 76.602 0.973 -13.002 0.973 -13.002 0.225 76.602
6214.708 0.226 76.518 0.972 -13.089 0.972 -13.089 0.226 76.518
6239.667 0.228 76.434 0.972 -13.175 0.972 -13.175 0.228 76.434
6264.625 0.229 76.35 0.972 -13.262 0.972 -13.262 0.229 76.35
6289.583 0.231 76.266 0.971 -13.348 0.971 -13.348 0.231 76.266
6314.542 0.232 76.183 0.971 -13.434 0.971 -13.434 0.232 76.183
6339.5 0.234 76.099 0.971 -13.52 0.971 -13.52 0.234 76.099
6364.458 0.235 76.016 0.97 -13.606 0.97 -13.606 0.235 76.016
6389.417 0.237 75.933 0.97 -13.691 0.97 -13.691 0.237 75.933
6414.375 0.238 75.85 0.97 -13.776 0.97 -13.776 0.238 75.85
6439.333 0.24 75.768 0.969 -13.861 0.969 -13.861 0.24 75.768
6464.292 0.241 75.685 0.969 -13.946 0.969 -13.946 0.241 75.685
6489.25 0.242 75.603 0.969 -14.031 0.969 -14.031 0.242 75.603
6514.208 0.244 75.52 0.968 -14.116 0.968 -14.116 0.244 75.52
6539.167 0.245 75.438 0.968 -14.2 0.968 -14.2 0.245 75.438
6564.125 0.247 75.356 0.968 -14.284 0.968 -14.284 0.247 75.356
6589.083 0.248 75.275 0.967 -14.368 0.967 -14.368 0.248 75.275
6614.042 0.25 75.193 0.967 -14.452 0.967 -14.452 0.25 75.193
6639 0.251 75.112 0.966 -14.535 0.966 -14.535 0.251 75.112
6663.958 0.252 75.03 0.966 -14.619 0.966 -14.619 0.252 75.03
6688.917 0.254 74.949 0.966 -14.702 0.966 -14.702 0.254 74.949
6713.875 0.255 74.868 0.965 -14.785 0.965 -14.785 0.255 74.868
6738.833 0.257 74.787 0.965 -14.868 0.965 -14.868 0.257 74.787
6763.792 0.258 74.707 0.965 -14.951 0.965 -14.951 0.258 74.707
6788.75 0.259 74.626 0.964 -15.033 0.964 -15.033 0.259 74.626
6813.708 0.261 74.546 0.964 -15.115 0.964 -15.115 0.261 74.546
6838.667 0.262 74.465 0.963 -15.198 0.963 -15.198 0.262 74.465
6863.625 0.264 74.385 0.963 -15.28 0.963 -15.28 0.264 74.385
6888.583 0.265 74.305 0.963 -15.361 0.963 -15.361 0.265 74.305
6913.542 0.266 74.226 0.962 -15.443 0.962 -15.443 0.266 74.226
6938.5 0.268 74.146 0.962 -15.525 0.962 -15.525 0.268 74.146
6963.458 0.269 74.066 0.962 -15.606 0.962 -15.606 0.269 74.066
6988.417 0.27 73.987 0.961 -15.687 0.961 -15.687 0.27 73.987
7013.375 0.272 73.908 0.961 -15.768 0.961 -15.768 0.272 73.908
7038.333 0.273 73.829 0.96 -15.849 0.96 -15.849 0.273 73.829
7063.292 0.274 73.75 0.96 -15.93 0.96 -15.93 0.274 73.75
7088.25 0.276 73.671 0.96 -16.01 0.96 -16.01 0.276 73.671
7113.208 0.277 73.592 0.959 -16.091 0.959 -16.091 0.277 73.592
7138.167 0.279 73.514 0.959 -16.171 0.959 -16.171 0.279 73.514
7163.125 0.28 73.435 0.959 -16.251 0.959 -16.251 0.28 73.435
7188.083 0.281 73.357 0.958 -16.331 0.958 -16.331 0.281 73.357
7213.042 0.283 73.279 0.958 -16.41 0.958 -16.41 0.283 73.279
7238 0.284 73.201 0.957 -16.49 0.957 -16.49 0.284 73.201
7262.958 0.285 73.123 0.957 -16.569 0.957 -16.569 0.285 73.123
7287.917 0.287 73.045 0.957 -16.649 0.957 -16.649 0.287 73.045
7312.875 0.288 72.968 0.956 -16.728 0.956 -16.728 0.288 72.968
7337.833 0.289 72.89 0.956 -16.807 0.956 -16.807 0.289 72.89
7362.792 0.29 72.813 0.955 -16.886 0.955 -16.886 0.29 72.813
7387.75 0.292 72.736 0.955 -16.964 0.955 -16.964 0.292 72.736
7412.708 0.293 72.659 0.955 -17.043 0.955 -17.043 0.293 72.659
7437.667 0.294 72.582 0.954 -17.121 0.954 -17.121 0.294 72.582
7462.625 0.296 72.505 0.954 -17.199 0.954 -17.199 0.296 72.505
7487.583 0.297 72.428 0.953 -17.277 0.953 -17.277 0.297 72.428
7512.542 0.298 72.352 0.953 -17.355 0.953 -17.355 0.298 72.352
7537.5 0.3 72.275 0.953 -17.433 0.953 -17.433 0.3 72.275
7562.458 0.301 72.199 0.952 -17.511 0.952 -17.511 0.301 72.199
7587.417 0.302 72.123 0.952 -17.588 0.952 -17.588 0.302 72.123
7612.375 0.303 72.047 0.951 -17.666 0.951 -17.666 0.303 72.047
7637.333 0.305 71.971 0.951 -17.743 0.951 -17.743 0.305 71.971
7662.292 0.306 71.895 0.951 -17.82 0.951 -17.82 0.306 71.895
7687.25 0.307 71.82 0.95 -17.897 0.95 -17.897 0.307 71.82
7712.208 0.309 71.744 0.95 -17.974 0.95 -17.974 0.309 71.744
7737.167 0.31 71.669 0.949 -18.05 0.949 -18.05 0.31 71.669
7762.125 0.311 71.594 0.949 -18.127 0.949 -18.127 0.311 71.594
7787.083 0.312 71.518 0.948 -18.203 0.948 -18.203 0.312 71.518
7812.042 0.314 71.443 0.948 -18.279 0.948 -18.279 0.314 71.443
7837 0.315 71.369 0.948 -18.356 0.948 -18.356 0.315 71.369
7861.958 0.316 71.294 0.947 -18.432 0.947 -18.432 0.316 71.294
7886.917 0.317 71.219 0.947 -18.507 0.947 -18.507 0.317 71.219
7911.875 0.319 71.145 0.946 -18.583 0.946 -18.583 0.319 71.145
7936.833 0.32 71.07 0.946 -18.659 0.946 -18.659 0.32 71.07
7961.792 0.321 70.996 0.946 -18.734 0.946 -18.734 0.321 70.996
7986.75 0.322 70.922 0.945 -18.809 0.945 -18.809 0.322 70.922
8011.708 0.324 70.848 0.945 -18.885 0.945 -18.885 0.324 70.848
8036.667 0.325 70.774 0.944 -18.96 0.944 -18.96 0.325 70.774
8061.625 0.326 70.7 0.944 -19.035 0.944 -19.035 0.326 70.7
8086.583 0.327 70.626 0.943 -19.109 0.943 -19.109 0.327 70.626
8111.542 0.329 70.553 0.943 -19.184 0.943 -19.184 0.329 70.553
8136.5 0.33 70.479 0.943 -19.258 0.943 -19.258 0.33 70.479
8161.458 0.331 70.406 0.942 -19.333 0.942 -19.333 0.331 70.406
8186.417 0.332 70.333 0.942 -19.407 0.942 -19.407 0.332 70.333
