# MHZ S MA R 50

50 0.904 -25.25 0.427 64.718 0.427 64.718 0.904 -25.25
74.958 0.816 -35.291 0.578 54.661 0.578 54.661 0.816 -35.291
99.917 0.726 -43.376 0.687 46.56 0.687 46.56 0.726 -43.376
124.875 0.644 -49.795 0.764 40.126 0.764 40.126 0.644 -49.795
149.833 0.574 -54.9 0.818 35.004 0.818 35.004 0.574 -54.9
174.792 0.513 -59.002 0.857 30.886 0.857 30.886 0.513 -59.002
199.75 0.462 -62.342 0.886 27.53 0.886 27.53 0.462 -62.342
224.708 0.419 -65.099 0.907 24.756 0.907 24.756 0.419 -65.099
249.667 0.382 -67.406 0.923 22.432 0.923 22.432 0.382 -67.406
274.625 0.35 -69.361 0.936 20.459 0.936 20.459 0.35 -69.361
299.583 0.322 -71.037 0.946 18.766 0.946 18.766 0.322 -71.037
324.542 0.297 -72.489 0.954 17.296 0.954 17.296 0.297 -72.489
349.5 0.276 -73.758 0.96 16.008 0.96 16.008 0.276 -73.758
374.458 0.257 -74.877 0.965 14.87 0.965 14.87 0.257 -74.877
399.417 0.239 -75.872 0.97 13.857 0.97 13.857 0.239 -75.872
424.375 0.224 -76.761 0.973 12.948 0.973 12.948 0.224 -76.761
449.333 0.21 -77.562 0.977 12.127 0.977 12.127 0.21 -77.562
474.292 0.197 -78.286 0.979 11.381 0.979 11.381 0.197 -78.286
499.25 0.186 -78.945 0.981 10.7 0.981 10.7 0.186 -78.945
524.208 0.175 -79.548 0.983 10.075 0.983 10.075 0.175 -79.548
549.167 0.165 -80.101 0.985 9.499 0.985 9.499 0.165 -80.101
574.125 0.156 -80.61 0.987 8.966 0.987 8.966 0.156 -80.61
599.083 0.147 -81.08 0.988 8.47 0.988 8.47 0.147 -81.08
624.042 0.139 -81.516 0.989 8.007 0.989 8.007 0.139 -81.516
649 0.132 -81.922 0.99 7.575 0.99 7.575 0.132 -81.922
673.958 0.125 -82.299 0.991 7.168 0.991 7.168 0.125 -82.299
698.917 0.118 -82.652 0.992 6.785 0.992 6.785 0.118 -82.652
723.875 0.112 -82.981 0.993 6.424 0.993 6.424 0.112 -82.981
748.833 0.106 -83.29 0.993 6.082 0.993 6.082 0.106 -83.29
773.792 0.1 -83.579 0.994 5.757 0.994 5.757 0.1 -83.579
798.75 0.095 -83.85 0.994 5.448 0.994 5.448 0.095 -83.85
823.708 0.09 -84.104 0.995 5.153 0.995 5.153 0.09 -84.104
848.667 0.085 -84.343 0.995 4.872 0.995 4.872 0.085 -84.343
873.625 0.08 -84.566 0.996 4.602 0.996 4.602 0.08 -84.566
898.583 0.076 -84.775 0.996 4.344 0.996 4.344 0.076 -84.775
923.542 0.071 -84.969 0.996 4.096 0.996 4.096 0.071 -84.969
948.5 0.067 -85.15 0.997 3.857 0.997 3.857 0.067 -85.15
973.458 0.063 -85.316 0.997 3.627 0.997 3.627 0.063 -85.316
998.417 0.059 -85.469 0.997 3.405 0.997 3.405 0.059 -85.469
1023.375 0.056 -85.608 0.997 3.191 0.997 3.191 0.056 -85.608
1048.333 0.052 -85.732 0.997 2.983 0.997 2.983 0.052 -85.732
1073.292 0.049 -85.84 0.998 2.782 0.998 2.782 0.049 -85.84
1098.25 0.045 -85.931 0.998 2.588 0.998 2.588 0.045 -85.931
1123.208 0.042 -86.003 0.998 2.398 0.998 2.398 0.042 -86.003
1148.167 0.039 -86.054 0.998 2.214 0.998 2.214 0.039 -86.054
1173.125 0.036 -86.081 0.998 2.035 0.998 2.035 0.036 -86.081
1198.083 0.032 -86.079 0.998 1.861 0.998 1.861 0.032 -86.079
1223.042 0.03 -86.042 0.998 1.691 0.998 1.691 0.03 -86.042
1248 0.027 -85.961 0.998 1.525 0.998 1.525 0.027 -85.961
1272.958 0.024 -85.824 0.999 1.363 0.999 1.363 0.024 -85.824
1297.917 0.021 -85.613 0.999 1.204 0.999 1.204 0.021 -85.613
1322.875 0.018 -85.299 0.999 1.049 0.999 1.049 0.018 -85.299
1347.833 0.016 -84.835 0.999 0.897 0.999 0.897 0.016 -84.835
1372.792 0.013 -84.14 0.999 0.749 0.999 0.749 0.013 -84.14
1397.75 0.011 -83.059 0.999 0.603 0.999 0.603 0.011 -83.059
1422.708 8.111e-3 -81.256 0.999 0.46 0.999 0.46 8.111e-3 -81.256
1447.667 5.698e-3 -77.844 0.999 0.32 0.999 0.32 5.698e-3 -77.844
1472.625 3.379e-3 -69.579 0.999 0.182 0.999 0.182 3.379e-3 -69.579
1497.583 1.419e-3 -34.499 0.999 0.046 0.999 0.046 1.419e-3 -34.499
1522.542 1.918e-3 52.38 0.999 -0.087 0.999 -0.087 1.918e-3 52.38
1547.5 3.985e-3 72.727 0.999 -0.218 0.999 -0.218 3.985e-3 72.727
1572.458 6.174e-3 78.741 0.999 -0.347 0.999 -0.347 6.174e-3 78.741
1597.417 8.364e-3 81.493 0.999 -0.475 0.999 -0.475 8.364e-3 81.493
1622.375 0.011 83.03 0.999 -0.6 0.999 -0.6 0.011 83.03
1647.333 0.013 83.987 0.999 -0.723 0.999 -0.723 0.013 83.987
1672.292 0.015 84.624 0.999 -0.845 0.999 -0.845 0.015 84.624
1697.25 0.017 85.066 0.999 -0.965 0.999 -0.965 0.017 85.066
1722.208 0.019 85.381 0.999 -1.084 0.999 -1.084 0.019 85.381
1747.167 0.021 85.608 0.999 -1.201 0.999 -1.201 0.021 85.608
1772.125 0.023 85.772 0.999 -1.317 0.999 -1.317 0.023 85.772
1797.083 0.025 85.89 0.999 -1.431 0.999 -1.431 0.025 85.89
1822.042 0.027 85.973 0.998 -1.544 0.998 -1.544 0.027 85.973
1847 0.029 86.029 0.998 -1.656 0.998 -1.656 0.029 86.029
1871.958 0.031 86.063 0.998 -1.766 0.998 -1.766 0.031 86.063
1896.917 0.033 86.08 0.998 -1.876 0.998 -1.876 0.033 86.08
1921.875 0.035 86.084 0.998 -1.984 0.998 -1.984 0.035 86.084
1946.833 0.037 86.075 0.998 -2.091 0.998 -2.091 0.037 86.075
1971.792 0.038 86.058 0.998 -2.197 0.998 -2.197 0.038 86.058
1996.75 0.04 86.033 0.998 -2.302 0.998 -2.302 0.04 86.033
2021.708 0.042 86 0.998 -2.407 0.998 -2.407 0.042 86
2046.667 0.044 85.963 0.998 -2.51 0.998 -2.51 0.044 85.963
2071.625 0.046 85.92 0.998 -2.612 0.998 -2.612 0.046 85.92
2096.583 0.047 85.874 0.998 -2.714 0.998 -2.714 0.047 85.874
2121.542 0.049 85.824 0.998 -2.814 0.998 -2.814 0.049 85.824
2146.5 0.051 85.771 0.998 -2.914 0.998 -2.914 0.051 85.771
2171.458 0.053 85.715 0.997 -3.013 0.997 -3.013 0.053 85.715
2196.417 0.054 85.657 0.997 -3.111 0.997 -3.111 0.054 85.657
2221.375 0.056 85.597 0.997 -3.209 0.997 -3.209 0.056 85.597
2246.333 0.058 85.535 0.997 -3.306 0.997 -3.306 0.058 85.535
2271.292 0.059 85.472 0.997 -3.402 0.997 -3.402 0.059 85.472
2296.25 0.061 85.407 0.997 -3.498 0.997 -3.498 0.061 85.407
2321.208 0.063 85.341 0.997 -3.592 0.997 -3.592 0.063 85.341
2346.167 0.064 85.274 0.997 -3.687 0.997 -3.687 0.064 85.274
2371.125 0.066 85.206 0.997 -3.78 0.997 -3.78 0.066 85.206
2396.083 0.068 85.138 0.997 -3.873 0.997 -3.873 0.068 85.138
2421.042 0.069 85.068 0.996 -3.966 0.996 -3.966 0.069 85.068
2446 0.071 84.998 0.996 -4.058 0.996 -4.058 0.071 84.998
2470.958 0.072 84.928 0.996 -4.149 0.996 -4.149 0.072 84.928
2495.917 0.074 84.857 0.996 -4.24 0.996 -4.24 0.074 84.857
2520.875 0.076 84.785 0.996 -4.331 0.996 -4.331 0.076 84.785
2545.833 0.077 84.713 0.996 -4.42 0.996 -4.42 0.077 84.713
2570.792 0.079 84.641 0.996 -4.51 0.996 -4.51 0.079 84.641
2595.75 0.08 84.569 0.996 -4.599 0.996 -4.599 0.08 84.569
2620.708 0.082 84.496 0.995 -4.687 0.995 -4.687 0.082 84.496
2645.667 0.083 84.423 0.995 -4.775 0.995 -4.775 0.083 84.423
2670.625 0.085 84.35 0.995 -4.863 0.995 -4.863 0.085 84.35
2695.583 0.086 84.277 0.995 -4.95 0.995 -4.95 0.086 84.277
2720.542 0.088 84.203 0.995 -5.037 0.995 -5.037 0.088 84.203
2745.5 0.089 84.13 0.995 -5.123 0.995 -5.123 0.089 84.13
2770.458 0.091 84.056 0.995 -5.209 0.995 -5.209 0.091 84.056
2795.417 0.092 83.982 0.995 -5.295 0.995 -5.295 0.092 83.982
2820.375 0.094 83.909 0.994 -5.38 0.994 -5.38 0.094 83.909
2845.333 0.095 83.835 0.994 -5.465 0.994 -5.465 0.095 83.835
2870.292 0.097 83.761 0.994 -5.55 0.994 -5.55 0.097 83.761
2895.25 0.098 83.687 0.994 -5.634 0.994 -5.634 0.098 83.687
2920.208 0.1 83.613 0.994 -5.718 0.994 -5.718 0.1 83.613
2945.167 0.101 83.539 0.994 -5.802 0.994 -5.802 0.101 83.539
2970.125 0.103 83.465 0.994 -5.885 0.994 -5.885 0.103 83.465
2995.083 0.104 83.392 0.993 -5.968 0.993 -5.968 0.104 83.392
3020.042 0.105 83.318 0.993 -6.05 0.993 -6.05 0.105 83.318
3045 0.107 83.244 0.993 -6.133 0.993 -6.133 0.107 83.244
3069.958 0.108 83.17 0.993 -6.215 0.993 -6.215 0.108 83.17
3094.917 0.11 83.096 0.993 -6.297 0.993 -6.297 0.11 83.096
3119.875 0.111 83.023 0.993 -6.378 0.993 -6.378 0.111 83.023
3144.833 0.113 82.949 0.992 -6.459 0.992 -6.459 0.113 82.949
3169.792 0.114 82.876 0.992 -6.54 0.992 -6.54 0.114 82.876
3194.75 0.115 82.802 0.992 -6.621 0.992 -6.621 0.115 82.802
3219.708 0.117 82.729 0.992 -6.701 0.992 -6.701 0.117 82.729
3244.667 0.118 82.655 0.992 -6.782 0.992 -6.782 0.118 82.655
3269.625 0.119 82.582 0.992 -6.862 0.992 -6.862 0.119 82.582
3294.583 0.121 82.509 0.992 -6.941 0.992 -6.941 0.121 82.509
3319.542 0.122 82.435 0.991 -7.021 0.991 -7.021 0.122 82.435
3344.5 0.124 82.362 0.991 -7.1 0.991 -7.1 0.124 82.362
3369.458 0.125 82.289 0.991 -7.179 0.991 -7.179 0.125 82.289
3394.417 0.126 82.216 0.991 -7.258 0.991 -7.258 0.126 82.216
3419.375 0.128 82.143 0.991 -7.336 0.991 -7.336 0.128 82.143
3444.333 0.129 82.071 0.99 -7.415 0.99 -7.415 0.129 82.071
3469.292 0.13 81.998 0.99 -7.493 0.99 -7.493 0.13 81.998
3494.25 0.132 81.925 0.99 -7.571 0.99 -7.571 0.132 81.925
3519.208 0.133 81.853 0.99 -7.649 0.99 -7.649 0.133 81.853
3544.167 0.134 81.78 0.99 -7.726 0.99 -7.726 0.134 81.78
3569.125 0.136 81.708 0.99 -7.803 0.99 -7.803 0.136 81.708
3594.083 0.137 81.636 0.989 -7.881 0.989 -7.881 0.137 81.636
3619.042 0.138 81.563 0.989 -7.958 0.989 -7.958 0.138 81.563
3644 0.14 81.491 0.989 -8.034 0.989 -8.034 0.14 81.491
3668.958 0.141 81.419 0.989 -8.111 0.989 -8.111 0.141 81.419
3693.917 0.142 81.347 0.989 -8.187 0.989 -8.187 0.142 81.347
3718.875 0.144 81.275 0.988 -8.264 0.988 -8.264 0.144 81.275
3743.833 0.145 81.203 0.988 -8.34 0.988 -8.34 0.145 81.203
3768.792 0.146 81.132 0.988 -8.416 0.988 -8.416 0.146 81.132
3793.75 0.148 81.06 0.988 -8.491 0.988 -8.491 0.148 81.06
3818.708 0.149 80.989 0.988 -8.567 0.988 -8.567 0.149 80.989
3843.667 0.15 80.917 0.987 -8.642 0.987 -8.642 0.15 80.917
3868.625 0.152 80.846 0.987 -8.718 0.987 -8.718 0.152 80.846
3893.583 0.153 80.774 0.987 -8.793 0.987 -8.793 0.153 80.774
3918.542 0.154 80.703 0.987 -8.868 0.987 -8.868 0.154 80.703
3943.5 0.155 80.632 0.987 -8.942 0.987 -8.942 0.155 80.632
3968.458 0.157 80.561 0.986 -9.017 0.986 -9.017 0.157 80.561
3993.417 0.158 80.49 0.986 -9.091 0.986 -9.091 0.158 80.49
4018.375 0.159 80.419 0.986 -9.166 0.986 -9.166 0.159 80.419
4043.333 0.161 80.348 0.986 -9.24 0.986 -9.24 0.161 80.348
4068.292 0.162 80.278 0.986 -9.314 0.986 -9.314 0.162 80.278
4093.25 0.163 80.207 0.985 -9.388 0.985 -9.388 0.163 80.207
4118.208 0.164 80.136 0.985 -9.462 0.985 -9.462 0.164 80.136
4143.167 0.166 80.066 0.985 -9.535 0.985 -9.535 0.166 80.066
4168.125 0.167 79.996 0.985 -9.609 0.985 -9.609 0.167 79.996
4193.083 0.168 79.925 0.985 -9.682 0.985 -9.682 0.168 79.925
4218.042 0.169 79.855 0.984 -9.755 0.984 -9.755 0.169 79.855
4243 0.171 79.785 0.984 -9.828 0.984 -9.828 0.171 79.785
4267.958 0.172 79.715 0.984 -9.901 0.984 -9.901 0.172 79.715
4292.917 0.173 79.645 0.984 -9.974 0.984 -9.974 0.173 79.645
4317.875 0.174 79.575 0.984 -10.047 0.984 -10.047 0.174 79.575
4342.833 0.176 79.505 0.983 -10.12 0.983 -10.12 0.176 79.505
4367.792 0.177 79.435 0.983 -10.192 0.983 -10.192 0.177 79.435
4392.75 0.178 79.366 0.983 -10.264 0.983 -10.264 0.178 79.366
4417.708 0.179 79.296 0.983 -10.337 0.983 -10.337 0.179 79.296
4442.667 0.181 79.227 0.982 -10.409 0.982 -10.409 0.181 79.227
4467.625 0.182 79.157 0.982 -10.481 0.982 -10.481 0.182 79.157
4492.583 0.183 79.088 0.982 -10.553 0.982 -10.553 0.183 79.088
4517.542 0.184 79.019 0.982 -10.624 0.982 -10.624 0.184 79.019
4542.5 0.186 78.949 0.981 -10.696 0.981 -10.696 0.186 78.949
4567.458 0.187 78.88 0.981 -10.768 0.981 -10.768 0.187 78.88
4592.417 0.188 78.811 0.981 -10.839 0.981 -10.839 0.188 78.811
4617.375 0.189 78.742 0.981 -10.91 0.981 -10.91 0.189 78.742
4642.333 0.19 78.673 0.981 -10.982 0.981 -10.982 0.19 78.673
4667.292 0.192 78.605 0.98 -11.053 0.98 -11.053 0.192 78.605
4692.25 0.193 78.536 0.98 -11.124 0.98 -11.124 0.193 78.536
4717.208 0.194 78.467 0.98 -11.195 0.98 -11.195 0.194 78.467
4742.167 0.195 78.398 0.98 -11.265 0.98 -11.265 0.195 78.398
4767.125 0.197 78.33 0.979 -11.336 0.979 -11.336 0.197 78.33
4792.083 0.198 78.261 0.979 -11.407 0.979 -11.407 0.198 78.261
4817.042 0.199 78.193 0.979 -11.477 0.979 -11.477 0.199 78.193
4842 0.2 78.125 0.979 -11.547 0.979 -11.547 0.2 78.125
4866.958 0.201 78.057 0.978 -11.618 0.978 -11.618 0.201 78.057
4891.917 0.203 77.988 0.978 -11.688 0.978 -11.688 0.203 77.988
4916.875 0.204 77.92 0.978 -11.758 0.978 -11.758 0.204 77.92
4941.833 0.205 77.852 0.978 -11.828 0.978 -11.828 0.205 77.852
4966.792 0.206 77.784 0.977 -11.898 0.977 -11.898 0.206 77.784
4991.75 0.207 77.716 0.977 -11.968 0.977 -11.968 0.207 77.716
5016.708 0.209 77.649 0.977 -12.037 0.977 -12.037 0.209 77.649
5041.667 0.21 77.581 0.977 -12.107 0.977 -12.107 0.21 77.581
5066.625 0.211 77.513 0.976 -12.177 0.976 -12.177 0.211 77.513
5091.583 0.212 77.445 0.976 -12.246 0.976 -12.246 0.212 77.445
5116.542 0.213 77.378 0.976 -12.315 0.976 -12.315 0.213 77.378
5141.5 0.214 77.31 0.976 -12.385 0.976 -12.385 0.214 77.31
5166.458 0.216 77.243 0.975 -12.454 0.975 -12.454 0.216 77.243
5191.417 0.217 77.176 0.975 -12.523 0.975 -12.523 0.217 77.176
5216.375 0.218 77.108 0.975 -12.592 0.975 -12.592 0.218 77.108
5241.333 0.219 77.041 0.975 -12.661 0.975 -12.661 0.219 77.041
5266.292 0.22 76.974 0.974 -12.729 0.974 -12.729 0.22 76.974
5291.25 0.222 76.907 0.974 -12.798 0.974 -12.798 0.222 76.907
5316.208 0.223 76.84 0.974 -12.867 0.974 -12.867 0.223 76.84
5341.167 0.224 76.773 0.973 -12.935 0.973 -12.935 0.224 76.773
5366.125 0.225 76.706 0.973 -13.004 0.973 -13.004 0.225 76.706
5391.083 0.226 76.639 0.973 -13.072 0.973 -13.072 0.226 76.639
5416.042 0.227 76.573 0.973 -13.14 0.973 -13.14 0.227 76.573
5441 0.229 76.506 0.972 -13.209 0.972 -13.209 0.229 76.506
5465.958 0.23 76.439 0.972 -13.277 0.972 -13.277 0.23 76.439
5490.917 0.231 76.373 0.972 -13.345 0.972 -13.345 0.231 76.373
5515.875 0.232 76.306 0.972 -13.413 0.972 -13.413 0.232 76.306
5540.833 0.233 76.24 0.971 -13.481 0.971 -13.481 0.233 76.24
5565.792 0.234 76.174 0.971 -13.549 0.971 -13.549 0.234 76.174
5590.75 0.235 76.107 0.971 -13.616 0.971 -13.616 0.235 76.107
5615.708 0.237 76.041 0.97 -13.684 0.97 -13.684 0.237 76.041
5640.667 0.238 75.975 0.97 -13.751 0.97 -13.751 0.238 75.975
5665.625 0.239 75.909 0.97 -13.819 0.97 -13.819 0.239 75.909
5690.583 0.24 75.843 0.97 -13.886 0.97 -13.886 0.24 75.843
5715.542 0.241 75.777 0.969 -13.954 0.969 -13.954 0.241 75.777
5740.5 0.242 75.711 0.969 -14.021 0.969 -14.021 0.242 75.711
5765.458 0.243 75.645 0.969 -14.088 0.969 -14.088 0.243 75.645
5790.417 0.245 75.579 0.969 -14.155 0.969 -14.155 0.245 75.579
5815.375 0.246 75.514 0.968 -14.222 0.968 -14.222 0.246 75.514
5840.333 0.247 75.448 0.968 -14.289 0.968 -14.289 0.247 75.448
5865.292 0.248 75.382 0.968 -14.356 0.968 -14.356 0.248 75.382
5890.25 0.249 75.317 0.967 -14.423 0.967 -14.423 0.249 75.317
5915.208 0.25 75.251 0.967 -14.49 0.967 -14.49 0.25 75.251
5940.167 0.251 75.186 0.967 -14.556 0.967 -14.556 0.251 75.186
5965.125 0.252 75.121 0.966 -14.623 0.966 -14.623 0.252 75.121
5990.083 0.254 75.055 0.966 -14.689 0.966 -14.689 0.254 75.055
6015.042 0.255 74.99 0.966 -14.756 0.966 -14.756 0.255 74.99
6040 0.256 74.925 0.966 -14.822 0.966 -14.822 0.256 74.925
6064.958 0.257 74.86 0.965 -14.888 0.965 -14.888 0.257 74.86
6089.917 0.258 74.795 0.965 -14.955 0.965 -14.955 0.258 74.795
6114.875 0.259 74.73 0.965 -15.021 0.965 -15.021 0.259 74.73
6139.833 0.26 74.665 0.964 -15.087 0.964 -15.087 0.26 74.665
6164.792 0.261 74.6 0.964 -15.153 0.964 -15.153 0.261 74.6
6189.75 0.263 74.535 0.964 -15.219 0.964 -15.219 0.263 74.535
6214.708 0.264 74.47 0.964 -15.284 0.964 -15.284 0.264 74.47
6239.667 0.265 74.406 0.963 -15.35 0.963 -15.35 0.265 74.406
6264.625 0.266 74.341 0.963 -15.416 0.963 -15.416 0.266 74.341
6289.583 0.267 74.277 0.963 -15.482 0.963 -15.482 0.267 74.277
6314.542 0.268 74.212 0.962 -15.547 0.962 -15.547 0.268 74.212
6339.5 0.269 74.148 0.962 -15.613 0.962 -15.613 0.269 74.148
6364.458 0.27 74.083 0.962 -15.678 0.962 -15.678 0.27 74.083
6389.417 0.271 74.019 0.961 -15.743 0.961 -15.743 0.271 74.019
6414.375 0.272 73.955 0.961 -15.809 0.961 -15.809 0.272 73.955
6439.333 0.274 73.89 0.961 -15.874 0.961 -15.874 0.274 73.89
6464.292 0.275 73.826 0.96 -15.939 0.96 -15.939 0.275 73.826
6489.25 0.276 73.762 0.96 -16.004 0.96 -16.004 0.276 73.762
6514.208 0.277 73.698 0.96 -16.069 0.96 -16.069 0.277 73.698
6539.167 0.278 73.634 0.959 -16.134 0.959 -16.134 0.278 73.634
6564.125 0.279 73.57 0.959 -16.199 0.959 -16.199 0.279 73.57
6589.083 0.28 73.507 0.959 -16.264 0.959 -16.264 0.28 73.507
6614.042 0.281 73.443 0.959 -16.329 0.959 -16.329 0.281 73.443
6639 0.282 73.379 0.958 -16.393 0.958 -16.393 0.282 73.379
6663.958 0.283 73.315 0.958 -16.458 0.958 -16.458 0.283 73.315
6688.917 0.284 73.252 0.958 -16.522 0.958 -16.522 0.284 73.252
6713.875 0.285 73.188 0.957 -16.587 0.957 -16.587 0.285 73.188
6738.833 0.287 73.125 0.957 -16.651 0.957 -16.651 0.287 73.125
6763.792 0.288 73.061 0.957 -16.716 0.957 -16.716 0.288 73.061
6788.75 0.289 72.998 0.956 -16.78 0.956 -16.78 0.289 72.998
6813.708 0.29 72.935 0.956 -16.844 0.956 -16.844 0.29 72.935
6838.667 0.291 72.871 0.956 -16.908 0.956 -16.908 0.291 72.871
6863.625 0.292 72.808 0.955 -16.972 0.955 -16.972 0.292 72.808
6888.583 0.293 72.745 0.955 -17.037 0.955 -17.037 0.293 72.745
6913.542 0.294 72.682 0.955 -17.1 0.955 -17.1 0.294 72.682
6938.5 0.295 72.619 0.954 -17.164 0.954 -17.164 0.295 72.619
6963.458 0.296 72.556 0.954 -17.228 0.954 -17.228 0.296 72.556
6988.417 0.297 72.493 0.954 -17.292 0.954 -17.292 0.297 72.493
7013.375 0.298 72.43 0.953 -17.356 0.953 -17.356 0.298 72.43
7038.333 0.299 72.367 0.953 -17.419 0.953 -17.419 0.299 72.367
7063.292 0.3 72.305 0.953 -17.483 0.953 -17.483 0.3 72.305
7088.25 0.301 72.242 0.952 -17.546 0.952 -17.546 0.301 72.242
7113.208 0.303 72.179 0.952 -17.61 0.952 -17.61 0.303 72.179
7138.167 0.304 72.117 0.952 -17.673 0.952 -17.673 0.304 72.117
7163.125 0.305 72.054 0.951 -17.736 0.951 -17.736 0.305 72.054
7188.083 0.306 71.992 0.951 -17.8 0.951 -17.8 0.306 71.992
7213.042 0.307 71.929 0.951 -17.863 0.951 -17.863 0.307 71.929
7238 0.308 71.867 0.95 -17.926 0.95 -17.926 0.308 71.867
7262.958 0.309 71.805 0.95 -17.989 0.95 -17.989 0.309 71.805
7287.917 0.31 71.742 0.95 -18.052 0.95 -18.052 0.31 71.742
7312.875 0.311 71.68 0.949 -18.115 0.949 -18.115 0.311 71.68
7337.833 0.312 71.618 0.949 -18.178 0.949 -18.178 0.312 71.618
7362.792 0.313 71.556 0.949 -18.241 0.949 -18.241 0.313 71.556
7387.75 0.314 71.494 0.948 -18.304 0.948 -18.304 0.314 71.494
7412.708 0.315 71.432 0.948 -18.366 0.948 -18.366 0.315 71.432
7437.667 0.316 71.37 0.948 -18.429 0.948 -18.429 0.316 71.37
7462.625 0.317 71.308 0.947 -18.491 0.947 -18.491 0.317 71.308
7487.583 0.318 71.247 0.947 -18.554 0.947 -18.554 0.318 71.247
7512.542 0.319 71.185 0.947 -18.616 0.947 -18.616 0.319 71.185
7537.5 0.32 71.123 0.946 -18.679 0.946 -18.679 0.32 71.123
7562.458 0.321 71.062 0.946 -18.741 0.946 -18.741 0.321 71.062
7587.417 0.322 71 0.946 -18.803 0.946 -18.803 0.322 71
7612.375 0.323 70.939 0.945 -18.865 0.945 -18.865 0.323 70.939
7637.333 0.324 70.877 0.945 -18.928 0.945 -18.928 0.324 70.877
7662.292 0.325 70.816 0.944 -18.99 0.944 -18.99 0.325 70.816
7687.25 0.326 70.754 0.944 -19.052 0.944 -19.052 0.326 70.754
7712.208 0.327 70.693 0.944 -19.114 0.944 -19.114 0.327 70.693
7737.167 0.328 70.632 0.943 -19.176 0.943 -19.176 0.328 70.632
7762.125 0.329 70.571 0.943 -19.237 0.943 -19.237 0.329 70.571
7787.083 0.331 70.51 0.943 -19.299 0.943 -19.299 0.331 70.51
7812.042 0.332 70.449 0.942 -19.361 0.942 -19.361 0.332 70.449
7837 0.333 70.388 0.942 -19.422 0.942 -19.422 0.333 70.388
7861.958 0.334 70.327 0.942 -19.484 0.942 -19.484 0.334 70.327
7886.917 0.335 70.266 0.941 -19.546 0.941 -19.546 0.335 70.266
7911.875 0.336 70.205 0.941 -19.607 0.941 -19.607 0.336 70.205
7936.833 0.337 70.144 0.941 -19.668 0.941 -19.668 0.337 70.144
7961.792 0.338 70.083 0.94 -19.73 0.94 -19.73 0.338 70.083
7986.75 0.339 70.023 0.94 -19.791 0.94 -19.791 0.339 70.023
8011.708 0.34 69.962 0.939 -19.852 0.939 -19.852 0.34 69.962
8036.667 0.341 69.902 0.939 -19.913 0.939 -19.913 0.341 69.902
8061.625 0.342 69.841 0.939 -19.975 0.939 -19.975 0.342 69.841
8086.583 0.343 69.781 0.938 -20.036 0.938 -20.036 0.343 69.781
8111.542 0.344 69.72 0.938 -20.097 0.938 -20.097 0.344 69.72
8136.5 0.345 69.66 0.938 -20.157 0.938 -20.157 0.345 69.66
8161.458 0.346 69.6 0.937 -20.218 0.937 -20.218 0.346 69.6
8186.417 0.347 69.54 0.937 -20.279 0.937 -20.279 0.347 69.54
8211.375 0.348 69.479 0.937 -20.34 0.937 -20.34 0.348 69.479
