# MHZ S MA R 50

50 0.993 -6.987 0.122 83.002 0.122 83.002 0.993 -6.987
74.958 0.983 -10.414 0.181 79.57 0.181 79.57 0.983 -10.414
99.917 0.971 -13.772 0.238 76.207 0.238 76.207 0.971 -13.772
124.875 0.956 -17.042 0.293 72.932 0.293 72.932 0.956 -17.042
149.833 0.938 -20.207 0.345 69.761 0.345 69.761 0.938 -20.207
174.792 0.918 -23.256 0.395 66.707 0.395 66.707 0.918 -23.256
199.75 0.897 -26.18 0.441 63.777 0.441 63.777 0.897 -26.18
224.708 0.874 -28.974 0.484 60.979 0.484 60.979 0.874 -28.974
249.667 0.851 -31.634 0.524 58.313 0.524 58.313 0.851 -31.634
274.625 0.827 -34.16 0.562 55.782 0.562 55.782 0.827 -34.16
299.583 0.803 -36.554 0.596 53.382 0.596 53.382 0.803 -36.554
324.542 0.778 -38.82 0.627 51.111 0.627 51.111 0.778 -38.82
349.5 0.754 -40.961 0.656 48.965 0.656 48.965 0.754 -40.961
374.458 0.731 -42.982 0.682 46.937 0.682 46.937 0.731 -42.982
399.417 0.707 -44.891 0.706 45.023 0.706 45.023 0.707 -44.891
424.375 0.685 -46.692 0.728 43.216 0.728 43.216 0.685 -46.692
449.333 0.663 -48.392 0.748 41.511 0.748 41.511 0.663 -48.392
474.292 0.641 -49.997 0.766 39.9 0.766 39.9 0.641 -49.997
499.25 0.621 -51.513 0.783 38.378 0.783 38.378 0.621 -51.513
524.208 0.601 -52.946 0.798 36.939 0.798 36.939 0.601 -52.946
549.167 0.582 -54.302 0.812 35.578 0.812 35.578 0.582 -54.302
574.125 0.563 -55.584 0.825 34.29 0.825 34.29 0.563 -55.584
599.083 0.546 -56.799 0.837 33.069 0.837 33.069 0.546 -56.799
624.042 0.529 -57.952 0.848 31.911 0.848 31.911 0.529 -57.952
649 0.512 -59.045 0.858 30.811 0.858 30.811 0.512 -59.045
673.958 0.496 -60.084 0.867 29.766 0.867 29.766 0.496 -60.084
698.917 0.481 -61.072 0.875 28.772 0.875 28.772 0.481 -61.072
723.875 0.467 -62.012 0.883 27.825 0.883 27.825 0.467 -62.012
748.833 0.453 -62.908 0.89 26.923 0.89 26.923 0.453 -62.908
773.792 0.439 -63.762 0.897 26.062 0.897 26.062 0.439 -63.762
798.75 0.426 -64.578 0.903 25.24 0.903 25.24 0.426 -64.578
823.708 0.414 -65.358 0.909 24.453 0.909 24.453 0.414 -65.358
848.667 0.402 -66.104 0.914 23.701 0.914 23.701 0.402 -66.104
873.625 0.39 -66.818 0.919 22.98 0.919 22.98 0.39 -66.818
898.583 0.379 -67.502 0.924 22.288 0.924 22.288 0.379 -67.502
923.542 0.369 -68.159 0.928 21.625 0.928 21.625 0.369 -68.159
948.5 0.358 -68.789 0.932 20.987 0.932 20.987 0.358 -68.789
973.458 0.348 -69.395 0.936 20.374 0.936 20.374 0.348 -69.395
998.417 0.338 -69.977 0.94 19.784 0.94 19.784 0.338 -69.977
1023.375 0.329 -70.538 0.943 19.216 0.943 19.216 0.329 -70.538
1048.333 0.32 -71.078 0.946 18.668 0.946 18.668 0.32 -71.078
1073.292 0.311 -71.599 0.949 18.139 0.949 18.139 0.311 -71.599
1098.25 0.303 -72.101 0.952 17.628 0.952 17.628 0.303 -72.101
1123.208 0.295 -72.587 0.954 17.135 0.954 17.135 0.295 -72.587
1148.167 0.287 -73.055 0.957 16.658 0.957 16.658 0.287 -73.055
1173.125 0.279 -73.508 0.959 16.196 0.959 16.196 0.279 -73.508
1198.083 0.271 -73.947 0.961 15.749 0.961 15.749 0.271 -73.947
1223.042 0.264 -74.371 0.963 15.315 0.963 15.315 0.264 -74.371
1248 0.257 -74.783 0.965 14.895 0.965 14.895 0.257 -74.783
1272.958 0.25 -75.181 0.967 14.487 0.967 14.487 0.25 -75.181
1297.917 0.243 -75.568 0.968 14.09 0.968 14.09 0.243 -75.568
1322.875 0.237 -75.943 0.97 13.705 0.97 13.705 0.237 -75.943
1347.833 0.231 -76.307 0.972 13.331 0.972 13.331 0.231 -76.307
1372.792 0.224 -76.661 0.973 12.966 0.973 12.966 0.224 -76.661
1397.75 0.218 -77.005 0.974 12.612 0.974 12.612 0.218 -77.005
1422.708 0.212 -77.339 0.976 12.266 0.976 12.266 0.212 -77.339
1447.667 0.207 -77.664 0.977 11.929 0.977 11.929 0.207 -77.664
1472.625 0.201 -77.981 0.978 11.601 0.978 11.601 0.201 -77.981
1497.583 0.196 -78.289 0.979 11.28 0.979 11.28 0.196 -78.289
1522.542 0.19 -78.59 0.98 10.968 0.98 10.968 0.19 -78.59
1547.5 0.185 -78.882 0.981 10.662 0.981 10.662 0.185 -78.882
1572.458 0.18 -79.167 0.982 10.364 0.982 10.364 0.18 -79.167
1597.417 0.175 -79.445 0.983 10.072 0.983 10.072 0.175 -79.445
1622.375 0.17 -79.716 0.984 9.786 0.984 9.786 0.17 -79.716
1647.333 0.165 -79.981 0.985 9.507 0.985 9.507 0.165 -79.981
1672.292 0.16 -80.239 0.986 9.233 0.986 9.233 0.16 -80.239
1697.25 0.156 -80.49 0.986 8.966 0.986 8.966 0.156 -80.49
1722.208 0.151 -80.736 0.987 8.703 0.987 8.703 0.151 -80.736
1747.167 0.147 -80.976 0.988 8.446 0.988 8.446 0.147 -80.976
1772.125 0.143 -81.21 0.988 8.194 0.988 8.194 0.143 -81.21
1797.083 0.138 -81.438 0.989 7.947 0.989 7.947 0.138 -81.438
1822.042 0.134 -81.662 0.989 7.704 0.989 7.704 0.134 -81.662
1847 0.13 -81.879 0.99 7.466 0.99 7.466 0.13 -81.879
1871.958 0.126 -82.092 0.991 7.232 0.991 7.232 0.126 -82.092
1896.917 0.122 -82.299 0.991 7.002 0.991 7.002 0.122 -82.299
1921.875 0.118 -82.502 0.992 6.776 0.992 6.776 0.118 -82.502
1946.833 0.114 -82.699 0.992 6.554 0.992 6.554 0.114 -82.699
1971.792 0.11 -82.891 0.992 6.336 0.992 6.336 0.11 -82.891
1996.75 0.107 -83.079 0.993 6.121 0.993 6.121 0.107 -83.079
2021.708 0.103 -83.261 0.993 5.909 0.993 5.909 0.103 -83.261
2046.667 0.099 -83.439 0.994 5.701 0.994 5.701 0.099 -83.439
2071.625 0.096 -83.612 0.994 5.497 0.994 5.497 0.096 -83.612
2096.583 0.092 -83.779 0.994 5.295 0.994 5.295 0.092 -83.779
2121.542 0.089 -83.941 0.995 5.096 0.995 5.096 0.089 -83.941
2146.5 0.085 -84.099 0.995 4.9 0.995 4.9 0.085 -84.099
2171.458 0.082 -84.25 0.995 4.707 0.995 4.707 0.082 -84.25
2196.417 0.079 -84.397 0.995 4.517 0.995 4.517 0.079 -84.397
2221.375 0.076 -84.537 0.996 4.329 0.996 4.329 0.076 -84.537
2246.333 0.072 -84.671 0.996 4.144 0.996 4.144 0.072 -84.671
2271.292 0.069 -84.799 0.996 3.962 0.996 3.962 0.069 -84.799
2296.25 0.066 -84.92 0.996 3.781 0.996 3.781 0.066 -84.92
2321.208 0.063 -85.034 0.997 3.603 0.997 3.603 0.063 -85.034
2346.167 0.06 -85.14 0.997 3.428 0.997 3.428 0.06 -85.14
2371.125 0.057 -85.237 0.997 3.254 0.997 3.254 0.057 -85.237
2396.083 0.054 -85.324 0.997 3.083 0.997 3.083 0.054 -85.324
2421.042 0.051 -85.4 0.997 2.914 0.997 2.914 0.051 -85.4
2446 0.048 -85.465 0.997 2.746 0.997 2.746 0.048 -85.465
2470.958 0.045 -85.516 0.997 2.581 0.997 2.581 0.045 -85.516
2495.917 0.042 -85.55 0.998 2.417 0.998 2.417 0.042 -85.55
2520.875 0.039 -85.566 0.998 2.256 0.998 2.256 0.039 -85.566
2545.833 0.037 -85.56 0.998 2.096 0.998 2.096 0.037 -85.56
2570.792 0.034 -85.527 0.998 1.938 0.998 1.938 0.034 -85.527
2595.75 0.031 -85.461 0.998 1.781 0.998 1.781 0.031 -85.461
2620.708 0.028 -85.353 0.998 1.626 0.998 1.626 0.028 -85.353
2645.667 0.026 -85.193 0.998 1.473 0.998 1.473 0.026 -85.193
2670.625 0.023 -84.962 0.998 1.321 0.998 1.321 0.023 -84.962
2695.583 0.02 -84.637 0.998 1.171 0.998 1.171 0.02 -84.637
2720.542 0.018 -84.179 0.998 1.022 0.998 1.022 0.018 -84.179
2745.5 0.015 -83.522 0.998 0.875 0.998 0.875 0.015 -83.522
2770.458 0.013 -82.556 0.998 0.729 0.998 0.729 0.013 -82.556
2795.417 0.01 -81.06 0.998 0.584 0.998 0.584 0.01 -81.06
2820.375 7.843e-3 -78.548 0.998 0.441 0.998 0.441 7.843e-3 -78.548
2845.333 5.432e-3 -73.692 0.998 0.299 0.998 0.299 5.432e-3 -73.692
2870.292 3.145e-3 -61.399 0.998 0.158 0.998 0.158 3.145e-3 -61.399
2895.25 1.534e-3 -12.457 0.999 0.019 0.999 0.019 1.534e-3 -12.457
2920.208 2.565e-3 54.142 0.998 -0.119 0.998 -0.119 2.565e-3 54.142
2945.167 4.719e-3 71.234 0.998 -0.256 0.998 -0.256 4.719e-3 71.234
2970.125 7.009e-3 77.268 0.998 -0.392 0.998 -0.392 7.009e-3 77.268
2995.083 9.322e-3 80.226 0.998 -0.527 0.998 -0.527 9.322e-3 80.226
3020.042 0.012 81.94 0.998 -0.661 0.998 -0.661 0.012 81.94
3045 0.014 83.034 0.998 -0.794 0.998 -0.794 0.014 83.034
3069.958 0.016 83.775 0.998 -0.925 0.998 -0.925 0.016 83.775
3094.917 0.018 84.298 0.998 -1.056 0.998 -1.056 0.018 84.298
3119.875 0.021 84.674 0.998 -1.186 0.998 -1.186 0.021 84.674
3144.833 0.023 84.95 0.998 -1.314 0.998 -1.314 0.023 84.95
3169.792 0.025 85.152 0.998 -1.442 0.998 -1.442 0.025 85.152
3194.75 0.027 85.3 0.998 -1.569 0.998 -1.569 0.027 85.3
3219.708 0.03 85.407 0.998 -1.695 0.998 -1.695 0.03 85.407
3244.667 0.032 85.481 0.998 -1.82 0.998 -1.82 0.032 85.481
3269.625 0.034 85.529 0.998 -1.944 0.998 -1.944 0.034 85.529
3294.583 0.036 85.556 0.998 -2.067 0.998 -2.067 0.036 85.556
3319.542 0.038 85.567 0.998 -2.19 0.998 -2.19 0.038 85.567
3344.5 0.04 85.563 0.998 -2.311 0.998 -2.311 0.04 85.563
3369.458 0.042 85.548 0.998 -2.432 0.998 -2.432 0.042 85.548
3394.417 0.045 85.523 0.998 -2.552 0.998 -2.552 0.045 85.523
3419.375 0.047 85.49 0.997 -2.671 0.997 -2.671 0.047 85.49
3444.333 0.049 85.449 0.997 -2.79 0.997 -2.79 0.049 85.449
3469.292 0.051 85.403 0.997 -2.908 0.997 -2.908 0.051 85.403
3494.25 0.053 85.351 0.997 -3.025 0.997 -3.025 0.053 85.351
3519.208 0.055 85.295 0.997 -3.141 0.997 -3.141 0.055 85.295
3544.167 0.057 85.235 0.997 -3.257 0.997 -3.257 0.057 85.235
3569.125 0.059 85.172 0.997 -3.372 0.997 -3.372 0.059 85.172
3594.083 0.061 85.105 0.997 -3.486 0.997 -3.486 0.061 85.105
3619.042 0.063 85.036 0.997 -3.6 0.997 -3.6 0.063 85.036
3644 0.065 84.964 0.996 -3.713 0.996 -3.713 0.065 84.964
3668.958 0.067 84.891 0.996 -3.826 0.996 -3.826 0.067 84.891
3693.917 0.069 84.816 0.996 -3.937 0.996 -3.937 0.069 84.816
3718.875 0.071 84.739 0.996 -4.049 0.996 -4.049 0.071 84.739
3743.833 0.073 84.661 0.996 -4.159 0.996 -4.159 0.073 84.661
3768.792 0.074 84.581 0.996 -4.269 0.996 -4.269 0.074 84.581
3793.75 0.076 84.5 0.996 -4.379 0.996 -4.379 0.076 84.5
3818.708 0.078 84.419 0.995 -4.488 0.995 -4.488 0.078 84.419
3843.667 0.08 84.336 0.995 -4.596 0.995 -4.596 0.08 84.336
3868.625 0.082 84.253 0.995 -4.704 0.995 -4.704 0.082 84.253
3893.583 0.084 84.169 0.995 -4.811 0.995 -4.811 0.084 84.169
3918.542 0.086 84.085 0.995 -4.918 0.995 -4.918 0.086 84.085
3943.5 0.088 84 0.995 -5.024 0.995 -5.024 0.088 84
3968.458 0.089 83.914 0.995 -5.13 0.995 -5.13 0.089 83.914
3993.417 0.091 83.828 0.994 -5.235 0.994 -5.235 0.091 83.828
4018.375 0.093 83.742 0.994 -5.34 0.994 -5.34 0.093 83.742
4043.333 0.095 83.655 0.994 -5.444 0.994 -5.444 0.095 83.655
4068.292 0.097 83.568 0.994 -5.548 0.994 -5.548 0.097 83.568
4093.25 0.098 83.481 0.994 -5.652 0.994 -5.652 0.098 83.481
4118.208 0.1 83.394 0.993 -5.754 0.993 -5.754 0.1 83.394
4143.167 0.102 83.306 0.993 -5.857 0.993 -5.857 0.102 83.306
4168.125 0.104 83.219 0.993 -5.959 0.993 -5.959 0.104 83.219
4193.083 0.106 83.131 0.993 -6.06 0.993 -6.06 0.106 83.131
4218.042 0.107 83.043 0.993 -6.162 0.993 -6.162 0.107 83.043
4243 0.109 82.956 0.993 -6.262 0.993 -6.262 0.109 82.956
4267.958 0.111 82.868 0.992 -6.363 0.992 -6.363 0.111 82.868
4292.917 0.113 82.78 0.992 -6.462 0.992 -6.462 0.113 82.78
4317.875 0.114 82.692 0.992 -6.562 0.992 -6.562 0.114 82.692
4342.833 0.116 82.604 0.992 -6.661 0.992 -6.661 0.116 82.604
4367.792 0.118 82.516 0.992 -6.76 0.992 -6.76 0.118 82.516
4392.75 0.119 82.428 0.991 -6.858 0.991 -6.858 0.119 82.428
4417.708 0.121 82.341 0.991 -6.956 0.991 -6.956 0.121 82.341
4442.667 0.123 82.253 0.991 -7.054 0.991 -7.054 0.123 82.253
4467.625 0.124 82.165 0.991 -7.151 0.991 -7.151 0.124 82.165
4492.583 0.126 82.078 0.991 -7.248 0.991 -7.248 0.126 82.078
4517.542 0.128 81.99 0.99 -7.344 0.99 -7.344 0.128 81.99
4542.5 0.129 81.903 0.99 -7.44 0.99 -7.44 0.129 81.903
4567.458 0.131 81.815 0.99 -7.536 0.99 -7.536 0.131 81.815
4592.417 0.133 81.728 0.99 -7.631 0.99 -7.631 0.133 81.728
4617.375 0.134 81.641 0.989 -7.727 0.989 -7.727 0.134 81.641
4642.333 0.136 81.554 0.989 -7.821 0.989 -7.821 0.136 81.554
4667.292 0.138 81.467 0.989 -7.916 0.989 -7.916 0.138 81.467
4692.25 0.139 81.38 0.989 -8.01 0.989 -8.01 0.139 81.38
4717.208 0.141 81.294 0.989 -8.104 0.989 -8.104 0.141 81.294
4742.167 0.143 81.207 0.988 -8.197 0.988 -8.197 0.143 81.207
4767.125 0.144 81.121 0.988 -8.29 0.988 -8.29 0.144 81.121
4792.083 0.146 81.034 0.988 -8.383 0.988 -8.383 0.146 81.034
4817.042 0.147 80.948 0.988 -8.476 0.988 -8.476 0.147 80.948
4842 0.149 80.862 0.987 -8.568 0.987 -8.568 0.149 80.862
4866.958 0.151 80.777 0.987 -8.66 0.987 -8.66 0.151 80.777
4891.917 0.152 80.691 0.987 -8.752 0.987 -8.752 0.152 80.691
4916.875 0.154 80.605 0.987 -8.843 0.987 -8.843 0.154 80.605
4941.833 0.155 80.52 0.986 -8.934 0.986 -8.934 0.155 80.52
4966.792 0.157 80.435 0.986 -9.025 0.986 -9.025 0.157 80.435
4991.75 0.158 80.35 0.986 -9.115 0.986 -9.115 0.158 80.35
5016.708 0.16 80.265 0.986 -9.206 0.986 -9.206 0.16 80.265
5041.667 0.162 80.18 0.985 -9.296 0.985 -9.296 0.162 80.18
5066.625 0.163 80.095 0.985 -9.385 0.985 -9.385 0.163 80.095
5091.583 0.165 80.011 0.985 -9.475 0.985 -9.475 0.165 80.011
5116.542 0.166 79.926 0.985 -9.564 0.985 -9.564 0.166 79.926
5141.5 0.168 79.842 0.984 -9.653 0.984 -9.653 0.168 79.842
5166.458 0.169 79.758 0.984 -9.742 0.984 -9.742 0.169 79.758
5191.417 0.171 79.674 0.984 -9.83 0.984 -9.83 0.171 79.674
5216.375 0.172 79.591 0.984 -9.918 0.984 -9.918 0.172 79.591
5241.333 0.174 79.507 0.983 -10.006 0.983 -10.006 0.174 79.507
5266.292 0.175 79.424 0.983 -10.094 0.983 -10.094 0.175 79.424
5291.25 0.177 79.341 0.983 -10.182 0.983 -10.182 0.177 79.341
5316.208 0.178 79.257 0.983 -10.269 0.983 -10.269 0.178 79.257
5341.167 0.18 79.175 0.982 -10.356 0.982 -10.356 0.18 79.175
5366.125 0.181 79.092 0.982 -10.443 0.982 -10.443 0.181 79.092
5391.083 0.183 79.009 0.982 -10.529 0.982 -10.529 0.183 79.009
5416.042 0.184 78.927 0.981 -10.615 0.981 -10.615 0.184 78.927
5441 0.186 78.844 0.981 -10.701 0.981 -10.701 0.186 78.844
5465.958 0.187 78.762 0.981 -10.787 0.981 -10.787 0.187 78.762
5490.917 0.189 78.68 0.981 -10.873 0.981 -10.873 0.189 78.68
5515.875 0.19 78.598 0.98 -10.958 0.98 -10.958 0.19 78.598
5540.833 0.192 78.517 0.98 -11.044 0.98 -11.044 0.192 78.517
5565.792 0.193 78.435 0.98 -11.129 0.98 -11.129 0.193 78.435
5590.75 0.194 78.354 0.979 -11.213 0.979 -11.213 0.194 78.354
5615.708 0.196 78.273 0.979 -11.298 0.979 -11.298 0.196 78.273
5640.667 0.197 78.191 0.979 -11.382 0.979 -11.382 0.197 78.191
5665.625 0.199 78.111 0.979 -11.466 0.979 -11.466 0.199 78.111
5690.583 0.2 78.03 0.978 -11.55 0.978 -11.55 0.2 78.03
5715.542 0.202 77.949 0.978 -11.634 0.978 -11.634 0.202 77.949
5740.5 0.203 77.869 0.978 -11.718 0.978 -11.718 0.203 77.869
5765.458 0.205 77.788 0.977 -11.801 0.977 -11.801 0.205 77.788
5790.417 0.206 77.708 0.977 -11.884 0.977 -11.884 0.206 77.708
5815.375 0.207 77.628 0.977 -11.967 0.977 -11.967 0.207 77.628
5840.333 0.209 77.548 0.977 -12.05 0.977 -12.05 0.209 77.548
5865.292 0.21 77.468 0.976 -12.132 0.976 -12.132 0.21 77.468
5890.25 0.212 77.389 0.976 -12.215 0.976 -12.215 0.212 77.389
5915.208 0.213 77.309 0.976 -12.297 0.976 -12.297 0.213 77.309
5940.167 0.214 77.23 0.975 -12.379 0.975 -12.379 0.214 77.23
5965.125 0.216 77.151 0.975 -12.461 0.975 -12.461 0.216 77.151
5990.083 0.217 77.072 0.975 -12.542 0.975 -12.542 0.217 77.072
6015.042 0.219 76.993 0.974 -12.624 0.974 -12.624 0.219 76.993
6040 0.22 76.914 0.974 -12.705 0.974 -12.705 0.22 76.914
6064.958 0.221 76.836 0.974 -12.786 0.974 -12.786 0.221 76.836
6089.917 0.223 76.757 0.973 -12.867 0.973 -12.867 0.223 76.757
6114.875 0.224 76.679 0.973 -12.948 0.973 -12.948 0.224 76.679
6139.833 0.225 76.601 0.973 -13.029 0.973 -13.029 0.225 76.601
6164.792 0.227 76.522 0.972 -13.109 0.972 -13.109 0.227 76.522
6189.75 0.228 76.445 0.972 -13.189 0.972 -13.189 0.228 76.445
6214.708 0.23 76.367 0.972 -13.269 0.972 -13.269 0.23 76.367
6239.667 0.231 76.289 0.972 -13.349 0.972 -13.349 0.231 76.289
6264.625 0.232 76.212 0.971 -13.429 0.971 -13.429 0.232 76.212
6289.583 0.234 76.134 0.971 -13.508 0.971 -13.508 0.234 76.134
6314.542 0.235 76.057 0.971 -13.588 0.971 -13.588 0.235 76.057
6339.5 0.236 75.98 0.97 -13.667 0.97 -13.667 0.236 75.98
6364.458 0.238 75.903 0.97 -13.746 0.97 -13.746 0.238 75.903
6389.417 0.239 75.826 0.97 -13.825 0.97 -13.825 0.239 75.826
6414.375 0.24 75.749 0.969 -13.904 0.969 -13.904 0.24 75.749
6439.333 0.242 75.673 0.969 -13.983 0.969 -13.983 0.242 75.673
6464.292 0.243 75.596 0.969 -14.061 0.969 -14.061 0.243 75.596
6489.25 0.244 75.52 0.968 -14.139 0.968 -14.139 0.244 75.52
6514.208 0.246 75.444 0.968 -14.217 0.968 -14.217 0.246 75.444
6539.167 0.247 75.368 0.968 -14.295 0.968 -14.295 0.247 75.368
6564.125 0.248 75.292 0.967 -14.373 0.967 -14.373 0.248 75.292
6589.083 0.25 75.216 0.967 -14.451 0.967 -14.451 0.25 75.216
6614.042 0.251 75.14 0.967 -14.528 0.967 -14.528 0.251 75.14
6639 0.252 75.065 0.966 -14.606 0.966 -14.606 0.252 75.065
6663.958 0.253 74.989 0.966 -14.683 0.966 -14.683 0.253 74.989
6688.917 0.255 74.914 0.966 -14.76 0.966 -14.76 0.255 74.914
6713.875 0.256 74.839 0.965 -14.837 0.965 -14.837 0.256 74.839
6738.833 0.257 74.764 0.965 -14.914 0.965 -14.914 0.257 74.764
6763.792 0.259 74.689 0.965 -14.991 0.965 -14.991 0.259 74.689
6788.75 0.26 74.614 0.964 -15.067 0.964 -15.067 0.26 74.614
6813.708 0.261 74.539 0.964 -15.144 0.964 -15.144 0.261 74.539
6838.667 0.263 74.465 0.963 -15.22 0.963 -15.22 0.263 74.465
6863.625 0.264 74.39 0.963 -15.296 0.963 -15.296 0.264 74.39
6888.583 0.265 74.316 0.963 -15.372 0.963 -15.372 0.265 74.316
6913.542 0.266 74.242 0.962 -15.448 0.962 -15.448 0.266 74.242
6938.5 0.268 74.168 0.962 -15.523 0.962 -15.523 0.268 74.168
6963.458 0.269 74.094 0.962 -15.599 0.962 -15.599 0.269 74.094
6988.417 0.27 74.02 0.961 -15.674 0.961 -15.674 0.27 74.02
7013.375 0.271 73.946 0.961 -15.75 0.961 -15.75 0.271 73.946
7038.333 0.273 73.872 0.961 -15.825 0.961 -15.825 0.273 73.872
7063.292 0.274 73.799 0.96 -15.9 0.96 -15.9 0.274 73.799
7088.25 0.275 73.725 0.96 -15.975 0.96 -15.975 0.275 73.725
7113.208 0.276 73.652 0.96 -16.049 0.96 -16.049 0.276 73.652
7138.167 0.278 73.579 0.959 -16.124 0.959 -16.124 0.278 73.579
7163.125 0.279 73.506 0.959 -16.199 0.959 -16.199 0.279 73.506
7188.083 0.28 73.433 0.958 -16.273 0.958 -16.273 0.28 73.433
7213.042 0.281 73.36 0.958 -16.347 0.958 -16.347 0.281 73.36
7238 0.283 73.288 0.958 -16.421 0.958 -16.421 0.283 73.288
7262.958 0.284 73.215 0.957 -16.495 0.957 -16.495 0.284 73.215
7287.917 0.285 73.142 0.957 -16.569 0.957 -16.569 0.285 73.142
7312.875 0.286 73.07 0.957 -16.643 0.957 -16.643 0.286 73.07
7337.833 0.288 72.998 0.956 -16.716 0.956 -16.716 0.288 72.998
7362.792 0.289 72.926 0.956 -16.79 0.956 -16.79 0.289 72.926
7387.75 0.29 72.854 0.956 -16.863 0.956 -16.863 0.29 72.854
7412.708 0.291 72.782 0.955 -16.936 0.955 -16.936 0.291 72.782
7437.667 0.293 72.71 0.955 -17.01 0.955 -17.01 0.293 72.71
7462.625 0.294 72.638 0.954 -17.083 0.954 -17.083 0.294 72.638
7487.583 0.295 72.567 0.954 -17.155 0.954 -17.155 0.295 72.567
7512.542 0.296 72.495 0.954 -17.228 0.954 -17.228 0.296 72.495
7537.5 0.297 72.424 0.953 -17.301 0.953 -17.301 0.297 72.424
7562.458 0.299 72.352 0.953 -17.373 0.953 -17.373 0.299 72.352
7587.417 0.3 72.281 0.953 -17.446 0.953 -17.446 0.3 72.281
7612.375 0.301 72.21 0.952 -17.518 0.952 -17.518 0.301 72.21
7637.333 0.302 72.139 0.952 -17.59 0.952 -17.59 0.302 72.139
7662.292 0.303 72.068 0.951 -17.662 0.951 -17.662 0.303 72.068
7687.25 0.305 71.998 0.951 -17.734 0.951 -17.734 0.305 71.998
7712.208 0.306 71.927 0.951 -17.806 0.951 -17.806 0.306 71.927
7737.167 0.307 71.856 0.95 -17.878 0.95 -17.878 0.307 71.856
7762.125 0.308 71.786 0.95 -17.949 0.95 -17.949 0.308 71.786
7787.083 0.309 71.716 0.95 -18.021 0.95 -18.021 0.309 71.716
7812.042 0.311 71.645 0.949 -18.092 0.949 -18.092 0.311 71.645
7837 0.312 71.575 0.949 -18.163 0.949 -18.163 0.312 71.575
7861.958 0.313 71.505 0.948 -18.234 0.948 -18.234 0.313 71.505
7886.917 0.314 71.435 0.948 -18.305 0.948 -18.305 0.314 71.435
7911.875 0.315 71.365 0.948 -18.376 0.948 -18.376 0.315 71.365
7936.833 0.316 71.296 0.947 -18.447 0.947 -18.447 0.316 71.296
7961.792 0.318 71.226 0.947 -18.518 0.947 -18.518 0.318 71.226
7986.75 0.319 71.157 0.946 -18.588 0.946 -18.588 0.319 71.157
8011.708 0.32 71.087 0.946 -18.659 0.946 -18.659 0.32 71.087
8036.667 0.321 71.018 0.946 -18.729 0.946 -18.729 0.321 71.018
8061.625 0.322 70.949 0.945 -18.799 0.945 -18.799 0.322 70.949
8086.583 0.323 70.879 0.945 -18.869 0.945 -18.869 0.323 70.879
8111.542 0.325 70.81 0.944 -18.939 0.944 -18.939 0.325 70.81
8136.5 0.326 70.742 0.944 -19.009 0.944 -19.009 0.326 70.742
8161.458 0.327 70.673 0.944 -19.079 0.944 -19.079 0.327 70.673
8186.417 0.328 70.604 0.943 -19.149 0.943 -19.149 0.328 70.604
