# MHZ S MA R 50

50 0.968 -14.453 0.25 75.528 0.25 75.528 0.968 -14.453
74.958 0.933 -21.14 0.361 68.833 0.361 68.833 0.933 -21.14
99.917 0.888 -27.289 0.458 62.674 0.458 62.674 0.888 -27.289
124.875 0.84 -32.845 0.542 57.11 0.542 57.11 0.84 -32.845
149.833 0.79 -37.802 0.613 52.143 0.613 52.143 0.79 -37.802
174.792 0.74 -42.194 0.672 47.742 0.672 47.742 0.74 -42.194
199.75 0.693 -46.071 0.72 43.856 0.72 43.856 0.693 -46.071
224.708 0.648 -49.492 0.76 40.426 0.76 40.426 0.648 -49.492
249.667 0.607 -52.514 0.793 37.394 0.793 37.394 0.607 -52.514
274.625 0.569 -55.191 0.821 34.708 0.821 34.708 0.569 -55.191
299.583 0.535 -57.571 0.844 32.318 0.844 32.318 0.535 -57.571
324.542 0.503 -59.694 0.863 30.184 0.863 30.184 0.503 -59.694
349.5 0.474 -61.598 0.88 28.271 0.88 28.271 0.474 -61.598
374.458 0.447 -63.312 0.893 26.548 0.893 26.548 0.447 -63.312
399.417 0.422 -64.86 0.905 24.989 0.905 24.989 0.422 -64.86
424.375 0.4 -66.266 0.915 23.572 0.915 23.572 0.4 -66.266
449.333 0.379 -67.547 0.924 22.281 0.924 22.281 0.379 -67.547
474.292 0.36 -68.719 0.932 21.098 0.932 21.098 0.36 -68.719
499.25 0.342 -69.795 0.938 20.011 0.938 20.011 0.342 -69.795
524.208 0.326 -70.787 0.944 19.009 0.944 19.009 0.326 -70.787
549.167 0.31 -71.703 0.949 18.081 0.949 18.081 0.31 -71.703
574.125 0.296 -72.552 0.954 17.22 0.954 17.22 0.296 -72.552
599.083 0.283 -73.342 0.958 16.419 0.958 16.419 0.283 -73.342
624.042 0.27 -74.079 0.962 15.67 0.962 15.67 0.27 -74.079
649 0.258 -74.767 0.965 14.969 0.965 14.969 0.258 -74.767
673.958 0.247 -75.413 0.968 14.311 0.968 14.311 0.247 -75.413
698.917 0.237 -76.019 0.97 13.692 0.97 13.692 0.237 -76.019
723.875 0.227 -76.589 0.973 13.109 0.973 13.109 0.227 -76.589
748.833 0.217 -77.127 0.975 12.557 0.975 12.557 0.217 -77.127
773.792 0.208 -77.635 0.977 12.034 0.977 12.034 0.208 -77.635
798.75 0.2 -78.117 0.979 11.538 0.979 11.538 0.2 -78.117
823.708 0.192 -78.573 0.98 11.067 0.98 11.067 0.192 -78.573
848.667 0.184 -79.007 0.982 10.618 0.982 10.618 0.184 -79.007
873.625 0.177 -79.419 0.983 10.189 0.983 10.189 0.177 -79.419
898.583 0.17 -79.812 0.984 9.78 0.984 9.78 0.17 -79.812
923.542 0.163 -80.186 0.985 9.388 0.985 9.388 0.163 -80.186
948.5 0.157 -80.544 0.986 9.012 0.986 9.012 0.157 -80.544
973.458 0.15 -80.886 0.987 8.652 0.987 8.652 0.15 -80.886
998.417 0.144 -81.212 0.988 8.305 0.988 8.305 0.144 -81.212
1023.375 0.139 -81.526 0.989 7.972 0.989 7.972 0.139 -81.526
1048.333 0.133 -81.825 0.99 7.65 0.99 7.65 0.133 -81.825
1073.292 0.128 -82.113 0.991 7.34 0.991 7.34 0.128 -82.113
1098.25 0.123 -82.389 0.991 7.041 0.991 7.041 0.123 -82.389
1123.208 0.118 -82.654 0.992 6.752 0.992 6.752 0.118 -82.654
1148.167 0.113 -82.908 0.992 6.471 0.992 6.471 0.113 -82.908
1173.125 0.108 -83.152 0.993 6.2 0.993 6.2 0.108 -83.152
1198.083 0.103 -83.386 0.993 5.937 0.993 5.937 0.103 -83.386
1223.042 0.099 -83.611 0.994 5.681 0.994 5.681 0.099 -83.611
1248 0.095 -83.827 0.994 5.433 0.994 5.433 0.095 -83.827
1272.958 0.09 -84.034 0.995 5.191 0.995 5.191 0.09 -84.034
1297.917 0.086 -84.232 0.995 4.956 0.995 4.956 0.086 -84.232
1322.875 0.082 -84.421 0.995 4.728 0.995 4.728 0.082 -84.421
1347.833 0.079 -84.602 0.996 4.505 0.996 4.505 0.079 -84.602
1372.792 0.075 -84.774 0.996 4.287 0.996 4.287 0.075 -84.774
1397.75 0.071 -84.937 0.996 4.075 0.996 4.075 0.071 -84.937
1422.708 0.067 -85.091 0.996 3.867 0.996 3.867 0.067 -85.091
1447.667 0.064 -85.236 0.997 3.665 0.997 3.665 0.064 -85.236
1472.625 0.06 -85.372 0.997 3.466 0.997 3.466 0.06 -85.372
1497.583 0.057 -85.497 0.997 3.272 0.997 3.272 0.057 -85.497
1522.542 0.054 -85.611 0.997 3.082 0.997 3.082 0.054 -85.611
1547.5 0.051 -85.713 0.997 2.896 0.997 2.896 0.051 -85.713
1572.458 0.047 -85.801 0.998 2.714 0.998 2.714 0.047 -85.801
1597.417 0.044 -85.875 0.998 2.535 0.998 2.535 0.044 -85.875
1622.375 0.041 -85.933 0.998 2.359 0.998 2.359 0.041 -85.933
1647.333 0.038 -85.97 0.998 2.186 0.998 2.186 0.038 -85.97
1672.292 0.035 -85.985 0.998 2.017 0.998 2.017 0.035 -85.985
1697.25 0.032 -85.972 0.998 1.851 0.998 1.851 0.032 -85.972
1722.208 0.029 -85.924 0.998 1.687 0.998 1.687 0.029 -85.924
1747.167 0.027 -85.833 0.998 1.526 0.998 1.526 0.027 -85.833
1772.125 0.024 -85.686 0.998 1.367 0.998 1.367 0.024 -85.686
1797.083 0.021 -85.463 0.999 1.211 0.999 1.211 0.021 -85.463
1822.042 0.019 -85.135 0.999 1.058 0.999 1.058 0.019 -85.135
1847 0.016 -84.653 0.999 0.906 0.999 0.906 0.016 -84.653
1871.958 0.013 -83.932 0.999 0.757 0.999 0.757 0.013 -83.932
1896.917 0.011 -82.81 0.999 0.61 0.999 0.61 0.011 -82.81
1921.875 8.212e-3 -80.93 0.999 0.465 0.999 0.465 8.212e-3 -80.93
1946.833 5.755e-3 -77.351 0.999 0.322 0.999 0.322 5.755e-3 -77.351
1971.792 3.388e-3 -68.558 0.999 0.181 0.999 0.181 3.388e-3 -68.558
1996.75 1.426e-3 -30.481 0.999 0.042 0.999 0.042 1.426e-3 -30.481
2021.708 2.08e-3 53.7 0.999 -0.096 0.999 -0.096 2.08e-3 53.7
2046.667 4.234e-3 72.9 0.999 -0.232 0.999 -0.232 4.234e-3 72.9
2071.625 6.515e-3 78.762 0.999 -0.367 0.999 -0.367 6.515e-3 78.762
2096.583 8.802e-3 81.477 0.999 -0.499 0.999 -0.499 8.802e-3 81.477
2121.542 0.011 83.001 0.999 -0.631 0.999 -0.631 0.011 83.001
2146.5 0.013 83.952 0.999 -0.761 0.999 -0.761 0.013 83.952
2171.458 0.016 84.584 0.999 -0.889 0.999 -0.889 0.016 84.584
2196.417 0.018 85.021 0.999 -1.016 0.999 -1.016 0.018 85.021
2221.375 0.02 85.331 0.999 -1.142 0.999 -1.142 0.02 85.331
2246.333 0.022 85.552 0.999 -1.266 0.999 -1.266 0.022 85.552
2271.292 0.024 85.711 0.998 -1.39 0.998 -1.39 0.024 85.711
2296.25 0.026 85.823 0.998 -1.512 0.998 -1.512 0.026 85.823
2321.208 0.029 85.899 0.998 -1.633 0.998 -1.633 0.029 85.899
2346.167 0.031 85.948 0.998 -1.753 0.998 -1.753 0.031 85.948
2371.125 0.033 85.975 0.998 -1.871 0.998 -1.871 0.033 85.975
2396.083 0.035 85.985 0.998 -1.989 0.998 -1.989 0.035 85.985
2421.042 0.037 85.98 0.998 -2.106 0.998 -2.106 0.037 85.98
2446 0.039 85.964 0.998 -2.221 0.998 -2.221 0.039 85.964
2470.958 0.041 85.939 0.998 -2.336 0.998 -2.336 0.041 85.939
2495.917 0.043 85.905 0.998 -2.45 0.998 -2.45 0.043 85.905
2520.875 0.045 85.865 0.998 -2.563 0.998 -2.563 0.045 85.865
2545.833 0.047 85.819 0.998 -2.674 0.998 -2.674 0.047 85.819
2570.792 0.049 85.768 0.998 -2.786 0.998 -2.786 0.049 85.768
2595.75 0.051 85.713 0.997 -2.896 0.997 -2.896 0.051 85.713
2620.708 0.052 85.654 0.997 -3.005 0.997 -3.005 0.052 85.654
2645.667 0.054 85.592 0.997 -3.114 0.997 -3.114 0.054 85.592
2670.625 0.056 85.528 0.997 -3.222 0.997 -3.222 0.056 85.528
2695.583 0.058 85.461 0.997 -3.329 0.997 -3.329 0.058 85.461
2720.542 0.06 85.392 0.997 -3.436 0.997 -3.436 0.06 85.392
2745.5 0.062 85.321 0.997 -3.541 0.997 -3.541 0.062 85.321
2770.458 0.064 85.249 0.997 -3.646 0.997 -3.646 0.064 85.249
2795.417 0.065 85.176 0.997 -3.751 0.997 -3.751 0.065 85.176
2820.375 0.067 85.101 0.997 -3.854 0.997 -3.854 0.067 85.101
2845.333 0.069 85.025 0.996 -3.957 0.996 -3.957 0.069 85.025
2870.292 0.071 84.948 0.996 -4.06 0.996 -4.06 0.071 84.948
2895.25 0.073 84.871 0.996 -4.162 0.996 -4.162 0.073 84.871
2920.208 0.074 84.793 0.996 -4.263 0.996 -4.263 0.074 84.793
2945.167 0.076 84.714 0.996 -4.364 0.996 -4.364 0.076 84.714
2970.125 0.078 84.634 0.996 -4.464 0.996 -4.464 0.078 84.634
2995.083 0.08 84.555 0.996 -4.563 0.996 -4.563 0.08 84.555
3020.042 0.081 84.474 0.995 -4.662 0.995 -4.662 0.081 84.474
3045 0.083 84.394 0.995 -4.761 0.995 -4.761 0.083 84.394
3069.958 0.085 84.313 0.995 -4.859 0.995 -4.859 0.085 84.313
3094.917 0.086 84.232 0.995 -4.956 0.995 -4.956 0.086 84.232
3119.875 0.088 84.151 0.995 -5.053 0.995 -5.053 0.088 84.151
3144.833 0.09 84.069 0.995 -5.15 0.995 -5.15 0.09 84.069
3169.792 0.091 83.988 0.995 -5.246 0.995 -5.246 0.091 83.988
3194.75 0.093 83.906 0.994 -5.341 0.994 -5.341 0.093 83.906
3219.708 0.095 83.824 0.994 -5.436 0.994 -5.436 0.095 83.824
3244.667 0.096 83.742 0.994 -5.531 0.994 -5.531 0.096 83.742
3269.625 0.098 83.66 0.994 -5.625 0.994 -5.625 0.098 83.66
3294.583 0.1 83.578 0.994 -5.719 0.994 -5.719 0.1 83.578
3319.542 0.101 83.496 0.994 -5.813 0.994 -5.813 0.101 83.496
3344.5 0.103 83.414 0.993 -5.906 0.993 -5.906 0.103 83.414
3369.458 0.105 83.332 0.993 -5.998 0.993 -5.998 0.105 83.332
3394.417 0.106 83.25 0.993 -6.09 0.993 -6.09 0.106 83.25
3419.375 0.108 83.168 0.993 -6.182 0.993 -6.182 0.108 83.168
3444.333 0.109 83.086 0.993 -6.274 0.993 -6.274 0.109 83.086
3469.292 0.111 83.004 0.993 -6.365 0.993 -6.365 0.111 83.004
3494.25 0.112 82.922 0.992 -6.456 0.992 -6.456 0.112 82.922
3519.208 0.114 82.841 0.992 -6.546 0.992 -6.546 0.114 82.841
3544.167 0.116 82.759 0.992 -6.636 0.992 -6.636 0.116 82.759
3569.125 0.117 82.677 0.992 -6.726 0.992 -6.726 0.117 82.677
3594.083 0.119 82.596 0.992 -6.815 0.992 -6.815 0.119 82.596
3619.042 0.12 82.515 0.992 -6.904 0.992 -6.904 0.12 82.515
3644 0.122 82.433 0.991 -6.993 0.991 -6.993 0.122 82.433
3668.958 0.123 82.352 0.991 -7.081 0.991 -7.081 0.123 82.352
3693.917 0.125 82.271 0.991 -7.169 0.991 -7.169 0.125 82.271
3718.875 0.126 82.19 0.991 -7.257 0.991 -7.257 0.126 82.19
3743.833 0.128 82.109 0.991 -7.344 0.991 -7.344 0.128 82.109
3768.792 0.129 82.029 0.99 -7.432 0.99 -7.432 0.129 82.029
3793.75 0.131 81.948 0.99 -7.519 0.99 -7.519 0.131 81.948
3818.708 0.132 81.868 0.99 -7.605 0.99 -7.605 0.132 81.868
3843.667 0.134 81.787 0.99 -7.692 0.99 -7.692 0.134 81.787
3868.625 0.135 81.707 0.99 -7.778 0.99 -7.778 0.135 81.707
3893.583 0.137 81.627 0.989 -7.863 0.989 -7.863 0.137 81.627
3918.542 0.138 81.547 0.989 -7.949 0.989 -7.949 0.138 81.547
3943.5 0.14 81.467 0.989 -8.034 0.989 -8.034 0.14 81.467
3968.458 0.141 81.387 0.989 -8.119 0.989 -8.119 0.141 81.387
3993.417 0.143 81.308 0.989 -8.204 0.989 -8.204 0.143 81.308
4018.375 0.144 81.228 0.988 -8.288 0.988 -8.288 0.144 81.228
4043.333 0.146 81.149 0.988 -8.373 0.988 -8.373 0.146 81.149
4068.292 0.147 81.07 0.988 -8.457 0.988 -8.457 0.147 81.07
4093.25 0.149 80.991 0.988 -8.541 0.988 -8.541 0.149 80.991
4118.208 0.15 80.912 0.987 -8.624 0.987 -8.624 0.15 80.912
4143.167 0.151 80.833 0.987 -8.707 0.987 -8.707 0.151 80.833
4168.125 0.153 80.754 0.987 -8.79 0.987 -8.79 0.153 80.754
4193.083 0.154 80.676 0.987 -8.873 0.987 -8.873 0.154 80.676
4218.042 0.156 80.597 0.987 -8.956 0.987 -8.956 0.156 80.597
4243 0.157 80.519 0.986 -9.038 0.986 -9.038 0.157 80.519
4267.958 0.159 80.441 0.986 -9.121 0.986 -9.121 0.159 80.441
4292.917 0.16 80.363 0.986 -9.203 0.986 -9.203 0.16 80.363
4317.875 0.161 80.285 0.986 -9.284 0.986 -9.284 0.161 80.285
4342.833 0.163 80.207 0.985 -9.366 0.985 -9.366 0.163 80.207
4367.792 0.164 80.129 0.985 -9.447 0.985 -9.447 0.164 80.129
4392.75 0.166 80.052 0.985 -9.529 0.985 -9.529 0.166 80.052
4417.708 0.167 79.975 0.985 -9.61 0.985 -9.61 0.167 79.975
4442.667 0.168 79.897 0.985 -9.69 0.985 -9.69 0.168 79.897
4467.625 0.17 79.82 0.984 -9.771 0.984 -9.771 0.17 79.82
4492.583 0.171 79.743 0.984 -9.851 0.984 -9.851 0.171 79.743
4517.542 0.172 79.666 0.984 -9.932 0.984 -9.932 0.172 79.666
4542.5 0.174 79.589 0.984 -10.012 0.984 -10.012 0.174 79.589
4567.458 0.175 79.513 0.983 -10.092 0.983 -10.092 0.175 79.513
4592.417 0.177 79.436 0.983 -10.171 0.983 -10.171 0.177 79.436
4617.375 0.178 79.36 0.983 -10.251 0.983 -10.251 0.178 79.36
4642.333 0.179 79.284 0.983 -10.33 0.983 -10.33 0.179 79.284
4667.292 0.181 79.208 0.982 -10.409 0.982 -10.409 0.181 79.208
4692.25 0.182 79.131 0.982 -10.488 0.982 -10.488 0.182 79.131
4717.208 0.183 79.056 0.982 -10.567 0.982 -10.567 0.183 79.056
4742.167 0.185 78.98 0.982 -10.646 0.982 -10.646 0.185 78.98
4767.125 0.186 78.904 0.981 -10.724 0.981 -10.724 0.186 78.904
4792.083 0.187 78.829 0.981 -10.802 0.981 -10.802 0.187 78.829
4817.042 0.189 78.753 0.981 -10.881 0.981 -10.881 0.189 78.753
4842 0.19 78.678 0.981 -10.959 0.981 -10.959 0.19 78.678
4866.958 0.191 78.603 0.98 -11.036 0.98 -11.036 0.191 78.603
4891.917 0.193 78.527 0.98 -11.114 0.98 -11.114 0.193 78.527
4916.875 0.194 78.453 0.98 -11.192 0.98 -11.192 0.194 78.453
4941.833 0.195 78.378 0.98 -11.269 0.98 -11.269 0.195 78.378
4966.792 0.197 78.303 0.979 -11.346 0.979 -11.346 0.197 78.303
4991.75 0.198 78.228 0.979 -11.423 0.979 -11.423 0.198 78.228
5016.708 0.199 78.154 0.979 -11.5 0.979 -11.5 0.199 78.154
5041.667 0.201 78.079 0.978 -11.577 0.978 -11.577 0.201 78.079
5066.625 0.202 78.005 0.978 -11.654 0.978 -11.654 0.202 78.005
5091.583 0.203 77.931 0.978 -11.73 0.978 -11.73 0.203 77.931
5116.542 0.205 77.857 0.978 -11.806 0.978 -11.806 0.205 77.857
5141.5 0.206 77.783 0.977 -11.883 0.977 -11.883 0.206 77.783
5166.458 0.207 77.709 0.977 -11.959 0.977 -11.959 0.207 77.709
5191.417 0.209 77.635 0.977 -12.035 0.977 -12.035 0.209 77.635
5216.375 0.21 77.561 0.977 -12.11 0.977 -12.11 0.21 77.561
5241.333 0.211 77.488 0.976 -12.186 0.976 -12.186 0.211 77.488
5266.292 0.212 77.415 0.976 -12.262 0.976 -12.262 0.212 77.415
5291.25 0.214 77.341 0.976 -12.337 0.976 -12.337 0.214 77.341
5316.208 0.215 77.268 0.975 -12.412 0.975 -12.412 0.215 77.268
5341.167 0.216 77.195 0.975 -12.487 0.975 -12.487 0.216 77.195
5366.125 0.218 77.122 0.975 -12.562 0.975 -12.562 0.218 77.122
5391.083 0.219 77.049 0.975 -12.637 0.975 -12.637 0.219 77.049
5416.042 0.22 76.976 0.974 -12.712 0.974 -12.712 0.22 76.976
5441 0.221 76.903 0.974 -12.786 0.974 -12.786 0.221 76.903
5465.958 0.223 76.831 0.974 -12.861 0.974 -12.861 0.223 76.831
5490.917 0.224 76.758 0.973 -12.935 0.973 -12.935 0.224 76.758
5515.875 0.225 76.686 0.973 -13.009 0.973 -13.009 0.225 76.686
5540.833 0.226 76.613 0.973 -13.084 0.973 -13.084 0.226 76.613
5565.792 0.228 76.541 0.973 -13.158 0.973 -13.158 0.228 76.541
5590.75 0.229 76.469 0.972 -13.231 0.972 -13.231 0.229 76.469
5615.708 0.23 76.397 0.972 -13.305 0.972 -13.305 0.23 76.397
5640.667 0.231 76.325 0.972 -13.379 0.972 -13.379 0.231 76.325
5665.625 0.233 76.253 0.971 -13.452 0.971 -13.452 0.233 76.253
5690.583 0.234 76.182 0.971 -13.526 0.971 -13.526 0.234 76.182
5715.542 0.235 76.11 0.971 -13.599 0.971 -13.599 0.235 76.11
5740.5 0.236 76.038 0.97 -13.672 0.97 -13.672 0.236 76.038
5765.458 0.238 75.967 0.97 -13.745 0.97 -13.745 0.238 75.967
5790.417 0.239 75.896 0.97 -13.818 0.97 -13.818 0.239 75.896
5815.375 0.24 75.824 0.97 -13.891 0.97 -13.891 0.24 75.824
5840.333 0.241 75.753 0.969 -13.964 0.969 -13.964 0.241 75.753
5865.292 0.243 75.682 0.969 -14.036 0.969 -14.036 0.243 75.682
5890.25 0.244 75.611 0.969 -14.109 0.969 -14.109 0.244 75.611
5915.208 0.245 75.54 0.968 -14.181 0.968 -14.181 0.245 75.54
5940.167 0.246 75.47 0.968 -14.253 0.968 -14.253 0.246 75.47
5965.125 0.247 75.399 0.968 -14.325 0.968 -14.325 0.247 75.399
5990.083 0.249 75.328 0.967 -14.397 0.967 -14.397 0.249 75.328
6015.042 0.25 75.258 0.967 -14.469 0.967 -14.469 0.25 75.258
6040 0.251 75.187 0.967 -14.541 0.967 -14.541 0.251 75.187
6064.958 0.252 75.117 0.966 -14.613 0.966 -14.613 0.252 75.117
6089.917 0.254 75.047 0.966 -14.685 0.966 -14.685 0.254 75.047
6114.875 0.255 74.977 0.966 -14.756 0.966 -14.756 0.255 74.977
6139.833 0.256 74.907 0.966 -14.828 0.966 -14.828 0.256 74.907
6164.792 0.257 74.837 0.965 -14.899 0.965 -14.899 0.257 74.837
6189.75 0.258 74.767 0.965 -14.97 0.965 -14.97 0.258 74.767
6214.708 0.26 74.697 0.965 -15.041 0.965 -15.041 0.26 74.697
6239.667 0.261 74.627 0.964 -15.112 0.964 -15.112 0.261 74.627
6264.625 0.262 74.558 0.964 -15.183 0.964 -15.183 0.262 74.558
6289.583 0.263 74.488 0.964 -15.254 0.964 -15.254 0.263 74.488
6314.542 0.264 74.419 0.963 -15.325 0.963 -15.325 0.264 74.419
6339.5 0.265 74.349 0.963 -15.395 0.963 -15.395 0.265 74.349
6364.458 0.267 74.28 0.963 -15.466 0.963 -15.466 0.267 74.28
6389.417 0.268 74.211 0.962 -15.536 0.962 -15.536 0.268 74.211
6414.375 0.269 74.142 0.962 -15.606 0.962 -15.606 0.269 74.142
6439.333 0.27 74.073 0.962 -15.677 0.962 -15.677 0.27 74.073
6464.292 0.271 74.004 0.961 -15.747 0.961 -15.747 0.271 74.004
6489.25 0.273 73.935 0.961 -15.817 0.961 -15.817 0.273 73.935
6514.208 0.274 73.866 0.961 -15.887 0.961 -15.887 0.274 73.866
6539.167 0.275 73.797 0.96 -15.957 0.96 -15.957 0.275 73.797
6564.125 0.276 73.729 0.96 -16.026 0.96 -16.026 0.276 73.729
6589.083 0.277 73.66 0.96 -16.096 0.96 -16.096 0.277 73.66
6614.042 0.278 73.592 0.959 -16.165 0.959 -16.165 0.278 73.592
6639 0.28 73.523 0.959 -16.235 0.959 -16.235 0.28 73.523
6663.958 0.281 73.455 0.959 -16.304 0.959 -16.304 0.281 73.455
6688.917 0.282 73.387 0.958 -16.374 0.958 -16.374 0.282 73.387
6713.875 0.283 73.319 0.958 -16.443 0.958 -16.443 0.283 73.319
6738.833 0.284 73.251 0.958 -16.512 0.958 -16.512 0.284 73.251
6763.792 0.285 73.183 0.957 -16.581 0.957 -16.581 0.285 73.183
6788.75 0.287 73.115 0.957 -16.65 0.957 -16.65 0.287 73.115
6813.708 0.288 73.047 0.957 -16.719 0.957 -16.719 0.288 73.047
6838.667 0.289 72.979 0.956 -16.787 0.956 -16.787 0.289 72.979
6863.625 0.29 72.912 0.956 -16.856 0.956 -16.856 0.29 72.912
6888.583 0.291 72.844 0.956 -16.924 0.956 -16.924 0.291 72.844
6913.542 0.292 72.777 0.955 -16.993 0.955 -16.993 0.292 72.777
6938.5 0.293 72.709 0.955 -17.061 0.955 -17.061 0.293 72.709
6963.458 0.295 72.642 0.954 -17.13 0.954 -17.13 0.295 72.642
6988.417 0.296 72.575 0.954 -17.198 0.954 -17.198 0.296 72.575
7013.375 0.297 72.508 0.954 -17.266 0.954 -17.266 0.297 72.508
7038.333 0.298 72.44 0.953 -17.334 0.953 -17.334 0.298 72.44
7063.292 0.299 72.373 0.953 -17.402 0.953 -17.402 0.299 72.373
7088.25 0.3 72.307 0.953 -17.47 0.953 -17.47 0.3 72.307
7113.208 0.301 72.24 0.952 -17.538 0.952 -17.538 0.301 72.24
7138.167 0.302 72.173 0.952 -17.605 0.952 -17.605 0.302 72.173
7163.125 0.304 72.106 0.952 -17.673 0.952 -17.673 0.304 72.106
7188.083 0.305 72.04 0.951 -17.74 0.951 -17.74 0.305 72.04
7213.042 0.306 71.973 0.951 -17.808 0.951 -17.808 0.306 71.973
7238 0.307 71.907 0.951 -17.875 0.951 -17.875 0.307 71.907
7262.958 0.308 71.84 0.95 -17.942 0.95 -17.942 0.308 71.84
7287.917 0.309 71.774 0.95 -18.01 0.95 -18.01 0.309 71.774
7312.875 0.31 71.708 0.949 -18.077 0.949 -18.077 0.31 71.708
7337.833 0.311 71.642 0.949 -18.144 0.949 -18.144 0.311 71.642
7362.792 0.313 71.575 0.949 -18.211 0.949 -18.211 0.313 71.575
7387.75 0.314 71.509 0.948 -18.277 0.948 -18.277 0.314 71.509
7412.708 0.315 71.444 0.948 -18.344 0.948 -18.344 0.315 71.444
7437.667 0.316 71.378 0.948 -18.411 0.948 -18.411 0.316 71.378
7462.625 0.317 71.312 0.947 -18.477 0.947 -18.477 0.317 71.312
7487.583 0.318 71.246 0.947 -18.544 0.947 -18.544 0.318 71.246
7512.542 0.319 71.181 0.947 -18.61 0.947 -18.61 0.319 71.181
7537.5 0.32 71.115 0.946 -18.677 0.946 -18.677 0.32 71.115
7562.458 0.321 71.05 0.946 -18.743 0.946 -18.743 0.321 71.05
7587.417 0.322 70.984 0.945 -18.809 0.945 -18.809 0.322 70.984
7612.375 0.324 70.919 0.945 -18.875 0.945 -18.875 0.324 70.919
7637.333 0.325 70.854 0.945 -18.941 0.945 -18.941 0.325 70.854
7662.292 0.326 70.788 0.944 -19.007 0.944 -19.007 0.326 70.788
7687.25 0.327 70.723 0.944 -19.073 0.944 -19.073 0.327 70.723
7712.208 0.328 70.658 0.944 -19.139 0.944 -19.139 0.328 70.658
7737.167 0.329 70.593 0.943 -19.205 0.943 -19.205 0.329 70.593
7762.125 0.33 70.528 0.943 -19.27 0.943 -19.27 0.33 70.528
7787.083 0.331 70.464 0.942 -19.336 0.942 -19.336 0.331 70.464
7812.042 0.332 70.399 0.942 -19.401 0.942 -19.401 0.332 70.399
7837 0.333 70.334 0.942 -19.467 0.942 -19.467 0.333 70.334
7861.958 0.334 70.269 0.941 -19.532 0.941 -19.532 0.334 70.269
7886.917 0.335 70.205 0.941 -19.597 0.941 -19.597 0.335 70.205
7911.875 0.336 70.141 0.941 -19.662 0.941 -19.662 0.336 70.141
7936.833 0.338 70.076 0.94 -19.728 0.94 -19.728 0.338 70.076
7961.792 0.339 70.012 0.94 -19.793 0.94 -19.793 0.339 70.012
7986.75 0.34 69.948 0.939 -19.857 0.939 -19.857 0.34 69.948
8011.708 0.341 69.883 0.939 -19.922 0.939 -19.922 0.341 69.883
8036.667 0.342 69.819 0.939 -19.987 0.939 -19.987 0.342 69.819
8061.625 0.343 69.755 0.938 -20.052 0.938 -20.052 0.343 69.755
8086.583 0.344 69.691 0.938 -20.116 0.938 -20.116 0.344 69.691
8111.542 0.345 69.627 0.937 -20.181 0.937 -20.181 0.345 69.627
8136.5 0.346 69.564 0.937 -20.245 0.937 -20.245 0.346 69.564
8161.458 0.347 69.5 0.937 -20.31 0.937 -20.31 0.347 69.5
8186.417 0.348 69.436 0.936 -20.374 0.936 -20.374 0.348 69.436
