# MHZ S MA R 50

50 0.882 -28.128 0.471 61.836 0.471 61.836 0.882 -28.128
74.958 0.779 -38.743 0.626 51.204 0.626 51.204 0.779 -38.743
99.917 0.681 -46.972 0.731 42.957 0.731 42.957 0.681 -46.972
124.875 0.596 -53.303 0.802 36.607 0.802 36.607 0.596 -53.303
149.833 0.525 -58.221 0.85 31.672 0.85 31.672 0.525 -58.221
174.792 0.466 -62.102 0.884 27.772 0.884 27.772 0.466 -62.102
199.75 0.417 -65.22 0.908 24.635 0.908 24.635 0.417 -65.22
224.708 0.376 -67.769 0.926 22.067 0.926 22.067 0.376 -67.769
249.667 0.341 -69.887 0.939 19.93 0.939 19.93 0.341 -69.887
274.625 0.311 -71.671 0.949 18.126 0.949 18.126 0.311 -71.671
299.583 0.285 -73.194 0.957 16.583 0.957 16.583 0.285 -73.194
324.542 0.263 -74.509 0.964 15.248 0.964 15.248 0.263 -74.509
349.5 0.243 -75.655 0.969 14.08 0.969 14.08 0.243 -75.655
374.458 0.226 -76.664 0.973 13.05 0.973 13.05 0.226 -76.664
399.417 0.21 -77.558 0.977 12.133 0.977 12.133 0.21 -77.558
424.375 0.196 -78.357 0.979 11.311 0.979 11.311 0.196 -78.357
449.333 0.183 -79.075 0.982 10.569 0.982 10.569 0.183 -79.075
474.292 0.172 -79.724 0.984 9.895 0.984 9.895 0.172 -79.724
499.25 0.161 -80.314 0.986 9.279 0.986 9.279 0.161 -80.314
524.208 0.152 -80.853 0.987 8.714 0.987 8.714 0.152 -80.853
549.167 0.143 -81.346 0.989 8.193 0.989 8.193 0.143 -81.346
574.125 0.134 -81.8 0.99 7.71 0.99 7.71 0.134 -81.8
599.083 0.126 -82.219 0.991 7.26 0.991 7.26 0.126 -82.219
624.042 0.119 -82.606 0.992 6.84 0.992 6.84 0.119 -82.606
649 0.112 -82.966 0.993 6.447 0.993 6.447 0.112 -82.966
673.958 0.106 -83.299 0.993 6.077 0.993 6.077 0.106 -83.299
698.917 0.1 -83.61 0.994 5.728 0.994 5.728 0.1 -83.61
723.875 0.094 -83.899 0.994 5.399 0.994 5.399 0.094 -83.899
748.833 0.089 -84.168 0.995 5.086 0.995 5.086 0.089 -84.168
773.792 0.083 -84.418 0.995 4.789 0.995 4.789 0.083 -84.418
798.75 0.079 -84.651 0.996 4.506 0.996 4.506 0.079 -84.651
823.708 0.074 -84.868 0.996 4.236 0.996 4.236 0.074 -84.868
848.667 0.069 -85.068 0.996 3.977 0.996 3.977 0.069 -85.068
873.625 0.065 -85.252 0.997 3.73 0.997 3.73 0.065 -85.252
898.583 0.061 -85.42 0.997 3.492 0.997 3.492 0.061 -85.42
923.542 0.057 -85.573 0.997 3.263 0.997 3.263 0.057 -85.573
948.5 0.053 -85.709 0.997 3.043 0.997 3.043 0.053 -85.709
973.458 0.049 -85.827 0.998 2.83 0.998 2.83 0.049 -85.827
998.417 0.046 -85.928 0.998 2.624 0.998 2.624 0.046 -85.928
1023.375 0.042 -86.008 0.998 2.425 0.998 2.425 0.042 -86.008
1048.333 0.039 -86.065 0.998 2.232 0.998 2.232 0.039 -86.065
1073.292 0.036 -86.096 0.998 2.045 0.998 2.045 0.036 -86.096
1098.25 0.033 -86.097 0.998 1.863 0.998 1.863 0.033 -86.097
1123.208 0.029 -86.06 0.998 1.687 0.998 1.687 0.029 -86.06
1148.167 0.026 -85.976 0.998 1.515 0.998 1.515 0.026 -85.976
1173.125 0.024 -85.832 0.999 1.347 0.999 1.347 0.024 -85.832
1198.083 0.021 -85.606 0.999 1.183 0.999 1.183 0.021 -85.606
1223.042 0.018 -85.266 0.999 1.024 0.999 1.024 0.018 -85.266
1248 0.015 -84.757 0.999 0.868 0.999 0.868 0.015 -84.757
1272.958 0.013 -83.98 0.999 0.715 0.999 0.715 0.013 -83.98
1297.917 9.939e-3 -82.739 0.999 0.566 0.999 0.566 9.939e-3 -82.739
1322.875 7.408e-3 -80.581 0.999 0.419 0.999 0.419 7.408e-3 -80.581
1347.833 4.95e-3 -76.185 0.999 0.276 0.999 0.276 4.95e-3 -76.185
1372.792 2.625e-3 -63.668 0.999 0.135 0.999 0.135 2.625e-3 -63.668
1397.75 1.16e-3 2.798 0.999 -3.248e-3 0.999 -3.248e-3 1.16e-3 2.798
1422.708 2.689e-3 64.329 0.999 -0.139 0.999 -0.139 2.689e-3 64.329
1447.667 4.894e-3 76.031 0.999 -0.272 0.999 -0.272 4.894e-3 76.031
1472.625 7.14e-3 80.256 0.999 -0.404 0.999 -0.404 7.14e-3 80.256
1497.583 9.371e-3 82.364 0.999 -0.533 0.999 -0.533 9.371e-3 82.364
1522.542 0.012 83.595 0.999 -0.66 0.999 -0.66 0.012 83.595
1547.5 0.014 84.382 0.999 -0.785 0.999 -0.785 0.014 84.382
1572.458 0.016 84.912 0.999 -0.909 0.999 -0.909 0.016 84.912
1597.417 0.018 85.283 0.999 -1.03 0.999 -1.03 0.018 85.283
1622.375 0.02 85.547 0.999 -1.15 0.999 -1.15 0.02 85.547
1647.333 0.022 85.736 0.999 -1.269 0.999 -1.269 0.022 85.736
1672.292 0.024 85.872 0.999 -1.386 0.999 -1.386 0.024 85.872
1697.25 0.026 85.967 0.998 -1.501 0.998 -1.501 0.026 85.967
1722.208 0.028 86.032 0.998 -1.616 0.998 -1.616 0.028 86.032
1747.167 0.03 86.072 0.998 -1.728 0.998 -1.728 0.03 86.072
1772.125 0.032 86.094 0.998 -1.84 0.998 -1.84 0.032 86.094
1797.083 0.034 86.101 0.998 -1.95 0.998 -1.95 0.034 86.101
1822.042 0.036 86.095 0.998 -2.06 0.998 -2.06 0.036 86.095
1847 0.038 86.079 0.998 -2.168 0.998 -2.168 0.038 86.079
1871.958 0.04 86.054 0.998 -2.275 0.998 -2.275 0.04 86.054
1896.917 0.042 86.023 0.998 -2.381 0.998 -2.381 0.042 86.023
1921.875 0.043 85.985 0.998 -2.486 0.998 -2.486 0.043 85.985
1946.833 0.045 85.943 0.998 -2.59 0.998 -2.59 0.045 85.943
1971.792 0.047 85.896 0.998 -2.693 0.998 -2.693 0.047 85.896
1996.75 0.049 85.845 0.998 -2.795 0.998 -2.795 0.049 85.845
2021.708 0.051 85.792 0.998 -2.896 0.998 -2.896 0.051 85.792
2046.667 0.052 85.735 0.997 -2.997 0.997 -2.997 0.052 85.735
2071.625 0.054 85.676 0.997 -3.097 0.997 -3.097 0.054 85.676
2096.583 0.056 85.615 0.997 -3.196 0.997 -3.196 0.056 85.615
2121.542 0.057 85.553 0.997 -3.294 0.997 -3.294 0.057 85.553
2146.5 0.059 85.488 0.997 -3.392 0.997 -3.392 0.059 85.488
2171.458 0.061 85.423 0.997 -3.488 0.997 -3.488 0.061 85.423
2196.417 0.063 85.356 0.997 -3.585 0.997 -3.585 0.063 85.356
2221.375 0.064 85.288 0.997 -3.68 0.997 -3.68 0.064 85.288
2246.333 0.066 85.219 0.997 -3.775 0.997 -3.775 0.066 85.219
2271.292 0.067 85.149 0.997 -3.869 0.997 -3.869 0.067 85.149
2296.25 0.069 85.079 0.996 -3.963 0.996 -3.963 0.069 85.079
2321.208 0.071 85.008 0.996 -4.056 0.996 -4.056 0.071 85.008
2346.167 0.072 84.936 0.996 -4.149 0.996 -4.149 0.072 84.936
2371.125 0.074 84.864 0.996 -4.241 0.996 -4.241 0.074 84.864
2396.083 0.076 84.791 0.996 -4.332 0.996 -4.332 0.076 84.791
2421.042 0.077 84.718 0.996 -4.423 0.996 -4.423 0.077 84.718
2446 0.079 84.645 0.996 -4.514 0.996 -4.514 0.079 84.645
2470.958 0.08 84.572 0.996 -4.604 0.996 -4.604 0.08 84.572
2495.917 0.082 84.498 0.995 -4.693 0.995 -4.693 0.082 84.498
2520.875 0.083 84.424 0.995 -4.783 0.995 -4.783 0.083 84.424
2545.833 0.085 84.35 0.995 -4.871 0.995 -4.871 0.085 84.35
2570.792 0.086 84.275 0.995 -4.96 0.995 -4.96 0.086 84.275
2595.75 0.088 84.201 0.995 -5.047 0.995 -5.047 0.088 84.201
2620.708 0.09 84.126 0.995 -5.135 0.995 -5.135 0.09 84.126
2645.667 0.091 84.052 0.995 -5.222 0.995 -5.222 0.091 84.052
2670.625 0.093 83.977 0.995 -5.309 0.995 -5.309 0.093 83.977
2695.583 0.094 83.902 0.994 -5.395 0.994 -5.395 0.094 83.902
2720.542 0.096 83.827 0.994 -5.481 0.994 -5.481 0.096 83.827
2745.5 0.097 83.752 0.994 -5.567 0.994 -5.567 0.097 83.752
2770.458 0.098 83.677 0.994 -5.652 0.994 -5.652 0.098 83.677
2795.417 0.1 83.602 0.994 -5.737 0.994 -5.737 0.1 83.602
2820.375 0.101 83.527 0.994 -5.821 0.994 -5.821 0.101 83.527
2845.333 0.103 83.453 0.994 -5.906 0.994 -5.906 0.103 83.453
2870.292 0.104 83.378 0.993 -5.99 0.993 -5.99 0.104 83.378
2895.25 0.106 83.303 0.993 -6.073 0.993 -6.073 0.106 83.303
2920.208 0.107 83.228 0.993 -6.157 0.993 -6.157 0.107 83.228
2945.167 0.109 83.153 0.993 -6.24 0.993 -6.24 0.109 83.153
2970.125 0.11 83.078 0.993 -6.322 0.993 -6.322 0.11 83.078
2995.083 0.112 83.004 0.993 -6.405 0.993 -6.405 0.112 83.004
3020.042 0.113 82.929 0.992 -6.487 0.992 -6.487 0.113 82.929
3045 0.114 82.854 0.992 -6.569 0.992 -6.569 0.114 82.854
3069.958 0.116 82.78 0.992 -6.651 0.992 -6.651 0.116 82.78
3094.917 0.117 82.705 0.992 -6.732 0.992 -6.732 0.117 82.705
3119.875 0.119 82.631 0.992 -6.814 0.992 -6.814 0.119 82.631
3144.833 0.12 82.556 0.992 -6.895 0.992 -6.895 0.12 82.556
3169.792 0.121 82.482 0.991 -6.975 0.991 -6.975 0.121 82.482
3194.75 0.123 82.408 0.991 -7.056 0.991 -7.056 0.123 82.408
3219.708 0.124 82.334 0.991 -7.136 0.991 -7.136 0.124 82.334
3244.667 0.126 82.26 0.991 -7.216 0.991 -7.216 0.126 82.26
3269.625 0.127 82.186 0.991 -7.296 0.991 -7.296 0.127 82.186
3294.583 0.128 82.112 0.991 -7.375 0.991 -7.375 0.128 82.112
3319.542 0.13 82.038 0.99 -7.455 0.99 -7.455 0.13 82.038
3344.5 0.131 81.964 0.99 -7.534 0.99 -7.534 0.131 81.964
3369.458 0.132 81.89 0.99 -7.613 0.99 -7.613 0.132 81.89
3394.417 0.134 81.817 0.99 -7.692 0.99 -7.692 0.134 81.817
3419.375 0.135 81.743 0.99 -7.77 0.99 -7.77 0.135 81.743
3444.333 0.137 81.67 0.989 -7.849 0.989 -7.849 0.137 81.67
3469.292 0.138 81.596 0.989 -7.927 0.989 -7.927 0.138 81.596
3494.25 0.139 81.523 0.989 -8.005 0.989 -8.005 0.139 81.523
3519.208 0.141 81.45 0.989 -8.083 0.989 -8.083 0.141 81.45
3544.167 0.142 81.377 0.989 -8.16 0.989 -8.16 0.142 81.377
3569.125 0.143 81.304 0.989 -8.238 0.989 -8.238 0.143 81.304
3594.083 0.145 81.231 0.988 -8.315 0.988 -8.315 0.145 81.231
3619.042 0.146 81.158 0.988 -8.392 0.988 -8.392 0.146 81.158
3644 0.147 81.085 0.988 -8.469 0.988 -8.469 0.147 81.085
3668.958 0.149 81.012 0.988 -8.546 0.988 -8.546 0.149 81.012
3693.917 0.15 80.939 0.988 -8.623 0.988 -8.623 0.15 80.939
3718.875 0.151 80.867 0.987 -8.699 0.987 -8.699 0.151 80.867
3743.833 0.153 80.794 0.987 -8.775 0.987 -8.775 0.153 80.794
3768.792 0.154 80.722 0.987 -8.852 0.987 -8.852 0.154 80.722
3793.75 0.155 80.65 0.987 -8.928 0.987 -8.928 0.155 80.65
3818.708 0.156 80.578 0.987 -9.003 0.987 -9.003 0.156 80.578
3843.667 0.158 80.505 0.986 -9.079 0.986 -9.079 0.158 80.505
3868.625 0.159 80.433 0.986 -9.155 0.986 -9.155 0.159 80.433
3893.583 0.16 80.361 0.986 -9.23 0.986 -9.23 0.16 80.361
3918.542 0.162 80.289 0.986 -9.305 0.986 -9.305 0.162 80.289
3943.5 0.163 80.218 0.985 -9.38 0.985 -9.38 0.163 80.218
3968.458 0.164 80.146 0.985 -9.455 0.985 -9.455 0.164 80.146
3993.417 0.166 80.074 0.985 -9.53 0.985 -9.53 0.166 80.074
4018.375 0.167 80.003 0.985 -9.605 0.985 -9.605 0.167 80.003
4043.333 0.168 79.931 0.985 -9.68 0.985 -9.68 0.168 79.931
4068.292 0.169 79.86 0.984 -9.754 0.984 -9.754 0.169 79.86
4093.25 0.171 79.788 0.984 -9.828 0.984 -9.828 0.171 79.788
4118.208 0.172 79.717 0.984 -9.903 0.984 -9.903 0.172 79.717
4143.167 0.173 79.646 0.984 -9.977 0.984 -9.977 0.173 79.646
4168.125 0.175 79.575 0.984 -10.051 0.984 -10.051 0.175 79.575
4193.083 0.176 79.504 0.983 -10.124 0.983 -10.124 0.176 79.504
4218.042 0.177 79.433 0.983 -10.198 0.983 -10.198 0.177 79.433
4243 0.178 79.362 0.983 -10.272 0.983 -10.272 0.178 79.362
4267.958 0.18 79.291 0.983 -10.345 0.983 -10.345 0.18 79.291
4292.917 0.181 79.22 0.982 -10.418 0.982 -10.418 0.181 79.22
4317.875 0.182 79.15 0.982 -10.492 0.982 -10.492 0.182 79.15
4342.833 0.183 79.079 0.982 -10.565 0.982 -10.565 0.183 79.079
4367.792 0.185 79.009 0.982 -10.638 0.982 -10.638 0.185 79.009
4392.75 0.186 78.938 0.981 -10.711 0.981 -10.711 0.186 78.938
4417.708 0.187 78.868 0.981 -10.783 0.981 -10.783 0.187 78.868
4442.667 0.188 78.798 0.981 -10.856 0.981 -10.856 0.188 78.798
4467.625 0.19 78.727 0.981 -10.929 0.981 -10.929 0.19 78.727
4492.583 0.191 78.657 0.98 -11.001 0.98 -11.001 0.191 78.657
4517.542 0.192 78.587 0.98 -11.073 0.98 -11.073 0.192 78.587
4542.5 0.193 78.517 0.98 -11.146 0.98 -11.146 0.193 78.517
4567.458 0.195 78.447 0.98 -11.218 0.98 -11.218 0.195 78.447
4592.417 0.196 78.378 0.98 -11.29 0.98 -11.29 0.196 78.378
4617.375 0.197 78.308 0.979 -11.362 0.979 -11.362 0.197 78.308
4642.333 0.198 78.238 0.979 -11.434 0.979 -11.434 0.198 78.238
4667.292 0.199 78.168 0.979 -11.505 0.979 -11.505 0.199 78.168
4692.25 0.201 78.099 0.979 -11.577 0.979 -11.577 0.201 78.099
4717.208 0.202 78.029 0.978 -11.648 0.978 -11.648 0.202 78.029
4742.167 0.203 77.96 0.978 -11.72 0.978 -11.72 0.203 77.96
4767.125 0.204 77.891 0.978 -11.791 0.978 -11.791 0.204 77.891
4792.083 0.206 77.821 0.978 -11.862 0.978 -11.862 0.206 77.821
4817.042 0.207 77.752 0.977 -11.934 0.977 -11.934 0.207 77.752
4842 0.208 77.683 0.977 -12.005 0.977 -12.005 0.208 77.683
4866.958 0.209 77.614 0.977 -12.076 0.977 -12.076 0.209 77.614
4891.917 0.21 77.545 0.976 -12.146 0.976 -12.146 0.21 77.545
4916.875 0.212 77.476 0.976 -12.217 0.976 -12.217 0.212 77.476
4941.833 0.213 77.407 0.976 -12.288 0.976 -12.288 0.213 77.407
4966.792 0.214 77.338 0.976 -12.358 0.976 -12.358 0.214 77.338
4991.75 0.215 77.27 0.975 -12.429 0.975 -12.429 0.215 77.27
5016.708 0.216 77.201 0.975 -12.499 0.975 -12.499 0.216 77.201
5041.667 0.218 77.133 0.975 -12.57 0.975 -12.57 0.218 77.133
5066.625 0.219 77.064 0.975 -12.64 0.975 -12.64 0.219 77.064
5091.583 0.22 76.996 0.974 -12.71 0.974 -12.71 0.22 76.996
5116.542 0.221 76.927 0.974 -12.78 0.974 -12.78 0.221 76.927
5141.5 0.222 76.859 0.974 -12.85 0.974 -12.85 0.222 76.859
5166.458 0.224 76.791 0.974 -12.92 0.974 -12.92 0.224 76.791
5191.417 0.225 76.722 0.973 -12.99 0.973 -12.99 0.225 76.722
5216.375 0.226 76.654 0.973 -13.059 0.973 -13.059 0.226 76.654
5241.333 0.227 76.586 0.973 -13.129 0.973 -13.129 0.227 76.586
5266.292 0.228 76.518 0.972 -13.199 0.972 -13.199 0.228 76.518
5291.25 0.23 76.45 0.972 -13.268 0.972 -13.268 0.23 76.45
5316.208 0.231 76.382 0.972 -13.337 0.972 -13.337 0.231 76.382
5341.167 0.232 76.315 0.972 -13.407 0.972 -13.407 0.232 76.315
5366.125 0.233 76.247 0.971 -13.476 0.971 -13.476 0.233 76.247
5391.083 0.234 76.179 0.971 -13.545 0.971 -13.545 0.234 76.179
5416.042 0.235 76.112 0.971 -13.614 0.971 -13.614 0.235 76.112
5441 0.237 76.044 0.97 -13.683 0.97 -13.683 0.237 76.044
5465.958 0.238 75.977 0.97 -13.752 0.97 -13.752 0.238 75.977
5490.917 0.239 75.909 0.97 -13.821 0.97 -13.821 0.239 75.909
5515.875 0.24 75.842 0.97 -13.89 0.97 -13.89 0.24 75.842
5540.833 0.241 75.775 0.969 -13.958 0.969 -13.958 0.241 75.775
5565.792 0.242 75.707 0.969 -14.027 0.969 -14.027 0.242 75.707
5590.75 0.244 75.64 0.969 -14.095 0.969 -14.095 0.244 75.64
5615.708 0.245 75.573 0.968 -14.164 0.968 -14.164 0.245 75.573
5640.667 0.246 75.506 0.968 -14.232 0.968 -14.232 0.246 75.506
5665.625 0.247 75.439 0.968 -14.3 0.968 -14.3 0.247 75.439
5690.583 0.248 75.372 0.968 -14.369 0.968 -14.369 0.248 75.372
5715.542 0.249 75.305 0.967 -14.437 0.967 -14.437 0.249 75.305
5740.5 0.25 75.239 0.967 -14.505 0.967 -14.505 0.25 75.239
5765.458 0.252 75.172 0.967 -14.573 0.967 -14.573 0.252 75.172
5790.417 0.253 75.105 0.966 -14.641 0.966 -14.641 0.253 75.105
5815.375 0.254 75.039 0.966 -14.708 0.966 -14.708 0.254 75.039
5840.333 0.255 74.972 0.966 -14.776 0.966 -14.776 0.255 74.972
5865.292 0.256 74.906 0.966 -14.844 0.966 -14.844 0.256 74.906
5890.25 0.257 74.839 0.965 -14.911 0.965 -14.911 0.257 74.839
5915.208 0.258 74.773 0.965 -14.979 0.965 -14.979 0.258 74.773
5940.167 0.26 74.707 0.965 -15.046 0.965 -15.046 0.26 74.707
5965.125 0.261 74.64 0.964 -15.114 0.964 -15.114 0.261 74.64
5990.083 0.262 74.574 0.964 -15.181 0.964 -15.181 0.262 74.574
6015.042 0.263 74.508 0.964 -15.248 0.964 -15.248 0.263 74.508
6040 0.264 74.442 0.963 -15.316 0.963 -15.316 0.264 74.442
6064.958 0.265 74.376 0.963 -15.383 0.963 -15.383 0.265 74.376
6089.917 0.266 74.31 0.963 -15.45 0.963 -15.45 0.266 74.31
6114.875 0.268 74.244 0.962 -15.517 0.962 -15.517 0.268 74.244
6139.833 0.269 74.178 0.962 -15.584 0.962 -15.584 0.269 74.178
6164.792 0.27 74.113 0.962 -15.65 0.962 -15.65 0.27 74.113
6189.75 0.271 74.047 0.961 -15.717 0.961 -15.717 0.271 74.047
6214.708 0.272 73.981 0.961 -15.784 0.961 -15.784 0.272 73.981
6239.667 0.273 73.916 0.961 -15.85 0.961 -15.85 0.273 73.916
6264.625 0.274 73.85 0.961 -15.917 0.961 -15.917 0.274 73.85
6289.583 0.275 73.785 0.96 -15.983 0.96 -15.983 0.275 73.785
6314.542 0.276 73.719 0.96 -16.05 0.96 -16.05 0.276 73.719
6339.5 0.278 73.654 0.96 -16.116 0.96 -16.116 0.278 73.654
6364.458 0.279 73.589 0.959 -16.182 0.959 -16.182 0.279 73.589
6389.417 0.28 73.524 0.959 -16.249 0.959 -16.249 0.28 73.524
6414.375 0.281 73.458 0.959 -16.315 0.959 -16.315 0.281 73.458
6439.333 0.282 73.393 0.958 -16.381 0.958 -16.381 0.282 73.393
6464.292 0.283 73.328 0.958 -16.447 0.958 -16.447 0.283 73.328
6489.25 0.284 73.263 0.958 -16.513 0.958 -16.513 0.284 73.263
6514.208 0.285 73.198 0.957 -16.579 0.957 -16.579 0.285 73.198
6539.167 0.286 73.134 0.957 -16.644 0.957 -16.644 0.286 73.134
6564.125 0.288 73.069 0.957 -16.71 0.957 -16.71 0.288 73.069
6589.083 0.289 73.004 0.956 -16.776 0.956 -16.776 0.289 73.004
6614.042 0.29 72.939 0.956 -16.841 0.956 -16.841 0.29 72.939
6639 0.291 72.875 0.956 -16.907 0.956 -16.907 0.291 72.875
6663.958 0.292 72.81 0.955 -16.972 0.955 -16.972 0.292 72.81
6688.917 0.293 72.746 0.955 -17.038 0.955 -17.038 0.293 72.746
6713.875 0.294 72.681 0.955 -17.103 0.955 -17.103 0.294 72.681
6738.833 0.295 72.617 0.954 -17.168 0.954 -17.168 0.295 72.617
6763.792 0.296 72.553 0.954 -17.233 0.954 -17.233 0.296 72.553
6788.75 0.297 72.488 0.954 -17.299 0.954 -17.299 0.297 72.488
6813.708 0.298 72.424 0.953 -17.364 0.953 -17.364 0.298 72.424
6838.667 0.3 72.36 0.953 -17.429 0.953 -17.429 0.3 72.36
6863.625 0.301 72.296 0.953 -17.494 0.953 -17.494 0.301 72.296
6888.583 0.302 72.232 0.952 -17.558 0.952 -17.558 0.302 72.232
6913.542 0.303 72.168 0.952 -17.623 0.952 -17.623 0.303 72.168
6938.5 0.304 72.104 0.952 -17.688 0.952 -17.688 0.304 72.104
6963.458 0.305 72.04 0.951 -17.753 0.951 -17.753 0.305 72.04
6988.417 0.306 71.976 0.951 -17.817 0.951 -17.817 0.306 71.976
7013.375 0.307 71.912 0.951 -17.882 0.951 -17.882 0.307 71.912
7038.333 0.308 71.849 0.95 -17.946 0.95 -17.946 0.308 71.849
7063.292 0.309 71.785 0.95 -18.011 0.95 -18.011 0.309 71.785
7088.25 0.31 71.722 0.95 -18.075 0.95 -18.075 0.31 71.722
7113.208 0.311 71.658 0.949 -18.139 0.949 -18.139 0.311 71.658
7138.167 0.312 71.595 0.949 -18.203 0.949 -18.203 0.312 71.595
7163.125 0.313 71.531 0.949 -18.268 0.949 -18.268 0.313 71.531
7188.083 0.315 71.468 0.948 -18.332 0.948 -18.332 0.315 71.468
7213.042 0.316 71.405 0.948 -18.396 0.948 -18.396 0.316 71.405
7238 0.317 71.341 0.947 -18.46 0.947 -18.46 0.317 71.341
7262.958 0.318 71.278 0.947 -18.524 0.947 -18.524 0.318 71.278
7287.917 0.319 71.215 0.947 -18.587 0.947 -18.587 0.319 71.215
7312.875 0.32 71.152 0.946 -18.651 0.946 -18.651 0.32 71.152
7337.833 0.321 71.089 0.946 -18.715 0.946 -18.715 0.321 71.089
7362.792 0.322 71.026 0.946 -18.779 0.946 -18.779 0.322 71.026
7387.75 0.323 70.963 0.945 -18.842 0.945 -18.842 0.323 70.963
7412.708 0.324 70.9 0.945 -18.906 0.945 -18.906 0.324 70.9
7437.667 0.325 70.838 0.945 -18.969 0.945 -18.969 0.325 70.838
7462.625 0.326 70.775 0.944 -19.033 0.944 -19.033 0.326 70.775
7487.583 0.327 70.712 0.944 -19.096 0.944 -19.096 0.327 70.712
7512.542 0.328 70.65 0.944 -19.159 0.944 -19.159 0.328 70.65
7537.5 0.329 70.587 0.943 -19.222 0.943 -19.222 0.329 70.587
7562.458 0.33 70.525 0.943 -19.285 0.943 -19.285 0.33 70.525
7587.417 0.331 70.462 0.942 -19.349 0.942 -19.349 0.331 70.462
7612.375 0.332 70.4 0.942 -19.412 0.942 -19.412 0.332 70.4
7637.333 0.333 70.338 0.942 -19.475 0.942 -19.475 0.333 70.338
7662.292 0.334 70.275 0.941 -19.537 0.941 -19.537 0.334 70.275
7687.25 0.335 70.213 0.941 -19.6 0.941 -19.6 0.335 70.213
7712.208 0.336 70.151 0.941 -19.663 0.941 -19.663 0.336 70.151
7737.167 0.338 70.089 0.94 -19.726 0.94 -19.726 0.338 70.089
7762.125 0.339 70.027 0.94 -19.788 0.94 -19.788 0.339 70.027
7787.083 0.34 69.965 0.939 -19.851 0.939 -19.851 0.34 69.965
7812.042 0.341 69.903 0.939 -19.914 0.939 -19.914 0.341 69.903
7837 0.342 69.841 0.939 -19.976 0.939 -19.976 0.342 69.841
7861.958 0.343 69.78 0.938 -20.038 0.938 -20.038 0.343 69.78
7886.917 0.344 69.718 0.938 -20.101 0.938 -20.101 0.344 69.718
7911.875 0.345 69.656 0.938 -20.163 0.938 -20.163 0.345 69.656
7936.833 0.346 69.595 0.937 -20.225 0.937 -20.225 0.346 69.595
7961.792 0.347 69.533 0.937 -20.287 0.937 -20.287 0.347 69.533
7986.75 0.348 69.471 0.937 -20.349 0.937 -20.349 0.348 69.471
8011.708 0.349 69.41 0.936 -20.411 0.936 -20.411 0.349 69.41
8036.667 0.35 69.349 0.936 -20.473 0.936 -20.473 0.35 69.349
8061.625 0.351 69.287 0.935 -20.535 0.935 -20.535 0.351 69.287
8086.583 0.352 69.226 0.935 -20.597 0.935 -20.597 0.352 69.226
8111.542 0.353 69.165 0.935 -20.659 0.935 -20.659 0.353 69.165
8136.5 0.354 69.104 0.934 -20.721 0.934 -20.721 0.354 69.104
8161.458 0.355 69.043 0.934 -20.782 0.934 -20.782 0.355 69.043
8186.417 0.356 68.982 0.933 -20.844 0.933 -20.844 0.356 68.982
