# MHZ S MA R 50

50 1 -1.53 0.027 88.466 0.027 88.466 1 -1.53
74.958 0.999 -2.293 0.04 87.701 0.04 87.701 0.999 -2.293
99.917 0.999 -3.055 0.053 86.937 0.053 86.937 0.999 -3.055
124.875 0.998 -3.817 0.067 86.173 0.067 86.173 0.998 -3.817
149.833 0.997 -4.578 0.08 85.41 0.08 85.41 0.997 -4.578
174.792 0.996 -5.337 0.093 84.649 0.093 84.649 0.996 -5.337
199.75 0.994 -6.095 0.106 83.888 0.106 83.888 0.994 -6.095
224.708 0.993 -6.852 0.119 83.13 0.119 83.13 0.993 -6.852
249.667 0.991 -7.607 0.132 82.373 0.132 82.373 0.991 -7.607
274.625 0.989 -8.36 0.145 81.618 0.145 81.618 0.989 -8.36
299.583 0.987 -9.11 0.158 80.865 0.158 80.865 0.987 -9.11
324.542 0.985 -9.859 0.171 80.115 0.171 80.115 0.985 -9.859
349.5 0.983 -10.605 0.184 79.367 0.184 79.367 0.983 -10.605
374.458 0.98 -11.348 0.197 78.621 0.197 78.621 0.98 -11.348
399.417 0.978 -12.089 0.209 77.879 0.209 77.879 0.978 -12.089
424.375 0.975 -12.826 0.222 77.139 0.222 77.139 0.975 -12.826
449.333 0.972 -13.561 0.234 76.403 0.234 76.403 0.972 -13.561
474.292 0.969 -14.292 0.247 75.669 0.247 75.669 0.969 -14.292
499.25 0.966 -15.02 0.259 74.939 0.259 74.939 0.966 -15.02
524.208 0.962 -15.744 0.271 74.213 0.271 74.213 0.962 -15.744
549.167 0.959 -16.465 0.283 73.491 0.283 73.491 0.959 -16.465
574.125 0.955 -17.181 0.295 72.772 0.295 72.772 0.955 -17.181
599.083 0.951 -17.894 0.307 72.057 0.307 72.057 0.951 -17.894
624.042 0.947 -18.603 0.319 71.346 0.319 71.346 0.947 -18.603
649 0.943 -19.307 0.331 70.64 0.331 70.64 0.943 -19.307
673.958 0.939 -20.007 0.342 69.938 0.342 69.938 0.939 -20.007
698.917 0.935 -20.703 0.354 69.24 0.354 69.24 0.935 -20.703
723.875 0.931 -21.394 0.365 68.547 0.365 68.547 0.931 -21.394
748.833 0.926 -22.081 0.376 67.858 0.376 67.858 0.926 -22.081
773.792 0.922 -22.763 0.387 67.174 0.387 67.174 0.922 -22.763
798.75 0.917 -23.44 0.398 66.495 0.398 66.495 0.917 -23.44
823.708 0.912 -24.112 0.409 65.82 0.409 65.82 0.912 -24.112
848.667 0.907 -24.779 0.419 65.151 0.419 65.151 0.907 -24.779
873.625 0.902 -25.442 0.43 64.486 0.43 64.486 0.902 -25.442
898.583 0.897 -26.099 0.44 63.827 0.44 63.827 0.897 -26.099
923.542 0.892 -26.751 0.45 63.172 0.45 63.172 0.892 -26.751
948.5 0.887 -27.398 0.46 62.523 0.46 62.523 0.887 -27.398
973.458 0.882 -28.04 0.47 61.879 0.47 61.879 0.882 -28.04
998.417 0.877 -28.677 0.48 61.24 0.48 61.24 0.877 -28.677
1023.375 0.871 -29.308 0.49 60.606 0.49 60.606 0.871 -29.308
1048.333 0.866 -29.935 0.499 59.978 0.499 59.978 0.866 -29.935
1073.292 0.86 -30.555 0.508 59.355 0.508 59.355 0.86 -30.555
1098.25 0.855 -31.171 0.518 58.738 0.518 58.738 0.855 -31.171
1123.208 0.849 -31.781 0.527 58.125 0.527 58.125 0.849 -31.781
1148.167 0.844 -32.386 0.536 57.518 0.536 57.518 0.844 -32.386
1173.125 0.838 -32.985 0.544 56.917 0.544 56.917 0.838 -32.985
1198.083 0.832 -33.579 0.553 56.321 0.553 56.321 0.832 -33.579
1223.042 0.826 -34.167 0.562 55.73 0.562 55.73 0.826 -34.167
1248 0.821 -34.75 0.57 55.145 0.57 55.145 0.821 -34.75
1272.958 0.815 -35.328 0.578 54.565 0.578 54.565 0.815 -35.328
1297.917 0.809 -35.9 0.586 53.99 0.586 53.99 0.809 -35.9
1322.875 0.803 -36.467 0.594 53.421 0.594 53.421 0.803 -36.467
1347.833 0.797 -37.029 0.602 52.857 0.602 52.857 0.797 -37.029
1372.792 0.791 -37.585 0.61 52.298 0.61 52.298 0.791 -37.585
1397.75 0.785 -38.136 0.618 51.745 0.618 51.745 0.785 -38.136
1422.708 0.779 -38.682 0.625 51.197 0.625 51.197 0.779 -38.682
1447.667 0.773 -39.222 0.632 50.654 0.632 50.654 0.773 -39.222
1472.625 0.767 -39.757 0.64 50.117 0.64 50.117 0.767 -39.757
1497.583 0.761 -40.287 0.647 49.585 0.647 49.585 0.761 -40.287
1522.542 0.755 -40.812 0.654 49.058 0.654 49.058 0.755 -40.812
1547.5 0.749 -41.331 0.66 48.536 0.66 48.536 0.749 -41.331
1572.458 0.743 -41.845 0.667 48.019 0.667 48.019 0.743 -41.845
1597.417 0.737 -42.355 0.674 47.507 0.674 47.507 0.737 -42.355
1622.375 0.731 -42.859 0.68 47 0.68 47 0.731 -42.859
1647.333 0.725 -43.358 0.687 46.499 0.687 46.499 0.725 -43.358
1672.292 0.719 -43.852 0.693 46.002 0.693 46.002 0.719 -43.852
1697.25 0.713 -44.341 0.699 45.51 0.699 45.51 0.713 -44.341
1722.208 0.707 -44.826 0.705 45.023 0.705 45.023 0.707 -44.826
1747.167 0.701 -45.305 0.711 44.541 0.711 44.541 0.701 -45.305
1772.125 0.695 -45.78 0.717 44.064 0.717 44.064 0.695 -45.78
1797.083 0.69 -46.25 0.722 43.592 0.722 43.592 0.69 -46.25
1822.042 0.684 -46.715 0.728 43.124 0.728 43.124 0.684 -46.715
1847 0.678 -47.176 0.733 42.661 0.733 42.661 0.678 -47.176
1871.958 0.672 -47.632 0.739 42.202 0.739 42.202 0.672 -47.632
1896.917 0.666 -48.083 0.744 41.748 0.744 41.748 0.666 -48.083
1921.875 0.66 -48.53 0.749 41.299 0.749 41.299 0.66 -48.53
1946.833 0.654 -48.972 0.754 40.854 0.754 40.854 0.654 -48.972
1971.792 0.648 -49.41 0.759 40.413 0.759 40.413 0.648 -49.41
1996.75 0.642 -49.843 0.764 39.977 0.764 39.977 0.642 -49.843
2021.708 0.637 -50.272 0.769 39.545 0.769 39.545 0.637 -50.272
2046.667 0.631 -50.697 0.774 39.117 0.774 39.117 0.631 -50.697
2071.625 0.625 -51.118 0.778 38.694 0.778 38.694 0.625 -51.118
2096.583 0.619 -51.534 0.783 38.275 0.783 38.275 0.619 -51.534
2121.542 0.614 -51.946 0.787 37.859 0.787 37.859 0.614 -51.946
2146.5 0.608 -52.355 0.792 37.448 0.792 37.448 0.608 -52.355
2171.458 0.602 -52.759 0.796 37.041 0.796 37.041 0.602 -52.759
2196.417 0.597 -53.159 0.8 36.638 0.8 36.638 0.597 -53.159
2221.375 0.591 -53.555 0.804 36.239 0.804 36.239 0.591 -53.555
2246.333 0.586 -53.947 0.808 35.844 0.808 35.844 0.586 -53.947
2271.292 0.58 -54.336 0.812 35.453 0.812 35.453 0.58 -54.336
2296.25 0.575 -54.72 0.816 35.065 0.816 35.065 0.575 -54.72
2321.208 0.569 -55.101 0.82 34.681 0.82 34.681 0.569 -55.101
2346.167 0.564 -55.478 0.824 34.301 0.824 34.301 0.564 -55.478
2371.125 0.558 -55.851 0.828 33.924 0.828 33.924 0.558 -55.851
2396.083 0.553 -56.221 0.831 33.551 0.831 33.551 0.553 -56.221
2421.042 0.547 -56.588 0.835 33.182 0.835 33.182 0.547 -56.588
2446 0.542 -56.95 0.838 32.816 0.838 32.816 0.542 -56.95
2470.958 0.537 -57.31 0.842 32.453 0.842 32.453 0.537 -57.31
2495.917 0.531 -57.665 0.845 32.094 0.845 32.094 0.531 -57.665
2520.875 0.526 -58.018 0.848 31.738 0.848 31.738 0.526 -58.018
2545.833 0.521 -58.367 0.851 31.386 0.851 31.386 0.521 -58.367
2570.792 0.516 -58.713 0.855 31.037 0.855 31.037 0.516 -58.713
2595.75 0.51 -59.055 0.858 30.691 0.858 30.691 0.51 -59.055
2620.708 0.505 -59.394 0.861 30.348 0.861 30.348 0.505 -59.394
2645.667 0.5 -59.731 0.864 30.008 0.864 30.008 0.5 -59.731
2670.625 0.495 -60.064 0.867 29.672 0.867 29.672 0.495 -60.064
2695.583 0.49 -60.393 0.869 29.338 0.869 29.338 0.49 -60.393
2720.542 0.485 -60.72 0.872 29.007 0.872 29.007 0.485 -60.72
2745.5 0.48 -61.044 0.875 28.68 0.875 28.68 0.48 -61.044
2770.458 0.475 -61.365 0.878 28.355 0.878 28.355 0.475 -61.365
2795.417 0.47 -61.683 0.88 28.034 0.88 28.034 0.47 -61.683
2820.375 0.465 -61.998 0.883 27.715 0.883 27.715 0.465 -61.998
2845.333 0.46 -62.31 0.885 27.399 0.885 27.399 0.46 -62.31
2870.292 0.455 -62.62 0.888 27.085 0.888 27.085 0.455 -62.62
2895.25 0.45 -62.926 0.89 26.775 0.89 26.775 0.45 -62.926
2920.208 0.446 -63.23 0.893 26.467 0.893 26.467 0.446 -63.23
2945.167 0.441 -63.531 0.895 26.162 0.895 26.162 0.441 -63.531
2970.125 0.436 -63.83 0.897 25.859 0.897 25.859 0.436 -63.83
2995.083 0.431 -64.125 0.9 25.559 0.9 25.559 0.431 -64.125
3020.042 0.427 -64.419 0.902 25.262 0.902 25.262 0.427 -64.419
3045 0.422 -64.709 0.904 24.967 0.904 24.967 0.422 -64.709
3069.958 0.417 -64.997 0.906 24.674 0.906 24.674 0.417 -64.997
3094.917 0.413 -65.283 0.908 24.384 0.908 24.384 0.413 -65.283
3119.875 0.408 -65.566 0.91 24.097 0.91 24.097 0.408 -65.566
3144.833 0.404 -65.847 0.912 23.811 0.912 23.811 0.404 -65.847
3169.792 0.399 -66.125 0.914 23.528 0.914 23.528 0.399 -66.125
3194.75 0.395 -66.401 0.916 23.248 0.916 23.248 0.395 -66.401
3219.708 0.39 -66.674 0.918 22.97 0.918 22.97 0.39 -66.674
3244.667 0.386 -66.946 0.92 22.693 0.92 22.693 0.386 -66.946
3269.625 0.381 -67.215 0.922 22.42 0.922 22.42 0.381 -67.215
3294.583 0.377 -67.481 0.924 22.148 0.924 22.148 0.377 -67.481
3319.542 0.373 -67.746 0.926 21.878 0.926 21.878 0.373 -67.746
3344.5 0.368 -68.008 0.927 21.611 0.927 21.611 0.368 -68.008
3369.458 0.364 -68.268 0.929 21.346 0.929 21.346 0.364 -68.268
3394.417 0.36 -68.526 0.931 21.083 0.931 21.083 0.36 -68.526
3419.375 0.355 -68.782 0.932 20.822 0.932 20.822 0.355 -68.782
3444.333 0.351 -69.035 0.934 20.562 0.934 20.562 0.351 -69.035
3469.292 0.347 -69.287 0.935 20.305 0.935 20.305 0.347 -69.287
3494.25 0.343 -69.537 0.937 20.05 0.937 20.05 0.343 -69.537
3519.208 0.339 -69.784 0.938 19.797 0.938 19.797 0.339 -69.784
3544.167 0.335 -70.03 0.94 19.545 0.94 19.545 0.335 -70.03
3569.125 0.33 -70.273 0.941 19.296 0.941 19.296 0.33 -70.273
3594.083 0.326 -70.515 0.943 19.048 0.943 19.048 0.326 -70.515
3619.042 0.322 -70.754 0.944 18.803 0.944 18.803 0.322 -70.754
3644 0.318 -70.992 0.946 18.559 0.946 18.559 0.318 -70.992
3668.958 0.314 -71.228 0.947 18.316 0.947 18.316 0.314 -71.228
3693.917 0.31 -71.462 0.948 18.076 0.948 18.076 0.31 -71.462
3718.875 0.306 -71.694 0.949 17.837 0.949 17.837 0.306 -71.694
3743.833 0.302 -71.924 0.951 17.6 0.951 17.6 0.302 -71.924
3768.792 0.298 -72.152 0.952 17.365 0.952 17.365 0.298 -72.152
3793.75 0.295 -72.379 0.953 17.131 0.953 17.131 0.295 -72.379
3818.708 0.291 -72.604 0.954 16.899 0.954 16.899 0.291 -72.604
3843.667 0.287 -72.827 0.955 16.669 0.955 16.669 0.287 -72.827
3868.625 0.283 -73.048 0.957 16.44 0.957 16.44 0.283 -73.048
3893.583 0.279 -73.268 0.958 16.213 0.958 16.213 0.279 -73.268
3918.542 0.275 -73.486 0.959 15.988 0.959 15.988 0.275 -73.486
3943.5 0.272 -73.702 0.96 15.764 0.96 15.764 0.272 -73.702
3968.458 0.268 -73.916 0.961 15.541 0.961 15.541 0.268 -73.916
3993.417 0.264 -74.129 0.962 15.32 0.962 15.32 0.264 -74.129
4018.375 0.261 -74.34 0.963 15.1 0.963 15.1 0.261 -74.34
4043.333 0.257 -74.55 0.964 14.882 0.964 14.882 0.257 -74.55
4068.292 0.253 -74.758 0.965 14.666 0.965 14.666 0.253 -74.758
4093.25 0.25 -74.964 0.966 14.45 0.966 14.45 0.25 -74.964
4118.208 0.246 -75.169 0.967 14.237 0.967 14.237 0.246 -75.169
4143.167 0.242 -75.372 0.968 14.024 0.968 14.024 0.242 -75.372
4168.125 0.239 -75.573 0.969 13.813 0.969 13.813 0.239 -75.573
4193.083 0.235 -75.773 0.969 13.604 0.969 13.604 0.235 -75.773
4218.042 0.232 -75.971 0.97 13.395 0.97 13.395 0.232 -75.971
4243 0.228 -76.168 0.971 13.188 0.971 13.188 0.228 -76.168
4267.958 0.225 -76.363 0.972 12.982 0.972 12.982 0.225 -76.363
4292.917 0.221 -76.557 0.973 12.778 0.973 12.778 0.221 -76.557
4317.875 0.218 -76.749 0.973 12.575 0.973 12.575 0.218 -76.749
4342.833 0.214 -76.939 0.974 12.373 0.974 12.373 0.214 -76.939
4367.792 0.211 -77.128 0.975 12.172 0.975 12.172 0.211 -77.128
4392.75 0.207 -77.316 0.976 11.973 0.976 11.973 0.207 -77.316
4417.708 0.204 -77.501 0.976 11.775 0.976 11.775 0.204 -77.501
4442.667 0.201 -77.686 0.977 11.578 0.977 11.578 0.201 -77.686
4467.625 0.197 -77.869 0.978 11.382 0.978 11.382 0.197 -77.869
4492.583 0.194 -78.05 0.978 11.187 0.978 11.187 0.194 -78.05
4517.542 0.191 -78.23 0.979 10.994 0.979 10.994 0.191 -78.23
4542.5 0.187 -78.408 0.98 10.801 0.98 10.801 0.187 -78.408
4567.458 0.184 -78.584 0.98 10.61 0.98 10.61 0.184 -78.584
4592.417 0.181 -78.76 0.981 10.42 0.981 10.42 0.181 -78.76
4617.375 0.178 -78.933 0.982 10.231 0.982 10.231 0.178 -78.933
4642.333 0.174 -79.105 0.982 10.043 0.982 10.043 0.174 -79.105
4667.292 0.171 -79.275 0.983 9.856 0.983 9.856 0.171 -79.275
4692.25 0.168 -79.444 0.983 9.67 0.983 9.67 0.168 -79.444
4717.208 0.165 -79.611 0.984 9.486 0.984 9.486 0.165 -79.611
4742.167 0.162 -79.777 0.984 9.302 0.984 9.302 0.162 -79.777
4767.125 0.159 -79.941 0.985 9.119 0.985 9.119 0.159 -79.941
4792.083 0.155 -80.103 0.985 8.938 0.985 8.938 0.155 -80.103
4817.042 0.152 -80.264 0.986 8.757 0.986 8.757 0.152 -80.264
4842 0.149 -80.422 0.986 8.577 0.986 8.577 0.149 -80.422
4866.958 0.146 -80.58 0.987 8.398 0.987 8.398 0.146 -80.58
4891.917 0.143 -80.735 0.987 8.221 0.987 8.221 0.143 -80.735
4916.875 0.14 -80.888 0.988 8.044 0.988 8.044 0.14 -80.888
4941.833 0.137 -81.04 0.988 7.868 0.988 7.868 0.137 -81.04
4966.792 0.134 -81.19 0.988 7.693 0.988 7.693 0.134 -81.19
4991.75 0.131 -81.338 0.989 7.519 0.989 7.519 0.131 -81.338
5016.708 0.128 -81.484 0.989 7.346 0.989 7.346 0.128 -81.484
5041.667 0.125 -81.627 0.99 7.174 0.99 7.174 0.125 -81.627
5066.625 0.122 -81.769 0.99 7.003 0.99 7.003 0.122 -81.769
5091.583 0.119 -81.908 0.99 6.832 0.99 6.832 0.119 -81.908
5116.542 0.116 -82.046 0.991 6.663 0.991 6.663 0.116 -82.046
5141.5 0.113 -82.18 0.991 6.494 0.991 6.494 0.113 -82.18
5166.458 0.11 -82.313 0.991 6.327 0.991 6.327 0.11 -82.313
5191.417 0.107 -82.442 0.992 6.16 0.992 6.16 0.107 -82.442
5216.375 0.104 -82.57 0.992 5.993 0.992 5.993 0.104 -82.57
5241.333 0.102 -82.694 0.992 5.828 0.992 5.828 0.102 -82.694
5266.292 0.099 -82.815 0.992 5.664 0.992 5.664 0.099 -82.815
5291.25 0.096 -82.933 0.993 5.5 0.993 5.5 0.096 -82.933
5316.208 0.093 -83.048 0.993 5.337 0.993 5.337 0.093 -83.048
5341.167 0.09 -83.159 0.993 5.175 0.993 5.175 0.09 -83.159
5366.125 0.087 -83.267 0.994 5.014 0.994 5.014 0.087 -83.267
5391.083 0.085 -83.37 0.994 4.854 0.994 4.854 0.085 -83.37
5416.042 0.082 -83.469 0.994 4.694 0.994 4.694 0.082 -83.469
5441 0.079 -83.563 0.994 4.535 0.994 4.535 0.079 -83.563
5465.958 0.076 -83.653 0.994 4.377 0.994 4.377 0.076 -83.653
5490.917 0.074 -83.736 0.995 4.219 0.995 4.219 0.074 -83.736
5515.875 0.071 -83.814 0.995 4.063 0.995 4.063 0.071 -83.814
5540.833 0.068 -83.885 0.995 3.907 0.995 3.907 0.068 -83.885
5565.792 0.065 -83.948 0.995 3.751 0.995 3.751 0.065 -83.948
5590.75 0.063 -84.004 0.995 3.597 0.995 3.597 0.063 -84.004
5615.708 0.06 -84.051 0.996 3.443 0.996 3.443 0.06 -84.051
5640.667 0.057 -84.087 0.996 3.29 0.996 3.29 0.057 -84.087
5665.625 0.055 -84.112 0.996 3.137 0.996 3.137 0.055 -84.112
5690.583 0.052 -84.124 0.996 2.986 0.996 2.986 0.052 -84.124
5715.542 0.05 -84.121 0.996 2.835 0.996 2.835 0.05 -84.121
5740.5 0.047 -84.101 0.996 2.684 0.996 2.684 0.047 -84.101
5765.458 0.044 -84.06 0.996 2.534 0.996 2.534 0.044 -84.06
5790.417 0.042 -83.997 0.997 2.385 0.997 2.385 0.042 -83.997
5815.375 0.039 -83.906 0.997 2.237 0.997 2.237 0.039 -83.906
5840.333 0.037 -83.781 0.997 2.089 0.997 2.089 0.037 -83.781
5865.292 0.034 -83.617 0.997 1.942 0.997 1.942 0.034 -83.617
5890.25 0.031 -83.402 0.997 1.795 0.997 1.795 0.031 -83.402
5915.208 0.029 -83.125 0.997 1.65 0.997 1.65 0.029 -83.125
5940.167 0.026 -82.769 0.997 1.504 0.997 1.504 0.026 -82.769
5965.125 0.024 -82.309 0.997 1.36 0.997 1.36 0.024 -82.309
5990.083 0.021 -81.71 0.997 1.216 0.997 1.216 0.021 -81.71
6015.042 0.019 -80.918 0.997 1.072 0.997 1.072 0.019 -80.918
6040 0.016 -79.849 0.997 0.929 0.997 0.929 0.016 -79.849
6064.958 0.014 -78.362 0.997 0.787 0.997 0.787 0.014 -78.362
6089.917 0.012 -76.198 0.997 0.646 0.997 0.646 0.012 -76.198
6114.875 9.19e-3 -72.843 0.997 0.504 0.997 0.504 9.19e-3 -72.843
6139.833 6.877e-3 -67.119 0.997 0.364 0.997 0.364 6.877e-3 -67.119
6164.792 4.715e-3 -55.82 0.997 0.224 0.997 0.224 4.715e-3 -55.82
6189.75 3.021e-3 -29.232 0.997 0.085 0.997 0.085 3.021e-3 -29.232
6214.708 2.797e-3 19.651 0.997 -0.054 0.997 -0.054 2.797e-3 19.651
6239.667 4.266e-3 51.683 0.997 -0.192 0.997 -0.192 4.266e-3 51.683
6264.625 6.332e-3 65.094 0.997 -0.33 0.997 -0.33 6.332e-3 65.094
6289.583 8.567e-3 71.629 0.997 -0.467 0.997 -0.467 8.567e-3 71.629
6314.542 0.011 75.362 0.997 -0.604 0.997 -0.604 0.011 75.362
6339.5 0.013 77.731 0.997 -0.74 0.997 -0.74 0.013 77.731
6364.458 0.016 79.344 0.997 -0.875 0.997 -0.875 0.016 79.344
6389.417 0.018 80.495 0.997 -1.01 0.997 -1.01 0.018 80.495
6414.375 0.02 81.347 0.997 -1.145 0.997 -1.145 0.02 81.347
6439.333 0.022 81.992 0.997 -1.279 0.997 -1.279 0.022 81.992
6464.292 0.025 82.49 0.997 -1.412 0.997 -1.412 0.025 82.49
6489.25 0.027 82.878 0.997 -1.545 0.997 -1.545 0.027 82.878
6514.208 0.029 83.184 0.997 -1.677 0.997 -1.677 0.029 83.184
6539.167 0.032 83.425 0.997 -1.809 0.997 -1.809 0.032 83.425
6564.125 0.034 83.615 0.997 -1.941 0.997 -1.941 0.034 83.615
6589.083 0.036 83.764 0.997 -2.072 0.997 -2.072 0.036 83.764
6614.042 0.039 83.88 0.997 -2.202 0.997 -2.202 0.039 83.88
6639 0.041 83.968 0.997 -2.332 0.997 -2.332 0.041 83.968
6663.958 0.043 84.033 0.996 -2.462 0.996 -2.462 0.043 84.033
6688.917 0.045 84.078 0.996 -2.591 0.996 -2.591 0.045 84.078
6713.875 0.048 84.107 0.996 -2.719 0.996 -2.719 0.048 84.107
6738.833 0.05 84.122 0.996 -2.847 0.996 -2.847 0.05 84.122
6763.792 0.052 84.124 0.996 -2.975 0.996 -2.975 0.052 84.124
6788.75 0.054 84.116 0.996 -3.102 0.996 -3.102 0.054 84.116
6813.708 0.056 84.098 0.996 -3.229 0.996 -3.229 0.056 84.098
6838.667 0.059 84.073 0.996 -3.355 0.996 -3.355 0.059 84.073
6863.625 0.061 84.04 0.996 -3.481 0.996 -3.481 0.061 84.04
6888.583 0.063 84.001 0.995 -3.606 0.995 -3.606 0.063 84.001
6913.542 0.065 83.956 0.995 -3.731 0.995 -3.731 0.065 83.956
6938.5 0.067 83.907 0.995 -3.856 0.995 -3.856 0.067 83.907
6963.458 0.069 83.852 0.995 -3.98 0.995 -3.98 0.069 83.852
6988.417 0.072 83.794 0.995 -4.103 0.995 -4.103 0.072 83.794
7013.375 0.074 83.732 0.995 -4.227 0.995 -4.227 0.074 83.732
7038.333 0.076 83.667 0.994 -4.349 0.994 -4.349 0.076 83.667
7063.292 0.078 83.6 0.994 -4.472 0.994 -4.472 0.078 83.6
7088.25 0.08 83.529 0.994 -4.594 0.994 -4.594 0.08 83.529
7113.208 0.082 83.456 0.994 -4.715 0.994 -4.715 0.082 83.456
7138.167 0.084 83.381 0.994 -4.836 0.994 -4.836 0.084 83.381
7163.125 0.086 83.304 0.994 -4.957 0.994 -4.957 0.086 83.304
7188.083 0.089 83.225 0.993 -5.077 0.993 -5.077 0.089 83.225
7213.042 0.091 83.144 0.993 -5.197 0.993 -5.197 0.091 83.144
7238 0.093 83.062 0.993 -5.317 0.993 -5.317 0.093 83.062
7262.958 0.095 82.979 0.993 -5.436 0.993 -5.436 0.095 82.979
7287.917 0.097 82.894 0.993 -5.554 0.993 -5.554 0.097 82.894
7312.875 0.099 82.808 0.992 -5.673 0.992 -5.673 0.099 82.808
7337.833 0.101 82.722 0.992 -5.791 0.992 -5.791 0.101 82.722
7362.792 0.103 82.634 0.992 -5.908 0.992 -5.908 0.103 82.634
7387.75 0.105 82.545 0.992 -6.025 0.992 -6.025 0.105 82.545
7412.708 0.107 82.456 0.992 -6.142 0.992 -6.142 0.107 82.456
7437.667 0.109 82.366 0.991 -6.259 0.991 -6.259 0.109 82.366
7462.625 0.111 82.275 0.991 -6.375 0.991 -6.375 0.111 82.275
7487.583 0.113 82.183 0.991 -6.49 0.991 -6.49 0.113 82.183
7512.542 0.115 82.091 0.991 -6.606 0.991 -6.606 0.115 82.091
7537.5 0.117 81.999 0.991 -6.721 0.991 -6.721 0.117 81.999
7562.458 0.119 81.906 0.99 -6.835 0.99 -6.835 0.119 81.906
7587.417 0.121 81.813 0.99 -6.949 0.99 -6.949 0.121 81.813
7612.375 0.123 81.719 0.99 -7.063 0.99 -7.063 0.123 81.719
7637.333 0.125 81.625 0.99 -7.177 0.99 -7.177 0.125 81.625
7662.292 0.127 81.531 0.989 -7.29 0.989 -7.29 0.127 81.531
7687.25 0.129 81.436 0.989 -7.403 0.989 -7.403 0.129 81.436
7712.208 0.131 81.341 0.989 -7.515 0.989 -7.515 0.131 81.341
7737.167 0.133 81.246 0.989 -7.627 0.989 -7.627 0.133 81.246
7762.125 0.135 81.151 0.988 -7.739 0.988 -7.739 0.135 81.151
7787.083 0.137 81.055 0.988 -7.851 0.988 -7.851 0.137 81.055
7812.042 0.139 80.959 0.988 -7.962 0.988 -7.962 0.139 80.959
7837 0.14 80.864 0.987 -8.073 0.987 -8.073 0.14 80.864
7861.958 0.142 80.768 0.987 -8.183 0.987 -8.183 0.142 80.768
7886.917 0.144 80.672 0.987 -8.293 0.987 -8.293 0.144 80.672
7911.875 0.146 80.576 0.987 -8.403 0.987 -8.403 0.146 80.576
7936.833 0.148 80.479 0.986 -8.512 0.986 -8.512 0.148 80.479
7961.792 0.15 80.383 0.986 -8.622 0.986 -8.622 0.15 80.383
7986.75 0.152 80.287 0.986 -8.73 0.986 -8.73 0.152 80.287
8011.708 0.154 80.191 0.986 -8.839 0.986 -8.839 0.154 80.191
8036.667 0.156 80.095 0.985 -8.947 0.985 -8.947 0.156 80.095
8061.625 0.157 79.998 0.985 -9.055 0.985 -9.055 0.157 79.998
8086.583 0.159 79.902 0.985 -9.163 0.985 -9.163 0.159 79.902
8111.542 0.161 79.806 0.984 -9.27 0.984 -9.27 0.161 79.806
8136.5 0.163 79.71 0.984 -9.377 0.984 -9.377 0.163 79.71
8161.458 0.165 79.613 0.984 -9.483 0.984 -9.483 0.165 79.613
8186.417 0.167 79.517 0.983 -9.59 0.983 -9.59 0.167 79.517
8211.375 0.168 79.421 0.983 -9.696 0.983 -9.696 0.168 79.421
