# MHZ S MA R 50

50 0.996 -5.385 0.094 84.606 0.094 84.606 0.996 -5.385
74.958 0.99 -8.046 0.14 81.941 0.14 81.941 0.99 -8.046
99.917 0.983 -10.675 0.185 79.308 0.185 79.308 0.983 -10.675
124.875 0.973 -13.262 0.229 76.716 0.229 76.716 0.973 -13.262
149.833 0.962 -15.8 0.272 74.174 0.272 74.174 0.962 -15.8
174.792 0.949 -18.28 0.314 71.689 0.314 71.689 0.949 -18.28
199.75 0.935 -20.697 0.353 69.268 0.353 69.268 0.935 -20.697
224.708 0.92 -23.045 0.391 66.916 0.391 66.916 0.92 -23.045
249.667 0.904 -25.32 0.428 64.636 0.428 64.636 0.904 -25.32
274.625 0.886 -27.52 0.462 62.432 0.462 62.432 0.886 -27.52
299.583 0.869 -29.642 0.495 60.305 0.495 60.305 0.869 -29.642
324.542 0.85 -31.687 0.525 58.256 0.525 58.256 0.85 -31.687
349.5 0.832 -33.653 0.554 56.286 0.554 56.286 0.832 -33.653
374.458 0.813 -35.541 0.581 54.393 0.581 54.393 0.813 -35.541
399.417 0.794 -37.353 0.607 52.576 0.607 52.576 0.794 -37.353
424.375 0.775 -39.09 0.631 50.834 0.631 50.834 0.775 -39.09
449.333 0.757 -40.755 0.653 49.165 0.653 49.165 0.757 -40.755
474.292 0.738 -42.349 0.674 47.567 0.674 47.567 0.738 -42.349
499.25 0.72 -43.875 0.693 46.036 0.693 46.036 0.72 -43.875
524.208 0.702 -45.336 0.711 44.57 0.711 44.57 0.702 -45.336
549.167 0.684 -46.734 0.728 43.167 0.728 43.167 0.684 -46.734
574.125 0.667 -48.073 0.744 41.824 0.744 41.824 0.667 -48.073
599.083 0.65 -49.354 0.759 40.538 0.759 40.538 0.65 -49.354
624.042 0.633 -50.582 0.773 39.306 0.773 39.306 0.633 -50.582
649 0.617 -51.757 0.785 38.125 0.785 38.125 0.617 -51.757
673.958 0.602 -52.884 0.797 36.994 0.797 36.994 0.602 -52.884
698.917 0.587 -53.964 0.809 35.909 0.809 35.909 0.587 -53.964
723.875 0.572 -55 0.819 34.868 0.819 34.868 0.572 -55
748.833 0.557 -55.993 0.829 33.869 0.829 33.869 0.557 -55.993
773.792 0.543 -56.948 0.838 32.91 0.838 32.91 0.543 -56.948
798.75 0.53 -57.864 0.847 31.988 0.847 31.988 0.53 -57.864
823.708 0.517 -58.745 0.855 31.102 0.855 31.102 0.517 -58.745
848.667 0.504 -59.592 0.862 30.25 0.862 30.25 0.504 -59.592
873.625 0.491 -60.408 0.87 29.429 0.87 29.429 0.491 -60.408
898.583 0.479 -61.193 0.876 28.639 0.876 28.639 0.479 -61.193
923.542 0.468 -61.949 0.883 27.877 0.883 27.877 0.468 -61.949
948.5 0.456 -62.678 0.888 27.143 0.888 27.143 0.456 -62.678
973.458 0.445 -63.381 0.894 26.434 0.894 26.434 0.445 -63.381
998.417 0.434 -64.059 0.899 25.75 0.899 25.75 0.434 -64.059
1023.375 0.424 -64.714 0.904 25.089 0.904 25.089 0.424 -64.714
1048.333 0.414 -65.347 0.909 24.45 0.909 24.45 0.414 -65.347
1073.292 0.404 -65.959 0.913 23.832 0.913 23.832 0.404 -65.959
1098.25 0.394 -66.552 0.917 23.234 0.917 23.234 0.394 -66.552
1123.208 0.385 -67.125 0.921 22.655 0.921 22.655 0.385 -67.125
1148.167 0.376 -67.68 0.925 22.093 0.925 22.093 0.376 -67.68
1173.125 0.367 -68.217 0.929 21.549 0.929 21.549 0.367 -68.217
1198.083 0.359 -68.739 0.932 21.022 0.932 21.022 0.359 -68.739
1223.042 0.35 -69.244 0.935 20.509 0.935 20.509 0.35 -69.244
1248 0.342 -69.735 0.938 20.012 0.938 20.012 0.342 -69.735
1272.958 0.334 -70.212 0.941 19.529 0.941 19.529 0.334 -70.212
1297.917 0.327 -70.675 0.944 19.059 0.944 19.059 0.327 -70.675
1322.875 0.319 -71.124 0.946 18.602 0.946 18.602 0.319 -71.124
1347.833 0.312 -71.562 0.949 18.157 0.949 18.157 0.312 -71.562
1372.792 0.304 -71.988 0.951 17.724 0.951 17.724 0.304 -71.988
1397.75 0.297 -72.402 0.953 17.302 0.953 17.302 0.297 -72.402
1422.708 0.291 -72.805 0.955 16.891 0.955 16.891 0.291 -72.805
1447.667 0.284 -73.198 0.957 16.491 0.957 16.491 0.284 -73.198
1472.625 0.277 -73.581 0.959 16.1 0.959 16.1 0.277 -73.581
1497.583 0.271 -73.954 0.961 15.718 0.961 15.718 0.271 -73.954
1522.542 0.265 -74.318 0.963 15.346 0.963 15.346 0.265 -74.318
1547.5 0.259 -74.673 0.964 14.982 0.964 14.982 0.259 -74.673
1572.458 0.253 -75.02 0.966 14.627 0.966 14.627 0.253 -75.02
1597.417 0.247 -75.359 0.968 14.279 0.968 14.279 0.247 -75.359
1622.375 0.241 -75.689 0.969 13.94 0.969 13.94 0.241 -75.689
1647.333 0.235 -76.012 0.97 13.607 0.97 13.607 0.235 -76.012
1672.292 0.23 -76.328 0.972 13.282 0.972 13.282 0.23 -76.328
1697.25 0.224 -76.636 0.973 12.963 0.973 12.963 0.224 -76.636
1722.208 0.219 -76.938 0.974 12.651 0.974 12.651 0.219 -76.938
1747.167 0.214 -77.233 0.975 12.346 0.975 12.346 0.214 -77.233
1772.125 0.209 -77.522 0.976 12.046 0.976 12.046 0.209 -77.522
1797.083 0.204 -77.805 0.977 11.752 0.977 11.752 0.204 -77.805
1822.042 0.199 -78.082 0.978 11.464 0.978 11.464 0.199 -78.082
1847 0.194 -78.352 0.979 11.182 0.979 11.182 0.194 -78.352
1871.958 0.189 -78.618 0.98 10.904 0.98 10.904 0.189 -78.618
1896.917 0.185 -78.878 0.981 10.632 0.981 10.632 0.185 -78.878
1921.875 0.18 -79.132 0.982 10.364 0.982 10.364 0.18 -79.132
1946.833 0.175 -79.382 0.983 10.101 0.983 10.101 0.175 -79.382
1971.792 0.171 -79.626 0.984 9.843 0.984 9.843 0.171 -79.626
1996.75 0.167 -79.866 0.984 9.589 0.984 9.589 0.167 -79.866
2021.708 0.162 -80.101 0.985 9.339 0.985 9.339 0.162 -80.101
2046.667 0.158 -80.331 0.986 9.094 0.986 9.094 0.158 -80.331
2071.625 0.154 -80.556 0.987 8.852 0.987 8.852 0.154 -80.556
2096.583 0.15 -80.778 0.987 8.614 0.987 8.614 0.15 -80.778
2121.542 0.146 -80.994 0.988 8.38 0.988 8.38 0.146 -80.994
2146.5 0.142 -81.207 0.988 8.15 0.988 8.15 0.142 -81.207
2171.458 0.138 -81.415 0.989 7.923 0.989 7.923 0.138 -81.415
2196.417 0.134 -81.619 0.989 7.699 0.989 7.699 0.134 -81.619
2221.375 0.13 -81.819 0.99 7.479 0.99 7.479 0.13 -81.819
2246.333 0.126 -82.015 0.99 7.262 0.99 7.262 0.126 -82.015
2271.292 0.123 -82.207 0.991 7.048 0.991 7.048 0.123 -82.207
2296.25 0.119 -82.395 0.991 6.837 0.991 6.837 0.119 -82.395
2321.208 0.115 -82.579 0.992 6.629 0.992 6.629 0.115 -82.579
2346.167 0.112 -82.759 0.992 6.423 0.992 6.423 0.112 -82.759
2371.125 0.108 -82.934 0.993 6.221 0.993 6.221 0.108 -82.934
2396.083 0.105 -83.106 0.993 6.021 0.993 6.021 0.105 -83.106
2421.042 0.101 -83.274 0.993 5.823 0.993 5.823 0.101 -83.274
2446 0.098 -83.437 0.994 5.628 0.994 5.628 0.098 -83.437
2470.958 0.095 -83.596 0.994 5.436 0.994 5.436 0.095 -83.596
2495.917 0.091 -83.751 0.994 5.246 0.994 5.246 0.091 -83.751
2520.875 0.088 -83.902 0.995 5.058 0.995 5.058 0.088 -83.902
2545.833 0.085 -84.047 0.995 4.872 0.995 4.872 0.085 -84.047
2570.792 0.082 -84.188 0.995 4.689 0.995 4.689 0.082 -84.188
2595.75 0.079 -84.324 0.995 4.507 0.995 4.507 0.079 -84.324
2620.708 0.075 -84.455 0.996 4.328 0.996 4.328 0.075 -84.455
2645.667 0.072 -84.58 0.996 4.151 0.996 4.151 0.072 -84.58
2670.625 0.069 -84.699 0.996 3.976 0.996 3.976 0.069 -84.699
2695.583 0.066 -84.812 0.996 3.802 0.996 3.802 0.066 -84.812
2720.542 0.063 -84.918 0.996 3.631 0.996 3.631 0.063 -84.918
2745.5 0.06 -85.016 0.997 3.461 0.997 3.461 0.06 -85.016
2770.458 0.057 -85.106 0.997 3.293 0.997 3.293 0.057 -85.106
2795.417 0.055 -85.187 0.997 3.127 0.997 3.127 0.055 -85.187
2820.375 0.052 -85.258 0.997 2.962 0.997 2.962 0.052 -85.258
2845.333 0.049 -85.318 0.997 2.799 0.997 2.799 0.049 -85.318
2870.292 0.046 -85.364 0.997 2.638 0.997 2.638 0.046 -85.364
2895.25 0.043 -85.394 0.997 2.478 0.997 2.478 0.043 -85.394
2920.208 0.041 -85.407 0.998 2.32 0.998 2.32 0.041 -85.407
2945.167 0.038 -85.4 0.998 2.163 0.998 2.163 0.038 -85.4
2970.125 0.035 -85.366 0.998 2.007 0.998 2.007 0.035 -85.366
2995.083 0.032 -85.302 0.998 1.854 0.998 1.854 0.032 -85.302
3020.042 0.03 -85.2 0.998 1.701 0.998 1.701 0.03 -85.2
3045 0.027 -85.049 0.998 1.55 0.998 1.55 0.027 -85.049
3069.958 0.024 -84.836 0.998 1.4 0.998 1.4 0.024 -84.836
3094.917 0.022 -84.539 0.998 1.251 0.998 1.251 0.022 -84.539
3119.875 0.019 -84.126 0.998 1.104 0.998 1.104 0.019 -84.126
3144.833 0.017 -83.549 0.998 0.958 0.998 0.958 0.017 -83.549
3169.792 0.014 -82.722 0.998 0.813 0.998 0.813 0.014 -82.722
3194.75 0.012 -81.492 0.998 0.669 0.998 0.669 0.012 -81.492
3219.708 9.327e-3 -79.548 0.998 0.526 0.998 0.526 9.327e-3 -79.548
3244.667 6.908e-3 -76.157 0.998 0.385 0.998 0.385 6.908e-3 -76.157
3269.625 4.561e-3 -69.116 0.998 0.245 0.998 0.245 4.561e-3 -69.116
3294.583 2.441e-3 -48.706 0.998 0.105 0.998 0.105 2.441e-3 -48.706
3319.542 1.708e-3 19.662 0.998 -0.033 0.998 -0.033 1.708e-3 19.662
3344.5 3.377e-3 61.404 0.998 -0.17 0.998 -0.17 3.377e-3 61.404
3369.458 5.584e-3 72.959 0.998 -0.306 0.998 -0.306 5.584e-3 72.959
3394.417 7.873e-3 77.775 0.998 -0.442 0.998 -0.442 7.873e-3 77.775
3419.375 0.01 80.335 0.998 -0.576 0.998 -0.576 0.01 80.335
3444.333 0.012 81.889 0.998 -0.709 0.998 -0.709 0.012 81.889
3469.292 0.015 82.911 0.998 -0.841 0.998 -0.841 0.015 82.911
3494.25 0.017 83.619 0.998 -0.973 0.998 -0.973 0.017 83.619
3519.208 0.019 84.125 0.998 -1.103 0.998 -1.103 0.019 84.125
3544.167 0.022 84.495 0.998 -1.233 0.998 -1.233 0.022 84.495
3569.125 0.024 84.769 0.998 -1.362 0.998 -1.362 0.024 84.769
3594.083 0.026 84.973 0.998 -1.49 0.998 -1.49 0.026 84.973
3619.042 0.028 85.123 0.998 -1.617 0.998 -1.617 0.028 85.123
3644 0.03 85.233 0.998 -1.743 0.998 -1.743 0.03 85.233
3668.958 0.033 85.31 0.998 -1.869 0.998 -1.869 0.033 85.31
3693.917 0.035 85.362 0.998 -1.993 0.998 -1.993 0.035 85.362
3718.875 0.037 85.393 0.998 -2.117 0.998 -2.117 0.037 85.393
3743.833 0.039 85.406 0.998 -2.241 0.998 -2.241 0.039 85.406
3768.792 0.041 85.406 0.998 -2.363 0.998 -2.363 0.041 85.406
3793.75 0.043 85.393 0.997 -2.485 0.997 -2.485 0.043 85.393
3818.708 0.045 85.371 0.997 -2.606 0.997 -2.606 0.045 85.371
3843.667 0.048 85.34 0.997 -2.726 0.997 -2.726 0.048 85.34
3868.625 0.05 85.302 0.997 -2.846 0.997 -2.846 0.05 85.302
3893.583 0.052 85.257 0.997 -2.965 0.997 -2.965 0.052 85.257
3918.542 0.054 85.207 0.997 -3.083 0.997 -3.083 0.054 85.207
3943.5 0.056 85.152 0.997 -3.201 0.997 -3.201 0.056 85.152
3968.458 0.058 85.094 0.997 -3.318 0.997 -3.318 0.058 85.094
3993.417 0.06 85.031 0.997 -3.434 0.997 -3.434 0.06 85.031
4018.375 0.062 84.966 0.996 -3.55 0.996 -3.55 0.062 84.966
4043.333 0.064 84.897 0.996 -3.665 0.996 -3.665 0.064 84.897
4068.292 0.066 84.826 0.996 -3.78 0.996 -3.78 0.066 84.826
4093.25 0.068 84.753 0.996 -3.893 0.996 -3.893 0.068 84.753
4118.208 0.07 84.678 0.996 -4.007 0.996 -4.007 0.07 84.678
4143.167 0.072 84.602 0.996 -4.12 0.996 -4.12 0.072 84.602
4168.125 0.074 84.523 0.996 -4.232 0.996 -4.232 0.074 84.523
4193.083 0.076 84.444 0.996 -4.344 0.996 -4.344 0.076 84.444
4218.042 0.078 84.363 0.995 -4.455 0.995 -4.455 0.078 84.363
4243 0.08 84.281 0.995 -4.565 0.995 -4.565 0.08 84.281
4267.958 0.082 84.198 0.995 -4.675 0.995 -4.675 0.082 84.198
4292.917 0.083 84.115 0.995 -4.785 0.995 -4.785 0.083 84.115
4317.875 0.085 84.03 0.995 -4.894 0.995 -4.894 0.085 84.03
4342.833 0.087 83.945 0.995 -5.003 0.995 -5.003 0.087 83.945
4367.792 0.089 83.859 0.994 -5.111 0.994 -5.111 0.089 83.859
4392.75 0.091 83.773 0.994 -5.218 0.994 -5.218 0.091 83.773
4417.708 0.093 83.686 0.994 -5.325 0.994 -5.325 0.093 83.686
4442.667 0.095 83.599 0.994 -5.432 0.994 -5.432 0.095 83.599
4467.625 0.097 83.512 0.994 -5.538 0.994 -5.538 0.097 83.512
4492.583 0.098 83.424 0.994 -5.644 0.994 -5.644 0.098 83.424
4517.542 0.1 83.336 0.993 -5.749 0.993 -5.749 0.1 83.336
4542.5 0.102 83.248 0.993 -5.854 0.993 -5.854 0.102 83.248
4567.458 0.104 83.159 0.993 -5.958 0.993 -5.958 0.104 83.159
4592.417 0.106 83.07 0.993 -6.062 0.993 -6.062 0.106 83.07
4617.375 0.107 82.982 0.993 -6.166 0.993 -6.166 0.107 82.982
4642.333 0.109 82.893 0.992 -6.269 0.992 -6.269 0.109 82.893
4667.292 0.111 82.804 0.992 -6.372 0.992 -6.372 0.111 82.804
4692.25 0.113 82.714 0.992 -6.474 0.992 -6.474 0.113 82.714
4717.208 0.115 82.625 0.992 -6.576 0.992 -6.576 0.115 82.625
4742.167 0.116 82.536 0.992 -6.677 0.992 -6.677 0.116 82.536
4767.125 0.118 82.447 0.991 -6.778 0.991 -6.778 0.118 82.447
4792.083 0.12 82.357 0.991 -6.879 0.991 -6.879 0.12 82.357
4817.042 0.122 82.268 0.991 -6.979 0.991 -6.979 0.122 82.268
4842 0.123 82.179 0.991 -7.079 0.991 -7.079 0.123 82.179
4866.958 0.125 82.09 0.991 -7.179 0.991 -7.179 0.125 82.09
4891.917 0.127 82.001 0.99 -7.278 0.99 -7.278 0.127 82.001
4916.875 0.128 81.912 0.99 -7.377 0.99 -7.377 0.128 81.912
4941.833 0.13 81.823 0.99 -7.475 0.99 -7.475 0.13 81.823
4966.792 0.132 81.734 0.99 -7.573 0.99 -7.573 0.132 81.734
4991.75 0.133 81.645 0.989 -7.671 0.989 -7.671 0.133 81.645
5016.708 0.135 81.556 0.989 -7.769 0.989 -7.769 0.135 81.556
5041.667 0.137 81.467 0.989 -7.866 0.989 -7.866 0.137 81.467
5066.625 0.139 81.379 0.989 -7.963 0.989 -7.963 0.139 81.379
5091.583 0.14 81.29 0.989 -8.059 0.989 -8.059 0.14 81.29
5116.542 0.142 81.202 0.988 -8.155 0.988 -8.155 0.142 81.202
5141.5 0.144 81.114 0.988 -8.251 0.988 -8.251 0.144 81.114
5166.458 0.145 81.026 0.988 -8.346 0.988 -8.346 0.145 81.026
5191.417 0.147 80.938 0.988 -8.441 0.988 -8.441 0.147 80.938
5216.375 0.148 80.85 0.987 -8.536 0.987 -8.536 0.148 80.85
5241.333 0.15 80.762 0.987 -8.631 0.987 -8.631 0.15 80.762
5266.292 0.152 80.675 0.987 -8.725 0.987 -8.725 0.152 80.675
5291.25 0.153 80.587 0.987 -8.819 0.987 -8.819 0.153 80.587
5316.208 0.155 80.5 0.986 -8.913 0.986 -8.913 0.155 80.5
5341.167 0.157 80.413 0.986 -9.006 0.986 -9.006 0.157 80.413
5366.125 0.158 80.326 0.986 -9.099 0.986 -9.099 0.158 80.326
5391.083 0.16 80.239 0.986 -9.192 0.986 -9.192 0.16 80.239
5416.042 0.161 80.152 0.985 -9.284 0.985 -9.284 0.161 80.152
5441 0.163 80.066 0.985 -9.376 0.985 -9.376 0.163 80.066
5465.958 0.165 79.979 0.985 -9.468 0.985 -9.468 0.165 79.979
5490.917 0.166 79.893 0.985 -9.56 0.985 -9.56 0.166 79.893
5515.875 0.168 79.807 0.984 -9.651 0.984 -9.651 0.168 79.807
5540.833 0.169 79.721 0.984 -9.743 0.984 -9.743 0.169 79.721
5565.792 0.171 79.635 0.984 -9.833 0.984 -9.833 0.171 79.635
5590.75 0.172 79.55 0.983 -9.924 0.983 -9.924 0.172 79.55
5615.708 0.174 79.464 0.983 -10.014 0.983 -10.014 0.174 79.464
5640.667 0.175 79.379 0.983 -10.104 0.983 -10.104 0.175 79.379
5665.625 0.177 79.294 0.983 -10.194 0.983 -10.194 0.177 79.294
5690.583 0.179 79.209 0.982 -10.284 0.982 -10.284 0.179 79.209
5715.542 0.18 79.124 0.982 -10.373 0.982 -10.373 0.18 79.124
5740.5 0.182 79.039 0.982 -10.462 0.982 -10.462 0.182 79.039
5765.458 0.183 78.955 0.982 -10.551 0.982 -10.551 0.183 78.955
5790.417 0.185 78.87 0.981 -10.639 0.981 -10.639 0.185 78.87
5815.375 0.186 78.786 0.981 -10.728 0.981 -10.728 0.186 78.786
5840.333 0.188 78.702 0.981 -10.816 0.981 -10.816 0.188 78.702
5865.292 0.189 78.618 0.98 -10.904 0.98 -10.904 0.189 78.618
5890.25 0.191 78.534 0.98 -10.991 0.98 -10.991 0.191 78.534
5915.208 0.192 78.451 0.98 -11.079 0.98 -11.079 0.192 78.451
5940.167 0.194 78.367 0.979 -11.166 0.979 -11.166 0.194 78.367
5965.125 0.195 78.284 0.979 -11.253 0.979 -11.253 0.195 78.284
5990.083 0.197 78.201 0.979 -11.34 0.979 -11.34 0.197 78.201
6015.042 0.198 78.118 0.979 -11.426 0.979 -11.426 0.198 78.118
6040 0.2 78.035 0.978 -11.512 0.978 -11.512 0.2 78.035
6064.958 0.201 77.953 0.978 -11.598 0.978 -11.598 0.201 77.953
6089.917 0.203 77.87 0.978 -11.684 0.978 -11.684 0.203 77.87
6114.875 0.204 77.788 0.977 -11.77 0.977 -11.77 0.204 77.788
6139.833 0.205 77.706 0.977 -11.855 0.977 -11.855 0.205 77.706
6164.792 0.207 77.624 0.977 -11.941 0.977 -11.941 0.207 77.624
6189.75 0.208 77.542 0.976 -12.026 0.976 -12.026 0.208 77.542
6214.708 0.21 77.46 0.976 -12.11 0.976 -12.11 0.21 77.46
6239.667 0.211 77.379 0.976 -12.195 0.976 -12.195 0.211 77.379
6264.625 0.213 77.297 0.976 -12.279 0.976 -12.279 0.213 77.297
6289.583 0.214 77.216 0.975 -12.364 0.975 -12.364 0.214 77.216
6314.542 0.216 77.135 0.975 -12.448 0.975 -12.448 0.216 77.135
6339.5 0.217 77.054 0.975 -12.531 0.975 -12.531 0.217 77.054
6364.458 0.218 76.973 0.974 -12.615 0.974 -12.615 0.218 76.973
6389.417 0.22 76.893 0.974 -12.698 0.974 -12.698 0.22 76.893
6414.375 0.221 76.812 0.974 -12.782 0.974 -12.782 0.221 76.812
6439.333 0.223 76.732 0.973 -12.865 0.973 -12.865 0.223 76.732
6464.292 0.224 76.652 0.973 -12.947 0.973 -12.947 0.224 76.652
6489.25 0.225 76.572 0.973 -13.03 0.973 -13.03 0.225 76.572
6514.208 0.227 76.492 0.972 -13.112 0.972 -13.112 0.227 76.492
6539.167 0.228 76.412 0.972 -13.195 0.972 -13.195 0.228 76.412
6564.125 0.23 76.333 0.972 -13.277 0.972 -13.277 0.23 76.333
6589.083 0.231 76.253 0.971 -13.359 0.971 -13.359 0.231 76.253
6614.042 0.232 76.174 0.971 -13.44 0.971 -13.44 0.232 76.174
6639 0.234 76.095 0.971 -13.522 0.971 -13.522 0.234 76.095
6663.958 0.235 76.016 0.97 -13.603 0.97 -13.603 0.235 76.016
6688.917 0.237 75.937 0.97 -13.685 0.97 -13.685 0.237 75.937
6713.875 0.238 75.858 0.97 -13.766 0.97 -13.766 0.238 75.858
6738.833 0.239 75.78 0.969 -13.846 0.969 -13.846 0.239 75.78
6763.792 0.241 75.701 0.969 -13.927 0.969 -13.927 0.241 75.701
6788.75 0.242 75.623 0.969 -14.008 0.969 -14.008 0.242 75.623
6813.708 0.243 75.545 0.968 -14.088 0.968 -14.088 0.243 75.545
6838.667 0.245 75.467 0.968 -14.168 0.968 -14.168 0.245 75.467
6863.625 0.246 75.389 0.968 -14.248 0.968 -14.248 0.246 75.389
6888.583 0.247 75.311 0.967 -14.328 0.967 -14.328 0.247 75.311
6913.542 0.249 75.234 0.967 -14.408 0.967 -14.408 0.249 75.234
6938.5 0.25 75.156 0.967 -14.487 0.967 -14.487 0.25 75.156
6963.458 0.252 75.079 0.966 -14.566 0.966 -14.566 0.252 75.079
6988.417 0.253 75.002 0.966 -14.646 0.966 -14.646 0.253 75.002
7013.375 0.254 74.925 0.966 -14.725 0.966 -14.725 0.254 74.925
7038.333 0.256 74.848 0.965 -14.803 0.965 -14.803 0.256 74.848
7063.292 0.257 74.771 0.965 -14.882 0.965 -14.882 0.257 74.771
7088.25 0.258 74.695 0.965 -14.961 0.965 -14.961 0.258 74.695
7113.208 0.259 74.618 0.964 -15.039 0.964 -15.039 0.259 74.618
7138.167 0.261 74.542 0.964 -15.117 0.964 -15.117 0.261 74.542
7163.125 0.262 74.466 0.963 -15.195 0.963 -15.195 0.262 74.466
7188.083 0.263 74.389 0.963 -15.273 0.963 -15.273 0.263 74.389
7213.042 0.265 74.313 0.963 -15.351 0.963 -15.351 0.265 74.313
7238 0.266 74.238 0.962 -15.429 0.962 -15.429 0.266 74.238
7262.958 0.267 74.162 0.962 -15.506 0.962 -15.506 0.267 74.162
7287.917 0.269 74.086 0.962 -15.583 0.962 -15.583 0.269 74.086
7312.875 0.27 74.011 0.961 -15.661 0.961 -15.661 0.27 74.011
7337.833 0.271 73.936 0.961 -15.738 0.961 -15.738 0.271 73.936
7362.792 0.273 73.86 0.961 -15.814 0.961 -15.814 0.273 73.86
7387.75 0.274 73.785 0.96 -15.891 0.96 -15.891 0.274 73.785
7412.708 0.275 73.71 0.96 -15.968 0.96 -15.968 0.275 73.71
7437.667 0.276 73.636 0.96 -16.044 0.96 -16.044 0.276 73.636
7462.625 0.278 73.561 0.959 -16.12 0.959 -16.12 0.278 73.561
7487.583 0.279 73.486 0.959 -16.197 0.959 -16.197 0.279 73.486
7512.542 0.28 73.412 0.958 -16.273 0.958 -16.273 0.28 73.412
7537.5 0.281 73.338 0.958 -16.348 0.958 -16.348 0.281 73.338
7562.458 0.283 73.263 0.958 -16.424 0.958 -16.424 0.283 73.263
7587.417 0.284 73.189 0.957 -16.5 0.957 -16.5 0.284 73.189
7612.375 0.285 73.115 0.957 -16.575 0.957 -16.575 0.285 73.115
7637.333 0.287 73.041 0.957 -16.651 0.957 -16.651 0.287 73.041
7662.292 0.288 72.968 0.956 -16.726 0.956 -16.726 0.288 72.968
7687.25 0.289 72.894 0.956 -16.801 0.956 -16.801 0.289 72.894
7712.208 0.29 72.821 0.955 -16.876 0.955 -16.876 0.29 72.821
7737.167 0.292 72.747 0.955 -16.95 0.955 -16.95 0.292 72.747
7762.125 0.293 72.674 0.955 -17.025 0.955 -17.025 0.293 72.674
7787.083 0.294 72.601 0.954 -17.1 0.954 -17.1 0.294 72.601
7812.042 0.295 72.528 0.954 -17.174 0.954 -17.174 0.295 72.528
7837 0.297 72.455 0.953 -17.248 0.953 -17.248 0.297 72.455
7861.958 0.298 72.382 0.953 -17.322 0.953 -17.322 0.298 72.382
7886.917 0.299 72.31 0.953 -17.396 0.953 -17.396 0.299 72.31
7911.875 0.3 72.237 0.952 -17.47 0.952 -17.47 0.3 72.237
7936.833 0.301 72.165 0.952 -17.544 0.952 -17.544 0.301 72.165
7961.792 0.303 72.093 0.952 -17.617 0.952 -17.617 0.303 72.093
7986.75 0.304 72.02 0.951 -17.691 0.951 -17.691 0.304 72.02
8011.708 0.305 71.948 0.951 -17.764 0.951 -17.764 0.305 71.948
8036.667 0.306 71.876 0.95 -17.837 0.95 -17.837 0.306 71.876
8061.625 0.308 71.805 0.95 -17.91 0.95 -17.91 0.308 71.805
8086.583 0.309 71.733 0.95 -17.983 0.95 -17.983 0.309 71.733
8111.542 0.31 71.661 0.949 -18.056 0.949 -18.056 0.31 71.661
8136.5 0.311 71.59 0.949 -18.129 0.949 -18.129 0.311 71.59
8161.458 0.312 71.518 0.948 -18.201 0.948 -18.201 0.312 71.518
8186.417 0.314 71.447 0.948 -18.274 0.948 -18.274 0.314 71.447
