# MHZ S MA R 50

50 0.99 -8.226 0.143 81.762 0.143 81.762 0.99 -8.226
74.958 0.977 -12.233 0.212 77.749 0.212 77.749 0.977 -12.233
99.917 0.961 -16.128 0.278 73.848 0.278 73.848 0.961 -16.128
124.875 0.94 -19.884 0.34 70.086 0.34 70.086 0.94 -19.884
149.833 0.917 -23.478 0.398 66.486 0.398 66.486 0.917 -23.478
174.792 0.891 -26.896 0.452 63.061 0.452 63.061 0.891 -26.896
199.75 0.864 -30.131 0.502 59.821 0.502 59.821 0.864 -30.131
224.708 0.836 -33.179 0.547 56.767 0.547 56.767 0.836 -33.179
249.667 0.808 -36.04 0.588 53.899 0.588 53.899 0.808 -36.04
274.625 0.779 -38.721 0.626 51.212 0.626 51.212 0.779 -38.721
299.583 0.751 -41.228 0.659 48.699 0.659 48.699 0.751 -41.228
324.542 0.724 -43.57 0.689 46.351 0.689 46.351 0.724 -43.57
349.5 0.697 -45.757 0.716 44.158 0.716 44.158 0.697 -45.757
374.458 0.671 -47.798 0.741 42.11 0.741 42.11 0.671 -47.798
399.417 0.645 -49.705 0.763 40.197 0.763 40.197 0.645 -49.705
424.375 0.621 -51.486 0.782 38.41 0.782 38.41 0.621 -51.486
449.333 0.598 -53.151 0.8 36.737 0.8 36.737 0.598 -53.151
474.292 0.576 -54.711 0.816 35.172 0.816 35.172 0.576 -54.711
499.25 0.555 -56.172 0.831 33.704 0.831 33.704 0.555 -56.172
524.208 0.535 -57.542 0.844 32.326 0.844 32.326 0.535 -57.542
549.167 0.516 -58.83 0.856 31.032 0.856 31.032 0.516 -58.83
574.125 0.497 -60.042 0.866 29.814 0.866 29.814 0.497 -60.042
599.083 0.48 -61.183 0.876 28.665 0.876 28.665 0.48 -61.183
624.042 0.463 -62.259 0.885 27.582 0.885 27.582 0.463 -62.259
649 0.447 -63.276 0.893 26.558 0.893 26.558 0.447 -63.276
673.958 0.432 -64.238 0.901 25.589 0.901 25.589 0.432 -64.238
698.917 0.417 -65.149 0.907 24.671 0.907 24.671 0.417 -65.149
723.875 0.404 -66.013 0.914 23.799 0.914 23.799 0.404 -66.013
748.833 0.39 -66.833 0.919 22.971 0.919 22.971 0.39 -66.833
773.792 0.378 -67.614 0.925 22.183 0.925 22.183 0.378 -67.614
798.75 0.365 -68.356 0.93 21.432 0.93 21.432 0.365 -68.356
823.708 0.354 -69.065 0.934 20.716 0.934 20.716 0.354 -69.065
848.667 0.343 -69.74 0.938 20.032 0.938 20.032 0.343 -69.74
873.625 0.332 -70.386 0.942 19.378 0.942 19.378 0.332 -70.386
898.583 0.321 -71.004 0.946 18.752 0.946 18.752 0.321 -71.004
923.542 0.312 -71.595 0.949 18.152 0.949 18.152 0.312 -71.595
948.5 0.302 -72.162 0.952 17.576 0.952 17.576 0.302 -72.162
973.458 0.293 -72.706 0.955 17.023 0.955 17.023 0.293 -72.706
998.417 0.284 -73.228 0.957 16.491 0.957 16.491 0.284 -73.228
1023.375 0.275 -73.731 0.96 15.98 0.96 15.98 0.275 -73.731
1048.333 0.267 -74.214 0.962 15.487 0.962 15.487 0.267 -74.214
1073.292 0.259 -74.679 0.964 15.011 0.964 15.011 0.259 -74.679
1098.25 0.251 -75.128 0.967 14.552 0.967 14.552 0.251 -75.128
1123.208 0.244 -75.561 0.968 14.109 0.968 14.109 0.244 -75.561
1148.167 0.237 -75.978 0.97 13.681 0.97 13.681 0.237 -75.978
1173.125 0.229 -76.382 0.972 13.266 0.972 13.266 0.229 -76.382
1198.083 0.223 -76.772 0.973 12.865 0.973 12.865 0.223 -76.772
1223.042 0.216 -77.149 0.975 12.476 0.975 12.476 0.216 -77.149
1248 0.21 -77.515 0.976 12.098 0.976 12.098 0.21 -77.515
1272.958 0.203 -77.868 0.978 11.732 0.978 11.732 0.203 -77.868
1297.917 0.197 -78.211 0.979 11.376 0.979 11.376 0.197 -78.211
1322.875 0.191 -78.544 0.98 11.03 0.98 11.03 0.191 -78.544
1347.833 0.186 -78.866 0.981 10.694 0.981 10.694 0.186 -78.866
1372.792 0.18 -79.18 0.982 10.367 0.982 10.367 0.18 -79.18
1397.75 0.174 -79.484 0.983 10.048 0.983 10.048 0.174 -79.484
1422.708 0.169 -79.779 0.984 9.738 0.984 9.738 0.169 -79.779
1447.667 0.164 -80.066 0.985 9.435 0.985 9.435 0.164 -80.066
1472.625 0.159 -80.345 0.986 9.139 0.986 9.139 0.159 -80.345
1497.583 0.154 -80.616 0.987 8.851 0.987 8.851 0.154 -80.616
1522.542 0.149 -80.88 0.987 8.569 0.987 8.569 0.149 -80.88
1547.5 0.144 -81.137 0.988 8.294 0.988 8.294 0.144 -81.137
1572.458 0.14 -81.387 0.989 8.025 0.989 8.025 0.14 -81.387
1597.417 0.135 -81.63 0.989 7.762 0.989 7.762 0.135 -81.63
1622.375 0.131 -81.866 0.99 7.504 0.99 7.504 0.131 -81.866
1647.333 0.126 -82.096 0.991 7.252 0.991 7.252 0.126 -82.096
1672.292 0.122 -82.32 0.991 7.005 0.991 7.005 0.122 -82.32
1697.25 0.118 -82.538 0.992 6.763 0.992 6.763 0.118 -82.538
1722.208 0.114 -82.749 0.992 6.525 0.992 6.525 0.114 -82.749
1747.167 0.11 -82.955 0.993 6.292 0.993 6.292 0.11 -82.955
1772.125 0.106 -83.155 0.993 6.064 0.993 6.064 0.106 -83.155
1797.083 0.102 -83.349 0.993 5.84 0.993 5.84 0.102 -83.349
1822.042 0.098 -83.537 0.994 5.619 0.994 5.619 0.098 -83.537
1847 0.094 -83.72 0.994 5.403 0.994 5.403 0.094 -83.72
1871.958 0.09 -83.896 0.994 5.19 0.994 5.19 0.09 -83.896
1896.917 0.087 -84.067 0.995 4.981 0.995 4.981 0.087 -84.067
1921.875 0.083 -84.231 0.995 4.776 0.995 4.776 0.083 -84.231
1946.833 0.08 -84.389 0.995 4.573 0.995 4.573 0.08 -84.389
1971.792 0.076 -84.541 0.996 4.374 0.996 4.374 0.076 -84.541
1996.75 0.073 -84.686 0.996 4.178 0.996 4.178 0.073 -84.686
2021.708 0.07 -84.824 0.996 3.985 0.996 3.985 0.07 -84.824
2046.667 0.066 -84.954 0.996 3.795 0.996 3.795 0.066 -84.954
2071.625 0.063 -85.076 0.997 3.608 0.997 3.608 0.063 -85.076
2096.583 0.06 -85.19 0.997 3.423 0.997 3.423 0.06 -85.19
2121.542 0.057 -85.294 0.997 3.241 0.997 3.241 0.057 -85.294
2146.5 0.053 -85.387 0.997 3.062 0.997 3.062 0.053 -85.387
2171.458 0.05 -85.469 0.997 2.884 0.997 2.884 0.05 -85.469
2196.417 0.047 -85.538 0.997 2.71 0.997 2.71 0.047 -85.538
2221.375 0.044 -85.591 0.998 2.537 0.998 2.537 0.044 -85.591
2246.333 0.041 -85.627 0.998 2.367 0.998 2.367 0.041 -85.627
2271.292 0.038 -85.641 0.998 2.199 0.998 2.199 0.038 -85.641
2296.25 0.035 -85.631 0.998 2.033 0.998 2.033 0.035 -85.631
2321.208 0.033 -85.59 0.998 1.869 0.998 1.869 0.033 -85.59
2346.167 0.03 -85.511 0.998 1.706 0.998 1.706 0.03 -85.511
2371.125 0.027 -85.383 0.998 1.546 0.998 1.546 0.027 -85.383
2396.083 0.024 -85.191 0.998 1.388 0.998 1.388 0.024 -85.191
2421.042 0.022 -84.913 0.998 1.231 0.998 1.231 0.022 -84.913
2446 0.019 -84.515 0.998 1.076 0.998 1.076 0.019 -84.515
2470.958 0.016 -83.939 0.998 0.923 0.998 0.923 0.016 -83.939
2495.917 0.014 -83.087 0.998 0.771 0.998 0.771 0.014 -83.087
2520.875 0.011 -81.768 0.998 0.621 0.998 0.621 0.011 -81.768
2545.833 8.37e-3 -79.565 0.999 0.472 0.999 0.472 8.37e-3 -79.565
2570.792 5.859e-3 -75.365 0.999 0.325 0.999 0.325 5.859e-3 -75.365
2595.75 3.454e-3 -65.031 0.999 0.18 0.999 0.18 3.454e-3 -65.031
2620.708 1.575e-3 -23.09 0.999 0.035 0.999 0.035 1.575e-3 -23.09
2645.667 2.369e-3 52.209 0.999 -0.107 0.999 -0.107 2.369e-3 52.209
2670.625 4.58e-3 71.317 0.999 -0.249 0.999 -0.249 4.58e-3 71.317
2695.583 6.945e-3 77.575 0.999 -0.389 0.999 -0.389 6.945e-3 77.575
2720.542 9.33e-3 80.543 0.999 -0.528 0.999 -0.528 9.33e-3 80.543
2745.5 0.012 82.231 0.998 -0.666 0.998 -0.666 0.012 82.231
2770.458 0.014 83.294 0.998 -0.802 0.998 -0.802 0.014 83.294
2795.417 0.016 84.006 0.998 -0.938 0.998 -0.938 0.016 84.006
2820.375 0.019 84.502 0.998 -1.072 0.998 -1.072 0.019 84.502
2845.333 0.021 84.857 0.998 -1.205 0.998 -1.205 0.021 84.857
2870.292 0.023 85.113 0.998 -1.337 0.998 -1.337 0.023 85.113
2895.25 0.026 85.298 0.998 -1.468 0.998 -1.468 0.026 85.298
2920.208 0.028 85.43 0.998 -1.598 0.998 -1.598 0.028 85.43
2945.167 0.03 85.523 0.998 -1.727 0.998 -1.727 0.03 85.523
2970.125 0.032 85.585 0.998 -1.855 0.998 -1.855 0.032 85.585
2995.083 0.035 85.622 0.998 -1.982 0.998 -1.982 0.035 85.622
3020.042 0.037 85.639 0.998 -2.108 0.998 -2.108 0.037 85.639
3045 0.039 85.64 0.998 -2.233 0.998 -2.233 0.039 85.64
3069.958 0.041 85.628 0.998 -2.357 0.998 -2.357 0.041 85.628
3094.917 0.043 85.605 0.998 -2.481 0.998 -2.481 0.043 85.605
3119.875 0.045 85.572 0.998 -2.603 0.998 -2.603 0.045 85.572
3144.833 0.048 85.532 0.997 -2.725 0.997 -2.725 0.048 85.532
3169.792 0.05 85.486 0.997 -2.846 0.997 -2.846 0.05 85.486
3194.75 0.052 85.433 0.997 -2.966 0.997 -2.966 0.052 85.433
3219.708 0.054 85.376 0.997 -3.085 0.997 -3.085 0.054 85.376
3244.667 0.056 85.314 0.997 -3.204 0.997 -3.204 0.056 85.314
3269.625 0.058 85.249 0.997 -3.321 0.997 -3.321 0.058 85.249
3294.583 0.06 85.181 0.997 -3.438 0.997 -3.438 0.06 85.181
3319.542 0.062 85.11 0.997 -3.555 0.997 -3.555 0.062 85.11
3344.5 0.064 85.036 0.997 -3.67 0.997 -3.67 0.064 85.036
3369.458 0.066 84.961 0.996 -3.785 0.996 -3.785 0.066 84.961
3394.417 0.068 84.883 0.996 -3.9 0.996 -3.9 0.068 84.883
3419.375 0.07 84.804 0.996 -4.013 0.996 -4.013 0.07 84.804
3444.333 0.072 84.724 0.996 -4.126 0.996 -4.126 0.072 84.724
3469.292 0.074 84.642 0.996 -4.239 0.996 -4.239 0.074 84.642
3494.25 0.076 84.559 0.996 -4.35 0.996 -4.35 0.076 84.559
3519.208 0.078 84.475 0.996 -4.461 0.996 -4.461 0.078 84.475
3544.167 0.08 84.391 0.995 -4.572 0.995 -4.572 0.08 84.391
3569.125 0.082 84.305 0.995 -4.682 0.995 -4.682 0.082 84.305
3594.083 0.084 84.219 0.995 -4.791 0.995 -4.791 0.084 84.219
3619.042 0.085 84.132 0.995 -4.9 0.995 -4.9 0.085 84.132
3644 0.087 84.045 0.995 -5.008 0.995 -5.008 0.087 84.045
3668.958 0.089 83.957 0.995 -5.116 0.995 -5.116 0.089 83.957
3693.917 0.091 83.869 0.994 -5.223 0.994 -5.223 0.091 83.869
3718.875 0.093 83.781 0.994 -5.33 0.994 -5.33 0.093 83.781
3743.833 0.095 83.692 0.994 -5.436 0.994 -5.436 0.095 83.692
3768.792 0.097 83.603 0.994 -5.542 0.994 -5.542 0.097 83.603
3793.75 0.098 83.514 0.994 -5.647 0.994 -5.647 0.098 83.514
3818.708 0.1 83.425 0.994 -5.751 0.994 -5.751 0.1 83.425
3843.667 0.102 83.335 0.993 -5.856 0.993 -5.856 0.102 83.335
3868.625 0.104 83.246 0.993 -5.959 0.993 -5.959 0.104 83.246
3893.583 0.106 83.156 0.993 -6.063 0.993 -6.063 0.106 83.156
3918.542 0.107 83.067 0.993 -6.165 0.993 -6.165 0.107 83.067
3943.5 0.109 82.977 0.993 -6.268 0.993 -6.268 0.109 82.977
3968.458 0.111 82.887 0.992 -6.37 0.992 -6.37 0.111 82.887
3993.417 0.113 82.797 0.992 -6.471 0.992 -6.471 0.113 82.797
4018.375 0.114 82.708 0.992 -6.572 0.992 -6.572 0.114 82.708
4043.333 0.116 82.618 0.992 -6.673 0.992 -6.673 0.116 82.618
4068.292 0.118 82.528 0.992 -6.773 0.992 -6.773 0.118 82.528
4093.25 0.12 82.439 0.991 -6.873 0.991 -6.873 0.12 82.439
4118.208 0.121 82.349 0.991 -6.972 0.991 -6.972 0.121 82.349
4143.167 0.123 82.26 0.991 -7.071 0.991 -7.071 0.123 82.26
4168.125 0.125 82.17 0.991 -7.17 0.991 -7.17 0.125 82.17
4193.083 0.127 82.081 0.991 -7.268 0.991 -7.268 0.127 82.081
4218.042 0.128 81.992 0.99 -7.366 0.99 -7.366 0.128 81.992
4243 0.13 81.903 0.99 -7.464 0.99 -7.464 0.13 81.903
4267.958 0.132 81.814 0.99 -7.561 0.99 -7.561 0.132 81.814
4292.917 0.133 81.725 0.99 -7.658 0.99 -7.658 0.133 81.725
4317.875 0.135 81.636 0.989 -7.754 0.989 -7.754 0.135 81.636
4342.833 0.137 81.548 0.989 -7.85 0.989 -7.85 0.137 81.548
4367.792 0.138 81.459 0.989 -7.946 0.989 -7.946 0.138 81.459
4392.75 0.14 81.371 0.989 -8.042 0.989 -8.042 0.14 81.371
4417.708 0.142 81.283 0.988 -8.137 0.988 -8.137 0.142 81.283
4442.667 0.143 81.195 0.988 -8.232 0.988 -8.232 0.143 81.195
4467.625 0.145 81.107 0.988 -8.326 0.988 -8.326 0.145 81.107
4492.583 0.146 81.019 0.988 -8.42 0.988 -8.42 0.146 81.019
4517.542 0.148 80.932 0.988 -8.514 0.988 -8.514 0.148 80.932
4542.5 0.15 80.844 0.987 -8.608 0.987 -8.608 0.15 80.844
4567.458 0.151 80.757 0.987 -8.701 0.987 -8.701 0.151 80.757
4592.417 0.153 80.67 0.987 -8.794 0.987 -8.794 0.153 80.67
4617.375 0.154 80.583 0.987 -8.887 0.987 -8.887 0.154 80.583
4642.333 0.156 80.496 0.986 -8.979 0.986 -8.979 0.156 80.496
4667.292 0.158 80.409 0.986 -9.071 0.986 -9.071 0.158 80.409
4692.25 0.159 80.323 0.986 -9.163 0.986 -9.163 0.159 80.323
4717.208 0.161 80.236 0.986 -9.254 0.986 -9.254 0.161 80.236
4742.167 0.162 80.15 0.985 -9.346 0.985 -9.346 0.162 80.15
4767.125 0.164 80.064 0.985 -9.437 0.985 -9.437 0.164 80.064
4792.083 0.166 79.978 0.985 -9.527 0.985 -9.527 0.166 79.978
4817.042 0.167 79.893 0.985 -9.618 0.985 -9.618 0.167 79.893
4842 0.169 79.807 0.984 -9.708 0.984 -9.708 0.169 79.807
4866.958 0.17 79.722 0.984 -9.798 0.984 -9.798 0.17 79.722
4891.917 0.172 79.637 0.984 -9.887 0.984 -9.887 0.172 79.637
4916.875 0.173 79.552 0.983 -9.977 0.983 -9.977 0.173 79.552
4941.833 0.175 79.467 0.983 -10.066 0.983 -10.066 0.175 79.467
4966.792 0.176 79.382 0.983 -10.155 0.983 -10.155 0.176 79.382
4991.75 0.178 79.297 0.983 -10.243 0.983 -10.243 0.178 79.297
5016.708 0.179 79.213 0.982 -10.332 0.982 -10.332 0.179 79.213
5041.667 0.181 79.129 0.982 -10.42 0.982 -10.42 0.181 79.129
5066.625 0.182 79.045 0.982 -10.508 0.982 -10.508 0.182 79.045
5091.583 0.184 78.961 0.982 -10.596 0.982 -10.596 0.184 78.961
5116.542 0.185 78.877 0.981 -10.683 0.981 -10.683 0.185 78.877
5141.5 0.187 78.793 0.981 -10.77 0.981 -10.77 0.187 78.793
5166.458 0.188 78.71 0.981 -10.857 0.981 -10.857 0.188 78.71
5191.417 0.19 78.627 0.98 -10.944 0.98 -10.944 0.19 78.627
5216.375 0.191 78.544 0.98 -11.031 0.98 -11.031 0.191 78.544
5241.333 0.193 78.461 0.98 -11.117 0.98 -11.117 0.193 78.461
5266.292 0.194 78.378 0.98 -11.203 0.98 -11.203 0.194 78.378
5291.25 0.196 78.295 0.979 -11.289 0.979 -11.289 0.196 78.295
5316.208 0.197 78.213 0.979 -11.375 0.979 -11.375 0.197 78.213
5341.167 0.199 78.13 0.979 -11.46 0.979 -11.46 0.199 78.13
5366.125 0.2 78.048 0.978 -11.546 0.978 -11.546 0.2 78.048
5391.083 0.202 77.966 0.978 -11.631 0.978 -11.631 0.202 77.966
5416.042 0.203 77.884 0.978 -11.716 0.978 -11.716 0.203 77.884
5441 0.205 77.802 0.977 -11.8 0.977 -11.8 0.205 77.802
5465.958 0.206 77.721 0.977 -11.885 0.977 -11.885 0.206 77.721
5490.917 0.207 77.639 0.977 -11.969 0.977 -11.969 0.207 77.639
5515.875 0.209 77.558 0.977 -12.053 0.977 -12.053 0.209 77.558
5540.833 0.21 77.477 0.976 -12.137 0.976 -12.137 0.21 77.477
5565.792 0.212 77.396 0.976 -12.221 0.976 -12.221 0.212 77.396
5590.75 0.213 77.315 0.976 -12.304 0.976 -12.304 0.213 77.315
5615.708 0.215 77.234 0.975 -12.388 0.975 -12.388 0.215 77.234
5640.667 0.216 77.154 0.975 -12.471 0.975 -12.471 0.216 77.154
5665.625 0.217 77.073 0.975 -12.554 0.975 -12.554 0.217 77.073
5690.583 0.219 76.993 0.974 -12.637 0.974 -12.637 0.219 76.993
5715.542 0.22 76.913 0.974 -12.719 0.974 -12.719 0.22 76.913
5740.5 0.222 76.833 0.974 -12.802 0.974 -12.802 0.222 76.833
5765.458 0.223 76.753 0.973 -12.884 0.973 -12.884 0.223 76.753
5790.417 0.224 76.674 0.973 -12.966 0.973 -12.966 0.224 76.674
5815.375 0.226 76.594 0.973 -13.048 0.973 -13.048 0.226 76.594
5840.333 0.227 76.515 0.972 -13.13 0.972 -13.13 0.227 76.515
5865.292 0.229 76.435 0.972 -13.211 0.972 -13.211 0.229 76.435
5890.25 0.23 76.356 0.972 -13.293 0.972 -13.293 0.23 76.356
5915.208 0.231 76.277 0.971 -13.374 0.971 -13.374 0.231 76.277
5940.167 0.233 76.198 0.971 -13.455 0.971 -13.455 0.233 76.198
5965.125 0.234 76.12 0.971 -13.536 0.971 -13.536 0.234 76.12
5990.083 0.235 76.041 0.97 -13.616 0.97 -13.616 0.235 76.041
6015.042 0.237 75.962 0.97 -13.697 0.97 -13.697 0.237 75.962
6040 0.238 75.884 0.97 -13.777 0.97 -13.777 0.238 75.884
6064.958 0.24 75.806 0.969 -13.858 0.969 -13.858 0.24 75.806
6089.917 0.241 75.728 0.969 -13.938 0.969 -13.938 0.241 75.728
6114.875 0.242 75.65 0.969 -14.018 0.969 -14.018 0.242 75.65
6139.833 0.244 75.572 0.968 -14.097 0.968 -14.097 0.244 75.572
6164.792 0.245 75.495 0.968 -14.177 0.968 -14.177 0.245 75.495
6189.75 0.246 75.417 0.968 -14.256 0.968 -14.256 0.246 75.417
6214.708 0.248 75.34 0.967 -14.336 0.967 -14.336 0.248 75.34
6239.667 0.249 75.262 0.967 -14.415 0.967 -14.415 0.249 75.262
6264.625 0.25 75.185 0.967 -14.494 0.967 -14.494 0.25 75.185
6289.583 0.252 75.108 0.966 -14.573 0.966 -14.573 0.252 75.108
6314.542 0.253 75.031 0.966 -14.651 0.966 -14.651 0.253 75.031
6339.5 0.254 74.954 0.966 -14.73 0.966 -14.73 0.254 74.954
6364.458 0.256 74.878 0.965 -14.808 0.965 -14.808 0.256 74.878
6389.417 0.257 74.801 0.965 -14.887 0.965 -14.887 0.257 74.801
6414.375 0.258 74.725 0.965 -14.965 0.965 -14.965 0.258 74.725
6439.333 0.26 74.649 0.964 -15.043 0.964 -15.043 0.26 74.649
6464.292 0.261 74.572 0.964 -15.12 0.964 -15.12 0.261 74.572
6489.25 0.262 74.496 0.964 -15.198 0.964 -15.198 0.262 74.496
6514.208 0.263 74.421 0.963 -15.276 0.963 -15.276 0.263 74.421
6539.167 0.265 74.345 0.963 -15.353 0.963 -15.353 0.265 74.345
6564.125 0.266 74.269 0.963 -15.43 0.963 -15.43 0.266 74.269
6589.083 0.267 74.194 0.962 -15.507 0.962 -15.507 0.267 74.194
6614.042 0.269 74.118 0.962 -15.584 0.962 -15.584 0.269 74.118
6639 0.27 74.043 0.961 -15.661 0.961 -15.661 0.27 74.043
6663.958 0.271 73.968 0.961 -15.738 0.961 -15.738 0.271 73.968
6688.917 0.273 73.893 0.961 -15.814 0.961 -15.814 0.273 73.893
6713.875 0.274 73.818 0.96 -15.891 0.96 -15.891 0.274 73.818
6738.833 0.275 73.743 0.96 -15.967 0.96 -15.967 0.275 73.743
6763.792 0.276 73.668 0.96 -16.043 0.96 -16.043 0.276 73.668
6788.75 0.278 73.593 0.959 -16.119 0.959 -16.119 0.278 73.593
6813.708 0.279 73.519 0.959 -16.195 0.959 -16.195 0.279 73.519
6838.667 0.28 73.445 0.959 -16.271 0.959 -16.271 0.28 73.445
6863.625 0.281 73.37 0.958 -16.347 0.958 -16.347 0.281 73.37
6888.583 0.283 73.296 0.958 -16.422 0.958 -16.422 0.283 73.296
6913.542 0.284 73.222 0.957 -16.498 0.957 -16.498 0.284 73.222
6938.5 0.285 73.148 0.957 -16.573 0.957 -16.573 0.285 73.148
6963.458 0.286 73.074 0.957 -16.648 0.957 -16.648 0.286 73.074
6988.417 0.288 73.001 0.956 -16.723 0.956 -16.723 0.288 73.001
7013.375 0.289 72.927 0.956 -16.798 0.956 -16.798 0.289 72.927
7038.333 0.29 72.854 0.956 -16.873 0.956 -16.873 0.29 72.854
7063.292 0.291 72.78 0.955 -16.947 0.955 -16.947 0.291 72.78
7088.25 0.293 72.707 0.955 -17.022 0.955 -17.022 0.293 72.707
7113.208 0.294 72.634 0.954 -17.096 0.954 -17.096 0.294 72.634
7138.167 0.295 72.561 0.954 -17.171 0.954 -17.171 0.295 72.561
7163.125 0.296 72.488 0.954 -17.245 0.954 -17.245 0.296 72.488
7188.083 0.298 72.415 0.953 -17.319 0.953 -17.319 0.298 72.415
7213.042 0.299 72.342 0.953 -17.393 0.953 -17.393 0.299 72.342
7238 0.3 72.27 0.953 -17.466 0.953 -17.466 0.3 72.27
7262.958 0.301 72.197 0.952 -17.54 0.952 -17.54 0.301 72.197
7287.917 0.303 72.125 0.952 -17.614 0.952 -17.614 0.303 72.125
7312.875 0.304 72.053 0.951 -17.687 0.951 -17.687 0.304 72.053
7337.833 0.305 71.981 0.951 -17.76 0.951 -17.76 0.305 71.981
7362.792 0.306 71.909 0.951 -17.834 0.951 -17.834 0.306 71.909
7387.75 0.307 71.837 0.95 -17.907 0.95 -17.907 0.307 71.837
7412.708 0.309 71.765 0.95 -17.98 0.95 -17.98 0.309 71.765
7437.667 0.31 71.693 0.949 -18.052 0.949 -18.052 0.31 71.693
7462.625 0.311 71.621 0.949 -18.125 0.949 -18.125 0.311 71.621
7487.583 0.312 71.55 0.949 -18.198 0.949 -18.198 0.312 71.55
7512.542 0.314 71.478 0.948 -18.27 0.948 -18.27 0.314 71.478
7537.5 0.315 71.407 0.948 -18.343 0.948 -18.343 0.315 71.407
7562.458 0.316 71.336 0.947 -18.415 0.947 -18.415 0.316 71.336
7587.417 0.317 71.265 0.947 -18.487 0.947 -18.487 0.317 71.265
7612.375 0.318 71.194 0.947 -18.559 0.947 -18.559 0.318 71.194
7637.333 0.319 71.123 0.946 -18.631 0.946 -18.631 0.319 71.123
7662.292 0.321 71.052 0.946 -18.703 0.946 -18.703 0.321 71.052
7687.25 0.322 70.981 0.945 -18.775 0.945 -18.775 0.322 70.981
7712.208 0.323 70.911 0.945 -18.846 0.945 -18.846 0.323 70.911
7737.167 0.324 70.84 0.945 -18.918 0.945 -18.918 0.324 70.84
7762.125 0.325 70.77 0.944 -18.989 0.944 -18.989 0.325 70.77
7787.083 0.327 70.699 0.944 -19.061 0.944 -19.061 0.327 70.699
7812.042 0.328 70.629 0.943 -19.132 0.943 -19.132 0.328 70.629
7837 0.329 70.559 0.943 -19.203 0.943 -19.203 0.329 70.559
7861.958 0.33 70.489 0.943 -19.274 0.943 -19.274 0.33 70.489
7886.917 0.331 70.419 0.942 -19.345 0.942 -19.345 0.331 70.419
7911.875 0.332 70.349 0.942 -19.415 0.942 -19.415 0.332 70.349
7936.833 0.334 70.279 0.941 -19.486 0.941 -19.486 0.334 70.279
7961.792 0.335 70.21 0.941 -19.557 0.941 -19.557 0.335 70.21
7986.75 0.336 70.14 0.941 -19.627 0.941 -19.627 0.336 70.14
8011.708 0.337 70.071 0.94 -19.697 0.94 -19.697 0.337 70.071
8036.667 0.338 70.001 0.94 -19.768 0.94 -19.768 0.338 70.001
8061.625 0.339 69.932 0.939 -19.838 0.939 -19.838 0.339 69.932
8086.583 0.341 69.863 0.939 -19.908 0.939 -19.908 0.341 69.863
8111.542 0.342 69.794 0.938 -19.978 0.938 -19.978 0.342 69.794
8136.5 0.343 69.725 0.938 -20.048 0.938 -20.048 0.343 69.725
8161.458 0.344 69.656 0.938 -20.117 0.938 -20.117 0.344 69.656
8186.417 0.345 69.587 0.937 -20.187 0.937 -20.187 0.345 69.587
