# MHZ S MA R 50

50 1 -0.99 0.017 89.007 0.017 89.007 1 -0.99
74.958 1 -1.484 0.026 88.511 0.026 88.511 1 -1.484
99.917 0.999 -1.978 0.035 88.016 0.035 88.016 0.999 -1.978
124.875 0.999 -2.472 0.043 87.521 0.043 87.521 0.999 -2.472
149.833 0.999 -2.965 0.052 87.025 0.052 87.025 0.999 -2.965
174.792 0.998 -3.458 0.06 86.531 0.06 86.531 0.998 -3.458
199.75 0.998 -3.951 0.069 86.036 0.069 86.036 0.998 -3.951
224.708 0.997 -4.444 0.077 85.542 0.077 85.542 0.997 -4.444
249.667 0.996 -4.936 0.086 85.048 0.086 85.048 0.996 -4.936
274.625 0.995 -5.428 0.095 84.555 0.095 84.555 0.995 -5.428
299.583 0.995 -5.919 0.103 84.062 0.103 84.062 0.995 -5.919
324.542 0.994 -6.41 0.112 83.569 0.112 83.569 0.994 -6.41
349.5 0.993 -6.9 0.12 83.078 0.12 83.078 0.993 -6.9
374.458 0.992 -7.39 0.129 82.586 0.129 82.586 0.992 -7.39
399.417 0.99 -7.879 0.137 82.096 0.137 82.096 0.99 -7.879
424.375 0.989 -8.368 0.146 81.606 0.146 81.606 0.989 -8.368
449.333 0.988 -8.855 0.154 81.117 0.154 81.117 0.988 -8.855
474.292 0.987 -9.342 0.162 80.628 0.162 80.628 0.987 -9.342
499.25 0.985 -9.828 0.171 80.14 0.171 80.14 0.985 -9.828
524.208 0.984 -10.314 0.179 79.654 0.179 79.654 0.984 -10.314
549.167 0.982 -10.798 0.187 79.168 0.187 79.168 0.982 -10.798
574.125 0.981 -11.281 0.196 78.682 0.196 78.682 0.981 -11.281
599.083 0.979 -11.764 0.204 78.198 0.204 78.198 0.979 -11.764
624.042 0.977 -12.246 0.212 77.715 0.212 77.715 0.977 -12.246
649 0.975 -12.726 0.22 77.233 0.22 77.233 0.975 -12.726
673.958 0.973 -13.206 0.228 76.752 0.228 76.752 0.973 -13.206
698.917 0.971 -13.684 0.237 76.272 0.237 76.272 0.971 -13.684
723.875 0.969 -14.162 0.245 75.793 0.245 75.793 0.969 -14.162
748.833 0.967 -14.638 0.253 75.315 0.253 75.315 0.967 -14.638
773.792 0.965 -15.113 0.261 74.838 0.261 74.838 0.965 -15.113
798.75 0.963 -15.587 0.269 74.363 0.269 74.363 0.963 -15.587
823.708 0.961 -16.059 0.277 73.889 0.277 73.889 0.961 -16.059
848.667 0.958 -16.53 0.285 73.416 0.285 73.416 0.958 -16.53
873.625 0.956 -17 0.292 72.944 0.292 72.944 0.956 -17
898.583 0.954 -17.469 0.3 72.474 0.3 72.474 0.954 -17.469
923.542 0.951 -17.936 0.308 72.005 0.308 72.005 0.951 -17.936
948.5 0.949 -18.402 0.316 71.538 0.316 71.538 0.949 -18.402
973.458 0.946 -18.866 0.323 71.072 0.323 71.072 0.946 -18.866
998.417 0.943 -19.329 0.331 70.607 0.331 70.607 0.943 -19.329
1023.375 0.941 -19.791 0.339 70.144 0.339 70.144 0.941 -19.791
1048.333 0.938 -20.251 0.346 69.682 0.346 69.682 0.938 -20.251
1073.292 0.935 -20.709 0.354 69.222 0.354 69.222 0.935 -20.709
1098.25 0.932 -21.166 0.361 68.764 0.361 68.764 0.932 -21.166
1123.208 0.929 -21.622 0.368 68.307 0.368 68.307 0.929 -21.622
1148.167 0.926 -22.075 0.376 67.851 0.376 67.851 0.926 -22.075
1173.125 0.923 -22.527 0.383 67.398 0.383 67.398 0.923 -22.527
1198.083 0.92 -22.978 0.39 66.945 0.39 66.945 0.92 -22.978
1223.042 0.917 -23.427 0.398 66.495 0.398 66.495 0.917 -23.427
1248 0.914 -23.874 0.405 66.046 0.405 66.046 0.914 -23.874
1272.958 0.911 -24.319 0.412 65.599 0.412 65.599 0.911 -24.319
1297.917 0.907 -24.763 0.419 65.153 0.419 65.153 0.907 -24.763
1322.875 0.904 -25.205 0.426 64.71 0.426 64.71 0.904 -25.205
1347.833 0.901 -25.645 0.433 64.268 0.433 64.268 0.901 -25.645
1372.792 0.897 -26.084 0.44 63.828 0.44 63.828 0.897 -26.084
1397.75 0.894 -26.521 0.447 63.389 0.447 63.389 0.894 -26.521
1422.708 0.891 -26.956 0.453 62.952 0.453 62.952 0.891 -26.956
1447.667 0.887 -27.389 0.46 62.518 0.46 62.518 0.887 -27.389
1472.625 0.884 -27.82 0.467 62.085 0.467 62.085 0.884 -27.82
1497.583 0.88 -28.249 0.473 61.653 0.473 61.653 0.88 -28.249
1522.542 0.877 -28.677 0.48 61.224 0.48 61.224 0.877 -28.677
1547.5 0.873 -29.103 0.486 60.797 0.486 60.797 0.873 -29.103
1572.458 0.869 -29.527 0.493 60.371 0.493 60.371 0.869 -29.527
1597.417 0.866 -29.949 0.499 59.947 0.499 59.947 0.866 -29.949
1622.375 0.862 -30.369 0.506 59.525 0.506 59.525 0.862 -30.369
1647.333 0.858 -30.787 0.512 59.105 0.512 59.105 0.858 -30.787
1672.292 0.854 -31.203 0.518 58.687 0.518 58.687 0.854 -31.203
1697.25 0.851 -31.618 0.524 58.271 0.524 58.271 0.851 -31.618
1722.208 0.847 -32.03 0.53 57.857 0.53 57.857 0.847 -32.03
1747.167 0.843 -32.441 0.536 57.444 0.536 57.444 0.843 -32.441
1772.125 0.839 -32.849 0.542 57.034 0.542 57.034 0.839 -32.849
1797.083 0.835 -33.256 0.548 56.626 0.548 56.626 0.835 -33.256
1822.042 0.831 -33.661 0.554 56.219 0.554 56.219 0.831 -33.661
1847 0.827 -34.063 0.56 55.814 0.56 55.814 0.827 -34.063
1871.958 0.823 -34.464 0.566 55.412 0.566 55.412 0.823 -34.464
1896.917 0.819 -34.863 0.572 55.011 0.572 55.011 0.819 -34.863
1921.875 0.815 -35.26 0.577 54.612 0.577 54.612 0.815 -35.26
1946.833 0.811 -35.655 0.583 54.216 0.583 54.216 0.811 -35.655
1971.792 0.807 -36.048 0.588 53.821 0.588 53.821 0.807 -36.048
1996.75 0.803 -36.439 0.594 53.428 0.594 53.428 0.803 -36.439
2021.708 0.799 -36.828 0.599 53.037 0.599 53.037 0.799 -36.828
2046.667 0.795 -37.215 0.605 52.648 0.605 52.648 0.795 -37.215
2071.625 0.791 -37.6 0.61 52.261 0.61 52.261 0.791 -37.6
2096.583 0.787 -37.983 0.615 51.876 0.615 51.876 0.787 -37.983
2121.542 0.783 -38.364 0.621 51.493 0.621 51.493 0.783 -38.364
2146.5 0.778 -38.743 0.626 51.111 0.626 51.111 0.778 -38.743
2171.458 0.774 -39.121 0.631 50.732 0.631 50.732 0.774 -39.121
2196.417 0.77 -39.496 0.636 50.355 0.636 50.355 0.77 -39.496
2221.375 0.766 -39.869 0.641 49.98 0.641 49.98 0.766 -39.869
2246.333 0.762 -40.241 0.646 49.606 0.646 49.606 0.762 -40.241
2271.292 0.757 -40.61 0.651 49.235 0.651 49.235 0.757 -40.61
2296.25 0.753 -40.978 0.656 48.865 0.656 48.865 0.753 -40.978
2321.208 0.749 -41.343 0.661 48.498 0.661 48.498 0.749 -41.343
2346.167 0.745 -41.707 0.665 48.132 0.665 48.132 0.745 -41.707
2371.125 0.74 -42.068 0.67 47.768 0.67 47.768 0.74 -42.068
2396.083 0.736 -42.428 0.675 47.406 0.675 47.406 0.736 -42.428
2421.042 0.732 -42.786 0.679 47.047 0.679 47.047 0.732 -42.786
2446 0.728 -43.142 0.684 46.689 0.684 46.689 0.728 -43.142
2470.958 0.723 -43.496 0.688 46.332 0.688 46.332 0.723 -43.496
2495.917 0.719 -43.848 0.693 45.978 0.693 45.978 0.719 -43.848
2520.875 0.715 -44.198 0.697 45.626 0.697 45.626 0.715 -44.198
2545.833 0.711 -44.546 0.701 45.275 0.701 45.275 0.711 -44.546
2570.792 0.706 -44.893 0.706 44.927 0.706 44.927 0.706 -44.893
2595.75 0.702 -45.237 0.71 44.58 0.71 44.58 0.702 -45.237
2620.708 0.698 -45.58 0.714 44.235 0.714 44.235 0.698 -45.58
2645.667 0.693 -45.921 0.718 43.892 0.718 43.892 0.693 -45.921
2670.625 0.689 -46.259 0.722 43.551 0.722 43.551 0.689 -46.259
2695.583 0.685 -46.596 0.727 43.212 0.727 43.212 0.685 -46.596
2720.542 0.68 -46.932 0.731 42.874 0.731 42.874 0.68 -46.932
2745.5 0.676 -47.265 0.735 42.539 0.735 42.539 0.676 -47.265
2770.458 0.672 -47.597 0.738 42.205 0.738 42.205 0.672 -47.597
2795.417 0.667 -47.926 0.742 41.873 0.742 41.873 0.667 -47.926
2820.375 0.663 -48.254 0.746 41.543 0.746 41.543 0.663 -48.254
2845.333 0.659 -48.58 0.75 41.214 0.75 41.214 0.659 -48.58
2870.292 0.655 -48.905 0.754 40.888 0.754 40.888 0.655 -48.905
2895.25 0.65 -49.227 0.757 40.563 0.757 40.563 0.65 -49.227
2920.208 0.646 -49.548 0.761 40.24 0.761 40.24 0.646 -49.548
2945.167 0.642 -49.867 0.765 39.918 0.765 39.918 0.642 -49.867
2970.125 0.637 -50.184 0.768 39.599 0.768 39.599 0.637 -50.184
2995.083 0.633 -50.499 0.772 39.281 0.772 39.281 0.633 -50.499
3020.042 0.629 -50.813 0.775 38.964 0.775 38.964 0.629 -50.813
3045 0.625 -51.125 0.779 38.65 0.779 38.65 0.625 -51.125
3069.958 0.62 -51.435 0.782 38.337 0.782 38.337 0.62 -51.435
3094.917 0.616 -51.744 0.785 38.026 0.785 38.026 0.616 -51.744
3119.875 0.612 -52.051 0.789 37.717 0.789 37.717 0.612 -52.051
3144.833 0.608 -52.356 0.792 37.409 0.792 37.409 0.608 -52.356
3169.792 0.603 -52.659 0.795 37.103 0.795 37.103 0.603 -52.659
3194.75 0.599 -52.961 0.798 36.798 0.798 36.798 0.599 -52.961
3219.708 0.595 -53.261 0.801 36.496 0.801 36.496 0.595 -53.261
3244.667 0.591 -53.56 0.804 36.194 0.804 36.194 0.591 -53.56
3269.625 0.586 -53.856 0.808 35.895 0.808 35.895 0.586 -53.856
3294.583 0.582 -54.152 0.811 35.597 0.811 35.597 0.582 -54.152
3319.542 0.578 -54.445 0.814 35.301 0.814 35.301 0.578 -54.445
3344.5 0.574 -54.737 0.817 35.006 0.817 35.006 0.574 -54.737
3369.458 0.569 -55.027 0.819 34.713 0.819 34.713 0.569 -55.027
3394.417 0.565 -55.316 0.822 34.421 0.822 34.421 0.565 -55.316
3419.375 0.561 -55.603 0.825 34.131 0.825 34.131 0.561 -55.603
3444.333 0.557 -55.889 0.828 33.843 0.828 33.843 0.557 -55.889
3469.292 0.553 -56.173 0.831 33.556 0.831 33.556 0.553 -56.173
3494.25 0.549 -56.455 0.833 33.27 0.833 33.27 0.549 -56.455
3519.208 0.544 -56.736 0.836 32.987 0.836 32.987 0.544 -56.736
3544.167 0.54 -57.015 0.839 32.704 0.839 32.704 0.54 -57.015
3569.125 0.536 -57.293 0.841 32.423 0.841 32.423 0.536 -57.293
3594.083 0.532 -57.57 0.844 32.144 0.844 32.144 0.532 -57.57
3619.042 0.528 -57.844 0.847 31.866 0.847 31.866 0.528 -57.844
3644 0.524 -58.118 0.849 31.59 0.849 31.59 0.524 -58.118
3668.958 0.52 -58.39 0.852 31.315 0.852 31.315 0.52 -58.39
3693.917 0.516 -58.66 0.854 31.041 0.854 31.041 0.516 -58.66
3718.875 0.512 -58.929 0.857 30.769 0.857 30.769 0.512 -58.929
3743.833 0.508 -59.196 0.859 30.498 0.859 30.498 0.508 -59.196
3768.792 0.503 -59.462 0.861 30.229 0.861 30.229 0.503 -59.462
3793.75 0.499 -59.727 0.864 29.961 0.864 29.961 0.499 -59.727
3818.708 0.495 -59.99 0.866 29.695 0.866 29.695 0.495 -59.99
3843.667 0.491 -60.251 0.868 29.43 0.868 29.43 0.491 -60.251
3868.625 0.487 -60.512 0.87 29.166 0.87 29.166 0.487 -60.512
3893.583 0.483 -60.77 0.873 28.904 0.873 28.904 0.483 -60.77
3918.542 0.479 -61.028 0.875 28.643 0.875 28.643 0.479 -61.028
3943.5 0.475 -61.284 0.877 28.383 0.877 28.383 0.475 -61.284
3968.458 0.471 -61.539 0.879 28.125 0.879 28.125 0.471 -61.539
3993.417 0.467 -61.792 0.881 27.868 0.881 27.868 0.467 -61.792
4018.375 0.463 -62.044 0.883 27.612 0.883 27.612 0.463 -62.044
4043.333 0.46 -62.295 0.885 27.358 0.885 27.358 0.46 -62.295
4068.292 0.456 -62.544 0.887 27.105 0.887 27.105 0.456 -62.544
4093.25 0.452 -62.792 0.889 26.853 0.889 26.853 0.452 -62.792
4118.208 0.448 -63.038 0.891 26.602 0.891 26.602 0.448 -63.038
4143.167 0.444 -63.284 0.893 26.353 0.893 26.353 0.444 -63.284
4168.125 0.44 -63.528 0.895 26.105 0.895 26.105 0.44 -63.528
4193.083 0.436 -63.77 0.897 25.858 0.897 25.858 0.436 -63.77
4218.042 0.432 -64.012 0.899 25.613 0.899 25.613 0.432 -64.012
4243 0.428 -64.252 0.901 25.368 0.901 25.368 0.428 -64.252
4267.958 0.425 -64.491 0.903 25.125 0.903 25.125 0.425 -64.491
4292.917 0.421 -64.728 0.904 24.884 0.904 24.884 0.421 -64.728
4317.875 0.417 -64.965 0.906 24.643 0.906 24.643 0.417 -64.965
4342.833 0.413 -65.2 0.908 24.403 0.908 24.403 0.413 -65.2
4367.792 0.409 -65.434 0.91 24.165 0.91 24.165 0.409 -65.434
4392.75 0.406 -65.666 0.911 23.928 0.911 23.928 0.406 -65.666
4417.708 0.402 -65.898 0.913 23.692 0.913 23.692 0.402 -65.898
4442.667 0.398 -66.128 0.914 23.457 0.914 23.457 0.398 -66.128
4467.625 0.394 -66.357 0.916 23.224 0.916 23.224 0.394 -66.357
4492.583 0.391 -66.585 0.918 22.991 0.918 22.991 0.391 -66.585
4517.542 0.387 -66.811 0.919 22.76 0.919 22.76 0.387 -66.811
4542.5 0.383 -67.037 0.921 22.529 0.921 22.529 0.383 -67.037
4567.458 0.379 -67.261 0.922 22.3 0.922 22.3 0.379 -67.261
4592.417 0.376 -67.484 0.924 22.072 0.924 22.072 0.376 -67.484
4617.375 0.372 -67.706 0.925 21.845 0.925 21.845 0.372 -67.706
4642.333 0.368 -67.926 0.927 21.619 0.927 21.619 0.368 -67.926
4667.292 0.365 -68.146 0.928 21.395 0.928 21.395 0.365 -68.146
4692.25 0.361 -68.364 0.93 21.171 0.93 21.171 0.361 -68.364
4717.208 0.358 -68.582 0.931 20.948 0.931 20.948 0.358 -68.582
4742.167 0.354 -68.798 0.932 20.727 0.932 20.727 0.354 -68.798
4767.125 0.35 -69.013 0.934 20.506 0.934 20.506 0.35 -69.013
4792.083 0.347 -69.227 0.935 20.286 0.935 20.286 0.347 -69.227
4817.042 0.343 -69.439 0.936 20.068 0.936 20.068 0.343 -69.439
4842 0.34 -69.651 0.938 19.85 0.938 19.85 0.34 -69.651
4866.958 0.336 -69.862 0.939 19.634 0.939 19.634 0.336 -69.862
4891.917 0.332 -70.071 0.94 19.418 0.94 19.418 0.332 -70.071
4916.875 0.329 -70.279 0.941 19.204 0.941 19.204 0.329 -70.279
4941.833 0.325 -70.487 0.943 18.991 0.943 18.991 0.325 -70.487
4966.792 0.322 -70.693 0.944 18.778 0.944 18.778 0.322 -70.693
4991.75 0.318 -70.898 0.945 18.566 0.945 18.566 0.318 -70.898
5016.708 0.315 -71.102 0.946 18.356 0.946 18.356 0.315 -71.102
5041.667 0.311 -71.305 0.947 18.146 0.947 18.146 0.311 -71.305
5066.625 0.308 -71.507 0.948 17.938 0.948 17.938 0.308 -71.507
5091.583 0.305 -71.707 0.95 17.73 0.95 17.73 0.305 -71.707
5116.542 0.301 -71.907 0.951 17.523 0.951 17.523 0.301 -71.907
5141.5 0.298 -72.106 0.952 17.317 0.952 17.317 0.298 -72.106
5166.458 0.294 -72.303 0.953 17.112 0.953 17.112 0.294 -72.303
5191.417 0.291 -72.5 0.954 16.908 0.954 16.908 0.291 -72.5
5216.375 0.287 -72.695 0.955 16.705 0.955 16.705 0.287 -72.695
5241.333 0.284 -72.89 0.956 16.503 0.956 16.503 0.284 -72.89
5266.292 0.281 -73.083 0.957 16.302 0.957 16.302 0.281 -73.083
5291.25 0.277 -73.275 0.958 16.101 0.958 16.101 0.277 -73.275
5316.208 0.274 -73.467 0.959 15.902 0.959 15.902 0.274 -73.467
5341.167 0.271 -73.657 0.96 15.703 0.96 15.703 0.271 -73.657
5366.125 0.267 -73.846 0.961 15.505 0.961 15.505 0.267 -73.846
5391.083 0.264 -74.034 0.961 15.308 0.961 15.308 0.264 -74.034
5416.042 0.261 -74.222 0.962 15.112 0.962 15.112 0.261 -74.222
5441 0.257 -74.408 0.963 14.917 0.963 14.917 0.257 -74.408
5465.958 0.254 -74.593 0.964 14.722 0.964 14.722 0.254 -74.593
5490.917 0.251 -74.777 0.965 14.529 0.965 14.529 0.251 -74.777
5515.875 0.248 -74.96 0.966 14.336 0.966 14.336 0.248 -74.96
5540.833 0.244 -75.142 0.967 14.144 0.967 14.144 0.244 -75.142
5565.792 0.241 -75.323 0.967 13.953 0.967 13.953 0.241 -75.323
5590.75 0.238 -75.503 0.968 13.763 0.968 13.763 0.238 -75.503
5615.708 0.235 -75.682 0.969 13.573 0.969 13.573 0.235 -75.682
5640.667 0.232 -75.859 0.97 13.384 0.97 13.384 0.232 -75.859
5665.625 0.228 -76.036 0.971 13.196 0.971 13.196 0.228 -76.036
5690.583 0.225 -76.212 0.971 13.009 0.971 13.009 0.225 -76.212
5715.542 0.222 -76.386 0.972 12.823 0.972 12.823 0.222 -76.386
5740.5 0.219 -76.56 0.973 12.637 0.973 12.637 0.219 -76.56
5765.458 0.216 -76.733 0.973 12.453 0.973 12.453 0.216 -76.733
5790.417 0.213 -76.904 0.974 12.269 0.974 12.269 0.213 -76.904
5815.375 0.209 -77.074 0.975 12.085 0.975 12.085 0.209 -77.074
5840.333 0.206 -77.244 0.975 11.903 0.975 11.903 0.206 -77.244
5865.292 0.203 -77.412 0.976 11.721 0.976 11.721 0.203 -77.412
5890.25 0.2 -77.579 0.977 11.54 0.977 11.54 0.2 -77.579
5915.208 0.197 -77.745 0.977 11.36 0.977 11.36 0.197 -77.745
5940.167 0.194 -77.91 0.978 11.18 0.978 11.18 0.194 -77.91
5965.125 0.191 -78.073 0.979 11.001 0.979 11.001 0.191 -78.073
5990.083 0.188 -78.236 0.979 10.823 0.979 10.823 0.188 -78.236
6015.042 0.185 -78.397 0.98 10.645 0.98 10.645 0.185 -78.397
6040 0.182 -78.557 0.98 10.469 0.98 10.469 0.182 -78.557
6064.958 0.179 -78.716 0.981 10.293 0.981 10.293 0.179 -78.716
6089.917 0.176 -78.874 0.981 10.117 0.981 10.117 0.176 -78.874
6114.875 0.173 -79.031 0.982 9.943 0.982 9.943 0.173 -79.031
6139.833 0.17 -79.186 0.982 9.769 0.982 9.769 0.17 -79.186
6164.792 0.167 -79.34 0.983 9.596 0.983 9.596 0.167 -79.34
6189.75 0.164 -79.493 0.983 9.423 0.983 9.423 0.164 -79.493
6214.708 0.161 -79.644 0.984 9.251 0.984 9.251 0.161 -79.644
6239.667 0.158 -79.794 0.984 9.08 0.984 9.08 0.158 -79.794
6264.625 0.155 -79.943 0.985 8.909 0.985 8.909 0.155 -79.943
6289.583 0.152 -80.09 0.985 8.739 0.985 8.739 0.152 -80.09
6314.542 0.149 -80.236 0.986 8.57 0.986 8.57 0.149 -80.236
6339.5 0.146 -80.38 0.986 8.401 0.986 8.401 0.146 -80.38
6364.458 0.143 -80.523 0.987 8.233 0.987 8.233 0.143 -80.523
6389.417 0.14 -80.664 0.987 8.066 0.987 8.066 0.14 -80.664
6414.375 0.137 -80.804 0.987 7.899 0.987 7.899 0.137 -80.804
6439.333 0.135 -80.942 0.988 7.733 0.988 7.733 0.135 -80.942
6464.292 0.132 -81.078 0.988 7.568 0.988 7.568 0.132 -81.078
6489.25 0.129 -81.212 0.989 7.403 0.989 7.403 0.129 -81.212
6514.208 0.126 -81.345 0.989 7.239 0.989 7.239 0.126 -81.345
6539.167 0.123 -81.475 0.989 7.075 0.989 7.075 0.123 -81.475
6564.125 0.12 -81.604 0.99 6.912 0.99 6.912 0.12 -81.604
6589.083 0.118 -81.73 0.99 6.75 0.99 6.75 0.118 -81.73
6614.042 0.115 -81.854 0.99 6.588 0.99 6.588 0.115 -81.854
6639 0.112 -81.976 0.991 6.427 0.991 6.427 0.112 -81.976
6663.958 0.109 -82.095 0.991 6.266 0.991 6.266 0.109 -82.095
6688.917 0.106 -82.212 0.991 6.106 0.991 6.106 0.106 -82.212
6713.875 0.104 -82.326 0.991 5.947 0.991 5.947 0.104 -82.326
6738.833 0.101 -82.437 0.992 5.788 0.992 5.788 0.101 -82.437
6763.792 0.098 -82.545 0.992 5.63 0.992 5.63 0.098 -82.545
6788.75 0.095 -82.65 0.992 5.472 0.992 5.472 0.095 -82.65
6813.708 0.093 -82.751 0.993 5.315 0.993 5.315 0.093 -82.751
6838.667 0.09 -82.849 0.993 5.159 0.993 5.159 0.09 -82.849
6863.625 0.087 -82.942 0.993 5.003 0.993 5.003 0.087 -82.942
6888.583 0.085 -83.032 0.993 4.847 0.993 4.847 0.085 -83.032
6913.542 0.082 -83.116 0.994 4.692 0.994 4.692 0.082 -83.116
6938.5 0.079 -83.196 0.994 4.538 0.994 4.538 0.079 -83.196
6963.458 0.077 -83.27 0.994 4.384 0.994 4.384 0.077 -83.27
6988.417 0.074 -83.338 0.994 4.231 0.994 4.231 0.074 -83.338
7013.375 0.071 -83.399 0.994 4.078 0.994 4.078 0.071 -83.399
7038.333 0.069 -83.454 0.995 3.926 0.995 3.926 0.069 -83.454
7063.292 0.066 -83.5 0.995 3.775 0.995 3.775 0.066 -83.5
7088.25 0.063 -83.537 0.995 3.624 0.995 3.624 0.063 -83.537
7113.208 0.061 -83.564 0.995 3.473 0.995 3.473 0.061 -83.564
7138.167 0.058 -83.581 0.995 3.323 0.995 3.323 0.058 -83.581
7163.125 0.055 -83.584 0.995 3.173 0.995 3.173 0.055 -83.584
7188.083 0.053 -83.574 0.995 3.024 0.995 3.024 0.053 -83.574
7213.042 0.05 -83.547 0.996 2.876 0.996 2.876 0.05 -83.547
7238 0.048 -83.501 0.996 2.728 0.996 2.728 0.048 -83.501
7262.958 0.045 -83.433 0.996 2.581 0.996 2.581 0.045 -83.433
7287.917 0.043 -83.34 0.996 2.434 0.996 2.434 0.043 -83.34
7312.875 0.04 -83.216 0.996 2.287 0.996 2.287 0.04 -83.216
7337.833 0.037 -83.057 0.996 2.141 0.996 2.141 0.037 -83.057
7362.792 0.035 -82.854 0.996 1.996 0.996 1.996 0.035 -82.854
7387.75 0.032 -82.597 0.996 1.851 0.996 1.851 0.032 -82.597
7412.708 0.03 -82.274 0.996 1.706 0.996 1.706 0.03 -82.274
7437.667 0.027 -81.868 0.996 1.562 0.996 1.562 0.027 -81.868
7462.625 0.025 -81.353 0.997 1.419 0.997 1.419 0.025 -81.353
7487.583 0.022 -80.695 0.997 1.275 0.997 1.275 0.022 -80.695
7512.542 0.02 -79.842 0.997 1.133 0.997 1.133 0.02 -79.842
7537.5 0.018 -78.715 0.997 0.991 0.997 0.991 0.018 -78.715
7562.458 0.015 -77.185 0.997 0.849 0.997 0.849 0.015 -77.185
7587.417 0.013 -75.03 0.997 0.708 0.997 0.708 0.013 -75.03
7612.375 0.01 -71.83 0.997 0.567 0.997 0.567 0.01 -71.83
7637.333 8.086e-3 -66.716 0.997 0.427 0.997 0.427 8.086e-3 -66.716
7662.292 5.914e-3 -57.633 0.997 0.287 0.997 0.287 5.914e-3 -57.633
7687.25 4.064e-3 -39.237 0.997 0.148 0.997 0.148 4.064e-3 -39.237
7712.208 3.145e-3 -2.802 0.997 8.836e-3 0.997 8.836e-3 3.145e-3 -2.802
7737.167 3.871e-3 35.635 0.997 -0.13 0.997 -0.13 3.871e-3 35.635
7762.125 5.629e-3 55.815 0.997 -0.268 0.997 -0.268 5.629e-3 55.815
7787.083 7.738e-3 65.648 0.997 -0.405 0.997 -0.405 7.738e-3 65.648
7812.042 9.973e-3 71.101 0.997 -0.542 0.997 -0.542 9.973e-3 71.101
7837 0.012 74.478 0.997 -0.679 0.997 -0.679 0.012 74.478
7861.958 0.015 76.738 0.997 -0.815 0.997 -0.815 0.015 76.738
7886.917 0.017 78.335 0.997 -0.951 0.997 -0.951 0.017 78.335
7911.875 0.019 79.51 0.997 -1.086 0.997 -1.086 0.019 79.51
7936.833 0.022 80.399 0.997 -1.221 0.997 -1.221 0.022 80.399
7961.792 0.024 81.086 0.997 -1.356 0.997 -1.356 0.024 81.086
7986.75 0.026 81.625 0.997 -1.49 0.997 -1.49 0.026 81.625
8011.708 0.029 82.054 0.996 -1.624 0.996 -1.624 0.029 82.054
8036.667 0.031 82.397 0.996 -1.757 0.996 -1.757 0.031 82.397
8061.625 0.033 82.673 0.996 -1.89 0.996 -1.89 0.033 82.673
8086.583 0.035 82.895 0.996 -2.022 0.996 -2.022 0.035 82.895
8111.542 0.038 83.073 0.996 -2.154 0.996 -2.154 0.038 83.073
8136.5 0.04 83.215 0.996 -2.286 0.996 -2.286 0.04 83.215
8161.458 0.042 83.328 0.996 -2.417 0.996 -2.417 0.042 83.328
