# MHZ S MA R 50

50 0.999 -2.159 0.038 87.836 0.038 87.836 0.999 -2.159
74.958 0.998 -3.235 0.056 86.757 0.056 86.757 0.998 -3.235
99.917 0.997 -4.31 0.075 85.68 0.075 85.68 0.997 -4.31
124.875 0.996 -5.382 0.094 84.606 0.094 84.606 0.996 -5.382
149.833 0.994 -6.451 0.112 83.534 0.112 83.534 0.994 -6.451
174.792 0.991 -7.516 0.131 82.467 0.131 82.467 0.991 -7.516
199.75 0.989 -8.577 0.149 81.403 0.149 81.403 0.989 -8.577
224.708 0.986 -9.633 0.167 80.344 0.167 80.344 0.986 -9.633
249.667 0.983 -10.684 0.185 79.291 0.185 79.291 0.983 -10.684
274.625 0.979 -11.729 0.203 78.243 0.203 78.243 0.979 -11.729
299.583 0.975 -12.768 0.221 77.202 0.221 77.202 0.975 -12.768
324.542 0.971 -13.8 0.239 76.167 0.239 76.167 0.971 -13.8
349.5 0.967 -14.825 0.256 75.14 0.256 75.14 0.967 -14.825
374.458 0.962 -15.842 0.273 74.12 0.273 74.12 0.962 -15.842
399.417 0.957 -16.851 0.29 73.109 0.29 73.109 0.957 -16.851
424.375 0.952 -17.852 0.307 72.106 0.307 72.106 0.952 -17.852
449.333 0.946 -18.843 0.323 71.112 0.323 71.112 0.946 -18.843
474.292 0.94 -19.825 0.339 70.127 0.339 70.127 0.94 -19.825
499.25 0.935 -20.798 0.355 69.152 0.355 69.152 0.935 -20.798
524.208 0.928 -21.761 0.371 68.186 0.371 68.186 0.928 -21.761
549.167 0.922 -22.714 0.386 67.231 0.386 67.231 0.922 -22.714
574.125 0.916 -23.657 0.401 66.285 0.401 66.285 0.916 -23.657
599.083 0.909 -24.589 0.416 65.351 0.416 65.351 0.909 -24.589
624.042 0.902 -25.51 0.431 64.427 0.431 64.427 0.902 -25.51
649 0.895 -26.421 0.445 63.514 0.445 63.514 0.895 -26.421
673.958 0.888 -27.32 0.459 62.611 0.459 62.611 0.888 -27.32
698.917 0.881 -28.209 0.473 61.721 0.473 61.721 0.881 -28.209
723.875 0.873 -29.086 0.486 60.841 0.486 60.841 0.873 -29.086
748.833 0.866 -29.951 0.499 59.972 0.499 59.972 0.866 -29.951
773.792 0.858 -30.806 0.512 59.116 0.512 59.116 0.858 -30.806
798.75 0.851 -31.649 0.525 58.27 0.525 58.27 0.851 -31.649
823.708 0.843 -32.48 0.537 57.436 0.537 57.436 0.843 -32.48
848.667 0.835 -33.3 0.549 56.613 0.549 56.613 0.835 -33.3
873.625 0.827 -34.109 0.561 55.802 0.561 55.802 0.827 -34.109
898.583 0.819 -34.906 0.572 55.002 0.572 55.002 0.819 -34.906
923.542 0.811 -35.691 0.583 54.214 0.583 54.214 0.811 -35.691
948.5 0.803 -36.466 0.594 53.437 0.594 53.437 0.803 -36.466
973.458 0.795 -37.229 0.605 52.671 0.605 52.671 0.795 -37.229
998.417 0.787 -37.981 0.615 51.916 0.615 51.916 0.787 -37.981
1023.375 0.779 -38.721 0.626 51.173 0.626 51.173 0.779 -38.721
1048.333 0.771 -39.451 0.635 50.44 0.635 50.44 0.771 -39.451
1073.292 0.763 -40.17 0.645 49.719 0.645 49.719 0.763 -40.17
1098.25 0.755 -40.878 0.654 49.008 0.654 49.008 0.755 -40.878
1123.208 0.747 -41.575 0.664 48.308 0.664 48.308 0.747 -41.575
1148.167 0.739 -42.262 0.673 47.618 0.673 47.618 0.739 -42.262
1173.125 0.731 -42.938 0.681 46.939 0.681 46.939 0.731 -42.938
1198.083 0.723 -43.604 0.69 46.27 0.69 46.27 0.723 -43.604
1223.042 0.715 -44.259 0.698 45.612 0.698 45.612 0.715 -44.259
1248 0.707 -44.905 0.706 44.963 0.706 44.963 0.707 -44.905
1272.958 0.699 -45.541 0.714 44.325 0.714 44.325 0.699 -45.541
1297.917 0.691 -46.166 0.721 43.696 0.721 43.696 0.691 -46.166
1322.875 0.683 -46.783 0.729 43.077 0.729 43.077 0.683 -46.783
1347.833 0.675 -47.39 0.736 42.467 0.736 42.467 0.675 -47.39
1372.792 0.667 -47.987 0.743 41.866 0.743 41.866 0.667 -47.987
1397.75 0.66 -48.575 0.75 41.275 0.75 41.275 0.66 -48.575
1422.708 0.652 -49.155 0.756 40.692 0.756 40.692 0.652 -49.155
1447.667 0.644 -49.725 0.763 40.119 0.763 40.119 0.644 -49.725
1472.625 0.637 -50.287 0.769 39.554 0.769 39.554 0.637 -50.287
1497.583 0.629 -50.84 0.775 38.997 0.775 38.997 0.629 -50.84
1522.542 0.622 -51.385 0.781 38.449 0.781 38.449 0.622 -51.385
1547.5 0.614 -51.922 0.787 37.909 0.787 37.909 0.614 -51.922
1572.458 0.607 -52.45 0.793 37.378 0.793 37.378 0.607 -52.45
1597.417 0.6 -52.971 0.798 36.854 0.798 36.854 0.6 -52.971
1622.375 0.593 -53.484 0.804 36.338 0.804 36.338 0.593 -53.484
1647.333 0.585 -53.989 0.809 35.829 0.809 35.829 0.585 -53.989
1672.292 0.578 -54.486 0.814 35.328 0.814 35.328 0.578 -54.486
1697.25 0.571 -54.977 0.819 34.834 0.819 34.834 0.571 -54.977
1722.208 0.564 -55.46 0.824 34.348 0.824 34.348 0.564 -55.46
1747.167 0.557 -55.936 0.828 33.868 0.828 33.868 0.557 -55.936
1772.125 0.55 -56.405 0.833 33.396 0.833 33.396 0.55 -56.405
1797.083 0.544 -56.867 0.837 32.93 0.837 32.93 0.544 -56.867
1822.042 0.537 -57.323 0.842 32.471 0.842 32.471 0.537 -57.323
1847 0.53 -57.772 0.846 32.018 0.846 32.018 0.53 -57.772
1871.958 0.524 -58.214 0.85 31.572 0.85 31.572 0.524 -58.214
1896.917 0.517 -58.651 0.854 31.132 0.854 31.132 0.517 -58.651
1921.875 0.511 -59.081 0.858 30.698 0.858 30.698 0.511 -59.081
1946.833 0.504 -59.505 0.862 30.27 0.862 30.27 0.504 -59.505
1971.792 0.498 -59.923 0.865 29.848 0.865 29.848 0.498 -59.923
1996.75 0.491 -60.336 0.869 29.431 0.869 29.431 0.491 -60.336
2021.708 0.485 -60.742 0.872 29.021 0.872 29.021 0.485 -60.742
2046.667 0.479 -61.144 0.876 28.615 0.876 28.615 0.479 -61.144
2071.625 0.473 -61.539 0.879 28.216 0.879 28.216 0.473 -61.539
2096.583 0.467 -61.93 0.882 27.821 0.882 27.821 0.467 -61.93
2121.542 0.461 -62.315 0.886 27.432 0.886 27.432 0.461 -62.315
2146.5 0.455 -62.695 0.889 27.047 0.889 27.047 0.455 -62.695
2171.458 0.449 -63.07 0.892 26.668 0.892 26.668 0.449 -63.07
2196.417 0.443 -63.44 0.894 26.294 0.894 26.294 0.443 -63.44
2221.375 0.437 -63.805 0.897 25.924 0.897 25.924 0.437 -63.805
2246.333 0.431 -64.166 0.9 25.559 0.9 25.559 0.431 -64.166
2271.292 0.426 -64.522 0.903 25.199 0.903 25.199 0.426 -64.522
2296.25 0.42 -64.873 0.905 24.843 0.905 24.843 0.42 -64.873
2321.208 0.415 -65.22 0.908 24.492 0.908 24.492 0.415 -65.22
2346.167 0.409 -65.562 0.91 24.145 0.91 24.145 0.409 -65.562
2371.125 0.404 -65.9 0.913 23.802 0.913 23.802 0.404 -65.9
2396.083 0.398 -66.234 0.915 23.463 0.915 23.463 0.398 -66.234
2421.042 0.393 -66.564 0.918 23.128 0.918 23.128 0.393 -66.564
2446 0.387 -66.89 0.92 22.798 0.92 22.798 0.387 -66.89
2470.958 0.382 -67.211 0.922 22.471 0.922 22.471 0.382 -67.211
2495.917 0.377 -67.529 0.924 22.148 0.924 22.148 0.377 -67.529
2520.875 0.372 -67.843 0.926 21.828 0.926 21.828 0.372 -67.843
2545.833 0.367 -68.153 0.928 21.513 0.928 21.513 0.367 -68.153
2570.792 0.362 -68.46 0.93 21.201 0.93 21.201 0.362 -68.46
2595.75 0.357 -68.763 0.932 20.892 0.932 20.892 0.357 -68.763
2620.708 0.352 -69.062 0.934 20.588 0.934 20.588 0.352 -69.062
2645.667 0.347 -69.358 0.936 20.286 0.936 20.286 0.347 -69.358
2670.625 0.342 -69.651 0.938 19.988 0.938 19.988 0.342 -69.651
2695.583 0.337 -69.94 0.939 19.693 0.939 19.693 0.337 -69.94
2720.542 0.332 -70.226 0.941 19.401 0.941 19.401 0.332 -70.226
2745.5 0.327 -70.508 0.943 19.112 0.943 19.112 0.327 -70.508
2770.458 0.323 -70.788 0.944 18.827 0.944 18.827 0.323 -70.788
2795.417 0.318 -71.064 0.946 18.544 0.946 18.544 0.318 -71.064
2820.375 0.313 -71.337 0.947 18.264 0.947 18.264 0.313 -71.337
2845.333 0.309 -71.607 0.949 17.988 0.949 17.988 0.309 -71.607
2870.292 0.304 -71.874 0.95 17.714 0.95 17.714 0.304 -71.874
2895.25 0.3 -72.139 0.952 17.443 0.952 17.443 0.3 -72.139
2920.208 0.295 -72.4 0.953 17.175 0.953 17.175 0.295 -72.4
2945.167 0.291 -72.658 0.955 16.909 0.955 16.909 0.291 -72.658
2970.125 0.286 -72.914 0.956 16.646 0.956 16.646 0.286 -72.914
2995.083 0.282 -73.167 0.957 16.386 0.957 16.386 0.282 -73.167
3020.042 0.278 -73.417 0.958 16.128 0.958 16.128 0.278 -73.417
3045 0.274 -73.665 0.96 15.872 0.96 15.872 0.274 -73.665
3069.958 0.269 -73.91 0.961 15.62 0.961 15.62 0.269 -73.91
3094.917 0.265 -74.152 0.962 15.369 0.962 15.369 0.265 -74.152
3119.875 0.261 -74.392 0.963 15.121 0.963 15.121 0.261 -74.392
3144.833 0.257 -74.63 0.964 14.875 0.964 14.875 0.257 -74.63
3169.792 0.253 -74.864 0.965 14.632 0.965 14.632 0.253 -74.864
3194.75 0.249 -75.097 0.966 14.391 0.966 14.391 0.249 -75.097
3219.708 0.244 -75.327 0.967 14.152 0.967 14.152 0.244 -75.327
3244.667 0.24 -75.555 0.968 13.915 0.968 13.915 0.24 -75.555
3269.625 0.237 -75.78 0.969 13.68 0.969 13.68 0.237 -75.78
3294.583 0.233 -76.003 0.97 13.447 0.97 13.447 0.233 -76.003
3319.542 0.229 -76.223 0.971 13.217 0.971 13.217 0.229 -76.223
3344.5 0.225 -76.442 0.972 12.988 0.972 12.988 0.225 -76.442
3369.458 0.221 -76.658 0.973 12.761 0.973 12.761 0.221 -76.658
3394.417 0.217 -76.872 0.974 12.537 0.974 12.537 0.217 -76.872
3419.375 0.213 -77.084 0.975 12.314 0.975 12.314 0.213 -77.084
3444.333 0.21 -77.293 0.976 12.093 0.976 12.093 0.21 -77.293
3469.292 0.206 -77.501 0.976 11.874 0.976 11.874 0.206 -77.501
3494.25 0.202 -77.706 0.977 11.657 0.977 11.657 0.202 -77.706
3519.208 0.198 -77.909 0.978 11.441 0.978 11.441 0.198 -77.909
3544.167 0.195 -78.11 0.979 11.228 0.979 11.228 0.195 -78.11
3569.125 0.191 -78.309 0.979 11.016 0.979 11.016 0.191 -78.309
3594.083 0.187 -78.506 0.98 10.805 0.98 10.805 0.187 -78.506
3619.042 0.184 -78.7 0.981 10.597 0.981 10.597 0.184 -78.7
3644 0.18 -78.893 0.981 10.39 0.981 10.39 0.18 -78.893
3668.958 0.177 -79.083 0.982 10.185 0.982 10.185 0.177 -79.083
3693.917 0.173 -79.272 0.983 9.981 0.983 9.981 0.173 -79.272
3718.875 0.17 -79.458 0.983 9.779 0.983 9.779 0.17 -79.458
3743.833 0.166 -79.643 0.984 9.578 0.984 9.578 0.166 -79.643
3768.792 0.163 -79.825 0.984 9.379 0.984 9.379 0.163 -79.825
3793.75 0.16 -80.005 0.985 9.181 0.985 9.181 0.16 -80.005
3818.708 0.156 -80.183 0.985 8.985 0.985 8.985 0.156 -80.183
3843.667 0.153 -80.359 0.986 8.791 0.986 8.791 0.153 -80.359
3868.625 0.15 -80.533 0.986 8.597 0.986 8.597 0.15 -80.533
3893.583 0.146 -80.705 0.987 8.405 0.987 8.405 0.146 -80.705
3918.542 0.143 -80.874 0.987 8.215 0.987 8.215 0.143 -80.874
3943.5 0.14 -81.042 0.988 8.026 0.988 8.026 0.14 -81.042
3968.458 0.136 -81.207 0.988 7.838 0.988 7.838 0.136 -81.207
3993.417 0.133 -81.37 0.989 7.651 0.989 7.651 0.133 -81.37
4018.375 0.13 -81.53 0.989 7.466 0.989 7.466 0.13 -81.53
4043.333 0.127 -81.689 0.99 7.282 0.99 7.282 0.127 -81.689
4068.292 0.124 -81.845 0.99 7.1 0.99 7.1 0.124 -81.845
4093.25 0.12 -81.998 0.99 6.918 0.99 6.918 0.12 -81.998
4118.208 0.117 -82.149 0.991 6.738 0.991 6.738 0.117 -82.149
4143.167 0.114 -82.297 0.991 6.559 0.991 6.559 0.114 -82.297
4168.125 0.111 -82.443 0.992 6.381 0.992 6.381 0.111 -82.443
4193.083 0.108 -82.586 0.992 6.204 0.992 6.204 0.108 -82.586
4218.042 0.105 -82.726 0.992 6.029 0.992 6.029 0.105 -82.726
4243 0.102 -82.863 0.993 5.854 0.993 5.854 0.102 -82.863
4267.958 0.099 -82.997 0.993 5.681 0.993 5.681 0.099 -82.997
4292.917 0.096 -83.128 0.993 5.509 0.993 5.509 0.096 -83.128
4317.875 0.093 -83.255 0.993 5.338 0.993 5.338 0.093 -83.255
4342.833 0.09 -83.378 0.994 5.168 0.994 5.168 0.09 -83.378
4367.792 0.087 -83.498 0.994 4.999 0.994 4.999 0.087 -83.498
4392.75 0.084 -83.613 0.994 4.831 0.994 4.831 0.084 -83.613
4417.708 0.081 -83.724 0.994 4.664 0.994 4.664 0.081 -83.724
4442.667 0.078 -83.831 0.995 4.498 0.995 4.498 0.078 -83.831
4467.625 0.076 -83.932 0.995 4.333 0.995 4.333 0.076 -83.932
4492.583 0.073 -84.027 0.995 4.169 0.995 4.169 0.073 -84.027
4517.542 0.07 -84.117 0.995 4.006 0.995 4.006 0.07 -84.117
4542.5 0.067 -84.199 0.995 3.844 0.995 3.844 0.067 -84.199
4567.458 0.064 -84.275 0.996 3.683 0.996 3.683 0.064 -84.275
4592.417 0.061 -84.342 0.996 3.523 0.996 3.523 0.061 -84.342
4617.375 0.059 -84.4 0.996 3.364 0.996 3.364 0.059 -84.4
4642.333 0.056 -84.448 0.996 3.206 0.996 3.206 0.056 -84.448
4667.292 0.053 -84.484 0.996 3.048 0.996 3.048 0.053 -84.484
4692.25 0.051 -84.507 0.996 2.892 0.996 2.892 0.051 -84.507
4717.208 0.048 -84.514 0.997 2.736 0.997 2.736 0.048 -84.514
4742.167 0.045 -84.504 0.997 2.581 0.997 2.581 0.045 -84.504
4767.125 0.042 -84.473 0.997 2.427 0.997 2.427 0.042 -84.473
4792.083 0.04 -84.418 0.997 2.274 0.997 2.274 0.04 -84.418
4817.042 0.037 -84.333 0.997 2.122 0.997 2.122 0.037 -84.333
4842 0.034 -84.213 0.997 1.97 0.997 1.97 0.034 -84.213
4866.958 0.032 -84.048 0.997 1.82 0.997 1.82 0.032 -84.048
4891.917 0.029 -83.828 0.997 1.67 0.997 1.67 0.029 -83.828
4916.875 0.027 -83.538 0.997 1.521 0.997 1.521 0.027 -83.538
4941.833 0.024 -83.155 0.997 1.372 0.997 1.372 0.024 -83.155
4966.792 0.021 -82.648 0.997 1.225 0.997 1.225 0.021 -82.648
4991.75 0.019 -81.968 0.998 1.078 0.998 1.078 0.019 -81.968
5016.708 0.016 -81.037 0.998 0.932 0.998 0.932 0.016 -81.037
5041.667 0.014 -79.724 0.998 0.787 0.998 0.787 0.014 -79.724
5066.625 0.011 -77.783 0.998 0.642 0.998 0.642 0.011 -77.783
5091.583 8.992e-3 -74.715 0.998 0.498 0.998 0.498 8.992e-3 -74.715
5116.542 6.607e-3 -69.318 0.998 0.355 0.998 0.355 6.607e-3 -69.318
5141.5 4.362e-3 -58.038 0.998 0.213 0.998 0.213 4.362e-3 -58.038
5166.458 2.606e-3 -28.204 0.998 0.071 0.998 0.071 2.606e-3 -28.204
5191.417 2.603e-3 28.08 0.998 -0.07 0.998 -0.07 2.603e-3 28.08
5216.375 4.336e-3 57.83 0.998 -0.211 0.998 -0.211 4.336e-3 57.83
5241.333 6.534e-3 69.086 0.998 -0.351 0.998 -0.351 6.534e-3 69.086
5266.292 8.849e-3 74.477 0.998 -0.49 0.998 -0.49 8.849e-3 74.477
5291.25 0.011 77.547 0.998 -0.628 0.998 -0.628 0.011 77.547
5316.208 0.014 79.492 0.998 -0.766 0.998 -0.766 0.014 79.492
5341.167 0.016 80.812 0.998 -0.903 0.998 -0.903 0.016 80.812
5366.125 0.018 81.752 0.998 -1.04 0.998 -1.04 0.018 81.752
5391.083 0.021 82.442 0.997 -1.175 0.997 -1.175 0.021 82.442
5416.042 0.023 82.961 0.997 -1.311 0.997 -1.311 0.023 82.961
5441 0.025 83.357 0.997 -1.445 0.997 -1.445 0.025 83.357
5465.958 0.028 83.662 0.997 -1.58 0.997 -1.58 0.028 83.662
5490.917 0.03 83.898 0.997 -1.713 0.997 -1.713 0.03 83.898
5515.875 0.032 84.081 0.997 -1.846 0.997 -1.846 0.032 84.081
5540.833 0.035 84.22 0.997 -1.978 0.997 -1.978 0.035 84.22
5565.792 0.037 84.325 0.997 -2.11 0.997 -2.11 0.037 84.325
5590.75 0.039 84.402 0.997 -2.241 0.997 -2.241 0.039 84.402
5615.708 0.041 84.456 0.997 -2.372 0.997 -2.372 0.041 84.456
5640.667 0.044 84.491 0.997 -2.502 0.997 -2.502 0.044 84.491
5665.625 0.046 84.51 0.997 -2.631 0.997 -2.631 0.046 84.51
5690.583 0.048 84.514 0.997 -2.76 0.997 -2.76 0.048 84.514
5715.542 0.05 84.507 0.996 -2.889 0.996 -2.889 0.05 84.507
5740.5 0.053 84.49 0.996 -3.017 0.996 -3.017 0.053 84.49
5765.458 0.055 84.463 0.996 -3.144 0.996 -3.144 0.055 84.463
5790.417 0.057 84.429 0.996 -3.271 0.996 -3.271 0.057 84.429
5815.375 0.059 84.389 0.996 -3.397 0.996 -3.397 0.059 84.389
5840.333 0.061 84.342 0.996 -3.523 0.996 -3.523 0.061 84.342
5865.292 0.064 84.29 0.996 -3.648 0.996 -3.648 0.064 84.29
5890.25 0.066 84.234 0.996 -3.773 0.996 -3.773 0.066 84.234
5915.208 0.068 84.173 0.995 -3.897 0.995 -3.897 0.068 84.173
5940.167 0.07 84.109 0.995 -4.021 0.995 -4.021 0.07 84.109
5965.125 0.072 84.041 0.995 -4.144 0.995 -4.144 0.072 84.041
5990.083 0.074 83.971 0.995 -4.267 0.995 -4.267 0.074 83.971
6015.042 0.077 83.898 0.995 -4.39 0.995 -4.39 0.077 83.898
6040 0.079 83.822 0.995 -4.512 0.995 -4.512 0.079 83.822
6064.958 0.081 83.745 0.994 -4.633 0.994 -4.633 0.081 83.745
6089.917 0.083 83.665 0.994 -4.754 0.994 -4.754 0.083 83.665
6114.875 0.085 83.584 0.994 -4.874 0.994 -4.874 0.085 83.584
6139.833 0.087 83.501 0.994 -4.994 0.994 -4.994 0.087 83.501
6164.792 0.089 83.417 0.994 -5.114 0.994 -5.114 0.089 83.417
6189.75 0.091 83.331 0.994 -5.233 0.994 -5.233 0.091 83.331
6214.708 0.093 83.245 0.993 -5.352 0.993 -5.352 0.093 83.245
6239.667 0.095 83.157 0.993 -5.47 0.993 -5.47 0.095 83.157
6264.625 0.097 83.068 0.993 -5.588 0.993 -5.588 0.097 83.068
6289.583 0.099 82.978 0.993 -5.706 0.993 -5.706 0.099 82.978
6314.542 0.101 82.888 0.993 -5.823 0.993 -5.823 0.101 82.888
6339.5 0.103 82.797 0.992 -5.939 0.992 -5.939 0.103 82.797
6364.458 0.106 82.705 0.992 -6.055 0.992 -6.055 0.106 82.705
6389.417 0.108 82.613 0.992 -6.171 0.992 -6.171 0.108 82.613
6414.375 0.11 82.52 0.992 -6.286 0.992 -6.286 0.11 82.52
6439.333 0.112 82.427 0.991 -6.401 0.991 -6.401 0.112 82.427
6464.292 0.114 82.333 0.991 -6.516 0.991 -6.516 0.114 82.333
6489.25 0.115 82.239 0.991 -6.63 0.991 -6.63 0.115 82.239
6514.208 0.117 82.144 0.991 -6.744 0.991 -6.744 0.117 82.144
6539.167 0.119 82.049 0.991 -6.857 0.991 -6.857 0.119 82.049
6564.125 0.121 81.954 0.99 -6.97 0.99 -6.97 0.121 81.954
6589.083 0.123 81.859 0.99 -7.083 0.99 -7.083 0.123 81.859
6614.042 0.125 81.763 0.99 -7.195 0.99 -7.195 0.125 81.763
6639 0.127 81.668 0.99 -7.307 0.99 -7.307 0.127 81.668
6663.958 0.129 81.572 0.989 -7.418 0.989 -7.418 0.129 81.572
6688.917 0.131 81.476 0.989 -7.529 0.989 -7.529 0.131 81.476
6713.875 0.133 81.38 0.989 -7.64 0.989 -7.64 0.133 81.38
6738.833 0.135 81.283 0.989 -7.75 0.989 -7.75 0.135 81.283
6763.792 0.137 81.187 0.988 -7.86 0.988 -7.86 0.137 81.187
6788.75 0.139 81.091 0.988 -7.97 0.988 -7.97 0.139 81.091
6813.708 0.141 80.994 0.988 -8.079 0.988 -8.079 0.141 80.994
6838.667 0.142 80.898 0.988 -8.188 0.988 -8.188 0.142 80.898
6863.625 0.144 80.801 0.987 -8.297 0.987 -8.297 0.144 80.801
6888.583 0.146 80.705 0.987 -8.405 0.987 -8.405 0.146 80.705
6913.542 0.148 80.609 0.987 -8.513 0.987 -8.513 0.148 80.609
6938.5 0.15 80.512 0.986 -8.62 0.986 -8.62 0.15 80.512
6963.458 0.152 80.416 0.986 -8.728 0.986 -8.728 0.152 80.416
6988.417 0.154 80.319 0.986 -8.835 0.986 -8.835 0.154 80.319
7013.375 0.155 80.223 0.986 -8.941 0.986 -8.941 0.155 80.223
7038.333 0.157 80.127 0.985 -9.047 0.985 -9.047 0.157 80.127
7063.292 0.159 80.031 0.985 -9.153 0.985 -9.153 0.159 80.031
7088.25 0.161 79.935 0.985 -9.259 0.985 -9.259 0.161 79.935
7113.208 0.163 79.839 0.984 -9.364 0.984 -9.364 0.163 79.839
7138.167 0.165 79.743 0.984 -9.469 0.984 -9.469 0.165 79.743
7163.125 0.166 79.647 0.984 -9.574 0.984 -9.574 0.166 79.647
7188.083 0.168 79.551 0.984 -9.678 0.984 -9.678 0.168 79.551
7213.042 0.17 79.455 0.983 -9.782 0.983 -9.782 0.17 79.455
7238 0.172 79.36 0.983 -9.886 0.983 -9.886 0.172 79.36
7262.958 0.173 79.264 0.983 -9.989 0.983 -9.989 0.173 79.264
7287.917 0.175 79.169 0.982 -10.092 0.982 -10.092 0.175 79.169
7312.875 0.177 79.074 0.982 -10.195 0.982 -10.195 0.177 79.074
7337.833 0.179 78.979 0.982 -10.297 0.982 -10.297 0.179 78.979
7362.792 0.181 78.884 0.981 -10.399 0.981 -10.399 0.181 78.884
7387.75 0.182 78.789 0.981 -10.501 0.981 -10.501 0.182 78.789
7412.708 0.184 78.695 0.981 -10.603 0.981 -10.603 0.184 78.695
7437.667 0.186 78.6 0.98 -10.704 0.98 -10.704 0.186 78.6
7462.625 0.187 78.506 0.98 -10.805 0.98 -10.805 0.187 78.506
7487.583 0.189 78.412 0.98 -10.906 0.98 -10.906 0.189 78.412
7512.542 0.191 78.318 0.979 -11.006 0.979 -11.006 0.191 78.318
7537.5 0.193 78.224 0.979 -11.106 0.979 -11.106 0.193 78.224
7562.458 0.194 78.13 0.979 -11.206 0.979 -11.206 0.194 78.13
7587.417 0.196 78.036 0.978 -11.306 0.978 -11.306 0.196 78.036
7612.375 0.198 77.943 0.978 -11.405 0.978 -11.405 0.198 77.943
7637.333 0.199 77.85 0.978 -11.504 0.978 -11.504 0.199 77.85
7662.292 0.201 77.757 0.977 -11.603 0.977 -11.603 0.201 77.757
7687.25 0.203 77.664 0.977 -11.701 0.977 -11.701 0.203 77.664
7712.208 0.205 77.571 0.977 -11.8 0.977 -11.8 0.205 77.571
7737.167 0.206 77.478 0.976 -11.898 0.976 -11.898 0.206 77.478
7762.125 0.208 77.386 0.976 -11.995 0.976 -11.995 0.208 77.386
7787.083 0.21 77.293 0.976 -12.093 0.976 -12.093 0.21 77.293
7812.042 0.211 77.201 0.975 -12.19 0.975 -12.19 0.211 77.201
7837 0.213 77.109 0.975 -12.287 0.975 -12.287 0.213 77.109
7861.958 0.214 77.018 0.974 -12.383 0.974 -12.383 0.214 77.018
7886.917 0.216 76.926 0.974 -12.48 0.974 -12.48 0.216 76.926
7911.875 0.218 76.835 0.974 -12.576 0.974 -12.576 0.218 76.835
7936.833 0.219 76.743 0.973 -12.672 0.973 -12.672 0.219 76.743
7961.792 0.221 76.652 0.973 -12.767 0.973 -12.767 0.221 76.652
7986.75 0.223 76.561 0.973 -12.863 0.973 -12.863 0.223 76.561
8011.708 0.224 76.471 0.972 -12.958 0.972 -12.958 0.224 76.471
8036.667 0.226 76.38 0.972 -13.053 0.972 -13.053 0.226 76.38
8061.625 0.227 76.29 0.972 -13.147 0.972 -13.147 0.227 76.29
8086.583 0.229 76.199 0.971 -13.242 0.971 -13.242 0.229 76.199
8111.542 0.231 76.109 0.971 -13.336 0.971 -13.336 0.231 76.109
8136.5 0.232 76.019 0.97 -13.43 0.97 -13.43 0.232 76.019
8161.458 0.234 75.93 0.97 -13.524 0.97 -13.524 0.234 75.93
8186.417 0.235 75.84 0.97 -13.617 0.97 -13.617 0.235 75.84
8211.375 0.237 75.751 0.969 -13.71 0.969 -13.71 0.237 75.751
