# MHZ S MA R 50

50 1 -0.36 6.283e-3 89.638 6.283e-3 89.638 1 -0.36
74.958 1 -0.54 9.419e-3 89.458 9.419e-3 89.458 1 -0.54
99.917 1 -0.719 0.013 89.277 0.013 89.277 1 -0.719
124.875 1 -0.899 0.016 89.097 0.016 89.097 1 -0.899
149.833 1 -1.079 0.019 88.916 0.019 88.916 1 -1.079
174.792 1 -1.259 0.022 88.735 0.022 88.735 1 -1.259
199.75 1 -1.438 0.025 88.555 0.025 88.555 1 -1.438
224.708 1 -1.618 0.028 88.374 0.028 88.374 1 -1.618
249.667 1 -1.798 0.031 88.194 0.031 88.194 1 -1.798
274.625 0.999 -1.977 0.035 88.013 0.035 88.013 0.999 -1.977
299.583 0.999 -2.157 0.038 87.833 0.038 87.833 0.999 -2.157
324.542 0.999 -2.337 0.041 87.652 0.041 87.652 0.999 -2.337
349.5 0.999 -2.517 0.044 87.471 0.044 87.471 0.999 -2.517
374.458 0.999 -2.696 0.047 87.291 0.047 87.291 0.999 -2.696
399.417 0.999 -2.876 0.05 87.11 0.05 87.11 0.999 -2.876
424.375 0.999 -3.056 0.053 86.93 0.053 86.93 0.999 -3.056
449.333 0.998 -3.236 0.056 86.749 0.056 86.749 0.998 -3.236
474.292 0.998 -3.415 0.06 86.568 0.06 86.568 0.998 -3.415
499.25 0.998 -3.595 0.063 86.388 0.063 86.388 0.998 -3.595
524.208 0.998 -3.775 0.066 86.207 0.066 86.207 0.998 -3.775
549.167 0.998 -3.955 0.069 86.026 0.069 86.026 0.998 -3.955
574.125 0.997 -4.135 0.072 85.846 0.072 85.846 0.997 -4.135
599.083 0.997 -4.315 0.075 85.665 0.075 85.665 0.997 -4.315
624.042 0.997 -4.494 0.078 85.484 0.078 85.484 0.997 -4.494
649 0.997 -4.674 0.081 85.303 0.081 85.303 0.997 -4.674
673.958 0.996 -4.854 0.085 85.123 0.085 85.123 0.996 -4.854
698.917 0.996 -5.034 0.088 84.942 0.088 84.942 0.996 -5.034
723.875 0.996 -5.214 0.091 84.761 0.091 84.761 0.996 -5.214
748.833 0.996 -5.394 0.094 84.58 0.094 84.58 0.996 -5.394
773.792 0.995 -5.574 0.097 84.4 0.097 84.4 0.995 -5.574
798.75 0.995 -5.754 0.1 84.219 0.1 84.219 0.995 -5.754
823.708 0.995 -5.934 0.103 84.038 0.103 84.038 0.995 -5.934
848.667 0.994 -6.114 0.107 83.857 0.107 83.857 0.994 -6.114
873.625 0.994 -6.294 0.11 83.676 0.11 83.676 0.994 -6.294
898.583 0.994 -6.474 0.113 83.495 0.113 83.495 0.994 -6.474
923.542 0.993 -6.654 0.116 83.315 0.116 83.315 0.993 -6.654
948.5 0.993 -6.834 0.119 83.134 0.119 83.134 0.993 -6.834
973.458 0.992 -7.014 0.122 82.953 0.122 82.953 0.992 -7.014
998.417 0.992 -7.194 0.125 82.772 0.125 82.772 0.992 -7.194
1023.375 0.992 -7.374 0.128 82.591 0.128 82.591 0.992 -7.374
1048.333 0.991 -7.554 0.131 82.41 0.131 82.41 0.991 -7.554
1073.292 0.991 -7.734 0.135 82.229 0.135 82.229 0.991 -7.734
1098.25 0.99 -7.914 0.138 82.048 0.138 82.048 0.99 -7.914
1123.208 0.99 -8.095 0.141 81.867 0.141 81.867 0.99 -8.095
1148.167 0.989 -8.275 0.144 81.686 0.144 81.686 0.989 -8.275
1173.125 0.989 -8.455 0.147 81.505 0.147 81.505 0.989 -8.455
1198.083 0.989 -8.635 0.15 81.323 0.15 81.323 0.989 -8.635
1223.042 0.988 -8.816 0.153 81.142 0.153 81.142 0.988 -8.816
1248 0.988 -8.996 0.156 80.961 0.156 80.961 0.988 -8.996
1272.958 0.987 -9.176 0.159 80.78 0.159 80.78 0.987 -9.176
1297.917 0.987 -9.357 0.163 80.599 0.163 80.599 0.987 -9.357
1322.875 0.986 -9.537 0.166 80.417 0.166 80.417 0.986 -9.537
1347.833 0.986 -9.717 0.169 80.236 0.169 80.236 0.986 -9.717
1372.792 0.985 -9.898 0.172 80.055 0.172 80.055 0.985 -9.898
1397.75 0.984 -10.078 0.175 79.874 0.175 79.874 0.984 -10.078
1422.708 0.984 -10.259 0.178 79.692 0.178 79.692 0.984 -10.259
1447.667 0.983 -10.439 0.181 79.511 0.181 79.511 0.983 -10.439
1472.625 0.983 -10.62 0.184 79.329 0.184 79.329 0.983 -10.62
1497.583 0.982 -10.8 0.187 79.148 0.187 79.148 0.982 -10.8
1522.542 0.982 -10.981 0.19 78.966 0.19 78.966 0.982 -10.981
1547.5 0.981 -11.161 0.194 78.785 0.194 78.785 0.981 -11.161
1572.458 0.98 -11.342 0.197 78.603 0.197 78.603 0.98 -11.342
1597.417 0.98 -11.523 0.2 78.422 0.2 78.422 0.98 -11.523
1622.375 0.979 -11.703 0.203 78.24 0.203 78.24 0.979 -11.703
1647.333 0.978 -11.884 0.206 78.059 0.206 78.059 0.978 -11.884
1672.292 0.978 -12.065 0.209 77.877 0.209 77.877 0.978 -12.065
1697.25 0.977 -12.246 0.212 77.695 0.212 77.695 0.977 -12.246
1722.208 0.976 -12.426 0.215 77.514 0.215 77.514 0.976 -12.426
1747.167 0.976 -12.607 0.218 77.332 0.218 77.332 0.976 -12.607
1772.125 0.975 -12.788 0.221 77.15 0.221 77.15 0.975 -12.788
1797.083 0.974 -12.969 0.224 76.968 0.224 76.968 0.974 -12.969
1822.042 0.974 -13.15 0.228 76.787 0.228 76.787 0.974 -13.15
1847 0.973 -13.331 0.231 76.605 0.231 76.605 0.973 -13.331
1871.958 0.972 -13.512 0.234 76.423 0.234 76.423 0.972 -13.512
1896.917 0.971 -13.693 0.237 76.241 0.237 76.241 0.971 -13.693
1921.875 0.971 -13.874 0.24 76.059 0.24 76.059 0.971 -13.874
1946.833 0.97 -14.055 0.243 75.877 0.243 75.877 0.97 -14.055
1971.792 0.969 -14.236 0.246 75.695 0.246 75.695 0.969 -14.236
1996.75 0.968 -14.417 0.249 75.513 0.249 75.513 0.968 -14.417
2021.708 0.967 -14.599 0.252 75.331 0.252 75.331 0.967 -14.599
2046.667 0.967 -14.78 0.255 75.148 0.255 75.148 0.967 -14.78
2071.625 0.966 -14.961 0.258 74.966 0.258 74.966 0.966 -14.961
2096.583 0.965 -15.142 0.261 74.784 0.261 74.784 0.965 -15.142
2121.542 0.964 -15.324 0.264 74.602 0.264 74.602 0.964 -15.324
2146.5 0.963 -15.505 0.267 74.42 0.267 74.42 0.963 -15.505
2171.458 0.962 -15.686 0.27 74.237 0.27 74.237 0.962 -15.686
2196.417 0.962 -15.868 0.273 74.055 0.273 74.055 0.962 -15.868
2221.375 0.961 -16.049 0.276 73.872 0.276 73.872 0.961 -16.049
2246.333 0.96 -16.231 0.28 73.69 0.28 73.69 0.96 -16.231
2271.292 0.959 -16.412 0.283 73.508 0.283 73.508 0.959 -16.412
2296.25 0.958 -16.594 0.286 73.325 0.286 73.325 0.958 -16.594
2321.208 0.957 -16.776 0.289 73.142 0.289 73.142 0.957 -16.776
2346.167 0.956 -16.957 0.292 72.96 0.292 72.96 0.956 -16.957
2371.125 0.955 -17.139 0.295 72.777 0.295 72.777 0.955 -17.139
2396.083 0.954 -17.321 0.298 72.595 0.298 72.595 0.954 -17.321
2421.042 0.953 -17.502 0.301 72.412 0.301 72.412 0.953 -17.502
2446 0.952 -17.684 0.304 72.229 0.304 72.229 0.952 -17.684
2470.958 0.951 -17.866 0.307 72.046 0.307 72.046 0.951 -17.866
2495.917 0.95 -18.048 0.31 71.863 0.31 71.863 0.95 -18.048
2520.875 0.949 -18.23 0.313 71.681 0.313 71.681 0.949 -18.23
2545.833 0.948 -18.412 0.316 71.498 0.316 71.498 0.948 -18.412
2570.792 0.947 -18.594 0.319 71.315 0.319 71.315 0.947 -18.594
2595.75 0.946 -18.776 0.322 71.132 0.322 71.132 0.946 -18.776
2620.708 0.945 -18.958 0.325 70.949 0.325 70.949 0.945 -18.958
2645.667 0.944 -19.14 0.328 70.766 0.328 70.766 0.944 -19.14
2670.625 0.943 -19.322 0.331 70.583 0.331 70.583 0.943 -19.322
2695.583 0.942 -19.504 0.334 70.399 0.334 70.399 0.942 -19.504
2720.542 0.941 -19.686 0.337 70.216 0.337 70.216 0.941 -19.686
2745.5 0.94 -19.869 0.34 70.033 0.34 70.033 0.94 -19.869
2770.458 0.939 -20.051 0.343 69.85 0.343 69.85 0.939 -20.051
2795.417 0.938 -20.233 0.346 69.666 0.346 69.666 0.938 -20.233
2820.375 0.937 -20.416 0.349 69.483 0.349 69.483 0.937 -20.416
2845.333 0.935 -20.598 0.352 69.3 0.352 69.3 0.935 -20.598
2870.292 0.934 -20.781 0.355 69.116 0.355 69.116 0.934 -20.781
2895.25 0.933 -20.963 0.358 68.933 0.358 68.933 0.933 -20.963
2920.208 0.932 -21.146 0.361 68.749 0.361 68.749 0.932 -21.146
2945.167 0.931 -21.328 0.364 68.566 0.364 68.566 0.931 -21.328
2970.125 0.93 -21.511 0.367 68.382 0.367 68.382 0.93 -21.511
2995.083 0.928 -21.693 0.37 68.198 0.37 68.198 0.928 -21.693
3020.042 0.927 -21.876 0.373 68.015 0.373 68.015 0.927 -21.876
3045 0.926 -22.059 0.376 67.831 0.376 67.831 0.926 -22.059
3069.958 0.925 -22.241 0.379 67.647 0.379 67.647 0.925 -22.241
3094.917 0.924 -22.424 0.381 67.464 0.381 67.464 0.924 -22.424
3119.875 0.922 -22.607 0.384 67.28 0.384 67.28 0.922 -22.607
3144.833 0.921 -22.79 0.387 67.096 0.387 67.096 0.921 -22.79
3169.792 0.92 -22.973 0.39 66.912 0.39 66.912 0.92 -22.973
3194.75 0.919 -23.156 0.393 66.728 0.393 66.728 0.919 -23.156
3219.708 0.917 -23.339 0.396 66.544 0.396 66.544 0.917 -23.339
3244.667 0.916 -23.522 0.399 66.36 0.399 66.36 0.916 -23.522
3269.625 0.915 -23.705 0.402 66.176 0.402 66.176 0.915 -23.705
3294.583 0.913 -23.888 0.405 65.992 0.405 65.992 0.913 -23.888
3319.542 0.912 -24.071 0.408 65.807 0.408 65.807 0.912 -24.071
3344.5 0.911 -24.254 0.411 65.623 0.411 65.623 0.911 -24.254
3369.458 0.91 -24.437 0.414 65.439 0.414 65.439 0.91 -24.437
3394.417 0.908 -24.621 0.417 65.255 0.417 65.255 0.908 -24.621
3419.375 0.907 -24.804 0.42 65.07 0.42 65.07 0.907 -24.804
3444.333 0.905 -24.987 0.422 64.886 0.422 64.886 0.905 -24.987
3469.292 0.904 -25.171 0.425 64.702 0.425 64.702 0.904 -25.171
3494.25 0.903 -25.354 0.428 64.517 0.428 64.517 0.903 -25.354
3519.208 0.901 -25.537 0.431 64.333 0.431 64.333 0.901 -25.537
3544.167 0.9 -25.721 0.434 64.148 0.434 64.148 0.9 -25.721
3569.125 0.899 -25.904 0.437 63.964 0.437 63.964 0.899 -25.904
3594.083 0.897 -26.088 0.44 63.779 0.44 63.779 0.897 -26.088
3619.042 0.896 -26.271 0.443 63.594 0.443 63.594 0.896 -26.271
3644 0.894 -26.455 0.445 63.41 0.445 63.41 0.894 -26.455
3668.958 0.893 -26.639 0.448 63.225 0.448 63.225 0.893 -26.639
3693.917 0.891 -26.822 0.451 63.04 0.451 63.04 0.891 -26.822
3718.875 0.89 -27.006 0.454 62.855 0.454 62.855 0.89 -27.006
3743.833 0.888 -27.19 0.457 62.671 0.457 62.671 0.888 -27.19
3768.792 0.887 -27.373 0.46 62.486 0.46 62.486 0.887 -27.373
3793.75 0.885 -27.557 0.463 62.301 0.463 62.301 0.885 -27.557
3818.708 0.884 -27.741 0.465 62.116 0.465 62.116 0.884 -27.741
3843.667 0.882 -27.925 0.468 61.931 0.468 61.931 0.882 -27.925
3868.625 0.881 -28.109 0.471 61.746 0.471 61.746 0.881 -28.109
3893.583 0.879 -28.293 0.474 61.561 0.474 61.561 0.879 -28.293
3918.542 0.878 -28.477 0.477 61.376 0.477 61.376 0.878 -28.477
3943.5 0.876 -28.661 0.48 61.191 0.48 61.191 0.876 -28.661
3968.458 0.875 -28.845 0.482 61.005 0.482 61.005 0.875 -28.845
3993.417 0.873 -29.029 0.485 60.82 0.485 60.82 0.873 -29.029
4018.375 0.872 -29.213 0.488 60.635 0.488 60.635 0.872 -29.213
4043.333 0.87 -29.397 0.491 60.45 0.491 60.45 0.87 -29.397
4068.292 0.868 -29.581 0.494 60.264 0.494 60.264 0.868 -29.581
4093.25 0.867 -29.765 0.496 60.079 0.496 60.079 0.867 -29.765
4118.208 0.865 -29.949 0.499 59.894 0.499 59.894 0.865 -29.949
4143.167 0.863 -30.134 0.502 59.708 0.502 59.708 0.863 -30.134
4168.125 0.862 -30.318 0.505 59.523 0.505 59.523 0.862 -30.318
4193.083 0.86 -30.502 0.508 59.337 0.508 59.337 0.86 -30.502
4218.042 0.859 -30.687 0.51 59.152 0.51 59.152 0.859 -30.687
4243 0.857 -30.871 0.513 58.966 0.513 58.966 0.857 -30.871
4267.958 0.855 -31.055 0.516 58.781 0.516 58.781 0.855 -31.055
4292.917 0.854 -31.24 0.519 58.595 0.519 58.595 0.854 -31.24
4317.875 0.852 -31.424 0.521 58.41 0.521 58.41 0.852 -31.424
4342.833 0.85 -31.608 0.524 58.224 0.524 58.224 0.85 -31.608
4367.792 0.848 -31.793 0.527 58.038 0.527 58.038 0.848 -31.793
4392.75 0.847 -31.977 0.53 57.853 0.53 57.853 0.847 -31.977
4417.708 0.845 -32.162 0.532 57.667 0.532 57.667 0.845 -32.162
4442.667 0.843 -32.346 0.535 57.481 0.535 57.481 0.843 -32.346
4467.625 0.841 -32.531 0.538 57.296 0.538 57.296 0.841 -32.531
4492.583 0.84 -32.715 0.54 57.11 0.54 57.11 0.84 -32.715
4517.542 0.838 -32.9 0.543 56.924 0.543 56.924 0.838 -32.9
4542.5 0.836 -33.085 0.546 56.738 0.546 56.738 0.836 -33.085
4567.458 0.834 -33.269 0.549 56.552 0.549 56.552 0.834 -33.269
4592.417 0.833 -33.454 0.551 56.366 0.551 56.366 0.833 -33.454
4617.375 0.831 -33.638 0.554 56.18 0.554 56.18 0.831 -33.638
4642.333 0.829 -33.823 0.557 55.994 0.557 55.994 0.829 -33.823
4667.292 0.827 -34.008 0.559 55.808 0.559 55.808 0.827 -34.008
4692.25 0.825 -34.192 0.562 55.623 0.562 55.623 0.825 -34.192
4717.208 0.824 -34.377 0.565 55.437 0.565 55.437 0.824 -34.377
4742.167 0.822 -34.562 0.567 55.25 0.567 55.25 0.822 -34.562
4767.125 0.82 -34.747 0.57 55.064 0.57 55.064 0.82 -34.747
4792.083 0.818 -34.931 0.573 54.878 0.573 54.878 0.818 -34.931
4817.042 0.816 -35.116 0.575 54.692 0.575 54.692 0.816 -35.116
4842 0.814 -35.301 0.578 54.506 0.578 54.506 0.814 -35.301
4866.958 0.812 -35.486 0.581 54.32 0.581 54.32 0.812 -35.486
4891.917 0.81 -35.67 0.583 54.134 0.583 54.134 0.81 -35.67
4916.875 0.808 -35.855 0.586 53.948 0.586 53.948 0.808 -35.855
4941.833 0.807 -36.04 0.588 53.762 0.588 53.762 0.807 -36.04
4966.792 0.805 -36.225 0.591 53.576 0.591 53.576 0.805 -36.225
4991.75 0.803 -36.41 0.594 53.389 0.594 53.389 0.803 -36.41
5016.708 0.801 -36.595 0.596 53.203 0.596 53.203 0.801 -36.595
5041.667 0.799 -36.779 0.599 53.017 0.599 53.017 0.799 -36.779
5066.625 0.797 -36.964 0.601 52.831 0.601 52.831 0.797 -36.964
5091.583 0.795 -37.149 0.604 52.645 0.604 52.645 0.795 -37.149
5116.542 0.793 -37.334 0.606 52.458 0.606 52.458 0.793 -37.334
5141.5 0.791 -37.519 0.609 52.272 0.609 52.272 0.791 -37.519
5166.458 0.789 -37.704 0.612 52.086 0.612 52.086 0.789 -37.704
5191.417 0.787 -37.888 0.614 51.9 0.614 51.9 0.787 -37.888
5216.375 0.785 -38.073 0.617 51.713 0.617 51.713 0.785 -38.073
5241.333 0.783 -38.258 0.619 51.527 0.619 51.527 0.783 -38.258
5266.292 0.781 -38.443 0.622 51.341 0.622 51.341 0.781 -38.443
5291.25 0.779 -38.628 0.624 51.155 0.624 51.155 0.779 -38.628
5316.208 0.777 -38.813 0.627 50.968 0.627 50.968 0.777 -38.813
5341.167 0.775 -38.997 0.629 50.782 0.629 50.782 0.775 -38.997
5366.125 0.773 -39.182 0.632 50.596 0.632 50.596 0.773 -39.182
5391.083 0.771 -39.367 0.634 50.409 0.634 50.409 0.771 -39.367
5416.042 0.769 -39.552 0.637 50.223 0.637 50.223 0.769 -39.552
5441 0.766 -39.737 0.639 50.037 0.639 50.037 0.766 -39.737
5465.958 0.764 -39.921 0.642 49.851 0.642 49.851 0.764 -39.921
5490.917 0.762 -40.106 0.644 49.664 0.644 49.664 0.762 -40.106
5515.875 0.76 -40.291 0.647 49.478 0.647 49.478 0.76 -40.291
5540.833 0.758 -40.476 0.649 49.292 0.649 49.292 0.758 -40.476
5565.792 0.756 -40.66 0.652 49.106 0.652 49.106 0.756 -40.66
5590.75 0.754 -40.845 0.654 48.919 0.654 48.919 0.754 -40.845
5615.708 0.752 -41.03 0.656 48.733 0.656 48.733 0.752 -41.03
5640.667 0.75 -41.214 0.659 48.547 0.659 48.547 0.75 -41.214
5665.625 0.747 -41.399 0.661 48.361 0.661 48.361 0.747 -41.399
5690.583 0.745 -41.584 0.664 48.174 0.664 48.174 0.745 -41.584
5715.542 0.743 -41.768 0.666 47.988 0.666 47.988 0.743 -41.768
5740.5 0.741 -41.953 0.669 47.802 0.669 47.802 0.741 -41.953
5765.458 0.739 -42.137 0.671 47.616 0.671 47.616 0.739 -42.137
5790.417 0.736 -42.322 0.673 47.43 0.673 47.43 0.736 -42.322
5815.375 0.734 -42.506 0.676 47.244 0.676 47.244 0.734 -42.506
5840.333 0.732 -42.691 0.678 47.058 0.678 47.058 0.732 -42.691
5865.292 0.73 -42.875 0.68 46.871 0.68 46.871 0.73 -42.875
5890.25 0.728 -43.06 0.683 46.685 0.683 46.685 0.728 -43.06
5915.208 0.725 -43.244 0.685 46.499 0.685 46.499 0.725 -43.244
5940.167 0.723 -43.428 0.687 46.313 0.687 46.313 0.723 -43.428
5965.125 0.721 -43.613 0.69 46.127 0.69 46.127 0.721 -43.613
5990.083 0.719 -43.797 0.692 45.941 0.692 45.941 0.719 -43.797
6015.042 0.716 -43.981 0.694 45.755 0.694 45.755 0.716 -43.981
6040 0.714 -44.166 0.697 45.569 0.697 45.569 0.714 -44.166
6064.958 0.712 -44.35 0.699 45.383 0.699 45.383 0.712 -44.35
6089.917 0.71 -44.534 0.701 45.198 0.701 45.198 0.71 -44.534
6114.875 0.707 -44.718 0.704 45.012 0.704 45.012 0.707 -44.718
6139.833 0.705 -44.902 0.706 44.826 0.706 44.826 0.705 -44.902
6164.792 0.703 -45.086 0.708 44.64 0.708 44.64 0.703 -45.086
6189.75 0.7 -45.27 0.71 44.454 0.71 44.454 0.7 -45.27
6214.708 0.698 -45.454 0.713 44.269 0.713 44.269 0.698 -45.454
6239.667 0.696 -45.638 0.715 44.083 0.715 44.083 0.696 -45.638
6264.625 0.693 -45.822 0.717 43.897 0.717 43.897 0.693 -45.822
6289.583 0.691 -46.006 0.719 43.712 0.719 43.712 0.691 -46.006
6314.542 0.689 -46.189 0.722 43.526 0.722 43.526 0.689 -46.189
6339.5 0.686 -46.373 0.724 43.34 0.724 43.34 0.686 -46.373
6364.458 0.684 -46.557 0.726 43.155 0.726 43.155 0.684 -46.557
6389.417 0.682 -46.74 0.728 42.969 0.728 42.969 0.682 -46.74
6414.375 0.679 -46.924 0.73 42.784 0.73 42.784 0.679 -46.924
6439.333 0.677 -47.107 0.733 42.599 0.733 42.599 0.677 -47.107
6464.292 0.674 -47.291 0.735 42.413 0.735 42.413 0.674 -47.291
6489.25 0.672 -47.474 0.737 42.228 0.737 42.228 0.672 -47.474
6514.208 0.67 -47.658 0.739 42.043 0.739 42.043 0.67 -47.658
6539.167 0.667 -47.841 0.741 41.857 0.741 41.857 0.667 -47.841
6564.125 0.665 -48.024 0.743 41.672 0.743 41.672 0.665 -48.024
6589.083 0.662 -48.207 0.746 41.487 0.746 41.487 0.662 -48.207
6614.042 0.66 -48.39 0.748 41.302 0.748 41.302 0.66 -48.39
6639 0.658 -48.573 0.75 41.117 0.75 41.117 0.658 -48.573
6663.958 0.655 -48.756 0.752 40.932 0.752 40.932 0.655 -48.756
6688.917 0.653 -48.939 0.754 40.747 0.754 40.747 0.653 -48.939
6713.875 0.65 -49.122 0.756 40.562 0.756 40.562 0.65 -49.122
6738.833 0.648 -49.304 0.758 40.378 0.758 40.378 0.648 -49.304
6763.792 0.645 -49.487 0.76 40.193 0.76 40.193 0.645 -49.487
6788.75 0.643 -49.67 0.762 40.008 0.762 40.008 0.643 -49.67
6813.708 0.64 -49.852 0.764 39.824 0.764 39.824 0.64 -49.852
6838.667 0.638 -50.034 0.766 39.639 0.766 39.639 0.638 -50.034
6863.625 0.635 -50.217 0.768 39.455 0.768 39.455 0.635 -50.217
6888.583 0.633 -50.399 0.771 39.27 0.771 39.27 0.633 -50.399
6913.542 0.63 -50.581 0.773 39.086 0.773 39.086 0.63 -50.581
6938.5 0.628 -50.763 0.775 38.902 0.775 38.902 0.628 -50.763
6963.458 0.625 -50.945 0.777 38.717 0.777 38.717 0.625 -50.945
6988.417 0.623 -51.127 0.779 38.533 0.779 38.533 0.623 -51.127
7013.375 0.62 -51.309 0.781 38.349 0.781 38.349 0.62 -51.309
7038.333 0.618 -51.491 0.783 38.165 0.783 38.165 0.618 -51.491
7063.292 0.615 -51.672 0.784 37.981 0.784 37.981 0.615 -51.672
7088.25 0.613 -51.854 0.786 37.798 0.786 37.798 0.613 -51.854
7113.208 0.61 -52.035 0.788 37.614 0.788 37.614 0.61 -52.035
7138.167 0.608 -52.217 0.79 37.43 0.79 37.43 0.608 -52.217
7163.125 0.605 -52.398 0.792 37.247 0.792 37.247 0.605 -52.398
7188.083 0.603 -52.579 0.794 37.063 0.794 37.063 0.603 -52.579
7213.042 0.6 -52.76 0.796 36.88 0.796 36.88 0.6 -52.76
7238 0.598 -52.941 0.798 36.696 0.798 36.696 0.598 -52.941
7262.958 0.595 -53.122 0.8 36.513 0.8 36.513 0.595 -53.122
7287.917 0.592 -53.303 0.802 36.33 0.802 36.33 0.592 -53.303
7312.875 0.59 -53.483 0.804 36.147 0.804 36.147 0.59 -53.483
7337.833 0.587 -53.664 0.806 35.964 0.806 35.964 0.587 -53.664
7362.792 0.585 -53.844 0.807 35.781 0.807 35.781 0.585 -53.844
7387.75 0.582 -54.024 0.809 35.598 0.809 35.598 0.582 -54.024
7412.708 0.58 -54.205 0.811 35.415 0.811 35.415 0.58 -54.205
7437.667 0.577 -54.385 0.813 35.232 0.813 35.232 0.577 -54.385
7462.625 0.574 -54.565 0.815 35.05 0.815 35.05 0.574 -54.565
7487.583 0.572 -54.745 0.817 34.867 0.817 34.867 0.572 -54.745
7512.542 0.569 -54.924 0.818 34.685 0.818 34.685 0.569 -54.924
7537.5 0.566 -55.104 0.82 34.503 0.82 34.503 0.566 -55.104
7562.458 0.564 -55.283 0.822 34.321 0.822 34.321 0.564 -55.283
7587.417 0.561 -55.463 0.824 34.139 0.824 34.139 0.561 -55.463
7612.375 0.559 -55.642 0.826 33.957 0.826 33.957 0.559 -55.642
7637.333 0.556 -55.821 0.827 33.775 0.827 33.775 0.556 -55.821
7662.292 0.553 -56 0.829 33.593 0.829 33.593 0.553 -56
7687.25 0.551 -56.179 0.831 33.411 0.831 33.411 0.551 -56.179
7712.208 0.548 -56.357 0.833 33.23 0.833 33.23 0.548 -56.357
7737.167 0.545 -56.536 0.834 33.048 0.834 33.048 0.545 -56.536
7762.125 0.543 -56.714 0.836 32.867 0.836 32.867 0.543 -56.714
7787.083 0.54 -56.893 0.838 32.686 0.838 32.686 0.54 -56.893
7812.042 0.537 -57.071 0.839 32.505 0.839 32.505 0.537 -57.071
7837 0.535 -57.249 0.841 32.324 0.841 32.324 0.535 -57.249
7861.958 0.532 -57.427 0.843 32.143 0.843 32.143 0.532 -57.427
7886.917 0.529 -57.604 0.844 31.962 0.844 31.962 0.529 -57.604
7911.875 0.527 -57.782 0.846 31.782 0.846 31.782 0.527 -57.782
7936.833 0.524 -57.959 0.848 31.601 0.848 31.601 0.524 -57.959
7961.792 0.521 -58.137 0.849 31.421 0.849 31.421 0.521 -58.137
7986.75 0.519 -58.314 0.851 31.24 0.851 31.24 0.519 -58.314
8011.708 0.516 -58.491 0.853 31.06 0.853 31.06 0.516 -58.491
8036.667 0.513 -58.668 0.854 30.88 0.854 30.88 0.513 -58.668
8061.625 0.511 -58.844 0.856 30.7 0.856 30.7 0.511 -58.844
8086.583 0.508 -59.021 0.857 30.521 0.857 30.521 0.508 -59.021
8111.542 0.505 -59.197 0.859 30.341 0.859 30.341 0.505 -59.197
8136.5 0.502 -59.373 0.861 30.162 0.861 30.162 0.502 -59.373
8161.458 0.5 -59.549 0.862 29.982 0.862 29.982 0.5 -59.549
