# MHZ S MA R 50

50 1 -0.81 0.014 89.187 0.014 89.187 1 -0.81
74.958 1 -1.214 0.021 88.782 0.021 88.782 1 -1.214
99.917 1 -1.618 0.028 88.376 0.028 88.376 1 -1.618
124.875 0.999 -2.023 0.035 87.97 0.035 87.97 0.999 -2.023
149.833 0.999 -2.427 0.042 87.565 0.042 87.565 0.999 -2.427
174.792 0.999 -2.83 0.049 87.16 0.049 87.16 0.999 -2.83
199.75 0.998 -3.234 0.056 86.755 0.056 86.755 0.998 -3.234
224.708 0.998 -3.638 0.063 86.35 0.063 86.35 0.998 -3.638
249.667 0.997 -4.041 0.07 85.945 0.07 85.945 0.997 -4.041
274.625 0.997 -4.445 0.077 85.54 0.077 85.54 0.997 -4.445
299.583 0.996 -4.848 0.085 85.136 0.085 85.136 0.996 -4.848
324.542 0.996 -5.25 0.092 84.732 0.092 84.732 0.996 -5.25
349.5 0.995 -5.653 0.099 84.328 0.099 84.328 0.995 -5.653
374.458 0.994 -6.055 0.105 83.924 0.105 83.924 0.994 -6.055
399.417 0.994 -6.457 0.112 83.521 0.112 83.521 0.994 -6.457
424.375 0.993 -6.859 0.119 83.118 0.119 83.118 0.993 -6.859
449.333 0.992 -7.26 0.126 82.715 0.126 82.715 0.992 -7.26
474.292 0.991 -7.661 0.133 82.313 0.133 82.313 0.991 -7.661
499.25 0.99 -8.062 0.14 81.911 0.14 81.911 0.99 -8.062
524.208 0.989 -8.462 0.147 81.509 0.147 81.509 0.989 -8.462
549.167 0.988 -8.862 0.154 81.108 0.154 81.108 0.988 -8.862
574.125 0.987 -9.261 0.161 80.707 0.161 80.707 0.987 -9.261
599.083 0.986 -9.66 0.168 80.307 0.168 80.307 0.986 -9.66
624.042 0.985 -10.058 0.175 79.907 0.175 79.907 0.985 -10.058
649 0.983 -10.456 0.181 79.507 0.181 79.507 0.983 -10.456
673.958 0.982 -10.854 0.188 79.109 0.188 79.109 0.982 -10.854
698.917 0.981 -11.251 0.195 78.71 0.195 78.71 0.981 -11.251
723.875 0.979 -11.647 0.202 78.312 0.202 78.312 0.979 -11.647
748.833 0.978 -12.043 0.209 77.915 0.209 77.915 0.978 -12.043
773.792 0.976 -12.439 0.215 77.518 0.215 77.518 0.976 -12.439
798.75 0.975 -12.833 0.222 77.122 0.222 77.122 0.975 -12.833
823.708 0.973 -13.228 0.229 76.726 0.229 76.726 0.973 -13.228
848.667 0.972 -13.621 0.236 76.331 0.236 76.331 0.972 -13.621
873.625 0.97 -14.014 0.242 75.937 0.242 75.937 0.97 -14.014
898.583 0.968 -14.406 0.249 75.543 0.249 75.543 0.968 -14.406
923.542 0.967 -14.798 0.255 75.15 0.255 75.15 0.967 -14.798
948.5 0.965 -15.189 0.262 74.758 0.262 74.758 0.965 -15.189
973.458 0.963 -15.579 0.269 74.366 0.269 74.366 0.963 -15.579
998.417 0.961 -15.969 0.275 73.975 0.275 73.975 0.961 -15.969
1023.375 0.959 -16.358 0.282 73.585 0.282 73.585 0.959 -16.358
1048.333 0.957 -16.746 0.288 73.196 0.288 73.196 0.957 -16.746
1073.292 0.955 -17.133 0.295 72.807 0.295 72.807 0.955 -17.133
1098.25 0.953 -17.519 0.301 72.419 0.301 72.419 0.953 -17.519
1123.208 0.951 -17.905 0.307 72.032 0.307 72.032 0.951 -17.905
1148.167 0.949 -18.29 0.314 71.645 0.314 71.645 0.949 -18.29
1173.125 0.947 -18.674 0.32 71.259 0.32 71.259 0.947 -18.674
1198.083 0.945 -19.058 0.327 70.875 0.327 70.875 0.945 -19.058
1223.042 0.943 -19.44 0.333 70.491 0.333 70.491 0.943 -19.44
1248 0.94 -19.822 0.339 70.107 0.339 70.107 0.94 -19.822
1272.958 0.938 -20.203 0.345 69.725 0.345 69.725 0.938 -20.203
1297.917 0.936 -20.583 0.352 69.344 0.352 69.344 0.936 -20.583
1322.875 0.933 -20.962 0.358 68.963 0.358 68.963 0.933 -20.962
1347.833 0.931 -21.34 0.364 68.584 0.364 68.584 0.931 -21.34
1372.792 0.929 -21.717 0.37 68.205 0.37 68.205 0.929 -21.717
1397.75 0.926 -22.094 0.376 67.827 0.376 67.827 0.926 -22.094
1422.708 0.924 -22.469 0.382 67.45 0.382 67.45 0.924 -22.469
1447.667 0.921 -22.844 0.388 67.074 0.388 67.074 0.921 -22.844
1472.625 0.918 -23.217 0.394 66.699 0.394 66.699 0.918 -23.217
1497.583 0.916 -23.59 0.4 66.325 0.4 66.325 0.916 -23.59
1522.542 0.913 -23.961 0.406 65.952 0.406 65.952 0.913 -23.961
1547.5 0.911 -24.332 0.412 65.58 0.412 65.58 0.911 -24.332
1572.458 0.908 -24.701 0.418 65.209 0.418 65.209 0.908 -24.701
1597.417 0.905 -25.07 0.424 64.838 0.424 64.838 0.905 -25.07
1622.375 0.902 -25.438 0.43 64.469 0.43 64.469 0.902 -25.438
1647.333 0.9 -25.804 0.435 64.101 0.435 64.101 0.9 -25.804
1672.292 0.897 -26.17 0.441 63.734 0.441 63.734 0.897 -26.17
1697.25 0.894 -26.534 0.447 63.368 0.447 63.368 0.894 -26.534
1722.208 0.891 -26.898 0.452 63.003 0.452 63.003 0.891 -26.898
1747.167 0.888 -27.26 0.458 62.639 0.458 62.639 0.888 -27.26
1772.125 0.885 -27.622 0.464 62.276 0.464 62.276 0.885 -27.622
1797.083 0.882 -27.982 0.469 61.914 0.469 61.914 0.882 -27.982
1822.042 0.879 -28.341 0.475 61.553 0.475 61.553 0.879 -28.341
1847 0.876 -28.699 0.48 61.193 0.48 61.193 0.876 -28.699
1871.958 0.873 -29.056 0.486 60.835 0.486 60.835 0.873 -29.056
1896.917 0.87 -29.412 0.491 60.477 0.491 60.477 0.87 -29.412
1921.875 0.867 -29.767 0.496 60.121 0.496 60.121 0.867 -29.767
1946.833 0.864 -30.121 0.502 59.765 0.502 59.765 0.864 -30.121
1971.792 0.861 -30.474 0.507 59.411 0.507 59.411 0.861 -30.474
1996.75 0.858 -30.825 0.512 59.058 0.512 59.058 0.858 -30.825
2021.708 0.855 -31.176 0.518 58.706 0.518 58.706 0.855 -31.176
2046.667 0.851 -31.525 0.523 58.355 0.523 58.355 0.851 -31.525
2071.625 0.848 -31.873 0.528 58.005 0.528 58.005 0.848 -31.873
2096.583 0.845 -32.22 0.533 57.656 0.533 57.656 0.845 -32.22
2121.542 0.842 -32.566 0.538 57.309 0.538 57.309 0.842 -32.566
2146.5 0.838 -32.911 0.543 56.962 0.543 56.962 0.838 -32.911
2171.458 0.835 -33.254 0.548 56.617 0.548 56.617 0.835 -33.254
2196.417 0.832 -33.597 0.553 56.273 0.553 56.273 0.832 -33.597
2221.375 0.828 -33.938 0.558 55.93 0.558 55.93 0.828 -33.938
2246.333 0.825 -34.278 0.563 55.588 0.563 55.588 0.825 -34.278
2271.292 0.822 -34.617 0.568 55.248 0.568 55.248 0.822 -34.617
2296.25 0.818 -34.955 0.573 54.908 0.573 54.908 0.818 -34.955
2321.208 0.815 -35.292 0.578 54.57 0.578 54.57 0.815 -35.292
2346.167 0.811 -35.627 0.583 54.233 0.583 54.233 0.811 -35.627
2371.125 0.808 -35.961 0.587 53.896 0.587 53.896 0.808 -35.961
2396.083 0.804 -36.295 0.592 53.562 0.592 53.562 0.804 -36.295
2421.042 0.801 -36.626 0.597 53.228 0.597 53.228 0.801 -36.626
2446 0.798 -36.957 0.601 52.895 0.601 52.895 0.798 -36.957
2470.958 0.794 -37.287 0.606 52.564 0.606 52.564 0.794 -37.287
2495.917 0.791 -37.615 0.61 52.234 0.61 52.234 0.791 -37.615
2520.875 0.787 -37.942 0.615 51.905 0.615 51.905 0.787 -37.942
2545.833 0.783 -38.268 0.619 51.577 0.619 51.577 0.783 -38.268
2570.792 0.78 -38.593 0.624 51.25 0.624 51.25 0.78 -38.593
2595.75 0.776 -38.917 0.628 50.925 0.628 50.925 0.776 -38.917
2620.708 0.773 -39.239 0.633 50.601 0.633 50.601 0.773 -39.239
2645.667 0.769 -39.56 0.637 50.278 0.637 50.278 0.769 -39.56
2670.625 0.766 -39.881 0.641 49.956 0.641 49.956 0.766 -39.881
2695.583 0.762 -40.199 0.645 49.635 0.645 49.635 0.762 -40.199
2720.542 0.758 -40.517 0.65 49.315 0.65 49.315 0.758 -40.517
2745.5 0.755 -40.834 0.654 48.997 0.654 48.997 0.755 -40.834
2770.458 0.751 -41.149 0.658 48.68 0.658 48.68 0.751 -41.149
2795.417 0.747 -41.463 0.662 48.364 0.662 48.364 0.747 -41.463
2820.375 0.744 -41.776 0.666 48.049 0.666 48.049 0.744 -41.776
2845.333 0.74 -42.088 0.67 47.735 0.67 47.735 0.74 -42.088
2870.292 0.736 -42.398 0.674 47.423 0.674 47.423 0.736 -42.398
2895.25 0.733 -42.708 0.678 47.111 0.678 47.111 0.733 -42.708
2920.208 0.729 -43.016 0.682 46.801 0.682 46.801 0.729 -43.016
2945.167 0.725 -43.323 0.686 46.492 0.686 46.492 0.725 -43.323
2970.125 0.722 -43.629 0.69 46.184 0.69 46.184 0.722 -43.629
2995.083 0.718 -43.933 0.694 45.878 0.694 45.878 0.718 -43.933
3020.042 0.714 -44.237 0.698 45.572 0.698 45.572 0.714 -44.237
3045 0.71 -44.539 0.701 45.268 0.701 45.268 0.71 -44.539
3069.958 0.707 -44.84 0.705 44.965 0.705 44.965 0.707 -44.84
3094.917 0.703 -45.14 0.709 44.663 0.709 44.663 0.703 -45.14
3119.875 0.699 -45.439 0.713 44.362 0.713 44.362 0.699 -45.439
3144.833 0.695 -45.736 0.716 44.062 0.716 44.062 0.695 -45.736
3169.792 0.692 -46.033 0.72 43.764 0.72 43.764 0.692 -46.033
3194.75 0.688 -46.328 0.723 43.467 0.723 43.467 0.688 -46.328
3219.708 0.684 -46.622 0.727 43.17 0.727 43.17 0.684 -46.622
3244.667 0.68 -46.915 0.73 42.875 0.73 42.875 0.68 -46.915
3269.625 0.677 -47.207 0.734 42.581 0.734 42.581 0.677 -47.207
3294.583 0.673 -47.497 0.737 42.289 0.737 42.289 0.673 -47.497
3319.542 0.669 -47.787 0.741 41.997 0.741 41.997 0.669 -47.787
3344.5 0.665 -48.075 0.744 41.706 0.744 41.706 0.665 -48.075
3369.458 0.662 -48.362 0.747 41.417 0.747 41.417 0.662 -48.362
3394.417 0.658 -48.648 0.751 41.129 0.751 41.129 0.658 -48.648
3419.375 0.654 -48.933 0.754 40.842 0.754 40.842 0.654 -48.933
3444.333 0.65 -49.217 0.757 40.556 0.757 40.556 0.65 -49.217
3469.292 0.646 -49.499 0.76 40.271 0.76 40.271 0.646 -49.499
3494.25 0.643 -49.781 0.764 39.987 0.764 39.987 0.643 -49.781
3519.208 0.639 -50.061 0.767 39.705 0.767 39.705 0.639 -50.061
3544.167 0.635 -50.34 0.77 39.423 0.77 39.423 0.635 -50.34
3569.125 0.631 -50.618 0.773 39.143 0.773 39.143 0.631 -50.618
3594.083 0.627 -50.895 0.776 38.863 0.776 38.863 0.627 -50.895
3619.042 0.624 -51.171 0.779 38.585 0.779 38.585 0.624 -51.171
3644 0.62 -51.445 0.782 38.308 0.782 38.308 0.62 -51.445
3668.958 0.616 -51.719 0.785 38.032 0.785 38.032 0.616 -51.719
3693.917 0.612 -51.991 0.788 37.757 0.788 37.757 0.612 -51.991
3718.875 0.609 -52.263 0.791 37.483 0.791 37.483 0.609 -52.263
3743.833 0.605 -52.533 0.794 37.21 0.794 37.21 0.605 -52.533
3768.792 0.601 -52.802 0.797 36.939 0.797 36.939 0.601 -52.802
3793.75 0.597 -53.07 0.799 36.668 0.799 36.668 0.597 -53.07
3818.708 0.593 -53.337 0.802 36.399 0.802 36.399 0.593 -53.337
3843.667 0.59 -53.603 0.805 36.13 0.805 36.13 0.59 -53.603
3868.625 0.586 -53.868 0.808 35.863 0.808 35.863 0.586 -53.868
3893.583 0.582 -54.132 0.81 35.596 0.81 35.596 0.582 -54.132
3918.542 0.578 -54.394 0.813 35.331 0.813 35.331 0.578 -54.394
3943.5 0.575 -54.656 0.816 35.067 0.816 35.067 0.575 -54.656
3968.458 0.571 -54.916 0.818 34.804 0.818 34.804 0.571 -54.916
3993.417 0.567 -55.176 0.821 34.541 0.821 34.541 0.567 -55.176
4018.375 0.563 -55.434 0.823 34.28 0.823 34.28 0.563 -55.434
4043.333 0.559 -55.691 0.826 34.02 0.826 34.02 0.559 -55.691
4068.292 0.556 -55.948 0.829 33.761 0.829 33.761 0.556 -55.948
4093.25 0.552 -56.203 0.831 33.503 0.831 33.503 0.552 -56.203
4118.208 0.548 -56.457 0.833 33.246 0.833 33.246 0.548 -56.457
4143.167 0.544 -56.71 0.836 32.99 0.836 32.99 0.544 -56.71
4168.125 0.541 -56.962 0.838 32.735 0.838 32.735 0.541 -56.962
4193.083 0.537 -57.213 0.841 32.481 0.841 32.481 0.537 -57.213
4218.042 0.533 -57.463 0.843 32.228 0.843 32.228 0.533 -57.463
4243 0.53 -57.712 0.845 31.976 0.845 31.976 0.53 -57.712
4267.958 0.526 -57.96 0.848 31.725 0.848 31.725 0.526 -57.96
4292.917 0.522 -58.207 0.85 31.475 0.85 31.475 0.522 -58.207
4317.875 0.518 -58.453 0.852 31.226 0.852 31.226 0.518 -58.453
4342.833 0.515 -58.698 0.854 30.978 0.854 30.978 0.515 -58.698
4367.792 0.511 -58.942 0.857 30.73 0.857 30.73 0.511 -58.942
4392.75 0.507 -59.185 0.859 30.484 0.859 30.484 0.507 -59.185
4417.708 0.504 -59.427 0.861 30.239 0.861 30.239 0.504 -59.427
4442.667 0.5 -59.668 0.863 29.995 0.863 29.995 0.5 -59.668
4467.625 0.496 -59.908 0.865 29.752 0.865 29.752 0.496 -59.908
4492.583 0.493 -60.147 0.867 29.509 0.867 29.509 0.493 -60.147
4517.542 0.489 -60.385 0.869 29.268 0.869 29.268 0.489 -60.385
4542.5 0.485 -60.621 0.871 29.028 0.871 29.028 0.485 -60.621
4567.458 0.482 -60.857 0.873 28.788 0.873 28.788 0.482 -60.857
4592.417 0.478 -61.093 0.875 28.549 0.875 28.549 0.478 -61.093
4617.375 0.474 -61.327 0.877 28.312 0.877 28.312 0.474 -61.327
4642.333 0.471 -61.56 0.879 28.075 0.879 28.075 0.471 -61.56
4667.292 0.467 -61.792 0.881 27.839 0.881 27.839 0.467 -61.792
4692.25 0.463 -62.023 0.883 27.605 0.883 27.605 0.463 -62.023
4717.208 0.46 -62.253 0.885 27.371 0.885 27.371 0.46 -62.253
4742.167 0.456 -62.483 0.887 27.137 0.887 27.137 0.456 -62.483
4767.125 0.453 -62.711 0.889 26.905 0.889 26.905 0.453 -62.711
4792.083 0.449 -62.938 0.891 26.674 0.891 26.674 0.449 -62.938
4817.042 0.445 -63.165 0.892 26.444 0.892 26.444 0.445 -63.165
4842 0.442 -63.39 0.894 26.214 0.894 26.214 0.442 -63.39
4866.958 0.438 -63.615 0.896 25.986 0.896 25.986 0.438 -63.615
4891.917 0.435 -63.838 0.898 25.758 0.898 25.758 0.435 -63.838
4916.875 0.431 -64.061 0.899 25.531 0.899 25.531 0.431 -64.061
4941.833 0.427 -64.283 0.901 25.305 0.901 25.305 0.427 -64.283
4966.792 0.424 -64.504 0.903 25.08 0.903 25.08 0.424 -64.504
4991.75 0.42 -64.724 0.904 24.856 0.904 24.856 0.42 -64.724
5016.708 0.417 -64.943 0.906 24.632 0.906 24.632 0.417 -64.943
5041.667 0.413 -65.161 0.908 24.41 0.908 24.41 0.413 -65.161
5066.625 0.41 -65.378 0.909 24.188 0.909 24.188 0.41 -65.378
5091.583 0.406 -65.595 0.911 23.967 0.911 23.967 0.406 -65.595
5116.542 0.403 -65.81 0.912 23.747 0.912 23.747 0.403 -65.81
5141.5 0.399 -66.025 0.914 23.528 0.914 23.528 0.399 -66.025
5166.458 0.396 -66.238 0.915 23.31 0.915 23.31 0.396 -66.238
5191.417 0.392 -66.451 0.917 23.092 0.917 23.092 0.392 -66.451
5216.375 0.389 -66.663 0.918 22.875 0.918 22.875 0.389 -66.663
5241.333 0.385 -66.874 0.92 22.659 0.92 22.659 0.385 -66.874
5266.292 0.382 -67.084 0.921 22.444 0.921 22.444 0.382 -67.084
5291.25 0.378 -67.293 0.923 22.23 0.923 22.23 0.378 -67.293
5316.208 0.375 -67.502 0.924 22.017 0.924 22.017 0.375 -67.502
5341.167 0.371 -67.709 0.925 21.804 0.925 21.804 0.371 -67.709
5366.125 0.368 -67.916 0.927 21.592 0.927 21.592 0.368 -67.916
5391.083 0.365 -68.122 0.928 21.381 0.928 21.381 0.365 -68.122
5416.042 0.361 -68.326 0.929 21.171 0.929 21.171 0.361 -68.326
5441 0.358 -68.531 0.931 20.961 0.931 20.961 0.358 -68.531
5465.958 0.354 -68.734 0.932 20.752 0.932 20.752 0.354 -68.734
5490.917 0.351 -68.936 0.933 20.544 0.933 20.544 0.351 -68.936
5515.875 0.348 -69.137 0.934 20.337 0.934 20.337 0.348 -69.137
5540.833 0.344 -69.338 0.936 20.131 0.936 20.131 0.344 -69.338
5565.792 0.341 -69.538 0.937 19.925 0.937 19.925 0.341 -69.538
5590.75 0.337 -69.737 0.938 19.72 0.938 19.72 0.337 -69.737
5615.708 0.334 -69.935 0.939 19.516 0.939 19.516 0.334 -69.935
5640.667 0.331 -70.132 0.941 19.312 0.941 19.312 0.331 -70.132
5665.625 0.327 -70.328 0.942 19.11 0.942 19.11 0.327 -70.328
5690.583 0.324 -70.524 0.943 18.908 0.943 18.908 0.324 -70.524
5715.542 0.321 -70.718 0.944 18.707 0.944 18.707 0.321 -70.718
5740.5 0.317 -70.912 0.945 18.506 0.945 18.506 0.317 -70.912
5765.458 0.314 -71.105 0.946 18.306 0.946 18.306 0.314 -71.105
5790.417 0.311 -71.297 0.947 18.107 0.947 18.107 0.311 -71.297
5815.375 0.308 -71.488 0.948 17.909 0.948 17.909 0.308 -71.488
5840.333 0.304 -71.679 0.949 17.711 0.949 17.711 0.304 -71.679
5865.292 0.301 -71.868 0.95 17.515 0.95 17.515 0.301 -71.868
5890.25 0.298 -72.057 0.951 17.318 0.951 17.318 0.298 -72.057
5915.208 0.294 -72.245 0.952 17.123 0.952 17.123 0.294 -72.245
5940.167 0.291 -72.432 0.953 16.928 0.953 16.928 0.291 -72.432
5965.125 0.288 -72.618 0.954 16.734 0.954 16.734 0.288 -72.618
5990.083 0.285 -72.803 0.955 16.541 0.955 16.541 0.285 -72.803
6015.042 0.281 -72.988 0.956 16.348 0.956 16.348 0.281 -72.988
6040 0.278 -73.172 0.957 16.156 0.957 16.156 0.278 -73.172
6064.958 0.275 -73.354 0.958 15.965 0.958 15.965 0.275 -73.354
6089.917 0.272 -73.536 0.959 15.774 0.959 15.774 0.272 -73.536
6114.875 0.269 -73.718 0.96 15.584 0.96 15.584 0.269 -73.718
6139.833 0.265 -73.898 0.961 15.395 0.961 15.395 0.265 -73.898
6164.792 0.262 -74.077 0.962 15.206 0.962 15.206 0.262 -74.077
6189.75 0.259 -74.256 0.963 15.018 0.963 15.018 0.259 -74.256
6214.708 0.256 -74.433 0.963 14.831 0.963 14.831 0.256 -74.433
6239.667 0.253 -74.61 0.964 14.644 0.964 14.644 0.253 -74.61
6264.625 0.25 -74.786 0.965 14.458 0.965 14.458 0.25 -74.786
6289.583 0.247 -74.961 0.966 14.273 0.966 14.273 0.247 -74.961
6314.542 0.243 -75.136 0.967 14.088 0.967 14.088 0.243 -75.136
6339.5 0.24 -75.309 0.967 13.904 0.967 13.904 0.24 -75.309
6364.458 0.237 -75.481 0.968 13.721 0.968 13.721 0.237 -75.481
6389.417 0.234 -75.653 0.969 13.538 0.969 13.538 0.234 -75.653
6414.375 0.231 -75.824 0.97 13.356 0.97 13.356 0.231 -75.824
6439.333 0.228 -75.994 0.97 13.174 0.97 13.174 0.228 -75.994
6464.292 0.225 -76.162 0.971 12.994 0.971 12.994 0.225 -76.162
6489.25 0.222 -76.33 0.972 12.813 0.972 12.813 0.222 -76.33
6514.208 0.219 -76.498 0.972 12.634 0.972 12.634 0.219 -76.498
6539.167 0.216 -76.664 0.973 12.455 0.973 12.455 0.216 -76.664
6564.125 0.213 -76.829 0.974 12.276 0.974 12.276 0.213 -76.829
6589.083 0.21 -76.993 0.974 12.098 0.974 12.098 0.21 -76.993
6614.042 0.207 -77.156 0.975 11.921 0.975 11.921 0.207 -77.156
6639 0.204 -77.319 0.976 11.744 0.976 11.744 0.204 -77.319
6663.958 0.201 -77.48 0.976 11.568 0.976 11.568 0.201 -77.48
6688.917 0.198 -77.641 0.977 11.393 0.977 11.393 0.198 -77.641
6713.875 0.195 -77.8 0.978 11.218 0.978 11.218 0.195 -77.8
6738.833 0.192 -77.958 0.978 11.044 0.978 11.044 0.192 -77.958
6763.792 0.189 -78.116 0.979 10.87 0.979 10.87 0.189 -78.116
6788.75 0.186 -78.272 0.979 10.697 0.979 10.697 0.186 -78.272
6813.708 0.183 -78.427 0.98 10.525 0.98 10.525 0.183 -78.427
6838.667 0.18 -78.581 0.98 10.353 0.98 10.353 0.18 -78.581
6863.625 0.177 -78.734 0.981 10.182 0.981 10.182 0.177 -78.734
6888.583 0.174 -78.886 0.981 10.011 0.981 10.011 0.174 -78.886
6913.542 0.171 -79.037 0.982 9.841 0.982 9.841 0.171 -79.037
6938.5 0.168 -79.186 0.982 9.671 0.982 9.671 0.168 -79.186
6963.458 0.165 -79.335 0.983 9.502 0.983 9.502 0.165 -79.335
6988.417 0.162 -79.482 0.983 9.333 0.983 9.333 0.162 -79.482
7013.375 0.159 -79.628 0.984 9.165 0.984 9.165 0.159 -79.628
7038.333 0.156 -79.772 0.984 8.998 0.984 8.998 0.156 -79.772
7063.292 0.154 -79.916 0.985 8.831 0.985 8.831 0.154 -79.916
7088.25 0.151 -80.057 0.985 8.665 0.985 8.665 0.151 -80.057
7113.208 0.148 -80.198 0.986 8.499 0.986 8.499 0.148 -80.198
7138.167 0.145 -80.337 0.986 8.334 0.986 8.334 0.145 -80.337
7163.125 0.142 -80.474 0.986 8.169 0.986 8.169 0.142 -80.474
7188.083 0.139 -80.61 0.987 8.005 0.987 8.005 0.139 -80.61
7213.042 0.136 -80.745 0.987 7.841 0.987 7.841 0.136 -80.745
7238 0.134 -80.877 0.988 7.678 0.988 7.678 0.134 -80.877
7262.958 0.131 -81.008 0.988 7.516 0.988 7.516 0.131 -81.008
7287.917 0.128 -81.138 0.988 7.354 0.988 7.354 0.128 -81.138
7312.875 0.125 -81.265 0.989 7.192 0.989 7.192 0.125 -81.265
7337.833 0.122 -81.39 0.989 7.031 0.989 7.031 0.122 -81.39
7362.792 0.12 -81.513 0.989 6.871 0.989 6.871 0.12 -81.513
7387.75 0.117 -81.635 0.99 6.711 0.99 6.711 0.117 -81.635
7412.708 0.114 -81.753 0.99 6.551 0.99 6.551 0.114 -81.753
7437.667 0.111 -81.87 0.99 6.392 0.99 6.392 0.111 -81.87
7462.625 0.109 -81.984 0.991 6.234 0.991 6.234 0.109 -81.984
7487.583 0.106 -82.095 0.991 6.076 0.991 6.076 0.106 -82.095
7512.542 0.103 -82.204 0.991 5.918 0.991 5.918 0.103 -82.204
7537.5 0.1 -82.309 0.992 5.761 0.992 5.761 0.1 -82.309
7562.458 0.098 -82.411 0.992 5.605 0.992 5.605 0.098 -82.411
7587.417 0.095 -82.51 0.992 5.449 0.992 5.449 0.095 -82.51
7612.375 0.092 -82.605 0.992 5.294 0.992 5.294 0.092 -82.605
7637.333 0.09 -82.697 0.993 5.139 0.993 5.139 0.09 -82.697
7662.292 0.087 -82.784 0.993 4.984 0.993 4.984 0.087 -82.784
7687.25 0.084 -82.866 0.993 4.83 0.993 4.83 0.084 -82.866
7712.208 0.082 -82.944 0.993 4.677 0.993 4.677 0.082 -82.944
7737.167 0.079 -83.016 0.993 4.523 0.993 4.523 0.079 -83.016
7762.125 0.076 -83.083 0.994 4.371 0.994 4.371 0.076 -83.083
7787.083 0.074 -83.143 0.994 4.219 0.994 4.219 0.074 -83.143
7812.042 0.071 -83.196 0.994 4.067 0.994 4.067 0.071 -83.196
7837 0.068 -83.241 0.994 3.916 0.994 3.916 0.068 -83.241
7861.958 0.066 -83.278 0.994 3.765 0.994 3.765 0.066 -83.278
7886.917 0.063 -83.305 0.995 3.615 0.995 3.615 0.063 -83.305
7911.875 0.061 -83.322 0.995 3.465 0.995 3.465 0.061 -83.322
7936.833 0.058 -83.326 0.995 3.316 0.995 3.316 0.058 -83.326
7961.792 0.055 -83.317 0.995 3.167 0.995 3.167 0.055 -83.317
7986.75 0.053 -83.293 0.995 3.019 0.995 3.019 0.053 -83.293
8011.708 0.05 -83.251 0.995 2.871 0.995 2.871 0.05 -83.251
8036.667 0.048 -83.189 0.995 2.723 0.995 2.723 0.048 -83.189
8061.625 0.045 -83.103 0.996 2.576 0.996 2.576 0.045 -83.103
8086.583 0.043 -82.99 0.996 2.43 0.996 2.43 0.043 -82.99
8111.542 0.04 -82.844 0.996 2.283 0.996 2.283 0.04 -82.844
8136.5 0.037 -82.659 0.996 2.138 0.996 2.138 0.037 -82.659
8161.458 0.035 -82.427 0.996 1.992 0.996 1.992 0.035 -82.427
