# MHZ S MA R 50

50 0.822 -34.682 0.569 55.273 0.569 55.273 0.822 -34.682
74.958 0.693 -46.094 0.72 43.839 0.72 43.839 0.693 -46.094
99.917 0.583 -54.223 0.811 35.686 0.811 35.686 0.583 -54.223
124.875 0.497 -60.099 0.867 29.788 0.867 29.788 0.497 -60.099
149.833 0.429 -64.466 0.902 25.397 0.902 25.397 0.429 -64.466
174.792 0.375 -67.809 0.926 22.031 0.926 22.031 0.375 -67.809
199.75 0.332 -70.436 0.942 19.38 0.942 19.38 0.332 -70.436
224.708 0.296 -72.551 0.954 17.241 0.954 17.241 0.296 -72.551
249.667 0.267 -74.287 0.963 15.479 0.963 15.479 0.267 -74.287
274.625 0.242 -75.738 0.969 14.003 0.969 14.003 0.242 -75.738
299.583 0.221 -76.968 0.974 12.746 0.974 12.746 0.221 -76.968
324.542 0.202 -78.024 0.978 11.663 0.978 11.663 0.202 -78.024
349.5 0.186 -78.941 0.981 10.717 0.981 10.717 0.186 -78.941
374.458 0.172 -79.745 0.984 9.883 0.984 9.883 0.172 -79.745
399.417 0.159 -80.456 0.986 9.142 0.986 9.142 0.159 -80.456
424.375 0.147 -81.089 0.988 8.477 0.988 8.477 0.147 -81.089
449.333 0.137 -81.657 0.989 7.876 0.989 7.876 0.137 -81.657
474.292 0.128 -82.168 0.991 7.329 0.991 7.329 0.128 -82.168
499.25 0.119 -82.631 0.992 6.829 0.992 6.829 0.119 -82.631
524.208 0.111 -83.052 0.993 6.368 0.993 6.368 0.111 -83.052
549.167 0.104 -83.436 0.994 5.943 0.994 5.943 0.104 -83.436
574.125 0.097 -83.787 0.994 5.547 0.994 5.547 0.097 -83.787
599.083 0.09 -84.108 0.995 5.179 0.995 5.179 0.09 -84.108
624.042 0.084 -84.402 0.995 4.833 0.995 4.833 0.084 -84.402
649 0.079 -84.671 0.996 4.509 0.996 4.509 0.079 -84.671
673.958 0.073 -84.917 0.996 4.203 0.996 4.203 0.073 -84.917
698.917 0.068 -85.141 0.997 3.913 0.997 3.913 0.068 -85.141
723.875 0.063 -85.344 0.997 3.638 0.997 3.638 0.063 -85.344
748.833 0.059 -85.527 0.997 3.377 0.997 3.377 0.059 -85.527
773.792 0.055 -85.689 0.997 3.128 0.997 3.128 0.055 -85.689
798.75 0.05 -85.829 0.998 2.89 0.998 2.89 0.05 -85.829
823.708 0.046 -85.947 0.998 2.662 0.998 2.662 0.046 -85.947
848.667 0.043 -86.041 0.998 2.443 0.998 2.443 0.043 -86.041
873.625 0.039 -86.109 0.998 2.232 0.998 2.232 0.039 -86.109
898.583 0.035 -86.146 0.998 2.029 0.998 2.029 0.035 -86.146
923.542 0.032 -86.147 0.998 1.834 0.998 1.834 0.032 -86.147
948.5 0.029 -86.104 0.998 1.644 0.998 1.644 0.029 -86.104
973.458 0.026 -86.005 0.999 1.461 0.999 1.461 0.026 -86.005
998.417 0.022 -85.832 0.999 1.283 0.999 1.283 0.022 -85.832
1023.375 0.019 -85.556 0.999 1.11 0.999 1.11 0.019 -85.556
1048.333 0.016 -85.132 0.999 0.942 0.999 0.942 0.016 -85.132
1073.292 0.014 -84.476 0.999 0.779 0.999 0.779 0.014 -84.476
1098.25 0.011 -83.424 0.999 0.62 0.999 0.62 0.011 -83.424
1123.208 8.186e-3 -81.609 0.999 0.465 0.999 0.465 8.186e-3 -81.609
1148.167 5.575e-3 -78.006 0.999 0.313 0.999 0.313 5.575e-3 -78.006
1173.125 3.085e-3 -68.375 0.999 0.165 0.999 0.165 3.085e-3 -68.375
1198.083 1.179e-3 -16.692 0.999 0.019 0.999 0.019 1.179e-3 -16.692
1223.042 2.421e-3 62.08 0.999 -0.123 0.999 -0.123 2.421e-3 62.08
1248 4.71e-3 75.87 0.999 -0.262 0.999 -0.262 4.71e-3 75.87
1272.958 7.048e-3 80.385 0.999 -0.399 0.999 -0.399 7.048e-3 80.385
1297.917 9.366e-3 82.545 0.999 -0.533 0.999 -0.533 9.366e-3 82.545
1322.875 0.012 83.776 0.999 -0.664 0.999 -0.664 0.012 83.776
1347.833 0.014 84.549 0.999 -0.794 0.999 -0.794 0.014 84.549
1372.792 0.016 85.064 0.999 -0.921 0.999 -0.921 0.016 85.064
1397.75 0.018 85.418 0.999 -1.047 0.999 -1.047 0.018 85.418
1422.708 0.02 85.667 0.999 -1.17 0.999 -1.17 0.02 85.667
1447.667 0.023 85.843 0.999 -1.292 0.999 -1.292 0.023 85.843
1472.625 0.025 85.966 0.999 -1.412 0.999 -1.412 0.025 85.966
1497.583 0.027 86.05 0.999 -1.53 0.999 -1.53 0.027 86.05
1522.542 0.029 86.105 0.998 -1.647 0.998 -1.647 0.029 86.105
1547.5 0.031 86.137 0.998 -1.763 0.998 -1.763 0.031 86.137
1572.458 0.033 86.15 0.998 -1.876 0.998 -1.876 0.033 86.15
1597.417 0.035 86.149 0.998 -1.989 0.998 -1.989 0.035 86.149
1622.375 0.037 86.137 0.998 -2.1 0.998 -2.1 0.037 86.137
1647.333 0.039 86.114 0.998 -2.21 0.998 -2.21 0.039 86.114
1672.292 0.04 86.084 0.998 -2.319 0.998 -2.319 0.04 86.084
1697.25 0.042 86.047 0.998 -2.427 0.998 -2.427 0.042 86.047
1722.208 0.044 86.005 0.998 -2.534 0.998 -2.534 0.044 86.005
1747.167 0.046 85.958 0.998 -2.64 0.998 -2.64 0.046 85.958
1772.125 0.048 85.907 0.998 -2.744 0.998 -2.744 0.048 85.907
1797.083 0.05 85.852 0.998 -2.848 0.998 -2.848 0.05 85.852
1822.042 0.051 85.795 0.998 -2.951 0.998 -2.951 0.051 85.795
1847 0.053 85.734 0.997 -3.053 0.997 -3.053 0.053 85.734
1871.958 0.055 85.672 0.997 -3.154 0.997 -3.154 0.055 85.672
1896.917 0.057 85.608 0.997 -3.255 0.997 -3.255 0.057 85.608
1921.875 0.059 85.542 0.997 -3.354 0.997 -3.354 0.059 85.542
1946.833 0.06 85.475 0.997 -3.453 0.997 -3.453 0.06 85.475
1971.792 0.062 85.407 0.997 -3.551 0.997 -3.551 0.062 85.407
1996.75 0.064 85.337 0.997 -3.649 0.997 -3.649 0.064 85.337
2021.708 0.065 85.267 0.997 -3.745 0.997 -3.745 0.065 85.267
2046.667 0.067 85.195 0.997 -3.842 0.997 -3.842 0.067 85.195
2071.625 0.069 85.123 0.997 -3.937 0.997 -3.937 0.069 85.123
2096.583 0.07 85.051 0.996 -4.032 0.996 -4.032 0.07 85.051
2121.542 0.072 84.977 0.996 -4.126 0.996 -4.126 0.072 84.977
2146.5 0.074 84.903 0.996 -4.22 0.996 -4.22 0.074 84.903
2171.458 0.075 84.829 0.996 -4.313 0.996 -4.313 0.075 84.829
2196.417 0.077 84.755 0.996 -4.406 0.996 -4.406 0.077 84.755
2221.375 0.078 84.68 0.996 -4.498 0.996 -4.498 0.078 84.68
2246.333 0.08 84.604 0.996 -4.59 0.996 -4.59 0.08 84.604
2271.292 0.082 84.529 0.996 -4.681 0.996 -4.681 0.082 84.529
2296.25 0.083 84.453 0.995 -4.772 0.995 -4.772 0.083 84.453
2321.208 0.085 84.377 0.995 -4.862 0.995 -4.862 0.085 84.377
2346.167 0.086 84.301 0.995 -4.952 0.995 -4.952 0.086 84.301
2371.125 0.088 84.225 0.995 -5.042 0.995 -5.042 0.088 84.225
2396.083 0.089 84.149 0.995 -5.131 0.995 -5.131 0.089 84.149
2421.042 0.091 84.073 0.995 -5.219 0.995 -5.219 0.091 84.073
2446 0.093 83.996 0.995 -5.308 0.995 -5.308 0.093 83.996
2470.958 0.094 83.92 0.994 -5.396 0.994 -5.396 0.094 83.92
2495.917 0.096 83.843 0.994 -5.483 0.994 -5.483 0.096 83.843
2520.875 0.097 83.766 0.994 -5.57 0.994 -5.57 0.097 83.766
2545.833 0.099 83.69 0.994 -5.657 0.994 -5.657 0.099 83.69
2570.792 0.1 83.613 0.994 -5.744 0.994 -5.744 0.1 83.613
2595.75 0.102 83.537 0.994 -5.83 0.994 -5.83 0.102 83.537
2620.708 0.103 83.46 0.994 -5.916 0.994 -5.916 0.103 83.46
2645.667 0.105 83.383 0.993 -6.001 0.993 -6.001 0.105 83.383
2670.625 0.106 83.307 0.993 -6.087 0.993 -6.087 0.106 83.307
2695.583 0.108 83.23 0.993 -6.172 0.993 -6.172 0.108 83.23
2720.542 0.109 83.154 0.993 -6.256 0.993 -6.256 0.109 83.154
2745.5 0.11 83.077 0.993 -6.341 0.993 -6.341 0.11 83.077
2770.458 0.112 83.001 0.993 -6.425 0.993 -6.425 0.112 83.001
2795.417 0.113 82.925 0.992 -6.509 0.992 -6.509 0.113 82.925
2820.375 0.115 82.848 0.992 -6.592 0.992 -6.592 0.115 82.848
2845.333 0.116 82.772 0.992 -6.675 0.992 -6.675 0.116 82.772
2870.292 0.118 82.696 0.992 -6.759 0.992 -6.759 0.118 82.696
2895.25 0.119 82.619 0.992 -6.841 0.992 -6.841 0.119 82.619
2920.208 0.121 82.543 0.992 -6.924 0.992 -6.924 0.121 82.543
2945.167 0.122 82.467 0.991 -7.006 0.991 -7.006 0.122 82.467
2970.125 0.123 82.391 0.991 -7.089 0.991 -7.089 0.123 82.391
2995.083 0.125 82.315 0.991 -7.17 0.991 -7.17 0.125 82.315
3020.042 0.126 82.24 0.991 -7.252 0.991 -7.252 0.126 82.24
3045 0.128 82.164 0.991 -7.334 0.991 -7.334 0.128 82.164
3069.958 0.129 82.088 0.991 -7.415 0.991 -7.415 0.129 82.088
3094.917 0.13 82.012 0.99 -7.496 0.99 -7.496 0.13 82.012
3119.875 0.132 81.937 0.99 -7.577 0.99 -7.577 0.132 81.937
3144.833 0.133 81.861 0.99 -7.658 0.99 -7.658 0.133 81.861
3169.792 0.135 81.786 0.99 -7.738 0.99 -7.738 0.135 81.786
3194.75 0.136 81.711 0.99 -7.818 0.99 -7.818 0.136 81.711
3219.708 0.137 81.635 0.989 -7.898 0.989 -7.898 0.137 81.635
3244.667 0.139 81.56 0.989 -7.978 0.989 -7.978 0.139 81.56
3269.625 0.14 81.485 0.989 -8.058 0.989 -8.058 0.14 81.485
3294.583 0.142 81.41 0.989 -8.138 0.989 -8.138 0.142 81.41
3319.542 0.143 81.335 0.989 -8.217 0.989 -8.217 0.143 81.335
3344.5 0.144 81.26 0.988 -8.296 0.988 -8.296 0.144 81.26
3369.458 0.146 81.185 0.988 -8.375 0.988 -8.375 0.146 81.185
3394.417 0.147 81.111 0.988 -8.454 0.988 -8.454 0.147 81.111
3419.375 0.148 81.036 0.988 -8.533 0.988 -8.533 0.148 81.036
3444.333 0.15 80.961 0.988 -8.612 0.988 -8.612 0.15 80.961
3469.292 0.151 80.887 0.987 -8.69 0.987 -8.69 0.151 80.887
3494.25 0.152 80.812 0.987 -8.768 0.987 -8.768 0.152 80.812
3519.208 0.154 80.738 0.987 -8.846 0.987 -8.846 0.154 80.738
3544.167 0.155 80.664 0.987 -8.924 0.987 -8.924 0.155 80.664
3569.125 0.156 80.59 0.987 -9.002 0.987 -9.002 0.156 80.59
3594.083 0.158 80.515 0.986 -9.08 0.986 -9.08 0.158 80.515
3619.042 0.159 80.441 0.986 -9.157 0.986 -9.157 0.159 80.441
3644 0.16 80.367 0.986 -9.235 0.986 -9.235 0.16 80.367
3668.958 0.162 80.294 0.986 -9.312 0.986 -9.312 0.162 80.294
3693.917 0.163 80.22 0.985 -9.389 0.985 -9.389 0.163 80.22
3718.875 0.164 80.146 0.985 -9.466 0.985 -9.466 0.164 80.146
3743.833 0.166 80.072 0.985 -9.543 0.985 -9.543 0.166 80.072
3768.792 0.167 79.999 0.985 -9.62 0.985 -9.62 0.167 79.999
3793.75 0.168 79.925 0.985 -9.696 0.985 -9.696 0.168 79.925
3818.708 0.17 79.852 0.984 -9.773 0.984 -9.773 0.17 79.852
3843.667 0.171 79.778 0.984 -9.849 0.984 -9.849 0.171 79.778
3868.625 0.172 79.705 0.984 -9.925 0.984 -9.925 0.172 79.705
3893.583 0.174 79.632 0.984 -10.001 0.984 -10.001 0.174 79.632
3918.542 0.175 79.559 0.983 -10.077 0.983 -10.077 0.175 79.559
3943.5 0.176 79.486 0.983 -10.153 0.983 -10.153 0.176 79.486
3968.458 0.178 79.413 0.983 -10.229 0.983 -10.229 0.178 79.413
3993.417 0.179 79.34 0.983 -10.305 0.983 -10.305 0.179 79.34
4018.375 0.18 79.267 0.983 -10.38 0.983 -10.38 0.18 79.267
4043.333 0.181 79.194 0.982 -10.455 0.982 -10.455 0.181 79.194
4068.292 0.183 79.121 0.982 -10.531 0.982 -10.531 0.183 79.121
4093.25 0.184 79.049 0.982 -10.606 0.982 -10.606 0.184 79.049
4118.208 0.185 78.976 0.982 -10.681 0.982 -10.681 0.185 78.976
4143.167 0.187 78.904 0.981 -10.756 0.981 -10.756 0.187 78.904
4168.125 0.188 78.831 0.981 -10.831 0.981 -10.831 0.188 78.831
4193.083 0.189 78.759 0.981 -10.906 0.981 -10.906 0.189 78.759
4218.042 0.19 78.686 0.981 -10.98 0.981 -10.98 0.19 78.686
4243 0.192 78.614 0.98 -11.055 0.98 -11.055 0.192 78.614
4267.958 0.193 78.542 0.98 -11.129 0.98 -11.129 0.193 78.542
4292.917 0.194 78.47 0.98 -11.203 0.98 -11.203 0.194 78.47
4317.875 0.196 78.398 0.98 -11.278 0.98 -11.278 0.196 78.398
4342.833 0.197 78.326 0.979 -11.352 0.979 -11.352 0.197 78.326
4367.792 0.198 78.254 0.979 -11.426 0.979 -11.426 0.198 78.254
4392.75 0.199 78.182 0.979 -11.5 0.979 -11.5 0.199 78.182
4417.708 0.201 78.111 0.979 -11.574 0.979 -11.574 0.201 78.111
4442.667 0.202 78.039 0.978 -11.647 0.978 -11.647 0.202 78.039
4467.625 0.203 77.967 0.978 -11.721 0.978 -11.721 0.203 77.967
4492.583 0.204 77.896 0.978 -11.795 0.978 -11.795 0.204 77.896
4517.542 0.206 77.824 0.978 -11.868 0.978 -11.868 0.206 77.824
4542.5 0.207 77.753 0.977 -11.941 0.977 -11.941 0.207 77.753
4567.458 0.208 77.681 0.977 -12.015 0.977 -12.015 0.208 77.681
4592.417 0.209 77.61 0.977 -12.088 0.977 -12.088 0.209 77.61
4617.375 0.211 77.539 0.976 -12.161 0.976 -12.161 0.211 77.539
4642.333 0.212 77.468 0.976 -12.234 0.976 -12.234 0.212 77.468
4667.292 0.213 77.397 0.976 -12.307 0.976 -12.307 0.213 77.397
4692.25 0.214 77.326 0.976 -12.38 0.976 -12.38 0.214 77.326
4717.208 0.216 77.255 0.975 -12.452 0.975 -12.452 0.216 77.255
4742.167 0.217 77.184 0.975 -12.525 0.975 -12.525 0.217 77.184
4767.125 0.218 77.113 0.975 -12.598 0.975 -12.598 0.218 77.113
4792.083 0.219 77.042 0.975 -12.67 0.975 -12.67 0.219 77.042
4817.042 0.221 76.972 0.974 -12.742 0.974 -12.742 0.221 76.972
4842 0.222 76.901 0.974 -12.815 0.974 -12.815 0.222 76.901
4866.958 0.223 76.83 0.974 -12.887 0.974 -12.887 0.223 76.83
4891.917 0.224 76.76 0.973 -12.959 0.973 -12.959 0.224 76.76
4916.875 0.225 76.689 0.973 -13.031 0.973 -13.031 0.225 76.689
4941.833 0.227 76.619 0.973 -13.103 0.973 -13.103 0.227 76.619
4966.792 0.228 76.549 0.973 -13.175 0.973 -13.175 0.228 76.549
4991.75 0.229 76.479 0.972 -13.247 0.972 -13.247 0.229 76.479
5016.708 0.23 76.408 0.972 -13.318 0.972 -13.318 0.23 76.408
5041.667 0.232 76.338 0.972 -13.39 0.972 -13.39 0.232 76.338
5066.625 0.233 76.268 0.971 -13.462 0.971 -13.462 0.233 76.268
5091.583 0.234 76.198 0.971 -13.533 0.971 -13.533 0.234 76.198
5116.542 0.235 76.128 0.971 -13.604 0.971 -13.604 0.235 76.128
5141.5 0.236 76.058 0.971 -13.676 0.971 -13.676 0.236 76.058
5166.458 0.238 75.989 0.97 -13.747 0.97 -13.747 0.238 75.989
5191.417 0.239 75.919 0.97 -13.818 0.97 -13.818 0.239 75.919
5216.375 0.24 75.849 0.97 -13.889 0.97 -13.889 0.24 75.849
5241.333 0.241 75.78 0.969 -13.96 0.969 -13.96 0.241 75.78
5266.292 0.242 75.71 0.969 -14.031 0.969 -14.031 0.242 75.71
5291.25 0.244 75.64 0.969 -14.102 0.969 -14.102 0.244 75.64
5316.208 0.245 75.571 0.968 -14.173 0.968 -14.173 0.245 75.571
5341.167 0.246 75.502 0.968 -14.243 0.968 -14.243 0.246 75.502
5366.125 0.247 75.432 0.968 -14.314 0.968 -14.314 0.247 75.432
5391.083 0.248 75.363 0.968 -14.385 0.968 -14.385 0.248 75.363
5416.042 0.25 75.294 0.967 -14.455 0.967 -14.455 0.25 75.294
5441 0.251 75.225 0.967 -14.525 0.967 -14.525 0.251 75.225
5465.958 0.252 75.156 0.967 -14.596 0.967 -14.596 0.252 75.156
5490.917 0.253 75.087 0.966 -14.666 0.966 -14.666 0.253 75.087
5515.875 0.254 75.018 0.966 -14.736 0.966 -14.736 0.254 75.018
5540.833 0.256 74.949 0.966 -14.806 0.966 -14.806 0.256 74.949
5565.792 0.257 74.88 0.965 -14.876 0.965 -14.876 0.257 74.88
5590.75 0.258 74.811 0.965 -14.946 0.965 -14.946 0.258 74.811
5615.708 0.259 74.743 0.965 -15.016 0.965 -15.016 0.259 74.743
5640.667 0.26 74.674 0.964 -15.086 0.964 -15.086 0.26 74.674
5665.625 0.261 74.606 0.964 -15.156 0.964 -15.156 0.261 74.606
5690.583 0.263 74.537 0.964 -15.225 0.964 -15.225 0.263 74.537
5715.542 0.264 74.469 0.963 -15.295 0.963 -15.295 0.264 74.469
5740.5 0.265 74.4 0.963 -15.364 0.963 -15.364 0.265 74.4
5765.458 0.266 74.332 0.963 -15.434 0.963 -15.434 0.266 74.332
5790.417 0.267 74.264 0.963 -15.503 0.963 -15.503 0.267 74.264
5815.375 0.268 74.195 0.962 -15.573 0.962 -15.573 0.268 74.195
5840.333 0.27 74.127 0.962 -15.642 0.962 -15.642 0.27 74.127
5865.292 0.271 74.059 0.962 -15.711 0.962 -15.711 0.271 74.059
5890.25 0.272 73.991 0.961 -15.78 0.961 -15.78 0.272 73.991
5915.208 0.273 73.923 0.961 -15.849 0.961 -15.849 0.273 73.923
5940.167 0.274 73.855 0.961 -15.918 0.961 -15.918 0.274 73.855
5965.125 0.275 73.787 0.96 -15.987 0.96 -15.987 0.275 73.787
5990.083 0.277 73.72 0.96 -16.056 0.96 -16.056 0.277 73.72
6015.042 0.278 73.652 0.96 -16.124 0.96 -16.124 0.278 73.652
6040 0.279 73.584 0.959 -16.193 0.959 -16.193 0.279 73.584
6064.958 0.28 73.517 0.959 -16.262 0.959 -16.262 0.28 73.517
6089.917 0.281 73.449 0.959 -16.33 0.959 -16.33 0.281 73.449
6114.875 0.282 73.382 0.958 -16.399 0.958 -16.399 0.282 73.382
6139.833 0.283 73.314 0.958 -16.467 0.958 -16.467 0.283 73.314
6164.792 0.285 73.247 0.958 -16.535 0.958 -16.535 0.285 73.247
6189.75 0.286 73.179 0.957 -16.604 0.957 -16.604 0.286 73.179
6214.708 0.287 73.112 0.957 -16.672 0.957 -16.672 0.287 73.112
6239.667 0.288 73.045 0.957 -16.74 0.957 -16.74 0.288 73.045
6264.625 0.289 72.978 0.956 -16.808 0.956 -16.808 0.289 72.978
6289.583 0.29 72.911 0.956 -16.876 0.956 -16.876 0.29 72.911
6314.542 0.291 72.844 0.956 -16.944 0.956 -16.944 0.291 72.844
6339.5 0.293 72.777 0.955 -17.012 0.955 -17.012 0.293 72.777
6364.458 0.294 72.71 0.955 -17.079 0.955 -17.079 0.294 72.71
6389.417 0.295 72.643 0.954 -17.147 0.954 -17.147 0.295 72.643
6414.375 0.296 72.576 0.954 -17.215 0.954 -17.215 0.296 72.576
6439.333 0.297 72.51 0.954 -17.282 0.954 -17.282 0.297 72.51
6464.292 0.298 72.443 0.953 -17.35 0.953 -17.35 0.298 72.443
6489.25 0.299 72.377 0.953 -17.417 0.953 -17.417 0.299 72.377
6514.208 0.3 72.31 0.953 -17.485 0.953 -17.485 0.3 72.31
6539.167 0.302 72.244 0.952 -17.552 0.952 -17.552 0.302 72.244
6564.125 0.303 72.177 0.952 -17.619 0.952 -17.619 0.303 72.177
6589.083 0.304 72.111 0.952 -17.686 0.952 -17.686 0.304 72.111
6614.042 0.305 72.044 0.951 -17.753 0.951 -17.753 0.305 72.044
6639 0.306 71.978 0.951 -17.821 0.951 -17.821 0.306 71.978
6663.958 0.307 71.912 0.951 -17.887 0.951 -17.887 0.307 71.912
6688.917 0.308 71.846 0.95 -17.954 0.95 -17.954 0.308 71.846
6713.875 0.309 71.78 0.95 -18.021 0.95 -18.021 0.309 71.78
6738.833 0.31 71.714 0.95 -18.088 0.95 -18.088 0.31 71.714
6763.792 0.312 71.648 0.949 -18.155 0.949 -18.155 0.312 71.648
6788.75 0.313 71.582 0.949 -18.221 0.949 -18.221 0.313 71.582
6813.708 0.314 71.516 0.948 -18.288 0.948 -18.288 0.314 71.516
6838.667 0.315 71.451 0.948 -18.354 0.948 -18.354 0.315 71.451
6863.625 0.316 71.385 0.948 -18.421 0.948 -18.421 0.316 71.385
6888.583 0.317 71.319 0.947 -18.487 0.947 -18.487 0.317 71.319
6913.542 0.318 71.254 0.947 -18.554 0.947 -18.554 0.318 71.254
6938.5 0.319 71.188 0.947 -18.62 0.947 -18.62 0.319 71.188
6963.458 0.32 71.123 0.946 -18.686 0.946 -18.686 0.32 71.123
6988.417 0.321 71.057 0.946 -18.752 0.946 -18.752 0.321 71.057
7013.375 0.323 70.992 0.945 -18.818 0.945 -18.818 0.323 70.992
7038.333 0.324 70.927 0.945 -18.884 0.945 -18.884 0.324 70.927
7063.292 0.325 70.862 0.945 -18.95 0.945 -18.95 0.325 70.862
7088.25 0.326 70.796 0.944 -19.016 0.944 -19.016 0.326 70.796
7113.208 0.327 70.731 0.944 -19.082 0.944 -19.082 0.327 70.731
7138.167 0.328 70.666 0.944 -19.147 0.944 -19.147 0.328 70.666
7163.125 0.329 70.601 0.943 -19.213 0.943 -19.213 0.329 70.601
7188.083 0.33 70.536 0.943 -19.279 0.943 -19.279 0.33 70.536
7213.042 0.331 70.471 0.942 -19.344 0.942 -19.344 0.331 70.471
7238 0.332 70.407 0.942 -19.41 0.942 -19.41 0.332 70.407
7262.958 0.333 70.342 0.942 -19.475 0.942 -19.475 0.333 70.342
7287.917 0.334 70.277 0.941 -19.54 0.941 -19.54 0.334 70.277
7312.875 0.336 70.213 0.941 -19.606 0.941 -19.606 0.336 70.213
7337.833 0.337 70.148 0.941 -19.671 0.941 -19.671 0.337 70.148
7362.792 0.338 70.084 0.94 -19.736 0.94 -19.736 0.338 70.084
7387.75 0.339 70.019 0.94 -19.801 0.94 -19.801 0.339 70.019
7412.708 0.34 69.955 0.939 -19.866 0.939 -19.866 0.34 69.955
7437.667 0.341 69.89 0.939 -19.931 0.939 -19.931 0.341 69.89
7462.625 0.342 69.826 0.939 -19.996 0.939 -19.996 0.342 69.826
7487.583 0.343 69.762 0.938 -20.061 0.938 -20.061 0.343 69.762
7512.542 0.344 69.698 0.938 -20.126 0.938 -20.126 0.344 69.698
7537.5 0.345 69.634 0.937 -20.19 0.937 -20.19 0.345 69.634
7562.458 0.346 69.57 0.937 -20.255 0.937 -20.255 0.346 69.57
7587.417 0.347 69.506 0.937 -20.319 0.937 -20.319 0.347 69.506
7612.375 0.348 69.442 0.936 -20.384 0.936 -20.384 0.348 69.442
7637.333 0.349 69.378 0.936 -20.448 0.936 -20.448 0.349 69.378
7662.292 0.35 69.314 0.936 -20.513 0.936 -20.513 0.35 69.314
7687.25 0.351 69.251 0.935 -20.577 0.935 -20.577 0.351 69.251
7712.208 0.353 69.187 0.935 -20.641 0.935 -20.641 0.353 69.187
7737.167 0.354 69.123 0.934 -20.706 0.934 -20.706 0.354 69.123
7762.125 0.355 69.06 0.934 -20.77 0.934 -20.77 0.355 69.06
7787.083 0.356 68.996 0.934 -20.834 0.934 -20.834 0.356 68.996
7812.042 0.357 68.933 0.933 -20.898 0.933 -20.898 0.357 68.933
7837 0.358 68.87 0.933 -20.962 0.933 -20.962 0.358 68.87
7861.958 0.359 68.806 0.932 -21.025 0.932 -21.025 0.359 68.806
7886.917 0.36 68.743 0.932 -21.089 0.932 -21.089 0.36 68.743
7911.875 0.361 68.68 0.932 -21.153 0.932 -21.153 0.361 68.68
7936.833 0.362 68.617 0.931 -21.217 0.931 -21.217 0.362 68.617
7961.792 0.363 68.554 0.931 -21.28 0.931 -21.28 0.363 68.554
7986.75 0.364 68.491 0.93 -21.344 0.93 -21.344 0.364 68.491
8011.708 0.365 68.428 0.93 -21.407 0.93 -21.407 0.365 68.428
8036.667 0.366 68.365 0.93 -21.471 0.93 -21.471 0.366 68.365
8061.625 0.367 68.302 0.929 -21.534 0.929 -21.534 0.367 68.302
8086.583 0.368 68.239 0.929 -21.597 0.929 -21.597 0.368 68.239
8111.542 0.369 68.177 0.928 -21.661 0.928 -21.661 0.369 68.177
8136.5 0.37 68.114 0.928 -21.724 0.928 -21.724 0.37 68.114
8161.458 0.371 68.051 0.928 -21.787 0.928 -21.787 0.371 68.051
8186.417 0.372 67.989 0.927 -21.85 0.927 -21.85 0.372 67.989
