# MHZ S MA R 50

50 0.989 -8.402 0.146 81.586 0.146 81.586 0.989 -8.402
74.958 0.976 -12.491 0.216 77.491 0.216 77.491 0.976 -12.491
99.917 0.959 -16.46 0.283 73.516 0.283 73.516 0.959 -16.46
124.875 0.938 -20.281 0.347 69.689 0.347 69.689 0.938 -20.281
149.833 0.914 -23.931 0.406 66.032 0.406 66.032 0.914 -23.931
174.792 0.888 -27.396 0.46 62.561 0.46 62.561 0.888 -27.396
199.75 0.86 -30.668 0.51 59.283 0.51 59.283 0.86 -30.668
224.708 0.831 -33.744 0.555 56.201 0.555 56.201 0.831 -33.744
249.667 0.802 -36.626 0.597 53.312 0.597 53.312 0.802 -36.626
274.625 0.773 -39.321 0.634 50.611 0.634 50.611 0.773 -39.321
299.583 0.744 -41.837 0.667 48.089 0.667 48.089 0.744 -41.837
324.542 0.716 -44.182 0.697 45.737 0.697 45.737 0.716 -44.182
349.5 0.689 -46.368 0.724 43.545 0.724 43.545 0.689 -46.368
374.458 0.663 -48.406 0.748 41.501 0.748 41.501 0.663 -48.406
399.417 0.637 -50.306 0.769 39.595 0.769 39.595 0.637 -50.306
424.375 0.613 -52.078 0.789 37.815 0.789 37.815 0.613 -52.078
449.333 0.59 -53.734 0.806 36.153 0.806 36.153 0.59 -53.734
474.292 0.568 -55.282 0.822 34.599 0.822 34.599 0.568 -55.282
499.25 0.547 -56.731 0.836 33.143 0.836 33.143 0.547 -56.731
524.208 0.527 -58.089 0.849 31.778 0.849 31.778 0.527 -58.089
549.167 0.507 -59.364 0.86 30.496 0.86 30.496 0.507 -59.364
574.125 0.489 -60.562 0.871 29.291 0.871 29.291 0.489 -60.562
599.083 0.472 -61.689 0.88 28.157 0.88 28.157 0.472 -61.689
624.042 0.455 -62.752 0.889 27.087 0.889 27.087 0.455 -62.752
649 0.44 -63.755 0.897 26.076 0.897 26.076 0.44 -63.755
673.958 0.425 -64.704 0.904 25.12 0.904 25.12 0.425 -64.704
698.917 0.41 -65.602 0.911 24.215 0.911 24.215 0.41 -65.602
723.875 0.396 -66.453 0.917 23.356 0.917 23.356 0.396 -66.453
748.833 0.383 -67.261 0.922 22.541 0.922 22.541 0.383 -67.261
773.792 0.371 -68.028 0.927 21.765 0.927 21.765 0.371 -68.028
798.75 0.359 -68.759 0.932 21.027 0.932 21.027 0.359 -68.759
823.708 0.347 -69.455 0.936 20.322 0.936 20.322 0.347 -69.455
848.667 0.336 -70.119 0.94 19.65 0.94 19.65 0.336 -70.119
873.625 0.326 -70.754 0.944 19.007 0.944 19.007 0.326 -70.754
898.583 0.316 -71.36 0.948 18.392 0.948 18.392 0.316 -71.36
923.542 0.306 -71.941 0.951 17.802 0.951 17.802 0.306 -71.941
948.5 0.296 -72.497 0.954 17.237 0.954 17.237 0.296 -72.497
973.458 0.287 -73.031 0.956 16.694 0.956 16.694 0.287 -73.031
998.417 0.279 -73.543 0.959 16.172 0.959 16.172 0.279 -73.543
1023.375 0.27 -74.036 0.961 15.67 0.961 15.67 0.27 -74.036
1048.333 0.262 -74.51 0.964 15.187 0.964 15.187 0.262 -74.51
1073.292 0.254 -74.966 0.966 14.72 0.966 14.72 0.254 -74.966
1098.25 0.247 -75.405 0.968 14.271 0.968 14.271 0.247 -75.405
1123.208 0.239 -75.829 0.97 13.836 0.97 13.836 0.239 -75.829
1148.167 0.232 -76.238 0.971 13.416 0.971 13.416 0.232 -76.238
1173.125 0.225 -76.633 0.973 13.01 0.973 13.01 0.225 -76.633
1198.083 0.218 -77.015 0.974 12.616 0.974 12.616 0.218 -77.015
1223.042 0.212 -77.385 0.976 12.235 0.976 12.235 0.212 -77.385
1248 0.206 -77.742 0.977 11.866 0.977 11.866 0.206 -77.742
1272.958 0.199 -78.088 0.978 11.507 0.978 11.507 0.199 -78.088
1297.917 0.194 -78.424 0.98 11.158 0.98 11.158 0.194 -78.424
1322.875 0.188 -78.749 0.981 10.82 0.981 10.82 0.188 -78.749
1347.833 0.182 -79.064 0.982 10.491 0.982 10.491 0.182 -79.064
1372.792 0.177 -79.37 0.983 10.17 0.983 10.17 0.177 -79.37
1397.75 0.171 -79.668 0.984 9.858 0.984 9.858 0.171 -79.668
1422.708 0.166 -79.956 0.985 9.554 0.985 9.554 0.166 -79.956
1447.667 0.161 -80.237 0.986 9.258 0.986 9.258 0.161 -80.237
1472.625 0.156 -80.509 0.986 8.969 0.986 8.969 0.156 -80.509
1497.583 0.151 -80.774 0.987 8.687 0.987 8.687 0.151 -80.774
1522.542 0.146 -81.032 0.988 8.411 0.988 8.411 0.146 -81.032
1547.5 0.142 -81.282 0.988 8.142 0.988 8.142 0.142 -81.282
1572.458 0.137 -81.526 0.989 7.879 0.989 7.879 0.137 -81.526
1597.417 0.133 -81.763 0.99 7.621 0.99 7.621 0.133 -81.763
1622.375 0.128 -81.994 0.99 7.369 0.99 7.369 0.128 -81.994
1647.333 0.124 -82.218 0.991 7.123 0.991 7.123 0.124 -82.218
1672.292 0.12 -82.436 0.991 6.881 0.991 6.881 0.12 -82.436
1697.25 0.116 -82.648 0.992 6.644 0.992 6.644 0.116 -82.648
1722.208 0.112 -82.855 0.992 6.412 0.992 6.412 0.112 -82.855
1747.167 0.108 -83.055 0.993 6.185 0.993 6.185 0.108 -83.055
1772.125 0.104 -83.25 0.993 5.961 0.993 5.961 0.104 -83.25
1797.083 0.1 -83.439 0.994 5.742 0.994 5.742 0.1 -83.439
1822.042 0.096 -83.622 0.994 5.527 0.994 5.527 0.096 -83.622
1847 0.093 -83.799 0.994 5.315 0.994 5.315 0.093 -83.799
1871.958 0.089 -83.971 0.995 5.107 0.995 5.107 0.089 -83.971
1896.917 0.085 -84.136 0.995 4.903 0.995 4.903 0.085 -84.136
1921.875 0.082 -84.296 0.995 4.702 0.995 4.702 0.082 -84.296
1946.833 0.079 -84.45 0.995 4.504 0.995 4.504 0.079 -84.45
1971.792 0.075 -84.597 0.996 4.31 0.996 4.31 0.075 -84.597
1996.75 0.072 -84.737 0.996 4.118 0.996 4.118 0.072 -84.737
2021.708 0.069 -84.871 0.996 3.93 0.996 3.93 0.069 -84.871
2046.667 0.065 -84.997 0.996 3.744 0.996 3.744 0.065 -84.997
2071.625 0.062 -85.115 0.997 3.561 0.997 3.561 0.062 -85.115
2096.583 0.059 -85.225 0.997 3.381 0.997 3.381 0.059 -85.225
2121.542 0.056 -85.325 0.997 3.203 0.997 3.203 0.056 -85.325
2146.5 0.053 -85.415 0.997 3.027 0.997 3.027 0.053 -85.415
2171.458 0.05 -85.493 0.997 2.854 0.997 2.854 0.05 -85.493
2196.417 0.047 -85.559 0.997 2.684 0.997 2.684 0.047 -85.559
2221.375 0.044 -85.61 0.998 2.515 0.998 2.515 0.044 -85.61
2246.333 0.041 -85.643 0.998 2.349 0.998 2.349 0.041 -85.643
2271.292 0.038 -85.656 0.998 2.185 0.998 2.185 0.038 -85.656
2296.25 0.035 -85.645 0.998 2.023 0.998 2.023 0.035 -85.645
2321.208 0.033 -85.605 0.998 1.862 0.998 1.862 0.033 -85.605
2346.167 0.03 -85.528 0.998 1.704 0.998 1.704 0.03 -85.528
2371.125 0.027 -85.405 0.998 1.547 0.998 1.547 0.027 -85.405
2396.083 0.024 -85.222 0.998 1.393 0.998 1.393 0.024 -85.222
2421.042 0.022 -84.958 0.998 1.24 0.998 1.24 0.022 -84.958
2446 0.019 -84.583 0.998 1.088 0.998 1.088 0.019 -84.583
2470.958 0.016 -84.045 0.998 0.939 0.998 0.939 0.016 -84.045
2495.917 0.014 -83.26 0.998 0.791 0.998 0.791 0.014 -83.26
2520.875 0.011 -82.066 0.998 0.644 0.998 0.644 0.011 -82.066
2545.833 8.829e-3 -80.126 0.999 0.499 0.999 0.499 8.829e-3 -80.126
2570.792 6.37e-3 -76.595 0.999 0.356 0.999 0.356 6.37e-3 -76.595
2595.75 3.992e-3 -68.669 0.999 0.213 0.999 0.213 3.992e-3 -68.669
2620.708 1.916e-3 -41.295 0.999 0.073 0.999 0.073 1.916e-3 -41.295
2645.667 1.852e-3 39 0.999 -0.067 0.999 -0.067 1.852e-3 39
2670.625 3.857e-3 67.9 0.999 -0.205 0.999 -0.205 3.857e-3 67.9
2695.583 6.138e-3 76.108 0.999 -0.342 0.999 -0.342 6.138e-3 76.108
2720.542 8.458e-3 79.733 0.999 -0.478 0.999 -0.478 8.458e-3 79.733
2745.5 0.011 81.72 0.999 -0.612 0.999 -0.612 0.011 81.72
2770.458 0.013 82.946 0.998 -0.745 0.998 -0.745 0.013 82.946
2795.417 0.015 83.758 0.998 -0.877 0.998 -0.877 0.015 83.758
2820.375 0.018 84.32 0.998 -1.008 0.998 -1.008 0.018 84.32
2845.333 0.02 84.722 0.998 -1.138 0.998 -1.138 0.02 84.722
2870.292 0.022 85.013 0.998 -1.267 0.998 -1.267 0.022 85.013
2895.25 0.024 85.225 0.998 -1.395 0.998 -1.395 0.024 85.225
2920.208 0.027 85.38 0.998 -1.522 0.998 -1.522 0.027 85.38
2945.167 0.029 85.49 0.998 -1.648 0.998 -1.648 0.029 85.49
2970.125 0.031 85.567 0.998 -1.773 0.998 -1.773 0.031 85.567
2995.083 0.033 85.616 0.998 -1.896 0.998 -1.896 0.033 85.616
3020.042 0.035 85.645 0.998 -2.02 0.998 -2.02 0.035 85.645
3045 0.037 85.656 0.998 -2.142 0.998 -2.142 0.037 85.656
3069.958 0.04 85.653 0.998 -2.263 0.998 -2.263 0.04 85.653
3094.917 0.042 85.638 0.998 -2.383 0.998 -2.383 0.042 85.638
3119.875 0.044 85.613 0.998 -2.503 0.998 -2.503 0.044 85.613
3144.833 0.046 85.579 0.998 -2.622 0.998 -2.622 0.046 85.579
3169.792 0.048 85.539 0.997 -2.74 0.997 -2.74 0.048 85.539
3194.75 0.05 85.492 0.997 -2.857 0.997 -2.857 0.05 85.492
3219.708 0.052 85.441 0.997 -2.973 0.997 -2.973 0.052 85.441
3244.667 0.054 85.384 0.997 -3.089 0.997 -3.089 0.054 85.384
3269.625 0.056 85.324 0.997 -3.204 0.997 -3.204 0.056 85.324
3294.583 0.058 85.261 0.997 -3.318 0.997 -3.318 0.058 85.261
3319.542 0.06 85.194 0.997 -3.432 0.997 -3.432 0.06 85.194
3344.5 0.062 85.125 0.997 -3.544 0.997 -3.544 0.062 85.125
3369.458 0.064 85.054 0.997 -3.657 0.997 -3.657 0.064 85.054
3394.417 0.066 84.981 0.996 -3.768 0.996 -3.768 0.066 84.981
3419.375 0.068 84.906 0.996 -3.879 0.996 -3.879 0.068 84.906
3444.333 0.07 84.829 0.996 -3.989 0.996 -3.989 0.07 84.829
3469.292 0.071 84.751 0.996 -4.099 0.996 -4.099 0.071 84.751
3494.25 0.073 84.672 0.996 -4.208 0.996 -4.208 0.073 84.672
3519.208 0.075 84.592 0.996 -4.316 0.996 -4.316 0.075 84.592
3544.167 0.077 84.511 0.996 -4.424 0.996 -4.424 0.077 84.511
3569.125 0.079 84.429 0.995 -4.531 0.995 -4.531 0.079 84.429
3594.083 0.081 84.346 0.995 -4.638 0.995 -4.638 0.081 84.346
3619.042 0.083 84.263 0.995 -4.744 0.995 -4.744 0.083 84.263
3644 0.085 84.179 0.995 -4.85 0.995 -4.85 0.085 84.179
3668.958 0.086 84.095 0.995 -4.955 0.995 -4.955 0.086 84.095
3693.917 0.088 84.01 0.995 -5.06 0.995 -5.06 0.088 84.01
3718.875 0.09 83.924 0.995 -5.164 0.995 -5.164 0.09 83.924
3743.833 0.092 83.839 0.994 -5.267 0.994 -5.267 0.092 83.839
3768.792 0.094 83.753 0.994 -5.37 0.994 -5.37 0.094 83.753
3793.75 0.095 83.667 0.994 -5.473 0.994 -5.473 0.095 83.667
3818.708 0.097 83.581 0.994 -5.575 0.994 -5.575 0.097 83.581
3843.667 0.099 83.494 0.994 -5.677 0.994 -5.677 0.099 83.494
3868.625 0.101 83.408 0.993 -5.778 0.993 -5.778 0.101 83.408
3893.583 0.102 83.321 0.993 -5.879 0.993 -5.879 0.102 83.321
3918.542 0.104 83.234 0.993 -5.979 0.993 -5.979 0.104 83.234
3943.5 0.106 83.147 0.993 -6.079 0.993 -6.079 0.106 83.147
3968.458 0.108 83.06 0.993 -6.179 0.993 -6.179 0.108 83.06
3993.417 0.109 82.973 0.993 -6.278 0.993 -6.278 0.109 82.973
4018.375 0.111 82.886 0.992 -6.376 0.992 -6.376 0.111 82.886
4043.333 0.113 82.799 0.992 -6.474 0.992 -6.474 0.113 82.799
4068.292 0.114 82.713 0.992 -6.572 0.992 -6.572 0.114 82.713
4093.25 0.116 82.626 0.992 -6.67 0.992 -6.67 0.116 82.626
4118.208 0.118 82.539 0.992 -6.767 0.992 -6.767 0.118 82.539
4143.167 0.12 82.452 0.991 -6.863 0.991 -6.863 0.12 82.452
4168.125 0.121 82.365 0.991 -6.96 0.991 -6.96 0.121 82.365
4193.083 0.123 82.279 0.991 -7.056 0.991 -7.056 0.123 82.279
4218.042 0.124 82.192 0.991 -7.151 0.991 -7.151 0.124 82.192
4243 0.126 82.106 0.991 -7.246 0.991 -7.246 0.126 82.106
4267.958 0.128 82.019 0.99 -7.341 0.99 -7.341 0.128 82.019
4292.917 0.129 81.933 0.99 -7.436 0.99 -7.436 0.129 81.933
4317.875 0.131 81.847 0.99 -7.53 0.99 -7.53 0.131 81.847
4342.833 0.133 81.761 0.99 -7.624 0.99 -7.624 0.133 81.761
4367.792 0.134 81.675 0.99 -7.717 0.99 -7.717 0.134 81.675
4392.75 0.136 81.589 0.989 -7.811 0.989 -7.811 0.136 81.589
4417.708 0.138 81.503 0.989 -7.903 0.989 -7.903 0.138 81.503
4442.667 0.139 81.417 0.989 -7.996 0.989 -7.996 0.139 81.417
4467.625 0.141 81.332 0.989 -8.088 0.989 -8.088 0.141 81.332
4492.583 0.142 81.247 0.988 -8.18 0.988 -8.18 0.142 81.247
4517.542 0.144 81.161 0.988 -8.272 0.988 -8.272 0.144 81.161
4542.5 0.145 81.076 0.988 -8.363 0.988 -8.363 0.145 81.076
4567.458 0.147 80.992 0.988 -8.454 0.988 -8.454 0.147 80.992
4592.417 0.149 80.907 0.987 -8.545 0.987 -8.545 0.149 80.907
4617.375 0.15 80.822 0.987 -8.635 0.987 -8.635 0.15 80.822
4642.333 0.152 80.738 0.987 -8.725 0.987 -8.725 0.152 80.738
4667.292 0.153 80.653 0.987 -8.815 0.987 -8.815 0.153 80.653
4692.25 0.155 80.569 0.987 -8.905 0.987 -8.905 0.155 80.569
4717.208 0.156 80.485 0.986 -8.994 0.986 -8.994 0.156 80.485
4742.167 0.158 80.401 0.986 -9.083 0.986 -9.083 0.158 80.401
4767.125 0.159 80.317 0.986 -9.172 0.986 -9.172 0.159 80.317
4792.083 0.161 80.234 0.986 -9.261 0.986 -9.261 0.161 80.234
4817.042 0.162 80.15 0.985 -9.349 0.985 -9.349 0.162 80.15
4842 0.164 80.067 0.985 -9.437 0.985 -9.437 0.164 80.067
4866.958 0.165 79.984 0.985 -9.525 0.985 -9.525 0.165 79.984
4891.917 0.167 79.901 0.985 -9.612 0.985 -9.612 0.167 79.901
4916.875 0.168 79.818 0.984 -9.7 0.984 -9.7 0.168 79.818
4941.833 0.17 79.736 0.984 -9.787 0.984 -9.787 0.17 79.736
4966.792 0.171 79.653 0.984 -9.874 0.984 -9.874 0.171 79.653
4991.75 0.173 79.571 0.984 -9.96 0.984 -9.96 0.173 79.571
5016.708 0.174 79.488 0.983 -10.046 0.983 -10.046 0.174 79.488
5041.667 0.176 79.406 0.983 -10.133 0.983 -10.133 0.176 79.406
5066.625 0.177 79.324 0.983 -10.218 0.983 -10.218 0.177 79.324
5091.583 0.179 79.243 0.982 -10.304 0.982 -10.304 0.179 79.243
5116.542 0.18 79.161 0.982 -10.389 0.982 -10.389 0.18 79.161
5141.5 0.182 79.08 0.982 -10.475 0.982 -10.475 0.182 79.08
5166.458 0.183 78.998 0.982 -10.56 0.982 -10.56 0.183 78.998
5191.417 0.185 78.917 0.981 -10.644 0.981 -10.644 0.185 78.917
5216.375 0.186 78.836 0.981 -10.729 0.981 -10.729 0.186 78.836
5241.333 0.188 78.755 0.981 -10.813 0.981 -10.813 0.188 78.755
5266.292 0.189 78.675 0.981 -10.897 0.981 -10.897 0.189 78.675
5291.25 0.19 78.594 0.98 -10.981 0.98 -10.981 0.19 78.594
5316.208 0.192 78.513 0.98 -11.065 0.98 -11.065 0.192 78.513
5341.167 0.193 78.433 0.98 -11.149 0.98 -11.149 0.193 78.433
5366.125 0.195 78.353 0.979 -11.232 0.979 -11.232 0.195 78.353
5391.083 0.196 78.273 0.979 -11.315 0.979 -11.315 0.196 78.273
5416.042 0.198 78.193 0.979 -11.398 0.979 -11.398 0.198 78.193
5441 0.199 78.114 0.979 -11.481 0.979 -11.481 0.199 78.114
5465.958 0.2 78.034 0.978 -11.563 0.978 -11.563 0.2 78.034
5490.917 0.202 77.955 0.978 -11.646 0.978 -11.646 0.202 77.955
5515.875 0.203 77.875 0.978 -11.728 0.978 -11.728 0.203 77.875
5540.833 0.205 77.796 0.977 -11.81 0.977 -11.81 0.205 77.796
5565.792 0.206 77.717 0.977 -11.892 0.977 -11.892 0.206 77.717
5590.75 0.207 77.638 0.977 -11.973 0.977 -11.973 0.207 77.638
5615.708 0.209 77.559 0.977 -12.055 0.977 -12.055 0.209 77.559
5640.667 0.21 77.481 0.976 -12.136 0.976 -12.136 0.21 77.481
5665.625 0.212 77.402 0.976 -12.217 0.976 -12.217 0.212 77.402
5690.583 0.213 77.324 0.976 -12.298 0.976 -12.298 0.213 77.324
5715.542 0.214 77.246 0.975 -12.379 0.975 -12.379 0.214 77.246
5740.5 0.216 77.168 0.975 -12.459 0.975 -12.459 0.216 77.168
5765.458 0.217 77.09 0.975 -12.539 0.975 -12.539 0.217 77.09
5790.417 0.218 77.012 0.974 -12.62 0.974 -12.62 0.218 77.012
5815.375 0.22 76.935 0.974 -12.7 0.974 -12.7 0.22 76.935
5840.333 0.221 76.857 0.974 -12.78 0.974 -12.78 0.221 76.857
5865.292 0.223 76.78 0.974 -12.859 0.974 -12.859 0.223 76.78
5890.25 0.224 76.702 0.973 -12.939 0.973 -12.939 0.224 76.702
5915.208 0.225 76.625 0.973 -13.018 0.973 -13.018 0.225 76.625
5940.167 0.227 76.548 0.973 -13.097 0.973 -13.097 0.227 76.548
5965.125 0.228 76.472 0.972 -13.176 0.972 -13.176 0.228 76.472
5990.083 0.229 76.395 0.972 -13.255 0.972 -13.255 0.229 76.395
6015.042 0.231 76.318 0.972 -13.334 0.972 -13.334 0.231 76.318
6040 0.232 76.242 0.971 -13.413 0.971 -13.413 0.232 76.242
6064.958 0.233 76.165 0.971 -13.491 0.971 -13.491 0.233 76.165
6089.917 0.235 76.089 0.971 -13.569 0.971 -13.569 0.235 76.089
6114.875 0.236 76.013 0.97 -13.647 0.97 -13.647 0.236 76.013
6139.833 0.237 75.937 0.97 -13.725 0.97 -13.725 0.237 75.937
6164.792 0.239 75.861 0.97 -13.803 0.97 -13.803 0.239 75.861
6189.75 0.24 75.786 0.969 -13.881 0.969 -13.881 0.24 75.786
6214.708 0.241 75.71 0.969 -13.958 0.969 -13.958 0.241 75.71
6239.667 0.243 75.635 0.969 -14.036 0.969 -14.036 0.243 75.635
6264.625 0.244 75.559 0.968 -14.113 0.968 -14.113 0.244 75.559
6289.583 0.245 75.484 0.968 -14.19 0.968 -14.19 0.245 75.484
6314.542 0.246 75.409 0.968 -14.267 0.968 -14.267 0.246 75.409
6339.5 0.248 75.334 0.967 -14.344 0.967 -14.344 0.248 75.334
6364.458 0.249 75.259 0.967 -14.421 0.967 -14.421 0.249 75.259
6389.417 0.25 75.184 0.967 -14.497 0.967 -14.497 0.25 75.184
6414.375 0.252 75.11 0.966 -14.573 0.966 -14.573 0.252 75.11
6439.333 0.253 75.035 0.966 -14.65 0.966 -14.65 0.253 75.035
6464.292 0.254 74.961 0.966 -14.726 0.966 -14.726 0.254 74.961
6489.25 0.255 74.886 0.965 -14.802 0.965 -14.802 0.255 74.886
6514.208 0.257 74.812 0.965 -14.878 0.965 -14.878 0.257 74.812
6539.167 0.258 74.738 0.965 -14.953 0.965 -14.953 0.258 74.738
6564.125 0.259 74.664 0.964 -15.029 0.964 -15.029 0.259 74.664
6589.083 0.261 74.59 0.964 -15.104 0.964 -15.104 0.261 74.59
6614.042 0.262 74.517 0.964 -15.18 0.964 -15.18 0.262 74.517
6639 0.263 74.443 0.963 -15.255 0.963 -15.255 0.263 74.443
6663.958 0.264 74.37 0.963 -15.33 0.963 -15.33 0.264 74.37
6688.917 0.266 74.296 0.963 -15.405 0.963 -15.405 0.266 74.296
6713.875 0.267 74.223 0.962 -15.479 0.962 -15.479 0.267 74.223
6738.833 0.268 74.15 0.962 -15.554 0.962 -15.554 0.268 74.15
6763.792 0.269 74.077 0.962 -15.629 0.962 -15.629 0.269 74.077
6788.75 0.271 74.004 0.961 -15.703 0.961 -15.703 0.271 74.004
6813.708 0.272 73.931 0.961 -15.777 0.961 -15.777 0.272 73.931
6838.667 0.273 73.858 0.961 -15.851 0.961 -15.851 0.273 73.858
6863.625 0.274 73.786 0.96 -15.925 0.96 -15.925 0.274 73.786
6888.583 0.276 73.713 0.96 -15.999 0.96 -15.999 0.276 73.713
6913.542 0.277 73.641 0.96 -16.073 0.96 -16.073 0.277 73.641
6938.5 0.278 73.569 0.959 -16.147 0.959 -16.147 0.278 73.569
6963.458 0.279 73.496 0.959 -16.22 0.959 -16.22 0.279 73.496
6988.417 0.281 73.424 0.958 -16.294 0.958 -16.294 0.281 73.424
7013.375 0.282 73.352 0.958 -16.367 0.958 -16.367 0.282 73.352
7038.333 0.283 73.281 0.958 -16.44 0.958 -16.44 0.283 73.281
7063.292 0.284 73.209 0.957 -16.513 0.957 -16.513 0.284 73.209
7088.25 0.285 73.137 0.957 -16.586 0.957 -16.586 0.285 73.137
7113.208 0.287 73.066 0.957 -16.659 0.957 -16.659 0.287 73.066
7138.167 0.288 72.994 0.956 -16.732 0.956 -16.732 0.288 72.994
7163.125 0.289 72.923 0.956 -16.804 0.956 -16.804 0.289 72.923
7188.083 0.29 72.852 0.956 -16.877 0.956 -16.877 0.29 72.852
7213.042 0.292 72.781 0.955 -16.949 0.955 -16.949 0.292 72.781
7238 0.293 72.71 0.955 -17.021 0.955 -17.021 0.293 72.71
7262.958 0.294 72.639 0.954 -17.093 0.954 -17.093 0.294 72.639
7287.917 0.295 72.568 0.954 -17.165 0.954 -17.165 0.295 72.568
7312.875 0.296 72.497 0.954 -17.237 0.954 -17.237 0.296 72.497
7337.833 0.298 72.427 0.953 -17.309 0.953 -17.309 0.298 72.427
7362.792 0.299 72.356 0.953 -17.381 0.953 -17.381 0.299 72.356
7387.75 0.3 72.286 0.953 -17.452 0.953 -17.452 0.3 72.286
7412.708 0.301 72.215 0.952 -17.524 0.952 -17.524 0.301 72.215
7437.667 0.302 72.145 0.952 -17.595 0.952 -17.595 0.302 72.145
7462.625 0.303 72.075 0.951 -17.666 0.951 -17.666 0.303 72.075
7487.583 0.305 72.005 0.951 -17.737 0.951 -17.737 0.305 72.005
7512.542 0.306 71.935 0.951 -17.808 0.951 -17.808 0.306 71.935
7537.5 0.307 71.865 0.95 -17.879 0.95 -17.879 0.307 71.865
7562.458 0.308 71.795 0.95 -17.95 0.95 -17.95 0.308 71.795
7587.417 0.309 71.726 0.95 -18.021 0.95 -18.021 0.309 71.726
7612.375 0.311 71.656 0.949 -18.091 0.949 -18.091 0.311 71.656
7637.333 0.312 71.587 0.949 -18.162 0.949 -18.162 0.312 71.587
7662.292 0.313 71.518 0.948 -18.232 0.948 -18.232 0.313 71.518
7687.25 0.314 71.448 0.948 -18.303 0.948 -18.303 0.314 71.448
7712.208 0.315 71.379 0.948 -18.373 0.948 -18.373 0.315 71.379
7737.167 0.316 71.31 0.947 -18.443 0.947 -18.443 0.316 71.31
7762.125 0.318 71.241 0.947 -18.513 0.947 -18.513 0.318 71.241
7787.083 0.319 71.172 0.947 -18.583 0.947 -18.583 0.319 71.172
7812.042 0.32 71.104 0.946 -18.652 0.946 -18.652 0.32 71.104
7837 0.321 71.035 0.946 -18.722 0.946 -18.722 0.321 71.035
7861.958 0.322 70.966 0.945 -18.791 0.945 -18.791 0.322 70.966
7886.917 0.323 70.898 0.945 -18.861 0.945 -18.861 0.323 70.898
7911.875 0.324 70.829 0.945 -18.93 0.945 -18.93 0.324 70.829
7936.833 0.326 70.761 0.944 -18.999 0.944 -18.999 0.326 70.761
7961.792 0.327 70.693 0.944 -19.069 0.944 -19.069 0.327 70.693
7986.75 0.328 70.625 0.943 -19.138 0.943 -19.138 0.328 70.625
8011.708 0.329 70.557 0.943 -19.207 0.943 -19.207 0.329 70.557
8036.667 0.33 70.489 0.943 -19.275 0.943 -19.275 0.33 70.489
8061.625 0.331 70.421 0.942 -19.344 0.942 -19.344 0.331 70.421
8086.583 0.332 70.353 0.942 -19.413 0.942 -19.413 0.332 70.353
8111.542 0.334 70.286 0.941 -19.481 0.941 -19.481 0.334 70.286
8136.5 0.335 70.218 0.941 -19.55 0.941 -19.55 0.335 70.218
8161.458 0.336 70.151 0.941 -19.618 0.941 -19.618 0.336 70.151
8186.417 0.337 70.083 0.94 -19.686 0.94 -19.686 0.337 70.083
