# MHZ S MA R 50

50 0.999 -1.889 0.033 88.106 0.033 88.106 0.999 -1.889
74.958 0.999 -2.832 0.049 87.162 0.049 87.162 0.999 -2.832
99.917 0.998 -3.773 0.066 86.218 0.066 86.218 0.998 -3.773
124.875 0.997 -4.712 0.082 85.277 0.082 85.277 0.997 -4.712
149.833 0.995 -5.649 0.098 84.337 0.098 84.337 0.995 -5.649
174.792 0.993 -6.584 0.115 83.4 0.115 83.4 0.993 -6.584
199.75 0.991 -7.516 0.131 82.465 0.131 82.465 0.991 -7.516
224.708 0.989 -8.446 0.147 81.534 0.147 81.534 0.989 -8.446
249.667 0.987 -9.371 0.163 80.606 0.163 80.606 0.987 -9.371
274.625 0.984 -10.293 0.179 79.682 0.179 79.682 0.984 -10.293
299.583 0.981 -11.211 0.194 78.762 0.194 78.762 0.981 -11.211
324.542 0.978 -12.124 0.21 77.847 0.21 77.847 0.978 -12.124
349.5 0.974 -13.032 0.225 76.936 0.225 76.936 0.974 -13.032
374.458 0.97 -13.935 0.241 76.031 0.241 76.031 0.97 -13.935
399.417 0.967 -14.832 0.256 75.131 0.256 75.131 0.967 -14.832
424.375 0.962 -15.724 0.271 74.237 0.271 74.237 0.962 -15.724
449.333 0.958 -16.61 0.286 73.349 0.286 73.349 0.958 -16.61
474.292 0.954 -17.49 0.301 72.467 0.301 72.467 0.954 -17.49
499.25 0.949 -18.363 0.315 71.592 0.315 71.592 0.949 -18.363
524.208 0.944 -19.229 0.329 70.723 0.329 70.723 0.944 -19.229
549.167 0.939 -20.088 0.343 69.861 0.343 69.861 0.939 -20.088
574.125 0.934 -20.941 0.357 69.007 0.357 69.007 0.934 -20.941
599.083 0.928 -21.785 0.371 68.16 0.371 68.16 0.928 -21.785
624.042 0.923 -22.623 0.385 67.32 0.385 67.32 0.923 -22.623
649 0.917 -23.452 0.398 66.488 0.398 66.488 0.917 -23.452
673.958 0.911 -24.274 0.411 65.664 0.411 65.664 0.911 -24.274
698.917 0.905 -25.088 0.424 64.848 0.424 64.848 0.905 -25.088
723.875 0.899 -25.894 0.437 64.04 0.437 64.04 0.899 -25.894
748.833 0.893 -26.691 0.449 63.24 0.449 63.24 0.893 -26.691
773.792 0.887 -27.48 0.461 62.448 0.461 62.448 0.887 -27.48
798.75 0.88 -28.261 0.473 61.665 0.473 61.665 0.88 -28.261
823.708 0.874 -29.034 0.485 60.89 0.485 60.89 0.874 -29.034
848.667 0.867 -29.798 0.497 60.124 0.497 60.124 0.867 -29.798
873.625 0.86 -30.553 0.508 59.366 0.508 59.366 0.86 -30.553
898.583 0.854 -31.3 0.52 58.617 0.52 58.617 0.854 -31.3
923.542 0.847 -32.038 0.53 57.876 0.53 57.876 0.847 -32.038
948.5 0.84 -32.768 0.541 57.144 0.541 57.144 0.84 -32.768
973.458 0.833 -33.489 0.552 56.42 0.552 56.42 0.833 -33.489
998.417 0.826 -34.202 0.562 55.705 0.562 55.705 0.826 -34.202
1023.375 0.819 -34.905 0.572 54.999 0.572 54.999 0.819 -34.905
1048.333 0.812 -35.601 0.582 54.301 0.582 54.301 0.812 -35.601
1073.292 0.805 -36.288 0.592 53.612 0.592 53.612 0.805 -36.288
1098.25 0.798 -36.966 0.601 52.931 0.601 52.931 0.798 -36.966
1123.208 0.791 -37.636 0.611 52.259 0.611 52.259 0.791 -37.636
1148.167 0.784 -38.297 0.62 51.595 0.62 51.595 0.784 -38.297
1173.125 0.776 -38.95 0.629 50.939 0.629 50.939 0.776 -38.95
1198.083 0.769 -39.595 0.637 50.292 0.637 50.292 0.769 -39.595
1223.042 0.762 -40.231 0.646 49.653 0.646 49.653 0.762 -40.231
1248 0.755 -40.859 0.654 49.022 0.654 49.022 0.755 -40.859
1272.958 0.748 -41.479 0.662 48.399 0.662 48.399 0.748 -41.479
1297.917 0.741 -42.091 0.67 47.785 0.67 47.785 0.741 -42.091
1322.875 0.733 -42.696 0.678 47.178 0.678 47.178 0.733 -42.696
1347.833 0.726 -43.292 0.686 46.579 0.686 46.579 0.726 -43.292
1372.792 0.719 -43.88 0.693 45.988 0.693 45.988 0.719 -43.88
1397.75 0.712 -44.461 0.7 45.404 0.7 45.404 0.712 -44.461
1422.708 0.705 -45.034 0.708 44.828 0.708 44.828 0.705 -45.034
1447.667 0.698 -45.6 0.714 44.26 0.714 44.26 0.698 -45.6
1472.625 0.691 -46.158 0.721 43.699 0.721 43.699 0.691 -46.158
1497.583 0.684 -46.709 0.728 43.145 0.728 43.145 0.684 -46.709
1522.542 0.677 -47.253 0.734 42.598 0.734 42.598 0.677 -47.253
1547.5 0.67 -47.79 0.741 42.059 0.741 42.059 0.67 -47.79
1572.458 0.663 -48.319 0.747 41.527 0.747 41.527 0.663 -48.319
1597.417 0.656 -48.842 0.753 41.001 0.753 41.001 0.656 -48.842
1622.375 0.649 -49.357 0.759 40.482 0.759 40.482 0.649 -49.357
1647.333 0.642 -49.867 0.765 39.97 0.765 39.97 0.642 -49.867
1672.292 0.636 -50.369 0.77 39.465 0.77 39.465 0.636 -50.369
1697.25 0.629 -50.865 0.776 38.966 0.776 38.966 0.629 -50.865
1722.208 0.622 -51.354 0.781 38.474 0.781 38.474 0.622 -51.354
1747.167 0.615 -51.837 0.786 37.988 0.786 37.988 0.615 -51.837
1772.125 0.609 -52.314 0.791 37.508 0.791 37.508 0.609 -52.314
1797.083 0.602 -52.785 0.796 37.034 0.796 37.034 0.602 -52.785
1822.042 0.596 -53.25 0.801 36.566 0.801 36.566 0.596 -53.25
1847 0.589 -53.708 0.806 36.104 0.806 36.104 0.589 -53.708
1871.958 0.583 -54.161 0.811 35.648 0.811 35.648 0.583 -54.161
1896.917 0.576 -54.608 0.815 35.198 0.815 35.198 0.576 -54.608
1921.875 0.57 -55.05 0.82 34.753 0.82 34.753 0.57 -55.05
1946.833 0.564 -55.486 0.824 34.314 0.824 34.314 0.564 -55.486
1971.792 0.557 -55.916 0.828 33.88 0.828 33.88 0.557 -55.916
1996.75 0.551 -56.341 0.832 33.452 0.832 33.452 0.551 -56.341
2021.708 0.545 -56.761 0.836 33.029 0.836 33.029 0.545 -56.761
2046.667 0.539 -57.176 0.84 32.611 0.84 32.611 0.539 -57.176
2071.625 0.533 -57.585 0.844 32.198 0.844 32.198 0.533 -57.585
2096.583 0.527 -57.989 0.848 31.79 0.848 31.79 0.527 -57.989
2121.542 0.521 -58.389 0.852 31.387 0.852 31.387 0.521 -58.389
2146.5 0.515 -58.783 0.855 30.989 0.855 30.989 0.515 -58.783
2171.458 0.509 -59.173 0.859 30.596 0.859 30.596 0.509 -59.173
2196.417 0.503 -59.558 0.862 30.207 0.862 30.207 0.503 -59.558
2221.375 0.497 -59.939 0.865 29.823 0.865 29.823 0.497 -59.939
2246.333 0.492 -60.315 0.869 29.443 0.869 29.443 0.492 -60.315
2271.292 0.486 -60.686 0.872 29.068 0.872 29.068 0.486 -60.686
2296.25 0.48 -61.054 0.875 28.697 0.875 28.697 0.48 -61.054
2321.208 0.475 -61.416 0.878 28.33 0.878 28.33 0.475 -61.416
2346.167 0.469 -61.775 0.881 27.968 0.881 27.968 0.469 -61.775
2371.125 0.463 -62.129 0.884 27.609 0.884 27.609 0.463 -62.129
2396.083 0.458 -62.48 0.887 27.255 0.887 27.255 0.458 -62.48
2421.042 0.453 -62.826 0.89 26.905 0.89 26.905 0.453 -62.826
2446 0.447 -63.168 0.892 26.558 0.892 26.558 0.447 -63.168
2470.958 0.442 -63.507 0.895 26.215 0.895 26.215 0.442 -63.507
2495.917 0.436 -63.842 0.898 25.877 0.898 25.877 0.436 -63.842
2520.875 0.431 -64.173 0.9 25.541 0.9 25.541 0.431 -64.173
2545.833 0.426 -64.5 0.903 25.21 0.903 25.21 0.426 -64.5
2570.792 0.421 -64.823 0.905 24.882 0.905 24.882 0.421 -64.823
2595.75 0.416 -65.144 0.907 24.557 0.907 24.557 0.416 -65.144
2620.708 0.411 -65.46 0.91 24.236 0.91 24.236 0.411 -65.46
2645.667 0.405 -65.773 0.912 23.919 0.912 23.919 0.405 -65.773
2670.625 0.4 -66.083 0.914 23.604 0.914 23.604 0.4 -66.083
2695.583 0.395 -66.389 0.916 23.293 0.916 23.293 0.395 -66.389
2720.542 0.391 -66.692 0.918 22.986 0.918 22.986 0.391 -66.692
2745.5 0.386 -66.992 0.92 22.681 0.92 22.681 0.386 -66.992
2770.458 0.381 -67.289 0.922 22.379 0.922 22.379 0.381 -67.289
2795.417 0.376 -67.582 0.924 22.081 0.924 22.081 0.376 -67.582
2820.375 0.371 -67.873 0.926 21.785 0.926 21.785 0.371 -67.873
2845.333 0.366 -68.16 0.928 21.493 0.928 21.493 0.366 -68.16
2870.292 0.362 -68.445 0.93 21.203 0.93 21.203 0.362 -68.445
2895.25 0.357 -68.726 0.932 20.916 0.932 20.916 0.357 -68.726
2920.208 0.352 -69.005 0.934 20.632 0.934 20.632 0.352 -69.005
2945.167 0.348 -69.281 0.935 20.351 0.935 20.351 0.348 -69.281
2970.125 0.343 -69.554 0.937 20.072 0.937 20.072 0.343 -69.554
2995.083 0.339 -69.824 0.939 19.796 0.939 19.796 0.339 -69.824
3020.042 0.334 -70.092 0.94 19.523 0.94 19.523 0.334 -70.092
3045 0.33 -70.357 0.942 19.252 0.942 19.252 0.33 -70.357
3069.958 0.325 -70.619 0.943 18.984 0.943 18.984 0.325 -70.619
3094.917 0.321 -70.879 0.945 18.718 0.945 18.718 0.321 -70.879
3119.875 0.317 -71.136 0.946 18.454 0.946 18.454 0.317 -71.136
3144.833 0.312 -71.391 0.948 18.193 0.948 18.193 0.312 -71.391
3169.792 0.308 -71.643 0.949 17.935 0.949 17.935 0.308 -71.643
3194.75 0.304 -71.893 0.951 17.678 0.951 17.678 0.304 -71.893
3219.708 0.299 -72.14 0.952 17.424 0.952 17.424 0.299 -72.14
3244.667 0.295 -72.385 0.953 17.173 0.953 17.173 0.295 -72.385
3269.625 0.291 -72.628 0.954 16.923 0.954 16.923 0.291 -72.628
3294.583 0.287 -72.868 0.956 16.676 0.956 16.676 0.287 -72.868
3319.542 0.283 -73.106 0.957 16.43 0.957 16.43 0.283 -73.106
3344.5 0.279 -73.342 0.958 16.187 0.958 16.187 0.279 -73.342
3369.458 0.275 -73.576 0.959 15.946 0.959 15.946 0.275 -73.576
3394.417 0.271 -73.807 0.96 15.707 0.96 15.707 0.271 -73.807
3419.375 0.267 -74.036 0.961 15.47 0.961 15.47 0.267 -74.036
3444.333 0.263 -74.263 0.963 15.235 0.963 15.235 0.263 -74.263
3469.292 0.259 -74.488 0.964 15.002 0.964 15.002 0.259 -74.488
3494.25 0.255 -74.711 0.965 14.771 0.965 14.771 0.255 -74.711
3519.208 0.251 -74.932 0.966 14.541 0.966 14.541 0.251 -74.932
3544.167 0.247 -75.151 0.967 14.314 0.967 14.314 0.247 -75.151
3569.125 0.243 -75.367 0.968 14.088 0.968 14.088 0.243 -75.367
3594.083 0.24 -75.582 0.969 13.864 0.969 13.864 0.24 -75.582
3619.042 0.236 -75.795 0.969 13.642 0.969 13.642 0.236 -75.795
3644 0.232 -76.006 0.97 13.422 0.97 13.422 0.232 -76.006
3668.958 0.228 -76.215 0.971 13.203 0.971 13.203 0.228 -76.215
3693.917 0.225 -76.421 0.972 12.986 0.972 12.986 0.225 -76.421
3718.875 0.221 -76.627 0.973 12.771 0.973 12.771 0.221 -76.627
3743.833 0.217 -76.83 0.974 12.557 0.974 12.557 0.217 -76.83
3768.792 0.214 -77.031 0.975 12.345 0.975 12.345 0.214 -77.031
3793.75 0.21 -77.23 0.975 12.134 0.975 12.134 0.21 -77.23
3818.708 0.207 -77.428 0.976 11.925 0.976 11.925 0.207 -77.428
3843.667 0.203 -77.623 0.977 11.718 0.977 11.718 0.203 -77.623
3868.625 0.2 -77.817 0.978 11.512 0.978 11.512 0.2 -77.817
3893.583 0.196 -78.009 0.978 11.308 0.978 11.308 0.196 -78.009
3918.542 0.193 -78.199 0.979 11.105 0.979 11.105 0.193 -78.199
3943.5 0.189 -78.388 0.98 10.903 0.98 10.903 0.189 -78.388
3968.458 0.186 -78.574 0.98 10.703 0.98 10.703 0.186 -78.574
3993.417 0.182 -78.759 0.981 10.504 0.981 10.504 0.182 -78.759
4018.375 0.179 -78.942 0.982 10.307 0.982 10.307 0.179 -78.942
4043.333 0.176 -79.123 0.982 10.111 0.982 10.111 0.176 -79.123
4068.292 0.172 -79.302 0.983 9.916 0.983 9.916 0.172 -79.302
4093.25 0.169 -79.479 0.983 9.723 0.983 9.723 0.169 -79.479
4118.208 0.166 -79.655 0.984 9.531 0.984 9.531 0.166 -79.655
4143.167 0.162 -79.829 0.984 9.341 0.984 9.341 0.162 -79.829
4168.125 0.159 -80.001 0.985 9.151 0.985 9.151 0.159 -80.001
4193.083 0.156 -80.171 0.985 8.963 0.985 8.963 0.156 -80.171
4218.042 0.153 -80.339 0.986 8.776 0.986 8.776 0.153 -80.339
4243 0.149 -80.505 0.986 8.59 0.986 8.59 0.149 -80.505
4267.958 0.146 -80.669 0.987 8.406 0.987 8.406 0.146 -80.669
4292.917 0.143 -80.832 0.987 8.223 0.987 8.223 0.143 -80.832
4317.875 0.14 -80.992 0.988 8.041 0.988 8.041 0.14 -80.992
4342.833 0.137 -81.151 0.988 7.86 0.988 7.86 0.137 -81.151
4367.792 0.134 -81.307 0.989 7.68 0.989 7.68 0.134 -81.307
4392.75 0.131 -81.461 0.989 7.501 0.989 7.501 0.131 -81.461
4417.708 0.127 -81.614 0.989 7.323 0.989 7.323 0.127 -81.614
4442.667 0.124 -81.764 0.99 7.147 0.99 7.147 0.124 -81.764
4467.625 0.121 -81.911 0.99 6.971 0.99 6.971 0.121 -81.911
4492.583 0.118 -82.057 0.991 6.797 0.991 6.797 0.118 -82.057
4517.542 0.115 -82.2 0.991 6.624 0.991 6.624 0.115 -82.2
4542.5 0.112 -82.34 0.991 6.451 0.991 6.451 0.112 -82.34
4567.458 0.109 -82.479 0.992 6.28 0.992 6.28 0.109 -82.479
4592.417 0.106 -82.614 0.992 6.11 0.992 6.11 0.106 -82.614
4617.375 0.104 -82.747 0.992 5.94 0.992 5.94 0.104 -82.747
4642.333 0.101 -82.876 0.993 5.772 0.993 5.772 0.101 -82.876
4667.292 0.098 -83.003 0.993 5.605 0.993 5.605 0.098 -83.003
4692.25 0.095 -83.127 0.993 5.438 0.993 5.438 0.095 -83.127
4717.208 0.092 -83.247 0.993 5.273 0.993 5.273 0.092 -83.247
4742.167 0.089 -83.363 0.994 5.108 0.994 5.108 0.089 -83.363
4767.125 0.086 -83.476 0.994 4.945 0.994 4.945 0.086 -83.476
4792.083 0.083 -83.585 0.994 4.782 0.994 4.782 0.083 -83.585
4817.042 0.081 -83.689 0.994 4.62 0.994 4.62 0.081 -83.689
4842 0.078 -83.789 0.995 4.46 0.995 4.46 0.078 -83.789
4866.958 0.075 -83.884 0.995 4.3 0.995 4.3 0.075 -83.884
4891.917 0.072 -83.973 0.995 4.14 0.995 4.14 0.072 -83.973
4916.875 0.069 -84.056 0.995 3.982 0.995 3.982 0.069 -84.056
4941.833 0.067 -84.132 0.995 3.825 0.995 3.825 0.067 -84.132
4966.792 0.064 -84.202 0.996 3.668 0.996 3.668 0.064 -84.202
4991.75 0.061 -84.263 0.996 3.512 0.996 3.512 0.061 -84.263
5016.708 0.059 -84.315 0.996 3.357 0.996 3.357 0.059 -84.315
5041.667 0.056 -84.357 0.996 3.203 0.996 3.203 0.056 -84.357
5066.625 0.053 -84.387 0.996 3.05 0.996 3.05 0.053 -84.387
5091.583 0.051 -84.405 0.996 2.897 0.996 2.897 0.051 -84.405
5116.542 0.048 -84.407 0.996 2.745 0.996 2.745 0.048 -84.407
5141.5 0.045 -84.393 0.997 2.594 0.997 2.594 0.045 -84.393
5166.458 0.043 -84.358 0.997 2.444 0.997 2.444 0.043 -84.358
5191.417 0.04 -84.299 0.997 2.294 0.997 2.294 0.04 -84.299
5216.375 0.038 -84.212 0.997 2.145 0.997 2.145 0.038 -84.212
5241.333 0.035 -84.091 0.997 1.997 0.997 1.997 0.035 -84.091
5266.292 0.032 -83.927 0.997 1.85 0.997 1.85 0.032 -83.927
5291.25 0.03 -83.711 0.997 1.703 0.997 1.703 0.03 -83.711
5316.208 0.027 -83.43 0.997 1.557 0.997 1.557 0.027 -83.43
5341.167 0.025 -83.062 0.997 1.412 0.997 1.412 0.025 -83.062
5366.125 0.022 -82.58 0.997 1.267 0.997 1.267 0.022 -82.58
5391.083 0.02 -81.944 0.997 1.124 0.997 1.124 0.02 -81.944
5416.042 0.017 -81.086 0.997 0.98 0.997 0.98 0.017 -81.086
5441 0.015 -79.9 0.998 0.838 0.998 0.838 0.015 -79.9
5465.958 0.012 -78.197 0.998 0.696 0.998 0.696 0.012 -78.197
5490.917 9.971e-3 -75.608 0.998 0.555 0.998 0.555 9.971e-3 -75.608
5515.875 7.611e-3 -71.327 0.998 0.414 0.998 0.414 7.611e-3 -71.327
5540.833 5.347e-3 -63.238 0.998 0.274 0.998 0.274 5.347e-3 -63.238
5565.792 3.351e-3 -44.496 0.998 0.135 0.998 0.135 3.351e-3 -44.496
5590.75 2.386e-3 1.589 0.998 -3.8e-3 0.998 -3.8e-3 2.386e-3 1.589
5615.708 3.438e-3 45.934 0.998 -0.142 0.998 -0.142 3.438e-3 45.934
5640.667 5.427e-3 63.654 0.998 -0.279 0.998 -0.279 5.427e-3 63.654
5665.625 7.645e-3 71.408 0.998 -0.416 0.998 -0.416 7.645e-3 71.408
5690.583 9.932e-3 75.555 0.998 -0.552 0.998 -0.552 9.932e-3 75.555
5715.542 0.012 78.081 0.998 -0.688 0.998 -0.688 0.012 78.081
5740.5 0.015 79.753 0.998 -0.823 0.998 -0.823 0.015 79.753
5765.458 0.017 80.923 0.997 -0.958 0.997 -0.958 0.017 80.923
5790.417 0.019 81.775 0.997 -1.092 0.997 -1.092 0.019 81.775
5815.375 0.022 82.411 0.997 -1.225 0.997 -1.225 0.022 82.411
5840.333 0.024 82.897 0.997 -1.358 0.997 -1.358 0.024 82.897
5865.292 0.026 83.272 0.997 -1.49 0.997 -1.49 0.026 83.272
5890.25 0.028 83.563 0.997 -1.622 0.997 -1.622 0.028 83.563
5915.208 0.031 83.791 0.997 -1.753 0.997 -1.753 0.031 83.791
5940.167 0.033 83.969 0.997 -1.883 0.997 -1.883 0.033 83.969
5965.125 0.035 84.106 0.997 -2.014 0.997 -2.014 0.035 84.106
5990.083 0.037 84.21 0.997 -2.143 0.997 -2.143 0.037 84.21
6015.042 0.04 84.288 0.997 -2.272 0.997 -2.272 0.04 84.288
6040 0.042 84.344 0.997 -2.401 0.997 -2.401 0.042 84.344
6064.958 0.044 84.38 0.997 -2.529 0.997 -2.529 0.044 84.38
6089.917 0.046 84.401 0.997 -2.656 0.997 -2.656 0.046 84.401
6114.875 0.049 84.408 0.996 -2.783 0.996 -2.783 0.049 84.408
6139.833 0.051 84.404 0.996 -2.91 0.996 -2.91 0.051 84.404
6164.792 0.053 84.39 0.996 -3.036 0.996 -3.036 0.053 84.39
6189.75 0.055 84.366 0.996 -3.161 0.996 -3.161 0.055 84.366
6214.708 0.057 84.335 0.996 -3.286 0.996 -3.286 0.057 84.335
6239.667 0.06 84.298 0.996 -3.411 0.996 -3.411 0.06 84.298
6264.625 0.062 84.254 0.996 -3.535 0.996 -3.535 0.062 84.254
6289.583 0.064 84.206 0.996 -3.658 0.996 -3.658 0.064 84.206
6314.542 0.066 84.152 0.995 -3.781 0.995 -3.781 0.066 84.152
6339.5 0.068 84.095 0.995 -3.904 0.995 -3.904 0.068 84.095
6364.458 0.07 84.033 0.995 -4.026 0.995 -4.026 0.07 84.033
6389.417 0.072 83.969 0.995 -4.148 0.995 -4.148 0.072 83.969
6414.375 0.074 83.901 0.995 -4.269 0.995 -4.269 0.074 83.901
6439.333 0.077 83.831 0.995 -4.39 0.995 -4.39 0.077 83.831
6464.292 0.079 83.758 0.995 -4.511 0.995 -4.511 0.079 83.758
6489.25 0.081 83.683 0.994 -4.631 0.994 -4.631 0.081 83.683
6514.208 0.083 83.606 0.994 -4.75 0.994 -4.75 0.083 83.606
6539.167 0.085 83.527 0.994 -4.869 0.994 -4.869 0.085 83.527
6564.125 0.087 83.447 0.994 -4.988 0.994 -4.988 0.087 83.447
6589.083 0.089 83.365 0.994 -5.106 0.994 -5.106 0.089 83.365
6614.042 0.091 83.282 0.993 -5.224 0.993 -5.224 0.091 83.282
6639 0.093 83.197 0.993 -5.341 0.993 -5.341 0.093 83.197
6663.958 0.095 83.112 0.993 -5.459 0.993 -5.459 0.095 83.112
6688.917 0.097 83.025 0.993 -5.575 0.993 -5.575 0.097 83.025
6713.875 0.099 82.938 0.993 -5.691 0.993 -5.691 0.099 82.938
6738.833 0.101 82.85 0.992 -5.807 0.992 -5.807 0.101 82.85
6763.792 0.103 82.76 0.992 -5.923 0.992 -5.923 0.103 82.76
6788.75 0.105 82.671 0.992 -6.038 0.992 -6.038 0.105 82.671
6813.708 0.107 82.58 0.992 -6.152 0.992 -6.152 0.107 82.58
6838.667 0.109 82.489 0.992 -6.267 0.992 -6.267 0.109 82.489
6863.625 0.111 82.398 0.991 -6.38 0.991 -6.38 0.111 82.398
6888.583 0.113 82.306 0.991 -6.494 0.991 -6.494 0.113 82.306
6913.542 0.115 82.213 0.991 -6.607 0.991 -6.607 0.115 82.213
6938.5 0.117 82.121 0.991 -6.72 0.991 -6.72 0.117 82.121
6963.458 0.119 82.028 0.991 -6.832 0.991 -6.832 0.119 82.028
6988.417 0.121 81.934 0.99 -6.944 0.99 -6.944 0.121 81.934
7013.375 0.123 81.84 0.99 -7.056 0.99 -7.056 0.123 81.84
7038.333 0.125 81.746 0.99 -7.167 0.99 -7.167 0.125 81.746
7063.292 0.127 81.652 0.99 -7.278 0.99 -7.278 0.127 81.652
7088.25 0.129 81.558 0.989 -7.388 0.989 -7.388 0.129 81.558
7113.208 0.131 81.463 0.989 -7.499 0.989 -7.499 0.131 81.463
7138.167 0.132 81.369 0.989 -7.609 0.989 -7.609 0.132 81.369
7163.125 0.134 81.274 0.989 -7.718 0.989 -7.718 0.134 81.274
7188.083 0.136 81.179 0.988 -7.827 0.988 -7.827 0.136 81.179
7213.042 0.138 81.084 0.988 -7.936 0.988 -7.936 0.138 81.084
7238 0.14 80.989 0.988 -8.044 0.988 -8.044 0.14 80.989
7262.958 0.142 80.894 0.988 -8.153 0.988 -8.153 0.142 80.894
7287.917 0.144 80.798 0.987 -8.26 0.987 -8.26 0.144 80.798
7312.875 0.146 80.703 0.987 -8.368 0.987 -8.368 0.146 80.703
7337.833 0.147 80.608 0.987 -8.475 0.987 -8.475 0.147 80.608
7362.792 0.149 80.513 0.986 -8.582 0.986 -8.582 0.149 80.513
7387.75 0.151 80.418 0.986 -8.688 0.986 -8.688 0.151 80.418
7412.708 0.153 80.322 0.986 -8.795 0.986 -8.795 0.153 80.322
7437.667 0.155 80.227 0.986 -8.9 0.986 -8.9 0.155 80.227
7462.625 0.157 80.132 0.985 -9.006 0.985 -9.006 0.157 80.132
7487.583 0.158 80.037 0.985 -9.111 0.985 -9.111 0.158 80.037
7512.542 0.16 79.942 0.985 -9.216 0.985 -9.216 0.16 79.942
7537.5 0.162 79.847 0.984 -9.321 0.984 -9.321 0.162 79.847
7562.458 0.164 79.752 0.984 -9.425 0.984 -9.425 0.164 79.752
7587.417 0.166 79.657 0.984 -9.529 0.984 -9.529 0.166 79.657
7612.375 0.167 79.562 0.984 -9.633 0.984 -9.633 0.167 79.562
7637.333 0.169 79.468 0.983 -9.736 0.983 -9.736 0.169 79.468
7662.292 0.171 79.373 0.983 -9.839 0.983 -9.839 0.171 79.373
7687.25 0.173 79.279 0.983 -9.942 0.983 -9.942 0.173 79.279
7712.208 0.174 79.184 0.982 -10.044 0.982 -10.044 0.174 79.184
7737.167 0.176 79.09 0.982 -10.147 0.982 -10.147 0.176 79.09
7762.125 0.178 78.996 0.982 -10.248 0.982 -10.248 0.178 78.996
7787.083 0.18 78.902 0.981 -10.35 0.981 -10.35 0.18 78.902
7812.042 0.181 78.808 0.981 -10.451 0.981 -10.451 0.181 78.808
7837 0.183 78.714 0.981 -10.552 0.981 -10.552 0.183 78.714
7861.958 0.185 78.62 0.98 -10.653 0.98 -10.653 0.185 78.62
7886.917 0.187 78.527 0.98 -10.754 0.98 -10.754 0.187 78.527
7911.875 0.188 78.433 0.98 -10.854 0.98 -10.854 0.188 78.433
7936.833 0.19 78.34 0.979 -10.954 0.979 -10.954 0.19 78.34
7961.792 0.192 78.247 0.979 -11.054 0.979 -11.054 0.192 78.247
7986.75 0.193 78.154 0.979 -11.153 0.979 -11.153 0.193 78.154
8011.708 0.195 78.061 0.978 -11.252 0.978 -11.252 0.195 78.061
8036.667 0.197 77.969 0.978 -11.351 0.978 -11.351 0.197 77.969
8061.625 0.199 77.876 0.978 -11.449 0.978 -11.449 0.199 77.876
8086.583 0.2 77.784 0.977 -11.548 0.977 -11.548 0.2 77.784
8111.542 0.202 77.691 0.977 -11.646 0.977 -11.646 0.202 77.691
8136.5 0.204 77.599 0.977 -11.744 0.977 -11.744 0.204 77.599
8161.458 0.205 77.507 0.976 -11.841 0.976 -11.841 0.205 77.507
8186.417 0.207 77.415 0.976 -11.938 0.976 -11.938 0.207 77.415
