# MHZ S MA R 50

50 0.978 -12.064 0.209 77.92 0.209 77.92 0.978 -12.064
74.958 0.952 -17.776 0.305 72.201 0.305 72.201 0.952 -17.776
99.917 0.919 -23.155 0.393 66.813 0.393 66.813 0.919 -23.155
124.875 0.881 -28.149 0.472 61.811 0.472 61.811 0.881 -28.149
149.833 0.841 -32.733 0.541 57.22 0.541 57.22 0.841 -32.733
174.792 0.799 -36.907 0.601 53.038 0.601 53.038 0.799 -36.907
199.75 0.758 -40.686 0.652 49.251 0.652 49.251 0.758 -40.686
224.708 0.717 -44.098 0.696 45.83 0.696 45.83 0.717 -44.098
249.667 0.679 -47.176 0.733 42.745 0.733 42.745 0.679 -47.176
274.625 0.642 -49.952 0.766 39.961 0.766 39.961 0.642 -49.952
299.583 0.608 -52.459 0.793 37.446 0.793 37.446 0.608 -52.459
324.542 0.576 -54.727 0.816 35.169 0.816 35.169 0.576 -54.727
349.5 0.546 -56.784 0.837 33.103 0.837 33.103 0.546 -56.784
374.458 0.518 -58.655 0.854 31.224 0.854 31.224 0.518 -58.655
399.417 0.493 -60.361 0.869 29.509 0.869 29.509 0.493 -60.361
424.375 0.469 -61.922 0.882 27.94 0.882 27.94 0.469 -61.922
449.333 0.446 -63.354 0.894 26.499 0.894 26.499 0.446 -63.354
474.292 0.425 -64.671 0.904 25.173 0.904 25.173 0.425 -64.671
499.25 0.406 -65.887 0.913 23.948 0.913 23.948 0.406 -65.887
524.208 0.388 -67.012 0.921 22.814 0.921 22.814 0.388 -67.012
549.167 0.371 -68.055 0.928 21.761 0.928 21.761 0.371 -68.055
574.125 0.355 -69.026 0.934 20.781 0.934 20.781 0.355 -69.026
599.083 0.34 -69.932 0.939 19.865 0.939 19.865 0.34 -69.932
624.042 0.326 -70.778 0.944 19.009 0.944 19.009 0.326 -70.778
649 0.312 -71.571 0.949 18.206 0.949 18.206 0.312 -71.571
673.958 0.3 -72.316 0.953 17.451 0.953 17.451 0.3 -72.316
698.917 0.288 -73.017 0.956 16.74 0.956 16.74 0.288 -73.017
723.875 0.277 -73.678 0.96 16.068 0.96 16.068 0.277 -73.678
748.833 0.266 -74.302 0.963 15.433 0.963 15.433 0.266 -74.302
773.792 0.256 -74.892 0.965 14.831 0.965 14.831 0.256 -74.892
798.75 0.246 -75.452 0.968 14.26 0.968 14.26 0.246 -75.452
823.708 0.237 -75.983 0.97 13.717 0.97 13.717 0.237 -75.983
848.667 0.228 -76.488 0.972 13.199 0.972 13.199 0.228 -76.488
873.625 0.22 -76.969 0.974 12.706 0.974 12.706 0.22 -76.969
898.583 0.212 -77.428 0.976 12.234 0.976 12.234 0.212 -77.428
923.542 0.204 -77.866 0.978 11.783 0.978 11.783 0.204 -77.866
948.5 0.197 -78.285 0.979 11.35 0.979 11.35 0.197 -78.285
973.458 0.19 -78.685 0.981 10.935 0.981 10.935 0.19 -78.685
998.417 0.183 -79.069 0.982 10.537 0.982 10.537 0.183 -79.069
1023.375 0.176 -79.437 0.983 10.154 0.983 10.154 0.176 -79.437
1048.333 0.17 -79.791 0.984 9.785 0.984 9.785 0.17 -79.791
1073.292 0.164 -80.13 0.985 9.429 0.985 9.429 0.164 -80.13
1098.25 0.158 -80.457 0.986 9.085 0.986 9.085 0.158 -80.457
1123.208 0.152 -80.771 0.987 8.754 0.987 8.754 0.152 -80.771
1148.167 0.147 -81.073 0.988 8.433 0.988 8.433 0.147 -81.073
1173.125 0.141 -81.364 0.989 8.122 0.989 8.122 0.141 -81.364
1198.083 0.136 -81.645 0.989 7.822 0.989 7.822 0.136 -81.645
1223.042 0.131 -81.916 0.99 7.53 0.99 7.53 0.131 -81.916
1248 0.126 -82.177 0.991 7.247 0.991 7.247 0.126 -82.177
1272.958 0.121 -82.429 0.991 6.972 0.991 6.972 0.121 -82.429
1297.917 0.117 -82.673 0.992 6.704 0.992 6.704 0.117 -82.673
1322.875 0.112 -82.907 0.992 6.444 0.992 6.444 0.112 -82.907
1347.833 0.108 -83.134 0.993 6.191 0.993 6.191 0.108 -83.134
1372.792 0.104 -83.352 0.993 5.944 0.993 5.944 0.104 -83.352
1397.75 0.099 -83.563 0.994 5.703 0.994 5.703 0.099 -83.563
1422.708 0.095 -83.766 0.994 5.469 0.994 5.469 0.095 -83.766
1447.667 0.091 -83.962 0.995 5.239 0.995 5.239 0.091 -83.962
1472.625 0.087 -84.15 0.995 5.015 0.995 5.015 0.087 -84.15
1497.583 0.084 -84.33 0.995 4.797 0.995 4.797 0.084 -84.33
1522.542 0.08 -84.504 0.996 4.583 0.996 4.583 0.08 -84.504
1547.5 0.076 -84.669 0.996 4.373 0.996 4.373 0.076 -84.669
1572.458 0.073 -84.827 0.996 4.168 0.996 4.168 0.073 -84.827
1597.417 0.069 -84.977 0.996 3.967 0.996 3.967 0.069 -84.977
1622.375 0.066 -85.118 0.997 3.77 0.997 3.77 0.066 -85.118
1647.333 0.062 -85.251 0.997 3.577 0.997 3.577 0.062 -85.251
1672.292 0.059 -85.375 0.997 3.387 0.997 3.387 0.059 -85.375
1697.25 0.056 -85.489 0.997 3.201 0.997 3.201 0.056 -85.489
1722.208 0.053 -85.593 0.997 3.018 0.997 3.018 0.053 -85.593
1747.167 0.05 -85.684 0.997 2.839 0.997 2.839 0.05 -85.684
1772.125 0.046 -85.763 0.998 2.662 0.998 2.662 0.046 -85.763
1797.083 0.043 -85.826 0.998 2.489 0.998 2.489 0.043 -85.826
1822.042 0.04 -85.873 0.998 2.318 0.998 2.318 0.04 -85.873
1847 0.038 -85.899 0.998 2.15 0.998 2.15 0.038 -85.899
1871.958 0.035 -85.902 0.998 1.985 0.998 1.985 0.035 -85.902
1896.917 0.032 -85.876 0.998 1.822 0.998 1.822 0.032 -85.876
1921.875 0.029 -85.815 0.998 1.661 0.998 1.661 0.029 -85.815
1946.833 0.026 -85.707 0.998 1.503 0.998 1.503 0.026 -85.707
1971.792 0.024 -85.541 0.998 1.347 0.998 1.347 0.024 -85.541
1996.75 0.021 -85.295 0.999 1.194 0.999 1.194 0.021 -85.295
2021.708 0.018 -84.937 0.999 1.042 0.999 1.042 0.018 -84.937
2046.667 0.016 -84.415 0.999 0.892 0.999 0.892 0.016 -84.415
2071.625 0.013 -83.637 0.999 0.745 0.999 0.745 0.013 -83.637
2096.583 0.011 -82.426 0.999 0.599 0.999 0.599 0.011 -82.426
2121.542 8.039e-3 -80.394 0.999 0.455 0.999 0.455 8.039e-3 -80.394
2146.5 5.6e-3 -76.491 0.999 0.312 0.999 0.312 5.6e-3 -76.491
2171.458 3.259e-3 -66.732 0.999 0.172 0.999 0.172 3.259e-3 -66.732
2196.417 1.401e-3 -24.071 0.999 0.033 0.999 0.033 1.401e-3 -24.071
2221.375 2.23e-3 54.903 0.999 -0.105 0.999 -0.105 2.23e-3 54.903
2246.333 4.389e-3 72.822 0.999 -0.241 0.999 -0.241 4.389e-3 72.822
2271.292 6.668e-3 78.571 0.999 -0.375 0.999 -0.375 6.668e-3 78.571
2296.25 8.958e-3 81.286 0.999 -0.508 0.999 -0.508 8.958e-3 81.286
2321.208 0.011 82.827 0.999 -0.64 0.999 -0.64 0.011 82.827
2346.167 0.013 83.795 0.999 -0.77 0.999 -0.77 0.013 83.795
2371.125 0.016 84.442 0.999 -0.899 0.999 -0.899 0.016 84.442
2396.083 0.018 84.892 0.999 -1.027 0.999 -1.027 0.018 84.892
2421.042 0.02 85.212 0.999 -1.153 0.999 -1.153 0.02 85.212
2446 0.022 85.442 0.998 -1.278 0.998 -1.278 0.022 85.442
2470.958 0.025 85.608 0.998 -1.403 0.998 -1.403 0.025 85.608
2495.917 0.027 85.726 0.998 -1.526 0.998 -1.526 0.027 85.726
2520.875 0.029 85.807 0.998 -1.648 0.998 -1.648 0.029 85.807
2545.833 0.031 85.86 0.998 -1.768 0.998 -1.768 0.031 85.86
2570.792 0.033 85.891 0.998 -1.888 0.998 -1.888 0.033 85.891
2595.75 0.035 85.903 0.998 -2.007 0.998 -2.007 0.035 85.903
2620.708 0.037 85.901 0.998 -2.125 0.998 -2.125 0.037 85.901
2645.667 0.039 85.887 0.998 -2.242 0.998 -2.242 0.039 85.887
2670.625 0.041 85.864 0.998 -2.358 0.998 -2.358 0.041 85.864
2695.583 0.043 85.831 0.998 -2.473 0.998 -2.473 0.043 85.831
2720.542 0.045 85.792 0.998 -2.587 0.998 -2.587 0.045 85.792
2745.5 0.047 85.747 0.998 -2.701 0.998 -2.701 0.047 85.747
2770.458 0.049 85.696 0.998 -2.813 0.998 -2.813 0.049 85.696
2795.417 0.051 85.641 0.997 -2.925 0.997 -2.925 0.051 85.641
2820.375 0.053 85.583 0.997 -3.036 0.997 -3.036 0.053 85.583
2845.333 0.055 85.521 0.997 -3.147 0.997 -3.147 0.055 85.521
2870.292 0.057 85.456 0.997 -3.256 0.997 -3.256 0.057 85.456
2895.25 0.059 85.389 0.997 -3.365 0.997 -3.365 0.059 85.389
2920.208 0.061 85.32 0.997 -3.473 0.997 -3.473 0.061 85.32
2945.167 0.062 85.249 0.997 -3.58 0.997 -3.58 0.062 85.249
2970.125 0.064 85.176 0.997 -3.687 0.997 -3.687 0.064 85.176
2995.083 0.066 85.102 0.997 -3.793 0.997 -3.793 0.066 85.102
3020.042 0.068 85.027 0.996 -3.898 0.996 -3.898 0.068 85.027
3045 0.07 84.95 0.996 -4.003 0.996 -4.003 0.07 84.95
3069.958 0.072 84.873 0.996 -4.107 0.996 -4.107 0.072 84.873
3094.917 0.073 84.794 0.996 -4.211 0.996 -4.211 0.073 84.794
3119.875 0.075 84.715 0.996 -4.314 0.996 -4.314 0.075 84.715
3144.833 0.077 84.635 0.996 -4.416 0.996 -4.416 0.077 84.635
3169.792 0.079 84.555 0.996 -4.518 0.996 -4.518 0.079 84.555
3194.75 0.081 84.474 0.995 -4.619 0.995 -4.619 0.081 84.474
3219.708 0.082 84.393 0.995 -4.72 0.995 -4.72 0.082 84.393
3244.667 0.084 84.311 0.995 -4.82 0.995 -4.82 0.084 84.311
3269.625 0.086 84.229 0.995 -4.92 0.995 -4.92 0.086 84.229
3294.583 0.087 84.147 0.995 -5.019 0.995 -5.019 0.087 84.147
3319.542 0.089 84.064 0.995 -5.118 0.995 -5.118 0.089 84.064
3344.5 0.091 83.981 0.995 -5.216 0.995 -5.216 0.091 83.981
3369.458 0.093 83.899 0.994 -5.314 0.994 -5.314 0.093 83.899
3394.417 0.094 83.816 0.994 -5.411 0.994 -5.411 0.094 83.816
3419.375 0.096 83.732 0.994 -5.508 0.994 -5.508 0.096 83.732
3444.333 0.098 83.649 0.994 -5.604 0.994 -5.604 0.098 83.649
3469.292 0.099 83.566 0.994 -5.7 0.994 -5.7 0.099 83.566
3494.25 0.101 83.482 0.994 -5.796 0.994 -5.796 0.101 83.482
3519.208 0.103 83.399 0.993 -5.891 0.993 -5.891 0.103 83.399
3544.167 0.104 83.316 0.993 -5.986 0.993 -5.986 0.104 83.316
3569.125 0.106 83.232 0.993 -6.08 0.993 -6.08 0.106 83.232
3594.083 0.108 83.149 0.993 -6.174 0.993 -6.174 0.108 83.149
3619.042 0.109 83.066 0.993 -6.267 0.993 -6.267 0.109 83.066
3644 0.111 82.982 0.993 -6.36 0.993 -6.36 0.111 82.982
3668.958 0.112 82.899 0.992 -6.453 0.992 -6.453 0.112 82.899
3693.917 0.114 82.816 0.992 -6.546 0.992 -6.546 0.114 82.816
3718.875 0.116 82.733 0.992 -6.638 0.992 -6.638 0.116 82.733
3743.833 0.117 82.65 0.992 -6.729 0.992 -6.729 0.117 82.65
3768.792 0.119 82.567 0.992 -6.821 0.992 -6.821 0.119 82.567
3793.75 0.12 82.484 0.991 -6.912 0.991 -6.912 0.12 82.484
3818.708 0.122 82.401 0.991 -7.002 0.991 -7.002 0.122 82.401
3843.667 0.123 82.319 0.991 -7.092 0.991 -7.092 0.123 82.319
3868.625 0.125 82.236 0.991 -7.182 0.991 -7.182 0.125 82.236
3893.583 0.127 82.154 0.991 -7.272 0.991 -7.272 0.127 82.154
3918.542 0.128 82.071 0.99 -7.361 0.99 -7.361 0.128 82.071
3943.5 0.13 81.989 0.99 -7.451 0.99 -7.451 0.13 81.989
3968.458 0.131 81.907 0.99 -7.539 0.99 -7.539 0.131 81.907
3993.417 0.133 81.825 0.99 -7.628 0.99 -7.628 0.133 81.825
4018.375 0.134 81.743 0.99 -7.716 0.99 -7.716 0.134 81.743
4043.333 0.136 81.662 0.989 -7.804 0.989 -7.804 0.136 81.662
4068.292 0.137 81.58 0.989 -7.891 0.989 -7.891 0.137 81.58
4093.25 0.139 81.499 0.989 -7.979 0.989 -7.979 0.139 81.499
4118.208 0.14 81.417 0.989 -8.066 0.989 -8.066 0.14 81.417
4143.167 0.142 81.336 0.989 -8.152 0.989 -8.152 0.142 81.336
4168.125 0.143 81.255 0.988 -8.239 0.988 -8.239 0.143 81.255
4193.083 0.145 81.174 0.988 -8.325 0.988 -8.325 0.145 81.174
4218.042 0.146 81.094 0.988 -8.411 0.988 -8.411 0.146 81.094
4243 0.148 81.013 0.988 -8.497 0.988 -8.497 0.148 81.013
4267.958 0.149 80.932 0.988 -8.582 0.988 -8.582 0.149 80.932
4292.917 0.151 80.852 0.987 -8.667 0.987 -8.667 0.151 80.852
4317.875 0.152 80.772 0.987 -8.752 0.987 -8.752 0.152 80.772
4342.833 0.154 80.692 0.987 -8.837 0.987 -8.837 0.154 80.692
4367.792 0.155 80.612 0.987 -8.922 0.987 -8.922 0.155 80.612
4392.75 0.157 80.532 0.986 -9.006 0.986 -9.006 0.157 80.532
4417.708 0.158 80.452 0.986 -9.09 0.986 -9.09 0.158 80.452
4442.667 0.159 80.373 0.986 -9.174 0.986 -9.174 0.159 80.373
4467.625 0.161 80.293 0.986 -9.257 0.986 -9.257 0.161 80.293
4492.583 0.162 80.214 0.985 -9.34 0.985 -9.34 0.162 80.214
4517.542 0.164 80.135 0.985 -9.424 0.985 -9.424 0.164 80.135
4542.5 0.165 80.056 0.985 -9.506 0.985 -9.506 0.165 80.056
4567.458 0.167 79.977 0.985 -9.589 0.985 -9.589 0.167 79.977
4592.417 0.168 79.899 0.985 -9.672 0.985 -9.672 0.168 79.899
4617.375 0.169 79.82 0.984 -9.754 0.984 -9.754 0.169 79.82
4642.333 0.171 79.741 0.984 -9.836 0.984 -9.836 0.171 79.741
4667.292 0.172 79.663 0.984 -9.918 0.984 -9.918 0.172 79.663
4692.25 0.174 79.585 0.984 -9.999 0.984 -9.999 0.174 79.585
4717.208 0.175 79.507 0.983 -10.081 0.983 -10.081 0.175 79.507
4742.167 0.176 79.429 0.983 -10.162 0.983 -10.162 0.176 79.429
4767.125 0.178 79.351 0.983 -10.243 0.983 -10.243 0.178 79.351
4792.083 0.179 79.274 0.983 -10.324 0.983 -10.324 0.179 79.274
4817.042 0.181 79.196 0.982 -10.405 0.982 -10.405 0.181 79.196
4842 0.182 79.119 0.982 -10.485 0.982 -10.485 0.182 79.119
4866.958 0.183 79.042 0.982 -10.566 0.982 -10.566 0.183 79.042
4891.917 0.185 78.964 0.982 -10.646 0.982 -10.646 0.185 78.964
4916.875 0.186 78.887 0.981 -10.726 0.981 -10.726 0.186 78.887
4941.833 0.187 78.811 0.981 -10.806 0.981 -10.806 0.187 78.811
4966.792 0.189 78.734 0.981 -10.885 0.981 -10.885 0.189 78.734
4991.75 0.19 78.657 0.98 -10.965 0.98 -10.965 0.19 78.657
5016.708 0.192 78.581 0.98 -11.044 0.98 -11.044 0.192 78.581
5041.667 0.193 78.504 0.98 -11.123 0.98 -11.123 0.193 78.504
5066.625 0.194 78.428 0.98 -11.202 0.98 -11.202 0.194 78.428
5091.583 0.196 78.352 0.979 -11.281 0.979 -11.281 0.196 78.352
5116.542 0.197 78.276 0.979 -11.359 0.979 -11.359 0.197 78.276
5141.5 0.198 78.2 0.979 -11.438 0.979 -11.438 0.198 78.2
5166.458 0.2 78.124 0.979 -11.516 0.979 -11.516 0.2 78.124
5191.417 0.201 78.049 0.978 -11.594 0.978 -11.594 0.201 78.049
5216.375 0.202 77.973 0.978 -11.672 0.978 -11.672 0.202 77.973
5241.333 0.204 77.898 0.978 -11.75 0.978 -11.75 0.204 77.898
5266.292 0.205 77.823 0.978 -11.828 0.978 -11.828 0.205 77.823
5291.25 0.206 77.747 0.977 -11.905 0.977 -11.905 0.206 77.747
5316.208 0.208 77.672 0.977 -11.982 0.977 -11.982 0.208 77.672
5341.167 0.209 77.598 0.977 -12.06 0.977 -12.06 0.209 77.598
5366.125 0.21 77.523 0.976 -12.137 0.976 -12.137 0.21 77.523
5391.083 0.212 77.448 0.976 -12.214 0.976 -12.214 0.212 77.448
5416.042 0.213 77.373 0.976 -12.29 0.976 -12.29 0.213 77.373
5441 0.214 77.299 0.976 -12.367 0.976 -12.367 0.214 77.299
5465.958 0.215 77.225 0.975 -12.443 0.975 -12.443 0.215 77.225
5490.917 0.217 77.15 0.975 -12.52 0.975 -12.52 0.217 77.15
5515.875 0.218 77.076 0.975 -12.596 0.975 -12.596 0.218 77.076
5540.833 0.219 77.002 0.974 -12.672 0.974 -12.672 0.219 77.002
5565.792 0.221 76.928 0.974 -12.748 0.974 -12.748 0.221 76.928
5590.75 0.222 76.855 0.974 -12.823 0.974 -12.823 0.222 76.855
5615.708 0.223 76.781 0.974 -12.899 0.974 -12.899 0.223 76.781
5640.667 0.225 76.707 0.973 -12.975 0.973 -12.975 0.225 76.707
5665.625 0.226 76.634 0.973 -13.05 0.973 -13.05 0.226 76.634
5690.583 0.227 76.561 0.973 -13.125 0.973 -13.125 0.227 76.561
5715.542 0.228 76.487 0.972 -13.2 0.972 -13.2 0.228 76.487
5740.5 0.23 76.414 0.972 -13.275 0.972 -13.275 0.23 76.414
5765.458 0.231 76.341 0.972 -13.35 0.972 -13.35 0.231 76.341
5790.417 0.232 76.268 0.971 -13.425 0.971 -13.425 0.232 76.268
5815.375 0.233 76.196 0.971 -13.499 0.971 -13.499 0.233 76.196
5840.333 0.235 76.123 0.971 -13.574 0.971 -13.574 0.235 76.123
5865.292 0.236 76.05 0.971 -13.648 0.971 -13.648 0.236 76.05
5890.25 0.237 75.978 0.97 -13.722 0.97 -13.722 0.237 75.978
5915.208 0.238 75.905 0.97 -13.796 0.97 -13.796 0.238 75.905
5940.167 0.24 75.833 0.97 -13.87 0.97 -13.87 0.24 75.833
5965.125 0.241 75.761 0.969 -13.944 0.969 -13.944 0.241 75.761
5990.083 0.242 75.689 0.969 -14.018 0.969 -14.018 0.242 75.689
6015.042 0.243 75.617 0.969 -14.091 0.969 -14.091 0.243 75.617
6040 0.245 75.545 0.968 -14.165 0.968 -14.165 0.245 75.545
6064.958 0.246 75.473 0.968 -14.238 0.968 -14.238 0.246 75.473
6089.917 0.247 75.401 0.968 -14.311 0.968 -14.311 0.247 75.401
6114.875 0.248 75.33 0.967 -14.385 0.967 -14.385 0.248 75.33
6139.833 0.25 75.258 0.967 -14.458 0.967 -14.458 0.25 75.258
6164.792 0.251 75.187 0.967 -14.53 0.967 -14.53 0.251 75.187
6189.75 0.252 75.116 0.966 -14.603 0.966 -14.603 0.252 75.116
6214.708 0.253 75.044 0.966 -14.676 0.966 -14.676 0.253 75.044
6239.667 0.255 74.973 0.966 -14.748 0.966 -14.748 0.255 74.973
6264.625 0.256 74.902 0.965 -14.821 0.965 -14.821 0.256 74.902
6289.583 0.257 74.831 0.965 -14.893 0.965 -14.893 0.257 74.831
6314.542 0.258 74.761 0.965 -14.965 0.965 -14.965 0.258 74.761
6339.5 0.259 74.69 0.965 -15.037 0.965 -15.037 0.259 74.69
6364.458 0.261 74.619 0.964 -15.109 0.964 -15.109 0.261 74.619
6389.417 0.262 74.549 0.964 -15.181 0.964 -15.181 0.262 74.549
6414.375 0.263 74.478 0.964 -15.253 0.964 -15.253 0.263 74.478
6439.333 0.264 74.408 0.963 -15.325 0.963 -15.325 0.264 74.408
6464.292 0.265 74.338 0.963 -15.396 0.963 -15.396 0.265 74.338
6489.25 0.267 74.268 0.963 -15.468 0.963 -15.468 0.267 74.268
6514.208 0.268 74.198 0.962 -15.539 0.962 -15.539 0.268 74.198
6539.167 0.269 74.128 0.962 -15.61 0.962 -15.61 0.269 74.128
6564.125 0.27 74.058 0.962 -15.681 0.962 -15.681 0.27 74.058
6589.083 0.271 73.988 0.961 -15.752 0.961 -15.752 0.271 73.988
6614.042 0.273 73.918 0.961 -15.823 0.961 -15.823 0.273 73.918
6639 0.274 73.849 0.961 -15.894 0.961 -15.894 0.274 73.849
6663.958 0.275 73.779 0.96 -15.965 0.96 -15.965 0.275 73.779
6688.917 0.276 73.71 0.96 -16.035 0.96 -16.035 0.276 73.71
6713.875 0.277 73.64 0.96 -16.106 0.96 -16.106 0.277 73.64
6738.833 0.279 73.571 0.959 -16.176 0.959 -16.176 0.279 73.571
6763.792 0.28 73.502 0.959 -16.247 0.959 -16.247 0.28 73.502
6788.75 0.281 73.433 0.958 -16.317 0.958 -16.317 0.281 73.433
6813.708 0.282 73.364 0.958 -16.387 0.958 -16.387 0.282 73.364
6838.667 0.283 73.295 0.958 -16.457 0.958 -16.457 0.283 73.295
6863.625 0.284 73.226 0.957 -16.527 0.957 -16.527 0.284 73.226
6888.583 0.286 73.158 0.957 -16.597 0.957 -16.597 0.286 73.158
6913.542 0.287 73.089 0.957 -16.666 0.957 -16.666 0.287 73.089
6938.5 0.288 73.02 0.956 -16.736 0.956 -16.736 0.288 73.02
6963.458 0.289 72.952 0.956 -16.806 0.956 -16.806 0.289 72.952
6988.417 0.29 72.884 0.956 -16.875 0.956 -16.875 0.29 72.884
7013.375 0.291 72.815 0.955 -16.944 0.955 -16.944 0.291 72.815
7038.333 0.293 72.747 0.955 -17.013 0.955 -17.013 0.293 72.747
7063.292 0.294 72.679 0.955 -17.083 0.955 -17.083 0.294 72.679
7088.25 0.295 72.611 0.954 -17.152 0.954 -17.152 0.295 72.611
7113.208 0.296 72.543 0.954 -17.221 0.954 -17.221 0.296 72.543
7138.167 0.297 72.475 0.954 -17.289 0.954 -17.289 0.297 72.475
7163.125 0.298 72.407 0.953 -17.358 0.953 -17.358 0.298 72.407
7188.083 0.299 72.34 0.953 -17.427 0.953 -17.427 0.299 72.34
7213.042 0.301 72.272 0.953 -17.495 0.953 -17.495 0.301 72.272
7238 0.302 72.205 0.952 -17.564 0.952 -17.564 0.302 72.205
7262.958 0.303 72.137 0.952 -17.632 0.952 -17.632 0.303 72.137
7287.917 0.304 72.07 0.951 -17.701 0.951 -17.701 0.304 72.07
7312.875 0.305 72.002 0.951 -17.769 0.951 -17.769 0.305 72.002
7337.833 0.306 71.935 0.951 -17.837 0.951 -17.837 0.306 71.935
7362.792 0.307 71.868 0.95 -17.905 0.95 -17.905 0.307 71.868
7387.75 0.309 71.801 0.95 -17.973 0.95 -17.973 0.309 71.801
7412.708 0.31 71.734 0.95 -18.041 0.95 -18.041 0.31 71.734
7437.667 0.311 71.667 0.949 -18.109 0.949 -18.109 0.311 71.667
7462.625 0.312 71.601 0.949 -18.176 0.949 -18.176 0.312 71.601
7487.583 0.313 71.534 0.949 -18.244 0.949 -18.244 0.313 71.534
7512.542 0.314 71.467 0.948 -18.311 0.948 -18.311 0.314 71.467
7537.5 0.315 71.401 0.948 -18.379 0.948 -18.379 0.315 71.401
7562.458 0.316 71.334 0.947 -18.446 0.947 -18.446 0.316 71.334
7587.417 0.318 71.268 0.947 -18.513 0.947 -18.513 0.318 71.268
7612.375 0.319 71.202 0.947 -18.58 0.947 -18.58 0.319 71.202
7637.333 0.32 71.135 0.946 -18.648 0.946 -18.648 0.32 71.135
7662.292 0.321 71.069 0.946 -18.714 0.946 -18.714 0.321 71.069
7687.25 0.322 71.003 0.946 -18.781 0.946 -18.781 0.322 71.003
7712.208 0.323 70.937 0.945 -18.848 0.945 -18.848 0.323 70.937
7737.167 0.324 70.871 0.945 -18.915 0.945 -18.915 0.324 70.871
7762.125 0.325 70.805 0.944 -18.982 0.944 -18.982 0.325 70.805
7787.083 0.326 70.74 0.944 -19.048 0.944 -19.048 0.326 70.74
7812.042 0.327 70.674 0.944 -19.115 0.944 -19.115 0.327 70.674
7837 0.329 70.608 0.943 -19.181 0.943 -19.181 0.329 70.608
7861.958 0.33 70.543 0.943 -19.247 0.943 -19.247 0.33 70.543
7886.917 0.331 70.478 0.943 -19.313 0.943 -19.313 0.331 70.478
7911.875 0.332 70.412 0.942 -19.38 0.942 -19.38 0.332 70.412
7936.833 0.333 70.347 0.942 -19.446 0.942 -19.446 0.333 70.347
7961.792 0.334 70.282 0.941 -19.512 0.941 -19.512 0.334 70.282
7986.75 0.335 70.217 0.941 -19.577 0.941 -19.577 0.335 70.217
8011.708 0.336 70.152 0.941 -19.643 0.941 -19.643 0.336 70.152
8036.667 0.337 70.087 0.94 -19.709 0.94 -19.709 0.337 70.087
8061.625 0.338 70.022 0.94 -19.775 0.94 -19.775 0.338 70.022
8086.583 0.339 69.957 0.939 -19.84 0.939 -19.84 0.339 69.957
8111.542 0.34 69.892 0.939 -19.906 0.939 -19.906 0.34 69.892
8136.5 0.342 69.827 0.939 -19.971 0.939 -19.971 0.342 69.827
8161.458 0.343 69.763 0.938 -20.036 0.938 -20.036 0.343 69.763
8186.417 0.344 69.698 0.938 -20.101 0.938 -20.101 0.344 69.698
