# MHZ S MA R 50

50 0.987 -9.106 0.158 80.881 0.158 80.881 0.987 -9.106
74.958 0.972 -13.517 0.234 76.463 0.234 76.463 0.972 -13.517
99.917 0.952 -17.778 0.305 72.196 0.305 72.196 0.952 -17.778
124.875 0.928 -21.853 0.372 68.114 0.372 68.114 0.928 -21.853
149.833 0.901 -25.719 0.434 64.242 0.434 64.242 0.901 -25.719
174.792 0.871 -29.361 0.49 60.593 0.49 60.593 0.871 -29.361
199.75 0.84 -32.772 0.541 57.175 0.541 57.175 0.84 -32.772
224.708 0.809 -35.954 0.587 53.987 0.587 53.987 0.809 -35.954
249.667 0.777 -38.912 0.628 51.022 0.628 51.022 0.777 -38.912
274.625 0.746 -41.657 0.665 48.27 0.665 48.27 0.746 -41.657
299.583 0.716 -44.201 0.697 45.72 0.697 45.72 0.716 -44.201
324.542 0.687 -46.557 0.726 43.357 0.726 43.357 0.687 -46.557
349.5 0.658 -48.74 0.752 41.167 0.752 41.167 0.658 -48.74
374.458 0.631 -50.763 0.775 39.137 0.775 39.137 0.631 -50.763
399.417 0.605 -52.639 0.795 37.254 0.795 37.254 0.605 -52.639
424.375 0.581 -54.381 0.813 35.505 0.813 35.505 0.581 -54.381
449.333 0.557 -56.002 0.829 33.877 0.829 33.877 0.557 -56.002
474.292 0.535 -57.51 0.843 32.361 0.843 32.361 0.535 -57.51
499.25 0.514 -58.918 0.856 30.947 0.856 30.947 0.514 -58.918
524.208 0.494 -60.232 0.868 29.625 0.868 29.625 0.494 -60.232
549.167 0.475 -61.463 0.879 28.387 0.879 28.387 0.475 -61.463
574.125 0.458 -62.616 0.888 27.226 0.888 27.226 0.458 -62.616
599.083 0.44 -63.699 0.896 26.136 0.896 26.136 0.44 -63.699
624.042 0.424 -64.717 0.904 25.109 0.904 25.109 0.424 -64.717
649 0.409 -65.677 0.911 24.142 0.911 24.142 0.409 -65.677
673.958 0.394 -66.582 0.918 23.228 0.918 23.228 0.394 -66.582
698.917 0.381 -67.438 0.923 22.365 0.923 22.365 0.381 -67.438
723.875 0.367 -68.248 0.929 21.546 0.929 21.546 0.367 -68.248
748.833 0.355 -69.016 0.934 20.77 0.934 20.77 0.355 -69.016
773.792 0.343 -69.745 0.938 20.033 0.938 20.033 0.343 -69.745
798.75 0.331 -70.437 0.942 19.331 0.942 19.331 0.331 -70.437
823.708 0.32 -71.097 0.946 18.662 0.946 18.662 0.32 -71.097
848.667 0.309 -71.726 0.95 18.025 0.95 18.025 0.309 -71.726
873.625 0.299 -72.326 0.953 17.415 0.953 17.415 0.299 -72.326
898.583 0.29 -72.899 0.956 16.833 0.956 16.833 0.29 -72.899
923.542 0.28 -73.447 0.959 16.275 0.959 16.275 0.28 -73.447
948.5 0.271 -73.972 0.961 15.739 0.961 15.739 0.271 -73.972
973.458 0.263 -74.476 0.964 15.226 0.964 15.226 0.263 -74.476
998.417 0.254 -74.959 0.966 14.732 0.966 14.732 0.254 -74.959
1023.375 0.246 -75.423 0.968 14.257 0.968 14.257 0.246 -75.423
1048.333 0.239 -75.869 0.97 13.8 0.97 13.8 0.239 -75.869
1073.292 0.231 -76.299 0.972 13.359 0.972 13.359 0.231 -76.299
1098.25 0.224 -76.712 0.973 12.934 0.973 12.934 0.224 -76.712
1123.208 0.217 -77.111 0.975 12.523 0.975 12.523 0.217 -77.111
1148.167 0.21 -77.496 0.976 12.126 0.976 12.126 0.21 -77.496
1173.125 0.204 -77.867 0.978 11.742 0.978 11.742 0.204 -77.867
1198.083 0.197 -78.226 0.979 11.37 0.979 11.37 0.197 -78.226
1223.042 0.191 -78.573 0.98 11.01 0.98 11.01 0.191 -78.573
1248 0.185 -78.908 0.981 10.66 0.981 10.66 0.185 -78.908
1272.958 0.179 -79.233 0.982 10.321 0.982 10.321 0.179 -79.233
1297.917 0.174 -79.547 0.983 9.991 0.983 9.991 0.174 -79.547
1322.875 0.168 -79.852 0.984 9.671 0.984 9.671 0.168 -79.852
1347.833 0.163 -80.148 0.985 9.359 0.985 9.359 0.163 -80.148
1372.792 0.157 -80.434 0.986 9.056 0.986 9.056 0.157 -80.434
1397.75 0.152 -80.712 0.987 8.761 0.987 8.761 0.152 -80.712
1422.708 0.147 -80.982 0.988 8.473 0.988 8.473 0.147 -80.982
1447.667 0.142 -81.244 0.988 8.192 0.988 8.192 0.142 -81.244
1472.625 0.138 -81.498 0.989 7.918 0.989 7.918 0.138 -81.498
1497.583 0.133 -81.745 0.99 7.65 0.99 7.65 0.133 -81.745
1522.542 0.129 -81.984 0.99 7.389 0.99 7.389 0.129 -81.984
1547.5 0.124 -82.217 0.991 7.134 0.991 7.134 0.124 -82.217
1572.458 0.12 -82.443 0.991 6.884 0.991 6.884 0.12 -82.443
1597.417 0.116 -82.662 0.992 6.64 0.992 6.64 0.116 -82.662
1622.375 0.111 -82.875 0.992 6.4 0.992 6.4 0.111 -82.875
1647.333 0.107 -83.082 0.993 6.166 0.993 6.166 0.107 -83.082
1672.292 0.103 -83.282 0.993 5.936 0.993 5.936 0.103 -83.282
1697.25 0.1 -83.476 0.994 5.711 0.994 5.711 0.1 -83.476
1722.208 0.096 -83.664 0.994 5.49 0.994 5.49 0.096 -83.664
1747.167 0.092 -83.846 0.994 5.274 0.994 5.274 0.092 -83.846
1772.125 0.088 -84.021 0.995 5.061 0.995 5.061 0.088 -84.021
1797.083 0.085 -84.19 0.995 4.852 0.995 4.852 0.085 -84.19
1822.042 0.081 -84.353 0.995 4.647 0.995 4.647 0.081 -84.353
1847 0.078 -84.509 0.996 4.446 0.996 4.446 0.078 -84.509
1871.958 0.074 -84.658 0.996 4.248 0.996 4.248 0.074 -84.658
1896.917 0.071 -84.801 0.996 4.053 0.996 4.053 0.071 -84.801
1921.875 0.067 -84.935 0.996 3.861 0.996 3.861 0.067 -84.935
1946.833 0.064 -85.062 0.997 3.672 0.997 3.672 0.064 -85.062
1971.792 0.061 -85.18 0.997 3.486 0.997 3.486 0.061 -85.18
1996.75 0.058 -85.289 0.997 3.303 0.997 3.303 0.058 -85.289
2021.708 0.055 -85.388 0.997 3.123 0.997 3.123 0.055 -85.388
2046.667 0.051 -85.476 0.997 2.946 0.997 2.946 0.051 -85.476
2071.625 0.048 -85.551 0.997 2.77 0.997 2.77 0.048 -85.551
2096.583 0.045 -85.612 0.998 2.598 0.998 2.598 0.045 -85.612
2121.542 0.042 -85.656 0.998 2.428 0.998 2.428 0.042 -85.656
2146.5 0.039 -85.682 0.998 2.26 0.998 2.26 0.039 -85.682
2171.458 0.037 -85.685 0.998 2.094 0.998 2.094 0.037 -85.685
2196.417 0.034 -85.66 0.998 1.93 0.998 1.93 0.034 -85.66
2221.375 0.031 -85.602 0.998 1.768 0.998 1.768 0.031 -85.602
2246.333 0.028 -85.501 0.998 1.609 0.998 1.609 0.028 -85.501
2271.292 0.025 -85.345 0.998 1.451 0.998 1.451 0.025 -85.345
2296.25 0.023 -85.116 0.998 1.295 0.998 1.295 0.023 -85.116
2321.208 0.02 -84.787 0.998 1.141 0.998 1.141 0.02 -84.787
2346.167 0.017 -84.315 0.998 0.989 0.998 0.989 0.017 -84.315
2371.125 0.015 -83.628 0.998 0.839 0.998 0.839 0.015 -83.628
2396.083 0.012 -82.593 0.999 0.69 0.999 0.69 0.012 -82.593
2421.042 9.577e-3 -80.942 0.999 0.543 0.999 0.543 9.577e-3 -80.942
2446 7.073e-3 -78.036 0.999 0.397 0.999 0.397 7.073e-3 -78.036
2470.958 4.635e-3 -71.932 0.999 0.253 0.999 0.253 4.635e-3 -71.932
2495.917 2.389e-3 -53.478 0.999 0.11 0.999 0.11 2.389e-3 -53.478
2520.875 1.518e-3 20.906 0.999 -0.031 0.999 -0.031 1.518e-3 20.906
2545.833 3.304e-3 64.407 0.999 -0.171 0.999 -0.171 3.304e-3 64.407
2570.792 5.584e-3 74.979 0.999 -0.309 0.999 -0.309 5.584e-3 74.979
2595.75 7.924e-3 79.243 0.999 -0.447 0.999 -0.447 7.924e-3 79.243
2620.708 0.01 81.478 0.999 -0.583 0.999 -0.583 0.01 81.478
2645.667 0.013 82.82 0.999 -0.717 0.999 -0.717 0.013 82.82
2670.625 0.015 83.694 0.998 -0.851 0.998 -0.851 0.015 83.694
2695.583 0.017 84.292 0.998 -0.983 0.998 -0.983 0.017 84.292
2720.542 0.019 84.715 0.998 -1.114 0.998 -1.114 0.019 84.715
2745.5 0.022 85.02 0.998 -1.244 0.998 -1.244 0.022 85.02
2770.458 0.024 85.241 0.998 -1.373 0.998 -1.373 0.024 85.241
2795.417 0.026 85.401 0.998 -1.501 0.998 -1.501 0.026 85.401
2820.375 0.028 85.515 0.998 -1.628 0.998 -1.628 0.028 85.515
2845.333 0.031 85.594 0.998 -1.754 0.998 -1.754 0.031 85.594
2870.292 0.033 85.646 0.998 -1.879 0.998 -1.879 0.033 85.646
2895.25 0.035 85.675 0.998 -2.003 0.998 -2.003 0.035 85.675
2920.208 0.037 85.686 0.998 -2.126 0.998 -2.126 0.037 85.686
2945.167 0.039 85.683 0.998 -2.248 0.998 -2.248 0.039 85.683
2970.125 0.041 85.668 0.998 -2.369 0.998 -2.369 0.041 85.668
2995.083 0.043 85.642 0.998 -2.489 0.998 -2.489 0.043 85.642
3020.042 0.046 85.608 0.998 -2.609 0.998 -2.609 0.046 85.608
3045 0.048 85.567 0.997 -2.727 0.997 -2.727 0.048 85.567
3069.958 0.05 85.52 0.997 -2.845 0.997 -2.845 0.05 85.52
3094.917 0.052 85.468 0.997 -2.962 0.997 -2.962 0.052 85.468
3119.875 0.054 85.411 0.997 -3.078 0.997 -3.078 0.054 85.411
3144.833 0.056 85.35 0.997 -3.194 0.997 -3.194 0.056 85.35
3169.792 0.058 85.286 0.997 -3.309 0.997 -3.309 0.058 85.286
3194.75 0.06 85.219 0.997 -3.423 0.997 -3.423 0.06 85.219
3219.708 0.062 85.149 0.997 -3.536 0.997 -3.536 0.062 85.149
3244.667 0.064 85.077 0.997 -3.649 0.997 -3.649 0.064 85.077
3269.625 0.066 85.003 0.996 -3.761 0.996 -3.761 0.066 85.003
3294.583 0.068 84.928 0.996 -3.872 0.996 -3.872 0.068 84.928
3319.542 0.069 84.85 0.996 -3.983 0.996 -3.983 0.069 84.85
3344.5 0.071 84.772 0.996 -4.093 0.996 -4.093 0.071 84.772
3369.458 0.073 84.692 0.996 -4.202 0.996 -4.202 0.073 84.692
3394.417 0.075 84.611 0.996 -4.311 0.996 -4.311 0.075 84.611
3419.375 0.077 84.53 0.996 -4.419 0.996 -4.419 0.077 84.53
3444.333 0.079 84.447 0.995 -4.527 0.995 -4.527 0.079 84.447
3469.292 0.081 84.364 0.995 -4.634 0.995 -4.634 0.081 84.364
3494.25 0.083 84.28 0.995 -4.74 0.995 -4.74 0.083 84.28
3519.208 0.084 84.196 0.995 -4.846 0.995 -4.846 0.084 84.196
3544.167 0.086 84.111 0.995 -4.951 0.995 -4.951 0.086 84.111
3569.125 0.088 84.025 0.995 -5.056 0.995 -5.056 0.088 84.025
3594.083 0.09 83.94 0.995 -5.161 0.995 -5.161 0.09 83.94
3619.042 0.092 83.854 0.994 -5.264 0.994 -5.264 0.092 83.854
3644 0.094 83.767 0.994 -5.368 0.994 -5.368 0.094 83.767
3668.958 0.095 83.681 0.994 -5.471 0.994 -5.471 0.095 83.681
3693.917 0.097 83.594 0.994 -5.573 0.994 -5.573 0.097 83.594
3718.875 0.099 83.507 0.994 -5.675 0.994 -5.675 0.099 83.507
3743.833 0.101 83.42 0.994 -5.776 0.994 -5.776 0.101 83.42
3768.792 0.102 83.333 0.993 -5.877 0.993 -5.877 0.102 83.333
3793.75 0.104 83.246 0.993 -5.978 0.993 -5.978 0.104 83.246
3818.708 0.106 83.159 0.993 -6.078 0.993 -6.078 0.106 83.159
3843.667 0.108 83.072 0.993 -6.177 0.993 -6.177 0.108 83.072
3868.625 0.109 82.985 0.993 -6.277 0.993 -6.277 0.109 82.985
3893.583 0.111 82.897 0.992 -6.376 0.992 -6.376 0.111 82.897
3918.542 0.113 82.81 0.992 -6.474 0.992 -6.474 0.113 82.81
3943.5 0.114 82.723 0.992 -6.572 0.992 -6.572 0.114 82.723
3968.458 0.116 82.636 0.992 -6.669 0.992 -6.669 0.116 82.636
3993.417 0.118 82.548 0.992 -6.767 0.992 -6.767 0.118 82.548
4018.375 0.12 82.461 0.991 -6.864 0.991 -6.864 0.12 82.461
4043.333 0.121 82.374 0.991 -6.96 0.991 -6.96 0.121 82.374
4068.292 0.123 82.288 0.991 -7.056 0.991 -7.056 0.123 82.288
4093.25 0.125 82.201 0.991 -7.152 0.991 -7.152 0.125 82.201
4118.208 0.126 82.114 0.991 -7.247 0.991 -7.247 0.126 82.114
4143.167 0.128 82.027 0.99 -7.342 0.99 -7.342 0.128 82.027
4168.125 0.129 81.941 0.99 -7.437 0.99 -7.437 0.129 81.941
4193.083 0.131 81.854 0.99 -7.531 0.99 -7.531 0.131 81.854
4218.042 0.133 81.768 0.99 -7.625 0.99 -7.625 0.133 81.768
4243 0.134 81.682 0.99 -7.719 0.99 -7.719 0.134 81.682
4267.958 0.136 81.596 0.989 -7.812 0.989 -7.812 0.136 81.596
4292.917 0.138 81.51 0.989 -7.905 0.989 -7.905 0.138 81.51
4317.875 0.139 81.424 0.989 -7.998 0.989 -7.998 0.139 81.424
4342.833 0.141 81.338 0.989 -8.09 0.989 -8.09 0.141 81.338
4367.792 0.142 81.253 0.988 -8.182 0.988 -8.182 0.142 81.253
4392.75 0.144 81.168 0.988 -8.274 0.988 -8.274 0.144 81.168
4417.708 0.145 81.082 0.988 -8.365 0.988 -8.365 0.145 81.082
4442.667 0.147 80.997 0.988 -8.456 0.988 -8.456 0.147 80.997
4467.625 0.149 80.912 0.987 -8.547 0.987 -8.547 0.149 80.912
4492.583 0.15 80.827 0.987 -8.638 0.987 -8.638 0.15 80.827
4517.542 0.152 80.743 0.987 -8.728 0.987 -8.728 0.152 80.743
4542.5 0.153 80.658 0.987 -8.818 0.987 -8.818 0.153 80.658
4567.458 0.155 80.574 0.987 -8.908 0.987 -8.908 0.155 80.574
4592.417 0.156 80.49 0.986 -8.997 0.986 -8.997 0.156 80.49
4617.375 0.158 80.406 0.986 -9.086 0.986 -9.086 0.158 80.406
4642.333 0.159 80.322 0.986 -9.175 0.986 -9.175 0.159 80.322
4667.292 0.161 80.238 0.986 -9.264 0.986 -9.264 0.161 80.238
4692.25 0.163 80.154 0.985 -9.352 0.985 -9.352 0.163 80.154
4717.208 0.164 80.071 0.985 -9.441 0.985 -9.441 0.164 80.071
4742.167 0.166 79.987 0.985 -9.528 0.985 -9.528 0.166 79.987
4767.125 0.167 79.904 0.985 -9.616 0.985 -9.616 0.167 79.904
4792.083 0.169 79.821 0.984 -9.703 0.984 -9.703 0.169 79.821
4817.042 0.17 79.738 0.984 -9.791 0.984 -9.791 0.17 79.738
4842 0.172 79.656 0.984 -9.878 0.984 -9.878 0.172 79.656
4866.958 0.173 79.573 0.984 -9.964 0.984 -9.964 0.173 79.573
4891.917 0.175 79.491 0.983 -10.051 0.983 -10.051 0.175 79.491
4916.875 0.176 79.409 0.983 -10.137 0.983 -10.137 0.176 79.409
4941.833 0.177 79.326 0.983 -10.223 0.983 -10.223 0.177 79.326
4966.792 0.179 79.245 0.982 -10.309 0.982 -10.309 0.179 79.245
4991.75 0.18 79.163 0.982 -10.394 0.982 -10.394 0.18 79.163
5016.708 0.182 79.081 0.982 -10.48 0.982 -10.48 0.182 79.081
5041.667 0.183 79 0.982 -10.565 0.982 -10.565 0.183 79
5066.625 0.185 78.918 0.981 -10.65 0.981 -10.65 0.185 78.918
5091.583 0.186 78.837 0.981 -10.734 0.981 -10.734 0.186 78.837
5116.542 0.188 78.756 0.981 -10.819 0.981 -10.819 0.188 78.756
5141.5 0.189 78.675 0.981 -10.903 0.981 -10.903 0.189 78.675
5166.458 0.191 78.594 0.98 -10.987 0.98 -10.987 0.191 78.594
5191.417 0.192 78.514 0.98 -11.071 0.98 -11.071 0.192 78.514
5216.375 0.193 78.433 0.98 -11.155 0.98 -11.155 0.193 78.433
5241.333 0.195 78.353 0.979 -11.238 0.979 -11.238 0.195 78.353
5266.292 0.196 78.273 0.979 -11.321 0.979 -11.321 0.196 78.273
5291.25 0.198 78.193 0.979 -11.404 0.979 -11.404 0.198 78.193
5316.208 0.199 78.113 0.979 -11.487 0.979 -11.487 0.199 78.113
5341.167 0.201 78.033 0.978 -11.57 0.978 -11.57 0.201 78.033
5366.125 0.202 77.953 0.978 -11.652 0.978 -11.652 0.202 77.953
5391.083 0.203 77.874 0.978 -11.735 0.978 -11.735 0.203 77.874
5416.042 0.205 77.795 0.977 -11.817 0.977 -11.817 0.205 77.795
5441 0.206 77.715 0.977 -11.899 0.977 -11.899 0.206 77.715
5465.958 0.208 77.636 0.977 -11.981 0.977 -11.981 0.208 77.636
5490.917 0.209 77.558 0.977 -12.062 0.977 -12.062 0.209 77.558
5515.875 0.21 77.479 0.976 -12.144 0.976 -12.144 0.21 77.479
5540.833 0.212 77.4 0.976 -12.225 0.976 -12.225 0.212 77.4
5565.792 0.213 77.322 0.976 -12.306 0.976 -12.306 0.213 77.322
5590.75 0.215 77.243 0.975 -12.387 0.975 -12.387 0.215 77.243
5615.708 0.216 77.165 0.975 -12.467 0.975 -12.467 0.216 77.165
5640.667 0.217 77.087 0.975 -12.548 0.975 -12.548 0.217 77.087
5665.625 0.219 77.009 0.974 -12.628 0.974 -12.628 0.219 77.009
5690.583 0.22 76.931 0.974 -12.709 0.974 -12.709 0.22 76.931
5715.542 0.221 76.853 0.974 -12.789 0.974 -12.789 0.221 76.853
5740.5 0.223 76.776 0.974 -12.868 0.974 -12.868 0.223 76.776
5765.458 0.224 76.698 0.973 -12.948 0.973 -12.948 0.224 76.698
5790.417 0.225 76.621 0.973 -13.028 0.973 -13.028 0.225 76.621
5815.375 0.227 76.544 0.973 -13.107 0.973 -13.107 0.227 76.544
5840.333 0.228 76.467 0.972 -13.186 0.972 -13.186 0.228 76.467
5865.292 0.229 76.39 0.972 -13.265 0.972 -13.265 0.229 76.39
5890.25 0.231 76.313 0.972 -13.344 0.972 -13.344 0.231 76.313
5915.208 0.232 76.236 0.971 -13.423 0.971 -13.423 0.232 76.236
5940.167 0.233 76.16 0.971 -13.502 0.971 -13.502 0.233 76.16
5965.125 0.235 76.083 0.971 -13.58 0.971 -13.58 0.235 76.083
5990.083 0.236 76.007 0.97 -13.658 0.97 -13.658 0.236 76.007
6015.042 0.237 75.931 0.97 -13.737 0.97 -13.737 0.237 75.931
6040 0.239 75.855 0.97 -13.815 0.97 -13.815 0.239 75.855
6064.958 0.24 75.779 0.969 -13.893 0.969 -13.893 0.24 75.779
6089.917 0.241 75.703 0.969 -13.97 0.969 -13.97 0.241 75.703
6114.875 0.243 75.627 0.969 -14.048 0.969 -14.048 0.243 75.627
6139.833 0.244 75.552 0.968 -14.125 0.968 -14.125 0.244 75.552
6164.792 0.245 75.476 0.968 -14.203 0.968 -14.203 0.245 75.476
6189.75 0.247 75.401 0.968 -14.28 0.968 -14.28 0.247 75.401
6214.708 0.248 75.326 0.967 -14.357 0.967 -14.357 0.248 75.326
6239.667 0.249 75.251 0.967 -14.434 0.967 -14.434 0.249 75.251
6264.625 0.251 75.176 0.967 -14.51 0.967 -14.51 0.251 75.176
6289.583 0.252 75.101 0.966 -14.587 0.966 -14.587 0.252 75.101
6314.542 0.253 75.026 0.966 -14.663 0.966 -14.663 0.253 75.026
6339.5 0.254 74.952 0.966 -14.74 0.966 -14.74 0.254 74.952
6364.458 0.256 74.877 0.965 -14.816 0.965 -14.816 0.256 74.877
6389.417 0.257 74.803 0.965 -14.892 0.965 -14.892 0.257 74.803
6414.375 0.258 74.728 0.965 -14.968 0.965 -14.968 0.258 74.728
6439.333 0.26 74.654 0.964 -15.043 0.964 -15.043 0.26 74.654
6464.292 0.261 74.58 0.964 -15.119 0.964 -15.119 0.261 74.58
6489.25 0.262 74.506 0.964 -15.195 0.964 -15.195 0.262 74.506
6514.208 0.263 74.432 0.963 -15.27 0.963 -15.27 0.263 74.432
6539.167 0.265 74.359 0.963 -15.345 0.963 -15.345 0.265 74.359
6564.125 0.266 74.285 0.963 -15.42 0.963 -15.42 0.266 74.285
6589.083 0.267 74.211 0.962 -15.495 0.962 -15.495 0.267 74.211
6614.042 0.268 74.138 0.962 -15.57 0.962 -15.57 0.268 74.138
6639 0.27 74.065 0.962 -15.645 0.962 -15.645 0.27 74.065
6663.958 0.271 73.992 0.961 -15.72 0.961 -15.72 0.271 73.992
6688.917 0.272 73.919 0.961 -15.794 0.961 -15.794 0.272 73.919
6713.875 0.273 73.846 0.961 -15.869 0.961 -15.869 0.273 73.846
6738.833 0.275 73.773 0.96 -15.943 0.96 -15.943 0.275 73.773
6763.792 0.276 73.7 0.96 -16.017 0.96 -16.017 0.276 73.7
6788.75 0.277 73.627 0.959 -16.091 0.959 -16.091 0.277 73.627
6813.708 0.278 73.555 0.959 -16.165 0.959 -16.165 0.278 73.555
6838.667 0.28 73.482 0.959 -16.239 0.959 -16.239 0.28 73.482
6863.625 0.281 73.41 0.958 -16.312 0.958 -16.312 0.281 73.41
6888.583 0.282 73.338 0.958 -16.386 0.958 -16.386 0.282 73.338
6913.542 0.283 73.266 0.958 -16.459 0.958 -16.459 0.283 73.266
6938.5 0.285 73.194 0.957 -16.532 0.957 -16.532 0.285 73.194
6963.458 0.286 73.122 0.957 -16.606 0.957 -16.606 0.286 73.122
6988.417 0.287 73.05 0.957 -16.679 0.957 -16.679 0.287 73.05
7013.375 0.288 72.978 0.956 -16.752 0.956 -16.752 0.288 72.978
7038.333 0.289 72.907 0.956 -16.824 0.956 -16.824 0.289 72.907
7063.292 0.291 72.835 0.955 -16.897 0.955 -16.897 0.291 72.835
7088.25 0.292 72.764 0.955 -16.97 0.955 -16.97 0.292 72.764
7113.208 0.293 72.693 0.955 -17.042 0.955 -17.042 0.293 72.693
7138.167 0.294 72.621 0.954 -17.115 0.954 -17.115 0.294 72.621
7163.125 0.295 72.55 0.954 -17.187 0.954 -17.187 0.295 72.55
7188.083 0.297 72.479 0.954 -17.259 0.954 -17.259 0.297 72.479
7213.042 0.298 72.408 0.953 -17.331 0.953 -17.331 0.298 72.408
7238 0.299 72.338 0.953 -17.403 0.953 -17.403 0.299 72.338
7262.958 0.3 72.267 0.952 -17.475 0.952 -17.475 0.3 72.267
7287.917 0.301 72.196 0.952 -17.547 0.952 -17.547 0.301 72.196
7312.875 0.303 72.126 0.952 -17.618 0.952 -17.618 0.303 72.126
7337.833 0.304 72.056 0.951 -17.69 0.951 -17.69 0.304 72.056
7362.792 0.305 71.985 0.951 -17.761 0.951 -17.761 0.305 71.985
7387.75 0.306 71.915 0.951 -17.832 0.951 -17.832 0.306 71.915
7412.708 0.307 71.845 0.95 -17.904 0.95 -17.904 0.307 71.845
7437.667 0.309 71.775 0.95 -17.975 0.95 -17.975 0.309 71.775
7462.625 0.31 71.705 0.949 -18.046 0.949 -18.046 0.31 71.705
7487.583 0.311 71.635 0.949 -18.116 0.949 -18.116 0.311 71.635
7512.542 0.312 71.565 0.949 -18.187 0.949 -18.187 0.312 71.565
7537.5 0.313 71.496 0.948 -18.258 0.948 -18.258 0.313 71.496
7562.458 0.314 71.426 0.948 -18.328 0.948 -18.328 0.314 71.426
7587.417 0.316 71.357 0.948 -18.399 0.948 -18.399 0.316 71.357
7612.375 0.317 71.288 0.947 -18.469 0.947 -18.469 0.317 71.288
7637.333 0.318 71.218 0.947 -18.539 0.947 -18.539 0.318 71.218
7662.292 0.319 71.149 0.946 -18.609 0.946 -18.609 0.319 71.149
7687.25 0.32 71.08 0.946 -18.679 0.946 -18.679 0.32 71.08
7712.208 0.321 71.011 0.946 -18.749 0.946 -18.749 0.321 71.011
7737.167 0.323 70.942 0.945 -18.819 0.945 -18.819 0.323 70.942
7762.125 0.324 70.874 0.945 -18.889 0.945 -18.889 0.324 70.874
7787.083 0.325 70.805 0.944 -18.959 0.944 -18.959 0.325 70.805
7812.042 0.326 70.736 0.944 -19.028 0.944 -19.028 0.326 70.736
7837 0.327 70.668 0.944 -19.098 0.944 -19.098 0.327 70.668
7861.958 0.328 70.599 0.943 -19.167 0.943 -19.167 0.328 70.599
7886.917 0.329 70.531 0.943 -19.236 0.943 -19.236 0.329 70.531
7911.875 0.331 70.463 0.942 -19.305 0.942 -19.305 0.331 70.463
7936.833 0.332 70.395 0.942 -19.374 0.942 -19.374 0.332 70.395
7961.792 0.333 70.327 0.942 -19.443 0.942 -19.443 0.333 70.327
7986.75 0.334 70.259 0.941 -19.512 0.941 -19.512 0.334 70.259
8011.708 0.335 70.191 0.941 -19.581 0.941 -19.581 0.335 70.191
8036.667 0.336 70.123 0.94 -19.649 0.94 -19.649 0.336 70.123
8061.625 0.337 70.055 0.94 -19.718 0.94 -19.718 0.337 70.055
8086.583 0.339 69.988 0.94 -19.786 0.94 -19.786 0.339 69.988
8111.542 0.34 69.92 0.939 -19.855 0.939 -19.855 0.34 69.92
8136.5 0.341 69.853 0.939 -19.923 0.939 -19.923 0.341 69.853
8161.458 0.342 69.786 0.938 -19.991 0.938 -19.991 0.342 69.786
8186.417 0.343 69.718 0.938 -20.059 0.938 -20.059 0.343 69.718
