# MHZ S MA R 50

50 1 -0.18 3.142e-3 89.819 3.142e-3 89.819 1 -0.18
74.958 1 -0.27 4.71e-3 89.728 4.71e-3 89.728 1 -0.27
99.917 1 -0.36 6.278e-3 89.638 6.278e-3 89.638 1 -0.36
124.875 1 -0.45 7.846e-3 89.548 7.846e-3 89.548 1 -0.45
149.833 1 -0.539 9.415e-3 89.457 9.415e-3 89.457 1 -0.539
174.792 1 -0.629 0.011 89.367 0.011 89.367 1 -0.629
199.75 1 -0.719 0.013 89.276 0.013 89.276 1 -0.719
224.708 1 -0.809 0.014 89.186 0.014 89.186 1 -0.809
249.667 1 -0.899 0.016 89.095 0.016 89.095 1 -0.899
274.625 1 -0.989 0.017 89.005 0.017 89.005 1 -0.989
299.583 1 -1.079 0.019 88.915 0.019 88.915 1 -1.079
324.542 1 -1.169 0.02 88.824 0.02 88.824 1 -1.169
349.5 1 -1.258 0.022 88.734 0.022 88.734 1 -1.258
374.458 1 -1.348 0.024 88.643 0.024 88.643 1 -1.348
399.417 1 -1.438 0.025 88.553 0.025 88.553 1 -1.438
424.375 1 -1.528 0.027 88.462 0.027 88.462 1 -1.528
449.333 1 -1.618 0.028 88.372 0.028 88.372 1 -1.618
474.292 1 -1.708 0.03 88.281 0.03 88.281 1 -1.708
499.25 1 -1.798 0.031 88.191 0.031 88.191 1 -1.798
524.208 0.999 -1.888 0.033 88.1 0.033 88.1 0.999 -1.888
549.167 0.999 -1.978 0.035 88.009 0.035 88.009 0.999 -1.978
574.125 0.999 -2.068 0.036 87.919 0.036 87.919 0.999 -2.068
599.083 0.999 -2.158 0.038 87.828 0.038 87.828 0.999 -2.158
624.042 0.999 -2.248 0.039 87.738 0.039 87.738 0.999 -2.248
649 0.999 -2.338 0.041 87.647 0.041 87.647 0.999 -2.338
673.958 0.999 -2.428 0.042 87.557 0.042 87.557 0.999 -2.428
698.917 0.999 -2.518 0.044 87.466 0.044 87.466 0.999 -2.518
723.875 0.999 -2.608 0.046 87.375 0.046 87.375 0.999 -2.608
748.833 0.999 -2.698 0.047 87.285 0.047 87.285 0.999 -2.698
773.792 0.999 -2.789 0.049 87.194 0.049 87.194 0.999 -2.789
798.75 0.999 -2.879 0.05 87.103 0.05 87.103 0.999 -2.879
823.708 0.999 -2.969 0.052 87.012 0.052 87.012 0.999 -2.969
848.667 0.999 -3.059 0.053 86.922 0.053 86.922 0.999 -3.059
873.625 0.998 -3.149 0.055 86.831 0.055 86.831 0.998 -3.149
898.583 0.998 -3.239 0.057 86.74 0.057 86.74 0.998 -3.239
923.542 0.998 -3.33 0.058 86.649 0.058 86.649 0.998 -3.33
948.5 0.998 -3.42 0.06 86.559 0.06 86.559 0.998 -3.42
973.458 0.998 -3.51 0.061 86.468 0.061 86.468 0.998 -3.51
998.417 0.998 -3.6 0.063 86.377 0.063 86.377 0.998 -3.6
1023.375 0.998 -3.691 0.064 86.286 0.064 86.286 0.998 -3.691
1048.333 0.998 -3.781 0.066 86.195 0.066 86.195 0.998 -3.781
1073.292 0.998 -3.871 0.068 86.104 0.068 86.104 0.998 -3.871
1098.25 0.998 -3.962 0.069 86.013 0.069 86.013 0.998 -3.962
1123.208 0.997 -4.052 0.071 85.922 0.071 85.922 0.997 -4.052
1148.167 0.997 -4.143 0.072 85.831 0.072 85.831 0.997 -4.143
1173.125 0.997 -4.233 0.074 85.74 0.074 85.74 0.997 -4.233
1198.083 0.997 -4.324 0.075 85.649 0.075 85.649 0.997 -4.324
1223.042 0.997 -4.414 0.077 85.558 0.077 85.558 0.997 -4.414
1248 0.997 -4.505 0.079 85.467 0.079 85.467 0.997 -4.505
1272.958 0.997 -4.595 0.08 85.376 0.08 85.376 0.997 -4.595
1297.917 0.997 -4.686 0.082 85.284 0.082 85.284 0.997 -4.686
1322.875 0.996 -4.777 0.083 85.193 0.083 85.193 0.996 -4.777
1347.833 0.996 -4.867 0.085 85.102 0.085 85.102 0.996 -4.867
1372.792 0.996 -4.958 0.086 85.011 0.086 85.011 0.996 -4.958
1397.75 0.996 -5.049 0.088 84.919 0.088 84.919 0.996 -5.049
1422.708 0.996 -5.14 0.09 84.828 0.09 84.828 0.996 -5.14
1447.667 0.996 -5.23 0.091 84.737 0.091 84.737 0.996 -5.23
1472.625 0.996 -5.321 0.093 84.645 0.093 84.645 0.996 -5.321
1497.583 0.995 -5.412 0.094 84.554 0.094 84.554 0.995 -5.412
1522.542 0.995 -5.503 0.096 84.462 0.096 84.462 0.995 -5.503
1547.5 0.995 -5.594 0.097 84.371 0.097 84.371 0.995 -5.594
1572.458 0.995 -5.685 0.099 84.279 0.099 84.279 0.995 -5.685
1597.417 0.995 -5.776 0.101 84.188 0.101 84.188 0.995 -5.776
1622.375 0.995 -5.867 0.102 84.096 0.102 84.096 0.995 -5.867
1647.333 0.995 -5.958 0.104 84.004 0.104 84.004 0.995 -5.958
1672.292 0.994 -6.049 0.105 83.913 0.105 83.913 0.994 -6.049
1697.25 0.994 -6.14 0.107 83.821 0.107 83.821 0.994 -6.14
1722.208 0.994 -6.231 0.109 83.729 0.109 83.729 0.994 -6.231
1747.167 0.994 -6.323 0.11 83.637 0.11 83.637 0.994 -6.323
1772.125 0.994 -6.414 0.112 83.546 0.112 83.546 0.994 -6.414
1797.083 0.993 -6.505 0.113 83.454 0.113 83.454 0.993 -6.505
1822.042 0.993 -6.597 0.115 83.362 0.115 83.362 0.993 -6.597
1847 0.993 -6.688 0.116 83.27 0.116 83.27 0.993 -6.688
1871.958 0.993 -6.78 0.118 83.178 0.118 83.178 0.993 -6.78
1896.917 0.993 -6.871 0.12 83.086 0.12 83.086 0.993 -6.871
1921.875 0.993 -6.963 0.121 82.993 0.121 82.993 0.993 -6.963
1946.833 0.992 -7.054 0.123 82.901 0.123 82.901 0.992 -7.054
1971.792 0.992 -7.146 0.124 82.809 0.124 82.809 0.992 -7.146
1996.75 0.992 -7.237 0.126 82.717 0.126 82.717 0.992 -7.237
2021.708 0.992 -7.329 0.128 82.625 0.128 82.625 0.992 -7.329
2046.667 0.992 -7.421 0.129 82.532 0.129 82.532 0.992 -7.421
2071.625 0.991 -7.513 0.131 82.44 0.131 82.44 0.991 -7.513
2096.583 0.991 -7.605 0.132 82.347 0.132 82.347 0.991 -7.605
2121.542 0.991 -7.696 0.134 82.255 0.134 82.255 0.991 -7.696
2146.5 0.991 -7.788 0.136 82.162 0.136 82.162 0.991 -7.788
2171.458 0.99 -7.88 0.137 82.07 0.137 82.07 0.99 -7.88
2196.417 0.99 -7.972 0.139 81.977 0.139 81.977 0.99 -7.972
2221.375 0.99 -8.065 0.14 81.884 0.14 81.884 0.99 -8.065
2246.333 0.99 -8.157 0.142 81.792 0.142 81.792 0.99 -8.157
2271.292 0.99 -8.249 0.143 81.699 0.143 81.699 0.99 -8.249
2296.25 0.989 -8.341 0.145 81.606 0.145 81.606 0.989 -8.341
2321.208 0.989 -8.434 0.147 81.513 0.147 81.513 0.989 -8.434
2346.167 0.989 -8.526 0.148 81.42 0.148 81.42 0.989 -8.526
2371.125 0.989 -8.618 0.15 81.327 0.15 81.327 0.989 -8.618
2396.083 0.988 -8.711 0.151 81.234 0.151 81.234 0.988 -8.711
2421.042 0.988 -8.803 0.153 81.141 0.153 81.141 0.988 -8.803
2446 0.988 -8.896 0.155 81.048 0.155 81.048 0.988 -8.896
2470.958 0.988 -8.989 0.156 80.954 0.156 80.954 0.988 -8.989
2495.917 0.987 -9.081 0.158 80.861 0.158 80.861 0.987 -9.081
2520.875 0.987 -9.174 0.159 80.768 0.159 80.768 0.987 -9.174
2545.833 0.987 -9.267 0.161 80.674 0.161 80.674 0.987 -9.267
2570.792 0.987 -9.36 0.163 80.581 0.163 80.581 0.987 -9.36
2595.75 0.986 -9.453 0.164 80.487 0.164 80.487 0.986 -9.453
2620.708 0.986 -9.546 0.166 80.394 0.166 80.394 0.986 -9.546
2645.667 0.986 -9.639 0.167 80.3 0.167 80.3 0.986 -9.639
2670.625 0.985 -9.732 0.169 80.206 0.169 80.206 0.985 -9.732
2695.583 0.985 -9.825 0.171 80.113 0.171 80.113 0.985 -9.825
2720.542 0.985 -9.918 0.172 80.019 0.172 80.019 0.985 -9.918
2745.5 0.985 -10.011 0.174 79.925 0.174 79.925 0.985 -10.011
2770.458 0.984 -10.105 0.175 79.831 0.175 79.831 0.984 -10.105
2795.417 0.984 -10.198 0.177 79.737 0.177 79.737 0.984 -10.198
2820.375 0.984 -10.292 0.179 79.643 0.179 79.643 0.984 -10.292
2845.333 0.983 -10.385 0.18 79.549 0.18 79.549 0.983 -10.385
2870.292 0.983 -10.479 0.182 79.454 0.182 79.454 0.983 -10.479
2895.25 0.983 -10.573 0.183 79.36 0.183 79.36 0.983 -10.573
2920.208 0.983 -10.666 0.185 79.266 0.185 79.266 0.983 -10.666
2945.167 0.982 -10.76 0.187 79.171 0.187 79.171 0.982 -10.76
2970.125 0.982 -10.854 0.188 79.077 0.188 79.077 0.982 -10.854
2995.083 0.982 -10.948 0.19 78.982 0.19 78.982 0.982 -10.948
3020.042 0.981 -11.042 0.192 78.888 0.192 78.888 0.981 -11.042
3045 0.981 -11.136 0.193 78.793 0.193 78.793 0.981 -11.136
3069.958 0.981 -11.23 0.195 78.698 0.195 78.698 0.981 -11.23
3094.917 0.98 -11.325 0.196 78.603 0.196 78.603 0.98 -11.325
3119.875 0.98 -11.419 0.198 78.508 0.198 78.508 0.98 -11.419
3144.833 0.98 -11.513 0.2 78.413 0.2 78.413 0.98 -11.513
3169.792 0.979 -11.608 0.201 78.318 0.201 78.318 0.979 -11.608
3194.75 0.979 -11.702 0.203 78.223 0.203 78.223 0.979 -11.702
3219.708 0.979 -11.797 0.204 78.128 0.204 78.128 0.979 -11.797
3244.667 0.978 -11.892 0.206 78.033 0.206 78.033 0.978 -11.892
3269.625 0.978 -11.986 0.208 77.937 0.208 77.937 0.978 -11.986
3294.583 0.978 -12.081 0.209 77.842 0.209 77.842 0.978 -12.081
3319.542 0.977 -12.176 0.211 77.746 0.211 77.746 0.977 -12.176
3344.5 0.977 -12.271 0.213 77.651 0.213 77.651 0.977 -12.271
3369.458 0.977 -12.366 0.214 77.555 0.214 77.555 0.977 -12.366
3394.417 0.976 -12.461 0.216 77.459 0.216 77.459 0.976 -12.461
3419.375 0.976 -12.557 0.217 77.363 0.217 77.363 0.976 -12.557
3444.333 0.975 -12.652 0.219 77.267 0.219 77.267 0.975 -12.652
3469.292 0.975 -12.747 0.221 77.171 0.221 77.171 0.975 -12.747
3494.25 0.975 -12.843 0.222 77.075 0.222 77.075 0.975 -12.843
3519.208 0.974 -12.938 0.224 76.979 0.224 76.979 0.974 -12.938
3544.167 0.974 -13.034 0.226 76.883 0.226 76.883 0.974 -13.034
3569.125 0.974 -13.129 0.227 76.786 0.227 76.786 0.974 -13.129
3594.083 0.973 -13.225 0.229 76.69 0.229 76.69 0.973 -13.225
3619.042 0.973 -13.321 0.23 76.594 0.23 76.594 0.973 -13.321
3644 0.972 -13.417 0.232 76.497 0.232 76.497 0.972 -13.417
3668.958 0.972 -13.513 0.234 76.4 0.234 76.4 0.972 -13.513
3693.917 0.972 -13.609 0.235 76.304 0.235 76.304 0.972 -13.609
3718.875 0.971 -13.705 0.237 76.207 0.237 76.207 0.971 -13.705
3743.833 0.971 -13.802 0.239 76.11 0.239 76.11 0.971 -13.802
3768.792 0.97 -13.898 0.24 76.013 0.24 76.013 0.97 -13.898
3793.75 0.97 -13.995 0.242 75.916 0.242 75.916 0.97 -13.995
3818.708 0.97 -14.091 0.243 75.818 0.243 75.818 0.97 -14.091
3843.667 0.969 -14.188 0.245 75.721 0.245 75.721 0.969 -14.188
3868.625 0.969 -14.284 0.247 75.624 0.247 75.624 0.969 -14.284
3893.583 0.968 -14.381 0.248 75.526 0.248 75.526 0.968 -14.381
3918.542 0.968 -14.478 0.25 75.429 0.25 75.429 0.968 -14.478
3943.5 0.967 -14.575 0.252 75.331 0.252 75.331 0.967 -14.575
3968.458 0.967 -14.672 0.253 75.233 0.253 75.233 0.967 -14.672
3993.417 0.967 -14.769 0.255 75.136 0.255 75.136 0.967 -14.769
4018.375 0.966 -14.867 0.257 75.038 0.257 75.038 0.966 -14.867
4043.333 0.966 -14.964 0.258 74.94 0.258 74.94 0.966 -14.964
4068.292 0.965 -15.062 0.26 74.842 0.26 74.842 0.965 -15.062
4093.25 0.965 -15.159 0.262 74.743 0.262 74.743 0.965 -15.159
4118.208 0.964 -15.257 0.263 74.645 0.263 74.645 0.964 -15.257
4143.167 0.964 -15.354 0.265 74.547 0.265 74.547 0.964 -15.354
4168.125 0.963 -15.452 0.266 74.448 0.266 74.448 0.963 -15.452
4193.083 0.963 -15.55 0.268 74.35 0.268 74.35 0.963 -15.55
4218.042 0.962 -15.648 0.27 74.251 0.27 74.251 0.962 -15.648
4243 0.962 -15.746 0.271 74.152 0.271 74.152 0.962 -15.746
4267.958 0.962 -15.845 0.273 74.053 0.273 74.053 0.962 -15.845
4292.917 0.961 -15.943 0.275 73.954 0.275 73.954 0.961 -15.943
4317.875 0.961 -16.041 0.276 73.855 0.276 73.855 0.961 -16.041
4342.833 0.96 -16.14 0.278 73.756 0.278 73.756 0.96 -16.14
4367.792 0.96 -16.238 0.28 73.657 0.28 73.657 0.96 -16.238
4392.75 0.959 -16.337 0.281 73.557 0.281 73.557 0.959 -16.337
4417.708 0.959 -16.436 0.283 73.458 0.283 73.458 0.959 -16.436
4442.667 0.958 -16.535 0.285 73.358 0.285 73.358 0.958 -16.535
4467.625 0.958 -16.634 0.286 73.258 0.286 73.258 0.958 -16.634
4492.583 0.957 -16.733 0.288 73.159 0.288 73.159 0.957 -16.733
4517.542 0.957 -16.832 0.29 73.059 0.29 73.059 0.957 -16.832
4542.5 0.956 -16.932 0.291 72.959 0.291 72.959 0.956 -16.932
4567.458 0.956 -17.031 0.293 72.859 0.293 72.859 0.956 -17.031
4592.417 0.955 -17.131 0.295 72.758 0.295 72.758 0.955 -17.131
4617.375 0.955 -17.23 0.296 72.658 0.296 72.658 0.955 -17.23
4642.333 0.954 -17.33 0.298 72.558 0.298 72.558 0.954 -17.33
4667.292 0.953 -17.43 0.3 72.457 0.3 72.457 0.953 -17.43
4692.25 0.953 -17.53 0.301 72.356 0.301 72.356 0.953 -17.53
4717.208 0.952 -17.63 0.303 72.256 0.303 72.256 0.952 -17.63
4742.167 0.952 -17.73 0.305 72.155 0.305 72.155 0.952 -17.73
4767.125 0.951 -17.83 0.306 72.054 0.306 72.054 0.951 -17.83
4792.083 0.951 -17.931 0.308 71.953 0.308 71.953 0.951 -17.931
4817.042 0.95 -18.031 0.31 71.851 0.31 71.851 0.95 -18.031
4842 0.95 -18.132 0.311 71.75 0.311 71.75 0.95 -18.132
4866.958 0.949 -18.233 0.313 71.649 0.313 71.649 0.949 -18.233
4891.917 0.949 -18.334 0.315 71.547 0.315 71.547 0.949 -18.334
4916.875 0.948 -18.434 0.316 71.445 0.316 71.445 0.948 -18.434
4941.833 0.947 -18.536 0.318 71.344 0.318 71.344 0.947 -18.536
4966.792 0.947 -18.637 0.32 71.242 0.32 71.242 0.947 -18.637
4991.75 0.946 -18.738 0.321 71.14 0.321 71.14 0.946 -18.738
5016.708 0.946 -18.839 0.323 71.038 0.323 71.038 0.946 -18.839
5041.667 0.945 -18.941 0.325 70.935 0.325 70.935 0.945 -18.941
5066.625 0.945 -19.043 0.326 70.833 0.326 70.833 0.945 -19.043
5091.583 0.944 -19.144 0.328 70.731 0.328 70.731 0.944 -19.144
5116.542 0.943 -19.246 0.33 70.628 0.33 70.628 0.943 -19.246
5141.5 0.943 -19.348 0.331 70.525 0.331 70.525 0.943 -19.348
5166.458 0.942 -19.45 0.333 70.422 0.333 70.422 0.942 -19.45
5191.417 0.942 -19.553 0.335 70.319 0.335 70.319 0.942 -19.553
5216.375 0.941 -19.655 0.336 70.216 0.336 70.216 0.941 -19.655
5241.333 0.94 -19.757 0.338 70.113 0.338 70.113 0.94 -19.757
5266.292 0.94 -19.86 0.34 70.01 0.34 70.01 0.94 -19.86
5291.25 0.939 -19.963 0.341 69.906 0.341 69.906 0.939 -19.963
5316.208 0.939 -20.065 0.343 69.803 0.343 69.803 0.939 -20.065
5341.167 0.938 -20.168 0.345 69.699 0.345 69.699 0.938 -20.168
5366.125 0.937 -20.272 0.346 69.595 0.346 69.595 0.937 -20.272
5391.083 0.937 -20.375 0.348 69.491 0.348 69.491 0.937 -20.375
5416.042 0.936 -20.478 0.35 69.387 0.35 69.387 0.936 -20.478
5441 0.935 -20.581 0.352 69.283 0.352 69.283 0.935 -20.581
5465.958 0.935 -20.685 0.353 69.179 0.353 69.179 0.935 -20.685
5490.917 0.934 -20.789 0.355 69.075 0.355 69.075 0.934 -20.789
5515.875 0.933 -20.893 0.357 68.97 0.357 68.97 0.933 -20.893
5540.833 0.933 -20.996 0.358 68.865 0.358 68.865 0.933 -20.996
5565.792 0.932 -21.101 0.36 68.76 0.36 68.76 0.932 -21.101
5590.75 0.931 -21.205 0.362 68.655 0.362 68.655 0.931 -21.205
5615.708 0.931 -21.309 0.363 68.55 0.363 68.55 0.931 -21.309
5640.667 0.93 -21.413 0.365 68.445 0.365 68.445 0.93 -21.413
5665.625 0.929 -21.518 0.367 68.34 0.367 68.34 0.929 -21.518
5690.583 0.929 -21.623 0.368 68.234 0.368 68.234 0.929 -21.623
5715.542 0.928 -21.728 0.37 68.129 0.37 68.129 0.928 -21.728
5740.5 0.927 -21.833 0.372 68.023 0.372 68.023 0.927 -21.833
5765.458 0.927 -21.938 0.374 67.917 0.374 67.917 0.927 -21.938
5790.417 0.926 -22.043 0.375 67.811 0.375 67.811 0.926 -22.043
5815.375 0.925 -22.148 0.377 67.705 0.377 67.705 0.925 -22.148
5840.333 0.925 -22.254 0.379 67.599 0.379 67.599 0.925 -22.254
5865.292 0.924 -22.359 0.38 67.492 0.38 67.492 0.924 -22.359
5890.25 0.923 -22.465 0.382 67.386 0.382 67.386 0.923 -22.465
5915.208 0.922 -22.571 0.384 67.279 0.384 67.279 0.922 -22.571
5940.167 0.922 -22.677 0.386 67.172 0.386 67.172 0.922 -22.677
5965.125 0.921 -22.783 0.387 67.066 0.387 67.066 0.921 -22.783
5990.083 0.92 -22.889 0.389 66.958 0.389 66.958 0.92 -22.889
6015.042 0.919 -22.996 0.391 66.851 0.391 66.851 0.919 -22.996
6040 0.919 -23.102 0.392 66.744 0.392 66.744 0.919 -23.102
6064.958 0.918 -23.209 0.394 66.636 0.394 66.636 0.918 -23.209
6089.917 0.917 -23.316 0.396 66.529 0.396 66.529 0.917 -23.316
6114.875 0.917 -23.423 0.398 66.421 0.398 66.421 0.917 -23.423
6139.833 0.916 -23.53 0.399 66.313 0.399 66.313 0.916 -23.53
6164.792 0.915 -23.637 0.401 66.205 0.401 66.205 0.915 -23.637
6189.75 0.914 -23.745 0.403 66.097 0.403 66.097 0.914 -23.745
6214.708 0.913 -23.852 0.404 65.989 0.404 65.989 0.913 -23.852
6239.667 0.913 -23.96 0.406 65.88 0.406 65.88 0.913 -23.96
6264.625 0.912 -24.068 0.408 65.771 0.408 65.771 0.912 -24.068
6289.583 0.911 -24.175 0.41 65.663 0.41 65.663 0.911 -24.175
6314.542 0.91 -24.284 0.411 65.554 0.411 65.554 0.91 -24.284
6339.5 0.91 -24.392 0.413 65.445 0.413 65.445 0.91 -24.392
6364.458 0.909 -24.5 0.415 65.336 0.415 65.336 0.909 -24.5
6389.417 0.908 -24.609 0.416 65.226 0.416 65.226 0.908 -24.609
6414.375 0.907 -24.717 0.418 65.117 0.418 65.117 0.907 -24.717
6439.333 0.906 -24.826 0.42 65.007 0.42 65.007 0.906 -24.826
6464.292 0.906 -24.935 0.422 64.897 0.422 64.897 0.906 -24.935
6489.25 0.905 -25.044 0.423 64.787 0.423 64.787 0.905 -25.044
6514.208 0.904 -25.153 0.425 64.677 0.425 64.677 0.904 -25.153
6539.167 0.903 -25.263 0.427 64.567 0.427 64.567 0.903 -25.263
6564.125 0.902 -25.372 0.428 64.457 0.428 64.457 0.902 -25.372
6589.083 0.901 -25.482 0.43 64.346 0.43 64.346 0.901 -25.482
6614.042 0.901 -25.592 0.432 64.236 0.432 64.236 0.901 -25.592
6639 0.9 -25.702 0.434 64.125 0.434 64.125 0.9 -25.702
6663.958 0.899 -25.812 0.435 64.014 0.435 64.014 0.899 -25.812
6688.917 0.898 -25.922 0.437 63.903 0.437 63.903 0.898 -25.922
6713.875 0.897 -26.032 0.439 63.792 0.439 63.792 0.897 -26.032
6738.833 0.896 -26.143 0.441 63.68 0.441 63.68 0.896 -26.143
6763.792 0.895 -26.254 0.442 63.569 0.442 63.569 0.895 -26.254
6788.75 0.895 -26.364 0.444 63.457 0.444 63.457 0.895 -26.364
6813.708 0.894 -26.475 0.446 63.345 0.446 63.345 0.894 -26.475
6838.667 0.893 -26.587 0.448 63.233 0.448 63.233 0.893 -26.587
6863.625 0.892 -26.698 0.449 63.121 0.449 63.121 0.892 -26.698
6888.583 0.891 -26.809 0.451 63.008 0.451 63.008 0.891 -26.809
6913.542 0.89 -26.921 0.453 62.896 0.453 62.896 0.89 -26.921
6938.5 0.889 -27.033 0.455 62.783 0.455 62.783 0.889 -27.033
6963.458 0.888 -27.145 0.456 62.671 0.456 62.671 0.888 -27.145
6988.417 0.887 -27.257 0.458 62.558 0.458 62.558 0.887 -27.257
7013.375 0.887 -27.369 0.46 62.445 0.46 62.445 0.887 -27.369
7038.333 0.886 -27.481 0.461 62.331 0.461 62.331 0.886 -27.481
7063.292 0.885 -27.594 0.463 62.218 0.463 62.218 0.885 -27.594
7088.25 0.884 -27.706 0.465 62.104 0.465 62.104 0.884 -27.706
7113.208 0.883 -27.819 0.467 61.991 0.467 61.991 0.883 -27.819
7138.167 0.882 -27.932 0.468 61.877 0.468 61.877 0.882 -27.932
7163.125 0.881 -28.045 0.47 61.763 0.47 61.763 0.881 -28.045
7188.083 0.88 -28.159 0.472 61.648 0.472 61.648 0.88 -28.159
7213.042 0.879 -28.272 0.474 61.534 0.474 61.534 0.879 -28.272
7238 0.878 -28.386 0.475 61.419 0.475 61.419 0.878 -28.386
7262.958 0.877 -28.499 0.477 61.305 0.477 61.305 0.877 -28.499
7287.917 0.876 -28.613 0.479 61.19 0.479 61.19 0.876 -28.613
7312.875 0.875 -28.727 0.481 61.075 0.481 61.075 0.875 -28.727
7337.833 0.874 -28.842 0.482 60.96 0.482 60.96 0.874 -28.842
7362.792 0.873 -28.956 0.484 60.844 0.484 60.844 0.873 -28.956
7387.75 0.872 -29.071 0.486 60.729 0.486 60.729 0.872 -29.071
7412.708 0.871 -29.185 0.488 60.613 0.488 60.613 0.871 -29.185
7437.667 0.87 -29.3 0.489 60.497 0.489 60.497 0.87 -29.3
7462.625 0.869 -29.415 0.491 60.381 0.491 60.381 0.869 -29.415
7487.583 0.868 -29.53 0.493 60.265 0.493 60.265 0.868 -29.53
7512.542 0.867 -29.646 0.495 60.149 0.495 60.149 0.867 -29.646
7537.5 0.866 -29.761 0.496 60.033 0.496 60.033 0.866 -29.761
7562.458 0.865 -29.877 0.498 59.916 0.498 59.916 0.865 -29.877
7587.417 0.864 -29.993 0.5 59.799 0.5 59.799 0.864 -29.993
7612.375 0.863 -30.109 0.502 59.682 0.502 59.682 0.863 -30.109
7637.333 0.862 -30.225 0.503 59.565 0.503 59.565 0.862 -30.225
7662.292 0.861 -30.341 0.505 59.448 0.505 59.448 0.861 -30.341
7687.25 0.86 -30.458 0.507 59.33 0.507 59.33 0.86 -30.458
7712.208 0.859 -30.574 0.509 59.213 0.509 59.213 0.859 -30.574
7737.167 0.858 -30.691 0.51 59.095 0.51 59.095 0.858 -30.691
7762.125 0.857 -30.808 0.512 58.977 0.512 58.977 0.857 -30.808
7787.083 0.856 -30.925 0.514 58.859 0.514 58.859 0.856 -30.925
7812.042 0.855 -31.042 0.516 58.74 0.516 58.74 0.855 -31.042
7837 0.854 -31.16 0.517 58.622 0.517 58.622 0.854 -31.16
7861.958 0.853 -31.278 0.519 58.503 0.519 58.503 0.853 -31.278
7886.917 0.852 -31.395 0.521 58.384 0.521 58.384 0.852 -31.395
7911.875 0.851 -31.513 0.523 58.265 0.523 58.265 0.851 -31.513
7936.833 0.849 -31.631 0.524 58.146 0.524 58.146 0.849 -31.631
7961.792 0.848 -31.75 0.526 58.027 0.526 58.027 0.848 -31.75
7986.75 0.847 -31.868 0.528 57.908 0.528 57.908 0.847 -31.868
8011.708 0.846 -31.987 0.53 57.788 0.53 57.788 0.846 -31.987
8036.667 0.845 -32.106 0.531 57.668 0.531 57.668 0.845 -32.106
8061.625 0.844 -32.225 0.533 57.548 0.533 57.548 0.844 -32.225
8086.583 0.843 -32.344 0.535 57.428 0.535 57.428 0.843 -32.344
8111.542 0.842 -32.463 0.537 57.307 0.537 57.307 0.842 -32.463
8136.5 0.84 -32.582 0.539 57.187 0.539 57.187 0.84 -32.582
8161.458 0.839 -32.702 0.54 57.066 0.54 57.066 0.839 -32.702
8186.417 0.838 -32.822 0.542 56.945 0.542 56.945 0.838 -32.822
8211.375 0.837 -32.942 0.544 56.824 0.544 56.824 0.837 -32.942
8236.333 0.836 -33.062 0.546 56.703 0.546 56.703 0.836 -33.062
