# MHZ S MA R 50

50 0.991 -7.519 0.131 82.47 0.131 82.47 0.991 -7.519
74.958 0.981 -11.196 0.194 78.787 0.194 78.787 0.981 -11.196
99.917 0.967 -14.788 0.255 75.19 0.255 75.19 0.967 -14.788
124.875 0.949 -18.27 0.314 71.702 0.314 71.702 0.949 -18.27
149.833 0.929 -21.626 0.369 68.341 0.369 68.341 0.929 -21.626
174.792 0.907 -24.841 0.42 65.12 0.42 65.12 0.907 -24.841
199.75 0.883 -27.906 0.468 62.049 0.468 62.049 0.883 -27.906
224.708 0.858 -30.818 0.512 59.132 0.512 59.132 0.858 -30.818
249.667 0.833 -33.573 0.553 56.37 0.553 56.37 0.833 -33.573
274.625 0.807 -36.175 0.59 53.763 0.59 53.763 0.807 -36.175
299.583 0.781 -38.626 0.624 51.306 0.624 51.306 0.781 -38.626
324.542 0.755 -40.932 0.655 48.995 0.655 48.995 0.755 -40.932
349.5 0.729 -43.099 0.683 46.821 0.683 46.821 0.729 -43.099
374.458 0.704 -45.136 0.709 44.779 0.709 44.779 0.704 -45.136
399.417 0.68 -47.049 0.732 42.86 0.732 42.86 0.68 -47.049
424.375 0.657 -48.846 0.753 41.057 0.753 41.057 0.657 -48.846
449.333 0.634 -50.535 0.772 39.362 0.772 39.362 0.634 -50.535
474.292 0.612 -52.123 0.789 37.768 0.789 37.768 0.612 -52.123
499.25 0.592 -53.618 0.805 36.267 0.805 36.267 0.592 -53.618
524.208 0.571 -55.025 0.819 34.853 0.819 34.853 0.571 -55.025
549.167 0.552 -56.353 0.832 33.519 0.832 33.519 0.552 -56.353
574.125 0.534 -57.605 0.844 32.261 0.844 32.261 0.534 -57.605
599.083 0.516 -58.789 0.855 31.071 0.855 31.071 0.516 -58.789
624.042 0.499 -59.908 0.865 29.945 0.865 29.945 0.499 -59.908
649 0.483 -60.968 0.874 28.879 0.874 28.879 0.483 -60.968
673.958 0.467 -61.972 0.883 27.867 0.883 27.867 0.467 -61.972
698.917 0.453 -62.926 0.89 26.907 0.89 26.907 0.453 -62.926
723.875 0.438 -63.832 0.898 25.994 0.898 25.994 0.438 -63.832
748.833 0.425 -64.694 0.904 25.125 0.904 25.125 0.425 -64.694
773.792 0.411 -65.515 0.91 24.298 0.91 24.298 0.411 -65.515
798.75 0.399 -66.297 0.916 23.508 0.916 23.508 0.399 -66.297
823.708 0.387 -67.044 0.921 22.754 0.921 22.754 0.387 -67.044
848.667 0.375 -67.758 0.926 22.033 0.926 22.033 0.375 -67.758
873.625 0.364 -68.44 0.93 21.343 0.93 21.343 0.364 -68.44
898.583 0.353 -69.094 0.934 20.682 0.934 20.682 0.353 -69.094
923.542 0.343 -69.72 0.938 20.048 0.938 20.048 0.343 -69.72
948.5 0.333 -70.321 0.942 19.439 0.942 19.439 0.333 -70.321
973.458 0.323 -70.898 0.945 18.854 0.945 18.854 0.323 -70.898
998.417 0.314 -71.452 0.948 18.292 0.948 18.292 0.314 -71.452
1023.375 0.305 -71.985 0.951 17.75 0.951 17.75 0.305 -71.985
1048.333 0.296 -72.499 0.954 17.228 0.954 17.228 0.296 -72.499
1073.292 0.288 -72.993 0.956 16.725 0.956 16.725 0.288 -72.993
1098.25 0.28 -73.47 0.959 16.239 0.959 16.239 0.28 -73.47
1123.208 0.272 -73.93 0.961 15.77 0.961 15.77 0.272 -73.93
1148.167 0.264 -74.375 0.963 15.316 0.963 15.316 0.264 -74.375
1173.125 0.257 -74.804 0.965 14.877 0.965 14.877 0.257 -74.804
1198.083 0.25 -75.22 0.967 14.452 0.967 14.452 0.25 -75.22
1223.042 0.243 -75.622 0.969 14.04 0.969 14.04 0.243 -75.622
1248 0.236 -76.011 0.97 13.64 0.97 13.64 0.236 -76.011
1272.958 0.229 -76.388 0.972 13.252 0.972 13.252 0.229 -76.388
1297.917 0.223 -76.754 0.973 12.876 0.973 12.876 0.223 -76.754
1322.875 0.217 -77.109 0.975 12.51 0.975 12.51 0.217 -77.109
1347.833 0.211 -77.453 0.976 12.154 0.976 12.154 0.211 -77.453
1372.792 0.205 -77.787 0.977 11.808 0.977 11.808 0.205 -77.787
1397.75 0.199 -78.112 0.979 11.471 0.979 11.471 0.199 -78.112
1422.708 0.193 -78.428 0.98 11.142 0.98 11.142 0.193 -78.428
1447.667 0.188 -78.735 0.981 10.822 0.981 10.822 0.188 -78.735
1472.625 0.182 -79.033 0.982 10.51 0.982 10.51 0.182 -79.033
1497.583 0.177 -79.324 0.983 10.206 0.983 10.206 0.177 -79.324
1522.542 0.172 -79.607 0.984 9.908 0.984 9.908 0.172 -79.607
1547.5 0.167 -79.882 0.984 9.618 0.984 9.618 0.167 -79.882
1572.458 0.162 -80.151 0.985 9.334 0.985 9.334 0.162 -80.151
1597.417 0.157 -80.412 0.986 9.057 0.986 9.057 0.157 -80.412
1622.375 0.153 -80.667 0.987 8.785 0.987 8.785 0.153 -80.667
1647.333 0.148 -80.915 0.988 8.52 0.988 8.52 0.148 -80.915
1672.292 0.144 -81.157 0.988 8.26 0.988 8.26 0.144 -81.157
1697.25 0.139 -81.393 0.989 8.005 0.989 8.005 0.139 -81.393
1722.208 0.135 -81.623 0.989 7.755 0.989 7.755 0.135 -81.623
1747.167 0.131 -81.847 0.99 7.51 0.99 7.51 0.131 -81.847
1772.125 0.127 -82.066 0.99 7.27 0.99 7.27 0.127 -82.066
1797.083 0.122 -82.279 0.991 7.035 0.991 7.035 0.122 -82.279
1822.042 0.118 -82.487 0.991 6.803 0.991 6.803 0.118 -82.487
1847 0.115 -82.689 0.992 6.576 0.992 6.576 0.115 -82.689
1871.958 0.111 -82.886 0.992 6.353 0.992 6.353 0.111 -82.886
1896.917 0.107 -83.078 0.993 6.134 0.993 6.134 0.107 -83.078
1921.875 0.103 -83.264 0.993 5.919 0.993 5.919 0.103 -83.264
1946.833 0.099 -83.445 0.994 5.707 0.994 5.707 0.099 -83.445
1971.792 0.096 -83.621 0.994 5.499 0.994 5.499 0.096 -83.621
1996.75 0.092 -83.792 0.994 5.294 0.994 5.294 0.092 -83.792
2021.708 0.089 -83.957 0.995 5.092 0.995 5.092 0.089 -83.957
2046.667 0.085 -84.117 0.995 4.894 0.995 4.894 0.085 -84.117
2071.625 0.082 -84.272 0.995 4.698 0.995 4.698 0.082 -84.272
2096.583 0.079 -84.42 0.995 4.505 0.995 4.505 0.079 -84.42
2121.542 0.075 -84.562 0.996 4.316 0.996 4.316 0.075 -84.562
2146.5 0.072 -84.698 0.996 4.128 0.996 4.128 0.072 -84.698
2171.458 0.069 -84.828 0.996 3.944 0.996 3.944 0.069 -84.828
2196.417 0.066 -84.95 0.996 3.762 0.996 3.762 0.066 -84.95
2221.375 0.063 -85.065 0.997 3.582 0.997 3.582 0.063 -85.065
2246.333 0.059 -85.172 0.997 3.405 0.997 3.405 0.059 -85.172
2271.292 0.056 -85.269 0.997 3.23 0.997 3.23 0.056 -85.269
2296.25 0.053 -85.357 0.997 3.058 0.997 3.058 0.053 -85.357
2321.208 0.05 -85.434 0.997 2.887 0.997 2.887 0.05 -85.434
2346.167 0.047 -85.498 0.997 2.719 0.997 2.719 0.047 -85.498
2371.125 0.045 -85.548 0.998 2.553 0.998 2.553 0.045 -85.548
2396.083 0.042 -85.582 0.998 2.389 0.998 2.389 0.042 -85.582
2421.042 0.039 -85.596 0.998 2.226 0.998 2.226 0.039 -85.596
2446 0.036 -85.588 0.998 2.066 0.998 2.066 0.036 -85.588
2470.958 0.033 -85.551 0.998 1.907 0.998 1.907 0.033 -85.551
2495.917 0.031 -85.48 0.998 1.75 0.998 1.75 0.031 -85.48
2520.875 0.028 -85.366 0.998 1.595 0.998 1.595 0.028 -85.366
2545.833 0.025 -85.197 0.998 1.441 0.998 1.441 0.025 -85.197
2570.792 0.023 -84.953 0.998 1.289 0.998 1.289 0.023 -84.953
2595.75 0.02 -84.609 0.998 1.139 0.998 1.139 0.02 -84.609
2620.708 0.017 -84.122 0.998 0.99 0.998 0.99 0.017 -84.122
2645.667 0.015 -83.42 0.998 0.843 0.998 0.843 0.015 -83.42
2670.625 0.012 -82.375 0.998 0.697 0.998 0.697 0.012 -82.375
2695.583 9.754e-3 -80.732 0.998 0.552 0.998 0.552 9.754e-3 -80.732
2720.542 7.295e-3 -77.901 0.998 0.409 0.998 0.409 7.295e-3 -77.901
2745.5 4.897e-3 -72.167 0.999 0.268 0.999 0.268 4.897e-3 -72.167
2770.458 2.665e-3 -56.184 0.999 0.127 0.999 0.127 2.665e-3 -56.184
2795.417 1.493e-3 8.173 0.999 -0.012 0.999 -0.012 1.493e-3 8.173
2820.375 3.009e-3 60.428 0.999 -0.15 0.999 -0.15 3.009e-3 60.428
2845.333 5.222e-3 73.27 0.999 -0.287 0.999 -0.287 5.222e-3 73.27
2870.292 7.521e-3 78.244 0.998 -0.423 0.998 -0.423 7.521e-3 78.244
2895.25 9.833e-3 80.798 0.998 -0.557 0.998 -0.557 9.833e-3 80.798
2920.208 0.012 82.316 0.998 -0.69 0.998 -0.69 0.012 82.316
2945.167 0.014 83.3 0.998 -0.823 0.998 -0.823 0.014 83.3
2970.125 0.017 83.972 0.998 -0.954 0.998 -0.954 0.017 83.972
2995.083 0.019 84.449 0.998 -1.084 0.998 -1.084 0.019 84.449
3020.042 0.021 84.794 0.998 -1.213 0.998 -1.213 0.021 84.794
3045 0.023 85.046 0.998 -1.341 0.998 -1.341 0.023 85.046
3069.958 0.026 85.231 0.998 -1.468 0.998 -1.468 0.026 85.231
3094.917 0.028 85.366 0.998 -1.594 0.998 -1.594 0.028 85.366
3119.875 0.03 85.462 0.998 -1.72 0.998 -1.72 0.03 85.462
3144.833 0.032 85.527 0.998 -1.844 0.998 -1.844 0.032 85.527
3169.792 0.034 85.569 0.998 -1.968 0.998 -1.968 0.034 85.569
3194.75 0.037 85.591 0.998 -2.09 0.998 -2.09 0.037 85.591
3219.708 0.039 85.597 0.998 -2.212 0.998 -2.212 0.039 85.597
3244.667 0.041 85.589 0.998 -2.333 0.998 -2.333 0.041 85.589
3269.625 0.043 85.571 0.998 -2.453 0.998 -2.453 0.043 85.571
3294.583 0.045 85.543 0.998 -2.573 0.998 -2.573 0.045 85.543
3319.542 0.047 85.508 0.997 -2.691 0.997 -2.691 0.047 85.508
3344.5 0.049 85.466 0.997 -2.809 0.997 -2.809 0.049 85.466
3369.458 0.051 85.418 0.997 -2.926 0.997 -2.926 0.051 85.418
3394.417 0.053 85.365 0.997 -3.042 0.997 -3.042 0.053 85.365
3419.375 0.055 85.307 0.997 -3.158 0.997 -3.158 0.055 85.307
3444.333 0.057 85.246 0.997 -3.273 0.997 -3.273 0.057 85.246
3469.292 0.059 85.182 0.997 -3.387 0.997 -3.387 0.059 85.182
3494.25 0.061 85.115 0.997 -3.501 0.997 -3.501 0.061 85.115
3519.208 0.063 85.046 0.997 -3.614 0.997 -3.614 0.063 85.046
3544.167 0.065 84.974 0.996 -3.726 0.996 -3.726 0.065 84.974
3569.125 0.067 84.9 0.996 -3.838 0.996 -3.838 0.067 84.9
3594.083 0.069 84.825 0.996 -3.949 0.996 -3.949 0.069 84.825
3619.042 0.071 84.748 0.996 -4.059 0.996 -4.059 0.071 84.748
3644 0.073 84.669 0.996 -4.169 0.996 -4.169 0.073 84.669
3668.958 0.075 84.59 0.996 -4.278 0.996 -4.278 0.075 84.59
3693.917 0.077 84.509 0.996 -4.387 0.996 -4.387 0.077 84.509
3718.875 0.078 84.428 0.995 -4.495 0.995 -4.495 0.078 84.428
3743.833 0.08 84.346 0.995 -4.602 0.995 -4.602 0.08 84.346
3768.792 0.082 84.263 0.995 -4.709 0.995 -4.709 0.082 84.263
3793.75 0.084 84.179 0.995 -4.816 0.995 -4.816 0.084 84.179
3818.708 0.086 84.095 0.995 -4.922 0.995 -4.922 0.086 84.095
3843.667 0.088 84.01 0.995 -5.027 0.995 -5.027 0.088 84.01
3868.625 0.089 83.925 0.995 -5.132 0.995 -5.132 0.089 83.925
3893.583 0.091 83.84 0.994 -5.236 0.994 -5.236 0.091 83.84
3918.542 0.093 83.754 0.994 -5.34 0.994 -5.34 0.093 83.754
3943.5 0.095 83.668 0.994 -5.444 0.994 -5.444 0.095 83.668
3968.458 0.097 83.581 0.994 -5.547 0.994 -5.547 0.097 83.581
3993.417 0.098 83.495 0.994 -5.649 0.994 -5.649 0.098 83.495
4018.375 0.1 83.408 0.993 -5.751 0.993 -5.751 0.1 83.408
4043.333 0.102 83.321 0.993 -5.853 0.993 -5.853 0.102 83.321
4068.292 0.104 83.234 0.993 -5.954 0.993 -5.954 0.104 83.234
4093.25 0.105 83.147 0.993 -6.055 0.993 -6.055 0.105 83.147
4118.208 0.107 83.06 0.993 -6.155 0.993 -6.155 0.107 83.06
4143.167 0.109 82.972 0.993 -6.255 0.993 -6.255 0.109 82.972
4168.125 0.111 82.885 0.992 -6.354 0.992 -6.354 0.111 82.885
4193.083 0.112 82.798 0.992 -6.454 0.992 -6.454 0.112 82.798
4218.042 0.114 82.711 0.992 -6.552 0.992 -6.552 0.114 82.711
4243 0.116 82.623 0.992 -6.65 0.992 -6.65 0.116 82.623
4267.958 0.118 82.536 0.992 -6.748 0.992 -6.748 0.118 82.536
4292.917 0.119 82.449 0.991 -6.846 0.991 -6.846 0.119 82.449
4317.875 0.121 82.362 0.991 -6.943 0.991 -6.943 0.121 82.362
4342.833 0.123 82.275 0.991 -7.04 0.991 -7.04 0.123 82.275
4367.792 0.124 82.187 0.991 -7.136 0.991 -7.136 0.124 82.187
4392.75 0.126 82.101 0.991 -7.232 0.991 -7.232 0.126 82.101
4417.708 0.128 82.014 0.99 -7.328 0.99 -7.328 0.128 82.014
4442.667 0.129 81.927 0.99 -7.423 0.99 -7.423 0.129 81.927
4467.625 0.131 81.84 0.99 -7.518 0.99 -7.518 0.131 81.84
4492.583 0.132 81.754 0.99 -7.613 0.99 -7.613 0.132 81.754
4517.542 0.134 81.667 0.99 -7.707 0.99 -7.707 0.134 81.667
4542.5 0.136 81.581 0.989 -7.801 0.989 -7.801 0.136 81.581
4567.458 0.137 81.495 0.989 -7.895 0.989 -7.895 0.137 81.495
4592.417 0.139 81.409 0.989 -7.988 0.989 -7.988 0.139 81.409
4617.375 0.141 81.323 0.989 -8.081 0.989 -8.081 0.141 81.323
4642.333 0.142 81.237 0.988 -8.174 0.988 -8.174 0.142 81.237
4667.292 0.144 81.151 0.988 -8.266 0.988 -8.266 0.144 81.151
4692.25 0.145 81.065 0.988 -8.358 0.988 -8.358 0.145 81.065
4717.208 0.147 80.98 0.988 -8.45 0.988 -8.45 0.147 80.98
4742.167 0.149 80.895 0.987 -8.541 0.987 -8.541 0.149 80.895
4767.125 0.15 80.809 0.987 -8.633 0.987 -8.633 0.15 80.809
4792.083 0.152 80.724 0.987 -8.724 0.987 -8.724 0.152 80.724
4817.042 0.153 80.64 0.987 -8.814 0.987 -8.814 0.153 80.64
4842 0.155 80.555 0.986 -8.905 0.986 -8.905 0.155 80.555
4866.958 0.156 80.47 0.986 -8.995 0.986 -8.995 0.156 80.47
4891.917 0.158 80.386 0.986 -9.084 0.986 -9.084 0.158 80.386
4916.875 0.159 80.302 0.986 -9.174 0.986 -9.174 0.159 80.302
4941.833 0.161 80.217 0.986 -9.263 0.986 -9.263 0.161 80.217
4966.792 0.163 80.133 0.985 -9.352 0.985 -9.352 0.163 80.133
4991.75 0.164 80.05 0.985 -9.441 0.985 -9.441 0.164 80.05
5016.708 0.166 79.966 0.985 -9.53 0.985 -9.53 0.166 79.966
5041.667 0.167 79.882 0.984 -9.618 0.984 -9.618 0.167 79.882
5066.625 0.169 79.799 0.984 -9.706 0.984 -9.706 0.169 79.799
5091.583 0.17 79.716 0.984 -9.793 0.984 -9.793 0.17 79.716
5116.542 0.172 79.633 0.984 -9.881 0.984 -9.881 0.172 79.633
5141.5 0.173 79.55 0.983 -9.968 0.983 -9.968 0.173 79.55
5166.458 0.175 79.467 0.983 -10.055 0.983 -10.055 0.175 79.467
5191.417 0.176 79.385 0.983 -10.142 0.983 -10.142 0.176 79.385
5216.375 0.178 79.302 0.983 -10.229 0.983 -10.229 0.178 79.302
5241.333 0.179 79.22 0.982 -10.315 0.982 -10.315 0.179 79.22
5266.292 0.181 79.138 0.982 -10.401 0.982 -10.401 0.181 79.138
5291.25 0.182 79.056 0.982 -10.487 0.982 -10.487 0.182 79.056
5316.208 0.183 78.974 0.982 -10.572 0.982 -10.572 0.183 78.974
5341.167 0.185 78.892 0.981 -10.658 0.981 -10.658 0.185 78.892
5366.125 0.186 78.811 0.981 -10.743 0.981 -10.743 0.186 78.811
5391.083 0.188 78.729 0.981 -10.828 0.981 -10.828 0.188 78.729
5416.042 0.189 78.648 0.98 -10.913 0.98 -10.913 0.189 78.648
5441 0.191 78.567 0.98 -10.997 0.98 -10.997 0.191 78.567
5465.958 0.192 78.486 0.98 -11.082 0.98 -11.082 0.192 78.486
5490.917 0.194 78.405 0.98 -11.166 0.98 -11.166 0.194 78.405
5515.875 0.195 78.325 0.979 -11.25 0.979 -11.25 0.195 78.325
5540.833 0.197 78.244 0.979 -11.333 0.979 -11.333 0.197 78.244
5565.792 0.198 78.164 0.979 -11.417 0.979 -11.417 0.198 78.164
5590.75 0.199 78.084 0.978 -11.5 0.978 -11.5 0.199 78.084
5615.708 0.201 78.003 0.978 -11.583 0.978 -11.583 0.201 78.003
5640.667 0.202 77.924 0.978 -11.666 0.978 -11.666 0.202 77.924
5665.625 0.204 77.844 0.978 -11.749 0.978 -11.749 0.204 77.844
5690.583 0.205 77.764 0.977 -11.832 0.977 -11.832 0.205 77.764
5715.542 0.206 77.685 0.977 -11.914 0.977 -11.914 0.206 77.685
5740.5 0.208 77.605 0.977 -11.996 0.977 -11.996 0.208 77.605
5765.458 0.209 77.526 0.976 -12.078 0.976 -12.078 0.209 77.526
5790.417 0.211 77.447 0.976 -12.16 0.976 -12.16 0.211 77.447
5815.375 0.212 77.368 0.976 -12.241 0.976 -12.241 0.212 77.368
5840.333 0.213 77.289 0.976 -12.323 0.976 -12.323 0.213 77.289
5865.292 0.215 77.211 0.975 -12.404 0.975 -12.404 0.215 77.211
5890.25 0.216 77.132 0.975 -12.485 0.975 -12.485 0.216 77.132
5915.208 0.218 77.054 0.975 -12.566 0.975 -12.566 0.218 77.054
5940.167 0.219 76.976 0.974 -12.647 0.974 -12.647 0.219 76.976
5965.125 0.22 76.898 0.974 -12.727 0.974 -12.727 0.22 76.898
5990.083 0.222 76.82 0.974 -12.808 0.974 -12.808 0.222 76.82
6015.042 0.223 76.742 0.973 -12.888 0.973 -12.888 0.223 76.742
6040 0.224 76.664 0.973 -12.968 0.973 -12.968 0.224 76.664
6064.958 0.226 76.587 0.973 -13.048 0.973 -13.048 0.226 76.587
6089.917 0.227 76.509 0.972 -13.127 0.972 -13.127 0.227 76.509
6114.875 0.228 76.432 0.972 -13.207 0.972 -13.207 0.228 76.432
6139.833 0.23 76.355 0.972 -13.286 0.972 -13.286 0.23 76.355
6164.792 0.231 76.278 0.971 -13.366 0.971 -13.366 0.231 76.278
6189.75 0.233 76.201 0.971 -13.445 0.971 -13.445 0.233 76.201
6214.708 0.234 76.124 0.971 -13.523 0.971 -13.523 0.234 76.124
6239.667 0.235 76.048 0.971 -13.602 0.971 -13.602 0.235 76.048
6264.625 0.237 75.971 0.97 -13.681 0.97 -13.681 0.237 75.971
6289.583 0.238 75.895 0.97 -13.759 0.97 -13.759 0.238 75.895
6314.542 0.239 75.819 0.97 -13.837 0.97 -13.837 0.239 75.819
6339.5 0.24 75.743 0.969 -13.915 0.969 -13.915 0.24 75.743
6364.458 0.242 75.667 0.969 -13.993 0.969 -13.993 0.242 75.667
6389.417 0.243 75.591 0.969 -14.071 0.969 -14.071 0.243 75.591
6414.375 0.244 75.515 0.968 -14.149 0.968 -14.149 0.244 75.515
6439.333 0.246 75.44 0.968 -14.226 0.968 -14.226 0.246 75.44
6464.292 0.247 75.364 0.968 -14.304 0.968 -14.304 0.247 75.364
6489.25 0.248 75.289 0.967 -14.381 0.967 -14.381 0.248 75.289
6514.208 0.25 75.214 0.967 -14.458 0.967 -14.458 0.25 75.214
6539.167 0.251 75.138 0.967 -14.535 0.967 -14.535 0.251 75.138
6564.125 0.252 75.063 0.966 -14.612 0.966 -14.612 0.252 75.063
6589.083 0.254 74.989 0.966 -14.688 0.966 -14.688 0.254 74.989
6614.042 0.255 74.914 0.966 -14.765 0.966 -14.765 0.255 74.914
6639 0.256 74.839 0.965 -14.841 0.965 -14.841 0.256 74.839
6663.958 0.257 74.765 0.965 -14.917 0.965 -14.917 0.257 74.765
6688.917 0.259 74.69 0.965 -14.993 0.965 -14.993 0.259 74.69
6713.875 0.26 74.616 0.964 -15.069 0.964 -15.069 0.26 74.616
6738.833 0.261 74.542 0.964 -15.145 0.964 -15.145 0.261 74.542
6763.792 0.263 74.468 0.963 -15.221 0.963 -15.221 0.263 74.468
6788.75 0.264 74.394 0.963 -15.296 0.963 -15.296 0.264 74.394
6813.708 0.265 74.32 0.963 -15.372 0.963 -15.372 0.265 74.32
6838.667 0.266 74.247 0.962 -15.447 0.962 -15.447 0.266 74.247
6863.625 0.268 74.173 0.962 -15.522 0.962 -15.522 0.268 74.173
6888.583 0.269 74.1 0.962 -15.597 0.962 -15.597 0.269 74.1
6913.542 0.27 74.026 0.961 -15.672 0.961 -15.672 0.27 74.026
6938.5 0.271 73.953 0.961 -15.747 0.961 -15.747 0.271 73.953
6963.458 0.273 73.88 0.961 -15.821 0.961 -15.821 0.273 73.88
6988.417 0.274 73.807 0.96 -15.896 0.96 -15.896 0.274 73.807
7013.375 0.275 73.734 0.96 -15.97 0.96 -15.97 0.275 73.734
7038.333 0.276 73.661 0.96 -16.044 0.96 -16.044 0.276 73.661
7063.292 0.278 73.589 0.959 -16.118 0.959 -16.118 0.278 73.589
7088.25 0.279 73.516 0.959 -16.192 0.959 -16.192 0.279 73.516
7113.208 0.28 73.444 0.959 -16.266 0.959 -16.266 0.28 73.444
7138.167 0.281 73.371 0.958 -16.34 0.958 -16.34 0.281 73.371
7163.125 0.283 73.299 0.958 -16.413 0.958 -16.413 0.283 73.299
7188.083 0.284 73.227 0.957 -16.487 0.957 -16.487 0.284 73.227
7213.042 0.285 73.155 0.957 -16.56 0.957 -16.56 0.285 73.155
7238 0.286 73.083 0.957 -16.633 0.957 -16.633 0.286 73.083
7262.958 0.287 73.011 0.956 -16.706 0.956 -16.706 0.287 73.011
7287.917 0.289 72.94 0.956 -16.779 0.956 -16.779 0.289 72.94
7312.875 0.29 72.868 0.956 -16.852 0.956 -16.852 0.29 72.868
7337.833 0.291 72.797 0.955 -16.925 0.955 -16.925 0.291 72.797
7362.792 0.292 72.725 0.955 -16.998 0.955 -16.998 0.292 72.725
7387.75 0.294 72.654 0.955 -17.07 0.955 -17.07 0.294 72.654
7412.708 0.295 72.583 0.954 -17.142 0.954 -17.142 0.295 72.583
7437.667 0.296 72.512 0.954 -17.215 0.954 -17.215 0.296 72.512
7462.625 0.297 72.441 0.953 -17.287 0.953 -17.287 0.297 72.441
7487.583 0.298 72.37 0.953 -17.359 0.953 -17.359 0.298 72.37
7512.542 0.3 72.299 0.953 -17.431 0.953 -17.431 0.3 72.299
7537.5 0.301 72.229 0.952 -17.503 0.952 -17.503 0.301 72.229
7562.458 0.302 72.158 0.952 -17.574 0.952 -17.574 0.302 72.158
7587.417 0.303 72.088 0.952 -17.646 0.952 -17.646 0.303 72.088
7612.375 0.304 72.018 0.951 -17.717 0.951 -17.717 0.304 72.018
7637.333 0.306 71.947 0.951 -17.789 0.951 -17.789 0.306 71.947
7662.292 0.307 71.877 0.95 -17.86 0.95 -17.86 0.307 71.877
7687.25 0.308 71.807 0.95 -17.931 0.95 -17.931 0.308 71.807
7712.208 0.309 71.737 0.95 -18.002 0.95 -18.002 0.309 71.737
7737.167 0.31 71.668 0.949 -18.073 0.949 -18.073 0.31 71.668
7762.125 0.311 71.598 0.949 -18.144 0.949 -18.144 0.311 71.598
7787.083 0.313 71.528 0.948 -18.214 0.948 -18.214 0.313 71.528
7812.042 0.314 71.459 0.948 -18.285 0.948 -18.285 0.314 71.459
7837 0.315 71.389 0.948 -18.355 0.948 -18.355 0.315 71.389
7861.958 0.316 71.32 0.947 -18.426 0.947 -18.426 0.316 71.32
7886.917 0.317 71.251 0.947 -18.496 0.947 -18.496 0.317 71.251
7911.875 0.318 71.182 0.947 -18.566 0.947 -18.566 0.318 71.182
7936.833 0.32 71.113 0.946 -18.636 0.946 -18.636 0.32 71.113
7961.792 0.321 71.044 0.946 -18.706 0.946 -18.706 0.321 71.044
7986.75 0.322 70.975 0.945 -18.776 0.945 -18.776 0.322 70.975
8011.708 0.323 70.906 0.945 -18.846 0.945 -18.846 0.323 70.906
8036.667 0.324 70.838 0.945 -18.915 0.945 -18.915 0.324 70.838
8061.625 0.325 70.769 0.944 -18.985 0.944 -18.985 0.325 70.769
8086.583 0.326 70.701 0.944 -19.054 0.944 -19.054 0.326 70.701
8111.542 0.328 70.632 0.943 -19.123 0.943 -19.123 0.328 70.632
8136.5 0.329 70.564 0.943 -19.193 0.943 -19.193 0.329 70.564
8161.458 0.33 70.496 0.943 -19.262 0.943 -19.262 0.33 70.496
8186.417 0.331 70.428 0.942 -19.331 0.942 -19.331 0.331 70.428
