# MHZ S MA R 50

50 1 -0.63 0.011 89.368 0.011 89.368 1 -0.63
74.958 1 -0.944 0.016 89.052 0.016 89.052 1 -0.944
99.917 1 -1.259 0.022 88.736 0.022 88.736 1 -1.259
124.875 1 -1.573 0.027 88.421 0.027 88.421 1 -1.573
149.833 0.999 -1.888 0.033 88.105 0.033 88.105 0.999 -1.888
174.792 0.999 -2.202 0.038 87.79 0.038 87.79 0.999 -2.202
199.75 0.999 -2.516 0.044 87.474 0.044 87.474 0.999 -2.516
224.708 0.999 -2.831 0.049 87.159 0.049 87.159 0.999 -2.831
249.667 0.998 -3.145 0.055 86.843 0.055 86.843 0.998 -3.145
274.625 0.998 -3.459 0.06 86.528 0.06 86.528 0.998 -3.459
299.583 0.998 -3.773 0.066 86.213 0.066 86.213 0.998 -3.773
324.542 0.997 -4.087 0.071 85.898 0.071 85.898 0.997 -4.087
349.5 0.997 -4.401 0.077 85.583 0.077 85.583 0.997 -4.401
374.458 0.997 -4.714 0.082 85.268 0.082 85.268 0.997 -4.714
399.417 0.996 -5.028 0.088 84.953 0.088 84.953 0.996 -5.028
424.375 0.996 -5.342 0.093 84.638 0.093 84.638 0.996 -5.342
449.333 0.995 -5.655 0.099 84.323 0.099 84.323 0.995 -5.655
474.292 0.995 -5.969 0.104 84.009 0.104 84.009 0.995 -5.969
499.25 0.994 -6.282 0.109 83.694 0.109 83.694 0.994 -6.282
524.208 0.993 -6.595 0.115 83.38 0.115 83.38 0.993 -6.595
549.167 0.993 -6.908 0.12 83.066 0.12 83.066 0.993 -6.908
574.125 0.992 -7.221 0.126 82.752 0.126 82.752 0.992 -7.221
599.083 0.991 -7.533 0.131 82.438 0.131 82.438 0.991 -7.533
624.042 0.991 -7.846 0.137 82.124 0.137 82.124 0.991 -7.846
649 0.99 -8.158 0.142 81.811 0.142 81.811 0.99 -8.158
673.958 0.989 -8.47 0.147 81.497 0.147 81.497 0.989 -8.47
698.917 0.988 -8.782 0.153 81.184 0.153 81.184 0.988 -8.782
723.875 0.987 -9.094 0.158 80.871 0.158 80.871 0.987 -9.094
748.833 0.986 -9.406 0.163 80.558 0.163 80.558 0.986 -9.406
773.792 0.986 -9.717 0.169 80.246 0.169 80.246 0.986 -9.717
798.75 0.985 -10.029 0.174 79.933 0.174 79.933 0.985 -10.029
823.708 0.984 -10.34 0.179 79.621 0.179 79.621 0.984 -10.34
848.667 0.983 -10.65 0.185 79.309 0.185 79.309 0.983 -10.65
873.625 0.982 -10.961 0.19 78.997 0.19 78.997 0.982 -10.961
898.583 0.981 -11.271 0.195 78.685 0.195 78.685 0.981 -11.271
923.542 0.979 -11.582 0.201 78.374 0.201 78.374 0.979 -11.582
948.5 0.978 -11.892 0.206 78.063 0.206 78.063 0.978 -11.892
973.458 0.977 -12.201 0.211 77.752 0.211 77.752 0.977 -12.201
998.417 0.976 -12.511 0.217 77.441 0.217 77.441 0.976 -12.511
1023.375 0.975 -12.82 0.222 77.131 0.222 77.131 0.975 -12.82
1048.333 0.974 -13.129 0.227 76.821 0.227 76.821 0.974 -13.129
1073.292 0.972 -13.437 0.232 76.511 0.232 76.511 0.972 -13.437
1098.25 0.971 -13.746 0.238 76.201 0.238 76.201 0.971 -13.746
1123.208 0.97 -14.054 0.243 75.892 0.243 75.892 0.97 -14.054
1148.167 0.969 -14.362 0.248 75.583 0.248 75.583 0.969 -14.362
1173.125 0.967 -14.669 0.253 75.274 0.253 75.274 0.967 -14.669
1198.083 0.966 -14.977 0.258 74.965 0.258 74.965 0.966 -14.977
1223.042 0.964 -15.284 0.264 74.657 0.264 74.657 0.964 -15.284
1248 0.963 -15.59 0.269 74.349 0.269 74.349 0.963 -15.59
1272.958 0.961 -15.897 0.274 74.042 0.274 74.042 0.961 -15.897
1297.917 0.96 -16.203 0.279 73.734 0.279 73.734 0.96 -16.203
1322.875 0.958 -16.508 0.284 73.427 0.284 73.427 0.958 -16.508
1347.833 0.957 -16.814 0.289 73.121 0.289 73.121 0.957 -16.814
1372.792 0.955 -17.119 0.294 72.814 0.294 72.814 0.955 -17.119
1397.75 0.954 -17.424 0.299 72.508 0.299 72.508 0.954 -17.424
1422.708 0.952 -17.728 0.304 72.203 0.304 72.203 0.952 -17.728
1447.667 0.951 -18.032 0.31 71.897 0.31 71.897 0.951 -18.032
1472.625 0.949 -18.336 0.315 71.593 0.315 71.593 0.949 -18.336
1497.583 0.947 -18.639 0.32 71.288 0.32 71.288 0.947 -18.639
1522.542 0.945 -18.942 0.325 70.984 0.325 70.984 0.945 -18.942
1547.5 0.944 -19.245 0.33 70.68 0.33 70.68 0.944 -19.245
1572.458 0.942 -19.547 0.335 70.376 0.335 70.376 0.942 -19.547
1597.417 0.94 -19.849 0.34 70.073 0.34 70.073 0.94 -19.849
1622.375 0.938 -20.15 0.344 69.77 0.344 69.77 0.938 -20.15
1647.333 0.936 -20.451 0.349 69.468 0.349 69.468 0.936 -20.451
1672.292 0.935 -20.752 0.354 69.166 0.354 69.166 0.935 -20.752
1697.25 0.933 -21.052 0.359 68.864 0.359 68.864 0.933 -21.052
1722.208 0.931 -21.352 0.364 68.563 0.364 68.563 0.931 -21.352
1747.167 0.929 -21.652 0.369 68.262 0.369 68.262 0.929 -21.652
1772.125 0.927 -21.951 0.374 67.962 0.374 67.962 0.927 -21.951
1797.083 0.925 -22.249 0.379 67.662 0.379 67.662 0.925 -22.249
1822.042 0.923 -22.548 0.383 67.362 0.383 67.362 0.923 -22.548
1847 0.921 -22.845 0.388 67.063 0.388 67.063 0.921 -22.845
1871.958 0.919 -23.143 0.393 66.765 0.393 66.765 0.919 -23.143
1896.917 0.917 -23.44 0.398 66.466 0.398 66.466 0.917 -23.44
1921.875 0.915 -23.736 0.403 66.168 0.403 66.168 0.915 -23.736
1946.833 0.913 -24.032 0.407 65.871 0.407 65.871 0.913 -24.032
1971.792 0.91 -24.328 0.412 65.574 0.412 65.574 0.91 -24.328
1996.75 0.908 -24.623 0.417 65.277 0.417 65.277 0.908 -24.623
2021.708 0.906 -24.918 0.421 64.981 0.421 64.981 0.906 -24.918
2046.667 0.904 -25.212 0.426 64.686 0.426 64.686 0.904 -25.212
2071.625 0.902 -25.506 0.431 64.39 0.431 64.39 0.902 -25.506
2096.583 0.9 -25.799 0.435 64.096 0.435 64.096 0.9 -25.799
2121.542 0.897 -26.092 0.44 63.801 0.44 63.801 0.897 -26.092
2146.5 0.895 -26.385 0.444 63.508 0.444 63.508 0.895 -26.385
2171.458 0.893 -26.677 0.449 63.214 0.449 63.214 0.893 -26.677
2196.417 0.89 -26.968 0.453 62.921 0.453 62.921 0.89 -26.968
2221.375 0.888 -27.259 0.458 62.629 0.458 62.629 0.888 -27.259
2246.333 0.886 -27.55 0.463 62.337 0.463 62.337 0.886 -27.55
2271.292 0.883 -27.84 0.467 62.046 0.467 62.046 0.883 -27.84
2296.25 0.881 -28.129 0.471 61.755 0.471 61.755 0.881 -28.129
2321.208 0.879 -28.418 0.476 61.464 0.476 61.464 0.879 -28.418
2346.167 0.876 -28.707 0.48 61.174 0.48 61.174 0.876 -28.707
2371.125 0.874 -28.995 0.485 60.885 0.485 60.885 0.874 -28.995
2396.083 0.871 -29.283 0.489 60.596 0.489 60.596 0.871 -29.283
2421.042 0.869 -29.57 0.493 60.307 0.493 60.307 0.869 -29.57
2446 0.866 -29.856 0.498 60.019 0.498 60.019 0.866 -29.856
2470.958 0.864 -30.142 0.502 59.732 0.502 59.732 0.864 -30.142
2495.917 0.861 -30.428 0.506 59.445 0.506 59.445 0.861 -30.428
2520.875 0.859 -30.712 0.511 59.159 0.511 59.159 0.859 -30.712
2545.833 0.856 -30.997 0.515 58.873 0.515 58.873 0.856 -30.997
2570.792 0.853 -31.281 0.519 58.587 0.519 58.587 0.853 -31.281
2595.75 0.851 -31.564 0.523 58.302 0.523 58.302 0.851 -31.564
2620.708 0.848 -31.847 0.528 58.018 0.528 58.018 0.848 -31.847
2645.667 0.846 -32.129 0.532 57.734 0.532 57.734 0.846 -32.129
2670.625 0.843 -32.411 0.536 57.451 0.536 57.451 0.843 -32.411
2695.583 0.84 -32.692 0.54 57.168 0.54 57.168 0.84 -32.692
2720.542 0.838 -32.973 0.544 56.886 0.544 56.886 0.838 -32.973
2745.5 0.835 -33.253 0.548 56.605 0.548 56.605 0.835 -33.253
2770.458 0.832 -33.533 0.552 56.323 0.552 56.323 0.832 -33.533
2795.417 0.829 -33.812 0.556 56.043 0.556 56.043 0.829 -33.812
2820.375 0.827 -34.09 0.561 55.763 0.561 55.763 0.827 -34.09
2845.333 0.824 -34.368 0.565 55.483 0.565 55.483 0.824 -34.368
2870.292 0.821 -34.646 0.569 55.204 0.569 55.204 0.821 -34.646
2895.25 0.818 -34.922 0.572 54.926 0.572 54.926 0.818 -34.922
2920.208 0.816 -35.199 0.576 54.648 0.576 54.648 0.816 -35.199
2945.167 0.813 -35.474 0.58 54.371 0.58 54.371 0.813 -35.474
2970.125 0.81 -35.749 0.584 54.094 0.584 54.094 0.81 -35.749
2995.083 0.807 -36.024 0.588 53.818 0.588 53.818 0.807 -36.024
3020.042 0.804 -36.298 0.592 53.543 0.592 53.543 0.804 -36.298
3045 0.801 -36.571 0.596 53.268 0.596 53.268 0.801 -36.571
3069.958 0.799 -36.844 0.6 52.993 0.6 52.993 0.799 -36.844
3094.917 0.796 -37.116 0.603 52.719 0.603 52.719 0.796 -37.116
3119.875 0.793 -37.388 0.607 52.446 0.607 52.446 0.793 -37.388
3144.833 0.79 -37.659 0.611 52.173 0.611 52.173 0.79 -37.659
3169.792 0.787 -37.93 0.615 51.901 0.615 51.901 0.787 -37.93
3194.75 0.784 -38.2 0.618 51.629 0.618 51.629 0.784 -38.2
3219.708 0.781 -38.469 0.622 51.358 0.622 51.358 0.781 -38.469
3244.667 0.778 -38.738 0.626 51.088 0.626 51.088 0.778 -38.738
3269.625 0.775 -39.006 0.629 50.818 0.629 50.818 0.775 -39.006
3294.583 0.772 -39.274 0.633 50.549 0.633 50.549 0.772 -39.274
3319.542 0.769 -39.541 0.637 50.28 0.637 50.28 0.769 -39.541
3344.5 0.766 -39.807 0.64 50.012 0.64 50.012 0.766 -39.807
3369.458 0.763 -40.073 0.644 49.745 0.644 49.745 0.763 -40.073
3394.417 0.76 -40.338 0.647 49.478 0.647 49.478 0.76 -40.338
3419.375 0.757 -40.603 0.651 49.211 0.651 49.211 0.757 -40.603
3444.333 0.754 -40.867 0.654 48.945 0.654 48.945 0.754 -40.867
3469.292 0.751 -41.13 0.658 48.68 0.658 48.68 0.751 -41.13
3494.25 0.748 -41.393 0.661 48.416 0.661 48.416 0.748 -41.393
3519.208 0.745 -41.655 0.665 48.152 0.665 48.152 0.745 -41.655
3544.167 0.742 -41.917 0.668 47.888 0.668 47.888 0.742 -41.917
3569.125 0.739 -42.178 0.671 47.625 0.671 47.625 0.739 -42.178
3594.083 0.736 -42.438 0.675 47.363 0.675 47.363 0.736 -42.438
3619.042 0.733 -42.698 0.678 47.102 0.678 47.102 0.733 -42.698
3644 0.729 -42.957 0.681 46.841 0.681 46.841 0.729 -42.957
3668.958 0.726 -43.216 0.685 46.58 0.685 46.58 0.726 -43.216
3693.917 0.723 -43.474 0.688 46.32 0.688 46.32 0.723 -43.474
3718.875 0.72 -43.731 0.691 46.061 0.691 46.061 0.72 -43.731
3743.833 0.717 -43.988 0.695 45.803 0.695 45.803 0.717 -43.988
3768.792 0.714 -44.244 0.698 45.544 0.698 45.544 0.714 -44.244
3793.75 0.711 -44.499 0.701 45.287 0.701 45.287 0.711 -44.499
3818.708 0.707 -44.754 0.704 45.03 0.704 45.03 0.707 -44.754
3843.667 0.704 -45.008 0.707 44.774 0.707 44.774 0.704 -45.008
3868.625 0.701 -45.262 0.71 44.518 0.71 44.518 0.701 -45.262
3893.583 0.698 -45.515 0.713 44.263 0.713 44.263 0.698 -45.515
3918.542 0.695 -45.768 0.717 44.009 0.717 44.009 0.695 -45.768
3943.5 0.692 -46.02 0.72 43.755 0.72 43.755 0.692 -46.02
3968.458 0.688 -46.271 0.723 43.502 0.723 43.502 0.688 -46.271
3993.417 0.685 -46.521 0.726 43.249 0.726 43.249 0.685 -46.521
4018.375 0.682 -46.771 0.729 42.997 0.729 42.997 0.682 -46.771
4043.333 0.679 -47.021 0.732 42.746 0.732 42.746 0.679 -47.021
4068.292 0.676 -47.269 0.735 42.495 0.735 42.495 0.676 -47.269
4093.25 0.672 -47.518 0.737 42.245 0.737 42.245 0.672 -47.518
4118.208 0.669 -47.765 0.74 41.995 0.74 41.995 0.669 -47.765
4143.167 0.666 -48.012 0.743 41.746 0.743 41.746 0.666 -48.012
4168.125 0.663 -48.258 0.746 41.498 0.746 41.498 0.663 -48.258
4193.083 0.659 -48.504 0.749 41.25 0.749 41.25 0.659 -48.504
4218.042 0.656 -48.749 0.752 41.003 0.752 41.003 0.656 -48.749
4243 0.653 -48.993 0.755 40.756 0.755 40.756 0.653 -48.993
4267.958 0.65 -49.237 0.757 40.51 0.757 40.51 0.65 -49.237
4292.917 0.646 -49.48 0.76 40.265 0.76 40.265 0.646 -49.48
4317.875 0.643 -49.723 0.763 40.02 0.763 40.02 0.643 -49.723
4342.833 0.64 -49.965 0.766 39.776 0.766 39.776 0.64 -49.965
4367.792 0.637 -50.206 0.768 39.532 0.768 39.532 0.637 -50.206
4392.75 0.633 -50.447 0.771 39.289 0.771 39.289 0.633 -50.447
4417.708 0.63 -50.687 0.774 39.047 0.774 39.047 0.63 -50.687
4442.667 0.627 -50.926 0.776 38.805 0.776 38.805 0.627 -50.926
4467.625 0.623 -51.165 0.779 38.564 0.779 38.564 0.623 -51.165
4492.583 0.62 -51.403 0.782 38.324 0.782 38.324 0.62 -51.403
4517.542 0.617 -51.641 0.784 38.084 0.784 38.084 0.617 -51.641
4542.5 0.614 -51.878 0.787 37.844 0.787 37.844 0.614 -51.878
4567.458 0.61 -52.114 0.789 37.606 0.789 37.606 0.61 -52.114
4592.417 0.607 -52.35 0.792 37.367 0.792 37.367 0.607 -52.35
4617.375 0.604 -52.585 0.794 37.13 0.794 37.13 0.604 -52.585
4642.333 0.6 -52.819 0.797 36.893 0.797 36.893 0.6 -52.819
4667.292 0.597 -53.053 0.799 36.657 0.799 36.657 0.597 -53.053
4692.25 0.594 -53.287 0.802 36.421 0.802 36.421 0.594 -53.287
4717.208 0.59 -53.519 0.804 36.186 0.804 36.186 0.59 -53.519
4742.167 0.587 -53.751 0.806 35.951 0.806 35.951 0.587 -53.751
4767.125 0.584 -53.983 0.809 35.717 0.809 35.717 0.584 -53.983
4792.083 0.58 -54.213 0.811 35.484 0.811 35.484 0.58 -54.213
4817.042 0.577 -54.443 0.814 35.251 0.814 35.251 0.577 -54.443
4842 0.574 -54.673 0.816 35.019 0.816 35.019 0.574 -54.673
4866.958 0.571 -54.902 0.818 34.788 0.818 34.788 0.571 -54.902
4891.917 0.567 -55.13 0.82 34.557 0.82 34.557 0.567 -55.13
4916.875 0.564 -55.358 0.823 34.326 0.823 34.326 0.564 -55.358
4941.833 0.561 -55.585 0.825 34.096 0.825 34.096 0.561 -55.585
4966.792 0.557 -55.811 0.827 33.867 0.827 33.867 0.557 -55.811
4991.75 0.554 -56.037 0.829 33.639 0.829 33.639 0.554 -56.037
5016.708 0.551 -56.262 0.832 33.411 0.832 33.411 0.551 -56.262
5041.667 0.547 -56.487 0.834 33.183 0.834 33.183 0.547 -56.487
5066.625 0.544 -56.711 0.836 32.956 0.836 32.956 0.544 -56.711
5091.583 0.541 -56.934 0.838 32.73 0.838 32.73 0.541 -56.934
5116.542 0.537 -57.157 0.84 32.505 0.84 32.505 0.537 -57.157
5141.5 0.534 -57.379 0.842 32.28 0.842 32.28 0.534 -57.379
5166.458 0.531 -57.6 0.844 32.055 0.844 32.055 0.531 -57.6
5191.417 0.527 -57.821 0.846 31.831 0.846 31.831 0.527 -57.821
5216.375 0.524 -58.041 0.848 31.608 0.848 31.608 0.524 -58.041
5241.333 0.521 -58.261 0.85 31.385 0.85 31.385 0.521 -58.261
5266.292 0.517 -58.48 0.852 31.163 0.852 31.163 0.517 -58.48
5291.25 0.514 -58.698 0.854 30.942 0.854 30.942 0.514 -58.698
5316.208 0.511 -58.916 0.856 30.721 0.856 30.721 0.511 -58.916
5341.167 0.508 -59.133 0.858 30.5 0.858 30.5 0.508 -59.133
5366.125 0.504 -59.35 0.86 30.28 0.86 30.28 0.504 -59.35
5391.083 0.501 -59.566 0.862 30.061 0.862 30.061 0.501 -59.566
5416.042 0.498 -59.781 0.864 29.843 0.864 29.843 0.498 -59.781
5441 0.494 -59.996 0.866 29.625 0.866 29.625 0.494 -59.996
5465.958 0.491 -60.21 0.868 29.407 0.868 29.407 0.491 -60.21
5490.917 0.488 -60.424 0.87 29.19 0.87 29.19 0.488 -60.424
5515.875 0.484 -60.636 0.872 28.974 0.872 28.974 0.484 -60.636
5540.833 0.481 -60.849 0.873 28.758 0.873 28.758 0.481 -60.849
5565.792 0.478 -61.06 0.875 28.543 0.875 28.543 0.478 -61.06
5590.75 0.475 -61.271 0.877 28.328 0.877 28.328 0.475 -61.271
5615.708 0.471 -61.482 0.879 28.114 0.879 28.114 0.471 -61.482
5640.667 0.468 -61.692 0.88 27.901 0.88 27.901 0.468 -61.692
5665.625 0.465 -61.901 0.882 27.688 0.882 27.688 0.465 -61.901
5690.583 0.461 -62.11 0.884 27.475 0.884 27.475 0.461 -62.11
5715.542 0.458 -62.318 0.886 27.264 0.886 27.264 0.458 -62.318
5740.5 0.455 -62.525 0.887 27.052 0.887 27.052 0.455 -62.525
5765.458 0.452 -62.732 0.889 26.842 0.889 26.842 0.452 -62.732
5790.417 0.448 -62.938 0.891 26.632 0.891 26.632 0.448 -62.938
5815.375 0.445 -63.144 0.892 26.422 0.892 26.422 0.445 -63.144
5840.333 0.442 -63.349 0.894 26.213 0.894 26.213 0.442 -63.349
5865.292 0.438 -63.553 0.895 26.005 0.895 26.005 0.438 -63.553
5890.25 0.435 -63.757 0.897 25.797 0.897 25.797 0.435 -63.757
5915.208 0.432 -63.96 0.899 25.59 0.899 25.59 0.432 -63.96
5940.167 0.429 -64.162 0.9 25.383 0.9 25.383 0.429 -64.162
5965.125 0.425 -64.364 0.902 25.177 0.902 25.177 0.425 -64.364
5990.083 0.422 -64.566 0.903 24.971 0.903 24.971 0.422 -64.566
6015.042 0.419 -64.766 0.905 24.766 0.905 24.766 0.419 -64.766
6040 0.416 -64.967 0.906 24.561 0.906 24.561 0.416 -64.967
6064.958 0.412 -65.166 0.908 24.357 0.908 24.357 0.412 -65.166
6089.917 0.409 -65.365 0.909 24.154 0.909 24.154 0.409 -65.365
6114.875 0.406 -65.563 0.91 23.951 0.91 23.951 0.406 -65.563
6139.833 0.403 -65.761 0.912 23.748 0.912 23.748 0.403 -65.761
6164.792 0.4 -65.958 0.913 23.547 0.913 23.547 0.4 -65.958
6189.75 0.396 -66.155 0.915 23.345 0.915 23.345 0.396 -66.155
6214.708 0.393 -66.35 0.916 23.145 0.916 23.145 0.393 -66.35
6239.667 0.39 -66.546 0.917 22.944 0.917 22.944 0.39 -66.546
6264.625 0.387 -66.74 0.919 22.745 0.919 22.745 0.387 -66.74
6289.583 0.383 -66.934 0.92 22.546 0.92 22.546 0.383 -66.934
6314.542 0.38 -67.128 0.921 22.347 0.921 22.347 0.38 -67.128
6339.5 0.377 -67.321 0.923 22.149 0.923 22.149 0.377 -67.321
6364.458 0.374 -67.513 0.924 21.951 0.924 21.951 0.374 -67.513
6389.417 0.371 -67.705 0.925 21.754 0.925 21.754 0.371 -67.705
6414.375 0.367 -67.896 0.927 21.558 0.927 21.558 0.367 -67.896
6439.333 0.364 -68.086 0.928 21.362 0.928 21.362 0.364 -68.086
6464.292 0.361 -68.276 0.929 21.167 0.929 21.167 0.361 -68.276
6489.25 0.358 -68.465 0.93 20.972 0.93 20.972 0.358 -68.465
6514.208 0.355 -68.654 0.931 20.777 0.931 20.777 0.355 -68.654
6539.167 0.352 -68.842 0.933 20.584 0.933 20.584 0.352 -68.842
6564.125 0.348 -69.029 0.934 20.39 0.934 20.39 0.348 -69.029
6589.083 0.345 -69.216 0.935 20.198 0.935 20.198 0.345 -69.216
6614.042 0.342 -69.402 0.936 20.005 0.936 20.005 0.342 -69.402
6639 0.339 -69.587 0.937 19.814 0.937 19.814 0.339 -69.587
6663.958 0.336 -69.772 0.938 19.622 0.938 19.622 0.336 -69.772
6688.917 0.333 -69.957 0.939 19.432 0.939 19.432 0.333 -69.957
6713.875 0.33 -70.14 0.941 19.241 0.941 19.241 0.33 -70.14
6738.833 0.326 -70.323 0.942 19.052 0.942 19.052 0.326 -70.323
6763.792 0.323 -70.506 0.943 18.863 0.943 18.863 0.323 -70.506
6788.75 0.32 -70.688 0.944 18.674 0.944 18.674 0.32 -70.688
6813.708 0.317 -70.869 0.945 18.486 0.945 18.486 0.317 -70.869
6838.667 0.314 -71.049 0.946 18.298 0.946 18.298 0.314 -71.049
6863.625 0.311 -71.229 0.947 18.111 0.947 18.111 0.311 -71.229
6888.583 0.308 -71.409 0.948 17.924 0.948 17.924 0.308 -71.409
6913.542 0.305 -71.587 0.949 17.738 0.949 17.738 0.305 -71.587
6938.5 0.302 -71.765 0.95 17.552 0.95 17.552 0.302 -71.765
6963.458 0.299 -71.943 0.951 17.367 0.951 17.367 0.299 -71.943
6988.417 0.295 -72.119 0.952 17.183 0.952 17.183 0.295 -72.119
7013.375 0.292 -72.296 0.953 16.999 0.953 16.999 0.292 -72.296
7038.333 0.289 -72.471 0.954 16.815 0.954 16.815 0.289 -72.471
7063.292 0.286 -72.646 0.955 16.632 0.955 16.632 0.286 -72.646
7088.25 0.283 -72.82 0.955 16.449 0.955 16.449 0.283 -72.82
7113.208 0.28 -72.993 0.956 16.267 0.956 16.267 0.28 -72.993
7138.167 0.277 -73.166 0.957 16.085 0.957 16.085 0.277 -73.166
7163.125 0.274 -73.339 0.958 15.904 0.958 15.904 0.274 -73.339
7188.083 0.271 -73.51 0.959 15.723 0.959 15.723 0.271 -73.51
7213.042 0.268 -73.681 0.96 15.543 0.96 15.543 0.268 -73.681
7238 0.265 -73.851 0.961 15.363 0.961 15.363 0.265 -73.851
7262.958 0.262 -74.021 0.961 15.184 0.961 15.184 0.262 -74.021
7287.917 0.259 -74.189 0.962 15.006 0.962 15.006 0.259 -74.189
7312.875 0.256 -74.358 0.963 14.827 0.963 14.827 0.256 -74.358
7337.833 0.253 -74.525 0.964 14.649 0.964 14.649 0.253 -74.525
7362.792 0.25 -74.692 0.965 14.472 0.965 14.472 0.25 -74.692
7387.75 0.247 -74.858 0.965 14.295 0.965 14.295 0.247 -74.858
7412.708 0.244 -75.023 0.966 14.119 0.966 14.119 0.244 -75.023
7437.667 0.241 -75.188 0.967 13.943 0.967 13.943 0.241 -75.188
7462.625 0.238 -75.352 0.968 13.768 0.968 13.768 0.238 -75.352
7487.583 0.235 -75.515 0.968 13.593 0.968 13.593 0.235 -75.515
7512.542 0.232 -75.677 0.969 13.418 0.969 13.418 0.232 -75.677
7537.5 0.229 -75.839 0.97 13.244 0.97 13.244 0.229 -75.839
7562.458 0.226 -76 0.97 13.071 0.97 13.071 0.226 -76
7587.417 0.223 -76.16 0.971 12.898 0.971 12.898 0.223 -76.16
7612.375 0.22 -76.319 0.972 12.725 0.972 12.725 0.22 -76.319
7637.333 0.217 -76.478 0.972 12.553 0.972 12.553 0.217 -76.478
7662.292 0.214 -76.636 0.973 12.381 0.973 12.381 0.214 -76.636
7687.25 0.212 -76.793 0.974 12.21 0.974 12.21 0.212 -76.793
7712.208 0.209 -76.949 0.974 12.039 0.974 12.039 0.209 -76.949
7737.167 0.206 -77.104 0.975 11.869 0.975 11.869 0.206 -77.104
7762.125 0.203 -77.259 0.976 11.699 0.976 11.699 0.203 -77.259
7787.083 0.2 -77.412 0.976 11.53 0.976 11.53 0.2 -77.412
7812.042 0.197 -77.565 0.977 11.361 0.977 11.361 0.197 -77.565
7837 0.194 -77.717 0.977 11.192 0.977 11.192 0.194 -77.717
7861.958 0.191 -77.868 0.978 11.024 0.978 11.024 0.191 -77.868
7886.917 0.188 -78.018 0.978 10.857 0.978 10.857 0.188 -78.018
7911.875 0.186 -78.167 0.979 10.689 0.979 10.689 0.186 -78.167
7936.833 0.183 -78.316 0.979 10.523 0.979 10.523 0.183 -78.316
7961.792 0.18 -78.463 0.98 10.357 0.98 10.357 0.18 -78.463
7986.75 0.177 -78.609 0.981 10.191 0.981 10.191 0.177 -78.609
8011.708 0.174 -78.754 0.981 10.025 0.981 10.025 0.174 -78.754
8036.667 0.171 -78.898 0.982 9.86 0.982 9.86 0.171 -78.898
8061.625 0.168 -79.041 0.982 9.696 0.982 9.696 0.168 -79.041
8086.583 0.166 -79.183 0.982 9.532 0.982 9.532 0.166 -79.183
8111.542 0.163 -79.324 0.983 9.368 0.983 9.368 0.163 -79.324
8136.5 0.16 -79.463 0.983 9.205 0.983 9.205 0.16 -79.463
