# MHZ S MA R 50

50 0.997 -4.134 0.072 85.859 0.072 85.859 0.997 -4.134
74.958 0.994 -6.185 0.108 83.804 0.108 83.804 0.994 -6.185
99.917 0.99 -8.222 0.143 81.764 0.143 81.764 0.99 -8.222
124.875 0.984 -10.24 0.178 79.742 0.178 79.742 0.984 -10.24
149.833 0.977 -12.236 0.212 77.743 0.212 77.743 0.977 -12.236
174.792 0.969 -14.204 0.245 75.77 0.245 75.77 0.969 -14.204
199.75 0.96 -16.143 0.278 73.828 0.278 73.828 0.96 -16.143
224.708 0.951 -18.048 0.31 71.919 0.31 71.919 0.951 -18.048
249.667 0.94 -19.917 0.341 70.046 0.341 70.046 0.94 -19.917
274.625 0.929 -21.748 0.371 68.212 0.371 68.212 0.929 -21.748
299.583 0.916 -23.537 0.399 66.419 0.399 66.419 0.916 -23.537
324.542 0.904 -25.285 0.427 64.667 0.427 64.667 0.904 -25.285
349.5 0.891 -26.99 0.454 62.959 0.454 62.959 0.891 -26.99
374.458 0.877 -28.65 0.479 61.296 0.479 61.296 0.877 -28.65
399.417 0.863 -30.265 0.504 59.677 0.504 59.677 0.863 -30.265
424.375 0.849 -31.835 0.527 58.103 0.527 58.103 0.849 -31.835
449.333 0.835 -33.359 0.55 56.574 0.55 56.574 0.835 -33.359
474.292 0.82 -34.839 0.571 55.091 0.571 55.091 0.82 -34.839
499.25 0.805 -36.275 0.592 53.652 0.592 53.652 0.805 -36.275
524.208 0.791 -37.666 0.611 52.257 0.611 52.257 0.791 -37.666
549.167 0.776 -39.014 0.63 50.905 0.63 50.905 0.776 -39.014
574.125 0.761 -40.32 0.647 49.595 0.647 49.595 0.761 -40.32
599.083 0.747 -41.584 0.664 48.327 0.664 48.327 0.747 -41.584
624.042 0.733 -42.808 0.68 47.099 0.68 47.099 0.733 -42.808
649 0.718 -43.993 0.695 45.91 0.695 45.91 0.718 -43.993
673.958 0.704 -45.14 0.709 44.759 0.709 44.759 0.704 -45.14
698.917 0.69 -46.25 0.722 43.645 0.722 43.645 0.69 -46.25
723.875 0.676 -47.324 0.735 42.567 0.735 42.567 0.676 -47.324
748.833 0.663 -48.364 0.747 41.523 0.747 41.523 0.663 -48.364
773.792 0.65 -49.37 0.759 40.513 0.759 40.513 0.65 -49.37
798.75 0.637 -50.345 0.77 39.534 0.77 39.534 0.637 -50.345
823.708 0.624 -51.288 0.78 38.586 0.78 38.586 0.624 -51.288
848.667 0.611 -52.202 0.79 37.668 0.79 37.668 0.611 -52.202
873.625 0.599 -53.087 0.8 36.779 0.8 36.779 0.599 -53.087
898.583 0.587 -53.945 0.808 35.917 0.808 35.917 0.587 -53.945
923.542 0.575 -54.777 0.817 35.081 0.817 35.081 0.575 -54.777
948.5 0.563 -55.583 0.825 34.27 0.825 34.27 0.563 -55.583
973.458 0.552 -56.364 0.833 33.484 0.833 33.484 0.552 -56.364
998.417 0.541 -57.123 0.84 32.721 0.84 32.721 0.541 -57.123
1023.375 0.53 -57.859 0.847 31.981 0.847 31.981 0.53 -57.859
1048.333 0.519 -58.573 0.853 31.262 0.853 31.262 0.519 -58.573
1073.292 0.509 -59.266 0.86 30.564 0.86 30.564 0.509 -59.266
1098.25 0.498 -59.94 0.866 29.886 0.866 29.886 0.498 -59.94
1123.208 0.488 -60.595 0.871 29.226 0.871 29.226 0.488 -60.595
1148.167 0.478 -61.231 0.877 28.585 0.877 28.585 0.478 -61.231
1173.125 0.469 -61.85 0.882 27.961 0.882 27.961 0.469 -61.85
1198.083 0.459 -62.452 0.887 27.355 0.887 27.355 0.459 -62.452
1223.042 0.45 -63.038 0.891 26.764 0.891 26.764 0.45 -63.038
1248 0.441 -63.608 0.896 26.189 0.896 26.189 0.441 -63.608
1272.958 0.433 -64.163 0.9 25.629 0.9 25.629 0.433 -64.163
1297.917 0.424 -64.703 0.904 25.083 0.904 25.083 0.424 -64.703
1322.875 0.415 -65.23 0.908 24.55 0.908 24.55 0.415 -65.23
1347.833 0.407 -65.744 0.912 24.031 0.912 24.031 0.407 -65.744
1372.792 0.399 -66.245 0.915 23.525 0.915 23.525 0.399 -66.245
1397.75 0.391 -66.733 0.919 23.031 0.919 23.031 0.391 -66.733
1422.708 0.383 -67.21 0.922 22.549 0.922 22.549 0.383 -67.21
1447.667 0.376 -67.675 0.925 22.078 0.925 22.078 0.376 -67.675
1472.625 0.368 -68.129 0.928 21.618 0.928 21.618 0.368 -68.129
1497.583 0.361 -68.573 0.931 21.168 0.931 21.168 0.361 -68.573
1522.542 0.354 -69.007 0.934 20.729 0.934 20.729 0.354 -69.007
1547.5 0.347 -69.43 0.936 20.299 0.936 20.299 0.347 -69.43
1572.458 0.34 -69.844 0.939 19.879 0.939 19.879 0.34 -69.844
1597.417 0.333 -70.249 0.941 19.467 0.941 19.467 0.333 -70.249
1622.375 0.327 -70.646 0.943 19.065 0.943 19.065 0.327 -70.646
1647.333 0.32 -71.033 0.946 18.67 0.946 18.67 0.32 -71.033
1672.292 0.314 -71.413 0.948 18.284 0.948 18.284 0.314 -71.413
1697.25 0.307 -71.784 0.95 17.906 0.95 17.906 0.307 -71.784
1722.208 0.301 -72.148 0.952 17.535 0.952 17.535 0.301 -72.148
1747.167 0.295 -72.504 0.954 17.172 0.954 17.172 0.295 -72.504
1772.125 0.289 -72.853 0.956 16.815 0.956 16.815 0.289 -72.853
1797.083 0.283 -73.196 0.957 16.466 0.957 16.466 0.283 -73.196
1822.042 0.278 -73.531 0.959 16.123 0.959 16.123 0.278 -73.531
1847 0.272 -73.86 0.961 15.786 0.961 15.786 0.272 -73.86
1871.958 0.266 -74.182 0.962 15.455 0.962 15.455 0.266 -74.182
1896.917 0.261 -74.499 0.964 15.131 0.964 15.131 0.261 -74.499
1921.875 0.256 -74.809 0.965 14.812 0.965 14.812 0.256 -74.809
1946.833 0.25 -75.114 0.966 14.499 0.966 14.499 0.25 -75.114
1971.792 0.245 -75.413 0.968 14.191 0.968 14.191 0.245 -75.413
1996.75 0.24 -75.707 0.969 13.888 0.969 13.888 0.24 -75.707
2021.708 0.235 -75.995 0.97 13.591 0.97 13.591 0.235 -75.995
2046.667 0.23 -76.278 0.971 13.298 0.971 13.298 0.23 -76.278
2071.625 0.225 -76.557 0.973 13.01 0.973 13.01 0.225 -76.557
2096.583 0.22 -76.83 0.974 12.727 0.974 12.727 0.22 -76.83
2121.542 0.216 -77.099 0.975 12.448 0.975 12.448 0.216 -77.099
2146.5 0.211 -77.363 0.976 12.173 0.976 12.173 0.211 -77.363
2171.458 0.206 -77.622 0.977 11.903 0.977 11.903 0.206 -77.622
2196.417 0.202 -77.877 0.978 11.637 0.978 11.637 0.202 -77.877
2221.375 0.197 -78.128 0.979 11.375 0.979 11.375 0.197 -78.128
2246.333 0.193 -78.374 0.98 11.116 0.98 11.116 0.193 -78.374
2271.292 0.188 -78.617 0.98 10.861 0.98 10.861 0.188 -78.617
2296.25 0.184 -78.855 0.981 10.61 0.981 10.61 0.184 -78.855
2321.208 0.18 -79.09 0.982 10.363 0.982 10.363 0.18 -79.09
2346.167 0.176 -79.32 0.983 10.119 0.983 10.119 0.176 -79.32
2371.125 0.172 -79.547 0.983 9.878 0.983 9.878 0.172 -79.547
2396.083 0.167 -79.77 0.984 9.64 0.984 9.64 0.167 -79.77
2421.042 0.163 -79.99 0.985 9.406 0.985 9.406 0.163 -79.99
2446 0.159 -80.205 0.985 9.175 0.985 9.175 0.159 -80.205
2470.958 0.156 -80.418 0.986 8.947 0.986 8.947 0.156 -80.418
2495.917 0.152 -80.626 0.987 8.721 0.987 8.721 0.152 -80.626
2520.875 0.148 -80.831 0.987 8.499 0.987 8.499 0.148 -80.831
2545.833 0.144 -81.033 0.988 8.279 0.988 8.279 0.144 -81.033
2570.792 0.14 -81.232 0.988 8.062 0.988 8.062 0.14 -81.232
2595.75 0.137 -81.427 0.989 7.847 0.989 7.847 0.137 -81.427
2620.708 0.133 -81.618 0.989 7.635 0.989 7.635 0.133 -81.618
2645.667 0.129 -81.806 0.99 7.426 0.99 7.426 0.129 -81.806
2670.625 0.126 -81.991 0.99 7.219 0.99 7.219 0.126 -81.991
2695.583 0.122 -82.172 0.991 7.014 0.991 7.014 0.122 -82.172
2720.542 0.119 -82.35 0.991 6.811 0.991 6.811 0.119 -82.35
2745.5 0.115 -82.525 0.992 6.611 0.992 6.611 0.115 -82.525
2770.458 0.112 -82.696 0.992 6.413 0.992 6.413 0.112 -82.696
2795.417 0.108 -82.864 0.992 6.218 0.992 6.218 0.108 -82.864
2820.375 0.105 -83.028 0.993 6.024 0.993 6.024 0.105 -83.028
2845.333 0.102 -83.188 0.993 5.832 0.993 5.832 0.102 -83.188
2870.292 0.098 -83.344 0.993 5.642 0.993 5.642 0.098 -83.344
2895.25 0.095 -83.497 0.994 5.455 0.994 5.455 0.095 -83.497
2920.208 0.092 -83.646 0.994 5.269 0.994 5.269 0.092 -83.646
2945.167 0.089 -83.79 0.994 5.085 0.994 5.085 0.089 -83.79
2970.125 0.085 -83.93 0.995 4.902 0.995 4.902 0.085 -83.93
2995.083 0.082 -84.066 0.995 4.722 0.995 4.722 0.082 -84.066
3020.042 0.079 -84.197 0.995 4.543 0.995 4.543 0.079 -84.197
3045 0.076 -84.323 0.995 4.366 0.995 4.366 0.076 -84.323
3069.958 0.073 -84.443 0.996 4.191 0.996 4.191 0.073 -84.443
3094.917 0.07 -84.558 0.996 4.017 0.996 4.017 0.07 -84.558
3119.875 0.067 -84.666 0.996 3.845 0.996 3.845 0.067 -84.666
3144.833 0.064 -84.767 0.996 3.674 0.996 3.674 0.064 -84.767
3169.792 0.061 -84.861 0.996 3.505 0.996 3.505 0.061 -84.861
3194.75 0.058 -84.946 0.997 3.338 0.997 3.338 0.058 -84.946
3219.708 0.055 -85.022 0.997 3.172 0.997 3.172 0.055 -85.022
3244.667 0.052 -85.088 0.997 3.007 0.997 3.007 0.052 -85.088
3269.625 0.05 -85.142 0.997 2.843 0.997 2.843 0.05 -85.142
3294.583 0.047 -85.182 0.997 2.681 0.997 2.681 0.047 -85.182
3319.542 0.044 -85.206 0.997 2.521 0.997 2.521 0.044 -85.206
3344.5 0.041 -85.212 0.997 2.361 0.997 2.361 0.041 -85.212
3369.458 0.038 -85.196 0.998 2.203 0.998 2.203 0.038 -85.196
3394.417 0.036 -85.154 0.998 2.046 0.998 2.046 0.036 -85.154
3419.375 0.033 -85.079 0.998 1.891 0.998 1.891 0.033 -85.079
3444.333 0.03 -84.965 0.998 1.736 0.998 1.736 0.03 -84.965
3469.292 0.028 -84.799 0.998 1.583 0.998 1.583 0.028 -84.799
3494.25 0.025 -84.568 0.998 1.431 0.998 1.431 0.025 -84.568
3519.208 0.022 -84.249 0.998 1.28 0.998 1.28 0.022 -84.249
3544.167 0.02 -83.809 0.998 1.13 0.998 1.13 0.02 -83.809
3569.125 0.017 -83.196 0.998 0.982 0.998 0.982 0.017 -83.196
3594.083 0.015 -82.322 0.998 0.834 0.998 0.834 0.015 -82.322
3619.042 0.012 -81.028 0.998 0.687 0.998 0.687 0.012 -81.028
3644 9.618e-3 -78.992 0.998 0.542 0.998 0.542 9.618e-3 -78.992
3668.958 7.152e-3 -75.462 0.998 0.397 0.998 0.397 7.152e-3 -75.462
3693.917 4.762e-3 -68.22 0.998 0.254 0.998 0.254 4.762e-3 -68.22
3718.875 2.612e-3 -47.901 0.998 0.111 0.998 0.111 2.612e-3 -47.901
3743.833 1.826e-3 16.857 0.998 -0.03 0.998 -0.03 1.826e-3 16.857
3768.792 3.46e-3 59.493 0.998 -0.171 0.998 -0.171 3.46e-3 59.493
3793.75 5.7e-3 71.837 0.998 -0.311 0.998 -0.311 5.7e-3 71.837
3818.708 8.041e-3 77 0.998 -0.45 0.998 -0.45 8.041e-3 77
3843.667 0.01 79.745 0.998 -0.588 0.998 -0.588 0.01 79.745
3868.625 0.013 81.411 0.998 -0.725 0.998 -0.725 0.013 81.411
3893.583 0.015 82.507 0.998 -0.861 0.998 -0.861 0.015 82.507
3918.542 0.017 83.266 0.998 -0.996 0.998 -0.996 0.017 83.266
3943.5 0.02 83.811 0.998 -1.131 0.998 -1.131 0.02 83.811
3968.458 0.022 84.21 0.998 -1.265 0.998 -1.265 0.022 84.21
3993.417 0.024 84.506 0.998 -1.398 0.998 -1.398 0.024 84.506
4018.375 0.027 84.727 0.998 -1.53 0.998 -1.53 0.027 84.727
4043.333 0.029 84.891 0.998 -1.661 0.998 -1.661 0.029 84.891
4068.292 0.031 85.011 0.998 -1.792 0.998 -1.792 0.031 85.011
4093.25 0.034 85.097 0.998 -1.922 0.998 -1.922 0.034 85.097
4118.208 0.036 85.156 0.998 -2.051 0.998 -2.051 0.036 85.156
4143.167 0.038 85.192 0.998 -2.179 0.998 -2.179 0.038 85.192
4168.125 0.04 85.209 0.997 -2.307 0.997 -2.307 0.04 85.209
4193.083 0.043 85.212 0.997 -2.434 0.997 -2.434 0.043 85.212
4218.042 0.045 85.202 0.997 -2.56 0.997 -2.56 0.045 85.202
4243 0.047 85.181 0.997 -2.686 0.997 -2.686 0.047 85.181
4267.958 0.049 85.151 0.997 -2.811 0.997 -2.811 0.049 85.151
4292.917 0.051 85.113 0.997 -2.935 0.997 -2.935 0.051 85.113
4317.875 0.053 85.068 0.997 -3.059 0.997 -3.059 0.053 85.068
4342.833 0.056 85.018 0.997 -3.182 0.997 -3.182 0.056 85.018
4367.792 0.058 84.962 0.997 -3.304 0.997 -3.304 0.058 84.962
4392.75 0.06 84.902 0.996 -3.426 0.996 -3.426 0.06 84.902
4417.708 0.062 84.838 0.996 -3.547 0.996 -3.547 0.062 84.838
4442.667 0.064 84.771 0.996 -3.667 0.996 -3.667 0.064 84.771
4467.625 0.066 84.701 0.996 -3.787 0.996 -3.787 0.066 84.701
4492.583 0.068 84.628 0.996 -3.907 0.996 -3.907 0.068 84.628
4517.542 0.07 84.552 0.996 -4.025 0.996 -4.025 0.07 84.552
4542.5 0.072 84.475 0.996 -4.144 0.996 -4.144 0.072 84.475
4567.458 0.074 84.395 0.995 -4.261 0.995 -4.261 0.074 84.395
4592.417 0.076 84.314 0.995 -4.378 0.995 -4.378 0.076 84.314
4617.375 0.078 84.232 0.995 -4.495 0.995 -4.495 0.078 84.232
4642.333 0.08 84.148 0.995 -4.611 0.995 -4.611 0.08 84.148
4667.292 0.082 84.063 0.995 -4.726 0.995 -4.726 0.082 84.063
4692.25 0.084 83.977 0.995 -4.841 0.995 -4.841 0.084 83.977
4717.208 0.086 83.89 0.995 -4.956 0.995 -4.956 0.086 83.89
4742.167 0.088 83.802 0.994 -5.07 0.994 -5.07 0.088 83.802
4767.125 0.09 83.713 0.994 -5.183 0.994 -5.183 0.09 83.713
4792.083 0.092 83.624 0.994 -5.296 0.994 -5.296 0.092 83.624
4817.042 0.094 83.534 0.994 -5.409 0.994 -5.409 0.094 83.534
4842 0.096 83.444 0.994 -5.521 0.994 -5.521 0.096 83.444
4866.958 0.098 83.353 0.993 -5.632 0.993 -5.632 0.098 83.353
4891.917 0.1 83.261 0.993 -5.743 0.993 -5.743 0.1 83.261
4916.875 0.102 83.17 0.993 -5.854 0.993 -5.854 0.102 83.17
4941.833 0.104 83.078 0.993 -5.964 0.993 -5.964 0.104 83.078
4966.792 0.106 82.985 0.993 -6.074 0.993 -6.074 0.106 82.985
4991.75 0.108 82.893 0.992 -6.183 0.992 -6.183 0.108 82.893
5016.708 0.11 82.8 0.992 -6.292 0.992 -6.292 0.11 82.8
5041.667 0.111 82.707 0.992 -6.4 0.992 -6.4 0.111 82.707
5066.625 0.113 82.614 0.992 -6.508 0.992 -6.508 0.113 82.614
5091.583 0.115 82.521 0.992 -6.616 0.992 -6.616 0.115 82.521
5116.542 0.117 82.428 0.991 -6.723 0.991 -6.723 0.117 82.428
5141.5 0.119 82.335 0.991 -6.83 0.991 -6.83 0.119 82.335
5166.458 0.121 82.241 0.991 -6.936 0.991 -6.936 0.121 82.241
5191.417 0.123 82.148 0.991 -7.042 0.991 -7.042 0.123 82.148
5216.375 0.124 82.054 0.99 -7.147 0.99 -7.147 0.124 82.054
5241.333 0.126 81.961 0.99 -7.252 0.99 -7.252 0.126 81.961
5266.292 0.128 81.867 0.99 -7.357 0.99 -7.357 0.128 81.867
5291.25 0.13 81.774 0.99 -7.462 0.99 -7.462 0.13 81.774
5316.208 0.132 81.681 0.99 -7.566 0.99 -7.566 0.132 81.681
5341.167 0.133 81.587 0.989 -7.669 0.989 -7.669 0.133 81.587
5366.125 0.135 81.494 0.989 -7.772 0.989 -7.772 0.135 81.494
5391.083 0.137 81.401 0.989 -7.875 0.989 -7.875 0.137 81.401
5416.042 0.139 81.308 0.989 -7.978 0.989 -7.978 0.139 81.308
5441 0.141 81.215 0.988 -8.08 0.988 -8.08 0.141 81.215
5465.958 0.142 81.122 0.988 -8.182 0.988 -8.182 0.142 81.122
5490.917 0.144 81.029 0.988 -8.283 0.988 -8.283 0.144 81.029
5515.875 0.146 80.936 0.988 -8.384 0.988 -8.384 0.146 80.936
5540.833 0.148 80.844 0.987 -8.485 0.987 -8.485 0.148 80.844
5565.792 0.149 80.751 0.987 -8.586 0.987 -8.586 0.149 80.751
5590.75 0.151 80.659 0.987 -8.686 0.987 -8.686 0.151 80.659
5615.708 0.153 80.567 0.987 -8.786 0.987 -8.786 0.153 80.567
5640.667 0.154 80.475 0.986 -8.885 0.986 -8.885 0.154 80.475
5665.625 0.156 80.383 0.986 -8.984 0.986 -8.984 0.156 80.383
5690.583 0.158 80.291 0.986 -9.083 0.986 -9.083 0.158 80.291
5715.542 0.16 80.199 0.985 -9.181 0.985 -9.181 0.16 80.199
5740.5 0.161 80.108 0.985 -9.28 0.985 -9.28 0.161 80.108
5765.458 0.163 80.016 0.985 -9.378 0.985 -9.378 0.163 80.016
5790.417 0.165 79.925 0.985 -9.475 0.985 -9.475 0.165 79.925
5815.375 0.166 79.834 0.984 -9.572 0.984 -9.572 0.166 79.834
5840.333 0.168 79.743 0.984 -9.669 0.984 -9.669 0.168 79.743
5865.292 0.17 79.652 0.984 -9.766 0.984 -9.766 0.17 79.652
5890.25 0.171 79.562 0.984 -9.862 0.984 -9.862 0.171 79.562
5915.208 0.173 79.471 0.983 -9.959 0.983 -9.959 0.173 79.471
5940.167 0.175 79.381 0.983 -10.054 0.983 -10.054 0.175 79.381
5965.125 0.176 79.291 0.983 -10.15 0.983 -10.15 0.176 79.291
5990.083 0.178 79.201 0.982 -10.245 0.982 -10.245 0.178 79.201
6015.042 0.179 79.111 0.982 -10.34 0.982 -10.34 0.179 79.111
6040 0.181 79.022 0.982 -10.435 0.982 -10.435 0.181 79.022
6064.958 0.183 78.932 0.981 -10.529 0.981 -10.529 0.183 78.932
6089.917 0.184 78.843 0.981 -10.623 0.981 -10.623 0.184 78.843
6114.875 0.186 78.754 0.981 -10.717 0.981 -10.717 0.186 78.754
6139.833 0.188 78.665 0.981 -10.811 0.981 -10.811 0.188 78.665
6164.792 0.189 78.576 0.98 -10.904 0.98 -10.904 0.189 78.576
6189.75 0.191 78.488 0.98 -10.997 0.98 -10.997 0.191 78.488
6214.708 0.192 78.399 0.98 -11.09 0.98 -11.09 0.192 78.399
6239.667 0.194 78.311 0.979 -11.183 0.979 -11.183 0.194 78.311
6264.625 0.196 78.223 0.979 -11.275 0.979 -11.275 0.196 78.223
6289.583 0.197 78.135 0.979 -11.367 0.979 -11.367 0.197 78.135
6314.542 0.199 78.047 0.978 -11.459 0.978 -11.459 0.199 78.047
6339.5 0.2 77.96 0.978 -11.55 0.978 -11.55 0.2 77.96
6364.458 0.202 77.872 0.978 -11.642 0.978 -11.642 0.202 77.872
6389.417 0.203 77.785 0.977 -11.733 0.977 -11.733 0.203 77.785
6414.375 0.205 77.698 0.977 -11.824 0.977 -11.824 0.205 77.698
6439.333 0.206 77.611 0.977 -11.914 0.977 -11.914 0.206 77.611
6464.292 0.208 77.525 0.976 -12.004 0.976 -12.004 0.208 77.525
6489.25 0.21 77.438 0.976 -12.095 0.976 -12.095 0.21 77.438
6514.208 0.211 77.352 0.976 -12.184 0.976 -12.184 0.211 77.352
6539.167 0.213 77.266 0.975 -12.274 0.975 -12.274 0.213 77.266
6564.125 0.214 77.18 0.975 -12.364 0.975 -12.364 0.214 77.18
6589.083 0.216 77.094 0.975 -12.453 0.975 -12.453 0.216 77.094
6614.042 0.217 77.008 0.974 -12.542 0.974 -12.542 0.217 77.008
6639 0.219 76.923 0.974 -12.63 0.974 -12.63 0.219 76.923
6663.958 0.22 76.837 0.974 -12.719 0.974 -12.719 0.22 76.837
6688.917 0.222 76.752 0.973 -12.807 0.973 -12.807 0.222 76.752
6713.875 0.223 76.667 0.973 -12.895 0.973 -12.895 0.223 76.667
6738.833 0.225 76.582 0.973 -12.983 0.973 -12.983 0.225 76.582
6763.792 0.226 76.498 0.972 -13.071 0.972 -13.071 0.226 76.498
6788.75 0.228 76.413 0.972 -13.158 0.972 -13.158 0.228 76.413
6813.708 0.229 76.329 0.972 -13.246 0.972 -13.246 0.229 76.329
6838.667 0.231 76.245 0.971 -13.333 0.971 -13.333 0.231 76.245
6863.625 0.232 76.161 0.971 -13.419 0.971 -13.419 0.232 76.161
6888.583 0.234 76.077 0.971 -13.506 0.971 -13.506 0.234 76.077
6913.542 0.235 75.993 0.97 -13.592 0.97 -13.592 0.235 75.993
6938.5 0.236 75.91 0.97 -13.679 0.97 -13.679 0.236 75.91
6963.458 0.238 75.827 0.97 -13.765 0.97 -13.765 0.238 75.827
6988.417 0.239 75.743 0.969 -13.85 0.969 -13.85 0.239 75.743
7013.375 0.241 75.66 0.969 -13.936 0.969 -13.936 0.241 75.66
7038.333 0.242 75.578 0.969 -14.021 0.969 -14.021 0.242 75.578
7063.292 0.244 75.495 0.968 -14.107 0.968 -14.107 0.244 75.495
7088.25 0.245 75.412 0.968 -14.192 0.968 -14.192 0.245 75.412
7113.208 0.247 75.33 0.967 -14.276 0.967 -14.276 0.247 75.33
7138.167 0.248 75.248 0.967 -14.361 0.967 -14.361 0.248 75.248
7163.125 0.249 75.166 0.967 -14.446 0.967 -14.446 0.249 75.166
7188.083 0.251 75.084 0.966 -14.53 0.966 -14.53 0.251 75.084
7213.042 0.252 75.002 0.966 -14.614 0.966 -14.614 0.252 75.002
7238 0.254 74.921 0.966 -14.698 0.966 -14.698 0.254 74.921
7262.958 0.255 74.839 0.965 -14.781 0.965 -14.781 0.255 74.839
7287.917 0.257 74.758 0.965 -14.865 0.965 -14.865 0.257 74.758
7312.875 0.258 74.677 0.964 -14.948 0.964 -14.948 0.258 74.677
7337.833 0.259 74.596 0.964 -15.031 0.964 -15.031 0.259 74.596
7362.792 0.261 74.515 0.964 -15.114 0.964 -15.114 0.261 74.515
7387.75 0.262 74.434 0.963 -15.197 0.963 -15.197 0.262 74.434
7412.708 0.264 74.354 0.963 -15.28 0.963 -15.28 0.264 74.354
7437.667 0.265 74.274 0.963 -15.362 0.963 -15.362 0.265 74.274
7462.625 0.266 74.193 0.962 -15.444 0.962 -15.444 0.266 74.193
7487.583 0.268 74.113 0.962 -15.526 0.962 -15.526 0.268 74.113
7512.542 0.269 74.033 0.961 -15.608 0.961 -15.608 0.269 74.033
7537.5 0.27 73.954 0.961 -15.69 0.961 -15.69 0.27 73.954
7562.458 0.272 73.874 0.961 -15.771 0.961 -15.771 0.272 73.874
7587.417 0.273 73.795 0.96 -15.853 0.96 -15.853 0.273 73.795
7612.375 0.275 73.715 0.96 -15.934 0.96 -15.934 0.275 73.715
7637.333 0.276 73.636 0.96 -16.015 0.96 -16.015 0.276 73.636
7662.292 0.277 73.557 0.959 -16.096 0.959 -16.096 0.277 73.557
7687.25 0.279 73.478 0.959 -16.177 0.959 -16.177 0.279 73.478
7712.208 0.28 73.4 0.958 -16.257 0.958 -16.257 0.28 73.4
7737.167 0.281 73.321 0.958 -16.337 0.958 -16.337 0.281 73.321
7762.125 0.283 73.243 0.958 -16.418 0.958 -16.418 0.283 73.243
7787.083 0.284 73.164 0.957 -16.498 0.957 -16.498 0.284 73.164
7812.042 0.285 73.086 0.957 -16.578 0.957 -16.578 0.285 73.086
7837 0.287 73.008 0.956 -16.657 0.956 -16.657 0.287 73.008
7861.958 0.288 72.93 0.956 -16.737 0.956 -16.737 0.288 72.93
7886.917 0.289 72.853 0.956 -16.816 0.956 -16.816 0.289 72.853
7911.875 0.291 72.775 0.955 -16.895 0.955 -16.895 0.291 72.775
7936.833 0.292 72.697 0.955 -16.975 0.955 -16.975 0.292 72.697
7961.792 0.293 72.62 0.954 -17.053 0.954 -17.053 0.293 72.62
7986.75 0.295 72.543 0.954 -17.132 0.954 -17.132 0.295 72.543
8011.708 0.296 72.466 0.954 -17.211 0.954 -17.211 0.296 72.466
8036.667 0.297 72.389 0.953 -17.289 0.953 -17.289 0.297 72.389
8061.625 0.299 72.312 0.953 -17.368 0.953 -17.368 0.299 72.312
8086.583 0.3 72.236 0.952 -17.446 0.952 -17.446 0.3 72.236
8111.542 0.301 72.159 0.952 -17.524 0.952 -17.524 0.301 72.159
8136.5 0.302 72.083 0.952 -17.602 0.952 -17.602 0.302 72.083
8161.458 0.304 72.007 0.951 -17.679 0.951 -17.679 0.304 72.007
8186.417 0.305 71.931 0.951 -17.757 0.951 -17.757 0.305 71.931
8211.375 0.306 71.855 0.95 -17.834 0.95 -17.834 0.306 71.855
