# MHZ S MA R 50

50 0.998 -3.775 0.066 86.218 0.066 86.218 0.998 -3.775
74.958 0.995 -5.65 0.098 84.339 0.098 84.339 0.995 -5.65
99.917 0.991 -7.515 0.131 82.471 0.131 82.471 0.991 -7.515
124.875 0.987 -9.365 0.163 80.618 0.163 80.618 0.987 -9.365
149.833 0.981 -11.198 0.194 78.781 0.194 78.781 0.981 -11.198
174.792 0.974 -13.011 0.225 76.965 0.225 76.965 0.974 -13.011
199.75 0.967 -14.8 0.255 75.172 0.255 75.172 0.967 -14.8
224.708 0.958 -16.564 0.285 73.405 0.285 73.405 0.958 -16.564
249.667 0.949 -18.3 0.314 71.666 0.314 71.666 0.949 -18.3
274.625 0.939 -20.005 0.342 69.958 0.342 69.958 0.939 -20.005
299.583 0.929 -21.678 0.369 68.281 0.369 68.281 0.929 -21.678
324.542 0.918 -23.318 0.396 66.637 0.396 66.637 0.918 -23.318
349.5 0.907 -24.923 0.421 65.029 0.421 65.029 0.907 -24.923
374.458 0.895 -26.493 0.446 63.455 0.446 63.455 0.895 -26.493
399.417 0.882 -28.026 0.47 61.919 0.47 61.919 0.882 -28.026
424.375 0.87 -29.522 0.493 60.419 0.493 60.419 0.87 -29.522
449.333 0.857 -30.981 0.515 58.957 0.515 58.957 0.857 -30.981
474.292 0.844 -32.403 0.536 57.532 0.536 57.532 0.844 -32.403
499.25 0.83 -33.787 0.556 56.144 0.556 56.144 0.83 -33.787
524.208 0.817 -35.134 0.575 54.794 0.575 54.794 0.817 -35.134
549.167 0.804 -36.444 0.594 53.48 0.594 53.48 0.804 -36.444
574.125 0.79 -37.717 0.612 52.203 0.612 52.203 0.79 -37.717
599.083 0.777 -38.955 0.629 50.961 0.629 50.961 0.777 -38.955
624.042 0.763 -40.158 0.645 49.755 0.645 49.755 0.763 -40.158
649 0.75 -41.326 0.66 48.583 0.66 48.583 0.75 -41.326
673.958 0.737 -42.461 0.675 47.445 0.675 47.445 0.737 -42.461
698.917 0.723 -43.563 0.689 46.339 0.689 46.339 0.723 -43.563
723.875 0.71 -44.632 0.703 45.266 0.703 45.266 0.71 -44.632
748.833 0.697 -45.671 0.715 44.223 0.715 44.223 0.697 -45.671
773.792 0.685 -46.679 0.728 43.211 0.728 43.211 0.685 -46.679
798.75 0.672 -47.658 0.739 42.228 0.739 42.228 0.672 -47.658
823.708 0.66 -48.609 0.75 41.274 0.75 41.274 0.66 -48.609
848.667 0.647 -49.532 0.761 40.347 0.761 40.347 0.647 -49.532
873.625 0.635 -50.428 0.771 39.447 0.771 39.447 0.635 -50.428
898.583 0.623 -51.299 0.78 38.572 0.78 38.572 0.623 -51.299
923.542 0.612 -52.145 0.79 37.722 0.79 37.722 0.612 -52.145
948.5 0.6 -52.967 0.798 36.896 0.798 36.896 0.6 -52.967
973.458 0.589 -53.765 0.807 36.093 0.807 36.093 0.589 -53.765
998.417 0.578 -54.542 0.815 35.313 0.815 35.313 0.578 -54.542
1023.375 0.567 -55.297 0.822 34.554 0.822 34.554 0.567 -55.297
1048.333 0.557 -56.031 0.829 33.815 0.829 33.815 0.557 -56.031
1073.292 0.546 -56.745 0.836 33.097 0.836 33.097 0.546 -56.745
1098.25 0.536 -57.44 0.843 32.398 0.843 32.398 0.536 -57.44
1123.208 0.526 -58.116 0.849 31.717 0.849 31.717 0.526 -58.116
1148.167 0.516 -58.775 0.855 31.054 0.855 31.054 0.516 -58.775
1173.125 0.506 -59.416 0.861 30.408 0.861 30.408 0.506 -59.416
1198.083 0.497 -60.041 0.866 29.779 0.866 29.779 0.497 -60.041
1223.042 0.487 -60.649 0.872 29.166 0.872 29.166 0.487 -60.649
1248 0.478 -61.242 0.877 28.569 0.877 28.569 0.478 -61.242
1272.958 0.469 -61.821 0.881 27.986 0.881 27.986 0.469 -61.821
1297.917 0.46 -62.385 0.886 27.417 0.886 27.417 0.46 -62.385
1322.875 0.452 -62.935 0.89 26.862 0.89 26.862 0.452 -62.935
1347.833 0.443 -63.472 0.895 26.32 0.895 26.32 0.443 -63.472
1372.792 0.435 -63.995 0.899 25.791 0.899 25.791 0.435 -63.995
1397.75 0.427 -64.507 0.903 25.275 0.903 25.275 0.427 -64.507
1422.708 0.419 -65.007 0.906 24.77 0.906 24.77 0.419 -65.007
1447.667 0.411 -65.495 0.91 24.277 0.91 24.277 0.411 -65.495
1472.625 0.403 -65.972 0.913 23.795 0.913 23.795 0.403 -65.972
1497.583 0.396 -66.438 0.917 23.323 0.917 23.323 0.396 -66.438
1522.542 0.389 -66.894 0.92 22.862 0.92 22.862 0.389 -66.894
1547.5 0.381 -67.34 0.923 22.41 0.923 22.41 0.381 -67.34
1572.458 0.374 -67.776 0.926 21.969 0.926 21.969 0.374 -67.776
1597.417 0.367 -68.203 0.929 21.536 0.929 21.536 0.367 -68.203
1622.375 0.36 -68.621 0.931 21.113 0.931 21.113 0.36 -68.621
1647.333 0.353 -69.03 0.934 20.698 0.934 20.698 0.353 -69.03
1672.292 0.347 -69.43 0.936 20.291 0.936 20.291 0.347 -69.43
1697.25 0.34 -69.823 0.939 19.893 0.939 19.893 0.34 -69.823
1722.208 0.334 -70.207 0.941 19.502 0.941 19.502 0.334 -70.207
1747.167 0.328 -70.584 0.943 19.119 0.943 19.119 0.328 -70.584
1772.125 0.321 -70.954 0.945 18.743 0.945 18.743 0.321 -70.954
1797.083 0.315 -71.316 0.947 18.374 0.947 18.374 0.315 -71.316
1822.042 0.309 -71.671 0.949 18.012 0.949 18.012 0.309 -71.671
1847 0.303 -72.02 0.951 17.657 0.951 17.657 0.303 -72.02
1871.958 0.298 -72.362 0.953 17.308 0.953 17.308 0.298 -72.362
1896.917 0.292 -72.697 0.955 16.965 0.955 16.965 0.292 -72.697
1921.875 0.286 -73.027 0.956 16.628 0.956 16.628 0.286 -73.027
1946.833 0.281 -73.35 0.958 16.297 0.958 16.297 0.281 -73.35
1971.792 0.275 -73.668 0.96 15.972 0.96 15.972 0.275 -73.668
1996.75 0.27 -73.98 0.961 15.652 0.961 15.652 0.27 -73.98
2021.708 0.265 -74.287 0.963 15.338 0.963 15.338 0.265 -74.287
2046.667 0.259 -74.588 0.964 15.029 0.964 15.029 0.259 -74.588
2071.625 0.254 -74.884 0.965 14.724 0.965 14.724 0.254 -74.884
2096.583 0.249 -75.175 0.967 14.425 0.967 14.425 0.249 -75.175
2121.542 0.244 -75.461 0.968 14.13 0.968 14.13 0.244 -75.461
2146.5 0.239 -75.742 0.969 13.84 0.969 13.84 0.239 -75.742
2171.458 0.234 -76.019 0.97 13.554 0.97 13.554 0.234 -76.019
2196.417 0.23 -76.291 0.972 13.272 0.972 13.272 0.23 -76.291
2221.375 0.225 -76.559 0.973 12.995 0.973 12.995 0.225 -76.559
2246.333 0.22 -76.822 0.974 12.722 0.974 12.722 0.22 -76.822
2271.292 0.216 -77.081 0.975 12.453 0.975 12.453 0.216 -77.081
2296.25 0.211 -77.336 0.976 12.187 0.976 12.187 0.211 -77.336
2321.208 0.207 -77.587 0.977 11.925 0.977 11.925 0.207 -77.587
2346.167 0.202 -77.834 0.978 11.667 0.978 11.667 0.202 -77.834
2371.125 0.198 -78.077 0.978 11.413 0.978 11.413 0.198 -78.077
2396.083 0.194 -78.316 0.979 11.162 0.979 11.162 0.194 -78.316
2421.042 0.189 -78.552 0.98 10.914 0.98 10.914 0.189 -78.552
2446 0.185 -78.784 0.981 10.669 0.981 10.669 0.185 -78.784
2470.958 0.181 -79.012 0.982 10.428 0.982 10.428 0.181 -79.012
2495.917 0.177 -79.237 0.982 10.19 0.982 10.19 0.177 -79.237
2520.875 0.173 -79.459 0.983 9.955 0.983 9.955 0.173 -79.459
2545.833 0.169 -79.676 0.984 9.723 0.984 9.723 0.169 -79.676
2570.792 0.165 -79.891 0.985 9.493 0.985 9.493 0.165 -79.891
2595.75 0.161 -80.102 0.985 9.267 0.985 9.267 0.161 -80.102
2620.708 0.157 -80.31 0.986 9.043 0.986 9.043 0.157 -80.31
2645.667 0.153 -80.515 0.986 8.821 0.986 8.821 0.153 -80.515
2670.625 0.15 -80.717 0.987 8.603 0.987 8.603 0.15 -80.717
2695.583 0.146 -80.915 0.988 8.387 0.988 8.387 0.146 -80.915
2720.542 0.142 -81.11 0.988 8.173 0.988 8.173 0.142 -81.11
2745.5 0.139 -81.302 0.989 7.962 0.989 7.962 0.139 -81.302
2770.458 0.135 -81.491 0.989 7.753 0.989 7.753 0.135 -81.491
2795.417 0.131 -81.677 0.99 7.546 0.99 7.546 0.131 -81.677
2820.375 0.128 -81.859 0.99 7.342 0.99 7.342 0.128 -81.859
2845.333 0.124 -82.038 0.99 7.14 0.99 7.14 0.124 -82.038
2870.292 0.121 -82.215 0.991 6.939 0.991 6.939 0.121 -82.215
2895.25 0.117 -82.388 0.991 6.741 0.991 6.741 0.117 -82.388
2920.208 0.114 -82.557 0.992 6.545 0.992 6.545 0.114 -82.557
2945.167 0.111 -82.724 0.992 6.351 0.992 6.351 0.111 -82.724
2970.125 0.107 -82.887 0.992 6.159 0.992 6.159 0.107 -82.887
2995.083 0.104 -83.046 0.993 5.969 0.993 5.969 0.104 -83.046
3020.042 0.101 -83.202 0.993 5.781 0.993 5.781 0.101 -83.202
3045 0.098 -83.354 0.993 5.595 0.993 5.595 0.098 -83.354
3069.958 0.094 -83.503 0.994 5.41 0.994 5.41 0.094 -83.503
3094.917 0.091 -83.648 0.994 5.227 0.994 5.227 0.091 -83.648
3119.875 0.088 -83.788 0.994 5.046 0.994 5.046 0.088 -83.788
3144.833 0.085 -83.925 0.995 4.866 0.995 4.866 0.085 -83.925
3169.792 0.082 -84.056 0.995 4.688 0.995 4.688 0.082 -84.056
3194.75 0.079 -84.184 0.995 4.512 0.995 4.512 0.079 -84.184
3219.708 0.076 -84.306 0.995 4.337 0.995 4.337 0.076 -84.306
3244.667 0.073 -84.422 0.996 4.164 0.996 4.164 0.073 -84.422
3269.625 0.07 -84.533 0.996 3.992 0.996 3.992 0.07 -84.533
3294.583 0.067 -84.637 0.996 3.822 0.996 3.822 0.067 -84.637
3319.542 0.064 -84.735 0.996 3.653 0.996 3.653 0.064 -84.735
3344.5 0.061 -84.825 0.996 3.485 0.996 3.485 0.061 -84.825
3369.458 0.058 -84.906 0.997 3.319 0.997 3.319 0.058 -84.906
3394.417 0.055 -84.978 0.997 3.154 0.997 3.154 0.055 -84.978
3419.375 0.052 -85.039 0.997 2.991 0.997 2.991 0.052 -85.039
3444.333 0.049 -85.088 0.997 2.829 0.997 2.829 0.049 -85.088
3469.292 0.047 -85.123 0.997 2.668 0.997 2.668 0.047 -85.123
3494.25 0.044 -85.142 0.997 2.508 0.997 2.508 0.044 -85.142
3519.208 0.041 -85.143 0.997 2.35 0.997 2.35 0.041 -85.143
3544.167 0.038 -85.12 0.997 2.193 0.997 2.193 0.038 -85.12
3569.125 0.036 -85.07 0.998 2.037 0.998 2.037 0.036 -85.07
3594.083 0.033 -84.988 0.998 1.882 0.998 1.882 0.033 -84.988
3619.042 0.03 -84.863 0.998 1.728 0.998 1.728 0.03 -84.863
3644 0.028 -84.687 0.998 1.576 0.998 1.576 0.028 -84.687
3668.958 0.025 -84.442 0.998 1.424 0.998 1.424 0.025 -84.442
3693.917 0.022 -84.106 0.998 1.274 0.998 1.274 0.022 -84.106
3718.875 0.02 -83.645 0.998 1.125 0.998 1.125 0.02 -83.645
3743.833 0.017 -83.004 0.998 0.976 0.998 0.976 0.017 -83.004
3768.792 0.015 -82.091 0.998 0.829 0.998 0.829 0.015 -82.091
3793.75 0.012 -80.74 0.998 0.683 0.998 0.683 0.012 -80.74
3818.708 9.549e-3 -78.615 0.998 0.537 0.998 0.537 9.549e-3 -78.615
3843.667 7.09e-3 -74.924 0.998 0.393 0.998 0.393 7.09e-3 -74.924
3868.625 4.711e-3 -67.327 0.998 0.25 0.998 0.25 4.711e-3 -67.327
3893.583 2.592e-3 -46.002 0.998 0.107 0.998 0.107 2.592e-3 -46.002
3918.542 1.896e-3 18.512 0.998 -0.035 0.998 -0.035 1.896e-3 18.512
3943.5 3.547e-3 59.385 0.998 -0.175 0.998 -0.175 3.547e-3 59.385
3968.458 5.784e-3 71.585 0.998 -0.315 0.998 -0.315 5.784e-3 71.585
3993.417 8.124e-3 76.766 0.998 -0.454 0.998 -0.454 8.124e-3 76.766
4018.375 0.01 79.542 0.998 -0.592 0.998 -0.592 0.01 79.542
4043.333 0.013 81.234 0.998 -0.729 0.998 -0.729 0.013 81.234
4068.292 0.015 82.352 0.998 -0.866 0.998 -0.866 0.015 82.352
4093.25 0.018 83.128 0.998 -1.001 0.998 -1.001 0.018 83.128
4118.208 0.02 83.686 0.998 -1.136 0.998 -1.136 0.02 83.686
4143.167 0.022 84.096 0.998 -1.27 0.998 -1.27 0.022 84.096
4168.125 0.025 84.401 0.998 -1.403 0.998 -1.403 0.025 84.401
4193.083 0.027 84.629 0.998 -1.536 0.998 -1.536 0.027 84.629
4218.042 0.029 84.8 0.998 -1.668 0.998 -1.668 0.029 84.8
4243 0.031 84.926 0.998 -1.799 0.998 -1.799 0.031 84.926
4267.958 0.034 85.017 0.998 -1.929 0.998 -1.929 0.034 85.017
4292.917 0.036 85.079 0.998 -2.058 0.998 -2.058 0.036 85.079
4317.875 0.038 85.119 0.997 -2.187 0.997 -2.187 0.038 85.119
4342.833 0.04 85.14 0.997 -2.315 0.997 -2.315 0.04 85.14
4367.792 0.043 85.145 0.997 -2.443 0.997 -2.443 0.043 85.145
4392.75 0.045 85.137 0.997 -2.57 0.997 -2.57 0.045 85.137
4417.708 0.047 85.118 0.997 -2.696 0.997 -2.696 0.047 85.118
4442.667 0.049 85.09 0.997 -2.821 0.997 -2.821 0.049 85.09
4467.625 0.051 85.054 0.997 -2.946 0.997 -2.946 0.051 85.054
4492.583 0.054 85.011 0.997 -3.071 0.997 -3.071 0.054 85.011
4517.542 0.056 84.961 0.997 -3.194 0.997 -3.194 0.056 84.961
4542.5 0.058 84.907 0.997 -3.317 0.997 -3.317 0.058 84.907
4567.458 0.06 84.848 0.996 -3.44 0.996 -3.44 0.06 84.848
4592.417 0.062 84.785 0.996 -3.561 0.996 -3.561 0.062 84.785
4617.375 0.064 84.718 0.996 -3.683 0.996 -3.683 0.064 84.718
4642.333 0.066 84.648 0.996 -3.803 0.996 -3.803 0.066 84.648
4667.292 0.068 84.576 0.996 -3.923 0.996 -3.923 0.068 84.576
4692.25 0.071 84.501 0.996 -4.043 0.996 -4.043 0.071 84.501
4717.208 0.073 84.424 0.996 -4.162 0.996 -4.162 0.073 84.424
4742.167 0.075 84.344 0.995 -4.28 0.995 -4.28 0.075 84.344
4767.125 0.077 84.264 0.995 -4.398 0.995 -4.398 0.077 84.264
4792.083 0.079 84.181 0.995 -4.515 0.995 -4.515 0.079 84.181
4817.042 0.081 84.097 0.995 -4.632 0.995 -4.632 0.081 84.097
4842 0.083 84.012 0.995 -4.748 0.995 -4.748 0.083 84.012
4866.958 0.085 83.926 0.995 -4.864 0.995 -4.864 0.085 83.926
4891.917 0.087 83.839 0.994 -4.979 0.994 -4.979 0.087 83.839
4916.875 0.089 83.751 0.994 -5.094 0.994 -5.094 0.089 83.751
4941.833 0.091 83.662 0.994 -5.208 0.994 -5.208 0.091 83.662
4966.792 0.093 83.573 0.994 -5.322 0.994 -5.322 0.093 83.573
4991.75 0.095 83.483 0.994 -5.435 0.994 -5.435 0.095 83.483
5016.708 0.097 83.392 0.994 -5.548 0.994 -5.548 0.097 83.392
5041.667 0.099 83.301 0.993 -5.661 0.993 -5.661 0.099 83.301
5066.625 0.101 83.209 0.993 -5.772 0.993 -5.772 0.101 83.209
5091.583 0.103 83.117 0.993 -5.884 0.993 -5.884 0.103 83.117
5116.542 0.104 83.025 0.993 -5.995 0.993 -5.995 0.104 83.025
5141.5 0.106 82.932 0.993 -6.105 0.993 -6.105 0.106 82.932
5166.458 0.108 82.839 0.992 -6.216 0.992 -6.216 0.108 82.839
5191.417 0.11 82.746 0.992 -6.325 0.992 -6.325 0.11 82.746
5216.375 0.112 82.652 0.992 -6.435 0.992 -6.435 0.112 82.652
5241.333 0.114 82.559 0.992 -6.543 0.992 -6.543 0.114 82.559
5266.292 0.116 82.465 0.991 -6.652 0.991 -6.652 0.116 82.465
5291.25 0.118 82.372 0.991 -6.76 0.991 -6.76 0.118 82.372
5316.208 0.12 82.278 0.991 -6.867 0.991 -6.867 0.12 82.278
5341.167 0.121 82.184 0.991 -6.975 0.991 -6.975 0.121 82.184
5366.125 0.123 82.09 0.991 -7.081 0.991 -7.081 0.123 82.09
5391.083 0.125 81.996 0.99 -7.188 0.99 -7.188 0.125 81.996
5416.042 0.127 81.902 0.99 -7.294 0.99 -7.294 0.127 81.902
5441 0.129 81.808 0.99 -7.399 0.99 -7.399 0.129 81.808
5465.958 0.131 81.714 0.99 -7.505 0.99 -7.505 0.131 81.714
5490.917 0.132 81.62 0.989 -7.61 0.989 -7.61 0.132 81.62
5515.875 0.134 81.526 0.989 -7.714 0.989 -7.714 0.134 81.526
5540.833 0.136 81.432 0.989 -7.818 0.989 -7.818 0.136 81.432
5565.792 0.138 81.338 0.989 -7.922 0.989 -7.922 0.138 81.338
5590.75 0.14 81.244 0.988 -8.025 0.988 -8.025 0.14 81.244
5615.708 0.141 81.151 0.988 -8.128 0.988 -8.128 0.141 81.151
5640.667 0.143 81.057 0.988 -8.231 0.988 -8.231 0.143 81.057
5665.625 0.145 80.964 0.988 -8.334 0.988 -8.334 0.145 80.964
5690.583 0.147 80.87 0.987 -8.436 0.987 -8.436 0.147 80.87
5715.542 0.148 80.777 0.987 -8.537 0.987 -8.537 0.148 80.777
5740.5 0.15 80.684 0.987 -8.639 0.987 -8.639 0.15 80.684
5765.458 0.152 80.591 0.987 -8.74 0.987 -8.74 0.152 80.591
5790.417 0.154 80.498 0.986 -8.84 0.986 -8.84 0.154 80.498
5815.375 0.155 80.405 0.986 -8.941 0.986 -8.941 0.155 80.405
5840.333 0.157 80.312 0.986 -9.041 0.986 -9.041 0.157 80.312
5865.292 0.159 80.22 0.986 -9.14 0.986 -9.14 0.159 80.22
5890.25 0.161 80.127 0.985 -9.24 0.985 -9.24 0.161 80.127
5915.208 0.162 80.035 0.985 -9.339 0.985 -9.339 0.162 80.035
5940.167 0.164 79.943 0.985 -9.438 0.985 -9.438 0.164 79.943
5965.125 0.166 79.851 0.984 -9.536 0.984 -9.536 0.166 79.851
5990.083 0.167 79.759 0.984 -9.634 0.984 -9.634 0.167 79.759
6015.042 0.169 79.668 0.984 -9.732 0.984 -9.732 0.169 79.668
6040 0.171 79.576 0.984 -9.83 0.984 -9.83 0.171 79.576
6064.958 0.172 79.485 0.983 -9.927 0.983 -9.927 0.172 79.485
6089.917 0.174 79.394 0.983 -10.024 0.983 -10.024 0.174 79.394
6114.875 0.176 79.303 0.983 -10.12 0.983 -10.12 0.176 79.303
6139.833 0.177 79.212 0.982 -10.217 0.982 -10.217 0.177 79.212
6164.792 0.179 79.121 0.982 -10.313 0.982 -10.313 0.179 79.121
6189.75 0.181 79.031 0.982 -10.409 0.982 -10.409 0.181 79.031
6214.708 0.182 78.94 0.981 -10.504 0.981 -10.504 0.182 78.94
6239.667 0.184 78.85 0.981 -10.6 0.981 -10.6 0.184 78.85
6264.625 0.186 78.76 0.981 -10.695 0.981 -10.695 0.186 78.76
6289.583 0.187 78.67 0.981 -10.789 0.981 -10.789 0.187 78.67
6314.542 0.189 78.581 0.98 -10.884 0.98 -10.884 0.189 78.581
6339.5 0.19 78.491 0.98 -10.978 0.98 -10.978 0.19 78.491
6364.458 0.192 78.402 0.98 -11.072 0.98 -11.072 0.192 78.402
6389.417 0.194 78.313 0.979 -11.165 0.979 -11.165 0.194 78.313
6414.375 0.195 78.224 0.979 -11.259 0.979 -11.259 0.195 78.224
6439.333 0.197 78.135 0.979 -11.352 0.979 -11.352 0.197 78.135
6464.292 0.198 78.046 0.978 -11.445 0.978 -11.445 0.198 78.046
6489.25 0.2 77.958 0.978 -11.538 0.978 -11.538 0.2 77.958
6514.208 0.202 77.87 0.978 -11.63 0.978 -11.63 0.202 77.87
6539.167 0.203 77.782 0.977 -11.722 0.977 -11.722 0.203 77.782
6564.125 0.205 77.694 0.977 -11.814 0.977 -11.814 0.205 77.694
6589.083 0.206 77.606 0.977 -11.906 0.977 -11.906 0.206 77.606
6614.042 0.208 77.518 0.976 -11.997 0.976 -11.997 0.208 77.518
6639 0.209 77.431 0.976 -12.088 0.976 -12.088 0.209 77.431
6663.958 0.211 77.344 0.976 -12.179 0.976 -12.179 0.211 77.344
6688.917 0.213 77.257 0.975 -12.27 0.975 -12.27 0.213 77.257
6713.875 0.214 77.17 0.975 -12.36 0.975 -12.36 0.214 77.17
6738.833 0.216 77.083 0.975 -12.45 0.975 -12.45 0.216 77.083
6763.792 0.217 76.997 0.974 -12.54 0.974 -12.54 0.217 76.997
6788.75 0.219 76.91 0.974 -12.63 0.974 -12.63 0.219 76.91
6813.708 0.22 76.824 0.974 -12.72 0.974 -12.72 0.22 76.824
6838.667 0.222 76.738 0.973 -12.809 0.973 -12.809 0.222 76.738
6863.625 0.223 76.652 0.973 -12.898 0.973 -12.898 0.223 76.652
6888.583 0.225 76.567 0.973 -12.987 0.973 -12.987 0.225 76.567
6913.542 0.226 76.481 0.972 -13.076 0.972 -13.076 0.226 76.481
6938.5 0.228 76.396 0.972 -13.164 0.972 -13.164 0.228 76.396
6963.458 0.229 76.311 0.972 -13.252 0.972 -13.252 0.229 76.311
6988.417 0.231 76.226 0.971 -13.34 0.971 -13.34 0.231 76.226
7013.375 0.232 76.141 0.971 -13.428 0.971 -13.428 0.232 76.141
7038.333 0.234 76.056 0.971 -13.516 0.971 -13.516 0.234 76.056
7063.292 0.235 75.972 0.97 -13.603 0.97 -13.603 0.235 75.972
7088.25 0.237 75.887 0.97 -13.69 0.97 -13.69 0.237 75.887
7113.208 0.238 75.803 0.969 -13.777 0.969 -13.777 0.238 75.803
7138.167 0.24 75.719 0.969 -13.864 0.969 -13.864 0.24 75.719
7163.125 0.241 75.635 0.969 -13.95 0.969 -13.95 0.241 75.635
7188.083 0.243 75.552 0.968 -14.037 0.968 -14.037 0.243 75.552
7213.042 0.244 75.468 0.968 -14.123 0.968 -14.123 0.244 75.468
7238 0.245 75.385 0.968 -14.209 0.968 -14.209 0.245 75.385
7262.958 0.247 75.301 0.967 -14.294 0.967 -14.294 0.247 75.301
7287.917 0.248 75.218 0.967 -14.38 0.967 -14.38 0.248 75.218
7312.875 0.25 75.136 0.967 -14.465 0.967 -14.465 0.25 75.136
7337.833 0.251 75.053 0.966 -14.55 0.966 -14.55 0.251 75.053
7362.792 0.253 74.97 0.966 -14.635 0.966 -14.635 0.253 74.97
7387.75 0.254 74.888 0.965 -14.72 0.965 -14.72 0.254 74.888
7412.708 0.256 74.806 0.965 -14.805 0.965 -14.805 0.256 74.806
7437.667 0.257 74.724 0.965 -14.889 0.965 -14.889 0.257 74.724
7462.625 0.258 74.642 0.964 -14.973 0.964 -14.973 0.258 74.642
7487.583 0.26 74.56 0.964 -15.057 0.964 -15.057 0.26 74.56
7512.542 0.261 74.478 0.964 -15.141 0.964 -15.141 0.261 74.478
7537.5 0.263 74.397 0.963 -15.225 0.963 -15.225 0.263 74.397
7562.458 0.264 74.316 0.963 -15.308 0.963 -15.308 0.264 74.316
7587.417 0.265 74.235 0.962 -15.391 0.962 -15.391 0.265 74.235
7612.375 0.267 74.154 0.962 -15.474 0.962 -15.474 0.267 74.154
7637.333 0.268 74.073 0.962 -15.557 0.962 -15.557 0.268 74.073
7662.292 0.27 73.992 0.961 -15.64 0.961 -15.64 0.27 73.992
7687.25 0.271 73.912 0.961 -15.723 0.961 -15.723 0.271 73.912
7712.208 0.272 73.831 0.96 -15.805 0.96 -15.805 0.272 73.831
7737.167 0.274 73.751 0.96 -15.887 0.96 -15.887 0.274 73.751
7762.125 0.275 73.671 0.96 -15.969 0.96 -15.969 0.275 73.671
7787.083 0.276 73.591 0.959 -16.051 0.959 -16.051 0.276 73.591
7812.042 0.278 73.511 0.959 -16.133 0.959 -16.133 0.278 73.511
7837 0.279 73.432 0.958 -16.214 0.958 -16.214 0.279 73.432
7861.958 0.281 73.352 0.958 -16.295 0.958 -16.295 0.281 73.352
7886.917 0.282 73.273 0.958 -16.377 0.958 -16.377 0.282 73.273
7911.875 0.283 73.194 0.957 -16.457 0.957 -16.457 0.283 73.194
7936.833 0.285 73.115 0.957 -16.538 0.957 -16.538 0.285 73.115
7961.792 0.286 73.036 0.957 -16.619 0.957 -16.619 0.286 73.036
7986.75 0.287 72.957 0.956 -16.699 0.956 -16.699 0.287 72.957
8011.708 0.289 72.879 0.956 -16.78 0.956 -16.78 0.289 72.879
8036.667 0.29 72.8 0.955 -16.86 0.955 -16.86 0.29 72.8
8061.625 0.291 72.722 0.955 -16.94 0.955 -16.94 0.291 72.722
8086.583 0.293 72.644 0.954 -17.02 0.954 -17.02 0.293 72.644
8111.542 0.294 72.566 0.954 -17.099 0.954 -17.099 0.294 72.566
8136.5 0.295 72.488 0.954 -17.179 0.954 -17.179 0.295 72.488
8161.458 0.297 72.41 0.953 -17.258 0.953 -17.258 0.297 72.41
8186.417 0.298 72.333 0.953 -17.337 0.953 -17.337 0.298 72.333
8211.375 0.299 72.255 0.952 -17.416 0.952 -17.416 0.299 72.255
