# MHZ S MA R 50

50 1 -1.17 0.02 88.827 0.02 88.827 1 -1.17
74.958 1 -1.754 0.031 88.241 0.031 88.241 1 -1.754
99.917 0.999 -2.337 0.041 87.656 0.041 87.656 0.999 -2.337
124.875 0.999 -2.92 0.051 87.071 0.051 87.071 0.999 -2.92
149.833 0.998 -3.503 0.061 86.486 0.061 86.486 0.998 -3.503
174.792 0.997 -4.086 0.071 85.902 0.071 85.902 0.997 -4.086
199.75 0.997 -4.667 0.081 85.319 0.081 85.319 0.997 -4.667
224.708 0.996 -5.249 0.091 84.736 0.091 84.736 0.996 -5.249
249.667 0.995 -5.829 0.102 84.154 0.102 84.154 0.995 -5.829
274.625 0.994 -6.409 0.112 83.572 0.112 83.572 0.994 -6.409
299.583 0.993 -6.988 0.122 82.992 0.122 82.992 0.993 -6.988
324.542 0.991 -7.565 0.132 82.412 0.132 82.412 0.991 -7.565
349.5 0.99 -8.142 0.142 81.833 0.142 81.833 0.99 -8.142
374.458 0.988 -8.718 0.152 81.256 0.152 81.256 0.988 -8.718
399.417 0.987 -9.293 0.161 80.679 0.161 80.679 0.987 -9.293
424.375 0.985 -9.866 0.171 80.104 0.171 80.104 0.985 -9.866
449.333 0.983 -10.439 0.181 79.53 0.181 79.53 0.983 -10.439
474.292 0.981 -11.009 0.191 78.958 0.191 78.958 0.981 -11.009
499.25 0.98 -11.579 0.201 78.387 0.201 78.387 0.98 -11.579
524.208 0.977 -12.147 0.21 77.817 0.21 77.817 0.977 -12.147
549.167 0.975 -12.713 0.22 77.249 0.22 77.249 0.975 -12.713
574.125 0.973 -13.278 0.23 76.682 0.23 76.682 0.973 -13.278
599.083 0.971 -13.841 0.239 76.118 0.239 76.118 0.971 -13.841
624.042 0.968 -14.402 0.249 75.554 0.249 75.554 0.968 -14.402
649 0.966 -14.962 0.258 74.993 0.258 74.993 0.966 -14.962
673.958 0.963 -15.519 0.268 74.434 0.268 74.434 0.963 -15.519
698.917 0.961 -16.075 0.277 73.876 0.277 73.876 0.961 -16.075
723.875 0.958 -16.629 0.286 73.321 0.286 73.321 0.958 -16.629
748.833 0.955 -17.181 0.295 72.767 0.295 72.767 0.955 -17.181
773.792 0.952 -17.73 0.305 72.216 0.305 72.216 0.952 -17.73
798.75 0.949 -18.278 0.314 71.666 0.314 71.666 0.949 -18.278
823.708 0.946 -18.823 0.323 71.119 0.323 71.119 0.946 -18.823
848.667 0.943 -19.366 0.332 70.574 0.332 70.574 0.943 -19.366
873.625 0.94 -19.907 0.34 70.032 0.34 70.032 0.94 -19.907
898.583 0.937 -20.446 0.349 69.491 0.349 69.491 0.937 -20.446
923.542 0.933 -20.982 0.358 68.953 0.358 68.953 0.933 -20.982
948.5 0.93 -21.516 0.367 68.418 0.367 68.418 0.93 -21.516
973.458 0.926 -22.047 0.375 67.884 0.375 67.884 0.926 -22.047
998.417 0.923 -22.576 0.384 67.354 0.384 67.354 0.923 -22.576
1023.375 0.919 -23.103 0.392 66.825 0.392 66.825 0.919 -23.103
1048.333 0.916 -23.627 0.401 66.3 0.401 66.3 0.916 -23.627
1073.292 0.912 -24.148 0.409 65.777 0.409 65.777 0.912 -24.148
1098.25 0.908 -24.667 0.417 65.256 0.417 65.256 0.908 -24.667
1123.208 0.904 -25.183 0.426 64.738 0.426 64.738 0.904 -25.183
1148.167 0.9 -25.696 0.434 64.223 0.434 64.223 0.9 -25.696
1173.125 0.897 -26.207 0.442 63.71 0.442 63.71 0.897 -26.207
1198.083 0.893 -26.715 0.45 63.2 0.45 63.2 0.893 -26.715
1223.042 0.889 -27.22 0.457 62.693 0.457 62.693 0.889 -27.22
1248 0.884 -27.722 0.465 62.189 0.465 62.189 0.884 -27.722
1272.958 0.88 -28.222 0.473 61.687 0.473 61.687 0.88 -28.222
1297.917 0.876 -28.719 0.481 61.188 0.481 61.188 0.876 -28.719
1322.875 0.872 -29.213 0.488 60.692 0.488 60.692 0.872 -29.213
1347.833 0.868 -29.704 0.496 60.199 0.496 60.199 0.868 -29.704
1372.792 0.863 -30.193 0.503 59.709 0.503 59.709 0.863 -30.193
1397.75 0.859 -30.678 0.51 59.221 0.51 59.221 0.859 -30.678
1422.708 0.855 -31.161 0.517 58.737 0.517 58.737 0.855 -31.161
1447.667 0.85 -31.641 0.525 58.255 0.525 58.255 0.85 -31.641
1472.625 0.846 -32.118 0.532 57.776 0.532 57.776 0.846 -32.118
1497.583 0.842 -32.592 0.539 57.3 0.539 57.3 0.842 -32.592
1522.542 0.837 -33.063 0.546 56.827 0.546 56.827 0.837 -33.063
1547.5 0.833 -33.531 0.552 56.357 0.552 56.357 0.833 -33.531
1572.458 0.828 -33.996 0.559 55.89 0.559 55.89 0.828 -33.996
1597.417 0.823 -34.459 0.566 55.425 0.566 55.425 0.823 -34.459
1622.375 0.819 -34.918 0.572 54.964 0.572 54.964 0.819 -34.918
1647.333 0.814 -35.375 0.579 54.505 0.579 54.505 0.814 -35.375
1672.292 0.81 -35.828 0.585 54.05 0.585 54.05 0.81 -35.828
1697.25 0.805 -36.279 0.592 53.597 0.592 53.597 0.805 -36.279
1722.208 0.8 -36.727 0.598 53.147 0.598 53.147 0.8 -36.727
1747.167 0.795 -37.171 0.604 52.701 0.604 52.701 0.795 -37.171
1772.125 0.791 -37.613 0.61 52.257 0.61 52.257 0.791 -37.613
1797.083 0.786 -38.052 0.616 51.816 0.616 51.816 0.786 -38.052
1822.042 0.781 -38.488 0.622 51.377 0.622 51.377 0.781 -38.488
1847 0.777 -38.921 0.628 50.942 0.628 50.942 0.777 -38.921
1871.958 0.772 -39.352 0.634 50.51 0.634 50.51 0.772 -39.352
1896.917 0.767 -39.779 0.64 50.08 0.64 50.08 0.767 -39.779
1921.875 0.762 -40.204 0.646 49.654 0.646 49.654 0.762 -40.204
1946.833 0.757 -40.625 0.651 49.23 0.651 49.23 0.757 -40.625
1971.792 0.753 -41.044 0.657 48.809 0.657 48.809 0.753 -41.044
1996.75 0.748 -41.46 0.662 48.391 0.662 48.391 0.748 -41.46
2021.708 0.743 -41.873 0.667 47.976 0.667 47.976 0.743 -41.873
2046.667 0.738 -42.283 0.673 47.563 0.673 47.563 0.738 -42.283
2071.625 0.733 -42.69 0.678 47.154 0.678 47.154 0.733 -42.69
2096.583 0.728 -43.095 0.683 46.747 0.683 46.747 0.728 -43.095
2121.542 0.723 -43.497 0.688 46.343 0.688 46.343 0.723 -43.497
2146.5 0.719 -43.896 0.693 45.942 0.693 45.942 0.719 -43.896
2171.458 0.714 -44.292 0.698 45.543 0.698 45.543 0.714 -44.292
2196.417 0.709 -44.686 0.703 45.147 0.703 45.147 0.709 -44.686
2221.375 0.704 -45.076 0.708 44.754 0.708 44.754 0.704 -45.076
2246.333 0.699 -45.464 0.713 44.364 0.713 44.364 0.699 -45.464
2271.292 0.694 -45.85 0.718 43.976 0.718 43.976 0.694 -45.85
2296.25 0.69 -46.232 0.722 43.591 0.722 43.591 0.69 -46.232
2321.208 0.685 -46.612 0.727 43.209 0.727 43.209 0.685 -46.612
2346.167 0.68 -46.99 0.731 42.829 0.731 42.829 0.68 -46.99
2371.125 0.675 -47.364 0.736 42.452 0.736 42.452 0.675 -47.364
2396.083 0.67 -47.736 0.74 42.078 0.74 42.078 0.67 -47.736
2421.042 0.665 -48.106 0.744 41.706 0.744 41.706 0.665 -48.106
2446 0.66 -48.473 0.749 41.336 0.749 41.336 0.66 -48.473
2470.958 0.656 -48.837 0.753 40.97 0.753 40.97 0.656 -48.837
2495.917 0.651 -49.198 0.757 40.606 0.757 40.606 0.651 -49.198
2520.875 0.646 -49.558 0.761 40.244 0.761 40.244 0.646 -49.558
2545.833 0.641 -49.914 0.765 39.885 0.765 39.885 0.641 -49.914
2570.792 0.636 -50.268 0.769 39.528 0.769 39.528 0.636 -50.268
2595.75 0.632 -50.62 0.773 39.174 0.773 39.174 0.632 -50.62
2620.708 0.627 -50.969 0.777 38.822 0.777 38.822 0.627 -50.969
2645.667 0.622 -51.316 0.781 38.473 0.781 38.473 0.622 -51.316
2670.625 0.617 -51.66 0.784 38.126 0.784 38.126 0.617 -51.66
2695.583 0.613 -52.002 0.788 37.781 0.788 37.781 0.613 -52.002
2720.542 0.608 -52.342 0.792 37.439 0.792 37.439 0.608 -52.342
2745.5 0.603 -52.679 0.795 37.099 0.795 37.099 0.603 -52.679
2770.458 0.598 -53.014 0.799 36.761 0.799 36.761 0.598 -53.014
2795.417 0.594 -53.346 0.802 36.426 0.802 36.426 0.594 -53.346
2820.375 0.589 -53.676 0.806 36.093 0.806 36.093 0.589 -53.676
2845.333 0.584 -54.004 0.809 35.763 0.809 35.763 0.584 -54.004
2870.292 0.58 -54.33 0.812 35.434 0.812 35.434 0.58 -54.33
2895.25 0.575 -54.653 0.816 35.108 0.816 35.108 0.575 -54.653
2920.208 0.57 -54.974 0.819 34.784 0.819 34.784 0.57 -54.974
2945.167 0.566 -55.293 0.822 34.462 0.822 34.462 0.566 -55.293
2970.125 0.561 -55.61 0.825 34.143 0.825 34.143 0.561 -55.61
2995.083 0.557 -55.924 0.828 33.825 0.828 33.825 0.557 -55.924
3020.042 0.552 -56.236 0.831 33.51 0.831 33.51 0.552 -56.236
3045 0.548 -56.546 0.834 33.197 0.834 33.197 0.548 -56.546
3069.958 0.543 -56.855 0.837 32.886 0.837 32.886 0.543 -56.855
3094.917 0.538 -57.16 0.84 32.577 0.84 32.577 0.538 -57.16
3119.875 0.534 -57.464 0.843 32.27 0.843 32.27 0.534 -57.464
3144.833 0.529 -57.766 0.846 31.965 0.846 31.965 0.529 -57.766
3169.792 0.525 -58.066 0.849 31.662 0.849 31.662 0.525 -58.066
3194.75 0.52 -58.363 0.851 31.361 0.851 31.361 0.52 -58.363
3219.708 0.516 -58.659 0.854 31.062 0.854 31.062 0.516 -58.659
3244.667 0.512 -58.953 0.857 30.765 0.857 30.765 0.512 -58.953
3269.625 0.507 -59.244 0.859 30.47 0.859 30.47 0.507 -59.244
3294.583 0.503 -59.534 0.862 30.177 0.862 30.177 0.503 -59.534
3319.542 0.498 -59.822 0.864 29.886 0.864 29.886 0.498 -59.822
3344.5 0.494 -60.108 0.867 29.597 0.867 29.597 0.494 -60.108
3369.458 0.49 -60.392 0.869 29.309 0.869 29.309 0.49 -60.392
3394.417 0.485 -60.674 0.872 29.024 0.872 29.024 0.485 -60.674
3419.375 0.481 -60.954 0.874 28.74 0.874 28.74 0.481 -60.954
3444.333 0.477 -61.232 0.877 28.458 0.877 28.458 0.477 -61.232
3469.292 0.472 -61.508 0.879 28.178 0.879 28.178 0.472 -61.508
3494.25 0.468 -61.783 0.881 27.9 0.881 27.9 0.468 -61.783
3519.208 0.464 -62.056 0.883 27.623 0.883 27.623 0.464 -62.056
3544.167 0.459 -62.327 0.886 27.348 0.886 27.348 0.459 -62.327
3569.125 0.455 -62.596 0.888 27.075 0.888 27.075 0.455 -62.596
3594.083 0.451 -62.864 0.89 26.804 0.89 26.804 0.451 -62.864
3619.042 0.447 -63.129 0.892 26.534 0.892 26.534 0.447 -63.129
3644 0.443 -63.393 0.894 26.266 0.894 26.266 0.443 -63.393
3668.958 0.438 -63.655 0.896 26 0.896 26 0.438 -63.655
3693.917 0.434 -63.916 0.898 25.735 0.898 25.735 0.434 -63.916
3718.875 0.43 -64.175 0.9 25.472 0.9 25.472 0.43 -64.175
3743.833 0.426 -64.432 0.902 25.211 0.902 25.211 0.426 -64.432
3768.792 0.422 -64.688 0.904 24.951 0.904 24.951 0.422 -64.688
3793.75 0.418 -64.942 0.906 24.693 0.906 24.693 0.418 -64.942
3818.708 0.414 -65.194 0.908 24.436 0.908 24.436 0.414 -65.194
3843.667 0.41 -65.444 0.91 24.181 0.91 24.181 0.41 -65.444
3868.625 0.406 -65.693 0.911 23.928 0.911 23.928 0.406 -65.693
3893.583 0.402 -65.941 0.913 23.676 0.913 23.676 0.402 -65.941
3918.542 0.398 -66.187 0.915 23.425 0.915 23.425 0.398 -66.187
3943.5 0.394 -66.431 0.917 23.176 0.917 23.176 0.394 -66.431
3968.458 0.39 -66.674 0.918 22.929 0.918 22.929 0.39 -66.674
3993.417 0.386 -66.915 0.92 22.683 0.92 22.683 0.386 -66.915
4018.375 0.382 -67.155 0.922 22.438 0.922 22.438 0.382 -67.155
4043.333 0.378 -67.393 0.923 22.195 0.923 22.195 0.378 -67.393
4068.292 0.374 -67.63 0.925 21.953 0.925 21.953 0.374 -67.63
4093.25 0.37 -67.865 0.926 21.713 0.926 21.713 0.37 -67.865
4118.208 0.366 -68.099 0.928 21.474 0.928 21.474 0.366 -68.099
4143.167 0.362 -68.331 0.929 21.237 0.929 21.237 0.362 -68.331
4168.125 0.358 -68.562 0.931 21 0.931 21 0.358 -68.562
4193.083 0.355 -68.791 0.932 20.766 0.932 20.766 0.355 -68.791
4218.042 0.351 -69.019 0.934 20.532 0.934 20.532 0.351 -69.019
4243 0.347 -69.246 0.935 20.3 0.935 20.3 0.347 -69.246
4267.958 0.343 -69.471 0.937 20.069 0.937 20.069 0.343 -69.471
4292.917 0.339 -69.695 0.938 19.84 0.938 19.84 0.339 -69.695
4317.875 0.336 -69.917 0.939 19.611 0.939 19.611 0.336 -69.917
4342.833 0.332 -70.138 0.941 19.384 0.941 19.384 0.332 -70.138
4367.792 0.328 -70.358 0.942 19.159 0.942 19.159 0.328 -70.358
4392.75 0.324 -70.576 0.943 18.934 0.943 18.934 0.324 -70.576
4417.708 0.321 -70.793 0.944 18.711 0.944 18.711 0.321 -70.793
4442.667 0.317 -71.009 0.946 18.489 0.946 18.489 0.317 -71.009
4467.625 0.313 -71.223 0.947 18.268 0.947 18.268 0.313 -71.223
4492.583 0.31 -71.436 0.948 18.049 0.948 18.049 0.31 -71.436
4517.542 0.306 -71.647 0.949 17.83 0.949 17.83 0.306 -71.647
4542.5 0.303 -71.858 0.95 17.613 0.95 17.613 0.303 -71.858
4567.458 0.299 -72.067 0.951 17.397 0.951 17.397 0.299 -72.067
4592.417 0.295 -72.275 0.953 17.182 0.953 17.182 0.295 -72.275
4617.375 0.292 -72.481 0.954 16.968 0.954 16.968 0.292 -72.481
4642.333 0.288 -72.686 0.955 16.756 0.955 16.756 0.288 -72.686
4667.292 0.285 -72.89 0.956 16.544 0.956 16.544 0.285 -72.89
4692.25 0.281 -73.093 0.957 16.334 0.957 16.334 0.281 -73.093
4717.208 0.278 -73.294 0.958 16.125 0.958 16.125 0.278 -73.294
4742.167 0.274 -73.494 0.959 15.917 0.959 15.917 0.274 -73.494
4767.125 0.271 -73.693 0.96 15.71 0.96 15.71 0.271 -73.693
4792.083 0.267 -73.891 0.961 15.504 0.961 15.504 0.267 -73.891
4817.042 0.264 -74.087 0.962 15.299 0.962 15.299 0.264 -74.087
4842 0.26 -74.282 0.963 15.095 0.963 15.095 0.26 -74.282
4866.958 0.257 -74.476 0.964 14.892 0.964 14.892 0.257 -74.476
4891.917 0.254 -74.669 0.964 14.69 0.964 14.69 0.254 -74.669
4916.875 0.25 -74.861 0.965 14.489 0.965 14.489 0.25 -74.861
4941.833 0.247 -75.051 0.966 14.29 0.966 14.29 0.247 -75.051
4966.792 0.243 -75.24 0.967 14.091 0.967 14.091 0.243 -75.24
4991.75 0.24 -75.428 0.968 13.893 0.968 13.893 0.24 -75.428
5016.708 0.237 -75.614 0.969 13.696 0.969 13.696 0.237 -75.614
5041.667 0.233 -75.8 0.97 13.5 0.97 13.5 0.233 -75.8
5066.625 0.23 -75.984 0.97 13.306 0.97 13.306 0.23 -75.984
5091.583 0.227 -76.167 0.971 13.112 0.971 13.112 0.227 -76.167
5116.542 0.224 -76.349 0.972 12.919 0.972 12.919 0.224 -76.349
5141.5 0.22 -76.53 0.973 12.727 0.973 12.727 0.22 -76.53
5166.458 0.217 -76.709 0.973 12.536 0.973 12.536 0.217 -76.709
5191.417 0.214 -76.887 0.974 12.345 0.974 12.345 0.214 -76.887
5216.375 0.211 -77.064 0.975 12.156 0.975 12.156 0.211 -77.064
5241.333 0.207 -77.24 0.975 11.968 0.975 11.968 0.207 -77.24
5266.292 0.204 -77.414 0.976 11.78 0.976 11.78 0.204 -77.414
5291.25 0.201 -77.587 0.977 11.594 0.977 11.594 0.201 -77.587
5316.208 0.198 -77.759 0.977 11.408 0.977 11.408 0.198 -77.759
5341.167 0.195 -77.93 0.978 11.223 0.978 11.223 0.195 -77.93
5366.125 0.192 -78.1 0.979 11.039 0.979 11.039 0.192 -78.1
5391.083 0.188 -78.268 0.979 10.856 0.979 10.856 0.188 -78.268
5416.042 0.185 -78.435 0.98 10.674 0.98 10.674 0.185 -78.435
5441 0.182 -78.6 0.98 10.493 0.98 10.493 0.182 -78.6
5465.958 0.179 -78.765 0.981 10.312 0.981 10.312 0.179 -78.765
5490.917 0.176 -78.928 0.982 10.132 0.982 10.132 0.176 -78.928
5515.875 0.173 -79.089 0.982 9.954 0.982 9.954 0.173 -79.089
5540.833 0.17 -79.25 0.983 9.775 0.983 9.775 0.17 -79.25
5565.792 0.167 -79.409 0.983 9.598 0.983 9.598 0.167 -79.409
5590.75 0.164 -79.566 0.984 9.422 0.984 9.422 0.164 -79.566
5615.708 0.161 -79.722 0.984 9.246 0.984 9.246 0.161 -79.722
5640.667 0.158 -79.877 0.985 9.071 0.985 9.071 0.158 -79.877
5665.625 0.155 -80.03 0.985 8.897 0.985 8.897 0.155 -80.03
5690.583 0.152 -80.182 0.986 8.724 0.986 8.724 0.152 -80.182
5715.542 0.149 -80.332 0.986 8.551 0.986 8.551 0.149 -80.332
5740.5 0.146 -80.481 0.986 8.379 0.986 8.379 0.146 -80.481
5765.458 0.143 -80.628 0.987 8.208 0.987 8.208 0.143 -80.628
5790.417 0.14 -80.773 0.987 8.038 0.987 8.038 0.14 -80.773
5815.375 0.137 -80.917 0.988 7.868 0.988 7.868 0.137 -80.917
5840.333 0.134 -81.058 0.988 7.699 0.988 7.699 0.134 -81.058
5865.292 0.131 -81.199 0.988 7.531 0.988 7.531 0.131 -81.199
5890.25 0.128 -81.337 0.989 7.364 0.989 7.364 0.128 -81.337
5915.208 0.125 -81.473 0.989 7.197 0.989 7.197 0.125 -81.473
5940.167 0.122 -81.607 0.99 7.031 0.99 7.031 0.122 -81.607
5965.125 0.12 -81.74 0.99 6.865 0.99 6.865 0.12 -81.74
5990.083 0.117 -81.87 0.99 6.701 0.99 6.701 0.117 -81.87
6015.042 0.114 -81.997 0.991 6.537 0.991 6.537 0.114 -81.997
6040 0.111 -82.123 0.991 6.374 0.991 6.374 0.111 -82.123
6064.958 0.108 -82.246 0.991 6.211 0.991 6.211 0.108 -82.246
6089.917 0.105 -82.366 0.992 6.049 0.992 6.049 0.105 -82.366
6114.875 0.103 -82.484 0.992 5.888 0.992 5.888 0.103 -82.484
6139.833 0.1 -82.598 0.992 5.727 0.992 5.727 0.1 -82.598
6164.792 0.097 -82.71 0.992 5.567 0.992 5.567 0.097 -82.71
6189.75 0.094 -82.818 0.993 5.408 0.993 5.408 0.094 -82.818
6214.708 0.092 -82.923 0.993 5.249 0.993 5.249 0.092 -82.923
6239.667 0.089 -83.024 0.993 5.092 0.993 5.092 0.089 -83.024
6264.625 0.086 -83.121 0.993 4.934 0.993 4.934 0.086 -83.121
6289.583 0.083 -83.213 0.994 4.777 0.994 4.777 0.083 -83.213
6314.542 0.081 -83.301 0.994 4.621 0.994 4.621 0.081 -83.301
6339.5 0.078 -83.384 0.994 4.466 0.994 4.466 0.078 -83.384
6364.458 0.075 -83.462 0.994 4.311 0.994 4.311 0.075 -83.462
6389.417 0.073 -83.533 0.994 4.157 0.994 4.157 0.073 -83.533
6414.375 0.07 -83.598 0.995 4.003 0.995 4.003 0.07 -83.598
6439.333 0.067 -83.655 0.995 3.85 0.995 3.85 0.067 -83.655
6464.292 0.065 -83.705 0.995 3.698 0.995 3.698 0.065 -83.705
6489.25 0.062 -83.745 0.995 3.546 0.995 3.546 0.062 -83.745
6514.208 0.059 -83.776 0.995 3.394 0.995 3.394 0.059 -83.776
6539.167 0.057 -83.795 0.995 3.244 0.995 3.244 0.057 -83.795
6564.125 0.054 -83.801 0.996 3.094 0.996 3.094 0.054 -83.801
6589.083 0.051 -83.793 0.996 2.944 0.996 2.944 0.051 -83.793
6614.042 0.049 -83.768 0.996 2.795 0.996 2.795 0.049 -83.768
6639 0.046 -83.724 0.996 2.647 0.996 2.647 0.046 -83.724
6663.958 0.044 -83.657 0.996 2.499 0.996 2.499 0.044 -83.657
6688.917 0.041 -83.564 0.996 2.351 0.996 2.351 0.041 -83.564
6713.875 0.039 -83.44 0.996 2.205 0.996 2.205 0.039 -83.44
6738.833 0.036 -83.278 0.996 2.059 0.996 2.059 0.036 -83.278
6763.792 0.034 -83.07 0.997 1.913 0.997 1.913 0.034 -83.07
6788.75 0.031 -82.805 0.997 1.768 0.997 1.768 0.031 -82.805
6813.708 0.028 -82.469 0.997 1.623 0.997 1.623 0.028 -82.469
6838.667 0.026 -82.042 0.997 1.479 0.997 1.479 0.026 -82.042
6863.625 0.023 -81.496 0.997 1.335 0.997 1.335 0.023 -81.496
6888.583 0.021 -80.79 0.997 1.192 0.997 1.192 0.021 -80.79
6913.542 0.019 -79.861 0.997 1.05 0.997 1.05 0.019 -79.861
6938.5 0.016 -78.611 0.997 0.908 0.997 0.908 0.016 -78.611
6963.458 0.014 -76.872 0.997 0.767 0.997 0.767 0.014 -76.872
6988.417 0.011 -74.342 0.997 0.626 0.997 0.626 0.011 -74.342
7013.375 8.959e-3 -70.413 0.997 0.485 0.997 0.485 8.959e-3 -70.413
7038.333 6.699e-3 -63.699 0.997 0.345 0.997 0.345 6.699e-3 -63.699
7063.292 4.634e-3 -50.547 0.997 0.206 0.997 0.206 4.634e-3 -50.547
7088.25 3.154e-3 -21.575 0.997 0.067 0.997 0.067 3.154e-3 -21.575
7113.208 3.189e-3 23.081 0.997 -0.072 0.997 -0.072 3.189e-3 23.081
7138.167 4.692e-3 51.111 0.997 -0.21 0.997 -0.21 4.692e-3 51.111
7163.125 6.734e-3 63.844 0.997 -0.347 0.997 -0.347 6.734e-3 63.844
7188.083 8.949e-3 70.39 0.997 -0.484 0.997 -0.484 8.949e-3 70.39
7213.042 0.011 74.242 0.997 -0.621 0.997 -0.621 0.011 74.242
7238 0.014 76.733 0.997 -0.757 0.997 -0.757 0.014 76.733
7262.958 0.016 78.451 0.997 -0.893 0.997 -0.893 0.016 78.451
7287.917 0.018 79.691 0.997 -1.028 0.997 -1.028 0.018 79.691
7312.875 0.021 80.616 0.997 -1.163 0.997 -1.163 0.021 80.616
7337.833 0.023 81.323 0.997 -1.297 0.997 -1.297 0.023 81.323
7362.792 0.025 81.873 0.997 -1.431 0.997 -1.431 0.025 81.873
7387.75 0.027 82.307 0.997 -1.564 0.997 -1.564 0.027 82.307
7412.708 0.03 82.651 0.997 -1.697 0.997 -1.697 0.03 82.651
7437.667 0.032 82.925 0.997 -1.829 0.997 -1.829 0.032 82.925
7462.625 0.034 83.145 0.996 -1.961 0.996 -1.961 0.034 83.145
7487.583 0.037 83.32 0.996 -2.093 0.996 -2.093 0.037 83.32
7512.542 0.039 83.458 0.996 -2.224 0.996 -2.224 0.039 83.458
7537.5 0.041 83.567 0.996 -2.355 0.996 -2.355 0.041 83.567
7562.458 0.043 83.65 0.996 -2.485 0.996 -2.485 0.043 83.65
7587.417 0.046 83.712 0.996 -2.615 0.996 -2.615 0.046 83.712
7612.375 0.048 83.755 0.996 -2.744 0.996 -2.744 0.048 83.755
7637.333 0.05 83.783 0.996 -2.873 0.996 -2.873 0.05 83.783
7662.292 0.052 83.798 0.996 -3.002 0.996 -3.002 0.052 83.798
7687.25 0.055 83.801 0.996 -3.13 0.996 -3.13 0.055 83.801
7712.208 0.057 83.793 0.995 -3.258 0.995 -3.258 0.057 83.793
7737.167 0.059 83.777 0.995 -3.385 0.995 -3.385 0.059 83.777
7762.125 0.061 83.753 0.995 -3.512 0.995 -3.512 0.061 83.753
7787.083 0.064 83.722 0.995 -3.638 0.995 -3.638 0.064 83.722
7812.042 0.066 83.684 0.995 -3.765 0.995 -3.765 0.066 83.684
7837 0.068 83.641 0.995 -3.89 0.995 -3.89 0.068 83.641
7861.958 0.07 83.593 0.995 -4.016 0.995 -4.016 0.07 83.593
7886.917 0.072 83.54 0.994 -4.14 0.994 -4.14 0.072 83.54
7911.875 0.074 83.483 0.994 -4.265 0.994 -4.265 0.074 83.483
7936.833 0.077 83.423 0.994 -4.389 0.994 -4.389 0.077 83.423
7961.792 0.079 83.36 0.994 -4.513 0.994 -4.513 0.079 83.36
7986.75 0.081 83.293 0.994 -4.636 0.994 -4.636 0.081 83.293
8011.708 0.083 83.224 0.994 -4.759 0.994 -4.759 0.083 83.224
8036.667 0.085 83.152 0.993 -4.882 0.993 -4.882 0.085 83.152
8061.625 0.087 83.078 0.993 -5.004 0.993 -5.004 0.087 83.078
8086.583 0.089 83.002 0.993 -5.126 0.993 -5.126 0.089 83.002
8111.542 0.092 82.924 0.993 -5.247 0.993 -5.247 0.092 82.924
8136.5 0.094 82.844 0.993 -5.368 0.993 -5.368 0.094 82.844
8161.458 0.096 82.763 0.992 -5.489 0.992 -5.489 0.096 82.763
8186.417 0.098 82.681 0.992 -5.61 0.992 -5.61 0.098 82.681
