# MHZ S MA R 50

50 0.999 -2.788 0.049 87.206 0.049 87.206 0.999 -2.788
74.958 0.997 -4.176 0.073 85.815 0.073 85.815 0.997 -4.176
99.917 0.995 -5.56 0.097 84.428 0.097 84.428 0.995 -5.56
124.875 0.993 -6.939 0.121 83.047 0.121 83.047 0.993 -6.939
149.833 0.989 -8.31 0.145 81.672 0.145 81.672 0.989 -8.31
174.792 0.986 -9.674 0.168 80.306 0.168 80.306 0.986 -9.674
199.75 0.981 -11.028 0.191 78.949 0.191 78.949 0.981 -11.028
224.708 0.977 -12.372 0.214 77.602 0.214 77.602 0.977 -12.372
249.667 0.971 -13.704 0.237 76.267 0.237 76.267 0.971 -13.704
274.625 0.966 -15.023 0.259 74.945 0.259 74.945 0.966 -15.023
299.583 0.959 -16.328 0.281 73.636 0.281 73.636 0.959 -16.328
324.542 0.953 -17.619 0.303 72.343 0.303 72.343 0.953 -17.619
349.5 0.946 -18.895 0.324 71.064 0.324 71.064 0.946 -18.895
374.458 0.939 -20.154 0.345 69.802 0.345 69.802 0.939 -20.154
399.417 0.931 -21.397 0.365 68.556 0.365 68.556 0.931 -21.397
424.375 0.923 -22.622 0.385 67.328 0.385 67.328 0.923 -22.622
449.333 0.914 -23.829 0.404 66.118 0.404 66.118 0.914 -23.829
474.292 0.906 -25.018 0.423 64.926 0.423 64.926 0.906 -25.018
499.25 0.897 -26.188 0.441 63.754 0.441 63.754 0.897 -26.188
524.208 0.888 -27.338 0.459 62.6 0.459 62.6 0.888 -27.338
549.167 0.879 -28.469 0.477 61.466 0.477 61.466 0.879 -28.469
574.125 0.869 -29.581 0.494 60.351 0.494 60.351 0.869 -29.581
599.083 0.859 -30.673 0.51 59.256 0.51 59.256 0.859 -30.673
624.042 0.85 -31.745 0.526 58.181 0.526 58.181 0.85 -31.745
649 0.84 -32.798 0.542 57.125 0.542 57.125 0.84 -32.798
673.958 0.83 -33.83 0.557 56.09 0.557 56.09 0.83 -33.83
698.917 0.82 -34.843 0.571 55.074 0.571 55.074 0.82 -34.843
723.875 0.81 -35.836 0.585 54.077 0.585 54.077 0.81 -35.836
748.833 0.8 -36.809 0.599 53.101 0.599 53.101 0.8 -36.809
773.792 0.79 -37.764 0.612 52.143 0.612 52.143 0.79 -37.764
798.75 0.779 -38.699 0.625 51.205 0.625 51.205 0.779 -38.699
823.708 0.769 -39.615 0.638 50.285 0.638 50.285 0.769 -39.615
848.667 0.759 -40.513 0.65 49.385 0.65 49.385 0.759 -40.513
873.625 0.749 -41.392 0.661 48.502 0.661 48.502 0.749 -41.392
898.583 0.739 -42.253 0.672 47.638 0.672 47.638 0.739 -42.253
923.542 0.729 -43.097 0.683 46.791 0.683 46.791 0.729 -43.097
948.5 0.719 -43.923 0.694 45.962 0.694 45.962 0.719 -43.923
973.458 0.709 -44.731 0.704 45.15 0.704 45.15 0.709 -44.731
998.417 0.699 -45.523 0.714 44.354 0.714 44.354 0.699 -45.523
1023.375 0.689 -46.299 0.723 43.575 0.723 43.575 0.689 -46.299
1048.333 0.68 -47.058 0.732 42.812 0.732 42.812 0.68 -47.058
1073.292 0.67 -47.802 0.741 42.065 0.741 42.065 0.67 -47.802
1098.25 0.66 -48.53 0.749 41.334 0.749 41.334 0.66 -48.53
1123.208 0.651 -49.244 0.757 40.617 0.757 40.617 0.651 -49.244
1148.167 0.642 -49.942 0.765 39.915 0.765 39.915 0.642 -49.942
1173.125 0.632 -50.626 0.773 39.227 0.773 39.227 0.632 -50.626
1198.083 0.623 -51.297 0.78 38.553 0.78 38.553 0.623 -51.297
1223.042 0.614 -51.953 0.788 37.893 0.788 37.893 0.614 -51.953
1248 0.605 -52.596 0.794 37.247 0.794 37.247 0.605 -52.596
1272.958 0.596 -53.226 0.801 36.613 0.801 36.613 0.596 -53.226
1297.917 0.588 -53.844 0.807 35.992 0.807 35.992 0.588 -53.844
1322.875 0.579 -54.449 0.814 35.383 0.814 35.383 0.579 -54.449
1347.833 0.571 -55.042 0.82 34.786 0.82 34.786 0.571 -55.042
1372.792 0.562 -55.624 0.825 34.201 0.825 34.201 0.562 -55.624
1397.75 0.554 -56.193 0.831 33.627 0.831 33.627 0.554 -56.193
1422.708 0.546 -56.752 0.836 33.064 0.836 33.064 0.546 -56.752
1447.667 0.537 -57.3 0.842 32.512 0.842 32.512 0.537 -57.3
1472.625 0.529 -57.838 0.847 31.971 0.847 31.971 0.529 -57.838
1497.583 0.522 -58.365 0.851 31.439 0.851 31.439 0.522 -58.365
1522.542 0.514 -58.882 0.856 30.918 0.856 30.918 0.514 -58.882
1547.5 0.506 -59.39 0.861 30.406 0.861 30.406 0.506 -59.39
1572.458 0.499 -59.888 0.865 29.904 0.865 29.904 0.499 -59.888
1597.417 0.491 -60.377 0.869 29.411 0.869 29.411 0.491 -60.377
1622.375 0.484 -60.857 0.873 28.927 0.873 28.927 0.484 -60.857
1647.333 0.476 -61.328 0.877 28.452 0.877 28.452 0.476 -61.328
1672.292 0.469 -61.79 0.881 27.985 0.881 27.985 0.469 -61.79
1697.25 0.462 -62.245 0.885 27.526 0.885 27.526 0.462 -62.245
1722.208 0.455 -62.691 0.889 27.075 0.889 27.075 0.455 -62.691
1747.167 0.448 -63.13 0.892 26.632 0.892 26.632 0.448 -63.13
1772.125 0.441 -63.56 0.895 26.197 0.895 26.197 0.441 -63.56
1797.083 0.435 -63.984 0.899 25.769 0.899 25.769 0.435 -63.984
1822.042 0.428 -64.4 0.902 25.348 0.902 25.348 0.428 -64.4
1847 0.422 -64.809 0.905 24.934 0.905 24.934 0.422 -64.809
1871.958 0.415 -65.211 0.908 24.527 0.908 24.527 0.415 -65.211
1896.917 0.409 -65.607 0.911 24.127 0.911 24.127 0.409 -65.607
1921.875 0.402 -65.996 0.914 23.733 0.914 23.733 0.402 -65.996
1946.833 0.396 -66.378 0.916 23.345 0.916 23.345 0.396 -66.378
1971.792 0.39 -66.754 0.919 22.963 0.919 22.963 0.39 -66.754
1996.75 0.384 -67.125 0.921 22.588 0.921 22.588 0.384 -67.125
2021.708 0.378 -67.489 0.924 22.218 0.924 22.218 0.378 -67.489
2046.667 0.372 -67.848 0.926 21.854 0.926 21.854 0.372 -67.848
2071.625 0.366 -68.201 0.929 21.496 0.929 21.496 0.366 -68.201
2096.583 0.361 -68.548 0.931 21.142 0.931 21.142 0.361 -68.548
2121.542 0.355 -68.891 0.933 20.795 0.933 20.795 0.355 -68.891
2146.5 0.349 -69.228 0.935 20.452 0.935 20.452 0.349 -69.228
2171.458 0.344 -69.56 0.937 20.114 0.937 20.114 0.344 -69.56
2196.417 0.338 -69.887 0.939 19.781 0.939 19.781 0.338 -69.887
2221.375 0.333 -70.209 0.941 19.453 0.941 19.453 0.333 -70.209
2246.333 0.328 -70.526 0.943 19.129 0.943 19.129 0.328 -70.526
2271.292 0.322 -70.839 0.945 18.81 0.945 18.81 0.322 -70.839
2296.25 0.317 -71.147 0.946 18.495 0.946 18.495 0.317 -71.147
2321.208 0.312 -71.451 0.948 18.185 0.948 18.185 0.312 -71.451
2346.167 0.307 -71.751 0.95 17.879 0.95 17.879 0.307 -71.751
2371.125 0.302 -72.046 0.951 17.577 0.951 17.577 0.302 -72.046
2396.083 0.297 -72.337 0.953 17.279 0.953 17.279 0.297 -72.337
2421.042 0.292 -72.624 0.954 16.985 0.954 16.985 0.292 -72.624
2446 0.287 -72.907 0.956 16.694 0.956 16.694 0.287 -72.907
2470.958 0.282 -73.187 0.957 16.407 0.957 16.407 0.282 -73.187
2495.917 0.278 -73.462 0.959 16.124 0.959 16.124 0.278 -73.462
2520.875 0.273 -73.734 0.96 15.845 0.96 15.845 0.273 -73.734
2545.833 0.268 -74.002 0.961 15.569 0.961 15.569 0.268 -74.002
2570.792 0.264 -74.267 0.963 15.296 0.963 15.296 0.264 -74.267
2595.75 0.259 -74.528 0.964 15.027 0.964 15.027 0.259 -74.528
2620.708 0.255 -74.786 0.965 14.761 0.965 14.761 0.255 -74.786
2645.667 0.25 -75.04 0.966 14.498 0.966 14.498 0.25 -75.04
2670.625 0.246 -75.291 0.967 14.238 0.967 14.238 0.246 -75.291
2695.583 0.242 -75.539 0.968 13.981 0.968 13.981 0.242 -75.539
2720.542 0.237 -75.784 0.969 13.727 0.969 13.727 0.237 -75.784
2745.5 0.233 -76.025 0.97 13.476 0.97 13.476 0.233 -76.025
2770.458 0.229 -76.264 0.971 13.228 0.971 13.228 0.229 -76.264
2795.417 0.225 -76.499 0.972 12.982 0.972 12.982 0.225 -76.499
2820.375 0.221 -76.732 0.973 12.739 0.973 12.739 0.221 -76.732
2845.333 0.216 -76.962 0.974 12.499 0.974 12.499 0.216 -76.962
2870.292 0.212 -77.188 0.975 12.262 0.975 12.262 0.212 -77.188
2895.25 0.208 -77.412 0.976 12.027 0.976 12.027 0.208 -77.412
2920.208 0.204 -77.634 0.977 11.794 0.977 11.794 0.204 -77.634
2945.167 0.2 -77.852 0.978 11.564 0.978 11.564 0.2 -77.852
2970.125 0.197 -78.068 0.978 11.336 0.978 11.336 0.197 -78.068
2995.083 0.193 -78.281 0.979 11.111 0.979 11.111 0.193 -78.281
3020.042 0.189 -78.491 0.98 10.888 0.98 10.888 0.189 -78.491
3045 0.185 -78.699 0.981 10.667 0.981 10.667 0.185 -78.699
3069.958 0.181 -78.904 0.981 10.448 0.981 10.448 0.181 -78.904
3094.917 0.178 -79.106 0.982 10.231 0.982 10.231 0.178 -79.106
3119.875 0.174 -79.306 0.983 10.017 0.983 10.017 0.174 -79.306
3144.833 0.17 -79.504 0.983 9.804 0.983 9.804 0.17 -79.504
3169.792 0.167 -79.699 0.984 9.594 0.984 9.594 0.167 -79.699
3194.75 0.163 -79.891 0.985 9.386 0.985 9.386 0.163 -79.891
3219.708 0.16 -80.081 0.985 9.179 0.985 9.179 0.16 -80.081
3244.667 0.156 -80.269 0.986 8.974 0.986 8.974 0.156 -80.269
3269.625 0.153 -80.454 0.986 8.772 0.986 8.772 0.153 -80.454
3294.583 0.149 -80.636 0.987 8.571 0.987 8.571 0.149 -80.636
3319.542 0.146 -80.816 0.987 8.372 0.987 8.372 0.146 -80.816
3344.5 0.142 -80.994 0.988 8.174 0.988 8.174 0.142 -80.994
3369.458 0.139 -81.169 0.988 7.979 0.988 7.979 0.139 -81.169
3394.417 0.135 -81.341 0.989 7.785 0.989 7.785 0.135 -81.341
3419.375 0.132 -81.511 0.989 7.592 0.989 7.592 0.132 -81.511
3444.333 0.129 -81.678 0.99 7.402 0.99 7.402 0.129 -81.678
3469.292 0.126 -81.843 0.99 7.213 0.99 7.213 0.126 -81.843
3494.25 0.122 -82.005 0.99 7.025 0.99 7.025 0.122 -82.005
3519.208 0.119 -82.164 0.991 6.839 0.991 6.839 0.119 -82.164
3544.167 0.116 -82.321 0.991 6.655 0.991 6.655 0.116 -82.321
3569.125 0.113 -82.475 0.992 6.472 0.992 6.472 0.113 -82.475
3594.083 0.11 -82.626 0.992 6.29 0.992 6.29 0.11 -82.626
3619.042 0.106 -82.774 0.992 6.11 0.992 6.11 0.106 -82.774
3644 0.103 -82.918 0.993 5.931 0.993 5.931 0.103 -82.918
3668.958 0.1 -83.06 0.993 5.754 0.993 5.754 0.1 -83.06
3693.917 0.097 -83.198 0.993 5.578 0.993 5.578 0.097 -83.198
3718.875 0.094 -83.333 0.993 5.403 0.993 5.403 0.094 -83.333
3743.833 0.091 -83.464 0.994 5.23 0.994 5.23 0.091 -83.464
3768.792 0.088 -83.592 0.994 5.058 0.994 5.058 0.088 -83.592
3793.75 0.085 -83.715 0.994 4.887 0.994 4.887 0.085 -83.715
3818.708 0.082 -83.834 0.995 4.718 0.995 4.718 0.082 -83.834
3843.667 0.079 -83.949 0.995 4.549 0.995 4.549 0.079 -83.949
3868.625 0.076 -84.058 0.995 4.382 0.995 4.382 0.076 -84.058
3893.583 0.074 -84.163 0.995 4.216 0.995 4.216 0.074 -84.163
3918.542 0.071 -84.261 0.995 4.052 0.995 4.052 0.071 -84.261
3943.5 0.068 -84.354 0.996 3.888 0.996 3.888 0.068 -84.354
3968.458 0.065 -84.44 0.996 3.725 0.996 3.725 0.065 -84.44
3993.417 0.062 -84.518 0.996 3.564 0.996 3.564 0.062 -84.518
4018.375 0.059 -84.587 0.996 3.404 0.996 3.404 0.059 -84.587
4043.333 0.057 -84.648 0.996 3.245 0.996 3.245 0.057 -84.648
4068.292 0.054 -84.698 0.996 3.086 0.996 3.086 0.054 -84.698
4093.25 0.051 -84.736 0.997 2.929 0.997 2.929 0.051 -84.736
4118.208 0.048 -84.761 0.997 2.773 0.997 2.773 0.048 -84.761
4143.167 0.046 -84.77 0.997 2.618 0.997 2.618 0.046 -84.77
4168.125 0.043 -84.761 0.997 2.464 0.997 2.464 0.043 -84.761
4193.083 0.04 -84.73 0.997 2.311 0.997 2.311 0.04 -84.73
4218.042 0.038 -84.674 0.997 2.159 0.997 2.159 0.038 -84.674
4243 0.035 -84.586 0.997 2.007 0.997 2.007 0.035 -84.586
4267.958 0.032 -84.462 0.997 1.857 0.997 1.857 0.032 -84.462
4292.917 0.03 -84.29 0.997 1.708 0.997 1.708 0.03 -84.29
4317.875 0.027 -84.058 0.998 1.559 0.998 1.559 0.027 -84.058
4342.833 0.025 -83.749 0.998 1.411 0.998 1.411 0.025 -83.749
4367.792 0.022 -83.337 0.998 1.265 0.998 1.265 0.022 -83.337
4392.75 0.02 -82.784 0.998 1.119 0.998 1.119 0.02 -82.784
4417.708 0.017 -82.029 0.998 0.974 0.998 0.974 0.017 -82.029
4442.667 0.015 -80.972 0.998 0.83 0.998 0.83 0.015 -80.972
4467.625 0.012 -79.434 0.998 0.686 0.998 0.686 0.012 -79.434
4492.583 9.715e-3 -77.057 0.998 0.544 0.998 0.544 9.715e-3 -77.057
4517.542 7.318e-3 -73.035 0.998 0.402 0.998 0.402 7.318e-3 -73.035
4542.5 5.009e-3 -65.126 0.998 0.261 0.998 0.261 5.009e-3 -65.126
4567.458 2.965e-3 -45.162 0.998 0.121 0.998 0.121 2.965e-3 -45.162
4592.417 2.112e-3 8.886 0.998 -0.019 0.998 -0.019 2.112e-3 8.886
4617.375 3.45e-3 52.632 0.998 -0.157 0.998 -0.157 3.45e-3 52.632
4642.333 5.561e-3 67.672 0.998 -0.295 0.998 -0.295 5.561e-3 67.672
4667.292 7.832e-3 74.121 0.998 -0.433 0.998 -0.433 7.832e-3 74.121
4692.25 0.01 77.569 0.998 -0.569 0.998 -0.569 0.01 77.569
4717.208 0.012 79.67 0.998 -0.705 0.998 -0.705 0.012 79.67
4742.167 0.015 81.061 0.998 -0.84 0.998 -0.84 0.015 81.061
4767.125 0.017 82.032 0.998 -0.974 0.998 -0.974 0.017 82.032
4792.083 0.019 82.735 0.998 -1.108 0.998 -1.108 0.019 82.735
4817.042 0.022 83.258 0.998 -1.241 0.998 -1.241 0.022 83.258
4842 0.024 83.653 0.998 -1.373 0.998 -1.373 0.024 83.653
4866.958 0.026 83.955 0.998 -1.505 0.998 -1.505 0.026 83.955
4891.917 0.029 84.186 0.998 -1.636 0.998 -1.636 0.029 84.186
4916.875 0.031 84.364 0.997 -1.766 0.997 -1.766 0.031 84.364
4941.833 0.033 84.498 0.997 -1.896 0.997 -1.896 0.033 84.498
4966.792 0.035 84.599 0.997 -2.025 0.997 -2.025 0.035 84.599
4991.75 0.038 84.671 0.997 -2.154 0.997 -2.154 0.038 84.671
5016.708 0.04 84.721 0.997 -2.282 0.997 -2.282 0.04 84.721
5041.667 0.042 84.752 0.997 -2.409 0.997 -2.409 0.042 84.752
5066.625 0.044 84.767 0.997 -2.536 0.997 -2.536 0.044 84.767
5091.583 0.046 84.769 0.997 -2.662 0.997 -2.662 0.046 84.769
5116.542 0.049 84.759 0.997 -2.787 0.997 -2.787 0.049 84.759
5141.5 0.051 84.74 0.997 -2.912 0.997 -2.912 0.051 84.74
5166.458 0.053 84.711 0.997 -3.037 0.997 -3.037 0.053 84.711
5191.417 0.055 84.676 0.996 -3.16 0.996 -3.16 0.055 84.676
5216.375 0.057 84.634 0.996 -3.284 0.996 -3.284 0.057 84.634
5241.333 0.059 84.586 0.996 -3.406 0.996 -3.406 0.059 84.586
5266.292 0.062 84.534 0.996 -3.529 0.996 -3.529 0.062 84.534
5291.25 0.064 84.477 0.996 -3.65 0.996 -3.65 0.064 84.477
5316.208 0.066 84.416 0.996 -3.772 0.996 -3.772 0.066 84.416
5341.167 0.068 84.352 0.996 -3.892 0.996 -3.892 0.068 84.352
5366.125 0.07 84.284 0.995 -4.012 0.995 -4.012 0.07 84.284
5391.083 0.072 84.214 0.995 -4.132 0.995 -4.132 0.072 84.214
5416.042 0.074 84.141 0.995 -4.251 0.995 -4.251 0.074 84.141
5441 0.076 84.067 0.995 -4.37 0.995 -4.37 0.076 84.067
5465.958 0.078 83.99 0.995 -4.488 0.995 -4.488 0.078 83.99
5490.917 0.08 83.911 0.995 -4.605 0.995 -4.605 0.08 83.911
5515.875 0.082 83.831 0.995 -4.723 0.995 -4.723 0.082 83.831
5540.833 0.084 83.749 0.994 -4.839 0.994 -4.839 0.084 83.749
5565.792 0.086 83.666 0.994 -4.956 0.994 -4.956 0.086 83.666
5590.75 0.088 83.582 0.994 -5.071 0.994 -5.071 0.088 83.582
5615.708 0.09 83.497 0.994 -5.187 0.994 -5.187 0.09 83.497
5640.667 0.092 83.411 0.994 -5.302 0.994 -5.302 0.092 83.411
5665.625 0.094 83.324 0.993 -5.416 0.993 -5.416 0.094 83.324
5690.583 0.096 83.236 0.993 -5.53 0.993 -5.53 0.096 83.236
5715.542 0.098 83.147 0.993 -5.644 0.993 -5.644 0.098 83.147
5740.5 0.1 83.058 0.993 -5.757 0.993 -5.757 0.1 83.058
5765.458 0.102 82.968 0.993 -5.869 0.993 -5.869 0.102 82.968
5790.417 0.104 82.878 0.992 -5.982 0.992 -5.982 0.104 82.878
5815.375 0.106 82.787 0.992 -6.093 0.992 -6.093 0.106 82.787
5840.333 0.108 82.696 0.992 -6.205 0.992 -6.205 0.108 82.696
5865.292 0.11 82.604 0.992 -6.316 0.992 -6.316 0.11 82.604
5890.25 0.112 82.513 0.992 -6.426 0.992 -6.426 0.112 82.513
5915.208 0.114 82.42 0.991 -6.537 0.991 -6.537 0.114 82.42
5940.167 0.116 82.328 0.991 -6.646 0.991 -6.646 0.116 82.328
5965.125 0.118 82.235 0.991 -6.756 0.991 -6.756 0.118 82.235
5990.083 0.12 82.142 0.991 -6.865 0.991 -6.865 0.12 82.142
6015.042 0.121 82.049 0.991 -6.974 0.991 -6.974 0.121 82.049
6040 0.123 81.956 0.99 -7.082 0.99 -7.082 0.123 81.956
6064.958 0.125 81.863 0.99 -7.19 0.99 -7.19 0.125 81.863
6089.917 0.127 81.769 0.99 -7.297 0.99 -7.297 0.127 81.769
6114.875 0.129 81.676 0.99 -7.404 0.99 -7.404 0.129 81.676
6139.833 0.131 81.582 0.989 -7.511 0.989 -7.511 0.131 81.582
6164.792 0.133 81.489 0.989 -7.618 0.989 -7.618 0.133 81.489
6189.75 0.134 81.395 0.989 -7.724 0.989 -7.724 0.134 81.395
6214.708 0.136 81.301 0.989 -7.829 0.989 -7.829 0.136 81.301
6239.667 0.138 81.208 0.988 -7.935 0.988 -7.935 0.138 81.208
6264.625 0.14 81.114 0.988 -8.04 0.988 -8.04 0.14 81.114
6289.583 0.142 81.021 0.988 -8.144 0.988 -8.144 0.142 81.021
6314.542 0.143 80.927 0.988 -8.249 0.988 -8.249 0.143 80.927
6339.5 0.145 80.833 0.987 -8.353 0.987 -8.353 0.145 80.833
6364.458 0.147 80.74 0.987 -8.456 0.987 -8.456 0.147 80.74
6389.417 0.149 80.646 0.987 -8.56 0.987 -8.56 0.149 80.646
6414.375 0.151 80.553 0.987 -8.662 0.987 -8.662 0.151 80.553
6439.333 0.152 80.46 0.986 -8.765 0.986 -8.765 0.152 80.46
6464.292 0.154 80.366 0.986 -8.867 0.986 -8.867 0.154 80.366
6489.25 0.156 80.273 0.986 -8.969 0.986 -8.969 0.156 80.273
6514.208 0.158 80.18 0.985 -9.071 0.985 -9.071 0.158 80.18
6539.167 0.159 80.087 0.985 -9.172 0.985 -9.172 0.159 80.087
6564.125 0.161 79.994 0.985 -9.274 0.985 -9.274 0.161 79.994
6589.083 0.163 79.902 0.985 -9.374 0.985 -9.374 0.163 79.902
6614.042 0.165 79.809 0.984 -9.475 0.984 -9.475 0.165 79.809
6639 0.166 79.717 0.984 -9.575 0.984 -9.575 0.166 79.717
6663.958 0.168 79.624 0.984 -9.675 0.984 -9.675 0.168 79.624
6688.917 0.17 79.532 0.983 -9.774 0.983 -9.774 0.17 79.532
6713.875 0.171 79.44 0.983 -9.873 0.983 -9.873 0.171 79.44
6738.833 0.173 79.348 0.983 -9.972 0.983 -9.972 0.173 79.348
6763.792 0.175 79.256 0.983 -10.071 0.983 -10.071 0.175 79.256
6788.75 0.177 79.164 0.982 -10.169 0.982 -10.169 0.177 79.164
6813.708 0.178 79.073 0.982 -10.267 0.982 -10.267 0.178 79.073
6838.667 0.18 78.981 0.982 -10.365 0.982 -10.365 0.18 78.981
6863.625 0.182 78.89 0.981 -10.463 0.981 -10.463 0.182 78.89
6888.583 0.183 78.799 0.981 -10.56 0.981 -10.56 0.183 78.799
6913.542 0.185 78.708 0.981 -10.657 0.981 -10.657 0.185 78.708
6938.5 0.187 78.617 0.98 -10.754 0.98 -10.754 0.187 78.617
6963.458 0.188 78.526 0.98 -10.85 0.98 -10.85 0.188 78.526
6988.417 0.19 78.436 0.98 -10.946 0.98 -10.946 0.19 78.436
7013.375 0.192 78.346 0.979 -11.042 0.979 -11.042 0.192 78.346
7038.333 0.193 78.255 0.979 -11.138 0.979 -11.138 0.193 78.255
7063.292 0.195 78.165 0.979 -11.233 0.979 -11.233 0.195 78.165
7088.25 0.196 78.075 0.978 -11.328 0.978 -11.328 0.196 78.075
7113.208 0.198 77.986 0.978 -11.423 0.978 -11.423 0.198 77.986
7138.167 0.2 77.896 0.978 -11.517 0.978 -11.517 0.2 77.896
7163.125 0.201 77.807 0.977 -11.612 0.977 -11.612 0.201 77.807
7188.083 0.203 77.718 0.977 -11.706 0.977 -11.706 0.203 77.718
7213.042 0.204 77.628 0.977 -11.799 0.977 -11.799 0.204 77.628
7238 0.206 77.54 0.976 -11.893 0.976 -11.893 0.206 77.54
7262.958 0.208 77.451 0.976 -11.986 0.976 -11.986 0.208 77.451
7287.917 0.209 77.362 0.976 -12.079 0.976 -12.079 0.209 77.362
7312.875 0.211 77.274 0.975 -12.172 0.975 -12.172 0.211 77.274
7337.833 0.212 77.186 0.975 -12.265 0.975 -12.265 0.212 77.186
7362.792 0.214 77.098 0.975 -12.357 0.975 -12.357 0.214 77.098
7387.75 0.216 77.01 0.974 -12.449 0.974 -12.449 0.216 77.01
7412.708 0.217 76.922 0.974 -12.541 0.974 -12.541 0.217 76.922
7437.667 0.219 76.834 0.974 -12.632 0.974 -12.632 0.219 76.834
7462.625 0.22 76.747 0.973 -12.724 0.973 -12.724 0.22 76.747
7487.583 0.222 76.66 0.973 -12.815 0.973 -12.815 0.222 76.66
7512.542 0.223 76.573 0.973 -12.906 0.973 -12.906 0.223 76.573
7537.5 0.225 76.486 0.972 -12.996 0.972 -12.996 0.225 76.486
7562.458 0.226 76.399 0.972 -13.087 0.972 -13.087 0.226 76.399
7587.417 0.228 76.313 0.972 -13.177 0.972 -13.177 0.228 76.313
7612.375 0.229 76.226 0.971 -13.267 0.971 -13.267 0.229 76.226
7637.333 0.231 76.14 0.971 -13.357 0.971 -13.357 0.231 76.14
7662.292 0.233 76.054 0.971 -13.446 0.971 -13.446 0.233 76.054
7687.25 0.234 75.968 0.97 -13.536 0.97 -13.536 0.234 75.968
7712.208 0.236 75.882 0.97 -13.625 0.97 -13.625 0.236 75.882
7737.167 0.237 75.797 0.969 -13.714 0.969 -13.714 0.237 75.797
7762.125 0.239 75.711 0.969 -13.802 0.969 -13.802 0.239 75.711
7787.083 0.24 75.626 0.969 -13.891 0.969 -13.891 0.24 75.626
7812.042 0.242 75.541 0.968 -13.979 0.968 -13.979 0.242 75.541
7837 0.243 75.456 0.968 -14.067 0.968 -14.067 0.243 75.456
7861.958 0.245 75.371 0.968 -14.155 0.968 -14.155 0.245 75.371
7886.917 0.246 75.287 0.967 -14.242 0.967 -14.242 0.246 75.287
7911.875 0.248 75.202 0.967 -14.33 0.967 -14.33 0.248 75.202
7936.833 0.249 75.118 0.966 -14.417 0.966 -14.417 0.249 75.118
7961.792 0.25 75.034 0.966 -14.504 0.966 -14.504 0.25 75.034
7986.75 0.252 74.95 0.966 -14.591 0.966 -14.591 0.252 74.95
8011.708 0.253 74.866 0.965 -14.677 0.965 -14.677 0.253 74.866
8036.667 0.255 74.783 0.965 -14.764 0.965 -14.764 0.255 74.783
8061.625 0.256 74.699 0.965 -14.85 0.965 -14.85 0.256 74.699
8086.583 0.258 74.616 0.964 -14.936 0.964 -14.936 0.258 74.616
8111.542 0.259 74.533 0.964 -15.022 0.964 -15.022 0.259 74.533
8136.5 0.261 74.45 0.963 -15.107 0.963 -15.107 0.261 74.45
8161.458 0.262 74.367 0.963 -15.192 0.963 -15.192 0.262 74.367
8186.417 0.264 74.285 0.963 -15.278 0.963 -15.278 0.264 74.285
