# MHZ S MA R 50

50 0.999 -2.968 0.052 87.026 0.052 87.026 0.999 -2.968
74.958 0.997 -4.445 0.077 85.546 0.077 85.546 0.997 -4.445
99.917 0.995 -5.917 0.103 84.071 0.103 84.071 0.995 -5.917
124.875 0.992 -7.382 0.128 82.603 0.128 82.603 0.992 -7.382
149.833 0.988 -8.839 0.154 81.143 0.154 81.143 0.988 -8.839
174.792 0.984 -10.286 0.179 79.693 0.179 79.693 0.984 -10.286
199.75 0.979 -11.722 0.203 78.254 0.203 78.254 0.979 -11.722
224.708 0.974 -13.145 0.227 76.828 0.227 76.828 0.974 -13.145
249.667 0.968 -14.554 0.251 75.416 0.251 75.416 0.968 -14.554
274.625 0.961 -15.947 0.275 74.019 0.275 74.019 0.961 -15.947
299.583 0.954 -17.325 0.298 72.639 0.298 72.639 0.954 -17.325
324.542 0.947 -18.685 0.32 71.276 0.32 71.276 0.947 -18.685
349.5 0.939 -20.026 0.342 69.931 0.342 69.931 0.939 -20.026
374.458 0.931 -21.349 0.364 68.606 0.364 68.606 0.931 -21.349
399.417 0.923 -22.651 0.385 67.3 0.385 67.3 0.923 -22.651
424.375 0.914 -23.933 0.406 66.015 0.406 66.015 0.914 -23.933
449.333 0.904 -25.194 0.426 64.752 0.426 64.752 0.904 -25.194
474.292 0.895 -26.433 0.445 63.509 0.445 63.509 0.895 -26.433
499.25 0.885 -27.65 0.464 62.289 0.464 62.289 0.885 -27.65
524.208 0.875 -28.845 0.482 61.091 0.482 61.091 0.875 -28.845
549.167 0.865 -30.017 0.5 59.915 0.5 59.915 0.865 -30.017
574.125 0.855 -31.167 0.518 58.762 0.518 58.762 0.855 -31.167
599.083 0.845 -32.295 0.534 57.632 0.534 57.632 0.845 -32.295
624.042 0.834 -33.4 0.55 56.524 0.55 56.524 0.834 -33.4
649 0.824 -34.482 0.566 55.438 0.566 55.438 0.824 -34.482
673.958 0.813 -35.541 0.581 54.375 0.581 54.375 0.813 -35.541
698.917 0.802 -36.579 0.596 53.335 0.596 53.335 0.802 -36.579
723.875 0.791 -37.594 0.61 52.316 0.61 52.316 0.791 -37.594
748.833 0.781 -38.588 0.624 51.319 0.624 51.319 0.781 -38.588
773.792 0.77 -39.56 0.637 50.344 0.637 50.344 0.77 -39.56
798.75 0.759 -40.511 0.65 49.39 0.65 49.39 0.759 -40.511
823.708 0.748 -41.441 0.662 48.456 0.662 48.456 0.748 -41.441
848.667 0.738 -42.35 0.674 47.544 0.674 47.544 0.738 -42.35
873.625 0.727 -43.239 0.685 46.651 0.685 46.651 0.727 -43.239
898.583 0.717 -44.109 0.696 45.778 0.696 45.778 0.717 -44.109
923.542 0.706 -44.959 0.707 44.925 0.707 44.925 0.706 -44.959
948.5 0.696 -45.79 0.717 44.09 0.717 44.09 0.696 -45.79
973.458 0.685 -46.603 0.727 43.274 0.727 43.274 0.685 -46.603
998.417 0.675 -47.397 0.736 42.476 0.736 42.476 0.675 -47.397
1023.375 0.665 -48.174 0.745 41.696 0.745 41.696 0.665 -48.174
1048.333 0.655 -48.933 0.754 40.933 0.754 40.933 0.655 -48.933
1073.292 0.645 -49.676 0.762 40.186 0.762 40.186 0.645 -49.676
1098.25 0.635 -50.402 0.771 39.457 0.771 39.457 0.635 -50.402
1123.208 0.626 -51.113 0.778 38.743 0.778 38.743 0.626 -51.113
1148.167 0.616 -51.807 0.786 38.044 0.786 38.044 0.616 -51.807
1173.125 0.607 -52.487 0.793 37.361 0.793 37.361 0.607 -52.487
1198.083 0.598 -53.152 0.8 36.692 0.8 36.692 0.598 -53.152
1223.042 0.588 -53.802 0.807 36.038 0.807 36.038 0.588 -53.802
1248 0.579 -54.439 0.813 35.398 0.813 35.398 0.579 -54.439
1272.958 0.57 -55.062 0.82 34.771 0.82 34.771 0.57 -55.062
1297.917 0.561 -55.672 0.826 34.157 0.826 34.157 0.561 -55.672
1322.875 0.553 -56.268 0.832 33.556 0.832 33.556 0.553 -56.268
1347.833 0.544 -56.853 0.837 32.968 0.837 32.968 0.544 -56.853
1372.792 0.536 -57.425 0.843 32.392 0.843 32.392 0.536 -57.425
1397.75 0.527 -57.986 0.848 31.827 0.848 31.827 0.527 -57.986
1422.708 0.519 -58.535 0.853 31.274 0.853 31.274 0.519 -58.535
1447.667 0.511 -59.073 0.858 30.732 0.858 30.732 0.511 -59.073
1472.625 0.503 -59.6 0.863 30.2 0.863 30.2 0.503 -59.6
1497.583 0.495 -60.117 0.867 29.679 0.867 29.679 0.495 -60.117
1522.542 0.487 -60.623 0.871 29.169 0.871 29.169 0.487 -60.623
1547.5 0.48 -61.12 0.876 28.668 0.876 28.668 0.48 -61.12
1572.458 0.472 -61.607 0.88 28.176 0.88 28.176 0.472 -61.607
1597.417 0.465 -62.085 0.884 27.694 0.884 27.694 0.465 -62.085
1622.375 0.457 -62.553 0.887 27.221 0.887 27.221 0.457 -62.553
1647.333 0.45 -63.013 0.891 26.757 0.891 26.757 0.45 -63.013
1672.292 0.443 -63.464 0.895 26.301 0.895 26.301 0.443 -63.464
1697.25 0.436 -63.907 0.898 25.854 0.898 25.854 0.436 -63.907
1722.208 0.429 -64.341 0.901 25.415 0.901 25.415 0.429 -64.341
1747.167 0.422 -64.768 0.905 24.983 0.905 24.983 0.422 -64.768
1772.125 0.416 -65.187 0.908 24.559 0.908 24.559 0.416 -65.187
1797.083 0.409 -65.598 0.911 24.143 0.911 24.143 0.409 -65.598
1822.042 0.402 -66.003 0.914 23.733 0.914 23.733 0.402 -66.003
1847 0.396 -66.4 0.916 23.331 0.916 23.331 0.396 -66.4
1871.958 0.39 -66.79 0.919 22.935 0.919 22.935 0.39 -66.79
1896.917 0.383 -67.174 0.922 22.546 0.922 22.546 0.383 -67.174
1921.875 0.377 -67.551 0.924 22.164 0.924 22.164 0.377 -67.551
1946.833 0.371 -67.922 0.927 21.788 0.927 21.788 0.371 -67.922
1971.792 0.365 -68.286 0.929 21.418 0.929 21.418 0.365 -68.286
1996.75 0.359 -68.645 0.931 21.053 0.931 21.053 0.359 -68.645
2021.708 0.353 -68.998 0.934 20.695 0.934 20.695 0.353 -68.998
2046.667 0.348 -69.345 0.936 20.342 0.936 20.342 0.348 -69.345
2071.625 0.342 -69.686 0.938 19.995 0.938 19.995 0.342 -69.686
2096.583 0.336 -70.022 0.94 19.653 0.94 19.653 0.336 -70.022
2121.542 0.331 -70.353 0.942 19.316 0.942 19.316 0.331 -70.353
2146.5 0.325 -70.679 0.944 18.984 0.944 18.984 0.325 -70.679
2171.458 0.32 -70.999 0.946 18.657 0.946 18.657 0.32 -70.999
2196.417 0.315 -71.315 0.947 18.335 0.947 18.335 0.315 -71.315
2221.375 0.309 -71.626 0.949 18.017 0.949 18.017 0.309 -71.626
2246.333 0.304 -71.932 0.951 17.704 0.951 17.704 0.304 -71.932
2271.292 0.299 -72.234 0.952 17.396 0.952 17.396 0.299 -72.234
2296.25 0.294 -72.531 0.954 17.092 0.954 17.092 0.294 -72.531
2321.208 0.289 -72.824 0.955 16.792 0.955 16.792 0.289 -72.824
2346.167 0.284 -73.112 0.957 16.496 0.957 16.496 0.284 -73.112
2371.125 0.279 -73.397 0.958 16.204 0.958 16.204 0.279 -73.397
2396.083 0.274 -73.677 0.96 15.916 0.96 15.916 0.274 -73.677
2421.042 0.269 -73.953 0.961 15.632 0.961 15.632 0.269 -73.953
2446 0.265 -74.226 0.962 15.351 0.962 15.351 0.265 -74.226
2470.958 0.26 -74.495 0.964 15.074 0.964 15.074 0.26 -74.495
2495.917 0.255 -74.76 0.965 14.801 0.965 14.801 0.255 -74.76
2520.875 0.251 -75.021 0.966 14.531 0.966 14.531 0.251 -75.021
2545.833 0.246 -75.279 0.967 14.265 0.967 14.265 0.246 -75.279
2570.792 0.242 -75.533 0.968 14.001 0.968 14.001 0.242 -75.533
2595.75 0.238 -75.784 0.969 13.741 0.969 13.741 0.238 -75.784
2620.708 0.233 -76.031 0.97 13.485 0.97 13.485 0.233 -76.031
2645.667 0.229 -76.275 0.971 13.231 0.971 13.231 0.229 -76.275
2670.625 0.225 -76.516 0.972 12.98 0.972 12.98 0.225 -76.516
2695.583 0.22 -76.754 0.973 12.732 0.973 12.732 0.22 -76.754
2720.542 0.216 -76.989 0.974 12.487 0.974 12.487 0.216 -76.989
2745.5 0.212 -77.22 0.975 12.245 0.975 12.245 0.212 -77.22
2770.458 0.208 -77.449 0.976 12.005 0.976 12.005 0.208 -77.449
2795.417 0.204 -77.674 0.977 11.768 0.977 11.768 0.204 -77.674
2820.375 0.2 -77.897 0.978 11.534 0.978 11.534 0.2 -77.897
2845.333 0.196 -78.117 0.979 11.303 0.979 11.303 0.196 -78.117
2870.292 0.192 -78.333 0.979 11.073 0.979 11.073 0.192 -78.333
2895.25 0.188 -78.547 0.98 10.847 0.98 10.847 0.188 -78.547
2920.208 0.184 -78.759 0.981 10.622 0.981 10.622 0.184 -78.759
2945.167 0.181 -78.967 0.982 10.4 0.982 10.4 0.181 -78.967
2970.125 0.177 -79.173 0.982 10.181 0.982 10.181 0.177 -79.173
2995.083 0.173 -79.376 0.983 9.963 0.983 9.963 0.173 -79.376
3020.042 0.169 -79.576 0.984 9.748 0.984 9.748 0.169 -79.576
3045 0.166 -79.774 0.984 9.535 0.984 9.535 0.166 -79.774
3069.958 0.162 -79.969 0.985 9.324 0.985 9.324 0.162 -79.969
3094.917 0.158 -80.162 0.985 9.115 0.985 9.115 0.158 -80.162
3119.875 0.155 -80.351 0.986 8.908 0.986 8.908 0.155 -80.351
3144.833 0.151 -80.539 0.986 8.703 0.986 8.703 0.151 -80.539
3169.792 0.148 -80.723 0.987 8.5 0.987 8.5 0.148 -80.723
3194.75 0.144 -80.905 0.988 8.299 0.988 8.299 0.144 -80.905
3219.708 0.141 -81.085 0.988 8.099 0.988 8.099 0.141 -81.085
3244.667 0.137 -81.262 0.988 7.902 0.988 7.902 0.137 -81.262
3269.625 0.134 -81.436 0.989 7.706 0.989 7.706 0.134 -81.436
3294.583 0.131 -81.607 0.989 7.512 0.989 7.512 0.131 -81.607
3319.542 0.127 -81.776 0.99 7.32 0.99 7.32 0.127 -81.776
3344.5 0.124 -81.942 0.99 7.13 0.99 7.13 0.124 -81.942
3369.458 0.121 -82.106 0.991 6.941 0.991 6.941 0.121 -82.106
3394.417 0.118 -82.266 0.991 6.754 0.991 6.754 0.118 -82.266
3419.375 0.114 -82.424 0.991 6.568 0.991 6.568 0.114 -82.424
3444.333 0.111 -82.579 0.992 6.384 0.992 6.384 0.111 -82.579
3469.292 0.108 -82.73 0.992 6.201 0.992 6.201 0.108 -82.73
3494.25 0.105 -82.879 0.992 6.02 0.992 6.02 0.105 -82.879
3519.208 0.102 -83.025 0.993 5.841 0.993 5.841 0.102 -83.025
3544.167 0.099 -83.167 0.993 5.663 0.993 5.663 0.099 -83.167
3569.125 0.096 -83.306 0.993 5.486 0.993 5.486 0.096 -83.306
3594.083 0.093 -83.441 0.994 5.31 0.994 5.31 0.093 -83.441
3619.042 0.09 -83.572 0.994 5.137 0.994 5.137 0.09 -83.572
3644 0.087 -83.7 0.994 4.964 0.994 4.964 0.087 -83.7
3668.958 0.084 -83.823 0.994 4.793 0.994 4.793 0.084 -83.823
3693.917 0.081 -83.942 0.995 4.623 0.995 4.623 0.081 -83.942
3718.875 0.078 -84.056 0.995 4.454 0.995 4.454 0.078 -84.056
3743.833 0.075 -84.165 0.995 4.286 0.995 4.286 0.075 -84.165
3768.792 0.072 -84.269 0.995 4.12 0.995 4.12 0.072 -84.269
3793.75 0.069 -84.366 0.996 3.955 0.996 3.955 0.069 -84.366
3818.708 0.066 -84.457 0.996 3.791 0.996 3.791 0.066 -84.457
3843.667 0.063 -84.541 0.996 3.629 0.996 3.629 0.063 -84.541
3868.625 0.061 -84.617 0.996 3.467 0.996 3.467 0.061 -84.617
3893.583 0.058 -84.685 0.996 3.307 0.996 3.307 0.058 -84.685
3918.542 0.055 -84.742 0.996 3.147 0.996 3.147 0.055 -84.742
3943.5 0.052 -84.789 0.997 2.989 0.997 2.989 0.052 -84.789
3968.458 0.049 -84.822 0.997 2.832 0.997 2.832 0.049 -84.822
3993.417 0.047 -84.842 0.997 2.676 0.997 2.676 0.047 -84.842
4018.375 0.044 -84.844 0.997 2.521 0.997 2.521 0.044 -84.844
4043.333 0.041 -84.826 0.997 2.367 0.997 2.367 0.041 -84.826
4068.292 0.039 -84.786 0.997 2.214 0.997 2.214 0.039 -84.786
4093.25 0.036 -84.717 0.997 2.062 0.997 2.062 0.036 -84.717
4118.208 0.033 -84.613 0.997 1.911 0.997 1.911 0.033 -84.613
4143.167 0.031 -84.468 0.998 1.761 0.998 1.761 0.031 -84.468
4168.125 0.028 -84.269 0.998 1.611 0.998 1.611 0.028 -84.269
4193.083 0.026 -84.001 0.998 1.463 0.998 1.463 0.026 -84.001
4218.042 0.023 -83.643 0.998 1.316 0.998 1.316 0.023 -83.643
4243 0.021 -83.162 0.998 1.169 0.998 1.169 0.021 -83.162
4267.958 0.018 -82.508 0.998 1.024 0.998 1.024 0.018 -82.508
4292.917 0.015 -81.599 0.998 0.879 0.998 0.879 0.015 -81.599
4317.875 0.013 -80.294 0.998 0.735 0.998 0.735 0.013 -80.294
4342.833 0.011 -78.321 0.998 0.592 0.998 0.592 0.011 -78.321
4367.792 8.116e-3 -75.093 0.998 0.45 0.998 0.45 8.116e-3 -75.093
4392.75 5.761e-3 -69.098 0.998 0.309 0.998 0.309 5.761e-3 -69.098
4417.708 3.571e-3 -55.26 0.998 0.168 0.998 0.168 3.571e-3 -55.26
4442.667 2.088e-3 -13.883 0.998 0.029 0.998 0.029 2.088e-3 -13.883
4467.625 2.794e-3 43.391 0.998 -0.11 0.998 -0.11 2.794e-3 43.391
4492.583 4.785e-3 64.696 0.998 -0.248 0.998 -0.248 4.785e-3 64.696
4517.542 7.031e-3 72.864 0.998 -0.386 0.998 -0.386 7.031e-3 72.864
4542.5 9.34e-3 76.948 0.998 -0.522 0.998 -0.522 9.34e-3 76.948
4567.458 0.012 79.34 0.998 -0.658 0.998 -0.658 0.012 79.34
4592.417 0.014 80.883 0.998 -0.794 0.998 -0.794 0.014 80.883
4617.375 0.016 81.941 0.998 -0.928 0.998 -0.928 0.016 81.941
4642.333 0.019 82.699 0.998 -1.062 0.998 -1.062 0.019 82.699
4667.292 0.021 83.256 0.998 -1.195 0.998 -1.195 0.021 83.256
4692.25 0.023 83.674 0.998 -1.327 0.998 -1.327 0.023 83.674
4717.208 0.026 83.992 0.998 -1.459 0.998 -1.459 0.026 83.992
4742.167 0.028 84.235 0.998 -1.59 0.998 -1.59 0.028 84.235
4767.125 0.03 84.42 0.998 -1.72 0.998 -1.72 0.03 84.42
4792.083 0.032 84.56 0.997 -1.85 0.997 -1.85 0.032 84.56
4817.042 0.035 84.665 0.997 -1.979 0.997 -1.979 0.035 84.665
4842 0.037 84.741 0.997 -2.107 0.997 -2.107 0.037 84.741
4866.958 0.039 84.793 0.997 -2.235 0.997 -2.235 0.039 84.793
4891.917 0.041 84.826 0.997 -2.362 0.997 -2.362 0.041 84.826
4916.875 0.043 84.842 0.997 -2.489 0.997 -2.489 0.043 84.842
4941.833 0.046 84.845 0.997 -2.615 0.997 -2.615 0.046 84.845
4966.792 0.048 84.836 0.997 -2.74 0.997 -2.74 0.048 84.836
4991.75 0.05 84.816 0.997 -2.865 0.997 -2.865 0.05 84.816
5016.708 0.052 84.789 0.997 -2.989 0.997 -2.989 0.052 84.789
5041.667 0.054 84.753 0.997 -3.113 0.997 -3.113 0.054 84.753
5066.625 0.056 84.711 0.996 -3.236 0.996 -3.236 0.056 84.711
5091.583 0.059 84.664 0.996 -3.359 0.996 -3.359 0.059 84.664
5116.542 0.061 84.611 0.996 -3.481 0.996 -3.481 0.061 84.611
5141.5 0.063 84.554 0.996 -3.602 0.996 -3.602 0.063 84.554
5166.458 0.065 84.493 0.996 -3.723 0.996 -3.723 0.065 84.493
5191.417 0.067 84.429 0.996 -3.843 0.996 -3.843 0.067 84.429
5216.375 0.069 84.361 0.996 -3.963 0.996 -3.963 0.069 84.361
5241.333 0.071 84.291 0.995 -4.083 0.995 -4.083 0.071 84.291
5266.292 0.073 84.218 0.995 -4.202 0.995 -4.202 0.073 84.218
5291.25 0.075 84.144 0.995 -4.32 0.995 -4.32 0.075 84.144
5316.208 0.077 84.067 0.995 -4.438 0.995 -4.438 0.077 84.067
5341.167 0.079 83.988 0.995 -4.555 0.995 -4.555 0.079 83.988
5366.125 0.081 83.908 0.995 -4.672 0.995 -4.672 0.081 83.908
5391.083 0.083 83.826 0.994 -4.788 0.994 -4.788 0.083 83.826
5416.042 0.086 83.743 0.994 -4.904 0.994 -4.904 0.086 83.743
5441 0.088 83.659 0.994 -5.02 0.994 -5.02 0.088 83.659
5465.958 0.09 83.574 0.994 -5.134 0.994 -5.134 0.09 83.574
5490.917 0.092 83.487 0.994 -5.249 0.994 -5.249 0.092 83.487
5515.875 0.093 83.4 0.994 -5.363 0.994 -5.363 0.093 83.4
5540.833 0.095 83.313 0.993 -5.477 0.993 -5.477 0.095 83.313
5565.792 0.097 83.224 0.993 -5.59 0.993 -5.59 0.097 83.224
5590.75 0.099 83.135 0.993 -5.703 0.993 -5.703 0.099 83.135
5615.708 0.101 83.045 0.993 -5.815 0.993 -5.815 0.101 83.045
5640.667 0.103 82.955 0.993 -5.927 0.993 -5.927 0.103 82.955
5665.625 0.105 82.864 0.992 -6.038 0.992 -6.038 0.105 82.864
5690.583 0.107 82.773 0.992 -6.149 0.992 -6.149 0.107 82.773
5715.542 0.109 82.682 0.992 -6.26 0.992 -6.26 0.109 82.682
5740.5 0.111 82.59 0.992 -6.37 0.992 -6.37 0.111 82.59
5765.458 0.113 82.498 0.992 -6.48 0.992 -6.48 0.113 82.498
5790.417 0.115 82.406 0.991 -6.589 0.991 -6.589 0.115 82.406
5815.375 0.117 82.313 0.991 -6.698 0.991 -6.698 0.117 82.313
5840.333 0.119 82.221 0.991 -6.807 0.991 -6.807 0.119 82.221
5865.292 0.12 82.128 0.991 -6.915 0.991 -6.915 0.12 82.128
5890.25 0.122 82.035 0.99 -7.023 0.99 -7.023 0.122 82.035
5915.208 0.124 81.942 0.99 -7.13 0.99 -7.13 0.124 81.942
5940.167 0.126 81.849 0.99 -7.237 0.99 -7.237 0.126 81.849
5965.125 0.128 81.755 0.99 -7.344 0.99 -7.344 0.128 81.755
5990.083 0.13 81.662 0.99 -7.45 0.99 -7.45 0.13 81.662
6015.042 0.132 81.569 0.989 -7.556 0.989 -7.556 0.132 81.569
6040 0.133 81.475 0.989 -7.662 0.989 -7.662 0.133 81.475
6064.958 0.135 81.382 0.989 -7.767 0.989 -7.767 0.135 81.382
6089.917 0.137 81.289 0.989 -7.872 0.989 -7.872 0.137 81.289
6114.875 0.139 81.195 0.988 -7.976 0.988 -7.976 0.139 81.195
6139.833 0.141 81.102 0.988 -8.08 0.988 -8.08 0.141 81.102
6164.792 0.142 81.008 0.988 -8.184 0.988 -8.184 0.142 81.008
6189.75 0.144 80.915 0.988 -8.288 0.988 -8.288 0.144 80.915
6214.708 0.146 80.822 0.987 -8.391 0.987 -8.391 0.146 80.822
6239.667 0.148 80.729 0.987 -8.494 0.987 -8.494 0.148 80.729
6264.625 0.149 80.636 0.987 -8.596 0.987 -8.596 0.149 80.636
6289.583 0.151 80.543 0.986 -8.698 0.986 -8.698 0.151 80.543
6314.542 0.153 80.45 0.986 -8.8 0.986 -8.8 0.153 80.45
6339.5 0.155 80.357 0.986 -8.902 0.986 -8.902 0.155 80.357
6364.458 0.156 80.264 0.986 -9.003 0.986 -9.003 0.156 80.264
6389.417 0.158 80.172 0.985 -9.104 0.985 -9.104 0.158 80.172
6414.375 0.16 80.079 0.985 -9.204 0.985 -9.204 0.16 80.079
6439.333 0.162 79.987 0.985 -9.305 0.985 -9.305 0.162 79.987
6464.292 0.163 79.895 0.985 -9.405 0.985 -9.405 0.163 79.895
6489.25 0.165 79.802 0.984 -9.504 0.984 -9.504 0.165 79.802
6514.208 0.167 79.71 0.984 -9.604 0.984 -9.604 0.167 79.71
6539.167 0.169 79.618 0.984 -9.703 0.984 -9.703 0.169 79.618
6564.125 0.17 79.527 0.983 -9.801 0.983 -9.801 0.17 79.527
6589.083 0.172 79.435 0.983 -9.9 0.983 -9.9 0.172 79.435
6614.042 0.174 79.344 0.983 -9.998 0.983 -9.998 0.174 79.344
6639 0.175 79.252 0.983 -10.096 0.983 -10.096 0.175 79.252
6663.958 0.177 79.161 0.982 -10.193 0.982 -10.193 0.177 79.161
6688.917 0.179 79.07 0.982 -10.291 0.982 -10.291 0.179 79.07
6713.875 0.18 78.979 0.982 -10.388 0.982 -10.388 0.18 78.979
6738.833 0.182 78.888 0.981 -10.484 0.981 -10.484 0.182 78.888
6763.792 0.184 78.798 0.981 -10.581 0.981 -10.581 0.184 78.798
6788.75 0.185 78.707 0.981 -10.677 0.981 -10.677 0.185 78.707
6813.708 0.187 78.617 0.98 -10.773 0.98 -10.773 0.187 78.617
6838.667 0.189 78.527 0.98 -10.868 0.98 -10.868 0.189 78.527
6863.625 0.19 78.437 0.98 -10.964 0.98 -10.964 0.19 78.437
6888.583 0.192 78.347 0.979 -11.059 0.979 -11.059 0.192 78.347
6913.542 0.193 78.257 0.979 -11.154 0.979 -11.154 0.193 78.257
6938.5 0.195 78.168 0.979 -11.248 0.979 -11.248 0.195 78.168
6963.458 0.197 78.079 0.978 -11.343 0.978 -11.343 0.197 78.079
6988.417 0.198 77.989 0.978 -11.437 0.978 -11.437 0.198 77.989
7013.375 0.2 77.9 0.978 -11.531 0.978 -11.531 0.2 77.9
7038.333 0.201 77.812 0.978 -11.624 0.978 -11.624 0.201 77.812
7063.292 0.203 77.723 0.977 -11.717 0.977 -11.717 0.203 77.723
7088.25 0.205 77.634 0.977 -11.81 0.977 -11.81 0.205 77.634
7113.208 0.206 77.546 0.977 -11.903 0.977 -11.903 0.206 77.546
7138.167 0.208 77.458 0.976 -11.996 0.976 -11.996 0.208 77.458
7163.125 0.209 77.37 0.976 -12.088 0.976 -12.088 0.209 77.37
7188.083 0.211 77.282 0.976 -12.18 0.976 -12.18 0.211 77.282
7213.042 0.213 77.194 0.975 -12.272 0.975 -12.272 0.213 77.194
7238 0.214 77.107 0.975 -12.363 0.975 -12.363 0.214 77.107
7262.958 0.216 77.02 0.974 -12.455 0.974 -12.455 0.216 77.02
7287.917 0.217 76.932 0.974 -12.546 0.974 -12.546 0.217 76.932
7312.875 0.219 76.845 0.974 -12.637 0.974 -12.637 0.219 76.845
7337.833 0.22 76.759 0.973 -12.727 0.973 -12.727 0.22 76.759
7362.792 0.222 76.672 0.973 -12.818 0.973 -12.818 0.222 76.672
7387.75 0.223 76.585 0.973 -12.908 0.973 -12.908 0.223 76.585
7412.708 0.225 76.499 0.972 -12.998 0.972 -12.998 0.225 76.499
7437.667 0.226 76.413 0.972 -13.088 0.972 -13.088 0.226 76.413
7462.625 0.228 76.327 0.972 -13.177 0.972 -13.177 0.228 76.327
7487.583 0.229 76.241 0.971 -13.267 0.971 -13.267 0.229 76.241
7512.542 0.231 76.155 0.971 -13.356 0.971 -13.356 0.231 76.155
7537.5 0.233 76.07 0.971 -13.444 0.971 -13.444 0.233 76.07
7562.458 0.234 75.985 0.97 -13.533 0.97 -13.533 0.234 75.985
7587.417 0.236 75.899 0.97 -13.622 0.97 -13.622 0.236 75.899
7612.375 0.237 75.814 0.97 -13.71 0.97 -13.71 0.237 75.814
7637.333 0.239 75.73 0.969 -13.798 0.969 -13.798 0.239 75.73
7662.292 0.24 75.645 0.969 -13.885 0.969 -13.885 0.24 75.645
7687.25 0.241 75.56 0.968 -13.973 0.968 -13.973 0.241 75.56
7712.208 0.243 75.476 0.968 -14.06 0.968 -14.06 0.243 75.476
7737.167 0.244 75.392 0.968 -14.148 0.968 -14.148 0.244 75.392
7762.125 0.246 75.308 0.967 -14.235 0.967 -14.235 0.246 75.308
7787.083 0.247 75.224 0.967 -14.321 0.967 -14.321 0.247 75.224
7812.042 0.249 75.14 0.967 -14.408 0.967 -14.408 0.249 75.14
7837 0.25 75.057 0.966 -14.494 0.966 -14.494 0.25 75.057
7861.958 0.252 74.973 0.966 -14.58 0.966 -14.58 0.252 74.973
7886.917 0.253 74.89 0.965 -14.666 0.965 -14.666 0.253 74.89
7911.875 0.255 74.807 0.965 -14.752 0.965 -14.752 0.255 74.807
7936.833 0.256 74.724 0.965 -14.837 0.965 -14.837 0.256 74.724
7961.792 0.258 74.642 0.964 -14.923 0.964 -14.923 0.258 74.642
7986.75 0.259 74.559 0.964 -15.008 0.964 -15.008 0.259 74.559
8011.708 0.26 74.477 0.964 -15.093 0.964 -15.093 0.26 74.477
8036.667 0.262 74.394 0.963 -15.178 0.963 -15.178 0.262 74.394
8061.625 0.263 74.312 0.963 -15.262 0.963 -15.262 0.263 74.312
8086.583 0.265 74.23 0.962 -15.347 0.962 -15.347 0.265 74.23
8111.542 0.266 74.149 0.962 -15.431 0.962 -15.431 0.266 74.149
8136.5 0.267 74.067 0.962 -15.515 0.962 -15.515 0.267 74.067
8161.458 0.269 73.986 0.961 -15.599 0.961 -15.599 0.269 73.986
8186.417 0.27 73.904 0.961 -15.682 0.961 -15.682 0.27 73.904
