# MHZ S MA R 50

50 0.999 -2.608 0.046 87.386 0.046 87.386 0.999 -2.608
74.958 0.998 -3.908 0.068 86.084 0.068 86.084 0.998 -3.908
99.917 0.996 -5.204 0.091 84.785 0.091 84.785 0.996 -5.204
124.875 0.994 -6.495 0.113 83.491 0.113 83.491 0.994 -6.495
149.833 0.991 -7.781 0.135 82.202 0.135 82.202 0.991 -7.781
174.792 0.987 -9.06 0.157 80.92 0.157 80.92 0.987 -9.06
199.75 0.984 -10.332 0.179 79.646 0.179 79.646 0.984 -10.332
224.708 0.98 -11.595 0.201 78.38 0.201 78.38 0.98 -11.595
249.667 0.975 -12.848 0.222 77.124 0.222 77.124 0.975 -12.848
274.625 0.97 -14.091 0.243 75.878 0.243 75.878 0.97 -14.091
299.583 0.964 -15.323 0.264 74.643 0.264 74.643 0.964 -15.323
324.542 0.958 -16.543 0.285 73.42 0.285 73.42 0.958 -16.543
349.5 0.952 -17.75 0.305 72.21 0.305 72.21 0.952 -17.75
374.458 0.946 -18.944 0.325 71.014 0.325 71.014 0.946 -18.944
399.417 0.939 -20.124 0.344 69.831 0.344 69.831 0.939 -20.124
424.375 0.931 -21.289 0.363 68.663 0.363 68.663 0.931 -21.289
449.333 0.924 -22.439 0.382 67.51 0.382 67.51 0.924 -22.439
474.292 0.916 -23.574 0.4 66.372 0.4 66.372 0.916 -23.574
499.25 0.908 -24.693 0.418 65.25 0.418 65.25 0.908 -24.693
524.208 0.9 -25.796 0.435 64.145 0.435 64.145 0.9 -25.796
549.167 0.891 -26.882 0.452 63.055 0.452 63.055 0.891 -26.882
574.125 0.883 -27.952 0.469 61.983 0.469 61.983 0.883 -27.952
599.083 0.874 -29.004 0.485 60.927 0.485 60.927 0.874 -29.004
624.042 0.865 -30.04 0.501 59.889 0.501 59.889 0.865 -30.04
649 0.856 -31.058 0.516 58.867 0.516 58.867 0.856 -31.058
673.958 0.847 -32.059 0.531 57.863 0.531 57.863 0.847 -32.059
698.917 0.837 -33.044 0.545 56.876 0.545 56.876 0.837 -33.044
723.875 0.828 -34.011 0.559 55.906 0.559 55.906 0.828 -34.011
748.833 0.819 -34.96 0.573 54.953 0.573 54.953 0.819 -34.96
773.792 0.809 -35.893 0.586 54.018 0.586 54.018 0.809 -35.893
798.75 0.8 -36.809 0.599 53.099 0.599 53.099 0.8 -36.809
823.708 0.79 -37.708 0.612 52.197 0.612 52.197 0.79 -37.708
848.667 0.781 -38.591 0.624 51.311 0.624 51.311 0.781 -38.591
873.625 0.771 -39.457 0.635 50.442 0.635 50.442 0.771 -39.457
898.583 0.761 -40.306 0.647 49.589 0.647 49.589 0.761 -40.306
923.542 0.752 -41.14 0.658 48.752 0.658 48.752 0.752 -41.14
948.5 0.742 -41.958 0.669 47.931 0.669 47.931 0.742 -41.958
973.458 0.733 -42.76 0.679 47.126 0.679 47.126 0.733 -42.76
998.417 0.723 -43.547 0.689 46.335 0.689 46.335 0.723 -43.547
1023.375 0.714 -44.319 0.699 45.56 0.699 45.56 0.714 -44.319
1048.333 0.705 -45.076 0.708 44.8 0.708 44.8 0.705 -45.076
1073.292 0.695 -45.819 0.717 44.054 0.717 44.054 0.695 -45.819
1098.25 0.686 -46.547 0.726 43.322 0.726 43.322 0.686 -46.547
1123.208 0.677 -47.262 0.734 42.605 0.734 42.605 0.677 -47.262
1148.167 0.668 -47.962 0.743 41.901 0.743 41.901 0.668 -47.962
1173.125 0.659 -48.649 0.751 41.21 0.751 41.21 0.659 -48.649
1198.083 0.65 -49.324 0.758 40.533 0.758 40.533 0.65 -49.324
1223.042 0.641 -49.985 0.766 39.868 0.766 39.868 0.641 -49.985
1248 0.632 -50.634 0.773 39.216 0.773 39.216 0.632 -50.634
1272.958 0.624 -51.27 0.78 38.576 0.78 38.576 0.624 -51.27
1297.917 0.615 -51.894 0.787 37.948 0.787 37.948 0.615 -51.894
1322.875 0.606 -52.507 0.793 37.332 0.793 37.332 0.606 -52.507
1347.833 0.598 -53.108 0.8 36.727 0.8 36.727 0.598 -53.108
1372.792 0.59 -53.698 0.806 36.133 0.806 36.133 0.59 -53.698
1397.75 0.581 -54.277 0.812 35.55 0.812 35.55 0.581 -54.277
1422.708 0.573 -54.846 0.818 34.978 0.818 34.978 0.573 -54.846
1447.667 0.565 -55.404 0.823 34.417 0.823 34.417 0.565 -55.404
1472.625 0.557 -55.952 0.829 33.865 0.829 33.865 0.557 -55.952
1497.583 0.549 -56.49 0.834 33.323 0.834 33.323 0.549 -56.49
1522.542 0.542 -57.018 0.839 32.791 0.839 32.791 0.542 -57.018
1547.5 0.534 -57.537 0.844 32.269 0.844 32.269 0.534 -57.537
1572.458 0.526 -58.046 0.848 31.755 0.848 31.755 0.526 -58.046
1597.417 0.519 -58.547 0.853 31.25 0.853 31.25 0.519 -58.547
1622.375 0.511 -59.039 0.858 30.755 0.858 30.755 0.511 -59.039
1647.333 0.504 -59.522 0.862 30.267 0.862 30.267 0.504 -59.522
1672.292 0.497 -59.997 0.866 29.788 0.866 29.788 0.497 -59.997
1697.25 0.49 -60.464 0.87 29.317 0.87 29.317 0.49 -60.464
1722.208 0.483 -60.923 0.874 28.854 0.874 28.854 0.483 -60.923
1747.167 0.476 -61.374 0.878 28.399 0.878 28.399 0.476 -61.374
1772.125 0.469 -61.817 0.881 27.951 0.881 27.951 0.469 -61.817
1797.083 0.462 -62.254 0.885 27.51 0.885 27.51 0.462 -62.254
1822.042 0.455 -62.683 0.888 27.077 0.888 27.077 0.455 -62.683
1847 0.449 -63.105 0.892 26.65 0.892 26.65 0.449 -63.105
1871.958 0.442 -63.52 0.895 26.231 0.895 26.231 0.442 -63.52
1896.917 0.436 -63.928 0.898 25.817 0.898 25.817 0.436 -63.928
1921.875 0.429 -64.33 0.901 25.411 0.901 25.411 0.429 -64.33
1946.833 0.423 -64.726 0.904 25.01 0.904 25.01 0.423 -64.726
1971.792 0.417 -65.116 0.907 24.616 0.907 24.616 0.417 -65.116
1996.75 0.41 -65.499 0.91 24.228 0.91 24.228 0.41 -65.499
2021.708 0.404 -65.877 0.913 23.845 0.913 23.845 0.404 -65.877
2046.667 0.398 -66.248 0.915 23.468 0.915 23.468 0.398 -66.248
2071.625 0.392 -66.614 0.918 23.097 0.918 23.097 0.392 -66.614
2096.583 0.386 -66.975 0.92 22.731 0.92 22.731 0.386 -66.975
2121.542 0.381 -67.33 0.923 22.371 0.923 22.371 0.381 -67.33
2146.5 0.375 -67.68 0.925 22.016 0.925 22.016 0.375 -67.68
2171.458 0.369 -68.025 0.927 21.665 0.927 21.665 0.369 -68.025
2196.417 0.364 -68.365 0.93 21.32 0.93 21.32 0.364 -68.365
2221.375 0.358 -68.7 0.932 20.979 0.932 20.979 0.358 -68.7
2246.333 0.353 -69.03 0.934 20.643 0.934 20.643 0.353 -69.03
2271.292 0.347 -69.356 0.936 20.312 0.936 20.312 0.347 -69.356
2296.25 0.342 -69.677 0.938 19.985 0.938 19.985 0.342 -69.677
2321.208 0.336 -69.993 0.94 19.663 0.94 19.663 0.336 -69.993
2346.167 0.331 -70.305 0.942 19.344 0.942 19.344 0.331 -70.305
2371.125 0.326 -70.613 0.943 19.03 0.943 19.03 0.326 -70.613
2396.083 0.321 -70.917 0.945 18.72 0.945 18.72 0.321 -70.917
2421.042 0.316 -71.216 0.947 18.414 0.947 18.414 0.316 -71.216
2446 0.311 -71.512 0.948 18.112 0.948 18.112 0.311 -71.512
2470.958 0.306 -71.804 0.95 17.814 0.95 17.814 0.306 -71.804
2495.917 0.301 -72.091 0.952 17.519 0.952 17.519 0.301 -72.091
2520.875 0.296 -72.375 0.953 17.228 0.953 17.228 0.296 -72.375
2545.833 0.291 -72.656 0.955 16.941 0.955 16.941 0.291 -72.656
2570.792 0.287 -72.932 0.956 16.657 0.956 16.657 0.287 -72.932
2595.75 0.282 -73.205 0.957 16.376 0.957 16.376 0.282 -73.205
2620.708 0.277 -73.475 0.959 16.099 0.959 16.099 0.277 -73.475
2645.667 0.273 -73.741 0.96 15.825 0.96 15.825 0.273 -73.741
2670.625 0.268 -74.004 0.961 15.554 0.961 15.554 0.268 -74.004
2695.583 0.264 -74.264 0.963 15.286 0.963 15.286 0.264 -74.264
2720.542 0.259 -74.52 0.964 15.022 0.964 15.022 0.259 -74.52
2745.5 0.255 -74.774 0.965 14.76 0.965 14.76 0.255 -74.774
2770.458 0.25 -75.024 0.966 14.501 0.966 14.501 0.25 -75.024
2795.417 0.246 -75.271 0.967 14.245 0.967 14.245 0.246 -75.271
2820.375 0.242 -75.515 0.968 13.992 0.968 13.992 0.242 -75.515
2845.333 0.238 -75.756 0.969 13.741 0.969 13.741 0.238 -75.756
2870.292 0.233 -75.994 0.97 13.494 0.97 13.494 0.233 -75.994
2895.25 0.229 -76.229 0.971 13.248 0.971 13.248 0.229 -76.229
2920.208 0.225 -76.462 0.972 13.006 0.972 13.006 0.225 -76.462
2945.167 0.221 -76.692 0.973 12.766 0.973 12.766 0.221 -76.692
2970.125 0.217 -76.919 0.974 12.528 0.974 12.528 0.217 -76.919
2995.083 0.213 -77.143 0.975 12.293 0.975 12.293 0.213 -77.143
3020.042 0.209 -77.365 0.976 12.06 0.976 12.06 0.209 -77.365
3045 0.205 -77.584 0.977 11.829 0.977 11.829 0.205 -77.584
3069.958 0.201 -77.8 0.977 11.601 0.977 11.601 0.201 -77.8
3094.917 0.197 -78.014 0.978 11.375 0.978 11.375 0.197 -78.014
3119.875 0.193 -78.225 0.979 11.151 0.979 11.151 0.193 -78.225
3144.833 0.19 -78.434 0.98 10.929 0.98 10.929 0.19 -78.434
3169.792 0.186 -78.64 0.98 10.71 0.98 10.71 0.186 -78.64
3194.75 0.182 -78.844 0.981 10.492 0.981 10.492 0.182 -78.844
3219.708 0.178 -79.045 0.982 10.276 0.982 10.276 0.178 -79.045
3244.667 0.175 -79.244 0.983 10.063 0.983 10.063 0.175 -79.244
3269.625 0.171 -79.441 0.983 9.851 0.983 9.851 0.171 -79.441
3294.583 0.167 -79.635 0.984 9.641 0.984 9.641 0.167 -79.635
3319.542 0.164 -79.827 0.984 9.434 0.984 9.434 0.164 -79.827
3344.5 0.16 -80.016 0.985 9.227 0.985 9.227 0.16 -80.016
3369.458 0.157 -80.203 0.986 9.023 0.986 9.023 0.157 -80.203
3394.417 0.153 -80.387 0.986 8.821 0.986 8.821 0.153 -80.387
3419.375 0.15 -80.569 0.987 8.62 0.987 8.62 0.15 -80.569
3444.333 0.146 -80.749 0.987 8.421 0.987 8.421 0.146 -80.749
3469.292 0.143 -80.926 0.988 8.223 0.988 8.223 0.143 -80.926
3494.25 0.14 -81.101 0.988 8.028 0.988 8.028 0.14 -81.101
3519.208 0.136 -81.273 0.989 7.833 0.989 7.833 0.136 -81.273
3544.167 0.133 -81.443 0.989 7.641 0.989 7.641 0.133 -81.443
3569.125 0.13 -81.61 0.989 7.45 0.989 7.45 0.13 -81.61
3594.083 0.126 -81.775 0.99 7.26 0.99 7.26 0.126 -81.775
3619.042 0.123 -81.937 0.99 7.072 0.99 7.072 0.123 -81.937
3644 0.12 -82.096 0.991 6.886 0.991 6.886 0.12 -82.096
3668.958 0.117 -82.253 0.991 6.701 0.991 6.701 0.117 -82.253
3693.917 0.114 -82.407 0.991 6.517 0.991 6.517 0.114 -82.407
3718.875 0.11 -82.558 0.992 6.335 0.992 6.335 0.11 -82.558
3743.833 0.107 -82.706 0.992 6.154 0.992 6.154 0.107 -82.706
3768.792 0.104 -82.851 0.992 5.974 0.992 5.974 0.104 -82.851
3793.75 0.101 -82.993 0.993 5.796 0.993 5.796 0.101 -82.993
3818.708 0.098 -83.131 0.993 5.619 0.993 5.619 0.098 -83.131
3843.667 0.095 -83.266 0.993 5.444 0.993 5.444 0.095 -83.266
3868.625 0.092 -83.398 0.994 5.269 0.994 5.269 0.092 -83.398
3893.583 0.089 -83.525 0.994 5.096 0.994 5.096 0.089 -83.525
3918.542 0.086 -83.649 0.994 4.924 0.994 4.924 0.086 -83.649
3943.5 0.083 -83.768 0.994 4.754 0.994 4.754 0.083 -83.768
3968.458 0.08 -83.883 0.995 4.584 0.995 4.584 0.08 -83.883
3993.417 0.077 -83.993 0.995 4.416 0.995 4.416 0.077 -83.993
4018.375 0.074 -84.097 0.995 4.249 0.995 4.249 0.074 -84.097
4043.333 0.071 -84.195 0.995 4.082 0.995 4.082 0.071 -84.195
4068.292 0.068 -84.288 0.996 3.917 0.996 3.917 0.068 -84.288
4093.25 0.066 -84.373 0.996 3.754 0.996 3.754 0.066 -84.373
4118.208 0.063 -84.451 0.996 3.591 0.996 3.591 0.063 -84.451
4143.167 0.06 -84.52 0.996 3.429 0.996 3.429 0.06 -84.52
4168.125 0.057 -84.58 0.996 3.268 0.996 3.268 0.057 -84.58
4193.083 0.054 -84.629 0.996 3.109 0.996 3.109 0.054 -84.629
4218.042 0.052 -84.666 0.997 2.95 0.997 2.95 0.052 -84.666
4243 0.049 -84.689 0.997 2.792 0.997 2.792 0.049 -84.689
4267.958 0.046 -84.695 0.997 2.636 0.997 2.636 0.046 -84.695
4292.917 0.043 -84.684 0.997 2.48 0.997 2.48 0.043 -84.684
4317.875 0.041 -84.65 0.997 2.325 0.997 2.325 0.041 -84.65
4342.833 0.038 -84.589 0.997 2.171 0.997 2.171 0.038 -84.589
4367.792 0.035 -84.497 0.997 2.018 0.997 2.018 0.035 -84.497
4392.75 0.033 -84.366 0.997 1.866 0.997 1.866 0.033 -84.366
4417.708 0.03 -84.186 0.997 1.715 0.997 1.715 0.03 -84.186
4442.667 0.027 -83.944 0.997 1.565 0.997 1.565 0.027 -83.944
4467.625 0.025 -83.622 0.998 1.416 0.998 1.416 0.025 -83.622
4492.583 0.022 -83.192 0.998 1.267 0.998 1.267 0.022 -83.192
4517.542 0.02 -82.614 0.998 1.119 0.998 1.119 0.02 -82.614
4542.5 0.017 -81.823 0.998 0.973 0.998 0.973 0.017 -81.823
4567.458 0.015 -80.714 0.998 0.827 0.998 0.827 0.015 -80.714
4592.417 0.012 -79.091 0.998 0.681 0.998 0.681 0.012 -79.091
4617.375 9.614e-3 -76.567 0.998 0.537 0.998 0.537 9.614e-3 -76.567
4642.333 7.193e-3 -72.249 0.998 0.393 0.998 0.393 7.193e-3 -72.249
4667.292 4.87e-3 -63.607 0.998 0.251 0.998 0.251 4.87e-3 -63.607
4692.25 2.861e-3 -41.3 0.998 0.108 0.998 0.108 2.861e-3 -41.3
4717.208 2.221e-3 14.946 0.998 -0.033 0.998 -0.033 2.221e-3 14.946
4742.167 3.711e-3 54.499 0.998 -0.173 0.998 -0.173 3.711e-3 54.499
4767.125 5.874e-3 68.261 0.998 -0.313 0.998 -0.313 5.874e-3 68.261
4792.083 8.183e-3 74.345 0.998 -0.452 0.998 -0.452 8.183e-3 74.345
4817.042 0.011 77.654 0.998 -0.591 0.998 -0.591 0.011 77.654
4842 0.013 79.693 0.998 -0.729 0.998 -0.729 0.013 79.693
4866.958 0.015 81.05 0.998 -0.866 0.998 -0.866 0.015 81.05
4891.917 0.018 82.002 0.998 -1.002 0.998 -1.002 0.018 82.002
4916.875 0.02 82.694 0.998 -1.137 0.998 -1.137 0.02 82.694
4941.833 0.022 83.209 0.998 -1.272 0.998 -1.272 0.022 83.209
4966.792 0.025 83.599 0.998 -1.407 0.998 -1.407 0.025 83.599
4991.75 0.027 83.897 0.997 -1.54 0.997 -1.54 0.027 83.897
5016.708 0.029 84.126 0.997 -1.673 0.997 -1.673 0.029 84.126
5041.667 0.032 84.3 0.997 -1.806 0.997 -1.806 0.032 84.3
5066.625 0.034 84.433 0.997 -1.937 0.997 -1.937 0.034 84.433
5091.583 0.036 84.531 0.997 -2.069 0.997 -2.069 0.036 84.531
5116.542 0.038 84.602 0.997 -2.199 0.997 -2.199 0.038 84.602
5141.5 0.041 84.651 0.997 -2.329 0.997 -2.329 0.041 84.651
5166.458 0.043 84.68 0.997 -2.458 0.997 -2.458 0.043 84.68
5191.417 0.045 84.694 0.997 -2.587 0.997 -2.587 0.045 84.694
5216.375 0.047 84.694 0.997 -2.715 0.997 -2.715 0.047 84.694
5241.333 0.05 84.683 0.997 -2.843 0.997 -2.843 0.05 84.683
5266.292 0.052 84.662 0.997 -2.97 0.997 -2.97 0.052 84.662
5291.25 0.054 84.632 0.996 -3.096 0.996 -3.096 0.054 84.632
5316.208 0.056 84.595 0.996 -3.222 0.996 -3.222 0.056 84.595
5341.167 0.058 84.552 0.996 -3.347 0.996 -3.347 0.058 84.552
5366.125 0.061 84.502 0.996 -3.472 0.996 -3.472 0.061 84.502
5391.083 0.063 84.448 0.996 -3.596 0.996 -3.596 0.063 84.448
5416.042 0.065 84.39 0.996 -3.72 0.996 -3.72 0.065 84.39
5441 0.067 84.327 0.996 -3.843 0.996 -3.843 0.067 84.327
5465.958 0.069 84.261 0.995 -3.966 0.995 -3.966 0.069 84.261
5490.917 0.071 84.192 0.995 -4.088 0.995 -4.088 0.071 84.192
5515.875 0.073 84.121 0.995 -4.209 0.995 -4.209 0.073 84.121
5540.833 0.076 84.046 0.995 -4.331 0.995 -4.331 0.076 84.046
5565.792 0.078 83.97 0.995 -4.451 0.995 -4.451 0.078 83.97
5590.75 0.08 83.891 0.995 -4.571 0.995 -4.571 0.08 83.891
5615.708 0.082 83.811 0.995 -4.691 0.995 -4.691 0.082 83.811
5640.667 0.084 83.729 0.994 -4.81 0.994 -4.81 0.084 83.729
5665.625 0.086 83.646 0.994 -4.929 0.994 -4.929 0.086 83.646
5690.583 0.088 83.561 0.994 -5.047 0.994 -5.047 0.088 83.561
5715.542 0.09 83.475 0.994 -5.165 0.994 -5.165 0.09 83.475
5740.5 0.092 83.388 0.994 -5.282 0.994 -5.282 0.092 83.388
5765.458 0.094 83.3 0.993 -5.399 0.993 -5.399 0.094 83.3
5790.417 0.096 83.211 0.993 -5.516 0.993 -5.516 0.096 83.211
5815.375 0.098 83.122 0.993 -5.632 0.993 -5.632 0.098 83.122
5840.333 0.1 83.032 0.993 -5.747 0.993 -5.747 0.1 83.032
5865.292 0.102 82.941 0.993 -5.862 0.993 -5.862 0.102 82.941
5890.25 0.104 82.849 0.992 -5.977 0.992 -5.977 0.104 82.849
5915.208 0.106 82.757 0.992 -6.091 0.992 -6.091 0.106 82.757
5940.167 0.108 82.664 0.992 -6.205 0.992 -6.205 0.108 82.664
5965.125 0.11 82.571 0.992 -6.318 0.992 -6.318 0.11 82.571
5990.083 0.112 82.478 0.992 -6.431 0.992 -6.431 0.112 82.478
6015.042 0.114 82.385 0.991 -6.544 0.991 -6.544 0.114 82.385
6040 0.116 82.291 0.991 -6.656 0.991 -6.656 0.116 82.291
6064.958 0.118 82.196 0.991 -6.768 0.991 -6.768 0.118 82.196
6089.917 0.12 82.102 0.991 -6.879 0.991 -6.879 0.12 82.102
6114.875 0.122 82.007 0.99 -6.99 0.99 -6.99 0.122 82.007
6139.833 0.124 81.912 0.99 -7.101 0.99 -7.101 0.124 81.912
6164.792 0.126 81.817 0.99 -7.211 0.99 -7.211 0.126 81.817
6189.75 0.127 81.722 0.99 -7.321 0.99 -7.321 0.127 81.722
6214.708 0.129 81.627 0.989 -7.43 0.989 -7.43 0.129 81.627
6239.667 0.131 81.532 0.989 -7.539 0.989 -7.539 0.131 81.532
6264.625 0.133 81.437 0.989 -7.648 0.989 -7.648 0.133 81.437
6289.583 0.135 81.341 0.989 -7.756 0.989 -7.756 0.135 81.341
6314.542 0.137 81.246 0.988 -7.864 0.988 -7.864 0.137 81.246
6339.5 0.139 81.15 0.988 -7.972 0.988 -7.972 0.139 81.15
6364.458 0.141 81.055 0.988 -8.079 0.988 -8.079 0.141 81.055
6389.417 0.142 80.959 0.988 -8.186 0.988 -8.186 0.142 80.959
6414.375 0.144 80.864 0.987 -8.292 0.987 -8.292 0.144 80.864
6439.333 0.146 80.769 0.987 -8.399 0.987 -8.399 0.146 80.769
6464.292 0.148 80.673 0.987 -8.505 0.987 -8.505 0.148 80.673
6489.25 0.15 80.578 0.987 -8.61 0.987 -8.61 0.15 80.578
6514.208 0.152 80.483 0.986 -8.715 0.986 -8.715 0.152 80.483
6539.167 0.153 80.388 0.986 -8.82 0.986 -8.82 0.153 80.388
6564.125 0.155 80.293 0.986 -8.925 0.986 -8.925 0.155 80.293
6589.083 0.157 80.198 0.985 -9.029 0.985 -9.029 0.157 80.198
6614.042 0.159 80.103 0.985 -9.133 0.985 -9.133 0.159 80.103
6639 0.161 80.008 0.985 -9.236 0.985 -9.236 0.161 80.008
6663.958 0.162 79.913 0.985 -9.339 0.985 -9.339 0.162 79.913
6688.917 0.164 79.819 0.984 -9.442 0.984 -9.442 0.164 79.819
6713.875 0.166 79.724 0.984 -9.545 0.984 -9.545 0.166 79.724
6738.833 0.168 79.63 0.984 -9.647 0.984 -9.647 0.168 79.63
6763.792 0.169 79.536 0.983 -9.749 0.983 -9.749 0.169 79.536
6788.75 0.171 79.441 0.983 -9.851 0.983 -9.851 0.171 79.441
6813.708 0.173 79.347 0.983 -9.952 0.983 -9.952 0.173 79.347
6838.667 0.175 79.254 0.983 -10.053 0.983 -10.053 0.175 79.254
6863.625 0.176 79.16 0.982 -10.154 0.982 -10.154 0.176 79.16
6888.583 0.178 79.066 0.982 -10.254 0.982 -10.254 0.178 79.066
6913.542 0.18 78.973 0.982 -10.354 0.982 -10.354 0.18 78.973
6938.5 0.181 78.88 0.981 -10.454 0.981 -10.454 0.181 78.88
6963.458 0.183 78.786 0.981 -10.554 0.981 -10.554 0.183 78.786
6988.417 0.185 78.693 0.981 -10.653 0.981 -10.653 0.185 78.693
7013.375 0.187 78.601 0.98 -10.752 0.98 -10.752 0.187 78.601
7038.333 0.188 78.508 0.98 -10.851 0.98 -10.851 0.188 78.508
7063.292 0.19 78.415 0.98 -10.949 0.98 -10.949 0.19 78.415
7088.25 0.192 78.323 0.979 -11.047 0.979 -11.047 0.192 78.323
7113.208 0.193 78.231 0.979 -11.145 0.979 -11.145 0.193 78.231
7138.167 0.195 78.139 0.979 -11.243 0.979 -11.243 0.195 78.139
7163.125 0.197 78.047 0.978 -11.34 0.978 -11.34 0.197 78.047
7188.083 0.198 77.955 0.978 -11.437 0.978 -11.437 0.198 77.955
7213.042 0.2 77.864 0.978 -11.534 0.978 -11.534 0.2 77.864
7238 0.202 77.772 0.977 -11.63 0.977 -11.63 0.202 77.772
7262.958 0.203 77.681 0.977 -11.726 0.977 -11.726 0.203 77.681
7287.917 0.205 77.59 0.977 -11.822 0.977 -11.822 0.205 77.59
7312.875 0.207 77.499 0.976 -11.918 0.976 -11.918 0.207 77.499
7337.833 0.208 77.409 0.976 -12.014 0.976 -12.014 0.208 77.409
7362.792 0.21 77.318 0.976 -12.109 0.976 -12.109 0.21 77.318
7387.75 0.211 77.228 0.975 -12.204 0.975 -12.204 0.211 77.228
7412.708 0.213 77.138 0.975 -12.298 0.975 -12.298 0.213 77.138
7437.667 0.215 77.048 0.975 -12.393 0.975 -12.393 0.215 77.048
7462.625 0.216 76.958 0.974 -12.487 0.974 -12.487 0.216 76.958
7487.583 0.218 76.868 0.974 -12.581 0.974 -12.581 0.218 76.868
7512.542 0.219 76.779 0.974 -12.675 0.974 -12.675 0.219 76.779
7537.5 0.221 76.689 0.973 -12.768 0.973 -12.768 0.221 76.689
7562.458 0.223 76.6 0.973 -12.861 0.973 -12.861 0.223 76.6
7587.417 0.224 76.511 0.972 -12.954 0.972 -12.954 0.224 76.511
7612.375 0.226 76.422 0.972 -13.047 0.972 -13.047 0.226 76.422
7637.333 0.227 76.334 0.972 -13.14 0.972 -13.14 0.227 76.334
7662.292 0.229 76.245 0.971 -13.232 0.971 -13.232 0.229 76.245
7687.25 0.23 76.157 0.971 -13.324 0.971 -13.324 0.23 76.157
7712.208 0.232 76.069 0.971 -13.416 0.971 -13.416 0.232 76.069
7737.167 0.234 75.981 0.97 -13.507 0.97 -13.507 0.234 75.981
7762.125 0.235 75.893 0.97 -13.599 0.97 -13.599 0.235 75.893
7787.083 0.237 75.806 0.97 -13.69 0.97 -13.69 0.237 75.806
7812.042 0.238 75.718 0.969 -13.781 0.969 -13.781 0.238 75.718
7837 0.24 75.631 0.969 -13.871 0.969 -13.871 0.24 75.631
7861.958 0.241 75.544 0.968 -13.962 0.968 -13.962 0.241 75.544
7886.917 0.243 75.457 0.968 -14.052 0.968 -14.052 0.243 75.457
7911.875 0.244 75.37 0.968 -14.142 0.968 -14.142 0.244 75.37
7936.833 0.246 75.284 0.967 -14.232 0.967 -14.232 0.246 75.284
7961.792 0.247 75.197 0.967 -14.321 0.967 -14.321 0.247 75.197
7986.75 0.249 75.111 0.966 -14.41 0.966 -14.41 0.249 75.111
8011.708 0.25 75.025 0.966 -14.5 0.966 -14.5 0.25 75.025
8036.667 0.252 74.939 0.966 -14.589 0.966 -14.589 0.252 74.939
8061.625 0.253 74.853 0.965 -14.677 0.965 -14.677 0.253 74.853
8086.583 0.255 74.768 0.965 -14.766 0.965 -14.766 0.255 74.768
8111.542 0.256 74.682 0.965 -14.854 0.965 -14.854 0.256 74.682
8136.5 0.258 74.597 0.964 -14.942 0.964 -14.942 0.258 74.597
8161.458 0.259 74.512 0.964 -15.03 0.964 -15.03 0.259 74.512
8186.417 0.261 74.427 0.963 -15.117 0.963 -15.117 0.261 74.427
8211.375 0.262 74.343 0.963 -15.205 0.963 -15.205 0.262 74.343
