# MHZ S MA R 50

50 0.661 -48.547 0.75 41.382 0.75 41.382 0.661 -48.547
74.958 0.506 -59.528 0.862 30.366 0.862 30.366 0.506 -59.528
99.917 0.401 -66.222 0.915 23.637 0.915 23.637 0.401 -66.222
124.875 0.329 -70.622 0.943 19.2 0.943 19.2 0.329 -70.622
149.833 0.277 -73.706 0.96 16.08 0.96 16.08 0.277 -73.706
174.792 0.238 -75.977 0.97 13.771 0.97 13.771 0.238 -75.977
199.75 0.208 -77.716 0.977 11.993 0.977 11.993 0.208 -77.716
224.708 0.184 -79.088 0.982 10.581 0.982 10.581 0.184 -79.088
249.667 0.164 -80.199 0.985 9.429 0.985 9.429 0.164 -80.199
274.625 0.147 -81.115 0.988 8.47 0.988 8.47 0.147 -81.115
299.583 0.133 -81.883 0.99 7.657 0.99 7.657 0.133 -81.883
324.542 0.121 -82.537 0.992 6.957 0.992 6.957 0.121 -82.537
349.5 0.111 -83.098 0.993 6.346 0.993 6.346 0.111 -83.098
374.458 0.101 -83.584 0.994 5.808 0.994 5.808 0.101 -83.584
399.417 0.093 -84.009 0.995 5.328 0.995 5.328 0.093 -84.009
424.375 0.085 -84.381 0.995 4.897 0.995 4.897 0.085 -84.381
449.333 0.079 -84.709 0.996 4.507 0.996 4.507 0.079 -84.709
474.292 0.072 -84.997 0.996 4.151 0.996 4.151 0.072 -84.997
499.25 0.067 -85.251 0.997 3.824 0.997 3.824 0.067 -85.251
524.208 0.061 -85.474 0.997 3.522 0.997 3.522 0.061 -85.474
549.167 0.057 -85.667 0.997 3.241 0.997 3.241 0.057 -85.667
574.125 0.052 -85.833 0.998 2.98 0.998 2.98 0.052 -85.833
599.083 0.048 -85.971 0.998 2.735 0.998 2.735 0.048 -85.971
624.042 0.044 -86.082 0.998 2.505 0.998 2.505 0.044 -86.082
649 0.04 -86.165 0.998 2.287 0.998 2.287 0.04 -86.165
673.958 0.036 -86.218 0.998 2.081 0.998 2.081 0.036 -86.218
698.917 0.033 -86.237 0.998 1.885 0.998 1.885 0.033 -86.237
723.875 0.03 -86.218 0.998 1.699 0.998 1.699 0.03 -86.218
748.833 0.027 -86.152 0.999 1.521 0.999 1.521 0.027 -86.152
773.792 0.024 -86.028 0.999 1.35 0.999 1.35 0.024 -86.028
798.75 0.021 -85.83 0.999 1.186 0.999 1.186 0.021 -85.83
823.708 0.018 -85.531 0.999 1.028 0.999 1.028 0.018 -85.531
848.667 0.015 -85.086 0.999 0.876 0.999 0.876 0.015 -85.086
873.625 0.013 -84.422 0.999 0.729 0.999 0.729 0.013 -84.422
898.583 0.01 -83.394 0.999 0.586 0.999 0.586 0.01 -83.394
923.542 7.896e-3 -81.698 0.999 0.448 0.999 0.448 7.896e-3 -81.698
948.5 5.588e-3 -78.554 0.999 0.314 0.999 0.314 5.588e-3 -78.554
973.458 3.385e-3 -71.229 0.999 0.184 0.999 0.184 3.385e-3 -71.229
998.417 1.467e-3 -42.58 0.999 0.057 0.999 0.057 1.467e-3 -42.58
1023.375 1.589e-3 47.16 0.999 -0.067 0.999 -0.067 1.589e-3 47.16
1048.333 3.448e-3 71.576 0.999 -0.188 0.999 -0.188 3.448e-3 71.576
1073.292 5.443e-3 78.261 0.999 -0.306 0.999 -0.306 5.443e-3 78.261
1098.25 7.429e-3 81.229 0.999 -0.421 0.999 -0.421 7.429e-3 81.229
1123.208 9.387e-3 82.866 0.999 -0.534 0.999 -0.534 9.387e-3 82.866
1148.167 0.011 83.882 0.999 -0.645 0.999 -0.645 0.011 83.882
1173.125 0.013 84.559 0.999 -0.754 0.999 -0.754 0.013 84.559
1198.083 0.015 85.032 0.999 -0.861 0.999 -0.861 0.015 85.032
1223.042 0.017 85.372 0.999 -0.966 0.999 -0.966 0.017 85.372
1248 0.019 85.622 0.999 -1.069 0.999 -1.069 0.019 85.622
1272.958 0.02 85.807 0.999 -1.171 0.999 -1.171 0.02 85.807
1297.917 0.022 85.945 0.999 -1.271 0.999 -1.271 0.022 85.945
1322.875 0.024 86.046 0.999 -1.369 0.999 -1.369 0.024 86.046
1347.833 0.026 86.12 0.999 -1.467 0.999 -1.467 0.026 86.12
1372.792 0.027 86.173 0.999 -1.563 0.999 -1.563 0.027 86.173
1397.75 0.029 86.207 0.999 -1.658 0.999 -1.658 0.029 86.207
1422.708 0.031 86.228 0.998 -1.751 0.998 -1.751 0.031 86.228
1447.667 0.032 86.237 0.998 -1.844 0.998 -1.844 0.032 86.237
1472.625 0.034 86.236 0.998 -1.935 0.998 -1.935 0.034 86.236
1497.583 0.035 86.227 0.998 -2.026 0.998 -2.026 0.035 86.227
1522.542 0.037 86.212 0.998 -2.115 0.998 -2.115 0.037 86.212
1547.5 0.038 86.19 0.998 -2.204 0.998 -2.204 0.038 86.19
1572.458 0.04 86.164 0.998 -2.291 0.998 -2.291 0.04 86.164
1597.417 0.042 86.134 0.998 -2.378 0.998 -2.378 0.042 86.134
1622.375 0.043 86.1 0.998 -2.464 0.998 -2.464 0.043 86.1
1647.333 0.045 86.062 0.998 -2.55 0.998 -2.55 0.045 86.062
1672.292 0.046 86.022 0.998 -2.635 0.998 -2.635 0.046 86.022
1697.25 0.047 85.98 0.998 -2.719 0.998 -2.719 0.047 85.98
1722.208 0.049 85.935 0.998 -2.802 0.998 -2.802 0.049 85.935
1747.167 0.05 85.889 0.998 -2.885 0.998 -2.885 0.05 85.889
1772.125 0.052 85.841 0.998 -2.967 0.998 -2.967 0.052 85.841
1797.083 0.053 85.791 0.998 -3.048 0.998 -3.048 0.053 85.791
1822.042 0.055 85.74 0.997 -3.129 0.997 -3.129 0.055 85.74
1847 0.056 85.688 0.997 -3.21 0.997 -3.21 0.056 85.688
1871.958 0.057 85.635 0.997 -3.29 0.997 -3.29 0.057 85.635
1896.917 0.059 85.581 0.997 -3.369 0.997 -3.369 0.059 85.581
1921.875 0.06 85.526 0.997 -3.448 0.997 -3.448 0.06 85.526
1946.833 0.062 85.47 0.997 -3.527 0.997 -3.527 0.062 85.47
1971.792 0.063 85.414 0.997 -3.605 0.997 -3.605 0.063 85.414
1996.75 0.064 85.357 0.997 -3.682 0.997 -3.682 0.064 85.357
2021.708 0.066 85.3 0.997 -3.76 0.997 -3.76 0.066 85.3
2046.667 0.067 85.242 0.997 -3.836 0.997 -3.836 0.067 85.242
2071.625 0.068 85.183 0.997 -3.913 0.997 -3.913 0.068 85.183
2096.583 0.07 85.125 0.997 -3.989 0.997 -3.989 0.07 85.125
2121.542 0.071 85.065 0.996 -4.065 0.996 -4.065 0.071 85.065
2146.5 0.072 85.006 0.996 -4.14 0.996 -4.14 0.072 85.006
2171.458 0.074 84.946 0.996 -4.215 0.996 -4.215 0.074 84.946
2196.417 0.075 84.886 0.996 -4.29 0.996 -4.29 0.075 84.886
2221.375 0.076 84.826 0.996 -4.364 0.996 -4.364 0.076 84.826
2246.333 0.077 84.765 0.996 -4.439 0.996 -4.439 0.077 84.765
2271.292 0.079 84.704 0.996 -4.512 0.996 -4.512 0.079 84.704
2296.25 0.08 84.643 0.996 -4.586 0.996 -4.586 0.08 84.643
2321.208 0.081 84.582 0.996 -4.659 0.996 -4.659 0.081 84.582
2346.167 0.083 84.521 0.996 -4.732 0.996 -4.732 0.083 84.521
2371.125 0.084 84.46 0.995 -4.805 0.995 -4.805 0.084 84.46
2396.083 0.085 84.398 0.995 -4.878 0.995 -4.878 0.085 84.398
2421.042 0.086 84.336 0.995 -4.95 0.995 -4.95 0.086 84.336
2446 0.088 84.275 0.995 -5.022 0.995 -5.022 0.088 84.275
2470.958 0.089 84.213 0.995 -5.094 0.995 -5.094 0.089 84.213
2495.917 0.09 84.151 0.995 -5.165 0.995 -5.165 0.09 84.151
2520.875 0.091 84.089 0.995 -5.237 0.995 -5.237 0.091 84.089
2545.833 0.093 84.027 0.995 -5.308 0.995 -5.308 0.093 84.027
2570.792 0.094 83.965 0.995 -5.379 0.995 -5.379 0.094 83.965
2595.75 0.095 83.902 0.994 -5.45 0.994 -5.45 0.095 83.902
2620.708 0.096 83.84 0.994 -5.52 0.994 -5.52 0.096 83.84
2645.667 0.097 83.778 0.994 -5.591 0.994 -5.591 0.097 83.778
2670.625 0.099 83.716 0.994 -5.661 0.994 -5.661 0.099 83.716
2695.583 0.1 83.653 0.994 -5.731 0.994 -5.731 0.1 83.653
2720.542 0.101 83.591 0.994 -5.801 0.994 -5.801 0.101 83.591
2745.5 0.102 83.529 0.994 -5.87 0.994 -5.87 0.102 83.529
2770.458 0.103 83.466 0.994 -5.94 0.994 -5.94 0.103 83.466
2795.417 0.105 83.404 0.993 -6.009 0.993 -6.009 0.105 83.404
2820.375 0.106 83.341 0.993 -6.078 0.993 -6.078 0.106 83.341
2845.333 0.107 83.279 0.993 -6.147 0.993 -6.147 0.107 83.279
2870.292 0.108 83.216 0.993 -6.216 0.993 -6.216 0.108 83.216
2895.25 0.109 83.154 0.993 -6.285 0.993 -6.285 0.109 83.154
2920.208 0.111 83.091 0.993 -6.353 0.993 -6.353 0.111 83.091
2945.167 0.112 83.029 0.993 -6.422 0.993 -6.422 0.112 83.029
2970.125 0.113 82.967 0.993 -6.49 0.993 -6.49 0.113 82.967
2995.083 0.114 82.904 0.992 -6.558 0.992 -6.558 0.114 82.904
3020.042 0.115 82.842 0.992 -6.626 0.992 -6.626 0.115 82.842
3045 0.117 82.779 0.992 -6.694 0.992 -6.694 0.117 82.779
3069.958 0.118 82.717 0.992 -6.762 0.992 -6.762 0.118 82.717
3094.917 0.119 82.654 0.992 -6.829 0.992 -6.829 0.119 82.654
3119.875 0.12 82.592 0.992 -6.897 0.992 -6.897 0.12 82.592
3144.833 0.121 82.53 0.992 -6.964 0.992 -6.964 0.121 82.53
3169.792 0.122 82.467 0.991 -7.031 0.991 -7.031 0.122 82.467
3194.75 0.124 82.405 0.991 -7.099 0.991 -7.099 0.124 82.405
3219.708 0.125 82.343 0.991 -7.166 0.991 -7.166 0.125 82.343
3244.667 0.126 82.28 0.991 -7.233 0.991 -7.233 0.126 82.28
3269.625 0.127 82.218 0.991 -7.299 0.991 -7.299 0.127 82.218
3294.583 0.128 82.156 0.991 -7.366 0.991 -7.366 0.128 82.156
3319.542 0.129 82.093 0.991 -7.433 0.991 -7.433 0.129 82.093
3344.5 0.131 82.031 0.99 -7.499 0.99 -7.499 0.131 82.031
3369.458 0.132 81.969 0.99 -7.565 0.99 -7.565 0.132 81.969
3394.417 0.133 81.907 0.99 -7.632 0.99 -7.632 0.133 81.907
3419.375 0.134 81.845 0.99 -7.698 0.99 -7.698 0.134 81.845
3444.333 0.135 81.783 0.99 -7.764 0.99 -7.764 0.135 81.783
3469.292 0.136 81.72 0.99 -7.83 0.99 -7.83 0.136 81.72
3494.25 0.137 81.658 0.989 -7.896 0.989 -7.896 0.137 81.658
3519.208 0.139 81.596 0.989 -7.962 0.989 -7.962 0.139 81.596
3544.167 0.14 81.534 0.989 -8.027 0.989 -8.027 0.14 81.534
3569.125 0.141 81.472 0.989 -8.093 0.989 -8.093 0.141 81.472
3594.083 0.142 81.41 0.989 -8.158 0.989 -8.158 0.142 81.41
3619.042 0.143 81.348 0.989 -8.224 0.989 -8.224 0.143 81.348
3644 0.144 81.286 0.988 -8.289 0.988 -8.289 0.144 81.286
3668.958 0.145 81.225 0.988 -8.354 0.988 -8.354 0.145 81.225
3693.917 0.146 81.163 0.988 -8.42 0.988 -8.42 0.146 81.163
3718.875 0.148 81.101 0.988 -8.485 0.988 -8.485 0.148 81.101
3743.833 0.149 81.039 0.988 -8.55 0.988 -8.55 0.149 81.039
3768.792 0.15 80.977 0.988 -8.615 0.988 -8.615 0.15 80.977
3793.75 0.151 80.915 0.987 -8.68 0.987 -8.68 0.151 80.915
3818.708 0.152 80.854 0.987 -8.744 0.987 -8.744 0.152 80.854
3843.667 0.153 80.792 0.987 -8.809 0.987 -8.809 0.153 80.792
3868.625 0.154 80.73 0.987 -8.874 0.987 -8.874 0.154 80.73
3893.583 0.155 80.669 0.987 -8.938 0.987 -8.938 0.155 80.669
3918.542 0.156 80.607 0.987 -9.003 0.987 -9.003 0.156 80.607
3943.5 0.158 80.546 0.986 -9.067 0.986 -9.067 0.158 80.546
3968.458 0.159 80.484 0.986 -9.131 0.986 -9.131 0.159 80.484
3993.417 0.16 80.423 0.986 -9.196 0.986 -9.196 0.16 80.423
4018.375 0.161 80.361 0.986 -9.26 0.986 -9.26 0.161 80.361
4043.333 0.162 80.3 0.986 -9.324 0.986 -9.324 0.162 80.3
4068.292 0.163 80.238 0.986 -9.388 0.986 -9.388 0.163 80.238
4093.25 0.164 80.177 0.985 -9.452 0.985 -9.452 0.164 80.177
4118.208 0.165 80.115 0.985 -9.516 0.985 -9.516 0.165 80.115
4143.167 0.166 80.054 0.985 -9.58 0.985 -9.58 0.166 80.054
4168.125 0.168 79.993 0.985 -9.643 0.985 -9.643 0.168 79.993
4193.083 0.169 79.932 0.985 -9.707 0.985 -9.707 0.169 79.932
4218.042 0.17 79.87 0.984 -9.771 0.984 -9.771 0.17 79.87
4243 0.171 79.809 0.984 -9.834 0.984 -9.834 0.171 79.809
4267.958 0.172 79.748 0.984 -9.898 0.984 -9.898 0.172 79.748
4292.917 0.173 79.687 0.984 -9.961 0.984 -9.961 0.173 79.687
4317.875 0.174 79.626 0.984 -10.024 0.984 -10.024 0.174 79.626
4342.833 0.175 79.565 0.983 -10.088 0.983 -10.088 0.175 79.565
4367.792 0.176 79.504 0.983 -10.151 0.983 -10.151 0.176 79.504
4392.75 0.177 79.443 0.983 -10.214 0.983 -10.214 0.177 79.443
4417.708 0.178 79.382 0.983 -10.277 0.983 -10.277 0.178 79.382
4442.667 0.179 79.321 0.983 -10.34 0.983 -10.34 0.179 79.321
4467.625 0.181 79.26 0.982 -10.403 0.982 -10.403 0.181 79.26
4492.583 0.182 79.199 0.982 -10.466 0.982 -10.466 0.182 79.199
4517.542 0.183 79.138 0.982 -10.529 0.982 -10.529 0.183 79.138
4542.5 0.184 79.077 0.982 -10.592 0.982 -10.592 0.184 79.077
4567.458 0.185 79.017 0.982 -10.655 0.982 -10.655 0.185 79.017
4592.417 0.186 78.956 0.981 -10.718 0.981 -10.718 0.186 78.956
4617.375 0.187 78.895 0.981 -10.78 0.981 -10.78 0.187 78.895
4642.333 0.188 78.834 0.981 -10.843 0.981 -10.843 0.188 78.834
4667.292 0.189 78.774 0.981 -10.905 0.981 -10.905 0.189 78.774
4692.25 0.19 78.713 0.981 -10.968 0.981 -10.968 0.19 78.713
4717.208 0.191 78.653 0.98 -11.03 0.98 -11.03 0.191 78.653
4742.167 0.192 78.592 0.98 -11.093 0.98 -11.093 0.192 78.592
4767.125 0.193 78.532 0.98 -11.155 0.98 -11.155 0.193 78.532
4792.083 0.195 78.471 0.98 -11.217 0.98 -11.217 0.195 78.471
4817.042 0.196 78.411 0.98 -11.279 0.98 -11.279 0.196 78.411
4842 0.197 78.35 0.979 -11.341 0.979 -11.341 0.197 78.35
4866.958 0.198 78.29 0.979 -11.404 0.979 -11.404 0.198 78.29
4891.917 0.199 78.23 0.979 -11.466 0.979 -11.466 0.199 78.23
4916.875 0.2 78.169 0.979 -11.528 0.979 -11.528 0.2 78.169
4941.833 0.201 78.109 0.979 -11.59 0.979 -11.59 0.201 78.109
4966.792 0.202 78.049 0.978 -11.651 0.978 -11.651 0.202 78.049
4991.75 0.203 77.989 0.978 -11.713 0.978 -11.713 0.203 77.989
5016.708 0.204 77.928 0.978 -11.775 0.978 -11.775 0.204 77.928
5041.667 0.205 77.868 0.978 -11.837 0.978 -11.837 0.205 77.868
5066.625 0.206 77.808 0.977 -11.898 0.977 -11.898 0.206 77.808
5091.583 0.207 77.748 0.977 -11.96 0.977 -11.96 0.207 77.748
5116.542 0.208 77.688 0.977 -12.022 0.977 -12.022 0.208 77.688
5141.5 0.209 77.628 0.977 -12.083 0.977 -12.083 0.209 77.628
5166.458 0.21 77.568 0.977 -12.145 0.977 -12.145 0.21 77.568
5191.417 0.211 77.508 0.976 -12.206 0.976 -12.206 0.211 77.508
5216.375 0.212 77.448 0.976 -12.267 0.976 -12.267 0.212 77.448
5241.333 0.214 77.388 0.976 -12.329 0.976 -12.329 0.214 77.388
5266.292 0.215 77.328 0.976 -12.39 0.976 -12.39 0.215 77.328
5291.25 0.216 77.269 0.975 -12.451 0.975 -12.451 0.216 77.269
5316.208 0.217 77.209 0.975 -12.512 0.975 -12.512 0.217 77.209
5341.167 0.218 77.149 0.975 -12.574 0.975 -12.574 0.218 77.149
5366.125 0.219 77.09 0.975 -12.635 0.975 -12.635 0.219 77.09
5391.083 0.22 77.03 0.974 -12.696 0.974 -12.696 0.22 77.03
5416.042 0.221 76.97 0.974 -12.757 0.974 -12.757 0.221 76.97
5441 0.222 76.911 0.974 -12.818 0.974 -12.818 0.222 76.911
5465.958 0.223 76.851 0.974 -12.879 0.974 -12.879 0.223 76.851
5490.917 0.224 76.792 0.974 -12.939 0.974 -12.939 0.224 76.792
5515.875 0.225 76.732 0.973 -13 0.973 -13 0.225 76.732
5540.833 0.226 76.673 0.973 -13.061 0.973 -13.061 0.226 76.673
5565.792 0.227 76.613 0.973 -13.122 0.973 -13.122 0.227 76.613
5590.75 0.228 76.554 0.973 -13.182 0.973 -13.182 0.228 76.554
5615.708 0.229 76.494 0.972 -13.243 0.972 -13.243 0.229 76.494
5640.667 0.23 76.435 0.972 -13.303 0.972 -13.303 0.23 76.435
5665.625 0.231 76.376 0.972 -13.364 0.972 -13.364 0.231 76.376
5690.583 0.232 76.317 0.972 -13.424 0.972 -13.424 0.232 76.317
5715.542 0.233 76.257 0.971 -13.485 0.971 -13.485 0.233 76.257
5740.5 0.234 76.198 0.971 -13.545 0.971 -13.545 0.234 76.198
5765.458 0.235 76.139 0.971 -13.605 0.971 -13.605 0.235 76.139
5790.417 0.236 76.08 0.971 -13.666 0.971 -13.666 0.236 76.08
5815.375 0.237 76.021 0.97 -13.726 0.97 -13.726 0.237 76.021
5840.333 0.238 75.962 0.97 -13.786 0.97 -13.786 0.238 75.962
5865.292 0.239 75.903 0.97 -13.846 0.97 -13.846 0.239 75.903
5890.25 0.24 75.844 0.97 -13.906 0.97 -13.906 0.24 75.844
5915.208 0.241 75.785 0.969 -13.966 0.969 -13.966 0.241 75.785
5940.167 0.242 75.726 0.969 -14.026 0.969 -14.026 0.242 75.726
5965.125 0.243 75.667 0.969 -14.086 0.969 -14.086 0.243 75.667
5990.083 0.244 75.608 0.969 -14.146 0.969 -14.146 0.244 75.608
6015.042 0.245 75.55 0.968 -14.206 0.968 -14.206 0.245 75.55
6040 0.246 75.491 0.968 -14.266 0.968 -14.266 0.246 75.491
6064.958 0.247 75.432 0.968 -14.326 0.968 -14.326 0.247 75.432
6089.917 0.248 75.373 0.968 -14.385 0.968 -14.385 0.248 75.373
6114.875 0.249 75.315 0.967 -14.445 0.967 -14.445 0.249 75.315
6139.833 0.25 75.256 0.967 -14.505 0.967 -14.505 0.25 75.256
6164.792 0.251 75.198 0.967 -14.564 0.967 -14.564 0.251 75.198
6189.75 0.252 75.139 0.967 -14.624 0.967 -14.624 0.252 75.139
6214.708 0.253 75.081 0.966 -14.683 0.966 -14.683 0.253 75.081
6239.667 0.254 75.022 0.966 -14.743 0.966 -14.743 0.254 75.022
6264.625 0.255 74.964 0.966 -14.802 0.966 -14.802 0.255 74.964
6289.583 0.256 74.905 0.966 -14.862 0.966 -14.862 0.256 74.905
6314.542 0.257 74.847 0.965 -14.921 0.965 -14.921 0.257 74.847
6339.5 0.258 74.789 0.965 -14.98 0.965 -14.98 0.258 74.789
6364.458 0.259 74.73 0.965 -15.039 0.965 -15.039 0.259 74.73
6389.417 0.26 74.672 0.964 -15.099 0.964 -15.099 0.26 74.672
6414.375 0.261 74.614 0.964 -15.158 0.964 -15.158 0.261 74.614
6439.333 0.262 74.556 0.964 -15.217 0.964 -15.217 0.262 74.556
6464.292 0.263 74.498 0.964 -15.276 0.964 -15.276 0.263 74.498
6489.25 0.264 74.44 0.963 -15.335 0.963 -15.335 0.264 74.44
6514.208 0.265 74.381 0.963 -15.394 0.963 -15.394 0.265 74.381
6539.167 0.266 74.323 0.963 -15.453 0.963 -15.453 0.266 74.323
6564.125 0.267 74.265 0.963 -15.512 0.963 -15.512 0.267 74.265
6589.083 0.268 74.207 0.962 -15.571 0.962 -15.571 0.268 74.207
6614.042 0.269 74.15 0.962 -15.629 0.962 -15.629 0.269 74.15
6639 0.27 74.092 0.962 -15.688 0.962 -15.688 0.27 74.092
6663.958 0.271 74.034 0.961 -15.747 0.961 -15.747 0.271 74.034
6688.917 0.272 73.976 0.961 -15.806 0.961 -15.806 0.272 73.976
6713.875 0.273 73.918 0.961 -15.864 0.961 -15.864 0.273 73.918
6738.833 0.274 73.861 0.961 -15.923 0.961 -15.923 0.274 73.861
6763.792 0.275 73.803 0.96 -15.981 0.96 -15.981 0.275 73.803
6788.75 0.276 73.745 0.96 -16.04 0.96 -16.04 0.276 73.745
6813.708 0.277 73.688 0.96 -16.098 0.96 -16.098 0.277 73.688
6838.667 0.278 73.63 0.959 -16.157 0.959 -16.157 0.278 73.63
6863.625 0.279 73.572 0.959 -16.215 0.959 -16.215 0.279 73.572
6888.583 0.28 73.515 0.959 -16.273 0.959 -16.273 0.28 73.515
6913.542 0.281 73.457 0.959 -16.332 0.959 -16.332 0.281 73.457
6938.5 0.282 73.4 0.958 -16.39 0.958 -16.39 0.282 73.4
6963.458 0.283 73.343 0.958 -16.448 0.958 -16.448 0.283 73.343
6988.417 0.284 73.285 0.958 -16.506 0.958 -16.506 0.284 73.285
7013.375 0.285 73.228 0.957 -16.564 0.957 -16.564 0.285 73.228
7038.333 0.286 73.171 0.957 -16.622 0.957 -16.622 0.286 73.171
7063.292 0.287 73.113 0.957 -16.68 0.957 -16.68 0.287 73.113
7088.25 0.288 73.056 0.957 -16.738 0.957 -16.738 0.288 73.056
7113.208 0.289 72.999 0.956 -16.796 0.956 -16.796 0.289 72.999
7138.167 0.29 72.942 0.956 -16.854 0.956 -16.854 0.29 72.942
7163.125 0.291 72.885 0.956 -16.912 0.956 -16.912 0.291 72.885
7188.083 0.292 72.828 0.955 -16.97 0.955 -16.97 0.292 72.828
7213.042 0.293 72.771 0.955 -17.027 0.955 -17.027 0.293 72.771
7238 0.294 72.714 0.955 -17.085 0.955 -17.085 0.294 72.714
7262.958 0.295 72.657 0.955 -17.143 0.955 -17.143 0.295 72.657
7287.917 0.296 72.6 0.954 -17.2 0.954 -17.2 0.296 72.6
7312.875 0.297 72.543 0.954 -17.258 0.954 -17.258 0.297 72.543
7337.833 0.298 72.486 0.954 -17.316 0.954 -17.316 0.298 72.486
7362.792 0.299 72.429 0.953 -17.373 0.953 -17.373 0.299 72.429
7387.75 0.3 72.373 0.953 -17.43 0.953 -17.43 0.3 72.373
7412.708 0.301 72.316 0.953 -17.488 0.953 -17.488 0.301 72.316
7437.667 0.301 72.259 0.952 -17.545 0.952 -17.545 0.301 72.259
7462.625 0.302 72.203 0.952 -17.603 0.952 -17.603 0.302 72.203
7487.583 0.303 72.146 0.952 -17.66 0.952 -17.66 0.303 72.146
7512.542 0.304 72.089 0.952 -17.717 0.952 -17.717 0.304 72.089
7537.5 0.305 72.033 0.951 -17.774 0.951 -17.774 0.305 72.033
7562.458 0.306 71.976 0.951 -17.831 0.951 -17.831 0.306 71.976
7587.417 0.307 71.92 0.951 -17.888 0.951 -17.888 0.307 71.92
7612.375 0.308 71.864 0.95 -17.946 0.95 -17.946 0.308 71.864
7637.333 0.309 71.807 0.95 -18.003 0.95 -18.003 0.309 71.807
7662.292 0.31 71.751 0.95 -18.06 0.95 -18.06 0.31 71.751
7687.25 0.311 71.695 0.949 -18.116 0.949 -18.116 0.311 71.695
7712.208 0.312 71.638 0.949 -18.173 0.949 -18.173 0.312 71.638
7737.167 0.313 71.582 0.949 -18.23 0.949 -18.23 0.313 71.582
7762.125 0.314 71.526 0.948 -18.287 0.948 -18.287 0.314 71.526
7787.083 0.315 71.47 0.948 -18.344 0.948 -18.344 0.315 71.47
7812.042 0.316 71.414 0.948 -18.4 0.948 -18.4 0.316 71.414
7837 0.317 71.358 0.948 -18.457 0.948 -18.457 0.317 71.358
7861.958 0.318 71.302 0.947 -18.514 0.947 -18.514 0.318 71.302
7886.917 0.318 71.246 0.947 -18.57 0.947 -18.57 0.318 71.246
7911.875 0.319 71.19 0.947 -18.627 0.947 -18.627 0.319 71.19
7936.833 0.32 71.134 0.946 -18.683 0.946 -18.683 0.32 71.134
7961.792 0.321 71.078 0.946 -18.74 0.946 -18.74 0.321 71.078
7986.75 0.322 71.022 0.946 -18.796 0.946 -18.796 0.322 71.022
8011.708 0.323 70.966 0.945 -18.853 0.945 -18.853 0.323 70.966
8036.667 0.324 70.911 0.945 -18.909 0.945 -18.909 0.324 70.911
8061.625 0.325 70.855 0.945 -18.965 0.945 -18.965 0.325 70.855
8086.583 0.326 70.799 0.944 -19.021 0.944 -19.021 0.326 70.799
8111.542 0.327 70.744 0.944 -19.078 0.944 -19.078 0.327 70.744
8136.5 0.328 70.688 0.944 -19.134 0.944 -19.134 0.328 70.688
8161.458 0.329 70.632 0.943 -19.19 0.943 -19.19 0.329 70.632
8186.417 0.33 70.577 0.943 -19.246 0.943 -19.246 0.33 70.577
8211.375 0.331 70.521 0.943 -19.302 0.943 -19.302 0.331 70.521
