# MHZ S MA R 50

50 0.992 -7.164 0.125 82.825 0.125 82.825 0.992 -7.164
74.958 0.983 -10.675 0.185 79.308 0.185 79.308 0.983 -10.675
99.917 0.97 -14.111 0.244 75.867 0.244 75.867 0.97 -14.111
124.875 0.954 -17.452 0.3 72.521 0.3 72.521 0.954 -17.452
149.833 0.935 -20.682 0.353 69.286 0.353 69.286 0.935 -20.682
174.792 0.915 -23.787 0.403 66.176 0.403 66.176 0.915 -23.787
199.75 0.893 -26.759 0.45 63.198 0.45 63.198 0.893 -26.759
224.708 0.869 -29.592 0.494 60.359 0.494 60.359 0.869 -29.592
249.667 0.845 -32.285 0.534 57.661 0.534 57.661 0.845 -32.285
274.625 0.82 -34.836 0.571 55.104 0.571 55.104 0.82 -34.836
299.583 0.795 -37.25 0.605 52.685 0.605 52.685 0.795 -37.25
324.542 0.771 -39.529 0.636 50.401 0.636 50.401 0.771 -39.529
349.5 0.746 -41.679 0.665 48.245 0.665 48.245 0.746 -41.679
374.458 0.722 -43.705 0.691 46.213 0.691 46.213 0.722 -43.705
399.417 0.698 -45.615 0.715 44.298 0.715 44.298 0.698 -45.615
424.375 0.676 -47.414 0.736 42.493 0.736 42.493 0.676 -47.414
449.333 0.653 -49.109 0.756 40.792 0.756 40.792 0.653 -49.109
474.292 0.632 -50.708 0.774 39.188 0.774 39.188 0.632 -50.708
499.25 0.611 -52.216 0.79 37.674 0.79 37.674 0.611 -52.216
524.208 0.591 -53.639 0.805 36.245 0.805 36.245 0.591 -53.639
549.167 0.572 -54.983 0.819 34.895 0.819 34.895 0.572 -54.983
574.125 0.554 -56.254 0.832 33.617 0.832 33.617 0.554 -56.254
599.083 0.536 -57.457 0.843 32.408 0.843 32.408 0.536 -57.457
624.042 0.519 -58.597 0.854 31.263 0.854 31.263 0.519 -58.597
649 0.503 -59.677 0.863 30.176 0.863 30.176 0.503 -59.677
673.958 0.487 -60.703 0.872 29.144 0.872 29.144 0.487 -60.703
698.917 0.472 -61.677 0.88 28.164 0.88 28.164 0.472 -61.677
723.875 0.458 -62.604 0.888 27.23 0.888 27.23 0.458 -62.604
748.833 0.444 -63.487 0.895 26.341 0.895 26.341 0.444 -63.487
773.792 0.43 -64.328 0.901 25.493 0.901 25.493 0.43 -64.328
798.75 0.418 -65.131 0.907 24.684 0.907 24.684 0.418 -65.131
823.708 0.405 -65.897 0.913 23.91 0.913 23.91 0.405 -65.897
848.667 0.393 -66.63 0.918 23.17 0.918 23.17 0.393 -66.63
873.625 0.382 -67.332 0.923 22.462 0.923 22.462 0.382 -67.332
898.583 0.371 -68.004 0.927 21.783 0.927 21.783 0.371 -68.004
923.542 0.361 -68.648 0.931 21.131 0.931 21.131 0.361 -68.648
948.5 0.35 -69.267 0.935 20.505 0.935 20.505 0.35 -69.267
973.458 0.34 -69.861 0.939 19.904 0.939 19.904 0.34 -69.861
998.417 0.331 -70.432 0.942 19.325 0.942 19.325 0.331 -70.432
1023.375 0.322 -70.981 0.945 18.768 0.945 18.768 0.322 -70.981
1048.333 0.313 -71.51 0.948 18.231 0.948 18.231 0.313 -71.51
1073.292 0.304 -72.02 0.951 17.713 0.951 17.713 0.304 -72.02
1098.25 0.296 -72.512 0.954 17.212 0.954 17.212 0.296 -72.512
1123.208 0.288 -72.987 0.956 16.729 0.956 16.729 0.288 -72.987
1148.167 0.28 -73.446 0.959 16.262 0.959 16.262 0.28 -73.446
1173.125 0.272 -73.889 0.961 15.81 0.961 15.81 0.272 -73.889
1198.083 0.265 -74.318 0.963 15.372 0.963 15.372 0.265 -74.318
1223.042 0.258 -74.733 0.965 14.948 0.965 14.948 0.258 -74.733
1248 0.251 -75.135 0.967 14.537 0.967 14.537 0.251 -75.135
1272.958 0.244 -75.524 0.968 14.137 0.968 14.137 0.244 -75.524
1297.917 0.238 -75.902 0.97 13.75 0.97 13.75 0.238 -75.902
1322.875 0.231 -76.268 0.971 13.373 0.971 13.373 0.231 -76.268
1347.833 0.225 -76.624 0.973 13.007 0.973 13.007 0.225 -76.624
1372.792 0.219 -76.969 0.974 12.651 0.974 12.651 0.219 -76.969
1397.75 0.213 -77.305 0.976 12.304 0.976 12.304 0.213 -77.305
1422.708 0.207 -77.632 0.977 11.966 0.977 11.966 0.207 -77.632
1447.667 0.202 -77.949 0.978 11.637 0.978 11.637 0.202 -77.949
1472.625 0.196 -78.258 0.979 11.316 0.979 11.316 0.196 -78.258
1497.583 0.191 -78.559 0.98 11.003 0.98 11.003 0.191 -78.559
1522.542 0.186 -78.851 0.981 10.697 0.981 10.697 0.186 -78.851
1547.5 0.181 -79.136 0.982 10.399 0.982 10.399 0.181 -79.136
1572.458 0.175 -79.414 0.983 10.107 0.983 10.107 0.175 -79.414
1597.417 0.171 -79.685 0.984 9.822 0.984 9.822 0.171 -79.685
1622.375 0.166 -79.949 0.985 9.544 0.985 9.544 0.166 -79.949
1647.333 0.161 -80.207 0.985 9.271 0.985 9.271 0.161 -80.207
1672.292 0.157 -80.458 0.986 9.004 0.986 9.004 0.157 -80.458
1697.25 0.152 -80.703 0.987 8.742 0.987 8.742 0.152 -80.703
1722.208 0.148 -80.942 0.988 8.486 0.988 8.486 0.148 -80.942
1747.167 0.143 -81.176 0.988 8.235 0.988 8.235 0.143 -81.176
1772.125 0.139 -81.403 0.989 7.989 0.989 7.989 0.139 -81.403
1797.083 0.135 -81.626 0.989 7.748 0.989 7.748 0.135 -81.626
1822.042 0.131 -81.843 0.99 7.511 0.99 7.511 0.131 -81.843
1847 0.127 -82.054 0.99 7.278 0.99 7.278 0.127 -82.054
1871.958 0.123 -82.261 0.991 7.05 0.991 7.05 0.123 -82.261
1896.917 0.119 -82.462 0.991 6.825 0.991 6.825 0.119 -82.462
1921.875 0.115 -82.659 0.992 6.605 0.992 6.605 0.115 -82.659
1946.833 0.111 -82.85 0.992 6.388 0.992 6.388 0.111 -82.85
1971.792 0.108 -83.037 0.993 6.175 0.993 6.175 0.108 -83.037
1996.75 0.104 -83.219 0.993 5.966 0.993 5.966 0.104 -83.219
2021.708 0.1 -83.395 0.993 5.759 0.993 5.759 0.1 -83.395
2046.667 0.097 -83.567 0.994 5.556 0.994 5.556 0.097 -83.567
2071.625 0.093 -83.734 0.994 5.357 0.994 5.357 0.093 -83.734
2096.583 0.09 -83.896 0.994 5.16 0.994 5.16 0.09 -83.896
2121.542 0.087 -84.053 0.995 4.966 0.995 4.966 0.087 -84.053
2146.5 0.083 -84.205 0.995 4.775 0.995 4.775 0.083 -84.205
2171.458 0.08 -84.351 0.995 4.587 0.995 4.587 0.08 -84.351
2196.417 0.077 -84.491 0.996 4.401 0.996 4.401 0.077 -84.491
2221.375 0.074 -84.626 0.996 4.218 0.996 4.218 0.074 -84.626
2246.333 0.07 -84.755 0.996 4.037 0.996 4.037 0.07 -84.755
2271.292 0.067 -84.877 0.996 3.859 0.996 3.859 0.067 -84.877
2296.25 0.064 -84.992 0.996 3.683 0.996 3.683 0.064 -84.992
2321.208 0.061 -85.1 0.997 3.51 0.997 3.51 0.061 -85.1
2346.167 0.058 -85.2 0.997 3.338 0.997 3.338 0.058 -85.2
2371.125 0.055 -85.291 0.997 3.169 0.997 3.169 0.055 -85.291
2396.083 0.052 -85.373 0.997 3.002 0.997 3.002 0.052 -85.373
2421.042 0.05 -85.443 0.997 2.837 0.997 2.837 0.05 -85.443
2446 0.047 -85.501 0.997 2.674 0.997 2.674 0.047 -85.501
2470.958 0.044 -85.545 0.998 2.512 0.998 2.512 0.044 -85.545
2495.917 0.041 -85.573 0.998 2.353 0.998 2.353 0.041 -85.573
2520.875 0.038 -85.582 0.998 2.195 0.998 2.195 0.038 -85.582
2545.833 0.036 -85.568 0.998 2.039 0.998 2.039 0.036 -85.568
2570.792 0.033 -85.526 0.998 1.885 0.998 1.885 0.033 -85.526
2595.75 0.03 -85.451 0.998 1.732 0.998 1.732 0.03 -85.451
2620.708 0.028 -85.333 0.998 1.581 0.998 1.581 0.028 -85.333
2645.667 0.025 -85.161 0.998 1.432 0.998 1.432 0.025 -85.161
2670.625 0.022 -84.917 0.998 1.284 0.998 1.284 0.022 -84.917
2695.583 0.02 -84.575 0.998 1.137 0.998 1.137 0.02 -84.575
2720.542 0.017 -84.096 0.998 0.992 0.998 0.992 0.017 -84.096
2745.5 0.015 -83.413 0.998 0.848 0.998 0.848 0.015 -83.413
2770.458 0.012 -82.409 0.998 0.706 0.998 0.706 0.012 -82.409
2795.417 9.973e-3 -80.854 0.998 0.565 0.998 0.565 9.973e-3 -80.854
2820.375 7.571e-3 -78.239 0.998 0.425 0.998 0.425 7.571e-3 -78.239
2845.333 5.223e-3 -73.16 0.998 0.287 0.998 0.287 5.223e-3 -73.16
2870.292 3.006e-3 -60.177 0.999 0.15 0.999 0.15 3.006e-3 -60.177
2895.25 1.507e-3 -9.057 0.999 0.014 0.999 0.014 1.507e-3 -9.057
2920.208 2.587e-3 54.764 0.999 -0.121 0.999 -0.121 2.587e-3 54.764
2945.167 4.692e-3 71.255 0.999 -0.255 0.999 -0.255 4.692e-3 71.255
2970.125 6.926e-3 77.206 0.998 -0.388 0.998 -0.388 6.926e-3 77.206
2995.083 9.181e-3 80.154 0.998 -0.519 0.998 -0.519 9.181e-3 80.154
3020.042 0.011 81.873 0.998 -0.65 0.998 -0.65 0.011 81.873
3045 0.014 82.975 0.998 -0.779 0.998 -0.779 0.014 82.975
3069.958 0.016 83.725 0.998 -0.907 0.998 -0.907 0.016 83.725
3094.917 0.018 84.256 0.998 -1.035 0.998 -1.035 0.018 84.256
3119.875 0.02 84.64 0.998 -1.161 0.998 -1.161 0.02 84.64
3144.833 0.023 84.923 0.998 -1.287 0.998 -1.287 0.023 84.923
3169.792 0.025 85.132 0.998 -1.411 0.998 -1.411 0.025 85.132
3194.75 0.027 85.287 0.998 -1.535 0.998 -1.535 0.027 85.287
3219.708 0.029 85.399 0.998 -1.658 0.998 -1.658 0.029 85.399
3244.667 0.031 85.478 0.998 -1.78 0.998 -1.78 0.031 85.478
3269.625 0.033 85.532 0.998 -1.901 0.998 -1.901 0.033 85.532
3294.583 0.035 85.564 0.998 -2.021 0.998 -2.021 0.035 85.564
3319.542 0.037 85.58 0.998 -2.141 0.998 -2.141 0.037 85.58
3344.5 0.039 85.581 0.998 -2.259 0.998 -2.259 0.039 85.581
3369.458 0.042 85.57 0.998 -2.377 0.998 -2.377 0.042 85.57
3394.417 0.044 85.549 0.998 -2.494 0.998 -2.494 0.044 85.549
3419.375 0.046 85.52 0.997 -2.611 0.997 -2.611 0.046 85.52
3444.333 0.048 85.484 0.997 -2.726 0.997 -2.726 0.048 85.484
3469.292 0.05 85.441 0.997 -2.841 0.997 -2.841 0.05 85.441
3494.25 0.052 85.394 0.997 -2.955 0.997 -2.955 0.052 85.394
3519.208 0.054 85.341 0.997 -3.069 0.997 -3.069 0.054 85.341
3544.167 0.056 85.285 0.997 -3.182 0.997 -3.182 0.056 85.285
3569.125 0.057 85.225 0.997 -3.294 0.997 -3.294 0.057 85.225
3594.083 0.059 85.162 0.997 -3.406 0.997 -3.406 0.059 85.162
3619.042 0.061 85.096 0.997 -3.517 0.997 -3.517 0.061 85.096
3644 0.063 85.028 0.997 -3.627 0.997 -3.627 0.063 85.028
3668.958 0.065 84.958 0.996 -3.737 0.996 -3.737 0.065 84.958
3693.917 0.067 84.886 0.996 -3.846 0.996 -3.846 0.067 84.886
3718.875 0.069 84.813 0.996 -3.954 0.996 -3.954 0.069 84.813
3743.833 0.071 84.738 0.996 -4.062 0.996 -4.062 0.071 84.738
3768.792 0.073 84.661 0.996 -4.169 0.996 -4.169 0.073 84.661
3793.75 0.075 84.584 0.996 -4.276 0.996 -4.276 0.075 84.584
3818.708 0.076 84.505 0.996 -4.383 0.996 -4.383 0.076 84.505
3843.667 0.078 84.426 0.995 -4.488 0.995 -4.488 0.078 84.426
3868.625 0.08 84.345 0.995 -4.593 0.995 -4.593 0.08 84.345
3893.583 0.082 84.265 0.995 -4.698 0.995 -4.698 0.082 84.265
3918.542 0.084 84.183 0.995 -4.802 0.995 -4.802 0.084 84.183
3943.5 0.086 84.101 0.995 -4.906 0.995 -4.906 0.086 84.101
3968.458 0.087 84.018 0.995 -5.009 0.995 -5.009 0.087 84.018
3993.417 0.089 83.935 0.995 -5.112 0.995 -5.112 0.089 83.935
4018.375 0.091 83.852 0.994 -5.214 0.994 -5.214 0.091 83.852
4043.333 0.093 83.768 0.994 -5.316 0.994 -5.316 0.093 83.768
4068.292 0.094 83.684 0.994 -5.417 0.994 -5.417 0.094 83.684
4093.25 0.096 83.599 0.994 -5.518 0.994 -5.518 0.096 83.599
4118.208 0.098 83.515 0.994 -5.618 0.994 -5.618 0.098 83.515
4143.167 0.1 83.43 0.994 -5.718 0.994 -5.718 0.1 83.43
4168.125 0.101 83.345 0.993 -5.818 0.993 -5.818 0.101 83.345
4193.083 0.103 83.26 0.993 -5.917 0.993 -5.917 0.103 83.26
4218.042 0.105 83.175 0.993 -6.016 0.993 -6.016 0.105 83.175
4243 0.107 83.09 0.993 -6.114 0.993 -6.114 0.107 83.09
4267.958 0.108 83.005 0.993 -6.212 0.993 -6.212 0.108 83.005
4292.917 0.11 82.919 0.992 -6.309 0.992 -6.309 0.11 82.919
4317.875 0.112 82.834 0.992 -6.407 0.992 -6.407 0.112 82.834
4342.833 0.113 82.749 0.992 -6.503 0.992 -6.503 0.113 82.749
4367.792 0.115 82.664 0.992 -6.6 0.992 -6.6 0.115 82.664
4392.75 0.117 82.578 0.992 -6.696 0.992 -6.696 0.117 82.578
4417.708 0.118 82.493 0.992 -6.791 0.992 -6.791 0.118 82.493
4442.667 0.12 82.408 0.991 -6.886 0.991 -6.886 0.12 82.408
4467.625 0.122 82.322 0.991 -6.981 0.991 -6.981 0.122 82.322
4492.583 0.123 82.237 0.991 -7.076 0.991 -7.076 0.123 82.237
4517.542 0.125 82.152 0.991 -7.17 0.991 -7.17 0.125 82.152
4542.5 0.126 82.067 0.99 -7.264 0.99 -7.264 0.126 82.067
4567.458 0.128 81.982 0.99 -7.357 0.99 -7.357 0.128 81.982
4592.417 0.13 81.898 0.99 -7.451 0.99 -7.451 0.13 81.898
4617.375 0.131 81.813 0.99 -7.543 0.99 -7.543 0.131 81.813
4642.333 0.133 81.728 0.99 -7.636 0.99 -7.636 0.133 81.728
4667.292 0.134 81.644 0.989 -7.728 0.989 -7.728 0.134 81.644
4692.25 0.136 81.559 0.989 -7.82 0.989 -7.82 0.136 81.559
4717.208 0.138 81.475 0.989 -7.912 0.989 -7.912 0.138 81.475
4742.167 0.139 81.391 0.989 -8.003 0.989 -8.003 0.139 81.391
4767.125 0.141 81.307 0.989 -8.094 0.989 -8.094 0.141 81.307
4792.083 0.142 81.223 0.988 -8.184 0.988 -8.184 0.142 81.223
4817.042 0.144 81.139 0.988 -8.275 0.988 -8.275 0.144 81.139
4842 0.145 81.055 0.988 -8.365 0.988 -8.365 0.145 81.055
4866.958 0.147 80.972 0.988 -8.455 0.988 -8.455 0.147 80.972
4891.917 0.149 80.888 0.987 -8.544 0.987 -8.544 0.149 80.888
4916.875 0.15 80.805 0.987 -8.634 0.987 -8.634 0.15 80.805
4941.833 0.152 80.722 0.987 -8.722 0.987 -8.722 0.152 80.722
4966.792 0.153 80.639 0.987 -8.811 0.987 -8.811 0.153 80.639
4991.75 0.155 80.556 0.986 -8.9 0.986 -8.9 0.155 80.556
5016.708 0.156 80.473 0.986 -8.988 0.986 -8.988 0.156 80.473
5041.667 0.158 80.391 0.986 -9.076 0.986 -9.076 0.158 80.391
5066.625 0.159 80.308 0.986 -9.163 0.986 -9.163 0.159 80.308
5091.583 0.161 80.226 0.986 -9.251 0.986 -9.251 0.161 80.226
5116.542 0.162 80.144 0.985 -9.338 0.985 -9.338 0.162 80.144
5141.5 0.164 80.062 0.985 -9.425 0.985 -9.425 0.164 80.062
5166.458 0.165 79.98 0.985 -9.511 0.985 -9.511 0.165 79.98
5191.417 0.167 79.898 0.985 -9.598 0.985 -9.598 0.167 79.898
5216.375 0.168 79.816 0.984 -9.684 0.984 -9.684 0.168 79.816
5241.333 0.17 79.735 0.984 -9.77 0.984 -9.77 0.17 79.735
5266.292 0.171 79.654 0.984 -9.855 0.984 -9.855 0.171 79.654
5291.25 0.173 79.573 0.984 -9.941 0.984 -9.941 0.173 79.573
5316.208 0.174 79.492 0.983 -10.026 0.983 -10.026 0.174 79.492
5341.167 0.176 79.411 0.983 -10.111 0.983 -10.111 0.176 79.411
5366.125 0.177 79.33 0.983 -10.196 0.983 -10.196 0.177 79.33
5391.083 0.178 79.249 0.982 -10.28 0.982 -10.28 0.178 79.249
5416.042 0.18 79.169 0.982 -10.365 0.982 -10.365 0.18 79.169
5441 0.181 79.089 0.982 -10.449 0.982 -10.449 0.181 79.089
5465.958 0.183 79.009 0.982 -10.533 0.982 -10.533 0.183 79.009
5490.917 0.184 78.929 0.981 -10.616 0.981 -10.616 0.184 78.929
5515.875 0.186 78.849 0.981 -10.7 0.981 -10.7 0.186 78.849
5540.833 0.187 78.769 0.981 -10.783 0.981 -10.783 0.187 78.769
5565.792 0.189 78.69 0.981 -10.866 0.981 -10.866 0.189 78.69
5590.75 0.19 78.61 0.98 -10.949 0.98 -10.949 0.19 78.61
5615.708 0.191 78.531 0.98 -11.032 0.98 -11.032 0.191 78.531
5640.667 0.193 78.452 0.98 -11.114 0.98 -11.114 0.193 78.452
5665.625 0.194 78.373 0.98 -11.196 0.98 -11.196 0.194 78.373
5690.583 0.196 78.294 0.979 -11.278 0.979 -11.278 0.196 78.294
5715.542 0.197 78.215 0.979 -11.36 0.979 -11.36 0.197 78.215
5740.5 0.198 78.137 0.979 -11.442 0.979 -11.442 0.198 78.137
5765.458 0.2 78.058 0.978 -11.523 0.978 -11.523 0.2 78.058
5790.417 0.201 77.98 0.978 -11.605 0.978 -11.605 0.201 77.98
5815.375 0.203 77.902 0.978 -11.686 0.978 -11.686 0.203 77.902
5840.333 0.204 77.824 0.978 -11.767 0.978 -11.767 0.204 77.824
5865.292 0.205 77.746 0.977 -11.847 0.977 -11.847 0.205 77.746
5890.25 0.207 77.669 0.977 -11.928 0.977 -11.928 0.207 77.669
5915.208 0.208 77.591 0.977 -12.008 0.977 -12.008 0.208 77.591
5940.167 0.209 77.513 0.976 -12.088 0.976 -12.088 0.209 77.513
5965.125 0.211 77.436 0.976 -12.168 0.976 -12.168 0.211 77.436
5990.083 0.212 77.359 0.976 -12.248 0.976 -12.248 0.212 77.359
6015.042 0.214 77.282 0.975 -12.328 0.975 -12.328 0.214 77.282
6040 0.215 77.205 0.975 -12.407 0.975 -12.407 0.215 77.205
6064.958 0.216 77.128 0.975 -12.487 0.975 -12.487 0.216 77.128
6089.917 0.218 77.052 0.975 -12.566 0.975 -12.566 0.218 77.052
6114.875 0.219 76.975 0.974 -12.645 0.974 -12.645 0.219 76.975
6139.833 0.22 76.899 0.974 -12.724 0.974 -12.724 0.22 76.899
6164.792 0.222 76.823 0.974 -12.802 0.974 -12.802 0.222 76.823
6189.75 0.223 76.746 0.973 -12.881 0.973 -12.881 0.223 76.746
6214.708 0.224 76.671 0.973 -12.959 0.973 -12.959 0.224 76.671
6239.667 0.226 76.595 0.973 -13.037 0.973 -13.037 0.226 76.595
6264.625 0.227 76.519 0.972 -13.115 0.972 -13.115 0.227 76.519
6289.583 0.228 76.443 0.972 -13.193 0.972 -13.193 0.228 76.443
6314.542 0.23 76.368 0.972 -13.271 0.972 -13.271 0.23 76.368
6339.5 0.231 76.293 0.972 -13.348 0.972 -13.348 0.231 76.293
6364.458 0.232 76.217 0.971 -13.425 0.971 -13.425 0.232 76.217
6389.417 0.233 76.142 0.971 -13.503 0.971 -13.503 0.233 76.142
6414.375 0.235 76.067 0.971 -13.58 0.971 -13.58 0.235 76.067
6439.333 0.236 75.992 0.97 -13.657 0.97 -13.657 0.236 75.992
6464.292 0.237 75.918 0.97 -13.733 0.97 -13.733 0.237 75.918
6489.25 0.239 75.843 0.97 -13.81 0.97 -13.81 0.239 75.843
6514.208 0.24 75.769 0.969 -13.886 0.969 -13.886 0.24 75.769
6539.167 0.241 75.694 0.969 -13.963 0.969 -13.963 0.241 75.694
6564.125 0.243 75.62 0.969 -14.039 0.969 -14.039 0.243 75.62
6589.083 0.244 75.546 0.968 -14.115 0.968 -14.115 0.244 75.546
6614.042 0.245 75.472 0.968 -14.191 0.968 -14.191 0.245 75.472
6639 0.246 75.398 0.968 -14.267 0.968 -14.267 0.246 75.398
6663.958 0.248 75.324 0.967 -14.342 0.967 -14.342 0.248 75.324
6688.917 0.249 75.251 0.967 -14.418 0.967 -14.418 0.249 75.251
6713.875 0.25 75.177 0.967 -14.493 0.967 -14.493 0.25 75.177
6738.833 0.252 75.104 0.966 -14.568 0.966 -14.568 0.252 75.104
6763.792 0.253 75.031 0.966 -14.643 0.966 -14.643 0.253 75.031
6788.75 0.254 74.957 0.966 -14.718 0.966 -14.718 0.254 74.957
6813.708 0.255 74.884 0.965 -14.793 0.965 -14.793 0.255 74.884
6838.667 0.257 74.812 0.965 -14.867 0.965 -14.867 0.257 74.812
6863.625 0.258 74.739 0.965 -14.942 0.965 -14.942 0.258 74.739
6888.583 0.259 74.666 0.964 -15.016 0.964 -15.016 0.259 74.666
6913.542 0.26 74.593 0.964 -15.09 0.964 -15.09 0.26 74.593
6938.5 0.262 74.521 0.964 -15.164 0.964 -15.164 0.262 74.521
6963.458 0.263 74.449 0.963 -15.238 0.963 -15.238 0.263 74.449
6988.417 0.264 74.376 0.963 -15.312 0.963 -15.312 0.264 74.376
7013.375 0.265 74.304 0.963 -15.386 0.963 -15.386 0.265 74.304
7038.333 0.267 74.232 0.962 -15.46 0.962 -15.46 0.267 74.232
7063.292 0.268 74.16 0.962 -15.533 0.962 -15.533 0.268 74.16
7088.25 0.269 74.088 0.962 -15.606 0.962 -15.606 0.269 74.088
7113.208 0.27 74.017 0.961 -15.679 0.961 -15.679 0.27 74.017
7138.167 0.271 73.945 0.961 -15.753 0.961 -15.753 0.271 73.945
7163.125 0.273 73.874 0.961 -15.825 0.961 -15.825 0.273 73.874
7188.083 0.274 73.802 0.96 -15.898 0.96 -15.898 0.274 73.802
7213.042 0.275 73.731 0.96 -15.971 0.96 -15.971 0.275 73.731
7238 0.276 73.66 0.96 -16.044 0.96 -16.044 0.276 73.66
7262.958 0.278 73.589 0.959 -16.116 0.959 -16.116 0.278 73.589
7287.917 0.279 73.518 0.959 -16.188 0.959 -16.188 0.279 73.518
7312.875 0.28 73.447 0.959 -16.261 0.959 -16.261 0.28 73.447
7337.833 0.281 73.376 0.958 -16.333 0.958 -16.333 0.281 73.376
7362.792 0.282 73.306 0.958 -16.405 0.958 -16.405 0.282 73.306
7387.75 0.284 73.235 0.958 -16.476 0.958 -16.476 0.284 73.235
7412.708 0.285 73.165 0.957 -16.548 0.957 -16.548 0.285 73.165
7437.667 0.286 73.095 0.957 -16.62 0.957 -16.62 0.286 73.095
7462.625 0.287 73.024 0.956 -16.691 0.956 -16.691 0.287 73.024
7487.583 0.288 72.954 0.956 -16.763 0.956 -16.763 0.288 72.954
7512.542 0.29 72.884 0.956 -16.834 0.956 -16.834 0.29 72.884
7537.5 0.291 72.814 0.955 -16.905 0.955 -16.905 0.291 72.814
7562.458 0.292 72.745 0.955 -16.976 0.955 -16.976 0.292 72.745
7587.417 0.293 72.675 0.955 -17.047 0.955 -17.047 0.293 72.675
7612.375 0.294 72.605 0.954 -17.118 0.954 -17.118 0.294 72.605
7637.333 0.296 72.536 0.954 -17.189 0.954 -17.189 0.296 72.536
7662.292 0.297 72.466 0.954 -17.259 0.954 -17.259 0.297 72.466
7687.25 0.298 72.397 0.953 -17.33 0.953 -17.33 0.298 72.397
7712.208 0.299 72.328 0.953 -17.4 0.953 -17.4 0.299 72.328
7737.167 0.3 72.259 0.952 -17.47 0.952 -17.47 0.3 72.259
7762.125 0.301 72.19 0.952 -17.54 0.952 -17.54 0.301 72.19
7787.083 0.303 72.121 0.952 -17.61 0.952 -17.61 0.303 72.121
7812.042 0.304 72.052 0.951 -17.68 0.951 -17.68 0.304 72.052
7837 0.305 71.984 0.951 -17.75 0.951 -17.75 0.305 71.984
7861.958 0.306 71.915 0.951 -17.82 0.951 -17.82 0.306 71.915
7886.917 0.307 71.846 0.95 -17.889 0.95 -17.889 0.307 71.846
7911.875 0.308 71.778 0.95 -17.959 0.95 -17.959 0.308 71.778
7936.833 0.309 71.71 0.949 -18.028 0.949 -18.028 0.309 71.71
7961.792 0.311 71.642 0.949 -18.098 0.949 -18.098 0.311 71.642
7986.75 0.312 71.573 0.949 -18.167 0.949 -18.167 0.312 71.573
8011.708 0.313 71.505 0.948 -18.236 0.948 -18.236 0.313 71.505
8036.667 0.314 71.437 0.948 -18.305 0.948 -18.305 0.314 71.437
8061.625 0.315 71.37 0.948 -18.374 0.948 -18.374 0.315 71.37
8086.583 0.316 71.302 0.947 -18.442 0.947 -18.442 0.316 71.302
8111.542 0.317 71.234 0.947 -18.511 0.947 -18.511 0.317 71.234
8136.5 0.319 71.167 0.946 -18.58 0.946 -18.58 0.319 71.167
8161.458 0.32 71.099 0.946 -18.648 0.946 -18.648 0.32 71.099
8186.417 0.321 71.032 0.946 -18.716 0.946 -18.716 0.321 71.032
