# MHZ S MA R 50

50 0.997 -4.67 0.081 85.322 0.081 85.322 0.997 -4.67
74.958 0.993 -6.984 0.122 83.004 0.122 83.004 0.993 -6.984
99.917 0.987 -9.277 0.161 80.707 0.161 80.707 0.987 -9.277
124.875 0.98 -11.543 0.2 78.437 0.2 78.437 0.98 -11.543
149.833 0.971 -13.776 0.238 76.201 0.238 76.201 0.971 -13.776
174.792 0.961 -15.97 0.275 74.002 0.275 74.002 0.961 -15.97
199.75 0.95 -18.122 0.311 71.847 0.311 71.847 0.95 -18.122
224.708 0.938 -20.227 0.346 69.738 0.346 69.738 0.938 -20.227
249.667 0.925 -22.281 0.379 67.68 0.379 67.68 0.925 -22.281
274.625 0.911 -24.282 0.411 65.675 0.411 65.675 0.911 -24.282
299.583 0.897 -26.227 0.442 63.725 0.442 63.725 0.897 -26.227
324.542 0.882 -28.116 0.471 61.833 0.471 61.833 0.882 -28.116
349.5 0.866 -29.947 0.499 59.998 0.499 59.998 0.866 -29.947
374.458 0.85 -31.72 0.526 58.221 0.526 58.221 0.85 -31.72
399.417 0.834 -33.434 0.551 56.503 0.551 56.503 0.834 -33.434
424.375 0.818 -35.09 0.575 54.843 0.575 54.843 0.818 -35.09
449.333 0.801 -36.689 0.597 53.24 0.597 53.24 0.801 -36.689
474.292 0.785 -38.232 0.619 51.693 0.619 51.693 0.785 -38.232
499.25 0.768 -39.719 0.639 50.201 0.639 50.201 0.768 -39.719
524.208 0.752 -41.153 0.658 48.764 0.658 48.764 0.752 -41.153
549.167 0.736 -42.534 0.676 47.378 0.676 47.378 0.736 -42.534
574.125 0.72 -43.865 0.693 46.043 0.693 46.043 0.72 -43.865
599.083 0.704 -45.146 0.709 44.757 0.709 44.757 0.704 -45.146
624.042 0.689 -46.381 0.724 43.518 0.724 43.518 0.689 -46.381
649 0.673 -47.57 0.738 42.325 0.738 42.325 0.673 -47.57
673.958 0.658 -48.716 0.751 41.175 0.751 41.175 0.658 -48.716
698.917 0.644 -49.819 0.764 40.067 0.764 40.067 0.644 -49.819
723.875 0.629 -50.883 0.776 38.999 0.776 38.999 0.629 -50.883
748.833 0.615 -51.908 0.787 37.97 0.787 37.97 0.615 -51.908
773.792 0.601 -52.896 0.798 36.977 0.798 36.977 0.601 -52.896
798.75 0.588 -53.849 0.807 36.019 0.807 36.019 0.588 -53.849
823.708 0.575 -54.769 0.817 35.095 0.817 35.095 0.575 -54.769
848.667 0.562 -55.656 0.826 34.203 0.826 34.203 0.562 -55.656
873.625 0.55 -56.513 0.834 33.342 0.834 33.342 0.55 -56.513
898.583 0.537 -57.341 0.842 32.51 0.842 32.51 0.537 -57.341
923.542 0.526 -58.14 0.849 31.705 0.849 31.705 0.526 -58.14
948.5 0.514 -58.913 0.856 30.927 0.856 30.927 0.514 -58.913
973.458 0.503 -59.661 0.863 30.175 0.863 30.175 0.503 -59.661
998.417 0.492 -60.384 0.869 29.447 0.869 29.447 0.492 -60.384
1023.375 0.481 -61.084 0.875 28.742 0.875 28.742 0.481 -61.084
1048.333 0.47 -61.762 0.881 28.059 0.881 28.059 0.47 -61.762
1073.292 0.46 -62.419 0.886 27.397 0.886 27.397 0.46 -62.419
1098.25 0.45 -63.055 0.891 26.755 0.891 26.755 0.45 -63.055
1123.208 0.44 -63.673 0.896 26.133 0.896 26.133 0.44 -63.673
1148.167 0.431 -64.271 0.901 25.529 0.901 25.529 0.431 -64.271
1173.125 0.422 -64.853 0.905 24.942 0.905 24.942 0.422 -64.853
1198.083 0.413 -65.417 0.909 24.372 0.909 24.372 0.413 -65.417
1223.042 0.404 -65.965 0.913 23.818 0.913 23.818 0.404 -65.965
1248 0.395 -66.498 0.917 23.28 0.917 23.28 0.395 -66.498
1272.958 0.387 -67.016 0.921 22.756 0.921 22.756 0.387 -67.016
1297.917 0.379 -67.519 0.924 22.247 0.924 22.247 0.379 -67.519
1322.875 0.371 -68.01 0.927 21.751 0.927 21.751 0.371 -68.01
1347.833 0.363 -68.487 0.93 21.268 0.93 21.268 0.363 -68.487
1372.792 0.355 -68.951 0.933 20.797 0.933 20.797 0.355 -68.951
1397.75 0.348 -69.404 0.936 20.338 0.936 20.338 0.348 -69.404
1422.708 0.34 -69.845 0.939 19.891 0.939 19.891 0.34 -69.845
1447.667 0.333 -70.276 0.941 19.454 0.941 19.454 0.333 -70.276
1472.625 0.326 -70.695 0.944 19.028 0.944 19.028 0.326 -70.695
1497.583 0.319 -71.104 0.946 18.612 0.946 18.612 0.319 -71.104
1522.542 0.312 -71.504 0.948 18.205 0.948 18.205 0.312 -71.504
1547.5 0.306 -71.894 0.95 17.808 0.95 17.808 0.306 -71.894
1572.458 0.299 -72.275 0.953 17.42 0.953 17.42 0.299 -72.275
1597.417 0.293 -72.647 0.955 17.041 0.955 17.041 0.293 -72.647
1622.375 0.287 -73.011 0.956 16.67 0.956 16.67 0.287 -73.011
1647.333 0.281 -73.367 0.958 16.306 0.958 16.306 0.281 -73.367
1672.292 0.275 -73.715 0.96 15.951 0.96 15.951 0.275 -73.715
1697.25 0.269 -74.055 0.962 15.603 0.962 15.603 0.269 -74.055
1722.208 0.263 -74.388 0.963 15.262 0.963 15.262 0.263 -74.388
1747.167 0.258 -74.714 0.965 14.927 0.965 14.927 0.258 -74.714
1772.125 0.252 -75.033 0.966 14.6 0.966 14.6 0.252 -75.033
1797.083 0.247 -75.346 0.967 14.279 0.967 14.279 0.247 -75.346
1822.042 0.241 -75.652 0.969 13.964 0.969 13.964 0.241 -75.652
1847 0.236 -75.952 0.97 13.655 0.97 13.655 0.236 -75.952
1871.958 0.231 -76.246 0.971 13.351 0.971 13.351 0.231 -76.246
1896.917 0.226 -76.535 0.973 13.053 0.973 13.053 0.226 -76.535
1921.875 0.221 -76.817 0.974 12.761 0.974 12.761 0.221 -76.817
1946.833 0.216 -77.094 0.975 12.474 0.975 12.474 0.216 -77.094
1971.792 0.211 -77.366 0.976 12.191 0.976 12.191 0.211 -77.366
1996.75 0.206 -77.633 0.977 11.914 0.977 11.914 0.206 -77.633
2021.708 0.202 -77.895 0.978 11.641 0.978 11.641 0.202 -77.895
2046.667 0.197 -78.152 0.979 11.373 0.979 11.373 0.197 -78.152
2071.625 0.193 -78.404 0.98 11.109 0.98 11.109 0.193 -78.404
2096.583 0.188 -78.652 0.98 10.85 0.98 10.85 0.188 -78.652
2121.542 0.184 -78.895 0.981 10.594 0.981 10.594 0.184 -78.895
2146.5 0.18 -79.133 0.982 10.343 0.982 10.343 0.18 -79.133
2171.458 0.175 -79.368 0.983 10.096 0.983 10.096 0.175 -79.368
2196.417 0.171 -79.598 0.984 9.852 0.984 9.852 0.171 -79.598
2221.375 0.167 -79.824 0.984 9.612 0.984 9.612 0.167 -79.824
2246.333 0.163 -80.046 0.985 9.375 0.985 9.375 0.163 -80.046
2271.292 0.159 -80.264 0.986 9.142 0.986 9.142 0.159 -80.264
2296.25 0.155 -80.479 0.986 8.912 0.986 8.912 0.155 -80.479
2321.208 0.151 -80.689 0.987 8.685 0.987 8.685 0.151 -80.689
2346.167 0.147 -80.896 0.987 8.462 0.987 8.462 0.147 -80.896
2371.125 0.143 -81.099 0.988 8.242 0.988 8.242 0.143 -81.099
2396.083 0.14 -81.298 0.989 8.024 0.989 8.024 0.14 -81.298
2421.042 0.136 -81.494 0.989 7.81 0.989 7.81 0.136 -81.494
2446 0.132 -81.686 0.99 7.598 0.99 7.598 0.132 -81.686
2470.958 0.129 -81.875 0.99 7.389 0.99 7.389 0.129 -81.875
2495.917 0.125 -82.06 0.99 7.182 0.99 7.182 0.125 -82.06
2520.875 0.122 -82.241 0.991 6.978 0.991 6.978 0.122 -82.241
2545.833 0.118 -82.419 0.991 6.777 0.991 6.777 0.118 -82.419
2570.792 0.115 -82.593 0.992 6.578 0.992 6.578 0.115 -82.593
2595.75 0.111 -82.764 0.992 6.382 0.992 6.382 0.111 -82.764
2620.708 0.108 -82.931 0.993 6.188 0.993 6.188 0.108 -82.931
2645.667 0.104 -83.095 0.993 5.996 0.993 5.996 0.104 -83.095
2670.625 0.101 -83.255 0.993 5.806 0.993 5.806 0.101 -83.255
2695.583 0.098 -83.411 0.994 5.618 0.994 5.618 0.098 -83.411
2720.542 0.095 -83.563 0.994 5.433 0.994 5.433 0.095 -83.563
2745.5 0.092 -83.711 0.994 5.249 0.994 5.249 0.092 -83.711
2770.458 0.088 -83.855 0.994 5.068 0.994 5.068 0.088 -83.855
2795.417 0.085 -83.995 0.995 4.888 0.995 4.888 0.085 -83.995
2820.375 0.082 -84.13 0.995 4.711 0.995 4.711 0.082 -84.13
2845.333 0.079 -84.261 0.995 4.535 0.995 4.535 0.079 -84.261
2870.292 0.076 -84.387 0.995 4.361 0.995 4.361 0.076 -84.387
2895.25 0.073 -84.507 0.996 4.188 0.996 4.188 0.073 -84.507
2920.208 0.07 -84.622 0.996 4.018 0.996 4.018 0.07 -84.622
2945.167 0.067 -84.731 0.996 3.849 0.996 3.849 0.067 -84.731
2970.125 0.064 -84.834 0.996 3.682 0.996 3.682 0.064 -84.834
2995.083 0.061 -84.929 0.996 3.516 0.996 3.516 0.061 -84.929
3020.042 0.058 -85.017 0.997 3.352 0.997 3.352 0.058 -85.017
3045 0.056 -85.097 0.997 3.189 0.997 3.189 0.056 -85.097
3069.958 0.053 -85.166 0.997 3.028 0.997 3.028 0.053 -85.166
3094.917 0.05 -85.225 0.997 2.869 0.997 2.869 0.05 -85.225
3119.875 0.047 -85.272 0.997 2.71 0.997 2.71 0.047 -85.272
3144.833 0.045 -85.305 0.997 2.554 0.997 2.554 0.045 -85.305
3169.792 0.042 -85.322 0.997 2.398 0.997 2.398 0.042 -85.322
3194.75 0.039 -85.319 0.998 2.244 0.998 2.244 0.039 -85.319
3219.708 0.037 -85.294 0.998 2.091 0.998 2.091 0.037 -85.294
3244.667 0.034 -85.241 0.998 1.94 0.998 1.94 0.034 -85.241
3269.625 0.031 -85.155 0.998 1.789 0.998 1.789 0.031 -85.155
3294.583 0.029 -85.027 0.998 1.64 0.998 1.64 0.029 -85.027
3319.542 0.026 -84.845 0.998 1.492 0.998 1.492 0.026 -84.845
3344.5 0.024 -84.594 0.998 1.346 0.998 1.346 0.024 -84.594
3369.458 0.021 -84.249 0.998 1.2 0.998 1.2 0.021 -84.249
3394.417 0.018 -83.773 0.998 1.056 0.998 1.056 0.018 -83.773
3419.375 0.016 -83.11 0.998 0.912 0.998 0.912 0.016 -83.11
3444.333 0.014 -82.158 0.998 0.77 0.998 0.77 0.014 -82.158
3469.292 0.011 -80.733 0.998 0.629 0.998 0.629 0.011 -80.733
3494.25 8.692e-3 -78.45 0.998 0.489 0.998 0.489 8.692e-3 -78.45
3519.208 6.326e-3 -74.366 0.998 0.35 0.998 0.35 6.326e-3 -74.366
3544.167 4.05e-3 -65.474 0.998 0.211 0.998 0.211 4.05e-3 -65.474
3569.125 2.112e-3 -37.795 0.998 0.074 0.998 0.074 2.112e-3 -37.795
3594.083 1.987e-3 32.88 0.998 -0.062 0.998 -0.062 1.987e-3 32.88
3619.042 3.824e-3 63.95 0.998 -0.197 0.998 -0.197 3.824e-3 63.95
3644 6.022e-3 73.592 0.998 -0.332 0.998 -0.332 6.022e-3 73.592
3668.958 8.285e-3 77.923 0.998 -0.465 0.998 -0.465 8.285e-3 77.923
3693.917 0.011 80.318 0.998 -0.598 0.998 -0.598 0.011 80.318
3718.875 0.013 81.806 0.998 -0.729 0.998 -0.729 0.013 81.806
3743.833 0.015 82.801 0.998 -0.86 0.998 -0.86 0.015 82.801
3768.792 0.017 83.498 0.998 -0.99 0.998 -0.99 0.017 83.498
3793.75 0.02 84.002 0.998 -1.119 0.998 -1.119 0.02 84.002
3818.708 0.022 84.374 0.998 -1.248 0.998 -1.248 0.022 84.374
3843.667 0.024 84.651 0.998 -1.375 0.998 -1.375 0.024 84.651
3868.625 0.026 84.859 0.998 -1.502 0.998 -1.502 0.026 84.859
3893.583 0.028 85.014 0.998 -1.628 0.998 -1.628 0.028 85.014
3918.542 0.031 85.128 0.998 -1.753 0.998 -1.753 0.031 85.128
3943.5 0.033 85.21 0.998 -1.878 0.998 -1.878 0.033 85.21
3968.458 0.035 85.267 0.998 -2.001 0.998 -2.001 0.035 85.267
3993.417 0.037 85.302 0.998 -2.124 0.998 -2.124 0.037 85.302
4018.375 0.039 85.319 0.998 -2.247 0.998 -2.247 0.039 85.319
4043.333 0.041 85.323 0.997 -2.368 0.997 -2.368 0.041 85.323
4068.292 0.043 85.314 0.997 -2.489 0.997 -2.489 0.043 85.314
4093.25 0.046 85.295 0.997 -2.61 0.997 -2.61 0.046 85.295
4118.208 0.048 85.267 0.997 -2.729 0.997 -2.729 0.048 85.267
4143.167 0.05 85.232 0.997 -2.848 0.997 -2.848 0.05 85.232
4168.125 0.052 85.19 0.997 -2.967 0.997 -2.967 0.052 85.19
4193.083 0.054 85.143 0.997 -3.085 0.997 -3.085 0.054 85.143
4218.042 0.056 85.091 0.997 -3.202 0.997 -3.202 0.056 85.091
4243 0.058 85.034 0.997 -3.318 0.997 -3.318 0.058 85.034
4267.958 0.06 84.974 0.997 -3.434 0.997 -3.434 0.06 84.974
4292.917 0.062 84.911 0.996 -3.55 0.996 -3.55 0.062 84.911
4317.875 0.064 84.844 0.996 -3.664 0.996 -3.664 0.064 84.844
4342.833 0.066 84.775 0.996 -3.779 0.996 -3.779 0.066 84.775
4367.792 0.068 84.704 0.996 -3.892 0.996 -3.892 0.068 84.704
4392.75 0.07 84.63 0.996 -4.005 0.996 -4.005 0.07 84.63
4417.708 0.072 84.555 0.996 -4.118 0.996 -4.118 0.072 84.555
4442.667 0.074 84.479 0.996 -4.23 0.996 -4.23 0.074 84.479
4467.625 0.076 84.4 0.995 -4.341 0.995 -4.341 0.076 84.4
4492.583 0.078 84.321 0.995 -4.452 0.995 -4.452 0.078 84.321
4517.542 0.08 84.24 0.995 -4.563 0.995 -4.563 0.08 84.24
4542.5 0.081 84.159 0.995 -4.673 0.995 -4.673 0.081 84.159
4567.458 0.083 84.076 0.995 -4.782 0.995 -4.782 0.083 84.076
4592.417 0.085 83.993 0.995 -4.891 0.995 -4.891 0.085 83.993
4617.375 0.087 83.908 0.995 -5 0.995 -5 0.087 83.908
4642.333 0.089 83.824 0.994 -5.108 0.994 -5.108 0.089 83.824
4667.292 0.091 83.738 0.994 -5.215 0.994 -5.215 0.091 83.738
4692.25 0.093 83.652 0.994 -5.322 0.994 -5.322 0.093 83.652
4717.208 0.095 83.566 0.994 -5.429 0.994 -5.429 0.095 83.566
4742.167 0.096 83.479 0.994 -5.535 0.994 -5.535 0.096 83.479
4767.125 0.098 83.392 0.993 -5.641 0.993 -5.641 0.098 83.392
4792.083 0.1 83.305 0.993 -5.746 0.993 -5.746 0.1 83.305
4817.042 0.102 83.217 0.993 -5.851 0.993 -5.851 0.102 83.217
4842 0.104 83.129 0.993 -5.955 0.993 -5.955 0.104 83.129
4866.958 0.106 83.041 0.993 -6.059 0.993 -6.059 0.106 83.041
4891.917 0.107 82.952 0.993 -6.163 0.993 -6.163 0.107 82.952
4916.875 0.109 82.864 0.992 -6.266 0.992 -6.266 0.109 82.864
4941.833 0.111 82.775 0.992 -6.369 0.992 -6.369 0.111 82.775
4966.792 0.113 82.686 0.992 -6.471 0.992 -6.471 0.113 82.686
4991.75 0.114 82.598 0.992 -6.573 0.992 -6.573 0.114 82.598
5016.708 0.116 82.509 0.992 -6.675 0.992 -6.675 0.116 82.509
5041.667 0.118 82.42 0.991 -6.776 0.991 -6.776 0.118 82.42
5066.625 0.12 82.331 0.991 -6.877 0.991 -6.877 0.12 82.331
5091.583 0.121 82.242 0.991 -6.977 0.991 -6.977 0.121 82.242
5116.542 0.123 82.153 0.991 -7.078 0.991 -7.078 0.123 82.153
5141.5 0.125 82.064 0.991 -7.177 0.991 -7.177 0.125 82.064
5166.458 0.127 81.975 0.99 -7.277 0.99 -7.277 0.127 81.975
5191.417 0.128 81.886 0.99 -7.376 0.99 -7.376 0.128 81.886
5216.375 0.13 81.797 0.99 -7.474 0.99 -7.474 0.13 81.797
5241.333 0.132 81.709 0.99 -7.573 0.99 -7.573 0.132 81.709
5266.292 0.133 81.62 0.989 -7.671 0.989 -7.671 0.133 81.62
5291.25 0.135 81.531 0.989 -7.768 0.989 -7.768 0.135 81.531
5316.208 0.137 81.443 0.989 -7.866 0.989 -7.866 0.137 81.443
5341.167 0.139 81.354 0.989 -7.963 0.989 -7.963 0.139 81.354
5366.125 0.14 81.266 0.988 -8.059 0.988 -8.059 0.14 81.266
5391.083 0.142 81.178 0.988 -8.156 0.988 -8.156 0.142 81.178
5416.042 0.144 81.09 0.988 -8.252 0.988 -8.252 0.144 81.09
5441 0.145 81.001 0.988 -8.347 0.988 -8.347 0.145 81.001
5465.958 0.147 80.914 0.988 -8.443 0.988 -8.443 0.147 80.914
5490.917 0.148 80.826 0.987 -8.538 0.987 -8.538 0.148 80.826
5515.875 0.15 80.738 0.987 -8.633 0.987 -8.633 0.15 80.738
5540.833 0.152 80.651 0.987 -8.727 0.987 -8.727 0.152 80.651
5565.792 0.153 80.563 0.987 -8.821 0.987 -8.821 0.153 80.563
5590.75 0.155 80.476 0.986 -8.915 0.986 -8.915 0.155 80.476
5615.708 0.157 80.389 0.986 -9.009 0.986 -9.009 0.157 80.389
5640.667 0.158 80.302 0.986 -9.102 0.986 -9.102 0.158 80.302
5665.625 0.16 80.215 0.986 -9.195 0.986 -9.195 0.16 80.215
5690.583 0.161 80.128 0.985 -9.288 0.985 -9.288 0.161 80.128
5715.542 0.163 80.041 0.985 -9.38 0.985 -9.38 0.163 80.041
5740.5 0.165 79.955 0.985 -9.472 0.985 -9.472 0.165 79.955
5765.458 0.166 79.869 0.984 -9.564 0.984 -9.564 0.166 79.869
5790.417 0.168 79.782 0.984 -9.656 0.984 -9.656 0.168 79.782
5815.375 0.169 79.696 0.984 -9.747 0.984 -9.747 0.169 79.696
5840.333 0.171 79.611 0.984 -9.838 0.984 -9.838 0.171 79.611
5865.292 0.172 79.525 0.983 -9.929 0.983 -9.929 0.172 79.525
5890.25 0.174 79.439 0.983 -10.02 0.983 -10.02 0.174 79.439
5915.208 0.176 79.354 0.983 -10.11 0.983 -10.11 0.176 79.354
5940.167 0.177 79.269 0.983 -10.2 0.983 -10.2 0.177 79.269
5965.125 0.179 79.184 0.982 -10.29 0.982 -10.29 0.179 79.184
5990.083 0.18 79.099 0.982 -10.38 0.982 -10.38 0.18 79.099
6015.042 0.182 79.014 0.982 -10.469 0.982 -10.469 0.182 79.014
6040 0.183 78.929 0.981 -10.558 0.981 -10.558 0.183 78.929
6064.958 0.185 78.845 0.981 -10.647 0.981 -10.647 0.185 78.845
6089.917 0.186 78.761 0.981 -10.735 0.981 -10.735 0.186 78.761
6114.875 0.188 78.677 0.981 -10.824 0.981 -10.824 0.188 78.677
6139.833 0.189 78.593 0.98 -10.912 0.98 -10.912 0.189 78.593
6164.792 0.191 78.509 0.98 -11 0.98 -11 0.191 78.509
6189.75 0.192 78.425 0.98 -11.087 0.98 -11.087 0.192 78.425
6214.708 0.194 78.342 0.979 -11.175 0.979 -11.175 0.194 78.342
6239.667 0.195 78.258 0.979 -11.262 0.979 -11.262 0.195 78.258
6264.625 0.197 78.175 0.979 -11.349 0.979 -11.349 0.197 78.175
6289.583 0.198 78.092 0.979 -11.436 0.979 -11.436 0.198 78.092
6314.542 0.2 78.009 0.978 -11.522 0.978 -11.522 0.2 78.009
6339.5 0.201 77.926 0.978 -11.608 0.978 -11.608 0.201 77.926
6364.458 0.203 77.844 0.978 -11.695 0.978 -11.695 0.203 77.844
6389.417 0.204 77.761 0.977 -11.78 0.977 -11.78 0.204 77.761
6414.375 0.206 77.679 0.977 -11.866 0.977 -11.866 0.206 77.679
6439.333 0.207 77.597 0.977 -11.952 0.977 -11.952 0.207 77.597
6464.292 0.209 77.515 0.976 -12.037 0.976 -12.037 0.209 77.515
6489.25 0.21 77.433 0.976 -12.122 0.976 -12.122 0.21 77.433
6514.208 0.211 77.352 0.976 -12.207 0.976 -12.207 0.211 77.352
6539.167 0.213 77.27 0.975 -12.291 0.975 -12.291 0.213 77.27
6564.125 0.214 77.189 0.975 -12.376 0.975 -12.376 0.214 77.189
6589.083 0.216 77.108 0.975 -12.46 0.975 -12.46 0.216 77.108
6614.042 0.217 77.027 0.975 -12.544 0.975 -12.544 0.217 77.027
6639 0.219 76.946 0.974 -12.628 0.974 -12.628 0.219 76.946
6663.958 0.22 76.865 0.974 -12.711 0.974 -12.711 0.22 76.865
6688.917 0.221 76.785 0.974 -12.795 0.974 -12.795 0.221 76.785
6713.875 0.223 76.704 0.973 -12.878 0.973 -12.878 0.223 76.704
6738.833 0.224 76.624 0.973 -12.961 0.973 -12.961 0.224 76.624
6763.792 0.226 76.544 0.973 -13.044 0.973 -13.044 0.226 76.544
6788.75 0.227 76.464 0.972 -13.126 0.972 -13.126 0.227 76.464
6813.708 0.229 76.384 0.972 -13.209 0.972 -13.209 0.229 76.384
6838.667 0.23 76.304 0.972 -13.291 0.972 -13.291 0.23 76.304
6863.625 0.231 76.225 0.971 -13.373 0.971 -13.373 0.231 76.225
6888.583 0.233 76.146 0.971 -13.455 0.971 -13.455 0.233 76.146
6913.542 0.234 76.066 0.971 -13.537 0.971 -13.537 0.234 76.066
6938.5 0.235 75.987 0.97 -13.618 0.97 -13.618 0.235 75.987
6963.458 0.237 75.908 0.97 -13.7 0.97 -13.7 0.237 75.908
6988.417 0.238 75.83 0.97 -13.781 0.97 -13.781 0.238 75.83
7013.375 0.24 75.751 0.969 -13.862 0.969 -13.862 0.24 75.751
7038.333 0.241 75.672 0.969 -13.943 0.969 -13.943 0.241 75.672
7063.292 0.242 75.594 0.969 -14.023 0.969 -14.023 0.242 75.594
7088.25 0.244 75.516 0.968 -14.104 0.968 -14.104 0.244 75.516
7113.208 0.245 75.438 0.968 -14.184 0.968 -14.184 0.245 75.438
7138.167 0.246 75.36 0.968 -14.264 0.968 -14.264 0.246 75.36
7163.125 0.248 75.282 0.967 -14.344 0.967 -14.344 0.248 75.282
7188.083 0.249 75.204 0.967 -14.424 0.967 -14.424 0.249 75.204
7213.042 0.25 75.127 0.967 -14.504 0.967 -14.504 0.25 75.127
7238 0.252 75.049 0.966 -14.583 0.966 -14.583 0.252 75.049
7262.958 0.253 74.972 0.966 -14.663 0.966 -14.663 0.253 74.972
7287.917 0.254 74.895 0.965 -14.742 0.965 -14.742 0.254 74.895
7312.875 0.256 74.818 0.965 -14.821 0.965 -14.821 0.256 74.818
7337.833 0.257 74.741 0.965 -14.9 0.965 -14.9 0.257 74.741
7362.792 0.258 74.665 0.964 -14.978 0.964 -14.978 0.258 74.665
7387.75 0.26 74.588 0.964 -15.057 0.964 -15.057 0.26 74.588
7412.708 0.261 74.512 0.964 -15.135 0.964 -15.135 0.261 74.512
7437.667 0.262 74.435 0.963 -15.213 0.963 -15.213 0.262 74.435
7462.625 0.264 74.359 0.963 -15.291 0.963 -15.291 0.264 74.359
7487.583 0.265 74.283 0.963 -15.369 0.963 -15.369 0.265 74.283
7512.542 0.266 74.207 0.962 -15.447 0.962 -15.447 0.266 74.207
7537.5 0.268 74.132 0.962 -15.524 0.962 -15.524 0.268 74.132
7562.458 0.269 74.056 0.962 -15.602 0.962 -15.602 0.269 74.056
7587.417 0.27 73.981 0.961 -15.679 0.961 -15.679 0.27 73.981
7612.375 0.272 73.905 0.961 -15.756 0.961 -15.756 0.272 73.905
7637.333 0.273 73.83 0.96 -15.833 0.96 -15.833 0.273 73.83
7662.292 0.274 73.755 0.96 -15.91 0.96 -15.91 0.274 73.755
7687.25 0.275 73.68 0.96 -15.987 0.96 -15.987 0.275 73.68
7712.208 0.277 73.605 0.959 -16.063 0.959 -16.063 0.277 73.605
7737.167 0.278 73.53 0.959 -16.139 0.959 -16.139 0.278 73.53
7762.125 0.279 73.456 0.959 -16.216 0.959 -16.216 0.279 73.456
7787.083 0.281 73.381 0.958 -16.292 0.958 -16.292 0.281 73.381
7812.042 0.282 73.307 0.958 -16.368 0.958 -16.368 0.282 73.307
7837 0.283 73.233 0.958 -16.443 0.958 -16.443 0.283 73.233
7861.958 0.284 73.159 0.957 -16.519 0.957 -16.519 0.284 73.159
7886.917 0.286 73.085 0.957 -16.595 0.957 -16.595 0.286 73.085
7911.875 0.287 73.011 0.956 -16.67 0.956 -16.67 0.287 73.011
7936.833 0.288 72.937 0.956 -16.745 0.956 -16.745 0.288 72.937
7961.792 0.289 72.864 0.956 -16.82 0.956 -16.82 0.289 72.864
7986.75 0.291 72.79 0.955 -16.895 0.955 -16.895 0.291 72.79
8011.708 0.292 72.717 0.955 -16.97 0.955 -16.97 0.292 72.717
8036.667 0.293 72.644 0.954 -17.045 0.954 -17.045 0.293 72.644
8061.625 0.294 72.571 0.954 -17.119 0.954 -17.119 0.294 72.571
8086.583 0.296 72.498 0.954 -17.194 0.954 -17.194 0.296 72.498
8111.542 0.297 72.425 0.953 -17.268 0.953 -17.268 0.297 72.425
8136.5 0.298 72.352 0.953 -17.342 0.953 -17.342 0.298 72.352
8161.458 0.299 72.279 0.953 -17.416 0.953 -17.416 0.299 72.279
8186.417 0.301 72.207 0.952 -17.49 0.952 -17.49 0.301 72.207
8211.375 0.302 72.135 0.952 -17.564 0.952 -17.564 0.302 72.135
