# MHZ S MA R 50

50 0.999 -2.429 0.042 87.566 0.042 87.566 0.999 -2.429
74.958 0.998 -3.639 0.063 86.353 0.063 86.353 0.998 -3.639
99.917 0.996 -4.846 0.084 85.143 0.084 85.143 0.996 -4.846
124.875 0.994 -6.05 0.105 83.936 0.105 83.936 0.994 -6.05
149.833 0.992 -7.25 0.126 82.734 0.126 82.734 0.992 -7.25
174.792 0.989 -8.444 0.147 81.537 0.147 81.537 0.989 -8.444
199.75 0.986 -9.632 0.167 80.347 0.167 80.347 0.986 -9.632
224.708 0.982 -10.813 0.188 79.163 0.188 79.163 0.982 -10.813
249.667 0.978 -11.986 0.208 77.987 0.208 77.987 0.978 -11.986
274.625 0.974 -13.152 0.228 76.819 0.228 76.819 0.974 -13.152
299.583 0.969 -14.308 0.247 75.66 0.247 75.66 0.969 -14.308
324.542 0.964 -15.454 0.266 74.511 0.266 74.511 0.964 -15.454
349.5 0.958 -16.59 0.286 73.372 0.286 73.372 0.958 -16.59
374.458 0.952 -17.715 0.304 72.244 0.304 72.244 0.952 -17.715
399.417 0.946 -18.829 0.323 71.128 0.323 71.128 0.946 -18.829
424.375 0.94 -19.931 0.341 70.023 0.341 70.023 0.94 -19.931
449.333 0.933 -21.02 0.359 68.931 0.359 68.931 0.933 -21.02
474.292 0.926 -22.097 0.376 67.852 0.376 67.852 0.926 -22.097
499.25 0.919 -23.16 0.393 66.786 0.393 66.786 0.919 -23.16
524.208 0.912 -24.21 0.41 65.733 0.41 65.733 0.912 -24.21
549.167 0.904 -25.246 0.427 64.694 0.427 64.694 0.904 -25.246
574.125 0.896 -26.269 0.443 63.669 0.443 63.669 0.896 -26.269
599.083 0.888 -27.277 0.458 62.658 0.458 62.658 0.888 -27.277
624.042 0.88 -28.27 0.474 61.662 0.474 61.662 0.88 -28.27
649 0.872 -29.249 0.489 60.68 0.489 60.68 0.872 -29.249
673.958 0.864 -30.214 0.503 59.712 0.503 59.712 0.864 -30.214
698.917 0.855 -31.164 0.517 58.76 0.517 58.76 0.855 -31.164
723.875 0.846 -32.099 0.531 57.822 0.531 57.822 0.846 -32.099
748.833 0.838 -33.019 0.545 56.899 0.545 56.899 0.838 -33.019
773.792 0.829 -33.924 0.558 55.99 0.558 55.99 0.829 -33.924
798.75 0.82 -34.815 0.571 55.097 0.571 55.097 0.82 -34.815
823.708 0.811 -35.691 0.583 54.218 0.583 54.218 0.811 -35.691
848.667 0.802 -36.553 0.596 53.353 0.596 53.353 0.802 -36.553
873.625 0.793 -37.4 0.607 52.503 0.607 52.503 0.793 -37.4
898.583 0.784 -38.232 0.619 51.668 0.619 51.668 0.784 -38.232
923.542 0.775 -39.051 0.63 50.846 0.63 50.846 0.775 -39.051
948.5 0.766 -39.855 0.641 50.039 0.641 50.039 0.766 -39.855
973.458 0.758 -40.646 0.651 49.245 0.651 49.245 0.758 -40.646
998.417 0.749 -41.422 0.662 48.466 0.662 48.466 0.749 -41.422
1023.375 0.74 -42.186 0.672 47.699 0.672 47.699 0.74 -42.186
1048.333 0.731 -42.935 0.681 46.947 0.681 46.947 0.731 -42.935
1073.292 0.722 -43.672 0.691 46.207 0.691 46.207 0.722 -43.672
1098.25 0.713 -44.396 0.7 45.48 0.7 45.48 0.713 -44.396
1123.208 0.704 -45.106 0.708 44.766 0.708 44.766 0.704 -45.106
1148.167 0.695 -45.805 0.717 44.065 0.717 44.065 0.695 -45.805
1173.125 0.687 -46.491 0.725 43.376 0.725 43.376 0.687 -46.491
1198.083 0.678 -47.164 0.733 42.699 0.733 42.699 0.678 -47.164
1223.042 0.67 -47.826 0.741 42.033 0.741 42.033 0.67 -47.826
1248 0.661 -48.477 0.749 41.38 0.749 41.38 0.661 -48.477
1272.958 0.653 -49.116 0.756 40.738 0.756 40.738 0.653 -49.116
1297.917 0.644 -49.743 0.763 40.107 0.763 40.107 0.644 -49.743
1322.875 0.636 -50.36 0.77 39.487 0.77 39.487 0.636 -50.36
1347.833 0.628 -50.966 0.777 38.878 0.777 38.878 0.628 -50.966
1372.792 0.619 -51.561 0.783 38.279 0.783 38.279 0.619 -51.561
1397.75 0.611 -52.146 0.79 37.69 0.79 37.69 0.611 -52.146
1422.708 0.603 -52.721 0.796 37.112 0.796 37.112 0.603 -52.721
1447.667 0.595 -53.286 0.802 36.544 0.802 36.544 0.595 -53.286
1472.625 0.588 -53.841 0.807 35.985 0.807 35.985 0.588 -53.841
1497.583 0.58 -54.387 0.813 35.435 0.813 35.435 0.58 -54.387
1522.542 0.572 -54.924 0.818 34.895 0.818 34.895 0.572 -54.924
1547.5 0.564 -55.451 0.824 34.364 0.824 34.364 0.564 -55.451
1572.458 0.557 -55.97 0.829 33.842 0.829 33.842 0.557 -55.97
1597.417 0.549 -56.48 0.834 33.328 0.834 33.328 0.549 -56.48
1622.375 0.542 -56.981 0.838 32.823 0.838 32.823 0.542 -56.981
1647.333 0.535 -57.475 0.843 32.326 0.843 32.326 0.535 -57.475
1672.292 0.528 -57.96 0.848 31.837 0.848 31.837 0.528 -57.96
1697.25 0.52 -58.437 0.852 31.355 0.852 31.355 0.52 -58.437
1722.208 0.513 -58.907 0.856 30.882 0.856 30.882 0.513 -58.907
1747.167 0.506 -59.369 0.86 30.416 0.86 30.416 0.506 -59.369
1772.125 0.499 -59.823 0.864 29.957 0.864 29.957 0.499 -59.823
1797.083 0.493 -60.271 0.868 29.506 0.868 29.506 0.493 -60.271
1822.042 0.486 -60.711 0.872 29.061 0.872 29.061 0.486 -60.711
1847 0.479 -61.145 0.876 28.624 0.876 28.624 0.479 -61.145
1871.958 0.472 -61.572 0.879 28.193 0.879 28.193 0.472 -61.572
1896.917 0.466 -61.992 0.883 27.768 0.883 27.768 0.466 -61.992
1921.875 0.459 -62.406 0.886 27.35 0.886 27.35 0.459 -62.406
1946.833 0.453 -62.813 0.89 26.938 0.89 26.938 0.453 -62.813
1971.792 0.447 -63.214 0.893 26.532 0.893 26.532 0.447 -63.214
1996.75 0.44 -63.61 0.896 26.133 0.896 26.133 0.44 -63.61
2021.708 0.434 -63.999 0.899 25.739 0.899 25.739 0.434 -63.999
2046.667 0.428 -64.383 0.902 25.35 0.902 25.35 0.428 -64.383
2071.625 0.422 -64.761 0.905 24.967 0.905 24.967 0.422 -64.761
2096.583 0.416 -65.134 0.907 24.59 0.907 24.59 0.416 -65.134
2121.542 0.41 -65.501 0.91 24.218 0.91 24.218 0.41 -65.501
2146.5 0.404 -65.863 0.913 23.851 0.913 23.851 0.404 -65.863
2171.458 0.399 -66.22 0.915 23.489 0.915 23.489 0.399 -66.22
2196.417 0.393 -66.572 0.918 23.132 0.918 23.132 0.393 -66.572
2221.375 0.387 -66.919 0.92 22.78 0.92 22.78 0.387 -66.919
2246.333 0.382 -67.262 0.922 22.432 0.922 22.432 0.382 -67.262
2271.292 0.376 -67.599 0.925 22.09 0.925 22.09 0.376 -67.599
2296.25 0.371 -67.932 0.927 21.751 0.927 21.751 0.371 -67.932
2321.208 0.365 -68.26 0.929 21.417 0.929 21.417 0.365 -68.26
2346.167 0.36 -68.584 0.931 21.088 0.931 21.088 0.36 -68.584
2371.125 0.354 -68.904 0.933 20.762 0.933 20.762 0.354 -68.904
2396.083 0.349 -69.22 0.935 20.441 0.935 20.441 0.349 -69.22
2421.042 0.344 -69.531 0.937 20.124 0.937 20.124 0.344 -69.531
2446 0.339 -69.838 0.939 19.811 0.939 19.811 0.339 -69.838
2470.958 0.334 -70.142 0.941 19.501 0.941 19.501 0.334 -70.142
2495.917 0.329 -70.441 0.942 19.196 0.942 19.196 0.329 -70.441
2520.875 0.324 -70.737 0.944 18.894 0.944 18.894 0.324 -70.737
2545.833 0.319 -71.029 0.946 18.595 0.946 18.595 0.319 -71.029
2570.792 0.314 -71.317 0.947 18.301 0.947 18.301 0.314 -71.317
2595.75 0.309 -71.602 0.949 18.009 0.949 18.009 0.309 -71.602
2620.708 0.304 -71.883 0.95 17.721 0.95 17.721 0.304 -71.883
2645.667 0.3 -72.161 0.952 17.437 0.952 17.437 0.3 -72.161
2670.625 0.295 -72.435 0.953 17.155 0.953 17.155 0.295 -72.435
2695.583 0.29 -72.706 0.955 16.877 0.955 16.877 0.29 -72.706
2720.542 0.286 -72.974 0.956 16.602 0.956 16.602 0.286 -72.974
2745.5 0.281 -73.238 0.958 16.33 0.958 16.33 0.281 -73.238
2770.458 0.277 -73.5 0.959 16.061 0.959 16.061 0.277 -73.5
2795.417 0.272 -73.758 0.96 15.795 0.96 15.795 0.272 -73.758
2820.375 0.268 -74.013 0.961 15.532 0.961 15.532 0.268 -74.013
2845.333 0.263 -74.266 0.963 15.272 0.963 15.272 0.263 -74.266
2870.292 0.259 -74.515 0.964 15.014 0.964 15.014 0.259 -74.515
2895.25 0.255 -74.761 0.965 14.759 0.965 14.759 0.255 -74.761
2920.208 0.251 -75.005 0.966 14.507 0.966 14.507 0.251 -75.005
2945.167 0.246 -75.246 0.967 14.257 0.967 14.257 0.246 -75.246
2970.125 0.242 -75.484 0.968 14.01 0.968 14.01 0.242 -75.484
2995.083 0.238 -75.719 0.969 13.765 0.969 13.765 0.238 -75.719
3020.042 0.234 -75.952 0.97 13.523 0.97 13.523 0.234 -75.952
3045 0.23 -76.182 0.971 13.283 0.971 13.283 0.23 -76.182
3069.958 0.226 -76.409 0.972 13.045 0.972 13.045 0.226 -76.409
3094.917 0.222 -76.634 0.973 12.81 0.973 12.81 0.222 -76.634
3119.875 0.218 -76.856 0.974 12.577 0.974 12.577 0.218 -76.856
3144.833 0.214 -77.076 0.975 12.346 0.975 12.346 0.214 -77.076
3169.792 0.21 -77.294 0.976 12.118 0.976 12.118 0.21 -77.294
3194.75 0.206 -77.508 0.976 11.891 0.976 11.891 0.206 -77.508
3219.708 0.202 -77.721 0.977 11.667 0.977 11.667 0.202 -77.721
3244.667 0.198 -77.931 0.978 11.445 0.978 11.445 0.198 -77.931
3269.625 0.195 -78.139 0.979 11.225 0.979 11.225 0.195 -78.139
3294.583 0.191 -78.344 0.979 11.006 0.979 11.006 0.191 -78.344
3319.542 0.187 -78.547 0.98 10.79 0.98 10.79 0.187 -78.547
3344.5 0.184 -78.748 0.981 10.576 0.981 10.576 0.184 -78.748
3369.458 0.18 -78.946 0.982 10.363 0.982 10.363 0.18 -78.946
3394.417 0.176 -79.142 0.982 10.152 0.982 10.152 0.176 -79.142
3419.375 0.173 -79.336 0.983 9.943 0.983 9.943 0.173 -79.336
3444.333 0.169 -79.527 0.983 9.736 0.983 9.736 0.169 -79.527
3469.292 0.166 -79.717 0.984 9.531 0.984 9.531 0.166 -79.717
3494.25 0.162 -79.904 0.985 9.327 0.985 9.327 0.162 -79.904
3519.208 0.159 -80.088 0.985 9.125 0.985 9.125 0.159 -80.088
3544.167 0.155 -80.271 0.986 8.925 0.986 8.925 0.155 -80.271
3569.125 0.152 -80.451 0.986 8.726 0.986 8.726 0.152 -80.451
3594.083 0.148 -80.629 0.987 8.529 0.987 8.529 0.148 -80.629
3619.042 0.145 -80.804 0.987 8.333 0.987 8.333 0.145 -80.804
3644 0.142 -80.977 0.988 8.139 0.988 8.139 0.142 -80.977
3668.958 0.138 -81.148 0.988 7.947 0.988 7.947 0.138 -81.148
3693.917 0.135 -81.317 0.989 7.756 0.989 7.756 0.135 -81.317
3718.875 0.132 -81.483 0.989 7.566 0.989 7.566 0.132 -81.483
3743.833 0.128 -81.646 0.99 7.378 0.99 7.378 0.128 -81.646
3768.792 0.125 -81.807 0.99 7.191 0.99 7.191 0.125 -81.807
3793.75 0.122 -81.966 0.99 7.006 0.99 7.006 0.122 -81.966
3818.708 0.119 -82.122 0.991 6.822 0.991 6.822 0.119 -82.122
3843.667 0.116 -82.275 0.991 6.639 0.991 6.639 0.116 -82.275
3868.625 0.112 -82.426 0.991 6.458 0.991 6.458 0.112 -82.426
3893.583 0.109 -82.574 0.992 6.278 0.992 6.278 0.109 -82.574
3918.542 0.106 -82.718 0.992 6.099 0.992 6.099 0.106 -82.718
3943.5 0.103 -82.86 0.992 5.922 0.992 5.922 0.103 -82.86
3968.458 0.1 -82.999 0.993 5.746 0.993 5.746 0.1 -82.999
3993.417 0.097 -83.134 0.993 5.571 0.993 5.571 0.097 -83.134
4018.375 0.094 -83.266 0.993 5.397 0.993 5.397 0.094 -83.266
4043.333 0.091 -83.394 0.994 5.224 0.994 5.224 0.091 -83.394
4068.292 0.088 -83.518 0.994 5.053 0.994 5.053 0.088 -83.518
4093.25 0.085 -83.638 0.994 4.882 0.994 4.882 0.085 -83.638
4118.208 0.082 -83.754 0.994 4.713 0.994 4.713 0.082 -83.754
4143.167 0.079 -83.865 0.995 4.545 0.995 4.545 0.079 -83.865
4168.125 0.076 -83.972 0.995 4.378 0.995 4.378 0.076 -83.972
4193.083 0.073 -84.072 0.995 4.212 0.995 4.212 0.073 -84.072
4218.042 0.071 -84.167 0.995 4.048 0.995 4.048 0.071 -84.167
4243 0.068 -84.255 0.996 3.884 0.996 3.884 0.068 -84.255
4267.958 0.065 -84.337 0.996 3.721 0.996 3.721 0.065 -84.337
4292.917 0.062 -84.41 0.996 3.559 0.996 3.559 0.062 -84.41
4317.875 0.059 -84.474 0.996 3.399 0.996 3.399 0.059 -84.474
4342.833 0.057 -84.529 0.996 3.239 0.996 3.239 0.057 -84.529
4367.792 0.054 -84.573 0.996 3.08 0.996 3.08 0.054 -84.573
4392.75 0.051 -84.604 0.996 2.922 0.996 2.922 0.051 -84.604
4417.708 0.048 -84.62 0.997 2.766 0.997 2.766 0.048 -84.62
4442.667 0.046 -84.62 0.997 2.61 0.997 2.61 0.046 -84.62
4467.625 0.043 -84.6 0.997 2.455 0.997 2.455 0.043 -84.6
4492.583 0.04 -84.557 0.997 2.301 0.997 2.301 0.04 -84.557
4517.542 0.038 -84.486 0.997 2.147 0.997 2.147 0.038 -84.486
4542.5 0.035 -84.382 0.997 1.995 0.997 1.995 0.035 -84.382
4567.458 0.032 -84.236 0.997 1.844 0.997 1.844 0.032 -84.236
4592.417 0.03 -84.039 0.997 1.693 0.997 1.693 0.03 -84.039
4617.375 0.027 -83.777 0.997 1.543 0.997 1.543 0.027 -83.777
4642.333 0.024 -83.428 0.997 1.394 0.997 1.394 0.024 -83.428
4667.292 0.022 -82.964 0.998 1.246 0.998 1.246 0.022 -82.964
4692.25 0.019 -82.342 0.998 1.099 0.998 1.099 0.019 -82.342
4717.208 0.017 -81.49 0.998 0.952 0.998 0.952 0.017 -81.49
4742.167 0.014 -80.29 0.998 0.807 0.998 0.807 0.014 -80.29
4767.125 0.012 -78.527 0.998 0.662 0.998 0.662 0.012 -78.527
4792.083 9.298e-3 -75.761 0.998 0.518 0.998 0.518 9.298e-3 -75.761
4817.042 6.892e-3 -70.962 0.998 0.374 0.998 0.374 6.892e-3 -70.962
4842 4.603e-3 -61.134 0.998 0.231 0.998 0.231 4.603e-3 -61.134
4866.958 2.703e-3 -35.223 0.998 0.09 0.998 0.09 2.703e-3 -35.223
4891.917 2.383e-3 22.195 0.998 -0.052 0.998 -0.052 2.383e-3 22.195
4916.875 4.014e-3 56.48 0.998 -0.192 0.998 -0.192 4.014e-3 56.48
4941.833 6.199e-3 68.827 0.998 -0.332 0.998 -0.332 6.199e-3 68.827
4966.792 8.512e-3 74.512 0.998 -0.471 0.998 -0.471 8.512e-3 74.512
4991.75 0.011 77.676 0.998 -0.609 0.998 -0.609 0.011 77.676
5016.708 0.013 79.653 0.998 -0.747 0.998 -0.747 0.013 79.653
5041.667 0.016 80.983 0.998 -0.884 0.998 -0.884 0.016 80.983
5066.625 0.018 81.921 0.998 -1.021 0.998 -1.021 0.018 81.921
5091.583 0.02 82.607 0.998 -1.156 0.998 -1.156 0.02 82.607
5116.542 0.023 83.12 0.998 -1.291 0.998 -1.291 0.023 83.12
5141.5 0.025 83.51 0.997 -1.426 0.997 -1.426 0.025 83.51
5166.458 0.027 83.809 0.997 -1.56 0.997 -1.56 0.027 83.809
5191.417 0.03 84.039 0.997 -1.693 0.997 -1.693 0.03 84.039
5216.375 0.032 84.216 0.997 -1.825 0.997 -1.825 0.032 84.216
5241.333 0.034 84.35 0.997 -1.957 0.997 -1.957 0.034 84.35
5266.292 0.037 84.45 0.997 -2.089 0.997 -2.089 0.037 84.45
5291.25 0.039 84.523 0.997 -2.219 0.997 -2.219 0.039 84.523
5316.208 0.041 84.573 0.997 -2.349 0.997 -2.349 0.041 84.573
5341.167 0.043 84.605 0.997 -2.479 0.997 -2.479 0.043 84.605
5366.125 0.046 84.62 0.997 -2.608 0.997 -2.608 0.046 84.62
5391.083 0.048 84.621 0.997 -2.736 0.997 -2.736 0.048 84.621
5416.042 0.05 84.612 0.997 -2.864 0.997 -2.864 0.05 84.612
5441 0.052 84.592 0.996 -2.992 0.996 -2.992 0.052 84.592
5465.958 0.054 84.563 0.996 -3.118 0.996 -3.118 0.054 84.563
5490.917 0.057 84.527 0.996 -3.245 0.996 -3.245 0.057 84.527
5515.875 0.059 84.485 0.996 -3.37 0.996 -3.37 0.059 84.485
5540.833 0.061 84.437 0.996 -3.495 0.996 -3.495 0.061 84.437
5565.792 0.063 84.383 0.996 -3.62 0.996 -3.62 0.063 84.383
5590.75 0.065 84.326 0.996 -3.744 0.996 -3.744 0.065 84.326
5615.708 0.067 84.264 0.996 -3.868 0.996 -3.868 0.067 84.264
5640.667 0.07 84.198 0.995 -3.991 0.995 -3.991 0.07 84.198
5665.625 0.072 84.13 0.995 -4.113 0.995 -4.113 0.072 84.13
5690.583 0.074 84.059 0.995 -4.235 0.995 -4.235 0.074 84.059
5715.542 0.076 83.985 0.995 -4.357 0.995 -4.357 0.076 83.985
5740.5 0.078 83.909 0.995 -4.478 0.995 -4.478 0.078 83.909
5765.458 0.08 83.831 0.995 -4.599 0.995 -4.599 0.08 83.831
5790.417 0.082 83.751 0.994 -4.719 0.994 -4.719 0.082 83.751
5815.375 0.084 83.669 0.994 -4.839 0.994 -4.839 0.084 83.669
5840.333 0.086 83.586 0.994 -4.958 0.994 -4.958 0.086 83.586
5865.292 0.089 83.501 0.994 -5.076 0.994 -5.076 0.089 83.501
5890.25 0.091 83.415 0.994 -5.195 0.994 -5.195 0.091 83.415
5915.208 0.093 83.329 0.994 -5.313 0.994 -5.313 0.093 83.329
5940.167 0.095 83.241 0.993 -5.43 0.993 -5.43 0.095 83.241
5965.125 0.097 83.152 0.993 -5.547 0.993 -5.547 0.097 83.152
5990.083 0.099 83.062 0.993 -5.663 0.993 -5.663 0.099 83.062
6015.042 0.101 82.972 0.993 -5.78 0.993 -5.78 0.101 82.972
6040 0.103 82.881 0.993 -5.895 0.993 -5.895 0.103 82.881
6064.958 0.105 82.789 0.992 -6.01 0.992 -6.01 0.105 82.789
6089.917 0.107 82.697 0.992 -6.125 0.992 -6.125 0.107 82.697
6114.875 0.109 82.605 0.992 -6.24 0.992 -6.24 0.109 82.605
6139.833 0.111 82.512 0.992 -6.354 0.992 -6.354 0.111 82.512
6164.792 0.113 82.418 0.991 -6.467 0.991 -6.467 0.113 82.418
6189.75 0.115 82.324 0.991 -6.58 0.991 -6.58 0.115 82.324
6214.708 0.117 82.23 0.991 -6.693 0.991 -6.693 0.117 82.23
6239.667 0.119 82.136 0.991 -6.805 0.991 -6.805 0.119 82.136
6264.625 0.12 82.041 0.991 -6.917 0.991 -6.917 0.12 82.041
6289.583 0.122 81.946 0.99 -7.029 0.99 -7.029 0.122 81.946
6314.542 0.124 81.851 0.99 -7.14 0.99 -7.14 0.124 81.851
6339.5 0.126 81.756 0.99 -7.251 0.99 -7.251 0.126 81.756
6364.458 0.128 81.661 0.99 -7.361 0.99 -7.361 0.128 81.661
6389.417 0.13 81.565 0.989 -7.471 0.989 -7.471 0.13 81.565
6414.375 0.132 81.469 0.989 -7.581 0.989 -7.581 0.132 81.469
6439.333 0.134 81.374 0.989 -7.69 0.989 -7.69 0.134 81.374
6464.292 0.136 81.278 0.989 -7.799 0.989 -7.799 0.136 81.278
6489.25 0.138 81.182 0.988 -7.908 0.988 -7.908 0.138 81.182
6514.208 0.139 81.086 0.988 -8.016 0.988 -8.016 0.139 81.086
6539.167 0.141 80.991 0.988 -8.124 0.988 -8.124 0.141 80.991
6564.125 0.143 80.895 0.988 -8.232 0.988 -8.232 0.143 80.895
6589.083 0.145 80.799 0.987 -8.339 0.987 -8.339 0.145 80.799
6614.042 0.147 80.703 0.987 -8.446 0.987 -8.446 0.147 80.703
6639 0.149 80.608 0.987 -8.552 0.987 -8.552 0.149 80.608
6663.958 0.151 80.512 0.986 -8.658 0.986 -8.658 0.151 80.512
6688.917 0.152 80.416 0.986 -8.764 0.986 -8.764 0.152 80.416
6713.875 0.154 80.321 0.986 -8.87 0.986 -8.87 0.154 80.321
6738.833 0.156 80.225 0.986 -8.975 0.986 -8.975 0.156 80.225
6763.792 0.158 80.13 0.985 -9.08 0.985 -9.08 0.158 80.13
6788.75 0.16 80.034 0.985 -9.184 0.985 -9.184 0.16 80.034
6813.708 0.161 79.939 0.985 -9.288 0.985 -9.288 0.161 79.939
6838.667 0.163 79.844 0.984 -9.392 0.984 -9.392 0.163 79.844
6863.625 0.165 79.749 0.984 -9.496 0.984 -9.496 0.165 79.749
6888.583 0.167 79.654 0.984 -9.599 0.984 -9.599 0.167 79.654
6913.542 0.169 79.559 0.984 -9.702 0.984 -9.702 0.169 79.559
6938.5 0.17 79.464 0.983 -9.804 0.983 -9.804 0.17 79.464
6963.458 0.172 79.37 0.983 -9.907 0.983 -9.907 0.172 79.37
6988.417 0.174 79.275 0.983 -10.009 0.983 -10.009 0.174 79.275
7013.375 0.176 79.181 0.982 -10.11 0.982 -10.11 0.176 79.181
7038.333 0.177 79.087 0.982 -10.212 0.982 -10.212 0.177 79.087
7063.292 0.179 78.993 0.982 -10.313 0.982 -10.313 0.179 78.993
7088.25 0.181 78.899 0.981 -10.413 0.981 -10.413 0.181 78.899
7113.208 0.182 78.805 0.981 -10.514 0.981 -10.514 0.182 78.805
7138.167 0.184 78.712 0.981 -10.614 0.981 -10.614 0.184 78.712
7163.125 0.186 78.618 0.98 -10.714 0.98 -10.714 0.186 78.618
7188.083 0.188 78.525 0.98 -10.814 0.98 -10.814 0.188 78.525
7213.042 0.189 78.432 0.98 -10.913 0.98 -10.913 0.189 78.432
7238 0.191 78.339 0.979 -11.012 0.979 -11.012 0.191 78.339
7262.958 0.193 78.246 0.979 -11.111 0.979 -11.111 0.193 78.246
7287.917 0.194 78.153 0.979 -11.209 0.979 -11.209 0.194 78.153
7312.875 0.196 78.06 0.978 -11.308 0.978 -11.308 0.196 78.06
7337.833 0.198 77.968 0.978 -11.406 0.978 -11.406 0.198 77.968
7362.792 0.199 77.876 0.978 -11.503 0.978 -11.503 0.199 77.876
7387.75 0.201 77.784 0.977 -11.601 0.977 -11.601 0.201 77.784
7412.708 0.203 77.692 0.977 -11.698 0.977 -11.698 0.203 77.692
7437.667 0.204 77.6 0.977 -11.795 0.977 -11.795 0.204 77.6
7462.625 0.206 77.509 0.976 -11.891 0.976 -11.891 0.206 77.509
7487.583 0.208 77.417 0.976 -11.988 0.976 -11.988 0.208 77.417
7512.542 0.209 77.326 0.976 -12.084 0.976 -12.084 0.209 77.326
7537.5 0.211 77.235 0.975 -12.18 0.975 -12.18 0.211 77.235
7562.458 0.213 77.144 0.975 -12.275 0.975 -12.275 0.213 77.144
7587.417 0.214 77.053 0.975 -12.37 0.975 -12.37 0.214 77.053
7612.375 0.216 76.963 0.974 -12.466 0.974 -12.466 0.216 76.963
7637.333 0.217 76.872 0.974 -12.56 0.974 -12.56 0.217 76.872
7662.292 0.219 76.782 0.974 -12.655 0.974 -12.655 0.219 76.782
7687.25 0.221 76.692 0.973 -12.749 0.973 -12.749 0.221 76.692
7712.208 0.222 76.602 0.973 -12.843 0.973 -12.843 0.222 76.602
7737.167 0.224 76.513 0.972 -12.937 0.972 -12.937 0.224 76.513
7762.125 0.225 76.423 0.972 -13.031 0.972 -13.031 0.225 76.423
7787.083 0.227 76.334 0.972 -13.124 0.972 -13.124 0.227 76.334
7812.042 0.229 76.245 0.971 -13.217 0.971 -13.217 0.229 76.245
7837 0.23 76.156 0.971 -13.31 0.971 -13.31 0.23 76.156
7861.958 0.232 76.067 0.971 -13.403 0.971 -13.403 0.232 76.067
7886.917 0.233 75.978 0.97 -13.495 0.97 -13.495 0.233 75.978
7911.875 0.235 75.89 0.97 -13.587 0.97 -13.587 0.235 75.89
7936.833 0.236 75.802 0.969 -13.679 0.969 -13.679 0.236 75.802
7961.792 0.238 75.713 0.969 -13.771 0.969 -13.771 0.238 75.713
7986.75 0.24 75.626 0.969 -13.862 0.969 -13.862 0.24 75.626
8011.708 0.241 75.538 0.968 -13.954 0.968 -13.954 0.241 75.538
8036.667 0.243 75.45 0.968 -14.045 0.968 -14.045 0.243 75.45
8061.625 0.244 75.363 0.968 -14.135 0.968 -14.135 0.244 75.363
8086.583 0.246 75.275 0.967 -14.226 0.967 -14.226 0.246 75.275
8111.542 0.247 75.188 0.967 -14.316 0.967 -14.316 0.247 75.188
8136.5 0.249 75.102 0.966 -14.407 0.966 -14.407 0.249 75.102
8161.458 0.25 75.015 0.966 -14.496 0.966 -14.496 0.25 75.015
8186.417 0.252 74.928 0.966 -14.586 0.966 -14.586 0.252 74.928
