# MHZ S MA R 50

50 1 -0.27 4.712e-3 89.729 4.712e-3 89.729 1 -0.27
74.958 1 -0.405 7.065e-3 89.593 7.065e-3 89.593 1 -0.405
99.917 1 -0.54 9.417e-3 89.458 9.417e-3 89.458 1 -0.54
124.875 1 -0.674 0.012 89.322 0.012 89.322 1 -0.674
149.833 1 -0.809 0.014 89.187 0.014 89.187 1 -0.809
174.792 1 -0.944 0.016 89.051 0.016 89.051 1 -0.944
199.75 1 -1.079 0.019 88.915 0.019 88.915 1 -1.079
224.708 1 -1.214 0.021 88.78 0.021 88.78 1 -1.214
249.667 1 -1.348 0.024 88.644 0.024 88.644 1 -1.348
274.625 1 -1.483 0.026 88.509 0.026 88.509 1 -1.483
299.583 1 -1.618 0.028 88.373 0.028 88.373 1 -1.618
324.542 1 -1.753 0.031 88.238 0.031 88.238 1 -1.753
349.5 0.999 -1.888 0.033 88.102 0.033 88.102 0.999 -1.888
374.458 0.999 -2.023 0.035 87.967 0.035 87.967 0.999 -2.023
399.417 0.999 -2.157 0.038 87.831 0.038 87.831 0.999 -2.157
424.375 0.999 -2.292 0.04 87.695 0.04 87.695 0.999 -2.292
449.333 0.999 -2.427 0.042 87.56 0.042 87.56 0.999 -2.427
474.292 0.999 -2.562 0.045 87.424 0.045 87.424 0.999 -2.562
499.25 0.999 -2.697 0.047 87.289 0.047 87.289 0.999 -2.697
524.208 0.999 -2.832 0.049 87.153 0.049 87.153 0.999 -2.832
549.167 0.999 -2.967 0.052 87.017 0.052 87.017 0.999 -2.967
574.125 0.999 -3.102 0.054 86.882 0.054 86.882 0.999 -3.102
599.083 0.998 -3.237 0.056 86.746 0.056 86.746 0.998 -3.237
624.042 0.998 -3.372 0.059 86.61 0.059 86.61 0.998 -3.372
649 0.998 -3.507 0.061 86.474 0.061 86.474 0.998 -3.507
673.958 0.998 -3.642 0.064 86.339 0.064 86.339 0.998 -3.642
698.917 0.998 -3.777 0.066 86.203 0.066 86.203 0.998 -3.777
723.875 0.998 -3.912 0.068 86.067 0.068 86.067 0.998 -3.912
748.833 0.997 -4.047 0.071 85.931 0.071 85.931 0.997 -4.047
773.792 0.997 -4.182 0.073 85.795 0.073 85.795 0.997 -4.182
798.75 0.997 -4.318 0.075 85.659 0.075 85.659 0.997 -4.318
823.708 0.997 -4.453 0.078 85.523 0.078 85.523 0.997 -4.453
848.667 0.997 -4.588 0.08 85.388 0.08 85.388 0.997 -4.588
873.625 0.997 -4.723 0.082 85.252 0.082 85.252 0.997 -4.723
898.583 0.996 -4.858 0.085 85.116 0.085 85.116 0.996 -4.858
923.542 0.996 -4.994 0.087 84.98 0.087 84.98 0.996 -4.994
948.5 0.996 -5.129 0.089 84.843 0.089 84.843 0.996 -5.129
973.458 0.996 -5.264 0.092 84.707 0.092 84.707 0.996 -5.264
998.417 0.996 -5.4 0.094 84.571 0.094 84.571 0.996 -5.4
1023.375 0.995 -5.535 0.096 84.435 0.096 84.435 0.995 -5.535
1048.333 0.995 -5.671 0.099 84.299 0.099 84.299 0.995 -5.671
1073.292 0.995 -5.806 0.101 84.163 0.101 84.163 0.995 -5.806
1098.25 0.995 -5.942 0.104 84.027 0.104 84.027 0.995 -5.942
1123.208 0.994 -6.077 0.106 83.89 0.106 83.89 0.994 -6.077
1148.167 0.994 -6.213 0.108 83.754 0.108 83.754 0.994 -6.213
1173.125 0.994 -6.348 0.111 83.618 0.111 83.618 0.994 -6.348
1198.083 0.994 -6.484 0.113 83.481 0.113 83.481 0.994 -6.484
1223.042 0.993 -6.62 0.115 83.345 0.115 83.345 0.993 -6.62
1248 0.993 -6.755 0.118 83.208 0.118 83.208 0.993 -6.755
1272.958 0.993 -6.891 0.12 83.072 0.12 83.072 0.993 -6.891
1297.917 0.992 -7.027 0.122 82.935 0.122 82.935 0.992 -7.027
1322.875 0.992 -7.163 0.125 82.799 0.125 82.799 0.992 -7.163
1347.833 0.992 -7.299 0.127 82.662 0.127 82.662 0.992 -7.299
1372.792 0.992 -7.435 0.129 82.525 0.129 82.525 0.992 -7.435
1397.75 0.991 -7.571 0.132 82.389 0.132 82.389 0.991 -7.571
1422.708 0.991 -7.707 0.134 82.252 0.134 82.252 0.991 -7.707
1447.667 0.991 -7.843 0.136 82.115 0.136 82.115 0.991 -7.843
1472.625 0.99 -7.979 0.139 81.978 0.139 81.978 0.99 -7.979
1497.583 0.99 -8.115 0.141 81.841 0.141 81.841 0.99 -8.115
1522.542 0.99 -8.251 0.144 81.704 0.144 81.704 0.99 -8.251
1547.5 0.989 -8.387 0.146 81.567 0.146 81.567 0.989 -8.387
1572.458 0.989 -8.524 0.148 81.43 0.148 81.43 0.989 -8.524
1597.417 0.988 -8.66 0.151 81.293 0.151 81.293 0.988 -8.66
1622.375 0.988 -8.796 0.153 81.156 0.153 81.156 0.988 -8.796
1647.333 0.988 -8.933 0.155 81.019 0.155 81.019 0.988 -8.933
1672.292 0.987 -9.069 0.158 80.882 0.158 80.882 0.987 -9.069
1697.25 0.987 -9.206 0.16 80.744 0.16 80.744 0.987 -9.206
1722.208 0.987 -9.343 0.162 80.607 0.162 80.607 0.987 -9.343
1747.167 0.986 -9.479 0.165 80.47 0.165 80.47 0.986 -9.479
1772.125 0.986 -9.616 0.167 80.332 0.167 80.332 0.986 -9.616
1797.083 0.985 -9.753 0.169 80.195 0.169 80.195 0.985 -9.753
1822.042 0.985 -9.889 0.172 80.057 0.172 80.057 0.985 -9.889
1847 0.985 -10.026 0.174 79.92 0.174 79.92 0.985 -10.026
1871.958 0.984 -10.163 0.176 79.782 0.176 79.782 0.984 -10.163
1896.917 0.984 -10.3 0.179 79.644 0.179 79.644 0.984 -10.3
1921.875 0.983 -10.437 0.181 79.506 0.181 79.506 0.983 -10.437
1946.833 0.983 -10.574 0.184 79.369 0.184 79.369 0.983 -10.574
1971.792 0.982 -10.711 0.186 79.231 0.186 79.231 0.982 -10.711
1996.75 0.982 -10.849 0.188 79.093 0.188 79.093 0.982 -10.849
2021.708 0.981 -10.986 0.191 78.955 0.191 78.955 0.981 -10.986
2046.667 0.981 -11.123 0.193 78.817 0.193 78.817 0.981 -11.123
2071.625 0.981 -11.261 0.195 78.678 0.195 78.678 0.981 -11.261
2096.583 0.98 -11.398 0.198 78.54 0.198 78.54 0.98 -11.398
2121.542 0.98 -11.536 0.2 78.402 0.2 78.402 0.98 -11.536
2146.5 0.979 -11.673 0.202 78.264 0.202 78.264 0.979 -11.673
2171.458 0.979 -11.811 0.205 78.125 0.205 78.125 0.979 -11.811
2196.417 0.978 -11.949 0.207 77.987 0.207 77.987 0.978 -11.949
2221.375 0.978 -12.086 0.209 77.848 0.209 77.848 0.978 -12.086
2246.333 0.977 -12.224 0.212 77.71 0.212 77.71 0.977 -12.224
2271.292 0.977 -12.362 0.214 77.571 0.214 77.571 0.977 -12.362
2296.25 0.976 -12.5 0.216 77.432 0.216 77.432 0.976 -12.5
2321.208 0.976 -12.638 0.219 77.293 0.219 77.293 0.976 -12.638
2346.167 0.975 -12.776 0.221 77.154 0.221 77.154 0.975 -12.776
2371.125 0.974 -12.914 0.223 77.015 0.223 77.015 0.974 -12.914
2396.083 0.974 -13.053 0.226 76.876 0.226 76.876 0.974 -13.053
2421.042 0.973 -13.191 0.228 76.737 0.228 76.737 0.973 -13.191
2446 0.973 -13.329 0.231 76.598 0.231 76.598 0.973 -13.329
2470.958 0.972 -13.468 0.233 76.459 0.233 76.459 0.972 -13.468
2495.917 0.972 -13.606 0.235 76.32 0.235 76.32 0.972 -13.606
2520.875 0.971 -13.745 0.238 76.18 0.238 76.18 0.971 -13.745
2545.833 0.97 -13.884 0.24 76.041 0.24 76.041 0.97 -13.884
2570.792 0.97 -14.023 0.242 75.901 0.242 75.901 0.97 -14.023
2595.75 0.969 -14.161 0.245 75.761 0.245 75.761 0.969 -14.161
2620.708 0.969 -14.3 0.247 75.622 0.247 75.622 0.969 -14.3
2645.667 0.968 -14.439 0.249 75.482 0.249 75.482 0.968 -14.439
2670.625 0.967 -14.578 0.252 75.342 0.252 75.342 0.967 -14.578
2695.583 0.967 -14.718 0.254 75.202 0.254 75.202 0.967 -14.718
2720.542 0.966 -14.857 0.256 75.062 0.256 75.062 0.966 -14.857
2745.5 0.966 -14.996 0.259 74.922 0.259 74.922 0.966 -14.996
2770.458 0.965 -15.136 0.261 74.782 0.261 74.782 0.965 -15.136
2795.417 0.964 -15.275 0.263 74.642 0.263 74.642 0.964 -15.275
2820.375 0.964 -15.415 0.266 74.501 0.266 74.501 0.964 -15.415
2845.333 0.963 -15.554 0.268 74.361 0.268 74.361 0.963 -15.554
2870.292 0.962 -15.694 0.27 74.22 0.27 74.22 0.962 -15.694
2895.25 0.962 -15.834 0.273 74.08 0.273 74.08 0.962 -15.834
2920.208 0.961 -15.974 0.275 73.939 0.275 73.939 0.961 -15.974
2945.167 0.96 -16.114 0.278 73.798 0.278 73.798 0.96 -16.114
2970.125 0.96 -16.254 0.28 73.657 0.28 73.657 0.96 -16.254
2995.083 0.959 -16.394 0.282 73.516 0.282 73.516 0.959 -16.394
3020.042 0.958 -16.534 0.285 73.375 0.285 73.375 0.958 -16.534
3045 0.957 -16.674 0.287 73.234 0.287 73.234 0.957 -16.674
3069.958 0.957 -16.815 0.289 73.093 0.289 73.093 0.957 -16.815
3094.917 0.956 -16.955 0.292 72.952 0.292 72.952 0.956 -16.955
3119.875 0.955 -17.096 0.294 72.81 0.294 72.81 0.955 -17.096
3144.833 0.955 -17.236 0.296 72.669 0.296 72.669 0.955 -17.236
3169.792 0.954 -17.377 0.299 72.527 0.299 72.527 0.954 -17.377
3194.75 0.953 -17.518 0.301 72.385 0.301 72.385 0.953 -17.518
3219.708 0.952 -17.659 0.303 72.244 0.303 72.244 0.952 -17.659
3244.667 0.952 -17.8 0.306 72.102 0.306 72.102 0.952 -17.8
3269.625 0.951 -17.941 0.308 71.96 0.308 71.96 0.951 -17.941
3294.583 0.95 -18.082 0.31 71.818 0.31 71.818 0.95 -18.082
3319.542 0.949 -18.224 0.313 71.676 0.313 71.676 0.949 -18.224
3344.5 0.949 -18.365 0.315 71.533 0.315 71.533 0.949 -18.365
3369.458 0.948 -18.507 0.317 71.391 0.317 71.391 0.948 -18.507
3394.417 0.947 -18.648 0.32 71.249 0.32 71.249 0.947 -18.648
3419.375 0.946 -18.79 0.322 71.106 0.322 71.106 0.946 -18.79
3444.333 0.945 -18.932 0.324 70.963 0.324 70.963 0.945 -18.932
3469.292 0.944 -19.074 0.327 70.821 0.327 70.821 0.944 -19.074
3494.25 0.944 -19.216 0.329 70.678 0.329 70.678 0.944 -19.216
3519.208 0.943 -19.358 0.331 70.535 0.331 70.535 0.943 -19.358
3544.167 0.942 -19.5 0.334 70.392 0.334 70.392 0.942 -19.5
3569.125 0.941 -19.642 0.336 70.249 0.336 70.249 0.941 -19.642
3594.083 0.94 -19.784 0.338 70.106 0.338 70.106 0.94 -19.784
3619.042 0.939 -19.927 0.341 69.962 0.341 69.962 0.939 -19.927
3644 0.939 -20.069 0.343 69.819 0.343 69.819 0.939 -20.069
3668.958 0.938 -20.212 0.345 69.675 0.345 69.675 0.938 -20.212
3693.917 0.937 -20.355 0.348 69.532 0.348 69.532 0.937 -20.355
3718.875 0.936 -20.498 0.35 69.388 0.35 69.388 0.936 -20.498
3743.833 0.935 -20.641 0.353 69.244 0.353 69.244 0.935 -20.641
3768.792 0.934 -20.784 0.355 69.1 0.355 69.1 0.934 -20.784
3793.75 0.933 -20.927 0.357 68.956 0.357 68.956 0.933 -20.927
3818.708 0.932 -21.07 0.36 68.812 0.36 68.812 0.932 -21.07
3843.667 0.931 -21.213 0.362 68.668 0.362 68.668 0.931 -21.213
3868.625 0.931 -21.357 0.364 68.523 0.364 68.523 0.931 -21.357
3893.583 0.93 -21.501 0.367 68.379 0.367 68.379 0.93 -21.501
3918.542 0.929 -21.644 0.369 68.234 0.369 68.234 0.929 -21.644
3943.5 0.928 -21.788 0.371 68.09 0.371 68.09 0.928 -21.788
3968.458 0.927 -21.932 0.374 67.945 0.374 67.945 0.927 -21.932
3993.417 0.926 -22.076 0.376 67.8 0.376 67.8 0.926 -22.076
4018.375 0.925 -22.22 0.378 67.655 0.378 67.655 0.925 -22.22
4043.333 0.924 -22.364 0.38 67.51 0.38 67.51 0.924 -22.364
4068.292 0.923 -22.509 0.383 67.365 0.383 67.365 0.923 -22.509
4093.25 0.922 -22.653 0.385 67.219 0.385 67.219 0.922 -22.653
4118.208 0.921 -22.797 0.387 67.074 0.387 67.074 0.921 -22.797
4143.167 0.92 -22.942 0.39 66.928 0.39 66.928 0.92 -22.942
4168.125 0.919 -23.087 0.392 66.783 0.392 66.783 0.919 -23.087
4193.083 0.918 -23.232 0.394 66.637 0.394 66.637 0.918 -23.232
4218.042 0.917 -23.377 0.397 66.491 0.397 66.491 0.917 -23.377
4243 0.916 -23.522 0.399 66.345 0.399 66.345 0.916 -23.522
4267.958 0.915 -23.667 0.401 66.199 0.401 66.199 0.915 -23.667
4292.917 0.914 -23.812 0.404 66.053 0.404 66.053 0.914 -23.812
4317.875 0.913 -23.958 0.406 65.906 0.406 65.906 0.913 -23.958
4342.833 0.912 -24.103 0.408 65.76 0.408 65.76 0.912 -24.103
4367.792 0.911 -24.249 0.411 65.613 0.411 65.613 0.911 -24.249
4392.75 0.91 -24.394 0.413 65.467 0.413 65.467 0.91 -24.394
4417.708 0.909 -24.54 0.415 65.32 0.415 65.32 0.909 -24.54
4442.667 0.908 -24.686 0.418 65.173 0.418 65.173 0.908 -24.686
4467.625 0.907 -24.832 0.42 65.026 0.42 65.026 0.907 -24.832
4492.583 0.905 -24.979 0.422 64.879 0.422 64.879 0.905 -24.979
4517.542 0.904 -25.125 0.425 64.732 0.425 64.732 0.904 -25.125
4542.5 0.903 -25.271 0.427 64.584 0.427 64.584 0.903 -25.271
4567.458 0.902 -25.418 0.429 64.437 0.429 64.437 0.902 -25.418
4592.417 0.901 -25.564 0.432 64.289 0.432 64.289 0.901 -25.564
4617.375 0.9 -25.711 0.434 64.142 0.434 64.142 0.9 -25.711
4642.333 0.899 -25.858 0.436 63.994 0.436 63.994 0.899 -25.858
4667.292 0.898 -26.005 0.438 63.846 0.438 63.846 0.898 -26.005
4692.25 0.896 -26.152 0.441 63.698 0.441 63.698 0.896 -26.152
4717.208 0.895 -26.299 0.443 63.55 0.443 63.55 0.895 -26.299
4742.167 0.894 -26.447 0.445 63.401 0.445 63.401 0.894 -26.447
4767.125 0.893 -26.594 0.448 63.253 0.448 63.253 0.893 -26.594
4792.083 0.892 -26.741 0.45 63.104 0.45 63.104 0.892 -26.741
4817.042 0.891 -26.889 0.452 62.956 0.452 62.956 0.891 -26.889
4842 0.889 -27.037 0.455 62.807 0.455 62.807 0.889 -27.037
4866.958 0.888 -27.185 0.457 62.658 0.457 62.658 0.888 -27.185
4891.917 0.887 -27.333 0.459 62.509 0.459 62.509 0.887 -27.333
4916.875 0.886 -27.481 0.461 62.36 0.461 62.36 0.886 -27.481
4941.833 0.885 -27.629 0.464 62.211 0.464 62.211 0.885 -27.629
4966.792 0.883 -27.778 0.466 62.061 0.466 62.061 0.883 -27.778
4991.75 0.882 -27.926 0.468 61.912 0.468 61.912 0.882 -27.926
5016.708 0.881 -28.075 0.471 61.762 0.471 61.762 0.881 -28.075
5041.667 0.88 -28.223 0.473 61.612 0.473 61.612 0.88 -28.223
5066.625 0.879 -28.372 0.475 61.463 0.475 61.463 0.879 -28.372
5091.583 0.877 -28.521 0.477 61.313 0.477 61.313 0.877 -28.521
5116.542 0.876 -28.67 0.48 61.163 0.48 61.163 0.876 -28.67
5141.5 0.875 -28.819 0.482 61.012 0.482 61.012 0.875 -28.819
5166.458 0.873 -28.969 0.484 60.862 0.484 60.862 0.873 -28.969
5191.417 0.872 -29.118 0.487 60.712 0.487 60.712 0.872 -29.118
5216.375 0.871 -29.267 0.489 60.561 0.489 60.561 0.871 -29.267
5241.333 0.87 -29.417 0.491 60.41 0.491 60.41 0.87 -29.417
5266.292 0.868 -29.567 0.493 60.26 0.493 60.26 0.868 -29.567
5291.25 0.867 -29.717 0.496 60.109 0.496 60.109 0.867 -29.717
5316.208 0.866 -29.867 0.498 59.958 0.498 59.958 0.866 -29.867
5341.167 0.864 -30.017 0.5 59.806 0.5 59.806 0.864 -30.017
5366.125 0.863 -30.167 0.503 59.655 0.503 59.655 0.863 -30.167
5391.083 0.862 -30.317 0.505 59.504 0.505 59.504 0.862 -30.317
5416.042 0.86 -30.468 0.507 59.352 0.507 59.352 0.86 -30.468
5441 0.859 -30.618 0.509 59.2 0.509 59.2 0.859 -30.618
5465.958 0.858 -30.769 0.512 59.049 0.512 59.049 0.858 -30.769
5490.917 0.856 -30.92 0.514 58.897 0.514 58.897 0.856 -30.92
5515.875 0.855 -31.071 0.516 58.745 0.516 58.745 0.855 -31.071
5540.833 0.853 -31.222 0.518 58.593 0.518 58.593 0.853 -31.222
5565.792 0.852 -31.373 0.521 58.44 0.521 58.44 0.852 -31.373
5590.75 0.851 -31.524 0.523 58.288 0.523 58.288 0.851 -31.524
5615.708 0.849 -31.676 0.525 58.135 0.525 58.135 0.849 -31.676
5640.667 0.848 -31.827 0.527 57.983 0.527 57.983 0.848 -31.827
5665.625 0.846 -31.979 0.53 57.83 0.53 57.83 0.846 -31.979
5690.583 0.845 -32.131 0.532 57.677 0.532 57.677 0.845 -32.131
5715.542 0.844 -32.283 0.534 57.524 0.534 57.524 0.844 -32.283
5740.5 0.842 -32.434 0.536 57.371 0.536 57.371 0.842 -32.434
5765.458 0.841 -32.587 0.539 57.218 0.539 57.218 0.841 -32.587
5790.417 0.839 -32.739 0.541 57.064 0.541 57.064 0.839 -32.739
5815.375 0.838 -32.891 0.543 56.911 0.543 56.911 0.838 -32.891
5840.333 0.836 -33.044 0.545 56.757 0.545 56.757 0.836 -33.044
5865.292 0.835 -33.196 0.548 56.603 0.548 56.603 0.835 -33.196
5890.25 0.833 -33.349 0.55 56.45 0.55 56.45 0.833 -33.349
5915.208 0.832 -33.502 0.552 56.296 0.552 56.296 0.832 -33.502
5940.167 0.83 -33.655 0.554 56.142 0.554 56.142 0.83 -33.655
5965.125 0.829 -33.808 0.556 55.987 0.556 55.987 0.829 -33.808
5990.083 0.827 -33.961 0.559 55.833 0.559 55.833 0.827 -33.961
6015.042 0.826 -34.114 0.561 55.679 0.561 55.679 0.826 -34.114
6040 0.824 -34.267 0.563 55.524 0.563 55.524 0.824 -34.267
6064.958 0.823 -34.421 0.565 55.369 0.565 55.369 0.823 -34.421
6089.917 0.821 -34.574 0.567 55.214 0.567 55.214 0.821 -34.574
6114.875 0.82 -34.728 0.57 55.06 0.57 55.06 0.82 -34.728
6139.833 0.818 -34.882 0.572 54.904 0.572 54.904 0.818 -34.882
6164.792 0.817 -35.036 0.574 54.749 0.574 54.749 0.817 -35.036
6189.75 0.815 -35.19 0.576 54.594 0.576 54.594 0.815 -35.19
6214.708 0.813 -35.344 0.578 54.439 0.578 54.439 0.813 -35.344
6239.667 0.812 -35.498 0.581 54.283 0.581 54.283 0.812 -35.498
6264.625 0.81 -35.653 0.583 54.127 0.583 54.127 0.81 -35.653
6289.583 0.809 -35.807 0.585 53.972 0.585 53.972 0.809 -35.807
6314.542 0.807 -35.962 0.587 53.816 0.587 53.816 0.807 -35.962
6339.5 0.806 -36.117 0.589 53.66 0.589 53.66 0.806 -36.117
6364.458 0.804 -36.272 0.592 53.504 0.592 53.504 0.804 -36.272
6389.417 0.802 -36.427 0.594 53.347 0.594 53.347 0.802 -36.427
6414.375 0.801 -36.582 0.596 53.191 0.596 53.191 0.801 -36.582
6439.333 0.799 -36.737 0.598 53.035 0.598 53.035 0.799 -36.737
6464.292 0.797 -36.892 0.6 52.878 0.6 52.878 0.797 -36.892
6489.25 0.796 -37.047 0.602 52.721 0.602 52.721 0.796 -37.047
6514.208 0.794 -37.203 0.605 52.564 0.605 52.564 0.794 -37.203
6539.167 0.792 -37.359 0.607 52.407 0.607 52.407 0.792 -37.359
6564.125 0.791 -37.514 0.609 52.25 0.609 52.25 0.791 -37.514
6589.083 0.789 -37.67 0.611 52.093 0.611 52.093 0.789 -37.67
6614.042 0.787 -37.826 0.613 51.936 0.613 51.936 0.787 -37.826
6639 0.786 -37.982 0.615 51.779 0.615 51.779 0.786 -37.982
6663.958 0.784 -38.138 0.618 51.621 0.618 51.621 0.784 -38.138
6688.917 0.782 -38.295 0.62 51.463 0.62 51.463 0.782 -38.295
6713.875 0.78 -38.451 0.622 51.306 0.622 51.306 0.78 -38.451
6738.833 0.779 -38.607 0.624 51.148 0.624 51.148 0.779 -38.607
6763.792 0.777 -38.764 0.626 50.99 0.626 50.99 0.777 -38.764
6788.75 0.775 -38.921 0.628 50.832 0.628 50.832 0.775 -38.921
6813.708 0.774 -39.077 0.63 50.674 0.63 50.674 0.774 -39.077
6838.667 0.772 -39.234 0.632 50.515 0.632 50.515 0.772 -39.234
6863.625 0.77 -39.391 0.635 50.357 0.635 50.357 0.77 -39.391
6888.583 0.768 -39.548 0.637 50.198 0.637 50.198 0.768 -39.548
6913.542 0.766 -39.706 0.639 50.04 0.639 50.04 0.766 -39.706
6938.5 0.765 -39.863 0.641 49.881 0.641 49.881 0.765 -39.863
6963.458 0.763 -40.02 0.643 49.722 0.643 49.722 0.763 -40.02
6988.417 0.761 -40.178 0.645 49.563 0.645 49.563 0.761 -40.178
7013.375 0.759 -40.335 0.647 49.404 0.647 49.404 0.759 -40.335
7038.333 0.758 -40.493 0.649 49.245 0.649 49.245 0.758 -40.493
7063.292 0.756 -40.651 0.651 49.086 0.651 49.086 0.756 -40.651
7088.25 0.754 -40.809 0.654 48.927 0.654 48.927 0.754 -40.809
7113.208 0.752 -40.967 0.656 48.767 0.656 48.767 0.752 -40.967
7138.167 0.75 -41.125 0.658 48.607 0.658 48.607 0.75 -41.125
7163.125 0.748 -41.283 0.66 48.448 0.66 48.448 0.748 -41.283
7188.083 0.747 -41.441 0.662 48.288 0.662 48.288 0.747 -41.441
7213.042 0.745 -41.599 0.664 48.128 0.664 48.128 0.745 -41.599
7238 0.743 -41.758 0.666 47.968 0.666 47.968 0.743 -41.758
7262.958 0.741 -41.916 0.668 47.808 0.668 47.808 0.741 -41.916
7287.917 0.739 -42.075 0.67 47.648 0.67 47.648 0.739 -42.075
7312.875 0.737 -42.234 0.672 47.488 0.672 47.488 0.737 -42.234
7337.833 0.735 -42.393 0.674 47.327 0.674 47.327 0.735 -42.393
7362.792 0.733 -42.552 0.676 47.167 0.676 47.167 0.733 -42.552
7387.75 0.731 -42.711 0.678 47.006 0.678 47.006 0.731 -42.711
7412.708 0.73 -42.87 0.68 46.845 0.68 46.845 0.73 -42.87
7437.667 0.728 -43.029 0.682 46.685 0.682 46.685 0.728 -43.029
7462.625 0.726 -43.188 0.684 46.524 0.684 46.524 0.726 -43.188
7487.583 0.724 -43.347 0.686 46.363 0.686 46.363 0.724 -43.347
7512.542 0.722 -43.507 0.688 46.202 0.688 46.202 0.722 -43.507
7537.5 0.72 -43.666 0.69 46.041 0.69 46.041 0.72 -43.666
7562.458 0.718 -43.826 0.692 45.879 0.692 45.879 0.718 -43.826
7587.417 0.716 -43.986 0.694 45.718 0.694 45.718 0.716 -43.986
7612.375 0.714 -44.145 0.696 45.557 0.696 45.557 0.714 -44.145
7637.333 0.712 -44.305 0.698 45.395 0.698 45.395 0.712 -44.305
7662.292 0.71 -44.465 0.7 45.233 0.7 45.233 0.71 -44.465
7687.25 0.708 -44.625 0.702 45.072 0.702 45.072 0.708 -44.625
7712.208 0.706 -44.785 0.704 44.91 0.704 44.91 0.706 -44.785
7737.167 0.704 -44.945 0.706 44.748 0.706 44.748 0.704 -44.945
7762.125 0.702 -45.106 0.708 44.586 0.708 44.586 0.702 -45.106
7787.083 0.7 -45.266 0.71 44.424 0.71 44.424 0.7 -45.266
7812.042 0.698 -45.426 0.712 44.262 0.712 44.262 0.698 -45.426
7837 0.696 -45.587 0.714 44.1 0.714 44.1 0.696 -45.587
7861.958 0.694 -45.747 0.716 43.937 0.716 43.937 0.694 -45.747
7886.917 0.692 -45.908 0.718 43.775 0.718 43.775 0.692 -45.908
7911.875 0.69 -46.068 0.72 43.613 0.72 43.613 0.69 -46.068
7936.833 0.688 -46.229 0.722 43.45 0.722 43.45 0.688 -46.229
7961.792 0.686 -46.39 0.724 43.287 0.724 43.287 0.686 -46.39
7986.75 0.684 -46.551 0.726 43.125 0.726 43.125 0.684 -46.551
8011.708 0.682 -46.712 0.728 42.962 0.728 42.962 0.682 -46.712
8036.667 0.679 -46.873 0.73 42.799 0.73 42.799 0.679 -46.873
8061.625 0.677 -47.034 0.732 42.636 0.732 42.636 0.677 -47.034
8086.583 0.675 -47.195 0.734 42.473 0.734 42.473 0.675 -47.195
8111.542 0.673 -47.356 0.736 42.31 0.736 42.31 0.673 -47.356
8136.5 0.671 -47.517 0.737 42.147 0.737 42.147 0.671 -47.517
8161.458 0.669 -47.679 0.739 41.984 0.739 41.984 0.669 -47.679
8186.417 0.667 -47.84 0.741 41.82 0.741 41.82 0.667 -47.84
