# MHZ S MA R 50

50 1 -0.72 0.013 89.277 0.013 89.277 1 -0.72
74.958 1 -1.079 0.019 88.917 0.019 88.917 1 -1.079
99.917 1 -1.439 0.025 88.556 0.025 88.556 1 -1.439
124.875 1 -1.798 0.031 88.196 0.031 88.196 1 -1.798
149.833 0.999 -2.157 0.038 87.835 0.038 87.835 0.999 -2.157
174.792 0.999 -2.516 0.044 87.475 0.044 87.475 0.999 -2.516
199.75 0.999 -2.875 0.05 87.114 0.05 87.114 0.999 -2.875
224.708 0.998 -3.234 0.056 86.754 0.056 86.754 0.998 -3.234
249.667 0.998 -3.593 0.063 86.394 0.063 86.394 0.998 -3.593
274.625 0.998 -3.952 0.069 86.034 0.069 86.034 0.998 -3.952
299.583 0.997 -4.311 0.075 85.674 0.075 85.674 0.997 -4.311
324.542 0.997 -4.669 0.081 85.314 0.081 85.314 0.997 -4.669
349.5 0.996 -5.027 0.088 84.955 0.088 84.955 0.996 -5.027
374.458 0.996 -5.385 0.094 84.595 0.094 84.595 0.996 -5.385
399.417 0.995 -5.743 0.1 84.236 0.1 84.236 0.995 -5.743
424.375 0.994 -6.101 0.106 83.877 0.106 83.877 0.994 -6.101
449.333 0.994 -6.459 0.112 83.518 0.112 83.518 0.994 -6.459
474.292 0.993 -6.816 0.119 83.159 0.119 83.159 0.993 -6.816
499.25 0.992 -7.173 0.125 82.801 0.125 82.801 0.992 -7.173
524.208 0.991 -7.53 0.131 82.443 0.131 82.443 0.991 -7.53
549.167 0.99 -7.887 0.137 82.085 0.137 82.085 0.99 -7.887
574.125 0.99 -8.243 0.143 81.727 0.143 81.727 0.99 -8.243
599.083 0.989 -8.599 0.15 81.37 0.15 81.37 0.989 -8.599
624.042 0.988 -8.955 0.156 81.013 0.156 81.013 0.988 -8.955
649 0.987 -9.31 0.162 80.656 0.162 80.656 0.987 -9.31
673.958 0.986 -9.666 0.168 80.299 0.168 80.299 0.986 -9.666
698.917 0.985 -10.021 0.174 79.943 0.174 79.943 0.985 -10.021
723.875 0.984 -10.375 0.18 79.587 0.18 79.587 0.984 -10.375
748.833 0.982 -10.729 0.186 79.232 0.186 79.232 0.982 -10.729
773.792 0.981 -11.083 0.192 78.877 0.192 78.877 0.981 -11.083
798.75 0.98 -11.437 0.198 78.522 0.198 78.522 0.98 -11.437
823.708 0.979 -11.79 0.204 78.167 0.204 78.167 0.979 -11.79
848.667 0.977 -12.143 0.21 77.813 0.21 77.813 0.977 -12.143
873.625 0.976 -12.495 0.216 77.46 0.216 77.46 0.976 -12.495
898.583 0.975 -12.847 0.222 77.106 0.222 77.106 0.975 -12.847
923.542 0.973 -13.198 0.228 76.753 0.228 76.753 0.973 -13.198
948.5 0.972 -13.55 0.234 76.401 0.234 76.401 0.972 -13.55
973.458 0.971 -13.9 0.24 76.049 0.24 76.049 0.971 -13.9
998.417 0.969 -14.251 0.246 75.697 0.246 75.697 0.969 -14.251
1023.375 0.967 -14.6 0.252 75.346 0.252 75.346 0.967 -14.6
1048.333 0.966 -14.95 0.258 74.995 0.258 74.995 0.966 -14.95
1073.292 0.964 -15.299 0.264 74.645 0.264 74.645 0.964 -15.299
1098.25 0.963 -15.647 0.27 74.296 0.27 74.296 0.963 -15.647
1123.208 0.961 -15.995 0.276 73.946 0.276 73.946 0.961 -15.995
1148.167 0.959 -16.342 0.281 73.598 0.281 73.598 0.959 -16.342
1173.125 0.958 -16.689 0.287 73.249 0.287 73.249 0.958 -16.689
1198.083 0.956 -17.035 0.293 72.902 0.293 72.902 0.956 -17.035
1223.042 0.954 -17.381 0.299 72.555 0.299 72.555 0.954 -17.381
1248 0.952 -17.726 0.304 72.208 0.304 72.208 0.952 -17.726
1272.958 0.95 -18.071 0.31 71.862 0.31 71.862 0.95 -18.071
1297.917 0.948 -18.415 0.316 71.516 0.316 71.516 0.948 -18.415
1322.875 0.946 -18.759 0.322 71.171 0.322 71.171 0.946 -18.759
1347.833 0.945 -19.102 0.327 70.827 0.327 70.827 0.945 -19.102
1372.792 0.943 -19.444 0.333 70.483 0.333 70.483 0.943 -19.444
1397.75 0.941 -19.786 0.339 70.14 0.339 70.14 0.941 -19.786
1422.708 0.938 -20.128 0.344 69.797 0.344 69.797 0.938 -20.128
1447.667 0.936 -20.468 0.35 69.455 0.35 69.455 0.936 -20.468
1472.625 0.934 -20.808 0.355 69.114 0.355 69.114 0.934 -20.808
1497.583 0.932 -21.148 0.361 68.773 0.361 68.773 0.932 -21.148
1522.542 0.93 -21.487 0.366 68.433 0.366 68.433 0.93 -21.487
1547.5 0.928 -21.825 0.372 68.093 0.372 68.093 0.928 -21.825
1572.458 0.926 -22.162 0.377 67.754 0.377 67.754 0.926 -22.162
1597.417 0.923 -22.499 0.383 67.416 0.383 67.416 0.923 -22.499
1622.375 0.921 -22.835 0.388 67.078 0.388 67.078 0.921 -22.835
1647.333 0.919 -23.171 0.393 66.741 0.393 66.741 0.919 -23.171
1672.292 0.916 -23.506 0.399 66.405 0.399 66.405 0.916 -23.506
1697.25 0.914 -23.84 0.404 66.069 0.404 66.069 0.914 -23.84
1722.208 0.912 -24.173 0.409 65.734 0.409 65.734 0.912 -24.173
1747.167 0.909 -24.506 0.415 65.4 0.415 65.4 0.909 -24.506
1772.125 0.907 -24.838 0.42 65.067 0.42 65.067 0.907 -24.838
1797.083 0.904 -25.17 0.425 64.734 0.425 64.734 0.904 -25.17
1822.042 0.902 -25.5 0.431 64.402 0.431 64.402 0.902 -25.5
1847 0.899 -25.83 0.436 64.07 0.436 64.07 0.899 -25.83
1871.958 0.897 -26.16 0.441 63.74 0.441 63.74 0.897 -26.16
1896.917 0.894 -26.488 0.446 63.41 0.446 63.41 0.894 -26.488
1921.875 0.892 -26.816 0.451 63.08 0.451 63.08 0.892 -26.816
1946.833 0.889 -27.143 0.456 62.752 0.456 62.752 0.889 -27.143
1971.792 0.886 -27.469 0.461 62.424 0.461 62.424 0.886 -27.469
1996.75 0.884 -27.795 0.466 62.097 0.466 62.097 0.884 -27.795
2021.708 0.881 -28.12 0.471 61.771 0.471 61.771 0.881 -28.12
2046.667 0.878 -28.444 0.476 61.445 0.476 61.445 0.878 -28.444
2071.625 0.876 -28.767 0.481 61.12 0.481 61.12 0.876 -28.767
2096.583 0.873 -29.089 0.486 60.796 0.486 60.796 0.873 -29.089
2121.542 0.87 -29.411 0.491 60.473 0.491 60.473 0.87 -29.411
2146.5 0.867 -29.732 0.496 60.151 0.496 60.151 0.867 -29.732
2171.458 0.865 -30.052 0.501 59.829 0.501 59.829 0.865 -30.052
2196.417 0.862 -30.371 0.506 59.508 0.506 59.508 0.862 -30.371
2221.375 0.859 -30.69 0.51 59.188 0.51 59.188 0.859 -30.69
2246.333 0.856 -31.008 0.515 58.869 0.515 58.869 0.856 -31.008
2271.292 0.853 -31.325 0.52 58.55 0.52 58.55 0.853 -31.325
2296.25 0.85 -31.641 0.525 58.233 0.525 58.233 0.85 -31.641
2321.208 0.847 -31.956 0.529 57.916 0.529 57.916 0.847 -31.956
2346.167 0.844 -32.271 0.534 57.6 0.534 57.6 0.844 -32.271
2371.125 0.841 -32.584 0.539 57.284 0.539 57.284 0.841 -32.584
2396.083 0.838 -32.897 0.543 56.97 0.543 56.97 0.838 -32.897
2421.042 0.835 -33.209 0.548 56.656 0.548 56.656 0.835 -33.209
2446 0.832 -33.521 0.552 56.343 0.552 56.343 0.832 -33.521
2470.958 0.829 -33.831 0.557 56.031 0.557 56.031 0.829 -33.831
2495.917 0.826 -34.141 0.561 55.72 0.561 55.72 0.826 -34.141
2520.875 0.823 -34.449 0.566 55.41 0.566 55.41 0.823 -34.449
2545.833 0.82 -34.757 0.57 55.1 0.57 55.1 0.82 -34.757
2570.792 0.817 -35.064 0.574 54.791 0.574 54.791 0.817 -35.064
2595.75 0.814 -35.37 0.579 54.484 0.579 54.484 0.814 -35.37
2620.708 0.811 -35.676 0.583 54.177 0.583 54.177 0.811 -35.676
2645.667 0.808 -35.98 0.588 53.87 0.588 53.87 0.808 -35.98
2670.625 0.805 -36.284 0.592 53.565 0.592 53.565 0.805 -36.284
2695.583 0.801 -36.587 0.596 53.26 0.596 53.26 0.801 -36.587
2720.542 0.798 -36.889 0.6 52.957 0.6 52.957 0.798 -36.889
2745.5 0.795 -37.19 0.604 52.654 0.604 52.654 0.795 -37.19
2770.458 0.792 -37.49 0.609 52.352 0.609 52.352 0.792 -37.49
2795.417 0.789 -37.79 0.613 52.051 0.613 52.051 0.789 -37.79
2820.375 0.785 -38.088 0.617 51.751 0.617 51.751 0.785 -38.088
2845.333 0.782 -38.386 0.621 51.451 0.621 51.451 0.782 -38.386
2870.292 0.779 -38.683 0.625 51.153 0.625 51.153 0.779 -38.683
2895.25 0.776 -38.979 0.629 50.855 0.629 50.855 0.776 -38.979
2920.208 0.772 -39.274 0.633 50.558 0.633 50.558 0.772 -39.274
2945.167 0.769 -39.568 0.637 50.262 0.637 50.262 0.769 -39.568
2970.125 0.766 -39.861 0.641 49.967 0.641 49.967 0.766 -39.861
2995.083 0.762 -40.154 0.645 49.673 0.645 49.673 0.762 -40.154
3020.042 0.759 -40.445 0.649 49.379 0.649 49.379 0.759 -40.445
3045 0.756 -40.736 0.653 49.087 0.653 49.087 0.756 -40.736
3069.958 0.752 -41.026 0.656 48.795 0.656 48.795 0.752 -41.026
3094.917 0.749 -41.315 0.66 48.504 0.66 48.504 0.749 -41.315
3119.875 0.746 -41.603 0.664 48.215 0.664 48.215 0.746 -41.603
3144.833 0.742 -41.89 0.668 47.925 0.668 47.925 0.742 -41.89
3169.792 0.739 -42.176 0.671 47.637 0.671 47.637 0.739 -42.176
3194.75 0.736 -42.462 0.675 47.35 0.675 47.35 0.736 -42.462
3219.708 0.732 -42.746 0.679 47.063 0.679 47.063 0.732 -42.746
3244.667 0.729 -43.03 0.682 46.778 0.682 46.778 0.729 -43.03
3269.625 0.725 -43.313 0.686 46.493 0.686 46.493 0.725 -43.313
3294.583 0.722 -43.595 0.69 46.209 0.69 46.209 0.722 -43.595
3319.542 0.718 -43.876 0.693 45.926 0.693 45.926 0.718 -43.876
3344.5 0.715 -44.156 0.697 45.644 0.697 45.644 0.715 -44.156
3369.458 0.712 -44.435 0.7 45.363 0.7 45.363 0.712 -44.435
3394.417 0.708 -44.714 0.704 45.082 0.704 45.082 0.708 -44.714
3419.375 0.705 -44.991 0.707 44.803 0.707 44.803 0.705 -44.991
3444.333 0.701 -45.268 0.71 44.524 0.71 44.524 0.701 -45.268
3469.292 0.698 -45.544 0.714 44.246 0.714 44.246 0.698 -45.544
3494.25 0.694 -45.819 0.717 43.969 0.717 43.969 0.694 -45.819
3519.208 0.691 -46.093 0.72 43.693 0.72 43.693 0.691 -46.093
3544.167 0.687 -46.366 0.724 43.418 0.724 43.418 0.687 -46.366
3569.125 0.684 -46.639 0.727 43.143 0.727 43.143 0.684 -46.639
3594.083 0.68 -46.91 0.73 42.87 0.73 42.87 0.68 -46.91
3619.042 0.677 -47.181 0.734 42.597 0.734 42.597 0.677 -47.181
3644 0.673 -47.45 0.737 42.325 0.737 42.325 0.673 -47.45
3668.958 0.67 -47.719 0.74 42.054 0.74 42.054 0.67 -47.719
3693.917 0.666 -47.987 0.743 41.784 0.743 41.784 0.666 -47.987
3718.875 0.663 -48.254 0.746 41.515 0.746 41.515 0.663 -48.254
3743.833 0.659 -48.52 0.749 41.246 0.749 41.246 0.659 -48.52
3768.792 0.656 -48.786 0.752 40.979 0.752 40.979 0.656 -48.786
3793.75 0.652 -49.05 0.755 40.712 0.755 40.712 0.652 -49.05
3818.708 0.649 -49.314 0.758 40.446 0.758 40.446 0.649 -49.314
3843.667 0.645 -49.577 0.761 40.181 0.761 40.181 0.645 -49.577
3868.625 0.642 -49.839 0.764 39.917 0.764 39.917 0.642 -49.839
3893.583 0.638 -50.1 0.767 39.654 0.767 39.654 0.638 -50.1
3918.542 0.635 -50.36 0.77 39.391 0.77 39.391 0.635 -50.36
3943.5 0.631 -50.619 0.773 39.13 0.773 39.13 0.631 -50.619
3968.458 0.628 -50.878 0.776 38.869 0.776 38.869 0.628 -50.878
3993.417 0.624 -51.135 0.779 38.609 0.779 38.609 0.624 -51.135
4018.375 0.62 -51.392 0.781 38.35 0.781 38.35 0.62 -51.392
4043.333 0.617 -51.648 0.784 38.091 0.784 38.091 0.617 -51.648
4068.292 0.613 -51.903 0.787 37.834 0.787 37.834 0.613 -51.903
4093.25 0.61 -52.157 0.79 37.577 0.79 37.577 0.61 -52.157
4118.208 0.606 -52.411 0.792 37.321 0.792 37.321 0.606 -52.411
4143.167 0.603 -52.663 0.795 37.066 0.795 37.066 0.603 -52.663
4168.125 0.599 -52.915 0.798 36.812 0.798 36.812 0.599 -52.915
4193.083 0.596 -53.166 0.8 36.559 0.8 36.559 0.596 -53.166
4218.042 0.592 -53.415 0.803 36.306 0.803 36.306 0.592 -53.415
4243 0.589 -53.665 0.806 36.055 0.806 36.055 0.589 -53.665
4267.958 0.585 -53.913 0.808 35.804 0.808 35.804 0.585 -53.913
4292.917 0.581 -54.16 0.811 35.554 0.811 35.554 0.581 -54.16
4317.875 0.578 -54.407 0.813 35.304 0.813 35.304 0.578 -54.407
4342.833 0.574 -54.653 0.816 35.056 0.816 35.056 0.574 -54.653
4367.792 0.571 -54.898 0.818 34.808 0.818 34.808 0.571 -54.898
4392.75 0.567 -55.142 0.821 34.561 0.821 34.561 0.567 -55.142
4417.708 0.564 -55.385 0.823 34.315 0.823 34.315 0.564 -55.385
4442.667 0.56 -55.628 0.825 34.07 0.825 34.07 0.56 -55.628
4467.625 0.557 -55.869 0.828 33.826 0.828 33.826 0.557 -55.869
4492.583 0.553 -56.11 0.83 33.582 0.83 33.582 0.553 -56.11
4517.542 0.55 -56.35 0.832 33.339 0.832 33.339 0.55 -56.35
4542.5 0.546 -56.589 0.835 33.097 0.835 33.097 0.546 -56.589
4567.458 0.543 -56.828 0.837 32.856 0.837 32.856 0.543 -56.828
4592.417 0.539 -57.065 0.839 32.615 0.839 32.615 0.539 -57.065
4617.375 0.535 -57.302 0.842 32.376 0.842 32.376 0.535 -57.302
4642.333 0.532 -57.538 0.844 32.137 0.844 32.137 0.532 -57.538
4667.292 0.528 -57.773 0.846 31.899 0.846 31.899 0.528 -57.773
4692.25 0.525 -58.007 0.848 31.661 0.848 31.661 0.525 -58.007
4717.208 0.521 -58.241 0.85 31.425 0.85 31.425 0.521 -58.241
4742.167 0.518 -58.473 0.852 31.189 0.852 31.189 0.518 -58.473
4767.125 0.514 -58.705 0.855 30.954 0.855 30.954 0.514 -58.705
4792.083 0.511 -58.936 0.857 30.72 0.857 30.72 0.511 -58.936
4817.042 0.507 -59.166 0.859 30.486 0.859 30.486 0.507 -59.166
4842 0.504 -59.396 0.861 30.254 0.861 30.254 0.504 -59.396
4866.958 0.5 -59.625 0.863 30.022 0.863 30.022 0.5 -59.625
4891.917 0.497 -59.853 0.865 29.79 0.865 29.79 0.497 -59.853
4916.875 0.493 -60.08 0.867 29.56 0.867 29.56 0.493 -60.08
4941.833 0.49 -60.306 0.869 29.33 0.869 29.33 0.49 -60.306
4966.792 0.486 -60.531 0.871 29.101 0.871 29.101 0.486 -60.531
4991.75 0.483 -60.756 0.873 28.873 0.873 28.873 0.483 -60.756
5016.708 0.479 -60.98 0.874 28.646 0.874 28.646 0.479 -60.98
5041.667 0.476 -61.203 0.876 28.419 0.876 28.419 0.476 -61.203
5066.625 0.472 -61.426 0.878 28.193 0.878 28.193 0.472 -61.426
5091.583 0.469 -61.647 0.88 27.968 0.88 27.968 0.469 -61.647
5116.542 0.466 -61.868 0.882 27.743 0.882 27.743 0.466 -61.868
5141.5 0.462 -62.088 0.884 27.519 0.884 27.519 0.462 -62.088
5166.458 0.459 -62.307 0.885 27.296 0.885 27.296 0.459 -62.307
5191.417 0.455 -62.526 0.887 27.074 0.887 27.074 0.455 -62.526
5216.375 0.452 -62.744 0.889 26.853 0.889 26.853 0.452 -62.744
5241.333 0.448 -62.961 0.891 26.632 0.891 26.632 0.448 -62.961
5266.292 0.445 -63.177 0.892 26.412 0.892 26.412 0.445 -63.177
5291.25 0.441 -63.392 0.894 26.192 0.894 26.192 0.441 -63.392
5316.208 0.438 -63.607 0.896 25.973 0.896 25.973 0.438 -63.607
5341.167 0.435 -63.821 0.897 25.755 0.897 25.755 0.435 -63.821
5366.125 0.431 -64.034 0.899 25.538 0.899 25.538 0.431 -64.034
5391.083 0.428 -64.246 0.901 25.322 0.901 25.322 0.428 -64.246
5416.042 0.424 -64.458 0.902 25.106 0.902 25.106 0.424 -64.458
5441 0.421 -64.669 0.904 24.891 0.904 24.891 0.421 -64.669
5465.958 0.417 -64.879 0.905 24.676 0.905 24.676 0.417 -64.879
5490.917 0.414 -65.088 0.907 24.462 0.907 24.462 0.414 -65.088
5515.875 0.411 -65.297 0.909 24.249 0.909 24.249 0.411 -65.297
5540.833 0.407 -65.505 0.91 24.037 0.91 24.037 0.407 -65.505
5565.792 0.404 -65.712 0.912 23.825 0.912 23.825 0.404 -65.712
5590.75 0.401 -65.918 0.913 23.614 0.913 23.614 0.401 -65.918
5615.708 0.397 -66.124 0.914 23.404 0.914 23.404 0.397 -66.124
5640.667 0.394 -66.329 0.916 23.194 0.916 23.194 0.394 -66.329
5665.625 0.391 -66.533 0.917 22.985 0.917 22.985 0.391 -66.533
5690.583 0.387 -66.736 0.919 22.777 0.919 22.777 0.387 -66.736
5715.542 0.384 -66.939 0.92 22.569 0.92 22.569 0.384 -66.939
5740.5 0.38 -67.141 0.921 22.362 0.921 22.362 0.38 -67.141
5765.458 0.377 -67.342 0.923 22.156 0.923 22.156 0.377 -67.342
5790.417 0.374 -67.543 0.924 21.95 0.924 21.95 0.374 -67.543
5815.375 0.37 -67.742 0.926 21.745 0.926 21.745 0.37 -67.742
5840.333 0.367 -67.941 0.927 21.541 0.927 21.541 0.367 -67.941
5865.292 0.364 -68.139 0.928 21.337 0.928 21.337 0.364 -68.139
5890.25 0.361 -68.337 0.929 21.134 0.929 21.134 0.361 -68.337
5915.208 0.357 -68.534 0.931 20.932 0.931 20.932 0.357 -68.534
5940.167 0.354 -68.73 0.932 20.73 0.932 20.73 0.354 -68.73
5965.125 0.351 -68.925 0.933 20.529 0.933 20.529 0.351 -68.925
5990.083 0.347 -69.12 0.934 20.329 0.934 20.329 0.347 -69.12
6015.042 0.344 -69.313 0.936 20.129 0.936 20.129 0.344 -69.313
6040 0.341 -69.507 0.937 19.93 0.937 19.93 0.341 -69.507
6064.958 0.338 -69.699 0.938 19.731 0.938 19.731 0.338 -69.699
6089.917 0.334 -69.89 0.939 19.533 0.939 19.533 0.334 -69.89
6114.875 0.331 -70.081 0.94 19.336 0.94 19.336 0.331 -70.081
6139.833 0.328 -70.272 0.941 19.139 0.941 19.139 0.328 -70.272
6164.792 0.325 -70.461 0.942 18.943 0.942 18.943 0.325 -70.461
6189.75 0.321 -70.65 0.944 18.748 0.944 18.748 0.321 -70.65
6214.708 0.318 -70.838 0.945 18.553 0.945 18.553 0.318 -70.838
6239.667 0.315 -71.025 0.946 18.359 0.946 18.359 0.315 -71.025
6264.625 0.312 -71.211 0.947 18.166 0.947 18.166 0.312 -71.211
6289.583 0.309 -71.397 0.948 17.973 0.948 17.973 0.309 -71.397
6314.542 0.305 -71.582 0.949 17.78 0.949 17.78 0.305 -71.582
6339.5 0.302 -71.766 0.95 17.589 0.95 17.589 0.302 -71.766
6364.458 0.299 -71.95 0.951 17.398 0.951 17.398 0.299 -71.95
6389.417 0.296 -72.133 0.952 17.207 0.952 17.207 0.296 -72.133
6414.375 0.293 -72.315 0.953 17.017 0.953 17.017 0.293 -72.315
6439.333 0.29 -72.496 0.954 16.828 0.954 16.828 0.29 -72.496
6464.292 0.286 -72.677 0.955 16.639 0.955 16.639 0.286 -72.677
6489.25 0.283 -72.857 0.956 16.451 0.956 16.451 0.283 -72.857
6514.208 0.28 -73.036 0.957 16.263 0.957 16.263 0.28 -73.036
6539.167 0.277 -73.214 0.957 16.077 0.957 16.077 0.277 -73.214
6564.125 0.274 -73.392 0.958 15.89 0.958 15.89 0.274 -73.392
6589.083 0.271 -73.569 0.959 15.704 0.959 15.704 0.271 -73.569
6614.042 0.268 -73.745 0.96 15.519 0.96 15.519 0.268 -73.745
6639 0.264 -73.92 0.961 15.335 0.961 15.335 0.264 -73.92
6663.958 0.261 -74.094 0.962 15.151 0.962 15.151 0.261 -74.094
6688.917 0.258 -74.268 0.963 14.967 0.963 14.967 0.258 -74.268
6713.875 0.255 -74.441 0.963 14.784 0.963 14.784 0.255 -74.441
6738.833 0.252 -74.613 0.964 14.602 0.964 14.602 0.252 -74.613
6763.792 0.249 -74.785 0.965 14.42 0.965 14.42 0.249 -74.785
6788.75 0.246 -74.956 0.966 14.239 0.966 14.239 0.246 -74.956
6813.708 0.243 -75.125 0.967 14.058 0.967 14.058 0.243 -75.125
6838.667 0.24 -75.295 0.967 13.878 0.967 13.878 0.24 -75.295
6863.625 0.237 -75.463 0.968 13.699 0.968 13.699 0.237 -75.463
6888.583 0.234 -75.63 0.969 13.52 0.969 13.52 0.234 -75.63
6913.542 0.231 -75.797 0.97 13.341 0.97 13.341 0.231 -75.797
6938.5 0.228 -75.963 0.97 13.163 0.97 13.163 0.228 -75.963
6963.458 0.225 -76.128 0.971 12.986 0.971 12.986 0.225 -76.128
6988.417 0.222 -76.292 0.972 12.809 0.972 12.809 0.222 -76.292
7013.375 0.219 -76.455 0.972 12.633 0.972 12.633 0.219 -76.455
7038.333 0.216 -76.618 0.973 12.457 0.973 12.457 0.216 -76.618
7063.292 0.213 -76.779 0.974 12.282 0.974 12.282 0.213 -76.779
7088.25 0.21 -76.94 0.974 12.107 0.974 12.107 0.21 -76.94
7113.208 0.207 -77.1 0.975 11.933 0.975 11.933 0.207 -77.1
7138.167 0.204 -77.258 0.976 11.76 0.976 11.76 0.204 -77.258
7163.125 0.201 -77.416 0.976 11.587 0.976 11.587 0.201 -77.416
7188.083 0.198 -77.573 0.977 11.414 0.977 11.414 0.198 -77.573
7213.042 0.195 -77.73 0.977 11.242 0.977 11.242 0.195 -77.73
7238 0.192 -77.885 0.978 11.071 0.978 11.071 0.192 -77.885
7262.958 0.189 -78.039 0.978 10.9 0.978 10.9 0.189 -78.039
7287.917 0.186 -78.192 0.979 10.729 0.979 10.729 0.186 -78.192
7312.875 0.183 -78.344 0.98 10.559 0.98 10.559 0.183 -78.344
7337.833 0.18 -78.495 0.98 10.39 0.98 10.39 0.18 -78.495
7362.792 0.177 -78.645 0.981 10.221 0.981 10.221 0.177 -78.645
7387.75 0.175 -78.795 0.981 10.052 0.981 10.052 0.175 -78.795
7412.708 0.172 -78.942 0.982 9.884 0.982 9.884 0.172 -78.942
7437.667 0.169 -79.089 0.982 9.717 0.982 9.717 0.169 -79.089
7462.625 0.166 -79.235 0.983 9.55 0.983 9.55 0.166 -79.235
7487.583 0.163 -79.379 0.983 9.384 0.983 9.384 0.163 -79.379
7512.542 0.16 -79.523 0.984 9.218 0.984 9.218 0.16 -79.523
7537.5 0.157 -79.665 0.984 9.052 0.984 9.052 0.157 -79.665
7562.458 0.155 -79.805 0.984 8.888 0.984 8.888 0.155 -79.805
7587.417 0.152 -79.945 0.985 8.723 0.985 8.723 0.152 -79.945
7612.375 0.149 -80.083 0.985 8.559 0.985 8.559 0.149 -80.083
7637.333 0.146 -80.219 0.986 8.396 0.986 8.396 0.146 -80.219
7662.292 0.143 -80.355 0.986 8.233 0.986 8.233 0.143 -80.355
7687.25 0.14 -80.488 0.987 8.07 0.987 8.07 0.14 -80.488
7712.208 0.138 -80.62 0.987 7.908 0.987 7.908 0.138 -80.62
7737.167 0.135 -80.751 0.987 7.747 0.987 7.747 0.135 -80.751
7762.125 0.132 -80.88 0.988 7.586 0.988 7.586 0.132 -80.88
7787.083 0.129 -81.007 0.988 7.425 0.988 7.425 0.129 -81.007
7812.042 0.127 -81.132 0.988 7.265 0.988 7.265 0.127 -81.132
7837 0.124 -81.255 0.989 7.105 0.989 7.105 0.124 -81.255
7861.958 0.121 -81.376 0.989 6.946 0.989 6.946 0.121 -81.376
7886.917 0.118 -81.495 0.989 6.788 0.989 6.788 0.118 -81.495
7911.875 0.115 -81.612 0.99 6.629 0.99 6.629 0.115 -81.612
7936.833 0.113 -81.727 0.99 6.472 0.99 6.472 0.113 -81.727
7961.792 0.11 -81.839 0.99 6.314 0.99 6.314 0.11 -81.839
7986.75 0.107 -81.948 0.991 6.157 0.991 6.157 0.107 -81.948
8011.708 0.105 -82.055 0.991 6.001 0.991 6.001 0.105 -82.055
8036.667 0.102 -82.159 0.991 5.845 0.991 5.845 0.102 -82.159
8061.625 0.099 -82.259 0.992 5.69 0.992 5.69 0.099 -82.259
8086.583 0.097 -82.357 0.992 5.535 0.992 5.535 0.097 -82.357
8111.542 0.094 -82.45 0.992 5.38 0.992 5.38 0.094 -82.45
8136.5 0.091 -82.54 0.992 5.226 0.992 5.226 0.091 -82.54
8161.458 0.088 -82.626 0.993 5.072 0.993 5.072 0.088 -82.626
8186.417 0.086 -82.707 0.993 4.919 0.993 4.919 0.086 -82.707
