# MHZ S MA R 50

50 1 -1.26 0.022 88.736 0.022 88.736 1 -1.26
74.958 0.999 -1.888 0.033 88.106 0.033 88.106 0.999 -1.888
99.917 0.999 -2.517 0.044 87.476 0.044 87.476 0.999 -2.517
124.875 0.998 -3.145 0.055 86.846 0.055 86.846 0.998 -3.145
149.833 0.998 -3.772 0.066 86.217 0.066 86.217 0.998 -3.772
174.792 0.997 -4.399 0.077 85.588 0.077 85.588 0.997 -4.399
199.75 0.996 -5.025 0.088 84.961 0.088 84.961 0.996 -5.025
224.708 0.995 -5.65 0.098 84.333 0.098 84.333 0.995 -5.65
249.667 0.994 -6.275 0.109 83.707 0.109 83.707 0.994 -6.275
274.625 0.993 -6.898 0.12 83.082 0.12 83.082 0.993 -6.898
299.583 0.991 -7.52 0.131 82.458 0.131 82.458 0.991 -7.52
324.542 0.99 -8.142 0.142 81.835 0.142 81.835 0.99 -8.142
349.5 0.988 -8.761 0.152 81.213 0.152 81.213 0.988 -8.761
374.458 0.987 -9.38 0.163 80.593 0.163 80.593 0.987 -9.38
399.417 0.985 -9.997 0.174 79.974 0.174 79.974 0.985 -9.997
424.375 0.983 -10.612 0.184 79.357 0.184 79.357 0.983 -10.612
449.333 0.981 -11.226 0.195 78.742 0.195 78.742 0.981 -11.226
474.292 0.979 -11.838 0.205 78.128 0.205 78.128 0.979 -11.838
499.25 0.976 -12.448 0.216 77.516 0.216 77.516 0.976 -12.448
524.208 0.974 -13.057 0.226 76.905 0.226 76.905 0.974 -13.057
549.167 0.972 -13.663 0.236 76.297 0.236 76.297 0.972 -13.663
574.125 0.969 -14.267 0.246 75.691 0.246 75.691 0.969 -14.267
599.083 0.966 -14.87 0.257 75.087 0.257 75.087 0.966 -14.87
624.042 0.964 -15.47 0.267 74.485 0.267 74.485 0.964 -15.47
649 0.961 -16.067 0.277 73.885 0.277 73.885 0.961 -16.067
673.958 0.958 -16.663 0.287 73.288 0.287 73.288 0.958 -16.663
698.917 0.955 -17.256 0.297 72.693 0.297 72.693 0.955 -17.256
723.875 0.952 -17.846 0.306 72.101 0.306 72.101 0.952 -17.846
748.833 0.948 -18.434 0.316 71.511 0.316 71.511 0.948 -18.434
773.792 0.945 -19.02 0.326 70.924 0.326 70.924 0.945 -19.02
798.75 0.942 -19.602 0.335 70.339 0.335 70.339 0.942 -19.602
823.708 0.938 -20.182 0.345 69.758 0.345 69.758 0.938 -20.182
848.667 0.935 -20.759 0.354 69.179 0.354 69.179 0.935 -20.759
873.625 0.931 -21.334 0.364 68.602 0.364 68.602 0.931 -21.334
898.583 0.927 -21.905 0.373 68.029 0.373 68.029 0.927 -21.905
923.542 0.924 -22.474 0.382 67.458 0.382 67.458 0.924 -22.474
948.5 0.92 -23.039 0.391 66.891 0.391 66.891 0.92 -23.039
973.458 0.916 -23.602 0.4 66.327 0.4 66.327 0.916 -23.602
998.417 0.912 -24.162 0.409 65.765 0.409 65.765 0.912 -24.162
1023.375 0.908 -24.718 0.418 65.207 0.418 65.207 0.908 -24.718
1048.333 0.904 -25.271 0.427 64.652 0.427 64.652 0.904 -25.271
1073.292 0.9 -25.821 0.436 64.099 0.436 64.099 0.9 -25.821
1098.25 0.895 -26.368 0.444 63.551 0.444 63.551 0.895 -26.368
1123.208 0.891 -26.912 0.453 63.005 0.453 63.005 0.891 -26.912
1148.167 0.887 -27.453 0.461 62.463 0.461 62.463 0.887 -27.453
1173.125 0.882 -27.99 0.469 61.923 0.469 61.923 0.882 -27.99
1198.083 0.878 -28.524 0.478 61.388 0.478 61.388 0.878 -28.524
1223.042 0.873 -29.054 0.486 60.855 0.486 60.855 0.873 -29.054
1248 0.869 -29.581 0.494 60.326 0.494 60.326 0.869 -29.581
1272.958 0.864 -30.105 0.502 59.8 0.502 59.8 0.864 -30.105
1297.917 0.86 -30.625 0.509 59.278 0.509 59.278 0.86 -30.625
1322.875 0.855 -31.142 0.517 58.759 0.517 58.759 0.855 -31.142
1347.833 0.85 -31.656 0.525 58.243 0.525 58.243 0.85 -31.656
1372.792 0.846 -32.166 0.532 57.731 0.532 57.731 0.846 -32.166
1397.75 0.841 -32.673 0.54 57.222 0.54 57.222 0.841 -32.673
1422.708 0.836 -33.176 0.547 56.717 0.547 56.717 0.836 -33.176
1447.667 0.831 -33.676 0.554 56.215 0.554 56.215 0.831 -33.676
1472.625 0.826 -34.173 0.562 55.716 0.562 55.716 0.826 -34.173
1497.583 0.821 -34.666 0.569 55.221 0.569 55.221 0.821 -34.666
1522.542 0.816 -35.155 0.576 54.73 0.576 54.73 0.816 -35.155
1547.5 0.811 -35.641 0.583 54.242 0.583 54.242 0.811 -35.641
1572.458 0.807 -36.124 0.59 53.757 0.59 53.757 0.807 -36.124
1597.417 0.802 -36.603 0.596 53.276 0.596 53.276 0.802 -36.603
1622.375 0.797 -37.079 0.603 52.798 0.603 52.798 0.797 -37.079
1647.333 0.791 -37.551 0.609 52.323 0.609 52.323 0.791 -37.551
1672.292 0.786 -38.02 0.616 51.852 0.616 51.852 0.786 -38.02
1697.25 0.781 -38.485 0.622 51.385 0.622 51.385 0.781 -38.485
1722.208 0.776 -38.947 0.629 50.921 0.629 50.921 0.776 -38.947
1747.167 0.771 -39.406 0.635 50.46 0.635 50.46 0.771 -39.406
1772.125 0.766 -39.861 0.641 50.003 0.641 50.003 0.766 -39.861
1797.083 0.761 -40.312 0.647 49.549 0.647 49.549 0.761 -40.312
1822.042 0.756 -40.761 0.653 49.098 0.653 49.098 0.756 -40.761
1847 0.751 -41.206 0.659 48.651 0.659 48.651 0.751 -41.206
1871.958 0.746 -41.648 0.665 48.207 0.665 48.207 0.746 -41.648
1896.917 0.74 -42.086 0.67 47.766 0.67 47.766 0.74 -42.086
1921.875 0.735 -42.521 0.676 47.329 0.676 47.329 0.735 -42.521
1946.833 0.73 -42.953 0.681 46.895 0.681 46.895 0.73 -42.953
1971.792 0.725 -43.381 0.687 46.464 0.687 46.464 0.725 -43.381
1996.75 0.72 -43.806 0.692 46.037 0.692 46.037 0.72 -43.806
2021.708 0.715 -44.228 0.698 45.612 0.698 45.612 0.715 -44.228
2046.667 0.709 -44.647 0.703 45.191 0.703 45.191 0.709 -44.647
2071.625 0.704 -45.062 0.708 44.773 0.708 44.773 0.704 -45.062
2096.583 0.699 -45.475 0.713 44.359 0.713 44.359 0.699 -45.475
2121.542 0.694 -45.884 0.718 43.947 0.718 43.947 0.694 -45.884
2146.5 0.689 -46.29 0.723 43.539 0.723 43.539 0.689 -46.29
2171.458 0.684 -46.693 0.728 43.133 0.728 43.133 0.684 -46.693
2196.417 0.679 -47.093 0.732 42.731 0.732 42.731 0.679 -47.093
2221.375 0.673 -47.489 0.737 42.332 0.737 42.332 0.673 -47.489
2246.333 0.668 -47.883 0.742 41.936 0.742 41.936 0.668 -47.883
2271.292 0.663 -48.273 0.746 41.543 0.746 41.543 0.663 -48.273
2296.25 0.658 -48.661 0.751 41.153 0.751 41.153 0.658 -48.661
2321.208 0.653 -49.046 0.755 40.765 0.755 40.765 0.653 -49.046
2346.167 0.648 -49.427 0.76 40.381 0.76 40.381 0.648 -49.427
2371.125 0.643 -49.806 0.764 40 0.764 40 0.643 -49.806
2396.083 0.638 -50.182 0.768 39.622 0.768 39.622 0.638 -50.182
2421.042 0.633 -50.555 0.772 39.246 0.772 39.246 0.633 -50.555
2446 0.628 -50.925 0.776 38.873 0.776 38.873 0.628 -50.925
2470.958 0.623 -51.292 0.78 38.504 0.78 38.504 0.623 -51.292
2495.917 0.618 -51.656 0.784 38.137 0.784 38.137 0.618 -51.656
2520.875 0.613 -52.018 0.788 37.772 0.788 37.772 0.613 -52.018
2545.833 0.608 -52.376 0.792 37.411 0.792 37.411 0.608 -52.376
2570.792 0.603 -52.732 0.796 37.052 0.796 37.052 0.603 -52.732
2595.75 0.598 -53.086 0.8 36.696 0.8 36.696 0.598 -53.086
2620.708 0.593 -53.436 0.803 36.342 0.803 36.342 0.593 -53.436
2645.667 0.588 -53.784 0.807 35.992 0.807 35.992 0.588 -53.784
2670.625 0.583 -54.129 0.81 35.644 0.81 35.644 0.583 -54.129
2695.583 0.578 -54.472 0.814 35.298 0.814 35.298 0.578 -54.472
2720.542 0.573 -54.812 0.817 34.955 0.817 34.955 0.573 -54.812
2745.5 0.568 -55.149 0.821 34.615 0.821 34.615 0.568 -55.149
2770.458 0.563 -55.484 0.824 34.277 0.824 34.277 0.563 -55.484
2795.417 0.558 -55.817 0.827 33.941 0.827 33.941 0.558 -55.817
2820.375 0.554 -56.146 0.83 33.609 0.83 33.609 0.554 -56.146
2845.333 0.549 -56.474 0.834 33.278 0.834 33.278 0.549 -56.474
2870.292 0.544 -56.799 0.837 32.95 0.837 32.95 0.544 -56.799
2895.25 0.539 -57.121 0.84 32.624 0.84 32.624 0.539 -57.121
2920.208 0.534 -57.441 0.843 32.301 0.843 32.301 0.534 -57.441
2945.167 0.53 -57.759 0.846 31.98 0.846 31.98 0.53 -57.759
2970.125 0.525 -58.074 0.849 31.662 0.849 31.662 0.525 -58.074
2995.083 0.52 -58.387 0.852 31.345 0.852 31.345 0.52 -58.387
3020.042 0.516 -58.698 0.854 31.032 0.854 31.032 0.516 -58.698
3045 0.511 -59.006 0.857 30.72 0.857 30.72 0.511 -59.006
3069.958 0.506 -59.312 0.86 30.41 0.86 30.41 0.506 -59.312
3094.917 0.502 -59.616 0.863 30.103 0.863 30.103 0.502 -59.616
3119.875 0.497 -59.918 0.865 29.798 0.865 29.798 0.497 -59.918
3144.833 0.492 -60.217 0.868 29.495 0.868 29.495 0.492 -60.217
3169.792 0.488 -60.514 0.87 29.194 0.87 29.194 0.488 -60.514
3194.75 0.483 -60.809 0.873 28.896 0.873 28.896 0.483 -60.809
3219.708 0.479 -61.102 0.875 28.599 0.875 28.599 0.479 -61.102
3244.667 0.474 -61.393 0.878 28.305 0.878 28.305 0.474 -61.393
3269.625 0.47 -61.682 0.88 28.012 0.88 28.012 0.47 -61.682
3294.583 0.465 -61.968 0.883 27.722 0.883 27.722 0.465 -61.968
3319.542 0.461 -62.253 0.885 27.433 0.885 27.433 0.461 -62.253
3344.5 0.456 -62.535 0.887 27.147 0.887 27.147 0.456 -62.535
3369.458 0.452 -62.816 0.89 26.863 0.89 26.863 0.452 -62.816
3394.417 0.447 -63.094 0.892 26.58 0.892 26.58 0.447 -63.094
3419.375 0.443 -63.371 0.894 26.3 0.894 26.3 0.443 -63.371
3444.333 0.439 -63.645 0.896 26.021 0.896 26.021 0.439 -63.645
3469.292 0.434 -63.918 0.898 25.744 0.898 25.744 0.434 -63.918
3494.25 0.43 -64.189 0.9 25.469 0.9 25.469 0.43 -64.189
3519.208 0.426 -64.458 0.902 25.196 0.902 25.196 0.426 -64.458
3544.167 0.421 -64.725 0.904 24.925 0.904 24.925 0.421 -64.725
3569.125 0.417 -64.99 0.906 24.656 0.906 24.656 0.417 -64.99
3594.083 0.413 -65.253 0.908 24.388 0.908 24.388 0.413 -65.253
3619.042 0.409 -65.514 0.91 24.122 0.91 24.122 0.409 -65.514
3644 0.404 -65.774 0.912 23.858 0.912 23.858 0.404 -65.774
3668.958 0.4 -66.032 0.914 23.596 0.914 23.596 0.4 -66.032
3693.917 0.396 -66.288 0.916 23.335 0.916 23.335 0.396 -66.288
3718.875 0.392 -66.542 0.917 23.076 0.917 23.076 0.392 -66.542
3743.833 0.388 -66.794 0.919 22.818 0.919 22.818 0.388 -66.794
3768.792 0.384 -67.045 0.921 22.563 0.921 22.563 0.384 -67.045
3793.75 0.38 -67.294 0.923 22.309 0.923 22.309 0.38 -67.294
3818.708 0.376 -67.542 0.924 22.056 0.924 22.056 0.376 -67.542
3843.667 0.371 -67.787 0.926 21.806 0.926 21.806 0.371 -67.787
3868.625 0.367 -68.031 0.927 21.556 0.927 21.556 0.367 -68.031
3893.583 0.363 -68.274 0.929 21.309 0.929 21.309 0.363 -68.274
3918.542 0.359 -68.515 0.931 21.062 0.931 21.062 0.359 -68.515
3943.5 0.355 -68.754 0.932 20.818 0.932 20.818 0.355 -68.754
3968.458 0.351 -68.991 0.934 20.575 0.934 20.575 0.351 -68.991
3993.417 0.347 -69.227 0.935 20.333 0.935 20.333 0.347 -69.227
4018.375 0.344 -69.462 0.936 20.093 0.936 20.093 0.344 -69.462
4043.333 0.34 -69.694 0.938 19.855 0.938 19.855 0.34 -69.694
4068.292 0.336 -69.926 0.939 19.617 0.939 19.617 0.336 -69.926
4093.25 0.332 -70.155 0.941 19.382 0.941 19.382 0.332 -70.155
4118.208 0.328 -70.384 0.942 19.147 0.942 19.147 0.328 -70.384
4143.167 0.324 -70.61 0.943 18.914 0.943 18.914 0.324 -70.61
4168.125 0.32 -70.835 0.945 18.683 0.945 18.683 0.32 -70.835
4193.083 0.317 -71.059 0.946 18.453 0.946 18.453 0.317 -71.059
4218.042 0.313 -71.281 0.947 18.224 0.947 18.224 0.313 -71.281
4243 0.309 -71.502 0.948 17.997 0.948 17.997 0.309 -71.502
4267.958 0.305 -71.721 0.95 17.77 0.95 17.77 0.305 -71.721
4292.917 0.301 -71.939 0.951 17.546 0.951 17.546 0.301 -71.939
4317.875 0.298 -72.156 0.952 17.322 0.952 17.322 0.298 -72.156
4342.833 0.294 -72.371 0.953 17.1 0.953 17.1 0.294 -72.371
4367.792 0.29 -72.584 0.954 16.879 0.954 16.879 0.29 -72.584
4392.75 0.287 -72.796 0.955 16.66 0.955 16.66 0.287 -72.796
4417.708 0.283 -73.007 0.956 16.441 0.956 16.441 0.283 -73.007
4442.667 0.279 -73.216 0.957 16.224 0.957 16.224 0.279 -73.216
4467.625 0.276 -73.424 0.958 16.008 0.958 16.008 0.276 -73.424
4492.583 0.272 -73.631 0.96 15.793 0.96 15.793 0.272 -73.631
4517.542 0.269 -73.836 0.961 15.58 0.961 15.58 0.269 -73.836
4542.5 0.265 -74.04 0.962 15.368 0.962 15.368 0.265 -74.04
4567.458 0.261 -74.242 0.962 15.156 0.962 15.156 0.261 -74.242
4592.417 0.258 -74.443 0.963 14.946 0.963 14.946 0.258 -74.443
4617.375 0.254 -74.643 0.964 14.738 0.964 14.738 0.254 -74.643
4642.333 0.251 -74.842 0.965 14.53 0.965 14.53 0.251 -74.842
4667.292 0.247 -75.039 0.966 14.323 0.966 14.323 0.247 -75.039
4692.25 0.244 -75.235 0.967 14.118 0.967 14.118 0.244 -75.235
4717.208 0.24 -75.429 0.968 13.914 0.968 13.914 0.24 -75.429
4742.167 0.237 -75.622 0.969 13.71 0.969 13.71 0.237 -75.622
4767.125 0.234 -75.814 0.97 13.508 0.97 13.508 0.234 -75.814
4792.083 0.23 -76.004 0.97 13.307 0.97 13.307 0.23 -76.004
4817.042 0.227 -76.193 0.971 13.107 0.971 13.107 0.227 -76.193
4842 0.223 -76.381 0.972 12.908 0.972 12.908 0.223 -76.381
4866.958 0.22 -76.568 0.973 12.71 0.973 12.71 0.22 -76.568
4891.917 0.217 -76.753 0.973 12.513 0.973 12.513 0.217 -76.753
4916.875 0.213 -76.937 0.974 12.317 0.974 12.317 0.213 -76.937
4941.833 0.21 -77.119 0.975 12.122 0.975 12.122 0.21 -77.119
4966.792 0.207 -77.301 0.976 11.929 0.976 11.929 0.207 -77.301
4991.75 0.203 -77.48 0.976 11.736 0.976 11.736 0.203 -77.48
5016.708 0.2 -77.659 0.977 11.544 0.977 11.544 0.2 -77.659
5041.667 0.197 -77.836 0.978 11.353 0.978 11.353 0.197 -77.836
5066.625 0.194 -78.012 0.978 11.163 0.978 11.163 0.194 -78.012
5091.583 0.19 -78.186 0.979 10.974 0.979 10.974 0.19 -78.186
5116.542 0.187 -78.359 0.98 10.786 0.98 10.786 0.187 -78.359
5141.5 0.184 -78.531 0.98 10.598 0.98 10.598 0.184 -78.531
5166.458 0.181 -78.702 0.981 10.412 0.981 10.412 0.181 -78.702
5191.417 0.178 -78.87 0.981 10.227 0.981 10.227 0.178 -78.87
5216.375 0.174 -79.038 0.982 10.042 0.982 10.042 0.174 -79.038
5241.333 0.171 -79.204 0.982 9.859 0.982 9.859 0.171 -79.204
5266.292 0.168 -79.369 0.983 9.676 0.983 9.676 0.168 -79.369
5291.25 0.165 -79.532 0.983 9.495 0.983 9.495 0.165 -79.532
5316.208 0.162 -79.693 0.984 9.314 0.984 9.314 0.162 -79.693
5341.167 0.159 -79.854 0.985 9.134 0.985 9.134 0.159 -79.854
5366.125 0.156 -80.012 0.985 8.954 0.985 8.954 0.156 -80.012
5391.083 0.153 -80.169 0.985 8.776 0.985 8.776 0.153 -80.169
5416.042 0.15 -80.324 0.986 8.599 0.986 8.599 0.15 -80.324
5441 0.146 -80.478 0.986 8.422 0.986 8.422 0.146 -80.478
5465.958 0.143 -80.63 0.987 8.246 0.987 8.246 0.143 -80.63
5490.917 0.14 -80.781 0.987 8.071 0.987 8.071 0.14 -80.781
5515.875 0.137 -80.929 0.988 7.897 0.988 7.897 0.137 -80.929
5540.833 0.134 -81.076 0.988 7.723 0.988 7.723 0.134 -81.076
5565.792 0.131 -81.221 0.989 7.551 0.989 7.551 0.131 -81.221
5590.75 0.128 -81.364 0.989 7.379 0.989 7.379 0.128 -81.364
5615.708 0.126 -81.505 0.989 7.208 0.989 7.208 0.126 -81.505
5640.667 0.123 -81.643 0.99 7.038 0.99 7.038 0.123 -81.643
5665.625 0.12 -81.78 0.99 6.868 0.99 6.868 0.12 -81.78
5690.583 0.117 -81.914 0.99 6.699 0.99 6.699 0.117 -81.914
5715.542 0.114 -82.046 0.991 6.531 0.991 6.531 0.114 -82.046
5740.5 0.111 -82.176 0.991 6.364 0.991 6.364 0.111 -82.176
5765.458 0.108 -82.303 0.991 6.197 0.991 6.197 0.108 -82.303
5790.417 0.105 -82.427 0.992 6.032 0.992 6.032 0.105 -82.427
5815.375 0.102 -82.549 0.992 5.867 0.992 5.867 0.102 -82.549
5840.333 0.099 -82.667 0.992 5.702 0.992 5.702 0.099 -82.667
5865.292 0.097 -82.782 0.993 5.539 0.993 5.539 0.097 -82.782
5890.25 0.094 -82.894 0.993 5.376 0.993 5.376 0.094 -82.894
5915.208 0.091 -83.002 0.993 5.213 0.993 5.213 0.091 -83.002
5940.167 0.088 -83.106 0.993 5.052 0.993 5.052 0.088 -83.106
5965.125 0.085 -83.207 0.994 4.891 0.994 4.891 0.085 -83.207
5990.083 0.083 -83.302 0.994 4.731 0.994 4.731 0.083 -83.302
6015.042 0.08 -83.393 0.994 4.571 0.994 4.571 0.08 -83.393
6040 0.077 -83.478 0.994 4.412 0.994 4.412 0.077 -83.478
6064.958 0.074 -83.557 0.994 4.254 0.994 4.254 0.074 -83.557
6089.917 0.071 -83.631 0.995 4.097 0.995 4.097 0.071 -83.631
6114.875 0.069 -83.697 0.995 3.94 0.995 3.94 0.069 -83.697
6139.833 0.066 -83.755 0.995 3.783 0.995 3.783 0.066 -83.755
6164.792 0.063 -83.805 0.995 3.628 0.995 3.628 0.063 -83.805
6189.75 0.061 -83.845 0.995 3.473 0.995 3.473 0.061 -83.845
6214.708 0.058 -83.875 0.995 3.319 0.995 3.319 0.058 -83.875
6239.667 0.055 -83.892 0.996 3.165 0.996 3.165 0.055 -83.892
6264.625 0.053 -83.896 0.996 3.012 0.996 3.012 0.053 -83.896
6289.583 0.05 -83.883 0.996 2.859 0.996 2.859 0.05 -83.883
6314.542 0.047 -83.853 0.996 2.707 0.996 2.707 0.047 -83.853
6339.5 0.045 -83.801 0.996 2.556 0.996 2.556 0.045 -83.801
6364.458 0.042 -83.723 0.996 2.405 0.996 2.405 0.042 -83.723
6389.417 0.039 -83.616 0.996 2.255 0.996 2.255 0.039 -83.616
6414.375 0.037 -83.474 0.996 2.106 0.996 2.106 0.037 -83.474
6439.333 0.034 -83.287 0.997 1.957 0.997 1.957 0.034 -83.287
6464.292 0.032 -83.047 0.997 1.809 0.997 1.809 0.032 -83.047
6489.25 0.029 -82.74 0.997 1.661 0.997 1.661 0.029 -82.74
6514.208 0.027 -82.346 0.997 1.514 0.997 1.514 0.027 -82.346
6539.167 0.024 -81.84 0.997 1.367 0.997 1.367 0.024 -81.84
6564.125 0.021 -81.182 0.997 1.221 0.997 1.221 0.021 -81.182
6589.083 0.019 -80.314 0.997 1.075 0.997 1.075 0.019 -80.314
6614.042 0.016 -79.143 0.997 0.931 0.997 0.931 0.016 -79.143
6639 0.014 -77.51 0.997 0.786 0.997 0.786 0.014 -77.51
6663.958 0.012 -75.129 0.997 0.642 0.997 0.642 0.012 -75.129
6688.917 9.161e-3 -71.424 0.997 0.499 0.997 0.499 9.161e-3 -71.424
6713.875 6.835e-3 -65.071 0.997 0.356 0.997 0.356 6.835e-3 -65.071
6738.833 4.693e-3 -52.503 0.997 0.214 0.997 0.214 4.693e-3 -52.503
6763.792 3.109e-3 -23.833 0.997 0.072 0.997 0.072 3.109e-3 -23.833
6788.75 3.087e-3 22.896 0.997 -0.069 0.997 -0.069 3.087e-3 22.896
6813.708 4.634e-3 51.956 0.997 -0.21 0.997 -0.21 4.634e-3 51.956
6838.667 6.736e-3 64.689 0.997 -0.35 0.997 -0.35 6.736e-3 64.689
6863.625 9.004e-3 71.109 0.997 -0.49 0.997 -0.49 9.004e-3 71.109
6888.583 0.011 74.848 0.997 -0.629 0.997 -0.629 0.011 74.848
6913.542 0.014 77.25 0.997 -0.767 0.997 -0.767 0.014 77.25
6938.5 0.016 78.899 0.997 -0.906 0.997 -0.906 0.016 78.899
6963.458 0.018 80.084 0.997 -1.043 0.997 -1.043 0.018 80.084
6988.417 0.021 80.965 0.997 -1.18 0.997 -1.18 0.021 80.965
7013.375 0.023 81.635 0.997 -1.317 0.997 -1.317 0.023 81.635
7038.333 0.026 82.154 0.997 -1.453 0.997 -1.453 0.026 82.154
7063.292 0.028 82.56 0.997 -1.589 0.997 -1.589 0.028 82.56
7088.25 0.03 82.881 0.997 -1.724 0.997 -1.724 0.03 82.881
7113.208 0.033 83.136 0.997 -1.859 0.997 -1.859 0.033 83.136
7138.167 0.035 83.337 0.997 -1.993 0.997 -1.993 0.035 83.337
7163.125 0.037 83.496 0.996 -2.127 0.996 -2.127 0.037 83.496
7188.083 0.04 83.621 0.996 -2.26 0.996 -2.26 0.04 83.621
7213.042 0.042 83.716 0.996 -2.393 0.996 -2.393 0.042 83.716
7238 0.044 83.787 0.996 -2.526 0.996 -2.526 0.044 83.787
7262.958 0.046 83.838 0.996 -2.658 0.996 -2.658 0.046 83.838
7287.917 0.049 83.872 0.996 -2.789 0.996 -2.789 0.049 83.872
7312.875 0.051 83.89 0.996 -2.92 0.996 -2.92 0.051 83.89
7337.833 0.053 83.896 0.996 -3.051 0.996 -3.051 0.053 83.896
7362.792 0.056 83.891 0.996 -3.181 0.996 -3.181 0.056 83.891
7387.75 0.058 83.876 0.995 -3.311 0.995 -3.311 0.058 83.876
7412.708 0.06 83.852 0.995 -3.441 0.995 -3.441 0.06 83.852
7437.667 0.062 83.821 0.995 -3.569 0.995 -3.569 0.062 83.821
7462.625 0.065 83.784 0.995 -3.698 0.995 -3.698 0.065 83.784
7487.583 0.067 83.74 0.995 -3.826 0.995 -3.826 0.067 83.74
7512.542 0.069 83.691 0.995 -3.954 0.995 -3.954 0.069 83.691
7537.5 0.071 83.638 0.995 -4.081 0.995 -4.081 0.071 83.638
7562.458 0.073 83.58 0.994 -4.208 0.994 -4.208 0.073 83.58
7587.417 0.076 83.518 0.994 -4.334 0.994 -4.334 0.076 83.518
7612.375 0.078 83.453 0.994 -4.46 0.994 -4.46 0.078 83.453
7637.333 0.08 83.385 0.994 -4.586 0.994 -4.586 0.08 83.385
7662.292 0.082 83.314 0.994 -4.711 0.994 -4.711 0.082 83.314
7687.25 0.084 83.24 0.994 -4.836 0.994 -4.836 0.084 83.24
7712.208 0.087 83.164 0.993 -4.96 0.993 -4.96 0.087 83.164
7737.167 0.089 83.086 0.993 -5.084 0.993 -5.084 0.089 83.086
7762.125 0.091 83.006 0.993 -5.208 0.993 -5.208 0.091 83.006
7787.083 0.093 82.924 0.993 -5.331 0.993 -5.331 0.093 82.924
7812.042 0.095 82.841 0.993 -5.454 0.993 -5.454 0.095 82.841
7837 0.097 82.756 0.992 -5.576 0.992 -5.576 0.097 82.756
7861.958 0.099 82.67 0.992 -5.698 0.992 -5.698 0.099 82.67
7886.917 0.101 82.583 0.992 -5.82 0.992 -5.82 0.101 82.583
7911.875 0.104 82.494 0.992 -5.941 0.992 -5.941 0.104 82.494
7936.833 0.106 82.405 0.992 -6.062 0.992 -6.062 0.106 82.405
7961.792 0.108 82.314 0.991 -6.182 0.991 -6.182 0.108 82.314
7986.75 0.11 82.223 0.991 -6.302 0.991 -6.302 0.11 82.223
8011.708 0.112 82.131 0.991 -6.422 0.991 -6.422 0.112 82.131
8036.667 0.114 82.038 0.991 -6.542 0.991 -6.542 0.114 82.038
8061.625 0.116 81.945 0.99 -6.661 0.99 -6.661 0.116 81.945
8086.583 0.118 81.851 0.99 -6.779 0.99 -6.779 0.118 81.851
8111.542 0.12 81.756 0.99 -6.898 0.99 -6.898 0.12 81.756
8136.5 0.122 81.661 0.99 -7.016 0.99 -7.016 0.122 81.661
8161.458 0.124 81.566 0.989 -7.133 0.989 -7.133 0.124 81.566
8186.417 0.126 81.47 0.989 -7.251 0.989 -7.251 0.126 81.47
