# MHZ S MA R 50

50 1 -0.45 7.854e-3 89.548 7.854e-3 89.548 1 -0.45
74.958 1 -0.675 0.012 89.322 0.012 89.322 1 -0.675
99.917 1 -0.899 0.016 89.097 0.016 89.097 1 -0.899
124.875 1 -1.124 0.02 88.871 0.02 88.871 1 -1.124
149.833 1 -1.348 0.024 88.646 0.024 88.646 1 -1.348
174.792 1 -1.573 0.027 88.42 0.027 88.42 1 -1.573
199.75 1 -1.798 0.031 88.194 0.031 88.194 1 -1.798
224.708 0.999 -2.022 0.035 87.969 0.035 87.969 0.999 -2.022
249.667 0.999 -2.247 0.039 87.743 0.039 87.743 0.999 -2.247
274.625 0.999 -2.472 0.043 87.518 0.043 87.518 0.999 -2.472
299.583 0.999 -2.696 0.047 87.292 0.047 87.292 0.999 -2.696
324.542 0.999 -2.921 0.051 87.067 0.051 87.067 0.999 -2.921
349.5 0.998 -3.145 0.055 86.841 0.055 86.841 0.998 -3.145
374.458 0.998 -3.37 0.059 86.616 0.059 86.616 0.998 -3.37
399.417 0.998 -3.594 0.063 86.39 0.063 86.39 0.998 -3.594
424.375 0.998 -3.819 0.067 86.164 0.067 86.164 0.998 -3.819
449.333 0.997 -4.043 0.071 85.939 0.071 85.939 0.997 -4.043
474.292 0.997 -4.268 0.074 85.713 0.074 85.713 0.997 -4.268
499.25 0.997 -4.493 0.078 85.488 0.078 85.488 0.997 -4.493
524.208 0.997 -4.717 0.082 85.262 0.082 85.262 0.997 -4.717
549.167 0.996 -4.942 0.086 85.037 0.086 85.037 0.996 -4.942
574.125 0.996 -5.166 0.09 84.812 0.09 84.812 0.996 -5.166
599.083 0.996 -5.39 0.094 84.586 0.094 84.586 0.996 -5.39
624.042 0.995 -5.615 0.098 84.361 0.098 84.361 0.995 -5.615
649 0.995 -5.839 0.102 84.135 0.102 84.135 0.995 -5.839
673.958 0.994 -6.064 0.106 83.91 0.106 83.91 0.994 -6.064
698.917 0.994 -6.288 0.11 83.684 0.11 83.684 0.994 -6.288
723.875 0.993 -6.513 0.113 83.459 0.113 83.459 0.993 -6.513
748.833 0.993 -6.737 0.117 83.234 0.117 83.234 0.993 -6.737
773.792 0.993 -6.961 0.121 83.008 0.121 83.008 0.993 -6.961
798.75 0.992 -7.186 0.125 82.783 0.125 82.783 0.992 -7.186
823.708 0.992 -7.41 0.129 82.558 0.129 82.558 0.992 -7.41
848.667 0.991 -7.634 0.133 82.332 0.133 82.332 0.991 -7.634
873.625 0.991 -7.859 0.137 82.107 0.137 82.107 0.991 -7.859
898.583 0.99 -8.083 0.141 81.882 0.141 81.882 0.99 -8.083
923.542 0.989 -8.307 0.144 81.657 0.144 81.657 0.989 -8.307
948.5 0.989 -8.531 0.148 81.431 0.148 81.431 0.989 -8.531
973.458 0.988 -8.756 0.152 81.206 0.152 81.206 0.988 -8.756
998.417 0.988 -8.98 0.156 80.981 0.156 80.981 0.988 -8.98
1023.375 0.987 -9.204 0.16 80.756 0.16 80.756 0.987 -9.204
1048.333 0.986 -9.428 0.164 80.531 0.164 80.531 0.986 -9.428
1073.292 0.986 -9.652 0.168 80.306 0.168 80.306 0.986 -9.652
1098.25 0.985 -9.876 0.172 80.081 0.172 80.081 0.985 -9.876
1123.208 0.984 -10.1 0.175 79.855 0.175 79.855 0.984 -10.1
1148.167 0.984 -10.324 0.179 79.63 0.179 79.63 0.984 -10.324
1173.125 0.983 -10.548 0.183 79.405 0.183 79.405 0.983 -10.548
1198.083 0.982 -10.772 0.187 79.18 0.187 79.18 0.982 -10.772
1223.042 0.981 -10.996 0.191 78.955 0.191 78.955 0.981 -10.996
1248 0.981 -11.22 0.195 78.731 0.195 78.731 0.981 -11.22
1272.958 0.98 -11.444 0.198 78.506 0.198 78.506 0.98 -11.444
1297.917 0.979 -11.668 0.202 78.281 0.202 78.281 0.979 -11.668
1322.875 0.978 -11.892 0.206 78.056 0.206 78.056 0.978 -11.892
1347.833 0.978 -12.116 0.21 77.831 0.21 77.831 0.978 -12.116
1372.792 0.977 -12.339 0.214 77.606 0.214 77.606 0.977 -12.339
1397.75 0.976 -12.563 0.218 77.382 0.218 77.382 0.976 -12.563
1422.708 0.975 -12.787 0.221 77.157 0.221 77.157 0.975 -12.787
1447.667 0.974 -13.01 0.225 76.932 0.225 76.932 0.974 -13.01
1472.625 0.973 -13.234 0.229 76.708 0.229 76.708 0.973 -13.234
1497.583 0.972 -13.458 0.233 76.483 0.233 76.483 0.972 -13.458
1522.542 0.971 -13.681 0.237 76.258 0.237 76.258 0.971 -13.681
1547.5 0.97 -13.905 0.24 76.034 0.24 76.034 0.97 -13.905
1572.458 0.969 -14.128 0.244 75.809 0.244 75.809 0.969 -14.128
1597.417 0.969 -14.352 0.248 75.585 0.248 75.585 0.969 -14.352
1622.375 0.968 -14.575 0.252 75.36 0.252 75.36 0.968 -14.575
1647.333 0.967 -14.798 0.255 75.136 0.255 75.136 0.967 -14.798
1672.292 0.966 -15.022 0.259 74.912 0.259 74.912 0.966 -15.022
1697.25 0.964 -15.245 0.263 74.687 0.263 74.687 0.964 -15.245
1722.208 0.963 -15.468 0.267 74.463 0.267 74.463 0.963 -15.468
1747.167 0.962 -15.691 0.27 74.239 0.27 74.239 0.962 -15.691
1772.125 0.961 -15.915 0.274 74.015 0.274 74.015 0.961 -15.915
1797.083 0.96 -16.138 0.278 73.79 0.278 73.79 0.96 -16.138
1822.042 0.959 -16.361 0.282 73.566 0.282 73.566 0.959 -16.361
1847 0.958 -16.584 0.285 73.342 0.285 73.342 0.958 -16.584
1871.958 0.957 -16.807 0.289 73.118 0.289 73.118 0.957 -16.807
1896.917 0.956 -17.03 0.293 72.894 0.293 72.894 0.956 -17.03
1921.875 0.955 -17.253 0.297 72.67 0.297 72.67 0.955 -17.253
1946.833 0.953 -17.475 0.3 72.446 0.3 72.446 0.953 -17.475
1971.792 0.952 -17.698 0.304 72.223 0.304 72.223 0.952 -17.698
1996.75 0.951 -17.921 0.308 71.999 0.308 71.999 0.951 -17.921
2021.708 0.95 -18.144 0.311 71.775 0.311 71.775 0.95 -18.144
2046.667 0.949 -18.366 0.315 71.551 0.315 71.551 0.949 -18.366
2071.625 0.947 -18.589 0.319 71.328 0.319 71.328 0.947 -18.589
2096.583 0.946 -18.811 0.322 71.104 0.322 71.104 0.946 -18.811
2121.542 0.945 -19.034 0.326 70.881 0.326 70.881 0.945 -19.034
2146.5 0.944 -19.256 0.33 70.657 0.33 70.657 0.944 -19.256
2171.458 0.942 -19.478 0.333 70.434 0.333 70.434 0.942 -19.478
2196.417 0.941 -19.701 0.337 70.21 0.337 70.21 0.941 -19.701
2221.375 0.94 -19.923 0.341 69.987 0.341 69.987 0.94 -19.923
2246.333 0.938 -20.145 0.344 69.764 0.344 69.764 0.938 -20.145
2271.292 0.937 -20.367 0.348 69.541 0.348 69.541 0.937 -20.367
2296.25 0.936 -20.589 0.352 69.317 0.352 69.317 0.936 -20.589
2321.208 0.934 -20.811 0.355 69.094 0.355 69.094 0.934 -20.811
2346.167 0.933 -21.033 0.359 68.871 0.359 68.871 0.933 -21.033
2371.125 0.931 -21.255 0.363 68.648 0.363 68.648 0.931 -21.255
2396.083 0.93 -21.477 0.366 68.425 0.366 68.425 0.93 -21.477
2421.042 0.929 -21.699 0.37 68.203 0.37 68.203 0.929 -21.699
2446 0.927 -21.92 0.373 67.98 0.373 67.98 0.927 -21.92
2470.958 0.926 -22.142 0.377 67.757 0.377 67.757 0.926 -22.142
2495.917 0.924 -22.363 0.38 67.534 0.38 67.534 0.924 -22.363
2520.875 0.923 -22.585 0.384 67.312 0.384 67.312 0.923 -22.585
2545.833 0.921 -22.806 0.388 67.089 0.388 67.089 0.921 -22.806
2570.792 0.92 -23.028 0.391 66.867 0.391 66.867 0.92 -23.028
2595.75 0.918 -23.249 0.395 66.644 0.395 66.644 0.918 -23.249
2620.708 0.917 -23.47 0.398 66.422 0.398 66.422 0.917 -23.47
2645.667 0.915 -23.691 0.402 66.2 0.402 66.2 0.915 -23.691
2670.625 0.913 -23.912 0.405 65.978 0.405 65.978 0.913 -23.912
2695.583 0.912 -24.133 0.409 65.756 0.409 65.756 0.912 -24.133
2720.542 0.91 -24.354 0.412 65.534 0.412 65.534 0.91 -24.354
2745.5 0.909 -24.575 0.416 65.312 0.416 65.312 0.909 -24.575
2770.458 0.907 -24.796 0.419 65.09 0.419 65.09 0.907 -24.796
2795.417 0.905 -25.016 0.423 64.868 0.423 64.868 0.905 -25.016
2820.375 0.904 -25.237 0.426 64.646 0.426 64.646 0.904 -25.237
2845.333 0.902 -25.457 0.43 64.425 0.43 64.425 0.902 -25.457
2870.292 0.9 -25.678 0.433 64.203 0.433 64.203 0.9 -25.678
2895.25 0.899 -25.898 0.437 63.981 0.437 63.981 0.899 -25.898
2920.208 0.897 -26.118 0.44 63.76 0.44 63.76 0.897 -26.118
2945.167 0.895 -26.338 0.444 63.539 0.444 63.539 0.895 -26.338
2970.125 0.894 -26.558 0.447 63.317 0.447 63.317 0.894 -26.558
2995.083 0.892 -26.778 0.451 63.096 0.451 63.096 0.892 -26.778
3020.042 0.89 -26.998 0.454 62.875 0.454 62.875 0.89 -26.998
3045 0.888 -27.218 0.457 62.654 0.457 62.654 0.888 -27.218
3069.958 0.886 -27.438 0.461 62.433 0.461 62.433 0.886 -27.438
3094.917 0.885 -27.657 0.464 62.212 0.464 62.212 0.885 -27.657
3119.875 0.883 -27.877 0.468 61.992 0.468 61.992 0.883 -27.877
3144.833 0.881 -28.096 0.471 61.771 0.471 61.771 0.881 -28.096
3169.792 0.879 -28.316 0.474 61.551 0.474 61.551 0.879 -28.316
3194.75 0.877 -28.535 0.478 61.33 0.478 61.33 0.877 -28.535
3219.708 0.876 -28.754 0.481 61.11 0.481 61.11 0.876 -28.754
3244.667 0.874 -28.973 0.484 60.889 0.484 60.889 0.874 -28.973
3269.625 0.872 -29.192 0.488 60.669 0.488 60.669 0.872 -29.192
3294.583 0.87 -29.411 0.491 60.449 0.491 60.449 0.87 -29.411
3319.542 0.868 -29.629 0.494 60.229 0.494 60.229 0.868 -29.629
3344.5 0.866 -29.848 0.498 60.009 0.498 60.009 0.866 -29.848
3369.458 0.864 -30.067 0.501 59.789 0.501 59.789 0.864 -30.067
3394.417 0.862 -30.285 0.504 59.57 0.504 59.57 0.862 -30.285
3419.375 0.86 -30.503 0.508 59.35 0.508 59.35 0.86 -30.503
3444.333 0.858 -30.722 0.511 59.131 0.511 59.131 0.858 -30.722
3469.292 0.856 -30.94 0.514 58.911 0.514 58.911 0.856 -30.94
3494.25 0.854 -31.158 0.517 58.692 0.517 58.692 0.854 -31.158
3519.208 0.852 -31.376 0.521 58.473 0.521 58.473 0.852 -31.376
3544.167 0.85 -31.593 0.524 58.254 0.524 58.254 0.85 -31.593
3569.125 0.848 -31.811 0.527 58.035 0.527 58.035 0.848 -31.811
3594.083 0.846 -32.029 0.53 57.816 0.53 57.816 0.846 -32.029
3619.042 0.844 -32.246 0.534 57.597 0.534 57.597 0.844 -32.246
3644 0.842 -32.463 0.537 57.379 0.537 57.379 0.842 -32.463
3668.958 0.84 -32.68 0.54 57.16 0.54 57.16 0.84 -32.68
3693.917 0.838 -32.898 0.543 56.942 0.543 56.942 0.838 -32.898
3718.875 0.836 -33.115 0.546 56.723 0.546 56.723 0.836 -33.115
3743.833 0.834 -33.331 0.549 56.505 0.549 56.505 0.834 -33.331
3768.792 0.832 -33.548 0.553 56.287 0.553 56.287 0.832 -33.548
3793.75 0.83 -33.765 0.556 56.069 0.556 56.069 0.83 -33.765
3818.708 0.828 -33.981 0.559 55.851 0.559 55.851 0.828 -33.981
3843.667 0.825 -34.197 0.562 55.634 0.562 55.634 0.825 -34.197
3868.625 0.823 -34.414 0.565 55.416 0.565 55.416 0.823 -34.414
3893.583 0.821 -34.63 0.568 55.198 0.568 55.198 0.821 -34.63
3918.542 0.819 -34.846 0.571 54.981 0.571 54.981 0.819 -34.846
3943.5 0.817 -35.062 0.574 54.764 0.574 54.764 0.817 -35.062
3968.458 0.815 -35.277 0.578 54.547 0.578 54.547 0.815 -35.277
3993.417 0.812 -35.493 0.581 54.33 0.581 54.33 0.812 -35.493
4018.375 0.81 -35.708 0.584 54.113 0.584 54.113 0.81 -35.708
4043.333 0.808 -35.923 0.587 53.896 0.587 53.896 0.808 -35.923
4068.292 0.806 -36.139 0.59 53.68 0.59 53.68 0.806 -36.139
4093.25 0.803 -36.354 0.593 53.463 0.593 53.463 0.803 -36.354
4118.208 0.801 -36.569 0.596 53.247 0.596 53.247 0.801 -36.569
4143.167 0.799 -36.783 0.599 53.031 0.599 53.031 0.799 -36.783
4168.125 0.797 -36.998 0.602 52.815 0.602 52.815 0.797 -36.998
4193.083 0.794 -37.212 0.605 52.599 0.605 52.599 0.794 -37.212
4218.042 0.792 -37.427 0.608 52.383 0.608 52.383 0.792 -37.427
4243 0.79 -37.641 0.611 52.167 0.611 52.167 0.79 -37.641
4267.958 0.787 -37.855 0.614 51.952 0.614 51.952 0.787 -37.855
4292.917 0.785 -38.069 0.617 51.737 0.617 51.737 0.785 -38.069
4317.875 0.783 -38.282 0.62 51.521 0.62 51.521 0.783 -38.282
4342.833 0.781 -38.496 0.622 51.306 0.622 51.306 0.781 -38.496
4367.792 0.778 -38.709 0.625 51.091 0.625 51.091 0.778 -38.709
4392.75 0.776 -38.922 0.628 50.877 0.628 50.877 0.776 -38.922
4417.708 0.773 -39.136 0.631 50.662 0.631 50.662 0.773 -39.136
4442.667 0.771 -39.349 0.634 50.447 0.634 50.447 0.771 -39.349
4467.625 0.769 -39.561 0.637 50.233 0.637 50.233 0.769 -39.561
4492.583 0.766 -39.774 0.64 50.019 0.64 50.019 0.766 -39.774
4517.542 0.764 -39.986 0.643 49.805 0.643 49.805 0.764 -39.986
4542.5 0.761 -40.199 0.645 49.591 0.645 49.591 0.761 -40.199
4567.458 0.759 -40.411 0.648 49.377 0.648 49.377 0.759 -40.411
4592.417 0.757 -40.623 0.651 49.164 0.651 49.164 0.757 -40.623
4617.375 0.754 -40.835 0.654 48.95 0.654 48.95 0.754 -40.835
4642.333 0.752 -41.046 0.657 48.737 0.657 48.737 0.752 -41.046
4667.292 0.749 -41.258 0.659 48.524 0.659 48.524 0.749 -41.258
4692.25 0.747 -41.469 0.662 48.311 0.662 48.311 0.747 -41.469
4717.208 0.744 -41.68 0.665 48.098 0.665 48.098 0.744 -41.68
4742.167 0.742 -41.891 0.668 47.886 0.668 47.886 0.742 -41.891
4767.125 0.739 -42.102 0.67 47.673 0.67 47.673 0.739 -42.102
4792.083 0.737 -42.312 0.673 47.461 0.673 47.461 0.737 -42.312
4817.042 0.734 -42.523 0.676 47.249 0.676 47.249 0.734 -42.523
4842 0.732 -42.733 0.679 47.037 0.679 47.037 0.732 -42.733
4866.958 0.729 -42.943 0.681 46.825 0.681 46.825 0.729 -42.943
4891.917 0.727 -43.153 0.684 46.613 0.684 46.613 0.727 -43.153
4916.875 0.724 -43.363 0.687 46.402 0.687 46.402 0.724 -43.363
4941.833 0.722 -43.572 0.689 46.191 0.689 46.191 0.722 -43.572
4966.792 0.719 -43.782 0.692 45.98 0.692 45.98 0.719 -43.782
4991.75 0.717 -43.991 0.695 45.769 0.695 45.769 0.717 -43.991
5016.708 0.714 -44.2 0.697 45.558 0.697 45.558 0.714 -44.2
5041.667 0.711 -44.409 0.7 45.347 0.7 45.347 0.711 -44.409
5066.625 0.709 -44.617 0.702 45.137 0.702 45.137 0.709 -44.617
5091.583 0.706 -44.826 0.705 44.927 0.705 44.927 0.706 -44.826
5116.542 0.704 -45.034 0.708 44.717 0.708 44.717 0.704 -45.034
5141.5 0.701 -45.242 0.71 44.507 0.71 44.507 0.701 -45.242
5166.458 0.698 -45.45 0.713 44.297 0.713 44.297 0.698 -45.45
5191.417 0.696 -45.657 0.715 44.088 0.715 44.088 0.696 -45.657
5216.375 0.693 -45.865 0.718 43.878 0.718 43.878 0.693 -45.865
5241.333 0.691 -46.072 0.72 43.669 0.72 43.669 0.691 -46.072
5266.292 0.688 -46.279 0.723 43.46 0.723 43.46 0.688 -46.279
5291.25 0.685 -46.486 0.725 43.252 0.725 43.252 0.685 -46.486
5316.208 0.683 -46.692 0.728 43.043 0.728 43.043 0.683 -46.692
5341.167 0.68 -46.899 0.73 42.835 0.73 42.835 0.68 -46.899
5366.125 0.677 -47.105 0.733 42.627 0.733 42.627 0.677 -47.105
5391.083 0.675 -47.311 0.735 42.419 0.735 42.419 0.675 -47.311
5416.042 0.672 -47.517 0.737 42.211 0.737 42.211 0.672 -47.517
5441 0.669 -47.722 0.74 42.003 0.74 42.003 0.669 -47.722
5465.958 0.666 -47.928 0.742 41.796 0.742 41.796 0.666 -47.928
5490.917 0.664 -48.133 0.745 41.589 0.745 41.589 0.664 -48.133
5515.875 0.661 -48.338 0.747 41.382 0.747 41.382 0.661 -48.338
5540.833 0.658 -48.542 0.749 41.175 0.749 41.175 0.658 -48.542
5565.792 0.656 -48.747 0.752 40.969 0.752 40.969 0.656 -48.747
5590.75 0.653 -48.951 0.754 40.762 0.754 40.762 0.653 -48.951
5615.708 0.65 -49.155 0.756 40.556 0.756 40.556 0.65 -49.155
5640.667 0.647 -49.359 0.759 40.35 0.759 40.35 0.647 -49.359
5665.625 0.645 -49.563 0.761 40.144 0.761 40.144 0.645 -49.563
5690.583 0.642 -49.766 0.763 39.939 0.763 39.939 0.642 -49.766
5715.542 0.639 -49.969 0.766 39.734 0.766 39.734 0.639 -49.969
5740.5 0.636 -50.172 0.768 39.528 0.768 39.528 0.636 -50.172
5765.458 0.634 -50.375 0.77 39.324 0.77 39.324 0.634 -50.375
5790.417 0.631 -50.577 0.772 39.119 0.772 39.119 0.631 -50.577
5815.375 0.628 -50.78 0.775 38.914 0.775 38.914 0.628 -50.78
5840.333 0.625 -50.982 0.777 38.71 0.777 38.71 0.625 -50.982
5865.292 0.623 -51.183 0.779 38.506 0.779 38.506 0.623 -51.183
5890.25 0.62 -51.385 0.781 38.302 0.781 38.302 0.62 -51.385
5915.208 0.617 -51.586 0.784 38.099 0.784 38.099 0.617 -51.586
5940.167 0.614 -51.787 0.786 37.895 0.786 37.895 0.614 -51.787
5965.125 0.611 -51.988 0.788 37.692 0.788 37.692 0.611 -51.988
5990.083 0.609 -52.189 0.79 37.489 0.79 37.489 0.609 -52.189
6015.042 0.606 -52.389 0.792 37.287 0.792 37.287 0.606 -52.389
6040 0.603 -52.589 0.794 37.084 0.794 37.084 0.603 -52.589
6064.958 0.6 -52.789 0.796 36.882 0.796 36.882 0.6 -52.789
6089.917 0.597 -52.988 0.799 36.68 0.799 36.68 0.597 -52.988
6114.875 0.595 -53.188 0.801 36.478 0.801 36.478 0.595 -53.188
6139.833 0.592 -53.387 0.803 36.276 0.803 36.276 0.592 -53.387
6164.792 0.589 -53.586 0.805 36.075 0.805 36.075 0.589 -53.586
6189.75 0.586 -53.784 0.807 35.874 0.807 35.874 0.586 -53.784
6214.708 0.583 -53.983 0.809 35.673 0.809 35.673 0.583 -53.983
6239.667 0.58 -54.181 0.811 35.473 0.811 35.473 0.58 -54.181
6264.625 0.577 -54.379 0.813 35.272 0.813 35.272 0.577 -54.379
6289.583 0.575 -54.576 0.815 35.072 0.815 35.072 0.575 -54.576
6314.542 0.572 -54.773 0.817 34.872 0.817 34.872 0.572 -54.773
6339.5 0.569 -54.97 0.819 34.672 0.819 34.672 0.569 -54.97
6364.458 0.566 -55.167 0.821 34.473 0.821 34.473 0.566 -55.167
6389.417 0.563 -55.364 0.823 34.274 0.823 34.274 0.563 -55.364
6414.375 0.56 -55.56 0.825 34.075 0.825 34.075 0.56 -55.56
6439.333 0.557 -55.756 0.827 33.876 0.827 33.876 0.557 -55.756
6464.292 0.555 -55.952 0.829 33.678 0.829 33.678 0.555 -55.952
6489.25 0.552 -56.147 0.83 33.479 0.83 33.479 0.552 -56.147
6514.208 0.549 -56.342 0.832 33.281 0.832 33.281 0.549 -56.342
6539.167 0.546 -56.537 0.834 33.084 0.834 33.084 0.546 -56.537
6564.125 0.543 -56.732 0.836 32.886 0.836 32.886 0.543 -56.732
6589.083 0.54 -56.926 0.838 32.689 0.838 32.689 0.54 -56.926
6614.042 0.537 -57.12 0.84 32.492 0.84 32.492 0.537 -57.12
6639 0.534 -57.314 0.842 32.295 0.842 32.295 0.534 -57.314
6663.958 0.531 -57.508 0.843 32.099 0.843 32.099 0.531 -57.508
6688.917 0.528 -57.701 0.845 31.902 0.845 31.902 0.528 -57.701
6713.875 0.526 -57.894 0.847 31.706 0.847 31.706 0.526 -57.894
6738.833 0.523 -58.086 0.849 31.511 0.849 31.511 0.523 -58.086
6763.792 0.52 -58.279 0.851 31.315 0.851 31.315 0.52 -58.279
6788.75 0.517 -58.471 0.852 31.12 0.852 31.12 0.517 -58.471
6813.708 0.514 -58.663 0.854 30.925 0.854 30.925 0.514 -58.663
6838.667 0.511 -58.854 0.856 30.73 0.856 30.73 0.511 -58.854
6863.625 0.508 -59.045 0.858 30.536 0.858 30.536 0.508 -59.045
6888.583 0.505 -59.236 0.859 30.342 0.859 30.342 0.505 -59.236
6913.542 0.502 -59.427 0.861 30.148 0.861 30.148 0.502 -59.427
6938.5 0.499 -59.617 0.863 29.954 0.863 29.954 0.499 -59.617
6963.458 0.496 -59.807 0.864 29.761 0.864 29.761 0.496 -59.807
6988.417 0.493 -59.997 0.866 29.568 0.866 29.568 0.493 -59.997
7013.375 0.491 -60.186 0.868 29.375 0.868 29.375 0.491 -60.186
7038.333 0.488 -60.375 0.869 29.182 0.869 29.182 0.488 -60.375
7063.292 0.485 -60.564 0.871 28.99 0.871 28.99 0.485 -60.564
7088.25 0.482 -60.753 0.873 28.798 0.873 28.798 0.482 -60.753
7113.208 0.479 -60.941 0.874 28.606 0.874 28.606 0.479 -60.941
7138.167 0.476 -61.129 0.876 28.414 0.876 28.414 0.476 -61.129
7163.125 0.473 -61.317 0.877 28.223 0.877 28.223 0.473 -61.317
7188.083 0.47 -61.504 0.879 28.032 0.879 28.032 0.47 -61.504
7213.042 0.467 -61.691 0.88 27.841 0.88 27.841 0.467 -61.691
7238 0.464 -61.877 0.882 27.651 0.882 27.651 0.464 -61.877
7262.958 0.461 -62.064 0.883 27.461 0.883 27.461 0.461 -62.064
7287.917 0.458 -62.25 0.885 27.271 0.885 27.271 0.458 -62.25
7312.875 0.455 -62.435 0.887 27.081 0.887 27.081 0.455 -62.435
7337.833 0.452 -62.621 0.888 26.892 0.888 26.892 0.452 -62.621
7362.792 0.449 -62.806 0.889 26.703 0.889 26.703 0.449 -62.806
7387.75 0.446 -62.991 0.891 26.514 0.891 26.514 0.446 -62.991
7412.708 0.443 -63.175 0.892 26.326 0.892 26.326 0.443 -63.175
7437.667 0.441 -63.359 0.894 26.137 0.894 26.137 0.441 -63.359
7462.625 0.438 -63.543 0.895 25.949 0.895 25.949 0.438 -63.543
7487.583 0.435 -63.726 0.897 25.762 0.897 25.762 0.435 -63.726
7512.542 0.432 -63.909 0.898 25.574 0.898 25.574 0.432 -63.909
7537.5 0.429 -64.092 0.9 25.387 0.9 25.387 0.429 -64.092
7562.458 0.426 -64.274 0.901 25.201 0.901 25.201 0.426 -64.274
7587.417 0.423 -64.456 0.902 25.014 0.902 25.014 0.423 -64.456
7612.375 0.42 -64.638 0.904 24.828 0.904 24.828 0.42 -64.638
7637.333 0.417 -64.82 0.905 24.642 0.905 24.642 0.417 -64.82
7662.292 0.414 -65.001 0.906 24.456 0.906 24.456 0.414 -65.001
7687.25 0.411 -65.181 0.908 24.271 0.908 24.271 0.411 -65.181
7712.208 0.408 -65.362 0.909 24.086 0.909 24.086 0.408 -65.362
7737.167 0.405 -65.542 0.91 23.901 0.91 23.901 0.405 -65.542
7762.125 0.402 -65.721 0.912 23.716 0.912 23.716 0.402 -65.721
7787.083 0.399 -65.901 0.913 23.532 0.913 23.532 0.399 -65.901
7812.042 0.396 -66.079 0.914 23.348 0.914 23.348 0.396 -66.079
7837 0.393 -66.258 0.915 23.165 0.915 23.165 0.393 -66.258
7861.958 0.39 -66.436 0.917 22.981 0.917 22.981 0.39 -66.436
7886.917 0.388 -66.614 0.918 22.798 0.918 22.798 0.388 -66.614
7911.875 0.385 -66.792 0.919 22.615 0.919 22.615 0.385 -66.792
7936.833 0.382 -66.969 0.92 22.433 0.92 22.433 0.382 -66.969
7961.792 0.379 -67.145 0.922 22.251 0.922 22.251 0.379 -67.145
7986.75 0.376 -67.322 0.923 22.069 0.923 22.069 0.376 -67.322
8011.708 0.373 -67.498 0.924 21.887 0.924 21.887 0.373 -67.498
8036.667 0.37 -67.673 0.925 21.706 0.925 21.706 0.37 -67.673
8061.625 0.367 -67.849 0.926 21.525 0.926 21.525 0.367 -67.849
8086.583 0.364 -68.024 0.927 21.344 0.927 21.344 0.364 -68.024
8111.542 0.361 -68.198 0.929 21.164 0.929 21.164 0.361 -68.198
8136.5 0.358 -68.372 0.93 20.984 0.93 20.984 0.358 -68.372
