# MHZ S MA R 50

50 0.999 -3.057 0.053 86.936 0.053 86.936 0.999 -3.057
74.958 0.997 -4.579 0.08 85.412 0.08 85.412 0.997 -4.579
99.917 0.994 -6.095 0.106 83.893 0.106 83.893 0.994 -6.095
124.875 0.991 -7.603 0.132 82.381 0.132 82.381 0.991 -7.603
149.833 0.987 -9.103 0.158 80.879 0.158 80.879 0.987 -9.103
174.792 0.983 -10.591 0.184 79.387 0.184 79.387 0.983 -10.591
199.75 0.978 -12.067 0.209 77.908 0.209 77.908 0.978 -12.067
224.708 0.972 -13.53 0.234 76.443 0.234 76.443 0.972 -13.53
249.667 0.966 -14.976 0.258 74.993 0.258 74.993 0.966 -14.976
274.625 0.959 -16.407 0.282 73.559 0.282 73.559 0.959 -16.407
299.583 0.952 -17.819 0.306 72.144 0.306 72.144 0.952 -17.819
324.542 0.944 -19.213 0.329 70.747 0.329 70.747 0.944 -19.213
349.5 0.936 -20.586 0.352 69.371 0.352 69.371 0.936 -20.586
374.458 0.927 -21.939 0.374 68.015 0.374 68.015 0.927 -21.939
399.417 0.918 -23.27 0.395 66.681 0.395 66.681 0.918 -23.27
424.375 0.909 -24.579 0.416 65.369 0.416 65.369 0.909 -24.579
449.333 0.899 -25.865 0.436 64.079 0.436 64.079 0.899 -25.865
474.292 0.89 -27.128 0.456 62.813 0.456 62.813 0.89 -27.128
499.25 0.879 -28.368 0.475 61.57 0.475 61.57 0.879 -28.368
524.208 0.869 -29.583 0.494 60.352 0.494 60.352 0.869 -29.583
549.167 0.859 -30.775 0.512 59.157 0.512 59.157 0.859 -30.775
574.125 0.848 -31.942 0.529 57.986 0.529 57.986 0.848 -31.942
599.083 0.837 -33.086 0.546 56.839 0.546 56.839 0.837 -33.086
624.042 0.826 -34.205 0.562 55.717 0.562 55.717 0.826 -34.205
649 0.815 -35.301 0.578 54.618 0.578 54.618 0.815 -35.301
673.958 0.804 -36.372 0.593 53.543 0.593 53.543 0.804 -36.372
698.917 0.793 -37.421 0.608 52.491 0.608 52.491 0.793 -37.421
723.875 0.782 -38.446 0.622 51.463 0.622 51.463 0.782 -38.446
748.833 0.771 -39.448 0.635 50.458 0.635 50.458 0.771 -39.448
773.792 0.76 -40.427 0.648 49.475 0.648 49.475 0.76 -40.427
798.75 0.749 -41.384 0.661 48.515 0.661 48.515 0.749 -41.384
823.708 0.738 -42.319 0.673 47.576 0.673 47.576 0.738 -42.319
848.667 0.727 -43.233 0.685 46.659 0.685 46.659 0.727 -43.233
873.625 0.716 -44.126 0.696 45.763 0.696 45.763 0.716 -44.126
898.583 0.706 -44.998 0.707 44.887 0.707 44.887 0.706 -44.998
923.542 0.695 -45.85 0.718 44.031 0.718 44.031 0.695 -45.85
948.5 0.684 -46.683 0.728 43.195 0.728 43.195 0.684 -46.683
973.458 0.674 -47.496 0.737 42.379 0.737 42.379 0.674 -47.496
998.417 0.664 -48.29 0.747 41.581 0.747 41.581 0.664 -48.29
1023.375 0.653 -49.067 0.755 40.801 0.755 40.801 0.653 -49.067
1048.333 0.643 -49.825 0.764 40.039 0.764 40.039 0.643 -49.825
1073.292 0.633 -50.566 0.772 39.294 0.772 39.294 0.633 -50.566
1098.25 0.623 -51.291 0.78 38.566 0.78 38.566 0.623 -51.291
1123.208 0.614 -51.999 0.788 37.854 0.788 37.854 0.614 -51.999
1148.167 0.604 -52.691 0.795 37.158 0.795 37.158 0.604 -52.691
1173.125 0.595 -53.367 0.802 36.478 0.802 36.478 0.595 -53.367
1198.083 0.585 -54.029 0.809 35.813 0.809 35.813 0.585 -54.029
1223.042 0.576 -54.676 0.816 35.162 0.816 35.162 0.576 -54.676
1248 0.567 -55.308 0.822 34.526 0.822 34.526 0.567 -55.308
1272.958 0.558 -55.927 0.828 33.903 0.828 33.903 0.558 -55.927
1297.917 0.549 -56.532 0.834 33.294 0.834 33.294 0.549 -56.532
1322.875 0.54 -57.125 0.84 32.697 0.84 32.697 0.54 -57.125
1347.833 0.532 -57.704 0.845 32.114 0.845 32.114 0.532 -57.704
1372.792 0.523 -58.272 0.851 31.542 0.851 31.542 0.523 -58.272
1397.75 0.515 -58.827 0.856 30.982 0.856 30.982 0.515 -58.827
1422.708 0.507 -59.371 0.86 30.434 0.86 30.434 0.507 -59.371
1447.667 0.498 -59.904 0.865 29.897 0.865 29.897 0.498 -59.904
1472.625 0.49 -60.425 0.87 29.371 0.87 29.371 0.49 -60.425
1497.583 0.483 -60.937 0.874 28.856 0.874 28.856 0.483 -60.937
1522.542 0.475 -61.437 0.878 28.35 0.878 28.35 0.475 -61.437
1547.5 0.467 -61.928 0.882 27.855 0.882 27.855 0.467 -61.928
1572.458 0.46 -62.41 0.886 27.369 0.886 27.369 0.46 -62.41
1597.417 0.452 -62.881 0.89 26.893 0.89 26.893 0.452 -62.881
1622.375 0.445 -63.344 0.894 26.426 0.894 26.426 0.445 -63.344
1647.333 0.438 -63.798 0.897 25.967 0.897 25.967 0.438 -63.798
1672.292 0.431 -64.243 0.901 25.517 0.901 25.517 0.431 -64.243
1697.25 0.424 -64.68 0.904 25.075 0.904 25.075 0.424 -64.68
1722.208 0.417 -65.109 0.907 24.642 0.907 24.642 0.417 -65.109
1747.167 0.41 -65.53 0.91 24.216 0.91 24.216 0.41 -65.53
1772.125 0.404 -65.943 0.913 23.798 0.913 23.798 0.404 -65.943
1797.083 0.397 -66.348 0.916 23.387 0.916 23.387 0.397 -66.348
1822.042 0.39 -66.747 0.919 22.984 0.919 22.984 0.39 -66.747
1847 0.384 -67.138 0.921 22.587 0.921 22.587 0.384 -67.138
1871.958 0.378 -67.523 0.924 22.197 0.924 22.197 0.378 -67.523
1896.917 0.372 -67.9 0.927 21.814 0.927 21.814 0.372 -67.9
1921.875 0.365 -68.272 0.929 21.437 0.929 21.437 0.365 -68.272
1946.833 0.359 -68.637 0.931 21.066 0.931 21.066 0.359 -68.637
1971.792 0.354 -68.996 0.934 20.702 0.934 20.702 0.354 -68.996
1996.75 0.348 -69.348 0.936 20.343 0.936 20.343 0.348 -69.348
2021.708 0.342 -69.695 0.938 19.99 0.938 19.99 0.342 -69.695
2046.667 0.336 -70.037 0.94 19.643 0.94 19.643 0.336 -70.037
2071.625 0.331 -70.373 0.942 19.301 0.942 19.301 0.331 -70.373
2096.583 0.325 -70.703 0.944 18.964 0.944 18.964 0.325 -70.703
2121.542 0.32 -71.028 0.946 18.633 0.946 18.633 0.32 -71.028
2146.5 0.314 -71.348 0.947 18.306 0.947 18.306 0.314 -71.348
2171.458 0.309 -71.663 0.949 17.984 0.949 17.984 0.309 -71.663
2196.417 0.303 -71.973 0.951 17.667 0.951 17.667 0.303 -71.973
2221.375 0.298 -72.279 0.953 17.355 0.953 17.355 0.298 -72.279
2246.333 0.293 -72.58 0.954 17.047 0.954 17.047 0.293 -72.58
2271.292 0.288 -72.876 0.956 16.744 0.956 16.744 0.288 -72.876
2296.25 0.283 -73.168 0.957 16.445 0.957 16.445 0.283 -73.168
2321.208 0.278 -73.455 0.959 16.149 0.959 16.149 0.278 -73.455
2346.167 0.273 -73.739 0.96 15.859 0.96 15.859 0.273 -73.739
2371.125 0.268 -74.018 0.961 15.571 0.961 15.571 0.268 -74.018
2396.083 0.264 -74.293 0.963 15.288 0.963 15.288 0.264 -74.293
2421.042 0.259 -74.564 0.964 15.009 0.964 15.009 0.259 -74.564
2446 0.254 -74.832 0.965 14.733 0.965 14.733 0.254 -74.832
2470.958 0.25 -75.096 0.966 14.461 0.966 14.461 0.25 -75.096
2495.917 0.245 -75.355 0.968 14.192 0.968 14.192 0.245 -75.355
2520.875 0.241 -75.612 0.969 13.927 0.969 13.927 0.241 -75.612
2545.833 0.236 -75.865 0.97 13.665 0.97 13.665 0.236 -75.865
2570.792 0.232 -76.114 0.971 13.406 0.971 13.406 0.232 -76.114
2595.75 0.228 -76.36 0.972 13.151 0.972 13.151 0.228 -76.36
2620.708 0.223 -76.602 0.973 12.898 0.973 12.898 0.223 -76.602
2645.667 0.219 -76.842 0.974 12.649 0.974 12.649 0.219 -76.842
2670.625 0.215 -77.078 0.975 12.402 0.975 12.402 0.215 -77.078
2695.583 0.211 -77.311 0.976 12.159 0.976 12.159 0.211 -77.311
2720.542 0.207 -77.54 0.976 11.918 0.976 11.918 0.207 -77.54
2745.5 0.202 -77.767 0.977 11.68 0.977 11.68 0.202 -77.767
2770.458 0.198 -77.991 0.978 11.444 0.978 11.444 0.198 -77.991
2795.417 0.194 -78.211 0.979 11.211 0.979 11.211 0.194 -78.211
2820.375 0.19 -78.429 0.98 10.981 0.98 10.981 0.19 -78.429
2845.333 0.187 -78.644 0.98 10.754 0.98 10.754 0.187 -78.644
2870.292 0.183 -78.856 0.981 10.528 0.981 10.528 0.183 -78.856
2895.25 0.179 -79.065 0.982 10.306 0.982 10.306 0.179 -79.065
2920.208 0.175 -79.272 0.983 10.085 0.983 10.085 0.175 -79.272
2945.167 0.171 -79.476 0.983 9.867 0.983 9.867 0.171 -79.476
2970.125 0.168 -79.676 0.984 9.651 0.984 9.651 0.168 -79.676
2995.083 0.164 -79.875 0.984 9.437 0.984 9.437 0.164 -79.875
3020.042 0.16 -80.07 0.985 9.226 0.985 9.226 0.16 -80.07
3045 0.157 -80.263 0.986 9.016 0.986 9.016 0.157 -80.263
3069.958 0.153 -80.453 0.986 8.809 0.986 8.809 0.153 -80.453
3094.917 0.15 -80.641 0.987 8.603 0.987 8.603 0.15 -80.641
3119.875 0.146 -80.826 0.987 8.4 0.987 8.4 0.146 -80.826
3144.833 0.143 -81.008 0.988 8.198 0.988 8.198 0.143 -81.008
3169.792 0.139 -81.187 0.988 7.999 0.988 7.999 0.139 -81.187
3194.75 0.136 -81.364 0.989 7.801 0.989 7.801 0.136 -81.364
3219.708 0.132 -81.538 0.989 7.605 0.989 7.605 0.132 -81.538
3244.667 0.129 -81.71 0.99 7.411 0.99 7.411 0.129 -81.71
3269.625 0.126 -81.878 0.99 7.219 0.99 7.219 0.126 -81.878
3294.583 0.122 -82.044 0.991 7.028 0.991 7.028 0.122 -82.044
3319.542 0.119 -82.207 0.991 6.839 0.991 6.839 0.119 -82.207
3344.5 0.116 -82.367 0.991 6.652 0.991 6.652 0.116 -82.367
3369.458 0.113 -82.525 0.992 6.466 0.992 6.466 0.113 -82.525
3394.417 0.109 -82.679 0.992 6.282 0.992 6.282 0.109 -82.679
3419.375 0.106 -82.83 0.992 6.099 0.992 6.099 0.106 -82.83
3444.333 0.103 -82.978 0.993 5.918 0.993 5.918 0.103 -82.978
3469.292 0.1 -83.123 0.993 5.739 0.993 5.739 0.1 -83.123
3494.25 0.097 -83.264 0.993 5.561 0.993 5.561 0.097 -83.264
3519.208 0.094 -83.402 0.994 5.384 0.994 5.384 0.094 -83.402
3544.167 0.091 -83.536 0.994 5.209 0.994 5.209 0.091 -83.536
3569.125 0.088 -83.667 0.994 5.035 0.994 5.035 0.088 -83.667
3594.083 0.085 -83.793 0.994 4.863 0.994 4.863 0.085 -83.793
3619.042 0.082 -83.915 0.995 4.692 0.995 4.692 0.082 -83.915
3644 0.079 -84.032 0.995 4.522 0.995 4.522 0.079 -84.032
3668.958 0.076 -84.144 0.995 4.353 0.995 4.353 0.076 -84.144
3693.917 0.073 -84.251 0.995 4.186 0.995 4.186 0.073 -84.251
3718.875 0.07 -84.353 0.996 4.02 0.996 4.02 0.07 -84.353
3743.833 0.067 -84.448 0.996 3.855 0.996 3.855 0.067 -84.448
3768.792 0.064 -84.536 0.996 3.692 0.996 3.692 0.064 -84.536
3793.75 0.062 -84.617 0.996 3.529 0.996 3.529 0.062 -84.617
3818.708 0.059 -84.689 0.996 3.368 0.996 3.368 0.059 -84.689
3843.667 0.056 -84.752 0.996 3.208 0.996 3.208 0.056 -84.752
3868.625 0.053 -84.804 0.997 3.049 0.997 3.049 0.053 -84.804
3893.583 0.05 -84.845 0.997 2.891 0.997 2.891 0.05 -84.845
3918.542 0.048 -84.872 0.997 2.735 0.997 2.735 0.048 -84.872
3943.5 0.045 -84.883 0.997 2.579 0.997 2.579 0.045 -84.883
3968.458 0.042 -84.876 0.997 2.424 0.997 2.424 0.042 -84.876
3993.417 0.04 -84.847 0.997 2.271 0.997 2.271 0.04 -84.847
4018.375 0.037 -84.792 0.997 2.118 0.997 2.118 0.037 -84.792
4043.333 0.034 -84.706 0.997 1.966 0.997 1.966 0.034 -84.706
4068.292 0.032 -84.581 0.998 1.816 0.998 1.816 0.032 -84.581
4093.25 0.029 -84.407 0.998 1.666 0.998 1.666 0.029 -84.407
4118.208 0.027 -84.172 0.998 1.517 0.998 1.517 0.027 -84.172
4143.167 0.024 -83.857 0.998 1.369 0.998 1.369 0.024 -83.857
4168.125 0.021 -83.433 0.998 1.223 0.998 1.223 0.021 -83.433
4193.083 0.019 -82.859 0.998 1.077 0.998 1.077 0.019 -82.859
4218.042 0.016 -82.068 0.998 0.931 0.998 0.931 0.016 -82.068
4243 0.014 -80.946 0.998 0.787 0.998 0.787 0.014 -80.946
4267.958 0.011 -79.284 0.998 0.644 0.998 0.644 0.011 -79.284
4292.917 8.976e-3 -76.649 0.998 0.501 0.998 0.501 8.976e-3 -76.649
4317.875 6.589e-3 -72.003 0.998 0.36 0.998 0.36 6.589e-3 -72.003
4342.833 4.311e-3 -62.197 0.998 0.219 0.998 0.219 4.311e-3 -62.197
4367.792 2.426e-3 -34.527 0.998 0.079 0.998 0.079 2.426e-3 -34.527
4392.75 2.257e-3 27.733 0.998 -0.06 0.998 -0.06 2.257e-3 27.733
4417.708 4.002e-3 59.877 0.998 -0.199 0.998 -0.199 4.002e-3 59.877
4442.667 6.201e-3 70.883 0.998 -0.336 0.998 -0.336 6.201e-3 70.883
4467.625 8.498e-3 75.94 0.998 -0.473 0.998 -0.473 8.498e-3 75.94
4492.583 0.011 78.76 0.998 -0.609 0.998 -0.609 0.011 78.76
4517.542 0.013 80.525 0.998 -0.745 0.998 -0.745 0.013 80.525
4542.5 0.015 81.711 0.998 -0.879 0.998 -0.879 0.015 81.711
4567.458 0.018 82.547 0.998 -1.013 0.998 -1.013 0.018 82.547
4592.417 0.02 83.157 0.998 -1.147 0.998 -1.147 0.02 83.157
4617.375 0.022 83.612 0.998 -1.279 0.998 -1.279 0.022 83.612
4642.333 0.025 83.955 0.998 -1.411 0.998 -1.411 0.025 83.955
4667.292 0.027 84.217 0.998 -1.542 0.998 -1.542 0.027 84.217
4692.25 0.029 84.416 0.998 -1.673 0.998 -1.673 0.029 84.416
4717.208 0.032 84.568 0.998 -1.803 0.998 -1.803 0.032 84.568
4742.167 0.034 84.681 0.997 -1.932 0.997 -1.932 0.034 84.681
4767.125 0.036 84.763 0.997 -2.06 0.997 -2.06 0.036 84.763
4792.083 0.038 84.821 0.997 -2.188 0.997 -2.188 0.038 84.821
4817.042 0.04 84.858 0.997 -2.315 0.997 -2.315 0.04 84.858
4842 0.043 84.878 0.997 -2.442 0.997 -2.442 0.043 84.878
4866.958 0.045 84.883 0.997 -2.568 0.997 -2.568 0.045 84.883
4891.917 0.047 84.877 0.997 -2.694 0.997 -2.694 0.047 84.877
4916.875 0.049 84.859 0.997 -2.818 0.997 -2.818 0.049 84.859
4941.833 0.051 84.833 0.997 -2.943 0.997 -2.943 0.051 84.833
4966.792 0.054 84.799 0.997 -3.066 0.997 -3.066 0.054 84.799
4991.75 0.056 84.759 0.996 -3.189 0.996 -3.189 0.056 84.759
5016.708 0.058 84.712 0.996 -3.312 0.996 -3.312 0.058 84.712
5041.667 0.06 84.66 0.996 -3.434 0.996 -3.434 0.06 84.66
5066.625 0.062 84.604 0.996 -3.555 0.996 -3.555 0.062 84.604
5091.583 0.064 84.544 0.996 -3.676 0.996 -3.676 0.064 84.544
5116.542 0.066 84.48 0.996 -3.797 0.996 -3.797 0.066 84.48
5141.5 0.068 84.413 0.996 -3.916 0.996 -3.916 0.068 84.413
5166.458 0.07 84.343 0.996 -4.036 0.996 -4.036 0.07 84.343
5191.417 0.072 84.271 0.995 -4.155 0.995 -4.155 0.072 84.271
5216.375 0.075 84.197 0.995 -4.273 0.995 -4.273 0.075 84.197
5241.333 0.077 84.12 0.995 -4.391 0.995 -4.391 0.077 84.12
5266.292 0.079 84.042 0.995 -4.508 0.995 -4.508 0.079 84.042
5291.25 0.081 83.962 0.995 -4.625 0.995 -4.625 0.081 83.962
5316.208 0.083 83.88 0.995 -4.741 0.995 -4.741 0.083 83.88
5341.167 0.085 83.797 0.994 -4.857 0.994 -4.857 0.085 83.797
5366.125 0.087 83.713 0.994 -4.972 0.994 -4.972 0.087 83.713
5391.083 0.089 83.628 0.994 -5.087 0.994 -5.087 0.089 83.628
5416.042 0.091 83.542 0.994 -5.201 0.994 -5.201 0.091 83.542
5441 0.093 83.455 0.994 -5.315 0.994 -5.315 0.093 83.455
5465.958 0.095 83.368 0.994 -5.429 0.994 -5.429 0.095 83.368
5490.917 0.097 83.279 0.993 -5.542 0.993 -5.542 0.097 83.279
5515.875 0.099 83.19 0.993 -5.655 0.993 -5.655 0.099 83.19
5540.833 0.1 83.101 0.993 -5.767 0.993 -5.767 0.1 83.101
5565.792 0.102 83.011 0.993 -5.879 0.993 -5.879 0.102 83.011
5590.75 0.104 82.92 0.993 -5.99 0.993 -5.99 0.104 82.92
5615.708 0.106 82.829 0.992 -6.101 0.992 -6.101 0.106 82.829
5640.667 0.108 82.738 0.992 -6.211 0.992 -6.211 0.108 82.738
5665.625 0.11 82.646 0.992 -6.321 0.992 -6.321 0.11 82.646
5690.583 0.112 82.554 0.992 -6.431 0.992 -6.431 0.112 82.554
5715.542 0.114 82.462 0.992 -6.54 0.992 -6.54 0.114 82.462
5740.5 0.116 82.37 0.991 -6.649 0.991 -6.649 0.116 82.37
5765.458 0.118 82.277 0.991 -6.758 0.991 -6.758 0.118 82.277
5790.417 0.12 82.184 0.991 -6.866 0.991 -6.866 0.12 82.184
5815.375 0.121 82.092 0.991 -6.973 0.991 -6.973 0.121 82.092
5840.333 0.123 81.999 0.99 -7.081 0.99 -7.081 0.123 81.999
5865.292 0.125 81.906 0.99 -7.187 0.99 -7.187 0.125 81.906
5890.25 0.127 81.812 0.99 -7.294 0.99 -7.294 0.127 81.812
5915.208 0.129 81.719 0.99 -7.4 0.99 -7.4 0.129 81.719
5940.167 0.131 81.626 0.989 -7.506 0.989 -7.506 0.131 81.626
5965.125 0.132 81.533 0.989 -7.611 0.989 -7.611 0.132 81.533
5990.083 0.134 81.439 0.989 -7.716 0.989 -7.716 0.134 81.439
6015.042 0.136 81.346 0.989 -7.821 0.989 -7.821 0.136 81.346
6040 0.138 81.253 0.988 -7.926 0.988 -7.926 0.138 81.253
6064.958 0.14 81.16 0.988 -8.03 0.988 -8.03 0.14 81.16
6089.917 0.141 81.066 0.988 -8.133 0.988 -8.133 0.141 81.066
6114.875 0.143 80.973 0.988 -8.237 0.988 -8.237 0.143 80.973
6139.833 0.145 80.88 0.987 -8.34 0.987 -8.34 0.145 80.88
6164.792 0.147 80.787 0.987 -8.442 0.987 -8.442 0.147 80.787
6189.75 0.149 80.694 0.987 -8.545 0.987 -8.545 0.149 80.694
6214.708 0.15 80.601 0.987 -8.647 0.987 -8.647 0.15 80.601
6239.667 0.152 80.509 0.986 -8.748 0.986 -8.748 0.152 80.509
6264.625 0.154 80.416 0.986 -8.849 0.986 -8.849 0.154 80.416
6289.583 0.156 80.323 0.986 -8.951 0.986 -8.951 0.156 80.323
6314.542 0.157 80.231 0.986 -9.051 0.986 -9.051 0.157 80.231
6339.5 0.159 80.138 0.985 -9.152 0.985 -9.152 0.159 80.138
6364.458 0.161 80.046 0.985 -9.252 0.985 -9.252 0.161 80.046
6389.417 0.163 79.954 0.985 -9.351 0.985 -9.351 0.163 79.954
6414.375 0.164 79.862 0.984 -9.451 0.984 -9.451 0.164 79.862
6439.333 0.166 79.77 0.984 -9.55 0.984 -9.55 0.166 79.77
6464.292 0.168 79.678 0.984 -9.649 0.984 -9.649 0.168 79.678
6489.25 0.169 79.587 0.984 -9.747 0.984 -9.747 0.169 79.587
6514.208 0.171 79.495 0.983 -9.846 0.983 -9.846 0.171 79.495
6539.167 0.173 79.404 0.983 -9.944 0.983 -9.944 0.173 79.404
6564.125 0.174 79.313 0.983 -10.041 0.983 -10.041 0.174 79.313
6589.083 0.176 79.222 0.982 -10.139 0.982 -10.139 0.176 79.222
6614.042 0.178 79.131 0.982 -10.236 0.982 -10.236 0.178 79.131
6639 0.179 79.04 0.982 -10.333 0.982 -10.333 0.179 79.04
6663.958 0.181 78.949 0.982 -10.429 0.982 -10.429 0.181 78.949
6688.917 0.183 78.859 0.981 -10.526 0.981 -10.526 0.183 78.859
6713.875 0.184 78.769 0.981 -10.621 0.981 -10.621 0.184 78.769
6738.833 0.186 78.678 0.981 -10.717 0.981 -10.717 0.186 78.678
6763.792 0.188 78.588 0.98 -10.813 0.98 -10.813 0.188 78.588
6788.75 0.189 78.499 0.98 -10.908 0.98 -10.908 0.189 78.499
6813.708 0.191 78.409 0.98 -11.003 0.98 -11.003 0.191 78.409
6838.667 0.192 78.319 0.979 -11.097 0.979 -11.097 0.192 78.319
6863.625 0.194 78.23 0.979 -11.192 0.979 -11.192 0.194 78.23
6888.583 0.196 78.141 0.979 -11.286 0.979 -11.286 0.196 78.141
6913.542 0.197 78.052 0.978 -11.38 0.978 -11.38 0.197 78.052
6938.5 0.199 77.963 0.978 -11.473 0.978 -11.473 0.199 77.963
6963.458 0.201 77.874 0.978 -11.567 0.978 -11.567 0.201 77.874
6988.417 0.202 77.786 0.977 -11.66 0.977 -11.66 0.202 77.786
7013.375 0.204 77.697 0.977 -11.753 0.977 -11.753 0.204 77.697
7038.333 0.205 77.609 0.977 -11.845 0.977 -11.845 0.205 77.609
7063.292 0.207 77.521 0.976 -11.938 0.976 -11.938 0.207 77.521
7088.25 0.208 77.433 0.976 -12.03 0.976 -12.03 0.208 77.433
7113.208 0.21 77.346 0.976 -12.122 0.976 -12.122 0.21 77.346
7138.167 0.212 77.258 0.975 -12.213 0.975 -12.213 0.212 77.258
7163.125 0.213 77.171 0.975 -12.305 0.975 -12.305 0.213 77.171
7188.083 0.215 77.084 0.975 -12.396 0.975 -12.396 0.215 77.084
7213.042 0.216 76.997 0.974 -12.487 0.974 -12.487 0.216 76.997
7238 0.218 76.91 0.974 -12.578 0.974 -12.578 0.218 76.91
7262.958 0.219 76.823 0.974 -12.668 0.974 -12.668 0.219 76.823
7287.917 0.221 76.737 0.973 -12.758 0.973 -12.758 0.221 76.737
7312.875 0.222 76.65 0.973 -12.848 0.973 -12.848 0.222 76.65
7337.833 0.224 76.564 0.973 -12.938 0.973 -12.938 0.224 76.564
7362.792 0.225 76.478 0.972 -13.028 0.972 -13.028 0.225 76.478
7387.75 0.227 76.392 0.972 -13.117 0.972 -13.117 0.227 76.392
7412.708 0.228 76.307 0.972 -13.206 0.972 -13.206 0.228 76.307
7437.667 0.23 76.221 0.971 -13.295 0.971 -13.295 0.23 76.221
7462.625 0.231 76.136 0.971 -13.384 0.971 -13.384 0.231 76.136
7487.583 0.233 76.05 0.971 -13.472 0.971 -13.472 0.233 76.05
7512.542 0.234 75.965 0.97 -13.56 0.97 -13.56 0.234 75.965
7537.5 0.236 75.881 0.97 -13.648 0.97 -13.648 0.236 75.881
7562.458 0.237 75.796 0.969 -13.736 0.969 -13.736 0.237 75.796
7587.417 0.239 75.711 0.969 -13.824 0.969 -13.824 0.239 75.711
7612.375 0.24 75.627 0.969 -13.911 0.969 -13.911 0.24 75.627
7637.333 0.242 75.543 0.968 -13.998 0.968 -13.998 0.242 75.543
7662.292 0.243 75.459 0.968 -14.085 0.968 -14.085 0.243 75.459
7687.25 0.245 75.375 0.968 -14.172 0.968 -14.172 0.245 75.375
7712.208 0.246 75.291 0.967 -14.259 0.967 -14.259 0.246 75.291
7737.167 0.248 75.208 0.967 -14.345 0.967 -14.345 0.248 75.208
7762.125 0.249 75.124 0.967 -14.431 0.967 -14.431 0.249 75.124
7787.083 0.251 75.041 0.966 -14.517 0.966 -14.517 0.251 75.041
7812.042 0.252 74.958 0.966 -14.603 0.966 -14.603 0.252 74.958
7837 0.254 74.875 0.965 -14.688 0.965 -14.688 0.254 74.875
7861.958 0.255 74.792 0.965 -14.774 0.965 -14.774 0.255 74.792
7886.917 0.256 74.71 0.965 -14.859 0.965 -14.859 0.256 74.71
7911.875 0.258 74.628 0.964 -14.944 0.964 -14.944 0.258 74.628
7936.833 0.259 74.545 0.964 -15.029 0.964 -15.029 0.259 74.545
7961.792 0.261 74.463 0.963 -15.113 0.963 -15.113 0.261 74.463
7986.75 0.262 74.381 0.963 -15.198 0.963 -15.198 0.262 74.381
8011.708 0.264 74.299 0.963 -15.282 0.963 -15.282 0.264 74.299
8036.667 0.265 74.218 0.962 -15.366 0.962 -15.366 0.265 74.218
8061.625 0.266 74.136 0.962 -15.45 0.962 -15.45 0.266 74.136
8086.583 0.268 74.055 0.962 -15.533 0.962 -15.533 0.268 74.055
8111.542 0.269 73.974 0.961 -15.617 0.961 -15.617 0.269 73.974
8136.5 0.271 73.893 0.961 -15.7 0.961 -15.7 0.271 73.893
8161.458 0.272 73.812 0.96 -15.783 0.96 -15.783 0.272 73.812
8186.417 0.273 73.731 0.96 -15.866 0.96 -15.866 0.273 73.731
