# MHZ S MA R 50

50 0.991 -7.872 0.137 82.116 0.137 82.116 0.991 -7.872
74.958 0.979 -11.715 0.203 78.267 0.203 78.267 0.979 -11.715
99.917 0.964 -15.46 0.267 74.517 0.267 74.517 0.964 -15.46
124.875 0.945 -19.08 0.327 70.891 0.327 70.891 0.945 -19.08
149.833 0.923 -22.556 0.384 67.409 0.384 67.409 0.923 -22.556
174.792 0.899 -25.875 0.436 64.084 0.436 64.084 0.899 -25.875
199.75 0.874 -29.027 0.485 60.926 0.485 60.926 0.874 -29.027
224.708 0.847 -32.009 0.53 57.939 0.53 57.939 0.847 -32.009
249.667 0.82 -34.819 0.571 55.122 0.571 55.122 0.82 -34.819
274.625 0.793 -37.462 0.608 52.474 0.608 52.474 0.793 -37.462
299.583 0.766 -39.943 0.642 49.987 0.642 49.987 0.766 -39.943
324.542 0.739 -42.268 0.673 47.656 0.673 47.656 0.739 -42.268
349.5 0.713 -44.445 0.7 45.472 0.7 45.472 0.713 -44.445
374.458 0.687 -46.485 0.725 43.427 0.725 43.427 0.687 -46.485
399.417 0.663 -48.395 0.748 41.511 0.748 41.511 0.663 -48.395
424.375 0.639 -50.184 0.768 39.716 0.768 39.716 0.639 -50.184
449.333 0.616 -51.86 0.787 38.033 0.787 38.033 0.616 -51.86
474.292 0.594 -53.433 0.803 36.454 0.803 36.454 0.594 -53.433
499.25 0.573 -54.91 0.818 34.97 0.818 34.97 0.573 -54.91
524.208 0.553 -56.298 0.832 33.576 0.832 33.576 0.553 -56.298
549.167 0.534 -57.604 0.844 32.263 0.844 32.263 0.534 -57.604
574.125 0.515 -58.835 0.856 31.026 0.856 31.026 0.515 -58.835
599.083 0.498 -59.995 0.866 29.859 0.866 29.859 0.498 -59.995
624.042 0.481 -61.092 0.875 28.756 0.875 28.756 0.481 -61.092
649 0.465 -62.128 0.884 27.713 0.884 27.713 0.465 -62.128
673.958 0.45 -63.109 0.892 26.725 0.892 26.725 0.45 -63.109
698.917 0.435 -64.04 0.899 25.788 0.899 25.788 0.435 -64.04
723.875 0.421 -64.922 0.906 24.897 0.906 24.897 0.421 -64.922
748.833 0.408 -65.762 0.912 24.051 0.912 24.051 0.408 -65.762
773.792 0.395 -66.56 0.917 23.246 0.917 23.246 0.395 -66.56
798.75 0.382 -67.32 0.923 22.478 0.923 22.478 0.382 -67.32
823.708 0.37 -68.046 0.927 21.745 0.927 21.745 0.37 -68.046
848.667 0.359 -68.738 0.932 21.045 0.932 21.045 0.359 -68.738
873.625 0.348 -69.4 0.936 20.375 0.936 20.375 0.348 -69.4
898.583 0.338 -70.034 0.94 19.733 0.94 19.733 0.338 -70.034
923.542 0.328 -70.64 0.943 19.119 0.943 19.119 0.328 -70.64
948.5 0.318 -71.222 0.947 18.529 0.947 18.529 0.318 -71.222
973.458 0.308 -71.78 0.95 17.962 0.95 17.962 0.308 -71.78
998.417 0.299 -72.316 0.953 17.417 0.953 17.417 0.299 -72.316
1023.375 0.291 -72.832 0.955 16.893 0.955 16.893 0.291 -72.832
1048.333 0.282 -73.328 0.958 16.388 0.958 16.388 0.282 -73.328
1073.292 0.274 -73.806 0.96 15.901 0.96 15.901 0.274 -73.806
1098.25 0.266 -74.266 0.963 15.431 0.963 15.431 0.266 -74.266
1123.208 0.258 -74.711 0.965 14.977 0.965 14.977 0.258 -74.711
1148.167 0.251 -75.14 0.967 14.538 0.967 14.538 0.251 -75.14
1173.125 0.244 -75.554 0.968 14.113 0.968 14.113 0.244 -75.554
1198.083 0.237 -75.955 0.97 13.702 0.97 13.702 0.237 -75.955
1223.042 0.23 -76.343 0.972 13.304 0.972 13.304 0.23 -76.343
1248 0.224 -76.718 0.973 12.918 0.973 12.918 0.224 -76.718
1272.958 0.217 -77.081 0.975 12.543 0.975 12.543 0.217 -77.081
1297.917 0.211 -77.434 0.976 12.179 0.976 12.179 0.211 -77.434
1322.875 0.205 -77.776 0.977 11.825 0.977 11.825 0.205 -77.776
1347.833 0.199 -78.107 0.979 11.482 0.979 11.482 0.199 -78.107
1372.792 0.193 -78.429 0.98 11.147 0.98 11.147 0.193 -78.429
1397.75 0.188 -78.742 0.981 10.821 0.981 10.821 0.188 -78.742
1422.708 0.182 -79.045 0.982 10.504 0.982 10.504 0.182 -79.045
1447.667 0.177 -79.341 0.983 10.195 0.983 10.195 0.177 -79.341
1472.625 0.172 -79.628 0.984 9.893 0.984 9.893 0.172 -79.628
1497.583 0.167 -79.907 0.985 9.599 0.985 9.599 0.167 -79.907
1522.542 0.162 -80.179 0.985 9.311 0.985 9.311 0.162 -80.179
1547.5 0.157 -80.444 0.986 9.031 0.986 9.031 0.157 -80.444
1572.458 0.152 -80.701 0.987 8.756 0.987 8.756 0.152 -80.701
1597.417 0.148 -80.952 0.988 8.488 0.988 8.488 0.148 -80.952
1622.375 0.143 -81.196 0.988 8.226 0.988 8.226 0.143 -81.196
1647.333 0.139 -81.434 0.989 7.969 0.989 7.969 0.139 -81.434
1672.292 0.134 -81.666 0.989 7.717 0.989 7.717 0.134 -81.666
1697.25 0.13 -81.892 0.99 7.471 0.99 7.471 0.13 -81.892
1722.208 0.126 -82.112 0.991 7.229 0.991 7.229 0.126 -82.112
1747.167 0.122 -82.326 0.991 6.992 0.991 6.992 0.122 -82.326
1772.125 0.118 -82.535 0.992 6.76 0.992 6.76 0.118 -82.535
1797.083 0.114 -82.738 0.992 6.532 0.992 6.532 0.114 -82.738
1822.042 0.11 -82.936 0.992 6.309 0.992 6.309 0.11 -82.936
1847 0.106 -83.128 0.993 6.089 0.993 6.089 0.106 -83.128
1871.958 0.102 -83.315 0.993 5.873 0.993 5.873 0.102 -83.315
1896.917 0.099 -83.496 0.994 5.661 0.994 5.661 0.099 -83.496
1921.875 0.095 -83.672 0.994 5.452 0.994 5.452 0.095 -83.672
1946.833 0.091 -83.843 0.994 5.247 0.994 5.247 0.091 -83.843
1971.792 0.088 -84.008 0.995 5.046 0.995 5.046 0.088 -84.008
1996.75 0.085 -84.168 0.995 4.847 0.995 4.847 0.085 -84.168
2021.708 0.081 -84.322 0.995 4.652 0.995 4.652 0.081 -84.322
2046.667 0.078 -84.47 0.996 4.459 0.996 4.459 0.078 -84.47
2071.625 0.074 -84.611 0.996 4.27 0.996 4.27 0.074 -84.611
2096.583 0.071 -84.747 0.996 4.083 0.996 4.083 0.071 -84.747
2121.542 0.068 -84.875 0.996 3.899 0.996 3.899 0.068 -84.875
2146.5 0.065 -84.997 0.996 3.718 0.996 3.718 0.065 -84.997
2171.458 0.062 -85.111 0.997 3.539 0.997 3.539 0.062 -85.111
2196.417 0.059 -85.216 0.997 3.362 0.997 3.362 0.059 -85.216
2221.375 0.056 -85.312 0.997 3.188 0.997 3.188 0.056 -85.312
2246.333 0.053 -85.399 0.997 3.016 0.997 3.016 0.053 -85.399
2271.292 0.05 -85.474 0.997 2.847 0.997 2.847 0.05 -85.474
2296.25 0.047 -85.536 0.997 2.679 0.997 2.679 0.047 -85.536
2321.208 0.044 -85.584 0.998 2.514 0.998 2.514 0.044 -85.584
2346.167 0.041 -85.615 0.998 2.35 0.998 2.35 0.041 -85.615
2371.125 0.038 -85.626 0.998 2.189 0.998 2.189 0.038 -85.626
2396.083 0.035 -85.614 0.998 2.03 0.998 2.03 0.035 -85.614
2421.042 0.033 -85.574 0.998 1.872 0.998 1.872 0.033 -85.574
2446 0.03 -85.498 0.998 1.716 0.998 1.716 0.03 -85.498
2470.958 0.027 -85.377 0.998 1.562 0.998 1.562 0.027 -85.377
2495.917 0.025 -85.199 0.998 1.409 0.998 1.409 0.025 -85.199
2520.875 0.022 -84.944 0.998 1.259 0.998 1.259 0.022 -84.944
2545.833 0.019 -84.584 0.998 1.109 0.998 1.109 0.019 -84.584
2570.792 0.017 -84.074 0.998 0.962 0.998 0.962 0.017 -84.074
2595.75 0.014 -83.336 0.998 0.815 0.998 0.815 0.014 -83.336
2620.708 0.012 -82.23 0.998 0.671 0.998 0.671 0.012 -82.23
2645.667 9.321e-3 -80.473 0.998 0.527 0.998 0.527 9.321e-3 -80.473
2670.625 6.886e-3 -77.389 0.999 0.386 0.999 0.386 6.886e-3 -77.389
2695.583 4.518e-3 -70.927 0.999 0.245 0.999 0.245 4.518e-3 -70.927
2720.542 2.353e-3 -51.592 0.999 0.106 0.999 0.106 2.353e-3 -51.592
2745.5 1.563e-3 21.039 0.999 -0.032 0.999 -0.032 1.563e-3 21.039
2770.458 3.289e-3 63.513 0.999 -0.169 0.999 -0.169 3.289e-3 63.513
2795.417 5.509e-3 74.349 0.999 -0.304 0.999 -0.304 5.509e-3 74.349
2820.375 7.795e-3 78.78 0.999 -0.439 0.999 -0.439 7.795e-3 78.78
2845.333 0.01 81.117 0.998 -0.572 0.998 -0.572 0.01 81.117
2870.292 0.012 82.528 0.998 -0.704 0.998 -0.704 0.012 82.528
2895.25 0.015 83.451 0.998 -0.835 0.998 -0.835 0.015 83.451
2920.208 0.017 84.086 0.998 -0.965 0.998 -0.965 0.017 84.086
2945.167 0.019 84.538 0.998 -1.094 0.998 -1.094 0.019 84.538
2970.125 0.021 84.866 0.998 -1.221 0.998 -1.221 0.021 84.866
2995.083 0.024 85.106 0.998 -1.348 0.998 -1.348 0.024 85.106
3020.042 0.026 85.283 0.998 -1.474 0.998 -1.474 0.026 85.283
3045 0.028 85.411 0.998 -1.599 0.998 -1.599 0.028 85.411
3069.958 0.03 85.502 0.998 -1.723 0.998 -1.723 0.03 85.502
3094.917 0.032 85.564 0.998 -1.846 0.998 -1.846 0.032 85.564
3119.875 0.034 85.602 0.998 -1.968 0.998 -1.968 0.034 85.602
3144.833 0.036 85.622 0.998 -2.089 0.998 -2.089 0.036 85.622
3169.792 0.039 85.626 0.998 -2.21 0.998 -2.21 0.039 85.626
3194.75 0.041 85.618 0.998 -2.33 0.998 -2.33 0.041 85.618
3219.708 0.043 85.598 0.998 -2.448 0.998 -2.448 0.043 85.598
3244.667 0.045 85.57 0.998 -2.566 0.998 -2.566 0.045 85.57
3269.625 0.047 85.535 0.997 -2.684 0.997 -2.684 0.047 85.535
3294.583 0.049 85.492 0.997 -2.8 0.997 -2.8 0.049 85.492
3319.542 0.051 85.444 0.997 -2.916 0.997 -2.916 0.051 85.444
3344.5 0.053 85.392 0.997 -3.031 0.997 -3.031 0.053 85.392
3369.458 0.055 85.335 0.997 -3.145 0.997 -3.145 0.055 85.335
3394.417 0.057 85.274 0.997 -3.259 0.997 -3.259 0.057 85.274
3419.375 0.059 85.21 0.997 -3.372 0.997 -3.372 0.059 85.21
3444.333 0.061 85.144 0.997 -3.484 0.997 -3.484 0.061 85.144
3469.292 0.063 85.075 0.997 -3.596 0.997 -3.596 0.063 85.075
3494.25 0.065 85.004 0.996 -3.707 0.996 -3.707 0.065 85.004
3519.208 0.067 84.931 0.996 -3.817 0.996 -3.817 0.067 84.931
3544.167 0.068 84.856 0.996 -3.927 0.996 -3.927 0.068 84.856
3569.125 0.07 84.78 0.996 -4.036 0.996 -4.036 0.07 84.78
3594.083 0.072 84.703 0.996 -4.144 0.996 -4.144 0.072 84.703
3619.042 0.074 84.624 0.996 -4.252 0.996 -4.252 0.074 84.624
3644 0.076 84.545 0.996 -4.36 0.996 -4.36 0.076 84.545
3668.958 0.078 84.464 0.996 -4.466 0.996 -4.466 0.078 84.464
3693.917 0.08 84.383 0.995 -4.573 0.995 -4.573 0.08 84.383
3718.875 0.082 84.301 0.995 -4.678 0.995 -4.678 0.082 84.301
3743.833 0.083 84.218 0.995 -4.784 0.995 -4.784 0.083 84.218
3768.792 0.085 84.135 0.995 -4.888 0.995 -4.888 0.085 84.135
3793.75 0.087 84.051 0.995 -4.992 0.995 -4.992 0.087 84.051
3818.708 0.089 83.967 0.995 -5.096 0.995 -5.096 0.089 83.967
3843.667 0.091 83.883 0.994 -5.199 0.994 -5.199 0.091 83.883
3868.625 0.092 83.798 0.994 -5.302 0.994 -5.302 0.092 83.798
3893.583 0.094 83.713 0.994 -5.404 0.994 -5.404 0.094 83.713
3918.542 0.096 83.627 0.994 -5.506 0.994 -5.506 0.096 83.627
3943.5 0.098 83.542 0.994 -5.607 0.994 -5.607 0.098 83.542
3968.458 0.099 83.456 0.994 -5.708 0.994 -5.708 0.099 83.456
3993.417 0.101 83.37 0.993 -5.808 0.993 -5.808 0.101 83.37
4018.375 0.103 83.284 0.993 -5.908 0.993 -5.908 0.103 83.284
4043.333 0.105 83.198 0.993 -6.008 0.993 -6.008 0.105 83.198
4068.292 0.106 83.112 0.993 -6.107 0.993 -6.107 0.106 83.112
4093.25 0.108 83.026 0.993 -6.206 0.993 -6.206 0.108 83.026
4118.208 0.11 82.94 0.993 -6.304 0.993 -6.304 0.11 82.94
4143.167 0.112 82.854 0.992 -6.402 0.992 -6.402 0.112 82.854
4168.125 0.113 82.767 0.992 -6.499 0.992 -6.499 0.113 82.767
4193.083 0.115 82.681 0.992 -6.596 0.992 -6.596 0.115 82.681
4218.042 0.117 82.595 0.992 -6.693 0.992 -6.693 0.117 82.595
4243 0.118 82.509 0.992 -6.789 0.992 -6.789 0.118 82.509
4267.958 0.12 82.423 0.991 -6.885 0.991 -6.885 0.12 82.423
4292.917 0.122 82.337 0.991 -6.981 0.991 -6.981 0.122 82.337
4317.875 0.123 82.251 0.991 -7.076 0.991 -7.076 0.123 82.251
4342.833 0.125 82.165 0.991 -7.171 0.991 -7.171 0.125 82.165
4367.792 0.126 82.079 0.991 -7.266 0.991 -7.266 0.126 82.079
4392.75 0.128 81.993 0.99 -7.36 0.99 -7.36 0.128 81.993
4417.708 0.13 81.908 0.99 -7.454 0.99 -7.454 0.13 81.908
4442.667 0.131 81.822 0.99 -7.547 0.99 -7.547 0.131 81.822
4467.625 0.133 81.737 0.99 -7.64 0.99 -7.64 0.133 81.737
4492.583 0.135 81.652 0.989 -7.733 0.989 -7.733 0.135 81.652
4517.542 0.136 81.566 0.989 -7.826 0.989 -7.826 0.136 81.566
4542.5 0.138 81.481 0.989 -7.918 0.989 -7.918 0.138 81.481
4567.458 0.139 81.396 0.989 -8.01 0.989 -8.01 0.139 81.396
4592.417 0.141 81.312 0.989 -8.101 0.989 -8.101 0.141 81.312
4617.375 0.143 81.227 0.988 -8.193 0.988 -8.193 0.143 81.227
4642.333 0.144 81.142 0.988 -8.284 0.988 -8.284 0.144 81.142
4667.292 0.146 81.058 0.988 -8.374 0.988 -8.374 0.146 81.058
4692.25 0.147 80.974 0.988 -8.465 0.988 -8.465 0.147 80.974
4717.208 0.149 80.89 0.987 -8.555 0.987 -8.555 0.149 80.89
4742.167 0.15 80.806 0.987 -8.645 0.987 -8.645 0.15 80.806
4767.125 0.152 80.722 0.987 -8.734 0.987 -8.734 0.152 80.722
4792.083 0.153 80.638 0.987 -8.824 0.987 -8.824 0.153 80.638
4817.042 0.155 80.555 0.986 -8.913 0.986 -8.913 0.155 80.555
4842 0.156 80.471 0.986 -9.001 0.986 -9.001 0.156 80.471
4866.958 0.158 80.388 0.986 -9.09 0.986 -9.09 0.158 80.388
4891.917 0.16 80.305 0.986 -9.178 0.986 -9.178 0.16 80.305
4916.875 0.161 80.222 0.986 -9.266 0.986 -9.266 0.161 80.222
4941.833 0.163 80.139 0.985 -9.354 0.985 -9.354 0.163 80.139
4966.792 0.164 80.056 0.985 -9.441 0.985 -9.441 0.164 80.056
4991.75 0.166 79.974 0.985 -9.529 0.985 -9.529 0.166 79.974
5016.708 0.167 79.891 0.985 -9.616 0.985 -9.616 0.167 79.891
5041.667 0.169 79.809 0.984 -9.702 0.984 -9.702 0.169 79.809
5066.625 0.17 79.727 0.984 -9.789 0.984 -9.789 0.17 79.727
5091.583 0.172 79.645 0.984 -9.875 0.984 -9.875 0.172 79.645
5116.542 0.173 79.563 0.983 -9.961 0.983 -9.961 0.173 79.563
5141.5 0.174 79.482 0.983 -10.047 0.983 -10.047 0.174 79.482
5166.458 0.176 79.4 0.983 -10.132 0.983 -10.132 0.176 79.4
5191.417 0.177 79.319 0.983 -10.218 0.983 -10.218 0.177 79.319
5216.375 0.179 79.238 0.982 -10.303 0.982 -10.303 0.179 79.238
5241.333 0.18 79.157 0.982 -10.388 0.982 -10.388 0.18 79.157
5266.292 0.182 79.076 0.982 -10.472 0.982 -10.472 0.182 79.076
5291.25 0.183 78.995 0.982 -10.557 0.982 -10.557 0.183 78.995
5316.208 0.185 78.914 0.981 -10.641 0.981 -10.641 0.185 78.914
5341.167 0.186 78.834 0.981 -10.725 0.981 -10.725 0.186 78.834
5366.125 0.188 78.754 0.981 -10.809 0.981 -10.809 0.188 78.754
5391.083 0.189 78.673 0.981 -10.892 0.981 -10.892 0.189 78.673
5416.042 0.19 78.593 0.98 -10.976 0.98 -10.976 0.19 78.593
5441 0.192 78.514 0.98 -11.059 0.98 -11.059 0.192 78.514
5465.958 0.193 78.434 0.98 -11.142 0.98 -11.142 0.193 78.434
5490.917 0.195 78.354 0.979 -11.225 0.979 -11.225 0.195 78.354
5515.875 0.196 78.275 0.979 -11.307 0.979 -11.307 0.196 78.275
5540.833 0.197 78.196 0.979 -11.39 0.979 -11.39 0.197 78.196
5565.792 0.199 78.116 0.979 -11.472 0.979 -11.472 0.199 78.116
5590.75 0.2 78.037 0.978 -11.554 0.978 -11.554 0.2 78.037
5615.708 0.202 77.959 0.978 -11.636 0.978 -11.636 0.202 77.959
5640.667 0.203 77.88 0.978 -11.717 0.978 -11.717 0.203 77.88
5665.625 0.204 77.801 0.977 -11.799 0.977 -11.799 0.204 77.801
5690.583 0.206 77.723 0.977 -11.88 0.977 -11.88 0.206 77.723
5715.542 0.207 77.644 0.977 -11.961 0.977 -11.961 0.207 77.644
5740.5 0.209 77.566 0.977 -12.042 0.977 -12.042 0.209 77.566
5765.458 0.21 77.488 0.976 -12.123 0.976 -12.123 0.21 77.488
5790.417 0.211 77.41 0.976 -12.203 0.976 -12.203 0.211 77.41
5815.375 0.213 77.333 0.976 -12.284 0.976 -12.284 0.213 77.333
5840.333 0.214 77.255 0.975 -12.364 0.975 -12.364 0.214 77.255
5865.292 0.215 77.177 0.975 -12.444 0.975 -12.444 0.215 77.177
5890.25 0.217 77.1 0.975 -12.524 0.975 -12.524 0.217 77.1
5915.208 0.218 77.023 0.974 -12.603 0.974 -12.603 0.218 77.023
5940.167 0.22 76.946 0.974 -12.683 0.974 -12.683 0.22 76.946
5965.125 0.221 76.869 0.974 -12.762 0.974 -12.762 0.221 76.869
5990.083 0.222 76.792 0.974 -12.841 0.974 -12.841 0.222 76.792
6015.042 0.224 76.715 0.973 -12.92 0.973 -12.92 0.224 76.715
6040 0.225 76.639 0.973 -12.999 0.973 -12.999 0.225 76.639
6064.958 0.226 76.562 0.973 -13.078 0.973 -13.078 0.226 76.562
6089.917 0.228 76.486 0.972 -13.157 0.972 -13.157 0.228 76.486
6114.875 0.229 76.41 0.972 -13.235 0.972 -13.235 0.229 76.41
6139.833 0.23 76.334 0.972 -13.313 0.972 -13.313 0.23 76.334
6164.792 0.232 76.258 0.971 -13.391 0.971 -13.391 0.232 76.258
6189.75 0.233 76.182 0.971 -13.469 0.971 -13.469 0.233 76.182
6214.708 0.234 76.106 0.971 -13.547 0.971 -13.547 0.234 76.106
6239.667 0.236 76.031 0.97 -13.624 0.97 -13.624 0.236 76.031
6264.625 0.237 75.955 0.97 -13.702 0.97 -13.702 0.237 75.955
6289.583 0.238 75.88 0.97 -13.779 0.97 -13.779 0.238 75.88
6314.542 0.239 75.805 0.969 -13.856 0.969 -13.856 0.239 75.805
6339.5 0.241 75.73 0.969 -13.933 0.969 -13.933 0.241 75.73
6364.458 0.242 75.655 0.969 -14.01 0.969 -14.01 0.242 75.655
6389.417 0.243 75.58 0.969 -14.087 0.969 -14.087 0.243 75.58
6414.375 0.245 75.505 0.968 -14.164 0.968 -14.164 0.245 75.505
6439.333 0.246 75.431 0.968 -14.24 0.968 -14.24 0.246 75.431
6464.292 0.247 75.356 0.968 -14.316 0.968 -14.316 0.247 75.356
6489.25 0.249 75.282 0.967 -14.392 0.967 -14.392 0.249 75.282
6514.208 0.25 75.208 0.967 -14.468 0.967 -14.468 0.25 75.208
6539.167 0.251 75.134 0.967 -14.544 0.967 -14.544 0.251 75.134
6564.125 0.252 75.06 0.966 -14.62 0.966 -14.62 0.252 75.06
6589.083 0.254 74.986 0.966 -14.696 0.966 -14.696 0.254 74.986
6614.042 0.255 74.912 0.966 -14.771 0.966 -14.771 0.255 74.912
6639 0.256 74.838 0.965 -14.846 0.965 -14.846 0.256 74.838
6663.958 0.257 74.765 0.965 -14.921 0.965 -14.921 0.257 74.765
6688.917 0.259 74.692 0.965 -14.997 0.965 -14.997 0.259 74.692
6713.875 0.26 74.618 0.964 -15.071 0.964 -15.071 0.26 74.618
6738.833 0.261 74.545 0.964 -15.146 0.964 -15.146 0.261 74.545
6763.792 0.263 74.472 0.964 -15.221 0.964 -15.221 0.263 74.472
6788.75 0.264 74.399 0.963 -15.295 0.963 -15.295 0.264 74.399
6813.708 0.265 74.326 0.963 -15.37 0.963 -15.37 0.265 74.326
6838.667 0.266 74.254 0.962 -15.444 0.962 -15.444 0.266 74.254
6863.625 0.268 74.181 0.962 -15.518 0.962 -15.518 0.268 74.181
6888.583 0.269 74.108 0.962 -15.592 0.962 -15.592 0.269 74.108
6913.542 0.27 74.036 0.961 -15.666 0.961 -15.666 0.27 74.036
6938.5 0.271 73.964 0.961 -15.74 0.961 -15.74 0.271 73.964
6963.458 0.273 73.892 0.961 -15.813 0.961 -15.813 0.273 73.892
6988.417 0.274 73.819 0.96 -15.887 0.96 -15.887 0.274 73.819
7013.375 0.275 73.748 0.96 -15.96 0.96 -15.96 0.275 73.748
7038.333 0.276 73.676 0.96 -16.034 0.96 -16.034 0.276 73.676
7063.292 0.277 73.604 0.959 -16.107 0.959 -16.107 0.277 73.604
7088.25 0.279 73.532 0.959 -16.18 0.959 -16.18 0.279 73.532
7113.208 0.28 73.461 0.959 -16.253 0.959 -16.253 0.28 73.461
7138.167 0.281 73.389 0.958 -16.325 0.958 -16.325 0.281 73.389
7163.125 0.282 73.318 0.958 -16.398 0.958 -16.398 0.282 73.318
7188.083 0.284 73.247 0.958 -16.471 0.958 -16.471 0.284 73.247
7213.042 0.285 73.176 0.957 -16.543 0.957 -16.543 0.285 73.176
7238 0.286 73.105 0.957 -16.615 0.957 -16.615 0.286 73.105
7262.958 0.287 73.034 0.956 -16.687 0.956 -16.687 0.287 73.034
7287.917 0.288 72.963 0.956 -16.76 0.956 -16.76 0.288 72.963
7312.875 0.29 72.892 0.956 -16.831 0.956 -16.831 0.29 72.892
7337.833 0.291 72.822 0.955 -16.903 0.955 -16.903 0.291 72.822
7362.792 0.292 72.751 0.955 -16.975 0.955 -16.975 0.292 72.751
7387.75 0.293 72.681 0.955 -17.047 0.955 -17.047 0.293 72.681
7412.708 0.294 72.611 0.954 -17.118 0.954 -17.118 0.294 72.611
7437.667 0.296 72.54 0.954 -17.19 0.954 -17.19 0.296 72.54
7462.625 0.297 72.47 0.954 -17.261 0.954 -17.261 0.297 72.47
7487.583 0.298 72.4 0.953 -17.332 0.953 -17.332 0.298 72.4
7512.542 0.299 72.33 0.953 -17.403 0.953 -17.403 0.299 72.33
7537.5 0.3 72.261 0.952 -17.474 0.952 -17.474 0.3 72.261
7562.458 0.301 72.191 0.952 -17.545 0.952 -17.545 0.301 72.191
7587.417 0.303 72.121 0.952 -17.615 0.952 -17.615 0.303 72.121
7612.375 0.304 72.052 0.951 -17.686 0.951 -17.686 0.304 72.052
7637.333 0.305 71.982 0.951 -17.757 0.951 -17.757 0.305 71.982
7662.292 0.306 71.913 0.951 -17.827 0.951 -17.827 0.306 71.913
7687.25 0.307 71.844 0.95 -17.897 0.95 -17.897 0.307 71.844
7712.208 0.308 71.775 0.95 -17.967 0.95 -17.967 0.308 71.775
7737.167 0.31 71.706 0.949 -18.038 0.949 -18.038 0.31 71.706
7762.125 0.311 71.637 0.949 -18.107 0.949 -18.107 0.311 71.637
7787.083 0.312 71.568 0.949 -18.177 0.949 -18.177 0.312 71.568
7812.042 0.313 71.499 0.948 -18.247 0.948 -18.247 0.313 71.499
7837 0.314 71.431 0.948 -18.317 0.948 -18.317 0.314 71.431
7861.958 0.315 71.362 0.948 -18.386 0.948 -18.386 0.315 71.362
7886.917 0.317 71.294 0.947 -18.456 0.947 -18.456 0.317 71.294
7911.875 0.318 71.226 0.947 -18.525 0.947 -18.525 0.318 71.226
7936.833 0.319 71.157 0.946 -18.594 0.946 -18.594 0.319 71.157
7961.792 0.32 71.089 0.946 -18.663 0.946 -18.663 0.32 71.089
7986.75 0.321 71.021 0.946 -18.732 0.946 -18.732 0.321 71.021
8011.708 0.322 70.953 0.945 -18.801 0.945 -18.801 0.322 70.953
8036.667 0.323 70.885 0.945 -18.87 0.945 -18.87 0.323 70.885
8061.625 0.325 70.818 0.944 -18.939 0.944 -18.939 0.325 70.818
8086.583 0.326 70.75 0.944 -19.008 0.944 -19.008 0.326 70.75
8111.542 0.327 70.682 0.944 -19.076 0.944 -19.076 0.327 70.682
8136.5 0.328 70.615 0.943 -19.145 0.943 -19.145 0.328 70.615
8161.458 0.329 70.547 0.943 -19.213 0.943 -19.213 0.329 70.547
8186.417 0.33 70.48 0.943 -19.281 0.943 -19.281 0.33 70.48
