# MHZ S MA R 50

50 0.999 -2.519 0.044 87.476 0.044 87.476 0.999 -2.519
74.958 0.998 -3.773 0.066 86.218 0.066 86.218 0.998 -3.773
99.917 0.996 -5.025 0.088 84.964 0.088 84.964 0.996 -5.025
124.875 0.994 -6.273 0.109 83.714 0.109 83.714 0.994 -6.273
149.833 0.991 -7.515 0.131 82.468 0.131 82.468 0.991 -7.515
174.792 0.988 -8.752 0.152 81.229 0.152 81.229 0.988 -8.752
199.75 0.985 -9.982 0.173 79.996 0.173 79.996 0.985 -9.982
224.708 0.981 -11.204 0.194 78.771 0.194 78.771 0.981 -11.204
249.667 0.977 -12.418 0.215 77.555 0.215 77.555 0.977 -12.418
274.625 0.972 -13.622 0.236 76.347 0.236 76.347 0.972 -13.622
299.583 0.967 -14.817 0.256 75.15 0.256 75.15 0.967 -14.817
324.542 0.961 -16 0.276 73.964 0.276 73.964 0.961 -16
349.5 0.955 -17.172 0.295 72.789 0.295 72.789 0.955 -17.172
374.458 0.949 -18.332 0.315 71.627 0.315 71.627 0.949 -18.332
399.417 0.943 -19.479 0.333 70.477 0.333 70.477 0.943 -19.479
424.375 0.936 -20.613 0.352 69.34 0.352 69.34 0.936 -20.613
449.333 0.929 -21.733 0.37 68.217 0.37 68.217 0.929 -21.733
474.292 0.921 -22.839 0.388 67.108 0.388 67.108 0.921 -22.839
499.25 0.914 -23.931 0.406 66.014 0.406 66.014 0.914 -23.931
524.208 0.906 -25.008 0.423 64.934 0.423 64.934 0.906 -25.008
549.167 0.898 -26.07 0.439 63.869 0.439 63.869 0.898 -26.07
574.125 0.89 -27.116 0.456 62.82 0.456 62.82 0.89 -27.116
599.083 0.881 -28.147 0.472 61.786 0.472 61.786 0.881 -28.147
624.042 0.873 -29.162 0.487 60.768 0.487 60.768 0.873 -29.162
649 0.864 -30.162 0.502 59.766 0.502 59.766 0.864 -30.162
673.958 0.855 -31.145 0.517 58.779 0.517 58.779 0.855 -31.145
698.917 0.846 -32.113 0.532 57.809 0.532 57.809 0.846 -32.113
723.875 0.837 -33.064 0.546 56.854 0.546 56.854 0.837 -33.064
748.833 0.828 -34 0.559 55.916 0.559 55.916 0.828 -34
773.792 0.819 -34.92 0.572 54.993 0.572 54.993 0.819 -34.92
798.75 0.81 -35.824 0.585 54.086 0.585 54.086 0.81 -35.824
823.708 0.801 -36.712 0.598 53.195 0.598 53.195 0.801 -36.712
848.667 0.791 -37.584 0.61 52.319 0.61 52.319 0.791 -37.584
873.625 0.782 -38.442 0.622 51.459 0.622 51.459 0.782 -38.442
898.583 0.773 -39.283 0.633 50.614 0.633 50.614 0.773 -39.283
923.542 0.764 -40.11 0.644 49.784 0.644 49.784 0.764 -40.11
948.5 0.754 -40.922 0.655 48.97 0.655 48.97 0.754 -40.922
973.458 0.745 -41.719 0.665 48.17 0.665 48.17 0.745 -41.719
998.417 0.736 -42.501 0.676 47.384 0.676 47.384 0.736 -42.501
1023.375 0.727 -43.269 0.685 46.613 0.685 46.613 0.727 -43.269
1048.333 0.718 -44.023 0.695 45.856 0.695 45.856 0.718 -44.023
1073.292 0.708 -44.763 0.704 45.112 0.704 45.112 0.708 -44.763
1098.25 0.699 -45.49 0.713 44.383 0.713 44.383 0.699 -45.49
1123.208 0.69 -46.203 0.722 43.666 0.722 43.666 0.69 -46.203
1148.167 0.682 -46.903 0.73 42.963 0.73 42.963 0.682 -46.903
1173.125 0.673 -47.59 0.738 42.273 0.738 42.273 0.673 -47.59
1198.083 0.664 -48.264 0.746 41.595 0.746 41.595 0.664 -48.264
1223.042 0.655 -48.927 0.754 40.93 0.754 40.93 0.655 -48.927
1248 0.646 -49.576 0.761 40.276 0.761 40.276 0.646 -49.576
1272.958 0.638 -50.214 0.768 39.635 0.768 39.635 0.638 -50.214
1297.917 0.629 -50.841 0.775 39.005 0.775 39.005 0.629 -50.841
1322.875 0.621 -51.456 0.782 38.387 0.782 38.387 0.621 -51.456
1347.833 0.613 -52.06 0.789 37.779 0.789 37.779 0.613 -52.06
1372.792 0.604 -52.653 0.795 37.183 0.795 37.183 0.604 -52.653
1397.75 0.596 -53.235 0.801 36.597 0.801 36.597 0.596 -53.235
1422.708 0.588 -53.807 0.807 36.022 0.807 36.022 0.588 -53.807
1447.667 0.58 -54.369 0.813 35.456 0.813 35.456 0.58 -54.369
1472.625 0.572 -54.921 0.818 34.901 0.818 34.901 0.572 -54.921
1497.583 0.564 -55.463 0.824 34.355 0.824 34.355 0.564 -55.463
1522.542 0.557 -55.995 0.829 33.819 0.829 33.819 0.557 -55.995
1547.5 0.549 -56.519 0.834 33.291 0.834 33.291 0.549 -56.519
1572.458 0.541 -57.033 0.839 32.773 0.839 32.773 0.541 -57.033
1597.417 0.534 -57.538 0.844 32.264 0.844 32.264 0.534 -57.538
1622.375 0.526 -58.035 0.848 31.763 0.848 31.763 0.526 -58.035
1647.333 0.519 -58.524 0.853 31.271 0.853 31.271 0.519 -58.524
1672.292 0.512 -59.004 0.857 30.787 0.857 30.787 0.512 -59.004
1697.25 0.505 -59.476 0.861 30.311 0.861 30.311 0.505 -59.476
1722.208 0.498 -59.941 0.866 29.842 0.866 29.842 0.498 -59.941
1747.167 0.491 -60.397 0.869 29.381 0.869 29.381 0.491 -60.397
1772.125 0.484 -60.846 0.873 28.928 0.873 28.928 0.484 -60.846
1797.083 0.477 -61.288 0.877 28.482 0.877 28.482 0.477 -61.288
1822.042 0.47 -61.723 0.881 28.043 0.881 28.043 0.47 -61.723
1847 0.463 -62.151 0.884 27.611 0.884 27.611 0.463 -62.151
1871.958 0.457 -62.572 0.888 27.185 0.888 27.185 0.457 -62.572
1896.917 0.45 -62.986 0.891 26.766 0.891 26.766 0.45 -62.986
1921.875 0.444 -63.394 0.894 26.354 0.894 26.354 0.444 -63.394
1946.833 0.438 -63.796 0.897 25.948 0.897 25.948 0.438 -63.796
1971.792 0.431 -64.192 0.9 25.548 0.9 25.548 0.431 -64.192
1996.75 0.425 -64.581 0.903 25.154 0.903 25.154 0.425 -64.581
2021.708 0.419 -64.964 0.906 24.765 0.906 24.765 0.419 -64.964
2046.667 0.413 -65.342 0.909 24.383 0.909 24.383 0.413 -65.342
2071.625 0.407 -65.714 0.912 24.006 0.912 24.006 0.407 -65.714
2096.583 0.401 -66.081 0.914 23.634 0.914 23.634 0.401 -66.081
2121.542 0.395 -66.442 0.917 23.268 0.917 23.268 0.395 -66.442
2146.5 0.389 -66.798 0.919 22.907 0.919 22.907 0.389 -66.798
2171.458 0.384 -67.149 0.922 22.551 0.922 22.551 0.384 -67.149
2196.417 0.378 -67.495 0.924 22.199 0.924 22.199 0.378 -67.495
2221.375 0.372 -67.836 0.926 21.853 0.926 21.853 0.372 -67.836
2246.333 0.367 -68.172 0.928 21.511 0.928 21.511 0.367 -68.172
2271.292 0.361 -68.504 0.93 21.174 0.93 21.174 0.361 -68.504
2296.25 0.356 -68.831 0.933 20.842 0.933 20.842 0.356 -68.831
2321.208 0.35 -69.153 0.935 20.514 0.935 20.514 0.35 -69.153
2346.167 0.345 -69.471 0.937 20.19 0.937 20.19 0.345 -69.471
2371.125 0.34 -69.785 0.938 19.87 0.938 19.87 0.34 -69.785
2396.083 0.335 -70.094 0.94 19.555 0.94 19.555 0.335 -70.094
2421.042 0.33 -70.4 0.942 19.243 0.942 19.243 0.33 -70.4
2446 0.325 -70.701 0.944 18.935 0.944 18.935 0.325 -70.701
2470.958 0.319 -70.999 0.946 18.632 0.946 18.632 0.319 -70.999
2495.917 0.315 -71.292 0.947 18.332 0.947 18.332 0.315 -71.292
2520.875 0.31 -71.582 0.949 18.035 0.949 18.035 0.31 -71.582
2545.833 0.305 -71.868 0.95 17.742 0.95 17.742 0.305 -71.868
2570.792 0.3 -72.15 0.952 17.453 0.952 17.453 0.3 -72.15
2595.75 0.295 -72.429 0.953 17.167 0.953 17.167 0.295 -72.429
2620.708 0.29 -72.705 0.955 16.885 0.955 16.885 0.29 -72.705
2645.667 0.286 -72.977 0.956 16.605 0.956 16.605 0.286 -72.977
2670.625 0.281 -73.245 0.958 16.329 0.958 16.329 0.281 -73.245
2695.583 0.277 -73.51 0.959 16.057 0.959 16.057 0.277 -73.51
2720.542 0.272 -73.772 0.96 15.787 0.96 15.787 0.272 -73.772
2745.5 0.268 -74.031 0.961 15.52 0.961 15.52 0.268 -74.031
2770.458 0.263 -74.287 0.963 15.256 0.963 15.256 0.263 -74.287
2795.417 0.259 -74.539 0.964 14.995 0.964 14.995 0.259 -74.539
2820.375 0.254 -74.789 0.965 14.737 0.965 14.737 0.254 -74.789
2845.333 0.25 -75.036 0.966 14.482 0.966 14.482 0.25 -75.036
2870.292 0.246 -75.279 0.967 14.229 0.967 14.229 0.246 -75.279
2895.25 0.242 -75.52 0.968 13.979 0.968 13.979 0.242 -75.52
2920.208 0.237 -75.758 0.969 13.732 0.969 13.732 0.237 -75.758
2945.167 0.233 -75.993 0.97 13.487 0.97 13.487 0.233 -75.993
2970.125 0.229 -76.226 0.971 13.245 0.971 13.245 0.229 -76.226
2995.083 0.225 -76.455 0.972 13.005 0.972 13.005 0.225 -76.455
3020.042 0.221 -76.683 0.973 12.767 0.973 12.767 0.221 -76.683
3045 0.217 -76.907 0.974 12.532 0.974 12.532 0.217 -76.907
3069.958 0.213 -77.129 0.975 12.299 0.975 12.299 0.213 -77.129
3094.917 0.209 -77.348 0.976 12.069 0.976 12.069 0.209 -77.348
3119.875 0.205 -77.565 0.977 11.841 0.977 11.841 0.205 -77.565
3144.833 0.201 -77.779 0.977 11.614 0.977 11.614 0.201 -77.779
3169.792 0.198 -77.991 0.978 11.39 0.978 11.39 0.198 -77.991
3194.75 0.194 -78.2 0.979 11.168 0.979 11.168 0.194 -78.2
3219.708 0.19 -78.407 0.98 10.949 0.98 10.949 0.19 -78.407
3244.667 0.186 -78.611 0.98 10.731 0.98 10.731 0.186 -78.611
3269.625 0.183 -78.813 0.981 10.515 0.981 10.515 0.183 -78.813
3294.583 0.179 -79.013 0.982 10.301 0.982 10.301 0.179 -79.013
3319.542 0.175 -79.21 0.982 10.089 0.982 10.089 0.175 -79.21
3344.5 0.172 -79.405 0.983 9.879 0.983 9.879 0.172 -79.405
3369.458 0.168 -79.598 0.984 9.67 0.984 9.67 0.168 -79.598
3394.417 0.164 -79.788 0.984 9.464 0.984 9.464 0.164 -79.788
3419.375 0.161 -79.976 0.985 9.259 0.985 9.259 0.161 -79.976
3444.333 0.157 -80.162 0.985 9.056 0.985 9.056 0.157 -80.162
3469.292 0.154 -80.345 0.986 8.855 0.986 8.855 0.154 -80.345
3494.25 0.151 -80.526 0.986 8.655 0.986 8.655 0.151 -80.526
3519.208 0.147 -80.704 0.987 8.457 0.987 8.457 0.147 -80.704
3544.167 0.144 -80.881 0.987 8.261 0.987 8.261 0.144 -80.881
3569.125 0.14 -81.054 0.988 8.066 0.988 8.066 0.14 -81.054
3594.083 0.137 -81.226 0.988 7.873 0.988 7.873 0.137 -81.226
3619.042 0.134 -81.395 0.989 7.681 0.989 7.681 0.134 -81.395
3644 0.13 -81.561 0.989 7.491 0.989 7.491 0.13 -81.561
3668.958 0.127 -81.725 0.99 7.302 0.99 7.302 0.127 -81.725
3693.917 0.124 -81.886 0.99 7.115 0.99 7.115 0.124 -81.886
3718.875 0.121 -82.045 0.991 6.929 0.991 6.929 0.121 -82.045
3743.833 0.117 -82.201 0.991 6.745 0.991 6.745 0.117 -82.201
3768.792 0.114 -82.355 0.991 6.562 0.991 6.562 0.114 -82.355
3793.75 0.111 -82.505 0.992 6.38 0.992 6.38 0.111 -82.505
3818.708 0.108 -82.653 0.992 6.2 0.992 6.2 0.108 -82.653
3843.667 0.105 -82.797 0.992 6.021 0.992 6.021 0.105 -82.797
3868.625 0.102 -82.939 0.993 5.843 0.993 5.843 0.102 -82.939
3893.583 0.099 -83.077 0.993 5.667 0.993 5.667 0.099 -83.077
3918.542 0.096 -83.212 0.993 5.491 0.993 5.491 0.096 -83.212
3943.5 0.093 -83.343 0.994 5.317 0.994 5.317 0.093 -83.343
3968.458 0.09 -83.471 0.994 5.145 0.994 5.145 0.09 -83.471
3993.417 0.087 -83.595 0.994 4.973 0.994 4.973 0.087 -83.595
4018.375 0.084 -83.714 0.994 4.803 0.994 4.803 0.084 -83.714
4043.333 0.081 -83.829 0.995 4.633 0.995 4.633 0.081 -83.829
4068.292 0.078 -83.939 0.995 4.465 0.995 4.465 0.078 -83.939
4093.25 0.075 -84.044 0.995 4.298 0.995 4.298 0.075 -84.044
4118.208 0.072 -84.143 0.995 4.132 0.995 4.132 0.072 -84.143
4143.167 0.069 -84.236 0.995 3.968 0.995 3.968 0.069 -84.236
4168.125 0.066 -84.322 0.996 3.804 0.996 3.804 0.066 -84.322
4193.083 0.064 -84.401 0.996 3.641 0.996 3.641 0.064 -84.401
4218.042 0.061 -84.471 0.996 3.48 0.996 3.48 0.061 -84.471
4243 0.058 -84.532 0.996 3.319 0.996 3.319 0.058 -84.532
4267.958 0.055 -84.583 0.996 3.159 0.996 3.159 0.055 -84.583
4292.917 0.052 -84.623 0.996 3.001 0.996 3.001 0.052 -84.623
4317.875 0.05 -84.648 0.997 2.843 0.997 2.843 0.05 -84.648
4342.833 0.047 -84.659 0.997 2.686 0.997 2.686 0.047 -84.659
4367.792 0.044 -84.651 0.997 2.531 0.997 2.531 0.044 -84.651
4392.75 0.042 -84.622 0.997 2.376 0.997 2.376 0.042 -84.622
4417.708 0.039 -84.568 0.997 2.222 0.997 2.222 0.039 -84.568
4442.667 0.036 -84.484 0.997 2.069 0.997 2.069 0.036 -84.484
4467.625 0.034 -84.364 0.997 1.917 0.997 1.917 0.034 -84.364
4492.583 0.031 -84.197 0.997 1.766 0.997 1.766 0.031 -84.197
4517.542 0.028 -83.973 0.997 1.615 0.997 1.615 0.028 -83.973
4542.5 0.026 -83.674 0.997 1.466 0.997 1.466 0.026 -83.674
4567.458 0.023 -83.277 0.998 1.317 0.998 1.317 0.023 -83.277
4592.417 0.021 -82.746 0.998 1.169 0.998 1.169 0.021 -82.746
4617.375 0.018 -82.026 0.998 1.022 0.998 1.022 0.018 -82.026
4642.333 0.015 -81.026 0.998 0.876 0.998 0.876 0.015 -81.026
4667.292 0.013 -79.587 0.998 0.731 0.998 0.731 0.013 -79.587
4692.25 0.01 -77.405 0.998 0.586 0.998 0.586 0.01 -77.405
4717.208 8.019e-3 -73.814 0.998 0.442 0.998 0.442 8.019e-3 -73.814
4742.167 5.656e-3 -67.078 0.998 0.299 0.998 0.299 5.656e-3 -67.078
4767.125 3.496e-3 -51.361 0.998 0.157 0.998 0.157 3.496e-3 -51.361
4792.083 2.192e-3 -6.962 0.998 0.015 0.998 0.015 2.192e-3 -6.962
4817.042 3.088e-3 45.084 0.998 -0.126 0.998 -0.126 3.088e-3 45.084
4842 5.122e-3 64.598 0.998 -0.266 0.998 -0.266 5.122e-3 64.598
4866.958 7.397e-3 72.489 0.998 -0.405 0.998 -0.405 7.397e-3 72.489
4891.917 9.736e-3 76.544 0.998 -0.544 0.998 -0.544 9.736e-3 76.544
4916.875 0.012 78.956 0.998 -0.682 0.998 -0.682 0.012 78.956
4941.833 0.014 80.527 0.998 -0.819 0.998 -0.819 0.014 80.527
4966.792 0.017 81.613 0.998 -0.956 0.998 -0.956 0.017 81.613
4991.75 0.019 82.394 0.998 -1.092 0.998 -1.092 0.019 82.394
5016.708 0.022 82.972 0.998 -1.227 0.998 -1.227 0.022 82.972
5041.667 0.024 83.408 0.998 -1.361 0.998 -1.361 0.024 83.408
5066.625 0.026 83.74 0.997 -1.495 0.997 -1.495 0.026 83.74
5091.583 0.029 83.996 0.997 -1.629 0.997 -1.629 0.029 83.996
5116.542 0.031 84.192 0.997 -1.762 0.997 -1.762 0.031 84.192
5141.5 0.033 84.341 0.997 -1.894 0.997 -1.894 0.033 84.341
5166.458 0.035 84.454 0.997 -2.025 0.997 -2.025 0.035 84.454
5191.417 0.038 84.536 0.997 -2.156 0.997 -2.156 0.038 84.536
5216.375 0.04 84.594 0.997 -2.286 0.997 -2.286 0.04 84.594
5241.333 0.042 84.632 0.997 -2.416 0.997 -2.416 0.042 84.632
5266.292 0.044 84.653 0.997 -2.545 0.997 -2.545 0.044 84.653
5291.25 0.047 84.659 0.997 -2.673 0.997 -2.673 0.047 84.659
5316.208 0.049 84.653 0.997 -2.801 0.997 -2.801 0.049 84.653
5341.167 0.051 84.636 0.997 -2.929 0.997 -2.929 0.051 84.636
5366.125 0.053 84.61 0.996 -3.056 0.996 -3.056 0.053 84.61
5391.083 0.056 84.577 0.996 -3.182 0.996 -3.182 0.056 84.577
5416.042 0.058 84.536 0.996 -3.308 0.996 -3.308 0.058 84.536
5441 0.06 84.49 0.996 -3.433 0.996 -3.433 0.06 84.49
5465.958 0.062 84.438 0.996 -3.557 0.996 -3.557 0.062 84.438
5490.917 0.064 84.382 0.996 -3.681 0.996 -3.681 0.064 84.382
5515.875 0.066 84.321 0.996 -3.805 0.996 -3.805 0.066 84.321
5540.833 0.069 84.257 0.995 -3.928 0.995 -3.928 0.069 84.257
5565.792 0.071 84.19 0.995 -4.051 0.995 -4.051 0.071 84.19
5590.75 0.073 84.119 0.995 -4.173 0.995 -4.173 0.073 84.119
5615.708 0.075 84.046 0.995 -4.294 0.995 -4.294 0.075 84.046
5640.667 0.077 83.971 0.995 -4.415 0.995 -4.415 0.077 83.971
5665.625 0.079 83.893 0.995 -4.536 0.995 -4.536 0.079 83.893
5690.583 0.081 83.814 0.995 -4.656 0.995 -4.656 0.081 83.814
5715.542 0.083 83.733 0.994 -4.776 0.994 -4.776 0.083 83.733
5740.5 0.085 83.65 0.994 -4.895 0.994 -4.895 0.085 83.65
5765.458 0.087 83.566 0.994 -5.013 0.994 -5.013 0.087 83.566
5790.417 0.089 83.48 0.994 -5.132 0.994 -5.132 0.089 83.48
5815.375 0.092 83.394 0.994 -5.249 0.994 -5.249 0.092 83.394
5840.333 0.094 83.307 0.993 -5.367 0.993 -5.367 0.094 83.307
5865.292 0.096 83.218 0.993 -5.484 0.993 -5.484 0.096 83.218
5890.25 0.098 83.129 0.993 -5.6 0.993 -5.6 0.098 83.129
5915.208 0.1 83.039 0.993 -5.716 0.993 -5.716 0.1 83.039
5940.167 0.102 82.948 0.993 -5.832 0.993 -5.832 0.102 82.948
5965.125 0.104 82.857 0.992 -5.947 0.992 -5.947 0.104 82.857
5990.083 0.106 82.765 0.992 -6.061 0.992 -6.061 0.106 82.765
6015.042 0.108 82.672 0.992 -6.176 0.992 -6.176 0.108 82.672
6040 0.11 82.58 0.992 -6.289 0.992 -6.289 0.11 82.58
6064.958 0.112 82.486 0.992 -6.403 0.992 -6.403 0.112 82.486
6089.917 0.113 82.393 0.991 -6.516 0.991 -6.516 0.113 82.393
6114.875 0.115 82.299 0.991 -6.629 0.991 -6.629 0.115 82.299
6139.833 0.117 82.205 0.991 -6.741 0.991 -6.741 0.117 82.205
6164.792 0.119 82.11 0.991 -6.853 0.991 -6.853 0.119 82.11
6189.75 0.121 82.016 0.99 -6.964 0.99 -6.964 0.121 82.016
6214.708 0.123 81.921 0.99 -7.075 0.99 -7.075 0.123 81.921
6239.667 0.125 81.826 0.99 -7.186 0.99 -7.186 0.125 81.826
6264.625 0.127 81.73 0.99 -7.296 0.99 -7.296 0.127 81.73
6289.583 0.129 81.635 0.99 -7.406 0.99 -7.406 0.129 81.635
6314.542 0.131 81.54 0.989 -7.515 0.989 -7.515 0.131 81.54
6339.5 0.133 81.444 0.989 -7.625 0.989 -7.625 0.133 81.444
6364.458 0.135 81.349 0.989 -7.733 0.989 -7.733 0.135 81.349
6389.417 0.136 81.253 0.988 -7.842 0.988 -7.842 0.136 81.253
6414.375 0.138 81.158 0.988 -7.95 0.988 -7.95 0.138 81.158
6439.333 0.14 81.062 0.988 -8.058 0.988 -8.058 0.14 81.062
6464.292 0.142 80.966 0.988 -8.165 0.988 -8.165 0.142 80.966
6489.25 0.144 80.871 0.987 -8.272 0.987 -8.272 0.144 80.871
6514.208 0.146 80.775 0.987 -8.378 0.987 -8.378 0.146 80.775
6539.167 0.148 80.68 0.987 -8.485 0.987 -8.485 0.148 80.68
6564.125 0.149 80.584 0.987 -8.591 0.987 -8.591 0.149 80.584
6589.083 0.151 80.489 0.986 -8.696 0.986 -8.696 0.151 80.489
6614.042 0.153 80.393 0.986 -8.802 0.986 -8.802 0.153 80.393
6639 0.155 80.298 0.986 -8.907 0.986 -8.907 0.155 80.298
6663.958 0.157 80.203 0.986 -9.011 0.986 -9.011 0.157 80.203
6688.917 0.158 80.108 0.985 -9.116 0.985 -9.116 0.158 80.108
6713.875 0.16 80.013 0.985 -9.22 0.985 -9.22 0.16 80.013
6738.833 0.162 79.918 0.985 -9.323 0.985 -9.323 0.162 79.918
6763.792 0.164 79.823 0.984 -9.426 0.984 -9.426 0.164 79.823
6788.75 0.166 79.728 0.984 -9.53 0.984 -9.53 0.166 79.728
6813.708 0.167 79.633 0.984 -9.632 0.984 -9.632 0.167 79.633
6838.667 0.169 79.539 0.983 -9.735 0.983 -9.735 0.169 79.539
6863.625 0.171 79.444 0.983 -9.837 0.983 -9.837 0.171 79.444
6888.583 0.173 79.35 0.983 -9.938 0.983 -9.938 0.173 79.35
6913.542 0.174 79.256 0.983 -10.04 0.983 -10.04 0.174 79.256
6938.5 0.176 79.162 0.982 -10.141 0.982 -10.141 0.176 79.162
6963.458 0.178 79.068 0.982 -10.242 0.982 -10.242 0.178 79.068
6988.417 0.18 78.974 0.982 -10.343 0.982 -10.343 0.18 78.974
7013.375 0.181 78.881 0.981 -10.443 0.981 -10.443 0.181 78.881
7038.333 0.183 78.787 0.981 -10.543 0.981 -10.543 0.183 78.787
7063.292 0.185 78.694 0.981 -10.643 0.981 -10.643 0.185 78.694
7088.25 0.186 78.601 0.98 -10.742 0.98 -10.742 0.186 78.601
7113.208 0.188 78.508 0.98 -10.841 0.98 -10.841 0.188 78.508
7138.167 0.19 78.415 0.98 -10.94 0.98 -10.94 0.19 78.415
7163.125 0.191 78.323 0.979 -11.038 0.979 -11.038 0.191 78.323
7188.083 0.193 78.23 0.979 -11.137 0.979 -11.137 0.193 78.23
7213.042 0.195 78.138 0.979 -11.235 0.979 -11.235 0.195 78.138
7238 0.197 78.045 0.978 -11.332 0.978 -11.332 0.197 78.045
7262.958 0.198 77.953 0.978 -11.43 0.978 -11.43 0.198 77.953
7287.917 0.2 77.862 0.978 -11.527 0.978 -11.527 0.2 77.862
7312.875 0.202 77.77 0.977 -11.624 0.977 -11.624 0.202 77.77
7337.833 0.203 77.678 0.977 -11.721 0.977 -11.721 0.203 77.678
7362.792 0.205 77.587 0.977 -11.817 0.977 -11.817 0.205 77.587
7387.75 0.206 77.496 0.976 -11.913 0.976 -11.913 0.206 77.496
7412.708 0.208 77.405 0.976 -12.009 0.976 -12.009 0.208 77.405
7437.667 0.21 77.314 0.976 -12.105 0.976 -12.105 0.21 77.314
7462.625 0.211 77.223 0.975 -12.2 0.975 -12.2 0.211 77.223
7487.583 0.213 77.133 0.975 -12.295 0.975 -12.295 0.213 77.133
7512.542 0.215 77.042 0.975 -12.39 0.975 -12.39 0.215 77.042
7537.5 0.216 76.952 0.974 -12.485 0.974 -12.485 0.216 76.952
7562.458 0.218 76.862 0.974 -12.579 0.974 -12.579 0.218 76.862
7587.417 0.219 76.772 0.974 -12.673 0.974 -12.673 0.219 76.772
7612.375 0.221 76.683 0.973 -12.767 0.973 -12.767 0.221 76.683
7637.333 0.223 76.593 0.973 -12.861 0.973 -12.861 0.223 76.593
7662.292 0.224 76.504 0.972 -12.954 0.972 -12.954 0.224 76.504
7687.25 0.226 76.415 0.972 -13.047 0.972 -13.047 0.226 76.415
7712.208 0.227 76.326 0.972 -13.14 0.972 -13.14 0.227 76.326
7737.167 0.229 76.237 0.971 -13.233 0.971 -13.233 0.229 76.237
7762.125 0.23 76.149 0.971 -13.325 0.971 -13.325 0.23 76.149
7787.083 0.232 76.06 0.971 -13.417 0.971 -13.417 0.232 76.06
7812.042 0.234 75.972 0.97 -13.509 0.97 -13.509 0.234 75.972
7837 0.235 75.884 0.97 -13.601 0.97 -13.601 0.235 75.884
7861.958 0.237 75.796 0.969 -13.692 0.969 -13.692 0.237 75.796
7886.917 0.238 75.708 0.969 -13.784 0.969 -13.784 0.238 75.708
7911.875 0.24 75.621 0.969 -13.875 0.969 -13.875 0.24 75.621
7936.833 0.241 75.533 0.968 -13.966 0.968 -13.966 0.241 75.533
7961.792 0.243 75.446 0.968 -14.056 0.968 -14.056 0.243 75.446
7986.75 0.244 75.359 0.968 -14.147 0.968 -14.147 0.244 75.359
8011.708 0.246 75.272 0.967 -14.237 0.967 -14.237 0.246 75.272
8036.667 0.247 75.185 0.967 -14.327 0.967 -14.327 0.247 75.185
8061.625 0.249 75.099 0.966 -14.416 0.966 -14.416 0.249 75.099
8086.583 0.25 75.012 0.966 -14.506 0.966 -14.506 0.25 75.012
8111.542 0.252 74.926 0.966 -14.595 0.966 -14.595 0.252 74.926
8136.5 0.253 74.84 0.965 -14.684 0.965 -14.684 0.253 74.84
8161.458 0.255 74.754 0.965 -14.773 0.965 -14.773 0.255 74.754
8186.417 0.256 74.669 0.964 -14.862 0.964 -14.862 0.256 74.669
