# MHZ S MA R 50

50 0.998 -3.147 0.055 86.847 0.055 86.847 0.998 -3.147
74.958 0.997 -4.713 0.082 85.278 0.082 85.278 0.997 -4.713
99.917 0.994 -6.273 0.109 83.715 0.109 83.715 0.994 -6.273
124.875 0.991 -7.824 0.136 82.16 0.136 82.16 0.991 -7.824
149.833 0.987 -9.366 0.163 80.615 0.163 80.615 0.987 -9.366
174.792 0.982 -10.896 0.189 79.083 0.189 79.083 0.982 -10.896
199.75 0.977 -12.412 0.215 77.563 0.215 77.563 0.977 -12.412
224.708 0.971 -13.913 0.24 76.059 0.24 76.059 0.971 -13.913
249.667 0.964 -15.397 0.266 74.572 0.266 74.572 0.964 -15.397
274.625 0.957 -16.863 0.29 73.102 0.29 73.102 0.957 -16.863
299.583 0.949 -18.31 0.314 71.652 0.314 71.652 0.949 -18.31
324.542 0.941 -19.736 0.338 70.223 0.338 70.223 0.941 -19.736
349.5 0.932 -21.141 0.361 68.815 0.361 68.815 0.932 -21.141
374.458 0.923 -22.523 0.383 67.43 0.383 67.43 0.923 -22.523
399.417 0.914 -23.882 0.405 66.068 0.405 66.068 0.914 -23.882
424.375 0.904 -25.217 0.426 64.73 0.426 64.73 0.904 -25.217
449.333 0.894 -26.527 0.447 63.416 0.447 63.416 0.894 -26.527
474.292 0.884 -27.813 0.467 62.127 0.467 62.127 0.884 -27.813
499.25 0.873 -29.073 0.486 60.864 0.486 60.864 0.873 -29.073
524.208 0.863 -30.308 0.505 59.626 0.505 59.626 0.863 -30.308
549.167 0.852 -31.517 0.523 58.413 0.523 58.413 0.852 -31.517
574.125 0.841 -32.701 0.54 57.226 0.54 57.226 0.841 -32.701
599.083 0.83 -33.859 0.557 56.065 0.557 56.065 0.83 -33.859
624.042 0.818 -34.992 0.573 54.929 0.573 54.929 0.818 -34.992
649 0.807 -36.099 0.589 53.819 0.589 53.819 0.807 -36.099
673.958 0.796 -37.181 0.604 52.733 0.604 52.733 0.796 -37.181
698.917 0.784 -38.238 0.619 51.673 0.619 51.673 0.784 -38.238
723.875 0.773 -39.271 0.633 50.636 0.633 50.636 0.773 -39.271
748.833 0.762 -40.28 0.647 49.624 0.647 49.624 0.762 -40.28
773.792 0.751 -41.265 0.66 48.636 0.66 48.636 0.751 -41.265
798.75 0.739 -42.227 0.672 47.67 0.672 47.67 0.739 -42.227
823.708 0.728 -43.166 0.684 46.728 0.684 46.728 0.728 -43.166
848.667 0.717 -44.083 0.696 45.808 0.696 45.808 0.717 -44.083
873.625 0.706 -44.978 0.707 44.909 0.707 44.909 0.706 -44.978
898.583 0.695 -45.851 0.718 44.032 0.718 44.032 0.695 -45.851
923.542 0.684 -46.704 0.728 43.176 0.728 43.176 0.684 -46.704
948.5 0.674 -47.536 0.738 42.34 0.738 42.34 0.674 -47.536
973.458 0.663 -48.349 0.747 41.524 0.747 41.524 0.663 -48.349
998.417 0.652 -49.142 0.756 40.727 0.756 40.727 0.652 -49.142
1023.375 0.642 -49.916 0.765 39.949 0.765 39.949 0.642 -49.916
1048.333 0.632 -50.673 0.774 39.189 0.774 39.189 0.632 -50.673
1073.292 0.622 -51.411 0.782 38.447 0.782 38.447 0.622 -51.411
1098.25 0.612 -52.132 0.789 37.722 0.789 37.722 0.612 -52.132
1123.208 0.602 -52.836 0.797 37.014 0.797 37.014 0.602 -52.836
1148.167 0.592 -53.525 0.804 36.322 0.804 36.322 0.592 -53.525
1173.125 0.583 -54.197 0.811 35.646 0.811 35.646 0.583 -54.197
1198.083 0.573 -54.854 0.818 34.985 0.818 34.985 0.573 -54.854
1223.042 0.564 -55.496 0.824 34.339 0.824 34.339 0.564 -55.496
1248 0.555 -56.123 0.83 33.708 0.83 33.708 0.555 -56.123
1272.958 0.546 -56.737 0.836 33.09 0.836 33.09 0.546 -56.737
1297.917 0.537 -57.337 0.842 32.486 0.842 32.486 0.537 -57.337
1322.875 0.528 -57.923 0.847 31.896 0.847 31.896 0.528 -57.923
1347.833 0.52 -58.497 0.853 31.318 0.853 31.318 0.52 -58.497
1372.792 0.511 -59.059 0.858 30.752 0.858 30.752 0.511 -59.059
1397.75 0.503 -59.608 0.863 30.198 0.863 30.198 0.503 -59.608
1422.708 0.495 -60.146 0.867 29.656 0.867 29.656 0.495 -60.146
1447.667 0.487 -60.672 0.872 29.126 0.872 29.126 0.487 -60.672
1472.625 0.479 -61.188 0.876 28.606 0.876 28.606 0.479 -61.188
1497.583 0.471 -61.692 0.88 28.096 0.88 28.096 0.471 -61.692
1522.542 0.463 -62.187 0.884 27.598 0.884 27.598 0.463 -62.187
1547.5 0.456 -62.671 0.888 27.109 0.888 27.109 0.456 -62.671
1572.458 0.448 -63.146 0.892 26.629 0.892 26.629 0.448 -63.146
1597.417 0.441 -63.611 0.896 26.159 0.896 26.159 0.441 -63.611
1622.375 0.434 -64.067 0.899 25.698 0.899 25.698 0.434 -64.067
1647.333 0.427 -64.515 0.903 25.246 0.903 25.246 0.427 -64.515
1672.292 0.42 -64.953 0.906 24.803 0.906 24.803 0.42 -64.953
1697.25 0.413 -65.383 0.909 24.368 0.909 24.368 0.413 -65.383
1722.208 0.406 -65.806 0.912 23.941 0.912 23.941 0.406 -65.806
1747.167 0.399 -66.22 0.915 23.521 0.915 23.521 0.399 -66.22
1772.125 0.392 -66.626 0.918 23.11 0.918 23.11 0.392 -66.626
1797.083 0.386 -67.025 0.921 22.705 0.921 22.705 0.386 -67.025
1822.042 0.38 -67.417 0.923 22.308 0.923 22.308 0.38 -67.417
1847 0.373 -67.802 0.926 21.918 0.926 21.918 0.373 -67.802
1871.958 0.367 -68.18 0.928 21.534 0.928 21.534 0.367 -68.18
1896.917 0.361 -68.551 0.931 21.158 0.931 21.158 0.361 -68.551
1921.875 0.355 -68.916 0.933 20.787 0.933 20.787 0.355 -68.916
1946.833 0.349 -69.275 0.935 20.423 0.935 20.423 0.349 -69.275
1971.792 0.343 -69.627 0.937 20.064 0.937 20.064 0.343 -69.627
1996.75 0.337 -69.974 0.94 19.712 0.94 19.712 0.337 -69.974
2021.708 0.332 -70.314 0.942 19.365 0.942 19.365 0.332 -70.314
2046.667 0.326 -70.649 0.944 19.024 0.944 19.024 0.326 -70.649
2071.625 0.32 -70.979 0.945 18.688 0.945 18.688 0.32 -70.979
2096.583 0.315 -71.303 0.947 18.357 0.947 18.357 0.315 -71.303
2121.542 0.31 -71.622 0.949 18.032 0.949 18.032 0.31 -71.622
2146.5 0.304 -71.936 0.951 17.711 0.951 17.711 0.304 -71.936
2171.458 0.299 -72.245 0.952 17.395 0.952 17.395 0.299 -72.245
2196.417 0.294 -72.549 0.954 17.084 0.954 17.084 0.294 -72.549
2221.375 0.289 -72.849 0.956 16.777 0.956 16.777 0.289 -72.849
2246.333 0.284 -73.144 0.957 16.475 0.957 16.475 0.284 -73.144
2271.292 0.279 -73.434 0.959 16.177 0.959 16.177 0.279 -73.434
2296.25 0.274 -73.72 0.96 15.884 0.96 15.884 0.274 -73.72
2321.208 0.269 -74.002 0.961 15.594 0.961 15.594 0.269 -74.002
2346.167 0.264 -74.28 0.963 15.309 0.963 15.309 0.264 -74.28
2371.125 0.259 -74.553 0.964 15.027 0.964 15.027 0.259 -74.553
2396.083 0.255 -74.823 0.965 14.749 0.965 14.749 0.255 -74.823
2421.042 0.25 -75.088 0.966 14.475 0.966 14.475 0.25 -75.088
2446 0.245 -75.35 0.968 14.205 0.968 14.205 0.245 -75.35
2470.958 0.241 -75.608 0.969 13.938 0.969 13.938 0.241 -75.608
2495.917 0.236 -75.862 0.97 13.674 0.97 13.674 0.236 -75.862
2520.875 0.232 -76.113 0.971 13.414 0.971 13.414 0.232 -76.113
2545.833 0.228 -76.361 0.972 13.157 0.972 13.157 0.228 -76.361
2570.792 0.223 -76.604 0.973 12.904 0.973 12.904 0.223 -76.604
2595.75 0.219 -76.845 0.974 12.653 0.974 12.653 0.219 -76.845
2620.708 0.215 -77.082 0.975 12.406 0.975 12.406 0.215 -77.082
2645.667 0.211 -77.316 0.976 12.161 0.976 12.161 0.211 -77.316
2670.625 0.207 -77.547 0.977 11.919 0.977 11.919 0.207 -77.547
2695.583 0.202 -77.774 0.977 11.681 0.977 11.681 0.202 -77.774
2720.542 0.198 -77.999 0.978 11.444 0.978 11.444 0.198 -77.999
2745.5 0.194 -78.22 0.979 11.211 0.979 11.211 0.194 -78.22
2770.458 0.19 -78.439 0.98 10.98 0.98 10.98 0.19 -78.439
2795.417 0.187 -78.654 0.981 10.752 0.981 10.752 0.187 -78.654
2820.375 0.183 -78.867 0.981 10.527 0.981 10.527 0.183 -78.867
2845.333 0.179 -79.077 0.982 10.303 0.982 10.303 0.179 -79.077
2870.292 0.175 -79.284 0.983 10.083 0.983 10.083 0.175 -79.284
2895.25 0.171 -79.488 0.983 9.864 0.983 9.864 0.171 -79.488
2920.208 0.168 -79.689 0.984 9.648 0.984 9.648 0.168 -79.689
2945.167 0.164 -79.888 0.985 9.434 0.985 9.434 0.164 -79.888
2970.125 0.16 -80.083 0.985 9.223 0.985 9.223 0.16 -80.083
2995.083 0.157 -80.276 0.986 9.013 0.986 9.013 0.157 -80.276
3020.042 0.153 -80.467 0.986 8.806 0.986 8.806 0.153 -80.467
3045 0.15 -80.654 0.987 8.601 0.987 8.601 0.15 -80.654
3069.958 0.146 -80.839 0.987 8.397 0.987 8.397 0.146 -80.839
3094.917 0.143 -81.022 0.988 8.196 0.988 8.196 0.143 -81.022
3119.875 0.139 -81.201 0.988 7.997 0.988 7.997 0.139 -81.201
3144.833 0.136 -81.378 0.989 7.799 0.989 7.799 0.136 -81.378
3169.792 0.132 -81.552 0.989 7.604 0.989 7.604 0.132 -81.552
3194.75 0.129 -81.724 0.99 7.41 0.99 7.41 0.129 -81.724
3219.708 0.126 -81.892 0.99 7.218 0.99 7.218 0.126 -81.892
3244.667 0.122 -82.058 0.991 7.028 0.991 7.028 0.122 -82.058
3269.625 0.119 -82.221 0.991 6.839 0.991 6.839 0.119 -82.221
3294.583 0.116 -82.382 0.991 6.652 0.991 6.652 0.116 -82.382
3319.542 0.113 -82.539 0.992 6.467 0.992 6.467 0.113 -82.539
3344.5 0.109 -82.693 0.992 6.284 0.992 6.284 0.109 -82.693
3369.458 0.106 -82.844 0.992 6.102 0.992 6.102 0.106 -82.844
3394.417 0.103 -82.993 0.993 5.921 0.993 5.921 0.103 -82.993
3419.375 0.1 -83.137 0.993 5.742 0.993 5.742 0.1 -83.137
3444.333 0.097 -83.279 0.993 5.565 0.993 5.565 0.097 -83.279
3469.292 0.094 -83.417 0.994 5.389 0.994 5.389 0.094 -83.417
3494.25 0.091 -83.551 0.994 5.214 0.994 5.214 0.091 -83.551
3519.208 0.088 -83.682 0.994 5.041 0.994 5.041 0.088 -83.682
3544.167 0.085 -83.808 0.994 4.869 0.994 4.869 0.085 -83.808
3569.125 0.082 -83.93 0.995 4.699 0.995 4.699 0.082 -83.93
3594.083 0.079 -84.048 0.995 4.53 0.995 4.53 0.079 -84.048
3619.042 0.076 -84.161 0.995 4.362 0.995 4.362 0.076 -84.161
3644 0.073 -84.269 0.995 4.196 0.995 4.196 0.073 -84.269
3668.958 0.07 -84.371 0.996 4.031 0.996 4.031 0.07 -84.371
3693.917 0.067 -84.467 0.996 3.867 0.996 3.867 0.067 -84.467
3718.875 0.065 -84.556 0.996 3.704 0.996 3.704 0.065 -84.556
3743.833 0.062 -84.638 0.996 3.542 0.996 3.542 0.062 -84.638
3768.792 0.059 -84.712 0.996 3.382 0.996 3.382 0.059 -84.712
3793.75 0.056 -84.777 0.996 3.223 0.996 3.223 0.056 -84.777
3818.708 0.054 -84.832 0.997 3.065 0.997 3.065 0.054 -84.832
3843.667 0.051 -84.875 0.997 2.908 0.997 2.908 0.051 -84.875
3868.625 0.048 -84.905 0.997 2.752 0.997 2.752 0.048 -84.905
3893.583 0.045 -84.92 0.997 2.597 0.997 2.597 0.045 -84.92
3918.542 0.043 -84.918 0.997 2.443 0.997 2.443 0.043 -84.918
3943.5 0.04 -84.895 0.997 2.291 0.997 2.291 0.04 -84.895
3968.458 0.037 -84.847 0.997 2.139 0.997 2.139 0.037 -84.847
3993.417 0.035 -84.77 0.997 1.988 0.997 1.988 0.035 -84.77
4018.375 0.032 -84.656 0.998 1.839 0.998 1.839 0.032 -84.656
4043.333 0.03 -84.497 0.998 1.69 0.998 1.69 0.03 -84.497
4068.292 0.027 -84.28 0.998 1.542 0.998 1.542 0.027 -84.28
4093.25 0.024 -83.989 0.998 1.395 0.998 1.395 0.024 -83.989
4118.208 0.022 -83.599 0.998 1.25 0.998 1.25 0.022 -83.599
4143.167 0.019 -83.072 0.998 1.105 0.998 1.105 0.019 -83.072
4168.125 0.017 -82.35 0.998 0.961 0.998 0.961 0.017 -82.35
4193.083 0.014 -81.334 0.998 0.817 0.998 0.817 0.014 -81.334
4218.042 0.012 -79.849 0.998 0.675 0.998 0.675 0.012 -79.849
4243 9.518e-3 -77.542 0.998 0.534 0.998 0.534 9.518e-3 -77.542
4267.958 7.134e-3 -73.607 0.998 0.393 0.998 0.393 7.134e-3 -73.607
4292.917 4.836e-3 -65.752 0.998 0.253 0.998 0.253 4.836e-3 -65.752
4317.875 2.799e-3 -45.259 0.998 0.114 0.998 0.114 2.799e-3 -45.259
4342.833 2.011e-3 12.013 0.998 -0.024 0.998 -0.024 2.011e-3 12.013
4367.792 3.436e-3 54.921 0.998 -0.161 0.998 -0.161 3.436e-3 54.921
4392.75 5.561e-3 68.992 0.998 -0.298 0.998 -0.298 5.561e-3 68.992
4417.708 7.823e-3 75.008 0.998 -0.434 0.998 -0.434 7.823e-3 75.008
4442.667 0.01 78.229 0.998 -0.569 0.998 -0.569 0.01 78.229
4467.625 0.012 80.195 0.998 -0.703 0.998 -0.703 0.012 80.195
4492.583 0.015 81.496 0.998 -0.837 0.998 -0.837 0.015 81.496
4517.542 0.017 82.403 0.998 -0.97 0.998 -0.97 0.017 82.403
4542.5 0.019 83.06 0.998 -1.102 0.998 -1.102 0.019 83.06
4567.458 0.022 83.548 0.998 -1.233 0.998 -1.233 0.022 83.548
4592.417 0.024 83.915 0.998 -1.364 0.998 -1.364 0.024 83.915
4617.375 0.026 84.194 0.998 -1.494 0.998 -1.494 0.026 84.194
4642.333 0.028 84.408 0.998 -1.624 0.998 -1.624 0.028 84.408
4667.292 0.031 84.57 0.998 -1.752 0.998 -1.752 0.031 84.57
4692.25 0.033 84.692 0.997 -1.881 0.997 -1.881 0.033 84.692
4717.208 0.035 84.782 0.997 -2.008 0.997 -2.008 0.035 84.782
4742.167 0.037 84.845 0.997 -2.135 0.997 -2.135 0.037 84.845
4767.125 0.04 84.888 0.997 -2.261 0.997 -2.261 0.04 84.888
4792.083 0.042 84.912 0.997 -2.387 0.997 -2.387 0.042 84.912
4817.042 0.044 84.921 0.997 -2.512 0.997 -2.512 0.044 84.921
4842 0.046 84.918 0.997 -2.636 0.997 -2.636 0.046 84.918
4866.958 0.048 84.904 0.997 -2.76 0.997 -2.76 0.048 84.904
4891.917 0.05 84.881 0.997 -2.883 0.997 -2.883 0.05 84.881
4916.875 0.052 84.85 0.997 -3.005 0.997 -3.005 0.052 84.85
4941.833 0.055 84.811 0.997 -3.127 0.997 -3.127 0.055 84.811
4966.792 0.057 84.767 0.996 -3.249 0.996 -3.249 0.057 84.767
4991.75 0.059 84.717 0.996 -3.37 0.996 -3.37 0.059 84.717
5016.708 0.061 84.663 0.996 -3.49 0.996 -3.49 0.061 84.663
5041.667 0.063 84.605 0.996 -3.61 0.996 -3.61 0.063 84.605
5066.625 0.065 84.543 0.996 -3.729 0.996 -3.729 0.065 84.543
5091.583 0.067 84.477 0.996 -3.848 0.996 -3.848 0.067 84.477
5116.542 0.069 84.409 0.996 -3.966 0.996 -3.966 0.069 84.409
5141.5 0.071 84.338 0.995 -4.084 0.995 -4.084 0.071 84.338
5166.458 0.073 84.265 0.995 -4.201 0.995 -4.201 0.073 84.265
5191.417 0.075 84.19 0.995 -4.318 0.995 -4.318 0.075 84.19
5216.375 0.077 84.113 0.995 -4.434 0.995 -4.434 0.077 84.113
5241.333 0.079 84.035 0.995 -4.55 0.995 -4.55 0.079 84.035
5266.292 0.081 83.954 0.995 -4.665 0.995 -4.665 0.081 83.954
5291.25 0.083 83.873 0.995 -4.78 0.995 -4.78 0.083 83.873
5316.208 0.085 83.79 0.994 -4.894 0.994 -4.894 0.085 83.79
5341.167 0.087 83.706 0.994 -5.008 0.994 -5.008 0.087 83.706
5366.125 0.089 83.622 0.994 -5.121 0.994 -5.121 0.089 83.622
5391.083 0.091 83.536 0.994 -5.234 0.994 -5.234 0.091 83.536
5416.042 0.093 83.45 0.994 -5.347 0.994 -5.347 0.093 83.45
5441 0.095 83.362 0.994 -5.459 0.994 -5.459 0.095 83.362
5465.958 0.097 83.275 0.993 -5.57 0.993 -5.57 0.097 83.275
5490.917 0.099 83.186 0.993 -5.681 0.993 -5.681 0.099 83.186
5515.875 0.101 83.097 0.993 -5.792 0.993 -5.792 0.101 83.097
5540.833 0.103 83.008 0.993 -5.902 0.993 -5.902 0.103 83.008
5565.792 0.105 82.918 0.993 -6.012 0.993 -6.012 0.105 82.918
5590.75 0.107 82.828 0.992 -6.122 0.992 -6.122 0.107 82.828
5615.708 0.109 82.737 0.992 -6.231 0.992 -6.231 0.109 82.737
5640.667 0.11 82.647 0.992 -6.339 0.992 -6.339 0.11 82.647
5665.625 0.112 82.556 0.992 -6.447 0.992 -6.447 0.112 82.556
5690.583 0.114 82.464 0.992 -6.555 0.992 -6.555 0.114 82.464
5715.542 0.116 82.373 0.991 -6.663 0.991 -6.663 0.116 82.373
5740.5 0.118 82.281 0.991 -6.77 0.991 -6.77 0.118 82.281
5765.458 0.12 82.189 0.991 -6.876 0.991 -6.876 0.12 82.189
5790.417 0.122 82.098 0.991 -6.983 0.991 -6.983 0.122 82.098
5815.375 0.123 82.006 0.99 -7.088 0.99 -7.088 0.123 82.006
5840.333 0.125 81.913 0.99 -7.194 0.99 -7.194 0.125 81.913
5865.292 0.127 81.821 0.99 -7.299 0.99 -7.299 0.127 81.821
5890.25 0.129 81.729 0.99 -7.404 0.99 -7.404 0.129 81.729
5915.208 0.131 81.637 0.989 -7.508 0.989 -7.508 0.131 81.637
5940.167 0.132 81.545 0.989 -7.612 0.989 -7.612 0.132 81.545
5965.125 0.134 81.452 0.989 -7.716 0.989 -7.716 0.134 81.452
5990.083 0.136 81.36 0.989 -7.819 0.989 -7.819 0.136 81.36
6015.042 0.138 81.268 0.989 -7.922 0.989 -7.922 0.138 81.268
6040 0.14 81.176 0.988 -8.025 0.988 -8.025 0.14 81.176
6064.958 0.141 81.084 0.988 -8.127 0.988 -8.127 0.141 81.084
6089.917 0.143 80.991 0.988 -8.229 0.988 -8.229 0.143 80.991
6114.875 0.145 80.899 0.988 -8.331 0.988 -8.331 0.145 80.899
6139.833 0.147 80.808 0.987 -8.432 0.987 -8.432 0.147 80.808
6164.792 0.148 80.716 0.987 -8.533 0.987 -8.533 0.148 80.716
6189.75 0.15 80.624 0.987 -8.634 0.987 -8.634 0.15 80.624
6214.708 0.152 80.532 0.986 -8.735 0.986 -8.735 0.152 80.532
6239.667 0.154 80.441 0.986 -8.835 0.986 -8.835 0.154 80.441
6264.625 0.155 80.349 0.986 -8.934 0.986 -8.934 0.155 80.349
6289.583 0.157 80.258 0.986 -9.034 0.986 -9.034 0.157 80.258
6314.542 0.159 80.166 0.985 -9.133 0.985 -9.133 0.159 80.166
6339.5 0.16 80.075 0.985 -9.232 0.985 -9.232 0.16 80.075
6364.458 0.162 79.984 0.985 -9.33 0.985 -9.33 0.162 79.984
6389.417 0.164 79.893 0.985 -9.428 0.985 -9.428 0.164 79.893
6414.375 0.166 79.802 0.984 -9.526 0.984 -9.526 0.166 79.802
6439.333 0.167 79.712 0.984 -9.624 0.984 -9.624 0.167 79.712
6464.292 0.169 79.621 0.984 -9.721 0.984 -9.721 0.169 79.621
6489.25 0.171 79.531 0.983 -9.818 0.983 -9.818 0.171 79.531
6514.208 0.172 79.441 0.983 -9.915 0.983 -9.915 0.172 79.441
6539.167 0.174 79.35 0.983 -10.011 0.983 -10.011 0.174 79.35
6564.125 0.176 79.26 0.983 -10.108 0.983 -10.108 0.176 79.26
6589.083 0.177 79.171 0.982 -10.203 0.982 -10.203 0.177 79.171
6614.042 0.179 79.081 0.982 -10.299 0.982 -10.299 0.179 79.081
6639 0.18 78.991 0.982 -10.394 0.982 -10.394 0.18 78.991
6663.958 0.182 78.902 0.981 -10.489 0.981 -10.489 0.182 78.902
6688.917 0.184 78.813 0.981 -10.584 0.981 -10.584 0.184 78.813
6713.875 0.185 78.724 0.981 -10.679 0.981 -10.679 0.185 78.724
6738.833 0.187 78.635 0.98 -10.773 0.98 -10.773 0.187 78.635
6763.792 0.189 78.546 0.98 -10.867 0.98 -10.867 0.189 78.546
6788.75 0.19 78.457 0.98 -10.961 0.98 -10.961 0.19 78.457
6813.708 0.192 78.369 0.98 -11.054 0.98 -11.054 0.192 78.369
6838.667 0.193 78.281 0.979 -11.147 0.979 -11.147 0.193 78.281
6863.625 0.195 78.193 0.979 -11.24 0.979 -11.24 0.195 78.193
6888.583 0.197 78.105 0.979 -11.333 0.979 -11.333 0.197 78.105
6913.542 0.198 78.017 0.978 -11.426 0.978 -11.426 0.198 78.017
6938.5 0.2 77.929 0.978 -11.518 0.978 -11.518 0.2 77.929
6963.458 0.201 77.842 0.978 -11.61 0.978 -11.61 0.201 77.842
6988.417 0.203 77.754 0.977 -11.702 0.977 -11.702 0.203 77.754
7013.375 0.204 77.667 0.977 -11.793 0.977 -11.793 0.204 77.667
7038.333 0.206 77.58 0.977 -11.884 0.977 -11.884 0.206 77.58
7063.292 0.207 77.493 0.976 -11.975 0.976 -11.975 0.207 77.493
7088.25 0.209 77.407 0.976 -12.066 0.976 -12.066 0.209 77.407
7113.208 0.211 77.32 0.976 -12.157 0.976 -12.157 0.211 77.32
7138.167 0.212 77.234 0.975 -12.247 0.975 -12.247 0.212 77.234
7163.125 0.214 77.148 0.975 -12.337 0.975 -12.337 0.214 77.148
7188.083 0.215 77.062 0.975 -12.427 0.975 -12.427 0.215 77.062
7213.042 0.217 76.976 0.974 -12.516 0.974 -12.516 0.217 76.976
7238 0.218 76.89 0.974 -12.606 0.974 -12.606 0.218 76.89
7262.958 0.22 76.805 0.974 -12.695 0.974 -12.695 0.22 76.805
7287.917 0.221 76.72 0.973 -12.784 0.973 -12.784 0.221 76.72
7312.875 0.223 76.634 0.973 -12.873 0.973 -12.873 0.223 76.634
7337.833 0.224 76.549 0.973 -12.961 0.973 -12.961 0.224 76.549
7362.792 0.226 76.465 0.972 -13.049 0.972 -13.049 0.226 76.465
7387.75 0.227 76.38 0.972 -13.137 0.972 -13.137 0.227 76.38
7412.708 0.229 76.295 0.972 -13.225 0.972 -13.225 0.229 76.295
7437.667 0.23 76.211 0.971 -13.313 0.971 -13.313 0.23 76.211
7462.625 0.232 76.127 0.971 -13.4 0.971 -13.4 0.232 76.127
7487.583 0.233 76.043 0.971 -13.488 0.971 -13.488 0.233 76.043
7512.542 0.235 75.959 0.97 -13.575 0.97 -13.575 0.235 75.959
7537.5 0.236 75.875 0.97 -13.661 0.97 -13.661 0.236 75.875
7562.458 0.238 75.792 0.969 -13.748 0.969 -13.748 0.238 75.792
7587.417 0.239 75.708 0.969 -13.834 0.969 -13.834 0.239 75.708
7612.375 0.241 75.625 0.969 -13.92 0.969 -13.92 0.241 75.625
7637.333 0.242 75.542 0.968 -14.006 0.968 -14.006 0.242 75.542
7662.292 0.243 75.459 0.968 -14.092 0.968 -14.092 0.243 75.459
7687.25 0.245 75.376 0.968 -14.178 0.968 -14.178 0.245 75.376
7712.208 0.246 75.294 0.967 -14.263 0.967 -14.263 0.246 75.294
7737.167 0.248 75.211 0.967 -14.348 0.967 -14.348 0.248 75.211
7762.125 0.249 75.129 0.967 -14.433 0.967 -14.433 0.249 75.129
7787.083 0.251 75.047 0.966 -14.518 0.966 -14.518 0.251 75.047
7812.042 0.252 74.965 0.966 -14.603 0.966 -14.603 0.252 74.965
7837 0.254 74.883 0.965 -14.687 0.965 -14.687 0.254 74.883
7861.958 0.255 74.801 0.965 -14.771 0.965 -14.771 0.255 74.801
7886.917 0.256 74.72 0.965 -14.855 0.965 -14.855 0.256 74.72
7911.875 0.258 74.639 0.964 -14.939 0.964 -14.939 0.258 74.639
7936.833 0.259 74.557 0.964 -15.023 0.964 -15.023 0.259 74.557
7961.792 0.261 74.476 0.964 -15.106 0.964 -15.106 0.261 74.476
7986.75 0.262 74.396 0.963 -15.189 0.963 -15.189 0.262 74.396
8011.708 0.263 74.315 0.963 -15.273 0.963 -15.273 0.263 74.315
8036.667 0.265 74.234 0.962 -15.355 0.962 -15.355 0.265 74.234
8061.625 0.266 74.154 0.962 -15.438 0.962 -15.438 0.266 74.154
8086.583 0.268 74.074 0.962 -15.521 0.962 -15.521 0.268 74.074
8111.542 0.269 73.993 0.961 -15.603 0.961 -15.603 0.269 73.993
8136.5 0.27 73.914 0.961 -15.685 0.961 -15.685 0.27 73.914
8161.458 0.272 73.834 0.96 -15.767 0.96 -15.767 0.272 73.834
8186.417 0.273 73.754 0.96 -15.849 0.96 -15.849 0.273 73.754
