# MHZ S MA R 50

50 0.996 -5.028 0.088 84.964 0.088 84.964 0.996 -5.028
74.958 0.991 -7.516 0.131 82.472 0.131 82.472 0.991 -7.516
99.917 0.985 -9.978 0.173 80.006 0.173 80.006 0.985 -9.978
124.875 0.977 -12.406 0.215 77.574 0.215 77.574 0.977 -12.406
149.833 0.967 -14.793 0.255 75.183 0.255 75.183 0.967 -14.793
174.792 0.955 -17.133 0.295 72.839 0.295 72.839 0.955 -17.133
199.75 0.943 -19.42 0.332 70.547 0.332 70.547 0.943 -19.42
224.708 0.929 -21.65 0.369 68.313 0.369 68.313 0.929 -21.65
249.667 0.915 -23.819 0.404 66.14 0.404 66.14 0.915 -23.819
274.625 0.899 -25.925 0.437 64.031 0.437 64.031 0.899 -25.925
299.583 0.883 -27.964 0.469 61.988 0.469 61.988 0.883 -27.964
324.542 0.866 -29.936 0.499 60.011 0.499 60.011 0.866 -29.936
349.5 0.849 -31.84 0.528 58.103 0.528 58.103 0.849 -31.84
374.458 0.832 -33.676 0.554 56.263 0.554 56.263 0.832 -33.676
399.417 0.814 -35.445 0.58 54.49 0.58 54.49 0.814 -35.445
424.375 0.796 -37.148 0.604 52.783 0.604 52.783 0.796 -37.148
449.333 0.779 -38.785 0.626 51.141 0.626 51.141 0.779 -38.785
474.292 0.761 -40.359 0.648 49.563 0.648 49.563 0.761 -40.359
499.25 0.744 -41.871 0.667 48.047 0.667 48.047 0.744 -41.871
524.208 0.726 -43.323 0.686 46.59 0.686 46.59 0.726 -43.323
549.167 0.709 -44.718 0.704 45.191 0.704 45.191 0.709 -44.718
574.125 0.693 -46.057 0.72 43.847 0.72 43.847 0.693 -46.057
599.083 0.676 -47.343 0.735 42.557 0.735 42.557 0.676 -47.343
624.042 0.66 -48.578 0.75 41.317 0.75 41.317 0.66 -48.578
649 0.644 -49.765 0.763 40.127 0.763 40.127 0.644 -49.765
673.958 0.629 -50.904 0.776 38.982 0.776 38.982 0.629 -50.904
698.917 0.614 -52 0.788 37.883 0.788 37.883 0.614 -52
723.875 0.599 -53.052 0.799 36.825 0.799 36.825 0.599 -53.052
748.833 0.585 -54.065 0.81 35.808 0.81 35.808 0.585 -54.065
773.792 0.571 -55.039 0.82 34.83 0.82 34.83 0.571 -55.039
798.75 0.558 -55.976 0.829 33.887 0.829 33.887 0.558 -55.976
823.708 0.544 -56.879 0.838 32.98 0.838 32.98 0.544 -56.879
848.667 0.531 -57.748 0.846 32.106 0.846 32.106 0.531 -57.748
873.625 0.519 -58.586 0.853 31.263 0.853 31.263 0.519 -58.586
898.583 0.507 -59.394 0.861 30.45 0.861 30.45 0.507 -59.394
923.542 0.495 -60.174 0.868 29.665 0.868 29.665 0.495 -60.174
948.5 0.483 -60.927 0.874 28.908 0.874 28.908 0.483 -60.927
973.458 0.472 -61.653 0.88 28.176 0.88 28.176 0.472 -61.653
998.417 0.461 -62.356 0.886 27.468 0.886 27.468 0.461 -62.356
1023.375 0.451 -63.035 0.891 26.784 0.891 26.784 0.451 -63.035
1048.333 0.44 -63.691 0.896 26.122 0.896 26.122 0.44 -63.691
1073.292 0.43 -64.327 0.901 25.481 0.901 25.481 0.43 -64.327
1098.25 0.42 -64.942 0.906 24.86 0.906 24.86 0.42 -64.942
1123.208 0.411 -65.538 0.91 24.258 0.91 24.258 0.411 -65.538
1148.167 0.402 -66.116 0.914 23.675 0.914 23.675 0.402 -66.116
1173.125 0.392 -66.677 0.918 23.109 0.918 23.109 0.392 -66.677
1198.083 0.384 -67.22 0.922 22.559 0.922 22.559 0.384 -67.22
1223.042 0.375 -67.748 0.926 22.026 0.926 22.026 0.375 -67.748
1248 0.367 -68.26 0.929 21.507 0.929 21.507 0.367 -68.26
1272.958 0.358 -68.758 0.932 21.003 0.932 21.003 0.358 -68.758
1297.917 0.35 -69.242 0.935 20.513 0.935 20.513 0.35 -69.242
1322.875 0.343 -69.713 0.938 20.036 0.938 20.036 0.343 -69.713
1347.833 0.335 -70.171 0.941 19.571 0.941 19.571 0.335 -70.171
1372.792 0.328 -70.617 0.943 19.119 0.943 19.119 0.328 -70.617
1397.75 0.32 -71.051 0.946 18.678 0.946 18.678 0.32 -71.051
1422.708 0.313 -71.474 0.948 18.248 0.948 18.248 0.313 -71.474
1447.667 0.306 -71.886 0.95 17.829 0.95 17.829 0.306 -71.886
1472.625 0.299 -72.288 0.953 17.42 0.953 17.42 0.299 -72.288
1497.583 0.293 -72.68 0.955 17.021 0.955 17.021 0.293 -72.68
1522.542 0.286 -73.062 0.957 16.632 0.957 16.632 0.286 -73.062
1547.5 0.28 -73.435 0.959 16.251 0.959 16.251 0.28 -73.435
1572.458 0.274 -73.8 0.96 15.879 0.96 15.879 0.274 -73.8
1597.417 0.267 -74.155 0.962 15.515 0.962 15.515 0.267 -74.155
1622.375 0.262 -74.503 0.964 15.159 0.964 15.159 0.262 -74.503
1647.333 0.256 -74.843 0.965 14.811 0.965 14.811 0.256 -74.843
1672.292 0.25 -75.175 0.967 14.47 0.967 14.47 0.25 -75.175
1697.25 0.244 -75.5 0.968 14.136 0.968 14.136 0.244 -75.5
1722.208 0.239 -75.818 0.97 13.809 0.97 13.809 0.239 -75.818
1747.167 0.233 -76.13 0.971 13.489 0.971 13.489 0.233 -76.13
1772.125 0.228 -76.434 0.972 13.175 0.972 13.175 0.228 -76.434
1797.083 0.223 -76.732 0.973 12.867 0.973 12.867 0.223 -76.732
1822.042 0.218 -77.024 0.974 12.565 0.974 12.565 0.218 -77.024
1847 0.213 -77.31 0.976 12.269 0.976 12.269 0.213 -77.31
1871.958 0.208 -77.591 0.977 11.978 0.977 11.978 0.208 -77.591
1896.917 0.203 -77.865 0.978 11.692 0.978 11.692 0.203 -77.865
1921.875 0.198 -78.135 0.979 11.412 0.979 11.412 0.198 -78.135
1946.833 0.193 -78.399 0.98 11.136 0.98 11.136 0.193 -78.399
1971.792 0.189 -78.657 0.981 10.866 0.981 10.866 0.189 -78.657
1996.75 0.184 -78.911 0.981 10.6 0.981 10.6 0.184 -78.911
2021.708 0.179 -79.16 0.982 10.338 0.982 10.338 0.179 -79.16
2046.667 0.175 -79.404 0.983 10.081 0.983 10.081 0.175 -79.404
2071.625 0.171 -79.644 0.984 9.828 0.984 9.828 0.171 -79.644
2096.583 0.166 -79.879 0.984 9.578 0.984 9.578 0.166 -79.879
2121.542 0.162 -80.11 0.985 9.333 0.985 9.333 0.162 -80.11
2146.5 0.158 -80.336 0.986 9.092 0.986 9.092 0.158 -80.336
2171.458 0.154 -80.558 0.987 8.854 0.987 8.854 0.154 -80.558
2196.417 0.15 -80.776 0.987 8.62 0.987 8.62 0.15 -80.776
2221.375 0.146 -80.99 0.988 8.389 0.988 8.389 0.146 -80.99
2246.333 0.142 -81.2 0.988 8.162 0.988 8.162 0.142 -81.2
2271.292 0.138 -81.406 0.989 7.938 0.989 7.938 0.138 -81.406
2296.25 0.134 -81.607 0.989 7.717 0.989 7.717 0.134 -81.607
2321.208 0.131 -81.806 0.99 7.499 0.99 7.499 0.131 -81.806
2346.167 0.127 -82 0.99 7.284 0.99 7.284 0.127 -82
2371.125 0.123 -82.19 0.991 7.072 0.991 7.072 0.123 -82.19
2396.083 0.12 -82.377 0.991 6.863 0.991 6.863 0.12 -82.377
2421.042 0.116 -82.559 0.992 6.656 0.992 6.656 0.116 -82.559
2446 0.112 -82.738 0.992 6.452 0.992 6.452 0.112 -82.738
2470.958 0.109 -82.913 0.992 6.251 0.992 6.251 0.109 -82.913
2495.917 0.105 -83.084 0.993 6.052 0.993 6.052 0.105 -83.084
2520.875 0.102 -83.251 0.993 5.856 0.993 5.856 0.102 -83.251
2545.833 0.099 -83.415 0.994 5.662 0.994 5.662 0.099 -83.415
2570.792 0.095 -83.574 0.994 5.47 0.994 5.47 0.095 -83.574
2595.75 0.092 -83.729 0.994 5.281 0.994 5.281 0.092 -83.729
2620.708 0.089 -83.879 0.994 5.094 0.994 5.094 0.089 -83.879
2645.667 0.086 -84.026 0.995 4.908 0.995 4.908 0.086 -84.026
2670.625 0.082 -84.167 0.995 4.725 0.995 4.725 0.082 -84.167
2695.583 0.079 -84.304 0.995 4.544 0.995 4.544 0.079 -84.304
2720.542 0.076 -84.436 0.996 4.365 0.996 4.365 0.076 -84.436
2745.5 0.073 -84.562 0.996 4.188 0.996 4.188 0.073 -84.562
2770.458 0.07 -84.683 0.996 4.013 0.996 4.013 0.07 -84.683
2795.417 0.067 -84.797 0.996 3.839 0.996 3.839 0.067 -84.797
2820.375 0.064 -84.905 0.996 3.667 0.996 3.667 0.064 -84.905
2845.333 0.061 -85.005 0.997 3.498 0.997 3.498 0.061 -85.005
2870.292 0.058 -85.097 0.997 3.329 0.997 3.329 0.058 -85.097
2895.25 0.055 -85.181 0.997 3.163 0.997 3.163 0.055 -85.181
2920.208 0.052 -85.255 0.997 2.998 0.997 2.998 0.052 -85.255
2945.167 0.049 -85.317 0.997 2.834 0.997 2.834 0.049 -85.317
2970.125 0.047 -85.367 0.997 2.672 0.997 2.672 0.047 -85.367
2995.083 0.044 -85.402 0.997 2.512 0.997 2.512 0.044 -85.402
3020.042 0.041 -85.42 0.998 2.353 0.998 2.353 0.041 -85.42
3045 0.038 -85.418 0.998 2.195 0.998 2.195 0.038 -85.418
3069.958 0.036 -85.391 0.998 2.039 0.998 2.039 0.036 -85.391
3094.917 0.033 -85.335 0.998 1.884 0.998 1.884 0.033 -85.335
3119.875 0.03 -85.243 0.998 1.731 0.998 1.731 0.03 -85.243
3144.833 0.028 -85.104 0.998 1.579 0.998 1.579 0.028 -85.104
3169.792 0.025 -84.905 0.998 1.428 0.998 1.428 0.025 -84.905
3194.75 0.022 -84.626 0.998 1.278 0.998 1.278 0.022 -84.626
3219.708 0.02 -84.239 0.998 1.13 0.998 1.13 0.02 -84.239
3244.667 0.017 -83.697 0.998 0.983 0.998 0.983 0.017 -83.697
3269.625 0.015 -82.921 0.998 0.837 0.998 0.837 0.015 -82.921
3294.583 0.012 -81.774 0.998 0.692 0.998 0.692 0.012 -81.774
3319.542 9.704e-3 -79.975 0.998 0.548 0.998 0.548 9.704e-3 -79.975
3344.5 7.261e-3 -76.882 0.998 0.406 0.998 0.406 7.261e-3 -76.882
3369.458 4.882e-3 -70.631 0.998 0.264 0.998 0.264 4.882e-3 -70.631
3394.417 2.688e-3 -53.399 0.998 0.124 0.998 0.124 2.688e-3 -53.399
3419.375 1.621e-3 9.669 0.998 -0.016 0.998 -0.016 1.621e-3 9.669
3444.333 3.128e-3 59.125 0.998 -0.154 0.998 -0.154 3.128e-3 59.125
3469.292 5.332e-3 72.273 0.998 -0.291 0.998 -0.291 5.332e-3 72.273
3494.25 7.638e-3 77.498 0.998 -0.428 0.998 -0.428 7.638e-3 77.498
3519.208 9.963e-3 80.208 0.998 -0.563 0.998 -0.563 9.963e-3 80.208
3544.167 0.012 81.831 0.998 -0.698 0.998 -0.698 0.012 81.831
3569.125 0.015 82.887 0.998 -0.832 0.998 -0.832 0.015 82.887
3594.083 0.017 83.614 0.998 -0.964 0.998 -0.964 0.017 83.614
3619.042 0.019 84.131 0.998 -1.096 0.998 -1.096 0.019 84.131
3644 0.021 84.508 0.998 -1.227 0.998 -1.227 0.021 84.508
3668.958 0.024 84.785 0.998 -1.357 0.998 -1.357 0.024 84.785
3693.917 0.026 84.991 0.998 -1.487 0.998 -1.487 0.026 84.991
3718.875 0.028 85.142 0.998 -1.615 0.998 -1.615 0.028 85.142
3743.833 0.03 85.251 0.998 -1.743 0.998 -1.743 0.03 85.251
3768.792 0.033 85.328 0.998 -1.87 0.998 -1.87 0.033 85.328
3793.75 0.035 85.379 0.998 -1.996 0.998 -1.996 0.035 85.379
3818.708 0.037 85.409 0.998 -2.121 0.998 -2.121 0.037 85.409
3843.667 0.039 85.421 0.998 -2.246 0.998 -2.246 0.039 85.421
3868.625 0.041 85.419 0.998 -2.37 0.998 -2.37 0.041 85.419
3893.583 0.044 85.405 0.997 -2.493 0.997 -2.493 0.044 85.405
3918.542 0.046 85.381 0.997 -2.616 0.997 -2.616 0.046 85.381
3943.5 0.048 85.349 0.997 -2.737 0.997 -2.737 0.048 85.349
3968.458 0.05 85.309 0.997 -2.858 0.997 -2.858 0.05 85.309
3993.417 0.052 85.262 0.997 -2.979 0.997 -2.979 0.052 85.262
4018.375 0.054 85.211 0.997 -3.099 0.997 -3.099 0.054 85.211
4043.333 0.056 85.154 0.997 -3.218 0.997 -3.218 0.056 85.154
4068.292 0.058 85.094 0.997 -3.336 0.997 -3.336 0.058 85.094
4093.25 0.06 85.03 0.997 -3.454 0.997 -3.454 0.06 85.03
4118.208 0.062 84.962 0.996 -3.571 0.996 -3.571 0.062 84.962
4143.167 0.064 84.892 0.996 -3.688 0.996 -3.688 0.064 84.892
4168.125 0.066 84.819 0.996 -3.804 0.996 -3.804 0.066 84.819
4193.083 0.068 84.745 0.996 -3.919 0.996 -3.919 0.068 84.745
4218.042 0.07 84.668 0.996 -4.034 0.996 -4.034 0.07 84.668
4243 0.072 84.59 0.996 -4.148 0.996 -4.148 0.072 84.59
4267.958 0.074 84.51 0.996 -4.262 0.996 -4.262 0.074 84.51
4292.917 0.076 84.428 0.995 -4.375 0.995 -4.375 0.076 84.428
4317.875 0.078 84.346 0.995 -4.488 0.995 -4.488 0.078 84.346
4342.833 0.08 84.262 0.995 -4.6 0.995 -4.6 0.08 84.262
4367.792 0.082 84.178 0.995 -4.712 0.995 -4.712 0.082 84.178
4392.75 0.084 84.092 0.995 -4.823 0.995 -4.823 0.084 84.092
4417.708 0.086 84.006 0.995 -4.933 0.995 -4.933 0.086 84.006
4442.667 0.088 83.919 0.995 -5.043 0.995 -5.043 0.088 83.919
4467.625 0.09 83.832 0.994 -5.153 0.994 -5.153 0.09 83.832
4492.583 0.092 83.744 0.994 -5.262 0.994 -5.262 0.092 83.744
4517.542 0.094 83.656 0.994 -5.37 0.994 -5.37 0.094 83.656
4542.5 0.095 83.567 0.994 -5.479 0.994 -5.479 0.095 83.567
4567.458 0.097 83.478 0.994 -5.586 0.994 -5.586 0.097 83.478
4592.417 0.099 83.389 0.993 -5.693 0.993 -5.693 0.099 83.389
4617.375 0.101 83.299 0.993 -5.8 0.993 -5.8 0.101 83.299
4642.333 0.103 83.209 0.993 -5.906 0.993 -5.906 0.103 83.209
4667.292 0.105 83.119 0.993 -6.012 0.993 -6.012 0.105 83.119
4692.25 0.107 83.028 0.993 -6.117 0.993 -6.117 0.107 83.028
4717.208 0.108 82.938 0.993 -6.222 0.993 -6.222 0.108 82.938
4742.167 0.11 82.847 0.992 -6.327 0.992 -6.327 0.11 82.847
4767.125 0.112 82.757 0.992 -6.431 0.992 -6.431 0.112 82.757
4792.083 0.114 82.666 0.992 -6.535 0.992 -6.535 0.114 82.666
4817.042 0.116 82.575 0.992 -6.638 0.992 -6.638 0.116 82.575
4842 0.117 82.485 0.992 -6.741 0.992 -6.741 0.117 82.485
4866.958 0.119 82.394 0.991 -6.844 0.991 -6.844 0.119 82.394
4891.917 0.121 82.303 0.991 -6.946 0.991 -6.946 0.121 82.303
4916.875 0.123 82.212 0.991 -7.047 0.991 -7.047 0.123 82.212
4941.833 0.124 82.121 0.991 -7.149 0.991 -7.149 0.124 82.121
4966.792 0.126 82.031 0.99 -7.25 0.99 -7.25 0.126 82.031
4991.75 0.128 81.94 0.99 -7.35 0.99 -7.35 0.128 81.94
5016.708 0.13 81.849 0.99 -7.451 0.99 -7.451 0.13 81.849
5041.667 0.131 81.759 0.99 -7.55 0.99 -7.55 0.131 81.759
5066.625 0.133 81.669 0.99 -7.65 0.99 -7.65 0.133 81.669
5091.583 0.135 81.578 0.989 -7.749 0.989 -7.749 0.135 81.578
5116.542 0.137 81.488 0.989 -7.848 0.989 -7.848 0.137 81.488
5141.5 0.138 81.398 0.989 -7.946 0.989 -7.946 0.138 81.398
5166.458 0.14 81.308 0.989 -8.045 0.989 -8.045 0.14 81.308
5191.417 0.142 81.218 0.988 -8.142 0.988 -8.142 0.142 81.218
5216.375 0.143 81.128 0.988 -8.24 0.988 -8.24 0.143 81.128
5241.333 0.145 81.038 0.988 -8.337 0.988 -8.337 0.145 81.038
5266.292 0.147 80.949 0.988 -8.434 0.988 -8.434 0.147 80.949
5291.25 0.148 80.859 0.987 -8.53 0.987 -8.53 0.148 80.859
5316.208 0.15 80.77 0.987 -8.626 0.987 -8.626 0.15 80.77
5341.167 0.152 80.681 0.987 -8.722 0.987 -8.722 0.152 80.681
5366.125 0.153 80.592 0.987 -8.818 0.987 -8.818 0.153 80.592
5391.083 0.155 80.503 0.986 -8.913 0.986 -8.913 0.155 80.503
5416.042 0.157 80.414 0.986 -9.008 0.986 -9.008 0.157 80.414
5441 0.158 80.326 0.986 -9.103 0.986 -9.103 0.158 80.326
5465.958 0.16 80.237 0.986 -9.197 0.986 -9.197 0.16 80.237
5490.917 0.161 80.149 0.985 -9.291 0.985 -9.291 0.161 80.149
5515.875 0.163 80.061 0.985 -9.385 0.985 -9.385 0.163 80.061
5540.833 0.165 79.973 0.985 -9.478 0.985 -9.478 0.165 79.973
5565.792 0.166 79.885 0.985 -9.572 0.985 -9.572 0.166 79.885
5590.75 0.168 79.798 0.984 -9.665 0.984 -9.665 0.168 79.798
5615.708 0.169 79.71 0.984 -9.757 0.984 -9.757 0.169 79.71
5640.667 0.171 79.623 0.984 -9.85 0.984 -9.85 0.171 79.623
5665.625 0.173 79.536 0.983 -9.942 0.983 -9.942 0.173 79.536
5690.583 0.174 79.449 0.983 -10.034 0.983 -10.034 0.174 79.449
5715.542 0.176 79.362 0.983 -10.125 0.983 -10.125 0.176 79.362
5740.5 0.177 79.276 0.983 -10.217 0.983 -10.217 0.177 79.276
5765.458 0.179 79.189 0.982 -10.308 0.982 -10.308 0.179 79.189
5790.417 0.18 79.103 0.982 -10.398 0.982 -10.398 0.18 79.103
5815.375 0.182 79.017 0.982 -10.489 0.982 -10.489 0.182 79.017
5840.333 0.184 78.931 0.981 -10.579 0.981 -10.579 0.184 78.931
5865.292 0.185 78.845 0.981 -10.669 0.981 -10.669 0.185 78.845
5890.25 0.187 78.759 0.981 -10.759 0.981 -10.759 0.187 78.759
5915.208 0.188 78.674 0.981 -10.849 0.981 -10.849 0.188 78.674
5940.167 0.19 78.588 0.98 -10.938 0.98 -10.938 0.19 78.588
5965.125 0.191 78.503 0.98 -11.027 0.98 -11.027 0.191 78.503
5990.083 0.193 78.418 0.98 -11.116 0.98 -11.116 0.193 78.418
6015.042 0.194 78.333 0.979 -11.204 0.979 -11.204 0.194 78.333
6040 0.196 78.249 0.979 -11.293 0.979 -11.293 0.196 78.249
6064.958 0.197 78.164 0.979 -11.381 0.979 -11.381 0.197 78.164
6089.917 0.199 78.08 0.978 -11.469 0.978 -11.469 0.199 78.08
6114.875 0.2 77.996 0.978 -11.556 0.978 -11.556 0.2 77.996
6139.833 0.202 77.912 0.978 -11.644 0.978 -11.644 0.202 77.912
6164.792 0.203 77.828 0.978 -11.731 0.978 -11.731 0.203 77.828
6189.75 0.205 77.744 0.977 -11.818 0.977 -11.818 0.205 77.744
6214.708 0.206 77.661 0.977 -11.905 0.977 -11.905 0.206 77.661
6239.667 0.208 77.577 0.977 -11.992 0.977 -11.992 0.208 77.577
6264.625 0.209 77.494 0.976 -12.078 0.976 -12.078 0.209 77.494
6289.583 0.211 77.411 0.976 -12.164 0.976 -12.164 0.211 77.411
6314.542 0.212 77.328 0.976 -12.25 0.976 -12.25 0.212 77.328
6339.5 0.214 77.246 0.975 -12.336 0.975 -12.336 0.214 77.246
6364.458 0.215 77.163 0.975 -12.421 0.975 -12.421 0.215 77.163
6389.417 0.217 77.081 0.975 -12.507 0.975 -12.507 0.217 77.081
6414.375 0.218 76.999 0.974 -12.592 0.974 -12.592 0.218 76.999
6439.333 0.219 76.916 0.974 -12.677 0.974 -12.677 0.219 76.916
6464.292 0.221 76.835 0.974 -12.761 0.974 -12.761 0.221 76.835
6489.25 0.222 76.753 0.973 -12.846 0.973 -12.846 0.222 76.753
6514.208 0.224 76.671 0.973 -12.93 0.973 -12.93 0.224 76.671
6539.167 0.225 76.59 0.973 -13.014 0.973 -13.014 0.225 76.59
6564.125 0.227 76.508 0.972 -13.098 0.972 -13.098 0.227 76.508
6589.083 0.228 76.427 0.972 -13.182 0.972 -13.182 0.228 76.427
6614.042 0.229 76.346 0.972 -13.265 0.972 -13.265 0.229 76.346
6639 0.231 76.266 0.971 -13.349 0.971 -13.349 0.231 76.266
6663.958 0.232 76.185 0.971 -13.432 0.971 -13.432 0.232 76.185
6688.917 0.234 76.104 0.971 -13.515 0.971 -13.515 0.234 76.104
6713.875 0.235 76.024 0.97 -13.598 0.97 -13.598 0.235 76.024
6738.833 0.237 75.944 0.97 -13.68 0.97 -13.68 0.237 75.944
6763.792 0.238 75.864 0.97 -13.763 0.97 -13.763 0.238 75.864
6788.75 0.239 75.784 0.969 -13.845 0.969 -13.845 0.239 75.784
6813.708 0.241 75.704 0.969 -13.927 0.969 -13.927 0.241 75.704
6838.667 0.242 75.624 0.969 -14.009 0.969 -14.009 0.242 75.624
6863.625 0.243 75.545 0.968 -14.09 0.968 -14.09 0.243 75.545
6888.583 0.245 75.465 0.968 -14.172 0.968 -14.172 0.245 75.465
6913.542 0.246 75.386 0.968 -14.253 0.968 -14.253 0.246 75.386
6938.5 0.248 75.307 0.967 -14.334 0.967 -14.334 0.248 75.307
6963.458 0.249 75.228 0.967 -14.415 0.967 -14.415 0.249 75.228
6988.417 0.25 75.15 0.967 -14.496 0.967 -14.496 0.25 75.15
7013.375 0.252 75.071 0.966 -14.577 0.966 -14.577 0.252 75.071
7038.333 0.253 74.993 0.966 -14.657 0.966 -14.657 0.253 74.993
7063.292 0.254 74.914 0.966 -14.738 0.966 -14.738 0.254 74.914
7088.25 0.256 74.836 0.965 -14.818 0.965 -14.818 0.256 74.836
7113.208 0.257 74.758 0.965 -14.898 0.965 -14.898 0.257 74.758
7138.167 0.258 74.68 0.964 -14.978 0.964 -14.978 0.258 74.68
7163.125 0.26 74.602 0.964 -15.057 0.964 -15.057 0.26 74.602
7188.083 0.261 74.525 0.964 -15.137 0.964 -15.137 0.261 74.525
7213.042 0.262 74.447 0.963 -15.216 0.963 -15.216 0.262 74.447
7238 0.264 74.37 0.963 -15.295 0.963 -15.295 0.264 74.37
7262.958 0.265 74.293 0.963 -15.374 0.963 -15.374 0.265 74.293
7287.917 0.266 74.216 0.962 -15.453 0.962 -15.453 0.266 74.216
7312.875 0.268 74.139 0.962 -15.532 0.962 -15.532 0.268 74.139
7337.833 0.269 74.062 0.962 -15.611 0.962 -15.611 0.269 74.062
7362.792 0.27 73.985 0.961 -15.689 0.961 -15.689 0.27 73.985
7387.75 0.272 73.909 0.961 -15.767 0.961 -15.767 0.272 73.909
7412.708 0.273 73.832 0.96 -15.845 0.96 -15.845 0.273 73.832
7437.667 0.274 73.756 0.96 -15.923 0.96 -15.923 0.274 73.756
7462.625 0.276 73.68 0.96 -16.001 0.96 -16.001 0.276 73.68
7487.583 0.277 73.604 0.959 -16.079 0.959 -16.079 0.277 73.604
7512.542 0.278 73.528 0.959 -16.156 0.959 -16.156 0.278 73.528
7537.5 0.28 73.452 0.959 -16.233 0.959 -16.233 0.28 73.452
7562.458 0.281 73.377 0.958 -16.311 0.958 -16.311 0.281 73.377
7587.417 0.282 73.301 0.958 -16.388 0.958 -16.388 0.282 73.301
7612.375 0.283 73.226 0.957 -16.465 0.957 -16.465 0.283 73.226
7637.333 0.285 73.15 0.957 -16.541 0.957 -16.541 0.285 73.15
7662.292 0.286 73.075 0.957 -16.618 0.957 -16.618 0.286 73.075
7687.25 0.287 73 0.956 -16.694 0.956 -16.694 0.287 73
7712.208 0.289 72.926 0.956 -16.771 0.956 -16.771 0.289 72.926
7737.167 0.29 72.851 0.956 -16.847 0.956 -16.847 0.29 72.851
7762.125 0.291 72.776 0.955 -16.923 0.955 -16.923 0.291 72.776
7787.083 0.292 72.702 0.955 -16.999 0.955 -16.999 0.292 72.702
7812.042 0.294 72.627 0.954 -17.074 0.954 -17.074 0.294 72.627
7837 0.295 72.553 0.954 -17.15 0.954 -17.15 0.295 72.553
7861.958 0.296 72.479 0.954 -17.226 0.954 -17.226 0.296 72.479
7886.917 0.297 72.405 0.953 -17.301 0.953 -17.301 0.297 72.405
7911.875 0.299 72.331 0.953 -17.376 0.953 -17.376 0.299 72.331
7936.833 0.3 72.258 0.952 -17.451 0.952 -17.451 0.3 72.258
7961.792 0.301 72.184 0.952 -17.526 0.952 -17.526 0.301 72.184
7986.75 0.302 72.111 0.952 -17.601 0.952 -17.601 0.302 72.111
8011.708 0.304 72.037 0.951 -17.676 0.951 -17.676 0.304 72.037
8036.667 0.305 71.964 0.951 -17.75 0.951 -17.75 0.305 71.964
8061.625 0.306 71.891 0.95 -17.824 0.95 -17.824 0.306 71.891
8086.583 0.307 71.818 0.95 -17.899 0.95 -17.899 0.307 71.818
8111.542 0.309 71.745 0.95 -17.973 0.95 -17.973 0.309 71.745
8136.5 0.31 71.672 0.949 -18.047 0.949 -18.047 0.31 71.672
8161.458 0.311 71.6 0.949 -18.121 0.949 -18.121 0.311 71.6
8186.417 0.312 71.527 0.948 -18.194 0.948 -18.194 0.312 71.527
8211.375 0.313 71.455 0.948 -18.268 0.948 -18.268 0.313 71.455
