# MHZ S MA R 50

50 1 -0.09 1.571e-3 89.909 1.571e-3 89.909 1 -0.09
74.958 1 -0.135 2.355e-3 89.864 2.355e-3 89.864 1 -0.135
99.917 1 -0.18 3.139e-3 89.819 3.139e-3 89.819 1 -0.18
124.875 1 -0.225 3.923e-3 89.773 3.923e-3 89.773 1 -0.225
149.833 1 -0.27 4.707e-3 89.728 4.707e-3 89.728 1 -0.27
174.792 1 -0.315 5.491e-3 89.683 5.491e-3 89.683 1 -0.315
199.75 1 -0.36 6.276e-3 89.637 6.276e-3 89.637 1 -0.36
224.708 1 -0.404 7.06e-3 89.592 7.06e-3 89.592 1 -0.404
249.667 1 -0.449 7.844e-3 89.547 7.844e-3 89.547 1 -0.449
274.625 1 -0.494 8.628e-3 89.501 8.628e-3 89.501 1 -0.494
299.583 1 -0.539 9.413e-3 89.456 9.413e-3 89.456 1 -0.539
324.542 1 -0.584 0.01 89.411 0.01 89.411 1 -0.584
349.5 1 -0.629 0.011 89.366 0.011 89.366 1 -0.629
374.458 1 -0.674 0.012 89.32 0.012 89.32 1 -0.674
399.417 1 -0.719 0.013 89.275 0.013 89.275 1 -0.719
424.375 1 -0.764 0.013 89.23 0.013 89.23 1 -0.764
449.333 1 -0.809 0.014 89.184 0.014 89.184 1 -0.809
474.292 1 -0.854 0.015 89.139 0.015 89.139 1 -0.854
499.25 1 -0.899 0.016 89.094 0.016 89.094 1 -0.899
524.208 1 -0.944 0.016 89.048 0.016 89.048 1 -0.944
549.167 1 -0.989 0.017 89.003 0.017 89.003 1 -0.989
574.125 1 -1.034 0.018 88.958 0.018 88.958 1 -1.034
599.083 1 -1.079 0.019 88.912 0.019 88.912 1 -1.079
624.042 1 -1.124 0.02 88.867 0.02 88.867 1 -1.124
649 1 -1.169 0.02 88.821 0.02 88.821 1 -1.169
673.958 1 -1.214 0.021 88.776 0.021 88.776 1 -1.214
698.917 1 -1.259 0.022 88.731 0.022 88.731 1 -1.259
723.875 1 -1.304 0.023 88.685 0.023 88.685 1 -1.304
748.833 1 -1.349 0.024 88.64 0.024 88.64 1 -1.349
773.792 1 -1.394 0.024 88.595 0.024 88.595 1 -1.394
798.75 1 -1.439 0.025 88.549 0.025 88.549 1 -1.439
823.708 1 -1.484 0.026 88.504 0.026 88.504 1 -1.484
848.667 1 -1.529 0.027 88.458 0.027 88.458 1 -1.529
873.625 1 -1.574 0.027 88.413 0.027 88.413 1 -1.574
898.583 1 -1.619 0.028 88.367 0.028 88.367 1 -1.619
923.542 1 -1.664 0.029 88.322 0.029 88.322 1 -1.664
948.5 1 -1.709 0.03 88.277 0.03 88.277 1 -1.709
973.458 1 -1.754 0.031 88.231 0.031 88.231 1 -1.754
998.417 0.999 -1.799 0.031 88.186 0.031 88.186 0.999 -1.799
1023.375 0.999 -1.844 0.032 88.14 0.032 88.14 0.999 -1.844
1048.333 0.999 -1.889 0.033 88.095 0.033 88.095 0.999 -1.889
1073.292 0.999 -1.935 0.034 88.049 0.034 88.049 0.999 -1.935
1098.25 0.999 -1.98 0.035 88.004 0.035 88.004 0.999 -1.98
1123.208 0.999 -2.025 0.035 87.958 0.035 87.958 0.999 -2.025
1148.167 0.999 -2.07 0.036 87.913 0.036 87.913 0.999 -2.07
1173.125 0.999 -2.115 0.037 87.867 0.037 87.867 0.999 -2.115
1198.083 0.999 -2.16 0.038 87.822 0.038 87.822 0.999 -2.16
1223.042 0.999 -2.205 0.038 87.776 0.038 87.776 0.999 -2.205
1248 0.999 -2.251 0.039 87.731 0.039 87.731 0.999 -2.251
1272.958 0.999 -2.296 0.04 87.685 0.04 87.685 0.999 -2.296
1297.917 0.999 -2.341 0.041 87.64 0.041 87.64 0.999 -2.341
1322.875 0.999 -2.386 0.042 87.594 0.042 87.594 0.999 -2.386
1347.833 0.999 -2.431 0.042 87.548 0.042 87.548 0.999 -2.431
1372.792 0.999 -2.477 0.043 87.503 0.043 87.503 0.999 -2.477
1397.75 0.999 -2.522 0.044 87.457 0.044 87.457 0.999 -2.522
1422.708 0.999 -2.567 0.045 87.412 0.045 87.412 0.999 -2.567
1447.667 0.999 -2.612 0.046 87.366 0.046 87.366 0.999 -2.612
1472.625 0.999 -2.658 0.046 87.32 0.046 87.32 0.999 -2.658
1497.583 0.999 -2.703 0.047 87.275 0.047 87.275 0.999 -2.703
1522.542 0.999 -2.748 0.048 87.229 0.048 87.229 0.999 -2.748
1547.5 0.999 -2.793 0.049 87.183 0.049 87.183 0.999 -2.793
1572.458 0.999 -2.839 0.05 87.138 0.05 87.138 0.999 -2.839
1597.417 0.999 -2.884 0.05 87.092 0.05 87.092 0.999 -2.884
1622.375 0.999 -2.929 0.051 87.046 0.051 87.046 0.999 -2.929
1647.333 0.999 -2.975 0.052 87 0.052 87 0.999 -2.975
1672.292 0.999 -3.02 0.053 86.955 0.053 86.955 0.999 -3.02
1697.25 0.999 -3.066 0.053 86.909 0.053 86.909 0.999 -3.066
1722.208 0.999 -3.111 0.054 86.863 0.054 86.863 0.999 -3.111
1747.167 0.998 -3.156 0.055 86.817 0.055 86.817 0.998 -3.156
1772.125 0.998 -3.202 0.056 86.772 0.056 86.772 0.998 -3.202
1797.083 0.998 -3.247 0.057 86.726 0.057 86.726 0.998 -3.247
1822.042 0.998 -3.293 0.057 86.68 0.057 86.68 0.998 -3.293
1847 0.998 -3.338 0.058 86.634 0.058 86.634 0.998 -3.338
1871.958 0.998 -3.384 0.059 86.588 0.059 86.588 0.998 -3.384
1896.917 0.998 -3.429 0.06 86.542 0.06 86.542 0.998 -3.429
1921.875 0.998 -3.475 0.061 86.496 0.061 86.496 0.998 -3.475
1946.833 0.998 -3.52 0.061 86.45 0.061 86.45 0.998 -3.52
1971.792 0.998 -3.566 0.062 86.405 0.062 86.405 0.998 -3.566
1996.75 0.998 -3.611 0.063 86.359 0.063 86.359 0.998 -3.611
2021.708 0.998 -3.657 0.064 86.313 0.064 86.313 0.998 -3.657
2046.667 0.998 -3.702 0.065 86.267 0.065 86.267 0.998 -3.702
2071.625 0.998 -3.748 0.065 86.221 0.065 86.221 0.998 -3.748
2096.583 0.998 -3.794 0.066 86.175 0.066 86.175 0.998 -3.794
2121.542 0.998 -3.839 0.067 86.129 0.067 86.129 0.998 -3.839
2146.5 0.998 -3.885 0.068 86.083 0.068 86.083 0.998 -3.885
2171.458 0.998 -3.931 0.069 86.037 0.069 86.037 0.998 -3.931
2196.417 0.998 -3.976 0.069 85.99 0.069 85.99 0.998 -3.976
2221.375 0.997 -4.022 0.07 85.944 0.07 85.944 0.997 -4.022
2246.333 0.997 -4.068 0.071 85.898 0.071 85.898 0.997 -4.068
2271.292 0.997 -4.114 0.072 85.852 0.072 85.852 0.997 -4.114
2296.25 0.997 -4.159 0.073 85.806 0.073 85.806 0.997 -4.159
2321.208 0.997 -4.205 0.073 85.76 0.073 85.76 0.997 -4.205
2346.167 0.997 -4.251 0.074 85.714 0.074 85.714 0.997 -4.251
2371.125 0.997 -4.297 0.075 85.667 0.075 85.667 0.997 -4.297
2396.083 0.997 -4.343 0.076 85.621 0.076 85.621 0.997 -4.343
2421.042 0.997 -4.388 0.077 85.575 0.077 85.575 0.997 -4.388
2446 0.997 -4.434 0.077 85.529 0.077 85.529 0.997 -4.434
2470.958 0.997 -4.48 0.078 85.482 0.078 85.482 0.997 -4.48
2495.917 0.997 -4.526 0.079 85.436 0.079 85.436 0.997 -4.526
2520.875 0.997 -4.572 0.08 85.39 0.08 85.39 0.997 -4.572
2545.833 0.997 -4.618 0.081 85.343 0.081 85.343 0.997 -4.618
2570.792 0.997 -4.664 0.081 85.297 0.081 85.297 0.997 -4.664
2595.75 0.997 -4.71 0.082 85.251 0.082 85.251 0.997 -4.71
2620.708 0.996 -4.756 0.083 85.204 0.083 85.204 0.996 -4.756
2645.667 0.996 -4.802 0.084 85.158 0.084 85.158 0.996 -4.802
2670.625 0.996 -4.848 0.085 85.111 0.085 85.111 0.996 -4.848
2695.583 0.996 -4.894 0.085 85.065 0.085 85.065 0.996 -4.894
2720.542 0.996 -4.94 0.086 85.018 0.086 85.018 0.996 -4.94
2745.5 0.996 -4.986 0.087 84.972 0.087 84.972 0.996 -4.986
2770.458 0.996 -5.033 0.088 84.925 0.088 84.925 0.996 -5.033
2795.417 0.996 -5.079 0.089 84.879 0.089 84.879 0.996 -5.079
2820.375 0.996 -5.125 0.089 84.832 0.089 84.832 0.996 -5.125
2845.333 0.996 -5.171 0.09 84.786 0.09 84.786 0.996 -5.171
2870.292 0.996 -5.217 0.091 84.739 0.091 84.739 0.996 -5.217
2895.25 0.996 -5.264 0.092 84.692 0.092 84.692 0.996 -5.264
2920.208 0.996 -5.31 0.093 84.646 0.093 84.646 0.996 -5.31
2945.167 0.996 -5.356 0.093 84.599 0.093 84.599 0.996 -5.356
2970.125 0.995 -5.403 0.094 84.552 0.094 84.552 0.995 -5.403
2995.083 0.995 -5.449 0.095 84.505 0.095 84.505 0.995 -5.449
3020.042 0.995 -5.495 0.096 84.459 0.096 84.459 0.995 -5.495
3045 0.995 -5.542 0.097 84.412 0.097 84.412 0.995 -5.542
3069.958 0.995 -5.588 0.097 84.365 0.097 84.365 0.995 -5.588
3094.917 0.995 -5.635 0.098 84.318 0.098 84.318 0.995 -5.635
3119.875 0.995 -5.681 0.099 84.271 0.099 84.271 0.995 -5.681
3144.833 0.995 -5.728 0.1 84.224 0.1 84.224 0.995 -5.728
3169.792 0.995 -5.774 0.101 84.177 0.101 84.177 0.995 -5.774
3194.75 0.995 -5.821 0.101 84.13 0.101 84.13 0.995 -5.821
3219.708 0.995 -5.868 0.102 84.083 0.102 84.083 0.995 -5.868
3244.667 0.995 -5.914 0.103 84.036 0.103 84.036 0.995 -5.914
3269.625 0.995 -5.961 0.104 83.989 0.104 83.989 0.995 -5.961
3294.583 0.994 -6.008 0.105 83.942 0.105 83.942 0.994 -6.008
3319.542 0.994 -6.054 0.105 83.895 0.105 83.895 0.994 -6.054
3344.5 0.994 -6.101 0.106 83.848 0.106 83.848 0.994 -6.101
3369.458 0.994 -6.148 0.107 83.801 0.107 83.801 0.994 -6.148
3394.417 0.994 -6.194 0.108 83.754 0.108 83.754 0.994 -6.194
3419.375 0.994 -6.241 0.109 83.706 0.109 83.706 0.994 -6.241
3444.333 0.994 -6.288 0.11 83.659 0.11 83.659 0.994 -6.288
3469.292 0.994 -6.335 0.11 83.612 0.11 83.612 0.994 -6.335
3494.25 0.994 -6.382 0.111 83.565 0.111 83.565 0.994 -6.382
3519.208 0.994 -6.429 0.112 83.517 0.112 83.517 0.994 -6.429
3544.167 0.994 -6.476 0.113 83.47 0.113 83.47 0.994 -6.476
3569.125 0.993 -6.523 0.114 83.423 0.114 83.423 0.993 -6.523
3594.083 0.993 -6.57 0.114 83.375 0.114 83.375 0.993 -6.57
3619.042 0.993 -6.617 0.115 83.328 0.115 83.328 0.993 -6.617
3644 0.993 -6.664 0.116 83.28 0.116 83.28 0.993 -6.664
3668.958 0.993 -6.711 0.117 83.233 0.117 83.233 0.993 -6.711
3693.917 0.993 -6.758 0.118 83.185 0.118 83.185 0.993 -6.758
3718.875 0.993 -6.805 0.118 83.138 0.118 83.138 0.993 -6.805
3743.833 0.993 -6.853 0.119 83.09 0.119 83.09 0.993 -6.853
3768.792 0.993 -6.9 0.12 83.042 0.12 83.042 0.993 -6.9
3793.75 0.993 -6.947 0.121 82.995 0.121 82.995 0.993 -6.947
3818.708 0.992 -6.994 0.122 82.947 0.122 82.947 0.992 -6.994
3843.667 0.992 -7.042 0.123 82.899 0.123 82.899 0.992 -7.042
3868.625 0.992 -7.089 0.123 82.852 0.123 82.852 0.992 -7.089
3893.583 0.992 -7.136 0.124 82.804 0.124 82.804 0.992 -7.136
3918.542 0.992 -7.184 0.125 82.756 0.125 82.756 0.992 -7.184
3943.5 0.992 -7.231 0.126 82.708 0.126 82.708 0.992 -7.231
3968.458 0.992 -7.279 0.127 82.66 0.127 82.66 0.992 -7.279
3993.417 0.992 -7.326 0.128 82.612 0.128 82.612 0.992 -7.326
4018.375 0.992 -7.374 0.128 82.564 0.128 82.564 0.992 -7.374
4043.333 0.991 -7.421 0.129 82.516 0.129 82.516 0.991 -7.421
4068.292 0.991 -7.469 0.13 82.468 0.13 82.468 0.991 -7.469
4093.25 0.991 -7.517 0.131 82.42 0.131 82.42 0.991 -7.517
4118.208 0.991 -7.564 0.132 82.372 0.132 82.372 0.991 -7.564
4143.167 0.991 -7.612 0.132 82.324 0.132 82.324 0.991 -7.612
4168.125 0.991 -7.66 0.133 82.276 0.133 82.276 0.991 -7.66
4193.083 0.991 -7.708 0.134 82.228 0.134 82.228 0.991 -7.708
4218.042 0.991 -7.756 0.135 82.179 0.135 82.179 0.991 -7.756
4243 0.991 -7.803 0.136 82.131 0.136 82.131 0.991 -7.803
4267.958 0.99 -7.851 0.137 82.083 0.137 82.083 0.99 -7.851
4292.917 0.99 -7.899 0.137 82.035 0.137 82.035 0.99 -7.899
4317.875 0.99 -7.947 0.138 81.986 0.138 81.986 0.99 -7.947
4342.833 0.99 -7.995 0.139 81.938 0.139 81.938 0.99 -7.995
4367.792 0.99 -8.043 0.14 81.889 0.14 81.889 0.99 -8.043
4392.75 0.99 -8.091 0.141 81.841 0.141 81.841 0.99 -8.091
4417.708 0.99 -8.139 0.142 81.792 0.142 81.792 0.99 -8.139
4442.667 0.99 -8.188 0.142 81.744 0.142 81.744 0.99 -8.188
4467.625 0.99 -8.236 0.143 81.695 0.143 81.695 0.99 -8.236
4492.583 0.989 -8.284 0.144 81.646 0.144 81.646 0.989 -8.284
4517.542 0.989 -8.332 0.145 81.598 0.145 81.598 0.989 -8.332
4542.5 0.989 -8.381 0.146 81.549 0.146 81.549 0.989 -8.381
4567.458 0.989 -8.429 0.147 81.5 0.147 81.5 0.989 -8.429
4592.417 0.989 -8.477 0.147 81.452 0.147 81.452 0.989 -8.477
4617.375 0.989 -8.526 0.148 81.403 0.148 81.403 0.989 -8.526
4642.333 0.989 -8.574 0.149 81.354 0.149 81.354 0.989 -8.574
4667.292 0.989 -8.623 0.15 81.305 0.15 81.305 0.989 -8.623
4692.25 0.988 -8.671 0.151 81.256 0.151 81.256 0.988 -8.671
4717.208 0.988 -8.72 0.152 81.207 0.152 81.207 0.988 -8.72
4742.167 0.988 -8.769 0.152 81.158 0.152 81.158 0.988 -8.769
4767.125 0.988 -8.817 0.153 81.109 0.153 81.109 0.988 -8.817
4792.083 0.988 -8.866 0.154 81.06 0.154 81.06 0.988 -8.866
4817.042 0.988 -8.915 0.155 81.011 0.155 81.011 0.988 -8.915
4842 0.988 -8.963 0.156 80.961 0.156 80.961 0.988 -8.963
4866.958 0.987 -9.012 0.157 80.912 0.157 80.912 0.987 -9.012
4891.917 0.987 -9.061 0.157 80.863 0.157 80.863 0.987 -9.061
4916.875 0.987 -9.11 0.158 80.813 0.158 80.813 0.987 -9.11
4941.833 0.987 -9.159 0.159 80.764 0.159 80.764 0.987 -9.159
4966.792 0.987 -9.208 0.16 80.715 0.16 80.715 0.987 -9.208
4991.75 0.987 -9.257 0.161 80.665 0.161 80.665 0.987 -9.257
5016.708 0.987 -9.306 0.162 80.616 0.162 80.616 0.987 -9.306
5041.667 0.986 -9.355 0.163 80.566 0.163 80.566 0.986 -9.355
5066.625 0.986 -9.404 0.163 80.517 0.163 80.517 0.986 -9.404
5091.583 0.986 -9.454 0.164 80.467 0.164 80.467 0.986 -9.454
5116.542 0.986 -9.503 0.165 80.417 0.165 80.417 0.986 -9.503
5141.5 0.986 -9.552 0.166 80.368 0.166 80.368 0.986 -9.552
5166.458 0.986 -9.601 0.167 80.318 0.167 80.318 0.986 -9.601
5191.417 0.986 -9.651 0.168 80.268 0.168 80.268 0.986 -9.651
5216.375 0.985 -9.7 0.168 80.218 0.168 80.218 0.985 -9.7
5241.333 0.985 -9.75 0.169 80.168 0.169 80.168 0.985 -9.75
5266.292 0.985 -9.799 0.17 80.118 0.17 80.118 0.985 -9.799
5291.25 0.985 -9.849 0.171 80.068 0.171 80.068 0.985 -9.849
5316.208 0.985 -9.898 0.172 80.018 0.172 80.018 0.985 -9.898
5341.167 0.985 -9.948 0.173 79.968 0.173 79.968 0.985 -9.948
5366.125 0.985 -9.998 0.174 79.918 0.174 79.918 0.985 -9.998
5391.083 0.984 -10.048 0.174 79.868 0.174 79.868 0.984 -10.048
5416.042 0.984 -10.097 0.175 79.818 0.175 79.818 0.984 -10.097
5441 0.984 -10.147 0.176 79.767 0.176 79.767 0.984 -10.147
5465.958 0.984 -10.197 0.177 79.717 0.177 79.717 0.984 -10.197
5490.917 0.984 -10.247 0.178 79.667 0.178 79.667 0.984 -10.247
5515.875 0.984 -10.297 0.179 79.616 0.179 79.616 0.984 -10.297
5540.833 0.983 -10.347 0.18 79.566 0.18 79.566 0.983 -10.347
5565.792 0.983 -10.397 0.18 79.515 0.18 79.515 0.983 -10.397
5590.75 0.983 -10.447 0.181 79.465 0.181 79.465 0.983 -10.447
5615.708 0.983 -10.497 0.182 79.414 0.182 79.414 0.983 -10.497
5640.667 0.983 -10.548 0.183 79.363 0.183 79.363 0.983 -10.548
5665.625 0.983 -10.598 0.184 79.313 0.184 79.313 0.983 -10.598
5690.583 0.982 -10.648 0.185 79.262 0.185 79.262 0.982 -10.648
5715.542 0.982 -10.699 0.186 79.211 0.186 79.211 0.982 -10.699
5740.5 0.982 -10.749 0.187 79.16 0.187 79.16 0.982 -10.749
5765.458 0.982 -10.8 0.187 79.109 0.187 79.109 0.982 -10.8
5790.417 0.982 -10.85 0.188 79.058 0.188 79.058 0.982 -10.85
5815.375 0.982 -10.901 0.189 79.007 0.189 79.007 0.982 -10.901
5840.333 0.981 -10.951 0.19 78.956 0.19 78.956 0.981 -10.951
5865.292 0.981 -11.002 0.191 78.905 0.191 78.905 0.981 -11.002
5890.25 0.981 -11.053 0.192 78.854 0.192 78.854 0.981 -11.053
5915.208 0.981 -11.103 0.193 78.803 0.193 78.803 0.981 -11.103
5940.167 0.981 -11.154 0.193 78.752 0.193 78.752 0.981 -11.154
5965.125 0.981 -11.205 0.194 78.7 0.194 78.7 0.981 -11.205
5990.083 0.98 -11.256 0.195 78.649 0.195 78.649 0.98 -11.256
6015.042 0.98 -11.307 0.196 78.597 0.196 78.597 0.98 -11.307
6040 0.98 -11.358 0.197 78.546 0.197 78.546 0.98 -11.358
6064.958 0.98 -11.409 0.198 78.494 0.198 78.494 0.98 -11.409
6089.917 0.98 -11.46 0.199 78.443 0.199 78.443 0.98 -11.46
6114.875 0.98 -11.512 0.2 78.391 0.2 78.391 0.98 -11.512
6139.833 0.979 -11.563 0.2 78.339 0.2 78.339 0.979 -11.563
6164.792 0.979 -11.614 0.201 78.288 0.201 78.288 0.979 -11.614
6189.75 0.979 -11.666 0.202 78.236 0.202 78.236 0.979 -11.666
6214.708 0.979 -11.717 0.203 78.184 0.203 78.184 0.979 -11.717
6239.667 0.979 -11.768 0.204 78.132 0.204 78.132 0.979 -11.768
6264.625 0.978 -11.82 0.205 78.08 0.205 78.08 0.978 -11.82
6289.583 0.978 -11.872 0.206 78.028 0.206 78.028 0.978 -11.872
6314.542 0.978 -11.923 0.207 77.976 0.207 77.976 0.978 -11.923
6339.5 0.978 -11.975 0.207 77.924 0.207 77.924 0.978 -11.975
6364.458 0.978 -12.027 0.208 77.872 0.208 77.872 0.978 -12.027
6389.417 0.977 -12.079 0.209 77.819 0.209 77.819 0.977 -12.079
6414.375 0.977 -12.13 0.21 77.767 0.21 77.767 0.977 -12.13
6439.333 0.977 -12.182 0.211 77.715 0.211 77.715 0.977 -12.182
6464.292 0.977 -12.234 0.212 77.662 0.212 77.662 0.977 -12.234
6489.25 0.977 -12.286 0.213 77.61 0.213 77.61 0.977 -12.286
6514.208 0.977 -12.338 0.214 77.557 0.214 77.557 0.977 -12.338
6539.167 0.976 -12.391 0.215 77.505 0.215 77.505 0.976 -12.391
6564.125 0.976 -12.443 0.215 77.452 0.215 77.452 0.976 -12.443
6589.083 0.976 -12.495 0.216 77.399 0.216 77.399 0.976 -12.495
6614.042 0.976 -12.547 0.217 77.346 0.217 77.346 0.976 -12.547
6639 0.976 -12.6 0.218 77.293 0.218 77.293 0.976 -12.6
6663.958 0.975 -12.652 0.219 77.241 0.219 77.241 0.975 -12.652
6688.917 0.975 -12.705 0.22 77.188 0.22 77.188 0.975 -12.705
6713.875 0.975 -12.757 0.221 77.135 0.221 77.135 0.975 -12.757
6738.833 0.975 -12.81 0.222 77.081 0.222 77.081 0.975 -12.81
6763.792 0.974 -12.863 0.223 77.028 0.223 77.028 0.974 -12.863
6788.75 0.974 -12.915 0.224 76.975 0.224 76.975 0.974 -12.915
6813.708 0.974 -12.968 0.224 76.922 0.224 76.922 0.974 -12.968
6838.667 0.974 -13.021 0.225 76.868 0.225 76.868 0.974 -13.021
6863.625 0.974 -13.074 0.226 76.815 0.226 76.815 0.974 -13.074
6888.583 0.973 -13.127 0.227 76.762 0.227 76.762 0.973 -13.127
6913.542 0.973 -13.18 0.228 76.708 0.228 76.708 0.973 -13.18
6938.5 0.973 -13.233 0.229 76.654 0.229 76.654 0.973 -13.233
6963.458 0.973 -13.287 0.23 76.601 0.23 76.601 0.973 -13.287
6988.417 0.973 -13.34 0.231 76.547 0.231 76.547 0.973 -13.34
7013.375 0.972 -13.393 0.232 76.493 0.232 76.493 0.972 -13.393
7038.333 0.972 -13.447 0.233 76.439 0.233 76.439 0.972 -13.447
7063.292 0.972 -13.5 0.233 76.385 0.233 76.385 0.972 -13.5
7088.25 0.972 -13.553 0.234 76.331 0.234 76.331 0.972 -13.553
7113.208 0.971 -13.607 0.235 76.277 0.235 76.277 0.971 -13.607
7138.167 0.971 -13.661 0.236 76.223 0.236 76.223 0.971 -13.661
7163.125 0.971 -13.714 0.237 76.169 0.237 76.169 0.971 -13.714
7188.083 0.971 -13.768 0.238 76.115 0.238 76.115 0.971 -13.768
7213.042 0.971 -13.822 0.239 76.061 0.239 76.061 0.971 -13.822
7238 0.97 -13.876 0.24 76.006 0.24 76.006 0.97 -13.876
7262.958 0.97 -13.93 0.241 75.952 0.241 75.952 0.97 -13.93
7287.917 0.97 -13.984 0.242 75.897 0.242 75.897 0.97 -13.984
7312.875 0.97 -14.038 0.243 75.843 0.243 75.843 0.97 -14.038
7337.833 0.969 -14.092 0.243 75.788 0.243 75.788 0.969 -14.092
7362.792 0.969 -14.146 0.244 75.733 0.244 75.733 0.969 -14.146
7387.75 0.969 -14.201 0.245 75.678 0.245 75.678 0.969 -14.201
7412.708 0.969 -14.255 0.246 75.624 0.246 75.624 0.969 -14.255
7437.667 0.968 -14.31 0.247 75.569 0.247 75.569 0.968 -14.31
7462.625 0.968 -14.364 0.248 75.514 0.248 75.514 0.968 -14.364
7487.583 0.968 -14.419 0.249 75.459 0.249 75.459 0.968 -14.419
7512.542 0.968 -14.473 0.25 75.403 0.25 75.403 0.968 -14.473
7537.5 0.967 -14.528 0.251 75.348 0.251 75.348 0.967 -14.528
7562.458 0.967 -14.583 0.252 75.293 0.252 75.293 0.967 -14.583
7587.417 0.967 -14.638 0.253 75.238 0.253 75.238 0.967 -14.638
7612.375 0.967 -14.693 0.254 75.182 0.254 75.182 0.967 -14.693
7637.333 0.966 -14.748 0.255 75.127 0.255 75.127 0.966 -14.748
7662.292 0.966 -14.803 0.255 75.071 0.255 75.071 0.966 -14.803
7687.25 0.966 -14.858 0.256 75.015 0.256 75.015 0.966 -14.858
7712.208 0.966 -14.913 0.257 74.96 0.257 74.96 0.966 -14.913
7737.167 0.965 -14.968 0.258 74.904 0.258 74.904 0.965 -14.968
7762.125 0.965 -15.024 0.259 74.848 0.259 74.848 0.965 -15.024
7787.083 0.965 -15.079 0.26 74.792 0.26 74.792 0.965 -15.079
7812.042 0.965 -15.135 0.261 74.736 0.261 74.736 0.965 -15.135
7837 0.964 -15.19 0.262 74.68 0.262 74.68 0.964 -15.19
7861.958 0.964 -15.246 0.263 74.624 0.263 74.624 0.964 -15.246
7886.917 0.964 -15.302 0.264 74.568 0.264 74.568 0.964 -15.302
7911.875 0.964 -15.358 0.265 74.511 0.265 74.511 0.964 -15.358
7936.833 0.963 -15.413 0.266 74.455 0.266 74.455 0.963 -15.413
7961.792 0.963 -15.469 0.267 74.399 0.267 74.399 0.963 -15.469
7986.75 0.963 -15.525 0.268 74.342 0.268 74.342 0.963 -15.525
8011.708 0.963 -15.581 0.269 74.285 0.269 74.285 0.963 -15.581
8036.667 0.962 -15.638 0.27 74.229 0.27 74.229 0.962 -15.638
8061.625 0.962 -15.694 0.27 74.172 0.27 74.172 0.962 -15.694
8086.583 0.962 -15.75 0.271 74.115 0.271 74.115 0.962 -15.75
8111.542 0.962 -15.807 0.272 74.058 0.272 74.058 0.962 -15.807
8136.5 0.961 -15.863 0.273 74.001 0.273 74.001 0.961 -15.863
8161.458 0.961 -15.92 0.274 73.944 0.274 73.944 0.961 -15.92
8186.417 0.961 -15.976 0.275 73.887 0.275 73.887 0.961 -15.976
8211.375 0.96 -16.033 0.276 73.83 0.276 73.83 0.96 -16.033
8236.333 0.96 -16.09 0.277 73.772 0.277 73.772 0.96 -16.09
8261.292 0.96 -16.147 0.278 73.715 0.278 73.715 0.96 -16.147
8286.25 0.96 -16.204 0.279 73.658 0.279 73.658 0.96 -16.204
8311.208 0.959 -16.261 0.28 73.6 0.28 73.6 0.959 -16.261
8336.167 0.959 -16.318 0.281 73.542 0.281 73.542 0.959 -16.318
8361.125 0.959 -16.375 0.282 73.485 0.282 73.485 0.959 -16.375
