# MHZ S MA R 50

50 0.99 -8.049 0.14 81.939 0.14 81.939 0.99 -8.049
74.958 0.978 -11.974 0.207 78.008 0.207 78.008 0.978 -11.974
99.917 0.962 -15.794 0.272 74.182 0.272 74.182 0.962 -15.794
124.875 0.943 -19.481 0.334 70.489 0.334 70.489 0.943 -19.481
149.833 0.92 -23.017 0.391 66.948 0.391 66.948 0.92 -23.017
174.792 0.896 -26.385 0.444 63.573 0.444 63.573 0.896 -26.385
199.75 0.869 -29.578 0.494 60.375 0.494 60.375 0.869 -29.578
224.708 0.842 -32.592 0.539 57.355 0.539 57.355 0.842 -32.592
249.667 0.814 -35.427 0.58 54.513 0.58 54.513 0.814 -35.427
274.625 0.786 -38.088 0.617 51.847 0.617 51.847 0.786 -38.088
299.583 0.759 -40.58 0.651 49.348 0.651 49.348 0.759 -40.58
324.542 0.731 -42.912 0.681 47.01 0.681 47.01 0.731 -42.912
349.5 0.705 -45.093 0.708 44.823 0.708 44.823 0.705 -45.093
374.458 0.679 -47.132 0.733 42.778 0.733 42.778 0.679 -47.132
399.417 0.654 -49.038 0.755 40.865 0.755 40.865 0.654 -49.038
424.375 0.63 -50.821 0.775 39.076 0.775 39.076 0.63 -50.821
449.333 0.607 -52.49 0.793 37.4 0.793 37.4 0.607 -52.49
474.292 0.585 -54.054 0.81 35.83 0.81 35.83 0.585 -54.054
499.25 0.564 -55.521 0.824 34.357 0.824 34.357 0.564 -55.521
524.208 0.544 -56.898 0.838 32.973 0.838 32.973 0.544 -56.898
549.167 0.525 -58.193 0.85 31.672 0.85 31.672 0.525 -58.193
574.125 0.507 -59.411 0.861 30.447 0.861 30.447 0.507 -59.411
599.083 0.489 -60.56 0.871 29.291 0.871 29.291 0.489 -60.56
624.042 0.473 -61.644 0.88 28.201 0.88 28.201 0.473 -61.644
649 0.457 -62.668 0.888 27.17 0.888 27.17 0.457 -62.668
673.958 0.441 -63.637 0.896 26.193 0.896 26.193 0.441 -63.637
698.917 0.427 -64.555 0.903 25.268 0.903 25.268 0.427 -64.555
723.875 0.413 -65.426 0.909 24.39 0.909 24.39 0.413 -65.426
748.833 0.4 -66.253 0.915 23.555 0.915 23.555 0.4 -66.253
773.792 0.387 -67.04 0.921 22.761 0.921 22.761 0.387 -67.04
798.75 0.375 -67.789 0.926 22.004 0.926 22.004 0.375 -67.789
823.708 0.363 -68.504 0.93 21.282 0.93 21.282 0.363 -68.504
848.667 0.352 -69.185 0.935 20.592 0.935 20.592 0.352 -69.185
873.625 0.341 -69.837 0.939 19.933 0.939 19.933 0.341 -69.837
898.583 0.331 -70.46 0.942 19.302 0.942 19.302 0.331 -70.46
923.542 0.321 -71.056 0.946 18.697 0.946 18.697 0.321 -71.056
948.5 0.311 -71.628 0.949 18.117 0.949 18.117 0.311 -71.628
973.458 0.302 -72.177 0.952 17.559 0.952 17.559 0.302 -72.177
998.417 0.293 -72.704 0.955 17.023 0.955 17.023 0.293 -72.704
1023.375 0.284 -73.21 0.957 16.508 0.957 16.508 0.284 -73.21
1048.333 0.276 -73.698 0.96 16.011 0.96 16.011 0.276 -73.698
1073.292 0.268 -74.167 0.962 15.533 0.962 15.533 0.268 -74.167
1098.25 0.26 -74.619 0.964 15.071 0.964 15.071 0.26 -74.619
1123.208 0.252 -75.055 0.966 14.624 0.966 14.624 0.252 -75.055
1148.167 0.245 -75.476 0.968 14.193 0.968 14.193 0.245 -75.476
1173.125 0.238 -75.883 0.97 13.776 0.97 13.776 0.238 -75.883
1198.083 0.231 -76.276 0.971 13.372 0.971 13.372 0.231 -76.276
1223.042 0.225 -76.657 0.973 12.981 0.973 12.981 0.225 -76.657
1248 0.218 -77.025 0.974 12.601 0.974 12.601 0.218 -77.025
1272.958 0.212 -77.381 0.976 12.233 0.976 12.233 0.212 -77.381
1297.917 0.206 -77.727 0.977 11.876 0.977 11.876 0.206 -77.727
1322.875 0.2 -78.062 0.978 11.528 0.978 11.528 0.2 -78.062
1347.833 0.194 -78.387 0.98 11.191 0.98 11.191 0.194 -78.387
1372.792 0.188 -78.702 0.981 10.862 0.981 10.862 0.188 -78.702
1397.75 0.183 -79.009 0.982 10.542 0.982 10.542 0.183 -79.009
1422.708 0.178 -79.306 0.983 10.231 0.983 10.231 0.178 -79.306
1447.667 0.172 -79.596 0.984 9.927 0.984 9.927 0.172 -79.596
1472.625 0.167 -79.877 0.984 9.631 0.984 9.631 0.167 -79.877
1497.583 0.162 -80.15 0.985 9.342 0.985 9.342 0.162 -80.15
1522.542 0.157 -80.416 0.986 9.06 0.986 9.06 0.157 -80.416
1547.5 0.153 -80.675 0.987 8.784 0.987 8.784 0.153 -80.675
1572.458 0.148 -80.927 0.988 8.515 0.988 8.515 0.148 -80.927
1597.417 0.144 -81.173 0.988 8.251 0.988 8.251 0.144 -81.173
1622.375 0.139 -81.412 0.989 7.993 0.989 7.993 0.139 -81.412
1647.333 0.135 -81.644 0.989 7.741 0.989 7.741 0.135 -81.644
1672.292 0.13 -81.871 0.99 7.494 0.99 7.494 0.13 -81.871
1697.25 0.126 -82.091 0.991 7.252 0.991 7.252 0.126 -82.091
1722.208 0.122 -82.306 0.991 7.015 0.991 7.015 0.122 -82.306
1747.167 0.118 -82.515 0.992 6.783 0.992 6.783 0.118 -82.515
1772.125 0.114 -82.718 0.992 6.554 0.992 6.554 0.114 -82.718
1797.083 0.11 -82.916 0.992 6.331 0.992 6.331 0.11 -82.916
1822.042 0.106 -83.109 0.993 6.111 0.993 6.111 0.106 -83.109
1847 0.103 -83.296 0.993 5.895 0.993 5.895 0.103 -83.296
1871.958 0.099 -83.477 0.994 5.683 0.994 5.683 0.099 -83.477
1896.917 0.095 -83.654 0.994 5.475 0.994 5.475 0.095 -83.654
1921.875 0.092 -83.824 0.994 5.27 0.994 5.27 0.092 -83.824
1946.833 0.088 -83.99 0.995 5.069 0.995 5.069 0.088 -83.99
1971.792 0.085 -84.149 0.995 4.87 0.995 4.87 0.085 -84.149
1996.75 0.082 -84.303 0.995 4.675 0.995 4.675 0.082 -84.303
2021.708 0.078 -84.451 0.995 4.483 0.995 4.483 0.078 -84.451
2046.667 0.075 -84.593 0.996 4.294 0.996 4.294 0.075 -84.593
2071.625 0.072 -84.729 0.996 4.108 0.996 4.108 0.072 -84.729
2096.583 0.068 -84.858 0.996 3.925 0.996 3.925 0.068 -84.858
2121.542 0.065 -84.98 0.996 3.744 0.996 3.744 0.065 -84.98
2146.5 0.062 -85.094 0.997 3.566 0.997 3.566 0.062 -85.094
2171.458 0.059 -85.2 0.997 3.39 0.997 3.39 0.059 -85.2
2196.417 0.056 -85.297 0.997 3.216 0.997 3.216 0.056 -85.297
2221.375 0.053 -85.385 0.997 3.045 0.997 3.045 0.053 -85.385
2246.333 0.05 -85.461 0.997 2.877 0.997 2.877 0.05 -85.461
2271.292 0.047 -85.526 0.997 2.71 0.997 2.71 0.047 -85.526
2296.25 0.044 -85.576 0.998 2.545 0.998 2.545 0.044 -85.576
2321.208 0.042 -85.61 0.998 2.383 0.998 2.383 0.042 -85.61
2346.167 0.039 -85.626 0.998 2.222 0.998 2.222 0.039 -85.626
2371.125 0.036 -85.619 0.998 2.063 0.998 2.063 0.036 -85.619
2396.083 0.033 -85.585 0.998 1.907 0.998 1.907 0.033 -85.585
2421.042 0.031 -85.519 0.998 1.752 0.998 1.752 0.031 -85.519
2446 0.028 -85.41 0.998 1.598 0.998 1.598 0.028 -85.41
2470.958 0.025 -85.249 0.998 1.447 0.998 1.447 0.025 -85.249
2495.917 0.023 -85.018 0.998 1.297 0.998 1.297 0.023 -85.018
2520.875 0.02 -84.692 0.998 1.149 0.998 1.149 0.02 -84.692
2545.833 0.018 -84.232 0.998 1.002 0.998 1.002 0.018 -84.232
2570.792 0.015 -83.574 0.998 0.857 0.998 0.857 0.015 -83.574
2595.75 0.013 -82.604 0.998 0.713 0.998 0.713 0.013 -82.604
2620.708 0.01 -81.101 0.998 0.571 0.998 0.571 0.01 -81.101
2645.667 7.641e-3 -78.569 0.999 0.43 0.999 0.43 7.641e-3 -78.569
2670.625 5.27e-3 -73.649 0.999 0.29 0.999 0.29 5.27e-3 -73.649
2695.583 3.026e-3 -61.043 0.999 0.152 0.999 0.152 3.026e-3 -61.043
2720.542 1.481e-3 -10.146 0.999 0.015 0.999 0.015 1.481e-3 -10.146
2745.5 2.563e-3 55.198 0.999 -0.121 0.999 -0.121 2.563e-3 55.198
2770.458 4.687e-3 71.62 0.999 -0.255 0.999 -0.255 4.687e-3 71.62
2795.417 6.936e-3 77.476 0.999 -0.389 0.999 -0.389 6.936e-3 77.476
2820.375 9.204e-3 80.364 0.999 -0.521 0.999 -0.521 9.204e-3 80.364
2845.333 0.011 82.043 0.998 -0.652 0.998 -0.652 0.011 82.043
2870.292 0.014 83.118 0.998 -0.782 0.998 -0.782 0.014 83.118
2895.25 0.016 83.847 0.998 -0.91 0.998 -0.91 0.016 83.847
2920.208 0.018 84.362 0.998 -1.038 0.998 -1.038 0.018 84.362
2945.167 0.02 84.734 0.998 -1.165 0.998 -1.165 0.02 84.734
2970.125 0.023 85.007 0.998 -1.291 0.998 -1.291 0.023 85.007
2995.083 0.025 85.208 0.998 -1.416 0.998 -1.416 0.025 85.208
3020.042 0.027 85.355 0.998 -1.539 0.998 -1.539 0.027 85.355
3045 0.029 85.461 0.998 -1.662 0.998 -1.662 0.029 85.461
3069.958 0.031 85.536 0.998 -1.784 0.998 -1.784 0.031 85.536
3094.917 0.033 85.585 0.998 -1.905 0.998 -1.905 0.033 85.585
3119.875 0.035 85.614 0.998 -2.026 0.998 -2.026 0.035 85.614
3144.833 0.037 85.626 0.998 -2.145 0.998 -2.145 0.037 85.626
3169.792 0.04 85.624 0.998 -2.264 0.998 -2.264 0.04 85.624
3194.75 0.042 85.61 0.998 -2.382 0.998 -2.382 0.042 85.61
3219.708 0.044 85.588 0.998 -2.498 0.998 -2.498 0.044 85.588
3244.667 0.046 85.556 0.998 -2.615 0.998 -2.615 0.046 85.556
3269.625 0.048 85.518 0.997 -2.73 0.997 -2.73 0.048 85.518
3294.583 0.05 85.474 0.997 -2.845 0.997 -2.845 0.05 85.474
3319.542 0.052 85.425 0.997 -2.959 0.997 -2.959 0.052 85.425
3344.5 0.054 85.372 0.997 -3.072 0.997 -3.072 0.054 85.372
3369.458 0.056 85.314 0.997 -3.185 0.997 -3.185 0.056 85.314
3394.417 0.058 85.253 0.997 -3.297 0.997 -3.297 0.058 85.253
3419.375 0.059 85.189 0.997 -3.408 0.997 -3.408 0.059 85.189
3444.333 0.061 85.123 0.997 -3.518 0.997 -3.518 0.061 85.123
3469.292 0.063 85.054 0.997 -3.628 0.997 -3.628 0.063 85.054
3494.25 0.065 84.984 0.996 -3.738 0.996 -3.738 0.065 84.984
3519.208 0.067 84.911 0.996 -3.846 0.996 -3.846 0.067 84.911
3544.167 0.069 84.837 0.996 -3.954 0.996 -3.954 0.069 84.837
3569.125 0.071 84.762 0.996 -4.062 0.996 -4.062 0.071 84.762
3594.083 0.073 84.685 0.996 -4.169 0.996 -4.169 0.073 84.685
3619.042 0.075 84.607 0.996 -4.275 0.996 -4.275 0.075 84.607
3644 0.076 84.529 0.996 -4.381 0.996 -4.381 0.076 84.529
3668.958 0.078 84.449 0.995 -4.486 0.995 -4.486 0.078 84.449
3693.917 0.08 84.369 0.995 -4.591 0.995 -4.591 0.08 84.369
3718.875 0.082 84.288 0.995 -4.695 0.995 -4.695 0.082 84.288
3743.833 0.084 84.206 0.995 -4.799 0.995 -4.799 0.084 84.206
3768.792 0.085 84.124 0.995 -4.902 0.995 -4.902 0.085 84.124
3793.75 0.087 84.042 0.995 -5.004 0.995 -5.004 0.087 84.042
3818.708 0.089 83.959 0.995 -5.107 0.995 -5.107 0.089 83.959
3843.667 0.091 83.875 0.994 -5.208 0.994 -5.208 0.091 83.875
3868.625 0.093 83.792 0.994 -5.31 0.994 -5.31 0.093 83.792
3893.583 0.094 83.708 0.994 -5.41 0.994 -5.41 0.094 83.708
3918.542 0.096 83.624 0.994 -5.511 0.994 -5.511 0.096 83.624
3943.5 0.098 83.539 0.994 -5.61 0.994 -5.61 0.098 83.539
3968.458 0.099 83.455 0.994 -5.71 0.994 -5.71 0.099 83.455
3993.417 0.101 83.37 0.993 -5.809 0.993 -5.809 0.101 83.37
4018.375 0.103 83.285 0.993 -5.907 0.993 -5.907 0.103 83.285
4043.333 0.105 83.201 0.993 -6.005 0.993 -6.005 0.105 83.201
4068.292 0.106 83.116 0.993 -6.103 0.993 -6.103 0.106 83.116
4093.25 0.108 83.031 0.993 -6.2 0.993 -6.2 0.108 83.031
4118.208 0.11 82.946 0.993 -6.297 0.993 -6.297 0.11 82.946
4143.167 0.111 82.861 0.992 -6.394 0.992 -6.394 0.111 82.861
4168.125 0.113 82.776 0.992 -6.49 0.992 -6.49 0.113 82.776
4193.083 0.115 82.691 0.992 -6.586 0.992 -6.586 0.115 82.691
4218.042 0.116 82.606 0.992 -6.681 0.992 -6.681 0.116 82.606
4243 0.118 82.521 0.992 -6.776 0.992 -6.776 0.118 82.521
4267.958 0.12 82.436 0.991 -6.871 0.991 -6.871 0.12 82.436
4292.917 0.121 82.351 0.991 -6.965 0.991 -6.965 0.121 82.351
4317.875 0.123 82.267 0.991 -7.059 0.991 -7.059 0.123 82.267
4342.833 0.125 82.182 0.991 -7.152 0.991 -7.152 0.125 82.182
4367.792 0.126 82.097 0.991 -7.246 0.991 -7.246 0.126 82.097
4392.75 0.128 82.013 0.99 -7.338 0.99 -7.338 0.128 82.013
4417.708 0.129 81.928 0.99 -7.431 0.99 -7.431 0.129 81.928
4442.667 0.131 81.844 0.99 -7.523 0.99 -7.523 0.131 81.844
4467.625 0.133 81.76 0.99 -7.615 0.99 -7.615 0.133 81.76
4492.583 0.134 81.676 0.99 -7.707 0.99 -7.707 0.134 81.676
4517.542 0.136 81.592 0.989 -7.798 0.989 -7.798 0.136 81.592
4542.5 0.137 81.508 0.989 -7.889 0.989 -7.889 0.137 81.508
4567.458 0.139 81.424 0.989 -7.98 0.989 -7.98 0.139 81.424
4592.417 0.14 81.341 0.989 -8.07 0.989 -8.07 0.14 81.341
4617.375 0.142 81.257 0.988 -8.16 0.988 -8.16 0.142 81.257
4642.333 0.143 81.174 0.988 -8.25 0.988 -8.25 0.143 81.174
4667.292 0.145 81.091 0.988 -8.339 0.988 -8.339 0.145 81.091
4692.25 0.147 81.007 0.988 -8.429 0.988 -8.429 0.147 81.007
4717.208 0.148 80.925 0.988 -8.518 0.988 -8.518 0.148 80.925
4742.167 0.15 80.842 0.987 -8.606 0.987 -8.606 0.15 80.842
4767.125 0.151 80.759 0.987 -8.695 0.987 -8.695 0.151 80.759
4792.083 0.153 80.676 0.987 -8.783 0.987 -8.783 0.153 80.676
4817.042 0.154 80.594 0.987 -8.871 0.987 -8.871 0.154 80.594
4842 0.156 80.512 0.986 -8.958 0.986 -8.958 0.156 80.512
4866.958 0.157 80.43 0.986 -9.046 0.986 -9.046 0.157 80.43
4891.917 0.159 80.348 0.986 -9.133 0.986 -9.133 0.159 80.348
4916.875 0.16 80.266 0.986 -9.22 0.986 -9.22 0.16 80.266
4941.833 0.162 80.184 0.985 -9.306 0.985 -9.306 0.162 80.184
4966.792 0.163 80.103 0.985 -9.392 0.985 -9.392 0.163 80.103
4991.75 0.165 80.021 0.985 -9.479 0.985 -9.479 0.165 80.021
5016.708 0.166 79.94 0.985 -9.564 0.985 -9.564 0.166 79.94
5041.667 0.168 79.859 0.984 -9.65 0.984 -9.65 0.168 79.859
5066.625 0.169 79.778 0.984 -9.735 0.984 -9.735 0.169 79.778
5091.583 0.171 79.697 0.984 -9.82 0.984 -9.82 0.171 79.697
5116.542 0.172 79.616 0.984 -9.905 0.984 -9.905 0.172 79.616
5141.5 0.173 79.536 0.983 -9.99 0.983 -9.99 0.173 79.536
5166.458 0.175 79.455 0.983 -10.075 0.983 -10.075 0.175 79.455
5191.417 0.176 79.375 0.983 -10.159 0.983 -10.159 0.176 79.375
5216.375 0.178 79.295 0.983 -10.243 0.983 -10.243 0.178 79.295
5241.333 0.179 79.215 0.982 -10.327 0.982 -10.327 0.179 79.215
5266.292 0.181 79.135 0.982 -10.41 0.982 -10.41 0.181 79.135
5291.25 0.182 79.055 0.982 -10.494 0.982 -10.494 0.182 79.055
5316.208 0.184 78.976 0.982 -10.577 0.982 -10.577 0.184 78.976
5341.167 0.185 78.896 0.981 -10.66 0.981 -10.66 0.185 78.896
5366.125 0.186 78.817 0.981 -10.743 0.981 -10.743 0.186 78.817
5391.083 0.188 78.738 0.981 -10.825 0.981 -10.825 0.188 78.738
5416.042 0.189 78.659 0.981 -10.907 0.981 -10.907 0.189 78.659
5441 0.191 78.58 0.98 -10.99 0.98 -10.99 0.191 78.58
5465.958 0.192 78.501 0.98 -11.072 0.98 -11.072 0.192 78.501
5490.917 0.193 78.423 0.98 -11.153 0.98 -11.153 0.193 78.423
5515.875 0.195 78.344 0.979 -11.235 0.979 -11.235 0.195 78.344
5540.833 0.196 78.266 0.979 -11.316 0.979 -11.316 0.196 78.266
5565.792 0.198 78.188 0.979 -11.397 0.979 -11.397 0.198 78.188
5590.75 0.199 78.11 0.979 -11.479 0.979 -11.479 0.199 78.11
5615.708 0.2 78.032 0.978 -11.559 0.978 -11.559 0.2 78.032
5640.667 0.202 77.954 0.978 -11.64 0.978 -11.64 0.202 77.954
5665.625 0.203 77.877 0.978 -11.72 0.978 -11.72 0.203 77.877
5690.583 0.205 77.799 0.977 -11.801 0.977 -11.801 0.205 77.799
5715.542 0.206 77.722 0.977 -11.881 0.977 -11.881 0.206 77.722
5740.5 0.207 77.645 0.977 -11.961 0.977 -11.961 0.207 77.645
5765.458 0.209 77.568 0.977 -12.04 0.977 -12.04 0.209 77.568
5790.417 0.21 77.491 0.976 -12.12 0.976 -12.12 0.21 77.491
5815.375 0.211 77.414 0.976 -12.199 0.976 -12.199 0.211 77.414
5840.333 0.213 77.337 0.976 -12.279 0.976 -12.279 0.213 77.337
5865.292 0.214 77.261 0.975 -12.358 0.975 -12.358 0.214 77.261
5890.25 0.215 77.184 0.975 -12.437 0.975 -12.437 0.215 77.184
5915.208 0.217 77.108 0.975 -12.515 0.975 -12.515 0.217 77.108
5940.167 0.218 77.032 0.975 -12.594 0.975 -12.594 0.218 77.032
5965.125 0.219 76.956 0.974 -12.672 0.974 -12.672 0.219 76.956
5990.083 0.221 76.88 0.974 -12.751 0.974 -12.751 0.221 76.88
6015.042 0.222 76.804 0.974 -12.829 0.974 -12.829 0.222 76.804
6040 0.223 76.729 0.973 -12.907 0.973 -12.907 0.223 76.729
6064.958 0.225 76.653 0.973 -12.984 0.973 -12.984 0.225 76.653
6089.917 0.226 76.578 0.973 -13.062 0.973 -13.062 0.226 76.578
6114.875 0.227 76.503 0.972 -13.14 0.972 -13.14 0.227 76.503
6139.833 0.229 76.427 0.972 -13.217 0.972 -13.217 0.229 76.427
6164.792 0.23 76.352 0.972 -13.294 0.972 -13.294 0.23 76.352
6189.75 0.231 76.278 0.971 -13.371 0.971 -13.371 0.231 76.278
6214.708 0.233 76.203 0.971 -13.448 0.971 -13.448 0.233 76.203
6239.667 0.234 76.128 0.971 -13.525 0.971 -13.525 0.234 76.128
6264.625 0.235 76.054 0.971 -13.601 0.971 -13.601 0.235 76.054
6289.583 0.236 75.979 0.97 -13.678 0.97 -13.678 0.236 75.979
6314.542 0.238 75.905 0.97 -13.754 0.97 -13.754 0.238 75.905
6339.5 0.239 75.831 0.97 -13.83 0.97 -13.83 0.239 75.831
6364.458 0.24 75.757 0.969 -13.906 0.969 -13.906 0.24 75.757
6389.417 0.242 75.683 0.969 -13.982 0.969 -13.982 0.242 75.683
6414.375 0.243 75.609 0.969 -14.057 0.969 -14.057 0.243 75.609
6439.333 0.244 75.535 0.968 -14.133 0.968 -14.133 0.244 75.535
6464.292 0.245 75.462 0.968 -14.208 0.968 -14.208 0.245 75.462
6489.25 0.247 75.388 0.968 -14.284 0.968 -14.284 0.247 75.388
6514.208 0.248 75.315 0.967 -14.359 0.967 -14.359 0.248 75.315
6539.167 0.249 75.242 0.967 -14.434 0.967 -14.434 0.249 75.242
6564.125 0.251 75.168 0.967 -14.509 0.967 -14.509 0.251 75.168
6589.083 0.252 75.095 0.966 -14.584 0.966 -14.584 0.252 75.095
6614.042 0.253 75.022 0.966 -14.658 0.966 -14.658 0.253 75.022
6639 0.254 74.95 0.966 -14.733 0.966 -14.733 0.254 74.95
6663.958 0.256 74.877 0.965 -14.807 0.965 -14.807 0.256 74.877
6688.917 0.257 74.804 0.965 -14.881 0.965 -14.881 0.257 74.804
6713.875 0.258 74.732 0.965 -14.955 0.965 -14.955 0.258 74.732
6738.833 0.259 74.66 0.964 -15.029 0.964 -15.029 0.259 74.66
6763.792 0.261 74.587 0.964 -15.103 0.964 -15.103 0.261 74.587
6788.75 0.262 74.515 0.964 -15.177 0.964 -15.177 0.262 74.515
6813.708 0.263 74.443 0.963 -15.25 0.963 -15.25 0.263 74.443
6838.667 0.264 74.371 0.963 -15.324 0.963 -15.324 0.264 74.371
6863.625 0.266 74.3 0.963 -15.397 0.963 -15.397 0.266 74.3
6888.583 0.267 74.228 0.962 -15.47 0.962 -15.47 0.267 74.228
6913.542 0.268 74.156 0.962 -15.543 0.962 -15.543 0.268 74.156
6938.5 0.269 74.085 0.962 -15.616 0.962 -15.616 0.269 74.085
6963.458 0.27 74.013 0.961 -15.689 0.961 -15.689 0.27 74.013
6988.417 0.272 73.942 0.961 -15.762 0.961 -15.762 0.272 73.942
7013.375 0.273 73.871 0.961 -15.834 0.961 -15.834 0.273 73.871
7038.333 0.274 73.8 0.96 -15.907 0.96 -15.907 0.274 73.8
7063.292 0.275 73.729 0.96 -15.979 0.96 -15.979 0.275 73.729
7088.25 0.277 73.658 0.96 -16.051 0.96 -16.051 0.277 73.658
7113.208 0.278 73.587 0.959 -16.124 0.959 -16.124 0.278 73.587
7138.167 0.279 73.517 0.959 -16.196 0.959 -16.196 0.279 73.517
7163.125 0.28 73.446 0.959 -16.267 0.959 -16.267 0.28 73.446
7188.083 0.281 73.376 0.958 -16.339 0.958 -16.339 0.281 73.376
7213.042 0.283 73.305 0.958 -16.411 0.958 -16.411 0.283 73.305
7238 0.284 73.235 0.958 -16.482 0.958 -16.482 0.284 73.235
7262.958 0.285 73.165 0.957 -16.554 0.957 -16.554 0.285 73.165
7287.917 0.286 73.095 0.957 -16.625 0.957 -16.625 0.286 73.095
7312.875 0.287 73.025 0.956 -16.696 0.956 -16.696 0.287 73.025
7337.833 0.288 72.955 0.956 -16.767 0.956 -16.767 0.288 72.955
7362.792 0.29 72.886 0.956 -16.838 0.956 -16.838 0.29 72.886
7387.75 0.291 72.816 0.955 -16.909 0.955 -16.909 0.291 72.816
7412.708 0.292 72.746 0.955 -16.98 0.955 -16.98 0.292 72.746
7437.667 0.293 72.677 0.955 -17.051 0.955 -17.051 0.293 72.677
7462.625 0.294 72.608 0.954 -17.121 0.954 -17.121 0.294 72.608
7487.583 0.296 72.538 0.954 -17.192 0.954 -17.192 0.296 72.538
7512.542 0.297 72.469 0.954 -17.262 0.954 -17.262 0.297 72.469
7537.5 0.298 72.4 0.953 -17.332 0.953 -17.332 0.298 72.4
7562.458 0.299 72.331 0.953 -17.402 0.953 -17.402 0.299 72.331
7587.417 0.3 72.262 0.952 -17.472 0.952 -17.472 0.3 72.262
7612.375 0.301 72.194 0.952 -17.542 0.952 -17.542 0.301 72.194
7637.333 0.303 72.125 0.952 -17.612 0.952 -17.612 0.303 72.125
7662.292 0.304 72.056 0.951 -17.682 0.951 -17.682 0.304 72.056
7687.25 0.305 71.988 0.951 -17.751 0.951 -17.751 0.305 71.988
7712.208 0.306 71.919 0.951 -17.821 0.951 -17.821 0.306 71.919
7737.167 0.307 71.851 0.95 -17.89 0.95 -17.89 0.307 71.851
7762.125 0.308 71.783 0.95 -17.959 0.95 -17.959 0.308 71.783
7787.083 0.309 71.715 0.95 -18.028 0.95 -18.028 0.309 71.715
7812.042 0.311 71.647 0.949 -18.097 0.949 -18.097 0.311 71.647
7837 0.312 71.579 0.949 -18.166 0.949 -18.166 0.312 71.579
7861.958 0.313 71.511 0.948 -18.235 0.948 -18.235 0.313 71.511
7886.917 0.314 71.443 0.948 -18.304 0.948 -18.304 0.314 71.443
7911.875 0.315 71.376 0.948 -18.373 0.948 -18.373 0.315 71.376
7936.833 0.316 71.308 0.947 -18.441 0.947 -18.441 0.316 71.308
7961.792 0.317 71.241 0.947 -18.51 0.947 -18.51 0.317 71.241
7986.75 0.319 71.173 0.947 -18.578 0.947 -18.578 0.319 71.173
8011.708 0.32 71.106 0.946 -18.646 0.946 -18.646 0.32 71.106
8036.667 0.321 71.039 0.946 -18.714 0.946 -18.714 0.321 71.039
8061.625 0.322 70.972 0.945 -18.782 0.945 -18.782 0.322 70.972
8086.583 0.323 70.905 0.945 -18.85 0.945 -18.85 0.323 70.905
8111.542 0.324 70.838 0.945 -18.918 0.945 -18.918 0.324 70.838
8136.5 0.325 70.771 0.944 -18.986 0.944 -18.986 0.325 70.771
8161.458 0.326 70.704 0.944 -19.054 0.944 -19.054 0.326 70.704
8186.417 0.328 70.638 0.943 -19.121 0.943 -19.121 0.328 70.638
