# MHZ S MA R 50

50 0.998 -3.237 0.056 86.757 0.056 86.757 0.998 -3.237
74.958 0.996 -4.847 0.084 85.143 0.084 85.143 0.996 -4.847
99.917 0.994 -6.451 0.112 83.537 0.112 83.537 0.994 -6.451
124.875 0.99 -8.045 0.14 81.939 0.14 81.939 0.99 -8.045
149.833 0.986 -9.629 0.167 80.352 0.167 80.352 0.986 -9.629
174.792 0.981 -11.2 0.194 78.778 0.194 78.778 0.981 -11.2
199.75 0.975 -12.757 0.221 77.218 0.221 77.218 0.975 -12.757
224.708 0.969 -14.296 0.247 75.675 0.247 75.675 0.969 -14.296
249.667 0.962 -15.818 0.273 74.15 0.273 74.15 0.962 -15.818
274.625 0.954 -17.32 0.298 72.645 0.298 72.645 0.954 -17.32
299.583 0.946 -18.802 0.322 71.16 0.322 71.16 0.946 -18.802
324.542 0.938 -20.261 0.346 69.698 0.346 69.698 0.938 -20.261
349.5 0.929 -21.697 0.37 68.259 0.37 68.259 0.929 -21.697
374.458 0.919 -23.109 0.392 66.844 0.392 66.844 0.919 -23.109
399.417 0.91 -24.496 0.415 65.454 0.415 65.454 0.91 -24.496
424.375 0.899 -25.857 0.436 64.089 0.436 64.089 0.899 -25.857
449.333 0.889 -27.192 0.457 62.751 0.457 62.751 0.889 -27.192
474.292 0.878 -28.501 0.477 61.439 0.477 61.439 0.878 -28.501
499.25 0.867 -29.782 0.497 60.154 0.497 60.154 0.867 -29.782
524.208 0.856 -31.037 0.516 58.896 0.516 58.896 0.856 -31.037
549.167 0.845 -32.265 0.534 57.665 0.534 57.665 0.845 -32.265
574.125 0.834 -33.465 0.551 56.461 0.551 56.461 0.834 -33.465
599.083 0.822 -34.639 0.568 55.284 0.568 55.284 0.822 -34.639
624.042 0.81 -35.786 0.585 54.134 0.585 54.134 0.81 -35.786
649 0.799 -36.906 0.6 53.011 0.6 53.011 0.799 -36.906
673.958 0.787 -37.999 0.616 51.914 0.616 51.914 0.787 -37.999
698.917 0.775 -39.067 0.63 50.842 0.63 50.842 0.775 -39.067
723.875 0.764 -40.11 0.644 49.797 0.644 49.797 0.764 -40.11
748.833 0.752 -41.127 0.658 48.776 0.658 48.776 0.752 -41.127
773.792 0.741 -42.119 0.671 47.78 0.671 47.78 0.741 -42.119
798.75 0.729 -43.087 0.683 46.808 0.683 46.808 0.729 -43.087
823.708 0.718 -44.032 0.695 45.86 0.695 45.86 0.718 -44.032
848.667 0.706 -44.953 0.707 44.935 0.707 44.935 0.706 -44.953
873.625 0.695 -45.852 0.718 44.033 0.718 44.033 0.695 -45.852
898.583 0.684 -46.729 0.728 43.153 0.728 43.153 0.684 -46.729
923.542 0.673 -47.584 0.738 42.294 0.738 42.294 0.673 -47.584
948.5 0.662 -48.419 0.748 41.456 0.748 41.456 0.662 -48.419
973.458 0.651 -49.233 0.757 40.638 0.757 40.638 0.651 -49.233
998.417 0.641 -50.027 0.766 39.84 0.766 39.84 0.641 -50.027
1023.375 0.63 -50.802 0.775 39.061 0.775 39.061 0.63 -50.802
1048.333 0.62 -51.558 0.783 38.301 0.783 38.301 0.62 -51.558
1073.292 0.61 -52.296 0.791 37.56 0.791 37.56 0.61 -52.296
1098.25 0.6 -53.017 0.799 36.835 0.799 36.835 0.6 -53.017
1123.208 0.59 -53.72 0.806 36.128 0.806 36.128 0.59 -53.72
1148.167 0.58 -54.407 0.813 35.437 0.813 35.437 0.58 -54.407
1173.125 0.57 -55.077 0.82 34.763 0.82 34.763 0.57 -55.077
1198.083 0.561 -55.732 0.826 34.104 0.826 34.104 0.561 -55.732
1223.042 0.551 -56.372 0.833 33.46 0.833 33.46 0.551 -56.372
1248 0.542 -56.997 0.839 32.831 0.839 32.831 0.542 -56.997
1272.958 0.533 -57.608 0.844 32.215 0.844 32.215 0.533 -57.608
1297.917 0.524 -58.206 0.85 31.614 0.85 31.614 0.524 -58.206
1322.875 0.515 -58.79 0.855 31.026 0.855 31.026 0.515 -58.79
1347.833 0.507 -59.361 0.86 30.451 0.86 30.451 0.507 -59.361
1372.792 0.498 -59.919 0.865 29.888 0.865 29.888 0.498 -59.919
1397.75 0.49 -60.465 0.87 29.337 0.87 29.337 0.49 -60.465
1422.708 0.482 -61 0.875 28.798 0.875 28.798 0.482 -61
1447.667 0.474 -61.523 0.879 28.27 0.879 28.27 0.474 -61.523
1472.625 0.466 -62.035 0.883 27.754 0.883 27.754 0.466 -62.035
1497.583 0.458 -62.537 0.887 27.248 0.887 27.248 0.458 -62.537
1522.542 0.45 -63.028 0.891 26.752 0.891 26.752 0.45 -63.028
1547.5 0.443 -63.509 0.895 26.266 0.895 26.266 0.443 -63.509
1572.458 0.435 -63.98 0.899 25.79 0.899 25.79 0.435 -63.98
1597.417 0.428 -64.442 0.902 25.324 0.902 25.324 0.428 -64.442
1622.375 0.421 -64.894 0.906 24.866 0.906 24.866 0.421 -64.894
1647.333 0.413 -65.338 0.909 24.418 0.909 24.418 0.413 -65.338
1672.292 0.406 -65.773 0.912 23.977 0.912 23.977 0.406 -65.773
1697.25 0.399 -66.2 0.915 23.546 0.915 23.546 0.399 -66.2
1722.208 0.393 -66.618 0.918 23.122 0.918 23.122 0.393 -66.618
1747.167 0.386 -67.029 0.921 22.706 0.921 22.706 0.386 -67.029
1772.125 0.379 -67.432 0.923 22.297 0.923 22.297 0.379 -67.432
1797.083 0.373 -67.828 0.926 21.896 0.926 21.896 0.373 -67.828
1822.042 0.367 -68.216 0.929 21.502 0.929 21.502 0.367 -68.216
1847 0.36 -68.597 0.931 21.115 0.931 21.115 0.36 -68.597
1871.958 0.354 -68.972 0.933 20.735 0.933 20.735 0.354 -68.972
1896.917 0.348 -69.34 0.936 20.361 0.936 20.361 0.348 -69.34
1921.875 0.342 -69.701 0.938 19.994 0.938 19.994 0.342 -69.701
1946.833 0.336 -70.057 0.94 19.632 0.94 19.632 0.336 -70.057
1971.792 0.33 -70.406 0.942 19.277 0.942 19.277 0.33 -70.406
1996.75 0.324 -70.749 0.944 18.927 0.944 18.927 0.324 -70.749
2021.708 0.319 -71.086 0.946 18.584 0.946 18.584 0.319 -71.086
2046.667 0.313 -71.418 0.948 18.245 0.948 18.245 0.313 -71.418
2071.625 0.308 -71.745 0.95 17.912 0.95 17.912 0.308 -71.745
2096.583 0.302 -72.066 0.951 17.584 0.951 17.584 0.302 -72.066
2121.542 0.297 -72.381 0.953 17.261 0.953 17.261 0.297 -72.381
2146.5 0.291 -72.692 0.955 16.943 0.955 16.943 0.291 -72.692
2171.458 0.286 -72.998 0.956 16.63 0.956 16.63 0.286 -72.998
2196.417 0.281 -73.299 0.958 16.322 0.958 16.322 0.281 -73.299
2221.375 0.276 -73.596 0.959 16.018 0.959 16.018 0.276 -73.596
2246.333 0.271 -73.888 0.961 15.718 0.961 15.718 0.271 -73.888
2271.292 0.266 -74.175 0.962 15.423 0.962 15.423 0.266 -74.175
2296.25 0.261 -74.458 0.963 15.132 0.963 15.132 0.261 -74.458
2321.208 0.256 -74.737 0.965 14.844 0.965 14.844 0.256 -74.737
2346.167 0.251 -75.012 0.966 14.561 0.966 14.561 0.251 -75.012
2371.125 0.247 -75.282 0.967 14.282 0.967 14.282 0.247 -75.282
2396.083 0.242 -75.549 0.968 14.006 0.968 14.006 0.242 -75.549
2421.042 0.237 -75.811 0.97 13.735 0.97 13.735 0.237 -75.811
2446 0.233 -76.07 0.971 13.466 0.971 13.466 0.233 -76.07
2470.958 0.228 -76.326 0.972 13.201 0.972 13.201 0.228 -76.326
2495.917 0.224 -76.577 0.973 12.94 0.973 12.94 0.224 -76.577
2520.875 0.22 -76.825 0.974 12.682 0.974 12.682 0.22 -76.825
2545.833 0.215 -77.07 0.975 12.427 0.975 12.427 0.215 -77.07
2570.792 0.211 -77.311 0.976 12.175 0.976 12.175 0.211 -77.311
2595.75 0.207 -77.548 0.977 11.926 0.977 11.926 0.207 -77.548
2620.708 0.202 -77.783 0.977 11.681 0.977 11.681 0.202 -77.783
2645.667 0.198 -78.014 0.978 11.438 0.978 11.438 0.198 -78.014
2670.625 0.194 -78.242 0.979 11.198 0.979 11.198 0.194 -78.242
2695.583 0.19 -78.466 0.98 10.961 0.98 10.961 0.19 -78.466
2720.542 0.186 -78.688 0.981 10.726 0.981 10.726 0.186 -78.688
2745.5 0.182 -78.906 0.981 10.495 0.981 10.495 0.182 -78.906
2770.458 0.178 -79.122 0.982 10.265 0.982 10.265 0.178 -79.122
2795.417 0.174 -79.334 0.983 10.039 0.983 10.039 0.174 -79.334
2820.375 0.17 -79.544 0.983 9.815 0.983 9.815 0.17 -79.544
2845.333 0.167 -79.75 0.984 9.593 0.984 9.593 0.167 -79.75
2870.292 0.163 -79.954 0.985 9.374 0.985 9.374 0.163 -79.954
2895.25 0.159 -80.155 0.985 9.157 0.985 9.157 0.159 -80.155
2920.208 0.155 -80.353 0.986 8.942 0.986 8.942 0.155 -80.353
2945.167 0.152 -80.548 0.987 8.729 0.987 8.729 0.152 -80.548
2970.125 0.148 -80.74 0.987 8.519 0.987 8.519 0.148 -80.74
2995.083 0.145 -80.93 0.988 8.311 0.988 8.311 0.145 -80.93
3020.042 0.141 -81.116 0.988 8.105 0.988 8.105 0.141 -81.116
3045 0.137 -81.3 0.989 7.9 0.989 7.9 0.137 -81.3
3069.958 0.134 -81.481 0.989 7.698 0.989 7.698 0.134 -81.481
3094.917 0.131 -81.659 0.99 7.498 0.99 7.498 0.131 -81.659
3119.875 0.127 -81.834 0.99 7.3 0.99 7.3 0.127 -81.834
3144.833 0.124 -82.006 0.99 7.103 0.99 7.103 0.124 -82.006
3169.792 0.12 -82.175 0.991 6.909 0.991 6.909 0.12 -82.175
3194.75 0.117 -82.342 0.991 6.716 0.991 6.716 0.117 -82.342
3219.708 0.114 -82.505 0.992 6.525 0.992 6.525 0.114 -82.505
3244.667 0.11 -82.665 0.992 6.336 0.992 6.336 0.11 -82.665
3269.625 0.107 -82.822 0.992 6.148 0.992 6.148 0.107 -82.822
3294.583 0.104 -82.976 0.993 5.962 0.993 5.962 0.104 -82.976
3319.542 0.101 -83.126 0.993 5.778 0.993 5.778 0.101 -83.126
3344.5 0.098 -83.273 0.993 5.595 0.993 5.595 0.098 -83.273
3369.458 0.094 -83.416 0.994 5.414 0.994 5.414 0.094 -83.416
3394.417 0.091 -83.555 0.994 5.234 0.994 5.234 0.091 -83.555
3419.375 0.088 -83.69 0.994 5.056 0.994 5.056 0.088 -83.69
3444.333 0.085 -83.821 0.994 4.879 0.994 4.879 0.085 -83.821
3469.292 0.082 -83.948 0.995 4.704 0.995 4.704 0.082 -83.948
3494.25 0.079 -84.07 0.995 4.53 0.995 4.53 0.079 -84.07
3519.208 0.076 -84.187 0.995 4.357 0.995 4.357 0.076 -84.187
3544.167 0.073 -84.298 0.995 4.186 0.995 4.186 0.073 -84.298
3569.125 0.07 -84.404 0.996 4.016 0.996 4.016 0.07 -84.404
3594.083 0.067 -84.503 0.996 3.848 0.996 3.848 0.067 -84.503
3619.042 0.064 -84.595 0.996 3.681 0.996 3.681 0.064 -84.595
3644 0.061 -84.679 0.996 3.515 0.996 3.515 0.061 -84.679
3668.958 0.058 -84.755 0.996 3.35 0.996 3.35 0.058 -84.755
3693.917 0.056 -84.821 0.997 3.186 0.997 3.186 0.056 -84.821
3718.875 0.053 -84.876 0.997 3.024 0.997 3.024 0.053 -84.876
3743.833 0.05 -84.919 0.997 2.863 0.997 2.863 0.05 -84.919
3768.792 0.047 -84.948 0.997 2.703 0.997 2.703 0.047 -84.948
3793.75 0.044 -84.96 0.997 2.544 0.997 2.544 0.044 -84.96
3818.708 0.042 -84.953 0.997 2.386 0.997 2.386 0.042 -84.953
3843.667 0.039 -84.923 0.997 2.23 0.997 2.23 0.039 -84.923
3868.625 0.036 -84.865 0.997 2.074 0.997 2.074 0.036 -84.865
3893.583 0.034 -84.773 0.998 1.919 0.998 1.919 0.034 -84.773
3918.542 0.031 -84.64 0.998 1.766 0.998 1.766 0.031 -84.64
3943.5 0.028 -84.453 0.998 1.614 0.998 1.614 0.028 -84.453
3968.458 0.026 -84.199 0.998 1.462 0.998 1.462 0.026 -84.199
3993.417 0.023 -83.853 0.998 1.312 0.998 1.312 0.023 -83.853
4018.375 0.02 -83.384 0.998 1.162 0.998 1.162 0.02 -83.384
4043.333 0.018 -82.739 0.998 1.014 0.998 1.014 0.018 -82.739
4068.292 0.015 -81.832 0.998 0.866 0.998 0.866 0.015 -81.832
4093.25 0.013 -80.511 0.998 0.719 0.998 0.719 0.013 -80.511
4118.208 0.01 -78.476 0.998 0.573 0.998 0.573 0.01 -78.476
4143.167 7.727e-3 -75.056 0.998 0.429 0.998 0.429 7.727e-3 -75.056
4168.125 5.331e-3 -68.414 0.998 0.285 0.998 0.285 5.331e-3 -68.414
4193.083 3.138e-3 -51.744 0.998 0.141 0.998 0.141 3.138e-3 -51.744
4218.042 1.937e-3 0.433 0.998 -840.7e-6 0.998 -840.7e-6 1.937e-3 0.433
4243 3.149e-3 51.909 0.998 -0.142 0.998 -0.142 3.149e-3 51.909
4267.958 5.304e-3 68.301 0.998 -0.283 0.998 -0.283 5.304e-3 68.301
4292.917 7.628e-3 74.869 0.998 -0.423 0.998 -0.423 7.628e-3 74.869
4317.875 9.993e-3 78.264 0.998 -0.562 0.998 -0.562 9.993e-3 78.264
4342.833 0.012 80.292 0.998 -0.7 0.998 -0.7 0.012 80.292
4367.792 0.015 81.615 0.998 -0.837 0.998 -0.837 0.015 81.615
4392.75 0.017 82.527 0.998 -0.974 0.998 -0.974 0.017 82.527
4417.708 0.019 83.182 0.998 -1.11 0.998 -1.11 0.019 83.182
4442.667 0.022 83.663 0.998 -1.245 0.998 -1.245 0.022 83.663
4467.625 0.024 84.023 0.998 -1.38 0.998 -1.38 0.024 84.023
4492.583 0.026 84.294 0.998 -1.513 0.998 -1.513 0.026 84.294
4517.542 0.029 84.499 0.998 -1.646 0.998 -1.646 0.029 84.499
4542.5 0.031 84.653 0.998 -1.779 0.998 -1.779 0.031 84.653
4567.458 0.033 84.767 0.998 -1.91 0.998 -1.91 0.033 84.767
4592.417 0.036 84.848 0.997 -2.041 0.997 -2.041 0.036 84.848
4617.375 0.038 84.905 0.997 -2.171 0.997 -2.171 0.038 84.905
4642.333 0.04 84.94 0.997 -2.301 0.997 -2.301 0.04 84.94
4667.292 0.042 84.957 0.997 -2.43 0.997 -2.43 0.042 84.957
4692.25 0.045 84.96 0.997 -2.558 0.997 -2.558 0.045 84.96
4717.208 0.047 84.95 0.997 -2.686 0.997 -2.686 0.047 84.95
4742.167 0.049 84.93 0.997 -2.813 0.997 -2.813 0.049 84.93
4767.125 0.051 84.901 0.997 -2.94 0.997 -2.94 0.051 84.901
4792.083 0.054 84.863 0.997 -3.065 0.997 -3.065 0.054 84.863
4817.042 0.056 84.82 0.997 -3.191 0.997 -3.191 0.056 84.82
4842 0.058 84.77 0.996 -3.315 0.996 -3.315 0.058 84.77
4866.958 0.06 84.715 0.996 -3.439 0.996 -3.439 0.06 84.715
4891.917 0.062 84.656 0.996 -3.563 0.996 -3.563 0.062 84.656
4916.875 0.064 84.592 0.996 -3.686 0.996 -3.686 0.064 84.592
4941.833 0.066 84.525 0.996 -3.808 0.996 -3.808 0.066 84.525
4966.792 0.069 84.455 0.996 -3.93 0.996 -3.93 0.069 84.455
4991.75 0.071 84.383 0.996 -4.051 0.996 -4.051 0.071 84.383
5016.708 0.073 84.307 0.995 -4.172 0.995 -4.172 0.073 84.307
5041.667 0.075 84.23 0.995 -4.292 0.995 -4.292 0.075 84.23
5066.625 0.077 84.15 0.995 -4.412 0.995 -4.412 0.077 84.15
5091.583 0.079 84.069 0.995 -4.531 0.995 -4.531 0.079 84.069
5116.542 0.081 83.987 0.995 -4.649 0.995 -4.649 0.081 83.987
5141.5 0.083 83.902 0.995 -4.767 0.995 -4.767 0.083 83.902
5166.458 0.085 83.817 0.994 -4.885 0.994 -4.885 0.085 83.817
5191.417 0.087 83.73 0.994 -5.002 0.994 -5.002 0.087 83.73
5216.375 0.089 83.643 0.994 -5.119 0.994 -5.119 0.089 83.643
5241.333 0.091 83.554 0.994 -5.235 0.994 -5.235 0.091 83.554
5266.292 0.093 83.465 0.994 -5.35 0.994 -5.35 0.093 83.465
5291.25 0.095 83.375 0.994 -5.466 0.994 -5.466 0.095 83.375
5316.208 0.097 83.284 0.993 -5.58 0.993 -5.58 0.097 83.284
5341.167 0.099 83.193 0.993 -5.695 0.993 -5.695 0.099 83.193
5366.125 0.101 83.101 0.993 -5.808 0.993 -5.808 0.101 83.101
5391.083 0.103 83.009 0.993 -5.922 0.993 -5.922 0.103 83.009
5416.042 0.105 82.916 0.993 -6.035 0.993 -6.035 0.105 82.916
5441 0.107 82.823 0.992 -6.147 0.992 -6.147 0.107 82.823
5465.958 0.109 82.729 0.992 -6.259 0.992 -6.259 0.109 82.729
5490.917 0.111 82.635 0.992 -6.371 0.992 -6.371 0.111 82.635
5515.875 0.113 82.541 0.992 -6.482 0.992 -6.482 0.113 82.541
5540.833 0.115 82.447 0.991 -6.593 0.991 -6.593 0.115 82.447
5565.792 0.117 82.353 0.991 -6.703 0.991 -6.703 0.117 82.353
5590.75 0.119 82.258 0.991 -6.813 0.991 -6.813 0.119 82.258
5615.708 0.121 82.163 0.991 -6.923 0.991 -6.923 0.121 82.163
5640.667 0.122 82.069 0.991 -7.032 0.991 -7.032 0.122 82.069
5665.625 0.124 81.974 0.99 -7.141 0.99 -7.141 0.124 81.974
5690.583 0.126 81.879 0.99 -7.249 0.99 -7.249 0.126 81.879
5715.542 0.128 81.784 0.99 -7.357 0.99 -7.357 0.128 81.784
5740.5 0.13 81.689 0.99 -7.464 0.99 -7.464 0.13 81.689
5765.458 0.132 81.594 0.989 -7.572 0.989 -7.572 0.132 81.594
5790.417 0.134 81.499 0.989 -7.678 0.989 -7.678 0.134 81.499
5815.375 0.135 81.404 0.989 -7.785 0.989 -7.785 0.135 81.404
5840.333 0.137 81.308 0.989 -7.891 0.989 -7.891 0.137 81.308
5865.292 0.139 81.213 0.988 -7.997 0.988 -7.997 0.139 81.213
5890.25 0.141 81.119 0.988 -8.102 0.988 -8.102 0.141 81.119
5915.208 0.143 81.024 0.988 -8.207 0.988 -8.207 0.143 81.024
5940.167 0.145 80.929 0.988 -8.312 0.988 -8.312 0.145 80.929
5965.125 0.146 80.834 0.987 -8.416 0.987 -8.416 0.146 80.834
5990.083 0.148 80.739 0.987 -8.52 0.987 -8.52 0.148 80.739
6015.042 0.15 80.645 0.987 -8.624 0.987 -8.624 0.15 80.645
6040 0.152 80.55 0.987 -8.727 0.987 -8.727 0.152 80.55
6064.958 0.154 80.456 0.986 -8.83 0.986 -8.83 0.154 80.456
6089.917 0.155 80.362 0.986 -8.932 0.986 -8.932 0.155 80.362
6114.875 0.157 80.268 0.986 -9.035 0.986 -9.035 0.157 80.268
6139.833 0.159 80.174 0.985 -9.137 0.985 -9.137 0.159 80.174
6164.792 0.161 80.08 0.985 -9.238 0.985 -9.238 0.161 80.08
6189.75 0.162 79.986 0.985 -9.339 0.985 -9.339 0.162 79.986
6214.708 0.164 79.892 0.985 -9.44 0.985 -9.44 0.164 79.892
6239.667 0.166 79.799 0.984 -9.541 0.984 -9.541 0.166 79.799
6264.625 0.167 79.705 0.984 -9.641 0.984 -9.641 0.167 79.705
6289.583 0.169 79.612 0.984 -9.741 0.984 -9.741 0.169 79.612
6314.542 0.171 79.519 0.983 -9.841 0.983 -9.841 0.171 79.519
6339.5 0.173 79.426 0.983 -9.941 0.983 -9.941 0.173 79.426
6364.458 0.174 79.333 0.983 -10.04 0.983 -10.04 0.174 79.333
6389.417 0.176 79.241 0.982 -10.139 0.982 -10.139 0.176 79.241
6414.375 0.178 79.148 0.982 -10.237 0.982 -10.237 0.178 79.148
6439.333 0.179 79.056 0.982 -10.335 0.982 -10.335 0.179 79.056
6464.292 0.181 78.964 0.982 -10.433 0.982 -10.433 0.181 78.964
6489.25 0.183 78.872 0.981 -10.531 0.981 -10.531 0.183 78.872
6514.208 0.184 78.78 0.981 -10.628 0.981 -10.628 0.184 78.78
6539.167 0.186 78.689 0.981 -10.726 0.981 -10.726 0.186 78.689
6564.125 0.188 78.597 0.98 -10.822 0.98 -10.822 0.188 78.597
6589.083 0.189 78.506 0.98 -10.919 0.98 -10.919 0.189 78.506
6614.042 0.191 78.415 0.98 -11.015 0.98 -11.015 0.191 78.415
6639 0.193 78.324 0.979 -11.111 0.979 -11.111 0.193 78.324
6663.958 0.194 78.233 0.979 -11.207 0.979 -11.207 0.194 78.233
6688.917 0.196 78.142 0.979 -11.302 0.979 -11.302 0.196 78.142
6713.875 0.198 78.052 0.978 -11.398 0.978 -11.398 0.198 78.052
6738.833 0.199 77.962 0.978 -11.493 0.978 -11.493 0.199 77.962
6763.792 0.201 77.872 0.978 -11.587 0.978 -11.587 0.201 77.872
6788.75 0.202 77.782 0.977 -11.682 0.977 -11.682 0.202 77.782
6813.708 0.204 77.692 0.977 -11.776 0.977 -11.776 0.204 77.692
6838.667 0.206 77.602 0.977 -11.87 0.977 -11.87 0.206 77.602
6863.625 0.207 77.513 0.976 -11.963 0.976 -11.963 0.207 77.513
6888.583 0.209 77.424 0.976 -12.057 0.976 -12.057 0.209 77.424
6913.542 0.21 77.335 0.976 -12.15 0.976 -12.15 0.21 77.335
6938.5 0.212 77.246 0.975 -12.243 0.975 -12.243 0.212 77.246
6963.458 0.214 77.157 0.975 -12.335 0.975 -12.335 0.214 77.157
6988.417 0.215 77.069 0.975 -12.428 0.975 -12.428 0.215 77.069
7013.375 0.217 76.98 0.974 -12.52 0.974 -12.52 0.217 76.98
7038.333 0.218 76.892 0.974 -12.612 0.974 -12.612 0.218 76.892
7063.292 0.22 76.804 0.974 -12.704 0.974 -12.704 0.22 76.804
7088.25 0.221 76.716 0.973 -12.795 0.973 -12.795 0.221 76.716
7113.208 0.223 76.629 0.973 -12.886 0.973 -12.886 0.223 76.629
7138.167 0.225 76.541 0.973 -12.977 0.973 -12.977 0.225 76.541
7163.125 0.226 76.454 0.972 -13.068 0.972 -13.068 0.226 76.454
7188.083 0.228 76.367 0.972 -13.159 0.972 -13.159 0.228 76.367
7213.042 0.229 76.28 0.971 -13.249 0.971 -13.249 0.229 76.28
7238 0.231 76.193 0.971 -13.339 0.971 -13.339 0.231 76.193
7262.958 0.232 76.106 0.971 -13.429 0.971 -13.429 0.232 76.106
7287.917 0.234 76.02 0.97 -13.518 0.97 -13.518 0.234 76.02
7312.875 0.235 75.934 0.97 -13.608 0.97 -13.608 0.235 75.934
7337.833 0.237 75.848 0.97 -13.697 0.97 -13.697 0.237 75.848
7362.792 0.238 75.762 0.969 -13.786 0.969 -13.786 0.238 75.762
7387.75 0.24 75.676 0.969 -13.875 0.969 -13.875 0.24 75.676
7412.708 0.241 75.59 0.969 -13.963 0.969 -13.963 0.241 75.59
7437.667 0.243 75.505 0.968 -14.052 0.968 -14.052 0.243 75.505
7462.625 0.244 75.42 0.968 -14.14 0.968 -14.14 0.244 75.42
7487.583 0.246 75.335 0.967 -14.228 0.967 -14.228 0.246 75.335
7512.542 0.247 75.25 0.967 -14.315 0.967 -14.315 0.247 75.25
7537.5 0.249 75.165 0.967 -14.403 0.967 -14.403 0.249 75.165
7562.458 0.25 75.08 0.966 -14.49 0.966 -14.49 0.25 75.08
7587.417 0.252 74.996 0.966 -14.577 0.966 -14.577 0.252 74.996
7612.375 0.253 74.912 0.966 -14.664 0.966 -14.664 0.253 74.912
7637.333 0.255 74.828 0.965 -14.751 0.965 -14.751 0.255 74.828
7662.292 0.256 74.744 0.965 -14.837 0.965 -14.837 0.256 74.744
7687.25 0.258 74.66 0.964 -14.923 0.964 -14.923 0.258 74.66
7712.208 0.259 74.577 0.964 -15.01 0.964 -15.01 0.259 74.577
7737.167 0.26 74.493 0.964 -15.095 0.964 -15.095 0.26 74.493
7762.125 0.262 74.41 0.963 -15.181 0.963 -15.181 0.262 74.41
7787.083 0.263 74.327 0.963 -15.267 0.963 -15.267 0.263 74.327
7812.042 0.265 74.244 0.962 -15.352 0.962 -15.352 0.265 74.244
7837 0.266 74.161 0.962 -15.437 0.962 -15.437 0.266 74.161
7861.958 0.268 74.079 0.962 -15.522 0.962 -15.522 0.268 74.079
7886.917 0.269 73.996 0.961 -15.607 0.961 -15.607 0.269 73.996
7911.875 0.27 73.914 0.961 -15.691 0.961 -15.691 0.27 73.914
7936.833 0.272 73.832 0.96 -15.775 0.96 -15.775 0.272 73.832
7961.792 0.273 73.75 0.96 -15.86 0.96 -15.86 0.273 73.75
7986.75 0.275 73.668 0.96 -15.944 0.96 -15.944 0.275 73.668
8011.708 0.276 73.586 0.959 -16.027 0.959 -16.027 0.276 73.586
8036.667 0.278 73.505 0.959 -16.111 0.959 -16.111 0.278 73.505
8061.625 0.279 73.424 0.958 -16.194 0.958 -16.194 0.279 73.424
8086.583 0.28 73.342 0.958 -16.278 0.958 -16.278 0.28 73.342
8111.542 0.282 73.261 0.958 -16.361 0.958 -16.361 0.282 73.261
8136.5 0.283 73.181 0.957 -16.444 0.957 -16.444 0.283 73.181
8161.458 0.284 73.1 0.957 -16.526 0.957 -16.526 0.284 73.1
8186.417 0.286 73.019 0.956 -16.609 0.956 -16.609 0.286 73.019
8211.375 0.287 72.939 0.956 -16.691 0.956 -16.691 0.287 72.939
