# MHZ S MA R 50

50 0.998 -3.596 0.063 86.398 0.063 86.398 0.998 -3.596
74.958 0.996 -5.383 0.094 84.607 0.094 84.607 0.996 -5.383
99.917 0.992 -7.161 0.125 82.826 0.125 82.826 0.992 -7.161
124.875 0.988 -8.926 0.155 81.057 0.155 81.057 0.988 -8.926
149.833 0.983 -10.677 0.185 79.304 0.185 79.304 0.983 -10.677
174.792 0.977 -12.409 0.215 77.568 0.215 77.568 0.977 -12.409
199.75 0.97 -14.122 0.244 75.852 0.244 75.852 0.97 -14.122
224.708 0.962 -15.812 0.272 74.159 0.272 74.159 0.962 -15.812
249.667 0.954 -17.477 0.3 72.49 0.3 72.49 0.954 -17.477
274.625 0.945 -19.116 0.327 70.848 0.327 70.848 0.945 -19.116
299.583 0.935 -20.727 0.354 69.233 0.354 69.233 0.935 -20.727
324.542 0.925 -22.308 0.38 67.649 0.38 67.649 0.925 -22.308
349.5 0.914 -23.859 0.404 66.095 0.404 66.095 0.914 -23.859
374.458 0.903 -25.378 0.429 64.573 0.429 64.573 0.903 -25.378
399.417 0.892 -26.864 0.452 63.083 0.452 63.083 0.892 -26.864
424.375 0.88 -28.317 0.474 61.626 0.474 61.626 0.88 -28.317
449.333 0.868 -29.737 0.496 60.203 0.496 60.203 0.868 -29.737
474.292 0.855 -31.123 0.517 58.814 0.517 58.814 0.855 -31.123
499.25 0.843 -32.474 0.537 57.459 0.537 57.459 0.843 -32.474
524.208 0.83 -33.792 0.556 56.138 0.556 56.138 0.83 -33.792
549.167 0.818 -35.077 0.575 54.85 0.575 54.85 0.818 -35.077
574.125 0.805 -36.328 0.592 53.595 0.592 53.595 0.805 -36.328
599.083 0.792 -37.546 0.609 52.374 0.609 52.374 0.792 -37.546
624.042 0.779 -38.731 0.626 51.185 0.626 51.185 0.779 -38.731
649 0.766 -39.884 0.641 50.028 0.641 50.028 0.766 -39.884
673.958 0.754 -41.006 0.656 48.903 0.656 48.903 0.754 -41.006
698.917 0.741 -42.098 0.67 47.808 0.67 47.808 0.741 -42.098
723.875 0.728 -43.159 0.684 46.743 0.684 46.743 0.728 -43.159
748.833 0.716 -44.191 0.697 45.708 0.697 45.708 0.716 -44.191
773.792 0.703 -45.194 0.709 44.701 0.709 44.701 0.703 -45.194
798.75 0.691 -46.17 0.721 43.722 0.721 43.722 0.691 -46.17
823.708 0.679 -47.118 0.733 42.769 0.733 42.769 0.679 -47.118
848.667 0.667 -48.04 0.744 41.843 0.744 41.843 0.667 -48.04
873.625 0.655 -48.937 0.754 40.943 0.754 40.943 0.655 -48.937
898.583 0.644 -49.809 0.764 40.067 0.764 40.067 0.644 -49.809
923.542 0.632 -50.658 0.773 39.215 0.773 39.215 0.632 -50.658
948.5 0.621 -51.483 0.782 38.386 0.782 38.386 0.621 -51.483
973.458 0.61 -52.286 0.791 37.579 0.791 37.579 0.61 -52.286
998.417 0.599 -53.067 0.799 36.794 0.799 36.794 0.599 -53.067
1023.375 0.588 -53.827 0.807 36.03 0.807 36.03 0.588 -53.827
1048.333 0.578 -54.567 0.815 35.286 0.815 35.286 0.578 -54.567
1073.292 0.567 -55.287 0.822 34.561 0.822 34.561 0.567 -55.287
1098.25 0.557 -55.989 0.829 33.856 0.829 33.856 0.557 -55.989
1123.208 0.547 -56.673 0.836 33.168 0.836 33.168 0.547 -56.673
1148.167 0.537 -57.338 0.842 32.498 0.842 32.498 0.537 -57.338
1173.125 0.528 -57.987 0.848 31.845 0.848 31.845 0.528 -57.987
1198.083 0.518 -58.62 0.854 31.208 0.854 31.208 0.518 -58.62
1223.042 0.509 -59.237 0.859 30.587 0.859 30.587 0.509 -59.237
1248 0.5 -59.838 0.865 29.981 0.865 29.981 0.5 -59.838
1272.958 0.491 -60.425 0.87 29.39 0.87 29.39 0.491 -60.425
1297.917 0.482 -60.997 0.875 28.813 0.875 28.813 0.482 -60.997
1322.875 0.473 -61.556 0.879 28.25 0.879 28.25 0.473 -61.556
1347.833 0.465 -62.102 0.884 27.7 0.884 27.7 0.465 -62.102
1372.792 0.457 -62.635 0.888 27.162 0.888 27.162 0.457 -62.635
1397.75 0.448 -63.155 0.892 26.637 0.892 26.637 0.448 -63.155
1422.708 0.44 -63.664 0.896 26.124 0.896 26.124 0.44 -63.664
1447.667 0.432 -64.16 0.9 25.622 0.9 25.622 0.432 -64.16
1472.625 0.425 -64.646 0.904 25.132 0.904 25.132 0.425 -64.646
1497.583 0.417 -65.121 0.907 24.652 0.907 24.652 0.417 -65.121
1522.542 0.41 -65.586 0.911 24.182 0.911 24.182 0.41 -65.586
1547.5 0.402 -66.041 0.914 23.723 0.914 23.723 0.402 -66.041
1572.458 0.395 -66.485 0.917 23.273 0.917 23.273 0.395 -66.485
1597.417 0.388 -66.921 0.92 22.832 0.92 22.832 0.388 -66.921
1622.375 0.381 -67.347 0.923 22.4 0.923 22.4 0.381 -67.347
1647.333 0.374 -67.765 0.926 21.977 0.926 21.977 0.374 -67.765
1672.292 0.368 -68.174 0.928 21.563 0.928 21.563 0.368 -68.174
1697.25 0.361 -68.574 0.931 21.157 0.931 21.157 0.361 -68.574
1722.208 0.354 -68.967 0.933 20.758 0.933 20.758 0.354 -68.967
1747.167 0.348 -69.352 0.936 20.367 0.936 20.367 0.348 -69.352
1772.125 0.342 -69.73 0.938 19.984 0.938 19.984 0.342 -69.73
1797.083 0.336 -70.1 0.94 19.608 0.94 19.608 0.336 -70.1
1822.042 0.33 -70.463 0.942 19.239 0.942 19.239 0.33 -70.463
1847 0.324 -70.819 0.945 18.876 0.945 18.876 0.324 -70.819
1871.958 0.318 -71.169 0.946 18.52 0.946 18.52 0.318 -71.169
1896.917 0.312 -71.512 0.948 18.17 0.948 18.17 0.312 -71.512
1921.875 0.306 -71.849 0.95 17.827 0.95 17.827 0.306 -71.849
1946.833 0.301 -72.18 0.952 17.489 0.952 17.489 0.301 -72.18
1971.792 0.295 -72.505 0.954 17.157 0.954 17.157 0.295 -72.505
1996.75 0.29 -72.825 0.955 16.831 0.955 16.831 0.29 -72.825
2021.708 0.284 -73.139 0.957 16.51 0.957 16.51 0.284 -73.139
2046.667 0.279 -73.447 0.959 16.195 0.959 16.195 0.279 -73.447
2071.625 0.274 -73.75 0.96 15.884 0.96 15.884 0.274 -73.75
2096.583 0.269 -74.048 0.962 15.579 0.962 15.579 0.269 -74.048
2121.542 0.264 -74.341 0.963 15.278 0.963 15.278 0.264 -74.341
2146.5 0.259 -74.629 0.964 14.982 0.964 14.982 0.259 -74.629
2171.458 0.254 -74.913 0.966 14.69 0.966 14.69 0.254 -74.913
2196.417 0.249 -75.191 0.967 14.403 0.967 14.403 0.249 -75.191
2221.375 0.244 -75.466 0.968 14.12 0.968 14.12 0.244 -75.466
2246.333 0.239 -75.736 0.969 13.842 0.969 13.842 0.239 -75.736
2271.292 0.235 -76.001 0.97 13.567 0.97 13.567 0.235 -76.001
2296.25 0.23 -76.263 0.971 13.297 0.971 13.297 0.23 -76.263
2321.208 0.225 -76.52 0.972 13.03 0.972 13.03 0.225 -76.52
2346.167 0.221 -76.774 0.974 12.767 0.974 12.767 0.221 -76.774
2371.125 0.217 -77.023 0.974 12.507 0.974 12.507 0.217 -77.023
2396.083 0.212 -77.269 0.975 12.252 0.975 12.252 0.212 -77.269
2421.042 0.208 -77.511 0.976 11.999 0.976 11.999 0.208 -77.511
2446 0.204 -77.749 0.977 11.75 0.977 11.75 0.204 -77.749
2470.958 0.199 -77.984 0.978 11.504 0.978 11.504 0.199 -77.984
2495.917 0.195 -78.215 0.979 11.262 0.979 11.262 0.195 -78.215
2520.875 0.191 -78.443 0.98 11.022 0.98 11.022 0.191 -78.443
2545.833 0.187 -78.668 0.981 10.786 0.981 10.786 0.187 -78.668
2570.792 0.183 -78.889 0.981 10.552 0.981 10.552 0.183 -78.889
2595.75 0.179 -79.107 0.982 10.322 0.982 10.322 0.179 -79.107
2620.708 0.175 -79.321 0.983 10.094 0.983 10.094 0.175 -79.321
2645.667 0.171 -79.533 0.983 9.869 0.983 9.869 0.171 -79.533
2670.625 0.168 -79.741 0.984 9.646 0.984 9.646 0.168 -79.741
2695.583 0.164 -79.947 0.985 9.426 0.985 9.426 0.164 -79.947
2720.542 0.16 -80.149 0.985 9.209 0.985 9.209 0.16 -80.149
2745.5 0.156 -80.348 0.986 8.994 0.986 8.994 0.156 -80.348
2770.458 0.153 -80.544 0.986 8.782 0.986 8.782 0.153 -80.544
2795.417 0.149 -80.737 0.987 8.572 0.987 8.572 0.149 -80.737
2820.375 0.145 -80.928 0.988 8.364 0.988 8.364 0.145 -80.928
2845.333 0.142 -81.115 0.988 8.159 0.988 8.159 0.142 -81.115
2870.292 0.138 -81.3 0.989 7.955 0.989 7.955 0.138 -81.3
2895.25 0.135 -81.481 0.989 7.754 0.989 7.754 0.135 -81.481
2920.208 0.131 -81.66 0.99 7.555 0.99 7.555 0.131 -81.66
2945.167 0.128 -81.835 0.99 7.358 0.99 7.358 0.128 -81.835
2970.125 0.125 -82.008 0.99 7.163 0.99 7.163 0.125 -82.008
2995.083 0.121 -82.178 0.991 6.97 0.991 6.97 0.121 -82.178
3020.042 0.118 -82.345 0.991 6.779 0.991 6.779 0.118 -82.345
3045 0.115 -82.509 0.992 6.59 0.992 6.59 0.115 -82.509
3069.958 0.112 -82.669 0.992 6.403 0.992 6.403 0.112 -82.669
3094.917 0.108 -82.827 0.992 6.217 0.992 6.217 0.108 -82.827
3119.875 0.105 -82.982 0.993 6.034 0.993 6.034 0.105 -82.982
3144.833 0.102 -83.133 0.993 5.852 0.993 5.852 0.102 -83.133
3169.792 0.099 -83.281 0.993 5.671 0.993 5.671 0.099 -83.281
3194.75 0.096 -83.425 0.994 5.492 0.994 5.492 0.096 -83.425
3219.708 0.093 -83.566 0.994 5.315 0.994 5.315 0.093 -83.566
3244.667 0.09 -83.703 0.994 5.14 0.994 5.14 0.09 -83.703
3269.625 0.087 -83.836 0.994 4.966 0.994 4.966 0.087 -83.836
3294.583 0.084 -83.965 0.995 4.793 0.995 4.793 0.084 -83.965
3319.542 0.081 -84.09 0.995 4.622 0.995 4.622 0.081 -84.09
3344.5 0.078 -84.21 0.995 4.453 0.995 4.453 0.078 -84.21
3369.458 0.075 -84.326 0.995 4.285 0.995 4.285 0.075 -84.326
3394.417 0.072 -84.436 0.996 4.118 0.996 4.118 0.072 -84.436
3419.375 0.069 -84.541 0.996 3.953 0.996 3.953 0.069 -84.541
3444.333 0.066 -84.639 0.996 3.789 0.996 3.789 0.066 -84.639
3469.292 0.063 -84.731 0.996 3.626 0.996 3.626 0.063 -84.731
3494.25 0.06 -84.816 0.996 3.465 0.996 3.465 0.06 -84.816
3519.208 0.058 -84.893 0.997 3.305 0.997 3.305 0.058 -84.893
3544.167 0.055 -84.96 0.997 3.146 0.997 3.146 0.055 -84.96
3569.125 0.052 -85.018 0.997 2.989 0.997 2.989 0.052 -85.018
3594.083 0.049 -85.064 0.997 2.832 0.997 2.832 0.049 -85.064
3619.042 0.047 -85.097 0.997 2.677 0.997 2.677 0.047 -85.097
3644 0.044 -85.116 0.997 2.523 0.997 2.523 0.044 -85.116
3668.958 0.041 -85.116 0.997 2.37 0.997 2.37 0.041 -85.116
3693.917 0.039 -85.096 0.997 2.218 0.997 2.218 0.039 -85.096
3718.875 0.036 -85.051 0.998 2.067 0.998 2.067 0.036 -85.051
3743.833 0.034 -84.976 0.998 1.918 0.998 1.918 0.034 -84.976
3768.792 0.031 -84.864 0.998 1.769 0.998 1.769 0.031 -84.864
3793.75 0.028 -84.706 0.998 1.622 0.998 1.622 0.028 -84.706
3818.708 0.026 -84.488 0.998 1.475 0.998 1.475 0.026 -84.488
3843.667 0.023 -84.194 0.998 1.329 0.998 1.329 0.023 -84.194
3868.625 0.021 -83.794 0.998 1.185 0.998 1.185 0.021 -83.794
3893.583 0.018 -83.25 0.998 1.041 0.998 1.041 0.018 -83.25
3918.542 0.016 -82.493 0.998 0.899 0.998 0.899 0.016 -82.493
3943.5 0.013 -81.412 0.998 0.757 0.998 0.757 0.013 -81.412
3968.458 0.011 -79.793 0.998 0.616 0.998 0.616 0.011 -79.793
3993.417 8.507e-3 -77.191 0.998 0.476 0.998 0.476 8.507e-3 -77.191
4018.375 6.159e-3 -72.503 0.998 0.337 0.998 0.337 6.159e-3 -72.503
4043.333 3.92e-3 -62.183 0.998 0.199 0.998 0.199 3.92e-3 -62.183
4068.292 2.112e-3 -30.586 0.998 0.062 0.998 0.062 2.112e-3 -30.586
4093.25 2.237e-3 35.612 0.998 -0.075 0.998 -0.075 2.237e-3 35.612
4118.208 4.097e-3 63.464 0.998 -0.21 0.998 -0.21 4.097e-3 63.464
4143.167 6.293e-3 72.873 0.998 -0.345 0.998 -0.345 6.293e-3 72.873
4168.125 8.56e-3 77.265 0.998 -0.479 0.998 -0.479 8.56e-3 77.265
4193.083 0.011 79.741 0.998 -0.612 0.998 -0.612 0.011 79.741
4218.042 0.013 81.3 0.998 -0.745 0.998 -0.745 0.013 81.3
4243 0.015 82.351 0.998 -0.877 0.998 -0.877 0.015 82.351
4267.958 0.018 83.094 0.998 -1.008 0.998 -1.008 0.018 83.094
4292.917 0.02 83.635 0.998 -1.138 0.998 -1.138 0.02 83.635
4317.875 0.022 84.037 0.998 -1.267 0.998 -1.267 0.022 84.037
4342.833 0.024 84.34 0.998 -1.396 0.998 -1.396 0.024 84.34
4367.792 0.027 84.569 0.998 -1.524 0.998 -1.524 0.027 84.569
4392.75 0.029 84.742 0.998 -1.651 0.998 -1.651 0.029 84.742
4417.708 0.031 84.872 0.998 -1.778 0.998 -1.778 0.031 84.872
4442.667 0.033 84.967 0.998 -1.904 0.998 -1.904 0.033 84.967
4467.625 0.035 85.035 0.998 -2.029 0.998 -2.029 0.035 85.035
4492.583 0.038 85.08 0.997 -2.154 0.997 -2.154 0.038 85.08
4517.542 0.04 85.107 0.997 -2.278 0.997 -2.278 0.04 85.107
4542.5 0.042 85.118 0.997 -2.402 0.997 -2.402 0.042 85.118
4567.458 0.044 85.115 0.997 -2.524 0.997 -2.524 0.044 85.115
4592.417 0.046 85.102 0.997 -2.646 0.997 -2.646 0.046 85.102
4617.375 0.048 85.08 0.997 -2.768 0.997 -2.768 0.048 85.08
4642.333 0.05 85.049 0.997 -2.889 0.997 -2.889 0.05 85.049
4667.292 0.053 85.011 0.997 -3.009 0.997 -3.009 0.053 85.011
4692.25 0.055 84.967 0.997 -3.129 0.997 -3.129 0.055 84.967
4717.208 0.057 84.918 0.997 -3.248 0.997 -3.248 0.057 84.918
4742.167 0.059 84.864 0.996 -3.367 0.996 -3.367 0.059 84.864
4767.125 0.061 84.806 0.996 -3.485 0.996 -3.485 0.061 84.806
4792.083 0.063 84.744 0.996 -3.603 0.996 -3.603 0.063 84.744
4817.042 0.065 84.679 0.996 -3.719 0.996 -3.719 0.065 84.679
4842 0.067 84.612 0.996 -3.836 0.996 -3.836 0.067 84.612
4866.958 0.069 84.541 0.996 -3.952 0.996 -3.952 0.069 84.541
4891.917 0.071 84.469 0.996 -4.067 0.996 -4.067 0.071 84.469
4916.875 0.073 84.394 0.996 -4.182 0.996 -4.182 0.073 84.394
4941.833 0.075 84.318 0.995 -4.297 0.995 -4.297 0.075 84.318
4966.792 0.077 84.24 0.995 -4.41 0.995 -4.41 0.077 84.24
4991.75 0.079 84.161 0.995 -4.524 0.995 -4.524 0.079 84.161
5016.708 0.081 84.08 0.995 -4.637 0.995 -4.637 0.081 84.08
5041.667 0.083 83.998 0.995 -4.749 0.995 -4.749 0.083 83.998
5066.625 0.085 83.915 0.995 -4.861 0.995 -4.861 0.085 83.915
5091.583 0.087 83.831 0.994 -4.972 0.994 -4.972 0.087 83.831
5116.542 0.089 83.746 0.994 -5.083 0.994 -5.083 0.089 83.746
5141.5 0.091 83.661 0.994 -5.194 0.994 -5.194 0.091 83.661
5166.458 0.092 83.575 0.994 -5.304 0.994 -5.304 0.092 83.575
5191.417 0.094 83.488 0.994 -5.414 0.994 -5.414 0.094 83.488
5216.375 0.096 83.401 0.994 -5.523 0.994 -5.523 0.096 83.401
5241.333 0.098 83.313 0.993 -5.632 0.993 -5.632 0.098 83.313
5266.292 0.1 83.224 0.993 -5.74 0.993 -5.74 0.1 83.224
5291.25 0.102 83.136 0.993 -5.848 0.993 -5.848 0.102 83.136
5316.208 0.104 83.047 0.993 -5.955 0.993 -5.955 0.104 83.047
5341.167 0.106 82.957 0.993 -6.062 0.993 -6.062 0.106 82.957
5366.125 0.107 82.868 0.992 -6.169 0.992 -6.169 0.107 82.868
5391.083 0.109 82.778 0.992 -6.275 0.992 -6.275 0.109 82.778
5416.042 0.111 82.688 0.992 -6.381 0.992 -6.381 0.111 82.688
5441 0.113 82.598 0.992 -6.487 0.992 -6.487 0.113 82.598
5465.958 0.115 82.507 0.992 -6.592 0.992 -6.592 0.115 82.507
5490.917 0.117 82.417 0.991 -6.696 0.991 -6.696 0.117 82.417
5515.875 0.118 82.326 0.991 -6.801 0.991 -6.801 0.118 82.326
5540.833 0.12 82.236 0.991 -6.905 0.991 -6.905 0.12 82.236
5565.792 0.122 82.145 0.991 -7.008 0.991 -7.008 0.122 82.145
5590.75 0.124 82.054 0.991 -7.111 0.991 -7.111 0.124 82.054
5615.708 0.126 81.963 0.99 -7.214 0.99 -7.214 0.126 81.963
5640.667 0.127 81.873 0.99 -7.317 0.99 -7.317 0.127 81.873
5665.625 0.129 81.782 0.99 -7.419 0.99 -7.419 0.129 81.782
5690.583 0.131 81.691 0.99 -7.52 0.99 -7.52 0.131 81.691
5715.542 0.133 81.6 0.989 -7.622 0.989 -7.622 0.133 81.6
5740.5 0.134 81.51 0.989 -7.723 0.989 -7.723 0.134 81.51
5765.458 0.136 81.419 0.989 -7.824 0.989 -7.824 0.136 81.419
5790.417 0.138 81.328 0.989 -7.924 0.989 -7.924 0.138 81.328
5815.375 0.14 81.238 0.988 -8.024 0.988 -8.024 0.14 81.238
5840.333 0.141 81.147 0.988 -8.124 0.988 -8.124 0.141 81.147
5865.292 0.143 81.057 0.988 -8.223 0.988 -8.223 0.143 81.057
5890.25 0.145 80.966 0.988 -8.322 0.988 -8.322 0.145 80.966
5915.208 0.146 80.876 0.987 -8.421 0.987 -8.421 0.146 80.876
5940.167 0.148 80.786 0.987 -8.519 0.987 -8.519 0.148 80.786
5965.125 0.15 80.696 0.987 -8.617 0.987 -8.617 0.15 80.696
5990.083 0.152 80.606 0.987 -8.715 0.987 -8.715 0.152 80.606
6015.042 0.153 80.516 0.986 -8.812 0.986 -8.812 0.153 80.516
6040 0.155 80.426 0.986 -8.91 0.986 -8.91 0.155 80.426
6064.958 0.157 80.337 0.986 -9.006 0.986 -9.006 0.157 80.337
6089.917 0.158 80.247 0.986 -9.103 0.986 -9.103 0.158 80.247
6114.875 0.16 80.158 0.985 -9.199 0.985 -9.199 0.16 80.158
6139.833 0.162 80.069 0.985 -9.295 0.985 -9.295 0.162 80.069
6164.792 0.163 79.98 0.985 -9.391 0.985 -9.391 0.163 79.98
6189.75 0.165 79.891 0.985 -9.486 0.985 -9.486 0.165 79.891
6214.708 0.166 79.802 0.984 -9.581 0.984 -9.581 0.166 79.802
6239.667 0.168 79.713 0.984 -9.676 0.984 -9.676 0.168 79.713
6264.625 0.17 79.625 0.984 -9.771 0.984 -9.771 0.17 79.625
6289.583 0.171 79.536 0.983 -9.865 0.983 -9.865 0.171 79.536
6314.542 0.173 79.448 0.983 -9.959 0.983 -9.959 0.173 79.448
6339.5 0.175 79.36 0.983 -10.053 0.983 -10.053 0.175 79.36
6364.458 0.176 79.272 0.983 -10.146 0.983 -10.146 0.176 79.272
6389.417 0.178 79.184 0.982 -10.239 0.982 -10.239 0.178 79.184
6414.375 0.179 79.097 0.982 -10.332 0.982 -10.332 0.179 79.097
6439.333 0.181 79.009 0.982 -10.425 0.982 -10.425 0.181 79.009
6464.292 0.183 78.922 0.981 -10.517 0.981 -10.517 0.183 78.922
6489.25 0.184 78.835 0.981 -10.609 0.981 -10.609 0.184 78.835
6514.208 0.186 78.748 0.981 -10.701 0.981 -10.701 0.186 78.748
6539.167 0.187 78.661 0.981 -10.793 0.981 -10.793 0.187 78.661
6564.125 0.189 78.574 0.98 -10.884 0.98 -10.884 0.189 78.574
6589.083 0.19 78.488 0.98 -10.975 0.98 -10.975 0.19 78.488
6614.042 0.192 78.402 0.98 -11.066 0.98 -11.066 0.192 78.402
6639 0.194 78.315 0.979 -11.157 0.979 -11.157 0.194 78.315
6663.958 0.195 78.229 0.979 -11.247 0.979 -11.247 0.195 78.229
6688.917 0.197 78.143 0.979 -11.337 0.979 -11.337 0.197 78.143
6713.875 0.198 78.058 0.978 -11.427 0.978 -11.427 0.198 78.058
6738.833 0.2 77.972 0.978 -11.517 0.978 -11.517 0.2 77.972
6763.792 0.201 77.887 0.978 -11.606 0.978 -11.606 0.201 77.887
6788.75 0.203 77.802 0.977 -11.695 0.977 -11.695 0.203 77.802
6813.708 0.204 77.717 0.977 -11.784 0.977 -11.784 0.204 77.717
6838.667 0.206 77.632 0.977 -11.873 0.977 -11.873 0.206 77.632
6863.625 0.207 77.547 0.977 -11.962 0.977 -11.962 0.207 77.547
6888.583 0.209 77.462 0.976 -12.05 0.976 -12.05 0.209 77.462
6913.542 0.21 77.378 0.976 -12.138 0.976 -12.138 0.21 77.378
6938.5 0.212 77.294 0.976 -12.226 0.976 -12.226 0.212 77.294
6963.458 0.213 77.21 0.975 -12.313 0.975 -12.313 0.213 77.21
6988.417 0.215 77.126 0.975 -12.401 0.975 -12.401 0.215 77.126
7013.375 0.216 77.042 0.975 -12.488 0.975 -12.488 0.216 77.042
7038.333 0.218 76.958 0.974 -12.575 0.974 -12.575 0.218 76.958
7063.292 0.219 76.875 0.974 -12.662 0.974 -12.662 0.219 76.875
7088.25 0.221 76.791 0.974 -12.748 0.974 -12.748 0.221 76.791
7113.208 0.222 76.708 0.973 -12.835 0.973 -12.835 0.222 76.708
7138.167 0.224 76.625 0.973 -12.921 0.973 -12.921 0.224 76.625
7163.125 0.225 76.543 0.973 -13.007 0.973 -13.007 0.225 76.543
7188.083 0.227 76.46 0.972 -13.092 0.972 -13.092 0.227 76.46
7213.042 0.228 76.377 0.972 -13.178 0.972 -13.178 0.228 76.377
7238 0.229 76.295 0.972 -13.263 0.972 -13.263 0.229 76.295
7262.958 0.231 76.213 0.971 -13.348 0.971 -13.348 0.231 76.213
7287.917 0.232 76.131 0.971 -13.433 0.971 -13.433 0.232 76.131
7312.875 0.234 76.049 0.971 -13.518 0.971 -13.518 0.234 76.049
7337.833 0.235 75.967 0.97 -13.602 0.97 -13.602 0.235 75.967
7362.792 0.237 75.886 0.97 -13.687 0.97 -13.687 0.237 75.886
7387.75 0.238 75.804 0.969 -13.771 0.969 -13.771 0.238 75.804
7412.708 0.239 75.723 0.969 -13.855 0.969 -13.855 0.239 75.723
7437.667 0.241 75.642 0.969 -13.938 0.969 -13.938 0.241 75.642
7462.625 0.242 75.561 0.968 -14.022 0.968 -14.022 0.242 75.561
7487.583 0.244 75.48 0.968 -14.105 0.968 -14.105 0.244 75.48
7512.542 0.245 75.4 0.968 -14.189 0.968 -14.189 0.245 75.4
7537.5 0.247 75.319 0.967 -14.272 0.967 -14.272 0.247 75.319
7562.458 0.248 75.239 0.967 -14.354 0.967 -14.354 0.248 75.239
7587.417 0.249 75.159 0.967 -14.437 0.967 -14.437 0.249 75.159
7612.375 0.251 75.079 0.966 -14.519 0.966 -14.519 0.251 75.079
7637.333 0.252 74.999 0.966 -14.602 0.966 -14.602 0.252 74.999
7662.292 0.253 74.919 0.966 -14.684 0.966 -14.684 0.253 74.919
7687.25 0.255 74.839 0.965 -14.766 0.965 -14.766 0.255 74.839
7712.208 0.256 74.76 0.965 -14.847 0.965 -14.847 0.256 74.76
7737.167 0.258 74.681 0.964 -14.929 0.964 -14.929 0.258 74.681
7762.125 0.259 74.602 0.964 -15.01 0.964 -15.01 0.259 74.602
7787.083 0.26 74.523 0.964 -15.091 0.964 -15.091 0.26 74.523
7812.042 0.262 74.444 0.963 -15.172 0.963 -15.172 0.262 74.444
7837 0.263 74.365 0.963 -15.253 0.963 -15.253 0.263 74.365
7861.958 0.264 74.287 0.963 -15.334 0.963 -15.334 0.264 74.287
7886.917 0.266 74.208 0.962 -15.414 0.962 -15.414 0.266 74.208
7911.875 0.267 74.13 0.962 -15.495 0.962 -15.495 0.267 74.13
7936.833 0.269 74.052 0.962 -15.575 0.962 -15.575 0.269 74.052
7961.792 0.27 73.974 0.961 -15.655 0.961 -15.655 0.27 73.974
7986.75 0.271 73.896 0.961 -15.734 0.961 -15.734 0.271 73.896
8011.708 0.273 73.818 0.96 -15.814 0.96 -15.814 0.273 73.818
8036.667 0.274 73.741 0.96 -15.894 0.96 -15.894 0.274 73.741
8061.625 0.275 73.663 0.96 -15.973 0.96 -15.973 0.275 73.663
8086.583 0.277 73.586 0.959 -16.052 0.959 -16.052 0.277 73.586
8111.542 0.278 73.509 0.959 -16.131 0.959 -16.131 0.278 73.509
8136.5 0.279 73.432 0.959 -16.21 0.959 -16.21 0.279 73.432
8161.458 0.28 73.355 0.958 -16.289 0.958 -16.289 0.28 73.355
8186.417 0.282 73.278 0.958 -16.367 0.958 -16.367 0.282 73.278
