# MHZ S MA R 50

50 0.954 -17.451 0.3 72.527 0.3 72.527 0.954 -17.451
74.958 0.904 -25.251 0.427 64.716 0.427 64.716 0.904 -25.251
99.917 0.846 -32.186 0.533 57.77 0.533 57.77 0.846 -32.186
124.875 0.785 -38.229 0.619 51.716 0.619 51.716 0.785 -38.229
149.833 0.725 -43.436 0.688 46.498 0.688 46.498 0.725 -43.436
174.792 0.669 -47.904 0.742 42.019 0.742 42.019 0.669 -47.904
199.75 0.618 -51.739 0.785 38.173 0.785 38.173 0.618 -51.739
224.708 0.572 -55.041 0.82 34.86 0.82 34.86 0.572 -55.041
249.667 0.53 -57.898 0.847 31.991 0.847 31.991 0.53 -57.898
274.625 0.492 -60.386 0.869 29.492 0.869 29.492 0.492 -60.386
299.583 0.459 -62.565 0.888 27.301 0.888 27.301 0.459 -62.565
324.542 0.428 -64.486 0.902 25.368 0.902 25.368 0.428 -64.486
349.5 0.401 -66.19 0.915 23.652 0.915 23.652 0.401 -66.19
374.458 0.377 -67.711 0.925 22.119 0.925 22.119 0.377 -67.711
399.417 0.354 -69.075 0.934 20.742 0.934 20.742 0.354 -69.075
424.375 0.334 -70.305 0.942 19.499 0.942 19.499 0.334 -70.305
449.333 0.315 -71.421 0.948 18.371 0.948 18.371 0.315 -71.421
474.292 0.298 -72.436 0.953 17.342 0.953 17.342 0.298 -72.436
499.25 0.282 -73.365 0.958 16.4 0.958 16.4 0.282 -73.365
524.208 0.268 -74.218 0.962 15.533 0.962 15.533 0.268 -74.218
549.167 0.254 -75.004 0.966 14.733 0.966 14.733 0.254 -75.004
574.125 0.242 -75.73 0.969 13.992 0.969 13.992 0.242 -75.73
599.083 0.23 -76.405 0.972 13.302 0.972 13.302 0.23 -76.405
624.042 0.219 -77.032 0.975 12.659 0.975 12.659 0.219 -77.032
649 0.209 -77.618 0.977 12.058 0.977 12.058 0.209 -77.618
673.958 0.199 -78.166 0.979 11.494 0.979 11.494 0.199 -78.166
698.917 0.19 -78.679 0.981 10.963 0.981 10.963 0.19 -78.679
723.875 0.182 -79.162 0.982 10.463 0.982 10.463 0.182 -79.162
748.833 0.173 -79.617 0.984 9.99 0.984 9.99 0.173 -79.617
773.792 0.166 -80.046 0.985 9.542 0.985 9.542 0.166 -80.046
798.75 0.158 -80.452 0.986 9.116 0.986 9.116 0.158 -80.452
823.708 0.151 -80.836 0.987 8.712 0.987 8.712 0.151 -80.836
848.667 0.145 -81.201 0.988 8.326 0.988 8.326 0.145 -81.201
873.625 0.138 -81.546 0.989 7.958 0.989 7.958 0.138 -81.546
898.583 0.132 -81.875 0.99 7.606 0.99 7.606 0.132 -81.875
923.542 0.127 -82.188 0.991 7.269 0.991 7.269 0.127 -82.188
948.5 0.121 -82.486 0.991 6.946 0.991 6.946 0.121 -82.486
973.458 0.116 -82.77 0.992 6.635 0.992 6.635 0.116 -82.77
998.417 0.11 -83.041 0.993 6.336 0.993 6.336 0.11 -83.041
1023.375 0.105 -83.299 0.993 6.048 0.993 6.048 0.105 -83.299
1048.333 0.101 -83.545 0.994 5.77 0.994 5.77 0.101 -83.545
1073.292 0.096 -83.78 0.994 5.501 0.994 5.501 0.096 -83.78
1098.25 0.091 -84.003 0.995 5.242 0.995 5.242 0.091 -84.003
1123.208 0.087 -84.217 0.995 4.99 0.995 4.99 0.087 -84.217
1148.167 0.083 -84.419 0.995 4.747 0.995 4.747 0.083 -84.419
1173.125 0.079 -84.612 0.996 4.511 0.996 4.511 0.079 -84.612
1198.083 0.075 -84.794 0.996 4.281 0.996 4.281 0.075 -84.794
1223.042 0.071 -84.966 0.996 4.058 0.996 4.058 0.071 -84.966
1248 0.067 -85.127 0.997 3.841 0.997 3.841 0.067 -85.127
1272.958 0.063 -85.278 0.997 3.63 0.997 3.63 0.063 -85.278
1297.917 0.06 -85.418 0.997 3.424 0.997 3.424 0.06 -85.418
1322.875 0.056 -85.547 0.997 3.224 0.997 3.224 0.056 -85.547
1347.833 0.053 -85.663 0.997 3.028 0.997 3.028 0.053 -85.663
1372.792 0.049 -85.766 0.998 2.836 0.998 2.836 0.049 -85.766
1397.75 0.046 -85.854 0.998 2.649 0.998 2.649 0.046 -85.854
1422.708 0.043 -85.926 0.998 2.466 0.998 2.466 0.043 -85.926
1447.667 0.04 -85.979 0.998 2.287 0.998 2.287 0.04 -85.979
1472.625 0.037 -86.011 0.998 2.112 0.998 2.112 0.037 -86.011
1497.583 0.034 -86.016 0.998 1.94 0.998 1.94 0.034 -86.016
1522.542 0.031 -85.99 0.998 1.772 0.998 1.772 0.031 -85.99
1547.5 0.028 -85.926 0.998 1.606 0.998 1.606 0.028 -85.926
1572.458 0.025 -85.811 0.998 1.444 0.998 1.444 0.025 -85.811
1597.417 0.022 -85.63 0.999 1.284 0.999 1.284 0.022 -85.63
1622.375 0.02 -85.359 0.999 1.128 0.999 1.128 0.02 -85.359
1647.333 0.017 -84.959 0.999 0.974 0.999 0.974 0.017 -84.959
1672.292 0.014 -84.364 0.999 0.822 0.999 0.822 0.014 -84.364
1697.25 0.012 -83.454 0.999 0.673 0.999 0.673 0.012 -83.454
1722.208 9.268e-3 -81.98 0.999 0.526 0.999 0.526 9.268e-3 -81.98
1747.167 6.775e-3 -79.341 0.999 0.382 0.999 0.382 6.775e-3 -79.341
1772.125 4.351e-3 -73.633 0.999 0.24 0.999 0.24 4.351e-3 -73.633
1797.083 2.11e-3 -54.958 0.999 0.099 0.999 0.099 2.11e-3 -54.958
1822.042 1.39e-3 29.546 0.999 -0.039 0.999 -0.039 1.39e-3 29.546
1847 3.299e-3 68.331 0.999 -0.176 0.999 -0.176 3.299e-3 68.331
1871.958 5.555e-3 77.121 0.999 -0.311 0.999 -0.311 5.555e-3 77.121
1896.917 7.837e-3 80.684 0.999 -0.444 0.999 -0.444 7.837e-3 80.684
1921.875 0.01 82.558 0.999 -0.575 0.999 -0.575 0.01 82.558
1946.833 0.012 83.683 0.999 -0.705 0.999 -0.705 0.012 83.683
1971.792 0.015 84.415 0.999 -0.833 0.999 -0.833 0.015 84.415
1996.75 0.017 84.913 0.999 -0.96 0.999 -0.96 0.017 84.913
2021.708 0.019 85.263 0.999 -1.085 0.999 -1.085 0.019 85.263
2046.667 0.021 85.513 0.999 -1.209 0.999 -1.209 0.021 85.513
2071.625 0.023 85.692 0.999 -1.331 0.999 -1.331 0.023 85.692
2096.583 0.025 85.819 0.998 -1.453 0.998 -1.453 0.025 85.819
2121.542 0.027 85.907 0.998 -1.573 0.998 -1.573 0.027 85.907
2146.5 0.03 85.965 0.998 -1.692 0.998 -1.692 0.03 85.965
2171.458 0.032 85.999 0.998 -1.809 0.998 -1.809 0.032 85.999
2196.417 0.034 86.015 0.998 -1.926 0.998 -1.926 0.034 86.015
2221.375 0.036 86.016 0.998 -2.041 0.998 -2.041 0.036 86.016
2246.333 0.038 86.005 0.998 -2.156 0.998 -2.156 0.038 86.005
2271.292 0.04 85.984 0.998 -2.269 0.998 -2.269 0.04 85.984
2296.25 0.042 85.954 0.998 -2.381 0.998 -2.381 0.042 85.954
2321.208 0.044 85.917 0.998 -2.493 0.998 -2.493 0.044 85.917
2346.167 0.045 85.874 0.998 -2.603 0.998 -2.603 0.045 85.874
2371.125 0.047 85.826 0.998 -2.713 0.998 -2.713 0.047 85.826
2396.083 0.049 85.773 0.998 -2.822 0.998 -2.822 0.049 85.773
2421.042 0.051 85.717 0.997 -2.93 0.997 -2.93 0.051 85.717
2446 0.053 85.658 0.997 -3.037 0.997 -3.037 0.053 85.658
2470.958 0.055 85.596 0.997 -3.143 0.997 -3.143 0.055 85.596
2495.917 0.057 85.531 0.997 -3.249 0.997 -3.249 0.057 85.531
2520.875 0.059 85.465 0.997 -3.354 0.997 -3.354 0.059 85.465
2545.833 0.06 85.396 0.997 -3.458 0.997 -3.458 0.06 85.396
2570.792 0.062 85.326 0.997 -3.561 0.997 -3.561 0.062 85.326
2595.75 0.064 85.255 0.997 -3.664 0.997 -3.664 0.064 85.255
2620.708 0.066 85.182 0.997 -3.766 0.997 -3.766 0.066 85.182
2645.667 0.067 85.109 0.997 -3.867 0.997 -3.867 0.067 85.109
2670.625 0.069 85.034 0.996 -3.968 0.996 -3.968 0.069 85.034
2695.583 0.071 84.958 0.996 -4.068 0.996 -4.068 0.071 84.958
2720.542 0.073 84.882 0.996 -4.167 0.996 -4.167 0.073 84.882
2745.5 0.074 84.806 0.996 -4.266 0.996 -4.266 0.074 84.806
2770.458 0.076 84.728 0.996 -4.365 0.996 -4.365 0.076 84.728
2795.417 0.078 84.65 0.996 -4.462 0.996 -4.462 0.078 84.65
2820.375 0.08 84.572 0.996 -4.56 0.996 -4.56 0.08 84.572
2845.333 0.081 84.494 0.995 -4.656 0.995 -4.656 0.081 84.494
2870.292 0.083 84.415 0.995 -4.752 0.995 -4.752 0.083 84.415
2895.25 0.085 84.335 0.995 -4.848 0.995 -4.848 0.085 84.335
2920.208 0.086 84.256 0.995 -4.943 0.995 -4.943 0.086 84.256
2945.167 0.088 84.176 0.995 -5.038 0.995 -5.038 0.088 84.176
2970.125 0.089 84.097 0.995 -5.132 0.995 -5.132 0.089 84.097
2995.083 0.091 84.017 0.995 -5.226 0.995 -5.226 0.091 84.017
3020.042 0.093 83.937 0.994 -5.319 0.994 -5.319 0.093 83.937
3045 0.094 83.857 0.994 -5.412 0.994 -5.412 0.094 83.857
3069.958 0.096 83.777 0.994 -5.505 0.994 -5.505 0.096 83.777
3094.917 0.098 83.696 0.994 -5.597 0.994 -5.597 0.098 83.696
3119.875 0.099 83.616 0.994 -5.689 0.994 -5.689 0.099 83.616
3144.833 0.101 83.536 0.994 -5.78 0.994 -5.78 0.101 83.536
3169.792 0.102 83.456 0.994 -5.871 0.994 -5.871 0.102 83.456
3194.75 0.104 83.376 0.993 -5.961 0.993 -5.961 0.104 83.376
3219.708 0.105 83.295 0.993 -6.051 0.993 -6.051 0.105 83.295
3244.667 0.107 83.215 0.993 -6.141 0.993 -6.141 0.107 83.215
3269.625 0.109 83.135 0.993 -6.23 0.993 -6.23 0.109 83.135
3294.583 0.11 83.055 0.993 -6.319 0.993 -6.319 0.11 83.055
3319.542 0.112 82.975 0.993 -6.408 0.993 -6.408 0.112 82.975
3344.5 0.113 82.895 0.992 -6.496 0.992 -6.496 0.113 82.895
3369.458 0.115 82.816 0.992 -6.585 0.992 -6.585 0.115 82.816
3394.417 0.116 82.736 0.992 -6.672 0.992 -6.672 0.116 82.736
3419.375 0.118 82.656 0.992 -6.76 0.992 -6.76 0.118 82.656
3444.333 0.119 82.577 0.992 -6.847 0.992 -6.847 0.119 82.577
3469.292 0.121 82.497 0.991 -6.933 0.991 -6.933 0.121 82.497
3494.25 0.122 82.418 0.991 -7.02 0.991 -7.02 0.122 82.418
3519.208 0.124 82.338 0.991 -7.106 0.991 -7.106 0.124 82.338
3544.167 0.125 82.259 0.991 -7.192 0.991 -7.192 0.125 82.259
3569.125 0.127 82.18 0.991 -7.278 0.991 -7.278 0.127 82.18
3594.083 0.128 82.101 0.991 -7.363 0.991 -7.363 0.128 82.101
3619.042 0.13 82.022 0.99 -7.448 0.99 -7.448 0.13 82.022
3644 0.131 81.944 0.99 -7.533 0.99 -7.533 0.131 81.944
3668.958 0.133 81.865 0.99 -7.617 0.99 -7.617 0.133 81.865
3693.917 0.134 81.786 0.99 -7.702 0.99 -7.702 0.134 81.786
3718.875 0.135 81.708 0.99 -7.786 0.99 -7.786 0.135 81.708
3743.833 0.137 81.63 0.989 -7.869 0.989 -7.869 0.137 81.63
3768.792 0.138 81.551 0.989 -7.953 0.989 -7.953 0.138 81.551
3793.75 0.14 81.473 0.989 -8.036 0.989 -8.036 0.14 81.473
3818.708 0.141 81.395 0.989 -8.119 0.989 -8.119 0.141 81.395
3843.667 0.143 81.318 0.989 -8.202 0.989 -8.202 0.143 81.318
3868.625 0.144 81.24 0.988 -8.284 0.988 -8.284 0.144 81.24
3893.583 0.146 81.162 0.988 -8.367 0.988 -8.367 0.146 81.162
3918.542 0.147 81.085 0.988 -8.449 0.988 -8.449 0.147 81.085
3943.5 0.148 81.008 0.988 -8.531 0.988 -8.531 0.148 81.008
3968.458 0.15 80.93 0.988 -8.612 0.988 -8.612 0.15 80.93
3993.417 0.151 80.853 0.987 -8.694 0.987 -8.694 0.151 80.853
4018.375 0.153 80.776 0.987 -8.775 0.987 -8.775 0.153 80.776
4043.333 0.154 80.699 0.987 -8.856 0.987 -8.856 0.154 80.699
4068.292 0.155 80.623 0.987 -8.937 0.987 -8.937 0.155 80.623
4093.25 0.157 80.546 0.986 -9.018 0.986 -9.018 0.157 80.546
4118.208 0.158 80.469 0.986 -9.098 0.986 -9.098 0.158 80.469
4143.167 0.16 80.393 0.986 -9.178 0.986 -9.178 0.16 80.393
4168.125 0.161 80.317 0.986 -9.259 0.986 -9.259 0.161 80.317
4193.083 0.162 80.24 0.986 -9.338 0.986 -9.338 0.162 80.24
4218.042 0.164 80.164 0.985 -9.418 0.985 -9.418 0.164 80.164
4243 0.165 80.088 0.985 -9.498 0.985 -9.498 0.165 80.088
4267.958 0.166 80.013 0.985 -9.577 0.985 -9.577 0.166 80.013
4292.917 0.168 79.937 0.985 -9.656 0.985 -9.656 0.168 79.937
4317.875 0.169 79.861 0.984 -9.735 0.984 -9.735 0.169 79.861
4342.833 0.17 79.786 0.984 -9.814 0.984 -9.814 0.17 79.786
4367.792 0.172 79.71 0.984 -9.892 0.984 -9.892 0.172 79.71
4392.75 0.173 79.635 0.984 -9.971 0.984 -9.971 0.173 79.635
4417.708 0.174 79.56 0.983 -10.049 0.983 -10.049 0.174 79.56
4442.667 0.176 79.485 0.983 -10.127 0.983 -10.127 0.176 79.485
4467.625 0.177 79.41 0.983 -10.205 0.983 -10.205 0.177 79.41
4492.583 0.179 79.335 0.983 -10.283 0.983 -10.283 0.179 79.335
4517.542 0.18 79.26 0.983 -10.361 0.983 -10.361 0.18 79.26
4542.5 0.181 79.186 0.982 -10.438 0.982 -10.438 0.181 79.186
4567.458 0.183 79.111 0.982 -10.516 0.982 -10.516 0.183 79.111
4592.417 0.184 79.037 0.982 -10.593 0.982 -10.593 0.184 79.037
4617.375 0.185 78.963 0.982 -10.67 0.982 -10.67 0.185 78.963
4642.333 0.186 78.889 0.981 -10.747 0.981 -10.747 0.186 78.889
4667.292 0.188 78.814 0.981 -10.823 0.981 -10.823 0.188 78.814
4692.25 0.189 78.74 0.981 -10.9 0.981 -10.9 0.189 78.74
4717.208 0.19 78.667 0.981 -10.976 0.981 -10.976 0.19 78.667
4742.167 0.192 78.593 0.98 -11.053 0.98 -11.053 0.192 78.593
4767.125 0.193 78.519 0.98 -11.129 0.98 -11.129 0.193 78.519
4792.083 0.194 78.446 0.98 -11.205 0.98 -11.205 0.194 78.446
4817.042 0.196 78.372 0.979 -11.281 0.979 -11.281 0.196 78.372
4842 0.197 78.299 0.979 -11.356 0.979 -11.356 0.197 78.299
4866.958 0.198 78.226 0.979 -11.432 0.979 -11.432 0.198 78.226
4891.917 0.199 78.152 0.979 -11.507 0.979 -11.507 0.199 78.152
4916.875 0.201 78.079 0.978 -11.583 0.978 -11.583 0.201 78.079
4941.833 0.202 78.006 0.978 -11.658 0.978 -11.658 0.202 78.006
4966.792 0.203 77.934 0.978 -11.733 0.978 -11.733 0.203 77.934
4991.75 0.205 77.861 0.978 -11.808 0.978 -11.808 0.205 77.861
5016.708 0.206 77.788 0.977 -11.883 0.977 -11.883 0.206 77.788
5041.667 0.207 77.716 0.977 -11.957 0.977 -11.957 0.207 77.716
5066.625 0.208 77.643 0.977 -12.032 0.977 -12.032 0.208 77.643
5091.583 0.21 77.571 0.977 -12.106 0.977 -12.106 0.21 77.571
5116.542 0.211 77.499 0.976 -12.181 0.976 -12.181 0.211 77.499
5141.5 0.212 77.426 0.976 -12.255 0.976 -12.255 0.212 77.426
5166.458 0.214 77.354 0.976 -12.329 0.976 -12.329 0.214 77.354
5191.417 0.215 77.282 0.975 -12.403 0.975 -12.403 0.215 77.282
5216.375 0.216 77.21 0.975 -12.477 0.975 -12.477 0.216 77.21
5241.333 0.217 77.139 0.975 -12.55 0.975 -12.55 0.217 77.139
5266.292 0.219 77.067 0.975 -12.624 0.975 -12.624 0.219 77.067
5291.25 0.22 76.995 0.974 -12.697 0.974 -12.697 0.22 76.995
5316.208 0.221 76.924 0.974 -12.771 0.974 -12.771 0.221 76.924
5341.167 0.222 76.852 0.974 -12.844 0.974 -12.844 0.222 76.852
5366.125 0.224 76.781 0.974 -12.917 0.974 -12.917 0.224 76.781
5391.083 0.225 76.71 0.973 -12.99 0.973 -12.99 0.225 76.71
5416.042 0.226 76.639 0.973 -13.063 0.973 -13.063 0.226 76.639
5441 0.227 76.568 0.973 -13.136 0.973 -13.136 0.227 76.568
5465.958 0.228 76.497 0.972 -13.208 0.972 -13.208 0.228 76.497
5490.917 0.23 76.426 0.972 -13.281 0.972 -13.281 0.23 76.426
5515.875 0.231 76.355 0.972 -13.353 0.972 -13.353 0.231 76.355
5540.833 0.232 76.284 0.971 -13.426 0.971 -13.426 0.232 76.284
5565.792 0.233 76.214 0.971 -13.498 0.971 -13.498 0.233 76.214
5590.75 0.235 76.143 0.971 -13.57 0.971 -13.57 0.235 76.143
5615.708 0.236 76.073 0.971 -13.642 0.971 -13.642 0.236 76.073
5640.667 0.237 76.002 0.97 -13.714 0.97 -13.714 0.237 76.002
5665.625 0.238 75.932 0.97 -13.786 0.97 -13.786 0.238 75.932
5690.583 0.24 75.862 0.97 -13.858 0.97 -13.858 0.24 75.862
5715.542 0.241 75.792 0.969 -13.929 0.969 -13.929 0.241 75.792
5740.5 0.242 75.722 0.969 -14.001 0.969 -14.001 0.242 75.722
5765.458 0.243 75.652 0.969 -14.072 0.969 -14.072 0.243 75.652
5790.417 0.244 75.582 0.969 -14.143 0.969 -14.143 0.244 75.582
5815.375 0.246 75.512 0.968 -14.215 0.968 -14.215 0.246 75.512
5840.333 0.247 75.442 0.968 -14.286 0.968 -14.286 0.247 75.442
5865.292 0.248 75.373 0.968 -14.357 0.968 -14.357 0.248 75.373
5890.25 0.249 75.303 0.967 -14.428 0.967 -14.428 0.249 75.303
5915.208 0.25 75.234 0.967 -14.499 0.967 -14.499 0.25 75.234
5940.167 0.252 75.164 0.967 -14.569 0.967 -14.569 0.252 75.164
5965.125 0.253 75.095 0.966 -14.64 0.966 -14.64 0.253 75.095
5990.083 0.254 75.026 0.966 -14.71 0.966 -14.71 0.254 75.026
6015.042 0.255 74.957 0.966 -14.781 0.966 -14.781 0.255 74.957
6040 0.256 74.888 0.965 -14.851 0.965 -14.851 0.256 74.888
6064.958 0.257 74.819 0.965 -14.921 0.965 -14.921 0.257 74.819
6089.917 0.259 74.75 0.965 -14.992 0.965 -14.992 0.259 74.75
6114.875 0.26 74.681 0.964 -15.062 0.964 -15.062 0.26 74.681
6139.833 0.261 74.612 0.964 -15.132 0.964 -15.132 0.261 74.612
6164.792 0.262 74.544 0.964 -15.202 0.964 -15.202 0.262 74.544
6189.75 0.263 74.475 0.964 -15.271 0.964 -15.271 0.263 74.475
6214.708 0.265 74.406 0.963 -15.341 0.963 -15.341 0.265 74.406
6239.667 0.266 74.338 0.963 -15.411 0.963 -15.411 0.266 74.338
6264.625 0.267 74.27 0.963 -15.48 0.963 -15.48 0.267 74.27
6289.583 0.268 74.201 0.962 -15.55 0.962 -15.55 0.268 74.201
6314.542 0.269 74.133 0.962 -15.619 0.962 -15.619 0.269 74.133
6339.5 0.27 74.065 0.962 -15.688 0.962 -15.688 0.27 74.065
6364.458 0.272 73.997 0.961 -15.757 0.961 -15.757 0.272 73.997
6389.417 0.273 73.929 0.961 -15.826 0.961 -15.826 0.273 73.929
6414.375 0.274 73.861 0.961 -15.895 0.961 -15.895 0.274 73.861
6439.333 0.275 73.794 0.96 -15.964 0.96 -15.964 0.275 73.794
6464.292 0.276 73.726 0.96 -16.033 0.96 -16.033 0.276 73.726
6489.25 0.277 73.658 0.96 -16.102 0.96 -16.102 0.277 73.658
6514.208 0.278 73.591 0.959 -16.17 0.959 -16.17 0.278 73.591
6539.167 0.28 73.523 0.959 -16.239 0.959 -16.239 0.28 73.523
6564.125 0.281 73.456 0.959 -16.308 0.959 -16.308 0.281 73.456
6589.083 0.282 73.388 0.958 -16.376 0.958 -16.376 0.282 73.388
6614.042 0.283 73.321 0.958 -16.444 0.958 -16.444 0.283 73.321
6639 0.284 73.254 0.958 -16.512 0.958 -16.512 0.284 73.254
6663.958 0.285 73.187 0.957 -16.581 0.957 -16.581 0.285 73.187
6688.917 0.287 73.12 0.957 -16.649 0.957 -16.649 0.287 73.12
6713.875 0.288 73.053 0.957 -16.717 0.957 -16.717 0.288 73.053
6738.833 0.289 72.986 0.956 -16.784 0.956 -16.784 0.289 72.986
6763.792 0.29 72.919 0.956 -16.852 0.956 -16.852 0.29 72.919
6788.75 0.291 72.852 0.956 -16.92 0.956 -16.92 0.291 72.852
6813.708 0.292 72.786 0.955 -16.988 0.955 -16.988 0.292 72.786
6838.667 0.293 72.719 0.955 -17.055 0.955 -17.055 0.293 72.719
6863.625 0.294 72.652 0.955 -17.123 0.955 -17.123 0.294 72.652
6888.583 0.296 72.586 0.954 -17.19 0.954 -17.19 0.296 72.586
6913.542 0.297 72.52 0.954 -17.257 0.954 -17.257 0.297 72.52
6938.5 0.298 72.453 0.953 -17.325 0.953 -17.325 0.298 72.453
6963.458 0.299 72.387 0.953 -17.392 0.953 -17.392 0.299 72.387
6988.417 0.3 72.321 0.953 -17.459 0.953 -17.459 0.3 72.321
7013.375 0.301 72.255 0.952 -17.526 0.952 -17.526 0.301 72.255
7038.333 0.302 72.189 0.952 -17.593 0.952 -17.593 0.302 72.189
7063.292 0.303 72.123 0.952 -17.66 0.952 -17.66 0.303 72.123
7088.25 0.304 72.057 0.951 -17.726 0.951 -17.726 0.304 72.057
7113.208 0.306 71.991 0.951 -17.793 0.951 -17.793 0.306 71.991
7138.167 0.307 71.925 0.951 -17.86 0.951 -17.86 0.307 71.925
7163.125 0.308 71.86 0.95 -17.926 0.95 -17.926 0.308 71.86
7188.083 0.309 71.794 0.95 -17.993 0.95 -17.993 0.309 71.794
7213.042 0.31 71.729 0.95 -18.059 0.95 -18.059 0.31 71.729
7238 0.311 71.663 0.949 -18.125 0.949 -18.125 0.311 71.663
7262.958 0.312 71.598 0.949 -18.191 0.949 -18.191 0.312 71.598
7287.917 0.313 71.532 0.949 -18.258 0.949 -18.258 0.313 71.532
7312.875 0.314 71.467 0.948 -18.324 0.948 -18.324 0.314 71.467
7337.833 0.315 71.402 0.948 -18.39 0.948 -18.39 0.315 71.402
7362.792 0.317 71.337 0.947 -18.456 0.947 -18.456 0.317 71.337
7387.75 0.318 71.272 0.947 -18.521 0.947 -18.521 0.318 71.272
7412.708 0.319 71.207 0.947 -18.587 0.947 -18.587 0.319 71.207
7437.667 0.32 71.142 0.946 -18.653 0.946 -18.653 0.32 71.142
7462.625 0.321 71.077 0.946 -18.718 0.946 -18.718 0.321 71.077
7487.583 0.322 71.012 0.946 -18.784 0.946 -18.784 0.322 71.012
7512.542 0.323 70.948 0.945 -18.849 0.945 -18.849 0.323 70.948
7537.5 0.324 70.883 0.945 -18.915 0.945 -18.915 0.324 70.883
7562.458 0.325 70.819 0.944 -18.98 0.944 -18.98 0.325 70.819
7587.417 0.326 70.754 0.944 -19.045 0.944 -19.045 0.326 70.754
7612.375 0.327 70.69 0.944 -19.11 0.944 -19.11 0.327 70.69
7637.333 0.328 70.625 0.943 -19.176 0.943 -19.176 0.328 70.625
7662.292 0.33 70.561 0.943 -19.241 0.943 -19.241 0.33 70.561
7687.25 0.331 70.497 0.943 -19.305 0.943 -19.305 0.331 70.497
7712.208 0.332 70.433 0.942 -19.37 0.942 -19.37 0.332 70.433
7737.167 0.333 70.369 0.942 -19.435 0.942 -19.435 0.333 70.369
7762.125 0.334 70.305 0.942 -19.5 0.942 -19.5 0.334 70.305
7787.083 0.335 70.241 0.941 -19.564 0.941 -19.564 0.335 70.241
7812.042 0.336 70.177 0.941 -19.629 0.941 -19.629 0.336 70.177
7837 0.337 70.113 0.94 -19.694 0.94 -19.694 0.337 70.113
7861.958 0.338 70.049 0.94 -19.758 0.94 -19.758 0.338 70.049
7886.917 0.339 69.986 0.94 -19.822 0.94 -19.822 0.339 69.986
7911.875 0.34 69.922 0.939 -19.887 0.939 -19.887 0.34 69.922
7936.833 0.341 69.858 0.939 -19.951 0.939 -19.951 0.341 69.858
7961.792 0.342 69.795 0.938 -20.015 0.938 -20.015 0.342 69.795
7986.75 0.343 69.732 0.938 -20.079 0.938 -20.079 0.343 69.732
8011.708 0.344 69.668 0.938 -20.143 0.938 -20.143 0.344 69.668
8036.667 0.345 69.605 0.937 -20.207 0.937 -20.207 0.345 69.605
8061.625 0.346 69.542 0.937 -20.271 0.937 -20.271 0.346 69.542
8086.583 0.348 69.479 0.937 -20.334 0.937 -20.334 0.348 69.479
8111.542 0.349 69.416 0.936 -20.398 0.936 -20.398 0.349 69.416
8136.5 0.35 69.353 0.936 -20.462 0.936 -20.462 0.35 69.353
8161.458 0.351 69.29 0.935 -20.525 0.935 -20.525 0.351 69.29
8186.417 0.352 69.227 0.935 -20.589 0.935 -20.589 0.352 69.227
