# MHZ S MA R 50

50 0.991 -7.696 0.134 82.293 0.134 82.293 0.991 -7.696
74.958 0.98 -11.456 0.199 78.527 0.199 78.527 0.98 -11.456
99.917 0.965 -15.124 0.261 74.853 0.261 74.853 0.965 -15.124
124.875 0.947 -18.676 0.32 71.295 0.32 71.295 0.947 -18.676
149.833 0.926 -22.093 0.376 67.873 0.376 67.873 0.926 -22.093
174.792 0.903 -25.361 0.428 64.599 0.428 64.599 0.903 -25.361
199.75 0.879 -28.47 0.477 61.484 0.477 61.484 0.879 -28.47
224.708 0.853 -31.418 0.521 58.531 0.521 58.531 0.853 -31.418
249.667 0.827 -34.202 0.562 55.741 0.562 55.741 0.827 -34.202
274.625 0.8 -36.825 0.599 53.112 0.599 53.112 0.8 -36.825
299.583 0.773 -39.291 0.633 50.639 0.633 50.639 0.773 -39.291
324.542 0.747 -41.608 0.664 48.317 0.664 48.317 0.747 -41.608
349.5 0.721 -43.782 0.692 46.137 0.692 46.137 0.721 -43.782
374.458 0.696 -45.82 0.717 44.093 0.717 44.093 0.696 -45.82
399.417 0.671 -47.732 0.74 42.175 0.74 42.175 0.671 -47.732
424.375 0.648 -49.526 0.761 40.375 0.761 40.375 0.648 -49.526
449.333 0.625 -51.21 0.779 38.685 0.779 38.685 0.625 -51.21
474.292 0.603 -52.791 0.796 37.098 0.796 37.098 0.603 -52.791
499.25 0.582 -54.277 0.812 35.605 0.812 35.605 0.582 -54.277
524.208 0.562 -55.676 0.826 34.2 0.826 34.2 0.562 -55.676
549.167 0.543 -56.993 0.839 32.877 0.839 32.877 0.543 -56.993
574.125 0.524 -58.235 0.85 31.629 0.85 31.629 0.524 -58.235
599.083 0.507 -59.407 0.861 30.45 0.861 30.45 0.507 -59.407
624.042 0.49 -60.515 0.87 29.335 0.87 29.335 0.49 -60.515
649 0.474 -61.564 0.879 28.28 0.879 28.28 0.474 -61.564
673.958 0.458 -62.557 0.887 27.28 0.887 27.28 0.458 -62.557
698.917 0.444 -63.499 0.895 26.331 0.895 26.331 0.444 -63.499
723.875 0.429 -64.394 0.902 25.429 0.902 25.429 0.429 -64.394
748.833 0.416 -65.245 0.908 24.571 0.908 24.571 0.416 -65.245
773.792 0.403 -66.055 0.914 23.754 0.914 23.754 0.403 -66.055
798.75 0.39 -66.826 0.919 22.975 0.919 22.975 0.39 -66.826
823.708 0.378 -67.563 0.924 22.232 0.924 22.232 0.378 -67.563
848.667 0.367 -68.266 0.929 21.521 0.929 21.521 0.367 -68.266
873.625 0.356 -68.938 0.933 20.841 0.933 20.841 0.356 -68.938
898.583 0.345 -69.582 0.937 20.189 0.937 20.189 0.345 -69.582
923.542 0.335 -70.198 0.941 19.565 0.941 19.565 0.335 -70.198
948.5 0.325 -70.79 0.944 18.965 0.944 18.965 0.325 -70.79
973.458 0.315 -71.358 0.948 18.389 0.948 18.389 0.315 -71.358
998.417 0.306 -71.903 0.951 17.836 0.951 17.836 0.306 -71.903
1023.375 0.297 -72.428 0.953 17.302 0.953 17.302 0.297 -72.428
1048.333 0.289 -72.932 0.956 16.789 0.956 16.789 0.289 -72.932
1073.292 0.281 -73.419 0.958 16.293 0.958 16.293 0.281 -73.419
1098.25 0.273 -73.888 0.961 15.815 0.961 15.815 0.273 -73.888
1123.208 0.265 -74.34 0.963 15.353 0.963 15.353 0.265 -74.34
1148.167 0.257 -74.777 0.965 14.907 0.965 14.907 0.257 -74.777
1173.125 0.25 -75.199 0.967 14.475 0.967 14.475 0.25 -75.199
1198.083 0.243 -75.608 0.969 14.056 0.969 14.056 0.243 -75.608
1223.042 0.236 -76.003 0.97 13.651 0.97 13.651 0.236 -76.003
1248 0.229 -76.385 0.972 13.258 0.972 13.258 0.229 -76.385
1272.958 0.223 -76.755 0.973 12.877 0.973 12.877 0.223 -76.755
1297.917 0.217 -77.115 0.975 12.506 0.975 12.506 0.217 -77.115
1322.875 0.21 -77.463 0.976 12.146 0.976 12.146 0.21 -77.463
1347.833 0.204 -77.801 0.977 11.796 0.977 11.796 0.204 -77.801
1372.792 0.199 -78.129 0.979 11.456 0.979 11.456 0.199 -78.129
1397.75 0.193 -78.448 0.98 11.124 0.98 11.124 0.193 -78.448
1422.708 0.187 -78.758 0.981 10.801 0.981 10.801 0.187 -78.758
1447.667 0.182 -79.059 0.982 10.486 0.982 10.486 0.182 -79.059
1472.625 0.177 -79.352 0.983 10.179 0.983 10.179 0.177 -79.352
1497.583 0.172 -79.638 0.984 9.879 0.984 9.879 0.172 -79.638
1522.542 0.167 -79.915 0.985 9.587 0.985 9.587 0.167 -79.915
1547.5 0.162 -80.185 0.985 9.301 0.985 9.301 0.162 -80.185
1572.458 0.157 -80.448 0.986 9.022 0.986 9.022 0.157 -80.448
1597.417 0.152 -80.705 0.987 8.749 0.987 8.749 0.152 -80.705
1622.375 0.147 -80.954 0.988 8.482 0.988 8.482 0.147 -80.954
1647.333 0.143 -81.198 0.988 8.22 0.988 8.22 0.143 -81.198
1672.292 0.139 -81.435 0.989 7.964 0.989 7.964 0.139 -81.435
1697.25 0.134 -81.666 0.989 7.713 0.989 7.713 0.134 -81.666
1722.208 0.13 -81.891 0.99 7.468 0.99 7.468 0.13 -81.891
1747.167 0.126 -82.11 0.991 7.227 0.991 7.227 0.126 -82.11
1772.125 0.122 -82.324 0.991 6.99 0.991 6.99 0.122 -82.324
1797.083 0.118 -82.532 0.992 6.758 0.992 6.758 0.118 -82.532
1822.042 0.114 -82.735 0.992 6.531 0.992 6.531 0.114 -82.735
1847 0.11 -82.932 0.992 6.307 0.992 6.307 0.11 -82.932
1871.958 0.106 -83.124 0.993 6.087 0.993 6.087 0.106 -83.124
1896.917 0.102 -83.311 0.993 5.872 0.993 5.872 0.102 -83.311
1921.875 0.099 -83.492 0.994 5.659 0.994 5.659 0.099 -83.492
1946.833 0.095 -83.668 0.994 5.451 0.994 5.451 0.095 -83.668
1971.792 0.091 -83.838 0.994 5.246 0.994 5.246 0.091 -83.838
1996.75 0.088 -84.003 0.995 5.044 0.995 5.044 0.088 -84.003
2021.708 0.084 -84.163 0.995 4.845 0.995 4.845 0.084 -84.163
2046.667 0.081 -84.317 0.995 4.649 0.995 4.649 0.081 -84.317
2071.625 0.078 -84.465 0.996 4.456 0.996 4.456 0.078 -84.465
2096.583 0.074 -84.606 0.996 4.266 0.996 4.266 0.074 -84.606
2121.542 0.071 -84.741 0.996 4.079 0.996 4.079 0.071 -84.741
2146.5 0.068 -84.87 0.996 3.895 0.996 3.895 0.068 -84.87
2171.458 0.065 -84.991 0.996 3.713 0.996 3.713 0.065 -84.991
2196.417 0.062 -85.105 0.997 3.533 0.997 3.533 0.062 -85.105
2221.375 0.059 -85.21 0.997 3.356 0.997 3.356 0.059 -85.21
2246.333 0.056 -85.306 0.997 3.182 0.997 3.182 0.056 -85.306
2271.292 0.053 -85.391 0.997 3.009 0.997 3.009 0.053 -85.391
2296.25 0.05 -85.465 0.997 2.839 0.997 2.839 0.05 -85.465
2321.208 0.047 -85.527 0.997 2.671 0.997 2.671 0.047 -85.527
2346.167 0.044 -85.573 0.998 2.505 0.998 2.505 0.044 -85.573
2371.125 0.041 -85.602 0.998 2.341 0.998 2.341 0.041 -85.602
2396.083 0.038 -85.611 0.998 2.179 0.998 2.179 0.038 -85.611
2421.042 0.035 -85.596 0.998 2.018 0.998 2.018 0.035 -85.596
2446 0.032 -85.551 0.998 1.86 0.998 1.86 0.032 -85.551
2470.958 0.03 -85.47 0.998 1.703 0.998 1.703 0.03 -85.47
2495.917 0.027 -85.343 0.998 1.548 0.998 1.548 0.027 -85.343
2520.875 0.024 -85.155 0.998 1.395 0.998 1.395 0.024 -85.155
2545.833 0.022 -84.887 0.998 1.243 0.998 1.243 0.022 -84.887
2570.792 0.019 -84.508 0.998 1.093 0.998 1.093 0.019 -84.508
2595.75 0.017 -83.968 0.998 0.945 0.998 0.945 0.017 -83.968
2620.708 0.014 -83.184 0.998 0.798 0.998 0.798 0.014 -83.184
2645.667 0.011 -82 0.998 0.652 0.998 0.652 0.011 -82
2670.625 8.99e-3 -80.093 0.998 0.508 0.998 0.508 8.99e-3 -80.093
2695.583 6.544e-3 -76.671 0.999 0.365 0.999 0.365 6.544e-3 -76.671
2720.542 4.176e-3 -69.194 0.999 0.224 0.999 0.224 4.176e-3 -69.194
2745.5 2.073e-3 -44.838 0.999 0.084 0.999 0.084 2.073e-3 -44.838
2770.458 1.754e-3 33.099 0.999 -0.055 0.999 -0.055 1.754e-3 33.099
2795.417 3.667e-3 66.208 0.999 -0.193 0.999 -0.193 3.667e-3 66.208
2820.375 5.926e-3 75.326 0.999 -0.329 0.999 -0.329 5.926e-3 75.326
2845.333 8.232e-3 79.264 0.998 -0.464 0.998 -0.464 8.232e-3 79.264
2870.292 0.011 81.398 0.998 -0.598 0.998 -0.598 0.011 81.398
2895.25 0.013 82.706 0.998 -0.731 0.998 -0.731 0.013 82.706
2920.208 0.015 83.57 0.998 -0.863 0.998 -0.863 0.015 83.57
2945.167 0.017 84.168 0.998 -0.994 0.998 -0.994 0.017 84.168
2970.125 0.02 84.595 0.998 -1.123 0.998 -1.123 0.02 84.595
2995.083 0.022 84.905 0.998 -1.252 0.998 -1.252 0.022 84.905
3020.042 0.024 85.132 0.998 -1.38 0.998 -1.38 0.024 85.132
3045 0.026 85.299 0.998 -1.507 0.998 -1.507 0.026 85.299
3069.958 0.029 85.419 0.998 -1.632 0.998 -1.632 0.029 85.419
3094.917 0.031 85.503 0.998 -1.757 0.998 -1.757 0.031 85.503
3119.875 0.033 85.559 0.998 -1.881 0.998 -1.881 0.033 85.559
3144.833 0.035 85.593 0.998 -2.004 0.998 -2.004 0.035 85.593
3169.792 0.037 85.609 0.998 -2.127 0.998 -2.127 0.037 85.609
3194.75 0.039 85.61 0.998 -2.248 0.998 -2.248 0.039 85.61
3219.708 0.041 85.599 0.998 -2.368 0.998 -2.368 0.041 85.599
3244.667 0.043 85.577 0.998 -2.488 0.998 -2.488 0.043 85.577
3269.625 0.046 85.546 0.997 -2.607 0.997 -2.607 0.046 85.546
3294.583 0.048 85.508 0.997 -2.725 0.997 -2.725 0.048 85.508
3319.542 0.05 85.464 0.997 -2.843 0.997 -2.843 0.05 85.464
3344.5 0.052 85.414 0.997 -2.959 0.997 -2.959 0.052 85.414
3369.458 0.054 85.359 0.997 -3.075 0.997 -3.075 0.054 85.359
3394.417 0.056 85.301 0.997 -3.19 0.997 -3.19 0.056 85.301
3419.375 0.058 85.239 0.997 -3.305 0.997 -3.305 0.058 85.239
3444.333 0.06 85.173 0.997 -3.419 0.997 -3.419 0.06 85.173
3469.292 0.062 85.105 0.997 -3.532 0.997 -3.532 0.062 85.105
3494.25 0.064 85.035 0.997 -3.644 0.997 -3.644 0.064 85.035
3519.208 0.066 84.963 0.996 -3.756 0.996 -3.756 0.066 84.963
3544.167 0.067 84.888 0.996 -3.868 0.996 -3.868 0.067 84.888
3569.125 0.069 84.812 0.996 -3.978 0.996 -3.978 0.069 84.812
3594.083 0.071 84.735 0.996 -4.088 0.996 -4.088 0.071 84.735
3619.042 0.073 84.656 0.996 -4.198 0.996 -4.198 0.073 84.656
3644 0.075 84.577 0.996 -4.306 0.996 -4.306 0.075 84.577
3668.958 0.077 84.496 0.996 -4.415 0.996 -4.415 0.077 84.496
3693.917 0.079 84.414 0.995 -4.522 0.995 -4.522 0.079 84.414
3718.875 0.081 84.332 0.995 -4.629 0.995 -4.629 0.081 84.332
3743.833 0.083 84.249 0.995 -4.736 0.995 -4.736 0.083 84.249
3768.792 0.084 84.165 0.995 -4.842 0.995 -4.842 0.084 84.165
3793.75 0.086 84.081 0.995 -4.948 0.995 -4.948 0.086 84.081
3818.708 0.088 83.996 0.995 -5.053 0.995 -5.053 0.088 83.996
3843.667 0.09 83.911 0.994 -5.157 0.994 -5.157 0.09 83.911
3868.625 0.092 83.825 0.994 -5.261 0.994 -5.261 0.092 83.825
3893.583 0.094 83.74 0.994 -5.365 0.994 -5.365 0.094 83.74
3918.542 0.095 83.653 0.994 -5.468 0.994 -5.468 0.095 83.653
3943.5 0.097 83.567 0.994 -5.57 0.994 -5.57 0.097 83.567
3968.458 0.099 83.481 0.994 -5.673 0.994 -5.673 0.099 83.481
3993.417 0.101 83.394 0.993 -5.774 0.993 -5.774 0.101 83.394
4018.375 0.102 83.307 0.993 -5.876 0.993 -5.876 0.102 83.307
4043.333 0.104 83.22 0.993 -5.976 0.993 -5.976 0.104 83.22
4068.292 0.106 83.133 0.993 -6.077 0.993 -6.077 0.106 83.133
4093.25 0.108 83.046 0.993 -6.177 0.993 -6.177 0.108 83.046
4118.208 0.109 82.959 0.993 -6.276 0.993 -6.276 0.109 82.959
4143.167 0.111 82.872 0.992 -6.375 0.992 -6.375 0.111 82.872
4168.125 0.113 82.785 0.992 -6.474 0.992 -6.474 0.113 82.785
4193.083 0.114 82.698 0.992 -6.572 0.992 -6.572 0.114 82.698
4218.042 0.116 82.611 0.992 -6.67 0.992 -6.67 0.116 82.611
4243 0.118 82.523 0.992 -6.768 0.992 -6.768 0.118 82.523
4267.958 0.12 82.436 0.991 -6.865 0.991 -6.865 0.12 82.436
4292.917 0.121 82.349 0.991 -6.962 0.991 -6.962 0.121 82.349
4317.875 0.123 82.263 0.991 -7.058 0.991 -7.058 0.123 82.263
4342.833 0.125 82.176 0.991 -7.154 0.991 -7.154 0.125 82.176
4367.792 0.126 82.089 0.991 -7.25 0.991 -7.25 0.126 82.089
4392.75 0.128 82.002 0.99 -7.345 0.99 -7.345 0.128 82.002
4417.708 0.129 81.916 0.99 -7.44 0.99 -7.44 0.129 81.916
4442.667 0.131 81.829 0.99 -7.535 0.99 -7.535 0.131 81.829
4467.625 0.133 81.743 0.99 -7.629 0.99 -7.629 0.133 81.743
4492.583 0.134 81.657 0.989 -7.723 0.989 -7.723 0.134 81.657
4517.542 0.136 81.571 0.989 -7.817 0.989 -7.817 0.136 81.571
4542.5 0.138 81.485 0.989 -7.91 0.989 -7.91 0.138 81.485
4567.458 0.139 81.399 0.989 -8.003 0.989 -8.003 0.139 81.399
4592.417 0.141 81.313 0.989 -8.096 0.989 -8.096 0.141 81.313
4617.375 0.142 81.227 0.988 -8.188 0.988 -8.188 0.142 81.227
4642.333 0.144 81.142 0.988 -8.28 0.988 -8.28 0.144 81.142
4667.292 0.146 81.056 0.988 -8.372 0.988 -8.372 0.146 81.056
4692.25 0.147 80.971 0.988 -8.463 0.988 -8.463 0.147 80.971
4717.208 0.149 80.886 0.987 -8.555 0.987 -8.555 0.149 80.886
4742.167 0.15 80.801 0.987 -8.646 0.987 -8.646 0.15 80.801
4767.125 0.152 80.716 0.987 -8.736 0.987 -8.736 0.152 80.716
4792.083 0.153 80.632 0.987 -8.826 0.987 -8.826 0.153 80.632
4817.042 0.155 80.547 0.986 -8.917 0.986 -8.917 0.155 80.547
4842 0.157 80.463 0.986 -9.006 0.986 -9.006 0.157 80.463
4866.958 0.158 80.379 0.986 -9.096 0.986 -9.096 0.158 80.379
4891.917 0.16 80.295 0.986 -9.185 0.986 -9.185 0.16 80.295
4916.875 0.161 80.211 0.985 -9.274 0.985 -9.274 0.161 80.211
4941.833 0.163 80.127 0.985 -9.363 0.985 -9.363 0.163 80.127
4966.792 0.164 80.044 0.985 -9.451 0.985 -9.451 0.164 80.044
4991.75 0.166 79.96 0.985 -9.539 0.985 -9.539 0.166 79.96
5016.708 0.167 79.877 0.984 -9.627 0.984 -9.627 0.167 79.877
5041.667 0.169 79.794 0.984 -9.715 0.984 -9.715 0.169 79.794
5066.625 0.17 79.711 0.984 -9.802 0.984 -9.802 0.17 79.711
5091.583 0.172 79.628 0.984 -9.89 0.984 -9.89 0.172 79.628
5116.542 0.173 79.545 0.983 -9.977 0.983 -9.977 0.173 79.545
5141.5 0.175 79.463 0.983 -10.063 0.983 -10.063 0.175 79.463
5166.458 0.176 79.38 0.983 -10.15 0.983 -10.15 0.176 79.38
5191.417 0.178 79.298 0.983 -10.236 0.983 -10.236 0.178 79.298
5216.375 0.179 79.216 0.982 -10.322 0.982 -10.322 0.179 79.216
5241.333 0.181 79.134 0.982 -10.408 0.982 -10.408 0.181 79.134
5266.292 0.182 79.052 0.982 -10.494 0.982 -10.494 0.182 79.052
5291.25 0.184 78.971 0.982 -10.579 0.982 -10.579 0.184 78.971
5316.208 0.185 78.889 0.981 -10.664 0.981 -10.664 0.185 78.889
5341.167 0.187 78.808 0.981 -10.749 0.981 -10.749 0.187 78.808
5366.125 0.188 78.727 0.981 -10.834 0.981 -10.834 0.188 78.727
5391.083 0.189 78.646 0.98 -10.918 0.98 -10.918 0.189 78.646
5416.042 0.191 78.565 0.98 -11.003 0.98 -11.003 0.191 78.565
5441 0.192 78.484 0.98 -11.087 0.98 -11.087 0.192 78.484
5465.958 0.194 78.403 0.98 -11.171 0.98 -11.171 0.194 78.403
5490.917 0.195 78.323 0.979 -11.254 0.979 -11.254 0.195 78.323
5515.875 0.197 78.243 0.979 -11.338 0.979 -11.338 0.197 78.243
5540.833 0.198 78.163 0.979 -11.421 0.979 -11.421 0.198 78.163
5565.792 0.199 78.083 0.978 -11.504 0.978 -11.504 0.199 78.083
5590.75 0.201 78.003 0.978 -11.587 0.978 -11.587 0.201 78.003
5615.708 0.202 77.923 0.978 -11.67 0.978 -11.67 0.202 77.923
5640.667 0.204 77.844 0.978 -11.752 0.978 -11.752 0.204 77.844
5665.625 0.205 77.764 0.977 -11.834 0.977 -11.834 0.205 77.764
5690.583 0.206 77.685 0.977 -11.916 0.977 -11.916 0.206 77.685
5715.542 0.208 77.606 0.977 -11.998 0.977 -11.998 0.208 77.606
5740.5 0.209 77.527 0.976 -12.08 0.976 -12.08 0.209 77.527
5765.458 0.211 77.448 0.976 -12.162 0.976 -12.162 0.211 77.448
5790.417 0.212 77.369 0.976 -12.243 0.976 -12.243 0.212 77.369
5815.375 0.213 77.291 0.976 -12.324 0.976 -12.324 0.213 77.291
5840.333 0.215 77.212 0.975 -12.405 0.975 -12.405 0.215 77.212
5865.292 0.216 77.134 0.975 -12.486 0.975 -12.486 0.216 77.134
5890.25 0.218 77.056 0.975 -12.567 0.975 -12.567 0.218 77.056
5915.208 0.219 76.978 0.974 -12.647 0.974 -12.647 0.219 76.978
5940.167 0.22 76.9 0.974 -12.728 0.974 -12.728 0.22 76.9
5965.125 0.222 76.822 0.974 -12.808 0.974 -12.808 0.222 76.822
5990.083 0.223 76.745 0.973 -12.888 0.973 -12.888 0.223 76.745
6015.042 0.224 76.667 0.973 -12.968 0.973 -12.968 0.224 76.667
6040 0.226 76.59 0.973 -13.047 0.973 -13.047 0.226 76.59
6064.958 0.227 76.513 0.972 -13.127 0.972 -13.127 0.227 76.513
6089.917 0.228 76.435 0.972 -13.206 0.972 -13.206 0.228 76.435
6114.875 0.23 76.359 0.972 -13.285 0.972 -13.285 0.23 76.359
6139.833 0.231 76.282 0.971 -13.364 0.971 -13.364 0.231 76.282
6164.792 0.232 76.205 0.971 -13.443 0.971 -13.443 0.232 76.205
6189.75 0.234 76.128 0.971 -13.522 0.971 -13.522 0.234 76.128
6214.708 0.235 76.052 0.971 -13.6 0.971 -13.6 0.235 76.052
6239.667 0.236 75.976 0.97 -13.679 0.97 -13.679 0.236 75.976
6264.625 0.238 75.9 0.97 -13.757 0.97 -13.757 0.238 75.9
6289.583 0.239 75.824 0.97 -13.835 0.97 -13.835 0.239 75.824
6314.542 0.24 75.748 0.969 -13.913 0.969 -13.913 0.24 75.748
6339.5 0.242 75.672 0.969 -13.991 0.969 -13.991 0.242 75.672
6364.458 0.243 75.596 0.969 -14.068 0.969 -14.068 0.243 75.596
6389.417 0.244 75.521 0.968 -14.146 0.968 -14.146 0.244 75.521
6414.375 0.246 75.445 0.968 -14.223 0.968 -14.223 0.246 75.445
6439.333 0.247 75.37 0.968 -14.3 0.968 -14.3 0.247 75.37
6464.292 0.248 75.295 0.967 -14.377 0.967 -14.377 0.248 75.295
6489.25 0.25 75.22 0.967 -14.454 0.967 -14.454 0.25 75.22
6514.208 0.251 75.145 0.967 -14.531 0.967 -14.531 0.251 75.145
6539.167 0.252 75.07 0.966 -14.607 0.966 -14.607 0.252 75.07
6564.125 0.253 74.995 0.966 -14.684 0.966 -14.684 0.253 74.995
6589.083 0.255 74.921 0.966 -14.76 0.966 -14.76 0.255 74.921
6614.042 0.256 74.846 0.965 -14.836 0.965 -14.836 0.256 74.846
6639 0.257 74.772 0.965 -14.912 0.965 -14.912 0.257 74.772
6663.958 0.259 74.698 0.965 -14.988 0.965 -14.988 0.259 74.698
6688.917 0.26 74.624 0.964 -15.064 0.964 -15.064 0.26 74.624
6713.875 0.261 74.55 0.964 -15.139 0.964 -15.139 0.261 74.55
6738.833 0.262 74.476 0.964 -15.215 0.964 -15.215 0.262 74.476
6763.792 0.264 74.402 0.963 -15.29 0.963 -15.29 0.264 74.402
6788.75 0.265 74.328 0.963 -15.365 0.963 -15.365 0.265 74.328
6813.708 0.266 74.255 0.962 -15.441 0.962 -15.441 0.266 74.255
6838.667 0.268 74.181 0.962 -15.516 0.962 -15.516 0.268 74.181
6863.625 0.269 74.108 0.962 -15.59 0.962 -15.59 0.269 74.108
6888.583 0.27 74.035 0.961 -15.665 0.961 -15.665 0.27 74.035
6913.542 0.271 73.962 0.961 -15.74 0.961 -15.74 0.271 73.962
6938.5 0.273 73.889 0.961 -15.814 0.961 -15.814 0.273 73.889
6963.458 0.274 73.816 0.96 -15.888 0.96 -15.888 0.274 73.816
6988.417 0.275 73.743 0.96 -15.962 0.96 -15.962 0.275 73.743
7013.375 0.276 73.671 0.96 -16.037 0.96 -16.037 0.276 73.671
7038.333 0.277 73.598 0.959 -16.11 0.959 -16.11 0.277 73.598
7063.292 0.279 73.526 0.959 -16.184 0.959 -16.184 0.279 73.526
7088.25 0.28 73.454 0.959 -16.258 0.959 -16.258 0.28 73.454
7113.208 0.281 73.381 0.958 -16.331 0.958 -16.331 0.281 73.381
7138.167 0.282 73.309 0.958 -16.405 0.958 -16.405 0.282 73.309
7163.125 0.284 73.237 0.958 -16.478 0.958 -16.478 0.284 73.237
7188.083 0.285 73.166 0.957 -16.551 0.957 -16.551 0.285 73.166
7213.042 0.286 73.094 0.957 -16.624 0.957 -16.624 0.286 73.094
7238 0.287 73.022 0.956 -16.697 0.956 -16.697 0.287 73.022
7262.958 0.289 72.951 0.956 -16.77 0.956 -16.77 0.289 72.951
7287.917 0.29 72.879 0.956 -16.843 0.956 -16.843 0.29 72.879
7312.875 0.291 72.808 0.955 -16.916 0.955 -16.916 0.291 72.808
7337.833 0.292 72.737 0.955 -16.988 0.955 -16.988 0.292 72.737
7362.792 0.293 72.666 0.955 -17.06 0.955 -17.06 0.293 72.666
7387.75 0.295 72.595 0.954 -17.133 0.954 -17.133 0.295 72.595
7412.708 0.296 72.524 0.954 -17.205 0.954 -17.205 0.296 72.524
7437.667 0.297 72.453 0.953 -17.277 0.953 -17.277 0.297 72.453
7462.625 0.298 72.382 0.953 -17.349 0.953 -17.349 0.298 72.382
7487.583 0.299 72.312 0.953 -17.42 0.953 -17.42 0.299 72.312
7512.542 0.301 72.241 0.952 -17.492 0.952 -17.492 0.301 72.241
7537.5 0.302 72.171 0.952 -17.564 0.952 -17.564 0.302 72.171
7562.458 0.303 72.1 0.952 -17.635 0.952 -17.635 0.303 72.1
7587.417 0.304 72.03 0.951 -17.706 0.951 -17.706 0.304 72.03
7612.375 0.305 71.96 0.951 -17.778 0.951 -17.778 0.305 71.96
7637.333 0.307 71.89 0.95 -17.849 0.95 -17.849 0.307 71.89
7662.292 0.308 71.82 0.95 -17.92 0.95 -17.92 0.308 71.82
7687.25 0.309 71.75 0.95 -17.991 0.95 -17.991 0.309 71.75
7712.208 0.31 71.681 0.949 -18.061 0.949 -18.061 0.31 71.681
7737.167 0.311 71.611 0.949 -18.132 0.949 -18.132 0.311 71.611
7762.125 0.312 71.542 0.949 -18.202 0.949 -18.202 0.312 71.542
7787.083 0.314 71.472 0.948 -18.273 0.948 -18.273 0.314 71.472
7812.042 0.315 71.403 0.948 -18.343 0.948 -18.343 0.315 71.403
7837 0.316 71.334 0.947 -18.414 0.947 -18.414 0.316 71.334
7861.958 0.317 71.265 0.947 -18.484 0.947 -18.484 0.317 71.265
7886.917 0.318 71.196 0.947 -18.554 0.947 -18.554 0.318 71.196
7911.875 0.319 71.127 0.946 -18.624 0.946 -18.624 0.319 71.127
7936.833 0.321 71.058 0.946 -18.693 0.946 -18.693 0.321 71.058
7961.792 0.322 70.989 0.945 -18.763 0.945 -18.763 0.322 70.989
7986.75 0.323 70.921 0.945 -18.833 0.945 -18.833 0.323 70.921
8011.708 0.324 70.852 0.945 -18.902 0.945 -18.902 0.324 70.852
8036.667 0.325 70.784 0.944 -18.972 0.944 -18.972 0.325 70.784
8061.625 0.326 70.715 0.944 -19.041 0.944 -19.041 0.326 70.715
8086.583 0.327 70.647 0.944 -19.11 0.944 -19.11 0.327 70.647
8111.542 0.329 70.579 0.943 -19.179 0.943 -19.179 0.329 70.579
8136.5 0.33 70.511 0.943 -19.248 0.943 -19.248 0.33 70.511
8161.458 0.331 70.443 0.942 -19.317 0.942 -19.317 0.331 70.443
8186.417 0.332 70.375 0.942 -19.386 0.942 -19.386 0.332 70.375
