# MHZ S MA R 50

50 0.961 -15.963 0.275 74.017 0.275 74.017 0.961 -15.963
74.958 0.919 -23.227 0.394 66.743 0.394 66.743 0.919 -23.227
99.917 0.867 -29.797 0.497 60.163 0.497 60.163 0.867 -29.797
124.875 0.812 -35.627 0.583 54.323 0.583 54.323 0.812 -35.627
149.833 0.757 -40.737 0.653 49.202 0.653 49.202 0.757 -40.737
174.792 0.704 -45.19 0.709 44.739 0.709 44.739 0.704 -45.19
199.75 0.654 -49.064 0.755 40.855 0.755 40.855 0.654 -49.064
224.708 0.608 -52.438 0.793 37.471 0.793 37.471 0.608 -52.438
249.667 0.567 -55.385 0.823 34.513 0.823 34.513 0.567 -55.385
274.625 0.529 -57.972 0.848 31.916 0.848 31.916 0.529 -57.972
299.583 0.494 -60.253 0.868 29.624 0.868 29.624 0.494 -60.253
324.542 0.463 -62.276 0.885 27.591 0.885 27.591 0.463 -62.276
349.5 0.435 -64.078 0.899 25.778 0.899 25.778 0.435 -64.078
374.458 0.409 -65.692 0.911 24.153 0.911 24.153 0.409 -65.692
399.417 0.386 -67.145 0.921 22.688 0.921 22.688 0.386 -67.145
424.375 0.364 -68.459 0.93 21.363 0.93 21.363 0.364 -68.459
449.333 0.345 -69.653 0.938 20.157 0.938 20.157 0.345 -69.653
474.292 0.326 -70.742 0.944 19.056 0.944 19.056 0.326 -70.742
499.25 0.31 -71.74 0.95 18.045 0.95 18.045 0.31 -71.74
524.208 0.294 -72.658 0.955 17.115 0.955 17.115 0.294 -72.658
549.167 0.28 -73.505 0.959 16.256 0.959 16.256 0.28 -73.505
574.125 0.267 -74.289 0.963 15.459 0.963 15.459 0.267 -74.289
599.083 0.254 -75.017 0.966 14.718 0.966 14.718 0.254 -75.017
624.042 0.242 -75.695 0.969 14.026 0.969 14.026 0.242 -75.695
649 0.231 -76.328 0.972 13.378 0.972 13.378 0.231 -76.328
673.958 0.221 -76.921 0.974 12.771 0.974 12.771 0.221 -76.921
698.917 0.211 -77.477 0.976 12.2 0.976 12.2 0.211 -77.477
723.875 0.202 -78.001 0.978 11.661 0.978 11.661 0.202 -78.001
748.833 0.193 -78.494 0.98 11.152 0.98 11.152 0.193 -78.494
773.792 0.185 -78.96 0.982 10.67 0.982 10.67 0.185 -78.96
798.75 0.177 -79.4 0.983 10.212 0.983 10.212 0.177 -79.4
823.708 0.17 -79.818 0.984 9.777 0.984 9.777 0.17 -79.818
848.667 0.163 -80.214 0.985 9.362 0.985 9.362 0.163 -80.214
873.625 0.156 -80.591 0.987 8.967 0.987 8.967 0.156 -80.591
898.583 0.149 -80.949 0.988 8.589 0.988 8.589 0.149 -80.949
923.542 0.143 -81.29 0.989 8.227 0.989 8.227 0.143 -81.29
948.5 0.137 -81.616 0.989 7.879 0.989 7.879 0.137 -81.616
973.458 0.131 -81.927 0.99 7.546 0.99 7.546 0.131 -81.927
998.417 0.126 -82.224 0.991 7.225 0.991 7.225 0.126 -82.224
1023.375 0.12 -82.508 0.992 6.917 0.992 6.917 0.12 -82.508
1048.333 0.115 -82.779 0.992 6.619 0.992 6.619 0.115 -82.779
1073.292 0.11 -83.039 0.993 6.332 0.993 6.332 0.11 -83.039
1098.25 0.105 -83.288 0.993 6.054 0.993 6.054 0.105 -83.288
1123.208 0.101 -83.526 0.994 5.785 0.994 5.785 0.101 -83.526
1148.167 0.096 -83.753 0.994 5.525 0.994 5.525 0.096 -83.753
1173.125 0.092 -83.971 0.995 5.273 0.995 5.273 0.092 -83.971
1198.083 0.088 -84.178 0.995 5.028 0.995 5.028 0.088 -84.178
1223.042 0.084 -84.376 0.995 4.79 0.995 4.79 0.084 -84.376
1248 0.079 -84.565 0.996 4.559 0.996 4.559 0.079 -84.565
1272.958 0.076 -84.744 0.996 4.334 0.996 4.334 0.076 -84.744
1297.917 0.072 -84.914 0.996 4.115 0.996 4.115 0.072 -84.914
1322.875 0.068 -85.074 0.996 3.902 0.996 3.902 0.068 -85.074
1347.833 0.064 -85.225 0.997 3.694 0.997 3.694 0.064 -85.225
1372.792 0.061 -85.365 0.997 3.491 0.997 3.491 0.061 -85.365
1397.75 0.057 -85.494 0.997 3.292 0.997 3.292 0.057 -85.494
1422.708 0.054 -85.612 0.997 3.098 0.997 3.098 0.054 -85.612
1447.667 0.051 -85.718 0.997 2.908 0.997 2.908 0.051 -85.718
1472.625 0.048 -85.809 0.998 2.723 0.998 2.723 0.048 -85.809
1497.583 0.044 -85.886 0.998 2.541 0.998 2.541 0.044 -85.886
1522.542 0.041 -85.946 0.998 2.362 0.998 2.362 0.041 -85.946
1547.5 0.038 -85.985 0.998 2.188 0.998 2.188 0.038 -85.985
1572.458 0.035 -86.001 0.998 2.016 0.998 2.016 0.035 -86.001
1597.417 0.032 -85.989 0.998 1.848 0.998 1.848 0.032 -85.989
1622.375 0.029 -85.942 0.998 1.683 0.998 1.683 0.029 -85.942
1647.333 0.027 -85.851 0.998 1.52 0.998 1.52 0.027 -85.851
1672.292 0.024 -85.702 0.998 1.361 0.998 1.361 0.024 -85.702
1697.25 0.021 -85.477 0.999 1.204 0.999 1.204 0.021 -85.477
1722.208 0.018 -85.144 0.999 1.049 0.999 1.049 0.018 -85.144
1747.167 0.016 -84.654 0.999 0.897 0.999 0.897 0.016 -84.654
1772.125 0.013 -83.918 0.999 0.748 0.999 0.748 0.013 -83.918
1797.083 0.011 -82.766 0.999 0.6 0.999 0.6 0.011 -82.766
1822.042 8.035e-3 -80.821 0.999 0.455 0.999 0.455 8.035e-3 -80.821
1847 5.577e-3 -77.066 0.999 0.312 0.999 0.312 5.577e-3 -77.066
1871.958 3.217e-3 -67.566 0.999 0.171 0.999 0.171 3.217e-3 -67.566
1896.917 1.335e-3 -24.047 0.999 0.031 0.999 0.031 1.335e-3 -24.047
1921.875 2.22e-3 56.6 0.999 -0.106 0.999 -0.106 2.22e-3 56.6
1946.833 4.398e-3 73.669 0.999 -0.242 0.999 -0.242 4.398e-3 73.669
1971.792 6.678e-3 79.108 0.999 -0.376 0.999 -0.376 6.678e-3 79.108
1996.75 8.96e-3 81.675 0.999 -0.509 0.999 -0.509 8.96e-3 81.675
2021.708 0.011 83.129 0.999 -0.64 0.999 -0.64 0.011 83.129
2046.667 0.013 84.042 0.999 -0.769 0.999 -0.769 0.013 84.042
2071.625 0.016 84.651 0.999 -0.897 0.999 -0.897 0.016 84.651
2096.583 0.018 85.073 0.999 -1.023 0.999 -1.023 0.018 85.073
2121.542 0.02 85.373 0.999 -1.148 0.999 -1.148 0.02 85.373
2146.5 0.022 85.587 0.999 -1.272 0.999 -1.272 0.022 85.587
2171.458 0.024 85.74 0.998 -1.395 0.998 -1.395 0.024 85.74
2196.417 0.026 85.847 0.998 -1.516 0.998 -1.516 0.026 85.847
2221.375 0.029 85.921 0.998 -1.636 0.998 -1.636 0.029 85.921
2246.333 0.031 85.967 0.998 -1.755 0.998 -1.755 0.031 85.967
2271.292 0.033 85.993 0.998 -1.873 0.998 -1.873 0.033 85.993
2296.25 0.035 86.001 0.998 -1.99 0.998 -1.99 0.035 86.001
2321.208 0.037 85.996 0.998 -2.105 0.998 -2.105 0.037 85.996
2346.167 0.039 85.979 0.998 -2.22 0.998 -2.22 0.039 85.979
2371.125 0.041 85.953 0.998 -2.334 0.998 -2.334 0.041 85.953
2396.083 0.043 85.92 0.998 -2.447 0.998 -2.447 0.043 85.92
2421.042 0.045 85.879 0.998 -2.559 0.998 -2.559 0.045 85.879
2446 0.047 85.833 0.998 -2.67 0.998 -2.67 0.047 85.833
2470.958 0.049 85.782 0.998 -2.78 0.998 -2.78 0.049 85.782
2495.917 0.05 85.728 0.998 -2.889 0.998 -2.889 0.05 85.728
2520.875 0.052 85.669 0.997 -2.997 0.997 -2.997 0.052 85.669
2545.833 0.054 85.608 0.997 -3.105 0.997 -3.105 0.054 85.608
2570.792 0.056 85.544 0.997 -3.212 0.997 -3.212 0.056 85.544
2595.75 0.058 85.478 0.997 -3.318 0.997 -3.318 0.058 85.478
2620.708 0.06 85.41 0.997 -3.423 0.997 -3.423 0.06 85.41
2645.667 0.062 85.34 0.997 -3.528 0.997 -3.528 0.062 85.34
2670.625 0.063 85.268 0.997 -3.632 0.997 -3.632 0.063 85.268
2695.583 0.065 85.195 0.997 -3.735 0.997 -3.735 0.065 85.195
2720.542 0.067 85.121 0.997 -3.838 0.997 -3.838 0.067 85.121
2745.5 0.069 85.046 0.996 -3.94 0.996 -3.94 0.069 85.046
2770.458 0.07 84.971 0.996 -4.041 0.996 -4.041 0.07 84.971
2795.417 0.072 84.894 0.996 -4.142 0.996 -4.142 0.072 84.894
2820.375 0.074 84.817 0.996 -4.242 0.996 -4.242 0.074 84.817
2845.333 0.076 84.739 0.996 -4.342 0.996 -4.342 0.076 84.739
2870.292 0.077 84.66 0.996 -4.441 0.996 -4.441 0.077 84.66
2895.25 0.079 84.581 0.996 -4.539 0.996 -4.539 0.079 84.581
2920.208 0.081 84.502 0.996 -4.637 0.996 -4.637 0.081 84.502
2945.167 0.083 84.423 0.995 -4.734 0.995 -4.734 0.083 84.423
2970.125 0.084 84.343 0.995 -4.831 0.995 -4.831 0.084 84.343
2995.083 0.086 84.263 0.995 -4.928 0.995 -4.928 0.086 84.263
3020.042 0.088 84.182 0.995 -5.024 0.995 -5.024 0.088 84.182
3045 0.089 84.102 0.995 -5.119 0.995 -5.119 0.089 84.102
3069.958 0.091 84.021 0.995 -5.214 0.995 -5.214 0.091 84.021
3094.917 0.093 83.94 0.994 -5.308 0.994 -5.308 0.093 83.94
3119.875 0.094 83.859 0.994 -5.402 0.994 -5.402 0.094 83.859
3144.833 0.096 83.778 0.994 -5.496 0.994 -5.496 0.096 83.778
3169.792 0.097 83.697 0.994 -5.589 0.994 -5.589 0.097 83.697
3194.75 0.099 83.616 0.994 -5.682 0.994 -5.682 0.099 83.616
3219.708 0.101 83.535 0.994 -5.774 0.994 -5.774 0.101 83.535
3244.667 0.102 83.454 0.994 -5.866 0.994 -5.866 0.102 83.454
3269.625 0.104 83.373 0.993 -5.958 0.993 -5.958 0.104 83.373
3294.583 0.105 83.292 0.993 -6.049 0.993 -6.049 0.105 83.292
3319.542 0.107 83.211 0.993 -6.14 0.993 -6.14 0.107 83.211
3344.5 0.109 83.13 0.993 -6.23 0.993 -6.23 0.109 83.13
3369.458 0.11 83.049 0.993 -6.32 0.993 -6.32 0.11 83.049
3394.417 0.112 82.968 0.993 -6.41 0.993 -6.41 0.112 82.968
3419.375 0.113 82.887 0.992 -6.5 0.992 -6.5 0.113 82.887
3444.333 0.115 82.807 0.992 -6.589 0.992 -6.589 0.115 82.807
3469.292 0.116 82.726 0.992 -6.677 0.992 -6.677 0.116 82.726
3494.25 0.118 82.646 0.992 -6.766 0.992 -6.766 0.118 82.646
3519.208 0.119 82.565 0.992 -6.854 0.992 -6.854 0.119 82.565
3544.167 0.121 82.485 0.991 -6.942 0.991 -6.942 0.121 82.485
3569.125 0.122 82.405 0.991 -7.029 0.991 -7.029 0.122 82.405
3594.083 0.124 82.325 0.991 -7.116 0.991 -7.116 0.124 82.325
3619.042 0.125 82.244 0.991 -7.203 0.991 -7.203 0.125 82.244
3644 0.127 82.165 0.991 -7.29 0.991 -7.29 0.127 82.165
3668.958 0.128 82.085 0.991 -7.376 0.991 -7.376 0.128 82.085
3693.917 0.13 82.005 0.99 -7.462 0.99 -7.462 0.13 82.005
3718.875 0.131 81.925 0.99 -7.548 0.99 -7.548 0.131 81.925
3743.833 0.133 81.846 0.99 -7.633 0.99 -7.633 0.133 81.846
3768.792 0.134 81.767 0.99 -7.718 0.99 -7.718 0.134 81.767
3793.75 0.136 81.687 0.99 -7.803 0.99 -7.803 0.136 81.687
3818.708 0.137 81.608 0.989 -7.888 0.989 -7.888 0.137 81.608
3843.667 0.139 81.529 0.989 -7.972 0.989 -7.972 0.139 81.529
3868.625 0.14 81.45 0.989 -8.056 0.989 -8.056 0.14 81.45
3893.583 0.142 81.372 0.989 -8.14 0.989 -8.14 0.142 81.372
3918.542 0.143 81.293 0.989 -8.224 0.989 -8.224 0.143 81.293
3943.5 0.144 81.215 0.988 -8.307 0.988 -8.307 0.144 81.215
3968.458 0.146 81.136 0.988 -8.39 0.988 -8.39 0.146 81.136
3993.417 0.147 81.058 0.988 -8.473 0.988 -8.473 0.147 81.058
4018.375 0.149 80.98 0.988 -8.556 0.988 -8.556 0.149 80.98
4043.333 0.15 80.902 0.987 -8.639 0.987 -8.639 0.15 80.902
4068.292 0.152 80.824 0.987 -8.721 0.987 -8.721 0.152 80.824
4093.25 0.153 80.746 0.987 -8.803 0.987 -8.803 0.153 80.746
4118.208 0.154 80.669 0.987 -8.885 0.987 -8.885 0.154 80.669
4143.167 0.156 80.591 0.987 -8.966 0.987 -8.966 0.156 80.591
4168.125 0.157 80.514 0.986 -9.048 0.986 -9.048 0.157 80.514
4193.083 0.159 80.436 0.986 -9.129 0.986 -9.129 0.159 80.436
4218.042 0.16 80.359 0.986 -9.21 0.986 -9.21 0.16 80.359
4243 0.161 80.282 0.986 -9.291 0.986 -9.291 0.161 80.282
4267.958 0.163 80.205 0.985 -9.371 0.985 -9.371 0.163 80.205
4292.917 0.164 80.129 0.985 -9.452 0.985 -9.452 0.164 80.129
4317.875 0.166 80.052 0.985 -9.532 0.985 -9.532 0.166 80.052
4342.833 0.167 79.975 0.985 -9.612 0.985 -9.612 0.167 79.975
4367.792 0.168 79.899 0.985 -9.692 0.985 -9.692 0.168 79.899
4392.75 0.17 79.823 0.984 -9.772 0.984 -9.772 0.17 79.823
4417.708 0.171 79.747 0.984 -9.851 0.984 -9.851 0.171 79.747
4442.667 0.172 79.671 0.984 -9.931 0.984 -9.931 0.172 79.671
4467.625 0.174 79.595 0.984 -10.01 0.984 -10.01 0.174 79.595
4492.583 0.175 79.519 0.983 -10.089 0.983 -10.089 0.175 79.519
4517.542 0.177 79.443 0.983 -10.168 0.983 -10.168 0.177 79.443
4542.5 0.178 79.368 0.983 -10.246 0.983 -10.246 0.178 79.368
4567.458 0.179 79.292 0.983 -10.325 0.983 -10.325 0.179 79.292
4592.417 0.181 79.217 0.982 -10.403 0.982 -10.403 0.181 79.217
4617.375 0.182 79.141 0.982 -10.481 0.982 -10.481 0.182 79.141
4642.333 0.183 79.066 0.982 -10.559 0.982 -10.559 0.183 79.066
4667.292 0.185 78.991 0.982 -10.637 0.982 -10.637 0.185 78.991
4692.25 0.186 78.916 0.981 -10.715 0.981 -10.715 0.186 78.916
4717.208 0.187 78.842 0.981 -10.792 0.981 -10.792 0.187 78.842
4742.167 0.189 78.767 0.981 -10.869 0.981 -10.869 0.189 78.767
4767.125 0.19 78.692 0.981 -10.947 0.981 -10.947 0.19 78.692
4792.083 0.191 78.618 0.98 -11.024 0.98 -11.024 0.191 78.618
4817.042 0.193 78.544 0.98 -11.101 0.98 -11.101 0.193 78.544
4842 0.194 78.469 0.98 -11.177 0.98 -11.177 0.194 78.469
4866.958 0.195 78.395 0.98 -11.254 0.98 -11.254 0.195 78.395
4891.917 0.196 78.321 0.979 -11.33 0.979 -11.33 0.196 78.321
4916.875 0.198 78.247 0.979 -11.407 0.979 -11.407 0.198 78.247
4941.833 0.199 78.173 0.979 -11.483 0.979 -11.483 0.199 78.173
4966.792 0.2 78.1 0.979 -11.559 0.979 -11.559 0.2 78.1
4991.75 0.202 78.026 0.978 -11.635 0.978 -11.635 0.202 78.026
5016.708 0.203 77.953 0.978 -11.71 0.978 -11.71 0.203 77.953
5041.667 0.204 77.879 0.978 -11.786 0.978 -11.786 0.204 77.879
5066.625 0.206 77.806 0.977 -11.862 0.977 -11.862 0.206 77.806
5091.583 0.207 77.733 0.977 -11.937 0.977 -11.937 0.207 77.733
5116.542 0.208 77.66 0.977 -12.012 0.977 -12.012 0.208 77.66
5141.5 0.209 77.587 0.977 -12.087 0.977 -12.087 0.209 77.587
5166.458 0.211 77.514 0.976 -12.162 0.976 -12.162 0.211 77.514
5191.417 0.212 77.441 0.976 -12.237 0.976 -12.237 0.212 77.441
5216.375 0.213 77.368 0.976 -12.312 0.976 -12.312 0.213 77.368
5241.333 0.215 77.296 0.976 -12.386 0.976 -12.386 0.215 77.296
5266.292 0.216 77.223 0.975 -12.461 0.975 -12.461 0.216 77.223
5291.25 0.217 77.151 0.975 -12.535 0.975 -12.535 0.217 77.151
5316.208 0.218 77.079 0.975 -12.609 0.975 -12.609 0.218 77.079
5341.167 0.22 77.006 0.974 -12.683 0.974 -12.683 0.22 77.006
5366.125 0.221 76.934 0.974 -12.757 0.974 -12.757 0.221 76.934
5391.083 0.222 76.862 0.974 -12.831 0.974 -12.831 0.222 76.862
5416.042 0.223 76.79 0.974 -12.905 0.974 -12.905 0.223 76.79
5441 0.225 76.719 0.973 -12.978 0.973 -12.978 0.225 76.719
5465.958 0.226 76.647 0.973 -13.052 0.973 -13.052 0.226 76.647
5490.917 0.227 76.575 0.973 -13.125 0.973 -13.125 0.227 76.575
5515.875 0.228 76.504 0.972 -13.199 0.972 -13.199 0.228 76.504
5540.833 0.23 76.432 0.972 -13.272 0.972 -13.272 0.23 76.432
5565.792 0.231 76.361 0.972 -13.345 0.972 -13.345 0.231 76.361
5590.75 0.232 76.29 0.972 -13.418 0.972 -13.418 0.232 76.29
5615.708 0.233 76.219 0.971 -13.49 0.971 -13.49 0.233 76.219
5640.667 0.235 76.147 0.971 -13.563 0.971 -13.563 0.235 76.147
5665.625 0.236 76.076 0.971 -13.636 0.971 -13.636 0.236 76.076
5690.583 0.237 76.006 0.97 -13.708 0.97 -13.708 0.237 76.006
5715.542 0.238 75.935 0.97 -13.78 0.97 -13.78 0.238 75.935
5740.5 0.239 75.864 0.97 -13.853 0.97 -13.853 0.239 75.864
5765.458 0.241 75.793 0.969 -13.925 0.969 -13.925 0.241 75.793
5790.417 0.242 75.723 0.969 -13.997 0.969 -13.997 0.242 75.723
5815.375 0.243 75.652 0.969 -14.069 0.969 -14.069 0.243 75.652
5840.333 0.244 75.582 0.969 -14.141 0.969 -14.141 0.244 75.582
5865.292 0.246 75.512 0.968 -14.212 0.968 -14.212 0.246 75.512
5890.25 0.247 75.442 0.968 -14.284 0.968 -14.284 0.247 75.442
5915.208 0.248 75.372 0.968 -14.356 0.968 -14.356 0.248 75.372
5940.167 0.249 75.302 0.967 -14.427 0.967 -14.427 0.249 75.302
5965.125 0.25 75.232 0.967 -14.498 0.967 -14.498 0.25 75.232
5990.083 0.252 75.162 0.967 -14.57 0.967 -14.57 0.252 75.162
6015.042 0.253 75.092 0.966 -14.641 0.966 -14.641 0.253 75.092
6040 0.254 75.022 0.966 -14.712 0.966 -14.712 0.254 75.022
6064.958 0.255 74.953 0.966 -14.783 0.966 -14.783 0.255 74.953
6089.917 0.256 74.883 0.965 -14.853 0.965 -14.853 0.256 74.883
6114.875 0.258 74.814 0.965 -14.924 0.965 -14.924 0.258 74.814
6139.833 0.259 74.745 0.965 -14.995 0.965 -14.995 0.259 74.745
6164.792 0.26 74.675 0.964 -15.065 0.964 -15.065 0.26 74.675
6189.75 0.261 74.606 0.964 -15.136 0.964 -15.136 0.261 74.606
6214.708 0.262 74.537 0.964 -15.206 0.964 -15.206 0.262 74.537
6239.667 0.263 74.468 0.963 -15.276 0.963 -15.276 0.263 74.468
6264.625 0.265 74.399 0.963 -15.346 0.963 -15.346 0.265 74.399
6289.583 0.266 74.33 0.963 -15.416 0.963 -15.416 0.266 74.33
6314.542 0.267 74.262 0.963 -15.486 0.963 -15.486 0.267 74.262
6339.5 0.268 74.193 0.962 -15.556 0.962 -15.556 0.268 74.193
6364.458 0.269 74.124 0.962 -15.626 0.962 -15.626 0.269 74.124
6389.417 0.271 74.056 0.962 -15.696 0.962 -15.696 0.271 74.056
6414.375 0.272 73.987 0.961 -15.765 0.961 -15.765 0.272 73.987
6439.333 0.273 73.919 0.961 -15.835 0.961 -15.835 0.273 73.919
6464.292 0.274 73.851 0.961 -15.904 0.961 -15.904 0.274 73.851
6489.25 0.275 73.783 0.96 -15.973 0.96 -15.973 0.275 73.783
6514.208 0.276 73.714 0.96 -16.043 0.96 -16.043 0.276 73.714
6539.167 0.278 73.646 0.96 -16.112 0.96 -16.112 0.278 73.646
6564.125 0.279 73.578 0.959 -16.181 0.959 -16.181 0.279 73.578
6589.083 0.28 73.511 0.959 -16.25 0.959 -16.25 0.28 73.511
6614.042 0.281 73.443 0.959 -16.319 0.959 -16.319 0.281 73.443
6639 0.282 73.375 0.958 -16.387 0.958 -16.387 0.282 73.375
6663.958 0.283 73.307 0.958 -16.456 0.958 -16.456 0.283 73.307
6688.917 0.284 73.24 0.958 -16.525 0.958 -16.525 0.284 73.24
6713.875 0.286 73.172 0.957 -16.593 0.957 -16.593 0.286 73.172
6738.833 0.287 73.105 0.957 -16.662 0.957 -16.662 0.287 73.105
6763.792 0.288 73.038 0.957 -16.73 0.957 -16.73 0.288 73.038
6788.75 0.289 72.97 0.956 -16.798 0.956 -16.798 0.289 72.97
6813.708 0.29 72.903 0.956 -16.866 0.956 -16.866 0.29 72.903
6838.667 0.291 72.836 0.955 -16.935 0.955 -16.935 0.291 72.836
6863.625 0.292 72.769 0.955 -17.003 0.955 -17.003 0.292 72.769
6888.583 0.294 72.702 0.955 -17.07 0.955 -17.07 0.294 72.702
6913.542 0.295 72.635 0.954 -17.138 0.954 -17.138 0.295 72.635
6938.5 0.296 72.568 0.954 -17.206 0.954 -17.206 0.296 72.568
6963.458 0.297 72.502 0.954 -17.274 0.954 -17.274 0.297 72.502
6988.417 0.298 72.435 0.953 -17.341 0.953 -17.341 0.298 72.435
7013.375 0.299 72.368 0.953 -17.409 0.953 -17.409 0.299 72.368
7038.333 0.3 72.302 0.953 -17.476 0.953 -17.476 0.3 72.302
7063.292 0.301 72.236 0.952 -17.544 0.952 -17.544 0.301 72.236
7088.25 0.303 72.169 0.952 -17.611 0.952 -17.611 0.303 72.169
7113.208 0.304 72.103 0.952 -17.678 0.952 -17.678 0.304 72.103
7138.167 0.305 72.037 0.951 -17.745 0.951 -17.745 0.305 72.037
7163.125 0.306 71.971 0.951 -17.812 0.951 -17.812 0.306 71.971
7188.083 0.307 71.905 0.951 -17.879 0.951 -17.879 0.307 71.905
7213.042 0.308 71.839 0.95 -17.946 0.95 -17.946 0.308 71.839
7238 0.309 71.773 0.95 -18.013 0.95 -18.013 0.309 71.773
7262.958 0.31 71.707 0.949 -18.079 0.949 -18.079 0.31 71.707
7287.917 0.311 71.641 0.949 -18.146 0.949 -18.146 0.311 71.641
7312.875 0.313 71.575 0.949 -18.212 0.949 -18.212 0.313 71.575
7337.833 0.314 71.51 0.948 -18.279 0.948 -18.279 0.314 71.51
7362.792 0.315 71.444 0.948 -18.345 0.948 -18.345 0.315 71.444
7387.75 0.316 71.379 0.948 -18.412 0.948 -18.412 0.316 71.379
7412.708 0.317 71.313 0.947 -18.478 0.947 -18.478 0.317 71.313
7437.667 0.318 71.248 0.947 -18.544 0.947 -18.544 0.318 71.248
7462.625 0.319 71.183 0.947 -18.61 0.947 -18.61 0.319 71.183
7487.583 0.32 71.118 0.946 -18.676 0.946 -18.676 0.32 71.118
7512.542 0.321 71.052 0.946 -18.742 0.946 -18.742 0.321 71.052
7537.5 0.322 70.987 0.945 -18.808 0.945 -18.808 0.322 70.987
7562.458 0.323 70.922 0.945 -18.873 0.945 -18.873 0.323 70.922
7587.417 0.325 70.857 0.945 -18.939 0.945 -18.939 0.325 70.857
7612.375 0.326 70.793 0.944 -19.005 0.944 -19.005 0.326 70.793
7637.333 0.327 70.728 0.944 -19.07 0.944 -19.07 0.327 70.728
7662.292 0.328 70.663 0.944 -19.136 0.944 -19.136 0.328 70.663
7687.25 0.329 70.599 0.943 -19.201 0.943 -19.201 0.329 70.599
7712.208 0.33 70.534 0.943 -19.266 0.943 -19.266 0.33 70.534
7737.167 0.331 70.47 0.942 -19.331 0.942 -19.331 0.331 70.47
7762.125 0.332 70.405 0.942 -19.396 0.942 -19.396 0.332 70.405
7787.083 0.333 70.341 0.942 -19.462 0.942 -19.462 0.333 70.341
7812.042 0.334 70.277 0.941 -19.526 0.941 -19.526 0.334 70.277
7837 0.335 70.212 0.941 -19.591 0.941 -19.591 0.335 70.212
7861.958 0.336 70.148 0.941 -19.656 0.941 -19.656 0.336 70.148
7886.917 0.337 70.084 0.94 -19.721 0.94 -19.721 0.337 70.084
7911.875 0.339 70.02 0.94 -19.786 0.94 -19.786 0.339 70.02
7936.833 0.34 69.956 0.939 -19.85 0.939 -19.85 0.34 69.956
7961.792 0.341 69.892 0.939 -19.915 0.939 -19.915 0.341 69.892
7986.75 0.342 69.829 0.939 -19.979 0.939 -19.979 0.342 69.829
8011.708 0.343 69.765 0.938 -20.044 0.938 -20.044 0.343 69.765
8036.667 0.344 69.701 0.938 -20.108 0.938 -20.108 0.344 69.701
8061.625 0.345 69.638 0.938 -20.172 0.938 -20.172 0.345 69.638
8086.583 0.346 69.574 0.937 -20.236 0.937 -20.236 0.346 69.574
8111.542 0.347 69.511 0.937 -20.3 0.937 -20.3 0.347 69.511
8136.5 0.348 69.447 0.936 -20.364 0.936 -20.364 0.348 69.447
8161.458 0.349 69.384 0.936 -20.428 0.936 -20.428 0.349 69.384
8186.417 0.35 69.321 0.936 -20.492 0.936 -20.492 0.35 69.321
