# MHZ S MA R 50

50 0.727 -43.341 0.686 46.599 0.686 46.599 0.727 -43.341
74.958 0.575 -54.79 0.817 35.12 0.817 35.12 0.575 -54.79
99.917 0.465 -62.157 0.884 27.723 0.884 27.723 0.465 -62.157
124.875 0.386 -67.149 0.922 22.7 0.922 22.7 0.386 -67.149
149.833 0.327 -70.711 0.944 19.107 0.944 19.107 0.327 -70.711
174.792 0.283 -73.366 0.958 16.42 0.958 16.42 0.283 -73.366
199.75 0.248 -75.415 0.968 14.338 0.968 14.338 0.248 -75.415
224.708 0.219 -77.043 0.975 12.677 0.975 12.677 0.219 -77.043
249.667 0.196 -78.368 0.979 11.318 0.979 11.318 0.196 -78.368
274.625 0.177 -79.465 0.983 10.184 0.983 10.184 0.177 -79.465
299.583 0.16 -80.39 0.986 9.222 0.986 9.222 0.16 -80.39
324.542 0.146 -81.18 0.988 8.393 0.988 8.393 0.146 -81.18
349.5 0.133 -81.863 0.99 7.67 0.99 7.67 0.133 -81.863
374.458 0.122 -82.457 0.991 7.032 0.991 7.032 0.122 -82.457
399.417 0.113 -82.98 0.993 6.464 0.993 6.464 0.113 -82.98
424.375 0.104 -83.443 0.994 5.954 0.994 5.954 0.104 -83.443
449.333 0.096 -83.854 0.994 5.491 0.994 5.491 0.096 -83.854
474.292 0.088 -84.22 0.995 5.07 0.995 5.07 0.088 -84.22
499.25 0.082 -84.548 0.996 4.683 0.996 4.683 0.082 -84.548
524.208 0.075 -84.841 0.996 4.327 0.996 4.327 0.075 -84.841
549.167 0.07 -85.103 0.996 3.996 0.996 3.996 0.07 -85.103
574.125 0.064 -85.336 0.997 3.688 0.997 3.688 0.064 -85.336
599.083 0.059 -85.541 0.997 3.399 0.997 3.399 0.059 -85.541
624.042 0.055 -85.72 0.997 3.128 0.997 3.128 0.055 -85.72
649 0.05 -85.873 0.998 2.872 0.998 2.872 0.05 -85.873
673.958 0.046 -86 0.998 2.63 0.998 2.63 0.046 -86
698.917 0.042 -86.098 0.998 2.4 0.998 2.4 0.042 -86.098
723.875 0.038 -86.166 0.998 2.181 0.998 2.181 0.038 -86.166
748.833 0.034 -86.2 0.998 1.972 0.998 1.972 0.034 -86.2
773.792 0.031 -86.194 0.998 1.772 0.998 1.772 0.031 -86.194
798.75 0.028 -86.139 0.999 1.581 0.999 1.581 0.028 -86.139
823.708 0.024 -86.022 0.999 1.396 0.999 1.396 0.024 -86.022
848.667 0.021 -85.824 0.999 1.218 0.999 1.218 0.021 -85.824
873.625 0.018 -85.512 0.999 1.047 0.999 1.047 0.018 -85.512
898.583 0.015 -85.032 0.999 0.881 0.999 0.881 0.015 -85.032
923.542 0.013 -84.285 0.999 0.72 0.999 0.72 0.013 -84.285
948.5 9.914e-3 -83.072 0.999 0.565 0.999 0.565 9.914e-3 -83.072
973.458 7.293e-3 -80.921 0.999 0.413 0.999 0.413 7.293e-3 -80.921
998.417 4.767e-3 -76.406 0.999 0.266 0.999 0.266 4.767e-3 -76.406
1023.375 2.4e-3 -62.623 0.999 0.122 0.999 0.122 2.4e-3 -62.623
1048.333 1.142e-3 15.759 0.999 -0.018 0.999 -0.018 1.142e-3 15.759
1073.292 2.912e-3 67.676 0.999 -0.155 0.999 -0.155 2.912e-3 67.676
1098.25 5.148e-3 77.388 0.999 -0.288 0.999 -0.288 5.148e-3 77.388
1123.208 7.395e-3 81.035 0.999 -0.419 0.999 -0.419 7.395e-3 81.035
1148.167 9.612e-3 82.888 0.999 -0.547 0.999 -0.547 9.612e-3 82.888
1173.125 0.012 83.981 0.999 -0.673 0.999 -0.673 0.012 83.981
1198.083 0.014 84.682 0.999 -0.796 0.999 -0.796 0.014 84.682
1223.042 0.016 85.156 0.999 -0.917 0.999 -0.917 0.016 85.156
1248 0.018 85.487 0.999 -1.036 0.999 -1.036 0.018 85.487
1272.958 0.02 85.722 0.999 -1.153 0.999 -1.153 0.02 85.722
1297.917 0.022 85.89 0.999 -1.268 0.999 -1.268 0.022 85.89
1322.875 0.024 86.01 0.999 -1.382 0.999 -1.382 0.024 86.01
1347.833 0.026 86.093 0.999 -1.494 0.999 -1.494 0.026 86.093
1372.792 0.028 86.149 0.999 -1.604 0.999 -1.604 0.028 86.149
1397.75 0.03 86.183 0.998 -1.713 0.998 -1.713 0.03 86.183
1422.708 0.032 86.199 0.998 -1.82 0.998 -1.82 0.032 86.199
1447.667 0.034 86.202 0.998 -1.926 0.998 -1.926 0.034 86.202
1472.625 0.035 86.194 0.998 -2.031 0.998 -2.031 0.035 86.194
1497.583 0.037 86.177 0.998 -2.134 0.998 -2.134 0.037 86.177
1522.542 0.039 86.152 0.998 -2.237 0.998 -2.237 0.039 86.152
1547.5 0.041 86.12 0.998 -2.338 0.998 -2.338 0.041 86.12
1572.458 0.043 86.083 0.998 -2.439 0.998 -2.439 0.043 86.083
1597.417 0.044 86.042 0.998 -2.538 0.998 -2.538 0.044 86.042
1622.375 0.046 85.996 0.998 -2.636 0.998 -2.636 0.046 85.996
1647.333 0.048 85.948 0.998 -2.734 0.998 -2.734 0.048 85.948
1672.292 0.049 85.896 0.998 -2.831 0.998 -2.831 0.049 85.896
1697.25 0.051 85.842 0.998 -2.926 0.998 -2.926 0.051 85.842
1722.208 0.053 85.786 0.998 -3.021 0.998 -3.021 0.053 85.786
1747.167 0.054 85.728 0.997 -3.116 0.997 -3.116 0.054 85.728
1772.125 0.056 85.668 0.997 -3.209 0.997 -3.209 0.056 85.668
1797.083 0.058 85.607 0.997 -3.302 0.997 -3.302 0.058 85.607
1822.042 0.059 85.544 0.997 -3.394 0.997 -3.394 0.059 85.544
1847 0.061 85.481 0.997 -3.486 0.997 -3.486 0.061 85.481
1871.958 0.062 85.416 0.997 -3.577 0.997 -3.577 0.062 85.416
1896.917 0.064 85.35 0.997 -3.667 0.997 -3.667 0.064 85.35
1921.875 0.066 85.284 0.997 -3.757 0.997 -3.757 0.066 85.284
1946.833 0.067 85.217 0.997 -3.846 0.997 -3.846 0.067 85.217
1971.792 0.069 85.15 0.997 -3.935 0.997 -3.935 0.069 85.15
1996.75 0.07 85.082 0.996 -4.023 0.996 -4.023 0.07 85.082
2021.708 0.072 85.013 0.996 -4.111 0.996 -4.111 0.072 85.013
2046.667 0.073 84.944 0.996 -4.198 0.996 -4.198 0.073 84.944
2071.625 0.075 84.875 0.996 -4.285 0.996 -4.285 0.075 84.875
2096.583 0.076 84.805 0.996 -4.371 0.996 -4.371 0.076 84.805
2121.542 0.078 84.735 0.996 -4.457 0.996 -4.457 0.078 84.735
2146.5 0.079 84.665 0.996 -4.543 0.996 -4.543 0.079 84.665
2171.458 0.081 84.594 0.996 -4.628 0.996 -4.628 0.081 84.594
2196.417 0.082 84.524 0.996 -4.712 0.996 -4.712 0.082 84.524
2221.375 0.084 84.453 0.995 -4.797 0.995 -4.797 0.084 84.453
2246.333 0.085 84.382 0.995 -4.881 0.995 -4.881 0.085 84.382
2271.292 0.087 84.311 0.995 -4.964 0.995 -4.964 0.087 84.311
2296.25 0.088 84.24 0.995 -5.048 0.995 -5.048 0.088 84.24
2321.208 0.089 84.168 0.995 -5.131 0.995 -5.131 0.089 84.168
2346.167 0.091 84.097 0.995 -5.213 0.995 -5.213 0.091 84.097
2371.125 0.092 84.025 0.995 -5.295 0.995 -5.295 0.092 84.025
2396.083 0.094 83.954 0.995 -5.377 0.995 -5.377 0.094 83.954
2421.042 0.095 83.882 0.994 -5.459 0.994 -5.459 0.095 83.882
2446 0.097 83.81 0.994 -5.541 0.994 -5.541 0.097 83.81
2470.958 0.098 83.739 0.994 -5.622 0.994 -5.622 0.098 83.739
2495.917 0.099 83.667 0.994 -5.703 0.994 -5.703 0.099 83.667
2520.875 0.101 83.595 0.994 -5.783 0.994 -5.783 0.101 83.595
2545.833 0.102 83.523 0.994 -5.864 0.994 -5.864 0.102 83.523
2570.792 0.104 83.452 0.994 -5.944 0.994 -5.944 0.104 83.452
2595.75 0.105 83.38 0.993 -6.024 0.993 -6.024 0.105 83.38
2620.708 0.106 83.308 0.993 -6.103 0.993 -6.103 0.106 83.308
2645.667 0.108 83.236 0.993 -6.183 0.993 -6.183 0.108 83.236
2670.625 0.109 83.164 0.993 -6.262 0.993 -6.262 0.109 83.164
2695.583 0.11 83.093 0.993 -6.341 0.993 -6.341 0.11 83.093
2720.542 0.112 83.021 0.993 -6.419 0.993 -6.419 0.112 83.021
2745.5 0.113 82.949 0.992 -6.498 0.992 -6.498 0.113 82.949
2770.458 0.115 82.878 0.992 -6.576 0.992 -6.576 0.115 82.878
2795.417 0.116 82.806 0.992 -6.654 0.992 -6.654 0.116 82.806
2820.375 0.117 82.734 0.992 -6.732 0.992 -6.732 0.117 82.734
2845.333 0.119 82.663 0.992 -6.81 0.992 -6.81 0.119 82.663
2870.292 0.12 82.591 0.992 -6.887 0.992 -6.887 0.12 82.591
2895.25 0.121 82.52 0.992 -6.965 0.992 -6.965 0.121 82.52
2920.208 0.123 82.448 0.991 -7.042 0.991 -7.042 0.123 82.448
2945.167 0.124 82.377 0.991 -7.119 0.991 -7.119 0.124 82.377
2970.125 0.125 82.305 0.991 -7.196 0.991 -7.196 0.125 82.305
2995.083 0.127 82.234 0.991 -7.272 0.991 -7.272 0.127 82.234
3020.042 0.128 82.163 0.991 -7.349 0.991 -7.349 0.128 82.163
3045 0.129 82.092 0.991 -7.425 0.991 -7.425 0.129 82.092
3069.958 0.131 82.02 0.99 -7.501 0.99 -7.501 0.131 82.02
3094.917 0.132 81.949 0.99 -7.578 0.99 -7.578 0.132 81.949
3119.875 0.133 81.878 0.99 -7.653 0.99 -7.653 0.133 81.878
3144.833 0.134 81.807 0.99 -7.729 0.99 -7.729 0.134 81.807
3169.792 0.136 81.736 0.99 -7.805 0.99 -7.805 0.136 81.736
3194.75 0.137 81.665 0.989 -7.88 0.989 -7.88 0.137 81.665
3219.708 0.138 81.594 0.989 -7.955 0.989 -7.955 0.138 81.594
3244.667 0.14 81.523 0.989 -8.031 0.989 -8.031 0.14 81.523
3269.625 0.141 81.452 0.989 -8.106 0.989 -8.106 0.141 81.452
3294.583 0.142 81.382 0.989 -8.18 0.989 -8.18 0.142 81.382
3319.542 0.144 81.311 0.989 -8.255 0.989 -8.255 0.144 81.311
3344.5 0.145 81.24 0.988 -8.33 0.988 -8.33 0.145 81.24
3369.458 0.146 81.17 0.988 -8.404 0.988 -8.404 0.146 81.17
3394.417 0.147 81.099 0.988 -8.479 0.988 -8.479 0.147 81.099
3419.375 0.149 81.028 0.988 -8.553 0.988 -8.553 0.149 81.028
3444.333 0.15 80.958 0.988 -8.627 0.988 -8.627 0.15 80.958
3469.292 0.151 80.888 0.987 -8.701 0.987 -8.701 0.151 80.888
3494.25 0.153 80.817 0.987 -8.775 0.987 -8.775 0.153 80.817
3519.208 0.154 80.747 0.987 -8.849 0.987 -8.849 0.154 80.747
3544.167 0.155 80.677 0.987 -8.922 0.987 -8.922 0.155 80.677
3569.125 0.156 80.606 0.987 -8.996 0.987 -8.996 0.156 80.606
3594.083 0.158 80.536 0.986 -9.069 0.986 -9.069 0.158 80.536
3619.042 0.159 80.466 0.986 -9.143 0.986 -9.143 0.159 80.466
3644 0.16 80.396 0.986 -9.216 0.986 -9.216 0.16 80.396
3668.958 0.161 80.326 0.986 -9.289 0.986 -9.289 0.161 80.326
3693.917 0.163 80.256 0.986 -9.362 0.986 -9.362 0.163 80.256
3718.875 0.164 80.186 0.985 -9.435 0.985 -9.435 0.164 80.186
3743.833 0.165 80.116 0.985 -9.508 0.985 -9.508 0.165 80.116
3768.792 0.166 80.047 0.985 -9.58 0.985 -9.58 0.166 80.047
3793.75 0.168 79.977 0.985 -9.653 0.985 -9.653 0.168 79.977
3818.708 0.169 79.907 0.985 -9.725 0.985 -9.725 0.169 79.907
3843.667 0.17 79.838 0.984 -9.798 0.984 -9.798 0.17 79.838
3868.625 0.171 79.768 0.984 -9.87 0.984 -9.87 0.171 79.768
3893.583 0.173 79.698 0.984 -9.942 0.984 -9.942 0.173 79.698
3918.542 0.174 79.629 0.984 -10.014 0.984 -10.014 0.174 79.629
3943.5 0.175 79.56 0.983 -10.086 0.983 -10.086 0.175 79.56
3968.458 0.176 79.49 0.983 -10.158 0.983 -10.158 0.176 79.49
3993.417 0.178 79.421 0.983 -10.23 0.983 -10.23 0.178 79.421
4018.375 0.179 79.352 0.983 -10.302 0.983 -10.302 0.179 79.352
4043.333 0.18 79.282 0.983 -10.374 0.983 -10.374 0.18 79.282
4068.292 0.181 79.213 0.982 -10.445 0.982 -10.445 0.181 79.213
4093.25 0.183 79.144 0.982 -10.517 0.982 -10.517 0.183 79.144
4118.208 0.184 79.075 0.982 -10.588 0.982 -10.588 0.184 79.075
4143.167 0.185 79.006 0.982 -10.659 0.982 -10.659 0.185 79.006
4168.125 0.186 78.937 0.981 -10.731 0.981 -10.731 0.186 78.937
4193.083 0.187 78.868 0.981 -10.802 0.981 -10.802 0.187 78.868
4218.042 0.189 78.799 0.981 -10.873 0.981 -10.873 0.189 78.799
4243 0.19 78.731 0.981 -10.944 0.981 -10.944 0.19 78.731
4267.958 0.191 78.662 0.98 -11.015 0.98 -11.015 0.191 78.662
4292.917 0.192 78.593 0.98 -11.085 0.98 -11.085 0.192 78.593
4317.875 0.193 78.524 0.98 -11.156 0.98 -11.156 0.193 78.524
4342.833 0.195 78.456 0.98 -11.227 0.98 -11.227 0.195 78.456
4367.792 0.196 78.387 0.98 -11.297 0.98 -11.297 0.196 78.387
4392.75 0.197 78.319 0.979 -11.368 0.979 -11.368 0.197 78.319
4417.708 0.198 78.25 0.979 -11.438 0.979 -11.438 0.198 78.25
4442.667 0.2 78.182 0.979 -11.509 0.979 -11.509 0.2 78.182
4467.625 0.201 78.114 0.979 -11.579 0.979 -11.579 0.201 78.114
4492.583 0.202 78.045 0.978 -11.649 0.978 -11.649 0.202 78.045
4517.542 0.203 77.977 0.978 -11.719 0.978 -11.719 0.203 77.977
4542.5 0.204 77.909 0.978 -11.789 0.978 -11.789 0.204 77.909
4567.458 0.206 77.841 0.978 -11.859 0.978 -11.859 0.206 77.841
4592.417 0.207 77.773 0.977 -11.929 0.977 -11.929 0.207 77.773
4617.375 0.208 77.705 0.977 -11.999 0.977 -11.999 0.208 77.705
4642.333 0.209 77.637 0.977 -12.069 0.977 -12.069 0.209 77.637
4667.292 0.21 77.569 0.977 -12.138 0.977 -12.138 0.21 77.569
4692.25 0.211 77.501 0.976 -12.208 0.976 -12.208 0.211 77.501
4717.208 0.213 77.433 0.976 -12.278 0.976 -12.278 0.213 77.433
4742.167 0.214 77.365 0.976 -12.347 0.976 -12.347 0.214 77.365
4767.125 0.215 77.298 0.976 -12.416 0.976 -12.416 0.215 77.298
4792.083 0.216 77.23 0.975 -12.486 0.975 -12.486 0.216 77.23
4817.042 0.217 77.162 0.975 -12.555 0.975 -12.555 0.217 77.162
4842 0.219 77.095 0.975 -12.624 0.975 -12.624 0.219 77.095
4866.958 0.22 77.027 0.974 -12.693 0.974 -12.693 0.22 77.027
4891.917 0.221 76.96 0.974 -12.762 0.974 -12.762 0.221 76.96
4916.875 0.222 76.892 0.974 -12.831 0.974 -12.831 0.222 76.892
4941.833 0.223 76.825 0.974 -12.9 0.974 -12.9 0.223 76.825
4966.792 0.224 76.758 0.973 -12.969 0.973 -12.969 0.224 76.758
4991.75 0.226 76.69 0.973 -13.038 0.973 -13.038 0.226 76.69
5016.708 0.227 76.623 0.973 -13.106 0.973 -13.106 0.227 76.623
5041.667 0.228 76.556 0.973 -13.175 0.973 -13.175 0.228 76.556
5066.625 0.229 76.489 0.972 -13.244 0.972 -13.244 0.229 76.489
5091.583 0.23 76.422 0.972 -13.312 0.972 -13.312 0.23 76.422
5116.542 0.231 76.355 0.972 -13.381 0.972 -13.381 0.231 76.355
5141.5 0.233 76.288 0.972 -13.449 0.972 -13.449 0.233 76.288
5166.458 0.234 76.221 0.971 -13.517 0.971 -13.517 0.234 76.221
5191.417 0.235 76.154 0.971 -13.585 0.971 -13.585 0.235 76.154
5216.375 0.236 76.087 0.971 -13.654 0.971 -13.654 0.236 76.087
5241.333 0.237 76.02 0.97 -13.722 0.97 -13.722 0.237 76.02
5266.292 0.238 75.954 0.97 -13.79 0.97 -13.79 0.238 75.954
5291.25 0.24 75.887 0.97 -13.858 0.97 -13.858 0.24 75.887
5316.208 0.241 75.82 0.97 -13.926 0.97 -13.926 0.241 75.82
5341.167 0.242 75.754 0.969 -13.994 0.969 -13.994 0.242 75.754
5366.125 0.243 75.687 0.969 -14.061 0.969 -14.061 0.243 75.687
5391.083 0.244 75.621 0.969 -14.129 0.969 -14.129 0.244 75.621
5416.042 0.245 75.554 0.968 -14.197 0.968 -14.197 0.245 75.554
5441 0.246 75.488 0.968 -14.264 0.968 -14.264 0.246 75.488
5465.958 0.248 75.422 0.968 -14.332 0.968 -14.332 0.248 75.422
5490.917 0.249 75.355 0.968 -14.399 0.968 -14.399 0.249 75.355
5515.875 0.25 75.289 0.967 -14.467 0.967 -14.467 0.25 75.289
5540.833 0.251 75.223 0.967 -14.534 0.967 -14.534 0.251 75.223
5565.792 0.252 75.157 0.967 -14.601 0.967 -14.601 0.252 75.157
5590.75 0.253 75.091 0.966 -14.669 0.966 -14.669 0.253 75.091
5615.708 0.254 75.025 0.966 -14.736 0.966 -14.736 0.254 75.025
5640.667 0.255 74.959 0.966 -14.803 0.966 -14.803 0.255 74.959
5665.625 0.257 74.893 0.965 -14.87 0.965 -14.87 0.257 74.893
5690.583 0.258 74.827 0.965 -14.937 0.965 -14.937 0.258 74.827
5715.542 0.259 74.761 0.965 -15.004 0.965 -15.004 0.259 74.761
5740.5 0.26 74.695 0.965 -15.071 0.965 -15.071 0.26 74.695
5765.458 0.261 74.63 0.964 -15.138 0.964 -15.138 0.261 74.63
5790.417 0.262 74.564 0.964 -15.204 0.964 -15.204 0.262 74.564
5815.375 0.263 74.498 0.964 -15.271 0.964 -15.271 0.263 74.498
5840.333 0.265 74.433 0.963 -15.338 0.963 -15.338 0.265 74.433
5865.292 0.266 74.367 0.963 -15.404 0.963 -15.404 0.266 74.367
5890.25 0.267 74.302 0.963 -15.471 0.963 -15.471 0.267 74.302
5915.208 0.268 74.236 0.962 -15.537 0.962 -15.537 0.268 74.236
5940.167 0.269 74.171 0.962 -15.603 0.962 -15.603 0.269 74.171
5965.125 0.27 74.106 0.962 -15.67 0.962 -15.67 0.27 74.106
5990.083 0.271 74.04 0.961 -15.736 0.961 -15.736 0.271 74.04
6015.042 0.272 73.975 0.961 -15.802 0.961 -15.802 0.272 73.975
6040 0.273 73.91 0.961 -15.868 0.961 -15.868 0.273 73.91
6064.958 0.275 73.845 0.961 -15.934 0.961 -15.934 0.275 73.845
6089.917 0.276 73.78 0.96 -16 0.96 -16 0.276 73.78
6114.875 0.277 73.715 0.96 -16.066 0.96 -16.066 0.277 73.715
6139.833 0.278 73.65 0.96 -16.132 0.96 -16.132 0.278 73.65
6164.792 0.279 73.585 0.959 -16.198 0.959 -16.198 0.279 73.585
6189.75 0.28 73.52 0.959 -16.264 0.959 -16.264 0.28 73.52
6214.708 0.281 73.455 0.959 -16.33 0.959 -16.33 0.281 73.455
6239.667 0.282 73.391 0.958 -16.395 0.958 -16.395 0.282 73.391
6264.625 0.283 73.326 0.958 -16.461 0.958 -16.461 0.283 73.326
6289.583 0.284 73.261 0.958 -16.527 0.958 -16.527 0.284 73.261
6314.542 0.286 73.197 0.957 -16.592 0.957 -16.592 0.286 73.197
6339.5 0.287 73.132 0.957 -16.657 0.957 -16.657 0.287 73.132
6364.458 0.288 73.068 0.957 -16.723 0.957 -16.723 0.288 73.068
6389.417 0.289 73.003 0.956 -16.788 0.956 -16.788 0.289 73.003
6414.375 0.29 72.939 0.956 -16.853 0.956 -16.853 0.29 72.939
6439.333 0.291 72.874 0.956 -16.919 0.956 -16.919 0.291 72.874
6464.292 0.292 72.81 0.955 -16.984 0.955 -16.984 0.292 72.81
6489.25 0.293 72.746 0.955 -17.049 0.955 -17.049 0.293 72.746
6514.208 0.294 72.682 0.955 -17.114 0.955 -17.114 0.294 72.682
6539.167 0.295 72.617 0.954 -17.179 0.954 -17.179 0.295 72.617
6564.125 0.296 72.553 0.954 -17.244 0.954 -17.244 0.296 72.553
6589.083 0.298 72.489 0.954 -17.309 0.954 -17.309 0.298 72.489
6614.042 0.299 72.425 0.953 -17.373 0.953 -17.373 0.299 72.425
6639 0.3 72.361 0.953 -17.438 0.953 -17.438 0.3 72.361
6663.958 0.301 72.297 0.953 -17.503 0.953 -17.503 0.301 72.297
6688.917 0.302 72.234 0.952 -17.568 0.952 -17.568 0.302 72.234
6713.875 0.303 72.17 0.952 -17.632 0.952 -17.632 0.303 72.17
6738.833 0.304 72.106 0.952 -17.697 0.952 -17.697 0.304 72.106
6763.792 0.305 72.042 0.951 -17.761 0.951 -17.761 0.305 72.042
6788.75 0.306 71.979 0.951 -17.825 0.951 -17.825 0.306 71.979
6813.708 0.307 71.915 0.951 -17.89 0.951 -17.89 0.307 71.915
6838.667 0.308 71.852 0.95 -17.954 0.95 -17.954 0.308 71.852
6863.625 0.309 71.788 0.95 -18.018 0.95 -18.018 0.309 71.788
6888.583 0.31 71.725 0.95 -18.082 0.95 -18.082 0.31 71.725
6913.542 0.311 71.661 0.949 -18.147 0.949 -18.147 0.311 71.661
6938.5 0.313 71.598 0.949 -18.211 0.949 -18.211 0.313 71.598
6963.458 0.314 71.535 0.949 -18.275 0.949 -18.275 0.314 71.535
6988.417 0.315 71.471 0.948 -18.339 0.948 -18.339 0.315 71.471
7013.375 0.316 71.408 0.948 -18.402 0.948 -18.402 0.316 71.408
7038.333 0.317 71.345 0.947 -18.466 0.947 -18.466 0.317 71.345
7063.292 0.318 71.282 0.947 -18.53 0.947 -18.53 0.318 71.282
7088.25 0.319 71.219 0.947 -18.594 0.947 -18.594 0.319 71.219
7113.208 0.32 71.156 0.946 -18.657 0.946 -18.657 0.32 71.156
7138.167 0.321 71.093 0.946 -18.721 0.946 -18.721 0.321 71.093
7163.125 0.322 71.03 0.946 -18.784 0.946 -18.784 0.322 71.03
7188.083 0.323 70.968 0.945 -18.848 0.945 -18.848 0.323 70.968
7213.042 0.324 70.905 0.945 -18.911 0.945 -18.911 0.324 70.905
7238 0.325 70.842 0.945 -18.975 0.945 -18.975 0.325 70.842
7262.958 0.326 70.779 0.944 -19.038 0.944 -19.038 0.326 70.779
7287.917 0.327 70.717 0.944 -19.101 0.944 -19.101 0.327 70.717
7312.875 0.328 70.654 0.944 -19.164 0.944 -19.164 0.328 70.654
7337.833 0.329 70.592 0.943 -19.228 0.943 -19.228 0.329 70.592
7362.792 0.33 70.529 0.943 -19.291 0.943 -19.291 0.33 70.529
7387.75 0.331 70.467 0.942 -19.354 0.942 -19.354 0.331 70.467
7412.708 0.332 70.405 0.942 -19.417 0.942 -19.417 0.332 70.405
7437.667 0.333 70.342 0.942 -19.48 0.942 -19.48 0.333 70.342
7462.625 0.335 70.28 0.941 -19.542 0.941 -19.542 0.335 70.28
7487.583 0.336 70.218 0.941 -19.605 0.941 -19.605 0.336 70.218
7512.542 0.337 70.156 0.941 -19.668 0.941 -19.668 0.337 70.156
7537.5 0.338 70.094 0.94 -19.731 0.94 -19.731 0.338 70.094
7562.458 0.339 70.032 0.94 -19.793 0.94 -19.793 0.339 70.032
7587.417 0.34 69.97 0.94 -19.856 0.94 -19.856 0.34 69.97
7612.375 0.341 69.908 0.939 -19.918 0.939 -19.918 0.341 69.908
7637.333 0.342 69.846 0.939 -19.981 0.939 -19.981 0.342 69.846
7662.292 0.343 69.784 0.938 -20.043 0.938 -20.043 0.343 69.784
7687.25 0.344 69.722 0.938 -20.106 0.938 -20.106 0.344 69.722
7712.208 0.345 69.661 0.938 -20.168 0.938 -20.168 0.345 69.661
7737.167 0.346 69.599 0.937 -20.23 0.937 -20.23 0.346 69.599
7762.125 0.347 69.537 0.937 -20.292 0.937 -20.292 0.347 69.537
7787.083 0.348 69.476 0.937 -20.354 0.937 -20.354 0.348 69.476
7812.042 0.349 69.414 0.936 -20.416 0.936 -20.416 0.349 69.414
7837 0.35 69.353 0.936 -20.478 0.936 -20.478 0.35 69.353
7861.958 0.351 69.292 0.935 -20.54 0.935 -20.54 0.351 69.292
7886.917 0.352 69.23 0.935 -20.602 0.935 -20.602 0.352 69.23
7911.875 0.353 69.169 0.935 -20.664 0.935 -20.664 0.353 69.169
7936.833 0.354 69.108 0.934 -20.726 0.934 -20.726 0.354 69.108
7961.792 0.355 69.047 0.934 -20.788 0.934 -20.788 0.355 69.047
7986.75 0.356 68.985 0.933 -20.849 0.933 -20.849 0.356 68.985
8011.708 0.357 68.924 0.933 -20.911 0.933 -20.911 0.357 68.924
8036.667 0.358 68.863 0.933 -20.972 0.933 -20.972 0.358 68.863
8061.625 0.359 68.802 0.932 -21.034 0.932 -21.034 0.359 68.802
8086.583 0.36 68.742 0.932 -21.095 0.932 -21.095 0.36 68.742
8111.542 0.361 68.681 0.932 -21.157 0.932 -21.157 0.361 68.681
8136.5 0.362 68.62 0.931 -21.218 0.931 -21.218 0.362 68.62
8161.458 0.363 68.559 0.931 -21.279 0.931 -21.279 0.363 68.559
8186.417 0.364 68.498 0.93 -21.34 0.93 -21.34 0.364 68.498
