# MHZ S MA R 50

50 0.995 -5.742 0.1 84.249 0.1 84.249 0.995 -5.742
74.958 0.989 -8.575 0.149 81.411 0.149 81.411 0.989 -8.575
99.917 0.98 -11.369 0.197 78.612 0.197 78.612 0.98 -11.369
124.875 0.97 -14.114 0.244 75.864 0.244 75.864 0.97 -14.114
149.833 0.957 -16.798 0.289 73.175 0.289 73.175 0.957 -16.798
174.792 0.943 -19.414 0.332 70.554 0.332 70.554 0.943 -19.414
199.75 0.927 -21.954 0.374 68.009 0.374 68.009 0.927 -21.954
224.708 0.91 -24.413 0.413 65.546 0.413 65.546 0.91 -24.413
249.667 0.892 -26.787 0.451 63.167 0.451 63.167 0.892 -26.787
274.625 0.874 -29.074 0.486 60.876 0.486 60.876 0.874 -29.074
299.583 0.854 -31.271 0.519 58.674 0.519 58.674 0.854 -31.271
324.542 0.834 -33.379 0.55 56.561 0.55 56.561 0.834 -33.379
349.5 0.814 -35.398 0.579 54.537 0.579 54.537 0.814 -35.398
374.458 0.794 -37.33 0.606 52.6 0.606 52.6 0.794 -37.33
399.417 0.774 -39.177 0.632 50.748 0.632 50.748 0.774 -39.177
424.375 0.754 -40.941 0.655 48.98 0.655 48.98 0.754 -40.941
449.333 0.735 -42.625 0.677 47.291 0.677 47.291 0.735 -42.625
474.292 0.715 -44.233 0.698 45.679 0.698 45.679 0.715 -44.233
499.25 0.696 -45.766 0.717 44.14 0.717 44.14 0.696 -45.766
524.208 0.678 -47.23 0.734 42.672 0.734 42.672 0.678 -47.23
549.167 0.66 -48.626 0.75 41.27 0.75 41.27 0.66 -48.626
574.125 0.642 -49.959 0.766 39.932 0.766 39.932 0.642 -49.959
599.083 0.625 -51.232 0.78 38.654 0.78 38.654 0.625 -51.232
624.042 0.608 -52.448 0.793 37.433 0.793 37.433 0.608 -52.448
649 0.592 -53.61 0.805 36.266 0.805 36.266 0.592 -53.61
673.958 0.576 -54.721 0.816 35.15 0.816 35.15 0.576 -54.721
698.917 0.56 -55.784 0.827 34.082 0.827 34.082 0.56 -55.784
723.875 0.546 -56.801 0.837 33.06 0.837 33.06 0.546 -56.801
748.833 0.531 -57.775 0.846 32.08 0.846 32.08 0.531 -57.775
773.792 0.517 -58.709 0.855 31.141 0.855 31.141 0.517 -58.709
798.75 0.504 -59.604 0.863 30.24 0.863 30.24 0.504 -59.604
823.708 0.491 -60.463 0.87 29.375 0.87 29.375 0.491 -60.463
848.667 0.478 -61.288 0.877 28.545 0.877 28.545 0.478 -61.288
873.625 0.466 -62.081 0.884 27.746 0.884 27.746 0.466 -62.081
898.583 0.454 -62.843 0.89 26.978 0.89 26.978 0.454 -62.843
923.542 0.442 -63.577 0.896 26.238 0.896 26.238 0.442 -63.577
948.5 0.431 -64.283 0.901 25.526 0.901 25.526 0.431 -64.283
973.458 0.42 -64.964 0.906 24.84 0.906 24.84 0.42 -64.964
998.417 0.41 -65.62 0.911 24.177 0.911 24.177 0.41 -65.62
1023.375 0.399 -66.253 0.915 23.538 0.915 23.538 0.399 -66.253
1048.333 0.389 -66.864 0.92 22.921 0.92 22.921 0.389 -66.864
1073.292 0.38 -67.455 0.924 22.324 0.924 22.324 0.38 -67.455
1098.25 0.371 -68.025 0.927 21.747 0.927 21.747 0.371 -68.025
1123.208 0.361 -68.577 0.931 21.188 0.931 21.188 0.361 -68.577
1148.167 0.353 -69.112 0.934 20.647 0.934 20.647 0.353 -69.112
1173.125 0.344 -69.629 0.937 20.123 0.937 20.123 0.344 -69.629
1198.083 0.336 -70.13 0.94 19.615 0.94 19.615 0.336 -70.13
1223.042 0.328 -70.616 0.943 19.122 0.943 19.122 0.328 -70.616
1248 0.32 -71.087 0.946 18.643 0.946 18.643 0.32 -71.087
1272.958 0.312 -71.545 0.949 18.178 0.949 18.178 0.312 -71.545
1297.917 0.304 -71.989 0.951 17.727 0.951 17.727 0.304 -71.989
1322.875 0.297 -72.42 0.953 17.287 0.953 17.287 0.297 -72.42
1347.833 0.29 -72.84 0.955 16.86 0.955 16.86 0.29 -72.84
1372.792 0.283 -73.248 0.958 16.444 0.958 16.444 0.283 -73.248
1397.75 0.276 -73.644 0.96 16.039 0.96 16.039 0.276 -73.644
1422.708 0.27 -74.031 0.961 15.644 0.961 15.644 0.27 -74.031
1447.667 0.263 -74.407 0.963 15.26 0.963 15.26 0.263 -74.407
1472.625 0.257 -74.773 0.965 14.885 0.965 14.885 0.257 -74.773
1497.583 0.251 -75.13 0.967 14.518 0.967 14.518 0.251 -75.13
1522.542 0.245 -75.478 0.968 14.161 0.968 14.161 0.245 -75.478
1547.5 0.239 -75.818 0.97 13.812 0.97 13.812 0.239 -75.818
1572.458 0.233 -76.149 0.971 13.471 0.971 13.471 0.233 -76.149
1597.417 0.227 -76.473 0.972 13.137 0.972 13.137 0.227 -76.473
1622.375 0.222 -76.789 0.974 12.811 0.974 12.811 0.222 -76.789
1647.333 0.216 -77.097 0.975 12.492 0.975 12.492 0.216 -77.097
1672.292 0.211 -77.398 0.976 12.18 0.976 12.18 0.211 -77.398
1697.25 0.206 -77.693 0.977 11.875 0.977 11.875 0.206 -77.693
1722.208 0.201 -77.981 0.978 11.575 0.978 11.575 0.201 -77.981
1747.167 0.196 -78.262 0.979 11.282 0.979 11.282 0.196 -78.262
1772.125 0.191 -78.537 0.98 10.994 0.98 10.994 0.191 -78.537
1797.083 0.186 -78.807 0.981 10.712 0.981 10.712 0.186 -78.807
1822.042 0.181 -79.07 0.982 10.436 0.982 10.436 0.181 -79.07
1847 0.176 -79.328 0.983 10.164 0.983 10.164 0.176 -79.328
1871.958 0.172 -79.581 0.984 9.898 0.984 9.898 0.172 -79.581
1896.917 0.167 -79.828 0.984 9.636 0.984 9.636 0.167 -79.828
1921.875 0.163 -80.07 0.985 9.38 0.985 9.38 0.163 -80.07
1946.833 0.159 -80.307 0.986 9.127 0.986 9.127 0.159 -80.307
1971.792 0.154 -80.539 0.986 8.879 0.986 8.879 0.154 -80.539
1996.75 0.15 -80.766 0.987 8.635 0.987 8.635 0.15 -80.766
2021.708 0.146 -80.988 0.988 8.395 0.988 8.395 0.146 -80.988
2046.667 0.142 -81.206 0.988 8.159 0.988 8.159 0.142 -81.206
2071.625 0.138 -81.42 0.989 7.927 0.989 7.927 0.138 -81.42
2096.583 0.134 -81.628 0.989 7.699 0.989 7.699 0.134 -81.628
2121.542 0.13 -81.833 0.99 7.474 0.99 7.474 0.13 -81.833
2146.5 0.126 -82.033 0.99 7.252 0.99 7.252 0.126 -82.033
2171.458 0.122 -82.229 0.991 7.034 0.991 7.034 0.122 -82.229
2196.417 0.119 -82.421 0.991 6.819 0.991 6.819 0.119 -82.421
2221.375 0.115 -82.608 0.992 6.607 0.992 6.607 0.115 -82.608
2246.333 0.111 -82.791 0.992 6.398 0.992 6.398 0.111 -82.791
2271.292 0.108 -82.97 0.993 6.192 0.993 6.192 0.108 -82.97
2296.25 0.104 -83.144 0.993 5.989 0.993 5.989 0.104 -83.144
2321.208 0.101 -83.314 0.993 5.788 0.993 5.788 0.101 -83.314
2346.167 0.097 -83.48 0.994 5.59 0.994 5.59 0.097 -83.48
2371.125 0.094 -83.642 0.994 5.395 0.994 5.395 0.094 -83.642
2396.083 0.091 -83.798 0.994 5.203 0.994 5.203 0.091 -83.798
2421.042 0.087 -83.951 0.995 5.012 0.995 5.012 0.087 -83.951
2446 0.084 -84.098 0.995 4.824 0.995 4.824 0.084 -84.098
2470.958 0.081 -84.24 0.995 4.639 0.995 4.639 0.081 -84.24
2495.917 0.078 -84.377 0.995 4.456 0.995 4.456 0.078 -84.377
2520.875 0.075 -84.509 0.996 4.274 0.996 4.274 0.075 -84.509
2545.833 0.071 -84.634 0.996 4.095 0.996 4.095 0.071 -84.634
2570.792 0.068 -84.754 0.996 3.918 0.996 3.918 0.068 -84.754
2595.75 0.065 -84.866 0.996 3.743 0.996 3.743 0.065 -84.866
2620.708 0.062 -84.972 0.996 3.57 0.996 3.57 0.062 -84.972
2645.667 0.059 -85.07 0.997 3.399 0.997 3.399 0.059 -85.07
2670.625 0.056 -85.158 0.997 3.23 0.997 3.23 0.056 -85.158
2695.583 0.053 -85.238 0.997 3.063 0.997 3.063 0.053 -85.238
2720.542 0.051 -85.306 0.997 2.897 0.997 2.897 0.051 -85.306
2745.5 0.048 -85.362 0.997 2.733 0.997 2.733 0.048 -85.362
2770.458 0.045 -85.404 0.997 2.57 0.997 2.57 0.045 -85.404
2795.417 0.042 -85.43 0.998 2.41 0.998 2.41 0.042 -85.43
2820.375 0.039 -85.436 0.998 2.251 0.998 2.251 0.039 -85.436
2845.333 0.037 -85.419 0.998 2.093 0.998 2.093 0.037 -85.419
2870.292 0.034 -85.375 0.998 1.937 0.998 1.937 0.034 -85.375
2895.25 0.031 -85.297 0.998 1.782 0.998 1.782 0.031 -85.297
2920.208 0.028 -85.175 0.998 1.629 0.998 1.629 0.028 -85.175
2945.167 0.026 -84.999 0.998 1.477 0.998 1.477 0.026 -84.999
2970.125 0.023 -84.751 0.998 1.327 0.998 1.327 0.023 -84.751
2995.083 0.021 -84.406 0.998 1.178 0.998 1.178 0.021 -84.406
3020.042 0.018 -83.923 0.998 1.03 0.998 1.03 0.018 -83.923
3045 0.015 -83.237 0.998 0.883 0.998 0.883 0.015 -83.237
3069.958 0.013 -82.236 0.998 0.738 0.998 0.738 0.013 -82.236
3094.917 0.01 -80.699 0.998 0.594 0.998 0.594 0.01 -80.699
3119.875 8.033e-3 -78.149 0.998 0.451 0.998 0.451 8.033e-3 -78.149
3144.833 5.63e-3 -73.309 0.998 0.309 0.998 0.309 5.63e-3 -73.309
3169.792 3.348e-3 -61.521 0.998 0.169 0.998 0.169 3.348e-3 -61.521
3194.75 1.669e-3 -17.891 0.998 0.029 0.998 0.029 1.669e-3 -17.891
3219.708 2.477e-3 50.031 0.998 -0.109 0.998 -0.109 2.477e-3 50.031
3244.667 4.582e-3 69.48 0.998 -0.246 0.998 -0.246 4.582e-3 69.48
3269.625 6.863e-3 76.241 0.998 -0.383 0.998 -0.383 6.863e-3 76.241
3294.583 9.176e-3 79.518 0.998 -0.518 0.998 -0.518 9.176e-3 79.518
3319.542 0.011 81.406 0.998 -0.652 0.998 -0.652 0.011 81.406
3344.5 0.014 82.607 0.998 -0.785 0.998 -0.785 0.014 82.607
3369.458 0.016 83.421 0.998 -0.918 0.998 -0.918 0.016 83.421
3394.417 0.018 83.995 0.998 -1.049 0.998 -1.049 0.018 83.995
3419.375 0.021 84.411 0.998 -1.18 0.998 -1.18 0.021 84.411
3444.333 0.023 84.716 0.998 -1.309 0.998 -1.309 0.023 84.716
3469.292 0.025 84.943 0.998 -1.438 0.998 -1.438 0.025 84.943
3494.25 0.027 85.11 0.998 -1.566 0.998 -1.566 0.027 85.11
3519.208 0.03 85.232 0.998 -1.693 0.998 -1.693 0.03 85.232
3544.167 0.032 85.319 0.998 -1.819 0.998 -1.819 0.032 85.319
3569.125 0.034 85.378 0.998 -1.944 0.998 -1.944 0.034 85.378
3594.083 0.036 85.414 0.998 -2.069 0.998 -2.069 0.036 85.414
3619.042 0.038 85.433 0.998 -2.192 0.998 -2.192 0.038 85.433
3644 0.04 85.436 0.998 -2.315 0.998 -2.315 0.04 85.436
3668.958 0.043 85.426 0.998 -2.438 0.998 -2.438 0.043 85.426
3693.917 0.045 85.406 0.997 -2.559 0.997 -2.559 0.045 85.406
3718.875 0.047 85.377 0.997 -2.68 0.997 -2.68 0.047 85.377
3743.833 0.049 85.341 0.997 -2.8 0.997 -2.8 0.049 85.341
3768.792 0.051 85.297 0.997 -2.919 0.997 -2.919 0.051 85.297
3793.75 0.053 85.248 0.997 -3.038 0.997 -3.038 0.053 85.248
3818.708 0.055 85.194 0.997 -3.156 0.997 -3.156 0.055 85.194
3843.667 0.057 85.136 0.997 -3.273 0.997 -3.273 0.057 85.136
3868.625 0.059 85.074 0.997 -3.39 0.997 -3.39 0.059 85.074
3893.583 0.061 85.009 0.997 -3.506 0.997 -3.506 0.061 85.009
3918.542 0.063 84.941 0.996 -3.622 0.996 -3.622 0.063 84.941
3943.5 0.065 84.871 0.996 -3.736 0.996 -3.736 0.065 84.871
3968.458 0.067 84.798 0.996 -3.851 0.996 -3.851 0.067 84.798
3993.417 0.069 84.723 0.996 -3.964 0.996 -3.964 0.069 84.723
4018.375 0.071 84.647 0.996 -4.077 0.996 -4.077 0.071 84.647
4043.333 0.073 84.569 0.996 -4.19 0.996 -4.19 0.073 84.569
4068.292 0.075 84.489 0.996 -4.302 0.996 -4.302 0.075 84.489
4093.25 0.077 84.408 0.995 -4.413 0.995 -4.413 0.077 84.408
4118.208 0.079 84.326 0.995 -4.524 0.995 -4.524 0.079 84.326
4143.167 0.081 84.244 0.995 -4.634 0.995 -4.634 0.081 84.244
4168.125 0.083 84.16 0.995 -4.744 0.995 -4.744 0.083 84.16
4193.083 0.085 84.076 0.995 -4.853 0.995 -4.853 0.085 84.076
4218.042 0.087 83.99 0.995 -4.962 0.995 -4.962 0.087 83.99
4243 0.088 83.905 0.995 -5.07 0.995 -5.07 0.088 83.905
4267.958 0.09 83.819 0.994 -5.178 0.994 -5.178 0.09 83.819
4292.917 0.092 83.732 0.994 -5.285 0.994 -5.285 0.092 83.732
4317.875 0.094 83.645 0.994 -5.392 0.994 -5.392 0.094 83.645
4342.833 0.096 83.557 0.994 -5.498 0.994 -5.498 0.096 83.557
4367.792 0.098 83.469 0.994 -5.604 0.994 -5.604 0.098 83.469
4392.75 0.099 83.381 0.993 -5.709 0.993 -5.709 0.099 83.381
4417.708 0.101 83.293 0.993 -5.814 0.993 -5.814 0.101 83.293
4442.667 0.103 83.204 0.993 -5.918 0.993 -5.918 0.103 83.204
4467.625 0.105 83.116 0.993 -6.022 0.993 -6.022 0.105 83.116
4492.583 0.107 83.027 0.993 -6.126 0.993 -6.126 0.107 83.027
4517.542 0.109 82.938 0.993 -6.229 0.993 -6.229 0.109 82.938
4542.5 0.11 82.849 0.992 -6.332 0.992 -6.332 0.11 82.849
4567.458 0.112 82.759 0.992 -6.434 0.992 -6.434 0.112 82.759
4592.417 0.114 82.67 0.992 -6.536 0.992 -6.536 0.114 82.67
4617.375 0.116 82.581 0.992 -6.637 0.992 -6.637 0.116 82.581
4642.333 0.117 82.492 0.992 -6.738 0.992 -6.738 0.117 82.492
4667.292 0.119 82.403 0.991 -6.839 0.991 -6.839 0.119 82.403
4692.25 0.121 82.313 0.991 -6.939 0.991 -6.939 0.121 82.313
4717.208 0.123 82.224 0.991 -7.039 0.991 -7.039 0.123 82.224
4742.167 0.124 82.135 0.991 -7.139 0.991 -7.139 0.124 82.135
4767.125 0.126 82.046 0.99 -7.238 0.99 -7.238 0.126 82.046
4792.083 0.128 81.957 0.99 -7.337 0.99 -7.337 0.128 81.957
4817.042 0.129 81.868 0.99 -7.435 0.99 -7.435 0.129 81.868
4842 0.131 81.779 0.99 -7.533 0.99 -7.533 0.131 81.779
4866.958 0.133 81.69 0.99 -7.631 0.99 -7.631 0.133 81.69
4891.917 0.134 81.601 0.989 -7.728 0.989 -7.728 0.134 81.601
4916.875 0.136 81.513 0.989 -7.825 0.989 -7.825 0.136 81.513
4941.833 0.138 81.424 0.989 -7.922 0.989 -7.922 0.138 81.424
4966.792 0.14 81.336 0.989 -8.019 0.989 -8.019 0.14 81.336
4991.75 0.141 81.247 0.988 -8.115 0.988 -8.115 0.141 81.247
5016.708 0.143 81.159 0.988 -8.21 0.988 -8.21 0.143 81.159
5041.667 0.144 81.071 0.988 -8.306 0.988 -8.306 0.144 81.071
5066.625 0.146 80.983 0.988 -8.401 0.988 -8.401 0.146 80.983
5091.583 0.148 80.895 0.987 -8.496 0.987 -8.496 0.148 80.895
5116.542 0.149 80.808 0.987 -8.59 0.987 -8.59 0.149 80.808
5141.5 0.151 80.72 0.987 -8.684 0.987 -8.684 0.151 80.72
5166.458 0.153 80.633 0.987 -8.778 0.987 -8.778 0.153 80.633
5191.417 0.154 80.545 0.986 -8.872 0.986 -8.872 0.154 80.545
5216.375 0.156 80.458 0.986 -8.965 0.986 -8.965 0.156 80.458
5241.333 0.157 80.371 0.986 -9.058 0.986 -9.058 0.157 80.371
5266.292 0.159 80.285 0.986 -9.151 0.986 -9.151 0.159 80.285
5291.25 0.161 80.198 0.985 -9.243 0.985 -9.243 0.161 80.198
5316.208 0.162 80.111 0.985 -9.335 0.985 -9.335 0.162 80.111
5341.167 0.164 80.025 0.985 -9.427 0.985 -9.427 0.164 80.025
5366.125 0.165 79.939 0.985 -9.519 0.985 -9.519 0.165 79.939
5391.083 0.167 79.853 0.984 -9.61 0.984 -9.61 0.167 79.853
5416.042 0.169 79.767 0.984 -9.701 0.984 -9.701 0.169 79.767
5441 0.17 79.681 0.984 -9.792 0.984 -9.792 0.17 79.681
5465.958 0.172 79.596 0.984 -9.882 0.984 -9.882 0.172 79.596
5490.917 0.173 79.51 0.983 -9.972 0.983 -9.972 0.173 79.51
5515.875 0.175 79.425 0.983 -10.062 0.983 -10.062 0.175 79.425
5540.833 0.176 79.34 0.983 -10.152 0.983 -10.152 0.176 79.34
5565.792 0.178 79.255 0.983 -10.242 0.983 -10.242 0.178 79.255
5590.75 0.179 79.17 0.982 -10.331 0.982 -10.331 0.179 79.17
5615.708 0.181 79.085 0.982 -10.42 0.982 -10.42 0.181 79.085
5640.667 0.182 79.001 0.982 -10.509 0.982 -10.509 0.182 79.001
5665.625 0.184 78.917 0.981 -10.597 0.981 -10.597 0.184 78.917
5690.583 0.185 78.833 0.981 -10.685 0.981 -10.685 0.185 78.833
5715.542 0.187 78.749 0.981 -10.773 0.981 -10.773 0.187 78.749
5740.5 0.188 78.665 0.981 -10.861 0.981 -10.861 0.188 78.665
5765.458 0.19 78.581 0.98 -10.949 0.98 -10.949 0.19 78.581
5790.417 0.191 78.498 0.98 -11.036 0.98 -11.036 0.191 78.498
5815.375 0.193 78.414 0.98 -11.123 0.98 -11.123 0.193 78.414
5840.333 0.194 78.331 0.979 -11.21 0.979 -11.21 0.194 78.331
5865.292 0.196 78.248 0.979 -11.297 0.979 -11.297 0.196 78.248
5890.25 0.197 78.165 0.979 -11.383 0.979 -11.383 0.197 78.165
5915.208 0.199 78.082 0.978 -11.469 0.978 -11.469 0.199 78.082
5940.167 0.2 78 0.978 -11.555 0.978 -11.555 0.2 78
5965.125 0.202 77.917 0.978 -11.641 0.978 -11.641 0.202 77.917
5990.083 0.203 77.835 0.978 -11.726 0.978 -11.726 0.203 77.835
6015.042 0.205 77.753 0.977 -11.812 0.977 -11.812 0.205 77.753
6040 0.206 77.671 0.977 -11.897 0.977 -11.897 0.206 77.671
6064.958 0.208 77.589 0.977 -11.982 0.977 -11.982 0.208 77.589
6089.917 0.209 77.508 0.976 -12.067 0.976 -12.067 0.209 77.508
6114.875 0.21 77.426 0.976 -12.151 0.976 -12.151 0.21 77.426
6139.833 0.212 77.345 0.976 -12.235 0.976 -12.235 0.212 77.345
6164.792 0.213 77.264 0.975 -12.32 0.975 -12.32 0.213 77.264
6189.75 0.215 77.183 0.975 -12.403 0.975 -12.403 0.215 77.183
6214.708 0.216 77.102 0.975 -12.487 0.975 -12.487 0.216 77.102
6239.667 0.218 77.021 0.974 -12.571 0.974 -12.571 0.218 77.021
6264.625 0.219 76.941 0.974 -12.654 0.974 -12.654 0.219 76.941
6289.583 0.22 76.86 0.974 -12.737 0.974 -12.737 0.22 76.86
6314.542 0.222 76.78 0.974 -12.82 0.974 -12.82 0.222 76.78
6339.5 0.223 76.7 0.973 -12.903 0.973 -12.903 0.223 76.7
6364.458 0.225 76.62 0.973 -12.986 0.973 -12.986 0.225 76.62
6389.417 0.226 76.54 0.973 -13.068 0.973 -13.068 0.226 76.54
6414.375 0.228 76.46 0.972 -13.15 0.972 -13.15 0.228 76.46
6439.333 0.229 76.381 0.972 -13.232 0.972 -13.232 0.229 76.381
6464.292 0.23 76.302 0.972 -13.314 0.972 -13.314 0.23 76.302
6489.25 0.232 76.222 0.971 -13.396 0.971 -13.396 0.232 76.222
6514.208 0.233 76.143 0.971 -13.477 0.971 -13.477 0.233 76.143
6539.167 0.234 76.064 0.971 -13.559 0.971 -13.559 0.234 76.064
6564.125 0.236 75.985 0.97 -13.64 0.97 -13.64 0.236 75.985
6589.083 0.237 75.907 0.97 -13.721 0.97 -13.721 0.237 75.907
6614.042 0.239 75.828 0.97 -13.801 0.97 -13.801 0.239 75.828
6639 0.24 75.75 0.969 -13.882 0.969 -13.882 0.24 75.75
6663.958 0.241 75.672 0.969 -13.962 0.969 -13.962 0.241 75.672
6688.917 0.243 75.594 0.969 -14.043 0.969 -14.043 0.243 75.594
6713.875 0.244 75.516 0.968 -14.123 0.968 -14.123 0.244 75.516
6738.833 0.245 75.438 0.968 -14.203 0.968 -14.203 0.245 75.438
6763.792 0.247 75.36 0.968 -14.283 0.968 -14.283 0.247 75.36
6788.75 0.248 75.282 0.967 -14.362 0.967 -14.362 0.248 75.282
6813.708 0.249 75.205 0.967 -14.442 0.967 -14.442 0.249 75.205
6838.667 0.251 75.128 0.967 -14.521 0.967 -14.521 0.251 75.128
6863.625 0.252 75.051 0.966 -14.6 0.966 -14.6 0.252 75.051
6888.583 0.253 74.974 0.966 -14.679 0.966 -14.679 0.253 74.974
6913.542 0.255 74.897 0.965 -14.758 0.965 -14.758 0.255 74.897
6938.5 0.256 74.82 0.965 -14.837 0.965 -14.837 0.256 74.82
6963.458 0.257 74.743 0.965 -14.915 0.965 -14.915 0.257 74.743
6988.417 0.259 74.667 0.964 -14.993 0.964 -14.993 0.259 74.667
7013.375 0.26 74.591 0.964 -15.072 0.964 -15.072 0.26 74.591
7038.333 0.261 74.514 0.964 -15.15 0.964 -15.15 0.261 74.514
7063.292 0.263 74.438 0.963 -15.228 0.963 -15.228 0.263 74.438
7088.25 0.264 74.362 0.963 -15.305 0.963 -15.305 0.264 74.362
7113.208 0.265 74.286 0.963 -15.383 0.963 -15.383 0.265 74.286
7138.167 0.267 74.211 0.962 -15.46 0.962 -15.46 0.267 74.211
7163.125 0.268 74.135 0.962 -15.538 0.962 -15.538 0.268 74.135
7188.083 0.269 74.06 0.962 -15.615 0.962 -15.615 0.269 74.06
7213.042 0.27 73.984 0.961 -15.692 0.961 -15.692 0.27 73.984
7238 0.272 73.909 0.961 -15.769 0.961 -15.769 0.272 73.909
7262.958 0.273 73.834 0.96 -15.845 0.96 -15.845 0.273 73.834
7287.917 0.274 73.759 0.96 -15.922 0.96 -15.922 0.274 73.759
7312.875 0.276 73.684 0.96 -15.998 0.96 -15.998 0.276 73.684
7337.833 0.277 73.61 0.959 -16.074 0.959 -16.074 0.277 73.61
7362.792 0.278 73.535 0.959 -16.151 0.959 -16.151 0.278 73.535
7387.75 0.279 73.461 0.959 -16.227 0.959 -16.227 0.279 73.461
7412.708 0.281 73.386 0.958 -16.302 0.958 -16.302 0.281 73.386
7437.667 0.282 73.312 0.958 -16.378 0.958 -16.378 0.282 73.312
7462.625 0.283 73.238 0.958 -16.454 0.958 -16.454 0.283 73.238
7487.583 0.285 73.164 0.957 -16.529 0.957 -16.529 0.285 73.164
7512.542 0.286 73.09 0.957 -16.605 0.957 -16.605 0.286 73.09
7537.5 0.287 73.017 0.956 -16.68 0.956 -16.68 0.287 73.017
7562.458 0.288 72.943 0.956 -16.755 0.956 -16.755 0.288 72.943
7587.417 0.29 72.87 0.956 -16.83 0.956 -16.83 0.29 72.87
7612.375 0.291 72.796 0.955 -16.904 0.955 -16.904 0.291 72.796
7637.333 0.292 72.723 0.955 -16.979 0.955 -16.979 0.292 72.723
7662.292 0.293 72.65 0.955 -17.054 0.955 -17.054 0.293 72.65
7687.25 0.295 72.577 0.954 -17.128 0.954 -17.128 0.295 72.577
7712.208 0.296 72.504 0.954 -17.202 0.954 -17.202 0.296 72.504
7737.167 0.297 72.431 0.953 -17.276 0.953 -17.276 0.297 72.431
7762.125 0.298 72.359 0.953 -17.35 0.953 -17.35 0.298 72.359
7787.083 0.299 72.286 0.953 -17.424 0.953 -17.424 0.299 72.286
7812.042 0.301 72.214 0.952 -17.498 0.952 -17.498 0.301 72.214
7837 0.302 72.141 0.952 -17.571 0.952 -17.571 0.302 72.141
7861.958 0.303 72.069 0.951 -17.645 0.951 -17.645 0.303 72.069
7886.917 0.304 71.997 0.951 -17.718 0.951 -17.718 0.304 71.997
7911.875 0.306 71.925 0.951 -17.791 0.951 -17.791 0.306 71.925
7936.833 0.307 71.853 0.95 -17.864 0.95 -17.864 0.307 71.853
7961.792 0.308 71.781 0.95 -17.937 0.95 -17.937 0.308 71.781
7986.75 0.309 71.71 0.949 -18.01 0.949 -18.01 0.309 71.71
8011.708 0.31 71.638 0.949 -18.083 0.949 -18.083 0.31 71.638
8036.667 0.312 71.567 0.949 -18.156 0.949 -18.156 0.312 71.567
8061.625 0.313 71.496 0.948 -18.228 0.948 -18.228 0.313 71.496
8086.583 0.314 71.424 0.948 -18.3 0.948 -18.3 0.314 71.424
8111.542 0.315 71.353 0.948 -18.373 0.948 -18.373 0.315 71.353
8136.5 0.316 71.282 0.947 -18.445 0.947 -18.445 0.316 71.282
8161.458 0.318 71.212 0.947 -18.517 0.947 -18.517 0.318 71.212
8186.417 0.319 71.141 0.946 -18.589 0.946 -18.589 0.319 71.141
8211.375 0.32 71.07 0.946 -18.66 0.946 -18.66 0.32 71.07
