# MHZ S MA R 50

50 1 -0.9 0.016 89.097 0.016 89.097 1 -0.9
74.958 1 -1.349 0.024 88.646 0.024 88.646 1 -1.349
99.917 1 -1.798 0.031 88.196 0.031 88.196 1 -1.798
124.875 0.999 -2.247 0.039 87.745 0.039 87.745 0.999 -2.247
149.833 0.999 -2.696 0.047 87.295 0.047 87.295 0.999 -2.696
174.792 0.998 -3.145 0.055 86.845 0.055 86.845 0.998 -3.145
199.75 0.998 -3.593 0.063 86.395 0.063 86.395 0.998 -3.593
224.708 0.997 -4.041 0.07 85.946 0.07 85.946 0.997 -4.041
249.667 0.997 -4.489 0.078 85.496 0.078 85.496 0.997 -4.489
274.625 0.996 -4.937 0.086 85.047 0.086 85.047 0.996 -4.937
299.583 0.996 -5.384 0.094 84.598 0.094 84.598 0.996 -5.384
324.542 0.995 -5.831 0.102 84.15 0.102 84.15 0.995 -5.831
349.5 0.994 -6.277 0.109 83.702 0.109 83.702 0.994 -6.277
374.458 0.993 -6.723 0.117 83.254 0.117 83.254 0.993 -6.723
399.417 0.992 -7.169 0.125 82.807 0.125 82.807 0.992 -7.169
424.375 0.991 -7.614 0.133 82.361 0.133 82.361 0.991 -7.614
449.333 0.99 -8.059 0.14 81.914 0.14 81.914 0.99 -8.059
474.292 0.989 -8.503 0.148 81.469 0.148 81.469 0.989 -8.503
499.25 0.988 -8.947 0.156 81.024 0.156 81.024 0.988 -8.947
524.208 0.987 -9.39 0.163 80.579 0.163 80.579 0.987 -9.39
549.167 0.985 -9.832 0.171 80.135 0.171 80.135 0.985 -9.832
574.125 0.984 -10.274 0.178 79.692 0.178 79.692 0.984 -10.274
599.083 0.982 -10.715 0.186 79.249 0.186 79.249 0.982 -10.715
624.042 0.981 -11.155 0.193 78.808 0.193 78.808 0.981 -11.155
649 0.979 -11.595 0.201 78.366 0.201 78.366 0.979 -11.595
673.958 0.978 -12.034 0.208 77.926 0.208 77.926 0.978 -12.034
698.917 0.976 -12.472 0.216 77.486 0.216 77.486 0.976 -12.472
723.875 0.975 -12.91 0.223 77.047 0.223 77.047 0.975 -12.91
748.833 0.973 -13.346 0.231 76.609 0.231 76.609 0.973 -13.346
773.792 0.971 -13.782 0.238 76.172 0.238 76.172 0.971 -13.782
798.75 0.969 -14.217 0.246 75.736 0.246 75.736 0.969 -14.217
823.708 0.967 -14.651 0.253 75.3 0.253 75.3 0.967 -14.651
848.667 0.965 -15.084 0.26 74.866 0.26 74.866 0.965 -15.084
873.625 0.963 -15.516 0.268 74.432 0.268 74.432 0.963 -15.516
898.583 0.961 -15.947 0.275 73.999 0.275 73.999 0.961 -15.947
923.542 0.959 -16.377 0.282 73.568 0.282 73.568 0.959 -16.377
948.5 0.957 -16.807 0.289 73.137 0.289 73.137 0.957 -16.807
973.458 0.955 -17.235 0.296 72.707 0.296 72.707 0.955 -17.235
998.417 0.953 -17.662 0.303 72.278 0.303 72.278 0.953 -17.662
1023.375 0.95 -18.088 0.31 71.851 0.31 71.851 0.95 -18.088
1048.333 0.948 -18.513 0.318 71.424 0.318 71.424 0.948 -18.513
1073.292 0.946 -18.937 0.325 70.999 0.325 70.999 0.946 -18.937
1098.25 0.943 -19.359 0.331 70.575 0.331 70.575 0.943 -19.359
1123.208 0.941 -19.781 0.338 70.151 0.338 70.151 0.941 -19.781
1148.167 0.938 -20.201 0.345 69.729 0.345 69.729 0.938 -20.201
1173.125 0.935 -20.621 0.352 69.309 0.352 69.309 0.935 -20.621
1198.083 0.933 -21.039 0.359 68.889 0.359 68.889 0.933 -21.039
1223.042 0.93 -21.456 0.366 68.471 0.366 68.471 0.93 -21.456
1248 0.928 -21.871 0.373 68.053 0.373 68.053 0.928 -21.871
1272.958 0.925 -22.286 0.379 67.637 0.379 67.637 0.925 -22.286
1297.917 0.922 -22.699 0.386 67.223 0.386 67.223 0.922 -22.699
1322.875 0.919 -23.111 0.393 66.809 0.393 66.809 0.919 -23.111
1347.833 0.916 -23.521 0.399 66.397 0.399 66.397 0.916 -23.521
1372.792 0.913 -23.93 0.406 65.986 0.406 65.986 0.913 -23.93
1397.75 0.911 -24.338 0.412 65.577 0.412 65.577 0.911 -24.338
1422.708 0.908 -24.745 0.419 65.169 0.419 65.169 0.908 -24.745
1447.667 0.905 -25.15 0.425 64.762 0.425 64.762 0.905 -25.15
1472.625 0.902 -25.554 0.431 64.356 0.431 64.356 0.902 -25.554
1497.583 0.898 -25.957 0.438 63.952 0.438 63.952 0.898 -25.957
1522.542 0.895 -26.358 0.444 63.549 0.444 63.549 0.895 -26.358
1547.5 0.892 -26.757 0.45 63.148 0.45 63.148 0.892 -26.757
1572.458 0.889 -27.156 0.456 62.748 0.456 62.748 0.889 -27.156
1597.417 0.886 -27.553 0.463 62.349 0.463 62.349 0.886 -27.553
1622.375 0.883 -27.948 0.469 61.952 0.469 61.952 0.883 -27.948
1647.333 0.879 -28.342 0.475 61.557 0.475 61.557 0.879 -28.342
1672.292 0.876 -28.735 0.481 61.162 0.481 61.162 0.876 -28.735
1697.25 0.873 -29.126 0.487 60.77 0.487 60.77 0.873 -29.126
1722.208 0.869 -29.516 0.493 60.378 0.493 60.378 0.869 -29.516
1747.167 0.866 -29.904 0.499 59.988 0.499 59.988 0.866 -29.904
1772.125 0.863 -30.291 0.504 59.6 0.504 59.6 0.863 -30.291
1797.083 0.859 -30.676 0.51 59.213 0.51 59.213 0.859 -30.676
1822.042 0.856 -31.06 0.516 58.827 0.516 58.827 0.856 -31.06
1847 0.852 -31.442 0.522 58.443 0.522 58.443 0.852 -31.442
1871.958 0.849 -31.823 0.527 58.061 0.527 58.061 0.849 -31.823
1896.917 0.845 -32.202 0.533 57.68 0.533 57.68 0.845 -32.202
1921.875 0.842 -32.58 0.538 57.3 0.538 57.3 0.842 -32.58
1946.833 0.838 -32.956 0.544 56.922 0.544 56.922 0.838 -32.956
1971.792 0.834 -33.331 0.549 56.546 0.549 56.546 0.834 -33.331
1996.75 0.831 -33.704 0.555 56.171 0.555 56.171 0.831 -33.704
2021.708 0.827 -34.075 0.56 55.798 0.56 55.798 0.827 -34.075
2046.667 0.823 -34.445 0.566 55.426 0.566 55.426 0.823 -34.445
2071.625 0.82 -34.814 0.571 55.055 0.571 55.055 0.82 -34.814
2096.583 0.816 -35.181 0.576 54.687 0.576 54.687 0.816 -35.181
2121.542 0.812 -35.546 0.581 54.319 0.581 54.319 0.812 -35.546
2146.5 0.809 -35.91 0.587 53.954 0.587 53.954 0.809 -35.91
2171.458 0.805 -36.273 0.592 53.589 0.592 53.589 0.805 -36.273
2196.417 0.801 -36.634 0.597 53.227 0.597 53.227 0.801 -36.634
2221.375 0.797 -36.993 0.602 52.866 0.602 52.866 0.797 -36.993
2246.333 0.793 -37.351 0.607 52.506 0.607 52.506 0.793 -37.351
2271.292 0.79 -37.707 0.612 52.148 0.612 52.148 0.79 -37.707
2296.25 0.786 -38.061 0.617 51.792 0.617 51.792 0.786 -38.061
2321.208 0.782 -38.414 0.621 51.437 0.621 51.437 0.782 -38.414
2346.167 0.778 -38.766 0.626 51.083 0.626 51.083 0.778 -38.766
2371.125 0.774 -39.116 0.631 50.731 0.631 50.731 0.774 -39.116
2396.083 0.77 -39.464 0.636 50.381 0.636 50.381 0.77 -39.464
2421.042 0.766 -39.811 0.64 50.032 0.64 50.032 0.766 -39.811
2446 0.763 -40.156 0.645 49.685 0.645 49.685 0.763 -40.156
2470.958 0.759 -40.5 0.649 49.339 0.649 49.339 0.759 -40.5
2495.917 0.755 -40.842 0.654 48.995 0.654 48.995 0.755 -40.842
2520.875 0.751 -41.183 0.658 48.653 0.658 48.653 0.751 -41.183
2545.833 0.747 -41.522 0.663 48.312 0.663 48.312 0.747 -41.522
2570.792 0.743 -41.859 0.667 47.972 0.667 47.972 0.743 -41.859
2595.75 0.739 -42.195 0.672 47.634 0.672 47.634 0.739 -42.195
2620.708 0.735 -42.53 0.676 47.298 0.676 47.298 0.735 -42.53
2645.667 0.731 -42.863 0.68 46.963 0.68 46.963 0.731 -42.863
2670.625 0.727 -43.194 0.684 46.629 0.684 46.629 0.727 -43.194
2695.583 0.723 -43.524 0.689 46.297 0.689 46.297 0.723 -43.524
2720.542 0.719 -43.852 0.693 45.967 0.693 45.967 0.719 -43.852
2745.5 0.715 -44.179 0.697 45.638 0.697 45.638 0.715 -44.179
2770.458 0.711 -44.505 0.701 45.311 0.701 45.311 0.711 -44.505
2795.417 0.707 -44.828 0.705 44.985 0.705 44.985 0.707 -44.828
2820.375 0.703 -45.151 0.709 44.66 0.709 44.66 0.703 -45.151
2845.333 0.699 -45.471 0.713 44.338 0.713 44.338 0.699 -45.471
2870.292 0.695 -45.791 0.717 44.016 0.717 44.016 0.695 -45.791
2895.25 0.691 -46.108 0.721 43.696 0.721 43.696 0.691 -46.108
2920.208 0.687 -46.425 0.724 43.378 0.724 43.378 0.687 -46.425
2945.167 0.683 -46.739 0.728 43.061 0.728 43.061 0.683 -46.739
2970.125 0.679 -47.053 0.732 42.745 0.732 42.745 0.679 -47.053
2995.083 0.675 -47.364 0.736 42.431 0.736 42.431 0.675 -47.364
3020.042 0.671 -47.675 0.739 42.119 0.739 42.119 0.671 -47.675
3045 0.667 -47.983 0.743 41.808 0.743 41.808 0.667 -47.983
3069.958 0.663 -48.291 0.747 41.498 0.747 41.498 0.663 -48.291
3094.917 0.659 -48.597 0.75 41.19 0.75 41.19 0.659 -48.597
3119.875 0.655 -48.901 0.754 40.883 0.754 40.883 0.655 -48.901
3144.833 0.65 -49.204 0.757 40.578 0.757 40.578 0.65 -49.204
3169.792 0.646 -49.506 0.76 40.274 0.76 40.274 0.646 -49.506
3194.75 0.642 -49.806 0.764 39.971 0.764 39.971 0.642 -49.806
3219.708 0.638 -50.105 0.767 39.67 0.767 39.67 0.638 -50.105
3244.667 0.634 -50.402 0.771 39.37 0.771 39.37 0.634 -50.402
3269.625 0.63 -50.698 0.774 39.072 0.774 39.072 0.63 -50.698
3294.583 0.626 -50.992 0.777 38.775 0.777 38.775 0.626 -50.992
3319.542 0.622 -51.285 0.78 38.48 0.78 38.48 0.622 -51.285
3344.5 0.618 -51.577 0.783 38.186 0.783 38.186 0.618 -51.577
3369.458 0.614 -51.867 0.787 37.893 0.787 37.893 0.614 -51.867
3394.417 0.61 -52.156 0.79 37.602 0.79 37.602 0.61 -52.156
3419.375 0.606 -52.443 0.793 37.312 0.793 37.312 0.606 -52.443
3444.333 0.602 -52.729 0.796 37.023 0.796 37.023 0.602 -52.729
3469.292 0.598 -53.014 0.799 36.736 0.799 36.736 0.598 -53.014
3494.25 0.594 -53.297 0.802 36.45 0.802 36.45 0.594 -53.297
3519.208 0.59 -53.579 0.805 36.165 0.805 36.165 0.59 -53.579
3544.167 0.586 -53.86 0.808 35.882 0.808 35.882 0.586 -53.86
3569.125 0.582 -54.139 0.81 35.6 0.81 35.6 0.582 -54.139
3594.083 0.578 -54.417 0.813 35.319 0.813 35.319 0.578 -54.417
3619.042 0.574 -54.694 0.816 35.04 0.816 35.04 0.574 -54.694
3644 0.57 -54.969 0.819 34.762 0.819 34.762 0.57 -54.969
3668.958 0.566 -55.243 0.822 34.485 0.822 34.485 0.566 -55.243
3693.917 0.562 -55.515 0.824 34.21 0.824 34.21 0.562 -55.515
3718.875 0.558 -55.787 0.827 33.936 0.827 33.936 0.558 -55.787
3743.833 0.554 -56.057 0.83 33.663 0.83 33.663 0.554 -56.057
3768.792 0.55 -56.326 0.832 33.391 0.832 33.391 0.55 -56.326
3793.75 0.546 -56.593 0.835 33.121 0.835 33.121 0.546 -56.593
3818.708 0.542 -56.859 0.837 32.852 0.837 32.852 0.542 -56.859
3843.667 0.539 -57.124 0.84 32.584 0.84 32.584 0.539 -57.124
3868.625 0.535 -57.388 0.842 32.317 0.842 32.317 0.535 -57.388
3893.583 0.531 -57.65 0.845 32.052 0.845 32.052 0.531 -57.65
3918.542 0.527 -57.911 0.847 31.787 0.847 31.787 0.527 -57.911
3943.5 0.523 -58.171 0.85 31.525 0.85 31.525 0.523 -58.171
3968.458 0.519 -58.43 0.852 31.263 0.852 31.263 0.519 -58.43
3993.417 0.515 -58.687 0.854 31.002 0.854 31.002 0.515 -58.687
4018.375 0.511 -58.943 0.857 30.743 0.857 30.743 0.511 -58.943
4043.333 0.507 -59.198 0.859 30.485 0.859 30.485 0.507 -59.198
4068.292 0.503 -59.452 0.861 30.228 0.861 30.228 0.503 -59.452
4093.25 0.5 -59.704 0.863 29.972 0.863 29.972 0.5 -59.704
4118.208 0.496 -59.955 0.866 29.717 0.866 29.717 0.496 -59.955
4143.167 0.492 -60.206 0.868 29.464 0.868 29.464 0.492 -60.206
4168.125 0.488 -60.454 0.87 29.211 0.87 29.211 0.488 -60.454
4193.083 0.484 -60.702 0.872 28.96 0.872 28.96 0.484 -60.702
4218.042 0.48 -60.949 0.874 28.71 0.874 28.71 0.48 -60.949
4243 0.477 -61.194 0.876 28.461 0.876 28.461 0.477 -61.194
4267.958 0.473 -61.438 0.878 28.214 0.878 28.214 0.473 -61.438
4292.917 0.469 -61.681 0.88 27.967 0.88 27.967 0.469 -61.681
4317.875 0.465 -61.923 0.882 27.721 0.882 27.721 0.465 -61.923
4342.833 0.461 -62.164 0.884 27.477 0.884 27.477 0.461 -62.164
4367.792 0.458 -62.404 0.886 27.233 0.886 27.233 0.458 -62.404
4392.75 0.454 -62.642 0.888 26.991 0.888 26.991 0.454 -62.642
4417.708 0.45 -62.879 0.89 26.75 0.89 26.75 0.45 -62.879
4442.667 0.446 -63.116 0.892 26.51 0.892 26.51 0.446 -63.116
4467.625 0.443 -63.351 0.894 26.271 0.894 26.271 0.443 -63.351
4492.583 0.439 -63.585 0.896 26.033 0.896 26.033 0.439 -63.585
4517.542 0.435 -63.818 0.897 25.796 0.897 25.796 0.435 -63.818
4542.5 0.431 -64.049 0.899 25.56 0.899 25.56 0.431 -64.049
4567.458 0.428 -64.28 0.901 25.325 0.901 25.325 0.428 -64.28
4592.417 0.424 -64.51 0.903 25.091 0.903 25.091 0.424 -64.51
4617.375 0.42 -64.738 0.904 24.859 0.904 24.859 0.42 -64.738
4642.333 0.417 -64.966 0.906 24.627 0.906 24.627 0.417 -64.966
4667.292 0.413 -65.192 0.908 24.396 0.908 24.396 0.413 -65.192
4692.25 0.409 -65.417 0.909 24.166 0.909 24.166 0.409 -65.417
4717.208 0.406 -65.642 0.911 23.938 0.911 23.938 0.406 -65.642
4742.167 0.402 -65.865 0.913 23.71 0.913 23.71 0.402 -65.865
4767.125 0.398 -66.087 0.914 23.483 0.914 23.483 0.398 -66.087
4792.083 0.395 -66.308 0.916 23.257 0.916 23.257 0.395 -66.308
4817.042 0.391 -66.528 0.917 23.033 0.917 23.033 0.391 -66.528
4842 0.388 -66.747 0.919 22.809 0.919 22.809 0.388 -66.747
4866.958 0.384 -66.965 0.92 22.586 0.92 22.586 0.384 -66.965
4891.917 0.381 -67.182 0.922 22.364 0.922 22.364 0.381 -67.182
4916.875 0.377 -67.398 0.923 22.143 0.923 22.143 0.377 -67.398
4941.833 0.373 -67.613 0.925 21.923 0.925 21.923 0.373 -67.613
4966.792 0.37 -67.827 0.926 21.704 0.926 21.704 0.37 -67.827
4991.75 0.366 -68.04 0.927 21.486 0.927 21.486 0.366 -68.04
5016.708 0.363 -68.251 0.929 21.269 0.929 21.269 0.363 -68.251
5041.667 0.359 -68.462 0.93 21.052 0.93 21.052 0.359 -68.462
5066.625 0.356 -68.672 0.932 20.837 0.932 20.837 0.356 -68.672
5091.583 0.352 -68.881 0.933 20.623 0.933 20.623 0.352 -68.881
5116.542 0.349 -69.089 0.934 20.409 0.934 20.409 0.349 -69.089
5141.5 0.345 -69.296 0.935 20.196 0.935 20.196 0.345 -69.296
5166.458 0.342 -69.502 0.937 19.985 0.937 19.985 0.342 -69.502
5191.417 0.338 -69.707 0.938 19.774 0.938 19.774 0.338 -69.707
5216.375 0.335 -69.911 0.939 19.564 0.939 19.564 0.335 -69.911
5241.333 0.331 -70.114 0.94 19.354 0.94 19.354 0.331 -70.114
5266.292 0.328 -70.316 0.942 19.146 0.942 19.146 0.328 -70.316
5291.25 0.325 -70.517 0.943 18.939 0.943 18.939 0.325 -70.517
5316.208 0.321 -70.717 0.944 18.732 0.944 18.732 0.321 -70.717
5341.167 0.318 -70.916 0.945 18.526 0.945 18.526 0.318 -70.916
5366.125 0.314 -71.114 0.946 18.322 0.946 18.322 0.314 -71.114
5391.083 0.311 -71.312 0.947 18.118 0.947 18.118 0.311 -71.312
5416.042 0.308 -71.508 0.948 17.914 0.948 17.914 0.308 -71.508
5441 0.304 -71.703 0.949 17.712 0.949 17.712 0.304 -71.703
5465.958 0.301 -71.898 0.951 17.51 0.951 17.51 0.301 -71.898
5490.917 0.298 -72.091 0.952 17.31 0.952 17.31 0.298 -72.091
5515.875 0.294 -72.284 0.953 17.11 0.953 17.11 0.294 -72.284
5540.833 0.291 -72.475 0.954 16.911 0.954 16.911 0.291 -72.475
5565.792 0.288 -72.666 0.955 16.712 0.955 16.712 0.288 -72.666
5590.75 0.284 -72.855 0.956 16.515 0.956 16.515 0.284 -72.855
5615.708 0.281 -73.044 0.957 16.318 0.957 16.318 0.281 -73.044
5640.667 0.278 -73.232 0.958 16.122 0.958 16.122 0.278 -73.232
5665.625 0.274 -73.419 0.958 15.927 0.958 15.927 0.274 -73.419
5690.583 0.271 -73.605 0.959 15.732 0.959 15.732 0.271 -73.605
5715.542 0.268 -73.789 0.96 15.539 0.96 15.539 0.268 -73.789
5740.5 0.265 -73.973 0.961 15.346 0.961 15.346 0.265 -73.973
5765.458 0.261 -74.157 0.962 15.154 0.962 15.154 0.261 -74.157
5790.417 0.258 -74.339 0.963 14.962 0.963 14.962 0.258 -74.339
5815.375 0.255 -74.52 0.964 14.772 0.964 14.772 0.255 -74.52
5840.333 0.252 -74.7 0.965 14.582 0.965 14.582 0.252 -74.7
5865.292 0.249 -74.879 0.965 14.393 0.965 14.393 0.249 -74.879
5890.25 0.245 -75.058 0.966 14.204 0.966 14.204 0.245 -75.058
5915.208 0.242 -75.235 0.967 14.017 0.967 14.017 0.242 -75.235
5940.167 0.239 -75.412 0.968 13.83 0.968 13.83 0.239 -75.412
5965.125 0.236 -75.587 0.969 13.643 0.969 13.643 0.236 -75.587
5990.083 0.233 -75.761 0.969 13.458 0.969 13.458 0.233 -75.761
6015.042 0.23 -75.935 0.97 13.273 0.97 13.273 0.23 -75.935
6040 0.226 -76.108 0.971 13.089 0.971 13.089 0.226 -76.108
6064.958 0.223 -76.279 0.972 12.906 0.972 12.906 0.223 -76.279
6089.917 0.22 -76.45 0.972 12.723 0.972 12.723 0.22 -76.45
6114.875 0.217 -76.619 0.973 12.541 0.973 12.541 0.217 -76.619
6139.833 0.214 -76.788 0.974 12.36 0.974 12.36 0.214 -76.788
6164.792 0.211 -76.956 0.974 12.179 0.974 12.179 0.211 -76.956
6189.75 0.208 -77.122 0.975 11.999 0.975 11.999 0.208 -77.122
6214.708 0.205 -77.288 0.976 11.82 0.976 11.82 0.205 -77.288
6239.667 0.202 -77.452 0.976 11.641 0.976 11.641 0.202 -77.452
6264.625 0.199 -77.616 0.977 11.463 0.977 11.463 0.199 -77.616
6289.583 0.196 -77.778 0.977 11.286 0.977 11.286 0.196 -77.778
6314.542 0.193 -77.94 0.978 11.109 0.978 11.109 0.193 -77.94
6339.5 0.19 -78.1 0.979 10.933 0.979 10.933 0.19 -78.1
6364.458 0.187 -78.259 0.979 10.758 0.979 10.758 0.187 -78.259
6389.417 0.184 -78.417 0.98 10.583 0.98 10.583 0.184 -78.417
6414.375 0.181 -78.574 0.98 10.409 0.98 10.409 0.181 -78.574
6439.333 0.178 -78.73 0.981 10.236 0.981 10.236 0.178 -78.73
6464.292 0.175 -78.884 0.981 10.063 0.981 10.063 0.175 -78.884
6489.25 0.172 -79.038 0.982 9.891 0.982 9.891 0.172 -79.038
6514.208 0.169 -79.19 0.982 9.719 0.982 9.719 0.169 -79.19
6539.167 0.166 -79.341 0.983 9.548 0.983 9.548 0.166 -79.341
6564.125 0.163 -79.491 0.983 9.378 0.983 9.378 0.163 -79.491
6589.083 0.16 -79.639 0.984 9.209 0.984 9.209 0.16 -79.639
6614.042 0.157 -79.787 0.984 9.039 0.984 9.039 0.157 -79.787
6639 0.154 -79.932 0.985 8.871 0.985 8.871 0.154 -79.932
6663.958 0.151 -80.077 0.985 8.703 0.985 8.703 0.151 -80.077
6688.917 0.148 -80.22 0.986 8.536 0.986 8.536 0.148 -80.22
6713.875 0.146 -80.361 0.986 8.369 0.986 8.369 0.146 -80.361
6738.833 0.143 -80.501 0.987 8.203 0.987 8.203 0.143 -80.501
6763.792 0.14 -80.64 0.987 8.038 0.987 8.038 0.14 -80.64
6788.75 0.137 -80.777 0.987 7.873 0.987 7.873 0.137 -80.777
6813.708 0.134 -80.912 0.988 7.708 0.988 7.708 0.134 -80.912
6838.667 0.131 -81.045 0.988 7.545 0.988 7.545 0.131 -81.045
6863.625 0.129 -81.177 0.988 7.381 0.988 7.381 0.129 -81.177
6888.583 0.126 -81.307 0.989 7.219 0.989 7.219 0.126 -81.307
6913.542 0.123 -81.435 0.989 7.057 0.989 7.057 0.123 -81.435
6938.5 0.12 -81.56 0.99 6.895 0.99 6.895 0.12 -81.56
6963.458 0.117 -81.684 0.99 6.734 0.99 6.734 0.117 -81.684
6988.417 0.115 -81.806 0.99 6.574 0.99 6.574 0.115 -81.806
7013.375 0.112 -81.925 0.991 6.414 0.991 6.414 0.112 -81.925
7038.333 0.109 -82.041 0.991 6.255 0.991 6.255 0.109 -82.041
7063.292 0.106 -82.155 0.991 6.096 0.991 6.096 0.106 -82.155
7088.25 0.104 -82.267 0.991 5.938 0.991 5.938 0.104 -82.267
7113.208 0.101 -82.375 0.992 5.78 0.992 5.78 0.101 -82.375
7138.167 0.098 -82.48 0.992 5.623 0.992 5.623 0.098 -82.48
7163.125 0.095 -82.582 0.992 5.467 0.992 5.467 0.095 -82.582
7188.083 0.093 -82.681 0.992 5.311 0.992 5.311 0.093 -82.681
7213.042 0.09 -82.775 0.993 5.155 0.993 5.155 0.09 -82.775
7238 0.087 -82.866 0.993 5 0.993 5 0.087 -82.866
7262.958 0.085 -82.952 0.993 4.846 0.993 4.846 0.085 -82.952
7287.917 0.082 -83.033 0.993 4.692 0.993 4.692 0.082 -83.033
7312.875 0.079 -83.11 0.994 4.538 0.994 4.538 0.079 -83.11
7337.833 0.077 -83.18 0.994 4.385 0.994 4.385 0.077 -83.18
7362.792 0.074 -83.245 0.994 4.233 0.994 4.233 0.074 -83.245
7387.75 0.071 -83.303 0.994 4.081 0.994 4.081 0.071 -83.303
7412.708 0.069 -83.353 0.994 3.93 0.994 3.93 0.069 -83.353
7437.667 0.066 -83.395 0.995 3.779 0.995 3.779 0.066 -83.395
7462.625 0.063 -83.429 0.995 3.628 0.995 3.628 0.063 -83.429
7487.583 0.061 -83.452 0.995 3.478 0.995 3.478 0.061 -83.452
7512.542 0.058 -83.463 0.995 3.329 0.995 3.329 0.058 -83.463
7537.5 0.056 -83.462 0.995 3.18 0.995 3.18 0.056 -83.462
7562.458 0.053 -83.446 0.995 3.031 0.995 3.031 0.053 -83.446
7587.417 0.05 -83.413 0.995 2.883 0.995 2.883 0.05 -83.413
7612.375 0.048 -83.361 0.996 2.736 0.996 2.736 0.048 -83.361
7637.333 0.045 -83.287 0.996 2.589 0.996 2.589 0.045 -83.287
7662.292 0.043 -83.187 0.996 2.442 0.996 2.442 0.043 -83.187
7687.25 0.04 -83.056 0.996 2.296 0.996 2.296 0.04 -83.056
7712.208 0.038 -82.888 0.996 2.151 0.996 2.151 0.038 -82.888
7737.167 0.035 -82.675 0.996 2.005 0.996 2.005 0.035 -82.675
7762.125 0.033 -82.409 0.996 1.861 0.996 1.861 0.033 -82.409
7787.083 0.03 -82.075 0.996 1.717 0.996 1.717 0.03 -82.075
7812.042 0.028 -81.656 0.996 1.573 0.996 1.573 0.028 -81.656
7837 0.025 -81.127 0.996 1.429 0.996 1.429 0.025 -81.127
7861.958 0.023 -80.454 0.996 1.287 0.996 1.287 0.023 -80.454
7886.917 0.02 -79.585 0.997 1.144 0.997 1.144 0.02 -79.585
7911.875 0.018 -78.441 0.997 1.002 0.997 1.002 0.018 -78.441
7936.833 0.015 -76.895 0.997 0.861 0.997 0.861 0.015 -76.895
7961.792 0.013 -74.729 0.997 0.72 0.997 0.72 0.013 -74.729
7986.75 0.011 -71.538 0.997 0.579 0.997 0.579 0.011 -71.538
8011.708 8.322e-3 -66.497 0.997 0.439 0.997 0.439 8.322e-3 -66.497
8036.667 6.152e-3 -57.699 0.997 0.299 0.997 0.299 6.152e-3 -57.699
8061.625 4.288e-3 -40.346 0.997 0.16 0.997 0.16 4.288e-3 -40.346
8086.583 3.28e-3 -6.288 0.997 0.021 0.997 0.021 3.28e-3 -6.288
8111.542 3.855e-3 32.127 0.997 -0.118 0.997 -0.118 3.855e-3 32.127
8136.5 5.529e-3 53.616 0.997 -0.256 0.997 -0.256 5.529e-3 53.616
8161.458 7.603e-3 64.215 0.997 -0.394 0.997 -0.394 7.603e-3 64.215
