# MHZ S MA R 50

50 0.998 -3.954 0.069 86.039 0.069 86.039 0.998 -3.954
74.958 0.995 -5.918 0.103 84.072 0.103 84.072 0.995 -5.918
99.917 0.991 -7.869 0.137 82.117 0.137 82.117 0.991 -7.869
124.875 0.985 -9.803 0.17 80.179 0.17 80.179 0.985 -9.803
149.833 0.979 -11.718 0.203 78.261 0.203 78.261 0.979 -11.718
174.792 0.972 -13.609 0.235 76.366 0.235 76.366 0.972 -13.609
199.75 0.964 -15.474 0.267 74.498 0.267 74.498 0.964 -15.474
224.708 0.955 -17.309 0.298 72.659 0.298 72.659 0.955 -17.309
249.667 0.945 -19.112 0.327 70.853 0.327 70.853 0.945 -19.112
274.625 0.934 -20.881 0.356 69.08 0.356 69.08 0.934 -20.881
299.583 0.923 -22.614 0.385 67.344 0.385 67.344 0.923 -22.614
324.542 0.911 -24.309 0.412 65.645 0.412 65.645 0.911 -24.309
349.5 0.899 -25.965 0.438 63.985 0.438 63.985 0.899 -25.965
374.458 0.886 -27.581 0.463 62.365 0.463 62.365 0.886 -27.581
399.417 0.873 -29.157 0.487 60.786 0.487 60.786 0.873 -29.157
424.375 0.859 -30.692 0.51 59.248 0.51 59.248 0.859 -30.692
449.333 0.846 -32.185 0.533 57.751 0.533 57.751 0.846 -32.185
474.292 0.832 -33.637 0.554 56.295 0.554 56.295 0.832 -33.637
499.25 0.818 -35.049 0.574 54.88 0.574 54.88 0.818 -35.049
524.208 0.804 -36.419 0.594 53.506 0.594 53.506 0.804 -36.419
549.167 0.79 -37.75 0.612 52.171 0.612 52.171 0.79 -37.75
574.125 0.776 -39.041 0.63 50.876 0.63 50.876 0.776 -39.041
599.083 0.762 -40.294 0.647 49.62 0.647 49.62 0.762 -40.294
624.042 0.748 -41.509 0.663 48.401 0.663 48.401 0.748 -41.509
649 0.734 -42.687 0.678 47.22 0.678 47.22 0.734 -42.687
673.958 0.72 -43.829 0.693 46.074 0.693 46.074 0.72 -43.829
698.917 0.707 -44.936 0.706 44.963 0.706 44.963 0.707 -44.936
723.875 0.693 -46.009 0.719 43.886 0.719 43.886 0.693 -46.009
748.833 0.68 -47.049 0.732 42.842 0.732 42.842 0.68 -47.049
773.792 0.667 -48.058 0.744 41.829 0.744 41.829 0.667 -48.058
798.75 0.654 -49.035 0.755 40.848 0.755 40.848 0.654 -49.035
823.708 0.641 -49.983 0.766 39.896 0.766 39.896 0.641 -49.983
848.667 0.629 -50.903 0.776 38.972 0.776 38.972 0.629 -50.903
873.625 0.617 -51.794 0.786 38.077 0.786 38.077 0.617 -51.794
898.583 0.605 -52.659 0.795 37.207 0.795 37.207 0.605 -52.659
923.542 0.593 -53.498 0.804 36.364 0.804 36.364 0.593 -53.498
948.5 0.581 -54.313 0.812 35.545 0.812 35.545 0.581 -54.313
973.458 0.57 -55.104 0.82 34.75 0.82 34.75 0.57 -55.104
998.417 0.559 -55.872 0.828 33.978 0.828 33.978 0.559 -55.872
1023.375 0.548 -56.617 0.835 33.228 0.835 33.228 0.548 -56.617
1048.333 0.537 -57.342 0.842 32.499 0.842 32.499 0.537 -57.342
1073.292 0.527 -58.046 0.848 31.79 0.848 31.79 0.527 -58.046
1098.25 0.517 -58.731 0.855 31.101 0.855 31.101 0.517 -58.731
1123.208 0.507 -59.397 0.861 30.431 0.861 30.431 0.507 -59.397
1148.167 0.497 -60.044 0.866 29.779 0.866 29.779 0.497 -60.044
1173.125 0.487 -60.674 0.872 29.144 0.872 29.144 0.487 -60.674
1198.083 0.478 -61.288 0.877 28.526 0.877 28.526 0.478 -61.288
1223.042 0.468 -61.885 0.882 27.924 0.882 27.924 0.468 -61.885
1248 0.459 -62.467 0.887 27.337 0.887 27.337 0.459 -62.467
1272.958 0.45 -63.033 0.891 26.766 0.891 26.766 0.45 -63.033
1297.917 0.442 -63.586 0.896 26.209 0.896 26.209 0.442 -63.586
1322.875 0.433 -64.124 0.9 25.665 0.9 25.665 0.433 -64.124
1347.833 0.425 -64.649 0.904 25.135 0.904 25.135 0.425 -64.649
1372.792 0.417 -65.162 0.908 24.617 0.908 24.617 0.417 -65.162
1397.75 0.409 -65.662 0.911 24.112 0.911 24.112 0.409 -65.662
1422.708 0.401 -66.15 0.915 23.619 0.915 23.619 0.401 -66.15
1447.667 0.393 -66.626 0.918 23.137 0.918 23.137 0.393 -66.626
1472.625 0.385 -67.092 0.921 22.666 0.921 22.666 0.385 -67.092
1497.583 0.378 -67.547 0.924 22.205 0.924 22.205 0.378 -67.547
1522.542 0.371 -67.991 0.927 21.755 0.927 21.755 0.371 -67.991
1547.5 0.363 -68.426 0.93 21.314 0.93 21.314 0.363 -68.426
1572.458 0.356 -68.851 0.933 20.884 0.933 20.884 0.356 -68.851
1597.417 0.35 -69.267 0.935 20.462 0.935 20.462 0.35 -69.267
1622.375 0.343 -69.674 0.938 20.049 0.938 20.049 0.343 -69.674
1647.333 0.336 -70.072 0.94 19.644 0.94 19.644 0.336 -70.072
1672.292 0.33 -70.462 0.942 19.248 0.942 19.248 0.33 -70.462
1697.25 0.323 -70.843 0.945 18.86 0.945 18.86 0.323 -70.843
1722.208 0.317 -71.217 0.947 18.48 0.947 18.48 0.317 -71.217
1747.167 0.311 -71.584 0.949 18.107 0.949 18.107 0.311 -71.584
1772.125 0.305 -71.943 0.951 17.741 0.951 17.741 0.305 -71.943
1797.083 0.299 -72.295 0.953 17.382 0.953 17.382 0.299 -72.295
1822.042 0.293 -72.64 0.954 17.029 0.954 17.029 0.293 -72.64
1847 0.287 -72.979 0.956 16.684 0.956 16.684 0.287 -72.979
1871.958 0.281 -73.311 0.958 16.344 0.958 16.344 0.281 -73.311
1896.917 0.276 -73.637 0.96 16.011 0.96 16.011 0.276 -73.637
1921.875 0.27 -73.956 0.961 15.683 0.961 15.683 0.27 -73.956
1946.833 0.265 -74.27 0.963 15.361 0.963 15.361 0.265 -74.27
1971.792 0.26 -74.578 0.964 15.045 0.964 15.045 0.26 -74.578
1996.75 0.254 -74.881 0.965 14.734 0.965 14.734 0.254 -74.881
2021.708 0.249 -75.178 0.967 14.428 0.967 14.428 0.249 -75.178
2046.667 0.244 -75.47 0.968 14.127 0.968 14.127 0.244 -75.47
2071.625 0.239 -75.757 0.969 13.831 0.969 13.831 0.239 -75.757
2096.583 0.234 -76.039 0.97 13.54 0.97 13.54 0.234 -76.039
2121.542 0.229 -76.316 0.972 13.254 0.972 13.254 0.229 -76.316
2146.5 0.224 -76.589 0.973 12.971 0.973 12.971 0.224 -76.589
2171.458 0.22 -76.857 0.974 12.694 0.974 12.694 0.22 -76.857
2196.417 0.215 -77.12 0.975 12.42 0.975 12.42 0.215 -77.12
2221.375 0.21 -77.379 0.976 12.151 0.976 12.151 0.21 -77.379
2246.333 0.206 -77.634 0.977 11.885 0.977 11.885 0.206 -77.634
2271.292 0.201 -77.885 0.978 11.623 0.978 11.623 0.201 -77.885
2296.25 0.197 -78.131 0.979 11.365 0.979 11.365 0.197 -78.131
2321.208 0.193 -78.374 0.98 11.111 0.98 11.111 0.193 -78.374
2346.167 0.188 -78.612 0.98 10.86 0.98 10.86 0.188 -78.612
2371.125 0.184 -78.847 0.981 10.613 0.981 10.613 0.184 -78.847
2396.083 0.18 -79.078 0.982 10.368 0.982 10.368 0.18 -79.078
2421.042 0.176 -79.306 0.983 10.128 0.983 10.128 0.176 -79.306
2446 0.172 -79.529 0.983 9.89 0.983 9.89 0.172 -79.529
2470.958 0.168 -79.749 0.984 9.655 0.984 9.655 0.168 -79.749
2495.917 0.164 -79.966 0.985 9.424 0.985 9.424 0.164 -79.966
2520.875 0.16 -80.179 0.985 9.195 0.985 9.195 0.16 -80.179
2545.833 0.156 -80.389 0.986 8.969 0.986 8.969 0.156 -80.389
2570.792 0.152 -80.596 0.987 8.746 0.987 8.746 0.152 -80.596
2595.75 0.148 -80.799 0.987 8.526 0.987 8.526 0.148 -80.799
2620.708 0.145 -80.998 0.988 8.308 0.988 8.308 0.145 -80.998
2645.667 0.141 -81.195 0.988 8.093 0.988 8.093 0.141 -81.195
2670.625 0.137 -81.388 0.989 7.88 0.989 7.88 0.137 -81.388
2695.583 0.133 -81.578 0.989 7.67 0.989 7.67 0.133 -81.578
2720.542 0.13 -81.765 0.99 7.462 0.99 7.462 0.13 -81.765
2745.5 0.126 -81.948 0.99 7.257 0.99 7.257 0.126 -81.948
2770.458 0.123 -82.128 0.991 7.054 0.991 7.054 0.123 -82.128
2795.417 0.119 -82.305 0.991 6.853 0.991 6.853 0.119 -82.305
2820.375 0.116 -82.478 0.992 6.654 0.992 6.654 0.116 -82.478
2845.333 0.112 -82.648 0.992 6.457 0.992 6.457 0.112 -82.648
2870.292 0.109 -82.815 0.992 6.262 0.992 6.262 0.109 -82.815
2895.25 0.106 -82.978 0.993 6.07 0.993 6.07 0.106 -82.978
2920.208 0.102 -83.138 0.993 5.879 0.993 5.879 0.102 -83.138
2945.167 0.099 -83.294 0.993 5.69 0.993 5.69 0.099 -83.294
2970.125 0.096 -83.446 0.994 5.503 0.994 5.503 0.096 -83.446
2995.083 0.093 -83.594 0.994 5.318 0.994 5.318 0.093 -83.594
3020.042 0.09 -83.739 0.994 5.135 0.994 5.135 0.09 -83.739
3045 0.086 -83.879 0.995 4.953 0.995 4.953 0.086 -83.879
3069.958 0.083 -84.014 0.995 4.773 0.995 4.773 0.083 -84.014
3094.917 0.08 -84.145 0.995 4.595 0.995 4.595 0.08 -84.145
3119.875 0.077 -84.271 0.995 4.419 0.995 4.419 0.077 -84.271
3144.833 0.074 -84.392 0.995 4.244 0.995 4.244 0.074 -84.392
3169.792 0.071 -84.507 0.996 4.07 0.996 4.07 0.071 -84.507
3194.75 0.068 -84.616 0.996 3.898 0.996 3.898 0.068 -84.616
3219.708 0.065 -84.718 0.996 3.728 0.996 3.728 0.065 -84.718
3244.667 0.062 -84.813 0.996 3.559 0.996 3.559 0.062 -84.813
3269.625 0.059 -84.9 0.996 3.392 0.996 3.392 0.059 -84.9
3294.583 0.056 -84.978 0.997 3.226 0.997 3.226 0.056 -84.978
3319.542 0.053 -85.046 0.997 3.061 0.997 3.061 0.053 -85.046
3344.5 0.051 -85.103 0.997 2.898 0.997 2.898 0.051 -85.103
3369.458 0.048 -85.146 0.997 2.736 0.997 2.736 0.048 -85.146
3394.417 0.045 -85.175 0.997 2.576 0.997 2.576 0.045 -85.175
3419.375 0.042 -85.186 0.997 2.416 0.997 2.416 0.042 -85.186
3444.333 0.039 -85.176 0.997 2.258 0.997 2.258 0.039 -85.176
3469.292 0.037 -85.141 0.998 2.101 0.998 2.101 0.037 -85.141
3494.25 0.034 -85.076 0.998 1.946 0.998 1.946 0.034 -85.076
3519.208 0.031 -84.974 0.998 1.791 0.998 1.791 0.031 -84.974
3544.167 0.029 -84.825 0.998 1.638 0.998 1.638 0.029 -84.825
3569.125 0.026 -84.616 0.998 1.486 0.998 1.486 0.026 -84.616
3594.083 0.023 -84.327 0.998 1.334 0.998 1.334 0.023 -84.327
3619.042 0.021 -83.93 0.998 1.184 0.998 1.184 0.021 -83.93
3644 0.018 -83.38 0.998 1.036 0.998 1.036 0.018 -83.38
3668.958 0.016 -82.605 0.998 0.888 0.998 0.888 0.016 -82.605
3693.917 0.013 -81.476 0.998 0.741 0.998 0.741 0.013 -81.476
3718.875 0.011 -79.747 0.998 0.595 0.998 0.595 0.011 -79.747
3743.833 8.052e-3 -76.872 0.998 0.45 0.998 0.45 8.052e-3 -76.872
3768.792 5.63e-3 -71.399 0.998 0.306 0.998 0.306 5.63e-3 -71.399
3793.75 3.354e-3 -58.044 0.998 0.163 0.998 0.163 3.354e-3 -58.044
3818.708 1.806e-3 -11.909 0.998 0.021 0.998 0.021 1.806e-3 -11.909
3843.667 2.736e-3 49.638 0.998 -0.12 0.998 -0.12 2.736e-3 49.638
3868.625 4.866e-3 68.444 0.998 -0.26 0.998 -0.26 4.866e-3 68.444
3893.583 7.184e-3 75.361 0.998 -0.399 0.998 -0.399 7.184e-3 75.361
3918.542 9.543e-3 78.791 0.998 -0.537 0.998 -0.537 9.543e-3 78.791
3943.5 0.012 80.792 0.998 -0.675 0.998 -0.675 0.012 80.792
3968.458 0.014 82.076 0.998 -0.811 0.998 -0.811 0.014 82.076
3993.417 0.017 82.952 0.998 -0.947 0.998 -0.947 0.017 82.952
4018.375 0.019 83.573 0.998 -1.082 0.998 -1.082 0.019 83.573
4043.333 0.021 84.026 0.998 -1.216 0.998 -1.216 0.021 84.026
4068.292 0.024 84.361 0.998 -1.35 0.998 -1.35 0.024 84.361
4093.25 0.026 84.611 0.998 -1.482 0.998 -1.482 0.026 84.611
4118.208 0.028 84.797 0.998 -1.614 0.998 -1.614 0.028 84.797
4143.167 0.031 84.935 0.998 -1.745 0.998 -1.745 0.031 84.935
4168.125 0.033 85.035 0.998 -1.876 0.998 -1.876 0.033 85.035
4193.083 0.035 85.105 0.998 -2.005 0.998 -2.005 0.035 85.105
4218.042 0.037 85.151 0.998 -2.134 0.998 -2.134 0.037 85.151
4243 0.04 85.176 0.997 -2.262 0.997 -2.262 0.04 85.176
4267.958 0.042 85.185 0.997 -2.39 0.997 -2.39 0.042 85.185
4292.917 0.044 85.181 0.997 -2.517 0.997 -2.517 0.044 85.181
4317.875 0.046 85.165 0.997 -2.643 0.997 -2.643 0.046 85.165
4342.833 0.048 85.139 0.997 -2.768 0.997 -2.768 0.048 85.139
4367.792 0.051 85.104 0.997 -2.893 0.997 -2.893 0.051 85.104
4392.75 0.053 85.062 0.997 -3.017 0.997 -3.017 0.053 85.062
4417.708 0.055 85.015 0.997 -3.141 0.997 -3.141 0.055 85.015
4442.667 0.057 84.961 0.997 -3.264 0.997 -3.264 0.057 84.961
4467.625 0.059 84.903 0.996 -3.386 0.996 -3.386 0.059 84.903
4492.583 0.061 84.841 0.996 -3.508 0.996 -3.508 0.061 84.841
4517.542 0.063 84.775 0.996 -3.629 0.996 -3.629 0.063 84.775
4542.5 0.065 84.706 0.996 -3.749 0.996 -3.749 0.065 84.706
4567.458 0.068 84.634 0.996 -3.869 0.996 -3.869 0.068 84.634
4592.417 0.07 84.56 0.996 -3.989 0.996 -3.989 0.07 84.56
4617.375 0.072 84.483 0.996 -4.107 0.996 -4.107 0.072 84.483
4642.333 0.074 84.404 0.996 -4.226 0.996 -4.226 0.074 84.404
4667.292 0.076 84.324 0.995 -4.343 0.995 -4.343 0.076 84.324
4692.25 0.078 84.242 0.995 -4.46 0.995 -4.46 0.078 84.242
4717.208 0.08 84.158 0.995 -4.577 0.995 -4.577 0.08 84.158
4742.167 0.082 84.074 0.995 -4.693 0.995 -4.693 0.082 84.074
4767.125 0.084 83.988 0.995 -4.809 0.995 -4.809 0.084 83.988
4792.083 0.086 83.901 0.995 -4.924 0.995 -4.924 0.086 83.901
4817.042 0.088 83.813 0.994 -5.038 0.994 -5.038 0.088 83.813
4842 0.09 83.725 0.994 -5.152 0.994 -5.152 0.09 83.725
4866.958 0.092 83.636 0.994 -5.266 0.994 -5.266 0.092 83.636
4891.917 0.094 83.546 0.994 -5.379 0.994 -5.379 0.094 83.546
4916.875 0.096 83.455 0.994 -5.491 0.994 -5.491 0.096 83.455
4941.833 0.098 83.364 0.993 -5.604 0.993 -5.604 0.098 83.364
4966.792 0.1 83.273 0.993 -5.715 0.993 -5.715 0.1 83.273
4991.75 0.102 83.181 0.993 -5.826 0.993 -5.826 0.102 83.181
5016.708 0.103 83.089 0.993 -5.937 0.993 -5.937 0.103 83.089
5041.667 0.105 82.997 0.993 -6.047 0.993 -6.047 0.105 82.997
5066.625 0.107 82.904 0.992 -6.157 0.992 -6.157 0.107 82.904
5091.583 0.109 82.811 0.992 -6.267 0.992 -6.267 0.109 82.811
5116.542 0.111 82.718 0.992 -6.376 0.992 -6.376 0.111 82.718
5141.5 0.113 82.625 0.992 -6.484 0.992 -6.484 0.113 82.625
5166.458 0.115 82.531 0.992 -6.592 0.992 -6.592 0.115 82.531
5191.417 0.117 82.438 0.991 -6.7 0.991 -6.7 0.117 82.438
5216.375 0.119 82.344 0.991 -6.807 0.991 -6.807 0.119 82.344
5241.333 0.12 82.251 0.991 -6.914 0.991 -6.914 0.12 82.251
5266.292 0.122 82.157 0.991 -7.021 0.991 -7.021 0.122 82.157
5291.25 0.124 82.063 0.991 -7.127 0.991 -7.127 0.124 82.063
5316.208 0.126 81.97 0.99 -7.233 0.99 -7.233 0.126 81.97
5341.167 0.128 81.876 0.99 -7.338 0.99 -7.338 0.128 81.876
5366.125 0.13 81.782 0.99 -7.443 0.99 -7.443 0.13 81.782
5391.083 0.131 81.688 0.99 -7.547 0.99 -7.547 0.131 81.688
5416.042 0.133 81.595 0.989 -7.652 0.989 -7.652 0.133 81.595
5441 0.135 81.501 0.989 -7.755 0.989 -7.755 0.135 81.501
5465.958 0.137 81.408 0.989 -7.859 0.989 -7.859 0.137 81.408
5490.917 0.139 81.314 0.989 -7.962 0.989 -7.962 0.139 81.314
5515.875 0.14 81.221 0.988 -8.065 0.988 -8.065 0.14 81.221
5540.833 0.142 81.127 0.988 -8.167 0.988 -8.167 0.142 81.127
5565.792 0.144 81.034 0.988 -8.269 0.988 -8.269 0.144 81.034
5590.75 0.146 80.941 0.988 -8.371 0.988 -8.371 0.146 80.941
5615.708 0.147 80.848 0.987 -8.472 0.987 -8.472 0.147 80.848
5640.667 0.149 80.755 0.987 -8.573 0.987 -8.573 0.149 80.755
5665.625 0.151 80.662 0.987 -8.674 0.987 -8.674 0.151 80.662
5690.583 0.153 80.57 0.987 -8.774 0.987 -8.774 0.153 80.57
5715.542 0.154 80.477 0.986 -8.874 0.986 -8.874 0.154 80.477
5740.5 0.156 80.385 0.986 -8.974 0.986 -8.974 0.156 80.385
5765.458 0.158 80.293 0.986 -9.073 0.986 -9.073 0.158 80.293
5790.417 0.159 80.201 0.985 -9.172 0.985 -9.172 0.159 80.201
5815.375 0.161 80.109 0.985 -9.271 0.985 -9.271 0.161 80.109
5840.333 0.163 80.017 0.985 -9.37 0.985 -9.37 0.163 80.017
5865.292 0.165 79.925 0.985 -9.468 0.985 -9.468 0.165 79.925
5890.25 0.166 79.834 0.984 -9.566 0.984 -9.566 0.166 79.834
5915.208 0.168 79.742 0.984 -9.663 0.984 -9.663 0.168 79.742
5940.167 0.17 79.651 0.984 -9.76 0.984 -9.76 0.17 79.651
5965.125 0.171 79.56 0.983 -9.857 0.983 -9.857 0.171 79.56
5990.083 0.173 79.469 0.983 -9.954 0.983 -9.954 0.173 79.469
6015.042 0.175 79.379 0.983 -10.05 0.983 -10.05 0.175 79.379
6040 0.176 79.288 0.983 -10.146 0.983 -10.146 0.176 79.288
6064.958 0.178 79.198 0.982 -10.242 0.982 -10.242 0.178 79.198
6089.917 0.179 79.107 0.982 -10.337 0.982 -10.337 0.179 79.107
6114.875 0.181 79.017 0.982 -10.433 0.982 -10.433 0.181 79.017
6139.833 0.183 78.928 0.981 -10.528 0.981 -10.528 0.183 78.928
6164.792 0.184 78.838 0.981 -10.622 0.981 -10.622 0.184 78.838
6189.75 0.186 78.748 0.981 -10.717 0.981 -10.717 0.186 78.748
6214.708 0.188 78.659 0.981 -10.811 0.981 -10.811 0.188 78.659
6239.667 0.189 78.57 0.98 -10.905 0.98 -10.905 0.189 78.57
6264.625 0.191 78.481 0.98 -10.998 0.98 -10.998 0.191 78.481
6289.583 0.192 78.392 0.98 -11.092 0.98 -11.092 0.192 78.392
6314.542 0.194 78.303 0.979 -11.185 0.979 -11.185 0.194 78.303
6339.5 0.196 78.215 0.979 -11.277 0.979 -11.277 0.196 78.215
6364.458 0.197 78.126 0.979 -11.37 0.979 -11.37 0.197 78.126
6389.417 0.199 78.038 0.978 -11.462 0.978 -11.462 0.199 78.038
6414.375 0.2 77.95 0.978 -11.554 0.978 -11.554 0.2 77.95
6439.333 0.202 77.863 0.978 -11.646 0.978 -11.646 0.202 77.863
6464.292 0.203 77.775 0.977 -11.738 0.977 -11.738 0.203 77.775
6489.25 0.205 77.687 0.977 -11.829 0.977 -11.829 0.205 77.687
6514.208 0.207 77.6 0.977 -11.92 0.977 -11.92 0.207 77.6
6539.167 0.208 77.513 0.976 -12.011 0.976 -12.011 0.208 77.513
6564.125 0.21 77.426 0.976 -12.102 0.976 -12.102 0.21 77.426
6589.083 0.211 77.339 0.976 -12.192 0.976 -12.192 0.211 77.339
6614.042 0.213 77.253 0.975 -12.282 0.975 -12.282 0.213 77.253
6639 0.214 77.166 0.975 -12.372 0.975 -12.372 0.214 77.166
6663.958 0.216 77.08 0.975 -12.462 0.975 -12.462 0.216 77.08
6688.917 0.217 76.994 0.974 -12.551 0.974 -12.551 0.217 76.994
6713.875 0.219 76.908 0.974 -12.64 0.974 -12.64 0.219 76.908
6738.833 0.22 76.822 0.974 -12.729 0.974 -12.729 0.22 76.822
6763.792 0.222 76.737 0.973 -12.818 0.973 -12.818 0.222 76.737
6788.75 0.223 76.651 0.973 -12.907 0.973 -12.907 0.223 76.651
6813.708 0.225 76.566 0.973 -12.995 0.973 -12.995 0.225 76.566
6838.667 0.226 76.481 0.972 -13.083 0.972 -13.083 0.226 76.481
6863.625 0.228 76.396 0.972 -13.171 0.972 -13.171 0.228 76.396
6888.583 0.229 76.312 0.972 -13.259 0.972 -13.259 0.229 76.312
6913.542 0.231 76.227 0.971 -13.346 0.971 -13.346 0.231 76.227
6938.5 0.232 76.143 0.971 -13.433 0.971 -13.433 0.232 76.143
6963.458 0.234 76.058 0.971 -13.52 0.971 -13.52 0.234 76.058
6988.417 0.235 75.974 0.97 -13.607 0.97 -13.607 0.235 75.974
7013.375 0.237 75.891 0.97 -13.694 0.97 -13.694 0.237 75.891
7038.333 0.238 75.807 0.969 -13.78 0.969 -13.78 0.238 75.807
7063.292 0.24 75.723 0.969 -13.867 0.969 -13.867 0.24 75.723
7088.25 0.241 75.64 0.969 -13.953 0.969 -13.953 0.241 75.64
7113.208 0.243 75.557 0.968 -14.038 0.968 -14.038 0.243 75.557
7138.167 0.244 75.474 0.968 -14.124 0.968 -14.124 0.244 75.474
7163.125 0.245 75.391 0.968 -14.209 0.968 -14.209 0.245 75.391
7188.083 0.247 75.308 0.967 -14.295 0.967 -14.295 0.247 75.308
7213.042 0.248 75.225 0.967 -14.38 0.967 -14.38 0.248 75.225
7238 0.25 75.143 0.967 -14.465 0.967 -14.465 0.25 75.143
7262.958 0.251 75.061 0.966 -14.549 0.966 -14.549 0.251 75.061
7287.917 0.253 74.978 0.966 -14.634 0.966 -14.634 0.253 74.978
7312.875 0.254 74.897 0.965 -14.718 0.965 -14.718 0.254 74.897
7337.833 0.255 74.815 0.965 -14.802 0.965 -14.802 0.255 74.815
7362.792 0.257 74.733 0.965 -14.886 0.965 -14.886 0.257 74.733
7387.75 0.258 74.652 0.964 -14.97 0.964 -14.97 0.258 74.652
7412.708 0.26 74.57 0.964 -15.053 0.964 -15.053 0.26 74.57
7437.667 0.261 74.489 0.964 -15.137 0.964 -15.137 0.261 74.489
7462.625 0.263 74.408 0.963 -15.22 0.963 -15.22 0.263 74.408
7487.583 0.264 74.327 0.963 -15.303 0.963 -15.303 0.264 74.327
7512.542 0.265 74.247 0.962 -15.385 0.962 -15.385 0.265 74.247
7537.5 0.267 74.166 0.962 -15.468 0.962 -15.468 0.267 74.166
7562.458 0.268 74.086 0.962 -15.551 0.962 -15.551 0.268 74.086
7587.417 0.269 74.005 0.961 -15.633 0.961 -15.633 0.269 74.005
7612.375 0.271 73.925 0.961 -15.715 0.961 -15.715 0.271 73.925
7637.333 0.272 73.845 0.961 -15.797 0.961 -15.797 0.272 73.845
7662.292 0.274 73.765 0.96 -15.879 0.96 -15.879 0.274 73.765
7687.25 0.275 73.686 0.96 -15.96 0.96 -15.96 0.275 73.686
7712.208 0.276 73.606 0.959 -16.042 0.959 -16.042 0.276 73.606
7737.167 0.278 73.527 0.959 -16.123 0.959 -16.123 0.278 73.527
7762.125 0.279 73.448 0.959 -16.204 0.959 -16.204 0.279 73.448
7787.083 0.28 73.369 0.958 -16.285 0.958 -16.285 0.28 73.369
7812.042 0.282 73.29 0.958 -16.365 0.958 -16.365 0.282 73.29
7837 0.283 73.211 0.957 -16.446 0.957 -16.446 0.283 73.211
7861.958 0.284 73.132 0.957 -16.526 0.957 -16.526 0.284 73.132
7886.917 0.286 73.054 0.957 -16.607 0.957 -16.607 0.286 73.054
7911.875 0.287 72.975 0.956 -16.687 0.956 -16.687 0.287 72.975
7936.833 0.288 72.897 0.956 -16.767 0.956 -16.767 0.288 72.897
7961.792 0.29 72.819 0.955 -16.846 0.955 -16.846 0.29 72.819
7986.75 0.291 72.741 0.955 -16.926 0.955 -16.926 0.291 72.741
8011.708 0.292 72.664 0.955 -17.005 0.955 -17.005 0.292 72.664
8036.667 0.294 72.586 0.954 -17.085 0.954 -17.085 0.294 72.586
8061.625 0.295 72.508 0.954 -17.164 0.954 -17.164 0.295 72.508
8086.583 0.296 72.431 0.953 -17.243 0.953 -17.243 0.296 72.431
8111.542 0.298 72.354 0.953 -17.321 0.953 -17.321 0.298 72.354
8136.5 0.299 72.277 0.953 -17.4 0.953 -17.4 0.299 72.277
8161.458 0.3 72.2 0.952 -17.479 0.952 -17.479 0.3 72.2
8186.417 0.302 72.123 0.952 -17.557 0.952 -17.557 0.302 72.123
