# MHZ S MA R 50

50 0.999 -2.878 0.05 87.116 0.05 87.116 0.999 -2.878
74.958 0.997 -4.311 0.075 85.68 0.075 85.68 0.997 -4.311
99.917 0.995 -5.739 0.1 84.25 0.1 84.25 0.995 -5.739
124.875 0.992 -7.16 0.125 82.825 0.125 82.825 0.992 -7.16
149.833 0.989 -8.575 0.149 81.407 0.149 81.407 0.989 -8.575
174.792 0.985 -9.98 0.173 79.999 0.173 79.999 0.985 -9.98
199.75 0.98 -11.375 0.197 78.601 0.197 78.601 0.98 -11.375
224.708 0.975 -12.758 0.221 77.215 0.221 77.215 0.975 -12.758
249.667 0.97 -14.128 0.244 75.842 0.244 75.842 0.97 -14.128
274.625 0.964 -15.485 0.267 74.482 0.267 74.482 0.964 -15.485
299.583 0.957 -16.826 0.289 73.138 0.289 73.138 0.957 -16.826
324.542 0.95 -18.151 0.312 71.81 0.312 71.81 0.95 -18.151
349.5 0.943 -19.46 0.333 70.498 0.333 70.498 0.943 -19.46
374.458 0.935 -20.75 0.354 69.205 0.354 69.205 0.935 -20.75
399.417 0.927 -22.023 0.375 67.929 0.375 67.929 0.927 -22.023
424.375 0.918 -23.276 0.395 66.673 0.395 66.673 0.918 -23.276
449.333 0.91 -24.51 0.415 65.437 0.415 65.437 0.91 -24.51
474.292 0.9 -25.723 0.434 64.22 0.434 64.22 0.9 -25.723
499.25 0.891 -26.916 0.453 63.024 0.453 63.024 0.891 -26.916
524.208 0.882 -28.089 0.471 61.848 0.471 61.848 0.882 -28.089
549.167 0.872 -29.24 0.488 60.694 0.488 60.694 0.872 -29.24
574.125 0.862 -30.37 0.506 59.56 0.506 59.56 0.862 -30.37
599.083 0.852 -31.479 0.522 58.448 0.522 58.448 0.852 -31.479
624.042 0.842 -32.567 0.538 57.357 0.538 57.357 0.842 -32.567
649 0.832 -33.634 0.554 56.288 0.554 56.288 0.832 -33.634
673.958 0.822 -34.679 0.569 55.239 0.569 55.239 0.822 -34.679
698.917 0.811 -35.703 0.584 54.212 0.584 54.212 0.811 -35.703
723.875 0.801 -36.707 0.598 53.205 0.598 53.205 0.801 -36.707
748.833 0.79 -37.69 0.611 52.219 0.611 52.219 0.79 -37.69
773.792 0.78 -38.652 0.625 51.254 0.625 51.254 0.78 -38.652
798.75 0.769 -39.594 0.637 50.308 0.637 50.308 0.769 -39.594
823.708 0.759 -40.516 0.65 49.383 0.65 49.383 0.759 -40.516
848.667 0.749 -41.418 0.662 48.477 0.662 48.477 0.749 -41.418
873.625 0.738 -42.301 0.673 47.591 0.673 47.591 0.738 -42.301
898.583 0.728 -43.165 0.684 46.724 0.684 46.724 0.728 -43.165
923.542 0.718 -44.011 0.695 45.875 0.695 45.875 0.718 -44.011
948.5 0.708 -44.838 0.705 45.044 0.705 45.044 0.708 -44.838
973.458 0.698 -45.647 0.715 44.231 0.715 44.231 0.698 -45.647
998.417 0.688 -46.439 0.725 43.436 0.725 43.436 0.688 -46.439
1023.375 0.678 -47.214 0.734 42.658 0.734 42.658 0.678 -47.214
1048.333 0.668 -47.972 0.743 41.897 0.743 41.897 0.668 -47.972
1073.292 0.658 -48.714 0.751 41.151 0.751 41.151 0.658 -48.714
1098.25 0.648 -49.44 0.76 40.422 0.76 40.422 0.648 -49.44
1123.208 0.639 -50.15 0.768 39.708 0.768 39.708 0.639 -50.15
1148.167 0.629 -50.845 0.775 39.01 0.775 39.01 0.629 -50.845
1173.125 0.62 -51.525 0.783 38.326 0.783 38.326 0.62 -51.525
1198.083 0.611 -52.191 0.79 37.657 0.79 37.657 0.611 -52.191
1223.042 0.602 -52.843 0.797 37.001 0.797 37.001 0.602 -52.843
1248 0.593 -53.481 0.804 36.359 0.804 36.359 0.593 -53.481
1272.958 0.584 -54.105 0.81 35.731 0.81 35.731 0.584 -54.105
1297.917 0.575 -54.717 0.816 35.115 0.816 35.115 0.575 -54.717
1322.875 0.567 -55.316 0.822 34.512 0.822 34.512 0.567 -55.316
1347.833 0.558 -55.903 0.828 33.921 0.828 33.921 0.558 -55.903
1372.792 0.55 -56.478 0.834 33.342 0.834 33.342 0.55 -56.478
1397.75 0.541 -57.042 0.839 32.775 0.839 32.775 0.541 -57.042
1422.708 0.533 -57.594 0.844 32.219 0.844 32.219 0.533 -57.594
1447.667 0.525 -58.135 0.849 31.674 0.849 31.674 0.525 -58.135
1472.625 0.517 -58.666 0.854 31.139 0.854 31.139 0.517 -58.666
1497.583 0.509 -59.186 0.859 30.615 0.859 30.615 0.509 -59.186
1522.542 0.502 -59.696 0.863 30.101 0.863 30.101 0.502 -59.696
1547.5 0.494 -60.196 0.868 29.597 0.868 29.597 0.494 -60.196
1572.458 0.486 -60.686 0.872 29.102 0.872 29.102 0.486 -60.686
1597.417 0.479 -61.167 0.876 28.617 0.876 28.617 0.479 -61.167
1622.375 0.472 -61.64 0.88 28.14 0.88 28.14 0.472 -61.64
1647.333 0.464 -62.103 0.884 27.672 0.884 27.672 0.464 -62.103
1672.292 0.457 -62.558 0.887 27.213 0.887 27.213 0.457 -62.558
1697.25 0.45 -63.004 0.891 26.762 0.891 26.762 0.45 -63.004
1722.208 0.443 -63.443 0.894 26.319 0.894 26.319 0.443 -63.443
1747.167 0.437 -63.873 0.898 25.884 0.898 25.884 0.437 -63.873
1772.125 0.43 -64.296 0.901 25.456 0.901 25.456 0.43 -64.296
1797.083 0.423 -64.712 0.904 25.036 0.904 25.036 0.423 -64.712
1822.042 0.417 -65.12 0.907 24.623 0.907 24.623 0.417 -65.12
1847 0.41 -65.521 0.91 24.217 0.91 24.217 0.41 -65.521
1871.958 0.404 -65.915 0.913 23.818 0.913 23.818 0.404 -65.915
1896.917 0.398 -66.303 0.916 23.425 0.916 23.425 0.398 -66.303
1921.875 0.391 -66.684 0.918 23.039 0.918 23.039 0.391 -66.684
1946.833 0.385 -67.059 0.921 22.659 0.921 22.659 0.385 -67.059
1971.792 0.379 -67.427 0.923 22.286 0.923 22.286 0.379 -67.427
1996.75 0.373 -67.789 0.926 21.918 0.926 21.918 0.373 -67.789
2021.708 0.367 -68.146 0.928 21.556 0.928 21.556 0.367 -68.146
2046.667 0.362 -68.497 0.93 21.199 0.93 21.199 0.362 -68.497
2071.625 0.356 -68.842 0.933 20.849 0.933 20.849 0.356 -68.842
2096.583 0.35 -69.182 0.935 20.503 0.935 20.503 0.35 -69.182
2121.542 0.345 -69.516 0.937 20.163 0.937 20.163 0.345 -69.516
2146.5 0.339 -69.846 0.939 19.828 0.939 19.828 0.339 -69.846
2171.458 0.334 -70.17 0.941 19.497 0.941 19.497 0.334 -70.17
2196.417 0.328 -70.489 0.943 19.172 0.943 19.172 0.328 -70.489
2221.375 0.323 -70.804 0.944 18.851 0.944 18.851 0.323 -70.804
2246.333 0.318 -71.114 0.946 18.535 0.946 18.535 0.318 -71.114
2271.292 0.313 -71.419 0.948 18.223 0.948 18.223 0.313 -71.419
2296.25 0.308 -71.72 0.95 17.916 0.95 17.916 0.308 -71.72
2321.208 0.303 -72.016 0.951 17.613 0.951 17.613 0.303 -72.016
2346.167 0.298 -72.308 0.953 17.314 0.953 17.314 0.298 -72.308
2371.125 0.293 -72.596 0.954 17.019 0.954 17.019 0.293 -72.596
2396.083 0.288 -72.88 0.956 16.728 0.956 16.728 0.288 -72.88
2421.042 0.283 -73.16 0.957 16.441 0.957 16.441 0.283 -73.16
2446 0.278 -73.436 0.959 16.157 0.959 16.157 0.278 -73.436
2470.958 0.274 -73.708 0.96 15.878 0.96 15.878 0.274 -73.708
2495.917 0.269 -73.976 0.961 15.602 0.961 15.602 0.269 -73.976
2520.875 0.264 -74.241 0.962 15.329 0.962 15.329 0.264 -74.241
2545.833 0.26 -74.502 0.964 15.06 0.964 15.06 0.26 -74.502
2570.792 0.255 -74.76 0.965 14.794 0.965 14.794 0.255 -74.76
2595.75 0.251 -75.014 0.966 14.531 0.966 14.531 0.251 -75.014
2620.708 0.247 -75.265 0.967 14.272 0.967 14.272 0.247 -75.265
2645.667 0.242 -75.512 0.968 14.016 0.968 14.016 0.242 -75.512
2670.625 0.238 -75.757 0.969 13.762 0.969 13.762 0.238 -75.757
2695.583 0.234 -75.998 0.97 13.512 0.97 13.512 0.234 -75.998
2720.542 0.229 -76.236 0.971 13.264 0.971 13.264 0.229 -76.236
2745.5 0.225 -76.471 0.972 13.02 0.972 13.02 0.225 -76.471
2770.458 0.221 -76.702 0.973 12.778 0.973 12.778 0.221 -76.702
2795.417 0.217 -76.931 0.974 12.539 0.974 12.539 0.217 -76.931
2820.375 0.213 -77.157 0.975 12.302 0.975 12.302 0.213 -77.157
2845.333 0.209 -77.38 0.976 12.069 0.976 12.069 0.209 -77.38
2870.292 0.205 -77.601 0.977 11.837 0.977 11.837 0.205 -77.601
2895.25 0.201 -77.818 0.978 11.608 0.978 11.608 0.201 -77.818
2920.208 0.197 -78.033 0.978 11.382 0.978 11.382 0.197 -78.033
2945.167 0.194 -78.245 0.979 11.158 0.979 11.158 0.194 -78.245
2970.125 0.19 -78.454 0.98 10.936 0.98 10.936 0.19 -78.454
2995.083 0.186 -78.661 0.981 10.717 0.981 10.717 0.186 -78.661
3020.042 0.182 -78.865 0.981 10.5 0.981 10.5 0.182 -78.865
3045 0.179 -79.066 0.982 10.285 0.982 10.285 0.179 -79.066
3069.958 0.175 -79.265 0.983 10.072 0.983 10.072 0.175 -79.265
3094.917 0.171 -79.461 0.983 9.861 0.983 9.861 0.171 -79.461
3119.875 0.168 -79.655 0.984 9.652 0.984 9.652 0.168 -79.655
3144.833 0.164 -79.846 0.984 9.446 0.984 9.446 0.164 -79.846
3169.792 0.161 -80.035 0.985 9.241 0.985 9.241 0.161 -80.035
3194.75 0.157 -80.221 0.986 9.038 0.986 9.038 0.157 -80.221
3219.708 0.154 -80.405 0.986 8.837 0.986 8.837 0.154 -80.405
3244.667 0.15 -80.587 0.987 8.638 0.987 8.638 0.15 -80.587
3269.625 0.147 -80.765 0.987 8.441 0.987 8.441 0.147 -80.765
3294.583 0.143 -80.942 0.988 8.245 0.988 8.245 0.143 -80.942
3319.542 0.14 -81.116 0.988 8.052 0.988 8.052 0.14 -81.116
3344.5 0.137 -81.287 0.989 7.86 0.989 7.86 0.137 -81.287
3369.458 0.133 -81.456 0.989 7.669 0.989 7.669 0.133 -81.456
3394.417 0.13 -81.622 0.989 7.481 0.989 7.481 0.13 -81.622
3419.375 0.127 -81.786 0.99 7.294 0.99 7.294 0.127 -81.786
3444.333 0.124 -81.947 0.99 7.108 0.99 7.108 0.124 -81.947
3469.292 0.121 -82.106 0.991 6.924 0.991 6.924 0.121 -82.106
3494.25 0.117 -82.262 0.991 6.742 0.991 6.742 0.117 -82.262
3519.208 0.114 -82.415 0.991 6.561 0.991 6.561 0.114 -82.415
3544.167 0.111 -82.565 0.992 6.382 0.992 6.382 0.111 -82.565
3569.125 0.108 -82.713 0.992 6.204 0.992 6.204 0.108 -82.713
3594.083 0.105 -82.857 0.992 6.027 0.992 6.027 0.105 -82.857
3619.042 0.102 -82.999 0.993 5.852 0.993 5.852 0.102 -82.999
3644 0.099 -83.137 0.993 5.678 0.993 5.678 0.099 -83.137
3668.958 0.096 -83.272 0.993 5.506 0.993 5.506 0.096 -83.272
3693.917 0.093 -83.404 0.994 5.335 0.994 5.335 0.093 -83.404
3718.875 0.09 -83.532 0.994 5.165 0.994 5.165 0.09 -83.532
3743.833 0.087 -83.656 0.994 4.997 0.994 4.997 0.087 -83.656
3768.792 0.084 -83.777 0.994 4.829 0.994 4.829 0.084 -83.777
3793.75 0.081 -83.893 0.995 4.663 0.995 4.663 0.081 -83.893
3818.708 0.078 -84.004 0.995 4.498 0.995 4.498 0.078 -84.004
3843.667 0.076 -84.111 0.995 4.335 0.995 4.335 0.076 -84.111
3868.625 0.073 -84.213 0.995 4.172 0.995 4.172 0.073 -84.213
3893.583 0.07 -84.309 0.995 4.011 0.995 4.011 0.07 -84.309
3918.542 0.067 -84.399 0.996 3.851 0.996 3.851 0.067 -84.399
3943.5 0.064 -84.483 0.996 3.692 0.996 3.692 0.064 -84.483
3968.458 0.062 -84.559 0.996 3.534 0.996 3.534 0.062 -84.559
3993.417 0.059 -84.627 0.996 3.377 0.996 3.377 0.059 -84.627
4018.375 0.056 -84.686 0.996 3.221 0.996 3.221 0.056 -84.686
4043.333 0.054 -84.735 0.997 3.066 0.997 3.066 0.054 -84.735
4068.292 0.051 -84.773 0.997 2.913 0.997 2.913 0.051 -84.773
4093.25 0.048 -84.798 0.997 2.76 0.997 2.76 0.048 -84.798
4118.208 0.046 -84.807 0.997 2.608 0.997 2.608 0.046 -84.807
4143.167 0.043 -84.8 0.997 2.457 0.997 2.457 0.043 -84.8
4168.125 0.04 -84.771 0.997 2.307 0.997 2.307 0.04 -84.771
4193.083 0.038 -84.719 0.997 2.159 0.997 2.159 0.038 -84.719
4218.042 0.035 -84.637 0.997 2.011 0.997 2.011 0.035 -84.637
4243 0.033 -84.52 0.997 1.864 0.997 1.864 0.033 -84.52
4267.958 0.03 -84.36 0.997 1.718 0.997 1.718 0.03 -84.36
4292.917 0.028 -84.144 0.998 1.572 0.998 1.572 0.028 -84.144
4317.875 0.025 -83.856 0.998 1.428 0.998 1.428 0.025 -83.856
4342.833 0.023 -83.476 0.998 1.284 0.998 1.284 0.023 -83.476
4367.792 0.02 -82.968 0.998 1.142 0.998 1.142 0.02 -82.968
4392.75 0.018 -82.281 0.998 1 0.998 1 0.018 -82.281
4417.708 0.015 -81.332 0.998 0.859 0.998 0.859 0.015 -81.332
4442.667 0.013 -79.973 0.998 0.719 0.998 0.719 0.013 -79.973
4467.625 0.01 -77.927 0.998 0.579 0.998 0.579 0.01 -77.927
4492.583 7.963e-3 -74.595 0.998 0.441 0.998 0.441 7.963e-3 -74.595
4517.542 5.673e-3 -68.447 0.998 0.303 0.998 0.303 5.673e-3 -68.447
4542.5 3.551e-3 -54.453 0.998 0.166 0.998 0.166 3.551e-3 -54.453
4567.458 2.12e-3 -14.07 0.998 0.03 0.998 0.03 2.12e-3 -14.07
4592.417 2.766e-3 41.864 0.998 -0.106 0.998 -0.106 2.766e-3 41.864
4617.375 4.679e-3 63.688 0.998 -0.241 0.998 -0.241 4.679e-3 63.688
4642.333 6.859e-3 72.18 0.998 -0.375 0.998 -0.375 6.859e-3 72.18
4667.292 9.106e-3 76.442 0.998 -0.508 0.998 -0.508 9.106e-3 76.442
4692.25 0.011 78.945 0.998 -0.641 0.998 -0.641 0.011 78.945
4717.208 0.014 80.562 0.998 -0.773 0.998 -0.773 0.014 80.562
4742.167 0.016 81.674 0.998 -0.904 0.998 -0.904 0.016 81.674
4767.125 0.018 82.471 0.998 -1.035 0.998 -1.035 0.018 82.471
4792.083 0.02 83.061 0.998 -1.165 0.998 -1.165 0.02 83.061
4817.042 0.023 83.505 0.998 -1.294 0.998 -1.294 0.023 83.505
4842 0.025 83.845 0.998 -1.423 0.998 -1.423 0.025 83.845
4866.958 0.027 84.106 0.998 -1.551 0.998 -1.551 0.027 84.106
4891.917 0.029 84.307 0.998 -1.678 0.998 -1.678 0.029 84.307
4916.875 0.032 84.462 0.997 -1.805 0.997 -1.805 0.032 84.462
4941.833 0.034 84.579 0.997 -1.931 0.997 -1.931 0.034 84.579
4966.792 0.036 84.666 0.997 -2.057 0.997 -2.057 0.036 84.666
4991.75 0.038 84.729 0.997 -2.182 0.997 -2.182 0.038 84.729
5016.708 0.04 84.771 0.997 -2.306 0.997 -2.306 0.04 84.771
5041.667 0.042 84.796 0.997 -2.43 0.997 -2.43 0.042 84.796
5066.625 0.045 84.807 0.997 -2.553 0.997 -2.553 0.045 84.807
5091.583 0.047 84.805 0.997 -2.676 0.997 -2.676 0.047 84.805
5116.542 0.049 84.793 0.997 -2.798 0.997 -2.798 0.049 84.793
5141.5 0.051 84.772 0.997 -2.919 0.997 -2.919 0.051 84.772
5166.458 0.053 84.743 0.997 -3.04 0.997 -3.04 0.053 84.743
5191.417 0.055 84.707 0.996 -3.161 0.996 -3.161 0.055 84.707
5216.375 0.057 84.665 0.996 -3.281 0.996 -3.281 0.057 84.665
5241.333 0.059 84.618 0.996 -3.4 0.996 -3.4 0.059 84.618
5266.292 0.061 84.566 0.996 -3.519 0.996 -3.519 0.061 84.566
5291.25 0.063 84.51 0.996 -3.637 0.996 -3.637 0.063 84.51
5316.208 0.066 84.45 0.996 -3.755 0.996 -3.755 0.066 84.45
5341.167 0.068 84.387 0.996 -3.873 0.996 -3.873 0.068 84.387
5366.125 0.07 84.322 0.996 -3.99 0.996 -3.99 0.07 84.322
5391.083 0.072 84.253 0.995 -4.106 0.995 -4.106 0.072 84.253
5416.042 0.074 84.183 0.995 -4.222 0.995 -4.222 0.074 84.183
5441 0.076 84.11 0.995 -4.337 0.995 -4.337 0.076 84.11
5465.958 0.078 84.035 0.995 -4.452 0.995 -4.452 0.078 84.035
5490.917 0.08 83.959 0.995 -4.567 0.995 -4.567 0.08 83.959
5515.875 0.082 83.881 0.995 -4.681 0.995 -4.681 0.082 83.881
5540.833 0.084 83.801 0.994 -4.794 0.994 -4.794 0.084 83.801
5565.792 0.086 83.721 0.994 -4.907 0.994 -4.907 0.086 83.721
5590.75 0.088 83.639 0.994 -5.02 0.994 -5.02 0.088 83.639
5615.708 0.089 83.556 0.994 -5.132 0.994 -5.132 0.089 83.556
5640.667 0.091 83.473 0.994 -5.244 0.994 -5.244 0.091 83.473
5665.625 0.093 83.388 0.994 -5.355 0.994 -5.355 0.093 83.388
5690.583 0.095 83.303 0.993 -5.466 0.993 -5.466 0.095 83.303
5715.542 0.097 83.217 0.993 -5.577 0.993 -5.577 0.097 83.217
5740.5 0.099 83.13 0.993 -5.687 0.993 -5.687 0.099 83.13
5765.458 0.101 83.043 0.993 -5.796 0.993 -5.796 0.101 83.043
5790.417 0.103 82.956 0.993 -5.906 0.993 -5.906 0.103 82.956
5815.375 0.105 82.867 0.992 -6.015 0.992 -6.015 0.105 82.867
5840.333 0.107 82.779 0.992 -6.123 0.992 -6.123 0.107 82.779
5865.292 0.109 82.69 0.992 -6.231 0.992 -6.231 0.109 82.69
5890.25 0.11 82.601 0.992 -6.339 0.992 -6.339 0.11 82.601
5915.208 0.112 82.511 0.992 -6.446 0.992 -6.446 0.112 82.511
5940.167 0.114 82.422 0.991 -6.553 0.991 -6.553 0.114 82.422
5965.125 0.116 82.332 0.991 -6.659 0.991 -6.659 0.116 82.332
5990.083 0.118 82.241 0.991 -6.766 0.991 -6.766 0.118 82.241
6015.042 0.12 82.151 0.991 -6.871 0.991 -6.871 0.12 82.151
6040 0.121 82.061 0.991 -6.977 0.991 -6.977 0.121 82.061
6064.958 0.123 81.97 0.99 -7.082 0.99 -7.082 0.123 81.97
6089.917 0.125 81.879 0.99 -7.186 0.99 -7.186 0.125 81.879
6114.875 0.127 81.788 0.99 -7.291 0.99 -7.291 0.127 81.788
6139.833 0.129 81.698 0.99 -7.395 0.99 -7.395 0.129 81.698
6164.792 0.131 81.607 0.989 -7.498 0.989 -7.498 0.131 81.607
6189.75 0.132 81.516 0.989 -7.602 0.989 -7.602 0.132 81.516
6214.708 0.134 81.425 0.989 -7.705 0.989 -7.705 0.134 81.425
6239.667 0.136 81.334 0.989 -7.807 0.989 -7.807 0.136 81.334
6264.625 0.138 81.243 0.988 -7.909 0.988 -7.909 0.138 81.243
6289.583 0.139 81.152 0.988 -8.011 0.988 -8.011 0.139 81.152
6314.542 0.141 81.061 0.988 -8.113 0.988 -8.113 0.141 81.061
6339.5 0.143 80.97 0.988 -8.214 0.988 -8.214 0.143 80.97
6364.458 0.145 80.879 0.987 -8.315 0.987 -8.315 0.145 80.879
6389.417 0.146 80.788 0.987 -8.416 0.987 -8.416 0.146 80.788
6414.375 0.148 80.697 0.987 -8.516 0.987 -8.516 0.148 80.697
6439.333 0.15 80.607 0.987 -8.616 0.987 -8.616 0.15 80.607
6464.292 0.152 80.516 0.986 -8.716 0.986 -8.716 0.152 80.516
6489.25 0.153 80.425 0.986 -8.815 0.986 -8.815 0.153 80.425
6514.208 0.155 80.335 0.986 -8.914 0.986 -8.914 0.155 80.335
6539.167 0.157 80.244 0.986 -9.013 0.986 -9.013 0.157 80.244
6564.125 0.158 80.154 0.985 -9.111 0.985 -9.111 0.158 80.154
6589.083 0.16 80.064 0.985 -9.209 0.985 -9.209 0.16 80.064
6614.042 0.162 79.974 0.985 -9.307 0.985 -9.307 0.162 79.974
6639 0.163 79.884 0.985 -9.405 0.985 -9.405 0.163 79.884
6663.958 0.165 79.794 0.984 -9.502 0.984 -9.502 0.165 79.794
6688.917 0.167 79.704 0.984 -9.599 0.984 -9.599 0.167 79.704
6713.875 0.168 79.615 0.984 -9.696 0.984 -9.696 0.168 79.615
6738.833 0.17 79.525 0.983 -9.792 0.983 -9.792 0.17 79.525
6763.792 0.172 79.436 0.983 -9.888 0.983 -9.888 0.172 79.436
6788.75 0.173 79.347 0.983 -9.984 0.983 -9.984 0.173 79.347
6813.708 0.175 79.258 0.983 -10.08 0.983 -10.08 0.175 79.258
6838.667 0.177 79.169 0.982 -10.175 0.982 -10.175 0.177 79.169
6863.625 0.178 79.08 0.982 -10.27 0.982 -10.27 0.178 79.08
6888.583 0.18 78.991 0.982 -10.365 0.982 -10.365 0.18 78.991
6913.542 0.182 78.902 0.981 -10.459 0.981 -10.459 0.182 78.902
6938.5 0.183 78.814 0.981 -10.554 0.981 -10.554 0.183 78.814
6963.458 0.185 78.726 0.981 -10.648 0.981 -10.648 0.185 78.726
6988.417 0.186 78.638 0.98 -10.741 0.98 -10.741 0.186 78.638
7013.375 0.188 78.55 0.98 -10.835 0.98 -10.835 0.188 78.55
7038.333 0.19 78.462 0.98 -10.928 0.98 -10.928 0.19 78.462
7063.292 0.191 78.374 0.98 -11.021 0.98 -11.021 0.191 78.374
7088.25 0.193 78.287 0.979 -11.114 0.979 -11.114 0.193 78.287
7113.208 0.194 78.199 0.979 -11.206 0.979 -11.206 0.194 78.199
7138.167 0.196 78.112 0.979 -11.298 0.979 -11.298 0.196 78.112
7163.125 0.197 78.025 0.978 -11.39 0.978 -11.39 0.197 78.025
7188.083 0.199 77.938 0.978 -11.482 0.978 -11.482 0.199 77.938
7213.042 0.201 77.851 0.978 -11.573 0.978 -11.573 0.201 77.851
7238 0.202 77.765 0.977 -11.665 0.977 -11.665 0.202 77.765
7262.958 0.204 77.678 0.977 -11.755 0.977 -11.755 0.204 77.678
7287.917 0.205 77.592 0.977 -11.846 0.977 -11.846 0.205 77.592
7312.875 0.207 77.506 0.976 -11.937 0.976 -11.937 0.207 77.506
7337.833 0.208 77.42 0.976 -12.027 0.976 -12.027 0.208 77.42
7362.792 0.21 77.334 0.976 -12.117 0.976 -12.117 0.21 77.334
7387.75 0.211 77.249 0.975 -12.207 0.975 -12.207 0.211 77.249
7412.708 0.213 77.163 0.975 -12.296 0.975 -12.296 0.213 77.163
7437.667 0.215 77.078 0.975 -12.386 0.975 -12.386 0.215 77.078
7462.625 0.216 76.993 0.974 -12.475 0.974 -12.475 0.216 76.993
7487.583 0.218 76.908 0.974 -12.564 0.974 -12.564 0.218 76.908
7512.542 0.219 76.823 0.974 -12.652 0.974 -12.652 0.219 76.823
7537.5 0.221 76.738 0.973 -12.741 0.973 -12.741 0.221 76.738
7562.458 0.222 76.653 0.973 -12.829 0.973 -12.829 0.222 76.653
7587.417 0.224 76.569 0.973 -12.917 0.973 -12.917 0.224 76.569
7612.375 0.225 76.485 0.972 -13.005 0.972 -13.005 0.225 76.485
7637.333 0.227 76.401 0.972 -13.093 0.972 -13.093 0.227 76.401
7662.292 0.228 76.317 0.972 -13.18 0.972 -13.18 0.228 76.317
7687.25 0.23 76.233 0.971 -13.267 0.971 -13.267 0.23 76.233
7712.208 0.231 76.15 0.971 -13.354 0.971 -13.354 0.231 76.15
7737.167 0.232 76.066 0.971 -13.441 0.971 -13.441 0.232 76.066
7762.125 0.234 75.983 0.97 -13.527 0.97 -13.527 0.234 75.983
7787.083 0.235 75.9 0.97 -13.614 0.97 -13.614 0.235 75.9
7812.042 0.237 75.817 0.97 -13.7 0.97 -13.7 0.237 75.817
7837 0.238 75.734 0.969 -13.786 0.969 -13.786 0.238 75.734
7861.958 0.24 75.651 0.969 -13.872 0.969 -13.872 0.24 75.651
7886.917 0.241 75.569 0.968 -13.957 0.968 -13.957 0.241 75.569
7911.875 0.243 75.487 0.968 -14.042 0.968 -14.042 0.243 75.487
7936.833 0.244 75.404 0.968 -14.128 0.968 -14.128 0.244 75.404
7961.792 0.246 75.322 0.967 -14.212 0.967 -14.212 0.246 75.322
7986.75 0.247 75.24 0.967 -14.297 0.967 -14.297 0.247 75.24
8011.708 0.248 75.159 0.967 -14.382 0.967 -14.382 0.248 75.159
8036.667 0.25 75.077 0.966 -14.466 0.966 -14.466 0.25 75.077
8061.625 0.251 74.996 0.966 -14.55 0.966 -14.55 0.251 74.996
8086.583 0.253 74.915 0.966 -14.634 0.966 -14.634 0.253 74.915
8111.542 0.254 74.833 0.965 -14.718 0.965 -14.718 0.254 74.833
8136.5 0.255 74.753 0.965 -14.802 0.965 -14.802 0.255 74.753
8161.458 0.257 74.672 0.964 -14.885 0.964 -14.885 0.257 74.672
8186.417 0.258 74.591 0.964 -14.968 0.964 -14.968 0.258 74.591
8211.375 0.26 74.511 0.964 -15.051 0.964 -15.051 0.26 74.511
