# MHZ S MA R 50

50 0.998 -3.416 0.06 86.577 0.06 86.577 0.998 -3.416
74.958 0.996 -5.115 0.089 84.875 0.089 84.875 0.996 -5.115
99.917 0.993 -6.806 0.119 83.181 0.119 83.181 0.993 -6.806
124.875 0.989 -8.486 0.148 81.497 0.148 81.497 0.989 -8.486
149.833 0.984 -10.154 0.176 79.827 0.176 79.827 0.984 -10.154
174.792 0.979 -11.806 0.205 78.171 0.205 78.171 0.979 -11.806
199.75 0.973 -13.442 0.232 76.533 0.232 76.533 0.973 -13.442
224.708 0.966 -15.058 0.26 74.913 0.26 74.913 0.966 -15.058
249.667 0.958 -16.652 0.287 73.315 0.287 73.315 0.958 -16.652
274.625 0.95 -18.224 0.313 71.74 0.313 71.74 0.95 -18.224
299.583 0.941 -19.772 0.338 70.189 0.338 70.189 0.941 -19.772
324.542 0.931 -21.294 0.363 68.664 0.363 68.664 0.931 -21.294
349.5 0.922 -22.789 0.387 67.165 0.387 67.165 0.922 -22.789
374.458 0.911 -24.257 0.411 65.695 0.411 65.695 0.911 -24.257
399.417 0.901 -25.696 0.434 64.253 0.434 64.253 0.901 -25.696
424.375 0.89 -27.105 0.456 62.84 0.456 62.84 0.89 -27.105
449.333 0.878 -28.485 0.477 61.456 0.477 61.456 0.878 -28.485
474.292 0.867 -29.835 0.498 60.103 0.498 60.103 0.867 -29.835
499.25 0.855 -31.154 0.517 58.78 0.517 58.78 0.855 -31.154
524.208 0.843 -32.444 0.536 57.488 0.536 57.488 0.843 -32.444
549.167 0.831 -33.703 0.555 56.225 0.555 56.225 0.831 -33.703
574.125 0.819 -34.931 0.573 54.993 0.573 54.993 0.819 -34.931
599.083 0.807 -36.13 0.59 53.791 0.59 53.791 0.807 -36.13
624.042 0.795 -37.299 0.606 52.619 0.606 52.619 0.795 -37.299
649 0.782 -38.439 0.622 51.476 0.622 51.476 0.782 -38.439
673.958 0.77 -39.55 0.637 50.361 0.637 50.361 0.77 -39.55
698.917 0.758 -40.632 0.651 49.275 0.651 49.275 0.758 -40.632
723.875 0.746 -41.687 0.665 48.217 0.665 48.217 0.746 -41.687
748.833 0.734 -42.714 0.678 47.186 0.678 47.186 0.734 -42.714
773.792 0.722 -43.715 0.691 46.182 0.691 46.182 0.722 -43.715
798.75 0.71 -44.69 0.703 45.203 0.703 45.203 0.71 -44.69
823.708 0.698 -45.639 0.715 44.25 0.715 44.25 0.698 -45.639
848.667 0.686 -46.564 0.726 43.322 0.726 43.322 0.686 -46.564
873.625 0.675 -47.465 0.737 42.418 0.737 42.418 0.675 -47.465
898.583 0.663 -48.342 0.747 41.537 0.747 41.537 0.663 -48.342
923.542 0.652 -49.196 0.757 40.679 0.757 40.679 0.652 -49.196
948.5 0.641 -50.028 0.766 39.843 0.766 39.843 0.641 -50.028
973.458 0.63 -50.839 0.775 39.028 0.775 39.028 0.63 -50.839
998.417 0.619 -51.63 0.784 38.234 0.784 38.234 0.619 -51.63
1023.375 0.608 -52.399 0.792 37.46 0.792 37.46 0.608 -52.399
1048.333 0.598 -53.15 0.8 36.706 0.8 36.706 0.598 -53.15
1073.292 0.587 -53.882 0.808 35.97 0.808 35.97 0.587 -53.882
1098.25 0.577 -54.595 0.815 35.253 0.815 35.253 0.577 -54.595
1123.208 0.567 -55.29 0.822 34.553 0.822 34.553 0.567 -55.29
1148.167 0.557 -55.969 0.829 33.871 0.829 33.871 0.557 -55.969
1173.125 0.548 -56.631 0.835 33.205 0.835 33.205 0.548 -56.631
1198.083 0.538 -57.277 0.841 32.555 0.841 32.555 0.538 -57.277
1223.042 0.529 -57.907 0.847 31.92 0.847 31.92 0.529 -57.907
1248 0.52 -58.522 0.853 31.301 0.853 31.301 0.52 -58.522
1272.958 0.51 -59.123 0.858 30.696 0.858 30.696 0.51 -59.123
1297.917 0.502 -59.71 0.863 30.105 0.863 30.105 0.502 -59.71
1322.875 0.493 -60.283 0.868 29.527 0.868 29.527 0.493 -60.283
1347.833 0.484 -60.843 0.873 28.963 0.873 28.963 0.484 -60.843
1372.792 0.476 -61.39 0.878 28.411 0.878 28.411 0.476 -61.39
1397.75 0.467 -61.926 0.882 27.871 0.882 27.871 0.467 -61.926
1422.708 0.459 -62.449 0.887 27.343 0.887 27.343 0.459 -62.449
1447.667 0.451 -62.96 0.891 26.827 0.891 26.827 0.451 -62.96
1472.625 0.443 -63.461 0.895 26.322 0.895 26.322 0.443 -63.461
1497.583 0.436 -63.951 0.898 25.827 0.898 25.827 0.436 -63.951
1522.542 0.428 -64.43 0.902 25.343 0.902 25.343 0.428 -64.43
1547.5 0.421 -64.9 0.906 24.868 0.906 24.868 0.421 -64.9
1572.458 0.413 -65.359 0.909 24.404 0.909 24.404 0.413 -65.359
1597.417 0.406 -65.809 0.912 23.949 0.912 23.949 0.406 -65.809
1622.375 0.399 -66.25 0.915 23.503 0.915 23.503 0.399 -66.25
1647.333 0.392 -66.682 0.918 23.065 0.918 23.065 0.392 -66.682
1672.292 0.385 -67.106 0.921 22.636 0.921 22.636 0.385 -67.106
1697.25 0.378 -67.521 0.924 22.216 0.924 22.216 0.378 -67.521
1722.208 0.371 -67.928 0.927 21.803 0.927 21.803 0.371 -67.928
1747.167 0.365 -68.327 0.929 21.399 0.929 21.399 0.365 -68.327
1772.125 0.358 -68.719 0.932 21.001 0.932 21.001 0.358 -68.719
1797.083 0.352 -69.103 0.934 20.611 0.934 20.611 0.352 -69.103
1822.042 0.346 -69.48 0.937 20.228 0.937 20.228 0.346 -69.48
1847 0.34 -69.85 0.939 19.852 0.939 19.852 0.34 -69.85
1871.958 0.334 -70.214 0.941 19.483 0.941 19.483 0.334 -70.214
1896.917 0.328 -70.57 0.943 19.119 0.943 19.119 0.328 -70.57
1921.875 0.322 -70.921 0.945 18.763 0.945 18.763 0.322 -70.921
1946.833 0.316 -71.265 0.947 18.412 0.947 18.412 0.316 -71.265
1971.792 0.31 -71.604 0.949 18.067 0.949 18.067 0.31 -71.604
1996.75 0.304 -71.936 0.951 17.728 0.951 17.728 0.304 -71.936
2021.708 0.299 -72.263 0.952 17.394 0.952 17.394 0.299 -72.263
2046.667 0.293 -72.584 0.954 17.066 0.954 17.066 0.293 -72.584
2071.625 0.288 -72.9 0.956 16.742 0.956 16.742 0.288 -72.9
2096.583 0.283 -73.211 0.957 16.424 0.957 16.424 0.283 -73.211
2121.542 0.278 -73.516 0.959 16.111 0.959 16.111 0.278 -73.516
2146.5 0.272 -73.817 0.96 15.803 0.96 15.803 0.272 -73.817
2171.458 0.267 -74.113 0.962 15.499 0.962 15.499 0.267 -74.113
2196.417 0.262 -74.404 0.963 15.2 0.963 15.2 0.262 -74.404
2221.375 0.257 -74.69 0.965 14.906 0.965 14.906 0.257 -74.69
2246.333 0.252 -74.972 0.966 14.615 0.966 14.615 0.252 -74.972
2271.292 0.247 -75.25 0.967 14.329 0.967 14.329 0.247 -75.25
2296.25 0.243 -75.523 0.968 14.047 0.968 14.047 0.243 -75.523
2321.208 0.238 -75.792 0.969 13.769 0.969 13.769 0.238 -75.792
2346.167 0.233 -76.057 0.971 13.494 0.971 13.494 0.233 -76.057
2371.125 0.229 -76.318 0.972 13.224 0.972 13.224 0.229 -76.318
2396.083 0.224 -76.576 0.973 12.957 0.973 12.957 0.224 -76.576
2421.042 0.22 -76.829 0.974 12.694 0.974 12.694 0.22 -76.829
2446 0.215 -77.079 0.975 12.434 0.975 12.434 0.215 -77.079
2470.958 0.211 -77.325 0.976 12.177 0.976 12.177 0.211 -77.325
2495.917 0.207 -77.567 0.977 11.924 0.977 11.924 0.207 -77.567
2520.875 0.202 -77.806 0.977 11.674 0.977 11.674 0.202 -77.806
2545.833 0.198 -78.041 0.978 11.427 0.978 11.427 0.198 -78.041
2570.792 0.194 -78.273 0.979 11.183 0.979 11.183 0.194 -78.273
2595.75 0.19 -78.502 0.98 10.942 0.98 10.942 0.19 -78.502
2620.708 0.186 -78.727 0.981 10.704 0.981 10.704 0.186 -78.727
2645.667 0.182 -78.949 0.982 10.469 0.982 10.469 0.182 -78.949
2670.625 0.178 -79.168 0.982 10.237 0.982 10.237 0.178 -79.168
2695.583 0.174 -79.384 0.983 10.007 0.983 10.007 0.174 -79.384
2720.542 0.17 -79.596 0.984 9.78 0.984 9.78 0.17 -79.596
2745.5 0.166 -79.806 0.984 9.555 0.984 9.555 0.166 -79.806
2770.458 0.162 -80.012 0.985 9.333 0.985 9.333 0.162 -80.012
2795.417 0.158 -80.216 0.986 9.114 0.986 9.114 0.158 -80.216
2820.375 0.155 -80.416 0.986 8.897 0.986 8.897 0.155 -80.416
2845.333 0.151 -80.614 0.987 8.682 0.987 8.682 0.151 -80.614
2870.292 0.147 -80.809 0.987 8.469 0.987 8.469 0.147 -80.809
2895.25 0.144 -81 0.988 8.259 0.988 8.259 0.144 -81
2920.208 0.14 -81.189 0.988 8.051 0.988 8.051 0.14 -81.189
2945.167 0.137 -81.375 0.989 7.845 0.989 7.845 0.137 -81.375
2970.125 0.133 -81.557 0.989 7.641 0.989 7.641 0.133 -81.557
2995.083 0.129 -81.737 0.99 7.439 0.99 7.439 0.129 -81.737
3020.042 0.126 -81.914 0.99 7.24 0.99 7.24 0.126 -81.914
3045 0.123 -82.088 0.991 7.042 0.991 7.042 0.123 -82.088
3069.958 0.119 -82.259 0.991 6.846 0.991 6.846 0.119 -82.259
3094.917 0.116 -82.426 0.991 6.652 0.991 6.652 0.116 -82.426
3119.875 0.113 -82.591 0.992 6.46 0.992 6.46 0.113 -82.591
3144.833 0.109 -82.752 0.992 6.269 0.992 6.269 0.109 -82.752
3169.792 0.106 -82.91 0.993 6.08 0.993 6.08 0.106 -82.91
3194.75 0.103 -83.065 0.993 5.893 0.993 5.893 0.103 -83.065
3219.708 0.099 -83.216 0.993 5.708 0.993 5.708 0.099 -83.216
3244.667 0.096 -83.364 0.993 5.525 0.993 5.525 0.096 -83.364
3269.625 0.093 -83.508 0.994 5.343 0.994 5.343 0.093 -83.508
3294.583 0.09 -83.648 0.994 5.162 0.994 5.162 0.09 -83.648
3319.542 0.087 -83.784 0.994 4.983 0.994 4.983 0.087 -83.784
3344.5 0.084 -83.915 0.995 4.806 0.995 4.806 0.084 -83.915
3369.458 0.081 -84.042 0.995 4.63 0.995 4.63 0.081 -84.042
3394.417 0.078 -84.164 0.995 4.456 0.995 4.456 0.078 -84.164
3419.375 0.075 -84.281 0.995 4.283 0.995 4.283 0.075 -84.281
3444.333 0.072 -84.393 0.996 4.111 0.996 4.111 0.072 -84.393
3469.292 0.069 -84.498 0.996 3.941 0.996 3.941 0.069 -84.498
3494.25 0.066 -84.597 0.996 3.772 0.996 3.772 0.066 -84.597
3519.208 0.063 -84.689 0.996 3.605 0.996 3.605 0.063 -84.689
3544.167 0.06 -84.772 0.996 3.439 0.996 3.439 0.06 -84.772
3569.125 0.057 -84.847 0.996 3.274 0.996 3.274 0.057 -84.847
3594.083 0.054 -84.911 0.997 3.11 0.997 3.11 0.054 -84.911
3619.042 0.051 -84.965 0.997 2.948 0.997 2.948 0.051 -84.965
3644 0.049 -85.005 0.997 2.787 0.997 2.787 0.049 -85.005
3668.958 0.046 -85.031 0.997 2.627 0.997 2.627 0.046 -85.031
3693.917 0.043 -85.039 0.997 2.468 0.997 2.468 0.043 -85.039
3718.875 0.04 -85.026 0.997 2.31 0.997 2.31 0.04 -85.026
3743.833 0.038 -84.989 0.997 2.154 0.997 2.154 0.038 -84.989
3768.792 0.035 -84.922 0.998 1.998 0.998 1.998 0.035 -84.922
3793.75 0.032 -84.819 0.998 1.844 0.998 1.844 0.032 -84.819
3818.708 0.03 -84.671 0.998 1.69 0.998 1.69 0.03 -84.671
3843.667 0.027 -84.463 0.998 1.538 0.998 1.538 0.027 -84.463
3868.625 0.024 -84.18 0.998 1.387 0.998 1.387 0.024 -84.18
3893.583 0.022 -83.794 0.998 1.237 0.998 1.237 0.022 -83.794
3918.542 0.019 -83.265 0.998 1.087 0.998 1.087 0.019 -83.265
3943.5 0.016 -82.529 0.998 0.939 0.998 0.939 0.016 -82.529
3968.458 0.014 -81.475 0.998 0.792 0.998 0.792 0.014 -81.475
3993.417 0.011 -79.896 0.998 0.645 0.998 0.645 0.011 -79.896
4018.375 8.926e-3 -77.363 0.998 0.5 0.998 0.5 8.926e-3 -77.363
4043.333 6.482e-3 -72.814 0.998 0.356 0.998 0.356 6.482e-3 -72.814
4068.292 4.147e-3 -62.879 0.998 0.212 0.998 0.212 4.147e-3 -62.879
4093.25 2.231e-3 -32.673 0.998 0.069 0.998 0.069 2.231e-3 -32.673
4118.208 2.266e-3 33.994 0.998 -0.073 0.998 -0.073 2.266e-3 33.994
4143.167 4.176e-3 63.077 0.998 -0.214 0.998 -0.214 4.176e-3 63.077
4168.125 6.455e-3 72.744 0.998 -0.354 0.998 -0.354 6.455e-3 72.744
4193.083 8.811e-3 77.208 0.998 -0.493 0.998 -0.493 8.811e-3 77.208
4218.042 0.011 79.708 0.998 -0.632 0.998 -0.632 0.011 79.708
4243 0.014 81.275 0.998 -0.769 0.998 -0.769 0.014 81.275
4267.958 0.016 82.328 0.998 -0.906 0.998 -0.906 0.016 82.328
4292.917 0.018 83.069 0.998 -1.043 0.998 -1.043 0.018 83.069
4317.875 0.021 83.607 0.998 -1.178 0.998 -1.178 0.021 83.607
4342.833 0.023 84.005 0.998 -1.313 0.998 -1.313 0.023 84.005
4367.792 0.025 84.303 0.998 -1.446 0.998 -1.446 0.025 84.303
4392.75 0.028 84.527 0.998 -1.58 0.998 -1.58 0.028 84.527
4417.708 0.03 84.695 0.998 -1.712 0.998 -1.712 0.03 84.695
4442.667 0.032 84.819 0.998 -1.844 0.998 -1.844 0.032 84.819
4467.625 0.035 84.91 0.998 -1.975 0.998 -1.975 0.035 84.91
4492.583 0.037 84.972 0.997 -2.105 0.997 -2.105 0.037 84.972
4517.542 0.039 85.012 0.997 -2.235 0.997 -2.235 0.039 85.012
4542.5 0.041 85.033 0.997 -2.364 0.997 -2.364 0.041 85.033
4567.458 0.044 85.039 0.997 -2.492 0.997 -2.492 0.044 85.039
4592.417 0.046 85.031 0.997 -2.62 0.997 -2.62 0.046 85.031
4617.375 0.048 85.013 0.997 -2.747 0.997 -2.747 0.048 85.013
4642.333 0.05 84.985 0.997 -2.873 0.997 -2.873 0.05 84.985
4667.292 0.052 84.949 0.997 -2.999 0.997 -2.999 0.052 84.949
4692.25 0.055 84.906 0.997 -3.124 0.997 -3.124 0.055 84.906
4717.208 0.057 84.857 0.997 -3.249 0.997 -3.249 0.057 84.857
4742.167 0.059 84.803 0.996 -3.373 0.996 -3.373 0.059 84.803
4767.125 0.061 84.744 0.996 -3.496 0.996 -3.496 0.061 84.744
4792.083 0.063 84.681 0.996 -3.619 0.996 -3.619 0.063 84.681
4817.042 0.065 84.615 0.996 -3.741 0.996 -3.741 0.065 84.615
4842 0.067 84.545 0.996 -3.863 0.996 -3.863 0.067 84.545
4866.958 0.07 84.472 0.996 -3.984 0.996 -3.984 0.07 84.472
4891.917 0.072 84.397 0.996 -4.105 0.996 -4.105 0.072 84.397
4916.875 0.074 84.32 0.995 -4.225 0.995 -4.225 0.074 84.32
4941.833 0.076 84.241 0.995 -4.344 0.995 -4.344 0.076 84.241
4966.792 0.078 84.16 0.995 -4.463 0.995 -4.463 0.078 84.16
4991.75 0.08 84.077 0.995 -4.581 0.995 -4.581 0.08 84.077
5016.708 0.082 83.993 0.995 -4.699 0.995 -4.699 0.082 83.993
5041.667 0.084 83.907 0.995 -4.817 0.995 -4.817 0.084 83.907
5066.625 0.086 83.821 0.994 -4.934 0.994 -4.934 0.086 83.821
5091.583 0.088 83.733 0.994 -5.05 0.994 -5.05 0.088 83.733
5116.542 0.09 83.645 0.994 -5.166 0.994 -5.166 0.09 83.645
5141.5 0.092 83.556 0.994 -5.281 0.994 -5.281 0.092 83.556
5166.458 0.094 83.465 0.994 -5.396 0.994 -5.396 0.094 83.465
5191.417 0.096 83.375 0.994 -5.511 0.994 -5.511 0.096 83.375
5216.375 0.098 83.284 0.993 -5.625 0.993 -5.625 0.098 83.284
5241.333 0.1 83.192 0.993 -5.738 0.993 -5.738 0.1 83.192
5266.292 0.102 83.099 0.993 -5.851 0.993 -5.851 0.102 83.099
5291.25 0.104 83.007 0.993 -5.964 0.993 -5.964 0.104 83.007
5316.208 0.106 82.914 0.993 -6.076 0.993 -6.076 0.106 82.914
5341.167 0.108 82.82 0.992 -6.188 0.992 -6.188 0.108 82.82
5366.125 0.11 82.727 0.992 -6.299 0.992 -6.299 0.11 82.727
5391.083 0.112 82.633 0.992 -6.41 0.992 -6.41 0.112 82.633
5416.042 0.114 82.539 0.992 -6.521 0.992 -6.521 0.114 82.539
5441 0.115 82.444 0.991 -6.631 0.991 -6.631 0.115 82.444
5465.958 0.117 82.35 0.991 -6.74 0.991 -6.74 0.117 82.35
5490.917 0.119 82.255 0.991 -6.85 0.991 -6.85 0.119 82.255
5515.875 0.121 82.161 0.991 -6.958 0.991 -6.958 0.121 82.161
5540.833 0.123 82.066 0.991 -7.067 0.991 -7.067 0.123 82.066
5565.792 0.125 81.971 0.99 -7.175 0.99 -7.175 0.125 81.971
5590.75 0.127 81.876 0.99 -7.282 0.99 -7.282 0.127 81.876
5615.708 0.129 81.781 0.99 -7.39 0.99 -7.39 0.129 81.781
5640.667 0.13 81.686 0.99 -7.497 0.99 -7.497 0.13 81.686
5665.625 0.132 81.591 0.989 -7.603 0.989 -7.603 0.132 81.591
5690.583 0.134 81.497 0.989 -7.709 0.989 -7.709 0.134 81.497
5715.542 0.136 81.402 0.989 -7.815 0.989 -7.815 0.136 81.402
5740.5 0.138 81.307 0.989 -7.92 0.989 -7.92 0.138 81.307
5765.458 0.14 81.212 0.988 -8.025 0.988 -8.025 0.14 81.212
5790.417 0.141 81.117 0.988 -8.13 0.988 -8.13 0.141 81.117
5815.375 0.143 81.023 0.988 -8.234 0.988 -8.234 0.143 81.023
5840.333 0.145 80.928 0.988 -8.338 0.988 -8.338 0.145 80.928
5865.292 0.147 80.834 0.987 -8.442 0.987 -8.442 0.147 80.834
5890.25 0.149 80.739 0.987 -8.545 0.987 -8.545 0.149 80.739
5915.208 0.15 80.645 0.987 -8.648 0.987 -8.648 0.15 80.645
5940.167 0.152 80.551 0.987 -8.75 0.987 -8.75 0.152 80.551
5965.125 0.154 80.457 0.986 -8.853 0.986 -8.853 0.154 80.457
5990.083 0.156 80.363 0.986 -8.954 0.986 -8.954 0.156 80.363
6015.042 0.157 80.269 0.986 -9.056 0.986 -9.056 0.157 80.269
6040 0.159 80.176 0.985 -9.157 0.985 -9.157 0.159 80.176
6064.958 0.161 80.082 0.985 -9.258 0.985 -9.258 0.161 80.082
6089.917 0.163 79.989 0.985 -9.359 0.985 -9.359 0.163 79.989
6114.875 0.164 79.895 0.985 -9.459 0.985 -9.459 0.164 79.895
6139.833 0.166 79.802 0.984 -9.559 0.984 -9.559 0.166 79.802
6164.792 0.168 79.709 0.984 -9.659 0.984 -9.659 0.168 79.709
6189.75 0.169 79.617 0.984 -9.758 0.984 -9.758 0.169 79.617
6214.708 0.171 79.524 0.983 -9.857 0.983 -9.857 0.171 79.524
6239.667 0.173 79.431 0.983 -9.956 0.983 -9.956 0.173 79.431
6264.625 0.175 79.339 0.983 -10.054 0.983 -10.054 0.175 79.339
6289.583 0.176 79.247 0.982 -10.153 0.982 -10.153 0.176 79.247
6314.542 0.178 79.155 0.982 -10.25 0.982 -10.25 0.178 79.155
6339.5 0.18 79.063 0.982 -10.348 0.982 -10.348 0.18 79.063
6364.458 0.181 78.971 0.982 -10.445 0.982 -10.445 0.181 78.971
6389.417 0.183 78.88 0.981 -10.542 0.981 -10.542 0.183 78.88
6414.375 0.185 78.788 0.981 -10.639 0.981 -10.639 0.185 78.788
6439.333 0.186 78.697 0.981 -10.736 0.981 -10.736 0.186 78.697
6464.292 0.188 78.606 0.98 -10.832 0.98 -10.832 0.188 78.606
6489.25 0.19 78.515 0.98 -10.928 0.98 -10.928 0.19 78.515
6514.208 0.191 78.425 0.98 -11.023 0.98 -11.023 0.191 78.425
6539.167 0.193 78.334 0.979 -11.119 0.979 -11.119 0.193 78.334
6564.125 0.194 78.244 0.979 -11.214 0.979 -11.214 0.194 78.244
6589.083 0.196 78.154 0.979 -11.308 0.979 -11.308 0.196 78.154
6614.042 0.198 78.064 0.978 -11.403 0.978 -11.403 0.198 78.064
6639 0.199 77.974 0.978 -11.497 0.978 -11.497 0.199 77.974
6663.958 0.201 77.884 0.978 -11.591 0.978 -11.591 0.201 77.884
6688.917 0.203 77.795 0.977 -11.685 0.977 -11.685 0.203 77.795
6713.875 0.204 77.706 0.977 -11.779 0.977 -11.779 0.204 77.706
6738.833 0.206 77.617 0.977 -11.872 0.977 -11.872 0.206 77.617
6763.792 0.207 77.528 0.976 -11.965 0.976 -11.965 0.207 77.528
6788.75 0.209 77.439 0.976 -12.058 0.976 -12.058 0.209 77.439
6813.708 0.21 77.35 0.976 -12.15 0.976 -12.15 0.21 77.35
6838.667 0.212 77.262 0.975 -12.243 0.975 -12.243 0.212 77.262
6863.625 0.214 77.174 0.975 -12.335 0.975 -12.335 0.214 77.174
6888.583 0.215 77.086 0.975 -12.426 0.975 -12.426 0.215 77.086
6913.542 0.217 76.998 0.974 -12.518 0.974 -12.518 0.217 76.998
6938.5 0.218 76.91 0.974 -12.609 0.974 -12.609 0.218 76.91
6963.458 0.22 76.822 0.974 -12.7 0.974 -12.7 0.22 76.822
6988.417 0.221 76.735 0.973 -12.791 0.973 -12.791 0.221 76.735
7013.375 0.223 76.648 0.973 -12.882 0.973 -12.882 0.223 76.648
7038.333 0.224 76.561 0.973 -12.972 0.973 -12.972 0.224 76.561
7063.292 0.226 76.474 0.972 -13.062 0.972 -13.062 0.226 76.474
7088.25 0.228 76.387 0.972 -13.152 0.972 -13.152 0.228 76.387
7113.208 0.229 76.301 0.972 -13.242 0.972 -13.242 0.229 76.301
7138.167 0.231 76.215 0.971 -13.332 0.971 -13.332 0.231 76.215
7163.125 0.232 76.128 0.971 -13.421 0.971 -13.421 0.232 76.128
7188.083 0.234 76.042 0.971 -13.51 0.971 -13.51 0.234 76.042
7213.042 0.235 75.957 0.97 -13.599 0.97 -13.599 0.235 75.957
7238 0.237 75.871 0.97 -13.687 0.97 -13.687 0.237 75.871
7262.958 0.238 75.786 0.969 -13.776 0.969 -13.776 0.238 75.786
7287.917 0.24 75.7 0.969 -13.864 0.969 -13.864 0.24 75.7
7312.875 0.241 75.615 0.969 -13.952 0.969 -13.952 0.241 75.615
7337.833 0.243 75.53 0.968 -14.04 0.968 -14.04 0.243 75.53
7362.792 0.244 75.445 0.968 -14.127 0.968 -14.127 0.244 75.445
7387.75 0.246 75.361 0.968 -14.215 0.968 -14.215 0.246 75.361
7412.708 0.247 75.276 0.967 -14.302 0.967 -14.302 0.247 75.276
7437.667 0.249 75.192 0.967 -14.389 0.967 -14.389 0.249 75.192
7462.625 0.25 75.108 0.966 -14.475 0.966 -14.475 0.25 75.108
7487.583 0.251 75.024 0.966 -14.562 0.966 -14.562 0.251 75.024
7512.542 0.253 74.94 0.966 -14.648 0.966 -14.648 0.253 74.94
7537.5 0.254 74.857 0.965 -14.734 0.965 -14.734 0.254 74.857
7562.458 0.256 74.773 0.965 -14.82 0.965 -14.82 0.256 74.773
7587.417 0.257 74.69 0.965 -14.906 0.965 -14.906 0.257 74.69
7612.375 0.259 74.607 0.964 -14.992 0.964 -14.992 0.259 74.607
7637.333 0.26 74.524 0.964 -15.077 0.964 -15.077 0.26 74.524
7662.292 0.262 74.441 0.963 -15.162 0.963 -15.162 0.262 74.441
7687.25 0.263 74.358 0.963 -15.247 0.963 -15.247 0.263 74.358
7712.208 0.264 74.276 0.963 -15.332 0.963 -15.332 0.264 74.276
7737.167 0.266 74.194 0.962 -15.416 0.962 -15.416 0.266 74.194
7762.125 0.267 74.111 0.962 -15.501 0.962 -15.501 0.267 74.111
7787.083 0.269 74.029 0.961 -15.585 0.961 -15.585 0.269 74.029
7812.042 0.27 73.948 0.961 -15.669 0.961 -15.669 0.27 73.948
7837 0.271 73.866 0.961 -15.753 0.961 -15.753 0.271 73.866
7861.958 0.273 73.784 0.96 -15.837 0.96 -15.837 0.273 73.784
7886.917 0.274 73.703 0.96 -15.92 0.96 -15.92 0.274 73.703
7911.875 0.276 73.622 0.959 -16.003 0.959 -16.003 0.276 73.622
7936.833 0.277 73.541 0.959 -16.086 0.959 -16.086 0.277 73.541
7961.792 0.278 73.46 0.959 -16.169 0.959 -16.169 0.278 73.46
7986.75 0.28 73.379 0.958 -16.252 0.958 -16.252 0.28 73.379
8011.708 0.281 73.298 0.958 -16.335 0.958 -16.335 0.281 73.298
8036.667 0.283 73.218 0.957 -16.417 0.957 -16.417 0.283 73.218
8061.625 0.284 73.138 0.957 -16.499 0.957 -16.499 0.284 73.138
8086.583 0.285 73.058 0.957 -16.581 0.957 -16.581 0.285 73.058
8111.542 0.287 72.978 0.956 -16.663 0.956 -16.663 0.287 72.978
8136.5 0.288 72.898 0.956 -16.745 0.956 -16.745 0.288 72.898
8161.458 0.289 72.818 0.955 -16.826 0.955 -16.826 0.289 72.818
8186.417 0.291 72.738 0.955 -16.908 0.955 -16.908 0.291 72.738
