# MHZ S MA R 50

50 0.993 -6.81 0.119 83.18 0.119 83.18 0.993 -6.81
74.958 0.984 -10.153 0.176 79.832 0.176 79.832 0.984 -10.153
99.917 0.973 -13.431 0.232 76.548 0.232 76.548 0.973 -13.431
124.875 0.958 -16.628 0.286 73.346 0.286 73.346 0.958 -16.628
149.833 0.941 -19.727 0.338 70.242 0.338 70.242 0.941 -19.727
174.792 0.922 -22.718 0.386 67.246 0.386 67.246 0.922 -22.718
199.75 0.902 -25.591 0.432 64.368 0.432 64.368 0.902 -25.591
224.708 0.88 -28.341 0.475 61.613 0.475 61.613 0.88 -28.341
249.667 0.857 -30.964 0.515 58.984 0.515 58.984 0.857 -30.964
274.625 0.834 -33.461 0.551 56.482 0.551 56.482 0.834 -33.461
299.583 0.81 -35.831 0.585 54.106 0.585 54.106 0.81 -35.831
324.542 0.786 -38.079 0.617 51.854 0.617 51.854 0.786 -38.079
349.5 0.763 -40.206 0.646 49.721 0.646 49.721 0.763 -40.206
374.458 0.74 -42.219 0.672 47.703 0.672 47.703 0.74 -42.219
399.417 0.717 -44.122 0.696 45.794 0.696 45.794 0.717 -44.122
424.375 0.695 -45.92 0.718 43.99 0.718 43.99 0.695 -45.92
449.333 0.673 -47.62 0.739 42.285 0.739 42.285 0.673 -47.62
474.292 0.652 -49.227 0.757 40.672 0.757 40.672 0.652 -49.227
499.25 0.631 -50.747 0.774 39.147 0.774 39.147 0.631 -50.747
524.208 0.612 -52.185 0.79 37.703 0.79 37.703 0.612 -52.185
549.167 0.593 -53.547 0.804 36.336 0.804 36.336 0.593 -53.547
574.125 0.574 -54.837 0.818 35.04 0.818 35.04 0.574 -54.837
599.083 0.556 -56.06 0.83 33.811 0.83 33.811 0.556 -56.06
624.042 0.539 -57.221 0.841 32.644 0.841 32.644 0.539 -57.221
649 0.523 -58.323 0.851 31.536 0.851 31.536 0.523 -58.323
673.958 0.507 -59.371 0.86 30.482 0.86 30.482 0.507 -59.371
698.917 0.492 -60.368 0.869 29.479 0.869 29.479 0.492 -60.368
723.875 0.478 -61.318 0.877 28.523 0.877 28.523 0.478 -61.318
748.833 0.463 -62.224 0.885 27.611 0.885 27.611 0.463 -62.224
773.792 0.45 -63.088 0.892 26.741 0.892 26.741 0.45 -63.088
798.75 0.437 -63.913 0.898 25.909 0.898 25.909 0.437 -63.913
823.708 0.424 -64.702 0.904 25.114 0.904 25.114 0.424 -64.702
848.667 0.412 -65.457 0.91 24.352 0.91 24.352 0.412 -65.457
873.625 0.401 -66.18 0.915 23.623 0.915 23.623 0.401 -66.18
898.583 0.389 -66.873 0.92 22.923 0.92 22.923 0.389 -66.873
923.542 0.379 -67.538 0.924 22.251 0.924 22.251 0.379 -67.538
948.5 0.368 -68.177 0.928 21.605 0.928 21.605 0.368 -68.177
973.458 0.358 -68.791 0.932 20.984 0.932 20.984 0.358 -68.791
998.417 0.348 -69.381 0.936 20.386 0.936 20.386 0.348 -69.381
1023.375 0.339 -69.95 0.939 19.81 0.939 19.81 0.339 -69.95
1048.333 0.33 -70.497 0.943 19.255 0.943 19.255 0.33 -70.497
1073.292 0.321 -71.026 0.946 18.719 0.946 18.719 0.321 -71.026
1098.25 0.312 -71.535 0.949 18.202 0.949 18.202 0.312 -71.535
1123.208 0.304 -72.027 0.951 17.702 0.951 17.702 0.304 -72.027
1148.167 0.296 -72.503 0.954 17.219 0.954 17.219 0.296 -72.503
1173.125 0.288 -72.962 0.956 16.751 0.956 16.751 0.288 -72.962
1198.083 0.281 -73.407 0.958 16.297 0.958 16.297 0.281 -73.407
1223.042 0.273 -73.838 0.96 15.858 0.96 15.858 0.273 -73.838
1248 0.266 -74.255 0.962 15.432 0.962 15.432 0.266 -74.255
1272.958 0.259 -74.659 0.964 15.019 0.964 15.019 0.259 -74.659
1297.917 0.252 -75.052 0.966 14.617 0.966 14.617 0.252 -75.052
1322.875 0.246 -75.432 0.968 14.227 0.968 14.227 0.246 -75.432
1347.833 0.239 -75.802 0.969 13.848 0.969 13.848 0.239 -75.802
1372.792 0.233 -76.161 0.971 13.478 0.971 13.478 0.233 -76.161
1397.75 0.227 -76.51 0.972 13.119 0.972 13.119 0.227 -76.51
1422.708 0.221 -76.849 0.974 12.769 0.974 12.769 0.221 -76.849
1447.667 0.215 -77.18 0.975 12.428 0.975 12.428 0.215 -77.18
1472.625 0.21 -77.501 0.976 12.096 0.976 12.096 0.21 -77.501
1497.583 0.204 -77.814 0.977 11.772 0.977 11.772 0.204 -77.814
1522.542 0.199 -78.119 0.979 11.455 0.979 11.455 0.199 -78.119
1547.5 0.193 -78.416 0.98 11.146 0.98 11.146 0.193 -78.416
1572.458 0.188 -78.705 0.981 10.844 0.981 10.844 0.188 -78.705
1597.417 0.183 -78.987 0.982 10.549 0.982 10.549 0.183 -78.987
1622.375 0.178 -79.263 0.983 10.26 0.983 10.26 0.178 -79.263
1647.333 0.173 -79.531 0.983 9.978 0.983 9.978 0.173 -79.531
1672.292 0.169 -79.793 0.984 9.701 0.984 9.701 0.169 -79.793
1697.25 0.164 -80.049 0.985 9.43 0.985 9.43 0.164 -80.049
1722.208 0.159 -80.299 0.986 9.165 0.986 9.165 0.159 -80.299
1747.167 0.155 -80.543 0.986 8.905 0.986 8.905 0.155 -80.543
1772.125 0.15 -80.781 0.987 8.651 0.987 8.651 0.15 -80.781
1797.083 0.146 -81.014 0.988 8.401 0.988 8.401 0.146 -81.014
1822.042 0.142 -81.241 0.988 8.156 0.988 8.156 0.142 -81.241
1847 0.138 -81.463 0.989 7.915 0.989 7.915 0.138 -81.463
1871.958 0.134 -81.68 0.99 7.679 0.99 7.679 0.134 -81.68
1896.917 0.13 -81.892 0.99 7.447 0.99 7.447 0.13 -81.892
1921.875 0.126 -82.099 0.991 7.219 0.991 7.219 0.126 -82.099
1946.833 0.122 -82.301 0.991 6.995 0.991 6.995 0.122 -82.301
1971.792 0.118 -82.498 0.992 6.775 0.992 6.775 0.118 -82.498
1996.75 0.114 -82.69 0.992 6.558 0.992 6.558 0.114 -82.69
2021.708 0.111 -82.878 0.992 6.345 0.992 6.345 0.111 -82.878
2046.667 0.107 -83.061 0.993 6.136 0.993 6.136 0.107 -83.061
2071.625 0.103 -83.239 0.993 5.929 0.993 5.929 0.103 -83.239
2096.583 0.1 -83.412 0.994 5.726 0.994 5.726 0.1 -83.412
2121.542 0.096 -83.581 0.994 5.526 0.994 5.526 0.096 -83.581
2146.5 0.093 -83.745 0.994 5.329 0.994 5.329 0.093 -83.745
2171.458 0.09 -83.904 0.994 5.134 0.994 5.134 0.09 -83.904
2196.417 0.086 -84.058 0.995 4.943 0.995 4.943 0.086 -84.058
2221.375 0.083 -84.207 0.995 4.754 0.995 4.754 0.083 -84.207
2246.333 0.08 -84.351 0.995 4.568 0.995 4.568 0.08 -84.351
2271.292 0.076 -84.489 0.996 4.384 0.996 4.384 0.076 -84.489
2296.25 0.073 -84.622 0.996 4.203 0.996 4.203 0.073 -84.622
2321.208 0.07 -84.748 0.996 4.024 0.996 4.024 0.07 -84.748
2346.167 0.067 -84.868 0.996 3.847 0.996 3.847 0.067 -84.868
2371.125 0.064 -84.982 0.996 3.673 0.996 3.673 0.064 -84.982
2396.083 0.061 -85.087 0.997 3.5 0.997 3.5 0.061 -85.087
2421.042 0.058 -85.185 0.997 3.33 0.997 3.33 0.058 -85.185
2446 0.055 -85.274 0.997 3.162 0.997 3.162 0.055 -85.274
2470.958 0.052 -85.354 0.997 2.996 0.997 2.996 0.052 -85.354
2495.917 0.049 -85.422 0.997 2.832 0.997 2.832 0.049 -85.422
2520.875 0.047 -85.478 0.997 2.669 0.997 2.669 0.047 -85.478
2545.833 0.044 -85.52 0.998 2.509 0.998 2.509 0.044 -85.52
2570.792 0.041 -85.546 0.998 2.35 0.998 2.35 0.041 -85.546
2595.75 0.038 -85.552 0.998 2.193 0.998 2.193 0.038 -85.552
2620.708 0.036 -85.535 0.998 2.038 0.998 2.038 0.036 -85.535
2645.667 0.033 -85.491 0.998 1.884 0.998 1.884 0.033 -85.491
2670.625 0.03 -85.413 0.998 1.732 0.998 1.732 0.03 -85.413
2695.583 0.028 -85.292 0.998 1.581 0.998 1.581 0.028 -85.292
2720.542 0.025 -85.116 0.998 1.432 0.998 1.432 0.025 -85.116
2745.5 0.022 -84.868 0.998 1.285 0.998 1.285 0.022 -84.868
2770.458 0.02 -84.522 0.998 1.138 0.998 1.138 0.02 -84.522
2795.417 0.017 -84.037 0.998 0.994 0.998 0.994 0.017 -84.037
2820.375 0.015 -83.346 0.998 0.85 0.998 0.85 0.015 -83.346
2845.333 0.012 -82.333 0.998 0.708 0.998 0.708 0.012 -82.333
2870.292 0.01 -80.769 0.998 0.567 0.998 0.567 0.01 -80.769
2895.25 7.61e-3 -78.144 0.998 0.427 0.998 0.427 7.61e-3 -78.144
2920.208 5.265e-3 -73.067 0.998 0.289 0.998 0.289 5.265e-3 -73.067
2945.167 3.049e-3 -60.205 0.998 0.152 0.998 0.152 3.049e-3 -60.205
2970.125 1.533e-3 -10.349 0.998 0.016 0.998 0.016 1.533e-3 -10.349
2995.083 2.568e-3 53.917 0.998 -0.119 0.998 -0.119 2.568e-3 53.917
3020.042 4.664e-3 70.881 0.998 -0.253 0.998 -0.253 4.664e-3 70.881
3045 6.896e-3 76.983 0.998 -0.386 0.998 -0.386 6.896e-3 76.983
3069.958 9.151e-3 79.998 0.998 -0.517 0.998 -0.517 9.151e-3 79.998
3094.917 0.011 81.755 0.998 -0.648 0.998 -0.648 0.011 81.755
3119.875 0.014 82.88 0.998 -0.777 0.998 -0.777 0.014 82.88
3144.833 0.016 83.646 0.998 -0.906 0.998 -0.906 0.016 83.646
3169.792 0.018 84.188 0.998 -1.034 0.998 -1.034 0.018 84.188
3194.75 0.02 84.581 0.998 -1.16 0.998 -1.16 0.02 84.581
3219.708 0.022 84.871 0.998 -1.286 0.998 -1.286 0.022 84.871
3244.667 0.025 85.085 0.998 -1.411 0.998 -1.411 0.025 85.085
3269.625 0.027 85.244 0.998 -1.535 0.998 -1.535 0.027 85.244
3294.583 0.029 85.36 0.998 -1.658 0.998 -1.658 0.029 85.36
3319.542 0.031 85.442 0.998 -1.78 0.998 -1.78 0.031 85.442
3344.5 0.033 85.498 0.998 -1.901 0.998 -1.901 0.033 85.498
3369.458 0.035 85.532 0.998 -2.022 0.998 -2.022 0.035 85.532
3394.417 0.037 85.549 0.998 -2.142 0.998 -2.142 0.037 85.549
3419.375 0.039 85.552 0.998 -2.261 0.998 -2.261 0.039 85.552
3444.333 0.042 85.542 0.998 -2.379 0.998 -2.379 0.042 85.542
3469.292 0.044 85.523 0.998 -2.497 0.998 -2.497 0.044 85.523
3494.25 0.046 85.494 0.997 -2.613 0.997 -2.613 0.046 85.494
3519.208 0.048 85.459 0.997 -2.729 0.997 -2.729 0.048 85.459
3544.167 0.05 85.417 0.997 -2.845 0.997 -2.845 0.05 85.417
3569.125 0.052 85.37 0.997 -2.959 0.997 -2.959 0.052 85.37
3594.083 0.054 85.318 0.997 -3.073 0.997 -3.073 0.054 85.318
3619.042 0.056 85.262 0.997 -3.187 0.997 -3.187 0.056 85.262
3644 0.058 85.202 0.997 -3.299 0.997 -3.299 0.058 85.202
3668.958 0.06 85.14 0.997 -3.411 0.997 -3.411 0.06 85.14
3693.917 0.061 85.074 0.997 -3.523 0.997 -3.523 0.061 85.074
3718.875 0.063 85.006 0.996 -3.633 0.996 -3.633 0.063 85.006
3743.833 0.065 84.936 0.996 -3.743 0.996 -3.743 0.065 84.936
3768.792 0.067 84.864 0.996 -3.853 0.996 -3.853 0.067 84.864
3793.75 0.069 84.791 0.996 -3.962 0.996 -3.962 0.069 84.791
3818.708 0.071 84.716 0.996 -4.07 0.996 -4.07 0.071 84.716
3843.667 0.073 84.639 0.996 -4.178 0.996 -4.178 0.073 84.639
3868.625 0.075 84.562 0.996 -4.286 0.996 -4.286 0.075 84.562
3893.583 0.077 84.483 0.996 -4.392 0.996 -4.392 0.077 84.483
3918.542 0.078 84.403 0.995 -4.498 0.995 -4.498 0.078 84.403
3943.5 0.08 84.323 0.995 -4.604 0.995 -4.604 0.08 84.323
3968.458 0.082 84.242 0.995 -4.709 0.995 -4.709 0.082 84.242
3993.417 0.084 84.16 0.995 -4.814 0.995 -4.814 0.084 84.16
4018.375 0.086 84.078 0.995 -4.918 0.995 -4.918 0.086 84.078
4043.333 0.088 83.995 0.995 -5.022 0.995 -5.022 0.088 83.995
4068.292 0.089 83.912 0.995 -5.125 0.995 -5.125 0.089 83.912
4093.25 0.091 83.828 0.994 -5.228 0.994 -5.228 0.091 83.828
4118.208 0.093 83.744 0.994 -5.33 0.994 -5.33 0.093 83.744
4143.167 0.095 83.66 0.994 -5.432 0.994 -5.432 0.095 83.66
4168.125 0.096 83.575 0.994 -5.533 0.994 -5.533 0.096 83.575
4193.083 0.098 83.49 0.994 -5.634 0.994 -5.634 0.098 83.49
4218.042 0.1 83.405 0.993 -5.735 0.993 -5.735 0.1 83.405
4243 0.102 83.32 0.993 -5.835 0.993 -5.835 0.102 83.32
4267.958 0.103 83.235 0.993 -5.934 0.993 -5.934 0.103 83.235
4292.917 0.105 83.149 0.993 -6.033 0.993 -6.033 0.105 83.149
4317.875 0.107 83.064 0.993 -6.132 0.993 -6.132 0.107 83.064
4342.833 0.109 82.978 0.993 -6.231 0.993 -6.231 0.109 82.978
4367.792 0.11 82.892 0.992 -6.329 0.992 -6.329 0.11 82.892
4392.75 0.112 82.807 0.992 -6.426 0.992 -6.426 0.112 82.807
4417.708 0.114 82.721 0.992 -6.523 0.992 -6.523 0.114 82.721
4442.667 0.115 82.635 0.992 -6.62 0.992 -6.62 0.115 82.635
4467.625 0.117 82.55 0.992 -6.717 0.992 -6.717 0.117 82.55
4492.583 0.119 82.464 0.991 -6.813 0.991 -6.813 0.119 82.464
4517.542 0.12 82.378 0.991 -6.909 0.991 -6.909 0.12 82.378
4542.5 0.122 82.293 0.991 -7.004 0.991 -7.004 0.122 82.293
4567.458 0.124 82.207 0.991 -7.099 0.991 -7.099 0.124 82.207
4592.417 0.125 82.122 0.991 -7.194 0.991 -7.194 0.125 82.122
4617.375 0.127 82.036 0.99 -7.288 0.99 -7.288 0.127 82.036
4642.333 0.128 81.951 0.99 -7.382 0.99 -7.382 0.128 81.951
4667.292 0.13 81.866 0.99 -7.476 0.99 -7.476 0.13 81.866
4692.25 0.132 81.781 0.99 -7.569 0.99 -7.569 0.132 81.781
4717.208 0.133 81.696 0.99 -7.662 0.99 -7.662 0.133 81.696
4742.167 0.135 81.611 0.989 -7.755 0.989 -7.755 0.135 81.611
4767.125 0.137 81.526 0.989 -7.847 0.989 -7.847 0.137 81.526
4792.083 0.138 81.441 0.989 -7.939 0.989 -7.939 0.138 81.441
4817.042 0.14 81.357 0.989 -8.031 0.989 -8.031 0.14 81.357
4842 0.141 81.272 0.988 -8.122 0.988 -8.122 0.141 81.272
4866.958 0.143 81.188 0.988 -8.214 0.988 -8.214 0.143 81.188
4891.917 0.144 81.104 0.988 -8.304 0.988 -8.304 0.144 81.104
4916.875 0.146 81.02 0.988 -8.395 0.988 -8.395 0.146 81.02
4941.833 0.148 80.936 0.988 -8.485 0.988 -8.485 0.148 80.936
4966.792 0.149 80.852 0.987 -8.575 0.987 -8.575 0.149 80.852
4991.75 0.151 80.768 0.987 -8.665 0.987 -8.665 0.151 80.768
5016.708 0.152 80.684 0.987 -8.754 0.987 -8.754 0.152 80.684
5041.667 0.154 80.601 0.987 -8.844 0.987 -8.844 0.154 80.601
5066.625 0.155 80.518 0.986 -8.933 0.986 -8.933 0.155 80.518
5091.583 0.157 80.435 0.986 -9.021 0.986 -9.021 0.157 80.435
5116.542 0.158 80.352 0.986 -9.11 0.986 -9.11 0.158 80.352
5141.5 0.16 80.269 0.986 -9.198 0.986 -9.198 0.16 80.269
5166.458 0.161 80.186 0.985 -9.285 0.985 -9.285 0.161 80.186
5191.417 0.163 80.104 0.985 -9.373 0.985 -9.373 0.163 80.104
5216.375 0.164 80.021 0.985 -9.46 0.985 -9.46 0.164 80.021
5241.333 0.166 79.939 0.985 -9.547 0.985 -9.547 0.166 79.939
5266.292 0.167 79.857 0.984 -9.634 0.984 -9.634 0.167 79.857
5291.25 0.169 79.775 0.984 -9.721 0.984 -9.721 0.169 79.775
5316.208 0.17 79.693 0.984 -9.807 0.984 -9.807 0.17 79.693
5341.167 0.172 79.611 0.984 -9.893 0.984 -9.893 0.172 79.611
5366.125 0.173 79.53 0.983 -9.979 0.983 -9.979 0.173 79.53
5391.083 0.175 79.448 0.983 -10.065 0.983 -10.065 0.175 79.448
5416.042 0.176 79.367 0.983 -10.15 0.983 -10.15 0.176 79.367
5441 0.178 79.286 0.983 -10.236 0.983 -10.236 0.178 79.286
5465.958 0.179 79.205 0.982 -10.321 0.982 -10.321 0.179 79.205
5490.917 0.181 79.124 0.982 -10.405 0.982 -10.405 0.181 79.124
5515.875 0.182 79.044 0.982 -10.49 0.982 -10.49 0.182 79.044
5540.833 0.184 78.963 0.982 -10.574 0.982 -10.574 0.184 78.963
5565.792 0.185 78.883 0.981 -10.658 0.981 -10.658 0.185 78.883
5590.75 0.186 78.802 0.981 -10.742 0.981 -10.742 0.186 78.802
5615.708 0.188 78.722 0.981 -10.826 0.981 -10.826 0.188 78.722
5640.667 0.189 78.642 0.98 -10.909 0.98 -10.909 0.189 78.642
5665.625 0.191 78.563 0.98 -10.992 0.98 -10.992 0.191 78.563
5690.583 0.192 78.483 0.98 -11.076 0.98 -11.076 0.192 78.483
5715.542 0.194 78.404 0.98 -11.158 0.98 -11.158 0.194 78.404
5740.5 0.195 78.324 0.979 -11.241 0.979 -11.241 0.195 78.324
5765.458 0.196 78.245 0.979 -11.323 0.979 -11.323 0.196 78.245
5790.417 0.198 78.166 0.979 -11.406 0.979 -11.406 0.198 78.166
5815.375 0.199 78.087 0.978 -11.488 0.978 -11.488 0.199 78.087
5840.333 0.201 78.008 0.978 -11.57 0.978 -11.57 0.201 78.008
5865.292 0.202 77.93 0.978 -11.651 0.978 -11.651 0.202 77.93
5890.25 0.203 77.851 0.978 -11.733 0.978 -11.733 0.203 77.851
5915.208 0.205 77.773 0.977 -11.814 0.977 -11.814 0.205 77.773
5940.167 0.206 77.695 0.977 -11.895 0.977 -11.895 0.206 77.695
5965.125 0.208 77.617 0.977 -11.976 0.977 -11.976 0.208 77.617
5990.083 0.209 77.539 0.976 -12.057 0.976 -12.057 0.209 77.539
6015.042 0.21 77.461 0.976 -12.137 0.976 -12.137 0.21 77.461
6040 0.212 77.383 0.976 -12.218 0.976 -12.218 0.212 77.383
6064.958 0.213 77.306 0.976 -12.298 0.976 -12.298 0.213 77.306
6089.917 0.214 77.228 0.975 -12.378 0.975 -12.378 0.214 77.228
6114.875 0.216 77.151 0.975 -12.458 0.975 -12.458 0.216 77.151
6139.833 0.217 77.074 0.975 -12.538 0.975 -12.538 0.217 77.074
6164.792 0.218 76.997 0.974 -12.617 0.974 -12.617 0.218 76.997
6189.75 0.22 76.92 0.974 -12.696 0.974 -12.696 0.22 76.92
6214.708 0.221 76.843 0.974 -12.775 0.974 -12.775 0.221 76.843
6239.667 0.222 76.767 0.973 -12.854 0.973 -12.854 0.222 76.767
6264.625 0.224 76.69 0.973 -12.933 0.973 -12.933 0.224 76.69
6289.583 0.225 76.614 0.973 -13.012 0.973 -13.012 0.225 76.614
6314.542 0.226 76.538 0.973 -13.09 0.973 -13.09 0.226 76.538
6339.5 0.228 76.462 0.972 -13.169 0.972 -13.169 0.228 76.462
6364.458 0.229 76.386 0.972 -13.247 0.972 -13.247 0.229 76.386
6389.417 0.23 76.31 0.972 -13.325 0.972 -13.325 0.23 76.31
6414.375 0.232 76.235 0.971 -13.403 0.971 -13.403 0.232 76.235
6439.333 0.233 76.159 0.971 -13.481 0.971 -13.481 0.233 76.159
6464.292 0.234 76.084 0.971 -13.558 0.971 -13.558 0.234 76.084
6489.25 0.236 76.008 0.97 -13.635 0.97 -13.635 0.236 76.008
6514.208 0.237 75.933 0.97 -13.713 0.97 -13.713 0.237 75.933
6539.167 0.238 75.858 0.97 -13.79 0.97 -13.79 0.238 75.858
6564.125 0.24 75.783 0.969 -13.867 0.969 -13.867 0.24 75.783
6589.083 0.241 75.708 0.969 -13.943 0.969 -13.943 0.241 75.708
6614.042 0.242 75.634 0.969 -14.02 0.969 -14.02 0.242 75.634
6639 0.244 75.559 0.968 -14.097 0.968 -14.097 0.244 75.559
6663.958 0.245 75.485 0.968 -14.173 0.968 -14.173 0.245 75.485
6688.917 0.246 75.411 0.968 -14.249 0.968 -14.249 0.246 75.411
6713.875 0.247 75.336 0.967 -14.325 0.967 -14.325 0.247 75.336
6738.833 0.249 75.262 0.967 -14.401 0.967 -14.401 0.249 75.262
6763.792 0.25 75.189 0.967 -14.477 0.967 -14.477 0.25 75.189
6788.75 0.251 75.115 0.966 -14.552 0.966 -14.552 0.251 75.115
6813.708 0.253 75.041 0.966 -14.628 0.966 -14.628 0.253 75.041
6838.667 0.254 74.967 0.966 -14.703 0.966 -14.703 0.254 74.967
6863.625 0.255 74.894 0.965 -14.778 0.965 -14.778 0.255 74.894
6888.583 0.256 74.821 0.965 -14.853 0.965 -14.853 0.256 74.821
6913.542 0.258 74.747 0.965 -14.928 0.965 -14.928 0.258 74.747
6938.5 0.259 74.674 0.964 -15.003 0.964 -15.003 0.259 74.674
6963.458 0.26 74.601 0.964 -15.078 0.964 -15.078 0.26 74.601
6988.417 0.261 74.529 0.964 -15.152 0.964 -15.152 0.261 74.529
7013.375 0.263 74.456 0.963 -15.227 0.963 -15.227 0.263 74.456
7038.333 0.264 74.383 0.963 -15.301 0.963 -15.301 0.264 74.383
7063.292 0.265 74.311 0.963 -15.375 0.963 -15.375 0.265 74.311
7088.25 0.266 74.238 0.962 -15.449 0.962 -15.449 0.266 74.238
7113.208 0.268 74.166 0.962 -15.523 0.962 -15.523 0.268 74.166
7138.167 0.269 74.094 0.962 -15.597 0.962 -15.597 0.269 74.094
7163.125 0.27 74.022 0.961 -15.67 0.961 -15.67 0.27 74.022
7188.083 0.271 73.95 0.961 -15.744 0.961 -15.744 0.271 73.95
7213.042 0.273 73.878 0.961 -15.817 0.961 -15.817 0.273 73.878
7238 0.274 73.806 0.96 -15.89 0.96 -15.89 0.274 73.806
7262.958 0.275 73.735 0.96 -15.963 0.96 -15.963 0.275 73.735
7287.917 0.276 73.663 0.96 -16.036 0.96 -16.036 0.276 73.663
7312.875 0.277 73.592 0.959 -16.109 0.959 -16.109 0.277 73.592
7337.833 0.279 73.52 0.959 -16.182 0.959 -16.182 0.279 73.52
7362.792 0.28 73.449 0.959 -16.254 0.959 -16.254 0.28 73.449
7387.75 0.281 73.378 0.958 -16.327 0.958 -16.327 0.281 73.378
7412.708 0.282 73.307 0.958 -16.399 0.958 -16.399 0.282 73.307
7437.667 0.284 73.236 0.958 -16.471 0.958 -16.471 0.284 73.236
7462.625 0.285 73.166 0.957 -16.544 0.957 -16.544 0.285 73.166
7487.583 0.286 73.095 0.957 -16.616 0.957 -16.616 0.286 73.095
7512.542 0.287 73.024 0.956 -16.687 0.956 -16.687 0.287 73.024
7537.5 0.288 72.954 0.956 -16.759 0.956 -16.759 0.288 72.954
7562.458 0.29 72.884 0.956 -16.831 0.956 -16.831 0.29 72.884
7587.417 0.291 72.813 0.955 -16.902 0.955 -16.902 0.291 72.813
7612.375 0.292 72.743 0.955 -16.974 0.955 -16.974 0.292 72.743
7637.333 0.293 72.673 0.955 -17.045 0.955 -17.045 0.293 72.673
7662.292 0.294 72.603 0.954 -17.116 0.954 -17.116 0.294 72.603
7687.25 0.295 72.534 0.954 -17.187 0.954 -17.187 0.295 72.534
7712.208 0.297 72.464 0.954 -17.258 0.954 -17.258 0.297 72.464
7737.167 0.298 72.394 0.953 -17.329 0.953 -17.329 0.298 72.394
7762.125 0.299 72.325 0.953 -17.4 0.953 -17.4 0.299 72.325
7787.083 0.3 72.255 0.952 -17.47 0.952 -17.47 0.3 72.255
7812.042 0.301 72.186 0.952 -17.541 0.952 -17.541 0.301 72.186
7837 0.303 72.117 0.952 -17.611 0.952 -17.611 0.303 72.117
7861.958 0.304 72.048 0.951 -17.681 0.951 -17.681 0.304 72.048
7886.917 0.305 71.979 0.951 -17.751 0.951 -17.751 0.305 71.979
7911.875 0.306 71.91 0.951 -17.821 0.951 -17.821 0.306 71.91
7936.833 0.307 71.841 0.95 -17.891 0.95 -17.891 0.307 71.841
7961.792 0.308 71.772 0.95 -17.961 0.95 -17.961 0.308 71.772
7986.75 0.31 71.704 0.949 -18.031 0.949 -18.031 0.31 71.704
8011.708 0.311 71.635 0.949 -18.1 0.949 -18.1 0.311 71.635
8036.667 0.312 71.567 0.949 -18.17 0.949 -18.17 0.312 71.567
8061.625 0.313 71.498 0.948 -18.239 0.948 -18.239 0.313 71.498
8086.583 0.314 71.43 0.948 -18.309 0.948 -18.309 0.314 71.43
8111.542 0.315 71.362 0.948 -18.378 0.948 -18.378 0.315 71.362
8136.5 0.316 71.294 0.947 -18.447 0.947 -18.447 0.316 71.294
8161.458 0.318 71.226 0.947 -18.516 0.947 -18.516 0.318 71.226
8186.417 0.319 71.158 0.946 -18.585 0.946 -18.585 0.319 71.158
