# MHZ S MA R 50

50 0.925 -22.231 0.378 67.741 0.378 67.741 0.925 -22.231
74.958 0.852 -31.523 0.523 58.435 0.523 58.435 0.852 -31.523
99.917 0.773 -39.308 0.633 50.637 0.633 50.637 0.773 -39.308
124.875 0.697 -45.709 0.716 44.222 0.716 44.222 0.697 -45.709
149.833 0.629 -50.948 0.777 38.968 0.777 38.968 0.629 -50.948
174.792 0.569 -55.253 0.822 34.649 0.822 34.649 0.569 -55.253
199.75 0.516 -58.819 0.856 31.069 0.856 31.069 0.516 -58.819
224.708 0.471 -61.802 0.881 28.071 0.881 28.071 0.471 -61.802
249.667 0.431 -64.325 0.901 25.533 0.901 25.533 0.431 -64.325
274.625 0.397 -66.481 0.917 23.363 0.917 23.363 0.397 -66.481
299.583 0.366 -68.341 0.929 21.488 0.929 21.488 0.366 -68.341
324.542 0.34 -69.96 0.939 19.853 0.939 19.853 0.34 -69.96
349.5 0.316 -71.382 0.948 18.415 0.948 18.415 0.316 -71.382
374.458 0.295 -72.64 0.954 17.141 0.954 17.141 0.295 -72.64
399.417 0.276 -73.761 0.96 16.003 0.96 16.003 0.276 -73.761
424.375 0.258 -74.767 0.965 14.981 0.965 14.981 0.258 -74.767
449.333 0.243 -75.674 0.969 14.057 0.969 14.057 0.243 -75.674
474.292 0.229 -76.496 0.972 13.216 0.972 13.216 0.229 -76.496
499.25 0.216 -77.246 0.975 12.448 0.975 12.448 0.216 -77.246
524.208 0.204 -77.932 0.978 11.743 0.978 11.743 0.204 -77.932
549.167 0.192 -78.562 0.98 11.093 0.98 11.093 0.192 -78.562
574.125 0.182 -79.144 0.982 10.491 0.982 10.491 0.182 -79.144
599.083 0.172 -79.683 0.984 9.932 0.984 9.932 0.172 -79.683
624.042 0.163 -80.183 0.985 9.41 0.985 9.41 0.163 -80.183
649 0.155 -80.648 0.987 8.921 0.987 8.921 0.155 -80.648
673.958 0.147 -81.083 0.988 8.463 0.988 8.463 0.147 -81.083
698.917 0.14 -81.49 0.989 8.032 0.989 8.032 0.14 -81.49
723.875 0.133 -81.871 0.99 7.624 0.99 7.624 0.133 -81.871
748.833 0.126 -82.229 0.991 7.239 0.991 7.239 0.126 -82.229
773.792 0.12 -82.566 0.992 6.874 0.992 6.874 0.12 -82.566
798.75 0.114 -82.883 0.992 6.526 0.992 6.526 0.114 -82.883
823.708 0.108 -83.182 0.993 6.195 0.993 6.195 0.108 -83.182
848.667 0.102 -83.465 0.994 5.879 0.994 5.879 0.102 -83.465
873.625 0.097 -83.731 0.994 5.577 0.994 5.577 0.097 -83.731
898.583 0.092 -83.982 0.995 5.288 0.995 5.288 0.092 -83.982
923.542 0.087 -84.219 0.995 5.01 0.995 5.01 0.087 -84.219
948.5 0.083 -84.443 0.995 4.743 0.995 4.743 0.083 -84.443
973.458 0.078 -84.653 0.996 4.486 0.996 4.486 0.078 -84.653
998.417 0.074 -84.85 0.996 4.239 0.996 4.239 0.074 -84.85
1023.375 0.07 -85.035 0.996 3.999 0.996 3.999 0.07 -85.035
1048.333 0.066 -85.206 0.997 3.768 0.997 3.768 0.066 -85.206
1073.292 0.062 -85.365 0.997 3.544 0.997 3.544 0.062 -85.365
1098.25 0.058 -85.511 0.997 3.328 0.997 3.328 0.058 -85.511
1123.208 0.054 -85.643 0.997 3.117 0.997 3.117 0.054 -85.643
1148.167 0.051 -85.76 0.998 2.913 0.998 2.913 0.051 -85.76
1173.125 0.047 -85.861 0.998 2.714 0.998 2.714 0.047 -85.861
1198.083 0.044 -85.945 0.998 2.521 0.998 2.521 0.044 -85.945
1223.042 0.041 -86.01 0.998 2.333 0.998 2.333 0.041 -86.01
1248 0.038 -86.052 0.998 2.149 0.998 2.149 0.038 -86.052
1272.958 0.034 -86.067 0.998 1.97 0.998 1.97 0.034 -86.067
1297.917 0.031 -86.051 0.998 1.795 0.998 1.795 0.031 -86.051
1322.875 0.028 -85.995 0.998 1.624 0.998 1.624 0.028 -85.995
1347.833 0.025 -85.89 0.998 1.457 0.998 1.457 0.025 -85.89
1372.792 0.023 -85.718 0.999 1.293 0.999 1.293 0.023 -85.718
1397.75 0.02 -85.456 0.999 1.133 0.999 1.133 0.02 -85.456
1422.708 0.017 -85.065 0.999 0.976 0.999 0.976 0.017 -85.065
1447.667 0.014 -84.48 0.999 0.822 0.999 0.822 0.014 -84.48
1472.625 0.012 -83.577 0.999 0.67 0.999 0.67 0.012 -83.577
1497.583 9.185e-3 -82.105 0.999 0.522 0.999 0.522 9.185e-3 -82.105
1522.542 6.666e-3 -79.44 0.999 0.376 0.999 0.376 6.666e-3 -79.44
1547.5 4.225e-3 -73.567 0.999 0.232 0.999 0.232 4.225e-3 -73.567
1572.458 1.982e-3 -53.426 0.999 0.091 0.999 0.091 1.982e-3 -53.426
1597.417 1.442e-3 35.104 0.999 -0.048 0.999 -0.048 1.442e-3 35.104
1622.375 3.426e-3 69.69 0.999 -0.184 0.999 -0.184 3.426e-3 69.69
1647.333 5.691e-3 77.727 0.999 -0.319 0.999 -0.319 5.691e-3 77.727
1672.292 7.972e-3 81.045 0.999 -0.452 0.999 -0.452 7.972e-3 81.045
1697.25 0.01 82.805 0.999 -0.583 0.999 -0.583 0.01 82.805
1722.208 0.012 83.868 0.999 -0.712 0.999 -0.712 0.012 83.868
1747.167 0.015 84.559 0.999 -0.839 0.999 -0.839 0.015 84.559
1772.125 0.017 85.031 0.999 -0.965 0.999 -0.965 0.017 85.031
1797.083 0.019 85.362 0.999 -1.089 0.999 -1.089 0.019 85.362
1822.042 0.021 85.598 0.999 -1.212 0.999 -1.212 0.021 85.598
1847 0.023 85.767 0.999 -1.333 0.999 -1.333 0.023 85.767
1871.958 0.025 85.886 0.999 -1.452 0.999 -1.452 0.025 85.886
1896.917 0.027 85.968 0.998 -1.571 0.998 -1.571 0.027 85.968
1921.875 0.029 86.021 0.998 -1.688 0.998 -1.688 0.029 86.021
1946.833 0.032 86.053 0.998 -1.804 0.998 -1.804 0.032 86.053
1971.792 0.034 86.066 0.998 -1.919 0.998 -1.919 0.034 86.066
1996.75 0.035 86.065 0.998 -2.032 0.998 -2.032 0.035 86.065
2021.708 0.037 86.052 0.998 -2.145 0.998 -2.145 0.037 86.052
2046.667 0.039 86.03 0.998 -2.256 0.998 -2.256 0.039 86.03
2071.625 0.041 86 0.998 -2.366 0.998 -2.366 0.041 86
2096.583 0.043 85.963 0.998 -2.476 0.998 -2.476 0.043 85.963
2121.542 0.045 85.92 0.998 -2.584 0.998 -2.584 0.045 85.92
2146.5 0.047 85.872 0.998 -2.691 0.998 -2.691 0.047 85.872
2171.458 0.049 85.82 0.998 -2.798 0.998 -2.798 0.049 85.82
2196.417 0.051 85.765 0.998 -2.904 0.998 -2.904 0.051 85.765
2221.375 0.052 85.707 0.997 -3.009 0.997 -3.009 0.052 85.707
2246.333 0.054 85.646 0.997 -3.113 0.997 -3.113 0.054 85.646
2271.292 0.056 85.582 0.997 -3.216 0.997 -3.216 0.056 85.582
2296.25 0.058 85.517 0.997 -3.318 0.997 -3.318 0.058 85.517
2321.208 0.06 85.45 0.997 -3.42 0.997 -3.42 0.06 85.45
2346.167 0.061 85.382 0.997 -3.521 0.997 -3.521 0.061 85.382
2371.125 0.063 85.312 0.997 -3.621 0.997 -3.621 0.063 85.312
2396.083 0.065 85.241 0.997 -3.721 0.997 -3.721 0.065 85.241
2421.042 0.067 85.169 0.997 -3.82 0.997 -3.82 0.067 85.169
2446 0.068 85.096 0.996 -3.918 0.996 -3.918 0.068 85.096
2470.958 0.07 85.022 0.996 -4.016 0.996 -4.016 0.07 85.022
2495.917 0.072 84.948 0.996 -4.113 0.996 -4.113 0.072 84.948
2520.875 0.073 84.873 0.996 -4.21 0.996 -4.21 0.073 84.873
2545.833 0.075 84.797 0.996 -4.306 0.996 -4.306 0.075 84.797
2570.792 0.077 84.721 0.996 -4.401 0.996 -4.401 0.077 84.721
2595.75 0.078 84.645 0.996 -4.496 0.996 -4.496 0.078 84.645
2620.708 0.08 84.568 0.996 -4.59 0.996 -4.59 0.08 84.568
2645.667 0.082 84.492 0.995 -4.684 0.995 -4.684 0.082 84.492
2670.625 0.083 84.414 0.995 -4.778 0.995 -4.778 0.083 84.414
2695.583 0.085 84.337 0.995 -4.871 0.995 -4.871 0.085 84.337
2720.542 0.087 84.259 0.995 -4.963 0.995 -4.963 0.087 84.259
2745.5 0.088 84.182 0.995 -5.055 0.995 -5.055 0.088 84.182
2770.458 0.09 84.104 0.995 -5.146 0.995 -5.146 0.09 84.104
2795.417 0.091 84.026 0.995 -5.238 0.995 -5.238 0.091 84.026
2820.375 0.093 83.948 0.995 -5.328 0.995 -5.328 0.093 83.948
2845.333 0.094 83.869 0.994 -5.419 0.994 -5.419 0.094 83.869
2870.292 0.096 83.791 0.994 -5.508 0.994 -5.508 0.096 83.791
2895.25 0.098 83.713 0.994 -5.598 0.994 -5.598 0.098 83.713
2920.208 0.099 83.635 0.994 -5.687 0.994 -5.687 0.099 83.635
2945.167 0.101 83.557 0.994 -5.776 0.994 -5.776 0.101 83.557
2970.125 0.102 83.478 0.994 -5.864 0.994 -5.864 0.102 83.478
2995.083 0.104 83.4 0.993 -5.952 0.993 -5.952 0.104 83.4
3020.042 0.105 83.322 0.993 -6.04 0.993 -6.04 0.105 83.322
3045 0.107 83.244 0.993 -6.127 0.993 -6.127 0.107 83.244
3069.958 0.108 83.166 0.993 -6.214 0.993 -6.214 0.108 83.166
3094.917 0.11 83.088 0.993 -6.3 0.993 -6.3 0.11 83.088
3119.875 0.111 83.01 0.993 -6.387 0.993 -6.387 0.111 83.01
3144.833 0.113 82.932 0.992 -6.473 0.992 -6.473 0.113 82.932
3169.792 0.114 82.854 0.992 -6.558 0.992 -6.558 0.114 82.854
3194.75 0.116 82.776 0.992 -6.644 0.992 -6.644 0.116 82.776
3219.708 0.117 82.699 0.992 -6.729 0.992 -6.729 0.117 82.699
3244.667 0.119 82.621 0.992 -6.814 0.992 -6.814 0.119 82.621
3269.625 0.12 82.543 0.992 -6.898 0.992 -6.898 0.12 82.543
3294.583 0.122 82.466 0.991 -6.983 0.991 -6.983 0.122 82.466
3319.542 0.123 82.389 0.991 -7.067 0.991 -7.067 0.123 82.389
3344.5 0.124 82.311 0.991 -7.15 0.991 -7.15 0.124 82.311
3369.458 0.126 82.234 0.991 -7.234 0.991 -7.234 0.126 82.234
3394.417 0.127 82.157 0.991 -7.317 0.991 -7.317 0.127 82.157
3419.375 0.129 82.08 0.991 -7.4 0.991 -7.4 0.129 82.08
3444.333 0.13 82.003 0.99 -7.483 0.99 -7.483 0.13 82.003
3469.292 0.132 81.926 0.99 -7.565 0.99 -7.565 0.132 81.926
3494.25 0.133 81.85 0.99 -7.647 0.99 -7.647 0.133 81.85
3519.208 0.134 81.773 0.99 -7.729 0.99 -7.729 0.134 81.773
3544.167 0.136 81.697 0.99 -7.811 0.99 -7.811 0.136 81.697
3569.125 0.137 81.62 0.989 -7.893 0.989 -7.893 0.137 81.62
3594.083 0.139 81.544 0.989 -7.974 0.989 -7.974 0.139 81.544
3619.042 0.14 81.468 0.989 -8.055 0.989 -8.055 0.14 81.468
3644 0.142 81.392 0.989 -8.136 0.989 -8.136 0.142 81.392
3668.958 0.143 81.316 0.989 -8.217 0.989 -8.217 0.143 81.316
3693.917 0.144 81.24 0.988 -8.297 0.988 -8.297 0.144 81.24
3718.875 0.146 81.164 0.988 -8.377 0.988 -8.377 0.146 81.164
3743.833 0.147 81.088 0.988 -8.457 0.988 -8.457 0.147 81.088
3768.792 0.148 81.013 0.988 -8.537 0.988 -8.537 0.148 81.013
3793.75 0.15 80.937 0.988 -8.617 0.988 -8.617 0.15 80.937
3818.708 0.151 80.862 0.987 -8.697 0.987 -8.697 0.151 80.862
3843.667 0.153 80.787 0.987 -8.776 0.987 -8.776 0.153 80.787
3868.625 0.154 80.711 0.987 -8.855 0.987 -8.855 0.154 80.711
3893.583 0.155 80.636 0.987 -8.934 0.987 -8.934 0.155 80.636
3918.542 0.157 80.561 0.986 -9.013 0.986 -9.013 0.157 80.561
3943.5 0.158 80.487 0.986 -9.091 0.986 -9.091 0.158 80.487
3968.458 0.159 80.412 0.986 -9.17 0.986 -9.17 0.159 80.412
3993.417 0.161 80.337 0.986 -9.248 0.986 -9.248 0.161 80.337
4018.375 0.162 80.263 0.986 -9.326 0.986 -9.326 0.162 80.263
4043.333 0.163 80.188 0.985 -9.404 0.985 -9.404 0.163 80.188
4068.292 0.165 80.114 0.985 -9.482 0.985 -9.482 0.165 80.114
4093.25 0.166 80.04 0.985 -9.559 0.985 -9.559 0.166 80.04
4118.208 0.167 79.966 0.985 -9.637 0.985 -9.637 0.167 79.966
4143.167 0.169 79.891 0.985 -9.714 0.985 -9.714 0.169 79.891
4168.125 0.17 79.818 0.984 -9.791 0.984 -9.791 0.17 79.818
4193.083 0.171 79.744 0.984 -9.868 0.984 -9.868 0.171 79.744
4218.042 0.173 79.67 0.984 -9.945 0.984 -9.945 0.173 79.67
4243 0.174 79.596 0.984 -10.022 0.984 -10.022 0.174 79.596
4267.958 0.175 79.523 0.983 -10.098 0.983 -10.098 0.175 79.523
4292.917 0.177 79.449 0.983 -10.174 0.983 -10.174 0.177 79.449
4317.875 0.178 79.376 0.983 -10.251 0.983 -10.251 0.178 79.376
4342.833 0.179 79.303 0.983 -10.327 0.983 -10.327 0.179 79.303
4367.792 0.181 79.229 0.982 -10.403 0.982 -10.403 0.181 79.229
4392.75 0.182 79.156 0.982 -10.479 0.982 -10.479 0.182 79.156
4417.708 0.183 79.083 0.982 -10.554 0.982 -10.554 0.183 79.083
4442.667 0.184 79.01 0.982 -10.63 0.982 -10.63 0.184 79.01
4467.625 0.186 78.938 0.981 -10.705 0.981 -10.705 0.186 78.938
4492.583 0.187 78.865 0.981 -10.78 0.981 -10.78 0.187 78.865
4517.542 0.188 78.792 0.981 -10.856 0.981 -10.856 0.188 78.792
4542.5 0.19 78.72 0.981 -10.931 0.981 -10.931 0.19 78.72
4567.458 0.191 78.647 0.98 -11.005 0.98 -11.005 0.191 78.647
4592.417 0.192 78.575 0.98 -11.08 0.98 -11.08 0.192 78.575
4617.375 0.193 78.503 0.98 -11.155 0.98 -11.155 0.193 78.503
4642.333 0.195 78.43 0.98 -11.229 0.98 -11.229 0.195 78.43
4667.292 0.196 78.358 0.979 -11.304 0.979 -11.304 0.196 78.358
4692.25 0.197 78.286 0.979 -11.378 0.979 -11.378 0.197 78.286
4717.208 0.199 78.214 0.979 -11.452 0.979 -11.452 0.199 78.214
4742.167 0.2 78.143 0.979 -11.526 0.979 -11.526 0.2 78.143
4767.125 0.201 78.071 0.978 -11.6 0.978 -11.6 0.201 78.071
4792.083 0.202 77.999 0.978 -11.674 0.978 -11.674 0.202 77.999
4817.042 0.204 77.928 0.978 -11.748 0.978 -11.748 0.204 77.928
4842 0.205 77.856 0.978 -11.821 0.978 -11.821 0.205 77.856
4866.958 0.206 77.785 0.977 -11.895 0.977 -11.895 0.206 77.785
4891.917 0.207 77.713 0.977 -11.968 0.977 -11.968 0.207 77.713
4916.875 0.209 77.642 0.977 -12.041 0.977 -12.041 0.209 77.642
4941.833 0.21 77.571 0.977 -12.114 0.977 -12.114 0.21 77.571
4966.792 0.211 77.5 0.976 -12.187 0.976 -12.187 0.211 77.5
4991.75 0.212 77.429 0.976 -12.26 0.976 -12.26 0.212 77.429
5016.708 0.214 77.358 0.976 -12.333 0.976 -12.333 0.214 77.358
5041.667 0.215 77.287 0.975 -12.406 0.975 -12.406 0.215 77.287
5066.625 0.216 77.217 0.975 -12.478 0.975 -12.478 0.216 77.217
5091.583 0.217 77.146 0.975 -12.551 0.975 -12.551 0.217 77.146
5116.542 0.219 77.075 0.975 -12.623 0.975 -12.623 0.219 77.075
5141.5 0.22 77.005 0.974 -12.695 0.974 -12.695 0.22 77.005
5166.458 0.221 76.934 0.974 -12.768 0.974 -12.768 0.221 76.934
5191.417 0.222 76.864 0.974 -12.84 0.974 -12.84 0.222 76.864
5216.375 0.223 76.794 0.974 -12.912 0.974 -12.912 0.223 76.794
5241.333 0.225 76.724 0.973 -12.983 0.973 -12.983 0.225 76.724
5266.292 0.226 76.653 0.973 -13.055 0.973 -13.055 0.226 76.653
5291.25 0.227 76.583 0.973 -13.127 0.973 -13.127 0.227 76.583
5316.208 0.228 76.514 0.972 -13.198 0.972 -13.198 0.228 76.514
5341.167 0.23 76.444 0.972 -13.27 0.972 -13.27 0.23 76.444
5366.125 0.231 76.374 0.972 -13.341 0.972 -13.341 0.231 76.374
5391.083 0.232 76.304 0.972 -13.413 0.972 -13.413 0.232 76.304
5416.042 0.233 76.235 0.971 -13.484 0.971 -13.484 0.233 76.235
5441 0.234 76.165 0.971 -13.555 0.971 -13.555 0.234 76.165
5465.958 0.236 76.095 0.971 -13.626 0.971 -13.626 0.236 76.095
5490.917 0.237 76.026 0.97 -13.697 0.97 -13.697 0.237 76.026
5515.875 0.238 75.957 0.97 -13.768 0.97 -13.768 0.238 75.957
5540.833 0.239 75.887 0.97 -13.838 0.97 -13.838 0.239 75.887
5565.792 0.24 75.818 0.97 -13.909 0.97 -13.909 0.24 75.818
5590.75 0.242 75.749 0.969 -13.98 0.969 -13.98 0.242 75.749
5615.708 0.243 75.68 0.969 -14.05 0.969 -14.05 0.243 75.68
5640.667 0.244 75.611 0.969 -14.12 0.969 -14.12 0.244 75.611
5665.625 0.245 75.542 0.968 -14.191 0.968 -14.191 0.245 75.542
5690.583 0.246 75.473 0.968 -14.261 0.968 -14.261 0.246 75.473
5715.542 0.248 75.405 0.968 -14.331 0.968 -14.331 0.248 75.405
5740.5 0.249 75.336 0.967 -14.401 0.967 -14.401 0.249 75.336
5765.458 0.25 75.267 0.967 -14.471 0.967 -14.471 0.25 75.267
5790.417 0.251 75.199 0.967 -14.541 0.967 -14.541 0.251 75.199
5815.375 0.252 75.13 0.967 -14.61 0.967 -14.61 0.252 75.13
5840.333 0.253 75.062 0.966 -14.68 0.966 -14.68 0.253 75.062
5865.292 0.255 74.994 0.966 -14.75 0.966 -14.75 0.255 74.994
5890.25 0.256 74.926 0.966 -14.819 0.966 -14.819 0.256 74.926
5915.208 0.257 74.857 0.965 -14.889 0.965 -14.889 0.257 74.857
5940.167 0.258 74.789 0.965 -14.958 0.965 -14.958 0.258 74.789
5965.125 0.259 74.721 0.965 -15.027 0.965 -15.027 0.259 74.721
5990.083 0.26 74.653 0.964 -15.096 0.964 -15.096 0.26 74.653
6015.042 0.262 74.585 0.964 -15.165 0.964 -15.165 0.262 74.585
6040 0.263 74.518 0.964 -15.234 0.964 -15.234 0.263 74.518
6064.958 0.264 74.45 0.963 -15.303 0.963 -15.303 0.264 74.45
6089.917 0.265 74.382 0.963 -15.372 0.963 -15.372 0.265 74.382
6114.875 0.266 74.315 0.963 -15.441 0.963 -15.441 0.266 74.315
6139.833 0.267 74.247 0.962 -15.509 0.962 -15.509 0.267 74.247
6164.792 0.269 74.18 0.962 -15.578 0.962 -15.578 0.269 74.18
6189.75 0.27 74.112 0.962 -15.647 0.962 -15.647 0.27 74.112
6214.708 0.271 74.045 0.961 -15.715 0.961 -15.715 0.271 74.045
6239.667 0.272 73.978 0.961 -15.783 0.961 -15.783 0.272 73.978
6264.625 0.273 73.911 0.961 -15.852 0.961 -15.852 0.273 73.911
6289.583 0.274 73.843 0.961 -15.92 0.961 -15.92 0.274 73.843
6314.542 0.275 73.776 0.96 -15.988 0.96 -15.988 0.275 73.776
6339.5 0.277 73.709 0.96 -16.056 0.96 -16.056 0.277 73.709
6364.458 0.278 73.642 0.96 -16.124 0.96 -16.124 0.278 73.642
6389.417 0.279 73.576 0.959 -16.192 0.959 -16.192 0.279 73.576
6414.375 0.28 73.509 0.959 -16.26 0.959 -16.26 0.28 73.509
6439.333 0.281 73.442 0.959 -16.327 0.959 -16.327 0.281 73.442
6464.292 0.282 73.376 0.958 -16.395 0.958 -16.395 0.282 73.376
6489.25 0.283 73.309 0.958 -16.462 0.958 -16.462 0.283 73.309
6514.208 0.285 73.242 0.958 -16.53 0.958 -16.53 0.285 73.242
6539.167 0.286 73.176 0.957 -16.597 0.957 -16.597 0.286 73.176
6564.125 0.287 73.11 0.957 -16.665 0.957 -16.665 0.287 73.11
6589.083 0.288 73.043 0.957 -16.732 0.957 -16.732 0.288 73.043
6614.042 0.289 72.977 0.956 -16.799 0.956 -16.799 0.289 72.977
6639 0.29 72.911 0.956 -16.866 0.956 -16.866 0.29 72.911
6663.958 0.291 72.845 0.956 -16.933 0.956 -16.933 0.291 72.845
6688.917 0.292 72.779 0.955 -17 0.955 -17 0.292 72.779
6713.875 0.293 72.713 0.955 -17.067 0.955 -17.067 0.293 72.713
6738.833 0.295 72.647 0.954 -17.134 0.954 -17.134 0.295 72.647
6763.792 0.296 72.581 0.954 -17.201 0.954 -17.201 0.296 72.581
6788.75 0.297 72.515 0.954 -17.267 0.954 -17.267 0.297 72.515
6813.708 0.298 72.45 0.953 -17.334 0.953 -17.334 0.298 72.45
6838.667 0.299 72.384 0.953 -17.4 0.953 -17.4 0.299 72.384
6863.625 0.3 72.318 0.953 -17.467 0.953 -17.467 0.3 72.318
6888.583 0.301 72.253 0.952 -17.533 0.952 -17.533 0.301 72.253
6913.542 0.302 72.187 0.952 -17.6 0.952 -17.6 0.302 72.187
6938.5 0.303 72.122 0.952 -17.666 0.952 -17.666 0.303 72.122
6963.458 0.305 72.057 0.951 -17.732 0.951 -17.732 0.305 72.057
6988.417 0.306 71.992 0.951 -17.798 0.951 -17.798 0.306 71.992
7013.375 0.307 71.926 0.951 -17.864 0.951 -17.864 0.307 71.926
7038.333 0.308 71.861 0.95 -17.93 0.95 -17.93 0.308 71.861
7063.292 0.309 71.796 0.95 -17.996 0.95 -17.996 0.309 71.796
7088.25 0.31 71.731 0.95 -18.062 0.95 -18.062 0.31 71.731
7113.208 0.311 71.666 0.949 -18.127 0.949 -18.127 0.311 71.666
7138.167 0.312 71.601 0.949 -18.193 0.949 -18.193 0.312 71.601
7163.125 0.313 71.537 0.949 -18.259 0.949 -18.259 0.313 71.537
7188.083 0.314 71.472 0.948 -18.324 0.948 -18.324 0.314 71.472
7213.042 0.315 71.407 0.948 -18.39 0.948 -18.39 0.315 71.407
7238 0.317 71.343 0.947 -18.455 0.947 -18.455 0.317 71.343
7262.958 0.318 71.278 0.947 -18.52 0.947 -18.52 0.318 71.278
7287.917 0.319 71.214 0.947 -18.585 0.947 -18.585 0.319 71.214
7312.875 0.32 71.149 0.946 -18.651 0.946 -18.651 0.32 71.149
7337.833 0.321 71.085 0.946 -18.716 0.946 -18.716 0.321 71.085
7362.792 0.322 71.021 0.946 -18.781 0.946 -18.781 0.322 71.021
7387.75 0.323 70.956 0.945 -18.846 0.945 -18.846 0.323 70.956
7412.708 0.324 70.892 0.945 -18.911 0.945 -18.911 0.324 70.892
7437.667 0.325 70.828 0.945 -18.975 0.945 -18.975 0.325 70.828
7462.625 0.326 70.764 0.944 -19.04 0.944 -19.04 0.326 70.764
7487.583 0.327 70.7 0.944 -19.105 0.944 -19.105 0.327 70.7
7512.542 0.328 70.636 0.943 -19.169 0.943 -19.169 0.328 70.636
7537.5 0.329 70.573 0.943 -19.234 0.943 -19.234 0.329 70.573
7562.458 0.33 70.509 0.943 -19.298 0.943 -19.298 0.33 70.509
7587.417 0.332 70.445 0.942 -19.363 0.942 -19.363 0.332 70.445
7612.375 0.333 70.381 0.942 -19.427 0.942 -19.427 0.333 70.381
7637.333 0.334 70.318 0.942 -19.491 0.942 -19.491 0.334 70.318
7662.292 0.335 70.254 0.941 -19.555 0.941 -19.555 0.335 70.254
7687.25 0.336 70.191 0.941 -19.62 0.941 -19.62 0.336 70.191
7712.208 0.337 70.128 0.94 -19.684 0.94 -19.684 0.337 70.128
7737.167 0.338 70.064 0.94 -19.748 0.94 -19.748 0.338 70.064
7762.125 0.339 70.001 0.94 -19.812 0.94 -19.812 0.339 70.001
7787.083 0.34 69.938 0.939 -19.875 0.939 -19.875 0.34 69.938
7812.042 0.341 69.875 0.939 -19.939 0.939 -19.939 0.341 69.875
7837 0.342 69.812 0.939 -20.003 0.939 -20.003 0.342 69.812
7861.958 0.343 69.749 0.938 -20.067 0.938 -20.067 0.343 69.749
7886.917 0.344 69.686 0.938 -20.13 0.938 -20.13 0.344 69.686
7911.875 0.345 69.623 0.937 -20.194 0.937 -20.194 0.345 69.623
7936.833 0.346 69.56 0.937 -20.257 0.937 -20.257 0.346 69.56
7961.792 0.347 69.497 0.937 -20.32 0.937 -20.32 0.347 69.497
7986.75 0.348 69.434 0.936 -20.384 0.936 -20.384 0.348 69.434
8011.708 0.349 69.372 0.936 -20.447 0.936 -20.447 0.349 69.372
8036.667 0.35 69.309 0.936 -20.51 0.936 -20.51 0.35 69.309
8061.625 0.351 69.247 0.935 -20.573 0.935 -20.573 0.351 69.247
8086.583 0.352 69.184 0.935 -20.636 0.935 -20.636 0.352 69.184
8111.542 0.353 69.122 0.934 -20.699 0.934 -20.699 0.353 69.122
8136.5 0.354 69.06 0.934 -20.762 0.934 -20.762 0.354 69.06
8161.458 0.356 68.997 0.934 -20.825 0.934 -20.825 0.356 68.997
8186.417 0.357 68.935 0.933 -20.888 0.933 -20.888 0.357 68.935
8211.375 0.358 68.873 0.933 -20.951 0.933 -20.951 0.358 68.873
