# MHZ S MA R 50

50 0.858 -30.86 0.513 59.101 0.513 59.101 0.858 -30.86
74.958 0.744 -41.892 0.668 48.049 0.668 48.049 0.744 -41.892
99.917 0.64 -50.144 0.768 39.777 0.768 39.777 0.64 -50.144
124.875 0.553 -56.321 0.832 33.58 0.832 33.58 0.553 -56.321
149.833 0.483 -61.023 0.875 28.857 0.875 28.857 0.483 -61.023
174.792 0.425 -64.682 0.904 25.178 0.904 25.178 0.425 -64.682
199.75 0.379 -67.592 0.924 22.247 0.924 22.247 0.379 -67.592
224.708 0.34 -69.953 0.939 19.865 0.939 19.865 0.34 -69.953
249.667 0.307 -71.903 0.951 17.893 0.951 17.893 0.307 -71.903
274.625 0.28 -73.54 0.959 16.234 0.959 16.234 0.28 -73.54
299.583 0.256 -74.932 0.966 14.819 0.966 14.819 0.256 -74.932
324.542 0.235 -76.131 0.971 13.596 0.971 13.596 0.235 -76.131
349.5 0.217 -77.175 0.975 12.529 0.975 12.529 0.217 -77.175
374.458 0.201 -78.092 0.978 11.587 0.978 11.587 0.201 -78.092
399.417 0.187 -78.904 0.981 10.75 0.981 10.75 0.187 -78.904
424.375 0.174 -79.628 0.984 9.999 0.984 9.999 0.174 -79.628
449.333 0.162 -80.278 0.986 9.321 0.986 9.321 0.162 -80.278
474.292 0.151 -80.866 0.987 8.704 0.987 8.704 0.151 -80.866
499.25 0.142 -81.399 0.989 8.141 0.989 8.141 0.142 -81.399
524.208 0.133 -81.885 0.99 7.624 0.99 7.624 0.133 -81.885
549.167 0.124 -82.329 0.991 7.146 0.991 7.146 0.124 -82.329
574.125 0.117 -82.737 0.992 6.703 0.992 6.703 0.117 -82.737
599.083 0.11 -83.113 0.993 6.29 0.993 6.29 0.11 -83.113
624.042 0.103 -83.46 0.994 5.904 0.994 5.904 0.103 -83.46
649 0.097 -83.78 0.994 5.542 0.994 5.542 0.097 -83.78
673.958 0.091 -84.076 0.995 5.201 0.995 5.201 0.091 -84.076
698.917 0.085 -84.35 0.995 4.879 0.995 4.879 0.085 -84.35
723.875 0.08 -84.603 0.996 4.574 0.996 4.574 0.08 -84.603
748.833 0.075 -84.836 0.996 4.285 0.996 4.285 0.075 -84.836
773.792 0.07 -85.051 0.996 4.01 0.996 4.01 0.07 -85.051
798.75 0.065 -85.248 0.997 3.747 0.997 3.747 0.065 -85.248
823.708 0.061 -85.427 0.997 3.496 0.997 3.496 0.061 -85.427
848.667 0.057 -85.587 0.997 3.255 0.997 3.255 0.057 -85.587
873.625 0.053 -85.73 0.997 3.025 0.997 3.025 0.053 -85.73
898.583 0.049 -85.853 0.998 2.802 0.998 2.802 0.049 -85.853
923.542 0.045 -85.956 0.998 2.588 0.998 2.588 0.045 -85.956
948.5 0.042 -86.036 0.998 2.382 0.998 2.382 0.042 -86.036
973.458 0.038 -86.091 0.998 2.182 0.998 2.182 0.038 -86.091
998.417 0.035 -86.116 0.998 1.989 0.998 1.989 0.035 -86.116
1023.375 0.031 -86.107 0.998 1.802 0.998 1.802 0.031 -86.107
1048.333 0.028 -86.054 0.998 1.62 0.998 1.62 0.028 -86.054
1073.292 0.025 -85.947 0.999 1.444 0.999 1.444 0.025 -85.947
1098.25 0.022 -85.767 0.999 1.272 0.999 1.272 0.022 -85.767
1123.208 0.019 -85.487 0.999 1.105 0.999 1.105 0.019 -85.487
1148.167 0.016 -85.061 0.999 0.942 0.999 0.942 0.016 -85.061
1173.125 0.014 -84.412 0.999 0.783 0.999 0.783 0.014 -84.412
1198.083 0.011 -83.385 0.999 0.628 0.999 0.628 0.011 -83.385
1223.042 8.381e-3 -81.646 0.999 0.476 0.999 0.476 8.381e-3 -81.646
1248 5.822e-3 -78.292 0.999 0.327 0.999 0.327 5.822e-3 -78.292
1272.958 3.368e-3 -69.876 0.999 0.181 0.999 0.181 3.368e-3 -69.876
1297.917 1.333e-3 -30.422 0.999 0.039 0.999 0.039 1.333e-3 -30.422
1322.875 2.108e-3 56.872 0.999 -0.101 0.999 -0.101 2.108e-3 56.872
1347.833 4.321e-3 74.341 0.999 -0.239 0.999 -0.239 4.321e-3 74.341
1372.792 6.621e-3 79.634 0.999 -0.374 0.999 -0.374 6.621e-3 79.634
1397.75 8.909e-3 82.085 0.999 -0.506 0.999 -0.506 8.909e-3 82.085
1422.708 0.011 83.461 0.999 -0.637 0.999 -0.637 0.011 83.461
1447.667 0.013 84.318 0.999 -0.765 0.999 -0.765 0.013 84.318
1472.625 0.016 84.886 0.999 -0.891 0.999 -0.891 0.016 84.886
1497.583 0.018 85.277 0.999 -1.016 0.999 -1.016 0.018 85.277
1522.542 0.02 85.553 0.999 -1.139 0.999 -1.139 0.02 85.553
1547.5 0.022 85.75 0.999 -1.26 0.999 -1.26 0.022 85.75
1572.458 0.024 85.889 0.999 -1.379 0.999 -1.379 0.024 85.889
1597.417 0.026 85.986 0.999 -1.497 0.999 -1.497 0.026 85.986
1622.375 0.028 86.051 0.998 -1.613 0.998 -1.613 0.028 86.051
1647.333 0.03 86.091 0.998 -1.728 0.998 -1.728 0.03 86.091
1672.292 0.032 86.112 0.998 -1.842 0.998 -1.842 0.032 86.112
1697.25 0.034 86.117 0.998 -1.954 0.998 -1.954 0.034 86.117
1722.208 0.036 86.11 0.998 -2.065 0.998 -2.065 0.036 86.11
1747.167 0.038 86.092 0.998 -2.175 0.998 -2.175 0.038 86.092
1772.125 0.04 86.066 0.998 -2.284 0.998 -2.284 0.04 86.066
1797.083 0.042 86.033 0.998 -2.391 0.998 -2.391 0.042 86.033
1822.042 0.044 85.994 0.998 -2.498 0.998 -2.498 0.044 85.994
1847 0.045 85.949 0.998 -2.604 0.998 -2.604 0.045 85.949
1871.958 0.047 85.9 0.998 -2.708 0.998 -2.708 0.047 85.9
1896.917 0.049 85.848 0.998 -2.812 0.998 -2.812 0.049 85.848
1921.875 0.051 85.793 0.998 -2.915 0.998 -2.915 0.051 85.793
1946.833 0.053 85.734 0.997 -3.017 0.997 -3.017 0.053 85.734
1971.792 0.054 85.674 0.997 -3.118 0.997 -3.118 0.054 85.674
1996.75 0.056 85.611 0.997 -3.218 0.997 -3.218 0.056 85.611
2021.708 0.058 85.547 0.997 -3.318 0.997 -3.318 0.058 85.547
2046.667 0.06 85.481 0.997 -3.417 0.997 -3.417 0.06 85.481
2071.625 0.061 85.414 0.997 -3.515 0.997 -3.515 0.061 85.414
2096.583 0.063 85.345 0.997 -3.612 0.997 -3.612 0.063 85.345
2121.542 0.065 85.276 0.997 -3.709 0.997 -3.709 0.065 85.276
2146.5 0.066 85.205 0.997 -3.805 0.997 -3.805 0.066 85.205
2171.458 0.068 85.134 0.997 -3.901 0.997 -3.901 0.068 85.134
2196.417 0.07 85.062 0.996 -3.996 0.996 -3.996 0.07 85.062
2221.375 0.071 84.989 0.996 -4.09 0.996 -4.09 0.071 84.989
2246.333 0.073 84.916 0.996 -4.184 0.996 -4.184 0.073 84.916
2271.292 0.075 84.843 0.996 -4.277 0.996 -4.277 0.075 84.843
2296.25 0.076 84.769 0.996 -4.37 0.996 -4.37 0.076 84.769
2321.208 0.078 84.695 0.996 -4.462 0.996 -4.462 0.078 84.695
2346.167 0.079 84.62 0.996 -4.554 0.996 -4.554 0.079 84.62
2371.125 0.081 84.545 0.996 -4.645 0.996 -4.645 0.081 84.545
2396.083 0.083 84.47 0.995 -4.736 0.995 -4.736 0.083 84.47
2421.042 0.084 84.394 0.995 -4.826 0.995 -4.826 0.084 84.394
2446 0.086 84.319 0.995 -4.916 0.995 -4.916 0.086 84.319
2470.958 0.087 84.243 0.995 -5.005 0.995 -5.005 0.087 84.243
2495.917 0.089 84.168 0.995 -5.094 0.995 -5.094 0.089 84.168
2520.875 0.09 84.092 0.995 -5.183 0.995 -5.183 0.09 84.092
2545.833 0.092 84.016 0.995 -5.271 0.995 -5.271 0.092 84.016
2570.792 0.093 83.94 0.994 -5.359 0.994 -5.359 0.093 83.94
2595.75 0.095 83.863 0.994 -5.446 0.994 -5.446 0.095 83.863
2620.708 0.096 83.787 0.994 -5.533 0.994 -5.533 0.096 83.787
2645.667 0.098 83.711 0.994 -5.62 0.994 -5.62 0.098 83.711
2670.625 0.099 83.635 0.994 -5.706 0.994 -5.706 0.099 83.635
2695.583 0.101 83.559 0.994 -5.792 0.994 -5.792 0.101 83.559
2720.542 0.102 83.483 0.994 -5.878 0.994 -5.878 0.102 83.483
2745.5 0.104 83.406 0.993 -5.963 0.993 -5.963 0.104 83.406
2770.458 0.105 83.33 0.993 -6.048 0.993 -6.048 0.105 83.33
2795.417 0.107 83.254 0.993 -6.133 0.993 -6.133 0.107 83.254
2820.375 0.108 83.178 0.993 -6.218 0.993 -6.218 0.108 83.178
2845.333 0.11 83.102 0.993 -6.302 0.993 -6.302 0.11 83.102
2870.292 0.111 83.026 0.993 -6.386 0.993 -6.386 0.111 83.026
2895.25 0.113 82.95 0.992 -6.469 0.992 -6.469 0.113 82.95
2920.208 0.114 82.874 0.992 -6.553 0.992 -6.553 0.114 82.874
2945.167 0.116 82.798 0.992 -6.636 0.992 -6.636 0.116 82.798
2970.125 0.117 82.723 0.992 -6.719 0.992 -6.719 0.117 82.723
2995.083 0.118 82.647 0.992 -6.801 0.992 -6.801 0.118 82.647
3020.042 0.12 82.571 0.992 -6.884 0.992 -6.884 0.12 82.571
3045 0.121 82.496 0.991 -6.966 0.991 -6.966 0.121 82.496
3069.958 0.123 82.42 0.991 -7.047 0.991 -7.047 0.123 82.42
3094.917 0.124 82.345 0.991 -7.129 0.991 -7.129 0.124 82.345
3119.875 0.126 82.269 0.991 -7.21 0.991 -7.21 0.126 82.269
3144.833 0.127 82.194 0.991 -7.292 0.991 -7.292 0.127 82.194
3169.792 0.128 82.119 0.991 -7.373 0.991 -7.373 0.128 82.119
3194.75 0.13 82.044 0.99 -7.453 0.99 -7.453 0.13 82.044
3219.708 0.131 81.968 0.99 -7.534 0.99 -7.534 0.131 81.968
3244.667 0.133 81.893 0.99 -7.614 0.99 -7.614 0.133 81.893
3269.625 0.134 81.819 0.99 -7.694 0.99 -7.694 0.134 81.819
3294.583 0.135 81.744 0.99 -7.774 0.99 -7.774 0.135 81.744
3319.542 0.137 81.669 0.989 -7.854 0.989 -7.854 0.137 81.669
3344.5 0.138 81.594 0.989 -7.933 0.989 -7.933 0.138 81.594
3369.458 0.139 81.52 0.989 -8.013 0.989 -8.013 0.139 81.52
3394.417 0.141 81.445 0.989 -8.092 0.989 -8.092 0.141 81.445
3419.375 0.142 81.371 0.989 -8.171 0.989 -8.171 0.142 81.371
3444.333 0.143 81.296 0.989 -8.25 0.989 -8.25 0.143 81.296
3469.292 0.145 81.222 0.988 -8.328 0.988 -8.328 0.145 81.222
3494.25 0.146 81.148 0.988 -8.407 0.988 -8.407 0.146 81.148
3519.208 0.148 81.074 0.988 -8.485 0.988 -8.485 0.148 81.074
3544.167 0.149 81 0.988 -8.563 0.988 -8.563 0.149 81
3569.125 0.15 80.926 0.988 -8.641 0.988 -8.641 0.15 80.926
3594.083 0.152 80.852 0.987 -8.719 0.987 -8.719 0.152 80.852
3619.042 0.153 80.778 0.987 -8.797 0.987 -8.797 0.153 80.778
3644 0.154 80.704 0.987 -8.874 0.987 -8.874 0.154 80.704
3668.958 0.156 80.631 0.987 -8.951 0.987 -8.951 0.156 80.631
3693.917 0.157 80.557 0.986 -9.029 0.986 -9.029 0.157 80.557
3718.875 0.158 80.484 0.986 -9.106 0.986 -9.106 0.158 80.484
3743.833 0.16 80.41 0.986 -9.182 0.986 -9.182 0.16 80.41
3768.792 0.161 80.337 0.986 -9.259 0.986 -9.259 0.161 80.337
3793.75 0.162 80.264 0.986 -9.336 0.986 -9.336 0.162 80.264
3818.708 0.164 80.191 0.985 -9.412 0.985 -9.412 0.164 80.191
3843.667 0.165 80.118 0.985 -9.489 0.985 -9.489 0.165 80.118
3868.625 0.166 80.045 0.985 -9.565 0.985 -9.565 0.166 80.045
3893.583 0.167 79.972 0.985 -9.641 0.985 -9.641 0.167 79.972
3918.542 0.169 79.899 0.985 -9.717 0.985 -9.717 0.169 79.899
3943.5 0.17 79.826 0.984 -9.792 0.984 -9.792 0.17 79.826
3968.458 0.171 79.753 0.984 -9.868 0.984 -9.868 0.171 79.753
3993.417 0.173 79.681 0.984 -9.944 0.984 -9.944 0.173 79.681
4018.375 0.174 79.608 0.984 -10.019 0.984 -10.019 0.174 79.608
4043.333 0.175 79.536 0.983 -10.094 0.983 -10.094 0.175 79.536
4068.292 0.177 79.464 0.983 -10.169 0.983 -10.169 0.177 79.464
4093.25 0.178 79.391 0.983 -10.245 0.983 -10.245 0.178 79.391
4118.208 0.179 79.319 0.983 -10.319 0.983 -10.319 0.179 79.319
4143.167 0.18 79.247 0.982 -10.394 0.982 -10.394 0.18 79.247
4168.125 0.182 79.175 0.982 -10.469 0.982 -10.469 0.182 79.175
4193.083 0.183 79.103 0.982 -10.543 0.982 -10.543 0.183 79.103
4218.042 0.184 79.031 0.982 -10.618 0.982 -10.618 0.184 79.031
4243 0.186 78.959 0.982 -10.692 0.982 -10.692 0.186 78.959
4267.958 0.187 78.887 0.981 -10.766 0.981 -10.766 0.187 78.887
4292.917 0.188 78.816 0.981 -10.841 0.981 -10.841 0.188 78.816
4317.875 0.189 78.744 0.981 -10.915 0.981 -10.915 0.189 78.744
4342.833 0.191 78.673 0.981 -10.988 0.981 -10.988 0.191 78.673
4367.792 0.192 78.601 0.98 -11.062 0.98 -11.062 0.192 78.601
4392.75 0.193 78.53 0.98 -11.136 0.98 -11.136 0.193 78.53
4417.708 0.194 78.458 0.98 -11.21 0.98 -11.21 0.194 78.458
4442.667 0.196 78.387 0.98 -11.283 0.98 -11.283 0.196 78.387
4467.625 0.197 78.316 0.979 -11.356 0.979 -11.356 0.197 78.316
4492.583 0.198 78.245 0.979 -11.43 0.979 -11.43 0.198 78.245
4517.542 0.199 78.174 0.979 -11.503 0.979 -11.503 0.199 78.174
4542.5 0.201 78.103 0.979 -11.576 0.979 -11.576 0.201 78.103
4567.458 0.202 78.032 0.978 -11.649 0.978 -11.649 0.202 78.032
4592.417 0.203 77.961 0.978 -11.722 0.978 -11.722 0.203 77.961
4617.375 0.204 77.89 0.978 -11.794 0.978 -11.794 0.204 77.89
4642.333 0.206 77.82 0.978 -11.867 0.978 -11.867 0.206 77.82
4667.292 0.207 77.749 0.977 -11.94 0.977 -11.94 0.207 77.749
4692.25 0.208 77.678 0.977 -12.012 0.977 -12.012 0.208 77.678
4717.208 0.209 77.608 0.977 -12.085 0.977 -12.085 0.209 77.608
4742.167 0.211 77.538 0.976 -12.157 0.976 -12.157 0.211 77.538
4767.125 0.212 77.467 0.976 -12.229 0.976 -12.229 0.212 77.467
4792.083 0.213 77.397 0.976 -12.301 0.976 -12.301 0.213 77.397
4817.042 0.214 77.327 0.976 -12.373 0.976 -12.373 0.214 77.327
4842 0.216 77.257 0.975 -12.445 0.975 -12.445 0.216 77.257
4866.958 0.217 77.187 0.975 -12.517 0.975 -12.517 0.217 77.187
4891.917 0.218 77.117 0.975 -12.589 0.975 -12.589 0.218 77.117
4916.875 0.219 77.047 0.975 -12.66 0.975 -12.66 0.219 77.047
4941.833 0.22 76.977 0.974 -12.732 0.974 -12.732 0.22 76.977
4966.792 0.222 76.907 0.974 -12.803 0.974 -12.803 0.222 76.907
4991.75 0.223 76.837 0.974 -12.875 0.974 -12.875 0.223 76.837
5016.708 0.224 76.767 0.973 -12.946 0.973 -12.946 0.224 76.767
5041.667 0.225 76.698 0.973 -13.017 0.973 -13.017 0.225 76.698
5066.625 0.226 76.628 0.973 -13.089 0.973 -13.089 0.226 76.628
5091.583 0.228 76.559 0.973 -13.16 0.973 -13.16 0.228 76.559
5116.542 0.229 76.489 0.972 -13.231 0.972 -13.231 0.229 76.489
5141.5 0.23 76.42 0.972 -13.301 0.972 -13.301 0.23 76.42
5166.458 0.231 76.351 0.972 -13.372 0.972 -13.372 0.231 76.351
5191.417 0.232 76.282 0.971 -13.443 0.971 -13.443 0.232 76.282
5216.375 0.234 76.212 0.971 -13.514 0.971 -13.514 0.234 76.212
5241.333 0.235 76.143 0.971 -13.584 0.971 -13.584 0.235 76.143
5266.292 0.236 76.074 0.971 -13.655 0.971 -13.655 0.236 76.074
5291.25 0.237 76.005 0.97 -13.725 0.97 -13.725 0.237 76.005
5316.208 0.238 75.937 0.97 -13.795 0.97 -13.795 0.238 75.937
5341.167 0.24 75.868 0.97 -13.866 0.97 -13.866 0.24 75.868
5366.125 0.241 75.799 0.969 -13.936 0.969 -13.936 0.241 75.799
5391.083 0.242 75.73 0.969 -14.006 0.969 -14.006 0.242 75.73
5416.042 0.243 75.662 0.969 -14.076 0.969 -14.076 0.243 75.662
5441 0.244 75.593 0.969 -14.146 0.969 -14.146 0.244 75.593
5465.958 0.246 75.525 0.968 -14.216 0.968 -14.216 0.246 75.525
5490.917 0.247 75.456 0.968 -14.285 0.968 -14.285 0.247 75.456
5515.875 0.248 75.388 0.968 -14.355 0.968 -14.355 0.248 75.388
5540.833 0.249 75.319 0.967 -14.425 0.967 -14.425 0.249 75.319
5565.792 0.25 75.251 0.967 -14.494 0.967 -14.494 0.25 75.251
5590.75 0.251 75.183 0.967 -14.564 0.967 -14.564 0.251 75.183
5615.708 0.253 75.115 0.966 -14.633 0.966 -14.633 0.253 75.115
5640.667 0.254 75.047 0.966 -14.702 0.966 -14.702 0.254 75.047
5665.625 0.255 74.979 0.966 -14.772 0.966 -14.772 0.255 74.979
5690.583 0.256 74.911 0.966 -14.841 0.966 -14.841 0.256 74.911
5715.542 0.257 74.843 0.965 -14.91 0.965 -14.91 0.257 74.843
5740.5 0.258 74.775 0.965 -14.979 0.965 -14.979 0.258 74.775
5765.458 0.26 74.707 0.965 -15.048 0.965 -15.048 0.26 74.707
5790.417 0.261 74.64 0.964 -15.117 0.964 -15.117 0.261 74.64
5815.375 0.262 74.572 0.964 -15.185 0.964 -15.185 0.262 74.572
5840.333 0.263 74.504 0.964 -15.254 0.964 -15.254 0.263 74.504
5865.292 0.264 74.437 0.963 -15.323 0.963 -15.323 0.264 74.437
5890.25 0.265 74.369 0.963 -15.391 0.963 -15.391 0.265 74.369
5915.208 0.267 74.302 0.963 -15.46 0.963 -15.46 0.267 74.302
5940.167 0.268 74.235 0.962 -15.528 0.962 -15.528 0.268 74.235
5965.125 0.269 74.168 0.962 -15.597 0.962 -15.597 0.269 74.168
5990.083 0.27 74.1 0.962 -15.665 0.962 -15.665 0.27 74.1
6015.042 0.271 74.033 0.961 -15.733 0.961 -15.733 0.271 74.033
6040 0.272 73.966 0.961 -15.801 0.961 -15.801 0.272 73.966
6064.958 0.273 73.899 0.961 -15.869 0.961 -15.869 0.273 73.899
6089.917 0.275 73.832 0.96 -15.937 0.96 -15.937 0.275 73.832
6114.875 0.276 73.765 0.96 -16.005 0.96 -16.005 0.276 73.765
6139.833 0.277 73.698 0.96 -16.073 0.96 -16.073 0.277 73.698
6164.792 0.278 73.632 0.959 -16.141 0.959 -16.141 0.278 73.632
6189.75 0.279 73.565 0.959 -16.209 0.959 -16.209 0.279 73.565
6214.708 0.28 73.498 0.959 -16.276 0.959 -16.276 0.28 73.498
6239.667 0.281 73.432 0.958 -16.344 0.958 -16.344 0.281 73.432
6264.625 0.283 73.365 0.958 -16.411 0.958 -16.411 0.283 73.365
6289.583 0.284 73.299 0.958 -16.479 0.958 -16.479 0.284 73.299
6314.542 0.285 73.232 0.957 -16.546 0.957 -16.546 0.285 73.232
6339.5 0.286 73.166 0.957 -16.614 0.957 -16.614 0.286 73.166
6364.458 0.287 73.1 0.957 -16.681 0.957 -16.681 0.287 73.1
6389.417 0.288 73.033 0.956 -16.748 0.956 -16.748 0.288 73.033
6414.375 0.289 72.967 0.956 -16.815 0.956 -16.815 0.289 72.967
6439.333 0.29 72.901 0.956 -16.882 0.956 -16.882 0.29 72.901
6464.292 0.292 72.835 0.955 -16.949 0.955 -16.949 0.292 72.835
6489.25 0.293 72.769 0.955 -17.016 0.955 -17.016 0.293 72.769
6514.208 0.294 72.703 0.955 -17.083 0.955 -17.083 0.294 72.703
6539.167 0.295 72.637 0.954 -17.149 0.954 -17.149 0.295 72.637
6564.125 0.296 72.571 0.954 -17.216 0.954 -17.216 0.296 72.571
6589.083 0.297 72.506 0.954 -17.283 0.954 -17.283 0.297 72.506
6614.042 0.298 72.44 0.953 -17.349 0.953 -17.349 0.298 72.44
6639 0.299 72.374 0.953 -17.416 0.953 -17.416 0.299 72.374
6663.958 0.3 72.309 0.953 -17.482 0.953 -17.482 0.3 72.309
6688.917 0.302 72.243 0.952 -17.549 0.952 -17.549 0.302 72.243
6713.875 0.303 72.178 0.952 -17.615 0.952 -17.615 0.303 72.178
6738.833 0.304 72.112 0.952 -17.681 0.952 -17.681 0.304 72.112
6763.792 0.305 72.047 0.951 -17.747 0.951 -17.747 0.305 72.047
6788.75 0.306 71.982 0.951 -17.813 0.951 -17.813 0.306 71.982
6813.708 0.307 71.917 0.951 -17.879 0.951 -17.879 0.307 71.917
6838.667 0.308 71.851 0.95 -17.945 0.95 -17.945 0.308 71.851
6863.625 0.309 71.786 0.95 -18.011 0.95 -18.011 0.309 71.786
6888.583 0.31 71.721 0.95 -18.077 0.95 -18.077 0.31 71.721
6913.542 0.311 71.656 0.949 -18.143 0.949 -18.143 0.311 71.656
6938.5 0.312 71.591 0.949 -18.209 0.949 -18.209 0.312 71.591
6963.458 0.314 71.526 0.948 -18.274 0.948 -18.274 0.314 71.526
6988.417 0.315 71.462 0.948 -18.34 0.948 -18.34 0.315 71.462
7013.375 0.316 71.397 0.948 -18.405 0.948 -18.405 0.316 71.397
7038.333 0.317 71.332 0.947 -18.471 0.947 -18.471 0.317 71.332
7063.292 0.318 71.268 0.947 -18.536 0.947 -18.536 0.318 71.268
7088.25 0.319 71.203 0.947 -18.601 0.947 -18.601 0.319 71.203
7113.208 0.32 71.139 0.946 -18.667 0.946 -18.667 0.32 71.139
7138.167 0.321 71.074 0.946 -18.732 0.946 -18.732 0.321 71.074
7163.125 0.322 71.01 0.946 -18.797 0.946 -18.797 0.322 71.01
7188.083 0.323 70.945 0.945 -18.862 0.945 -18.862 0.323 70.945
7213.042 0.324 70.881 0.945 -18.927 0.945 -18.927 0.324 70.881
7238 0.325 70.817 0.944 -18.992 0.944 -18.992 0.325 70.817
7262.958 0.327 70.753 0.944 -19.057 0.944 -19.057 0.327 70.753
7287.917 0.328 70.689 0.944 -19.121 0.944 -19.121 0.328 70.689
7312.875 0.329 70.625 0.943 -19.186 0.943 -19.186 0.329 70.625
7337.833 0.33 70.561 0.943 -19.251 0.943 -19.251 0.33 70.561
7362.792 0.331 70.497 0.943 -19.315 0.943 -19.315 0.331 70.497
7387.75 0.332 70.433 0.942 -19.38 0.942 -19.38 0.332 70.433
7412.708 0.333 70.369 0.942 -19.444 0.942 -19.444 0.333 70.369
7437.667 0.334 70.305 0.942 -19.509 0.942 -19.509 0.334 70.305
7462.625 0.335 70.242 0.941 -19.573 0.941 -19.573 0.335 70.242
7487.583 0.336 70.178 0.941 -19.637 0.941 -19.637 0.336 70.178
7512.542 0.337 70.115 0.94 -19.702 0.94 -19.702 0.337 70.115
7537.5 0.338 70.051 0.94 -19.766 0.94 -19.766 0.338 70.051
7562.458 0.339 69.988 0.94 -19.83 0.94 -19.83 0.339 69.988
7587.417 0.34 69.924 0.939 -19.894 0.939 -19.894 0.34 69.924
7612.375 0.341 69.861 0.939 -19.958 0.939 -19.958 0.341 69.861
7637.333 0.342 69.798 0.938 -20.022 0.938 -20.022 0.342 69.798
7662.292 0.343 69.735 0.938 -20.085 0.938 -20.085 0.343 69.735
7687.25 0.344 69.671 0.938 -20.149 0.938 -20.149 0.344 69.671
7712.208 0.346 69.608 0.937 -20.213 0.937 -20.213 0.346 69.608
7737.167 0.347 69.545 0.937 -20.277 0.937 -20.277 0.347 69.545
7762.125 0.348 69.482 0.937 -20.34 0.937 -20.34 0.348 69.482
7787.083 0.349 69.419 0.936 -20.404 0.936 -20.404 0.349 69.419
7812.042 0.35 69.357 0.936 -20.467 0.936 -20.467 0.35 69.357
7837 0.351 69.294 0.935 -20.53 0.935 -20.53 0.351 69.294
7861.958 0.352 69.231 0.935 -20.594 0.935 -20.594 0.352 69.231
7886.917 0.353 69.168 0.935 -20.657 0.935 -20.657 0.353 69.168
7911.875 0.354 69.106 0.934 -20.72 0.934 -20.72 0.354 69.106
7936.833 0.355 69.043 0.934 -20.783 0.934 -20.783 0.355 69.043
7961.792 0.356 68.981 0.933 -20.846 0.933 -20.846 0.356 68.981
7986.75 0.357 68.918 0.933 -20.909 0.933 -20.909 0.357 68.918
8011.708 0.358 68.856 0.933 -20.972 0.933 -20.972 0.358 68.856
8036.667 0.359 68.794 0.932 -21.035 0.932 -21.035 0.359 68.794
8061.625 0.36 68.731 0.932 -21.098 0.932 -21.098 0.36 68.731
8086.583 0.361 68.669 0.932 -21.161 0.932 -21.161 0.361 68.669
8111.542 0.362 68.607 0.931 -21.223 0.931 -21.223 0.362 68.607
8136.5 0.363 68.545 0.931 -21.286 0.931 -21.286 0.363 68.545
8161.458 0.364 68.483 0.93 -21.349 0.93 -21.349 0.364 68.483
8186.417 0.365 68.421 0.93 -21.411 0.93 -21.411 0.365 68.421
