# MHZ S MA R 50

50 0.993 -6.632 0.115 83.358 0.115 83.358 0.993 -6.632
74.958 0.985 -9.891 0.172 80.094 0.172 80.094 0.985 -9.891
99.917 0.974 -13.09 0.226 76.89 0.226 76.89 0.974 -13.09
124.875 0.96 -16.213 0.279 73.762 0.279 73.762 0.96 -16.213
149.833 0.944 -19.246 0.33 70.724 0.33 70.724 0.944 -19.246
174.792 0.926 -22.177 0.377 67.788 0.377 67.788 0.926 -22.177
199.75 0.906 -24.998 0.423 64.961 0.423 64.961 0.906 -24.998
224.708 0.885 -27.704 0.465 62.25 0.465 62.25 0.885 -27.704
249.667 0.863 -30.29 0.504 59.659 0.504 59.659 0.863 -30.29
274.625 0.84 -32.757 0.541 57.187 0.541 57.187 0.84 -32.757
299.583 0.818 -35.103 0.575 54.836 0.575 54.836 0.818 -35.103
324.542 0.794 -37.332 0.606 52.602 0.606 52.602 0.794 -37.332
349.5 0.771 -39.446 0.635 50.483 0.635 50.483 0.771 -39.446
374.458 0.749 -41.449 0.662 48.474 0.662 48.474 0.749 -41.449
399.417 0.726 -43.346 0.686 46.571 0.686 46.571 0.726 -43.346
424.375 0.704 -45.143 0.709 44.77 0.709 44.77 0.704 -45.143
449.333 0.683 -46.843 0.729 43.064 0.729 43.064 0.683 -46.843
474.292 0.662 -48.453 0.748 41.448 0.748 41.448 0.662 -48.453
499.25 0.642 -49.978 0.766 39.918 0.766 39.918 0.642 -49.978
524.208 0.622 -51.423 0.782 38.468 0.782 38.468 0.622 -51.423
549.167 0.603 -52.792 0.796 37.093 0.796 37.093 0.603 -52.792
574.125 0.585 -54.091 0.81 35.789 0.81 35.789 0.585 -54.091
599.083 0.567 -55.323 0.822 34.55 0.822 34.55 0.567 -55.323
624.042 0.55 -56.494 0.834 33.374 0.834 33.374 0.55 -56.494
649 0.534 -57.607 0.844 32.255 0.844 32.255 0.534 -57.607
673.958 0.518 -58.666 0.854 31.19 0.854 31.19 0.518 -58.666
698.917 0.503 -59.675 0.863 30.176 0.863 30.176 0.503 -59.675
723.875 0.488 -60.636 0.872 29.209 0.872 29.209 0.488 -60.636
748.833 0.474 -61.553 0.879 28.286 0.879 28.286 0.474 -61.553
773.792 0.46 -62.428 0.886 27.404 0.886 27.404 0.46 -62.428
798.75 0.447 -63.265 0.893 26.561 0.893 26.561 0.447 -63.265
823.708 0.435 -64.065 0.899 25.755 0.899 25.755 0.435 -64.065
848.667 0.422 -64.831 0.905 24.982 0.905 24.982 0.422 -64.831
873.625 0.411 -65.565 0.91 24.242 0.91 24.242 0.411 -65.565
898.583 0.399 -66.269 0.915 23.531 0.915 23.531 0.399 -66.269
923.542 0.388 -66.945 0.92 22.848 0.92 22.848 0.388 -66.945
948.5 0.378 -67.594 0.925 22.192 0.925 22.192 0.378 -67.594
973.458 0.368 -68.218 0.929 21.561 0.929 21.561 0.368 -68.218
998.417 0.358 -68.819 0.932 20.954 0.932 20.954 0.358 -68.819
1023.375 0.348 -69.397 0.936 20.368 0.936 20.368 0.348 -69.397
1048.333 0.339 -69.955 0.939 19.804 0.939 19.804 0.339 -69.955
1073.292 0.33 -70.492 0.943 19.259 0.943 19.259 0.33 -70.492
1098.25 0.321 -71.011 0.946 18.732 0.946 18.732 0.321 -71.011
1123.208 0.313 -71.512 0.948 18.224 0.948 18.224 0.313 -71.512
1148.167 0.305 -71.996 0.951 17.732 0.951 17.732 0.305 -71.996
1173.125 0.297 -72.465 0.954 17.255 0.954 17.255 0.297 -72.465
1198.083 0.289 -72.918 0.956 16.794 0.956 16.794 0.289 -72.918
1223.042 0.281 -73.357 0.958 16.347 0.958 16.347 0.281 -73.357
1248 0.274 -73.782 0.96 15.913 0.96 15.913 0.274 -73.782
1272.958 0.267 -74.194 0.962 15.492 0.962 15.492 0.267 -74.194
1297.917 0.26 -74.594 0.964 15.083 0.964 15.083 0.26 -74.594
1322.875 0.254 -74.982 0.966 14.686 0.966 14.686 0.254 -74.982
1347.833 0.247 -75.359 0.968 14.299 0.968 14.299 0.247 -75.359
1372.792 0.241 -75.726 0.969 13.924 0.969 13.924 0.241 -75.726
1397.75 0.234 -76.082 0.971 13.558 0.971 13.558 0.234 -76.082
1422.708 0.228 -76.428 0.972 13.201 0.972 13.201 0.228 -76.428
1447.667 0.222 -76.765 0.973 12.854 0.973 12.854 0.222 -76.765
1472.625 0.217 -77.093 0.975 12.516 0.975 12.516 0.217 -77.093
1497.583 0.211 -77.412 0.976 12.185 0.976 12.185 0.211 -77.412
1522.542 0.206 -77.723 0.977 11.863 0.977 11.863 0.206 -77.723
1547.5 0.2 -78.026 0.978 11.548 0.978 11.548 0.2 -78.026
1572.458 0.195 -78.322 0.979 11.24 0.979 11.24 0.195 -78.322
1597.417 0.19 -78.61 0.98 10.94 0.98 10.94 0.19 -78.61
1622.375 0.185 -78.891 0.981 10.646 0.981 10.646 0.185 -78.891
1647.333 0.18 -79.166 0.982 10.358 0.982 10.358 0.18 -79.166
1672.292 0.175 -79.434 0.983 10.077 0.983 10.077 0.175 -79.434
1697.25 0.17 -79.695 0.984 9.801 0.984 9.801 0.17 -79.695
1722.208 0.166 -79.951 0.985 9.531 0.985 9.531 0.166 -79.951
1747.167 0.161 -80.2 0.985 9.267 0.985 9.267 0.161 -80.2
1772.125 0.157 -80.444 0.986 9.007 0.986 9.007 0.157 -80.444
1797.083 0.152 -80.682 0.987 8.753 0.987 8.753 0.152 -80.682
1822.042 0.148 -80.915 0.988 8.504 0.988 8.504 0.148 -80.915
1847 0.144 -81.142 0.988 8.259 0.988 8.259 0.144 -81.142
1871.958 0.14 -81.364 0.989 8.018 0.989 8.018 0.14 -81.364
1896.917 0.135 -81.581 0.989 7.782 0.989 7.782 0.135 -81.581
1921.875 0.131 -81.793 0.99 7.55 0.99 7.55 0.131 -81.793
1946.833 0.127 -82.001 0.99 7.323 0.99 7.323 0.127 -82.001
1971.792 0.124 -82.203 0.991 7.098 0.991 7.098 0.124 -82.203
1996.75 0.12 -82.401 0.991 6.878 0.991 6.878 0.12 -82.401
2021.708 0.116 -82.594 0.992 6.661 0.992 6.661 0.116 -82.594
2046.667 0.112 -82.782 0.992 6.448 0.992 6.448 0.112 -82.782
2071.625 0.109 -82.966 0.993 6.238 0.993 6.238 0.109 -82.966
2096.583 0.105 -83.145 0.993 6.032 0.993 6.032 0.105 -83.145
2121.542 0.102 -83.32 0.993 5.828 0.993 5.828 0.102 -83.32
2146.5 0.098 -83.49 0.994 5.627 0.994 5.627 0.098 -83.49
2171.458 0.095 -83.655 0.994 5.43 0.994 5.43 0.095 -83.655
2196.417 0.091 -83.816 0.994 5.235 0.994 5.235 0.091 -83.816
2221.375 0.088 -83.971 0.995 5.043 0.995 5.043 0.088 -83.971
2246.333 0.085 -84.122 0.995 4.854 0.995 4.854 0.085 -84.122
2271.292 0.081 -84.268 0.995 4.667 0.995 4.667 0.081 -84.268
2296.25 0.078 -84.408 0.995 4.483 0.995 4.483 0.078 -84.408
2321.208 0.075 -84.543 0.996 4.301 0.996 4.301 0.075 -84.543
2346.167 0.072 -84.672 0.996 4.122 0.996 4.122 0.072 -84.672
2371.125 0.069 -84.794 0.996 3.944 0.996 3.944 0.069 -84.794
2396.083 0.066 -84.911 0.996 3.769 0.996 3.769 0.066 -84.911
2421.042 0.063 -85.02 0.997 3.597 0.997 3.597 0.063 -85.02
2446 0.06 -85.122 0.997 3.426 0.997 3.426 0.06 -85.122
2470.958 0.057 -85.215 0.997 3.257 0.997 3.257 0.057 -85.215
2495.917 0.054 -85.299 0.997 3.09 0.997 3.09 0.054 -85.299
2520.875 0.051 -85.373 0.997 2.926 0.997 2.926 0.051 -85.373
2545.833 0.048 -85.436 0.997 2.763 0.997 2.763 0.048 -85.436
2570.792 0.045 -85.485 0.997 2.602 0.997 2.602 0.045 -85.485
2595.75 0.043 -85.519 0.998 2.442 0.998 2.442 0.043 -85.519
2620.708 0.04 -85.536 0.998 2.284 0.998 2.284 0.04 -85.536
2645.667 0.037 -85.533 0.998 2.128 0.998 2.128 0.037 -85.533
2670.625 0.034 -85.504 0.998 1.974 0.998 1.974 0.034 -85.504
2695.583 0.032 -85.446 0.998 1.821 0.998 1.821 0.032 -85.446
2720.542 0.029 -85.35 0.998 1.67 0.998 1.67 0.029 -85.35
2745.5 0.027 -85.206 0.998 1.52 0.998 1.52 0.027 -85.206
2770.458 0.024 -85.001 0.998 1.372 0.998 1.372 0.024 -85.001
2795.417 0.021 -84.715 0.998 1.225 0.998 1.225 0.021 -84.715
2820.375 0.019 -84.315 0.998 1.08 0.998 1.08 0.019 -84.315
2845.333 0.016 -83.753 0.998 0.935 0.998 0.935 0.016 -83.753
2870.292 0.014 -82.946 0.998 0.793 0.998 0.793 0.014 -82.946
2895.25 0.011 -81.74 0.998 0.651 0.998 0.651 0.011 -81.74
2920.208 9.043e-3 -79.826 0.998 0.511 0.998 0.511 9.043e-3 -79.826
2945.167 6.663e-3 -76.459 0.998 0.372 0.998 0.372 6.663e-3 -76.459
2970.125 4.354e-3 -69.364 0.998 0.234 0.998 0.234 4.354e-3 -69.364
2995.083 2.276e-3 -48.063 0.998 0.097 0.998 0.097 2.276e-3 -48.063
3020.042 1.659e-3 23.795 0.998 -0.038 0.998 -0.038 1.659e-3 23.795
3045 3.377e-3 63.119 0.998 -0.173 0.998 -0.173 3.377e-3 63.119
3069.958 5.556e-3 73.838 0.998 -0.306 0.998 -0.306 5.556e-3 73.838
3094.917 7.803e-3 78.343 0.998 -0.439 0.998 -0.439 7.803e-3 78.343
3119.875 0.01 80.751 0.998 -0.57 0.998 -0.57 0.01 80.751
3144.833 0.012 82.218 0.998 -0.7 0.998 -0.7 0.012 82.218
3169.792 0.015 83.184 0.998 -0.829 0.998 -0.829 0.015 83.184
3194.75 0.017 83.853 0.998 -0.958 0.998 -0.958 0.017 83.853
3219.708 0.019 84.332 0.998 -1.085 0.998 -1.085 0.019 84.332
3244.667 0.021 84.682 0.998 -1.211 0.998 -1.211 0.021 84.682
3269.625 0.023 84.941 0.998 -1.337 0.998 -1.337 0.023 84.941
3294.583 0.026 85.133 0.998 -1.461 0.998 -1.461 0.026 85.133
3319.542 0.028 85.275 0.998 -1.585 0.998 -1.585 0.028 85.275
3344.5 0.03 85.378 0.998 -1.708 0.998 -1.708 0.03 85.378
3369.458 0.032 85.45 0.998 -1.83 0.998 -1.83 0.032 85.45
3394.417 0.034 85.498 0.998 -1.951 0.998 -1.951 0.034 85.498
3419.375 0.036 85.525 0.998 -2.072 0.998 -2.072 0.036 85.525
3444.333 0.038 85.537 0.998 -2.191 0.998 -2.191 0.038 85.537
3469.292 0.04 85.535 0.998 -2.31 0.998 -2.31 0.04 85.535
3494.25 0.042 85.522 0.998 -2.428 0.998 -2.428 0.042 85.522
3519.208 0.044 85.499 0.997 -2.546 0.997 -2.546 0.044 85.499
3544.167 0.046 85.468 0.997 -2.662 0.997 -2.662 0.046 85.468
3569.125 0.048 85.43 0.997 -2.778 0.997 -2.778 0.048 85.43
3594.083 0.051 85.386 0.997 -2.894 0.997 -2.894 0.051 85.386
3619.042 0.052 85.337 0.997 -3.008 0.997 -3.008 0.052 85.337
3644 0.054 85.284 0.997 -3.122 0.997 -3.122 0.054 85.284
3668.958 0.056 85.226 0.997 -3.235 0.997 -3.235 0.056 85.226
3693.917 0.058 85.166 0.997 -3.348 0.997 -3.348 0.058 85.166
3718.875 0.06 85.102 0.997 -3.46 0.997 -3.46 0.06 85.102
3743.833 0.062 85.036 0.997 -3.571 0.997 -3.571 0.062 85.036
3768.792 0.064 84.967 0.996 -3.682 0.996 -3.682 0.064 84.967
3793.75 0.066 84.896 0.996 -3.792 0.996 -3.792 0.066 84.896
3818.708 0.068 84.823 0.996 -3.902 0.996 -3.902 0.068 84.823
3843.667 0.07 84.749 0.996 -4.011 0.996 -4.011 0.07 84.749
3868.625 0.072 84.673 0.996 -4.119 0.996 -4.119 0.072 84.673
3893.583 0.074 84.597 0.996 -4.227 0.996 -4.227 0.074 84.597
3918.542 0.076 84.518 0.996 -4.334 0.996 -4.334 0.076 84.518
3943.5 0.077 84.439 0.995 -4.441 0.995 -4.441 0.077 84.439
3968.458 0.079 84.359 0.995 -4.547 0.995 -4.547 0.079 84.359
3993.417 0.081 84.279 0.995 -4.653 0.995 -4.653 0.081 84.279
4018.375 0.083 84.197 0.995 -4.758 0.995 -4.758 0.083 84.197
4043.333 0.085 84.115 0.995 -4.863 0.995 -4.863 0.085 84.115
4068.292 0.087 84.032 0.995 -4.967 0.995 -4.967 0.087 84.032
4093.25 0.088 83.949 0.995 -5.071 0.995 -5.071 0.088 83.949
4118.208 0.09 83.866 0.994 -5.174 0.994 -5.174 0.09 83.866
4143.167 0.092 83.782 0.994 -5.277 0.994 -5.277 0.092 83.782
4168.125 0.094 83.697 0.994 -5.379 0.994 -5.379 0.094 83.697
4193.083 0.096 83.613 0.994 -5.481 0.994 -5.481 0.096 83.613
4218.042 0.097 83.528 0.994 -5.583 0.994 -5.583 0.097 83.528
4243 0.099 83.443 0.994 -5.683 0.994 -5.683 0.099 83.443
4267.958 0.101 83.357 0.993 -5.784 0.993 -5.784 0.101 83.357
4292.917 0.103 83.272 0.993 -5.884 0.993 -5.884 0.103 83.272
4317.875 0.104 83.186 0.993 -5.984 0.993 -5.984 0.104 83.186
4342.833 0.106 83.101 0.993 -6.083 0.993 -6.083 0.106 83.101
4367.792 0.108 83.015 0.993 -6.182 0.993 -6.182 0.108 83.015
4392.75 0.109 82.929 0.992 -6.281 0.992 -6.281 0.109 82.929
4417.708 0.111 82.843 0.992 -6.379 0.992 -6.379 0.111 82.843
4442.667 0.113 82.757 0.992 -6.476 0.992 -6.476 0.113 82.757
4467.625 0.114 82.672 0.992 -6.574 0.992 -6.574 0.114 82.672
4492.583 0.116 82.586 0.992 -6.671 0.992 -6.671 0.116 82.586
4517.542 0.118 82.5 0.992 -6.767 0.992 -6.767 0.118 82.5
4542.5 0.12 82.414 0.991 -6.863 0.991 -6.863 0.12 82.414
4567.458 0.121 82.328 0.991 -6.959 0.991 -6.959 0.121 82.328
4592.417 0.123 82.242 0.991 -7.055 0.991 -7.055 0.123 82.242
4617.375 0.124 82.157 0.991 -7.15 0.991 -7.15 0.124 82.157
4642.333 0.126 82.071 0.991 -7.245 0.991 -7.245 0.126 82.071
4667.292 0.128 81.986 0.99 -7.339 0.99 -7.339 0.128 81.986
4692.25 0.129 81.9 0.99 -7.433 0.99 -7.433 0.129 81.9
4717.208 0.131 81.815 0.99 -7.527 0.99 -7.527 0.131 81.815
4742.167 0.133 81.729 0.99 -7.621 0.99 -7.621 0.133 81.729
4767.125 0.134 81.644 0.989 -7.714 0.989 -7.714 0.134 81.644
4792.083 0.136 81.559 0.989 -7.807 0.989 -7.807 0.136 81.559
4817.042 0.137 81.474 0.989 -7.899 0.989 -7.899 0.137 81.474
4842 0.139 81.389 0.989 -7.991 0.989 -7.991 0.139 81.389
4866.958 0.141 81.304 0.989 -8.083 0.989 -8.083 0.141 81.304
4891.917 0.142 81.22 0.988 -8.175 0.988 -8.175 0.142 81.22
4916.875 0.144 81.135 0.988 -8.266 0.988 -8.266 0.144 81.135
4941.833 0.145 81.051 0.988 -8.357 0.988 -8.357 0.145 81.051
4966.792 0.147 80.967 0.988 -8.448 0.988 -8.448 0.147 80.967
4991.75 0.148 80.883 0.987 -8.538 0.987 -8.538 0.148 80.883
5016.708 0.15 80.799 0.987 -8.628 0.987 -8.628 0.15 80.799
5041.667 0.152 80.715 0.987 -8.718 0.987 -8.718 0.152 80.715
5066.625 0.153 80.631 0.987 -8.808 0.987 -8.808 0.153 80.631
5091.583 0.155 80.547 0.986 -8.897 0.986 -8.897 0.155 80.547
5116.542 0.156 80.464 0.986 -8.986 0.986 -8.986 0.156 80.464
5141.5 0.158 80.381 0.986 -9.075 0.986 -9.075 0.158 80.381
5166.458 0.159 80.298 0.986 -9.163 0.986 -9.163 0.159 80.298
5191.417 0.161 80.215 0.985 -9.251 0.985 -9.251 0.161 80.215
5216.375 0.162 80.132 0.985 -9.339 0.985 -9.339 0.162 80.132
5241.333 0.164 80.049 0.985 -9.427 0.985 -9.427 0.164 80.049
5266.292 0.165 79.966 0.985 -9.515 0.985 -9.515 0.165 79.966
5291.25 0.167 79.884 0.984 -9.602 0.984 -9.602 0.167 79.884
5316.208 0.168 79.802 0.984 -9.689 0.984 -9.689 0.168 79.802
5341.167 0.17 79.72 0.984 -9.776 0.984 -9.776 0.17 79.72
5366.125 0.171 79.638 0.984 -9.862 0.984 -9.862 0.171 79.638
5391.083 0.173 79.556 0.983 -9.948 0.983 -9.948 0.173 79.556
5416.042 0.174 79.474 0.983 -10.034 0.983 -10.034 0.174 79.474
5441 0.176 79.393 0.983 -10.12 0.983 -10.12 0.176 79.393
5465.958 0.177 79.311 0.983 -10.206 0.983 -10.206 0.177 79.311
5490.917 0.179 79.23 0.982 -10.291 0.982 -10.291 0.179 79.23
5515.875 0.18 79.149 0.982 -10.376 0.982 -10.376 0.18 79.149
5540.833 0.182 79.068 0.982 -10.461 0.982 -10.461 0.182 79.068
5565.792 0.183 78.987 0.982 -10.546 0.982 -10.546 0.183 78.987
5590.75 0.184 78.906 0.981 -10.63 0.981 -10.63 0.184 78.906
5615.708 0.186 78.826 0.981 -10.714 0.981 -10.714 0.186 78.826
5640.667 0.187 78.746 0.981 -10.798 0.981 -10.798 0.187 78.746
5665.625 0.189 78.665 0.981 -10.882 0.981 -10.882 0.189 78.665
5690.583 0.19 78.585 0.98 -10.966 0.98 -10.966 0.19 78.585
5715.542 0.192 78.505 0.98 -11.049 0.98 -11.049 0.192 78.505
5740.5 0.193 78.426 0.98 -11.132 0.98 -11.132 0.193 78.426
5765.458 0.195 78.346 0.979 -11.215 0.979 -11.215 0.195 78.346
5790.417 0.196 78.267 0.979 -11.298 0.979 -11.298 0.196 78.267
5815.375 0.197 78.187 0.979 -11.381 0.979 -11.381 0.197 78.187
5840.333 0.199 78.108 0.979 -11.463 0.979 -11.463 0.199 78.108
5865.292 0.2 78.029 0.978 -11.545 0.978 -11.545 0.2 78.029
5890.25 0.202 77.95 0.978 -11.627 0.978 -11.627 0.202 77.95
5915.208 0.203 77.871 0.978 -11.709 0.978 -11.709 0.203 77.871
5940.167 0.204 77.793 0.977 -11.791 0.977 -11.791 0.204 77.793
5965.125 0.206 77.714 0.977 -11.872 0.977 -11.872 0.206 77.714
5990.083 0.207 77.636 0.977 -11.953 0.977 -11.953 0.207 77.636
6015.042 0.209 77.558 0.977 -12.034 0.977 -12.034 0.209 77.558
6040 0.21 77.48 0.976 -12.115 0.976 -12.115 0.21 77.48
6064.958 0.211 77.402 0.976 -12.196 0.976 -12.196 0.211 77.402
6089.917 0.213 77.324 0.976 -12.276 0.976 -12.276 0.213 77.324
6114.875 0.214 77.246 0.975 -12.357 0.975 -12.357 0.214 77.246
6139.833 0.215 77.169 0.975 -12.437 0.975 -12.437 0.215 77.169
6164.792 0.217 77.091 0.975 -12.517 0.975 -12.517 0.217 77.091
6189.75 0.218 77.014 0.974 -12.597 0.974 -12.597 0.218 77.014
6214.708 0.219 76.937 0.974 -12.676 0.974 -12.676 0.219 76.937
6239.667 0.221 76.86 0.974 -12.756 0.974 -12.756 0.221 76.86
6264.625 0.222 76.783 0.974 -12.835 0.974 -12.835 0.222 76.783
6289.583 0.223 76.707 0.973 -12.914 0.973 -12.914 0.223 76.707
6314.542 0.225 76.63 0.973 -12.993 0.973 -12.993 0.225 76.63
6339.5 0.226 76.554 0.973 -13.072 0.973 -13.072 0.226 76.554
6364.458 0.228 76.477 0.972 -13.15 0.972 -13.15 0.228 76.477
6389.417 0.229 76.401 0.972 -13.229 0.972 -13.229 0.229 76.401
6414.375 0.23 76.325 0.972 -13.307 0.972 -13.307 0.23 76.325
6439.333 0.232 76.249 0.971 -13.385 0.971 -13.385 0.232 76.249
6464.292 0.233 76.173 0.971 -13.463 0.971 -13.463 0.233 76.173
6489.25 0.234 76.098 0.971 -13.541 0.971 -13.541 0.234 76.098
6514.208 0.235 76.022 0.97 -13.619 0.97 -13.619 0.235 76.022
6539.167 0.237 75.947 0.97 -13.696 0.97 -13.696 0.237 75.947
6564.125 0.238 75.872 0.97 -13.774 0.97 -13.774 0.238 75.872
6589.083 0.239 75.796 0.969 -13.851 0.969 -13.851 0.239 75.796
6614.042 0.241 75.721 0.969 -13.928 0.969 -13.928 0.241 75.721
6639 0.242 75.647 0.969 -14.005 0.969 -14.005 0.242 75.647
6663.958 0.243 75.572 0.968 -14.081 0.968 -14.081 0.243 75.572
6688.917 0.245 75.497 0.968 -14.158 0.968 -14.158 0.245 75.497
6713.875 0.246 75.423 0.968 -14.234 0.968 -14.234 0.246 75.423
6738.833 0.247 75.348 0.967 -14.311 0.967 -14.311 0.247 75.348
6763.792 0.248 75.274 0.967 -14.387 0.967 -14.387 0.248 75.274
6788.75 0.25 75.2 0.967 -14.463 0.967 -14.463 0.25 75.2
6813.708 0.251 75.126 0.967 -14.539 0.967 -14.539 0.251 75.126
6838.667 0.252 75.052 0.966 -14.614 0.966 -14.614 0.252 75.052
6863.625 0.254 74.978 0.966 -14.69 0.966 -14.69 0.254 74.978
6888.583 0.255 74.905 0.966 -14.765 0.966 -14.765 0.255 74.905
6913.542 0.256 74.831 0.965 -14.841 0.965 -14.841 0.256 74.831
6938.5 0.257 74.758 0.965 -14.916 0.965 -14.916 0.257 74.758
6963.458 0.259 74.684 0.965 -14.991 0.965 -14.991 0.259 74.684
6988.417 0.26 74.611 0.964 -15.066 0.964 -15.066 0.26 74.611
7013.375 0.261 74.538 0.964 -15.141 0.964 -15.141 0.261 74.538
7038.333 0.262 74.465 0.963 -15.215 0.963 -15.215 0.262 74.465
7063.292 0.264 74.392 0.963 -15.29 0.963 -15.29 0.264 74.392
7088.25 0.265 74.319 0.963 -15.364 0.963 -15.364 0.265 74.319
7113.208 0.266 74.247 0.962 -15.438 0.962 -15.438 0.266 74.247
7138.167 0.267 74.174 0.962 -15.512 0.962 -15.512 0.267 74.174
7163.125 0.269 74.102 0.962 -15.586 0.962 -15.586 0.269 74.102
7188.083 0.27 74.03 0.961 -15.66 0.961 -15.66 0.27 74.03
7213.042 0.271 73.958 0.961 -15.734 0.961 -15.734 0.271 73.958
7238 0.272 73.885 0.961 -15.807 0.961 -15.807 0.272 73.885
7262.958 0.274 73.814 0.96 -15.881 0.96 -15.881 0.274 73.814
7287.917 0.275 73.742 0.96 -15.954 0.96 -15.954 0.275 73.742
7312.875 0.276 73.67 0.96 -16.027 0.96 -16.027 0.276 73.67
7337.833 0.277 73.598 0.959 -16.1 0.959 -16.1 0.277 73.598
7362.792 0.279 73.527 0.959 -16.173 0.959 -16.173 0.279 73.527
7387.75 0.28 73.456 0.959 -16.246 0.959 -16.246 0.28 73.456
7412.708 0.281 73.384 0.958 -16.319 0.958 -16.319 0.281 73.384
7437.667 0.282 73.313 0.958 -16.391 0.958 -16.391 0.282 73.313
7462.625 0.283 73.242 0.958 -16.464 0.958 -16.464 0.283 73.242
7487.583 0.285 73.171 0.957 -16.536 0.957 -16.536 0.285 73.171
7512.542 0.286 73.1 0.957 -16.608 0.957 -16.608 0.286 73.1
7537.5 0.287 73.03 0.956 -16.68 0.956 -16.68 0.287 73.03
7562.458 0.288 72.959 0.956 -16.752 0.956 -16.752 0.288 72.959
7587.417 0.289 72.888 0.956 -16.824 0.956 -16.824 0.289 72.888
7612.375 0.291 72.818 0.955 -16.896 0.955 -16.896 0.291 72.818
7637.333 0.292 72.748 0.955 -16.967 0.955 -16.967 0.292 72.748
7662.292 0.293 72.678 0.955 -17.039 0.955 -17.039 0.293 72.678
7687.25 0.294 72.607 0.954 -17.11 0.954 -17.11 0.294 72.607
7712.208 0.295 72.537 0.954 -17.181 0.954 -17.181 0.295 72.537
7737.167 0.297 72.468 0.954 -17.252 0.954 -17.252 0.297 72.468
7762.125 0.298 72.398 0.953 -17.323 0.953 -17.323 0.298 72.398
7787.083 0.299 72.328 0.953 -17.394 0.953 -17.394 0.299 72.328
7812.042 0.3 72.258 0.952 -17.465 0.952 -17.465 0.3 72.258
7837 0.301 72.189 0.952 -17.536 0.952 -17.536 0.301 72.189
7861.958 0.302 72.12 0.952 -17.606 0.952 -17.606 0.302 72.12
7886.917 0.304 72.05 0.951 -17.677 0.951 -17.677 0.304 72.05
7911.875 0.305 71.981 0.951 -17.747 0.951 -17.747 0.305 71.981
7936.833 0.306 71.912 0.951 -17.817 0.951 -17.817 0.306 71.912
7961.792 0.307 71.843 0.95 -17.887 0.95 -17.887 0.307 71.843
7986.75 0.308 71.774 0.95 -17.957 0.95 -17.957 0.308 71.774
8011.708 0.309 71.705 0.949 -18.027 0.949 -18.027 0.309 71.705
8036.667 0.311 71.637 0.949 -18.097 0.949 -18.097 0.311 71.637
8061.625 0.312 71.568 0.949 -18.167 0.949 -18.167 0.312 71.568
8086.583 0.313 71.5 0.948 -18.236 0.948 -18.236 0.313 71.5
8111.542 0.314 71.431 0.948 -18.306 0.948 -18.306 0.314 71.431
8136.5 0.315 71.363 0.948 -18.375 0.948 -18.375 0.315 71.363
8161.458 0.316 71.295 0.947 -18.444 0.947 -18.444 0.316 71.295
8186.417 0.318 71.227 0.947 -18.513 0.947 -18.513 0.318 71.227
