# MHZ S MA R 50

50 0.994 -6.098 0.106 83.892 0.106 83.892 0.994 -6.098
74.958 0.987 -9.103 0.158 80.883 0.158 80.883 0.987 -9.103
99.917 0.978 -12.06 0.209 77.921 0.209 77.921 0.978 -12.06
124.875 0.966 -14.958 0.258 75.018 0.258 75.018 0.966 -14.958
149.833 0.952 -17.785 0.305 72.186 0.305 72.186 0.952 -17.785
174.792 0.936 -20.531 0.351 69.435 0.351 69.435 0.936 -20.531
199.75 0.919 -23.189 0.394 66.773 0.394 66.773 0.919 -23.189
224.708 0.9 -25.752 0.434 64.204 0.434 64.204 0.9 -25.752
249.667 0.881 -28.218 0.473 61.734 0.473 61.734 0.881 -28.218
274.625 0.86 -30.582 0.509 59.365 0.509 59.365 0.86 -30.582
299.583 0.84 -32.846 0.542 57.096 0.542 57.096 0.84 -32.846
324.542 0.818 -35.009 0.574 54.929 0.574 54.929 0.818 -35.009
349.5 0.797 -37.072 0.603 52.86 0.603 52.86 0.797 -37.072
374.458 0.776 -39.039 0.63 50.888 0.63 50.888 0.776 -39.039
399.417 0.755 -40.912 0.655 49.01 0.655 49.01 0.755 -40.912
424.375 0.734 -42.695 0.678 47.222 0.678 47.222 0.734 -42.695
449.333 0.714 -44.391 0.7 45.521 0.7 45.521 0.714 -44.391
474.292 0.693 -46.004 0.719 43.903 0.719 43.903 0.693 -46.004
499.25 0.674 -47.539 0.738 42.363 0.738 42.363 0.674 -47.539
524.208 0.655 -48.999 0.755 40.898 0.755 40.898 0.655 -48.999
549.167 0.636 -50.389 0.77 39.503 0.77 39.503 0.636 -50.389
574.125 0.618 -51.711 0.785 38.175 0.785 38.175 0.618 -51.711
599.083 0.601 -52.971 0.798 36.91 0.798 36.91 0.601 -52.971
624.042 0.584 -54.172 0.811 35.704 0.811 35.704 0.584 -54.172
649 0.567 -55.316 0.822 34.554 0.822 34.554 0.567 -55.316
673.958 0.551 -56.408 0.833 33.456 0.833 33.456 0.551 -56.408
698.917 0.536 -57.451 0.843 32.408 0.843 32.408 0.536 -57.451
723.875 0.521 -58.448 0.852 31.406 0.852 31.406 0.521 -58.448
748.833 0.507 -59.4 0.861 30.448 0.861 30.448 0.507 -59.4
773.792 0.493 -60.312 0.869 29.531 0.869 29.531 0.493 -60.312
798.75 0.479 -61.185 0.876 28.652 0.876 28.652 0.479 -61.185
823.708 0.467 -62.021 0.883 27.81 0.883 27.81 0.467 -62.021
848.667 0.454 -62.823 0.89 27.002 0.89 27.002 0.454 -62.823
873.625 0.442 -63.593 0.896 26.226 0.896 26.226 0.442 -63.593
898.583 0.43 -64.333 0.901 25.48 0.901 25.48 0.43 -64.333
923.542 0.419 -65.043 0.907 24.763 0.907 24.763 0.419 -65.043
948.5 0.408 -65.727 0.912 24.073 0.912 24.073 0.408 -65.727
973.458 0.397 -66.386 0.916 23.408 0.916 23.408 0.397 -66.386
998.417 0.387 -67.02 0.921 22.768 0.921 22.768 0.387 -67.02
1023.375 0.377 -67.631 0.925 22.15 0.925 22.15 0.377 -67.631
1048.333 0.367 -68.221 0.929 21.553 0.929 21.553 0.367 -68.221
1073.292 0.358 -68.79 0.932 20.977 0.932 20.977 0.358 -68.79
1098.25 0.349 -69.34 0.936 20.421 0.936 20.421 0.349 -69.34
1123.208 0.34 -69.871 0.939 19.882 0.939 19.882 0.34 -69.871
1148.167 0.332 -70.385 0.942 19.361 0.942 19.361 0.332 -70.385
1173.125 0.323 -70.883 0.945 18.856 0.945 18.856 0.323 -70.883
1198.083 0.315 -71.365 0.948 18.366 0.948 18.366 0.315 -71.365
1223.042 0.307 -71.832 0.95 17.892 0.95 17.892 0.307 -71.832
1248 0.3 -72.285 0.953 17.431 0.953 17.431 0.3 -72.285
1272.958 0.292 -72.724 0.955 16.984 0.955 16.984 0.292 -72.724
1297.917 0.285 -73.15 0.957 16.55 0.957 16.55 0.285 -73.15
1322.875 0.278 -73.564 0.959 16.127 0.959 16.127 0.278 -73.564
1347.833 0.271 -73.966 0.961 15.717 0.961 15.717 0.271 -73.966
1372.792 0.264 -74.357 0.963 15.317 0.963 15.317 0.264 -74.357
1397.75 0.258 -74.738 0.965 14.928 0.965 14.928 0.258 -74.738
1422.708 0.251 -75.108 0.966 14.548 0.966 14.548 0.251 -75.108
1447.667 0.245 -75.468 0.968 14.179 0.968 14.179 0.245 -75.468
1472.625 0.239 -75.819 0.97 13.818 0.97 13.818 0.239 -75.819
1497.583 0.233 -76.161 0.971 13.467 0.971 13.467 0.233 -76.161
1522.542 0.227 -76.494 0.972 13.123 0.972 13.123 0.227 -76.494
1547.5 0.221 -76.819 0.974 12.788 0.974 12.788 0.221 -76.819
1572.458 0.216 -77.136 0.975 12.46 0.975 12.46 0.216 -77.136
1597.417 0.21 -77.445 0.976 12.14 0.976 12.14 0.21 -77.445
1622.375 0.205 -77.747 0.977 11.827 0.977 11.827 0.205 -77.747
1647.333 0.2 -78.041 0.978 11.521 0.978 11.521 0.2 -78.041
1672.292 0.195 -78.329 0.979 11.221 0.979 11.221 0.195 -78.329
1697.25 0.19 -78.61 0.98 10.927 0.98 10.927 0.19 -78.61
1722.208 0.185 -78.885 0.981 10.64 0.981 10.64 0.185 -78.885
1747.167 0.18 -79.154 0.982 10.358 0.982 10.358 0.18 -79.154
1772.125 0.175 -79.416 0.983 10.082 0.983 10.082 0.175 -79.416
1797.083 0.17 -79.673 0.984 9.811 0.984 9.811 0.17 -79.673
1822.042 0.166 -79.924 0.985 9.545 0.985 9.545 0.166 -79.924
1847 0.161 -80.17 0.985 9.284 0.985 9.284 0.161 -80.17
1871.958 0.157 -80.41 0.986 9.028 0.986 9.028 0.157 -80.41
1896.917 0.153 -80.645 0.987 8.777 0.987 8.777 0.153 -80.645
1921.875 0.148 -80.875 0.987 8.53 0.987 8.53 0.148 -80.875
1946.833 0.144 -81.1 0.988 8.287 0.988 8.287 0.144 -81.1
1971.792 0.14 -81.32 0.989 8.049 0.989 8.049 0.14 -81.32
1996.75 0.136 -81.535 0.989 7.814 0.989 7.814 0.136 -81.535
2021.708 0.132 -81.746 0.99 7.584 0.99 7.584 0.132 -81.746
2046.667 0.128 -81.952 0.99 7.357 0.99 7.357 0.128 -81.952
2071.625 0.124 -82.153 0.991 7.133 0.991 7.133 0.124 -82.153
2096.583 0.12 -82.35 0.991 6.913 0.991 6.913 0.12 -82.35
2121.542 0.117 -82.543 0.992 6.697 0.992 6.697 0.117 -82.543
2146.5 0.113 -82.731 0.992 6.484 0.992 6.484 0.113 -82.731
2171.458 0.109 -82.915 0.992 6.274 0.992 6.274 0.109 -82.915
2196.417 0.106 -83.094 0.993 6.066 0.993 6.066 0.106 -83.094
2221.375 0.102 -83.268 0.993 5.862 0.993 5.862 0.102 -83.268
2246.333 0.099 -83.438 0.994 5.661 0.994 5.661 0.099 -83.438
2271.292 0.095 -83.604 0.994 5.463 0.994 5.463 0.095 -83.604
2296.25 0.092 -83.765 0.994 5.267 0.994 5.267 0.092 -83.765
2321.208 0.088 -83.921 0.995 5.074 0.995 5.074 0.088 -83.921
2346.167 0.085 -84.072 0.995 4.883 0.995 4.883 0.085 -84.072
2371.125 0.082 -84.218 0.995 4.695 0.995 4.695 0.082 -84.218
2396.083 0.079 -84.359 0.995 4.509 0.995 4.509 0.079 -84.359
2421.042 0.075 -84.494 0.996 4.326 0.996 4.326 0.075 -84.494
2446 0.072 -84.624 0.996 4.145 0.996 4.145 0.072 -84.624
2470.958 0.069 -84.747 0.996 3.965 0.996 3.965 0.069 -84.747
2495.917 0.066 -84.864 0.996 3.789 0.996 3.789 0.066 -84.864
2520.875 0.063 -84.973 0.996 3.614 0.996 3.614 0.063 -84.973
2545.833 0.06 -85.075 0.997 3.441 0.997 3.441 0.06 -85.075
2570.792 0.057 -85.168 0.997 3.27 0.997 3.27 0.057 -85.168
2595.75 0.054 -85.252 0.997 3.101 0.997 3.101 0.054 -85.252
2620.708 0.051 -85.325 0.997 2.934 0.997 2.934 0.051 -85.325
2645.667 0.048 -85.386 0.997 2.769 0.997 2.769 0.048 -85.386
2670.625 0.045 -85.434 0.997 2.605 0.997 2.605 0.045 -85.434
2695.583 0.043 -85.466 0.998 2.443 0.998 2.443 0.043 -85.466
2720.542 0.04 -85.479 0.998 2.283 0.998 2.283 0.04 -85.479
2745.5 0.037 -85.471 0.998 2.124 0.998 2.124 0.037 -85.471
2770.458 0.034 -85.436 0.998 1.967 0.998 1.967 0.034 -85.436
2795.417 0.032 -85.369 0.998 1.812 0.998 1.812 0.032 -85.369
2820.375 0.029 -85.261 0.998 1.658 0.998 1.658 0.029 -85.261
2845.333 0.026 -85.102 0.998 1.505 0.998 1.505 0.026 -85.102
2870.292 0.024 -84.876 0.998 1.354 0.998 1.354 0.024 -84.876
2895.25 0.021 -84.558 0.998 1.205 0.998 1.205 0.021 -84.558
2920.208 0.018 -84.114 0.998 1.056 0.998 1.056 0.018 -84.114
2945.167 0.016 -83.485 0.998 0.909 0.998 0.909 0.016 -83.485
2970.125 0.013 -82.569 0.998 0.764 0.998 0.764 0.013 -82.569
2995.083 0.011 -81.177 0.998 0.619 0.998 0.619 0.011 -81.177
3020.042 8.45e-3 -78.9 0.998 0.476 0.998 0.476 8.45e-3 -78.9
3045 6.031e-3 -74.697 0.998 0.334 0.998 0.334 6.031e-3 -74.697
3069.958 3.711e-3 -64.987 0.998 0.193 0.998 0.193 3.711e-3 -64.987
3094.917 1.815e-3 -30.793 0.998 0.053 0.998 0.053 1.815e-3 -30.793
3119.875 2.154e-3 43.601 0.998 -0.085 0.998 -0.085 2.154e-3 43.601
3144.833 4.188e-3 67.938 0.998 -0.223 0.998 -0.223 4.188e-3 67.938
3169.792 6.458e-3 75.683 0.998 -0.359 0.998 -0.359 6.458e-3 75.683
3194.75 8.769e-3 79.273 0.998 -0.494 0.998 -0.494 8.769e-3 79.273
3219.708 0.011 81.292 0.998 -0.629 0.998 -0.629 0.011 81.292
3244.667 0.013 82.558 0.998 -0.762 0.998 -0.762 0.013 82.558
3269.625 0.016 83.407 0.998 -0.894 0.998 -0.894 0.016 83.407
3294.583 0.018 84.001 0.998 -1.026 0.998 -1.026 0.018 84.001
3319.542 0.02 84.43 0.998 -1.156 0.998 -1.156 0.02 84.43
3344.5 0.022 84.743 0.998 -1.286 0.998 -1.286 0.022 84.743
3369.458 0.025 84.975 0.998 -1.414 0.998 -1.414 0.025 84.975
3394.417 0.027 85.146 0.998 -1.542 0.998 -1.542 0.027 85.146
3419.375 0.029 85.27 0.998 -1.669 0.998 -1.669 0.029 85.27
3444.333 0.031 85.359 0.998 -1.795 0.998 -1.795 0.031 85.359
3469.292 0.034 85.419 0.998 -1.92 0.998 -1.92 0.034 85.419
3494.25 0.036 85.457 0.998 -2.044 0.998 -2.044 0.036 85.457
3519.208 0.038 85.475 0.998 -2.168 0.998 -2.168 0.038 85.475
3544.167 0.04 85.479 0.998 -2.29 0.998 -2.29 0.04 85.479
3569.125 0.042 85.47 0.998 -2.412 0.998 -2.412 0.042 85.47
3594.083 0.044 85.45 0.997 -2.534 0.997 -2.534 0.044 85.45
3619.042 0.046 85.421 0.997 -2.654 0.997 -2.654 0.046 85.421
3644 0.048 85.384 0.997 -2.774 0.997 -2.774 0.048 85.384
3668.958 0.05 85.341 0.997 -2.893 0.997 -2.893 0.05 85.341
3693.917 0.053 85.292 0.997 -3.011 0.997 -3.011 0.053 85.292
3718.875 0.055 85.239 0.997 -3.129 0.997 -3.129 0.055 85.239
3743.833 0.057 85.181 0.997 -3.246 0.997 -3.246 0.057 85.181
3768.792 0.059 85.119 0.997 -3.362 0.997 -3.362 0.059 85.119
3793.75 0.061 85.054 0.997 -3.478 0.997 -3.478 0.061 85.054
3818.708 0.063 84.986 0.996 -3.593 0.996 -3.593 0.063 84.986
3843.667 0.065 84.915 0.996 -3.707 0.996 -3.707 0.065 84.915
3868.625 0.067 84.843 0.996 -3.821 0.996 -3.821 0.067 84.843
3893.583 0.069 84.768 0.996 -3.934 0.996 -3.934 0.069 84.768
3918.542 0.071 84.692 0.996 -4.047 0.996 -4.047 0.071 84.692
3943.5 0.073 84.614 0.996 -4.159 0.996 -4.159 0.073 84.614
3968.458 0.074 84.534 0.996 -4.27 0.996 -4.27 0.074 84.534
3993.417 0.076 84.454 0.996 -4.381 0.996 -4.381 0.076 84.454
4018.375 0.078 84.372 0.995 -4.492 0.995 -4.492 0.078 84.372
4043.333 0.08 84.29 0.995 -4.601 0.995 -4.601 0.08 84.29
4068.292 0.082 84.206 0.995 -4.711 0.995 -4.711 0.082 84.206
4093.25 0.084 84.122 0.995 -4.819 0.995 -4.819 0.084 84.122
4118.208 0.086 84.037 0.995 -4.928 0.995 -4.928 0.086 84.037
4143.167 0.088 83.952 0.995 -5.035 0.995 -5.035 0.088 83.952
4168.125 0.09 83.866 0.994 -5.143 0.994 -5.143 0.09 83.866
4193.083 0.092 83.779 0.994 -5.249 0.994 -5.249 0.092 83.779
4218.042 0.093 83.692 0.994 -5.355 0.994 -5.355 0.093 83.692
4243 0.095 83.605 0.994 -5.461 0.994 -5.461 0.095 83.605
4267.958 0.097 83.518 0.994 -5.566 0.994 -5.566 0.097 83.518
4292.917 0.099 83.43 0.994 -5.671 0.994 -5.671 0.099 83.43
4317.875 0.101 83.342 0.993 -5.776 0.993 -5.776 0.101 83.342
4342.833 0.102 83.254 0.993 -5.88 0.993 -5.88 0.102 83.254
4367.792 0.104 83.165 0.993 -5.983 0.993 -5.983 0.104 83.165
4392.75 0.106 83.077 0.993 -6.086 0.993 -6.086 0.106 83.077
4417.708 0.108 82.988 0.993 -6.189 0.993 -6.189 0.108 82.988
4442.667 0.11 82.9 0.992 -6.291 0.992 -6.291 0.11 82.9
4467.625 0.111 82.811 0.992 -6.393 0.992 -6.393 0.111 82.811
4492.583 0.113 82.722 0.992 -6.494 0.992 -6.494 0.113 82.722
4517.542 0.115 82.633 0.992 -6.595 0.992 -6.595 0.115 82.633
4542.5 0.117 82.544 0.992 -6.695 0.992 -6.695 0.117 82.544
4567.458 0.118 82.455 0.991 -6.796 0.991 -6.796 0.118 82.455
4592.417 0.12 82.367 0.991 -6.895 0.991 -6.895 0.12 82.367
4617.375 0.122 82.278 0.991 -6.995 0.991 -6.995 0.122 82.278
4642.333 0.124 82.189 0.991 -7.094 0.991 -7.094 0.124 82.189
4667.292 0.125 82.1 0.991 -7.192 0.991 -7.192 0.125 82.1
4692.25 0.127 82.012 0.99 -7.291 0.99 -7.291 0.127 82.012
4717.208 0.129 81.923 0.99 -7.389 0.99 -7.389 0.129 81.923
4742.167 0.13 81.835 0.99 -7.486 0.99 -7.486 0.13 81.835
4767.125 0.132 81.746 0.99 -7.583 0.99 -7.583 0.132 81.746
4792.083 0.134 81.658 0.989 -7.68 0.989 -7.68 0.134 81.658
4817.042 0.135 81.57 0.989 -7.777 0.989 -7.777 0.135 81.57
4842 0.137 81.482 0.989 -7.873 0.989 -7.873 0.137 81.482
4866.958 0.139 81.394 0.989 -7.969 0.989 -7.969 0.139 81.394
4891.917 0.14 81.306 0.989 -8.064 0.989 -8.064 0.14 81.306
4916.875 0.142 81.218 0.988 -8.16 0.988 -8.16 0.142 81.218
4941.833 0.144 81.13 0.988 -8.254 0.988 -8.254 0.144 81.13
4966.792 0.145 81.043 0.988 -8.349 0.988 -8.349 0.145 81.043
4991.75 0.147 80.955 0.988 -8.443 0.988 -8.443 0.147 80.955
5016.708 0.148 80.868 0.987 -8.537 0.987 -8.537 0.148 80.868
5041.667 0.15 80.781 0.987 -8.631 0.987 -8.631 0.15 80.781
5066.625 0.152 80.694 0.987 -8.724 0.987 -8.724 0.152 80.694
5091.583 0.153 80.607 0.987 -8.817 0.987 -8.817 0.153 80.607
5116.542 0.155 80.521 0.986 -8.91 0.986 -8.91 0.155 80.521
5141.5 0.156 80.434 0.986 -9.002 0.986 -9.002 0.156 80.434
5166.458 0.158 80.348 0.986 -9.095 0.986 -9.095 0.158 80.348
5191.417 0.16 80.262 0.986 -9.186 0.986 -9.186 0.16 80.262
5216.375 0.161 80.176 0.985 -9.278 0.985 -9.278 0.161 80.176
5241.333 0.163 80.09 0.985 -9.369 0.985 -9.369 0.163 80.09
5266.292 0.164 80.004 0.985 -9.46 0.985 -9.46 0.164 80.004
5291.25 0.166 79.918 0.985 -9.551 0.985 -9.551 0.166 79.918
5316.208 0.167 79.833 0.984 -9.642 0.984 -9.642 0.167 79.833
5341.167 0.169 79.748 0.984 -9.732 0.984 -9.732 0.169 79.748
5366.125 0.171 79.662 0.984 -9.822 0.984 -9.822 0.171 79.662
5391.083 0.172 79.578 0.984 -9.912 0.984 -9.912 0.172 79.578
5416.042 0.174 79.493 0.983 -10.001 0.983 -10.001 0.174 79.493
5441 0.175 79.408 0.983 -10.09 0.983 -10.09 0.175 79.408
5465.958 0.177 79.324 0.983 -10.179 0.983 -10.179 0.177 79.324
5490.917 0.178 79.239 0.982 -10.268 0.982 -10.268 0.178 79.239
5515.875 0.18 79.155 0.982 -10.357 0.982 -10.357 0.18 79.155
5540.833 0.181 79.071 0.982 -10.445 0.982 -10.445 0.181 79.071
5565.792 0.183 78.987 0.982 -10.533 0.982 -10.533 0.183 78.987
5590.75 0.184 78.903 0.981 -10.621 0.981 -10.621 0.184 78.903
5615.708 0.186 78.82 0.981 -10.708 0.981 -10.708 0.186 78.82
5640.667 0.187 78.736 0.981 -10.795 0.981 -10.795 0.187 78.736
5665.625 0.189 78.653 0.98 -10.882 0.98 -10.882 0.189 78.653
5690.583 0.19 78.57 0.98 -10.969 0.98 -10.969 0.19 78.57
5715.542 0.192 78.487 0.98 -11.056 0.98 -11.056 0.192 78.487
5740.5 0.193 78.404 0.98 -11.142 0.98 -11.142 0.193 78.404
5765.458 0.195 78.322 0.979 -11.228 0.979 -11.228 0.195 78.322
5790.417 0.196 78.239 0.979 -11.314 0.979 -11.314 0.196 78.239
5815.375 0.198 78.157 0.979 -11.4 0.979 -11.4 0.198 78.157
5840.333 0.199 78.075 0.978 -11.486 0.978 -11.486 0.199 78.075
5865.292 0.201 77.993 0.978 -11.571 0.978 -11.571 0.201 77.993
5890.25 0.202 77.911 0.978 -11.656 0.978 -11.656 0.202 77.911
5915.208 0.203 77.83 0.978 -11.741 0.978 -11.741 0.203 77.83
5940.167 0.205 77.748 0.977 -11.826 0.977 -11.826 0.205 77.748
5965.125 0.206 77.667 0.977 -11.91 0.977 -11.91 0.206 77.667
5990.083 0.208 77.585 0.977 -11.994 0.977 -11.994 0.208 77.585
6015.042 0.209 77.504 0.976 -12.078 0.976 -12.078 0.209 77.504
6040 0.211 77.423 0.976 -12.162 0.976 -12.162 0.211 77.423
6064.958 0.212 77.343 0.976 -12.246 0.976 -12.246 0.212 77.343
6089.917 0.214 77.262 0.975 -12.33 0.975 -12.33 0.214 77.262
6114.875 0.215 77.182 0.975 -12.413 0.975 -12.413 0.215 77.182
6139.833 0.216 77.101 0.975 -12.496 0.975 -12.496 0.216 77.101
6164.792 0.218 77.021 0.974 -12.579 0.974 -12.579 0.218 77.021
6189.75 0.219 76.941 0.974 -12.662 0.974 -12.662 0.219 76.941
6214.708 0.221 76.861 0.974 -12.744 0.974 -12.744 0.221 76.861
6239.667 0.222 76.782 0.974 -12.826 0.974 -12.826 0.222 76.782
6264.625 0.223 76.702 0.973 -12.909 0.973 -12.909 0.223 76.702
6289.583 0.225 76.623 0.973 -12.991 0.973 -12.991 0.225 76.623
6314.542 0.226 76.543 0.973 -13.072 0.973 -13.072 0.226 76.543
6339.5 0.228 76.464 0.972 -13.154 0.972 -13.154 0.228 76.464
6364.458 0.229 76.385 0.972 -13.235 0.972 -13.235 0.229 76.385
6389.417 0.23 76.306 0.972 -13.317 0.972 -13.317 0.23 76.306
6414.375 0.232 76.228 0.971 -13.398 0.971 -13.398 0.232 76.228
6439.333 0.233 76.149 0.971 -13.479 0.971 -13.479 0.233 76.149
6464.292 0.234 76.071 0.971 -13.559 0.971 -13.559 0.234 76.071
6489.25 0.236 75.992 0.97 -13.64 0.97 -13.64 0.236 75.992
6514.208 0.237 75.914 0.97 -13.72 0.97 -13.72 0.237 75.914
6539.167 0.239 75.836 0.97 -13.801 0.97 -13.801 0.239 75.836
6564.125 0.24 75.758 0.969 -13.881 0.969 -13.881 0.24 75.758
6589.083 0.241 75.68 0.969 -13.96 0.969 -13.96 0.241 75.68
6614.042 0.243 75.603 0.969 -14.04 0.969 -14.04 0.243 75.603
6639 0.244 75.525 0.968 -14.12 0.968 -14.12 0.244 75.525
6663.958 0.245 75.448 0.968 -14.199 0.968 -14.199 0.245 75.448
6688.917 0.247 75.371 0.968 -14.278 0.968 -14.278 0.247 75.371
6713.875 0.248 75.294 0.967 -14.357 0.967 -14.357 0.248 75.294
6738.833 0.249 75.217 0.967 -14.436 0.967 -14.436 0.249 75.217
6763.792 0.251 75.14 0.967 -14.515 0.967 -14.515 0.251 75.14
6788.75 0.252 75.063 0.966 -14.594 0.966 -14.594 0.252 75.063
6813.708 0.253 74.987 0.966 -14.672 0.966 -14.672 0.253 74.987
6838.667 0.255 74.91 0.966 -14.75 0.966 -14.75 0.255 74.91
6863.625 0.256 74.834 0.965 -14.829 0.965 -14.829 0.256 74.834
6888.583 0.257 74.758 0.965 -14.907 0.965 -14.907 0.257 74.758
6913.542 0.259 74.682 0.964 -14.984 0.964 -14.984 0.259 74.682
6938.5 0.26 74.606 0.964 -15.062 0.964 -15.062 0.26 74.606
6963.458 0.261 74.53 0.964 -15.14 0.964 -15.14 0.261 74.53
6988.417 0.262 74.455 0.963 -15.217 0.963 -15.217 0.262 74.455
7013.375 0.264 74.379 0.963 -15.294 0.963 -15.294 0.264 74.379
7038.333 0.265 74.304 0.963 -15.371 0.963 -15.371 0.265 74.304
7063.292 0.266 74.229 0.962 -15.448 0.962 -15.448 0.266 74.229
7088.25 0.268 74.154 0.962 -15.525 0.962 -15.525 0.268 74.154
7113.208 0.269 74.079 0.962 -15.602 0.962 -15.602 0.269 74.079
7138.167 0.27 74.004 0.961 -15.678 0.961 -15.678 0.27 74.004
7163.125 0.272 73.929 0.961 -15.755 0.961 -15.755 0.272 73.929
7188.083 0.273 73.854 0.961 -15.831 0.961 -15.831 0.273 73.854
7213.042 0.274 73.78 0.96 -15.907 0.96 -15.907 0.274 73.78
7238 0.275 73.705 0.96 -15.983 0.96 -15.983 0.275 73.705
7262.958 0.277 73.631 0.959 -16.059 0.959 -16.059 0.277 73.631
7287.917 0.278 73.557 0.959 -16.134 0.959 -16.134 0.278 73.557
7312.875 0.279 73.483 0.959 -16.21 0.959 -16.21 0.279 73.483
7337.833 0.28 73.409 0.958 -16.285 0.958 -16.285 0.28 73.409
7362.792 0.282 73.335 0.958 -16.361 0.958 -16.361 0.282 73.335
7387.75 0.283 73.262 0.958 -16.436 0.958 -16.436 0.283 73.262
7412.708 0.284 73.188 0.957 -16.511 0.957 -16.511 0.284 73.188
7437.667 0.285 73.115 0.957 -16.586 0.957 -16.586 0.285 73.115
7462.625 0.287 73.041 0.957 -16.66 0.957 -16.66 0.287 73.041
7487.583 0.288 72.968 0.956 -16.735 0.956 -16.735 0.288 72.968
7512.542 0.289 72.895 0.956 -16.809 0.956 -16.809 0.289 72.895
7537.5 0.29 72.822 0.955 -16.884 0.955 -16.884 0.29 72.822
7562.458 0.292 72.749 0.955 -16.958 0.955 -16.958 0.292 72.749
7587.417 0.293 72.677 0.955 -17.032 0.955 -17.032 0.293 72.677
7612.375 0.294 72.604 0.954 -17.106 0.954 -17.106 0.294 72.604
7637.333 0.295 72.532 0.954 -17.18 0.954 -17.18 0.295 72.532
7662.292 0.297 72.459 0.954 -17.253 0.954 -17.253 0.297 72.459
7687.25 0.298 72.387 0.953 -17.327 0.953 -17.327 0.298 72.387
7712.208 0.299 72.315 0.953 -17.4 0.953 -17.4 0.299 72.315
7737.167 0.3 72.243 0.952 -17.474 0.952 -17.474 0.3 72.243
7762.125 0.301 72.171 0.952 -17.547 0.952 -17.547 0.301 72.171
7787.083 0.303 72.099 0.952 -17.62 0.952 -17.62 0.303 72.099
7812.042 0.304 72.027 0.951 -17.693 0.951 -17.693 0.304 72.027
7837 0.305 71.956 0.951 -17.766 0.951 -17.766 0.305 71.956
7861.958 0.306 71.884 0.95 -17.838 0.95 -17.838 0.306 71.884
7886.917 0.308 71.813 0.95 -17.911 0.95 -17.911 0.308 71.813
7911.875 0.309 71.742 0.95 -17.983 0.95 -17.983 0.309 71.742
7936.833 0.31 71.67 0.949 -18.056 0.949 -18.056 0.31 71.67
7961.792 0.311 71.599 0.949 -18.128 0.949 -18.128 0.311 71.599
7986.75 0.312 71.528 0.948 -18.2 0.948 -18.2 0.312 71.528
8011.708 0.314 71.458 0.948 -18.272 0.948 -18.272 0.314 71.458
8036.667 0.315 71.387 0.948 -18.344 0.948 -18.344 0.315 71.387
8061.625 0.316 71.316 0.947 -18.416 0.947 -18.416 0.316 71.316
8086.583 0.317 71.246 0.947 -18.487 0.947 -18.487 0.317 71.246
8111.542 0.318 71.175 0.947 -18.559 0.947 -18.559 0.318 71.175
8136.5 0.319 71.105 0.946 -18.63 0.946 -18.63 0.319 71.105
8161.458 0.321 71.035 0.946 -18.702 0.946 -18.702 0.321 71.035
8186.417 0.322 70.965 0.945 -18.773 0.945 -18.773 0.322 70.965
8211.375 0.323 70.895 0.945 -18.844 0.945 -18.844 0.323 70.895
