# MHZ S MA R 50

50 0.999 -2.339 0.041 87.656 0.041 87.656 0.999 -2.339
74.958 0.998 -3.504 0.061 86.488 0.061 86.488 0.998 -3.504
99.917 0.997 -4.668 0.081 85.322 0.081 85.322 0.997 -4.668
124.875 0.995 -5.827 0.102 84.159 0.102 84.159 0.995 -5.827
149.833 0.993 -6.983 0.122 83.001 0.122 83.001 0.993 -6.983
174.792 0.99 -8.135 0.141 81.847 0.141 81.847 0.99 -8.135
199.75 0.987 -9.28 0.161 80.699 0.161 80.699 0.987 -9.28
224.708 0.983 -10.42 0.181 79.556 0.181 79.556 0.983 -10.42
249.667 0.98 -11.553 0.2 78.421 0.2 78.421 0.98 -11.553
274.625 0.976 -12.678 0.219 77.293 0.219 77.293 0.976 -12.678
299.583 0.971 -13.795 0.238 76.173 0.238 76.173 0.971 -13.795
324.542 0.966 -14.904 0.257 75.062 0.257 75.062 0.966 -14.904
349.5 0.961 -16.003 0.276 73.96 0.276 73.96 0.961 -16.003
374.458 0.956 -17.092 0.294 72.868 0.294 72.868 0.956 -17.092
399.417 0.95 -18.172 0.312 71.786 0.312 71.786 0.95 -18.172
424.375 0.944 -19.24 0.33 70.715 0.33 70.715 0.944 -19.24
449.333 0.938 -20.297 0.347 69.655 0.347 69.655 0.938 -20.297
474.292 0.931 -21.343 0.364 68.607 0.364 68.607 0.931 -21.343
499.25 0.924 -22.376 0.381 67.571 0.381 67.571 0.924 -22.376
524.208 0.917 -23.397 0.397 66.547 0.397 66.547 0.917 -23.397
549.167 0.91 -24.406 0.413 65.535 0.413 65.535 0.91 -24.406
574.125 0.903 -25.402 0.429 64.537 0.429 64.537 0.903 -25.402
599.083 0.895 -26.385 0.444 63.551 0.444 63.551 0.895 -26.385
624.042 0.888 -27.355 0.46 62.578 0.46 62.578 0.888 -27.355
649 0.88 -28.312 0.474 61.619 0.474 61.619 0.88 -28.312
673.958 0.872 -29.255 0.489 60.673 0.489 60.673 0.872 -29.255
698.917 0.864 -30.184 0.503 59.741 0.503 59.741 0.864 -30.184
723.875 0.856 -31.1 0.517 58.822 0.517 58.822 0.856 -31.1
748.833 0.847 -32.002 0.53 57.917 0.53 57.917 0.847 -32.002
773.792 0.839 -32.891 0.543 57.026 0.543 57.026 0.839 -32.891
798.75 0.83 -33.766 0.556 56.148 0.556 56.148 0.83 -33.766
823.708 0.822 -34.627 0.568 55.284 0.568 55.284 0.822 -34.627
848.667 0.813 -35.475 0.58 54.433 0.58 54.433 0.813 -35.475
873.625 0.805 -36.309 0.592 53.596 0.592 53.596 0.805 -36.309
898.583 0.796 -37.13 0.604 52.773 0.604 52.773 0.796 -37.13
923.542 0.788 -37.938 0.615 51.962 0.615 51.962 0.788 -37.938
948.5 0.779 -38.732 0.626 51.165 0.626 51.165 0.779 -38.732
973.458 0.77 -39.513 0.636 50.381 0.636 50.381 0.77 -39.513
998.417 0.762 -40.281 0.647 49.61 0.647 49.61 0.762 -40.281
1023.375 0.753 -41.036 0.657 48.852 0.657 48.852 0.753 -41.036
1048.333 0.744 -41.779 0.666 48.106 0.666 48.106 0.744 -41.779
1073.292 0.736 -42.509 0.676 47.373 0.676 47.373 0.736 -42.509
1098.25 0.727 -43.227 0.685 46.652 0.685 46.652 0.727 -43.227
1123.208 0.719 -43.933 0.694 45.943 0.694 45.943 0.719 -43.933
1148.167 0.71 -44.627 0.702 45.246 0.702 45.246 0.71 -44.627
1173.125 0.702 -45.309 0.711 44.561 0.711 44.561 0.702 -45.309
1198.083 0.693 -45.979 0.719 43.888 0.719 43.888 0.693 -45.979
1223.042 0.685 -46.638 0.727 43.225 0.727 43.225 0.685 -46.638
1248 0.677 -47.286 0.735 42.574 0.735 42.574 0.677 -47.286
1272.958 0.668 -47.923 0.742 41.934 0.742 41.934 0.668 -47.923
1297.917 0.66 -48.549 0.75 41.305 0.75 41.305 0.66 -48.549
1322.875 0.652 -49.165 0.757 40.686 0.757 40.686 0.652 -49.165
1347.833 0.644 -49.77 0.763 40.078 0.763 40.078 0.644 -49.77
1372.792 0.636 -50.365 0.77 39.48 0.77 39.48 0.636 -50.365
1397.75 0.628 -50.95 0.777 38.891 0.777 38.891 0.628 -50.95
1422.708 0.62 -51.525 0.783 38.313 0.783 38.313 0.62 -51.525
1447.667 0.612 -52.091 0.789 37.744 0.789 37.744 0.612 -52.091
1472.625 0.604 -52.647 0.795 37.184 0.795 37.184 0.604 -52.647
1497.583 0.597 -53.194 0.801 36.634 0.801 36.634 0.597 -53.194
1522.542 0.589 -53.732 0.806 36.092 0.806 36.092 0.589 -53.732
1547.5 0.582 -54.261 0.812 35.56 0.812 35.56 0.582 -54.261
1572.458 0.574 -54.781 0.817 35.036 0.817 35.036 0.574 -54.781
1597.417 0.567 -55.294 0.822 34.52 0.822 34.52 0.567 -55.294
1622.375 0.559 -55.797 0.827 34.013 0.827 34.013 0.559 -55.797
1647.333 0.552 -56.293 0.832 33.514 0.832 33.514 0.552 -56.293
1672.292 0.545 -56.781 0.837 33.022 0.837 33.022 0.545 -56.781
1697.25 0.538 -57.261 0.841 32.539 0.841 32.539 0.538 -57.261
1722.208 0.531 -57.733 0.846 32.062 0.846 32.062 0.531 -57.733
1747.167 0.524 -58.198 0.85 31.594 0.85 31.594 0.524 -58.198
1772.125 0.517 -58.656 0.854 31.132 0.854 31.132 0.517 -58.656
1797.083 0.51 -59.106 0.858 30.678 0.858 30.678 0.51 -59.106
1822.042 0.503 -59.55 0.862 30.23 0.862 30.23 0.503 -59.55
1847 0.497 -59.987 0.866 29.789 0.866 29.789 0.497 -59.987
1871.958 0.49 -60.417 0.87 29.355 0.87 29.355 0.49 -60.417
1896.917 0.484 -60.841 0.873 28.927 0.873 28.927 0.484 -60.841
1921.875 0.477 -61.258 0.877 28.506 0.877 28.506 0.477 -61.258
1946.833 0.471 -61.67 0.88 28.09 0.88 28.09 0.471 -61.67
1971.792 0.465 -62.075 0.884 27.681 0.884 27.681 0.465 -62.075
1996.75 0.458 -62.474 0.887 27.278 0.887 27.278 0.458 -62.474
2021.708 0.452 -62.867 0.89 26.88 0.89 26.88 0.452 -62.867
2046.667 0.446 -63.255 0.893 26.488 0.893 26.488 0.446 -63.255
2071.625 0.44 -63.637 0.896 26.102 0.896 26.102 0.44 -63.637
2096.583 0.434 -64.013 0.899 25.721 0.899 25.721 0.434 -64.013
2121.542 0.428 -64.385 0.902 25.345 0.902 25.345 0.428 -64.385
2146.5 0.422 -64.751 0.904 24.974 0.904 24.974 0.422 -64.751
2171.458 0.416 -65.112 0.907 24.609 0.907 24.609 0.416 -65.112
2196.417 0.411 -65.468 0.91 24.248 0.91 24.248 0.411 -65.468
2221.375 0.405 -65.819 0.912 23.892 0.912 23.892 0.405 -65.819
2246.333 0.399 -66.165 0.915 23.541 0.915 23.541 0.399 -66.165
2271.292 0.394 -66.507 0.917 23.194 0.917 23.194 0.394 -66.507
2296.25 0.388 -66.844 0.919 22.852 0.919 22.852 0.388 -66.844
2321.208 0.383 -67.176 0.922 22.515 0.922 22.515 0.383 -67.176
2346.167 0.378 -67.504 0.924 22.182 0.924 22.182 0.378 -67.504
2371.125 0.372 -67.828 0.926 21.853 0.926 21.853 0.372 -67.828
2396.083 0.367 -68.148 0.928 21.528 0.928 21.528 0.367 -68.148
2421.042 0.362 -68.463 0.93 21.207 0.93 21.207 0.362 -68.463
2446 0.357 -68.774 0.932 20.89 0.932 20.89 0.357 -68.774
2470.958 0.351 -69.082 0.934 20.577 0.934 20.577 0.351 -69.082
2495.917 0.346 -69.385 0.936 20.268 0.936 20.268 0.346 -69.385
2520.875 0.341 -69.685 0.938 19.962 0.938 19.962 0.341 -69.685
2545.833 0.336 -69.981 0.94 19.66 0.94 19.66 0.336 -69.981
2570.792 0.332 -70.273 0.941 19.362 0.941 19.362 0.332 -70.273
2595.75 0.327 -70.562 0.943 19.067 0.943 19.067 0.327 -70.562
2620.708 0.322 -70.847 0.945 18.776 0.945 18.776 0.322 -70.847
2645.667 0.317 -71.129 0.946 18.488 0.946 18.488 0.317 -71.129
2670.625 0.312 -71.407 0.948 18.203 0.948 18.203 0.312 -71.407
2695.583 0.308 -71.682 0.949 17.922 0.949 17.922 0.308 -71.682
2720.542 0.303 -71.954 0.951 17.643 0.951 17.643 0.303 -71.954
2745.5 0.299 -72.222 0.952 17.368 0.952 17.368 0.299 -72.222
2770.458 0.294 -72.488 0.954 17.096 0.954 17.096 0.294 -72.488
2795.417 0.289 -72.75 0.955 16.826 0.955 16.826 0.289 -72.75
2820.375 0.285 -73.009 0.956 16.56 0.956 16.56 0.285 -73.009
2845.333 0.281 -73.266 0.958 16.296 0.958 16.296 0.281 -73.266
2870.292 0.276 -73.519 0.959 16.036 0.959 16.036 0.276 -73.519
2895.25 0.272 -73.769 0.96 15.777 0.96 15.777 0.272 -73.769
2920.208 0.268 -74.017 0.961 15.522 0.961 15.522 0.268 -74.017
2945.167 0.263 -74.262 0.963 15.269 0.963 15.269 0.263 -74.262
2970.125 0.259 -74.504 0.964 15.019 0.964 15.019 0.259 -74.504
2995.083 0.255 -74.743 0.965 14.771 0.965 14.771 0.255 -74.743
3020.042 0.251 -74.979 0.966 14.526 0.966 14.526 0.251 -74.979
3045 0.247 -75.213 0.967 14.283 0.967 14.283 0.247 -75.213
3069.958 0.243 -75.445 0.968 14.043 0.968 14.043 0.243 -75.445
3094.917 0.239 -75.674 0.969 13.805 0.969 13.805 0.239 -75.674
3119.875 0.235 -75.9 0.97 13.569 0.97 13.569 0.235 -75.9
3144.833 0.231 -76.124 0.971 13.336 0.971 13.336 0.231 -76.124
3169.792 0.227 -76.345 0.972 13.104 0.972 13.104 0.227 -76.345
3194.75 0.223 -76.564 0.973 12.875 0.973 12.875 0.223 -76.564
3219.708 0.219 -76.781 0.974 12.648 0.974 12.648 0.219 -76.781
3244.667 0.215 -76.995 0.974 12.423 0.974 12.423 0.215 -76.995
3269.625 0.211 -77.207 0.975 12.201 0.975 12.201 0.211 -77.207
3294.583 0.208 -77.417 0.976 11.98 0.976 11.98 0.208 -77.417
3319.542 0.204 -77.624 0.977 11.761 0.977 11.761 0.204 -77.624
3344.5 0.2 -77.829 0.978 11.544 0.978 11.544 0.2 -77.829
3369.458 0.196 -78.032 0.978 11.329 0.978 11.329 0.196 -78.032
3394.417 0.193 -78.232 0.979 11.116 0.979 11.116 0.193 -78.232
3419.375 0.189 -78.431 0.98 10.904 0.98 10.904 0.189 -78.431
3444.333 0.186 -78.627 0.98 10.695 0.98 10.695 0.186 -78.627
3469.292 0.182 -78.821 0.981 10.487 0.981 10.487 0.182 -78.821
3494.25 0.178 -79.013 0.982 10.281 0.982 10.281 0.178 -79.013
3519.208 0.175 -79.203 0.982 10.077 0.982 10.077 0.175 -79.203
3544.167 0.171 -79.39 0.983 9.874 0.983 9.874 0.171 -79.39
3569.125 0.168 -79.575 0.984 9.673 0.984 9.673 0.168 -79.575
3594.083 0.165 -79.759 0.984 9.474 0.984 9.474 0.165 -79.759
3619.042 0.161 -79.94 0.985 9.276 0.985 9.276 0.161 -79.94
3644 0.158 -80.119 0.985 9.08 0.985 9.08 0.158 -80.119
3668.958 0.154 -80.295 0.986 8.885 0.986 8.885 0.154 -80.295
3693.917 0.151 -80.47 0.986 8.692 0.986 8.692 0.151 -80.47
3718.875 0.148 -80.643 0.987 8.501 0.987 8.501 0.148 -80.643
3743.833 0.145 -80.813 0.987 8.31 0.987 8.31 0.145 -80.813
3768.792 0.141 -80.981 0.988 8.122 0.988 8.122 0.141 -80.981
3793.75 0.138 -81.147 0.988 7.934 0.988 7.934 0.138 -81.147
3818.708 0.135 -81.31 0.989 7.749 0.989 7.749 0.135 -81.31
3843.667 0.132 -81.471 0.989 7.564 0.989 7.564 0.132 -81.471
3868.625 0.128 -81.63 0.989 7.381 0.989 7.381 0.128 -81.63
3893.583 0.125 -81.787 0.99 7.199 0.99 7.199 0.125 -81.787
3918.542 0.122 -81.941 0.99 7.019 0.99 7.019 0.122 -81.941
3943.5 0.119 -82.093 0.991 6.839 0.991 6.839 0.119 -82.093
3968.458 0.116 -82.242 0.991 6.661 0.991 6.661 0.116 -82.242
3993.417 0.113 -82.389 0.991 6.485 0.991 6.485 0.113 -82.389
4018.375 0.11 -82.533 0.992 6.309 0.992 6.309 0.11 -82.533
4043.333 0.107 -82.674 0.992 6.135 0.992 6.135 0.107 -82.674
4068.292 0.104 -82.812 0.992 5.962 0.992 5.962 0.104 -82.812
4093.25 0.101 -82.947 0.993 5.79 0.993 5.79 0.101 -82.947
4118.208 0.098 -83.079 0.993 5.619 0.993 5.619 0.098 -83.079
4143.167 0.095 -83.208 0.993 5.45 0.993 5.45 0.095 -83.208
4168.125 0.092 -83.334 0.994 5.281 0.994 5.281 0.092 -83.334
4193.083 0.089 -83.455 0.994 5.114 0.994 5.114 0.089 -83.455
4218.042 0.086 -83.573 0.994 4.947 0.994 4.947 0.086 -83.573
4243 0.083 -83.687 0.994 4.782 0.994 4.782 0.083 -83.687
4267.958 0.081 -83.797 0.995 4.618 0.995 4.618 0.081 -83.797
4292.917 0.078 -83.902 0.995 4.455 0.995 4.455 0.078 -83.902
4317.875 0.075 -84.001 0.995 4.293 0.995 4.293 0.075 -84.001
4342.833 0.072 -84.096 0.995 4.132 0.995 4.132 0.072 -84.096
4367.792 0.069 -84.184 0.995 3.971 0.995 3.971 0.069 -84.184
4392.75 0.067 -84.266 0.996 3.812 0.996 3.812 0.067 -84.266
4417.708 0.064 -84.341 0.996 3.654 0.996 3.654 0.064 -84.341
4442.667 0.061 -84.408 0.996 3.497 0.996 3.497 0.061 -84.408
4467.625 0.058 -84.466 0.996 3.341 0.996 3.341 0.058 -84.466
4492.583 0.056 -84.514 0.996 3.185 0.996 3.185 0.056 -84.514
4517.542 0.053 -84.552 0.996 3.031 0.996 3.031 0.053 -84.552
4542.5 0.05 -84.576 0.997 2.877 0.997 2.877 0.05 -84.576
4567.458 0.048 -84.586 0.997 2.725 0.997 2.725 0.048 -84.586
4592.417 0.045 -84.579 0.997 2.573 0.997 2.573 0.045 -84.579
4617.375 0.042 -84.553 0.997 2.422 0.997 2.422 0.042 -84.553
4642.333 0.04 -84.503 0.997 2.272 0.997 2.272 0.04 -84.503
4667.292 0.037 -84.426 0.997 2.123 0.997 2.123 0.037 -84.426
4692.25 0.035 -84.315 0.997 1.974 0.997 1.974 0.035 -84.315
4717.208 0.032 -84.164 0.997 1.827 0.997 1.827 0.032 -84.164
4742.167 0.029 -83.961 0.997 1.68 0.997 1.68 0.029 -83.961
4767.125 0.027 -83.694 0.997 1.534 0.997 1.534 0.027 -83.694
4792.083 0.024 -83.342 0.997 1.389 0.997 1.389 0.024 -83.342
4817.042 0.022 -82.879 0.998 1.244 0.998 1.244 0.022 -82.879
4842 0.019 -82.262 0.998 1.101 0.998 1.101 0.019 -82.262
4866.958 0.017 -81.425 0.998 0.958 0.998 0.958 0.017 -81.425
4891.917 0.014 -80.258 0.998 0.815 0.998 0.815 0.014 -80.258
4916.875 0.012 -78.567 0.998 0.674 0.998 0.674 0.012 -78.567
4941.833 9.572e-3 -75.962 0.998 0.533 0.998 0.533 9.572e-3 -75.962
4966.792 7.219e-3 -71.569 0.998 0.393 0.998 0.393 7.219e-3 -71.569
4991.75 4.965e-3 -62.988 0.998 0.254 0.998 0.254 4.965e-3 -62.988
5016.708 3.009e-3 -41.911 0.998 0.115 0.998 0.115 3.009e-3 -41.911
5041.667 2.27e-3 9.925 0.998 -0.022 0.998 -0.022 2.27e-3 9.925
5066.625 3.573e-3 51.106 0.998 -0.16 0.998 -0.16 3.573e-3 51.106
5091.583 5.633e-3 66.321 0.998 -0.296 0.998 -0.296 5.633e-3 66.321
5116.542 7.866e-3 73.057 0.998 -0.432 0.998 -0.432 7.866e-3 73.057
5141.5 0.01 76.711 0.998 -0.567 0.998 -0.567 0.01 76.711
5166.458 0.012 78.957 0.998 -0.702 0.998 -0.702 0.012 78.957
5191.417 0.015 80.453 0.998 -0.836 0.998 -0.836 0.015 80.453
5216.375 0.017 81.503 0.998 -0.969 0.998 -0.969 0.017 81.503
5241.333 0.019 82.268 0.998 -1.102 0.998 -1.102 0.019 82.268
5266.292 0.022 82.841 0.998 -1.234 0.998 -1.234 0.022 82.841
5291.25 0.024 83.276 0.997 -1.365 0.997 -1.365 0.024 83.276
5316.208 0.026 83.612 0.997 -1.496 0.997 -1.496 0.026 83.612
5341.167 0.028 83.872 0.997 -1.626 0.997 -1.626 0.028 83.872
5366.125 0.031 84.074 0.997 -1.756 0.997 -1.756 0.031 84.074
5391.083 0.033 84.229 0.997 -1.885 0.997 -1.885 0.033 84.229
5416.042 0.035 84.348 0.997 -2.014 0.997 -2.014 0.035 84.348
5441 0.037 84.437 0.997 -2.142 0.997 -2.142 0.037 84.437
5465.958 0.04 84.502 0.997 -2.269 0.997 -2.269 0.04 84.502
5490.917 0.042 84.546 0.997 -2.396 0.997 -2.396 0.042 84.546
5515.875 0.044 84.573 0.997 -2.522 0.997 -2.522 0.044 84.573
5540.833 0.046 84.585 0.997 -2.648 0.997 -2.648 0.046 84.585
5565.792 0.048 84.584 0.997 -2.773 0.997 -2.773 0.048 84.584
5590.75 0.051 84.574 0.996 -2.898 0.996 -2.898 0.051 84.574
5615.708 0.053 84.553 0.996 -3.022 0.996 -3.022 0.053 84.553
5640.667 0.055 84.525 0.996 -3.145 0.996 -3.145 0.055 84.525
5665.625 0.057 84.49 0.996 -3.269 0.996 -3.269 0.057 84.49
5690.583 0.059 84.448 0.996 -3.391 0.996 -3.391 0.059 84.448
5715.542 0.061 84.401 0.996 -3.513 0.996 -3.513 0.061 84.401
5740.5 0.063 84.35 0.996 -3.635 0.996 -3.635 0.063 84.35
5765.458 0.066 84.294 0.996 -3.756 0.996 -3.756 0.066 84.294
5790.417 0.068 84.234 0.995 -3.877 0.995 -3.877 0.068 84.234
5815.375 0.07 84.171 0.995 -3.997 0.995 -3.997 0.07 84.171
5840.333 0.072 84.104 0.995 -4.116 0.995 -4.116 0.072 84.104
5865.292 0.074 84.035 0.995 -4.236 0.995 -4.236 0.074 84.035
5890.25 0.076 83.964 0.995 -4.354 0.995 -4.354 0.076 83.964
5915.208 0.078 83.89 0.995 -4.473 0.995 -4.473 0.078 83.89
5940.167 0.08 83.815 0.995 -4.59 0.995 -4.59 0.08 83.815
5965.125 0.082 83.737 0.994 -4.708 0.994 -4.708 0.082 83.737
5990.083 0.084 83.658 0.994 -4.825 0.994 -4.825 0.084 83.658
6015.042 0.086 83.578 0.994 -4.941 0.994 -4.941 0.086 83.578
6040 0.088 83.496 0.994 -5.057 0.994 -5.057 0.088 83.496
6064.958 0.09 83.413 0.994 -5.173 0.994 -5.173 0.09 83.413
6089.917 0.092 83.328 0.994 -5.288 0.994 -5.288 0.092 83.328
6114.875 0.094 83.243 0.993 -5.403 0.993 -5.403 0.094 83.243
6139.833 0.096 83.157 0.993 -5.517 0.993 -5.517 0.096 83.157
6164.792 0.098 83.07 0.993 -5.631 0.993 -5.631 0.098 83.07
6189.75 0.1 82.983 0.993 -5.744 0.993 -5.744 0.1 82.983
6214.708 0.102 82.894 0.993 -5.857 0.993 -5.857 0.102 82.894
6239.667 0.104 82.805 0.992 -5.97 0.992 -5.97 0.104 82.805
6264.625 0.106 82.716 0.992 -6.082 0.992 -6.082 0.106 82.716
6289.583 0.108 82.626 0.992 -6.194 0.992 -6.194 0.108 82.626
6314.542 0.11 82.535 0.992 -6.306 0.992 -6.306 0.11 82.535
6339.5 0.112 82.444 0.992 -6.417 0.992 -6.417 0.112 82.444
6364.458 0.114 82.353 0.991 -6.527 0.991 -6.527 0.114 82.353
6389.417 0.116 82.262 0.991 -6.638 0.991 -6.638 0.116 82.262
6414.375 0.118 82.17 0.991 -6.748 0.991 -6.748 0.118 82.17
6439.333 0.119 82.078 0.991 -6.857 0.991 -6.857 0.119 82.078
6464.292 0.121 81.985 0.99 -6.966 0.99 -6.966 0.121 81.985
6489.25 0.123 81.893 0.99 -7.075 0.99 -7.075 0.123 81.893
6514.208 0.125 81.8 0.99 -7.184 0.99 -7.184 0.125 81.8
6539.167 0.127 81.707 0.99 -7.292 0.99 -7.292 0.127 81.707
6564.125 0.129 81.614 0.989 -7.4 0.989 -7.4 0.129 81.614
6589.083 0.131 81.521 0.989 -7.507 0.989 -7.507 0.131 81.521
6614.042 0.133 81.428 0.989 -7.614 0.989 -7.614 0.133 81.428
6639 0.134 81.335 0.989 -7.721 0.989 -7.721 0.134 81.335
6663.958 0.136 81.241 0.988 -7.827 0.988 -7.827 0.136 81.241
6688.917 0.138 81.148 0.988 -7.933 0.988 -7.933 0.138 81.148
6713.875 0.14 81.054 0.988 -8.039 0.988 -8.039 0.14 81.054
6738.833 0.142 80.961 0.988 -8.144 0.988 -8.144 0.142 80.961
6763.792 0.143 80.868 0.987 -8.249 0.987 -8.249 0.143 80.868
6788.75 0.145 80.774 0.987 -8.354 0.987 -8.354 0.145 80.774
6813.708 0.147 80.681 0.987 -8.458 0.987 -8.458 0.147 80.681
6838.667 0.149 80.587 0.987 -8.562 0.987 -8.562 0.149 80.587
6863.625 0.151 80.494 0.986 -8.666 0.986 -8.666 0.151 80.494
6888.583 0.152 80.401 0.986 -8.769 0.986 -8.769 0.152 80.401
6913.542 0.154 80.308 0.986 -8.872 0.986 -8.872 0.154 80.308
6938.5 0.156 80.214 0.986 -8.975 0.986 -8.975 0.156 80.214
6963.458 0.158 80.121 0.985 -9.077 0.985 -9.077 0.158 80.121
6988.417 0.16 80.028 0.985 -9.179 0.985 -9.179 0.16 80.028
7013.375 0.161 79.935 0.985 -9.281 0.985 -9.281 0.161 79.935
7038.333 0.163 79.842 0.984 -9.382 0.984 -9.382 0.163 79.842
7063.292 0.165 79.75 0.984 -9.484 0.984 -9.484 0.165 79.75
7088.25 0.167 79.657 0.984 -9.585 0.984 -9.585 0.167 79.657
7113.208 0.168 79.564 0.984 -9.685 0.984 -9.685 0.168 79.564
7138.167 0.17 79.472 0.983 -9.785 0.983 -9.785 0.17 79.472
7163.125 0.172 79.38 0.983 -9.885 0.983 -9.885 0.172 79.38
7188.083 0.173 79.287 0.983 -9.985 0.983 -9.985 0.173 79.287
7213.042 0.175 79.195 0.982 -10.084 0.982 -10.084 0.175 79.195
7238 0.177 79.103 0.982 -10.184 0.982 -10.184 0.177 79.103
7262.958 0.179 79.012 0.982 -10.282 0.982 -10.282 0.179 79.012
7287.917 0.18 78.92 0.981 -10.381 0.981 -10.381 0.18 78.92
7312.875 0.182 78.828 0.981 -10.479 0.981 -10.479 0.182 78.828
7337.833 0.184 78.737 0.981 -10.577 0.981 -10.577 0.184 78.737
7362.792 0.185 78.646 0.98 -10.675 0.98 -10.675 0.185 78.646
7387.75 0.187 78.554 0.98 -10.772 0.98 -10.772 0.187 78.554
7412.708 0.189 78.463 0.98 -10.87 0.98 -10.87 0.189 78.463
7437.667 0.19 78.372 0.98 -10.967 0.98 -10.967 0.19 78.372
7462.625 0.192 78.282 0.979 -11.063 0.979 -11.063 0.192 78.282
7487.583 0.194 78.191 0.979 -11.16 0.979 -11.16 0.194 78.191
7512.542 0.195 78.101 0.979 -11.256 0.979 -11.256 0.195 78.101
7537.5 0.197 78.01 0.978 -11.352 0.978 -11.352 0.197 78.01
7562.458 0.198 77.92 0.978 -11.447 0.978 -11.447 0.198 77.92
7587.417 0.2 77.83 0.978 -11.542 0.978 -11.542 0.2 77.83
7612.375 0.202 77.741 0.977 -11.638 0.977 -11.638 0.202 77.741
7637.333 0.203 77.651 0.977 -11.732 0.977 -11.732 0.203 77.651
7662.292 0.205 77.561 0.977 -11.827 0.977 -11.827 0.205 77.561
7687.25 0.207 77.472 0.976 -11.921 0.976 -11.921 0.207 77.472
7712.208 0.208 77.383 0.976 -12.015 0.976 -12.015 0.208 77.383
7737.167 0.21 77.294 0.976 -12.109 0.976 -12.109 0.21 77.294
7762.125 0.211 77.205 0.975 -12.203 0.975 -12.203 0.211 77.205
7787.083 0.213 77.116 0.975 -12.296 0.975 -12.296 0.213 77.116
7812.042 0.215 77.028 0.975 -12.389 0.975 -12.389 0.215 77.028
7837 0.216 76.939 0.974 -12.482 0.974 -12.482 0.216 76.939
7861.958 0.218 76.851 0.974 -12.575 0.974 -12.575 0.218 76.851
7886.917 0.219 76.763 0.973 -12.667 0.973 -12.667 0.219 76.763
7911.875 0.221 76.675 0.973 -12.759 0.973 -12.759 0.221 76.675
7936.833 0.222 76.588 0.973 -12.851 0.973 -12.851 0.222 76.588
7961.792 0.224 76.5 0.972 -12.943 0.972 -12.943 0.224 76.5
7986.75 0.226 76.413 0.972 -13.034 0.972 -13.034 0.226 76.413
8011.708 0.227 76.325 0.972 -13.125 0.972 -13.125 0.227 76.325
8036.667 0.229 76.238 0.971 -13.216 0.971 -13.216 0.229 76.238
8061.625 0.23 76.151 0.971 -13.307 0.971 -13.307 0.23 76.151
8086.583 0.232 76.065 0.971 -13.398 0.971 -13.398 0.232 76.065
8111.542 0.233 75.978 0.97 -13.488 0.97 -13.488 0.233 75.978
8136.5 0.235 75.892 0.97 -13.578 0.97 -13.578 0.235 75.892
8161.458 0.236 75.805 0.97 -13.668 0.97 -13.668 0.236 75.805
8186.417 0.238 75.719 0.969 -13.757 0.969 -13.757 0.238 75.719
