# MHZ S MA R 50

50 0.998 -3.327 0.058 86.667 0.058 86.667 0.998 -3.327
74.958 0.996 -4.981 0.087 85.009 0.087 85.009 0.996 -4.981
99.917 0.993 -6.628 0.115 83.359 0.115 83.359 0.993 -6.628
124.875 0.99 -8.266 0.144 81.718 0.144 81.718 0.99 -8.266
149.833 0.985 -9.892 0.172 80.089 0.172 80.089 0.985 -9.892
174.792 0.98 -11.503 0.199 78.474 0.199 78.474 0.98 -11.503
199.75 0.974 -13.099 0.227 76.876 0.227 76.876 0.974 -13.099
224.708 0.967 -14.677 0.253 75.295 0.253 75.295 0.967 -14.677
249.667 0.96 -16.235 0.28 73.733 0.28 73.733 0.96 -16.235
274.625 0.952 -17.772 0.305 72.193 0.305 72.193 0.952 -17.772
299.583 0.944 -19.286 0.33 70.676 0.33 70.676 0.944 -19.286
324.542 0.935 -20.776 0.355 69.182 0.355 69.182 0.935 -20.776
349.5 0.925 -22.242 0.379 67.714 0.379 67.714 0.925 -22.242
374.458 0.915 -23.681 0.402 66.271 0.402 66.271 0.915 -23.681
399.417 0.905 -25.093 0.424 64.855 0.424 64.855 0.905 -25.093
424.375 0.895 -26.478 0.446 63.467 0.446 63.467 0.895 -26.478
449.333 0.884 -27.835 0.467 62.107 0.467 62.107 0.884 -27.835
474.292 0.873 -29.164 0.487 60.775 0.487 60.775 0.873 -29.164
499.25 0.861 -30.464 0.507 59.471 0.507 59.471 0.861 -30.464
524.208 0.85 -31.735 0.526 58.197 0.526 58.197 0.85 -31.735
549.167 0.838 -32.978 0.544 56.951 0.544 56.951 0.838 -32.978
574.125 0.826 -34.192 0.562 55.734 0.562 55.734 0.826 -34.192
599.083 0.815 -35.377 0.579 54.545 0.579 54.545 0.815 -35.377
624.042 0.803 -36.534 0.595 53.385 0.595 53.385 0.803 -36.534
649 0.791 -37.663 0.611 52.253 0.611 52.253 0.791 -37.663
673.958 0.779 -38.764 0.626 51.148 0.626 51.148 0.779 -38.764
698.917 0.767 -39.838 0.641 50.07 0.641 50.07 0.767 -39.838
723.875 0.755 -40.886 0.655 49.02 0.655 49.02 0.755 -40.886
748.833 0.743 -41.907 0.668 47.995 0.668 47.995 0.743 -41.907
773.792 0.731 -42.902 0.681 46.996 0.681 46.996 0.731 -42.902
798.75 0.72 -43.872 0.693 46.022 0.693 46.022 0.72 -43.872
823.708 0.708 -44.818 0.705 45.073 0.705 45.073 0.708 -44.818
848.667 0.697 -45.739 0.716 44.148 0.716 44.148 0.697 -45.739
873.625 0.685 -46.637 0.727 43.246 0.727 43.246 0.685 -46.637
898.583 0.674 -47.513 0.737 42.367 0.737 42.367 0.674 -47.513
923.542 0.663 -48.366 0.747 41.51 0.747 41.51 0.663 -48.366
948.5 0.652 -49.198 0.757 40.675 0.757 40.675 0.652 -49.198
973.458 0.641 -50.009 0.766 39.86 0.766 39.86 0.641 -50.009
998.417 0.63 -50.799 0.775 39.066 0.775 39.066 0.63 -50.799
1023.375 0.62 -51.57 0.783 38.292 0.783 38.292 0.62 -51.57
1048.333 0.609 -52.321 0.791 37.536 0.791 37.536 0.609 -52.321
1073.292 0.599 -53.055 0.799 36.799 0.799 36.799 0.599 -53.055
1098.25 0.589 -53.77 0.807 36.08 0.807 36.08 0.589 -53.77
1123.208 0.579 -54.467 0.814 35.379 0.814 35.379 0.579 -54.467
1148.167 0.569 -55.148 0.821 34.694 0.821 34.694 0.569 -55.148
1173.125 0.56 -55.812 0.827 34.026 0.827 34.026 0.56 -55.812
1198.083 0.55 -56.461 0.834 33.373 0.834 33.373 0.55 -56.461
1223.042 0.541 -57.094 0.84 32.736 0.84 32.736 0.541 -57.094
1248 0.532 -57.712 0.845 32.114 0.845 32.114 0.532 -57.712
1272.958 0.523 -58.316 0.851 31.505 0.851 31.505 0.523 -58.316
1297.917 0.514 -58.906 0.856 30.911 0.856 30.911 0.514 -58.906
1322.875 0.505 -59.483 0.861 30.33 0.861 30.33 0.505 -59.483
1347.833 0.496 -60.046 0.866 29.762 0.866 29.762 0.496 -60.046
1372.792 0.488 -60.597 0.871 29.207 0.871 29.207 0.488 -60.597
1397.75 0.48 -61.136 0.876 28.664 0.876 28.664 0.48 -61.136
1422.708 0.472 -61.663 0.88 28.133 0.88 28.133 0.472 -61.663
1447.667 0.463 -62.178 0.884 27.613 0.884 27.613 0.463 -62.178
1472.625 0.456 -62.683 0.888 27.104 0.888 27.104 0.456 -62.683
1497.583 0.448 -63.176 0.892 26.606 0.892 26.606 0.448 -63.176
1522.542 0.44 -63.659 0.896 26.118 0.896 26.118 0.44 -63.659
1547.5 0.433 -64.133 0.9 25.64 0.9 25.64 0.433 -64.133
1572.458 0.425 -64.596 0.903 25.172 0.903 25.172 0.425 -64.596
1597.417 0.418 -65.05 0.907 24.713 0.907 24.713 0.418 -65.05
1622.375 0.411 -65.494 0.91 24.263 0.91 24.263 0.411 -65.494
1647.333 0.404 -65.93 0.913 23.822 0.913 23.822 0.404 -65.93
1672.292 0.397 -66.357 0.916 23.39 0.916 23.39 0.397 -66.357
1697.25 0.39 -66.776 0.919 22.966 0.919 22.966 0.39 -66.776
1722.208 0.383 -67.187 0.922 22.55 0.922 22.55 0.383 -67.187
1747.167 0.377 -67.59 0.924 22.141 0.924 22.141 0.377 -67.59
1772.125 0.37 -67.985 0.927 21.741 0.927 21.741 0.37 -67.985
1797.083 0.364 -68.373 0.93 21.347 0.93 21.347 0.364 -68.373
1822.042 0.358 -68.754 0.932 20.961 0.932 20.961 0.358 -68.754
1847 0.352 -69.128 0.934 20.581 0.934 20.581 0.352 -69.128
1871.958 0.345 -69.495 0.937 20.209 0.937 20.209 0.345 -69.495
1896.917 0.339 -69.855 0.939 19.842 0.939 19.842 0.339 -69.855
1921.875 0.334 -70.209 0.941 19.482 0.941 19.482 0.334 -70.209
1946.833 0.328 -70.557 0.943 19.128 0.943 19.128 0.328 -70.557
1971.792 0.322 -70.898 0.945 18.78 0.945 18.78 0.322 -70.898
1996.75 0.316 -71.234 0.947 18.438 0.947 18.438 0.316 -71.234
2021.708 0.311 -71.564 0.949 18.101 0.949 18.101 0.311 -71.564
2046.667 0.305 -71.889 0.95 17.77 0.95 17.77 0.305 -71.889
2071.625 0.3 -72.208 0.952 17.444 0.952 17.444 0.3 -72.208
2096.583 0.294 -72.522 0.954 17.123 0.954 17.123 0.294 -72.522
2121.542 0.289 -72.831 0.955 16.807 0.955 16.807 0.289 -72.831
2146.5 0.284 -73.135 0.957 16.496 0.957 16.496 0.284 -73.135
2171.458 0.279 -73.434 0.959 16.19 0.959 16.19 0.279 -73.434
2196.417 0.274 -73.728 0.96 15.888 0.96 15.888 0.274 -73.728
2221.375 0.269 -74.017 0.961 15.591 0.961 15.591 0.269 -74.017
2246.333 0.264 -74.302 0.963 15.298 0.963 15.298 0.264 -74.302
2271.292 0.259 -74.583 0.964 15.01 0.964 15.01 0.259 -74.583
2296.25 0.254 -74.859 0.965 14.725 0.965 14.725 0.254 -74.859
2321.208 0.249 -75.131 0.967 14.444 0.967 14.444 0.249 -75.131
2346.167 0.245 -75.4 0.968 14.168 0.968 14.168 0.245 -75.4
2371.125 0.24 -75.664 0.969 13.895 0.969 13.895 0.24 -75.664
2396.083 0.236 -75.924 0.97 13.626 0.97 13.626 0.236 -75.924
2421.042 0.231 -76.18 0.971 13.36 0.971 13.36 0.231 -76.18
2446 0.227 -76.432 0.972 13.098 0.972 13.098 0.227 -76.432
2470.958 0.222 -76.681 0.973 12.839 0.973 12.839 0.222 -76.681
2495.917 0.218 -76.927 0.974 12.584 0.974 12.584 0.218 -76.927
2520.875 0.214 -77.168 0.975 12.332 0.975 12.332 0.214 -77.168
2545.833 0.209 -77.407 0.976 12.083 0.976 12.083 0.209 -77.407
2570.792 0.205 -77.641 0.977 11.837 0.977 11.837 0.205 -77.641
2595.75 0.201 -77.873 0.978 11.595 0.978 11.595 0.201 -77.873
2620.708 0.197 -78.101 0.979 11.355 0.979 11.355 0.197 -78.101
2645.667 0.193 -78.326 0.979 11.118 0.979 11.118 0.193 -78.326
2670.625 0.189 -78.548 0.98 10.884 0.98 10.884 0.189 -78.548
2695.583 0.185 -78.767 0.981 10.652 0.981 10.652 0.185 -78.767
2720.542 0.181 -78.983 0.982 10.423 0.982 10.423 0.181 -78.983
2745.5 0.177 -79.195 0.982 10.197 0.982 10.197 0.177 -79.195
2770.458 0.173 -79.405 0.983 9.974 0.983 9.974 0.173 -79.405
2795.417 0.169 -79.612 0.984 9.753 0.984 9.753 0.169 -79.612
2820.375 0.166 -79.815 0.984 9.534 0.984 9.534 0.166 -79.815
2845.333 0.162 -80.016 0.985 9.318 0.985 9.318 0.162 -80.016
2870.292 0.158 -80.214 0.986 9.104 0.986 9.104 0.158 -80.214
2895.25 0.155 -80.409 0.986 8.892 0.986 8.892 0.155 -80.409
2920.208 0.151 -80.602 0.987 8.683 0.987 8.683 0.151 -80.602
2945.167 0.147 -80.791 0.987 8.476 0.987 8.476 0.147 -80.791
2970.125 0.144 -80.978 0.988 8.27 0.988 8.27 0.144 -80.978
2995.083 0.14 -81.162 0.988 8.067 0.988 8.067 0.14 -81.162
3020.042 0.137 -81.343 0.989 7.866 0.989 7.866 0.137 -81.343
3045 0.133 -81.521 0.989 7.667 0.989 7.667 0.133 -81.521
3069.958 0.13 -81.697 0.99 7.47 0.99 7.47 0.13 -81.697
3094.917 0.127 -81.869 0.99 7.275 0.99 7.275 0.127 -81.869
3119.875 0.123 -82.039 0.99 7.082 0.99 7.082 0.123 -82.039
3144.833 0.12 -82.206 0.991 6.89 0.991 6.89 0.12 -82.206
3169.792 0.117 -82.37 0.991 6.701 0.991 6.701 0.117 -82.37
3194.75 0.113 -82.53 0.992 6.513 0.992 6.513 0.113 -82.53
3219.708 0.11 -82.688 0.992 6.326 0.992 6.326 0.11 -82.688
3244.667 0.107 -82.843 0.992 6.142 0.992 6.142 0.107 -82.843
3269.625 0.104 -82.994 0.993 5.959 0.993 5.959 0.104 -82.994
3294.583 0.101 -83.143 0.993 5.778 0.993 5.778 0.101 -83.143
3319.542 0.098 -83.287 0.993 5.598 0.993 5.598 0.098 -83.287
3344.5 0.094 -83.429 0.994 5.42 0.994 5.42 0.094 -83.429
3369.458 0.091 -83.566 0.994 5.243 0.994 5.243 0.091 -83.566
3394.417 0.088 -83.7 0.994 5.068 0.994 5.068 0.088 -83.7
3419.375 0.085 -83.83 0.994 4.894 0.994 4.894 0.085 -83.83
3444.333 0.082 -83.955 0.995 4.722 0.995 4.722 0.082 -83.955
3469.292 0.079 -84.076 0.995 4.551 0.995 4.551 0.079 -84.076
3494.25 0.076 -84.193 0.995 4.382 0.995 4.382 0.076 -84.193
3519.208 0.074 -84.304 0.995 4.214 0.995 4.214 0.074 -84.304
3544.167 0.071 -84.409 0.996 4.047 0.996 4.047 0.071 -84.409
3569.125 0.068 -84.509 0.996 3.882 0.996 3.882 0.068 -84.509
3594.083 0.065 -84.602 0.996 3.717 0.996 3.717 0.065 -84.602
3619.042 0.062 -84.687 0.996 3.554 0.996 3.554 0.062 -84.687
3644 0.059 -84.765 0.996 3.393 0.996 3.393 0.059 -84.765
3668.958 0.056 -84.834 0.997 3.232 0.997 3.232 0.056 -84.834
3693.917 0.054 -84.893 0.997 3.073 0.997 3.073 0.054 -84.893
3718.875 0.051 -84.941 0.997 2.915 0.997 2.915 0.051 -84.941
3743.833 0.048 -84.975 0.997 2.758 0.997 2.758 0.048 -84.975
3768.792 0.045 -84.995 0.997 2.602 0.997 2.602 0.045 -84.995
3793.75 0.043 -84.998 0.997 2.447 0.997 2.447 0.043 -84.998
3818.708 0.04 -84.981 0.997 2.293 0.997 2.293 0.04 -84.981
3843.667 0.037 -84.939 0.997 2.141 0.997 2.141 0.037 -84.939
3868.625 0.035 -84.868 0.997 1.989 0.997 1.989 0.035 -84.868
3893.583 0.032 -84.762 0.998 1.839 0.998 1.839 0.032 -84.762
3918.542 0.03 -84.611 0.998 1.689 0.998 1.689 0.03 -84.611
3943.5 0.027 -84.404 0.998 1.54 0.998 1.54 0.027 -84.404
3968.458 0.024 -84.123 0.998 1.393 0.998 1.393 0.024 -84.123
3993.417 0.022 -83.745 0.998 1.246 0.998 1.246 0.022 -83.745
4018.375 0.019 -83.231 0.998 1.101 0.998 1.101 0.019 -83.231
4043.333 0.017 -82.525 0.998 0.956 0.998 0.956 0.017 -82.525
4068.292 0.014 -81.526 0.998 0.812 0.998 0.812 0.014 -81.526
4093.25 0.012 -80.059 0.998 0.669 0.998 0.669 0.012 -80.059
4118.208 9.395e-3 -77.764 0.998 0.527 0.998 0.527 9.395e-3 -77.764
4143.167 7.001e-3 -73.81 0.998 0.386 0.998 0.386 7.001e-3 -73.81
4168.125 4.692e-3 -65.779 0.998 0.246 0.998 0.246 4.692e-3 -65.779
4193.083 2.659e-3 -44.083 0.998 0.106 0.998 0.106 2.659e-3 -44.083
4218.042 1.989e-3 16.5 0.998 -0.032 0.998 -0.032 1.989e-3 16.5
4243 3.53e-3 57.14 0.998 -0.17 0.998 -0.17 3.53e-3 57.14
4267.958 5.691e-3 70.119 0.998 -0.307 0.998 -0.307 5.691e-3 70.119
4292.917 7.971e-3 75.717 0.998 -0.443 0.998 -0.443 7.971e-3 75.717
4317.875 0.01 78.734 0.998 -0.579 0.998 -0.579 0.01 78.734
4342.833 0.013 80.582 0.998 -0.714 0.998 -0.714 0.013 80.582
4367.792 0.015 81.808 0.998 -0.847 0.998 -0.847 0.015 81.808
4392.75 0.017 82.663 0.998 -0.981 0.998 -0.981 0.017 82.663
4417.708 0.02 83.282 0.998 -1.113 0.998 -1.113 0.02 83.282
4442.667 0.022 83.74 0.998 -1.245 0.998 -1.245 0.022 83.74
4467.625 0.024 84.085 0.998 -1.376 0.998 -1.376 0.024 84.085
4492.583 0.026 84.346 0.998 -1.506 0.998 -1.506 0.026 84.346
4517.542 0.029 84.544 0.998 -1.636 0.998 -1.636 0.029 84.544
4542.5 0.031 84.694 0.998 -1.765 0.998 -1.765 0.031 84.694
4567.458 0.033 84.805 0.998 -1.893 0.998 -1.893 0.033 84.805
4592.417 0.035 84.886 0.997 -2.02 0.997 -2.02 0.035 84.886
4617.375 0.038 84.942 0.997 -2.147 0.997 -2.147 0.038 84.942
4642.333 0.04 84.977 0.997 -2.274 0.997 -2.274 0.04 84.977
4667.292 0.042 84.995 0.997 -2.399 0.997 -2.399 0.042 84.995
4692.25 0.044 84.999 0.997 -2.524 0.997 -2.524 0.044 84.999
4717.208 0.046 84.991 0.997 -2.649 0.997 -2.649 0.046 84.991
4742.167 0.048 84.973 0.997 -2.773 0.997 -2.773 0.048 84.973
4767.125 0.051 84.945 0.997 -2.896 0.997 -2.896 0.051 84.945
4792.083 0.053 84.911 0.997 -3.019 0.997 -3.019 0.053 84.911
4817.042 0.055 84.869 0.997 -3.141 0.997 -3.141 0.055 84.869
4842 0.057 84.822 0.996 -3.262 0.996 -3.262 0.057 84.822
4866.958 0.059 84.77 0.996 -3.383 0.996 -3.383 0.059 84.77
4891.917 0.061 84.713 0.996 -3.503 0.996 -3.503 0.061 84.713
4916.875 0.063 84.652 0.996 -3.623 0.996 -3.623 0.063 84.652
4941.833 0.065 84.588 0.996 -3.742 0.996 -3.742 0.065 84.588
4966.792 0.067 84.521 0.996 -3.861 0.996 -3.861 0.067 84.521
4991.75 0.069 84.451 0.996 -3.979 0.996 -3.979 0.069 84.451
5016.708 0.071 84.378 0.996 -4.097 0.996 -4.097 0.071 84.378
5041.667 0.074 84.304 0.995 -4.214 0.995 -4.214 0.074 84.304
5066.625 0.076 84.227 0.995 -4.331 0.995 -4.331 0.076 84.227
5091.583 0.078 84.149 0.995 -4.447 0.995 -4.447 0.078 84.149
5116.542 0.08 84.069 0.995 -4.562 0.995 -4.562 0.08 84.069
5141.5 0.082 83.987 0.995 -4.677 0.995 -4.677 0.082 83.987
5166.458 0.084 83.905 0.995 -4.792 0.995 -4.792 0.084 83.905
5191.417 0.086 83.821 0.994 -4.906 0.994 -4.906 0.086 83.821
5216.375 0.088 83.736 0.994 -5.02 0.994 -5.02 0.088 83.736
5241.333 0.089 83.651 0.994 -5.133 0.994 -5.133 0.089 83.651
5266.292 0.091 83.564 0.994 -5.246 0.994 -5.246 0.091 83.564
5291.25 0.093 83.477 0.994 -5.358 0.994 -5.358 0.093 83.477
5316.208 0.095 83.389 0.994 -5.47 0.994 -5.47 0.095 83.389
5341.167 0.097 83.301 0.993 -5.582 0.993 -5.582 0.097 83.301
5366.125 0.099 83.212 0.993 -5.693 0.993 -5.693 0.099 83.212
5391.083 0.101 83.122 0.993 -5.803 0.993 -5.803 0.101 83.122
5416.042 0.103 83.032 0.993 -5.913 0.993 -5.913 0.103 83.032
5441 0.105 82.942 0.993 -6.023 0.993 -6.023 0.105 82.942
5465.958 0.107 82.851 0.992 -6.132 0.992 -6.132 0.107 82.851
5490.917 0.109 82.76 0.992 -6.241 0.992 -6.241 0.109 82.76
5515.875 0.111 82.669 0.992 -6.349 0.992 -6.349 0.111 82.669
5540.833 0.112 82.577 0.992 -6.457 0.992 -6.457 0.112 82.577
5565.792 0.114 82.486 0.992 -6.565 0.992 -6.565 0.114 82.486
5590.75 0.116 82.394 0.991 -6.672 0.991 -6.672 0.116 82.394
5615.708 0.118 82.302 0.991 -6.779 0.991 -6.779 0.118 82.302
5640.667 0.12 82.21 0.991 -6.885 0.991 -6.885 0.12 82.21
5665.625 0.122 82.118 0.991 -6.992 0.991 -6.992 0.122 82.118
5690.583 0.124 82.025 0.99 -7.097 0.99 -7.097 0.124 82.025
5715.542 0.125 81.933 0.99 -7.203 0.99 -7.203 0.125 81.933
5740.5 0.127 81.841 0.99 -7.307 0.99 -7.307 0.127 81.841
5765.458 0.129 81.748 0.99 -7.412 0.99 -7.412 0.129 81.748
5790.417 0.131 81.656 0.99 -7.516 0.99 -7.516 0.131 81.656
5815.375 0.133 81.563 0.989 -7.62 0.989 -7.62 0.133 81.563
5840.333 0.134 81.471 0.989 -7.724 0.989 -7.724 0.134 81.471
5865.292 0.136 81.379 0.989 -7.827 0.989 -7.827 0.136 81.379
5890.25 0.138 81.286 0.989 -7.929 0.989 -7.929 0.138 81.286
5915.208 0.14 81.194 0.988 -8.032 0.988 -8.032 0.14 81.194
5940.167 0.142 81.102 0.988 -8.134 0.988 -8.134 0.142 81.102
5965.125 0.143 81.01 0.988 -8.236 0.988 -8.236 0.143 81.01
5990.083 0.145 80.917 0.988 -8.337 0.988 -8.337 0.145 80.917
6015.042 0.147 80.825 0.987 -8.438 0.987 -8.438 0.147 80.825
6040 0.148 80.733 0.987 -8.539 0.987 -8.539 0.148 80.733
6064.958 0.15 80.642 0.987 -8.639 0.987 -8.639 0.15 80.642
6089.917 0.152 80.55 0.987 -8.74 0.987 -8.74 0.152 80.55
6114.875 0.154 80.458 0.986 -8.839 0.986 -8.839 0.154 80.458
6139.833 0.155 80.367 0.986 -8.939 0.986 -8.939 0.155 80.367
6164.792 0.157 80.275 0.986 -9.038 0.986 -9.038 0.157 80.275
6189.75 0.159 80.184 0.985 -9.137 0.985 -9.137 0.159 80.184
6214.708 0.161 80.093 0.985 -9.235 0.985 -9.235 0.161 80.093
6239.667 0.162 80.002 0.985 -9.334 0.985 -9.334 0.162 80.002
6264.625 0.164 79.911 0.985 -9.432 0.985 -9.432 0.164 79.911
6289.583 0.166 79.82 0.984 -9.529 0.984 -9.529 0.166 79.82
6314.542 0.167 79.729 0.984 -9.627 0.984 -9.627 0.167 79.729
6339.5 0.169 79.639 0.984 -9.724 0.984 -9.724 0.169 79.639
6364.458 0.171 79.549 0.983 -9.82 0.983 -9.82 0.171 79.549
6389.417 0.172 79.458 0.983 -9.917 0.983 -9.917 0.172 79.458
6414.375 0.174 79.368 0.983 -10.013 0.983 -10.013 0.174 79.368
6439.333 0.176 79.278 0.983 -10.109 0.983 -10.109 0.176 79.278
6464.292 0.177 79.189 0.982 -10.205 0.982 -10.205 0.177 79.189
6489.25 0.179 79.099 0.982 -10.3 0.982 -10.3 0.179 79.099
6514.208 0.18 79.009 0.982 -10.395 0.982 -10.395 0.18 79.009
6539.167 0.182 78.92 0.981 -10.49 0.981 -10.49 0.182 78.92
6564.125 0.184 78.831 0.981 -10.584 0.981 -10.584 0.184 78.831
6589.083 0.185 78.742 0.981 -10.679 0.981 -10.679 0.185 78.742
6614.042 0.187 78.653 0.981 -10.773 0.981 -10.773 0.187 78.653
6639 0.189 78.564 0.98 -10.866 0.98 -10.866 0.189 78.564
6663.958 0.19 78.476 0.98 -10.96 0.98 -10.96 0.19 78.476
6688.917 0.192 78.388 0.98 -11.053 0.98 -11.053 0.192 78.388
6713.875 0.193 78.299 0.979 -11.146 0.979 -11.146 0.193 78.299
6738.833 0.195 78.211 0.979 -11.239 0.979 -11.239 0.195 78.211
6763.792 0.196 78.124 0.979 -11.331 0.979 -11.331 0.196 78.124
6788.75 0.198 78.036 0.978 -11.423 0.978 -11.423 0.198 78.036
6813.708 0.2 77.948 0.978 -11.515 0.978 -11.515 0.2 77.948
6838.667 0.201 77.861 0.978 -11.607 0.978 -11.607 0.201 77.861
6863.625 0.203 77.774 0.977 -11.699 0.977 -11.699 0.203 77.774
6888.583 0.204 77.687 0.977 -11.79 0.977 -11.79 0.204 77.687
6913.542 0.206 77.6 0.977 -11.881 0.977 -11.881 0.206 77.6
6938.5 0.207 77.513 0.976 -11.972 0.976 -11.972 0.207 77.513
6963.458 0.209 77.427 0.976 -12.062 0.976 -12.062 0.209 77.427
6988.417 0.211 77.34 0.976 -12.152 0.976 -12.152 0.211 77.34
7013.375 0.212 77.254 0.975 -12.242 0.975 -12.242 0.212 77.254
7038.333 0.214 77.168 0.975 -12.332 0.975 -12.332 0.214 77.168
7063.292 0.215 77.082 0.975 -12.422 0.975 -12.422 0.215 77.082
7088.25 0.217 76.996 0.974 -12.511 0.974 -12.511 0.217 76.996
7113.208 0.218 76.911 0.974 -12.6 0.974 -12.6 0.218 76.911
7138.167 0.22 76.826 0.974 -12.689 0.974 -12.689 0.22 76.826
7163.125 0.221 76.74 0.973 -12.778 0.973 -12.778 0.221 76.74
7188.083 0.223 76.655 0.973 -12.866 0.973 -12.866 0.223 76.655
7213.042 0.224 76.57 0.973 -12.955 0.973 -12.955 0.224 76.57
7238 0.226 76.486 0.972 -13.043 0.972 -13.043 0.226 76.486
7262.958 0.227 76.401 0.972 -13.131 0.972 -13.131 0.227 76.401
7287.917 0.229 76.317 0.972 -13.218 0.972 -13.218 0.229 76.317
7312.875 0.23 76.233 0.971 -13.306 0.971 -13.306 0.23 76.233
7337.833 0.232 76.148 0.971 -13.393 0.971 -13.393 0.232 76.148
7362.792 0.233 76.065 0.971 -13.48 0.971 -13.48 0.233 76.065
7387.75 0.235 75.981 0.97 -13.566 0.97 -13.566 0.235 75.981
7412.708 0.236 75.897 0.97 -13.653 0.97 -13.653 0.236 75.897
7437.667 0.238 75.814 0.97 -13.739 0.97 -13.739 0.238 75.814
7462.625 0.239 75.731 0.969 -13.825 0.969 -13.825 0.239 75.731
7487.583 0.24 75.647 0.969 -13.911 0.969 -13.911 0.24 75.647
7512.542 0.242 75.565 0.968 -13.997 0.968 -13.997 0.242 75.565
7537.5 0.243 75.482 0.968 -14.083 0.968 -14.083 0.243 75.482
7562.458 0.245 75.399 0.968 -14.168 0.968 -14.168 0.245 75.399
7587.417 0.246 75.317 0.967 -14.253 0.967 -14.253 0.246 75.317
7612.375 0.248 75.234 0.967 -14.338 0.967 -14.338 0.248 75.234
7637.333 0.249 75.152 0.967 -14.423 0.967 -14.423 0.249 75.152
7662.292 0.251 75.07 0.966 -14.507 0.966 -14.507 0.251 75.07
7687.25 0.252 74.988 0.966 -14.592 0.966 -14.592 0.252 74.988
7712.208 0.253 74.907 0.966 -14.676 0.966 -14.676 0.253 74.907
7737.167 0.255 74.825 0.965 -14.76 0.965 -14.76 0.255 74.825
7762.125 0.256 74.744 0.965 -14.844 0.965 -14.844 0.256 74.744
7787.083 0.258 74.663 0.964 -14.927 0.964 -14.927 0.258 74.663
7812.042 0.259 74.582 0.964 -15.011 0.964 -15.011 0.259 74.582
7837 0.26 74.501 0.964 -15.094 0.964 -15.094 0.26 74.501
7861.958 0.262 74.42 0.963 -15.177 0.963 -15.177 0.262 74.42
7886.917 0.263 74.34 0.963 -15.26 0.963 -15.26 0.263 74.34
7911.875 0.265 74.259 0.963 -15.343 0.963 -15.343 0.265 74.259
7936.833 0.266 74.179 0.962 -15.425 0.962 -15.425 0.266 74.179
7961.792 0.267 74.099 0.962 -15.508 0.962 -15.508 0.267 74.099
7986.75 0.269 74.019 0.961 -15.59 0.961 -15.59 0.269 74.019
8011.708 0.27 73.939 0.961 -15.672 0.961 -15.672 0.27 73.939
8036.667 0.272 73.859 0.961 -15.753 0.961 -15.753 0.272 73.859
8061.625 0.273 73.78 0.96 -15.835 0.96 -15.835 0.273 73.78
8086.583 0.274 73.7 0.96 -15.917 0.96 -15.917 0.274 73.7
8111.542 0.276 73.621 0.959 -15.998 0.959 -15.998 0.276 73.621
8136.5 0.277 73.542 0.959 -16.079 0.959 -16.079 0.277 73.542
8161.458 0.278 73.463 0.959 -16.16 0.959 -16.16 0.278 73.463
8186.417 0.28 73.384 0.958 -16.241 0.958 -16.241 0.28 73.384
8211.375 0.281 73.306 0.958 -16.321 0.958 -16.321 0.281 73.306
