# MHZ S MA R 50

50 0.998 -3.506 0.061 86.487 0.061 86.487 0.998 -3.506
74.958 0.996 -5.249 0.091 84.741 0.091 84.741 0.996 -5.249
99.917 0.993 -6.984 0.122 83.003 0.122 83.003 0.993 -6.984
124.875 0.988 -8.707 0.151 81.277 0.151 81.277 0.988 -8.707
149.833 0.983 -10.416 0.181 79.564 0.181 79.564 0.983 -10.416
174.792 0.978 -12.109 0.21 77.868 0.21 77.868 0.978 -12.109
199.75 0.971 -13.783 0.238 76.19 0.238 76.19 0.971 -13.783
224.708 0.964 -15.437 0.266 74.534 0.266 74.534 0.964 -15.437
249.667 0.956 -17.068 0.294 72.899 0.294 72.899 0.956 -17.068
274.625 0.947 -18.675 0.32 71.29 0.32 71.29 0.947 -18.675
299.583 0.938 -20.255 0.346 69.706 0.346 69.706 0.938 -20.255
324.542 0.928 -21.808 0.371 68.15 0.371 68.15 0.928 -21.808
349.5 0.918 -23.332 0.396 66.622 0.396 66.622 0.918 -23.332
374.458 0.907 -24.827 0.42 65.124 0.42 65.124 0.907 -24.827
399.417 0.896 -26.291 0.443 63.656 0.443 63.656 0.896 -26.291
424.375 0.885 -27.725 0.465 62.22 0.465 62.22 0.885 -27.725
449.333 0.873 -29.126 0.487 60.814 0.487 60.814 0.873 -29.126
474.292 0.861 -30.496 0.507 59.441 0.507 59.441 0.861 -30.496
499.25 0.849 -31.834 0.527 58.1 0.527 58.1 0.849 -31.834
524.208 0.837 -33.14 0.547 56.79 0.547 56.79 0.837 -33.14
549.167 0.824 -34.414 0.565 55.513 0.565 55.513 0.824 -34.414
574.125 0.812 -35.657 0.583 54.267 0.583 54.267 0.812 -35.657
599.083 0.799 -36.868 0.6 53.053 0.6 53.053 0.799 -36.868
624.042 0.787 -38.048 0.616 51.869 0.616 51.869 0.787 -38.048
649 0.774 -39.197 0.632 50.716 0.632 50.716 0.774 -39.197
673.958 0.761 -40.317 0.647 49.593 0.647 49.593 0.761 -40.317
698.917 0.749 -41.406 0.661 48.5 0.661 48.5 0.749 -41.406
723.875 0.737 -42.467 0.675 47.435 0.675 47.435 0.737 -42.467
748.833 0.724 -43.5 0.688 46.399 0.688 46.399 0.724 -43.5
773.792 0.712 -44.505 0.701 45.39 0.701 45.39 0.712 -44.505
798.75 0.7 -45.484 0.713 44.408 0.713 44.408 0.7 -45.484
823.708 0.688 -46.436 0.725 43.453 0.725 43.453 0.688 -46.436
848.667 0.676 -47.362 0.736 42.522 0.736 42.522 0.676 -47.362
873.625 0.664 -48.264 0.746 41.617 0.746 41.617 0.664 -48.264
898.583 0.653 -49.142 0.756 40.735 0.756 40.735 0.653 -49.142
923.542 0.641 -49.997 0.766 39.876 0.766 39.876 0.641 -49.997
948.5 0.63 -50.829 0.775 39.041 0.775 39.041 0.63 -50.829
973.458 0.619 -51.639 0.784 38.227 0.784 38.227 0.619 -51.639
998.417 0.608 -52.428 0.793 37.434 0.793 37.434 0.608 -52.428
1023.375 0.597 -53.196 0.801 36.662 0.801 36.662 0.597 -53.196
1048.333 0.587 -53.945 0.808 35.909 0.808 35.909 0.587 -53.945
1073.292 0.576 -54.674 0.816 35.176 0.816 35.176 0.576 -54.674
1098.25 0.566 -55.385 0.823 34.461 0.823 34.461 0.566 -55.385
1123.208 0.556 -56.078 0.83 33.764 0.83 33.764 0.556 -56.078
1148.167 0.546 -56.753 0.836 33.084 0.836 33.084 0.546 -56.753
1173.125 0.536 -57.412 0.843 32.421 0.843 32.421 0.536 -57.412
1198.083 0.527 -58.054 0.849 31.775 0.849 31.775 0.527 -58.054
1223.042 0.517 -58.681 0.854 31.144 0.854 31.144 0.517 -58.681
1248 0.508 -59.293 0.86 30.528 0.86 30.528 0.508 -59.293
1272.958 0.499 -59.89 0.865 29.926 0.865 29.926 0.499 -59.89
1297.917 0.49 -60.473 0.87 29.339 0.87 29.339 0.49 -60.473
1322.875 0.481 -61.042 0.875 28.765 0.875 28.765 0.481 -61.042
1347.833 0.473 -61.598 0.88 28.205 0.88 28.205 0.473 -61.598
1372.792 0.464 -62.141 0.884 27.657 0.884 27.657 0.464 -62.141
1397.75 0.456 -62.672 0.888 27.121 0.888 27.121 0.456 -62.672
1422.708 0.448 -63.191 0.893 26.597 0.893 26.597 0.448 -63.191
1447.667 0.44 -63.699 0.896 26.085 0.896 26.085 0.44 -63.699
1472.625 0.432 -64.195 0.9 25.584 0.9 25.584 0.432 -64.195
1497.583 0.424 -64.681 0.904 25.093 0.904 25.093 0.424 -64.681
1522.542 0.416 -65.156 0.907 24.613 0.907 24.613 0.416 -65.156
1547.5 0.409 -65.621 0.911 24.143 0.911 24.143 0.409 -65.621
1572.458 0.402 -66.076 0.914 23.682 0.914 23.682 0.402 -66.076
1597.417 0.394 -66.522 0.917 23.231 0.917 23.231 0.394 -66.522
1622.375 0.387 -66.959 0.92 22.789 0.92 22.789 0.387 -66.959
1647.333 0.38 -67.387 0.923 22.356 0.923 22.356 0.38 -67.387
1672.292 0.373 -67.806 0.926 21.931 0.926 21.931 0.373 -67.806
1697.25 0.367 -68.217 0.929 21.514 0.929 21.514 0.367 -68.217
1722.208 0.36 -68.62 0.931 21.106 0.931 21.106 0.36 -68.62
1747.167 0.354 -69.015 0.934 20.705 0.934 20.705 0.354 -69.015
1772.125 0.347 -69.403 0.936 20.311 0.936 20.311 0.347 -69.403
1797.083 0.341 -69.783 0.938 19.925 0.938 19.925 0.341 -69.783
1822.042 0.335 -70.156 0.941 19.546 0.941 19.546 0.335 -70.156
1847 0.328 -70.522 0.943 19.173 0.943 19.173 0.328 -70.522
1871.958 0.322 -70.882 0.945 18.807 0.945 18.807 0.322 -70.882
1896.917 0.316 -71.235 0.947 18.448 0.947 18.448 0.316 -71.235
1921.875 0.311 -71.582 0.949 18.095 0.949 18.095 0.311 -71.582
1946.833 0.305 -71.922 0.951 17.747 0.951 17.747 0.305 -71.922
1971.792 0.299 -72.257 0.952 17.406 0.952 17.406 0.299 -72.257
1996.75 0.294 -72.585 0.954 17.07 0.954 17.07 0.294 -72.585
2021.708 0.288 -72.909 0.956 16.74 0.956 16.74 0.288 -72.909
2046.667 0.283 -73.226 0.957 16.415 0.957 16.415 0.283 -73.226
2071.625 0.277 -73.539 0.959 16.095 0.959 16.095 0.277 -73.539
2096.583 0.272 -73.846 0.961 15.78 0.961 15.78 0.272 -73.846
2121.542 0.267 -74.148 0.962 15.47 0.962 15.47 0.267 -74.148
2146.5 0.262 -74.445 0.963 15.165 0.963 15.165 0.262 -74.445
2171.458 0.257 -74.737 0.965 14.864 0.965 14.864 0.257 -74.737
2196.417 0.252 -75.025 0.966 14.568 0.966 14.568 0.252 -75.025
2221.375 0.247 -75.308 0.967 14.276 0.967 14.276 0.247 -75.308
2246.333 0.242 -75.587 0.969 13.989 0.969 13.989 0.242 -75.587
2271.292 0.237 -75.861 0.97 13.705 0.97 13.705 0.237 -75.861
2296.25 0.232 -76.131 0.971 13.426 0.971 13.426 0.232 -76.131
2321.208 0.228 -76.397 0.972 13.15 0.972 13.15 0.228 -76.397
2346.167 0.223 -76.658 0.973 12.879 0.973 12.879 0.223 -76.658
2371.125 0.218 -76.916 0.974 12.611 0.974 12.611 0.218 -76.916
2396.083 0.214 -77.17 0.975 12.346 0.975 12.346 0.214 -77.17
2421.042 0.209 -77.42 0.976 12.085 0.976 12.085 0.209 -77.42
2446 0.205 -77.667 0.977 11.828 0.977 11.828 0.205 -77.667
2470.958 0.201 -77.909 0.978 11.574 0.978 11.574 0.201 -77.909
2495.917 0.196 -78.149 0.979 11.323 0.979 11.323 0.196 -78.149
2520.875 0.192 -78.384 0.98 11.075 0.98 11.075 0.192 -78.384
2545.833 0.188 -78.616 0.98 10.831 0.98 10.831 0.188 -78.616
2570.792 0.184 -78.845 0.981 10.589 0.981 10.589 0.184 -78.845
2595.75 0.18 -79.07 0.982 10.35 0.982 10.35 0.18 -79.07
2620.708 0.176 -79.292 0.983 10.114 0.983 10.114 0.176 -79.292
2645.667 0.172 -79.511 0.983 9.881 0.983 9.881 0.172 -79.511
2670.625 0.168 -79.727 0.984 9.651 0.984 9.651 0.168 -79.727
2695.583 0.164 -79.939 0.985 9.423 0.985 9.423 0.164 -79.939
2720.542 0.16 -80.148 0.985 9.198 0.985 9.198 0.16 -80.148
2745.5 0.156 -80.354 0.986 8.976 0.986 8.976 0.156 -80.354
2770.458 0.152 -80.557 0.987 8.755 0.987 8.755 0.152 -80.557
2795.417 0.148 -80.757 0.987 8.538 0.987 8.538 0.148 -80.757
2820.375 0.145 -80.954 0.988 8.323 0.988 8.323 0.145 -80.954
2845.333 0.141 -81.148 0.988 8.109 0.988 8.109 0.141 -81.148
2870.292 0.137 -81.339 0.989 7.899 0.989 7.899 0.137 -81.339
2895.25 0.134 -81.526 0.989 7.69 0.989 7.69 0.134 -81.526
2920.208 0.13 -81.711 0.99 7.484 0.99 7.484 0.13 -81.711
2945.167 0.127 -81.892 0.99 7.279 0.99 7.279 0.127 -81.892
2970.125 0.123 -82.071 0.991 7.077 0.991 7.077 0.123 -82.071
2995.083 0.12 -82.246 0.991 6.877 0.991 6.877 0.12 -82.246
3020.042 0.116 -82.418 0.991 6.679 0.991 6.679 0.116 -82.418
3045 0.113 -82.586 0.992 6.482 0.992 6.482 0.113 -82.586
3069.958 0.11 -82.752 0.992 6.288 0.992 6.288 0.11 -82.752
3094.917 0.106 -82.914 0.993 6.095 0.993 6.095 0.106 -82.914
3119.875 0.103 -83.072 0.993 5.904 0.993 5.904 0.103 -83.072
3144.833 0.1 -83.227 0.993 5.715 0.993 5.715 0.1 -83.227
3169.792 0.096 -83.379 0.994 5.528 0.994 5.528 0.096 -83.379
3194.75 0.093 -83.526 0.994 5.342 0.994 5.342 0.093 -83.526
3219.708 0.09 -83.67 0.994 5.158 0.994 5.158 0.09 -83.67
3244.667 0.087 -83.809 0.994 4.976 0.994 4.976 0.087 -83.809
3269.625 0.084 -83.944 0.995 4.795 0.995 4.795 0.084 -83.944
3294.583 0.08 -84.074 0.995 4.616 0.995 4.616 0.08 -84.074
3319.542 0.077 -84.199 0.995 4.438 0.995 4.438 0.077 -84.199
3344.5 0.074 -84.318 0.995 4.262 0.995 4.262 0.074 -84.318
3369.458 0.071 -84.432 0.996 4.087 0.996 4.087 0.071 -84.432
3394.417 0.068 -84.54 0.996 3.914 0.996 3.914 0.068 -84.54
3419.375 0.065 -84.64 0.996 3.742 0.996 3.742 0.065 -84.64
3444.333 0.062 -84.733 0.996 3.572 0.996 3.572 0.062 -84.733
3469.292 0.059 -84.818 0.996 3.402 0.996 3.402 0.059 -84.818
3494.25 0.056 -84.894 0.997 3.235 0.997 3.235 0.056 -84.894
3519.208 0.054 -84.958 0.997 3.068 0.997 3.068 0.054 -84.958
3544.167 0.051 -85.011 0.997 2.903 0.997 2.903 0.051 -85.011
3569.125 0.048 -85.05 0.997 2.739 0.997 2.739 0.048 -85.05
3594.083 0.045 -85.073 0.997 2.576 0.997 2.576 0.045 -85.073
3619.042 0.042 -85.077 0.997 2.415 0.997 2.415 0.042 -85.077
3644 0.039 -85.059 0.997 2.254 0.997 2.254 0.039 -85.059
3668.958 0.037 -85.015 0.997 2.095 0.997 2.095 0.037 -85.015
3693.917 0.034 -84.937 0.998 1.937 0.998 1.937 0.034 -84.937
3718.875 0.031 -84.819 0.998 1.78 0.998 1.78 0.031 -84.819
3743.833 0.028 -84.649 0.998 1.624 0.998 1.624 0.028 -84.649
3768.792 0.026 -84.413 0.998 1.47 0.998 1.47 0.026 -84.413
3793.75 0.023 -84.087 0.998 1.316 0.998 1.316 0.023 -84.087
3818.708 0.02 -83.639 0.998 1.163 0.998 1.163 0.02 -83.639
3843.667 0.018 -83.017 0.998 1.012 0.998 1.012 0.018 -83.017
3868.625 0.015 -82.133 0.998 0.861 0.998 0.861 0.015 -82.133
3893.583 0.013 -80.829 0.998 0.711 0.998 0.711 0.013 -80.829
3918.542 9.995e-3 -78.789 0.998 0.563 0.998 0.563 9.995e-3 -78.789
3943.5 7.478e-3 -75.285 0.998 0.415 0.998 0.415 7.478e-3 -75.285
3968.458 5.036e-3 -68.217 0.998 0.268 0.998 0.268 5.036e-3 -68.217
3993.417 2.827e-3 -49.09 0.998 0.123 0.998 0.123 2.827e-3 -49.09
4018.375 1.887e-3 11.841 0.998 -0.022 0.998 -0.022 1.887e-3 11.841
4043.333 3.439e-3 57.35 0.998 -0.166 0.998 -0.166 3.439e-3 57.35
4068.292 5.706e-3 70.804 0.998 -0.309 0.998 -0.309 5.706e-3 70.804
4093.25 8.095e-3 76.359 0.998 -0.452 0.998 -0.452 8.095e-3 76.359
4118.208 0.011 79.288 0.998 -0.593 0.998 -0.593 0.011 79.288
4143.167 0.013 81.057 0.998 -0.733 0.998 -0.733 0.013 81.057
4168.125 0.015 82.217 0.998 -0.873 0.998 -0.873 0.015 82.217
4193.083 0.018 83.019 0.998 -1.012 0.998 -1.012 0.018 83.019
4218.042 0.02 83.594 0.998 -1.15 0.998 -1.15 0.02 83.594
4243 0.023 84.015 0.998 -1.288 0.998 -1.288 0.023 84.015
4267.958 0.025 84.327 0.998 -1.424 0.998 -1.424 0.025 84.327
4292.917 0.027 84.56 0.998 -1.56 0.998 -1.56 0.027 84.56
4317.875 0.03 84.733 0.998 -1.695 0.998 -1.695 0.03 84.733
4342.833 0.032 84.861 0.998 -1.829 0.998 -1.829 0.032 84.861
4367.792 0.034 84.952 0.998 -1.963 0.998 -1.963 0.034 84.952
4392.75 0.037 85.015 0.997 -2.096 0.997 -2.096 0.037 85.015
4417.708 0.039 85.054 0.997 -2.228 0.997 -2.228 0.039 85.054
4442.667 0.041 85.074 0.997 -2.359 0.997 -2.359 0.041 85.074
4467.625 0.043 85.078 0.997 -2.49 0.997 -2.49 0.043 85.078
4492.583 0.046 85.069 0.997 -2.62 0.997 -2.62 0.046 85.069
4517.542 0.048 85.048 0.997 -2.749 0.997 -2.749 0.048 85.048
4542.5 0.05 85.018 0.997 -2.878 0.997 -2.878 0.05 85.018
4567.458 0.052 84.98 0.997 -3.006 0.997 -3.006 0.052 84.98
4592.417 0.055 84.934 0.997 -3.134 0.997 -3.134 0.055 84.934
4617.375 0.057 84.883 0.997 -3.26 0.997 -3.26 0.057 84.883
4642.333 0.059 84.826 0.996 -3.387 0.996 -3.387 0.059 84.826
4667.292 0.061 84.764 0.996 -3.512 0.996 -3.512 0.061 84.764
4692.25 0.063 84.698 0.996 -3.637 0.996 -3.637 0.063 84.698
4717.208 0.066 84.629 0.996 -3.762 0.996 -3.762 0.066 84.629
4742.167 0.068 84.557 0.996 -3.885 0.996 -3.885 0.068 84.557
4767.125 0.07 84.482 0.996 -4.009 0.996 -4.009 0.07 84.482
4792.083 0.072 84.404 0.996 -4.131 0.996 -4.131 0.072 84.404
4817.042 0.074 84.324 0.995 -4.253 0.995 -4.253 0.074 84.324
4842 0.076 84.242 0.995 -4.375 0.995 -4.375 0.076 84.242
4866.958 0.078 84.158 0.995 -4.496 0.995 -4.496 0.078 84.158
4891.917 0.081 84.073 0.995 -4.616 0.995 -4.616 0.081 84.073
4916.875 0.083 83.987 0.995 -4.736 0.995 -4.736 0.083 83.987
4941.833 0.085 83.899 0.995 -4.856 0.995 -4.856 0.085 83.899
4966.792 0.087 83.81 0.994 -4.975 0.994 -4.975 0.087 83.81
4991.75 0.089 83.72 0.994 -5.093 0.994 -5.093 0.089 83.72
5016.708 0.091 83.629 0.994 -5.211 0.994 -5.211 0.091 83.629
5041.667 0.093 83.537 0.994 -5.328 0.994 -5.328 0.093 83.537
5066.625 0.095 83.445 0.994 -5.445 0.994 -5.445 0.095 83.445
5091.583 0.097 83.352 0.993 -5.561 0.993 -5.561 0.097 83.352
5116.542 0.099 83.258 0.993 -5.677 0.993 -5.677 0.099 83.258
5141.5 0.101 83.164 0.993 -5.793 0.993 -5.793 0.101 83.164
5166.458 0.103 83.07 0.993 -5.908 0.993 -5.908 0.103 83.07
5191.417 0.105 82.975 0.993 -6.022 0.993 -6.022 0.105 82.975
5216.375 0.107 82.88 0.992 -6.136 0.992 -6.136 0.107 82.88
5241.333 0.109 82.784 0.992 -6.25 0.992 -6.25 0.109 82.784
5266.292 0.111 82.688 0.992 -6.363 0.992 -6.363 0.111 82.688
5291.25 0.113 82.592 0.992 -6.475 0.992 -6.475 0.113 82.592
5316.208 0.115 82.496 0.992 -6.588 0.992 -6.588 0.115 82.496
5341.167 0.117 82.4 0.991 -6.699 0.991 -6.699 0.117 82.4
5366.125 0.119 82.303 0.991 -6.811 0.991 -6.811 0.119 82.303
5391.083 0.121 82.207 0.991 -6.922 0.991 -6.922 0.121 82.207
5416.042 0.122 82.11 0.991 -7.032 0.991 -7.032 0.122 82.11
5441 0.124 82.013 0.99 -7.142 0.99 -7.142 0.124 82.013
5465.958 0.126 81.916 0.99 -7.252 0.99 -7.252 0.126 81.916
5490.917 0.128 81.819 0.99 -7.361 0.99 -7.361 0.128 81.819
5515.875 0.13 81.723 0.99 -7.47 0.99 -7.47 0.13 81.723
5540.833 0.132 81.626 0.989 -7.579 0.989 -7.579 0.132 81.626
5565.792 0.134 81.529 0.989 -7.687 0.989 -7.687 0.134 81.529
5590.75 0.136 81.432 0.989 -7.795 0.989 -7.795 0.136 81.432
5615.708 0.137 81.336 0.989 -7.902 0.989 -7.902 0.137 81.336
5640.667 0.139 81.239 0.988 -8.009 0.988 -8.009 0.139 81.239
5665.625 0.141 81.142 0.988 -8.116 0.988 -8.116 0.141 81.142
5690.583 0.143 81.046 0.988 -8.222 0.988 -8.222 0.143 81.046
5715.542 0.145 80.949 0.988 -8.328 0.988 -8.328 0.145 80.949
5740.5 0.147 80.853 0.987 -8.433 0.987 -8.433 0.147 80.853
5765.458 0.148 80.757 0.987 -8.538 0.987 -8.538 0.148 80.757
5790.417 0.15 80.661 0.987 -8.643 0.987 -8.643 0.15 80.661
5815.375 0.152 80.565 0.987 -8.748 0.987 -8.748 0.152 80.565
5840.333 0.154 80.469 0.986 -8.852 0.986 -8.852 0.154 80.469
5865.292 0.156 80.373 0.986 -8.955 0.986 -8.955 0.156 80.373
5890.25 0.157 80.277 0.986 -9.059 0.986 -9.059 0.157 80.277
5915.208 0.159 80.182 0.985 -9.162 0.985 -9.162 0.159 80.182
5940.167 0.161 80.087 0.985 -9.265 0.985 -9.265 0.161 80.087
5965.125 0.163 79.991 0.985 -9.367 0.985 -9.367 0.163 79.991
5990.083 0.165 79.896 0.985 -9.469 0.985 -9.469 0.165 79.896
6015.042 0.166 79.802 0.984 -9.571 0.984 -9.571 0.166 79.802
6040 0.168 79.707 0.984 -9.672 0.984 -9.672 0.168 79.707
6064.958 0.17 79.612 0.984 -9.773 0.984 -9.773 0.17 79.612
6089.917 0.171 79.518 0.983 -9.874 0.983 -9.874 0.171 79.518
6114.875 0.173 79.424 0.983 -9.975 0.983 -9.975 0.173 79.424
6139.833 0.175 79.329 0.983 -10.075 0.983 -10.075 0.175 79.329
6164.792 0.177 79.236 0.982 -10.175 0.982 -10.175 0.177 79.236
6189.75 0.178 79.142 0.982 -10.274 0.982 -10.274 0.178 79.142
6214.708 0.18 79.048 0.982 -10.374 0.982 -10.374 0.18 79.048
6239.667 0.182 78.955 0.982 -10.473 0.982 -10.473 0.182 78.955
6264.625 0.183 78.862 0.981 -10.571 0.981 -10.571 0.183 78.862
6289.583 0.185 78.769 0.981 -10.67 0.981 -10.67 0.185 78.769
6314.542 0.187 78.676 0.981 -10.768 0.981 -10.768 0.187 78.676
6339.5 0.189 78.583 0.98 -10.866 0.98 -10.866 0.189 78.583
6364.458 0.19 78.491 0.98 -10.963 0.98 -10.963 0.19 78.491
6389.417 0.192 78.398 0.98 -11.06 0.98 -11.06 0.192 78.398
6414.375 0.194 78.306 0.979 -11.157 0.979 -11.157 0.194 78.306
6439.333 0.195 78.214 0.979 -11.254 0.979 -11.254 0.195 78.214
6464.292 0.197 78.122 0.979 -11.351 0.979 -11.351 0.197 78.122
6489.25 0.198 78.031 0.978 -11.447 0.978 -11.447 0.198 78.031
6514.208 0.2 77.939 0.978 -11.543 0.978 -11.543 0.2 77.939
6539.167 0.202 77.848 0.978 -11.638 0.978 -11.638 0.202 77.848
6564.125 0.203 77.757 0.977 -11.733 0.977 -11.733 0.203 77.757
6589.083 0.205 77.666 0.977 -11.829 0.977 -11.829 0.205 77.666
6614.042 0.207 77.575 0.977 -11.923 0.977 -11.923 0.207 77.575
6639 0.208 77.485 0.976 -12.018 0.976 -12.018 0.208 77.485
6663.958 0.21 77.395 0.976 -12.112 0.976 -12.112 0.21 77.395
6688.917 0.211 77.304 0.976 -12.206 0.976 -12.206 0.211 77.304
6713.875 0.213 77.215 0.975 -12.3 0.975 -12.3 0.213 77.215
6738.833 0.215 77.125 0.975 -12.394 0.975 -12.394 0.215 77.125
6763.792 0.216 77.035 0.975 -12.487 0.975 -12.487 0.216 77.035
6788.75 0.218 76.946 0.974 -12.58 0.974 -12.58 0.218 76.946
6813.708 0.219 76.857 0.974 -12.673 0.974 -12.673 0.219 76.857
6838.667 0.221 76.767 0.973 -12.765 0.973 -12.765 0.221 76.767
6863.625 0.223 76.679 0.973 -12.858 0.973 -12.858 0.223 76.679
6888.583 0.224 76.59 0.973 -12.95 0.973 -12.95 0.224 76.59
6913.542 0.226 76.501 0.972 -13.042 0.972 -13.042 0.226 76.501
6938.5 0.227 76.413 0.972 -13.133 0.972 -13.133 0.227 76.413
6963.458 0.229 76.325 0.972 -13.225 0.972 -13.225 0.229 76.325
6988.417 0.23 76.237 0.971 -13.316 0.971 -13.316 0.23 76.237
7013.375 0.232 76.149 0.971 -13.407 0.971 -13.407 0.232 76.149
7038.333 0.233 76.062 0.971 -13.497 0.971 -13.497 0.233 76.062
7063.292 0.235 75.974 0.97 -13.588 0.97 -13.588 0.235 75.974
7088.25 0.236 75.887 0.97 -13.678 0.97 -13.678 0.236 75.887
7113.208 0.238 75.8 0.969 -13.768 0.969 -13.768 0.238 75.8
7138.167 0.24 75.713 0.969 -13.858 0.969 -13.858 0.24 75.713
7163.125 0.241 75.626 0.969 -13.948 0.969 -13.948 0.241 75.626
7188.083 0.243 75.54 0.968 -14.037 0.968 -14.037 0.243 75.54
7213.042 0.244 75.453 0.968 -14.126 0.968 -14.126 0.244 75.453
7238 0.246 75.367 0.968 -14.215 0.968 -14.215 0.246 75.367
7262.958 0.247 75.281 0.967 -14.304 0.967 -14.304 0.247 75.281
7287.917 0.249 75.195 0.967 -14.392 0.967 -14.392 0.249 75.195
7312.875 0.25 75.11 0.966 -14.481 0.966 -14.481 0.25 75.11
7337.833 0.252 75.024 0.966 -14.569 0.966 -14.569 0.252 75.024
7362.792 0.253 74.939 0.966 -14.657 0.966 -14.657 0.253 74.939
7387.75 0.255 74.854 0.965 -14.744 0.965 -14.744 0.255 74.854
7412.708 0.256 74.769 0.965 -14.832 0.965 -14.832 0.256 74.769
7437.667 0.257 74.684 0.965 -14.919 0.965 -14.919 0.257 74.684
7462.625 0.259 74.599 0.964 -15.006 0.964 -15.006 0.259 74.599
7487.583 0.26 74.515 0.964 -15.093 0.964 -15.093 0.26 74.515
7512.542 0.262 74.43 0.963 -15.179 0.963 -15.179 0.262 74.43
7537.5 0.263 74.346 0.963 -15.266 0.963 -15.266 0.263 74.346
7562.458 0.265 74.262 0.963 -15.352 0.963 -15.352 0.265 74.262
7587.417 0.266 74.179 0.962 -15.438 0.962 -15.438 0.266 74.179
7612.375 0.268 74.095 0.962 -15.524 0.962 -15.524 0.268 74.095
7637.333 0.269 74.011 0.961 -15.61 0.961 -15.61 0.269 74.011
7662.292 0.271 73.928 0.961 -15.695 0.961 -15.695 0.271 73.928
7687.25 0.272 73.845 0.961 -15.781 0.961 -15.781 0.272 73.845
7712.208 0.273 73.762 0.96 -15.866 0.96 -15.866 0.273 73.762
7737.167 0.275 73.679 0.96 -15.951 0.96 -15.951 0.275 73.679
7762.125 0.276 73.596 0.959 -16.035 0.959 -16.035 0.276 73.596
7787.083 0.278 73.514 0.959 -16.12 0.959 -16.12 0.278 73.514
7812.042 0.279 73.432 0.958 -16.204 0.958 -16.204 0.279 73.432
7837 0.28 73.349 0.958 -16.288 0.958 -16.288 0.28 73.349
7861.958 0.282 73.267 0.958 -16.372 0.958 -16.372 0.282 73.267
7886.917 0.283 73.186 0.957 -16.456 0.957 -16.456 0.283 73.186
7911.875 0.285 73.104 0.957 -16.54 0.957 -16.54 0.285 73.104
7936.833 0.286 73.022 0.956 -16.623 0.956 -16.623 0.286 73.022
7961.792 0.287 72.941 0.956 -16.706 0.956 -16.706 0.287 72.941
7986.75 0.289 72.86 0.956 -16.79 0.956 -16.79 0.289 72.86
8011.708 0.29 72.779 0.955 -16.872 0.955 -16.872 0.29 72.779
8036.667 0.292 72.698 0.955 -16.955 0.955 -16.955 0.292 72.698
8061.625 0.293 72.617 0.954 -17.038 0.954 -17.038 0.293 72.617
8086.583 0.294 72.536 0.954 -17.12 0.954 -17.12 0.294 72.536
8111.542 0.296 72.456 0.954 -17.202 0.954 -17.202 0.296 72.456
8136.5 0.297 72.376 0.953 -17.284 0.953 -17.284 0.297 72.376
8161.458 0.298 72.295 0.953 -17.366 0.953 -17.366 0.298 72.295
8186.417 0.3 72.215 0.952 -17.448 0.952 -17.448 0.3 72.215
