# MHZ S MA R 50

50 1 -1.35 0.024 88.646 0.024 88.646 1 -1.35
74.958 0.999 -2.023 0.035 87.971 0.035 87.971 0.999 -2.023
99.917 0.999 -2.696 0.047 87.296 0.047 87.296 0.999 -2.696
124.875 0.998 -3.369 0.059 86.622 0.059 86.622 0.998 -3.369
149.833 0.998 -4.041 0.07 85.948 0.07 85.948 0.998 -4.041
174.792 0.997 -4.712 0.082 85.275 0.082 85.275 0.997 -4.712
199.75 0.996 -5.382 0.094 84.603 0.094 84.603 0.996 -5.382
224.708 0.994 -6.051 0.105 83.932 0.105 83.932 0.994 -6.051
249.667 0.993 -6.719 0.117 83.262 0.117 83.262 0.993 -6.719
274.625 0.992 -7.386 0.129 82.593 0.129 82.593 0.992 -7.386
299.583 0.99 -8.051 0.14 81.926 0.14 81.926 0.99 -8.051
324.542 0.988 -8.715 0.152 81.26 0.152 81.26 0.988 -8.715
349.5 0.987 -9.377 0.163 80.596 0.163 80.596 0.987 -9.377
374.458 0.985 -10.038 0.174 79.934 0.174 79.934 0.985 -10.038
399.417 0.983 -10.696 0.186 79.274 0.186 79.274 0.983 -10.696
424.375 0.98 -11.353 0.197 78.615 0.197 78.615 0.98 -11.353
449.333 0.978 -12.007 0.208 77.959 0.208 77.959 0.978 -12.007
474.292 0.976 -12.66 0.219 77.305 0.219 77.305 0.976 -12.66
499.25 0.973 -13.31 0.23 76.653 0.23 76.653 0.973 -13.31
524.208 0.97 -13.957 0.241 76.003 0.241 76.003 0.97 -13.957
549.167 0.968 -14.602 0.252 75.356 0.252 75.356 0.968 -14.602
574.125 0.965 -15.245 0.263 74.712 0.263 74.712 0.965 -15.245
599.083 0.962 -15.885 0.274 74.07 0.274 74.07 0.962 -15.885
624.042 0.958 -16.522 0.284 73.431 0.284 73.431 0.958 -16.522
649 0.955 -17.156 0.295 72.795 0.295 72.795 0.955 -17.156
673.958 0.952 -17.787 0.305 72.162 0.305 72.162 0.952 -17.787
698.917 0.949 -18.415 0.316 71.532 0.316 71.532 0.949 -18.415
723.875 0.945 -19.04 0.326 70.905 0.326 70.905 0.945 -19.04
748.833 0.941 -19.662 0.336 70.281 0.336 70.281 0.941 -19.662
773.792 0.938 -20.281 0.347 69.661 0.347 69.661 0.938 -20.281
798.75 0.934 -20.896 0.357 69.043 0.357 69.043 0.934 -20.896
823.708 0.93 -21.508 0.367 68.43 0.367 68.43 0.93 -21.508
848.667 0.926 -22.116 0.376 67.819 0.376 67.819 0.926 -22.116
873.625 0.922 -22.721 0.386 67.212 0.386 67.212 0.922 -22.721
898.583 0.918 -23.323 0.396 66.609 0.396 66.609 0.918 -23.323
923.542 0.914 -23.92 0.405 66.009 0.405 66.009 0.914 -23.92
948.5 0.909 -24.514 0.415 65.413 0.415 65.413 0.909 -24.514
973.458 0.905 -25.105 0.424 64.821 0.424 64.821 0.905 -25.105
998.417 0.901 -25.691 0.434 64.232 0.434 64.232 0.901 -25.691
1023.375 0.896 -26.274 0.443 63.647 0.443 63.647 0.896 -26.274
1048.333 0.892 -26.853 0.452 63.066 0.452 63.066 0.892 -26.853
1073.292 0.887 -27.428 0.461 62.489 0.461 62.489 0.887 -27.428
1098.25 0.882 -27.999 0.469 61.916 0.469 61.916 0.882 -27.999
1123.208 0.878 -28.567 0.478 61.347 0.478 61.347 0.878 -28.567
1148.167 0.873 -29.13 0.487 60.781 0.487 60.781 0.873 -29.13
1173.125 0.868 -29.689 0.495 60.22 0.495 60.22 0.868 -29.689
1198.083 0.863 -30.245 0.504 59.663 0.504 59.663 0.863 -30.245
1223.042 0.858 -30.796 0.512 59.109 0.512 59.109 0.858 -30.796
1248 0.853 -31.343 0.52 58.56 0.52 58.56 0.853 -31.343
1272.958 0.848 -31.886 0.528 58.015 0.528 58.015 0.848 -31.886
1297.917 0.843 -32.426 0.536 57.473 0.536 57.473 0.843 -32.426
1322.875 0.838 -32.961 0.544 56.936 0.544 56.936 0.838 -32.961
1347.833 0.833 -33.492 0.552 56.403 0.552 56.403 0.833 -33.492
1372.792 0.828 -34.019 0.559 55.874 0.559 55.874 0.828 -34.019
1397.75 0.823 -34.541 0.567 55.349 0.567 55.349 0.823 -34.541
1422.708 0.817 -35.06 0.574 54.828 0.574 54.828 0.817 -35.06
1447.667 0.812 -35.575 0.582 54.311 0.582 54.311 0.812 -35.575
1472.625 0.807 -36.086 0.589 53.799 0.589 53.799 0.807 -36.086
1497.583 0.802 -36.592 0.596 53.29 0.596 53.29 0.802 -36.592
1522.542 0.796 -37.095 0.603 52.785 0.603 52.785 0.796 -37.095
1547.5 0.791 -37.593 0.61 52.284 0.61 52.284 0.791 -37.593
1572.458 0.786 -38.087 0.617 51.788 0.617 51.788 0.786 -38.087
1597.417 0.78 -38.578 0.624 51.295 0.624 51.295 0.78 -38.578
1622.375 0.775 -39.064 0.63 50.807 0.63 50.807 0.775 -39.064
1647.333 0.77 -39.546 0.637 50.322 0.637 50.322 0.77 -39.546
1672.292 0.764 -40.025 0.643 49.842 0.643 49.842 0.764 -40.025
1697.25 0.759 -40.499 0.649 49.365 0.649 49.365 0.759 -40.499
1722.208 0.753 -40.97 0.656 48.892 0.656 48.892 0.753 -40.97
1747.167 0.748 -41.436 0.662 48.423 0.662 48.423 0.748 -41.436
1772.125 0.743 -41.899 0.668 47.958 0.668 47.958 0.743 -41.899
1797.083 0.737 -42.357 0.674 47.497 0.674 47.497 0.737 -42.357
1822.042 0.732 -42.812 0.68 47.04 0.68 47.04 0.732 -42.812
1847 0.726 -43.263 0.685 46.587 0.685 46.587 0.726 -43.263
1871.958 0.721 -43.71 0.691 46.137 0.691 46.137 0.721 -43.71
1896.917 0.716 -44.154 0.697 45.692 0.697 45.692 0.716 -44.154
1921.875 0.71 -44.593 0.702 45.25 0.702 45.25 0.71 -44.593
1946.833 0.705 -45.029 0.707 44.811 0.707 44.811 0.705 -45.029
1971.792 0.699 -45.461 0.713 44.377 0.713 44.377 0.699 -45.461
1996.75 0.694 -45.89 0.718 43.946 0.718 43.946 0.694 -45.89
2021.708 0.689 -46.315 0.723 43.518 0.723 43.518 0.689 -46.315
2046.667 0.683 -46.736 0.728 43.095 0.728 43.095 0.683 -46.736
2071.625 0.678 -47.154 0.733 42.675 0.733 42.675 0.678 -47.154
2096.583 0.672 -47.568 0.738 42.258 0.738 42.258 0.672 -47.568
2121.542 0.667 -47.978 0.743 41.845 0.743 41.845 0.667 -47.978
2146.5 0.662 -48.385 0.748 41.436 0.748 41.436 0.662 -48.385
2171.458 0.656 -48.788 0.752 41.03 0.752 41.03 0.656 -48.788
2196.417 0.651 -49.188 0.757 40.627 0.757 40.627 0.651 -49.188
2221.375 0.646 -49.585 0.761 40.228 0.761 40.228 0.646 -49.585
2246.333 0.641 -49.978 0.766 39.832 0.766 39.832 0.641 -49.978
2271.292 0.635 -50.368 0.77 39.439 0.77 39.439 0.635 -50.368
2296.25 0.63 -50.755 0.774 39.05 0.774 39.05 0.63 -50.755
2321.208 0.625 -51.138 0.779 38.664 0.779 38.664 0.625 -51.138
2346.167 0.62 -51.518 0.783 38.282 0.783 38.282 0.62 -51.518
2371.125 0.614 -51.895 0.787 37.902 0.787 37.902 0.614 -51.895
2396.083 0.609 -52.268 0.791 37.526 0.791 37.526 0.609 -52.268
2421.042 0.604 -52.639 0.795 37.152 0.795 37.152 0.604 -52.639
2446 0.599 -53.006 0.799 36.782 0.799 36.782 0.599 -53.006
2470.958 0.594 -53.37 0.803 36.415 0.803 36.415 0.594 -53.37
2495.917 0.589 -53.731 0.806 36.051 0.806 36.051 0.589 -53.731
2520.875 0.583 -54.089 0.81 35.69 0.81 35.69 0.583 -54.089
2545.833 0.578 -54.444 0.814 35.333 0.814 35.333 0.578 -54.444
2570.792 0.573 -54.796 0.817 34.977 0.817 34.977 0.573 -54.796
2595.75 0.568 -55.145 0.821 34.625 0.821 34.625 0.568 -55.145
2620.708 0.563 -55.492 0.824 34.276 0.824 34.276 0.563 -55.492
2645.667 0.558 -55.835 0.827 33.93 0.827 33.93 0.558 -55.835
2670.625 0.553 -56.175 0.831 33.586 0.831 33.586 0.553 -56.175
2695.583 0.548 -56.513 0.834 33.245 0.834 33.245 0.548 -56.513
2720.542 0.543 -56.848 0.837 32.907 0.837 32.907 0.543 -56.848
2745.5 0.538 -57.18 0.84 32.572 0.84 32.572 0.538 -57.18
2770.458 0.533 -57.509 0.843 32.24 0.843 32.24 0.533 -57.509
2795.417 0.529 -57.836 0.847 31.91 0.847 31.91 0.529 -57.836
2820.375 0.524 -58.16 0.85 31.582 0.85 31.582 0.524 -58.16
2845.333 0.519 -58.481 0.852 31.258 0.852 31.258 0.519 -58.481
2870.292 0.514 -58.8 0.855 30.936 0.855 30.936 0.514 -58.8
2895.25 0.509 -59.116 0.858 30.616 0.858 30.616 0.509 -59.116
2920.208 0.505 -59.43 0.861 30.299 0.861 30.299 0.505 -59.43
2945.167 0.5 -59.741 0.864 29.985 0.864 29.985 0.5 -59.741
2970.125 0.495 -60.05 0.866 29.673 0.866 29.673 0.495 -60.05
2995.083 0.49 -60.356 0.869 29.363 0.869 29.363 0.49 -60.356
3020.042 0.486 -60.659 0.872 29.056 0.872 29.056 0.486 -60.659
3045 0.481 -60.961 0.874 28.751 0.874 28.751 0.481 -60.961
3069.958 0.476 -61.26 0.877 28.448 0.877 28.448 0.476 -61.26
3094.917 0.472 -61.556 0.879 28.148 0.879 28.148 0.472 -61.556
3119.875 0.467 -61.85 0.882 27.85 0.882 27.85 0.467 -61.85
3144.833 0.463 -62.142 0.884 27.555 0.884 27.555 0.463 -62.142
3169.792 0.458 -62.432 0.886 27.261 0.886 27.261 0.458 -62.432
3194.75 0.454 -62.719 0.889 26.97 0.889 26.97 0.454 -62.719
3219.708 0.449 -63.004 0.891 26.681 0.891 26.681 0.449 -63.004
3244.667 0.445 -63.287 0.893 26.394 0.893 26.394 0.445 -63.287
3269.625 0.44 -63.568 0.895 26.109 0.895 26.109 0.44 -63.568
3294.583 0.436 -63.846 0.898 25.827 0.898 25.827 0.436 -63.846
3319.542 0.431 -64.123 0.9 25.546 0.9 25.546 0.431 -64.123
3344.5 0.427 -64.397 0.902 25.268 0.902 25.268 0.427 -64.397
3369.458 0.422 -64.669 0.904 24.991 0.904 24.991 0.422 -64.669
3394.417 0.418 -64.939 0.906 24.717 0.906 24.717 0.418 -64.939
3419.375 0.414 -65.207 0.908 24.444 0.908 24.444 0.414 -65.207
3444.333 0.41 -65.473 0.91 24.174 0.91 24.174 0.41 -65.473
3469.292 0.405 -65.737 0.912 23.905 0.912 23.905 0.405 -65.737
3494.25 0.401 -66 0.914 23.639 0.914 23.639 0.401 -66
3519.208 0.397 -66.26 0.915 23.374 0.915 23.374 0.397 -66.26
3544.167 0.393 -66.518 0.917 23.111 0.917 23.111 0.393 -66.518
3569.125 0.388 -66.774 0.919 22.85 0.919 22.85 0.388 -66.774
3594.083 0.384 -67.029 0.921 22.591 0.921 22.591 0.384 -67.029
3619.042 0.38 -67.281 0.922 22.334 0.922 22.334 0.38 -67.281
3644 0.376 -67.532 0.924 22.078 0.924 22.078 0.376 -67.532
3668.958 0.372 -67.781 0.926 21.824 0.926 21.824 0.372 -67.781
3693.917 0.368 -68.028 0.927 21.572 0.927 21.572 0.368 -68.028
3718.875 0.364 -68.273 0.929 21.322 0.929 21.322 0.364 -68.273
3743.833 0.36 -68.516 0.931 21.073 0.931 21.073 0.36 -68.516
3768.792 0.356 -68.758 0.932 20.826 0.932 20.826 0.356 -68.758
3793.75 0.352 -68.998 0.934 20.581 0.934 20.581 0.352 -68.998
3818.708 0.348 -69.236 0.935 20.337 0.935 20.337 0.348 -69.236
3843.667 0.344 -69.472 0.937 20.095 0.937 20.095 0.344 -69.472
3868.625 0.34 -69.707 0.938 19.854 0.938 19.854 0.34 -69.707
3893.583 0.336 -69.94 0.939 19.616 0.939 19.616 0.336 -69.94
3918.542 0.332 -70.172 0.941 19.378 0.941 19.378 0.332 -70.172
3943.5 0.328 -70.402 0.942 19.142 0.942 19.142 0.328 -70.402
3968.458 0.324 -70.63 0.943 18.908 0.943 18.908 0.324 -70.63
3993.417 0.32 -70.856 0.945 18.675 0.945 18.675 0.32 -70.856
4018.375 0.316 -71.081 0.946 18.444 0.946 18.444 0.316 -71.081
4043.333 0.313 -71.304 0.947 18.214 0.947 18.214 0.313 -71.304
4068.292 0.309 -71.526 0.949 17.986 0.949 17.986 0.309 -71.526
4093.25 0.305 -71.746 0.95 17.759 0.95 17.759 0.305 -71.746
4118.208 0.301 -71.965 0.951 17.534 0.951 17.534 0.301 -71.965
4143.167 0.298 -72.182 0.952 17.31 0.952 17.31 0.298 -72.182
4168.125 0.294 -72.398 0.953 17.087 0.953 17.087 0.294 -72.398
4193.083 0.29 -72.612 0.954 16.866 0.954 16.866 0.29 -72.612
4218.042 0.286 -72.824 0.955 16.646 0.955 16.646 0.286 -72.824
4243 0.283 -73.036 0.957 16.428 0.957 16.428 0.283 -73.036
4267.958 0.279 -73.245 0.958 16.21 0.958 16.21 0.279 -73.245
4292.917 0.276 -73.453 0.959 15.994 0.959 15.994 0.276 -73.453
4317.875 0.272 -73.66 0.96 15.78 0.96 15.78 0.272 -73.66
4342.833 0.268 -73.865 0.961 15.566 0.961 15.566 0.268 -73.865
4367.792 0.265 -74.069 0.962 15.354 0.962 15.354 0.265 -74.069
4392.75 0.261 -74.271 0.963 15.144 0.963 15.144 0.261 -74.271
4417.708 0.258 -74.472 0.964 14.934 0.964 14.934 0.258 -74.472
4442.667 0.254 -74.672 0.964 14.726 0.964 14.726 0.254 -74.672
4467.625 0.251 -74.87 0.965 14.519 0.965 14.519 0.251 -74.87
4492.583 0.247 -75.067 0.966 14.313 0.966 14.313 0.247 -75.067
4517.542 0.244 -75.262 0.967 14.108 0.967 14.108 0.244 -75.262
4542.5 0.24 -75.456 0.968 13.905 0.968 13.905 0.24 -75.456
4567.458 0.237 -75.649 0.969 13.702 0.969 13.702 0.237 -75.649
4592.417 0.233 -75.84 0.97 13.501 0.97 13.501 0.233 -75.84
4617.375 0.23 -76.029 0.97 13.301 0.97 13.301 0.23 -76.029
4642.333 0.227 -76.218 0.971 13.102 0.971 13.102 0.227 -76.218
4667.292 0.223 -76.405 0.972 12.904 0.972 12.904 0.223 -76.405
4692.25 0.22 -76.591 0.973 12.707 0.973 12.707 0.22 -76.591
4717.208 0.217 -76.775 0.974 12.512 0.974 12.512 0.217 -76.775
4742.167 0.213 -76.958 0.974 12.317 0.974 12.317 0.213 -76.958
4767.125 0.21 -77.139 0.975 12.124 0.975 12.124 0.21 -77.139
4792.083 0.207 -77.32 0.976 11.931 0.976 11.931 0.207 -77.32
4817.042 0.203 -77.498 0.976 11.74 0.976 11.74 0.203 -77.498
4842 0.2 -77.676 0.977 11.549 0.977 11.549 0.2 -77.676
4866.958 0.197 -77.852 0.978 11.36 0.978 11.36 0.197 -77.852
4891.917 0.194 -78.027 0.978 11.172 0.978 11.172 0.194 -78.027
4916.875 0.191 -78.2 0.979 10.984 0.979 10.984 0.191 -78.2
4941.833 0.187 -78.372 0.98 10.798 0.98 10.798 0.187 -78.372
4966.792 0.184 -78.543 0.98 10.613 0.98 10.613 0.184 -78.543
4991.75 0.181 -78.712 0.981 10.428 0.981 10.428 0.181 -78.712
5016.708 0.178 -78.879 0.981 10.245 0.981 10.245 0.178 -78.879
5041.667 0.175 -79.046 0.982 10.062 0.982 10.062 0.175 -79.046
5066.625 0.172 -79.211 0.982 9.881 0.982 9.881 0.172 -79.211
5091.583 0.169 -79.374 0.983 9.7 0.983 9.7 0.169 -79.374
5116.542 0.165 -79.536 0.984 9.52 0.984 9.52 0.165 -79.536
5141.5 0.162 -79.696 0.984 9.341 0.984 9.341 0.162 -79.696
5166.458 0.159 -79.855 0.985 9.163 0.985 9.163 0.159 -79.855
5191.417 0.156 -80.013 0.985 8.986 0.985 8.986 0.156 -80.013
5216.375 0.153 -80.168 0.985 8.81 0.985 8.81 0.153 -80.168
5241.333 0.15 -80.323 0.986 8.635 0.986 8.635 0.15 -80.323
5266.292 0.147 -80.475 0.986 8.461 0.986 8.461 0.147 -80.475
5291.25 0.144 -80.626 0.987 8.287 0.987 8.287 0.144 -80.626
5316.208 0.141 -80.776 0.987 8.114 0.987 8.114 0.141 -80.776
5341.167 0.138 -80.923 0.988 7.942 0.988 7.942 0.138 -80.923
5366.125 0.135 -81.069 0.988 7.771 0.988 7.771 0.135 -81.069
5391.083 0.132 -81.213 0.988 7.601 0.988 7.601 0.132 -81.213
5416.042 0.129 -81.355 0.989 7.432 0.989 7.432 0.129 -81.355
5441 0.126 -81.495 0.989 7.263 0.989 7.263 0.126 -81.495
5465.958 0.124 -81.633 0.99 7.095 0.99 7.095 0.124 -81.633
5490.917 0.121 -81.769 0.99 6.928 0.99 6.928 0.121 -81.769
5515.875 0.118 -81.903 0.99 6.762 0.99 6.762 0.118 -81.903
5540.833 0.115 -82.035 0.991 6.597 0.991 6.597 0.115 -82.035
5565.792 0.112 -82.164 0.991 6.432 0.991 6.432 0.112 -82.164
5590.75 0.109 -82.291 0.991 6.268 0.991 6.268 0.109 -82.291
5615.708 0.106 -82.415 0.992 6.105 0.992 6.105 0.106 -82.415
5640.667 0.104 -82.537 0.992 5.942 0.992 5.942 0.104 -82.537
5665.625 0.101 -82.656 0.992 5.781 0.992 5.781 0.101 -82.656
5690.583 0.098 -82.772 0.992 5.62 0.992 5.62 0.098 -82.772
5715.542 0.095 -82.885 0.993 5.459 0.993 5.459 0.095 -82.885
5740.5 0.092 -82.994 0.993 5.3 0.993 5.3 0.092 -82.994
5765.458 0.09 -83.1 0.993 5.141 0.993 5.141 0.09 -83.1
5790.417 0.087 -83.202 0.993 4.983 0.993 4.983 0.087 -83.202
5815.375 0.084 -83.3 0.994 4.825 0.994 4.825 0.084 -83.3
5840.333 0.081 -83.394 0.994 4.669 0.994 4.669 0.081 -83.394
5865.292 0.079 -83.482 0.994 4.513 0.994 4.513 0.079 -83.482
5890.25 0.076 -83.566 0.994 4.357 0.994 4.357 0.076 -83.566
5915.208 0.073 -83.644 0.995 4.202 0.995 4.202 0.073 -83.644
5940.167 0.071 -83.716 0.995 4.048 0.995 4.048 0.071 -83.716
5965.125 0.068 -83.781 0.995 3.895 0.995 3.895 0.068 -83.781
5990.083 0.065 -83.839 0.995 3.742 0.995 3.742 0.065 -83.839
6015.042 0.063 -83.888 0.995 3.59 0.995 3.59 0.063 -83.888
6040 0.06 -83.929 0.995 3.439 0.995 3.439 0.06 -83.929
6064.958 0.057 -83.959 0.996 3.288 0.996 3.288 0.057 -83.959
6089.917 0.055 -83.977 0.996 3.138 0.996 3.138 0.055 -83.977
6114.875 0.052 -83.982 0.996 2.988 0.996 2.988 0.052 -83.982
6139.833 0.05 -83.972 0.996 2.839 0.996 2.839 0.05 -83.972
6164.792 0.047 -83.945 0.996 2.691 0.996 2.691 0.047 -83.945
6189.75 0.044 -83.897 0.996 2.543 0.996 2.543 0.044 -83.897
6214.708 0.042 -83.826 0.996 2.396 0.996 2.396 0.042 -83.826
6239.667 0.039 -83.727 0.996 2.25 0.996 2.25 0.039 -83.727
6264.625 0.037 -83.595 0.997 2.104 0.997 2.104 0.037 -83.595
6289.583 0.034 -83.422 0.997 1.958 0.997 1.958 0.034 -83.422
6314.542 0.032 -83.199 0.997 1.813 0.997 1.813 0.032 -83.199
6339.5 0.029 -82.915 0.997 1.669 0.997 1.669 0.029 -82.915
6364.458 0.027 -82.552 0.997 1.526 0.997 1.526 0.027 -82.552
6389.417 0.024 -82.087 0.997 1.383 0.997 1.383 0.024 -82.087
6414.375 0.022 -81.486 0.997 1.24 0.997 1.24 0.022 -81.486
6439.333 0.019 -80.7 0.997 1.098 0.997 1.098 0.019 -80.7
6464.292 0.017 -79.65 0.997 0.957 0.997 0.957 0.017 -79.65
6489.25 0.015 -78.206 0.997 0.816 0.997 0.816 0.015 -78.206
6514.208 0.012 -76.139 0.997 0.676 0.997 0.676 0.012 -76.139
6539.167 9.754e-3 -73.009 0.997 0.536 0.997 0.536 9.754e-3 -73.009
6564.125 7.455e-3 -67.851 0.997 0.397 0.997 0.397 7.455e-3 -67.851
6589.083 5.284e-3 -58.215 0.997 0.258 0.997 0.258 5.284e-3 -58.215
6614.042 3.466e-3 -37.02 0.997 0.12 0.997 0.12 3.466e-3 -37.02
6639 2.78e-3 6.377 0.997 -0.018 0.997 -0.018 2.78e-3 6.377
6663.958 3.865e-3 44.216 0.997 -0.155 0.997 -0.155 3.865e-3 44.216
6688.917 5.789e-3 61.202 0.997 -0.291 0.997 -0.291 5.789e-3 61.202
6713.875 7.958e-3 69.256 0.997 -0.428 0.997 -0.428 7.958e-3 69.256
6738.833 0.01 73.737 0.997 -0.563 0.997 -0.563 0.01 73.737
6763.792 0.012 76.529 0.997 -0.698 0.997 -0.698 0.012 76.529
6788.75 0.015 78.406 0.997 -0.833 0.997 -0.833 0.015 78.406
6813.708 0.017 79.736 0.997 -0.967 0.997 -0.967 0.017 79.736
6838.667 0.019 80.715 0.997 -1.101 0.997 -1.101 0.019 80.715
6863.625 0.022 81.456 0.997 -1.234 0.997 -1.234 0.022 81.456
6888.583 0.024 82.026 0.997 -1.366 0.997 -1.366 0.024 82.026
6913.542 0.026 82.473 0.997 -1.499 0.997 -1.499 0.026 82.473
6938.5 0.029 82.825 0.997 -1.63 0.997 -1.63 0.029 82.825
6963.458 0.031 83.105 0.997 -1.762 0.997 -1.762 0.031 83.105
6988.417 0.033 83.327 0.997 -1.892 0.997 -1.892 0.033 83.327
7013.375 0.035 83.504 0.997 -2.023 0.997 -2.023 0.035 83.504
7038.333 0.038 83.643 0.997 -2.153 0.997 -2.153 0.038 83.643
7063.292 0.04 83.752 0.996 -2.282 0.996 -2.282 0.04 83.752
7088.25 0.042 83.834 0.996 -2.411 0.996 -2.411 0.042 83.834
7113.208 0.044 83.896 0.996 -2.539 0.996 -2.539 0.044 83.896
7138.167 0.047 83.939 0.996 -2.667 0.996 -2.667 0.047 83.939
7163.125 0.049 83.966 0.996 -2.795 0.996 -2.795 0.049 83.966
7188.083 0.051 83.98 0.996 -2.922 0.996 -2.922 0.051 83.98
7213.042 0.053 83.982 0.996 -3.049 0.996 -3.049 0.053 83.982
7238 0.055 83.973 0.996 -3.175 0.996 -3.175 0.055 83.973
7262.958 0.058 83.956 0.996 -3.301 0.996 -3.301 0.058 83.956
7287.917 0.06 83.931 0.995 -3.427 0.995 -3.427 0.06 83.931
7312.875 0.062 83.899 0.995 -3.552 0.995 -3.552 0.062 83.899
7337.833 0.064 83.861 0.995 -3.676 0.995 -3.676 0.064 83.861
7362.792 0.066 83.818 0.995 -3.801 0.995 -3.801 0.066 83.818
7387.75 0.068 83.769 0.995 -3.924 0.995 -3.924 0.068 83.769
7412.708 0.071 83.716 0.995 -4.048 0.995 -4.048 0.071 83.716
7437.667 0.073 83.659 0.995 -4.171 0.995 -4.171 0.073 83.659
7462.625 0.075 83.599 0.994 -4.293 0.994 -4.293 0.075 83.599
7487.583 0.077 83.535 0.994 -4.415 0.994 -4.415 0.077 83.535
7512.542 0.079 83.469 0.994 -4.537 0.994 -4.537 0.079 83.469
7537.5 0.081 83.399 0.994 -4.659 0.994 -4.659 0.081 83.399
7562.458 0.083 83.328 0.994 -4.78 0.994 -4.78 0.083 83.328
7587.417 0.085 83.254 0.994 -4.9 0.994 -4.9 0.085 83.254
7612.375 0.088 83.178 0.993 -5.02 0.993 -5.02 0.088 83.178
7637.333 0.09 83.1 0.993 -5.14 0.993 -5.14 0.09 83.1
7662.292 0.092 83.021 0.993 -5.26 0.993 -5.26 0.092 83.021
7687.25 0.094 82.94 0.993 -5.379 0.993 -5.379 0.094 82.94
7712.208 0.096 82.858 0.993 -5.497 0.993 -5.497 0.096 82.858
7737.167 0.098 82.775 0.992 -5.616 0.992 -5.616 0.098 82.775
7762.125 0.1 82.69 0.992 -5.734 0.992 -5.734 0.1 82.69
7787.083 0.102 82.604 0.992 -5.851 0.992 -5.851 0.102 82.604
7812.042 0.104 82.518 0.992 -5.968 0.992 -5.968 0.104 82.518
7837 0.106 82.43 0.992 -6.085 0.992 -6.085 0.106 82.43
7861.958 0.108 82.342 0.991 -6.202 0.991 -6.202 0.108 82.342
7886.917 0.11 82.253 0.991 -6.318 0.991 -6.318 0.11 82.253
7911.875 0.112 82.163 0.991 -6.434 0.991 -6.434 0.112 82.163
7936.833 0.114 82.072 0.991 -6.549 0.991 -6.549 0.114 82.072
7961.792 0.116 81.981 0.99 -6.664 0.99 -6.664 0.116 81.981
7986.75 0.118 81.89 0.99 -6.779 0.99 -6.779 0.118 81.89
8011.708 0.12 81.797 0.99 -6.893 0.99 -6.893 0.12 81.797
8036.667 0.122 81.705 0.99 -7.007 0.99 -7.007 0.122 81.705
8061.625 0.124 81.612 0.99 -7.121 0.99 -7.121 0.124 81.612
8086.583 0.126 81.519 0.989 -7.234 0.989 -7.234 0.126 81.519
8111.542 0.128 81.425 0.989 -7.347 0.989 -7.347 0.128 81.425
8136.5 0.13 81.331 0.989 -7.46 0.989 -7.46 0.13 81.331
8161.458 0.132 81.237 0.989 -7.572 0.989 -7.572 0.132 81.237
8186.417 0.134 81.142 0.988 -7.684 0.988 -7.684 0.134 81.142
8211.375 0.136 81.048 0.988 -7.796 0.988 -7.796 0.136 81.048
