# MHZ S MA R 50

50 0.893 -26.708 0.449 63.259 0.449 63.259 0.893 -26.708
74.958 0.798 -37.057 0.603 52.893 0.603 52.893 0.798 -37.057
99.917 0.703 -45.232 0.71 44.7 0.71 44.7 0.703 -45.232
124.875 0.62 -51.619 0.784 38.296 0.784 38.296 0.62 -51.619
149.833 0.548 -56.636 0.835 33.262 0.835 33.262 0.548 -56.636
174.792 0.489 -60.63 0.871 29.251 0.871 29.251 0.489 -60.63
199.75 0.438 -63.859 0.898 26.004 0.898 26.004 0.438 -63.859
224.708 0.396 -66.51 0.917 23.334 0.917 23.334 0.396 -66.51
249.667 0.36 -68.721 0.932 21.106 0.932 21.106 0.36 -68.721
274.625 0.329 -70.588 0.943 19.22 0.943 19.22 0.329 -70.588
299.583 0.302 -72.186 0.952 17.603 0.952 17.603 0.302 -72.186
324.542 0.279 -73.567 0.959 16.203 0.959 16.203 0.279 -73.567
349.5 0.258 -74.773 0.965 14.977 0.965 14.977 0.258 -74.773
374.458 0.24 -75.835 0.97 13.895 0.97 13.895 0.24 -75.835
399.417 0.224 -76.777 0.974 12.931 0.974 12.931 0.224 -76.777
424.375 0.209 -77.62 0.977 12.067 0.977 12.067 0.209 -77.62
449.333 0.196 -78.378 0.98 11.286 0.98 11.286 0.196 -78.378
474.292 0.184 -79.064 0.982 10.578 0.982 10.578 0.184 -79.064
499.25 0.172 -79.687 0.984 9.93 0.984 9.93 0.172 -79.687
524.208 0.162 -80.257 0.986 9.336 0.986 9.336 0.162 -80.257
549.167 0.153 -80.779 0.987 8.788 0.987 8.788 0.153 -80.779
574.125 0.144 -81.26 0.988 8.28 0.988 8.28 0.144 -81.26
599.083 0.136 -81.704 0.99 7.808 0.99 7.808 0.136 -81.704
624.042 0.128 -82.115 0.991 7.367 0.991 7.367 0.128 -82.115
649 0.121 -82.497 0.991 6.954 0.991 6.954 0.121 -82.497
673.958 0.114 -82.852 0.992 6.566 0.992 6.566 0.114 -82.852
698.917 0.108 -83.183 0.993 6.201 0.993 6.201 0.108 -83.183
723.875 0.102 -83.492 0.994 5.855 0.994 5.855 0.102 -83.492
748.833 0.096 -83.78 0.994 5.528 0.994 5.528 0.096 -83.78
773.792 0.091 -84.05 0.995 5.217 0.995 5.217 0.091 -84.05
798.75 0.086 -84.302 0.995 4.921 0.995 4.921 0.086 -84.302
823.708 0.081 -84.537 0.996 4.638 0.996 4.638 0.081 -84.537
848.667 0.076 -84.755 0.996 4.368 0.996 4.368 0.076 -84.755
873.625 0.072 -84.959 0.996 4.109 0.996 4.109 0.072 -84.959
898.583 0.067 -85.147 0.997 3.861 0.997 3.861 0.067 -85.147
923.542 0.063 -85.32 0.997 3.622 0.997 3.622 0.063 -85.32
948.5 0.059 -85.478 0.997 3.392 0.997 3.392 0.059 -85.478
973.458 0.055 -85.621 0.997 3.17 0.997 3.17 0.055 -85.621
998.417 0.052 -85.747 0.998 2.956 0.998 2.956 0.052 -85.747
1023.375 0.048 -85.857 0.998 2.749 0.998 2.749 0.048 -85.857
1048.333 0.044 -85.947 0.998 2.549 0.998 2.549 0.044 -85.947
1073.292 0.041 -86.017 0.998 2.354 0.998 2.354 0.041 -86.017
1098.25 0.038 -86.064 0.998 2.165 0.998 2.165 0.038 -86.064
1123.208 0.035 -86.084 0.998 1.982 0.998 1.982 0.035 -86.084
1148.167 0.031 -86.071 0.998 1.803 0.998 1.803 0.031 -86.071
1173.125 0.028 -86.018 0.998 1.629 0.998 1.629 0.028 -86.018
1198.083 0.026 -85.914 0.999 1.46 0.999 1.46 0.026 -85.914
1223.042 0.023 -85.745 0.999 1.294 0.999 1.294 0.023 -85.745
1248 0.02 -85.485 0.999 1.133 0.999 1.133 0.02 -85.485
1272.958 0.017 -85.096 0.999 0.975 0.999 0.975 0.017 -85.096
1297.917 0.014 -84.513 0.999 0.82 0.999 0.82 0.014 -84.513
1322.875 0.012 -83.615 0.999 0.669 0.999 0.669 0.012 -83.615
1347.833 9.164e-3 -82.152 0.999 0.521 0.999 0.521 9.164e-3 -82.152
1372.792 6.656e-3 -79.512 0.999 0.375 0.999 0.375 6.656e-3 -79.512
1397.75 4.229e-3 -73.722 0.999 0.233 0.999 0.233 4.229e-3 -73.722
1422.708 1.998e-3 -54.103 0.999 0.093 0.999 0.093 1.998e-3 -54.103
1447.667 1.405e-3 33.686 0.999 -0.045 0.999 -0.045 1.405e-3 33.686
1472.625 3.351e-3 69.405 0.999 -0.18 0.999 -0.18 3.351e-3 69.405
1497.583 5.585e-3 77.608 0.999 -0.313 0.999 -0.313 5.585e-3 77.608
1522.542 7.833e-3 80.975 0.999 -0.444 0.999 -0.444 7.833e-3 80.975
1547.5 0.01 82.758 0.999 -0.573 0.999 -0.573 0.01 82.758
1572.458 0.012 83.833 0.999 -0.7 0.999 -0.7 0.012 83.833
1597.417 0.014 84.533 0.999 -0.825 0.999 -0.825 0.014 84.533
1622.375 0.017 85.012 0.999 -0.948 0.999 -0.948 0.017 85.012
1647.333 0.019 85.349 0.999 -1.07 0.999 -1.07 0.019 85.349
1672.292 0.021 85.589 0.999 -1.19 0.999 -1.19 0.021 85.589
1697.25 0.023 85.762 0.999 -1.308 0.999 -1.308 0.023 85.762
1722.208 0.025 85.885 0.999 -1.425 0.999 -1.425 0.025 85.885
1747.167 0.027 85.971 0.998 -1.541 0.998 -1.541 0.027 85.971
1772.125 0.029 86.029 0.998 -1.656 0.998 -1.656 0.029 86.029
1797.083 0.031 86.064 0.998 -1.769 0.998 -1.769 0.031 86.064
1822.042 0.033 86.081 0.998 -1.88 0.998 -1.88 0.033 86.081
1847 0.035 86.083 0.998 -1.991 0.998 -1.991 0.035 86.083
1871.958 0.037 86.074 0.998 -2.101 0.998 -2.101 0.037 86.074
1896.917 0.039 86.055 0.998 -2.209 0.998 -2.209 0.039 86.055
1921.875 0.04 86.029 0.998 -2.316 0.998 -2.316 0.04 86.029
1946.833 0.042 85.995 0.998 -2.423 0.998 -2.423 0.042 85.995
1971.792 0.044 85.956 0.998 -2.528 0.998 -2.528 0.044 85.956
1996.75 0.046 85.911 0.998 -2.633 0.998 -2.633 0.046 85.911
2021.708 0.048 85.863 0.998 -2.736 0.998 -2.736 0.048 85.863
2046.667 0.05 85.811 0.998 -2.839 0.998 -2.839 0.05 85.811
2071.625 0.051 85.756 0.998 -2.941 0.998 -2.941 0.051 85.756
2096.583 0.053 85.698 0.997 -3.042 0.997 -3.042 0.053 85.698
2121.542 0.055 85.638 0.997 -3.142 0.997 -3.142 0.055 85.638
2146.5 0.057 85.576 0.997 -3.241 0.997 -3.241 0.057 85.576
2171.458 0.058 85.513 0.997 -3.34 0.997 -3.34 0.058 85.513
2196.417 0.06 85.447 0.997 -3.438 0.997 -3.438 0.06 85.447
2221.375 0.062 85.381 0.997 -3.535 0.997 -3.535 0.062 85.381
2246.333 0.063 85.313 0.997 -3.632 0.997 -3.632 0.063 85.313
2271.292 0.065 85.244 0.997 -3.728 0.997 -3.728 0.065 85.244
2296.25 0.067 85.175 0.997 -3.823 0.997 -3.823 0.067 85.175
2321.208 0.068 85.104 0.996 -3.918 0.996 -3.918 0.068 85.104
2346.167 0.07 85.033 0.996 -4.012 0.996 -4.012 0.07 85.033
2371.125 0.072 84.961 0.996 -4.106 0.996 -4.106 0.072 84.961
2396.083 0.073 84.889 0.996 -4.199 0.996 -4.199 0.073 84.889
2421.042 0.075 84.816 0.996 -4.292 0.996 -4.292 0.075 84.816
2446 0.076 84.743 0.996 -4.384 0.996 -4.384 0.076 84.743
2470.958 0.078 84.669 0.996 -4.475 0.996 -4.475 0.078 84.669
2495.917 0.08 84.595 0.996 -4.566 0.996 -4.566 0.08 84.595
2520.875 0.081 84.521 0.996 -4.657 0.996 -4.657 0.081 84.521
2545.833 0.083 84.447 0.995 -4.747 0.995 -4.747 0.083 84.447
2570.792 0.084 84.372 0.995 -4.837 0.995 -4.837 0.084 84.372
2595.75 0.086 84.297 0.995 -4.926 0.995 -4.926 0.086 84.297
2620.708 0.087 84.222 0.995 -5.015 0.995 -5.015 0.087 84.222
2645.667 0.089 84.147 0.995 -5.103 0.995 -5.103 0.089 84.147
2670.625 0.09 84.072 0.995 -5.191 0.995 -5.191 0.09 84.072
2695.583 0.092 83.997 0.995 -5.278 0.995 -5.278 0.092 83.997
2720.542 0.094 83.921 0.994 -5.366 0.994 -5.366 0.094 83.921
2745.5 0.095 83.846 0.994 -5.452 0.994 -5.452 0.095 83.846
2770.458 0.097 83.771 0.994 -5.539 0.994 -5.539 0.097 83.771
2795.417 0.098 83.695 0.994 -5.625 0.994 -5.625 0.098 83.695
2820.375 0.1 83.62 0.994 -5.711 0.994 -5.711 0.1 83.62
2845.333 0.101 83.544 0.994 -5.796 0.994 -5.796 0.101 83.544
2870.292 0.102 83.469 0.994 -5.881 0.994 -5.881 0.102 83.469
2895.25 0.104 83.393 0.993 -5.966 0.993 -5.966 0.104 83.393
2920.208 0.105 83.318 0.993 -6.05 0.993 -6.05 0.105 83.318
2945.167 0.107 83.242 0.993 -6.134 0.993 -6.134 0.107 83.242
2970.125 0.108 83.167 0.993 -6.218 0.993 -6.218 0.108 83.167
2995.083 0.11 83.092 0.993 -6.302 0.993 -6.302 0.11 83.092
3020.042 0.111 83.016 0.993 -6.385 0.993 -6.385 0.111 83.016
3045 0.113 82.941 0.992 -6.468 0.992 -6.468 0.113 82.941
3069.958 0.114 82.866 0.992 -6.551 0.992 -6.551 0.114 82.866
3094.917 0.116 82.791 0.992 -6.633 0.992 -6.633 0.116 82.791
3119.875 0.117 82.716 0.992 -6.715 0.992 -6.715 0.117 82.716
3144.833 0.118 82.641 0.992 -6.797 0.992 -6.797 0.118 82.641
3169.792 0.12 82.566 0.992 -6.879 0.992 -6.879 0.12 82.566
3194.75 0.121 82.491 0.991 -6.96 0.991 -6.96 0.121 82.491
3219.708 0.123 82.416 0.991 -7.041 0.991 -7.041 0.123 82.416
3244.667 0.124 82.342 0.991 -7.122 0.991 -7.122 0.124 82.342
3269.625 0.125 82.267 0.991 -7.203 0.991 -7.203 0.125 82.267
3294.583 0.127 82.193 0.991 -7.283 0.991 -7.283 0.127 82.193
3319.542 0.128 82.118 0.991 -7.364 0.991 -7.364 0.128 82.118
3344.5 0.13 82.044 0.99 -7.444 0.99 -7.444 0.13 82.044
3369.458 0.131 81.969 0.99 -7.523 0.99 -7.523 0.131 81.969
3394.417 0.132 81.895 0.99 -7.603 0.99 -7.603 0.132 81.895
3419.375 0.134 81.821 0.99 -7.682 0.99 -7.682 0.134 81.821
3444.333 0.135 81.747 0.99 -7.762 0.99 -7.762 0.135 81.747
3469.292 0.136 81.673 0.989 -7.841 0.989 -7.841 0.136 81.673
3494.25 0.138 81.599 0.989 -7.919 0.989 -7.919 0.138 81.599
3519.208 0.139 81.525 0.989 -7.998 0.989 -7.998 0.139 81.525
3544.167 0.14 81.452 0.989 -8.076 0.989 -8.076 0.14 81.452
3569.125 0.142 81.378 0.989 -8.155 0.989 -8.155 0.142 81.378
3594.083 0.143 81.305 0.989 -8.233 0.989 -8.233 0.143 81.305
3619.042 0.145 81.231 0.988 -8.31 0.988 -8.31 0.145 81.231
3644 0.146 81.158 0.988 -8.388 0.988 -8.388 0.146 81.158
3668.958 0.147 81.084 0.988 -8.466 0.988 -8.466 0.147 81.084
3693.917 0.149 81.011 0.988 -8.543 0.988 -8.543 0.149 81.011
3718.875 0.15 80.938 0.988 -8.62 0.988 -8.62 0.15 80.938
3743.833 0.151 80.865 0.987 -8.697 0.987 -8.697 0.151 80.865
3768.792 0.153 80.792 0.987 -8.774 0.987 -8.774 0.153 80.792
3793.75 0.154 80.719 0.987 -8.851 0.987 -8.851 0.154 80.719
3818.708 0.155 80.647 0.987 -8.927 0.987 -8.927 0.155 80.647
3843.667 0.156 80.574 0.987 -9.003 0.987 -9.003 0.156 80.574
3868.625 0.158 80.501 0.986 -9.08 0.986 -9.08 0.158 80.501
3893.583 0.159 80.429 0.986 -9.156 0.986 -9.156 0.159 80.429
3918.542 0.16 80.356 0.986 -9.231 0.986 -9.231 0.16 80.356
3943.5 0.162 80.284 0.986 -9.307 0.986 -9.307 0.162 80.284
3968.458 0.163 80.212 0.985 -9.383 0.985 -9.383 0.163 80.212
3993.417 0.164 80.14 0.985 -9.458 0.985 -9.458 0.164 80.14
4018.375 0.166 80.068 0.985 -9.534 0.985 -9.534 0.166 80.068
4043.333 0.167 79.996 0.985 -9.609 0.985 -9.609 0.167 79.996
4068.292 0.168 79.924 0.985 -9.684 0.985 -9.684 0.168 79.924
4093.25 0.17 79.852 0.984 -9.759 0.984 -9.759 0.17 79.852
4118.208 0.171 79.78 0.984 -9.833 0.984 -9.833 0.171 79.78
4143.167 0.172 79.709 0.984 -9.908 0.984 -9.908 0.172 79.709
4168.125 0.173 79.637 0.984 -9.983 0.984 -9.983 0.173 79.637
4193.083 0.175 79.565 0.983 -10.057 0.983 -10.057 0.175 79.565
4218.042 0.176 79.494 0.983 -10.131 0.983 -10.131 0.176 79.494
4243 0.177 79.423 0.983 -10.205 0.983 -10.205 0.177 79.423
4267.958 0.178 79.351 0.983 -10.279 0.983 -10.279 0.178 79.351
4292.917 0.18 79.28 0.983 -10.353 0.983 -10.353 0.18 79.28
4317.875 0.181 79.209 0.982 -10.427 0.982 -10.427 0.181 79.209
4342.833 0.182 79.138 0.982 -10.501 0.982 -10.501 0.182 79.138
4367.792 0.184 79.067 0.982 -10.574 0.982 -10.574 0.184 79.067
4392.75 0.185 78.996 0.982 -10.647 0.982 -10.647 0.185 78.996
4417.708 0.186 78.926 0.981 -10.721 0.981 -10.721 0.186 78.926
4442.667 0.187 78.855 0.981 -10.794 0.981 -10.794 0.187 78.855
4467.625 0.189 78.784 0.981 -10.867 0.981 -10.867 0.189 78.784
4492.583 0.19 78.714 0.981 -10.94 0.981 -10.94 0.19 78.714
4517.542 0.191 78.643 0.98 -11.013 0.98 -11.013 0.191 78.643
4542.5 0.192 78.573 0.98 -11.085 0.98 -11.085 0.192 78.573
4567.458 0.194 78.502 0.98 -11.158 0.98 -11.158 0.194 78.502
4592.417 0.195 78.432 0.98 -11.231 0.98 -11.231 0.195 78.432
4617.375 0.196 78.362 0.979 -11.303 0.979 -11.303 0.196 78.362
4642.333 0.197 78.292 0.979 -11.375 0.979 -11.375 0.197 78.292
4667.292 0.198 78.222 0.979 -11.447 0.979 -11.447 0.198 78.222
4692.25 0.2 78.152 0.979 -11.52 0.979 -11.52 0.2 78.152
4717.208 0.201 78.082 0.978 -11.591 0.978 -11.591 0.201 78.082
4742.167 0.202 78.012 0.978 -11.663 0.978 -11.663 0.202 78.012
4767.125 0.203 77.942 0.978 -11.735 0.978 -11.735 0.203 77.942
4792.083 0.205 77.873 0.978 -11.807 0.978 -11.807 0.205 77.873
4817.042 0.206 77.803 0.977 -11.878 0.977 -11.878 0.206 77.803
4842 0.207 77.734 0.977 -11.95 0.977 -11.95 0.207 77.734
4866.958 0.208 77.664 0.977 -12.021 0.977 -12.021 0.208 77.664
4891.917 0.209 77.595 0.977 -12.093 0.977 -12.093 0.209 77.595
4916.875 0.211 77.526 0.976 -12.164 0.976 -12.164 0.211 77.526
4941.833 0.212 77.456 0.976 -12.235 0.976 -12.235 0.212 77.456
4966.792 0.213 77.387 0.976 -12.306 0.976 -12.306 0.213 77.387
4991.75 0.214 77.318 0.976 -12.377 0.976 -12.377 0.214 77.318
5016.708 0.216 77.249 0.975 -12.447 0.975 -12.447 0.216 77.249
5041.667 0.217 77.18 0.975 -12.518 0.975 -12.518 0.217 77.18
5066.625 0.218 77.111 0.975 -12.589 0.975 -12.589 0.218 77.111
5091.583 0.219 77.042 0.975 -12.659 0.975 -12.659 0.219 77.042
5116.542 0.22 76.974 0.974 -12.73 0.974 -12.73 0.22 76.974
5141.5 0.222 76.905 0.974 -12.8 0.974 -12.8 0.222 76.905
5166.458 0.223 76.836 0.974 -12.87 0.974 -12.87 0.223 76.836
5191.417 0.224 76.768 0.973 -12.941 0.973 -12.941 0.224 76.768
5216.375 0.225 76.699 0.973 -13.011 0.973 -13.011 0.225 76.699
5241.333 0.226 76.631 0.973 -13.081 0.973 -13.081 0.226 76.631
5266.292 0.228 76.563 0.973 -13.151 0.973 -13.151 0.228 76.563
5291.25 0.229 76.494 0.972 -13.22 0.972 -13.22 0.229 76.494
5316.208 0.23 76.426 0.972 -13.29 0.972 -13.29 0.23 76.426
5341.167 0.231 76.358 0.972 -13.36 0.972 -13.36 0.231 76.358
5366.125 0.232 76.29 0.972 -13.429 0.972 -13.429 0.232 76.29
5391.083 0.233 76.222 0.971 -13.499 0.971 -13.499 0.233 76.222
5416.042 0.235 76.154 0.971 -13.568 0.971 -13.568 0.235 76.154
5441 0.236 76.086 0.971 -13.638 0.971 -13.638 0.236 76.086
5465.958 0.237 76.019 0.97 -13.707 0.97 -13.707 0.237 76.019
5490.917 0.238 75.951 0.97 -13.776 0.97 -13.776 0.238 75.951
5515.875 0.239 75.883 0.97 -13.845 0.97 -13.845 0.239 75.883
5540.833 0.24 75.816 0.97 -13.914 0.97 -13.914 0.24 75.816
5565.792 0.242 75.748 0.969 -13.983 0.969 -13.983 0.242 75.748
5590.75 0.243 75.681 0.969 -14.052 0.969 -14.052 0.243 75.681
5615.708 0.244 75.613 0.969 -14.121 0.969 -14.121 0.244 75.613
5640.667 0.245 75.546 0.968 -14.189 0.968 -14.189 0.245 75.546
5665.625 0.246 75.478 0.968 -14.258 0.968 -14.258 0.246 75.478
5690.583 0.247 75.411 0.968 -14.326 0.968 -14.326 0.247 75.411
5715.542 0.249 75.344 0.967 -14.395 0.967 -14.395 0.249 75.344
5740.5 0.25 75.277 0.967 -14.463 0.967 -14.463 0.25 75.277
5765.458 0.251 75.21 0.967 -14.532 0.967 -14.532 0.251 75.21
5790.417 0.252 75.143 0.967 -14.6 0.967 -14.6 0.252 75.143
5815.375 0.253 75.076 0.966 -14.668 0.966 -14.668 0.253 75.076
5840.333 0.254 75.009 0.966 -14.736 0.966 -14.736 0.254 75.009
5865.292 0.256 74.943 0.966 -14.804 0.966 -14.804 0.256 74.943
5890.25 0.257 74.876 0.965 -14.872 0.965 -14.872 0.257 74.876
5915.208 0.258 74.809 0.965 -14.94 0.965 -14.94 0.258 74.809
5940.167 0.259 74.743 0.965 -15.008 0.965 -15.008 0.259 74.743
5965.125 0.26 74.676 0.964 -15.075 0.964 -15.075 0.26 74.676
5990.083 0.261 74.61 0.964 -15.143 0.964 -15.143 0.261 74.61
6015.042 0.262 74.543 0.964 -15.21 0.964 -15.21 0.262 74.543
6040 0.264 74.477 0.964 -15.278 0.964 -15.278 0.264 74.477
6064.958 0.265 74.411 0.963 -15.345 0.963 -15.345 0.265 74.411
6089.917 0.266 74.345 0.963 -15.413 0.963 -15.413 0.266 74.345
6114.875 0.267 74.278 0.963 -15.48 0.963 -15.48 0.267 74.278
6139.833 0.268 74.212 0.962 -15.547 0.962 -15.547 0.268 74.212
6164.792 0.269 74.146 0.962 -15.614 0.962 -15.614 0.269 74.146
6189.75 0.27 74.08 0.962 -15.681 0.962 -15.681 0.27 74.08
6214.708 0.271 74.014 0.961 -15.748 0.961 -15.748 0.271 74.014
6239.667 0.273 73.949 0.961 -15.815 0.961 -15.815 0.273 73.949
6264.625 0.274 73.883 0.961 -15.882 0.961 -15.882 0.274 73.883
6289.583 0.275 73.817 0.96 -15.948 0.96 -15.948 0.275 73.817
6314.542 0.276 73.752 0.96 -16.015 0.96 -16.015 0.276 73.752
6339.5 0.277 73.686 0.96 -16.082 0.96 -16.082 0.277 73.686
6364.458 0.278 73.62 0.959 -16.148 0.959 -16.148 0.278 73.62
6389.417 0.279 73.555 0.959 -16.215 0.959 -16.215 0.279 73.555
6414.375 0.28 73.49 0.959 -16.281 0.959 -16.281 0.28 73.49
6439.333 0.281 73.424 0.958 -16.347 0.958 -16.347 0.281 73.424
6464.292 0.283 73.359 0.958 -16.414 0.958 -16.414 0.283 73.359
6489.25 0.284 73.294 0.958 -16.48 0.958 -16.48 0.284 73.294
6514.208 0.285 73.229 0.957 -16.546 0.957 -16.546 0.285 73.229
6539.167 0.286 73.163 0.957 -16.612 0.957 -16.612 0.286 73.163
6564.125 0.287 73.098 0.957 -16.678 0.957 -16.678 0.287 73.098
6589.083 0.288 73.033 0.956 -16.744 0.956 -16.744 0.288 73.033
6614.042 0.289 72.969 0.956 -16.81 0.956 -16.81 0.289 72.969
6639 0.29 72.904 0.956 -16.876 0.956 -16.876 0.29 72.904
6663.958 0.291 72.839 0.955 -16.941 0.955 -16.941 0.291 72.839
6688.917 0.292 72.774 0.955 -17.007 0.955 -17.007 0.292 72.774
6713.875 0.294 72.709 0.955 -17.072 0.955 -17.072 0.294 72.709
6738.833 0.295 72.645 0.954 -17.138 0.954 -17.138 0.295 72.645
6763.792 0.296 72.58 0.954 -17.203 0.954 -17.203 0.296 72.58
6788.75 0.297 72.516 0.954 -17.269 0.954 -17.269 0.297 72.516
6813.708 0.298 72.451 0.953 -17.334 0.953 -17.334 0.298 72.451
6838.667 0.299 72.387 0.953 -17.399 0.953 -17.399 0.299 72.387
6863.625 0.3 72.323 0.953 -17.464 0.953 -17.464 0.3 72.323
6888.583 0.301 72.258 0.952 -17.53 0.952 -17.53 0.301 72.258
6913.542 0.302 72.194 0.952 -17.595 0.952 -17.595 0.302 72.194
6938.5 0.303 72.13 0.952 -17.66 0.952 -17.66 0.303 72.13
6963.458 0.304 72.066 0.951 -17.724 0.951 -17.724 0.304 72.066
6988.417 0.306 72.002 0.951 -17.789 0.951 -17.789 0.306 72.002
7013.375 0.307 71.938 0.951 -17.854 0.951 -17.854 0.307 71.938
7038.333 0.308 71.874 0.95 -17.919 0.95 -17.919 0.308 71.874
7063.292 0.309 71.81 0.95 -17.983 0.95 -17.983 0.309 71.81
7088.25 0.31 71.746 0.95 -18.048 0.95 -18.048 0.31 71.746
7113.208 0.311 71.683 0.949 -18.113 0.949 -18.113 0.311 71.683
7138.167 0.312 71.619 0.949 -18.177 0.949 -18.177 0.312 71.619
7163.125 0.313 71.555 0.949 -18.241 0.949 -18.241 0.313 71.555
7188.083 0.314 71.492 0.948 -18.306 0.948 -18.306 0.314 71.492
7213.042 0.315 71.428 0.948 -18.37 0.948 -18.37 0.315 71.428
7238 0.316 71.365 0.948 -18.434 0.948 -18.434 0.316 71.365
7262.958 0.317 71.302 0.947 -18.498 0.947 -18.498 0.317 71.302
7287.917 0.318 71.238 0.947 -18.562 0.947 -18.562 0.318 71.238
7312.875 0.319 71.175 0.947 -18.626 0.947 -18.626 0.319 71.175
7337.833 0.32 71.112 0.946 -18.69 0.946 -18.69 0.32 71.112
7362.792 0.322 71.049 0.946 -18.754 0.946 -18.754 0.322 71.049
7387.75 0.323 70.986 0.945 -18.818 0.945 -18.818 0.323 70.986
7412.708 0.324 70.923 0.945 -18.882 0.945 -18.882 0.324 70.923
7437.667 0.325 70.86 0.945 -18.945 0.945 -18.945 0.325 70.86
7462.625 0.326 70.797 0.944 -19.009 0.944 -19.009 0.326 70.797
7487.583 0.327 70.734 0.944 -19.072 0.944 -19.072 0.327 70.734
7512.542 0.328 70.671 0.944 -19.136 0.944 -19.136 0.328 70.671
7537.5 0.329 70.608 0.943 -19.199 0.943 -19.199 0.329 70.608
7562.458 0.33 70.546 0.943 -19.263 0.943 -19.263 0.33 70.546
7587.417 0.331 70.483 0.943 -19.326 0.943 -19.326 0.331 70.483
7612.375 0.332 70.421 0.942 -19.389 0.942 -19.389 0.332 70.421
7637.333 0.333 70.358 0.942 -19.452 0.942 -19.452 0.333 70.358
7662.292 0.334 70.296 0.941 -19.515 0.941 -19.515 0.334 70.296
7687.25 0.335 70.233 0.941 -19.578 0.941 -19.578 0.335 70.233
7712.208 0.336 70.171 0.941 -19.641 0.941 -19.641 0.336 70.171
7737.167 0.337 70.109 0.94 -19.704 0.94 -19.704 0.337 70.109
7762.125 0.338 70.047 0.94 -19.767 0.94 -19.767 0.338 70.047
7787.083 0.339 69.984 0.94 -19.83 0.94 -19.83 0.339 69.984
7812.042 0.34 69.922 0.939 -19.893 0.939 -19.893 0.34 69.922
7837 0.341 69.86 0.939 -19.955 0.939 -19.955 0.341 69.86
7861.958 0.342 69.798 0.938 -20.018 0.938 -20.018 0.342 69.798
7886.917 0.343 69.736 0.938 -20.08 0.938 -20.08 0.343 69.736
7911.875 0.344 69.675 0.938 -20.143 0.938 -20.143 0.344 69.675
7936.833 0.345 69.613 0.937 -20.205 0.937 -20.205 0.345 69.613
7961.792 0.346 69.551 0.937 -20.268 0.937 -20.268 0.346 69.551
7986.75 0.347 69.489 0.937 -20.33 0.937 -20.33 0.347 69.489
8011.708 0.348 69.428 0.936 -20.392 0.936 -20.392 0.348 69.428
8036.667 0.349 69.366 0.936 -20.454 0.936 -20.454 0.349 69.366
8061.625 0.35 69.305 0.935 -20.516 0.935 -20.516 0.35 69.305
8086.583 0.351 69.243 0.935 -20.578 0.935 -20.578 0.351 69.243
8111.542 0.353 69.182 0.935 -20.64 0.935 -20.64 0.353 69.182
8136.5 0.354 69.121 0.934 -20.702 0.934 -20.702 0.354 69.121
8161.458 0.355 69.059 0.934 -20.764 0.934 -20.764 0.355 69.059
8186.417 0.356 68.998 0.934 -20.826 0.934 -20.826 0.356 68.998
