! AVX Thin Film Operation		Date: April 2012 
! Description: Accu-P® Series, Thin Film, SMD, RF Capacitor
! Part Number: 08055J190FBTTR					
!	50	MHz	-	20.05	GHz			
!	Serial	Measurements						
!								
#	MHZ	S	MA	R	50			
!	S11	S21	S12	S22				
!	dB	Phase	dB	Phase	dB	Phase	dB	Phase
50 0.858 -30.858 0.513 59.102 0.513 59.102 0.858 -30.858
74.958 0.744 -41.888 0.668 48.053 0.668 48.053 0.744 -41.888
99.917 0.64 -50.138 0.768 39.783 0.768 39.783 0.64 -50.138
124.875 0.553 -56.312 0.832 33.589 0.832 33.589 0.553 -56.312
149.833 0.483 -61.011 0.875 28.869 0.875 28.869 0.483 -61.011
174.792 0.426 -64.667 0.904 25.193 0.904 25.193 0.426 -64.667
199.75 0.379 -67.574 0.924 22.265 0.924 22.265 0.379 -67.574
224.708 0.34 -69.932 0.939 19.886 0.939 19.886 0.34 -69.932
249.667 0.308 -71.88 0.95 17.917 0.95 17.917 0.308 -71.88
274.625 0.28 -73.514 0.959 16.261 0.959 16.261 0.28 -73.514
299.583 0.256 -74.904 0.965 14.848 0.965 14.848 0.256 -74.904
324.542 0.236 -76.1 0.971 13.628 0.971 13.628 0.236 -76.1
349.5 0.218 -77.141 0.975 12.564 0.975 12.564 0.218 -77.141
374.458 0.202 -78.055 0.978 11.625 0.978 11.625 0.202 -78.055
399.417 0.187 -78.865 0.981 10.79 0.981 10.79 0.187 -78.865
424.375 0.174 -79.587 0.984 10.042 0.984 10.042 0.174 -79.587
449.333 0.163 -80.235 0.986 9.366 0.986 9.366 0.163 -80.235
474.292 0.152 -80.82 0.987 8.753 0.987 8.753 0.152 -80.82
499.25 0.143 -81.35 0.989 8.192 0.989 8.192 0.143 -81.35
524.208 0.134 -81.834 0.99 7.677 0.99 7.677 0.134 -81.834
549.167 0.125 -82.277 0.991 7.202 0.991 7.202 0.125 -82.277
574.125 0.118 -82.683 0.992 6.762 0.992 6.762 0.118 -82.683
599.083 0.111 -83.057 0.993 6.352 0.993 6.352 0.111 -83.057
624.042 0.104 -83.402 0.993 5.968 0.993 5.968 0.104 -83.402
649 0.098 -83.721 0.994 5.609 0.994 5.609 0.098 -83.721
673.958 0.092 -84.016 0.995 5.271 0.995 5.271 0.092 -84.016
698.917 0.086 -84.289 0.995 4.952 0.995 4.952 0.086 -84.289
723.875 0.081 -84.541 0.996 4.65 0.996 4.65 0.081 -84.541
748.833 0.076 -84.774 0.996 4.363 0.996 4.363 0.076 -84.774
773.792 0.071 -84.989 0.996 4.09 0.996 4.09 0.071 -84.989
798.75 0.067 -85.187 0.997 3.83 0.997 3.83 0.067 -85.187
823.708 0.062 -85.367 0.997 3.582 0.997 3.582 0.062 -85.367
848.667 0.058 -85.53 0.997 3.344 0.997 3.344 0.058 -85.53
873.625 0.054 -85.675 0.997 3.116 0.997 3.116 0.054 -85.675
898.583 0.051 -85.803 0.998 2.896 0.998 2.896 0.051 -85.803
923.542 0.047 -85.912 0.998 2.685 0.998 2.685 0.047 -85.912
948.5 0.043 -86 0.998 2.481 0.998 2.481 0.043 -86
973.458 0.04 -86.066 0.998 2.284 0.998 2.284 0.04 -86.066
998.417 0.037 -86.106 0.998 2.094 0.998 2.094 0.037 -86.106
1023.375 0.033 -86.117 0.998 1.909 0.998 1.909 0.033 -86.117
1048.333 0.03 -86.092 0.998 1.73 0.998 1.73 0.03 -86.092
1073.292 0.027 -86.022 0.998 1.556 0.998 1.556 0.027 -86.022
1098.25 0.024 -85.897 0.999 1.387 0.999 1.387 0.024 -85.897
1123.208 0.021 -85.696 0.999 1.223 0.999 1.223 0.021 -85.696
1148.167 0.019 -85.392 0.999 1.062 0.999 1.062 0.019 -85.392
1173.125 0.016 -84.938 0.999 0.906 0.999 0.906 0.016 -84.938
1198.083 0.013 -84.251 0.999 0.753 0.999 0.753 0.013 -84.251
1223.042 0.011 -83.173 0.999 0.604 0.999 0.604 0.011 -83.173
1248 8.068e-3 -81.357 0.999 0.458 0.999 0.458 8.068e-3 -81.357
1272.958 5.61e-3 -77.869 0.999 0.315 0.999 0.315 5.61e-3 -77.869
1297.917 3.255e-3 -69.162 0.999 0.175 0.999 0.175 3.255e-3 -69.162
1322.875 1.319e-3 -29.417 0.999 0.037 0.999 0.037 1.319e-3 -29.417
1347.833 2.055e-3 55.907 0.999 -0.098 0.999 -0.098 2.055e-3 55.907
1372.792 4.174e-3 73.796 0.999 -0.23 0.999 -0.23 4.174e-3 73.796
1397.75 6.387e-3 79.278 0.999 -0.36 0.999 -0.36 6.387e-3 79.278
1422.708 8.59e-3 81.827 0.999 -0.488 0.999 -0.488 8.59e-3 81.827
1447.667 0.011 83.263 0.999 -0.614 0.999 -0.614 0.011 83.263
1472.625 0.013 84.162 0.999 -0.737 0.999 -0.737 0.013 84.162
1497.583 0.015 84.76 0.999 -0.859 0.999 -0.859 0.015 84.76
1522.542 0.017 85.176 0.999 -0.979 0.999 -0.979 0.017 85.176
1547.5 0.019 85.471 0.999 -1.098 0.999 -1.098 0.019 85.471
1572.458 0.021 85.684 0.999 -1.215 0.999 -1.215 0.021 85.684
1597.417 0.023 85.837 0.999 -1.33 0.999 -1.33 0.023 85.837
1622.375 0.025 85.946 0.999 -1.444 0.999 -1.444 0.025 85.946
1647.333 0.027 86.022 0.998 -1.556 0.998 -1.556 0.027 86.022
1672.292 0.029 86.072 0.998 -1.667 0.998 -1.667 0.029 86.072
1697.25 0.031 86.102 0.998 -1.777 0.998 -1.777 0.031 86.102
1722.208 0.033 86.116 0.998 -1.885 0.998 -1.885 0.033 86.116
1747.167 0.035 86.116 0.998 -1.992 0.998 -1.992 0.035 86.116
1772.125 0.037 86.106 0.998 -2.099 0.998 -2.099 0.037 86.106
1797.083 0.038 86.086 0.998 -2.204 0.998 -2.204 0.038 86.086
1822.042 0.04 86.059 0.998 -2.308 0.998 -2.308 0.04 86.059
1847 0.042 86.026 0.998 -2.411 0.998 -2.411 0.042 86.026
1871.958 0.044 85.988 0.998 -2.513 0.998 -2.513 0.044 85.988
1896.917 0.046 85.945 0.998 -2.614 0.998 -2.614 0.046 85.945
1921.875 0.047 85.898 0.998 -2.714 0.998 -2.714 0.047 85.898
1946.833 0.049 85.847 0.998 -2.814 0.998 -2.814 0.049 85.847
1971.792 0.051 85.794 0.998 -2.912 0.998 -2.912 0.051 85.794
1996.75 0.053 85.738 0.997 -3.01 0.997 -3.01 0.053 85.738
2021.708 0.054 85.68 0.997 -3.107 0.997 -3.107 0.054 85.68
2046.667 0.056 85.621 0.997 -3.203 0.997 -3.203 0.056 85.621
2071.625 0.058 85.559 0.997 -3.299 0.997 -3.299 0.058 85.559
2096.583 0.059 85.496 0.997 -3.394 0.997 -3.394 0.059 85.496
2121.542 0.061 85.432 0.997 -3.488 0.997 -3.488 0.061 85.432
2146.5 0.062 85.367 0.997 -3.582 0.997 -3.582 0.062 85.367
2171.458 0.064 85.301 0.997 -3.675 0.997 -3.675 0.064 85.301
2196.417 0.066 85.233 0.997 -3.767 0.997 -3.767 0.066 85.233
2221.375 0.067 85.165 0.997 -3.859 0.997 -3.859 0.067 85.165
2246.333 0.069 85.097 0.996 -3.95 0.996 -3.95 0.069 85.097
2271.292 0.07 85.028 0.996 -4.041 0.996 -4.041 0.07 85.028
2296.25 0.072 84.958 0.996 -4.131 0.996 -4.131 0.072 84.958
2321.208 0.074 84.888 0.996 -4.221 0.996 -4.221 0.074 84.888
2346.167 0.075 84.817 0.996 -4.31 0.996 -4.31 0.075 84.817
2371.125 0.077 84.746 0.996 -4.398 0.996 -4.398 0.077 84.746
2396.083 0.078 84.675 0.996 -4.487 0.996 -4.487 0.078 84.675
2421.042 0.08 84.603 0.996 -4.574 0.996 -4.574 0.08 84.603
2446 0.081 84.531 0.996 -4.662 0.996 -4.662 0.081 84.531
2470.958 0.083 84.459 0.995 -4.748 0.995 -4.748 0.083 84.459
2495.917 0.084 84.387 0.995 -4.835 0.995 -4.835 0.084 84.387
2520.875 0.086 84.315 0.995 -4.921 0.995 -4.921 0.086 84.315
2545.833 0.087 84.242 0.995 -5.007 0.995 -5.007 0.087 84.242
2570.792 0.089 84.169 0.995 -5.092 0.995 -5.092 0.089 84.169
2595.75 0.09 84.097 0.995 -5.177 0.995 -5.177 0.09 84.097
2620.708 0.092 84.024 0.995 -5.261 0.995 -5.261 0.092 84.024
2645.667 0.093 83.951 0.995 -5.346 0.995 -5.346 0.093 83.951
2670.625 0.095 83.878 0.994 -5.429 0.994 -5.429 0.095 83.878
2695.583 0.096 83.805 0.994 -5.513 0.994 -5.513 0.096 83.805
2720.542 0.098 83.732 0.994 -5.596 0.994 -5.596 0.098 83.732
2745.5 0.099 83.659 0.994 -5.679 0.994 -5.679 0.099 83.659
2770.458 0.1 83.586 0.994 -5.762 0.994 -5.762 0.1 83.586
2795.417 0.102 83.513 0.994 -5.844 0.994 -5.844 0.102 83.513
2820.375 0.103 83.44 0.994 -5.926 0.994 -5.926 0.103 83.44
2845.333 0.105 83.367 0.993 -6.008 0.993 -6.008 0.105 83.367
2870.292 0.106 83.294 0.993 -6.089 0.993 -6.089 0.106 83.294
2895.25 0.107 83.221 0.993 -6.17 0.993 -6.17 0.107 83.221
2920.208 0.109 83.148 0.993 -6.251 0.993 -6.251 0.109 83.148
2945.167 0.11 83.075 0.993 -6.332 0.993 -6.332 0.11 83.075
2970.125 0.112 83.002 0.993 -6.412 0.993 -6.412 0.112 83.002
2995.083 0.113 82.93 0.992 -6.492 0.992 -6.492 0.113 82.93
3020.042 0.114 82.857 0.992 -6.572 0.992 -6.572 0.114 82.857
3045 0.116 82.784 0.992 -6.651 0.992 -6.651 0.116 82.784
3069.958 0.117 82.711 0.992 -6.731 0.992 -6.731 0.117 82.711
3094.917 0.119 82.639 0.992 -6.81 0.992 -6.81 0.119 82.639
3119.875 0.12 82.566 0.992 -6.889 0.992 -6.889 0.12 82.566
3144.833 0.121 82.494 0.991 -6.968 0.991 -6.968 0.121 82.494
3169.792 0.123 82.421 0.991 -7.046 0.991 -7.046 0.123 82.421
3194.75 0.124 82.349 0.991 -7.124 0.991 -7.124 0.124 82.349
3219.708 0.125 82.277 0.991 -7.202 0.991 -7.202 0.125 82.277
3244.667 0.127 82.204 0.991 -7.28 0.991 -7.28 0.127 82.204
3269.625 0.128 82.132 0.991 -7.358 0.991 -7.358 0.128 82.132
3294.583 0.129 82.06 0.99 -7.435 0.99 -7.435 0.129 82.06
3319.542 0.131 81.988 0.99 -7.513 0.99 -7.513 0.131 81.988
3344.5 0.132 81.916 0.99 -7.59 0.99 -7.59 0.132 81.916
3369.458 0.133 81.844 0.99 -7.667 0.99 -7.667 0.133 81.844
3394.417 0.135 81.772 0.99 -7.743 0.99 -7.743 0.135 81.772
3419.375 0.136 81.701 0.99 -7.82 0.99 -7.82 0.136 81.701
3444.333 0.137 81.629 0.989 -7.896 0.989 -7.896 0.137 81.629
3469.292 0.139 81.557 0.989 -7.973 0.989 -7.973 0.139 81.557
3494.25 0.14 81.486 0.989 -8.049 0.989 -8.049 0.14 81.486
3519.208 0.141 81.414 0.989 -8.124 0.989 -8.124 0.141 81.414
3544.167 0.143 81.343 0.989 -8.2 0.989 -8.2 0.143 81.343
3569.125 0.144 81.272 0.988 -8.276 0.988 -8.276 0.144 81.272
3594.083 0.145 81.2 0.988 -8.351 0.988 -8.351 0.145 81.2
3619.042 0.147 81.129 0.988 -8.426 0.988 -8.426 0.147 81.129
3644 0.148 81.058 0.988 -8.501 0.988 -8.501 0.148 81.058
3668.958 0.149 80.987 0.988 -8.576 0.988 -8.576 0.149 80.987
3693.917 0.15 80.916 0.987 -8.651 0.987 -8.651 0.15 80.916
3718.875 0.152 80.845 0.987 -8.726 0.987 -8.726 0.152 80.845
3743.833 0.153 80.775 0.987 -8.8 0.987 -8.8 0.153 80.775
3768.792 0.154 80.704 0.987 -8.875 0.987 -8.875 0.154 80.704
3793.75 0.156 80.633 0.987 -8.949 0.987 -8.949 0.156 80.633
3818.708 0.157 80.563 0.986 -9.023 0.986 -9.023 0.157 80.563
3843.667 0.158 80.492 0.986 -9.097 0.986 -9.097 0.158 80.492
3868.625 0.159 80.422 0.986 -9.171 0.986 -9.171 0.159 80.422
3893.583 0.161 80.351 0.986 -9.244 0.986 -9.244 0.161 80.351
3918.542 0.162 80.281 0.986 -9.318 0.986 -9.318 0.162 80.281
3943.5 0.163 80.211 0.985 -9.391 0.985 -9.391 0.163 80.211
3968.458 0.164 80.141 0.985 -9.465 0.985 -9.465 0.164 80.141
3993.417 0.166 80.07 0.985 -9.538 0.985 -9.538 0.166 80.07
4018.375 0.167 80 0.985 -9.611 0.985 -9.611 0.167 80
4043.333 0.168 79.931 0.985 -9.684 0.985 -9.684 0.168 79.931
4068.292 0.169 79.861 0.984 -9.757 0.984 -9.757 0.169 79.861
4093.25 0.171 79.791 0.984 -9.829 0.984 -9.829 0.171 79.791
4118.208 0.172 79.721 0.984 -9.902 0.984 -9.902 0.172 79.721
4143.167 0.173 79.651 0.984 -9.974 0.984 -9.974 0.173 79.651
4168.125 0.174 79.582 0.984 -10.047 0.984 -10.047 0.174 79.582
4193.083 0.176 79.512 0.983 -10.119 0.983 -10.119 0.176 79.512
4218.042 0.177 79.443 0.983 -10.191 0.983 -10.191 0.177 79.443
4243 0.178 79.374 0.983 -10.263 0.983 -10.263 0.178 79.374
4267.958 0.179 79.304 0.983 -10.335 0.983 -10.335 0.179 79.304
4292.917 0.181 79.235 0.982 -10.407 0.982 -10.407 0.181 79.235
4317.875 0.182 79.166 0.982 -10.478 0.982 -10.478 0.182 79.166
4342.833 0.183 79.097 0.982 -10.55 0.982 -10.55 0.183 79.097
4367.792 0.184 79.028 0.982 -10.621 0.982 -10.621 0.184 79.028
4392.75 0.186 78.959 0.982 -10.693 0.982 -10.693 0.186 78.959
4417.708 0.187 78.89 0.981 -10.764 0.981 -10.764 0.187 78.89
4442.667 0.188 78.821 0.981 -10.835 0.981 -10.835 0.188 78.821
4467.625 0.189 78.752 0.981 -10.906 0.981 -10.906 0.189 78.752
4492.583 0.19 78.683 0.981 -10.977 0.981 -10.977 0.19 78.683
4517.542 0.192 78.615 0.98 -11.048 0.98 -11.048 0.192 78.615
4542.5 0.193 78.546 0.98 -11.119 0.98 -11.119 0.193 78.546
4567.458 0.194 78.478 0.98 -11.19 0.98 -11.19 0.194 78.478
4592.417 0.195 78.409 0.98 -11.26 0.98 -11.26 0.195 78.409
4617.375 0.196 78.341 0.979 -11.331 0.979 -11.331 0.196 78.341
4642.333 0.198 78.272 0.979 -11.401 0.979 -11.401 0.198 78.272
4667.292 0.199 78.204 0.979 -11.471 0.979 -11.471 0.199 78.204
4692.25 0.2 78.136 0.979 -11.542 0.979 -11.542 0.2 78.136
4717.208 0.201 78.068 0.978 -11.612 0.978 -11.612 0.201 78.068
4742.167 0.202 78 0.978 -11.682 0.978 -11.682 0.202 78
4767.125 0.204 77.932 0.978 -11.752 0.978 -11.752 0.204 77.932
4792.083 0.205 77.864 0.978 -11.822 0.978 -11.822 0.205 77.864
4817.042 0.206 77.796 0.977 -11.891 0.977 -11.891 0.206 77.796
4842 0.207 77.728 0.977 -11.961 0.977 -11.961 0.207 77.728
4866.958 0.208 77.66 0.977 -12.031 0.977 -12.031 0.208 77.66
4891.917 0.21 77.593 0.977 -12.1 0.977 -12.1 0.21 77.593
4916.875 0.211 77.525 0.976 -12.17 0.976 -12.17 0.211 77.525
4941.833 0.212 77.458 0.976 -12.239 0.976 -12.239 0.212 77.458
4966.792 0.213 77.39 0.976 -12.308 0.976 -12.308 0.213 77.39
4991.75 0.214 77.323 0.976 -12.377 0.976 -12.377 0.214 77.323
5016.708 0.216 77.255 0.975 -12.447 0.975 -12.447 0.216 77.255
5041.667 0.217 77.188 0.975 -12.516 0.975 -12.516 0.217 77.188
5066.625 0.218 77.121 0.975 -12.585 0.975 -12.585 0.218 77.121
5091.583 0.219 77.053 0.975 -12.653 0.975 -12.653 0.219 77.053
5116.542 0.22 76.986 0.974 -12.722 0.974 -12.722 0.22 76.986
5141.5 0.221 76.919 0.974 -12.791 0.974 -12.791 0.221 76.919
5166.458 0.223 76.852 0.974 -12.859 0.974 -12.859 0.223 76.852
5191.417 0.224 76.785 0.974 -12.928 0.974 -12.928 0.224 76.785
5216.375 0.225 76.718 0.973 -12.996 0.973 -12.996 0.225 76.718
5241.333 0.226 76.651 0.973 -13.065 0.973 -13.065 0.226 76.651
5266.292 0.227 76.585 0.973 -13.133 0.973 -13.133 0.227 76.585
5291.25 0.228 76.518 0.972 -13.201 0.972 -13.201 0.228 76.518
5316.208 0.23 76.451 0.972 -13.27 0.972 -13.27 0.23 76.451
5341.167 0.231 76.385 0.972 -13.338 0.972 -13.338 0.231 76.385
5366.125 0.232 76.318 0.972 -13.406 0.972 -13.406 0.232 76.318
5391.083 0.233 76.252 0.971 -13.474 0.971 -13.474 0.233 76.252
5416.042 0.234 76.185 0.971 -13.541 0.971 -13.541 0.234 76.185
5441 0.235 76.119 0.971 -13.609 0.971 -13.609 0.235 76.119
5465.958 0.236 76.053 0.971 -13.677 0.971 -13.677 0.236 76.053
5490.917 0.238 75.986 0.97 -13.744 0.97 -13.744 0.238 75.986
5515.875 0.239 75.92 0.97 -13.812 0.97 -13.812 0.239 75.92
5540.833 0.24 75.854 0.97 -13.88 0.97 -13.88 0.24 75.854
5565.792 0.241 75.788 0.969 -13.947 0.969 -13.947 0.241 75.788
5590.75 0.242 75.722 0.969 -14.014 0.969 -14.014 0.242 75.722
5615.708 0.243 75.656 0.969 -14.082 0.969 -14.082 0.243 75.656
5640.667 0.244 75.59 0.969 -14.149 0.969 -14.149 0.244 75.59
5665.625 0.246 75.524 0.968 -14.216 0.968 -14.216 0.246 75.524
5690.583 0.247 75.458 0.968 -14.283 0.968 -14.283 0.247 75.458
5715.542 0.248 75.393 0.968 -14.35 0.968 -14.35 0.248 75.393
5740.5 0.249 75.327 0.967 -14.417 0.967 -14.417 0.249 75.327
5765.458 0.25 75.261 0.967 -14.484 0.967 -14.484 0.25 75.261
5790.417 0.251 75.196 0.967 -14.55 0.967 -14.55 0.251 75.196
5815.375 0.252 75.13 0.967 -14.617 0.967 -14.617 0.252 75.13
5840.333 0.253 75.065 0.966 -14.684 0.966 -14.684 0.253 75.065
5865.292 0.255 75 0.966 -14.75 0.966 -14.75 0.255 75
5890.25 0.256 74.934 0.966 -14.817 0.966 -14.817 0.256 74.934
5915.208 0.257 74.869 0.965 -14.883 0.965 -14.883 0.257 74.869
5940.167 0.258 74.804 0.965 -14.95 0.965 -14.95 0.258 74.804
5965.125 0.259 74.739 0.965 -15.016 0.965 -15.016 0.259 74.739
5990.083 0.26 74.674 0.964 -15.082 0.964 -15.082 0.26 74.674
6015.042 0.261 74.608 0.964 -15.148 0.964 -15.148 0.261 74.608
6040 0.262 74.543 0.964 -15.214 0.964 -15.214 0.262 74.543
6064.958 0.264 74.479 0.964 -15.28 0.964 -15.28 0.264 74.479
6089.917 0.265 74.414 0.963 -15.346 0.963 -15.346 0.265 74.414
6114.875 0.266 74.349 0.963 -15.412 0.963 -15.412 0.266 74.349
6139.833 0.267 74.284 0.963 -15.478 0.963 -15.478 0.267 74.284
6164.792 0.268 74.219 0.962 -15.544 0.962 -15.544 0.268 74.219
6189.75 0.269 74.155 0.962 -15.61 0.962 -15.61 0.269 74.155
6214.708 0.27 74.09 0.962 -15.675 0.962 -15.675 0.27 74.09
6239.667 0.271 74.026 0.961 -15.741 0.961 -15.741 0.271 74.026
6264.625 0.272 73.961 0.961 -15.806 0.961 -15.806 0.272 73.961
6289.583 0.273 73.897 0.961 -15.872 0.961 -15.872 0.273 73.897
6314.542 0.275 73.832 0.96 -15.937 0.96 -15.937 0.275 73.832
6339.5 0.276 73.768 0.96 -16.002 0.96 -16.002 0.276 73.768
6364.458 0.277 73.704 0.96 -16.068 0.96 -16.068 0.277 73.704
6389.417 0.278 73.64 0.96 -16.133 0.96 -16.133 0.278 73.64
6414.375 0.279 73.575 0.959 -16.198 0.959 -16.198 0.279 73.575
6439.333 0.28 73.511 0.959 -16.263 0.959 -16.263 0.28 73.511
6464.292 0.281 73.447 0.959 -16.328 0.959 -16.328 0.281 73.447
6489.25 0.282 73.383 0.958 -16.393 0.958 -16.393 0.282 73.383
6514.208 0.283 73.319 0.958 -16.458 0.958 -16.458 0.283 73.319
6539.167 0.284 73.255 0.958 -16.523 0.958 -16.523 0.284 73.255
6564.125 0.285 73.192 0.957 -16.587 0.957 -16.587 0.285 73.192
6589.083 0.287 73.128 0.957 -16.652 0.957 -16.652 0.287 73.128
6614.042 0.288 73.064 0.957 -16.717 0.957 -16.717 0.288 73.064
6639 0.289 73 0.956 -16.781 0.956 -16.781 0.289 73
6663.958 0.29 72.937 0.956 -16.846 0.956 -16.846 0.29 72.937
6688.917 0.291 72.873 0.956 -16.91 0.956 -16.91 0.291 72.873
6713.875 0.292 72.81 0.955 -16.974 0.955 -16.974 0.292 72.81
6738.833 0.293 72.746 0.955 -17.039 0.955 -17.039 0.293 72.746
6763.792 0.294 72.683 0.955 -17.103 0.955 -17.103 0.294 72.683
6788.75 0.295 72.62 0.954 -17.167 0.954 -17.167 0.295 72.62
6813.708 0.296 72.556 0.954 -17.231 0.954 -17.231 0.296 72.556
6838.667 0.297 72.493 0.954 -17.295 0.954 -17.295 0.297 72.493
6863.625 0.298 72.43 0.953 -17.359 0.953 -17.359 0.298 72.43
6888.583 0.299 72.367 0.953 -17.423 0.953 -17.423 0.299 72.367
6913.542 0.3 72.304 0.953 -17.487 0.953 -17.487 0.3 72.304
6938.5 0.302 72.241 0.952 -17.551 0.952 -17.551 0.302 72.241
6963.458 0.303 72.178 0.952 -17.615 0.952 -17.615 0.303 72.178
6988.417 0.304 72.115 0.952 -17.678 0.952 -17.678 0.304 72.115
7013.375 0.305 72.052 0.951 -17.742 0.951 -17.742 0.305 72.052
7038.333 0.306 71.989 0.951 -17.806 0.951 -17.806 0.306 71.989
7063.292 0.307 71.927 0.951 -17.869 0.951 -17.869 0.307 71.927
7088.25 0.308 71.864 0.95 -17.932 0.95 -17.932 0.308 71.864
7113.208 0.309 71.801 0.95 -17.996 0.95 -17.996 0.309 71.801
7138.167 0.31 71.739 0.95 -18.059 0.95 -18.059 0.31 71.739
7163.125 0.311 71.676 0.949 -18.122 0.949 -18.122 0.311 71.676
7188.083 0.312 71.614 0.949 -18.186 0.949 -18.186 0.312 71.614
7213.042 0.313 71.552 0.949 -18.249 0.949 -18.249 0.313 71.552
7238 0.314 71.489 0.948 -18.312 0.948 -18.312 0.314 71.489
7262.958 0.315 71.427 0.948 -18.375 0.948 -18.375 0.315 71.427
7287.917 0.316 71.365 0.948 -18.438 0.948 -18.438 0.316 71.365
7312.875 0.317 71.303 0.947 -18.501 0.947 -18.501 0.317 71.303
7337.833 0.318 71.24 0.947 -18.564 0.947 -18.564 0.318 71.24
7362.792 0.319 71.178 0.947 -18.626 0.947 -18.626 0.319 71.178
7387.75 0.32 71.116 0.946 -18.689 0.946 -18.689 0.32 71.116
7412.708 0.321 71.054 0.946 -18.752 0.946 -18.752 0.321 71.054
7437.667 0.323 70.992 0.945 -18.814 0.945 -18.814 0.323 70.992
7462.625 0.324 70.931 0.945 -18.877 0.945 -18.877 0.324 70.931
7487.583 0.325 70.869 0.945 -18.939 0.945 -18.939 0.325 70.869
7512.542 0.326 70.807 0.944 -19.002 0.944 -19.002 0.326 70.807
7537.5 0.327 70.745 0.944 -19.064 0.944 -19.064 0.327 70.745
7562.458 0.328 70.684 0.944 -19.126 0.944 -19.126 0.328 70.684
7587.417 0.329 70.622 0.943 -19.189 0.943 -19.189 0.329 70.622
7612.375 0.33 70.561 0.943 -19.251 0.943 -19.251 0.33 70.561
7637.333 0.331 70.499 0.943 -19.313 0.943 -19.313 0.331 70.499
7662.292 0.332 70.438 0.942 -19.375 0.942 -19.375 0.332 70.438
7687.25 0.333 70.376 0.942 -19.437 0.942 -19.437 0.333 70.376
7712.208 0.334 70.315 0.942 -19.499 0.942 -19.499 0.334 70.315
7737.167 0.335 70.254 0.941 -19.561 0.941 -19.561 0.335 70.254
7762.125 0.336 70.193 0.941 -19.623 0.941 -19.623 0.336 70.193
7787.083 0.337 70.131 0.94 -19.684 0.94 -19.684 0.337 70.131
7812.042 0.338 70.07 0.94 -19.746 0.94 -19.746 0.338 70.07
7837 0.339 70.009 0.94 -19.808 0.94 -19.808 0.339 70.009
7861.958 0.34 69.948 0.939 -19.869 0.939 -19.869 0.34 69.948
7886.917 0.341 69.887 0.939 -19.931 0.939 -19.931 0.341 69.887
7911.875 0.342 69.827 0.939 -19.992 0.939 -19.992 0.342 69.827
7936.833 0.343 69.766 0.938 -20.054 0.938 -20.054 0.343 69.766
7961.792 0.344 69.705 0.938 -20.115 0.938 -20.115 0.344 69.705
7986.75 0.345 69.644 0.938 -20.177 0.938 -20.177 0.345 69.644
8011.708 0.346 69.584 0.937 -20.238 0.937 -20.238 0.346 69.584
8036.667 0.347 69.523 0.937 -20.299 0.937 -20.299 0.347 69.523
8061.625 0.348 69.463 0.936 -20.36 0.936 -20.36 0.348 69.463
8086.583 0.349 69.402 0.936 -20.421 0.936 -20.421 0.349 69.402
