! AVX Thin Film Operation		Date: April 2012 
! Description: Accu-P® Series, Thin Film, SMD, RF Capacitor
! Part Number: 08053J330FBTTR					
!	100	MHz	-	10.05	GHz			
!	Serial	Measurements						
!								
#	MHZ	S	MA	R	50			
!	S11	S21	S12	S22				
!	dB	Phase	dB	Phase	dB	Phase	dB	Phase
100	0.431	-64.387	0.902	25.505	0.902	25.505	0.431	-64.387
102.469	0.422	-64.934	0.906	24.955	0.906	24.955	0.422	-64.934
104.939	0.414	-65.46	0.91	24.426	0.91	24.426	0.414	-65.46
107.408	0.405	-65.967	0.913	23.917	0.913	23.917	0.405	-65.967
109.878	0.398	-66.454	0.917	23.427	0.917	23.427	0.398	-66.454
112.347	0.39	-66.924	0.92	22.954	0.92	22.954	0.39	-66.924
114.817	0.383	-67.377	0.923	22.499	0.923	22.499	0.383	-67.377
117.286	0.376	-67.813	0.926	22.06	0.926	22.06	0.376	-67.813
119.756	0.369	-68.234	0.929	21.636	0.929	21.636	0.369	-68.234
122.225	0.362	-68.641	0.931	21.226	0.931	21.226	0.362	-68.641
124.694	0.356	-69.034	0.934	20.831	0.934	20.831	0.356	-69.034
127.164	0.349	-69.414	0.936	20.448	0.936	20.448	0.349	-69.414
129.633	0.343	-69.781	0.938	20.078	0.938	20.078	0.343	-69.781
132.103	0.337	-70.136	0.941	19.72	0.941	19.72	0.337	-70.136
134.572	0.332	-70.48	0.943	19.374	0.943	19.374	0.332	-70.48
137.042	0.326	-70.813	0.944	19.038	0.944	19.038	0.326	-70.813
139.511	0.321	-71.135	0.946	18.713	0.946	18.713	0.321	-71.135
141.981	0.316	-71.448	0.948	18.397	0.948	18.397	0.316	-71.448
144.45	0.311	-71.751	0.95	18.091	0.95	18.091	0.311	-71.751
146.919	0.306	-72.045	0.951	17.795	0.951	17.795	0.306	-72.045
149.389	0.301	-72.33	0.953	17.506	0.953	17.506	0.301	-72.33
151.858	0.296	-72.607	0.954	17.226	0.954	17.226	0.296	-72.607
154.328	0.292	-72.876	0.956	16.955	0.956	16.955	0.292	-72.876
156.797	0.287	-73.138	0.957	16.69	0.957	16.69	0.287	-73.138
159.267	0.283	-73.392	0.958	16.433	0.958	16.433	0.283	-73.392
161.736	0.279	-73.639	0.96	16.183	0.96	16.183	0.279	-73.639
164.206	0.275	-73.88	0.961	15.94	0.961	15.94	0.275	-73.88
166.675	0.271	-74.114	0.962	15.703	0.962	15.703	0.271	-74.114
169.144	0.267	-74.341	0.963	15.472	0.963	15.472	0.267	-74.341
171.614	0.263	-74.563	0.964	15.248	0.964	15.248	0.263	-74.563
174.083	0.259	-74.779	0.965	15.029	0.965	15.029	0.259	-74.779
176.553	0.256	-74.99	0.966	14.815	0.966	14.815	0.256	-74.99
179.022	0.252	-75.195	0.967	14.607	0.967	14.607	0.252	-75.195
181.492	0.249	-75.395	0.968	14.404	0.968	14.404	0.249	-75.395
183.961	0.245	-75.59	0.969	14.206	0.969	14.206	0.245	-75.59
186.431	0.242	-75.781	0.969	14.013	0.969	14.013	0.242	-75.781
188.9	0.239	-75.966	0.97	13.824	0.97	13.824	0.239	-75.966
191.369	0.236	-76.148	0.971	13.64	0.971	13.64	0.236	-76.148
193.839	0.233	-76.325	0.972	13.46	0.972	13.46	0.233	-76.325
196.308	0.23	-76.498	0.972	13.284	0.972	13.284	0.23	-76.498
198.778	0.227	-76.667	0.973	13.112	0.973	13.112	0.227	-76.667
201.247	0.224	-76.832	0.974	12.944	0.974	12.944	0.224	-76.832
203.717	0.221	-76.994	0.974	12.779	0.974	12.779	0.221	-76.994
206.186	0.218	-77.152	0.975	12.618	0.975	12.618	0.218	-77.152
208.656	0.216	-77.306	0.976	12.461	0.976	12.461	0.216	-77.306
211.125	0.213	-77.457	0.976	12.307	0.976	12.307	0.213	-77.457
213.594	0.211	-77.605	0.977	12.156	0.977	12.156	0.211	-77.605
216.064	0.208	-77.75	0.977	12.008	0.977	12.008	0.208	-77.75
218.533	0.206	-77.891	0.978	11.863	0.978	11.863	0.206	-77.891
221.003	0.203	-78.03	0.978	11.722	0.978	11.722	0.203	-78.03
223.472	0.201	-78.166	0.979	11.583	0.979	11.583	0.201	-78.166
225.942	0.198	-78.299	0.979	11.447	0.979	11.447	0.198	-78.299
228.411	0.196	-78.429	0.98	11.313	0.98	11.313	0.196	-78.429
230.881	0.194	-78.557	0.98	11.182	0.98	11.182	0.194	-78.557
233.35	0.192	-78.682	0.981	11.054	0.981	11.054	0.192	-78.682
235.819	0.19	-78.805	0.981	10.928	0.981	10.928	0.19	-78.805
238.289	0.187	-78.925	0.981	10.805	0.981	10.805	0.187	-78.925
240.758	0.185	-79.043	0.982	10.683	0.982	10.683	0.185	-79.043
243.228	0.183	-79.159	0.982	10.564	0.982	10.564	0.183	-79.159
245.697	0.181	-79.273	0.983	10.448	0.983	10.448	0.181	-79.273
248.167	0.179	-79.385	0.983	10.333	0.983	10.333	0.179	-79.385
250.636	0.177	-79.494	0.983	10.22	0.983	10.22	0.177	-79.494
253.106	0.176	-79.601	0.984	10.11	0.984	10.11	0.176	-79.601
255.575	0.174	-79.707	0.984	10.001	0.984	10.001	0.174	-79.707
258.044	0.172	-79.811	0.984	9.894	0.984	9.894	0.172	-79.811
260.514	0.17	-79.912	0.985	9.789	0.985	9.789	0.17	-79.912
262.983	0.168	-80.012	0.985	9.686	0.985	9.686	0.168	-80.012
265.453	0.166	-80.111	0.985	9.584	0.985	9.584	0.166	-80.111
267.922	0.165	-80.207	0.985	9.484	0.985	9.484	0.165	-80.207
270.392	0.163	-80.302	0.986	9.386	0.986	9.386	0.163	-80.302
272.861	0.161	-80.395	0.986	9.29	0.986	9.29	0.161	-80.395
275.331	0.16	-80.487	0.986	9.195	0.986	9.195	0.16	-80.487
277.8	0.158	-80.577	0.987	9.101	0.987	9.101	0.158	-80.577
280.269	0.157	-80.666	0.987	9.009	0.987	9.009	0.157	-80.666
282.739	0.155	-80.753	0.987	8.919	0.987	8.919	0.155	-80.753
285.208	0.153	-80.839	0.987	8.83	0.987	8.83	0.153	-80.839
287.678	0.152	-80.923	0.987	8.742	0.987	8.742	0.152	-80.923
290.147	0.15	-81.006	0.988	8.655	0.988	8.655	0.15	-81.006
292.617	0.149	-81.088	0.988	8.57	0.988	8.57	0.149	-81.088
295.086	0.148	-81.168	0.988	8.487	0.988	8.487	0.148	-81.168
297.556	0.146	-81.247	0.988	8.404	0.988	8.404	0.146	-81.247
300.025	0.145	-81.325	0.989	8.323	0.989	8.323	0.145	-81.325
302.494	0.143	-81.402	0.989	8.242	0.989	8.242	0.143	-81.402
304.964	0.142	-81.477	0.989	8.163	0.989	8.163	0.142	-81.477
307.433	0.141	-81.552	0.989	8.086	0.989	8.086	0.141	-81.552
309.903	0.139	-81.625	0.989	8.009	0.989	8.009	0.139	-81.625
312.372	0.138	-81.697	0.99	7.933	0.99	7.933	0.138	-81.697
314.842	0.137	-81.768	0.99	7.858	0.99	7.858	0.137	-81.768
317.311	0.135	-81.838	0.99	7.785	0.99	7.785	0.135	-81.838
319.78	0.134	-81.907	0.99	7.712	0.99	7.712	0.134	-81.907
322.25	0.133	-81.975	0.99	7.641	0.99	7.641	0.133	-81.975
324.719	0.132	-82.042	0.99	7.57	0.99	7.57	0.132	-82.042
327.189	0.131	-82.108	0.991	7.5	0.991	7.5	0.131	-82.108
329.658	0.129	-82.173	0.991	7.431	0.991	7.431	0.129	-82.173
332.128	0.128	-82.238	0.991	7.364	0.991	7.364	0.128	-82.238
334.597	0.127	-82.301	0.991	7.297	0.991	7.297	0.127	-82.301
337.067	0.126	-82.363	0.991	7.23	0.991	7.23	0.126	-82.363
339.536	0.125	-82.425	0.991	7.165	0.991	7.165	0.125	-82.425
342.005	0.124	-82.486	0.991	7.101	0.991	7.101	0.124	-82.486
344.475	0.123	-82.545	0.992	7.037	0.992	7.037	0.123	-82.545
346.944	0.121	-82.605	0.992	6.974	0.992	6.974	0.121	-82.605
349.414	0.12	-82.663	0.992	6.912	0.992	6.912	0.12	-82.663
351.883	0.119	-82.72	0.992	6.851	0.992	6.851	0.119	-82.72
354.353	0.118	-82.777	0.992	6.79	0.992	6.79	0.118	-82.777
356.822	0.117	-82.833	0.992	6.73	0.992	6.73	0.117	-82.833
359.292	0.116	-82.888	0.992	6.671	0.992	6.671	0.116	-82.888
361.761	0.115	-82.943	0.992	6.613	0.992	6.613	0.115	-82.943
364.23	0.114	-82.996	0.993	6.555	0.993	6.555	0.114	-82.996
366.7	0.113	-83.049	0.993	6.498	0.993	6.498	0.113	-83.049
369.169	0.112	-83.102	0.993	6.442	0.993	6.442	0.112	-83.102
371.639	0.111	-83.154	0.993	6.386	0.993	6.386	0.111	-83.154
374.108	0.11	-83.205	0.993	6.331	0.993	6.331	0.11	-83.205
376.578	0.109	-83.255	0.993	6.276	0.993	6.276	0.109	-83.255
379.047	0.108	-83.305	0.993	6.223	0.993	6.223	0.108	-83.305
381.517	0.107	-83.354	0.993	6.169	0.993	6.169	0.107	-83.354
383.986	0.107	-83.403	0.993	6.117	0.993	6.117	0.107	-83.403
386.455	0.106	-83.45	0.994	6.065	0.994	6.065	0.106	-83.45
388.925	0.105	-83.498	0.994	6.013	0.994	6.013	0.105	-83.498
391.394	0.104	-83.545	0.994	5.962	0.994	5.962	0.104	-83.545
393.864	0.103	-83.591	0.994	5.912	0.994	5.912	0.103	-83.591
396.333	0.102	-83.636	0.994	5.862	0.994	5.862	0.102	-83.636
398.803	0.101	-83.681	0.994	5.812	0.994	5.812	0.101	-83.681
401.272	0.1	-83.726	0.994	5.764	0.994	5.764	0.1	-83.726
403.742	0.1	-83.77	0.994	5.715	0.994	5.715	0.1	-83.77
406.211	0.099	-83.813	0.994	5.667	0.994	5.667	0.099	-83.813
408.68	0.098	-83.856	0.994	5.62	0.994	5.62	0.098	-83.856
411.15	0.097	-83.899	0.994	5.573	0.994	5.573	0.097	-83.899
413.619	0.096	-83.941	0.994	5.527	0.994	5.527	0.096	-83.941
416.089	0.096	-83.982	0.995	5.481	0.995	5.481	0.096	-83.982
418.558	0.095	-84.023	0.995	5.435	0.995	5.435	0.095	-84.023
421.028	0.094	-84.064	0.995	5.39	0.995	5.39	0.094	-84.064
423.497	0.093	-84.104	0.995	5.346	0.995	5.346	0.093	-84.104
425.967	0.092	-84.143	0.995	5.301	0.995	5.301	0.092	-84.143
428.436	0.092	-84.182	0.995	5.258	0.995	5.258	0.092	-84.182
430.905	0.091	-84.221	0.995	5.214	0.995	5.214	0.091	-84.221
433.375	0.09	-84.259	0.995	5.171	0.995	5.171	0.09	-84.259
435.844	0.089	-84.297	0.995	5.129	0.995	5.129	0.089	-84.297
438.314	0.089	-84.334	0.995	5.087	0.995	5.087	0.089	-84.334
440.783	0.088	-84.371	0.995	5.045	0.995	5.045	0.088	-84.371
443.253	0.087	-84.408	0.995	5.004	0.995	5.004	0.087	-84.408
445.722	0.087	-84.444	0.995	4.963	0.995	4.963	0.087	-84.444
448.192	0.086	-84.479	0.995	4.922	0.995	4.922	0.086	-84.479
450.661	0.085	-84.515	0.995	4.882	0.995	4.882	0.085	-84.515
453.13	0.084	-84.55	0.996	4.842	0.996	4.842	0.084	-84.55
455.6	0.084	-84.584	0.996	4.803	0.996	4.803	0.084	-84.584
458.069	0.083	-84.618	0.996	4.764	0.996	4.764	0.083	-84.618
460.539	0.082	-84.652	0.996	4.725	0.996	4.725	0.082	-84.652
463.008	0.082	-84.685	0.996	4.686	0.996	4.686	0.082	-84.685
465.478	0.081	-84.718	0.996	4.648	0.996	4.648	0.081	-84.718
467.947	0.08	-84.751	0.996	4.61	0.996	4.61	0.08	-84.751
470.417	0.08	-84.783	0.996	4.573	0.996	4.573	0.08	-84.783
472.886	0.079	-84.815	0.996	4.536	0.996	4.536	0.079	-84.815
475.355	0.078	-84.846	0.996	4.499	0.996	4.499	0.078	-84.846
477.825	0.078	-84.877	0.996	4.462	0.996	4.462	0.078	-84.877
480.294	0.077	-84.908	0.996	4.426	0.996	4.426	0.077	-84.908
482.764	0.077	-84.939	0.996	4.39	0.996	4.39	0.077	-84.939
485.233	0.076	-84.969	0.996	4.355	0.996	4.355	0.076	-84.969
487.703	0.075	-84.999	0.996	4.319	0.996	4.319	0.075	-84.999
490.172	0.075	-85.028	0.996	4.284	0.996	4.284	0.075	-85.028
492.642	0.074	-85.057	0.996	4.249	0.996	4.249	0.074	-85.057
495.111	0.074	-85.086	0.996	4.215	0.996	4.215	0.074	-85.086
497.58	0.073	-85.115	0.996	4.181	0.996	4.181	0.073	-85.115
500.05	0.072	-85.143	0.996	4.147	0.996	4.147	0.072	-85.143
502.519	0.072	-85.171	0.997	4.113	0.997	4.113	0.072	-85.171
504.989	0.071	-85.198	0.997	4.079	0.997	4.079	0.071	-85.198
507.458	0.071	-85.225	0.997	4.046	0.997	4.046	0.071	-85.225
509.928	0.07	-85.252	0.997	4.013	0.997	4.013	0.07	-85.252
512.397	0.069	-85.279	0.997	3.981	0.997	3.981	0.069	-85.279
514.867	0.069	-85.305	0.997	3.948	0.997	3.948	0.069	-85.305
517.336	0.068	-85.331	0.997	3.916	0.997	3.916	0.068	-85.331
519.805	0.068	-85.357	0.997	3.884	0.997	3.884	0.068	-85.357
522.275	0.067	-85.383	0.997	3.852	0.997	3.852	0.067	-85.383
524.744	0.067	-85.408	0.997	3.821	0.997	3.821	0.067	-85.408
527.214	0.066	-85.433	0.997	3.79	0.997	3.79	0.066	-85.433
529.683	0.066	-85.457	0.997	3.759	0.997	3.759	0.066	-85.457
532.153	0.065	-85.481	0.997	3.728	0.997	3.728	0.065	-85.481
534.622	0.064	-85.505	0.997	3.697	0.997	3.697	0.064	-85.505
537.092	0.064	-85.529	0.997	3.667	0.997	3.667	0.064	-85.529
539.561	0.063	-85.553	0.997	3.637	0.997	3.637	0.063	-85.553
542.03	0.063	-85.576	0.997	3.607	0.997	3.607	0.063	-85.576
544.5	0.062	-85.599	0.997	3.577	0.997	3.577	0.062	-85.599
546.969	0.062	-85.621	0.997	3.547	0.997	3.547	0.062	-85.621
549.439	0.061	-85.644	0.997	3.518	0.997	3.518	0.061	-85.644
551.908	0.061	-85.666	0.997	3.489	0.997	3.489	0.061	-85.666
554.378	0.06	-85.688	0.997	3.46	0.997	3.46	0.06	-85.688
556.847	0.06	-85.709	0.997	3.431	0.997	3.431	0.06	-85.709
559.317	0.059	-85.731	0.997	3.403	0.997	3.403	0.059	-85.731
561.786	0.059	-85.752	0.997	3.374	0.997	3.374	0.059	-85.752
564.255	0.058	-85.773	0.997	3.346	0.997	3.346	0.058	-85.773
566.725	0.058	-85.793	0.997	3.318	0.997	3.318	0.058	-85.793
569.194	0.057	-85.813	0.997	3.29	0.997	3.29	0.057	-85.813
571.664	0.057	-85.833	0.997	3.263	0.997	3.263	0.057	-85.833
574.133	0.056	-85.853	0.998	3.235	0.998	3.235	0.056	-85.853
576.603	0.056	-85.873	0.998	3.208	0.998	3.208	0.056	-85.873
579.072	0.055	-85.892	0.998	3.181	0.998	3.181	0.055	-85.892
581.542	0.055	-85.911	0.998	3.154	0.998	3.154	0.055	-85.911
584.011	0.055	-85.93	0.998	3.127	0.998	3.127	0.055	-85.93
586.48	0.054	-85.948	0.998	3.101	0.998	3.101	0.054	-85.948
588.95	0.054	-85.966	0.998	3.074	0.998	3.074	0.054	-85.966
591.419	0.053	-85.984	0.998	3.048	0.998	3.048	0.053	-85.984
593.889	0.053	-86.002	0.998	3.022	0.998	3.022	0.053	-86.002
596.358	0.052	-86.019	0.998	2.996	0.998	2.996	0.052	-86.019
598.828	0.052	-86.037	0.998	2.97	0.998	2.97	0.052	-86.037
601.297	0.051	-86.054	0.998	2.945	0.998	2.945	0.051	-86.054
603.767	0.051	-86.07	0.998	2.919	0.998	2.919	0.051	-86.07
606.236	0.05	-86.087	0.998	2.894	0.998	2.894	0.05	-86.087
608.705	0.05	-86.103	0.998	2.869	0.998	2.869	0.05	-86.103
611.175	0.05	-86.119	0.998	2.844	0.998	2.844	0.05	-86.119
613.644	0.049	-86.135	0.998	2.819	0.998	2.819	0.049	-86.135
616.114	0.049	-86.15	0.998	2.794	0.998	2.794	0.049	-86.15
618.583	0.048	-86.165	0.998	2.77	0.998	2.77	0.048	-86.165
621.053	0.048	-86.18	0.998	2.745	0.998	2.745	0.048	-86.18
623.522	0.047	-86.195	0.998	2.721	0.998	2.721	0.047	-86.195
625.992	0.047	-86.209	0.998	2.697	0.998	2.697	0.047	-86.209
628.461	0.047	-86.224	0.998	2.673	0.998	2.673	0.047	-86.224
630.93	0.046	-86.238	0.998	2.649	0.998	2.649	0.046	-86.238
633.4	0.046	-86.251	0.998	2.625	0.998	2.625	0.046	-86.251
635.869	0.045	-86.265	0.998	2.601	0.998	2.601	0.045	-86.265
638.339	0.045	-86.278	0.998	2.578	0.998	2.578	0.045	-86.278
640.808	0.045	-86.291	0.998	2.555	0.998	2.555	0.045	-86.291
643.278	0.044	-86.303	0.998	2.531	0.998	2.531	0.044	-86.303
645.747	0.044	-86.316	0.998	2.508	0.998	2.508	0.044	-86.316
648.217	0.043	-86.328	0.998	2.485	0.998	2.485	0.043	-86.328
650.686	0.043	-86.34	0.998	2.462	0.998	2.462	0.043	-86.34
653.155	0.043	-86.351	0.998	2.44	0.998	2.44	0.043	-86.351
655.625	0.042	-86.362	0.998	2.417	0.998	2.417	0.042	-86.362
658.094	0.042	-86.374	0.998	2.394	0.998	2.394	0.042	-86.374
660.564	0.041	-86.384	0.998	2.372	0.998	2.372	0.041	-86.384
663.033	0.041	-86.395	0.998	2.35	0.998	2.35	0.041	-86.395
665.503	0.041	-86.405	0.998	2.328	0.998	2.328	0.041	-86.405
667.972	0.04	-86.415	0.998	2.306	0.998	2.306	0.04	-86.415
670.442	0.04	-86.425	0.998	2.284	0.998	2.284	0.04	-86.425
672.911	0.039	-86.434	0.998	2.262	0.998	2.262	0.039	-86.434
675.38	0.039	-86.443	0.998	2.24	0.998	2.24	0.039	-86.443
677.85	0.039	-86.452	0.998	2.218	0.998	2.218	0.039	-86.452
680.319	0.038	-86.46	0.998	2.197	0.998	2.197	0.038	-86.46
682.789	0.038	-86.468	0.998	2.176	0.998	2.176	0.038	-86.468
685.258	0.038	-86.476	0.998	2.154	0.998	2.154	0.038	-86.476
687.728	0.037	-86.484	0.998	2.133	0.998	2.133	0.037	-86.484
690.197	0.037	-86.491	0.998	2.112	0.998	2.112	0.037	-86.491
692.667	0.036	-86.498	0.998	2.091	0.998	2.091	0.036	-86.498
695.136	0.036	-86.505	0.998	2.07	0.998	2.07	0.036	-86.505
697.605	0.036	-86.511	0.998	2.049	0.998	2.049	0.036	-86.511
700.075	0.035	-86.517	0.998	2.029	0.998	2.029	0.035	-86.517
702.544	0.035	-86.523	0.998	2.008	0.998	2.008	0.035	-86.523
705.014	0.035	-86.528	0.998	1.988	0.998	1.988	0.035	-86.528
707.483	0.034	-86.533	0.999	1.967	0.999	1.967	0.034	-86.533
709.953	0.034	-86.538	0.999	1.947	0.999	1.947	0.034	-86.538
712.422	0.034	-86.542	0.999	1.927	0.999	1.927	0.034	-86.542
714.891	0.033	-86.546	0.999	1.907	0.999	1.907	0.033	-86.546
717.361	0.033	-86.55	0.999	1.887	0.999	1.887	0.033	-86.55
719.83	0.033	-86.553	0.999	1.867	0.999	1.867	0.033	-86.553
722.3	0.032	-86.556	0.999	1.847	0.999	1.847	0.032	-86.556
724.769	0.032	-86.558	0.999	1.827	0.999	1.827	0.032	-86.558
727.239	0.032	-86.56	0.999	1.807	0.999	1.807	0.032	-86.56
729.708	0.031	-86.562	0.999	1.788	0.999	1.788	0.031	-86.562
732.178	0.031	-86.563	0.999	1.768	0.999	1.768	0.031	-86.563
734.647	0.031	-86.564	0.999	1.749	0.999	1.749	0.031	-86.564
737.116	0.03	-86.565	0.999	1.73	0.999	1.73	0.03	-86.565
739.586	0.03	-86.565	0.999	1.71	0.999	1.71	0.03	-86.565
742.055	0.03	-86.564	0.999	1.691	0.999	1.691	0.03	-86.564
744.525	0.029	-86.563	0.999	1.672	0.999	1.672	0.029	-86.563
746.994	0.029	-86.562	0.999	1.653	0.999	1.653	0.029	-86.562
749.464	0.029	-86.56	0.999	1.634	0.999	1.634	0.029	-86.56
751.933	0.028	-86.558	0.999	1.615	0.999	1.615	0.028	-86.558
754.403	0.028	-86.555	0.999	1.597	0.999	1.597	0.028	-86.555
756.872	0.028	-86.552	0.999	1.578	0.999	1.578	0.028	-86.552
759.341	0.027	-86.549	0.999	1.559	0.999	1.559	0.027	-86.549
761.811	0.027	-86.544	0.999	1.541	0.999	1.541	0.027	-86.544
764.28	0.027	-86.54	0.999	1.522	0.999	1.522	0.027	-86.54
766.75	0.026	-86.534	0.999	1.504	0.999	1.504	0.026	-86.534
769.219	0.026	-86.528	0.999	1.486	0.999	1.486	0.026	-86.528
771.689	0.026	-86.522	0.999	1.467	0.999	1.467	0.026	-86.522
774.158	0.025	-86.515	0.999	1.449	0.999	1.449	0.025	-86.515
776.628	0.025	-86.507	0.999	1.431	0.999	1.431	0.025	-86.507
779.097	0.025	-86.499	0.999	1.413	0.999	1.413	0.025	-86.499
781.566	0.024	-86.49	0.999	1.395	0.999	1.395	0.024	-86.49
784.036	0.024	-86.481	0.999	1.377	0.999	1.377	0.024	-86.481
786.505	0.024	-86.47	0.999	1.36	0.999	1.36	0.024	-86.47
788.975	0.023	-86.46	0.999	1.342	0.999	1.342	0.023	-86.46
791.444	0.023	-86.448	0.999	1.324	0.999	1.324	0.023	-86.448
793.914	0.023	-86.435	0.999	1.307	0.999	1.307	0.023	-86.435
796.383	0.023	-86.422	0.999	1.289	0.999	1.289	0.023	-86.422
798.853	0.022	-86.408	0.999	1.272	0.999	1.272	0.022	-86.408
801.322	0.022	-86.394	0.999	1.254	0.999	1.254	0.022	-86.394
803.791	0.022	-86.378	0.999	1.237	0.999	1.237	0.022	-86.378
806.261	0.021	-86.362	0.999	1.22	0.999	1.22	0.021	-86.362
808.73	0.021	-86.344	0.999	1.202	0.999	1.202	0.021	-86.344
811.2	0.021	-86.326	0.999	1.185	0.999	1.185	0.021	-86.326
813.669	0.02	-86.307	0.999	1.168	0.999	1.168	0.02	-86.307
816.139	0.02	-86.286	0.999	1.151	0.999	1.151	0.02	-86.286
818.608	0.02	-86.265	0.999	1.134	0.999	1.134	0.02	-86.265
821.078	0.02	-86.243	0.999	1.117	0.999	1.117	0.02	-86.243
823.547	0.019	-86.219	0.999	1.1	0.999	1.1	0.019	-86.219
826.016	0.019	-86.195	0.999	1.084	0.999	1.084	0.019	-86.195
828.486	0.019	-86.169	0.999	1.067	0.999	1.067	0.019	-86.169
830.955	0.018	-86.142	0.999	1.05	0.999	1.05	0.018	-86.142
833.425	0.018	-86.113	0.999	1.034	0.999	1.034	0.018	-86.113
835.894	0.018	-86.083	0.999	1.017	0.999	1.017	0.018	-86.083
838.364	0.017	-86.052	0.999	1.001	0.999	1.001	0.017	-86.052
840.833	0.017	-86.02	0.999	0.984	0.999	0.984	0.017	-86.02
843.303	0.017	-85.985	0.999	0.968	0.999	0.968	0.017	-85.985
845.772	0.017	-85.95	0.999	0.952	0.999	0.952	0.017	-85.95
848.241	0.016	-85.912	0.999	0.935	0.999	0.935	0.016	-85.912
850.711	0.016	-85.873	0.999	0.919	0.999	0.919	0.016	-85.873
853.18	0.016	-85.832	0.999	0.903	0.999	0.903	0.016	-85.832
855.65	0.016	-85.789	0.999	0.887	0.999	0.887	0.016	-85.789
858.119	0.015	-85.744	0.999	0.871	0.999	0.871	0.015	-85.744
860.589	0.015	-85.697	0.999	0.855	0.999	0.855	0.015	-85.697
863.058	0.015	-85.647	0.999	0.839	0.999	0.839	0.015	-85.647
865.528	0.014	-85.595	0.999	0.823	0.999	0.823	0.014	-85.595
867.997	0.014	-85.541	0.999	0.807	0.999	0.807	0.014	-85.541
870.466	0.014	-85.484	0.999	0.792	0.999	0.792	0.014	-85.484
872.936	0.014	-85.425	0.999	0.776	0.999	0.776	0.014	-85.425
875.405	0.013	-85.363	0.999	0.76	0.999	0.76	0.013	-85.363
877.875	0.013	-85.297	0.999	0.745	0.999	0.745	0.013	-85.297
880.344	0.013	-85.228	0.999	0.729	0.999	0.729	0.013	-85.228
882.814	0.012	-85.156	0.999	0.713	0.999	0.713	0.012	-85.156
885.283	0.012	-85.08	0.999	0.698	0.999	0.698	0.012	-85.08
887.753	0.012	-85.001	0.999	0.683	0.999	0.683	0.012	-85.001
890.222	0.012	-84.917	0.999	0.667	0.999	0.667	0.012	-84.917
892.691	0.011	-84.829	0.999	0.652	0.999	0.652	0.011	-84.829
895.161	0.011	-84.736	0.999	0.637	0.999	0.637	0.011	-84.736
897.63	0.011	-84.639	0.999	0.621	0.999	0.621	0.011	-84.639
900.1	0.011	-84.536	0.999	0.606	0.999	0.606	0.011	-84.536
902.569	0.01	-84.427	0.999	0.591	0.999	0.591	0.01	-84.427
905.039	0.01	-84.312	0.999	0.576	0.999	0.576	0.01	-84.312
907.508	9.83E-03	-84.191	0.999	0.561	0.999	0.561	9.83E-03	-84.191
909.978	9.57E-03	-84.062	0.999	0.546	0.999	0.546	9.57E-03	-84.062
912.447	9.31E-03	-83.926	0.999	0.531	0.999	0.531	9.31E-03	-83.926
