! AVX Thin Film Operation		Date: April 2012 
! Description: Accu-P® Series, Thin Film, SMD, RF Capacitor
! Part Number: 08051K130FBTTR					
!	50	MHz	-	20.05	GHz			
!	Serial	Measurements						
!								
#	MHZ	S	MA	R	50			
!	S11	S21	S12	S22				
!	dB	Phase	dB	Phase	dB	Phase	dB	Phase
50 0.925 -22.222 0.378 67.689 0.378 67.689 0.925 -22.222
100 0.772 -39.304 0.633 50.577 0.633 50.577 0.772 -39.304
150 0.628 -50.934 0.776 38.914 0.776 38.914 0.628 -50.934
200 0.515 -58.791 0.855 31.025 0.855 31.025 0.515 -58.791
250 0.43 -64.283 0.901 25.498 0.901 25.498 0.43 -64.283
300 0.366 -68.285 0.929 21.461 0.929 21.461 0.366 -68.285
350 0.316 -71.314 0.947 18.395 0.947 18.395 0.316 -71.314
400 0.275 -73.681 0.96 15.99 0.96 15.99 0.275 -73.681
450 0.243 -75.582 0.969 14.049 0.969 14.049 0.243 -75.582
500 0.216 -77.142 0.975 12.446 0.975 12.446 0.216 -77.142
550 0.192 -78.447 0.98 11.095 0.98 11.095 0.192 -78.447
600 0.173 -79.554 0.983 9.938 0.983 9.938 0.173 -79.554
650 0.155 -80.507 0.986 8.932 0.986 8.932 0.155 -80.507
700 0.14 -81.335 0.989 8.046 0.989 8.046 0.14 -81.335
750 0.126 -82.06 0.99 7.257 0.99 7.257 0.126 -82.06
800 0.114 -82.698 0.992 6.548 0.992 6.548 0.114 -82.698
850 0.103 -83.262 0.993 5.904 0.993 5.904 0.103 -83.262
900 0.093 -83.761 0.994 5.316 0.994 5.316 0.093 -83.761
950 0.083 -84.201 0.995 4.774 0.995 4.774 0.083 -84.201
1000 0.075 -84.585 0.996 4.273 0.996 4.273 0.075 -84.585
1050 0.066 -84.914 0.996 3.805 0.996 3.805 0.066 -84.914
1100 0.059 -85.188 0.997 3.368 0.997 3.368 0.059 -85.188
1150 0.052 -85.401 0.997 2.956 0.997 2.956 0.052 -85.401
1200 0.045 -85.543 0.998 2.567 0.998 2.567 0.045 -85.543
1250 0.038 -85.598 0.998 2.198 0.998 2.198 0.038 -85.598
1300 0.032 -85.532 0.998 1.847 0.998 1.847 0.032 -85.532
1350 0.026 -85.289 0.998 1.511 0.998 1.511 0.026 -85.289
1400 0.021 -84.751 0.998 1.19 0.998 1.19 0.021 -84.751
1450 0.015 -83.648 0.998 0.881 0.998 0.881 0.015 -83.648
1500 0.01 -81.196 0.998 0.584 0.998 0.584 0.01 -81.196
1550 5.396e-3 -73.864 0.999 0.297 0.999 0.297 5.396e-3 -73.864
1600 1.514e-3 -13.34 0.999 0.02 0.999 0.02 1.514e-3 -13.34
1650 4.585e-3 71.016 0.999 -0.249 0.999 -0.249 4.585e-3 71.016
1700 9.019e-3 80.091 0.998 -0.51 0.998 -0.51 9.019e-3 80.091
1750 0.013 82.929 0.998 -0.764 0.998 -0.764 0.013 82.929
1800 0.018 84.215 0.998 -1.011 0.998 -1.011 0.018 84.215
1850 0.022 84.889 0.998 -1.252 0.998 -1.252 0.022 84.889
1900 0.026 85.262 0.998 -1.488 0.998 -1.488 0.026 85.262
1950 0.03 85.466 0.998 -1.718 0.998 -1.718 0.03 85.466
2000 0.034 85.565 0.998 -1.944 0.998 -1.944 0.034 85.565
2050 0.038 85.597 0.998 -2.165 0.998 -2.165 0.038 85.597
2100 0.042 85.583 0.998 -2.383 0.998 -2.383 0.042 85.583
2150 0.045 85.535 0.997 -2.596 0.997 -2.596 0.045 85.535
2200 0.049 85.464 0.997 -2.806 0.997 -2.806 0.049 85.464
2250 0.053 85.375 0.997 -3.012 0.997 -3.012 0.053 85.375
2300 0.056 85.273 0.997 -3.215 0.997 -3.215 0.056 85.273
2350 0.06 85.16 0.997 -3.416 0.997 -3.416 0.06 85.16
2400 0.063 85.039 0.997 -3.613 0.997 -3.613 0.063 85.039
2450 0.066 84.913 0.996 -3.808 0.996 -3.808 0.066 84.913
2500 0.07 84.781 0.996 -4 0.996 -4 0.07 84.781
2550 0.073 84.645 0.996 -4.191 0.996 -4.191 0.073 84.645
2600 0.076 84.506 0.996 -4.379 0.996 -4.379 0.076 84.506
2650 0.08 84.365 0.995 -4.564 0.995 -4.564 0.08 84.365
2700 0.083 84.221 0.995 -4.748 0.995 -4.748 0.083 84.221
2750 0.086 84.077 0.995 -4.93 0.995 -4.93 0.086 84.077
2800 0.089 83.931 0.995 -5.111 0.995 -5.111 0.089 83.931
2850 0.092 83.783 0.994 -5.289 0.994 -5.289 0.092 83.783
2900 0.095 83.636 0.994 -5.466 0.994 -5.466 0.095 83.636
2950 0.098 83.487 0.994 -5.642 0.994 -5.642 0.098 83.487
3000 0.101 83.339 0.993 -5.816 0.993 -5.816 0.101 83.339
3050 0.104 83.19 0.993 -5.988 0.993 -5.988 0.104 83.19
3100 0.107 83.041 0.993 -6.159 0.993 -6.159 0.107 83.041
3150 0.11 82.891 0.992 -6.329 0.992 -6.329 0.11 82.891
3200 0.113 82.742 0.992 -6.498 0.992 -6.498 0.113 82.742
3250 0.116 82.593 0.992 -6.666 0.992 -6.666 0.116 82.593
3300 0.119 82.444 0.991 -6.832 0.991 -6.832 0.119 82.444
3350 0.122 82.295 0.991 -6.998 0.991 -6.998 0.122 82.295
3400 0.125 82.146 0.991 -7.162 0.991 -7.162 0.125 82.146
3450 0.128 81.997 0.99 -7.325 0.99 -7.325 0.128 81.997
3500 0.13 81.849 0.99 -7.488 0.99 -7.488 0.13 81.849
3550 0.133 81.701 0.99 -7.649 0.99 -7.649 0.133 81.701
3600 0.136 81.553 0.989 -7.81 0.989 -7.81 0.136 81.553
3650 0.139 81.405 0.989 -7.97 0.989 -7.97 0.139 81.405
3700 0.141 81.258 0.988 -8.128 0.988 -8.128 0.141 81.258
3750 0.144 81.111 0.988 -8.287 0.988 -8.287 0.144 81.111
3800 0.147 80.964 0.988 -8.444 0.988 -8.444 0.147 80.964
3850 0.15 80.818 0.987 -8.6 0.987 -8.6 0.15 80.818
3900 0.152 80.672 0.987 -8.756 0.987 -8.756 0.152 80.672
3950 0.155 80.526 0.986 -8.911 0.986 -8.911 0.155 80.526
4000 0.158 80.381 0.986 -9.066 0.986 -9.066 0.158 80.381
4050 0.16 80.236 0.986 -9.22 0.986 -9.22 0.16 80.236
4100 0.163 80.091 0.985 -9.373 0.985 -9.373 0.163 80.091
4150 0.165 79.947 0.985 -9.525 0.985 -9.525 0.165 79.947
4200 0.168 79.802 0.984 -9.677 0.984 -9.677 0.168 79.802
4250 0.171 79.659 0.984 -9.828 0.984 -9.828 0.171 79.659
4300 0.173 79.515 0.983 -9.979 0.983 -9.979 0.173 79.515
4350 0.176 79.372 0.983 -10.129 0.983 -10.129 0.176 79.372
4400 0.178 79.229 0.982 -10.279 0.982 -10.279 0.178 79.229
4450 0.181 79.087 0.982 -10.428 0.982 -10.428 0.181 79.087
4500 0.184 78.944 0.981 -10.577 0.981 -10.577 0.184 78.944
4550 0.186 78.803 0.981 -10.725 0.981 -10.725 0.186 78.803
4600 0.189 78.661 0.981 -10.872 0.981 -10.872 0.189 78.661
4650 0.191 78.52 0.98 -11.019 0.98 -11.019 0.191 78.52
4700 0.194 78.379 0.98 -11.166 0.98 -11.166 0.194 78.379
4750 0.196 78.238 0.979 -11.312 0.979 -11.312 0.196 78.238
4800 0.199 78.098 0.979 -11.457 0.979 -11.457 0.199 78.098
4850 0.201 77.958 0.978 -11.602 0.978 -11.602 0.201 77.958
4900 0.204 77.818 0.978 -11.747 0.978 -11.747 0.204 77.818
4950 0.206 77.679 0.977 -11.891 0.977 -11.891 0.206 77.679
5000 0.209 77.54 0.976 -12.035 0.976 -12.035 0.209 77.54
5050 0.211 77.401 0.976 -12.179 0.976 -12.179 0.211 77.401
5100 0.213 77.262 0.975 -12.322 0.975 -12.322 0.213 77.262
5150 0.216 77.124 0.975 -12.464 0.975 -12.464 0.216 77.124
5200 0.218 76.986 0.974 -12.606 0.974 -12.606 0.218 76.986
5250 0.221 76.849 0.974 -12.748 0.974 -12.748 0.221 76.849
5300 0.223 76.711 0.973 -12.889 0.973 -12.889 0.223 76.711
5350 0.225 76.574 0.973 -13.03 0.973 -13.03 0.225 76.574
5400 0.228 76.437 0.972 -13.171 0.972 -13.171 0.228 76.437
5450 0.23 76.301 0.972 -13.311 0.972 -13.311 0.23 76.301
5500 0.233 76.165 0.971 -13.451 0.971 -13.451 0.233 76.165
5550 0.235 76.029 0.97 -13.591 0.97 -13.591 0.235 76.029
5600 0.237 75.893 0.97 -13.73 0.97 -13.73 0.237 75.893
5650 0.24 75.758 0.969 -13.869 0.969 -13.869 0.24 75.758
5700 0.242 75.622 0.969 -14.007 0.969 -14.007 0.242 75.622
5750 0.244 75.488 0.968 -14.145 0.968 -14.145 0.244 75.488
5800 0.247 75.353 0.968 -14.283 0.968 -14.283 0.247 75.353
5850 0.249 75.219 0.967 -14.421 0.967 -14.421 0.249 75.219
5900 0.251 75.085 0.966 -14.558 0.966 -14.558 0.251 75.085
5950 0.254 74.951 0.966 -14.694 0.966 -14.694 0.254 74.951
6000 0.256 74.817 0.965 -14.831 0.965 -14.831 0.256 74.817
6050 0.258 74.684 0.965 -14.967 0.965 -14.967 0.258 74.684
6100 0.261 74.551 0.964 -15.103 0.964 -15.103 0.261 74.551
6150 0.263 74.418 0.963 -15.238 0.963 -15.238 0.263 74.418
6200 0.265 74.286 0.963 -15.374 0.963 -15.374 0.265 74.286
6250 0.267 74.154 0.962 -15.508 0.962 -15.508 0.267 74.154
6300 0.27 74.022 0.961 -15.643 0.961 -15.643 0.27 74.022
6350 0.272 73.89 0.961 -15.777 0.961 -15.777 0.272 73.89
6400 0.274 73.759 0.96 -15.911 0.96 -15.911 0.274 73.759
6450 0.276 73.627 0.959 -16.045 0.959 -16.045 0.276 73.627
6500 0.279 73.496 0.959 -16.178 0.959 -16.178 0.279 73.496
6550 0.281 73.366 0.958 -16.311 0.958 -16.311 0.281 73.366
6600 0.283 73.235 0.958 -16.444 0.958 -16.444 0.283 73.235
6650 0.285 73.105 0.957 -16.576 0.957 -16.576 0.285 73.105
6700 0.288 72.975 0.956 -16.709 0.956 -16.709 0.288 72.975
6750 0.29 72.846 0.956 -16.84 0.956 -16.84 0.29 72.846
6800 0.292 72.716 0.955 -16.972 0.955 -16.972 0.292 72.716
6850 0.294 72.587 0.954 -17.103 0.954 -17.103 0.294 72.587
6900 0.296 72.458 0.954 -17.234 0.954 -17.234 0.296 72.458
6950 0.298 72.329 0.953 -17.365 0.953 -17.365 0.298 72.329
7000 0.301 72.201 0.952 -17.495 0.952 -17.495 0.301 72.201
7050 0.303 72.073 0.951 -17.626 0.951 -17.626 0.303 72.073
7100 0.305 71.945 0.951 -17.756 0.951 -17.756 0.305 71.945
7150 0.307 71.817 0.95 -17.885 0.95 -17.885 0.307 71.817
7200 0.309 71.69 0.949 -18.014 0.949 -18.014 0.309 71.69
7250 0.311 71.563 0.949 -18.144 0.949 -18.144 0.311 71.563
7300 0.314 71.436 0.948 -18.272 0.948 -18.272 0.314 71.436
7350 0.316 71.309 0.947 -18.401 0.947 -18.401 0.316 71.309
7400 0.318 71.182 0.947 -18.529 0.947 -18.529 0.318 71.182
7450 0.32 71.056 0.946 -18.657 0.946 -18.657 0.32 71.056
7500 0.322 70.93 0.945 -18.785 0.945 -18.785 0.322 70.93
7550 0.324 70.804 0.944 -18.912 0.944 -18.912 0.324 70.804
7600 0.326 70.679 0.944 -19.039 0.944 -19.039 0.326 70.679
7650 0.328 70.554 0.943 -19.166 0.943 -19.166 0.328 70.554
7700 0.33 70.429 0.942 -19.293 0.942 -19.293 0.33 70.429
7750 0.332 70.304 0.942 -19.419 0.942 -19.419 0.332 70.304
7800 0.335 70.179 0.941 -19.545 0.941 -19.545 0.335 70.179
7850 0.337 70.055 0.94 -19.671 0.94 -19.671 0.337 70.055
7900 0.339 69.931 0.939 -19.797 0.939 -19.797 0.339 69.931
7950 0.341 69.807 0.939 -19.922 0.939 -19.922 0.341 69.807
8000 0.343 69.684 0.938 -20.047 0.938 -20.047 0.343 69.684
8050 0.345 69.56 0.937 -20.172 0.937 -20.172 0.345 69.56
8100 0.347 69.437 0.936 -20.296 0.936 -20.296 0.347 69.437
8150 0.349 69.314 0.936 -20.421 0.936 -20.421 0.349 69.314
8200 0.351 69.192 0.935 -20.545 0.935 -20.545 0.351 69.192
8250 0.353 69.069 0.934 -20.669 0.934 -20.669 0.353 69.069
8300 0.355 68.947 0.933 -20.792 0.933 -20.792 0.355 68.947
8350 0.357 68.825 0.932 -20.915 0.932 -20.915 0.357 68.825
8400 0.359 68.703 0.932 -21.038 0.932 -21.038 0.359 68.703
8450 0.361 68.582 0.931 -21.161 0.931 -21.161 0.361 68.582
8500 0.363 68.461 0.93 -21.284 0.93 -21.284 0.363 68.461
8550 0.365 68.34 0.929 -21.406 0.929 -21.406 0.365 68.34
8600 0.367 68.219 0.929 -21.528 0.929 -21.528 0.367 68.219
8650 0.369 68.099 0.928 -21.65 0.928 -21.65 0.369 68.099
8700 0.371 67.978 0.927 -21.771 0.927 -21.771 0.371 67.978
8750 0.373 67.858 0.926 -21.892 0.926 -21.892 0.373 67.858
8800 0.375 67.739 0.925 -22.013 0.925 -22.013 0.375 67.739
8850 0.377 67.619 0.925 -22.134 0.925 -22.134 0.377 67.619
8900 0.379 67.5 0.924 -22.254 0.924 -22.254 0.379 67.5
8950 0.381 67.381 0.923 -22.375 0.923 -22.375 0.381 67.381
9000 0.383 67.262 0.922 -22.495 0.922 -22.495 0.383 67.262
9050 0.385 67.143 0.921 -22.614 0.921 -22.614 0.385 67.143
9100 0.386 67.025 0.921 -22.734 0.921 -22.734 0.386 67.025
9150 0.388 66.907 0.92 -22.853 0.92 -22.853 0.388 66.907
9200 0.39 66.789 0.919 -22.972 0.919 -22.972 0.39 66.789
9250 0.392 66.671 0.918 -23.091 0.918 -23.091 0.392 66.671
9300 0.394 66.554 0.917 -23.209 0.917 -23.209 0.394 66.554
9350 0.396 66.436 0.917 -23.327 0.917 -23.327 0.396 66.436
9400 0.398 66.319 0.916 -23.445 0.916 -23.445 0.398 66.319
9450 0.4 66.203 0.915 -23.563 0.915 -23.563 0.4 66.203
9500 0.402 66.086 0.914 -23.681 0.914 -23.681 0.402 66.086
9550 0.404 65.97 0.913 -23.798 0.913 -23.798 0.404 65.97
9600 0.405 65.854 0.913 -23.915 0.913 -23.915 0.405 65.854
9650 0.407 65.738 0.912 -24.032 0.912 -24.032 0.407 65.738
9700 0.409 65.623 0.911 -24.148 0.911 -24.148 0.409 65.623
9750 0.411 65.507 0.91 -24.265 0.91 -24.265 0.411 65.507
9800 0.413 65.392 0.909 -24.381 0.909 -24.381 0.413 65.392
9850 0.415 65.277 0.908 -24.496 0.908 -24.496 0.415 65.277
9900 0.416 65.163 0.908 -24.612 0.908 -24.612 0.416 65.163
9950 0.418 65.048 0.907 -24.727 0.907 -24.727 0.418 65.048
10000 0.42 64.934 0.906 -24.842 0.906 -24.842 0.42 64.934
10050 0.422 64.82 0.905 -24.957 0.905 -24.957 0.422 64.82
10100 0.424 64.706 0.904 -25.072 0.904 -25.072 0.424 64.706
10150 0.426 64.593 0.903 -25.186 0.903 -25.186 0.426 64.593
10200 0.427 64.48 0.902 -25.3 0.902 -25.3 0.427 64.48
10250 0.429 64.367 0.902 -25.414 0.902 -25.414 0.429 64.367
10300 0.431 64.254 0.901 -25.527 0.901 -25.527 0.431 64.254
10350 0.433 64.141 0.9 -25.641 0.9 -25.641 0.433 64.141
10400 0.435 64.029 0.899 -25.754 0.899 -25.754 0.435 64.029
10450 0.436 63.917 0.898 -25.867 0.898 -25.867 0.436 63.917
10500 0.438 63.805 0.897 -25.979 0.897 -25.979 0.438 63.805
10550 0.44 63.694 0.896 -26.092 0.896 -26.092 0.44 63.694
10600 0.442 63.582 0.896 -26.204 0.896 -26.204 0.442 63.582
10650 0.443 63.471 0.895 -26.316 0.895 -26.316 0.443 63.471
10700 0.445 63.36 0.894 -26.428 0.894 -26.428 0.445 63.36
10750 0.447 63.25 0.893 -26.539 0.893 -26.539 0.447 63.25
10800 0.449 63.139 0.892 -26.65 0.892 -26.65 0.449 63.139
10850 0.45 63.029 0.891 -26.761 0.891 -26.761 0.45 63.029
10900 0.452 62.919 0.89 -26.872 0.89 -26.872 0.452 62.919
10950 0.454 62.809 0.889 -26.982 0.889 -26.982 0.454 62.809
11000 0.455 62.7 0.889 -27.093 0.889 -27.093 0.455 62.7
11050 0.457 62.59 0.888 -27.203 0.888 -27.203 0.457 62.59
11100 0.459 62.481 0.887 -27.312 0.887 -27.312 0.459 62.481
11150 0.461 62.373 0.886 -27.422 0.886 -27.422 0.461 62.373
11200 0.462 62.264 0.885 -27.531 0.885 -27.531 0.462 62.264
11250 0.464 62.156 0.884 -27.64 0.884 -27.64 0.464 62.156
11300 0.466 62.047 0.883 -27.749 0.883 -27.749 0.466 62.047
11350 0.467 61.94 0.882 -27.858 0.882 -27.858 0.467 61.94
11400 0.469 61.832 0.882 -27.966 0.882 -27.966 0.469 61.832
11450 0.471 61.724 0.881 -28.074 0.881 -28.074 0.471 61.724
11500 0.472 61.617 0.88 -28.182 0.88 -28.182 0.472 61.617
11550 0.474 61.51 0.879 -28.29 0.879 -28.29 0.474 61.51
11600 0.476 61.403 0.878 -28.397 0.878 -28.397 0.476 61.403
11650 0.477 61.297 0.877 -28.504 0.877 -28.504 0.477 61.297
11700 0.479 61.191 0.876 -28.611 0.876 -28.611 0.479 61.191
11750 0.481 61.085 0.875 -28.718 0.875 -28.718 0.481 61.085
11800 0.482 60.979 0.874 -28.824 0.874 -28.824 0.482 60.979
11850 0.484 60.873 0.874 -28.931 0.874 -28.931 0.484 60.873
11900 0.485 60.768 0.873 -29.037 0.873 -29.037 0.485 60.768
11950 0.487 60.663 0.872 -29.142 0.872 -29.142 0.487 60.663
12000 0.489 60.558 0.871 -29.248 0.871 -29.248 0.489 60.558
12050 0.49 60.453 0.87 -29.353 0.87 -29.353 0.49 60.453
12100 0.492 60.348 0.869 -29.458 0.869 -29.458 0.492 60.348
12150 0.493 60.244 0.868 -29.563 0.868 -29.563 0.493 60.244
12200 0.495 60.14 0.867 -29.668 0.867 -29.668 0.495 60.14
12250 0.497 60.036 0.866 -29.772 0.866 -29.772 0.497 60.036
12300 0.498 59.933 0.865 -29.876 0.865 -29.876 0.498 59.933
12350 0.5 59.829 0.865 -29.98 0.865 -29.98 0.5 59.829
12400 0.501 59.726 0.864 -30.084 0.864 -30.084 0.501 59.726
12450 0.503 59.623 0.863 -30.187 0.863 -30.187 0.503 59.623
12500 0.504 59.521 0.862 -30.291 0.862 -30.291 0.504 59.521
12550 0.506 59.418 0.861 -30.394 0.861 -30.394 0.506 59.418
12600 0.507 59.316 0.86 -30.496 0.86 -30.496 0.507 59.316
12650 0.509 59.214 0.859 -30.599 0.859 -30.599 0.509 59.214
12700 0.511 59.112 0.858 -30.701 0.858 -30.701 0.511 59.112
12750 0.512 59.011 0.857 -30.803 0.857 -30.803 0.512 59.011
12800 0.514 58.91 0.856 -30.905 0.856 -30.905 0.514 58.91
12850 0.515 58.809 0.855 -31.007 0.855 -31.007 0.515 58.809
12900 0.517 58.708 0.855 -31.108 0.855 -31.108 0.517 58.708
12950 0.518 58.607 0.854 -31.209 0.854 -31.209 0.518 58.607
13000 0.52 58.507 0.853 -31.31 0.853 -31.31 0.52 58.507
13050 0.521 58.406 0.852 -31.411 0.852 -31.411 0.521 58.406
13100 0.523 58.306 0.851 -31.511 0.851 -31.511 0.523 58.306
13150 0.524 58.207 0.85 -31.611 0.85 -31.611 0.524 58.207
13200 0.526 58.107 0.849 -31.711 0.849 -31.711 0.526 58.107
13250 0.527 58.008 0.848 -31.811 0.848 -31.811 0.527 58.008
13300 0.529 57.909 0.847 -31.911 0.847 -31.911 0.529 57.909
13350 0.53 57.81 0.846 -32.01 0.846 -32.01 0.53 57.81
13400 0.532 57.711 0.845 -32.109 0.845 -32.109 0.532 57.711
13450 0.533 57.613 0.844 -32.208 0.844 -32.208 0.533 57.613
13500 0.534 57.515 0.844 -32.307 0.844 -32.307 0.534 57.515
13550 0.536 57.417 0.843 -32.405 0.843 -32.405 0.536 57.417
13600 0.537 57.319 0.842 -32.503 0.842 -32.503 0.537 57.319
13650 0.539 57.222 0.841 -32.601 0.841 -32.601 0.539 57.222
13700 0.54 57.124 0.84 -32.699 0.84 -32.699 0.54 57.124
13750 0.542 57.027 0.839 -32.797 0.839 -32.797 0.542 57.027
13800 0.543 56.93 0.838 -32.894 0.838 -32.894 0.543 56.93
13850 0.545 56.834 0.837 -32.991 0.837 -32.991 0.545 56.834
13900 0.546 56.737 0.836 -33.088 0.836 -33.088 0.546 56.737
13950 0.547 56.641 0.835 -33.185 0.835 -33.185 0.547 56.641
14000 0.549 56.545 0.834 -33.281 0.834 -33.281 0.549 56.545
14050 0.55 56.449 0.833 -33.377 0.833 -33.377 0.55 56.449
14100 0.552 56.354 0.832 -33.473 0.832 -33.473 0.552 56.354
14150 0.553 56.258 0.832 -33.569 0.832 -33.569 0.553 56.258
14200 0.554 56.163 0.831 -33.664 0.831 -33.664 0.554 56.163
14250 0.556 56.068 0.83 -33.76 0.83 -33.76 0.556 56.068
14300 0.557 55.974 0.829 -33.855 0.829 -33.855 0.557 55.974
14350 0.558 55.879 0.828 -33.95 0.828 -33.95 0.558 55.879
14400 0.56 55.785 0.827 -34.044 0.827 -34.044 0.56 55.785
14450 0.561 55.691 0.826 -34.139 0.826 -34.139 0.561 55.691
14500 0.563 55.597 0.825 -34.233 0.825 -34.233 0.563 55.597
14550 0.564 55.504 0.824 -34.327 0.824 -34.327 0.564 55.504
14600 0.565 55.41 0.823 -34.421 0.823 -34.421 0.565 55.41
14650 0.567 55.317 0.822 -34.514 0.822 -34.514 0.567 55.317
14700 0.568 55.224 0.821 -34.608 0.821 -34.608 0.568 55.224
14750 0.569 55.131 0.82 -34.701 0.82 -34.701 0.569 55.131
14800 0.571 55.039 0.82 -34.794 0.82 -34.794 0.571 55.039
14850 0.572 54.947 0.819 -34.886 0.819 -34.886 0.572 54.947
14900 0.573 54.854 0.818 -34.979 0.818 -34.979 0.573 54.854
14950 0.575 54.763 0.817 -35.071 0.817 -35.071 0.575 54.763
15000 0.576 54.671 0.816 -35.163 0.816 -35.163 0.576 54.671
15050 0.577 54.579 0.815 -35.255 0.815 -35.255 0.577 54.579
15100 0.579 54.488 0.814 -35.347 0.814 -35.347 0.579 54.488
15150 0.58 54.397 0.813 -35.438 0.813 -35.438 0.58 54.397
15200 0.581 54.306 0.812 -35.529 0.812 -35.529 0.581 54.306
15250 0.582 54.216 0.811 -35.62 0.811 -35.62 0.582 54.216
15300 0.584 54.125 0.81 -35.711 0.81 -35.711 0.584 54.125
15350 0.585 54.035 0.809 -35.801 0.809 -35.801 0.585 54.035
15400 0.586 53.945 0.808 -35.892 0.808 -35.892 0.586 53.945
15450 0.588 53.855 0.808 -35.982 0.808 -35.982 0.588 53.855
15500 0.589 53.766 0.807 -36.072 0.807 -36.072 0.589 53.766
15550 0.59 53.677 0.806 -36.161 0.806 -36.161 0.59 53.677
15600 0.591 53.587 0.805 -36.251 0.805 -36.251 0.591 53.587
15650 0.593 53.498 0.804 -36.34 0.804 -36.34 0.593 53.498
15700 0.594 53.41 0.803 -36.429 0.803 -36.429 0.594 53.41
15750 0.595 53.321 0.802 -36.518 0.802 -36.518 0.595 53.321
15800 0.596 53.233 0.801 -36.607 0.801 -36.607 0.596 53.233
15850 0.598 53.145 0.8 -36.695 0.8 -36.695 0.598 53.145
15900 0.599 53.057 0.799 -36.783 0.799 -36.783 0.599 53.057
15950 0.6 52.969 0.798 -36.871 0.798 -36.871 0.6 52.969
16000 0.601 52.882 0.797 -36.959 0.797 -36.959 0.601 52.882
16050 0.602 52.795 0.796 -37.047 0.796 -37.047 0.602 52.795
16100 0.604 52.707 0.796 -37.134 0.796 -37.134 0.604 52.707
16150 0.605 52.621 0.795 -37.221 0.795 -37.221 0.605 52.621
16200 0.606 52.534 0.794 -37.308 0.794 -37.308 0.606 52.534
16250 0.607 52.447 0.793 -37.395 0.793 -37.395 0.607 52.447
16300 0.609 52.361 0.792 -37.482 0.792 -37.482 0.609 52.361
16350 0.61 52.275 0.791 -37.568 0.791 -37.568 0.61 52.275
16400 0.611 52.189 0.79 -37.654 0.79 -37.654 0.611 52.189
16450 0.612 52.104 0.789 -37.74 0.789 -37.74 0.612 52.104
16500 0.613 52.018 0.788 -37.826 0.788 -37.826 0.613 52.018
16550 0.614 51.933 0.787 -37.911 0.787 -37.911 0.614 51.933
16600 0.616 51.848 0.786 -37.997 0.786 -37.997 0.616 51.848
16650 0.617 51.763 0.785 -38.082 0.785 -38.082 0.617 51.763
16700 0.618 51.679 0.785 -38.167 0.785 -38.167 0.618 51.679
16750 0.619 51.594 0.784 -38.252 0.784 -38.252 0.619 51.594
16800 0.62 51.51 0.783 -38.336 0.783 -38.336 0.62 51.51
16850 0.621 51.426 0.782 -38.42 0.782 -38.42 0.621 51.426
16900 0.623 51.342 0.781 -38.505 0.781 -38.505 0.623 51.342
