! AVX Thin Film Operation		Date: April 2012 
! Description: Accu-P® Series, Thin Film, SMD, RF Capacitor
! Part Number: 08051J0R7PBTTR					
!	100	MHz	-	30.05	GHz			
!	Serial	Measurements						
!								
#	MHZ	S	MA	R	50			
!	S11	S21	S12	S22				
!	dB	Phase	dB	Phase	dB	Phase	dB	Phase
100	0.999	-2.519	0.044	87.474	0.044	87.474	0.999	-2.519
107.458	0.999	-2.706	0.047	87.286	0.047	87.286	0.999	-2.706
114.916	0.999	-2.894	0.05	87.098	0.05	87.098	0.999	-2.894
122.375	0.999	-3.082	0.054	86.91	0.054	86.91	0.999	-3.082
129.833	0.998	-3.269	0.057	86.722	0.057	86.722	0.998	-3.269
137.291	0.998	-3.457	0.06	86.534	0.06	86.534	0.998	-3.457
144.749	0.998	-3.644	0.064	86.346	0.064	86.346	0.998	-3.644
152.208	0.998	-3.831	0.067	86.158	0.067	86.158	0.998	-3.831
159.666	0.998	-4.019	0.07	85.971	0.07	85.971	0.998	-4.019
167.124	0.997	-4.206	0.073	85.783	0.073	85.783	0.997	-4.206
174.582	0.997	-4.393	0.077	85.595	0.077	85.595	0.997	-4.393
182.04	0.997	-4.58	0.08	85.408	0.08	85.408	0.997	-4.58
189.499	0.997	-4.767	0.083	85.22	0.083	85.22	0.997	-4.767
196.957	0.996	-4.954	0.086	85.033	0.086	85.033	0.996	-4.954
204.415	0.996	-5.141	0.09	84.845	0.09	84.845	0.996	-5.141
211.873	0.996	-5.327	0.093	84.658	0.093	84.658	0.996	-5.327
219.332	0.995	-5.514	0.096	84.471	0.096	84.471	0.995	-5.514
226.79	0.995	-5.701	0.099	84.284	0.099	84.284	0.995	-5.701
234.248	0.995	-5.887	0.103	84.097	0.103	84.097	0.995	-5.887
241.706	0.994	-6.074	0.106	83.91	0.106	83.91	0.994	-6.074
249.164	0.994	-6.26	0.109	83.723	0.109	83.723	0.994	-6.26
256.623	0.994	-6.446	0.112	83.536	0.112	83.536	0.994	-6.446
264.081	0.993	-6.632	0.115	83.35	0.115	83.35	0.993	-6.632
271.539	0.993	-6.818	0.119	83.163	0.119	83.163	0.993	-6.818
278.997	0.992	-7.004	0.122	82.977	0.122	82.977	0.992	-7.004
286.455	0.992	-7.19	0.125	82.791	0.125	82.791	0.992	-7.19
293.914	0.992	-7.375	0.128	82.605	0.128	82.605	0.992	-7.375
301.372	0.991	-7.561	0.132	82.418	0.132	82.418	0.991	-7.561
308.83	0.991	-7.746	0.135	82.233	0.135	82.233	0.991	-7.746
316.288	0.99	-7.932	0.138	82.047	0.138	82.047	0.99	-7.932
323.747	0.99	-8.117	0.141	81.861	0.141	81.861	0.99	-8.117
331.205	0.989	-8.302	0.144	81.676	0.144	81.676	0.989	-8.302
338.663	0.989	-8.487	0.148	81.49	0.148	81.49	0.989	-8.487
346.121	0.989	-8.671	0.151	81.305	0.151	81.305	0.989	-8.671
353.579	0.988	-8.856	0.154	81.12	0.154	81.12	0.988	-8.856
361.038	0.988	-9.041	0.157	80.935	0.157	80.935	0.988	-9.041
368.496	0.987	-9.225	0.16	80.75	0.16	80.75	0.987	-9.225
375.954	0.986	-9.409	0.163	80.565	0.163	80.565	0.986	-9.409
383.412	0.986	-9.593	0.167	80.381	0.167	80.381	0.986	-9.593
390.871	0.985	-9.777	0.17	80.196	0.17	80.196	0.985	-9.777
398.329	0.985	-9.961	0.173	80.012	0.173	80.012	0.985	-9.961
405.787	0.984	-10.144	0.176	79.828	0.176	79.828	0.984	-10.144
413.245	0.984	-10.328	0.179	79.644	0.179	79.644	0.984	-10.328
420.703	0.983	-10.511	0.182	79.46	0.182	79.46	0.983	-10.511
428.162	0.983	-10.694	0.186	79.277	0.186	79.277	0.983	-10.694
435.62	0.982	-10.877	0.189	79.093	0.189	79.093	0.982	-10.877
443.078	0.981	-11.06	0.192	78.91	0.192	78.91	0.981	-11.06
450.536	0.981	-11.242	0.195	78.727	0.195	78.727	0.981	-11.242
457.995	0.98	-11.425	0.198	78.544	0.198	78.544	0.98	-11.425
465.453	0.979	-11.607	0.201	78.361	0.201	78.361	0.979	-11.607
472.911	0.979	-11.789	0.204	78.179	0.204	78.179	0.979	-11.789
480.369	0.978	-11.971	0.207	77.996	0.207	77.996	0.978	-11.971
487.827	0.977	-12.153	0.211	77.814	0.211	77.814	0.977	-12.153
495.286	0.977	-12.334	0.214	77.632	0.214	77.632	0.977	-12.334
502.744	0.976	-12.515	0.217	77.45	0.217	77.45	0.976	-12.515
510.202	0.975	-12.696	0.22	77.269	0.22	77.269	0.975	-12.696
517.66	0.975	-12.877	0.223	77.087	0.223	77.087	0.975	-12.877
525.118	0.974	-13.058	0.226	76.906	0.226	76.906	0.974	-13.058
532.577	0.973	-13.239	0.229	76.725	0.229	76.725	0.973	-13.239
540.035	0.973	-13.419	0.232	76.544	0.232	76.544	0.973	-13.419
547.493	0.972	-13.599	0.235	76.363	0.235	76.363	0.972	-13.599
554.951	0.971	-13.779	0.238	76.183	0.238	76.183	0.971	-13.779
562.41	0.97	-13.959	0.241	76.003	0.241	76.003	0.97	-13.959
569.868	0.97	-14.138	0.244	75.823	0.244	75.823	0.97	-14.138
577.326	0.969	-14.317	0.247	75.643	0.247	75.643	0.969	-14.317
584.784	0.968	-14.496	0.25	75.463	0.25	75.463	0.968	-14.496
592.242	0.967	-14.675	0.253	75.284	0.253	75.284	0.967	-14.675
599.701	0.966	-14.854	0.256	75.105	0.256	75.105	0.966	-14.854
607.159	0.966	-15.032	0.259	74.926	0.259	74.926	0.966	-15.032
614.617	0.965	-15.211	0.262	74.747	0.262	74.747	0.965	-15.211
622.075	0.964	-15.388	0.265	74.569	0.265	74.569	0.964	-15.388
629.534	0.963	-15.566	0.268	74.391	0.268	74.391	0.963	-15.566
636.992	0.962	-15.744	0.271	74.213	0.271	74.213	0.962	-15.744
644.45	0.961	-15.921	0.274	74.035	0.274	74.035	0.961	-15.921
651.908	0.961	-16.098	0.277	73.857	0.277	73.857	0.961	-16.098
659.366	0.96	-16.275	0.28	73.68	0.28	73.68	0.96	-16.275
666.825	0.959	-16.451	0.283	73.503	0.283	73.503	0.959	-16.451
674.283	0.958	-16.628	0.286	73.326	0.286	73.326	0.958	-16.628
681.741	0.957	-16.804	0.289	73.15	0.289	73.15	0.957	-16.804
689.199	0.956	-16.98	0.292	72.973	0.292	72.973	0.956	-16.98
696.658	0.955	-17.155	0.295	72.797	0.295	72.797	0.955	-17.155
704.116	0.954	-17.33	0.298	72.621	0.298	72.621	0.954	-17.33
711.574	0.953	-17.506	0.301	72.446	0.301	72.446	0.953	-17.506
719.032	0.953	-17.68	0.304	72.27	0.304	72.27	0.953	-17.68
726.49	0.952	-17.855	0.307	72.095	0.307	72.095	0.952	-17.855
733.949	0.951	-18.029	0.31	71.92	0.31	71.92	0.951	-18.029
741.407	0.95	-18.203	0.312	71.746	0.312	71.746	0.95	-18.203
748.865	0.949	-18.377	0.315	71.571	0.315	71.571	0.949	-18.377
756.323	0.948	-18.551	0.318	71.397	0.318	71.397	0.948	-18.551
763.781	0.947	-18.724	0.321	71.224	0.321	71.224	0.947	-18.724
771.24	0.946	-18.897	0.324	71.05	0.324	71.05	0.946	-18.897
778.698	0.945	-19.07	0.327	70.877	0.327	70.877	0.945	-19.07
786.156	0.944	-19.242	0.33	70.704	0.33	70.704	0.944	-19.242
793.614	0.943	-19.414	0.332	70.531	0.332	70.531	0.943	-19.414
801.073	0.942	-19.586	0.335	70.359	0.335	70.359	0.942	-19.586
808.531	0.941	-19.758	0.338	70.186	0.338	70.186	0.941	-19.758
815.989	0.94	-19.929	0.341	70.014	0.341	70.014	0.94	-19.929
823.447	0.939	-20.101	0.344	69.843	0.344	69.843	0.939	-20.101
830.905	0.938	-20.271	0.346	69.671	0.346	69.671	0.938	-20.271
838.364	0.937	-20.442	0.349	69.5	0.349	69.5	0.937	-20.442
845.822	0.936	-20.612	0.352	69.329	0.352	69.329	0.936	-20.612
853.28	0.935	-20.782	0.355	69.159	0.355	69.159	0.935	-20.782
860.738	0.934	-20.952	0.358	68.989	0.358	68.989	0.934	-20.952
868.197	0.932	-21.121	0.36	68.819	0.36	68.819	0.932	-21.121
875.655	0.931	-21.291	0.363	68.649	0.363	68.649	0.931	-21.291
883.113	0.93	-21.459	0.366	68.48	0.366	68.48	0.93	-21.459
890.571	0.929	-21.628	0.369	68.311	0.369	68.311	0.929	-21.628
898.029	0.928	-21.796	0.371	68.142	0.371	68.142	0.928	-21.796
905.488	0.927	-21.964	0.374	67.973	0.374	67.973	0.927	-21.964
912.946	0.926	-22.132	0.377	67.805	0.377	67.805	0.926	-22.132
920.404	0.925	-22.299	0.379	67.637	0.379	67.637	0.925	-22.299
927.862	0.924	-22.467	0.382	67.469	0.382	67.469	0.924	-22.467
935.321	0.923	-22.633	0.385	67.302	0.385	67.302	0.923	-22.633
942.779	0.921	-22.8	0.388	67.135	0.388	67.135	0.921	-22.8
950.237	0.92	-22.966	0.39	66.968	0.39	66.968	0.92	-22.966
957.695	0.919	-23.132	0.393	66.802	0.393	66.802	0.919	-23.132
965.153	0.918	-23.298	0.396	66.636	0.396	66.636	0.918	-23.298
972.612	0.917	-23.463	0.398	66.47	0.398	66.47	0.917	-23.463
980.07	0.916	-23.628	0.401	66.304	0.401	66.304	0.916	-23.628
987.528	0.915	-23.793	0.403	66.139	0.403	66.139	0.915	-23.793
994.986	0.913	-23.957	0.406	65.974	0.406	65.974	0.913	-23.957
1002.444	0.912	-24.121	0.409	65.809	0.409	65.809	0.912	-24.121
1009.903	0.911	-24.285	0.411	65.645	0.411	65.645	0.911	-24.285
1017.361	0.91	-24.448	0.414	65.481	0.414	65.481	0.91	-24.448
1024.819	0.909	-24.612	0.416	65.317	0.416	65.317	0.909	-24.612
1032.277	0.907	-24.775	0.419	65.154	0.419	65.154	0.907	-24.775
1039.736	0.906	-24.937	0.422	64.991	0.422	64.991	0.906	-24.937
1047.194	0.905	-25.099	0.424	64.828	0.424	64.828	0.905	-25.099
1054.652	0.904	-25.261	0.427	64.666	0.427	64.666	0.904	-25.261
1062.11	0.903	-25.423	0.429	64.503	0.429	64.503	0.903	-25.423
1069.568	0.901	-25.584	0.432	64.342	0.432	64.342	0.901	-25.584
1077.027	0.9	-25.745	0.434	64.18	0.434	64.18	0.9	-25.745
1084.485	0.899	-25.906	0.437	64.019	0.437	64.019	0.899	-25.906
1091.943	0.898	-26.066	0.439	63.858	0.439	63.858	0.898	-26.066
1099.401	0.896	-26.226	0.442	63.697	0.442	63.697	0.896	-26.226
1106.86	0.895	-26.386	0.444	63.537	0.444	63.537	0.895	-26.386
1114.318	0.894	-26.545	0.447	63.377	0.447	63.377	0.894	-26.545
1121.776	0.893	-26.704	0.449	63.218	0.449	63.218	0.893	-26.704
1129.234	0.891	-26.863	0.452	63.058	0.452	63.058	0.891	-26.863
1136.692	0.89	-27.022	0.454	62.899	0.454	62.899	0.89	-27.022
1144.151	0.889	-27.18	0.457	62.741	0.457	62.741	0.889	-27.18
1151.609	0.888	-27.337	0.459	62.582	0.459	62.582	0.888	-27.337
1159.067	0.886	-27.495	0.462	62.424	0.462	62.424	0.886	-27.495
1166.525	0.885	-27.652	0.464	62.267	0.464	62.267	0.885	-27.652
1173.984	0.884	-27.809	0.467	62.109	0.467	62.109	0.884	-27.809
1181.442	0.883	-27.965	0.469	61.952	0.469	61.952	0.883	-27.965
1188.9	0.881	-28.122	0.471	61.796	0.471	61.796	0.881	-28.122
1196.358	0.88	-28.277	0.474	61.639	0.474	61.639	0.88	-28.277
1203.816	0.879	-28.433	0.476	61.483	0.476	61.483	0.879	-28.433
1211.275	0.877	-28.588	0.479	61.328	0.479	61.328	0.877	-28.588
1218.733	0.876	-28.743	0.481	61.172	0.481	61.172	0.876	-28.743
1226.191	0.875	-28.897	0.483	61.017	0.483	61.017	0.875	-28.897
1233.649	0.873	-29.052	0.486	60.862	0.486	60.862	0.873	-29.052
1241.108	0.872	-29.205	0.488	60.708	0.488	60.708	0.872	-29.205
1248.566	0.871	-29.359	0.49	60.554	0.49	60.554	0.871	-29.359
1256.024	0.869	-29.512	0.493	60.4	0.493	60.4	0.869	-29.512
1263.482	0.868	-29.665	0.495	60.247	0.495	60.247	0.868	-29.665
1270.94	0.867	-29.818	0.497	60.094	0.497	60.094	0.867	-29.818
1278.399	0.866	-29.97	0.5	59.941	0.5	59.941	0.866	-29.97
1285.857	0.864	-30.122	0.502	59.788	0.502	59.788	0.864	-30.122
1293.315	0.863	-30.273	0.504	59.636	0.504	59.636	0.863	-30.273
1300.773	0.861	-30.424	0.506	59.485	0.506	59.485	0.861	-30.424
1308.231	0.86	-30.575	0.509	59.333	0.509	59.333	0.86	-30.575
1315.69	0.859	-30.726	0.511	59.182	0.511	59.182	0.859	-30.726
1323.148	0.857	-30.876	0.513	59.031	0.513	59.031	0.857	-30.876
1330.606	0.856	-31.026	0.515	58.881	0.515	58.881	0.856	-31.026
1338.064	0.855	-31.176	0.518	58.731	0.518	58.731	0.855	-31.176
1345.523	0.853	-31.325	0.52	58.581	0.52	58.581	0.853	-31.325
1352.981	0.852	-31.474	0.522	58.431	0.522	58.431	0.852	-31.474
1360.439	0.851	-31.622	0.524	58.282	0.524	58.282	0.851	-31.622
1367.897	0.849	-31.77	0.527	58.134	0.527	58.134	0.849	-31.77
1375.355	0.848	-31.918	0.529	57.985	0.529	57.985	0.848	-31.918
1382.814	0.847	-32.066	0.531	57.837	0.531	57.837	0.847	-32.066
1390.272	0.845	-32.213	0.533	57.689	0.533	57.689	0.845	-32.213
1397.73	0.844	-32.36	0.535	57.542	0.535	57.542	0.844	-32.36
1405.188	0.842	-32.506	0.537	57.395	0.537	57.395	0.842	-32.506
1412.647	0.841	-32.653	0.54	57.248	0.54	57.248	0.841	-32.653
1420.105	0.84	-32.799	0.542	57.102	0.542	57.102	0.84	-32.799
1427.563	0.838	-32.944	0.544	56.956	0.544	56.956	0.838	-32.944
1435.021	0.837	-33.089	0.546	56.81	0.546	56.81	0.837	-33.089
1442.479	0.835	-33.234	0.548	56.664	0.548	56.664	0.835	-33.234
1449.938	0.834	-33.379	0.55	56.519	0.55	56.519	0.834	-33.379
1457.396	0.833	-33.523	0.552	56.374	0.552	56.374	0.833	-33.523
1464.854	0.831	-33.667	0.554	56.23	0.554	56.23	0.831	-33.667
1472.312	0.83	-33.81	0.556	56.086	0.556	56.086	0.83	-33.81
1479.771	0.828	-33.953	0.559	55.942	0.559	55.942	0.828	-33.953
1487.229	0.827	-34.096	0.561	55.799	0.561	55.799	0.827	-34.096
1494.687	0.826	-34.239	0.563	55.656	0.563	55.656	0.826	-34.239
1502.145	0.824	-34.381	0.565	55.513	0.565	55.513	0.824	-34.381
1509.603	0.823	-34.523	0.567	55.371	0.567	55.371	0.823	-34.523
1517.062	0.821	-34.664	0.569	55.228	0.569	55.228	0.821	-34.664
1524.52	0.82	-34.806	0.571	55.087	0.571	55.087	0.82	-34.806
1531.978	0.819	-34.946	0.573	54.945	0.573	54.945	0.819	-34.946
1539.436	0.817	-35.087	0.575	54.804	0.575	54.804	0.817	-35.087
1546.894	0.816	-35.227	0.577	54.663	0.577	54.663	0.816	-35.227
1554.353	0.814	-35.367	0.579	54.523	0.579	54.523	0.814	-35.367
1561.811	0.813	-35.506	0.581	54.383	0.581	54.383	0.813	-35.506
1569.269	0.812	-35.646	0.583	54.243	0.583	54.243	0.812	-35.646
1576.727	0.81	-35.784	0.585	54.104	0.585	54.104	0.81	-35.784
1584.186	0.809	-35.923	0.587	53.965	0.587	53.965	0.809	-35.923
1591.644	0.807	-36.061	0.589	53.826	0.589	53.826	0.807	-36.061
1599.102	0.806	-36.199	0.591	53.688	0.591	53.688	0.806	-36.199
1606.56	0.804	-36.336	0.593	53.549	0.593	53.549	0.804	-36.336
1614.018	0.803	-36.474	0.594	53.412	0.594	53.412	0.803	-36.474
1621.477	0.802	-36.611	0.596	53.274	0.596	53.274	0.802	-36.611
1628.935	0.8	-36.747	0.598	53.137	0.598	53.137	0.8	-36.747
1636.393	0.799	-36.883	0.6	53	0.6	53	0.799	-36.883
1643.851	0.797	-37.019	0.602	52.864	0.602	52.864	0.797	-37.019
1651.31	0.796	-37.155	0.604	52.728	0.604	52.728	0.796	-37.155
1658.768	0.794	-37.29	0.606	52.592	0.606	52.592	0.794	-37.29
1666.226	0.793	-37.425	0.608	52.457	0.608	52.457	0.793	-37.425
1673.684	0.791	-37.559	0.61	52.322	0.61	52.322	0.791	-37.559
1681.142	0.79	-37.693	0.611	52.187	0.611	52.187	0.79	-37.693
1688.601	0.789	-37.827	0.613	52.052	0.613	52.052	0.789	-37.827
1696.059	0.787	-37.961	0.615	51.918	0.615	51.918	0.787	-37.961
1703.517	0.786	-38.094	0.617	51.784	0.617	51.784	0.786	-38.094
1710.975	0.784	-38.227	0.619	51.651	0.619	51.651	0.784	-38.227
1718.434	0.783	-38.359	0.621	51.518	0.621	51.518	0.783	-38.359
1725.892	0.781	-38.492	0.622	51.385	0.622	51.385	0.781	-38.492
1733.35	0.78	-38.624	0.624	51.252	0.624	51.252	0.78	-38.624
1740.808	0.778	-38.755	0.626	51.12	0.626	51.12	0.778	-38.755
1748.266	0.777	-38.886	0.628	50.988	0.628	50.988	0.777	-38.886
1755.725	0.776	-39.017	0.63	50.857	0.63	50.857	0.776	-39.017
1763.183	0.774	-39.148	0.631	50.726	0.631	50.726	0.774	-39.148
1770.641	0.773	-39.278	0.633	50.595	0.633	50.595	0.773	-39.278
1778.099	0.771	-39.408	0.635	50.464	0.635	50.464	0.771	-39.408
1785.557	0.77	-39.538	0.637	50.334	0.637	50.334	0.77	-39.538
1793.016	0.768	-39.667	0.638	50.204	0.638	50.204	0.768	-39.667
1800.474	0.767	-39.796	0.64	50.075	0.64	50.075	0.767	-39.796
1807.932	0.765	-39.925	0.642	49.945	0.642	49.945	0.765	-39.925
1815.39	0.764	-40.053	0.644	49.816	0.644	49.816	0.764	-40.053
1822.849	0.763	-40.181	0.645	49.688	0.645	49.688	0.763	-40.181
1830.307	0.761	-40.309	0.647	49.559	0.647	49.559	0.761	-40.309
1837.765	0.76	-40.436	0.649	49.432	0.649	49.432	0.76	-40.436
1845.223	0.758	-40.563	0.65	49.304	0.65	49.304	0.758	-40.563
1852.681	0.757	-40.69	0.652	49.177	0.652	49.177	0.757	-40.69
1860.14	0.755	-40.817	0.654	49.049	0.654	49.049	0.755	-40.817
1867.598	0.754	-40.943	0.655	48.923	0.655	48.923	0.754	-40.943
1875.056	0.752	-41.068	0.657	48.796	0.657	48.796	0.752	-41.068
1882.514	0.751	-41.194	0.659	48.67	0.659	48.67	0.751	-41.194
1889.973	0.749	-41.319	0.66	48.545	0.66	48.545	0.749	-41.319
1897.431	0.748	-41.444	0.662	48.419	0.662	48.419	0.748	-41.444
1904.889	0.747	-41.568	0.664	48.294	0.664	48.294	0.747	-41.568
1912.347	0.745	-41.693	0.665	48.169	0.665	48.169	0.745	-41.693
1919.805	0.744	-41.817	0.667	48.045	0.667	48.045	0.744	-41.817
1927.264	0.742	-41.94	0.668	47.92	0.668	47.92	0.742	-41.94
1934.722	0.741	-42.063	0.67	47.797	0.67	47.797	0.741	-42.063
1942.18	0.739	-42.186	0.672	47.673	0.672	47.673	0.739	-42.186
1949.638	0.738	-42.309	0.673	47.55	0.673	47.55	0.738	-42.309
1957.097	0.736	-42.431	0.675	47.427	0.675	47.427	0.736	-42.431
1964.555	0.735	-42.553	0.676	47.304	0.676	47.304	0.735	-42.553
1972.013	0.734	-42.675	0.678	47.182	0.678	47.182	0.734	-42.675
1979.471	0.732	-42.797	0.679	47.06	0.679	47.06	0.732	-42.797
1986.929	0.731	-42.918	0.681	46.938	0.681	46.938	0.731	-42.918
1994.388	0.729	-43.038	0.682	46.817	0.682	46.817	0.729	-43.038
2001.846	0.728	-43.159	0.684	46.696	0.684	46.696	0.728	-43.159
2009.304	0.726	-43.279	0.686	46.575	0.686	46.575	0.726	-43.279
2016.762	0.725	-43.399	0.687	46.454	0.687	46.454	0.725	-43.399
2024.221	0.723	-43.519	0.689	46.334	0.689	46.334	0.723	-43.519
2031.679	0.722	-43.638	0.69	46.214	0.69	46.214	0.722	-43.638
2039.137	0.72	-43.757	0.692	46.095	0.692	46.095	0.72	-43.757
2046.595	0.719	-43.875	0.693	45.975	0.693	45.975	0.719	-43.875
2054.053	0.718	-43.994	0.695	45.856	0.695	45.856	0.718	-43.994
2061.512	0.716	-44.112	0.696	45.738	0.696	45.738	0.716	-44.112
2068.97	0.715	-44.23	0.698	45.619	0.698	45.619	0.715	-44.23
2076.428	0.713	-44.347	0.699	45.501	0.699	45.501	0.713	-44.347
2083.886	0.712	-44.464	0.7	45.384	0.7	45.384	0.712	-44.464
2091.344	0.71	-44.581	0.702	45.266	0.702	45.266	0.71	-44.581
2098.803	0.709	-44.698	0.703	45.149	0.703	45.149	0.709	-44.698
2106.261	0.708	-44.814	0.705	45.032	0.705	45.032	0.708	-44.814
2113.719	0.706	-44.93	0.706	44.915	0.706	44.915	0.706	-44.93
2121.177	0.705	-45.045	0.708	44.799	0.708	44.799	0.705	-45.045
2128.636	0.703	-45.161	0.709	44.683	0.709	44.683	0.703	-45.161
2136.094	0.702	-45.276	0.711	44.567	0.711	44.567	0.702	-45.276
2143.552	0.7	-45.391	0.712	44.452	0.712	44.452	0.7	-45.391
2151.01	0.699	-45.505	0.713	44.337	0.713	44.337	0.699	-45.505
2158.468	0.697	-45.619	0.715	44.222	0.715	44.222	0.697	-45.619
2165.927	0.696	-45.733	0.716	44.108	0.716	44.108	0.696	-45.733
2173.385	0.695	-45.847	0.717	43.993	0.717	43.993	0.695	-45.847
2180.843	0.693	-45.96	0.719	43.879	0.719	43.879	0.693	-45.96
2188.301	0.692	-46.073	0.72	43.766	0.72	43.766	0.692	-46.073
2195.76	0.69	-46.186	0.722	43.652	0.722	43.652	0.69	-46.186
2203.218	0.689	-46.298	0.723	43.539	0.723	43.539	0.689	-46.298
2210.676	0.687	-46.41	0.724	43.427	0.724	43.427	0.687	-46.41
2218.134	0.686	-46.522	0.726	43.314	0.726	43.314	0.686	-46.522
2225.592	0.685	-46.634	0.727	43.202	0.727	43.202	0.685	-46.634
2233.051	0.683	-46.745	0.728	43.09	0.728	43.09	0.683	-46.745
2240.509	0.682	-46.856	0.73	42.978	0.73	42.978	0.682	-46.856
2247.967	0.68	-46.967	0.731	42.867	0.731	42.867	0.68	-46.967
2255.425	0.679	-47.077	0.732	42.756	0.732	42.756	0.679	-47.077
2262.884	0.677	-47.187	0.734	42.645	0.734	42.645	0.677	-47.187
2270.342	0.676	-47.297	0.735	42.534	0.735	42.534	0.676	-47.297
2277.8	0.675	-47.407	0.736	42.424	0.736	42.424	0.675	-47.407
2285.258	0.673	-47.516	0.737	42.314	0.737	42.314	0.673	-47.516
2292.716	0.672	-47.625	0.739	42.205	0.739	42.205	0.672	-47.625
2300.175	0.67	-47.734	0.74	42.095	0.74	42.095	0.67	-47.734
2307.633	0.669	-47.843	0.741	41.986	0.741	41.986	0.669	-47.843
2315.091	0.668	-47.951	0.743	41.877	0.743	41.877	0.668	-47.951
2322.549	0.666	-48.059	0.744	41.769	0.744	41.769	0.666	-48.059
2330.007	0.665	-48.166	0.745	41.66	0.745	41.66	0.665	-48.166
2337.466	0.663	-48.274	0.746	41.552	0.746	41.552	0.663	-48.274
2344.924	0.662	-48.381	0.748	41.444	0.748	41.444	0.662	-48.381
2352.382	0.66	-48.488	0.749	41.337	0.749	41.337	0.66	-48.488
2359.84	0.659	-48.594	0.75	41.23	0.75	41.23	0.659	-48.594
2367.299	0.658	-48.7	0.751	41.123	0.751	41.123	0.658	-48.7
2374.757	0.656	-48.806	0.752	41.016	0.752	41.016	0.656	-48.806
2382.215	0.655	-48.912	0.754	40.91	0.754	40.91	0.655	-48.912
2389.673	0.653	-49.018	0.755	40.804	0.755	40.804	0.653	-49.018
2397.131	0.652	-49.123	0.756	40.698	0.756	40.698	0.652	-49.123
2404.59	0.651	-49.228	0.757	40.592	0.757	40.592	0.651	-49.228
2412.048	0.649	-49.332	0.759	40.487	0.759	40.487	0.649	-49.332
2419.506	0.648	-49.437	0.76	40.382	0.76	40.382	0.648	-49.437
2426.964	0.646	-49.541	0.761	40.277	0.761	40.277	0.646	-49.541
2434.423	0.645	-49.645	0.762	40.173	0.762	40.173	0.645	-49.645
2441.881	0.644	-49.748	0.763	40.068	0.763	40.068	0.644	-49.748
2449.339	0.642	-49.852	0.764	39.964	0.764	39.964	0.642	-49.852
2456.797	0.641	-49.955	0.766	39.861	0.766	39.861	0.641	-49.955
2464.255	0.64	-50.057	0.767	39.757	0.767	39.757	0.64	-50.057
2471.714	0.638	-50.16	0.768	39.654	0.768	39.654	0.638	-50.16
2479.172	0.637	-50.262	0.769	39.551	0.769	39.551	0.637	-50.262
2486.63	0.635	-50.364	0.77	39.448	0.77	39.448	0.635	-50.364
