! AVX Thin Film Operation		Date: April 2012 
! Description: Accu-P® Series, Thin Film, SMD, RF Capacitor
! Part Number: 08051J2R8QBTTR					
!	100	MHz	-	20.05	GHz			
!	Serial	Measurements						
!								
#	MHZ	S	MA	R	50			
!	S11	S21	S12	S22				
!	dB	Phase	dB	Phase	dB	Phase	dB	Phase
50 0.996 -5.028 0.088 84.896 0.088 84.896 0.996 -5.028
100 0.985 -9.983 0.173 79.92 0.173 79.92 0.985 -9.983
150 0.966 -14.802 0.255 75.082 0.255 75.082 0.966 -14.802
200 0.942 -19.43 0.333 70.434 0.333 70.434 0.942 -19.43
250 0.914 -23.826 0.404 66.018 0.404 66.018 0.914 -23.826
300 0.882 -27.965 0.469 61.859 0.469 61.859 0.882 -27.965
350 0.848 -31.832 0.527 57.971 0.527 57.971 0.848 -31.832
400 0.813 -35.426 0.58 54.357 0.58 54.357 0.813 -35.426
450 0.777 -38.752 0.626 51.01 0.626 51.01 0.777 -38.752
500 0.742 -41.822 0.667 47.919 0.667 47.919 0.742 -41.822
550 0.708 -44.652 0.703 45.067 0.703 45.067 0.708 -44.652
600 0.675 -47.259 0.734 42.439 0.734 42.439 0.675 -47.259
650 0.643 -49.661 0.762 40.014 0.762 40.014 0.643 -49.661
700 0.613 -51.876 0.787 37.777 0.787 37.777 0.613 -51.876
750 0.584 -53.921 0.808 35.71 0.808 35.71 0.584 -53.921
800 0.556 -55.811 0.827 33.796 0.827 33.796 0.556 -55.811
850 0.53 -57.561 0.844 32.022 0.844 32.022 0.53 -57.561
900 0.506 -59.185 0.859 30.373 0.859 30.373 0.506 -59.185
950 0.482 -60.695 0.872 28.838 0.872 28.838 0.482 -60.695
1000 0.46 -62.101 0.884 27.406 0.884 27.406 0.46 -62.101
1050 0.439 -63.413 0.894 26.067 0.894 26.067 0.439 -63.413
1100 0.42 -64.64 0.904 24.812 0.904 24.812 0.42 -64.64
1150 0.401 -65.79 0.912 23.634 0.912 23.634 0.401 -65.79
1200 0.383 -66.87 0.92 22.525 0.92 22.525 0.383 -66.87
1250 0.366 -67.885 0.926 21.48 0.926 21.48 0.366 -67.885
1300 0.35 -68.842 0.933 20.492 0.933 20.492 0.35 -68.842
1350 0.335 -69.744 0.938 19.557 0.938 19.557 0.335 -69.744
1400 0.32 -70.597 0.943 18.67 0.943 18.67 0.32 -70.597
1450 0.306 -71.405 0.948 17.827 0.948 17.827 0.306 -71.405
1500 0.293 -72.17 0.952 17.025 0.952 17.025 0.293 -72.17
1550 0.28 -72.897 0.956 16.261 0.956 16.261 0.28 -72.897
1600 0.268 -73.587 0.959 15.53 0.959 15.53 0.268 -73.587
1650 0.256 -74.244 0.963 14.832 0.963 14.832 0.256 -74.244
1700 0.245 -74.869 0.965 14.163 0.965 14.163 0.245 -74.869
1750 0.234 -75.464 0.968 13.521 0.968 13.521 0.234 -75.464
1800 0.223 -76.032 0.971 12.905 0.971 12.905 0.223 -76.032
1850 0.213 -76.574 0.973 12.312 0.973 12.312 0.213 -76.574
1900 0.204 -77.091 0.975 11.741 0.975 11.741 0.204 -77.091
1950 0.194 -77.584 0.977 11.19 0.977 11.19 0.194 -77.584
2000 0.185 -78.054 0.979 10.658 0.979 10.658 0.185 -78.054
2050 0.176 -78.503 0.98 10.144 0.98 10.144 0.176 -78.503
2100 0.168 -78.931 0.982 9.647 0.982 9.647 0.168 -78.931
2150 0.159 -79.338 0.983 9.165 0.983 9.165 0.159 -79.338
2200 0.151 -79.724 0.984 8.698 0.984 8.698 0.151 -79.724
2250 0.143 -80.091 0.985 8.245 0.985 8.245 0.143 -80.091
2300 0.136 -80.437 0.987 7.805 0.987 7.805 0.136 -80.437
2350 0.128 -80.764 0.988 7.377 0.988 7.377 0.128 -80.764
2400 0.121 -81.069 0.988 6.96 0.988 6.96 0.121 -81.069
2450 0.114 -81.353 0.989 6.554 0.989 6.554 0.114 -81.353
2500 0.107 -81.614 0.99 6.158 0.99 6.158 0.107 -81.614
2550 0.101 -81.852 0.991 5.772 0.991 5.772 0.101 -81.852
2600 0.094 -82.063 0.991 5.396 0.991 5.396 0.094 -82.063
2650 0.088 -82.245 0.992 5.028 0.992 5.028 0.088 -82.245
2700 0.081 -82.395 0.993 4.668 0.993 4.668 0.081 -82.395
2750 0.075 -82.508 0.993 4.316 0.993 4.316 0.075 -82.508
2800 0.069 -82.578 0.993 3.971 0.993 3.971 0.069 -82.578
2850 0.064 -82.596 0.994 3.634 0.994 3.634 0.064 -82.596
2900 0.058 -82.55 0.994 3.303 0.994 3.303 0.058 -82.55
2950 0.052 -82.425 0.994 2.978 0.994 2.978 0.052 -82.425
3000 0.047 -82.196 0.995 2.66 0.995 2.66 0.047 -82.196
3050 0.041 -81.829 0.995 2.348 0.995 2.348 0.041 -81.829
3100 0.036 -81.267 0.995 2.041 0.995 2.041 0.036 -81.267
3150 0.031 -80.422 0.995 1.739 0.995 1.739 0.031 -80.422
3200 0.026 -79.135 0.996 1.443 0.996 1.443 0.026 -79.135
3250 0.021 -77.1 0.996 1.151 0.996 1.151 0.021 -77.1
3300 0.016 -73.653 0.996 0.864 0.996 0.864 0.016 -73.653
3350 0.011 -67.055 0.996 0.582 0.996 0.582 0.011 -67.055
3400 6.752e-3 -51.458 0.996 0.304 0.996 0.304 6.752e-3 -51.458
3450 4.211e-3 -7.068 0.996 0.03 0.996 0.03 4.211e-3 -7.068
3500 5.92e-3 44.859 0.996 -0.24 0.996 -0.24 5.92e-3 44.859
3550 9.779e-3 64.195 0.996 -0.507 0.996 -0.507 9.779e-3 64.195
3600 0.014 71.941 0.996 -0.769 0.996 -0.769 0.014 71.941
3650 0.018 75.865 0.996 -1.028 0.996 -1.028 0.018 75.865
3700 0.023 78.154 0.996 -1.284 0.996 -1.284 0.023 78.154
3750 0.027 79.607 0.995 -1.537 0.995 -1.537 0.027 79.607
3800 0.031 80.578 0.995 -1.786 0.995 -1.786 0.031 80.578
3850 0.036 81.248 0.995 -2.032 0.995 -2.032 0.036 81.248
3900 0.04 81.718 0.995 -2.276 0.995 -2.276 0.04 81.718
3950 0.044 82.048 0.995 -2.517 0.995 -2.517 0.044 82.048
4000 0.048 82.277 0.995 -2.754 0.995 -2.754 0.048 82.277
4050 0.052 82.431 0.994 -2.99 0.994 -2.99 0.052 82.431
4100 0.056 82.528 0.994 -3.223 0.994 -3.223 0.056 82.528
4150 0.06 82.58 0.994 -3.453 0.994 -3.453 0.06 82.58
4200 0.064 82.597 0.994 -3.681 0.994 -3.681 0.064 82.597
4250 0.068 82.586 0.994 -3.906 0.994 -3.906 0.068 82.586
4300 0.072 82.551 0.993 -4.13 0.993 -4.13 0.072 82.551
4350 0.076 82.499 0.993 -4.351 0.993 -4.351 0.076 82.499
4400 0.08 82.43 0.993 -4.57 0.993 -4.57 0.08 82.43
4450 0.084 82.349 0.992 -4.788 0.992 -4.788 0.084 82.349
4500 0.087 82.257 0.992 -5.003 0.992 -5.003 0.087 82.257
4550 0.091 82.155 0.992 -5.216 0.992 -5.216 0.091 82.155
4600 0.095 82.046 0.991 -5.427 0.991 -5.427 0.095 82.046
4650 0.098 81.93 0.991 -5.637 0.991 -5.637 0.098 81.93
4700 0.102 81.809 0.991 -5.845 0.991 -5.845 0.102 81.809
4750 0.105 81.682 0.99 -6.051 0.99 -6.051 0.105 81.682
4800 0.109 81.552 0.99 -6.256 0.99 -6.256 0.109 81.552
4850 0.113 81.418 0.989 -6.459 0.989 -6.459 0.113 81.418
4900 0.116 81.28 0.989 -6.66 0.989 -6.66 0.116 81.28
4950 0.12 81.14 0.989 -6.86 0.989 -6.86 0.12 81.14
5000 0.123 80.998 0.988 -7.058 0.988 -7.058 0.123 80.998
5050 0.126 80.854 0.988 -7.255 0.988 -7.255 0.126 80.854
5100 0.13 80.708 0.987 -7.451 0.987 -7.451 0.13 80.708
5150 0.133 80.561 0.987 -7.645 0.987 -7.645 0.133 80.561
5200 0.136 80.412 0.986 -7.838 0.986 -7.838 0.136 80.412
5250 0.14 80.262 0.986 -8.029 0.986 -8.029 0.14 80.262
5300 0.143 80.112 0.986 -8.219 0.986 -8.219 0.143 80.112
5350 0.146 79.96 0.985 -8.408 0.985 -8.408 0.146 79.96
5400 0.15 79.808 0.985 -8.596 0.985 -8.596 0.15 79.808
5450 0.153 79.655 0.984 -8.782 0.984 -8.782 0.153 79.655
5500 0.156 79.502 0.984 -8.968 0.984 -8.968 0.156 79.502
5550 0.159 79.349 0.983 -9.152 0.983 -9.152 0.159 79.349
5600 0.162 79.195 0.983 -9.335 0.983 -9.335 0.162 79.195
5650 0.165 79.041 0.982 -9.517 0.982 -9.517 0.165 79.041
5700 0.169 78.887 0.982 -9.698 0.982 -9.698 0.169 78.887
5750 0.172 78.733 0.981 -9.878 0.981 -9.878 0.172 78.733
5800 0.175 78.579 0.98 -10.057 0.98 -10.057 0.175 78.579
5850 0.178 78.425 0.98 -10.235 0.98 -10.235 0.178 78.425
5900 0.181 78.271 0.979 -10.412 0.979 -10.412 0.181 78.271
5950 0.184 78.117 0.979 -10.588 0.979 -10.588 0.184 78.117
6000 0.187 77.963 0.978 -10.762 0.978 -10.762 0.187 77.963
6050 0.19 77.809 0.978 -10.937 0.978 -10.937 0.19 77.809
6100 0.193 77.655 0.977 -11.11 0.977 -11.11 0.193 77.655
6150 0.196 77.502 0.977 -11.282 0.977 -11.282 0.196 77.502
6200 0.199 77.349 0.976 -11.453 0.976 -11.453 0.199 77.349
6250 0.202 77.196 0.975 -11.624 0.975 -11.624 0.202 77.196
6300 0.204 77.043 0.975 -11.794 0.975 -11.794 0.204 77.043
6350 0.207 76.891 0.974 -11.962 0.974 -11.962 0.207 76.891
6400 0.21 76.739 0.974 -12.13 0.974 -12.13 0.21 76.739
6450 0.213 76.587 0.973 -12.298 0.973 -12.298 0.213 76.587
6500 0.216 76.435 0.972 -12.464 0.972 -12.464 0.216 76.435
6550 0.219 76.284 0.972 -12.63 0.972 -12.63 0.219 76.284
6600 0.221 76.133 0.971 -12.795 0.971 -12.795 0.221 76.133
6650 0.224 75.983 0.97 -12.959 0.97 -12.959 0.224 75.983
6700 0.227 75.833 0.97 -13.122 0.97 -13.122 0.227 75.833
6750 0.23 75.683 0.969 -13.285 0.969 -13.285 0.23 75.683
6800 0.233 75.533 0.968 -13.447 0.968 -13.447 0.233 75.533
6850 0.235 75.384 0.968 -13.608 0.968 -13.608 0.235 75.384
6900 0.238 75.235 0.967 -13.769 0.967 -13.769 0.238 75.235
6950 0.241 75.087 0.966 -13.928 0.966 -13.928 0.241 75.087
7000 0.243 74.939 0.966 -14.088 0.966 -14.088 0.243 74.939
7050 0.246 74.791 0.965 -14.246 0.965 -14.246 0.246 74.791
7100 0.249 74.644 0.964 -14.404 0.964 -14.404 0.249 74.644
7150 0.251 74.497 0.964 -14.561 0.964 -14.561 0.251 74.497
7200 0.254 74.351 0.963 -14.718 0.963 -14.718 0.254 74.351
7250 0.257 74.205 0.962 -14.874 0.962 -14.874 0.257 74.205
7300 0.259 74.059 0.962 -15.029 0.962 -15.029 0.259 74.059
7350 0.262 73.913 0.961 -15.184 0.961 -15.184 0.262 73.913
7400 0.265 73.768 0.96 -15.338 0.96 -15.338 0.265 73.768
7450 0.267 73.624 0.96 -15.491 0.96 -15.491 0.267 73.624
7500 0.27 73.48 0.959 -15.644 0.959 -15.644 0.27 73.48
7550 0.272 73.336 0.958 -15.797 0.958 -15.797 0.272 73.336
7600 0.275 73.192 0.957 -15.948 0.957 -15.948 0.275 73.192
7650 0.277 73.049 0.957 -16.1 0.957 -16.1 0.277 73.049
7700 0.28 72.907 0.956 -16.25 0.956 -16.25 0.28 72.907
7750 0.282 72.764 0.955 -16.4 0.955 -16.4 0.282 72.764
7800 0.285 72.623 0.954 -16.55 0.954 -16.55 0.285 72.623
7850 0.287 72.481 0.954 -16.699 0.954 -16.699 0.287 72.481
7900 0.29 72.34 0.953 -16.847 0.953 -16.847 0.29 72.34
7950 0.292 72.199 0.952 -16.995 0.952 -16.995 0.292 72.199
8000 0.295 72.059 0.951 -17.142 0.951 -17.142 0.295 72.059
8050 0.297 71.919 0.951 -17.289 0.951 -17.289 0.297 71.919
8100 0.3 71.779 0.95 -17.435 0.95 -17.435 0.3 71.779
8150 0.302 71.64 0.949 -17.581 0.949 -17.581 0.302 71.64
8200 0.305 71.501 0.948 -17.727 0.948 -17.727 0.305 71.501
8250 0.307 71.363 0.948 -17.871 0.948 -17.871 0.307 71.363
8300 0.309 71.225 0.947 -18.016 0.947 -18.016 0.309 71.225
8350 0.312 71.087 0.946 -18.159 0.946 -18.159 0.312 71.087
8400 0.314 70.95 0.945 -18.303 0.945 -18.303 0.314 70.95
8450 0.316 70.813 0.945 -18.446 0.945 -18.446 0.316 70.813
8500 0.319 70.676 0.944 -18.588 0.944 -18.588 0.319 70.676
8550 0.321 70.54 0.943 -18.73 0.943 -18.73 0.321 70.54
8600 0.323 70.404 0.942 -18.871 0.942 -18.871 0.323 70.404
8650 0.326 70.268 0.941 -19.012 0.941 -19.012 0.326 70.268
8700 0.328 70.133 0.941 -19.153 0.941 -19.153 0.328 70.133
8750 0.33 69.999 0.94 -19.293 0.94 -19.293 0.33 69.999
8800 0.333 69.864 0.939 -19.432 0.939 -19.432 0.333 69.864
8850 0.335 69.73 0.938 -19.571 0.938 -19.571 0.335 69.73
8900 0.337 69.596 0.937 -19.71 0.937 -19.71 0.337 69.596
8950 0.34 69.463 0.937 -19.848 0.937 -19.848 0.34 69.463
9000 0.342 69.33 0.936 -19.986 0.936 -19.986 0.342 69.33
9050 0.344 69.198 0.935 -20.123 0.935 -20.123 0.344 69.198
9100 0.346 69.065 0.934 -20.26 0.934 -20.26 0.346 69.065
9150 0.349 68.934 0.933 -20.397 0.933 -20.397 0.349 68.934
9200 0.351 68.802 0.932 -20.533 0.932 -20.533 0.351 68.802
9250 0.353 68.671 0.932 -20.668 0.932 -20.668 0.353 68.671
9300 0.355 68.54 0.931 -20.804 0.931 -20.804 0.355 68.54
9350 0.357 68.41 0.93 -20.938 0.93 -20.938 0.357 68.41
9400 0.36 68.279 0.929 -21.073 0.929 -21.073 0.36 68.279
9450 0.362 68.15 0.928 -21.207 0.928 -21.207 0.362 68.15
9500 0.364 68.02 0.927 -21.34 0.927 -21.34 0.364 68.02
9550 0.366 67.891 0.927 -21.473 0.927 -21.473 0.366 67.891
9600 0.368 67.762 0.926 -21.606 0.926 -21.606 0.368 67.762
9650 0.37 67.634 0.925 -21.739 0.925 -21.739 0.37 67.634
9700 0.373 67.506 0.924 -21.87 0.924 -21.87 0.373 67.506
9750 0.375 67.378 0.923 -22.002 0.923 -22.002 0.375 67.378
9800 0.377 67.251 0.922 -22.133 0.922 -22.133 0.377 67.251
9850 0.379 67.124 0.921 -22.264 0.921 -22.264 0.379 67.124
9900 0.381 66.997 0.921 -22.394 0.921 -22.394 0.381 66.997
9950 0.383 66.871 0.92 -22.524 0.92 -22.524 0.383 66.871
10000 0.385 66.745 0.919 -22.654 0.919 -22.654 0.385 66.745
10050 0.387 66.619 0.918 -22.783 0.918 -22.783 0.387 66.619
10100 0.389 66.494 0.917 -22.912 0.917 -22.912 0.389 66.494
10150 0.391 66.369 0.916 -23.04 0.916 -23.04 0.391 66.369
10200 0.393 66.244 0.915 -23.168 0.915 -23.168 0.393 66.244
10250 0.396 66.12 0.914 -23.296 0.914 -23.296 0.396 66.12
10300 0.398 65.995 0.914 -23.423 0.914 -23.423 0.398 65.995
10350 0.4 65.872 0.913 -23.55 0.913 -23.55 0.4 65.872
10400 0.402 65.748 0.912 -23.677 0.912 -23.677 0.402 65.748
10450 0.404 65.625 0.911 -23.803 0.911 -23.803 0.404 65.625
10500 0.406 65.503 0.91 -23.929 0.91 -23.929 0.406 65.503
10550 0.408 65.38 0.909 -24.055 0.909 -24.055 0.408 65.38
10600 0.41 65.258 0.908 -24.18 0.908 -24.18 0.41 65.258
10650 0.412 65.136 0.907 -24.305 0.907 -24.305 0.412 65.136
10700 0.414 65.015 0.906 -24.429 0.906 -24.429 0.414 65.015
10750 0.416 64.894 0.906 -24.553 0.906 -24.553 0.416 64.894
10800 0.418 64.773 0.905 -24.677 0.905 -24.677 0.418 64.773
10850 0.419 64.652 0.904 -24.8 0.904 -24.8 0.419 64.652
10900 0.421 64.532 0.903 -24.923 0.903 -24.923 0.421 64.532
10950 0.423 64.412 0.902 -25.046 0.902 -25.046 0.423 64.412
11000 0.425 64.293 0.901 -25.168 0.901 -25.168 0.425 64.293
11050 0.427 64.173 0.9 -25.29 0.9 -25.29 0.427 64.173
11100 0.429 64.054 0.899 -25.412 0.899 -25.412 0.429 64.054
11150 0.431 63.936 0.898 -25.533 0.898 -25.533 0.431 63.936
11200 0.433 63.817 0.897 -25.654 0.897 -25.654 0.433 63.817
11250 0.435 63.699 0.897 -25.775 0.897 -25.775 0.435 63.699
11300 0.437 63.582 0.896 -25.895 0.896 -25.895 0.437 63.582
11350 0.439 63.464 0.895 -26.015 0.895 -26.015 0.439 63.464
11400 0.44 63.347 0.894 -26.134 0.894 -26.134 0.44 63.347
11450 0.442 63.23 0.893 -26.254 0.893 -26.254 0.442 63.23
11500 0.444 63.114 0.892 -26.373 0.892 -26.373 0.444 63.114
11550 0.446 62.998 0.891 -26.491 0.891 -26.491 0.446 62.998
11600 0.448 62.882 0.89 -26.609 0.89 -26.609 0.448 62.882
11650 0.45 62.766 0.889 -26.727 0.889 -26.727 0.45 62.766
11700 0.452 62.651 0.888 -26.845 0.888 -26.845 0.452 62.651
11750 0.453 62.536 0.887 -26.962 0.887 -26.962 0.453 62.536
11800 0.455 62.421 0.886 -27.079 0.886 -27.079 0.455 62.421
11850 0.457 62.307 0.885 -27.196 0.885 -27.196 0.457 62.307
11900 0.459 62.193 0.885 -27.312 0.885 -27.312 0.459 62.193
11950 0.461 62.079 0.884 -27.428 0.884 -27.428 0.461 62.079
12000 0.462 61.965 0.883 -27.544 0.883 -27.544 0.462 61.965
12050 0.464 61.852 0.882 -27.659 0.882 -27.659 0.464 61.852
12100 0.466 61.739 0.881 -27.774 0.881 -27.774 0.466 61.739
12150 0.468 61.627 0.88 -27.889 0.88 -27.889 0.468 61.627
12200 0.47 61.514 0.879 -28.004 0.879 -28.004 0.47 61.514
12250 0.471 61.402 0.878 -28.118 0.878 -28.118 0.471 61.402
12300 0.473 61.291 0.877 -28.231 0.877 -28.231 0.473 61.291
12350 0.475 61.179 0.876 -28.345 0.876 -28.345 0.475 61.179
12400 0.477 61.068 0.875 -28.458 0.875 -28.458 0.477 61.068
12450 0.478 60.957 0.874 -28.571 0.874 -28.571 0.478 60.957
12500 0.48 60.846 0.873 -28.684 0.873 -28.684 0.48 60.846
12550 0.482 60.736 0.872 -28.796 0.872 -28.796 0.482 60.736
12600 0.483 60.626 0.871 -28.908 0.871 -28.908 0.483 60.626
12650 0.485 60.516 0.871 -29.019 0.871 -29.019 0.485 60.516
12700 0.487 60.407 0.87 -29.131 0.87 -29.131 0.487 60.407
12750 0.489 60.298 0.869 -29.242 0.869 -29.242 0.489 60.298
12800 0.49 60.189 0.868 -29.353 0.868 -29.353 0.49 60.189
12850 0.492 60.08 0.867 -29.463 0.867 -29.463 0.492 60.08
12900 0.494 59.972 0.866 -29.573 0.866 -29.573 0.494 59.972
12950 0.495 59.864 0.865 -29.683 0.865 -29.683 0.495 59.864
13000 0.497 59.756 0.864 -29.793 0.864 -29.793 0.497 59.756
13050 0.499 59.649 0.863 -29.902 0.863 -29.902 0.499 59.649
13100 0.5 59.541 0.862 -30.011 0.862 -30.011 0.5 59.541
13150 0.502 59.434 0.861 -30.12 0.861 -30.12 0.502 59.434
13200 0.503 59.328 0.86 -30.228 0.86 -30.228 0.503 59.328
13250 0.505 59.221 0.859 -30.336 0.859 -30.336 0.505 59.221
13300 0.507 59.115 0.858 -30.444 0.858 -30.444 0.507 59.115
13350 0.508 59.009 0.857 -30.551 0.857 -30.551 0.508 59.009
13400 0.51 58.904 0.856 -30.659 0.856 -30.659 0.51 58.904
13450 0.512 58.798 0.855 -30.766 0.855 -30.766 0.512 58.798
13500 0.513 58.693 0.854 -30.872 0.854 -30.872 0.513 58.693
13550 0.515 58.589 0.853 -30.979 0.853 -30.979 0.515 58.589
13600 0.516 58.484 0.853 -31.085 0.853 -31.085 0.516 58.484
13650 0.518 58.38 0.852 -31.19 0.852 -31.19 0.518 58.38
13700 0.519 58.276 0.851 -31.296 0.851 -31.296 0.519 58.276
13750 0.521 58.172 0.85 -31.401 0.85 -31.401 0.521 58.172
13800 0.523 58.069 0.849 -31.506 0.849 -31.506 0.523 58.069
13850 0.524 57.966 0.848 -31.611 0.848 -31.611 0.524 57.966
13900 0.526 57.863 0.847 -31.715 0.847 -31.715 0.526 57.863
13950 0.527 57.76 0.846 -31.819 0.846 -31.819 0.527 57.76
14000 0.529 57.658 0.845 -31.923 0.845 -31.923 0.529 57.658
14050 0.53 57.556 0.844 -32.027 0.844 -32.027 0.53 57.556
14100 0.532 57.454 0.843 -32.13 0.843 -32.13 0.532 57.454
14150 0.533 57.353 0.842 -32.233 0.842 -32.233 0.533 57.353
14200 0.535 57.251 0.841 -32.336 0.841 -32.336 0.535 57.251
14250 0.536 57.15 0.84 -32.438 0.84 -32.438 0.536 57.15
14300 0.538 57.049 0.839 -32.54 0.839 -32.54 0.538 57.049
14350 0.539 56.949 0.838 -32.642 0.838 -32.642 0.539 56.949
14400 0.541 56.849 0.837 -32.744 0.837 -32.744 0.541 56.849
14450 0.542 56.749 0.836 -32.845 0.836 -32.845 0.542 56.749
14500 0.544 56.649 0.835 -32.946 0.835 -32.946 0.544 56.649
14550 0.545 56.55 0.834 -33.047 0.834 -33.047 0.545 56.55
14600 0.547 56.45 0.833 -33.148 0.833 -33.148 0.547 56.45
14650 0.548 56.351 0.832 -33.248 0.832 -33.248 0.548 56.351
14700 0.55 56.253 0.832 -33.348 0.832 -33.348 0.55 56.253
14750 0.551 56.154 0.831 -33.448 0.831 -33.448 0.551 56.154
14800 0.553 56.056 0.83 -33.547 0.83 -33.547 0.553 56.056
14850 0.554 55.958 0.829 -33.647 0.829 -33.647 0.554 55.958
14900 0.556 55.86 0.828 -33.746 0.828 -33.746 0.556 55.86
14950 0.557 55.763 0.827 -33.844 0.827 -33.844 0.557 55.763
15000 0.558 55.666 0.826 -33.943 0.826 -33.943 0.558 55.666
15050 0.56 55.569 0.825 -34.041 0.825 -34.041 0.56 55.569
15100 0.561 55.472 0.824 -34.139 0.824 -34.139 0.561 55.472
15150 0.563 55.376 0.823 -34.237 0.823 -34.237 0.563 55.376
15200 0.564 55.279 0.822 -34.334 0.822 -34.334 0.564 55.279
15250 0.565 55.184 0.821 -34.431 0.821 -34.431 0.565 55.184
15300 0.567 55.088 0.82 -34.528 0.82 -34.528 0.567 55.088
15350 0.568 54.992 0.819 -34.625 0.819 -34.625 0.568 54.992
15400 0.57 54.897 0.818 -34.721 0.818 -34.721 0.57 54.897
15450 0.571 54.802 0.817 -34.817 0.817 -34.817 0.571 54.802
15500 0.572 54.708 0.816 -34.913 0.816 -34.913 0.572 54.708
15550 0.574 54.613 0.815 -35.009 0.815 -35.009 0.574 54.613
15600 0.575 54.519 0.814 -35.104 0.814 -35.104 0.575 54.519
15650 0.576 54.425 0.813 -35.199 0.813 -35.199 0.576 54.425
15700 0.578 54.331 0.812 -35.294 0.812 -35.294 0.578 54.331
15750 0.579 54.238 0.811 -35.389 0.811 -35.389 0.579 54.238
15800 0.58 54.144 0.811 -35.483 0.811 -35.483 0.58 54.144
15850 0.582 54.051 0.81 -35.577 0.81 -35.577 0.582 54.051
15900 0.583 53.959 0.809 -35.671 0.809 -35.671 0.583 53.959
15950 0.584 53.866 0.808 -35.765 0.808 -35.765 0.584 53.866
16000 0.586 53.774 0.807 -35.858 0.807 -35.858 0.586 53.774
16050 0.587 53.682 0.806 -35.951 0.806 -35.951 0.587 53.682
16100 0.588 53.59 0.805 -36.044 0.805 -36.044 0.588 53.59
16150 0.59 53.498 0.804 -36.137 0.804 -36.137 0.59 53.498
16200 0.591 53.407 0.803 -36.229 0.803 -36.229 0.591 53.407
16250 0.592 53.316 0.802 -36.321 0.802 -36.321 0.592 53.316
16300 0.594 53.225 0.801 -36.413 0.801 -36.413 0.594 53.225
16350 0.595 53.134 0.8 -36.505 0.8 -36.505 0.595 53.134
16400 0.596 53.044 0.799 -36.596 0.799 -36.596 0.596 53.044
16450 0.597 52.954 0.798 -36.688 0.798 -36.688 0.597 52.954
16500 0.599 52.864 0.797 -36.779 0.797 -36.779 0.599 52.864
16550 0.6 52.774 0.796 -36.869 0.796 -36.869 0.6 52.774
16600 0.601 52.685 0.795 -36.96 0.795 -36.96 0.601 52.685
16650 0.603 52.595 0.794 -37.05 0.794 -37.05 0.603 52.595
16700 0.604 52.506 0.793 -37.14 0.793 -37.14 0.604 52.506
16750 0.605 52.417 0.792 -37.23 0.792 -37.23 0.605 52.417
16800 0.606 52.329 0.792 -37.319 0.792 -37.319 0.606 52.329
16850 0.608 52.241 0.791 -37.409 0.791 -37.409 0.608 52.241
16900 0.609 52.152 0.79 -37.498 0.79 -37.498 0.609 52.152
16950 0.61 52.065 0.789 -37.587 0.789 -37.587 0.61 52.065
