! AVX Thin Film Operation		Date: April 2012 
! Description: Accu-P® Series, Thin Film, SMD, RF Capacitor
! Part Number: 08051J3R9ABTTR					
!	100	MHz	-	10.05	GHz			
!	Serial	Measurements						
!								
#	MHZ	S	MA	R	50			
!	S11	S21	S12	S22				
!	dB	Phase	dB	Phase	dB	Phase	dB	Phase
100	0.971	-13.783	0.238	76.196	0.238	76.196	0.971	-13.783
102.469	0.97	-14.111	0.244	75.868	0.244	75.868	0.97	-14.111
104.939	0.968	-14.437	0.249	75.54	0.249	75.54	0.968	-14.437
107.408	0.967	-14.763	0.255	75.214	0.255	75.214	0.967	-14.763
109.878	0.965	-15.088	0.26	74.889	0.26	74.889	0.965	-15.088
112.347	0.964	-15.412	0.266	74.564	0.266	74.564	0.964	-15.412
114.817	0.962	-15.735	0.271	74.24	0.271	74.24	0.962	-15.735
117.286	0.961	-16.057	0.277	73.918	0.277	73.918	0.961	-16.057
119.756	0.959	-16.379	0.282	73.596	0.282	73.596	0.959	-16.379
122.225	0.958	-16.699	0.287	73.275	0.287	73.275	0.958	-16.699
124.694	0.956	-17.018	0.293	72.956	0.293	72.956	0.956	-17.018
127.164	0.954	-17.336	0.298	72.637	0.298	72.637	0.954	-17.336
129.633	0.953	-17.653	0.303	72.32	0.303	72.32	0.953	-17.653
132.103	0.951	-17.969	0.309	72.003	0.309	72.003	0.951	-17.969
134.572	0.949	-18.284	0.314	71.688	0.314	71.688	0.949	-18.284
137.042	0.948	-18.598	0.319	71.373	0.319	71.373	0.948	-18.598
139.511	0.946	-18.911	0.324	71.06	0.324	71.06	0.946	-18.911
141.981	0.944	-19.222	0.329	70.748	0.329	70.748	0.944	-19.222
144.45	0.942	-19.533	0.334	70.437	0.334	70.437	0.942	-19.533
146.919	0.94	-19.842	0.339	70.127	0.339	70.127	0.94	-19.842
149.389	0.939	-20.151	0.344	69.818	0.344	69.818	0.939	-20.151
151.858	0.937	-20.458	0.35	69.51	0.35	69.51	0.937	-20.458
154.328	0.935	-20.764	0.355	69.203	0.355	69.203	0.935	-20.764
156.797	0.933	-21.069	0.359	68.898	0.359	68.898	0.933	-21.069
159.267	0.931	-21.373	0.364	68.594	0.364	68.594	0.931	-21.373
161.736	0.929	-21.675	0.369	68.291	0.369	68.291	0.929	-21.675
164.206	0.927	-21.977	0.374	67.989	0.374	67.989	0.927	-21.977
166.675	0.925	-22.277	0.379	67.688	0.379	67.688	0.925	-22.277
169.144	0.923	-22.576	0.384	67.388	0.384	67.388	0.923	-22.576
171.614	0.921	-22.873	0.389	67.09	0.389	67.09	0.921	-22.873
174.083	0.919	-23.17	0.393	66.793	0.393	66.793	0.919	-23.17
176.553	0.917	-23.465	0.398	66.497	0.398	66.497	0.917	-23.465
179.022	0.915	-23.759	0.403	66.203	0.403	66.203	0.915	-23.759
181.492	0.913	-24.052	0.408	65.909	0.408	65.909	0.913	-24.052
183.961	0.911	-24.344	0.412	65.617	0.412	65.617	0.911	-24.344
186.431	0.909	-24.634	0.417	65.326	0.417	65.326	0.909	-24.634
188.9	0.907	-24.923	0.421	65.037	0.421	65.037	0.907	-24.923
191.369	0.904	-25.211	0.426	64.748	0.426	64.748	0.904	-25.211
193.839	0.902	-25.498	0.43	64.461	0.43	64.461	0.902	-25.498
196.308	0.9	-25.783	0.435	64.175	0.435	64.175	0.9	-25.783
198.778	0.898	-26.067	0.439	63.891	0.439	63.891	0.898	-26.067
201.247	0.896	-26.35	0.444	63.608	0.444	63.608	0.896	-26.35
203.717	0.894	-26.631	0.448	63.326	0.448	63.326	0.894	-26.631
206.186	0.891	-26.911	0.453	63.045	0.453	63.045	0.891	-26.911
208.656	0.889	-27.19	0.457	62.766	0.457	62.766	0.889	-27.19
211.125	0.887	-27.468	0.461	62.488	0.461	62.488	0.887	-27.468
213.594	0.885	-27.744	0.466	62.211	0.466	62.211	0.885	-27.744
216.064	0.882	-28.019	0.47	61.935	0.47	61.935	0.882	-28.019
218.533	0.88	-28.293	0.474	61.661	0.474	61.661	0.88	-28.293
221.003	0.878	-28.565	0.478	61.388	0.478	61.388	0.878	-28.565
223.472	0.876	-28.836	0.482	61.117	0.482	61.117	0.876	-28.836
225.942	0.873	-29.106	0.486	60.846	0.486	60.846	0.873	-29.106
228.411	0.871	-29.374	0.491	60.577	0.491	60.577	0.871	-29.374
230.881	0.869	-29.641	0.495	60.31	0.495	60.31	0.869	-29.641
233.35	0.866	-29.907	0.499	60.043	0.499	60.043	0.866	-29.907
235.819	0.864	-30.172	0.503	59.778	0.503	59.778	0.864	-30.172
238.289	0.862	-30.435	0.507	59.515	0.507	59.515	0.862	-30.435
240.758	0.859	-30.697	0.51	59.252	0.51	59.252	0.859	-30.697
243.228	0.857	-30.957	0.514	58.991	0.514	58.991	0.857	-30.957
245.697	0.855	-31.217	0.518	58.731	0.518	58.731	0.855	-31.217
248.167	0.852	-31.474	0.522	58.473	0.522	58.473	0.852	-31.474
250.636	0.85	-31.731	0.526	58.216	0.526	58.216	0.85	-31.731
253.106	0.848	-31.986	0.53	57.96	0.53	57.96	0.848	-31.986
255.575	0.845	-32.24	0.533	57.705	0.533	57.705	0.845	-32.24
258.044	0.843	-32.493	0.537	57.452	0.537	57.452	0.843	-32.493
260.514	0.841	-32.744	0.541	57.2	0.541	57.2	0.841	-32.744
262.983	0.838	-32.995	0.545	56.95	0.545	56.95	0.838	-32.995
265.453	0.836	-33.243	0.548	56.7	0.548	56.7	0.836	-33.243
267.922	0.833	-33.491	0.552	56.452	0.552	56.452	0.833	-33.491
270.392	0.831	-33.737	0.555	56.206	0.555	56.206	0.831	-33.737
272.861	0.829	-33.982	0.559	55.96	0.559	55.96	0.829	-33.982
275.331	0.826	-34.225	0.562	55.716	0.562	55.716	0.826	-34.225
277.8	0.824	-34.468	0.566	55.473	0.566	55.473	0.824	-34.468
280.269	0.821	-34.709	0.569	55.232	0.569	55.232	0.821	-34.709
282.739	0.819	-34.948	0.573	54.991	0.573	54.991	0.819	-34.948
285.208	0.817	-35.187	0.576	54.753	0.576	54.753	0.817	-35.187
287.678	0.814	-35.424	0.58	54.515	0.58	54.515	0.814	-35.424
290.147	0.812	-35.66	0.583	54.278	0.583	54.278	0.812	-35.66
292.617	0.809	-35.894	0.586	54.043	0.586	54.043	0.809	-35.894
295.086	0.807	-36.128	0.59	53.81	0.59	53.81	0.807	-36.128
297.556	0.805	-36.36	0.593	53.577	0.593	53.577	0.805	-36.36
300.025	0.802	-36.59	0.596	53.346	0.596	53.346	0.802	-36.59
302.494	0.8	-36.82	0.599	53.116	0.599	53.116	0.8	-36.82
304.964	0.797	-37.048	0.602	52.887	0.602	52.887	0.797	-37.048
307.433	0.795	-37.275	0.606	52.659	0.606	52.659	0.795	-37.275
309.903	0.793	-37.501	0.609	52.433	0.609	52.433	0.793	-37.501
312.372	0.79	-37.725	0.612	52.208	0.612	52.208	0.79	-37.725
314.842	0.788	-37.949	0.615	51.984	0.615	51.984	0.788	-37.949
317.311	0.785	-38.171	0.618	51.762	0.618	51.762	0.785	-38.171
319.78	0.783	-38.391	0.621	51.54	0.621	51.54	0.783	-38.391
322.25	0.781	-38.611	0.624	51.32	0.624	51.32	0.781	-38.611
324.719	0.778	-38.829	0.627	51.101	0.627	51.101	0.778	-38.829
327.189	0.776	-39.046	0.63	50.884	0.63	50.884	0.776	-39.046
329.658	0.773	-39.262	0.633	50.667	0.633	50.667	0.773	-39.262
332.128	0.771	-39.477	0.636	50.452	0.636	50.452	0.771	-39.477
334.597	0.769	-39.691	0.639	50.238	0.639	50.238	0.769	-39.691
337.067	0.766	-39.903	0.641	50.025	0.641	50.025	0.766	-39.903
339.536	0.764	-40.114	0.644	49.814	0.644	49.814	0.764	-40.114
342.005	0.762	-40.324	0.647	49.603	0.647	49.603	0.762	-40.324
344.475	0.759	-40.533	0.65	49.394	0.65	49.394	0.759	-40.533
346.944	0.757	-40.74	0.653	49.186	0.653	49.186	0.757	-40.74
349.414	0.754	-40.946	0.655	48.979	0.655	48.979	0.754	-40.946
351.883	0.752	-41.152	0.658	48.773	0.658	48.773	0.752	-41.152
354.353	0.75	-41.356	0.661	48.569	0.661	48.569	0.75	-41.356
356.822	0.747	-41.559	0.663	48.365	0.663	48.365	0.747	-41.559
359.292	0.745	-41.76	0.666	48.163	0.666	48.163	0.745	-41.76
361.761	0.743	-41.961	0.669	47.962	0.669	47.962	0.743	-41.961
364.23	0.74	-42.16	0.671	47.762	0.671	47.762	0.74	-42.16
366.7	0.738	-42.359	0.674	47.563	0.674	47.563	0.738	-42.359
369.169	0.736	-42.556	0.676	47.365	0.676	47.365	0.736	-42.556
371.639	0.733	-42.752	0.679	47.168	0.679	47.168	0.733	-42.752
374.108	0.731	-42.947	0.681	46.973	0.681	46.973	0.731	-42.947
376.578	0.729	-43.141	0.684	46.779	0.684	46.779	0.729	-43.141
379.047	0.726	-43.333	0.686	46.585	0.686	46.585	0.726	-43.333
381.517	0.724	-43.525	0.689	46.393	0.689	46.393	0.724	-43.525
383.986	0.722	-43.716	0.691	46.202	0.691	46.202	0.722	-43.716
386.455	0.719	-43.905	0.693	46.012	0.693	46.012	0.719	-43.905
388.925	0.717	-44.093	0.696	45.823	0.696	45.823	0.717	-44.093
391.394	0.715	-44.281	0.698	45.635	0.698	45.635	0.715	-44.281
393.864	0.713	-44.467	0.7	45.449	0.7	45.449	0.713	-44.467
396.333	0.71	-44.652	0.703	45.263	0.703	45.263	0.71	-44.652
398.803	0.708	-44.836	0.705	45.078	0.705	45.078	0.708	-44.836
401.272	0.706	-45.019	0.707	44.895	0.707	44.895	0.706	-45.019
403.742	0.704	-45.201	0.71	44.712	0.71	44.712	0.704	-45.201
406.211	0.701	-45.382	0.712	44.531	0.712	44.531	0.701	-45.382
408.68	0.699	-45.562	0.714	44.35	0.714	44.35	0.699	-45.562
411.15	0.697	-45.741	0.716	44.171	0.716	44.171	0.697	-45.741
413.619	0.695	-45.919	0.718	43.992	0.718	43.992	0.695	-45.919
416.089	0.692	-46.096	0.721	43.815	0.721	43.815	0.692	-46.096
418.558	0.69	-46.272	0.723	43.638	0.723	43.638	0.69	-46.272
421.028	0.688	-46.446	0.725	43.463	0.725	43.463	0.688	-46.446
423.497	0.686	-46.62	0.727	43.289	0.727	43.289	0.686	-46.62
425.967	0.683	-46.793	0.729	43.115	0.729	43.115	0.683	-46.793
428.436	0.681	-46.965	0.731	42.943	0.731	42.943	0.681	-46.965
430.905	0.679	-47.136	0.733	42.771	0.733	42.771	0.679	-47.136
433.375	0.677	-47.306	0.735	42.601	0.735	42.601	0.677	-47.306
435.844	0.675	-47.475	0.737	42.431	0.737	42.431	0.675	-47.475
438.314	0.673	-47.643	0.739	42.263	0.739	42.263	0.673	-47.643
440.783	0.67	-47.81	0.741	42.095	0.741	42.095	0.67	-47.81
443.253	0.668	-47.976	0.743	41.929	0.743	41.929	0.668	-47.976
445.722	0.666	-48.141	0.745	41.763	0.745	41.763	0.666	-48.141
448.192	0.664	-48.305	0.747	41.598	0.747	41.598	0.664	-48.305
450.661	0.662	-48.468	0.749	41.434	0.749	41.434	0.662	-48.468
453.13	0.66	-48.631	0.75	41.271	0.75	41.271	0.66	-48.631
455.6	0.658	-48.792	0.752	41.11	0.752	41.11	0.658	-48.792
458.069	0.655	-48.953	0.754	40.948	0.754	40.948	0.655	-48.953
460.539	0.653	-49.112	0.756	40.788	0.756	40.788	0.653	-49.112
463.008	0.651	-49.271	0.758	40.629	0.758	40.629	0.651	-49.271
465.478	0.649	-49.429	0.76	40.471	0.76	40.471	0.649	-49.429
467.947	0.647	-49.586	0.761	40.313	0.761	40.313	0.647	-49.586
470.417	0.645	-49.742	0.763	40.157	0.763	40.157	0.645	-49.742
472.886	0.643	-49.897	0.765	40.001	0.765	40.001	0.643	-49.897
475.355	0.641	-50.051	0.767	39.846	0.767	39.846	0.641	-50.051
477.825	0.639	-50.204	0.768	39.692	0.768	39.692	0.639	-50.204
480.294	0.637	-50.357	0.77	39.539	0.77	39.539	0.637	-50.357
482.764	0.635	-50.508	0.772	39.387	0.772	39.387	0.635	-50.508
485.233	0.633	-50.659	0.773	39.236	0.773	39.236	0.633	-50.659
487.703	0.63	-50.809	0.775	39.085	0.775	39.085	0.63	-50.809
490.172	0.628	-50.958	0.777	38.935	0.777	38.935	0.628	-50.958
492.642	0.626	-51.107	0.778	38.787	0.778	38.787	0.626	-51.107
495.111	0.624	-51.254	0.78	38.639	0.78	38.639	0.624	-51.254
497.58	0.622	-51.401	0.782	38.491	0.782	38.491	0.622	-51.401
500.05	0.62	-51.547	0.783	38.345	0.783	38.345	0.62	-51.547
502.519	0.618	-51.692	0.785	38.199	0.785	38.199	0.618	-51.692
504.989	0.616	-51.836	0.786	38.055	0.786	38.055	0.616	-51.836
507.458	0.614	-51.979	0.788	37.911	0.788	37.911	0.614	-51.979
509.928	0.612	-52.122	0.789	37.767	0.789	37.767	0.612	-52.122
512.397	0.61	-52.264	0.791	37.625	0.791	37.625	0.61	-52.264
514.867	0.609	-52.405	0.792	37.484	0.792	37.484	0.609	-52.405
517.336	0.607	-52.545	0.794	37.343	0.794	37.343	0.607	-52.545
519.805	0.605	-52.684	0.795	37.203	0.795	37.203	0.605	-52.684
522.275	0.603	-52.823	0.797	37.063	0.797	37.063	0.603	-52.823
524.744	0.601	-52.961	0.798	36.925	0.798	36.925	0.601	-52.961
527.214	0.599	-53.098	0.8	36.787	0.8	36.787	0.599	-53.098
529.683	0.597	-53.234	0.801	36.65	0.801	36.65	0.597	-53.234
532.153	0.595	-53.37	0.803	36.514	0.803	36.514	0.595	-53.37
534.622	0.593	-53.505	0.804	36.378	0.804	36.378	0.593	-53.505
537.092	0.591	-53.639	0.805	36.244	0.805	36.244	0.591	-53.639
539.561	0.589	-53.773	0.807	36.11	0.807	36.11	0.589	-53.773
542.03	0.587	-53.905	0.808	35.976	0.808	35.976	0.587	-53.905
544.5	0.586	-54.037	0.809	35.844	0.809	35.844	0.586	-54.037
546.969	0.584	-54.169	0.811	35.712	0.811	35.712	0.584	-54.169
549.439	0.582	-54.299	0.812	35.581	0.812	35.581	0.582	-54.299
551.908	0.58	-54.429	0.813	35.45	0.813	35.45	0.58	-54.429
554.378	0.578	-54.558	0.815	35.321	0.815	35.321	0.578	-54.558
556.847	0.576	-54.687	0.816	35.192	0.816	35.192	0.576	-54.687
559.317	0.574	-54.814	0.817	35.063	0.817	35.063	0.574	-54.814
561.786	0.573	-54.941	0.819	34.936	0.819	34.936	0.573	-54.941
564.255	0.571	-55.068	0.82	34.809	0.82	34.809	0.571	-55.068
566.725	0.569	-55.194	0.821	34.682	0.821	34.682	0.569	-55.194
569.194	0.567	-55.319	0.822	34.557	0.822	34.557	0.567	-55.319
571.664	0.565	-55.443	0.824	34.432	0.824	34.432	0.565	-55.443
574.133	0.564	-55.567	0.825	34.308	0.825	34.308	0.564	-55.567
576.603	0.562	-55.69	0.826	34.184	0.826	34.184	0.562	-55.69
579.072	0.56	-55.812	0.827	34.061	0.827	34.061	0.56	-55.812
581.542	0.558	-55.934	0.828	33.939	0.828	33.939	0.558	-55.934
584.011	0.557	-56.055	0.83	33.817	0.83	33.817	0.557	-56.055
586.48	0.555	-56.175	0.831	33.696	0.831	33.696	0.555	-56.175
588.95	0.553	-56.295	0.832	33.576	0.832	33.576	0.553	-56.295
591.419	0.551	-56.414	0.833	33.456	0.833	33.456	0.551	-56.414
593.889	0.55	-56.533	0.834	33.337	0.834	33.337	0.55	-56.533
596.358	0.548	-56.651	0.835	33.218	0.835	33.218	0.548	-56.651
598.828	0.546	-56.768	0.836	33.1	0.836	33.1	0.546	-56.768
601.297	0.544	-56.885	0.838	32.983	0.838	32.983	0.544	-56.885
603.767	0.543	-57.001	0.839	32.866	0.839	32.866	0.543	-57.001
606.236	0.541	-57.116	0.84	32.75	0.84	32.75	0.541	-57.116
608.705	0.539	-57.231	0.841	32.635	0.841	32.635	0.539	-57.231
611.175	0.538	-57.345	0.842	32.52	0.842	32.52	0.538	-57.345
613.644	0.536	-57.459	0.843	32.406	0.843	32.406	0.536	-57.459
616.114	0.534	-57.572	0.844	32.292	0.844	32.292	0.534	-57.572
618.583	0.533	-57.684	0.845	32.179	0.845	32.179	0.533	-57.684
621.053	0.531	-57.796	0.846	32.067	0.846	32.067	0.531	-57.796
623.522	0.529	-57.908	0.847	31.955	0.847	31.955	0.529	-57.908
625.992	0.528	-58.018	0.848	31.843	0.848	31.843	0.528	-58.018
628.461	0.526	-58.128	0.849	31.733	0.849	31.733	0.526	-58.128
630.93	0.524	-58.238	0.85	31.623	0.85	31.623	0.524	-58.238
633.4	0.523	-58.347	0.851	31.513	0.851	31.513	0.523	-58.347
635.869	0.521	-58.456	0.852	31.404	0.852	31.404	0.521	-58.456
638.339	0.519	-58.563	0.853	31.295	0.853	31.295	0.519	-58.563
640.808	0.518	-58.671	0.854	31.187	0.854	31.187	0.518	-58.671
643.278	0.516	-58.778	0.855	31.08	0.855	31.08	0.516	-58.778
645.747	0.515	-58.884	0.856	30.973	0.856	30.973	0.515	-58.884
648.217	0.513	-58.99	0.857	30.867	0.857	30.867	0.513	-58.99
650.686	0.511	-59.095	0.858	30.761	0.858	30.761	0.511	-59.095
653.155	0.51	-59.199	0.859	30.656	0.859	30.656	0.51	-59.199
655.625	0.508	-59.304	0.86	30.551	0.86	30.551	0.508	-59.304
658.094	0.507	-59.407	0.861	30.447	0.861	30.447	0.507	-59.407
660.564	0.505	-59.51	0.862	30.343	0.862	30.343	0.505	-59.51
663.033	0.504	-59.613	0.863	30.24	0.863	30.24	0.504	-59.613
665.503	0.502	-59.715	0.864	30.137	0.864	30.137	0.502	-59.715
667.972	0.501	-59.816	0.864	30.035	0.864	30.035	0.501	-59.816
670.442	0.499	-59.918	0.865	29.933	0.865	29.933	0.499	-59.918
672.911	0.497	-60.018	0.866	29.832	0.866	29.832	0.497	-60.018
675.38	0.496	-60.118	0.867	29.732	0.867	29.732	0.496	-60.118
677.85	0.494	-60.218	0.868	29.631	0.868	29.631	0.494	-60.218
680.319	0.493	-60.317	0.869	29.532	0.869	29.532	0.493	-60.317
682.789	0.491	-60.415	0.87	29.433	0.87	29.433	0.491	-60.415
685.258	0.49	-60.513	0.87	29.334	0.87	29.334	0.49	-60.513
687.728	0.488	-60.611	0.871	29.236	0.871	29.236	0.488	-60.611
690.197	0.487	-60.708	0.872	29.138	0.872	29.138	0.487	-60.708
692.667	0.485	-60.805	0.873	29.041	0.873	29.041	0.485	-60.805
695.136	0.484	-60.901	0.874	28.944	0.874	28.944	0.484	-60.901
697.605	0.482	-60.996	0.875	28.848	0.875	28.848	0.482	-60.996
700.075	0.481	-61.092	0.875	28.752	0.875	28.752	0.481	-61.092
702.544	0.48	-61.186	0.876	28.657	0.876	28.657	0.48	-61.186
705.014	0.478	-61.281	0.877	28.562	0.877	28.562	0.478	-61.281
707.483	0.477	-61.375	0.878	28.467	0.878	28.467	0.477	-61.375
709.953	0.475	-61.468	0.879	28.373	0.879	28.373	0.475	-61.468
712.422	0.474	-61.561	0.879	28.28	0.879	28.28	0.474	-61.561
714.891	0.472	-61.653	0.88	28.186	0.88	28.186	0.472	-61.653
717.361	0.471	-61.745	0.881	28.094	0.881	28.094	0.471	-61.745
719.83	0.469	-61.837	0.882	28.002	0.882	28.002	0.469	-61.837
722.3	0.468	-61.928	0.882	27.91	0.882	27.91	0.468	-61.928
724.769	0.467	-62.019	0.883	27.818	0.883	27.818	0.467	-62.019
727.239	0.465	-62.109	0.884	27.728	0.884	27.728	0.465	-62.109
729.708	0.464	-62.199	0.885	27.637	0.885	27.637	0.464	-62.199
732.178	0.462	-62.288	0.885	27.547	0.885	27.547	0.462	-62.288
734.647	0.461	-62.377	0.886	27.457	0.886	27.457	0.461	-62.377
737.116	0.46	-62.466	0.887	27.368	0.887	27.368	0.46	-62.466
739.586	0.458	-62.554	0.887	27.279	0.887	27.279	0.458	-62.554
742.055	0.457	-62.642	0.888	27.191	0.888	27.191	0.457	-62.642
744.525	0.456	-62.729	0.889	27.103	0.889	27.103	0.456	-62.729
746.994	0.454	-62.816	0.89	27.015	0.89	27.015	0.454	-62.816
749.464	0.453	-62.903	0.89	26.928	0.89	26.928	0.453	-62.903
751.933	0.452	-62.989	0.891	26.842	0.891	26.842	0.452	-62.989
754.403	0.45	-63.075	0.892	26.755	0.892	26.755	0.45	-63.075
756.872	0.449	-63.16	0.892	26.669	0.892	26.669	0.449	-63.16
759.341	0.448	-63.245	0.893	26.584	0.893	26.584	0.448	-63.245
761.811	0.446	-63.329	0.894	26.498	0.894	26.498	0.446	-63.329
764.28	0.445	-63.413	0.894	26.414	0.894	26.414	0.445	-63.413
766.75	0.444	-63.497	0.895	26.329	0.895	26.329	0.444	-63.497
769.219	0.442	-63.581	0.896	26.245	0.896	26.245	0.442	-63.581
771.689	0.441	-63.664	0.896	26.162	0.896	26.162	0.441	-63.664
774.158	0.44	-63.746	0.897	26.078	0.897	26.078	0.44	-63.746
776.628	0.438	-63.828	0.897	25.996	0.897	25.996	0.438	-63.828
779.097	0.437	-63.91	0.898	25.913	0.898	25.913	0.437	-63.91
781.566	0.436	-63.992	0.899	25.831	0.899	25.831	0.436	-63.992
784.036	0.434	-64.073	0.899	25.749	0.899	25.749	0.434	-64.073
786.505	0.433	-64.153	0.9	25.668	0.9	25.668	0.433	-64.153
788.975	0.432	-64.234	0.901	25.587	0.901	25.587	0.432	-64.234
791.444	0.431	-64.314	0.901	25.506	0.901	25.506	0.431	-64.314
793.914	0.429	-64.394	0.902	25.426	0.902	25.426	0.429	-64.394
796.383	0.428	-64.473	0.902	25.346	0.902	25.346	0.428	-64.473
798.853	0.427	-64.552	0.903	25.266	0.903	25.266	0.427	-64.552
801.322	0.426	-64.63	0.904	25.187	0.904	25.187	0.426	-64.63
803.791	0.424	-64.709	0.904	25.108	0.904	25.108	0.424	-64.709
806.261	0.423	-64.786	0.905	25.03	0.905	25.03	0.423	-64.786
808.73	0.422	-64.864	0.905	24.952	0.905	24.952	0.422	-64.864
811.2	0.421	-64.941	0.906	24.874	0.906	24.874	0.421	-64.941
813.669	0.419	-65.018	0.906	24.796	0.906	24.796	0.419	-65.018
816.139	0.418	-65.094	0.907	24.719	0.907	24.719	0.418	-65.094
818.608	0.417	-65.171	0.908	24.642	0.908	24.642	0.417	-65.171
821.078	0.416	-65.246	0.908	24.566	0.908	24.566	0.416	-65.246
823.547	0.415	-65.322	0.909	24.49	0.909	24.49	0.415	-65.322
826.016	0.413	-65.397	0.909	24.414	0.909	24.414	0.413	-65.397
828.486	0.412	-65.472	0.91	24.338	0.91	24.338	0.412	-65.472
830.955	0.411	-65.546	0.91	24.263	0.91	24.263	0.411	-65.546
833.425	0.41	-65.621	0.911	24.188	0.911	24.188	0.41	-65.621
835.894	0.409	-65.694	0.911	24.114	0.911	24.114	0.409	-65.694
838.364	0.407	-65.768	0.912	24.04	0.912	24.04	0.407	-65.768
840.833	0.406	-65.841	0.912	23.966	0.912	23.966	0.406	-65.841
843.303	0.405	-65.914	0.913	23.892	0.913	23.892	0.405	-65.914
845.772	0.404	-65.987	0.913	23.819	0.913	23.819	0.404	-65.987
848.241	0.403	-66.059	0.914	23.746	0.914	23.746	0.403	-66.059
850.711	0.402	-66.131	0.914	23.673	0.914	23.673	0.402	-66.131
853.18	0.4	-66.203	0.915	23.601	0.915	23.601	0.4	-66.203
855.65	0.399	-66.274	0.915	23.529	0.915	23.529	0.399	-66.274
858.119	0.398	-66.345	0.916	23.457	0.916	23.457	0.398	-66.345
860.589	0.397	-66.416	0.916	23.386	0.916	23.386	0.397	-66.416
863.058	0.396	-66.486	0.917	23.315	0.917	23.315	0.396	-66.486
865.528	0.395	-66.556	0.917	23.244	0.917	23.244	0.395	-66.556
867.997	0.394	-66.626	0.918	23.173	0.918	23.173	0.394	-66.626
870.466	0.392	-66.696	0.918	23.103	0.918	23.103	0.392	-66.696
872.936	0.391	-66.765	0.919	23.033	0.919	23.033	0.391	-66.765
875.405	0.39	-66.834	0.919	22.964	0.919	22.964	0.39	-66.834
877.875	0.389	-66.903	0.92	22.894	0.92	22.894	0.389	-66.903
880.344	0.388	-66.971	0.92	22.825	0.92	22.825	0.388	-66.971
882.814	0.387	-67.039	0.921	22.756	0.921	22.756	0.387	-67.039
885.283	0.386	-67.107	0.921	22.688	0.921	22.688	0.386	-67.107
887.753	0.385	-67.174	0.922	22.62	0.922	22.62	0.385	-67.174
890.222	0.384	-67.242	0.922	22.552	0.922	22.552	0.384	-67.242
892.691	0.382	-67.309	0.923	22.484	0.923	22.484	0.382	-67.309
