! AVX Thin Film Operation		Date: April 2012 
! Description: Accu-P® Series, Thin Film, SMD, RF Capacitor
! Part Number: 08051J5R6ABTTR					
!	100	MHz	-	10.05	GHz			
!	Serial	Measurements						
!								
#	MHZ	S	MA	R	50			
!	S11	S21	S12	S22				
!	dB	Phase	dB	Phase	dB	Phase	dB	Phase
100	0.943	-19.412	0.332	70.563	0.332	70.563	0.943	-19.412
102.469	0.94	-19.856	0.34	70.119	0.34	70.119	0.94	-19.856
104.939	0.938	-20.297	0.347	69.677	0.347	69.677	0.938	-20.297
107.408	0.935	-20.736	0.354	69.238	0.354	69.238	0.935	-20.736
109.878	0.932	-21.173	0.361	68.8	0.361	68.8	0.932	-21.173
112.347	0.93	-21.607	0.368	68.366	0.368	68.366	0.93	-21.607
114.817	0.927	-22.039	0.375	67.934	0.375	67.934	0.927	-22.039
117.286	0.924	-22.468	0.382	67.504	0.382	67.504	0.924	-22.468
119.756	0.921	-22.894	0.389	67.077	0.389	67.077	0.921	-22.894
122.225	0.918	-23.318	0.396	66.652	0.396	66.652	0.918	-23.318
124.694	0.915	-23.74	0.403	66.23	0.403	66.23	0.915	-23.74
127.164	0.912	-24.158	0.409	65.811	0.409	65.811	0.912	-24.158
129.633	0.909	-24.575	0.416	65.394	0.416	65.394	0.909	-24.575
132.103	0.906	-24.988	0.422	64.98	0.422	64.98	0.906	-24.988
134.572	0.903	-25.399	0.429	64.568	0.429	64.568	0.903	-25.399
137.042	0.9	-25.808	0.435	64.159	0.435	64.159	0.9	-25.808
139.511	0.897	-26.213	0.442	63.753	0.442	63.753	0.897	-26.213
141.981	0.894	-26.616	0.448	63.349	0.448	63.349	0.894	-26.616
144.45	0.891	-27.017	0.454	62.948	0.454	62.948	0.891	-27.017
146.919	0.887	-27.414	0.46	62.55	0.46	62.55	0.887	-27.414
149.389	0.884	-27.809	0.467	62.155	0.467	62.155	0.884	-27.809
151.858	0.881	-28.201	0.473	61.762	0.473	61.762	0.881	-28.201
154.328	0.878	-28.59	0.479	61.372	0.479	61.372	0.878	-28.59
156.797	0.874	-28.977	0.484	60.985	0.484	60.985	0.874	-28.977
159.267	0.871	-29.361	0.49	60.6	0.49	60.6	0.871	-29.361
161.736	0.868	-29.742	0.496	60.218	0.496	60.218	0.868	-29.742
164.206	0.865	-30.121	0.502	59.839	0.502	59.839	0.865	-30.121
166.675	0.861	-30.497	0.507	59.463	0.507	59.463	0.861	-30.497
169.144	0.858	-30.87	0.513	59.089	0.513	59.089	0.858	-30.87
171.614	0.855	-31.24	0.519	58.718	0.519	58.718	0.855	-31.24
174.083	0.851	-31.607	0.524	58.35	0.524	58.35	0.851	-31.607
176.553	0.848	-31.972	0.53	57.985	0.53	57.985	0.848	-31.972
179.022	0.845	-32.334	0.535	57.622	0.535	57.622	0.845	-32.334
181.492	0.841	-32.694	0.54	57.262	0.54	57.262	0.841	-32.694
183.961	0.838	-33.05	0.545	56.905	0.545	56.905	0.838	-33.05
186.431	0.834	-33.404	0.551	56.551	0.551	56.551	0.834	-33.404
188.9	0.831	-33.755	0.556	56.199	0.556	56.199	0.831	-33.755
191.369	0.828	-34.104	0.561	55.85	0.561	55.85	0.828	-34.104
193.839	0.824	-34.449	0.566	55.503	0.566	55.503	0.824	-34.449
196.308	0.821	-34.793	0.571	55.16	0.571	55.16	0.821	-34.793
198.778	0.817	-35.133	0.575	54.819	0.575	54.819	0.817	-35.133
201.247	0.814	-35.471	0.58	54.48	0.58	54.48	0.814	-35.471
203.717	0.81	-35.806	0.585	54.145	0.585	54.145	0.81	-35.806
206.186	0.807	-36.138	0.59	53.811	0.59	53.811	0.807	-36.138
208.656	0.804	-36.468	0.594	53.481	0.594	53.481	0.804	-36.468
211.125	0.8	-36.795	0.599	53.153	0.599	53.153	0.8	-36.795
213.594	0.797	-37.12	0.603	52.828	0.603	52.828	0.797	-37.12
216.064	0.793	-37.442	0.608	52.506	0.608	52.506	0.793	-37.442
218.533	0.79	-37.761	0.612	52.186	0.612	52.186	0.79	-37.761
221.003	0.787	-38.078	0.617	51.868	0.617	51.868	0.787	-38.078
223.472	0.783	-38.392	0.621	51.553	0.621	51.553	0.783	-38.392
225.942	0.78	-38.704	0.625	51.241	0.625	51.241	0.78	-38.704
228.411	0.776	-39.013	0.629	50.931	0.629	50.931	0.776	-39.013
230.881	0.773	-39.319	0.634	50.624	0.634	50.624	0.773	-39.319
233.35	0.77	-39.623	0.638	50.32	0.638	50.32	0.77	-39.623
235.819	0.766	-39.925	0.642	50.017	0.642	50.017	0.766	-39.925
238.289	0.763	-40.224	0.646	49.718	0.646	49.718	0.763	-40.224
240.758	0.76	-40.521	0.65	49.42	0.65	49.42	0.76	-40.521
243.228	0.756	-40.815	0.654	49.125	0.654	49.125	0.756	-40.815
245.697	0.753	-41.107	0.657	48.833	0.657	48.833	0.753	-41.107
248.167	0.749	-41.396	0.661	48.543	0.661	48.543	0.749	-41.396
250.636	0.746	-41.683	0.665	48.255	0.665	48.255	0.746	-41.683
253.106	0.743	-41.968	0.669	47.97	0.669	47.97	0.743	-41.968
255.575	0.739	-42.25	0.672	47.687	0.672	47.687	0.739	-42.25
258.044	0.736	-42.53	0.676	47.407	0.676	47.407	0.736	-42.53
260.514	0.733	-42.808	0.68	47.129	0.68	47.129	0.733	-42.808
262.983	0.73	-43.083	0.683	46.853	0.683	46.853	0.73	-43.083
265.453	0.726	-43.356	0.687	46.579	0.687	46.579	0.726	-43.356
267.922	0.723	-43.627	0.69	46.308	0.69	46.308	0.723	-43.627
270.392	0.72	-43.895	0.693	46.039	0.693	46.039	0.72	-43.895
272.861	0.717	-44.161	0.697	45.772	0.697	45.772	0.717	-44.161
275.331	0.713	-44.425	0.7	45.507	0.7	45.507	0.713	-44.425
277.8	0.71	-44.687	0.703	45.245	0.703	45.245	0.71	-44.687
280.269	0.707	-44.947	0.706	44.984	0.706	44.984	0.707	-44.947
282.739	0.704	-45.204	0.71	44.726	0.71	44.726	0.704	-45.204
285.208	0.701	-45.46	0.713	44.47	0.713	44.47	0.701	-45.46
287.678	0.697	-45.713	0.716	44.217	0.716	44.217	0.697	-45.713
290.147	0.694	-45.964	0.719	43.965	0.719	43.965	0.694	-45.964
292.617	0.691	-46.213	0.722	43.715	0.722	43.715	0.691	-46.213
295.086	0.688	-46.46	0.725	43.468	0.725	43.468	0.688	-46.46
297.556	0.685	-46.705	0.728	43.222	0.728	43.222	0.685	-46.705
300.025	0.682	-46.947	0.731	42.979	0.731	42.979	0.682	-46.947
302.494	0.679	-47.188	0.734	42.737	0.734	42.737	0.679	-47.188
304.964	0.676	-47.427	0.736	42.498	0.736	42.498	0.676	-47.427
307.433	0.673	-47.664	0.739	42.26	0.739	42.26	0.673	-47.664
309.903	0.669	-47.899	0.742	42.025	0.742	42.025	0.669	-47.899
312.372	0.666	-48.132	0.745	41.791	0.745	41.791	0.666	-48.132
314.842	0.663	-48.363	0.747	41.56	0.747	41.56	0.663	-48.363
317.311	0.66	-48.592	0.75	41.33	0.75	41.33	0.66	-48.592
319.78	0.657	-48.819	0.753	41.102	0.753	41.102	0.657	-48.819
322.25	0.654	-49.044	0.755	40.876	0.755	40.876	0.654	-49.044
324.719	0.651	-49.268	0.758	40.652	0.758	40.652	0.651	-49.268
327.189	0.649	-49.489	0.76	40.43	0.76	40.43	0.649	-49.489
329.658	0.646	-49.709	0.763	40.21	0.763	40.21	0.646	-49.709
332.128	0.643	-49.927	0.765	39.991	0.765	39.991	0.643	-49.927
334.597	0.64	-50.143	0.768	39.774	0.768	39.774	0.64	-50.143
337.067	0.637	-50.357	0.77	39.559	0.77	39.559	0.637	-50.357
339.536	0.634	-50.57	0.772	39.346	0.772	39.346	0.634	-50.57
342.005	0.631	-50.781	0.775	39.135	0.775	39.135	0.631	-50.781
344.475	0.628	-50.99	0.777	38.925	0.777	38.925	0.628	-50.99
346.944	0.625	-51.197	0.779	38.717	0.779	38.717	0.625	-51.197
349.414	0.623	-51.403	0.782	38.51	0.782	38.51	0.623	-51.403
351.883	0.62	-51.607	0.784	38.306	0.784	38.306	0.62	-51.607
354.353	0.617	-51.81	0.786	38.103	0.786	38.103	0.617	-51.81
356.822	0.614	-52.011	0.788	37.901	0.788	37.901	0.614	-52.011
359.292	0.612	-52.21	0.79	37.701	0.79	37.701	0.612	-52.21
361.761	0.609	-52.407	0.792	37.503	0.792	37.503	0.609	-52.407
364.23	0.606	-52.603	0.794	37.307	0.794	37.307	0.606	-52.603
366.7	0.603	-52.798	0.797	37.112	0.797	37.112	0.603	-52.798
369.169	0.601	-52.99	0.799	36.918	0.799	36.918	0.601	-52.99
371.639	0.598	-53.182	0.801	36.726	0.801	36.726	0.598	-53.182
374.108	0.595	-53.371	0.803	36.536	0.803	36.536	0.595	-53.371
376.578	0.593	-53.56	0.804	36.347	0.804	36.347	0.593	-53.56
379.047	0.59	-53.746	0.806	36.16	0.806	36.16	0.59	-53.746
381.517	0.587	-53.932	0.808	35.974	0.808	35.974	0.587	-53.932
383.986	0.585	-54.115	0.81	35.789	0.81	35.789	0.585	-54.115
386.455	0.582	-54.298	0.812	35.606	0.812	35.606	0.582	-54.298
388.925	0.58	-54.479	0.814	35.425	0.814	35.425	0.58	-54.479
391.394	0.577	-54.658	0.816	35.245	0.816	35.245	0.577	-54.658
393.864	0.575	-54.836	0.818	35.066	0.818	35.066	0.575	-54.836
396.333	0.572	-55.013	0.819	34.889	0.819	34.889	0.572	-55.013
398.803	0.569	-55.188	0.821	34.713	0.821	34.713	0.569	-55.188
401.272	0.567	-55.362	0.823	34.538	0.823	34.538	0.567	-55.362
403.742	0.564	-55.534	0.824	34.365	0.824	34.365	0.564	-55.534
406.211	0.562	-55.705	0.826	34.193	0.826	34.193	0.562	-55.705
408.68	0.56	-55.875	0.828	34.023	0.828	34.023	0.56	-55.875
411.15	0.557	-56.044	0.829	33.854	0.829	33.854	0.557	-56.044
413.619	0.555	-56.211	0.831	33.686	0.831	33.686	0.555	-56.211
416.089	0.552	-56.377	0.833	33.519	0.833	33.519	0.552	-56.377
418.558	0.55	-56.542	0.834	33.354	0.834	33.354	0.55	-56.542
421.028	0.547	-56.705	0.836	33.19	0.836	33.19	0.547	-56.705
423.497	0.545	-56.867	0.837	33.027	0.837	33.027	0.545	-56.867
425.967	0.543	-57.028	0.839	32.866	0.839	32.866	0.543	-57.028
428.436	0.54	-57.188	0.84	32.705	0.84	32.705	0.54	-57.188
430.905	0.538	-57.346	0.842	32.546	0.842	32.546	0.538	-57.346
433.375	0.536	-57.503	0.843	32.388	0.843	32.388	0.536	-57.503
435.844	0.533	-57.659	0.845	32.232	0.845	32.232	0.533	-57.659
438.314	0.531	-57.814	0.846	32.076	0.846	32.076	0.531	-57.814
440.783	0.529	-57.968	0.848	31.922	0.848	31.922	0.529	-57.968
443.253	0.526	-58.121	0.849	31.769	0.849	31.769	0.526	-58.121
445.722	0.524	-58.272	0.851	31.616	0.851	31.616	0.524	-58.272
448.192	0.522	-58.422	0.852	31.466	0.852	31.466	0.522	-58.422
450.661	0.52	-58.571	0.853	31.316	0.853	31.316	0.52	-58.571
453.13	0.518	-58.719	0.855	31.167	0.855	31.167	0.518	-58.719
455.6	0.515	-58.866	0.856	31.019	0.856	31.019	0.515	-58.866
458.069	0.513	-59.012	0.857	30.873	0.857	30.873	0.513	-59.012
460.539	0.511	-59.157	0.859	30.727	0.859	30.727	0.511	-59.157
463.008	0.509	-59.301	0.86	30.583	0.86	30.583	0.509	-59.301
465.478	0.507	-59.443	0.861	30.44	0.861	30.44	0.507	-59.443
467.947	0.504	-59.585	0.862	30.297	0.862	30.297	0.504	-59.585
470.417	0.502	-59.726	0.864	30.156	0.864	30.156	0.502	-59.726
472.886	0.5	-59.865	0.865	30.016	0.865	30.016	0.5	-59.865
475.355	0.498	-60.004	0.866	29.877	0.866	29.877	0.498	-60.004
477.825	0.496	-60.141	0.867	29.739	0.867	29.739	0.496	-60.141
480.294	0.494	-60.278	0.868	29.601	0.868	29.601	0.494	-60.278
482.764	0.492	-60.413	0.87	29.465	0.87	29.465	0.492	-60.413
485.233	0.49	-60.548	0.871	29.33	0.871	29.33	0.49	-60.548
487.703	0.488	-60.682	0.872	29.195	0.872	29.195	0.488	-60.682
490.172	0.486	-60.814	0.873	29.062	0.873	29.062	0.486	-60.814
492.642	0.484	-60.946	0.874	28.93	0.874	28.93	0.484	-60.946
495.111	0.482	-61.077	0.875	28.798	0.875	28.798	0.482	-61.077
497.58	0.48	-61.207	0.876	28.668	0.876	28.668	0.48	-61.207
500.05	0.478	-61.336	0.877	28.538	0.877	28.538	0.478	-61.336
502.519	0.476	-61.464	0.879	28.409	0.879	28.409	0.476	-61.464
504.989	0.474	-61.591	0.88	28.282	0.88	28.282	0.474	-61.591
507.458	0.472	-61.717	0.881	28.155	0.881	28.155	0.472	-61.717
509.928	0.47	-61.842	0.882	28.029	0.882	28.029	0.47	-61.842
512.397	0.468	-61.967	0.883	27.903	0.883	27.903	0.468	-61.967
514.867	0.466	-62.09	0.884	27.779	0.884	27.779	0.466	-62.09
517.336	0.464	-62.213	0.885	27.656	0.885	27.656	0.464	-62.213
519.805	0.462	-62.335	0.886	27.533	0.886	27.533	0.462	-62.335
522.275	0.46	-62.456	0.887	27.411	0.887	27.411	0.46	-62.456
524.744	0.459	-62.577	0.888	27.29	0.888	27.29	0.459	-62.577
527.214	0.457	-62.696	0.889	27.17	0.889	27.17	0.457	-62.696
529.683	0.455	-62.815	0.89	27.051	0.89	27.051	0.455	-62.815
532.153	0.453	-62.932	0.89	26.932	0.89	26.932	0.453	-62.932
534.622	0.451	-63.049	0.891	26.815	0.891	26.815	0.451	-63.049
537.092	0.449	-63.166	0.892	26.698	0.892	26.698	0.449	-63.166
539.561	0.447	-63.281	0.893	26.582	0.893	26.582	0.447	-63.281
542.03	0.446	-63.396	0.894	26.466	0.894	26.466	0.446	-63.396
544.5	0.444	-63.51	0.895	26.352	0.895	26.352	0.444	-63.51
546.969	0.442	-63.623	0.896	26.238	0.896	26.238	0.442	-63.623
549.439	0.44	-63.735	0.897	26.125	0.897	26.125	0.44	-63.735
551.908	0.439	-63.847	0.898	26.013	0.898	26.013	0.439	-63.847
554.378	0.437	-63.958	0.898	25.901	0.898	25.901	0.437	-63.958
556.847	0.435	-64.068	0.899	25.79	0.899	25.79	0.435	-64.068
559.317	0.433	-64.177	0.9	25.68	0.9	25.68	0.433	-64.177
561.786	0.432	-64.286	0.901	25.571	0.901	25.571	0.432	-64.286
564.255	0.43	-64.394	0.902	25.462	0.902	25.462	0.43	-64.394
566.725	0.428	-64.501	0.903	25.354	0.903	25.354	0.428	-64.501
569.194	0.427	-64.608	0.903	25.247	0.903	25.247	0.427	-64.608
571.664	0.425	-64.714	0.904	25.14	0.904	25.14	0.425	-64.714
574.133	0.423	-64.819	0.905	25.034	0.905	25.034	0.423	-64.819
576.603	0.421	-64.923	0.906	24.929	0.906	24.929	0.421	-64.923
579.072	0.42	-65.027	0.907	24.824	0.907	24.824	0.42	-65.027
581.542	0.418	-65.13	0.907	24.72	0.907	24.72	0.418	-65.13
584.011	0.417	-65.233	0.908	24.617	0.908	24.617	0.417	-65.233
586.48	0.415	-65.335	0.909	24.515	0.909	24.515	0.415	-65.335
588.95	0.413	-65.436	0.91	24.413	0.91	24.413	0.413	-65.436
591.419	0.412	-65.537	0.91	24.311	0.91	24.311	0.412	-65.537
593.889	0.41	-65.636	0.911	24.211	0.911	24.211	0.41	-65.636
596.358	0.409	-65.736	0.912	24.111	0.912	24.111	0.409	-65.736
598.828	0.407	-65.834	0.912	24.011	0.912	24.011	0.407	-65.834
601.297	0.405	-65.932	0.913	23.913	0.913	23.913	0.405	-65.932
603.767	0.404	-66.03	0.914	23.814	0.914	23.814	0.404	-66.03
606.236	0.402	-66.127	0.914	23.717	0.914	23.717	0.402	-66.127
608.705	0.401	-66.223	0.915	23.62	0.915	23.62	0.401	-66.223
611.175	0.399	-66.319	0.916	23.524	0.916	23.524	0.399	-66.319
613.644	0.398	-66.414	0.916	23.428	0.916	23.428	0.398	-66.414
616.114	0.396	-66.508	0.917	23.333	0.917	23.333	0.396	-66.508
618.583	0.395	-66.602	0.918	23.238	0.918	23.238	0.395	-66.602
621.053	0.393	-66.695	0.918	23.144	0.918	23.144	0.393	-66.695
623.522	0.392	-66.788	0.919	23.05	0.919	23.05	0.392	-66.788
625.992	0.39	-66.88	0.92	22.958	0.92	22.958	0.39	-66.88
628.461	0.389	-66.972	0.92	22.865	0.92	22.865	0.389	-66.972
630.93	0.387	-67.063	0.921	22.773	0.921	22.773	0.387	-67.063
633.4	0.386	-67.153	0.922	22.682	0.922	22.682	0.386	-67.153
635.869	0.384	-67.243	0.922	22.591	0.922	22.591	0.384	-67.243
638.339	0.383	-67.333	0.923	22.501	0.923	22.501	0.383	-67.333
640.808	0.381	-67.422	0.923	22.412	0.923	22.412	0.381	-67.422
643.278	0.38	-67.51	0.924	22.323	0.924	22.323	0.38	-67.51
645.747	0.378	-67.598	0.925	22.234	0.925	22.234	0.378	-67.598
648.217	0.377	-67.685	0.925	22.146	0.925	22.146	0.377	-67.685
650.686	0.376	-67.772	0.926	22.058	0.926	22.058	0.376	-67.772
653.155	0.374	-67.858	0.926	21.971	0.926	21.971	0.374	-67.858
655.625	0.373	-67.944	0.927	21.885	0.927	21.885	0.373	-67.944
658.094	0.371	-68.029	0.927	21.799	0.927	21.799	0.371	-68.029
660.564	0.37	-68.114	0.928	21.713	0.928	21.713	0.37	-68.114
663.033	0.369	-68.198	0.928	21.628	0.928	21.628	0.369	-68.198
665.503	0.367	-68.282	0.929	21.544	0.929	21.544	0.367	-68.282
667.972	0.366	-68.366	0.93	21.46	0.93	21.46	0.366	-68.366
670.442	0.364	-68.448	0.93	21.376	0.93	21.376	0.364	-68.448
672.911	0.363	-68.531	0.931	21.293	0.931	21.293	0.363	-68.531
675.38	0.362	-68.613	0.931	21.21	0.931	21.21	0.362	-68.613
677.85	0.36	-68.694	0.932	21.128	0.932	21.128	0.36	-68.694
680.319	0.359	-68.775	0.932	21.047	0.932	21.047	0.359	-68.775
682.789	0.358	-68.855	0.933	20.965	0.933	20.965	0.358	-68.855
685.258	0.356	-68.935	0.933	20.885	0.933	20.885	0.356	-68.935
687.728	0.355	-69.015	0.934	20.804	0.934	20.804	0.355	-69.015
690.197	0.354	-69.094	0.934	20.724	0.934	20.724	0.354	-69.094
692.667	0.353	-69.173	0.935	20.645	0.935	20.645	0.353	-69.173
695.136	0.351	-69.251	0.935	20.566	0.935	20.566	0.351	-69.251
697.605	0.35	-69.329	0.936	20.487	0.936	20.487	0.35	-69.329
700.075	0.349	-69.406	0.936	20.409	0.936	20.409	0.349	-69.406
702.544	0.347	-69.483	0.937	20.332	0.937	20.332	0.347	-69.483
705.014	0.346	-69.56	0.937	20.254	0.937	20.254	0.346	-69.56
707.483	0.345	-69.636	0.938	20.177	0.938	20.177	0.345	-69.636
709.953	0.344	-69.711	0.938	20.101	0.938	20.101	0.344	-69.711
712.422	0.342	-69.787	0.938	20.025	0.938	20.025	0.342	-69.787
714.891	0.341	-69.861	0.939	19.949	0.939	19.949	0.341	-69.861
717.361	0.34	-69.936	0.939	19.874	0.939	19.874	0.34	-69.936
719.83	0.339	-70.01	0.94	19.799	0.94	19.799	0.339	-70.01
722.3	0.338	-70.083	0.94	19.725	0.94	19.725	0.338	-70.083
724.769	0.336	-70.157	0.941	19.651	0.941	19.651	0.336	-70.157
727.239	0.335	-70.23	0.941	19.577	0.941	19.577	0.335	-70.23
729.708	0.334	-70.302	0.941	19.504	0.941	19.504	0.334	-70.302
732.178	0.333	-70.374	0.942	19.431	0.942	19.431	0.333	-70.374
734.647	0.331	-70.446	0.942	19.359	0.942	19.359	0.331	-70.446
737.116	0.33	-70.517	0.943	19.287	0.943	19.287	0.33	-70.517
739.586	0.329	-70.588	0.943	19.215	0.943	19.215	0.329	-70.588
742.055	0.328	-70.658	0.944	19.144	0.944	19.144	0.328	-70.658
744.525	0.327	-70.728	0.944	19.073	0.944	19.073	0.327	-70.728
746.994	0.326	-70.798	0.944	19.002	0.944	19.002	0.326	-70.798
749.464	0.324	-70.868	0.945	18.932	0.945	18.932	0.324	-70.868
751.933	0.323	-70.937	0.945	18.862	0.945	18.862	0.323	-70.937
754.403	0.322	-71.005	0.946	18.793	0.946	18.793	0.322	-71.005
756.872	0.321	-71.074	0.946	18.724	0.946	18.724	0.321	-71.074
759.341	0.32	-71.142	0.946	18.655	0.946	18.655	0.32	-71.142
761.811	0.319	-71.209	0.947	18.587	0.947	18.587	0.319	-71.209
764.28	0.318	-71.276	0.947	18.518	0.947	18.518	0.318	-71.276
766.75	0.316	-71.343	0.947	18.451	0.947	18.451	0.316	-71.343
769.219	0.315	-71.41	0.948	18.383	0.948	18.383	0.315	-71.41
771.689	0.314	-71.476	0.948	18.316	0.948	18.316	0.314	-71.476
774.158	0.313	-71.542	0.949	18.25	0.949	18.25	0.313	-71.542
776.628	0.312	-71.608	0.949	18.183	0.949	18.183	0.312	-71.608
779.097	0.311	-71.673	0.949	18.117	0.949	18.117	0.311	-71.673
781.566	0.31	-71.738	0.95	18.052	0.95	18.052	0.31	-71.738
784.036	0.309	-71.802	0.95	17.986	0.95	17.986	0.309	-71.802
786.505	0.308	-71.866	0.95	17.921	0.95	17.921	0.308	-71.866
788.975	0.307	-71.93	0.951	17.856	0.951	17.856	0.307	-71.93
791.444	0.306	-71.994	0.951	17.792	0.951	17.792	0.306	-71.994
793.914	0.304	-72.057	0.951	17.728	0.951	17.728	0.304	-72.057
796.383	0.303	-72.12	0.952	17.664	0.952	17.664	0.303	-72.12
798.853	0.302	-72.183	0.952	17.601	0.952	17.601	0.302	-72.183
801.322	0.301	-72.245	0.952	17.537	0.952	17.537	0.301	-72.245
803.791	0.3	-72.307	0.953	17.475	0.953	17.475	0.3	-72.307
806.261	0.299	-72.369	0.953	17.412	0.953	17.412	0.299	-72.369
808.73	0.298	-72.43	0.953	17.35	0.953	17.35	0.298	-72.43
811.2	0.297	-72.491	0.954	17.288	0.954	17.288	0.297	-72.491
813.669	0.296	-72.552	0.954	17.226	0.954	17.226	0.296	-72.552
816.139	0.295	-72.613	0.954	17.165	0.954	17.165	0.295	-72.613
818.608	0.294	-72.673	0.955	17.104	0.955	17.104	0.294	-72.673
821.078	0.293	-72.733	0.955	17.043	0.955	17.043	0.293	-72.733
823.547	0.292	-72.793	0.955	16.983	0.955	16.983	0.292	-72.793
826.016	0.291	-72.852	0.956	16.922	0.956	16.922	0.291	-72.852
828.486	0.29	-72.911	0.956	16.862	0.956	16.862	0.29	-72.911
830.955	0.289	-72.97	0.956	16.803	0.956	16.803	0.289	-72.97
833.425	0.288	-73.028	0.956	16.743	0.956	16.743	0.288	-73.028
835.894	0.287	-73.086	0.957	16.684	0.957	16.684	0.287	-73.086
838.364	0.286	-73.144	0.957	16.626	0.957	16.626	0.286	-73.144
840.833	0.285	-73.202	0.957	16.567	0.957	16.567	0.285	-73.202
843.303	0.284	-73.259	0.958	16.509	0.958	16.509	0.284	-73.259
845.772	0.283	-73.317	0.958	16.451	0.958	16.451	0.283	-73.317
848.241	0.282	-73.373	0.958	16.393	0.958	16.393	0.282	-73.373
850.711	0.281	-73.43	0.958	16.336	0.958	16.336	0.281	-73.43
853.18	0.28	-73.486	0.959	16.278	0.959	16.278	0.28	-73.486
855.65	0.279	-73.542	0.959	16.221	0.959	16.221	0.279	-73.542
858.119	0.278	-73.598	0.959	16.165	0.959	16.165	0.278	-73.598
860.589	0.277	-73.654	0.96	16.108	0.96	16.108	0.277	-73.654
863.058	0.277	-73.709	0.96	16.052	0.96	16.052	0.277	-73.709
865.528	0.276	-73.764	0.96	15.996	0.96	15.996	0.276	-73.764
867.997	0.275	-73.819	0.96	15.941	0.96	15.941	0.275	-73.819
870.466	0.274	-73.873	0.961	15.885	0.961	15.885	0.274	-73.873
872.936	0.273	-73.928	0.961	15.83	0.961	15.83	0.273	-73.928
875.405	0.272	-73.982	0.961	15.775	0.961	15.775	0.272	-73.982
877.875	0.271	-74.035	0.961	15.721	0.961	15.721	0.271	-74.035
880.344	0.27	-74.089	0.962	15.666	0.962	15.666	0.27	-74.089
882.814	0.269	-74.142	0.962	15.612	0.962	15.612	0.269	-74.142
885.283	0.268	-74.195	0.962	15.558	0.962	15.558	0.268	-74.195
887.753	0.267	-74.248	0.962	15.504	0.962	15.504	0.267	-74.248
890.222	0.266	-74.301	0.963	15.451	0.963	15.451	0.266	-74.301
892.691	0.266	-74.353	0.963	15.398	0.963	15.398	0.266	-74.353
895.161	0.265	-74.405	0.963	15.345	0.963	15.345	0.265	-74.405
