! AVX Thin Film Operation		Date: April 2012 
! Description: Accu-P® Series, Thin Film, SMD, RF Capacitor
! Part Number: 08051J2R5QBTTR					
!	100	MHz	-	20.05	GHz			
!	Serial	Measurements						
!								
#	MHZ	S	MA	R	50			
!	S11	S21	S12	S22				
!	dB	Phase	dB	Phase	dB	Phase	dB	Phase

50 0.997 -4.491 0.078 85.434 0.078 85.434 0.997 -4.491
100 0.988 -8.931 0.155 80.976 0.155 80.976 0.988 -8.931
150 0.973 -13.274 0.23 76.616 0.23 76.616 0.973 -13.274
200 0.953 -17.478 0.3 72.394 0.3 72.394 0.953 -17.478
250 0.929 -21.512 0.367 68.343 0.367 68.343 0.929 -21.512
300 0.902 -25.351 0.428 64.486 0.428 64.486 0.902 -25.351
350 0.873 -28.981 0.485 60.837 0.485 60.837 0.873 -28.981
400 0.843 -32.396 0.536 57.405 0.536 57.405 0.843 -32.396
450 0.811 -35.594 0.582 54.188 0.582 54.188 0.811 -35.594
500 0.779 -38.58 0.624 51.184 0.624 51.184 0.779 -38.58
550 0.748 -41.362 0.661 48.382 0.661 48.382 0.748 -41.362
600 0.717 -43.951 0.694 45.774 0.694 45.774 0.717 -43.951
650 0.686 -46.359 0.724 43.346 0.724 43.346 0.686 -46.359
700 0.657 -48.599 0.75 41.086 0.75 41.086 0.657 -48.599
750 0.629 -50.683 0.774 38.982 0.774 38.982 0.629 -50.683
800 0.602 -52.623 0.795 37.022 0.795 37.022 0.602 -52.623
850 0.576 -54.431 0.813 35.192 0.813 35.192 0.576 -54.431
900 0.552 -56.119 0.83 33.483 0.83 33.483 0.552 -56.119
950 0.528 -57.696 0.845 31.884 0.845 31.884 0.528 -57.696
1000 0.506 -59.172 0.859 30.385 0.859 30.385 0.506 -59.172
1050 0.484 -60.556 0.871 28.978 0.871 28.978 0.484 -60.556
1100 0.464 -61.855 0.882 27.656 0.882 27.656 0.464 -61.855
1150 0.445 -63.076 0.892 26.41 0.892 26.41 0.445 -63.076
1200 0.426 -64.227 0.901 25.234 0.901 25.234 0.426 -64.227
1250 0.409 -65.312 0.909 24.123 0.909 24.123 0.409 -65.312
1300 0.392 -66.337 0.916 23.071 0.916 23.071 0.392 -66.337
1350 0.376 -67.307 0.923 22.073 0.923 22.073 0.376 -67.307
1400 0.36 -68.226 0.929 21.126 0.929 21.126 0.36 -68.226
1450 0.346 -69.098 0.934 20.224 0.934 20.224 0.346 -69.098
1500 0.332 -69.927 0.939 19.365 0.939 19.365 0.332 -69.927
1550 0.318 -70.715 0.944 18.545 0.944 18.545 0.318 -70.715
1600 0.305 -71.465 0.948 17.762 0.948 17.762 0.305 -71.465
1650 0.293 -72.18 0.952 17.012 0.952 17.012 0.293 -72.18
1700 0.281 -72.863 0.956 16.293 0.956 16.293 0.281 -72.863
1750 0.269 -73.515 0.959 15.603 0.959 15.603 0.269 -73.515
1800 0.258 -74.139 0.962 14.941 0.962 14.941 0.258 -74.139
1850 0.247 -74.735 0.965 14.303 0.965 14.303 0.247 -74.735
1900 0.237 -75.306 0.967 13.689 0.967 13.689 0.237 -75.306
1950 0.227 -75.852 0.97 13.097 0.97 13.097 0.227 -75.852
2000 0.217 -76.376 0.972 12.525 0.972 12.525 0.217 -76.376
2050 0.207 -76.877 0.974 11.972 0.974 11.972 0.207 -76.877
2100 0.198 -77.358 0.976 11.438 0.976 11.438 0.198 -77.358
2150 0.189 -77.819 0.978 10.92 0.978 10.92 0.189 -77.819
2200 0.181 -78.26 0.979 10.418 0.979 10.418 0.181 -78.26
2250 0.173 -78.682 0.981 9.931 0.981 9.931 0.173 -78.682
2300 0.164 -79.085 0.982 9.458 0.982 9.458 0.164 -79.085
2350 0.156 -79.47 0.984 8.999 0.984 8.999 0.156 -79.47
2400 0.149 -79.837 0.985 8.551 0.985 8.551 0.149 -79.837
2450 0.141 -80.186 0.986 8.116 0.986 8.116 0.141 -80.186
2500 0.134 -80.517 0.987 7.692 0.987 7.692 0.134 -80.517
2550 0.127 -80.829 0.988 7.279 0.988 7.279 0.127 -80.829
2600 0.12 -81.121 0.989 6.875 0.989 6.875 0.12 -81.121
2650 0.113 -81.393 0.989 6.481 0.989 6.481 0.113 -81.393
2700 0.106 -81.644 0.99 6.096 0.99 6.096 0.106 -81.644
2750 0.1 -81.872 0.991 5.72 0.991 5.72 0.1 -81.872
2800 0.093 -82.075 0.991 5.352 0.991 5.352 0.093 -82.075
2850 0.087 -82.25 0.992 4.991 0.992 4.991 0.087 -82.25
2900 0.081 -82.393 0.993 4.638 0.993 4.638 0.081 -82.393
2950 0.075 -82.5 0.993 4.292 0.993 4.292 0.075 -82.5
3000 0.069 -82.565 0.993 3.953 0.993 3.953 0.069 -82.565
3050 0.063 -82.578 0.994 3.62 0.994 3.62 0.063 -82.578
3100 0.058 -82.529 0.994 3.293 0.994 3.293 0.058 -82.529
3150 0.052 -82.401 0.994 2.973 0.994 2.973 0.052 -82.401
3200 0.047 -82.171 0.995 2.657 0.995 2.657 0.047 -82.171
3250 0.041 -81.802 0.995 2.348 0.995 2.348 0.041 -81.802
3300 0.036 -81.242 0.995 2.043 0.995 2.043 0.036 -81.242
3350 0.031 -80.4 0.995 1.743 0.995 1.743 0.031 -80.4
3400 0.026 -79.121 0.995 1.448 0.995 1.448 0.026 -79.121
3450 0.021 -77.105 0.996 1.158 0.996 1.158 0.021 -77.105
3500 0.016 -73.7 0.996 0.872 0.996 0.872 0.016 -73.7
3550 0.011 -67.218 0.996 0.59 0.996 0.59 0.011 -67.218
3600 6.872e-3 -52.036 0.996 0.312 0.996 0.312 6.872e-3 -52.036
3650 4.249e-3 -8.879 0.996 0.038 0.996 0.038 4.249e-3 -8.879
3700 5.839e-3 43.799 0.996 -0.233 0.996 -0.233 5.839e-3 43.799
3750 9.672e-3 63.775 0.996 -0.499 0.996 -0.499 9.672e-3 63.775
3800 0.014 71.728 0.996 -0.762 0.996 -0.762 0.014 71.728
3850 0.018 75.738 0.996 -1.022 0.996 -1.022 0.018 75.738
3900 0.023 78.07 0.996 -1.279 0.996 -1.279 0.023 78.07
3950 0.027 79.547 0.995 -1.533 0.995 -1.533 0.027 79.547
4000 0.031 80.534 0.995 -1.783 0.995 -1.783 0.031 80.534
4050 0.036 81.214 0.995 -2.031 0.995 -2.031 0.036 81.214
4100 0.04 81.69 0.995 -2.276 0.995 -2.276 0.04 81.69
4150 0.044 82.025 0.995 -2.518 0.995 -2.518 0.044 82.025
4200 0.048 82.257 0.995 -2.757 0.995 -2.757 0.048 82.257
4250 0.052 82.413 0.994 -2.994 0.994 -2.994 0.052 82.413
4300 0.056 82.511 0.994 -3.229 0.994 -3.229 0.056 82.511
4350 0.061 82.563 0.994 -3.461 0.994 -3.461 0.061 82.563
4400 0.065 82.58 0.994 -3.69 0.994 -3.69 0.065 82.58
4450 0.068 82.569 0.993 -3.918 0.993 -3.918 0.068 82.569
4500 0.072 82.534 0.993 -4.143 0.993 -4.143 0.072 82.534
4550 0.076 82.48 0.993 -4.367 0.993 -4.367 0.076 82.48
4600 0.08 82.411 0.993 -4.588 0.993 -4.588 0.08 82.411
4650 0.084 82.328 0.992 -4.807 0.992 -4.807 0.084 82.328
4700 0.088 82.235 0.992 -5.024 0.992 -5.024 0.088 82.235
4750 0.091 82.132 0.992 -5.24 0.992 -5.24 0.091 82.132
4800 0.095 82.021 0.991 -5.453 0.991 -5.453 0.095 82.021
4850 0.099 81.904 0.991 -5.665 0.991 -5.665 0.099 81.904
4900 0.102 81.78 0.991 -5.875 0.991 -5.875 0.102 81.78
4950 0.106 81.652 0.99 -6.084 0.99 -6.084 0.106 81.652
5000 0.11 81.52 0.99 -6.29 0.99 -6.29 0.11 81.52
5050 0.113 81.384 0.989 -6.495 0.989 -6.495 0.113 81.384
5100 0.117 81.245 0.989 -6.699 0.989 -6.699 0.117 81.245
5150 0.12 81.103 0.989 -6.901 0.989 -6.901 0.12 81.103
5200 0.124 80.958 0.988 -7.102 0.988 -7.102 0.124 80.958
5250 0.127 80.812 0.988 -7.301 0.988 -7.301 0.127 80.812
5300 0.131 80.664 0.987 -7.499 0.987 -7.499 0.131 80.664
5350 0.134 80.515 0.987 -7.695 0.987 -7.695 0.134 80.515
5400 0.137 80.364 0.986 -7.89 0.986 -7.89 0.137 80.364
5450 0.141 80.212 0.986 -8.084 0.986 -8.084 0.141 80.212
5500 0.144 80.059 0.985 -8.276 0.985 -8.276 0.144 80.059
5550 0.147 79.906 0.985 -8.467 0.985 -8.467 0.147 79.906
5600 0.151 79.752 0.984 -8.657 0.984 -8.657 0.151 79.752
5650 0.154 79.597 0.984 -8.846 0.984 -8.846 0.154 79.597
5700 0.157 79.442 0.983 -9.033 0.983 -9.033 0.157 79.442
5750 0.16 79.286 0.983 -9.22 0.983 -9.22 0.16 79.286
5800 0.163 79.13 0.982 -9.405 0.982 -9.405 0.163 79.13
5850 0.167 78.974 0.982 -9.589 0.982 -9.589 0.167 78.974
5900 0.17 78.818 0.981 -9.772 0.981 -9.772 0.17 78.818
5950 0.173 78.662 0.981 -9.954 0.981 -9.954 0.173 78.662
6000 0.176 78.506 0.98 -10.135 0.98 -10.135 0.176 78.506
6050 0.179 78.349 0.98 -10.315 0.98 -10.315 0.179 78.349
6100 0.182 78.193 0.979 -10.494 0.979 -10.494 0.182 78.193
6150 0.185 78.037 0.979 -10.672 0.979 -10.672 0.185 78.037
6200 0.188 77.881 0.978 -10.849 0.978 -10.849 0.188 77.881
6250 0.191 77.726 0.977 -11.025 0.977 -11.025 0.191 77.726
6300 0.194 77.57 0.977 -11.2 0.977 -11.2 0.194 77.57
6350 0.197 77.415 0.976 -11.374 0.976 -11.374 0.197 77.415
6400 0.2 77.26 0.976 -11.548 0.976 -11.548 0.2 77.26
6450 0.203 77.105 0.975 -11.72 0.975 -11.72 0.203 77.105
6500 0.206 76.95 0.974 -11.892 0.974 -11.892 0.206 76.95
6550 0.209 76.796 0.974 -12.063 0.974 -12.063 0.209 76.796
6600 0.212 76.642 0.973 -12.233 0.973 -12.233 0.212 76.642
6650 0.215 76.488 0.973 -12.402 0.973 -12.402 0.215 76.488
6700 0.218 76.335 0.972 -12.57 0.972 -12.57 0.218 76.335
6750 0.221 76.182 0.971 -12.737 0.971 -12.737 0.221 76.182
6800 0.223 76.029 0.971 -12.904 0.971 -12.904 0.223 76.029
6850 0.226 75.877 0.97 -13.07 0.97 -13.07 0.226 75.877
6900 0.229 75.725 0.969 -13.235 0.969 -13.235 0.229 75.725
6950 0.232 75.573 0.969 -13.4 0.969 -13.4 0.232 75.573
7000 0.235 75.422 0.968 -13.563 0.968 -13.563 0.235 75.422
7050 0.237 75.271 0.967 -13.726 0.967 -13.726 0.237 75.271
7100 0.24 75.121 0.967 -13.889 0.967 -13.889 0.24 75.121
7150 0.243 74.97 0.966 -14.05 0.966 -14.05 0.243 74.97
7200 0.246 74.821 0.965 -14.211 0.965 -14.211 0.246 74.821
7250 0.248 74.671 0.965 -14.371 0.965 -14.371 0.248 74.671
7300 0.251 74.523 0.964 -14.531 0.964 -14.531 0.251 74.523
7350 0.254 74.374 0.963 -14.689 0.963 -14.689 0.254 74.374
7400 0.256 74.226 0.962 -14.848 0.962 -14.848 0.256 74.226
7450 0.259 74.078 0.962 -15.005 0.962 -15.005 0.259 74.078
7500 0.262 73.931 0.961 -15.162 0.961 -15.162 0.262 73.931
7550 0.264 73.784 0.96 -15.318 0.96 -15.318 0.264 73.784
7600 0.267 73.637 0.96 -15.474 0.96 -15.474 0.267 73.637
7650 0.269 73.491 0.959 -15.629 0.959 -15.629 0.269 73.491
7700 0.272 73.346 0.958 -15.783 0.958 -15.783 0.272 73.346
7750 0.275 73.2 0.957 -15.937 0.957 -15.937 0.275 73.2
7800 0.277 73.055 0.957 -16.09 0.957 -16.09 0.277 73.055
7850 0.28 72.911 0.956 -16.243 0.956 -16.243 0.28 72.911
7900 0.282 72.767 0.955 -16.395 0.955 -16.395 0.282 72.767
7950 0.285 72.623 0.954 -16.546 0.954 -16.546 0.285 72.623
8000 0.287 72.48 0.954 -16.697 0.954 -16.697 0.287 72.48
8050 0.29 72.337 0.953 -16.847 0.953 -16.847 0.29 72.337
8100 0.292 72.195 0.952 -16.997 0.952 -16.997 0.292 72.195
8150 0.295 72.052 0.951 -17.146 0.951 -17.146 0.295 72.052
8200 0.297 71.911 0.951 -17.295 0.951 -17.295 0.297 71.911
8250 0.3 71.77 0.95 -17.443 0.95 -17.443 0.3 71.77
8300 0.302 71.629 0.949 -17.591 0.949 -17.591 0.302 71.629
8350 0.305 71.488 0.948 -17.738 0.948 -17.738 0.305 71.488
8400 0.307 71.348 0.948 -17.884 0.948 -17.884 0.307 71.348
8450 0.31 71.208 0.947 -18.03 0.947 -18.03 0.31 71.208
8500 0.312 71.069 0.946 -18.176 0.946 -18.176 0.312 71.069
8550 0.314 70.93 0.945 -18.321 0.945 -18.321 0.314 70.93
8600 0.317 70.792 0.944 -18.465 0.944 -18.465 0.317 70.792
8650 0.319 70.654 0.944 -18.609 0.944 -18.609 0.319 70.654
8700 0.322 70.516 0.943 -18.752 0.943 -18.752 0.322 70.516
8750 0.324 70.378 0.942 -18.895 0.942 -18.895 0.324 70.378
8800 0.326 70.241 0.941 -19.038 0.941 -19.038 0.326 70.241
8850 0.329 70.105 0.94 -19.18 0.94 -19.18 0.329 70.105
8900 0.331 69.969 0.94 -19.322 0.94 -19.322 0.331 69.969
8950 0.333 69.833 0.939 -19.463 0.939 -19.463 0.333 69.833
9000 0.336 69.697 0.938 -19.603 0.938 -19.603 0.336 69.697
9050 0.338 69.562 0.937 -19.743 0.937 -19.743 0.338 69.562
9100 0.34 69.428 0.936 -19.883 0.936 -19.883 0.34 69.428
9150 0.342 69.293 0.935 -20.022 0.935 -20.022 0.342 69.293
9200 0.345 69.159 0.935 -20.161 0.935 -20.161 0.345 69.159
9250 0.347 69.026 0.934 -20.299 0.934 -20.299 0.347 69.026
9300 0.349 68.893 0.933 -20.437 0.933 -20.437 0.349 68.893
9350 0.351 68.76 0.932 -20.574 0.932 -20.574 0.351 68.76
9400 0.354 68.627 0.931 -20.711 0.931 -20.711 0.354 68.627
9450 0.356 68.495 0.93 -20.848 0.93 -20.848 0.356 68.495
9500 0.358 68.364 0.93 -20.984 0.93 -20.984 0.358 68.364
9550 0.36 68.232 0.929 -21.12 0.929 -21.12 0.36 68.232
9600 0.363 68.101 0.928 -21.255 0.928 -21.255 0.363 68.101
9650 0.365 67.971 0.927 -21.39 0.927 -21.39 0.365 67.971
9700 0.367 67.84 0.926 -21.524 0.926 -21.524 0.367 67.84
9750 0.369 67.71 0.925 -21.658 0.925 -21.658 0.369 67.71
9800 0.371 67.581 0.924 -21.792 0.924 -21.792 0.371 67.581
9850 0.373 67.452 0.924 -21.925 0.924 -21.925 0.373 67.452
9900 0.376 67.323 0.923 -22.057 0.923 -22.057 0.376 67.323
9950 0.378 67.194 0.922 -22.19 0.922 -22.19 0.378 67.194
10000 0.38 67.066 0.921 -22.322 0.921 -22.322 0.38 67.066
10050 0.382 66.938 0.92 -22.453 0.92 -22.453 0.382 66.938
10100 0.384 66.811 0.919 -22.584 0.919 -22.584 0.384 66.811
10150 0.386 66.684 0.918 -22.715 0.918 -22.715 0.386 66.684
10200 0.388 66.557 0.918 -22.845 0.918 -22.845 0.388 66.557
10250 0.39 66.431 0.917 -22.975 0.917 -22.975 0.39 66.431
10300 0.392 66.305 0.916 -23.104 0.916 -23.104 0.392 66.305
10350 0.395 66.179 0.915 -23.234 0.915 -23.234 0.395 66.179
10400 0.397 66.053 0.914 -23.362 0.914 -23.362 0.397 66.053
10450 0.399 65.928 0.913 -23.491 0.913 -23.491 0.399 65.928
10500 0.401 65.804 0.912 -23.619 0.912 -23.619 0.401 65.804
10550 0.403 65.679 0.911 -23.746 0.911 -23.746 0.403 65.679
10600 0.405 65.555 0.91 -23.873 0.91 -23.873 0.405 65.555
10650 0.407 65.432 0.91 -24 0.91 -24 0.407 65.432
10700 0.409 65.308 0.909 -24.127 0.909 -24.127 0.409 65.308
10750 0.411 65.185 0.908 -24.253 0.908 -24.253 0.411 65.185
10800 0.413 65.063 0.907 -24.378 0.907 -24.378 0.413 65.063
10850 0.415 64.94 0.906 -24.504 0.906 -24.504 0.415 64.94
10900 0.417 64.818 0.905 -24.629 0.905 -24.629 0.417 64.818
10950 0.419 64.697 0.904 -24.753 0.904 -24.753 0.419 64.697
11000 0.421 64.575 0.903 -24.877 0.903 -24.877 0.421 64.575
11050 0.423 64.454 0.902 -25.001 0.902 -25.001 0.423 64.454
11100 0.425 64.333 0.901 -25.125 0.901 -25.125 0.425 64.333
11150 0.427 64.213 0.9 -25.248 0.9 -25.248 0.427 64.213
11200 0.428 64.093 0.9 -25.371 0.9 -25.371 0.428 64.093
11250 0.43 63.973 0.899 -25.493 0.899 -25.493 0.43 63.973
11300 0.432 63.854 0.898 -25.615 0.898 -25.615 0.432 63.854
11350 0.434 63.735 0.897 -25.737 0.897 -25.737 0.434 63.735
11400 0.436 63.616 0.896 -25.858 0.896 -25.858 0.436 63.616
11450 0.438 63.497 0.895 -25.979 0.895 -25.979 0.438 63.497
11500 0.44 63.379 0.894 -26.1 0.894 -26.1 0.44 63.379
11550 0.442 63.261 0.893 -26.221 0.893 -26.221 0.442 63.261
11600 0.444 63.144 0.892 -26.341 0.892 -26.341 0.444 63.144
11650 0.446 63.027 0.891 -26.46 0.891 -26.46 0.446 63.027
11700 0.447 62.91 0.89 -26.579 0.89 -26.579 0.447 62.91
11750 0.449 62.793 0.889 -26.698 0.889 -26.698 0.449 62.793
11800 0.451 62.677 0.888 -26.817 0.888 -26.817 0.451 62.677
11850 0.453 62.561 0.888 -26.935 0.888 -26.935 0.453 62.561
11900 0.455 62.445 0.887 -27.053 0.887 -27.053 0.455 62.445
11950 0.457 62.33 0.886 -27.171 0.886 -27.171 0.457 62.33
12000 0.458 62.215 0.885 -27.288 0.885 -27.288 0.458 62.215
12050 0.46 62.1 0.884 -27.405 0.884 -27.405 0.46 62.1
12100 0.462 61.986 0.883 -27.522 0.883 -27.522 0.462 61.986
12150 0.464 61.872 0.882 -27.638 0.882 -27.638 0.464 61.872
12200 0.466 61.758 0.881 -27.754 0.881 -27.754 0.466 61.758
12250 0.467 61.644 0.88 -27.87 0.88 -27.87 0.467 61.644
12300 0.469 61.531 0.879 -27.985 0.879 -27.985 0.469 61.531
12350 0.471 61.418 0.878 -28.1 0.878 -28.1 0.471 61.418
12400 0.473 61.306 0.877 -28.215 0.877 -28.215 0.473 61.306
12450 0.475 61.193 0.876 -28.329 0.876 -28.329 0.475 61.193
12500 0.476 61.081 0.875 -28.443 0.875 -28.443 0.476 61.081
12550 0.478 60.97 0.874 -28.557 0.874 -28.557 0.478 60.97
12600 0.48 60.858 0.873 -28.671 0.873 -28.671 0.48 60.858
12650 0.482 60.747 0.873 -28.784 0.873 -28.784 0.482 60.747
12700 0.483 60.636 0.872 -28.896 0.872 -28.896 0.483 60.636
12750 0.485 60.526 0.871 -29.009 0.871 -29.009 0.485 60.526
12800 0.487 60.415 0.87 -29.121 0.87 -29.121 0.487 60.415
12850 0.488 60.306 0.869 -29.233 0.869 -29.233 0.488 60.306
12900 0.49 60.196 0.868 -29.344 0.868 -29.344 0.49 60.196
12950 0.492 60.086 0.867 -29.456 0.867 -29.456 0.492 60.086
13000 0.493 59.977 0.866 -29.567 0.866 -29.567 0.493 59.977
13050 0.495 59.869 0.865 -29.677 0.865 -29.677 0.495 59.869
13100 0.497 59.76 0.864 -29.788 0.864 -29.788 0.497 59.76
13150 0.498 59.652 0.863 -29.898 0.863 -29.898 0.498 59.652
13200 0.5 59.544 0.862 -30.007 0.862 -30.007 0.5 59.544
13250 0.502 59.436 0.861 -30.117 0.861 -30.117 0.502 59.436
13300 0.503 59.329 0.86 -30.226 0.86 -30.226 0.503 59.329
13350 0.505 59.222 0.859 -30.335 0.859 -30.335 0.505 59.222
13400 0.507 59.115 0.858 -30.443 0.858 -30.443 0.507 59.115
13450 0.508 59.008 0.857 -30.551 0.857 -30.551 0.508 59.008
13500 0.51 58.902 0.856 -30.659 0.856 -30.659 0.51 58.902
13550 0.512 58.796 0.855 -30.767 0.855 -30.767 0.512 58.796
13600 0.513 58.691 0.854 -30.874 0.854 -30.874 0.513 58.691
13650 0.515 58.585 0.853 -30.981 0.853 -30.981 0.515 58.585
13700 0.516 58.48 0.852 -31.088 0.852 -31.088 0.516 58.48
13750 0.518 58.375 0.852 -31.195 0.852 -31.195 0.518 58.375
13800 0.52 58.271 0.851 -31.301 0.851 -31.301 0.52 58.271
13850 0.521 58.166 0.85 -31.407 0.85 -31.407 0.521 58.166
13900 0.523 58.062 0.849 -31.512 0.849 -31.512 0.523 58.062
13950 0.524 57.959 0.848 -31.617 0.848 -31.617 0.524 57.959
14000 0.526 57.855 0.847 -31.722 0.847 -31.722 0.526 57.855
14050 0.527 57.752 0.846 -31.827 0.846 -31.827 0.527 57.752
14100 0.529 57.649 0.845 -31.932 0.845 -31.932 0.529 57.649
14150 0.53 57.546 0.844 -32.036 0.844 -32.036 0.53 57.546
14200 0.532 57.444 0.843 -32.14 0.843 -32.14 0.532 57.444
14250 0.534 57.342 0.842 -32.243 0.842 -32.243 0.534 57.342
14300 0.535 57.24 0.841 -32.347 0.841 -32.347 0.535 57.24
14350 0.537 57.138 0.84 -32.45 0.84 -32.45 0.537 57.138
14400 0.538 57.037 0.839 -32.552 0.839 -32.552 0.538 57.037
14450 0.54 56.936 0.838 -32.655 0.838 -32.655 0.54 56.936
14500 0.541 56.835 0.837 -32.757 0.837 -32.757 0.541 56.835
14550 0.543 56.735 0.836 -32.859 0.836 -32.859 0.543 56.735
14600 0.544 56.634 0.835 -32.961 0.835 -32.961 0.544 56.634
14650 0.546 56.534 0.834 -33.062 0.834 -33.062 0.546 56.534
14700 0.547 56.435 0.833 -33.163 0.833 -33.163 0.547 56.435
14750 0.549 56.335 0.832 -33.264 0.832 -33.264 0.549 56.335
14800 0.55 56.236 0.831 -33.364 0.831 -33.364 0.55 56.236
14850 0.551 56.137 0.83 -33.465 0.83 -33.465 0.551 56.137
14900 0.553 56.038 0.829 -33.565 0.829 -33.565 0.553 56.038
14950 0.554 55.94 0.828 -33.664 0.828 -33.664 0.554 55.94
15000 0.556 55.842 0.828 -33.764 0.828 -33.764 0.556 55.842
15050 0.557 55.744 0.827 -33.863 0.827 -33.863 0.557 55.744
15100 0.559 55.646 0.826 -33.962 0.826 -33.962 0.559 55.646
15150 0.56 55.549 0.825 -34.061 0.825 -34.061 0.56 55.549
15200 0.562 55.452 0.824 -34.159 0.824 -34.159 0.562 55.452
15250 0.563 55.355 0.823 -34.257 0.823 -34.257 0.563 55.355
15300 0.564 55.258 0.822 -34.355 0.822 -34.355 0.564 55.258
15350 0.566 55.162 0.821 -34.453 0.821 -34.453 0.566 55.162
15400 0.567 55.065 0.82 -34.55 0.82 -34.55 0.567 55.065
15450 0.569 54.97 0.819 -34.647 0.819 -34.647 0.569 54.97
15500 0.57 54.874 0.818 -34.744 0.818 -34.744 0.57 54.874
15550 0.571 54.779 0.817 -34.841 0.817 -34.841 0.571 54.779
15600 0.573 54.683 0.816 -34.937 0.816 -34.937 0.573 54.683
15650 0.574 54.589 0.815 -35.033 0.815 -35.033 0.574 54.589
15700 0.575 54.494 0.814 -35.129 0.814 -35.129 0.575 54.494
15750 0.577 54.4 0.813 -35.224 0.813 -35.224 0.577 54.4
15800 0.578 54.305 0.812 -35.319 0.812 -35.319 0.578 54.305
15850 0.579 54.212 0.811 -35.415 0.811 -35.415 0.579 54.212
15900 0.581 54.118 0.81 -35.509 0.81 -35.509 0.581 54.118
15950 0.582 54.025 0.809 -35.604 0.809 -35.604 0.582 54.025
16000 0.584 53.931 0.808 -35.698 0.808 -35.698 0.584 53.931
16050 0.585 53.838 0.807 -35.792 0.807 -35.792 0.585 53.838
16100 0.586 53.746 0.806 -35.886 0.806 -35.886 0.586 53.746
16150 0.588 53.653 0.805 -35.979 0.805 -35.979 0.588 53.653
16200 0.589 53.561 0.805 -36.073 0.805 -36.073 0.589 53.561
16250 0.59 53.469 0.804 -36.166 0.804 -36.166 0.59 53.469
16300 0.591 53.378 0.803 -36.258 0.803 -36.258 0.591 53.378
16350 0.593 53.286 0.802 -36.351 0.802 -36.351 0.593 53.286
16400 0.594 53.195 0.801 -36.443 0.801 -36.443 0.594 53.195
16450 0.595 53.104 0.8 -36.535 0.8 -36.535 0.595 53.104
16500 0.597 53.013 0.799 -36.627 0.799 -36.627 0.597 53.013
16550 0.598 52.923 0.798 -36.719 0.798 -36.719 0.598 52.923
16600 0.599 52.832 0.797 -36.81 0.797 -36.81 0.599 52.832
16650 0.6 52.742 0.796 -36.901 0.796 -36.901 0.6 52.742
16700 0.602 52.652 0.795 -36.992 0.795 -36.992 0.602 52.652
16750 0.603 52.563 0.794 -37.082 0.794 -37.082 0.603 52.563
16800 0.604 52.474 0.793 -37.173 0.793 -37.173 0.604 52.474
16850 0.605 52.384 0.792 -37.263 0.792 -37.263 0.605 52.384
16900 0.607 52.296 0.791 -37.352 0.791 -37.352 0.607 52.296
16950 0.608 52.207 0.79 -37.442 0.79 -37.442 0.608 52.207
