! AVX Thin Film Operation		Date: April 2012 
! Description: Accu-P® Series, Thin Film, SMD, RF Capacitor
! Part Number: 08051J4R7ABTTR					
!	100	MHz	-	10.05	GHz			
!	Serial	Measurements						
!								
#	MHZ	S	MA	R	50			
!	S11	S21	S12	S22				
!	dB	Phase	dB	Phase	dB	Phase	dB	Phase
100	0.959	-16.474	0.284	73.503	0.284	73.503	0.959	-16.474
102.469	0.957	-16.859	0.29	73.117	0.29	73.117	0.957	-16.859
104.939	0.955	-17.242	0.296	72.733	0.296	72.733	0.955	-17.242
107.408	0.953	-17.624	0.303	72.35	0.303	72.35	0.953	-17.624
109.878	0.951	-18.005	0.309	71.969	0.309	71.969	0.951	-18.005
112.347	0.949	-18.384	0.315	71.589	0.315	71.589	0.949	-18.384
114.817	0.947	-18.761	0.322	71.211	0.322	71.211	0.947	-18.761
117.286	0.945	-19.137	0.328	70.835	0.328	70.835	0.945	-19.137
119.756	0.942	-19.511	0.334	70.46	0.334	70.46	0.942	-19.511
122.225	0.94	-19.884	0.34	70.087	0.34	70.087	0.94	-19.884
124.694	0.938	-20.255	0.346	69.716	0.346	69.716	0.938	-20.255
127.164	0.936	-20.624	0.352	69.346	0.352	69.346	0.936	-20.624
129.633	0.933	-20.992	0.358	68.978	0.358	68.978	0.933	-20.992
132.103	0.931	-21.357	0.364	68.611	0.364	68.611	0.931	-21.357
134.572	0.929	-21.722	0.37	68.246	0.37	68.246	0.929	-21.722
137.042	0.926	-22.084	0.376	67.883	0.376	67.883	0.926	-22.084
139.511	0.924	-22.445	0.382	67.522	0.382	67.522	0.924	-22.445
141.981	0.922	-22.804	0.388	67.163	0.388	67.163	0.922	-22.804
144.45	0.919	-23.161	0.393	66.805	0.393	66.805	0.919	-23.161
146.919	0.917	-23.516	0.399	66.449	0.399	66.449	0.917	-23.516
149.389	0.914	-23.869	0.405	66.095	0.405	66.095	0.914	-23.869
151.858	0.912	-24.221	0.41	65.743	0.41	65.743	0.912	-24.221
154.328	0.909	-24.571	0.416	65.392	0.416	65.392	0.909	-24.571
156.797	0.907	-24.919	0.421	65.044	0.421	65.044	0.907	-24.919
159.267	0.904	-25.265	0.427	64.697	0.427	64.697	0.904	-25.265
161.736	0.901	-25.61	0.432	64.352	0.432	64.352	0.901	-25.61
164.206	0.899	-25.952	0.438	64.009	0.438	64.009	0.899	-25.952
166.675	0.896	-26.293	0.443	63.668	0.443	63.668	0.896	-26.293
169.144	0.894	-26.631	0.448	63.328	0.448	63.328	0.894	-26.631
171.614	0.891	-26.968	0.453	62.991	0.453	62.991	0.891	-26.968
174.083	0.888	-27.303	0.459	62.655	0.459	62.655	0.888	-27.303
176.553	0.886	-27.636	0.464	62.322	0.464	62.322	0.886	-27.636
179.022	0.883	-27.967	0.469	61.99	0.469	61.99	0.883	-27.967
181.492	0.88	-28.297	0.474	61.66	0.474	61.66	0.88	-28.297
183.961	0.877	-28.624	0.479	61.332	0.479	61.332	0.877	-28.624
186.431	0.875	-28.95	0.484	61.006	0.484	61.006	0.875	-28.95
188.9	0.872	-29.273	0.489	60.682	0.489	60.682	0.872	-29.273
191.369	0.869	-29.595	0.494	60.36	0.494	60.36	0.869	-29.595
193.839	0.866	-29.914	0.499	60.039	0.499	60.039	0.866	-29.914
196.308	0.864	-30.232	0.504	59.721	0.504	59.721	0.864	-30.232
198.778	0.861	-30.548	0.508	59.404	0.508	59.404	0.861	-30.548
201.247	0.858	-30.862	0.513	59.09	0.513	59.09	0.858	-30.862
203.717	0.855	-31.174	0.518	58.777	0.518	58.777	0.855	-31.174
206.186	0.852	-31.484	0.522	58.467	0.522	58.467	0.852	-31.484
208.656	0.85	-31.792	0.527	58.158	0.527	58.158	0.85	-31.792
211.125	0.847	-32.099	0.531	57.851	0.531	57.851	0.847	-32.099
213.594	0.844	-32.403	0.536	57.546	0.536	57.546	0.844	-32.403
216.064	0.841	-32.706	0.54	57.243	0.54	57.243	0.841	-32.706
218.533	0.838	-33.006	0.545	56.942	0.545	56.942	0.838	-33.006
221.003	0.835	-33.305	0.549	56.642	0.549	56.642	0.835	-33.305
223.472	0.832	-33.602	0.553	56.345	0.553	56.345	0.832	-33.602
225.942	0.83	-33.897	0.558	56.049	0.558	56.049	0.83	-33.897
228.411	0.827	-34.19	0.562	55.756	0.562	55.756	0.827	-34.19
230.881	0.824	-34.481	0.566	55.464	0.566	55.464	0.824	-34.481
233.35	0.821	-34.77	0.57	55.174	0.57	55.174	0.821	-34.77
235.819	0.818	-35.057	0.574	54.886	0.574	54.886	0.818	-35.057
238.289	0.815	-35.343	0.578	54.6	0.578	54.6	0.815	-35.343
240.758	0.812	-35.626	0.582	54.316	0.582	54.316	0.812	-35.626
243.228	0.809	-35.908	0.586	54.034	0.586	54.034	0.809	-35.908
245.697	0.806	-36.188	0.59	53.753	0.59	53.753	0.806	-36.188
248.167	0.804	-36.466	0.594	53.475	0.594	53.475	0.804	-36.466
250.636	0.801	-36.742	0.598	53.198	0.598	53.198	0.801	-36.742
253.106	0.798	-37.016	0.602	52.923	0.602	52.923	0.798	-37.016
255.575	0.795	-37.289	0.606	52.65	0.606	52.65	0.795	-37.289
258.044	0.792	-37.56	0.61	52.379	0.61	52.379	0.792	-37.56
260.514	0.789	-37.828	0.613	52.109	0.613	52.109	0.789	-37.828
262.983	0.786	-38.096	0.617	51.841	0.617	51.841	0.786	-38.096
265.453	0.783	-38.361	0.621	51.576	0.621	51.576	0.783	-38.361
267.922	0.781	-38.624	0.624	51.311	0.624	51.311	0.781	-38.624
270.392	0.778	-38.886	0.628	51.049	0.628	51.049	0.778	-38.886
272.861	0.775	-39.146	0.631	50.789	0.631	50.789	0.775	-39.146
275.331	0.772	-39.404	0.635	50.53	0.635	50.53	0.772	-39.404
277.8	0.769	-39.661	0.638	50.273	0.638	50.273	0.769	-39.661
280.269	0.766	-39.915	0.642	50.018	0.642	50.018	0.766	-39.915
282.739	0.763	-40.168	0.645	49.764	0.645	49.764	0.763	-40.168
285.208	0.761	-40.419	0.648	49.512	0.648	49.512	0.761	-40.419
287.678	0.758	-40.669	0.652	49.262	0.652	49.262	0.758	-40.669
290.147	0.755	-40.917	0.655	49.014	0.655	49.014	0.755	-40.917
292.617	0.752	-41.163	0.658	48.767	0.658	48.767	0.752	-41.163
295.086	0.749	-41.407	0.661	48.522	0.661	48.522	0.749	-41.407
297.556	0.746	-41.65	0.665	48.279	0.665	48.279	0.746	-41.65
300.025	0.744	-41.891	0.668	48.037	0.668	48.037	0.744	-41.891
302.494	0.741	-42.13	0.671	47.797	0.671	47.797	0.741	-42.13
304.964	0.738	-42.368	0.674	47.559	0.674	47.559	0.738	-42.368
307.433	0.735	-42.604	0.677	47.322	0.677	47.322	0.735	-42.604
309.903	0.732	-42.838	0.68	47.087	0.68	47.087	0.732	-42.838
312.372	0.73	-43.071	0.683	46.854	0.683	46.854	0.73	-43.071
314.842	0.727	-43.302	0.686	46.622	0.686	46.622	0.727	-43.302
317.311	0.724	-43.532	0.689	46.392	0.689	46.392	0.724	-43.532
319.78	0.721	-43.76	0.692	46.163	0.692	46.163	0.721	-43.76
322.25	0.719	-43.987	0.694	45.936	0.694	45.936	0.719	-43.987
324.719	0.716	-44.211	0.697	45.71	0.697	45.71	0.716	-44.211
327.189	0.713	-44.435	0.7	45.486	0.7	45.486	0.713	-44.435
329.658	0.71	-44.656	0.703	45.264	0.703	45.264	0.71	-44.656
332.128	0.708	-44.877	0.706	45.043	0.706	45.043	0.708	-44.877
334.597	0.705	-45.095	0.708	44.824	0.708	44.824	0.705	-45.095
337.067	0.702	-45.313	0.711	44.606	0.711	44.606	0.702	-45.313
339.536	0.7	-45.528	0.714	44.39	0.714	44.39	0.7	-45.528
342.005	0.697	-45.742	0.716	44.175	0.716	44.175	0.697	-45.742
344.475	0.694	-45.955	0.719	43.962	0.719	43.962	0.694	-45.955
346.944	0.692	-46.166	0.721	43.75	0.721	43.75	0.692	-46.166
349.414	0.689	-46.376	0.724	43.539	0.724	43.539	0.689	-46.376
351.883	0.686	-46.584	0.726	43.331	0.726	43.331	0.686	-46.584
354.353	0.684	-46.791	0.729	43.123	0.729	43.123	0.684	-46.791
356.822	0.681	-46.997	0.731	42.917	0.731	42.917	0.681	-46.997
359.292	0.678	-47.201	0.734	42.712	0.734	42.712	0.678	-47.201
361.761	0.676	-47.403	0.736	42.509	0.736	42.509	0.676	-47.403
364.23	0.673	-47.605	0.739	42.307	0.739	42.307	0.673	-47.605
366.7	0.671	-47.804	0.741	42.107	0.741	42.107	0.671	-47.804
369.169	0.668	-48.003	0.743	41.908	0.743	41.908	0.668	-48.003
371.639	0.665	-48.2	0.745	41.71	0.745	41.71	0.665	-48.2
374.108	0.663	-48.396	0.748	41.514	0.748	41.514	0.663	-48.396
376.578	0.66	-48.59	0.75	41.319	0.75	41.319	0.66	-48.59
379.047	0.658	-48.783	0.752	41.125	0.752	41.125	0.658	-48.783
381.517	0.655	-48.975	0.754	40.933	0.754	40.933	0.655	-48.975
383.986	0.653	-49.165	0.757	40.742	0.757	40.742	0.653	-49.165
386.455	0.65	-49.354	0.759	40.552	0.759	40.552	0.65	-49.354
388.925	0.648	-49.542	0.761	40.364	0.761	40.364	0.648	-49.542
391.394	0.645	-49.728	0.763	40.177	0.763	40.177	0.645	-49.728
393.864	0.643	-49.914	0.765	39.991	0.765	39.991	0.643	-49.914
396.333	0.64	-50.097	0.767	39.806	0.767	39.806	0.64	-50.097
398.803	0.638	-50.28	0.769	39.623	0.769	39.623	0.638	-50.28
401.272	0.635	-50.462	0.771	39.441	0.771	39.441	0.635	-50.462
403.742	0.633	-50.642	0.773	39.26	0.773	39.26	0.633	-50.642
406.211	0.63	-50.821	0.775	39.081	0.775	39.081	0.63	-50.821
408.68	0.628	-50.998	0.777	38.902	0.777	38.902	0.628	-50.998
411.15	0.626	-51.175	0.779	38.725	0.779	38.725	0.626	-51.175
413.619	0.623	-51.35	0.781	38.549	0.781	38.549	0.623	-51.35
416.089	0.621	-51.525	0.783	38.374	0.783	38.374	0.621	-51.525
418.558	0.618	-51.698	0.785	38.201	0.785	38.201	0.618	-51.698
421.028	0.616	-51.869	0.787	38.028	0.787	38.028	0.616	-51.869
423.497	0.614	-52.04	0.788	37.857	0.788	37.857	0.614	-52.04
425.967	0.611	-52.21	0.79	37.687	0.79	37.687	0.611	-52.21
428.436	0.609	-52.378	0.792	37.518	0.792	37.518	0.609	-52.378
430.905	0.607	-52.545	0.794	37.35	0.794	37.35	0.607	-52.545
433.375	0.604	-52.711	0.796	37.183	0.796	37.183	0.604	-52.711
435.844	0.602	-52.876	0.797	37.017	0.797	37.017	0.602	-52.876
438.314	0.6	-53.04	0.799	36.853	0.799	36.853	0.6	-53.04
440.783	0.597	-53.203	0.801	36.689	0.801	36.689	0.597	-53.203
443.253	0.595	-53.365	0.802	36.527	0.802	36.527	0.595	-53.365
445.722	0.593	-53.525	0.804	36.366	0.804	36.366	0.593	-53.525
448.192	0.591	-53.685	0.806	36.206	0.806	36.206	0.591	-53.685
450.661	0.588	-53.843	0.807	36.046	0.807	36.046	0.588	-53.843
453.13	0.586	-54.001	0.809	35.888	0.809	35.888	0.586	-54.001
455.6	0.584	-54.157	0.811	35.731	0.811	35.731	0.584	-54.157
458.069	0.582	-54.313	0.812	35.575	0.812	35.575	0.582	-54.313
460.539	0.58	-54.467	0.814	35.42	0.814	35.42	0.58	-54.467
463.008	0.577	-54.621	0.815	35.266	0.815	35.266	0.577	-54.621
465.478	0.575	-54.773	0.817	35.113	0.817	35.113	0.575	-54.773
467.947	0.573	-54.924	0.818	34.961	0.818	34.961	0.573	-54.924
470.417	0.571	-55.075	0.82	34.81	0.82	34.81	0.571	-55.075
472.886	0.569	-55.224	0.821	34.66	0.821	34.66	0.569	-55.224
475.355	0.567	-55.372	0.823	34.511	0.823	34.511	0.567	-55.372
477.825	0.564	-55.52	0.824	34.363	0.824	34.363	0.564	-55.52
480.294	0.562	-55.666	0.826	34.216	0.826	34.216	0.562	-55.666
482.764	0.56	-55.812	0.827	34.07	0.827	34.07	0.56	-55.812
485.233	0.558	-55.957	0.829	33.924	0.829	33.924	0.558	-55.957
487.703	0.556	-56.1	0.83	33.78	0.83	33.78	0.556	-56.1
490.172	0.554	-56.243	0.831	33.637	0.831	33.637	0.554	-56.243
492.642	0.552	-56.385	0.833	33.494	0.833	33.494	0.552	-56.385
495.111	0.55	-56.526	0.834	33.353	0.834	33.353	0.55	-56.526
497.58	0.548	-56.666	0.835	33.212	0.835	33.212	0.548	-56.666
500.05	0.546	-56.805	0.837	33.072	0.837	33.072	0.546	-56.805
502.519	0.544	-56.943	0.838	32.933	0.838	32.933	0.544	-56.943
504.989	0.542	-57.08	0.839	32.795	0.839	32.795	0.542	-57.08
507.458	0.54	-57.217	0.841	32.658	0.841	32.658	0.54	-57.217
509.928	0.538	-57.353	0.842	32.522	0.842	32.522	0.538	-57.353
512.397	0.536	-57.487	0.843	32.386	0.843	32.386	0.536	-57.487
514.867	0.534	-57.621	0.845	32.252	0.845	32.252	0.534	-57.621
517.336	0.532	-57.754	0.846	32.118	0.846	32.118	0.532	-57.754
519.805	0.53	-57.887	0.847	31.985	0.847	31.985	0.53	-57.887
522.275	0.528	-58.018	0.848	31.853	0.848	31.853	0.528	-58.018
524.744	0.526	-58.149	0.849	31.722	0.849	31.722	0.526	-58.149
527.214	0.524	-58.278	0.851	31.591	0.851	31.591	0.524	-58.278
529.683	0.522	-58.407	0.852	31.462	0.852	31.462	0.522	-58.407
532.153	0.52	-58.536	0.853	31.333	0.853	31.333	0.52	-58.536
534.622	0.518	-58.663	0.854	31.205	0.854	31.205	0.518	-58.663
537.092	0.516	-58.79	0.855	31.078	0.855	31.078	0.516	-58.79
539.561	0.514	-58.915	0.856	30.951	0.856	30.951	0.514	-58.915
542.03	0.512	-59.04	0.858	30.825	0.858	30.825	0.512	-59.04
544.5	0.511	-59.165	0.859	30.7	0.859	30.7	0.511	-59.165
546.969	0.509	-59.288	0.86	30.576	0.86	30.576	0.509	-59.288
549.439	0.507	-59.411	0.861	30.453	0.861	30.453	0.507	-59.411
551.908	0.505	-59.533	0.862	30.33	0.862	30.33	0.505	-59.533
554.378	0.503	-59.654	0.863	30.208	0.863	30.208	0.503	-59.654
556.847	0.501	-59.775	0.864	30.087	0.864	30.087	0.501	-59.775
559.317	0.499	-59.894	0.865	29.967	0.865	29.967	0.499	-59.894
561.786	0.498	-60.013	0.866	29.847	0.866	29.847	0.498	-60.013
564.255	0.496	-60.132	0.867	29.728	0.867	29.728	0.496	-60.132
566.725	0.494	-60.249	0.868	29.61	0.868	29.61	0.494	-60.249
569.194	0.492	-60.366	0.869	29.492	0.869	29.492	0.492	-60.366
571.664	0.491	-60.483	0.87	29.375	0.87	29.375	0.491	-60.483
574.133	0.489	-60.598	0.871	29.259	0.871	29.259	0.489	-60.598
576.603	0.487	-60.713	0.872	29.143	0.872	29.143	0.487	-60.713
579.072	0.485	-60.827	0.873	29.028	0.873	29.028	0.485	-60.827
581.542	0.484	-60.941	0.874	28.914	0.874	28.914	0.484	-60.941
584.011	0.482	-61.053	0.875	28.801	0.875	28.801	0.482	-61.053
586.48	0.48	-61.166	0.876	28.688	0.876	28.688	0.48	-61.166
588.95	0.478	-61.277	0.877	28.576	0.877	28.576	0.478	-61.277
591.419	0.477	-61.388	0.878	28.464	0.878	28.464	0.477	-61.388
593.889	0.475	-61.498	0.879	28.353	0.879	28.353	0.475	-61.498
596.358	0.473	-61.608	0.88	28.243	0.88	28.243	0.473	-61.608
598.828	0.472	-61.717	0.881	28.134	0.881	28.134	0.472	-61.717
601.297	0.47	-61.825	0.882	28.025	0.882	28.025	0.47	-61.825
603.767	0.468	-61.932	0.882	27.916	0.882	27.916	0.468	-61.932
606.236	0.467	-62.039	0.883	27.809	0.883	27.809	0.467	-62.039
608.705	0.465	-62.146	0.884	27.701	0.884	27.701	0.465	-62.146
611.175	0.463	-62.252	0.885	27.595	0.885	27.595	0.463	-62.252
613.644	0.462	-62.357	0.886	27.489	0.886	27.489	0.462	-62.357
616.114	0.46	-62.461	0.887	27.384	0.887	27.384	0.46	-62.461
618.583	0.458	-62.565	0.888	27.279	0.888	27.279	0.458	-62.565
621.053	0.457	-62.669	0.888	27.175	0.888	27.175	0.457	-62.669
623.522	0.455	-62.772	0.889	27.072	0.889	27.072	0.455	-62.772
625.992	0.454	-62.874	0.89	26.969	0.89	26.969	0.454	-62.874
628.461	0.452	-62.975	0.891	26.866	0.891	26.866	0.452	-62.975
630.93	0.45	-63.076	0.892	26.765	0.892	26.765	0.45	-63.076
633.4	0.449	-63.177	0.892	26.663	0.892	26.663	0.449	-63.177
635.869	0.447	-63.277	0.893	26.563	0.893	26.563	0.447	-63.277
638.339	0.446	-63.376	0.894	26.463	0.894	26.463	0.446	-63.376
640.808	0.444	-63.475	0.895	26.363	0.895	26.363	0.444	-63.475
643.278	0.443	-63.573	0.896	26.264	0.896	26.264	0.443	-63.573
645.747	0.441	-63.671	0.896	26.166	0.896	26.166	0.441	-63.671
648.217	0.439	-63.768	0.897	26.068	0.897	26.068	0.439	-63.768
650.686	0.438	-63.865	0.898	25.971	0.898	25.971	0.438	-63.865
653.155	0.436	-63.961	0.898	25.874	0.898	25.874	0.436	-63.961
655.625	0.435	-64.056	0.899	25.778	0.899	25.778	0.435	-64.056
658.094	0.433	-64.151	0.9	25.682	0.9	25.682	0.433	-64.151
660.564	0.432	-64.246	0.901	25.587	0.901	25.587	0.432	-64.246
663.033	0.43	-64.34	0.901	25.492	0.901	25.492	0.43	-64.34
665.503	0.429	-64.433	0.902	25.398	0.902	25.398	0.429	-64.433
667.972	0.427	-64.526	0.903	25.304	0.903	25.304	0.427	-64.526
670.442	0.426	-64.619	0.903	25.211	0.903	25.211	0.426	-64.619
672.911	0.424	-64.711	0.904	25.118	0.904	25.118	0.424	-64.711
675.38	0.423	-64.802	0.905	25.026	0.905	25.026	0.423	-64.802
677.85	0.422	-64.893	0.906	24.934	0.906	24.934	0.422	-64.893
680.319	0.42	-64.984	0.906	24.843	0.906	24.843	0.42	-64.984
682.789	0.419	-65.074	0.907	24.752	0.907	24.752	0.419	-65.074
685.258	0.417	-65.163	0.908	24.662	0.908	24.662	0.417	-65.163
687.728	0.416	-65.252	0.908	24.572	0.908	24.572	0.416	-65.252
690.197	0.414	-65.341	0.909	24.483	0.909	24.483	0.414	-65.341
692.667	0.413	-65.429	0.909	24.394	0.909	24.394	0.413	-65.429
695.136	0.412	-65.517	0.91	24.306	0.91	24.306	0.412	-65.517
697.605	0.41	-65.604	0.911	24.218	0.911	24.218	0.41	-65.604
700.075	0.409	-65.69	0.911	24.131	0.911	24.131	0.409	-65.69
702.544	0.407	-65.777	0.912	24.044	0.912	24.044	0.407	-65.777
705.014	0.406	-65.862	0.913	23.957	0.913	23.957	0.406	-65.862
707.483	0.405	-65.948	0.913	23.871	0.913	23.871	0.405	-65.948
709.953	0.403	-66.033	0.914	23.785	0.914	23.785	0.403	-66.033
712.422	0.402	-66.117	0.914	23.7	0.914	23.7	0.402	-66.117
714.891	0.401	-66.201	0.915	23.616	0.915	23.616	0.401	-66.201
717.361	0.399	-66.285	0.916	23.531	0.916	23.531	0.399	-66.285
719.83	0.398	-66.368	0.916	23.447	0.916	23.447	0.398	-66.368
722.3	0.397	-66.451	0.917	23.364	0.917	23.364	0.397	-66.451
724.769	0.395	-66.533	0.917	23.281	0.917	23.281	0.395	-66.533
727.239	0.394	-66.615	0.918	23.198	0.918	23.198	0.394	-66.615
729.708	0.393	-66.696	0.918	23.116	0.918	23.116	0.393	-66.696
732.178	0.391	-66.777	0.919	23.034	0.919	23.034	0.391	-66.777
734.647	0.39	-66.858	0.92	22.953	0.92	22.953	0.39	-66.858
737.116	0.389	-66.938	0.92	22.872	0.92	22.872	0.389	-66.938
739.586	0.387	-67.018	0.921	22.791	0.921	22.791	0.387	-67.018
742.055	0.386	-67.097	0.921	22.711	0.921	22.711	0.386	-67.097
744.525	0.385	-67.177	0.922	22.631	0.922	22.631	0.385	-67.177
746.994	0.384	-67.255	0.922	22.552	0.922	22.552	0.384	-67.255
749.464	0.382	-67.333	0.923	22.473	0.923	22.473	0.382	-67.333
751.933	0.381	-67.411	0.923	22.394	0.923	22.394	0.381	-67.411
754.403	0.38	-67.489	0.924	22.316	0.924	22.316	0.38	-67.489
756.872	0.378	-67.566	0.924	22.238	0.924	22.238	0.378	-67.566
759.341	0.377	-67.642	0.925	22.161	0.925	22.161	0.377	-67.642
761.811	0.376	-67.719	0.925	22.084	0.925	22.084	0.376	-67.719
764.28	0.375	-67.795	0.926	22.007	0.926	22.007	0.375	-67.795
766.75	0.373	-67.87	0.926	21.931	0.926	21.931	0.373	-67.87
769.219	0.372	-67.945	0.927	21.855	0.927	21.855	0.372	-67.945
771.689	0.371	-68.02	0.927	21.779	0.927	21.779	0.371	-68.02
774.158	0.37	-68.095	0.928	21.704	0.928	21.704	0.37	-68.095
776.628	0.369	-68.169	0.928	21.629	0.928	21.629	0.369	-68.169
779.097	0.367	-68.242	0.929	21.555	0.929	21.555	0.367	-68.242
781.566	0.366	-68.316	0.929	21.481	0.929	21.481	0.366	-68.316
784.036	0.365	-68.389	0.93	21.407	0.93	21.407	0.365	-68.389
786.505	0.364	-68.461	0.93	21.333	0.93	21.333	0.364	-68.461
788.975	0.363	-68.534	0.931	21.26	0.931	21.26	0.363	-68.534
791.444	0.361	-68.606	0.931	21.188	0.931	21.188	0.361	-68.606
793.914	0.36	-68.677	0.932	21.115	0.932	21.115	0.36	-68.677
796.383	0.359	-68.749	0.932	21.043	0.932	21.043	0.359	-68.749
798.853	0.358	-68.82	0.932	20.971	0.932	20.971	0.358	-68.82
801.322	0.357	-68.89	0.933	20.9	0.933	20.9	0.357	-68.89
803.791	0.356	-68.96	0.933	20.829	0.933	20.829	0.356	-68.96
806.261	0.354	-69.03	0.934	20.758	0.934	20.758	0.354	-69.03
808.73	0.353	-69.1	0.934	20.688	0.934	20.688	0.353	-69.1
811.2	0.352	-69.169	0.935	20.618	0.935	20.618	0.352	-69.169
813.669	0.351	-69.238	0.935	20.548	0.935	20.548	0.351	-69.238
816.139	0.35	-69.307	0.935	20.479	0.935	20.479	0.35	-69.307
818.608	0.349	-69.375	0.936	20.41	0.936	20.41	0.349	-69.375
821.078	0.348	-69.443	0.936	20.341	0.936	20.341	0.348	-69.443
823.547	0.346	-69.511	0.937	20.272	0.937	20.272	0.346	-69.511
826.016	0.345	-69.578	0.937	20.204	0.937	20.204	0.345	-69.578
828.486	0.344	-69.645	0.938	20.136	0.938	20.136	0.344	-69.645
830.955	0.343	-69.712	0.938	20.069	0.938	20.069	0.343	-69.712
833.425	0.342	-69.778	0.938	20.002	0.938	20.002	0.342	-69.778
835.894	0.341	-69.844	0.939	19.935	0.939	19.935	0.341	-69.844
838.364	0.34	-69.91	0.939	19.868	0.939	19.868	0.34	-69.91
840.833	0.339	-69.976	0.94	19.802	0.94	19.802	0.339	-69.976
843.303	0.338	-70.041	0.94	19.736	0.94	19.736	0.338	-70.041
845.772	0.337	-70.106	0.94	19.67	0.94	19.67	0.337	-70.106
848.241	0.336	-70.171	0.941	19.604	0.941	19.604	0.336	-70.171
850.711	0.334	-70.235	0.941	19.539	0.941	19.539	0.334	-70.235
853.18	0.333	-70.299	0.941	19.474	0.941	19.474	0.333	-70.299
855.65	0.332	-70.363	0.942	19.41	0.942	19.41	0.332	-70.363
858.119	0.331	-70.426	0.942	19.346	0.942	19.346	0.331	-70.426
860.589	0.33	-70.489	0.943	19.282	0.943	19.282	0.33	-70.489
863.058	0.329	-70.552	0.943	19.218	0.943	19.218	0.329	-70.552
865.528	0.328	-70.615	0.943	19.154	0.943	19.154	0.328	-70.615
867.997	0.327	-70.677	0.944	19.091	0.944	19.091	0.327	-70.677
870.466	0.326	-70.739	0.944	19.028	0.944	19.028	0.326	-70.739
872.936	0.325	-70.801	0.944	18.966	0.944	18.966	0.325	-70.801
875.405	0.324	-70.863	0.945	18.903	0.945	18.903	0.324	-70.863
877.875	0.323	-70.924	0.945	18.841	0.945	18.841	0.323	-70.924
880.344	0.322	-70.985	0.945	18.779	0.945	18.779	0.322	-70.985
882.814	0.321	-71.046	0.946	18.718	0.946	18.718	0.321	-71.046
885.283	0.32	-71.106	0.946	18.657	0.946	18.657	0.32	-71.106
887.753	0.319	-71.166	0.946	18.596	0.946	18.596	0.319	-71.166
890.222	0.318	-71.226	0.947	18.535	0.947	18.535	0.318	-71.226
892.691	0.317	-71.286	0.947	18.474	0.947	18.474	0.317	-71.286
