! AVX Thin Film Operation		Date: April 2012 
! Description: Accu-P® Series, Thin Film, SMD, RF Capacitor
! Part Number: 08051J4R5ABTTR					
!	50	MHz	-	20.05	GHz			
!	Serial	Measurements						
!								
#	MHZ	S	MA	R	50			
!	S11	S21	S12	S22				
!	dB	Phase	dB	Phase	dB	Phase	dB	Phase
50 0.99 -8.048 0.14 81.879 0.14 81.879 0.99 -8.048
100 0.962 -15.801 0.272 74.109 0.272 74.109 0.962 -15.801
150 0.92 -23.029 0.391 66.866 0.391 66.866 0.92 -23.029
200 0.869 -29.591 0.494 60.288 0.494 60.288 0.869 -29.591
250 0.813 -35.437 0.58 54.425 0.58 54.425 0.813 -35.437
300 0.758 -40.585 0.651 49.261 0.651 49.261 0.758 -40.585
350 0.704 -45.09 0.708 44.738 0.708 44.738 0.704 -45.09
400 0.653 -49.027 0.755 40.784 0.755 40.784 0.653 -49.027
450 0.606 -52.47 0.793 37.323 0.793 37.323 0.606 -52.47
500 0.563 -55.492 0.824 34.283 0.824 34.283 0.563 -55.492
550 0.524 -58.154 0.849 31.602 0.849 31.602 0.524 -58.154
600 0.488 -60.512 0.87 29.225 0.87 29.225 0.488 -60.512
650 0.456 -62.611 0.888 27.107 0.888 27.107 0.456 -62.611
700 0.426 -64.488 0.903 25.209 0.903 25.209 0.426 -64.488
750 0.399 -66.177 0.915 23.499 0.915 23.499 0.399 -66.177
800 0.374 -67.704 0.925 21.951 0.925 21.951 0.374 -67.704
850 0.351 -69.09 0.934 20.542 0.934 20.542 0.351 -69.09
900 0.33 -70.355 0.942 19.254 0.942 19.254 0.33 -70.355
950 0.31 -71.513 0.948 18.071 0.948 18.071 0.31 -71.513
1000 0.292 -72.579 0.954 16.98 0.954 16.98 0.292 -72.579
1050 0.275 -73.562 0.959 15.97 0.959 15.97 0.275 -73.562
1100 0.259 -74.473 0.964 15.031 0.964 15.031 0.259 -74.473
1150 0.245 -75.319 0.967 14.156 0.967 14.156 0.245 -75.319
1200 0.231 -76.108 0.971 13.336 0.971 13.336 0.231 -76.108
1250 0.218 -76.844 0.974 12.567 0.974 12.567 0.218 -76.844
1300 0.205 -77.533 0.976 11.843 0.976 11.843 0.205 -77.533
1350 0.194 -78.18 0.979 11.159 0.979 11.159 0.194 -78.18
1400 0.182 -78.788 0.981 10.512 0.981 10.512 0.182 -78.788
1450 0.172 -79.359 0.983 9.898 0.983 9.898 0.172 -79.359
1500 0.162 -79.898 0.985 9.314 0.985 9.314 0.162 -79.898
1550 0.152 -80.406 0.986 8.757 0.986 8.757 0.152 -80.406
1600 0.143 -80.885 0.987 8.226 0.987 8.226 0.143 -80.885
1650 0.134 -81.336 0.989 7.717 0.989 7.717 0.134 -81.336
1700 0.126 -81.761 0.99 7.228 0.99 7.228 0.126 -81.761
1750 0.118 -82.161 0.991 6.76 0.991 6.76 0.118 -82.161
1800 0.11 -82.535 0.992 6.309 0.992 6.309 0.11 -82.535
1850 0.102 -82.886 0.993 5.874 0.993 5.874 0.102 -82.886
1900 0.095 -83.211 0.993 5.454 0.993 5.454 0.095 -83.211
1950 0.088 -83.51 0.994 5.049 0.994 5.049 0.088 -83.51
2000 0.081 -83.782 0.994 4.656 0.994 4.656 0.081 -83.782
2050 0.075 -84.024 0.995 4.276 0.995 4.276 0.075 -84.024
2100 0.068 -84.234 0.995 3.907 0.995 3.907 0.068 -84.234
2150 0.062 -84.405 0.996 3.549 0.996 3.549 0.062 -84.405
2200 0.056 -84.532 0.996 3.2 0.996 3.2 0.056 -84.532
2250 0.05 -84.604 0.997 2.861 0.997 2.861 0.05 -84.604
2300 0.044 -84.604 0.997 2.53 0.997 2.53 0.044 -84.604
2350 0.039 -84.51 0.997 2.207 0.997 2.207 0.039 -84.51
2400 0.033 -84.281 0.997 1.893 0.997 1.893 0.033 -84.281
2450 0.028 -83.849 0.997 1.585 0.997 1.585 0.028 -83.849
2500 0.023 -83.087 0.998 1.284 0.998 1.284 0.023 -83.087
2550 0.017 -81.722 0.998 0.989 0.998 0.989 0.017 -81.722
2600 0.012 -79.065 0.998 0.701 0.998 0.701 0.012 -79.065
2650 7.623e-3 -72.744 0.998 0.418 0.998 0.418 7.623e-3 -72.744
2700 3.302e-3 -47.894 0.998 0.141 0.998 0.141 3.302e-3 -47.894
2750 3.186e-3 45.988 0.998 -0.132 0.998 -0.132 3.186e-3 45.988
2800 7.304e-3 72.005 0.998 -0.399 0.998 -0.399 7.304e-3 72.005
2850 0.012 78.513 0.998 -0.662 0.998 -0.662 0.012 78.513
2900 0.016 81.249 0.998 -0.92 0.998 -0.92 0.016 81.249
2950 0.021 82.675 0.998 -1.174 0.998 -1.174 0.021 82.675
3000 0.025 83.498 0.997 -1.424 0.997 -1.424 0.025 83.498
3050 0.029 83.997 0.997 -1.671 0.997 -1.671 0.029 83.997
3100 0.033 84.302 0.997 -1.913 0.997 -1.913 0.033 84.302
3150 0.038 84.481 0.997 -2.153 0.997 -2.153 0.038 84.481
3200 0.042 84.577 0.997 -2.389 0.997 -2.389 0.042 84.577
3250 0.046 84.613 0.997 -2.622 0.997 -2.622 0.046 84.613
3300 0.05 84.605 0.997 -2.851 0.997 -2.851 0.05 84.605
3350 0.054 84.565 0.996 -3.078 0.996 -3.078 0.054 84.565
3400 0.058 84.5 0.996 -3.302 0.996 -3.302 0.058 84.5
3450 0.062 84.416 0.996 -3.524 0.996 -3.524 0.062 84.416
3500 0.065 84.317 0.996 -3.743 0.996 -3.743 0.065 84.317
3550 0.069 84.206 0.995 -3.959 0.995 -3.959 0.069 84.206
3600 0.073 84.085 0.995 -4.173 0.995 -4.173 0.073 84.085
3650 0.076 83.957 0.995 -4.385 0.995 -4.385 0.076 83.957
3700 0.08 83.823 0.995 -4.595 0.995 -4.595 0.08 83.823
3750 0.084 83.683 0.994 -4.802 0.994 -4.802 0.084 83.683
3800 0.087 83.539 0.994 -5.008 0.994 -5.008 0.087 83.539
3850 0.091 83.392 0.994 -5.211 0.994 -5.211 0.091 83.392
3900 0.094 83.242 0.993 -5.413 0.993 -5.413 0.094 83.242
3950 0.098 83.09 0.993 -5.613 0.993 -5.613 0.098 83.09
4000 0.101 82.935 0.993 -5.811 0.993 -5.811 0.101 82.935
4050 0.105 82.779 0.992 -6.007 0.992 -6.007 0.105 82.779
4100 0.108 82.622 0.992 -6.202 0.992 -6.202 0.108 82.622
4150 0.111 82.464 0.992 -6.395 0.992 -6.395 0.111 82.464
4200 0.115 82.306 0.991 -6.587 0.991 -6.587 0.115 82.306
4250 0.118 82.146 0.991 -6.777 0.991 -6.777 0.118 82.146
4300 0.121 81.986 0.99 -6.965 0.99 -6.965 0.121 81.986
4350 0.125 81.826 0.99 -7.153 0.99 -7.153 0.125 81.826
4400 0.128 81.666 0.99 -7.339 0.99 -7.339 0.128 81.666
4450 0.131 81.505 0.989 -7.523 0.989 -7.523 0.131 81.505
4500 0.134 81.345 0.989 -7.706 0.989 -7.706 0.134 81.345
4550 0.137 81.184 0.988 -7.888 0.988 -7.888 0.137 81.184
4600 0.14 81.024 0.988 -8.069 0.988 -8.069 0.14 81.024
4650 0.143 80.864 0.987 -8.249 0.987 -8.249 0.143 80.864
4700 0.147 80.704 0.987 -8.427 0.987 -8.427 0.147 80.704
4750 0.15 80.544 0.987 -8.605 0.987 -8.605 0.15 80.544
4800 0.153 80.384 0.986 -8.781 0.986 -8.781 0.153 80.384
4850 0.156 80.225 0.986 -8.956 0.986 -8.956 0.156 80.225
4900 0.159 80.066 0.985 -9.13 0.985 -9.13 0.159 80.066
4950 0.162 79.908 0.985 -9.304 0.985 -9.304 0.162 79.908
5000 0.165 79.75 0.984 -9.476 0.984 -9.476 0.165 79.75
5050 0.168 79.592 0.984 -9.647 0.984 -9.647 0.168 79.592
5100 0.171 79.434 0.983 -9.817 0.983 -9.817 0.171 79.434
5150 0.173 79.277 0.983 -9.987 0.983 -9.987 0.173 79.277
5200 0.176 79.121 0.982 -10.155 0.982 -10.155 0.176 79.121
5250 0.179 78.965 0.982 -10.323 0.982 -10.323 0.179 78.965
5300 0.182 78.809 0.981 -10.489 0.981 -10.489 0.182 78.809
5350 0.185 78.654 0.981 -10.655 0.981 -10.655 0.185 78.654
5400 0.188 78.499 0.98 -10.821 0.98 -10.821 0.188 78.499
5450 0.191 78.344 0.979 -10.985 0.979 -10.985 0.191 78.344
5500 0.193 78.19 0.979 -11.148 0.979 -11.148 0.193 78.19
5550 0.196 78.037 0.978 -11.311 0.978 -11.311 0.196 78.037
5600 0.199 77.884 0.978 -11.473 0.978 -11.473 0.199 77.884
5650 0.202 77.731 0.977 -11.634 0.977 -11.634 0.202 77.731
5700 0.204 77.579 0.977 -11.795 0.977 -11.795 0.204 77.579
5750 0.207 77.427 0.976 -11.955 0.976 -11.955 0.207 77.427
5800 0.21 77.276 0.975 -12.114 0.975 -12.114 0.21 77.276
5850 0.213 77.125 0.975 -12.272 0.975 -12.272 0.213 77.125
5900 0.215 76.975 0.974 -12.43 0.974 -12.43 0.215 76.975
5950 0.218 76.825 0.974 -12.587 0.974 -12.587 0.218 76.825
6000 0.221 76.676 0.973 -12.744 0.973 -12.744 0.221 76.676
6050 0.223 76.527 0.973 -12.899 0.973 -12.899 0.223 76.527
6100 0.226 76.378 0.972 -13.055 0.972 -13.055 0.226 76.378
6150 0.229 76.23 0.971 -13.209 0.971 -13.209 0.229 76.23
6200 0.231 76.082 0.971 -13.363 0.971 -13.363 0.231 76.082
6250 0.234 75.935 0.97 -13.516 0.97 -13.516 0.234 75.935
6300 0.236 75.788 0.969 -13.669 0.969 -13.669 0.236 75.788
6350 0.239 75.642 0.969 -13.821 0.969 -13.821 0.239 75.642
6400 0.241 75.496 0.968 -13.973 0.968 -13.973 0.241 75.496
6450 0.244 75.35 0.968 -14.124 0.968 -14.124 0.244 75.35
6500 0.247 75.205 0.967 -14.275 0.967 -14.275 0.247 75.205
6550 0.249 75.06 0.966 -14.425 0.966 -14.425 0.249 75.06
6600 0.252 74.916 0.966 -14.574 0.966 -14.574 0.252 74.916
6650 0.254 74.772 0.965 -14.723 0.965 -14.723 0.254 74.772
6700 0.257 74.628 0.964 -14.871 0.964 -14.871 0.257 74.628
6750 0.259 74.485 0.964 -15.019 0.964 -15.019 0.259 74.485
6800 0.262 74.342 0.963 -15.166 0.963 -15.166 0.262 74.342
6850 0.264 74.2 0.962 -15.313 0.962 -15.313 0.264 74.2
6900 0.267 74.058 0.962 -15.46 0.962 -15.46 0.267 74.058
6950 0.269 73.917 0.961 -15.605 0.961 -15.605 0.269 73.917
7000 0.271 73.776 0.96 -15.751 0.96 -15.751 0.271 73.776
7050 0.274 73.635 0.96 -15.896 0.96 -15.896 0.274 73.635
7100 0.276 73.494 0.959 -16.04 0.959 -16.04 0.276 73.494
7150 0.279 73.355 0.958 -16.184 0.958 -16.184 0.279 73.355
7200 0.281 73.215 0.957 -16.327 0.957 -16.327 0.281 73.215
7250 0.284 73.076 0.957 -16.47 0.957 -16.47 0.284 73.076
7300 0.286 72.937 0.956 -16.613 0.956 -16.613 0.286 72.937
7350 0.288 72.798 0.955 -16.755 0.955 -16.755 0.288 72.798
7400 0.291 72.66 0.955 -16.897 0.955 -16.897 0.291 72.66
7450 0.293 72.523 0.954 -17.038 0.954 -17.038 0.293 72.523
7500 0.295 72.385 0.953 -17.179 0.953 -17.179 0.295 72.385
7550 0.298 72.248 0.952 -17.319 0.952 -17.319 0.298 72.248
7600 0.3 72.112 0.952 -17.459 0.952 -17.459 0.3 72.112
7650 0.302 71.976 0.951 -17.598 0.951 -17.598 0.302 71.976
7700 0.305 71.84 0.95 -17.738 0.95 -17.738 0.305 71.84
7750 0.307 71.704 0.949 -17.876 0.949 -17.876 0.307 71.704
7800 0.309 71.569 0.949 -18.014 0.949 -18.014 0.309 71.569
7850 0.312 71.434 0.948 -18.152 0.948 -18.152 0.312 71.434
7900 0.314 71.3 0.947 -18.29 0.947 -18.29 0.314 71.3
7950 0.316 71.166 0.946 -18.427 0.946 -18.427 0.316 71.166
8000 0.318 71.032 0.946 -18.563 0.946 -18.563 0.318 71.032
8050 0.321 70.898 0.945 -18.7 0.945 -18.7 0.321 70.898
8100 0.323 70.765 0.944 -18.835 0.944 -18.835 0.323 70.765
8150 0.325 70.633 0.943 -18.971 0.943 -18.971 0.325 70.633
8200 0.327 70.5 0.943 -19.106 0.943 -19.106 0.327 70.5
8250 0.33 70.368 0.942 -19.241 0.942 -19.241 0.33 70.368
8300 0.332 70.237 0.941 -19.375 0.941 -19.375 0.332 70.237
8350 0.334 70.105 0.94 -19.509 0.94 -19.509 0.334 70.105
8400 0.336 69.974 0.94 -19.642 0.94 -19.642 0.336 69.974
8450 0.338 69.843 0.939 -19.775 0.939 -19.775 0.338 69.843
8500 0.341 69.713 0.938 -19.908 0.938 -19.908 0.341 69.713
8550 0.343 69.583 0.937 -20.041 0.937 -20.041 0.343 69.583
8600 0.345 69.453 0.936 -20.173 0.936 -20.173 0.345 69.453
8650 0.347 69.324 0.936 -20.304 0.936 -20.304 0.347 69.324
8700 0.349 69.195 0.935 -20.436 0.935 -20.436 0.349 69.195
8750 0.351 69.066 0.934 -20.567 0.934 -20.567 0.351 69.066
8800 0.353 68.938 0.933 -20.697 0.933 -20.697 0.353 68.938
8850 0.356 68.81 0.932 -20.828 0.932 -20.828 0.356 68.81
8900 0.358 68.682 0.932 -20.957 0.932 -20.957 0.358 68.682
8950 0.36 68.554 0.931 -21.087 0.931 -21.087 0.36 68.554
9000 0.362 68.427 0.93 -21.216 0.93 -21.216 0.362 68.427
9050 0.364 68.301 0.929 -21.345 0.929 -21.345 0.364 68.301
9100 0.366 68.174 0.928 -21.474 0.928 -21.474 0.366 68.174
9150 0.368 68.048 0.928 -21.602 0.928 -21.602 0.368 68.048
9200 0.37 67.922 0.927 -21.73 0.927 -21.73 0.37 67.922
9250 0.372 67.796 0.926 -21.857 0.926 -21.857 0.372 67.796
9300 0.374 67.671 0.925 -21.984 0.925 -21.984 0.374 67.671
9350 0.376 67.546 0.924 -22.111 0.924 -22.111 0.376 67.546
9400 0.378 67.422 0.923 -22.237 0.923 -22.237 0.378 67.422
9450 0.38 67.297 0.923 -22.364 0.923 -22.364 0.38 67.297
9500 0.383 67.173 0.922 -22.489 0.922 -22.489 0.383 67.173
9550 0.385 67.05 0.921 -22.615 0.921 -22.615 0.385 67.05
9600 0.387 66.926 0.92 -22.74 0.92 -22.74 0.387 66.926
9650 0.389 66.803 0.919 -22.865 0.919 -22.865 0.389 66.803
9700 0.391 66.68 0.918 -22.989 0.918 -22.989 0.391 66.68
9750 0.393 66.558 0.917 -23.114 0.917 -23.114 0.393 66.558
9800 0.395 66.436 0.917 -23.238 0.917 -23.238 0.395 66.436
9850 0.397 66.314 0.916 -23.361 0.916 -23.361 0.397 66.314
9900 0.399 66.192 0.915 -23.484 0.915 -23.484 0.399 66.192
9950 0.4 66.071 0.914 -23.607 0.914 -23.607 0.4 66.071
10000 0.402 65.95 0.913 -23.73 0.913 -23.73 0.402 65.95
10050 0.404 65.829 0.912 -23.852 0.912 -23.852 0.404 65.829
10100 0.406 65.709 0.911 -23.974 0.911 -23.974 0.406 65.709
10150 0.408 65.588 0.911 -24.096 0.911 -24.096 0.408 65.588
10200 0.41 65.469 0.91 -24.217 0.91 -24.217 0.41 65.469
10250 0.412 65.349 0.909 -24.338 0.909 -24.338 0.412 65.349
10300 0.414 65.23 0.908 -24.459 0.908 -24.459 0.414 65.23
10350 0.416 65.111 0.907 -24.579 0.907 -24.579 0.416 65.111
10400 0.418 64.992 0.906 -24.699 0.906 -24.699 0.418 64.992
10450 0.42 64.874 0.905 -24.819 0.905 -24.819 0.42 64.874
10500 0.422 64.756 0.905 -24.939 0.905 -24.939 0.422 64.756
10550 0.424 64.638 0.904 -25.058 0.904 -25.058 0.424 64.638
10600 0.425 64.52 0.903 -25.177 0.903 -25.177 0.425 64.52
10650 0.427 64.403 0.902 -25.295 0.902 -25.295 0.427 64.403
10700 0.429 64.286 0.901 -25.414 0.901 -25.414 0.429 64.286
10750 0.431 64.17 0.9 -25.531 0.9 -25.531 0.431 64.17
10800 0.433 64.053 0.899 -25.649 0.899 -25.649 0.433 64.053
10850 0.435 63.937 0.898 -25.767 0.898 -25.767 0.435 63.937
10900 0.437 63.821 0.897 -25.884 0.897 -25.884 0.437 63.821
10950 0.438 63.706 0.897 -26 0.897 -26 0.438 63.706
11000 0.44 63.591 0.896 -26.117 0.896 -26.117 0.44 63.591
11050 0.442 63.476 0.895 -26.233 0.895 -26.233 0.442 63.476
11100 0.444 63.361 0.894 -26.349 0.894 -26.349 0.444 63.361
11150 0.446 63.246 0.893 -26.465 0.893 -26.465 0.446 63.246
11200 0.447 63.132 0.892 -26.58 0.892 -26.58 0.447 63.132
11250 0.449 63.018 0.891 -26.695 0.891 -26.695 0.449 63.018
11300 0.451 62.905 0.89 -26.81 0.89 -26.81 0.451 62.905
11350 0.453 62.792 0.889 -26.924 0.889 -26.924 0.453 62.792
11400 0.455 62.679 0.888 -27.039 0.888 -27.039 0.455 62.679
11450 0.456 62.566 0.888 -27.152 0.888 -27.152 0.456 62.566
11500 0.458 62.453 0.887 -27.266 0.887 -27.266 0.458 62.453
11550 0.46 62.341 0.886 -27.379 0.886 -27.379 0.46 62.341
11600 0.462 62.229 0.885 -27.492 0.885 -27.492 0.462 62.229
11650 0.463 62.117 0.884 -27.605 0.884 -27.605 0.463 62.117
11700 0.465 62.006 0.883 -27.718 0.883 -27.718 0.465 62.006
11750 0.467 61.895 0.882 -27.83 0.882 -27.83 0.467 61.895
11800 0.469 61.784 0.881 -27.942 0.881 -27.942 0.469 61.784
11850 0.47 61.673 0.88 -28.053 0.88 -28.053 0.47 61.673
11900 0.472 61.563 0.879 -28.165 0.879 -28.165 0.472 61.563
11950 0.474 61.453 0.878 -28.276 0.878 -28.276 0.474 61.453
12000 0.475 61.343 0.878 -28.387 0.878 -28.387 0.475 61.343
12050 0.477 61.234 0.877 -28.497 0.877 -28.497 0.477 61.234
12100 0.479 61.125 0.876 -28.607 0.876 -28.607 0.479 61.125
12150 0.48 61.016 0.875 -28.717 0.875 -28.717 0.48 61.016
12200 0.482 60.907 0.874 -28.827 0.874 -28.827 0.482 60.907
12250 0.484 60.798 0.873 -28.936 0.873 -28.936 0.484 60.798
12300 0.486 60.69 0.872 -29.046 0.872 -29.046 0.486 60.69
12350 0.487 60.582 0.871 -29.154 0.871 -29.154 0.487 60.582
12400 0.489 60.475 0.87 -29.263 0.87 -29.263 0.489 60.475
12450 0.49 60.367 0.869 -29.371 0.869 -29.371 0.49 60.367
12500 0.492 60.26 0.868 -29.479 0.868 -29.479 0.492 60.26
12550 0.494 60.153 0.867 -29.587 0.867 -29.587 0.494 60.153
12600 0.495 60.047 0.866 -29.695 0.866 -29.695 0.495 60.047
12650 0.497 59.94 0.866 -29.802 0.866 -29.802 0.497 59.94
12700 0.499 59.834 0.865 -29.909 0.865 -29.909 0.499 59.834
12750 0.5 59.728 0.864 -30.016 0.864 -30.016 0.5 59.728
12800 0.502 59.623 0.863 -30.122 0.863 -30.122 0.502 59.623
12850 0.503 59.517 0.862 -30.228 0.862 -30.228 0.503 59.517
12900 0.505 59.412 0.861 -30.334 0.861 -30.334 0.505 59.412
12950 0.507 59.307 0.86 -30.44 0.86 -30.44 0.507 59.307
13000 0.508 59.203 0.859 -30.545 0.859 -30.545 0.508 59.203
13050 0.51 59.099 0.858 -30.651 0.858 -30.651 0.51 59.099
13100 0.511 58.995 0.857 -30.755 0.857 -30.755 0.511 58.995
13150 0.513 58.891 0.856 -30.86 0.856 -30.86 0.513 58.891
13200 0.515 58.787 0.855 -30.964 0.855 -30.964 0.515 58.787
13250 0.516 58.684 0.854 -31.068 0.854 -31.068 0.516 58.684
13300 0.518 58.581 0.853 -31.172 0.853 -31.172 0.518 58.581
13350 0.519 58.478 0.852 -31.276 0.852 -31.276 0.519 58.478
13400 0.521 58.376 0.852 -31.379 0.852 -31.379 0.521 58.376
13450 0.522 58.273 0.851 -31.482 0.851 -31.482 0.522 58.273
13500 0.524 58.171 0.85 -31.585 0.85 -31.585 0.524 58.171
13550 0.525 58.069 0.849 -31.688 0.849 -31.688 0.525 58.069
13600 0.527 57.968 0.848 -31.79 0.848 -31.79 0.527 57.968
13650 0.528 57.867 0.847 -31.892 0.847 -31.892 0.528 57.867
13700 0.53 57.766 0.846 -31.994 0.846 -31.994 0.53 57.766
13750 0.531 57.665 0.845 -32.095 0.845 -32.095 0.531 57.665
13800 0.533 57.564 0.844 -32.196 0.844 -32.196 0.533 57.564
13850 0.534 57.464 0.843 -32.297 0.843 -32.297 0.534 57.464
13900 0.536 57.364 0.842 -32.398 0.842 -32.398 0.536 57.364
13950 0.537 57.264 0.841 -32.499 0.841 -32.499 0.537 57.264
14000 0.539 57.165 0.84 -32.599 0.84 -32.599 0.539 57.165
14050 0.54 57.065 0.839 -32.699 0.839 -32.699 0.54 57.065
14100 0.542 56.966 0.838 -32.799 0.838 -32.799 0.542 56.966
14150 0.543 56.867 0.837 -32.898 0.837 -32.898 0.543 56.867
14200 0.545 56.769 0.836 -32.998 0.836 -32.998 0.545 56.769
14250 0.546 56.671 0.836 -33.097 0.836 -33.097 0.546 56.671
14300 0.547 56.572 0.835 -33.195 0.835 -33.195 0.547 56.572
14350 0.549 56.475 0.834 -33.294 0.834 -33.294 0.549 56.475
14400 0.55 56.377 0.833 -33.392 0.833 -33.392 0.55 56.377
14450 0.552 56.28 0.832 -33.49 0.832 -33.49 0.552 56.28
14500 0.553 56.182 0.831 -33.588 0.831 -33.588 0.553 56.182
14550 0.555 56.086 0.83 -33.686 0.83 -33.686 0.555 56.086
14600 0.556 55.989 0.829 -33.783 0.829 -33.783 0.556 55.989
14650 0.557 55.893 0.828 -33.88 0.828 -33.88 0.557 55.893
14700 0.559 55.796 0.827 -33.977 0.827 -33.977 0.559 55.796
14750 0.56 55.7 0.826 -34.073 0.826 -34.073 0.56 55.7
14800 0.562 55.605 0.825 -34.17 0.825 -34.17 0.562 55.605
14850 0.563 55.509 0.824 -34.266 0.824 -34.266 0.563 55.509
14900 0.564 55.414 0.823 -34.361 0.823 -34.361 0.564 55.414
14950 0.566 55.319 0.822 -34.457 0.822 -34.457 0.566 55.319
15000 0.567 55.224 0.821 -34.552 0.821 -34.552 0.567 55.224
15050 0.569 55.13 0.82 -34.648 0.82 -34.648 0.569 55.13
15100 0.57 55.035 0.82 -34.742 0.82 -34.742 0.57 55.035
15150 0.571 54.941 0.819 -34.837 0.819 -34.837 0.571 54.941
15200 0.573 54.848 0.818 -34.932 0.818 -34.932 0.573 54.848
15250 0.574 54.754 0.817 -35.026 0.817 -35.026 0.574 54.754
15300 0.575 54.661 0.816 -35.12 0.816 -35.12 0.575 54.661
15350 0.577 54.567 0.815 -35.213 0.815 -35.213 0.577 54.567
15400 0.578 54.475 0.814 -35.307 0.814 -35.307 0.578 54.475
15450 0.579 54.382 0.813 -35.4 0.813 -35.4 0.579 54.382
15500 0.581 54.289 0.812 -35.493 0.812 -35.493 0.581 54.289
15550 0.582 54.197 0.811 -35.586 0.811 -35.586 0.582 54.197
15600 0.583 54.105 0.81 -35.678 0.81 -35.678 0.583 54.105
15650 0.585 54.014 0.809 -35.771 0.809 -35.771 0.585 54.014
15700 0.586 53.922 0.808 -35.863 0.808 -35.863 0.586 53.922
15750 0.587 53.831 0.807 -35.955 0.807 -35.955 0.587 53.831
15800 0.588 53.74 0.806 -36.046 0.806 -36.046 0.588 53.74
15850 0.59 53.649 0.805 -36.138 0.805 -36.138 0.59 53.649
15900 0.591 53.558 0.804 -36.229 0.804 -36.229 0.591 53.558
15950 0.592 53.468 0.804 -36.32 0.804 -36.32 0.592 53.468
16000 0.594 53.378 0.803 -36.41 0.803 -36.41 0.594 53.378
16050 0.595 53.288 0.802 -36.501 0.802 -36.501 0.595 53.288
16100 0.596 53.198 0.801 -36.591 0.801 -36.591 0.596 53.198
16150 0.597 53.108 0.8 -36.681 0.8 -36.681 0.597 53.108
16200 0.599 53.019 0.799 -36.771 0.799 -36.771 0.599 53.019
16250 0.6 52.93 0.798 -36.86 0.798 -36.86 0.6 52.93
16300 0.601 52.841 0.797 -36.95 0.797 -36.95 0.601 52.841
16350 0.602 52.753 0.796 -37.039 0.796 -37.039 0.602 52.753
16400 0.604 52.664 0.795 -37.128 0.795 -37.128 0.604 52.664
16450 0.605 52.576 0.794 -37.216 0.794 -37.216 0.605 52.576
16500 0.606 52.488 0.793 -37.305 0.793 -37.305 0.606 52.488
16550 0.607 52.4 0.792 -37.393 0.792 -37.393 0.607 52.4
16600 0.609 52.313 0.791 -37.481 0.791 -37.481 0.609 52.313
16650 0.61 52.226 0.79 -37.569 0.79 -37.569 0.61 52.226
16700 0.611 52.139 0.79 -37.656 0.79 -37.656 0.611 52.139
16750 0.612 52.052 0.789 -37.744 0.789 -37.744 0.612 52.052
16800 0.613 51.965 0.788 -37.831 0.788 -37.831 0.613 51.965
16850 0.615 51.879 0.787 -37.918 0.787 -37.918 0.615 51.879
16900 0.616 51.792 0.786 -38.004 0.786 -38.004 0.616 51.792
16950 0.617 51.706 0.785 -38.091 0.785 -38.091 0.617 51.706
