! AVX Thin Film Operation		Date: April 2012 
! Description: Accu-P® Series, Thin Film, SMD, RF Capacitor
! Part Number: 08051J3R2ABTTR					
!	50	MHz	-	20.05	GHz			
!	Serial	Measurements						
!								
#	MHZ	S	MA	R	50			
!	S11	S21	S12	S22				
!	dB	Phase	dB	Phase	dB	Phase	dB	Phase
50 0.995 -5.741 0.1 84.186 0.1 84.186 0.995 -5.741
100 0.98 -11.376 0.197 78.535 0.197 78.535 0.98 -11.376
150 0.957 -16.808 0.289 73.087 0.289 73.087 0.957 -16.808
200 0.927 -21.965 0.374 67.913 0.374 67.913 0.927 -21.965
250 0.892 -26.797 0.451 63.066 0.451 63.066 0.892 -26.797
300 0.853 -31.276 0.519 58.57 0.519 58.57 0.853 -31.276
350 0.813 -35.396 0.579 54.433 0.579 54.433 0.813 -35.396
400 0.773 -39.165 0.632 50.647 0.632 50.647 0.773 -39.165
450 0.734 -42.602 0.677 47.193 0.677 47.193 0.734 -42.602
500 0.695 -45.731 0.716 44.047 0.716 44.047 0.695 -45.731
550 0.658 -48.578 0.75 41.182 0.75 41.182 0.658 -48.578
600 0.624 -51.17 0.779 38.572 0.779 38.572 0.624 -51.17
650 0.59 -53.533 0.804 36.19 0.804 36.19 0.59 -53.533
700 0.559 -55.692 0.826 34.013 0.826 34.013 0.559 -55.692
750 0.53 -57.668 0.845 32.017 0.845 32.017 0.53 -57.668
800 0.503 -59.482 0.861 30.184 0.861 30.184 0.503 -59.482
850 0.477 -61.15 0.876 28.495 0.876 28.495 0.477 -61.15
900 0.453 -62.69 0.889 26.934 0.889 26.934 0.453 -62.69
950 0.43 -64.114 0.9 25.489 0.9 25.489 0.43 -64.114
1000 0.409 -65.435 0.91 24.146 0.91 24.146 0.409 -65.435
1050 0.389 -66.663 0.918 22.895 0.918 22.895 0.389 -66.663
1100 0.37 -67.807 0.926 21.726 0.926 21.726 0.37 -67.807
1150 0.352 -68.877 0.933 20.633 0.933 20.633 0.352 -68.877
1200 0.336 -69.878 0.939 19.606 0.939 19.606 0.336 -69.878
1250 0.32 -70.818 0.945 18.639 0.945 18.639 0.32 -70.818
1300 0.305 -71.702 0.949 17.728 0.949 17.728 0.305 -71.702
1350 0.29 -72.534 0.954 16.866 0.954 16.866 0.29 -72.534
1400 0.277 -73.32 0.958 16.05 0.958 16.05 0.277 -73.32
1450 0.263 -74.063 0.962 15.276 0.962 15.276 0.263 -74.063
1500 0.251 -74.767 0.965 14.539 0.965 14.539 0.251 -74.767
1550 0.239 -75.434 0.968 13.837 0.968 13.837 0.239 -75.434
1600 0.228 -76.067 0.971 13.167 0.971 13.167 0.228 -76.067
1650 0.217 -76.669 0.973 12.527 0.973 12.527 0.217 -76.669
1700 0.206 -77.241 0.975 11.913 0.975 11.913 0.206 -77.241
1750 0.196 -77.786 0.977 11.325 0.977 11.325 0.196 -77.786
1800 0.187 -78.305 0.979 10.76 0.979 10.76 0.187 -78.305
1850 0.177 -78.8 0.981 10.216 0.981 10.216 0.177 -78.8
1900 0.168 -79.271 0.983 9.692 0.983 9.692 0.168 -79.271
1950 0.16 -79.72 0.984 9.187 0.984 9.187 0.16 -79.72
2000 0.151 -80.147 0.985 8.699 0.985 8.699 0.151 -80.147
2050 0.143 -80.553 0.987 8.227 0.987 8.227 0.143 -80.553
2100 0.135 -80.939 0.988 7.77 0.988 7.77 0.135 -80.939
2150 0.128 -81.304 0.989 7.327 0.989 7.327 0.128 -81.304
2200 0.12 -81.649 0.99 6.898 0.99 6.898 0.12 -81.649
2250 0.113 -81.973 0.991 6.48 0.991 6.48 0.113 -81.973
2300 0.106 -82.275 0.991 6.075 0.991 6.075 0.106 -82.275
2350 0.099 -82.556 0.992 5.68 0.992 5.68 0.099 -82.556
2400 0.092 -82.813 0.993 5.296 0.993 5.296 0.092 -82.813
2450 0.086 -83.044 0.993 4.922 0.993 4.922 0.086 -83.044
2500 0.079 -83.247 0.994 4.556 0.994 4.556 0.079 -83.247
2550 0.073 -83.417 0.994 4.2 0.994 4.2 0.073 -83.417
2600 0.067 -83.551 0.995 3.851 0.995 3.851 0.067 -83.551
2650 0.061 -83.64 0.995 3.51 0.995 3.51 0.061 -83.64
2700 0.056 -83.676 0.995 3.177 0.995 3.177 0.056 -83.676
2750 0.05 -83.643 0.996 2.851 0.996 2.851 0.05 -83.643
2800 0.044 -83.521 0.996 2.531 0.996 2.531 0.044 -83.521
2850 0.039 -83.279 0.996 2.217 0.996 2.217 0.039 -83.279
2900 0.033 -82.866 0.996 1.91 0.996 1.91 0.033 -82.866
2950 0.028 -82.196 0.997 1.608 0.997 1.608 0.028 -82.196
3000 0.023 -81.108 0.997 1.312 0.997 1.312 0.023 -81.108
3050 0.018 -79.275 0.997 1.021 0.997 1.021 0.018 -79.275
3100 0.013 -75.9 0.997 0.735 0.997 0.735 0.013 -75.9
3150 8.481e-3 -68.49 0.997 0.453 0.997 0.453 8.481e-3 -68.49
3200 4.334e-3 -45.152 0.997 0.177 0.997 0.177 4.334e-3 -45.152
3250 3.477e-3 28.695 0.997 -0.096 0.997 -0.096 3.477e-3 28.695
3300 7.051e-3 64.033 0.997 -0.364 0.997 -0.364 7.051e-3 64.033
3350 0.011 73.853 0.997 -0.629 0.997 -0.629 0.011 73.853
3400 0.016 78.004 0.997 -0.889 0.997 -0.889 0.016 78.004
3450 0.02 80.194 0.997 -1.146 0.997 -1.146 0.02 80.194
3500 0.025 81.49 0.997 -1.4 0.997 -1.4 0.025 81.49
3550 0.029 82.309 0.997 -1.65 0.997 -1.65 0.029 82.309
3600 0.033 82.843 0.996 -1.897 0.996 -1.897 0.033 82.843
3650 0.037 83.195 0.996 -2.141 0.996 -2.141 0.037 83.195
3700 0.042 83.424 0.996 -2.381 0.996 -2.381 0.042 83.424
3750 0.046 83.566 0.996 -2.619 0.996 -2.619 0.046 83.566
3800 0.05 83.644 0.996 -2.854 0.996 -2.854 0.05 83.644
3850 0.054 83.674 0.996 -3.087 0.996 -3.087 0.054 83.674
3900 0.058 83.668 0.995 -3.317 0.995 -3.317 0.058 83.668
3950 0.062 83.634 0.995 -3.544 0.995 -3.544 0.062 83.634
4000 0.066 83.577 0.995 -3.769 0.995 -3.769 0.066 83.577
4050 0.07 83.502 0.995 -3.992 0.995 -3.992 0.07 83.502
4100 0.074 83.412 0.994 -4.212 0.994 -4.212 0.074 83.412
4150 0.077 83.311 0.994 -4.43 0.994 -4.43 0.077 83.311
4200 0.081 83.199 0.994 -4.646 0.994 -4.646 0.081 83.199
4250 0.085 83.08 0.993 -4.86 0.993 -4.86 0.085 83.08
4300 0.088 82.953 0.993 -5.072 0.993 -5.072 0.088 82.953
4350 0.092 82.822 0.993 -5.282 0.993 -5.282 0.092 82.822
4400 0.096 82.685 0.992 -5.491 0.992 -5.491 0.096 82.685
4450 0.099 82.544 0.992 -5.697 0.992 -5.697 0.099 82.544
4500 0.103 82.4 0.992 -5.902 0.992 -5.902 0.103 82.4
4550 0.106 82.253 0.991 -6.105 0.991 -6.105 0.106 82.253
4600 0.11 82.104 0.991 -6.307 0.991 -6.307 0.11 82.104
4650 0.113 81.953 0.991 -6.506 0.991 -6.506 0.113 81.953
4700 0.117 81.8 0.99 -6.705 0.99 -6.705 0.117 81.8
4750 0.12 81.646 0.99 -6.901 0.99 -6.901 0.12 81.646
4800 0.124 81.49 0.989 -7.097 0.989 -7.097 0.124 81.49
4850 0.127 81.334 0.989 -7.291 0.989 -7.291 0.127 81.334
4900 0.13 81.176 0.988 -7.483 0.988 -7.483 0.13 81.176
4950 0.134 81.018 0.988 -7.674 0.988 -7.674 0.134 81.018
5000 0.137 80.86 0.988 -7.864 0.988 -7.864 0.137 80.86
5050 0.14 80.701 0.987 -8.053 0.987 -8.053 0.14 80.701
5100 0.143 80.542 0.987 -8.24 0.987 -8.24 0.143 80.542
5150 0.147 80.383 0.986 -8.426 0.986 -8.426 0.147 80.383
5200 0.15 80.223 0.986 -8.611 0.986 -8.611 0.15 80.223
5250 0.153 80.064 0.985 -8.794 0.985 -8.794 0.153 80.064
5300 0.156 79.904 0.985 -8.977 0.985 -8.977 0.156 79.904
5350 0.159 79.745 0.984 -9.158 0.984 -9.158 0.159 79.745
5400 0.162 79.585 0.984 -9.339 0.984 -9.339 0.162 79.585
5450 0.165 79.426 0.983 -9.518 0.983 -9.518 0.165 79.426
5500 0.168 79.267 0.983 -9.696 0.983 -9.696 0.168 79.267
5550 0.171 79.109 0.982 -9.873 0.982 -9.873 0.171 79.109
5600 0.175 78.95 0.982 -10.05 0.982 -10.05 0.175 78.95
5650 0.178 78.792 0.981 -10.225 0.981 -10.225 0.178 78.792
5700 0.181 78.634 0.981 -10.399 0.981 -10.399 0.181 78.634
5750 0.184 78.476 0.98 -10.572 0.98 -10.572 0.184 78.476
5800 0.186 78.319 0.979 -10.745 0.979 -10.745 0.186 78.319
5850 0.189 78.162 0.979 -10.916 0.979 -10.916 0.189 78.162
5900 0.192 78.005 0.978 -11.087 0.978 -11.087 0.192 78.005
5950 0.195 77.849 0.978 -11.257 0.978 -11.257 0.195 77.849
6000 0.198 77.693 0.977 -11.426 0.977 -11.426 0.198 77.693
6050 0.201 77.538 0.977 -11.594 0.977 -11.594 0.201 77.538
6100 0.204 77.383 0.976 -11.761 0.976 -11.761 0.204 77.383
6150 0.207 77.228 0.975 -11.927 0.975 -11.927 0.207 77.228
6200 0.21 77.074 0.975 -12.093 0.975 -12.093 0.21 77.074
6250 0.212 76.92 0.974 -12.258 0.974 -12.258 0.212 76.92
6300 0.215 76.767 0.974 -12.422 0.974 -12.422 0.215 76.767
6350 0.218 76.614 0.973 -12.586 0.973 -12.586 0.218 76.614
6400 0.221 76.461 0.972 -12.748 0.972 -12.748 0.221 76.461
6450 0.223 76.309 0.972 -12.91 0.972 -12.91 0.223 76.309
6500 0.226 76.157 0.971 -13.071 0.971 -13.071 0.226 76.157
6550 0.229 76.006 0.97 -13.232 0.97 -13.232 0.229 76.006
6600 0.232 75.855 0.97 -13.392 0.97 -13.392 0.232 75.855
6650 0.234 75.705 0.969 -13.551 0.969 -13.551 0.234 75.705
6700 0.237 75.555 0.968 -13.709 0.968 -13.709 0.237 75.555
6750 0.24 75.405 0.968 -13.867 0.968 -13.867 0.24 75.405
6800 0.242 75.256 0.967 -14.024 0.967 -14.024 0.242 75.256
6850 0.245 75.108 0.966 -14.181 0.966 -14.181 0.245 75.108
6900 0.248 74.959 0.966 -14.337 0.966 -14.337 0.248 74.959
6950 0.25 74.812 0.965 -14.492 0.965 -14.492 0.25 74.812
7000 0.253 74.664 0.964 -14.647 0.964 -14.647 0.253 74.664
7050 0.255 74.517 0.964 -14.801 0.964 -14.801 0.255 74.517
7100 0.258 74.371 0.963 -14.954 0.963 -14.954 0.258 74.371
7150 0.261 74.225 0.962 -15.107 0.962 -15.107 0.261 74.225
7200 0.263 74.079 0.962 -15.26 0.962 -15.26 0.263 74.079
7250 0.266 73.934 0.961 -15.411 0.961 -15.411 0.266 73.934
7300 0.268 73.789 0.96 -15.562 0.96 -15.562 0.268 73.789
7350 0.271 73.644 0.96 -15.713 0.96 -15.713 0.271 73.644
7400 0.273 73.5 0.959 -15.863 0.959 -15.863 0.273 73.5
7450 0.276 73.357 0.958 -16.012 0.958 -16.012 0.276 73.357
7500 0.278 73.213 0.957 -16.161 0.957 -16.161 0.278 73.213
7550 0.281 73.071 0.957 -16.31 0.957 -16.31 0.281 73.071
7600 0.283 72.928 0.956 -16.458 0.956 -16.458 0.283 72.928
7650 0.286 72.786 0.955 -16.605 0.955 -16.605 0.286 72.786
7700 0.288 72.645 0.955 -16.752 0.955 -16.752 0.288 72.645
7750 0.291 72.504 0.954 -16.898 0.954 -16.898 0.291 72.504
7800 0.293 72.363 0.953 -17.044 0.953 -17.044 0.293 72.363
7850 0.296 72.222 0.952 -17.189 0.952 -17.189 0.296 72.222
7900 0.298 72.083 0.952 -17.334 0.952 -17.334 0.298 72.083
7950 0.3 71.943 0.951 -17.479 0.951 -17.479 0.3 71.943
8000 0.303 71.804 0.95 -17.622 0.95 -17.622 0.303 71.804
8050 0.305 71.665 0.949 -17.766 0.949 -17.766 0.305 71.665
8100 0.308 71.527 0.949 -17.909 0.949 -17.909 0.308 71.527
8150 0.31 71.389 0.948 -18.051 0.948 -18.051 0.31 71.389
8200 0.312 71.251 0.947 -18.193 0.947 -18.193 0.312 71.251
8250 0.315 71.114 0.946 -18.335 0.946 -18.335 0.315 71.114
8300 0.317 70.977 0.945 -18.476 0.945 -18.476 0.317 70.977
8350 0.319 70.84 0.945 -18.616 0.945 -18.616 0.319 70.84
8400 0.322 70.704 0.944 -18.756 0.944 -18.756 0.322 70.704
8450 0.324 70.569 0.943 -18.896 0.943 -18.896 0.324 70.569
8500 0.326 70.433 0.942 -19.035 0.942 -19.035 0.326 70.433
8550 0.328 70.298 0.942 -19.174 0.942 -19.174 0.328 70.298
8600 0.331 70.164 0.941 -19.312 0.941 -19.312 0.331 70.164
8650 0.333 70.029 0.94 -19.45 0.94 -19.45 0.333 70.029
8700 0.335 69.896 0.939 -19.588 0.939 -19.588 0.335 69.896
8750 0.338 69.762 0.938 -19.725 0.938 -19.725 0.338 69.762
8800 0.34 69.629 0.937 -19.861 0.937 -19.861 0.34 69.629
8850 0.342 69.496 0.937 -19.998 0.937 -19.998 0.342 69.496
8900 0.344 69.364 0.936 -20.133 0.936 -20.133 0.344 69.364
8950 0.346 69.232 0.935 -20.269 0.935 -20.269 0.346 69.232
9000 0.349 69.1 0.934 -20.404 0.934 -20.404 0.349 69.1
9050 0.351 68.969 0.933 -20.538 0.933 -20.538 0.351 68.969
9100 0.353 68.838 0.933 -20.673 0.933 -20.673 0.353 68.838
9150 0.355 68.707 0.932 -20.806 0.932 -20.806 0.355 68.707
9200 0.357 68.577 0.931 -20.94 0.931 -20.94 0.357 68.577
9250 0.36 68.447 0.93 -21.073 0.93 -21.073 0.36 68.447
9300 0.362 68.317 0.929 -21.205 0.929 -21.205 0.362 68.317
9350 0.364 68.188 0.928 -21.337 0.928 -21.337 0.364 68.188
9400 0.366 68.059 0.928 -21.469 0.928 -21.469 0.366 68.059
9450 0.368 67.93 0.927 -21.601 0.927 -21.601 0.368 67.93
9500 0.37 67.802 0.926 -21.732 0.926 -21.732 0.37 67.802
9550 0.372 67.674 0.925 -21.862 0.925 -21.862 0.372 67.674
9600 0.374 67.547 0.924 -21.993 0.924 -21.993 0.374 67.547
9650 0.377 67.42 0.923 -22.122 0.923 -22.122 0.377 67.42
9700 0.379 67.293 0.923 -22.252 0.923 -22.252 0.379 67.293
9750 0.381 67.166 0.922 -22.381 0.922 -22.381 0.381 67.166
9800 0.383 67.04 0.921 -22.51 0.921 -22.51 0.383 67.04
9850 0.385 66.914 0.92 -22.638 0.92 -22.638 0.385 66.914
9900 0.387 66.789 0.919 -22.766 0.919 -22.766 0.387 66.789
9950 0.389 66.663 0.918 -22.894 0.918 -22.894 0.389 66.663
10000 0.391 66.539 0.917 -23.021 0.917 -23.021 0.391 66.539
10050 0.393 66.414 0.916 -23.148 0.916 -23.148 0.393 66.414
10100 0.395 66.29 0.916 -23.275 0.916 -23.275 0.395 66.29
10150 0.397 66.166 0.915 -23.401 0.915 -23.401 0.397 66.166
10200 0.399 66.042 0.914 -23.527 0.914 -23.527 0.399 66.042
10250 0.401 65.919 0.913 -23.652 0.913 -23.652 0.401 65.919
10300 0.403 65.796 0.912 -23.778 0.912 -23.778 0.403 65.796
10350 0.405 65.674 0.911 -23.902 0.911 -23.902 0.405 65.674
10400 0.407 65.551 0.91 -24.027 0.91 -24.027 0.407 65.551
10450 0.409 65.429 0.909 -24.151 0.909 -24.151 0.409 65.429
10500 0.411 65.308 0.909 -24.275 0.909 -24.275 0.411 65.308
10550 0.413 65.186 0.908 -24.398 0.908 -24.398 0.413 65.186
10600 0.415 65.065 0.907 -24.521 0.907 -24.521 0.415 65.065
10650 0.417 64.945 0.906 -24.644 0.906 -24.644 0.417 64.945
10700 0.419 64.824 0.905 -24.767 0.905 -24.767 0.419 64.824
10750 0.421 64.704 0.904 -24.889 0.904 -24.889 0.421 64.704
10800 0.423 64.585 0.903 -25.01 0.903 -25.01 0.423 64.585
10850 0.425 64.465 0.902 -25.132 0.902 -25.132 0.425 64.465
10900 0.427 64.346 0.901 -25.253 0.901 -25.253 0.427 64.346
10950 0.429 64.227 0.901 -25.374 0.901 -25.374 0.429 64.227
11000 0.43 64.109 0.9 -25.494 0.9 -25.494 0.43 64.109
11050 0.432 63.99 0.899 -25.614 0.899 -25.614 0.432 63.99
11100 0.434 63.873 0.898 -25.734 0.898 -25.734 0.434 63.873
11150 0.436 63.755 0.897 -25.853 0.897 -25.853 0.436 63.755
11200 0.438 63.638 0.896 -25.972 0.896 -25.972 0.438 63.638
11250 0.44 63.521 0.895 -26.091 0.895 -26.091 0.44 63.521
11300 0.442 63.404 0.894 -26.21 0.894 -26.21 0.442 63.404
11350 0.444 63.287 0.893 -26.328 0.893 -26.328 0.444 63.287
11400 0.445 63.171 0.892 -26.446 0.892 -26.446 0.445 63.171
11450 0.447 63.056 0.891 -26.563 0.891 -26.563 0.447 63.056
11500 0.449 62.94 0.891 -26.68 0.891 -26.68 0.449 62.94
11550 0.451 62.825 0.89 -26.797 0.89 -26.797 0.451 62.825
11600 0.453 62.71 0.889 -26.914 0.889 -26.914 0.453 62.71
11650 0.454 62.595 0.888 -27.03 0.888 -27.03 0.454 62.595
11700 0.456 62.481 0.887 -27.146 0.887 -27.146 0.456 62.481
11750 0.458 62.367 0.886 -27.262 0.886 -27.262 0.458 62.367
11800 0.46 62.253 0.885 -27.377 0.885 -27.377 0.46 62.253
11850 0.462 62.14 0.884 -27.492 0.884 -27.492 0.462 62.14
11900 0.463 62.027 0.883 -27.607 0.883 -27.607 0.463 62.027
11950 0.465 61.914 0.882 -27.721 0.882 -27.721 0.465 61.914
12000 0.467 61.801 0.881 -27.835 0.881 -27.835 0.467 61.801
12050 0.469 61.689 0.88 -27.949 0.88 -27.949 0.469 61.689
12100 0.47 61.577 0.879 -28.063 0.879 -28.063 0.47 61.577
12150 0.472 61.465 0.879 -28.176 0.879 -28.176 0.472 61.465
12200 0.474 61.354 0.878 -28.289 0.878 -28.289 0.474 61.354
12250 0.476 61.243 0.877 -28.401 0.877 -28.401 0.476 61.243
12300 0.477 61.132 0.876 -28.514 0.876 -28.514 0.477 61.132
12350 0.479 61.021 0.875 -28.626 0.875 -28.626 0.479 61.021
12400 0.481 60.911 0.874 -28.737 0.874 -28.737 0.481 60.911
12450 0.483 60.801 0.873 -28.849 0.873 -28.849 0.483 60.801
12500 0.484 60.691 0.872 -28.96 0.872 -28.96 0.484 60.691
12550 0.486 60.582 0.871 -29.071 0.871 -29.071 0.486 60.582
12600 0.488 60.473 0.87 -29.181 0.87 -29.181 0.488 60.473
12650 0.489 60.364 0.869 -29.291 0.869 -29.291 0.489 60.364
12700 0.491 60.255 0.868 -29.401 0.868 -29.401 0.491 60.255
12750 0.493 60.147 0.867 -29.511 0.867 -29.511 0.493 60.147
12800 0.494 60.039 0.866 -29.62 0.866 -29.62 0.494 60.039
12850 0.496 59.931 0.865 -29.729 0.865 -29.729 0.496 59.931
12900 0.498 59.823 0.864 -29.838 0.864 -29.838 0.498 59.823
12950 0.499 59.716 0.864 -29.947 0.864 -29.947 0.499 59.716
13000 0.501 59.609 0.863 -30.055 0.863 -30.055 0.501 59.609
13050 0.502 59.503 0.862 -30.163 0.862 -30.163 0.502 59.503
13100 0.504 59.396 0.861 -30.27 0.861 -30.27 0.504 59.396
13150 0.506 59.29 0.86 -30.378 0.86 -30.378 0.506 59.29
13200 0.507 59.184 0.859 -30.485 0.859 -30.485 0.507 59.184
13250 0.509 59.079 0.858 -30.591 0.858 -30.591 0.509 59.079
13300 0.511 58.973 0.857 -30.698 0.857 -30.698 0.511 58.973
13350 0.512 58.868 0.856 -30.804 0.856 -30.804 0.512 58.868
13400 0.514 58.763 0.855 -30.91 0.855 -30.91 0.514 58.763
13450 0.515 58.659 0.854 -31.016 0.854 -31.016 0.515 58.659
13500 0.517 58.555 0.853 -31.121 0.853 -31.121 0.517 58.555
13550 0.518 58.451 0.852 -31.226 0.852 -31.226 0.518 58.451
13600 0.52 58.347 0.851 -31.331 0.851 -31.331 0.52 58.347
13650 0.522 58.243 0.85 -31.436 0.85 -31.436 0.522 58.243
13700 0.523 58.14 0.849 -31.54 0.849 -31.54 0.523 58.14
13750 0.525 58.037 0.848 -31.644 0.848 -31.644 0.525 58.037
13800 0.526 57.935 0.847 -31.748 0.847 -31.748 0.526 57.935
13850 0.528 57.832 0.847 -31.851 0.847 -31.851 0.528 57.832
13900 0.529 57.73 0.846 -31.955 0.846 -31.955 0.529 57.73
13950 0.531 57.628 0.845 -32.057 0.845 -32.057 0.531 57.628
14000 0.532 57.527 0.844 -32.16 0.844 -32.16 0.532 57.527
14050 0.534 57.425 0.843 -32.263 0.843 -32.263 0.534 57.425
14100 0.535 57.324 0.842 -32.365 0.842 -32.365 0.535 57.324
14150 0.537 57.223 0.841 -32.467 0.841 -32.467 0.537 57.223
14200 0.538 57.123 0.84 -32.568 0.84 -32.568 0.538 57.123
14250 0.54 57.022 0.839 -32.669 0.839 -32.669 0.54 57.022
14300 0.541 56.922 0.838 -32.771 0.838 -32.771 0.541 56.922
14350 0.543 56.822 0.837 -32.871 0.837 -32.871 0.543 56.822
14400 0.544 56.723 0.836 -32.972 0.836 -32.972 0.544 56.723
14450 0.546 56.624 0.835 -33.072 0.835 -33.072 0.546 56.624
14500 0.547 56.524 0.834 -33.172 0.834 -33.172 0.547 56.524
14550 0.549 56.426 0.833 -33.272 0.833 -33.272 0.549 56.426
14600 0.55 56.327 0.832 -33.371 0.832 -33.371 0.55 56.327
14650 0.552 56.229 0.831 -33.471 0.831 -33.471 0.552 56.229
14700 0.553 56.131 0.83 -33.57 0.83 -33.57 0.553 56.131
14750 0.554 56.033 0.829 -33.668 0.829 -33.668 0.554 56.033
14800 0.556 55.935 0.828 -33.767 0.828 -33.767 0.556 55.935
14850 0.557 55.838 0.827 -33.865 0.827 -33.865 0.557 55.838
14900 0.559 55.741 0.827 -33.963 0.827 -33.963 0.559 55.741
14950 0.56 55.644 0.826 -34.061 0.826 -34.061 0.56 55.644
15000 0.561 55.548 0.825 -34.158 0.825 -34.158 0.561 55.548
15050 0.563 55.451 0.824 -34.255 0.824 -34.255 0.563 55.451
15100 0.564 55.355 0.823 -34.352 0.823 -34.352 0.564 55.355
15150 0.566 55.26 0.822 -34.449 0.822 -34.449 0.566 55.26
15200 0.567 55.164 0.821 -34.545 0.821 -34.545 0.567 55.164
15250 0.568 55.069 0.82 -34.642 0.82 -34.642 0.568 55.069
15300 0.57 54.974 0.819 -34.738 0.819 -34.738 0.57 54.974
15350 0.571 54.879 0.818 -34.833 0.818 -34.833 0.571 54.879
15400 0.573 54.784 0.817 -34.929 0.817 -34.929 0.573 54.784
15450 0.574 54.69 0.816 -35.024 0.816 -35.024 0.574 54.69
15500 0.575 54.596 0.815 -35.119 0.815 -35.119 0.575 54.596
15550 0.577 54.502 0.814 -35.213 0.814 -35.213 0.577 54.502
15600 0.578 54.408 0.813 -35.308 0.813 -35.308 0.578 54.408
15650 0.579 54.315 0.812 -35.402 0.812 -35.402 0.579 54.315
15700 0.581 54.222 0.811 -35.496 0.811 -35.496 0.581 54.222
15750 0.582 54.129 0.81 -35.59 0.81 -35.59 0.582 54.129
15800 0.583 54.036 0.809 -35.683 0.809 -35.683 0.583 54.036
15850 0.585 53.943 0.808 -35.776 0.808 -35.776 0.585 53.943
15900 0.586 53.851 0.807 -35.869 0.807 -35.869 0.586 53.851
15950 0.587 53.759 0.807 -35.962 0.807 -35.962 0.587 53.759
16000 0.589 53.668 0.806 -36.055 0.806 -36.055 0.589 53.668
16050 0.59 53.576 0.805 -36.147 0.805 -36.147 0.59 53.576
16100 0.591 53.485 0.804 -36.239 0.804 -36.239 0.591 53.485
16150 0.592 53.394 0.803 -36.331 0.803 -36.331 0.592 53.394
16200 0.594 53.303 0.802 -36.422 0.802 -36.422 0.594 53.303
16250 0.595 53.212 0.801 -36.514 0.801 -36.514 0.595 53.212
16300 0.596 53.122 0.8 -36.605 0.8 -36.605 0.596 53.122
16350 0.598 53.032 0.799 -36.696 0.799 -36.696 0.598 53.032
16400 0.599 52.942 0.798 -36.786 0.798 -36.786 0.599 52.942
16450 0.6 52.852 0.797 -36.877 0.797 -36.877 0.6 52.852
16500 0.601 52.763 0.796 -36.967 0.796 -36.967 0.601 52.763
16550 0.603 52.674 0.795 -37.057 0.795 -37.057 0.603 52.674
16600 0.604 52.585 0.794 -37.146 0.794 -37.146 0.604 52.585
16650 0.605 52.496 0.793 -37.236 0.793 -37.236 0.605 52.496
16700 0.606 52.408 0.792 -37.325 0.792 -37.325 0.606 52.408
16750 0.608 52.319 0.791 -37.414 0.791 -37.414 0.608 52.319
16800 0.609 52.231 0.79 -37.503 0.79 -37.503 0.609 52.231
16850 0.61 52.143 0.79 -37.591 0.79 -37.591 0.61 52.143
16900 0.611 52.056 0.789 -37.679 0.789 -37.679 0.611 52.056
16950 0.612 51.968 0.788 -37.767 0.788 -37.767 0.612 51.968
