! AVX Thin Film Operation		Date: April 2012 
! Description: Accu-P® Series, Thin Film, SMD, RF Capacitor
! Part Number: 08051J0R2PBTTR					
!	100	MHz	-	30.05	GHz			
!	Serial	Measurements						
!								
#	MHZ	S	MA	R	50			
!	S11	S21	S12	S22				
!	dB	Phase	dB	Phase	dB	Phase	dB	Phase
100	1	-0.72	0.013	89.278	0.013	89.278	1	-0.72
107.458	1	-0.774	0.014	89.224	0.014	89.224	1	-0.774
114.916	1	-0.827	0.014	89.17	0.014	89.17	1	-0.827
122.375	1	-0.881	0.015	89.116	0.015	89.116	1	-0.881
129.833	1	-0.935	0.016	89.063	0.016	89.063	1	-0.935
137.291	1	-0.988	0.017	89.009	0.017	89.009	1	-0.988
144.749	1	-1.042	0.018	88.955	0.018	88.955	1	-1.042
152.208	1	-1.096	0.019	88.901	0.019	88.901	1	-1.096
159.666	1	-1.15	0.02	88.847	0.02	88.847	1	-1.15
167.124	1	-1.203	0.021	88.793	0.021	88.793	1	-1.203
174.582	1	-1.257	0.022	88.739	0.022	88.739	1	-1.257
182.04	1	-1.311	0.023	88.686	0.023	88.686	1	-1.311
189.499	1	-1.364	0.024	88.632	0.024	88.632	1	-1.364
196.957	1	-1.418	0.025	88.578	0.025	88.578	1	-1.418
204.415	1	-1.472	0.026	88.524	0.026	88.524	1	-1.472
211.873	1	-1.525	0.027	88.47	0.027	88.47	1	-1.525
219.332	1	-1.579	0.028	88.416	0.028	88.416	1	-1.579
226.79	1	-1.633	0.028	88.363	0.028	88.363	1	-1.633
234.248	1	-1.687	0.029	88.309	0.029	88.309	1	-1.687
241.706	1	-1.74	0.03	88.255	0.03	88.255	1	-1.74
249.164	1	-1.794	0.031	88.201	0.031	88.201	1	-1.794
256.623	0.999	-1.848	0.032	88.147	0.032	88.147	0.999	-1.848
264.081	0.999	-1.901	0.033	88.093	0.033	88.093	0.999	-1.901
271.539	0.999	-1.955	0.034	88.04	0.034	88.04	0.999	-1.955
278.997	0.999	-2.009	0.035	87.986	0.035	87.986	0.999	-2.009
286.455	0.999	-2.062	0.036	87.932	0.036	87.932	0.999	-2.062
293.914	0.999	-2.116	0.037	87.878	0.037	87.878	0.999	-2.116
301.372	0.999	-2.17	0.038	87.824	0.038	87.824	0.999	-2.17
308.83	0.999	-2.223	0.039	87.77	0.039	87.77	0.999	-2.223
316.288	0.999	-2.277	0.04	87.716	0.04	87.716	0.999	-2.277
323.747	0.999	-2.331	0.041	87.663	0.041	87.663	0.999	-2.331
331.205	0.999	-2.384	0.042	87.609	0.042	87.609	0.999	-2.384
338.663	0.999	-2.438	0.043	87.555	0.043	87.555	0.999	-2.438
346.121	0.999	-2.492	0.043	87.501	0.043	87.501	0.999	-2.492
353.579	0.999	-2.546	0.044	87.447	0.044	87.447	0.999	-2.546
361.038	0.999	-2.599	0.045	87.393	0.045	87.393	0.999	-2.599
368.496	0.999	-2.653	0.046	87.34	0.046	87.34	0.999	-2.653
375.954	0.999	-2.707	0.047	87.286	0.047	87.286	0.999	-2.707
383.412	0.999	-2.76	0.048	87.232	0.048	87.232	0.999	-2.76
390.871	0.999	-2.814	0.049	87.178	0.049	87.178	0.999	-2.814
398.329	0.999	-2.868	0.05	87.124	0.05	87.124	0.999	-2.868
405.787	0.999	-2.921	0.051	87.07	0.051	87.07	0.999	-2.921
413.245	0.999	-2.975	0.052	87.017	0.052	87.017	0.999	-2.975
420.703	0.999	-3.029	0.053	86.963	0.053	86.963	0.999	-3.029
428.162	0.999	-3.082	0.054	86.909	0.054	86.909	0.999	-3.082
435.62	0.998	-3.136	0.055	86.855	0.055	86.855	0.998	-3.136
443.078	0.998	-3.19	0.056	86.801	0.056	86.801	0.998	-3.19
450.536	0.998	-3.243	0.057	86.748	0.057	86.748	0.998	-3.243
457.995	0.998	-3.297	0.058	86.694	0.058	86.694	0.998	-3.297
465.453	0.998	-3.351	0.058	86.64	0.058	86.64	0.998	-3.351
472.911	0.998	-3.404	0.059	86.586	0.059	86.586	0.998	-3.404
480.369	0.998	-3.458	0.06	86.532	0.06	86.532	0.998	-3.458
487.827	0.998	-3.512	0.061	86.478	0.061	86.478	0.998	-3.512
495.286	0.998	-3.565	0.062	86.425	0.062	86.425	0.998	-3.565
502.744	0.998	-3.619	0.063	86.371	0.063	86.371	0.998	-3.619
510.202	0.998	-3.673	0.064	86.317	0.064	86.317	0.998	-3.673
517.66	0.998	-3.726	0.065	86.263	0.065	86.263	0.998	-3.726
525.118	0.998	-3.78	0.066	86.209	0.066	86.209	0.998	-3.78
532.577	0.998	-3.834	0.067	86.156	0.067	86.156	0.998	-3.834
540.035	0.998	-3.887	0.068	86.102	0.068	86.102	0.998	-3.887
547.493	0.998	-3.941	0.069	86.048	0.069	86.048	0.998	-3.941
554.951	0.998	-3.995	0.07	85.994	0.07	85.994	0.998	-3.995
562.41	0.997	-4.048	0.071	85.94	0.071	85.94	0.997	-4.048
569.868	0.997	-4.102	0.072	85.886	0.072	85.886	0.997	-4.102
577.326	0.997	-4.156	0.072	85.833	0.072	85.833	0.997	-4.156
584.784	0.997	-4.209	0.073	85.779	0.073	85.779	0.997	-4.209
592.242	0.997	-4.263	0.074	85.725	0.074	85.725	0.997	-4.263
599.701	0.997	-4.317	0.075	85.671	0.075	85.671	0.997	-4.317
607.159	0.997	-4.37	0.076	85.617	0.076	85.617	0.997	-4.37
614.617	0.997	-4.424	0.077	85.564	0.077	85.564	0.997	-4.424
622.075	0.997	-4.478	0.078	85.51	0.078	85.51	0.997	-4.478
629.534	0.997	-4.531	0.079	85.456	0.079	85.456	0.997	-4.531
636.992	0.997	-4.585	0.08	85.402	0.08	85.402	0.997	-4.585
644.45	0.997	-4.639	0.081	85.348	0.081	85.348	0.997	-4.639
651.908	0.997	-4.692	0.082	85.295	0.082	85.295	0.997	-4.692
659.366	0.997	-4.746	0.083	85.241	0.083	85.241	0.997	-4.746
666.825	0.996	-4.799	0.084	85.187	0.084	85.187	0.996	-4.799
674.283	0.996	-4.853	0.085	85.133	0.085	85.133	0.996	-4.853
681.741	0.996	-4.907	0.086	85.079	0.086	85.079	0.996	-4.907
689.199	0.996	-4.96	0.086	85.026	0.086	85.026	0.996	-4.96
696.658	0.996	-5.014	0.087	84.972	0.087	84.972	0.996	-5.014
704.116	0.996	-5.068	0.088	84.918	0.088	84.918	0.996	-5.068
711.574	0.996	-5.121	0.089	84.864	0.089	84.864	0.996	-5.121
719.032	0.996	-5.175	0.09	84.811	0.09	84.811	0.996	-5.175
726.49	0.996	-5.229	0.091	84.757	0.091	84.757	0.996	-5.229
733.949	0.996	-5.282	0.092	84.703	0.092	84.703	0.996	-5.282
741.407	0.996	-5.336	0.093	84.649	0.093	84.649	0.996	-5.336
748.865	0.996	-5.389	0.094	84.595	0.094	84.595	0.996	-5.389
756.323	0.995	-5.443	0.095	84.542	0.095	84.542	0.995	-5.443
763.781	0.995	-5.497	0.096	84.488	0.096	84.488	0.995	-5.497
771.24	0.995	-5.55	0.097	84.434	0.097	84.434	0.995	-5.55
778.698	0.995	-5.604	0.098	84.38	0.098	84.38	0.995	-5.604
786.156	0.995	-5.658	0.099	84.327	0.099	84.327	0.995	-5.658
793.614	0.995	-5.711	0.1	84.273	0.1	84.273	0.995	-5.711
801.073	0.995	-5.765	0.1	84.219	0.1	84.219	0.995	-5.765
808.531	0.995	-5.818	0.101	84.165	0.101	84.165	0.995	-5.818
815.989	0.995	-5.872	0.102	84.111	0.102	84.111	0.995	-5.872
823.447	0.995	-5.926	0.103	84.058	0.103	84.058	0.995	-5.926
830.905	0.995	-5.979	0.104	84.004	0.104	84.004	0.995	-5.979
838.364	0.994	-6.033	0.105	83.95	0.105	83.95	0.994	-6.033
845.822	0.994	-6.086	0.106	83.896	0.106	83.896	0.994	-6.086
853.28	0.994	-6.14	0.107	83.843	0.107	83.843	0.994	-6.14
860.738	0.994	-6.194	0.108	83.789	0.108	83.789	0.994	-6.194
868.197	0.994	-6.247	0.109	83.735	0.109	83.735	0.994	-6.247
875.655	0.994	-6.301	0.11	83.681	0.11	83.681	0.994	-6.301
883.113	0.994	-6.354	0.111	83.628	0.111	83.628	0.994	-6.354
890.571	0.994	-6.408	0.112	83.574	0.112	83.574	0.994	-6.408
898.029	0.994	-6.462	0.113	83.52	0.113	83.52	0.994	-6.462
905.488	0.994	-6.515	0.113	83.466	0.113	83.466	0.994	-6.515
912.946	0.993	-6.569	0.114	83.413	0.114	83.413	0.993	-6.569
920.404	0.993	-6.622	0.115	83.359	0.115	83.359	0.993	-6.622
927.862	0.993	-6.676	0.116	83.305	0.116	83.305	0.993	-6.676
935.321	0.993	-6.73	0.117	83.251	0.117	83.251	0.993	-6.73
942.779	0.993	-6.783	0.118	83.198	0.118	83.198	0.993	-6.783
950.237	0.993	-6.837	0.119	83.144	0.119	83.144	0.993	-6.837
957.695	0.993	-6.89	0.12	83.09	0.12	83.09	0.993	-6.89
965.153	0.993	-6.944	0.121	83.036	0.121	83.036	0.993	-6.944
972.612	0.993	-6.998	0.122	82.983	0.122	82.983	0.993	-6.998
980.07	0.992	-7.051	0.123	82.929	0.123	82.929	0.992	-7.051
987.528	0.992	-7.105	0.124	82.875	0.124	82.875	0.992	-7.105
994.986	0.992	-7.158	0.125	82.822	0.125	82.822	0.992	-7.158
1002.444	0.992	-7.212	0.126	82.768	0.126	82.768	0.992	-7.212
1009.903	0.992	-7.265	0.126	82.714	0.126	82.714	0.992	-7.265
1017.361	0.992	-7.319	0.127	82.66	0.127	82.66	0.992	-7.319
1024.819	0.992	-7.373	0.128	82.607	0.128	82.607	0.992	-7.373
1032.277	0.992	-7.426	0.129	82.553	0.129	82.553	0.992	-7.426
1039.736	0.991	-7.48	0.13	82.499	0.13	82.499	0.991	-7.48
1047.194	0.991	-7.533	0.131	82.446	0.131	82.446	0.991	-7.533
1054.652	0.991	-7.587	0.132	82.392	0.132	82.392	0.991	-7.587
1062.11	0.991	-7.64	0.133	82.338	0.133	82.338	0.991	-7.64
1069.568	0.991	-7.694	0.134	82.284	0.134	82.284	0.991	-7.694
1077.027	0.991	-7.747	0.135	82.231	0.135	82.231	0.991	-7.747
1084.485	0.991	-7.801	0.136	82.177	0.136	82.177	0.991	-7.801
1091.943	0.991	-7.855	0.137	82.123	0.137	82.123	0.991	-7.855
1099.401	0.99	-7.908	0.138	82.07	0.138	82.07	0.99	-7.908
1106.86	0.99	-7.962	0.139	82.016	0.139	82.016	0.99	-7.962
1114.318	0.99	-8.015	0.139	81.962	0.139	81.962	0.99	-8.015
1121.776	0.99	-8.069	0.14	81.909	0.14	81.909	0.99	-8.069
1129.234	0.99	-8.122	0.141	81.855	0.141	81.855	0.99	-8.122
1136.692	0.99	-8.176	0.142	81.801	0.142	81.801	0.99	-8.176
1144.151	0.99	-8.229	0.143	81.747	0.143	81.747	0.99	-8.229
1151.609	0.99	-8.283	0.144	81.694	0.144	81.694	0.99	-8.283
1159.067	0.989	-8.336	0.145	81.64	0.145	81.64	0.989	-8.336
1166.525	0.989	-8.39	0.146	81.586	0.146	81.586	0.989	-8.39
1173.984	0.989	-8.443	0.147	81.533	0.147	81.533	0.989	-8.443
1181.442	0.989	-8.497	0.148	81.479	0.148	81.479	0.989	-8.497
1188.9	0.989	-8.55	0.149	81.425	0.149	81.425	0.989	-8.55
1196.358	0.989	-8.604	0.15	81.372	0.15	81.372	0.989	-8.604
1203.816	0.989	-8.657	0.151	81.318	0.151	81.318	0.989	-8.657
1211.275	0.988	-8.711	0.151	81.264	0.151	81.264	0.988	-8.711
1218.733	0.988	-8.764	0.152	81.211	0.152	81.211	0.988	-8.764
1226.191	0.988	-8.818	0.153	81.157	0.153	81.157	0.988	-8.818
1233.649	0.988	-8.872	0.154	81.103	0.154	81.103	0.988	-8.872
1241.108	0.988	-8.925	0.155	81.05	0.155	81.05	0.988	-8.925
1248.566	0.988	-8.979	0.156	80.996	0.156	80.996	0.988	-8.979
1256.024	0.988	-9.032	0.157	80.942	0.157	80.942	0.988	-9.032
1263.482	0.987	-9.086	0.158	80.889	0.158	80.889	0.987	-9.086
1270.94	0.987	-9.139	0.159	80.835	0.159	80.835	0.987	-9.139
1278.399	0.987	-9.192	0.16	80.781	0.16	80.781	0.987	-9.192
1285.857	0.987	-9.246	0.161	80.728	0.161	80.728	0.987	-9.246
1293.315	0.987	-9.299	0.162	80.674	0.162	80.674	0.987	-9.299
1300.773	0.987	-9.353	0.163	80.621	0.163	80.621	0.987	-9.353
1308.231	0.986	-9.406	0.163	80.567	0.163	80.567	0.986	-9.406
1315.69	0.986	-9.46	0.164	80.513	0.164	80.513	0.986	-9.46
1323.148	0.986	-9.513	0.165	80.46	0.165	80.46	0.986	-9.513
1330.606	0.986	-9.567	0.166	80.406	0.166	80.406	0.986	-9.567
1338.064	0.986	-9.62	0.167	80.352	0.167	80.352	0.986	-9.62
1345.523	0.986	-9.674	0.168	80.299	0.168	80.299	0.986	-9.674
1352.981	0.986	-9.727	0.169	80.245	0.169	80.245	0.986	-9.727
1360.439	0.985	-9.781	0.17	80.192	0.17	80.192	0.985	-9.781
1367.897	0.985	-9.834	0.171	80.138	0.171	80.138	0.985	-9.834
1375.355	0.985	-9.888	0.172	80.084	0.172	80.084	0.985	-9.888
1382.814	0.985	-9.941	0.173	80.031	0.173	80.031	0.985	-9.941
1390.272	0.985	-9.995	0.174	79.977	0.174	79.977	0.985	-9.995
1397.73	0.985	-10.048	0.174	79.924	0.174	79.924	0.985	-10.048
1405.188	0.984	-10.101	0.175	79.87	0.175	79.87	0.984	-10.101
1412.647	0.984	-10.155	0.176	79.816	0.176	79.816	0.984	-10.155
1420.105	0.984	-10.208	0.177	79.763	0.177	79.763	0.984	-10.208
1427.563	0.984	-10.262	0.178	79.709	0.178	79.709	0.984	-10.262
1435.021	0.984	-10.315	0.179	79.656	0.179	79.656	0.984	-10.315
1442.479	0.984	-10.369	0.18	79.602	0.18	79.602	0.984	-10.369
1449.938	0.983	-10.422	0.181	79.548	0.181	79.548	0.983	-10.422
1457.396	0.983	-10.475	0.182	79.495	0.182	79.495	0.983	-10.475
1464.854	0.983	-10.529	0.183	79.441	0.183	79.441	0.983	-10.529
1472.312	0.983	-10.582	0.184	79.388	0.184	79.388	0.983	-10.582
1479.771	0.983	-10.636	0.185	79.334	0.185	79.334	0.983	-10.636
1487.229	0.983	-10.689	0.185	79.28	0.185	79.28	0.983	-10.689
1494.687	0.982	-10.743	0.186	79.227	0.186	79.227	0.982	-10.743
1502.145	0.982	-10.796	0.187	79.173	0.187	79.173	0.982	-10.796
1509.603	0.982	-10.849	0.188	79.12	0.188	79.12	0.982	-10.849
1517.062	0.982	-10.903	0.189	79.066	0.189	79.066	0.982	-10.903
1524.52	0.982	-10.956	0.19	79.013	0.19	79.013	0.982	-10.956
1531.978	0.981	-11.01	0.191	78.959	0.191	78.959	0.981	-11.01
1539.436	0.981	-11.063	0.192	78.906	0.192	78.906	0.981	-11.063
1546.894	0.981	-11.116	0.193	78.852	0.193	78.852	0.981	-11.116
1554.353	0.981	-11.17	0.194	78.798	0.194	78.798	0.981	-11.17
1561.811	0.981	-11.223	0.195	78.745	0.195	78.745	0.981	-11.223
1569.269	0.981	-11.277	0.196	78.691	0.196	78.691	0.981	-11.277
1576.727	0.98	-11.33	0.196	78.638	0.196	78.638	0.98	-11.33
1584.186	0.98	-11.383	0.197	78.584	0.197	78.584	0.98	-11.383
1591.644	0.98	-11.437	0.198	78.531	0.198	78.531	0.98	-11.437
1599.102	0.98	-11.49	0.199	78.477	0.199	78.477	0.98	-11.49
1606.56	0.98	-11.543	0.2	78.424	0.2	78.424	0.98	-11.543
1614.018	0.979	-11.597	0.201	78.37	0.201	78.37	0.979	-11.597
1621.477	0.979	-11.65	0.202	78.317	0.202	78.317	0.979	-11.65
1628.935	0.979	-11.704	0.203	78.263	0.203	78.263	0.979	-11.704
1636.393	0.979	-11.757	0.204	78.21	0.204	78.21	0.979	-11.757
1643.851	0.979	-11.81	0.205	78.156	0.205	78.156	0.979	-11.81
1651.31	0.979	-11.864	0.206	78.103	0.206	78.103	0.979	-11.864
1658.768	0.978	-11.917	0.206	78.049	0.206	78.049	0.978	-11.917
1666.226	0.978	-11.97	0.207	77.996	0.207	77.996	0.978	-11.97
1673.684	0.978	-12.024	0.208	77.942	0.208	77.942	0.978	-12.024
1681.142	0.978	-12.077	0.209	77.889	0.209	77.889	0.978	-12.077
1688.601	0.978	-12.13	0.21	77.835	0.21	77.835	0.978	-12.13
1696.059	0.977	-12.184	0.211	77.782	0.211	77.782	0.977	-12.184
1703.517	0.977	-12.237	0.212	77.728	0.212	77.728	0.977	-12.237
1710.975	0.977	-12.29	0.213	77.675	0.213	77.675	0.977	-12.29
1718.434	0.977	-12.344	0.214	77.621	0.214	77.621	0.977	-12.344
1725.892	0.977	-12.397	0.215	77.568	0.215	77.568	0.977	-12.397
1733.35	0.976	-12.45	0.216	77.514	0.216	77.514	0.976	-12.45
1740.808	0.976	-12.504	0.216	77.461	0.216	77.461	0.976	-12.504
1748.266	0.976	-12.557	0.217	77.407	0.217	77.407	0.976	-12.557
1755.725	0.976	-12.61	0.218	77.354	0.218	77.354	0.976	-12.61
1763.183	0.976	-12.663	0.219	77.3	0.219	77.3	0.976	-12.663
1770.641	0.975	-12.717	0.22	77.247	0.22	77.247	0.975	-12.717
1778.099	0.975	-12.77	0.221	77.194	0.221	77.194	0.975	-12.77
1785.557	0.975	-12.823	0.222	77.14	0.222	77.14	0.975	-12.823
1793.016	0.975	-12.877	0.223	77.087	0.223	77.087	0.975	-12.877
1800.474	0.975	-12.93	0.224	77.033	0.224	77.033	0.975	-12.93
1807.932	0.974	-12.983	0.225	76.98	0.225	76.98	0.974	-12.983
1815.39	0.974	-13.036	0.226	76.926	0.226	76.926	0.974	-13.036
1822.849	0.974	-13.09	0.226	76.873	0.226	76.873	0.974	-13.09
1830.307	0.974	-13.143	0.227	76.819	0.227	76.819	0.974	-13.143
1837.765	0.973	-13.196	0.228	76.766	0.228	76.766	0.973	-13.196
1845.223	0.973	-13.25	0.229	76.713	0.229	76.713	0.973	-13.25
1852.681	0.973	-13.303	0.23	76.659	0.23	76.659	0.973	-13.303
1860.14	0.973	-13.356	0.231	76.606	0.231	76.606	0.973	-13.356
1867.598	0.973	-13.409	0.232	76.552	0.232	76.552	0.973	-13.409
1875.056	0.972	-13.463	0.233	76.499	0.233	76.499	0.972	-13.463
1882.514	0.972	-13.516	0.234	76.446	0.234	76.446	0.972	-13.516
1889.973	0.972	-13.569	0.235	76.392	0.235	76.392	0.972	-13.569
1897.431	0.972	-13.622	0.236	76.339	0.236	76.339	0.972	-13.622
1904.889	0.971	-13.675	0.236	76.285	0.236	76.285	0.971	-13.675
1912.347	0.971	-13.729	0.237	76.232	0.237	76.232	0.971	-13.729
1919.805	0.971	-13.782	0.238	76.179	0.238	76.179	0.971	-13.782
1927.264	0.971	-13.835	0.239	76.125	0.239	76.125	0.971	-13.835
1934.722	0.971	-13.888	0.24	76.072	0.24	76.072	0.971	-13.888
1942.18	0.97	-13.942	0.241	76.019	0.241	76.019	0.97	-13.942
1949.638	0.97	-13.995	0.242	75.965	0.242	75.965	0.97	-13.995
1957.097	0.97	-14.048	0.243	75.912	0.243	75.912	0.97	-14.048
1964.555	0.97	-14.101	0.244	75.858	0.244	75.858	0.97	-14.101
1972.013	0.969	-14.154	0.245	75.805	0.245	75.805	0.969	-14.154
1979.471	0.969	-14.208	0.245	75.752	0.245	75.752	0.969	-14.208
1986.929	0.969	-14.261	0.246	75.698	0.246	75.698	0.969	-14.261
1994.388	0.969	-14.314	0.247	75.645	0.247	75.645	0.969	-14.314
2001.846	0.969	-14.367	0.248	75.592	0.248	75.592	0.969	-14.367
2009.304	0.968	-14.42	0.249	75.538	0.249	75.538	0.968	-14.42
2016.762	0.968	-14.474	0.25	75.485	0.25	75.485	0.968	-14.474
2024.221	0.968	-14.527	0.251	75.432	0.251	75.432	0.968	-14.527
2031.679	0.968	-14.58	0.252	75.378	0.252	75.378	0.968	-14.58
2039.137	0.967	-14.633	0.253	75.325	0.253	75.325	0.967	-14.633
2046.595	0.967	-14.686	0.254	75.272	0.254	75.272	0.967	-14.686
2054.053	0.967	-14.739	0.254	75.218	0.254	75.218	0.967	-14.739
2061.512	0.967	-14.792	0.255	75.165	0.255	75.165	0.967	-14.792
2068.97	0.966	-14.846	0.256	75.112	0.256	75.112	0.966	-14.846
2076.428	0.966	-14.899	0.257	75.058	0.257	75.058	0.966	-14.899
2083.886	0.966	-14.952	0.258	75.005	0.258	75.005	0.966	-14.952
2091.344	0.966	-15.005	0.259	74.952	0.259	74.952	0.966	-15.005
2098.803	0.965	-15.058	0.26	74.899	0.26	74.899	0.965	-15.058
2106.261	0.965	-15.111	0.261	74.845	0.261	74.845	0.965	-15.111
2113.719	0.965	-15.164	0.262	74.792	0.262	74.792	0.965	-15.164
2121.177	0.965	-15.218	0.262	74.739	0.262	74.739	0.965	-15.218
2128.636	0.964	-15.271	0.263	74.685	0.263	74.685	0.964	-15.271
2136.094	0.964	-15.324	0.264	74.632	0.264	74.632	0.964	-15.324
2143.552	0.964	-15.377	0.265	74.579	0.265	74.579	0.964	-15.377
2151.01	0.964	-15.43	0.266	74.526	0.266	74.526	0.964	-15.43
2158.468	0.964	-15.483	0.267	74.472	0.267	74.472	0.964	-15.483
2165.927	0.963	-15.536	0.268	74.419	0.268	74.419	0.963	-15.536
2173.385	0.963	-15.589	0.269	74.366	0.269	74.366	0.963	-15.589
2180.843	0.963	-15.642	0.27	74.313	0.27	74.313	0.963	-15.642
2188.301	0.962	-15.695	0.271	74.259	0.271	74.259	0.962	-15.695
2195.76	0.962	-15.749	0.271	74.206	0.271	74.206	0.962	-15.749
2203.218	0.962	-15.802	0.272	74.153	0.272	74.153	0.962	-15.802
2210.676	0.962	-15.855	0.273	74.1	0.273	74.1	0.962	-15.855
2218.134	0.961	-15.908	0.274	74.046	0.274	74.046	0.961	-15.908
2225.592	0.961	-15.961	0.275	73.993	0.275	73.993	0.961	-15.961
2233.051	0.961	-16.014	0.276	73.94	0.276	73.94	0.961	-16.014
2240.509	0.961	-16.067	0.277	73.887	0.277	73.887	0.961	-16.067
2247.967	0.96	-16.12	0.278	73.834	0.278	73.834	0.96	-16.12
2255.425	0.96	-16.173	0.279	73.78	0.279	73.78	0.96	-16.173
2262.884	0.96	-16.226	0.279	73.727	0.279	73.727	0.96	-16.226
2270.342	0.96	-16.279	0.28	73.674	0.28	73.674	0.96	-16.279
2277.8	0.959	-16.332	0.281	73.621	0.281	73.621	0.959	-16.332
2285.258	0.959	-16.385	0.282	73.568	0.282	73.568	0.959	-16.385
2292.716	0.959	-16.438	0.283	73.514	0.283	73.514	0.959	-16.438
2300.175	0.959	-16.491	0.284	73.461	0.284	73.461	0.959	-16.491
2307.633	0.958	-16.544	0.285	73.408	0.285	73.408	0.958	-16.544
2315.091	0.958	-16.597	0.286	73.355	0.286	73.355	0.958	-16.597
2322.549	0.958	-16.65	0.287	73.302	0.287	73.302	0.958	-16.65
2330.007	0.958	-16.703	0.287	73.249	0.287	73.249	0.958	-16.703
2337.466	0.957	-16.756	0.288	73.195	0.288	73.195	0.957	-16.756
2344.924	0.957	-16.809	0.289	73.142	0.289	73.142	0.957	-16.809
2352.382	0.957	-16.862	0.29	73.089	0.29	73.089	0.957	-16.862
2359.84	0.956	-16.915	0.291	73.036	0.291	73.036	0.956	-16.915
2367.299	0.956	-16.968	0.292	72.983	0.292	72.983	0.956	-16.968
2374.757	0.956	-17.021	0.293	72.93	0.293	72.93	0.956	-17.021
2382.215	0.956	-17.074	0.294	72.877	0.294	72.877	0.956	-17.074
2389.673	0.955	-17.127	0.294	72.823	0.294	72.823	0.955	-17.127
2397.131	0.955	-17.18	0.295	72.77	0.295	72.77	0.955	-17.18
2404.59	0.955	-17.233	0.296	72.717	0.296	72.717	0.955	-17.233
2412.048	0.955	-17.286	0.297	72.664	0.297	72.664	0.955	-17.286
2419.506	0.954	-17.339	0.298	72.611	0.298	72.611	0.954	-17.339
2426.964	0.954	-17.392	0.299	72.558	0.299	72.558	0.954	-17.392
2434.423	0.954	-17.445	0.3	72.505	0.3	72.505	0.954	-17.445
2441.881	0.953	-17.498	0.301	72.452	0.301	72.452	0.953	-17.498
2449.339	0.953	-17.551	0.302	72.399	0.302	72.399	0.953	-17.551
2456.797	0.953	-17.604	0.302	72.346	0.302	72.346	0.953	-17.604
2464.255	0.953	-17.656	0.303	72.292	0.303	72.292	0.953	-17.656
2471.714	0.952	-17.709	0.304	72.239	0.304	72.239	0.952	-17.709
2479.172	0.952	-17.762	0.305	72.186	0.305	72.186	0.952	-17.762
2486.63	0.952	-17.815	0.306	72.133	0.306	72.133	0.952	-17.815
2494.088	0.951	-17.868	0.307	72.08	0.307	72.08	0.951	-17.868
2501.547	0.951	-17.921	0.308	72.027	0.308	72.027	0.951	-17.921
2509.005	0.951	-17.974	0.309	71.974	0.309	71.974	0.951	-17.974
2516.463	0.951	-18.027	0.309	71.921	0.309	71.921	0.951	-18.027
2523.921	0.95	-18.08	0.31	71.868	0.31	71.868	0.95	-18.08
2531.379	0.95	-18.132	0.311	71.815	0.311	71.815	0.95	-18.132
