! AVX Thin Film Operation		Date: April 2012 
! Description: Accu-P® Series, Thin Film, SMD, RF Capacitor
! Part Number: 08051K120FBTTR					
!	100	MHz	-	10.05	GHz			
!	Serial	Measurements						
!								
#	MHZ	S	MA	R	50			
!	S11	S21	S12	S22				
!	dB	Phase	dB	Phase	dB	Phase	dB	Phase
100	0.797	-37.103	0.603	52.85	0.603	52.85	0.797	-37.103
102.469	0.79	-37.782	0.613	52.169	0.613	52.169	0.79	-37.782
104.939	0.783	-38.449	0.622	51.501	0.622	51.501	0.783	-38.449
107.408	0.775	-39.104	0.631	50.845	0.631	50.845	0.775	-39.104
109.878	0.768	-39.748	0.639	50.2	0.639	50.2	0.768	-39.748
112.347	0.761	-40.38	0.648	49.566	0.648	49.566	0.761	-40.38
114.817	0.754	-41.001	0.656	48.944	0.656	48.944	0.754	-41.001
117.286	0.747	-41.61	0.664	48.334	0.664	48.334	0.747	-41.61
119.756	0.74	-42.209	0.672	47.734	0.672	47.734	0.74	-42.209
122.225	0.733	-42.797	0.679	47.145	0.679	47.145	0.733	-42.797
124.694	0.726	-43.374	0.687	46.566	0.687	46.566	0.726	-43.374
127.164	0.719	-43.941	0.694	45.998	0.694	45.998	0.719	-43.941
129.633	0.713	-44.498	0.701	45.44	0.701	45.44	0.713	-44.498
132.103	0.706	-45.044	0.708	44.893	0.708	44.893	0.706	-45.044
134.572	0.699	-45.581	0.714	44.355	0.714	44.355	0.699	-45.581
137.042	0.692	-46.107	0.721	43.827	0.721	43.827	0.692	-46.107
139.511	0.686	-46.625	0.727	43.309	0.727	43.309	0.686	-46.625
141.981	0.679	-47.132	0.733	42.8	0.733	42.8	0.679	-47.132
144.45	0.673	-47.631	0.739	42.3	0.739	42.3	0.673	-47.631
146.919	0.667	-48.121	0.745	41.809	0.745	41.809	0.667	-48.121
149.389	0.66	-48.602	0.75	41.327	0.75	41.327	0.66	-48.602
151.858	0.654	-49.074	0.756	40.853	0.756	40.853	0.654	-49.074
154.328	0.648	-49.537	0.761	40.389	0.761	40.389	0.648	-49.537
156.797	0.642	-49.993	0.766	39.932	0.766	39.932	0.642	-49.993
159.267	0.636	-50.44	0.771	39.484	0.771	39.484	0.636	-50.44
161.736	0.63	-50.879	0.776	39.043	0.776	39.043	0.63	-50.879
164.206	0.624	-51.311	0.781	38.61	0.781	38.61	0.624	-51.311
166.675	0.618	-51.734	0.785	38.185	0.785	38.185	0.618	-51.734
169.144	0.612	-52.151	0.79	37.768	0.79	37.768	0.612	-52.151
171.614	0.607	-52.56	0.794	37.358	0.794	37.358	0.607	-52.56
174.083	0.601	-52.962	0.798	36.955	0.798	36.955	0.601	-52.962
176.553	0.596	-53.356	0.802	36.559	0.802	36.559	0.596	-53.356
179.022	0.59	-53.744	0.806	36.169	0.806	36.169	0.59	-53.744
181.492	0.585	-54.126	0.81	35.787	0.81	35.787	0.585	-54.126
183.961	0.579	-54.5	0.814	35.411	0.814	35.411	0.579	-54.5
186.431	0.574	-54.869	0.818	35.042	0.818	35.042	0.574	-54.869
188.9	0.569	-55.23	0.821	34.678	0.821	34.678	0.569	-55.23
191.369	0.564	-55.586	0.825	34.322	0.825	34.322	0.564	-55.586
193.839	0.559	-55.936	0.828	33.971	0.828	33.971	0.559	-55.936
196.308	0.554	-56.28	0.832	33.625	0.832	33.625	0.554	-56.28
198.778	0.549	-56.618	0.835	33.286	0.835	33.286	0.549	-56.618
201.247	0.544	-56.95	0.838	32.952	0.838	32.952	0.544	-56.95
203.717	0.539	-57.277	0.841	32.624	0.841	32.624	0.539	-57.277
206.186	0.534	-57.599	0.844	32.302	0.844	32.302	0.534	-57.599
208.656	0.53	-57.915	0.847	31.984	0.847	31.984	0.53	-57.915
211.125	0.525	-58.226	0.85	31.672	0.85	31.672	0.525	-58.226
213.594	0.52	-58.532	0.853	31.365	0.853	31.365	0.52	-58.532
216.064	0.516	-58.833	0.856	31.062	0.856	31.062	0.516	-58.833
218.533	0.512	-59.129	0.858	30.765	0.858	30.765	0.512	-59.129
221.003	0.507	-59.421	0.861	30.472	0.861	30.472	0.507	-59.421
223.472	0.503	-59.707	0.863	30.184	0.863	30.184	0.503	-59.707
225.942	0.498	-59.99	0.866	29.901	0.866	29.901	0.498	-59.99
228.411	0.494	-60.268	0.868	29.622	0.868	29.622	0.494	-60.268
230.881	0.49	-60.541	0.871	29.347	0.871	29.347	0.49	-60.541
233.35	0.486	-60.81	0.873	29.076	0.873	29.076	0.486	-60.81
235.819	0.482	-61.075	0.875	28.81	0.875	28.81	0.482	-61.075
238.289	0.478	-61.336	0.877	28.548	0.877	28.548	0.478	-61.336
240.758	0.474	-61.593	0.88	28.29	0.88	28.29	0.474	-61.593
243.228	0.47	-61.846	0.882	28.035	0.882	28.035	0.47	-61.846
245.697	0.466	-62.095	0.884	27.785	0.884	27.785	0.466	-62.095
248.167	0.462	-62.341	0.886	27.538	0.886	27.538	0.462	-62.341
250.636	0.459	-62.583	0.888	27.295	0.888	27.295	0.459	-62.583
253.106	0.455	-62.821	0.89	27.056	0.89	27.056	0.455	-62.821
255.575	0.451	-63.056	0.891	26.82	0.891	26.82	0.451	-63.056
258.044	0.448	-63.287	0.893	26.587	0.893	26.587	0.448	-63.287
260.514	0.444	-63.515	0.895	26.358	0.895	26.358	0.444	-63.515
262.983	0.44	-63.739	0.897	26.132	0.897	26.132	0.44	-63.739
265.453	0.437	-63.961	0.898	25.91	0.898	25.91	0.437	-63.961
267.922	0.434	-64.179	0.9	25.69	0.9	25.69	0.434	-64.179
270.392	0.43	-64.394	0.902	25.474	0.902	25.474	0.43	-64.394
272.861	0.427	-64.606	0.903	25.261	0.903	25.261	0.427	-64.606
275.331	0.423	-64.815	0.905	25.051	0.905	25.051	0.423	-64.815
277.8	0.42	-65.021	0.906	24.843	0.906	24.843	0.42	-65.021
280.269	0.417	-65.224	0.908	24.639	0.908	24.639	0.417	-65.224
282.739	0.414	-65.424	0.909	24.437	0.909	24.437	0.414	-65.424
285.208	0.411	-65.622	0.911	24.239	0.911	24.239	0.411	-65.622
287.678	0.407	-65.816	0.912	24.042	0.912	24.042	0.407	-65.816
290.147	0.404	-66.009	0.914	23.849	0.914	23.849	0.404	-66.009
292.617	0.401	-66.198	0.915	23.658	0.915	23.658	0.401	-66.198
295.086	0.398	-66.385	0.916	23.47	0.916	23.47	0.398	-66.385
297.556	0.395	-66.57	0.918	23.284	0.918	23.284	0.395	-66.57
300.025	0.392	-66.752	0.919	23.1	0.919	23.1	0.392	-66.752
302.494	0.389	-66.932	0.92	22.919	0.92	22.919	0.389	-66.932
304.964	0.387	-67.109	0.921	22.741	0.921	22.741	0.387	-67.109
307.433	0.384	-67.284	0.922	22.564	0.922	22.564	0.384	-67.284
309.903	0.381	-67.457	0.924	22.39	0.924	22.39	0.381	-67.457
312.372	0.378	-67.627	0.925	22.219	0.925	22.219	0.378	-67.627
314.842	0.375	-67.796	0.926	22.049	0.926	22.049	0.375	-67.796
317.311	0.373	-67.962	0.927	21.882	0.927	21.882	0.373	-67.962
319.78	0.37	-68.126	0.928	21.716	0.928	21.716	0.37	-68.126
322.25	0.367	-68.288	0.929	21.553	0.929	21.553	0.367	-68.288
324.719	0.365	-68.448	0.93	21.392	0.93	21.392	0.365	-68.448
327.189	0.362	-68.606	0.931	21.232	0.931	21.232	0.362	-68.606
329.658	0.36	-68.762	0.932	21.075	0.932	21.075	0.36	-68.762
332.128	0.357	-68.916	0.933	20.92	0.933	20.92	0.357	-68.916
334.597	0.355	-69.068	0.934	20.766	0.934	20.766	0.355	-69.068
337.067	0.352	-69.218	0.935	20.614	0.935	20.614	0.352	-69.218
339.536	0.35	-69.367	0.936	20.465	0.936	20.465	0.35	-69.367
342.005	0.347	-69.513	0.937	20.317	0.937	20.317	0.347	-69.513
344.475	0.345	-69.658	0.938	20.17	0.938	20.17	0.345	-69.658
346.944	0.342	-69.802	0.939	20.026	0.939	20.026	0.342	-69.802
349.414	0.34	-69.943	0.939	19.883	0.939	19.883	0.34	-69.943
351.883	0.338	-70.083	0.94	19.742	0.94	19.742	0.338	-70.083
354.353	0.335	-70.221	0.941	19.602	0.941	19.602	0.335	-70.221
356.822	0.333	-70.358	0.942	19.464	0.942	19.464	0.333	-70.358
359.292	0.331	-70.493	0.943	19.328	0.943	19.328	0.331	-70.493
361.761	0.329	-70.626	0.943	19.193	0.943	19.193	0.329	-70.626
364.23	0.327	-70.758	0.944	19.059	0.944	19.059	0.327	-70.758
366.7	0.324	-70.889	0.945	18.928	0.945	18.928	0.324	-70.889
369.169	0.322	-71.018	0.946	18.797	0.946	18.797	0.322	-71.018
371.639	0.32	-71.145	0.946	18.668	0.946	18.668	0.32	-71.145
374.108	0.318	-71.271	0.947	18.541	0.947	18.541	0.318	-71.271
376.578	0.316	-71.396	0.948	18.415	0.948	18.415	0.316	-71.396
379.047	0.314	-71.519	0.948	18.29	0.948	18.29	0.314	-71.519
381.517	0.312	-71.641	0.949	18.167	0.949	18.167	0.312	-71.641
383.986	0.31	-71.762	0.95	18.045	0.95	18.045	0.31	-71.762
386.455	0.308	-71.881	0.95	17.924	0.95	17.924	0.308	-71.881
388.925	0.306	-71.999	0.951	17.805	0.951	17.805	0.306	-71.999
391.394	0.304	-72.116	0.952	17.687	0.952	17.687	0.304	-72.116
393.864	0.302	-72.231	0.952	17.57	0.952	17.57	0.302	-72.231
396.333	0.3	-72.346	0.953	17.454	0.953	17.454	0.3	-72.346
398.803	0.298	-72.459	0.954	17.34	0.954	17.34	0.298	-72.459
401.272	0.296	-72.571	0.954	17.226	0.954	17.226	0.296	-72.571
403.742	0.294	-72.681	0.955	17.114	0.955	17.114	0.294	-72.681
406.211	0.292	-72.791	0.955	17.003	0.955	17.003	0.292	-72.791
408.68	0.291	-72.899	0.956	16.894	0.956	16.894	0.291	-72.899
411.15	0.289	-73.006	0.956	16.785	0.956	16.785	0.289	-73.006
413.619	0.287	-73.113	0.957	16.677	0.957	16.677	0.287	-73.113
416.089	0.285	-73.218	0.957	16.571	0.957	16.571	0.285	-73.218
418.558	0.283	-73.322	0.958	16.465	0.958	16.465	0.283	-73.322
421.028	0.282	-73.425	0.958	16.361	0.958	16.361	0.282	-73.425
423.497	0.28	-73.527	0.959	16.258	0.959	16.258	0.28	-73.527
425.967	0.278	-73.627	0.959	16.155	0.959	16.155	0.278	-73.627
428.436	0.277	-73.727	0.96	16.054	0.96	16.054	0.277	-73.727
430.905	0.275	-73.826	0.96	15.953	0.96	15.953	0.275	-73.826
433.375	0.273	-73.924	0.961	15.854	0.961	15.854	0.273	-73.924
435.844	0.272	-74.021	0.961	15.756	0.961	15.756	0.272	-74.021
438.314	0.27	-74.117	0.962	15.658	0.962	15.658	0.27	-74.117
440.783	0.268	-74.212	0.962	15.562	0.962	15.562	0.268	-74.212
443.253	0.267	-74.307	0.963	15.466	0.963	15.466	0.267	-74.307
445.722	0.265	-74.4	0.963	15.371	0.963	15.371	0.265	-74.4
448.192	0.263	-74.492	0.964	15.277	0.964	15.277	0.263	-74.492
450.661	0.262	-74.584	0.964	15.184	0.964	15.184	0.262	-74.584
453.13	0.26	-74.674	0.964	15.092	0.964	15.092	0.26	-74.674
455.6	0.259	-74.764	0.965	15.001	0.965	15.001	0.259	-74.764
458.069	0.257	-74.853	0.965	14.91	0.965	14.91	0.257	-74.853
460.539	0.256	-74.941	0.966	14.821	0.966	14.821	0.256	-74.941
463.008	0.254	-75.029	0.966	14.732	0.966	14.732	0.254	-75.029
465.478	0.253	-75.115	0.966	14.644	0.966	14.644	0.253	-75.115
467.947	0.251	-75.201	0.967	14.557	0.967	14.557	0.251	-75.201
470.417	0.25	-75.286	0.967	14.47	0.967	14.47	0.25	-75.286
472.886	0.248	-75.37	0.968	14.385	0.968	14.385	0.248	-75.37
475.355	0.247	-75.453	0.968	14.3	0.968	14.3	0.247	-75.453
477.825	0.246	-75.536	0.968	14.215	0.968	14.215	0.246	-75.536
480.294	0.244	-75.618	0.969	14.132	0.969	14.132	0.244	-75.618
482.764	0.243	-75.699	0.969	14.049	0.969	14.049	0.243	-75.699
485.233	0.241	-75.78	0.969	13.967	0.969	13.967	0.241	-75.78
487.703	0.24	-75.859	0.97	13.886	0.97	13.886	0.24	-75.859
490.172	0.239	-75.938	0.97	13.805	0.97	13.805	0.239	-75.938
492.642	0.237	-76.017	0.97	13.725	0.97	13.725	0.237	-76.017
495.111	0.236	-76.094	0.971	13.646	0.971	13.646	0.236	-76.094
497.58	0.235	-76.171	0.971	13.568	0.971	13.568	0.235	-76.171
500.05	0.233	-76.248	0.971	13.49	0.971	13.49	0.233	-76.248
502.519	0.232	-76.323	0.972	13.412	0.972	13.412	0.232	-76.323
504.989	0.231	-76.398	0.972	13.336	0.972	13.336	0.231	-76.398
507.458	0.229	-76.473	0.972	13.26	0.972	13.26	0.229	-76.473
509.928	0.228	-76.547	0.973	13.185	0.973	13.185	0.228	-76.547
512.397	0.227	-76.62	0.973	13.11	0.973	13.11	0.227	-76.62
514.867	0.226	-76.692	0.973	13.036	0.973	13.036	0.226	-76.692
517.336	0.224	-76.764	0.973	12.962	0.973	12.962	0.224	-76.764
519.805	0.223	-76.836	0.974	12.889	0.974	12.889	0.223	-76.836
522.275	0.222	-76.906	0.974	12.817	0.974	12.817	0.222	-76.906
524.744	0.221	-76.977	0.974	12.745	0.974	12.745	0.221	-76.977
527.214	0.219	-77.046	0.975	12.674	0.975	12.674	0.219	-77.046
529.683	0.218	-77.115	0.975	12.603	0.975	12.603	0.218	-77.115
532.153	0.217	-77.184	0.975	12.533	0.975	12.533	0.217	-77.184
534.622	0.216	-77.252	0.975	12.463	0.975	12.463	0.216	-77.252
537.092	0.215	-77.319	0.976	12.394	0.976	12.394	0.215	-77.319
539.561	0.213	-77.386	0.976	12.326	0.976	12.326	0.213	-77.386
542.03	0.212	-77.452	0.976	12.258	0.976	12.258	0.212	-77.452
544.5	0.211	-77.518	0.976	12.191	0.976	12.191	0.211	-77.518
546.969	0.21	-77.583	0.977	12.124	0.977	12.124	0.21	-77.583
549.439	0.209	-77.648	0.977	12.057	0.977	12.057	0.209	-77.648
551.908	0.208	-77.712	0.977	11.991	0.977	11.991	0.208	-77.712
554.378	0.207	-77.776	0.977	11.926	0.977	11.926	0.207	-77.776
556.847	0.206	-77.839	0.978	11.861	0.978	11.861	0.206	-77.839
559.317	0.204	-77.902	0.978	11.796	0.978	11.796	0.204	-77.902
561.786	0.203	-77.964	0.978	11.733	0.978	11.733	0.203	-77.964
564.255	0.202	-78.026	0.978	11.669	0.978	11.669	0.202	-78.026
566.725	0.201	-78.087	0.978	11.606	0.978	11.606	0.201	-78.087
569.194	0.2	-78.148	0.979	11.543	0.979	11.543	0.2	-78.148
571.664	0.199	-78.209	0.979	11.481	0.979	11.481	0.199	-78.209
574.133	0.198	-78.269	0.979	11.42	0.979	11.42	0.198	-78.269
576.603	0.197	-78.328	0.979	11.358	0.979	11.358	0.197	-78.328
579.072	0.196	-78.387	0.98	11.298	0.98	11.298	0.196	-78.387
581.542	0.195	-78.446	0.98	11.237	0.98	11.237	0.195	-78.446
584.011	0.194	-78.504	0.98	11.177	0.98	11.177	0.194	-78.504
586.48	0.193	-78.562	0.98	11.118	0.98	11.118	0.193	-78.562
588.95	0.192	-78.619	0.98	11.059	0.98	11.059	0.192	-78.619
591.419	0.191	-78.676	0.981	11	0.981	11	0.191	-78.676
593.889	0.19	-78.732	0.981	10.942	0.981	10.942	0.19	-78.732
596.358	0.189	-78.789	0.981	10.884	0.981	10.884	0.189	-78.789
598.828	0.188	-78.844	0.981	10.826	0.981	10.826	0.188	-78.844
601.297	0.187	-78.9	0.981	10.769	0.981	10.769	0.187	-78.9
603.767	0.186	-78.954	0.981	10.713	0.981	10.713	0.186	-78.954
606.236	0.185	-79.009	0.982	10.656	0.982	10.656	0.185	-79.009
608.705	0.184	-79.063	0.982	10.6	0.982	10.6	0.184	-79.063
611.175	0.183	-79.117	0.982	10.545	0.982	10.545	0.183	-79.117
613.644	0.182	-79.17	0.982	10.49	0.982	10.49	0.182	-79.17
616.114	0.181	-79.223	0.982	10.435	0.982	10.435	0.181	-79.223
618.583	0.18	-79.276	0.983	10.381	0.983	10.381	0.18	-79.276
621.053	0.179	-79.328	0.983	10.326	0.983	10.326	0.179	-79.328
623.522	0.178	-79.38	0.983	10.273	0.983	10.273	0.178	-79.38
625.992	0.177	-79.431	0.983	10.219	0.983	10.219	0.177	-79.431
628.461	0.177	-79.482	0.983	10.166	0.983	10.166	0.177	-79.482
630.93	0.176	-79.533	0.983	10.114	0.983	10.114	0.176	-79.533
633.4	0.175	-79.584	0.984	10.061	0.984	10.061	0.175	-79.584
635.869	0.174	-79.634	0.984	10.009	0.984	10.009	0.174	-79.634
638.339	0.173	-79.684	0.984	9.958	0.984	9.958	0.173	-79.684
640.808	0.172	-79.733	0.984	9.906	0.984	9.906	0.172	-79.733
643.278	0.171	-79.782	0.984	9.855	0.984	9.855	0.171	-79.782
645.747	0.17	-79.831	0.984	9.805	0.984	9.805	0.17	-79.831
648.217	0.169	-79.879	0.984	9.754	0.984	9.754	0.169	-79.879
650.686	0.169	-79.928	0.985	9.704	0.985	9.704	0.169	-79.928
653.155	0.168	-79.975	0.985	9.654	0.985	9.654	0.168	-79.975
655.625	0.167	-80.023	0.985	9.605	0.985	9.605	0.167	-80.023
658.094	0.166	-80.07	0.985	9.556	0.985	9.556	0.166	-80.07
660.564	0.165	-80.117	0.985	9.507	0.985	9.507	0.165	-80.117
663.033	0.164	-80.164	0.985	9.459	0.985	9.459	0.164	-80.164
665.503	0.164	-80.21	0.985	9.41	0.985	9.41	0.164	-80.21
667.972	0.163	-80.256	0.986	9.362	0.986	9.362	0.163	-80.256
670.442	0.162	-80.301	0.986	9.315	0.986	9.315	0.162	-80.301
672.911	0.161	-80.347	0.986	9.267	0.986	9.267	0.161	-80.347
675.38	0.16	-80.392	0.986	9.22	0.986	9.22	0.16	-80.392
677.85	0.159	-80.437	0.986	9.173	0.986	9.173	0.159	-80.437
680.319	0.159	-80.481	0.986	9.127	0.986	9.127	0.159	-80.481
682.789	0.158	-80.525	0.986	9.081	0.986	9.081	0.158	-80.525
685.258	0.157	-80.569	0.987	9.035	0.987	9.035	0.157	-80.569
687.728	0.156	-80.613	0.987	8.989	0.987	8.989	0.156	-80.613
690.197	0.155	-80.656	0.987	8.943	0.987	8.943	0.155	-80.656
692.667	0.155	-80.7	0.987	8.898	0.987	8.898	0.155	-80.7
695.136	0.154	-80.742	0.987	8.853	0.987	8.853	0.154	-80.742
697.605	0.153	-80.785	0.987	8.809	0.987	8.809	0.153	-80.785
700.075	0.152	-80.827	0.987	8.764	0.987	8.764	0.152	-80.827
702.544	0.152	-80.869	0.987	8.72	0.987	8.72	0.152	-80.869
705.014	0.151	-80.911	0.987	8.676	0.987	8.676	0.151	-80.911
707.483	0.15	-80.953	0.988	8.633	0.988	8.633	0.15	-80.953
709.953	0.149	-80.994	0.988	8.589	0.988	8.589	0.149	-80.994
712.422	0.149	-81.035	0.988	8.546	0.988	8.546	0.149	-81.035
714.891	0.148	-81.076	0.988	8.503	0.988	8.503	0.148	-81.076
717.361	0.147	-81.116	0.988	8.46	0.988	8.46	0.147	-81.116
719.83	0.146	-81.157	0.988	8.418	0.988	8.418	0.146	-81.157
722.3	0.146	-81.197	0.988	8.376	0.988	8.376	0.146	-81.197
724.769	0.145	-81.236	0.988	8.334	0.988	8.334	0.145	-81.236
727.239	0.144	-81.276	0.988	8.292	0.988	8.292	0.144	-81.276
729.708	0.144	-81.315	0.989	8.25	0.989	8.25	0.144	-81.315
732.178	0.143	-81.354	0.989	8.209	0.989	8.209	0.143	-81.354
734.647	0.142	-81.393	0.989	8.168	0.989	8.168	0.142	-81.393
737.116	0.141	-81.432	0.989	8.127	0.989	8.127	0.141	-81.432
739.586	0.141	-81.47	0.989	8.087	0.989	8.087	0.141	-81.47
742.055	0.14	-81.508	0.989	8.046	0.989	8.046	0.14	-81.508
744.525	0.139	-81.546	0.989	8.006	0.989	8.006	0.139	-81.546
746.994	0.139	-81.584	0.989	7.966	0.989	7.966	0.139	-81.584
749.464	0.138	-81.622	0.989	7.926	0.989	7.926	0.138	-81.622
751.933	0.137	-81.659	0.989	7.886	0.989	7.886	0.137	-81.659
754.403	0.137	-81.696	0.99	7.847	0.99	7.847	0.137	-81.696
756.872	0.136	-81.733	0.99	7.808	0.99	7.808	0.136	-81.733
759.341	0.135	-81.77	0.99	7.769	0.99	7.769	0.135	-81.77
761.811	0.135	-81.806	0.99	7.73	0.99	7.73	0.135	-81.806
764.28	0.134	-81.842	0.99	7.692	0.99	7.692	0.134	-81.842
766.75	0.133	-81.878	0.99	7.653	0.99	7.653	0.133	-81.878
769.219	0.133	-81.914	0.99	7.615	0.99	7.615	0.133	-81.914
771.689	0.132	-81.95	0.99	7.577	0.99	7.577	0.132	-81.95
774.158	0.131	-81.985	0.99	7.539	0.99	7.539	0.131	-81.985
776.628	0.131	-82.02	0.99	7.502	0.99	7.502	0.131	-82.02
779.097	0.13	-82.055	0.99	7.464	0.99	7.464	0.13	-82.055
781.566	0.129	-82.09	0.991	7.427	0.991	7.427	0.129	-82.09
784.036	0.129	-82.125	0.991	7.39	0.991	7.39	0.129	-82.125
786.505	0.128	-82.159	0.991	7.353	0.991	7.353	0.128	-82.159
788.975	0.127	-82.193	0.991	7.316	0.991	7.316	0.127	-82.193
791.444	0.127	-82.227	0.991	7.28	0.991	7.28	0.127	-82.227
793.914	0.126	-82.261	0.991	7.244	0.991	7.244	0.126	-82.261
796.383	0.125	-82.295	0.991	7.207	0.991	7.207	0.125	-82.295
798.853	0.125	-82.328	0.991	7.171	0.991	7.171	0.125	-82.328
801.322	0.124	-82.361	0.991	7.136	0.991	7.136	0.124	-82.361
803.791	0.124	-82.395	0.991	7.1	0.991	7.1	0.124	-82.395
806.261	0.123	-82.427	0.991	7.065	0.991	7.065	0.123	-82.427
808.73	0.122	-82.46	0.991	7.029	0.991	7.029	0.122	-82.46
811.2	0.122	-82.493	0.991	6.994	0.991	6.994	0.122	-82.493
813.669	0.121	-82.525	0.992	6.959	0.992	6.959	0.121	-82.525
816.139	0.121	-82.557	0.992	6.924	0.992	6.924	0.121	-82.557
818.608	0.12	-82.589	0.992	6.89	0.992	6.89	0.12	-82.589
821.078	0.119	-82.621	0.992	6.855	0.992	6.855	0.119	-82.621
823.547	0.119	-82.653	0.992	6.821	0.992	6.821	0.119	-82.653
826.016	0.118	-82.684	0.992	6.787	0.992	6.787	0.118	-82.684
828.486	0.118	-82.715	0.992	6.753	0.992	6.753	0.118	-82.715
830.955	0.117	-82.747	0.992	6.719	0.992	6.719	0.117	-82.747
833.425	0.116	-82.778	0.992	6.685	0.992	6.685	0.116	-82.778
835.894	0.116	-82.808	0.992	6.652	0.992	6.652	0.116	-82.808
838.364	0.115	-82.839	0.992	6.618	0.992	6.618	0.115	-82.839
840.833	0.115	-82.87	0.992	6.585	0.992	6.585	0.115	-82.87
843.303	0.114	-82.9	0.992	6.552	0.992	6.552	0.114	-82.9
845.772	0.114	-82.93	0.992	6.519	0.992	6.519	0.114	-82.93
848.241	0.113	-82.96	0.993	6.486	0.993	6.486	0.113	-82.96
850.711	0.112	-82.99	0.993	6.454	0.993	6.454	0.112	-82.99
853.18	0.112	-83.019	0.993	6.421	0.993	6.421	0.112	-83.019
855.65	0.111	-83.049	0.993	6.389	0.993	6.389	0.111	-83.049
858.119	0.111	-83.078	0.993	6.357	0.993	6.357	0.111	-83.078
860.589	0.11	-83.107	0.993	6.324	0.993	6.324	0.11	-83.107
863.058	0.11	-83.136	0.993	6.292	0.993	6.292	0.11	-83.136
865.528	0.109	-83.165	0.993	6.261	0.993	6.261	0.109	-83.165
867.997	0.109	-83.194	0.993	6.229	0.993	6.229	0.109	-83.194
870.466	0.108	-83.223	0.993	6.198	0.993	6.198	0.108	-83.223
872.936	0.107	-83.251	0.993	6.166	0.993	6.166	0.107	-83.251
875.405	0.107	-83.279	0.993	6.135	0.993	6.135	0.107	-83.279
877.875	0.106	-83.307	0.993	6.104	0.993	6.104	0.106	-83.307
880.344	0.106	-83.335	0.993	6.073	0.993	6.073	0.106	-83.335
882.814	0.105	-83.363	0.993	6.042	0.993	6.042	0.105	-83.363
885.283	0.105	-83.391	0.993	6.011	0.993	6.011	0.105	-83.391
887.753	0.104	-83.418	0.993	5.981	0.993	5.981	0.104	-83.418
890.222	0.104	-83.446	0.994	5.95	0.994	5.95	0.104	-83.446
892.691	0.103	-83.473	0.994	5.92	0.994	5.92	0.103	-83.473
895.161	0.103	-83.5	0.994	5.89	0.994	5.89	0.103	-83.5
897.63	0.102	-83.527	0.994	5.859	0.994	5.859	0.102	-83.527
900.1	0.102	-83.554	0.994	5.829	0.994	5.829	0.102	-83.554
902.569	0.101	-83.58	0.994	5.8	0.994	5.8	0.101	-83.58
905.039	0.101	-83.607	0.994	5.77	0.994	5.77	0.101	-83.607
