! AVX Thin Film Operation		Date: April 2012 
! Description: Accu-P® Series, Thin Film, SMD, RF Capacitor
! Part Number: 08051J2R6QBTTR					
!	100	MHz	-	20.05	GHz			
!	Serial	Measurements						
!								
#	MHZ	S	MA	R	50			
!	S11	S21	S12	S22				
!	dB	Phase	dB	Phase	dB	Phase	dB	Phase
50 0.997 -4.67 0.081 85.255 0.081 85.255 0.997 -4.67
100 0.987 -9.283 0.161 80.624 0.161 80.624 0.987 -9.283
150 0.971 -13.785 0.238 76.103 0.238 76.103 0.971 -13.785
200 0.95 -18.134 0.311 71.736 0.311 71.736 0.95 -18.134
250 0.924 -22.292 0.379 67.559 0.379 67.559 0.924 -22.292
300 0.896 -26.235 0.442 63.597 0.442 63.597 0.896 -26.235
350 0.865 -29.95 0.499 59.864 0.499 59.864 0.865 -29.95
400 0.833 -33.429 0.551 56.365 0.551 56.365 0.833 -33.429
450 0.8 -36.675 0.597 53.1 0.597 53.1 0.8 -36.675
500 0.767 -39.694 0.639 50.062 0.639 50.062 0.767 -39.694
550 0.734 -42.497 0.676 47.239 0.676 47.239 0.734 -42.497
600 0.702 -45.096 0.708 44.62 0.708 44.62 0.702 -45.096
650 0.672 -47.506 0.737 42.19 0.737 42.19 0.672 -47.506
700 0.642 -49.74 0.763 39.935 0.763 39.935 0.642 -49.74
750 0.613 -51.813 0.786 37.84 0.786 37.84 0.613 -51.813
800 0.586 -53.739 0.806 35.893 0.806 35.893 0.586 -53.739
850 0.56 -55.529 0.824 34.081 0.824 34.081 0.56 -55.529
900 0.536 -57.197 0.841 32.391 0.841 32.391 0.536 -57.197
950 0.512 -58.752 0.855 30.812 0.855 30.812 0.512 -58.752
1000 0.49 -60.205 0.868 29.335 0.868 29.335 0.49 -60.205
1050 0.469 -61.565 0.879 27.951 0.879 27.951 0.469 -61.565
1100 0.449 -62.84 0.89 26.651 0.89 26.651 0.449 -62.84
1150 0.429 -64.038 0.899 25.428 0.899 25.428 0.429 -64.038
1200 0.411 -65.164 0.908 24.275 0.908 24.275 0.411 -65.164
1250 0.394 -66.226 0.915 23.186 0.915 23.186 0.394 -66.226
1300 0.377 -67.228 0.922 22.156 0.922 22.156 0.377 -67.228
1350 0.361 -68.175 0.928 21.18 0.928 21.18 0.361 -68.175
1400 0.346 -69.071 0.934 20.253 0.934 20.253 0.346 -69.071
1450 0.332 -69.921 0.939 19.372 0.939 19.372 0.332 -69.921
1500 0.318 -70.728 0.944 18.533 0.944 18.533 0.318 -70.728
1550 0.305 -71.495 0.948 17.732 0.948 17.732 0.305 -71.495
1600 0.292 -72.224 0.952 16.967 0.952 16.967 0.292 -72.224
1650 0.28 -72.919 0.956 16.235 0.956 16.235 0.28 -72.919
1700 0.268 -73.582 0.959 15.534 0.959 15.534 0.268 -73.582
1750 0.257 -74.215 0.962 14.861 0.962 14.861 0.257 -74.215
1800 0.246 -74.819 0.965 14.214 0.965 14.214 0.246 -74.819
1850 0.235 -75.397 0.968 13.592 0.968 13.592 0.235 -75.397
1900 0.225 -75.949 0.97 12.993 0.97 12.993 0.225 -75.949
1950 0.215 -76.477 0.972 12.415 0.972 12.415 0.215 -76.477
2000 0.206 -76.982 0.975 11.858 0.975 11.858 0.206 -76.982
2050 0.196 -77.466 0.976 11.319 0.976 11.319 0.196 -77.466
2100 0.187 -77.929 0.978 10.797 0.978 10.797 0.187 -77.929
2150 0.179 -78.371 0.98 10.292 0.98 10.292 0.179 -78.371
2200 0.17 -78.794 0.981 9.803 0.981 9.803 0.17 -78.794
2250 0.162 -79.197 0.983 9.328 0.983 9.328 0.162 -79.197
2300 0.154 -79.582 0.984 8.866 0.984 8.866 0.154 -79.582
2350 0.146 -79.948 0.985 8.418 0.985 8.418 0.146 -79.948
2400 0.139 -80.295 0.986 7.982 0.986 7.982 0.139 -80.295
2450 0.132 -80.623 0.987 7.557 0.987 7.557 0.132 -80.623
2500 0.124 -80.931 0.988 7.143 0.988 7.143 0.124 -80.931
2550 0.117 -81.22 0.989 6.739 0.989 6.739 0.117 -81.22
2600 0.111 -81.487 0.99 6.345 0.99 6.345 0.111 -81.487
2650 0.104 -81.732 0.99 5.96 0.99 5.96 0.104 -81.732
2700 0.097 -81.953 0.991 5.584 0.991 5.584 0.097 -81.953
2750 0.091 -82.147 0.992 5.217 0.992 5.217 0.091 -82.147
2800 0.085 -82.312 0.992 4.857 0.992 4.857 0.085 -82.312
2850 0.079 -82.444 0.993 4.504 0.993 4.504 0.079 -82.444
2900 0.073 -82.536 0.993 4.159 0.993 4.159 0.073 -82.536
2950 0.067 -82.582 0.994 3.821 0.994 3.821 0.067 -82.582
3000 0.061 -82.573 0.994 3.489 0.994 3.489 0.061 -82.573
3050 0.055 -82.495 0.994 3.164 0.994 3.164 0.055 -82.495
3100 0.05 -82.329 0.995 2.844 0.995 2.844 0.05 -82.329
3150 0.044 -82.048 0.995 2.53 0.995 2.53 0.044 -82.048
3200 0.039 -81.609 0.995 2.222 0.995 2.222 0.039 -81.609
3250 0.034 -80.946 0.995 1.918 0.995 1.918 0.034 -80.946
3300 0.029 -79.948 0.995 1.62 0.995 1.62 0.029 -79.948
3350 0.024 -78.412 0.996 1.326 0.996 1.326 0.024 -78.412
3400 0.019 -75.929 0.996 1.037 0.996 1.037 0.019 -75.929
3450 0.014 -71.555 0.996 0.753 0.996 0.753 0.014 -71.555
3500 9.25e-3 -62.584 0.996 0.472 0.996 0.472 9.25e-3 -62.584
3550 5.412e-3 -39.044 0.996 0.196 0.996 0.196 5.412e-3 -39.044
3600 4.398e-3 17.551 0.996 -0.076 0.996 -0.076 4.398e-3 17.551
3650 7.337e-3 54.814 0.996 -0.345 0.996 -0.345 7.337e-3 54.814
3700 0.011 67.904 0.996 -0.61 0.996 -0.61 0.011 67.904
3750 0.016 73.726 0.996 -0.872 0.996 -0.872 0.016 73.726
3800 0.02 76.872 0.996 -1.13 0.996 -1.13 0.02 76.872
3850 0.025 78.778 0.996 -1.385 0.996 -1.385 0.025 78.778
3900 0.029 80.017 0.995 -1.637 0.995 -1.637 0.029 80.017
3950 0.033 80.857 0.995 -1.886 0.995 -1.886 0.033 80.857
4000 0.037 81.441 0.995 -2.132 0.995 -2.132 0.037 81.441
4050 0.042 81.851 0.995 -2.375 0.995 -2.375 0.042 81.851
4100 0.046 82.138 0.995 -2.616 0.995 -2.616 0.046 82.138
4150 0.05 82.336 0.995 -2.854 0.995 -2.854 0.05 82.336
4200 0.054 82.465 0.994 -3.089 0.994 -3.089 0.054 82.465
4250 0.058 82.543 0.994 -3.322 0.994 -3.322 0.058 82.543
4300 0.062 82.58 0.994 -3.552 0.994 -3.552 0.062 82.58
4350 0.066 82.585 0.994 -3.781 0.994 -3.781 0.066 82.585
4400 0.07 82.563 0.993 -4.007 0.993 -4.007 0.07 82.563
4450 0.074 82.52 0.993 -4.23 0.993 -4.23 0.074 82.52
4500 0.078 82.46 0.993 -4.452 0.993 -4.452 0.078 82.46
4550 0.082 82.385 0.992 -4.672 0.992 -4.672 0.082 82.385
4600 0.085 82.298 0.992 -4.889 0.992 -4.889 0.085 82.298
4650 0.089 82.201 0.992 -5.105 0.992 -5.105 0.089 82.201
4700 0.093 82.096 0.992 -5.319 0.992 -5.319 0.093 82.096
4750 0.096 81.982 0.991 -5.531 0.991 -5.531 0.096 81.982
4800 0.1 81.863 0.991 -5.742 0.991 -5.742 0.1 81.863
4850 0.104 81.738 0.99 -5.95 0.99 -5.95 0.104 81.738
4900 0.107 81.609 0.99 -6.157 0.99 -6.157 0.107 81.609
4950 0.111 81.476 0.99 -6.363 0.99 -6.363 0.111 81.476
5000 0.114 81.339 0.989 -6.566 0.989 -6.566 0.114 81.339
5050 0.118 81.199 0.989 -6.768 0.989 -6.768 0.118 81.199
5100 0.121 81.057 0.988 -6.969 0.988 -6.969 0.121 81.057
5150 0.125 80.913 0.988 -7.168 0.988 -7.168 0.125 80.913
5200 0.128 80.766 0.988 -7.366 0.988 -7.366 0.128 80.766
5250 0.132 80.618 0.987 -7.562 0.987 -7.562 0.132 80.618
5300 0.135 80.469 0.987 -7.758 0.987 -7.758 0.135 80.469
5350 0.138 80.319 0.986 -7.951 0.986 -7.951 0.138 80.319
5400 0.142 80.167 0.986 -8.144 0.986 -8.144 0.142 80.167
5450 0.145 80.015 0.985 -8.335 0.985 -8.335 0.145 80.015
5500 0.148 79.862 0.985 -8.525 0.985 -8.525 0.148 79.862
5550 0.152 79.708 0.984 -8.713 0.984 -8.713 0.152 79.708
5600 0.155 79.554 0.984 -8.901 0.984 -8.901 0.155 79.554
5650 0.158 79.399 0.983 -9.087 0.983 -9.087 0.158 79.399
5700 0.161 79.244 0.983 -9.272 0.983 -9.272 0.161 79.244
5750 0.164 79.089 0.982 -9.456 0.982 -9.456 0.164 79.089
5800 0.167 78.934 0.982 -9.639 0.982 -9.639 0.167 78.934
5850 0.171 78.778 0.981 -9.821 0.981 -9.821 0.171 78.778
5900 0.174 78.623 0.981 -10.002 0.981 -10.002 0.174 78.623
5950 0.177 78.467 0.98 -10.182 0.98 -10.182 0.177 78.467
6000 0.18 78.312 0.98 -10.361 0.98 -10.361 0.18 78.312
6050 0.183 78.156 0.979 -10.538 0.979 -10.538 0.183 78.156
6100 0.186 78.001 0.978 -10.715 0.978 -10.715 0.186 78.001
6150 0.189 77.846 0.978 -10.891 0.978 -10.891 0.189 77.846
6200 0.192 77.691 0.977 -11.066 0.977 -11.066 0.192 77.691
6250 0.195 77.536 0.977 -11.24 0.977 -11.24 0.195 77.536
6300 0.198 77.381 0.976 -11.413 0.976 -11.413 0.198 77.381
6350 0.201 77.227 0.975 -11.586 0.975 -11.586 0.201 77.227
6400 0.204 77.073 0.975 -11.757 0.975 -11.757 0.204 77.073
6450 0.207 76.919 0.974 -11.928 0.974 -11.928 0.207 76.919
6500 0.21 76.766 0.974 -12.098 0.974 -12.098 0.21 76.766
6550 0.212 76.612 0.973 -12.266 0.973 -12.266 0.212 76.612
6600 0.215 76.46 0.972 -12.435 0.972 -12.435 0.215 76.46
6650 0.218 76.307 0.972 -12.602 0.972 -12.602 0.218 76.307
6700 0.221 76.155 0.971 -12.768 0.971 -12.768 0.221 76.155
6750 0.224 76.003 0.97 -12.934 0.97 -12.934 0.224 76.003
6800 0.227 75.851 0.97 -13.099 0.97 -13.099 0.227 75.851
6850 0.229 75.7 0.969 -13.263 0.969 -13.263 0.229 75.7
6900 0.232 75.549 0.969 -13.427 0.969 -13.427 0.232 75.549
6950 0.235 75.399 0.968 -13.59 0.968 -13.59 0.235 75.399
7000 0.238 75.249 0.967 -13.752 0.967 -13.752 0.238 75.249
7050 0.24 75.099 0.967 -13.913 0.967 -13.913 0.24 75.099
7100 0.243 74.95 0.966 -14.074 0.966 -14.074 0.243 74.95
7150 0.246 74.801 0.965 -14.234 0.965 -14.234 0.246 74.801
7200 0.249 74.652 0.964 -14.393 0.964 -14.393 0.249 74.652
7250 0.251 74.504 0.964 -14.552 0.964 -14.552 0.251 74.504
7300 0.254 74.356 0.963 -14.71 0.963 -14.71 0.254 74.356
7350 0.257 74.209 0.962 -14.867 0.962 -14.867 0.257 74.209
7400 0.259 74.062 0.962 -15.024 0.962 -15.024 0.259 74.062
7450 0.262 73.915 0.961 -15.18 0.961 -15.18 0.262 73.915
7500 0.264 73.769 0.96 -15.335 0.96 -15.335 0.264 73.769
7550 0.267 73.623 0.96 -15.49 0.96 -15.49 0.267 73.623
7600 0.27 73.478 0.959 -15.644 0.959 -15.644 0.27 73.478
7650 0.272 73.333 0.958 -15.798 0.958 -15.798 0.272 73.333
7700 0.275 73.188 0.957 -15.951 0.957 -15.951 0.275 73.188
7750 0.277 73.044 0.957 -16.103 0.957 -16.103 0.277 73.044
7800 0.28 72.9 0.956 -16.255 0.956 -16.255 0.28 72.9
7850 0.282 72.757 0.955 -16.407 0.955 -16.407 0.282 72.757
7900 0.285 72.614 0.954 -16.557 0.954 -16.557 0.285 72.614
7950 0.288 72.471 0.954 -16.707 0.954 -16.707 0.288 72.471
8000 0.29 72.329 0.953 -16.857 0.953 -16.857 0.29 72.329
8050 0.293 72.187 0.952 -17.006 0.952 -17.006 0.293 72.187
8100 0.295 72.045 0.951 -17.155 0.951 -17.155 0.295 72.045
8150 0.297 71.904 0.951 -17.303 0.951 -17.303 0.297 71.904
8200 0.3 71.764 0.95 -17.45 0.95 -17.45 0.3 71.764
8250 0.302 71.623 0.949 -17.597 0.949 -17.597 0.302 71.623
8300 0.305 71.484 0.948 -17.743 0.948 -17.743 0.305 71.484
8350 0.307 71.344 0.948 -17.889 0.948 -17.889 0.307 71.344
8400 0.31 71.205 0.947 -18.035 0.947 -18.035 0.31 71.205
8450 0.312 71.066 0.946 -18.179 0.946 -18.179 0.312 71.066
8500 0.314 70.928 0.945 -18.324 0.945 -18.324 0.314 70.928
8550 0.317 70.79 0.944 -18.468 0.944 -18.468 0.317 70.79
8600 0.319 70.652 0.944 -18.611 0.944 -18.611 0.319 70.652
8650 0.322 70.515 0.943 -18.754 0.943 -18.754 0.322 70.515
8700 0.324 70.378 0.942 -18.896 0.942 -18.896 0.324 70.378
8750 0.326 70.242 0.941 -19.038 0.941 -19.038 0.326 70.242
8800 0.329 70.106 0.94 -19.18 0.94 -19.18 0.329 70.106
8850 0.331 69.97 0.94 -19.321 0.94 -19.321 0.331 69.97
8900 0.333 69.835 0.939 -19.461 0.939 -19.461 0.333 69.835
8950 0.335 69.7 0.938 -19.601 0.938 -19.601 0.335 69.7
9000 0.338 69.565 0.937 -19.741 0.937 -19.741 0.338 69.565
9050 0.34 69.431 0.936 -19.88 0.936 -19.88 0.34 69.431
9100 0.342 69.297 0.935 -20.019 0.935 -20.019 0.342 69.297
9150 0.345 69.164 0.935 -20.157 0.935 -20.157 0.345 69.164
9200 0.347 69.031 0.934 -20.295 0.934 -20.295 0.347 69.031
9250 0.349 68.898 0.933 -20.432 0.933 -20.432 0.349 68.898
9300 0.351 68.766 0.932 -20.569 0.932 -20.569 0.351 68.766
9350 0.354 68.634 0.931 -20.705 0.931 -20.705 0.354 68.634
9400 0.356 68.502 0.93 -20.841 0.93 -20.841 0.356 68.502
9450 0.358 68.371 0.93 -20.977 0.93 -20.977 0.358 68.371
9500 0.36 68.24 0.929 -21.112 0.929 -21.112 0.36 68.24
9550 0.362 68.11 0.928 -21.247 0.928 -21.247 0.362 68.11
9600 0.365 67.979 0.927 -21.381 0.927 -21.381 0.365 67.979
9650 0.367 67.85 0.926 -21.515 0.926 -21.515 0.367 67.85
9700 0.369 67.72 0.925 -21.649 0.925 -21.649 0.369 67.72
9750 0.371 67.591 0.925 -21.782 0.925 -21.782 0.371 67.591
9800 0.373 67.462 0.924 -21.914 0.924 -21.914 0.373 67.462
9850 0.375 67.334 0.923 -22.047 0.923 -22.047 0.375 67.334
9900 0.378 67.206 0.922 -22.178 0.922 -22.178 0.378 67.206
9950 0.38 67.078 0.921 -22.31 0.921 -22.31 0.38 67.078
10000 0.382 66.951 0.92 -22.441 0.92 -22.441 0.382 66.951
10050 0.384 66.824 0.919 -22.572 0.919 -22.572 0.384 66.824
10100 0.386 66.697 0.918 -22.702 0.918 -22.702 0.386 66.697
10150 0.388 66.571 0.918 -22.832 0.918 -22.832 0.388 66.571
10200 0.39 66.444 0.917 -22.961 0.917 -22.961 0.39 66.444
10250 0.392 66.319 0.916 -23.09 0.916 -23.09 0.392 66.319
10300 0.394 66.193 0.915 -23.219 0.915 -23.219 0.394 66.193
10350 0.396 66.068 0.914 -23.347 0.914 -23.347 0.396 66.068
10400 0.398 65.944 0.913 -23.475 0.913 -23.475 0.398 65.944
10450 0.4 65.819 0.912 -23.603 0.912 -23.603 0.4 65.819
10500 0.402 65.695 0.911 -23.73 0.911 -23.73 0.402 65.695
10550 0.404 65.572 0.911 -23.857 0.911 -23.857 0.404 65.572
10600 0.406 65.448 0.91 -23.984 0.91 -23.984 0.406 65.448
10650 0.409 65.325 0.909 -24.11 0.909 -24.11 0.409 65.325
10700 0.411 65.203 0.908 -24.235 0.908 -24.235 0.411 65.203
10750 0.412 65.08 0.907 -24.361 0.907 -24.361 0.412 65.08
10800 0.414 64.958 0.906 -24.486 0.906 -24.486 0.414 64.958
10850 0.416 64.837 0.905 -24.61 0.905 -24.61 0.416 64.837
10900 0.418 64.715 0.904 -24.735 0.904 -24.735 0.418 64.715
10950 0.42 64.594 0.903 -24.858 0.903 -24.858 0.42 64.594
11000 0.422 64.474 0.902 -24.982 0.902 -24.982 0.422 64.474
11050 0.424 64.353 0.902 -25.105 0.902 -25.105 0.424 64.353
11100 0.426 64.233 0.901 -25.228 0.901 -25.228 0.426 64.233
11150 0.428 64.113 0.9 -25.35 0.9 -25.35 0.428 64.113
11200 0.43 63.994 0.899 -25.473 0.899 -25.473 0.43 63.994
11250 0.432 63.875 0.898 -25.594 0.898 -25.594 0.432 63.875
11300 0.434 63.756 0.897 -25.716 0.897 -25.716 0.434 63.756
11350 0.436 63.638 0.896 -25.837 0.896 -25.837 0.436 63.638
11400 0.438 63.519 0.895 -25.958 0.895 -25.958 0.438 63.519
11450 0.44 63.401 0.894 -26.078 0.894 -26.078 0.44 63.401
11500 0.441 63.284 0.893 -26.198 0.893 -26.198 0.441 63.284
11550 0.443 63.167 0.892 -26.318 0.892 -26.318 0.443 63.167
11600 0.445 63.05 0.891 -26.437 0.891 -26.437 0.445 63.05
11650 0.447 62.933 0.891 -26.556 0.891 -26.556 0.447 62.933
11700 0.449 62.817 0.89 -26.675 0.89 -26.675 0.449 62.817
11750 0.451 62.701 0.889 -26.793 0.889 -26.793 0.451 62.701
11800 0.453 62.585 0.888 -26.911 0.888 -26.911 0.453 62.585
11850 0.454 62.47 0.887 -27.029 0.887 -27.029 0.454 62.47
11900 0.456 62.355 0.886 -27.146 0.886 -27.146 0.456 62.355
11950 0.458 62.24 0.885 -27.263 0.885 -27.263 0.458 62.24
12000 0.46 62.125 0.884 -27.38 0.884 -27.38 0.46 62.125
12050 0.462 62.011 0.883 -27.497 0.883 -27.497 0.462 62.011
12100 0.464 61.897 0.882 -27.613 0.882 -27.613 0.464 61.897
12150 0.465 61.784 0.881 -27.728 0.881 -27.728 0.465 61.784
12200 0.467 61.67 0.88 -27.844 0.88 -27.844 0.467 61.67
12250 0.469 61.557 0.879 -27.959 0.879 -27.959 0.469 61.557
12300 0.471 61.445 0.878 -28.074 0.878 -28.074 0.471 61.445
12350 0.472 61.332 0.877 -28.188 0.877 -28.188 0.472 61.332
12400 0.474 61.22 0.877 -28.302 0.877 -28.302 0.474 61.22
12450 0.476 61.108 0.876 -28.416 0.876 -28.416 0.476 61.108
12500 0.478 60.997 0.875 -28.53 0.875 -28.53 0.478 60.997
12550 0.479 60.886 0.874 -28.643 0.874 -28.643 0.479 60.886
12600 0.481 60.775 0.873 -28.756 0.873 -28.756 0.481 60.775
12650 0.483 60.664 0.872 -28.868 0.872 -28.868 0.483 60.664
12700 0.485 60.554 0.871 -28.981 0.871 -28.981 0.485 60.554
12750 0.486 60.444 0.87 -29.093 0.87 -29.093 0.486 60.444
12800 0.488 60.334 0.869 -29.204 0.869 -29.204 0.488 60.334
12850 0.49 60.225 0.868 -29.316 0.868 -29.316 0.49 60.225
12900 0.491 60.115 0.867 -29.427 0.867 -29.427 0.491 60.115
12950 0.493 60.006 0.866 -29.537 0.866 -29.537 0.493 60.006
13000 0.495 59.898 0.865 -29.648 0.865 -29.648 0.495 59.898
13050 0.496 59.789 0.864 -29.758 0.864 -29.758 0.496 59.789
13100 0.498 59.681 0.863 -29.868 0.863 -29.868 0.498 59.681
13150 0.5 59.574 0.862 -29.977 0.862 -29.977 0.5 59.574
13200 0.501 59.466 0.861 -30.087 0.861 -30.087 0.501 59.466
13250 0.503 59.359 0.86 -30.196 0.86 -30.196 0.503 59.359
13300 0.505 59.252 0.859 -30.304 0.859 -30.304 0.505 59.252
13350 0.506 59.145 0.858 -30.413 0.858 -30.413 0.506 59.145
13400 0.508 59.039 0.858 -30.521 0.858 -30.521 0.508 59.039
13450 0.509 58.933 0.857 -30.628 0.857 -30.628 0.509 58.933
13500 0.511 58.827 0.856 -30.736 0.856 -30.736 0.511 58.827
13550 0.513 58.722 0.855 -30.843 0.855 -30.843 0.513 58.722
13600 0.514 58.616 0.854 -30.95 0.854 -30.95 0.514 58.616
13650 0.516 58.511 0.853 -31.056 0.853 -31.056 0.516 58.511
13700 0.517 58.407 0.852 -31.163 0.852 -31.163 0.517 58.407
13750 0.519 58.302 0.851 -31.269 0.851 -31.269 0.519 58.302
13800 0.521 58.198 0.85 -31.375 0.85 -31.375 0.521 58.198
13850 0.522 58.094 0.849 -31.48 0.849 -31.48 0.522 58.094
13900 0.524 57.991 0.848 -31.585 0.848 -31.585 0.524 57.991
13950 0.525 57.887 0.847 -31.69 0.847 -31.69 0.525 57.887
14000 0.527 57.784 0.846 -31.795 0.846 -31.795 0.527 57.784
14050 0.528 57.681 0.845 -31.899 0.845 -31.899 0.528 57.681
14100 0.53 57.579 0.844 -32.003 0.844 -32.003 0.53 57.579
14150 0.532 57.477 0.843 -32.107 0.843 -32.107 0.532 57.477
14200 0.533 57.375 0.842 -32.21 0.842 -32.21 0.533 57.375
14250 0.535 57.273 0.841 -32.313 0.841 -32.313 0.535 57.273
14300 0.536 57.171 0.84 -32.416 0.84 -32.416 0.536 57.171
14350 0.538 57.07 0.839 -32.519 0.839 -32.519 0.538 57.07
14400 0.539 56.969 0.838 -32.621 0.838 -32.621 0.539 56.969
14450 0.541 56.869 0.837 -32.723 0.837 -32.723 0.541 56.869
14500 0.542 56.768 0.836 -32.825 0.836 -32.825 0.542 56.768
14550 0.544 56.668 0.836 -32.927 0.836 -32.927 0.544 56.668
14600 0.545 56.568 0.835 -33.028 0.835 -33.028 0.545 56.568
14650 0.547 56.469 0.834 -33.129 0.834 -33.129 0.547 56.469
14700 0.548 56.369 0.833 -33.23 0.833 -33.23 0.548 56.369
14750 0.549 56.27 0.832 -33.33 0.832 -33.33 0.549 56.27
14800 0.551 56.171 0.831 -33.43 0.831 -33.43 0.551 56.171
14850 0.552 56.073 0.83 -33.53 0.83 -33.53 0.552 56.073
14900 0.554 55.974 0.829 -33.63 0.829 -33.63 0.554 55.974
14950 0.555 55.876 0.828 -33.729 0.828 -33.729 0.555 55.876
15000 0.557 55.778 0.827 -33.828 0.827 -33.828 0.557 55.778
15050 0.558 55.681 0.826 -33.927 0.826 -33.927 0.558 55.681
15100 0.56 55.584 0.825 -34.026 0.825 -34.026 0.56 55.584
15150 0.561 55.486 0.824 -34.124 0.824 -34.124 0.561 55.486
15200 0.562 55.39 0.823 -34.222 0.823 -34.222 0.562 55.39
15250 0.564 55.293 0.822 -34.32 0.822 -34.32 0.564 55.293
15300 0.565 55.197 0.821 -34.417 0.821 -34.417 0.565 55.197
15350 0.567 55.101 0.82 -34.515 0.82 -34.515 0.567 55.101
15400 0.568 55.005 0.819 -34.612 0.819 -34.612 0.568 55.005
15450 0.569 54.909 0.818 -34.708 0.818 -34.708 0.569 54.909
15500 0.571 54.814 0.817 -34.805 0.817 -34.805 0.571 54.814
15550 0.572 54.719 0.816 -34.901 0.816 -34.901 0.572 54.719
15600 0.574 54.624 0.815 -34.997 0.815 -34.997 0.574 54.624
15650 0.575 54.53 0.814 -35.093 0.814 -35.093 0.575 54.53
15700 0.576 54.435 0.813 -35.188 0.813 -35.188 0.576 54.435
15750 0.578 54.341 0.813 -35.283 0.813 -35.283 0.578 54.341
15800 0.579 54.248 0.812 -35.378 0.812 -35.378 0.579 54.248
15850 0.58 54.154 0.811 -35.473 0.811 -35.473 0.58 54.154
15900 0.582 54.061 0.81 -35.567 0.81 -35.567 0.582 54.061
15950 0.583 53.968 0.809 -35.662 0.809 -35.662 0.583 53.968
16000 0.584 53.875 0.808 -35.756 0.808 -35.756 0.584 53.875
16050 0.586 53.782 0.807 -35.849 0.807 -35.849 0.586 53.782
16100 0.587 53.69 0.806 -35.943 0.806 -35.943 0.587 53.69
16150 0.588 53.598 0.805 -36.036 0.805 -36.036 0.588 53.598
16200 0.59 53.506 0.804 -36.129 0.804 -36.129 0.59 53.506
16250 0.591 53.414 0.803 -36.222 0.803 -36.222 0.591 53.414
16300 0.592 53.323 0.802 -36.314 0.802 -36.314 0.592 53.323
16350 0.594 53.232 0.801 -36.406 0.801 -36.406 0.594 53.232
16400 0.595 53.141 0.8 -36.498 0.8 -36.498 0.595 53.141
16450 0.596 53.05 0.799 -36.59 0.799 -36.59 0.596 53.05
16500 0.597 52.959 0.798 -36.681 0.798 -36.681 0.597 52.959
16550 0.599 52.869 0.797 -36.773 0.797 -36.773 0.599 52.869
16600 0.6 52.779 0.796 -36.864 0.796 -36.864 0.6 52.779
16650 0.601 52.689 0.795 -36.954 0.795 -36.954 0.601 52.689
16700 0.602 52.6 0.794 -37.045 0.794 -37.045 0.602 52.6
16750 0.604 52.511 0.793 -37.135 0.793 -37.135 0.604 52.511
16800 0.605 52.422 0.793 -37.225 0.793 -37.225 0.605 52.422
16850 0.606 52.333 0.792 -37.315 0.792 -37.315 0.606 52.333
16900 0.607 52.244 0.791 -37.405 0.791 -37.405 0.607 52.244
16950 0.609 52.156 0.79 -37.494 0.79 -37.494 0.609 52.156
