! AVX Thin Film Operation		Date: April 2012 
! Description: Accu-P® Series, Thin Film, SMD, RF Capacitor
! Part Number: 08051J2R4QBTTR					
!	100	MHz	-	10.05	GHz			
!	Serial	Measurements						
!								
#	MHZ	S	MA	R	50			
!	S11	S21	S12	S22				
!	dB	Phase	dB	Phase	dB	Phase	dB	Phase
100	0.989	-8.581	0.149	81.402	0.149	81.402	0.989	-8.581
102.469	0.988	-8.79	0.153	81.193	0.153	81.193	0.988	-8.79
104.939	0.988	-8.999	0.156	80.984	0.156	80.984	0.988	-8.999
107.408	0.987	-9.208	0.16	80.775	0.16	80.775	0.987	-9.208
109.878	0.986	-9.416	0.164	80.566	0.164	80.566	0.986	-9.416
112.347	0.986	-9.624	0.167	80.357	0.167	80.357	0.986	-9.624
114.817	0.985	-9.832	0.171	80.149	0.171	80.149	0.985	-9.832
117.286	0.985	-10.039	0.174	79.941	0.174	79.941	0.985	-10.039
119.756	0.984	-10.247	0.178	79.733	0.178	79.733	0.984	-10.247
122.225	0.983	-10.454	0.181	79.526	0.181	79.526	0.983	-10.454
124.694	0.983	-10.661	0.185	79.319	0.185	79.319	0.983	-10.661
127.164	0.982	-10.867	0.189	79.112	0.189	79.112	0.982	-10.867
129.633	0.981	-11.074	0.192	78.905	0.192	78.905	0.981	-11.074
132.103	0.981	-11.28	0.196	78.698	0.196	78.698	0.981	-11.28
134.572	0.98	-11.486	0.199	78.492	0.199	78.492	0.98	-11.486
137.042	0.979	-11.691	0.203	78.286	0.203	78.286	0.979	-11.691
139.511	0.978	-11.897	0.206	78.08	0.206	78.08	0.978	-11.897
141.981	0.978	-12.102	0.21	77.875	0.21	77.875	0.978	-12.102
144.45	0.977	-12.306	0.213	77.67	0.213	77.67	0.977	-12.306
146.919	0.976	-12.511	0.217	77.465	0.217	77.465	0.976	-12.511
149.389	0.975	-12.715	0.22	77.26	0.22	77.26	0.975	-12.715
151.858	0.975	-12.919	0.224	77.056	0.224	77.056	0.975	-12.919
154.328	0.974	-13.122	0.227	76.852	0.227	76.852	0.974	-13.122
156.797	0.973	-13.325	0.23	76.649	0.23	76.649	0.973	-13.325
159.267	0.972	-13.528	0.234	76.445	0.234	76.445	0.972	-13.528
161.736	0.971	-13.731	0.237	76.242	0.237	76.242	0.971	-13.731
164.206	0.97	-13.933	0.241	76.04	0.241	76.04	0.97	-13.933
166.675	0.97	-14.135	0.244	75.837	0.244	75.837	0.97	-14.135
169.144	0.969	-14.337	0.248	75.635	0.248	75.635	0.969	-14.337
171.614	0.968	-14.538	0.251	75.433	0.251	75.433	0.968	-14.538
174.083	0.967	-14.739	0.254	75.232	0.254	75.232	0.967	-14.739
176.553	0.966	-14.94	0.258	75.031	0.258	75.031	0.966	-14.94
179.022	0.965	-15.14	0.261	74.83	0.261	74.83	0.965	-15.14
181.492	0.964	-15.34	0.265	74.63	0.265	74.63	0.964	-15.34
183.961	0.963	-15.54	0.268	74.43	0.268	74.43	0.963	-15.54
186.431	0.962	-15.739	0.271	74.23	0.271	74.23	0.962	-15.739
188.9	0.961	-15.938	0.275	74.03	0.275	74.03	0.961	-15.938
191.369	0.96	-16.137	0.278	73.831	0.278	73.831	0.96	-16.137
193.839	0.959	-16.335	0.281	73.633	0.281	73.633	0.959	-16.335
196.308	0.958	-16.533	0.285	73.434	0.285	73.434	0.958	-16.533
198.778	0.958	-16.731	0.288	73.237	0.288	73.237	0.958	-16.731
201.247	0.957	-16.928	0.291	73.039	0.291	73.039	0.957	-16.928
203.717	0.955	-17.125	0.294	72.842	0.294	72.842	0.955	-17.125
206.186	0.954	-17.321	0.298	72.645	0.298	72.645	0.954	-17.321
208.656	0.953	-17.517	0.301	72.449	0.301	72.449	0.953	-17.517
211.125	0.952	-17.713	0.304	72.252	0.304	72.252	0.952	-17.713
213.594	0.951	-17.908	0.307	72.057	0.307	72.057	0.951	-17.908
216.064	0.95	-18.103	0.311	71.861	0.311	71.861	0.95	-18.103
218.533	0.949	-18.297	0.314	71.667	0.314	71.667	0.949	-18.297
221.003	0.948	-18.491	0.317	71.472	0.317	71.472	0.948	-18.491
223.472	0.947	-18.685	0.32	71.278	0.32	71.278	0.947	-18.685
225.942	0.946	-18.878	0.324	71.084	0.324	71.084	0.946	-18.878
228.411	0.945	-19.071	0.327	70.891	0.327	70.891	0.945	-19.071
230.881	0.944	-19.264	0.33	70.698	0.33	70.698	0.944	-19.264
233.35	0.943	-19.456	0.333	70.505	0.333	70.505	0.943	-19.456
235.819	0.942	-19.648	0.336	70.313	0.336	70.313	0.942	-19.648
238.289	0.94	-19.839	0.339	70.122	0.339	70.122	0.94	-19.839
240.758	0.939	-20.03	0.343	69.93	0.343	69.93	0.939	-20.03
243.228	0.938	-20.22	0.346	69.739	0.346	69.739	0.938	-20.22
245.697	0.937	-20.41	0.349	69.549	0.349	69.549	0.937	-20.41
248.167	0.936	-20.6	0.352	69.359	0.352	69.359	0.936	-20.6
250.636	0.935	-20.789	0.355	69.169	0.355	69.169	0.935	-20.789
253.106	0.933	-20.978	0.358	68.98	0.358	68.98	0.933	-20.978
255.575	0.932	-21.166	0.361	68.791	0.361	68.791	0.932	-21.166
258.044	0.931	-21.354	0.364	68.603	0.364	68.603	0.931	-21.354
260.514	0.93	-21.542	0.367	68.415	0.367	68.415	0.93	-21.542
262.983	0.929	-21.729	0.37	68.227	0.37	68.227	0.929	-21.729
265.453	0.927	-21.916	0.373	68.04	0.373	68.04	0.927	-21.916
267.922	0.926	-22.102	0.376	67.854	0.376	67.854	0.926	-22.102
270.392	0.925	-22.288	0.379	67.668	0.379	67.668	0.925	-22.288
272.861	0.924	-22.473	0.382	67.482	0.382	67.482	0.924	-22.473
275.331	0.923	-22.658	0.385	67.297	0.385	67.297	0.923	-22.658
277.8	0.921	-22.842	0.388	67.112	0.388	67.112	0.921	-22.842
280.269	0.92	-23.026	0.391	66.927	0.391	66.927	0.92	-23.026
282.739	0.919	-23.21	0.394	66.743	0.394	66.743	0.919	-23.21
285.208	0.917	-23.393	0.397	66.56	0.397	66.56	0.917	-23.393
287.678	0.916	-23.576	0.4	66.377	0.4	66.377	0.916	-23.576
290.147	0.915	-23.758	0.403	66.194	0.403	66.194	0.915	-23.758
292.617	0.914	-23.94	0.406	66.012	0.406	66.012	0.914	-23.94
295.086	0.912	-24.121	0.409	65.83	0.409	65.83	0.912	-24.121
297.556	0.911	-24.302	0.412	65.649	0.412	65.649	0.911	-24.302
300.025	0.91	-24.482	0.414	65.468	0.414	65.468	0.91	-24.482
302.494	0.908	-24.662	0.417	65.288	0.417	65.288	0.908	-24.662
304.964	0.907	-24.841	0.42	65.108	0.42	65.108	0.907	-24.841
307.433	0.906	-25.02	0.423	64.929	0.423	64.929	0.906	-25.02
309.903	0.904	-25.199	0.426	64.75	0.426	64.75	0.904	-25.199
312.372	0.903	-25.377	0.429	64.571	0.429	64.571	0.903	-25.377
314.842	0.902	-25.555	0.431	64.393	0.431	64.393	0.902	-25.555
317.311	0.9	-25.732	0.434	64.216	0.434	64.216	0.9	-25.732
319.78	0.899	-25.908	0.437	64.038	0.437	64.038	0.899	-25.908
322.25	0.898	-26.085	0.44	63.862	0.44	63.862	0.898	-26.085
324.719	0.896	-26.26	0.442	63.686	0.442	63.686	0.896	-26.26
327.189	0.895	-26.436	0.445	63.51	0.445	63.51	0.895	-26.436
329.658	0.894	-26.611	0.448	63.335	0.448	63.335	0.894	-26.611
332.128	0.892	-26.785	0.451	63.16	0.451	63.16	0.892	-26.785
334.597	0.891	-26.959	0.453	62.986	0.453	62.986	0.891	-26.959
337.067	0.89	-27.132	0.456	62.812	0.456	62.812	0.89	-27.132
339.536	0.888	-27.305	0.459	62.639	0.459	62.639	0.888	-27.305
342.005	0.887	-27.477	0.461	62.466	0.461	62.466	0.887	-27.477
344.475	0.885	-27.649	0.464	62.293	0.464	62.293	0.885	-27.649
346.944	0.884	-27.821	0.467	62.121	0.467	62.121	0.884	-27.821
349.414	0.883	-27.992	0.469	61.95	0.469	61.95	0.883	-27.992
351.883	0.881	-28.162	0.472	61.779	0.472	61.779	0.881	-28.162
354.353	0.88	-28.332	0.475	61.609	0.475	61.609	0.88	-28.332
356.822	0.878	-28.502	0.477	61.439	0.477	61.439	0.878	-28.502
359.292	0.877	-28.671	0.48	61.269	0.48	61.269	0.877	-28.671
361.761	0.875	-28.84	0.482	61.1	0.482	61.1	0.875	-28.84
364.23	0.874	-29.008	0.485	60.932	0.485	60.932	0.874	-29.008
366.7	0.873	-29.175	0.487	60.764	0.487	60.764	0.873	-29.175
369.169	0.871	-29.343	0.49	60.596	0.49	60.596	0.871	-29.343
371.639	0.87	-29.509	0.493	60.429	0.493	60.429	0.87	-29.509
374.108	0.868	-29.675	0.495	60.262	0.495	60.262	0.868	-29.675
376.578	0.867	-29.841	0.498	60.096	0.498	60.096	0.867	-29.841
379.047	0.865	-30.006	0.5	59.93	0.5	59.93	0.865	-30.006
381.517	0.864	-30.171	0.503	59.765	0.503	59.765	0.864	-30.171
383.986	0.863	-30.335	0.505	59.601	0.505	59.601	0.863	-30.335
386.455	0.861	-30.499	0.508	59.436	0.508	59.436	0.861	-30.499
388.925	0.86	-30.663	0.51	59.273	0.51	59.273	0.86	-30.663
391.394	0.858	-30.825	0.512	59.109	0.512	59.109	0.858	-30.825
393.864	0.857	-30.988	0.515	58.947	0.515	58.947	0.857	-30.988
396.333	0.855	-31.15	0.517	58.784	0.517	58.784	0.855	-31.15
398.803	0.854	-31.311	0.52	58.623	0.52	58.623	0.854	-31.311
401.272	0.852	-31.472	0.522	58.461	0.522	58.461	0.852	-31.472
403.742	0.851	-31.632	0.524	58.3	0.524	58.3	0.851	-31.632
406.211	0.849	-31.792	0.527	58.14	0.527	58.14	0.849	-31.792
408.68	0.848	-31.952	0.529	57.98	0.529	57.98	0.848	-31.952
411.15	0.846	-32.111	0.532	57.821	0.532	57.821	0.846	-32.111
413.619	0.845	-32.269	0.534	57.662	0.534	57.662	0.845	-32.269
416.089	0.843	-32.427	0.536	57.504	0.536	57.504	0.843	-32.427
418.558	0.842	-32.585	0.539	57.346	0.539	57.346	0.842	-32.585
421.028	0.84	-32.742	0.541	57.188	0.541	57.188	0.84	-32.742
423.497	0.839	-32.898	0.543	57.031	0.543	57.031	0.839	-32.898
425.967	0.837	-33.054	0.545	56.875	0.545	56.875	0.837	-33.054
428.436	0.836	-33.21	0.548	56.719	0.548	56.719	0.836	-33.21
430.905	0.834	-33.365	0.55	56.563	0.55	56.563	0.834	-33.365
433.375	0.833	-33.519	0.552	56.408	0.552	56.408	0.833	-33.519
435.844	0.832	-33.674	0.554	56.254	0.554	56.254	0.832	-33.674
438.314	0.83	-33.827	0.557	56.099	0.557	56.099	0.83	-33.827
440.783	0.829	-33.98	0.559	55.946	0.559	55.946	0.829	-33.98
443.253	0.827	-34.133	0.561	55.793	0.561	55.793	0.827	-34.133
445.722	0.826	-34.285	0.563	55.64	0.563	55.64	0.826	-34.285
448.192	0.824	-34.437	0.566	55.488	0.566	55.488	0.824	-34.437
450.661	0.823	-34.588	0.568	55.336	0.568	55.336	0.823	-34.588
453.13	0.821	-34.739	0.57	55.185	0.57	55.185	0.821	-34.739
455.6	0.819	-34.889	0.572	55.034	0.572	55.034	0.819	-34.889
458.069	0.818	-35.039	0.574	54.884	0.574	54.884	0.818	-35.039
460.539	0.816	-35.189	0.576	54.734	0.576	54.734	0.816	-35.189
463.008	0.815	-35.338	0.578	54.585	0.578	54.585	0.815	-35.338
465.478	0.813	-35.486	0.581	54.436	0.581	54.436	0.813	-35.486
467.947	0.812	-35.634	0.583	54.288	0.583	54.288	0.812	-35.634
470.417	0.81	-35.781	0.585	54.14	0.585	54.14	0.81	-35.781
472.886	0.809	-35.928	0.587	53.992	0.587	53.992	0.809	-35.928
475.355	0.807	-36.075	0.589	53.845	0.589	53.845	0.807	-36.075
477.825	0.806	-36.221	0.591	53.699	0.591	53.699	0.806	-36.221
480.294	0.804	-36.367	0.593	53.553	0.593	53.553	0.804	-36.367
482.764	0.803	-36.512	0.595	53.407	0.595	53.407	0.803	-36.512
485.233	0.801	-36.656	0.597	53.262	0.597	53.262	0.801	-36.656
487.703	0.8	-36.8	0.599	53.118	0.599	53.118	0.8	-36.8
490.172	0.798	-36.944	0.601	52.974	0.601	52.974	0.798	-36.944
492.642	0.797	-37.087	0.603	52.83	0.603	52.83	0.797	-37.087
495.111	0.795	-37.23	0.605	52.687	0.605	52.687	0.795	-37.23
497.58	0.794	-37.373	0.607	52.544	0.607	52.544	0.794	-37.373
500.05	0.792	-37.514	0.609	52.402	0.609	52.402	0.792	-37.514
502.519	0.791	-37.656	0.611	52.26	0.611	52.26	0.791	-37.656
504.989	0.789	-37.797	0.613	52.119	0.613	52.119	0.789	-37.797
507.458	0.788	-37.937	0.615	51.978	0.615	51.978	0.788	-37.937
509.928	0.786	-38.077	0.617	51.837	0.617	51.837	0.786	-38.077
512.397	0.785	-38.217	0.619	51.697	0.619	51.697	0.785	-38.217
514.867	0.783	-38.356	0.621	51.558	0.621	51.558	0.783	-38.356
517.336	0.782	-38.494	0.622	51.419	0.622	51.419	0.782	-38.494
519.805	0.78	-38.633	0.624	51.28	0.624	51.28	0.78	-38.633
522.275	0.779	-38.77	0.626	51.142	0.626	51.142	0.779	-38.77
524.744	0.777	-38.908	0.628	51.004	0.628	51.004	0.777	-38.908
527.214	0.776	-39.044	0.63	50.867	0.63	50.867	0.776	-39.044
529.683	0.774	-39.181	0.632	50.73	0.632	50.73	0.774	-39.181
532.153	0.773	-39.317	0.634	50.594	0.634	50.594	0.773	-39.317
534.622	0.771	-39.452	0.635	50.458	0.635	50.458	0.771	-39.452
537.092	0.77	-39.587	0.637	50.322	0.637	50.322	0.77	-39.587
539.561	0.768	-39.722	0.639	50.187	0.639	50.187	0.768	-39.722
542.03	0.767	-39.856	0.641	50.053	0.641	50.053	0.767	-39.856
544.5	0.765	-39.99	0.643	49.919	0.643	49.919	0.765	-39.99
546.969	0.764	-40.123	0.644	49.785	0.644	49.785	0.764	-40.123
549.439	0.762	-40.256	0.646	49.652	0.646	49.652	0.762	-40.256
551.908	0.761	-40.388	0.648	49.519	0.648	49.519	0.761	-40.388
554.378	0.759	-40.52	0.65	49.387	0.65	49.387	0.759	-40.52
556.847	0.758	-40.651	0.651	49.255	0.651	49.255	0.758	-40.651
559.317	0.756	-40.782	0.653	49.123	0.653	49.123	0.756	-40.782
561.786	0.755	-40.913	0.655	48.992	0.655	48.992	0.755	-40.913
564.255	0.753	-41.043	0.657	48.862	0.657	48.862	0.753	-41.043
566.725	0.752	-41.173	0.658	48.732	0.658	48.732	0.752	-41.173
569.194	0.75	-41.302	0.66	48.602	0.66	48.602	0.75	-41.302
571.664	0.749	-41.431	0.662	48.473	0.662	48.473	0.749	-41.431
574.133	0.747	-41.559	0.663	48.344	0.663	48.344	0.747	-41.559
576.603	0.746	-41.687	0.665	48.215	0.665	48.215	0.746	-41.687
579.072	0.744	-41.815	0.667	48.087	0.667	48.087	0.744	-41.815
581.542	0.743	-41.942	0.668	47.96	0.668	47.96	0.743	-41.942
584.011	0.741	-42.069	0.67	47.833	0.67	47.833	0.741	-42.069
586.48	0.74	-42.195	0.672	47.706	0.672	47.706	0.74	-42.195
588.95	0.738	-42.321	0.673	47.58	0.673	47.58	0.738	-42.321
591.419	0.737	-42.446	0.675	47.454	0.675	47.454	0.737	-42.446
593.889	0.735	-42.571	0.677	47.328	0.677	47.328	0.735	-42.571
596.358	0.734	-42.696	0.678	47.203	0.678	47.203	0.734	-42.696
598.828	0.732	-42.82	0.68	47.079	0.68	47.079	0.732	-42.82
601.297	0.731	-42.944	0.681	46.954	0.681	46.954	0.731	-42.944
603.767	0.729	-43.067	0.683	46.831	0.683	46.831	0.729	-43.067
606.236	0.728	-43.19	0.684	46.707	0.684	46.707	0.728	-43.19
608.705	0.726	-43.312	0.686	46.584	0.686	46.584	0.726	-43.312
611.175	0.725	-43.435	0.688	46.462	0.688	46.462	0.725	-43.435
613.644	0.723	-43.556	0.689	46.34	0.689	46.34	0.723	-43.556
616.114	0.722	-43.677	0.691	46.218	0.691	46.218	0.722	-43.677
618.583	0.721	-43.798	0.692	46.097	0.692	46.097	0.721	-43.798
621.053	0.719	-43.919	0.694	45.976	0.694	45.976	0.719	-43.919
623.522	0.718	-44.039	0.695	45.855	0.695	45.855	0.718	-44.039
625.992	0.716	-44.158	0.697	45.735	0.697	45.735	0.716	-44.158
628.461	0.715	-44.278	0.698	45.616	0.698	45.616	0.715	-44.278
630.93	0.713	-44.397	0.7	45.496	0.7	45.496	0.713	-44.397
633.4	0.712	-44.515	0.701	45.378	0.701	45.378	0.712	-44.515
635.869	0.71	-44.633	0.703	45.259	0.703	45.259	0.71	-44.633
638.339	0.709	-44.751	0.704	45.141	0.704	45.141	0.709	-44.751
640.808	0.707	-44.868	0.705	45.023	0.705	45.023	0.707	-44.868
643.278	0.706	-44.985	0.707	44.906	0.707	44.906	0.706	-44.985
645.747	0.705	-45.101	0.708	44.789	0.708	44.789	0.705	-45.101
648.217	0.703	-45.217	0.71	44.673	0.71	44.673	0.703	-45.217
650.686	0.702	-45.333	0.711	44.557	0.711	44.557	0.702	-45.333
653.155	0.7	-45.448	0.713	44.441	0.713	44.441	0.7	-45.448
655.625	0.699	-45.563	0.714	44.326	0.714	44.326	0.699	-45.563
658.094	0.697	-45.677	0.715	44.211	0.715	44.211	0.697	-45.677
660.564	0.696	-45.791	0.717	44.096	0.717	44.096	0.696	-45.791
663.033	0.694	-45.905	0.718	43.982	0.718	43.982	0.694	-45.905
665.503	0.693	-46.019	0.72	43.868	0.72	43.868	0.693	-46.019
667.972	0.692	-46.131	0.721	43.755	0.721	43.755	0.692	-46.131
670.442	0.69	-46.244	0.722	43.642	0.722	43.642	0.69	-46.244
672.911	0.689	-46.356	0.724	43.529	0.724	43.529	0.689	-46.356
675.38	0.687	-46.468	0.725	43.417	0.725	43.417	0.687	-46.468
677.85	0.686	-46.579	0.726	43.305	0.726	43.305	0.686	-46.579
680.319	0.684	-46.69	0.728	43.193	0.728	43.193	0.684	-46.69
682.789	0.683	-46.801	0.729	43.082	0.729	43.082	0.683	-46.801
685.258	0.682	-46.911	0.73	42.972	0.73	42.972	0.682	-46.911
687.728	0.68	-47.021	0.732	42.861	0.732	42.861	0.68	-47.021
690.197	0.679	-47.131	0.733	42.751	0.733	42.751	0.679	-47.131
692.667	0.677	-47.24	0.734	42.642	0.734	42.642	0.677	-47.24
695.136	0.676	-47.349	0.735	42.532	0.735	42.532	0.676	-47.349
697.605	0.675	-47.457	0.737	42.423	0.737	42.423	0.675	-47.457
700.075	0.673	-47.565	0.738	42.315	0.738	42.315	0.673	-47.565
702.544	0.672	-47.673	0.739	42.207	0.739	42.207	0.672	-47.673
705.014	0.67	-47.78	0.741	42.099	0.741	42.099	0.67	-47.78
707.483	0.669	-47.887	0.742	41.991	0.742	41.991	0.669	-47.887
709.953	0.668	-47.994	0.743	41.884	0.743	41.884	0.668	-47.994
712.422	0.666	-48.1	0.744	41.778	0.744	41.778	0.666	-48.1
714.891	0.665	-48.206	0.746	41.671	0.746	41.671	0.665	-48.206
717.361	0.663	-48.312	0.747	41.565	0.747	41.565	0.663	-48.312
719.83	0.662	-48.417	0.748	41.46	0.748	41.46	0.662	-48.417
722.3	0.661	-48.522	0.749	41.354	0.749	41.354	0.661	-48.522
724.769	0.659	-48.626	0.75	41.249	0.75	41.249	0.659	-48.626
727.239	0.658	-48.731	0.752	41.145	0.752	41.145	0.658	-48.731
729.708	0.657	-48.834	0.753	41.04	0.753	41.04	0.657	-48.834
732.178	0.655	-48.938	0.754	40.937	0.754	40.937	0.655	-48.938
734.647	0.654	-49.041	0.755	40.833	0.755	40.833	0.654	-49.041
737.116	0.652	-49.144	0.756	40.73	0.756	40.73	0.652	-49.144
739.586	0.651	-49.246	0.758	40.627	0.758	40.627	0.651	-49.246
742.055	0.65	-49.348	0.759	40.524	0.759	40.524	0.65	-49.348
744.525	0.648	-49.45	0.76	40.422	0.76	40.422	0.648	-49.45
746.994	0.647	-49.551	0.761	40.32	0.761	40.32	0.647	-49.551
749.464	0.646	-49.652	0.762	40.219	0.762	40.219	0.646	-49.652
751.933	0.644	-49.753	0.763	40.118	0.763	40.118	0.644	-49.753
754.403	0.643	-49.853	0.764	40.017	0.764	40.017	0.643	-49.853
756.872	0.642	-49.953	0.766	39.916	0.766	39.916	0.642	-49.953
759.341	0.64	-50.053	0.767	39.816	0.767	39.816	0.64	-50.053
761.811	0.639	-50.153	0.768	39.716	0.768	39.716	0.639	-50.153
764.28	0.638	-50.252	0.769	39.617	0.769	39.617	0.638	-50.252
766.75	0.636	-50.35	0.77	39.518	0.77	39.518	0.636	-50.35
769.219	0.635	-50.449	0.771	39.419	0.771	39.419	0.635	-50.449
771.689	0.634	-50.547	0.772	39.32	0.772	39.32	0.634	-50.547
774.158	0.632	-50.644	0.773	39.222	0.773	39.222	0.632	-50.644
776.628	0.631	-50.742	0.774	39.124	0.774	39.124	0.631	-50.742
779.097	0.63	-50.839	0.775	39.027	0.775	39.027	0.63	-50.839
781.566	0.628	-50.936	0.776	38.929	0.776	38.929	0.628	-50.936
784.036	0.627	-51.032	0.778	38.833	0.778	38.833	0.627	-51.032
786.505	0.626	-51.128	0.779	38.736	0.779	38.736	0.626	-51.128
788.975	0.624	-51.224	0.78	38.64	0.78	38.64	0.624	-51.224
791.444	0.623	-51.319	0.781	38.544	0.781	38.544	0.623	-51.319
793.914	0.622	-51.415	0.782	38.448	0.782	38.448	0.622	-51.415
796.383	0.621	-51.509	0.783	38.353	0.783	38.353	0.621	-51.509
798.853	0.619	-51.604	0.784	38.258	0.784	38.258	0.619	-51.604
801.322	0.618	-51.698	0.785	38.163	0.785	38.163	0.618	-51.698
803.791	0.617	-51.792	0.786	38.069	0.786	38.069	0.617	-51.792
806.261	0.615	-51.886	0.787	37.975	0.787	37.975	0.615	-51.886
808.73	0.614	-51.979	0.788	37.881	0.788	37.881	0.614	-51.979
811.2	0.613	-52.072	0.789	37.787	0.789	37.787	0.613	-52.072
813.669	0.611	-52.165	0.79	37.694	0.79	37.694	0.611	-52.165
816.139	0.61	-52.257	0.791	37.601	0.791	37.601	0.61	-52.257
818.608	0.609	-52.349	0.792	37.509	0.792	37.509	0.609	-52.349
821.078	0.608	-52.441	0.793	37.417	0.793	37.417	0.608	-52.441
823.547	0.606	-52.532	0.794	37.325	0.794	37.325	0.606	-52.532
826.016	0.605	-52.624	0.795	37.233	0.795	37.233	0.605	-52.624
828.486	0.604	-52.714	0.796	37.142	0.796	37.142	0.604	-52.714
830.955	0.603	-52.805	0.797	37.051	0.797	37.051	0.603	-52.805
833.425	0.601	-52.895	0.798	36.96	0.798	36.96	0.601	-52.895
835.894	0.6	-52.985	0.798	36.869	0.798	36.869	0.6	-52.985
838.364	0.599	-53.075	0.799	36.779	0.799	36.779	0.599	-53.075
840.833	0.597	-53.164	0.8	36.689	0.8	36.689	0.597	-53.164
843.303	0.596	-53.253	0.801	36.6	0.801	36.6	0.596	-53.253
845.772	0.595	-53.342	0.802	36.51	0.802	36.51	0.595	-53.342
848.241	0.594	-53.431	0.803	36.421	0.803	36.421	0.594	-53.431
850.711	0.592	-53.519	0.804	36.333	0.804	36.333	0.592	-53.519
853.18	0.591	-53.607	0.805	36.244	0.805	36.244	0.591	-53.607
855.65	0.59	-53.695	0.806	36.156	0.806	36.156	0.59	-53.695
858.119	0.589	-53.782	0.807	36.068	0.807	36.068	0.589	-53.782
860.589	0.588	-53.869	0.808	35.981	0.808	35.981	0.588	-53.869
863.058	0.586	-53.956	0.809	35.893	0.809	35.893	0.586	-53.956
865.528	0.585	-54.043	0.809	35.806	0.809	35.806	0.585	-54.043
867.997	0.584	-54.129	0.81	35.72	0.81	35.72	0.584	-54.129
870.466	0.583	-54.215	0.811	35.633	0.811	35.633	0.583	-54.215
872.936	0.581	-54.3	0.812	35.547	0.812	35.547	0.581	-54.3
875.405	0.58	-54.386	0.813	35.461	0.813	35.461	0.58	-54.386
877.875	0.579	-54.471	0.814	35.375	0.814	35.375	0.579	-54.471
880.344	0.578	-54.556	0.815	35.29	0.815	35.29	0.578	-54.556
882.814	0.577	-54.641	0.816	35.205	0.816	35.205	0.577	-54.641
885.283	0.575	-54.725	0.816	35.12	0.816	35.12	0.575	-54.725
887.753	0.574	-54.809	0.817	35.036	0.817	35.036	0.574	-54.809
890.222	0.573	-54.893	0.818	34.951	0.818	34.951	0.573	-54.893
892.691	0.572	-54.976	0.819	34.867	0.819	34.867	0.572	-54.976
895.161	0.57	-55.059	0.82	34.784	0.82	34.784	0.57	-55.059
897.63	0.569	-55.142	0.821	34.7	0.821	34.7	0.569	-55.142
