! AVX Thin Film Operation		Date: April 2012 
! Description: Accu-P® Series, Thin Film, SMD, RF Capacitor
! Part Number: 08051J9R1BBTTR					
!	100	MHz	-	10.05	GHz			
!	Serial	Measurements						
!								
#	MHZ	S	MA	R	50			
!	S11	S21	S12	S22				
!	dB	Phase	dB	Phase	dB	Phase	dB	Phase
100	0.867	-29.818	0.497	60.146	0.497	60.146	0.867	-29.818
102.469	0.862	-30.428	0.506	59.535	0.506	59.535	0.862	-30.428
104.939	0.857	-31.03	0.515	58.932	0.515	58.932	0.857	-31.03
107.408	0.851	-31.625	0.524	58.336	0.524	58.336	0.851	-31.625
109.878	0.846	-32.213	0.533	57.747	0.533	57.747	0.846	-32.213
112.347	0.84	-32.793	0.542	57.166	0.542	57.166	0.84	-32.793
114.817	0.835	-33.367	0.55	56.592	0.55	56.592	0.835	-33.367
117.286	0.829	-33.933	0.558	56.025	0.558	56.025	0.829	-33.933
119.756	0.824	-34.491	0.566	55.465	0.566	55.465	0.824	-34.491
122.225	0.818	-35.043	0.574	54.913	0.574	54.913	0.818	-35.043
124.694	0.813	-35.588	0.582	54.367	0.582	54.367	0.813	-35.588
127.164	0.807	-36.125	0.59	53.829	0.59	53.829	0.807	-36.125
129.633	0.802	-36.655	0.597	53.298	0.597	53.298	0.802	-36.655
132.103	0.796	-37.179	0.604	52.773	0.604	52.773	0.796	-37.179
134.572	0.791	-37.695	0.611	52.256	0.611	52.256	0.791	-37.695
137.042	0.785	-38.205	0.618	51.745	0.618	51.745	0.785	-38.205
139.511	0.78	-38.708	0.625	51.242	0.625	51.242	0.78	-38.708
141.981	0.774	-39.204	0.632	50.744	0.632	50.744	0.774	-39.204
144.45	0.769	-39.693	0.639	50.254	0.639	50.254	0.769	-39.693
146.919	0.763	-40.176	0.645	49.77	0.645	49.77	0.763	-40.176
149.389	0.758	-40.653	0.651	49.293	0.651	49.293	0.758	-40.653
151.858	0.753	-41.123	0.658	48.822	0.658	48.822	0.753	-41.123
154.328	0.747	-41.586	0.664	48.358	0.664	48.358	0.747	-41.586
156.797	0.742	-42.043	0.67	47.9	0.67	47.9	0.742	-42.043
159.267	0.737	-42.494	0.676	47.448	0.676	47.448	0.737	-42.494
161.736	0.731	-42.939	0.681	47.002	0.681	47.002	0.731	-42.939
164.206	0.726	-43.378	0.687	46.563	0.687	46.563	0.726	-43.378
166.675	0.721	-43.81	0.692	46.129	0.692	46.129	0.721	-43.81
169.144	0.716	-44.237	0.698	45.702	0.698	45.702	0.716	-44.237
171.614	0.711	-44.658	0.703	45.28	0.703	45.28	0.711	-44.658
174.083	0.705	-45.073	0.708	44.864	0.708	44.864	0.705	-45.073
176.553	0.7	-45.482	0.713	44.453	0.713	44.453	0.7	-45.482
179.022	0.695	-45.886	0.718	44.049	0.718	44.049	0.695	-45.886
181.492	0.69	-46.284	0.723	43.65	0.723	43.65	0.69	-46.284
183.961	0.685	-46.677	0.728	43.256	0.728	43.256	0.685	-46.677
186.431	0.68	-47.065	0.732	42.867	0.732	42.867	0.68	-47.065
188.9	0.675	-47.447	0.737	42.484	0.737	42.484	0.675	-47.447
191.369	0.671	-47.824	0.741	42.107	0.741	42.107	0.671	-47.824
193.839	0.666	-48.195	0.745	41.734	0.745	41.734	0.666	-48.195
196.308	0.661	-48.562	0.75	41.366	0.75	41.366	0.661	-48.562
198.778	0.656	-48.924	0.754	41.004	0.754	41.004	0.656	-48.924
201.247	0.651	-49.28	0.758	40.646	0.758	40.646	0.651	-49.28
203.717	0.647	-49.632	0.762	40.293	0.762	40.293	0.647	-49.632
206.186	0.642	-49.98	0.766	39.945	0.766	39.945	0.642	-49.98
208.656	0.637	-50.322	0.77	39.602	0.77	39.602	0.637	-50.322
211.125	0.633	-50.66	0.773	39.263	0.773	39.263	0.633	-50.66
213.594	0.628	-50.993	0.777	38.929	0.777	38.929	0.628	-50.993
216.064	0.624	-51.322	0.781	38.599	0.781	38.599	0.624	-51.322
218.533	0.619	-51.646	0.784	38.274	0.784	38.274	0.619	-51.646
221.003	0.615	-51.966	0.788	37.953	0.788	37.953	0.615	-51.966
223.472	0.611	-52.282	0.791	37.636	0.791	37.636	0.611	-52.282
225.942	0.606	-52.594	0.794	37.323	0.794	37.323	0.606	-52.594
228.411	0.602	-52.901	0.798	37.015	0.798	37.015	0.602	-52.901
230.881	0.598	-53.205	0.801	36.711	0.801	36.711	0.598	-53.205
233.35	0.594	-53.504	0.804	36.41	0.804	36.41	0.594	-53.504
235.819	0.589	-53.8	0.807	36.114	0.807	36.114	0.589	-53.8
238.289	0.585	-54.091	0.81	35.821	0.81	35.821	0.585	-54.091
240.758	0.581	-54.379	0.813	35.533	0.813	35.533	0.581	-54.379
243.228	0.577	-54.663	0.816	35.248	0.816	35.248	0.577	-54.663
245.697	0.573	-54.944	0.819	34.966	0.819	34.966	0.573	-54.944
248.167	0.569	-55.221	0.821	34.688	0.821	34.688	0.569	-55.221
250.636	0.565	-55.494	0.824	34.414	0.824	34.414	0.565	-55.494
253.106	0.561	-55.763	0.827	34.144	0.827	34.144	0.561	-55.763
255.575	0.557	-56.03	0.829	33.876	0.829	33.876	0.557	-56.03
258.044	0.554	-56.293	0.832	33.613	0.832	33.613	0.554	-56.293
260.514	0.55	-56.552	0.834	33.352	0.834	33.352	0.55	-56.552
262.983	0.546	-56.808	0.837	33.095	0.837	33.095	0.546	-56.808
265.453	0.542	-57.061	0.839	32.841	0.839	32.841	0.542	-57.061
267.922	0.539	-57.311	0.842	32.59	0.842	32.59	0.539	-57.311
270.392	0.535	-57.558	0.844	32.342	0.844	32.342	0.535	-57.558
272.861	0.531	-57.802	0.846	32.098	0.846	32.098	0.531	-57.802
275.331	0.528	-58.042	0.848	31.856	0.848	31.856	0.528	-58.042
277.8	0.524	-58.28	0.851	31.618	0.851	31.618	0.524	-58.28
280.269	0.521	-58.515	0.853	31.382	0.853	31.382	0.521	-58.515
282.739	0.517	-58.747	0.855	31.149	0.855	31.149	0.517	-58.747
285.208	0.514	-58.976	0.857	30.919	0.857	30.919	0.514	-58.976
287.678	0.51	-59.202	0.859	30.692	0.859	30.692	0.51	-59.202
290.147	0.507	-59.426	0.861	30.467	0.861	30.467	0.507	-59.426
292.617	0.504	-59.646	0.863	30.245	0.863	30.245	0.504	-59.646
295.086	0.5	-59.865	0.865	30.026	0.865	30.026	0.5	-59.865
297.556	0.497	-60.08	0.867	29.81	0.867	29.81	0.497	-60.08
300.025	0.494	-60.293	0.869	29.596	0.869	29.596	0.494	-60.293
302.494	0.491	-60.504	0.87	29.384	0.87	29.384	0.491	-60.504
304.964	0.487	-60.712	0.872	29.175	0.872	29.175	0.487	-60.712
307.433	0.484	-60.917	0.874	28.969	0.874	28.969	0.484	-60.917
309.903	0.481	-61.121	0.876	28.765	0.876	28.765	0.481	-61.121
312.372	0.478	-61.321	0.877	28.563	0.877	28.563	0.478	-61.321
314.842	0.475	-61.52	0.879	28.363	0.879	28.363	0.475	-61.52
317.311	0.472	-61.716	0.881	28.166	0.881	28.166	0.472	-61.716
319.78	0.469	-61.91	0.882	27.971	0.882	27.971	0.469	-61.91
322.25	0.466	-62.102	0.884	27.779	0.884	27.779	0.466	-62.102
324.719	0.463	-62.291	0.885	27.588	0.885	27.588	0.463	-62.291
327.189	0.46	-62.479	0.887	27.4	0.887	27.4	0.46	-62.479
329.658	0.457	-62.664	0.888	27.213	0.888	27.213	0.457	-62.664
332.128	0.454	-62.847	0.89	27.029	0.89	27.029	0.454	-62.847
334.597	0.452	-63.029	0.891	26.847	0.891	26.847	0.452	-63.029
337.067	0.449	-63.208	0.893	26.667	0.893	26.667	0.449	-63.208
339.536	0.446	-63.385	0.894	26.489	0.894	26.489	0.446	-63.385
342.005	0.443	-63.56	0.895	26.313	0.895	26.313	0.443	-63.56
344.475	0.441	-63.733	0.897	26.138	0.897	26.138	0.441	-63.733
346.944	0.438	-63.905	0.898	25.966	0.898	25.966	0.438	-63.905
349.414	0.435	-64.074	0.899	25.795	0.899	25.795	0.435	-64.074
351.883	0.433	-64.242	0.901	25.627	0.901	25.627	0.433	-64.242
354.353	0.43	-64.408	0.902	25.46	0.902	25.46	0.43	-64.408
356.822	0.427	-64.572	0.903	25.295	0.903	25.295	0.427	-64.572
359.292	0.425	-64.734	0.904	25.131	0.904	25.131	0.425	-64.734
361.761	0.422	-64.895	0.906	24.97	0.906	24.97	0.422	-64.895
364.23	0.42	-65.054	0.907	24.81	0.907	24.81	0.42	-65.054
366.7	0.417	-65.211	0.908	24.652	0.908	24.652	0.417	-65.211
369.169	0.415	-65.367	0.909	24.495	0.909	24.495	0.415	-65.367
371.639	0.412	-65.521	0.91	24.34	0.91	24.34	0.412	-65.521
374.108	0.41	-65.673	0.911	24.187	0.911	24.187	0.41	-65.673
376.578	0.407	-65.824	0.912	24.035	0.912	24.035	0.407	-65.824
379.047	0.405	-65.973	0.913	23.885	0.913	23.885	0.405	-65.973
381.517	0.403	-66.121	0.914	23.736	0.914	23.736	0.403	-66.121
383.986	0.4	-66.267	0.915	23.589	0.915	23.589	0.4	-66.267
386.455	0.398	-66.412	0.916	23.443	0.916	23.443	0.398	-66.412
388.925	0.396	-66.555	0.917	23.299	0.917	23.299	0.396	-66.555
391.394	0.393	-66.697	0.918	23.156	0.918	23.156	0.393	-66.697
393.864	0.391	-66.837	0.919	23.014	0.919	23.014	0.391	-66.837
396.333	0.389	-66.976	0.92	22.874	0.92	22.874	0.389	-66.976
398.803	0.386	-67.114	0.921	22.736	0.921	22.736	0.386	-67.114
401.272	0.384	-67.25	0.922	22.598	0.922	22.598	0.384	-67.25
403.742	0.382	-67.385	0.923	22.463	0.923	22.463	0.382	-67.385
406.211	0.38	-67.519	0.924	22.328	0.924	22.328	0.38	-67.519
408.68	0.378	-67.651	0.925	22.195	0.925	22.195	0.378	-67.651
411.15	0.376	-67.782	0.926	22.063	0.926	22.063	0.376	-67.782
413.619	0.374	-67.912	0.927	21.932	0.927	21.932	0.374	-67.912
416.089	0.371	-68.04	0.927	21.802	0.927	21.802	0.371	-68.04
418.558	0.369	-68.168	0.928	21.674	0.928	21.674	0.369	-68.168
421.028	0.367	-68.294	0.929	21.547	0.929	21.547	0.367	-68.294
423.497	0.365	-68.418	0.93	21.421	0.93	21.421	0.365	-68.418
425.967	0.363	-68.542	0.931	21.296	0.931	21.296	0.363	-68.542
428.436	0.361	-68.665	0.931	21.173	0.931	21.173	0.361	-68.665
430.905	0.359	-68.786	0.932	21.05	0.932	21.05	0.359	-68.786
433.375	0.357	-68.906	0.933	20.929	0.933	20.929	0.357	-68.906
435.844	0.355	-69.025	0.934	20.809	0.934	20.809	0.355	-69.025
438.314	0.353	-69.143	0.934	20.69	0.934	20.69	0.353	-69.143
440.783	0.351	-69.26	0.935	20.572	0.935	20.572	0.351	-69.26
443.253	0.349	-69.376	0.936	20.455	0.936	20.455	0.349	-69.376
445.722	0.348	-69.491	0.937	20.339	0.937	20.339	0.348	-69.491
448.192	0.346	-69.605	0.937	20.224	0.937	20.224	0.346	-69.605
450.661	0.344	-69.717	0.938	20.111	0.938	20.111	0.344	-69.717
453.13	0.342	-69.829	0.939	19.998	0.939	19.998	0.342	-69.829
455.6	0.34	-69.94	0.939	19.886	0.939	19.886	0.34	-69.94
458.069	0.338	-70.05	0.94	19.775	0.94	19.775	0.338	-70.05
460.539	0.337	-70.158	0.941	19.666	0.941	19.666	0.337	-70.158
463.008	0.335	-70.266	0.941	19.557	0.941	19.557	0.335	-70.266
465.478	0.333	-70.373	0.942	19.449	0.942	19.449	0.333	-70.373
467.947	0.331	-70.479	0.943	19.342	0.943	19.342	0.331	-70.479
470.417	0.329	-70.584	0.943	19.236	0.943	19.236	0.329	-70.584
472.886	0.328	-70.688	0.944	19.131	0.944	19.131	0.328	-70.688
475.355	0.326	-70.791	0.944	19.026	0.944	19.026	0.326	-70.791
477.825	0.324	-70.893	0.945	18.923	0.945	18.923	0.324	-70.893
480.294	0.323	-70.995	0.945	18.82	0.945	18.82	0.323	-70.995
482.764	0.321	-71.095	0.946	18.719	0.946	18.719	0.321	-71.095
485.233	0.319	-71.195	0.947	18.618	0.947	18.618	0.319	-71.195
487.703	0.318	-71.294	0.947	18.518	0.947	18.518	0.318	-71.294
490.172	0.316	-71.392	0.948	18.419	0.948	18.419	0.316	-71.392
492.642	0.314	-71.489	0.948	18.321	0.948	18.321	0.314	-71.489
495.111	0.313	-71.585	0.949	18.223	0.949	18.223	0.313	-71.585
497.58	0.311	-71.681	0.949	18.127	0.949	18.127	0.311	-71.681
500.05	0.31	-71.776	0.95	18.031	0.95	18.031	0.31	-71.776
502.519	0.308	-71.87	0.95	17.936	0.95	17.936	0.308	-71.87
504.989	0.306	-71.963	0.951	17.841	0.951	17.841	0.306	-71.963
507.458	0.305	-72.055	0.951	17.748	0.951	17.748	0.305	-72.055
509.928	0.303	-72.147	0.952	17.655	0.952	17.655	0.303	-72.147
512.397	0.302	-72.238	0.952	17.563	0.952	17.563	0.302	-72.238
514.867	0.3	-72.328	0.953	17.472	0.953	17.472	0.3	-72.328
517.336	0.299	-72.418	0.953	17.381	0.953	17.381	0.299	-72.418
519.805	0.297	-72.507	0.954	17.291	0.954	17.291	0.297	-72.507
522.275	0.296	-72.595	0.954	17.202	0.954	17.202	0.296	-72.595
524.744	0.294	-72.682	0.955	17.113	0.955	17.113	0.294	-72.682
527.214	0.293	-72.769	0.955	17.025	0.955	17.025	0.293	-72.769
529.683	0.291	-72.855	0.956	16.938	0.956	16.938	0.291	-72.855
532.153	0.29	-72.94	0.956	16.852	0.956	16.852	0.29	-72.94
534.622	0.288	-73.025	0.956	16.766	0.956	16.766	0.288	-73.025
537.092	0.287	-73.109	0.957	16.681	0.957	16.681	0.287	-73.109
539.561	0.286	-73.192	0.957	16.596	0.957	16.596	0.286	-73.192
542.03	0.284	-73.275	0.958	16.513	0.958	16.513	0.284	-73.275
544.5	0.283	-73.357	0.958	16.429	0.958	16.429	0.283	-73.357
546.969	0.281	-73.439	0.959	16.347	0.959	16.347	0.281	-73.439
549.439	0.28	-73.519	0.959	16.265	0.959	16.265	0.28	-73.519
551.908	0.279	-73.6	0.959	16.183	0.959	16.183	0.279	-73.6
554.378	0.277	-73.679	0.96	16.103	0.96	16.103	0.277	-73.679
556.847	0.276	-73.758	0.96	16.022	0.96	16.022	0.276	-73.758
559.317	0.275	-73.837	0.96	15.943	0.96	15.943	0.275	-73.837
561.786	0.273	-73.915	0.961	15.864	0.961	15.864	0.273	-73.915
564.255	0.272	-73.992	0.961	15.785	0.961	15.785	0.272	-73.992
566.725	0.271	-74.069	0.962	15.708	0.962	15.708	0.271	-74.069
569.194	0.269	-74.145	0.962	15.63	0.962	15.63	0.269	-74.145
571.664	0.268	-74.22	0.962	15.554	0.962	15.554	0.268	-74.22
574.133	0.267	-74.295	0.963	15.477	0.963	15.477	0.267	-74.295
576.603	0.266	-74.37	0.963	15.402	0.963	15.402	0.266	-74.37
579.072	0.264	-74.444	0.963	15.327	0.963	15.327	0.264	-74.444
581.542	0.263	-74.517	0.964	15.252	0.964	15.252	0.263	-74.517
584.011	0.262	-74.59	0.964	15.178	0.964	15.178	0.262	-74.59
586.48	0.261	-74.662	0.964	15.104	0.964	15.104	0.261	-74.662
588.95	0.259	-74.734	0.965	15.031	0.965	15.031	0.259	-74.734
591.419	0.258	-74.805	0.965	14.959	0.965	14.959	0.258	-74.805
593.889	0.257	-74.876	0.965	14.887	0.965	14.887	0.257	-74.876
596.358	0.256	-74.947	0.966	14.815	0.966	14.815	0.256	-74.947
598.828	0.255	-75.016	0.966	14.744	0.966	14.744	0.255	-75.016
601.297	0.253	-75.086	0.966	14.674	0.966	14.674	0.253	-75.086
603.767	0.252	-75.155	0.967	14.604	0.967	14.604	0.252	-75.155
606.236	0.251	-75.223	0.967	14.534	0.967	14.534	0.251	-75.223
608.705	0.25	-75.291	0.967	14.465	0.967	14.465	0.25	-75.291
611.175	0.249	-75.358	0.968	14.396	0.968	14.396	0.249	-75.358
613.644	0.247	-75.425	0.968	14.328	0.968	14.328	0.247	-75.425
616.114	0.246	-75.492	0.968	14.26	0.968	14.26	0.246	-75.492
618.583	0.245	-75.558	0.968	14.193	0.968	14.193	0.245	-75.558
621.053	0.244	-75.623	0.969	14.126	0.969	14.126	0.244	-75.623
623.522	0.243	-75.689	0.969	14.06	0.969	14.06	0.243	-75.689
625.992	0.242	-75.753	0.969	13.994	0.969	13.994	0.242	-75.753
628.461	0.241	-75.818	0.97	13.928	0.97	13.928	0.241	-75.818
630.93	0.24	-75.882	0.97	13.863	0.97	13.863	0.24	-75.882
633.4	0.239	-75.945	0.97	13.799	0.97	13.799	0.239	-75.945
635.869	0.237	-76.008	0.97	13.734	0.97	13.734	0.237	-76.008
638.339	0.236	-76.071	0.971	13.671	0.971	13.671	0.236	-76.071
640.808	0.235	-76.133	0.971	13.607	0.971	13.607	0.235	-76.133
643.278	0.234	-76.195	0.971	13.544	0.971	13.544	0.234	-76.195
645.747	0.233	-76.256	0.971	13.481	0.971	13.481	0.233	-76.256
648.217	0.232	-76.317	0.972	13.419	0.972	13.419	0.232	-76.317
650.686	0.231	-76.377	0.972	13.357	0.972	13.357	0.231	-76.377
653.155	0.23	-76.438	0.972	13.296	0.972	13.296	0.23	-76.438
655.625	0.229	-76.497	0.972	13.235	0.972	13.235	0.229	-76.497
658.094	0.228	-76.557	0.973	13.174	0.973	13.174	0.228	-76.557
660.564	0.227	-76.616	0.973	13.114	0.973	13.114	0.227	-76.616
663.033	0.226	-76.675	0.973	13.054	0.973	13.054	0.226	-76.675
665.503	0.225	-76.733	0.973	12.994	0.973	12.994	0.225	-76.733
667.972	0.224	-76.791	0.974	12.935	0.974	12.935	0.224	-76.791
670.442	0.223	-76.848	0.974	12.876	0.974	12.876	0.223	-76.848
672.911	0.222	-76.906	0.974	12.818	0.974	12.818	0.222	-76.906
675.38	0.221	-76.962	0.974	12.759	0.974	12.759	0.221	-76.962
677.85	0.22	-77.019	0.974	12.702	0.974	12.702	0.22	-77.019
680.319	0.219	-77.075	0.975	12.644	0.975	12.644	0.219	-77.075
682.789	0.218	-77.131	0.975	12.587	0.975	12.587	0.218	-77.131
685.258	0.217	-77.186	0.975	12.53	0.975	12.53	0.217	-77.186
687.728	0.216	-77.241	0.975	12.474	0.975	12.474	0.216	-77.241
690.197	0.215	-77.296	0.976	12.418	0.976	12.418	0.215	-77.296
692.667	0.214	-77.351	0.976	12.362	0.976	12.362	0.214	-77.351
695.136	0.213	-77.405	0.976	12.307	0.976	12.307	0.213	-77.405
697.605	0.212	-77.458	0.976	12.252	0.976	12.252	0.212	-77.458
700.075	0.211	-77.512	0.976	12.197	0.976	12.197	0.211	-77.512
702.544	0.21	-77.565	0.977	12.142	0.977	12.142	0.21	-77.565
705.014	0.209	-77.618	0.977	12.088	0.977	12.088	0.209	-77.618
707.483	0.208	-77.67	0.977	12.034	0.977	12.034	0.208	-77.67
709.953	0.208	-77.723	0.977	11.981	0.977	11.981	0.208	-77.723
712.422	0.207	-77.774	0.977	11.927	0.977	11.927	0.207	-77.774
714.891	0.206	-77.826	0.978	11.875	0.978	11.875	0.206	-77.826
717.361	0.205	-77.877	0.978	11.822	0.978	11.822	0.205	-77.877
719.83	0.204	-77.928	0.978	11.77	0.978	11.77	0.204	-77.928
722.3	0.203	-77.979	0.978	11.718	0.978	11.718	0.203	-77.979
724.769	0.202	-78.029	0.978	11.666	0.978	11.666	0.202	-78.029
727.239	0.201	-78.079	0.978	11.614	0.978	11.614	0.201	-78.079
729.708	0.2	-78.129	0.979	11.563	0.979	11.563	0.2	-78.129
732.178	0.2	-78.179	0.979	11.512	0.979	11.512	0.2	-78.179
734.647	0.199	-78.228	0.979	11.462	0.979	11.462	0.199	-78.228
737.116	0.198	-78.277	0.979	11.411	0.979	11.411	0.198	-78.277
739.586	0.197	-78.325	0.979	11.361	0.979	11.361	0.197	-78.325
742.055	0.196	-78.374	0.979	11.311	0.979	11.311	0.196	-78.374
744.525	0.195	-78.422	0.98	11.262	0.98	11.262	0.195	-78.422
746.994	0.194	-78.47	0.98	11.213	0.98	11.213	0.194	-78.47
749.464	0.194	-78.517	0.98	11.164	0.98	11.164	0.194	-78.517
751.933	0.193	-78.565	0.98	11.115	0.98	11.115	0.193	-78.565
754.403	0.192	-78.612	0.98	11.067	0.98	11.067	0.192	-78.612
756.872	0.191	-78.658	0.98	11.018	0.98	11.018	0.191	-78.658
759.341	0.19	-78.705	0.981	10.97	0.981	10.97	0.19	-78.705
761.811	0.189	-78.751	0.981	10.923	0.981	10.923	0.189	-78.751
764.28	0.189	-78.797	0.981	10.875	0.981	10.875	0.189	-78.797
766.75	0.188	-78.843	0.981	10.828	0.981	10.828	0.188	-78.843
769.219	0.187	-78.888	0.981	10.781	0.981	10.781	0.187	-78.888
771.689	0.186	-78.933	0.981	10.734	0.981	10.734	0.186	-78.933
774.158	0.185	-78.978	0.982	10.688	0.982	10.688	0.185	-78.978
776.628	0.185	-79.023	0.982	10.642	0.982	10.642	0.185	-79.023
779.097	0.184	-79.068	0.982	10.596	0.982	10.596	0.184	-79.068
781.566	0.183	-79.112	0.982	10.55	0.982	10.55	0.183	-79.112
784.036	0.182	-79.156	0.982	10.504	0.982	10.504	0.182	-79.156
786.505	0.182	-79.2	0.982	10.459	0.982	10.459	0.182	-79.2
788.975	0.181	-79.243	0.982	10.414	0.982	10.414	0.181	-79.243
791.444	0.18	-79.287	0.983	10.369	0.983	10.369	0.18	-79.287
793.914	0.179	-79.33	0.983	10.325	0.983	10.325	0.179	-79.33
796.383	0.178	-79.373	0.983	10.28	0.983	10.28	0.178	-79.373
798.853	0.178	-79.415	0.983	10.236	0.983	10.236	0.178	-79.415
801.322	0.177	-79.458	0.983	10.192	0.983	10.192	0.177	-79.458
803.791	0.176	-79.5	0.983	10.148	0.983	10.148	0.176	-79.5
806.261	0.175	-79.542	0.983	10.105	0.983	10.105	0.175	-79.542
808.73	0.175	-79.583	0.984	10.062	0.984	10.062	0.175	-79.583
811.2	0.174	-79.625	0.984	10.019	0.984	10.019	0.174	-79.625
813.669	0.173	-79.666	0.984	9.976	0.984	9.976	0.173	-79.666
816.139	0.173	-79.707	0.984	9.933	0.984	9.933	0.173	-79.707
818.608	0.172	-79.748	0.984	9.891	0.984	9.891	0.172	-79.748
821.078	0.171	-79.789	0.984	9.848	0.984	9.848	0.171	-79.789
823.547	0.17	-79.829	0.984	9.806	0.984	9.806	0.17	-79.829
826.016	0.17	-79.87	0.984	9.764	0.984	9.764	0.17	-79.87
828.486	0.169	-79.91	0.985	9.723	0.985	9.723	0.169	-79.91
830.955	0.168	-79.95	0.985	9.681	0.985	9.681	0.168	-79.95
833.425	0.167	-79.989	0.985	9.64	0.985	9.64	0.167	-79.989
835.894	0.167	-80.029	0.985	9.599	0.985	9.599	0.167	-80.029
838.364	0.166	-80.068	0.985	9.558	0.985	9.558	0.166	-80.068
840.833	0.165	-80.107	0.985	9.518	0.985	9.518	0.165	-80.107
843.303	0.165	-80.146	0.985	9.477	0.985	9.477	0.165	-80.146
845.772	0.164	-80.184	0.985	9.437	0.985	9.437	0.164	-80.184
848.241	0.163	-80.223	0.985	9.397	0.985	9.397	0.163	-80.223
850.711	0.163	-80.261	0.986	9.357	0.986	9.357	0.163	-80.261
853.18	0.162	-80.299	0.986	9.317	0.986	9.317	0.162	-80.299
855.65	0.161	-80.337	0.986	9.277	0.986	9.277	0.161	-80.337
858.119	0.161	-80.375	0.986	9.238	0.986	9.238	0.161	-80.375
860.589	0.16	-80.412	0.986	9.199	0.986	9.199	0.16	-80.412
863.058	0.159	-80.45	0.986	9.16	0.986	9.16	0.159	-80.45
865.528	0.159	-80.487	0.986	9.121	0.986	9.121	0.159	-80.487
867.997	0.158	-80.524	0.986	9.082	0.986	9.082	0.158	-80.524
870.466	0.157	-80.56	0.986	9.044	0.986	9.044	0.157	-80.56
872.936	0.157	-80.597	0.987	9.006	0.987	9.006	0.157	-80.597
875.405	0.156	-80.634	0.987	8.967	0.987	8.967	0.156	-80.634
877.875	0.155	-80.67	0.987	8.929	0.987	8.929	0.155	-80.67
880.344	0.155	-80.706	0.987	8.892	0.987	8.892	0.155	-80.706
882.814	0.154	-80.742	0.987	8.854	0.987	8.854	0.154	-80.742
885.283	0.153	-80.777	0.987	8.817	0.987	8.817	0.153	-80.777
887.753	0.153	-80.813	0.987	8.779	0.987	8.779	0.153	-80.813
890.222	0.152	-80.848	0.987	8.742	0.987	8.742	0.152	-80.848
892.691	0.151	-80.884	0.987	8.705	0.987	8.705	0.151	-80.884
895.161	0.151	-80.919	0.987	8.668	0.987	8.668	0.151	-80.919
897.63	0.15	-80.954	0.988	8.632	0.988	8.632	0.15	-80.954
