! AVX Thin Film Operation		Date: April 2012 
! Description: Accu-P® Series, Thin Film, SMD, RF Capacitor
! Part Number: 08051J4R4ABTTR					
!	50	MHz	-	20.05	GHz			
!	Serial	Measurements						
!								
#	MHZ	S	MA	R	50			
!	S11	S21	S12	S22				
!	dB	Phase	dB	Phase	dB	Phase	dB	Phase
50 0.99 -7.871 0.137 82.056 0.137 82.056 0.99 -7.871
100 0.963 -15.467 0.267 74.445 0.267 74.445 0.963 -15.467
150 0.923 -22.568 0.384 67.328 0.384 67.328 0.923 -22.568
200 0.873 -29.039 0.485 60.841 0.485 60.841 0.873 -29.039
250 0.82 -34.827 0.571 55.036 0.571 55.036 0.82 -34.827
300 0.765 -39.944 0.642 49.903 0.642 49.903 0.765 -39.944
350 0.712 -44.439 0.7 45.392 0.7 45.392 0.712 -44.439
400 0.662 -48.379 0.748 41.435 0.748 41.435 0.662 -48.379
450 0.615 -51.834 0.786 37.962 0.786 37.962 0.615 -51.834
500 0.572 -54.874 0.818 34.905 0.818 34.905 0.572 -54.874
550 0.533 -57.557 0.844 32.204 0.844 32.204 0.533 -57.557
600 0.497 -59.937 0.865 29.805 0.865 29.805 0.497 -59.937
650 0.464 -62.059 0.883 27.664 0.883 27.664 0.464 -62.059
700 0.434 -63.96 0.898 25.744 0.898 25.744 0.434 -63.96
750 0.407 -65.671 0.911 24.012 0.911 24.012 0.407 -65.671
800 0.382 -67.219 0.922 22.443 0.922 22.443 0.382 -67.219
850 0.359 -68.625 0.931 21.015 0.931 21.015 0.359 -68.625
900 0.337 -69.91 0.939 19.708 0.939 19.708 0.337 -69.91
950 0.317 -71.087 0.946 18.507 0.946 18.507 0.317 -71.087
1000 0.299 -72.17 0.952 17.399 0.952 17.399 0.299 -72.17
1050 0.282 -73.17 0.957 16.374 0.957 16.374 0.282 -73.17
1100 0.266 -74.096 0.962 15.42 0.962 15.42 0.266 -74.096
1150 0.251 -74.957 0.966 14.531 0.966 14.531 0.251 -74.957
1200 0.237 -75.76 0.969 13.698 0.969 13.698 0.237 -75.76
1250 0.224 -76.509 0.972 12.917 0.972 12.917 0.224 -76.509
1300 0.211 -77.212 0.975 12.181 0.975 12.181 0.211 -77.212
1350 0.199 -77.871 0.978 11.487 0.978 11.487 0.199 -77.871
1400 0.188 -78.49 0.98 10.829 0.98 10.829 0.188 -78.49
1450 0.177 -79.073 0.982 10.205 0.982 10.205 0.177 -79.073
1500 0.167 -79.623 0.984 9.612 0.984 9.612 0.167 -79.623
1550 0.157 -80.142 0.985 9.047 0.985 9.047 0.157 -80.142
1600 0.148 -80.631 0.987 8.507 0.987 8.507 0.148 -80.631
1650 0.139 -81.093 0.988 7.99 0.988 7.99 0.139 -81.093
1700 0.13 -81.529 0.989 7.494 0.989 7.494 0.13 -81.529
1750 0.122 -81.94 0.99 7.018 0.99 7.018 0.122 -81.94
1800 0.114 -82.326 0.991 6.561 0.991 6.561 0.114 -82.326
1850 0.107 -82.688 0.992 6.12 0.992 6.12 0.107 -82.688
1900 0.099 -83.025 0.993 5.694 0.993 5.694 0.099 -83.025
1950 0.092 -83.338 0.994 5.283 0.994 5.283 0.092 -83.338
2000 0.085 -83.624 0.994 4.885 0.994 4.885 0.085 -83.624
2050 0.078 -83.883 0.995 4.499 0.995 4.499 0.078 -83.883
2100 0.072 -84.111 0.995 4.125 0.995 4.125 0.072 -84.111
2150 0.066 -84.305 0.996 3.761 0.996 3.761 0.066 -84.305
2200 0.059 -84.459 0.996 3.408 0.996 3.408 0.059 -84.459
2250 0.054 -84.565 0.996 3.064 0.996 3.064 0.054 -84.565
2300 0.048 -84.61 0.997 2.729 0.997 2.729 0.048 -84.61
2350 0.042 -84.576 0.997 2.403 0.997 2.403 0.042 -84.576
2400 0.036 -84.435 0.997 2.084 0.997 2.084 0.036 -84.435
2450 0.031 -84.137 0.997 1.772 0.997 1.772 0.031 -84.137
2500 0.026 -83.597 0.997 1.468 0.997 1.468 0.026 -83.597
2550 0.021 -82.647 0.998 1.169 0.998 1.169 0.021 -82.647
2600 0.015 -80.907 0.998 0.878 0.998 0.878 0.015 -80.907
2650 0.011 -77.318 0.998 0.591 0.998 0.591 0.011 -77.318
2700 5.859e-3 -67.518 0.998 0.311 0.998 0.311 5.859e-3 -67.518
2750 2.296e-3 -15.639 0.998 0.036 0.998 0.036 2.296e-3 -15.639
2800 4.656e-3 61.418 0.998 -0.235 0.998 -0.235 4.656e-3 61.418
2850 9.01e-3 75.294 0.998 -0.5 0.998 -0.5 9.01e-3 75.294
2900 0.013 79.794 0.998 -0.762 0.998 -0.762 0.013 79.794
2950 0.018 81.89 0.998 -1.018 0.998 -1.018 0.018 81.89
3000 0.022 83.037 0.998 -1.271 0.998 -1.271 0.022 83.037
3050 0.027 83.714 0.997 -1.52 0.997 -1.52 0.027 83.714
3100 0.031 84.128 0.997 -1.765 0.997 -1.765 0.031 84.128
3150 0.035 84.379 0.997 -2.007 0.997 -2.007 0.035 84.379
3200 0.039 84.523 0.997 -2.245 0.997 -2.245 0.039 84.523
3250 0.043 84.593 0.997 -2.481 0.997 -2.481 0.043 84.593
3300 0.047 84.61 0.997 -2.712 0.997 -2.712 0.047 84.61
3350 0.051 84.589 0.996 -2.942 0.996 -2.942 0.051 84.589
3400 0.055 84.539 0.996 -3.168 0.996 -3.168 0.055 84.539
3450 0.059 84.466 0.996 -3.391 0.996 -3.391 0.059 84.466
3500 0.063 84.375 0.996 -3.612 0.996 -3.612 0.063 84.375
3550 0.067 84.271 0.996 -3.83 0.996 -3.83 0.067 84.271
3600 0.071 84.156 0.995 -4.046 0.995 -4.046 0.071 84.156
3650 0.074 84.032 0.995 -4.26 0.995 -4.26 0.074 84.032
3700 0.078 83.901 0.995 -4.471 0.995 -4.471 0.078 83.901
3750 0.082 83.764 0.994 -4.681 0.994 -4.681 0.082 83.764
3800 0.085 83.622 0.994 -4.888 0.994 -4.888 0.085 83.622
3850 0.089 83.476 0.994 -5.093 0.994 -5.093 0.089 83.476
3900 0.092 83.328 0.994 -5.296 0.994 -5.296 0.092 83.328
3950 0.096 83.176 0.993 -5.498 0.993 -5.498 0.096 83.176
4000 0.099 83.023 0.993 -5.697 0.993 -5.697 0.099 83.023
4050 0.103 82.867 0.992 -5.895 0.992 -5.895 0.103 82.867
4100 0.106 82.711 0.992 -6.091 0.992 -6.091 0.106 82.711
4150 0.11 82.553 0.992 -6.286 0.992 -6.286 0.11 82.553
4200 0.113 82.394 0.991 -6.479 0.991 -6.479 0.113 82.394
4250 0.116 82.235 0.991 -6.67 0.991 -6.67 0.116 82.235
4300 0.119 82.074 0.991 -6.86 0.991 -6.86 0.119 82.074
4350 0.123 81.914 0.99 -7.049 0.99 -7.049 0.123 81.914
4400 0.126 81.753 0.99 -7.236 0.99 -7.236 0.126 81.753
4450 0.129 81.593 0.989 -7.422 0.989 -7.422 0.129 81.593
4500 0.132 81.432 0.989 -7.606 0.989 -7.606 0.132 81.432
4550 0.136 81.271 0.989 -7.789 0.989 -7.789 0.136 81.271
4600 0.139 81.11 0.988 -7.971 0.988 -7.971 0.139 81.11
4650 0.142 80.949 0.988 -8.152 0.988 -8.152 0.142 80.949
4700 0.145 80.789 0.987 -8.332 0.987 -8.332 0.145 80.789
4750 0.148 80.628 0.987 -8.51 0.987 -8.51 0.148 80.628
4800 0.151 80.468 0.986 -8.687 0.986 -8.687 0.151 80.468
4850 0.154 80.308 0.986 -8.864 0.986 -8.864 0.154 80.308
4900 0.157 80.149 0.985 -9.039 0.985 -9.039 0.157 80.149
4950 0.16 79.99 0.985 -9.213 0.985 -9.213 0.16 79.99
5000 0.163 79.831 0.984 -9.386 0.984 -9.386 0.163 79.831
5050 0.166 79.672 0.984 -9.558 0.984 -9.558 0.166 79.672
5100 0.169 79.514 0.983 -9.73 0.983 -9.73 0.169 79.514
5150 0.172 79.357 0.983 -9.9 0.983 -9.9 0.172 79.357
5200 0.175 79.2 0.982 -10.069 0.982 -10.069 0.175 79.2
5250 0.178 79.043 0.982 -10.238 0.982 -10.238 0.178 79.043
5300 0.181 78.887 0.981 -10.406 0.981 -10.406 0.181 78.887
5350 0.183 78.731 0.981 -10.572 0.981 -10.572 0.183 78.731
5400 0.186 78.575 0.98 -10.738 0.98 -10.738 0.186 78.575
5450 0.189 78.42 0.98 -10.904 0.98 -10.904 0.189 78.42
5500 0.192 78.266 0.979 -11.068 0.979 -11.068 0.192 78.266
5550 0.195 78.111 0.979 -11.231 0.979 -11.231 0.195 78.111
5600 0.198 77.958 0.978 -11.394 0.978 -11.394 0.198 77.958
5650 0.2 77.805 0.977 -11.556 0.977 -11.556 0.2 77.805
5700 0.203 77.652 0.977 -11.718 0.977 -11.718 0.203 77.652
5750 0.206 77.499 0.976 -11.878 0.976 -11.878 0.206 77.499
5800 0.209 77.348 0.976 -12.038 0.976 -12.038 0.209 77.348
5850 0.211 77.196 0.975 -12.197 0.975 -12.197 0.211 77.196
5900 0.214 77.045 0.975 -12.356 0.975 -12.356 0.214 77.045
5950 0.217 76.895 0.974 -12.513 0.974 -12.513 0.217 76.895
6000 0.219 76.745 0.973 -12.671 0.973 -12.671 0.219 76.745
6050 0.222 76.595 0.973 -12.827 0.973 -12.827 0.222 76.595
6100 0.225 76.446 0.972 -12.983 0.972 -12.983 0.225 76.446
6150 0.227 76.297 0.972 -13.138 0.972 -13.138 0.227 76.297
6200 0.23 76.149 0.971 -13.293 0.971 -13.293 0.23 76.149
6250 0.233 76.001 0.97 -13.447 0.97 -13.447 0.233 76.001
6300 0.235 75.854 0.97 -13.6 0.97 -13.6 0.235 75.854
6350 0.238 75.707 0.969 -13.753 0.969 -13.753 0.238 75.707
6400 0.24 75.56 0.968 -13.905 0.968 -13.905 0.24 75.56
6450 0.243 75.414 0.968 -14.057 0.968 -14.057 0.243 75.414
6500 0.245 75.268 0.967 -14.208 0.967 -14.208 0.245 75.268
6550 0.248 75.123 0.967 -14.359 0.967 -14.359 0.248 75.123
6600 0.251 74.978 0.966 -14.509 0.966 -14.509 0.251 74.978
6650 0.253 74.834 0.965 -14.658 0.965 -14.658 0.253 74.834
6700 0.256 74.69 0.965 -14.807 0.965 -14.807 0.256 74.69
6750 0.258 74.546 0.964 -14.956 0.964 -14.956 0.258 74.546
6800 0.261 74.403 0.963 -15.103 0.963 -15.103 0.261 74.403
6850 0.263 74.26 0.963 -15.251 0.963 -15.251 0.263 74.26
6900 0.266 74.118 0.962 -15.398 0.962 -15.398 0.266 74.118
6950 0.268 73.976 0.961 -15.544 0.961 -15.544 0.268 73.976
7000 0.27 73.834 0.96 -15.69 0.96 -15.69 0.27 73.834
7050 0.273 73.693 0.96 -15.835 0.96 -15.835 0.273 73.693
7100 0.275 73.552 0.959 -15.98 0.959 -15.98 0.275 73.552
7150 0.278 73.412 0.958 -16.125 0.958 -16.125 0.278 73.412
7200 0.28 73.272 0.958 -16.269 0.958 -16.269 0.28 73.272
7250 0.283 73.132 0.957 -16.412 0.957 -16.412 0.283 73.132
7300 0.285 72.993 0.956 -16.555 0.956 -16.555 0.285 72.993
7350 0.287 72.854 0.956 -16.698 0.956 -16.698 0.287 72.854
7400 0.29 72.715 0.955 -16.84 0.955 -16.84 0.29 72.715
7450 0.292 72.577 0.954 -16.982 0.954 -16.982 0.292 72.577
7500 0.294 72.44 0.953 -17.123 0.953 -17.123 0.294 72.44
7550 0.297 72.302 0.953 -17.264 0.953 -17.264 0.297 72.302
7600 0.299 72.165 0.952 -17.404 0.952 -17.404 0.299 72.165
7650 0.301 72.029 0.951 -17.544 0.951 -17.544 0.301 72.029
7700 0.304 71.892 0.95 -17.683 0.95 -17.683 0.304 71.892
7750 0.306 71.756 0.95 -17.822 0.95 -17.822 0.306 71.756
7800 0.308 71.621 0.949 -17.961 0.949 -17.961 0.308 71.621
7850 0.311 71.486 0.948 -18.099 0.948 -18.099 0.311 71.486
7900 0.313 71.351 0.948 -18.237 0.948 -18.237 0.313 71.351
7950 0.315 71.216 0.947 -18.375 0.947 -18.375 0.315 71.216
8000 0.318 71.082 0.946 -18.512 0.946 -18.512 0.318 71.082
8050 0.32 70.948 0.945 -18.648 0.945 -18.648 0.32 70.948
8100 0.322 70.815 0.944 -18.785 0.944 -18.785 0.322 70.815
8150 0.324 70.682 0.944 -18.92 0.944 -18.92 0.324 70.682
8200 0.326 70.549 0.943 -19.056 0.943 -19.056 0.326 70.549
8250 0.329 70.417 0.942 -19.191 0.942 -19.191 0.329 70.417
8300 0.331 70.285 0.941 -19.326 0.941 -19.326 0.331 70.285
8350 0.333 70.153 0.941 -19.46 0.941 -19.46 0.333 70.153
8400 0.335 70.022 0.94 -19.594 0.94 -19.594 0.335 70.022
8450 0.338 69.89 0.939 -19.727 0.939 -19.727 0.338 69.89
8500 0.34 69.76 0.938 -19.86 0.938 -19.86 0.34 69.76
8550 0.342 69.629 0.937 -19.993 0.937 -19.993 0.342 69.629
8600 0.344 69.499 0.937 -20.126 0.937 -20.126 0.344 69.499
8650 0.346 69.37 0.936 -20.258 0.936 -20.258 0.346 69.37
8700 0.348 69.24 0.935 -20.389 0.935 -20.389 0.348 69.24
8750 0.351 69.111 0.934 -20.521 0.934 -20.521 0.351 69.111
8800 0.353 68.982 0.933 -20.652 0.933 -20.652 0.353 68.982
8850 0.355 68.854 0.933 -20.782 0.933 -20.782 0.355 68.854
8900 0.357 68.726 0.932 -20.912 0.932 -20.912 0.357 68.726
8950 0.359 68.598 0.931 -21.042 0.931 -21.042 0.359 68.598
9000 0.361 68.471 0.93 -21.172 0.93 -21.172 0.361 68.471
9050 0.363 68.344 0.929 -21.301 0.929 -21.301 0.363 68.344
9100 0.365 68.217 0.929 -21.43 0.929 -21.43 0.365 68.217
9150 0.367 68.09 0.928 -21.558 0.928 -21.558 0.367 68.09
9200 0.37 67.964 0.927 -21.686 0.927 -21.686 0.37 67.964
9250 0.372 67.838 0.926 -21.814 0.926 -21.814 0.372 67.838
9300 0.374 67.713 0.925 -21.942 0.925 -21.942 0.374 67.713
9350 0.376 67.588 0.924 -22.069 0.924 -22.069 0.376 67.588
9400 0.378 67.463 0.924 -22.196 0.924 -22.196 0.378 67.463
9450 0.38 67.338 0.923 -22.322 0.923 -22.322 0.38 67.338
9500 0.382 67.214 0.922 -22.448 0.922 -22.448 0.382 67.214
9550 0.384 67.09 0.921 -22.574 0.921 -22.574 0.384 67.09
9600 0.386 66.966 0.92 -22.699 0.92 -22.699 0.386 66.966
9650 0.388 66.843 0.919 -22.825 0.919 -22.825 0.388 66.843
9700 0.39 66.72 0.919 -22.949 0.919 -22.949 0.39 66.72
9750 0.392 66.597 0.918 -23.074 0.918 -23.074 0.392 66.597
9800 0.394 66.474 0.917 -23.198 0.917 -23.198 0.394 66.474
9850 0.396 66.352 0.916 -23.322 0.916 -23.322 0.396 66.352
9900 0.398 66.23 0.915 -23.445 0.915 -23.445 0.398 66.23
9950 0.4 66.109 0.914 -23.568 0.914 -23.568 0.4 66.109
10000 0.402 65.988 0.913 -23.691 0.913 -23.691 0.402 65.988
10050 0.404 65.867 0.913 -23.814 0.913 -23.814 0.404 65.867
10100 0.406 65.746 0.912 -23.936 0.912 -23.936 0.406 65.746
10150 0.408 65.626 0.911 -24.058 0.911 -24.058 0.408 65.626
10200 0.41 65.505 0.91 -24.18 0.91 -24.18 0.41 65.505
10250 0.412 65.386 0.909 -24.301 0.909 -24.301 0.412 65.386
10300 0.413 65.266 0.908 -24.422 0.908 -24.422 0.413 65.266
10350 0.415 65.147 0.907 -24.542 0.907 -24.542 0.415 65.147
10400 0.417 65.028 0.907 -24.663 0.907 -24.663 0.417 65.028
10450 0.419 64.909 0.906 -24.783 0.906 -24.783 0.419 64.909
10500 0.421 64.791 0.905 -24.903 0.905 -24.903 0.421 64.791
10550 0.423 64.673 0.904 -25.022 0.904 -25.022 0.423 64.673
10600 0.425 64.555 0.903 -25.141 0.903 -25.141 0.425 64.555
10650 0.427 64.438 0.902 -25.26 0.902 -25.26 0.427 64.438
10700 0.429 64.321 0.901 -25.378 0.901 -25.378 0.429 64.321
10750 0.43 64.204 0.9 -25.497 0.9 -25.497 0.43 64.204
10800 0.432 64.087 0.899 -25.615 0.899 -25.615 0.432 64.087
10850 0.434 63.971 0.899 -25.732 0.899 -25.732 0.434 63.971
10900 0.436 63.855 0.898 -25.85 0.898 -25.85 0.436 63.855
10950 0.438 63.739 0.897 -25.967 0.897 -25.967 0.438 63.739
11000 0.44 63.624 0.896 -26.083 0.896 -26.083 0.44 63.624
11050 0.442 63.509 0.895 -26.2 0.895 -26.2 0.442 63.509
11100 0.443 63.394 0.894 -26.316 0.894 -26.316 0.443 63.394
11150 0.445 63.279 0.893 -26.432 0.893 -26.432 0.445 63.279
11200 0.447 63.165 0.892 -26.547 0.892 -26.547 0.447 63.165
11250 0.449 63.051 0.891 -26.662 0.891 -26.662 0.449 63.051
11300 0.451 62.937 0.891 -26.777 0.891 -26.777 0.451 62.937
11350 0.452 62.823 0.89 -26.892 0.89 -26.892 0.452 62.823
11400 0.454 62.71 0.889 -27.007 0.889 -27.007 0.454 62.71
11450 0.456 62.597 0.888 -27.121 0.888 -27.121 0.456 62.597
11500 0.458 62.484 0.887 -27.234 0.887 -27.234 0.458 62.484
11550 0.459 62.372 0.886 -27.348 0.886 -27.348 0.459 62.372
11600 0.461 62.26 0.885 -27.461 0.885 -27.461 0.461 62.26
11650 0.463 62.148 0.884 -27.574 0.884 -27.574 0.463 62.148
11700 0.465 62.036 0.883 -27.687 0.883 -27.687 0.465 62.036
11750 0.466 61.925 0.882 -27.799 0.882 -27.799 0.466 61.925
11800 0.468 61.814 0.881 -27.911 0.881 -27.911 0.468 61.814
11850 0.47 61.703 0.881 -28.023 0.881 -28.023 0.47 61.703
11900 0.472 61.593 0.88 -28.135 0.88 -28.135 0.472 61.593
11950 0.473 61.483 0.879 -28.246 0.879 -28.246 0.473 61.483
12000 0.475 61.373 0.878 -28.357 0.878 -28.357 0.475 61.373
12050 0.477 61.263 0.877 -28.468 0.877 -28.468 0.477 61.263
12100 0.478 61.153 0.876 -28.578 0.876 -28.578 0.478 61.153
12150 0.48 61.044 0.875 -28.688 0.875 -28.688 0.48 61.044
12200 0.482 60.935 0.874 -28.798 0.874 -28.798 0.482 60.935
12250 0.483 60.827 0.873 -28.908 0.873 -28.908 0.483 60.827
12300 0.485 60.718 0.872 -29.017 0.872 -29.017 0.485 60.718
12350 0.487 60.61 0.871 -29.126 0.871 -29.126 0.487 60.61
12400 0.488 60.502 0.87 -29.235 0.87 -29.235 0.488 60.502
12450 0.49 60.395 0.869 -29.343 0.869 -29.343 0.49 60.395
12500 0.492 60.288 0.869 -29.452 0.869 -29.452 0.492 60.288
12550 0.493 60.18 0.868 -29.56 0.868 -29.56 0.493 60.18
12600 0.495 60.074 0.867 -29.667 0.867 -29.667 0.495 60.074
12650 0.497 59.967 0.866 -29.775 0.866 -29.775 0.497 59.967
12700 0.498 59.861 0.865 -29.882 0.865 -29.882 0.498 59.861
12750 0.5 59.755 0.864 -29.989 0.864 -29.989 0.5 59.755
12800 0.501 59.649 0.863 -30.095 0.863 -30.095 0.501 59.649
12850 0.503 59.544 0.862 -30.202 0.862 -30.202 0.503 59.544
12900 0.505 59.438 0.861 -30.308 0.861 -30.308 0.505 59.438
12950 0.506 59.333 0.86 -30.414 0.86 -30.414 0.506 59.333
13000 0.508 59.229 0.859 -30.519 0.859 -30.519 0.508 59.229
13050 0.509 59.124 0.858 -30.624 0.858 -30.624 0.509 59.124
13100 0.511 59.02 0.857 -30.73 0.857 -30.73 0.511 59.02
13150 0.513 58.916 0.856 -30.834 0.856 -30.834 0.513 58.916
13200 0.514 58.812 0.855 -30.939 0.855 -30.939 0.514 58.812
13250 0.516 58.709 0.855 -31.043 0.855 -31.043 0.516 58.709
13300 0.517 58.606 0.854 -31.147 0.854 -31.147 0.517 58.606
13350 0.519 58.503 0.853 -31.251 0.853 -31.251 0.519 58.503
13400 0.52 58.4 0.852 -31.354 0.852 -31.354 0.52 58.4
13450 0.522 58.298 0.851 -31.457 0.851 -31.457 0.522 58.298
13500 0.523 58.196 0.85 -31.56 0.85 -31.56 0.523 58.196
13550 0.525 58.094 0.849 -31.663 0.849 -31.663 0.525 58.094
13600 0.526 57.992 0.848 -31.765 0.848 -31.765 0.526 57.992
13650 0.528 57.891 0.847 -31.868 0.847 -31.868 0.528 57.891
13700 0.529 57.789 0.846 -31.97 0.846 -31.97 0.529 57.789
13750 0.531 57.689 0.845 -32.071 0.845 -32.071 0.531 57.689
13800 0.532 57.588 0.844 -32.173 0.844 -32.173 0.532 57.588
13850 0.534 57.487 0.843 -32.274 0.843 -32.274 0.534 57.487
13900 0.535 57.387 0.842 -32.375 0.842 -32.375 0.535 57.387
13950 0.537 57.287 0.841 -32.475 0.841 -32.475 0.537 57.287
14000 0.538 57.188 0.84 -32.576 0.84 -32.576 0.538 57.188
14050 0.54 57.088 0.84 -32.676 0.84 -32.676 0.54 57.088
14100 0.541 56.989 0.839 -32.776 0.839 -32.776 0.541 56.989
14150 0.543 56.89 0.838 -32.875 0.838 -32.875 0.543 56.89
14200 0.544 56.791 0.837 -32.975 0.837 -32.975 0.544 56.791
14250 0.546 56.693 0.836 -33.074 0.836 -33.074 0.546 56.693
14300 0.547 56.595 0.835 -33.173 0.835 -33.173 0.547 56.595
14350 0.549 56.497 0.834 -33.271 0.834 -33.271 0.549 56.497
14400 0.55 56.399 0.833 -33.37 0.833 -33.37 0.55 56.399
14450 0.551 56.301 0.832 -33.468 0.832 -33.468 0.551 56.301
14500 0.553 56.204 0.831 -33.566 0.831 -33.566 0.553 56.204
14550 0.554 56.107 0.83 -33.664 0.83 -33.664 0.554 56.107
14600 0.556 56.01 0.829 -33.761 0.829 -33.761 0.556 56.01
14650 0.557 55.914 0.828 -33.858 0.828 -33.858 0.557 55.914
14700 0.559 55.818 0.827 -33.955 0.827 -33.955 0.559 55.818
14750 0.56 55.722 0.826 -34.052 0.826 -34.052 0.56 55.722
14800 0.561 55.626 0.825 -34.148 0.825 -34.148 0.561 55.626
14850 0.563 55.53 0.824 -34.244 0.824 -34.244 0.563 55.53
14900 0.564 55.435 0.823 -34.34 0.823 -34.34 0.564 55.435
14950 0.565 55.34 0.823 -34.436 0.823 -34.436 0.565 55.34
15000 0.567 55.245 0.822 -34.532 0.822 -34.532 0.567 55.245
15050 0.568 55.15 0.821 -34.627 0.821 -34.627 0.568 55.15
15100 0.57 55.056 0.82 -34.722 0.82 -34.722 0.57 55.056
15150 0.571 54.962 0.819 -34.817 0.819 -34.817 0.571 54.962
15200 0.572 54.868 0.818 -34.911 0.818 -34.911 0.572 54.868
15250 0.574 54.774 0.817 -35.005 0.817 -35.005 0.574 54.774
15300 0.575 54.681 0.816 -35.1 0.816 -35.1 0.575 54.681
15350 0.576 54.587 0.815 -35.193 0.815 -35.193 0.576 54.587
15400 0.578 54.494 0.814 -35.287 0.814 -35.287 0.578 54.494
15450 0.579 54.401 0.813 -35.38 0.813 -35.38 0.579 54.401
15500 0.58 54.309 0.812 -35.473 0.812 -35.473 0.58 54.309
15550 0.582 54.217 0.811 -35.566 0.811 -35.566 0.582 54.217
15600 0.583 54.125 0.81 -35.659 0.81 -35.659 0.583 54.125
15650 0.584 54.033 0.809 -35.751 0.809 -35.751 0.584 54.033
15700 0.586 53.941 0.808 -35.843 0.808 -35.843 0.586 53.941
15750 0.587 53.85 0.807 -35.935 0.807 -35.935 0.587 53.85
15800 0.588 53.758 0.807 -36.027 0.807 -36.027 0.588 53.758
15850 0.589 53.668 0.806 -36.119 0.806 -36.119 0.589 53.668
15900 0.591 53.577 0.805 -36.21 0.805 -36.21 0.591 53.577
15950 0.592 53.486 0.804 -36.301 0.804 -36.301 0.592 53.486
16000 0.593 53.396 0.803 -36.392 0.803 -36.392 0.593 53.396
16050 0.595 53.306 0.802 -36.482 0.802 -36.482 0.595 53.306
16100 0.596 53.216 0.801 -36.573 0.801 -36.573 0.596 53.216
16150 0.597 53.127 0.8 -36.663 0.8 -36.663 0.597 53.127
16200 0.598 53.037 0.799 -36.753 0.799 -36.753 0.598 53.037
16250 0.6 52.948 0.798 -36.842 0.798 -36.842 0.6 52.948
16300 0.601 52.859 0.797 -36.932 0.797 -36.932 0.601 52.859
16350 0.602 52.77 0.796 -37.021 0.796 -37.021 0.602 52.77
16400 0.603 52.682 0.795 -37.11 0.795 -37.11 0.603 52.682
16450 0.605 52.594 0.794 -37.199 0.794 -37.199 0.605 52.594
16500 0.606 52.506 0.793 -37.287 0.793 -37.287 0.606 52.506
16550 0.607 52.418 0.792 -37.376 0.792 -37.376 0.607 52.418
16600 0.608 52.33 0.792 -37.464 0.792 -37.464 0.608 52.33
16650 0.609 52.243 0.791 -37.551 0.791 -37.551 0.609 52.243
16700 0.611 52.156 0.79 -37.639 0.79 -37.639 0.611 52.156
16750 0.612 52.069 0.789 -37.727 0.789 -37.727 0.612 52.069
16800 0.613 51.982 0.788 -37.814 0.788 -37.814 0.613 51.982
16850 0.614 51.895 0.787 -37.901 0.787 -37.901 0.614 51.895
16900 0.615 51.809 0.786 -37.988 0.786 -37.988 0.615 51.809
16950 0.617 51.723 0.785 -38.074 0.785 -38.074 0.617 51.723
