! AVX Thin Film Operation		Date: April 2012 
! Description: Accu-P® Series, Thin Film, SMD, RF Capacitor
! Part Number: 08051J0R9PBTTR					
!	100	MHz	-	30.05	GHz			
!	Serial	Measurements						
!								
#	MHZ	S	MA	R	50			
!	S11	S21	S12	S22				
!	dB	Phase	dB	Phase	dB	Phase	dB	Phase
100	0.998	-3.237	0.056	86.754	0.056	86.754	0.998	-3.237
107.458	0.998	-3.478	0.061	86.512	0.061	86.512	0.998	-3.478
114.916	0.998	-3.719	0.065	86.271	0.065	86.271	0.998	-3.719
122.375	0.998	-3.96	0.069	86.029	0.069	86.029	0.998	-3.96
129.833	0.997	-4.2	0.073	85.788	0.073	85.788	0.997	-4.2
137.291	0.997	-4.441	0.077	85.547	0.077	85.547	0.997	-4.441
144.749	0.997	-4.681	0.082	85.306	0.082	85.306	0.997	-4.681
152.208	0.996	-4.922	0.086	85.065	0.086	85.065	0.996	-4.922
159.666	0.996	-5.162	0.09	84.824	0.09	84.824	0.996	-5.162
167.124	0.996	-5.402	0.094	84.584	0.094	84.584	0.996	-5.402
174.582	0.995	-5.642	0.098	84.343	0.098	84.343	0.995	-5.642
182.04	0.995	-5.881	0.102	84.103	0.102	84.103	0.995	-5.881
189.499	0.994	-6.121	0.107	83.863	0.107	83.863	0.994	-6.121
196.957	0.994	-6.36	0.111	83.623	0.111	83.623	0.994	-6.36
204.415	0.993	-6.599	0.115	83.383	0.115	83.383	0.993	-6.599
211.873	0.993	-6.838	0.119	83.143	0.119	83.143	0.993	-6.838
219.332	0.992	-7.077	0.123	82.904	0.123	82.904	0.992	-7.077
226.79	0.992	-7.315	0.127	82.665	0.127	82.665	0.992	-7.315
234.248	0.991	-7.554	0.131	82.426	0.131	82.426	0.991	-7.554
241.706	0.991	-7.792	0.136	82.187	0.136	82.187	0.991	-7.792
249.164	0.99	-8.03	0.14	81.948	0.14	81.948	0.99	-8.03
256.623	0.99	-8.267	0.144	81.71	0.144	81.71	0.99	-8.267
264.081	0.989	-8.505	0.148	81.472	0.148	81.472	0.989	-8.505
271.539	0.988	-8.742	0.152	81.234	0.152	81.234	0.988	-8.742
278.997	0.988	-8.979	0.156	80.997	0.156	80.997	0.988	-8.979
286.455	0.987	-9.216	0.16	80.759	0.16	80.759	0.987	-9.216
293.914	0.986	-9.452	0.164	80.522	0.164	80.522	0.986	-9.452
301.372	0.986	-9.688	0.168	80.285	0.168	80.285	0.986	-9.688
308.83	0.985	-9.924	0.172	80.049	0.172	80.049	0.985	-9.924
316.288	0.984	-10.16	0.176	79.812	0.176	79.812	0.984	-10.16
323.747	0.983	-10.395	0.18	79.576	0.18	79.576	0.983	-10.395
331.205	0.983	-10.63	0.184	79.341	0.184	79.341	0.983	-10.63
338.663	0.982	-10.865	0.188	79.105	0.188	79.105	0.982	-10.865
346.121	0.981	-11.1	0.193	78.87	0.193	78.87	0.981	-11.1
353.579	0.98	-11.334	0.197	78.635	0.197	78.635	0.98	-11.334
361.038	0.98	-11.568	0.201	78.401	0.201	78.401	0.98	-11.568
368.496	0.979	-11.801	0.205	78.167	0.205	78.167	0.979	-11.801
375.954	0.978	-12.034	0.208	77.933	0.208	77.933	0.978	-12.034
383.412	0.977	-12.267	0.212	77.699	0.212	77.699	0.977	-12.267
390.871	0.976	-12.5	0.216	77.466	0.216	77.466	0.976	-12.5
398.329	0.975	-12.732	0.22	77.233	0.22	77.233	0.975	-12.732
405.787	0.974	-12.964	0.224	77	0.224	77	0.974	-12.964
413.245	0.973	-13.195	0.228	76.768	0.228	76.768	0.973	-13.195
420.703	0.973	-13.427	0.232	76.536	0.232	76.536	0.973	-13.427
428.162	0.972	-13.657	0.236	76.305	0.236	76.305	0.972	-13.657
435.62	0.971	-13.888	0.24	76.074	0.24	76.074	0.971	-13.888
443.078	0.97	-14.118	0.244	75.843	0.244	75.843	0.97	-14.118
450.536	0.969	-14.348	0.248	75.613	0.248	75.613	0.969	-14.348
457.995	0.968	-14.577	0.252	75.383	0.252	75.383	0.968	-14.577
465.453	0.967	-14.806	0.256	75.153	0.256	75.153	0.967	-14.806
472.911	0.966	-15.034	0.259	74.924	0.259	74.924	0.966	-15.034
480.369	0.965	-15.263	0.263	74.695	0.263	74.695	0.965	-15.263
487.827	0.963	-15.49	0.267	74.467	0.267	74.467	0.963	-15.49
495.286	0.962	-15.718	0.271	74.239	0.271	74.239	0.962	-15.718
502.744	0.961	-15.945	0.275	74.011	0.275	74.011	0.961	-15.945
510.202	0.96	-16.171	0.279	73.784	0.279	73.784	0.96	-16.171
517.66	0.959	-16.397	0.282	73.557	0.282	73.557	0.959	-16.397
525.118	0.958	-16.623	0.286	73.331	0.286	73.331	0.958	-16.623
532.577	0.957	-16.848	0.29	73.105	0.29	73.105	0.957	-16.848
540.035	0.956	-17.073	0.294	72.879	0.294	72.879	0.956	-17.073
547.493	0.955	-17.297	0.297	72.654	0.297	72.654	0.955	-17.297
554.951	0.953	-17.521	0.301	72.43	0.301	72.43	0.953	-17.521
562.41	0.952	-17.745	0.305	72.206	0.305	72.206	0.952	-17.745
569.868	0.951	-17.968	0.308	71.982	0.308	71.982	0.951	-17.968
577.326	0.95	-18.19	0.312	71.759	0.312	71.759	0.95	-18.19
584.784	0.949	-18.413	0.316	71.536	0.316	71.536	0.949	-18.413
592.242	0.947	-18.634	0.32	71.313	0.32	71.313	0.947	-18.634
599.701	0.946	-18.856	0.323	71.092	0.323	71.092	0.946	-18.856
607.159	0.945	-19.076	0.327	70.87	0.327	70.87	0.945	-19.076
614.617	0.944	-19.297	0.33	70.649	0.33	70.649	0.944	-19.297
622.075	0.942	-19.516	0.334	70.429	0.334	70.429	0.942	-19.516
629.534	0.941	-19.736	0.338	70.209	0.338	70.209	0.941	-19.736
636.992	0.94	-19.955	0.341	69.989	0.341	69.989	0.94	-19.955
644.45	0.938	-20.173	0.345	69.77	0.345	69.77	0.938	-20.173
651.908	0.937	-20.391	0.348	69.552	0.348	69.552	0.937	-20.391
659.366	0.936	-20.608	0.352	69.333	0.352	69.333	0.936	-20.608
666.825	0.934	-20.825	0.356	69.116	0.356	69.116	0.934	-20.825
674.283	0.933	-21.042	0.359	68.899	0.359	68.899	0.933	-21.042
681.741	0.932	-21.258	0.363	68.682	0.363	68.682	0.932	-21.258
689.199	0.93	-21.473	0.366	68.466	0.366	68.466	0.93	-21.473
696.658	0.929	-21.688	0.37	68.251	0.37	68.251	0.929	-21.688
704.116	0.927	-21.902	0.373	68.036	0.373	68.036	0.927	-21.902
711.574	0.926	-22.116	0.376	67.821	0.376	67.821	0.926	-22.116
719.032	0.925	-22.329	0.38	67.607	0.38	67.607	0.925	-22.329
726.49	0.923	-22.542	0.383	67.393	0.383	67.393	0.923	-22.542
733.949	0.922	-22.755	0.387	67.18	0.387	67.18	0.922	-22.755
741.407	0.92	-22.966	0.39	66.968	0.39	66.968	0.92	-22.966
748.865	0.919	-23.178	0.394	66.756	0.394	66.756	0.919	-23.178
756.323	0.917	-23.388	0.397	66.545	0.397	66.545	0.917	-23.388
763.781	0.916	-23.599	0.4	66.334	0.4	66.334	0.916	-23.599
771.24	0.914	-23.808	0.404	66.123	0.404	66.123	0.914	-23.808
778.698	0.913	-24.017	0.407	65.914	0.407	65.914	0.913	-24.017
786.156	0.911	-24.226	0.41	65.704	0.41	65.704	0.911	-24.226
793.614	0.91	-24.434	0.414	65.495	0.414	65.495	0.91	-24.434
801.073	0.908	-24.642	0.417	65.287	0.417	65.287	0.908	-24.642
808.531	0.907	-24.849	0.42	65.08	0.42	65.08	0.907	-24.849
815.989	0.905	-25.055	0.423	64.872	0.423	64.872	0.905	-25.055
823.447	0.904	-25.261	0.427	64.666	0.427	64.666	0.904	-25.261
830.905	0.902	-25.466	0.43	64.46	0.43	64.46	0.902	-25.466
838.364	0.901	-25.671	0.433	64.254	0.433	64.254	0.901	-25.671
845.822	0.899	-25.875	0.436	64.049	0.436	64.049	0.899	-25.875
853.28	0.898	-26.079	0.44	63.845	0.44	63.845	0.898	-26.079
860.738	0.896	-26.282	0.443	63.641	0.443	63.641	0.896	-26.282
868.197	0.894	-26.485	0.446	63.438	0.446	63.438	0.894	-26.485
875.655	0.893	-26.687	0.449	63.235	0.449	63.235	0.893	-26.687
883.113	0.891	-26.888	0.452	63.033	0.452	63.033	0.891	-26.888
890.571	0.89	-27.089	0.455	62.832	0.455	62.832	0.89	-27.089
898.029	0.888	-27.29	0.458	62.631	0.458	62.631	0.888	-27.29
905.488	0.886	-27.489	0.462	62.43	0.462	62.43	0.886	-27.489
912.946	0.885	-27.689	0.465	62.23	0.465	62.23	0.885	-27.689
920.404	0.883	-27.887	0.468	62.031	0.468	62.031	0.883	-27.887
927.862	0.882	-28.085	0.471	61.832	0.471	61.832	0.882	-28.085
935.321	0.88	-28.283	0.474	61.634	0.474	61.634	0.88	-28.283
942.779	0.878	-28.48	0.477	61.436	0.477	61.436	0.878	-28.48
950.237	0.877	-28.676	0.48	61.239	0.48	61.239	0.877	-28.676
957.695	0.875	-28.872	0.483	61.043	0.483	61.043	0.875	-28.872
965.153	0.873	-29.067	0.486	60.847	0.486	60.847	0.873	-29.067
972.612	0.872	-29.262	0.489	60.651	0.489	60.651	0.872	-29.262
980.07	0.87	-29.456	0.492	60.457	0.492	60.457	0.87	-29.456
987.528	0.868	-29.649	0.495	60.263	0.495	60.263	0.868	-29.649
994.986	0.867	-29.842	0.498	60.069	0.498	60.069	0.867	-29.842
1002.444	0.865	-30.035	0.501	59.876	0.501	59.876	0.865	-30.035
1009.903	0.863	-30.226	0.503	59.683	0.503	59.683	0.863	-30.226
1017.361	0.862	-30.418	0.506	59.492	0.506	59.492	0.862	-30.418
1024.819	0.86	-30.608	0.509	59.3	0.509	59.3	0.86	-30.608
1032.277	0.858	-30.798	0.512	59.109	0.512	59.109	0.858	-30.798
1039.736	0.856	-30.988	0.515	58.919	0.515	58.919	0.856	-30.988
1047.194	0.855	-31.177	0.518	58.73	0.518	58.73	0.855	-31.177
1054.652	0.853	-31.365	0.52	58.541	0.52	58.541	0.853	-31.365
1062.11	0.851	-31.553	0.523	58.352	0.523	58.352	0.851	-31.553
1069.568	0.85	-31.74	0.526	58.164	0.526	58.164	0.85	-31.74
1077.027	0.848	-31.926	0.529	57.977	0.529	57.977	0.848	-31.926
1084.485	0.846	-32.112	0.532	57.79	0.532	57.79	0.846	-32.112
1091.943	0.844	-32.298	0.534	57.604	0.534	57.604	0.844	-32.298
1099.401	0.843	-32.483	0.537	57.419	0.537	57.419	0.843	-32.483
1106.86	0.841	-32.667	0.54	57.234	0.54	57.234	0.841	-32.667
1114.318	0.839	-32.85	0.542	57.049	0.542	57.049	0.839	-32.85
1121.776	0.837	-33.034	0.545	56.866	0.545	56.866	0.837	-33.034
1129.234	0.836	-33.216	0.548	56.682	0.548	56.682	0.836	-33.216
1136.692	0.834	-33.398	0.55	56.5	0.55	56.5	0.834	-33.398
1144.151	0.832	-33.579	0.553	56.318	0.553	56.318	0.832	-33.579
1151.609	0.83	-33.76	0.556	56.136	0.556	56.136	0.83	-33.76
1159.067	0.829	-33.94	0.558	55.955	0.558	55.955	0.829	-33.94
1166.525	0.827	-34.12	0.561	55.775	0.561	55.775	0.827	-34.12
1173.984	0.825	-34.299	0.564	55.595	0.564	55.595	0.825	-34.299
1181.442	0.823	-34.477	0.566	55.416	0.566	55.416	0.823	-34.477
1188.9	0.822	-34.655	0.569	55.238	0.569	55.238	0.822	-34.655
1196.358	0.82	-34.833	0.571	55.059	0.571	55.059	0.82	-34.833
1203.816	0.818	-35.009	0.574	54.882	0.574	54.882	0.818	-35.009
1211.275	0.816	-35.186	0.576	54.705	0.576	54.705	0.816	-35.186
1218.733	0.814	-35.361	0.579	54.529	0.579	54.529	0.814	-35.361
1226.191	0.813	-35.536	0.581	54.353	0.581	54.353	0.813	-35.536
1233.649	0.811	-35.711	0.584	54.178	0.584	54.178	0.811	-35.711
1241.108	0.809	-35.884	0.586	54.003	0.586	54.003	0.809	-35.884
1248.566	0.807	-36.058	0.589	53.829	0.589	53.829	0.807	-36.058
1256.024	0.805	-36.23	0.591	53.656	0.591	53.656	0.805	-36.23
1263.482	0.804	-36.403	0.593	53.483	0.593	53.483	0.804	-36.403
1270.94	0.802	-36.574	0.596	53.311	0.596	53.311	0.802	-36.574
1278.399	0.8	-36.745	0.598	53.139	0.598	53.139	0.8	-36.745
1285.857	0.798	-36.916	0.601	52.968	0.601	52.968	0.798	-36.916
1293.315	0.797	-37.086	0.603	52.797	0.603	52.797	0.797	-37.086
1300.773	0.795	-37.255	0.605	52.627	0.605	52.627	0.795	-37.255
1308.231	0.793	-37.424	0.608	52.458	0.608	52.458	0.793	-37.424
1315.69	0.791	-37.592	0.61	52.289	0.61	52.289	0.791	-37.592
1323.148	0.789	-37.759	0.612	52.121	0.612	52.121	0.789	-37.759
1330.606	0.788	-37.926	0.615	51.953	0.615	51.953	0.788	-37.926
1338.064	0.786	-38.093	0.617	51.786	0.617	51.786	0.786	-38.093
1345.523	0.784	-38.259	0.619	51.619	0.619	51.619	0.784	-38.259
1352.981	0.782	-38.424	0.621	51.453	0.621	51.453	0.782	-38.424
1360.439	0.78	-38.589	0.624	51.287	0.624	51.287	0.78	-38.589
1367.897	0.778	-38.753	0.626	51.122	0.626	51.122	0.778	-38.753
1375.355	0.777	-38.917	0.628	50.958	0.628	50.958	0.777	-38.917
1382.814	0.775	-39.08	0.63	50.794	0.63	50.794	0.775	-39.08
1390.272	0.773	-39.243	0.633	50.631	0.633	50.631	0.773	-39.243
1397.73	0.771	-39.405	0.635	50.468	0.635	50.468	0.771	-39.405
1405.188	0.769	-39.566	0.637	50.306	0.637	50.306	0.769	-39.566
1412.647	0.768	-39.727	0.639	50.144	0.639	50.144	0.768	-39.727
1420.105	0.766	-39.887	0.641	49.983	0.641	49.983	0.766	-39.887
1427.563	0.764	-40.047	0.643	49.822	0.643	49.822	0.764	-40.047
1435.021	0.762	-40.207	0.646	49.662	0.646	49.662	0.762	-40.207
1442.479	0.76	-40.365	0.648	49.503	0.648	49.503	0.76	-40.365
1449.938	0.759	-40.524	0.65	49.344	0.65	49.344	0.759	-40.524
1457.396	0.757	-40.681	0.652	49.186	0.652	49.186	0.757	-40.681
1464.854	0.755	-40.838	0.654	49.028	0.654	49.028	0.755	-40.838
1472.312	0.753	-40.995	0.656	48.87	0.656	48.87	0.753	-40.995
1479.771	0.751	-41.151	0.658	48.714	0.658	48.714	0.751	-41.151
1487.229	0.75	-41.306	0.66	48.557	0.66	48.557	0.75	-41.306
1494.687	0.748	-41.461	0.662	48.402	0.662	48.402	0.748	-41.461
1502.145	0.746	-41.616	0.664	48.246	0.664	48.246	0.746	-41.616
1509.603	0.744	-41.77	0.666	48.092	0.666	48.092	0.744	-41.77
1517.062	0.742	-41.923	0.668	47.938	0.668	47.938	0.742	-41.923
1524.52	0.741	-42.076	0.67	47.784	0.67	47.784	0.741	-42.076
1531.978	0.739	-42.228	0.672	47.631	0.672	47.631	0.739	-42.228
1539.436	0.737	-42.38	0.674	47.479	0.674	47.479	0.737	-42.38
1546.894	0.735	-42.531	0.676	47.327	0.676	47.327	0.735	-42.531
1554.353	0.733	-42.682	0.678	47.175	0.678	47.175	0.733	-42.682
1561.811	0.732	-42.832	0.68	47.024	0.68	47.024	0.732	-42.832
1569.269	0.73	-42.982	0.682	46.874	0.682	46.874	0.73	-42.982
1576.727	0.728	-43.131	0.684	46.724	0.684	46.724	0.728	-43.131
1584.186	0.726	-43.279	0.686	46.574	0.686	46.574	0.726	-43.279
1591.644	0.724	-43.428	0.687	46.426	0.687	46.426	0.724	-43.428
1599.102	0.723	-43.575	0.689	46.277	0.689	46.277	0.723	-43.575
1606.56	0.721	-43.722	0.691	46.129	0.691	46.129	0.721	-43.722
1614.018	0.719	-43.869	0.693	45.982	0.693	45.982	0.719	-43.869
1621.477	0.717	-44.015	0.695	45.835	0.695	45.835	0.717	-44.015
1628.935	0.716	-44.16	0.697	45.689	0.697	45.689	0.716	-44.16
1636.393	0.714	-44.305	0.698	45.543	0.698	45.543	0.714	-44.305
1643.851	0.712	-44.45	0.7	45.398	0.7	45.398	0.712	-44.45
1651.31	0.71	-44.594	0.702	45.253	0.702	45.253	0.71	-44.594
1658.768	0.708	-44.738	0.704	45.109	0.704	45.109	0.708	-44.738
1666.226	0.707	-44.881	0.706	44.965	0.706	44.965	0.707	-44.881
1673.684	0.705	-45.023	0.707	44.822	0.707	44.822	0.705	-45.023
1681.142	0.703	-45.165	0.709	44.679	0.709	44.679	0.703	-45.165
1688.601	0.701	-45.307	0.711	44.536	0.711	44.536	0.701	-45.307
1696.059	0.7	-45.448	0.713	44.395	0.713	44.395	0.7	-45.448
1703.517	0.698	-45.588	0.714	44.253	0.714	44.253	0.698	-45.588
1710.975	0.696	-45.728	0.716	44.112	0.716	44.112	0.696	-45.728
1718.434	0.694	-45.868	0.718	43.972	0.718	43.972	0.694	-45.868
1725.892	0.693	-46.007	0.719	43.832	0.719	43.832	0.693	-46.007
1733.35	0.691	-46.146	0.721	43.693	0.721	43.693	0.691	-46.146
1740.808	0.689	-46.284	0.723	43.554	0.723	43.554	0.689	-46.284
1748.266	0.687	-46.421	0.724	43.415	0.724	43.415	0.687	-46.421
1755.725	0.686	-46.559	0.726	43.278	0.726	43.278	0.686	-46.559
1763.183	0.684	-46.695	0.728	43.14	0.728	43.14	0.684	-46.695
1770.641	0.682	-46.831	0.729	43.003	0.729	43.003	0.682	-46.831
1778.099	0.68	-46.967	0.731	42.867	0.731	42.867	0.68	-46.967
1785.557	0.679	-47.102	0.733	42.731	0.733	42.731	0.679	-47.102
1793.016	0.677	-47.237	0.734	42.595	0.734	42.595	0.677	-47.237
1800.474	0.675	-47.371	0.736	42.46	0.736	42.46	0.675	-47.371
1807.932	0.673	-47.505	0.737	42.325	0.737	42.325	0.673	-47.505
1815.39	0.672	-47.639	0.739	42.191	0.739	42.191	0.672	-47.639
1822.849	0.67	-47.772	0.74	42.057	0.74	42.057	0.67	-47.772
1830.307	0.668	-47.904	0.742	41.924	0.742	41.924	0.668	-47.904
1837.765	0.666	-48.036	0.744	41.791	0.744	41.791	0.666	-48.036
1845.223	0.665	-48.167	0.745	41.659	0.745	41.659	0.665	-48.167
1852.681	0.663	-48.299	0.747	41.527	0.747	41.527	0.663	-48.299
1860.14	0.661	-48.429	0.748	41.396	0.748	41.396	0.661	-48.429
1867.598	0.66	-48.559	0.75	41.265	0.75	41.265	0.66	-48.559
1875.056	0.658	-48.689	0.751	41.134	0.751	41.134	0.658	-48.689
1882.514	0.656	-48.818	0.753	41.004	0.753	41.004	0.656	-48.818
1889.973	0.654	-48.947	0.754	40.875	0.754	40.875	0.654	-48.947
1897.431	0.653	-49.075	0.756	40.745	0.756	40.745	0.653	-49.075
1904.889	0.651	-49.203	0.757	40.617	0.757	40.617	0.651	-49.203
1912.347	0.649	-49.331	0.758	40.489	0.758	40.489	0.649	-49.331
1919.805	0.648	-49.458	0.76	40.361	0.76	40.361	0.648	-49.458
1927.264	0.646	-49.584	0.761	40.233	0.761	40.233	0.646	-49.584
1934.722	0.644	-49.71	0.763	40.106	0.763	40.106	0.644	-49.71
1942.18	0.643	-49.836	0.764	39.98	0.764	39.98	0.643	-49.836
1949.638	0.641	-49.961	0.766	39.854	0.766	39.854	0.641	-49.961
1957.097	0.639	-50.086	0.767	39.728	0.767	39.728	0.639	-50.086
1964.555	0.637	-50.211	0.768	39.603	0.768	39.603	0.637	-50.211
1972.013	0.636	-50.335	0.77	39.478	0.77	39.478	0.636	-50.335
1979.471	0.634	-50.458	0.771	39.354	0.771	39.354	0.634	-50.458
1986.929	0.632	-50.581	0.773	39.23	0.773	39.23	0.632	-50.581
1994.388	0.631	-50.704	0.774	39.106	0.774	39.106	0.631	-50.704
2001.846	0.629	-50.826	0.775	38.983	0.775	38.983	0.629	-50.826
2009.304	0.627	-50.948	0.777	38.86	0.777	38.86	0.627	-50.948
2016.762	0.626	-51.069	0.778	38.738	0.778	38.738	0.626	-51.069
2024.221	0.624	-51.19	0.779	38.616	0.779	38.616	0.624	-51.19
2031.679	0.622	-51.311	0.781	38.495	0.781	38.495	0.622	-51.311
2039.137	0.621	-51.431	0.782	38.374	0.782	38.374	0.621	-51.431
2046.595	0.619	-51.551	0.783	38.253	0.783	38.253	0.619	-51.551
2054.053	0.617	-51.67	0.784	38.133	0.784	38.133	0.617	-51.67
2061.512	0.616	-51.789	0.786	38.013	0.786	38.013	0.616	-51.789
2068.97	0.614	-51.908	0.787	37.894	0.787	37.894	0.614	-51.908
2076.428	0.613	-52.026	0.788	37.775	0.788	37.775	0.613	-52.026
2083.886	0.611	-52.144	0.79	37.656	0.79	37.656	0.611	-52.144
2091.344	0.609	-52.261	0.791	37.538	0.791	37.538	0.609	-52.261
2098.803	0.608	-52.378	0.792	37.421	0.792	37.421	0.608	-52.378
2106.261	0.606	-52.494	0.793	37.303	0.793	37.303	0.606	-52.494
2113.719	0.604	-52.61	0.795	37.186	0.795	37.186	0.604	-52.61
2121.177	0.603	-52.726	0.796	37.07	0.796	37.07	0.603	-52.726
2128.636	0.601	-52.841	0.797	36.953	0.797	36.953	0.601	-52.841
2136.094	0.6	-52.956	0.798	36.838	0.798	36.838	0.6	-52.956
2143.552	0.598	-53.071	0.799	36.722	0.799	36.722	0.598	-53.071
2151.01	0.596	-53.185	0.801	36.607	0.801	36.607	0.596	-53.185
2158.468	0.595	-53.299	0.802	36.493	0.802	36.493	0.595	-53.299
2165.927	0.593	-53.412	0.803	36.378	0.803	36.378	0.593	-53.412
2173.385	0.592	-53.525	0.804	36.264	0.804	36.264	0.592	-53.525
2180.843	0.59	-53.638	0.805	36.151	0.805	36.151	0.59	-53.638
2188.301	0.588	-53.75	0.806	36.038	0.806	36.038	0.588	-53.75
2195.76	0.587	-53.862	0.808	35.925	0.808	35.925	0.587	-53.862
2203.218	0.585	-53.973	0.809	35.813	0.809	35.813	0.585	-53.973
2210.676	0.584	-54.084	0.81	35.701	0.81	35.701	0.584	-54.084
2218.134	0.582	-54.195	0.811	35.589	0.811	35.589	0.582	-54.195
2225.592	0.58	-54.305	0.812	35.478	0.812	35.478	0.58	-54.305
2233.051	0.579	-54.415	0.813	35.367	0.813	35.367	0.579	-54.415
2240.509	0.577	-54.525	0.814	35.257	0.814	35.257	0.577	-54.525
2247.967	0.576	-54.634	0.815	35.146	0.815	35.146	0.576	-54.634
2255.425	0.574	-54.743	0.817	35.037	0.817	35.037	0.574	-54.743
2262.884	0.573	-54.852	0.818	34.927	0.818	34.927	0.573	-54.852
2270.342	0.571	-54.96	0.819	34.818	0.819	34.818	0.571	-54.96
2277.8	0.569	-55.068	0.82	34.71	0.82	34.71	0.569	-55.068
2285.258	0.568	-55.175	0.821	34.601	0.821	34.601	0.568	-55.175
2292.716	0.566	-55.282	0.822	34.493	0.822	34.493	0.566	-55.282
2300.175	0.565	-55.389	0.823	34.386	0.823	34.386	0.565	-55.389
2307.633	0.563	-55.495	0.824	34.278	0.824	34.278	0.563	-55.495
2315.091	0.562	-55.601	0.825	34.172	0.825	34.172	0.562	-55.601
2322.549	0.56	-55.707	0.826	34.065	0.826	34.065	0.56	-55.707
2330.007	0.559	-55.812	0.827	33.959	0.827	33.959	0.559	-55.812
2337.466	0.557	-55.917	0.828	33.853	0.828	33.853	0.557	-55.917
2344.924	0.556	-56.022	0.829	33.747	0.829	33.747	0.556	-56.022
2352.382	0.554	-56.126	0.83	33.642	0.83	33.642	0.554	-56.126
2359.84	0.552	-56.23	0.831	33.537	0.831	33.537	0.552	-56.23
2367.299	0.551	-56.333	0.832	33.433	0.832	33.433	0.551	-56.333
2374.757	0.549	-56.437	0.833	33.329	0.833	33.329	0.549	-56.437
2382.215	0.548	-56.539	0.834	33.225	0.834	33.225	0.548	-56.539
2389.673	0.546	-56.642	0.835	33.121	0.835	33.121	0.546	-56.642
2397.131	0.545	-56.744	0.836	33.018	0.836	33.018	0.545	-56.744
2404.59	0.543	-56.846	0.837	32.916	0.837	32.916	0.543	-56.846
2412.048	0.542	-56.948	0.838	32.813	0.838	32.813	0.542	-56.948
2419.506	0.54	-57.049	0.839	32.711	0.839	32.711	0.54	-57.049
2426.964	0.539	-57.15	0.84	32.609	0.84	32.609	0.539	-57.15
2434.423	0.537	-57.25	0.841	32.508	0.841	32.508	0.537	-57.25
2441.881	0.536	-57.35	0.842	32.406	0.842	32.406	0.536	-57.35
2449.339	0.534	-57.45	0.843	32.306	0.843	32.306	0.534	-57.45
2456.797	0.533	-57.55	0.844	32.205	0.844	32.205	0.533	-57.55
2464.255	0.531	-57.649	0.845	32.105	0.845	32.105	0.531	-57.649
2471.714	0.53	-57.748	0.846	32.005	0.846	32.005	0.53	-57.748
2479.172	0.529	-57.847	0.847	31.905	0.847	31.905	0.529	-57.847
