! AVX Thin Film Operation		Date: April 2012 
! Description: Accu-P® Series, Thin Film, SMD, RF Capacitor
! Part Number: 08051J1R1PBTTR					
!	100	MHz	-	20.05	GHz			
!	Serial	Measurements						
!								
#	MHZ	S	MA	R	50			
!	S11	S21	S12	S22				
!	dB	Phase	dB	Phase	dB	Phase	dB	Phase
50 0.999 -1.979 0.035 87.954 0.035 87.954 0.999 -1.979
100 0.998 -3.955 0.069 85.969 0.069 85.969 0.998 -3.955
150 0.995 -5.922 0.103 83.992 0.103 83.992 0.995 -5.922
200 0.99 -7.879 0.137 82.027 0.137 82.027 0.99 -7.879
250 0.985 -9.82 0.171 80.076 0.171 80.076 0.985 -9.82
300 0.979 -11.743 0.204 78.143 0.204 78.143 0.979 -11.743
350 0.971 -13.645 0.236 76.232 0.236 76.232 0.971 -13.645
400 0.963 -15.522 0.268 74.345 0.268 74.345 0.963 -15.522
450 0.954 -17.373 0.299 72.485 0.299 72.485 0.954 -17.373
500 0.944 -19.194 0.329 70.654 0.329 70.654 0.944 -19.194
550 0.933 -20.984 0.358 68.855 0.358 68.855 0.933 -20.984
600 0.921 -22.74 0.387 67.088 0.387 67.088 0.921 -22.74
650 0.909 -24.462 0.414 65.357 0.414 65.357 0.909 -24.462
700 0.896 -26.147 0.441 63.661 0.441 63.661 0.896 -26.147
750 0.883 -27.796 0.466 62.002 0.466 62.002 0.883 -27.796
800 0.869 -29.407 0.491 60.381 0.491 60.381 0.869 -29.407
850 0.855 -30.979 0.515 58.798 0.515 58.798 0.855 -30.979
900 0.841 -32.514 0.538 57.254 0.538 57.254 0.841 -32.514
950 0.827 -34.009 0.559 55.748 0.559 55.748 0.827 -34.009
1000 0.812 -35.466 0.58 54.28 0.58 54.28 0.812 -35.466
1050 0.797 -36.885 0.6 52.851 0.6 52.851 0.797 -36.885
1100 0.782 -38.265 0.619 51.459 0.619 51.459 0.782 -38.265
1150 0.767 -39.609 0.638 50.105 0.638 50.105 0.767 -39.609
1200 0.752 -40.915 0.655 48.787 0.655 48.787 0.752 -40.915
1250 0.737 -42.186 0.672 47.506 0.672 47.506 0.737 -42.186
1300 0.722 -43.421 0.687 46.259 0.687 46.259 0.722 -43.421
1350 0.708 -44.621 0.702 45.047 0.702 45.047 0.708 -44.621
1400 0.693 -45.788 0.717 43.868 0.717 43.868 0.693 -45.788
1450 0.678 -46.922 0.73 42.722 0.73 42.722 0.678 -46.922
1500 0.664 -48.025 0.743 41.607 0.743 41.607 0.664 -48.025
1550 0.65 -49.096 0.756 40.524 0.756 40.524 0.65 -49.096
1600 0.636 -50.137 0.768 39.47 0.768 39.47 0.636 -50.137
1650 0.622 -51.15 0.779 38.444 0.779 38.444 0.622 -51.15
1700 0.608 -52.134 0.789 37.447 0.789 37.447 0.608 -52.134
1750 0.595 -53.091 0.8 36.476 0.8 36.476 0.595 -53.091
1800 0.581 -54.022 0.809 35.532 0.809 35.532 0.581 -54.022
1850 0.568 -54.928 0.818 34.612 0.818 34.612 0.568 -54.928
1900 0.555 -55.809 0.827 33.717 0.827 33.717 0.555 -55.809
1950 0.542 -56.666 0.836 32.845 0.836 32.845 0.542 -56.666
2000 0.53 -57.5 0.843 31.996 0.843 31.996 0.53 -57.5
2050 0.518 -58.313 0.851 31.168 0.851 31.168 0.518 -58.313
2100 0.505 -59.104 0.858 30.362 0.858 30.362 0.505 -59.104
2150 0.494 -59.875 0.865 29.575 0.865 29.575 0.494 -59.875
2200 0.482 -60.626 0.871 28.808 0.871 28.808 0.482 -60.626
2250 0.47 -61.358 0.878 28.059 0.878 28.059 0.47 -61.358
2300 0.459 -62.072 0.884 27.329 0.884 27.329 0.459 -62.072
2350 0.448 -62.767 0.889 26.615 0.889 26.615 0.448 -62.767
2400 0.437 -63.446 0.895 25.919 0.895 25.919 0.437 -63.446
2450 0.426 -64.108 0.9 25.238 0.9 25.238 0.426 -64.108
2500 0.416 -64.754 0.905 24.573 0.905 24.573 0.416 -64.754
2550 0.406 -65.385 0.909 23.923 0.909 23.923 0.406 -65.385
2600 0.395 -66 0.914 23.287 0.914 23.287 0.395 -66
2650 0.385 -66.602 0.918 22.665 0.918 22.665 0.385 -66.602
2700 0.376 -67.189 0.922 22.056 0.922 22.056 0.376 -67.189
2750 0.366 -67.763 0.926 21.461 0.926 21.461 0.366 -67.763
2800 0.356 -68.323 0.929 20.877 0.929 20.877 0.356 -68.323
2850 0.347 -68.871 0.933 20.306 0.933 20.306 0.347 -68.871
2900 0.338 -69.407 0.936 19.746 0.936 19.746 0.338 -69.407
2950 0.329 -69.931 0.939 19.197 0.939 19.197 0.329 -69.931
3000 0.32 -70.442 0.942 18.659 0.942 18.659 0.32 -70.442
3050 0.311 -70.943 0.945 18.131 0.945 18.131 0.311 -70.943
3100 0.303 -71.433 0.948 17.613 0.948 17.613 0.303 -71.433
3150 0.294 -71.912 0.951 17.105 0.951 17.105 0.294 -71.912
3200 0.286 -72.38 0.953 16.606 0.953 16.606 0.286 -72.38
3250 0.278 -72.838 0.956 16.116 0.956 16.116 0.278 -72.838
3300 0.27 -73.286 0.958 15.635 0.958 15.635 0.27 -73.286
3350 0.262 -73.725 0.96 15.163 0.96 15.163 0.262 -73.725
3400 0.254 -74.153 0.962 14.698 0.962 14.698 0.254 -74.153
3450 0.246 -74.572 0.964 14.241 0.964 14.241 0.246 -74.572
3500 0.238 -74.982 0.966 13.792 0.966 13.792 0.238 -74.982
3550 0.231 -75.382 0.968 13.35 0.968 13.35 0.231 -75.382
3600 0.224 -75.773 0.97 12.916 0.97 12.916 0.224 -75.773
3650 0.216 -76.156 0.971 12.488 0.971 12.488 0.216 -76.156
3700 0.209 -76.529 0.973 12.067 0.973 12.067 0.209 -76.529
3750 0.202 -76.892 0.974 11.653 0.974 11.653 0.202 -76.892
3800 0.195 -77.247 0.976 11.244 0.976 11.244 0.195 -77.247
3850 0.188 -77.593 0.977 10.842 0.977 10.842 0.188 -77.593
3900 0.181 -77.929 0.978 10.446 0.978 10.446 0.181 -77.929
3950 0.175 -78.256 0.979 10.056 0.979 10.056 0.175 -78.256
4000 0.168 -78.573 0.981 9.671 0.981 9.671 0.168 -78.573
4050 0.162 -78.88 0.982 9.291 0.982 9.291 0.162 -78.88
4100 0.155 -79.177 0.983 8.917 0.983 8.917 0.155 -79.177
4150 0.149 -79.463 0.984 8.547 0.984 8.547 0.149 -79.463
4200 0.142 -79.739 0.985 8.183 0.985 8.183 0.142 -79.739
4250 0.136 -80.002 0.986 7.823 0.986 7.823 0.136 -80.002
4300 0.13 -80.253 0.986 7.469 0.986 7.469 0.13 -80.253
4350 0.124 -80.491 0.987 7.118 0.987 7.118 0.124 -80.491
4400 0.118 -80.715 0.988 6.772 0.988 6.772 0.118 -80.715
4450 0.112 -80.922 0.989 6.431 0.989 6.431 0.112 -80.922
4500 0.106 -81.113 0.989 6.093 0.989 6.093 0.106 -81.113
4550 0.1 -81.284 0.99 5.76 0.99 5.76 0.1 -81.284
4600 0.095 -81.434 0.99 5.43 0.99 5.43 0.095 -81.434
4650 0.089 -81.56 0.991 5.105 0.991 5.105 0.089 -81.56
4700 0.084 -81.657 0.991 4.783 0.991 4.783 0.084 -81.657
4750 0.078 -81.722 0.992 4.464 0.992 4.464 0.078 -81.722
4800 0.073 -81.748 0.992 4.15 0.992 4.15 0.073 -81.748
4850 0.067 -81.727 0.993 3.838 0.993 3.838 0.067 -81.727
4900 0.062 -81.65 0.993 3.53 0.993 3.53 0.062 -81.65
4950 0.057 -81.501 0.993 3.226 0.993 3.226 0.057 -81.501
5000 0.051 -81.262 0.994 2.924 0.994 2.924 0.051 -81.262
5050 0.046 -80.905 0.994 2.626 0.994 2.626 0.046 -80.905
5100 0.041 -80.388 0.994 2.331 0.994 2.331 0.041 -80.388
5150 0.036 -79.65 0.994 2.039 0.994 2.039 0.036 -79.65
5200 0.031 -78.589 0.994 1.749 0.994 1.749 0.031 -78.589
5250 0.026 -77.029 0.994 1.463 0.994 1.463 0.026 -77.029
5300 0.021 -74.645 0.995 1.179 0.995 1.179 0.021 -74.645
5350 0.017 -70.755 0.995 0.898 0.995 0.898 0.017 -70.755
5400 0.012 -63.714 0.995 0.62 0.995 0.62 0.012 -63.714
5450 7.943e-3 -48.775 0.995 0.344 0.995 0.344 7.943e-3 -48.775
5500 5.344e-3 -13.314 0.995 0.071 0.995 0.071 5.344e-3 -13.314
5550 6.261e-3 33.661 0.995 -0.2 0.995 -0.2 6.261e-3 33.661
5600 9.685e-3 57.067 0.995 -0.468 0.995 -0.468 9.685e-3 57.067
5650 0.014 67.182 0.995 -0.734 0.995 -0.734 0.014 67.182
5700 0.018 72.381 0.995 -0.998 0.995 -0.998 0.018 72.381
5750 0.023 75.432 0.995 -1.259 0.995 -1.259 0.023 75.432
5800 0.027 77.383 0.994 -1.518 0.994 -1.518 0.027 77.383
5850 0.031 78.701 0.994 -1.775 0.994 -1.775 0.031 78.701
5900 0.036 79.624 0.994 -2.03 0.994 -2.03 0.036 79.624
5950 0.04 80.285 0.994 -2.283 0.994 -2.283 0.04 80.285
6000 0.045 80.763 0.994 -2.534 0.994 -2.534 0.045 80.763
6050 0.049 81.109 0.994 -2.782 0.994 -2.782 0.049 81.109
6100 0.053 81.357 0.993 -3.029 0.993 -3.029 0.053 81.357
6150 0.057 81.53 0.993 -3.274 0.993 -3.274 0.057 81.53
6200 0.062 81.645 0.993 -3.517 0.993 -3.517 0.062 81.645
6250 0.066 81.713 0.993 -3.758 0.993 -3.758 0.066 81.713
6300 0.07 81.744 0.992 -3.997 0.992 -3.997 0.07 81.744
6350 0.074 81.745 0.992 -4.235 0.992 -4.235 0.074 81.745
6400 0.078 81.721 0.992 -4.471 0.992 -4.471 0.078 81.721
6450 0.082 81.676 0.991 -4.705 0.991 -4.705 0.082 81.676
6500 0.086 81.614 0.991 -4.937 0.991 -4.937 0.086 81.614
6550 0.09 81.537 0.991 -5.168 0.991 -5.168 0.09 81.537
6600 0.094 81.448 0.99 -5.397 0.99 -5.397 0.094 81.448
6650 0.098 81.348 0.99 -5.624 0.99 -5.624 0.098 81.348
6700 0.102 81.24 0.99 -5.85 0.99 -5.85 0.102 81.24
6750 0.106 81.123 0.989 -6.075 0.989 -6.075 0.106 81.123
6800 0.11 80.999 0.989 -6.297 0.989 -6.297 0.11 80.999
6850 0.114 80.87 0.988 -6.519 0.988 -6.519 0.114 80.87
6900 0.117 80.736 0.988 -6.739 0.988 -6.739 0.117 80.736
6950 0.121 80.597 0.987 -6.957 0.987 -6.957 0.121 80.597
7000 0.125 80.454 0.987 -7.174 0.987 -7.174 0.125 80.454
7050 0.129 80.308 0.987 -7.39 0.987 -7.39 0.129 80.308
7100 0.132 80.158 0.986 -7.604 0.986 -7.604 0.132 80.158
7150 0.136 80.007 0.986 -7.817 0.986 -7.817 0.136 80.007
7200 0.14 79.853 0.985 -8.029 0.985 -8.029 0.14 79.853
7250 0.143 79.697 0.985 -8.239 0.985 -8.239 0.143 79.697
7300 0.147 79.539 0.984 -8.448 0.984 -8.448 0.147 79.539
7350 0.151 79.38 0.983 -8.656 0.983 -8.656 0.151 79.38
7400 0.154 79.219 0.983 -8.863 0.983 -8.863 0.154 79.219
7450 0.158 79.058 0.982 -9.068 0.982 -9.068 0.158 79.058
7500 0.161 78.895 0.982 -9.272 0.982 -9.272 0.161 78.895
7550 0.165 78.732 0.981 -9.475 0.981 -9.475 0.165 78.732
7600 0.168 78.568 0.981 -9.677 0.981 -9.677 0.168 78.568
7650 0.172 78.403 0.98 -9.878 0.98 -9.878 0.172 78.403
7700 0.175 78.238 0.979 -10.077 0.979 -10.077 0.175 78.238
7750 0.178 78.072 0.979 -10.275 0.979 -10.275 0.178 78.072
7800 0.182 77.907 0.978 -10.473 0.978 -10.473 0.182 77.907
7850 0.185 77.74 0.978 -10.669 0.978 -10.669 0.185 77.74
7900 0.189 77.574 0.977 -10.864 0.977 -10.864 0.189 77.574
7950 0.192 77.408 0.976 -11.058 0.976 -11.058 0.192 77.408
8000 0.195 77.242 0.976 -11.251 0.976 -11.251 0.195 77.242
8050 0.198 77.075 0.975 -11.443 0.975 -11.443 0.198 77.075
8100 0.202 76.909 0.974 -11.634 0.974 -11.634 0.202 76.909
8150 0.205 76.743 0.974 -11.824 0.974 -11.824 0.205 76.743
8200 0.208 76.577 0.973 -12.013 0.973 -12.013 0.208 76.577
8250 0.211 76.411 0.972 -12.201 0.972 -12.201 0.211 76.411
8300 0.215 76.245 0.972 -12.387 0.972 -12.387 0.215 76.245
8350 0.218 76.08 0.971 -12.574 0.971 -12.574 0.218 76.08
8400 0.221 75.914 0.97 -12.759 0.97 -12.759 0.221 75.914
8450 0.224 75.749 0.969 -12.943 0.969 -12.943 0.224 75.749
8500 0.227 75.585 0.969 -13.126 0.969 -13.126 0.227 75.585
8550 0.23 75.42 0.968 -13.308 0.968 -13.308 0.23 75.42
8600 0.233 75.256 0.967 -13.49 0.967 -13.49 0.233 75.256
8650 0.236 75.093 0.967 -13.67 0.967 -13.67 0.236 75.093
8700 0.239 74.929 0.966 -13.85 0.966 -13.85 0.239 74.929
8750 0.242 74.766 0.965 -14.029 0.965 -14.029 0.242 74.766
8800 0.245 74.604 0.964 -14.207 0.964 -14.207 0.245 74.604
8850 0.248 74.442 0.964 -14.384 0.964 -14.384 0.248 74.442
8900 0.251 74.28 0.963 -14.56 0.963 -14.56 0.251 74.28
8950 0.254 74.119 0.962 -14.735 0.962 -14.735 0.254 74.119
9000 0.257 73.958 0.961 -14.91 0.961 -14.91 0.257 73.958
9050 0.26 73.797 0.96 -15.084 0.96 -15.084 0.26 73.797
9100 0.263 73.637 0.96 -15.257 0.96 -15.257 0.263 73.637
9150 0.266 73.478 0.959 -15.429 0.959 -15.429 0.266 73.478
9200 0.269 73.319 0.958 -15.6 0.958 -15.6 0.269 73.319
9250 0.272 73.16 0.957 -15.771 0.957 -15.771 0.272 73.16
9300 0.275 73.002 0.956 -15.941 0.956 -15.941 0.275 73.002
9350 0.278 72.844 0.956 -16.11 0.956 -16.11 0.278 72.844
9400 0.28 72.687 0.955 -16.278 0.955 -16.278 0.28 72.687
9450 0.283 72.53 0.954 -16.446 0.954 -16.446 0.283 72.53
9500 0.286 72.374 0.953 -16.613 0.953 -16.613 0.286 72.374
9550 0.289 72.218 0.952 -16.779 0.952 -16.779 0.289 72.218
9600 0.291 72.063 0.952 -16.944 0.952 -16.944 0.291 72.063
9650 0.294 71.908 0.951 -17.109 0.951 -17.109 0.294 71.908
9700 0.297 71.754 0.95 -17.273 0.95 -17.273 0.297 71.754
9750 0.3 71.6 0.949 -17.436 0.949 -17.436 0.3 71.6
9800 0.302 71.446 0.948 -17.599 0.948 -17.599 0.302 71.446
9850 0.305 71.293 0.947 -17.761 0.947 -17.761 0.305 71.293
9900 0.308 71.141 0.946 -17.922 0.946 -17.922 0.308 71.141
9950 0.31 70.989 0.946 -18.082 0.946 -18.082 0.31 70.989
10000 0.313 70.838 0.945 -18.242 0.945 -18.242 0.313 70.838
10050 0.316 70.687 0.944 -18.401 0.944 -18.401 0.316 70.687
10100 0.318 70.536 0.943 -18.56 0.943 -18.56 0.318 70.536
10150 0.321 70.386 0.942 -18.718 0.942 -18.718 0.321 70.386
10200 0.324 70.237 0.941 -18.875 0.941 -18.875 0.324 70.237
10250 0.326 70.088 0.94 -19.032 0.94 -19.032 0.326 70.088
10300 0.329 69.939 0.939 -19.188 0.939 -19.188 0.329 69.939
10350 0.331 69.791 0.939 -19.343 0.939 -19.343 0.331 69.791
10400 0.334 69.644 0.938 -19.498 0.938 -19.498 0.334 69.644
10450 0.336 69.497 0.937 -19.652 0.937 -19.652 0.336 69.497
10500 0.339 69.35 0.936 -19.805 0.936 -19.805 0.339 69.35
10550 0.341 69.204 0.935 -19.958 0.935 -19.958 0.341 69.204
10600 0.344 69.058 0.934 -20.11 0.934 -20.11 0.344 69.058
10650 0.346 68.913 0.933 -20.262 0.933 -20.262 0.346 68.913
10700 0.349 68.768 0.932 -20.413 0.932 -20.413 0.349 68.768
10750 0.351 68.624 0.931 -20.563 0.931 -20.563 0.351 68.624
10800 0.354 68.481 0.93 -20.713 0.93 -20.713 0.354 68.481
10850 0.356 68.337 0.929 -20.863 0.929 -20.863 0.356 68.337
10900 0.359 68.195 0.929 -21.011 0.929 -21.011 0.359 68.195
10950 0.361 68.052 0.928 -21.159 0.928 -21.159 0.361 68.052
11000 0.363 67.91 0.927 -21.307 0.927 -21.307 0.363 67.91
11050 0.366 67.769 0.926 -21.454 0.926 -21.454 0.366 67.769
11100 0.368 67.628 0.925 -21.6 0.925 -21.6 0.368 67.628
11150 0.371 67.488 0.924 -21.746 0.924 -21.746 0.371 67.488
11200 0.373 67.348 0.923 -21.892 0.923 -21.892 0.373 67.348
11250 0.375 67.208 0.922 -22.036 0.922 -22.036 0.375 67.208
11300 0.378 67.069 0.921 -22.181 0.921 -22.181 0.378 67.069
11350 0.38 66.931 0.92 -22.324 0.92 -22.324 0.38 66.931
11400 0.382 66.792 0.919 -22.467 0.919 -22.467 0.382 66.792
11450 0.384 66.655 0.918 -22.61 0.918 -22.61 0.384 66.655
11500 0.387 66.518 0.917 -22.752 0.917 -22.752 0.387 66.518
11550 0.389 66.381 0.916 -22.894 0.916 -22.894 0.389 66.381
11600 0.391 66.244 0.915 -23.035 0.915 -23.035 0.391 66.244
11650 0.394 66.109 0.914 -23.175 0.914 -23.175 0.394 66.109
11700 0.396 65.973 0.913 -23.315 0.913 -23.315 0.396 65.973
11750 0.398 65.838 0.912 -23.455 0.912 -23.455 0.398 65.838
11800 0.4 65.704 0.911 -23.594 0.911 -23.594 0.4 65.704
11850 0.402 65.569 0.911 -23.732 0.911 -23.732 0.402 65.569
11900 0.405 65.436 0.91 -23.87 0.91 -23.87 0.405 65.436
11950 0.407 65.302 0.909 -24.008 0.909 -24.008 0.407 65.302
12000 0.409 65.17 0.908 -24.145 0.908 -24.145 0.409 65.17
12050 0.411 65.037 0.907 -24.281 0.907 -24.281 0.411 65.037
12100 0.413 64.905 0.906 -24.417 0.906 -24.417 0.413 64.905
12150 0.416 64.774 0.905 -24.553 0.905 -24.553 0.416 64.774
12200 0.418 64.643 0.904 -24.688 0.904 -24.688 0.418 64.643
12250 0.42 64.512 0.903 -24.822 0.903 -24.822 0.42 64.512
12300 0.422 64.382 0.902 -24.957 0.902 -24.957 0.422 64.382
12350 0.424 64.252 0.901 -25.09 0.901 -25.09 0.424 64.252
12400 0.426 64.122 0.9 -25.223 0.9 -25.223 0.426 64.122
12450 0.428 63.993 0.899 -25.356 0.899 -25.356 0.428 63.993
12500 0.43 63.865 0.898 -25.488 0.898 -25.488 0.43 63.865
12550 0.432 63.737 0.897 -25.62 0.897 -25.62 0.432 63.737
12600 0.434 63.609 0.896 -25.751 0.896 -25.751 0.434 63.609
12650 0.437 63.482 0.895 -25.882 0.895 -25.882 0.437 63.482
12700 0.439 63.355 0.894 -26.012 0.894 -26.012 0.439 63.355
12750 0.441 63.228 0.893 -26.142 0.893 -26.142 0.441 63.228
12800 0.443 63.102 0.892 -26.272 0.892 -26.272 0.443 63.102
12850 0.445 62.976 0.891 -26.401 0.891 -26.401 0.445 62.976
12900 0.447 62.851 0.89 -26.529 0.89 -26.529 0.447 62.851
12950 0.449 62.726 0.889 -26.658 0.889 -26.658 0.449 62.726
13000 0.451 62.602 0.888 -26.785 0.888 -26.785 0.451 62.602
13050 0.453 62.477 0.887 -26.913 0.887 -26.913 0.453 62.477
13100 0.455 62.354 0.886 -27.039 0.886 -27.039 0.455 62.354
13150 0.457 62.23 0.885 -27.166 0.885 -27.166 0.457 62.23
13200 0.459 62.108 0.884 -27.292 0.884 -27.292 0.459 62.108
13250 0.46 61.985 0.883 -27.417 0.883 -27.417 0.46 61.985
13300 0.462 61.863 0.882 -27.542 0.882 -27.542 0.462 61.863
13350 0.464 61.741 0.881 -27.667 0.881 -27.667 0.464 61.741
13400 0.466 61.62 0.88 -27.791 0.88 -27.791 0.466 61.62
13450 0.468 61.499 0.879 -27.915 0.879 -27.915 0.468 61.499
13500 0.47 61.378 0.878 -28.039 0.878 -28.039 0.47 61.378
13550 0.472 61.258 0.877 -28.162 0.877 -28.162 0.472 61.258
13600 0.474 61.138 0.876 -28.284 0.876 -28.284 0.474 61.138
13650 0.476 61.018 0.875 -28.407 0.875 -28.407 0.476 61.018
13700 0.478 60.899 0.874 -28.528 0.874 -28.528 0.478 60.899
13750 0.479 60.781 0.873 -28.65 0.873 -28.65 0.479 60.781
13800 0.481 60.662 0.872 -28.771 0.872 -28.771 0.481 60.662
13850 0.483 60.544 0.871 -28.891 0.871 -28.891 0.483 60.544
13900 0.485 60.427 0.87 -29.012 0.87 -29.012 0.485 60.427
13950 0.487 60.309 0.869 -29.131 0.869 -29.131 0.487 60.309
14000 0.489 60.193 0.868 -29.251 0.868 -29.251 0.489 60.193
14050 0.49 60.076 0.867 -29.37 0.867 -29.37 0.49 60.076
14100 0.492 59.96 0.866 -29.488 0.866 -29.488 0.492 59.96
14150 0.494 59.844 0.865 -29.607 0.865 -29.607 0.494 59.844
14200 0.496 59.729 0.864 -29.725 0.864 -29.725 0.496 59.729
14250 0.498 59.614 0.863 -29.842 0.863 -29.842 0.498 59.614
14300 0.499 59.499 0.862 -29.959 0.862 -29.959 0.499 59.499
14350 0.501 59.385 0.861 -30.076 0.861 -30.076 0.501 59.385
14400 0.503 59.271 0.86 -30.192 0.86 -30.192 0.503 59.271
14450 0.505 59.157 0.859 -30.308 0.859 -30.308 0.505 59.157
14500 0.506 59.044 0.858 -30.424 0.858 -30.424 0.506 59.044
14550 0.508 58.931 0.857 -30.539 0.857 -30.539 0.508 58.931
14600 0.51 58.818 0.856 -30.654 0.856 -30.654 0.51 58.818
14650 0.512 58.706 0.855 -30.768 0.855 -30.768 0.512 58.706
14700 0.513 58.594 0.854 -30.882 0.854 -30.882 0.513 58.594
14750 0.515 58.482 0.853 -30.996 0.853 -30.996 0.515 58.482
14800 0.517 58.371 0.851 -31.109 0.851 -31.109 0.517 58.371
14850 0.518 58.26 0.85 -31.222 0.85 -31.222 0.518 58.26
14900 0.52 58.15 0.849 -31.335 0.849 -31.335 0.52 58.15
14950 0.522 58.04 0.848 -31.447 0.848 -31.447 0.522 58.04
15000 0.523 57.93 0.847 -31.559 0.847 -31.559 0.523 57.93
15050 0.525 57.82 0.846 -31.671 0.846 -31.671 0.525 57.82
15100 0.527 57.711 0.845 -31.782 0.845 -31.782 0.527 57.711
15150 0.528 57.602 0.844 -31.893 0.844 -31.893 0.528 57.602
15200 0.53 57.494 0.843 -32.003 0.843 -32.003 0.53 57.494
15250 0.532 57.385 0.842 -32.113 0.842 -32.113 0.532 57.385
15300 0.533 57.278 0.841 -32.223 0.841 -32.223 0.533 57.278
15350 0.535 57.17 0.84 -32.332 0.84 -32.332 0.535 57.17
15400 0.536 57.063 0.839 -32.442 0.839 -32.442 0.536 57.063
15450 0.538 56.956 0.838 -32.55 0.838 -32.55 0.538 56.956
15500 0.54 56.849 0.837 -32.659 0.837 -32.659 0.54 56.849
15550 0.541 56.743 0.836 -32.767 0.836 -32.767 0.541 56.743
15600 0.543 56.637 0.835 -32.874 0.835 -32.874 0.543 56.637
15650 0.544 56.532 0.834 -32.982 0.834 -32.982 0.544 56.532
15700 0.546 56.427 0.833 -33.089 0.833 -33.089 0.546 56.427
15750 0.548 56.322 0.832 -33.196 0.832 -33.196 0.548 56.322
15800 0.549 56.217 0.831 -33.302 0.831 -33.302 0.549 56.217
15850 0.551 56.113 0.83 -33.408 0.83 -33.408 0.551 56.113
15900 0.552 56.009 0.829 -33.514 0.829 -33.514 0.552 56.009
15950 0.554 55.905 0.828 -33.619 0.828 -33.619 0.554 55.905
16000 0.555 55.802 0.827 -33.724 0.827 -33.724 0.555 55.802
16050 0.557 55.699 0.826 -33.829 0.826 -33.829 0.557 55.699
16100 0.558 55.596 0.825 -33.933 0.825 -33.933 0.558 55.596
16150 0.56 55.494 0.824 -34.038 0.824 -34.038 0.56 55.494
16200 0.561 55.391 0.823 -34.141 0.823 -34.141 0.561 55.391
16250 0.563 55.29 0.822 -34.245 0.822 -34.245 0.563 55.29
16300 0.564 55.188 0.821 -34.348 0.821 -34.348 0.564 55.188
16350 0.566 55.087 0.82 -34.451 0.82 -34.451 0.566 55.087
16400 0.567 54.986 0.819 -34.553 0.819 -34.553 0.567 54.986
16450 0.569 54.885 0.818 -34.655 0.818 -34.655 0.569 54.885
16500 0.57 54.785 0.817 -34.757 0.817 -34.757 0.57 54.785
16550 0.572 54.685 0.816 -34.859 0.816 -34.859 0.572 54.685
16600 0.573 54.585 0.815 -34.96 0.815 -34.96 0.573 54.585
16650 0.574 54.486 0.814 -35.061 0.814 -35.061 0.574 54.486
16700 0.576 54.387 0.813 -35.162 0.813 -35.162 0.576 54.387
16750 0.577 54.288 0.812 -35.262 0.812 -35.262 0.577 54.288
16800 0.579 54.19 0.811 -35.362 0.811 -35.362 0.579 54.19
16850 0.58 54.091 0.81 -35.462 0.81 -35.462 0.58 54.091
16900 0.582 53.993 0.809 -35.561 0.809 -35.561 0.582 53.993
16950 0.583 53.896 0.808 -35.66 0.808 -35.66 0.583 53.896
