! AVX Thin Film Operation		Date: April 2012 
! Description: Accu-P® Series, Thin Film, SMD, RF Capacitor
! Part Number: 08051J0R4PBTTR					
!	100	MHz	-	30.05	GHz			
!	Serial	Measurements						
!								
#	MHZ	S	MA	R	50			
!	S11	S21	S12	S22				
!	dB	Phase	dB	Phase	dB	Phase	dB	Phase
100	1	-1.44	0.025	88.556	0.025	88.556	1	-1.44
107.458	1	-1.547	0.027	88.448	0.027	88.448	1	-1.547
114.916	1	-1.655	0.029	88.341	0.029	88.341	1	-1.655
122.375	1	-1.762	0.031	88.233	0.031	88.233	1	-1.762
129.833	0.999	-1.869	0.033	88.125	0.033	88.125	0.999	-1.869
137.291	0.999	-1.977	0.034	88.018	0.034	88.018	0.999	-1.977
144.749	0.999	-2.084	0.036	87.91	0.036	87.91	0.999	-2.084
152.208	0.999	-2.191	0.038	87.803	0.038	87.803	0.999	-2.191
159.666	0.999	-2.298	0.04	87.695	0.04	87.695	0.999	-2.298
167.124	0.999	-2.406	0.042	87.587	0.042	87.587	0.999	-2.406
174.582	0.999	-2.513	0.044	87.48	0.044	87.48	0.999	-2.513
182.04	0.999	-2.62	0.046	87.372	0.046	87.372	0.999	-2.62
189.499	0.999	-2.728	0.048	87.265	0.048	87.265	0.999	-2.728
196.957	0.999	-2.835	0.049	87.157	0.049	87.157	0.999	-2.835
204.415	0.999	-2.942	0.051	87.05	0.051	87.05	0.999	-2.942
211.873	0.999	-3.049	0.053	86.942	0.053	86.942	0.999	-3.049
219.332	0.998	-3.157	0.055	86.835	0.055	86.835	0.998	-3.157
226.79	0.998	-3.264	0.057	86.727	0.057	86.727	0.998	-3.264
234.248	0.998	-3.371	0.059	86.62	0.059	86.62	0.998	-3.371
241.706	0.998	-3.478	0.061	86.512	0.061	86.512	0.998	-3.478
249.164	0.998	-3.585	0.063	86.405	0.063	86.405	0.998	-3.585
256.623	0.998	-3.692	0.064	86.297	0.064	86.297	0.998	-3.692
264.081	0.998	-3.8	0.066	86.19	0.066	86.19	0.998	-3.8
271.539	0.998	-3.907	0.068	86.082	0.068	86.082	0.998	-3.907
278.997	0.998	-4.014	0.07	85.975	0.07	85.975	0.998	-4.014
286.455	0.997	-4.121	0.072	85.868	0.072	85.868	0.997	-4.121
293.914	0.997	-4.228	0.074	85.76	0.074	85.76	0.997	-4.228
301.372	0.997	-4.335	0.076	85.653	0.076	85.653	0.997	-4.335
308.83	0.997	-4.442	0.077	85.545	0.077	85.545	0.997	-4.442
316.288	0.997	-4.549	0.079	85.438	0.079	85.438	0.997	-4.549
323.747	0.997	-4.656	0.081	85.331	0.081	85.331	0.997	-4.656
331.205	0.997	-4.763	0.083	85.224	0.083	85.224	0.997	-4.763
338.663	0.996	-4.87	0.085	85.116	0.085	85.116	0.996	-4.87
346.121	0.996	-4.977	0.087	85.009	0.087	85.009	0.996	-4.977
353.579	0.996	-5.084	0.089	84.902	0.089	84.902	0.996	-5.084
361.038	0.996	-5.191	0.09	84.795	0.09	84.795	0.996	-5.191
368.496	0.996	-5.298	0.092	84.687	0.092	84.687	0.996	-5.298
375.954	0.996	-5.404	0.094	84.58	0.094	84.58	0.996	-5.404
383.412	0.995	-5.511	0.096	84.473	0.096	84.473	0.995	-5.511
390.871	0.995	-5.618	0.098	84.366	0.098	84.366	0.995	-5.618
398.329	0.995	-5.725	0.1	84.259	0.1	84.259	0.995	-5.725
405.787	0.995	-5.832	0.102	84.152	0.102	84.152	0.995	-5.832
413.245	0.995	-5.938	0.103	84.045	0.103	84.045	0.995	-5.938
420.703	0.994	-6.045	0.105	83.938	0.105	83.938	0.994	-6.045
428.162	0.994	-6.152	0.107	83.831	0.107	83.831	0.994	-6.152
435.62	0.994	-6.258	0.109	83.724	0.109	83.724	0.994	-6.258
443.078	0.994	-6.365	0.111	83.617	0.111	83.617	0.994	-6.365
450.536	0.994	-6.472	0.113	83.51	0.113	83.51	0.994	-6.472
457.995	0.993	-6.578	0.115	83.403	0.115	83.403	0.993	-6.578
465.453	0.993	-6.685	0.116	83.296	0.116	83.296	0.993	-6.685
472.911	0.993	-6.791	0.118	83.189	0.118	83.189	0.993	-6.791
480.369	0.993	-6.898	0.12	83.083	0.12	83.083	0.993	-6.898
487.827	0.992	-7.004	0.122	82.976	0.122	82.976	0.992	-7.004
495.286	0.992	-7.111	0.124	82.869	0.124	82.869	0.992	-7.111
502.744	0.992	-7.217	0.126	82.762	0.126	82.762	0.992	-7.217
510.202	0.992	-7.324	0.127	82.656	0.127	82.656	0.992	-7.324
517.66	0.992	-7.43	0.129	82.549	0.129	82.549	0.992	-7.43
525.118	0.991	-7.536	0.131	82.442	0.131	82.442	0.991	-7.536
532.577	0.991	-7.643	0.133	82.336	0.133	82.336	0.991	-7.643
540.035	0.991	-7.749	0.135	82.229	0.135	82.229	0.991	-7.749
547.493	0.991	-7.855	0.137	82.123	0.137	82.123	0.991	-7.855
554.951	0.99	-7.961	0.139	82.016	0.139	82.016	0.99	-7.961
562.41	0.99	-8.068	0.14	81.91	0.14	81.91	0.99	-8.068
569.868	0.99	-8.174	0.142	81.803	0.142	81.803	0.99	-8.174
577.326	0.99	-8.28	0.144	81.697	0.144	81.697	0.99	-8.28
584.784	0.989	-8.386	0.146	81.59	0.146	81.59	0.989	-8.386
592.242	0.989	-8.492	0.148	81.484	0.148	81.484	0.989	-8.492
599.701	0.989	-8.598	0.15	81.378	0.15	81.378	0.989	-8.598
607.159	0.988	-8.704	0.151	81.271	0.151	81.271	0.988	-8.704
614.617	0.988	-8.81	0.153	81.165	0.153	81.165	0.988	-8.81
622.075	0.988	-8.916	0.155	81.059	0.155	81.059	0.988	-8.916
629.534	0.988	-9.022	0.157	80.953	0.157	80.953	0.988	-9.022
636.992	0.987	-9.128	0.159	80.846	0.159	80.846	0.987	-9.128
644.45	0.987	-9.234	0.16	80.74	0.16	80.74	0.987	-9.234
651.908	0.987	-9.339	0.162	80.634	0.162	80.634	0.987	-9.339
659.366	0.986	-9.445	0.164	80.528	0.164	80.528	0.986	-9.445
666.825	0.986	-9.551	0.166	80.422	0.166	80.422	0.986	-9.551
674.283	0.986	-9.656	0.168	80.316	0.168	80.316	0.986	-9.656
681.741	0.985	-9.762	0.17	80.21	0.17	80.21	0.985	-9.762
689.199	0.985	-9.868	0.171	80.104	0.171	80.104	0.985	-9.868
696.658	0.985	-9.973	0.173	79.999	0.173	79.999	0.985	-9.973
704.116	0.984	-10.079	0.175	79.893	0.175	79.893	0.984	-10.079
711.574	0.984	-10.184	0.177	79.787	0.177	79.787	0.984	-10.184
719.032	0.984	-10.29	0.179	79.681	0.179	79.681	0.984	-10.29
726.49	0.983	-10.395	0.18	79.576	0.18	79.576	0.983	-10.395
733.949	0.983	-10.5	0.182	79.47	0.182	79.47	0.983	-10.5
741.407	0.983	-10.606	0.184	79.364	0.184	79.364	0.983	-10.606
748.865	0.982	-10.711	0.186	79.259	0.186	79.259	0.982	-10.711
756.323	0.982	-10.816	0.188	79.153	0.188	79.153	0.982	-10.816
763.781	0.982	-10.921	0.189	79.048	0.189	79.048	0.982	-10.921
771.24	0.981	-11.026	0.191	78.942	0.191	78.942	0.981	-11.026
778.698	0.981	-11.132	0.193	78.837	0.193	78.837	0.981	-11.132
786.156	0.981	-11.237	0.195	78.731	0.195	78.731	0.981	-11.237
793.614	0.98	-11.342	0.197	78.626	0.197	78.626	0.98	-11.342
801.073	0.98	-11.447	0.198	78.521	0.198	78.521	0.98	-11.447
808.531	0.98	-11.551	0.2	78.416	0.2	78.416	0.98	-11.551
815.989	0.979	-11.656	0.202	78.31	0.202	78.31	0.979	-11.656
823.447	0.979	-11.761	0.204	78.205	0.204	78.205	0.979	-11.761
830.905	0.979	-11.866	0.206	78.1	0.206	78.1	0.979	-11.866
838.364	0.978	-11.971	0.207	77.995	0.207	77.995	0.978	-11.971
845.822	0.978	-12.075	0.209	77.89	0.209	77.89	0.978	-12.075
853.28	0.977	-12.18	0.211	77.785	0.211	77.785	0.977	-12.18
860.738	0.977	-12.285	0.213	77.68	0.213	77.68	0.977	-12.285
868.197	0.977	-12.389	0.215	77.576	0.215	77.576	0.977	-12.389
875.655	0.976	-12.494	0.216	77.471	0.216	77.471	0.976	-12.494
883.113	0.976	-12.598	0.218	77.366	0.218	77.366	0.976	-12.598
890.571	0.975	-12.703	0.22	77.261	0.22	77.261	0.975	-12.703
898.029	0.975	-12.807	0.222	77.157	0.222	77.157	0.975	-12.807
905.488	0.975	-12.911	0.223	77.052	0.223	77.052	0.975	-12.911
912.946	0.974	-13.015	0.225	76.947	0.225	76.947	0.974	-13.015
920.404	0.974	-13.12	0.227	76.843	0.227	76.843	0.974	-13.12
927.862	0.973	-13.224	0.229	76.738	0.229	76.738	0.973	-13.224
935.321	0.973	-13.328	0.231	76.634	0.231	76.634	0.973	-13.328
942.779	0.972	-13.432	0.232	76.53	0.232	76.53	0.972	-13.432
950.237	0.972	-13.536	0.234	76.425	0.234	76.425	0.972	-13.536
957.695	0.972	-13.64	0.236	76.321	0.236	76.321	0.972	-13.64
965.153	0.971	-13.744	0.238	76.217	0.238	76.217	0.971	-13.744
972.612	0.971	-13.848	0.239	76.113	0.239	76.113	0.971	-13.848
980.07	0.97	-13.952	0.241	76.009	0.241	76.009	0.97	-13.952
987.528	0.97	-14.055	0.243	75.904	0.243	75.904	0.97	-14.055
994.986	0.969	-14.159	0.245	75.8	0.245	75.8	0.969	-14.159
1002.444	0.969	-14.263	0.246	75.697	0.246	75.697	0.969	-14.263
1009.903	0.969	-14.366	0.248	75.593	0.248	75.593	0.969	-14.366
1017.361	0.968	-14.47	0.25	75.489	0.25	75.489	0.968	-14.47
1024.819	0.968	-14.573	0.252	75.385	0.252	75.385	0.968	-14.573
1032.277	0.967	-14.677	0.253	75.281	0.253	75.281	0.967	-14.677
1039.736	0.967	-14.78	0.255	75.178	0.255	75.178	0.967	-14.78
1047.194	0.966	-14.883	0.257	75.074	0.257	75.074	0.966	-14.883
1054.652	0.966	-14.987	0.259	74.97	0.259	74.97	0.966	-14.987
1062.11	0.965	-15.09	0.26	74.867	0.26	74.867	0.965	-15.09
1069.568	0.965	-15.193	0.262	74.764	0.262	74.764	0.965	-15.193
1077.027	0.964	-15.296	0.264	74.66	0.264	74.66	0.964	-15.296
1084.485	0.964	-15.399	0.266	74.557	0.266	74.557	0.964	-15.399
1091.943	0.963	-15.502	0.267	74.453	0.267	74.453	0.963	-15.502
1099.401	0.963	-15.605	0.269	74.35	0.269	74.35	0.963	-15.605
1106.86	0.962	-15.708	0.271	74.247	0.271	74.247	0.962	-15.708
1114.318	0.962	-15.81	0.272	74.144	0.272	74.144	0.962	-15.81
1121.776	0.961	-15.913	0.274	74.041	0.274	74.041	0.961	-15.913
1129.234	0.961	-16.016	0.276	73.938	0.276	73.938	0.961	-16.016
1136.692	0.96	-16.119	0.278	73.835	0.278	73.835	0.96	-16.119
1144.151	0.96	-16.221	0.279	73.732	0.279	73.732	0.96	-16.221
1151.609	0.959	-16.324	0.281	73.629	0.281	73.629	0.959	-16.324
1159.067	0.959	-16.426	0.283	73.527	0.283	73.527	0.959	-16.426
1166.525	0.958	-16.528	0.284	73.424	0.284	73.424	0.958	-16.528
1173.984	0.958	-16.631	0.286	73.321	0.286	73.321	0.958	-16.631
1181.442	0.957	-16.733	0.288	73.219	0.288	73.219	0.957	-16.733
1188.9	0.957	-16.835	0.29	73.116	0.29	73.116	0.957	-16.835
1196.358	0.956	-16.937	0.291	73.014	0.291	73.014	0.956	-16.937
1203.816	0.956	-17.039	0.293	72.911	0.293	72.911	0.956	-17.039
1211.275	0.955	-17.141	0.295	72.809	0.295	72.809	0.955	-17.141
1218.733	0.955	-17.243	0.296	72.707	0.296	72.707	0.955	-17.243
1226.191	0.954	-17.345	0.298	72.605	0.298	72.605	0.954	-17.345
1233.649	0.954	-17.447	0.3	72.503	0.3	72.503	0.954	-17.447
1241.108	0.953	-17.549	0.302	72.4	0.302	72.4	0.953	-17.549
1248.566	0.953	-17.65	0.303	72.298	0.303	72.298	0.953	-17.65
1256.024	0.952	-17.752	0.305	72.197	0.305	72.197	0.952	-17.752
1263.482	0.952	-17.854	0.307	72.095	0.307	72.095	0.952	-17.854
1270.94	0.951	-17.955	0.308	71.993	0.308	71.993	0.951	-17.955
1278.399	0.95	-18.056	0.31	71.891	0.31	71.891	0.95	-18.056
1285.857	0.95	-18.158	0.312	71.789	0.312	71.789	0.95	-18.158
1293.315	0.949	-18.259	0.313	71.688	0.313	71.688	0.949	-18.259
1300.773	0.949	-18.36	0.315	71.586	0.315	71.586	0.949	-18.36
1308.231	0.948	-18.462	0.317	71.485	0.317	71.485	0.948	-18.462
1315.69	0.948	-18.563	0.318	71.383	0.318	71.383	0.948	-18.563
1323.148	0.947	-18.664	0.32	71.282	0.32	71.282	0.947	-18.664
1330.606	0.947	-18.765	0.322	71.181	0.322	71.181	0.947	-18.765
1338.064	0.946	-18.866	0.323	71.08	0.323	71.08	0.946	-18.866
1345.523	0.945	-18.966	0.325	70.978	0.325	70.978	0.945	-18.966
1352.981	0.945	-19.067	0.327	70.877	0.327	70.877	0.945	-19.067
1360.439	0.944	-19.168	0.328	70.776	0.328	70.776	0.944	-19.168
1367.897	0.944	-19.268	0.33	70.675	0.33	70.675	0.944	-19.268
1375.355	0.943	-19.369	0.332	70.575	0.332	70.575	0.943	-19.369
1382.814	0.942	-19.469	0.333	70.474	0.333	70.474	0.942	-19.469
1390.272	0.942	-19.57	0.335	70.373	0.335	70.373	0.942	-19.57
1397.73	0.941	-19.67	0.337	70.272	0.337	70.272	0.941	-19.67
1405.188	0.941	-19.77	0.338	70.172	0.338	70.172	0.941	-19.77
1412.647	0.94	-19.871	0.34	70.071	0.34	70.071	0.94	-19.871
1420.105	0.94	-19.971	0.342	69.971	0.342	69.971	0.94	-19.971
1427.563	0.939	-20.071	0.343	69.87	0.343	69.87	0.939	-20.071
1435.021	0.938	-20.171	0.345	69.77	0.345	69.77	0.938	-20.171
1442.479	0.938	-20.271	0.346	69.67	0.346	69.67	0.938	-20.271
1449.938	0.937	-20.371	0.348	69.57	0.348	69.57	0.937	-20.371
1457.396	0.936	-20.47	0.35	69.47	0.35	69.47	0.936	-20.47
1464.854	0.936	-20.57	0.351	69.37	0.351	69.37	0.936	-20.57
1472.312	0.935	-20.67	0.353	69.27	0.353	69.27	0.935	-20.67
1479.771	0.935	-20.769	0.355	69.17	0.355	69.17	0.935	-20.769
1487.229	0.934	-20.869	0.356	69.07	0.356	69.07	0.934	-20.869
1494.687	0.933	-20.968	0.358	68.97	0.358	68.97	0.933	-20.968
1502.145	0.933	-21.068	0.359	68.87	0.359	68.87	0.933	-21.068
1509.603	0.932	-21.167	0.361	68.771	0.361	68.771	0.932	-21.167
1517.062	0.932	-21.266	0.363	68.671	0.363	68.671	0.932	-21.266
1524.52	0.931	-21.365	0.364	68.572	0.364	68.572	0.931	-21.365
1531.978	0.93	-21.464	0.366	68.473	0.366	68.473	0.93	-21.464
1539.436	0.93	-21.563	0.368	68.373	0.368	68.373	0.93	-21.563
1546.894	0.929	-21.662	0.369	68.274	0.369	68.274	0.929	-21.662
1554.353	0.928	-21.761	0.371	68.175	0.371	68.175	0.928	-21.761
1561.811	0.928	-21.86	0.372	68.076	0.372	68.076	0.928	-21.86
1569.269	0.927	-21.958	0.374	67.977	0.374	67.977	0.927	-21.958
1576.727	0.926	-22.057	0.376	67.878	0.376	67.878	0.926	-22.057
1584.186	0.926	-22.156	0.377	67.779	0.377	67.779	0.926	-22.156
1591.644	0.925	-22.254	0.379	67.68	0.379	67.68	0.925	-22.254
1599.102	0.924	-22.352	0.38	67.582	0.38	67.582	0.924	-22.352
1606.56	0.924	-22.451	0.382	67.483	0.382	67.483	0.924	-22.451
1614.018	0.923	-22.549	0.383	67.384	0.383	67.384	0.923	-22.549
1621.477	0.922	-22.647	0.385	67.286	0.385	67.286	0.922	-22.647
1628.935	0.922	-22.745	0.387	67.188	0.387	67.188	0.922	-22.745
1636.393	0.921	-22.843	0.388	67.089	0.388	67.089	0.921	-22.843
1643.851	0.92	-22.941	0.39	66.991	0.39	66.991	0.92	-22.941
1651.31	0.92	-23.039	0.391	66.893	0.391	66.893	0.92	-23.039
1658.768	0.919	-23.137	0.393	66.795	0.393	66.795	0.919	-23.137
1666.226	0.918	-23.234	0.394	66.697	0.394	66.697	0.918	-23.234
1673.684	0.918	-23.332	0.396	66.599	0.396	66.599	0.918	-23.332
1681.142	0.917	-23.429	0.398	66.501	0.398	66.501	0.917	-23.429
1688.601	0.916	-23.527	0.399	66.403	0.399	66.403	0.916	-23.527
1696.059	0.916	-23.624	0.401	66.305	0.401	66.305	0.916	-23.624
1703.517	0.915	-23.722	0.402	66.208	0.402	66.208	0.915	-23.722
1710.975	0.914	-23.819	0.404	66.11	0.404	66.11	0.914	-23.819
1718.434	0.914	-23.916	0.405	66.013	0.405	66.013	0.914	-23.916
1725.892	0.913	-24.013	0.407	65.915	0.407	65.915	0.913	-24.013
1733.35	0.912	-24.11	0.408	65.818	0.408	65.818	0.912	-24.11
1740.808	0.912	-24.207	0.41	65.721	0.41	65.721	0.912	-24.207
1748.266	0.911	-24.304	0.412	65.624	0.412	65.624	0.911	-24.304
1755.725	0.91	-24.4	0.413	65.527	0.413	65.527	0.91	-24.4
1763.183	0.909	-24.497	0.415	65.43	0.415	65.43	0.909	-24.497
1770.641	0.909	-24.594	0.416	65.333	0.416	65.333	0.909	-24.594
1778.099	0.908	-24.69	0.418	65.236	0.418	65.236	0.908	-24.69
1785.557	0.907	-24.787	0.419	65.139	0.419	65.139	0.907	-24.787
1793.016	0.907	-24.883	0.421	65.043	0.421	65.043	0.907	-24.883
1800.474	0.906	-24.979	0.422	64.946	0.422	64.946	0.906	-24.979
1807.932	0.905	-25.075	0.424	64.85	0.424	64.85	0.905	-25.075
1815.39	0.904	-25.171	0.425	64.753	0.425	64.753	0.904	-25.171
1822.849	0.904	-25.267	0.427	64.657	0.427	64.657	0.904	-25.267
1830.307	0.903	-25.363	0.428	64.561	0.428	64.561	0.903	-25.363
1837.765	0.902	-25.459	0.43	64.464	0.43	64.464	0.902	-25.459
1845.223	0.902	-25.555	0.431	64.368	0.431	64.368	0.902	-25.555
1852.681	0.901	-25.651	0.433	64.272	0.433	64.272	0.901	-25.651
1860.14	0.9	-25.746	0.434	64.176	0.434	64.176	0.9	-25.746
1867.598	0.899	-25.842	0.436	64.081	0.436	64.081	0.899	-25.842
1875.056	0.899	-25.937	0.437	63.985	0.437	63.985	0.899	-25.937
1882.514	0.898	-26.032	0.439	63.889	0.439	63.889	0.898	-26.032
1889.973	0.897	-26.128	0.44	63.793	0.44	63.793	0.897	-26.128
1897.431	0.896	-26.223	0.442	63.698	0.442	63.698	0.896	-26.223
1904.889	0.896	-26.318	0.443	63.603	0.443	63.603	0.896	-26.318
1912.347	0.895	-26.413	0.445	63.507	0.445	63.507	0.895	-26.413
1919.805	0.894	-26.508	0.446	63.412	0.446	63.412	0.894	-26.508
1927.264	0.894	-26.603	0.448	63.317	0.448	63.317	0.894	-26.603
1934.722	0.893	-26.698	0.449	63.222	0.449	63.222	0.893	-26.698
1942.18	0.892	-26.792	0.451	63.127	0.451	63.127	0.892	-26.792
1949.638	0.891	-26.887	0.452	63.032	0.452	63.032	0.891	-26.887
1957.097	0.891	-26.981	0.454	62.937	0.454	62.937	0.891	-26.981
1964.555	0.89	-27.076	0.455	62.842	0.455	62.842	0.89	-27.076
1972.013	0.889	-27.17	0.457	62.747	0.457	62.747	0.889	-27.17
1979.471	0.888	-27.264	0.458	62.653	0.458	62.653	0.888	-27.264
1986.929	0.887	-27.359	0.46	62.558	0.46	62.558	0.887	-27.359
1994.388	0.887	-27.453	0.461	62.464	0.461	62.464	0.887	-27.453
2001.846	0.886	-27.547	0.462	62.37	0.462	62.37	0.886	-27.547
2009.304	0.885	-27.641	0.464	62.275	0.464	62.275	0.885	-27.641
2016.762	0.884	-27.734	0.465	62.181	0.465	62.181	0.884	-27.734
2024.221	0.884	-27.828	0.467	62.087	0.467	62.087	0.884	-27.828
2031.679	0.883	-27.922	0.468	61.993	0.468	61.993	0.883	-27.922
2039.137	0.882	-28.015	0.47	61.899	0.47	61.899	0.882	-28.015
2046.595	0.881	-28.109	0.471	61.805	0.471	61.805	0.881	-28.109
2054.053	0.881	-28.202	0.473	61.712	0.473	61.712	0.881	-28.202
2061.512	0.88	-28.296	0.474	61.618	0.474	61.618	0.88	-28.296
2068.97	0.879	-28.389	0.475	61.524	0.475	61.524	0.879	-28.389
2076.428	0.878	-28.482	0.477	61.431	0.477	61.431	0.878	-28.482
2083.886	0.877	-28.575	0.478	61.338	0.478	61.338	0.877	-28.575
2091.344	0.877	-28.668	0.48	61.244	0.48	61.244	0.877	-28.668
2098.803	0.876	-28.761	0.481	61.151	0.481	61.151	0.876	-28.761
2106.261	0.875	-28.854	0.483	61.058	0.483	61.058	0.875	-28.854
2113.719	0.874	-28.946	0.484	60.965	0.484	60.965	0.874	-28.946
2121.177	0.874	-29.039	0.485	60.872	0.485	60.872	0.874	-29.039
2128.636	0.873	-29.131	0.487	60.779	0.487	60.779	0.873	-29.131
2136.094	0.872	-29.224	0.488	60.686	0.488	60.686	0.872	-29.224
2143.552	0.871	-29.316	0.49	60.594	0.49	60.594	0.871	-29.316
2151.01	0.87	-29.408	0.491	60.501	0.491	60.501	0.87	-29.408
2158.468	0.87	-29.501	0.492	60.408	0.492	60.408	0.87	-29.501
2165.927	0.869	-29.593	0.494	60.316	0.494	60.316	0.869	-29.593
2173.385	0.868	-29.685	0.495	60.224	0.495	60.224	0.868	-29.685
2180.843	0.867	-29.777	0.497	60.131	0.497	60.131	0.867	-29.777
2188.301	0.866	-29.868	0.498	60.039	0.498	60.039	0.866	-29.868
2195.76	0.866	-29.96	0.499	59.947	0.499	59.947	0.866	-29.96
2203.218	0.865	-30.052	0.501	59.855	0.501	59.855	0.865	-30.052
2210.676	0.864	-30.143	0.502	59.763	0.502	59.763	0.864	-30.143
2218.134	0.863	-30.235	0.504	59.671	0.504	59.671	0.863	-30.235
2225.592	0.862	-30.326	0.505	59.58	0.505	59.58	0.862	-30.326
2233.051	0.862	-30.418	0.506	59.488	0.506	59.488	0.862	-30.418
2240.509	0.861	-30.509	0.508	59.397	0.508	59.397	0.861	-30.509
2247.967	0.86	-30.6	0.509	59.305	0.509	59.305	0.86	-30.6
2255.425	0.859	-30.691	0.51	59.214	0.51	59.214	0.859	-30.691
2262.884	0.858	-30.782	0.512	59.122	0.512	59.122	0.858	-30.782
2270.342	0.857	-30.873	0.513	59.031	0.513	59.031	0.857	-30.873
2277.8	0.857	-30.963	0.514	58.94	0.514	58.94	0.857	-30.963
2285.258	0.856	-31.054	0.516	58.849	0.516	58.849	0.856	-31.054
2292.716	0.855	-31.145	0.517	58.758	0.517	58.758	0.855	-31.145
2300.175	0.854	-31.235	0.519	58.667	0.519	58.667	0.854	-31.235
2307.633	0.853	-31.326	0.52	58.577	0.52	58.577	0.853	-31.326
2315.091	0.853	-31.416	0.521	58.486	0.521	58.486	0.853	-31.416
2322.549	0.852	-31.506	0.523	58.395	0.523	58.395	0.852	-31.506
2330.007	0.851	-31.596	0.524	58.305	0.524	58.305	0.851	-31.596
2337.466	0.85	-31.686	0.525	58.214	0.525	58.214	0.85	-31.686
2344.924	0.849	-31.776	0.527	58.124	0.527	58.124	0.849	-31.776
2352.382	0.848	-31.866	0.528	58.034	0.528	58.034	0.848	-31.866
2359.84	0.848	-31.956	0.529	57.944	0.529	57.944	0.848	-31.956
2367.299	0.847	-32.046	0.531	57.854	0.531	57.854	0.847	-32.046
2374.757	0.846	-32.135	0.532	57.764	0.532	57.764	0.846	-32.135
2382.215	0.845	-32.225	0.533	57.674	0.533	57.674	0.845	-32.225
2389.673	0.844	-32.314	0.535	57.584	0.535	57.584	0.844	-32.314
2397.131	0.843	-32.403	0.536	57.495	0.536	57.495	0.843	-32.403
2404.59	0.843	-32.493	0.537	57.405	0.537	57.405	0.843	-32.493
2412.048	0.842	-32.582	0.539	57.316	0.539	57.316	0.842	-32.582
2419.506	0.841	-32.671	0.54	57.226	0.54	57.226	0.841	-32.671
2426.964	0.84	-32.76	0.541	57.137	0.541	57.137	0.84	-32.76
2434.423	0.839	-32.849	0.542	57.048	0.542	57.048	0.839	-32.849
2441.881	0.838	-32.937	0.544	56.958	0.544	56.958	0.838	-32.937
2449.339	0.837	-33.026	0.545	56.869	0.545	56.869	0.837	-33.026
2456.797	0.837	-33.115	0.546	56.78	0.546	56.78	0.837	-33.115
2464.255	0.836	-33.203	0.548	56.692	0.548	56.692	0.836	-33.203
2471.714	0.835	-33.292	0.549	56.603	0.549	56.603	0.835	-33.292
2479.172	0.834	-33.38	0.55	56.514	0.55	56.514	0.834	-33.38
2486.63	0.833	-33.468	0.551	56.426	0.551	56.426	0.833	-33.468
2494.088	0.832	-33.556	0.553	56.337	0.553	56.337	0.832	-33.556
2501.547	0.831	-33.644	0.554	56.249	0.554	56.249	0.831	-33.644
