! AVX Thin Film Operation		Date: April 2012 
! Description: Accu-P® Series, Thin Film, SMD, RF Capacitor
! Part Number: 08051J4R1ABTTR					
!	50	MHz	-	20.05	GHz			
!	Serial	Measurements						
!								
#	MHZ	S	MA	R	50			
!	S11	S21	S12	S22				
!	dB	Phase	dB	Phase	dB	Phase	dB	Phase
50 0.992 -7.341 0.128 82.587 0.128 82.587 0.992 -7.341
100 0.968 -14.457 0.25 75.455 0.25 75.455 0.968 -14.457
150 0.932 -21.167 0.361 68.73 0.361 68.73 0.932 -21.167
200 0.887 -27.348 0.459 62.533 0.459 62.533 0.887 -27.348
250 0.838 -32.944 0.544 56.922 0.544 56.922 0.838 -32.944
300 0.787 -37.949 0.615 51.901 0.615 51.901 0.787 -37.949
350 0.737 -42.395 0.674 47.439 0.674 47.439 0.737 -42.395
400 0.688 -46.33 0.723 43.487 0.723 43.487 0.688 -46.33
450 0.643 -49.812 0.764 39.988 0.764 39.988 0.643 -49.812
500 0.6 -52.897 0.798 36.885 0.798 36.885 0.6 -52.897
550 0.561 -55.639 0.826 34.126 0.826 34.126 0.561 -55.639
600 0.525 -58.084 0.849 31.663 0.849 31.663 0.525 -58.084
650 0.492 -60.273 0.868 29.456 0.868 29.456 0.492 -60.273
700 0.461 -62.242 0.885 27.468 0.885 27.468 0.461 -62.242
750 0.433 -64.02 0.899 25.67 0.899 25.67 0.433 -64.02
800 0.407 -65.633 0.911 24.037 0.911 24.037 0.407 -65.633
850 0.383 -67.103 0.921 22.546 0.921 22.546 0.383 -67.103
900 0.361 -68.447 0.93 21.181 0.93 21.181 0.361 -68.447
950 0.341 -69.68 0.938 19.925 0.938 19.925 0.341 -69.68
1000 0.322 -70.817 0.945 18.764 0.945 18.764 0.322 -70.817
1050 0.304 -71.868 0.95 17.689 0.95 17.689 0.304 -71.868
1100 0.287 -72.843 0.956 16.688 0.956 16.688 0.287 -72.843
1150 0.272 -73.75 0.96 15.755 0.96 15.755 0.272 -73.75
1200 0.257 -74.596 0.964 14.88 0.964 14.88 0.257 -74.596
1250 0.243 -75.388 0.968 14.06 0.968 14.06 0.243 -75.388
1300 0.23 -76.129 0.971 13.287 0.971 13.287 0.23 -76.129
1350 0.217 -76.826 0.974 12.557 0.974 12.557 0.217 -76.826
1400 0.206 -77.482 0.976 11.867 0.976 11.867 0.206 -77.482
1450 0.194 -78.1 0.979 11.211 0.979 11.211 0.194 -78.1
1500 0.184 -78.683 0.981 10.589 0.981 10.589 0.184 -78.683
1550 0.174 -79.235 0.982 9.995 0.982 9.995 0.174 -79.235
1600 0.164 -79.756 0.984 9.428 0.984 9.428 0.164 -79.756
1650 0.154 -80.249 0.986 8.886 0.986 8.886 0.154 -80.249
1700 0.146 -80.716 0.987 8.366 0.987 8.366 0.146 -80.716
1750 0.137 -81.158 0.988 7.868 0.988 7.868 0.137 -81.158
1800 0.129 -81.575 0.989 7.388 0.989 7.388 0.129 -81.575
1850 0.121 -81.969 0.99 6.926 0.99 6.926 0.121 -81.969
1900 0.113 -82.339 0.991 6.481 0.991 6.481 0.113 -82.339
1950 0.105 -82.686 0.992 6.05 0.992 6.05 0.105 -82.686
2000 0.098 -83.01 0.993 5.634 0.993 5.634 0.098 -83.01
2050 0.091 -83.309 0.994 5.231 0.994 5.231 0.091 -83.309
2100 0.084 -83.583 0.994 4.84 0.994 4.84 0.084 -83.583
2150 0.078 -83.829 0.995 4.461 0.995 4.461 0.078 -83.829
2200 0.071 -84.045 0.995 4.093 0.995 4.093 0.071 -84.045
2250 0.065 -84.225 0.996 3.734 0.996 3.734 0.065 -84.225
2300 0.059 -84.365 0.996 3.385 0.996 3.385 0.059 -84.365
2350 0.053 -84.455 0.996 3.045 0.996 3.045 0.053 -84.455
2400 0.047 -84.482 0.997 2.713 0.997 2.713 0.047 -84.482
2450 0.042 -84.427 0.997 2.389 0.997 2.389 0.042 -84.427
2500 0.036 -84.259 0.997 2.072 0.997 2.072 0.036 -84.259
2550 0.031 -83.927 0.997 1.762 0.997 1.762 0.031 -83.927
2600 0.026 -83.339 0.997 1.459 0.997 1.459 0.026 -83.339
2650 0.02 -82.318 0.997 1.162 0.997 1.162 0.02 -82.318
2700 0.015 -80.461 0.998 0.871 0.998 0.871 0.015 -80.461
2750 0.01 -76.639 0.998 0.586 0.998 0.586 0.01 -76.639
2800 5.815e-3 -66.205 0.998 0.306 0.998 0.306 5.815e-3 -66.205
2850 2.378e-3 -12.889 0.998 0.03 0.998 0.03 2.378e-3 -12.889
2900 4.785e-3 60.789 0.998 -0.24 0.998 -0.24 4.785e-3 60.789
2950 9.123e-3 74.778 0.998 -0.506 0.998 -0.506 9.123e-3 74.778
3000 0.014 79.41 0.998 -0.767 0.998 -0.767 0.014 79.41
3050 0.018 81.588 0.998 -1.024 0.998 -1.024 0.018 81.588
3100 0.022 82.787 0.997 -1.278 0.997 -1.278 0.022 82.787
3150 0.027 83.502 0.997 -1.527 0.997 -1.527 0.027 83.502
3200 0.031 83.942 0.997 -1.773 0.997 -1.773 0.031 83.942
3250 0.035 84.213 0.997 -2.015 0.997 -2.015 0.035 84.213
3300 0.039 84.372 0.997 -2.255 0.997 -2.255 0.039 84.372
3350 0.044 84.455 0.997 -2.491 0.997 -2.491 0.044 84.455
3400 0.048 84.482 0.997 -2.724 0.997 -2.724 0.048 84.482
3450 0.052 84.469 0.996 -2.954 0.996 -2.954 0.052 84.469
3500 0.056 84.425 0.996 -3.181 0.996 -3.181 0.056 84.425
3550 0.059 84.358 0.996 -3.406 0.996 -3.406 0.059 84.358
3600 0.063 84.272 0.996 -3.628 0.996 -3.628 0.063 84.272
3650 0.067 84.172 0.995 -3.847 0.995 -3.847 0.067 84.172
3700 0.071 84.06 0.995 -4.064 0.995 -4.064 0.071 84.06
3750 0.075 83.939 0.995 -4.279 0.995 -4.279 0.075 83.939
3800 0.078 83.81 0.995 -4.492 0.995 -4.492 0.078 83.81
3850 0.082 83.675 0.994 -4.702 0.994 -4.702 0.082 83.675
3900 0.086 83.535 0.994 -4.911 0.994 -4.911 0.086 83.535
3950 0.089 83.391 0.994 -5.117 0.994 -5.117 0.089 83.391
4000 0.093 83.243 0.993 -5.322 0.993 -5.322 0.093 83.243
4050 0.096 83.093 0.993 -5.525 0.993 -5.525 0.096 83.093
4100 0.1 82.94 0.993 -5.726 0.993 -5.726 0.1 82.94
4150 0.103 82.785 0.992 -5.925 0.992 -5.925 0.103 82.785
4200 0.107 82.629 0.992 -6.122 0.992 -6.122 0.107 82.629
4250 0.11 82.472 0.992 -6.318 0.992 -6.318 0.11 82.472
4300 0.113 82.313 0.991 -6.512 0.991 -6.512 0.113 82.313
4350 0.117 82.154 0.991 -6.705 0.991 -6.705 0.117 82.154
4400 0.12 81.994 0.99 -6.896 0.99 -6.896 0.12 81.994
4450 0.123 81.833 0.99 -7.086 0.99 -7.086 0.123 81.833
4500 0.127 81.672 0.99 -7.275 0.99 -7.275 0.127 81.672
4550 0.13 81.511 0.989 -7.462 0.989 -7.462 0.13 81.511
4600 0.133 81.35 0.989 -7.648 0.989 -7.648 0.133 81.35
4650 0.136 81.189 0.988 -7.832 0.988 -7.832 0.136 81.189
4700 0.139 81.028 0.988 -8.015 0.988 -8.015 0.139 81.028
4750 0.143 80.867 0.987 -8.197 0.987 -8.197 0.143 80.867
4800 0.146 80.706 0.987 -8.378 0.987 -8.378 0.146 80.706
4850 0.149 80.545 0.987 -8.558 0.987 -8.558 0.149 80.545
4900 0.152 80.384 0.986 -8.737 0.986 -8.737 0.152 80.384
4950 0.155 80.224 0.986 -8.914 0.986 -8.914 0.155 80.224
5000 0.158 80.064 0.985 -9.091 0.985 -9.091 0.158 80.064
5050 0.161 79.904 0.985 -9.266 0.985 -9.266 0.161 79.904
5100 0.164 79.745 0.984 -9.44 0.984 -9.44 0.164 79.745
5150 0.167 79.586 0.984 -9.614 0.984 -9.614 0.167 79.586
5200 0.17 79.427 0.983 -9.786 0.983 -9.786 0.17 79.427
5250 0.173 79.269 0.983 -9.958 0.983 -9.958 0.173 79.269
5300 0.176 79.111 0.982 -10.128 0.982 -10.128 0.176 79.111
5350 0.179 78.954 0.982 -10.298 0.982 -10.298 0.179 78.954
5400 0.182 78.797 0.981 -10.467 0.981 -10.467 0.182 78.797
5450 0.185 78.64 0.98 -10.635 0.98 -10.635 0.185 78.64
5500 0.187 78.484 0.98 -10.802 0.98 -10.802 0.187 78.484
5550 0.19 78.329 0.979 -10.968 0.979 -10.968 0.19 78.329
5600 0.193 78.173 0.979 -11.133 0.979 -11.133 0.193 78.173
5650 0.196 78.019 0.978 -11.298 0.978 -11.298 0.196 78.019
5700 0.199 77.864 0.978 -11.462 0.978 -11.462 0.199 77.864
5750 0.202 77.711 0.977 -11.625 0.977 -11.625 0.202 77.711
5800 0.204 77.557 0.977 -11.787 0.977 -11.787 0.204 77.557
5850 0.207 77.404 0.976 -11.949 0.976 -11.949 0.207 77.404
5900 0.21 77.252 0.975 -12.11 0.975 -12.11 0.21 77.252
5950 0.213 77.1 0.975 -12.27 0.975 -12.27 0.213 77.1
6000 0.215 76.948 0.974 -12.429 0.974 -12.429 0.215 76.948
6050 0.218 76.797 0.974 -12.588 0.974 -12.588 0.218 76.797
6100 0.221 76.646 0.973 -12.746 0.973 -12.746 0.221 76.646
6150 0.223 76.496 0.972 -12.903 0.972 -12.903 0.223 76.496
6200 0.226 76.346 0.972 -13.06 0.972 -13.06 0.226 76.346
6250 0.229 76.197 0.971 -13.216 0.971 -13.216 0.229 76.197
6300 0.231 76.048 0.971 -13.372 0.971 -13.372 0.231 76.048
6350 0.234 75.9 0.97 -13.527 0.97 -13.527 0.234 75.9
6400 0.237 75.752 0.969 -13.681 0.969 -13.681 0.237 75.752
6450 0.239 75.604 0.969 -13.835 0.969 -13.835 0.239 75.604
6500 0.242 75.457 0.968 -13.988 0.968 -13.988 0.242 75.457
6550 0.244 75.31 0.967 -14.14 0.967 -14.14 0.244 75.31
6600 0.247 75.164 0.967 -14.292 0.967 -14.292 0.247 75.164
6650 0.249 75.018 0.966 -14.444 0.966 -14.444 0.249 75.018
6700 0.252 74.873 0.965 -14.594 0.965 -14.594 0.252 74.873
6750 0.255 74.728 0.965 -14.745 0.965 -14.745 0.255 74.728
6800 0.257 74.583 0.964 -14.894 0.964 -14.894 0.257 74.583
6850 0.26 74.439 0.963 -15.044 0.963 -15.044 0.26 74.439
6900 0.262 74.295 0.963 -15.192 0.963 -15.192 0.262 74.295
6950 0.265 74.152 0.962 -15.34 0.962 -15.34 0.265 74.152
7000 0.267 74.009 0.961 -15.488 0.961 -15.488 0.267 74.009
7050 0.27 73.866 0.961 -15.635 0.961 -15.635 0.27 73.866
7100 0.272 73.724 0.96 -15.782 0.96 -15.782 0.272 73.724
7150 0.274 73.582 0.959 -15.928 0.959 -15.928 0.274 73.582
7200 0.277 73.441 0.959 -16.073 0.959 -16.073 0.277 73.441
7250 0.279 73.3 0.958 -16.218 0.958 -16.218 0.279 73.3
7300 0.282 73.16 0.957 -16.363 0.957 -16.363 0.282 73.16
7350 0.284 73.02 0.956 -16.507 0.956 -16.507 0.284 73.02
7400 0.287 72.88 0.956 -16.651 0.956 -16.651 0.287 72.88
7450 0.289 72.741 0.955 -16.794 0.955 -16.794 0.289 72.741
7500 0.291 72.602 0.954 -16.937 0.954 -16.937 0.291 72.602
7550 0.294 72.463 0.954 -17.079 0.954 -17.079 0.294 72.463
7600 0.296 72.325 0.953 -17.221 0.953 -17.221 0.296 72.325
7650 0.298 72.187 0.952 -17.362 0.952 -17.362 0.298 72.187
7700 0.301 72.05 0.951 -17.503 0.951 -17.503 0.301 72.05
7750 0.303 71.912 0.951 -17.644 0.951 -17.644 0.303 71.912
7800 0.305 71.776 0.95 -17.784 0.95 -17.784 0.305 71.776
7850 0.308 71.639 0.949 -17.923 0.949 -17.923 0.308 71.639
7900 0.31 71.503 0.948 -18.063 0.948 -18.063 0.31 71.503
7950 0.312 71.368 0.948 -18.201 0.948 -18.201 0.312 71.368
8000 0.315 71.233 0.947 -18.34 0.947 -18.34 0.315 71.233
8050 0.317 71.098 0.946 -18.478 0.946 -18.478 0.317 71.098
8100 0.319 70.963 0.945 -18.615 0.945 -18.615 0.319 70.963
8150 0.321 70.829 0.945 -18.752 0.945 -18.752 0.321 70.829
8200 0.324 70.695 0.944 -18.889 0.944 -18.889 0.324 70.695
8250 0.326 70.562 0.943 -19.025 0.943 -19.025 0.326 70.562
8300 0.328 70.429 0.942 -19.161 0.942 -19.161 0.328 70.429
8350 0.33 70.296 0.941 -19.297 0.941 -19.297 0.33 70.296
8400 0.333 70.164 0.941 -19.432 0.941 -19.432 0.333 70.164
8450 0.335 70.032 0.94 -19.567 0.94 -19.567 0.335 70.032
8500 0.337 69.9 0.939 -19.701 0.939 -19.701 0.337 69.9
8550 0.339 69.768 0.938 -19.835 0.938 -19.835 0.339 69.768
8600 0.342 69.637 0.938 -19.968 0.938 -19.968 0.342 69.637
8650 0.344 69.507 0.937 -20.102 0.937 -20.102 0.344 69.507
8700 0.346 69.376 0.936 -20.234 0.936 -20.234 0.346 69.376
8750 0.348 69.246 0.935 -20.367 0.935 -20.367 0.348 69.246
8800 0.35 69.117 0.934 -20.499 0.934 -20.499 0.35 69.117
8850 0.352 68.987 0.934 -20.631 0.934 -20.631 0.352 68.987
8900 0.354 68.858 0.933 -20.762 0.933 -20.762 0.354 68.858
8950 0.357 68.73 0.932 -20.893 0.932 -20.893 0.357 68.73
9000 0.359 68.601 0.931 -21.024 0.931 -21.024 0.359 68.601
9050 0.361 68.473 0.93 -21.154 0.93 -21.154 0.361 68.473
9100 0.363 68.346 0.929 -21.284 0.929 -21.284 0.363 68.346
9150 0.365 68.218 0.929 -21.413 0.929 -21.413 0.365 68.218
9200 0.367 68.091 0.928 -21.542 0.928 -21.542 0.367 68.091
9250 0.369 67.964 0.927 -21.671 0.927 -21.671 0.369 67.964
9300 0.371 67.838 0.926 -21.8 0.926 -21.8 0.371 67.838
9350 0.373 67.712 0.925 -21.928 0.925 -21.928 0.373 67.712
9400 0.376 67.586 0.924 -22.055 0.924 -22.055 0.376 67.586
9450 0.378 67.461 0.924 -22.183 0.924 -22.183 0.378 67.461
9500 0.38 67.336 0.923 -22.31 0.923 -22.31 0.38 67.336
9550 0.382 67.211 0.922 -22.437 0.922 -22.437 0.382 67.211
9600 0.384 67.086 0.921 -22.563 0.921 -22.563 0.384 67.086
9650 0.386 66.962 0.92 -22.689 0.92 -22.689 0.386 66.962
9700 0.388 66.838 0.919 -22.815 0.919 -22.815 0.388 66.838
9750 0.39 66.715 0.919 -22.94 0.919 -22.94 0.39 66.715
9800 0.392 66.591 0.918 -23.065 0.918 -23.065 0.392 66.591
9850 0.394 66.469 0.917 -23.19 0.917 -23.19 0.394 66.469
9900 0.396 66.346 0.916 -23.314 0.916 -23.314 0.396 66.346
9950 0.398 66.224 0.915 -23.438 0.915 -23.438 0.398 66.224
10000 0.4 66.102 0.914 -23.562 0.914 -23.562 0.4 66.102
10050 0.402 65.98 0.913 -23.686 0.913 -23.686 0.402 65.98
10100 0.404 65.858 0.913 -23.809 0.913 -23.809 0.404 65.858
10150 0.406 65.737 0.912 -23.931 0.912 -23.931 0.406 65.737
10200 0.408 65.617 0.911 -24.054 0.911 -24.054 0.408 65.617
10250 0.41 65.496 0.91 -24.176 0.91 -24.176 0.41 65.496
10300 0.411 65.376 0.909 -24.298 0.909 -24.298 0.411 65.376
10350 0.413 65.256 0.908 -24.419 0.908 -24.419 0.413 65.256
10400 0.415 65.136 0.907 -24.54 0.907 -24.54 0.415 65.136
10450 0.417 65.017 0.906 -24.661 0.906 -24.661 0.417 65.017
10500 0.419 64.898 0.906 -24.782 0.906 -24.782 0.419 64.898
10550 0.421 64.779 0.905 -24.902 0.905 -24.902 0.421 64.779
10600 0.423 64.661 0.904 -25.022 0.904 -25.022 0.423 64.661
10650 0.425 64.543 0.903 -25.141 0.903 -25.141 0.425 64.543
10700 0.427 64.425 0.902 -25.261 0.902 -25.261 0.427 64.425
10750 0.429 64.307 0.901 -25.38 0.901 -25.38 0.429 64.307
10800 0.43 64.19 0.9 -25.498 0.9 -25.498 0.43 64.19
10850 0.432 64.073 0.899 -25.617 0.899 -25.617 0.432 64.073
10900 0.434 63.956 0.898 -25.735 0.898 -25.735 0.434 63.956
10950 0.436 63.84 0.898 -25.853 0.898 -25.853 0.436 63.84
11000 0.438 63.724 0.897 -25.97 0.897 -25.97 0.438 63.724
11050 0.44 63.608 0.896 -26.087 0.896 -26.087 0.44 63.608
11100 0.442 63.492 0.895 -26.204 0.895 -26.204 0.442 63.492
11150 0.443 63.377 0.894 -26.321 0.894 -26.321 0.443 63.377
11200 0.445 63.262 0.893 -26.437 0.893 -26.437 0.445 63.262
11250 0.447 63.148 0.892 -26.553 0.892 -26.553 0.447 63.148
11300 0.449 63.033 0.891 -26.668 0.891 -26.668 0.449 63.033
11350 0.451 62.919 0.89 -26.784 0.89 -26.784 0.451 62.919
11400 0.452 62.805 0.889 -26.899 0.889 -26.899 0.452 62.805
11450 0.454 62.692 0.889 -27.014 0.889 -27.014 0.454 62.692
11500 0.456 62.578 0.888 -27.128 0.888 -27.128 0.456 62.578
11550 0.458 62.465 0.887 -27.242 0.887 -27.242 0.458 62.465
11600 0.46 62.353 0.886 -27.356 0.886 -27.356 0.46 62.353
11650 0.461 62.24 0.885 -27.47 0.885 -27.47 0.461 62.24
11700 0.463 62.128 0.884 -27.583 0.884 -27.583 0.463 62.128
11750 0.465 62.016 0.883 -27.696 0.883 -27.696 0.465 62.016
11800 0.467 61.905 0.882 -27.809 0.882 -27.809 0.467 61.905
11850 0.468 61.793 0.881 -27.921 0.881 -27.921 0.468 61.793
11900 0.47 61.682 0.88 -28.033 0.88 -28.033 0.47 61.682
11950 0.472 61.571 0.879 -28.145 0.879 -28.145 0.472 61.571
12000 0.473 61.461 0.879 -28.257 0.879 -28.257 0.473 61.461
12050 0.475 61.351 0.878 -28.368 0.878 -28.368 0.475 61.351
12100 0.477 61.241 0.877 -28.479 0.877 -28.479 0.477 61.241
12150 0.479 61.131 0.876 -28.59 0.876 -28.59 0.479 61.131
12200 0.48 61.022 0.875 -28.7 0.875 -28.7 0.48 61.022
12250 0.482 60.912 0.874 -28.811 0.874 -28.811 0.482 60.912
12300 0.484 60.804 0.873 -28.92 0.873 -28.92 0.484 60.804
12350 0.485 60.695 0.872 -29.03 0.872 -29.03 0.485 60.695
12400 0.487 60.587 0.871 -29.139 0.871 -29.139 0.487 60.587
12450 0.489 60.478 0.87 -29.249 0.87 -29.249 0.489 60.478
12500 0.49 60.371 0.869 -29.357 0.869 -29.357 0.49 60.371
12550 0.492 60.263 0.868 -29.466 0.868 -29.466 0.492 60.263
12600 0.494 60.156 0.867 -29.574 0.867 -29.574 0.494 60.156
12650 0.495 60.049 0.866 -29.682 0.866 -29.682 0.495 60.049
12700 0.497 59.942 0.866 -29.79 0.866 -29.79 0.497 59.942
12750 0.498 59.836 0.865 -29.897 0.865 -29.897 0.498 59.836
12800 0.5 59.729 0.864 -30.004 0.864 -30.004 0.5 59.729
12850 0.502 59.623 0.863 -30.111 0.863 -30.111 0.502 59.623
12900 0.503 59.518 0.862 -30.218 0.862 -30.218 0.503 59.518
12950 0.505 59.412 0.861 -30.324 0.861 -30.324 0.505 59.412
13000 0.506 59.307 0.86 -30.43 0.86 -30.43 0.506 59.307
13050 0.508 59.202 0.859 -30.536 0.859 -30.536 0.508 59.202
13100 0.51 59.098 0.858 -30.642 0.858 -30.642 0.51 59.098
13150 0.511 58.993 0.857 -30.747 0.857 -30.747 0.511 58.993
13200 0.513 58.889 0.856 -30.852 0.856 -30.852 0.513 58.889
13250 0.514 58.785 0.855 -30.957 0.855 -30.957 0.514 58.785
13300 0.516 58.681 0.854 -31.061 0.854 -31.061 0.516 58.681
13350 0.518 58.578 0.853 -31.165 0.853 -31.165 0.518 58.578
13400 0.519 58.475 0.852 -31.269 0.852 -31.269 0.519 58.475
13450 0.521 58.372 0.851 -31.373 0.851 -31.373 0.521 58.372
13500 0.522 58.27 0.851 -31.476 0.851 -31.476 0.522 58.27
13550 0.524 58.167 0.85 -31.58 0.85 -31.58 0.524 58.167
13600 0.525 58.065 0.849 -31.682 0.849 -31.682 0.525 58.065
13650 0.527 57.963 0.848 -31.785 0.848 -31.785 0.527 57.963
13700 0.528 57.862 0.847 -31.887 0.847 -31.887 0.528 57.862
13750 0.53 57.76 0.846 -31.99 0.846 -31.99 0.53 57.76
13800 0.531 57.659 0.845 -32.091 0.845 -32.091 0.531 57.659
13850 0.533 57.558 0.844 -32.193 0.844 -32.193 0.533 57.558
13900 0.534 57.458 0.843 -32.294 0.843 -32.294 0.534 57.458
13950 0.536 57.357 0.842 -32.396 0.842 -32.396 0.536 57.357
14000 0.537 57.257 0.841 -32.496 0.841 -32.496 0.537 57.257
14050 0.539 57.158 0.84 -32.597 0.84 -32.597 0.539 57.158
14100 0.54 57.058 0.839 -32.697 0.839 -32.697 0.54 57.058
14150 0.542 56.959 0.838 -32.797 0.838 -32.797 0.542 56.959
14200 0.543 56.86 0.837 -32.897 0.837 -32.897 0.543 56.86
14250 0.545 56.761 0.836 -32.997 0.836 -32.997 0.545 56.761
14300 0.546 56.662 0.835 -33.096 0.835 -33.096 0.546 56.662
14350 0.547 56.564 0.835 -33.195 0.835 -33.195 0.547 56.564
14400 0.549 56.466 0.834 -33.294 0.834 -33.294 0.549 56.466
14450 0.55 56.368 0.833 -33.393 0.833 -33.393 0.55 56.368
14500 0.552 56.27 0.832 -33.491 0.832 -33.491 0.552 56.27
14550 0.553 56.173 0.831 -33.589 0.831 -33.589 0.553 56.173
14600 0.555 56.076 0.83 -33.687 0.83 -33.687 0.555 56.076
14650 0.556 55.979 0.829 -33.784 0.829 -33.784 0.556 55.979
14700 0.557 55.882 0.828 -33.882 0.828 -33.882 0.557 55.882
14750 0.559 55.786 0.827 -33.979 0.827 -33.979 0.559 55.786
14800 0.56 55.689 0.826 -34.076 0.826 -34.076 0.56 55.689
14850 0.562 55.593 0.825 -34.172 0.825 -34.172 0.562 55.593
14900 0.563 55.498 0.824 -34.269 0.824 -34.269 0.563 55.498
14950 0.564 55.402 0.823 -34.365 0.823 -34.365 0.564 55.402
15000 0.566 55.307 0.822 -34.461 0.822 -34.461 0.566 55.307
15050 0.567 55.212 0.821 -34.556 0.821 -34.556 0.567 55.212
15100 0.569 55.117 0.82 -34.652 0.82 -34.652 0.569 55.117
15150 0.57 55.023 0.819 -34.747 0.819 -34.747 0.57 55.023
15200 0.571 54.929 0.818 -34.842 0.818 -34.842 0.571 54.929
15250 0.573 54.835 0.817 -34.936 0.817 -34.936 0.573 54.835
15300 0.574 54.741 0.817 -35.031 0.817 -35.031 0.574 54.741
15350 0.575 54.647 0.816 -35.125 0.816 -35.125 0.575 54.647
15400 0.577 54.554 0.815 -35.219 0.815 -35.219 0.577 54.554
15450 0.578 54.461 0.814 -35.312 0.814 -35.312 0.578 54.461
15500 0.579 54.368 0.813 -35.406 0.813 -35.406 0.579 54.368
15550 0.581 54.275 0.812 -35.499 0.812 -35.499 0.581 54.275
15600 0.582 54.183 0.811 -35.592 0.811 -35.592 0.582 54.183
15650 0.583 54.091 0.81 -35.685 0.81 -35.685 0.583 54.091
15700 0.585 53.999 0.809 -35.777 0.809 -35.777 0.585 53.999
15750 0.586 53.907 0.808 -35.87 0.808 -35.87 0.586 53.907
15800 0.587 53.816 0.807 -35.962 0.807 -35.962 0.587 53.816
15850 0.589 53.724 0.806 -36.054 0.806 -36.054 0.589 53.724
15900 0.59 53.633 0.805 -36.145 0.805 -36.145 0.59 53.633
15950 0.591 53.542 0.804 -36.237 0.804 -36.237 0.591 53.542
16000 0.592 53.452 0.803 -36.328 0.803 -36.328 0.592 53.452
16050 0.594 53.362 0.802 -36.419 0.802 -36.419 0.594 53.362
16100 0.595 53.271 0.801 -36.509 0.801 -36.509 0.595 53.271
16150 0.596 53.182 0.801 -36.6 0.801 -36.6 0.596 53.182
16200 0.597 53.092 0.8 -36.69 0.8 -36.69 0.597 53.092
16250 0.599 53.002 0.799 -36.78 0.799 -36.78 0.599 53.002
16300 0.6 52.913 0.798 -36.87 0.798 -36.87 0.6 52.913
16350 0.601 52.824 0.797 -36.959 0.797 -36.959 0.601 52.824
16400 0.602 52.735 0.796 -37.048 0.796 -37.048 0.602 52.735
16450 0.604 52.647 0.795 -37.138 0.795 -37.138 0.604 52.647
16500 0.605 52.559 0.794 -37.226 0.794 -37.226 0.605 52.559
16550 0.606 52.47 0.793 -37.315 0.793 -37.315 0.606 52.47
16600 0.607 52.383 0.792 -37.403 0.792 -37.403 0.607 52.383
16650 0.609 52.295 0.791 -37.492 0.791 -37.492 0.609 52.295
16700 0.61 52.207 0.79 -37.58 0.79 -37.58 0.61 52.207
16750 0.611 52.12 0.789 -37.667 0.789 -37.667 0.611 52.12
16800 0.612 52.033 0.788 -37.755 0.788 -37.755 0.612 52.033
16850 0.613 51.946 0.787 -37.842 0.787 -37.842 0.613 51.946
16900 0.615 51.86 0.787 -37.929 0.787 -37.929 0.615 51.86
16950 0.616 51.773 0.786 -38.016 0.786 -38.016 0.616 51.773
