! AVX Thin Film Operation		Date: April 2012 
! Description: Accu-P® Series, Thin Film, SMD, RF Capacitor
! Part Number: 08051J0R5PBTTR					
!	100	MHz	-	30.05	GHz			
!	Serial	Measurements						
!								
#	MHZ	S	MA	R	50			
!	S11	S21	S12	S22				
!	dB	Phase	dB	Phase	dB	Phase	dB	Phase
100	1	-1.8	0.031	88.195	0.031	88.195	1	-1.8
107.458	0.999	-1.934	0.034	88.061	0.034	88.061	0.999	-1.934
114.916	0.999	-2.068	0.036	87.926	0.036	87.926	0.999	-2.068
122.375	0.999	-2.202	0.038	87.792	0.038	87.792	0.999	-2.202
129.833	0.999	-2.336	0.041	87.657	0.041	87.657	0.999	-2.336
137.291	0.999	-2.47	0.043	87.523	0.043	87.523	0.999	-2.47
144.749	0.999	-2.604	0.045	87.388	0.045	87.388	0.999	-2.604
152.208	0.999	-2.738	0.048	87.254	0.048	87.254	0.999	-2.738
159.666	0.999	-2.872	0.05	87.12	0.05	87.12	0.999	-2.872
167.124	0.999	-3.006	0.052	86.985	0.052	86.985	0.999	-3.006
174.582	0.998	-3.14	0.055	86.851	0.055	86.851	0.998	-3.14
182.04	0.998	-3.274	0.057	86.716	0.057	86.716	0.998	-3.274
189.499	0.998	-3.408	0.059	86.582	0.059	86.582	0.998	-3.408
196.957	0.998	-3.542	0.062	86.448	0.062	86.448	0.998	-3.542
204.415	0.998	-3.676	0.064	86.314	0.064	86.314	0.998	-3.676
211.873	0.998	-3.81	0.066	86.179	0.066	86.179	0.998	-3.81
219.332	0.998	-3.944	0.069	86.045	0.069	86.045	0.998	-3.944
226.79	0.997	-4.078	0.071	85.911	0.071	85.911	0.997	-4.078
234.248	0.997	-4.211	0.073	85.777	0.073	85.777	0.997	-4.211
241.706	0.997	-4.345	0.076	85.643	0.076	85.643	0.997	-4.345
249.164	0.997	-4.479	0.078	85.508	0.078	85.508	0.997	-4.479
256.623	0.997	-4.613	0.08	85.374	0.08	85.374	0.997	-4.613
264.081	0.997	-4.746	0.083	85.24	0.083	85.24	0.997	-4.746
271.539	0.996	-4.88	0.085	85.106	0.085	85.106	0.996	-4.88
278.997	0.996	-5.013	0.087	84.972	0.087	84.972	0.996	-5.013
286.455	0.996	-5.147	0.09	84.839	0.09	84.839	0.996	-5.147
293.914	0.996	-5.28	0.092	84.705	0.092	84.705	0.996	-5.28
301.372	0.996	-5.414	0.094	84.571	0.094	84.571	0.996	-5.414
308.83	0.995	-5.547	0.097	84.437	0.097	84.437	0.995	-5.547
316.288	0.995	-5.681	0.099	84.303	0.099	84.303	0.995	-5.681
323.747	0.995	-5.814	0.101	84.169	0.101	84.169	0.995	-5.814
331.205	0.995	-5.947	0.104	84.036	0.104	84.036	0.995	-5.947
338.663	0.994	-6.081	0.106	83.902	0.106	83.902	0.994	-6.081
346.121	0.994	-6.214	0.108	83.769	0.108	83.769	0.994	-6.214
353.579	0.994	-6.347	0.111	83.635	0.111	83.635	0.994	-6.347
361.038	0.994	-6.48	0.113	83.501	0.113	83.501	0.994	-6.48
368.496	0.993	-6.613	0.115	83.368	0.115	83.368	0.993	-6.613
375.954	0.993	-6.746	0.117	83.235	0.117	83.235	0.993	-6.746
383.412	0.993	-6.879	0.12	83.101	0.12	83.101	0.993	-6.879
390.871	0.992	-7.012	0.122	82.968	0.122	82.968	0.992	-7.012
398.329	0.992	-7.145	0.124	82.835	0.124	82.835	0.992	-7.145
405.787	0.992	-7.278	0.127	82.701	0.127	82.701	0.992	-7.278
413.245	0.992	-7.411	0.129	82.568	0.129	82.568	0.992	-7.411
420.703	0.991	-7.544	0.131	82.435	0.131	82.435	0.991	-7.544
428.162	0.991	-7.676	0.134	82.302	0.134	82.302	0.991	-7.676
435.62	0.991	-7.809	0.136	82.169	0.136	82.169	0.991	-7.809
443.078	0.99	-7.941	0.138	82.036	0.138	82.036	0.99	-7.941
450.536	0.99	-8.074	0.14	81.903	0.14	81.903	0.99	-8.074
457.995	0.99	-8.206	0.143	81.77	0.143	81.77	0.99	-8.206
465.453	0.989	-8.339	0.145	81.638	0.145	81.638	0.989	-8.339
472.911	0.989	-8.471	0.147	81.505	0.147	81.505	0.989	-8.471
480.369	0.989	-8.603	0.15	81.372	0.15	81.372	0.989	-8.603
487.827	0.988	-8.736	0.152	81.24	0.152	81.24	0.988	-8.736
495.286	0.988	-8.868	0.154	81.107	0.154	81.107	0.988	-8.868
502.744	0.988	-9	0.156	80.975	0.156	80.975	0.988	-9
510.202	0.987	-9.132	0.159	80.842	0.159	80.842	0.987	-9.132
517.66	0.987	-9.264	0.161	80.71	0.161	80.71	0.987	-9.264
525.118	0.987	-9.396	0.163	80.578	0.163	80.578	0.987	-9.396
532.577	0.986	-9.528	0.166	80.445	0.166	80.445	0.986	-9.528
540.035	0.986	-9.659	0.168	80.313	0.168	80.313	0.986	-9.659
547.493	0.985	-9.791	0.17	80.181	0.17	80.181	0.985	-9.791
554.951	0.985	-9.923	0.172	80.049	0.172	80.049	0.985	-9.923
562.41	0.985	-10.054	0.175	79.917	0.175	79.917	0.985	-10.054
569.868	0.984	-10.186	0.177	79.785	0.177	79.785	0.984	-10.186
577.326	0.984	-10.317	0.179	79.654	0.179	79.654	0.984	-10.317
584.784	0.983	-10.448	0.181	79.522	0.181	79.522	0.983	-10.448
592.242	0.983	-10.58	0.184	79.39	0.184	79.39	0.983	-10.58
599.701	0.982	-10.711	0.186	79.259	0.186	79.259	0.982	-10.711
607.159	0.982	-10.842	0.188	79.127	0.188	79.127	0.982	-10.842
614.617	0.982	-10.973	0.19	78.996	0.19	78.996	0.982	-10.973
622.075	0.981	-11.104	0.193	78.864	0.193	78.864	0.981	-11.104
629.534	0.981	-11.235	0.195	78.733	0.195	78.733	0.981	-11.235
636.992	0.98	-11.366	0.197	78.602	0.197	78.602	0.98	-11.366
644.45	0.98	-11.497	0.199	78.471	0.199	78.471	0.98	-11.497
651.908	0.979	-11.627	0.202	78.34	0.202	78.34	0.979	-11.627
659.366	0.979	-11.758	0.204	78.209	0.204	78.209	0.979	-11.758
666.825	0.978	-11.888	0.206	78.078	0.206	78.078	0.978	-11.888
674.283	0.978	-12.019	0.208	77.947	0.208	77.947	0.978	-12.019
681.741	0.977	-12.149	0.21	77.816	0.21	77.816	0.977	-12.149
689.199	0.977	-12.279	0.213	77.686	0.213	77.686	0.977	-12.279
696.658	0.977	-12.409	0.215	77.555	0.215	77.555	0.977	-12.409
704.116	0.976	-12.539	0.217	77.425	0.217	77.425	0.976	-12.539
711.574	0.976	-12.669	0.219	77.294	0.219	77.294	0.976	-12.669
719.032	0.975	-12.799	0.222	77.164	0.222	77.164	0.975	-12.799
726.49	0.975	-12.929	0.224	77.034	0.224	77.034	0.975	-12.929
733.949	0.974	-13.059	0.226	76.904	0.226	76.904	0.974	-13.059
741.407	0.973	-13.189	0.228	76.774	0.228	76.774	0.973	-13.189
748.865	0.973	-13.318	0.23	76.644	0.23	76.644	0.973	-13.318
756.323	0.972	-13.448	0.233	76.514	0.233	76.514	0.972	-13.448
763.781	0.972	-13.577	0.235	76.384	0.235	76.384	0.972	-13.577
771.24	0.971	-13.706	0.237	76.255	0.237	76.255	0.971	-13.706
778.698	0.971	-13.835	0.239	76.125	0.239	76.125	0.971	-13.835
786.156	0.97	-13.964	0.241	75.996	0.241	75.996	0.97	-13.964
793.614	0.97	-14.093	0.244	75.866	0.244	75.866	0.97	-14.093
801.073	0.969	-14.222	0.246	75.737	0.246	75.737	0.969	-14.222
808.531	0.969	-14.351	0.248	75.608	0.248	75.608	0.969	-14.351
815.989	0.968	-14.48	0.25	75.479	0.25	75.479	0.968	-14.48
823.447	0.967	-14.608	0.252	75.35	0.252	75.35	0.967	-14.608
830.905	0.967	-14.737	0.254	75.221	0.254	75.221	0.967	-14.737
838.364	0.966	-14.865	0.257	75.092	0.257	75.092	0.966	-14.865
845.822	0.966	-14.994	0.259	74.963	0.259	74.963	0.966	-14.994
853.28	0.965	-15.122	0.261	74.835	0.261	74.835	0.965	-15.122
860.738	0.965	-15.25	0.263	74.706	0.263	74.706	0.965	-15.25
868.197	0.964	-15.378	0.265	74.578	0.265	74.578	0.964	-15.378
875.655	0.963	-15.506	0.267	74.45	0.267	74.45	0.963	-15.506
883.113	0.963	-15.634	0.269	74.321	0.269	74.321	0.963	-15.634
890.571	0.962	-15.761	0.272	74.193	0.272	74.193	0.962	-15.761
898.029	0.962	-15.889	0.274	74.065	0.274	74.065	0.962	-15.889
905.488	0.961	-16.016	0.276	73.937	0.276	73.937	0.961	-16.016
912.946	0.96	-16.144	0.278	73.81	0.278	73.81	0.96	-16.144
920.404	0.96	-16.271	0.28	73.682	0.28	73.682	0.96	-16.271
927.862	0.959	-16.398	0.282	73.554	0.282	73.554	0.959	-16.398
935.321	0.958	-16.525	0.284	73.427	0.284	73.427	0.958	-16.525
942.779	0.958	-16.652	0.287	73.3	0.287	73.3	0.958	-16.652
950.237	0.957	-16.779	0.289	73.172	0.289	73.172	0.957	-16.779
957.695	0.957	-16.906	0.291	73.045	0.291	73.045	0.957	-16.906
965.153	0.956	-17.033	0.293	72.918	0.293	72.918	0.956	-17.033
972.612	0.955	-17.159	0.295	72.791	0.295	72.791	0.955	-17.159
980.07	0.955	-17.285	0.297	72.665	0.297	72.665	0.955	-17.285
987.528	0.954	-17.412	0.299	72.538	0.299	72.538	0.954	-17.412
994.986	0.953	-17.538	0.301	72.411	0.301	72.411	0.953	-17.538
1002.444	0.953	-17.664	0.303	72.285	0.303	72.285	0.953	-17.664
1009.903	0.952	-17.79	0.306	72.159	0.306	72.159	0.952	-17.79
1017.361	0.951	-17.916	0.308	72.032	0.308	72.032	0.951	-17.916
1024.819	0.951	-18.041	0.31	71.906	0.31	71.906	0.951	-18.041
1032.277	0.95	-18.167	0.312	71.78	0.312	71.78	0.95	-18.167
1039.736	0.949	-18.293	0.314	71.654	0.314	71.654	0.949	-18.293
1047.194	0.948	-18.418	0.316	71.529	0.316	71.529	0.948	-18.418
1054.652	0.948	-18.543	0.318	71.403	0.318	71.403	0.948	-18.543
1062.11	0.947	-18.668	0.32	71.277	0.32	71.277	0.947	-18.668
1069.568	0.946	-18.793	0.322	71.152	0.322	71.152	0.946	-18.793
1077.027	0.946	-18.918	0.324	71.027	0.324	71.027	0.946	-18.918
1084.485	0.945	-19.043	0.326	70.902	0.326	70.902	0.945	-19.043
1091.943	0.944	-19.168	0.328	70.777	0.328	70.777	0.944	-19.168
1099.401	0.944	-19.292	0.33	70.652	0.33	70.652	0.944	-19.292
1106.86	0.943	-19.417	0.332	70.527	0.332	70.527	0.943	-19.417
1114.318	0.942	-19.541	0.334	70.402	0.334	70.402	0.942	-19.541
1121.776	0.941	-19.665	0.337	70.278	0.337	70.278	0.941	-19.665
1129.234	0.941	-19.789	0.339	70.153	0.339	70.153	0.941	-19.789
1136.692	0.94	-19.913	0.341	70.029	0.341	70.029	0.94	-19.913
1144.151	0.939	-20.037	0.343	69.905	0.343	69.905	0.939	-20.037
1151.609	0.938	-20.16	0.345	69.781	0.345	69.781	0.938	-20.16
1159.067	0.938	-20.284	0.347	69.657	0.347	69.657	0.938	-20.284
1166.525	0.937	-20.407	0.349	69.533	0.349	69.533	0.937	-20.407
1173.984	0.936	-20.531	0.351	69.409	0.351	69.409	0.936	-20.531
1181.442	0.935	-20.654	0.353	69.286	0.353	69.286	0.935	-20.654
1188.9	0.935	-20.777	0.355	69.162	0.355	69.162	0.935	-20.777
1196.358	0.934	-20.9	0.357	69.039	0.357	69.039	0.934	-20.9
1203.816	0.933	-21.023	0.359	68.916	0.359	68.916	0.933	-21.023
1211.275	0.932	-21.145	0.361	68.793	0.361	68.793	0.932	-21.145
1218.733	0.931	-21.268	0.363	68.67	0.363	68.67	0.931	-21.268
1226.191	0.931	-21.39	0.365	68.547	0.365	68.547	0.931	-21.39
1233.649	0.93	-21.512	0.367	68.424	0.367	68.424	0.93	-21.512
1241.108	0.929	-21.635	0.369	68.302	0.369	68.302	0.929	-21.635
1248.566	0.928	-21.757	0.371	68.179	0.371	68.179	0.928	-21.757
1256.024	0.928	-21.878	0.373	68.057	0.373	68.057	0.928	-21.878
1263.482	0.927	-22	0.375	67.935	0.375	67.935	0.927	-22
1270.94	0.926	-22.122	0.377	67.813	0.377	67.813	0.926	-22.122
1278.399	0.925	-22.243	0.379	67.691	0.379	67.691	0.925	-22.243
1285.857	0.924	-22.365	0.38	67.569	0.38	67.569	0.924	-22.365
1293.315	0.924	-22.486	0.382	67.448	0.382	67.448	0.924	-22.486
1300.773	0.923	-22.607	0.384	67.326	0.384	67.326	0.923	-22.607
1308.231	0.922	-22.728	0.386	67.205	0.386	67.205	0.922	-22.728
1315.69	0.921	-22.849	0.388	67.084	0.388	67.084	0.921	-22.849
1323.148	0.92	-22.969	0.39	66.963	0.39	66.963	0.92	-22.969
1330.606	0.919	-23.09	0.392	66.842	0.392	66.842	0.919	-23.09
1338.064	0.919	-23.21	0.394	66.721	0.394	66.721	0.919	-23.21
1345.523	0.918	-23.33	0.396	66.6	0.396	66.6	0.918	-23.33
1352.981	0.917	-23.451	0.398	66.48	0.398	66.48	0.917	-23.451
1360.439	0.916	-23.571	0.4	66.359	0.4	66.359	0.916	-23.571
1367.897	0.915	-23.69	0.402	66.239	0.402	66.239	0.915	-23.69
1375.355	0.914	-23.81	0.404	66.119	0.404	66.119	0.914	-23.81
1382.814	0.914	-23.93	0.406	65.999	0.406	65.999	0.914	-23.93
1390.272	0.913	-24.049	0.408	65.879	0.408	65.879	0.913	-24.049
1397.73	0.912	-24.168	0.409	65.76	0.409	65.76	0.912	-24.168
1405.188	0.911	-24.287	0.411	65.64	0.411	65.64	0.911	-24.287
1412.647	0.91	-24.406	0.413	65.521	0.413	65.521	0.91	-24.406
1420.105	0.909	-24.525	0.415	65.401	0.415	65.401	0.909	-24.525
1427.563	0.908	-24.644	0.417	65.282	0.417	65.282	0.908	-24.644
1435.021	0.908	-24.763	0.419	65.163	0.419	65.163	0.908	-24.763
1442.479	0.907	-24.881	0.421	65.044	0.421	65.044	0.907	-24.881
1449.938	0.906	-24.999	0.423	64.926	0.423	64.926	0.906	-24.999
1457.396	0.905	-25.117	0.424	64.807	0.424	64.807	0.905	-25.117
1464.854	0.904	-25.235	0.426	64.689	0.426	64.689	0.904	-25.235
1472.312	0.903	-25.353	0.428	64.571	0.428	64.571	0.903	-25.353
1479.771	0.902	-25.471	0.43	64.452	0.43	64.452	0.902	-25.471
1487.229	0.901	-25.589	0.432	64.334	0.432	64.334	0.901	-25.589
1494.687	0.9	-25.706	0.434	64.217	0.434	64.217	0.9	-25.706
1502.145	0.9	-25.823	0.436	64.099	0.436	64.099	0.9	-25.823
1509.603	0.899	-25.941	0.437	63.981	0.437	63.981	0.899	-25.941
1517.062	0.898	-26.058	0.439	63.864	0.439	63.864	0.898	-26.058
1524.52	0.897	-26.174	0.441	63.747	0.441	63.747	0.897	-26.174
1531.978	0.896	-26.291	0.443	63.63	0.443	63.63	0.896	-26.291
1539.436	0.895	-26.408	0.445	63.513	0.445	63.513	0.895	-26.408
1546.894	0.894	-26.524	0.447	63.396	0.447	63.396	0.894	-26.524
1554.353	0.893	-26.64	0.448	63.279	0.448	63.279	0.893	-26.64
1561.811	0.892	-26.756	0.45	63.163	0.45	63.163	0.892	-26.756
1569.269	0.891	-26.872	0.452	63.046	0.452	63.046	0.891	-26.872
1576.727	0.89	-26.988	0.454	62.93	0.454	62.93	0.89	-26.988
1584.186	0.89	-27.104	0.456	62.814	0.456	62.814	0.89	-27.104
1591.644	0.889	-27.219	0.457	62.698	0.457	62.698	0.889	-27.219
1599.102	0.888	-27.335	0.459	62.582	0.459	62.582	0.888	-27.335
1606.56	0.887	-27.45	0.461	62.466	0.461	62.466	0.887	-27.45
1614.018	0.886	-27.565	0.463	62.351	0.463	62.351	0.886	-27.565
1621.477	0.885	-27.68	0.465	62.236	0.465	62.236	0.885	-27.68
1628.935	0.884	-27.795	0.466	62.12	0.466	62.12	0.884	-27.795
1636.393	0.883	-27.91	0.468	62.005	0.468	62.005	0.883	-27.91
1643.851	0.882	-28.024	0.47	61.89	0.47	61.89	0.882	-28.024
1651.31	0.881	-28.138	0.472	61.776	0.472	61.776	0.881	-28.138
1658.768	0.88	-28.253	0.473	61.661	0.473	61.661	0.88	-28.253
1666.226	0.879	-28.367	0.475	61.547	0.475	61.547	0.879	-28.367
1673.684	0.878	-28.48	0.477	61.432	0.477	61.432	0.878	-28.48
1681.142	0.877	-28.594	0.479	61.318	0.479	61.318	0.877	-28.594
1688.601	0.876	-28.708	0.48	61.204	0.48	61.204	0.876	-28.708
1696.059	0.875	-28.821	0.482	61.09	0.482	61.09	0.875	-28.821
1703.517	0.874	-28.935	0.484	60.977	0.484	60.977	0.874	-28.935
1710.975	0.873	-29.048	0.486	60.863	0.486	60.863	0.873	-29.048
1718.434	0.872	-29.161	0.487	60.75	0.487	60.75	0.872	-29.161
1725.892	0.872	-29.273	0.489	60.636	0.489	60.636	0.872	-29.273
1733.35	0.871	-29.386	0.491	60.523	0.491	60.523	0.871	-29.386
1740.808	0.87	-29.499	0.492	60.41	0.492	60.41	0.87	-29.499
1748.266	0.869	-29.611	0.494	60.298	0.494	60.298	0.869	-29.611
1755.725	0.868	-29.723	0.496	60.185	0.496	60.185	0.868	-29.723
1763.183	0.867	-29.835	0.498	60.072	0.498	60.072	0.867	-29.835
1770.641	0.866	-29.947	0.499	59.96	0.499	59.96	0.866	-29.947
1778.099	0.865	-30.059	0.501	59.848	0.501	59.848	0.865	-30.059
1785.557	0.864	-30.171	0.503	59.736	0.503	59.736	0.864	-30.171
1793.016	0.863	-30.282	0.504	59.624	0.504	59.624	0.863	-30.282
1800.474	0.862	-30.393	0.506	59.512	0.506	59.512	0.862	-30.393
1807.932	0.861	-30.505	0.508	59.401	0.508	59.401	0.861	-30.505
1815.39	0.86	-30.616	0.509	59.289	0.509	59.289	0.86	-30.616
1822.849	0.859	-30.726	0.511	59.178	0.511	59.178	0.859	-30.726
1830.307	0.858	-30.837	0.513	59.067	0.513	59.067	0.858	-30.837
1837.765	0.857	-30.948	0.514	58.956	0.514	58.956	0.857	-30.948
1845.223	0.856	-31.058	0.516	58.845	0.516	58.845	0.856	-31.058
1852.681	0.855	-31.168	0.518	58.735	0.518	58.735	0.855	-31.168
1860.14	0.854	-31.278	0.519	58.624	0.519	58.624	0.854	-31.278
1867.598	0.853	-31.388	0.521	58.514	0.521	58.514	0.853	-31.388
1875.056	0.852	-31.498	0.522	58.404	0.522	58.404	0.852	-31.498
1882.514	0.851	-31.608	0.524	58.294	0.524	58.294	0.851	-31.608
1889.973	0.85	-31.717	0.526	58.184	0.526	58.184	0.85	-31.717
1897.431	0.849	-31.826	0.527	58.074	0.527	58.074	0.849	-31.826
1904.889	0.848	-31.935	0.529	57.964	0.529	57.964	0.848	-31.935
1912.347	0.847	-32.044	0.531	57.855	0.531	57.855	0.847	-32.044
1919.805	0.846	-32.153	0.532	57.746	0.532	57.746	0.846	-32.153
1927.264	0.845	-32.262	0.534	57.637	0.534	57.637	0.845	-32.262
1934.722	0.844	-32.37	0.535	57.528	0.535	57.528	0.844	-32.37
1942.18	0.843	-32.479	0.537	57.419	0.537	57.419	0.843	-32.479
1949.638	0.842	-32.587	0.539	57.31	0.539	57.31	0.842	-32.587
1957.097	0.841	-32.695	0.54	57.202	0.54	57.202	0.841	-32.695
1964.555	0.84	-32.803	0.542	57.093	0.542	57.093	0.84	-32.803
1972.013	0.839	-32.911	0.543	56.985	0.543	56.985	0.839	-32.911
1979.471	0.838	-33.018	0.545	56.877	0.545	56.877	0.838	-33.018
1986.929	0.836	-33.126	0.546	56.769	0.546	56.769	0.836	-33.126
1994.388	0.835	-33.233	0.548	56.662	0.548	56.662	0.835	-33.233
2001.846	0.834	-33.34	0.55	56.554	0.55	56.554	0.834	-33.34
2009.304	0.833	-33.447	0.551	56.447	0.551	56.447	0.833	-33.447
2016.762	0.832	-33.554	0.553	56.34	0.553	56.34	0.832	-33.554
2024.221	0.831	-33.66	0.554	56.232	0.554	56.232	0.831	-33.66
2031.679	0.83	-33.767	0.556	56.126	0.556	56.126	0.83	-33.767
2039.137	0.829	-33.873	0.557	56.019	0.557	56.019	0.829	-33.873
2046.595	0.828	-33.979	0.559	55.912	0.559	55.912	0.828	-33.979
2054.053	0.827	-34.085	0.56	55.806	0.56	55.806	0.827	-34.085
2061.512	0.826	-34.191	0.562	55.699	0.562	55.699	0.826	-34.191
2068.97	0.825	-34.297	0.563	55.593	0.563	55.593	0.825	-34.297
2076.428	0.824	-34.403	0.565	55.487	0.565	55.487	0.824	-34.403
2083.886	0.823	-34.508	0.567	55.381	0.567	55.381	0.823	-34.508
2091.344	0.822	-34.613	0.568	55.276	0.568	55.276	0.822	-34.613
2098.803	0.821	-34.718	0.57	55.17	0.57	55.17	0.821	-34.718
2106.261	0.82	-34.823	0.571	55.065	0.571	55.065	0.82	-34.823
2113.719	0.819	-34.928	0.573	54.96	0.573	54.96	0.819	-34.928
2121.177	0.818	-35.033	0.574	54.855	0.574	54.855	0.818	-35.033
2128.636	0.817	-35.137	0.576	54.75	0.576	54.75	0.817	-35.137
2136.094	0.816	-35.241	0.577	54.645	0.577	54.645	0.816	-35.241
2143.552	0.815	-35.346	0.579	54.54	0.579	54.54	0.815	-35.346
2151.01	0.813	-35.449	0.58	54.436	0.58	54.436	0.813	-35.449
2158.468	0.812	-35.553	0.581	54.332	0.581	54.332	0.812	-35.553
2165.927	0.811	-35.657	0.583	54.228	0.583	54.228	0.811	-35.657
2173.385	0.81	-35.76	0.584	54.124	0.584	54.124	0.81	-35.76
2180.843	0.809	-35.864	0.586	54.02	0.586	54.02	0.809	-35.864
2188.301	0.808	-35.967	0.587	53.916	0.587	53.916	0.808	-35.967
2195.76	0.807	-36.07	0.589	53.813	0.589	53.813	0.807	-36.07
2203.218	0.806	-36.173	0.59	53.709	0.59	53.709	0.806	-36.173
2210.676	0.805	-36.276	0.592	53.606	0.592	53.606	0.805	-36.276
2218.134	0.804	-36.378	0.593	53.503	0.593	53.503	0.804	-36.378
2225.592	0.803	-36.481	0.595	53.4	0.595	53.4	0.803	-36.481
2233.051	0.802	-36.583	0.596	53.298	0.596	53.298	0.802	-36.583
2240.509	0.801	-36.685	0.597	53.195	0.597	53.195	0.801	-36.685
2247.967	0.8	-36.787	0.599	53.093	0.599	53.093	0.8	-36.787
2255.425	0.799	-36.889	0.6	52.991	0.6	52.991	0.799	-36.889
2262.884	0.797	-36.99	0.602	52.888	0.602	52.888	0.797	-36.99
2270.342	0.796	-37.092	0.603	52.787	0.603	52.787	0.796	-37.092
2277.8	0.795	-37.193	0.605	52.685	0.605	52.685	0.795	-37.193
2285.258	0.794	-37.294	0.606	52.583	0.606	52.583	0.794	-37.294
2292.716	0.793	-37.395	0.607	52.482	0.607	52.482	0.793	-37.395
2300.175	0.792	-37.496	0.609	52.38	0.609	52.38	0.792	-37.496
2307.633	0.791	-37.597	0.61	52.279	0.61	52.279	0.791	-37.597
2315.091	0.79	-37.698	0.611	52.178	0.611	52.178	0.79	-37.698
2322.549	0.789	-37.798	0.613	52.077	0.613	52.077	0.789	-37.798
2330.007	0.788	-37.898	0.614	51.977	0.614	51.977	0.788	-37.898
2337.466	0.787	-37.998	0.616	51.876	0.616	51.876	0.787	-37.998
2344.924	0.786	-38.098	0.617	51.776	0.617	51.776	0.786	-38.098
2352.382	0.785	-38.198	0.618	51.676	0.618	51.676	0.785	-38.198
2359.84	0.783	-38.298	0.62	51.575	0.62	51.575	0.783	-38.298
2367.299	0.782	-38.397	0.621	51.476	0.621	51.476	0.782	-38.397
2374.757	0.781	-38.496	0.622	51.376	0.622	51.376	0.781	-38.496
2382.215	0.78	-38.595	0.624	51.276	0.624	51.276	0.78	-38.595
2389.673	0.779	-38.694	0.625	51.177	0.625	51.177	0.779	-38.694
2397.131	0.778	-38.793	0.627	51.077	0.627	51.077	0.778	-38.793
2404.59	0.777	-38.892	0.628	50.978	0.628	50.978	0.777	-38.892
2412.048	0.776	-38.99	0.629	50.879	0.629	50.879	0.776	-38.99
2419.506	0.775	-39.089	0.631	50.781	0.631	50.781	0.775	-39.089
2426.964	0.774	-39.187	0.632	50.682	0.632	50.682	0.774	-39.187
2434.423	0.773	-39.285	0.633	50.583	0.633	50.583	0.773	-39.285
2441.881	0.771	-39.383	0.635	50.485	0.635	50.485	0.771	-39.383
2449.339	0.77	-39.481	0.636	50.387	0.636	50.387	0.77	-39.481
2456.797	0.769	-39.578	0.637	50.289	0.637	50.289	0.769	-39.578
2464.255	0.768	-39.676	0.638	50.191	0.638	50.191	0.768	-39.676
2471.714	0.767	-39.773	0.64	50.093	0.64	50.093	0.767	-39.773
2479.172	0.766	-39.87	0.641	49.995	0.641	49.995	0.766	-39.87
2486.63	0.765	-39.967	0.642	49.898	0.642	49.898	0.765	-39.967
2494.088	0.764	-40.064	0.644	49.801	0.644	49.801	0.764	-40.064
