! AVX Thin Film Operation		Date: April 2012 
! Description: Accu-P® Series, Thin Film, SMD, RF Capacitor
! Part Number: 08053K560FBTTR					
!	50	MHz	-	20.05	GHz			
!	Serial	Measurements						
!								
#	MHZ	S	MA	R	50			
!	S11	S21	S12	S22				
!	dB	Phase	dB	Phase	dB	Phase	dB	Phase
50 0.492 -60.369 0.869 29.473 0.869 29.473 0.492 -60.369
100 0.269 -74.145 0.962 15.594 0.962 15.594 0.269 -74.145
150 0.179 -79.307 0.983 10.321 0.983 10.321 0.179 -79.307
200 0.131 -81.964 0.99 7.544 0.99 7.544 0.131 -81.964
250 0.101 -83.569 0.994 5.805 0.994 5.805 0.101 -83.569
300 0.08 -84.625 0.996 4.595 0.996 4.595 0.08 -84.625
350 0.064 -85.349 0.997 3.689 0.997 3.689 0.064 -85.349
400 0.052 -85.84 0.998 2.974 0.998 2.974 0.052 -85.84
450 0.042 -86.142 0.998 2.387 0.998 2.387 0.042 -86.142
500 0.033 -86.26 0.998 1.89 0.998 1.89 0.033 -86.26
550 0.025 -86.15 0.999 1.459 0.999 1.459 0.025 -86.15
600 0.019 -85.69 0.999 1.076 0.999 1.076 0.019 -85.69
650 0.013 -84.522 0.999 0.731 0.999 0.731 0.013 -84.522
700 7.347e-3 -81.293 0.999 0.417 0.999 0.417 7.347e-3 -81.293
750 2.431e-3 -64.052 0.999 0.125 0.999 0.125 2.431e-3 -64.052
800 2.766e-3 67.338 0.999 -0.146 0.999 -0.146 2.766e-3 67.338
850 7.099e-3 81.016 0.999 -0.402 0.999 -0.402 7.099e-3 81.016
900 0.011 83.975 0.999 -0.645 0.999 -0.645 0.011 83.975
950 0.015 85.156 0.999 -0.876 0.999 -0.876 0.015 85.156
1000 0.019 85.732 0.999 -1.098 0.999 -1.098 0.019 85.732
1050 0.023 86.031 0.999 -1.311 0.999 -1.311 0.023 86.031
1100 0.027 86.183 0.999 -1.518 0.999 -1.518 0.027 86.183
1150 0.03 86.249 0.998 -1.718 0.998 -1.718 0.03 86.249
1200 0.033 86.258 0.998 -1.913 0.998 -1.913 0.033 86.258
1250 0.037 86.231 0.998 -2.103 0.998 -2.103 0.037 86.231
1300 0.04 86.179 0.998 -2.289 0.998 -2.289 0.04 86.179
1350 0.043 86.107 0.998 -2.472 0.998 -2.472 0.043 86.107
1400 0.046 86.022 0.998 -2.651 0.998 -2.651 0.046 86.022
1450 0.049 85.927 0.998 -2.827 0.998 -2.827 0.049 85.927
1500 0.052 85.824 0.998 -3 0.998 -3 0.052 85.824
1550 0.055 85.715 0.997 -3.17 0.997 -3.17 0.055 85.715
1600 0.058 85.601 0.997 -3.339 0.997 -3.339 0.058 85.601
1650 0.061 85.483 0.997 -3.505 0.997 -3.505 0.061 85.483
1700 0.064 85.363 0.997 -3.67 0.997 -3.67 0.064 85.363
1750 0.067 85.239 0.997 -3.833 0.997 -3.833 0.067 85.239
1800 0.07 85.114 0.996 -3.994 0.996 -3.994 0.07 85.114
1850 0.072 84.987 0.996 -4.154 0.996 -4.154 0.072 84.987
1900 0.075 84.859 0.996 -4.312 0.996 -4.312 0.075 84.859
1950 0.078 84.729 0.996 -4.47 0.996 -4.47 0.078 84.729
2000 0.081 84.599 0.996 -4.626 0.996 -4.626 0.081 84.599
2050 0.083 84.468 0.995 -4.781 0.995 -4.781 0.083 84.468
2100 0.086 84.336 0.995 -4.935 0.995 -4.935 0.086 84.336
2150 0.089 84.204 0.995 -5.088 0.995 -5.088 0.089 84.204
2200 0.091 84.071 0.995 -5.24 0.995 -5.24 0.091 84.071
2250 0.094 83.938 0.994 -5.391 0.994 -5.391 0.094 83.938
2300 0.097 83.804 0.994 -5.542 0.994 -5.542 0.097 83.804
2350 0.099 83.671 0.994 -5.692 0.994 -5.692 0.099 83.671
2400 0.102 83.537 0.994 -5.841 0.994 -5.841 0.102 83.537
2450 0.104 83.403 0.993 -5.989 0.993 -5.989 0.104 83.403
2500 0.107 83.268 0.993 -6.137 0.993 -6.137 0.107 83.268
2550 0.109 83.134 0.993 -6.284 0.993 -6.284 0.109 83.134
2600 0.112 83 0.993 -6.431 0.993 -6.431 0.112 83
2650 0.115 82.865 0.992 -6.577 0.992 -6.577 0.115 82.865
2700 0.117 82.731 0.992 -6.723 0.992 -6.723 0.117 82.731
2750 0.12 82.596 0.992 -6.868 0.992 -6.868 0.12 82.596
2800 0.122 82.462 0.991 -7.012 0.991 -7.012 0.122 82.462
2850 0.125 82.327 0.991 -7.156 0.991 -7.156 0.125 82.327
2900 0.127 82.193 0.991 -7.3 0.991 -7.3 0.127 82.193
2950 0.13 82.059 0.99 -7.444 0.99 -7.444 0.13 82.059
3000 0.132 81.924 0.99 -7.586 0.99 -7.586 0.132 81.924
3050 0.134 81.79 0.99 -7.729 0.99 -7.729 0.134 81.79
3100 0.137 81.656 0.989 -7.871 0.989 -7.871 0.137 81.656
3150 0.139 81.521 0.989 -8.013 0.989 -8.013 0.139 81.521
3200 0.142 81.387 0.989 -8.154 0.989 -8.154 0.142 81.387
3250 0.144 81.253 0.988 -8.295 0.988 -8.295 0.144 81.253
3300 0.147 81.119 0.988 -8.436 0.988 -8.436 0.147 81.119
3350 0.149 80.985 0.988 -8.576 0.988 -8.576 0.149 80.985
3400 0.152 80.852 0.987 -8.717 0.987 -8.717 0.152 80.852
3450 0.154 80.718 0.987 -8.856 0.987 -8.856 0.154 80.718
3500 0.156 80.584 0.987 -8.996 0.987 -8.996 0.156 80.584
3550 0.159 80.451 0.986 -9.135 0.986 -9.135 0.159 80.451
3600 0.161 80.317 0.986 -9.274 0.986 -9.274 0.161 80.317
3650 0.164 80.184 0.985 -9.413 0.985 -9.413 0.164 80.184
3700 0.166 80.051 0.985 -9.551 0.985 -9.551 0.166 80.051
3750 0.168 79.918 0.985 -9.689 0.985 -9.689 0.168 79.918
3800 0.171 79.785 0.984 -9.827 0.984 -9.827 0.171 79.785
3850 0.173 79.652 0.984 -9.964 0.984 -9.964 0.173 79.652
3900 0.175 79.519 0.983 -10.102 0.983 -10.102 0.175 79.519
3950 0.178 79.387 0.983 -10.239 0.983 -10.239 0.178 79.387
4000 0.18 79.254 0.982 -10.376 0.982 -10.376 0.18 79.254
4050 0.182 79.122 0.982 -10.512 0.982 -10.512 0.182 79.122
4100 0.185 78.99 0.982 -10.649 0.982 -10.649 0.185 78.99
4150 0.187 78.858 0.981 -10.785 0.981 -10.785 0.187 78.858
4200 0.189 78.726 0.981 -10.92 0.981 -10.92 0.189 78.726
4250 0.192 78.594 0.98 -11.056 0.98 -11.056 0.192 78.594
4300 0.194 78.462 0.98 -11.191 0.98 -11.191 0.194 78.462
4350 0.196 78.33 0.979 -11.327 0.979 -11.327 0.196 78.33
4400 0.199 78.199 0.979 -11.462 0.979 -11.462 0.199 78.199
4450 0.201 78.068 0.978 -11.596 0.978 -11.596 0.201 78.068
4500 0.203 77.936 0.978 -11.731 0.978 -11.731 0.203 77.936
4550 0.206 77.805 0.977 -11.865 0.977 -11.865 0.206 77.805
4600 0.208 77.674 0.977 -11.999 0.977 -11.999 0.208 77.674
4650 0.21 77.544 0.976 -12.133 0.976 -12.133 0.21 77.544
4700 0.212 77.413 0.976 -12.267 0.976 -12.267 0.212 77.413
4750 0.215 77.283 0.975 -12.4 0.975 -12.4 0.215 77.283
4800 0.217 77.152 0.975 -12.533 0.975 -12.533 0.217 77.152
4850 0.219 77.022 0.974 -12.666 0.974 -12.666 0.219 77.022
4900 0.222 76.892 0.974 -12.799 0.974 -12.799 0.222 76.892
4950 0.224 76.762 0.973 -12.932 0.973 -12.932 0.224 76.762
5000 0.226 76.632 0.973 -13.064 0.973 -13.064 0.226 76.632
5050 0.228 76.503 0.972 -13.197 0.972 -13.197 0.228 76.503
5100 0.231 76.373 0.972 -13.329 0.972 -13.329 0.231 76.373
5150 0.233 76.244 0.971 -13.46 0.971 -13.46 0.233 76.244
5200 0.235 76.115 0.971 -13.592 0.971 -13.592 0.235 76.115
5250 0.237 75.986 0.97 -13.723 0.97 -13.723 0.237 75.986
5300 0.239 75.857 0.97 -13.855 0.97 -13.855 0.239 75.857
5350 0.242 75.728 0.969 -13.985 0.969 -13.985 0.242 75.728
5400 0.244 75.6 0.969 -14.116 0.969 -14.116 0.244 75.6
5450 0.246 75.471 0.968 -14.247 0.968 -14.247 0.246 75.471
5500 0.248 75.343 0.967 -14.377 0.967 -14.377 0.248 75.343
5550 0.251 75.215 0.967 -14.507 0.967 -14.507 0.251 75.215
5600 0.253 75.087 0.966 -14.637 0.966 -14.637 0.253 75.087
5650 0.255 74.959 0.966 -14.767 0.966 -14.767 0.255 74.959
5700 0.257 74.831 0.965 -14.897 0.965 -14.897 0.257 74.831
5750 0.259 74.704 0.965 -15.026 0.965 -15.026 0.259 74.704
5800 0.261 74.577 0.964 -15.156 0.964 -15.156 0.261 74.577
5850 0.264 74.45 0.963 -15.285 0.963 -15.285 0.264 74.45
5900 0.266 74.323 0.963 -15.413 0.963 -15.413 0.266 74.323
5950 0.268 74.196 0.962 -15.542 0.962 -15.542 0.268 74.196
6000 0.27 74.069 0.962 -15.67 0.962 -15.67 0.27 74.069
6050 0.272 73.943 0.961 -15.799 0.961 -15.799 0.272 73.943
6100 0.274 73.816 0.96 -15.927 0.96 -15.927 0.274 73.816
6150 0.277 73.69 0.96 -16.054 0.96 -16.054 0.277 73.69
6200 0.279 73.564 0.959 -16.182 0.959 -16.182 0.279 73.564
6250 0.281 73.438 0.959 -16.31 0.959 -16.31 0.281 73.438
6300 0.283 73.313 0.958 -16.437 0.958 -16.437 0.283 73.313
6350 0.285 73.187 0.957 -16.564 0.957 -16.564 0.285 73.187
6400 0.287 73.062 0.957 -16.691 0.957 -16.691 0.287 73.062
6450 0.289 72.937 0.956 -16.817 0.956 -16.817 0.289 72.937
6500 0.291 72.812 0.955 -16.944 0.955 -16.944 0.291 72.812
6550 0.294 72.687 0.955 -17.07 0.955 -17.07 0.294 72.687
6600 0.296 72.563 0.954 -17.196 0.954 -17.196 0.296 72.563
6650 0.298 72.438 0.953 -17.322 0.953 -17.322 0.298 72.438
6700 0.3 72.314 0.953 -17.448 0.953 -17.448 0.3 72.314
6750 0.302 72.19 0.952 -17.573 0.952 -17.573 0.302 72.19
6800 0.304 72.066 0.951 -17.698 0.951 -17.698 0.304 72.066
6850 0.306 71.942 0.951 -17.823 0.951 -17.823 0.306 71.942
6900 0.308 71.819 0.95 -17.948 0.95 -17.948 0.308 71.819
6950 0.31 71.695 0.949 -18.073 0.949 -18.073 0.31 71.695
7000 0.312 71.572 0.949 -18.197 0.949 -18.197 0.312 71.572
7050 0.314 71.449 0.948 -18.322 0.948 -18.322 0.314 71.449
7100 0.316 71.326 0.947 -18.446 0.947 -18.446 0.316 71.326
7150 0.318 71.204 0.947 -18.57 0.947 -18.57 0.318 71.204
7200 0.321 71.081 0.946 -18.693 0.946 -18.693 0.321 71.081
7250 0.323 70.959 0.945 -18.817 0.945 -18.817 0.323 70.959
7300 0.325 70.837 0.945 -18.94 0.945 -18.94 0.325 70.837
7350 0.327 70.715 0.944 -19.063 0.944 -19.063 0.327 70.715
7400 0.329 70.593 0.943 -19.186 0.943 -19.186 0.329 70.593
7450 0.331 70.472 0.942 -19.309 0.942 -19.309 0.331 70.472
7500 0.333 70.35 0.942 -19.431 0.942 -19.431 0.333 70.35
7550 0.335 70.229 0.941 -19.553 0.941 -19.553 0.335 70.229
7600 0.337 70.108 0.94 -19.675 0.94 -19.675 0.337 70.108
7650 0.339 69.987 0.94 -19.797 0.94 -19.797 0.339 69.987
7700 0.341 69.867 0.939 -19.919 0.939 -19.919 0.341 69.867
7750 0.343 69.746 0.938 -20.04 0.938 -20.04 0.343 69.746
7800 0.345 69.626 0.937 -20.162 0.937 -20.162 0.345 69.626
7850 0.347 69.506 0.937 -20.283 0.937 -20.283 0.347 69.506
7900 0.349 69.386 0.936 -20.404 0.936 -20.404 0.349 69.386
7950 0.351 69.267 0.935 -20.524 0.935 -20.524 0.351 69.267
8000 0.353 69.147 0.935 -20.645 0.935 -20.645 0.353 69.147
8050 0.355 69.028 0.934 -20.765 0.934 -20.765 0.355 69.028
8100 0.356 68.909 0.933 -20.885 0.933 -20.885 0.356 68.909
8150 0.358 68.79 0.932 -21.005 0.932 -21.005 0.358 68.79
8200 0.36 68.671 0.932 -21.124 0.932 -21.124 0.36 68.671
8250 0.362 68.553 0.931 -21.244 0.931 -21.244 0.362 68.553
8300 0.364 68.435 0.93 -21.363 0.93 -21.363 0.364 68.435
8350 0.366 68.316 0.929 -21.482 0.929 -21.482 0.366 68.316
8400 0.368 68.199 0.928 -21.601 0.928 -21.601 0.368 68.199
8450 0.37 68.081 0.928 -21.719 0.928 -21.719 0.37 68.081
8500 0.372 67.963 0.927 -21.838 0.927 -21.838 0.372 67.963
8550 0.374 67.846 0.926 -21.956 0.926 -21.956 0.374 67.846
8600 0.376 67.729 0.925 -22.074 0.925 -22.074 0.376 67.729
8650 0.378 67.612 0.925 -22.191 0.925 -22.191 0.378 67.612
8700 0.38 67.495 0.924 -22.309 0.924 -22.309 0.38 67.495
8750 0.381 67.379 0.923 -22.426 0.923 -22.426 0.381 67.379
8800 0.383 67.262 0.922 -22.543 0.922 -22.543 0.383 67.262
8850 0.385 67.146 0.922 -22.66 0.922 -22.66 0.385 67.146
8900 0.387 67.03 0.921 -22.777 0.921 -22.777 0.387 67.03
8950 0.389 66.915 0.92 -22.894 0.92 -22.894 0.389 66.915
9000 0.391 66.799 0.919 -23.01 0.919 -23.01 0.391 66.799
9050 0.393 66.684 0.918 -23.126 0.918 -23.126 0.393 66.684
9100 0.395 66.569 0.918 -23.242 0.918 -23.242 0.395 66.569
9150 0.396 66.454 0.917 -23.357 0.917 -23.357 0.396 66.454
9200 0.398 66.339 0.916 -23.473 0.916 -23.473 0.398 66.339
9250 0.4 66.225 0.915 -23.588 0.915 -23.588 0.4 66.225
9300 0.402 66.11 0.914 -23.703 0.914 -23.703 0.402 66.11
9350 0.404 65.996 0.914 -23.818 0.914 -23.818 0.404 65.996
9400 0.406 65.882 0.913 -23.932 0.913 -23.932 0.406 65.882
9450 0.407 65.769 0.912 -24.047 0.912 -24.047 0.407 65.769
9500 0.409 65.655 0.911 -24.161 0.911 -24.161 0.409 65.655
9550 0.411 65.542 0.91 -24.275 0.91 -24.275 0.411 65.542
9600 0.413 65.429 0.909 -24.389 0.909 -24.389 0.413 65.429
9650 0.415 65.316 0.909 -24.502 0.909 -24.502 0.415 65.316
9700 0.417 65.203 0.908 -24.616 0.908 -24.616 0.417 65.203
9750 0.418 65.091 0.907 -24.729 0.907 -24.729 0.418 65.091
9800 0.42 64.978 0.906 -24.842 0.906 -24.842 0.42 64.978
9850 0.422 64.866 0.905 -24.954 0.905 -24.954 0.422 64.866
9900 0.424 64.755 0.904 -25.067 0.904 -25.067 0.424 64.755
9950 0.425 64.643 0.904 -25.179 0.904 -25.179 0.425 64.643
10000 0.427 64.532 0.903 -25.291 0.903 -25.291 0.427 64.532
10050 0.429 64.42 0.902 -25.403 0.902 -25.403 0.429 64.42
10100 0.431 64.309 0.901 -25.514 0.901 -25.514 0.431 64.309
10150 0.432 64.198 0.9 -25.626 0.9 -25.626 0.432 64.198
10200 0.434 64.088 0.899 -25.737 0.899 -25.737 0.434 64.088
10250 0.436 63.978 0.899 -25.848 0.899 -25.848 0.436 63.978
10300 0.438 63.867 0.898 -25.959 0.898 -25.959 0.438 63.867
10350 0.439 63.757 0.897 -26.069 0.897 -26.069 0.439 63.757
10400 0.441 63.648 0.896 -26.18 0.896 -26.18 0.441 63.648
10450 0.443 63.538 0.895 -26.29 0.895 -26.29 0.443 63.538
10500 0.445 63.429 0.894 -26.4 0.894 -26.4 0.445 63.429
10550 0.446 63.32 0.894 -26.509 0.894 -26.509 0.446 63.32
10600 0.448 63.211 0.893 -26.619 0.893 -26.619 0.448 63.211
10650 0.45 63.102 0.892 -26.728 0.892 -26.728 0.45 63.102
10700 0.451 62.993 0.891 -26.837 0.891 -26.837 0.451 62.993
10750 0.453 62.885 0.89 -26.946 0.89 -26.946 0.453 62.885
10800 0.455 62.777 0.889 -27.055 0.889 -27.055 0.455 62.777
10850 0.457 62.669 0.888 -27.163 0.888 -27.163 0.457 62.669
10900 0.458 62.562 0.888 -27.271 0.888 -27.271 0.458 62.562
10950 0.46 62.454 0.887 -27.379 0.887 -27.379 0.46 62.454
11000 0.462 62.347 0.886 -27.487 0.886 -27.487 0.462 62.347
11050 0.463 62.24 0.885 -27.594 0.885 -27.594 0.463 62.24
11100 0.465 62.133 0.884 -27.702 0.884 -27.702 0.465 62.133
11150 0.467 62.026 0.883 -27.809 0.883 -27.809 0.467 62.026
11200 0.468 61.92 0.882 -27.916 0.882 -27.916 0.468 61.92
11250 0.47 61.814 0.881 -28.022 0.881 -28.022 0.47 61.814
11300 0.471 61.708 0.881 -28.129 0.881 -28.129 0.471 61.708
11350 0.473 61.602 0.88 -28.235 0.88 -28.235 0.473 61.602
11400 0.475 61.497 0.879 -28.341 0.879 -28.341 0.475 61.497
11450 0.476 61.391 0.878 -28.447 0.878 -28.447 0.476 61.391
11500 0.478 61.286 0.877 -28.552 0.877 -28.552 0.478 61.286
11550 0.48 61.181 0.876 -28.658 0.876 -28.658 0.48 61.181
11600 0.481 61.076 0.875 -28.763 0.875 -28.763 0.481 61.076
11650 0.483 60.972 0.874 -28.868 0.874 -28.868 0.483 60.972
11700 0.484 60.868 0.874 -28.973 0.874 -28.973 0.484 60.868
11750 0.486 60.764 0.873 -29.077 0.873 -29.077 0.486 60.764
11800 0.488 60.66 0.872 -29.181 0.872 -29.181 0.488 60.66
11850 0.489 60.556 0.871 -29.285 0.871 -29.285 0.489 60.556
11900 0.491 60.453 0.87 -29.389 0.87 -29.389 0.491 60.453
11950 0.492 60.35 0.869 -29.493 0.869 -29.493 0.492 60.35
12000 0.494 60.247 0.868 -29.596 0.868 -29.596 0.494 60.247
12050 0.495 60.144 0.867 -29.7 0.867 -29.7 0.495 60.144
12100 0.497 60.041 0.866 -29.803 0.866 -29.803 0.497 60.041
12150 0.499 59.939 0.865 -29.905 0.865 -29.905 0.499 59.939
12200 0.5 59.837 0.865 -30.008 0.865 -30.008 0.5 59.837
12250 0.502 59.735 0.864 -30.11 0.864 -30.11 0.502 59.735
12300 0.503 59.633 0.863 -30.212 0.863 -30.212 0.503 59.633
12350 0.505 59.531 0.862 -30.314 0.862 -30.314 0.505 59.531
12400 0.506 59.43 0.861 -30.416 0.861 -30.416 0.506 59.43
12450 0.508 59.329 0.86 -30.517 0.86 -30.517 0.508 59.329
12500 0.509 59.228 0.859 -30.619 0.859 -30.619 0.509 59.228
12550 0.511 59.127 0.858 -30.72 0.858 -30.72 0.511 59.127
12600 0.512 59.027 0.857 -30.821 0.857 -30.821 0.512 59.027
12650 0.514 58.927 0.857 -30.921 0.857 -30.921 0.514 58.927
12700 0.515 58.827 0.856 -31.022 0.856 -31.022 0.515 58.827
12750 0.517 58.727 0.855 -31.122 0.855 -31.122 0.517 58.727
12800 0.518 58.627 0.854 -31.222 0.854 -31.222 0.518 58.627
12850 0.52 58.528 0.853 -31.322 0.853 -31.322 0.52 58.528
12900 0.521 58.429 0.852 -31.421 0.852 -31.421 0.521 58.429
12950 0.523 58.33 0.851 -31.521 0.851 -31.521 0.523 58.33
13000 0.524 58.231 0.85 -31.62 0.85 -31.62 0.524 58.231
13050 0.526 58.132 0.849 -31.719 0.849 -31.719 0.526 58.132
13100 0.527 58.034 0.848 -31.817 0.848 -31.817 0.527 58.034
13150 0.529 57.936 0.847 -31.916 0.847 -31.916 0.529 57.936
13200 0.53 57.838 0.847 -32.014 0.847 -32.014 0.53 57.838
13250 0.532 57.74 0.846 -32.112 0.846 -32.112 0.532 57.74
13300 0.533 57.643 0.845 -32.21 0.845 -32.21 0.533 57.643
13350 0.534 57.546 0.844 -32.308 0.844 -32.308 0.534 57.546
13400 0.536 57.448 0.843 -32.405 0.843 -32.405 0.536 57.448
13450 0.537 57.352 0.842 -32.502 0.842 -32.502 0.537 57.352
13500 0.539 57.255 0.841 -32.599 0.841 -32.599 0.539 57.255
13550 0.54 57.158 0.84 -32.696 0.84 -32.696 0.54 57.158
13600 0.542 57.062 0.839 -32.793 0.839 -32.793 0.542 57.062
13650 0.543 56.966 0.838 -32.889 0.838 -32.889 0.543 56.966
13700 0.544 56.87 0.837 -32.985 0.837 -32.985 0.544 56.87
13750 0.546 56.775 0.837 -33.081 0.837 -33.081 0.546 56.775
13800 0.547 56.679 0.836 -33.177 0.836 -33.177 0.547 56.679
13850 0.549 56.584 0.835 -33.272 0.835 -33.272 0.549 56.584
13900 0.55 56.489 0.834 -33.368 0.834 -33.368 0.55 56.489
13950 0.551 56.394 0.833 -33.463 0.833 -33.463 0.551 56.394
14000 0.553 56.3 0.832 -33.557 0.832 -33.557 0.553 56.3
14050 0.554 56.205 0.831 -33.652 0.831 -33.652 0.554 56.205
14100 0.556 56.111 0.83 -33.747 0.83 -33.747 0.556 56.111
14150 0.557 56.017 0.829 -33.841 0.829 -33.841 0.557 56.017
14200 0.558 55.924 0.828 -33.935 0.828 -33.935 0.558 55.924
14250 0.56 55.83 0.827 -34.029 0.827 -34.029 0.56 55.83
14300 0.561 55.737 0.826 -34.122 0.826 -34.122 0.561 55.737
14350 0.562 55.644 0.826 -34.216 0.826 -34.216 0.562 55.644
14400 0.564 55.551 0.825 -34.309 0.825 -34.309 0.564 55.551
14450 0.565 55.458 0.824 -34.402 0.824 -34.402 0.565 55.458
14500 0.566 55.366 0.823 -34.495 0.823 -34.495 0.566 55.366
14550 0.568 55.273 0.822 -34.587 0.822 -34.587 0.568 55.273
14600 0.569 55.181 0.821 -34.68 0.821 -34.68 0.569 55.181
14650 0.57 55.089 0.82 -34.772 0.82 -34.772 0.57 55.089
14700 0.572 54.998 0.819 -34.864 0.819 -34.864 0.572 54.998
14750 0.573 54.906 0.818 -34.956 0.818 -34.956 0.573 54.906
14800 0.574 54.815 0.817 -35.047 0.817 -35.047 0.574 54.815
14850 0.576 54.724 0.816 -35.138 0.816 -35.138 0.576 54.724
14900 0.577 54.633 0.815 -35.23 0.815 -35.23 0.577 54.633
14950 0.578 54.542 0.815 -35.32 0.815 -35.32 0.578 54.542
15000 0.579 54.452 0.814 -35.411 0.814 -35.411 0.579 54.452
15050 0.581 54.362 0.813 -35.502 0.813 -35.502 0.581 54.362
15100 0.582 54.272 0.812 -35.592 0.812 -35.592 0.582 54.272
15150 0.583 54.182 0.811 -35.682 0.811 -35.682 0.583 54.182
15200 0.585 54.092 0.81 -35.772 0.81 -35.772 0.585 54.092
15250 0.586 54.003 0.809 -35.862 0.809 -35.862 0.586 54.003
15300 0.587 53.913 0.808 -35.951 0.808 -35.951 0.587 53.913
15350 0.588 53.824 0.807 -36.04 0.807 -36.04 0.588 53.824
15400 0.59 53.736 0.806 -36.129 0.806 -36.129 0.59 53.736
15450 0.591 53.647 0.805 -36.218 0.805 -36.218 0.591 53.647
15500 0.592 53.559 0.804 -36.307 0.804 -36.307 0.592 53.559
15550 0.593 53.47 0.804 -36.395 0.804 -36.395 0.593 53.47
15600 0.595 53.382 0.803 -36.484 0.803 -36.484 0.595 53.382
15650 0.596 53.295 0.802 -36.572 0.802 -36.572 0.596 53.295
15700 0.597 53.207 0.801 -36.66 0.801 -36.66 0.597 53.207
15750 0.598 53.12 0.8 -36.747 0.8 -36.747 0.598 53.12
15800 0.6 53.032 0.799 -36.835 0.799 -36.835 0.6 53.032
15850 0.601 52.945 0.798 -36.922 0.798 -36.922 0.601 52.945
15900 0.602 52.859 0.797 -37.009 0.797 -37.009 0.602 52.859
15950 0.603 52.772 0.796 -37.096 0.796 -37.096 0.603 52.772
16000 0.604 52.685 0.795 -37.183 0.795 -37.183 0.604 52.685
16050 0.606 52.599 0.794 -37.269 0.794 -37.269 0.606 52.599
16100 0.607 52.513 0.793 -37.355 0.793 -37.355 0.607 52.513
16150 0.608 52.427 0.793 -37.441 0.793 -37.441 0.608 52.427
16200 0.609 52.342 0.792 -37.527 0.792 -37.527 0.609 52.342
16250 0.61 52.256 0.791 -37.613 0.791 -37.613 0.61 52.256
16300 0.612 52.171 0.79 -37.698 0.79 -37.698 0.612 52.171
16350 0.613 52.086 0.789 -37.784 0.789 -37.784 0.613 52.086
16400 0.614 52.001 0.788 -37.869 0.788 -37.869 0.614 52.001
16450 0.615 51.917 0.787 -37.953 0.787 -37.953 0.615 51.917
16500 0.616 51.832 0.786 -38.038 0.786 -38.038 0.616 51.832
16550 0.617 51.748 0.785 -38.123 0.785 -38.123 0.617 51.748
16600 0.619 51.664 0.784 -38.207 0.784 -38.207 0.619 51.664
16650 0.62 51.58 0.783 -38.291 0.783 -38.291 0.62 51.58
16700 0.621 51.496 0.783 -38.375 0.783 -38.375 0.621 51.496
16750 0.622 51.413 0.782 -38.458 0.782 -38.458 0.622 51.413
16800 0.623 51.33 0.781 -38.542 0.781 -38.542 0.623 51.33
16850 0.624 51.247 0.78 -38.625 0.78 -38.625 0.624 51.247
16900 0.625 51.164 0.779 -38.708 0.779 -38.708 0.625 51.164
16950 0.626 51.081 0.778 -38.791 0.778 -38.791 0.626 51.081
