! AVX Thin Film Operation		Date: April 2012 
! Description: Accu-P® Series, Thin Film, SMD, RF Capacitor
! Part Number: 08051J6R8BBTTR					
!	100	MHz	-	10.05	GHz			
!	Serial	Measurements						
!								
#	MHZ	S	MA	R	50			
!	S11	S21	S12	S22				
!	dB	Phase	dB	Phase	dB	Phase	dB	Phase
100	0.919	-23.173	0.394	66.798	0.394	66.798	0.919	-23.173
102.469	0.916	-23.684	0.402	66.285	0.402	66.285	0.916	-23.684
104.939	0.912	-24.192	0.41	65.777	0.41	65.777	0.912	-24.192
107.408	0.908	-24.697	0.418	65.272	0.418	65.272	0.908	-24.697
109.878	0.905	-25.197	0.426	64.771	0.426	64.771	0.905	-25.197
112.347	0.901	-25.693	0.434	64.274	0.434	64.274	0.901	-25.693
114.817	0.897	-26.185	0.441	63.781	0.441	63.781	0.897	-26.185
117.286	0.893	-26.674	0.449	63.292	0.449	63.292	0.893	-26.674
119.756	0.889	-27.158	0.456	62.807	0.456	62.807	0.889	-27.158
122.225	0.886	-27.638	0.464	62.326	0.464	62.326	0.886	-27.638
124.694	0.882	-28.115	0.471	61.849	0.471	61.849	0.882	-28.115
127.164	0.878	-28.587	0.478	61.376	0.478	61.376	0.878	-28.587
129.633	0.874	-29.055	0.486	60.907	0.486	60.907	0.874	-29.055
132.103	0.87	-29.519	0.493	60.442	0.493	60.442	0.87	-29.519
134.572	0.866	-29.979	0.5	59.981	0.5	59.981	0.866	-29.979
137.042	0.862	-30.435	0.507	59.524	0.507	59.524	0.862	-30.435
139.511	0.858	-30.887	0.513	59.071	0.513	59.071	0.858	-30.887
141.981	0.854	-31.335	0.52	58.623	0.52	58.623	0.854	-31.335
144.45	0.85	-31.779	0.527	58.178	0.527	58.178	0.85	-31.779
146.919	0.846	-32.219	0.533	57.738	0.533	57.738	0.846	-32.219
149.389	0.842	-32.655	0.54	57.301	0.54	57.301	0.842	-32.655
151.858	0.837	-33.087	0.546	56.868	0.546	56.868	0.837	-33.087
154.328	0.833	-33.514	0.552	56.44	0.552	56.44	0.833	-33.514
156.797	0.829	-33.938	0.558	56.016	0.558	56.016	0.829	-33.938
159.267	0.825	-34.358	0.564	55.595	0.564	55.595	0.825	-34.358
161.736	0.821	-34.774	0.57	55.179	0.57	55.179	0.821	-34.774
164.206	0.817	-35.185	0.576	54.766	0.576	54.766	0.817	-35.185
166.675	0.813	-35.593	0.582	54.358	0.582	54.358	0.813	-35.593
169.144	0.809	-35.997	0.588	53.953	0.588	53.953	0.809	-35.997
171.614	0.804	-36.397	0.593	53.552	0.593	53.552	0.804	-36.397
174.083	0.8	-36.793	0.599	53.155	0.599	53.155	0.8	-36.793
176.553	0.796	-37.185	0.604	52.762	0.604	52.762	0.796	-37.185
179.022	0.792	-37.574	0.61	52.373	0.61	52.373	0.792	-37.574
181.492	0.788	-37.958	0.615	51.988	0.615	51.988	0.788	-37.958
183.961	0.784	-38.339	0.62	51.607	0.62	51.607	0.784	-38.339
186.431	0.78	-38.716	0.625	51.229	0.625	51.229	0.78	-38.716
188.9	0.776	-39.089	0.631	50.855	0.631	50.855	0.776	-39.089
191.369	0.771	-39.459	0.636	50.485	0.636	50.485	0.771	-39.459
193.839	0.767	-39.824	0.64	50.118	0.64	50.118	0.767	-39.824
196.308	0.763	-40.187	0.645	49.755	0.645	49.755	0.763	-40.187
198.778	0.759	-40.545	0.65	49.396	0.65	49.396	0.759	-40.545
201.247	0.755	-40.9	0.655	49.04	0.655	49.04	0.755	-40.9
203.717	0.751	-41.251	0.659	48.688	0.659	48.688	0.751	-41.251
206.186	0.747	-41.599	0.664	48.34	0.664	48.34	0.747	-41.599
208.656	0.743	-41.943	0.668	47.995	0.668	47.995	0.743	-41.943
211.125	0.739	-42.284	0.673	47.653	0.673	47.653	0.739	-42.284
213.594	0.735	-42.621	0.677	47.315	0.677	47.315	0.735	-42.621
216.064	0.731	-42.955	0.681	46.981	0.681	46.981	0.731	-42.955
218.533	0.727	-43.286	0.686	46.649	0.686	46.649	0.727	-43.286
221.003	0.723	-43.613	0.69	46.322	0.69	46.322	0.723	-43.613
223.472	0.719	-43.937	0.694	45.997	0.694	45.997	0.719	-43.937
225.942	0.715	-44.257	0.698	45.676	0.698	45.676	0.715	-44.257
228.411	0.712	-44.574	0.702	45.358	0.702	45.358	0.712	-44.574
230.881	0.708	-44.888	0.706	45.043	0.706	45.043	0.708	-44.888
233.35	0.704	-45.199	0.71	44.731	0.71	44.731	0.704	-45.199
235.819	0.7	-45.507	0.713	44.423	0.713	44.423	0.7	-45.507
238.289	0.696	-45.811	0.717	44.118	0.717	44.118	0.696	-45.811
240.758	0.692	-46.113	0.721	43.816	0.721	43.816	0.692	-46.113
243.228	0.689	-46.411	0.724	43.517	0.724	43.517	0.689	-46.411
245.697	0.685	-46.706	0.728	43.221	0.728	43.221	0.685	-46.706
248.167	0.681	-46.999	0.731	42.927	0.731	42.927	0.681	-46.999
250.636	0.677	-47.288	0.735	42.637	0.735	42.637	0.677	-47.288
253.106	0.674	-47.574	0.738	42.35	0.738	42.35	0.674	-47.574
255.575	0.67	-47.858	0.741	42.066	0.741	42.066	0.67	-47.858
258.044	0.666	-48.138	0.745	41.785	0.745	41.785	0.666	-48.138
260.514	0.663	-48.416	0.748	41.506	0.748	41.506	0.663	-48.416
262.983	0.659	-48.691	0.751	41.23	0.751	41.23	0.659	-48.691
265.453	0.655	-48.963	0.754	40.957	0.754	40.957	0.655	-48.963
267.922	0.652	-49.233	0.757	40.687	0.757	40.687	0.652	-49.233
270.392	0.648	-49.499	0.76	40.42	0.76	40.42	0.648	-49.499
272.861	0.645	-49.763	0.763	40.155	0.763	40.155	0.645	-49.763
275.331	0.641	-50.025	0.766	39.893	0.766	39.893	0.641	-50.025
277.8	0.638	-50.284	0.769	39.633	0.769	39.633	0.638	-50.284
280.269	0.634	-50.54	0.772	39.376	0.772	39.376	0.634	-50.54
282.739	0.631	-50.793	0.775	39.122	0.775	39.122	0.631	-50.793
285.208	0.628	-51.044	0.778	38.87	0.778	38.87	0.628	-51.044
287.678	0.624	-51.293	0.78	38.621	0.78	38.621	0.624	-51.293
290.147	0.621	-51.539	0.783	38.374	0.783	38.374	0.621	-51.539
292.617	0.617	-51.783	0.786	38.13	0.786	38.13	0.617	-51.783
295.086	0.614	-52.024	0.788	37.888	0.788	37.888	0.614	-52.024
297.556	0.611	-52.263	0.791	37.648	0.791	37.648	0.611	-52.263
300.025	0.608	-52.499	0.793	37.411	0.793	37.411	0.608	-52.499
302.494	0.604	-52.733	0.796	37.176	0.796	37.176	0.604	-52.733
304.964	0.601	-52.965	0.798	36.943	0.798	36.943	0.601	-52.965
307.433	0.598	-53.195	0.801	36.713	0.801	36.713	0.598	-53.195
309.903	0.595	-53.422	0.803	36.485	0.803	36.485	0.595	-53.422
312.372	0.591	-53.647	0.805	36.259	0.805	36.259	0.591	-53.647
314.842	0.588	-53.87	0.808	36.035	0.808	36.035	0.588	-53.87
317.311	0.585	-54.091	0.81	35.814	0.81	35.814	0.585	-54.091
319.78	0.582	-54.31	0.812	35.594	0.812	35.594	0.582	-54.31
322.25	0.579	-54.526	0.814	35.377	0.814	35.377	0.579	-54.526
324.719	0.576	-54.741	0.817	35.162	0.817	35.162	0.576	-54.741
327.189	0.573	-54.953	0.819	34.949	0.819	34.949	0.573	-54.953
329.658	0.57	-55.163	0.821	34.738	0.821	34.738	0.57	-55.163
332.128	0.567	-55.372	0.823	34.528	0.823	34.528	0.567	-55.372
334.597	0.564	-55.578	0.825	34.321	0.825	34.321	0.564	-55.578
337.067	0.561	-55.782	0.827	34.116	0.827	34.116	0.561	-55.782
339.536	0.558	-55.985	0.829	33.913	0.829	33.913	0.558	-55.985
342.005	0.555	-56.185	0.831	33.712	0.831	33.712	0.555	-56.185
344.475	0.552	-56.384	0.833	33.512	0.833	33.512	0.552	-56.384
346.944	0.549	-56.581	0.835	33.315	0.835	33.315	0.549	-56.581
349.414	0.546	-56.776	0.837	33.119	0.837	33.119	0.546	-56.776
351.883	0.544	-56.969	0.838	32.925	0.838	32.925	0.544	-56.969
354.353	0.541	-57.16	0.84	32.733	0.84	32.733	0.541	-57.16
356.822	0.538	-57.349	0.842	32.543	0.842	32.543	0.538	-57.349
359.292	0.535	-57.537	0.844	32.354	0.844	32.354	0.535	-57.537
361.761	0.532	-57.723	0.845	32.168	0.845	32.168	0.532	-57.723
364.23	0.53	-57.907	0.847	31.983	0.847	31.983	0.53	-57.907
366.7	0.527	-58.09	0.849	31.799	0.849	31.799	0.527	-58.09
369.169	0.524	-58.271	0.851	31.617	0.851	31.617	0.524	-58.271
371.639	0.522	-58.45	0.852	31.437	0.852	31.437	0.522	-58.45
374.108	0.519	-58.628	0.854	31.259	0.854	31.259	0.519	-58.628
376.578	0.516	-58.804	0.855	31.082	0.855	31.082	0.516	-58.804
379.047	0.514	-58.978	0.857	30.907	0.857	30.907	0.514	-58.978
381.517	0.511	-59.151	0.859	30.733	0.859	30.733	0.511	-59.151
383.986	0.508	-59.323	0.86	30.561	0.86	30.561	0.508	-59.323
386.455	0.506	-59.492	0.862	30.39	0.862	30.39	0.506	-59.492
388.925	0.503	-59.661	0.863	30.221	0.863	30.221	0.503	-59.661
391.394	0.501	-59.827	0.865	30.054	0.865	30.054	0.501	-59.827
393.864	0.498	-59.993	0.866	29.888	0.866	29.888	0.498	-59.993
396.333	0.496	-60.156	0.867	29.723	0.867	29.723	0.496	-60.156
398.803	0.493	-60.319	0.869	29.56	0.869	29.56	0.493	-60.319
401.272	0.491	-60.48	0.87	29.398	0.87	29.398	0.491	-60.48
403.742	0.488	-60.639	0.872	29.238	0.872	29.238	0.488	-60.639
406.211	0.486	-60.797	0.873	29.079	0.873	29.079	0.486	-60.797
408.68	0.484	-60.954	0.874	28.921	0.874	28.921	0.484	-60.954
411.15	0.481	-61.11	0.876	28.765	0.876	28.765	0.481	-61.11
413.619	0.479	-61.264	0.877	28.61	0.877	28.61	0.479	-61.264
416.089	0.476	-61.416	0.878	28.457	0.878	28.457	0.476	-61.416
418.558	0.474	-61.568	0.879	28.305	0.879	28.305	0.474	-61.568
421.028	0.472	-61.718	0.881	28.154	0.881	28.154	0.472	-61.718
423.497	0.47	-61.867	0.882	28.004	0.882	28.004	0.47	-61.867
425.967	0.467	-62.014	0.883	27.856	0.883	27.856	0.467	-62.014
428.436	0.465	-62.161	0.884	27.708	0.884	27.708	0.465	-62.161
430.905	0.463	-62.306	0.885	27.562	0.885	27.562	0.463	-62.306
433.375	0.46	-62.45	0.887	27.418	0.887	27.418	0.46	-62.45
435.844	0.458	-62.592	0.888	27.274	0.888	27.274	0.458	-62.592
438.314	0.456	-62.734	0.889	27.132	0.889	27.132	0.456	-62.734
440.783	0.454	-62.874	0.89	26.991	0.89	26.991	0.454	-62.874
443.253	0.452	-63.013	0.891	26.851	0.891	26.851	0.452	-63.013
445.722	0.45	-63.151	0.892	26.712	0.892	26.712	0.45	-63.151
448.192	0.447	-63.288	0.893	26.574	0.893	26.574	0.447	-63.288
450.661	0.445	-63.424	0.894	26.438	0.894	26.438	0.445	-63.424
453.13	0.443	-63.559	0.895	26.302	0.895	26.302	0.443	-63.559
455.6	0.441	-63.692	0.896	26.168	0.896	26.168	0.441	-63.692
458.069	0.439	-63.824	0.897	26.035	0.897	26.035	0.439	-63.824
460.539	0.437	-63.956	0.898	25.903	0.898	25.903	0.437	-63.956
463.008	0.435	-64.086	0.899	25.772	0.899	25.772	0.435	-64.086
465.478	0.433	-64.215	0.9	25.642	0.9	25.642	0.433	-64.215
467.947	0.431	-64.344	0.901	25.512	0.901	25.512	0.431	-64.344
470.417	0.429	-64.471	0.902	25.384	0.902	25.384	0.429	-64.471
472.886	0.427	-64.597	0.903	25.257	0.903	25.257	0.427	-64.597
475.355	0.425	-64.722	0.904	25.131	0.904	25.131	0.425	-64.722
477.825	0.423	-64.846	0.905	25.006	0.905	25.006	0.423	-64.846
480.294	0.421	-64.969	0.906	24.882	0.906	24.882	0.421	-64.969
482.764	0.419	-65.092	0.907	24.759	0.907	24.759	0.419	-65.092
485.233	0.417	-65.213	0.908	24.637	0.908	24.637	0.417	-65.213
487.703	0.415	-65.333	0.909	24.516	0.909	24.516	0.415	-65.333
490.172	0.413	-65.453	0.91	24.396	0.91	24.396	0.413	-65.453
492.642	0.411	-65.571	0.91	24.276	0.91	24.276	0.411	-65.571
495.111	0.409	-65.689	0.911	24.158	0.911	24.158	0.409	-65.689
497.58	0.407	-65.805	0.912	24.041	0.912	24.041	0.407	-65.805
500.05	0.406	-65.921	0.913	23.924	0.913	23.924	0.406	-65.921
502.519	0.404	-66.036	0.914	23.808	0.914	23.808	0.404	-66.036
504.989	0.402	-66.15	0.915	23.693	0.915	23.693	0.402	-66.15
507.458	0.4	-66.263	0.915	23.579	0.915	23.579	0.4	-66.263
509.928	0.398	-66.375	0.916	23.466	0.916	23.466	0.398	-66.375
512.397	0.396	-66.487	0.917	23.354	0.917	23.354	0.396	-66.487
514.867	0.395	-66.598	0.918	23.243	0.918	23.243	0.395	-66.598
517.336	0.393	-66.707	0.919	23.132	0.919	23.132	0.393	-66.707
519.805	0.391	-66.816	0.919	23.022	0.919	23.022	0.391	-66.816
522.275	0.389	-66.924	0.92	22.913	0.92	22.913	0.389	-66.924
524.744	0.388	-67.032	0.921	22.805	0.921	22.805	0.388	-67.032
527.214	0.386	-67.138	0.921	22.697	0.921	22.697	0.386	-67.138
529.683	0.384	-67.244	0.922	22.591	0.922	22.591	0.384	-67.244
532.153	0.382	-67.349	0.923	22.485	0.923	22.485	0.382	-67.349
534.622	0.381	-67.453	0.924	22.38	0.924	22.38	0.381	-67.453
537.092	0.379	-67.557	0.924	22.276	0.924	22.276	0.379	-67.557
539.561	0.377	-67.66	0.925	22.172	0.925	22.172	0.377	-67.66
542.03	0.376	-67.761	0.926	22.069	0.926	22.069	0.376	-67.761
544.5	0.374	-67.863	0.926	21.967	0.926	21.967	0.374	-67.863
546.969	0.372	-67.963	0.927	21.866	0.927	21.866	0.372	-67.963
549.439	0.371	-68.063	0.928	21.765	0.928	21.765	0.371	-68.063
551.908	0.369	-68.162	0.928	21.665	0.928	21.665	0.369	-68.162
554.378	0.368	-68.261	0.929	21.566	0.929	21.566	0.368	-68.261
556.847	0.366	-68.358	0.93	21.467	0.93	21.467	0.366	-68.358
559.317	0.364	-68.455	0.93	21.369	0.93	21.369	0.364	-68.455
561.786	0.363	-68.552	0.931	21.272	0.931	21.272	0.363	-68.552
564.255	0.361	-68.647	0.931	21.175	0.931	21.175	0.361	-68.647
566.725	0.36	-68.742	0.932	21.08	0.932	21.08	0.36	-68.742
569.194	0.358	-68.837	0.933	20.984	0.933	20.984	0.358	-68.837
571.664	0.357	-68.93	0.933	20.89	0.933	20.89	0.357	-68.93
574.133	0.355	-69.023	0.934	20.796	0.934	20.796	0.355	-69.023
576.603	0.354	-69.116	0.934	20.703	0.934	20.703	0.354	-69.116
579.072	0.352	-69.207	0.935	20.61	0.935	20.61	0.352	-69.207
581.542	0.351	-69.298	0.935	20.518	0.935	20.518	0.351	-69.298
584.011	0.349	-69.389	0.936	20.427	0.936	20.427	0.349	-69.389
586.48	0.348	-69.479	0.937	20.336	0.937	20.336	0.348	-69.479
588.95	0.346	-69.568	0.937	20.246	0.937	20.246	0.346	-69.568
591.419	0.345	-69.657	0.938	20.156	0.938	20.156	0.345	-69.657
593.889	0.343	-69.745	0.938	20.067	0.938	20.067	0.343	-69.745
596.358	0.342	-69.832	0.939	19.979	0.939	19.979	0.342	-69.832
598.828	0.34	-69.919	0.939	19.891	0.939	19.891	0.34	-69.919
601.297	0.339	-70.006	0.94	19.804	0.94	19.804	0.339	-70.006
603.767	0.337	-70.091	0.94	19.717	0.94	19.717	0.337	-70.091
606.236	0.336	-70.177	0.941	19.631	0.941	19.631	0.336	-70.177
608.705	0.335	-70.261	0.941	19.545	0.941	19.545	0.335	-70.261
611.175	0.333	-70.345	0.942	19.46	0.942	19.46	0.333	-70.345
613.644	0.332	-70.429	0.942	19.376	0.942	19.376	0.332	-70.429
616.114	0.33	-70.512	0.943	19.292	0.943	19.292	0.33	-70.512
618.583	0.329	-70.594	0.943	19.208	0.943	19.208	0.329	-70.594
621.053	0.328	-70.676	0.944	19.126	0.944	19.126	0.328	-70.676
623.522	0.326	-70.758	0.944	19.043	0.944	19.043	0.326	-70.758
625.992	0.325	-70.839	0.945	18.962	0.945	18.962	0.325	-70.839
628.461	0.324	-70.919	0.945	18.88	0.945	18.88	0.324	-70.919
630.93	0.322	-70.999	0.946	18.8	0.946	18.8	0.322	-70.999
633.4	0.321	-71.078	0.946	18.719	0.946	18.719	0.321	-71.078
635.869	0.32	-71.157	0.946	18.639	0.946	18.639	0.32	-71.157
638.339	0.318	-71.235	0.947	18.56	0.947	18.56	0.318	-71.235
640.808	0.317	-71.313	0.947	18.481	0.947	18.481	0.317	-71.313
643.278	0.316	-71.39	0.948	18.403	0.948	18.403	0.316	-71.39
645.747	0.314	-71.467	0.948	18.325	0.948	18.325	0.314	-71.467
648.217	0.313	-71.544	0.949	18.248	0.949	18.248	0.313	-71.544
650.686	0.312	-71.62	0.949	18.171	0.949	18.171	0.312	-71.62
653.155	0.311	-71.695	0.949	18.095	0.949	18.095	0.311	-71.695
655.625	0.309	-71.77	0.95	18.019	0.95	18.019	0.309	-71.77
658.094	0.308	-71.844	0.95	17.943	0.95	17.943	0.308	-71.844
660.564	0.307	-71.918	0.951	17.868	0.951	17.868	0.307	-71.918
663.033	0.306	-71.992	0.951	17.794	0.951	17.794	0.306	-71.992
665.503	0.304	-72.065	0.951	17.72	0.951	17.72	0.304	-72.065
667.972	0.303	-72.138	0.952	17.646	0.952	17.646	0.303	-72.138
670.442	0.302	-72.21	0.952	17.573	0.952	17.573	0.302	-72.21
672.911	0.301	-72.282	0.953	17.5	0.953	17.5	0.301	-72.282
675.38	0.3	-72.353	0.953	17.428	0.953	17.428	0.3	-72.353
677.85	0.298	-72.424	0.953	17.356	0.953	17.356	0.298	-72.424
680.319	0.297	-72.495	0.954	17.284	0.954	17.284	0.297	-72.495
682.789	0.296	-72.565	0.954	17.213	0.954	17.213	0.296	-72.565
685.258	0.295	-72.635	0.954	17.142	0.954	17.142	0.295	-72.635
687.728	0.294	-72.704	0.955	17.072	0.955	17.072	0.294	-72.704
690.197	0.292	-72.773	0.955	17.002	0.955	17.002	0.292	-72.773
692.667	0.291	-72.842	0.955	16.933	0.955	16.933	0.291	-72.842
695.136	0.29	-72.91	0.956	16.864	0.956	16.864	0.29	-72.91
697.605	0.289	-72.977	0.956	16.795	0.956	16.795	0.289	-72.977
700.075	0.288	-73.045	0.957	16.727	0.957	16.727	0.288	-73.045
702.544	0.287	-73.112	0.957	16.659	0.957	16.659	0.287	-73.112
705.014	0.286	-73.178	0.957	16.591	0.957	16.591	0.286	-73.178
707.483	0.284	-73.244	0.958	16.524	0.958	16.524	0.284	-73.244
709.953	0.283	-73.31	0.958	16.458	0.958	16.458	0.283	-73.31
712.422	0.282	-73.375	0.958	16.391	0.958	16.391	0.282	-73.375
714.891	0.281	-73.44	0.959	16.325	0.959	16.325	0.281	-73.44
717.361	0.28	-73.505	0.959	16.26	0.959	16.26	0.28	-73.505
719.83	0.279	-73.569	0.959	16.194	0.959	16.194	0.279	-73.569
722.3	0.278	-73.633	0.959	16.129	0.959	16.129	0.278	-73.633
724.769	0.277	-73.697	0.96	16.065	0.96	16.065	0.277	-73.697
727.239	0.276	-73.76	0.96	16.001	0.96	16.001	0.276	-73.76
729.708	0.275	-73.823	0.96	15.937	0.96	15.937	0.275	-73.823
732.178	0.274	-73.885	0.961	15.873	0.961	15.873	0.274	-73.885
734.647	0.272	-73.947	0.961	15.81	0.961	15.81	0.272	-73.947
737.116	0.271	-74.009	0.961	15.747	0.961	15.747	0.271	-74.009
739.586	0.27	-74.071	0.962	15.685	0.962	15.685	0.27	-74.071
742.055	0.269	-74.132	0.962	15.623	0.962	15.623	0.269	-74.132
744.525	0.268	-74.192	0.962	15.561	0.962	15.561	0.268	-74.192
746.994	0.267	-74.253	0.962	15.499	0.962	15.499	0.267	-74.253
749.464	0.266	-74.313	0.963	15.438	0.963	15.438	0.266	-74.313
751.933	0.265	-74.373	0.963	15.377	0.963	15.377	0.265	-74.373
754.403	0.264	-74.432	0.963	15.317	0.963	15.317	0.264	-74.432
756.872	0.263	-74.491	0.964	15.257	0.964	15.257	0.263	-74.491
759.341	0.262	-74.55	0.964	15.197	0.964	15.197	0.262	-74.55
761.811	0.261	-74.609	0.964	15.137	0.964	15.137	0.261	-74.609
764.28	0.26	-74.667	0.964	15.078	0.964	15.078	0.26	-74.667
766.75	0.259	-74.725	0.965	15.019	0.965	15.019	0.259	-74.725
769.219	0.258	-74.782	0.965	14.96	0.965	14.96	0.258	-74.782
771.689	0.257	-74.84	0.965	14.902	0.965	14.902	0.257	-74.84
774.158	0.256	-74.897	0.965	14.844	0.965	14.844	0.256	-74.897
776.628	0.255	-74.953	0.966	14.786	0.966	14.786	0.255	-74.953
779.097	0.254	-75.01	0.966	14.729	0.966	14.729	0.254	-75.01
781.566	0.253	-75.066	0.966	14.672	0.966	14.672	0.253	-75.066
784.036	0.252	-75.122	0.966	14.615	0.966	14.615	0.252	-75.122
786.505	0.251	-75.177	0.967	14.558	0.967	14.558	0.251	-75.177
788.975	0.25	-75.232	0.967	14.502	0.967	14.502	0.25	-75.232
791.444	0.249	-75.287	0.967	14.446	0.967	14.446	0.249	-75.287
793.914	0.249	-75.342	0.967	14.39	0.967	14.39	0.249	-75.342
796.383	0.248	-75.396	0.968	14.335	0.968	14.335	0.248	-75.396
798.853	0.247	-75.45	0.968	14.28	0.968	14.28	0.247	-75.45
801.322	0.246	-75.504	0.968	14.225	0.968	14.225	0.246	-75.504
803.791	0.245	-75.558	0.968	14.17	0.968	14.17	0.245	-75.558
806.261	0.244	-75.611	0.969	14.116	0.969	14.116	0.244	-75.611
808.73	0.243	-75.664	0.969	14.062	0.969	14.062	0.243	-75.664
811.2	0.242	-75.716	0.969	14.008	0.969	14.008	0.242	-75.716
813.669	0.241	-75.769	0.969	13.955	0.969	13.955	0.241	-75.769
816.139	0.24	-75.821	0.97	13.901	0.97	13.901	0.24	-75.821
818.608	0.239	-75.873	0.97	13.848	0.97	13.848	0.239	-75.873
821.078	0.238	-75.925	0.97	13.796	0.97	13.796	0.238	-75.925
823.547	0.238	-75.976	0.97	13.743	0.97	13.743	0.238	-75.976
826.016	0.237	-76.027	0.97	13.691	0.97	13.691	0.237	-76.027
828.486	0.236	-76.078	0.971	13.639	0.971	13.639	0.236	-76.078
830.955	0.235	-76.129	0.971	13.587	0.971	13.587	0.235	-76.129
833.425	0.234	-76.179	0.971	13.536	0.971	13.536	0.234	-76.179
835.894	0.233	-76.229	0.971	13.484	0.971	13.484	0.233	-76.229
838.364	0.232	-76.279	0.971	13.433	0.971	13.433	0.232	-76.279
840.833	0.231	-76.329	0.972	13.382	0.972	13.382	0.231	-76.329
843.303	0.231	-76.378	0.972	13.332	0.972	13.332	0.231	-76.378
845.772	0.23	-76.427	0.972	13.282	0.972	13.282	0.23	-76.427
848.241	0.229	-76.476	0.972	13.232	0.972	13.232	0.229	-76.476
850.711	0.228	-76.525	0.972	13.182	0.972	13.182	0.228	-76.525
853.18	0.227	-76.574	0.973	13.132	0.973	13.132	0.227	-76.574
855.65	0.226	-76.622	0.973	13.083	0.973	13.083	0.226	-76.622
858.119	0.226	-76.67	0.973	13.034	0.973	13.034	0.226	-76.67
860.589	0.225	-76.717	0.973	12.985	0.973	12.985	0.225	-76.717
863.058	0.224	-76.765	0.973	12.936	0.973	12.936	0.224	-76.765
865.528	0.223	-76.812	0.974	12.887	0.974	12.887	0.223	-76.812
867.997	0.222	-76.859	0.974	12.839	0.974	12.839	0.222	-76.859
870.466	0.221	-76.906	0.974	12.791	0.974	12.791	0.221	-76.906
872.936	0.221	-76.953	0.974	12.743	0.974	12.743	0.221	-76.953
875.405	0.22	-76.999	0.974	12.696	0.974	12.696	0.22	-76.999
877.875	0.219	-77.046	0.975	12.648	0.975	12.648	0.219	-77.046
880.344	0.218	-77.092	0.975	12.601	0.975	12.601	0.218	-77.092
882.814	0.217	-77.137	0.975	12.554	0.975	12.554	0.217	-77.137
885.283	0.217	-77.183	0.975	12.507	0.975	12.507	0.217	-77.183
887.753	0.216	-77.228	0.975	12.461	0.975	12.461	0.216	-77.228
890.222	0.215	-77.273	0.975	12.414	0.975	12.414	0.215	-77.273
892.691	0.214	-77.318	0.976	12.368	0.976	12.368	0.214	-77.318
