! AVX Thin Film Operation		Date: April 2012 
! Description: Accu-P® Series, Thin Film, SMD, RF Capacitor
! Part Number: 08051J4R3ABTTR					
!	100	MHz	-	10.05	GHz			
!	Serial	Measurements						
!								
#	MHZ	S	MA	R	50			
!	S11	S21	S12	S22				
!	dB	Phase	dB	Phase	dB	Phase	dB	Phase
100	0.965	-15.136	0.261	74.841	0.261	74.841	0.965	-15.136
102.469	0.964	-15.493	0.267	74.483	0.267	74.483	0.964	-15.493
104.939	0.962	-15.849	0.273	74.127	0.273	74.127	0.962	-15.849
107.408	0.96	-16.203	0.279	73.771	0.279	73.771	0.96	-16.203
109.878	0.958	-16.557	0.285	73.417	0.285	73.417	0.958	-16.557
112.347	0.957	-16.909	0.291	73.065	0.291	73.065	0.957	-16.909
114.817	0.955	-17.26	0.297	72.713	0.297	72.713	0.955	-17.26
117.286	0.953	-17.61	0.303	72.363	0.303	72.363	0.953	-17.61
119.756	0.951	-17.958	0.308	72.014	0.308	72.014	0.951	-17.958
122.225	0.949	-18.305	0.314	71.666	0.314	71.666	0.949	-18.305
124.694	0.947	-18.651	0.32	71.32	0.32	71.32	0.947	-18.651
127.164	0.945	-18.996	0.325	70.975	0.325	70.975	0.945	-18.996
129.633	0.943	-19.339	0.331	70.631	0.331	70.631	0.943	-19.339
132.103	0.941	-19.68	0.337	70.289	0.337	70.289	0.941	-19.68
134.572	0.939	-20.021	0.342	69.948	0.342	69.948	0.939	-20.021
137.042	0.937	-20.36	0.348	69.608	0.348	69.608	0.937	-20.36
139.511	0.935	-20.698	0.353	69.27	0.353	69.27	0.935	-20.698
141.981	0.933	-21.034	0.359	68.933	0.359	68.933	0.933	-21.034
144.45	0.931	-21.369	0.364	68.598	0.364	68.598	0.931	-21.369
146.919	0.929	-21.702	0.37	68.264	0.37	68.264	0.929	-21.702
149.389	0.927	-22.034	0.375	67.931	0.375	67.931	0.927	-22.034
151.858	0.925	-22.364	0.38	67.6	0.38	67.6	0.925	-22.364
154.328	0.922	-22.693	0.386	67.271	0.386	67.271	0.922	-22.693
156.797	0.92	-23.021	0.391	66.943	0.391	66.943	0.92	-23.021
159.267	0.918	-23.347	0.396	66.616	0.396	66.616	0.918	-23.347
161.736	0.916	-23.671	0.401	66.291	0.401	66.291	0.916	-23.671
164.206	0.913	-23.994	0.407	65.967	0.407	65.967	0.913	-23.994
166.675	0.911	-24.316	0.412	65.645	0.412	65.645	0.911	-24.316
169.144	0.909	-24.636	0.417	65.325	0.417	65.325	0.909	-24.636
171.614	0.906	-24.954	0.422	65.005	0.422	65.005	0.906	-24.954
174.083	0.904	-25.271	0.427	64.688	0.427	64.688	0.904	-25.271
176.553	0.902	-25.587	0.432	64.372	0.432	64.372	0.902	-25.587
179.022	0.899	-25.901	0.437	64.058	0.437	64.058	0.899	-25.901
181.492	0.897	-26.213	0.442	63.745	0.442	63.745	0.897	-26.213
183.961	0.894	-26.523	0.447	63.434	0.447	63.434	0.894	-26.523
186.431	0.892	-26.833	0.451	63.124	0.451	63.124	0.892	-26.833
188.9	0.89	-27.14	0.456	62.816	0.456	62.816	0.89	-27.14
191.369	0.887	-27.446	0.461	62.509	0.461	62.509	0.887	-27.446
193.839	0.885	-27.751	0.466	62.204	0.466	62.204	0.885	-27.751
196.308	0.882	-28.053	0.47	61.901	0.47	61.901	0.882	-28.053
198.778	0.88	-28.355	0.475	61.599	0.475	61.599	0.88	-28.355
201.247	0.877	-28.654	0.48	61.299	0.48	61.299	0.877	-28.654
203.717	0.875	-28.952	0.484	61	0.484	61	0.875	-28.952
206.186	0.872	-29.249	0.489	60.703	0.489	60.703	0.872	-29.249
208.656	0.87	-29.544	0.493	60.408	0.493	60.408	0.87	-29.544
211.125	0.867	-29.837	0.498	60.114	0.498	60.114	0.867	-29.837
213.594	0.864	-30.128	0.502	59.822	0.502	59.822	0.864	-30.128
216.064	0.862	-30.419	0.506	59.531	0.506	59.531	0.862	-30.419
218.533	0.859	-30.707	0.511	59.242	0.511	59.242	0.859	-30.707
221.003	0.857	-30.994	0.515	58.954	0.515	58.954	0.857	-30.994
223.472	0.854	-31.279	0.519	58.669	0.519	58.669	0.854	-31.279
225.942	0.852	-31.563	0.523	58.384	0.523	58.384	0.852	-31.563
228.411	0.849	-31.845	0.528	58.102	0.528	58.102	0.849	-31.845
230.881	0.846	-32.125	0.532	57.821	0.532	57.821	0.846	-32.125
233.35	0.844	-32.404	0.536	57.541	0.536	57.541	0.844	-32.404
235.819	0.841	-32.681	0.54	57.263	0.54	57.263	0.841	-32.681
238.289	0.839	-32.957	0.544	56.987	0.544	56.987	0.839	-32.957
240.758	0.836	-33.231	0.548	56.712	0.548	56.712	0.836	-33.231
243.228	0.833	-33.504	0.552	56.439	0.552	56.439	0.833	-33.504
245.697	0.831	-33.775	0.556	56.168	0.556	56.168	0.831	-33.775
248.167	0.828	-34.044	0.56	55.898	0.56	55.898	0.828	-34.044
250.636	0.825	-34.312	0.564	55.629	0.564	55.629	0.825	-34.312
253.106	0.823	-34.578	0.568	55.363	0.568	55.363	0.823	-34.578
255.575	0.82	-34.843	0.571	55.097	0.571	55.097	0.82	-34.843
258.044	0.817	-35.106	0.575	54.834	0.575	54.834	0.817	-35.106
260.514	0.815	-35.367	0.579	54.572	0.579	54.572	0.815	-35.367
262.983	0.812	-35.627	0.583	54.311	0.583	54.311	0.812	-35.627
265.453	0.81	-35.885	0.586	54.052	0.586	54.052	0.81	-35.885
267.922	0.807	-36.142	0.59	53.795	0.59	53.795	0.807	-36.142
270.392	0.804	-36.398	0.593	53.539	0.593	53.539	0.804	-36.398
272.861	0.802	-36.651	0.597	53.285	0.597	53.285	0.802	-36.651
275.331	0.799	-36.904	0.6	53.032	0.6	53.032	0.799	-36.904
277.8	0.796	-37.154	0.604	52.781	0.604	52.781	0.796	-37.154
280.269	0.794	-37.403	0.607	52.531	0.607	52.531	0.794	-37.403
282.739	0.791	-37.651	0.611	52.283	0.611	52.283	0.791	-37.651
285.208	0.788	-37.897	0.614	52.036	0.614	52.036	0.788	-37.897
287.678	0.786	-38.142	0.618	51.791	0.618	51.791	0.786	-38.142
290.147	0.783	-38.385	0.621	51.547	0.621	51.547	0.783	-38.385
292.617	0.78	-38.627	0.624	51.305	0.624	51.305	0.78	-38.627
295.086	0.778	-38.867	0.628	51.064	0.628	51.064	0.778	-38.867
297.556	0.775	-39.105	0.631	50.825	0.631	50.825	0.775	-39.105
300.025	0.773	-39.342	0.634	50.587	0.634	50.587	0.773	-39.342
302.494	0.77	-39.578	0.637	50.351	0.637	50.351	0.77	-39.578
304.964	0.767	-39.812	0.64	50.116	0.64	50.116	0.767	-39.812
307.433	0.765	-40.045	0.643	49.882	0.643	49.882	0.765	-40.045
309.903	0.762	-40.277	0.646	49.65	0.646	49.65	0.762	-40.277
312.372	0.759	-40.506	0.65	49.42	0.65	49.42	0.759	-40.506
314.842	0.757	-40.735	0.653	49.191	0.653	49.191	0.757	-40.735
317.311	0.754	-40.962	0.656	48.963	0.656	48.963	0.754	-40.962
319.78	0.752	-41.188	0.659	48.737	0.659	48.737	0.752	-41.188
322.25	0.749	-41.412	0.661	48.512	0.661	48.512	0.749	-41.412
324.719	0.747	-41.635	0.664	48.289	0.664	48.289	0.747	-41.635
327.189	0.744	-41.856	0.667	48.067	0.667	48.067	0.744	-41.856
329.658	0.741	-42.076	0.67	47.846	0.67	47.846	0.741	-42.076
332.128	0.739	-42.295	0.673	47.627	0.673	47.627	0.739	-42.295
334.597	0.736	-42.512	0.676	47.409	0.676	47.409	0.736	-42.512
337.067	0.734	-42.728	0.679	47.193	0.679	47.193	0.734	-42.728
339.536	0.731	-42.942	0.681	46.978	0.681	46.978	0.731	-42.942
342.005	0.729	-43.156	0.684	46.764	0.684	46.764	0.729	-43.156
344.475	0.726	-43.367	0.687	46.551	0.687	46.551	0.726	-43.367
346.944	0.723	-43.578	0.689	46.34	0.689	46.34	0.723	-43.578
349.414	0.721	-43.787	0.692	46.13	0.692	46.13	0.721	-43.787
351.883	0.718	-43.995	0.695	45.922	0.695	45.922	0.718	-43.995
354.353	0.716	-44.201	0.697	45.715	0.697	45.715	0.716	-44.201
356.822	0.713	-44.407	0.7	45.509	0.7	45.509	0.713	-44.407
359.292	0.711	-44.611	0.702	45.304	0.702	45.304	0.711	-44.611
361.761	0.708	-44.813	0.705	45.101	0.705	45.101	0.708	-44.813
364.23	0.706	-45.015	0.707	44.899	0.707	44.899	0.706	-45.015
366.7	0.703	-45.215	0.71	44.698	0.71	44.698	0.703	-45.215
369.169	0.701	-45.414	0.712	44.499	0.712	44.499	0.701	-45.414
371.639	0.698	-45.611	0.715	44.301	0.715	44.301	0.698	-45.611
374.108	0.696	-45.807	0.717	44.104	0.717	44.104	0.696	-45.807
376.578	0.694	-46.003	0.719	43.908	0.719	43.908	0.694	-46.003
379.047	0.691	-46.196	0.722	43.714	0.722	43.714	0.691	-46.196
381.517	0.689	-46.389	0.724	43.521	0.724	43.521	0.689	-46.389
383.986	0.686	-46.58	0.726	43.329	0.726	43.329	0.686	-46.58
386.455	0.684	-46.771	0.729	43.138	0.729	43.138	0.684	-46.771
388.925	0.681	-46.96	0.731	42.948	0.731	42.948	0.681	-46.96
391.394	0.679	-47.147	0.733	42.76	0.733	42.76	0.679	-47.147
393.864	0.677	-47.334	0.735	42.572	0.735	42.572	0.677	-47.334
396.333	0.674	-47.52	0.738	42.386	0.738	42.386	0.674	-47.52
398.803	0.672	-47.704	0.74	42.201	0.74	42.201	0.672	-47.704
401.272	0.669	-47.887	0.742	42.018	0.742	42.018	0.669	-47.887
403.742	0.667	-48.069	0.744	41.835	0.744	41.835	0.667	-48.069
406.211	0.665	-48.25	0.746	41.654	0.746	41.654	0.665	-48.25
408.68	0.662	-48.43	0.748	41.473	0.748	41.473	0.662	-48.43
411.15	0.66	-48.608	0.75	41.294	0.75	41.294	0.66	-48.608
413.619	0.658	-48.786	0.752	41.116	0.752	41.116	0.658	-48.786
416.089	0.655	-48.962	0.754	40.939	0.754	40.939	0.655	-48.962
418.558	0.653	-49.137	0.756	40.763	0.756	40.763	0.653	-49.137
421.028	0.651	-49.311	0.758	40.589	0.758	40.589	0.651	-49.311
423.497	0.648	-49.484	0.76	40.415	0.76	40.415	0.648	-49.484
425.967	0.646	-49.656	0.762	40.242	0.762	40.242	0.646	-49.656
428.436	0.644	-49.827	0.764	40.071	0.764	40.071	0.644	-49.827
430.905	0.641	-49.997	0.766	39.9	0.766	39.9	0.641	-49.997
433.375	0.639	-50.166	0.768	39.731	0.768	39.731	0.639	-50.166
435.844	0.637	-50.334	0.77	39.563	0.77	39.563	0.637	-50.334
438.314	0.635	-50.5	0.772	39.395	0.772	39.395	0.635	-50.5
440.783	0.632	-50.666	0.773	39.229	0.773	39.229	0.632	-50.666
443.253	0.63	-50.83	0.775	39.064	0.775	39.064	0.63	-50.83
445.722	0.628	-50.994	0.777	38.9	0.777	38.9	0.628	-50.994
448.192	0.626	-51.157	0.779	38.736	0.779	38.736	0.626	-51.157
450.661	0.624	-51.318	0.781	38.574	0.781	38.574	0.624	-51.318
453.13	0.621	-51.479	0.782	38.413	0.782	38.413	0.621	-51.479
455.6	0.619	-51.638	0.784	38.253	0.784	38.253	0.619	-51.638
458.069	0.617	-51.797	0.786	38.093	0.786	38.093	0.617	-51.797
460.539	0.615	-51.955	0.788	37.935	0.788	37.935	0.615	-51.955
463.008	0.613	-52.111	0.789	37.778	0.789	37.778	0.613	-52.111
465.478	0.61	-52.267	0.791	37.622	0.791	37.622	0.61	-52.267
467.947	0.608	-52.422	0.793	37.466	0.793	37.466	0.608	-52.422
470.417	0.606	-52.576	0.794	37.312	0.794	37.312	0.606	-52.576
472.886	0.604	-52.729	0.796	37.158	0.796	37.158	0.604	-52.729
475.355	0.602	-52.88	0.797	37.006	0.797	37.006	0.602	-52.88
477.825	0.6	-53.031	0.799	36.854	0.799	36.854	0.6	-53.031
480.294	0.598	-53.182	0.801	36.703	0.801	36.703	0.598	-53.182
482.764	0.596	-53.331	0.802	36.553	0.802	36.553	0.596	-53.331
485.233	0.593	-53.479	0.804	36.405	0.804	36.405	0.593	-53.479
487.703	0.591	-53.626	0.805	36.257	0.805	36.257	0.591	-53.626
490.172	0.589	-53.773	0.807	36.109	0.807	36.109	0.589	-53.773
492.642	0.587	-53.919	0.808	35.963	0.808	35.963	0.587	-53.919
495.111	0.585	-54.063	0.81	35.818	0.81	35.818	0.585	-54.063
497.58	0.583	-54.207	0.811	35.673	0.811	35.673	0.583	-54.207
500.05	0.581	-54.35	0.813	35.53	0.813	35.53	0.581	-54.35
502.519	0.579	-54.492	0.814	35.387	0.814	35.387	0.579	-54.492
504.989	0.577	-54.634	0.815	35.245	0.815	35.245	0.577	-54.634
507.458	0.575	-54.774	0.817	35.104	0.817	35.104	0.575	-54.774
509.928	0.573	-54.914	0.818	34.964	0.818	34.964	0.573	-54.914
512.397	0.571	-55.052	0.82	34.824	0.82	34.824	0.571	-55.052
514.867	0.569	-55.19	0.821	34.686	0.821	34.686	0.569	-55.19
517.336	0.567	-55.327	0.822	34.548	0.822	34.548	0.567	-55.327
519.805	0.565	-55.464	0.824	34.411	0.824	34.411	0.565	-55.464
522.275	0.563	-55.599	0.825	34.275	0.825	34.275	0.563	-55.599
524.744	0.561	-55.734	0.826	34.139	0.826	34.139	0.561	-55.734
527.214	0.559	-55.868	0.828	34.005	0.828	34.005	0.559	-55.868
529.683	0.557	-56.001	0.829	33.871	0.829	33.871	0.557	-56.001
532.153	0.555	-56.133	0.83	33.738	0.83	33.738	0.555	-56.133
534.622	0.553	-56.265	0.832	33.606	0.832	33.606	0.553	-56.265
537.092	0.552	-56.396	0.833	33.474	0.833	33.474	0.552	-56.396
539.561	0.55	-56.526	0.834	33.344	0.834	33.344	0.55	-56.526
542.03	0.548	-56.655	0.835	33.214	0.835	33.214	0.548	-56.655
544.5	0.546	-56.784	0.837	33.085	0.837	33.085	0.546	-56.784
546.969	0.544	-56.911	0.838	32.956	0.838	32.956	0.544	-56.911
549.439	0.542	-57.038	0.839	32.829	0.839	32.829	0.542	-57.038
551.908	0.54	-57.165	0.84	32.702	0.84	32.702	0.54	-57.165
554.378	0.538	-57.29	0.841	32.575	0.841	32.575	0.538	-57.29
556.847	0.537	-57.415	0.843	32.45	0.843	32.45	0.537	-57.415
559.317	0.535	-57.539	0.844	32.325	0.844	32.325	0.535	-57.539
561.786	0.533	-57.663	0.845	32.201	0.845	32.201	0.533	-57.663
564.255	0.531	-57.785	0.846	32.078	0.846	32.078	0.531	-57.785
566.725	0.529	-57.907	0.847	31.955	0.847	31.955	0.529	-57.907
569.194	0.527	-58.029	0.848	31.833	0.848	31.833	0.527	-58.029
571.664	0.526	-58.149	0.849	31.712	0.849	31.712	0.526	-58.149
574.133	0.524	-58.269	0.851	31.591	0.851	31.591	0.524	-58.269
576.603	0.522	-58.388	0.852	31.471	0.852	31.471	0.522	-58.388
579.072	0.52	-58.507	0.853	31.352	0.853	31.352	0.52	-58.507
581.542	0.519	-58.625	0.854	31.234	0.854	31.234	0.519	-58.625
584.011	0.517	-58.742	0.855	31.116	0.855	31.116	0.517	-58.742
586.48	0.515	-58.859	0.856	30.998	0.856	30.998	0.515	-58.859
588.95	0.513	-58.975	0.857	30.882	0.857	30.882	0.513	-58.975
591.419	0.512	-59.09	0.858	30.766	0.858	30.766	0.512	-59.09
593.889	0.51	-59.205	0.859	30.651	0.859	30.651	0.51	-59.205
596.358	0.508	-59.319	0.86	30.536	0.86	30.536	0.508	-59.319
598.828	0.506	-59.432	0.861	30.422	0.861	30.422	0.506	-59.432
601.297	0.505	-59.545	0.862	30.308	0.862	30.308	0.505	-59.545
603.767	0.503	-59.657	0.863	30.196	0.863	30.196	0.503	-59.657
606.236	0.501	-59.768	0.864	30.084	0.864	30.084	0.501	-59.768
608.705	0.5	-59.879	0.865	29.972	0.865	29.972	0.5	-59.879
611.175	0.498	-59.989	0.866	29.861	0.866	29.861	0.498	-59.989
613.644	0.496	-60.099	0.867	29.751	0.867	29.751	0.496	-60.099
616.114	0.495	-60.208	0.868	29.641	0.868	29.641	0.495	-60.208
618.583	0.493	-60.316	0.869	29.532	0.869	29.532	0.493	-60.316
621.053	0.491	-60.424	0.87	29.423	0.87	29.423	0.491	-60.424
623.522	0.49	-60.532	0.871	29.315	0.871	29.315	0.49	-60.532
625.992	0.488	-60.638	0.872	29.208	0.872	29.208	0.488	-60.638
628.461	0.486	-60.744	0.872	29.101	0.872	29.101	0.486	-60.744
630.93	0.485	-60.85	0.873	28.995	0.873	28.995	0.485	-60.85
633.4	0.483	-60.955	0.874	28.89	0.874	28.89	0.483	-60.955
635.869	0.482	-61.059	0.875	28.784	0.875	28.784	0.482	-61.059
638.339	0.48	-61.163	0.876	28.68	0.876	28.68	0.48	-61.163
640.808	0.478	-61.266	0.877	28.576	0.877	28.576	0.478	-61.266
643.278	0.477	-61.369	0.878	28.473	0.878	28.473	0.477	-61.369
645.747	0.475	-61.471	0.879	28.37	0.879	28.37	0.475	-61.471
648.217	0.474	-61.573	0.879	28.267	0.879	28.267	0.474	-61.573
650.686	0.472	-61.674	0.88	28.166	0.88	28.166	0.472	-61.674
653.155	0.47	-61.775	0.881	28.064	0.881	28.064	0.47	-61.775
655.625	0.469	-61.875	0.882	27.964	0.882	27.964	0.469	-61.875
658.094	0.467	-61.974	0.883	27.864	0.883	27.864	0.467	-61.974
660.564	0.466	-62.073	0.884	27.764	0.884	27.764	0.466	-62.073
663.033	0.464	-62.171	0.884	27.665	0.884	27.665	0.464	-62.171
665.503	0.463	-62.269	0.885	27.566	0.885	27.566	0.463	-62.269
667.972	0.461	-62.367	0.886	27.468	0.886	27.468	0.461	-62.367
670.442	0.46	-62.464	0.887	27.37	0.887	27.37	0.46	-62.464
672.911	0.458	-62.56	0.887	27.273	0.887	27.273	0.458	-62.56
675.38	0.457	-62.656	0.888	27.177	0.888	27.177	0.457	-62.656
677.85	0.455	-62.751	0.889	27.081	0.889	27.081	0.455	-62.751
680.319	0.454	-62.846	0.89	26.985	0.89	26.985	0.454	-62.846
682.789	0.452	-62.941	0.891	26.89	0.891	26.89	0.452	-62.941
685.258	0.451	-63.035	0.891	26.795	0.891	26.795	0.451	-63.035
687.728	0.449	-63.128	0.892	26.701	0.892	26.701	0.449	-63.128
690.197	0.448	-63.221	0.893	26.608	0.893	26.608	0.448	-63.221
692.667	0.446	-63.313	0.893	26.514	0.893	26.514	0.446	-63.313
695.136	0.445	-63.405	0.894	26.422	0.894	26.422	0.445	-63.405
697.605	0.444	-63.497	0.895	26.329	0.895	26.329	0.444	-63.497
700.075	0.442	-63.588	0.896	26.238	0.896	26.238	0.442	-63.588
702.544	0.441	-63.679	0.896	26.146	0.896	26.146	0.441	-63.679
705.014	0.439	-63.769	0.897	26.056	0.897	26.056	0.439	-63.769
707.483	0.438	-63.859	0.898	25.965	0.898	25.965	0.438	-63.859
709.953	0.436	-63.948	0.898	25.875	0.898	25.875	0.436	-63.948
712.422	0.435	-64.037	0.899	25.786	0.899	25.786	0.435	-64.037
714.891	0.434	-64.125	0.9	25.697	0.9	25.697	0.434	-64.125
717.361	0.432	-64.213	0.9	25.608	0.9	25.608	0.432	-64.213
719.83	0.431	-64.3	0.901	25.52	0.901	25.52	0.431	-64.3
722.3	0.429	-64.387	0.902	25.432	0.902	25.432	0.429	-64.387
724.769	0.428	-64.474	0.902	25.345	0.902	25.345	0.428	-64.474
727.239	0.427	-64.56	0.903	25.258	0.903	25.258	0.427	-64.56
729.708	0.425	-64.646	0.904	25.171	0.904	25.171	0.425	-64.646
732.178	0.424	-64.731	0.904	25.085	0.904	25.085	0.424	-64.731
734.647	0.423	-64.816	0.905	25	0.905	25	0.423	-64.816
737.116	0.421	-64.901	0.906	24.915	0.906	24.915	0.421	-64.901
739.586	0.42	-64.985	0.906	24.83	0.906	24.83	0.42	-64.985
742.055	0.419	-65.068	0.907	24.745	0.907	24.745	0.419	-65.068
744.525	0.417	-65.152	0.907	24.661	0.907	24.661	0.417	-65.152
746.994	0.416	-65.234	0.908	24.578	0.908	24.578	0.416	-65.234
749.464	0.415	-65.317	0.909	24.495	0.909	24.495	0.415	-65.317
751.933	0.413	-65.399	0.909	24.412	0.909	24.412	0.413	-65.399
754.403	0.412	-65.481	0.91	24.33	0.91	24.33	0.412	-65.481
756.872	0.411	-65.562	0.91	24.248	0.91	24.248	0.411	-65.562
759.341	0.409	-65.643	0.911	24.166	0.911	24.166	0.409	-65.643
761.811	0.408	-65.723	0.912	24.085	0.912	24.085	0.408	-65.723
764.28	0.407	-65.803	0.912	24.004	0.912	24.004	0.407	-65.803
766.75	0.406	-65.883	0.913	23.924	0.913	23.924	0.406	-65.883
769.219	0.404	-65.962	0.913	23.844	0.913	23.844	0.404	-65.962
771.689	0.403	-66.041	0.914	23.764	0.914	23.764	0.403	-66.041
774.158	0.402	-66.12	0.914	23.685	0.914	23.685	0.402	-66.12
776.628	0.4	-66.198	0.915	23.606	0.915	23.606	0.4	-66.198
779.097	0.399	-66.276	0.915	23.527	0.915	23.527	0.399	-66.276
781.566	0.398	-66.353	0.916	23.449	0.916	23.449	0.398	-66.353
784.036	0.397	-66.43	0.917	23.371	0.917	23.371	0.397	-66.43
786.505	0.395	-66.507	0.917	23.294	0.917	23.294	0.395	-66.507
788.975	0.394	-66.583	0.918	23.216	0.918	23.216	0.394	-66.583
791.444	0.393	-66.659	0.918	23.14	0.918	23.14	0.393	-66.659
793.914	0.392	-66.735	0.919	23.063	0.919	23.063	0.392	-66.735
796.383	0.391	-66.81	0.919	22.987	0.919	22.987	0.391	-66.81
798.853	0.389	-66.885	0.92	22.912	0.92	22.912	0.389	-66.885
801.322	0.388	-66.96	0.92	22.836	0.92	22.836	0.388	-66.96
803.791	0.387	-67.034	0.921	22.761	0.921	22.761	0.387	-67.034
806.261	0.386	-67.108	0.921	22.686	0.921	22.686	0.386	-67.108
808.73	0.384	-67.182	0.922	22.612	0.922	22.612	0.384	-67.182
811.2	0.383	-67.255	0.922	22.538	0.922	22.538	0.383	-67.255
813.669	0.382	-67.328	0.923	22.464	0.923	22.464	0.382	-67.328
816.139	0.381	-67.401	0.923	22.391	0.923	22.391	0.381	-67.401
818.608	0.38	-67.473	0.924	22.318	0.924	22.318	0.38	-67.473
821.078	0.379	-67.545	0.924	22.245	0.924	22.245	0.379	-67.545
823.547	0.377	-67.616	0.925	22.173	0.925	22.173	0.377	-67.616
826.016	0.376	-67.688	0.925	22.101	0.925	22.101	0.376	-67.688
828.486	0.375	-67.759	0.926	22.029	0.926	22.029	0.375	-67.759
830.955	0.374	-67.829	0.926	21.958	0.926	21.958	0.374	-67.829
833.425	0.373	-67.9	0.927	21.887	0.927	21.887	0.373	-67.9
835.894	0.372	-67.97	0.927	21.816	0.927	21.816	0.372	-67.97
838.364	0.37	-68.039	0.927	21.746	0.927	21.746	0.37	-68.039
840.833	0.369	-68.109	0.928	21.675	0.928	21.675	0.369	-68.109
843.303	0.368	-68.178	0.928	21.606	0.928	21.606	0.368	-68.178
845.772	0.367	-68.246	0.929	21.536	0.929	21.536	0.367	-68.246
848.241	0.366	-68.315	0.929	21.467	0.929	21.467	0.366	-68.315
850.711	0.365	-68.383	0.93	21.398	0.93	21.398	0.365	-68.383
853.18	0.364	-68.451	0.93	21.329	0.93	21.329	0.364	-68.451
855.65	0.363	-68.518	0.931	21.261	0.931	21.261	0.363	-68.518
858.119	0.362	-68.586	0.931	21.193	0.931	21.193	0.362	-68.586
860.589	0.36	-68.653	0.931	21.125	0.931	21.125	0.36	-68.653
863.058	0.359	-68.719	0.932	21.058	0.932	21.058	0.359	-68.719
865.528	0.358	-68.786	0.932	20.991	0.932	20.991	0.358	-68.786
867.997	0.357	-68.852	0.933	20.924	0.933	20.924	0.357	-68.852
870.466	0.356	-68.918	0.933	20.857	0.933	20.857	0.356	-68.918
872.936	0.355	-68.983	0.933	20.791	0.933	20.791	0.355	-68.983
875.405	0.354	-69.048	0.934	20.725	0.934	20.725	0.354	-69.048
877.875	0.353	-69.113	0.934	20.659	0.934	20.659	0.353	-69.113
880.344	0.352	-69.178	0.935	20.593	0.935	20.593	0.352	-69.178
882.814	0.351	-69.242	0.935	20.528	0.935	20.528	0.351	-69.242
885.283	0.35	-69.307	0.935	20.463	0.935	20.463	0.35	-69.307
887.753	0.349	-69.37	0.936	20.399	0.936	20.399	0.349	-69.37
890.222	0.348	-69.434	0.936	20.334	0.936	20.334	0.348	-69.434
892.691	0.346	-69.497	0.937	20.27	0.937	20.27	0.346	-69.497
895.161	0.345	-69.56	0.937	20.206	0.937	20.206	0.345	-69.56
