! AVX Thin Film Operation		Date: April 2012 
! Description: Accu-P® Series, Thin Film, SMD, RF Capacitor
! Part Number: 08051J4R0ABTTR					
!	100	MHz	-	20.05	GHz			
!	Serial	Measurements						
!								
#	MHZ	S	MA	R	50			
!	S11	S21	S12	S22				
!	dB	Phase	dB	Phase	dB	Phase	dB	Phase
50 0.992 -7.163 0.125 82.764 0.125 82.764 0.992 -7.163
100 0.969 -14.119 0.244 75.794 0.244 75.794 0.969 -14.119
150 0.935 -20.694 0.353 69.204 0.353 69.204 0.935 -20.694
200 0.892 -26.773 0.45 63.11 0.45 63.11 0.892 -26.773
250 0.844 -32.298 0.534 57.57 0.534 57.57 0.844 -32.298
300 0.794 -37.26 0.605 52.592 0.605 52.592 0.794 -37.26
350 0.745 -41.683 0.665 48.153 0.665 48.153 0.745 -41.683
400 0.697 -45.613 0.715 44.207 0.715 44.207 0.697 -45.613
450 0.652 -49.101 0.756 40.703 0.756 40.703 0.652 -49.101
500 0.61 -52.199 0.79 37.588 0.79 37.588 0.61 -52.199
550 0.571 -54.959 0.819 34.811 0.819 34.811 0.571 -54.959
600 0.535 -57.425 0.843 32.328 0.843 32.328 0.535 -57.425
650 0.501 -59.637 0.863 30.098 0.863 30.098 0.501 -59.637
700 0.471 -61.628 0.88 28.088 0.88 28.088 0.471 -61.628
750 0.443 -63.43 0.894 26.267 0.894 26.267 0.443 -63.43
800 0.416 -65.065 0.907 24.612 0.907 24.612 0.416 -65.065
850 0.392 -66.557 0.917 23.101 0.917 23.101 0.392 -66.557
900 0.37 -67.921 0.927 21.715 0.927 21.715 0.37 -67.921
950 0.349 -69.175 0.935 20.439 0.935 20.439 0.349 -69.175
1000 0.33 -70.332 0.942 19.26 0.942 19.26 0.33 -70.332
1050 0.312 -71.401 0.948 18.167 0.948 18.167 0.312 -71.401
1100 0.295 -72.394 0.953 17.15 0.953 17.15 0.295 -72.394
1150 0.279 -73.317 0.958 16.2 0.958 16.2 0.279 -73.317
1200 0.264 -74.179 0.962 15.311 0.962 15.311 0.264 -74.179
1250 0.25 -74.986 0.966 14.476 0.966 14.476 0.25 -74.986
1300 0.237 -75.742 0.969 13.69 0.969 13.69 0.237 -75.742
1350 0.224 -76.453 0.972 12.948 0.972 12.948 0.224 -76.453
1400 0.212 -77.122 0.975 12.245 0.975 12.245 0.212 -77.122
1450 0.201 -77.753 0.977 11.579 0.977 11.579 0.201 -77.753
1500 0.19 -78.349 0.979 10.945 0.979 10.945 0.19 -78.349
1550 0.18 -78.912 0.981 10.342 0.981 10.342 0.18 -78.912
1600 0.17 -79.446 0.983 9.765 0.983 9.765 0.17 -79.446
1650 0.16 -79.951 0.985 9.214 0.985 9.214 0.16 -79.951
1700 0.151 -80.429 0.986 8.686 0.986 8.686 0.151 -80.429
1750 0.142 -80.882 0.987 8.178 0.987 8.178 0.142 -80.882
1800 0.134 -81.311 0.989 7.691 0.989 7.691 0.134 -81.311
1850 0.126 -81.717 0.99 7.221 0.99 7.221 0.126 -81.717
1900 0.118 -82.099 0.991 6.769 0.991 6.769 0.118 -82.099
1950 0.11 -82.459 0.992 6.331 0.992 6.331 0.11 -82.459
2000 0.103 -82.796 0.992 5.909 0.992 5.909 0.103 -82.796
2050 0.096 -83.11 0.993 5.499 0.993 5.499 0.096 -83.11
2100 0.089 -83.399 0.994 5.103 0.994 5.103 0.089 -83.399
2150 0.082 -83.663 0.994 4.717 0.994 4.717 0.082 -83.663
2200 0.076 -83.899 0.995 4.343 0.995 4.343 0.076 -83.899
2250 0.069 -84.103 0.995 3.979 0.995 3.979 0.069 -84.103
2300 0.063 -84.27 0.996 3.625 0.996 3.625 0.063 -84.27
2350 0.057 -84.395 0.996 3.28 0.996 3.28 0.057 -84.395
2400 0.051 -84.467 0.996 2.943 0.996 2.943 0.051 -84.467
2450 0.046 -84.471 0.997 2.615 0.997 2.615 0.046 -84.471
2500 0.04 -84.386 0.997 2.294 0.997 2.294 0.04 -84.386
2550 0.035 -84.175 0.997 1.98 0.997 1.98 0.035 -84.175
2600 0.029 -83.779 0.997 1.672 0.997 1.672 0.029 -83.779
2650 0.024 -83.089 0.997 1.371 0.997 1.371 0.024 -83.089
2700 0.019 -81.88 0.998 1.077 0.998 1.077 0.019 -81.88
2750 0.014 -79.626 0.998 0.787 0.998 0.787 0.014 -79.626
2800 9.092e-3 -74.706 0.998 0.504 0.998 0.504 9.092e-3 -74.706
2850 4.563e-3 -59.202 0.998 0.225 0.998 0.225 4.563e-3 -59.202
2900 2.471e-3 20.008 0.998 -0.049 0.998 -0.049 2.471e-3 20.008
2950 6.008e-3 66.959 0.998 -0.318 0.998 -0.318 6.008e-3 66.959
3000 0.01 76.548 0.998 -0.582 0.998 -0.582 0.01 76.548
3050 0.015 80.186 0.998 -0.842 0.998 -0.842 0.015 80.186
3100 0.019 81.999 0.997 -1.099 0.997 -1.099 0.019 81.999
3150 0.024 83.026 0.997 -1.351 0.997 -1.351 0.024 83.026
3200 0.028 83.647 0.997 -1.6 0.997 -1.6 0.028 83.647
3250 0.032 84.03 0.997 -1.845 0.997 -1.845 0.032 84.03
3300 0.036 84.265 0.997 -2.087 0.997 -2.087 0.036 84.265
3350 0.041 84.399 0.997 -2.325 0.997 -2.325 0.041 84.399
3400 0.045 84.464 0.997 -2.561 0.997 -2.561 0.045 84.464
3450 0.049 84.478 0.996 -2.793 0.996 -2.793 0.049 84.478
3500 0.053 84.455 0.996 -3.023 0.996 -3.023 0.053 84.455
3550 0.057 84.404 0.996 -3.25 0.996 -3.25 0.057 84.404
3600 0.061 84.33 0.996 -3.474 0.996 -3.474 0.061 84.33
3650 0.065 84.24 0.996 -3.696 0.996 -3.696 0.065 84.24
3700 0.068 84.136 0.995 -3.915 0.995 -3.915 0.068 84.136
3750 0.072 84.02 0.995 -4.132 0.995 -4.132 0.072 84.02
3800 0.076 83.897 0.995 -4.347 0.995 -4.347 0.076 83.897
3850 0.08 83.765 0.995 -4.559 0.995 -4.559 0.08 83.765
3900 0.083 83.629 0.994 -4.77 0.994 -4.77 0.083 83.629
3950 0.087 83.487 0.994 -4.978 0.994 -4.978 0.087 83.487
4000 0.09 83.341 0.994 -5.184 0.994 -5.184 0.09 83.341
4050 0.094 83.192 0.993 -5.389 0.993 -5.389 0.094 83.192
4100 0.097 83.041 0.993 -5.592 0.993 -5.592 0.097 83.041
4150 0.101 82.887 0.993 -5.792 0.993 -5.792 0.101 82.887
4200 0.104 82.731 0.992 -5.992 0.992 -5.992 0.104 82.731
4250 0.108 82.574 0.992 -6.189 0.992 -6.189 0.108 82.574
4300 0.111 82.416 0.991 -6.385 0.991 -6.385 0.111 82.416
4350 0.115 82.256 0.991 -6.579 0.991 -6.579 0.115 82.256
4400 0.118 82.096 0.991 -6.772 0.991 -6.772 0.118 82.096
4450 0.121 81.936 0.99 -6.964 0.99 -6.964 0.121 81.936
4500 0.125 81.775 0.99 -7.153 0.99 -7.153 0.125 81.775
4550 0.128 81.613 0.989 -7.342 0.989 -7.342 0.128 81.613
4600 0.131 81.452 0.989 -7.529 0.989 -7.529 0.131 81.452
4650 0.134 81.29 0.989 -7.715 0.989 -7.715 0.134 81.29
4700 0.137 81.128 0.988 -7.9 0.988 -7.9 0.137 81.128
4750 0.141 80.967 0.988 -8.083 0.988 -8.083 0.141 80.967
4800 0.144 80.805 0.987 -8.265 0.987 -8.265 0.144 80.805
4850 0.147 80.644 0.987 -8.446 0.987 -8.446 0.147 80.644
4900 0.15 80.483 0.986 -8.626 0.986 -8.626 0.15 80.483
4950 0.153 80.322 0.986 -8.805 0.986 -8.805 0.153 80.322
5000 0.156 80.161 0.985 -8.982 0.985 -8.982 0.156 80.161
5050 0.159 80.001 0.985 -9.159 0.985 -9.159 0.159 80.001
5100 0.162 79.841 0.984 -9.334 0.984 -9.334 0.162 79.841
5150 0.165 79.681 0.984 -9.509 0.984 -9.509 0.165 79.681
5200 0.168 79.522 0.983 -9.683 0.983 -9.683 0.168 79.522
5250 0.171 79.363 0.983 -9.855 0.983 -9.855 0.171 79.363
5300 0.174 79.204 0.982 -10.027 0.982 -10.027 0.174 79.204
5350 0.177 79.046 0.982 -10.197 0.982 -10.197 0.177 79.046
5400 0.18 78.889 0.981 -10.367 0.981 -10.367 0.18 78.889
5450 0.183 78.731 0.981 -10.536 0.981 -10.536 0.183 78.731
5500 0.186 78.575 0.98 -10.704 0.98 -10.704 0.186 78.575
5550 0.189 78.418 0.98 -10.871 0.98 -10.871 0.189 78.418
5600 0.191 78.262 0.979 -11.038 0.979 -11.038 0.191 78.262
5650 0.194 78.107 0.979 -11.203 0.979 -11.203 0.194 78.107
5700 0.197 77.952 0.978 -11.368 0.978 -11.368 0.197 77.952
5750 0.2 77.797 0.977 -11.532 0.977 -11.532 0.2 77.797
5800 0.203 77.643 0.977 -11.695 0.977 -11.695 0.203 77.643
5850 0.205 77.489 0.976 -11.858 0.976 -11.858 0.205 77.489
5900 0.208 77.336 0.976 -12.02 0.976 -12.02 0.208 77.336
5950 0.211 77.184 0.975 -12.181 0.975 -12.181 0.211 77.184
6000 0.214 77.031 0.975 -12.341 0.975 -12.341 0.214 77.031
6050 0.216 76.879 0.974 -12.501 0.974 -12.501 0.216 76.879
6100 0.219 76.728 0.973 -12.659 0.973 -12.659 0.219 76.728
6150 0.222 76.577 0.973 -12.818 0.973 -12.818 0.222 76.577
6200 0.225 76.427 0.972 -12.975 0.972 -12.975 0.225 76.427
6250 0.227 76.277 0.972 -13.132 0.972 -13.132 0.227 76.277
6300 0.23 76.127 0.971 -13.289 0.971 -13.289 0.23 76.127
6350 0.233 75.978 0.97 -13.444 0.97 -13.444 0.233 75.978
6400 0.235 75.829 0.97 -13.599 0.97 -13.599 0.235 75.829
6450 0.238 75.681 0.969 -13.754 0.969 -13.754 0.238 75.681
6500 0.24 75.534 0.968 -13.907 0.968 -13.907 0.24 75.534
6550 0.243 75.386 0.968 -14.061 0.968 -14.061 0.243 75.386
6600 0.246 75.239 0.967 -14.213 0.967 -14.213 0.246 75.239
6650 0.248 75.093 0.966 -14.365 0.966 -14.365 0.248 75.093
6700 0.251 74.947 0.966 -14.517 0.966 -14.517 0.251 74.947
6750 0.253 74.801 0.965 -14.668 0.965 -14.668 0.253 74.801
6800 0.256 74.656 0.964 -14.818 0.964 -14.818 0.256 74.656
6850 0.258 74.511 0.964 -14.968 0.964 -14.968 0.258 74.511
6900 0.261 74.367 0.963 -15.117 0.963 -15.117 0.261 74.367
6950 0.263 74.223 0.962 -15.266 0.962 -15.266 0.263 74.223
7000 0.266 74.08 0.962 -15.414 0.962 -15.414 0.266 74.08
7050 0.268 73.937 0.961 -15.562 0.961 -15.562 0.268 73.937
7100 0.271 73.794 0.96 -15.709 0.96 -15.709 0.271 73.794
7150 0.273 73.652 0.96 -15.856 0.96 -15.856 0.273 73.652
7200 0.276 73.51 0.959 -16.002 0.959 -16.002 0.276 73.51
7250 0.278 73.368 0.958 -16.148 0.958 -16.148 0.278 73.368
7300 0.281 73.227 0.957 -16.293 0.957 -16.293 0.281 73.227
7350 0.283 73.087 0.957 -16.438 0.957 -16.438 0.283 73.087
7400 0.285 72.946 0.956 -16.582 0.956 -16.582 0.285 72.946
7450 0.288 72.807 0.955 -16.726 0.955 -16.726 0.288 72.807
7500 0.29 72.667 0.955 -16.869 0.955 -16.869 0.29 72.667
7550 0.293 72.528 0.954 -17.012 0.954 -17.012 0.293 72.528
7600 0.295 72.389 0.953 -17.154 0.953 -17.154 0.295 72.389
7650 0.297 72.251 0.952 -17.296 0.952 -17.296 0.297 72.251
7700 0.3 72.113 0.952 -17.438 0.952 -17.438 0.3 72.113
7750 0.302 71.976 0.951 -17.579 0.951 -17.579 0.302 71.976
7800 0.304 71.838 0.95 -17.719 0.95 -17.719 0.304 71.838
7850 0.307 71.702 0.949 -17.859 0.949 -17.859 0.307 71.702
7900 0.309 71.565 0.949 -17.999 0.949 -17.999 0.309 71.565
7950 0.311 71.429 0.948 -18.138 0.948 -18.138 0.311 71.429
8000 0.314 71.293 0.947 -18.277 0.947 -18.277 0.314 71.293
8050 0.316 71.158 0.946 -18.416 0.946 -18.416 0.316 71.158
8100 0.318 71.023 0.946 -18.554 0.946 -18.554 0.318 71.023
8150 0.32 70.888 0.945 -18.691 0.945 -18.691 0.32 70.888
8200 0.323 70.754 0.944 -18.828 0.944 -18.828 0.323 70.754
8250 0.325 70.62 0.943 -18.965 0.943 -18.965 0.325 70.62
8300 0.327 70.487 0.943 -19.102 0.943 -19.102 0.327 70.487
8350 0.329 70.354 0.942 -19.238 0.942 -19.238 0.329 70.354
8400 0.332 70.221 0.941 -19.373 0.941 -19.373 0.332 70.221
8450 0.334 70.088 0.94 -19.508 0.94 -19.508 0.334 70.088
8500 0.336 69.956 0.939 -19.643 0.939 -19.643 0.336 69.956
8550 0.338 69.824 0.939 -19.777 0.939 -19.777 0.338 69.824
8600 0.341 69.693 0.938 -19.911 0.938 -19.911 0.341 69.693
8650 0.343 69.562 0.937 -20.045 0.937 -20.045 0.343 69.562
8700 0.345 69.431 0.936 -20.178 0.936 -20.178 0.345 69.431
8750 0.347 69.301 0.935 -20.311 0.935 -20.311 0.347 69.301
8800 0.349 69.171 0.935 -20.444 0.935 -20.444 0.349 69.171
8850 0.351 69.041 0.934 -20.576 0.934 -20.576 0.351 69.041
8900 0.354 68.912 0.933 -20.707 0.933 -20.707 0.354 68.912
8950 0.356 68.783 0.932 -20.839 0.932 -20.839 0.356 68.783
9000 0.358 68.654 0.931 -20.97 0.931 -20.97 0.358 68.654
9050 0.36 68.525 0.931 -21.1 0.931 -21.1 0.36 68.525
9100 0.362 68.397 0.93 -21.231 0.93 -21.231 0.362 68.397
9150 0.364 68.27 0.929 -21.361 0.929 -21.361 0.364 68.27
9200 0.366 68.142 0.928 -21.49 0.928 -21.49 0.366 68.142
9250 0.368 68.015 0.927 -21.619 0.927 -21.619 0.368 68.015
9300 0.371 67.888 0.926 -21.748 0.926 -21.748 0.371 67.888
9350 0.373 67.762 0.926 -21.877 0.926 -21.877 0.373 67.762
9400 0.375 67.636 0.925 -22.005 0.925 -22.005 0.375 67.636
9450 0.377 67.51 0.924 -22.133 0.924 -22.133 0.377 67.51
9500 0.379 67.385 0.923 -22.26 0.923 -22.26 0.379 67.385
9550 0.381 67.26 0.922 -22.387 0.922 -22.387 0.381 67.26
9600 0.383 67.135 0.921 -22.514 0.921 -22.514 0.383 67.135
9650 0.385 67.01 0.921 -22.64 0.921 -22.64 0.385 67.01
9700 0.387 66.886 0.92 -22.766 0.92 -22.766 0.387 66.886
9750 0.389 66.762 0.919 -22.892 0.919 -22.892 0.389 66.762
9800 0.391 66.639 0.918 -23.017 0.918 -23.017 0.391 66.639
9850 0.393 66.515 0.917 -23.142 0.917 -23.142 0.393 66.515
9900 0.395 66.392 0.916 -23.267 0.916 -23.267 0.395 66.392
9950 0.397 66.27 0.915 -23.392 0.915 -23.392 0.397 66.27
10000 0.399 66.147 0.915 -23.516 0.915 -23.516 0.399 66.147
10050 0.401 66.025 0.914 -23.639 0.914 -23.639 0.401 66.025
10100 0.403 65.904 0.913 -23.763 0.913 -23.763 0.403 65.904
10150 0.405 65.782 0.912 -23.886 0.912 -23.886 0.405 65.782
10200 0.407 65.661 0.911 -24.008 0.911 -24.008 0.407 65.661
10250 0.409 65.54 0.91 -24.131 0.91 -24.131 0.409 65.54
10300 0.411 65.42 0.909 -24.253 0.909 -24.253 0.411 65.42
10350 0.413 65.3 0.909 -24.375 0.909 -24.375 0.413 65.3
10400 0.415 65.18 0.908 -24.496 0.908 -24.496 0.415 65.18
10450 0.417 65.06 0.907 -24.617 0.907 -24.617 0.417 65.06
10500 0.418 64.941 0.906 -24.738 0.906 -24.738 0.418 64.941
10550 0.42 64.822 0.905 -24.859 0.905 -24.859 0.42 64.822
10600 0.422 64.703 0.904 -24.979 0.904 -24.979 0.422 64.703
10650 0.424 64.585 0.903 -25.099 0.903 -25.099 0.424 64.585
10700 0.426 64.466 0.902 -25.218 0.902 -25.218 0.426 64.466
10750 0.428 64.349 0.901 -25.338 0.901 -25.338 0.428 64.349
10800 0.43 64.231 0.901 -25.457 0.901 -25.457 0.43 64.231
10850 0.432 64.114 0.9 -25.575 0.9 -25.575 0.432 64.114
10900 0.434 63.997 0.899 -25.693 0.899 -25.693 0.434 63.997
10950 0.435 63.88 0.898 -25.811 0.898 -25.811 0.435 63.88
11000 0.437 63.764 0.897 -25.929 0.897 -25.929 0.437 63.764
11050 0.439 63.648 0.896 -26.047 0.896 -26.047 0.439 63.648
11100 0.441 63.532 0.895 -26.164 0.895 -26.164 0.441 63.532
11150 0.443 63.417 0.894 -26.281 0.894 -26.281 0.443 63.417
11200 0.445 63.301 0.893 -26.397 0.893 -26.397 0.445 63.301
11250 0.446 63.186 0.892 -26.513 0.892 -26.513 0.446 63.186
11300 0.448 63.072 0.892 -26.629 0.892 -26.629 0.448 63.072
11350 0.45 62.957 0.891 -26.745 0.891 -26.745 0.45 62.957
11400 0.452 62.843 0.89 -26.86 0.89 -26.86 0.452 62.843
11450 0.454 62.73 0.889 -26.975 0.889 -26.975 0.454 62.73
11500 0.455 62.616 0.888 -27.09 0.888 -27.09 0.455 62.616
11550 0.457 62.503 0.887 -27.204 0.887 -27.204 0.457 62.503
11600 0.459 62.39 0.886 -27.318 0.886 -27.318 0.459 62.39
11650 0.461 62.277 0.885 -27.432 0.885 -27.432 0.461 62.277
11700 0.462 62.165 0.884 -27.546 0.884 -27.546 0.462 62.165
11750 0.464 62.053 0.883 -27.659 0.883 -27.659 0.464 62.053
11800 0.466 61.941 0.882 -27.772 0.882 -27.772 0.466 61.941
11850 0.468 61.829 0.882 -27.885 0.882 -27.885 0.468 61.829
11900 0.469 61.718 0.881 -27.997 0.881 -27.997 0.469 61.718
11950 0.471 61.607 0.88 -28.109 0.88 -28.109 0.471 61.607
12000 0.473 61.496 0.879 -28.221 0.879 -28.221 0.473 61.496
12050 0.475 61.386 0.878 -28.333 0.878 -28.333 0.475 61.386
12100 0.476 61.276 0.877 -28.444 0.877 -28.444 0.476 61.276
12150 0.478 61.166 0.876 -28.555 0.876 -28.555 0.478 61.166
12200 0.48 61.056 0.875 -28.665 0.875 -28.665 0.48 61.056
12250 0.481 60.947 0.874 -28.776 0.874 -28.776 0.481 60.947
12300 0.483 60.838 0.873 -28.886 0.873 -28.886 0.483 60.838
12350 0.485 60.729 0.872 -28.996 0.872 -28.996 0.485 60.729
12400 0.486 60.62 0.871 -29.105 0.871 -29.105 0.486 60.62
12450 0.488 60.512 0.87 -29.215 0.87 -29.215 0.488 60.512
12500 0.49 60.404 0.87 -29.324 0.87 -29.324 0.49 60.404
12550 0.491 60.296 0.869 -29.432 0.869 -29.432 0.491 60.296
12600 0.493 60.189 0.868 -29.541 0.868 -29.541 0.493 60.189
12650 0.495 60.082 0.867 -29.649 0.867 -29.649 0.495 60.082
12700 0.496 59.975 0.866 -29.757 0.866 -29.757 0.496 59.975
12750 0.498 59.868 0.865 -29.864 0.865 -29.864 0.498 59.868
12800 0.5 59.761 0.864 -29.972 0.864 -29.972 0.5 59.761
12850 0.501 59.655 0.863 -30.079 0.863 -30.079 0.501 59.655
12900 0.503 59.549 0.862 -30.186 0.862 -30.186 0.503 59.549
12950 0.504 59.444 0.861 -30.292 0.861 -30.292 0.504 59.444
13000 0.506 59.338 0.86 -30.399 0.86 -30.399 0.506 59.338
13050 0.508 59.233 0.859 -30.505 0.859 -30.505 0.508 59.233
13100 0.509 59.128 0.858 -30.61 0.858 -30.61 0.509 59.128
13150 0.511 59.024 0.857 -30.716 0.857 -30.716 0.511 59.024
13200 0.512 58.92 0.856 -30.821 0.856 -30.821 0.512 58.92
13250 0.514 58.816 0.856 -30.926 0.856 -30.926 0.514 58.816
13300 0.515 58.712 0.855 -31.03 0.855 -31.03 0.515 58.712
13350 0.517 58.608 0.854 -31.135 0.854 -31.135 0.517 58.608
13400 0.519 58.505 0.853 -31.239 0.853 -31.239 0.519 58.505
13450 0.52 58.402 0.852 -31.343 0.852 -31.343 0.52 58.402
13500 0.522 58.299 0.851 -31.446 0.851 -31.446 0.522 58.299
13550 0.523 58.197 0.85 -31.55 0.85 -31.55 0.523 58.197
13600 0.525 58.094 0.849 -31.653 0.849 -31.653 0.525 58.094
13650 0.526 57.992 0.848 -31.756 0.848 -31.756 0.526 57.992
13700 0.528 57.891 0.847 -31.858 0.847 -31.858 0.528 57.891
13750 0.529 57.789 0.846 -31.961 0.846 -31.961 0.529 57.789
13800 0.531 57.688 0.845 -32.063 0.845 -32.063 0.531 57.688
13850 0.532 57.587 0.844 -32.164 0.844 -32.164 0.532 57.587
13900 0.534 57.486 0.843 -32.266 0.843 -32.266 0.534 57.486
13950 0.535 57.385 0.842 -32.367 0.842 -32.367 0.535 57.385
14000 0.537 57.285 0.841 -32.468 0.841 -32.468 0.537 57.285
14050 0.538 57.185 0.84 -32.569 0.84 -32.569 0.538 57.185
14100 0.54 57.086 0.839 -32.669 0.839 -32.669 0.54 57.086
14150 0.541 56.986 0.839 -32.77 0.839 -32.77 0.541 56.986
14200 0.543 56.887 0.838 -32.87 0.838 -32.87 0.543 56.887
14250 0.544 56.788 0.837 -32.969 0.837 -32.969 0.544 56.788
14300 0.546 56.689 0.836 -33.069 0.836 -33.069 0.546 56.689
14350 0.547 56.59 0.835 -33.168 0.835 -33.168 0.547 56.59
14400 0.549 56.492 0.834 -33.267 0.834 -33.267 0.549 56.492
14450 0.55 56.394 0.833 -33.366 0.833 -33.366 0.55 56.394
14500 0.551 56.296 0.832 -33.464 0.832 -33.464 0.551 56.296
14550 0.553 56.199 0.831 -33.562 0.831 -33.562 0.553 56.199
14600 0.554 56.102 0.83 -33.66 0.83 -33.66 0.554 56.102
14650 0.556 56.005 0.829 -33.758 0.829 -33.758 0.556 56.005
14700 0.557 55.908 0.828 -33.856 0.828 -33.856 0.557 55.908
14750 0.559 55.811 0.827 -33.953 0.827 -33.953 0.559 55.811
14800 0.56 55.715 0.826 -34.05 0.826 -34.05 0.56 55.715
14850 0.561 55.619 0.825 -34.147 0.825 -34.147 0.561 55.619
14900 0.563 55.523 0.824 -34.243 0.824 -34.243 0.563 55.523
14950 0.564 55.427 0.823 -34.339 0.823 -34.339 0.564 55.427
15000 0.565 55.332 0.822 -34.435 0.822 -34.435 0.565 55.332
15050 0.567 55.237 0.822 -34.531 0.822 -34.531 0.567 55.237
15100 0.568 55.142 0.821 -34.627 0.821 -34.627 0.568 55.142
15150 0.57 55.047 0.82 -34.722 0.82 -34.722 0.57 55.047
15200 0.571 54.953 0.819 -34.817 0.819 -34.817 0.571 54.953
15250 0.572 54.859 0.818 -34.912 0.818 -34.912 0.572 54.859
15300 0.574 54.765 0.817 -35.006 0.817 -35.006 0.574 54.765
15350 0.575 54.671 0.816 -35.101 0.816 -35.101 0.575 54.671
15400 0.576 54.578 0.815 -35.195 0.815 -35.195 0.576 54.578
15450 0.578 54.484 0.814 -35.289 0.814 -35.289 0.578 54.484
15500 0.579 54.391 0.813 -35.382 0.813 -35.382 0.579 54.391
15550 0.58 54.299 0.812 -35.476 0.812 -35.476 0.58 54.299
15600 0.582 54.206 0.811 -35.569 0.811 -35.569 0.582 54.206
15650 0.583 54.114 0.81 -35.662 0.81 -35.662 0.583 54.114
15700 0.584 54.022 0.809 -35.754 0.809 -35.754 0.584 54.022
15750 0.586 53.93 0.808 -35.847 0.808 -35.847 0.586 53.93
15800 0.587 53.838 0.807 -35.939 0.807 -35.939 0.587 53.838
15850 0.588 53.747 0.806 -36.031 0.806 -36.031 0.588 53.747
15900 0.59 53.656 0.805 -36.122 0.805 -36.122 0.59 53.656
15950 0.591 53.565 0.805 -36.214 0.805 -36.214 0.591 53.565
16000 0.592 53.474 0.804 -36.305 0.804 -36.305 0.592 53.474
16050 0.593 53.384 0.803 -36.396 0.803 -36.396 0.593 53.384
16100 0.595 53.293 0.802 -36.487 0.802 -36.487 0.595 53.293
16150 0.596 53.203 0.801 -36.578 0.801 -36.578 0.596 53.203
16200 0.597 53.114 0.8 -36.668 0.8 -36.668 0.597 53.114
16250 0.598 53.024 0.799 -36.758 0.799 -36.758 0.598 53.024
16300 0.6 52.935 0.798 -36.848 0.798 -36.848 0.6 52.935
16350 0.601 52.846 0.797 -36.938 0.797 -36.938 0.601 52.846
16400 0.602 52.757 0.796 -37.027 0.796 -37.027 0.602 52.757
16450 0.603 52.668 0.795 -37.116 0.795 -37.116 0.603 52.668
16500 0.605 52.58 0.794 -37.205 0.794 -37.205 0.605 52.58
16550 0.606 52.491 0.793 -37.294 0.793 -37.294 0.606 52.491
16600 0.607 52.403 0.792 -37.382 0.792 -37.382 0.607 52.403
16650 0.608 52.316 0.791 -37.471 0.791 -37.471 0.608 52.316
16700 0.61 52.228 0.79 -37.559 0.79 -37.559 0.61 52.228
16750 0.611 52.141 0.79 -37.647 0.79 -37.647 0.611 52.141
16800 0.612 52.054 0.789 -37.734 0.789 -37.734 0.612 52.054
16850 0.613 51.967 0.788 -37.822 0.788 -37.822 0.613 51.967
16900 0.614 51.88 0.787 -37.909 0.787 -37.909 0.614 51.88
