! AVX Thin Film Operation		Date: April 2012 
! Description: Accu-P® Series, Thin Film, SMD, RF Capacitor
! Part Number: 08051J0R6PBTTR					
!	100	MHz	-	30.05	GHz			
!	Serial	Measurements						
!								
#	MHZ	S	MA	R	50			
!	S11	S21	S12	S22				
!	dB	Phase	dB	Phase	dB	Phase	dB	Phase
100	0.999	-2.159	0.038	87.835	0.038	87.835	0.999	-2.159
107.458	0.999	-2.32	0.04	87.673	0.04	87.673	0.999	-2.32
114.916	0.999	-2.481	0.043	87.512	0.043	87.512	0.999	-2.481
122.375	0.999	-2.642	0.046	87.351	0.046	87.351	0.999	-2.642
129.833	0.999	-2.803	0.049	87.189	0.049	87.189	0.999	-2.803
137.291	0.999	-2.964	0.052	87.028	0.052	87.028	0.999	-2.964
144.749	0.999	-3.124	0.055	86.867	0.055	86.867	0.999	-3.124
152.208	0.998	-3.285	0.057	86.706	0.057	86.706	0.998	-3.285
159.666	0.998	-3.446	0.06	86.545	0.06	86.545	0.998	-3.446
167.124	0.998	-3.606	0.063	86.383	0.063	86.383	0.998	-3.606
174.582	0.998	-3.767	0.066	86.222	0.066	86.222	0.998	-3.767
182.04	0.998	-3.928	0.068	86.061	0.068	86.061	0.998	-3.928
189.499	0.997	-4.088	0.071	85.9	0.071	85.9	0.997	-4.088
196.957	0.997	-4.249	0.074	85.739	0.074	85.739	0.997	-4.249
204.415	0.997	-4.409	0.077	85.579	0.077	85.579	0.997	-4.409
211.873	0.997	-4.569	0.08	85.418	0.08	85.418	0.997	-4.569
219.332	0.997	-4.73	0.082	85.257	0.082	85.257	0.997	-4.73
226.79	0.996	-4.89	0.085	85.096	0.085	85.096	0.996	-4.89
234.248	0.996	-5.05	0.088	84.935	0.088	84.935	0.996	-5.05
241.706	0.996	-5.21	0.091	84.775	0.091	84.775	0.996	-5.21
249.164	0.996	-5.371	0.094	84.614	0.094	84.614	0.996	-5.371
256.623	0.995	-5.531	0.096	84.454	0.096	84.454	0.995	-5.531
264.081	0.995	-5.691	0.099	84.293	0.099	84.293	0.995	-5.691
271.539	0.995	-5.851	0.102	84.133	0.102	84.133	0.995	-5.851
278.997	0.994	-6.01	0.105	83.973	0.105	83.973	0.994	-6.01
286.455	0.994	-6.17	0.107	83.812	0.107	83.812	0.994	-6.17
293.914	0.994	-6.33	0.11	83.652	0.11	83.652	0.994	-6.33
301.372	0.994	-6.49	0.113	83.492	0.113	83.492	0.994	-6.49
308.83	0.993	-6.649	0.116	83.332	0.116	83.332	0.993	-6.649
316.288	0.993	-6.809	0.119	83.172	0.119	83.172	0.993	-6.809
323.747	0.993	-6.968	0.121	83.012	0.121	83.012	0.993	-6.968
331.205	0.992	-7.127	0.124	82.853	0.124	82.853	0.992	-7.127
338.663	0.992	-7.287	0.127	82.693	0.127	82.693	0.992	-7.287
346.121	0.992	-7.446	0.13	82.533	0.13	82.533	0.992	-7.446
353.579	0.991	-7.605	0.132	82.374	0.132	82.374	0.991	-7.605
361.038	0.991	-7.764	0.135	82.214	0.135	82.214	0.991	-7.764
368.496	0.99	-7.923	0.138	82.055	0.138	82.055	0.99	-7.923
375.954	0.99	-8.082	0.141	81.895	0.141	81.895	0.99	-8.082
383.412	0.99	-8.24	0.143	81.736	0.143	81.736	0.99	-8.24
390.871	0.989	-8.399	0.146	81.577	0.146	81.577	0.989	-8.399
398.329	0.989	-8.558	0.149	81.418	0.149	81.418	0.989	-8.558
405.787	0.988	-8.716	0.152	81.259	0.152	81.259	0.988	-8.716
413.245	0.988	-8.875	0.154	81.1	0.154	81.1	0.988	-8.875
420.703	0.988	-9.033	0.157	80.942	0.157	80.942	0.988	-9.033
428.162	0.987	-9.191	0.16	80.783	0.16	80.783	0.987	-9.191
435.62	0.987	-9.349	0.162	80.624	0.162	80.624	0.987	-9.349
443.078	0.986	-9.507	0.165	80.466	0.165	80.466	0.986	-9.507
450.536	0.986	-9.665	0.168	80.308	0.168	80.308	0.986	-9.665
457.995	0.985	-9.823	0.171	80.15	0.171	80.15	0.985	-9.823
465.453	0.985	-9.98	0.173	79.991	0.173	79.991	0.985	-9.98
472.911	0.984	-10.138	0.176	79.833	0.176	79.833	0.984	-10.138
480.369	0.984	-10.295	0.179	79.676	0.179	79.676	0.984	-10.295
487.827	0.983	-10.453	0.181	79.518	0.181	79.518	0.983	-10.453
495.286	0.983	-10.61	0.184	79.36	0.184	79.36	0.983	-10.61
502.744	0.982	-10.767	0.187	79.203	0.187	79.203	0.982	-10.767
510.202	0.982	-10.924	0.19	79.045	0.19	79.045	0.982	-10.924
517.66	0.981	-11.081	0.192	78.888	0.192	78.888	0.981	-11.081
525.118	0.981	-11.237	0.195	78.731	0.195	78.731	0.981	-11.237
532.577	0.98	-11.394	0.198	78.574	0.198	78.574	0.98	-11.394
540.035	0.98	-11.551	0.2	78.417	0.2	78.417	0.98	-11.551
547.493	0.979	-11.707	0.203	78.26	0.203	78.26	0.979	-11.707
554.951	0.979	-11.863	0.206	78.103	0.206	78.103	0.979	-11.863
562.41	0.978	-12.019	0.208	77.947	0.208	77.947	0.978	-12.019
569.868	0.977	-12.175	0.211	77.79	0.211	77.79	0.977	-12.175
577.326	0.977	-12.331	0.214	77.634	0.214	77.634	0.977	-12.331
584.784	0.976	-12.487	0.216	77.478	0.216	77.478	0.976	-12.487
592.242	0.976	-12.642	0.219	77.322	0.219	77.322	0.976	-12.642
599.701	0.975	-12.798	0.222	77.166	0.222	77.166	0.975	-12.798
607.159	0.974	-12.953	0.224	77.01	0.224	77.01	0.974	-12.953
614.617	0.974	-13.108	0.227	76.854	0.227	76.854	0.974	-13.108
622.075	0.973	-13.263	0.229	76.699	0.229	76.699	0.973	-13.263
629.534	0.973	-13.418	0.232	76.543	0.232	76.543	0.973	-13.418
636.992	0.972	-13.573	0.235	76.388	0.235	76.388	0.972	-13.573
644.45	0.971	-13.728	0.237	76.233	0.237	76.233	0.971	-13.728
651.908	0.971	-13.882	0.24	76.078	0.24	76.078	0.971	-13.882
659.366	0.97	-14.036	0.243	75.923	0.243	75.923	0.97	-14.036
666.825	0.969	-14.191	0.245	75.769	0.245	75.769	0.969	-14.191
674.283	0.969	-14.345	0.248	75.614	0.248	75.614	0.969	-14.345
681.741	0.968	-14.498	0.25	75.46	0.25	75.46	0.968	-14.498
689.199	0.967	-14.652	0.253	75.306	0.253	75.306	0.967	-14.652
696.658	0.967	-14.806	0.256	75.152	0.256	75.152	0.967	-14.806
704.116	0.966	-14.959	0.258	74.998	0.258	74.998	0.966	-14.959
711.574	0.965	-15.112	0.261	74.844	0.261	74.844	0.965	-15.112
719.032	0.965	-15.266	0.263	74.691	0.263	74.691	0.965	-15.266
726.49	0.964	-15.418	0.266	74.537	0.266	74.537	0.964	-15.418
733.949	0.963	-15.571	0.268	74.384	0.268	74.384	0.963	-15.571
741.407	0.962	-15.724	0.271	74.231	0.271	74.231	0.962	-15.724
748.865	0.962	-15.876	0.274	74.078	0.274	74.078	0.962	-15.876
756.323	0.961	-16.029	0.276	73.925	0.276	73.925	0.961	-16.029
763.781	0.96	-16.181	0.279	73.773	0.279	73.773	0.96	-16.181
771.24	0.959	-16.333	0.281	73.62	0.281	73.62	0.959	-16.333
778.698	0.959	-16.485	0.284	73.468	0.284	73.468	0.959	-16.485
786.156	0.958	-16.636	0.286	73.316	0.286	73.316	0.958	-16.636
793.614	0.957	-16.788	0.289	73.164	0.289	73.164	0.957	-16.788
801.073	0.956	-16.939	0.291	73.012	0.291	73.012	0.956	-16.939
808.531	0.956	-17.09	0.294	72.861	0.294	72.861	0.956	-17.09
815.989	0.955	-17.241	0.296	72.709	0.296	72.709	0.955	-17.241
823.447	0.954	-17.392	0.299	72.558	0.299	72.558	0.954	-17.392
830.905	0.953	-17.542	0.301	72.407	0.301	72.407	0.953	-17.542
838.364	0.952	-17.693	0.304	72.256	0.304	72.256	0.952	-17.693
845.822	0.952	-17.843	0.306	72.105	0.306	72.105	0.952	-17.843
853.28	0.951	-17.993	0.309	71.955	0.309	71.955	0.951	-17.993
860.738	0.95	-18.143	0.311	71.804	0.311	71.804	0.95	-18.143
868.197	0.949	-18.293	0.314	71.654	0.314	71.654	0.949	-18.293
875.655	0.948	-18.442	0.316	71.504	0.316	71.504	0.948	-18.442
883.113	0.948	-18.591	0.319	71.354	0.319	71.354	0.948	-18.591
890.571	0.947	-18.741	0.321	71.205	0.321	71.205	0.947	-18.741
898.029	0.946	-18.89	0.324	71.055	0.324	71.055	0.946	-18.89
905.488	0.945	-19.038	0.326	70.906	0.326	70.906	0.945	-19.038
912.946	0.944	-19.187	0.329	70.757	0.329	70.757	0.944	-19.187
920.404	0.943	-19.335	0.331	70.608	0.331	70.608	0.943	-19.335
927.862	0.942	-19.484	0.334	70.46	0.334	70.46	0.942	-19.484
935.321	0.942	-19.632	0.336	70.311	0.336	70.311	0.942	-19.632
942.779	0.941	-19.779	0.338	70.163	0.338	70.163	0.941	-19.779
950.237	0.94	-19.927	0.341	70.015	0.341	70.015	0.94	-19.927
957.695	0.939	-20.075	0.343	69.867	0.343	69.867	0.939	-20.075
965.153	0.938	-20.222	0.346	69.719	0.346	69.719	0.938	-20.222
972.612	0.937	-20.369	0.348	69.571	0.348	69.571	0.937	-20.369
980.07	0.936	-20.516	0.35	69.424	0.35	69.424	0.936	-20.516
987.528	0.935	-20.662	0.353	69.277	0.353	69.277	0.935	-20.662
994.986	0.934	-20.809	0.355	69.13	0.355	69.13	0.934	-20.809
1002.444	0.933	-20.955	0.358	68.983	0.358	68.983	0.933	-20.955
1009.903	0.933	-21.101	0.36	68.837	0.36	68.837	0.933	-21.101
1017.361	0.932	-21.247	0.362	68.69	0.362	68.69	0.932	-21.247
1024.819	0.931	-21.393	0.365	68.544	0.365	68.544	0.931	-21.393
1032.277	0.93	-21.538	0.367	68.398	0.367	68.398	0.93	-21.538
1039.736	0.929	-21.684	0.369	68.253	0.369	68.253	0.929	-21.684
1047.194	0.928	-21.829	0.372	68.107	0.372	68.107	0.928	-21.829
1054.652	0.927	-21.974	0.374	67.962	0.374	67.962	0.927	-21.974
1062.11	0.926	-22.118	0.377	67.817	0.377	67.817	0.926	-22.118
1069.568	0.925	-22.263	0.379	67.672	0.379	67.672	0.925	-22.263
1077.027	0.924	-22.407	0.381	67.527	0.381	67.527	0.924	-22.407
1084.485	0.923	-22.551	0.384	67.382	0.384	67.382	0.923	-22.551
1091.943	0.922	-22.695	0.386	67.238	0.386	67.238	0.922	-22.695
1099.401	0.921	-22.838	0.388	67.094	0.388	67.094	0.921	-22.838
1106.86	0.92	-22.982	0.39	66.95	0.39	66.95	0.92	-22.982
1114.318	0.919	-23.125	0.393	66.806	0.393	66.806	0.919	-23.125
1121.776	0.918	-23.268	0.395	66.663	0.395	66.663	0.918	-23.268
1129.234	0.917	-23.411	0.397	66.52	0.397	66.52	0.917	-23.411
1136.692	0.916	-23.553	0.4	66.377	0.4	66.377	0.916	-23.553
1144.151	0.915	-23.696	0.402	66.234	0.402	66.234	0.915	-23.696
1151.609	0.914	-23.838	0.404	66.091	0.404	66.091	0.914	-23.838
1159.067	0.913	-23.98	0.406	65.949	0.406	65.949	0.913	-23.98
1166.525	0.912	-24.121	0.409	65.807	0.409	65.807	0.912	-24.121
1173.984	0.911	-24.263	0.411	65.665	0.411	65.665	0.911	-24.263
1181.442	0.91	-24.404	0.413	65.523	0.413	65.523	0.91	-24.404
1188.9	0.909	-24.545	0.415	65.381	0.415	65.381	0.909	-24.545
1196.358	0.908	-24.686	0.418	65.24	0.418	65.24	0.908	-24.686
1203.816	0.907	-24.827	0.42	65.099	0.42	65.099	0.907	-24.827
1211.275	0.906	-24.967	0.422	64.958	0.422	64.958	0.906	-24.967
1218.733	0.905	-25.107	0.424	64.817	0.424	64.817	0.905	-25.107
1226.191	0.904	-25.247	0.427	64.677	0.427	64.677	0.904	-25.247
1233.649	0.903	-25.387	0.429	64.537	0.429	64.537	0.903	-25.387
1241.108	0.902	-25.527	0.431	64.397	0.431	64.397	0.902	-25.527
1248.566	0.901	-25.666	0.433	64.257	0.433	64.257	0.901	-25.666
1256.024	0.9	-25.805	0.435	64.117	0.435	64.117	0.9	-25.805
1263.482	0.899	-25.944	0.437	63.978	0.437	63.978	0.899	-25.944
1270.94	0.898	-26.082	0.44	63.839	0.44	63.839	0.898	-26.082
1278.399	0.896	-26.221	0.442	63.7	0.442	63.7	0.896	-26.221
1285.857	0.895	-26.359	0.444	63.561	0.444	63.561	0.895	-26.359
1293.315	0.894	-26.497	0.446	63.423	0.446	63.423	0.894	-26.497
1300.773	0.893	-26.635	0.448	63.285	0.448	63.285	0.893	-26.635
1308.231	0.892	-26.772	0.45	63.147	0.45	63.147	0.892	-26.772
1315.69	0.891	-26.91	0.453	63.009	0.453	63.009	0.891	-26.91
1323.148	0.89	-27.047	0.455	62.871	0.455	62.871	0.89	-27.047
1330.606	0.889	-27.183	0.457	62.734	0.457	62.734	0.889	-27.183
1338.064	0.888	-27.32	0.459	62.597	0.459	62.597	0.888	-27.32
1345.523	0.887	-27.456	0.461	62.46	0.461	62.46	0.887	-27.456
1352.981	0.886	-27.593	0.463	62.323	0.463	62.323	0.886	-27.593
1360.439	0.884	-27.729	0.465	62.187	0.465	62.187	0.884	-27.729
1367.897	0.883	-27.864	0.467	62.051	0.467	62.051	0.883	-27.864
1375.355	0.882	-28	0.469	61.915	0.469	61.915	0.882	-28
1382.814	0.881	-28.135	0.472	61.779	0.472	61.779	0.881	-28.135
1390.272	0.88	-28.27	0.474	61.644	0.474	61.644	0.88	-28.27
1397.73	0.879	-28.405	0.476	61.508	0.476	61.508	0.879	-28.405
1405.188	0.878	-28.539	0.478	61.373	0.478	61.373	0.878	-28.539
1412.647	0.877	-28.674	0.48	61.239	0.48	61.239	0.877	-28.674
1420.105	0.875	-28.808	0.482	61.104	0.482	61.104	0.875	-28.808
1427.563	0.874	-28.941	0.484	60.97	0.484	60.97	0.874	-28.941
1435.021	0.873	-29.075	0.486	60.836	0.486	60.836	0.873	-29.075
1442.479	0.872	-29.208	0.488	60.702	0.488	60.702	0.872	-29.208
1449.938	0.871	-29.342	0.49	60.568	0.49	60.568	0.871	-29.342
1457.396	0.87	-29.474	0.492	60.435	0.492	60.435	0.87	-29.474
1464.854	0.869	-29.607	0.494	60.302	0.494	60.302	0.869	-29.607
1472.312	0.867	-29.74	0.496	60.169	0.496	60.169	0.867	-29.74
1479.771	0.866	-29.872	0.498	60.036	0.498	60.036	0.866	-29.872
1487.229	0.865	-30.004	0.5	59.903	0.5	59.903	0.865	-30.004
1494.687	0.864	-30.136	0.502	59.771	0.502	59.771	0.864	-30.136
1502.145	0.863	-30.267	0.504	59.639	0.504	59.639	0.863	-30.267
1509.603	0.862	-30.398	0.506	59.507	0.506	59.507	0.862	-30.398
1517.062	0.861	-30.529	0.508	59.376	0.508	59.376	0.861	-30.529
1524.52	0.859	-30.66	0.51	59.245	0.51	59.245	0.859	-30.66
1531.978	0.858	-30.791	0.512	59.113	0.512	59.113	0.858	-30.791
1539.436	0.857	-30.921	0.514	58.983	0.514	58.983	0.857	-30.921
1546.894	0.856	-31.051	0.516	58.852	0.516	58.852	0.856	-31.051
1554.353	0.855	-31.181	0.518	58.722	0.518	58.722	0.855	-31.181
1561.811	0.853	-31.311	0.52	58.592	0.52	58.592	0.853	-31.311
1569.269	0.852	-31.44	0.522	58.462	0.522	58.462	0.852	-31.44
1576.727	0.851	-31.569	0.524	58.332	0.524	58.332	0.851	-31.569
1584.186	0.85	-31.698	0.525	58.203	0.525	58.203	0.85	-31.698
1591.644	0.849	-31.827	0.527	58.073	0.527	58.073	0.849	-31.827
1599.102	0.848	-31.955	0.529	57.944	0.529	57.944	0.848	-31.955
1606.56	0.846	-32.083	0.531	57.816	0.531	57.816	0.846	-32.083
1614.018	0.845	-32.211	0.533	57.687	0.533	57.687	0.845	-32.211
1621.477	0.844	-32.339	0.535	57.559	0.535	57.559	0.844	-32.339
1628.935	0.843	-32.467	0.537	57.431	0.537	57.431	0.843	-32.467
1636.393	0.842	-32.594	0.539	57.303	0.539	57.303	0.842	-32.594
1643.851	0.84	-32.721	0.541	57.176	0.541	57.176	0.84	-32.721
1651.31	0.839	-32.848	0.542	57.048	0.542	57.048	0.839	-32.848
1658.768	0.838	-32.974	0.544	56.921	0.544	56.921	0.838	-32.974
1666.226	0.837	-33.101	0.546	56.795	0.546	56.795	0.837	-33.101
1673.684	0.836	-33.227	0.548	56.668	0.548	56.668	0.836	-33.227
1681.142	0.834	-33.353	0.55	56.542	0.55	56.542	0.834	-33.353
1688.601	0.833	-33.478	0.552	56.416	0.552	56.416	0.833	-33.478
1696.059	0.832	-33.603	0.553	56.29	0.553	56.29	0.832	-33.603
1703.517	0.831	-33.729	0.555	56.164	0.555	56.164	0.831	-33.729
1710.975	0.829	-33.853	0.557	56.039	0.557	56.039	0.829	-33.853
1718.434	0.828	-33.978	0.559	55.914	0.559	55.914	0.828	-33.978
1725.892	0.827	-34.103	0.561	55.789	0.561	55.789	0.827	-34.103
1733.35	0.826	-34.227	0.562	55.664	0.562	55.664	0.826	-34.227
1740.808	0.825	-34.351	0.564	55.54	0.564	55.54	0.825	-34.351
1748.266	0.823	-34.474	0.566	55.415	0.566	55.415	0.823	-34.474
1755.725	0.822	-34.598	0.568	55.291	0.568	55.291	0.822	-34.598
1763.183	0.821	-34.721	0.57	55.168	0.57	55.168	0.821	-34.721
1770.641	0.82	-34.844	0.571	55.044	0.571	55.044	0.82	-34.844
1778.099	0.818	-34.967	0.573	54.921	0.573	54.921	0.818	-34.967
1785.557	0.817	-35.089	0.575	54.798	0.575	54.798	0.817	-35.089
1793.016	0.816	-35.211	0.577	54.675	0.577	54.675	0.816	-35.211
1800.474	0.815	-35.334	0.578	54.553	0.578	54.553	0.815	-35.334
1807.932	0.813	-35.455	0.58	54.43	0.58	54.43	0.813	-35.455
1815.39	0.812	-35.577	0.582	54.308	0.582	54.308	0.812	-35.577
1822.849	0.811	-35.698	0.584	54.186	0.584	54.186	0.811	-35.698
1830.307	0.81	-35.819	0.585	54.065	0.585	54.065	0.81	-35.819
1837.765	0.808	-35.94	0.587	53.943	0.587	53.943	0.808	-35.94
1845.223	0.807	-36.061	0.589	53.822	0.589	53.822	0.807	-36.061
1852.681	0.806	-36.181	0.59	53.701	0.59	53.701	0.806	-36.181
1860.14	0.805	-36.301	0.592	53.581	0.592	53.581	0.805	-36.301
1867.598	0.803	-36.421	0.594	53.46	0.594	53.46	0.803	-36.421
1875.056	0.802	-36.541	0.595	53.34	0.595	53.34	0.802	-36.541
1882.514	0.801	-36.66	0.597	53.22	0.597	53.22	0.801	-36.66
1889.973	0.8	-36.779	0.599	53.1	0.599	53.1	0.8	-36.779
1897.431	0.798	-36.898	0.6	52.981	0.6	52.981	0.798	-36.898
1904.889	0.797	-37.017	0.602	52.862	0.602	52.862	0.797	-37.017
1912.347	0.796	-37.136	0.604	52.743	0.604	52.743	0.796	-37.136
1919.805	0.795	-37.254	0.605	52.624	0.605	52.624	0.795	-37.254
1927.264	0.793	-37.372	0.607	52.505	0.607	52.505	0.793	-37.372
1934.722	0.792	-37.49	0.609	52.387	0.609	52.387	0.792	-37.49
1942.18	0.791	-37.607	0.61	52.269	0.61	52.269	0.791	-37.607
1949.638	0.79	-37.724	0.612	52.151	0.612	52.151	0.79	-37.724
1957.097	0.788	-37.842	0.613	52.034	0.613	52.034	0.788	-37.842
1964.555	0.787	-37.958	0.615	51.916	0.615	51.916	0.787	-37.958
1972.013	0.786	-38.075	0.617	51.799	0.617	51.799	0.786	-38.075
1979.471	0.785	-38.191	0.618	51.682	0.618	51.682	0.785	-38.191
1986.929	0.783	-38.307	0.62	51.565	0.62	51.565	0.783	-38.307
1994.388	0.782	-38.423	0.621	51.449	0.621	51.449	0.782	-38.423
2001.846	0.781	-38.539	0.623	51.333	0.623	51.333	0.781	-38.539
2009.304	0.78	-38.655	0.625	51.217	0.625	51.217	0.78	-38.655
2016.762	0.778	-38.77	0.626	51.101	0.626	51.101	0.778	-38.77
2024.221	0.777	-38.885	0.628	50.986	0.628	50.986	0.777	-38.885
2031.679	0.776	-38.999	0.629	50.87	0.629	50.87	0.776	-38.999
2039.137	0.774	-39.114	0.631	50.755	0.631	50.755	0.774	-39.114
2046.595	0.773	-39.228	0.632	50.641	0.632	50.641	0.773	-39.228
2054.053	0.772	-39.342	0.634	50.526	0.634	50.526	0.772	-39.342
2061.512	0.771	-39.456	0.635	50.412	0.635	50.412	0.771	-39.456
2068.97	0.769	-39.57	0.637	50.297	0.637	50.297	0.769	-39.57
2076.428	0.768	-39.683	0.639	50.184	0.639	50.184	0.768	-39.683
2083.886	0.767	-39.796	0.64	50.07	0.64	50.07	0.767	-39.796
2091.344	0.766	-39.909	0.642	49.957	0.642	49.957	0.766	-39.909
2098.803	0.764	-40.022	0.643	49.843	0.643	49.843	0.764	-40.022
2106.261	0.763	-40.134	0.645	49.73	0.645	49.73	0.763	-40.134
2113.719	0.762	-40.246	0.646	49.618	0.646	49.618	0.762	-40.246
2121.177	0.76	-40.358	0.648	49.505	0.648	49.505	0.76	-40.358
2128.636	0.759	-40.47	0.649	49.393	0.649	49.393	0.759	-40.47
2136.094	0.758	-40.581	0.651	49.281	0.651	49.281	0.758	-40.581
2143.552	0.757	-40.693	0.652	49.169	0.652	49.169	0.757	-40.693
2151.01	0.755	-40.804	0.653	49.057	0.653	49.057	0.755	-40.804
2158.468	0.754	-40.915	0.655	48.946	0.655	48.946	0.754	-40.915
2165.927	0.753	-41.025	0.656	48.835	0.656	48.835	0.753	-41.025
2173.385	0.752	-41.136	0.658	48.724	0.658	48.724	0.752	-41.136
2180.843	0.75	-41.246	0.659	48.613	0.659	48.613	0.75	-41.246
2188.301	0.749	-41.356	0.661	48.503	0.661	48.503	0.749	-41.356
2195.76	0.748	-41.465	0.662	48.393	0.662	48.393	0.748	-41.465
2203.218	0.746	-41.575	0.664	48.283	0.664	48.283	0.746	-41.575
2210.676	0.745	-41.684	0.665	48.173	0.665	48.173	0.745	-41.684
2218.134	0.744	-41.793	0.666	48.063	0.666	48.063	0.744	-41.793
2225.592	0.743	-41.902	0.668	47.954	0.668	47.954	0.743	-41.902
2233.051	0.741	-42.01	0.669	47.845	0.669	47.845	0.741	-42.01
2240.509	0.74	-42.119	0.671	47.736	0.671	47.736	0.74	-42.119
2247.967	0.739	-42.227	0.672	47.627	0.672	47.627	0.739	-42.227
2255.425	0.738	-42.335	0.673	47.519	0.673	47.519	0.738	-42.335
2262.884	0.736	-42.442	0.675	47.411	0.675	47.411	0.736	-42.442
2270.342	0.735	-42.55	0.676	47.303	0.676	47.303	0.735	-42.55
2277.8	0.734	-42.657	0.678	47.195	0.678	47.195	0.734	-42.657
2285.258	0.732	-42.764	0.679	47.087	0.679	47.087	0.732	-42.764
2292.716	0.731	-42.871	0.68	46.98	0.68	46.98	0.731	-42.871
2300.175	0.73	-42.977	0.682	46.873	0.682	46.873	0.73	-42.977
2307.633	0.729	-43.084	0.683	46.766	0.683	46.766	0.729	-43.084
2315.091	0.727	-43.19	0.684	46.659	0.684	46.659	0.727	-43.19
2322.549	0.726	-43.296	0.686	46.553	0.686	46.553	0.726	-43.296
2330.007	0.725	-43.401	0.687	46.447	0.687	46.447	0.725	-43.401
2337.466	0.723	-43.507	0.688	46.341	0.688	46.341	0.723	-43.507
2344.924	0.722	-43.612	0.69	46.235	0.69	46.235	0.722	-43.612
2352.382	0.721	-43.717	0.691	46.129	0.691	46.129	0.721	-43.717
2359.84	0.72	-43.822	0.692	46.024	0.692	46.024	0.72	-43.822
2367.299	0.718	-43.926	0.694	45.919	0.694	45.919	0.718	-43.926
2374.757	0.717	-44.031	0.695	45.814	0.695	45.814	0.717	-44.031
2382.215	0.716	-44.135	0.696	45.709	0.696	45.709	0.716	-44.135
2389.673	0.715	-44.239	0.698	45.605	0.698	45.605	0.715	-44.239
2397.131	0.713	-44.342	0.699	45.5	0.699	45.5	0.713	-44.342
2404.59	0.712	-44.446	0.7	45.396	0.7	45.396	0.712	-44.446
2412.048	0.711	-44.549	0.702	45.293	0.702	45.293	0.711	-44.549
2419.506	0.709	-44.652	0.703	45.189	0.703	45.189	0.709	-44.652
2426.964	0.708	-44.755	0.704	45.086	0.704	45.086	0.708	-44.755
2434.423	0.707	-44.858	0.705	44.982	0.705	44.982	0.707	-44.858
2441.881	0.706	-44.96	0.707	44.879	0.707	44.879	0.706	-44.96
2449.339	0.704	-45.062	0.708	44.777	0.708	44.777	0.704	-45.062
2456.797	0.703	-45.164	0.709	44.674	0.709	44.674	0.703	-45.164
2464.255	0.702	-45.266	0.71	44.572	0.71	44.572	0.702	-45.266
2471.714	0.701	-45.367	0.712	44.47	0.712	44.47	0.701	-45.367
2479.172	0.699	-45.469	0.713	44.368	0.713	44.368	0.699	-45.469
2486.63	0.698	-45.57	0.714	44.266	0.714	44.266	0.698	-45.57
