! AVX Thin Film Operation		Date: April 2012 
! Description: Accu-P® Series, Thin Film, SMD, RF Capacitor
! Part Number: 08051J2R3QBTTR					
!	100	MHz	-	20.05	GHz			
!	Serial	Measurements						
!								
#	MHZ	S	MA	R	50			
!	S11	S21	S12	S22				
!	dB	Phase	dB	Phase	dB	Phase	dB	Phase
50 0.997 -4.133 0.072 85.794 0.072 85.794 0.997 -4.133
100 0.989 -8.227 0.143 81.684 0.143 81.684 0.989 -8.227
150 0.977 -12.244 0.212 77.65 0.212 77.65 0.977 -12.244
200 0.96 -16.153 0.278 73.725 0.278 73.725 0.96 -16.153
250 0.939 -19.927 0.341 69.935 0.341 69.935 0.939 -19.927
300 0.916 -23.544 0.399 66.301 0.399 66.301 0.916 -23.544
350 0.89 -26.99 0.454 62.838 0.454 62.838 0.89 -26.99
400 0.862 -30.258 0.504 59.554 0.504 59.554 0.862 -30.258
450 0.833 -33.342 0.55 56.453 0.55 56.453 0.833 -33.342
500 0.804 -36.245 0.591 53.532 0.591 53.532 0.804 -36.245
550 0.775 -38.971 0.629 50.789 0.629 50.789 0.775 -38.971
600 0.746 -41.526 0.663 48.216 0.663 48.216 0.746 -41.526
650 0.717 -43.919 0.694 45.806 0.694 45.806 0.717 -43.919
700 0.689 -46.158 0.721 43.548 0.721 43.548 0.689 -46.158
750 0.662 -48.254 0.746 41.434 0.746 41.434 0.662 -48.254
800 0.635 -50.216 0.768 39.453 0.768 39.453 0.635 -50.216
850 0.61 -52.054 0.789 37.596 0.789 37.596 0.61 -52.054
900 0.586 -53.777 0.807 35.853 0.807 35.853 0.586 -53.777
950 0.562 -55.394 0.823 34.216 0.823 34.216 0.562 -55.394
1000 0.54 -56.913 0.838 32.677 0.838 32.677 0.54 -56.913
1050 0.518 -58.342 0.851 31.227 0.851 31.227 0.518 -58.342
1100 0.498 -59.688 0.863 29.86 0.863 29.86 0.498 -59.688
1150 0.478 -60.957 0.874 28.569 0.874 28.569 0.478 -60.957
1200 0.459 -62.156 0.884 27.348 0.884 27.348 0.459 -62.156
1250 0.441 -63.289 0.893 26.191 0.893 26.191 0.441 -63.289
1300 0.424 -64.362 0.902 25.094 0.902 25.094 0.424 -64.362
1350 0.408 -65.379 0.909 24.053 0.909 24.053 0.408 -65.379
1400 0.392 -66.345 0.916 23.061 0.916 23.061 0.392 -66.345
1450 0.377 -67.263 0.922 22.117 0.922 22.117 0.377 -67.263
1500 0.362 -68.137 0.928 21.216 0.928 21.216 0.362 -68.137
1550 0.348 -68.969 0.933 20.356 0.933 20.356 0.348 -68.969
1600 0.334 -69.763 0.938 19.533 0.938 19.533 0.334 -69.763
1650 0.321 -70.521 0.943 18.745 0.943 18.745 0.321 -70.521
1700 0.309 -71.246 0.947 17.989 0.947 17.989 0.309 -71.246
1750 0.297 -71.939 0.951 17.263 0.951 17.263 0.297 -71.939
1800 0.285 -72.603 0.954 16.565 0.954 16.565 0.285 -72.603
1850 0.274 -73.239 0.958 15.894 0.958 15.894 0.274 -73.239
1900 0.263 -73.849 0.961 15.247 0.961 15.247 0.263 -73.849
1950 0.252 -74.434 0.963 14.623 0.963 14.623 0.252 -74.434
2000 0.242 -74.995 0.966 14.02 0.966 14.02 0.242 -74.995
2050 0.232 -75.535 0.968 13.438 0.968 13.438 0.232 -75.535
2100 0.223 -76.053 0.971 12.875 0.971 12.875 0.223 -76.053
2150 0.214 -76.551 0.973 12.329 0.973 12.329 0.214 -76.551
2200 0.205 -77.029 0.975 11.8 0.975 11.8 0.205 -77.029
2250 0.196 -77.489 0.976 11.287 0.976 11.287 0.196 -77.489
2300 0.187 -77.931 0.978 10.789 0.978 10.789 0.187 -77.931
2350 0.179 -78.355 0.98 10.305 0.98 10.305 0.179 -78.355
2400 0.171 -78.761 0.981 9.834 0.981 9.834 0.171 -78.761
2450 0.163 -79.151 0.982 9.375 0.982 9.375 0.163 -79.151
2500 0.155 -79.523 0.984 8.929 0.984 8.929 0.155 -79.523
2550 0.148 -79.879 0.985 8.494 0.985 8.494 0.148 -79.879
2600 0.14 -80.218 0.986 8.069 0.986 8.069 0.14 -80.218
2650 0.133 -80.54 0.987 7.655 0.987 7.655 0.133 -80.54
2700 0.126 -80.844 0.988 7.25 0.988 7.25 0.126 -80.844
2750 0.119 -81.129 0.989 6.854 0.989 6.854 0.119 -81.129
2800 0.113 -81.395 0.989 6.468 0.989 6.468 0.113 -81.395
2850 0.106 -81.641 0.99 6.089 0.99 6.089 0.106 -81.641
2900 0.1 -81.865 0.991 5.718 0.991 5.718 0.1 -81.865
2950 0.093 -82.064 0.991 5.355 0.991 5.355 0.093 -82.064
3000 0.087 -82.237 0.992 4.999 0.992 4.999 0.087 -82.237
3050 0.081 -82.379 0.993 4.65 0.993 4.65 0.081 -82.379
3100 0.075 -82.485 0.993 4.308 0.993 4.308 0.075 -82.485
3150 0.069 -82.551 0.993 3.972 0.993 3.972 0.069 -82.551
3200 0.064 -82.566 0.994 3.641 0.994 3.641 0.064 -82.566
3250 0.058 -82.521 0.994 3.317 0.994 3.317 0.058 -82.521
3300 0.052 -82.399 0.994 2.998 0.994 2.998 0.052 -82.399
3350 0.047 -82.178 0.995 2.685 0.995 2.685 0.047 -82.178
3400 0.042 -81.823 0.995 2.376 0.995 2.376 0.042 -81.823
3450 0.036 -81.284 0.995 2.072 0.995 2.072 0.036 -81.284
3500 0.031 -80.476 0.995 1.773 0.995 1.773 0.031 -80.476
3550 0.026 -79.252 0.995 1.479 0.995 1.479 0.026 -79.252
3600 0.021 -77.335 0.996 1.189 0.996 1.189 0.021 -77.335
3650 0.016 -74.131 0.996 0.903 0.996 0.903 0.016 -74.131
3700 0.012 -68.14 0.996 0.621 0.996 0.621 0.012 -68.14
3750 7.32e-3 -54.523 0.996 0.343 0.996 0.343 7.32e-3 -54.523
3800 4.38e-3 -15.817 0.996 0.069 0.996 0.069 4.38e-3 -15.817
3850 5.494e-3 39.728 0.996 -0.202 0.996 -0.202 5.494e-3 39.728
3900 9.211e-3 62.312 0.996 -0.469 0.996 -0.469 9.211e-3 62.312
3950 0.013 71.045 0.996 -0.733 0.996 -0.733 0.013 71.045
4000 0.018 75.356 0.996 -0.994 0.996 -0.994 0.018 75.356
4050 0.022 77.832 0.996 -1.251 0.996 -1.251 0.022 77.832
4100 0.027 79.388 0.995 -1.506 0.995 -1.506 0.027 79.388
4150 0.031 80.423 0.995 -1.758 0.995 -1.758 0.031 80.423
4200 0.035 81.134 0.995 -2.006 0.995 -2.006 0.035 81.134
4250 0.04 81.631 0.995 -2.252 0.995 -2.252 0.04 81.631
4300 0.044 81.98 0.995 -2.496 0.995 -2.496 0.044 81.98
4350 0.048 82.223 0.995 -2.737 0.995 -2.737 0.048 82.223
4400 0.052 82.387 0.994 -2.975 0.994 -2.975 0.052 82.387
4450 0.056 82.49 0.994 -3.211 0.994 -3.211 0.056 82.49
4500 0.06 82.547 0.994 -3.445 0.994 -3.445 0.06 82.547
4550 0.064 82.567 0.994 -3.676 0.994 -3.676 0.064 82.567
4600 0.068 82.558 0.993 -3.905 0.993 -3.905 0.068 82.558
4650 0.072 82.525 0.993 -4.132 0.993 -4.132 0.072 82.525
4700 0.076 82.472 0.993 -4.357 0.993 -4.357 0.076 82.472
4750 0.08 82.403 0.993 -4.58 0.993 -4.58 0.08 82.403
4800 0.084 82.321 0.992 -4.801 0.992 -4.801 0.084 82.321
4850 0.088 82.228 0.992 -5.019 0.992 -5.019 0.088 82.228
4900 0.091 82.125 0.992 -5.237 0.992 -5.237 0.091 82.125
4950 0.095 82.013 0.991 -5.452 0.991 -5.452 0.095 82.013
5000 0.099 81.895 0.991 -5.665 0.991 -5.665 0.099 81.895
5050 0.102 81.771 0.991 -5.877 0.991 -5.877 0.102 81.771
5100 0.106 81.642 0.99 -6.087 0.99 -6.087 0.106 81.642
5150 0.11 81.509 0.99 -6.296 0.99 -6.296 0.11 81.509
5200 0.113 81.372 0.989 -6.503 0.989 -6.503 0.113 81.372
5250 0.117 81.231 0.989 -6.708 0.989 -6.708 0.117 81.231
5300 0.12 81.088 0.989 -6.912 0.989 -6.912 0.12 81.088
5350 0.124 80.943 0.988 -7.114 0.988 -7.114 0.124 80.943
5400 0.127 80.795 0.988 -7.315 0.988 -7.315 0.127 80.795
5450 0.131 80.646 0.987 -7.515 0.987 -7.515 0.131 80.646
5500 0.134 80.495 0.987 -7.713 0.987 -7.713 0.134 80.495
5550 0.138 80.343 0.986 -7.91 0.986 -7.91 0.138 80.343
5600 0.141 80.19 0.986 -8.105 0.986 -8.105 0.141 80.19
5650 0.144 80.036 0.985 -8.299 0.985 -8.299 0.144 80.036
5700 0.148 79.881 0.985 -8.492 0.985 -8.492 0.148 79.881
5750 0.151 79.725 0.984 -8.684 0.984 -8.684 0.151 79.725
5800 0.154 79.569 0.984 -8.874 0.984 -8.874 0.154 79.569
5850 0.158 79.412 0.983 -9.063 0.983 -9.063 0.158 79.412
5900 0.161 79.255 0.983 -9.251 0.983 -9.251 0.161 79.255
5950 0.164 79.097 0.982 -9.438 0.982 -9.438 0.164 79.097
6000 0.167 78.94 0.982 -9.624 0.982 -9.624 0.167 78.94
6050 0.17 78.782 0.981 -9.809 0.981 -9.809 0.17 78.782
6100 0.174 78.625 0.981 -9.993 0.981 -9.993 0.174 78.625
6150 0.177 78.467 0.98 -10.175 0.98 -10.175 0.177 78.467
6200 0.18 78.309 0.98 -10.357 0.98 -10.357 0.18 78.309
6250 0.183 78.151 0.979 -10.537 0.979 -10.537 0.183 78.151
6300 0.186 77.994 0.978 -10.717 0.978 -10.717 0.186 77.994
6350 0.189 77.836 0.978 -10.896 0.978 -10.896 0.189 77.836
6400 0.192 77.679 0.977 -11.073 0.977 -11.073 0.192 77.679
6450 0.195 77.522 0.977 -11.25 0.977 -11.25 0.195 77.522
6500 0.198 77.365 0.976 -11.426 0.976 -11.426 0.198 77.365
6550 0.201 77.209 0.975 -11.601 0.975 -11.601 0.201 77.209
6600 0.204 77.052 0.975 -11.775 0.975 -11.775 0.204 77.052
6650 0.207 76.896 0.974 -11.948 0.974 -11.948 0.207 76.896
6700 0.21 76.741 0.974 -12.12 0.974 -12.12 0.21 76.741
6750 0.213 76.585 0.973 -12.291 0.973 -12.291 0.213 76.585
6800 0.216 76.43 0.972 -12.462 0.972 -12.462 0.216 76.43
6850 0.219 76.275 0.972 -12.632 0.972 -12.632 0.219 76.275
6900 0.222 76.121 0.971 -12.801 0.971 -12.801 0.222 76.121
6950 0.224 75.967 0.97 -12.969 0.97 -12.969 0.224 75.967
7000 0.227 75.813 0.97 -13.136 0.97 -13.136 0.227 75.813
7050 0.23 75.66 0.969 -13.303 0.969 -13.303 0.23 75.66
7100 0.233 75.507 0.968 -13.468 0.968 -13.468 0.233 75.507
7150 0.236 75.354 0.968 -13.634 0.968 -13.634 0.236 75.354
7200 0.239 75.202 0.967 -13.798 0.967 -13.798 0.239 75.202
7250 0.241 75.05 0.966 -13.961 0.966 -13.961 0.241 75.05
7300 0.244 74.899 0.966 -14.124 0.966 -14.124 0.244 74.899
7350 0.247 74.748 0.965 -14.286 0.965 -14.286 0.247 74.748
7400 0.25 74.597 0.964 -14.448 0.964 -14.448 0.25 74.597
7450 0.252 74.447 0.964 -14.609 0.964 -14.609 0.252 74.447
7500 0.255 74.297 0.963 -14.769 0.963 -14.769 0.255 74.297
7550 0.258 74.148 0.962 -14.928 0.962 -14.928 0.258 74.148
7600 0.26 73.999 0.961 -15.087 0.961 -15.087 0.26 73.999
7650 0.263 73.85 0.961 -15.245 0.961 -15.245 0.263 73.85
7700 0.266 73.702 0.96 -15.403 0.96 -15.403 0.266 73.702
7750 0.268 73.554 0.959 -15.559 0.959 -15.559 0.268 73.554
7800 0.271 73.407 0.958 -15.715 0.958 -15.715 0.271 73.407
7850 0.274 73.26 0.958 -15.871 0.958 -15.871 0.274 73.26
7900 0.276 73.114 0.957 -16.026 0.957 -16.026 0.276 73.114
7950 0.279 72.968 0.956 -16.18 0.956 -16.18 0.279 72.968
8000 0.281 72.822 0.955 -16.334 0.955 -16.334 0.281 72.822
8050 0.284 72.677 0.955 -16.487 0.955 -16.487 0.284 72.677
8100 0.286 72.532 0.954 -16.64 0.954 -16.64 0.286 72.532
8150 0.289 72.388 0.953 -16.792 0.953 -16.792 0.289 72.388
8200 0.291 72.244 0.952 -16.943 0.952 -16.943 0.291 72.244
8250 0.294 72.1 0.952 -17.094 0.952 -17.094 0.294 72.1
8300 0.296 71.957 0.951 -17.244 0.951 -17.244 0.296 71.957
8350 0.299 71.815 0.95 -17.394 0.95 -17.394 0.299 71.815
8400 0.301 71.672 0.949 -17.543 0.949 -17.543 0.301 71.672
8450 0.304 71.53 0.949 -17.691 0.949 -17.691 0.304 71.53
8500 0.306 71.389 0.948 -17.839 0.948 -17.839 0.306 71.389
8550 0.309 71.248 0.947 -17.987 0.947 -17.987 0.309 71.248
8600 0.311 71.107 0.946 -18.134 0.946 -18.134 0.311 71.107
8650 0.314 70.967 0.945 -18.28 0.945 -18.28 0.314 70.967
8700 0.316 70.827 0.945 -18.426 0.945 -18.426 0.316 70.827
8750 0.319 70.688 0.944 -18.572 0.944 -18.572 0.319 70.688
8800 0.321 70.548 0.943 -18.717 0.943 -18.717 0.321 70.548
8850 0.323 70.41 0.942 -18.861 0.942 -18.861 0.323 70.41
8900 0.326 70.272 0.941 -19.005 0.941 -19.005 0.326 70.272
8950 0.328 70.134 0.941 -19.148 0.941 -19.148 0.328 70.134
9000 0.33 69.996 0.94 -19.291 0.94 -19.291 0.33 69.996
9050 0.333 69.859 0.939 -19.433 0.939 -19.433 0.333 69.859
9100 0.335 69.723 0.938 -19.575 0.938 -19.575 0.335 69.723
9150 0.337 69.586 0.937 -19.717 0.937 -19.717 0.337 69.586
9200 0.34 69.45 0.936 -19.858 0.936 -19.858 0.34 69.45
9250 0.342 69.315 0.936 -19.998 0.936 -19.998 0.342 69.315
9300 0.344 69.18 0.935 -20.138 0.935 -20.138 0.344 69.18
9350 0.347 69.045 0.934 -20.278 0.934 -20.278 0.347 69.045
9400 0.349 68.911 0.933 -20.417 0.933 -20.417 0.349 68.911
9450 0.351 68.777 0.932 -20.555 0.932 -20.555 0.351 68.777
9500 0.353 68.643 0.931 -20.694 0.931 -20.694 0.353 68.643
9550 0.356 68.51 0.931 -20.831 0.931 -20.831 0.356 68.51
9600 0.358 68.377 0.93 -20.968 0.93 -20.968 0.358 68.377
9650 0.36 68.245 0.929 -21.105 0.929 -21.105 0.36 68.245
9700 0.362 68.113 0.928 -21.242 0.928 -21.242 0.362 68.113
9750 0.365 67.981 0.927 -21.378 0.927 -21.378 0.365 67.981
9800 0.367 67.85 0.926 -21.513 0.926 -21.513 0.367 67.85
9850 0.369 67.719 0.925 -21.648 0.925 -21.648 0.369 67.719
9900 0.371 67.588 0.925 -21.783 0.925 -21.783 0.371 67.588
9950 0.373 67.458 0.924 -21.917 0.924 -21.917 0.373 67.458
10000 0.375 67.328 0.923 -22.051 0.923 -22.051 0.375 67.328
10050 0.378 67.198 0.922 -22.184 0.922 -22.184 0.378 67.198
10100 0.38 67.069 0.921 -22.317 0.921 -22.317 0.38 67.069
10150 0.382 66.94 0.92 -22.449 0.92 -22.449 0.382 66.94
10200 0.384 66.812 0.919 -22.582 0.919 -22.582 0.384 66.812
10250 0.386 66.684 0.918 -22.713 0.918 -22.713 0.386 66.684
10300 0.388 66.556 0.918 -22.845 0.918 -22.845 0.388 66.556
10350 0.39 66.429 0.917 -22.975 0.917 -22.975 0.39 66.429
10400 0.392 66.302 0.916 -23.106 0.916 -23.106 0.392 66.302
10450 0.395 66.175 0.915 -23.236 0.915 -23.236 0.395 66.175
10500 0.397 66.049 0.914 -23.366 0.914 -23.366 0.397 66.049
10550 0.399 65.923 0.913 -23.495 0.913 -23.495 0.399 65.923
10600 0.401 65.798 0.912 -23.624 0.912 -23.624 0.401 65.798
10650 0.403 65.672 0.911 -23.752 0.911 -23.752 0.403 65.672
10700 0.405 65.547 0.91 -23.88 0.91 -23.88 0.405 65.547
10750 0.407 65.423 0.909 -24.008 0.909 -24.008 0.407 65.423
10800 0.409 65.299 0.909 -24.135 0.909 -24.135 0.409 65.299
10850 0.411 65.175 0.908 -24.262 0.908 -24.262 0.411 65.175
10900 0.413 65.051 0.907 -24.389 0.907 -24.389 0.413 65.051
10950 0.415 64.928 0.906 -24.515 0.906 -24.515 0.415 64.928
11000 0.417 64.805 0.905 -24.641 0.905 -24.641 0.417 64.805
11050 0.419 64.683 0.904 -24.766 0.904 -24.766 0.419 64.683
11100 0.421 64.561 0.903 -24.891 0.903 -24.891 0.421 64.561
11150 0.423 64.439 0.902 -25.016 0.902 -25.016 0.423 64.439
11200 0.425 64.318 0.901 -25.14 0.901 -25.14 0.425 64.318
11250 0.427 64.196 0.9 -25.264 0.9 -25.264 0.427 64.196
11300 0.429 64.076 0.899 -25.388 0.899 -25.388 0.429 64.076
11350 0.431 63.955 0.898 -25.511 0.898 -25.511 0.431 63.955
11400 0.433 63.835 0.898 -25.634 0.898 -25.634 0.433 63.835
11450 0.435 63.715 0.897 -25.756 0.897 -25.756 0.435 63.715
11500 0.436 63.596 0.896 -25.878 0.896 -25.878 0.436 63.596
11550 0.438 63.476 0.895 -26 0.895 -26 0.438 63.476
11600 0.44 63.358 0.894 -26.121 0.894 -26.121 0.44 63.358
11650 0.442 63.239 0.893 -26.242 0.893 -26.242 0.442 63.239
11700 0.444 63.121 0.892 -26.363 0.892 -26.363 0.444 63.121
11750 0.446 63.003 0.891 -26.483 0.891 -26.483 0.446 63.003
11800 0.448 62.885 0.89 -26.603 0.89 -26.603 0.448 62.885
11850 0.45 62.768 0.889 -26.723 0.889 -26.723 0.45 62.768
11900 0.452 62.651 0.888 -26.842 0.888 -26.842 0.452 62.651
11950 0.453 62.535 0.887 -26.961 0.887 -26.961 0.453 62.535
12000 0.455 62.418 0.886 -27.08 0.886 -27.08 0.455 62.418
12050 0.457 62.302 0.885 -27.198 0.885 -27.198 0.457 62.302
12100 0.459 62.187 0.885 -27.316 0.885 -27.316 0.459 62.187
12150 0.461 62.071 0.884 -27.434 0.884 -27.434 0.461 62.071
12200 0.463 61.956 0.883 -27.551 0.883 -27.551 0.463 61.956
12250 0.464 61.842 0.882 -27.668 0.882 -27.668 0.464 61.842
12300 0.466 61.727 0.881 -27.785 0.881 -27.785 0.466 61.727
12350 0.468 61.613 0.88 -27.901 0.88 -27.901 0.468 61.613
12400 0.47 61.499 0.879 -28.017 0.879 -28.017 0.47 61.499
12450 0.472 61.386 0.878 -28.132 0.878 -28.132 0.472 61.386
12500 0.473 61.273 0.877 -28.248 0.877 -28.248 0.473 61.273
12550 0.475 61.16 0.876 -28.363 0.876 -28.363 0.475 61.16
12600 0.477 61.047 0.875 -28.477 0.875 -28.477 0.477 61.047
12650 0.479 60.935 0.874 -28.591 0.874 -28.591 0.479 60.935
12700 0.48 60.823 0.873 -28.705 0.873 -28.705 0.48 60.823
12750 0.482 60.711 0.872 -28.819 0.872 -28.819 0.482 60.711
12800 0.484 60.6 0.871 -28.932 0.871 -28.932 0.484 60.6
12850 0.486 60.489 0.87 -29.045 0.87 -29.045 0.486 60.489
12900 0.487 60.378 0.869 -29.158 0.869 -29.158 0.487 60.378
12950 0.489 60.268 0.868 -29.27 0.868 -29.27 0.489 60.268
13000 0.491 60.158 0.867 -29.382 0.867 -29.382 0.491 60.158
13050 0.492 60.048 0.866 -29.494 0.866 -29.494 0.492 60.048
13100 0.494 59.938 0.866 -29.606 0.866 -29.606 0.494 59.938
13150 0.496 59.829 0.865 -29.717 0.865 -29.717 0.496 59.829
13200 0.497 59.72 0.864 -29.828 0.864 -29.828 0.497 59.72
13250 0.499 59.611 0.863 -29.938 0.863 -29.938 0.499 59.611
13300 0.501 59.503 0.862 -30.048 0.862 -30.048 0.501 59.503
13350 0.502 59.395 0.861 -30.158 0.861 -30.158 0.502 59.395
13400 0.504 59.287 0.86 -30.268 0.86 -30.268 0.504 59.287
13450 0.506 59.179 0.859 -30.377 0.859 -30.377 0.506 59.179
13500 0.507 59.072 0.858 -30.486 0.858 -30.486 0.507 59.072
13550 0.509 58.965 0.857 -30.594 0.857 -30.594 0.509 58.965
13600 0.511 58.859 0.856 -30.703 0.856 -30.703 0.511 58.859
13650 0.512 58.752 0.855 -30.811 0.855 -30.811 0.512 58.752
13700 0.514 58.646 0.854 -30.919 0.854 -30.919 0.514 58.646
13750 0.515 58.54 0.853 -31.026 0.853 -31.026 0.515 58.54
13800 0.517 58.435 0.852 -31.133 0.852 -31.133 0.517 58.435
13850 0.519 58.33 0.851 -31.24 0.851 -31.24 0.519 58.33
13900 0.52 58.225 0.85 -31.347 0.85 -31.347 0.52 58.225
13950 0.522 58.12 0.849 -31.453 0.849 -31.453 0.522 58.12
14000 0.523 58.016 0.848 -31.559 0.848 -31.559 0.523 58.016
14050 0.525 57.911 0.847 -31.665 0.847 -31.665 0.525 57.911
14100 0.527 57.808 0.846 -31.77 0.846 -31.77 0.527 57.808
14150 0.528 57.704 0.845 -31.875 0.845 -31.875 0.528 57.704
14200 0.53 57.601 0.844 -31.98 0.844 -31.98 0.53 57.601
14250 0.531 57.498 0.843 -32.084 0.843 -32.084 0.531 57.498
14300 0.533 57.395 0.842 -32.189 0.842 -32.189 0.533 57.395
14350 0.534 57.292 0.841 -32.293 0.841 -32.293 0.534 57.292
14400 0.536 57.19 0.84 -32.396 0.84 -32.396 0.536 57.19
14450 0.537 57.088 0.84 -32.5 0.84 -32.5 0.537 57.088
14500 0.539 56.987 0.839 -32.603 0.839 -32.603 0.539 56.987
14550 0.54 56.885 0.838 -32.705 0.838 -32.705 0.54 56.885
14600 0.542 56.784 0.837 -32.808 0.837 -32.808 0.542 56.784
14650 0.543 56.683 0.836 -32.91 0.836 -32.91 0.543 56.683
14700 0.545 56.583 0.835 -33.012 0.835 -33.012 0.545 56.583
14750 0.546 56.483 0.834 -33.114 0.834 -33.114 0.546 56.483
14800 0.548 56.382 0.833 -33.215 0.833 -33.215 0.548 56.382
14850 0.549 56.283 0.832 -33.316 0.832 -33.316 0.549 56.283
14900 0.551 56.183 0.831 -33.417 0.831 -33.417 0.551 56.183
14950 0.552 56.084 0.83 -33.518 0.83 -33.518 0.552 56.084
15000 0.554 55.985 0.829 -33.618 0.829 -33.618 0.554 55.985
15050 0.555 55.886 0.828 -33.718 0.828 -33.718 0.555 55.886
15100 0.557 55.788 0.827 -33.818 0.827 -33.818 0.557 55.788
15150 0.558 55.69 0.826 -33.917 0.826 -33.917 0.558 55.69
15200 0.559 55.592 0.825 -34.017 0.825 -34.017 0.559 55.592
15250 0.561 55.494 0.824 -34.115 0.824 -34.115 0.561 55.494
15300 0.562 55.397 0.823 -34.214 0.823 -34.214 0.562 55.397
15350 0.564 55.299 0.822 -34.313 0.822 -34.313 0.564 55.299
15400 0.565 55.203 0.821 -34.411 0.821 -34.411 0.565 55.203
15450 0.567 55.106 0.82 -34.509 0.82 -34.509 0.567 55.106
15500 0.568 55.01 0.819 -34.606 0.819 -34.606 0.568 55.01
15550 0.569 54.913 0.818 -34.703 0.818 -34.703 0.569 54.913
15600 0.571 54.818 0.817 -34.8 0.817 -34.8 0.571 54.818
15650 0.572 54.722 0.816 -34.897 0.816 -34.897 0.572 54.722
15700 0.574 54.627 0.815 -34.994 0.815 -34.994 0.574 54.627
15750 0.575 54.531 0.814 -35.09 0.814 -35.09 0.575 54.531
15800 0.576 54.437 0.813 -35.186 0.813 -35.186 0.576 54.437
15850 0.578 54.342 0.813 -35.282 0.813 -35.282 0.578 54.342
15900 0.579 54.248 0.812 -35.377 0.812 -35.377 0.579 54.248
15950 0.58 54.154 0.811 -35.473 0.811 -35.473 0.58 54.154
16000 0.582 54.06 0.81 -35.568 0.81 -35.568 0.582 54.06
16050 0.583 53.966 0.809 -35.662 0.809 -35.662 0.583 53.966
16100 0.584 53.873 0.808 -35.757 0.808 -35.757 0.584 53.873
16150 0.586 53.78 0.807 -35.851 0.807 -35.851 0.586 53.78
16200 0.587 53.687 0.806 -35.945 0.806 -35.945 0.587 53.687
16250 0.588 53.594 0.805 -36.039 0.805 -36.039 0.588 53.594
16300 0.59 53.502 0.804 -36.132 0.804 -36.132 0.59 53.502
16350 0.591 53.41 0.803 -36.225 0.803 -36.225 0.591 53.41
16400 0.592 53.318 0.802 -36.318 0.802 -36.318 0.592 53.318
16450 0.594 53.226 0.801 -36.411 0.801 -36.411 0.594 53.226
16500 0.595 53.135 0.8 -36.503 0.8 -36.503 0.595 53.135
16550 0.596 53.044 0.799 -36.596 0.799 -36.596 0.596 53.044
16600 0.597 52.953 0.798 -36.688 0.798 -36.688 0.597 52.953
16650 0.599 52.862 0.797 -36.779 0.797 -36.779 0.599 52.862
16700 0.6 52.772 0.796 -36.871 0.796 -36.871 0.6 52.772
16750 0.601 52.681 0.795 -36.962 0.795 -36.962 0.601 52.681
16800 0.603 52.591 0.794 -37.053 0.794 -37.053 0.603 52.591
16850 0.604 52.502 0.793 -37.144 0.793 -37.144 0.604 52.502
16900 0.605 52.412 0.792 -37.234 0.792 -37.234 0.605 52.412
