! AVX Thin Film Operation		Date: April 2012 
! Description: Accu-P® Series, Thin Film, SMD, RF Capacitor
! Part Number: 08051J0R8PBTTR					
!	100	MHz	-	30.05	GHz			
!	Serial	Measurements						
!								
#	MHZ	S	MA	R	50			
!	S11	S21	S12	S22				
!	dB	Phase	dB	Phase	dB	Phase	dB	Phase
100	0.999	-2.878	0.05	87.114	0.05	87.114	0.999	-2.878
107.458	0.999	-3.092	0.054	86.899	0.054	86.899	0.999	-3.092
114.916	0.998	-3.307	0.058	86.684	0.058	86.684	0.998	-3.307
122.375	0.998	-3.521	0.061	86.47	0.061	86.47	0.998	-3.521
129.833	0.998	-3.735	0.065	86.255	0.065	86.255	0.998	-3.735
137.291	0.998	-3.949	0.069	86.04	0.069	86.04	0.998	-3.949
144.749	0.997	-4.163	0.073	85.826	0.073	85.826	0.997	-4.163
152.208	0.997	-4.377	0.076	85.611	0.076	85.611	0.997	-4.377
159.666	0.997	-4.591	0.08	85.397	0.08	85.397	0.997	-4.591
167.124	0.996	-4.804	0.084	85.183	0.084	85.183	0.996	-4.804
174.582	0.996	-5.018	0.087	84.969	0.087	84.969	0.996	-5.018
182.04	0.996	-5.231	0.091	84.755	0.091	84.755	0.996	-5.231
189.499	0.995	-5.445	0.095	84.541	0.095	84.541	0.995	-5.445
196.957	0.995	-5.658	0.099	84.327	0.099	84.327	0.995	-5.658
204.415	0.995	-5.871	0.102	84.113	0.102	84.113	0.995	-5.871
211.873	0.994	-6.084	0.106	83.9	0.106	83.9	0.994	-6.084
219.332	0.994	-6.297	0.11	83.686	0.11	83.686	0.994	-6.297
226.79	0.994	-6.509	0.113	83.473	0.113	83.473	0.994	-6.509
234.248	0.993	-6.722	0.117	83.26	0.117	83.26	0.993	-6.722
241.706	0.993	-6.934	0.121	83.047	0.121	83.047	0.993	-6.934
249.164	0.992	-7.146	0.124	82.834	0.124	82.834	0.992	-7.146
256.623	0.992	-7.358	0.128	82.621	0.128	82.621	0.992	-7.358
264.081	0.991	-7.57	0.132	82.409	0.132	82.409	0.991	-7.57
271.539	0.991	-7.782	0.135	82.197	0.135	82.197	0.991	-7.782
278.997	0.99	-7.994	0.139	81.984	0.139	81.984	0.99	-7.994
286.455	0.99	-8.205	0.143	81.772	0.143	81.772	0.99	-8.205
293.914	0.989	-8.416	0.146	81.561	0.146	81.561	0.989	-8.416
301.372	0.989	-8.627	0.15	81.349	0.15	81.349	0.989	-8.627
308.83	0.988	-8.838	0.154	81.138	0.154	81.138	0.988	-8.838
316.288	0.987	-9.049	0.157	80.926	0.157	80.926	0.987	-9.049
323.747	0.987	-9.259	0.161	80.715	0.161	80.715	0.987	-9.259
331.205	0.986	-9.47	0.165	80.504	0.165	80.504	0.986	-9.47
338.663	0.986	-9.68	0.168	80.294	0.168	80.294	0.986	-9.68
346.121	0.985	-9.89	0.172	80.083	0.172	80.083	0.985	-9.89
353.579	0.984	-10.099	0.175	79.873	0.175	79.873	0.984	-10.099
361.038	0.984	-10.309	0.179	79.663	0.179	79.663	0.984	-10.309
368.496	0.983	-10.518	0.183	79.453	0.183	79.453	0.983	-10.518
375.954	0.982	-10.727	0.186	79.244	0.186	79.244	0.982	-10.727
383.412	0.982	-10.936	0.19	79.034	0.19	79.034	0.982	-10.936
390.871	0.981	-11.144	0.193	78.825	0.193	78.825	0.981	-11.144
398.329	0.98	-11.353	0.197	78.616	0.197	78.616	0.98	-11.353
405.787	0.98	-11.561	0.2	78.408	0.2	78.408	0.98	-11.561
413.245	0.979	-11.769	0.204	78.199	0.204	78.199	0.979	-11.769
420.703	0.978	-11.976	0.208	77.991	0.208	77.991	0.978	-11.976
428.162	0.977	-12.183	0.211	77.783	0.211	77.783	0.977	-12.183
435.62	0.977	-12.39	0.215	77.575	0.215	77.575	0.977	-12.39
443.078	0.976	-12.597	0.218	77.368	0.218	77.368	0.976	-12.597
450.536	0.975	-12.804	0.222	77.161	0.222	77.161	0.975	-12.804
457.995	0.974	-13.01	0.225	76.954	0.225	76.954	0.974	-13.01
465.453	0.973	-13.216	0.229	76.747	0.229	76.747	0.973	-13.216
472.911	0.973	-13.422	0.232	76.541	0.232	76.541	0.973	-13.422
480.369	0.972	-13.627	0.236	76.335	0.236	76.335	0.972	-13.627
487.827	0.971	-13.833	0.239	76.129	0.239	76.129	0.971	-13.833
495.286	0.97	-14.037	0.243	75.924	0.243	75.924	0.97	-14.037
502.744	0.969	-14.242	0.246	75.719	0.246	75.719	0.969	-14.242
510.202	0.968	-14.446	0.249	75.514	0.249	75.514	0.968	-14.446
517.66	0.967	-14.65	0.253	75.309	0.253	75.309	0.967	-14.65
525.118	0.966	-14.854	0.256	75.105	0.256	75.105	0.966	-14.854
532.577	0.965	-15.058	0.26	74.901	0.26	74.901	0.965	-15.058
540.035	0.965	-15.261	0.263	74.697	0.263	74.697	0.965	-15.261
547.493	0.964	-15.464	0.267	74.494	0.267	74.494	0.964	-15.464
554.951	0.963	-15.666	0.27	74.29	0.27	74.29	0.963	-15.666
562.41	0.962	-15.868	0.273	74.088	0.273	74.088	0.962	-15.868
569.868	0.961	-16.07	0.277	73.885	0.277	73.885	0.961	-16.07
577.326	0.96	-16.272	0.28	73.683	0.28	73.683	0.96	-16.272
584.784	0.959	-16.473	0.284	73.481	0.284	73.481	0.959	-16.473
592.242	0.958	-16.674	0.287	73.28	0.287	73.28	0.958	-16.674
599.701	0.957	-16.874	0.29	73.079	0.29	73.079	0.957	-16.874
607.159	0.956	-17.075	0.294	72.878	0.294	72.878	0.956	-17.075
614.617	0.955	-17.275	0.297	72.677	0.297	72.677	0.955	-17.275
622.075	0.954	-17.474	0.3	72.477	0.3	72.477	0.954	-17.474
629.534	0.953	-17.673	0.304	72.277	0.304	72.277	0.953	-17.673
636.992	0.951	-17.872	0.307	72.078	0.307	72.078	0.951	-17.872
644.45	0.95	-18.071	0.31	71.879	0.31	71.879	0.95	-18.071
651.908	0.949	-18.269	0.313	71.68	0.313	71.68	0.949	-18.269
659.366	0.948	-18.467	0.317	71.481	0.317	71.481	0.948	-18.467
666.825	0.947	-18.664	0.32	71.283	0.32	71.283	0.947	-18.664
674.283	0.946	-18.862	0.323	71.085	0.323	71.085	0.946	-18.862
681.741	0.945	-19.058	0.327	70.888	0.327	70.888	0.945	-19.058
689.199	0.944	-19.255	0.33	70.691	0.33	70.691	0.944	-19.255
696.658	0.943	-19.451	0.333	70.494	0.333	70.494	0.943	-19.451
704.116	0.941	-19.647	0.336	70.298	0.336	70.298	0.941	-19.647
711.574	0.94	-19.842	0.339	70.102	0.339	70.102	0.94	-19.842
719.032	0.939	-20.037	0.343	69.907	0.343	69.907	0.939	-20.037
726.49	0.938	-20.231	0.346	69.711	0.346	69.711	0.938	-20.231
733.949	0.937	-20.426	0.349	69.517	0.349	69.517	0.937	-20.426
741.407	0.936	-20.619	0.352	69.322	0.352	69.322	0.936	-20.619
748.865	0.934	-20.813	0.355	69.128	0.355	69.128	0.934	-20.813
756.323	0.933	-21.006	0.358	68.935	0.358	68.935	0.933	-21.006
763.781	0.932	-21.199	0.362	68.741	0.362	68.741	0.932	-21.199
771.24	0.931	-21.391	0.365	68.548	0.365	68.548	0.931	-21.391
778.698	0.929	-21.583	0.368	68.356	0.368	68.356	0.929	-21.583
786.156	0.928	-21.774	0.371	68.164	0.371	68.164	0.928	-21.774
793.614	0.927	-21.965	0.374	67.972	0.374	67.972	0.927	-21.965
801.073	0.926	-22.156	0.377	67.781	0.377	67.781	0.926	-22.156
808.531	0.924	-22.346	0.38	67.59	0.38	67.59	0.924	-22.346
815.989	0.923	-22.536	0.383	67.399	0.383	67.399	0.923	-22.536
823.447	0.922	-22.726	0.386	67.209	0.386	67.209	0.922	-22.726
830.905	0.921	-22.915	0.389	67.02	0.389	67.02	0.921	-22.915
838.364	0.919	-23.104	0.392	66.83	0.392	66.83	0.919	-23.104
845.822	0.918	-23.292	0.395	66.641	0.395	66.641	0.918	-23.292
853.28	0.917	-23.48	0.398	66.453	0.398	66.453	0.917	-23.48
860.738	0.915	-23.667	0.401	66.265	0.401	66.265	0.915	-23.667
868.197	0.914	-23.854	0.404	66.077	0.404	66.077	0.914	-23.854
875.655	0.913	-24.041	0.407	65.89	0.407	65.89	0.913	-24.041
883.113	0.911	-24.227	0.41	65.703	0.41	65.703	0.911	-24.227
890.571	0.91	-24.413	0.413	65.516	0.413	65.516	0.91	-24.413
898.029	0.909	-24.599	0.416	65.33	0.416	65.33	0.909	-24.599
905.488	0.907	-24.784	0.419	65.145	0.419	65.145	0.907	-24.784
912.946	0.906	-24.968	0.422	64.96	0.422	64.96	0.906	-24.968
920.404	0.905	-25.152	0.425	64.775	0.425	64.775	0.905	-25.152
927.862	0.903	-25.336	0.428	64.591	0.428	64.591	0.903	-25.336
935.321	0.902	-25.519	0.431	64.407	0.431	64.407	0.902	-25.519
942.779	0.9	-25.702	0.434	64.223	0.434	64.223	0.9	-25.702
950.237	0.899	-25.885	0.437	64.04	0.437	64.04	0.899	-25.885
957.695	0.898	-26.067	0.439	63.857	0.439	63.857	0.898	-26.067
965.153	0.896	-26.248	0.442	63.675	0.442	63.675	0.896	-26.248
972.612	0.895	-26.43	0.445	63.493	0.445	63.493	0.895	-26.43
980.07	0.893	-26.61	0.448	63.312	0.448	63.312	0.893	-26.61
987.528	0.892	-26.791	0.451	63.131	0.451	63.131	0.892	-26.791
994.986	0.891	-26.971	0.454	62.951	0.454	62.951	0.891	-26.971
1002.444	0.889	-27.15	0.456	62.771	0.456	62.771	0.889	-27.15
1009.903	0.888	-27.329	0.459	62.591	0.459	62.591	0.888	-27.329
1017.361	0.886	-27.508	0.462	62.412	0.462	62.412	0.886	-27.508
1024.819	0.885	-27.686	0.465	62.233	0.465	62.233	0.885	-27.686
1032.277	0.883	-27.863	0.467	62.055	0.467	62.055	0.883	-27.863
1039.736	0.882	-28.041	0.47	61.877	0.47	61.877	0.882	-28.041
1047.194	0.88	-28.218	0.473	61.699	0.473	61.699	0.88	-28.218
1054.652	0.879	-28.394	0.476	61.522	0.476	61.522	0.879	-28.394
1062.11	0.878	-28.57	0.478	61.346	0.478	61.346	0.878	-28.57
1069.568	0.876	-28.745	0.481	61.17	0.481	61.17	0.876	-28.745
1077.027	0.875	-28.92	0.484	60.994	0.484	60.994	0.875	-28.92
1084.485	0.873	-29.095	0.486	60.819	0.486	60.819	0.873	-29.095
1091.943	0.872	-29.269	0.489	60.644	0.489	60.644	0.872	-29.269
1099.401	0.87	-29.443	0.492	60.47	0.492	60.47	0.87	-29.443
1106.86	0.869	-29.616	0.494	60.296	0.494	60.296	0.869	-29.616
1114.318	0.867	-29.789	0.497	60.122	0.497	60.122	0.867	-29.789
1121.776	0.866	-29.961	0.499	59.949	0.499	59.949	0.866	-29.961
1129.234	0.864	-30.133	0.502	59.777	0.502	59.777	0.864	-30.133
1136.692	0.863	-30.305	0.505	59.605	0.505	59.605	0.863	-30.305
1144.151	0.861	-30.476	0.507	59.433	0.507	59.433	0.861	-30.476
1151.609	0.86	-30.647	0.51	59.262	0.51	59.262	0.86	-30.647
1159.067	0.858	-30.817	0.512	59.091	0.512	59.091	0.858	-30.817
1166.525	0.856	-30.986	0.515	58.92	0.515	58.92	0.856	-30.986
1173.984	0.855	-31.156	0.517	58.751	0.517	58.751	0.855	-31.156
1181.442	0.853	-31.325	0.52	58.581	0.52	58.581	0.853	-31.325
1188.9	0.852	-31.493	0.522	58.412	0.522	58.412	0.852	-31.493
1196.358	0.85	-31.661	0.525	58.244	0.525	58.244	0.85	-31.661
1203.816	0.849	-31.828	0.527	58.076	0.527	58.076	0.849	-31.828
1211.275	0.847	-31.995	0.53	57.908	0.53	57.908	0.847	-31.995
1218.733	0.846	-32.162	0.532	57.741	0.532	57.741	0.846	-32.162
1226.191	0.844	-32.328	0.535	57.574	0.535	57.574	0.844	-32.328
1233.649	0.843	-32.494	0.537	57.408	0.537	57.408	0.843	-32.494
1241.108	0.841	-32.659	0.54	57.242	0.54	57.242	0.841	-32.659
1248.566	0.839	-32.824	0.542	57.076	0.542	57.076	0.839	-32.824
1256.024	0.838	-32.988	0.544	56.911	0.544	56.911	0.838	-32.988
1263.482	0.836	-33.152	0.547	56.747	0.547	56.747	0.836	-33.152
1270.94	0.835	-33.315	0.549	56.583	0.549	56.583	0.835	-33.315
1278.399	0.833	-33.478	0.552	56.419	0.552	56.419	0.833	-33.478
1285.857	0.832	-33.641	0.554	56.256	0.554	56.256	0.832	-33.641
1293.315	0.83	-33.803	0.556	56.093	0.556	56.093	0.83	-33.803
1300.773	0.828	-33.965	0.559	55.931	0.559	55.931	0.828	-33.965
1308.231	0.827	-34.126	0.561	55.769	0.561	55.769	0.827	-34.126
1315.69	0.825	-34.287	0.563	55.608	0.563	55.608	0.825	-34.287
1323.148	0.824	-34.447	0.566	55.447	0.566	55.447	0.824	-34.447
1330.606	0.822	-34.607	0.568	55.286	0.568	55.286	0.822	-34.607
1338.064	0.82	-34.766	0.57	55.126	0.57	55.126	0.82	-34.766
1345.523	0.819	-34.925	0.573	54.967	0.573	54.967	0.819	-34.925
1352.981	0.817	-35.084	0.575	54.808	0.575	54.808	0.817	-35.084
1360.439	0.816	-35.242	0.577	54.649	0.577	54.649	0.816	-35.242
1367.897	0.814	-35.399	0.579	54.491	0.579	54.491	0.814	-35.399
1375.355	0.812	-35.556	0.582	54.333	0.582	54.333	0.812	-35.556
1382.814	0.811	-35.713	0.584	54.175	0.584	54.175	0.811	-35.713
1390.272	0.809	-35.869	0.586	54.019	0.586	54.019	0.809	-35.869
1397.73	0.808	-36.025	0.588	53.862	0.588	53.862	0.808	-36.025
1405.188	0.806	-36.181	0.59	53.706	0.59	53.706	0.806	-36.181
1412.647	0.804	-36.336	0.593	53.55	0.593	53.55	0.804	-36.336
1420.105	0.803	-36.49	0.595	53.395	0.595	53.395	0.803	-36.49
1427.563	0.801	-36.644	0.597	53.241	0.597	53.241	0.801	-36.644
1435.021	0.8	-36.798	0.599	53.086	0.599	53.086	0.8	-36.798
1442.479	0.798	-36.951	0.601	52.932	0.601	52.932	0.798	-36.951
1449.938	0.796	-37.104	0.603	52.779	0.603	52.779	0.796	-37.104
1457.396	0.795	-37.256	0.605	52.626	0.605	52.626	0.795	-37.256
1464.854	0.793	-37.408	0.607	52.474	0.607	52.474	0.793	-37.408
1472.312	0.791	-37.559	0.61	52.322	0.61	52.322	0.791	-37.559
1479.771	0.79	-37.71	0.612	52.17	0.612	52.17	0.79	-37.71
1487.229	0.788	-37.861	0.614	52.019	0.614	52.019	0.788	-37.861
1494.687	0.787	-38.011	0.616	51.868	0.616	51.868	0.787	-38.011
1502.145	0.785	-38.16	0.618	51.718	0.618	51.718	0.785	-38.16
1509.603	0.783	-38.31	0.62	51.568	0.62	51.568	0.783	-38.31
1517.062	0.782	-38.458	0.622	51.418	0.622	51.418	0.782	-38.458
1524.52	0.78	-38.607	0.624	51.269	0.624	51.269	0.78	-38.607
1531.978	0.778	-38.755	0.626	51.121	0.626	51.121	0.778	-38.755
1539.436	0.777	-38.902	0.628	50.973	0.628	50.973	0.777	-38.902
1546.894	0.775	-39.049	0.63	50.825	0.63	50.825	0.775	-39.049
1554.353	0.774	-39.196	0.632	50.678	0.632	50.678	0.774	-39.196
1561.811	0.772	-39.342	0.634	50.531	0.634	50.531	0.772	-39.342
1569.269	0.77	-39.488	0.636	50.384	0.636	50.384	0.77	-39.488
1576.727	0.769	-39.633	0.638	50.238	0.638	50.238	0.769	-39.633
1584.186	0.767	-39.778	0.64	50.093	0.64	50.093	0.767	-39.778
1591.644	0.765	-39.922	0.642	49.948	0.642	49.948	0.765	-39.922
1599.102	0.764	-40.067	0.644	49.803	0.644	49.803	0.764	-40.067
1606.56	0.762	-40.21	0.646	49.659	0.646	49.659	0.762	-40.21
1614.018	0.761	-40.353	0.648	49.515	0.648	49.515	0.761	-40.353
1621.477	0.759	-40.496	0.649	49.371	0.649	49.371	0.759	-40.496
1628.935	0.757	-40.638	0.651	49.228	0.651	49.228	0.757	-40.638
1636.393	0.756	-40.78	0.653	49.086	0.653	49.086	0.756	-40.78
1643.851	0.754	-40.922	0.655	48.944	0.655	48.944	0.754	-40.922
1651.31	0.752	-41.063	0.657	48.802	0.657	48.802	0.752	-41.063
1658.768	0.751	-41.204	0.659	48.661	0.659	48.661	0.751	-41.204
1666.226	0.749	-41.344	0.661	48.52	0.661	48.52	0.749	-41.344
1673.684	0.748	-41.484	0.662	48.379	0.662	48.379	0.748	-41.484
1681.142	0.746	-41.623	0.664	48.239	0.664	48.239	0.746	-41.623
1688.601	0.744	-41.762	0.666	48.1	0.666	48.1	0.744	-41.762
1696.059	0.743	-41.901	0.668	47.96	0.668	47.96	0.743	-41.901
1703.517	0.741	-42.039	0.67	47.821	0.67	47.821	0.741	-42.039
1710.975	0.739	-42.176	0.671	47.683	0.671	47.683	0.739	-42.176
1718.434	0.738	-42.314	0.673	47.545	0.673	47.545	0.738	-42.314
1725.892	0.736	-42.451	0.675	47.407	0.675	47.407	0.736	-42.451
1733.35	0.735	-42.587	0.677	47.27	0.677	47.27	0.735	-42.587
1740.808	0.733	-42.723	0.678	47.134	0.678	47.134	0.733	-42.723
1748.266	0.731	-42.859	0.68	46.997	0.68	46.997	0.731	-42.859
1755.725	0.73	-42.994	0.682	46.861	0.682	46.861	0.73	-42.994
1763.183	0.728	-43.129	0.684	46.726	0.684	46.726	0.728	-43.129
1770.641	0.726	-43.263	0.685	46.591	0.685	46.591	0.726	-43.263
1778.099	0.725	-43.397	0.687	46.456	0.687	46.456	0.725	-43.397
1785.557	0.723	-43.531	0.689	46.321	0.689	46.321	0.723	-43.531
1793.016	0.722	-43.664	0.69	46.188	0.69	46.188	0.722	-43.664
1800.474	0.72	-43.797	0.692	46.054	0.692	46.054	0.72	-43.797
1807.932	0.718	-43.93	0.694	45.921	0.694	45.921	0.718	-43.93
1815.39	0.717	-44.062	0.695	45.788	0.695	45.788	0.717	-44.062
1822.849	0.715	-44.193	0.697	45.656	0.697	45.656	0.715	-44.193
1830.307	0.714	-44.325	0.699	45.524	0.699	45.524	0.714	-44.325
1837.765	0.712	-44.455	0.7	45.392	0.7	45.392	0.712	-44.455
1845.223	0.71	-44.586	0.702	45.261	0.702	45.261	0.71	-44.586
1852.681	0.709	-44.716	0.704	45.13	0.704	45.13	0.709	-44.716
1860.14	0.707	-44.846	0.705	45	0.705	45	0.707	-44.846
1867.598	0.706	-44.975	0.707	44.87	0.707	44.87	0.706	-44.975
1875.056	0.704	-45.104	0.708	44.74	0.708	44.74	0.704	-45.104
1882.514	0.702	-45.232	0.71	44.611	0.71	44.611	0.702	-45.232
1889.973	0.701	-45.36	0.712	44.482	0.712	44.482	0.701	-45.36
1897.431	0.699	-45.488	0.713	44.354	0.713	44.354	0.699	-45.488
1904.889	0.697	-45.615	0.715	44.226	0.715	44.226	0.697	-45.615
1912.347	0.696	-45.742	0.716	44.098	0.716	44.098	0.696	-45.742
1919.805	0.694	-45.869	0.718	43.971	0.718	43.971	0.694	-45.869
1927.264	0.693	-45.995	0.719	43.844	0.719	43.844	0.693	-45.995
1934.722	0.691	-46.121	0.721	43.718	0.721	43.718	0.691	-46.121
1942.18	0.69	-46.246	0.722	43.592	0.722	43.592	0.69	-46.246
1949.638	0.688	-46.371	0.724	43.466	0.724	43.466	0.688	-46.371
1957.097	0.686	-46.496	0.725	43.34	0.725	43.34	0.686	-46.496
1964.555	0.685	-46.62	0.727	43.215	0.727	43.215	0.685	-46.62
1972.013	0.683	-46.744	0.728	43.091	0.728	43.091	0.683	-46.744
1979.471	0.682	-46.868	0.73	42.967	0.73	42.967	0.682	-46.868
1986.929	0.68	-46.991	0.731	42.843	0.731	42.843	0.68	-46.991
1994.388	0.678	-47.114	0.733	42.719	0.733	42.719	0.678	-47.114
2001.846	0.677	-47.236	0.734	42.596	0.734	42.596	0.677	-47.236
2009.304	0.675	-47.358	0.736	42.473	0.736	42.473	0.675	-47.358
2016.762	0.674	-47.48	0.737	42.351	0.737	42.351	0.674	-47.48
2024.221	0.672	-47.601	0.738	42.229	0.738	42.229	0.672	-47.601
2031.679	0.671	-47.722	0.74	42.107	0.74	42.107	0.671	-47.722
2039.137	0.669	-47.843	0.741	41.986	0.741	41.986	0.669	-47.843
2046.595	0.667	-47.963	0.743	41.865	0.743	41.865	0.667	-47.963
2054.053	0.666	-48.083	0.744	41.744	0.744	41.744	0.666	-48.083
2061.512	0.664	-48.202	0.746	41.624	0.746	41.624	0.664	-48.202
2068.97	0.663	-48.321	0.747	41.504	0.747	41.504	0.663	-48.321
2076.428	0.661	-48.44	0.748	41.385	0.748	41.385	0.661	-48.44
2083.886	0.66	-48.558	0.75	41.266	0.75	41.266	0.66	-48.558
2091.344	0.658	-48.676	0.751	41.147	0.751	41.147	0.658	-48.676
2098.803	0.656	-48.794	0.752	41.029	0.752	41.029	0.656	-48.794
2106.261	0.655	-48.911	0.754	40.911	0.754	40.911	0.655	-48.911
2113.719	0.653	-49.028	0.755	40.793	0.755	40.793	0.653	-49.028
2121.177	0.652	-49.145	0.756	40.675	0.756	40.675	0.652	-49.145
2128.636	0.65	-49.261	0.758	40.558	0.758	40.558	0.65	-49.261
2136.094	0.649	-49.377	0.759	40.442	0.759	40.442	0.649	-49.377
2143.552	0.647	-49.493	0.76	40.325	0.76	40.325	0.647	-49.493
2151.01	0.646	-49.608	0.762	40.209	0.762	40.209	0.646	-49.608
2158.468	0.644	-49.723	0.763	40.094	0.763	40.094	0.644	-49.723
2165.927	0.643	-49.837	0.764	39.979	0.764	39.979	0.643	-49.837
2173.385	0.641	-49.952	0.766	39.864	0.766	39.864	0.641	-49.952
2180.843	0.639	-50.065	0.767	39.749	0.767	39.749	0.639	-50.065
2188.301	0.638	-50.179	0.768	39.635	0.768	39.635	0.638	-50.179
2195.76	0.636	-50.292	0.769	39.521	0.769	39.521	0.636	-50.292
2203.218	0.635	-50.405	0.771	39.407	0.771	39.407	0.635	-50.405
2210.676	0.633	-50.517	0.772	39.294	0.772	39.294	0.633	-50.517
2218.134	0.632	-50.63	0.773	39.181	0.773	39.181	0.632	-50.63
2225.592	0.63	-50.741	0.774	39.069	0.774	39.069	0.63	-50.741
2233.051	0.629	-50.853	0.776	38.956	0.776	38.956	0.629	-50.853
2240.509	0.627	-50.964	0.777	38.844	0.777	38.844	0.627	-50.964
2247.967	0.626	-51.075	0.778	38.733	0.778	38.733	0.626	-51.075
2255.425	0.624	-51.185	0.779	38.622	0.779	38.622	0.624	-51.185
2262.884	0.623	-51.295	0.78	38.511	0.78	38.511	0.623	-51.295
2270.342	0.621	-51.405	0.782	38.4	0.782	38.4	0.621	-51.405
2277.8	0.62	-51.515	0.783	38.29	0.783	38.29	0.62	-51.515
2285.258	0.618	-51.624	0.784	38.18	0.784	38.18	0.618	-51.624
2292.716	0.617	-51.733	0.785	38.07	0.785	38.07	0.617	-51.733
2300.175	0.615	-51.841	0.786	37.961	0.786	37.961	0.615	-51.841
2307.633	0.614	-51.949	0.787	37.852	0.787	37.852	0.614	-51.949
2315.091	0.612	-52.057	0.789	37.743	0.789	37.743	0.612	-52.057
2322.549	0.611	-52.165	0.79	37.635	0.79	37.635	0.611	-52.165
2330.007	0.609	-52.272	0.791	37.527	0.791	37.527	0.609	-52.272
2337.466	0.608	-52.379	0.792	37.419	0.792	37.419	0.608	-52.379
2344.924	0.606	-52.486	0.793	37.312	0.793	37.312	0.606	-52.486
2352.382	0.605	-52.592	0.794	37.205	0.794	37.205	0.605	-52.592
2359.84	0.603	-52.698	0.795	37.098	0.795	37.098	0.603	-52.698
2367.299	0.602	-52.803	0.797	36.992	0.797	36.992	0.602	-52.803
2374.757	0.6	-52.909	0.798	36.886	0.798	36.886	0.6	-52.909
2382.215	0.599	-53.014	0.799	36.78	0.799	36.78	0.599	-53.014
2389.673	0.597	-53.118	0.8	36.674	0.8	36.674	0.597	-53.118
2397.131	0.596	-53.223	0.801	36.569	0.801	36.569	0.596	-53.223
2404.59	0.594	-53.327	0.802	36.464	0.802	36.464	0.594	-53.327
2412.048	0.593	-53.431	0.803	36.36	0.803	36.36	0.593	-53.431
2419.506	0.591	-53.534	0.804	36.255	0.804	36.255	0.591	-53.534
2426.964	0.59	-53.637	0.805	36.151	0.805	36.151	0.59	-53.637
2434.423	0.588	-53.74	0.806	36.048	0.806	36.048	0.588	-53.74
2441.881	0.587	-53.843	0.807	35.944	0.807	35.944	0.587	-53.843
2449.339	0.586	-53.945	0.808	35.841	0.808	35.841	0.586	-53.945
2456.797	0.584	-54.047	0.81	35.738	0.81	35.738	0.584	-54.047
2464.255	0.583	-54.149	0.811	35.636	0.811	35.636	0.583	-54.149
2471.714	0.581	-54.25	0.812	35.534	0.812	35.534	0.581	-54.25
2479.172	0.58	-54.351	0.813	35.432	0.813	35.432	0.58	-54.351
2486.63	0.578	-54.452	0.814	35.33	0.814	35.33	0.578	-54.452
