! AVX Thin Film Operation		Date: April 2012 
! Description: Accu-P® Series, Thin Film, SMD, RF Capacitor
! Part Number: 08051J4R6ABTTR					
!	50	MHz	-	20.05	GHz			
!	Serial	Measurements						
!								
#	MHZ	S	MA	R	50			
!	S11	S21	S12	S22				
!	dB	Phase	dB	Phase	dB	Phase	dB	Phase
50 0.99 -8.224 0.143 81.703 0.143 81.703 0.99 -8.224
100 0.96 -16.135 0.278 73.777 0.278 73.777 0.96 -16.135
150 0.916 -23.487 0.399 66.409 0.399 66.409 0.916 -23.487
200 0.864 -30.137 0.502 59.743 0.502 59.743 0.864 -30.137
250 0.807 -36.039 0.588 53.825 0.588 53.825 0.807 -36.039
300 0.75 -41.215 0.659 48.633 0.659 48.633 0.75 -41.215
350 0.696 -45.73 0.716 44.101 0.716 44.101 0.696 -45.73
400 0.645 -49.663 0.762 40.152 0.762 40.152 0.645 -49.663
450 0.598 -53.094 0.8 36.703 0.8 36.703 0.598 -53.094
500 0.555 -56.097 0.83 33.682 0.83 33.682 0.555 -56.097
550 0.515 -58.739 0.855 31.022 0.855 31.022 0.515 -58.739
600 0.48 -61.075 0.875 28.667 0.875 28.667 0.48 -61.075
650 0.447 -63.152 0.892 26.571 0.892 26.571 0.447 -63.152
700 0.418 -65.008 0.906 24.695 0.906 24.695 0.418 -65.008
750 0.391 -66.676 0.918 23.007 0.918 23.007 0.391 -66.676
800 0.366 -68.182 0.928 21.479 0.928 21.479 0.366 -68.182
850 0.343 -69.55 0.937 20.089 0.937 20.089 0.343 -69.55
900 0.323 -70.797 0.944 18.82 0.944 18.82 0.323 -70.797
950 0.303 -71.938 0.951 17.654 0.951 17.654 0.303 -71.938
1000 0.285 -72.988 0.956 16.579 0.956 16.579 0.285 -72.988
1050 0.269 -73.957 0.961 15.584 0.961 15.584 0.269 -73.957
1100 0.253 -74.854 0.965 14.659 0.965 14.659 0.253 -74.854
1150 0.238 -75.687 0.969 13.797 0.969 13.797 0.238 -75.687
1200 0.225 -76.463 0.972 12.99 0.972 12.99 0.225 -76.463
1250 0.212 -77.188 0.975 12.233 0.975 12.233 0.212 -77.188
1300 0.2 -77.866 0.978 11.52 0.978 11.52 0.2 -77.866
1350 0.188 -78.503 0.98 10.847 0.98 10.847 0.188 -78.503
1400 0.177 -79.1 0.982 10.209 0.982 10.209 0.177 -79.1
1450 0.167 -79.663 0.984 9.605 0.984 9.605 0.167 -79.663
1500 0.157 -80.193 0.985 9.029 0.985 9.029 0.157 -80.193
1550 0.147 -80.692 0.987 8.481 0.987 8.481 0.147 -80.692
1600 0.138 -81.162 0.988 7.957 0.988 7.957 0.138 -81.162
1650 0.13 -81.606 0.989 7.455 0.989 7.455 0.13 -81.606
1700 0.121 -82.023 0.99 6.975 0.99 6.975 0.121 -82.023
1750 0.113 -82.415 0.991 6.512 0.991 6.512 0.113 -82.415
1800 0.106 -82.782 0.992 6.068 0.992 6.068 0.106 -82.782
1850 0.098 -83.124 0.993 5.639 0.993 5.639 0.098 -83.124
1900 0.091 -83.441 0.994 5.226 0.994 5.226 0.091 -83.441
1950 0.084 -83.732 0.994 4.826 0.994 4.826 0.084 -83.732
2000 0.077 -83.994 0.995 4.438 0.995 4.438 0.077 -83.994
2050 0.071 -84.226 0.995 4.063 0.995 4.063 0.071 -84.226
2100 0.065 -84.422 0.996 3.699 0.996 3.699 0.065 -84.422
2150 0.058 -84.578 0.996 3.345 0.996 3.345 0.058 -84.578
2200 0.052 -84.686 0.997 3.001 0.997 3.001 0.052 -84.686
2250 0.047 -84.731 0.997 2.666 0.997 2.666 0.047 -84.731
2300 0.041 -84.696 0.997 2.339 0.997 2.339 0.041 -84.696
2350 0.035 -84.549 0.997 2.021 0.997 2.021 0.035 -84.549
2400 0.03 -84.239 0.997 1.71 0.997 1.71 0.03 -84.239
2450 0.025 -83.671 0.998 1.406 0.998 1.406 0.025 -83.671
2500 0.019 -82.657 0.998 1.108 0.998 1.108 0.019 -82.657
2550 0.014 -80.755 0.998 0.817 0.998 0.817 0.014 -80.755
2600 9.519e-3 -76.646 0.998 0.532 0.998 0.532 9.519e-3 -76.646
2650 4.882e-3 -64.109 0.998 0.252 0.998 0.252 4.882e-3 -64.109
2700 2.148e-3 10.336 0.998 -0.022 0.998 -0.022 2.148e-3 10.336
2750 5.508e-3 67.152 0.998 -0.291 0.998 -0.291 5.508e-3 67.152
2800 9.93e-3 77.16 0.998 -0.556 0.998 -0.556 9.93e-3 77.16
2850 0.014 80.745 0.998 -0.816 0.998 -0.816 0.014 80.745
2900 0.019 82.483 0.998 -1.072 0.998 -1.072 0.019 82.483
2950 0.023 83.448 0.998 -1.323 0.998 -1.323 0.023 83.448
3000 0.027 84.021 0.998 -1.571 0.998 -1.571 0.027 84.021
3050 0.032 84.367 0.997 -1.815 0.997 -1.815 0.032 84.367
3100 0.036 84.572 0.997 -2.055 0.997 -2.055 0.036 84.572
3150 0.04 84.682 0.997 -2.292 0.997 -2.292 0.04 84.682
3200 0.044 84.727 0.997 -2.526 0.997 -2.526 0.044 84.727
3250 0.048 84.726 0.997 -2.757 0.997 -2.757 0.048 84.726
3300 0.052 84.689 0.997 -2.985 0.997 -2.985 0.052 84.689
3350 0.056 84.627 0.996 -3.209 0.996 -3.209 0.056 84.627
3400 0.06 84.544 0.996 -3.432 0.996 -3.432 0.06 84.544
3450 0.064 84.446 0.996 -3.651 0.996 -3.651 0.064 84.446
3500 0.067 84.335 0.996 -3.868 0.996 -3.868 0.067 84.335
3550 0.071 84.214 0.995 -4.083 0.995 -4.083 0.071 84.214
3600 0.075 84.085 0.995 -4.295 0.995 -4.295 0.075 84.085
3650 0.079 83.95 0.995 -4.505 0.995 -4.505 0.079 83.95
3700 0.082 83.81 0.994 -4.713 0.994 -4.713 0.082 83.81
3750 0.086 83.665 0.994 -4.919 0.994 -4.919 0.086 83.665
3800 0.089 83.517 0.994 -5.123 0.994 -5.123 0.089 83.517
3850 0.093 83.366 0.994 -5.325 0.994 -5.325 0.093 83.366
3900 0.096 83.213 0.993 -5.525 0.993 -5.525 0.096 83.213
3950 0.1 83.058 0.993 -5.724 0.993 -5.724 0.1 83.058
4000 0.103 82.901 0.993 -5.92 0.993 -5.92 0.103 82.901
4050 0.107 82.744 0.992 -6.115 0.992 -6.115 0.107 82.744
4100 0.11 82.585 0.992 -6.309 0.992 -6.309 0.11 82.585
4150 0.113 82.425 0.991 -6.5 0.991 -6.5 0.113 82.425
4200 0.117 82.265 0.991 -6.691 0.991 -6.691 0.117 82.265
4250 0.12 82.105 0.991 -6.879 0.991 -6.879 0.12 82.105
4300 0.123 81.944 0.99 -7.067 0.99 -7.067 0.123 81.944
4350 0.126 81.783 0.99 -7.253 0.99 -7.253 0.126 81.783
4400 0.129 81.622 0.989 -7.438 0.989 -7.438 0.129 81.622
4450 0.133 81.46 0.989 -7.621 0.989 -7.621 0.133 81.46
4500 0.136 81.299 0.989 -7.803 0.989 -7.803 0.136 81.299
4550 0.139 81.138 0.988 -7.984 0.988 -7.984 0.139 81.138
4600 0.142 80.978 0.988 -8.164 0.988 -8.164 0.142 80.978
4650 0.145 80.817 0.987 -8.342 0.987 -8.342 0.145 80.817
4700 0.148 80.657 0.987 -8.52 0.987 -8.52 0.148 80.657
4750 0.151 80.497 0.986 -8.696 0.986 -8.696 0.151 80.497
4800 0.154 80.337 0.986 -8.871 0.986 -8.871 0.154 80.337
4850 0.157 80.178 0.985 -9.045 0.985 -9.045 0.157 80.178
4900 0.16 80.019 0.985 -9.219 0.985 -9.219 0.16 80.019
4950 0.163 79.86 0.984 -9.391 0.984 -9.391 0.163 79.86
5000 0.166 79.702 0.984 -9.562 0.984 -9.562 0.166 79.702
5050 0.169 79.544 0.983 -9.732 0.983 -9.732 0.169 79.544
5100 0.172 79.387 0.983 -9.902 0.983 -9.902 0.172 79.387
5150 0.175 79.23 0.982 -10.07 0.982 -10.07 0.175 79.23
5200 0.178 79.074 0.982 -10.238 0.982 -10.238 0.178 79.074
5250 0.181 78.918 0.981 -10.405 0.981 -10.405 0.181 78.918
5300 0.183 78.762 0.981 -10.571 0.981 -10.571 0.183 78.762
5350 0.186 78.607 0.98 -10.736 0.98 -10.736 0.186 78.607
5400 0.189 78.452 0.98 -10.9 0.98 -10.9 0.189 78.452
5450 0.192 78.298 0.979 -11.064 0.979 -11.064 0.192 78.298
5500 0.195 78.144 0.979 -11.226 0.979 -11.226 0.195 78.144
5550 0.197 77.991 0.978 -11.388 0.978 -11.388 0.197 77.991
5600 0.2 77.838 0.978 -11.549 0.978 -11.549 0.2 77.838
5650 0.203 77.686 0.977 -11.71 0.977 -11.71 0.203 77.686
5700 0.206 77.534 0.976 -11.87 0.976 -11.87 0.206 77.534
5750 0.208 77.382 0.976 -12.029 0.976 -12.029 0.208 77.382
5800 0.211 77.231 0.975 -12.187 0.975 -12.187 0.211 77.231
5850 0.214 77.081 0.975 -12.345 0.975 -12.345 0.214 77.081
5900 0.216 76.931 0.974 -12.502 0.974 -12.502 0.216 76.931
5950 0.219 76.781 0.974 -12.659 0.974 -12.659 0.219 76.781
6000 0.222 76.632 0.973 -12.814 0.973 -12.814 0.222 76.632
6050 0.224 76.483 0.972 -12.97 0.972 -12.97 0.224 76.483
6100 0.227 76.335 0.972 -13.124 0.972 -13.124 0.227 76.335
6150 0.23 76.187 0.971 -13.278 0.971 -13.278 0.23 76.187
6200 0.232 76.039 0.971 -13.431 0.971 -13.431 0.232 76.039
6250 0.235 75.892 0.97 -13.584 0.97 -13.584 0.235 75.892
6300 0.237 75.746 0.969 -13.736 0.969 -13.736 0.237 75.746
6350 0.24 75.599 0.969 -13.888 0.969 -13.888 0.24 75.599
6400 0.243 75.454 0.968 -14.039 0.968 -14.039 0.243 75.454
6450 0.245 75.308 0.967 -14.189 0.967 -14.189 0.245 75.308
6500 0.248 75.163 0.967 -14.339 0.967 -14.339 0.248 75.163
6550 0.25 75.019 0.966 -14.489 0.966 -14.489 0.25 75.019
6600 0.253 74.875 0.965 -14.638 0.965 -14.638 0.253 74.875
6650 0.255 74.731 0.965 -14.786 0.965 -14.786 0.255 74.731
6700 0.258 74.588 0.964 -14.934 0.964 -14.934 0.258 74.588
6750 0.26 74.445 0.963 -15.081 0.963 -15.081 0.26 74.445
6800 0.263 74.303 0.963 -15.228 0.963 -15.228 0.263 74.303
6850 0.265 74.161 0.962 -15.374 0.962 -15.374 0.265 74.161
6900 0.268 74.019 0.961 -15.52 0.961 -15.52 0.268 74.019
6950 0.27 73.878 0.961 -15.665 0.961 -15.665 0.27 73.878
7000 0.272 73.737 0.96 -15.81 0.96 -15.81 0.272 73.737
7050 0.275 73.596 0.959 -15.955 0.959 -15.955 0.275 73.596
7100 0.277 73.456 0.959 -16.099 0.959 -16.099 0.277 73.456
7150 0.28 73.317 0.958 -16.242 0.958 -16.242 0.28 73.317
7200 0.282 73.177 0.957 -16.385 0.957 -16.385 0.282 73.177
7250 0.284 73.038 0.957 -16.528 0.957 -16.528 0.284 73.038
7300 0.287 72.9 0.956 -16.67 0.956 -16.67 0.287 72.9
7350 0.289 72.762 0.955 -16.811 0.955 -16.811 0.289 72.762
7400 0.292 72.624 0.954 -16.953 0.954 -16.953 0.292 72.624
7450 0.294 72.486 0.954 -17.093 0.954 -17.093 0.294 72.486
7500 0.296 72.349 0.953 -17.234 0.953 -17.234 0.296 72.349
7550 0.299 72.212 0.952 -17.374 0.952 -17.374 0.299 72.212
7600 0.301 72.076 0.951 -17.513 0.951 -17.513 0.301 72.076
7650 0.303 71.94 0.951 -17.652 0.951 -17.652 0.303 71.94
7700 0.306 71.804 0.95 -17.791 0.95 -17.791 0.306 71.804
7750 0.308 71.669 0.949 -17.929 0.949 -17.929 0.308 71.669
7800 0.31 71.534 0.949 -18.067 0.949 -18.067 0.31 71.534
7850 0.312 71.4 0.948 -18.204 0.948 -18.204 0.312 71.4
7900 0.315 71.265 0.947 -18.341 0.947 -18.341 0.315 71.265
7950 0.317 71.132 0.946 -18.478 0.946 -18.478 0.317 71.132
8000 0.319 70.998 0.946 -18.614 0.946 -18.614 0.319 70.998
8050 0.321 70.865 0.945 -18.75 0.945 -18.75 0.321 70.865
8100 0.324 70.732 0.944 -18.886 0.944 -18.886 0.324 70.732
8150 0.326 70.599 0.943 -19.021 0.943 -19.021 0.326 70.599
8200 0.328 70.467 0.942 -19.155 0.942 -19.155 0.328 70.467
8250 0.33 70.335 0.942 -19.29 0.942 -19.29 0.33 70.335
8300 0.333 70.204 0.941 -19.424 0.941 -19.424 0.333 70.204
8350 0.335 70.073 0.94 -19.557 0.94 -19.557 0.335 70.073
8400 0.337 69.942 0.939 -19.69 0.939 -19.69 0.337 69.942
8450 0.339 69.812 0.939 -19.823 0.939 -19.823 0.339 69.812
8500 0.341 69.681 0.938 -19.956 0.938 -19.956 0.341 69.681
8550 0.343 69.552 0.937 -20.088 0.937 -20.088 0.343 69.552
8600 0.346 69.422 0.936 -20.219 0.936 -20.219 0.346 69.422
8650 0.348 69.293 0.935 -20.351 0.935 -20.351 0.348 69.293
8700 0.35 69.164 0.935 -20.482 0.935 -20.482 0.35 69.164
8750 0.352 69.036 0.934 -20.612 0.934 -20.612 0.352 69.036
8800 0.354 68.907 0.933 -20.743 0.933 -20.743 0.354 68.907
8850 0.356 68.779 0.932 -20.873 0.932 -20.873 0.356 68.779
8900 0.358 68.652 0.931 -21.002 0.931 -21.002 0.358 68.652
8950 0.361 68.525 0.931 -21.132 0.931 -21.132 0.361 68.525
9000 0.363 68.398 0.93 -21.26 0.93 -21.26 0.363 68.398
9050 0.365 68.271 0.929 -21.389 0.929 -21.389 0.365 68.271
9100 0.367 68.145 0.928 -21.517 0.928 -21.517 0.367 68.145
9150 0.369 68.019 0.927 -21.645 0.927 -21.645 0.369 68.019
9200 0.371 67.893 0.926 -21.773 0.926 -21.773 0.371 67.893
9250 0.373 67.768 0.926 -21.9 0.926 -21.9 0.373 67.768
9300 0.375 67.643 0.925 -22.027 0.925 -22.027 0.375 67.643
9350 0.377 67.518 0.924 -22.153 0.924 -22.153 0.377 67.518
9400 0.379 67.393 0.923 -22.279 0.923 -22.279 0.379 67.393
9450 0.381 67.269 0.922 -22.405 0.922 -22.405 0.381 67.269
9500 0.383 67.145 0.922 -22.531 0.922 -22.531 0.383 67.145
9550 0.385 67.022 0.921 -22.656 0.921 -22.656 0.385 67.022
9600 0.387 66.899 0.92 -22.781 0.92 -22.781 0.387 66.899
9650 0.389 66.776 0.919 -22.906 0.919 -22.906 0.389 66.776
9700 0.391 66.653 0.918 -23.03 0.918 -23.03 0.391 66.653
9750 0.393 66.531 0.917 -23.154 0.917 -23.154 0.393 66.531
9800 0.395 66.409 0.916 -23.277 0.916 -23.277 0.395 66.409
9850 0.397 66.287 0.916 -23.401 0.916 -23.401 0.397 66.287
9900 0.399 66.166 0.915 -23.524 0.915 -23.524 0.399 66.166
9950 0.401 66.045 0.914 -23.646 0.914 -23.646 0.401 66.045
10000 0.403 65.924 0.913 -23.769 0.913 -23.769 0.403 65.924
10050 0.405 65.803 0.912 -23.891 0.912 -23.891 0.405 65.803
10100 0.407 65.683 0.911 -24.012 0.911 -24.012 0.407 65.683
10150 0.409 65.563 0.91 -24.134 0.91 -24.134 0.409 65.563
10200 0.411 65.443 0.91 -24.255 0.91 -24.255 0.411 65.443
10250 0.413 65.324 0.909 -24.376 0.909 -24.376 0.413 65.324
10300 0.415 65.205 0.908 -24.496 0.908 -24.496 0.415 65.205
10350 0.417 65.086 0.907 -24.616 0.907 -24.616 0.417 65.086
10400 0.418 64.967 0.906 -24.736 0.906 -24.736 0.418 64.967
10450 0.42 64.849 0.905 -24.856 0.905 -24.856 0.42 64.849
10500 0.422 64.731 0.904 -24.975 0.904 -24.975 0.422 64.731
10550 0.424 64.614 0.903 -25.094 0.903 -25.094 0.424 64.614
10600 0.426 64.496 0.903 -25.213 0.903 -25.213 0.426 64.496
10650 0.428 64.379 0.902 -25.331 0.902 -25.331 0.428 64.379
10700 0.43 64.262 0.901 -25.449 0.901 -25.449 0.43 64.262
10750 0.432 64.146 0.9 -25.567 0.9 -25.567 0.432 64.146
10800 0.433 64.03 0.899 -25.684 0.899 -25.684 0.433 64.03
10850 0.435 63.914 0.898 -25.802 0.898 -25.802 0.435 63.914
10900 0.437 63.798 0.897 -25.918 0.897 -25.918 0.437 63.798
10950 0.439 63.683 0.896 -26.035 0.896 -26.035 0.439 63.683
11000 0.441 63.568 0.895 -26.151 0.895 -26.151 0.441 63.568
11050 0.443 63.453 0.895 -26.267 0.895 -26.267 0.443 63.453
11100 0.444 63.338 0.894 -26.383 0.894 -26.383 0.444 63.338
11150 0.446 63.224 0.893 -26.498 0.893 -26.498 0.446 63.224
11200 0.448 63.11 0.892 -26.614 0.892 -26.614 0.448 63.11
11250 0.45 62.996 0.891 -26.728 0.891 -26.728 0.45 62.996
11300 0.452 62.883 0.89 -26.843 0.89 -26.843 0.452 62.883
11350 0.453 62.77 0.889 -26.957 0.889 -26.957 0.453 62.77
11400 0.455 62.657 0.888 -27.071 0.888 -27.071 0.455 62.657
11450 0.457 62.544 0.887 -27.185 0.887 -27.185 0.457 62.544
11500 0.459 62.432 0.886 -27.298 0.886 -27.298 0.459 62.432
11550 0.46 62.32 0.886 -27.412 0.886 -27.412 0.46 62.32
11600 0.462 62.208 0.885 -27.524 0.885 -27.524 0.462 62.208
11650 0.464 62.096 0.884 -27.637 0.884 -27.637 0.464 62.096
11700 0.466 61.985 0.883 -27.749 0.883 -27.749 0.466 61.985
11750 0.467 61.874 0.882 -27.861 0.882 -27.861 0.467 61.874
11800 0.469 61.763 0.881 -27.973 0.881 -27.973 0.469 61.763
11850 0.471 61.653 0.88 -28.084 0.88 -28.084 0.471 61.653
11900 0.472 61.543 0.879 -28.196 0.879 -28.196 0.472 61.543
11950 0.474 61.433 0.878 -28.307 0.878 -28.307 0.474 61.433
12000 0.476 61.323 0.877 -28.417 0.877 -28.417 0.476 61.323
12050 0.478 61.214 0.876 -28.528 0.876 -28.528 0.478 61.214
12100 0.479 61.104 0.876 -28.638 0.876 -28.638 0.479 61.104
12150 0.481 60.996 0.875 -28.747 0.875 -28.747 0.481 60.996
12200 0.483 60.887 0.874 -28.857 0.874 -28.857 0.483 60.887
12250 0.484 60.779 0.873 -28.966 0.873 -28.966 0.484 60.779
12300 0.486 60.671 0.872 -29.075 0.872 -29.075 0.486 60.671
12350 0.488 60.563 0.871 -29.184 0.871 -29.184 0.488 60.563
12400 0.489 60.455 0.87 -29.292 0.87 -29.292 0.489 60.455
12450 0.491 60.348 0.869 -29.401 0.869 -29.401 0.491 60.348
12500 0.493 60.241 0.868 -29.508 0.868 -29.508 0.493 60.241
12550 0.494 60.134 0.867 -29.616 0.867 -29.616 0.494 60.134
12600 0.496 60.028 0.866 -29.723 0.866 -29.723 0.496 60.028
12650 0.497 59.921 0.865 -29.831 0.865 -29.831 0.497 59.921
12700 0.499 59.815 0.864 -29.937 0.864 -29.937 0.499 59.815
12750 0.501 59.71 0.863 -30.044 0.863 -30.044 0.501 59.71
12800 0.502 59.604 0.863 -30.15 0.863 -30.15 0.502 59.604
12850 0.504 59.499 0.862 -30.256 0.862 -30.256 0.504 59.499
12900 0.505 59.394 0.861 -30.362 0.861 -30.362 0.505 59.394
12950 0.507 59.289 0.86 -30.468 0.86 -30.468 0.507 59.289
13000 0.509 59.185 0.859 -30.573 0.859 -30.573 0.509 59.185
13050 0.51 59.081 0.858 -30.678 0.858 -30.678 0.51 59.081
13100 0.512 58.977 0.857 -30.783 0.857 -30.783 0.512 58.977
13150 0.513 58.873 0.856 -30.887 0.856 -30.887 0.513 58.873
13200 0.515 58.769 0.855 -30.991 0.855 -30.991 0.515 58.769
13250 0.516 58.666 0.854 -31.095 0.854 -31.095 0.516 58.666
13300 0.518 58.563 0.853 -31.199 0.853 -31.199 0.518 58.563
13350 0.52 58.461 0.852 -31.302 0.852 -31.302 0.52 58.461
13400 0.521 58.358 0.851 -31.405 0.851 -31.405 0.521 58.358
13450 0.523 58.256 0.85 -31.508 0.85 -31.508 0.523 58.256
13500 0.524 58.154 0.849 -31.611 0.849 -31.611 0.524 58.154
13550 0.526 58.052 0.849 -31.713 0.849 -31.713 0.526 58.052
13600 0.527 57.951 0.848 -31.816 0.848 -31.816 0.527 57.951
13650 0.529 57.85 0.847 -31.918 0.847 -31.918 0.529 57.85
13700 0.53 57.749 0.846 -32.019 0.846 -32.019 0.53 57.749
13750 0.532 57.648 0.845 -32.121 0.845 -32.121 0.532 57.648
13800 0.533 57.548 0.844 -32.222 0.844 -32.222 0.533 57.548
13850 0.535 57.448 0.843 -32.323 0.843 -32.323 0.535 57.448
13900 0.536 57.348 0.842 -32.423 0.842 -32.423 0.536 57.348
13950 0.538 57.248 0.841 -32.524 0.841 -32.524 0.538 57.248
14000 0.539 57.148 0.84 -32.624 0.84 -32.624 0.539 57.148
14050 0.541 57.049 0.839 -32.724 0.839 -32.724 0.541 57.049
14100 0.542 56.95 0.838 -32.823 0.838 -32.823 0.542 56.95
14150 0.544 56.852 0.837 -32.923 0.837 -32.923 0.544 56.852
14200 0.545 56.753 0.836 -33.022 0.836 -33.022 0.545 56.753
14250 0.546 56.655 0.835 -33.121 0.835 -33.121 0.546 56.655
14300 0.548 56.557 0.834 -33.219 0.834 -33.219 0.548 56.557
14350 0.549 56.459 0.833 -33.318 0.833 -33.318 0.549 56.459
14400 0.551 56.362 0.833 -33.416 0.833 -33.416 0.551 56.362
14450 0.552 56.264 0.832 -33.514 0.832 -33.514 0.552 56.264
14500 0.554 56.167 0.831 -33.611 0.831 -33.611 0.554 56.167
14550 0.555 56.07 0.83 -33.709 0.83 -33.709 0.555 56.07
14600 0.556 55.974 0.829 -33.806 0.829 -33.806 0.556 55.974
14650 0.558 55.877 0.828 -33.903 0.828 -33.903 0.558 55.877
14700 0.559 55.781 0.827 -34 0.827 -34 0.559 55.781
14750 0.561 55.686 0.826 -34.096 0.826 -34.096 0.561 55.686
14800 0.562 55.59 0.825 -34.192 0.825 -34.192 0.562 55.59
14850 0.563 55.495 0.824 -34.288 0.824 -34.288 0.563 55.495
14900 0.565 55.399 0.823 -34.384 0.823 -34.384 0.565 55.399
14950 0.566 55.304 0.822 -34.48 0.822 -34.48 0.566 55.304
15000 0.567 55.21 0.821 -34.575 0.821 -34.575 0.567 55.21
15050 0.569 55.115 0.82 -34.67 0.82 -34.67 0.569 55.115
15100 0.57 55.021 0.819 -34.765 0.819 -34.765 0.57 55.021
15150 0.572 54.927 0.818 -34.859 0.818 -34.859 0.572 54.927
15200 0.573 54.833 0.817 -34.953 0.817 -34.953 0.573 54.833
15250 0.574 54.74 0.817 -35.048 0.817 -35.048 0.574 54.74
15300 0.576 54.647 0.816 -35.141 0.816 -35.141 0.576 54.647
15350 0.577 54.554 0.815 -35.235 0.815 -35.235 0.577 54.554
15400 0.578 54.461 0.814 -35.328 0.814 -35.328 0.578 54.461
15450 0.58 54.368 0.813 -35.421 0.813 -35.421 0.58 54.368
15500 0.581 54.276 0.812 -35.514 0.812 -35.514 0.581 54.276
15550 0.582 54.184 0.811 -35.607 0.811 -35.607 0.582 54.184
15600 0.584 54.092 0.81 -35.699 0.81 -35.699 0.584 54.092
15650 0.585 54 0.809 -35.792 0.809 -35.792 0.585 54
15700 0.586 53.909 0.808 -35.884 0.808 -35.884 0.586 53.909
15750 0.587 53.817 0.807 -35.975 0.807 -35.975 0.587 53.817
15800 0.589 53.726 0.806 -36.067 0.806 -36.067 0.589 53.726
15850 0.59 53.636 0.805 -36.158 0.805 -36.158 0.59 53.636
15900 0.591 53.545 0.804 -36.249 0.804 -36.249 0.591 53.545
15950 0.593 53.455 0.803 -36.34 0.803 -36.34 0.593 53.455
16000 0.594 53.365 0.802 -36.431 0.802 -36.431 0.594 53.365
16050 0.595 53.275 0.802 -36.521 0.802 -36.521 0.595 53.275
16100 0.596 53.185 0.801 -36.611 0.801 -36.611 0.596 53.185
16150 0.598 53.096 0.8 -36.701 0.8 -36.701 0.598 53.096
16200 0.599 53.006 0.799 -36.791 0.799 -36.791 0.599 53.006
16250 0.6 52.918 0.798 -36.88 0.798 -36.88 0.6 52.918
16300 0.601 52.829 0.797 -36.97 0.797 -36.97 0.601 52.829
16350 0.603 52.74 0.796 -37.059 0.796 -37.059 0.603 52.74
16400 0.604 52.652 0.795 -37.147 0.795 -37.147 0.604 52.652
16450 0.605 52.564 0.794 -37.236 0.794 -37.236 0.605 52.564
16500 0.606 52.476 0.793 -37.324 0.793 -37.324 0.606 52.476
16550 0.608 52.388 0.792 -37.412 0.792 -37.412 0.608 52.388
16600 0.609 52.301 0.791 -37.5 0.791 -37.5 0.609 52.301
16650 0.61 52.214 0.79 -37.588 0.79 -37.588 0.61 52.214
16700 0.611 52.127 0.789 -37.675 0.789 -37.675 0.611 52.127
16750 0.612 52.04 0.788 -37.763 0.788 -37.763 0.612 52.04
16800 0.614 51.953 0.788 -37.85 0.788 -37.85 0.614 51.953
16850 0.615 51.867 0.787 -37.937 0.787 -37.937 0.615 51.867
16900 0.616 51.781 0.786 -38.023 0.786 -38.023 0.616 51.781
16950 0.617 51.695 0.785 -38.11 0.785 -38.11 0.617 51.695
