! AVX Thin Film Operation		Date: April 2012 
! Description: Accu-P® Series, Thin Film, SMD, RF Capacitor
! Part Number: 08051J1R0PBTTR					
!	100	MHz	-	8.05	GHz			
!	Serial	Measurements						
!								
#	MHZ	S	MA	R	50			
!	S11	S21	S12	S22				
!	dB	Phase	dB	Phase	dB	Phase	dB	Phase
100	0.998	-3.596	0.063	86.394	0.063	86.394	0.998	-3.596
102.469	0.998	-3.685	0.064	86.305	0.064	86.305	0.998	-3.685
104.939	0.998	-3.774	0.066	86.216	0.066	86.216	0.998	-3.774
107.408	0.998	-3.862	0.067	86.127	0.067	86.127	0.998	-3.862
109.878	0.998	-3.951	0.069	86.038	0.069	86.038	0.998	-3.951
112.347	0.998	-4.039	0.07	85.95	0.07	85.95	0.998	-4.039
114.817	0.997	-4.128	0.072	85.861	0.072	85.861	0.997	-4.128
117.286	0.997	-4.216	0.074	85.772	0.074	85.772	0.997	-4.216
119.756	0.997	-4.305	0.075	85.683	0.075	85.683	0.997	-4.305
122.225	0.997	-4.393	0.077	85.595	0.077	85.595	0.997	-4.393
124.694	0.997	-4.482	0.078	85.506	0.078	85.506	0.997	-4.482
127.164	0.997	-4.57	0.08	85.417	0.08	85.417	0.997	-4.57
129.633	0.997	-4.659	0.081	85.328	0.081	85.328	0.997	-4.659
132.103	0.997	-4.747	0.083	85.24	0.083	85.24	0.997	-4.747
134.572	0.996	-4.836	0.084	85.151	0.084	85.151	0.996	-4.836
137.042	0.996	-4.924	0.086	85.062	0.086	85.062	0.996	-4.924
139.511	0.996	-5.013	0.087	84.974	0.087	84.974	0.996	-5.013
141.981	0.996	-5.101	0.089	84.885	0.089	84.885	0.996	-5.101
144.45	0.996	-5.189	0.09	84.797	0.09	84.797	0.996	-5.189
146.919	0.996	-5.278	0.092	84.708	0.092	84.708	0.996	-5.278
149.389	0.996	-5.366	0.094	84.619	0.094	84.619	0.996	-5.366
151.858	0.995	-5.454	0.095	84.531	0.095	84.531	0.995	-5.454
154.328	0.995	-5.542	0.097	84.442	0.097	84.442	0.995	-5.542
156.797	0.995	-5.631	0.098	84.354	0.098	84.354	0.995	-5.631
159.267	0.995	-5.719	0.1	84.265	0.1	84.265	0.995	-5.719
161.736	0.995	-5.807	0.101	84.177	0.101	84.177	0.995	-5.807
164.206	0.995	-5.895	0.103	84.089	0.103	84.089	0.995	-5.895
166.675	0.995	-5.984	0.104	84	0.104	84	0.995	-5.984
169.144	0.994	-6.072	0.106	83.912	0.106	83.912	0.994	-6.072
171.614	0.994	-6.16	0.107	83.823	0.107	83.823	0.994	-6.16
174.083	0.994	-6.248	0.109	83.735	0.109	83.735	0.994	-6.248
176.553	0.994	-6.336	0.11	83.647	0.11	83.647	0.994	-6.336
179.022	0.994	-6.424	0.112	83.558	0.112	83.558	0.994	-6.424
181.492	0.994	-6.512	0.113	83.47	0.113	83.47	0.994	-6.512
183.961	0.993	-6.6	0.115	83.382	0.115	83.382	0.993	-6.6
186.431	0.993	-6.688	0.116	83.294	0.116	83.294	0.993	-6.688
188.9	0.993	-6.776	0.118	83.206	0.118	83.206	0.993	-6.776
191.369	0.993	-6.864	0.12	83.117	0.12	83.117	0.993	-6.864
193.839	0.993	-6.952	0.121	83.029	0.121	83.029	0.993	-6.952
196.308	0.992	-7.04	0.123	82.941	0.123	82.941	0.992	-7.04
198.778	0.992	-7.128	0.124	82.853	0.124	82.853	0.992	-7.128
201.247	0.992	-7.215	0.126	82.765	0.126	82.765	0.992	-7.215
203.717	0.992	-7.303	0.127	82.677	0.127	82.677	0.992	-7.303
206.186	0.992	-7.391	0.129	82.589	0.129	82.589	0.992	-7.391
208.656	0.991	-7.479	0.13	82.501	0.13	82.501	0.991	-7.479
211.125	0.991	-7.567	0.132	82.413	0.132	82.413	0.991	-7.567
213.594	0.991	-7.654	0.133	82.325	0.133	82.325	0.991	-7.654
216.064	0.991	-7.742	0.135	82.237	0.135	82.237	0.991	-7.742
218.533	0.991	-7.83	0.136	82.149	0.136	82.149	0.991	-7.83
221.003	0.99	-7.917	0.138	82.061	0.138	82.061	0.99	-7.917
223.472	0.99	-8.005	0.139	81.973	0.139	81.973	0.99	-8.005
225.942	0.99	-8.092	0.141	81.886	0.141	81.886	0.99	-8.092
228.411	0.99	-8.18	0.142	81.798	0.142	81.798	0.99	-8.18
230.881	0.99	-8.267	0.144	81.71	0.144	81.71	0.99	-8.267
233.35	0.989	-8.355	0.145	81.622	0.145	81.622	0.989	-8.355
235.819	0.989	-8.442	0.147	81.535	0.147	81.535	0.989	-8.442
238.289	0.989	-8.53	0.148	81.447	0.148	81.447	0.989	-8.53
240.758	0.989	-8.617	0.15	81.359	0.15	81.359	0.989	-8.617
243.228	0.988	-8.704	0.151	81.272	0.151	81.272	0.988	-8.704
245.697	0.988	-8.792	0.153	81.184	0.153	81.184	0.988	-8.792
248.167	0.988	-8.879	0.154	81.097	0.154	81.097	0.988	-8.879
250.636	0.988	-8.966	0.156	81.009	0.156	81.009	0.988	-8.966
253.106	0.987	-9.053	0.157	80.922	0.157	80.922	0.987	-9.053
255.575	0.987	-9.141	0.159	80.834	0.159	80.834	0.987	-9.141
258.044	0.987	-9.228	0.16	80.747	0.16	80.747	0.987	-9.228
260.514	0.987	-9.315	0.162	80.66	0.162	80.66	0.987	-9.315
262.983	0.986	-9.402	0.163	80.572	0.163	80.572	0.986	-9.402
265.453	0.986	-9.489	0.165	80.485	0.165	80.485	0.986	-9.489
267.922	0.986	-9.576	0.166	80.398	0.166	80.398	0.986	-9.576
270.392	0.986	-9.663	0.168	80.31	0.168	80.31	0.986	-9.663
272.861	0.985	-9.75	0.169	80.223	0.169	80.223	0.985	-9.75
275.331	0.985	-9.837	0.171	80.136	0.171	80.136	0.985	-9.837
277.8	0.985	-9.924	0.172	80.049	0.172	80.049	0.985	-9.924
280.269	0.985	-10.011	0.174	79.962	0.174	79.962	0.985	-10.011
282.739	0.984	-10.098	0.175	79.875	0.175	79.875	0.984	-10.098
285.208	0.984	-10.184	0.177	79.788	0.177	79.788	0.984	-10.184
287.678	0.984	-10.271	0.178	79.701	0.178	79.701	0.984	-10.271
290.147	0.984	-10.358	0.18	79.614	0.18	79.614	0.984	-10.358
292.617	0.983	-10.444	0.181	79.527	0.181	79.527	0.983	-10.444
295.086	0.983	-10.531	0.183	79.44	0.183	79.44	0.983	-10.531
297.556	0.983	-10.618	0.184	79.353	0.184	79.353	0.983	-10.618
300.025	0.983	-10.704	0.186	79.266	0.186	79.266	0.983	-10.704
302.494	0.982	-10.791	0.187	79.18	0.187	79.18	0.982	-10.791
304.964	0.982	-10.877	0.189	79.093	0.189	79.093	0.982	-10.877
307.433	0.982	-10.964	0.19	79.006	0.19	79.006	0.982	-10.964
309.903	0.981	-11.05	0.192	78.92	0.192	78.92	0.981	-11.05
312.372	0.981	-11.137	0.193	78.833	0.193	78.833	0.981	-11.137
314.842	0.981	-11.223	0.195	78.746	0.195	78.746	0.981	-11.223
317.311	0.98	-11.309	0.196	78.66	0.196	78.66	0.98	-11.309
319.78	0.98	-11.395	0.198	78.573	0.198	78.573	0.98	-11.395
322.25	0.98	-11.482	0.199	78.487	0.199	78.487	0.98	-11.482
324.719	0.98	-11.568	0.201	78.401	0.201	78.401	0.98	-11.568
327.189	0.979	-11.654	0.202	78.314	0.202	78.314	0.979	-11.654
329.658	0.979	-11.74	0.203	78.228	0.203	78.228	0.979	-11.74
332.128	0.979	-11.826	0.205	78.142	0.205	78.142	0.979	-11.826
334.597	0.978	-11.912	0.206	78.055	0.206	78.055	0.978	-11.912
337.067	0.978	-11.998	0.208	77.969	0.208	77.969	0.978	-11.998
339.536	0.978	-12.084	0.209	77.883	0.209	77.883	0.978	-12.084
342.005	0.977	-12.17	0.211	77.797	0.211	77.797	0.977	-12.17
344.475	0.977	-12.256	0.212	77.711	0.212	77.711	0.977	-12.256
346.944	0.977	-12.341	0.214	77.625	0.214	77.625	0.977	-12.341
349.414	0.976	-12.427	0.215	77.539	0.215	77.539	0.976	-12.427
351.883	0.976	-12.513	0.217	77.453	0.217	77.453	0.976	-12.513
354.353	0.976	-12.599	0.218	77.367	0.218	77.367	0.976	-12.599
356.822	0.975	-12.684	0.22	77.281	0.22	77.281	0.975	-12.684
359.292	0.975	-12.77	0.221	77.195	0.221	77.195	0.975	-12.77
361.761	0.975	-12.855	0.222	77.109	0.222	77.109	0.975	-12.855
364.23	0.974	-12.941	0.224	77.024	0.224	77.024	0.974	-12.941
366.7	0.974	-13.026	0.225	76.938	0.225	76.938	0.974	-13.026
369.169	0.974	-13.112	0.227	76.852	0.227	76.852	0.974	-13.112
371.639	0.973	-13.197	0.228	76.767	0.228	76.767	0.973	-13.197
374.108	0.973	-13.282	0.23	76.681	0.23	76.681	0.973	-13.282
376.578	0.973	-13.368	0.231	76.596	0.231	76.596	0.973	-13.368
379.047	0.972	-13.453	0.233	76.51	0.233	76.51	0.972	-13.453
381.517	0.972	-13.538	0.234	76.425	0.234	76.425	0.972	-13.538
383.986	0.972	-13.623	0.236	76.339	0.236	76.339	0.972	-13.623
386.455	0.971	-13.708	0.237	76.254	0.237	76.254	0.971	-13.708
388.925	0.971	-13.793	0.238	76.169	0.238	76.169	0.971	-13.793
391.394	0.971	-13.878	0.24	76.083	0.24	76.083	0.971	-13.878
393.864	0.97	-13.963	0.241	75.998	0.241	75.998	0.97	-13.963
396.333	0.97	-14.048	0.243	75.913	0.243	75.913	0.97	-14.048
398.803	0.97	-14.133	0.244	75.828	0.244	75.828	0.97	-14.133
401.272	0.969	-14.218	0.246	75.743	0.246	75.743	0.969	-14.218
403.742	0.969	-14.302	0.247	75.658	0.247	75.658	0.969	-14.302
406.211	0.968	-14.387	0.248	75.573	0.248	75.573	0.968	-14.387
408.68	0.968	-14.472	0.25	75.488	0.25	75.488	0.968	-14.472
411.15	0.968	-14.556	0.251	75.403	0.251	75.403	0.968	-14.556
413.619	0.967	-14.641	0.253	75.319	0.253	75.319	0.967	-14.641
416.089	0.967	-14.726	0.254	75.234	0.254	75.234	0.967	-14.726
418.558	0.967	-14.81	0.256	75.149	0.256	75.149	0.967	-14.81
421.028	0.966	-14.894	0.257	75.064	0.257	75.064	0.966	-14.894
423.497	0.966	-14.979	0.258	74.98	0.258	74.98	0.966	-14.979
425.967	0.965	-15.063	0.26	74.895	0.26	74.895	0.965	-15.063
428.436	0.965	-15.147	0.261	74.811	0.261	74.811	0.965	-15.147
430.905	0.965	-15.232	0.263	74.726	0.263	74.726	0.965	-15.232
433.375	0.964	-15.316	0.264	74.642	0.264	74.642	0.964	-15.316
435.844	0.964	-15.4	0.266	74.558	0.266	74.558	0.964	-15.4
438.314	0.964	-15.484	0.267	74.473	0.267	74.473	0.964	-15.484
440.783	0.963	-15.568	0.268	74.389	0.268	74.389	0.963	-15.568
443.253	0.963	-15.652	0.27	74.305	0.27	74.305	0.963	-15.652
445.722	0.962	-15.736	0.271	74.221	0.271	74.221	0.962	-15.736
448.192	0.962	-15.82	0.273	74.137	0.273	74.137	0.962	-15.82
450.661	0.962	-15.903	0.274	74.053	0.274	74.053	0.962	-15.903
453.13	0.961	-15.987	0.275	73.969	0.275	73.969	0.961	-15.987
455.6	0.961	-16.071	0.277	73.885	0.277	73.885	0.961	-16.071
458.069	0.96	-16.154	0.278	73.801	0.278	73.801	0.96	-16.154
460.539	0.96	-16.238	0.28	73.717	0.28	73.717	0.96	-16.238
463.008	0.959	-16.321	0.281	73.633	0.281	73.633	0.959	-16.321
465.478	0.959	-16.405	0.282	73.549	0.282	73.549	0.959	-16.405
467.947	0.959	-16.488	0.284	73.466	0.284	73.466	0.959	-16.488
470.417	0.958	-16.572	0.285	73.382	0.285	73.382	0.958	-16.572
472.886	0.958	-16.655	0.287	73.299	0.287	73.299	0.958	-16.655
475.355	0.957	-16.738	0.288	73.215	0.288	73.215	0.957	-16.738
477.825	0.957	-16.821	0.289	73.132	0.289	73.132	0.957	-16.821
480.294	0.957	-16.905	0.291	73.048	0.291	73.048	0.957	-16.905
482.764	0.956	-16.988	0.292	72.965	0.292	72.965	0.956	-16.988
485.233	0.956	-17.071	0.294	72.882	0.294	72.882	0.956	-17.071
487.703	0.955	-17.154	0.295	72.798	0.295	72.798	0.955	-17.154
490.172	0.955	-17.237	0.296	72.715	0.296	72.715	0.955	-17.237
492.642	0.954	-17.32	0.298	72.632	0.298	72.632	0.954	-17.32
495.111	0.954	-17.402	0.299	72.549	0.299	72.549	0.954	-17.402
497.58	0.954	-17.485	0.3	72.466	0.3	72.466	0.954	-17.485
500.05	0.953	-17.568	0.302	72.383	0.302	72.383	0.953	-17.568
502.519	0.953	-17.65	0.303	72.3	0.303	72.3	0.953	-17.65
504.989	0.952	-17.733	0.305	72.217	0.305	72.217	0.952	-17.733
507.458	0.952	-17.816	0.306	72.135	0.306	72.135	0.952	-17.816
509.928	0.951	-17.898	0.307	72.052	0.307	72.052	0.951	-17.898
512.397	0.951	-17.98	0.309	71.969	0.309	71.969	0.951	-17.98
514.867	0.95	-18.063	0.31	71.887	0.31	71.887	0.95	-18.063
517.336	0.95	-18.145	0.311	71.804	0.311	71.804	0.95	-18.145
519.805	0.95	-18.227	0.313	71.722	0.313	71.722	0.95	-18.227
522.275	0.949	-18.309	0.314	71.639	0.314	71.639	0.949	-18.309
524.744	0.949	-18.392	0.316	71.557	0.316	71.557	0.949	-18.392
527.214	0.948	-18.474	0.317	71.475	0.317	71.475	0.948	-18.474
529.683	0.948	-18.556	0.318	71.392	0.318	71.392	0.948	-18.556
532.153	0.947	-18.638	0.32	71.31	0.32	71.31	0.947	-18.638
534.622	0.947	-18.719	0.321	71.228	0.321	71.228	0.947	-18.719
537.092	0.946	-18.801	0.322	71.146	0.322	71.146	0.946	-18.801
539.561	0.946	-18.883	0.324	71.064	0.324	71.064	0.946	-18.883
542.03	0.945	-18.965	0.325	70.982	0.325	70.982	0.945	-18.965
544.5	0.945	-19.046	0.326	70.9	0.326	70.9	0.945	-19.046
546.969	0.944	-19.128	0.328	70.818	0.328	70.818	0.944	-19.128
549.439	0.944	-19.21	0.329	70.736	0.329	70.736	0.944	-19.21
551.908	0.944	-19.291	0.33	70.655	0.33	70.655	0.944	-19.291
554.378	0.943	-19.372	0.332	70.573	0.332	70.573	0.943	-19.372
556.847	0.943	-19.454	0.333	70.492	0.333	70.492	0.943	-19.454
559.317	0.942	-19.535	0.334	70.41	0.334	70.41	0.942	-19.535
561.786	0.942	-19.616	0.336	70.329	0.336	70.329	0.942	-19.616
564.255	0.941	-19.697	0.337	70.247	0.337	70.247	0.941	-19.697
566.725	0.941	-19.778	0.338	70.166	0.338	70.166	0.941	-19.778
569.194	0.94	-19.86	0.34	70.085	0.34	70.085	0.94	-19.86
571.664	0.94	-19.941	0.341	70.003	0.341	70.003	0.94	-19.941
574.133	0.939	-20.021	0.342	69.922	0.342	69.922	0.939	-20.021
576.603	0.939	-20.102	0.344	69.841	0.344	69.841	0.939	-20.102
579.072	0.938	-20.183	0.345	69.76	0.345	69.76	0.938	-20.183
581.542	0.938	-20.264	0.346	69.679	0.346	69.679	0.938	-20.264
584.011	0.937	-20.344	0.348	69.598	0.348	69.598	0.937	-20.344
586.48	0.937	-20.425	0.349	69.517	0.349	69.517	0.937	-20.425
588.95	0.936	-20.506	0.35	69.436	0.35	69.436	0.936	-20.506
591.419	0.936	-20.586	0.352	69.356	0.352	69.356	0.936	-20.586
593.889	0.935	-20.666	0.353	69.275	0.353	69.275	0.935	-20.666
596.358	0.935	-20.747	0.354	69.195	0.354	69.195	0.935	-20.747
598.828	0.934	-20.827	0.356	69.114	0.356	69.114	0.934	-20.827
601.297	0.934	-20.907	0.357	69.034	0.357	69.034	0.934	-20.907
603.767	0.933	-20.987	0.358	68.953	0.358	68.953	0.933	-20.987
606.236	0.933	-21.068	0.359	68.873	0.359	68.873	0.933	-21.068
608.705	0.932	-21.148	0.361	68.793	0.361	68.793	0.932	-21.148
611.175	0.932	-21.228	0.362	68.712	0.362	68.712	0.932	-21.228
613.644	0.931	-21.307	0.363	68.632	0.363	68.632	0.931	-21.307
616.114	0.931	-21.387	0.365	68.552	0.365	68.552	0.931	-21.387
618.583	0.93	-21.467	0.366	68.472	0.366	68.472	0.93	-21.467
621.053	0.93	-21.547	0.367	68.392	0.367	68.392	0.93	-21.547
623.522	0.929	-21.626	0.369	68.312	0.369	68.312	0.929	-21.626
625.992	0.929	-21.706	0.37	68.232	0.37	68.232	0.929	-21.706
628.461	0.928	-21.785	0.371	68.153	0.371	68.153	0.928	-21.785
630.93	0.928	-21.865	0.372	68.073	0.372	68.073	0.928	-21.865
633.4	0.927	-21.944	0.374	67.993	0.374	67.993	0.927	-21.944
635.869	0.927	-22.024	0.375	67.914	0.375	67.914	0.927	-22.024
638.339	0.926	-22.103	0.376	67.834	0.376	67.834	0.926	-22.103
640.808	0.926	-22.182	0.378	67.755	0.378	67.755	0.926	-22.182
643.278	0.925	-22.261	0.379	67.675	0.379	67.675	0.925	-22.261
645.747	0.925	-22.34	0.38	67.596	0.38	67.596	0.925	-22.34
648.217	0.924	-22.419	0.381	67.517	0.381	67.517	0.924	-22.419
650.686	0.923	-22.498	0.383	67.438	0.383	67.438	0.923	-22.498
653.155	0.923	-22.577	0.384	67.359	0.384	67.359	0.923	-22.577
655.625	0.922	-22.656	0.385	67.28	0.385	67.28	0.922	-22.656
658.094	0.922	-22.734	0.386	67.201	0.386	67.201	0.922	-22.734
660.564	0.921	-22.813	0.388	67.122	0.388	67.122	0.921	-22.813
663.033	0.921	-22.892	0.389	67.043	0.389	67.043	0.921	-22.892
665.503	0.92	-22.97	0.39	66.964	0.39	66.964	0.92	-22.97
667.972	0.92	-23.049	0.392	66.886	0.392	66.886	0.92	-23.049
670.442	0.919	-23.127	0.393	66.807	0.393	66.807	0.919	-23.127
672.911	0.919	-23.205	0.394	66.728	0.394	66.728	0.919	-23.205
675.38	0.918	-23.283	0.395	66.65	0.395	66.65	0.918	-23.283
677.85	0.918	-23.362	0.397	66.571	0.397	66.571	0.918	-23.362
680.319	0.917	-23.44	0.398	66.493	0.398	66.493	0.917	-23.44
682.789	0.916	-23.518	0.399	66.415	0.399	66.415	0.916	-23.518
685.258	0.916	-23.596	0.4	66.337	0.4	66.337	0.916	-23.596
687.728	0.915	-23.674	0.402	66.258	0.402	66.258	0.915	-23.674
690.197	0.915	-23.751	0.403	66.18	0.403	66.18	0.915	-23.751
692.667	0.914	-23.829	0.404	66.102	0.404	66.102	0.914	-23.829
695.136	0.914	-23.907	0.405	66.024	0.405	66.024	0.914	-23.907
697.605	0.913	-23.985	0.406	65.947	0.406	65.947	0.913	-23.985
700.075	0.913	-24.062	0.408	65.869	0.408	65.869	0.913	-24.062
702.544	0.912	-24.14	0.409	65.791	0.409	65.791	0.912	-24.14
705.014	0.911	-24.217	0.41	65.713	0.41	65.713	0.911	-24.217
707.483	0.911	-24.294	0.411	65.636	0.411	65.636	0.911	-24.294
709.953	0.91	-24.372	0.413	65.558	0.413	65.558	0.91	-24.372
712.422	0.91	-24.449	0.414	65.481	0.414	65.481	0.91	-24.449
714.891	0.909	-24.526	0.415	65.403	0.415	65.403	0.909	-24.526
717.361	0.909	-24.603	0.416	65.326	0.416	65.326	0.909	-24.603
719.83	0.908	-24.68	0.418	65.249	0.418	65.249	0.908	-24.68
722.3	0.908	-24.757	0.419	65.172	0.419	65.172	0.908	-24.757
724.769	0.907	-24.834	0.42	65.094	0.42	65.094	0.907	-24.834
727.239	0.906	-24.911	0.421	65.017	0.421	65.017	0.906	-24.911
729.708	0.906	-24.987	0.422	64.94	0.422	64.94	0.906	-24.987
732.178	0.905	-25.064	0.424	64.864	0.424	64.864	0.905	-25.064
734.647	0.905	-25.141	0.425	64.787	0.425	64.787	0.905	-25.141
737.116	0.904	-25.217	0.426	64.71	0.426	64.71	0.904	-25.217
739.586	0.904	-25.294	0.427	64.633	0.427	64.633	0.904	-25.294
742.055	0.903	-25.37	0.428	64.557	0.428	64.557	0.903	-25.37
744.525	0.902	-25.446	0.43	64.48	0.43	64.48	0.902	-25.446
746.994	0.902	-25.522	0.431	64.404	0.431	64.404	0.902	-25.522
749.464	0.901	-25.599	0.432	64.327	0.432	64.327	0.901	-25.599
751.933	0.901	-25.675	0.433	64.251	0.433	64.251	0.901	-25.675
754.403	0.9	-25.751	0.434	64.175	0.434	64.175	0.9	-25.751
756.872	0.9	-25.827	0.436	64.098	0.436	64.098	0.9	-25.827
759.341	0.899	-25.902	0.437	64.022	0.437	64.022	0.899	-25.902
761.811	0.898	-25.978	0.438	63.946	0.438	63.946	0.898	-25.978
764.28	0.898	-26.054	0.439	63.87	0.439	63.87	0.898	-26.054
766.75	0.897	-26.13	0.44	63.794	0.44	63.794	0.897	-26.13
769.219	0.897	-26.205	0.442	63.719	0.442	63.719	0.897	-26.205
771.689	0.896	-26.281	0.443	63.643	0.443	63.643	0.896	-26.281
774.158	0.895	-26.356	0.444	63.567	0.444	63.567	0.895	-26.356
776.628	0.895	-26.432	0.445	63.491	0.445	63.491	0.895	-26.432
779.097	0.894	-26.507	0.446	63.416	0.446	63.416	0.894	-26.507
781.566	0.894	-26.582	0.447	63.34	0.447	63.34	0.894	-26.582
784.036	0.893	-26.657	0.449	63.265	0.449	63.265	0.893	-26.657
786.505	0.893	-26.732	0.45	63.19	0.45	63.19	0.893	-26.732
788.975	0.892	-26.807	0.451	63.114	0.451	63.114	0.892	-26.807
791.444	0.891	-26.882	0.452	63.039	0.452	63.039	0.891	-26.882
793.914	0.891	-26.957	0.453	62.964	0.453	62.964	0.891	-26.957
796.383	0.89	-27.032	0.454	62.889	0.454	62.889	0.89	-27.032
798.853	0.89	-27.107	0.456	62.814	0.456	62.814	0.89	-27.107
801.322	0.889	-27.181	0.457	62.739	0.457	62.739	0.889	-27.181
803.791	0.888	-27.256	0.458	62.664	0.458	62.664	0.888	-27.256
806.261	0.888	-27.33	0.459	62.59	0.459	62.59	0.888	-27.33
808.73	0.887	-27.405	0.46	62.515	0.46	62.515	0.887	-27.405
811.2	0.887	-27.479	0.461	62.44	0.461	62.44	0.887	-27.479
813.669	0.886	-27.553	0.463	62.366	0.463	62.366	0.886	-27.553
816.139	0.885	-27.628	0.464	62.291	0.464	62.291	0.885	-27.628
818.608	0.885	-27.702	0.465	62.217	0.465	62.217	0.885	-27.702
821.078	0.884	-27.776	0.466	62.143	0.466	62.143	0.884	-27.776
823.547	0.884	-27.85	0.467	62.068	0.467	62.068	0.884	-27.85
826.016	0.883	-27.924	0.468	61.994	0.468	61.994	0.883	-27.924
828.486	0.882	-27.997	0.469	61.92	0.469	61.92	0.882	-27.997
830.955	0.882	-28.071	0.471	61.846	0.471	61.846	0.882	-28.071
833.425	0.881	-28.145	0.472	61.772	0.472	61.772	0.881	-28.145
835.894	0.88	-28.219	0.473	61.698	0.473	61.698	0.88	-28.219
838.364	0.88	-28.292	0.474	61.624	0.474	61.624	0.88	-28.292
840.833	0.879	-28.366	0.475	61.551	0.475	61.551	0.879	-28.366
843.303	0.879	-28.439	0.476	61.477	0.476	61.477	0.879	-28.439
845.772	0.878	-28.512	0.477	61.404	0.477	61.404	0.878	-28.512
848.241	0.877	-28.586	0.478	61.33	0.478	61.33	0.877	-28.586
850.711	0.877	-28.659	0.48	61.257	0.48	61.257	0.877	-28.659
853.18	0.876	-28.732	0.481	61.183	0.481	61.183	0.876	-28.732
855.65	0.876	-28.805	0.482	61.11	0.482	61.11	0.876	-28.805
858.119	0.875	-28.878	0.483	61.037	0.483	61.037	0.875	-28.878
860.589	0.874	-28.951	0.484	60.964	0.484	60.964	0.874	-28.951
863.058	0.874	-29.024	0.485	60.891	0.485	60.891	0.874	-29.024
865.528	0.873	-29.096	0.486	60.818	0.486	60.818	0.873	-29.096
867.997	0.872	-29.169	0.487	60.745	0.487	60.745	0.872	-29.169
870.466	0.872	-29.242	0.488	60.672	0.488	60.672	0.872	-29.242
872.936	0.871	-29.314	0.49	60.599	0.49	60.599	0.871	-29.314
875.405	0.871	-29.386	0.491	60.526	0.491	60.526	0.871	-29.386
877.875	0.87	-29.459	0.492	60.454	0.492	60.454	0.87	-29.459
880.344	0.869	-29.531	0.493	60.381	0.493	60.381	0.869	-29.531
882.814	0.869	-29.603	0.494	60.309	0.494	60.309	0.869	-29.603
885.283	0.868	-29.675	0.495	60.236	0.495	60.236	0.868	-29.675
887.753	0.867	-29.748	0.496	60.164	0.496	60.164	0.867	-29.748
890.222	0.867	-29.82	0.497	60.092	0.497	60.092	0.867	-29.82
892.691	0.866	-29.891	0.498	60.02	0.498	60.02	0.866	-29.891
895.161	0.866	-29.963	0.499	59.947	0.499	59.947	0.866	-29.963
897.63	0.865	-30.035	0.501	59.875	0.501	59.875	0.865	-30.035
900.1	0.864	-30.107	0.502	59.803	0.502	59.803	0.864	-30.107
