! AVX Thin Film Operation		Date: April 2012 
! Description: Accu-P® Series, Thin Film, SMD, RF Capacitor
! Part Number: 08051J8R2BBTTR					
!	100	MHz	-	10.05	GHz			
!	Serial	Measurements						
!								
#	MHZ	S	MA	R	50			
!	S11	S21	S12	S22				
!	dB	Phase	dB	Phase	dB	Phase	dB	Phase
100	0.888	-27.309	0.459	62.658	0.459	62.658	0.888	-27.309
102.469	0.884	-27.885	0.468	62.081	0.468	62.081	0.884	-27.885
104.939	0.879	-28.456	0.476	61.51	0.476	61.51	0.879	-28.456
107.408	0.874	-29.021	0.485	60.944	0.485	60.944	0.874	-29.021
109.878	0.869	-29.579	0.494	60.385	0.494	60.385	0.869	-29.579
112.347	0.865	-30.132	0.502	59.831	0.502	59.831	0.865	-30.132
114.817	0.86	-30.679	0.51	59.284	0.51	59.284	0.86	-30.679
117.286	0.855	-31.22	0.518	58.742	0.518	58.742	0.855	-31.22
119.756	0.85	-31.755	0.526	58.206	0.526	58.206	0.85	-31.755
122.225	0.845	-32.284	0.534	57.676	0.534	57.676	0.845	-32.284
124.694	0.84	-32.807	0.542	57.152	0.542	57.152	0.84	-32.807
127.164	0.835	-33.324	0.549	56.634	0.549	56.634	0.835	-33.324
129.633	0.83	-33.836	0.557	56.122	0.557	56.122	0.83	-33.836
132.103	0.825	-34.341	0.564	55.616	0.564	55.616	0.825	-34.341
134.572	0.82	-34.841	0.571	55.115	0.571	55.115	0.82	-34.841
137.042	0.815	-35.335	0.578	54.62	0.578	54.62	0.815	-35.335
139.511	0.81	-35.823	0.585	54.131	0.585	54.131	0.81	-35.823
141.981	0.805	-36.306	0.592	53.648	0.592	53.648	0.805	-36.306
144.45	0.8	-36.782	0.599	53.17	0.599	53.17	0.8	-36.782
146.919	0.795	-37.254	0.605	52.698	0.605	52.698	0.795	-37.254
149.389	0.79	-37.719	0.612	52.232	0.612	52.232	0.79	-37.719
151.858	0.786	-38.179	0.618	51.771	0.618	51.771	0.786	-38.179
154.328	0.781	-38.634	0.624	51.316	0.624	51.316	0.781	-38.634
156.797	0.776	-39.083	0.63	50.866	0.63	50.866	0.776	-39.083
159.267	0.771	-39.526	0.636	50.422	0.636	50.422	0.771	-39.526
161.736	0.766	-39.965	0.642	49.982	0.642	49.982	0.766	-39.965
164.206	0.761	-40.398	0.648	49.549	0.648	49.549	0.761	-40.398
166.675	0.756	-40.825	0.654	49.12	0.654	49.12	0.756	-40.825
169.144	0.751	-41.248	0.659	48.697	0.659	48.697	0.751	-41.248
171.614	0.746	-41.665	0.665	48.279	0.665	48.279	0.746	-41.665
174.083	0.742	-42.077	0.67	47.866	0.67	47.866	0.742	-42.077
176.553	0.737	-42.484	0.675	47.458	0.675	47.458	0.737	-42.484
179.022	0.732	-42.886	0.681	47.055	0.681	47.055	0.732	-42.886
181.492	0.727	-43.283	0.686	46.657	0.686	46.657	0.727	-43.283
183.961	0.723	-43.676	0.691	46.264	0.691	46.264	0.723	-43.676
186.431	0.718	-44.063	0.695	45.876	0.695	45.876	0.718	-44.063
188.9	0.713	-44.446	0.7	45.492	0.7	45.492	0.713	-44.446
191.369	0.709	-44.824	0.705	45.114	0.705	45.114	0.709	-44.824
193.839	0.704	-45.197	0.71	44.74	0.71	44.74	0.704	-45.197
196.308	0.699	-45.565	0.714	44.37	0.714	44.37	0.699	-45.565
198.778	0.695	-45.929	0.718	44.005	0.718	44.005	0.695	-45.929
201.247	0.69	-46.289	0.723	43.645	0.723	43.645	0.69	-46.289
203.717	0.686	-46.644	0.727	43.289	0.727	43.289	0.686	-46.644
206.186	0.681	-46.995	0.731	42.937	0.731	42.937	0.681	-46.995
208.656	0.677	-47.342	0.735	42.59	0.735	42.59	0.677	-47.342
211.125	0.672	-47.684	0.739	42.247	0.739	42.247	0.672	-47.684
213.594	0.668	-48.022	0.743	41.908	0.743	41.908	0.668	-48.022
216.064	0.664	-48.356	0.747	41.573	0.747	41.573	0.664	-48.356
218.533	0.659	-48.685	0.751	41.243	0.751	41.243	0.659	-48.685
221.003	0.655	-49.011	0.755	40.916	0.755	40.916	0.655	-49.011
223.472	0.651	-49.333	0.759	40.594	0.759	40.594	0.651	-49.333
225.942	0.646	-49.651	0.762	40.275	0.762	40.275	0.646	-49.651
228.411	0.642	-49.965	0.766	39.96	0.766	39.96	0.642	-49.965
230.881	0.638	-50.275	0.769	39.649	0.769	39.649	0.638	-50.275
233.35	0.634	-50.581	0.773	39.342	0.773	39.342	0.634	-50.581
235.819	0.63	-50.884	0.776	39.038	0.776	39.038	0.63	-50.884
238.289	0.626	-51.183	0.779	38.739	0.779	38.739	0.626	-51.183
240.758	0.622	-51.478	0.782	38.442	0.782	38.442	0.622	-51.478
243.228	0.618	-51.77	0.786	38.15	0.786	38.15	0.618	-51.77
245.697	0.614	-52.059	0.789	37.86	0.789	37.86	0.614	-52.059
248.167	0.61	-52.343	0.792	37.575	0.792	37.575	0.61	-52.343
250.636	0.606	-52.625	0.795	37.292	0.795	37.292	0.606	-52.625
253.106	0.602	-52.903	0.798	37.013	0.798	37.013	0.602	-52.903
255.575	0.598	-53.178	0.801	36.738	0.801	36.738	0.598	-53.178
258.044	0.594	-53.449	0.803	36.465	0.803	36.465	0.594	-53.449
260.514	0.591	-53.718	0.806	36.196	0.806	36.196	0.591	-53.718
262.983	0.587	-53.983	0.809	35.93	0.809	35.93	0.587	-53.983
265.453	0.583	-54.245	0.812	35.667	0.812	35.667	0.583	-54.245
267.922	0.579	-54.504	0.814	35.407	0.814	35.407	0.579	-54.504
270.392	0.576	-54.76	0.817	35.15	0.817	35.15	0.576	-54.76
272.861	0.572	-55.013	0.819	34.897	0.819	34.897	0.572	-55.013
275.331	0.568	-55.263	0.822	34.646	0.822	34.646	0.568	-55.263
277.8	0.565	-55.51	0.824	34.398	0.824	34.398	0.565	-55.51
280.269	0.561	-55.755	0.827	34.152	0.827	34.152	0.561	-55.755
282.739	0.558	-55.996	0.829	33.91	0.829	33.91	0.558	-55.996
285.208	0.554	-56.235	0.831	33.67	0.831	33.67	0.554	-56.235
287.678	0.551	-56.471	0.834	33.433	0.834	33.433	0.551	-56.471
290.147	0.548	-56.704	0.836	33.199	0.836	33.199	0.548	-56.704
292.617	0.544	-56.935	0.838	32.968	0.838	32.968	0.544	-56.935
295.086	0.541	-57.163	0.84	32.739	0.84	32.739	0.541	-57.163
297.556	0.537	-57.389	0.842	32.512	0.842	32.512	0.537	-57.389
300.025	0.534	-57.612	0.844	32.288	0.844	32.288	0.534	-57.612
302.494	0.531	-57.832	0.846	32.067	0.846	32.067	0.531	-57.832
304.964	0.528	-58.05	0.849	31.848	0.849	31.848	0.528	-58.05
307.433	0.524	-58.266	0.851	31.632	0.851	31.632	0.524	-58.266
309.903	0.521	-58.479	0.852	31.418	0.852	31.418	0.521	-58.479
312.372	0.518	-58.69	0.854	31.206	0.854	31.206	0.518	-58.69
314.842	0.515	-58.899	0.856	30.996	0.856	30.996	0.515	-58.899
317.311	0.512	-59.105	0.858	30.789	0.858	30.789	0.512	-59.105
319.78	0.509	-59.309	0.86	30.584	0.86	30.584	0.509	-59.309
322.25	0.506	-59.511	0.862	30.382	0.862	30.382	0.506	-59.511
324.719	0.503	-59.711	0.863	30.181	0.863	30.181	0.503	-59.711
327.189	0.5	-59.908	0.865	29.983	0.865	29.983	0.5	-59.908
329.658	0.497	-60.104	0.867	29.786	0.867	29.786	0.497	-60.104
332.128	0.494	-60.297	0.869	29.592	0.869	29.592	0.494	-60.297
334.597	0.491	-60.488	0.87	29.4	0.87	29.4	0.491	-60.488
337.067	0.488	-60.677	0.872	29.21	0.872	29.21	0.488	-60.677
339.536	0.485	-60.865	0.873	29.022	0.873	29.022	0.485	-60.865
342.005	0.482	-61.05	0.875	28.836	0.875	28.836	0.482	-61.05
344.475	0.479	-61.233	0.877	28.652	0.877	28.652	0.479	-61.233
346.944	0.477	-61.415	0.878	28.469	0.878	28.469	0.477	-61.415
349.414	0.474	-61.594	0.88	28.289	0.88	28.289	0.474	-61.594
351.883	0.471	-61.772	0.881	28.11	0.881	28.11	0.471	-61.772
354.353	0.468	-61.947	0.883	27.934	0.883	27.934	0.468	-61.947
356.822	0.466	-62.122	0.884	27.759	0.884	27.759	0.466	-62.122
359.292	0.463	-62.294	0.885	27.586	0.885	27.586	0.463	-62.294
361.761	0.46	-62.464	0.887	27.414	0.887	27.414	0.46	-62.464
364.23	0.458	-62.633	0.888	27.245	0.888	27.245	0.458	-62.633
366.7	0.455	-62.8	0.889	27.077	0.889	27.077	0.455	-62.8
369.169	0.453	-62.965	0.891	26.911	0.891	26.911	0.453	-62.965
371.639	0.45	-63.129	0.892	26.746	0.892	26.746	0.45	-63.129
374.108	0.447	-63.291	0.893	26.583	0.893	26.583	0.447	-63.291
376.578	0.445	-63.452	0.895	26.422	0.895	26.422	0.445	-63.452
379.047	0.442	-63.61	0.896	26.262	0.896	26.262	0.442	-63.61
381.517	0.44	-63.768	0.897	26.104	0.897	26.104	0.44	-63.768
383.986	0.438	-63.924	0.898	25.947	0.898	25.947	0.438	-63.924
386.455	0.435	-64.078	0.899	25.792	0.899	25.792	0.435	-64.078
388.925	0.433	-64.23	0.901	25.638	0.901	25.638	0.433	-64.23
391.394	0.43	-64.382	0.902	25.486	0.902	25.486	0.43	-64.382
393.864	0.428	-64.532	0.903	25.335	0.903	25.335	0.428	-64.532
396.333	0.426	-64.68	0.904	25.186	0.904	25.186	0.426	-64.68
398.803	0.423	-64.827	0.905	25.038	0.905	25.038	0.423	-64.827
401.272	0.421	-64.972	0.906	24.892	0.906	24.892	0.421	-64.972
403.742	0.419	-65.116	0.907	24.747	0.907	24.747	0.419	-65.116
406.211	0.416	-65.259	0.908	24.603	0.908	24.603	0.416	-65.259
408.68	0.414	-65.401	0.909	24.461	0.909	24.461	0.414	-65.401
411.15	0.412	-65.541	0.91	24.32	0.91	24.32	0.412	-65.541
413.619	0.41	-65.68	0.911	24.18	0.911	24.18	0.41	-65.68
416.089	0.407	-65.817	0.912	24.042	0.912	24.042	0.407	-65.817
418.558	0.405	-65.953	0.913	23.905	0.913	23.905	0.405	-65.953
421.028	0.403	-66.088	0.914	23.769	0.914	23.769	0.403	-66.088
423.497	0.401	-66.222	0.915	23.634	0.915	23.634	0.401	-66.222
425.967	0.399	-66.355	0.916	23.501	0.916	23.501	0.399	-66.355
428.436	0.397	-66.486	0.917	23.368	0.917	23.368	0.397	-66.486
430.905	0.395	-66.616	0.918	23.237	0.918	23.237	0.395	-66.616
433.375	0.392	-66.745	0.919	23.108	0.919	23.108	0.392	-66.745
435.844	0.39	-66.873	0.92	22.979	0.92	22.979	0.39	-66.873
438.314	0.388	-66.999	0.921	22.851	0.921	22.851	0.388	-66.999
440.783	0.386	-67.125	0.921	22.725	0.921	22.725	0.386	-67.125
443.253	0.384	-67.249	0.922	22.6	0.922	22.6	0.384	-67.249
445.722	0.382	-67.372	0.923	22.475	0.923	22.475	0.382	-67.372
448.192	0.38	-67.495	0.924	22.352	0.924	22.352	0.38	-67.495
450.661	0.378	-67.616	0.925	22.23	0.925	22.23	0.378	-67.616
453.13	0.376	-67.736	0.925	22.109	0.925	22.109	0.376	-67.736
455.6	0.374	-67.855	0.926	21.989	0.926	21.989	0.374	-67.855
458.069	0.373	-67.973	0.927	21.87	0.927	21.87	0.373	-67.973
460.539	0.371	-68.09	0.928	21.752	0.928	21.752	0.371	-68.09
463.008	0.369	-68.206	0.929	21.636	0.929	21.636	0.369	-68.206
465.478	0.367	-68.321	0.929	21.52	0.929	21.52	0.367	-68.321
467.947	0.365	-68.435	0.93	21.405	0.93	21.405	0.365	-68.435
470.417	0.363	-68.548	0.931	21.291	0.931	21.291	0.363	-68.548
472.886	0.361	-68.66	0.931	21.178	0.931	21.178	0.361	-68.66
475.355	0.359	-68.771	0.932	21.066	0.932	21.066	0.359	-68.771
477.825	0.358	-68.881	0.933	20.955	0.933	20.955	0.358	-68.881
480.294	0.356	-68.99	0.934	20.844	0.934	20.844	0.356	-68.99
482.764	0.354	-69.099	0.934	20.735	0.934	20.735	0.354	-69.099
485.233	0.352	-69.206	0.935	20.627	0.935	20.627	0.352	-69.206
487.703	0.351	-69.313	0.936	20.519	0.936	20.519	0.351	-69.313
490.172	0.349	-69.418	0.936	20.412	0.936	20.412	0.349	-69.418
492.642	0.347	-69.523	0.937	20.307	0.937	20.307	0.347	-69.523
495.111	0.345	-69.627	0.937	20.202	0.937	20.202	0.345	-69.627
497.58	0.344	-69.73	0.938	20.098	0.938	20.098	0.344	-69.73
500.05	0.342	-69.833	0.939	19.994	0.939	19.994	0.342	-69.833
502.519	0.34	-69.934	0.939	19.892	0.939	19.892	0.34	-69.934
504.989	0.339	-70.035	0.94	19.79	0.94	19.79	0.339	-70.035
507.458	0.337	-70.134	0.94	19.69	0.94	19.69	0.337	-70.134
509.928	0.335	-70.234	0.941	19.59	0.941	19.59	0.335	-70.234
512.397	0.334	-70.332	0.942	19.49	0.942	19.49	0.334	-70.332
514.867	0.332	-70.429	0.942	19.392	0.942	19.392	0.332	-70.429
517.336	0.33	-70.526	0.943	19.294	0.943	19.294	0.33	-70.526
519.805	0.329	-70.622	0.943	19.197	0.943	19.197	0.329	-70.622
522.275	0.327	-70.717	0.944	19.101	0.944	19.101	0.327	-70.717
524.744	0.326	-70.812	0.944	19.006	0.944	19.006	0.326	-70.812
527.214	0.324	-70.905	0.945	18.911	0.945	18.911	0.324	-70.905
529.683	0.323	-70.998	0.946	18.817	0.946	18.817	0.323	-70.998
532.153	0.321	-71.091	0.946	18.723	0.946	18.723	0.321	-71.091
534.622	0.319	-71.182	0.947	18.631	0.947	18.631	0.319	-71.182
537.092	0.318	-71.273	0.947	18.539	0.947	18.539	0.318	-71.273
539.561	0.316	-71.363	0.948	18.448	0.948	18.448	0.316	-71.363
542.03	0.315	-71.453	0.948	18.357	0.948	18.357	0.315	-71.453
544.5	0.313	-71.542	0.949	18.267	0.949	18.267	0.313	-71.542
546.969	0.312	-71.63	0.949	18.178	0.949	18.178	0.312	-71.63
549.439	0.311	-71.718	0.95	18.09	0.95	18.09	0.311	-71.718
551.908	0.309	-71.804	0.95	18.002	0.95	18.002	0.309	-71.804
554.378	0.308	-71.891	0.95	17.915	0.95	17.915	0.308	-71.891
556.847	0.306	-71.976	0.951	17.828	0.951	17.828	0.306	-71.976
559.317	0.305	-72.061	0.951	17.742	0.951	17.742	0.305	-72.061
561.786	0.303	-72.146	0.952	17.657	0.952	17.657	0.303	-72.146
564.255	0.302	-72.229	0.952	17.572	0.952	17.572	0.302	-72.229
566.725	0.301	-72.312	0.953	17.488	0.953	17.488	0.301	-72.312
569.194	0.299	-72.395	0.953	17.404	0.953	17.404	0.299	-72.395
571.664	0.298	-72.477	0.954	17.321	0.954	17.321	0.298	-72.477
574.133	0.296	-72.558	0.954	17.239	0.954	17.239	0.296	-72.558
576.603	0.295	-72.639	0.954	17.157	0.954	17.157	0.295	-72.639
579.072	0.294	-72.719	0.955	17.076	0.955	17.076	0.294	-72.719
581.542	0.292	-72.799	0.955	16.995	0.955	16.995	0.292	-72.799
584.011	0.291	-72.878	0.956	16.915	0.956	16.915	0.291	-72.878
586.48	0.29	-72.956	0.956	16.836	0.956	16.836	0.29	-72.956
588.95	0.288	-73.034	0.956	16.757	0.956	16.757	0.288	-73.034
591.419	0.287	-73.112	0.957	16.678	0.957	16.678	0.287	-73.112
593.889	0.286	-73.188	0.957	16.6	0.957	16.6	0.286	-73.188
596.358	0.284	-73.265	0.958	16.523	0.958	16.523	0.284	-73.265
598.828	0.283	-73.34	0.958	16.446	0.958	16.446	0.283	-73.34
601.297	0.282	-73.416	0.958	16.37	0.958	16.37	0.282	-73.416
603.767	0.281	-73.49	0.959	16.294	0.959	16.294	0.281	-73.49
606.236	0.279	-73.565	0.959	16.219	0.959	16.219	0.279	-73.565
608.705	0.278	-73.638	0.96	16.144	0.96	16.144	0.278	-73.638
611.175	0.277	-73.712	0.96	16.07	0.96	16.07	0.277	-73.712
613.644	0.276	-73.784	0.96	15.996	0.96	15.996	0.276	-73.784
616.114	0.274	-73.857	0.961	15.923	0.961	15.923	0.274	-73.857
618.583	0.273	-73.928	0.961	15.85	0.961	15.85	0.273	-73.928
621.053	0.272	-74	0.961	15.777	0.961	15.777	0.272	-74
623.522	0.271	-74.071	0.962	15.706	0.962	15.706	0.271	-74.071
625.992	0.269	-74.141	0.962	15.634	0.962	15.634	0.269	-74.141
628.461	0.268	-74.211	0.962	15.563	0.962	15.563	0.268	-74.211
630.93	0.267	-74.28	0.963	15.493	0.963	15.493	0.267	-74.28
633.4	0.266	-74.349	0.963	15.423	0.963	15.423	0.266	-74.349
635.869	0.265	-74.418	0.963	15.353	0.963	15.353	0.265	-74.418
638.339	0.264	-74.486	0.964	15.284	0.964	15.284	0.264	-74.486
640.808	0.262	-74.553	0.964	15.215	0.964	15.215	0.262	-74.553
643.278	0.261	-74.62	0.964	15.147	0.964	15.147	0.261	-74.62
645.747	0.26	-74.687	0.965	15.079	0.965	15.079	0.26	-74.687
648.217	0.259	-74.753	0.965	15.012	0.965	15.012	0.259	-74.753
650.686	0.258	-74.819	0.965	14.945	0.965	14.945	0.258	-74.819
653.155	0.257	-74.885	0.965	14.878	0.965	14.878	0.257	-74.885
655.625	0.256	-74.95	0.966	14.812	0.966	14.812	0.256	-74.95
658.094	0.255	-75.015	0.966	14.746	0.966	14.746	0.255	-75.015
660.564	0.253	-75.079	0.966	14.681	0.966	14.681	0.253	-75.079
663.033	0.252	-75.143	0.967	14.616	0.967	14.616	0.252	-75.143
665.503	0.251	-75.206	0.967	14.551	0.967	14.551	0.251	-75.206
667.972	0.25	-75.269	0.967	14.487	0.967	14.487	0.25	-75.269
670.442	0.249	-75.332	0.967	14.423	0.967	14.423	0.249	-75.332
672.911	0.248	-75.394	0.968	14.36	0.968	14.36	0.248	-75.394
675.38	0.247	-75.456	0.968	14.297	0.968	14.297	0.247	-75.456
677.85	0.246	-75.517	0.968	14.234	0.968	14.234	0.246	-75.517
680.319	0.245	-75.578	0.968	14.172	0.968	14.172	0.245	-75.578
682.789	0.244	-75.639	0.969	14.11	0.969	14.11	0.244	-75.639
685.258	0.243	-75.7	0.969	14.049	0.969	14.049	0.243	-75.7
687.728	0.242	-75.76	0.969	13.988	0.969	13.988	0.242	-75.76
690.197	0.241	-75.819	0.97	13.927	0.97	13.927	0.241	-75.819
692.667	0.24	-75.878	0.97	13.866	0.97	13.866	0.24	-75.878
695.136	0.239	-75.937	0.97	13.806	0.97	13.806	0.239	-75.937
697.605	0.238	-75.996	0.97	13.747	0.97	13.747	0.238	-75.996
700.075	0.237	-76.054	0.971	13.687	0.971	13.687	0.237	-76.054
702.544	0.236	-76.112	0.971	13.628	0.971	13.628	0.236	-76.112
705.014	0.235	-76.17	0.971	13.57	0.971	13.57	0.235	-76.17
707.483	0.234	-76.227	0.971	13.511	0.971	13.511	0.234	-76.227
709.953	0.233	-76.284	0.971	13.453	0.971	13.453	0.233	-76.284
712.422	0.232	-76.34	0.972	13.395	0.972	13.395	0.232	-76.34
714.891	0.231	-76.396	0.972	13.338	0.972	13.338	0.231	-76.396
717.361	0.23	-76.452	0.972	13.281	0.972	13.281	0.23	-76.452
719.83	0.229	-76.508	0.972	13.224	0.972	13.224	0.229	-76.508
722.3	0.228	-76.563	0.973	13.168	0.973	13.168	0.228	-76.563
724.769	0.227	-76.618	0.973	13.112	0.973	13.112	0.227	-76.618
727.239	0.226	-76.672	0.973	13.056	0.973	13.056	0.226	-76.672
729.708	0.225	-76.727	0.973	13.001	0.973	13.001	0.225	-76.727
732.178	0.224	-76.781	0.974	12.945	0.974	12.945	0.224	-76.781
734.647	0.223	-76.834	0.974	12.89	0.974	12.89	0.223	-76.834
737.116	0.222	-76.888	0.974	12.836	0.974	12.836	0.222	-76.888
739.586	0.221	-76.941	0.974	12.782	0.974	12.782	0.221	-76.941
742.055	0.22	-76.994	0.974	12.728	0.974	12.728	0.22	-76.994
744.525	0.219	-77.046	0.975	12.674	0.975	12.674	0.219	-77.046
746.994	0.218	-77.098	0.975	12.621	0.975	12.621	0.218	-77.098
749.464	0.218	-77.15	0.975	12.568	0.975	12.568	0.218	-77.15
751.933	0.217	-77.202	0.975	12.515	0.975	12.515	0.217	-77.202
754.403	0.216	-77.253	0.975	12.462	0.975	12.462	0.216	-77.253
756.872	0.215	-77.304	0.976	12.41	0.976	12.41	0.215	-77.304
759.341	0.214	-77.355	0.976	12.358	0.976	12.358	0.214	-77.355
761.811	0.213	-77.405	0.976	12.306	0.976	12.306	0.213	-77.405
764.28	0.212	-77.455	0.976	12.255	0.976	12.255	0.212	-77.455
766.75	0.211	-77.505	0.976	12.204	0.976	12.204	0.211	-77.505
769.219	0.211	-77.555	0.977	12.153	0.977	12.153	0.211	-77.555
771.689	0.21	-77.604	0.977	12.102	0.977	12.102	0.21	-77.604
774.158	0.209	-77.653	0.977	12.052	0.977	12.052	0.209	-77.653
776.628	0.208	-77.702	0.977	12.002	0.977	12.002	0.208	-77.702
779.097	0.207	-77.751	0.977	11.952	0.977	11.952	0.207	-77.751
781.566	0.206	-77.799	0.977	11.902	0.977	11.902	0.206	-77.799
784.036	0.205	-77.847	0.978	11.853	0.978	11.853	0.205	-77.847
786.505	0.205	-77.895	0.978	11.804	0.978	11.804	0.205	-77.895
788.975	0.204	-77.942	0.978	11.755	0.978	11.755	0.204	-77.942
791.444	0.203	-77.99	0.978	11.706	0.978	11.706	0.203	-77.99
793.914	0.202	-78.037	0.978	11.658	0.978	11.658	0.202	-78.037
796.383	0.201	-78.084	0.978	11.61	0.978	11.61	0.201	-78.084
798.853	0.2	-78.13	0.979	11.562	0.979	11.562	0.2	-78.13
801.322	0.2	-78.176	0.979	11.515	0.979	11.515	0.2	-78.176
803.791	0.199	-78.222	0.979	11.467	0.979	11.467	0.199	-78.222
806.261	0.198	-78.268	0.979	11.42	0.979	11.42	0.198	-78.268
808.73	0.197	-78.314	0.979	11.373	0.979	11.373	0.197	-78.314
811.2	0.196	-78.359	0.979	11.326	0.979	11.326	0.196	-78.359
813.669	0.196	-78.404	0.98	11.28	0.98	11.28	0.196	-78.404
816.139	0.195	-78.449	0.98	11.234	0.98	11.234	0.195	-78.449
818.608	0.194	-78.494	0.98	11.188	0.98	11.188	0.194	-78.494
821.078	0.193	-78.538	0.98	11.142	0.98	11.142	0.193	-78.538
823.547	0.192	-78.583	0.98	11.096	0.98	11.096	0.192	-78.583
826.016	0.192	-78.627	0.98	11.051	0.98	11.051	0.192	-78.627
828.486	0.191	-78.67	0.981	11.006	0.981	11.006	0.191	-78.67
830.955	0.19	-78.714	0.981	10.961	0.981	10.961	0.19	-78.714
833.425	0.189	-78.757	0.981	10.916	0.981	10.916	0.189	-78.757
835.894	0.189	-78.8	0.981	10.872	0.981	10.872	0.189	-78.8
838.364	0.188	-78.843	0.981	10.828	0.981	10.828	0.188	-78.843
840.833	0.187	-78.886	0.981	10.783	0.981	10.783	0.187	-78.886
843.303	0.186	-78.928	0.981	10.74	0.981	10.74	0.186	-78.928
845.772	0.186	-78.971	0.982	10.696	0.982	10.696	0.186	-78.971
848.241	0.185	-79.013	0.982	10.653	0.982	10.653	0.185	-79.013
850.711	0.184	-79.055	0.982	10.609	0.982	10.609	0.184	-79.055
853.18	0.183	-79.096	0.982	10.566	0.982	10.566	0.183	-79.096
855.65	0.183	-79.138	0.982	10.523	0.982	10.523	0.183	-79.138
858.119	0.182	-79.179	0.982	10.481	0.982	10.481	0.182	-79.179
860.589	0.181	-79.22	0.982	10.438	0.982	10.438	0.181	-79.22
863.058	0.18	-79.261	0.983	10.396	0.983	10.396	0.18	-79.261
865.528	0.18	-79.301	0.983	10.354	0.983	10.354	0.18	-79.301
867.997	0.179	-79.342	0.983	10.312	0.983	10.312	0.179	-79.342
870.466	0.178	-79.382	0.983	10.27	0.983	10.27	0.178	-79.382
872.936	0.178	-79.422	0.983	10.229	0.983	10.229	0.178	-79.422
875.405	0.177	-79.462	0.983	10.188	0.983	10.188	0.177	-79.462
877.875	0.176	-79.502	0.983	10.147	0.983	10.147	0.176	-79.502
880.344	0.175	-79.541	0.983	10.106	0.983	10.106	0.175	-79.541
882.814	0.175	-79.58	0.984	10.065	0.984	10.065	0.175	-79.58
885.283	0.174	-79.619	0.984	10.024	0.984	10.024	0.174	-79.619
887.753	0.173	-79.658	0.984	9.984	0.984	9.984	0.173	-79.658
890.222	0.173	-79.697	0.984	9.944	0.984	9.944	0.173	-79.697
892.691	0.172	-79.736	0.984	9.904	0.984	9.904	0.172	-79.736
895.161	0.171	-79.774	0.984	9.864	0.984	9.864	0.171	-79.774
