! AVX Thin Film Operation		Date: April 2012 
! Description: Accu-P® Series, Thin Film, SMD, RF Capacitor
! Part Number: 08051J3R5ABTTR					
!	100	MHz	-	20.05	GHz			
!	Serial	Measurements						
!								
#	MHZ	S	MA	R	50			
!	S11	S21	S12	S22				
!	dB	Phase	dB	Phase	dB	Phase	dB	Phase
50 0.994 -6.276 0.109 83.651 0.109 83.651 0.994 -6.276
100 0.976 -12.411 0.215 77.5 0.215 77.5 0.976 -12.411
150 0.949 -18.286 0.314 71.609 0.314 71.609 0.949 -18.286
200 0.914 -23.81 0.404 66.069 0.404 66.069 0.914 -23.81
250 0.874 -28.928 0.484 60.935 0.484 60.935 0.874 -28.928
300 0.831 -33.617 0.554 56.23 0.554 56.23 0.831 -33.617
350 0.787 -37.879 0.614 51.951 0.614 51.951 0.787 -37.879
400 0.744 -41.733 0.666 48.079 0.666 48.079 0.744 -41.733
450 0.702 -45.211 0.71 44.585 0.71 44.585 0.702 -45.211
500 0.662 -48.346 0.747 41.433 0.747 41.433 0.662 -48.346
550 0.624 -51.173 0.779 38.587 0.779 38.587 0.624 -51.173
600 0.588 -53.728 0.806 36.015 0.806 36.015 0.588 -53.728
650 0.555 -56.041 0.829 33.683 0.829 33.683 0.555 -56.041
700 0.523 -58.141 0.849 31.564 0.849 31.564 0.523 -58.141
750 0.494 -60.053 0.867 29.632 0.867 29.632 0.494 -60.053
800 0.467 -61.8 0.881 27.865 0.881 27.865 0.467 -61.8
850 0.442 -63.401 0.894 26.243 0.894 26.243 0.442 -63.401
900 0.419 -64.873 0.905 24.75 0.905 24.75 0.419 -64.873
950 0.397 -66.23 0.915 23.371 0.915 23.371 0.397 -66.23
1000 0.376 -67.486 0.924 22.093 0.924 22.093 0.376 -67.486
1050 0.357 -68.65 0.931 20.905 0.931 20.905 0.357 -68.65
1100 0.339 -69.734 0.938 19.797 0.938 19.797 0.339 -69.734
1150 0.322 -70.744 0.944 18.761 0.944 18.761 0.322 -70.744
1200 0.306 -71.688 0.949 17.79 0.949 17.79 0.306 -71.688
1250 0.29 -72.573 0.954 16.877 0.954 16.877 0.29 -72.573
1300 0.276 -73.405 0.958 16.017 0.958 16.017 0.276 -73.405
1350 0.262 -74.187 0.962 15.205 0.962 15.205 0.262 -74.187
1400 0.249 -74.924 0.966 14.436 0.966 14.436 0.249 -74.924
1450 0.237 -75.621 0.969 13.706 0.969 13.706 0.237 -75.621
1500 0.225 -76.279 0.972 13.012 0.972 13.012 0.225 -76.279
1550 0.214 -76.903 0.974 12.351 0.974 12.351 0.214 -76.903
1600 0.203 -77.495 0.976 11.72 0.976 11.72 0.203 -77.495
1650 0.193 -78.056 0.978 11.116 0.978 11.116 0.193 -78.056
1700 0.183 -78.589 0.98 10.538 0.98 10.538 0.183 -78.589
1750 0.173 -79.096 0.982 9.984 0.982 9.984 0.173 -79.096
1800 0.164 -79.577 0.984 9.451 0.984 9.451 0.164 -79.577
1850 0.155 -80.035 0.985 8.939 0.985 8.939 0.155 -80.035
1900 0.147 -80.469 0.986 8.445 0.986 8.445 0.147 -80.469
1950 0.139 -80.881 0.988 7.968 0.988 7.968 0.139 -80.881
2000 0.131 -81.272 0.989 7.507 0.989 7.507 0.131 -81.272
2050 0.123 -81.641 0.99 7.062 0.99 7.062 0.123 -81.641
2100 0.115 -81.989 0.991 6.63 0.991 6.63 0.115 -81.989
2150 0.108 -82.315 0.991 6.212 0.991 6.212 0.108 -82.315
2200 0.101 -82.619 0.992 5.806 0.992 5.806 0.101 -82.619
2250 0.094 -82.899 0.993 5.411 0.993 5.411 0.094 -82.899
2300 0.088 -83.154 0.993 5.027 0.993 5.027 0.088 -83.154
2350 0.081 -83.383 0.994 4.654 0.994 4.654 0.081 -83.383
2400 0.075 -83.581 0.994 4.29 0.994 4.29 0.075 -83.581
2450 0.069 -83.745 0.995 3.935 0.995 3.935 0.069 -83.745
2500 0.063 -83.868 0.995 3.588 0.995 3.588 0.063 -83.868
2550 0.057 -83.942 0.996 3.25 0.996 3.25 0.057 -83.942
2600 0.051 -83.956 0.996 2.919 0.996 2.919 0.051 -83.956
2650 0.045 -83.891 0.996 2.595 0.996 2.595 0.045 -83.891
2700 0.04 -83.721 0.996 2.278 0.996 2.278 0.04 -83.721
2750 0.034 -83.403 0.997 1.967 0.997 1.967 0.034 -83.403
2800 0.029 -82.865 0.997 1.663 0.997 1.663 0.029 -82.865
2850 0.024 -81.976 0.997 1.364 0.997 1.364 0.024 -81.976
2900 0.019 -80.472 0.997 1.071 0.997 1.071 0.019 -80.472
2950 0.014 -77.726 0.997 0.783 0.997 0.783 0.014 -77.726
3000 9.171e-3 -71.855 0.997 0.501 0.997 0.501 9.171e-3 -71.855
3050 4.779e-3 -54.215 0.997 0.223 0.997 0.223 4.779e-3 -54.215
3100 2.917e-3 17.584 0.997 -0.051 0.997 -0.051 2.917e-3 17.584
3150 6.233e-3 63.196 0.997 -0.32 0.997 -0.32 6.233e-3 63.196
3200 0.011 74.174 0.997 -0.585 0.997 -0.585 0.011 74.174
3250 0.015 78.485 0.997 -0.845 0.997 -0.845 0.015 78.485
3300 0.019 80.676 0.997 -1.102 0.997 -1.102 0.019 80.676
3350 0.024 81.944 0.997 -1.356 0.997 -1.356 0.024 81.944
3400 0.028 82.729 0.997 -1.606 0.997 -1.606 0.028 82.729
3450 0.032 83.232 0.997 -1.852 0.997 -1.852 0.032 83.232
3500 0.037 83.557 0.997 -2.096 0.997 -2.096 0.037 83.557
3550 0.041 83.762 0.996 -2.336 0.996 -2.336 0.041 83.762
3600 0.045 83.883 0.996 -2.573 0.996 -2.573 0.045 83.883
3650 0.049 83.944 0.996 -2.807 0.996 -2.807 0.049 83.944
3700 0.053 83.959 0.996 -3.039 0.996 -3.039 0.053 83.959
3750 0.057 83.94 0.996 -3.268 0.996 -3.268 0.057 83.94
3800 0.061 83.894 0.995 -3.494 0.995 -3.494 0.061 83.894
3850 0.065 83.826 0.995 -3.718 0.995 -3.718 0.065 83.826
3900 0.069 83.743 0.995 -3.94 0.995 -3.94 0.069 83.743
3950 0.073 83.645 0.995 -4.159 0.995 -4.159 0.073 83.645
4000 0.076 83.537 0.994 -4.376 0.994 -4.376 0.076 83.537
4050 0.08 83.419 0.994 -4.591 0.994 -4.591 0.08 83.419
4100 0.084 83.294 0.994 -4.803 0.994 -4.803 0.084 83.294
4150 0.087 83.163 0.993 -5.014 0.993 -5.014 0.087 83.163
4200 0.091 83.027 0.993 -5.223 0.993 -5.223 0.091 83.027
4250 0.095 82.886 0.993 -5.43 0.993 -5.43 0.095 82.886
4300 0.098 82.742 0.992 -5.635 0.992 -5.635 0.098 82.742
4350 0.102 82.595 0.992 -5.839 0.992 -5.839 0.102 82.595
4400 0.105 82.445 0.992 -6.04 0.992 -6.04 0.105 82.445
4450 0.109 82.293 0.991 -6.24 0.991 -6.24 0.109 82.293
4500 0.112 82.14 0.991 -6.439 0.991 -6.439 0.112 82.14
4550 0.116 81.985 0.991 -6.635 0.991 -6.635 0.116 81.985
4600 0.119 81.829 0.99 -6.831 0.99 -6.831 0.119 81.829
4650 0.122 81.672 0.99 -7.025 0.99 -7.025 0.122 81.672
4700 0.126 81.514 0.989 -7.217 0.989 -7.217 0.126 81.514
4750 0.129 81.355 0.989 -7.408 0.989 -7.408 0.129 81.355
4800 0.132 81.196 0.988 -7.598 0.988 -7.598 0.132 81.196
4850 0.136 81.037 0.988 -7.786 0.988 -7.786 0.136 81.037
4900 0.139 80.877 0.988 -7.973 0.988 -7.973 0.139 80.877
4950 0.142 80.717 0.987 -8.159 0.987 -8.159 0.142 80.717
5000 0.145 80.557 0.987 -8.344 0.987 -8.344 0.145 80.557
5050 0.148 80.397 0.986 -8.527 0.986 -8.527 0.148 80.397
5100 0.151 80.237 0.986 -8.709 0.986 -8.709 0.151 80.237
5150 0.155 80.077 0.985 -8.89 0.985 -8.89 0.155 80.077
5200 0.158 79.918 0.985 -9.07 0.985 -9.07 0.158 79.918
5250 0.161 79.758 0.984 -9.249 0.984 -9.249 0.161 79.758
5300 0.164 79.599 0.984 -9.427 0.984 -9.427 0.164 79.599
5350 0.167 79.44 0.983 -9.604 0.983 -9.604 0.167 79.44
5400 0.17 79.281 0.983 -9.78 0.983 -9.78 0.17 79.281
5450 0.173 79.122 0.982 -9.954 0.982 -9.954 0.173 79.122
5500 0.176 78.964 0.982 -10.128 0.982 -10.128 0.176 78.964
5550 0.179 78.806 0.981 -10.301 0.981 -10.301 0.179 78.806
5600 0.182 78.649 0.981 -10.473 0.981 -10.473 0.182 78.649
5650 0.185 78.492 0.98 -10.644 0.98 -10.644 0.185 78.492
5700 0.188 78.335 0.979 -10.815 0.979 -10.815 0.188 78.335
5750 0.191 78.178 0.979 -10.984 0.979 -10.984 0.191 78.178
5800 0.193 78.022 0.978 -11.152 0.978 -11.152 0.193 78.022
5850 0.196 77.867 0.978 -11.32 0.978 -11.32 0.196 77.867
5900 0.199 77.712 0.977 -11.487 0.977 -11.487 0.199 77.712
5950 0.202 77.557 0.977 -11.653 0.977 -11.653 0.202 77.557
6000 0.205 77.403 0.976 -11.818 0.976 -11.818 0.205 77.403
6050 0.208 77.249 0.975 -11.982 0.975 -11.982 0.208 77.249
6100 0.21 77.095 0.975 -12.146 0.975 -12.146 0.21 77.095
6150 0.213 76.942 0.974 -12.309 0.974 -12.309 0.213 76.942
6200 0.216 76.79 0.974 -12.471 0.974 -12.471 0.216 76.79
6250 0.219 76.637 0.973 -12.633 0.973 -12.633 0.219 76.637
6300 0.221 76.486 0.972 -12.794 0.972 -12.794 0.221 76.486
6350 0.224 76.334 0.972 -12.954 0.972 -12.954 0.224 76.334
6400 0.227 76.183 0.971 -13.113 0.971 -13.113 0.227 76.183
6450 0.23 76.033 0.971 -13.272 0.971 -13.272 0.23 76.033
6500 0.232 75.883 0.97 -13.43 0.97 -13.43 0.232 75.883
6550 0.235 75.733 0.969 -13.587 0.969 -13.587 0.235 75.733
6600 0.238 75.584 0.969 -13.744 0.969 -13.744 0.238 75.584
6650 0.24 75.436 0.968 -13.9 0.968 -13.9 0.24 75.436
6700 0.243 75.287 0.967 -14.055 0.967 -14.055 0.243 75.287
6750 0.245 75.14 0.967 -14.21 0.967 -14.21 0.245 75.14
6800 0.248 74.992 0.966 -14.365 0.966 -14.365 0.248 74.992
6850 0.251 74.845 0.965 -14.518 0.965 -14.518 0.251 74.845
6900 0.253 74.699 0.965 -14.671 0.965 -14.671 0.253 74.699
6950 0.256 74.553 0.964 -14.824 0.964 -14.824 0.256 74.553
7000 0.258 74.407 0.963 -14.976 0.963 -14.976 0.258 74.407
7050 0.261 74.262 0.963 -15.127 0.963 -15.127 0.261 74.262
7100 0.264 74.117 0.962 -15.278 0.962 -15.278 0.264 74.117
7150 0.266 73.972 0.961 -15.428 0.961 -15.428 0.266 73.972
7200 0.269 73.828 0.96 -15.578 0.96 -15.578 0.269 73.828
7250 0.271 73.685 0.96 -15.727 0.96 -15.727 0.271 73.685
7300 0.274 73.542 0.959 -15.875 0.959 -15.875 0.274 73.542
7350 0.276 73.399 0.958 -16.023 0.958 -16.023 0.276 73.399
7400 0.279 73.256 0.958 -16.171 0.958 -16.171 0.279 73.256
7450 0.281 73.114 0.957 -16.318 0.957 -16.318 0.281 73.114
7500 0.283 72.973 0.956 -16.465 0.956 -16.465 0.283 72.973
7550 0.286 72.832 0.955 -16.611 0.955 -16.611 0.286 72.832
7600 0.288 72.691 0.955 -16.756 0.955 -16.756 0.288 72.691
7650 0.291 72.551 0.954 -16.901 0.954 -16.901 0.291 72.551
7700 0.293 72.411 0.953 -17.046 0.953 -17.046 0.293 72.411
7750 0.296 72.271 0.953 -17.19 0.953 -17.19 0.296 72.271
7800 0.298 72.132 0.952 -17.333 0.952 -17.333 0.298 72.132
7850 0.3 71.993 0.951 -17.476 0.951 -17.476 0.3 71.993
7900 0.303 71.855 0.95 -17.619 0.95 -17.619 0.303 71.855
7950 0.305 71.717 0.95 -17.761 0.95 -17.761 0.305 71.717
8000 0.307 71.579 0.949 -17.903 0.949 -17.903 0.307 71.579
8050 0.31 71.442 0.948 -18.044 0.948 -18.044 0.31 71.442
8100 0.312 71.305 0.947 -18.185 0.947 -18.185 0.312 71.305
8150 0.314 71.168 0.947 -18.325 0.947 -18.325 0.314 71.168
8200 0.317 71.032 0.946 -18.465 0.946 -18.465 0.317 71.032
8250 0.319 70.896 0.945 -18.605 0.945 -18.605 0.319 70.896
8300 0.321 70.761 0.944 -18.744 0.944 -18.744 0.321 70.761
8350 0.324 70.626 0.943 -18.882 0.943 -18.882 0.324 70.626
8400 0.326 70.491 0.943 -19.02 0.943 -19.02 0.326 70.491
8450 0.328 70.357 0.942 -19.158 0.942 -19.158 0.328 70.357
8500 0.33 70.223 0.941 -19.295 0.941 -19.295 0.33 70.223
8550 0.333 70.09 0.94 -19.432 0.94 -19.432 0.333 70.09
8600 0.335 69.956 0.939 -19.569 0.939 -19.569 0.335 69.956
8650 0.337 69.823 0.939 -19.705 0.939 -19.705 0.337 69.823
8700 0.339 69.691 0.938 -19.84 0.938 -19.84 0.339 69.691
8750 0.342 69.559 0.937 -19.976 0.937 -19.976 0.342 69.559
8800 0.344 69.427 0.936 -20.111 0.936 -20.111 0.344 69.427
8850 0.346 69.296 0.935 -20.245 0.935 -20.245 0.346 69.296
8900 0.348 69.165 0.935 -20.379 0.935 -20.379 0.348 69.165
8950 0.35 69.034 0.934 -20.513 0.934 -20.513 0.35 69.034
9000 0.353 68.903 0.933 -20.646 0.933 -20.646 0.353 68.903
9050 0.355 68.773 0.932 -20.779 0.932 -20.779 0.355 68.773
9100 0.357 68.644 0.931 -20.911 0.931 -20.911 0.357 68.644
9150 0.359 68.514 0.931 -21.043 0.931 -21.043 0.359 68.514
9200 0.361 68.385 0.93 -21.175 0.93 -21.175 0.361 68.385
9250 0.363 68.257 0.929 -21.307 0.929 -21.307 0.363 68.257
9300 0.365 68.128 0.928 -21.437 0.928 -21.437 0.365 68.128
9350 0.368 68 0.927 -21.568 0.927 -21.568 0.368 68
9400 0.37 67.873 0.926 -21.698 0.926 -21.698 0.37 67.873
9450 0.372 67.745 0.926 -21.828 0.926 -21.828 0.372 67.745
9500 0.374 67.618 0.925 -21.958 0.925 -21.958 0.374 67.618
9550 0.376 67.492 0.924 -22.087 0.924 -22.087 0.376 67.492
9600 0.378 67.365 0.923 -22.215 0.923 -22.215 0.378 67.365
9650 0.38 67.239 0.922 -22.344 0.922 -22.344 0.38 67.239
9700 0.382 67.114 0.921 -22.472 0.921 -22.472 0.382 67.114
9750 0.384 66.988 0.92 -22.6 0.92 -22.6 0.384 66.988
9800 0.386 66.863 0.92 -22.727 0.92 -22.727 0.386 66.863
9850 0.388 66.738 0.919 -22.854 0.919 -22.854 0.388 66.738
9900 0.39 66.614 0.918 -22.98 0.918 -22.98 0.39 66.614
9950 0.392 66.49 0.917 -23.107 0.917 -23.107 0.392 66.49
10000 0.394 66.366 0.916 -23.233 0.916 -23.233 0.394 66.366
10050 0.396 66.243 0.915 -23.358 0.915 -23.358 0.396 66.243
10100 0.398 66.12 0.914 -23.483 0.914 -23.483 0.398 66.12
10150 0.4 65.997 0.914 -23.608 0.914 -23.608 0.4 65.997
10200 0.402 65.874 0.913 -23.733 0.913 -23.733 0.402 65.874
10250 0.404 65.752 0.912 -23.857 0.912 -23.857 0.404 65.752
10300 0.406 65.63 0.911 -23.981 0.911 -23.981 0.406 65.63
10350 0.408 65.509 0.91 -24.104 0.91 -24.104 0.408 65.509
10400 0.41 65.388 0.909 -24.227 0.909 -24.227 0.41 65.388
10450 0.412 65.267 0.908 -24.35 0.908 -24.35 0.412 65.267
10500 0.414 65.146 0.907 -24.473 0.907 -24.473 0.414 65.146
10550 0.416 65.026 0.907 -24.595 0.907 -24.595 0.416 65.026
10600 0.418 64.906 0.906 -24.717 0.906 -24.717 0.418 64.906
10650 0.42 64.786 0.905 -24.838 0.905 -24.838 0.42 64.786
10700 0.422 64.667 0.904 -24.96 0.904 -24.96 0.422 64.667
10750 0.424 64.548 0.903 -25.08 0.903 -25.08 0.424 64.548
10800 0.426 64.429 0.902 -25.201 0.902 -25.201 0.426 64.429
10850 0.428 64.31 0.901 -25.321 0.901 -25.321 0.428 64.31
10900 0.43 64.192 0.9 -25.441 0.9 -25.441 0.43 64.192
10950 0.431 64.074 0.899 -25.561 0.899 -25.561 0.431 64.074
11000 0.433 63.957 0.898 -25.68 0.898 -25.68 0.433 63.957
11050 0.435 63.84 0.898 -25.799 0.898 -25.799 0.435 63.84
11100 0.437 63.723 0.897 -25.917 0.897 -25.917 0.437 63.723
11150 0.439 63.606 0.896 -26.036 0.896 -26.036 0.439 63.606
11200 0.441 63.489 0.895 -26.154 0.895 -26.154 0.441 63.489
11250 0.443 63.373 0.894 -26.271 0.894 -26.271 0.443 63.373
11300 0.444 63.258 0.893 -26.389 0.893 -26.389 0.444 63.258
11350 0.446 63.142 0.892 -26.506 0.892 -26.506 0.446 63.142
11400 0.448 63.027 0.891 -26.623 0.891 -26.623 0.448 63.027
11450 0.45 62.912 0.89 -26.739 0.89 -26.739 0.45 62.912
11500 0.452 62.797 0.889 -26.855 0.889 -26.855 0.452 62.797
11550 0.454 62.683 0.888 -26.971 0.888 -26.971 0.454 62.683
11600 0.455 62.569 0.888 -27.087 0.888 -27.087 0.455 62.569
11650 0.457 62.455 0.887 -27.202 0.887 -27.202 0.457 62.455
11700 0.459 62.342 0.886 -27.317 0.886 -27.317 0.459 62.342
11750 0.461 62.229 0.885 -27.431 0.885 -27.431 0.461 62.229
11800 0.462 62.116 0.884 -27.546 0.884 -27.546 0.462 62.116
11850 0.464 62.003 0.883 -27.66 0.883 -27.66 0.464 62.003
11900 0.466 61.891 0.882 -27.773 0.882 -27.773 0.466 61.891
11950 0.468 61.779 0.881 -27.887 0.881 -27.887 0.468 61.779
12000 0.469 61.667 0.88 -28 0.88 -28 0.469 61.667
12050 0.471 61.555 0.879 -28.113 0.879 -28.113 0.471 61.555
12100 0.473 61.444 0.878 -28.225 0.878 -28.225 0.473 61.444
12150 0.475 61.333 0.877 -28.337 0.877 -28.337 0.475 61.333
12200 0.476 61.223 0.877 -28.449 0.877 -28.449 0.476 61.223
12250 0.478 61.112 0.876 -28.561 0.876 -28.561 0.478 61.112
12300 0.48 61.002 0.875 -28.672 0.875 -28.672 0.48 61.002
12350 0.482 60.892 0.874 -28.783 0.874 -28.783 0.482 60.892
12400 0.483 60.783 0.873 -28.894 0.873 -28.894 0.483 60.783
12450 0.485 60.674 0.872 -29.005 0.872 -29.005 0.485 60.674
12500 0.487 60.565 0.871 -29.115 0.871 -29.115 0.487 60.565
12550 0.488 60.456 0.87 -29.225 0.87 -29.225 0.488 60.456
12600 0.49 60.348 0.869 -29.334 0.869 -29.334 0.49 60.348
12650 0.492 60.239 0.868 -29.444 0.868 -29.444 0.492 60.239
12700 0.493 60.132 0.867 -29.553 0.867 -29.553 0.493 60.132
12750 0.495 60.024 0.866 -29.662 0.866 -29.662 0.495 60.024
12800 0.497 59.917 0.865 -29.77 0.865 -29.77 0.497 59.917
12850 0.498 59.81 0.864 -29.878 0.864 -29.878 0.498 59.81
12900 0.5 59.703 0.863 -29.986 0.863 -29.986 0.5 59.703
12950 0.501 59.596 0.862 -30.094 0.862 -30.094 0.501 59.596
13000 0.503 59.49 0.862 -30.201 0.862 -30.201 0.503 59.49
13050 0.505 59.384 0.861 -30.308 0.861 -30.308 0.505 59.384
13100 0.506 59.278 0.86 -30.415 0.86 -30.415 0.506 59.278
13150 0.508 59.173 0.859 -30.522 0.859 -30.522 0.508 59.173
13200 0.509 59.068 0.858 -30.628 0.858 -30.628 0.509 59.068
13250 0.511 58.963 0.857 -30.734 0.857 -30.734 0.511 58.963
13300 0.513 58.858 0.856 -30.84 0.856 -30.84 0.513 58.858
13350 0.514 58.754 0.855 -30.945 0.855 -30.945 0.514 58.754
13400 0.516 58.65 0.854 -31.05 0.854 -31.05 0.516 58.65
13450 0.517 58.546 0.853 -31.155 0.853 -31.155 0.517 58.546
13500 0.519 58.442 0.852 -31.26 0.852 -31.26 0.519 58.442
13550 0.52 58.339 0.851 -31.364 0.851 -31.364 0.52 58.339
13600 0.522 58.236 0.85 -31.468 0.85 -31.468 0.522 58.236
13650 0.524 58.133 0.849 -31.572 0.849 -31.572 0.524 58.133
13700 0.525 58.03 0.848 -31.676 0.848 -31.676 0.525 58.03
13750 0.527 57.928 0.847 -31.779 0.847 -31.779 0.527 57.928
13800 0.528 57.826 0.846 -31.882 0.846 -31.882 0.528 57.826
13850 0.53 57.724 0.845 -31.985 0.845 -31.985 0.53 57.724
13900 0.531 57.623 0.845 -32.087 0.845 -32.087 0.531 57.623
13950 0.533 57.521 0.844 -32.189 0.844 -32.189 0.533 57.521
14000 0.534 57.42 0.843 -32.291 0.843 -32.291 0.534 57.42
14050 0.536 57.32 0.842 -32.393 0.842 -32.393 0.536 57.32
14100 0.537 57.219 0.841 -32.494 0.841 -32.494 0.537 57.219
14150 0.539 57.119 0.84 -32.596 0.84 -32.596 0.539 57.119
14200 0.54 57.019 0.839 -32.696 0.839 -32.696 0.54 57.019
14250 0.542 56.919 0.838 -32.797 0.838 -32.797 0.542 56.919
14300 0.543 56.82 0.837 -32.897 0.837 -32.897 0.543 56.82
14350 0.545 56.72 0.836 -32.998 0.836 -32.998 0.545 56.72
14400 0.546 56.621 0.835 -33.097 0.835 -33.097 0.546 56.621
14450 0.548 56.523 0.834 -33.197 0.834 -33.197 0.548 56.523
14500 0.549 56.424 0.833 -33.296 0.833 -33.296 0.549 56.424
14550 0.55 56.326 0.832 -33.395 0.832 -33.395 0.55 56.326
14600 0.552 56.228 0.831 -33.494 0.831 -33.494 0.552 56.228
14650 0.553 56.13 0.83 -33.593 0.83 -33.593 0.553 56.13
14700 0.555 56.033 0.829 -33.691 0.829 -33.691 0.555 56.033
14750 0.556 55.935 0.828 -33.789 0.828 -33.789 0.556 55.935
14800 0.558 55.838 0.827 -33.887 0.827 -33.887 0.558 55.838
14850 0.559 55.742 0.827 -33.985 0.827 -33.985 0.559 55.742
14900 0.56 55.645 0.826 -34.082 0.826 -34.082 0.56 55.645
14950 0.562 55.549 0.825 -34.179 0.825 -34.179 0.562 55.549
15000 0.563 55.453 0.824 -34.276 0.824 -34.276 0.563 55.453
15050 0.565 55.357 0.823 -34.373 0.823 -34.373 0.565 55.357
15100 0.566 55.261 0.822 -34.469 0.822 -34.469 0.566 55.261
15150 0.567 55.166 0.821 -34.565 0.821 -34.565 0.567 55.166
15200 0.569 55.071 0.82 -34.661 0.82 -34.661 0.569 55.071
15250 0.57 54.976 0.819 -34.756 0.819 -34.756 0.57 54.976
15300 0.571 54.882 0.818 -34.852 0.818 -34.852 0.571 54.882
15350 0.573 54.787 0.817 -34.947 0.817 -34.947 0.573 54.787
15400 0.574 54.693 0.816 -35.042 0.816 -35.042 0.574 54.693
15450 0.576 54.599 0.815 -35.136 0.815 -35.136 0.576 54.599
15500 0.577 54.506 0.814 -35.231 0.814 -35.231 0.577 54.506
15550 0.578 54.412 0.813 -35.325 0.813 -35.325 0.578 54.412
15600 0.58 54.319 0.812 -35.419 0.812 -35.419 0.58 54.319
15650 0.581 54.226 0.811 -35.512 0.811 -35.512 0.581 54.226
15700 0.582 54.134 0.81 -35.606 0.81 -35.606 0.582 54.134
15750 0.584 54.041 0.809 -35.699 0.809 -35.699 0.584 54.041
15800 0.585 53.949 0.809 -35.792 0.809 -35.792 0.585 53.949
15850 0.586 53.857 0.808 -35.884 0.808 -35.884 0.586 53.857
15900 0.587 53.765 0.807 -35.977 0.807 -35.977 0.587 53.765
15950 0.589 53.674 0.806 -36.069 0.806 -36.069 0.589 53.674
16000 0.59 53.582 0.805 -36.161 0.805 -36.161 0.59 53.582
16050 0.591 53.491 0.804 -36.253 0.804 -36.253 0.591 53.491
16100 0.593 53.401 0.803 -36.344 0.803 -36.344 0.593 53.401
16150 0.594 53.31 0.802 -36.436 0.802 -36.436 0.594 53.31
16200 0.595 53.22 0.801 -36.527 0.801 -36.527 0.595 53.22
16250 0.596 53.129 0.8 -36.617 0.8 -36.617 0.596 53.129
16300 0.598 53.04 0.799 -36.708 0.799 -36.708 0.598 53.04
16350 0.599 52.95 0.798 -36.798 0.798 -36.798 0.599 52.95
16400 0.6 52.86 0.797 -36.888 0.797 -36.888 0.6 52.86
16450 0.602 52.771 0.796 -36.978 0.796 -36.978 0.602 52.771
16500 0.603 52.682 0.795 -37.068 0.795 -37.068 0.603 52.682
16550 0.604 52.594 0.794 -37.157 0.794 -37.157 0.604 52.594
16600 0.605 52.505 0.793 -37.246 0.793 -37.246 0.605 52.505
16650 0.606 52.417 0.792 -37.335 0.792 -37.335 0.606 52.417
16700 0.608 52.329 0.792 -37.424 0.792 -37.424 0.608 52.329
16750 0.609 52.241 0.791 -37.512 0.791 -37.512 0.609 52.241
16800 0.61 52.153 0.79 -37.601 0.79 -37.601 0.61 52.153
16850 0.611 52.066 0.789 -37.689 0.789 -37.689 0.611 52.066
16900 0.613 51.978 0.788 -37.777 0.788 -37.777 0.613 51.978
16950 0.614 51.891 0.787 -37.864 0.787 -37.864 0.614 51.891
