! AVX Thin Film Operation		Date: April 2012 
! Description: Accu-P® Series, Thin Film, SMD, RF Capacitor
! Part Number: 08053K470FBTTR					
!	100	MHz	-	10.05	GHz			
!	Serial	Measurements						
!								
#	MHZ	S	MA	R	50			
!	S11	S21	S12	S22				
!	dB	Phase	dB	Phase	dB	Phase	dB	Phase
100	0.316	-71.412	0.948	18.434	0.948	18.434	0.316	-71.412
102.469	0.309	-71.835	0.95	18.006	0.95	18.006	0.309	-71.835
104.939	0.302	-72.241	0.952	17.596	0.952	17.596	0.302	-72.241
107.408	0.296	-72.631	0.954	17.203	0.954	17.203	0.296	-72.631
109.878	0.289	-73.004	0.956	16.825	0.956	16.825	0.289	-73.004
112.347	0.283	-73.363	0.958	16.463	0.958	16.463	0.283	-73.363
114.817	0.278	-73.707	0.96	16.115	0.96	16.115	0.278	-73.707
117.286	0.272	-74.038	0.961	15.779	0.961	15.779	0.272	-74.038
119.756	0.267	-74.357	0.963	15.457	0.963	15.457	0.267	-74.357
122.225	0.261	-74.664	0.964	15.146	0.964	15.146	0.261	-74.664
124.694	0.256	-74.959	0.966	14.846	0.966	14.846	0.256	-74.959
127.164	0.251	-75.244	0.967	14.557	0.967	14.557	0.251	-75.244
129.633	0.247	-75.519	0.968	14.278	0.968	14.278	0.247	-75.519
132.103	0.242	-75.785	0.969	14.009	0.969	14.009	0.242	-75.785
134.572	0.238	-76.041	0.97	13.748	0.97	13.748	0.238	-76.041
137.042	0.233	-76.289	0.972	13.496	0.972	13.496	0.233	-76.289
139.511	0.229	-76.529	0.972	13.253	0.972	13.253	0.229	-76.529
141.981	0.225	-76.76	0.973	13.017	0.973	13.017	0.225	-76.76
144.45	0.221	-76.985	0.974	12.788	0.974	12.788	0.221	-76.985
146.919	0.218	-77.202	0.975	12.567	0.975	12.567	0.218	-77.202
149.389	0.214	-77.413	0.976	12.352	0.976	12.352	0.214	-77.413
151.858	0.21	-77.617	0.977	12.144	0.977	12.144	0.21	-77.617
154.328	0.207	-77.815	0.977	11.942	0.977	11.942	0.207	-77.815
156.797	0.204	-78.007	0.978	11.745	0.978	11.745	0.204	-78.007
159.267	0.2	-78.193	0.979	11.555	0.979	11.555	0.2	-78.193
161.736	0.197	-78.374	0.979	11.369	0.979	11.369	0.197	-78.374
164.206	0.194	-78.55	0.98	11.189	0.98	11.189	0.194	-78.55
166.675	0.191	-78.721	0.981	11.014	0.981	11.014	0.191	-78.721
169.144	0.188	-78.888	0.981	10.843	0.981	10.843	0.188	-78.888
171.614	0.185	-79.049	0.982	10.677	0.982	10.677	0.185	-79.049
174.083	0.183	-79.207	0.982	10.516	0.982	10.516	0.183	-79.207
176.553	0.18	-79.36	0.983	10.358	0.983	10.358	0.18	-79.36
179.022	0.177	-79.509	0.983	10.205	0.983	10.205	0.177	-79.509
181.492	0.175	-79.654	0.984	10.055	0.984	10.055	0.175	-79.654
183.961	0.172	-79.796	0.984	9.909	0.984	9.909	0.172	-79.796
186.431	0.17	-79.934	0.985	9.767	0.985	9.767	0.17	-79.934
188.9	0.167	-80.068	0.985	9.628	0.985	9.628	0.167	-80.068
191.369	0.165	-80.2	0.985	9.492	0.985	9.492	0.165	-80.2
193.839	0.163	-80.328	0.986	9.36	0.986	9.36	0.163	-80.328
196.308	0.16	-80.453	0.986	9.23	0.986	9.23	0.16	-80.453
198.778	0.158	-80.575	0.987	9.104	0.987	9.104	0.158	-80.575
201.247	0.156	-80.694	0.987	8.98	0.987	8.98	0.156	-80.694
203.717	0.154	-80.81	0.987	8.859	0.987	8.859	0.154	-80.81
206.186	0.152	-80.924	0.987	8.741	0.987	8.741	0.152	-80.924
208.656	0.15	-81.035	0.988	8.625	0.988	8.625	0.15	-81.035
211.125	0.148	-81.143	0.988	8.512	0.988	8.512	0.148	-81.143
213.594	0.146	-81.25	0.988	8.401	0.988	8.401	0.146	-81.25
216.064	0.144	-81.354	0.989	8.293	0.989	8.293	0.144	-81.354
218.533	0.142	-81.455	0.989	8.187	0.989	8.187	0.142	-81.455
221.003	0.141	-81.555	0.989	8.083	0.989	8.083	0.141	-81.555
223.472	0.139	-81.652	0.989	7.981	0.989	7.981	0.139	-81.652
225.942	0.137	-81.747	0.99	7.881	0.99	7.881	0.137	-81.747
228.411	0.135	-81.84	0.99	7.783	0.99	7.783	0.135	-81.84
230.881	0.134	-81.932	0.99	7.687	0.99	7.687	0.134	-81.932
233.35	0.132	-82.021	0.99	7.592	0.99	7.592	0.132	-82.021
235.819	0.131	-82.109	0.991	7.5	0.991	7.5	0.131	-82.109
238.289	0.129	-82.195	0.991	7.409	0.991	7.409	0.129	-82.195
240.758	0.127	-82.279	0.991	7.32	0.991	7.32	0.127	-82.279
243.228	0.126	-82.361	0.991	7.233	0.991	7.233	0.126	-82.361
245.697	0.124	-82.442	0.991	7.147	0.991	7.147	0.124	-82.442
248.167	0.123	-82.521	0.992	7.063	0.992	7.063	0.123	-82.521
250.636	0.122	-82.599	0.992	6.98	0.992	6.98	0.122	-82.599
253.106	0.12	-82.676	0.992	6.898	0.992	6.898	0.12	-82.676
255.575	0.119	-82.751	0.992	6.819	0.992	6.819	0.119	-82.751
258.044	0.117	-82.824	0.992	6.74	0.992	6.74	0.117	-82.824
260.514	0.116	-82.896	0.992	6.663	0.992	6.663	0.116	-82.896
262.983	0.115	-82.967	0.993	6.587	0.993	6.587	0.115	-82.967
265.453	0.113	-83.036	0.993	6.512	0.993	6.512	0.113	-83.036
267.922	0.112	-83.105	0.993	6.439	0.993	6.439	0.112	-83.105
270.392	0.111	-83.172	0.993	6.366	0.993	6.366	0.111	-83.172
272.861	0.11	-83.238	0.993	6.295	0.993	6.295	0.11	-83.238
275.331	0.108	-83.302	0.993	6.225	0.993	6.225	0.108	-83.302
277.8	0.107	-83.366	0.993	6.157	0.993	6.157	0.107	-83.366
280.269	0.106	-83.428	0.993	6.089	0.993	6.089	0.106	-83.428
282.739	0.105	-83.49	0.994	6.022	0.994	6.022	0.105	-83.49
285.208	0.104	-83.55	0.994	5.956	0.994	5.956	0.104	-83.55
287.678	0.103	-83.609	0.994	5.892	0.994	5.892	0.103	-83.609
290.147	0.102	-83.667	0.994	5.828	0.994	5.828	0.102	-83.667
292.617	0.1	-83.725	0.994	5.765	0.994	5.765	0.1	-83.725
295.086	0.099	-83.781	0.994	5.703	0.994	5.703	0.099	-83.781
297.556	0.098	-83.836	0.994	5.642	0.994	5.642	0.098	-83.836
300.025	0.097	-83.891	0.994	5.582	0.994	5.582	0.097	-83.891
302.494	0.096	-83.944	0.994	5.523	0.994	5.523	0.096	-83.944
304.964	0.095	-83.997	0.995	5.464	0.995	5.464	0.095	-83.997
307.433	0.094	-84.049	0.995	5.407	0.995	5.407	0.094	-84.049
309.903	0.093	-84.1	0.995	5.35	0.995	5.35	0.093	-84.1
312.372	0.092	-84.15	0.995	5.294	0.995	5.294	0.092	-84.15
314.842	0.091	-84.2	0.995	5.238	0.995	5.238	0.091	-84.2
317.311	0.09	-84.248	0.995	5.184	0.995	5.184	0.09	-84.248
319.78	0.089	-84.296	0.995	5.13	0.995	5.13	0.089	-84.296
322.25	0.088	-84.343	0.995	5.077	0.995	5.077	0.088	-84.343
324.719	0.088	-84.389	0.995	5.024	0.995	5.024	0.088	-84.389
327.189	0.087	-84.435	0.995	4.973	0.995	4.973	0.087	-84.435
329.658	0.086	-84.48	0.995	4.922	0.995	4.922	0.086	-84.48
332.128	0.085	-84.524	0.995	4.871	0.995	4.871	0.085	-84.524
334.597	0.084	-84.568	0.996	4.821	0.996	4.821	0.084	-84.568
337.067	0.083	-84.611	0.996	4.772	0.996	4.772	0.083	-84.611
339.536	0.082	-84.653	0.996	4.724	0.996	4.724	0.082	-84.653
342.005	0.082	-84.694	0.996	4.676	0.996	4.676	0.082	-84.694
344.475	0.081	-84.735	0.996	4.628	0.996	4.628	0.081	-84.735
346.944	0.08	-84.776	0.996	4.581	0.996	4.581	0.08	-84.776
349.414	0.079	-84.815	0.996	4.535	0.996	4.535	0.079	-84.815
351.883	0.078	-84.854	0.996	4.489	0.996	4.489	0.078	-84.854
354.353	0.077	-84.893	0.996	4.444	0.996	4.444	0.077	-84.893
356.822	0.077	-84.931	0.996	4.399	0.996	4.399	0.077	-84.931
359.292	0.076	-84.968	0.996	4.355	0.996	4.355	0.076	-84.968
361.761	0.075	-85.005	0.996	4.312	0.996	4.312	0.075	-85.005
364.23	0.074	-85.041	0.996	4.268	0.996	4.268	0.074	-85.041
366.7	0.074	-85.077	0.996	4.226	0.996	4.226	0.074	-85.077
369.169	0.073	-85.112	0.996	4.184	0.996	4.184	0.073	-85.112
371.639	0.072	-85.147	0.996	4.142	0.996	4.142	0.072	-85.147
374.108	0.072	-85.181	0.997	4.1	0.997	4.1	0.072	-85.181
376.578	0.071	-85.214	0.997	4.06	0.997	4.06	0.071	-85.214
379.047	0.07	-85.248	0.997	4.019	0.997	4.019	0.07	-85.248
381.517	0.069	-85.28	0.997	3.979	0.997	3.979	0.069	-85.28
383.986	0.069	-85.312	0.997	3.94	0.997	3.94	0.069	-85.312
386.455	0.068	-85.344	0.997	3.9	0.997	3.9	0.068	-85.344
388.925	0.067	-85.375	0.997	3.862	0.997	3.862	0.067	-85.375
391.394	0.067	-85.406	0.997	3.823	0.997	3.823	0.067	-85.406
393.864	0.066	-85.436	0.997	3.785	0.997	3.785	0.066	-85.436
396.333	0.065	-85.466	0.997	3.748	0.997	3.748	0.065	-85.466
398.803	0.065	-85.495	0.997	3.711	0.997	3.711	0.065	-85.495
401.272	0.064	-85.524	0.997	3.674	0.997	3.674	0.064	-85.524
403.742	0.063	-85.552	0.997	3.637	0.997	3.637	0.063	-85.552
406.211	0.063	-85.58	0.997	3.601	0.997	3.601	0.063	-85.58
408.68	0.062	-85.608	0.997	3.565	0.997	3.565	0.062	-85.608
411.15	0.062	-85.635	0.997	3.53	0.997	3.53	0.062	-85.635
413.619	0.061	-85.662	0.997	3.495	0.997	3.495	0.061	-85.662
416.089	0.06	-85.688	0.997	3.46	0.997	3.46	0.06	-85.688
418.558	0.06	-85.714	0.997	3.426	0.997	3.426	0.06	-85.714
421.028	0.059	-85.739	0.997	3.391	0.997	3.391	0.059	-85.739
423.497	0.059	-85.764	0.997	3.358	0.997	3.358	0.059	-85.764
425.967	0.058	-85.789	0.997	3.324	0.997	3.324	0.058	-85.789
428.436	0.057	-85.813	0.997	3.291	0.997	3.291	0.057	-85.813
430.905	0.057	-85.837	0.997	3.258	0.997	3.258	0.057	-85.837
433.375	0.056	-85.86	0.998	3.225	0.998	3.225	0.056	-85.86
435.844	0.056	-85.883	0.998	3.193	0.998	3.193	0.056	-85.883
438.314	0.055	-85.906	0.998	3.161	0.998	3.161	0.055	-85.906
440.783	0.055	-85.928	0.998	3.129	0.998	3.129	0.055	-85.928
443.253	0.054	-85.95	0.998	3.098	0.998	3.098	0.054	-85.95
445.722	0.054	-85.972	0.998	3.066	0.998	3.066	0.054	-85.972
448.192	0.053	-85.993	0.998	3.035	0.998	3.035	0.053	-85.993
450.661	0.052	-86.014	0.998	3.005	0.998	3.005	0.052	-86.014
453.13	0.052	-86.034	0.998	2.974	0.998	2.974	0.052	-86.034
455.6	0.051	-86.054	0.998	2.944	0.998	2.944	0.051	-86.054
458.069	0.051	-86.074	0.998	2.914	0.998	2.914	0.051	-86.074
460.539	0.05	-86.093	0.998	2.884	0.998	2.884	0.05	-86.093
463.008	0.05	-86.112	0.998	2.855	0.998	2.855	0.05	-86.112
465.478	0.049	-86.13	0.998	2.826	0.998	2.826	0.049	-86.13
467.947	0.049	-86.149	0.998	2.797	0.998	2.797	0.049	-86.149
470.417	0.048	-86.166	0.998	2.768	0.998	2.768	0.048	-86.166
472.886	0.048	-86.184	0.998	2.739	0.998	2.739	0.048	-86.184
475.355	0.047	-86.201	0.998	2.711	0.998	2.711	0.047	-86.201
477.825	0.047	-86.218	0.998	2.683	0.998	2.683	0.047	-86.218
480.294	0.046	-86.234	0.998	2.655	0.998	2.655	0.046	-86.234
482.764	0.046	-86.25	0.998	2.628	0.998	2.628	0.046	-86.25
485.233	0.045	-86.265	0.998	2.6	0.998	2.6	0.045	-86.265
487.703	0.045	-86.281	0.998	2.573	0.998	2.573	0.045	-86.281
490.172	0.044	-86.296	0.998	2.546	0.998	2.546	0.044	-86.296
492.642	0.044	-86.31	0.998	2.519	0.998	2.519	0.044	-86.31
495.111	0.043	-86.324	0.998	2.492	0.998	2.492	0.043	-86.324
497.58	0.043	-86.338	0.998	2.466	0.998	2.466	0.043	-86.338
500.05	0.043	-86.351	0.998	2.439	0.998	2.439	0.043	-86.351
502.519	0.042	-86.364	0.998	2.413	0.998	2.413	0.042	-86.364
504.989	0.042	-86.377	0.998	2.387	0.998	2.387	0.042	-86.377
507.458	0.041	-86.389	0.998	2.362	0.998	2.362	0.041	-86.389
509.928	0.041	-86.401	0.998	2.336	0.998	2.336	0.041	-86.401
512.397	0.04	-86.413	0.998	2.311	0.998	2.311	0.04	-86.413
514.867	0.04	-86.424	0.998	2.286	0.998	2.286	0.04	-86.424
517.336	0.039	-86.434	0.998	2.261	0.998	2.261	0.039	-86.434
519.805	0.039	-86.445	0.998	2.236	0.998	2.236	0.039	-86.445
522.275	0.039	-86.455	0.998	2.211	0.998	2.211	0.039	-86.455
524.744	0.038	-86.464	0.998	2.187	0.998	2.187	0.038	-86.464
527.214	0.038	-86.473	0.998	2.162	0.998	2.162	0.038	-86.473
529.683	0.037	-86.482	0.998	2.138	0.998	2.138	0.037	-86.482
532.153	0.037	-86.49	0.998	2.114	0.998	2.114	0.037	-86.49
534.622	0.036	-86.498	0.998	2.09	0.998	2.09	0.036	-86.498
537.092	0.036	-86.506	0.998	2.066	0.998	2.066	0.036	-86.506
539.561	0.036	-86.513	0.998	2.043	0.998	2.043	0.036	-86.513
542.03	0.035	-86.52	0.998	2.019	0.998	2.019	0.035	-86.52
544.5	0.035	-86.526	0.998	1.996	0.998	1.996	0.035	-86.526
546.969	0.034	-86.532	0.999	1.973	0.999	1.973	0.034	-86.532
549.439	0.034	-86.537	0.999	1.95	0.999	1.95	0.034	-86.537
551.908	0.034	-86.542	0.999	1.927	0.999	1.927	0.034	-86.542
554.378	0.033	-86.546	0.999	1.904	0.999	1.904	0.033	-86.546
556.847	0.033	-86.55	0.999	1.882	0.999	1.882	0.033	-86.55
559.317	0.032	-86.554	0.999	1.859	0.999	1.859	0.032	-86.554
561.786	0.032	-86.557	0.999	1.837	0.999	1.837	0.032	-86.557
564.255	0.032	-86.559	0.999	1.815	0.999	1.815	0.032	-86.559
566.725	0.031	-86.562	0.999	1.793	0.999	1.793	0.031	-86.562
569.194	0.031	-86.563	0.999	1.771	0.999	1.771	0.031	-86.563
571.664	0.031	-86.564	0.999	1.749	0.999	1.749	0.031	-86.564
574.133	0.03	-86.565	0.999	1.728	0.999	1.728	0.03	-86.565
576.603	0.03	-86.565	0.999	1.706	0.999	1.706	0.03	-86.565
579.072	0.029	-86.564	0.999	1.685	0.999	1.685	0.029	-86.564
581.542	0.029	-86.563	0.999	1.663	0.999	1.663	0.029	-86.563
584.011	0.029	-86.561	0.999	1.642	0.999	1.642	0.029	-86.561
586.48	0.028	-86.559	0.999	1.621	0.999	1.621	0.028	-86.559
588.95	0.028	-86.556	0.999	1.6	0.999	1.6	0.028	-86.556
591.419	0.028	-86.553	0.999	1.579	0.999	1.579	0.028	-86.553
593.889	0.027	-86.548	0.999	1.559	0.999	1.559	0.027	-86.548
596.358	0.027	-86.544	0.999	1.538	0.999	1.538	0.027	-86.544
598.828	0.026	-86.538	0.999	1.518	0.999	1.518	0.026	-86.538
601.297	0.026	-86.532	0.999	1.497	0.999	1.497	0.026	-86.532
603.767	0.026	-86.525	0.999	1.477	0.999	1.477	0.026	-86.525
606.236	0.025	-86.518	0.999	1.457	0.999	1.457	0.025	-86.518
608.705	0.025	-86.51	0.999	1.437	0.999	1.437	0.025	-86.51
611.175	0.025	-86.501	0.999	1.417	0.999	1.417	0.025	-86.501
613.644	0.024	-86.491	0.999	1.397	0.999	1.397	0.024	-86.491
616.114	0.024	-86.481	0.999	1.377	0.999	1.377	0.024	-86.481
618.583	0.024	-86.469	0.999	1.358	0.999	1.358	0.024	-86.469
621.053	0.023	-86.457	0.999	1.338	0.999	1.338	0.023	-86.457
623.522	0.023	-86.444	0.999	1.319	0.999	1.319	0.023	-86.444
625.992	0.023	-86.43	0.999	1.299	0.999	1.299	0.023	-86.43
628.461	0.022	-86.415	0.999	1.28	0.999	1.28	0.022	-86.415
630.93	0.022	-86.399	0.999	1.261	0.999	1.261	0.022	-86.399
633.4	0.022	-86.383	0.999	1.242	0.999	1.242	0.022	-86.383
635.869	0.021	-86.365	0.999	1.223	0.999	1.223	0.021	-86.365
638.339	0.021	-86.346	0.999	1.204	0.999	1.204	0.021	-86.346
640.808	0.021	-86.326	0.999	1.185	0.999	1.185	0.021	-86.326
643.278	0.02	-86.305	0.999	1.166	0.999	1.166	0.02	-86.305
645.747	0.02	-86.282	0.999	1.148	0.999	1.148	0.02	-86.282
648.217	0.02	-86.259	0.999	1.129	0.999	1.129	0.02	-86.259
650.686	0.019	-86.234	0.999	1.111	0.999	1.111	0.019	-86.234
653.155	0.019	-86.208	0.999	1.093	0.999	1.093	0.019	-86.208
655.625	0.019	-86.18	0.999	1.074	0.999	1.074	0.019	-86.18
658.094	0.018	-86.151	0.999	1.056	0.999	1.056	0.018	-86.151
660.564	0.018	-86.121	0.999	1.038	0.999	1.038	0.018	-86.121
663.033	0.018	-86.089	0.999	1.02	0.999	1.02	0.018	-86.089
665.503	0.018	-86.055	0.999	1.002	0.999	1.002	0.018	-86.055
667.972	0.017	-86.019	0.999	0.984	0.999	0.984	0.017	-86.019
670.442	0.017	-85.982	0.999	0.966	0.999	0.966	0.017	-85.982
672.911	0.017	-85.943	0.999	0.949	0.999	0.949	0.017	-85.943
675.38	0.016	-85.902	0.999	0.931	0.999	0.931	0.016	-85.902
677.85	0.016	-85.859	0.999	0.914	0.999	0.914	0.016	-85.859
680.319	0.016	-85.813	0.999	0.896	0.999	0.896	0.016	-85.813
682.789	0.015	-85.766	0.999	0.879	0.999	0.879	0.015	-85.766
685.258	0.015	-85.716	0.999	0.861	0.999	0.861	0.015	-85.716
687.728	0.015	-85.663	0.999	0.844	0.999	0.844	0.015	-85.663
690.197	0.014	-85.608	0.999	0.827	0.999	0.827	0.014	-85.608
692.667	0.014	-85.55	0.999	0.81	0.999	0.81	0.014	-85.55
695.136	0.014	-85.489	0.999	0.793	0.999	0.793	0.014	-85.489
697.605	0.014	-85.425	0.999	0.776	0.999	0.776	0.014	-85.425
700.075	0.013	-85.358	0.999	0.759	0.999	0.759	0.013	-85.358
702.544	0.013	-85.287	0.999	0.742	0.999	0.742	0.013	-85.287
705.014	0.013	-85.212	0.999	0.725	0.999	0.725	0.013	-85.212
707.483	0.012	-85.134	0.999	0.709	0.999	0.709	0.012	-85.134
709.953	0.012	-85.051	0.999	0.692	0.999	0.692	0.012	-85.051
712.422	0.012	-84.963	0.999	0.676	0.999	0.676	0.012	-84.963
714.891	0.012	-84.871	0.999	0.659	0.999	0.659	0.012	-84.871
717.361	0.011	-84.774	0.999	0.643	0.999	0.643	0.011	-84.774
719.83	0.011	-84.671	0.999	0.626	0.999	0.626	0.011	-84.671
722.3	0.011	-84.562	0.999	0.61	0.999	0.61	0.011	-84.562
724.769	0.01	-84.447	0.999	0.594	0.999	0.594	0.01	-84.447
727.239	0.01	-84.325	0.999	0.578	0.999	0.578	0.01	-84.325
729.708	9.84E-03	-84.196	0.999	0.562	0.999	0.562	9.84E-03	-84.196
732.178	9.56E-03	-84.059	0.999	0.545	0.999	0.545	9.56E-03	-84.059
734.647	9.29E-03	-83.913	0.999	0.53	0.999	0.53	9.29E-03	-83.913
737.116	9.01E-03	-83.758	0.999	0.514	0.999	0.514	9.01E-03	-83.758
739.586	8.73E-03	-83.592	0.999	0.498	0.999	0.498	8.73E-03	-83.592
742.055	8.46E-03	-83.415	0.999	0.482	0.999	0.482	8.46E-03	-83.415
744.525	8.19E-03	-83.227	0.999	0.466	0.999	0.466	8.19E-03	-83.227
746.994	7.91E-03	-83.024	0.999	0.45	0.999	0.45	7.91E-03	-83.024
749.464	7.64E-03	-82.807	0.999	0.435	0.999	0.435	7.64E-03	-82.807
751.933	7.37E-03	-82.574	0.999	0.419	0.999	0.419	7.37E-03	-82.574
754.403	7.10E-03	-82.323	0.999	0.404	0.999	0.404	7.10E-03	-82.323
756.872	6.84E-03	-82.052	0.999	0.388	0.999	0.388	6.84E-03	-82.052
759.341	6.57E-03	-81.759	0.999	0.373	0.999	0.373	6.57E-03	-81.759
761.811	6.30E-03	-81.44	0.999	0.357	0.999	0.357	6.30E-03	-81.44
764.28	6.04E-03	-81.094	0.999	0.342	0.999	0.342	6.04E-03	-81.094
766.75	5.78E-03	-80.716	0.999	0.327	0.999	0.327	5.78E-03	-80.716
769.219	5.51E-03	-80.302	0.999	0.312	0.999	0.312	5.51E-03	-80.302
771.689	5.25E-03	-79.846	0.999	0.297	0.999	0.297	5.25E-03	-79.846
774.158	4.99E-03	-79.343	0.999	0.281	0.999	0.281	4.99E-03	-79.343
776.628	4.74E-03	-78.786	0.999	0.266	0.999	0.266	4.74E-03	-78.786
779.097	4.48E-03	-78.165	0.999	0.251	0.999	0.251	4.48E-03	-78.165
781.566	4.22E-03	-77.469	0.999	0.236	0.999	0.236	4.22E-03	-77.469
784.036	3.97E-03	-76.685	0.999	0.222	0.999	0.222	3.97E-03	-76.685
786.505	3.72E-03	-75.794	0.999	0.207	0.999	0.207	3.72E-03	-75.794
788.975	3.47E-03	-74.776	0.999	0.192	0.999	0.192	3.47E-03	-74.776
791.444	3.22E-03	-73.602	0.999	0.177	0.999	0.177	3.22E-03	-73.602
793.914	2.97E-03	-72.235	0.999	0.162	0.999	0.162	2.97E-03	-72.235
796.383	2.73E-03	-70.626	0.999	0.148	0.999	0.148	2.73E-03	-70.626
798.853	2.49E-03	-68.709	0.999	0.133	0.999	0.133	2.49E-03	-68.709
801.322	2.26E-03	-66.392	0.999	0.119	0.999	0.119	2.26E-03	-66.392
803.791	2.03E-03	-63.549	0.999	0.104	0.999	0.104	2.03E-03	-63.549
806.261	1.80E-03	-59.999	0.999	0.09	0.999	0.09	1.80E-03	-59.999
808.73	1.59E-03	-55.483	0.999	0.075	0.999	0.075	1.59E-03	-55.483
811.2	1.39E-03	-49.634	0.999	0.061	0.999	0.061	1.39E-03	-49.634
813.669	1.21E-03	-41.96	0.999	0.046	0.999	0.046	1.21E-03	-41.96
816.139	1.06E-03	-31.895	0.999	0.032	0.999	0.032	1.06E-03	-31.895
818.608	9.52E-04	-19.091	0.999	0.018	0.999	0.018	9.52E-04	-19.091
821.078	9.02E-04	-4.036	0.999	3.64E-03	0.999	3.64E-03	9.02E-04	-4.036
823.547	9.18E-04	11.539	0.999	-0.011	0.999	-0.011	9.18E-04	11.539
826.016	9.97E-04	25.548	0.999	-0.025	0.999	-0.025	9.97E-04	25.548
828.486	1.13E-03	36.9	0.999	-0.039	0.999	-0.039	1.13E-03	36.9
830.955	1.29E-03	45.638	0.999	-0.053	0.999	-0.053	1.29E-03	45.638
833.425	1.47E-03	52.283	0.999	-0.067	0.999	-0.067	1.47E-03	52.283
835.894	1.67E-03	57.377	0.999	-0.081	0.999	-0.081	1.67E-03	57.377
838.364	1.88E-03	61.347	0.999	-0.095	0.999	-0.095	1.88E-03	61.347
840.833	2.10E-03	64.499	0.999	-0.109	0.999	-0.109	2.10E-03	64.499
843.303	2.32E-03	67.047	0.999	-0.122	0.999	-0.122	2.32E-03	67.047
845.772	2.54E-03	69.14	0.999	-0.136	0.999	-0.136	2.54E-03	69.14
848.241	2.77E-03	70.887	0.999	-0.15	0.999	-0.15	2.77E-03	70.887
850.711	3.00E-03	72.362	0.999	-0.164	0.999	-0.164	3.00E-03	72.362
853.18	3.22E-03	73.623	0.999	-0.177	0.999	-0.177	3.22E-03	73.623
855.65	3.45E-03	74.712	0.999	-0.191	0.999	-0.191	3.45E-03	74.712
858.119	3.68E-03	75.661	0.999	-0.205	0.999	-0.205	3.68E-03	75.661
860.589	3.91E-03	76.495	0.999	-0.218	0.999	-0.218	3.91E-03	76.495
863.058	4.14E-03	77.232	0.999	-0.232	0.999	-0.232	4.14E-03	77.232
865.528	4.37E-03	77.888	0.999	-0.245	0.999	-0.245	4.37E-03	77.888
867.997	4.60E-03	78.476	0.999	-0.259	0.999	-0.259	4.60E-03	78.476
870.466	4.83E-03	79.005	0.999	-0.272	0.999	-0.272	4.83E-03	79.005
872.936	5.06E-03	79.484	0.999	-0.285	0.999	-0.285	5.06E-03	79.484
875.405	5.29E-03	79.919	0.999	-0.299	0.999	-0.299	5.29E-03	79.919
877.875	5.52E-03	80.315	0.999	-0.312	0.999	-0.312	5.52E-03	80.315
880.344	5.75E-03	80.678	0.999	-0.325	0.999	-0.325	5.75E-03	80.678
882.814	5.98E-03	81.011	0.999	-0.339	0.999	-0.339	5.98E-03	81.011
885.283	6.21E-03	81.318	0.999	-0.352	0.999	-0.352	6.21E-03	81.318
887.753	6.44E-03	81.602	0.999	-0.365	0.999	-0.365	6.44E-03	81.602
890.222	6.66E-03	81.865	0.999	-0.378	0.999	-0.378	6.66E-03	81.865
892.691	6.89E-03	82.108	0.999	-0.391	0.999	-0.391	6.89E-03	82.108
895.161	7.12E-03	82.335	0.999	-0.404	0.999	-0.404	7.12E-03	82.335
897.63	7.34E-03	82.547	0.999	-0.417	0.999	-0.417	7.34E-03	82.547
