! AVX Thin Film Operation		Date: April 2012 
! Description: Accu-P® Series, Thin Film, SMD, RF Capacitor
! Part Number: 08051J3R4ABTTR					
!	100	MHz	-	20.05	GHz			
!	Serial	Measurements						
!								
#	MHZ	S	MA	R	50			
!	S11	S21	S12	S22				
!	dB	Phase	dB	Phase	dB	Phase	dB	Phase
50 0.994 -6.098 0.106 83.892 0.106 83.892 0.994 -6.098
74.938 0.987 -9.1 0.158 80.886 0.158 80.886 0.987 -9.1
99.875 0.978 -12.055 0.209 77.926 0.209 77.926 0.978 -12.055
124.813 0.966 -14.951 0.258 75.025 0.258 75.025 0.966 -14.951
149.75 0.952 -17.776 0.305 72.195 0.305 72.195 0.952 -17.776
174.688 0.936 -20.52 0.351 69.447 0.351 69.447 0.936 -20.52
199.625 0.919 -23.176 0.394 66.786 0.394 66.786 0.919 -23.176
224.563 0.9 -25.737 0.434 64.22 0.434 64.22 0.9 -25.737
249.5 0.881 -28.201 0.473 61.751 0.473 61.751 0.881 -28.201
274.438 0.861 -30.564 0.509 59.383 0.509 59.383 0.861 -30.564
299.375 0.84 -32.826 0.542 57.116 0.542 57.116 0.84 -32.826
324.313 0.819 -34.988 0.573 54.949 0.573 54.949 0.819 -34.988
349.25 0.797 -37.051 0.603 52.881 0.603 52.881 0.797 -37.051
374.188 0.776 -39.017 0.63 50.91 0.63 50.91 0.776 -39.017
399.125 0.755 -40.889 0.655 49.033 0.655 49.033 0.755 -40.889
424.063 0.734 -42.671 0.678 47.246 0.678 47.246 0.734 -42.671
449 0.714 -44.367 0.699 45.546 0.699 45.546 0.714 -44.367
473.938 0.694 -45.98 0.719 43.928 0.719 43.928 0.694 -45.98
498.875 0.674 -47.514 0.737 42.388 0.737 42.388 0.674 -47.514
523.813 0.655 -48.973 0.754 40.924 0.754 40.924 0.655 -48.973
548.75 0.636 -50.362 0.77 39.529 0.77 39.529 0.636 -50.362
573.688 0.618 -51.685 0.785 38.202 0.785 38.202 0.618 -51.685
598.625 0.601 -52.944 0.798 36.937 0.798 36.937 0.601 -52.944
623.563 0.584 -54.145 0.811 35.731 0.811 35.731 0.584 -54.145
648.5 0.568 -55.289 0.822 34.581 0.822 34.581 0.568 -55.289
673.438 0.552 -56.381 0.833 33.484 0.833 33.484 0.552 -56.381
698.375 0.536 -57.424 0.843 32.436 0.843 32.436 0.536 -57.424
723.313 0.522 -58.42 0.852 31.434 0.852 31.434 0.522 -58.42
748.25 0.507 -59.372 0.86 30.476 0.86 30.476 0.507 -59.372
773.188 0.493 -60.284 0.868 29.559 0.868 29.559 0.493 -60.284
798.125 0.48 -61.157 0.876 28.68 0.876 28.68 0.48 -61.157
823.063 0.467 -61.993 0.883 27.838 0.883 27.838 0.467 -61.993
848 0.454 -62.795 0.889 27.03 0.889 27.03 0.454 -62.795
872.938 0.442 -63.565 0.895 26.254 0.895 26.254 0.442 -63.565
897.875 0.431 -64.304 0.901 25.509 0.901 25.509 0.431 -64.304
922.813 0.419 -65.015 0.906 24.792 0.906 24.792 0.419 -65.015
947.75 0.408 -65.699 0.911 24.102 0.911 24.102 0.408 -65.699
972.688 0.398 -66.357 0.916 23.437 0.916 23.437 0.398 -66.357
997.625 0.387 -66.991 0.92 22.797 0.92 22.797 0.387 -66.991
1022.563 0.378 -67.602 0.925 22.179 0.925 22.179 0.378 -67.602
1047.5 0.368 -68.192 0.928 21.583 0.928 21.583 0.368 -68.192
1072.438 0.358 -68.761 0.932 21.007 0.932 21.007 0.358 -68.761
1097.375 0.349 -69.31 0.936 20.45 0.936 20.45 0.349 -69.31
1122.313 0.341 -69.842 0.939 19.912 0.939 19.912 0.341 -69.842
1147.25 0.332 -70.356 0.942 19.39 0.942 19.39 0.332 -70.356
1172.188 0.324 -70.853 0.945 18.886 0.945 18.886 0.324 -70.853
1197.125 0.316 -71.335 0.947 18.396 0.947 18.396 0.316 -71.335
1222.063 0.308 -71.802 0.95 17.922 0.95 17.922 0.308 -71.802
1247 0.3 -72.255 0.952 17.462 0.952 17.462 0.3 -72.255
1271.938 0.293 -72.694 0.955 17.015 0.955 17.015 0.293 -72.694
1296.875 0.285 -73.12 0.957 16.58 0.957 16.58 0.285 -73.12
1321.813 0.278 -73.534 0.959 16.158 0.959 16.158 0.278 -73.534
1346.75 0.271 -73.936 0.961 15.748 0.961 15.748 0.271 -73.936
1371.688 0.265 -74.327 0.963 15.348 0.963 15.348 0.265 -74.327
1396.625 0.258 -74.707 0.965 14.959 0.965 14.959 0.258 -74.707
1421.563 0.252 -75.077 0.966 14.58 0.966 14.58 0.252 -75.077
1446.5 0.245 -75.437 0.968 14.21 0.968 14.21 0.245 -75.437
1471.438 0.239 -75.788 0.969 13.85 0.969 13.85 0.239 -75.788
1496.375 0.233 -76.129 0.971 13.499 0.971 13.499 0.233 -76.129
1521.313 0.228 -76.463 0.972 13.156 0.972 13.156 0.228 -76.463
1546.25 0.222 -76.787 0.974 12.821 0.974 12.821 0.222 -76.787
1571.188 0.216 -77.104 0.975 12.493 0.975 12.493 0.216 -77.104
1596.125 0.211 -77.413 0.976 12.173 0.976 12.173 0.211 -77.413
1621.063 0.206 -77.715 0.977 11.86 0.977 11.86 0.206 -77.715
1646 0.2 -78.009 0.978 11.554 0.978 11.554 0.2 -78.009
1670.938 0.195 -78.297 0.979 11.254 0.979 11.254 0.195 -78.297
1695.875 0.19 -78.578 0.98 10.961 0.98 10.961 0.19 -78.578
1720.813 0.185 -78.853 0.981 10.674 0.981 10.674 0.185 -78.853
1745.75 0.18 -79.121 0.982 10.392 0.982 10.392 0.18 -79.121
1770.688 0.176 -79.384 0.983 10.116 0.983 10.116 0.176 -79.384
1795.625 0.171 -79.64 0.984 9.845 0.984 9.845 0.171 -79.64
1820.563 0.166 -79.891 0.985 9.58 0.985 9.58 0.166 -79.891
1845.5 0.162 -80.137 0.985 9.319 0.985 9.319 0.162 -80.137
1870.438 0.158 -80.377 0.986 9.064 0.986 9.064 0.158 -80.377
1895.375 0.153 -80.612 0.987 8.812 0.987 8.812 0.153 -80.612
1920.313 0.149 -80.842 0.987 8.566 0.987 8.566 0.149 -80.842
1945.25 0.145 -81.067 0.988 8.323 0.988 8.323 0.145 -81.067
1970.188 0.141 -81.287 0.989 8.085 0.989 8.085 0.141 -81.287
1995.125 0.137 -81.502 0.989 7.851 0.989 7.851 0.137 -81.502
2020.063 0.133 -81.713 0.99 7.62 0.99 7.62 0.133 -81.713
2045 0.129 -81.919 0.99 7.393 0.99 7.393 0.129 -81.919
2069.938 0.125 -82.12 0.991 7.17 0.991 7.17 0.125 -82.12
2094.875 0.121 -82.317 0.991 6.951 0.991 6.951 0.121 -82.317
2119.813 0.117 -82.51 0.992 6.734 0.992 6.734 0.117 -82.51
2144.75 0.114 -82.698 0.992 6.521 0.992 6.521 0.114 -82.698
2169.688 0.11 -82.882 0.992 6.311 0.992 6.311 0.11 -82.882
2194.625 0.106 -83.061 0.993 6.105 0.993 6.105 0.106 -83.061
2219.563 0.103 -83.236 0.993 5.901 0.993 5.901 0.103 -83.236
2244.5 0.099 -83.406 0.994 5.7 0.994 5.7 0.099 -83.406
2269.438 0.096 -83.572 0.994 5.502 0.994 5.502 0.096 -83.572
2294.375 0.092 -83.733 0.994 5.306 0.994 5.306 0.092 -83.733
2319.313 0.089 -83.889 0.994 5.113 0.994 5.113 0.089 -83.889
2344.25 0.086 -84.041 0.995 4.923 0.995 4.923 0.086 -84.041
2369.188 0.083 -84.188 0.995 4.735 0.995 4.735 0.083 -84.188
2394.125 0.079 -84.329 0.995 4.549 0.995 4.549 0.079 -84.329
2419.063 0.076 -84.465 0.996 4.366 0.996 4.366 0.076 -84.465
2444 0.073 -84.595 0.996 4.185 0.996 4.185 0.073 -84.595
2468.938 0.07 -84.719 0.996 4.006 0.996 4.006 0.07 -84.719
2493.875 0.067 -84.837 0.996 3.83 0.996 3.83 0.067 -84.837
2518.813 0.064 -84.948 0.996 3.655 0.996 3.655 0.064 -84.948
2543.75 0.061 -85.051 0.997 3.483 0.997 3.483 0.061 -85.051
2568.688 0.058 -85.146 0.997 3.312 0.997 3.312 0.058 -85.146
2593.625 0.055 -85.232 0.997 3.143 0.997 3.143 0.055 -85.232
2618.563 0.052 -85.307 0.997 2.976 0.997 2.976 0.052 -85.307
2643.5 0.049 -85.372 0.997 2.811 0.997 2.811 0.049 -85.372
2668.438 0.046 -85.423 0.997 2.648 0.997 2.648 0.046 -85.423
2693.375 0.043 -85.459 0.998 2.486 0.998 2.486 0.043 -85.459
2718.313 0.041 -85.478 0.998 2.326 0.998 2.326 0.041 -85.478
2743.25 0.038 -85.476 0.998 2.168 0.998 2.168 0.038 -85.476
2768.188 0.035 -85.449 0.998 2.011 0.998 2.011 0.035 -85.449
2793.125 0.032 -85.392 0.998 1.856 0.998 1.856 0.032 -85.392
2818.063 0.03 -85.297 0.998 1.702 0.998 1.702 0.03 -85.297
2843 0.027 -85.155 0.998 1.55 0.998 1.55 0.027 -85.155
2867.938 0.024 -84.952 0.998 1.399 0.998 1.399 0.024 -84.952
2892.875 0.022 -84.666 0.998 1.25 0.998 1.25 0.022 -84.666
2917.813 0.019 -84.268 0.998 1.102 0.998 1.102 0.019 -84.268
2942.75 0.017 -83.707 0.998 0.955 0.998 0.955 0.017 -83.707
2967.688 0.014 -82.9 0.998 0.81 0.998 0.81 0.014 -82.9
2992.625 0.012 -81.696 0.998 0.666 0.998 0.666 0.012 -81.696
3017.563 9.252e-3 -79.784 0.998 0.523 0.998 0.523 9.252e-3 -79.784
3042.5 6.827e-3 -76.428 0.998 0.381 0.998 0.381 6.827e-3 -76.428
3067.438 4.473e-3 -69.378 0.998 0.24 0.998 0.24 4.473e-3 -69.378
3092.375 2.35e-3 -48.381 0.998 0.101 0.998 0.101 2.35e-3 -48.381
3117.313 1.69e-3 22.733 0.998 -0.037 0.998 -0.037 1.69e-3 22.733
3142.25 3.423e-3 62.756 0.998 -0.175 0.998 -0.175 3.423e-3 62.756
3167.188 5.643e-3 73.665 0.998 -0.311 0.998 -0.311 5.643e-3 73.665
3192.125 7.936e-3 78.233 0.998 -0.446 0.998 -0.446 7.936e-3 78.233
3217.063 0.01 80.67 0.998 -0.58 0.998 -0.58 0.01 80.67
3242 0.013 82.151 0.998 -0.713 0.998 -0.713 0.013 82.151
3266.938 0.015 83.125 0.998 -0.845 0.998 -0.845 0.015 83.125
3291.875 0.017 83.799 0.998 -0.976 0.998 -0.976 0.017 83.799
3316.813 0.019 84.281 0.998 -1.106 0.998 -1.106 0.019 84.281
3341.75 0.022 84.633 0.998 -1.235 0.998 -1.235 0.022 84.633
3366.688 0.024 84.892 0.998 -1.364 0.998 -1.364 0.024 84.892
3391.625 0.026 85.084 0.998 -1.491 0.998 -1.491 0.026 85.084
3416.563 0.028 85.225 0.998 -1.618 0.998 -1.618 0.028 85.225
3441.5 0.03 85.327 0.998 -1.743 0.998 -1.743 0.03 85.327
3466.438 0.033 85.397 0.998 -1.868 0.998 -1.868 0.033 85.397
3491.375 0.035 85.443 0.998 -1.992 0.998 -1.992 0.035 85.443
3516.313 0.037 85.47 0.998 -2.116 0.998 -2.116 0.037 85.47
3541.25 0.039 85.479 0.998 -2.238 0.998 -2.238 0.039 85.479
3566.188 0.041 85.475 0.998 -2.36 0.998 -2.36 0.041 85.475
3591.125 0.043 85.46 0.998 -2.481 0.998 -2.481 0.043 85.46
3616.063 0.045 85.435 0.997 -2.601 0.997 -2.601 0.045 85.435
3641 0.047 85.402 0.997 -2.72 0.997 -2.72 0.047 85.402
3665.938 0.05 85.362 0.997 -2.839 0.997 -2.839 0.05 85.362
3690.875 0.052 85.315 0.997 -2.957 0.997 -2.957 0.052 85.315
3715.813 0.054 85.264 0.997 -3.075 0.997 -3.075 0.054 85.264
3740.75 0.056 85.208 0.997 -3.191 0.997 -3.191 0.056 85.208
3765.688 0.058 85.148 0.997 -3.307 0.997 -3.307 0.058 85.148
3790.625 0.06 85.085 0.997 -3.423 0.997 -3.423 0.06 85.085
3815.563 0.062 85.019 0.997 -3.538 0.997 -3.538 0.062 85.019
3840.5 0.064 84.95 0.996 -3.652 0.996 -3.652 0.064 84.95
3865.438 0.066 84.879 0.996 -3.765 0.996 -3.765 0.066 84.879
3890.375 0.068 84.805 0.996 -3.878 0.996 -3.878 0.068 84.805
3915.313 0.07 84.73 0.996 -3.99 0.996 -3.99 0.07 84.73
3940.25 0.072 84.653 0.996 -4.102 0.996 -4.102 0.072 84.653
3965.188 0.073 84.575 0.996 -4.213 0.996 -4.213 0.073 84.575
3990.125 0.075 84.496 0.996 -4.324 0.996 -4.324 0.075 84.496
4015.063 0.077 84.415 0.995 -4.434 0.995 -4.434 0.077 84.415
4040 0.079 84.333 0.995 -4.544 0.995 -4.544 0.079 84.333
4064.938 0.081 84.251 0.995 -4.653 0.995 -4.653 0.081 84.251
4089.875 0.083 84.167 0.995 -4.761 0.995 -4.761 0.083 84.167
4114.813 0.085 84.083 0.995 -4.869 0.995 -4.869 0.085 84.083
4139.75 0.087 83.999 0.995 -4.976 0.995 -4.976 0.087 83.999
4164.688 0.089 83.913 0.995 -5.083 0.995 -5.083 0.089 83.913
4189.625 0.09 83.828 0.994 -5.19 0.994 -5.19 0.09 83.828
4214.563 0.092 83.741 0.994 -5.296 0.994 -5.296 0.092 83.741
4239.5 0.094 83.655 0.994 -5.401 0.994 -5.401 0.094 83.655
4264.438 0.096 83.568 0.994 -5.506 0.994 -5.506 0.096 83.568
4289.375 0.098 83.481 0.994 -5.611 0.994 -5.611 0.098 83.481
4314.313 0.1 83.393 0.993 -5.715 0.993 -5.715 0.1 83.393
4339.25 0.101 83.306 0.993 -5.818 0.993 -5.818 0.101 83.306
4364.188 0.103 83.218 0.993 -5.922 0.993 -5.922 0.103 83.218
4389.125 0.105 83.13 0.993 -6.024 0.993 -6.024 0.105 83.13
4414.063 0.107 83.042 0.993 -6.127 0.993 -6.127 0.107 83.042
4439 0.109 82.954 0.993 -6.229 0.993 -6.229 0.109 82.954
4463.938 0.11 82.865 0.992 -6.33 0.992 -6.33 0.11 82.865
4488.875 0.112 82.777 0.992 -6.431 0.992 -6.431 0.112 82.777
4513.813 0.114 82.689 0.992 -6.532 0.992 -6.532 0.114 82.689
4538.75 0.116 82.6 0.992 -6.632 0.992 -6.632 0.116 82.6
4563.688 0.117 82.512 0.992 -6.732 0.992 -6.732 0.117 82.512
4588.625 0.119 82.424 0.991 -6.831 0.991 -6.831 0.119 82.424
4613.563 0.121 82.335 0.991 -6.931 0.991 -6.931 0.121 82.335
4638.5 0.122 82.247 0.991 -7.029 0.991 -7.029 0.122 82.247
4663.438 0.124 82.159 0.991 -7.128 0.991 -7.128 0.124 82.159
4688.375 0.126 82.07 0.991 -7.226 0.991 -7.226 0.126 82.07
4713.313 0.127 81.982 0.99 -7.323 0.99 -7.323 0.127 81.982
4738.25 0.129 81.894 0.99 -7.421 0.99 -7.421 0.129 81.894
4763.188 0.131 81.806 0.99 -7.518 0.99 -7.518 0.131 81.806
4788.125 0.133 81.718 0.99 -7.614 0.99 -7.614 0.133 81.718
4813.063 0.134 81.63 0.989 -7.71 0.989 -7.71 0.134 81.63
4838 0.136 81.543 0.989 -7.806 0.989 -7.806 0.136 81.543
4862.938 0.137 81.455 0.989 -7.902 0.989 -7.902 0.137 81.455
4887.875 0.139 81.367 0.989 -7.997 0.989 -7.997 0.139 81.367
4912.813 0.141 81.28 0.989 -8.092 0.989 -8.092 0.141 81.28
4937.75 0.142 81.193 0.988 -8.187 0.988 -8.187 0.142 81.193
4962.688 0.144 81.106 0.988 -8.281 0.988 -8.281 0.144 81.106
4987.625 0.146 81.019 0.988 -8.375 0.988 -8.375 0.146 81.019
5012.563 0.147 80.932 0.988 -8.469 0.988 -8.469 0.147 80.932
5037.5 0.149 80.845 0.987 -8.562 0.987 -8.562 0.149 80.845
5062.438 0.15 80.759 0.987 -8.655 0.987 -8.655 0.15 80.759
5087.375 0.152 80.672 0.987 -8.748 0.987 -8.748 0.152 80.672
5112.313 0.154 80.586 0.987 -8.84 0.987 -8.84 0.154 80.586
5137.25 0.155 80.5 0.986 -8.933 0.986 -8.933 0.155 80.5
5162.188 0.157 80.414 0.986 -9.024 0.986 -9.024 0.157 80.414
5187.125 0.158 80.328 0.986 -9.116 0.986 -9.116 0.158 80.328
5212.063 0.16 80.242 0.986 -9.207 0.986 -9.207 0.16 80.242
5237 0.162 80.156 0.985 -9.299 0.985 -9.299 0.162 80.156
5261.938 0.163 80.071 0.985 -9.389 0.985 -9.389 0.163 80.071
5286.875 0.165 79.986 0.985 -9.48 0.985 -9.48 0.165 79.986
5311.813 0.166 79.901 0.985 -9.57 0.985 -9.57 0.166 79.901
5336.75 0.168 79.816 0.984 -9.66 0.984 -9.66 0.168 79.816
5361.688 0.169 79.731 0.984 -9.75 0.984 -9.75 0.169 79.731
5386.625 0.171 79.646 0.984 -9.839 0.984 -9.839 0.171 79.646
5411.563 0.172 79.562 0.983 -9.929 0.983 -9.929 0.172 79.562
5436.5 0.174 79.477 0.983 -10.017 0.983 -10.017 0.174 79.477
5461.438 0.175 79.393 0.983 -10.106 0.983 -10.106 0.175 79.393
5486.375 0.177 79.309 0.983 -10.195 0.983 -10.195 0.177 79.309
5511.313 0.179 79.225 0.982 -10.283 0.982 -10.283 0.179 79.225
5536.25 0.18 79.141 0.982 -10.371 0.982 -10.371 0.18 79.141
5561.188 0.182 79.058 0.982 -10.459 0.982 -10.459 0.182 79.058
5586.125 0.183 78.974 0.982 -10.546 0.982 -10.546 0.183 78.974
5611.063 0.185 78.891 0.981 -10.633 0.981 -10.633 0.185 78.891
5636 0.186 78.808 0.981 -10.72 0.981 -10.72 0.186 78.808
5660.938 0.188 78.725 0.981 -10.807 0.981 -10.807 0.188 78.725
5685.875 0.189 78.642 0.98 -10.894 0.98 -10.894 0.189 78.642
5710.813 0.19 78.56 0.98 -10.98 0.98 -10.98 0.19 78.56
5735.75 0.192 78.477 0.98 -11.066 0.98 -11.066 0.192 78.477
5760.688 0.193 78.395 0.98 -11.152 0.98 -11.152 0.193 78.395
5785.625 0.195 78.313 0.979 -11.238 0.979 -11.238 0.195 78.313
5810.563 0.196 78.231 0.979 -11.323 0.979 -11.323 0.196 78.231
5835.5 0.198 78.149 0.979 -11.409 0.979 -11.409 0.198 78.149
5860.438 0.199 78.067 0.978 -11.494 0.978 -11.494 0.199 78.067
5885.375 0.201 77.986 0.978 -11.579 0.978 -11.579 0.201 77.986
5910.313 0.202 77.904 0.978 -11.663 0.978 -11.663 0.202 77.904
5935.25 0.204 77.823 0.978 -11.748 0.978 -11.748 0.204 77.823
5960.188 0.205 77.742 0.977 -11.832 0.977 -11.832 0.205 77.742
5985.125 0.206 77.661 0.977 -11.916 0.977 -11.916 0.206 77.661
6010.063 0.208 77.58 0.977 -12 0.977 -12 0.208 77.58
6035 0.209 77.5 0.976 -12.083 0.976 -12.083 0.209 77.5
6059.938 0.211 77.419 0.976 -12.167 0.976 -12.167 0.211 77.419
6084.875 0.212 77.339 0.976 -12.25 0.976 -12.25 0.212 77.339
6109.813 0.214 77.259 0.975 -12.333 0.975 -12.333 0.214 77.259
6134.75 0.215 77.179 0.975 -12.416 0.975 -12.416 0.215 77.179
6159.688 0.216 77.099 0.975 -12.499 0.975 -12.499 0.216 77.099
6184.625 0.218 77.019 0.974 -12.581 0.974 -12.581 0.218 77.019
6209.563 0.219 76.939 0.974 -12.663 0.974 -12.663 0.219 76.939
6234.5 0.221 76.86 0.974 -12.745 0.974 -12.745 0.221 76.86
6259.438 0.222 76.781 0.974 -12.827 0.974 -12.827 0.222 76.781
6284.375 0.223 76.701 0.973 -12.909 0.973 -12.909 0.223 76.701
6309.313 0.225 76.622 0.973 -12.991 0.973 -12.991 0.225 76.622
6334.25 0.226 76.544 0.973 -13.072 0.973 -13.072 0.226 76.544
6359.188 0.228 76.465 0.972 -13.153 0.972 -13.153 0.228 76.465
6384.125 0.229 76.386 0.972 -13.234 0.972 -13.234 0.229 76.386
6409.063 0.23 76.308 0.972 -13.315 0.972 -13.315 0.23 76.308
6434 0.232 76.229 0.971 -13.396 0.971 -13.396 0.232 76.229
6458.938 0.233 76.151 0.971 -13.476 0.971 -13.476 0.233 76.151
6483.875 0.234 76.073 0.971 -13.557 0.971 -13.557 0.234 76.073
6508.813 0.236 75.995 0.97 -13.637 0.97 -13.637 0.236 75.995
6533.75 0.237 75.918 0.97 -13.717 0.97 -13.717 0.237 75.918
6558.688 0.238 75.84 0.97 -13.796 0.97 -13.796 0.238 75.84
6583.625 0.24 75.763 0.969 -13.876 0.969 -13.876 0.24 75.763
6608.563 0.241 75.685 0.969 -13.956 0.969 -13.956 0.241 75.685
6633.5 0.243 75.608 0.969 -14.035 0.969 -14.035 0.243 75.608
6658.438 0.244 75.531 0.968 -14.114 0.968 -14.114 0.244 75.531
6683.375 0.245 75.454 0.968 -14.193 0.968 -14.193 0.245 75.454
6708.313 0.247 75.377 0.968 -14.272 0.968 -14.272 0.247 75.377
6733.25 0.248 75.3 0.967 -14.351 0.967 -14.351 0.248 75.3
6758.188 0.249 75.224 0.967 -14.429 0.967 -14.429 0.249 75.224
6783.125 0.251 75.148 0.967 -14.508 0.967 -14.508 0.251 75.148
6808.063 0.252 75.071 0.966 -14.586 0.966 -14.586 0.252 75.071
6833 0.253 74.995 0.966 -14.664 0.966 -14.664 0.253 74.995
6857.938 0.254 74.919 0.966 -14.742 0.966 -14.742 0.254 74.919
6882.875 0.256 74.843 0.965 -14.819 0.965 -14.819 0.256 74.843
6907.813 0.257 74.767 0.965 -14.897 0.965 -14.897 0.257 74.767
6932.75 0.258 74.692 0.965 -14.974 0.965 -14.974 0.258 74.692
6957.688 0.26 74.616 0.964 -15.052 0.964 -15.052 0.26 74.616
6982.625 0.261 74.541 0.964 -15.129 0.964 -15.129 0.261 74.541
7007.563 0.262 74.466 0.963 -15.206 0.963 -15.206 0.262 74.466
7032.5 0.264 74.39 0.963 -15.283 0.963 -15.283 0.264 74.39
7057.438 0.265 74.315 0.963 -15.36 0.963 -15.36 0.265 74.315
7082.375 0.266 74.241 0.962 -15.436 0.962 -15.436 0.266 74.241
7107.313 0.267 74.166 0.962 -15.513 0.962 -15.513 0.267 74.166
7132.25 0.269 74.091 0.962 -15.589 0.962 -15.589 0.269 74.091
7157.188 0.27 74.017 0.961 -15.665 0.961 -15.665 0.27 74.017
7182.125 0.271 73.942 0.961 -15.741 0.961 -15.741 0.271 73.942
7207.063 0.273 73.868 0.961 -15.817 0.961 -15.817 0.273 73.868
7232 0.274 73.794 0.96 -15.893 0.96 -15.893 0.274 73.794
7256.938 0.275 73.72 0.96 -15.968 0.96 -15.968 0.275 73.72
7281.875 0.276 73.646 0.96 -16.044 0.96 -16.044 0.276 73.646
7306.813 0.278 73.572 0.959 -16.119 0.959 -16.119 0.278 73.572
7331.75 0.279 73.499 0.959 -16.194 0.959 -16.194 0.279 73.499
7356.688 0.28 73.425 0.958 -16.269 0.958 -16.269 0.28 73.425
7381.625 0.281 73.352 0.958 -16.344 0.958 -16.344 0.281 73.352
7406.563 0.283 73.278 0.958 -16.419 0.958 -16.419 0.283 73.278
7431.5 0.284 73.205 0.957 -16.493 0.957 -16.493 0.284 73.205
7456.438 0.285 73.132 0.957 -16.568 0.957 -16.568 0.285 73.132
7481.375 0.286 73.059 0.957 -16.642 0.957 -16.642 0.286 73.059
7506.313 0.288 72.986 0.956 -16.717 0.956 -16.717 0.288 72.986
7531.25 0.289 72.913 0.956 -16.791 0.956 -16.791 0.289 72.913
7556.188 0.29 72.841 0.956 -16.865 0.956 -16.865 0.29 72.841
7581.125 0.291 72.768 0.955 -16.939 0.955 -16.939 0.291 72.768
7606.063 0.293 72.696 0.955 -17.012 0.955 -17.012 0.293 72.696
7631 0.294 72.624 0.954 -17.086 0.954 -17.086 0.294 72.624
7655.938 0.295 72.552 0.954 -17.159 0.954 -17.159 0.295 72.552
7680.875 0.296 72.48 0.954 -17.233 0.954 -17.233 0.296 72.48
7705.813 0.297 72.408 0.953 -17.306 0.953 -17.306 0.297 72.408
7730.75 0.299 72.336 0.953 -17.379 0.953 -17.379 0.299 72.336
7755.688 0.3 72.264 0.952 -17.452 0.952 -17.452 0.3 72.264
7780.625 0.301 72.192 0.952 -17.525 0.952 -17.525 0.301 72.192
7805.563 0.302 72.121 0.952 -17.598 0.952 -17.598 0.302 72.121
7830.5 0.304 72.05 0.951 -17.67 0.951 -17.67 0.304 72.05
7855.438 0.305 71.978 0.951 -17.743 0.951 -17.743 0.305 71.978
7880.375 0.306 71.907 0.951 -17.815 0.951 -17.815 0.306 71.907
7905.313 0.307 71.836 0.95 -17.887 0.95 -17.887 0.307 71.836
7930.25 0.308 71.765 0.95 -17.959 0.95 -17.959 0.308 71.765
7955.188 0.31 71.694 0.949 -18.031 0.949 -18.031 0.31 71.694
7980.125 0.311 71.624 0.949 -18.103 0.949 -18.103 0.311 71.624
8005.063 0.312 71.553 0.949 -18.175 0.949 -18.175 0.312 71.553
8030 0.313 71.483 0.948 -18.247 0.948 -18.247 0.313 71.483
8054.938 0.314 71.412 0.948 -18.318 0.948 -18.318 0.314 71.412
8079.875 0.315 71.342 0.947 -18.39 0.947 -18.39 0.315 71.342
8104.813 0.317 71.272 0.947 -18.461 0.947 -18.461 0.317 71.272
