! AVX Thin Film Operation		Date: April 2012 
! Description: Accu-P® Series, Thin Film, SMD, RF Capacitor
! Part Number: 08051J3R3ABTTR					
!	100	MHz	-	20.05	GHz			
!	Serial	Measurements						
!								
#	MHZ	S	MA	R	50			
!	S11	S21	S12	S22				
!	dB	Phase	dB	Phase	dB	Phase	dB	Phase
50 0.995 -5.92 0.103 84.07 0.103 84.07 0.995 -5.92
74.938 0.988 -8.837 0.154 81.149 0.154 81.149 0.988 -8.837
99.875 0.979 -11.711 0.203 78.271 0.203 78.271 0.979 -11.711
124.813 0.968 -14.53 0.251 75.447 0.251 75.447 0.968 -14.53
149.75 0.955 -17.284 0.297 72.688 0.297 72.688 0.955 -17.284
174.688 0.94 -19.964 0.341 70.003 0.341 70.003 0.94 -19.964
199.625 0.923 -22.562 0.384 67.4 0.384 67.4 0.923 -22.562
224.563 0.905 -25.073 0.424 64.885 0.424 64.885 0.905 -25.073
249.5 0.887 -27.492 0.462 62.461 0.462 62.461 0.887 -27.492
274.438 0.867 -29.818 0.497 60.13 0.497 60.13 0.867 -29.818
299.375 0.847 -32.049 0.531 57.894 0.531 57.894 0.847 -32.049
324.313 0.827 -34.185 0.562 55.754 0.562 55.754 0.827 -34.185
349.25 0.806 -36.228 0.591 53.706 0.591 53.706 0.806 -36.228
374.188 0.785 -38.178 0.618 51.751 0.618 51.751 0.785 -38.178
399.125 0.765 -40.039 0.643 49.885 0.643 49.885 0.765 -40.039
424.063 0.744 -41.813 0.667 48.106 0.667 48.106 0.744 -41.813
449 0.724 -43.505 0.688 46.41 0.688 46.41 0.724 -43.505
473.938 0.705 -45.116 0.709 44.793 0.709 44.793 0.705 -45.116
498.875 0.685 -46.652 0.727 43.253 0.727 43.253 0.685 -46.652
523.813 0.666 -48.115 0.744 41.785 0.744 41.785 0.666 -48.115
548.75 0.648 -49.509 0.761 40.385 0.761 40.385 0.648 -49.509
573.688 0.63 -50.838 0.775 39.051 0.775 39.051 0.63 -50.838
598.625 0.613 -52.106 0.789 37.778 0.789 37.778 0.613 -52.106
623.563 0.596 -53.315 0.802 36.564 0.802 36.564 0.596 -53.315
648.5 0.579 -54.47 0.814 35.404 0.814 35.404 0.579 -54.47
673.438 0.563 -55.572 0.825 34.296 0.825 34.296 0.563 -55.572
698.375 0.548 -56.626 0.835 33.237 0.835 33.237 0.548 -56.626
723.313 0.533 -57.634 0.845 32.223 0.845 32.223 0.533 -57.634
748.25 0.519 -58.599 0.854 31.253 0.854 31.253 0.519 -58.599
773.188 0.505 -59.522 0.862 30.324 0.862 30.324 0.505 -59.522
798.125 0.491 -60.407 0.87 29.433 0.87 29.433 0.491 -60.407
823.063 0.478 -61.256 0.877 28.579 0.877 28.579 0.478 -61.256
848 0.466 -62.071 0.884 27.758 0.884 27.758 0.466 -62.071
872.938 0.454 -62.853 0.89 26.97 0.89 26.97 0.454 -62.853
897.875 0.442 -63.605 0.896 26.212 0.896 26.212 0.442 -63.605
922.813 0.43 -64.329 0.901 25.483 0.901 25.483 0.43 -64.329
947.75 0.419 -65.025 0.906 24.781 0.906 24.781 0.419 -65.025
972.688 0.408 -65.695 0.911 24.104 0.911 24.104 0.408 -65.695
997.625 0.398 -66.341 0.916 23.452 0.916 23.452 0.398 -66.341
1022.563 0.388 -66.964 0.92 22.823 0.92 22.823 0.388 -66.964
1047.5 0.378 -67.565 0.924 22.215 0.924 22.215 0.378 -67.565
1072.438 0.369 -68.146 0.928 21.627 0.928 21.627 0.369 -68.146
1097.375 0.359 -68.707 0.932 21.059 0.932 21.059 0.359 -68.707
1122.313 0.35 -69.25 0.935 20.51 0.935 20.51 0.35 -69.25
1147.25 0.342 -69.775 0.938 19.978 0.938 19.978 0.342 -69.775
1172.188 0.333 -70.283 0.941 19.463 0.941 19.463 0.333 -70.283
1197.125 0.325 -70.775 0.944 18.963 0.944 18.963 0.325 -70.775
1222.063 0.317 -71.253 0.947 18.478 0.947 18.478 0.317 -71.253
1247 0.309 -71.716 0.95 18.008 0.95 18.008 0.309 -71.716
1271.938 0.302 -72.165 0.952 17.551 0.952 17.551 0.302 -72.165
1296.875 0.294 -72.601 0.954 17.107 0.954 17.107 0.294 -72.601
1321.813 0.287 -73.024 0.956 16.676 0.956 16.676 0.287 -73.024
1346.75 0.28 -73.436 0.959 16.256 0.959 16.256 0.28 -73.436
1371.688 0.273 -73.836 0.96 15.848 0.96 15.848 0.273 -73.836
1396.625 0.266 -74.225 0.962 15.45 0.962 15.45 0.266 -74.225
1421.563 0.26 -74.604 0.964 15.062 0.964 15.062 0.26 -74.604
1446.5 0.253 -74.973 0.966 14.684 0.966 14.684 0.253 -74.973
1471.438 0.247 -75.332 0.967 14.315 0.967 14.315 0.247 -75.332
1496.375 0.241 -75.683 0.969 13.956 0.969 13.956 0.241 -75.683
1521.313 0.235 -76.024 0.97 13.605 0.97 13.605 0.235 -76.024
1546.25 0.229 -76.357 0.972 13.262 0.972 13.262 0.229 -76.357
1571.188 0.224 -76.682 0.973 12.927 0.973 12.927 0.224 -76.682
1596.125 0.218 -76.999 0.974 12.599 0.974 12.599 0.218 -76.999
1621.063 0.213 -77.308 0.976 12.279 0.976 12.279 0.213 -77.308
1646 0.207 -77.611 0.977 11.966 0.977 11.966 0.207 -77.611
1670.938 0.202 -77.906 0.978 11.659 0.978 11.659 0.202 -77.906
1695.875 0.197 -78.194 0.979 11.359 0.979 11.359 0.197 -78.194
1720.813 0.192 -78.476 0.98 11.064 0.98 11.064 0.192 -78.476
1745.75 0.187 -78.752 0.981 10.776 0.981 10.776 0.187 -78.752
1770.688 0.182 -79.022 0.982 10.493 0.982 10.493 0.182 -79.022
1795.625 0.177 -79.285 0.983 10.216 0.983 10.216 0.177 -79.285
1820.563 0.173 -79.543 0.983 9.945 0.983 9.945 0.173 -79.543
1845.5 0.168 -79.795 0.984 9.678 0.984 9.678 0.168 -79.795
1870.438 0.164 -80.042 0.985 9.416 0.985 9.416 0.164 -80.042
1895.375 0.159 -80.284 0.986 9.159 0.986 9.159 0.159 -80.284
1920.313 0.155 -80.521 0.986 8.906 0.986 8.906 0.155 -80.521
1945.25 0.151 -80.752 0.987 8.658 0.987 8.658 0.151 -80.752
1970.188 0.146 -80.979 0.988 8.414 0.988 8.414 0.146 -80.979
1995.125 0.142 -81.201 0.988 8.174 0.988 8.174 0.142 -81.201
2020.063 0.138 -81.418 0.989 7.938 0.989 7.938 0.138 -81.418
2045 0.134 -81.63 0.989 7.706 0.989 7.706 0.134 -81.63
2069.938 0.13 -81.838 0.99 7.477 0.99 7.477 0.13 -81.838
2094.875 0.126 -82.042 0.99 7.252 0.99 7.252 0.126 -82.042
2119.813 0.122 -82.241 0.991 7.031 0.991 7.031 0.122 -82.241
2144.75 0.119 -82.435 0.991 6.813 0.991 6.813 0.119 -82.435
2169.688 0.115 -82.625 0.992 6.598 0.992 6.598 0.115 -82.625
2194.625 0.111 -82.811 0.992 6.386 0.992 6.386 0.111 -82.811
2219.563 0.108 -82.993 0.993 6.178 0.993 6.178 0.108 -82.993
2244.5 0.104 -83.169 0.993 5.972 0.993 5.972 0.104 -83.169
2269.438 0.101 -83.342 0.993 5.769 0.993 5.769 0.101 -83.342
2294.375 0.097 -83.51 0.994 5.569 0.994 5.569 0.097 -83.51
2319.313 0.094 -83.673 0.994 5.371 0.994 5.371 0.094 -83.673
2344.25 0.09 -83.832 0.994 5.176 0.994 5.176 0.09 -83.832
2369.188 0.087 -83.986 0.995 4.984 0.995 4.984 0.087 -83.986
2394.125 0.084 -84.135 0.995 4.794 0.995 4.794 0.084 -84.135
2419.063 0.08 -84.279 0.995 4.607 0.995 4.607 0.08 -84.279
2444 0.077 -84.417 0.995 4.422 0.995 4.422 0.077 -84.417
2468.938 0.074 -84.549 0.996 4.239 0.996 4.239 0.074 -84.549
2493.875 0.071 -84.676 0.996 4.058 0.996 4.058 0.071 -84.676
2518.813 0.068 -84.796 0.996 3.879 0.996 3.879 0.068 -84.796
2543.75 0.065 -84.91 0.996 3.703 0.996 3.703 0.065 -84.91
2568.688 0.062 -85.015 0.997 3.528 0.997 3.528 0.062 -85.015
2593.625 0.059 -85.113 0.997 3.355 0.997 3.355 0.059 -85.113
2618.563 0.056 -85.201 0.997 3.185 0.997 3.185 0.056 -85.201
2643.5 0.053 -85.28 0.997 3.016 0.997 3.016 0.053 -85.28
2668.438 0.05 -85.347 0.997 2.849 0.997 2.849 0.05 -85.347
2693.375 0.047 -85.401 0.997 2.683 0.997 2.683 0.047 -85.401
2718.313 0.044 -85.44 0.997 2.52 0.997 2.52 0.044 -85.44
2743.25 0.041 -85.462 0.998 2.358 0.998 2.358 0.041 -85.462
2768.188 0.038 -85.463 0.998 2.197 0.998 2.197 0.038 -85.463
2793.125 0.036 -85.439 0.998 2.039 0.998 2.039 0.036 -85.439
2818.063 0.033 -85.386 0.998 1.882 0.998 1.882 0.033 -85.386
2843 0.03 -85.295 0.998 1.726 0.998 1.726 0.03 -85.295
2867.938 0.027 -85.158 0.998 1.572 0.998 1.572 0.027 -85.158
2892.875 0.025 -84.959 0.998 1.419 0.998 1.419 0.025 -84.959
2917.813 0.022 -84.679 0.998 1.267 0.998 1.267 0.022 -84.679
2942.75 0.02 -84.287 0.998 1.117 0.998 1.117 0.02 -84.287
2967.688 0.017 -83.733 0.998 0.969 0.998 0.969 0.017 -83.733
2992.625 0.014 -82.936 0.998 0.821 0.998 0.821 0.014 -82.936
3017.563 0.012 -81.745 0.998 0.675 0.998 0.675 0.012 -81.745
3042.5 9.385e-3 -79.853 0.998 0.53 0.998 0.53 9.385e-3 -79.853
3067.438 6.925e-3 -76.528 0.998 0.386 0.998 0.386 6.925e-3 -76.528
3092.375 4.537e-3 -69.541 0.998 0.244 0.998 0.244 4.537e-3 -69.541
3117.313 2.38e-3 -48.694 0.998 0.103 0.998 0.103 2.38e-3 -48.694
3142.25 1.7e-3 22.685 0.998 -0.038 0.998 -0.038 1.7e-3 22.685
3167.188 3.46e-3 62.88 0.998 -0.177 0.998 -0.177 3.46e-3 62.88
3192.125 5.713e-3 73.757 0.998 -0.315 0.998 -0.315 5.713e-3 73.757
3217.063 8.039e-3 78.301 0.998 -0.452 0.998 -0.452 8.039e-3 78.301
3242 0.01 80.722 0.998 -0.588 0.998 -0.588 0.01 80.722
3266.938 0.013 82.191 0.998 -0.723 0.998 -0.723 0.013 82.191
3291.875 0.015 83.157 0.998 -0.857 0.998 -0.857 0.015 83.157
3316.813 0.017 83.824 0.998 -0.989 0.998 -0.989 0.017 83.824
3341.75 0.02 84.3 0.998 -1.121 0.998 -1.121 0.02 84.3
3366.688 0.022 84.646 0.998 -1.253 0.998 -1.253 0.022 84.646
3391.625 0.024 84.901 0.998 -1.383 0.998 -1.383 0.024 84.901
3416.563 0.026 85.089 0.998 -1.512 0.998 -1.512 0.026 85.089
3441.5 0.029 85.226 0.998 -1.64 0.998 -1.64 0.029 85.226
3466.438 0.031 85.324 0.998 -1.768 0.998 -1.768 0.031 85.324
3491.375 0.033 85.392 0.998 -1.895 0.998 -1.895 0.033 85.392
3516.313 0.035 85.435 0.998 -2.021 0.998 -2.021 0.035 85.435
3541.25 0.037 85.458 0.998 -2.146 0.998 -2.146 0.037 85.458
3566.188 0.04 85.465 0.998 -2.27 0.998 -2.27 0.04 85.465
3591.125 0.042 85.458 0.998 -2.393 0.998 -2.393 0.042 85.458
3616.063 0.044 85.44 0.997 -2.516 0.997 -2.516 0.044 85.44
3641 0.046 85.413 0.997 -2.638 0.997 -2.638 0.046 85.413
3665.938 0.048 85.377 0.997 -2.759 0.997 -2.759 0.048 85.377
3690.875 0.05 85.335 0.997 -2.88 0.997 -2.88 0.05 85.335
3715.813 0.052 85.287 0.997 -3 0.997 -3 0.052 85.287
3740.75 0.054 85.233 0.997 -3.119 0.997 -3.119 0.054 85.233
3765.688 0.056 85.175 0.997 -3.237 0.997 -3.237 0.056 85.175
3790.625 0.059 85.113 0.997 -3.355 0.997 -3.355 0.059 85.113
3815.563 0.061 85.048 0.997 -3.472 0.997 -3.472 0.061 85.048
3840.5 0.063 84.979 0.996 -3.589 0.996 -3.589 0.063 84.979
3865.438 0.065 84.908 0.996 -3.705 0.996 -3.705 0.065 84.908
3890.375 0.067 84.835 0.996 -3.82 0.996 -3.82 0.067 84.835
3915.313 0.069 84.76 0.996 -3.934 0.996 -3.934 0.069 84.76
3940.25 0.071 84.683 0.996 -4.048 0.996 -4.048 0.071 84.683
3965.188 0.073 84.604 0.996 -4.162 0.996 -4.162 0.073 84.604
3990.125 0.075 84.524 0.996 -4.275 0.996 -4.275 0.075 84.524
4015.063 0.077 84.442 0.996 -4.387 0.996 -4.387 0.077 84.442
4040 0.078 84.36 0.995 -4.499 0.995 -4.499 0.078 84.36
4064.938 0.08 84.276 0.995 -4.61 0.995 -4.61 0.08 84.276
4089.875 0.082 84.192 0.995 -4.721 0.995 -4.721 0.082 84.192
4114.813 0.084 84.107 0.995 -4.831 0.995 -4.831 0.084 84.107
4139.75 0.086 84.021 0.995 -4.94 0.995 -4.94 0.086 84.021
4164.688 0.088 83.934 0.995 -5.049 0.995 -5.049 0.088 83.934
4189.625 0.09 83.847 0.994 -5.158 0.994 -5.158 0.09 83.847
4214.563 0.092 83.76 0.994 -5.266 0.994 -5.266 0.092 83.76
4239.5 0.094 83.672 0.994 -5.373 0.994 -5.373 0.094 83.672
4264.438 0.096 83.583 0.994 -5.48 0.994 -5.48 0.096 83.583
4289.375 0.097 83.495 0.994 -5.587 0.994 -5.587 0.097 83.495
4314.313 0.099 83.406 0.994 -5.693 0.994 -5.693 0.099 83.406
4339.25 0.101 83.317 0.993 -5.799 0.993 -5.799 0.101 83.317
4364.188 0.103 83.227 0.993 -5.904 0.993 -5.904 0.103 83.227
4389.125 0.105 83.138 0.993 -6.009 0.993 -6.009 0.105 83.138
4414.063 0.107 83.048 0.993 -6.113 0.993 -6.113 0.107 83.048
4439 0.108 82.958 0.993 -6.217 0.993 -6.217 0.108 82.958
4463.938 0.11 82.869 0.992 -6.32 0.992 -6.32 0.11 82.869
4488.875 0.112 82.779 0.992 -6.424 0.992 -6.424 0.112 82.779
4513.813 0.114 82.689 0.992 -6.526 0.992 -6.526 0.114 82.689
4538.75 0.115 82.599 0.992 -6.628 0.992 -6.628 0.115 82.599
4563.688 0.117 82.509 0.992 -6.73 0.992 -6.73 0.117 82.509
4588.625 0.119 82.419 0.991 -6.832 0.991 -6.832 0.119 82.419
4613.563 0.121 82.329 0.991 -6.933 0.991 -6.933 0.121 82.329
4638.5 0.122 82.239 0.991 -7.033 0.991 -7.033 0.122 82.239
4663.438 0.124 82.149 0.991 -7.133 0.991 -7.133 0.124 82.149
4688.375 0.126 82.059 0.99 -7.233 0.99 -7.233 0.126 82.059
4713.313 0.128 81.969 0.99 -7.333 0.99 -7.333 0.128 81.969
4738.25 0.129 81.879 0.99 -7.432 0.99 -7.432 0.129 81.879
4763.188 0.131 81.79 0.99 -7.531 0.99 -7.531 0.131 81.79
4788.125 0.133 81.7 0.99 -7.629 0.99 -7.629 0.133 81.7
4813.063 0.134 81.611 0.989 -7.727 0.989 -7.727 0.134 81.611
4838 0.136 81.522 0.989 -7.825 0.989 -7.825 0.136 81.522
4862.938 0.138 81.432 0.989 -7.922 0.989 -7.922 0.138 81.432
4887.875 0.14 81.343 0.989 -8.019 0.989 -8.019 0.14 81.343
4912.813 0.141 81.254 0.988 -8.116 0.988 -8.116 0.141 81.254
4937.75 0.143 81.165 0.988 -8.212 0.988 -8.212 0.143 81.165
4962.688 0.145 81.077 0.988 -8.308 0.988 -8.308 0.145 81.077
4987.625 0.146 80.988 0.988 -8.404 0.988 -8.404 0.146 80.988
5012.563 0.148 80.9 0.987 -8.499 0.987 -8.499 0.148 80.9
5037.5 0.149 80.811 0.987 -8.594 0.987 -8.594 0.149 80.811
5062.438 0.151 80.723 0.987 -8.689 0.987 -8.689 0.151 80.723
5087.375 0.153 80.635 0.987 -8.784 0.987 -8.784 0.153 80.635
5112.313 0.154 80.547 0.986 -8.878 0.986 -8.878 0.154 80.547
5137.25 0.156 80.459 0.986 -8.972 0.986 -8.972 0.156 80.459
5162.188 0.158 80.372 0.986 -9.065 0.986 -9.065 0.158 80.372
5187.125 0.159 80.284 0.986 -9.159 0.986 -9.159 0.159 80.284
5212.063 0.161 80.197 0.985 -9.252 0.985 -9.252 0.161 80.197
5237 0.162 80.11 0.985 -9.344 0.985 -9.344 0.162 80.11
5261.938 0.164 80.023 0.985 -9.437 0.985 -9.437 0.164 80.023
5286.875 0.166 79.936 0.985 -9.529 0.985 -9.529 0.166 79.936
5311.813 0.167 79.849 0.984 -9.621 0.984 -9.621 0.167 79.849
5336.75 0.169 79.763 0.984 -9.712 0.984 -9.712 0.169 79.763
5361.688 0.17 79.677 0.984 -9.804 0.984 -9.804 0.17 79.677
5386.625 0.172 79.59 0.984 -9.895 0.984 -9.895 0.172 79.59
5411.563 0.173 79.504 0.983 -9.985 0.983 -9.985 0.173 79.504
5436.5 0.175 79.418 0.983 -10.076 0.983 -10.076 0.175 79.418
5461.438 0.177 79.333 0.983 -10.166 0.983 -10.166 0.177 79.333
5486.375 0.178 79.247 0.982 -10.256 0.982 -10.256 0.178 79.247
5511.313 0.18 79.162 0.982 -10.346 0.982 -10.346 0.18 79.162
5536.25 0.181 79.077 0.982 -10.436 0.982 -10.436 0.181 79.077
5561.188 0.183 78.992 0.982 -10.525 0.982 -10.525 0.183 78.992
5586.125 0.184 78.907 0.981 -10.614 0.981 -10.614 0.184 78.907
5611.063 0.186 78.822 0.981 -10.703 0.981 -10.703 0.186 78.822
5636 0.187 78.738 0.981 -10.791 0.981 -10.791 0.187 78.738
5660.938 0.189 78.653 0.98 -10.879 0.98 -10.879 0.189 78.653
5685.875 0.19 78.569 0.98 -10.968 0.98 -10.968 0.19 78.569
5710.813 0.192 78.485 0.98 -11.055 0.98 -11.055 0.192 78.485
5735.75 0.193 78.401 0.98 -11.143 0.98 -11.143 0.193 78.401
5760.688 0.195 78.317 0.979 -11.23 0.979 -11.23 0.195 78.317
5785.625 0.196 78.234 0.979 -11.318 0.979 -11.318 0.196 78.234
5810.563 0.198 78.15 0.979 -11.405 0.979 -11.405 0.198 78.15
5835.5 0.199 78.067 0.978 -11.491 0.978 -11.491 0.199 78.067
5860.438 0.201 77.984 0.978 -11.578 0.978 -11.578 0.201 77.984
5885.375 0.202 77.901 0.978 -11.664 0.978 -11.664 0.202 77.901
5910.313 0.204 77.818 0.978 -11.75 0.978 -11.75 0.204 77.818
5935.25 0.205 77.735 0.977 -11.836 0.977 -11.836 0.205 77.735
5960.188 0.207 77.653 0.977 -11.922 0.977 -11.922 0.207 77.653
5985.125 0.208 77.571 0.977 -12.007 0.977 -12.007 0.208 77.571
6010.063 0.209 77.488 0.976 -12.092 0.976 -12.092 0.209 77.488
6035 0.211 77.406 0.976 -12.177 0.976 -12.177 0.211 77.406
6059.938 0.212 77.325 0.976 -12.262 0.976 -12.262 0.212 77.325
6084.875 0.214 77.243 0.975 -12.347 0.975 -12.347 0.214 77.243
6109.813 0.215 77.161 0.975 -12.431 0.975 -12.431 0.215 77.161
6134.75 0.217 77.08 0.975 -12.515 0.975 -12.515 0.217 77.08
6159.688 0.218 76.999 0.974 -12.599 0.974 -12.599 0.218 76.999
6184.625 0.22 76.918 0.974 -12.683 0.974 -12.683 0.22 76.918
6209.563 0.221 76.837 0.974 -12.767 0.974 -12.767 0.221 76.837
6234.5 0.222 76.756 0.973 -12.85 0.973 -12.85 0.222 76.756
6259.438 0.224 76.675 0.973 -12.933 0.973 -12.933 0.224 76.675
6284.375 0.225 76.595 0.973 -13.017 0.973 -13.017 0.225 76.595
6309.313 0.227 76.515 0.972 -13.099 0.972 -13.099 0.227 76.515
6334.25 0.228 76.434 0.972 -13.182 0.972 -13.182 0.228 76.434
6359.188 0.229 76.354 0.972 -13.265 0.972 -13.265 0.229 76.354
6384.125 0.231 76.274 0.971 -13.347 0.971 -13.347 0.231 76.274
6409.063 0.232 76.195 0.971 -13.429 0.971 -13.429 0.232 76.195
6434 0.234 76.115 0.971 -13.511 0.971 -13.511 0.234 76.115
6458.938 0.235 76.036 0.97 -13.593 0.97 -13.593 0.235 76.036
6483.875 0.236 75.956 0.97 -13.674 0.97 -13.674 0.236 75.956
6508.813 0.238 75.877 0.97 -13.756 0.97 -13.756 0.238 75.877
6533.75 0.239 75.798 0.969 -13.837 0.969 -13.837 0.239 75.798
6558.688 0.241 75.719 0.969 -13.918 0.969 -13.918 0.241 75.719
6583.625 0.242 75.641 0.969 -13.999 0.969 -13.999 0.242 75.641
6608.563 0.243 75.562 0.968 -14.08 0.968 -14.08 0.243 75.562
6633.5 0.245 75.484 0.968 -14.16 0.968 -14.16 0.245 75.484
6658.438 0.246 75.405 0.968 -14.241 0.968 -14.241 0.246 75.405
6683.375 0.247 75.327 0.967 -14.321 0.967 -14.321 0.247 75.327
6708.313 0.249 75.249 0.967 -14.401 0.967 -14.401 0.249 75.249
6733.25 0.25 75.171 0.967 -14.481 0.967 -14.481 0.25 75.171
6758.188 0.251 75.093 0.966 -14.561 0.966 -14.561 0.251 75.093
6783.125 0.253 75.016 0.966 -14.64 0.966 -14.64 0.253 75.016
6808.063 0.254 74.938 0.966 -14.72 0.966 -14.72 0.254 74.938
6833 0.255 74.861 0.965 -14.799 0.965 -14.799 0.255 74.861
6857.938 0.257 74.784 0.965 -14.878 0.965 -14.878 0.257 74.784
6882.875 0.258 74.707 0.965 -14.957 0.965 -14.957 0.258 74.707
6907.813 0.259 74.63 0.964 -15.036 0.964 -15.036 0.259 74.63
6932.75 0.261 74.553 0.964 -15.115 0.964 -15.115 0.261 74.553
6957.688 0.262 74.476 0.964 -15.193 0.964 -15.193 0.262 74.476
6982.625 0.263 74.4 0.963 -15.271 0.963 -15.271 0.263 74.4
7007.563 0.265 74.323 0.963 -15.35 0.963 -15.35 0.265 74.323
7032.5 0.266 74.247 0.962 -15.428 0.962 -15.428 0.266 74.247
7057.438 0.267 74.171 0.962 -15.506 0.962 -15.506 0.267 74.171
7082.375 0.269 74.095 0.962 -15.583 0.962 -15.583 0.269 74.095
7107.313 0.27 74.019 0.961 -15.661 0.961 -15.661 0.27 74.019
7132.25 0.271 73.943 0.961 -15.738 0.961 -15.738 0.271 73.943
7157.188 0.273 73.867 0.961 -15.816 0.961 -15.816 0.273 73.867
7182.125 0.274 73.792 0.96 -15.893 0.96 -15.893 0.274 73.792
7207.063 0.275 73.716 0.96 -15.97 0.96 -15.97 0.275 73.716
7232 0.276 73.641 0.96 -16.047 0.96 -16.047 0.276 73.641
7256.938 0.278 73.566 0.959 -16.123 0.959 -16.123 0.278 73.566
7281.875 0.279 73.491 0.959 -16.2 0.959 -16.2 0.279 73.491
7306.813 0.28 73.416 0.958 -16.276 0.958 -16.276 0.28 73.416
7331.75 0.282 73.341 0.958 -16.353 0.958 -16.353 0.282 73.341
7356.688 0.283 73.267 0.958 -16.429 0.958 -16.429 0.283 73.267
7381.625 0.284 73.192 0.957 -16.505 0.957 -16.505 0.284 73.192
7406.563 0.285 73.118 0.957 -16.581 0.957 -16.581 0.285 73.118
7431.5 0.287 73.043 0.957 -16.656 0.957 -16.656 0.287 73.043
7456.438 0.288 72.969 0.956 -16.732 0.956 -16.732 0.288 72.969
7481.375 0.289 72.895 0.956 -16.807 0.956 -16.807 0.289 72.895
7506.313 0.29 72.821 0.955 -16.883 0.955 -16.883 0.29 72.821
7531.25 0.292 72.748 0.955 -16.958 0.955 -16.958 0.292 72.748
7556.188 0.293 72.674 0.955 -17.033 0.955 -17.033 0.293 72.674
7581.125 0.294 72.6 0.954 -17.108 0.954 -17.108 0.294 72.6
7606.063 0.295 72.527 0.954 -17.183 0.954 -17.183 0.295 72.527
7631 0.297 72.453 0.953 -17.257 0.953 -17.257 0.297 72.453
7655.938 0.298 72.38 0.953 -17.332 0.953 -17.332 0.298 72.38
7680.875 0.299 72.307 0.953 -17.406 0.953 -17.406 0.299 72.307
7705.813 0.3 72.234 0.952 -17.481 0.952 -17.481 0.3 72.234
7730.75 0.302 72.161 0.952 -17.555 0.952 -17.555 0.302 72.161
7755.688 0.303 72.089 0.952 -17.629 0.952 -17.629 0.303 72.089
7780.625 0.304 72.016 0.951 -17.703 0.951 -17.703 0.304 72.016
7805.563 0.305 71.943 0.951 -17.776 0.951 -17.776 0.305 71.943
7830.5 0.307 71.871 0.95 -17.85 0.95 -17.85 0.307 71.871
7855.438 0.308 71.799 0.95 -17.923 0.95 -17.923 0.308 71.799
7880.375 0.309 71.727 0.95 -17.997 0.95 -17.997 0.309 71.727
7905.313 0.31 71.655 0.949 -18.07 0.949 -18.07 0.31 71.655
7930.25 0.311 71.583 0.949 -18.143 0.949 -18.143 0.311 71.583
7955.188 0.313 71.511 0.948 -18.216 0.948 -18.216 0.313 71.511
7980.125 0.314 71.439 0.948 -18.289 0.948 -18.289 0.314 71.439
8005.063 0.315 71.367 0.948 -18.362 0.948 -18.362 0.315 71.367
8030 0.316 71.296 0.947 -18.435 0.947 -18.435 0.316 71.296
8054.938 0.317 71.225 0.947 -18.507 0.947 -18.507 0.317 71.225
8079.875 0.319 71.153 0.946 -18.579 0.946 -18.579 0.319 71.153
8104.813 0.32 71.082 0.946 -18.652 0.946 -18.652 0.32 71.082
