! AVX Thin Film Operation		Date: April 2012 
! Description: Accu-P® Series, Thin Film, SMD, RF Capacitor
! Part Number: 08051J0R1PBTTR					
!	100	MHz	-	30.05	GHz			
!	Serial	Measurements						
!								
#	MHZ	S	MA	R	50			
!	S11	S21	S12	S22				
!	dB	Phase	dB	Phase	dB	Phase	dB	Phase
100	1	-0.36	6.28E-03	89.639	6.28E-03	89.639	1	-0.36
104.976	1	-0.378	6.60E-03	89.621	6.60E-03	89.621	1	-0.378
109.952	1	-0.396	6.91E-03	89.603	6.91E-03	89.603	1	-0.396
114.928	1	-0.414	7.22E-03	89.585	7.22E-03	89.585	1	-0.414
119.903	1	-0.432	7.53E-03	89.567	7.53E-03	89.567	1	-0.432
124.879	1	-0.45	7.85E-03	89.549	7.85E-03	89.549	1	-0.45
129.855	1	-0.467	8.16E-03	89.531	8.16E-03	89.531	1	-0.467
134.831	1	-0.485	8.47E-03	89.513	8.47E-03	89.513	1	-0.485
139.807	1	-0.503	8.78E-03	89.495	8.78E-03	89.495	1	-0.503
144.783	1	-0.521	9.10E-03	89.477	9.10E-03	89.477	1	-0.521
149.759	1	-0.539	9.41E-03	89.459	9.41E-03	89.459	1	-0.539
154.735	1	-0.557	9.72E-03	89.441	9.72E-03	89.441	1	-0.557
159.71	1	-0.575	0.01	89.423	0.01	89.423	1	-0.575
164.686	1	-0.593	0.01	89.405	0.01	89.405	1	-0.593
169.662	1	-0.611	0.011	89.387	0.011	89.387	1	-0.611
174.638	1	-0.629	0.011	89.369	0.011	89.369	1	-0.629
179.614	1	-0.647	0.011	89.352	0.011	89.352	1	-0.647
184.59	1	-0.665	0.012	89.334	0.012	89.334	1	-0.665
189.566	1	-0.682	0.012	89.316	0.012	89.316	1	-0.682
194.542	1	-0.7	0.012	89.298	0.012	89.298	1	-0.7
199.517	1	-0.718	0.013	89.28	0.013	89.28	1	-0.718
204.493	1	-0.736	0.013	89.262	0.013	89.262	1	-0.736
209.469	1	-0.754	0.013	89.244	0.013	89.244	1	-0.754
214.445	1	-0.772	0.013	89.226	0.013	89.226	1	-0.772
219.421	1	-0.79	0.014	89.208	0.014	89.208	1	-0.79
224.397	1	-0.808	0.014	89.19	0.014	89.19	1	-0.808
229.373	1	-0.826	0.014	89.172	0.014	89.172	1	-0.826
234.348	1	-0.844	0.015	89.154	0.015	89.154	1	-0.844
239.324	1	-0.862	0.015	89.136	0.015	89.136	1	-0.862
244.3	1	-0.88	0.015	89.118	0.015	89.118	1	-0.88
249.276	1	-0.897	0.016	89.1	0.016	89.1	1	-0.897
254.252	1	-0.915	0.016	89.082	0.016	89.082	1	-0.915
259.228	1	-0.933	0.016	89.064	0.016	89.064	1	-0.933
264.204	1	-0.951	0.017	89.046	0.017	89.046	1	-0.951
269.18	1	-0.969	0.017	89.028	0.017	89.028	1	-0.969
274.155	1	-0.987	0.017	89.01	0.017	89.01	1	-0.987
279.131	1	-1.005	0.018	88.992	0.018	88.992	1	-1.005
284.107	1	-1.023	0.018	88.974	0.018	88.974	1	-1.023
289.083	1	-1.041	0.018	88.956	0.018	88.956	1	-1.041
294.059	1	-1.059	0.018	88.938	0.018	88.938	1	-1.059
299.035	1	-1.077	0.019	88.92	0.019	88.92	1	-1.077
304.011	1	-1.095	0.019	88.902	0.019	88.902	1	-1.095
308.987	1	-1.112	0.019	88.884	0.019	88.884	1	-1.112
313.962	1	-1.13	0.02	88.866	0.02	88.866	1	-1.13
318.938	1	-1.148	0.02	88.848	0.02	88.848	1	-1.148
323.914	1	-1.166	0.02	88.83	0.02	88.83	1	-1.166
328.89	1	-1.184	0.021	88.813	0.021	88.813	1	-1.184
333.866	1	-1.202	0.021	88.795	0.021	88.795	1	-1.202
338.842	1	-1.22	0.021	88.777	0.021	88.777	1	-1.22
343.818	1	-1.238	0.022	88.759	0.022	88.759	1	-1.238
348.793	1	-1.256	0.022	88.741	0.022	88.741	1	-1.256
353.769	1	-1.274	0.022	88.723	0.022	88.723	1	-1.274
358.745	1	-1.292	0.023	88.705	0.023	88.705	1	-1.292
363.721	1	-1.31	0.023	88.687	0.023	88.687	1	-1.31
368.697	1	-1.327	0.023	88.669	0.023	88.669	1	-1.327
373.673	1	-1.345	0.023	88.651	0.023	88.651	1	-1.345
378.649	1	-1.363	0.024	88.633	0.024	88.633	1	-1.363
383.625	1	-1.381	0.024	88.615	0.024	88.615	1	-1.381
388.6	1	-1.399	0.024	88.597	0.024	88.597	1	-1.399
393.576	1	-1.417	0.025	88.579	0.025	88.579	1	-1.417
398.552	1	-1.435	0.025	88.561	0.025	88.561	1	-1.435
403.528	1	-1.453	0.025	88.543	0.025	88.543	1	-1.453
408.504	1	-1.471	0.026	88.525	0.026	88.525	1	-1.471
413.48	1	-1.489	0.026	88.507	0.026	88.507	1	-1.489
418.456	1	-1.507	0.026	88.489	0.026	88.489	1	-1.507
423.432	1	-1.525	0.027	88.471	0.027	88.471	1	-1.525
428.407	1	-1.543	0.027	88.453	0.027	88.453	1	-1.543
433.383	1	-1.56	0.027	88.435	0.027	88.435	1	-1.56
438.359	1	-1.578	0.028	88.417	0.028	88.417	1	-1.578
443.335	1	-1.596	0.028	88.399	0.028	88.399	1	-1.596
448.311	1	-1.614	0.028	88.381	0.028	88.381	1	-1.614
453.287	1	-1.632	0.028	88.363	0.028	88.363	1	-1.632
458.263	1	-1.65	0.029	88.345	0.029	88.345	1	-1.65
463.238	1	-1.668	0.029	88.327	0.029	88.327	1	-1.668
468.214	1	-1.686	0.029	88.309	0.029	88.309	1	-1.686
473.19	1	-1.704	0.03	88.291	0.03	88.291	1	-1.704
478.166	1	-1.722	0.03	88.273	0.03	88.273	1	-1.722
483.142	1	-1.74	0.03	88.255	0.03	88.255	1	-1.74
488.118	1	-1.758	0.031	88.237	0.031	88.237	1	-1.758
493.094	1	-1.776	0.031	88.219	0.031	88.219	1	-1.776
498.07	1	-1.793	0.031	88.201	0.031	88.201	1	-1.793
503.045	0.999	-1.811	0.032	88.183	0.032	88.183	0.999	-1.811
508.021	0.999	-1.829	0.032	88.166	0.032	88.166	0.999	-1.829
512.997	0.999	-1.847	0.032	88.148	0.032	88.148	0.999	-1.847
517.973	0.999	-1.865	0.033	88.13	0.033	88.13	0.999	-1.865
522.949	0.999	-1.883	0.033	88.112	0.033	88.112	0.999	-1.883
527.925	0.999	-1.901	0.033	88.094	0.033	88.094	0.999	-1.901
532.901	0.999	-1.919	0.033	88.076	0.033	88.076	0.999	-1.919
537.877	0.999	-1.937	0.034	88.058	0.034	88.058	0.999	-1.937
542.852	0.999	-1.955	0.034	88.04	0.034	88.04	0.999	-1.955
547.828	0.999	-1.973	0.034	88.022	0.034	88.022	0.999	-1.973
552.804	0.999	-1.991	0.035	88.004	0.035	88.004	0.999	-1.991
557.78	0.999	-2.009	0.035	87.986	0.035	87.986	0.999	-2.009
562.756	0.999	-2.027	0.035	87.968	0.035	87.968	0.999	-2.027
567.732	0.999	-2.044	0.036	87.95	0.036	87.95	0.999	-2.044
572.708	0.999	-2.062	0.036	87.932	0.036	87.932	0.999	-2.062
577.683	0.999	-2.08	0.036	87.914	0.036	87.914	0.999	-2.08
582.659	0.999	-2.098	0.037	87.896	0.037	87.896	0.999	-2.098
587.635	0.999	-2.116	0.037	87.878	0.037	87.878	0.999	-2.116
592.611	0.999	-2.134	0.037	87.86	0.037	87.86	0.999	-2.134
597.587	0.999	-2.152	0.038	87.842	0.038	87.842	0.999	-2.152
602.563	0.999	-2.17	0.038	87.824	0.038	87.824	0.999	-2.17
607.539	0.999	-2.188	0.038	87.806	0.038	87.806	0.999	-2.188
612.515	0.999	-2.206	0.038	87.788	0.038	87.788	0.999	-2.206
617.49	0.999	-2.224	0.039	87.77	0.039	87.77	0.999	-2.224
622.466	0.999	-2.242	0.039	87.752	0.039	87.752	0.999	-2.242
627.442	0.999	-2.26	0.039	87.734	0.039	87.734	0.999	-2.26
632.418	0.999	-2.278	0.04	87.716	0.04	87.716	0.999	-2.278
637.394	0.999	-2.295	0.04	87.698	0.04	87.698	0.999	-2.295
642.37	0.999	-2.313	0.04	87.68	0.04	87.68	0.999	-2.313
647.346	0.999	-2.331	0.041	87.662	0.041	87.662	0.999	-2.331
652.322	0.999	-2.349	0.041	87.644	0.041	87.644	0.999	-2.349
657.297	0.999	-2.367	0.041	87.626	0.041	87.626	0.999	-2.367
662.273	0.999	-2.385	0.042	87.608	0.042	87.608	0.999	-2.385
667.249	0.999	-2.403	0.042	87.59	0.042	87.59	0.999	-2.403
672.225	0.999	-2.421	0.042	87.572	0.042	87.572	0.999	-2.421
677.201	0.999	-2.439	0.043	87.554	0.043	87.554	0.999	-2.439
682.177	0.999	-2.457	0.043	87.536	0.043	87.536	0.999	-2.457
687.153	0.999	-2.475	0.043	87.518	0.043	87.518	0.999	-2.475
692.128	0.999	-2.493	0.043	87.5	0.043	87.5	0.999	-2.493
697.104	0.999	-2.511	0.044	87.482	0.044	87.482	0.999	-2.511
702.08	0.999	-2.529	0.044	87.464	0.044	87.464	0.999	-2.529
707.056	0.999	-2.547	0.044	87.446	0.044	87.446	0.999	-2.547
712.032	0.999	-2.565	0.045	87.428	0.045	87.428	0.999	-2.565
717.008	0.999	-2.582	0.045	87.41	0.045	87.41	0.999	-2.582
721.984	0.999	-2.6	0.045	87.392	0.045	87.392	0.999	-2.6
726.96	0.999	-2.618	0.046	87.374	0.046	87.374	0.999	-2.618
731.935	0.999	-2.636	0.046	87.356	0.046	87.356	0.999	-2.636
736.911	0.999	-2.654	0.046	87.338	0.046	87.338	0.999	-2.654
741.887	0.999	-2.672	0.047	87.32	0.047	87.32	0.999	-2.672
746.863	0.999	-2.69	0.047	87.302	0.047	87.302	0.999	-2.69
751.839	0.999	-2.708	0.047	87.284	0.047	87.284	0.999	-2.708
756.815	0.999	-2.726	0.048	87.266	0.048	87.266	0.999	-2.726
761.791	0.999	-2.744	0.048	87.248	0.048	87.248	0.999	-2.744
766.767	0.999	-2.762	0.048	87.23	0.048	87.23	0.999	-2.762
771.742	0.999	-2.78	0.048	87.212	0.048	87.212	0.999	-2.78
776.718	0.999	-2.798	0.049	87.194	0.049	87.194	0.999	-2.798
781.694	0.999	-2.816	0.049	87.176	0.049	87.176	0.999	-2.816
786.67	0.999	-2.834	0.049	87.158	0.049	87.158	0.999	-2.834
791.646	0.999	-2.852	0.05	87.14	0.05	87.14	0.999	-2.852
796.622	0.999	-2.87	0.05	87.122	0.05	87.122	0.999	-2.87
801.598	0.999	-2.887	0.05	87.104	0.05	87.104	0.999	-2.887
806.573	0.999	-2.905	0.051	87.086	0.051	87.086	0.999	-2.905
811.549	0.999	-2.923	0.051	87.068	0.051	87.068	0.999	-2.923
816.525	0.999	-2.941	0.051	87.05	0.051	87.05	0.999	-2.941
821.501	0.999	-2.959	0.052	87.032	0.052	87.032	0.999	-2.959
826.477	0.999	-2.977	0.052	87.014	0.052	87.014	0.999	-2.977
831.453	0.999	-2.995	0.052	86.996	0.052	86.996	0.999	-2.995
836.429	0.999	-3.013	0.053	86.978	0.053	86.978	0.999	-3.013
841.405	0.999	-3.031	0.053	86.96	0.053	86.96	0.999	-3.031
846.38	0.999	-3.049	0.053	86.942	0.053	86.942	0.999	-3.049
851.356	0.999	-3.067	0.054	86.924	0.054	86.924	0.999	-3.067
856.332	0.999	-3.085	0.054	86.906	0.054	86.906	0.999	-3.085
861.308	0.999	-3.103	0.054	86.888	0.054	86.888	0.999	-3.103
866.284	0.999	-3.121	0.054	86.87	0.054	86.87	0.999	-3.121
871.26	0.998	-3.139	0.055	86.852	0.055	86.852	0.998	-3.139
876.236	0.998	-3.157	0.055	86.834	0.055	86.834	0.998	-3.157
881.212	0.998	-3.175	0.055	86.816	0.055	86.816	0.998	-3.175
886.187	0.998	-3.193	0.056	86.798	0.056	86.798	0.998	-3.193
891.163	0.998	-3.211	0.056	86.78	0.056	86.78	0.998	-3.211
896.139	0.998	-3.229	0.056	86.762	0.056	86.762	0.998	-3.229
901.115	0.998	-3.246	0.057	86.744	0.057	86.744	0.998	-3.246
906.091	0.998	-3.264	0.057	86.726	0.057	86.726	0.998	-3.264
911.067	0.998	-3.282	0.057	86.708	0.057	86.708	0.998	-3.282
916.043	0.998	-3.3	0.058	86.69	0.058	86.69	0.998	-3.3
921.018	0.998	-3.318	0.058	86.672	0.058	86.672	0.998	-3.318
925.994	0.998	-3.336	0.058	86.654	0.058	86.654	0.998	-3.336
930.97	0.998	-3.354	0.059	86.636	0.059	86.636	0.998	-3.354
935.946	0.998	-3.372	0.059	86.618	0.059	86.618	0.998	-3.372
940.922	0.998	-3.39	0.059	86.6	0.059	86.6	0.998	-3.39
945.898	0.998	-3.408	0.059	86.582	0.059	86.582	0.998	-3.408
950.874	0.998	-3.426	0.06	86.564	0.06	86.564	0.998	-3.426
955.85	0.998	-3.444	0.06	86.546	0.06	86.546	0.998	-3.444
960.825	0.998	-3.462	0.06	86.528	0.06	86.528	0.998	-3.462
965.801	0.998	-3.48	0.061	86.51	0.061	86.51	0.998	-3.48
970.777	0.998	-3.498	0.061	86.492	0.061	86.492	0.998	-3.498
975.753	0.998	-3.516	0.061	86.474	0.061	86.474	0.998	-3.516
980.729	0.998	-3.534	0.062	86.456	0.062	86.456	0.998	-3.534
985.705	0.998	-3.552	0.062	86.438	0.062	86.438	0.998	-3.552
990.681	0.998	-3.57	0.062	86.42	0.062	86.42	0.998	-3.57
995.657	0.998	-3.588	0.063	86.402	0.063	86.402	0.998	-3.588
1000.632	0.998	-3.606	0.063	86.384	0.063	86.384	0.998	-3.606
1005.608	0.998	-3.624	0.063	86.366	0.063	86.366	0.998	-3.624
1010.584	0.998	-3.642	0.064	86.348	0.064	86.348	0.998	-3.642
1015.56	0.998	-3.66	0.064	86.33	0.064	86.33	0.998	-3.66
1020.536	0.998	-3.677	0.064	86.312	0.064	86.312	0.998	-3.677
1025.512	0.998	-3.695	0.064	86.294	0.064	86.294	0.998	-3.695
1030.488	0.998	-3.713	0.065	86.276	0.065	86.276	0.998	-3.713
1035.463	0.998	-3.731	0.065	86.258	0.065	86.258	0.998	-3.731
1040.439	0.998	-3.749	0.065	86.24	0.065	86.24	0.998	-3.749
1045.415	0.998	-3.767	0.066	86.222	0.066	86.222	0.998	-3.767
1050.391	0.998	-3.785	0.066	86.204	0.066	86.204	0.998	-3.785
1055.367	0.998	-3.803	0.066	86.186	0.066	86.186	0.998	-3.803
1060.343	0.998	-3.821	0.067	86.168	0.067	86.168	0.998	-3.821
1065.319	0.998	-3.839	0.067	86.15	0.067	86.15	0.998	-3.839
1070.295	0.998	-3.857	0.067	86.132	0.067	86.132	0.998	-3.857
1075.27	0.998	-3.875	0.068	86.114	0.068	86.114	0.998	-3.875
1080.246	0.998	-3.893	0.068	86.096	0.068	86.096	0.998	-3.893
1085.222	0.998	-3.911	0.068	86.078	0.068	86.078	0.998	-3.911
1090.198	0.998	-3.929	0.069	86.06	0.069	86.06	0.998	-3.929
1095.174	0.998	-3.947	0.069	86.042	0.069	86.042	0.998	-3.947
1100.15	0.998	-3.965	0.069	86.024	0.069	86.024	0.998	-3.965
1105.126	0.998	-3.983	0.069	86.006	0.069	86.006	0.998	-3.983
1110.102	0.998	-4.001	0.07	85.988	0.07	85.988	0.998	-4.001
1115.077	0.998	-4.019	0.07	85.97	0.07	85.97	0.998	-4.019
1120.053	0.998	-4.037	0.07	85.952	0.07	85.952	0.998	-4.037
1125.029	0.997	-4.055	0.071	85.934	0.071	85.934	0.997	-4.055
1130.005	0.997	-4.073	0.071	85.916	0.071	85.916	0.997	-4.073
1134.981	0.997	-4.091	0.071	85.898	0.071	85.898	0.997	-4.091
1139.957	0.997	-4.109	0.072	85.88	0.072	85.88	0.997	-4.109
1144.933	0.997	-4.127	0.072	85.862	0.072	85.862	0.997	-4.127
1149.908	0.997	-4.145	0.072	85.844	0.072	85.844	0.997	-4.145
1154.884	0.997	-4.163	0.073	85.826	0.073	85.826	0.997	-4.163
1159.86	0.997	-4.181	0.073	85.807	0.073	85.807	0.997	-4.181
1164.836	0.997	-4.199	0.073	85.789	0.073	85.789	0.997	-4.199
1169.812	0.997	-4.217	0.074	85.771	0.074	85.771	0.997	-4.217
1174.788	0.997	-4.235	0.074	85.753	0.074	85.753	0.997	-4.235
1179.764	0.997	-4.253	0.074	85.735	0.074	85.735	0.997	-4.253
1184.74	0.997	-4.271	0.074	85.717	0.074	85.717	0.997	-4.271
1189.715	0.997	-4.289	0.075	85.699	0.075	85.699	0.997	-4.289
1194.691	0.997	-4.307	0.075	85.681	0.075	85.681	0.997	-4.307
1199.667	0.997	-4.325	0.075	85.663	0.075	85.663	0.997	-4.325
1204.643	0.997	-4.343	0.076	85.645	0.076	85.645	0.997	-4.343
1209.619	0.997	-4.361	0.076	85.627	0.076	85.627	0.997	-4.361
1214.595	0.997	-4.379	0.076	85.609	0.076	85.609	0.997	-4.379
1219.571	0.997	-4.397	0.077	85.591	0.077	85.591	0.997	-4.397
1224.547	0.997	-4.415	0.077	85.573	0.077	85.573	0.997	-4.415
1229.522	0.997	-4.433	0.077	85.555	0.077	85.555	0.997	-4.433
1234.498	0.997	-4.451	0.078	85.537	0.078	85.537	0.997	-4.451
1239.474	0.997	-4.468	0.078	85.519	0.078	85.519	0.997	-4.468
1244.45	0.997	-4.486	0.078	85.501	0.078	85.501	0.997	-4.486
1249.426	0.997	-4.504	0.079	85.483	0.079	85.483	0.997	-4.504
1254.402	0.997	-4.522	0.079	85.465	0.079	85.465	0.997	-4.522
1259.378	0.997	-4.54	0.079	85.447	0.079	85.447	0.997	-4.54
1264.353	0.997	-4.558	0.079	85.429	0.079	85.429	0.997	-4.558
1269.329	0.997	-4.576	0.08	85.411	0.08	85.411	0.997	-4.576
1274.305	0.997	-4.594	0.08	85.393	0.08	85.393	0.997	-4.594
1279.281	0.997	-4.612	0.08	85.375	0.08	85.375	0.997	-4.612
1284.257	0.997	-4.63	0.081	85.357	0.081	85.357	0.997	-4.63
1289.233	0.997	-4.648	0.081	85.338	0.081	85.338	0.997	-4.648
1294.209	0.997	-4.666	0.081	85.32	0.081	85.32	0.997	-4.666
1299.185	0.997	-4.684	0.082	85.302	0.082	85.302	0.997	-4.684
1304.16	0.997	-4.702	0.082	85.284	0.082	85.284	0.997	-4.702
1309.136	0.997	-4.72	0.082	85.266	0.082	85.266	0.997	-4.72
1314.112	0.997	-4.738	0.083	85.248	0.083	85.248	0.997	-4.738
1319.088	0.997	-4.756	0.083	85.23	0.083	85.23	0.997	-4.756
1324.064	0.997	-4.774	0.083	85.212	0.083	85.212	0.997	-4.774
1329.04	0.996	-4.792	0.084	85.194	0.084	85.194	0.996	-4.792
1334.016	0.996	-4.81	0.084	85.176	0.084	85.176	0.996	-4.81
1338.992	0.996	-4.828	0.084	85.158	0.084	85.158	0.996	-4.828
1343.967	0.996	-4.846	0.084	85.14	0.084	85.14	0.996	-4.846
1348.943	0.996	-4.864	0.085	85.122	0.085	85.122	0.996	-4.864
1353.919	0.996	-4.882	0.085	85.104	0.085	85.104	0.996	-4.882
1358.895	0.996	-4.9	0.085	85.086	0.085	85.086	0.996	-4.9
1363.871	0.996	-4.918	0.086	85.068	0.086	85.068	0.996	-4.918
1368.847	0.996	-4.936	0.086	85.05	0.086	85.05	0.996	-4.936
1373.823	0.996	-4.954	0.086	85.032	0.086	85.032	0.996	-4.954
1378.798	0.996	-4.972	0.087	85.014	0.087	85.014	0.996	-4.972
1383.774	0.996	-4.99	0.087	84.995	0.087	84.995	0.996	-4.99
1388.75	0.996	-5.008	0.087	84.977	0.087	84.977	0.996	-5.008
1393.726	0.996	-5.026	0.088	84.959	0.088	84.959	0.996	-5.026
1398.702	0.996	-5.044	0.088	84.941	0.088	84.941	0.996	-5.044
1403.678	0.996	-5.063	0.088	84.923	0.088	84.923	0.996	-5.063
1408.654	0.996	-5.081	0.089	84.905	0.089	84.905	0.996	-5.081
1413.63	0.996	-5.099	0.089	84.887	0.089	84.887	0.996	-5.099
1418.605	0.996	-5.117	0.089	84.869	0.089	84.869	0.996	-5.117
1423.581	0.996	-5.135	0.089	84.851	0.089	84.851	0.996	-5.135
1428.557	0.996	-5.153	0.09	84.833	0.09	84.833	0.996	-5.153
1433.533	0.996	-5.171	0.09	84.815	0.09	84.815	0.996	-5.171
1438.509	0.996	-5.189	0.09	84.797	0.09	84.797	0.996	-5.189
1443.485	0.996	-5.207	0.091	84.779	0.091	84.779	0.996	-5.207
1448.461	0.996	-5.225	0.091	84.761	0.091	84.761	0.996	-5.225
1453.437	0.996	-5.243	0.091	84.743	0.091	84.743	0.996	-5.243
1458.412	0.996	-5.261	0.092	84.724	0.092	84.724	0.996	-5.261
1463.388	0.996	-5.279	0.092	84.706	0.092	84.706	0.996	-5.279
1468.364	0.996	-5.297	0.092	84.688	0.092	84.688	0.996	-5.297
1473.34	0.996	-5.315	0.093	84.67	0.093	84.67	0.996	-5.315
1478.316	0.996	-5.333	0.093	84.652	0.093	84.652	0.996	-5.333
1483.292	0.996	-5.351	0.093	84.634	0.093	84.634	0.996	-5.351
1488.268	0.996	-5.369	0.094	84.616	0.094	84.616	0.996	-5.369
1493.243	0.996	-5.387	0.094	84.598	0.094	84.598	0.996	-5.387
1498.219	0.996	-5.405	0.094	84.58	0.094	84.58	0.996	-5.405
1503.195	0.995	-5.423	0.095	84.562	0.095	84.562	0.995	-5.423
1508.171	0.995	-5.441	0.095	84.544	0.095	84.544	0.995	-5.441
1513.147	0.995	-5.459	0.095	84.526	0.095	84.526	0.995	-5.459
1518.123	0.995	-5.477	0.095	84.508	0.095	84.508	0.995	-5.477
1523.099	0.995	-5.495	0.096	84.49	0.096	84.49	0.995	-5.495
1528.075	0.995	-5.513	0.096	84.471	0.096	84.471	0.995	-5.513
1533.05	0.995	-5.531	0.096	84.453	0.096	84.453	0.995	-5.531
1538.026	0.995	-5.549	0.097	84.435	0.097	84.435	0.995	-5.549
1543.002	0.995	-5.567	0.097	84.417	0.097	84.417	0.995	-5.567
1547.978	0.995	-5.585	0.097	84.399	0.097	84.399	0.995	-5.585
1552.954	0.995	-5.603	0.098	84.381	0.098	84.381	0.995	-5.603
1557.93	0.995	-5.621	0.098	84.363	0.098	84.363	0.995	-5.621
1562.906	0.995	-5.639	0.098	84.345	0.098	84.345	0.995	-5.639
1567.882	0.995	-5.657	0.099	84.327	0.099	84.327	0.995	-5.657
1572.857	0.995	-5.675	0.099	84.309	0.099	84.309	0.995	-5.675
1577.833	0.995	-5.693	0.099	84.291	0.099	84.291	0.995	-5.693
1582.809	0.995	-5.711	0.1	84.272	0.1	84.272	0.995	-5.711
1587.785	0.995	-5.729	0.1	84.254	0.1	84.254	0.995	-5.729
1592.761	0.995	-5.747	0.1	84.236	0.1	84.236	0.995	-5.747
1597.737	0.995	-5.766	0.1	84.218	0.1	84.218	0.995	-5.766
1602.713	0.995	-5.784	0.101	84.2	0.101	84.2	0.995	-5.784
1607.688	0.995	-5.802	0.101	84.182	0.101	84.182	0.995	-5.802
1612.664	0.995	-5.82	0.101	84.164	0.101	84.164	0.995	-5.82
1617.64	0.995	-5.838	0.102	84.146	0.102	84.146	0.995	-5.838
1622.616	0.995	-5.856	0.102	84.128	0.102	84.128	0.995	-5.856
1627.592	0.995	-5.874	0.102	84.11	0.102	84.11	0.995	-5.874
1632.568	0.995	-5.892	0.103	84.092	0.103	84.092	0.995	-5.892
1637.544	0.995	-5.91	0.103	84.073	0.103	84.073	0.995	-5.91
1642.52	0.995	-5.928	0.103	84.055	0.103	84.055	0.995	-5.928
1647.495	0.995	-5.946	0.104	84.037	0.104	84.037	0.995	-5.946
1652.471	0.995	-5.964	0.104	84.019	0.104	84.019	0.995	-5.964
1657.447	0.995	-5.982	0.104	84.001	0.104	84.001	0.995	-5.982
1662.423	0.994	-6	0.105	83.983	0.105	83.983	0.994	-6
1667.399	0.994	-6.018	0.105	83.965	0.105	83.965	0.994	-6.018
1672.375	0.994	-6.036	0.105	83.947	0.105	83.947	0.994	-6.036
1677.351	0.994	-6.054	0.105	83.929	0.105	83.929	0.994	-6.054
1682.327	0.994	-6.072	0.106	83.911	0.106	83.911	0.994	-6.072
1687.302	0.994	-6.09	0.106	83.892	0.106	83.892	0.994	-6.09
1692.278	0.994	-6.108	0.106	83.874	0.106	83.874	0.994	-6.108
1697.254	0.994	-6.126	0.107	83.856	0.107	83.856	0.994	-6.126
1702.23	0.994	-6.145	0.107	83.838	0.107	83.838	0.994	-6.145
1707.206	0.994	-6.163	0.107	83.82	0.107	83.82	0.994	-6.163
1712.182	0.994	-6.181	0.108	83.802	0.108	83.802	0.994	-6.181
1717.158	0.994	-6.199	0.108	83.784	0.108	83.784	0.994	-6.199
1722.133	0.994	-6.217	0.108	83.766	0.108	83.766	0.994	-6.217
1727.109	0.994	-6.235	0.109	83.748	0.109	83.748	0.994	-6.235
1732.085	0.994	-6.253	0.109	83.729	0.109	83.729	0.994	-6.253
1737.061	0.994	-6.271	0.109	83.711	0.109	83.711	0.994	-6.271
1742.037	0.994	-6.289	0.11	83.693	0.11	83.693	0.994	-6.289
1747.013	0.994	-6.307	0.11	83.675	0.11	83.675	0.994	-6.307
1751.989	0.994	-6.325	0.11	83.657	0.11	83.657	0.994	-6.325
1756.965	0.994	-6.343	0.11	83.639	0.11	83.639	0.994	-6.343
1761.94	0.994	-6.361	0.111	83.621	0.111	83.621	0.994	-6.361
1766.916	0.994	-6.379	0.111	83.603	0.111	83.603	0.994	-6.379
1771.892	0.994	-6.397	0.111	83.585	0.111	83.585	0.994	-6.397
1776.868	0.994	-6.416	0.112	83.566	0.112	83.566	0.994	-6.416
1781.844	0.994	-6.434	0.112	83.548	0.112	83.548	0.994	-6.434
1786.82	0.994	-6.452	0.112	83.53	0.112	83.53	0.994	-6.452
