! AVX Thin Film Operation		Date: April 2012 
! Description: Accu-P® Series, Thin Film, SMD, RF Capacitor
! Part Number: 08051J100FBTTR					
!	50	MHz	-	20.05	GHz			
!	Serial	Measurements						
!								
#	MHZ	S	MA	R	50			
!	S11	S21	S12	S22				
!	dB	Phase	dB	Phase	dB	Phase	dB	Phase
50 0.954 -17.446 0.3 72.473 0.3 72.473 0.954 -17.446
100 0.845 -32.189 0.533 57.705 0.533 57.705 0.845 -32.189
150 0.725 -43.435 0.688 46.435 0.688 46.435 0.725 -43.435
200 0.617 -51.728 0.785 38.117 0.785 38.117 0.617 -51.728
250 0.529 -57.876 0.847 31.943 0.847 31.943 0.529 -57.876
300 0.458 -62.532 0.887 27.261 0.887 27.261 0.458 -62.532
350 0.401 -66.146 0.915 23.619 0.915 23.619 0.401 -66.146
400 0.354 -69.021 0.934 20.716 0.934 20.716 0.354 -69.021
450 0.315 -71.357 0.948 18.35 0.948 18.35 0.315 -71.357
500 0.282 -73.292 0.958 16.384 0.958 16.384 0.282 -73.292
550 0.254 -74.921 0.966 14.722 0.966 14.722 0.254 -74.921
600 0.23 -76.313 0.972 13.296 0.972 13.296 0.23 -76.313
650 0.209 -77.516 0.976 12.056 0.976 12.056 0.209 -77.516
700 0.19 -78.568 0.98 10.964 0.98 10.964 0.19 -78.568
750 0.174 -79.496 0.983 9.994 0.983 9.994 0.174 -79.496
800 0.159 -80.32 0.986 9.124 0.986 9.124 0.159 -80.32
850 0.145 -81.058 0.988 8.337 0.988 8.337 0.145 -81.058
900 0.133 -81.72 0.99 7.62 0.99 7.62 0.133 -81.72
950 0.121 -82.319 0.991 6.962 0.991 6.962 0.121 -82.319
1000 0.111 -82.859 0.992 6.355 0.992 6.355 0.111 -82.859
1050 0.101 -83.349 0.993 5.792 0.993 5.792 0.101 -83.349
1100 0.092 -83.791 0.994 5.267 0.994 5.267 0.092 -83.791
1150 0.083 -84.188 0.995 4.775 0.995 4.775 0.083 -84.188
1200 0.075 -84.541 0.996 4.311 0.996 4.311 0.075 -84.541
1250 0.068 -84.851 0.996 3.874 0.996 3.874 0.068 -84.851
1300 0.06 -85.115 0.997 3.459 0.997 3.459 0.06 -85.115
1350 0.053 -85.328 0.997 3.065 0.997 3.065 0.053 -85.328
1400 0.047 -85.481 0.997 2.689 0.997 2.689 0.047 -85.481
1450 0.041 -85.561 0.998 2.329 0.998 2.329 0.041 -85.561
1500 0.035 -85.541 0.998 1.984 0.998 1.984 0.035 -85.541
1550 0.029 -85.378 0.998 1.653 0.998 1.653 0.029 -85.378
1600 0.023 -84.99 0.998 1.333 0.998 1.333 0.023 -84.99
1650 0.018 -84.197 0.998 1.025 0.998 1.025 0.018 -84.197
1700 0.013 -82.549 0.998 0.726 0.998 0.726 0.013 -82.549
1750 7.772e-3 -78.479 0.998 0.437 0.998 0.437 7.772e-3 -78.479
1800 3.11e-3 -61.136 0.999 0.156 0.999 0.156 3.11e-3 -61.136
1850 2.524e-3 53.596 0.999 -0.117 0.999 -0.117 2.524e-3 53.596
1900 6.837e-3 76.995 0.998 -0.382 0.998 -0.382 6.837e-3 76.995
1950 0.011 81.754 0.998 -0.641 0.998 -0.641 0.011 81.754
2000 0.016 83.635 0.998 -0.894 0.998 -0.894 0.016 83.635
2050 0.02 84.567 0.998 -1.141 0.998 -1.141 0.02 84.567
2100 0.024 85.072 0.998 -1.383 0.998 -1.383 0.024 85.072
2150 0.028 85.351 0.998 -1.62 0.998 -1.62 0.028 85.351
2200 0.032 85.497 0.998 -1.852 0.998 -1.852 0.032 85.497
2250 0.036 85.559 0.998 -2.08 0.998 -2.08 0.036 85.559
2300 0.04 85.563 0.998 -2.304 0.998 -2.304 0.04 85.563
2350 0.044 85.528 0.998 -2.524 0.998 -2.524 0.044 85.528
2400 0.048 85.464 0.997 -2.74 0.997 -2.74 0.048 85.464
2450 0.052 85.38 0.997 -2.953 0.997 -2.953 0.052 85.38
2500 0.055 85.279 0.997 -3.163 0.997 -3.163 0.055 85.279
2550 0.059 85.167 0.997 -3.37 0.997 -3.37 0.059 85.167
2600 0.062 85.046 0.997 -3.574 0.997 -3.574 0.062 85.046
2650 0.066 84.917 0.996 -3.776 0.996 -3.776 0.066 84.917
2700 0.069 84.783 0.996 -3.975 0.996 -3.975 0.069 84.783
2750 0.073 84.644 0.996 -4.171 0.996 -4.171 0.073 84.644
2800 0.076 84.502 0.996 -4.365 0.996 -4.365 0.076 84.502
2850 0.079 84.356 0.995 -4.557 0.995 -4.557 0.079 84.356
2900 0.083 84.209 0.995 -4.747 0.995 -4.747 0.083 84.209
2950 0.086 84.06 0.995 -4.935 0.995 -4.935 0.086 84.06
3000 0.089 83.91 0.994 -5.121 0.994 -5.121 0.089 83.91
3050 0.092 83.758 0.994 -5.306 0.994 -5.306 0.092 83.758
3100 0.096 83.606 0.994 -5.488 0.994 -5.488 0.096 83.606
3150 0.099 83.453 0.994 -5.67 0.994 -5.67 0.099 83.453
3200 0.102 83.3 0.993 -5.849 0.993 -5.849 0.102 83.3
3250 0.105 83.146 0.993 -6.027 0.993 -6.027 0.105 83.146
3300 0.108 82.993 0.993 -6.204 0.993 -6.204 0.108 82.993
3350 0.111 82.839 0.992 -6.379 0.992 -6.379 0.111 82.839
3400 0.114 82.685 0.992 -6.553 0.992 -6.553 0.114 82.685
3450 0.117 82.531 0.992 -6.725 0.992 -6.725 0.117 82.531
3500 0.12 82.378 0.991 -6.897 0.991 -6.897 0.12 82.378
3550 0.123 82.224 0.991 -7.067 0.991 -7.067 0.123 82.224
3600 0.126 82.071 0.991 -7.236 0.991 -7.236 0.126 82.071
3650 0.129 81.918 0.99 -7.404 0.99 -7.404 0.129 81.918
3700 0.132 81.766 0.99 -7.571 0.99 -7.571 0.132 81.766
3750 0.135 81.613 0.989 -7.737 0.989 -7.737 0.135 81.613
3800 0.137 81.461 0.989 -7.902 0.989 -7.902 0.137 81.461
3850 0.14 81.31 0.989 -8.066 0.989 -8.066 0.14 81.31
3900 0.143 81.158 0.988 -8.229 0.988 -8.229 0.143 81.158
3950 0.146 81.007 0.988 -8.391 0.988 -8.391 0.146 81.007
4000 0.149 80.857 0.987 -8.553 0.987 -8.553 0.149 80.857
4050 0.151 80.706 0.987 -8.713 0.987 -8.713 0.151 80.706
4100 0.154 80.557 0.986 -8.873 0.986 -8.873 0.154 80.557
4150 0.157 80.407 0.986 -9.032 0.986 -9.032 0.157 80.407
4200 0.16 80.258 0.986 -9.19 0.986 -9.19 0.16 80.258
4250 0.162 80.109 0.985 -9.348 0.985 -9.348 0.162 80.109
4300 0.165 79.961 0.985 -9.504 0.985 -9.504 0.165 79.961
4350 0.168 79.813 0.984 -9.661 0.984 -9.661 0.168 79.813
4400 0.17 79.666 0.984 -9.816 0.984 -9.816 0.17 79.666
4450 0.173 79.519 0.983 -9.971 0.983 -9.971 0.173 79.519
4500 0.176 79.372 0.983 -10.125 0.983 -10.125 0.176 79.372
4550 0.178 79.226 0.982 -10.278 0.982 -10.278 0.178 79.226
4600 0.181 79.08 0.982 -10.431 0.982 -10.431 0.181 79.08
4650 0.184 78.934 0.981 -10.583 0.981 -10.583 0.184 78.934
4700 0.186 78.789 0.981 -10.735 0.981 -10.735 0.186 78.789
4750 0.189 78.644 0.98 -10.886 0.98 -10.886 0.189 78.644
4800 0.191 78.499 0.98 -11.036 0.98 -11.036 0.191 78.499
4850 0.194 78.355 0.979 -11.186 0.979 -11.186 0.194 78.355
4900 0.197 78.212 0.979 -11.335 0.979 -11.335 0.197 78.212
4950 0.199 78.068 0.978 -11.484 0.978 -11.484 0.199 78.068
5000 0.202 77.925 0.978 -11.632 0.978 -11.632 0.202 77.925
5050 0.204 77.782 0.977 -11.78 0.977 -11.78 0.204 77.782
5100 0.207 77.64 0.977 -11.928 0.977 -11.928 0.207 77.64
5150 0.209 77.498 0.976 -12.074 0.976 -12.074 0.209 77.498
5200 0.212 77.357 0.976 -12.221 0.976 -12.221 0.212 77.357
5250 0.214 77.215 0.975 -12.367 0.975 -12.367 0.214 77.215
5300 0.217 77.074 0.975 -12.512 0.975 -12.512 0.217 77.074
5350 0.219 76.934 0.974 -12.657 0.974 -12.657 0.219 76.934
5400 0.222 76.793 0.974 -12.802 0.974 -12.802 0.222 76.793
5450 0.224 76.654 0.973 -12.946 0.973 -12.946 0.224 76.654
5500 0.226 76.514 0.972 -13.089 0.972 -13.089 0.226 76.514
5550 0.229 76.375 0.972 -13.232 0.972 -13.232 0.229 76.375
5600 0.231 76.236 0.971 -13.375 0.971 -13.375 0.231 76.236
5650 0.234 76.097 0.971 -13.518 0.971 -13.518 0.234 76.097
5700 0.236 75.959 0.97 -13.66 0.97 -13.66 0.236 75.959
5750 0.239 75.821 0.97 -13.801 0.97 -13.801 0.239 75.821
5800 0.241 75.683 0.969 -13.942 0.969 -13.942 0.241 75.683
5850 0.243 75.546 0.968 -14.083 0.968 -14.083 0.243 75.546
5900 0.246 75.409 0.968 -14.224 0.968 -14.224 0.246 75.409
5950 0.248 75.272 0.967 -14.364 0.967 -14.364 0.248 75.272
6000 0.25 75.135 0.967 -14.503 0.967 -14.503 0.25 75.135
6050 0.253 74.999 0.966 -14.642 0.966 -14.642 0.253 74.999
6100 0.255 74.864 0.965 -14.781 0.965 -14.781 0.255 74.864
6150 0.257 74.728 0.965 -14.92 0.965 -14.92 0.257 74.728
6200 0.26 74.593 0.964 -15.058 0.964 -15.058 0.26 74.593
6250 0.262 74.458 0.963 -15.196 0.963 -15.196 0.262 74.458
6300 0.264 74.323 0.963 -15.333 0.963 -15.333 0.264 74.323
6350 0.267 74.189 0.962 -15.47 0.962 -15.47 0.267 74.189
6400 0.269 74.055 0.962 -15.607 0.962 -15.607 0.269 74.055
6450 0.271 73.921 0.961 -15.743 0.961 -15.743 0.271 73.921
6500 0.274 73.788 0.96 -15.879 0.96 -15.879 0.274 73.788
6550 0.276 73.654 0.96 -16.015 0.96 -16.015 0.276 73.654
6600 0.278 73.521 0.959 -16.151 0.959 -16.151 0.278 73.521
6650 0.28 73.389 0.958 -16.286 0.958 -16.286 0.28 73.389
6700 0.283 73.256 0.958 -16.42 0.958 -16.42 0.283 73.256
6750 0.285 73.124 0.957 -16.555 0.957 -16.555 0.285 73.124
6800 0.287 72.993 0.956 -16.689 0.956 -16.689 0.287 72.993
6850 0.289 72.861 0.956 -16.823 0.956 -16.823 0.289 72.861
6900 0.292 72.73 0.955 -16.956 0.955 -16.956 0.292 72.73
6950 0.294 72.599 0.954 -17.089 0.954 -17.089 0.294 72.599
7000 0.296 72.468 0.954 -17.222 0.954 -17.222 0.296 72.468
7050 0.298 72.338 0.953 -17.354 0.953 -17.354 0.298 72.338
7100 0.3 72.208 0.952 -17.487 0.952 -17.487 0.3 72.208
7150 0.303 72.078 0.951 -17.619 0.951 -17.619 0.303 72.078
7200 0.305 71.948 0.951 -17.75 0.951 -17.75 0.305 71.948
7250 0.307 71.819 0.95 -17.881 0.95 -17.881 0.307 71.819
7300 0.309 71.69 0.949 -18.012 0.949 -18.012 0.309 71.69
7350 0.311 71.561 0.949 -18.143 0.949 -18.143 0.311 71.561
7400 0.314 71.433 0.948 -18.273 0.948 -18.273 0.314 71.433
7450 0.316 71.305 0.947 -18.403 0.947 -18.403 0.316 71.305
7500 0.318 71.177 0.947 -18.533 0.947 -18.533 0.318 71.177
7550 0.32 71.049 0.946 -18.663 0.946 -18.663 0.32 71.049
7600 0.322 70.922 0.945 -18.792 0.945 -18.792 0.322 70.922
7650 0.324 70.794 0.944 -18.921 0.944 -18.921 0.324 70.794
7700 0.326 70.667 0.944 -19.049 0.944 -19.049 0.326 70.667
7750 0.329 70.541 0.943 -19.178 0.943 -19.178 0.329 70.541
7800 0.331 70.414 0.942 -19.306 0.942 -19.306 0.331 70.414
7850 0.333 70.288 0.941 -19.433 0.941 -19.433 0.333 70.288
7900 0.335 70.162 0.941 -19.561 0.941 -19.561 0.335 70.162
7950 0.337 70.037 0.94 -19.688 0.94 -19.688 0.337 70.037
8000 0.339 69.912 0.939 -19.815 0.939 -19.815 0.339 69.912
8050 0.341 69.786 0.938 -19.942 0.938 -19.942 0.341 69.786
8100 0.343 69.662 0.938 -20.068 0.938 -20.068 0.343 69.662
8150 0.345 69.537 0.937 -20.194 0.937 -20.194 0.345 69.537
8200 0.347 69.413 0.936 -20.32 0.936 -20.32 0.347 69.413
8250 0.349 69.289 0.935 -20.445 0.935 -20.445 0.349 69.289
8300 0.351 69.165 0.935 -20.57 0.935 -20.57 0.351 69.165
8350 0.353 69.041 0.934 -20.695 0.934 -20.695 0.353 69.041
8400 0.355 68.918 0.933 -20.82 0.933 -20.82 0.355 68.918
8450 0.357 68.795 0.932 -20.944 0.932 -20.944 0.357 68.795
8500 0.359 68.672 0.932 -21.069 0.932 -21.069 0.359 68.672
8550 0.362 68.55 0.931 -21.192 0.931 -21.192 0.362 68.55
8600 0.364 68.427 0.93 -21.316 0.93 -21.316 0.364 68.427
8650 0.366 68.305 0.929 -21.439 0.929 -21.439 0.366 68.305
8700 0.368 68.184 0.928 -21.562 0.928 -21.562 0.368 68.184
8750 0.37 68.062 0.928 -21.685 0.928 -21.685 0.37 68.062
8800 0.371 67.941 0.927 -21.808 0.927 -21.808 0.371 67.941
8850 0.373 67.82 0.926 -21.93 0.926 -21.93 0.373 67.82
8900 0.375 67.699 0.925 -22.052 0.925 -22.052 0.375 67.699
8950 0.377 67.579 0.924 -22.174 0.924 -22.174 0.377 67.579
9000 0.379 67.458 0.924 -22.295 0.924 -22.295 0.379 67.458
9050 0.381 67.338 0.923 -22.416 0.923 -22.416 0.381 67.338
9100 0.383 67.219 0.922 -22.537 0.922 -22.537 0.383 67.219
9150 0.385 67.099 0.921 -22.658 0.921 -22.658 0.385 67.099
9200 0.387 66.98 0.92 -22.778 0.92 -22.778 0.387 66.98
9250 0.389 66.861 0.92 -22.898 0.92 -22.898 0.389 66.861
9300 0.391 66.742 0.919 -23.018 0.919 -23.018 0.391 66.742
9350 0.393 66.623 0.918 -23.138 0.918 -23.138 0.393 66.623
9400 0.395 66.505 0.917 -23.257 0.917 -23.257 0.395 66.505
9450 0.397 66.387 0.916 -23.376 0.916 -23.376 0.397 66.387
9500 0.399 66.269 0.915 -23.495 0.915 -23.495 0.399 66.269
9550 0.401 66.152 0.915 -23.613 0.915 -23.613 0.401 66.152
9600 0.402 66.035 0.914 -23.732 0.914 -23.732 0.402 66.035
9650 0.404 65.918 0.913 -23.85 0.913 -23.85 0.404 65.918
9700 0.406 65.801 0.912 -23.968 0.912 -23.968 0.406 65.801
9750 0.408 65.684 0.911 -24.085 0.911 -24.085 0.408 65.684
9800 0.41 65.568 0.91 -24.202 0.91 -24.202 0.41 65.568
9850 0.412 65.452 0.91 -24.319 0.91 -24.319 0.412 65.452
9900 0.414 65.336 0.909 -24.436 0.909 -24.436 0.414 65.336
9950 0.416 65.22 0.908 -24.553 0.908 -24.553 0.416 65.22
10000 0.417 65.105 0.907 -24.669 0.907 -24.669 0.417 65.105
10050 0.419 64.99 0.906 -24.785 0.906 -24.785 0.419 64.99
10100 0.421 64.875 0.905 -24.901 0.905 -24.901 0.421 64.875
10150 0.423 64.761 0.905 -25.016 0.905 -25.016 0.423 64.761
10200 0.425 64.646 0.904 -25.131 0.904 -25.131 0.425 64.646
10250 0.427 64.532 0.903 -25.246 0.903 -25.246 0.427 64.532
10300 0.428 64.418 0.902 -25.361 0.902 -25.361 0.428 64.418
10350 0.43 64.305 0.901 -25.476 0.901 -25.476 0.43 64.305
10400 0.432 64.191 0.9 -25.59 0.9 -25.59 0.432 64.191
10450 0.434 64.078 0.899 -25.704 0.899 -25.704 0.434 64.078
10500 0.436 63.965 0.899 -25.818 0.899 -25.818 0.436 63.965
10550 0.437 63.853 0.898 -25.931 0.898 -25.931 0.437 63.853
10600 0.439 63.74 0.897 -26.044 0.897 -26.044 0.439 63.74
10650 0.441 63.628 0.896 -26.157 0.896 -26.157 0.441 63.628
10700 0.443 63.516 0.895 -26.27 0.895 -26.27 0.443 63.516
10750 0.444 63.404 0.894 -26.382 0.894 -26.382 0.444 63.404
10800 0.446 63.293 0.893 -26.495 0.893 -26.495 0.446 63.293
10850 0.448 63.182 0.892 -26.607 0.892 -26.607 0.448 63.182
10900 0.45 63.071 0.892 -26.718 0.892 -26.718 0.45 63.071
10950 0.451 62.96 0.891 -26.83 0.891 -26.83 0.451 62.96
11000 0.453 62.85 0.89 -26.941 0.89 -26.941 0.453 62.85
11050 0.455 62.739 0.889 -27.052 0.889 -27.052 0.455 62.739
11100 0.457 62.629 0.888 -27.163 0.888 -27.163 0.457 62.629
11150 0.458 62.52 0.887 -27.273 0.887 -27.273 0.458 62.52
11200 0.46 62.41 0.886 -27.384 0.886 -27.384 0.46 62.41
11250 0.462 62.301 0.885 -27.494 0.885 -27.494 0.462 62.301
11300 0.463 62.192 0.885 -27.603 0.885 -27.603 0.463 62.192
11350 0.465 62.083 0.884 -27.713 0.884 -27.713 0.465 62.083
11400 0.467 61.974 0.883 -27.822 0.883 -27.822 0.467 61.974
11450 0.468 61.866 0.882 -27.931 0.882 -27.931 0.468 61.866
11500 0.47 61.758 0.881 -28.04 0.881 -28.04 0.47 61.758
11550 0.472 61.65 0.88 -28.148 0.88 -28.148 0.472 61.65
11600 0.473 61.542 0.879 -28.257 0.879 -28.257 0.473 61.542
11650 0.475 61.435 0.878 -28.365 0.878 -28.365 0.475 61.435
11700 0.477 61.328 0.877 -28.473 0.877 -28.473 0.477 61.328
11750 0.478 61.221 0.876 -28.58 0.876 -28.58 0.478 61.221
11800 0.48 61.114 0.876 -28.688 0.876 -28.688 0.48 61.114
11850 0.482 61.008 0.875 -28.795 0.875 -28.795 0.482 61.008
11900 0.483 60.901 0.874 -28.902 0.874 -28.902 0.483 60.901
11950 0.485 60.795 0.873 -29.008 0.873 -29.008 0.485 60.795
12000 0.487 60.69 0.872 -29.114 0.872 -29.114 0.487 60.69
12050 0.488 60.584 0.871 -29.221 0.871 -29.221 0.488 60.584
12100 0.49 60.479 0.87 -29.327 0.87 -29.327 0.49 60.479
12150 0.491 60.374 0.869 -29.432 0.869 -29.432 0.491 60.374
12200 0.493 60.269 0.868 -29.538 0.868 -29.538 0.493 60.269
12250 0.495 60.164 0.867 -29.643 0.867 -29.643 0.495 60.164
12300 0.496 60.06 0.867 -29.748 0.867 -29.748 0.496 60.06
12350 0.498 59.956 0.866 -29.852 0.866 -29.852 0.498 59.956
12400 0.499 59.852 0.865 -29.957 0.865 -29.957 0.499 59.852
12450 0.501 59.749 0.864 -30.061 0.864 -30.061 0.501 59.749
12500 0.502 59.645 0.863 -30.165 0.863 -30.165 0.502 59.645
12550 0.504 59.542 0.862 -30.269 0.862 -30.269 0.504 59.542
12600 0.506 59.439 0.861 -30.372 0.861 -30.372 0.506 59.439
12650 0.507 59.336 0.86 -30.476 0.86 -30.476 0.507 59.336
12700 0.509 59.234 0.859 -30.579 0.859 -30.579 0.509 59.234
12750 0.51 59.131 0.858 -30.681 0.858 -30.681 0.51 59.131
12800 0.512 59.029 0.857 -30.784 0.857 -30.784 0.512 59.029
12850 0.513 58.928 0.857 -30.886 0.857 -30.886 0.513 58.928
12900 0.515 58.826 0.856 -30.988 0.856 -30.988 0.515 58.826
12950 0.516 58.725 0.855 -31.09 0.855 -31.09 0.516 58.725
13000 0.518 58.624 0.854 -31.192 0.854 -31.192 0.518 58.624
13050 0.519 58.523 0.853 -31.293 0.853 -31.293 0.519 58.523
13100 0.521 58.422 0.852 -31.394 0.852 -31.394 0.521 58.422
13150 0.522 58.322 0.851 -31.495 0.851 -31.495 0.522 58.322
13200 0.524 58.221 0.85 -31.596 0.85 -31.596 0.524 58.221
13250 0.525 58.122 0.849 -31.697 0.849 -31.697 0.525 58.122
13300 0.527 58.022 0.848 -31.797 0.848 -31.797 0.527 58.022
13350 0.528 57.922 0.847 -31.897 0.847 -31.897 0.528 57.922
13400 0.53 57.823 0.846 -31.997 0.846 -31.997 0.53 57.823
13450 0.531 57.724 0.845 -32.096 0.845 -32.096 0.531 57.724
13500 0.533 57.625 0.845 -32.195 0.845 -32.195 0.533 57.625
13550 0.534 57.526 0.844 -32.294 0.844 -32.294 0.534 57.526
13600 0.536 57.428 0.843 -32.393 0.843 -32.393 0.536 57.428
13650 0.537 57.33 0.842 -32.492 0.842 -32.492 0.537 57.33
13700 0.539 57.232 0.841 -32.59 0.841 -32.59 0.539 57.232
13750 0.54 57.134 0.84 -32.689 0.84 -32.689 0.54 57.134
13800 0.542 57.037 0.839 -32.786 0.839 -32.786 0.542 57.037
13850 0.543 56.94 0.838 -32.884 0.838 -32.884 0.543 56.94
13900 0.544 56.843 0.837 -32.982 0.837 -32.982 0.544 56.843
13950 0.546 56.746 0.836 -33.079 0.836 -33.079 0.546 56.746
14000 0.547 56.649 0.835 -33.176 0.835 -33.176 0.547 56.649
14050 0.549 56.553 0.834 -33.273 0.834 -33.273 0.549 56.553
14100 0.55 56.457 0.833 -33.369 0.833 -33.369 0.55 56.457
14150 0.551 56.361 0.833 -33.466 0.833 -33.466 0.551 56.361
14200 0.553 56.265 0.832 -33.562 0.832 -33.562 0.553 56.265
14250 0.554 56.17 0.831 -33.658 0.831 -33.658 0.554 56.17
14300 0.556 56.074 0.83 -33.753 0.83 -33.753 0.556 56.074
14350 0.557 55.979 0.829 -33.849 0.829 -33.849 0.557 55.979
14400 0.558 55.884 0.828 -33.944 0.828 -33.944 0.558 55.884
14450 0.56 55.79 0.827 -34.039 0.827 -34.039 0.56 55.79
14500 0.561 55.696 0.826 -34.134 0.826 -34.134 0.561 55.696
14550 0.562 55.601 0.825 -34.228 0.825 -34.228 0.562 55.601
14600 0.564 55.507 0.824 -34.323 0.824 -34.323 0.564 55.507
14650 0.565 55.414 0.823 -34.417 0.823 -34.417 0.565 55.414
14700 0.567 55.32 0.822 -34.511 0.822 -34.511 0.567 55.32
14750 0.568 55.227 0.821 -34.604 0.821 -34.604 0.568 55.227
14800 0.569 55.134 0.82 -34.698 0.82 -34.698 0.569 55.134
14850 0.571 55.041 0.82 -34.791 0.82 -34.791 0.571 55.041
14900 0.572 54.948 0.819 -34.884 0.819 -34.884 0.572 54.948
14950 0.573 54.856 0.818 -34.977 0.818 -34.977 0.573 54.856
15000 0.575 54.764 0.817 -35.069 0.817 -35.069 0.575 54.764
15050 0.576 54.672 0.816 -35.162 0.816 -35.162 0.576 54.672
15100 0.577 54.58 0.815 -35.254 0.815 -35.254 0.577 54.58
15150 0.579 54.489 0.814 -35.346 0.814 -35.346 0.579 54.489
15200 0.58 54.397 0.813 -35.437 0.813 -35.437 0.58 54.397
15250 0.581 54.306 0.812 -35.529 0.812 -35.529 0.581 54.306
15300 0.582 54.215 0.811 -35.62 0.811 -35.62 0.582 54.215
15350 0.584 54.125 0.81 -35.711 0.81 -35.711 0.584 54.125
15400 0.585 54.034 0.809 -35.802 0.809 -35.802 0.585 54.034
15450 0.586 53.944 0.808 -35.893 0.808 -35.893 0.586 53.944
15500 0.588 53.854 0.808 -35.983 0.808 -35.983 0.588 53.854
15550 0.589 53.764 0.807 -36.073 0.807 -36.073 0.589 53.764
15600 0.59 53.674 0.806 -36.163 0.806 -36.163 0.59 53.674
15650 0.591 53.585 0.805 -36.253 0.805 -36.253 0.591 53.585
15700 0.593 53.496 0.804 -36.343 0.804 -36.343 0.593 53.496
15750 0.594 53.407 0.803 -36.432 0.803 -36.432 0.594 53.407
15800 0.595 53.318 0.802 -36.521 0.802 -36.521 0.595 53.318
15850 0.596 53.23 0.801 -36.61 0.801 -36.61 0.596 53.23
15900 0.598 53.141 0.8 -36.699 0.8 -36.699 0.598 53.141
15950 0.599 53.053 0.799 -36.787 0.799 -36.787 0.599 53.053
16000 0.6 52.965 0.798 -36.875 0.798 -36.875 0.6 52.965
16050 0.601 52.877 0.797 -36.963 0.797 -36.963 0.601 52.877
16100 0.603 52.79 0.796 -37.051 0.796 -37.051 0.603 52.79
16150 0.604 52.703 0.796 -37.139 0.796 -37.139 0.604 52.703
16200 0.605 52.615 0.795 -37.226 0.795 -37.226 0.605 52.615
16250 0.606 52.529 0.794 -37.313 0.794 -37.313 0.606 52.529
16300 0.607 52.442 0.793 -37.4 0.793 -37.4 0.607 52.442
16350 0.609 52.355 0.792 -37.487 0.792 -37.487 0.609 52.355
16400 0.61 52.269 0.791 -37.574 0.791 -37.574 0.61 52.269
16450 0.611 52.183 0.79 -37.66 0.79 -37.66 0.611 52.183
16500 0.612 52.097 0.789 -37.746 0.789 -37.746 0.612 52.097
16550 0.613 52.012 0.788 -37.832 0.788 -37.832 0.613 52.012
16600 0.615 51.926 0.787 -37.918 0.787 -37.918 0.615 51.926
16650 0.616 51.841 0.786 -38.004 0.786 -38.004 0.616 51.841
16700 0.617 51.756 0.785 -38.089 0.785 -38.089 0.617 51.756
16750 0.618 51.671 0.784 -38.174 0.784 -38.174 0.618 51.671
16800 0.619 51.586 0.784 -38.259 0.784 -38.259 0.619 51.586
16850 0.62 51.502 0.783 -38.344 0.783 -38.344 0.62 51.502
16900 0.622 51.418 0.782 -38.428 0.782 -38.428 0.622 51.418
