! AVX Thin Film Operation		Date: April 2012 
! Description: Accu-P® Series, Thin Film, SMD, RF Capacitor
! Part Number: 08055J220FBTTR					
!	50	MHz	-	20.05	GHz			
!	Serial	Measurements						
!								
#	MHZ	S	MA	R	50			
!	S11	S21	S12	S22				
!	dB	Phase	dB	Phase	dB	Phase	dB	Phase
50 0.822 -34.677 0.569 55.278 0.569 55.278 0.822 -34.677
74.958 0.693 -46.082 0.72 43.85 0.72 43.85 0.693 -46.082
99.917 0.584 -54.204 0.811 35.706 0.811 35.706 0.584 -54.204
124.875 0.497 -60.072 0.867 29.815 0.867 29.815 0.497 -60.072
149.833 0.429 -64.431 0.902 25.433 0.902 25.433 0.429 -64.431
174.792 0.376 -67.765 0.926 22.075 0.926 22.075 0.376 -67.765
199.75 0.333 -70.385 0.942 19.432 0.942 19.432 0.333 -70.385
224.708 0.297 -72.492 0.954 17.301 0.954 17.301 0.297 -72.492
249.667 0.268 -74.22 0.962 15.547 0.962 15.547 0.268 -74.22
274.625 0.243 -75.664 0.969 14.079 0.969 14.079 0.243 -75.664
299.583 0.222 -76.886 0.974 12.83 0.974 12.83 0.222 -76.886
324.542 0.204 -77.935 0.978 11.754 0.978 11.754 0.204 -77.935
349.5 0.188 -78.845 0.981 10.816 0.981 10.816 0.188 -78.845
374.458 0.173 -79.643 0.984 9.99 0.984 9.99 0.173 -79.643
399.417 0.161 -80.347 0.986 9.256 0.986 9.256 0.161 -80.347
424.375 0.15 -80.974 0.988 8.598 0.988 8.598 0.15 -80.974
449.333 0.139 -81.535 0.989 8.005 0.989 8.005 0.139 -81.535
474.292 0.13 -82.041 0.99 7.465 0.99 7.465 0.13 -82.041
499.25 0.121 -82.498 0.991 6.973 0.991 6.973 0.121 -82.498
524.208 0.114 -82.914 0.992 6.52 0.992 6.52 0.114 -82.914
549.167 0.106 -83.293 0.993 6.102 0.993 6.102 0.106 -83.293
574.125 0.1 -83.64 0.994 5.714 0.994 5.714 0.1 -83.64
599.083 0.093 -83.957 0.995 5.353 0.995 5.353 0.093 -83.957
624.042 0.087 -84.248 0.995 5.015 0.995 5.015 0.087 -84.248
649 0.082 -84.515 0.996 4.698 0.996 4.698 0.082 -84.515
673.958 0.077 -84.76 0.996 4.399 0.996 4.399 0.077 -84.76
698.917 0.072 -84.985 0.996 4.117 0.996 4.117 0.072 -84.985
723.875 0.067 -85.189 0.997 3.85 0.997 3.85 0.067 -85.189
748.833 0.063 -85.375 0.997 3.596 0.997 3.596 0.063 -85.375
773.792 0.059 -85.542 0.997 3.354 0.997 3.354 0.059 -85.542
798.75 0.054 -85.691 0.997 3.123 0.997 3.123 0.054 -85.691
823.708 0.051 -85.822 0.998 2.903 0.998 2.903 0.051 -85.822
848.667 0.047 -85.933 0.998 2.691 0.998 2.691 0.047 -85.933
873.625 0.043 -86.024 0.998 2.488 0.998 2.488 0.043 -86.024
898.583 0.04 -86.092 0.998 2.292 0.998 2.292 0.04 -86.092
923.542 0.037 -86.136 0.998 2.104 0.998 2.104 0.037 -86.136
948.5 0.034 -86.151 0.998 1.922 0.998 1.922 0.034 -86.151
973.458 0.03 -86.133 0.998 1.746 0.998 1.746 0.03 -86.133
998.417 0.028 -86.074 0.998 1.575 0.998 1.575 0.028 -86.074
1023.375 0.025 -85.964 0.999 1.41 0.999 1.41 0.025 -85.964
1048.333 0.022 -85.788 0.999 1.25 0.999 1.25 0.022 -85.788
1073.292 0.019 -85.522 0.999 1.094 0.999 1.094 0.019 -85.522
1098.25 0.016 -85.129 0.999 0.942 0.999 0.942 0.016 -85.129
1123.208 0.014 -84.548 0.999 0.794 0.999 0.794 0.014 -84.548
1148.167 0.011 -83.662 0.999 0.649 0.999 0.649 0.011 -83.662
1173.125 8.942e-3 -82.24 0.999 0.508 0.999 0.508 8.942e-3 -82.24
1198.083 6.564e-3 -79.727 0.999 0.37 0.999 0.37 6.564e-3 -79.727
1223.042 4.266e-3 -74.419 0.999 0.236 0.999 0.236 4.266e-3 -74.419
1248 2.133e-3 -57.95 0.999 0.104 0.999 0.104 2.133e-3 -57.95
1272.958 1.214e-3 21.563 0.999 -0.026 0.999 -0.026 1.214e-3 21.563
1297.917 2.89e-3 66.853 0.999 -0.152 0.999 -0.152 2.89e-3 66.853
1322.875 4.962e-3 76.574 0.999 -0.277 0.999 -0.277 4.962e-3 76.574
1347.833 7.056e-3 80.395 0.999 -0.399 0.999 -0.399 7.056e-3 80.395
1372.792 9.132e-3 82.38 0.999 -0.519 0.999 -0.519 9.132e-3 82.38
1397.75 0.011 83.568 0.999 -0.637 0.999 -0.637 0.011 83.568
1422.708 0.013 84.341 0.999 -0.754 0.999 -0.754 0.013 84.341
1447.667 0.015 84.871 0.999 -0.868 0.999 -0.868 0.015 84.871
1472.625 0.017 85.246 0.999 -0.981 0.999 -0.981 0.017 85.246
1497.583 0.019 85.518 0.999 -1.092 0.999 -1.092 0.019 85.518
1522.542 0.021 85.717 0.999 -1.201 0.999 -1.201 0.021 85.717
1547.5 0.023 85.863 0.999 -1.309 0.999 -1.309 0.023 85.863
1572.458 0.025 85.969 0.999 -1.416 0.999 -1.416 0.025 85.969
1597.417 0.027 86.045 0.999 -1.521 0.999 -1.521 0.027 86.045
1622.375 0.028 86.097 0.998 -1.625 0.998 -1.625 0.028 86.097
1647.333 0.03 86.129 0.998 -1.728 0.998 -1.728 0.03 86.129
1672.292 0.032 86.147 0.998 -1.83 0.998 -1.83 0.032 86.147
1697.25 0.034 86.151 0.998 -1.931 0.998 -1.931 0.034 86.151
1722.208 0.035 86.146 0.998 -2.03 0.998 -2.03 0.035 86.146
1747.167 0.037 86.132 0.998 -2.129 0.998 -2.129 0.037 86.132
1772.125 0.039 86.111 0.998 -2.226 0.998 -2.226 0.039 86.111
1797.083 0.041 86.083 0.998 -2.323 0.998 -2.323 0.041 86.083
1822.042 0.042 86.051 0.998 -2.418 0.998 -2.418 0.042 86.051
1847 0.044 86.014 0.998 -2.513 0.998 -2.513 0.044 86.014
1871.958 0.046 85.973 0.998 -2.607 0.998 -2.607 0.046 85.973
1896.917 0.047 85.929 0.998 -2.7 0.998 -2.7 0.047 85.929
1921.875 0.049 85.882 0.998 -2.793 0.998 -2.793 0.049 85.882
1946.833 0.05 85.832 0.998 -2.884 0.998 -2.884 0.05 85.832
1971.792 0.052 85.781 0.998 -2.975 0.998 -2.975 0.052 85.781
1996.75 0.053 85.727 0.997 -3.066 0.997 -3.066 0.053 85.727
2021.708 0.055 85.672 0.997 -3.155 0.997 -3.155 0.055 85.672
2046.667 0.057 85.615 0.997 -3.244 0.997 -3.244 0.057 85.615
2071.625 0.058 85.557 0.997 -3.332 0.997 -3.332 0.058 85.557
2096.583 0.06 85.498 0.997 -3.42 0.997 -3.42 0.06 85.498
2121.542 0.061 85.437 0.997 -3.507 0.997 -3.507 0.061 85.437
2146.5 0.063 85.376 0.997 -3.594 0.997 -3.594 0.063 85.376
2171.458 0.064 85.314 0.997 -3.68 0.997 -3.68 0.064 85.314
2196.417 0.066 85.252 0.997 -3.766 0.997 -3.766 0.066 85.252
2221.375 0.067 85.188 0.997 -3.851 0.997 -3.851 0.067 85.188
2246.333 0.069 85.125 0.997 -3.935 0.997 -3.935 0.069 85.125
2271.292 0.07 85.06 0.996 -4.019 0.996 -4.019 0.07 85.06
2296.25 0.072 84.995 0.996 -4.103 0.996 -4.103 0.072 84.995
2321.208 0.073 84.93 0.996 -4.186 0.996 -4.186 0.073 84.93
2346.167 0.074 84.864 0.996 -4.269 0.996 -4.269 0.074 84.864
2371.125 0.076 84.799 0.996 -4.352 0.996 -4.352 0.076 84.799
2396.083 0.077 84.732 0.996 -4.434 0.996 -4.434 0.077 84.732
2421.042 0.079 84.666 0.996 -4.515 0.996 -4.515 0.079 84.666
2446 0.08 84.599 0.996 -4.596 0.996 -4.596 0.08 84.599
2470.958 0.082 84.532 0.996 -4.677 0.996 -4.677 0.082 84.532
2495.917 0.083 84.465 0.995 -4.758 0.995 -4.758 0.083 84.465
2520.875 0.084 84.398 0.995 -4.838 0.995 -4.838 0.084 84.398
2545.833 0.086 84.331 0.995 -4.918 0.995 -4.918 0.086 84.331
2570.792 0.087 84.263 0.995 -4.997 0.995 -4.997 0.087 84.263
2595.75 0.088 84.196 0.995 -5.076 0.995 -5.076 0.088 84.196
2620.708 0.09 84.128 0.995 -5.155 0.995 -5.155 0.09 84.128
2645.667 0.091 84.06 0.995 -5.233 0.995 -5.233 0.091 84.06
2670.625 0.093 83.993 0.995 -5.312 0.995 -5.312 0.093 83.993
2695.583 0.094 83.925 0.994 -5.39 0.994 -5.39 0.094 83.925
2720.542 0.095 83.857 0.994 -5.467 0.994 -5.467 0.095 83.857
2745.5 0.097 83.789 0.994 -5.545 0.994 -5.545 0.097 83.789
2770.458 0.098 83.721 0.994 -5.622 0.994 -5.622 0.098 83.721
2795.417 0.099 83.653 0.994 -5.699 0.994 -5.699 0.099 83.653
2820.375 0.101 83.585 0.994 -5.775 0.994 -5.775 0.101 83.585
2845.333 0.102 83.517 0.994 -5.852 0.994 -5.852 0.102 83.517
2870.292 0.103 83.449 0.994 -5.928 0.994 -5.928 0.103 83.449
2895.25 0.105 83.381 0.993 -6.004 0.993 -6.004 0.105 83.381
2920.208 0.106 83.313 0.993 -6.079 0.993 -6.079 0.106 83.313
2945.167 0.107 83.245 0.993 -6.155 0.993 -6.155 0.107 83.245
2970.125 0.109 83.178 0.993 -6.23 0.993 -6.23 0.109 83.178
2995.083 0.11 83.11 0.993 -6.305 0.993 -6.305 0.11 83.11
3020.042 0.111 83.042 0.993 -6.38 0.993 -6.38 0.111 83.042
3045 0.112 82.974 0.993 -6.454 0.993 -6.454 0.112 82.974
3069.958 0.114 82.906 0.992 -6.529 0.992 -6.529 0.114 82.906
3094.917 0.115 82.838 0.992 -6.603 0.992 -6.603 0.115 82.838
3119.875 0.116 82.771 0.992 -6.677 0.992 -6.677 0.116 82.771
3144.833 0.118 82.703 0.992 -6.751 0.992 -6.751 0.118 82.703
3169.792 0.119 82.635 0.992 -6.824 0.992 -6.824 0.119 82.635
3194.75 0.12 82.568 0.992 -6.898 0.992 -6.898 0.12 82.568
3219.708 0.121 82.5 0.991 -6.971 0.991 -6.971 0.121 82.5
3244.667 0.123 82.433 0.991 -7.044 0.991 -7.044 0.123 82.433
3269.625 0.124 82.365 0.991 -7.117 0.991 -7.117 0.124 82.365
3294.583 0.125 82.298 0.991 -7.189 0.991 -7.189 0.125 82.298
3319.542 0.126 82.23 0.991 -7.262 0.991 -7.262 0.126 82.23
3344.5 0.128 82.163 0.991 -7.334 0.991 -7.334 0.128 82.163
3369.458 0.129 82.096 0.991 -7.407 0.991 -7.407 0.129 82.096
3394.417 0.13 82.029 0.99 -7.479 0.99 -7.479 0.13 82.029
3419.375 0.131 81.961 0.99 -7.551 0.99 -7.551 0.131 81.961
3444.333 0.133 81.894 0.99 -7.622 0.99 -7.622 0.133 81.894
3469.292 0.134 81.827 0.99 -7.694 0.99 -7.694 0.134 81.827
3494.25 0.135 81.76 0.99 -7.765 0.99 -7.765 0.135 81.76
3519.208 0.136 81.693 0.99 -7.837 0.99 -7.837 0.136 81.693
3544.167 0.138 81.626 0.989 -7.908 0.989 -7.908 0.138 81.626
3569.125 0.139 81.559 0.989 -7.979 0.989 -7.979 0.139 81.559
3594.083 0.14 81.493 0.989 -8.05 0.989 -8.05 0.14 81.493
3619.042 0.141 81.426 0.989 -8.121 0.989 -8.121 0.141 81.426
3644 0.142 81.359 0.989 -8.191 0.989 -8.191 0.142 81.359
3668.958 0.144 81.293 0.989 -8.262 0.989 -8.262 0.144 81.293
3693.917 0.145 81.226 0.988 -8.332 0.988 -8.332 0.145 81.226
3718.875 0.146 81.159 0.988 -8.403 0.988 -8.403 0.146 81.159
3743.833 0.147 81.093 0.988 -8.473 0.988 -8.473 0.147 81.093
3768.792 0.149 81.027 0.988 -8.543 0.988 -8.543 0.149 81.027
3793.75 0.15 80.96 0.988 -8.613 0.988 -8.613 0.15 80.96
3818.708 0.151 80.894 0.987 -8.683 0.987 -8.683 0.151 80.894
3843.667 0.152 80.828 0.987 -8.752 0.987 -8.752 0.152 80.828
3868.625 0.153 80.761 0.987 -8.822 0.987 -8.822 0.153 80.761
3893.583 0.155 80.695 0.987 -8.891 0.987 -8.891 0.155 80.695
3918.542 0.156 80.629 0.987 -8.961 0.987 -8.961 0.156 80.629
3943.5 0.157 80.563 0.986 -9.03 0.986 -9.03 0.157 80.563
3968.458 0.158 80.497 0.986 -9.099 0.986 -9.099 0.158 80.497
3993.417 0.159 80.431 0.986 -9.168 0.986 -9.168 0.159 80.431
4018.375 0.161 80.365 0.986 -9.237 0.986 -9.237 0.161 80.365
4043.333 0.162 80.3 0.986 -9.306 0.986 -9.306 0.162 80.3
4068.292 0.163 80.234 0.986 -9.374 0.986 -9.374 0.163 80.234
4093.25 0.164 80.168 0.985 -9.443 0.985 -9.443 0.164 80.168
4118.208 0.165 80.103 0.985 -9.511 0.985 -9.511 0.165 80.103
4143.167 0.166 80.037 0.985 -9.58 0.985 -9.58 0.166 80.037
4168.125 0.168 79.971 0.985 -9.648 0.985 -9.648 0.168 79.971
4193.083 0.169 79.906 0.985 -9.716 0.985 -9.716 0.169 79.906
4218.042 0.17 79.841 0.984 -9.784 0.984 -9.784 0.17 79.841
4243 0.171 79.775 0.984 -9.852 0.984 -9.852 0.171 79.775
4267.958 0.172 79.71 0.984 -9.92 0.984 -9.92 0.172 79.71
4292.917 0.173 79.645 0.984 -9.988 0.984 -9.988 0.173 79.645
4317.875 0.175 79.579 0.984 -10.056 0.984 -10.056 0.175 79.579
4342.833 0.176 79.514 0.983 -10.123 0.983 -10.123 0.176 79.514
4367.792 0.177 79.449 0.983 -10.191 0.983 -10.191 0.177 79.449
4392.75 0.178 79.384 0.983 -10.258 0.983 -10.258 0.178 79.384
4417.708 0.179 79.319 0.983 -10.326 0.983 -10.326 0.179 79.319
4442.667 0.18 79.254 0.982 -10.393 0.982 -10.393 0.18 79.254
4467.625 0.182 79.189 0.982 -10.46 0.982 -10.46 0.182 79.189
4492.583 0.183 79.124 0.982 -10.527 0.982 -10.527 0.183 79.124
4517.542 0.184 79.06 0.982 -10.595 0.982 -10.595 0.184 79.06
4542.5 0.185 78.995 0.982 -10.661 0.982 -10.661 0.185 78.995
4567.458 0.186 78.93 0.981 -10.728 0.981 -10.728 0.186 78.93
4592.417 0.187 78.866 0.981 -10.795 0.981 -10.795 0.187 78.866
4617.375 0.188 78.801 0.981 -10.862 0.981 -10.862 0.188 78.801
4642.333 0.19 78.737 0.981 -10.928 0.981 -10.928 0.19 78.737
4667.292 0.191 78.672 0.981 -10.995 0.981 -10.995 0.191 78.672
4692.25 0.192 78.608 0.98 -11.061 0.98 -11.061 0.192 78.608
4717.208 0.193 78.543 0.98 -11.128 0.98 -11.128 0.193 78.543
4742.167 0.194 78.479 0.98 -11.194 0.98 -11.194 0.194 78.479
4767.125 0.195 78.415 0.98 -11.26 0.98 -11.26 0.195 78.415
4792.083 0.196 78.351 0.979 -11.327 0.979 -11.327 0.196 78.351
4817.042 0.198 78.286 0.979 -11.393 0.979 -11.393 0.198 78.286
4842 0.199 78.222 0.979 -11.459 0.979 -11.459 0.199 78.222
4866.958 0.2 78.158 0.979 -11.525 0.979 -11.525 0.2 78.158
4891.917 0.201 78.094 0.979 -11.59 0.979 -11.59 0.201 78.094
4916.875 0.202 78.03 0.978 -11.656 0.978 -11.656 0.202 78.03
4941.833 0.203 77.966 0.978 -11.722 0.978 -11.722 0.203 77.966
4966.792 0.204 77.902 0.978 -11.788 0.978 -11.788 0.204 77.902
4991.75 0.205 77.839 0.978 -11.853 0.978 -11.853 0.205 77.839
5016.708 0.207 77.775 0.977 -11.919 0.977 -11.919 0.207 77.775
5041.667 0.208 77.711 0.977 -11.984 0.977 -11.984 0.208 77.711
5066.625 0.209 77.648 0.977 -12.049 0.977 -12.049 0.209 77.648
5091.583 0.21 77.584 0.977 -12.115 0.977 -12.115 0.21 77.584
5116.542 0.211 77.52 0.976 -12.18 0.976 -12.18 0.211 77.52
5141.5 0.212 77.457 0.976 -12.245 0.976 -12.245 0.212 77.457
5166.458 0.213 77.393 0.976 -12.31 0.976 -12.31 0.213 77.393
5191.417 0.214 77.33 0.976 -12.375 0.976 -12.375 0.214 77.33
5216.375 0.215 77.267 0.975 -12.44 0.975 -12.44 0.215 77.267
5241.333 0.217 77.203 0.975 -12.505 0.975 -12.505 0.217 77.203
5266.292 0.218 77.14 0.975 -12.57 0.975 -12.57 0.218 77.14
5291.25 0.219 77.077 0.975 -12.635 0.975 -12.635 0.219 77.077
5316.208 0.22 77.014 0.974 -12.699 0.974 -12.699 0.22 77.014
5341.167 0.221 76.951 0.974 -12.764 0.974 -12.764 0.221 76.951
5366.125 0.222 76.888 0.974 -12.828 0.974 -12.828 0.222 76.888
5391.083 0.223 76.825 0.974 -12.893 0.974 -12.893 0.223 76.825
5416.042 0.224 76.762 0.973 -12.957 0.973 -12.957 0.224 76.762
5441 0.225 76.699 0.973 -13.022 0.973 -13.022 0.225 76.699
5465.958 0.226 76.636 0.973 -13.086 0.973 -13.086 0.226 76.636
5490.917 0.228 76.573 0.973 -13.15 0.973 -13.15 0.228 76.573
5515.875 0.229 76.51 0.972 -13.214 0.972 -13.214 0.229 76.51
5540.833 0.23 76.448 0.972 -13.278 0.972 -13.278 0.23 76.448
5565.792 0.231 76.385 0.972 -13.342 0.972 -13.342 0.231 76.385
5590.75 0.232 76.322 0.972 -13.406 0.972 -13.406 0.232 76.322
5615.708 0.233 76.26 0.971 -13.47 0.971 -13.47 0.233 76.26
5640.667 0.234 76.197 0.971 -13.534 0.971 -13.534 0.234 76.197
5665.625 0.235 76.135 0.971 -13.598 0.971 -13.598 0.235 76.135
5690.583 0.236 76.072 0.971 -13.662 0.971 -13.662 0.236 76.072
5715.542 0.237 76.01 0.97 -13.725 0.97 -13.725 0.237 76.01
5740.5 0.238 75.947 0.97 -13.789 0.97 -13.789 0.238 75.947
5765.458 0.239 75.885 0.97 -13.853 0.97 -13.853 0.239 75.885
5790.417 0.241 75.823 0.97 -13.916 0.97 -13.916 0.241 75.823
5815.375 0.242 75.761 0.969 -13.979 0.969 -13.979 0.242 75.761
5840.333 0.243 75.699 0.969 -14.043 0.969 -14.043 0.243 75.699
5865.292 0.244 75.636 0.969 -14.106 0.969 -14.106 0.244 75.636
5890.25 0.245 75.574 0.968 -14.169 0.968 -14.169 0.245 75.574
5915.208 0.246 75.512 0.968 -14.233 0.968 -14.233 0.246 75.512
5940.167 0.247 75.45 0.968 -14.296 0.968 -14.296 0.247 75.45
5965.125 0.248 75.389 0.968 -14.359 0.968 -14.359 0.248 75.389
5990.083 0.249 75.327 0.967 -14.422 0.967 -14.422 0.249 75.327
6015.042 0.25 75.265 0.967 -14.485 0.967 -14.485 0.25 75.265
6040 0.251 75.203 0.967 -14.548 0.967 -14.548 0.251 75.203
6064.958 0.252 75.141 0.967 -14.61 0.967 -14.61 0.252 75.141
6089.917 0.253 75.08 0.966 -14.673 0.966 -14.673 0.253 75.08
6114.875 0.254 75.018 0.966 -14.736 0.966 -14.736 0.254 75.018
6139.833 0.255 74.956 0.966 -14.799 0.966 -14.799 0.255 74.956
6164.792 0.256 74.895 0.965 -14.861 0.965 -14.861 0.256 74.895
6189.75 0.258 74.833 0.965 -14.924 0.965 -14.924 0.258 74.833
6214.708 0.259 74.772 0.965 -14.986 0.965 -14.986 0.259 74.772
6239.667 0.26 74.711 0.965 -15.049 0.965 -15.049 0.26 74.711
6264.625 0.261 74.649 0.964 -15.111 0.964 -15.111 0.261 74.649
6289.583 0.262 74.588 0.964 -15.173 0.964 -15.173 0.262 74.588
6314.542 0.263 74.527 0.964 -15.236 0.964 -15.236 0.263 74.527
6339.5 0.264 74.466 0.963 -15.298 0.963 -15.298 0.264 74.466
6364.458 0.265 74.404 0.963 -15.36 0.963 -15.36 0.265 74.404
6389.417 0.266 74.343 0.963 -15.422 0.963 -15.422 0.266 74.343
6414.375 0.267 74.282 0.963 -15.484 0.963 -15.484 0.267 74.282
6439.333 0.268 74.221 0.962 -15.546 0.962 -15.546 0.268 74.221
6464.292 0.269 74.16 0.962 -15.608 0.962 -15.608 0.269 74.16
6489.25 0.27 74.099 0.962 -15.67 0.962 -15.67 0.27 74.099
6514.208 0.271 74.038 0.961 -15.732 0.961 -15.732 0.271 74.038
6539.167 0.272 73.978 0.961 -15.794 0.961 -15.794 0.272 73.978
6564.125 0.273 73.917 0.961 -15.855 0.961 -15.855 0.273 73.917
6589.083 0.274 73.856 0.961 -15.917 0.961 -15.917 0.274 73.856
6614.042 0.275 73.795 0.96 -15.979 0.96 -15.979 0.275 73.795
6639 0.276 73.735 0.96 -16.04 0.96 -16.04 0.276 73.735
6663.958 0.277 73.674 0.96 -16.102 0.96 -16.102 0.277 73.674
6688.917 0.278 73.614 0.959 -16.163 0.959 -16.163 0.278 73.614
6713.875 0.279 73.553 0.959 -16.225 0.959 -16.225 0.279 73.553
6738.833 0.28 73.493 0.959 -16.286 0.959 -16.286 0.28 73.493
6763.792 0.281 73.432 0.958 -16.347 0.958 -16.347 0.281 73.432
6788.75 0.282 73.372 0.958 -16.408 0.958 -16.408 0.282 73.372
6813.708 0.284 73.312 0.958 -16.47 0.958 -16.47 0.284 73.312
6838.667 0.285 73.251 0.958 -16.531 0.958 -16.531 0.285 73.251
6863.625 0.286 73.191 0.957 -16.592 0.957 -16.592 0.286 73.191
6888.583 0.287 73.131 0.957 -16.653 0.957 -16.653 0.287 73.131
6913.542 0.288 73.071 0.957 -16.714 0.957 -16.714 0.288 73.071
6938.5 0.289 73.011 0.956 -16.775 0.956 -16.775 0.289 73.011
6963.458 0.29 72.951 0.956 -16.836 0.956 -16.836 0.29 72.951
6988.417 0.291 72.891 0.956 -16.896 0.956 -16.896 0.291 72.891
7013.375 0.292 72.831 0.955 -16.957 0.955 -16.957 0.292 72.831
7038.333 0.293 72.771 0.955 -17.018 0.955 -17.018 0.293 72.771
7063.292 0.294 72.711 0.955 -17.079 0.955 -17.079 0.294 72.711
7088.25 0.295 72.651 0.955 -17.139 0.955 -17.139 0.295 72.651
7113.208 0.296 72.591 0.954 -17.2 0.954 -17.2 0.296 72.591
7138.167 0.297 72.532 0.954 -17.26 0.954 -17.26 0.297 72.532
7163.125 0.298 72.472 0.954 -17.321 0.954 -17.321 0.298 72.472
7188.083 0.299 72.412 0.953 -17.381 0.953 -17.381 0.299 72.412
7213.042 0.3 72.353 0.953 -17.441 0.953 -17.441 0.3 72.353
7238 0.301 72.293 0.953 -17.502 0.953 -17.502 0.301 72.293
7262.958 0.302 72.234 0.952 -17.562 0.952 -17.562 0.302 72.234
7287.917 0.303 72.174 0.952 -17.622 0.952 -17.622 0.303 72.174
7312.875 0.304 72.115 0.952 -17.682 0.952 -17.682 0.304 72.115
7337.833 0.305 72.056 0.951 -17.742 0.951 -17.742 0.305 72.056
7362.792 0.306 71.996 0.951 -17.802 0.951 -17.802 0.306 71.996
7387.75 0.307 71.937 0.951 -17.862 0.951 -17.862 0.307 71.937
7412.708 0.308 71.878 0.95 -17.922 0.95 -17.922 0.308 71.878
7437.667 0.309 71.819 0.95 -17.982 0.95 -17.982 0.309 71.819
7462.625 0.31 71.76 0.95 -18.042 0.95 -18.042 0.31 71.76
7487.583 0.311 71.701 0.949 -18.102 0.949 -18.102 0.311 71.701
7512.542 0.312 71.642 0.949 -18.161 0.949 -18.161 0.312 71.642
7537.5 0.313 71.583 0.949 -18.221 0.949 -18.221 0.313 71.583
7562.458 0.314 71.524 0.948 -18.28 0.948 -18.28 0.314 71.524
7587.417 0.315 71.465 0.948 -18.34 0.948 -18.34 0.315 71.465
7612.375 0.316 71.406 0.948 -18.4 0.948 -18.4 0.316 71.406
7637.333 0.317 71.347 0.947 -18.459 0.947 -18.459 0.317 71.347
7662.292 0.318 71.288 0.947 -18.518 0.947 -18.518 0.318 71.288
7687.25 0.319 71.23 0.947 -18.578 0.947 -18.578 0.319 71.23
7712.208 0.32 71.171 0.946 -18.637 0.946 -18.637 0.32 71.171
7737.167 0.321 71.113 0.946 -18.696 0.946 -18.696 0.321 71.113
7762.125 0.322 71.054 0.946 -18.755 0.946 -18.755 0.322 71.054
7787.083 0.323 70.996 0.945 -18.815 0.945 -18.815 0.323 70.996
7812.042 0.323 70.937 0.945 -18.874 0.945 -18.874 0.323 70.937
7837 0.324 70.879 0.945 -18.933 0.945 -18.933 0.324 70.879
7861.958 0.325 70.82 0.944 -18.992 0.944 -18.992 0.325 70.82
7886.917 0.326 70.762 0.944 -19.051 0.944 -19.051 0.326 70.762
7911.875 0.327 70.704 0.944 -19.11 0.944 -19.11 0.327 70.704
7936.833 0.328 70.646 0.943 -19.168 0.943 -19.168 0.328 70.646
7961.792 0.329 70.587 0.943 -19.227 0.943 -19.227 0.329 70.587
7986.75 0.33 70.529 0.943 -19.286 0.943 -19.286 0.33 70.529
8011.708 0.331 70.471 0.942 -19.345 0.942 -19.345 0.331 70.471
8036.667 0.332 70.413 0.942 -19.403 0.942 -19.403 0.332 70.413
8061.625 0.333 70.355 0.942 -19.462 0.942 -19.462 0.333 70.355
8086.583 0.334 70.297 0.941 -19.52 0.941 -19.52 0.334 70.297
