! AVX Thin Film Operation		Date: April 2012 
! Description: Accu-P® Series, Thin Film, SMD, RF Capacitor
! Part Number: 08051J1R9PBTTR					
!	100	MHz	-	20.05	GHz			
!	Serial	Measurements						
!								
#	MHZ	S	MA	R	50			
!	S11	S21	S12	S22				
!	dB	Phase	dB	Phase	dB	Phase	dB	Phase
50 0.998 -3.416 0.06 86.513 0.06 86.513 0.998 -3.416
100 0.993 -6.81 0.119 83.104 0.119 83.104 0.993 -6.81
150 0.984 -10.162 0.176 79.739 0.176 79.739 0.984 -10.162
200 0.972 -13.452 0.233 76.435 0.233 76.435 0.972 -13.452
250 0.957 -16.663 0.287 73.209 0.287 73.209 0.957 -16.663
300 0.94 -19.782 0.338 70.077 0.338 70.077 0.94 -19.782
350 0.921 -22.796 0.387 67.048 0.387 67.048 0.921 -22.796
400 0.9 -25.697 0.434 64.132 0.434 64.132 0.9 -25.697
450 0.877 -28.48 0.477 61.335 0.477 61.335 0.877 -28.48
500 0.854 -31.141 0.517 58.659 0.517 58.659 0.854 -31.141
550 0.83 -33.679 0.555 56.106 0.555 56.106 0.83 -33.679
600 0.806 -36.096 0.589 53.675 0.589 53.675 0.806 -36.096
650 0.781 -38.392 0.621 51.363 0.621 51.363 0.781 -38.392
700 0.757 -40.571 0.65 49.168 0.65 49.168 0.757 -40.571
750 0.732 -42.639 0.677 47.085 0.677 47.085 0.732 -42.639
800 0.708 -44.598 0.702 45.109 0.702 45.109 0.708 -44.598
850 0.685 -46.456 0.725 43.236 0.725 43.236 0.685 -46.456
900 0.662 -48.216 0.746 41.459 0.746 41.459 0.662 -48.216
950 0.64 -49.885 0.765 39.773 0.765 39.773 0.64 -49.885
1000 0.618 -51.468 0.782 38.173 0.782 38.173 0.618 -51.468
1050 0.597 -52.97 0.798 36.654 0.798 36.654 0.597 -52.97
1100 0.577 -54.395 0.813 35.211 0.813 35.211 0.577 -54.395
1150 0.557 -55.75 0.827 33.838 0.827 33.838 0.557 -55.75
1200 0.538 -57.038 0.839 32.532 0.839 32.532 0.538 -57.038
1250 0.519 -58.263 0.85 31.287 0.85 31.287 0.519 -58.263
1300 0.502 -59.43 0.861 30.101 0.861 30.101 0.502 -59.43
1350 0.484 -60.542 0.871 28.969 0.871 28.969 0.484 -60.542
1400 0.468 -61.604 0.88 27.887 0.88 27.887 0.468 -61.604
1450 0.452 -62.617 0.888 26.852 0.888 26.852 0.452 -62.617
1500 0.436 -63.586 0.896 25.862 0.896 25.862 0.436 -63.586
1550 0.421 -64.513 0.903 24.913 0.903 24.913 0.421 -64.513
1600 0.407 -65.4 0.909 24.003 0.909 24.003 0.407 -65.4
1650 0.393 -66.25 0.915 23.129 0.915 23.129 0.393 -66.25
1700 0.379 -67.066 0.921 22.289 0.921 22.289 0.379 -67.066
1750 0.366 -67.849 0.926 21.481 0.926 21.481 0.366 -67.849
1800 0.354 -68.601 0.931 20.703 0.931 20.703 0.354 -68.601
1850 0.341 -69.324 0.936 19.953 0.936 19.953 0.341 -69.324
1900 0.329 -70.019 0.94 19.23 0.94 19.23 0.329 -70.019
1950 0.318 -70.689 0.944 18.531 0.944 18.531 0.318 -70.689
2000 0.307 -71.334 0.947 17.856 0.947 17.856 0.307 -71.334
2050 0.296 -71.956 0.951 17.203 0.951 17.203 0.296 -71.956
2100 0.285 -72.555 0.954 16.571 0.954 16.571 0.285 -72.555
2150 0.275 -73.134 0.957 15.958 0.957 15.958 0.275 -73.134
2200 0.265 -73.692 0.96 15.364 0.96 15.364 0.265 -73.692
2250 0.255 -74.231 0.963 14.788 0.963 14.788 0.255 -74.231
2300 0.246 -74.752 0.965 14.228 0.965 14.228 0.246 -74.752
2350 0.237 -75.255 0.967 13.684 0.967 13.684 0.237 -75.255
2400 0.228 -75.741 0.969 13.155 0.969 13.155 0.228 -75.741
2450 0.219 -76.211 0.971 12.64 0.971 12.64 0.219 -76.211
2500 0.21 -76.664 0.973 12.138 0.973 12.138 0.21 -76.664
2550 0.202 -77.103 0.975 11.65 0.975 11.65 0.202 -77.103
2600 0.194 -77.526 0.977 11.173 0.977 11.173 0.194 -77.526
2650 0.186 -77.934 0.978 10.708 0.978 10.708 0.186 -77.934
2700 0.178 -78.328 0.98 10.254 0.98 10.254 0.178 -78.328
2750 0.17 -78.707 0.981 9.81 0.981 9.81 0.17 -78.707
2800 0.163 -79.072 0.982 9.377 0.982 9.377 0.163 -79.072
2850 0.156 -79.422 0.983 8.953 0.983 8.953 0.156 -79.422
2900 0.149 -79.758 0.985 8.538 0.985 8.538 0.149 -79.758
2950 0.142 -80.079 0.986 8.131 0.986 8.131 0.142 -80.079
3000 0.135 -80.384 0.986 7.733 0.986 7.733 0.135 -80.384
3050 0.128 -80.674 0.987 7.343 0.987 7.343 0.128 -80.674
3100 0.121 -80.948 0.988 6.961 0.988 6.961 0.121 -80.948
3150 0.115 -81.203 0.989 6.586 0.989 6.586 0.115 -81.203
3200 0.108 -81.441 0.99 6.218 0.99 6.218 0.108 -81.441
3250 0.102 -81.657 0.99 5.856 0.99 5.856 0.102 -81.657
3300 0.096 -81.852 0.991 5.501 0.991 5.501 0.096 -81.852
3350 0.09 -82.022 0.992 5.152 0.992 5.152 0.09 -82.022
3400 0.084 -82.163 0.992 4.81 0.992 4.81 0.084 -82.163
3450 0.078 -82.273 0.993 4.472 0.993 4.472 0.078 -82.273
3500 0.072 -82.344 0.993 4.141 0.993 4.141 0.072 -82.344
3550 0.067 -82.37 0.993 3.814 0.993 3.814 0.067 -82.37
3600 0.061 -82.342 0.994 3.493 0.994 3.493 0.061 -82.342
3650 0.056 -82.245 0.994 3.176 0.994 3.176 0.056 -82.245
3700 0.05 -82.06 0.994 2.864 0.994 2.864 0.05 -82.06
3750 0.045 -81.761 0.995 2.557 0.995 2.557 0.045 -81.761
3800 0.04 -81.307 0.995 2.254 0.995 2.254 0.04 -81.307
3850 0.034 -80.632 0.995 1.956 0.995 1.956 0.034 -80.632
3900 0.029 -79.631 0.995 1.661 0.995 1.661 0.029 -79.631
3950 0.024 -78.112 0.995 1.37 0.995 1.37 0.024 -78.112
4000 0.019 -75.702 0.995 1.084 0.995 1.084 0.019 -75.702
4050 0.015 -71.565 0.995 0.8 0.995 0.8 0.015 -71.565
4100 0.01 -63.441 0.996 0.521 0.996 0.521 0.01 -63.441
4150 6.16e-3 -43.628 0.996 0.245 0.996 0.245 6.16e-3 -43.628
4200 4.468e-3 6.303 0.996 -0.028 0.996 -0.028 4.468e-3 6.303
4250 6.837e-3 49.196 0.996 -0.298 0.996 -0.298 6.837e-3 49.196
4300 0.011 65.167 0.996 -0.564 0.996 -0.564 0.011 65.167
4350 0.015 72.087 0.995 -0.828 0.995 -0.828 0.015 72.087
4400 0.02 75.753 0.995 -1.088 0.995 -1.088 0.02 75.753
4450 0.024 77.95 0.995 -1.346 0.995 -1.346 0.024 77.95
4500 0.028 79.369 0.995 -1.601 0.995 -1.601 0.028 79.369
4550 0.033 80.33 0.995 -1.853 0.995 -1.853 0.033 80.33
4600 0.037 80.998 0.995 -2.103 0.995 -2.103 0.037 80.998
4650 0.041 81.471 0.995 -2.35 0.995 -2.35 0.041 81.471
4700 0.045 81.805 0.995 -2.594 0.995 -2.594 0.045 81.805
4750 0.05 82.039 0.994 -2.837 0.994 -2.837 0.05 82.039
4800 0.054 82.197 0.994 -3.077 0.994 -3.077 0.054 82.197
4850 0.058 82.297 0.994 -3.314 0.994 -3.314 0.058 82.297
4900 0.062 82.351 0.994 -3.55 0.994 -3.55 0.062 82.351
4950 0.066 82.37 0.993 -3.783 0.993 -3.783 0.066 82.37
5000 0.07 82.36 0.993 -4.014 0.993 -4.014 0.07 82.36
5050 0.074 82.326 0.993 -4.243 0.993 -4.243 0.074 82.326
5100 0.078 82.273 0.993 -4.471 0.993 -4.471 0.078 82.273
5150 0.082 82.204 0.992 -4.696 0.992 -4.696 0.082 82.204
5200 0.086 82.121 0.992 -4.919 0.992 -4.919 0.086 82.121
5250 0.09 82.027 0.992 -5.141 0.992 -5.141 0.09 82.027
5300 0.094 81.923 0.991 -5.361 0.991 -5.361 0.094 81.923
5350 0.097 81.811 0.991 -5.579 0.991 -5.579 0.097 81.811
5400 0.101 81.693 0.99 -5.795 0.99 -5.795 0.101 81.693
5450 0.105 81.568 0.99 -6.01 0.99 -6.01 0.105 81.568
5500 0.108 81.438 0.99 -6.223 0.99 -6.223 0.108 81.438
5550 0.112 81.303 0.989 -6.434 0.989 -6.434 0.112 81.303
5600 0.116 81.165 0.989 -6.644 0.989 -6.644 0.116 81.165
5650 0.119 81.023 0.988 -6.852 0.988 -6.852 0.119 81.023
5700 0.123 80.879 0.988 -7.059 0.988 -7.059 0.123 80.879
5750 0.127 80.731 0.988 -7.264 0.988 -7.264 0.127 80.731
5800 0.13 80.582 0.987 -7.468 0.987 -7.468 0.13 80.582
5850 0.134 80.431 0.987 -7.671 0.987 -7.671 0.134 80.431
5900 0.137 80.279 0.986 -7.872 0.986 -7.872 0.137 80.279
5950 0.14 80.125 0.986 -8.072 0.986 -8.072 0.14 80.125
6000 0.144 79.969 0.985 -8.271 0.985 -8.271 0.144 79.969
6050 0.147 79.813 0.985 -8.468 0.985 -8.468 0.147 79.813
6100 0.151 79.656 0.984 -8.664 0.984 -8.664 0.151 79.656
6150 0.154 79.498 0.984 -8.859 0.984 -8.859 0.154 79.498
6200 0.157 79.34 0.983 -9.052 0.983 -9.052 0.157 79.34
6250 0.161 79.181 0.983 -9.245 0.983 -9.245 0.161 79.181
6300 0.164 79.022 0.982 -9.436 0.982 -9.436 0.164 79.022
6350 0.167 78.862 0.982 -9.626 0.982 -9.626 0.167 78.862
6400 0.171 78.703 0.981 -9.815 0.981 -9.815 0.171 78.703
6450 0.174 78.543 0.98 -10.003 0.98 -10.003 0.174 78.543
6500 0.177 78.383 0.98 -10.19 0.98 -10.19 0.177 78.383
6550 0.18 78.222 0.979 -10.376 0.979 -10.376 0.18 78.222
6600 0.183 78.062 0.979 -10.56 0.979 -10.56 0.183 78.062
6650 0.186 77.902 0.978 -10.744 0.978 -10.744 0.186 77.902
6700 0.19 77.742 0.977 -10.927 0.977 -10.927 0.19 77.742
6750 0.193 77.583 0.977 -11.108 0.977 -11.108 0.193 77.583
6800 0.196 77.423 0.976 -11.289 0.976 -11.289 0.196 77.423
6850 0.199 77.264 0.976 -11.469 0.976 -11.469 0.199 77.264
6900 0.202 77.104 0.975 -11.648 0.975 -11.648 0.202 77.104
6950 0.205 76.945 0.974 -11.826 0.974 -11.826 0.205 76.945
7000 0.208 76.787 0.974 -12.003 0.974 -12.003 0.208 76.787
7050 0.211 76.628 0.973 -12.179 0.973 -12.179 0.211 76.628
7100 0.214 76.47 0.972 -12.354 0.972 -12.354 0.214 76.47
7150 0.217 76.312 0.972 -12.528 0.972 -12.528 0.217 76.312
7200 0.22 76.155 0.971 -12.702 0.971 -12.702 0.22 76.155
7250 0.223 75.998 0.97 -12.874 0.97 -12.874 0.223 75.998
7300 0.226 75.841 0.97 -13.046 0.97 -13.046 0.226 75.841
7350 0.229 75.684 0.969 -13.217 0.969 -13.217 0.229 75.684
7400 0.232 75.528 0.968 -13.387 0.968 -13.387 0.232 75.528
7450 0.234 75.373 0.968 -13.556 0.968 -13.556 0.234 75.373
7500 0.237 75.217 0.967 -13.725 0.967 -13.725 0.237 75.217
7550 0.24 75.062 0.966 -13.893 0.966 -13.893 0.24 75.062
7600 0.243 74.908 0.966 -14.06 0.966 -14.06 0.243 74.908
7650 0.246 74.754 0.965 -14.226 0.965 -14.226 0.246 74.754
7700 0.249 74.6 0.964 -14.392 0.964 -14.392 0.249 74.6
7750 0.251 74.447 0.964 -14.556 0.964 -14.556 0.251 74.447
7800 0.254 74.294 0.963 -14.72 0.963 -14.72 0.254 74.294
7850 0.257 74.142 0.962 -14.884 0.962 -14.884 0.257 74.142
7900 0.26 73.99 0.961 -15.046 0.961 -15.046 0.26 73.99
7950 0.262 73.838 0.961 -15.208 0.961 -15.208 0.262 73.838
8000 0.265 73.687 0.96 -15.37 0.96 -15.37 0.265 73.687
8050 0.268 73.536 0.959 -15.53 0.959 -15.53 0.268 73.536
8100 0.27 73.386 0.958 -15.69 0.958 -15.69 0.27 73.386
8150 0.273 73.236 0.958 -15.849 0.958 -15.849 0.273 73.236
8200 0.276 73.087 0.957 -16.008 0.957 -16.008 0.276 73.087
8250 0.278 72.938 0.956 -16.166 0.956 -16.166 0.278 72.938
8300 0.281 72.79 0.955 -16.323 0.955 -16.323 0.281 72.79
8350 0.284 72.641 0.955 -16.48 0.955 -16.48 0.284 72.641
8400 0.286 72.494 0.954 -16.636 0.954 -16.636 0.286 72.494
8450 0.289 72.347 0.953 -16.791 0.953 -16.791 0.289 72.347
8500 0.291 72.2 0.952 -16.946 0.952 -16.946 0.291 72.2
8550 0.294 72.054 0.951 -17.1 0.951 -17.1 0.294 72.054
8600 0.297 71.908 0.951 -17.253 0.951 -17.253 0.297 71.908
8650 0.299 71.762 0.95 -17.406 0.95 -17.406 0.299 71.762
8700 0.302 71.617 0.949 -17.559 0.949 -17.559 0.302 71.617
8750 0.304 71.473 0.948 -17.711 0.948 -17.711 0.304 71.473
8800 0.307 71.329 0.947 -17.862 0.947 -17.862 0.307 71.329
8850 0.309 71.185 0.947 -18.012 0.947 -18.012 0.309 71.185
8900 0.312 71.042 0.946 -18.162 0.946 -18.162 0.312 71.042
8950 0.314 70.899 0.945 -18.312 0.945 -18.312 0.314 70.899
9000 0.317 70.756 0.944 -18.461 0.944 -18.461 0.317 70.756
9050 0.319 70.614 0.943 -18.609 0.943 -18.609 0.319 70.614
9100 0.322 70.473 0.943 -18.757 0.943 -18.757 0.322 70.473
9150 0.324 70.332 0.942 -18.904 0.942 -18.904 0.324 70.332
9200 0.326 70.191 0.941 -19.051 0.941 -19.051 0.326 70.191
9250 0.329 70.051 0.94 -19.197 0.94 -19.197 0.329 70.051
9300 0.331 69.911 0.939 -19.343 0.939 -19.343 0.331 69.911
9350 0.334 69.771 0.938 -19.488 0.938 -19.488 0.334 69.771
9400 0.336 69.632 0.938 -19.633 0.938 -19.633 0.336 69.632
9450 0.338 69.494 0.937 -19.777 0.937 -19.777 0.338 69.494
9500 0.341 69.356 0.936 -19.92 0.936 -19.92 0.341 69.356
9550 0.343 69.218 0.935 -20.063 0.935 -20.063 0.343 69.218
9600 0.345 69.08 0.934 -20.206 0.934 -20.206 0.345 69.08
9650 0.348 68.943 0.933 -20.348 0.933 -20.348 0.348 68.943
9700 0.35 68.807 0.932 -20.49 0.932 -20.49 0.35 68.807
9750 0.352 68.671 0.932 -20.631 0.932 -20.631 0.352 68.671
9800 0.355 68.535 0.931 -20.771 0.931 -20.771 0.355 68.535
9850 0.357 68.4 0.93 -20.912 0.93 -20.912 0.357 68.4
9900 0.359 68.265 0.929 -21.051 0.929 -21.051 0.359 68.265
9950 0.361 68.13 0.928 -21.19 0.928 -21.19 0.361 68.13
10000 0.364 67.996 0.927 -21.329 0.927 -21.329 0.364 67.996
10050 0.366 67.862 0.926 -21.467 0.926 -21.467 0.366 67.862
10100 0.368 67.729 0.925 -21.605 0.925 -21.605 0.368 67.729
10150 0.37 67.596 0.925 -21.743 0.925 -21.743 0.37 67.596
10200 0.373 67.463 0.924 -21.879 0.924 -21.879 0.373 67.463
10250 0.375 67.331 0.923 -22.016 0.923 -22.016 0.375 67.331
10300 0.377 67.199 0.922 -22.152 0.922 -22.152 0.377 67.199
10350 0.379 67.068 0.921 -22.287 0.921 -22.287 0.379 67.068
10400 0.381 66.937 0.92 -22.422 0.92 -22.422 0.381 66.937
10450 0.384 66.806 0.919 -22.557 0.919 -22.557 0.384 66.806
10500 0.386 66.676 0.918 -22.691 0.918 -22.691 0.386 66.676
10550 0.388 66.546 0.917 -22.825 0.917 -22.825 0.388 66.546
10600 0.39 66.417 0.917 -22.958 0.917 -22.958 0.39 66.417
10650 0.392 66.288 0.916 -23.091 0.916 -23.091 0.392 66.288
10700 0.394 66.159 0.915 -23.223 0.915 -23.223 0.394 66.159
10750 0.396 66.03 0.914 -23.355 0.914 -23.355 0.396 66.03
10800 0.399 65.902 0.913 -23.487 0.913 -23.487 0.399 65.902
10850 0.401 65.775 0.912 -23.618 0.912 -23.618 0.401 65.775
10900 0.403 65.648 0.911 -23.749 0.911 -23.749 0.403 65.648
10950 0.405 65.521 0.91 -23.879 0.91 -23.879 0.405 65.521
11000 0.407 65.394 0.909 -24.009 0.909 -24.009 0.407 65.394
11050 0.409 65.268 0.908 -24.139 0.908 -24.139 0.409 65.268
11100 0.411 65.142 0.907 -24.268 0.907 -24.268 0.411 65.142
11150 0.413 65.017 0.906 -24.396 0.906 -24.396 0.413 65.017
11200 0.415 64.892 0.906 -24.525 0.906 -24.525 0.415 64.892
11250 0.417 64.767 0.905 -24.652 0.905 -24.652 0.417 64.767
11300 0.419 64.643 0.904 -24.78 0.904 -24.78 0.419 64.643
11350 0.421 64.519 0.903 -24.907 0.903 -24.907 0.421 64.519
11400 0.423 64.395 0.902 -25.034 0.902 -25.034 0.423 64.395
11450 0.425 64.272 0.901 -25.16 0.901 -25.16 0.425 64.272
11500 0.427 64.149 0.9 -25.286 0.9 -25.286 0.427 64.149
11550 0.429 64.026 0.899 -25.411 0.899 -25.411 0.429 64.026
11600 0.431 63.904 0.898 -25.536 0.898 -25.536 0.431 63.904
11650 0.433 63.782 0.897 -25.661 0.897 -25.661 0.433 63.782
11700 0.435 63.661 0.896 -25.786 0.896 -25.786 0.435 63.661
11750 0.437 63.54 0.895 -25.91 0.895 -25.91 0.437 63.54
11800 0.439 63.419 0.894 -26.033 0.894 -26.033 0.439 63.419
11850 0.441 63.298 0.893 -26.156 0.893 -26.156 0.441 63.298
11900 0.443 63.178 0.892 -26.279 0.892 -26.279 0.443 63.178
11950 0.445 63.059 0.892 -26.402 0.892 -26.402 0.445 63.059
12000 0.447 62.939 0.891 -26.524 0.891 -26.524 0.447 62.939
12050 0.448 62.82 0.89 -26.645 0.89 -26.645 0.448 62.82
12100 0.45 62.701 0.889 -26.767 0.889 -26.767 0.45 62.701
12150 0.452 62.583 0.888 -26.888 0.888 -26.888 0.452 62.583
12200 0.454 62.465 0.887 -27.008 0.887 -27.008 0.454 62.465
12250 0.456 62.347 0.886 -27.129 0.886 -27.129 0.456 62.347
12300 0.458 62.229 0.885 -27.248 0.885 -27.248 0.458 62.229
12350 0.46 62.112 0.884 -27.368 0.884 -27.368 0.46 62.112
12400 0.462 61.996 0.883 -27.487 0.883 -27.487 0.462 61.996
12450 0.463 61.879 0.882 -27.606 0.882 -27.606 0.463 61.879
12500 0.465 61.763 0.881 -27.724 0.881 -27.724 0.465 61.763
12550 0.467 61.647 0.88 -27.843 0.88 -27.843 0.467 61.647
12600 0.469 61.532 0.879 -27.96 0.879 -27.96 0.469 61.532
12650 0.471 61.417 0.878 -28.078 0.878 -28.078 0.471 61.417
12700 0.472 61.302 0.877 -28.195 0.877 -28.195 0.472 61.302
12750 0.474 61.187 0.876 -28.311 0.876 -28.311 0.474 61.187
12800 0.476 61.073 0.875 -28.428 0.875 -28.428 0.476 61.073
12850 0.478 60.959 0.874 -28.544 0.874 -28.544 0.478 60.959
12900 0.48 60.846 0.873 -28.66 0.873 -28.66 0.48 60.846
12950 0.481 60.733 0.872 -28.775 0.872 -28.775 0.481 60.733
13000 0.483 60.62 0.871 -28.89 0.871 -28.89 0.483 60.62
13050 0.485 60.507 0.87 -29.005 0.87 -29.005 0.485 60.507
13100 0.487 60.395 0.869 -29.119 0.869 -29.119 0.487 60.395
13150 0.488 60.283 0.869 -29.233 0.869 -29.233 0.488 60.283
13200 0.49 60.171 0.868 -29.347 0.868 -29.347 0.49 60.171
13250 0.492 60.06 0.867 -29.46 0.867 -29.46 0.492 60.06
13300 0.494 59.949 0.866 -29.573 0.866 -29.573 0.494 59.949
13350 0.495 59.838 0.865 -29.686 0.865 -29.686 0.495 59.838
13400 0.497 59.728 0.864 -29.798 0.864 -29.798 0.497 59.728
13450 0.499 59.618 0.863 -29.91 0.863 -29.91 0.499 59.618
13500 0.5 59.508 0.862 -30.022 0.862 -30.022 0.5 59.508
13550 0.502 59.399 0.861 -30.133 0.861 -30.133 0.502 59.399
13600 0.504 59.29 0.86 -30.244 0.86 -30.244 0.504 59.29
13650 0.505 59.181 0.859 -30.355 0.859 -30.355 0.505 59.181
13700 0.507 59.072 0.858 -30.465 0.858 -30.465 0.507 59.072
13750 0.509 58.964 0.857 -30.575 0.857 -30.575 0.509 58.964
13800 0.51 58.856 0.856 -30.685 0.856 -30.685 0.51 58.856
13850 0.512 58.748 0.855 -30.794 0.855 -30.794 0.512 58.748
13900 0.514 58.641 0.854 -30.904 0.854 -30.904 0.514 58.641
13950 0.515 58.534 0.853 -31.012 0.853 -31.012 0.515 58.534
14000 0.517 58.427 0.852 -31.121 0.852 -31.121 0.517 58.427
14050 0.518 58.321 0.851 -31.229 0.851 -31.229 0.518 58.321
14100 0.52 58.214 0.85 -31.337 0.85 -31.337 0.52 58.214
14150 0.522 58.109 0.849 -31.444 0.849 -31.444 0.522 58.109
14200 0.523 58.003 0.848 -31.552 0.848 -31.552 0.523 58.003
14250 0.525 57.898 0.847 -31.659 0.847 -31.659 0.525 57.898
14300 0.526 57.793 0.846 -31.765 0.846 -31.765 0.526 57.793
14350 0.528 57.688 0.845 -31.872 0.845 -31.872 0.528 57.688
14400 0.53 57.583 0.844 -31.978 0.844 -31.978 0.53 57.583
14450 0.531 57.479 0.843 -32.083 0.843 -32.083 0.531 57.479
14500 0.533 57.375 0.842 -32.189 0.842 -32.189 0.533 57.375
14550 0.534 57.272 0.841 -32.294 0.841 -32.294 0.534 57.272
14600 0.536 57.169 0.84 -32.399 0.84 -32.399 0.536 57.169
14650 0.537 57.066 0.839 -32.503 0.839 -32.503 0.537 57.066
14700 0.539 56.963 0.838 -32.608 0.838 -32.608 0.539 56.963
14750 0.54 56.861 0.837 -32.712 0.837 -32.712 0.54 56.861
14800 0.542 56.758 0.836 -32.815 0.836 -32.815 0.542 56.758
14850 0.543 56.656 0.835 -32.919 0.835 -32.919 0.543 56.656
14900 0.545 56.555 0.834 -33.022 0.834 -33.022 0.545 56.555
14950 0.546 56.454 0.833 -33.124 0.833 -33.124 0.546 56.454
15000 0.548 56.353 0.832 -33.227 0.832 -33.227 0.548 56.353
15050 0.549 56.252 0.832 -33.329 0.832 -33.329 0.549 56.252
15100 0.551 56.151 0.831 -33.431 0.831 -33.431 0.551 56.151
15150 0.552 56.051 0.83 -33.533 0.83 -33.533 0.552 56.051
15200 0.554 55.951 0.829 -33.634 0.829 -33.634 0.554 55.951
15250 0.555 55.852 0.828 -33.735 0.828 -33.735 0.555 55.852
15300 0.557 55.752 0.827 -33.836 0.827 -33.836 0.557 55.752
15350 0.558 55.653 0.826 -33.936 0.826 -33.936 0.558 55.653
15400 0.56 55.554 0.825 -34.036 0.825 -34.036 0.56 55.554
15450 0.561 55.456 0.824 -34.136 0.824 -34.136 0.561 55.456
15500 0.563 55.357 0.823 -34.236 0.823 -34.236 0.563 55.357
15550 0.564 55.259 0.822 -34.335 0.822 -34.335 0.564 55.259
15600 0.565 55.162 0.821 -34.434 0.821 -34.434 0.565 55.162
15650 0.567 55.064 0.82 -34.533 0.82 -34.533 0.567 55.064
15700 0.568 54.967 0.819 -34.632 0.819 -34.632 0.568 54.967
15750 0.57 54.87 0.818 -34.73 0.818 -34.73 0.57 54.87
15800 0.571 54.773 0.817 -34.828 0.817 -34.828 0.571 54.773
15850 0.573 54.677 0.816 -34.926 0.816 -34.926 0.573 54.677
15900 0.574 54.581 0.815 -35.023 0.815 -35.023 0.574 54.581
15950 0.575 54.485 0.814 -35.12 0.814 -35.12 0.575 54.485
16000 0.577 54.389 0.813 -35.217 0.813 -35.217 0.577 54.389
16050 0.578 54.294 0.812 -35.314 0.812 -35.314 0.578 54.294
16100 0.579 54.199 0.811 -35.41 0.811 -35.41 0.579 54.199
16150 0.581 54.104 0.81 -35.506 0.81 -35.506 0.581 54.104
16200 0.582 54.009 0.809 -35.602 0.809 -35.602 0.582 54.009
16250 0.584 53.915 0.808 -35.698 0.808 -35.698 0.584 53.915
16300 0.585 53.821 0.807 -35.793 0.807 -35.793 0.585 53.821
16350 0.586 53.727 0.806 -35.888 0.806 -35.888 0.586 53.727
16400 0.588 53.633 0.805 -35.983 0.805 -35.983 0.588 53.633
16450 0.589 53.54 0.804 -36.077 0.804 -36.077 0.589 53.54
16500 0.59 53.447 0.803 -36.171 0.803 -36.171 0.59 53.447
16550 0.592 53.354 0.802 -36.265 0.802 -36.265 0.592 53.354
16600 0.593 53.261 0.801 -36.359 0.801 -36.359 0.593 53.261
16650 0.594 53.169 0.8 -36.452 0.8 -36.452 0.594 53.169
16700 0.595 53.077 0.799 -36.546 0.799 -36.546 0.595 53.077
16750 0.597 52.985 0.798 -36.638 0.798 -36.638 0.597 52.985
16800 0.598 52.894 0.798 -36.731 0.798 -36.731 0.598 52.894
16850 0.599 52.802 0.797 -36.824 0.797 -36.824 0.599 52.802
16900 0.601 52.711 0.796 -36.916 0.796 -36.916 0.601 52.711
16950 0.602 52.62 0.795 -37.008 0.795 -37.008 0.602 52.62
