! AVX Thin Film Operation		Date: April 2012 
! Description: Accu-P® Series, Thin Film, SMD, RF Capacitor
! Part Number: 08055J170FBTTR					
!	50	MHz	-	20.05	GHz			
!	Serial	Measurements						
!								
#	MHZ	S	MA	R	50			
!	S11	S21	S12	S22				
!	dB	Phase	dB	Phase	dB	Phase	dB	Phase
50 0.881 -28.114 0.471 61.788 0.471 61.788 0.881 -28.114
100 0.681 -46.958 0.731 42.903 0.731 42.903 0.681 -46.958
150 0.524 -58.194 0.85 31.624 0.85 31.624 0.524 -58.194
200 0.416 -65.179 0.908 24.596 0.908 24.596 0.416 -65.179
250 0.34 -69.832 0.939 19.898 0.939 19.898 0.34 -69.832
300 0.285 -73.126 0.957 16.557 0.957 16.557 0.285 -73.126
350 0.243 -75.574 0.968 14.059 0.968 14.059 0.243 -75.574
400 0.21 -77.464 0.976 12.116 0.976 12.116 0.21 -77.464
450 0.183 -78.969 0.982 10.555 0.982 10.555 0.183 -78.969
500 0.161 -80.194 0.985 9.268 0.985 9.268 0.161 -80.194
550 0.142 -81.212 0.988 8.184 0.988 8.184 0.142 -81.212
600 0.126 -82.069 0.991 7.254 0.991 7.254 0.126 -82.069
650 0.112 -82.799 0.992 6.443 0.992 6.443 0.112 -82.799
700 0.1 -83.424 0.994 5.726 0.994 5.726 0.1 -83.424
750 0.089 -83.961 0.995 5.085 0.995 5.085 0.089 -83.961
800 0.079 -84.421 0.995 4.507 0.995 4.507 0.079 -84.421
850 0.069 -84.809 0.996 3.98 0.996 3.98 0.069 -84.809
900 0.061 -85.129 0.997 3.496 0.997 3.496 0.061 -85.129
950 0.053 -85.377 0.997 3.048 0.997 3.048 0.053 -85.377
1000 0.046 -85.548 0.997 2.631 0.997 2.631 0.046 -85.548
1050 0.039 -85.624 0.998 2.24 0.998 2.24 0.039 -85.624
1100 0.033 -85.575 0.998 1.873 0.998 1.873 0.033 -85.575
1150 0.027 -85.344 0.998 1.525 0.998 1.525 0.027 -85.344
1200 0.021 -84.815 0.998 1.195 0.998 1.195 0.021 -84.815
1250 0.015 -83.713 0.998 0.881 0.998 0.881 0.015 -83.713
1300 0.01 -81.241 0.998 0.58 0.998 0.58 0.01 -81.241
1350 5.28e-3 -73.728 0.999 0.291 0.999 0.291 5.28e-3 -73.728
1400 1.471e-3 -8.816 0.999 0.013 0.999 0.013 1.471e-3 -8.816
1450 4.685e-3 71.668 0.999 -0.255 0.999 -0.255 4.685e-3 71.668
1500 9.096e-3 80.289 0.999 -0.514 0.999 -0.514 9.096e-3 80.289
1550 0.013 83.025 0.998 -0.766 0.998 -0.766 0.013 83.025
1600 0.018 84.273 0.998 -1.01 0.998 -1.01 0.018 84.273
1650 0.022 84.929 0.998 -1.247 0.998 -1.247 0.022 84.929
1700 0.026 85.293 0.998 -1.479 0.998 -1.479 0.026 85.293
1750 0.03 85.493 0.998 -1.705 0.998 -1.705 0.03 85.493
1800 0.034 85.592 0.998 -1.926 0.998 -1.926 0.034 85.592
1850 0.037 85.625 0.998 -2.142 0.998 -2.142 0.037 85.625
1900 0.041 85.612 0.998 -2.354 0.998 -2.354 0.041 85.612
1950 0.045 85.568 0.998 -2.562 0.998 -2.562 0.045 85.568
2000 0.048 85.5 0.997 -2.767 0.997 -2.767 0.048 85.5
2050 0.052 85.416 0.997 -2.968 0.997 -2.968 0.052 85.416
2100 0.055 85.318 0.997 -3.166 0.997 -3.166 0.055 85.318
2150 0.059 85.209 0.997 -3.36 0.997 -3.36 0.059 85.209
2200 0.062 85.094 0.997 -3.553 0.997 -3.553 0.062 85.094
2250 0.065 84.972 0.996 -3.742 0.996 -3.742 0.065 84.972
2300 0.069 84.845 0.996 -3.929 0.996 -3.929 0.069 84.845
2350 0.072 84.714 0.996 -4.114 0.996 -4.114 0.072 84.714
2400 0.075 84.58 0.996 -4.297 0.996 -4.297 0.075 84.58
2450 0.078 84.444 0.995 -4.477 0.995 -4.477 0.078 84.444
2500 0.081 84.305 0.995 -4.656 0.995 -4.656 0.081 84.305
2550 0.084 84.166 0.995 -4.833 0.995 -4.833 0.084 84.166
2600 0.087 84.024 0.995 -5.008 0.995 -5.008 0.087 84.024
2650 0.09 83.882 0.994 -5.182 0.994 -5.182 0.09 83.882
2700 0.093 83.739 0.994 -5.354 0.994 -5.354 0.093 83.739
2750 0.096 83.596 0.994 -5.525 0.994 -5.525 0.096 83.596
2800 0.099 83.452 0.994 -5.694 0.994 -5.694 0.099 83.452
2850 0.102 83.307 0.993 -5.862 0.993 -5.862 0.102 83.307
2900 0.105 83.163 0.993 -6.029 0.993 -6.029 0.105 83.163
2950 0.108 83.018 0.993 -6.194 0.993 -6.194 0.108 83.018
3000 0.111 82.873 0.992 -6.359 0.992 -6.359 0.111 82.873
3050 0.114 82.728 0.992 -6.522 0.992 -6.522 0.114 82.728
3100 0.116 82.583 0.992 -6.684 0.992 -6.684 0.116 82.583
3150 0.119 82.439 0.991 -6.846 0.991 -6.846 0.119 82.439
3200 0.122 82.294 0.991 -7.006 0.991 -7.006 0.122 82.294
3250 0.125 82.149 0.991 -7.165 0.991 -7.165 0.125 82.149
3300 0.127 82.005 0.99 -7.324 0.99 -7.324 0.127 82.005
3350 0.13 81.861 0.99 -7.482 0.99 -7.482 0.13 81.861
3400 0.133 81.717 0.99 -7.639 0.99 -7.639 0.133 81.717
3450 0.136 81.573 0.989 -7.795 0.989 -7.795 0.136 81.573
3500 0.138 81.429 0.989 -7.95 0.989 -7.95 0.138 81.429
3550 0.141 81.286 0.989 -8.105 0.989 -8.105 0.141 81.286
3600 0.144 81.142 0.988 -8.259 0.988 -8.259 0.144 81.142
3650 0.146 80.999 0.988 -8.412 0.988 -8.412 0.146 80.999
3700 0.149 80.857 0.987 -8.565 0.987 -8.565 0.149 80.857
3750 0.152 80.714 0.987 -8.716 0.987 -8.716 0.152 80.714
3800 0.154 80.572 0.987 -8.868 0.987 -8.868 0.154 80.572
3850 0.157 80.43 0.986 -9.019 0.986 -9.019 0.157 80.43
3900 0.159 80.288 0.986 -9.169 0.986 -9.169 0.159 80.288
3950 0.162 80.147 0.985 -9.318 0.985 -9.318 0.162 80.147
4000 0.164 80.006 0.985 -9.467 0.985 -9.467 0.164 80.006
4050 0.167 79.865 0.984 -9.616 0.984 -9.616 0.167 79.865
4100 0.17 79.724 0.984 -9.764 0.984 -9.764 0.17 79.724
4150 0.172 79.584 0.984 -9.911 0.984 -9.911 0.172 79.584
4200 0.175 79.444 0.983 -10.058 0.983 -10.058 0.175 79.444
4250 0.177 79.304 0.983 -10.205 0.983 -10.205 0.177 79.304
4300 0.18 79.164 0.982 -10.351 0.982 -10.351 0.18 79.164
4350 0.182 79.025 0.982 -10.496 0.982 -10.496 0.182 79.025
4400 0.185 78.886 0.981 -10.641 0.981 -10.641 0.185 78.886
4450 0.187 78.747 0.981 -10.786 0.981 -10.786 0.187 78.747
4500 0.19 78.609 0.98 -10.93 0.98 -10.93 0.19 78.609
4550 0.192 78.47 0.98 -11.074 0.98 -11.074 0.192 78.47
4600 0.195 78.332 0.979 -11.217 0.979 -11.217 0.195 78.332
4650 0.197 78.195 0.979 -11.36 0.979 -11.36 0.197 78.195
4700 0.199 78.057 0.978 -11.503 0.978 -11.503 0.199 78.057
4750 0.202 77.92 0.978 -11.645 0.978 -11.645 0.202 77.92
4800 0.204 77.783 0.977 -11.787 0.977 -11.787 0.204 77.783
4850 0.207 77.646 0.977 -11.928 0.977 -11.928 0.207 77.646
4900 0.209 77.51 0.976 -12.069 0.976 -12.069 0.209 77.51
4950 0.211 77.373 0.976 -12.21 0.976 -12.21 0.211 77.373
5000 0.214 77.237 0.975 -12.35 0.975 -12.35 0.214 77.237
5050 0.216 77.102 0.975 -12.49 0.975 -12.49 0.216 77.102
5100 0.219 76.966 0.974 -12.63 0.974 -12.63 0.219 76.966
5150 0.221 76.831 0.974 -12.769 0.974 -12.769 0.221 76.831
5200 0.223 76.696 0.973 -12.908 0.973 -12.908 0.223 76.696
5250 0.226 76.561 0.973 -13.046 0.973 -13.046 0.226 76.561
5300 0.228 76.427 0.972 -13.185 0.972 -13.185 0.228 76.427
5350 0.23 76.292 0.972 -13.323 0.972 -13.323 0.23 76.292
5400 0.233 76.158 0.971 -13.46 0.971 -13.46 0.233 76.158
5450 0.235 76.024 0.97 -13.597 0.97 -13.597 0.235 76.024
5500 0.237 75.891 0.97 -13.734 0.97 -13.734 0.237 75.891
5550 0.24 75.758 0.969 -13.871 0.969 -13.871 0.24 75.758
5600 0.242 75.625 0.969 -14.007 0.969 -14.007 0.242 75.625
5650 0.244 75.492 0.968 -14.143 0.968 -14.143 0.244 75.492
5700 0.247 75.359 0.968 -14.279 0.968 -14.279 0.247 75.359
5750 0.249 75.227 0.967 -14.415 0.967 -14.415 0.249 75.227
5800 0.251 75.094 0.966 -14.55 0.966 -14.55 0.251 75.094
5850 0.254 74.963 0.966 -14.685 0.966 -14.685 0.254 74.963
5900 0.256 74.831 0.965 -14.819 0.965 -14.819 0.256 74.831
5950 0.258 74.699 0.965 -14.953 0.965 -14.953 0.258 74.699
6000 0.26 74.568 0.964 -15.087 0.964 -15.087 0.26 74.568
6050 0.263 74.437 0.963 -15.221 0.963 -15.221 0.263 74.437
6100 0.265 74.306 0.963 -15.354 0.963 -15.354 0.265 74.306
6150 0.267 74.176 0.962 -15.488 0.962 -15.488 0.267 74.176
6200 0.269 74.046 0.961 -15.62 0.961 -15.62 0.269 74.046
6250 0.271 73.916 0.961 -15.753 0.961 -15.753 0.271 73.916
6300 0.274 73.786 0.96 -15.885 0.96 -15.885 0.274 73.786
6350 0.276 73.656 0.96 -16.017 0.96 -16.017 0.276 73.656
6400 0.278 73.527 0.959 -16.149 0.959 -16.149 0.278 73.527
6450 0.28 73.398 0.958 -16.281 0.958 -16.281 0.28 73.398
6500 0.283 73.269 0.958 -16.412 0.958 -16.412 0.283 73.269
6550 0.285 73.14 0.957 -16.543 0.957 -16.543 0.285 73.14
6600 0.287 73.011 0.956 -16.673 0.956 -16.673 0.287 73.011
6650 0.289 72.883 0.956 -16.804 0.956 -16.804 0.289 72.883
6700 0.291 72.755 0.955 -16.934 0.955 -16.934 0.291 72.755
6750 0.293 72.627 0.954 -17.064 0.954 -17.064 0.293 72.627
6800 0.296 72.5 0.954 -17.193 0.954 -17.193 0.296 72.5
6850 0.298 72.372 0.953 -17.323 0.953 -17.323 0.298 72.372
6900 0.3 72.245 0.952 -17.452 0.952 -17.452 0.3 72.245
6950 0.302 72.118 0.952 -17.581 0.952 -17.581 0.302 72.118
7000 0.304 71.992 0.951 -17.709 0.951 -17.709 0.304 71.992
7050 0.306 71.865 0.95 -17.838 0.95 -17.838 0.306 71.865
7100 0.308 71.739 0.95 -17.966 0.95 -17.966 0.308 71.739
7150 0.311 71.613 0.949 -18.094 0.949 -18.094 0.311 71.613
7200 0.313 71.487 0.948 -18.221 0.948 -18.221 0.313 71.487
7250 0.315 71.362 0.948 -18.349 0.948 -18.349 0.315 71.362
7300 0.317 71.236 0.947 -18.476 0.947 -18.476 0.317 71.236
7350 0.319 71.111 0.946 -18.602 0.946 -18.602 0.319 71.111
7400 0.321 70.986 0.945 -18.729 0.945 -18.729 0.321 70.986
7450 0.323 70.862 0.945 -18.855 0.945 -18.855 0.323 70.862
7500 0.325 70.737 0.944 -18.981 0.944 -18.981 0.325 70.737
7550 0.327 70.613 0.943 -19.107 0.943 -19.107 0.327 70.613
7600 0.329 70.489 0.943 -19.233 0.943 -19.233 0.329 70.489
7650 0.331 70.365 0.942 -19.358 0.942 -19.358 0.331 70.365
7700 0.334 70.242 0.941 -19.483 0.941 -19.483 0.334 70.242
7750 0.336 70.118 0.94 -19.608 0.94 -19.608 0.336 70.118
7800 0.338 69.995 0.94 -19.733 0.94 -19.733 0.338 69.995
7850 0.34 69.872 0.939 -19.857 0.939 -19.857 0.34 69.872
7900 0.342 69.75 0.938 -19.981 0.938 -19.981 0.342 69.75
7950 0.344 69.627 0.937 -20.105 0.937 -20.105 0.344 69.627
8000 0.346 69.505 0.937 -20.229 0.937 -20.229 0.346 69.505
8050 0.348 69.383 0.936 -20.352 0.936 -20.352 0.348 69.383
8100 0.35 69.261 0.935 -20.475 0.935 -20.475 0.35 69.261
8150 0.352 69.14 0.934 -20.598 0.934 -20.598 0.352 69.14
8200 0.354 69.019 0.934 -20.721 0.934 -20.721 0.354 69.019
8250 0.356 68.897 0.933 -20.843 0.933 -20.843 0.356 68.897
8300 0.358 68.777 0.932 -20.965 0.932 -20.965 0.358 68.777
8350 0.36 68.656 0.931 -21.087 0.931 -21.087 0.36 68.656
8400 0.362 68.535 0.931 -21.209 0.931 -21.209 0.362 68.535
8450 0.364 68.415 0.93 -21.331 0.93 -21.331 0.364 68.415
8500 0.366 68.295 0.929 -21.452 0.929 -21.452 0.366 68.295
8550 0.368 68.176 0.928 -21.573 0.928 -21.573 0.368 68.176
8600 0.37 68.056 0.928 -21.693 0.928 -21.693 0.37 68.056
8650 0.372 67.937 0.927 -21.814 0.927 -21.814 0.372 67.937
8700 0.374 67.818 0.926 -21.934 0.926 -21.934 0.374 67.818
8750 0.375 67.699 0.925 -22.054 0.925 -22.054 0.375 67.699
8800 0.377 67.58 0.924 -22.174 0.924 -22.174 0.377 67.58
8850 0.379 67.462 0.924 -22.294 0.924 -22.294 0.379 67.462
8900 0.381 67.344 0.923 -22.413 0.923 -22.413 0.381 67.344
8950 0.383 67.226 0.922 -22.532 0.922 -22.532 0.383 67.226
9000 0.385 67.108 0.921 -22.651 0.921 -22.651 0.385 67.108
9050 0.387 66.99 0.92 -22.769 0.92 -22.769 0.387 66.99
9100 0.389 66.873 0.92 -22.888 0.92 -22.888 0.389 66.873
9150 0.391 66.756 0.919 -23.006 0.919 -23.006 0.391 66.756
9200 0.393 66.639 0.918 -23.124 0.918 -23.124 0.393 66.639
9250 0.395 66.523 0.917 -23.241 0.917 -23.241 0.395 66.523
9300 0.396 66.406 0.916 -23.359 0.916 -23.359 0.396 66.406
9350 0.398 66.29 0.916 -23.476 0.916 -23.476 0.398 66.29
9400 0.4 66.174 0.915 -23.593 0.915 -23.593 0.4 66.174
9450 0.402 66.058 0.914 -23.71 0.914 -23.71 0.402 66.058
9500 0.404 65.943 0.913 -23.826 0.913 -23.826 0.404 65.943
9550 0.406 65.828 0.912 -23.942 0.912 -23.942 0.406 65.828
9600 0.408 65.713 0.912 -24.058 0.912 -24.058 0.408 65.713
9650 0.41 65.598 0.911 -24.174 0.911 -24.174 0.41 65.598
9700 0.411 65.483 0.91 -24.29 0.91 -24.29 0.411 65.483
9750 0.413 65.369 0.909 -24.405 0.909 -24.405 0.413 65.369
9800 0.415 65.255 0.908 -24.52 0.908 -24.52 0.415 65.255
9850 0.417 65.141 0.907 -24.635 0.907 -24.635 0.417 65.141
9900 0.419 65.027 0.907 -24.749 0.907 -24.749 0.419 65.027
9950 0.42 64.913 0.906 -24.864 0.906 -24.864 0.42 64.913
10000 0.422 64.8 0.905 -24.978 0.905 -24.978 0.422 64.8
10050 0.424 64.687 0.904 -25.092 0.904 -25.092 0.424 64.687
10100 0.426 64.574 0.903 -25.205 0.903 -25.205 0.426 64.574
10150 0.428 64.462 0.902 -25.319 0.902 -25.319 0.428 64.462
10200 0.429 64.349 0.901 -25.432 0.901 -25.432 0.429 64.349
10250 0.431 64.237 0.901 -25.545 0.901 -25.545 0.431 64.237
10300 0.433 64.125 0.9 -25.658 0.9 -25.658 0.433 64.125
10350 0.435 64.014 0.899 -25.77 0.899 -25.77 0.435 64.014
10400 0.437 63.902 0.898 -25.882 0.898 -25.882 0.437 63.902
10450 0.438 63.791 0.897 -25.994 0.897 -25.994 0.438 63.791
10500 0.44 63.68 0.896 -26.106 0.896 -26.106 0.44 63.68
10550 0.442 63.569 0.895 -26.218 0.895 -26.218 0.442 63.569
10600 0.444 63.459 0.895 -26.329 0.895 -26.329 0.444 63.459
10650 0.445 63.348 0.894 -26.44 0.894 -26.44 0.445 63.348
10700 0.447 63.238 0.893 -26.551 0.893 -26.551 0.447 63.238
10750 0.449 63.128 0.892 -26.662 0.892 -26.662 0.449 63.128
10800 0.45 63.019 0.891 -26.772 0.891 -26.772 0.45 63.019
10850 0.452 62.909 0.89 -26.882 0.89 -26.882 0.452 62.909
10900 0.454 62.8 0.889 -26.992 0.889 -26.992 0.454 62.8
10950 0.456 62.691 0.889 -27.102 0.889 -27.102 0.456 62.691
11000 0.457 62.582 0.888 -27.211 0.888 -27.211 0.457 62.582
11050 0.459 62.474 0.887 -27.321 0.887 -27.321 0.459 62.474
11100 0.461 62.366 0.886 -27.43 0.886 -27.43 0.461 62.366
11150 0.462 62.257 0.885 -27.538 0.885 -27.538 0.462 62.257
11200 0.464 62.15 0.884 -27.647 0.884 -27.647 0.464 62.15
11250 0.466 62.042 0.883 -27.755 0.883 -27.755 0.466 62.042
11300 0.467 61.935 0.882 -27.863 0.882 -27.863 0.467 61.935
11350 0.469 61.827 0.882 -27.971 0.882 -27.971 0.469 61.827
11400 0.471 61.72 0.881 -28.079 0.881 -28.079 0.471 61.72
11450 0.472 61.614 0.88 -28.186 0.88 -28.186 0.472 61.614
11500 0.474 61.507 0.879 -28.293 0.879 -28.293 0.474 61.507
11550 0.476 61.401 0.878 -28.4 0.878 -28.4 0.476 61.401
11600 0.477 61.295 0.877 -28.507 0.877 -28.507 0.477 61.295
11650 0.479 61.189 0.876 -28.613 0.876 -28.613 0.479 61.189
11700 0.481 61.083 0.875 -28.72 0.875 -28.72 0.481 61.083
11750 0.482 60.978 0.874 -28.826 0.874 -28.826 0.482 60.978
11800 0.484 60.873 0.874 -28.932 0.874 -28.932 0.484 60.873
11850 0.485 60.768 0.873 -29.037 0.873 -29.037 0.485 60.768
11900 0.487 60.663 0.872 -29.142 0.872 -29.142 0.487 60.663
11950 0.489 60.559 0.871 -29.248 0.871 -29.248 0.489 60.559
12000 0.49 60.454 0.87 -29.352 0.87 -29.352 0.49 60.454
12050 0.492 60.35 0.869 -29.457 0.869 -29.457 0.492 60.35
12100 0.493 60.246 0.868 -29.562 0.868 -29.562 0.493 60.246
12150 0.495 60.143 0.867 -29.666 0.867 -29.666 0.495 60.143
12200 0.497 60.039 0.866 -29.77 0.866 -29.77 0.497 60.039
12250 0.498 59.936 0.865 -29.873 0.865 -29.873 0.498 59.936
12300 0.5 59.833 0.865 -29.977 0.865 -29.977 0.5 59.833
12350 0.501 59.73 0.864 -30.08 0.864 -30.08 0.501 59.73
12400 0.503 59.628 0.863 -30.183 0.863 -30.183 0.503 59.628
12450 0.504 59.526 0.862 -30.286 0.862 -30.286 0.504 59.526
12500 0.506 59.424 0.861 -30.389 0.861 -30.389 0.506 59.424
12550 0.507 59.322 0.86 -30.491 0.86 -30.491 0.507 59.322
12600 0.509 59.22 0.859 -30.593 0.859 -30.593 0.509 59.22
12650 0.51 59.119 0.858 -30.695 0.858 -30.695 0.51 59.119
12700 0.512 59.017 0.857 -30.797 0.857 -30.797 0.512 59.017
12750 0.514 58.917 0.856 -30.898 0.856 -30.898 0.514 58.917
12800 0.515 58.816 0.856 -31 0.856 -31 0.515 58.816
12850 0.517 58.715 0.855 -31.101 0.855 -31.101 0.517 58.715
12900 0.518 58.615 0.854 -31.202 0.854 -31.202 0.518 58.615
12950 0.52 58.515 0.853 -31.302 0.853 -31.302 0.52 58.515
13000 0.521 58.415 0.852 -31.402 0.852 -31.402 0.521 58.415
13050 0.523 58.315 0.851 -31.503 0.851 -31.503 0.523 58.315
13100 0.524 58.216 0.85 -31.603 0.85 -31.603 0.524 58.216
13150 0.526 58.117 0.849 -31.702 0.849 -31.702 0.526 58.117
13200 0.527 58.018 0.848 -31.802 0.848 -31.802 0.527 58.018
13250 0.528 57.919 0.847 -31.901 0.847 -31.901 0.528 57.919
13300 0.53 57.82 0.846 -32 0.846 -32 0.53 57.82
13350 0.531 57.722 0.845 -32.099 0.845 -32.099 0.531 57.722
13400 0.533 57.624 0.845 -32.197 0.845 -32.197 0.533 57.624
13450 0.534 57.526 0.844 -32.296 0.844 -32.296 0.534 57.526
13500 0.536 57.428 0.843 -32.394 0.843 -32.394 0.536 57.428
13550 0.537 57.331 0.842 -32.492 0.842 -32.492 0.537 57.331
13600 0.539 57.234 0.841 -32.589 0.841 -32.589 0.539 57.234
13650 0.54 57.137 0.84 -32.687 0.84 -32.687 0.54 57.137
13700 0.541 57.04 0.839 -32.784 0.839 -32.784 0.541 57.04
13750 0.543 56.943 0.838 -32.881 0.838 -32.881 0.543 56.943
13800 0.544 56.847 0.837 -32.978 0.837 -32.978 0.544 56.847
13850 0.546 56.751 0.836 -33.075 0.836 -33.075 0.546 56.751
13900 0.547 56.655 0.835 -33.171 0.835 -33.171 0.547 56.655
13950 0.549 56.559 0.834 -33.267 0.834 -33.267 0.549 56.559
14000 0.55 56.464 0.834 -33.363 0.834 -33.363 0.55 56.464
14050 0.551 56.368 0.833 -33.459 0.833 -33.459 0.551 56.368
14100 0.553 56.273 0.832 -33.554 0.832 -33.554 0.553 56.273
14150 0.554 56.178 0.831 -33.65 0.831 -33.65 0.554 56.178
14200 0.555 56.084 0.83 -33.745 0.83 -33.745 0.555 56.084
14250 0.557 55.989 0.829 -33.84 0.829 -33.84 0.557 55.989
14300 0.558 55.895 0.828 -33.934 0.828 -33.934 0.558 55.895
14350 0.56 55.801 0.827 -34.029 0.827 -34.029 0.56 55.801
14400 0.561 55.707 0.826 -34.123 0.826 -34.123 0.561 55.707
14450 0.562 55.614 0.825 -34.217 0.825 -34.217 0.562 55.614
14500 0.564 55.52 0.824 -34.311 0.824 -34.311 0.564 55.52
14550 0.565 55.427 0.823 -34.404 0.823 -34.404 0.565 55.427
14600 0.566 55.334 0.822 -34.497 0.822 -34.497 0.566 55.334
14650 0.568 55.241 0.822 -34.591 0.822 -34.591 0.568 55.241
14700 0.569 55.149 0.821 -34.684 0.821 -34.684 0.569 55.149
14750 0.57 55.057 0.82 -34.776 0.82 -34.776 0.57 55.057
14800 0.572 54.964 0.819 -34.869 0.819 -34.869 0.572 54.964
14850 0.573 54.873 0.818 -34.961 0.818 -34.961 0.573 54.873
14900 0.574 54.781 0.817 -35.053 0.817 -35.053 0.574 54.781
14950 0.576 54.689 0.816 -35.145 0.816 -35.145 0.576 54.689
15000 0.577 54.598 0.815 -35.237 0.815 -35.237 0.577 54.598
15050 0.578 54.507 0.814 -35.328 0.814 -35.328 0.578 54.507
15100 0.58 54.416 0.813 -35.419 0.813 -35.419 0.58 54.416
15150 0.581 54.326 0.812 -35.51 0.812 -35.51 0.581 54.326
15200 0.582 54.235 0.811 -35.601 0.811 -35.601 0.582 54.235
15250 0.583 54.145 0.811 -35.691 0.811 -35.691 0.583 54.145
15300 0.585 54.055 0.81 -35.782 0.81 -35.782 0.585 54.055
15350 0.586 53.965 0.809 -35.872 0.809 -35.872 0.586 53.965
15400 0.587 53.876 0.808 -35.962 0.808 -35.962 0.587 53.876
15450 0.589 53.786 0.807 -36.052 0.807 -36.052 0.589 53.786
15500 0.59 53.697 0.806 -36.141 0.806 -36.141 0.59 53.697
15550 0.591 53.608 0.805 -36.231 0.805 -36.231 0.591 53.608
15600 0.592 53.519 0.804 -36.32 0.804 -36.32 0.592 53.519
15650 0.594 53.431 0.803 -36.409 0.803 -36.409 0.594 53.431
15700 0.595 53.342 0.802 -36.497 0.802 -36.497 0.595 53.342
15750 0.596 53.254 0.801 -36.586 0.801 -36.586 0.596 53.254
15800 0.597 53.166 0.8 -36.674 0.8 -36.674 0.597 53.166
15850 0.598 53.079 0.799 -36.762 0.799 -36.762 0.598 53.079
15900 0.6 52.991 0.799 -36.85 0.799 -36.85 0.6 52.991
15950 0.601 52.904 0.798 -36.938 0.798 -36.938 0.601 52.904
16000 0.602 52.817 0.797 -37.025 0.797 -37.025 0.602 52.817
16050 0.603 52.73 0.796 -37.112 0.796 -37.112 0.603 52.73
16100 0.605 52.643 0.795 -37.199 0.795 -37.199 0.605 52.643
16150 0.606 52.556 0.794 -37.286 0.794 -37.286 0.606 52.556
16200 0.607 52.47 0.793 -37.373 0.793 -37.373 0.607 52.47
16250 0.608 52.384 0.792 -37.459 0.792 -37.459 0.608 52.384
16300 0.609 52.298 0.791 -37.545 0.791 -37.545 0.609 52.298
16350 0.611 52.212 0.79 -37.631 0.79 -37.631 0.611 52.212
16400 0.612 52.127 0.789 -37.717 0.789 -37.717 0.612 52.127
16450 0.613 52.042 0.788 -37.803 0.788 -37.803 0.613 52.042
16500 0.614 51.956 0.788 -37.888 0.788 -37.888 0.614 51.956
16550 0.615 51.872 0.787 -37.973 0.787 -37.973 0.615 51.872
16600 0.616 51.787 0.786 -38.058 0.786 -38.058 0.616 51.787
16650 0.618 51.702 0.785 -38.143 0.785 -38.143 0.618 51.702
16700 0.619 51.618 0.784 -38.228 0.784 -38.228 0.619 51.618
16750 0.62 51.534 0.783 -38.312 0.783 -38.312 0.62 51.534
16800 0.621 51.45 0.782 -38.396 0.782 -38.396 0.621 51.45
16850 0.622 51.366 0.781 -38.48 0.781 -38.48 0.622 51.366
16900 0.623 51.283 0.78 -38.564 0.78 -38.564 0.623 51.283
16950 0.625 51.199 0.779 -38.648 0.779 -38.648 0.625 51.199
