! AVX Thin Film Operation		Date: April 2012 
! Description: Accu-P® Series, Thin Film, SMD, RF Capacitor
! Part Number: 08051J0R3PBTTR					
!	100	MHz	-	30.05	GHz			
!	Serial	Measurements						
!								
#	MHZ	S	MA	R	50			
!	S11	S21	S12	S22				
!	dB	Phase	dB	Phase	dB	Phase	dB	Phase
100	1	-1.08	0.019	88.917	0.019	88.917	1	-1.08
107.458	1	-1.16	0.02	88.836	0.02	88.836	1	-1.16
114.916	1	-1.241	0.022	88.755	0.022	88.755	1	-1.241
122.375	1	-1.322	0.023	88.675	0.023	88.675	1	-1.322
129.833	1	-1.402	0.024	88.594	0.024	88.594	1	-1.402
137.291	1	-1.483	0.026	88.513	0.026	88.513	1	-1.483
144.749	1	-1.563	0.027	88.432	0.027	88.432	1	-1.563
152.208	1	-1.644	0.029	88.352	0.029	88.352	1	-1.644
159.666	1	-1.724	0.03	88.271	0.03	88.271	1	-1.724
167.124	1	-1.805	0.031	88.19	0.031	88.19	1	-1.805
174.582	0.999	-1.885	0.033	88.109	0.033	88.109	0.999	-1.885
182.04	0.999	-1.966	0.034	88.029	0.034	88.029	0.999	-1.966
189.499	0.999	-2.046	0.036	87.948	0.036	87.948	0.999	-2.046
196.957	0.999	-2.127	0.037	87.867	0.037	87.867	0.999	-2.127
204.415	0.999	-2.207	0.039	87.787	0.039	87.787	0.999	-2.207
211.873	0.999	-2.288	0.04	87.706	0.04	87.706	0.999	-2.288
219.332	0.999	-2.368	0.041	87.625	0.041	87.625	0.999	-2.368
226.79	0.999	-2.449	0.043	87.544	0.043	87.544	0.999	-2.449
234.248	0.999	-2.529	0.044	87.464	0.044	87.464	0.999	-2.529
241.706	0.999	-2.61	0.046	87.383	0.046	87.383	0.999	-2.61
249.164	0.999	-2.69	0.047	87.302	0.047	87.302	0.999	-2.69
256.623	0.999	-2.771	0.048	87.222	0.048	87.222	0.999	-2.771
264.081	0.999	-2.851	0.05	87.141	0.05	87.141	0.999	-2.851
271.539	0.999	-2.932	0.051	87.06	0.051	87.06	0.999	-2.932
278.997	0.999	-3.012	0.053	86.98	0.053	86.98	0.999	-3.012
286.455	0.999	-3.092	0.054	86.899	0.054	86.899	0.999	-3.092
293.914	0.998	-3.173	0.055	86.818	0.055	86.818	0.998	-3.173
301.372	0.998	-3.253	0.057	86.738	0.057	86.738	0.998	-3.253
308.83	0.998	-3.334	0.058	86.657	0.058	86.657	0.998	-3.334
316.288	0.998	-3.414	0.06	86.576	0.06	86.576	0.998	-3.414
323.747	0.998	-3.495	0.061	86.496	0.061	86.496	0.998	-3.495
331.205	0.998	-3.575	0.062	86.415	0.062	86.415	0.998	-3.575
338.663	0.998	-3.655	0.064	86.334	0.064	86.334	0.998	-3.655
346.121	0.998	-3.736	0.065	86.254	0.065	86.254	0.998	-3.736
353.579	0.998	-3.816	0.067	86.173	0.067	86.173	0.998	-3.816
361.038	0.998	-3.897	0.068	86.092	0.068	86.092	0.998	-3.897
368.496	0.998	-3.977	0.069	86.012	0.069	86.012	0.998	-3.977
375.954	0.997	-4.057	0.071	85.931	0.071	85.931	0.997	-4.057
383.412	0.997	-4.138	0.072	85.851	0.072	85.851	0.997	-4.138
390.871	0.997	-4.218	0.074	85.77	0.074	85.77	0.997	-4.218
398.329	0.997	-4.298	0.075	85.689	0.075	85.689	0.997	-4.298
405.787	0.997	-4.379	0.076	85.609	0.076	85.609	0.997	-4.379
413.245	0.997	-4.459	0.078	85.528	0.078	85.528	0.997	-4.459
420.703	0.997	-4.539	0.079	85.448	0.079	85.448	0.997	-4.539
428.162	0.997	-4.62	0.081	85.367	0.081	85.367	0.997	-4.62
435.62	0.997	-4.7	0.082	85.287	0.082	85.287	0.997	-4.7
443.078	0.997	-4.78	0.083	85.206	0.083	85.206	0.997	-4.78
450.536	0.996	-4.861	0.085	85.126	0.085	85.126	0.996	-4.861
457.995	0.996	-4.941	0.086	85.045	0.086	85.045	0.996	-4.941
465.453	0.996	-5.021	0.088	84.965	0.088	84.965	0.996	-5.021
472.911	0.996	-5.102	0.089	84.884	0.089	84.884	0.996	-5.102
480.369	0.996	-5.182	0.09	84.804	0.09	84.804	0.996	-5.182
487.827	0.996	-5.262	0.092	84.723	0.092	84.723	0.996	-5.262
495.286	0.996	-5.342	0.093	84.643	0.093	84.643	0.996	-5.342
502.744	0.995	-5.423	0.095	84.562	0.095	84.562	0.995	-5.423
510.202	0.995	-5.503	0.096	84.482	0.096	84.482	0.995	-5.503
517.66	0.995	-5.583	0.097	84.401	0.097	84.401	0.995	-5.583
525.118	0.995	-5.663	0.099	84.321	0.099	84.321	0.995	-5.663
532.577	0.995	-5.743	0.1	84.24	0.1	84.24	0.995	-5.743
540.035	0.995	-5.824	0.101	84.16	0.101	84.16	0.995	-5.824
547.493	0.995	-5.904	0.103	84.08	0.103	84.08	0.995	-5.904
554.951	0.995	-5.984	0.104	83.999	0.104	83.999	0.995	-5.984
562.41	0.994	-6.064	0.106	83.919	0.106	83.919	0.994	-6.064
569.868	0.994	-6.144	0.107	83.838	0.107	83.838	0.994	-6.144
577.326	0.994	-6.224	0.108	83.758	0.108	83.758	0.994	-6.224
584.784	0.994	-6.305	0.11	83.678	0.11	83.678	0.994	-6.305
592.242	0.994	-6.385	0.111	83.597	0.111	83.597	0.994	-6.385
599.701	0.994	-6.465	0.113	83.517	0.113	83.517	0.994	-6.465
607.159	0.993	-6.545	0.114	83.437	0.114	83.437	0.993	-6.545
614.617	0.993	-6.625	0.115	83.356	0.115	83.356	0.993	-6.625
622.075	0.993	-6.705	0.117	83.276	0.117	83.276	0.993	-6.705
629.534	0.993	-6.785	0.118	83.196	0.118	83.196	0.993	-6.785
636.992	0.993	-6.865	0.12	83.115	0.12	83.115	0.993	-6.865
644.45	0.993	-6.945	0.121	83.035	0.121	83.035	0.993	-6.945
651.908	0.992	-7.025	0.122	82.955	0.122	82.955	0.992	-7.025
659.366	0.992	-7.105	0.124	82.875	0.124	82.875	0.992	-7.105
666.825	0.992	-7.185	0.125	82.794	0.125	82.794	0.992	-7.185
674.283	0.992	-7.265	0.126	82.714	0.126	82.714	0.992	-7.265
681.741	0.992	-7.345	0.128	82.634	0.128	82.634	0.992	-7.345
689.199	0.992	-7.425	0.129	82.554	0.129	82.554	0.992	-7.425
696.658	0.991	-7.505	0.131	82.474	0.131	82.474	0.991	-7.505
704.116	0.991	-7.585	0.132	82.394	0.132	82.394	0.991	-7.585
711.574	0.991	-7.665	0.133	82.313	0.133	82.313	0.991	-7.665
719.032	0.991	-7.745	0.135	82.233	0.135	82.233	0.991	-7.745
726.49	0.991	-7.825	0.136	82.153	0.136	82.153	0.991	-7.825
733.949	0.99	-7.905	0.138	82.073	0.138	82.073	0.99	-7.905
741.407	0.99	-7.985	0.139	81.993	0.139	81.993	0.99	-7.985
748.865	0.99	-8.064	0.14	81.913	0.14	81.913	0.99	-8.064
756.323	0.99	-8.144	0.142	81.833	0.142	81.833	0.99	-8.144
763.781	0.99	-8.224	0.143	81.753	0.143	81.753	0.99	-8.224
771.24	0.989	-8.304	0.144	81.673	0.144	81.673	0.989	-8.304
778.698	0.989	-8.384	0.146	81.593	0.146	81.593	0.989	-8.384
786.156	0.989	-8.464	0.147	81.513	0.147	81.513	0.989	-8.464
793.614	0.989	-8.543	0.149	81.433	0.149	81.433	0.989	-8.543
801.073	0.989	-8.623	0.15	81.353	0.15	81.353	0.989	-8.623
808.531	0.988	-8.703	0.151	81.273	0.151	81.273	0.988	-8.703
815.989	0.988	-8.783	0.153	81.193	0.153	81.193	0.988	-8.783
823.447	0.988	-8.862	0.154	81.113	0.154	81.113	0.988	-8.862
830.905	0.988	-8.942	0.155	81.033	0.155	81.033	0.988	-8.942
838.364	0.988	-9.022	0.157	80.953	0.157	80.953	0.988	-9.022
845.822	0.987	-9.101	0.158	80.873	0.158	80.873	0.987	-9.101
853.28	0.987	-9.181	0.16	80.793	0.16	80.793	0.987	-9.181
860.738	0.987	-9.261	0.161	80.713	0.161	80.713	0.987	-9.261
868.197	0.987	-9.34	0.162	80.633	0.162	80.633	0.987	-9.34
875.655	0.986	-9.42	0.164	80.553	0.164	80.553	0.986	-9.42
883.113	0.986	-9.499	0.165	80.474	0.165	80.474	0.986	-9.499
890.571	0.986	-9.579	0.166	80.394	0.166	80.394	0.986	-9.579
898.029	0.986	-9.659	0.168	80.314	0.168	80.314	0.986	-9.659
905.488	0.986	-9.738	0.169	80.234	0.169	80.234	0.986	-9.738
912.946	0.985	-9.818	0.171	80.154	0.171	80.154	0.985	-9.818
920.404	0.985	-9.897	0.172	80.075	0.172	80.075	0.985	-9.897
927.862	0.985	-9.977	0.173	79.995	0.173	79.995	0.985	-9.977
935.321	0.985	-10.056	0.175	79.915	0.175	79.915	0.985	-10.056
942.779	0.984	-10.136	0.176	79.836	0.176	79.836	0.984	-10.136
950.237	0.984	-10.215	0.177	79.756	0.177	79.756	0.984	-10.215
957.695	0.984	-10.295	0.179	79.676	0.179	79.676	0.984	-10.295
965.153	0.984	-10.374	0.18	79.597	0.18	79.597	0.984	-10.374
972.612	0.983	-10.453	0.181	79.517	0.181	79.517	0.983	-10.453
980.07	0.983	-10.533	0.183	79.437	0.183	79.437	0.983	-10.533
987.528	0.983	-10.612	0.184	79.358	0.184	79.358	0.983	-10.612
994.986	0.983	-10.691	0.186	79.278	0.186	79.278	0.983	-10.691
1002.444	0.982	-10.771	0.187	79.199	0.187	79.199	0.982	-10.771
1009.903	0.982	-10.85	0.188	79.119	0.188	79.119	0.982	-10.85
1017.361	0.982	-10.929	0.19	79.04	0.19	79.04	0.982	-10.929
1024.819	0.981	-11.009	0.191	78.96	0.191	78.96	0.981	-11.009
1032.277	0.981	-11.088	0.192	78.881	0.192	78.881	0.981	-11.088
1039.736	0.981	-11.167	0.194	78.801	0.194	78.801	0.981	-11.167
1047.194	0.981	-11.246	0.195	78.722	0.195	78.722	0.981	-11.246
1054.652	0.98	-11.326	0.196	78.642	0.196	78.642	0.98	-11.326
1062.11	0.98	-11.405	0.198	78.563	0.198	78.563	0.98	-11.405
1069.568	0.98	-11.484	0.199	78.483	0.199	78.483	0.98	-11.484
1077.027	0.98	-11.563	0.2	78.404	0.2	78.404	0.98	-11.563
1084.485	0.979	-11.642	0.202	78.325	0.202	78.325	0.979	-11.642
1091.943	0.979	-11.721	0.203	78.245	0.203	78.245	0.979	-11.721
1099.401	0.979	-11.8	0.205	78.166	0.205	78.166	0.979	-11.8
1106.86	0.978	-11.879	0.206	78.087	0.206	78.087	0.978	-11.879
1114.318	0.978	-11.958	0.207	78.008	0.207	78.008	0.978	-11.958
1121.776	0.978	-12.037	0.209	77.928	0.209	77.928	0.978	-12.037
1129.234	0.978	-12.116	0.21	77.849	0.21	77.849	0.978	-12.116
1136.692	0.977	-12.195	0.211	77.77	0.211	77.77	0.977	-12.195
1144.151	0.977	-12.274	0.213	77.691	0.213	77.691	0.977	-12.274
1151.609	0.977	-12.353	0.214	77.611	0.214	77.611	0.977	-12.353
1159.067	0.976	-12.432	0.215	77.532	0.215	77.532	0.976	-12.432
1166.525	0.976	-12.511	0.217	77.453	0.217	77.453	0.976	-12.511
1173.984	0.976	-12.59	0.218	77.374	0.218	77.374	0.976	-12.59
1181.442	0.976	-12.669	0.219	77.295	0.219	77.295	0.976	-12.669
1188.9	0.975	-12.748	0.221	77.216	0.221	77.216	0.975	-12.748
1196.358	0.975	-12.827	0.222	77.137	0.222	77.137	0.975	-12.827
1203.816	0.975	-12.905	0.223	77.058	0.223	77.058	0.975	-12.905
1211.275	0.974	-12.984	0.225	76.979	0.225	76.979	0.974	-12.984
1218.733	0.974	-13.063	0.226	76.9	0.226	76.9	0.974	-13.063
1226.191	0.974	-13.142	0.227	76.821	0.227	76.821	0.974	-13.142
1233.649	0.973	-13.22	0.229	76.742	0.229	76.742	0.973	-13.22
1241.108	0.973	-13.299	0.23	76.663	0.23	76.663	0.973	-13.299
1248.566	0.973	-13.378	0.231	76.584	0.231	76.584	0.973	-13.378
1256.024	0.972	-13.456	0.233	76.505	0.233	76.505	0.972	-13.456
1263.482	0.972	-13.535	0.234	76.426	0.234	76.426	0.972	-13.535
1270.94	0.972	-13.614	0.235	76.348	0.235	76.348	0.972	-13.614
1278.399	0.971	-13.692	0.237	76.269	0.237	76.269	0.971	-13.692
1285.857	0.971	-13.771	0.238	76.19	0.238	76.19	0.971	-13.771
1293.315	0.971	-13.849	0.239	76.111	0.239	76.111	0.971	-13.849
1300.773	0.97	-13.928	0.241	76.032	0.241	76.032	0.97	-13.928
1308.231	0.97	-14.006	0.242	75.954	0.242	75.954	0.97	-14.006
1315.69	0.97	-14.085	0.243	75.875	0.243	75.875	0.97	-14.085
1323.148	0.969	-14.163	0.245	75.796	0.245	75.796	0.969	-14.163
1330.606	0.969	-14.242	0.246	75.718	0.246	75.718	0.969	-14.242
1338.064	0.969	-14.32	0.247	75.639	0.247	75.639	0.969	-14.32
1345.523	0.968	-14.398	0.249	75.56	0.249	75.56	0.968	-14.398
1352.981	0.968	-14.477	0.25	75.482	0.25	75.482	0.968	-14.477
1360.439	0.968	-14.555	0.251	75.403	0.251	75.403	0.968	-14.555
1367.897	0.967	-14.633	0.253	75.325	0.253	75.325	0.967	-14.633
1375.355	0.967	-14.712	0.254	75.246	0.254	75.246	0.967	-14.712
1382.814	0.967	-14.79	0.255	75.168	0.255	75.168	0.967	-14.79
1390.272	0.966	-14.868	0.257	75.089	0.257	75.089	0.966	-14.868
1397.73	0.966	-14.946	0.258	75.011	0.258	75.011	0.966	-14.946
1405.188	0.966	-15.024	0.259	74.932	0.259	74.932	0.966	-15.024
1412.647	0.965	-15.103	0.261	74.854	0.261	74.854	0.965	-15.103
1420.105	0.965	-15.181	0.262	74.776	0.262	74.776	0.965	-15.181
1427.563	0.965	-15.259	0.263	74.697	0.263	74.697	0.965	-15.259
1435.021	0.964	-15.337	0.264	74.619	0.264	74.619	0.964	-15.337
1442.479	0.964	-15.415	0.266	74.541	0.266	74.541	0.964	-15.415
1449.938	0.963	-15.493	0.267	74.462	0.267	74.462	0.963	-15.493
1457.396	0.963	-15.571	0.268	74.384	0.268	74.384	0.963	-15.571
1464.854	0.963	-15.649	0.27	74.306	0.27	74.306	0.963	-15.649
1472.312	0.962	-15.727	0.271	74.228	0.271	74.228	0.962	-15.727
1479.771	0.962	-15.805	0.272	74.15	0.272	74.15	0.962	-15.805
1487.229	0.962	-15.883	0.274	74.071	0.274	74.071	0.962	-15.883
1494.687	0.961	-15.961	0.275	73.993	0.275	73.993	0.961	-15.961
1502.145	0.961	-16.039	0.276	73.915	0.276	73.915	0.961	-16.039
1509.603	0.96	-16.116	0.278	73.837	0.278	73.837	0.96	-16.116
1517.062	0.96	-16.194	0.279	73.759	0.279	73.759	0.96	-16.194
1524.52	0.96	-16.272	0.28	73.681	0.28	73.681	0.96	-16.272
1531.978	0.959	-16.35	0.281	73.603	0.281	73.603	0.959	-16.35
1539.436	0.959	-16.427	0.283	73.525	0.283	73.525	0.959	-16.427
1546.894	0.959	-16.505	0.284	73.447	0.284	73.447	0.959	-16.505
1554.353	0.958	-16.583	0.285	73.369	0.285	73.369	0.958	-16.583
1561.811	0.958	-16.66	0.287	73.291	0.287	73.291	0.958	-16.66
1569.269	0.957	-16.738	0.288	73.214	0.288	73.214	0.957	-16.738
1576.727	0.957	-16.816	0.289	73.136	0.289	73.136	0.957	-16.816
1584.186	0.957	-16.893	0.291	73.058	0.291	73.058	0.957	-16.893
1591.644	0.956	-16.971	0.292	72.98	0.292	72.98	0.956	-16.971
1599.102	0.956	-17.048	0.293	72.902	0.293	72.902	0.956	-17.048
1606.56	0.955	-17.126	0.294	72.825	0.294	72.825	0.955	-17.126
1614.018	0.955	-17.203	0.296	72.747	0.296	72.747	0.955	-17.203
1621.477	0.955	-17.281	0.297	72.669	0.297	72.669	0.955	-17.281
1628.935	0.954	-17.358	0.298	72.592	0.298	72.592	0.954	-17.358
1636.393	0.954	-17.435	0.3	72.514	0.3	72.514	0.954	-17.435
1643.851	0.953	-17.513	0.301	72.437	0.301	72.437	0.953	-17.513
1651.31	0.953	-17.59	0.302	72.359	0.302	72.359	0.953	-17.59
1658.768	0.953	-17.667	0.303	72.281	0.303	72.281	0.953	-17.667
1666.226	0.952	-17.745	0.305	72.204	0.305	72.204	0.952	-17.745
1673.684	0.952	-17.822	0.306	72.126	0.306	72.126	0.952	-17.822
1681.142	0.951	-17.899	0.307	72.049	0.307	72.049	0.951	-17.899
1688.601	0.951	-17.976	0.309	71.972	0.309	71.972	0.951	-17.976
1696.059	0.95	-18.053	0.31	71.894	0.31	71.894	0.95	-18.053
1703.517	0.95	-18.131	0.311	71.817	0.311	71.817	0.95	-18.131
1710.975	0.95	-18.208	0.312	71.739	0.312	71.739	0.95	-18.208
1718.434	0.949	-18.285	0.314	71.662	0.314	71.662	0.949	-18.285
1725.892	0.949	-18.362	0.315	71.585	0.315	71.585	0.949	-18.362
1733.35	0.948	-18.439	0.316	71.508	0.316	71.508	0.948	-18.439
1740.808	0.948	-18.516	0.318	71.43	0.318	71.43	0.948	-18.516
1748.266	0.948	-18.593	0.319	71.353	0.319	71.353	0.948	-18.593
1755.725	0.947	-18.67	0.32	71.276	0.32	71.276	0.947	-18.67
1763.183	0.947	-18.747	0.321	71.199	0.321	71.199	0.947	-18.747
1770.641	0.946	-18.823	0.323	71.122	0.323	71.122	0.946	-18.823
1778.099	0.946	-18.9	0.324	71.045	0.324	71.045	0.946	-18.9
1785.557	0.945	-18.977	0.325	70.968	0.325	70.968	0.945	-18.977
1793.016	0.945	-19.054	0.326	70.891	0.326	70.891	0.945	-19.054
1800.474	0.944	-19.131	0.328	70.814	0.328	70.814	0.944	-19.131
1807.932	0.944	-19.207	0.329	70.737	0.329	70.737	0.944	-19.207
1815.39	0.944	-19.284	0.33	70.66	0.33	70.66	0.944	-19.284
1822.849	0.943	-19.361	0.332	70.583	0.332	70.583	0.943	-19.361
1830.307	0.943	-19.437	0.333	70.506	0.333	70.506	0.943	-19.437
1837.765	0.942	-19.514	0.334	70.429	0.334	70.429	0.942	-19.514
1845.223	0.942	-19.59	0.335	70.352	0.335	70.352	0.942	-19.59
1852.681	0.941	-19.667	0.337	70.276	0.337	70.276	0.941	-19.667
1860.14	0.941	-19.743	0.338	70.199	0.338	70.199	0.941	-19.743
1867.598	0.94	-19.82	0.339	70.122	0.339	70.122	0.94	-19.82
1875.056	0.94	-19.896	0.34	70.045	0.34	70.045	0.94	-19.896
1882.514	0.94	-19.973	0.342	69.969	0.342	69.969	0.94	-19.973
1889.973	0.939	-20.049	0.343	69.892	0.343	69.892	0.939	-20.049
1897.431	0.939	-20.126	0.344	69.816	0.344	69.816	0.939	-20.126
1904.889	0.938	-20.202	0.345	69.739	0.345	69.739	0.938	-20.202
1912.347	0.938	-20.278	0.347	69.662	0.347	69.662	0.938	-20.278
1919.805	0.937	-20.354	0.348	69.586	0.348	69.586	0.937	-20.354
1927.264	0.937	-20.431	0.349	69.51	0.349	69.51	0.937	-20.431
1934.722	0.936	-20.507	0.35	69.433	0.35	69.433	0.936	-20.507
1942.18	0.936	-20.583	0.352	69.357	0.352	69.357	0.936	-20.583
1949.638	0.935	-20.659	0.353	69.28	0.353	69.28	0.935	-20.659
1957.097	0.935	-20.735	0.354	69.204	0.354	69.204	0.935	-20.735
1964.555	0.934	-20.811	0.355	69.128	0.355	69.128	0.934	-20.811
1972.013	0.934	-20.887	0.357	69.051	0.357	69.051	0.934	-20.887
1979.471	0.933	-20.963	0.358	68.975	0.358	68.975	0.933	-20.963
1986.929	0.933	-21.039	0.359	68.899	0.359	68.899	0.933	-21.039
1994.388	0.932	-21.115	0.36	68.823	0.36	68.823	0.932	-21.115
2001.846	0.932	-21.191	0.361	68.747	0.361	68.747	0.932	-21.191
2009.304	0.932	-21.267	0.363	68.67	0.363	68.67	0.932	-21.267
2016.762	0.931	-21.343	0.364	68.594	0.364	68.594	0.931	-21.343
2024.221	0.931	-21.419	0.365	68.518	0.365	68.518	0.931	-21.419
2031.679	0.93	-21.495	0.366	68.442	0.366	68.442	0.93	-21.495
2039.137	0.93	-21.57	0.368	68.366	0.368	68.366	0.93	-21.57
2046.595	0.929	-21.646	0.369	68.29	0.369	68.29	0.929	-21.646
2054.053	0.929	-21.722	0.37	68.214	0.37	68.214	0.929	-21.722
2061.512	0.928	-21.797	0.371	68.138	0.371	68.138	0.928	-21.797
2068.97	0.928	-21.873	0.373	68.063	0.373	68.063	0.928	-21.873
2076.428	0.927	-21.949	0.374	67.987	0.374	67.987	0.927	-21.949
2083.886	0.927	-22.024	0.375	67.911	0.375	67.911	0.927	-22.024
2091.344	0.926	-22.1	0.376	67.835	0.376	67.835	0.926	-22.1
2098.803	0.926	-22.175	0.377	67.759	0.377	67.759	0.926	-22.175
2106.261	0.925	-22.251	0.379	67.684	0.379	67.684	0.925	-22.251
2113.719	0.925	-22.326	0.38	67.608	0.38	67.608	0.925	-22.326
2121.177	0.924	-22.401	0.381	67.532	0.381	67.532	0.924	-22.401
2128.636	0.924	-22.477	0.382	67.457	0.382	67.457	0.924	-22.477
2136.094	0.923	-22.552	0.384	67.381	0.384	67.381	0.923	-22.552
2143.552	0.923	-22.627	0.385	67.306	0.385	67.306	0.923	-22.627
2151.01	0.922	-22.703	0.386	67.23	0.386	67.23	0.922	-22.703
2158.468	0.922	-22.778	0.387	67.155	0.387	67.155	0.922	-22.778
2165.927	0.921	-22.853	0.388	67.079	0.388	67.079	0.921	-22.853
2173.385	0.921	-22.928	0.39	67.004	0.39	67.004	0.921	-22.928
2180.843	0.92	-23.003	0.391	66.929	0.391	66.929	0.92	-23.003
2188.301	0.92	-23.078	0.392	66.853	0.392	66.853	0.92	-23.078
2195.76	0.919	-23.153	0.393	66.778	0.393	66.778	0.919	-23.153
2203.218	0.918	-23.228	0.394	66.703	0.394	66.703	0.918	-23.228
2210.676	0.918	-23.303	0.396	66.628	0.396	66.628	0.918	-23.303
2218.134	0.917	-23.378	0.397	66.552	0.397	66.552	0.917	-23.378
2225.592	0.917	-23.453	0.398	66.477	0.398	66.477	0.917	-23.453
2233.051	0.916	-23.528	0.399	66.402	0.399	66.402	0.916	-23.528
2240.509	0.916	-23.603	0.4	66.327	0.4	66.327	0.916	-23.603
2247.967	0.915	-23.678	0.402	66.252	0.402	66.252	0.915	-23.678
2255.425	0.915	-23.752	0.403	66.177	0.403	66.177	0.915	-23.752
2262.884	0.914	-23.827	0.404	66.102	0.404	66.102	0.914	-23.827
2270.342	0.914	-23.902	0.405	66.027	0.405	66.027	0.914	-23.902
2277.8	0.913	-23.977	0.406	65.952	0.406	65.952	0.913	-23.977
2285.258	0.913	-24.051	0.408	65.877	0.408	65.877	0.913	-24.051
2292.716	0.912	-24.126	0.409	65.802	0.409	65.802	0.912	-24.126
2300.175	0.912	-24.2	0.41	65.728	0.41	65.728	0.912	-24.2
2307.633	0.911	-24.275	0.411	65.653	0.411	65.653	0.911	-24.275
2315.091	0.911	-24.349	0.412	65.578	0.412	65.578	0.911	-24.349
2322.549	0.91	-24.424	0.413	65.503	0.413	65.503	0.91	-24.424
2330.007	0.909	-24.498	0.415	65.429	0.415	65.429	0.909	-24.498
2337.466	0.909	-24.573	0.416	65.354	0.416	65.354	0.909	-24.573
2344.924	0.908	-24.647	0.417	65.279	0.417	65.279	0.908	-24.647
2352.382	0.908	-24.721	0.418	65.205	0.418	65.205	0.908	-24.721
2359.84	0.907	-24.795	0.419	65.13	0.419	65.13	0.907	-24.795
2367.299	0.907	-24.87	0.421	65.056	0.421	65.056	0.907	-24.87
2374.757	0.906	-24.944	0.422	64.981	0.422	64.981	0.906	-24.944
2382.215	0.906	-25.018	0.423	64.907	0.423	64.907	0.906	-25.018
2389.673	0.905	-25.092	0.424	64.833	0.424	64.833	0.905	-25.092
2397.131	0.905	-25.166	0.425	64.758	0.425	64.758	0.905	-25.166
2404.59	0.904	-25.24	0.426	64.684	0.426	64.684	0.904	-25.24
2412.048	0.903	-25.314	0.428	64.61	0.428	64.61	0.903	-25.314
2419.506	0.903	-25.388	0.429	64.535	0.429	64.535	0.903	-25.388
2426.964	0.902	-25.462	0.43	64.461	0.43	64.461	0.902	-25.462
2434.423	0.902	-25.536	0.431	64.387	0.431	64.387	0.902	-25.536
2441.881	0.901	-25.61	0.432	64.313	0.432	64.313	0.901	-25.61
2449.339	0.901	-25.684	0.433	64.239	0.433	64.239	0.901	-25.684
2456.797	0.9	-25.758	0.435	64.165	0.435	64.165	0.9	-25.758
2464.255	0.899	-25.831	0.436	64.091	0.436	64.091	0.899	-25.831
2471.714	0.899	-25.905	0.437	64.017	0.437	64.017	0.899	-25.905
2479.172	0.898	-25.979	0.438	63.943	0.438	63.943	0.898	-25.979
2486.63	0.898	-26.053	0.439	63.869	0.439	63.869	0.898	-26.053
2494.088	0.897	-26.126	0.44	63.795	0.44	63.795	0.897	-26.126
2501.547	0.897	-26.2	0.442	63.721	0.442	63.721	0.897	-26.2
2509.005	0.896	-26.273	0.443	63.647	0.443	63.647	0.896	-26.273
