! AVX Thin Film Operation		Date: April 2012 
! Description: Accu-P® Series, Thin Film, SMD, RF Capacitor
! Part Number: 08051J1R4PBTTR					
!	100	MHz	-	10.05	GHz			
!	Serial	Measurements						
!								
#	MHZ	S	MA	R	50			
!	S11	S21	S12	S22				
!	dB	Phase	dB	Phase	dB	Phase	dB	Phase
100	0.996	-5.029	0.088	84.96	0.088	84.96	0.996	-5.029
102.469	0.996	-5.153	0.09	84.836	0.09	84.836	0.996	-5.153
104.939	0.996	-5.276	0.092	84.713	0.092	84.713	0.996	-5.276
107.408	0.996	-5.4	0.094	84.589	0.094	84.589	0.996	-5.4
109.878	0.995	-5.523	0.096	84.465	0.096	84.465	0.995	-5.523
112.347	0.995	-5.647	0.098	84.341	0.098	84.341	0.995	-5.647
114.817	0.995	-5.77	0.101	84.218	0.101	84.218	0.995	-5.77
117.286	0.995	-5.894	0.103	84.094	0.103	84.094	0.995	-5.894
119.756	0.994	-6.017	0.105	83.97	0.105	83.97	0.994	-6.017
122.225	0.994	-6.14	0.107	83.847	0.107	83.847	0.994	-6.14
124.694	0.994	-6.263	0.109	83.723	0.109	83.723	0.994	-6.263
127.164	0.994	-6.387	0.111	83.6	0.111	83.6	0.994	-6.387
129.633	0.994	-6.51	0.113	83.476	0.113	83.476	0.994	-6.51
132.103	0.993	-6.633	0.116	83.353	0.116	83.353	0.993	-6.633
134.572	0.993	-6.756	0.118	83.23	0.118	83.23	0.993	-6.756
137.042	0.993	-6.879	0.12	83.107	0.12	83.107	0.993	-6.879
139.511	0.993	-7.002	0.122	82.983	0.122	82.983	0.993	-7.002
141.981	0.992	-7.125	0.124	82.86	0.124	82.86	0.992	-7.125
144.45	0.992	-7.248	0.126	82.737	0.126	82.737	0.992	-7.248
146.919	0.992	-7.37	0.128	82.614	0.128	82.614	0.992	-7.37
149.389	0.991	-7.493	0.13	82.491	0.13	82.491	0.991	-7.493
151.858	0.991	-7.616	0.133	82.368	0.133	82.368	0.991	-7.616
154.328	0.991	-7.738	0.135	82.245	0.135	82.245	0.991	-7.738
156.797	0.991	-7.861	0.137	82.123	0.137	82.123	0.991	-7.861
159.267	0.99	-7.983	0.139	82	0.139	82	0.99	-7.983
161.736	0.99	-8.106	0.141	81.877	0.141	81.877	0.99	-8.106
164.206	0.99	-8.228	0.143	81.755	0.143	81.755	0.99	-8.228
166.675	0.989	-8.35	0.145	81.632	0.145	81.632	0.989	-8.35
169.144	0.989	-8.472	0.147	81.51	0.147	81.51	0.989	-8.472
171.614	0.989	-8.595	0.149	81.387	0.149	81.387	0.989	-8.595
174.083	0.988	-8.717	0.152	81.265	0.152	81.265	0.988	-8.717
176.553	0.988	-8.839	0.154	81.143	0.154	81.143	0.988	-8.839
179.022	0.988	-8.961	0.156	81.02	0.156	81.02	0.988	-8.961
181.492	0.987	-9.083	0.158	80.898	0.158	80.898	0.987	-9.083
183.961	0.987	-9.204	0.16	80.776	0.16	80.776	0.987	-9.204
186.431	0.987	-9.326	0.162	80.654	0.162	80.654	0.987	-9.326
188.9	0.986	-9.448	0.164	80.532	0.164	80.532	0.986	-9.448
191.369	0.986	-9.569	0.166	80.41	0.166	80.41	0.986	-9.569
193.839	0.986	-9.691	0.168	80.289	0.168	80.289	0.986	-9.691
196.308	0.985	-9.812	0.17	80.167	0.17	80.167	0.985	-9.812
198.778	0.985	-9.934	0.173	80.045	0.173	80.045	0.985	-9.934
201.247	0.985	-10.055	0.175	79.924	0.175	79.924	0.985	-10.055
203.717	0.984	-10.176	0.177	79.802	0.177	79.802	0.984	-10.176
206.186	0.984	-10.297	0.179	79.681	0.179	79.681	0.984	-10.297
208.656	0.983	-10.418	0.181	79.559	0.181	79.559	0.983	-10.418
211.125	0.983	-10.539	0.183	79.438	0.183	79.438	0.983	-10.539
213.594	0.983	-10.66	0.185	79.317	0.185	79.317	0.983	-10.66
216.064	0.982	-10.781	0.187	79.196	0.187	79.196	0.982	-10.781
218.533	0.982	-10.902	0.189	79.075	0.189	79.075	0.982	-10.902
221.003	0.981	-11.023	0.191	78.954	0.191	78.954	0.981	-11.023
223.472	0.981	-11.143	0.193	78.833	0.193	78.833	0.981	-11.143
225.942	0.981	-11.264	0.195	78.712	0.195	78.712	0.981	-11.264
228.411	0.98	-11.384	0.197	78.592	0.197	78.592	0.98	-11.384
230.881	0.98	-11.504	0.199	78.471	0.199	78.471	0.98	-11.504
233.35	0.979	-11.625	0.201	78.351	0.201	78.351	0.979	-11.625
235.819	0.979	-11.745	0.204	78.23	0.204	78.23	0.979	-11.745
238.289	0.979	-11.865	0.206	78.11	0.206	78.11	0.979	-11.865
240.758	0.978	-11.985	0.208	77.99	0.208	77.99	0.978	-11.985
243.228	0.978	-12.105	0.21	77.87	0.21	77.87	0.978	-12.105
245.697	0.977	-12.224	0.212	77.749	0.212	77.749	0.977	-12.224
248.167	0.977	-12.344	0.214	77.629	0.214	77.629	0.977	-12.344
250.636	0.976	-12.464	0.216	77.51	0.216	77.51	0.976	-12.464
253.106	0.976	-12.583	0.218	77.39	0.218	77.39	0.976	-12.583
255.575	0.975	-12.703	0.22	77.27	0.22	77.27	0.975	-12.703
258.044	0.975	-12.822	0.222	77.151	0.222	77.151	0.975	-12.822
260.514	0.974	-12.941	0.224	77.031	0.224	77.031	0.974	-12.941
262.983	0.974	-13.06	0.226	76.912	0.226	76.912	0.974	-13.06
265.453	0.974	-13.18	0.228	76.792	0.228	76.792	0.974	-13.18
267.922	0.973	-13.298	0.23	76.673	0.23	76.673	0.973	-13.298
270.392	0.973	-13.417	0.232	76.554	0.232	76.554	0.973	-13.417
272.861	0.972	-13.536	0.234	76.435	0.234	76.435	0.972	-13.536
275.331	0.972	-13.655	0.236	76.316	0.236	76.316	0.972	-13.655
277.8	0.971	-13.773	0.238	76.197	0.238	76.197	0.971	-13.773
280.269	0.971	-13.892	0.24	76.078	0.24	76.078	0.971	-13.892
282.739	0.97	-14.01	0.242	75.96	0.242	75.96	0.97	-14.01
285.208	0.97	-14.128	0.244	75.841	0.244	75.841	0.97	-14.128
287.678	0.969	-14.247	0.246	75.723	0.246	75.723	0.969	-14.247
290.147	0.969	-14.365	0.248	75.605	0.248	75.605	0.969	-14.365
292.617	0.968	-14.483	0.25	75.486	0.25	75.486	0.968	-14.483
295.086	0.968	-14.6	0.252	75.368	0.252	75.368	0.968	-14.6
297.556	0.967	-14.718	0.254	75.25	0.254	75.25	0.967	-14.718
300.025	0.967	-14.836	0.256	75.132	0.256	75.132	0.967	-14.836
302.494	0.966	-14.953	0.258	75.015	0.258	75.015	0.966	-14.953
304.964	0.965	-15.071	0.26	74.897	0.26	74.897	0.965	-15.071
307.433	0.965	-15.188	0.262	74.779	0.262	74.779	0.965	-15.188
309.903	0.964	-15.305	0.264	74.662	0.264	74.662	0.964	-15.305
312.372	0.964	-15.422	0.266	74.545	0.266	74.545	0.964	-15.422
314.842	0.963	-15.539	0.268	74.427	0.268	74.427	0.963	-15.539
317.311	0.963	-15.656	0.27	74.31	0.27	74.31	0.963	-15.656
319.78	0.962	-15.773	0.272	74.193	0.272	74.193	0.962	-15.773
322.25	0.962	-15.89	0.274	74.076	0.274	74.076	0.962	-15.89
324.719	0.961	-16.006	0.276	73.959	0.276	73.959	0.961	-16.006
327.189	0.961	-16.122	0.278	73.843	0.278	73.843	0.961	-16.122
329.658	0.96	-16.239	0.28	73.726	0.28	73.726	0.96	-16.239
332.128	0.959	-16.355	0.282	73.61	0.282	73.61	0.959	-16.355
334.597	0.959	-16.471	0.284	73.493	0.284	73.493	0.959	-16.471
337.067	0.958	-16.587	0.285	73.377	0.285	73.377	0.958	-16.587
339.536	0.958	-16.703	0.287	73.261	0.287	73.261	0.958	-16.703
342.005	0.957	-16.819	0.289	73.145	0.289	73.145	0.957	-16.819
344.475	0.956	-16.934	0.291	73.029	0.291	73.029	0.956	-16.934
346.944	0.956	-17.05	0.293	72.913	0.293	72.913	0.956	-17.05
349.414	0.955	-17.165	0.295	72.798	0.295	72.798	0.955	-17.165
351.883	0.955	-17.28	0.297	72.682	0.297	72.682	0.955	-17.28
354.353	0.954	-17.395	0.299	72.567	0.299	72.567	0.954	-17.395
356.822	0.953	-17.51	0.301	72.452	0.301	72.452	0.953	-17.51
359.292	0.953	-17.625	0.303	72.336	0.303	72.336	0.953	-17.625
361.761	0.952	-17.74	0.305	72.221	0.305	72.221	0.952	-17.74
364.23	0.952	-17.855	0.307	72.107	0.307	72.107	0.952	-17.855
366.7	0.951	-17.969	0.309	71.992	0.309	71.992	0.951	-17.969
369.169	0.95	-18.084	0.31	71.877	0.31	71.877	0.95	-18.084
371.639	0.95	-18.198	0.312	71.763	0.312	71.763	0.95	-18.198
374.108	0.949	-18.312	0.314	71.648	0.314	71.648	0.949	-18.312
376.578	0.949	-18.426	0.316	71.534	0.316	71.534	0.949	-18.426
379.047	0.948	-18.54	0.318	71.42	0.318	71.42	0.948	-18.54
381.517	0.947	-18.654	0.32	71.306	0.32	71.306	0.947	-18.654
383.986	0.947	-18.767	0.322	71.192	0.322	71.192	0.947	-18.767
386.455	0.946	-18.881	0.324	71.078	0.324	71.078	0.946	-18.881
388.925	0.945	-18.994	0.325	70.964	0.325	70.964	0.945	-18.994
391.394	0.945	-19.108	0.327	70.851	0.327	70.851	0.945	-19.108
393.864	0.944	-19.221	0.329	70.737	0.329	70.737	0.944	-19.221
396.333	0.943	-19.334	0.331	70.624	0.331	70.624	0.943	-19.334
398.803	0.943	-19.447	0.333	70.511	0.333	70.511	0.943	-19.447
401.272	0.942	-19.559	0.335	70.398	0.335	70.398	0.942	-19.559
403.742	0.941	-19.672	0.337	70.285	0.337	70.285	0.941	-19.672
406.211	0.941	-19.785	0.338	70.172	0.338	70.172	0.941	-19.785
408.68	0.94	-19.897	0.34	70.06	0.34	70.06	0.94	-19.897
411.15	0.939	-20.009	0.342	69.947	0.342	69.947	0.939	-20.009
413.619	0.939	-20.121	0.344	69.835	0.344	69.835	0.939	-20.121
416.089	0.938	-20.233	0.346	69.722	0.346	69.722	0.938	-20.233
418.558	0.937	-20.345	0.348	69.61	0.348	69.61	0.937	-20.345
421.028	0.937	-20.457	0.35	69.498	0.35	69.498	0.937	-20.457
423.497	0.936	-20.568	0.351	69.387	0.351	69.387	0.936	-20.568
425.967	0.935	-20.68	0.353	69.275	0.353	69.275	0.935	-20.68
428.436	0.935	-20.791	0.355	69.163	0.355	69.163	0.935	-20.791
430.905	0.934	-20.902	0.357	69.052	0.357	69.052	0.934	-20.902
433.375	0.933	-21.013	0.359	68.941	0.359	68.941	0.933	-21.013
435.844	0.933	-21.124	0.36	68.829	0.36	68.829	0.933	-21.124
438.314	0.932	-21.235	0.362	68.718	0.362	68.718	0.932	-21.235
440.783	0.931	-21.345	0.364	68.608	0.364	68.608	0.931	-21.345
443.253	0.93	-21.456	0.366	68.497	0.366	68.497	0.93	-21.456
445.722	0.93	-21.566	0.368	68.386	0.368	68.386	0.93	-21.566
448.192	0.929	-21.677	0.369	68.276	0.369	68.276	0.929	-21.677
450.661	0.928	-21.787	0.371	68.165	0.371	68.165	0.928	-21.787
453.13	0.928	-21.896	0.373	68.055	0.373	68.055	0.928	-21.896
455.6	0.927	-22.006	0.375	67.945	0.375	67.945	0.927	-22.006
458.069	0.926	-22.116	0.376	67.835	0.376	67.835	0.926	-22.116
460.539	0.925	-22.225	0.378	67.725	0.378	67.725	0.925	-22.225
463.008	0.925	-22.335	0.38	67.616	0.38	67.616	0.925	-22.335
465.478	0.924	-22.444	0.382	67.506	0.382	67.506	0.924	-22.444
467.947	0.923	-22.553	0.384	67.397	0.384	67.397	0.923	-22.553
470.417	0.922	-22.662	0.385	67.288	0.385	67.288	0.922	-22.662
472.886	0.922	-22.771	0.387	67.179	0.387	67.179	0.922	-22.771
475.355	0.921	-22.879	0.389	67.07	0.389	67.07	0.921	-22.879
477.825	0.92	-22.988	0.391	66.961	0.391	66.961	0.92	-22.988
480.294	0.919	-23.096	0.392	66.852	0.392	66.852	0.919	-23.096
482.764	0.919	-23.205	0.394	66.744	0.394	66.744	0.919	-23.205
485.233	0.918	-23.313	0.396	66.636	0.396	66.636	0.918	-23.313
487.703	0.917	-23.421	0.397	66.527	0.397	66.527	0.917	-23.421
490.172	0.916	-23.528	0.399	66.419	0.399	66.419	0.916	-23.528
492.642	0.916	-23.636	0.401	66.311	0.401	66.311	0.916	-23.636
495.111	0.915	-23.744	0.403	66.204	0.403	66.204	0.915	-23.744
497.58	0.914	-23.851	0.404	66.096	0.404	66.096	0.914	-23.851
500.05	0.913	-23.958	0.406	65.988	0.406	65.988	0.913	-23.958
502.519	0.913	-24.065	0.408	65.881	0.408	65.881	0.913	-24.065
504.989	0.912	-24.172	0.409	65.774	0.409	65.774	0.912	-24.172
507.458	0.911	-24.279	0.411	65.667	0.411	65.667	0.911	-24.279
509.928	0.91	-24.385	0.413	65.56	0.413	65.56	0.91	-24.385
512.397	0.91	-24.492	0.415	65.453	0.415	65.453	0.91	-24.492
514.867	0.909	-24.598	0.416	65.347	0.416	65.347	0.909	-24.598
517.336	0.908	-24.704	0.418	65.24	0.418	65.24	0.908	-24.704
519.805	0.907	-24.811	0.42	65.134	0.42	65.134	0.907	-24.811
522.275	0.907	-24.916	0.421	65.028	0.421	65.028	0.907	-24.916
524.744	0.906	-25.022	0.423	64.922	0.423	64.922	0.906	-25.022
527.214	0.905	-25.128	0.425	64.816	0.425	64.816	0.905	-25.128
529.683	0.904	-25.233	0.426	64.71	0.426	64.71	0.904	-25.233
532.153	0.903	-25.338	0.428	64.605	0.428	64.605	0.903	-25.338
534.622	0.903	-25.444	0.43	64.499	0.43	64.499	0.903	-25.444
537.092	0.902	-25.549	0.431	64.394	0.431	64.394	0.902	-25.549
539.561	0.901	-25.653	0.433	64.289	0.433	64.289	0.901	-25.653
542.03	0.9	-25.758	0.435	64.184	0.435	64.184	0.9	-25.758
544.5	0.899	-25.863	0.436	64.079	0.436	64.079	0.899	-25.863
546.969	0.899	-25.967	0.438	63.974	0.438	63.974	0.899	-25.967
549.439	0.898	-26.071	0.439	63.87	0.439	63.87	0.898	-26.071
551.908	0.897	-26.175	0.441	63.766	0.441	63.766	0.897	-26.175
554.378	0.896	-26.279	0.443	63.661	0.443	63.661	0.896	-26.279
556.847	0.895	-26.383	0.444	63.557	0.444	63.557	0.895	-26.383
559.317	0.895	-26.487	0.446	63.453	0.446	63.453	0.895	-26.487
561.786	0.894	-26.59	0.448	63.35	0.448	63.35	0.894	-26.59
564.255	0.893	-26.694	0.449	63.246	0.449	63.246	0.893	-26.694
566.725	0.892	-26.797	0.451	63.143	0.451	63.143	0.892	-26.797
569.194	0.891	-26.9	0.452	63.039	0.452	63.039	0.891	-26.9
571.664	0.89	-27.003	0.454	62.936	0.454	62.936	0.89	-27.003
574.133	0.89	-27.105	0.456	62.833	0.456	62.833	0.89	-27.105
576.603	0.889	-27.208	0.457	62.73	0.457	62.73	0.889	-27.208
579.072	0.888	-27.31	0.459	62.628	0.459	62.628	0.888	-27.31
581.542	0.887	-27.413	0.46	62.525	0.46	62.525	0.887	-27.413
584.011	0.886	-27.515	0.462	62.423	0.462	62.423	0.886	-27.515
586.48	0.886	-27.617	0.464	62.32	0.464	62.32	0.886	-27.617
588.95	0.885	-27.719	0.465	62.218	0.465	62.218	0.885	-27.719
591.419	0.884	-27.82	0.467	62.116	0.467	62.116	0.884	-27.82
593.889	0.883	-27.922	0.468	62.015	0.468	62.015	0.883	-27.922
596.358	0.882	-28.023	0.47	61.913	0.47	61.913	0.882	-28.023
598.828	0.881	-28.124	0.471	61.812	0.471	61.812	0.881	-28.124
601.297	0.881	-28.225	0.473	61.71	0.473	61.71	0.881	-28.225
603.767	0.88	-28.326	0.474	61.609	0.474	61.609	0.88	-28.326
606.236	0.879	-28.427	0.476	61.508	0.476	61.508	0.879	-28.427
608.705	0.878	-28.527	0.478	61.407	0.478	61.407	0.878	-28.527
611.175	0.877	-28.628	0.479	61.307	0.479	61.307	0.877	-28.628
613.644	0.876	-28.728	0.481	61.206	0.481	61.206	0.876	-28.728
616.114	0.876	-28.828	0.482	61.106	0.482	61.106	0.876	-28.828
618.583	0.875	-28.928	0.484	61.005	0.484	61.005	0.875	-28.928
621.053	0.874	-29.028	0.485	60.905	0.485	60.905	0.874	-29.028
623.522	0.873	-29.128	0.487	60.805	0.487	60.805	0.873	-29.128
625.992	0.872	-29.227	0.488	60.706	0.488	60.706	0.872	-29.227
628.461	0.871	-29.326	0.49	60.606	0.49	60.606	0.871	-29.326
630.93	0.87	-29.426	0.491	60.507	0.491	60.507	0.87	-29.426
633.4	0.87	-29.525	0.493	60.407	0.493	60.407	0.87	-29.525
635.869	0.869	-29.623	0.494	60.308	0.494	60.308	0.869	-29.623
638.339	0.868	-29.722	0.496	60.209	0.496	60.209	0.868	-29.722
640.808	0.867	-29.821	0.497	60.11	0.497	60.11	0.867	-29.821
643.278	0.866	-29.919	0.499	60.012	0.499	60.012	0.866	-29.919
645.747	0.865	-30.017	0.5	59.913	0.5	59.913	0.865	-30.017
648.217	0.864	-30.115	0.502	59.815	0.502	59.815	0.864	-30.115
650.686	0.864	-30.213	0.503	59.717	0.503	59.717	0.864	-30.213
653.155	0.863	-30.311	0.505	59.619	0.505	59.619	0.863	-30.311
655.625	0.862	-30.409	0.506	59.521	0.506	59.521	0.862	-30.409
658.094	0.861	-30.506	0.508	59.423	0.508	59.423	0.861	-30.506
660.564	0.86	-30.603	0.509	59.325	0.509	59.325	0.86	-30.603
663.033	0.859	-30.701	0.511	59.228	0.511	59.228	0.859	-30.701
665.503	0.858	-30.798	0.512	59.131	0.512	59.131	0.858	-30.798
667.972	0.857	-30.894	0.513	59.034	0.513	59.034	0.857	-30.894
670.442	0.857	-30.991	0.515	58.937	0.515	58.937	0.857	-30.991
672.911	0.856	-31.088	0.516	58.84	0.516	58.84	0.856	-31.088
675.38	0.855	-31.184	0.518	58.743	0.518	58.743	0.855	-31.184
677.85	0.854	-31.28	0.519	58.647	0.519	58.647	0.854	-31.28
680.319	0.853	-31.376	0.521	58.551	0.521	58.551	0.853	-31.376
682.789	0.852	-31.472	0.522	58.454	0.522	58.454	0.852	-31.472
685.258	0.851	-31.568	0.524	58.358	0.524	58.358	0.851	-31.568
687.728	0.85	-31.663	0.525	58.263	0.525	58.263	0.85	-31.663
690.197	0.85	-31.759	0.526	58.167	0.526	58.167	0.85	-31.759
692.667	0.849	-31.854	0.528	58.071	0.528	58.071	0.849	-31.854
695.136	0.848	-31.949	0.529	57.976	0.529	57.976	0.848	-31.949
697.605	0.847	-32.044	0.531	57.881	0.531	57.881	0.847	-32.044
700.075	0.846	-32.139	0.532	57.786	0.532	57.786	0.846	-32.139
702.544	0.845	-32.233	0.533	57.691	0.533	57.691	0.845	-32.233
705.014	0.844	-32.328	0.535	57.596	0.535	57.596	0.844	-32.328
707.483	0.843	-32.422	0.536	57.501	0.536	57.501	0.843	-32.422
709.953	0.843	-32.516	0.538	57.407	0.538	57.407	0.843	-32.516
712.422	0.842	-32.61	0.539	57.313	0.539	57.313	0.842	-32.61
714.891	0.841	-32.704	0.54	57.219	0.54	57.219	0.841	-32.704
717.361	0.84	-32.798	0.542	57.125	0.542	57.125	0.84	-32.798
719.83	0.839	-32.891	0.543	57.031	0.543	57.031	0.839	-32.891
722.3	0.838	-32.985	0.544	56.937	0.544	56.937	0.838	-32.985
724.769	0.837	-33.078	0.546	56.844	0.546	56.844	0.837	-33.078
727.239	0.836	-33.171	0.547	56.75	0.547	56.75	0.836	-33.171
729.708	0.835	-33.264	0.548	56.657	0.548	56.657	0.835	-33.264
732.178	0.835	-33.357	0.55	56.564	0.55	56.564	0.835	-33.357
734.647	0.834	-33.449	0.551	56.471	0.551	56.471	0.834	-33.449
737.116	0.833	-33.542	0.553	56.378	0.553	56.378	0.833	-33.542
739.586	0.832	-33.634	0.554	56.286	0.554	56.286	0.832	-33.634
742.055	0.831	-33.726	0.555	56.193	0.555	56.193	0.831	-33.726
744.525	0.83	-33.818	0.557	56.101	0.557	56.101	0.83	-33.818
746.994	0.829	-33.91	0.558	56.009	0.558	56.009	0.829	-33.91
749.464	0.828	-34.002	0.559	55.917	0.559	55.917	0.828	-34.002
751.933	0.827	-34.093	0.561	55.825	0.561	55.825	0.827	-34.093
754.403	0.826	-34.185	0.562	55.734	0.562	55.734	0.826	-34.185
756.872	0.826	-34.276	0.563	55.642	0.563	55.642	0.826	-34.276
759.341	0.825	-34.367	0.564	55.551	0.564	55.551	0.825	-34.367
761.811	0.824	-34.458	0.566	55.46	0.566	55.46	0.824	-34.458
764.28	0.823	-34.548	0.567	55.369	0.567	55.369	0.823	-34.548
766.75	0.822	-34.639	0.568	55.278	0.568	55.278	0.822	-34.639
769.219	0.821	-34.729	0.57	55.187	0.57	55.187	0.821	-34.729
771.689	0.82	-34.82	0.571	55.097	0.571	55.097	0.82	-34.82
774.158	0.819	-34.91	0.572	55.006	0.572	55.006	0.819	-34.91
776.628	0.818	-35	0.574	54.916	0.574	54.916	0.818	-35
779.097	0.817	-35.089	0.575	54.826	0.575	54.826	0.817	-35.089
781.566	0.817	-35.179	0.576	54.736	0.576	54.736	0.817	-35.179
784.036	0.816	-35.268	0.577	54.646	0.577	54.646	0.816	-35.268
786.505	0.815	-35.358	0.579	54.557	0.579	54.557	0.815	-35.358
788.975	0.814	-35.447	0.58	54.467	0.58	54.467	0.814	-35.447
791.444	0.813	-35.536	0.581	54.378	0.581	54.378	0.813	-35.536
793.914	0.812	-35.625	0.582	54.289	0.582	54.289	0.812	-35.625
796.383	0.811	-35.714	0.584	54.2	0.584	54.2	0.811	-35.714
798.853	0.81	-35.802	0.585	54.111	0.585	54.111	0.81	-35.802
801.322	0.809	-35.89	0.586	54.023	0.586	54.023	0.809	-35.89
803.791	0.808	-35.979	0.587	53.934	0.587	53.934	0.808	-35.979
806.261	0.807	-36.067	0.589	53.846	0.589	53.846	0.807	-36.067
808.73	0.807	-36.155	0.59	53.757	0.59	53.757	0.807	-36.155
811.2	0.806	-36.242	0.591	53.669	0.591	53.669	0.806	-36.242
813.669	0.805	-36.33	0.592	53.581	0.592	53.581	0.805	-36.33
816.139	0.804	-36.418	0.594	53.494	0.594	53.494	0.804	-36.418
818.608	0.803	-36.505	0.595	53.406	0.595	53.406	0.803	-36.505
821.078	0.802	-36.592	0.596	53.319	0.596	53.319	0.802	-36.592
823.547	0.801	-36.679	0.597	53.231	0.597	53.231	0.801	-36.679
826.016	0.8	-36.766	0.599	53.144	0.599	53.144	0.8	-36.766
828.486	0.799	-36.853	0.6	53.057	0.6	53.057	0.799	-36.853
830.955	0.798	-36.939	0.601	52.97	0.601	52.97	0.798	-36.939
833.425	0.797	-37.026	0.602	52.884	0.602	52.884	0.797	-37.026
835.894	0.797	-37.112	0.603	52.797	0.603	52.797	0.797	-37.112
838.364	0.796	-37.198	0.605	52.711	0.605	52.711	0.796	-37.198
840.833	0.795	-37.284	0.606	52.625	0.606	52.625	0.795	-37.284
843.303	0.794	-37.37	0.607	52.539	0.607	52.539	0.794	-37.37
845.772	0.793	-37.455	0.608	52.453	0.608	52.453	0.793	-37.455
848.241	0.792	-37.541	0.609	52.367	0.609	52.367	0.792	-37.541
850.711	0.791	-37.626	0.611	52.281	0.611	52.281	0.791	-37.626
853.18	0.79	-37.711	0.612	52.196	0.612	52.196	0.79	-37.711
855.65	0.789	-37.796	0.613	52.111	0.613	52.111	0.789	-37.796
858.119	0.788	-37.881	0.614	52.025	0.614	52.025	0.788	-37.881
860.589	0.787	-37.966	0.615	51.94	0.615	51.94	0.787	-37.966
863.058	0.786	-38.05	0.616	51.855	0.616	51.855	0.786	-38.05
865.528	0.786	-38.135	0.618	51.771	0.618	51.771	0.786	-38.135
867.997	0.785	-38.219	0.619	51.686	0.619	51.686	0.785	-38.219
870.466	0.784	-38.303	0.62	51.602	0.62	51.602	0.784	-38.303
872.936	0.783	-38.387	0.621	51.518	0.621	51.518	0.783	-38.387
875.405	0.782	-38.471	0.622	51.433	0.622	51.433	0.782	-38.471
877.875	0.781	-38.555	0.623	51.35	0.623	51.35	0.781	-38.555
880.344	0.78	-38.638	0.624	51.266	0.624	51.266	0.78	-38.638
882.814	0.779	-38.721	0.626	51.182	0.626	51.182	0.779	-38.721
885.283	0.778	-38.805	0.627	51.099	0.627	51.099	0.778	-38.805
887.753	0.777	-38.888	0.628	51.015	0.628	51.015	0.777	-38.888
890.222	0.776	-38.971	0.629	50.932	0.629	50.932	0.776	-38.971
892.691	0.775	-39.053	0.63	50.849	0.63	50.849	0.775	-39.053
895.161	0.775	-39.136	0.631	50.766	0.631	50.766	0.775	-39.136
897.63	0.774	-39.219	0.632	50.683	0.632	50.683	0.774	-39.219
