! AVX Thin Film Operation		Date: April 2012 
! Description: Accu-P® Series, Thin Film, SMD, RF Capacitor
! Part Number: 08051J5R1ABTTR					
!	100	MHz	-	10.05	GHz			
!	Serial	Measurements						
!								
#	MHZ	S	MA	R	50			
!	S11	S21	S12	S22				
!	dB	Phase	dB	Phase	dB	Phase	dB	Phase
100	0.952	-17.792	0.306	72.182	0.306	72.182	0.952	-17.792
102.469	0.95	-18.204	0.312	71.77	0.312	71.77	0.95	-18.204
104.939	0.948	-18.614	0.319	71.359	0.319	71.359	0.948	-18.614
107.408	0.945	-19.022	0.326	70.95	0.326	70.95	0.945	-19.022
109.878	0.943	-19.429	0.333	70.543	0.333	70.543	0.943	-19.429
112.347	0.941	-19.833	0.339	70.138	0.339	70.138	0.941	-19.833
114.817	0.938	-20.236	0.346	69.735	0.346	69.735	0.938	-20.236
117.286	0.936	-20.636	0.352	69.334	0.352	69.334	0.936	-20.636
119.756	0.933	-21.034	0.359	68.935	0.359	68.935	0.933	-21.034
122.225	0.931	-21.431	0.365	68.538	0.365	68.538	0.931	-21.431
124.694	0.928	-21.825	0.372	68.142	0.372	68.142	0.928	-21.825
127.164	0.926	-22.218	0.378	67.749	0.378	67.749	0.926	-22.218
129.633	0.923	-22.608	0.384	67.359	0.384	67.359	0.923	-22.608
132.103	0.92	-22.996	0.391	66.97	0.391	66.97	0.92	-22.996
134.572	0.918	-23.382	0.397	66.583	0.397	66.583	0.918	-23.382
137.042	0.915	-23.766	0.403	66.198	0.403	66.198	0.915	-23.766
139.511	0.912	-24.148	0.409	65.816	0.409	65.816	0.912	-24.148
141.981	0.909	-24.528	0.415	65.436	0.415	65.436	0.909	-24.528
144.45	0.907	-24.905	0.421	65.057	0.421	65.057	0.907	-24.905
146.919	0.904	-25.281	0.427	64.681	0.427	64.681	0.904	-25.281
149.389	0.901	-25.654	0.433	64.308	0.433	64.308	0.901	-25.654
151.858	0.898	-26.025	0.439	63.936	0.439	63.936	0.898	-26.025
154.328	0.895	-26.393	0.445	63.567	0.445	63.567	0.895	-26.393
156.797	0.893	-26.76	0.45	63.2	0.45	63.2	0.893	-26.76
159.267	0.89	-27.124	0.456	62.835	0.456	62.835	0.89	-27.124
161.736	0.887	-27.486	0.462	62.472	0.462	62.472	0.887	-27.486
164.206	0.884	-27.846	0.467	62.112	0.467	62.112	0.884	-27.846
166.675	0.881	-28.204	0.473	61.753	0.473	61.753	0.881	-28.204
169.144	0.878	-28.559	0.478	61.397	0.478	61.397	0.878	-28.559
171.614	0.875	-28.912	0.483	61.044	0.483	61.044	0.875	-28.912
174.083	0.872	-29.263	0.489	60.692	0.489	60.692	0.872	-29.263
176.553	0.869	-29.611	0.494	60.343	0.494	60.343	0.869	-29.611
179.022	0.866	-29.958	0.499	59.996	0.499	59.996	0.866	-29.958
181.492	0.863	-30.302	0.505	59.651	0.505	59.651	0.863	-30.302
183.961	0.86	-30.643	0.51	59.309	0.51	59.309	0.86	-30.643
186.431	0.857	-30.983	0.515	58.969	0.515	58.969	0.857	-30.983
188.9	0.854	-31.32	0.52	58.631	0.52	58.631	0.854	-31.32
191.369	0.851	-31.655	0.525	58.295	0.525	58.295	0.851	-31.655
193.839	0.848	-31.988	0.53	57.962	0.53	57.962	0.848	-31.988
196.308	0.845	-32.318	0.535	57.631	0.535	57.631	0.845	-32.318
198.778	0.842	-32.646	0.539	57.302	0.539	57.302	0.842	-32.646
201.247	0.838	-32.972	0.544	56.975	0.544	56.975	0.838	-32.972
203.717	0.835	-33.296	0.549	56.651	0.549	56.651	0.835	-33.296
206.186	0.832	-33.618	0.554	56.329	0.554	56.329	0.832	-33.618
208.656	0.829	-33.937	0.558	56.009	0.558	56.009	0.829	-33.937
211.125	0.826	-34.254	0.563	55.692	0.563	55.692	0.826	-34.254
213.594	0.823	-34.569	0.567	55.376	0.567	55.376	0.823	-34.569
216.064	0.82	-34.881	0.572	55.063	0.572	55.063	0.82	-34.881
218.533	0.817	-35.191	0.576	54.752	0.576	54.752	0.817	-35.191
221.003	0.814	-35.499	0.581	54.443	0.581	54.443	0.814	-35.499
223.472	0.81	-35.805	0.585	54.137	0.585	54.137	0.81	-35.805
225.942	0.807	-36.109	0.589	53.832	0.589	53.832	0.807	-36.109
228.411	0.804	-36.411	0.594	53.53	0.594	53.53	0.804	-36.411
230.881	0.801	-36.71	0.598	53.23	0.598	53.23	0.801	-36.71
233.35	0.798	-37.007	0.602	52.932	0.602	52.932	0.798	-37.007
235.819	0.795	-37.302	0.606	52.637	0.606	52.637	0.795	-37.302
238.289	0.792	-37.595	0.61	52.343	0.61	52.343	0.792	-37.595
240.758	0.789	-37.886	0.614	52.052	0.614	52.052	0.789	-37.886
243.228	0.785	-38.175	0.618	51.762	0.618	51.762	0.785	-38.175
245.697	0.782	-38.461	0.622	51.475	0.622	51.475	0.782	-38.461
248.167	0.779	-38.745	0.626	51.19	0.626	51.19	0.779	-38.745
250.636	0.776	-39.028	0.63	50.907	0.63	50.907	0.776	-39.028
253.106	0.773	-39.308	0.633	50.626	0.633	50.626	0.773	-39.308
255.575	0.77	-39.586	0.637	50.347	0.637	50.347	0.77	-39.586
258.044	0.767	-39.862	0.641	50.071	0.641	50.071	0.767	-39.862
260.514	0.764	-40.136	0.645	49.796	0.645	49.796	0.764	-40.136
262.983	0.761	-40.408	0.648	49.523	0.648	49.523	0.761	-40.408
265.453	0.758	-40.678	0.652	49.253	0.652	49.253	0.758	-40.678
267.922	0.755	-40.946	0.655	48.984	0.655	48.984	0.755	-40.946
270.392	0.751	-41.212	0.659	48.718	0.659	48.718	0.751	-41.212
272.861	0.748	-41.476	0.662	48.453	0.662	48.453	0.748	-41.476
275.331	0.745	-41.738	0.666	48.19	0.666	48.19	0.745	-41.738
277.8	0.742	-41.998	0.669	47.93	0.669	47.93	0.742	-41.998
280.269	0.739	-42.256	0.672	47.671	0.672	47.671	0.739	-42.256
282.739	0.736	-42.512	0.676	47.414	0.676	47.414	0.736	-42.512
285.208	0.733	-42.766	0.679	47.159	0.679	47.159	0.733	-42.766
287.678	0.73	-43.019	0.682	46.906	0.682	46.906	0.73	-43.019
290.147	0.727	-43.269	0.685	46.655	0.685	46.655	0.727	-43.269
292.617	0.724	-43.518	0.689	46.406	0.689	46.406	0.724	-43.518
295.086	0.721	-43.764	0.692	46.159	0.692	46.159	0.721	-43.764
297.556	0.718	-44.009	0.695	45.913	0.695	45.913	0.718	-44.009
300.025	0.715	-44.252	0.698	45.67	0.698	45.67	0.715	-44.252
302.494	0.712	-44.493	0.701	45.428	0.701	45.428	0.712	-44.493
304.964	0.709	-44.732	0.704	45.188	0.704	45.188	0.709	-44.732
307.433	0.706	-44.97	0.707	44.95	0.707	44.95	0.706	-44.97
309.903	0.704	-45.205	0.71	44.714	0.71	44.714	0.704	-45.205
312.372	0.701	-45.439	0.713	44.479	0.713	44.479	0.701	-45.439
314.842	0.698	-45.671	0.715	44.246	0.715	44.246	0.698	-45.671
317.311	0.695	-45.902	0.718	44.015	0.718	44.015	0.695	-45.902
319.78	0.692	-46.13	0.721	43.786	0.721	43.786	0.692	-46.13
322.25	0.689	-46.357	0.724	43.559	0.724	43.559	0.689	-46.357
324.719	0.686	-46.582	0.726	43.333	0.726	43.333	0.686	-46.582
327.189	0.683	-46.806	0.729	43.109	0.729	43.109	0.683	-46.806
329.658	0.681	-47.028	0.732	42.886	0.732	42.886	0.681	-47.028
332.128	0.678	-47.248	0.734	42.665	0.734	42.665	0.678	-47.248
334.597	0.675	-47.466	0.737	42.446	0.737	42.446	0.675	-47.466
337.067	0.672	-47.683	0.739	42.229	0.739	42.229	0.672	-47.683
339.536	0.669	-47.898	0.742	42.013	0.742	42.013	0.669	-47.898
342.005	0.667	-48.112	0.744	41.799	0.744	41.799	0.667	-48.112
344.475	0.664	-48.324	0.747	41.586	0.747	41.586	0.664	-48.324
346.944	0.661	-48.534	0.749	41.375	0.749	41.375	0.661	-48.534
349.414	0.658	-48.743	0.752	41.166	0.752	41.166	0.658	-48.743
351.883	0.656	-48.95	0.754	40.958	0.754	40.958	0.656	-48.95
354.353	0.653	-49.156	0.756	40.751	0.756	40.751	0.653	-49.156
356.822	0.65	-49.36	0.759	40.546	0.759	40.546	0.65	-49.36
359.292	0.647	-49.562	0.761	40.343	0.761	40.343	0.647	-49.562
361.761	0.645	-49.764	0.763	40.141	0.763	40.141	0.645	-49.764
364.23	0.642	-49.963	0.766	39.941	0.766	39.941	0.642	-49.963
366.7	0.639	-50.161	0.768	39.742	0.768	39.742	0.639	-50.161
369.169	0.637	-50.358	0.77	39.545	0.77	39.545	0.637	-50.358
371.639	0.634	-50.553	0.772	39.349	0.772	39.349	0.634	-50.553
374.108	0.631	-50.747	0.774	39.155	0.774	39.155	0.631	-50.747
376.578	0.629	-50.939	0.776	38.962	0.776	38.962	0.629	-50.939
379.047	0.626	-51.13	0.779	38.77	0.779	38.77	0.626	-51.13
381.517	0.624	-51.32	0.781	38.58	0.781	38.58	0.624	-51.32
383.986	0.621	-51.508	0.783	38.391	0.783	38.391	0.621	-51.508
386.455	0.618	-51.694	0.785	38.204	0.785	38.204	0.618	-51.694
388.925	0.616	-51.88	0.787	38.018	0.787	38.018	0.616	-51.88
391.394	0.613	-52.064	0.789	37.833	0.789	37.833	0.613	-52.064
393.864	0.611	-52.246	0.791	37.65	0.791	37.65	0.611	-52.246
396.333	0.608	-52.427	0.793	37.468	0.793	37.468	0.608	-52.427
398.803	0.606	-52.607	0.794	37.287	0.794	37.287	0.606	-52.607
401.272	0.603	-52.786	0.796	37.108	0.796	37.108	0.603	-52.786
403.742	0.601	-52.963	0.798	36.93	0.798	36.93	0.601	-52.963
406.211	0.598	-53.139	0.8	36.753	0.8	36.753	0.598	-53.139
408.68	0.596	-53.314	0.802	36.578	0.802	36.578	0.596	-53.314
411.15	0.593	-53.488	0.804	36.404	0.804	36.404	0.593	-53.488
413.619	0.591	-53.66	0.806	36.231	0.806	36.231	0.591	-53.66
416.089	0.589	-53.831	0.807	36.059	0.807	36.059	0.589	-53.831
418.558	0.586	-54.001	0.809	35.889	0.809	35.889	0.586	-54.001
421.028	0.584	-54.169	0.811	35.719	0.811	35.719	0.584	-54.169
423.497	0.581	-54.337	0.812	35.551	0.812	35.551	0.581	-54.337
425.967	0.579	-54.503	0.814	35.384	0.814	35.384	0.579	-54.503
428.436	0.577	-54.668	0.816	35.219	0.816	35.219	0.577	-54.668
430.905	0.574	-54.831	0.817	35.054	0.817	35.054	0.574	-54.831
433.375	0.572	-54.994	0.819	34.891	0.819	34.891	0.572	-54.994
435.844	0.57	-55.155	0.821	34.729	0.821	34.729	0.57	-55.155
438.314	0.567	-55.316	0.822	34.568	0.822	34.568	0.567	-55.316
440.783	0.565	-55.475	0.824	34.408	0.824	34.408	0.565	-55.475
443.253	0.563	-55.633	0.825	34.249	0.825	34.249	0.563	-55.633
445.722	0.561	-55.79	0.827	34.092	0.827	34.092	0.561	-55.79
448.192	0.558	-55.946	0.829	33.935	0.829	33.935	0.558	-55.946
450.661	0.556	-56.1	0.83	33.78	0.83	33.78	0.556	-56.1
453.13	0.554	-56.254	0.832	33.625	0.832	33.625	0.554	-56.254
455.6	0.552	-56.407	0.833	33.472	0.833	33.472	0.552	-56.407
458.069	0.549	-56.558	0.834	33.32	0.834	33.32	0.549	-56.558
460.539	0.547	-56.709	0.836	33.169	0.836	33.169	0.547	-56.709
463.008	0.545	-56.858	0.837	33.019	0.837	33.019	0.545	-56.858
465.478	0.543	-57.006	0.839	32.87	0.839	32.87	0.543	-57.006
467.947	0.541	-57.154	0.84	32.722	0.84	32.722	0.541	-57.154
470.417	0.538	-57.3	0.842	32.575	0.842	32.575	0.538	-57.3
472.886	0.536	-57.445	0.843	32.429	0.843	32.429	0.536	-57.445
475.355	0.534	-57.59	0.844	32.283	0.844	32.283	0.534	-57.59
477.825	0.532	-57.733	0.846	32.139	0.846	32.139	0.532	-57.733
480.294	0.53	-57.875	0.847	31.996	0.847	31.996	0.53	-57.875
482.764	0.528	-58.017	0.848	31.854	0.848	31.854	0.528	-58.017
485.233	0.526	-58.157	0.85	31.713	0.85	31.713	0.526	-58.157
487.703	0.524	-58.297	0.851	31.573	0.851	31.573	0.524	-58.297
490.172	0.522	-58.435	0.852	31.434	0.852	31.434	0.522	-58.435
492.642	0.519	-58.573	0.853	31.295	0.853	31.295	0.519	-58.573
495.111	0.517	-58.709	0.855	31.158	0.855	31.158	0.517	-58.709
497.58	0.515	-58.845	0.856	31.022	0.856	31.022	0.515	-58.845
500.05	0.513	-58.98	0.857	30.886	0.857	30.886	0.513	-58.98
502.519	0.511	-59.114	0.858	30.751	0.858	30.751	0.511	-59.114
504.989	0.509	-59.247	0.859	30.618	0.859	30.618	0.509	-59.247
507.458	0.507	-59.379	0.861	30.485	0.861	30.485	0.507	-59.379
509.928	0.505	-59.51	0.862	30.353	0.862	30.353	0.505	-59.51
512.397	0.503	-59.641	0.863	30.222	0.863	30.222	0.503	-59.641
514.867	0.501	-59.77	0.864	30.092	0.864	30.092	0.501	-59.77
517.336	0.499	-59.899	0.865	29.962	0.865	29.962	0.499	-59.899
519.805	0.497	-60.027	0.866	29.834	0.866	29.834	0.497	-60.027
522.275	0.496	-60.154	0.867	29.706	0.867	29.706	0.496	-60.154
524.744	0.494	-60.28	0.868	29.579	0.868	29.579	0.494	-60.28
527.214	0.492	-60.405	0.87	29.453	0.87	29.453	0.492	-60.405
529.683	0.49	-60.53	0.871	29.328	0.871	29.328	0.49	-60.53
532.153	0.488	-60.653	0.872	29.203	0.872	29.203	0.488	-60.653
534.622	0.486	-60.776	0.873	29.08	0.873	29.08	0.486	-60.776
537.092	0.484	-60.898	0.874	28.957	0.874	28.957	0.484	-60.898
539.561	0.482	-61.02	0.875	28.835	0.875	28.835	0.482	-61.02
542.03	0.48	-61.14	0.876	28.713	0.876	28.713	0.48	-61.14
544.5	0.479	-61.26	0.877	28.593	0.877	28.593	0.479	-61.26
546.969	0.477	-61.379	0.878	28.473	0.878	28.473	0.477	-61.379
549.439	0.475	-61.497	0.879	28.354	0.879	28.354	0.475	-61.497
551.908	0.473	-61.615	0.88	28.236	0.88	28.236	0.473	-61.615
554.378	0.471	-61.732	0.881	28.119	0.881	28.119	0.471	-61.732
556.847	0.47	-61.848	0.882	28.002	0.882	28.002	0.47	-61.848
559.317	0.468	-61.963	0.883	27.886	0.883	27.886	0.468	-61.963
561.786	0.466	-62.077	0.884	27.77	0.884	27.77	0.466	-62.077
564.255	0.464	-62.191	0.885	27.656	0.885	27.656	0.464	-62.191
566.725	0.462	-62.304	0.885	27.542	0.885	27.542	0.462	-62.304
569.194	0.461	-62.417	0.886	27.429	0.886	27.429	0.461	-62.417
571.664	0.459	-62.528	0.887	27.316	0.887	27.316	0.459	-62.528
574.133	0.457	-62.639	0.888	27.205	0.888	27.205	0.457	-62.639
576.603	0.455	-62.75	0.889	27.094	0.889	27.094	0.455	-62.75
579.072	0.454	-62.859	0.89	26.983	0.89	26.983	0.454	-62.859
581.542	0.452	-62.968	0.891	26.874	0.891	26.874	0.452	-62.968
584.011	0.45	-63.077	0.892	26.764	0.892	26.764	0.45	-63.077
586.48	0.449	-63.184	0.892	26.656	0.892	26.656	0.449	-63.184
588.95	0.447	-63.291	0.893	26.548	0.893	26.548	0.447	-63.291
591.419	0.445	-63.398	0.894	26.441	0.894	26.441	0.445	-63.398
593.889	0.444	-63.503	0.895	26.335	0.895	26.335	0.444	-63.503
596.358	0.442	-63.608	0.896	26.229	0.896	26.229	0.442	-63.608
598.828	0.44	-63.713	0.897	26.124	0.897	26.124	0.44	-63.713
601.297	0.439	-63.816	0.897	26.019	0.897	26.019	0.439	-63.816
603.767	0.437	-63.92	0.898	25.916	0.898	25.916	0.437	-63.92
606.236	0.435	-64.022	0.899	25.812	0.899	25.812	0.435	-64.022
608.705	0.434	-64.124	0.9	25.71	0.9	25.71	0.434	-64.124
611.175	0.432	-64.225	0.901	25.608	0.901	25.608	0.432	-64.225
613.644	0.431	-64.326	0.901	25.506	0.901	25.506	0.431	-64.326
616.114	0.429	-64.426	0.902	25.405	0.902	25.405	0.429	-64.426
618.583	0.427	-64.526	0.903	25.305	0.903	25.305	0.427	-64.526
621.053	0.426	-64.624	0.904	25.205	0.904	25.205	0.426	-64.624
623.522	0.424	-64.723	0.904	25.106	0.904	25.106	0.424	-64.723
625.992	0.423	-64.821	0.905	25.008	0.905	25.008	0.423	-64.821
628.461	0.421	-64.918	0.906	24.91	0.906	24.91	0.421	-64.918
630.93	0.42	-65.014	0.906	24.812	0.906	24.812	0.42	-65.014
633.4	0.418	-65.11	0.907	24.716	0.907	24.716	0.418	-65.11
635.869	0.417	-65.206	0.908	24.619	0.908	24.619	0.417	-65.206
638.339	0.415	-65.301	0.909	24.524	0.909	24.524	0.415	-65.301
640.808	0.414	-65.395	0.909	24.428	0.909	24.428	0.414	-65.395
643.278	0.412	-65.489	0.91	24.334	0.91	24.334	0.412	-65.489
645.747	0.411	-65.582	0.911	24.24	0.911	24.24	0.411	-65.582
648.217	0.409	-65.675	0.911	24.146	0.911	24.146	0.409	-65.675
650.686	0.408	-65.767	0.912	24.053	0.912	24.053	0.408	-65.767
653.155	0.406	-65.859	0.913	23.961	0.913	23.961	0.406	-65.859
655.625	0.405	-65.95	0.913	23.869	0.913	23.869	0.405	-65.95
658.094	0.403	-66.041	0.914	23.777	0.914	23.777	0.403	-66.041
660.564	0.402	-66.131	0.914	23.686	0.914	23.686	0.402	-66.131
663.033	0.4	-66.221	0.915	23.596	0.915	23.596	0.4	-66.221
665.503	0.399	-66.31	0.916	23.506	0.916	23.506	0.399	-66.31
667.972	0.397	-66.398	0.916	23.417	0.916	23.417	0.397	-66.398
670.442	0.396	-66.487	0.917	23.328	0.917	23.328	0.396	-66.487
672.911	0.395	-66.574	0.918	23.239	0.918	23.239	0.395	-66.574
675.38	0.393	-66.661	0.918	23.151	0.918	23.151	0.393	-66.661
677.85	0.392	-66.748	0.919	23.064	0.919	23.064	0.392	-66.748
680.319	0.39	-66.834	0.919	22.977	0.919	22.977	0.39	-66.834
682.789	0.389	-66.92	0.92	22.89	0.92	22.89	0.389	-66.92
685.258	0.388	-67.005	0.921	22.804	0.921	22.804	0.388	-67.005
687.728	0.386	-67.09	0.921	22.719	0.921	22.719	0.386	-67.09
690.197	0.385	-67.174	0.922	22.633	0.922	22.633	0.385	-67.174
692.667	0.383	-67.258	0.922	22.549	0.922	22.549	0.383	-67.258
695.136	0.382	-67.342	0.923	22.465	0.923	22.465	0.382	-67.342
697.605	0.381	-67.425	0.923	22.381	0.923	22.381	0.381	-67.425
700.075	0.379	-67.507	0.924	22.298	0.924	22.298	0.379	-67.507
702.544	0.378	-67.589	0.924	22.215	0.924	22.215	0.378	-67.589
705.014	0.377	-67.671	0.925	22.132	0.925	22.132	0.377	-67.671
707.483	0.375	-67.752	0.926	22.05	0.926	22.05	0.375	-67.752
709.953	0.374	-67.833	0.926	21.969	0.926	21.969	0.374	-67.833
712.422	0.373	-67.913	0.927	21.888	0.927	21.888	0.373	-67.913
714.891	0.371	-67.993	0.927	21.807	0.927	21.807	0.371	-67.993
717.361	0.37	-68.072	0.928	21.727	0.928	21.727	0.37	-68.072
719.83	0.369	-68.151	0.928	21.647	0.928	21.647	0.369	-68.151
722.3	0.368	-68.23	0.929	21.567	0.929	21.567	0.368	-68.23
724.769	0.366	-68.308	0.929	21.488	0.929	21.488	0.366	-68.308
727.239	0.365	-68.386	0.93	21.41	0.93	21.41	0.365	-68.386
729.708	0.364	-68.463	0.93	21.332	0.93	21.332	0.364	-68.463
732.178	0.363	-68.54	0.931	21.254	0.931	21.254	0.363	-68.54
734.647	0.361	-68.617	0.931	21.176	0.931	21.176	0.361	-68.617
737.116	0.36	-68.693	0.932	21.099	0.932	21.099	0.36	-68.693
739.586	0.359	-68.769	0.932	21.023	0.932	21.023	0.359	-68.769
742.055	0.357	-68.844	0.933	20.947	0.933	20.947	0.357	-68.844
744.525	0.356	-68.919	0.933	20.871	0.933	20.871	0.356	-68.919
746.994	0.355	-68.994	0.934	20.795	0.934	20.795	0.355	-68.994
749.464	0.354	-69.068	0.934	20.72	0.934	20.72	0.354	-69.068
751.933	0.353	-69.142	0.934	20.646	0.934	20.646	0.353	-69.142
754.403	0.351	-69.215	0.935	20.571	0.935	20.571	0.351	-69.215
756.872	0.35	-69.288	0.935	20.497	0.935	20.497	0.35	-69.288
759.341	0.349	-69.361	0.936	20.424	0.936	20.424	0.349	-69.361
761.811	0.348	-69.433	0.936	20.351	0.936	20.351	0.348	-69.433
764.28	0.347	-69.505	0.937	20.278	0.937	20.278	0.347	-69.505
766.75	0.345	-69.577	0.937	20.205	0.937	20.205	0.345	-69.577
769.219	0.344	-69.648	0.938	20.133	0.938	20.133	0.344	-69.648
771.689	0.343	-69.719	0.938	20.061	0.938	20.061	0.343	-69.719
774.158	0.342	-69.79	0.938	19.99	0.938	19.99	0.342	-69.79
776.628	0.341	-69.86	0.939	19.919	0.939	19.919	0.341	-69.86
779.097	0.34	-69.93	0.939	19.848	0.939	19.848	0.34	-69.93
781.566	0.338	-69.999	0.94	19.778	0.94	19.778	0.338	-69.999
784.036	0.337	-70.068	0.94	19.708	0.94	19.708	0.337	-70.068
786.505	0.336	-70.137	0.941	19.638	0.941	19.638	0.336	-70.137
788.975	0.335	-70.206	0.941	19.569	0.941	19.569	0.335	-70.206
791.444	0.334	-70.274	0.941	19.5	0.941	19.5	0.334	-70.274
793.914	0.333	-70.342	0.942	19.431	0.942	19.431	0.333	-70.342
796.383	0.332	-70.409	0.942	19.363	0.942	19.363	0.332	-70.409
798.853	0.33	-70.476	0.943	19.295	0.943	19.295	0.33	-70.476
801.322	0.329	-70.543	0.943	19.227	0.943	19.227	0.329	-70.543
803.791	0.328	-70.61	0.943	19.16	0.943	19.16	0.328	-70.61
806.261	0.327	-70.676	0.944	19.093	0.944	19.093	0.327	-70.676
808.73	0.326	-70.742	0.944	19.026	0.944	19.026	0.326	-70.742
811.2	0.325	-70.807	0.944	18.959	0.944	18.959	0.325	-70.807
813.669	0.324	-70.873	0.945	18.893	0.945	18.893	0.324	-70.873
816.139	0.323	-70.937	0.945	18.828	0.945	18.828	0.323	-70.937
818.608	0.322	-71.002	0.946	18.762	0.946	18.762	0.322	-71.002
821.078	0.321	-71.066	0.946	18.697	0.946	18.697	0.321	-71.066
823.547	0.319	-71.13	0.946	18.632	0.946	18.632	0.319	-71.13
826.016	0.318	-71.194	0.947	18.567	0.947	18.567	0.318	-71.194
828.486	0.317	-71.258	0.947	18.503	0.947	18.503	0.317	-71.258
830.955	0.316	-71.321	0.947	18.439	0.947	18.439	0.316	-71.321
833.425	0.315	-71.383	0.948	18.375	0.948	18.375	0.315	-71.383
835.894	0.314	-71.446	0.948	18.312	0.948	18.312	0.314	-71.446
838.364	0.313	-71.508	0.948	18.249	0.948	18.249	0.313	-71.508
840.833	0.312	-71.57	0.949	18.186	0.949	18.186	0.312	-71.57
843.303	0.311	-71.632	0.949	18.123	0.949	18.123	0.311	-71.632
845.772	0.31	-71.693	0.949	18.061	0.949	18.061	0.31	-71.693
848.241	0.309	-71.754	0.95	17.999	0.95	17.999	0.309	-71.754
850.711	0.308	-71.815	0.95	17.938	0.95	17.938	0.308	-71.815
853.18	0.307	-71.875	0.95	17.876	0.95	17.876	0.307	-71.875
855.65	0.306	-71.936	0.951	17.815	0.951	17.815	0.306	-71.936
858.119	0.305	-71.996	0.951	17.754	0.951	17.754	0.305	-71.996
860.589	0.304	-72.055	0.951	17.693	0.951	17.693	0.304	-72.055
863.058	0.303	-72.115	0.952	17.633	0.952	17.633	0.303	-72.115
865.528	0.302	-72.174	0.952	17.573	0.952	17.573	0.302	-72.174
867.997	0.301	-72.233	0.952	17.513	0.952	17.513	0.301	-72.233
870.466	0.3	-72.291	0.953	17.454	0.953	17.454	0.3	-72.291
872.936	0.299	-72.35	0.953	17.394	0.953	17.394	0.299	-72.35
875.405	0.298	-72.408	0.953	17.335	0.953	17.335	0.298	-72.408
877.875	0.297	-72.466	0.954	17.277	0.954	17.277	0.297	-72.466
880.344	0.296	-72.523	0.954	17.218	0.954	17.218	0.296	-72.523
882.814	0.295	-72.581	0.954	17.16	0.954	17.16	0.295	-72.581
885.283	0.294	-72.638	0.954	17.102	0.954	17.102	0.294	-72.638
887.753	0.293	-72.694	0.955	17.044	0.955	17.044	0.293	-72.694
890.222	0.292	-72.751	0.955	16.987	0.955	16.987	0.292	-72.751
892.691	0.291	-72.807	0.955	16.929	0.955	16.929	0.291	-72.807
