! AVX Thin Film Operation		Date: April 2012 
! Description: Accu-P® Series, Thin Film, SMD, RF Capacitor
! Part Number: 08051J1R5PBTTR					
!	100	MHz	-	10.05	GHz			
!	Serial	Measurements						
!								
#	MHZ	S	MA	R	50			
!	S11	S21	S12	S22				
!	dB	Phase	dB	Phase	dB	Phase	dB	Phase
100	0.996	-5.387	0.094	84.602	0.094	84.602	0.996	-5.387
102.469	0.995	-5.519	0.096	84.469	0.096	84.469	0.995	-5.519
104.939	0.995	-5.651	0.098	84.336	0.098	84.336	0.995	-5.651
107.408	0.995	-5.783	0.101	84.204	0.101	84.204	0.995	-5.783
109.878	0.995	-5.916	0.103	84.071	0.103	84.071	0.995	-5.916
112.347	0.994	-6.048	0.105	83.939	0.105	83.939	0.994	-6.048
114.817	0.994	-6.18	0.108	83.807	0.108	83.807	0.994	-6.18
117.286	0.994	-6.312	0.11	83.674	0.11	83.674	0.994	-6.312
119.756	0.994	-6.444	0.112	83.542	0.112	83.542	0.994	-6.444
122.225	0.993	-6.576	0.115	83.41	0.115	83.41	0.993	-6.576
124.694	0.993	-6.707	0.117	83.278	0.117	83.278	0.993	-6.707
127.164	0.993	-6.839	0.119	83.146	0.119	83.146	0.993	-6.839
129.633	0.993	-6.971	0.121	83.014	0.121	83.014	0.993	-6.971
132.103	0.992	-7.103	0.124	82.882	0.124	82.882	0.992	-7.103
134.572	0.992	-7.234	0.126	82.75	0.126	82.75	0.992	-7.234
137.042	0.992	-7.366	0.128	82.618	0.128	82.618	0.992	-7.366
139.511	0.991	-7.497	0.13	82.486	0.13	82.486	0.991	-7.497
141.981	0.991	-7.629	0.133	82.355	0.133	82.355	0.991	-7.629
144.45	0.991	-7.76	0.135	82.223	0.135	82.223	0.991	-7.76
146.919	0.99	-7.891	0.137	82.091	0.137	82.091	0.99	-7.891
149.389	0.99	-8.022	0.14	81.96	0.14	81.96	0.99	-8.022
151.858	0.99	-8.153	0.142	81.828	0.142	81.828	0.99	-8.153
154.328	0.99	-8.284	0.144	81.697	0.144	81.697	0.99	-8.284
156.797	0.989	-8.415	0.146	81.566	0.146	81.566	0.989	-8.415
159.267	0.989	-8.546	0.149	81.435	0.149	81.435	0.989	-8.546
161.736	0.989	-8.677	0.151	81.304	0.151	81.304	0.989	-8.677
164.206	0.988	-8.808	0.153	81.173	0.153	81.173	0.988	-8.808
166.675	0.988	-8.939	0.155	81.042	0.155	81.042	0.988	-8.939
169.144	0.987	-9.069	0.158	80.911	0.158	80.911	0.987	-9.069
171.614	0.987	-9.2	0.16	80.78	0.16	80.78	0.987	-9.2
174.083	0.987	-9.33	0.162	80.649	0.162	80.649	0.987	-9.33
176.553	0.986	-9.46	0.164	80.519	0.164	80.519	0.986	-9.46
179.022	0.986	-9.591	0.167	80.388	0.167	80.388	0.986	-9.591
181.492	0.986	-9.721	0.169	80.258	0.169	80.258	0.986	-9.721
183.961	0.985	-9.851	0.171	80.127	0.171	80.127	0.985	-9.851
186.431	0.985	-9.981	0.173	79.997	0.173	79.997	0.985	-9.981
188.9	0.984	-10.111	0.176	79.867	0.176	79.867	0.984	-10.111
191.369	0.984	-10.241	0.178	79.737	0.178	79.737	0.984	-10.241
193.839	0.984	-10.37	0.18	79.606	0.18	79.606	0.984	-10.37
196.308	0.983	-10.5	0.182	79.477	0.182	79.477	0.983	-10.5
198.778	0.983	-10.63	0.184	79.347	0.184	79.347	0.983	-10.63
201.247	0.982	-10.759	0.187	79.217	0.187	79.217	0.982	-10.759
203.717	0.982	-10.888	0.189	79.087	0.189	79.087	0.982	-10.888
206.186	0.981	-11.018	0.191	78.958	0.191	78.958	0.981	-11.018
208.656	0.981	-11.147	0.193	78.828	0.193	78.828	0.981	-11.147
211.125	0.981	-11.276	0.196	78.699	0.196	78.699	0.981	-11.276
213.594	0.98	-11.405	0.198	78.57	0.198	78.57	0.98	-11.405
216.064	0.98	-11.534	0.2	78.44	0.2	78.44	0.98	-11.534
218.533	0.979	-11.663	0.202	78.311	0.202	78.311	0.979	-11.663
221.003	0.979	-11.791	0.204	78.182	0.204	78.182	0.979	-11.791
223.472	0.978	-11.92	0.207	78.053	0.207	78.053	0.978	-11.92
225.942	0.978	-12.048	0.209	77.925	0.209	77.925	0.978	-12.048
228.411	0.977	-12.177	0.211	77.796	0.211	77.796	0.977	-12.177
230.881	0.977	-12.305	0.213	77.667	0.213	77.667	0.977	-12.305
233.35	0.976	-12.433	0.215	77.539	0.215	77.539	0.976	-12.433
235.819	0.976	-12.561	0.217	77.411	0.217	77.411	0.976	-12.561
238.289	0.975	-12.689	0.22	77.282	0.22	77.282	0.975	-12.689
240.758	0.975	-12.817	0.222	77.154	0.222	77.154	0.975	-12.817
243.228	0.974	-12.945	0.224	77.026	0.224	77.026	0.974	-12.945
245.697	0.974	-13.072	0.226	76.898	0.226	76.898	0.974	-13.072
248.167	0.973	-13.2	0.228	76.77	0.228	76.77	0.973	-13.2
250.636	0.973	-13.327	0.231	76.643	0.231	76.643	0.973	-13.327
253.106	0.972	-13.455	0.233	76.515	0.233	76.515	0.972	-13.455
255.575	0.972	-13.582	0.235	76.388	0.235	76.388	0.972	-13.582
258.044	0.971	-13.709	0.237	76.26	0.237	76.26	0.971	-13.709
260.514	0.971	-13.836	0.239	76.133	0.239	76.133	0.971	-13.836
262.983	0.97	-13.963	0.241	76.006	0.241	76.006	0.97	-13.963
265.453	0.97	-14.089	0.243	75.879	0.243	75.879	0.97	-14.089
267.922	0.969	-14.216	0.246	75.752	0.246	75.752	0.969	-14.216
270.392	0.969	-14.342	0.248	75.625	0.248	75.625	0.969	-14.342
272.861	0.968	-14.469	0.25	75.499	0.25	75.499	0.968	-14.469
275.331	0.968	-14.595	0.252	75.372	0.252	75.372	0.968	-14.595
277.8	0.967	-14.721	0.254	75.246	0.254	75.246	0.967	-14.721
280.269	0.966	-14.847	0.256	75.119	0.256	75.119	0.966	-14.847
282.739	0.966	-14.973	0.258	74.993	0.258	74.993	0.966	-14.973
285.208	0.965	-15.099	0.26	74.867	0.26	74.867	0.965	-15.099
287.678	0.965	-15.224	0.263	74.741	0.263	74.741	0.965	-15.224
290.147	0.964	-15.35	0.265	74.616	0.265	74.616	0.964	-15.35
292.617	0.964	-15.475	0.267	74.49	0.267	74.49	0.964	-15.475
295.086	0.963	-15.6	0.269	74.364	0.269	74.364	0.963	-15.6
297.556	0.962	-15.726	0.271	74.239	0.271	74.239	0.962	-15.726
300.025	0.962	-15.851	0.273	74.114	0.273	74.114	0.962	-15.851
302.494	0.961	-15.975	0.275	73.988	0.275	73.988	0.961	-15.975
304.964	0.961	-16.1	0.277	73.863	0.277	73.863	0.961	-16.1
307.433	0.96	-16.225	0.279	73.739	0.279	73.739	0.96	-16.225
309.903	0.959	-16.349	0.281	73.614	0.281	73.614	0.959	-16.349
312.372	0.959	-16.474	0.284	73.489	0.284	73.489	0.959	-16.474
314.842	0.958	-16.598	0.286	73.365	0.286	73.365	0.958	-16.598
317.311	0.958	-16.722	0.288	73.24	0.288	73.24	0.958	-16.722
319.78	0.957	-16.846	0.29	73.116	0.29	73.116	0.957	-16.846
322.25	0.956	-16.97	0.292	72.992	0.292	72.992	0.956	-16.97
324.719	0.956	-17.093	0.294	72.868	0.294	72.868	0.956	-17.093
327.189	0.955	-17.217	0.296	72.744	0.296	72.744	0.955	-17.217
329.658	0.954	-17.34	0.298	72.621	0.298	72.621	0.954	-17.34
332.128	0.954	-17.463	0.3	72.497	0.3	72.497	0.954	-17.463
334.597	0.953	-17.586	0.302	72.374	0.302	72.374	0.953	-17.586
337.067	0.952	-17.709	0.304	72.25	0.304	72.25	0.952	-17.709
339.536	0.952	-17.832	0.306	72.127	0.306	72.127	0.952	-17.832
342.005	0.951	-17.955	0.308	72.004	0.308	72.004	0.951	-17.955
344.475	0.95	-18.077	0.31	71.881	0.31	71.881	0.95	-18.077
346.944	0.95	-18.2	0.312	71.759	0.312	71.759	0.95	-18.2
349.414	0.949	-18.322	0.314	71.636	0.314	71.636	0.949	-18.322
351.883	0.948	-18.444	0.316	71.514	0.316	71.514	0.948	-18.444
354.353	0.948	-18.566	0.318	71.391	0.318	71.391	0.948	-18.566
356.822	0.947	-18.688	0.32	71.269	0.32	71.269	0.947	-18.688
359.292	0.946	-18.81	0.322	71.147	0.322	71.147	0.946	-18.81
361.761	0.946	-18.931	0.324	71.026	0.324	71.026	0.946	-18.931
364.23	0.945	-19.053	0.326	70.904	0.326	70.904	0.945	-19.053
366.7	0.944	-19.174	0.328	70.782	0.328	70.782	0.944	-19.174
369.169	0.944	-19.295	0.33	70.661	0.33	70.661	0.944	-19.295
371.639	0.943	-19.416	0.332	70.54	0.332	70.54	0.943	-19.416
374.108	0.942	-19.537	0.334	70.419	0.334	70.419	0.942	-19.537
376.578	0.941	-19.657	0.336	70.298	0.336	70.298	0.941	-19.657
379.047	0.941	-19.778	0.338	70.177	0.338	70.177	0.941	-19.778
381.517	0.94	-19.898	0.34	70.056	0.34	70.056	0.94	-19.898
383.986	0.939	-20.018	0.342	69.936	0.342	69.936	0.939	-20.018
386.455	0.939	-20.138	0.344	69.815	0.344	69.815	0.939	-20.138
388.925	0.938	-20.258	0.346	69.695	0.346	69.695	0.938	-20.258
391.394	0.937	-20.378	0.348	69.575	0.348	69.575	0.937	-20.378
393.864	0.936	-20.497	0.35	69.455	0.35	69.455	0.936	-20.497
396.333	0.936	-20.617	0.352	69.336	0.352	69.336	0.936	-20.617
398.803	0.935	-20.736	0.354	69.216	0.354	69.216	0.935	-20.736
401.272	0.934	-20.855	0.356	69.097	0.356	69.097	0.934	-20.855
403.742	0.933	-20.974	0.358	68.977	0.358	68.977	0.933	-20.974
406.211	0.933	-21.093	0.36	68.858	0.36	68.858	0.933	-21.093
408.68	0.932	-21.212	0.362	68.739	0.362	68.739	0.932	-21.212
411.15	0.931	-21.33	0.364	68.621	0.364	68.621	0.931	-21.33
413.619	0.93	-21.448	0.366	68.502	0.366	68.502	0.93	-21.448
416.089	0.93	-21.567	0.368	68.384	0.368	68.384	0.93	-21.567
418.558	0.929	-21.685	0.369	68.265	0.369	68.265	0.929	-21.685
421.028	0.928	-21.802	0.371	68.147	0.371	68.147	0.928	-21.802
423.497	0.927	-21.92	0.373	68.029	0.373	68.029	0.927	-21.92
425.967	0.927	-22.038	0.375	67.911	0.375	67.911	0.927	-22.038
428.436	0.926	-22.155	0.377	67.794	0.377	67.794	0.926	-22.155
430.905	0.925	-22.272	0.379	67.676	0.379	67.676	0.925	-22.272
433.375	0.924	-22.389	0.381	67.559	0.381	67.559	0.924	-22.389
435.844	0.923	-22.506	0.383	67.442	0.383	67.442	0.923	-22.506
438.314	0.923	-22.623	0.385	67.325	0.385	67.325	0.923	-22.623
440.783	0.922	-22.739	0.387	67.208	0.387	67.208	0.922	-22.739
443.253	0.921	-22.856	0.388	67.091	0.388	67.091	0.921	-22.856
445.722	0.92	-22.972	0.39	66.975	0.39	66.975	0.92	-22.972
448.192	0.92	-23.088	0.392	66.858	0.392	66.858	0.92	-23.088
450.661	0.919	-23.204	0.394	66.742	0.394	66.742	0.919	-23.204
453.13	0.918	-23.32	0.396	66.626	0.396	66.626	0.918	-23.32
455.6	0.917	-23.435	0.398	66.51	0.398	66.51	0.917	-23.435
458.069	0.916	-23.551	0.4	66.394	0.4	66.394	0.916	-23.551
460.539	0.916	-23.666	0.401	66.279	0.401	66.279	0.916	-23.666
463.008	0.915	-23.781	0.403	66.164	0.403	66.164	0.915	-23.781
465.478	0.914	-23.896	0.405	66.048	0.405	66.048	0.914	-23.896
467.947	0.913	-24.01	0.407	65.933	0.407	65.933	0.913	-24.01
470.417	0.912	-24.125	0.409	65.818	0.409	65.818	0.912	-24.125
472.886	0.911	-24.239	0.411	65.704	0.411	65.704	0.911	-24.239
475.355	0.911	-24.354	0.412	65.589	0.412	65.589	0.911	-24.354
477.825	0.91	-24.468	0.414	65.475	0.414	65.475	0.91	-24.468
480.294	0.909	-24.582	0.416	65.361	0.416	65.361	0.909	-24.582
482.764	0.908	-24.695	0.418	65.247	0.418	65.247	0.908	-24.695
485.233	0.907	-24.809	0.42	65.133	0.42	65.133	0.907	-24.809
487.703	0.906	-24.922	0.421	65.019	0.421	65.019	0.906	-24.922
490.172	0.906	-25.035	0.423	64.906	0.423	64.906	0.906	-25.035
492.642	0.905	-25.148	0.425	64.792	0.425	64.792	0.905	-25.148
495.111	0.904	-25.261	0.427	64.679	0.427	64.679	0.904	-25.261
497.58	0.903	-25.374	0.429	64.566	0.429	64.566	0.903	-25.374
500.05	0.902	-25.486	0.43	64.453	0.43	64.453	0.902	-25.486
502.519	0.901	-25.599	0.432	64.341	0.432	64.341	0.901	-25.599
504.989	0.901	-25.711	0.434	64.228	0.434	64.228	0.901	-25.711
507.458	0.9	-25.823	0.436	64.116	0.436	64.116	0.9	-25.823
509.928	0.899	-25.935	0.437	64.004	0.437	64.004	0.899	-25.935
512.397	0.898	-26.046	0.439	63.892	0.439	63.892	0.898	-26.046
514.867	0.897	-26.158	0.441	63.78	0.441	63.78	0.897	-26.158
517.336	0.896	-26.269	0.443	63.669	0.443	63.669	0.896	-26.269
519.805	0.895	-26.38	0.444	63.557	0.444	63.557	0.895	-26.38
522.275	0.895	-26.491	0.446	63.446	0.446	63.446	0.895	-26.491
524.744	0.894	-26.602	0.448	63.335	0.448	63.335	0.894	-26.602
527.214	0.893	-26.712	0.45	63.224	0.45	63.224	0.893	-26.712
529.683	0.892	-26.823	0.451	63.113	0.451	63.113	0.892	-26.823
532.153	0.891	-26.933	0.453	63.003	0.453	63.003	0.891	-26.933
534.622	0.89	-27.043	0.455	62.892	0.455	62.892	0.89	-27.043
537.092	0.889	-27.153	0.456	62.782	0.456	62.782	0.889	-27.153
539.561	0.888	-27.263	0.458	62.672	0.458	62.672	0.888	-27.263
542.03	0.888	-27.372	0.46	62.562	0.46	62.562	0.888	-27.372
544.5	0.887	-27.482	0.461	62.453	0.461	62.453	0.887	-27.482
546.969	0.886	-27.591	0.463	62.343	0.463	62.343	0.886	-27.591
549.439	0.885	-27.7	0.465	62.234	0.465	62.234	0.885	-27.7
551.908	0.884	-27.809	0.467	62.125	0.467	62.125	0.884	-27.809
554.378	0.883	-27.917	0.468	62.016	0.468	62.016	0.883	-27.917
556.847	0.882	-28.026	0.47	61.907	0.47	61.907	0.882	-28.026
559.317	0.881	-28.134	0.472	61.798	0.472	61.798	0.881	-28.134
561.786	0.88	-28.242	0.473	61.69	0.473	61.69	0.88	-28.242
564.255	0.879	-28.35	0.475	61.582	0.475	61.582	0.879	-28.35
566.725	0.879	-28.458	0.477	61.474	0.477	61.474	0.879	-28.458
569.194	0.878	-28.566	0.478	61.366	0.478	61.366	0.878	-28.566
571.664	0.877	-28.673	0.48	61.258	0.48	61.258	0.877	-28.673
574.133	0.876	-28.78	0.481	61.15	0.481	61.15	0.876	-28.78
576.603	0.875	-28.887	0.483	61.043	0.483	61.043	0.875	-28.887
579.072	0.874	-28.994	0.485	60.936	0.485	60.936	0.874	-28.994
581.542	0.873	-29.101	0.486	60.829	0.486	60.829	0.873	-29.101
584.011	0.872	-29.207	0.488	60.722	0.488	60.722	0.872	-29.207
586.48	0.871	-29.314	0.49	60.615	0.49	60.615	0.871	-29.314
588.95	0.87	-29.42	0.491	60.509	0.491	60.509	0.87	-29.42
591.419	0.87	-29.526	0.493	60.403	0.493	60.403	0.87	-29.526
593.889	0.869	-29.632	0.494	60.297	0.494	60.297	0.869	-29.632
596.358	0.868	-29.737	0.496	60.191	0.496	60.191	0.868	-29.737
598.828	0.867	-29.843	0.498	60.085	0.498	60.085	0.867	-29.843
601.297	0.866	-29.948	0.499	59.979	0.499	59.979	0.866	-29.948
603.767	0.865	-30.053	0.501	59.874	0.501	59.874	0.865	-30.053
606.236	0.864	-30.158	0.502	59.769	0.502	59.769	0.864	-30.158
608.705	0.863	-30.263	0.504	59.664	0.504	59.664	0.863	-30.263
611.175	0.862	-30.367	0.506	59.559	0.506	59.559	0.862	-30.367
613.644	0.861	-30.472	0.507	59.454	0.507	59.454	0.861	-30.472
616.114	0.86	-30.576	0.509	59.35	0.509	59.35	0.86	-30.576
618.583	0.859	-30.68	0.51	59.245	0.51	59.245	0.859	-30.68
621.053	0.858	-30.784	0.512	59.141	0.512	59.141	0.858	-30.784
623.522	0.858	-30.887	0.513	59.037	0.513	59.037	0.858	-30.887
625.992	0.857	-30.991	0.515	58.934	0.515	58.934	0.857	-30.991
628.461	0.856	-31.094	0.516	58.83	0.516	58.83	0.856	-31.094
630.93	0.855	-31.197	0.518	58.727	0.518	58.727	0.855	-31.197
633.4	0.854	-31.3	0.52	58.623	0.52	58.623	0.854	-31.3
635.869	0.853	-31.403	0.521	58.52	0.521	58.52	0.853	-31.403
638.339	0.852	-31.505	0.523	58.417	0.523	58.417	0.852	-31.505
640.808	0.851	-31.608	0.524	58.315	0.524	58.315	0.851	-31.608
643.278	0.85	-31.71	0.526	58.212	0.526	58.212	0.85	-31.71
645.747	0.849	-31.812	0.527	58.11	0.527	58.11	0.849	-31.812
648.217	0.848	-31.914	0.529	58.008	0.529	58.008	0.848	-31.914
650.686	0.847	-32.015	0.53	57.906	0.53	57.906	0.847	-32.015
653.155	0.846	-32.117	0.532	57.804	0.532	57.804	0.846	-32.117
655.625	0.845	-32.218	0.533	57.702	0.533	57.702	0.845	-32.218
658.094	0.844	-32.319	0.535	57.601	0.535	57.601	0.844	-32.319
660.564	0.843	-32.42	0.536	57.5	0.536	57.5	0.843	-32.42
663.033	0.842	-32.521	0.538	57.399	0.538	57.399	0.842	-32.521
665.503	0.841	-32.621	0.539	57.298	0.539	57.298	0.841	-32.621
667.972	0.841	-32.722	0.541	57.197	0.541	57.197	0.841	-32.722
670.442	0.84	-32.822	0.542	57.097	0.542	57.097	0.84	-32.822
672.911	0.839	-32.922	0.543	56.996	0.543	56.996	0.839	-32.922
675.38	0.838	-33.022	0.545	56.896	0.545	56.896	0.838	-33.022
677.85	0.837	-33.122	0.546	56.796	0.546	56.796	0.837	-33.122
680.319	0.836	-33.221	0.548	56.696	0.548	56.696	0.836	-33.221
682.789	0.835	-33.32	0.549	56.597	0.549	56.597	0.835	-33.32
685.258	0.834	-33.419	0.551	56.497	0.551	56.497	0.834	-33.419
687.728	0.833	-33.518	0.552	56.398	0.552	56.398	0.833	-33.518
690.197	0.832	-33.617	0.554	56.299	0.554	56.299	0.832	-33.617
692.667	0.831	-33.716	0.555	56.2	0.555	56.2	0.831	-33.716
695.136	0.83	-33.814	0.557	56.101	0.557	56.101	0.83	-33.814
697.605	0.829	-33.912	0.558	56.003	0.558	56.003	0.829	-33.912
700.075	0.828	-34.01	0.559	55.904	0.559	55.904	0.828	-34.01
702.544	0.827	-34.108	0.561	55.806	0.561	55.806	0.827	-34.108
705.014	0.826	-34.206	0.562	55.708	0.562	55.708	0.826	-34.206
707.483	0.825	-34.303	0.564	55.61	0.564	55.61	0.825	-34.303
709.953	0.824	-34.401	0.565	55.513	0.565	55.513	0.824	-34.401
712.422	0.823	-34.498	0.566	55.415	0.566	55.415	0.823	-34.498
714.891	0.822	-34.595	0.568	55.318	0.568	55.318	0.822	-34.595
717.361	0.821	-34.692	0.569	55.221	0.569	55.221	0.821	-34.692
719.83	0.82	-34.788	0.571	55.124	0.571	55.124	0.82	-34.788
722.3	0.819	-34.885	0.572	55.027	0.572	55.027	0.819	-34.885
724.769	0.818	-34.981	0.573	54.931	0.573	54.931	0.818	-34.981
727.239	0.817	-35.077	0.575	54.834	0.575	54.834	0.817	-35.077
729.708	0.817	-35.173	0.576	54.738	0.576	54.738	0.817	-35.173
732.178	0.816	-35.269	0.577	54.642	0.577	54.642	0.816	-35.269
734.647	0.815	-35.364	0.579	54.546	0.579	54.546	0.815	-35.364
737.116	0.814	-35.46	0.58	54.45	0.58	54.45	0.814	-35.46
739.586	0.813	-35.555	0.581	54.355	0.581	54.355	0.813	-35.555
742.055	0.812	-35.65	0.583	54.26	0.583	54.26	0.812	-35.65
744.525	0.811	-35.745	0.584	54.165	0.584	54.165	0.811	-35.745
746.994	0.81	-35.839	0.586	54.07	0.586	54.07	0.81	-35.839
749.464	0.809	-35.934	0.587	53.975	0.587	53.975	0.809	-35.934
751.933	0.808	-36.028	0.588	53.88	0.588	53.88	0.808	-36.028
754.403	0.807	-36.122	0.59	53.786	0.59	53.786	0.807	-36.122
756.872	0.806	-36.216	0.591	53.691	0.591	53.691	0.806	-36.216
759.341	0.805	-36.31	0.592	53.597	0.592	53.597	0.805	-36.31
761.811	0.804	-36.403	0.593	53.504	0.593	53.504	0.804	-36.403
764.28	0.803	-36.497	0.595	53.41	0.595	53.41	0.803	-36.497
766.75	0.802	-36.59	0.596	53.316	0.596	53.316	0.802	-36.59
769.219	0.801	-36.683	0.597	53.223	0.597	53.223	0.801	-36.683
771.689	0.8	-36.776	0.599	53.13	0.599	53.13	0.8	-36.776
774.158	0.799	-36.869	0.6	53.037	0.6	53.037	0.799	-36.869
776.628	0.798	-36.961	0.601	52.944	0.601	52.944	0.798	-36.961
779.097	0.797	-37.053	0.603	52.851	0.603	52.851	0.797	-37.053
781.566	0.796	-37.146	0.604	52.759	0.604	52.759	0.796	-37.146
784.036	0.795	-37.238	0.605	52.666	0.605	52.666	0.795	-37.238
786.505	0.794	-37.329	0.606	52.574	0.606	52.574	0.794	-37.329
788.975	0.793	-37.421	0.608	52.482	0.608	52.482	0.793	-37.421
791.444	0.792	-37.513	0.609	52.39	0.609	52.39	0.792	-37.513
793.914	0.791	-37.604	0.61	52.299	0.61	52.299	0.791	-37.604
796.383	0.79	-37.695	0.611	52.207	0.611	52.207	0.79	-37.695
798.853	0.789	-37.786	0.613	52.116	0.613	52.116	0.789	-37.786
801.322	0.788	-37.877	0.614	52.025	0.614	52.025	0.788	-37.877
803.791	0.787	-37.967	0.615	51.934	0.615	51.934	0.787	-37.967
806.261	0.786	-38.058	0.616	51.843	0.616	51.843	0.786	-38.058
808.73	0.785	-38.148	0.618	51.753	0.618	51.753	0.785	-38.148
811.2	0.784	-38.238	0.619	51.662	0.619	51.662	0.784	-38.238
813.669	0.783	-38.328	0.62	51.572	0.62	51.572	0.783	-38.328
816.139	0.782	-38.418	0.621	51.482	0.621	51.482	0.782	-38.418
818.608	0.781	-38.507	0.623	51.392	0.623	51.392	0.781	-38.507
821.078	0.78	-38.597	0.624	51.303	0.624	51.303	0.78	-38.597
823.547	0.779	-38.686	0.625	51.213	0.625	51.213	0.779	-38.686
826.016	0.779	-38.775	0.626	51.124	0.626	51.124	0.779	-38.775
828.486	0.778	-38.864	0.627	51.034	0.627	51.034	0.778	-38.864
830.955	0.777	-38.952	0.629	50.945	0.629	50.945	0.777	-38.952
833.425	0.776	-39.041	0.63	50.857	0.63	50.857	0.776	-39.041
835.894	0.775	-39.129	0.631	50.768	0.631	50.768	0.775	-39.129
838.364	0.774	-39.217	0.632	50.679	0.632	50.679	0.774	-39.217
840.833	0.773	-39.305	0.633	50.591	0.633	50.591	0.773	-39.305
843.303	0.772	-39.393	0.635	50.503	0.635	50.503	0.772	-39.393
845.772	0.771	-39.481	0.636	50.415	0.636	50.415	0.771	-39.481
848.241	0.77	-39.568	0.637	50.327	0.637	50.327	0.77	-39.568
850.711	0.769	-39.656	0.638	50.239	0.638	50.239	0.769	-39.656
853.18	0.768	-39.743	0.639	50.152	0.639	50.152	0.768	-39.743
855.65	0.767	-39.83	0.641	50.065	0.641	50.065	0.767	-39.83
858.119	0.766	-39.917	0.642	49.978	0.642	49.978	0.766	-39.917
860.589	0.765	-40.003	0.643	49.891	0.643	49.891	0.765	-40.003
863.058	0.764	-40.09	0.644	49.804	0.644	49.804	0.764	-40.09
865.528	0.763	-40.176	0.645	49.717	0.645	49.717	0.763	-40.176
867.997	0.762	-40.262	0.646	49.631	0.646	49.631	0.762	-40.262
870.466	0.761	-40.348	0.647	49.544	0.647	49.544	0.761	-40.348
872.936	0.76	-40.434	0.649	49.458	0.649	49.458	0.76	-40.434
875.405	0.759	-40.52	0.65	49.372	0.65	49.372	0.759	-40.52
877.875	0.758	-40.605	0.651	49.287	0.651	49.287	0.758	-40.605
880.344	0.757	-40.691	0.652	49.201	0.652	49.201	0.757	-40.691
882.814	0.756	-40.776	0.653	49.115	0.653	49.115	0.756	-40.776
885.283	0.755	-40.861	0.654	49.03	0.654	49.03	0.755	-40.861
887.753	0.754	-40.945	0.655	48.945	0.655	48.945	0.754	-40.945
890.222	0.753	-41.03	0.656	48.86	0.656	48.86	0.753	-41.03
892.691	0.752	-41.114	0.658	48.775	0.658	48.775	0.752	-41.114
895.161	0.751	-41.199	0.659	48.691	0.659	48.691	0.751	-41.199
897.63	0.75	-41.283	0.66	48.606	0.66	48.606	0.75	-41.283
900.1	0.749	-41.367	0.661	48.522	0.661	48.522	0.749	-41.367
