! AVX Thin Film Operation		Date: April 2012 
! Description: Accu-P® Series, Thin Film, SMD, RF Capacitor
! Part Number: 08053J240FBTTR					
!	100	MHz	-	10.05	GHz			
!	Serial	Measurements						
!								
#	MHZ	S	MA	R	50			
!	S11	S21	S12	S22				
!	dB	Phase	dB	Phase	dB	Phase	dB	Phase
100	0.55	-56.577	0.835	33.345	0.835	33.345	0.55	-56.577
102.469	0.54	-57.222	0.841	32.697	0.841	32.697	0.54	-57.222
104.939	0.531	-57.847	0.847	32.071	0.847	32.071	0.531	-57.847
107.408	0.522	-58.45	0.852	31.465	0.852	31.465	0.522	-58.45
109.878	0.513	-59.035	0.857	30.879	0.857	30.879	0.513	-59.035
112.347	0.505	-59.6	0.863	30.312	0.863	30.312	0.505	-59.6
114.817	0.496	-60.148	0.867	29.762	0.867	29.762	0.496	-60.148
117.286	0.488	-60.678	0.872	29.23	0.872	29.23	0.488	-60.678
119.756	0.48	-61.192	0.876	28.714	0.876	28.714	0.48	-61.192
122.225	0.473	-61.69	0.88	28.214	0.88	28.214	0.473	-61.69
124.694	0.465	-62.172	0.884	27.73	0.884	27.73	0.465	-62.172
127.164	0.458	-62.641	0.888	27.259	0.888	27.259	0.458	-62.641
129.633	0.451	-63.095	0.892	26.803	0.892	26.803	0.451	-63.095
132.103	0.444	-63.536	0.895	26.36	0.895	26.36	0.444	-63.536
134.572	0.437	-63.964	0.899	25.93	0.899	25.93	0.437	-63.964
137.042	0.431	-64.38	0.902	25.512	0.902	25.512	0.431	-64.38
139.511	0.424	-64.784	0.905	25.106	0.905	25.106	0.424	-64.784
141.981	0.418	-65.176	0.908	24.712	0.908	24.712	0.418	-65.176
144.45	0.412	-65.558	0.91	24.328	0.91	24.328	0.412	-65.558
146.919	0.406	-65.929	0.913	23.955	0.913	23.955	0.406	-65.929
149.389	0.4	-66.29	0.916	23.592	0.916	23.592	0.4	-66.29
151.858	0.395	-66.642	0.918	23.238	0.918	23.238	0.395	-66.642
154.328	0.389	-66.984	0.92	22.894	0.92	22.894	0.389	-66.984
156.797	0.384	-67.317	0.923	22.559	0.923	22.559	0.384	-67.317
159.267	0.378	-67.641	0.925	22.233	0.925	22.233	0.378	-67.641
161.736	0.373	-67.957	0.927	21.915	0.927	21.915	0.373	-67.957
164.206	0.368	-68.265	0.929	21.605	0.929	21.605	0.368	-68.265
166.675	0.363	-68.565	0.931	21.303	0.931	21.303	0.363	-68.565
169.144	0.358	-68.858	0.933	21.008	0.933	21.008	0.358	-68.858
171.614	0.354	-69.144	0.934	20.72	0.934	20.72	0.354	-69.144
174.083	0.349	-69.422	0.936	20.439	0.936	20.439	0.349	-69.422
176.553	0.345	-69.694	0.938	20.166	0.938	20.166	0.345	-69.694
179.022	0.34	-69.96	0.939	19.898	0.939	19.898	0.34	-69.96
181.492	0.336	-70.219	0.941	19.637	0.941	19.637	0.336	-70.219
183.961	0.332	-70.472	0.942	19.382	0.942	19.382	0.332	-70.472
186.431	0.328	-70.719	0.944	19.132	0.944	19.132	0.328	-70.719
188.9	0.324	-70.961	0.945	18.889	0.945	18.889	0.324	-70.961
191.369	0.32	-71.197	0.947	18.65	0.947	18.65	0.32	-71.197
193.839	0.316	-71.428	0.948	18.417	0.948	18.417	0.316	-71.428
196.308	0.312	-71.654	0.949	18.19	0.949	18.19	0.312	-71.654
198.778	0.308	-71.874	0.95	17.967	0.95	17.967	0.308	-71.874
201.247	0.305	-72.09	0.952	17.749	0.952	17.749	0.305	-72.09
203.717	0.301	-72.302	0.953	17.535	0.953	17.535	0.301	-72.302
206.186	0.298	-72.509	0.954	17.326	0.954	17.326	0.298	-72.509
208.656	0.294	-72.711	0.955	17.121	0.955	17.121	0.294	-72.711
211.125	0.291	-72.91	0.956	16.921	0.956	16.921	0.291	-72.91
213.594	0.288	-73.104	0.957	16.725	0.957	16.725	0.288	-73.104
216.064	0.285	-73.294	0.958	16.532	0.958	16.532	0.285	-73.294
218.533	0.281	-73.481	0.959	16.344	0.959	16.344	0.281	-73.481
221.003	0.278	-73.663	0.96	16.159	0.96	16.159	0.278	-73.663
223.472	0.275	-73.842	0.961	15.978	0.961	15.978	0.275	-73.842
225.942	0.272	-74.018	0.961	15.8	0.961	15.8	0.272	-74.018
228.411	0.269	-74.19	0.962	15.626	0.962	15.626	0.269	-74.19
230.881	0.266	-74.359	0.963	15.455	0.963	15.455	0.266	-74.359
233.35	0.264	-74.525	0.964	15.287	0.964	15.287	0.264	-74.525
235.819	0.261	-74.687	0.965	15.122	0.965	15.122	0.261	-74.687
238.289	0.258	-74.846	0.965	14.961	0.965	14.961	0.258	-74.846
240.758	0.255	-75.003	0.966	14.802	0.966	14.802	0.255	-75.003
243.228	0.253	-75.156	0.967	14.646	0.967	14.646	0.253	-75.156
245.697	0.25	-75.307	0.967	14.493	0.967	14.493	0.25	-75.307
248.167	0.248	-75.455	0.968	14.343	0.968	14.343	0.248	-75.455
250.636	0.245	-75.601	0.969	14.196	0.969	14.196	0.245	-75.601
253.106	0.243	-75.744	0.969	14.051	0.969	14.051	0.243	-75.744
255.575	0.24	-75.884	0.97	13.908	0.97	13.908	0.24	-75.884
258.044	0.238	-76.022	0.97	13.768	0.97	13.768	0.238	-76.022
260.514	0.236	-76.157	0.971	13.63	0.971	13.63	0.236	-76.157
262.983	0.233	-76.29	0.972	13.495	0.972	13.495	0.233	-76.29
265.453	0.231	-76.421	0.972	13.362	0.972	13.362	0.231	-76.421
267.922	0.229	-76.55	0.973	13.231	0.973	13.231	0.229	-76.55
270.392	0.227	-76.677	0.973	13.102	0.973	13.102	0.227	-76.677
272.861	0.225	-76.801	0.974	12.975	0.974	12.975	0.225	-76.801
275.331	0.222	-76.923	0.974	12.851	0.974	12.851	0.222	-76.923
277.8	0.22	-77.044	0.975	12.728	0.975	12.728	0.22	-77.044
280.269	0.218	-77.162	0.975	12.607	0.975	12.607	0.218	-77.162
282.739	0.216	-77.279	0.975	12.488	0.975	12.488	0.216	-77.279
285.208	0.214	-77.394	0.976	12.371	0.976	12.371	0.214	-77.394
287.678	0.212	-77.507	0.976	12.256	0.976	12.256	0.212	-77.507
290.147	0.21	-77.618	0.977	12.143	0.977	12.143	0.21	-77.618
292.617	0.208	-77.727	0.977	12.031	0.977	12.031	0.208	-77.727
295.086	0.207	-77.835	0.978	11.921	0.978	11.921	0.207	-77.835
297.556	0.205	-77.941	0.978	11.813	0.978	11.813	0.205	-77.941
300.025	0.203	-78.045	0.978	11.706	0.978	11.706	0.203	-78.045
302.494	0.201	-78.148	0.979	11.601	0.979	11.601	0.201	-78.148
304.964	0.199	-78.25	0.979	11.497	0.979	11.497	0.199	-78.25
307.433	0.198	-78.35	0.979	11.395	0.979	11.395	0.198	-78.35
309.903	0.196	-78.448	0.98	11.294	0.98	11.294	0.196	-78.448
312.372	0.194	-78.545	0.98	11.195	0.98	11.195	0.194	-78.545
314.842	0.192	-78.641	0.98	11.097	0.98	11.097	0.192	-78.641
317.311	0.191	-78.735	0.981	11	0.981	11	0.191	-78.735
319.78	0.189	-78.828	0.981	10.905	0.981	10.905	0.189	-78.828
322.25	0.188	-78.919	0.981	10.811	0.981	10.811	0.188	-78.919
324.719	0.186	-79.01	0.982	10.718	0.982	10.718	0.186	-79.01
327.189	0.184	-79.099	0.982	10.627	0.982	10.627	0.184	-79.099
329.658	0.183	-79.186	0.982	10.537	0.982	10.537	0.183	-79.186
332.128	0.181	-79.273	0.983	10.448	0.983	10.448	0.181	-79.273
334.597	0.18	-79.358	0.983	10.36	0.983	10.36	0.18	-79.358
337.067	0.178	-79.443	0.983	10.273	0.983	10.273	0.178	-79.443
339.536	0.177	-79.526	0.983	10.187	0.983	10.187	0.177	-79.526
342.005	0.175	-79.608	0.984	10.103	0.984	10.103	0.175	-79.608
344.475	0.174	-79.689	0.984	10.02	0.984	10.02	0.174	-79.689
346.944	0.173	-79.769	0.984	9.937	0.984	9.937	0.173	-79.769
349.414	0.171	-79.847	0.984	9.856	0.984	9.856	0.171	-79.847
351.883	0.17	-79.925	0.985	9.776	0.985	9.776	0.17	-79.925
354.353	0.168	-80.002	0.985	9.696	0.985	9.696	0.168	-80.002
356.822	0.167	-80.078	0.985	9.618	0.985	9.618	0.167	-80.078
359.292	0.166	-80.153	0.985	9.541	0.985	9.541	0.166	-80.153
361.761	0.164	-80.226	0.986	9.464	0.986	9.464	0.164	-80.226
364.23	0.163	-80.299	0.986	9.389	0.986	9.389	0.163	-80.299
366.7	0.162	-80.371	0.986	9.314	0.986	9.314	0.162	-80.371
369.169	0.161	-80.443	0.986	9.241	0.986	9.241	0.161	-80.443
371.639	0.159	-80.513	0.986	9.168	0.986	9.168	0.159	-80.513
374.108	0.158	-80.582	0.987	9.096	0.987	9.096	0.158	-80.582
376.578	0.157	-80.651	0.987	9.025	0.987	9.025	0.157	-80.651
379.047	0.156	-80.719	0.987	8.954	0.987	8.954	0.156	-80.719
381.517	0.154	-80.786	0.987	8.885	0.987	8.885	0.154	-80.786
383.986	0.153	-80.852	0.987	8.816	0.987	8.816	0.153	-80.852
386.455	0.152	-80.917	0.987	8.748	0.987	8.748	0.152	-80.917
388.925	0.151	-80.982	0.988	8.681	0.988	8.681	0.151	-80.982
391.394	0.15	-81.046	0.988	8.614	0.988	8.614	0.15	-81.046
393.864	0.149	-81.109	0.988	8.549	0.988	8.549	0.149	-81.109
396.333	0.148	-81.171	0.988	8.484	0.988	8.484	0.148	-81.171
398.803	0.146	-81.233	0.988	8.419	0.988	8.419	0.146	-81.233
401.272	0.145	-81.294	0.988	8.356	0.988	8.356	0.145	-81.294
403.742	0.144	-81.354	0.989	8.293	0.989	8.293	0.144	-81.354
406.211	0.143	-81.413	0.989	8.23	0.989	8.23	0.143	-81.413
408.68	0.142	-81.472	0.989	8.169	0.989	8.169	0.142	-81.472
411.15	0.141	-81.531	0.989	8.108	0.989	8.108	0.141	-81.531
413.619	0.14	-81.588	0.989	8.047	0.989	8.047	0.14	-81.588
416.089	0.139	-81.645	0.989	7.988	0.989	7.988	0.139	-81.645
418.558	0.138	-81.701	0.99	7.929	0.99	7.929	0.138	-81.701
421.028	0.137	-81.757	0.99	7.87	0.99	7.87	0.137	-81.757
423.497	0.136	-81.812	0.99	7.812	0.99	7.812	0.136	-81.812
425.967	0.135	-81.867	0.99	7.755	0.99	7.755	0.135	-81.867
428.436	0.134	-81.921	0.99	7.698	0.99	7.698	0.134	-81.921
430.905	0.133	-81.974	0.99	7.642	0.99	7.642	0.133	-81.974
433.375	0.132	-82.027	0.99	7.586	0.99	7.586	0.132	-82.027
435.844	0.131	-82.079	0.99	7.531	0.99	7.531	0.131	-82.079
438.314	0.13	-82.131	0.991	7.477	0.991	7.477	0.13	-82.131
440.783	0.129	-82.182	0.991	7.423	0.991	7.423	0.129	-82.182
443.253	0.128	-82.232	0.991	7.369	0.991	7.369	0.128	-82.232
445.722	0.127	-82.283	0.991	7.316	0.991	7.316	0.127	-82.283
448.192	0.126	-82.332	0.991	7.264	0.991	7.264	0.126	-82.332
450.661	0.126	-82.381	0.991	7.212	0.991	7.212	0.126	-82.381
453.13	0.125	-82.43	0.991	7.16	0.991	7.16	0.125	-82.43
455.6	0.124	-82.478	0.991	7.109	0.991	7.109	0.124	-82.478
458.069	0.123	-82.525	0.992	7.059	0.992	7.059	0.123	-82.525
460.539	0.122	-82.572	0.992	7.008	0.992	7.008	0.122	-82.572
463.008	0.121	-82.619	0.992	6.959	0.992	6.959	0.121	-82.619
465.478	0.12	-82.665	0.992	6.91	0.992	6.91	0.12	-82.665
467.947	0.119	-82.711	0.992	6.861	0.992	6.861	0.119	-82.711
470.417	0.119	-82.756	0.992	6.812	0.992	6.812	0.119	-82.756
472.886	0.118	-82.801	0.992	6.765	0.992	6.765	0.118	-82.801
475.355	0.117	-82.845	0.992	6.717	0.992	6.717	0.117	-82.845
477.825	0.116	-82.889	0.992	6.67	0.992	6.67	0.116	-82.889
480.294	0.115	-82.933	0.992	6.623	0.992	6.623	0.115	-82.933
482.764	0.115	-82.976	0.993	6.577	0.993	6.577	0.115	-82.976
485.233	0.114	-83.019	0.993	6.531	0.993	6.531	0.114	-83.019
487.703	0.113	-83.061	0.993	6.486	0.993	6.486	0.113	-83.061
490.172	0.112	-83.103	0.993	6.441	0.993	6.441	0.112	-83.103
492.642	0.111	-83.144	0.993	6.396	0.993	6.396	0.111	-83.144
495.111	0.111	-83.185	0.993	6.352	0.993	6.352	0.111	-83.185
497.58	0.11	-83.226	0.993	6.308	0.993	6.308	0.11	-83.226
500.05	0.109	-83.266	0.993	6.264	0.993	6.264	0.109	-83.266
502.519	0.108	-83.306	0.993	6.221	0.993	6.221	0.108	-83.306
504.989	0.108	-83.346	0.993	6.178	0.993	6.178	0.108	-83.346
507.458	0.107	-83.385	0.993	6.136	0.993	6.136	0.107	-83.385
509.928	0.106	-83.424	0.993	6.094	0.993	6.094	0.106	-83.424
512.397	0.105	-83.462	0.994	6.052	0.994	6.052	0.105	-83.462
514.867	0.105	-83.5	0.994	6.01	0.994	6.01	0.105	-83.5
517.336	0.104	-83.538	0.994	5.969	0.994	5.969	0.104	-83.538
519.805	0.103	-83.576	0.994	5.928	0.994	5.928	0.103	-83.576
522.275	0.103	-83.613	0.994	5.888	0.994	5.888	0.103	-83.613
524.744	0.102	-83.649	0.994	5.847	0.994	5.847	0.102	-83.649
527.214	0.101	-83.686	0.994	5.808	0.994	5.808	0.101	-83.686
529.683	0.101	-83.722	0.994	5.768	0.994	5.768	0.101	-83.722
532.153	0.1	-83.758	0.994	5.729	0.994	5.729	0.1	-83.758
534.622	0.099	-83.793	0.994	5.69	0.994	5.69	0.099	-83.793
537.092	0.098	-83.828	0.994	5.651	0.994	5.651	0.098	-83.828
539.561	0.098	-83.863	0.994	5.613	0.994	5.613	0.098	-83.863
542.03	0.097	-83.898	0.994	5.574	0.994	5.574	0.097	-83.898
544.5	0.096	-83.932	0.994	5.537	0.994	5.537	0.096	-83.932
546.969	0.096	-83.966	0.995	5.499	0.995	5.499	0.096	-83.966
549.439	0.095	-83.999	0.995	5.462	0.995	5.462	0.095	-83.999
551.908	0.095	-84.033	0.995	5.425	0.995	5.425	0.095	-84.033
554.378	0.094	-84.066	0.995	5.388	0.995	5.388	0.094	-84.066
556.847	0.093	-84.098	0.995	5.352	0.995	5.352	0.093	-84.098
559.317	0.093	-84.131	0.995	5.315	0.995	5.315	0.093	-84.131
561.786	0.092	-84.163	0.995	5.279	0.995	5.279	0.092	-84.163
564.255	0.091	-84.195	0.995	5.244	0.995	5.244	0.091	-84.195
566.725	0.091	-84.226	0.995	5.208	0.995	5.208	0.091	-84.226
569.194	0.09	-84.258	0.995	5.173	0.995	5.173	0.09	-84.258
571.664	0.09	-84.289	0.995	5.138	0.995	5.138	0.09	-84.289
574.133	0.089	-84.32	0.995	5.103	0.995	5.103	0.089	-84.32
576.603	0.088	-84.35	0.995	5.069	0.995	5.069	0.088	-84.35
579.072	0.088	-84.38	0.995	5.035	0.995	5.035	0.088	-84.38
581.542	0.087	-84.41	0.995	5.001	0.995	5.001	0.087	-84.41
584.011	0.087	-84.44	0.995	4.967	0.995	4.967	0.087	-84.44
586.48	0.086	-84.47	0.995	4.933	0.995	4.933	0.086	-84.47
588.95	0.085	-84.499	0.995	4.9	0.995	4.9	0.085	-84.499
591.419	0.085	-84.528	0.995	4.867	0.995	4.867	0.085	-84.528
593.889	0.084	-84.557	0.996	4.834	0.996	4.834	0.084	-84.557
596.358	0.084	-84.585	0.996	4.801	0.996	4.801	0.084	-84.585
598.828	0.083	-84.613	0.996	4.769	0.996	4.769	0.083	-84.613
601.297	0.083	-84.642	0.996	4.737	0.996	4.737	0.083	-84.642
603.767	0.082	-84.669	0.996	4.705	0.996	4.705	0.082	-84.669
606.236	0.081	-84.697	0.996	4.673	0.996	4.673	0.081	-84.697
608.705	0.081	-84.724	0.996	4.641	0.996	4.641	0.081	-84.724
611.175	0.08	-84.751	0.996	4.61	0.996	4.61	0.08	-84.751
613.644	0.08	-84.778	0.996	4.579	0.996	4.579	0.08	-84.778
616.114	0.079	-84.805	0.996	4.547	0.996	4.547	0.079	-84.805
618.583	0.079	-84.831	0.996	4.517	0.996	4.517	0.079	-84.831
621.053	0.078	-84.857	0.996	4.486	0.996	4.486	0.078	-84.857
623.522	0.078	-84.883	0.996	4.456	0.996	4.456	0.078	-84.883
625.992	0.077	-84.909	0.996	4.425	0.996	4.425	0.077	-84.909
628.461	0.077	-84.934	0.996	4.395	0.996	4.395	0.077	-84.934
630.93	0.076	-84.96	0.996	4.365	0.996	4.365	0.076	-84.96
633.4	0.076	-84.985	0.996	4.336	0.996	4.336	0.076	-84.985
635.869	0.075	-85.01	0.996	4.306	0.996	4.306	0.075	-85.01
638.339	0.075	-85.034	0.996	4.277	0.996	4.277	0.075	-85.034
640.808	0.074	-85.059	0.996	4.248	0.996	4.248	0.074	-85.059
643.278	0.074	-85.083	0.996	4.219	0.996	4.219	0.074	-85.083
645.747	0.073	-85.107	0.996	4.19	0.996	4.19	0.073	-85.107
648.217	0.073	-85.131	0.996	4.161	0.996	4.161	0.073	-85.131
650.686	0.072	-85.154	0.997	4.132	0.997	4.132	0.072	-85.154
653.155	0.072	-85.178	0.997	4.104	0.997	4.104	0.072	-85.178
655.625	0.071	-85.201	0.997	4.076	0.997	4.076	0.071	-85.201
658.094	0.071	-85.224	0.997	4.048	0.997	4.048	0.071	-85.224
660.564	0.07	-85.247	0.997	4.02	0.997	4.02	0.07	-85.247
663.033	0.07	-85.269	0.997	3.992	0.997	3.992	0.07	-85.269
665.503	0.069	-85.292	0.997	3.965	0.997	3.965	0.069	-85.292
667.972	0.069	-85.314	0.997	3.937	0.997	3.937	0.069	-85.314
670.442	0.068	-85.336	0.997	3.91	0.997	3.91	0.068	-85.336
672.911	0.068	-85.358	0.997	3.883	0.997	3.883	0.068	-85.358
675.38	0.067	-85.379	0.997	3.856	0.997	3.856	0.067	-85.379
677.85	0.067	-85.401	0.997	3.829	0.997	3.829	0.067	-85.401
680.319	0.066	-85.422	0.997	3.803	0.997	3.803	0.066	-85.422
682.789	0.066	-85.443	0.997	3.776	0.997	3.776	0.066	-85.443
685.258	0.065	-85.464	0.997	3.75	0.997	3.75	0.065	-85.464
687.728	0.065	-85.485	0.997	3.724	0.997	3.724	0.065	-85.485
690.197	0.064	-85.505	0.997	3.698	0.997	3.698	0.064	-85.505
692.667	0.064	-85.525	0.997	3.672	0.997	3.672	0.064	-85.525
695.136	0.064	-85.545	0.997	3.646	0.997	3.646	0.064	-85.545
697.605	0.063	-85.565	0.997	3.62	0.997	3.62	0.063	-85.565
700.075	0.063	-85.585	0.997	3.595	0.997	3.595	0.063	-85.585
702.544	0.062	-85.605	0.997	3.569	0.997	3.569	0.062	-85.605
705.014	0.062	-85.624	0.997	3.544	0.997	3.544	0.062	-85.624
707.483	0.061	-85.643	0.997	3.519	0.997	3.519	0.061	-85.643
709.953	0.061	-85.662	0.997	3.494	0.997	3.494	0.061	-85.662
712.422	0.061	-85.681	0.997	3.469	0.997	3.469	0.061	-85.681
714.891	0.06	-85.7	0.997	3.444	0.997	3.444	0.06	-85.7
717.361	0.06	-85.718	0.997	3.42	0.997	3.42	0.06	-85.718
719.83	0.059	-85.736	0.997	3.395	0.997	3.395	0.059	-85.736
722.3	0.059	-85.754	0.997	3.371	0.997	3.371	0.059	-85.754
724.769	0.058	-85.772	0.997	3.347	0.997	3.347	0.058	-85.772
727.239	0.058	-85.79	0.997	3.322	0.997	3.322	0.058	-85.79
729.708	0.058	-85.808	0.997	3.298	0.997	3.298	0.058	-85.808
732.178	0.057	-85.825	0.997	3.275	0.997	3.275	0.057	-85.825
734.647	0.057	-85.842	0.997	3.251	0.997	3.251	0.057	-85.842
737.116	0.056	-85.859	0.998	3.227	0.998	3.227	0.056	-85.859
739.586	0.056	-85.876	0.998	3.204	0.998	3.204	0.056	-85.876
742.055	0.055	-85.893	0.998	3.18	0.998	3.18	0.055	-85.893
744.525	0.055	-85.909	0.998	3.157	0.998	3.157	0.055	-85.909
746.994	0.055	-85.925	0.998	3.134	0.998	3.134	0.055	-85.925
749.464	0.054	-85.941	0.998	3.11	0.998	3.11	0.054	-85.941
751.933	0.054	-85.957	0.998	3.087	0.998	3.087	0.054	-85.957
754.403	0.053	-85.973	0.998	3.065	0.998	3.065	0.053	-85.973
756.872	0.053	-85.989	0.998	3.042	0.998	3.042	0.053	-85.989
759.341	0.053	-86.004	0.998	3.019	0.998	3.019	0.053	-86.004
761.811	0.052	-86.019	0.998	2.997	0.998	2.997	0.052	-86.019
764.28	0.052	-86.034	0.998	2.974	0.998	2.974	0.052	-86.034
766.75	0.052	-86.049	0.998	2.952	0.998	2.952	0.052	-86.049
769.219	0.051	-86.064	0.998	2.929	0.998	2.929	0.051	-86.064
771.689	0.051	-86.078	0.998	2.907	0.998	2.907	0.051	-86.078
774.158	0.05	-86.093	0.998	2.885	0.998	2.885	0.05	-86.093
776.628	0.05	-86.107	0.998	2.863	0.998	2.863	0.05	-86.107
779.097	0.05	-86.121	0.998	2.841	0.998	2.841	0.05	-86.121
781.566	0.049	-86.134	0.998	2.82	0.998	2.82	0.049	-86.134
784.036	0.049	-86.148	0.998	2.798	0.998	2.798	0.049	-86.148
786.505	0.048	-86.161	0.998	2.776	0.998	2.776	0.048	-86.161
788.975	0.048	-86.174	0.998	2.755	0.998	2.755	0.048	-86.174
791.444	0.048	-86.187	0.998	2.733	0.998	2.733	0.048	-86.187
793.914	0.047	-86.2	0.998	2.712	0.998	2.712	0.047	-86.2
796.383	0.047	-86.213	0.998	2.691	0.998	2.691	0.047	-86.213
798.853	0.047	-86.225	0.998	2.67	0.998	2.67	0.047	-86.225
801.322	0.046	-86.238	0.998	2.649	0.998	2.649	0.046	-86.238
803.791	0.046	-86.25	0.998	2.628	0.998	2.628	0.046	-86.25
806.261	0.045	-86.261	0.998	2.607	0.998	2.607	0.045	-86.261
808.73	0.045	-86.273	0.998	2.586	0.998	2.586	0.045	-86.273
811.2	0.045	-86.285	0.998	2.566	0.998	2.566	0.045	-86.285
813.669	0.044	-86.296	0.998	2.545	0.998	2.545	0.044	-86.296
816.139	0.044	-86.307	0.998	2.524	0.998	2.524	0.044	-86.307
818.608	0.044	-86.318	0.998	2.504	0.998	2.504	0.044	-86.318
821.078	0.043	-86.329	0.998	2.484	0.998	2.484	0.043	-86.329
823.547	0.043	-86.339	0.998	2.463	0.998	2.463	0.043	-86.339
826.016	0.043	-86.349	0.998	2.443	0.998	2.443	0.043	-86.349
828.486	0.042	-86.359	0.998	2.423	0.998	2.423	0.042	-86.359
830.955	0.042	-86.369	0.998	2.403	0.998	2.403	0.042	-86.369
833.425	0.042	-86.379	0.998	2.383	0.998	2.383	0.042	-86.379
835.894	0.041	-86.388	0.998	2.363	0.998	2.363	0.041	-86.388
838.364	0.041	-86.398	0.998	2.344	0.998	2.344	0.041	-86.398
840.833	0.041	-86.407	0.998	2.324	0.998	2.324	0.041	-86.407
843.303	0.04	-86.415	0.998	2.304	0.998	2.304	0.04	-86.415
845.772	0.04	-86.424	0.998	2.285	0.998	2.285	0.04	-86.424
848.241	0.04	-86.432	0.998	2.265	0.998	2.265	0.04	-86.432
850.711	0.039	-86.44	0.998	2.246	0.998	2.246	0.039	-86.44
853.18	0.039	-86.448	0.998	2.227	0.998	2.227	0.039	-86.448
855.65	0.039	-86.456	0.998	2.207	0.998	2.207	0.039	-86.456
858.119	0.038	-86.464	0.998	2.188	0.998	2.188	0.038	-86.464
860.589	0.038	-86.471	0.998	2.169	0.998	2.169	0.038	-86.471
863.058	0.038	-86.478	0.998	2.15	0.998	2.15	0.038	-86.478
865.528	0.037	-86.484	0.998	2.131	0.998	2.131	0.037	-86.484
867.997	0.037	-86.491	0.998	2.112	0.998	2.112	0.037	-86.491
870.466	0.037	-86.497	0.998	2.093	0.998	2.093	0.037	-86.497
872.936	0.036	-86.503	0.998	2.075	0.998	2.075	0.036	-86.503
875.405	0.036	-86.509	0.998	2.056	0.998	2.056	0.036	-86.509
877.875	0.036	-86.514	0.998	2.037	0.998	2.037	0.036	-86.514
880.344	0.035	-86.52	0.998	2.019	0.998	2.019	0.035	-86.52
882.814	0.035	-86.525	0.998	2	0.998	2	0.035	-86.525
885.283	0.035	-86.529	0.999	1.982	0.999	1.982	0.035	-86.529
887.753	0.034	-86.534	0.999	1.964	0.999	1.964	0.034	-86.534
890.222	0.034	-86.538	0.999	1.945	0.999	1.945	0.034	-86.538
892.691	0.034	-86.542	0.999	1.927	0.999	1.927	0.034	-86.542
895.161	0.033	-86.545	0.999	1.909	0.999	1.909	0.033	-86.545
897.63	0.033	-86.549	0.999	1.891	0.999	1.891	0.033	-86.549
900.1	0.033	-86.552	0.999	1.873	0.999	1.873	0.033	-86.552
902.569	0.032	-86.554	0.999	1.855	0.999	1.855	0.032	-86.554
905.039	0.032	-86.557	0.999	1.837	0.999	1.837	0.032	-86.557
907.508	0.032	-86.559	0.999	1.819	0.999	1.819	0.032	-86.559
909.978	0.031	-86.561	0.999	1.802	0.999	1.802	0.031	-86.561
912.447	0.031	-86.562	0.999	1.784	0.999	1.784	0.031	-86.562
