! AVX Thin Film Operation		Date: April 2012 
! Description: Accu-P® Series, Thin Film, SMD, RF Capacitor
! Part Number: 08051J2R1QBTTR					
!	100	MHz	-	20.05	GHz			
!	Serial	Measurements						
!								
#	MHZ	S	MA	R	50			
!	S11	S21	S12	S22				
!	dB	Phase	dB	Phase	dB	Phase	dB	Phase
50 0.998 -3.775 0.066 86.153 0.066 86.153 0.998 -3.775
100 0.991 -7.52 0.131 82.392 0.131 82.392 0.991 -7.52
150 0.981 -11.207 0.194 78.69 0.194 78.69 0.981 -11.207
200 0.966 -14.811 0.256 75.07 0.256 75.07 0.966 -14.811
250 0.949 -18.31 0.314 71.555 0.314 71.555 0.949 -18.31
300 0.928 -21.686 0.37 68.163 0.37 68.163 0.928 -21.686
350 0.906 -24.927 0.421 64.906 0.421 64.906 0.906 -24.927
400 0.881 -28.024 0.47 61.794 0.47 61.794 0.881 -28.024
450 0.856 -30.97 0.515 58.831 0.515 58.831 0.856 -30.97
500 0.829 -33.765 0.556 56.02 0.556 56.02 0.829 -33.765
550 0.802 -36.41 0.594 53.358 0.594 53.358 0.802 -36.41
600 0.775 -38.909 0.628 50.843 0.628 50.843 0.775 -38.909
650 0.749 -41.265 0.66 48.47 0.66 48.47 0.749 -41.265
700 0.722 -43.485 0.688 46.232 0.688 46.232 0.722 -43.485
750 0.696 -45.577 0.714 44.123 0.714 44.123 0.696 -45.577
800 0.671 -47.546 0.738 42.136 0.738 42.136 0.671 -47.546
850 0.646 -49.402 0.759 40.262 0.759 40.262 0.646 -49.402
900 0.622 -51.15 0.779 38.496 0.779 38.496 0.622 -51.15
950 0.599 -52.798 0.797 36.829 0.797 36.829 0.599 -52.798
1000 0.577 -54.353 0.813 35.254 0.813 35.254 0.577 -54.353
1050 0.556 -55.822 0.827 33.766 0.827 33.766 0.556 -55.822
1100 0.535 -57.21 0.841 32.357 0.841 32.357 0.535 -57.21
1150 0.515 -58.524 0.853 31.023 0.853 31.023 0.515 -58.524
1200 0.496 -59.769 0.864 29.758 0.864 29.758 0.496 -59.769
1250 0.478 -60.948 0.874 28.556 0.874 28.556 0.478 -60.948
1300 0.46 -62.069 0.884 27.414 0.884 27.414 0.46 -62.069
1350 0.444 -63.133 0.892 26.327 0.892 26.327 0.444 -63.133
1400 0.427 -64.146 0.9 25.29 0.9 25.29 0.427 -64.146
1450 0.412 -65.111 0.907 24.302 0.907 24.302 0.412 -65.111
1500 0.396 -66.031 0.914 23.357 0.914 23.357 0.396 -66.031
1550 0.382 -66.909 0.92 22.453 0.92 22.453 0.382 -66.909
1600 0.368 -67.747 0.926 21.588 0.926 21.588 0.368 -67.747
1650 0.354 -68.55 0.931 20.758 0.931 20.758 0.354 -68.55
1700 0.341 -69.318 0.936 19.962 0.936 19.962 0.341 -69.318
1750 0.329 -70.053 0.94 19.197 0.94 19.197 0.329 -70.053
1800 0.317 -70.759 0.944 18.461 0.944 18.461 0.317 -70.759
1850 0.305 -71.436 0.948 17.752 0.948 17.752 0.305 -71.436
1900 0.294 -72.086 0.952 17.069 0.952 17.069 0.294 -72.086
1950 0.283 -72.711 0.955 16.409 0.955 16.409 0.283 -72.711
2000 0.272 -73.312 0.958 15.772 0.958 15.772 0.272 -73.312
2050 0.261 -73.89 0.961 15.157 0.961 15.157 0.261 -73.89
2100 0.251 -74.446 0.964 14.561 0.964 14.561 0.251 -74.446
2150 0.242 -74.982 0.966 13.984 0.966 13.984 0.242 -74.982
2200 0.232 -75.498 0.968 13.425 0.968 13.425 0.232 -75.498
2250 0.223 -75.995 0.97 12.882 0.97 12.882 0.223 -75.995
2300 0.214 -76.473 0.972 12.355 0.972 12.355 0.214 -76.473
2350 0.205 -76.935 0.974 11.843 0.974 11.843 0.205 -76.935
2400 0.197 -77.379 0.976 11.345 0.976 11.345 0.197 -77.379
2450 0.188 -77.806 0.978 10.86 0.978 10.86 0.188 -77.806
2500 0.18 -78.217 0.979 10.388 0.979 10.388 0.18 -78.217
2550 0.172 -78.612 0.981 9.928 0.981 9.928 0.172 -78.612
2600 0.165 -78.992 0.982 9.479 0.982 9.479 0.165 -78.992
2650 0.157 -79.355 0.983 9.042 0.983 9.042 0.157 -79.355
2700 0.15 -79.703 0.984 8.614 0.984 8.614 0.15 -79.703
2750 0.143 -80.035 0.985 8.196 0.985 8.196 0.143 -80.035
2800 0.136 -80.35 0.986 7.788 0.986 7.788 0.136 -80.35
2850 0.129 -80.649 0.987 7.388 0.987 7.388 0.129 -80.649
2900 0.122 -80.931 0.988 6.997 0.988 6.997 0.122 -80.931
2950 0.115 -81.194 0.989 6.614 0.989 6.614 0.115 -81.194
3000 0.109 -81.437 0.99 6.239 0.99 6.239 0.109 -81.437
3050 0.102 -81.659 0.99 5.871 0.99 5.871 0.102 -81.659
3100 0.096 -81.858 0.991 5.511 0.991 5.511 0.096 -81.858
3150 0.09 -82.032 0.992 5.157 0.992 5.157 0.09 -82.032
3200 0.084 -82.176 0.992 4.809 0.992 4.809 0.084 -82.176
3250 0.078 -82.288 0.993 4.468 0.993 4.468 0.078 -82.288
3300 0.072 -82.36 0.993 4.132 0.993 4.132 0.072 -82.36
3350 0.066 -82.387 0.993 3.803 0.993 3.803 0.066 -82.387
3400 0.061 -82.357 0.994 3.478 0.994 3.478 0.061 -82.357
3450 0.055 -82.257 0.994 3.159 0.994 3.159 0.055 -82.257
3500 0.05 -82.068 0.994 2.845 0.994 2.845 0.05 -82.068
3550 0.044 -81.76 0.995 2.536 0.995 2.536 0.044 -81.76
3600 0.039 -81.293 0.995 2.232 0.995 2.232 0.039 -81.293
3650 0.034 -80.599 0.995 1.932 0.995 1.932 0.034 -80.599
3700 0.029 -79.565 0.995 1.637 0.995 1.637 0.029 -79.565
3750 0.024 -77.99 0.995 1.345 0.995 1.345 0.024 -77.99
3800 0.019 -75.475 0.995 1.058 0.995 1.058 0.019 -75.475
3850 0.014 -71.111 0.995 0.774 0.995 0.774 0.014 -71.111
3900 9.7e-3 -62.389 0.996 0.495 0.996 0.495 9.7e-3 -62.389
3950 5.84e-3 -40.575 0.996 0.219 0.996 0.219 5.84e-3 -40.575
4000 4.521e-3 11.973 0.996 -0.054 0.996 -0.054 4.521e-3 11.973
4050 7.167e-3 51.585 0.996 -0.323 0.996 -0.323 7.167e-3 51.585
4100 0.011 66.143 0.996 -0.589 0.996 -0.589 0.011 66.143
4150 0.016 72.587 0.995 -0.852 0.995 -0.852 0.016 72.587
4200 0.02 76.051 0.995 -1.112 0.995 -1.112 0.02 76.051
4250 0.024 78.143 0.995 -1.368 0.995 -1.368 0.024 78.143
4300 0.029 79.503 0.995 -1.622 0.995 -1.622 0.029 79.503
4350 0.033 80.426 0.995 -1.873 0.995 -1.873 0.033 80.426
4400 0.037 81.07 0.995 -2.122 0.995 -2.122 0.037 81.07
4450 0.042 81.525 0.995 -2.368 0.995 -2.368 0.042 81.525
4500 0.046 81.848 0.995 -2.611 0.995 -2.611 0.046 81.848
4550 0.05 82.072 0.994 -2.852 0.994 -2.852 0.05 82.072
4600 0.054 82.224 0.994 -3.09 0.994 -3.09 0.054 82.224
4650 0.058 82.319 0.994 -3.326 0.994 -3.326 0.058 82.319
4700 0.062 82.37 0.994 -3.56 0.994 -3.56 0.062 82.37
4750 0.066 82.387 0.993 -3.791 0.993 -3.791 0.066 82.387
4800 0.07 82.375 0.993 -4.021 0.993 -4.021 0.07 82.375
4850 0.074 82.34 0.993 -4.248 0.993 -4.248 0.074 82.34
4900 0.078 82.286 0.993 -4.474 0.993 -4.474 0.078 82.286
4950 0.082 82.217 0.992 -4.697 0.992 -4.697 0.082 82.217
5000 0.086 82.134 0.992 -4.919 0.992 -4.919 0.086 82.134
5050 0.09 82.04 0.992 -5.138 0.992 -5.138 0.09 82.04
5100 0.093 81.937 0.991 -5.356 0.991 -5.356 0.093 81.937
5150 0.097 81.826 0.991 -5.572 0.991 -5.572 0.097 81.826
5200 0.101 81.708 0.99 -5.787 0.99 -5.787 0.101 81.708
5250 0.105 81.584 0.99 -5.999 0.99 -5.999 0.105 81.584
5300 0.108 81.455 0.99 -6.211 0.99 -6.211 0.108 81.455
5350 0.112 81.322 0.989 -6.42 0.989 -6.42 0.112 81.322
5400 0.116 81.185 0.989 -6.628 0.989 -6.628 0.116 81.185
5450 0.119 81.044 0.988 -6.834 0.988 -6.834 0.119 81.044
5500 0.123 80.901 0.988 -7.039 0.988 -7.039 0.123 80.901
5550 0.126 80.756 0.988 -7.242 0.988 -7.242 0.126 80.756
5600 0.13 80.608 0.987 -7.444 0.987 -7.444 0.13 80.608
5650 0.133 80.459 0.987 -7.645 0.987 -7.645 0.133 80.459
5700 0.137 80.308 0.986 -7.844 0.986 -7.844 0.137 80.308
5750 0.14 80.155 0.986 -8.042 0.986 -8.042 0.14 80.155
5800 0.143 80.002 0.985 -8.238 0.985 -8.238 0.143 80.002
5850 0.147 79.847 0.985 -8.434 0.985 -8.434 0.147 79.847
5900 0.15 79.692 0.984 -8.628 0.984 -8.628 0.15 79.692
5950 0.153 79.536 0.984 -8.821 0.984 -8.821 0.153 79.536
6000 0.157 79.38 0.983 -9.012 0.983 -9.012 0.157 79.38
6050 0.16 79.223 0.983 -9.203 0.983 -9.203 0.16 79.223
6100 0.163 79.065 0.982 -9.392 0.982 -9.392 0.163 79.065
6150 0.166 78.907 0.982 -9.58 0.982 -9.58 0.166 78.907
6200 0.17 78.749 0.981 -9.767 0.981 -9.767 0.17 78.749
6250 0.173 78.591 0.981 -9.953 0.981 -9.953 0.173 78.591
6300 0.176 78.433 0.98 -10.138 0.98 -10.138 0.176 78.433
6350 0.179 78.275 0.979 -10.321 0.979 -10.321 0.179 78.275
6400 0.182 78.117 0.979 -10.504 0.979 -10.504 0.182 78.117
6450 0.185 77.958 0.978 -10.686 0.978 -10.686 0.185 77.958
6500 0.189 77.8 0.978 -10.867 0.978 -10.867 0.189 77.8
6550 0.192 77.642 0.977 -11.047 0.977 -11.047 0.192 77.642
6600 0.195 77.484 0.976 -11.225 0.976 -11.225 0.195 77.484
6650 0.198 77.327 0.976 -11.403 0.976 -11.403 0.198 77.327
6700 0.201 77.169 0.975 -11.58 0.975 -11.58 0.201 77.169
6750 0.204 77.012 0.975 -11.756 0.975 -11.756 0.204 77.012
6800 0.207 76.855 0.974 -11.931 0.974 -11.931 0.207 76.855
6850 0.21 76.698 0.973 -12.106 0.973 -12.106 0.21 76.698
6900 0.213 76.542 0.973 -12.279 0.973 -12.279 0.213 76.542
6950 0.216 76.386 0.972 -12.452 0.972 -12.452 0.216 76.386
7000 0.219 76.23 0.971 -12.623 0.971 -12.623 0.219 76.23
7050 0.221 76.075 0.971 -12.794 0.971 -12.794 0.221 76.075
7100 0.224 75.92 0.97 -12.964 0.97 -12.964 0.224 75.92
7150 0.227 75.765 0.969 -13.133 0.969 -13.133 0.227 75.765
7200 0.23 75.611 0.969 -13.302 0.969 -13.302 0.23 75.611
7250 0.233 75.457 0.968 -13.469 0.968 -13.469 0.233 75.457
7300 0.236 75.303 0.967 -13.636 0.967 -13.636 0.236 75.303
7350 0.239 75.15 0.967 -13.802 0.967 -13.802 0.239 75.15
7400 0.241 74.997 0.966 -13.968 0.966 -13.968 0.241 74.997
7450 0.244 74.844 0.965 -14.132 0.965 -14.132 0.244 74.844
7500 0.247 74.692 0.965 -14.296 0.965 -14.296 0.247 74.692
7550 0.25 74.541 0.964 -14.459 0.964 -14.459 0.25 74.541
7600 0.252 74.389 0.963 -14.622 0.963 -14.622 0.252 74.389
7650 0.255 74.239 0.963 -14.784 0.963 -14.784 0.255 74.239
7700 0.258 74.088 0.962 -14.945 0.962 -14.945 0.258 74.088
7750 0.261 73.938 0.961 -15.105 0.961 -15.105 0.261 73.938
7800 0.263 73.788 0.96 -15.265 0.96 -15.265 0.263 73.788
7850 0.266 73.639 0.96 -15.424 0.96 -15.424 0.266 73.639
7900 0.269 73.491 0.959 -15.582 0.959 -15.582 0.269 73.491
7950 0.271 73.342 0.958 -15.74 0.958 -15.74 0.271 73.342
8000 0.274 73.194 0.957 -15.897 0.957 -15.897 0.274 73.194
8050 0.277 73.047 0.957 -16.054 0.957 -16.054 0.277 73.047
8100 0.279 72.9 0.956 -16.21 0.956 -16.21 0.279 72.9
8150 0.282 72.753 0.955 -16.365 0.955 -16.365 0.282 72.753
8200 0.284 72.607 0.954 -16.519 0.954 -16.519 0.284 72.607
8250 0.287 72.461 0.954 -16.673 0.954 -16.673 0.287 72.461
8300 0.29 72.316 0.953 -16.827 0.953 -16.827 0.29 72.316
8350 0.292 72.171 0.952 -16.98 0.952 -16.98 0.292 72.171
8400 0.295 72.026 0.951 -17.132 0.951 -17.132 0.295 72.026
8450 0.297 71.882 0.951 -17.283 0.951 -17.283 0.297 71.882
8500 0.3 71.738 0.95 -17.434 0.95 -17.434 0.3 71.738
8550 0.302 71.595 0.949 -17.585 0.949 -17.585 0.302 71.595
8600 0.305 71.452 0.948 -17.735 0.948 -17.735 0.305 71.452
8650 0.307 71.31 0.947 -17.884 0.947 -17.884 0.307 71.31
8700 0.31 71.168 0.947 -18.033 0.947 -18.033 0.31 71.168
8750 0.312 71.026 0.946 -18.181 0.946 -18.181 0.312 71.026
8800 0.315 70.885 0.945 -18.329 0.945 -18.329 0.315 70.885
8850 0.317 70.744 0.944 -18.476 0.944 -18.476 0.317 70.744
8900 0.319 70.604 0.943 -18.623 0.943 -18.623 0.319 70.604
8950 0.322 70.464 0.943 -18.769 0.943 -18.769 0.322 70.464
9000 0.324 70.324 0.942 -18.915 0.942 -18.915 0.324 70.324
9050 0.327 70.185 0.941 -19.06 0.941 -19.06 0.327 70.185
9100 0.329 70.046 0.94 -19.204 0.94 -19.204 0.329 70.046
9150 0.331 69.908 0.939 -19.348 0.939 -19.348 0.331 69.908
9200 0.334 69.77 0.938 -19.492 0.938 -19.492 0.334 69.77
9250 0.336 69.632 0.938 -19.635 0.938 -19.635 0.336 69.632
9300 0.338 69.495 0.937 -19.777 0.937 -19.777 0.338 69.495
9350 0.341 69.359 0.936 -19.919 0.936 -19.919 0.341 69.359
9400 0.343 69.222 0.935 -20.061 0.935 -20.061 0.343 69.222
9450 0.345 69.086 0.934 -20.202 0.934 -20.202 0.345 69.086
9500 0.348 68.951 0.933 -20.343 0.933 -20.343 0.348 68.951
9550 0.35 68.816 0.932 -20.483 0.932 -20.483 0.35 68.816
9600 0.352 68.681 0.932 -20.622 0.932 -20.622 0.352 68.681
9650 0.355 68.546 0.931 -20.762 0.931 -20.762 0.355 68.546
9700 0.357 68.412 0.93 -20.9 0.93 -20.9 0.357 68.412
9750 0.359 68.279 0.929 -21.039 0.929 -21.039 0.359 68.279
9800 0.361 68.146 0.928 -21.176 0.928 -21.176 0.361 68.146
9850 0.364 68.013 0.927 -21.314 0.927 -21.314 0.364 68.013
9900 0.366 67.88 0.926 -21.451 0.926 -21.451 0.366 67.88
9950 0.368 67.748 0.926 -21.587 0.926 -21.587 0.368 67.748
10000 0.37 67.617 0.925 -21.723 0.925 -21.723 0.37 67.617
10050 0.372 67.485 0.924 -21.859 0.924 -21.859 0.372 67.485
10100 0.375 67.354 0.923 -21.994 0.923 -21.994 0.375 67.354
10150 0.377 67.224 0.922 -22.128 0.922 -22.128 0.377 67.224
10200 0.379 67.094 0.921 -22.263 0.921 -22.263 0.379 67.094
10250 0.381 66.964 0.92 -22.396 0.92 -22.396 0.381 66.964
10300 0.383 66.834 0.919 -22.53 0.919 -22.53 0.383 66.834
10350 0.385 66.705 0.919 -22.663 0.919 -22.663 0.385 66.705
10400 0.387 66.577 0.918 -22.795 0.918 -22.795 0.387 66.577
10450 0.39 66.448 0.917 -22.927 0.917 -22.927 0.39 66.448
10500 0.392 66.32 0.916 -23.059 0.916 -23.059 0.392 66.32
10550 0.394 66.193 0.915 -23.19 0.915 -23.19 0.394 66.193
10600 0.396 66.065 0.914 -23.321 0.914 -23.321 0.396 66.065
10650 0.398 65.939 0.913 -23.452 0.913 -23.452 0.398 65.939
10700 0.4 65.812 0.912 -23.582 0.912 -23.582 0.4 65.812
10750 0.402 65.686 0.911 -23.711 0.911 -23.711 0.402 65.686
10800 0.404 65.56 0.91 -23.841 0.91 -23.841 0.404 65.56
10850 0.406 65.435 0.91 -23.969 0.91 -23.969 0.406 65.435
10900 0.408 65.309 0.909 -24.098 0.909 -24.098 0.408 65.309
10950 0.41 65.185 0.908 -24.226 0.908 -24.226 0.41 65.185
11000 0.412 65.06 0.907 -24.353 0.907 -24.353 0.412 65.06
11050 0.414 64.936 0.906 -24.481 0.906 -24.481 0.414 64.936
11100 0.416 64.813 0.905 -24.608 0.905 -24.608 0.416 64.813
11150 0.418 64.689 0.904 -24.734 0.904 -24.734 0.418 64.689
11200 0.42 64.566 0.903 -24.86 0.903 -24.86 0.42 64.566
11250 0.422 64.443 0.902 -24.986 0.902 -24.986 0.422 64.443
11300 0.424 64.321 0.901 -25.111 0.901 -25.111 0.424 64.321
11350 0.426 64.199 0.9 -25.236 0.9 -25.236 0.426 64.199
11400 0.428 64.078 0.899 -25.361 0.899 -25.361 0.428 64.078
11450 0.43 63.956 0.899 -25.485 0.899 -25.485 0.43 63.956
11500 0.432 63.835 0.898 -25.609 0.898 -25.609 0.432 63.835
11550 0.434 63.715 0.897 -25.732 0.897 -25.732 0.434 63.715
11600 0.436 63.594 0.896 -25.855 0.896 -25.855 0.436 63.594
11650 0.438 63.474 0.895 -25.978 0.895 -25.978 0.438 63.474
11700 0.44 63.355 0.894 -26.1 0.894 -26.1 0.44 63.355
11750 0.442 63.235 0.893 -26.222 0.893 -26.222 0.442 63.235
11800 0.444 63.117 0.892 -26.344 0.892 -26.344 0.444 63.117
11850 0.446 62.998 0.891 -26.465 0.891 -26.465 0.446 62.998
11900 0.448 62.88 0.89 -26.586 0.89 -26.586 0.448 62.88
11950 0.449 62.762 0.889 -26.706 0.889 -26.706 0.449 62.762
12000 0.451 62.644 0.888 -26.827 0.888 -26.827 0.451 62.644
12050 0.453 62.527 0.887 -26.946 0.887 -26.946 0.453 62.527
12100 0.455 62.41 0.886 -27.066 0.886 -27.066 0.455 62.41
12150 0.457 62.293 0.885 -27.185 0.885 -27.185 0.457 62.293
12200 0.459 62.177 0.884 -27.304 0.884 -27.304 0.459 62.177
12250 0.461 62.061 0.883 -27.422 0.883 -27.422 0.461 62.061
12300 0.462 61.945 0.883 -27.54 0.883 -27.54 0.462 61.945
12350 0.464 61.83 0.882 -27.658 0.882 -27.658 0.464 61.83
12400 0.466 61.714 0.881 -27.775 0.881 -27.775 0.466 61.714
12450 0.468 61.6 0.88 -27.892 0.88 -27.892 0.468 61.6
12500 0.47 61.485 0.879 -28.009 0.879 -28.009 0.47 61.485
12550 0.471 61.371 0.878 -28.125 0.878 -28.125 0.471 61.371
12600 0.473 61.257 0.877 -28.241 0.877 -28.241 0.473 61.257
12650 0.475 61.144 0.876 -28.357 0.876 -28.357 0.475 61.144
12700 0.477 61.031 0.875 -28.472 0.875 -28.472 0.477 61.031
12750 0.479 60.918 0.874 -28.587 0.874 -28.587 0.479 60.918
12800 0.48 60.805 0.873 -28.702 0.873 -28.702 0.48 60.805
12850 0.482 60.693 0.872 -28.817 0.872 -28.817 0.482 60.693
12900 0.484 60.581 0.871 -28.931 0.871 -28.931 0.484 60.581
12950 0.486 60.469 0.87 -29.044 0.87 -29.044 0.486 60.469
13000 0.487 60.358 0.869 -29.158 0.869 -29.158 0.487 60.358
13050 0.489 60.247 0.868 -29.271 0.868 -29.271 0.489 60.247
13100 0.491 60.136 0.867 -29.383 0.867 -29.383 0.491 60.136
13150 0.492 60.026 0.866 -29.496 0.866 -29.496 0.492 60.026
13200 0.494 59.916 0.865 -29.608 0.865 -29.608 0.494 59.916
13250 0.496 59.806 0.864 -29.72 0.864 -29.72 0.496 59.806
13300 0.497 59.696 0.863 -29.831 0.863 -29.831 0.497 59.696
13350 0.499 59.587 0.862 -29.942 0.862 -29.942 0.499 59.587
13400 0.501 59.478 0.861 -30.053 0.861 -30.053 0.501 59.478
13450 0.502 59.37 0.861 -30.164 0.861 -30.164 0.502 59.37
13500 0.504 59.261 0.86 -30.274 0.86 -30.274 0.504 59.261
13550 0.506 59.153 0.859 -30.384 0.859 -30.384 0.506 59.153
13600 0.507 59.046 0.858 -30.493 0.858 -30.493 0.507 59.046
13650 0.509 58.938 0.857 -30.602 0.857 -30.602 0.509 58.938
13700 0.511 58.831 0.856 -30.711 0.856 -30.711 0.511 58.831
13750 0.512 58.724 0.855 -30.82 0.855 -30.82 0.512 58.724
13800 0.514 58.617 0.854 -30.928 0.854 -30.928 0.514 58.617
13850 0.516 58.511 0.853 -31.036 0.853 -31.036 0.516 58.511
13900 0.517 58.405 0.852 -31.144 0.852 -31.144 0.517 58.405
13950 0.519 58.3 0.851 -31.251 0.851 -31.251 0.519 58.3
14000 0.52 58.194 0.85 -31.359 0.85 -31.359 0.52 58.194
14050 0.522 58.089 0.849 -31.465 0.849 -31.465 0.522 58.089
14100 0.524 57.984 0.848 -31.572 0.848 -31.572 0.524 57.984
14150 0.525 57.88 0.847 -31.678 0.847 -31.678 0.525 57.88
14200 0.527 57.775 0.846 -31.784 0.846 -31.784 0.527 57.775
14250 0.528 57.671 0.845 -31.89 0.845 -31.89 0.528 57.671
14300 0.53 57.568 0.844 -31.995 0.844 -31.995 0.53 57.568
14350 0.531 57.464 0.843 -32.1 0.843 -32.1 0.531 57.464
14400 0.533 57.361 0.842 -32.205 0.842 -32.205 0.533 57.361
14450 0.535 57.258 0.841 -32.309 0.841 -32.309 0.535 57.258
14500 0.536 57.155 0.84 -32.413 0.84 -32.413 0.536 57.155
14550 0.538 57.053 0.839 -32.517 0.839 -32.517 0.538 57.053
14600 0.539 56.951 0.838 -32.621 0.838 -32.621 0.539 56.951
14650 0.541 56.849 0.837 -32.724 0.837 -32.724 0.541 56.849
14700 0.542 56.748 0.836 -32.827 0.836 -32.827 0.542 56.748
14750 0.544 56.647 0.835 -32.93 0.835 -32.93 0.544 56.647
14800 0.545 56.546 0.834 -33.032 0.834 -33.032 0.545 56.546
14850 0.547 56.445 0.833 -33.134 0.833 -33.134 0.547 56.445
14900 0.548 56.345 0.832 -33.236 0.832 -33.236 0.548 56.345
14950 0.55 56.244 0.831 -33.337 0.831 -33.337 0.55 56.244
15000 0.551 56.145 0.83 -33.439 0.83 -33.439 0.551 56.145
15050 0.553 56.045 0.829 -33.54 0.829 -33.54 0.553 56.045
15100 0.554 55.946 0.829 -33.64 0.829 -33.64 0.554 55.946
15150 0.555 55.847 0.828 -33.741 0.828 -33.741 0.555 55.847
15200 0.557 55.748 0.827 -33.841 0.827 -33.841 0.557 55.748
15250 0.558 55.649 0.826 -33.941 0.826 -33.941 0.558 55.649
15300 0.56 55.551 0.825 -34.041 0.825 -34.041 0.56 55.551
15350 0.561 55.453 0.824 -34.14 0.824 -34.14 0.561 55.453
15400 0.563 55.355 0.823 -34.239 0.823 -34.239 0.563 55.355
15450 0.564 55.258 0.822 -34.338 0.822 -34.338 0.564 55.258
15500 0.566 55.161 0.821 -34.436 0.821 -34.436 0.566 55.161
15550 0.567 55.064 0.82 -34.534 0.82 -34.534 0.567 55.064
15600 0.568 54.967 0.819 -34.632 0.819 -34.632 0.568 54.967
15650 0.57 54.871 0.818 -34.73 0.818 -34.73 0.57 54.871
15700 0.571 54.774 0.817 -34.828 0.817 -34.828 0.571 54.774
15750 0.573 54.678 0.816 -34.925 0.816 -34.925 0.573 54.678
15800 0.574 54.583 0.815 -35.022 0.815 -35.022 0.574 54.583
15850 0.575 54.487 0.814 -35.118 0.814 -35.118 0.575 54.487
15900 0.577 54.392 0.813 -35.215 0.813 -35.215 0.577 54.392
15950 0.578 54.297 0.812 -35.311 0.812 -35.311 0.578 54.297
16000 0.579 54.203 0.811 -35.407 0.811 -35.407 0.579 54.203
16050 0.581 54.108 0.81 -35.502 0.81 -35.502 0.581 54.108
16100 0.582 54.014 0.809 -35.597 0.809 -35.597 0.582 54.014
16150 0.583 53.92 0.808 -35.693 0.808 -35.693 0.583 53.92
16200 0.585 53.827 0.807 -35.787 0.807 -35.787 0.585 53.827
16250 0.586 53.733 0.806 -35.882 0.806 -35.882 0.586 53.733
16300 0.587 53.64 0.805 -35.976 0.805 -35.976 0.587 53.64
16350 0.589 53.547 0.804 -36.07 0.804 -36.07 0.589 53.547
16400 0.59 53.455 0.803 -36.164 0.803 -36.164 0.59 53.455
16450 0.591 53.362 0.802 -36.257 0.802 -36.257 0.591 53.362
16500 0.593 53.27 0.801 -36.351 0.801 -36.351 0.593 53.27
16550 0.594 53.178 0.801 -36.444 0.801 -36.444 0.594 53.178
16600 0.595 53.087 0.8 -36.536 0.8 -36.536 0.595 53.087
16650 0.597 52.995 0.799 -36.629 0.799 -36.629 0.597 52.995
16700 0.598 52.904 0.798 -36.721 0.798 -36.721 0.598 52.904
16750 0.599 52.813 0.797 -36.813 0.797 -36.813 0.599 52.813
16800 0.601 52.723 0.796 -36.905 0.796 -36.905 0.601 52.723
16850 0.602 52.632 0.795 -36.996 0.795 -36.996 0.602 52.632
16900 0.603 52.542 0.794 -37.088 0.794 -37.088 0.603 52.542
16950 0.604 52.452 0.793 -37.179 0.793 -37.179 0.604 52.452
