! AVX Thin Film Operation		Date: April 2012 
! Description: Accu-P® Series, Thin Film, SMD, RF Capacitor
! Part Number: 08051J4R2ABTTR					
!	50	MHz	-	20.05	GHz			
!	Serial	Measurements						
!								
#	MHZ	S	MA	R	50			
!	S11	S21	S12	S22				
!	dB	Phase	dB	Phase	dB	Phase	dB	Phase
50 0.991 -7.518 0.131 82.41 0.131 82.41 0.991 -7.518
100 0.966 -14.795 0.255 75.118 0.255 75.118 0.966 -14.795
150 0.929 -21.637 0.369 68.261 0.369 68.261 0.929 -21.637
200 0.883 -27.918 0.468 61.965 0.468 61.965 0.883 -27.918
250 0.832 -33.581 0.553 56.286 0.553 56.286 0.832 -33.581
300 0.78 -38.627 0.624 51.224 0.624 51.224 0.78 -38.627
350 0.728 -43.093 0.683 46.743 0.683 46.743 0.728 -43.093
400 0.679 -47.032 0.732 42.788 0.732 42.788 0.679 -47.032
450 0.633 -50.508 0.772 39.296 0.772 39.296 0.633 -50.508
500 0.591 -53.58 0.805 36.207 0.805 36.207 0.591 -53.58
550 0.551 -56.303 0.832 33.466 0.832 33.466 0.551 -56.303
600 0.515 -58.728 0.855 31.024 0.855 31.024 0.515 -58.728
650 0.482 -60.895 0.874 28.838 0.874 28.838 0.482 -60.895
700 0.452 -62.842 0.89 26.873 0.89 26.873 0.452 -62.842
750 0.424 -64.598 0.903 25.098 0.903 25.098 0.424 -64.598
800 0.399 -66.19 0.915 23.486 0.915 23.486 0.399 -66.19
850 0.375 -67.639 0.925 22.017 0.925 22.017 0.375 -67.639
900 0.353 -68.963 0.933 20.671 0.933 20.671 0.353 -68.963
950 0.333 -70.178 0.941 19.434 0.941 19.434 0.333 -70.178
1000 0.314 -71.297 0.947 18.291 0.947 18.291 0.314 -71.297
1050 0.296 -72.332 0.953 17.233 0.953 17.233 0.296 -72.332
1100 0.28 -73.291 0.958 16.248 0.958 16.248 0.28 -73.291
1150 0.264 -74.183 0.962 15.33 0.962 15.33 0.264 -74.183
1200 0.25 -75.015 0.966 14.47 0.966 14.47 0.25 -75.015
1250 0.236 -75.793 0.969 13.663 0.969 13.663 0.236 -75.793
1300 0.223 -76.522 0.973 12.903 0.973 12.903 0.223 -76.522
1350 0.211 -77.207 0.975 12.185 0.975 12.185 0.211 -77.207
1400 0.199 -77.851 0.978 11.506 0.978 11.506 0.199 -77.851
1450 0.188 -78.458 0.98 10.862 0.98 10.862 0.188 -78.458
1500 0.178 -79.031 0.982 10.249 0.982 10.249 0.178 -79.031
1550 0.168 -79.573 0.984 9.665 0.984 9.665 0.168 -79.573
1600 0.158 -80.084 0.985 9.107 0.985 9.107 0.158 -80.084
1650 0.149 -80.568 0.987 8.574 0.987 8.574 0.149 -80.568
1700 0.14 -81.026 0.988 8.063 0.988 8.063 0.14 -81.026
1750 0.132 -81.459 0.989 7.572 0.989 7.572 0.132 -81.459
1800 0.124 -81.868 0.99 7.1 0.99 7.1 0.124 -81.868
1850 0.116 -82.253 0.991 6.645 0.991 6.645 0.116 -82.253
1900 0.108 -82.614 0.992 6.207 0.992 6.207 0.108 -82.614
1950 0.101 -82.953 0.993 5.783 0.993 5.783 0.101 -82.953
2000 0.094 -83.267 0.993 5.373 0.993 5.373 0.094 -83.267
2050 0.087 -83.556 0.994 4.976 0.994 4.976 0.087 -83.556
2100 0.08 -83.819 0.995 4.591 0.995 4.591 0.08 -83.819
2150 0.074 -84.053 0.995 4.217 0.995 4.217 0.074 -84.053
2200 0.067 -84.254 0.996 3.854 0.996 3.854 0.067 -84.254
2250 0.061 -84.417 0.996 3.501 0.996 3.501 0.061 -84.417
2300 0.055 -84.535 0.996 3.156 0.996 3.156 0.055 -84.535
2350 0.049 -84.598 0.997 2.821 0.997 2.821 0.049 -84.598
2400 0.044 -84.587 0.997 2.493 0.997 2.493 0.044 -84.587
2450 0.038 -84.479 0.997 2.174 0.997 2.174 0.038 -84.479
2500 0.033 -84.232 0.997 1.861 0.997 1.861 0.033 -84.232
2550 0.027 -83.774 0.997 1.555 0.997 1.555 0.027 -83.774
2600 0.022 -82.968 0.998 1.256 0.998 1.256 0.022 -82.968
2650 0.017 -81.521 0.998 0.963 0.998 0.963 0.017 -81.521
2700 0.012 -78.674 0.998 0.676 0.998 0.676 0.012 -78.674
2750 7.219e-3 -71.72 0.998 0.394 0.998 0.394 7.219e-3 -71.72
2800 3.013e-3 -42.499 0.998 0.117 0.998 0.117 3.013e-3 -42.499
2850 3.497e-3 50.496 0.998 -0.155 0.998 -0.155 3.497e-3 50.496
2900 7.693e-3 72.827 0.998 -0.422 0.998 -0.422 7.693e-3 72.827
2950 0.012 78.804 0.998 -0.685 0.998 -0.685 0.012 78.804
3000 0.017 81.385 0.998 -0.943 0.998 -0.943 0.017 81.385
3050 0.021 82.746 0.998 -1.197 0.998 -1.197 0.021 82.746
3100 0.025 83.537 0.997 -1.448 0.997 -1.448 0.025 83.537
3150 0.03 84.017 0.997 -1.695 0.997 -1.695 0.03 84.017
3200 0.034 84.31 0.997 -1.938 0.997 -1.938 0.034 84.31
3250 0.038 84.482 0.997 -2.178 0.997 -2.178 0.038 84.482
3300 0.042 84.571 0.997 -2.415 0.997 -2.415 0.042 84.571
3350 0.046 84.603 0.997 -2.648 0.997 -2.648 0.046 84.603
3400 0.05 84.591 0.997 -2.879 0.997 -2.879 0.05 84.591
3450 0.054 84.548 0.996 -3.107 0.996 -3.107 0.054 84.548
3500 0.058 84.481 0.996 -3.332 0.996 -3.332 0.058 84.481
3550 0.062 84.395 0.996 -3.554 0.996 -3.554 0.062 84.395
3600 0.066 84.294 0.996 -3.774 0.996 -3.774 0.066 84.294
3650 0.07 84.181 0.995 -3.992 0.995 -3.992 0.07 84.181
3700 0.073 84.059 0.995 -4.207 0.995 -4.207 0.073 84.059
3750 0.077 83.929 0.995 -4.42 0.995 -4.42 0.077 83.929
3800 0.081 83.793 0.995 -4.63 0.995 -4.63 0.081 83.793
3850 0.084 83.652 0.994 -4.839 0.994 -4.839 0.084 83.652
3900 0.088 83.507 0.994 -5.046 0.994 -5.046 0.088 83.507
3950 0.092 83.358 0.994 -5.251 0.994 -5.251 0.092 83.358
4000 0.095 83.206 0.993 -5.453 0.993 -5.453 0.095 83.206
4050 0.099 83.053 0.993 -5.654 0.993 -5.654 0.099 83.053
4100 0.102 82.897 0.993 -5.854 0.993 -5.854 0.102 82.897
4150 0.105 82.74 0.992 -6.051 0.992 -6.051 0.105 82.74
4200 0.109 82.581 0.992 -6.247 0.992 -6.247 0.109 82.581
4250 0.112 82.422 0.991 -6.442 0.991 -6.442 0.112 82.422
4300 0.116 82.262 0.991 -6.634 0.991 -6.634 0.116 82.262
4350 0.119 82.101 0.991 -6.826 0.991 -6.826 0.119 82.101
4400 0.122 81.94 0.99 -7.015 0.99 -7.015 0.122 81.94
4450 0.125 81.778 0.99 -7.204 0.99 -7.204 0.125 81.778
4500 0.129 81.617 0.989 -7.391 0.989 -7.391 0.129 81.617
4550 0.132 81.455 0.989 -7.577 0.989 -7.577 0.132 81.455
4600 0.135 81.293 0.989 -7.761 0.989 -7.761 0.135 81.293
4650 0.138 81.131 0.988 -7.944 0.988 -7.944 0.138 81.131
4700 0.141 80.97 0.988 -8.126 0.988 -8.126 0.141 80.97
4750 0.144 80.808 0.987 -8.307 0.987 -8.307 0.144 80.808
4800 0.148 80.647 0.987 -8.487 0.987 -8.487 0.148 80.647
4850 0.151 80.486 0.986 -8.665 0.986 -8.665 0.151 80.486
4900 0.154 80.325 0.986 -8.843 0.986 -8.843 0.154 80.325
4950 0.157 80.165 0.985 -9.019 0.985 -9.019 0.157 80.165
5000 0.16 80.005 0.985 -9.194 0.985 -9.194 0.16 80.005
5050 0.163 79.845 0.984 -9.369 0.984 -9.369 0.163 79.845
5100 0.166 79.686 0.984 -9.542 0.984 -9.542 0.166 79.686
5150 0.169 79.527 0.983 -9.714 0.983 -9.714 0.169 79.527
5200 0.172 79.368 0.983 -9.886 0.983 -9.886 0.172 79.368
5250 0.175 79.21 0.982 -10.056 0.982 -10.056 0.175 79.21
5300 0.178 79.053 0.982 -10.226 0.982 -10.226 0.178 79.053
5350 0.18 78.895 0.981 -10.394 0.981 -10.394 0.18 78.895
5400 0.183 78.739 0.981 -10.562 0.981 -10.562 0.183 78.739
5450 0.186 78.582 0.98 -10.729 0.98 -10.729 0.186 78.582
5500 0.189 78.426 0.98 -10.895 0.98 -10.895 0.189 78.426
5550 0.192 78.271 0.979 -11.061 0.979 -11.061 0.192 78.271
5600 0.195 78.116 0.979 -11.225 0.979 -11.225 0.195 78.116
5650 0.197 77.961 0.978 -11.389 0.978 -11.389 0.197 77.961
5700 0.2 77.807 0.978 -11.552 0.978 -11.552 0.2 77.807
5750 0.203 77.654 0.977 -11.714 0.977 -11.714 0.203 77.654
5800 0.206 77.501 0.976 -11.876 0.976 -11.876 0.206 77.501
5850 0.209 77.348 0.976 -12.036 0.976 -12.036 0.209 77.348
5900 0.211 77.196 0.975 -12.196 0.975 -12.196 0.211 77.196
5950 0.214 77.044 0.975 -12.356 0.975 -12.356 0.214 77.044
6000 0.217 76.893 0.974 -12.514 0.974 -12.514 0.217 76.893
6050 0.219 76.742 0.973 -12.672 0.973 -12.672 0.219 76.742
6100 0.222 76.592 0.973 -12.83 0.973 -12.83 0.222 76.592
6150 0.225 76.442 0.972 -12.986 0.972 -12.986 0.225 76.442
6200 0.227 76.292 0.972 -13.142 0.972 -13.142 0.227 76.292
6250 0.23 76.143 0.971 -13.298 0.971 -13.298 0.23 76.143
6300 0.233 75.995 0.97 -13.453 0.97 -13.453 0.233 75.995
6350 0.235 75.846 0.97 -13.607 0.97 -13.607 0.235 75.846
6400 0.238 75.699 0.969 -13.76 0.969 -13.76 0.238 75.699
6450 0.24 75.552 0.968 -13.913 0.968 -13.913 0.24 75.552
6500 0.243 75.405 0.968 -14.066 0.968 -14.066 0.243 75.405
6550 0.246 75.258 0.967 -14.218 0.967 -14.218 0.246 75.258
6600 0.248 75.112 0.966 -14.369 0.966 -14.369 0.248 75.112
6650 0.251 74.967 0.966 -14.52 0.966 -14.52 0.251 74.967
6700 0.253 74.822 0.965 -14.67 0.965 -14.67 0.253 74.822
6750 0.256 74.677 0.964 -14.819 0.964 -14.819 0.256 74.677
6800 0.258 74.533 0.964 -14.968 0.964 -14.968 0.258 74.533
6850 0.261 74.389 0.963 -15.117 0.963 -15.117 0.261 74.389
6900 0.263 74.246 0.962 -15.265 0.962 -15.265 0.263 74.246
6950 0.266 74.103 0.962 -15.412 0.962 -15.412 0.266 74.103
7000 0.268 73.96 0.961 -15.559 0.961 -15.559 0.268 73.96
7050 0.271 73.818 0.96 -15.706 0.96 -15.706 0.271 73.818
7100 0.273 73.676 0.96 -15.852 0.96 -15.852 0.273 73.676
7150 0.276 73.535 0.959 -15.997 0.959 -15.997 0.276 73.535
7200 0.278 73.394 0.958 -16.143 0.958 -16.143 0.278 73.394
7250 0.28 73.253 0.958 -16.287 0.958 -16.287 0.28 73.253
7300 0.283 73.113 0.957 -16.431 0.957 -16.431 0.283 73.113
7350 0.285 72.973 0.956 -16.575 0.956 -16.575 0.285 72.973
7400 0.288 72.834 0.955 -16.718 0.955 -16.718 0.288 72.834
7450 0.29 72.695 0.955 -16.861 0.955 -16.861 0.29 72.695
7500 0.292 72.556 0.954 -17.003 0.954 -17.003 0.292 72.556
7550 0.295 72.418 0.953 -17.145 0.953 -17.145 0.295 72.418
7600 0.297 72.28 0.953 -17.286 0.953 -17.286 0.297 72.28
7650 0.299 72.142 0.952 -17.427 0.952 -17.427 0.299 72.142
7700 0.302 72.005 0.951 -17.567 0.951 -17.567 0.302 72.005
7750 0.304 71.868 0.95 -17.707 0.95 -17.707 0.304 71.868
7800 0.306 71.732 0.95 -17.847 0.95 -17.847 0.306 71.732
7850 0.309 71.596 0.949 -17.986 0.949 -17.986 0.309 71.596
7900 0.311 71.46 0.948 -18.125 0.948 -18.125 0.311 71.46
7950 0.313 71.325 0.947 -18.263 0.947 -18.263 0.313 71.325
8000 0.316 71.19 0.947 -18.401 0.947 -18.401 0.316 71.19
8050 0.318 71.055 0.946 -18.538 0.946 -18.538 0.318 71.055
8100 0.32 70.921 0.945 -18.675 0.945 -18.675 0.32 70.921
8150 0.322 70.787 0.944 -18.812 0.944 -18.812 0.322 70.787
8200 0.325 70.654 0.944 -18.948 0.944 -18.948 0.325 70.654
8250 0.327 70.521 0.943 -19.084 0.943 -19.084 0.327 70.521
8300 0.329 70.388 0.942 -19.22 0.942 -19.22 0.329 70.388
8350 0.331 70.255 0.941 -19.355 0.941 -19.355 0.331 70.255
8400 0.334 70.123 0.94 -19.49 0.94 -19.49 0.334 70.123
8450 0.336 69.991 0.94 -19.624 0.94 -19.624 0.336 69.991
8500 0.338 69.86 0.939 -19.758 0.939 -19.758 0.338 69.86
8550 0.34 69.729 0.938 -19.891 0.938 -19.891 0.34 69.729
8600 0.342 69.598 0.937 -20.025 0.937 -20.025 0.342 69.598
8650 0.345 69.468 0.936 -20.157 0.936 -20.157 0.345 69.468
8700 0.347 69.337 0.936 -20.29 0.936 -20.29 0.347 69.337
8750 0.349 69.208 0.935 -20.422 0.935 -20.422 0.349 69.208
8800 0.351 69.078 0.934 -20.553 0.934 -20.553 0.351 69.078
8850 0.353 68.949 0.933 -20.685 0.933 -20.685 0.353 68.949
8900 0.355 68.82 0.932 -20.816 0.932 -20.816 0.355 68.82
8950 0.358 68.692 0.932 -20.946 0.932 -20.946 0.358 68.692
9000 0.36 68.564 0.931 -21.077 0.931 -21.077 0.36 68.564
9050 0.362 68.436 0.93 -21.206 0.93 -21.206 0.362 68.436
9100 0.364 68.309 0.929 -21.336 0.929 -21.336 0.364 68.309
9150 0.366 68.182 0.928 -21.465 0.928 -21.465 0.366 68.182
9200 0.368 68.055 0.928 -21.594 0.928 -21.594 0.368 68.055
9250 0.37 67.928 0.927 -21.722 0.927 -21.722 0.37 67.928
9300 0.372 67.802 0.926 -21.851 0.926 -21.851 0.372 67.802
9350 0.374 67.676 0.925 -21.978 0.925 -21.978 0.374 67.676
9400 0.376 67.551 0.924 -22.106 0.924 -22.106 0.376 67.551
9450 0.378 67.426 0.923 -22.233 0.923 -22.233 0.378 67.426
9500 0.38 67.301 0.923 -22.36 0.923 -22.36 0.38 67.301
9550 0.382 67.176 0.922 -22.486 0.922 -22.486 0.382 67.176
9600 0.384 67.052 0.921 -22.612 0.921 -22.612 0.384 67.052
9650 0.387 66.928 0.92 -22.738 0.92 -22.738 0.387 66.928
9700 0.389 66.804 0.919 -22.863 0.919 -22.863 0.389 66.804
9750 0.391 66.681 0.918 -22.988 0.918 -22.988 0.391 66.681
9800 0.393 66.558 0.917 -23.113 0.917 -23.113 0.393 66.558
9850 0.395 66.435 0.917 -23.237 0.917 -23.237 0.395 66.435
9900 0.397 66.313 0.916 -23.361 0.916 -23.361 0.397 66.313
9950 0.399 66.191 0.915 -23.485 0.915 -23.485 0.399 66.191
10000 0.4 66.069 0.914 -23.609 0.914 -23.609 0.4 66.069
10050 0.402 65.947 0.913 -23.732 0.913 -23.732 0.402 65.947
10100 0.404 65.826 0.912 -23.855 0.912 -23.855 0.404 65.826
10150 0.406 65.705 0.911 -23.977 0.911 -23.977 0.406 65.705
10200 0.408 65.584 0.911 -24.099 0.911 -24.099 0.408 65.584
10250 0.41 65.464 0.91 -24.221 0.91 -24.221 0.41 65.464
10300 0.412 65.344 0.909 -24.342 0.909 -24.342 0.412 65.344
10350 0.414 65.224 0.908 -24.464 0.908 -24.464 0.414 65.224
10400 0.416 65.105 0.907 -24.585 0.907 -24.585 0.416 65.105
10450 0.418 64.986 0.906 -24.705 0.906 -24.705 0.418 64.986
10500 0.42 64.867 0.905 -24.825 0.905 -24.825 0.42 64.867
10550 0.422 64.749 0.904 -24.945 0.904 -24.945 0.422 64.749
10600 0.424 64.63 0.904 -25.065 0.904 -25.065 0.424 64.63
10650 0.426 64.512 0.903 -25.184 0.903 -25.184 0.426 64.512
10700 0.427 64.395 0.902 -25.303 0.902 -25.303 0.427 64.395
10750 0.429 64.277 0.901 -25.422 0.901 -25.422 0.429 64.277
10800 0.431 64.16 0.9 -25.54 0.9 -25.54 0.431 64.16
10850 0.433 64.043 0.899 -25.658 0.899 -25.658 0.433 64.043
10900 0.435 63.927 0.898 -25.776 0.898 -25.776 0.435 63.927
10950 0.437 63.811 0.897 -25.894 0.897 -25.894 0.437 63.811
11000 0.439 63.695 0.896 -26.011 0.896 -26.011 0.439 63.695
11050 0.44 63.579 0.896 -26.128 0.896 -26.128 0.44 63.579
11100 0.442 63.464 0.895 -26.245 0.895 -26.245 0.442 63.464
11150 0.444 63.349 0.894 -26.361 0.894 -26.361 0.444 63.349
11200 0.446 63.234 0.893 -26.477 0.893 -26.477 0.446 63.234
11250 0.448 63.119 0.892 -26.593 0.892 -26.593 0.448 63.119
11300 0.449 63.005 0.891 -26.708 0.891 -26.708 0.449 63.005
11350 0.451 62.891 0.89 -26.823 0.89 -26.823 0.451 62.891
11400 0.453 62.778 0.889 -26.938 0.889 -26.938 0.453 62.778
11450 0.455 62.664 0.888 -27.052 0.888 -27.052 0.455 62.664
11500 0.457 62.551 0.887 -27.167 0.887 -27.167 0.457 62.551
11550 0.458 62.438 0.887 -27.281 0.887 -27.281 0.458 62.438
11600 0.46 62.326 0.886 -27.394 0.886 -27.394 0.46 62.326
11650 0.462 62.213 0.885 -27.508 0.885 -27.508 0.462 62.213
11700 0.464 62.101 0.884 -27.621 0.884 -27.621 0.464 62.101
11750 0.465 61.99 0.883 -27.734 0.883 -27.734 0.465 61.99
11800 0.467 61.878 0.882 -27.846 0.882 -27.846 0.467 61.878
11850 0.469 61.767 0.881 -27.958 0.881 -27.958 0.469 61.767
11900 0.471 61.656 0.88 -28.07 0.88 -28.07 0.471 61.656
11950 0.472 61.546 0.879 -28.182 0.879 -28.182 0.472 61.546
12000 0.474 61.435 0.878 -28.293 0.878 -28.293 0.474 61.435
12050 0.476 61.325 0.877 -28.404 0.877 -28.404 0.476 61.325
12100 0.477 61.215 0.876 -28.515 0.876 -28.515 0.477 61.215
12150 0.479 61.106 0.876 -28.626 0.876 -28.626 0.479 61.106
12200 0.481 60.997 0.875 -28.736 0.875 -28.736 0.481 60.997
12250 0.482 60.888 0.874 -28.846 0.874 -28.846 0.482 60.888
12300 0.484 60.779 0.873 -28.956 0.873 -28.956 0.484 60.779
12350 0.486 60.67 0.872 -29.065 0.872 -29.065 0.486 60.67
12400 0.487 60.562 0.871 -29.174 0.871 -29.174 0.487 60.562
12450 0.489 60.454 0.87 -29.283 0.87 -29.283 0.489 60.454
12500 0.491 60.347 0.869 -29.392 0.869 -29.392 0.491 60.347
12550 0.492 60.239 0.868 -29.5 0.868 -29.5 0.492 60.239
12600 0.494 60.132 0.867 -29.608 0.867 -29.608 0.494 60.132
12650 0.496 60.025 0.866 -29.716 0.866 -29.716 0.496 60.025
12700 0.497 59.919 0.865 -29.824 0.865 -29.824 0.497 59.919
12750 0.499 59.812 0.864 -29.931 0.864 -29.931 0.499 59.812
12800 0.501 59.706 0.863 -30.038 0.863 -30.038 0.501 59.706
12850 0.502 59.6 0.863 -30.144 0.863 -30.144 0.502 59.6
12900 0.504 59.495 0.862 -30.251 0.862 -30.251 0.504 59.495
12950 0.505 59.389 0.861 -30.357 0.861 -30.357 0.505 59.389
13000 0.507 59.284 0.86 -30.463 0.86 -30.463 0.507 59.284
13050 0.509 59.18 0.859 -30.569 0.859 -30.569 0.509 59.18
13100 0.51 59.075 0.858 -30.674 0.858 -30.674 0.51 59.075
13150 0.512 58.971 0.857 -30.779 0.857 -30.779 0.512 58.971
13200 0.513 58.867 0.856 -30.884 0.856 -30.884 0.513 58.867
13250 0.515 58.763 0.855 -30.988 0.855 -30.988 0.515 58.763
13300 0.516 58.659 0.854 -31.093 0.854 -31.093 0.516 58.659
13350 0.518 58.556 0.853 -31.197 0.853 -31.197 0.518 58.556
13400 0.52 58.453 0.852 -31.301 0.852 -31.301 0.52 58.453
13450 0.521 58.351 0.851 -31.404 0.851 -31.404 0.521 58.351
13500 0.523 58.248 0.85 -31.507 0.85 -31.507 0.523 58.248
13550 0.524 58.146 0.849 -31.61 0.849 -31.61 0.524 58.146
13600 0.526 58.044 0.848 -31.713 0.848 -31.713 0.526 58.044
13650 0.527 57.942 0.848 -31.816 0.848 -31.816 0.527 57.942
13700 0.529 57.841 0.847 -31.918 0.847 -31.918 0.529 57.841
13750 0.53 57.739 0.846 -32.02 0.846 -32.02 0.53 57.739
13800 0.532 57.638 0.845 -32.121 0.845 -32.121 0.532 57.638
13850 0.533 57.538 0.844 -32.223 0.844 -32.223 0.533 57.538
13900 0.535 57.437 0.843 -32.324 0.843 -32.324 0.535 57.437
13950 0.536 57.337 0.842 -32.425 0.842 -32.425 0.536 57.337
14000 0.538 57.237 0.841 -32.526 0.841 -32.526 0.538 57.237
14050 0.539 57.137 0.84 -32.626 0.84 -32.626 0.539 57.137
14100 0.541 57.038 0.839 -32.726 0.839 -32.726 0.541 57.038
14150 0.542 56.939 0.838 -32.826 0.838 -32.826 0.542 56.939
14200 0.544 56.84 0.837 -32.926 0.837 -32.926 0.544 56.84
14250 0.545 56.741 0.836 -33.025 0.836 -33.025 0.545 56.741
14300 0.546 56.642 0.835 -33.125 0.835 -33.125 0.546 56.642
14350 0.548 56.544 0.834 -33.223 0.834 -33.223 0.548 56.544
14400 0.549 56.446 0.833 -33.322 0.833 -33.322 0.549 56.446
14450 0.551 56.348 0.832 -33.421 0.832 -33.421 0.551 56.348
14500 0.552 56.251 0.831 -33.519 0.831 -33.519 0.552 56.251
14550 0.554 56.154 0.831 -33.617 0.831 -33.617 0.554 56.154
14600 0.555 56.057 0.83 -33.714 0.83 -33.714 0.555 56.057
14650 0.556 55.96 0.829 -33.812 0.829 -33.812 0.556 55.96
14700 0.558 55.863 0.828 -33.909 0.828 -33.909 0.558 55.863
14750 0.559 55.767 0.827 -34.006 0.827 -34.006 0.559 55.767
14800 0.561 55.671 0.826 -34.103 0.826 -34.103 0.561 55.671
14850 0.562 55.575 0.825 -34.199 0.825 -34.199 0.562 55.575
14900 0.563 55.479 0.824 -34.295 0.824 -34.295 0.563 55.479
14950 0.565 55.384 0.823 -34.391 0.823 -34.391 0.565 55.384
15000 0.566 55.289 0.822 -34.487 0.822 -34.487 0.566 55.289
15050 0.568 55.194 0.821 -34.583 0.821 -34.583 0.568 55.194
15100 0.569 55.099 0.82 -34.678 0.82 -34.678 0.569 55.099
15150 0.57 55.005 0.819 -34.773 0.819 -34.773 0.57 55.005
15200 0.572 54.911 0.818 -34.868 0.818 -34.868 0.572 54.911
15250 0.573 54.817 0.817 -34.962 0.817 -34.962 0.573 54.817
15300 0.574 54.723 0.816 -35.056 0.816 -35.056 0.574 54.723
15350 0.576 54.63 0.815 -35.15 0.815 -35.15 0.576 54.63
15400 0.577 54.536 0.814 -35.244 0.814 -35.244 0.577 54.536
15450 0.578 54.443 0.814 -35.338 0.814 -35.338 0.578 54.443
15500 0.58 54.351 0.813 -35.431 0.813 -35.431 0.58 54.351
15550 0.581 54.258 0.812 -35.524 0.812 -35.524 0.581 54.258
15600 0.582 54.166 0.811 -35.617 0.811 -35.617 0.582 54.166
15650 0.584 54.074 0.81 -35.71 0.81 -35.71 0.584 54.074
15700 0.585 53.982 0.809 -35.802 0.809 -35.802 0.585 53.982
15750 0.586 53.89 0.808 -35.894 0.808 -35.894 0.586 53.89
15800 0.588 53.799 0.807 -35.986 0.807 -35.986 0.588 53.799
15850 0.589 53.708 0.806 -36.078 0.806 -36.078 0.589 53.708
15900 0.59 53.617 0.805 -36.17 0.805 -36.17 0.59 53.617
15950 0.591 53.526 0.804 -36.261 0.804 -36.261 0.591 53.526
16000 0.593 53.436 0.803 -36.352 0.803 -36.352 0.593 53.436
16050 0.594 53.345 0.802 -36.443 0.802 -36.443 0.594 53.345
16100 0.595 53.255 0.801 -36.533 0.801 -36.533 0.595 53.255
16150 0.597 53.165 0.8 -36.623 0.8 -36.623 0.597 53.165
16200 0.598 53.076 0.799 -36.714 0.799 -36.714 0.598 53.076
16250 0.599 52.987 0.798 -36.803 0.798 -36.803 0.599 52.987
16300 0.6 52.897 0.798 -36.893 0.798 -36.893 0.6 52.897
16350 0.602 52.808 0.797 -36.983 0.797 -36.983 0.602 52.808
16400 0.603 52.72 0.796 -37.072 0.796 -37.072 0.603 52.72
16450 0.604 52.631 0.795 -37.161 0.795 -37.161 0.604 52.631
16500 0.605 52.543 0.794 -37.249 0.794 -37.249 0.605 52.543
16550 0.607 52.455 0.793 -37.338 0.793 -37.338 0.607 52.455
16600 0.608 52.367 0.792 -37.426 0.792 -37.426 0.608 52.367
16650 0.609 52.28 0.791 -37.514 0.791 -37.514 0.609 52.28
16700 0.61 52.192 0.79 -37.602 0.79 -37.602 0.61 52.192
16750 0.611 52.105 0.789 -37.69 0.789 -37.69 0.611 52.105
16800 0.613 52.018 0.788 -37.777 0.788 -37.777 0.613 52.018
16850 0.614 51.931 0.787 -37.864 0.787 -37.864 0.614 51.931
16900 0.615 51.845 0.786 -37.951 0.786 -37.951 0.615 51.845
