! AVX Thin Film Operation		Date: April 2012 
! Description: Accu-P® Series, Thin Film, SMD, RF Capacitor
! Part Number: 08055J180FBTTR					
!	50	MHz	-	20.05	GHz			
!	Serial	Measurements						
!								
#	MHZ	S	MA	R	50			
!	S11	S21	S12	S22				
!	dB	Phase	dB	Phase	dB	Phase	dB	Phase
50 0.87 -29.497 0.492 60.405 0.492 60.405 0.87 -29.497
100 0.66 -48.592 0.75 41.269 0.75 41.269 0.66 -48.592
150 0.503 -59.65 0.863 30.167 0.863 30.167 0.503 -59.65
200 0.396 -66.417 0.916 23.356 0.916 23.356 0.396 -66.417
250 0.323 -70.887 0.945 18.841 0.945 18.841 0.323 -70.887
300 0.27 -74.037 0.961 15.643 0.961 15.643 0.27 -74.037
350 0.229 -76.371 0.972 13.257 0.972 13.257 0.229 -76.371
400 0.198 -78.171 0.979 11.404 0.979 11.404 0.198 -78.171
450 0.172 -79.601 0.984 9.916 0.984 9.916 0.172 -79.601
500 0.151 -80.765 0.987 8.688 0.987 8.688 0.151 -80.765
550 0.133 -81.73 0.99 7.654 0.99 7.654 0.133 -81.73
600 0.118 -82.542 0.992 6.766 0.992 6.766 0.118 -82.542
650 0.104 -83.232 0.993 5.991 0.993 5.991 0.104 -83.232
700 0.092 -83.821 0.994 5.305 0.994 5.305 0.092 -83.821
750 0.082 -84.323 0.995 4.692 0.995 4.692 0.082 -84.323
800 0.072 -84.749 0.996 4.138 0.996 4.138 0.072 -84.749
850 0.063 -85.103 0.997 3.632 0.997 3.632 0.063 -85.103
900 0.055 -85.386 0.997 3.167 0.997 3.167 0.055 -85.386
950 0.048 -85.591 0.997 2.736 0.997 2.736 0.048 -85.591
1000 0.041 -85.708 0.998 2.334 0.998 2.334 0.041 -85.708
1050 0.034 -85.711 0.998 1.957 0.998 1.957 0.034 -85.711
1100 0.028 -85.553 0.998 1.603 0.998 1.603 0.028 -85.553
1150 0.022 -85.139 0.998 1.267 0.998 1.267 0.022 -85.139
1200 0.017 -84.254 0.998 0.947 0.998 0.947 0.017 -84.254
1250 0.011 -82.305 0.999 0.643 0.999 0.643 0.011 -82.305
1300 6.276e-3 -76.881 0.999 0.351 0.999 0.351 6.276e-3 -76.881
1350 1.853e-3 -41.464 0.999 0.07 0.999 0.07 1.853e-3 -41.464
1400 3.75e-3 68.092 0.999 -0.2 0.999 -0.2 3.75e-3 68.092
1450 8.154e-3 79.745 0.999 -0.46 0.999 -0.46 8.154e-3 79.745
1500 0.013 82.924 0.999 -0.713 0.999 -0.713 0.013 82.924
1550 0.017 84.296 0.998 -0.958 0.998 -0.958 0.017 84.296
1600 0.021 84.998 0.998 -1.196 0.998 -1.196 0.021 84.998
1650 0.025 85.382 0.998 -1.428 0.998 -1.428 0.025 85.382
1700 0.029 85.59 0.998 -1.654 0.998 -1.654 0.029 85.59
1750 0.033 85.692 0.998 -1.875 0.998 -1.875 0.033 85.692
1800 0.037 85.726 0.998 -2.091 0.998 -2.091 0.037 85.726
1850 0.04 85.713 0.998 -2.303 0.998 -2.303 0.04 85.713
1900 0.044 85.668 0.998 -2.511 0.998 -2.511 0.044 85.668
1950 0.047 85.6 0.997 -2.715 0.997 -2.715 0.047 85.6
2000 0.051 85.514 0.997 -2.915 0.997 -2.915 0.051 85.514
2050 0.054 85.415 0.997 -3.113 0.997 -3.113 0.054 85.415
2100 0.058 85.306 0.997 -3.307 0.997 -3.307 0.058 85.306
2150 0.061 85.189 0.997 -3.499 0.997 -3.499 0.061 85.189
2200 0.064 85.066 0.997 -3.687 0.997 -3.687 0.064 85.066
2250 0.068 84.939 0.996 -3.874 0.996 -3.874 0.068 84.939
2300 0.071 84.807 0.996 -4.058 0.996 -4.058 0.071 84.807
2350 0.074 84.673 0.996 -4.24 0.996 -4.24 0.074 84.673
2400 0.077 84.536 0.996 -4.42 0.996 -4.42 0.077 84.536
2450 0.08 84.397 0.995 -4.598 0.995 -4.598 0.08 84.397
2500 0.083 84.257 0.995 -4.775 0.995 -4.775 0.083 84.257
2550 0.086 84.116 0.995 -4.949 0.995 -4.949 0.086 84.116
2600 0.089 83.974 0.995 -5.122 0.995 -5.122 0.089 83.974
2650 0.092 83.83 0.994 -5.294 0.994 -5.294 0.092 83.83
2700 0.095 83.687 0.994 -5.464 0.994 -5.464 0.095 83.687
2750 0.098 83.543 0.994 -5.632 0.994 -5.632 0.098 83.543
2800 0.101 83.398 0.993 -5.8 0.993 -5.8 0.101 83.398
2850 0.104 83.254 0.993 -5.966 0.993 -5.966 0.104 83.254
2900 0.107 83.109 0.993 -6.131 0.993 -6.131 0.107 83.109
2950 0.11 82.964 0.993 -6.294 0.993 -6.294 0.11 82.964
3000 0.112 82.819 0.992 -6.457 0.992 -6.457 0.112 82.819
3050 0.115 82.674 0.992 -6.619 0.992 -6.619 0.115 82.674
3100 0.118 82.53 0.992 -6.779 0.992 -6.779 0.118 82.53
3150 0.121 82.385 0.991 -6.939 0.991 -6.939 0.121 82.385
3200 0.124 82.241 0.991 -7.098 0.991 -7.098 0.124 82.241
3250 0.126 82.096 0.991 -7.256 0.991 -7.256 0.126 82.096
3300 0.129 81.952 0.99 -7.413 0.99 -7.413 0.129 81.952
3350 0.132 81.808 0.99 -7.57 0.99 -7.57 0.132 81.808
3400 0.134 81.665 0.989 -7.725 0.989 -7.725 0.134 81.665
3450 0.137 81.521 0.989 -7.88 0.989 -7.88 0.137 81.521
3500 0.14 81.378 0.989 -8.034 0.989 -8.034 0.14 81.378
3550 0.142 81.235 0.988 -8.187 0.988 -8.187 0.142 81.235
3600 0.145 81.092 0.988 -8.34 0.988 -8.34 0.145 81.092
3650 0.148 80.949 0.988 -8.492 0.988 -8.492 0.148 80.949
3700 0.15 80.807 0.987 -8.644 0.987 -8.644 0.15 80.807
3750 0.153 80.665 0.987 -8.795 0.987 -8.795 0.153 80.665
3800 0.155 80.523 0.986 -8.945 0.986 -8.945 0.155 80.523
3850 0.158 80.382 0.986 -9.094 0.986 -9.094 0.158 80.382
3900 0.161 80.241 0.986 -9.244 0.986 -9.244 0.161 80.241
3950 0.163 80.1 0.985 -9.392 0.985 -9.392 0.163 80.1
4000 0.166 79.959 0.985 -9.54 0.985 -9.54 0.166 79.959
4050 0.168 79.818 0.984 -9.688 0.984 -9.688 0.168 79.818
4100 0.171 79.678 0.984 -9.835 0.984 -9.835 0.171 79.678
4150 0.173 79.538 0.983 -9.981 0.983 -9.981 0.173 79.538
4200 0.176 79.399 0.983 -10.127 0.983 -10.127 0.176 79.399
4250 0.178 79.259 0.983 -10.273 0.983 -10.273 0.178 79.259
4300 0.181 79.12 0.982 -10.418 0.982 -10.418 0.181 79.12
4350 0.183 78.981 0.982 -10.563 0.982 -10.563 0.183 78.981
4400 0.186 78.842 0.981 -10.707 0.981 -10.707 0.186 78.842
4450 0.188 78.704 0.981 -10.851 0.981 -10.851 0.188 78.704
4500 0.191 78.566 0.98 -10.994 0.98 -10.994 0.191 78.566
4550 0.193 78.428 0.98 -11.137 0.98 -11.137 0.193 78.428
4600 0.196 78.29 0.979 -11.28 0.979 -11.28 0.196 78.29
4650 0.198 78.153 0.979 -11.422 0.979 -11.422 0.198 78.153
4700 0.2 78.016 0.978 -11.564 0.978 -11.564 0.2 78.016
4750 0.203 77.879 0.978 -11.706 0.978 -11.706 0.203 77.879
4800 0.205 77.742 0.977 -11.847 0.977 -11.847 0.205 77.742
4850 0.208 77.606 0.977 -11.988 0.977 -11.988 0.208 77.606
4900 0.21 77.47 0.976 -12.128 0.976 -12.128 0.21 77.47
4950 0.212 77.334 0.976 -12.268 0.976 -12.268 0.212 77.334
5000 0.215 77.198 0.975 -12.408 0.975 -12.408 0.215 77.198
5050 0.217 77.063 0.975 -12.547 0.975 -12.547 0.217 77.063
5100 0.22 76.928 0.974 -12.686 0.974 -12.686 0.22 76.928
5150 0.222 76.793 0.974 -12.825 0.974 -12.825 0.222 76.793
5200 0.224 76.658 0.973 -12.963 0.973 -12.963 0.224 76.658
5250 0.227 76.524 0.972 -13.101 0.972 -13.101 0.227 76.524
5300 0.229 76.39 0.972 -13.239 0.972 -13.239 0.229 76.39
5350 0.231 76.256 0.971 -13.376 0.971 -13.376 0.231 76.256
5400 0.234 76.122 0.971 -13.513 0.971 -13.513 0.234 76.122
5450 0.236 75.989 0.97 -13.65 0.97 -13.65 0.236 75.989
5500 0.238 75.855 0.97 -13.786 0.97 -13.786 0.238 75.855
5550 0.241 75.722 0.969 -13.922 0.969 -13.922 0.241 75.722
5600 0.243 75.59 0.969 -14.058 0.969 -14.058 0.243 75.59
5650 0.245 75.457 0.968 -14.194 0.968 -14.194 0.245 75.457
5700 0.247 75.325 0.967 -14.329 0.967 -14.329 0.247 75.325
5750 0.25 75.193 0.967 -14.464 0.967 -14.464 0.25 75.193
5800 0.252 75.061 0.966 -14.599 0.966 -14.599 0.252 75.061
5850 0.254 74.929 0.966 -14.733 0.966 -14.733 0.254 74.929
5900 0.257 74.798 0.965 -14.867 0.965 -14.867 0.257 74.798
5950 0.259 74.667 0.964 -15.001 0.964 -15.001 0.259 74.667
6000 0.261 74.536 0.964 -15.134 0.964 -15.134 0.261 74.536
6050 0.263 74.405 0.963 -15.268 0.963 -15.268 0.263 74.405
6100 0.266 74.274 0.963 -15.401 0.963 -15.401 0.266 74.274
6150 0.268 74.144 0.962 -15.533 0.962 -15.533 0.268 74.144
6200 0.27 74.014 0.961 -15.666 0.961 -15.666 0.27 74.014
6250 0.272 73.884 0.961 -15.798 0.961 -15.798 0.272 73.884
6300 0.274 73.755 0.96 -15.93 0.96 -15.93 0.274 73.755
6350 0.277 73.625 0.959 -16.062 0.959 -16.062 0.277 73.625
6400 0.279 73.496 0.959 -16.193 0.959 -16.193 0.279 73.496
6450 0.281 73.367 0.958 -16.324 0.958 -16.324 0.281 73.367
6500 0.283 73.239 0.958 -16.455 0.958 -16.455 0.283 73.239
6550 0.285 73.11 0.957 -16.585 0.957 -16.585 0.285 73.11
6600 0.288 72.982 0.956 -16.716 0.956 -16.716 0.288 72.982
6650 0.29 72.854 0.956 -16.846 0.956 -16.846 0.29 72.854
6700 0.292 72.726 0.955 -16.976 0.955 -16.976 0.292 72.726
6750 0.294 72.599 0.954 -17.105 0.954 -17.105 0.294 72.599
6800 0.296 72.471 0.954 -17.234 0.954 -17.234 0.296 72.471
6850 0.298 72.344 0.953 -17.363 0.953 -17.363 0.298 72.344
6900 0.301 72.217 0.952 -17.492 0.952 -17.492 0.301 72.217
6950 0.303 72.091 0.952 -17.621 0.952 -17.621 0.303 72.091
7000 0.305 71.964 0.951 -17.749 0.951 -17.749 0.305 71.964
7050 0.307 71.838 0.95 -17.877 0.95 -17.877 0.307 71.838
7100 0.309 71.712 0.95 -18.005 0.95 -18.005 0.309 71.712
7150 0.311 71.586 0.949 -18.132 0.949 -18.132 0.311 71.586
7200 0.313 71.461 0.948 -18.26 0.948 -18.26 0.313 71.461
7250 0.315 71.335 0.947 -18.387 0.947 -18.387 0.315 71.335
7300 0.318 71.21 0.947 -18.513 0.947 -18.513 0.318 71.21
7350 0.32 71.085 0.946 -18.64 0.946 -18.64 0.32 71.085
7400 0.322 70.96 0.945 -18.766 0.945 -18.766 0.322 70.96
7450 0.324 70.836 0.945 -18.892 0.945 -18.892 0.324 70.836
7500 0.326 70.712 0.944 -19.018 0.944 -19.018 0.326 70.712
7550 0.328 70.588 0.943 -19.144 0.943 -19.144 0.328 70.588
7600 0.33 70.464 0.942 -19.269 0.942 -19.269 0.33 70.464
7650 0.332 70.34 0.942 -19.394 0.942 -19.394 0.332 70.34
7700 0.334 70.217 0.941 -19.519 0.941 -19.519 0.334 70.217
7750 0.336 70.094 0.94 -19.643 0.94 -19.643 0.336 70.094
7800 0.338 69.971 0.94 -19.768 0.94 -19.768 0.338 69.971
7850 0.34 69.848 0.939 -19.892 0.939 -19.892 0.34 69.848
7900 0.342 69.726 0.938 -20.016 0.938 -20.016 0.342 69.726
7950 0.344 69.604 0.937 -20.139 0.937 -20.139 0.344 69.604
8000 0.346 69.482 0.937 -20.263 0.937 -20.263 0.346 69.482
8050 0.348 69.36 0.936 -20.386 0.936 -20.386 0.348 69.36
8100 0.35 69.238 0.935 -20.509 0.935 -20.509 0.35 69.238
8150 0.352 69.117 0.934 -20.631 0.934 -20.631 0.352 69.117
8200 0.354 68.996 0.934 -20.754 0.934 -20.754 0.354 68.996
8250 0.356 68.875 0.933 -20.876 0.933 -20.876 0.356 68.875
8300 0.358 68.754 0.932 -20.998 0.932 -20.998 0.358 68.754
8350 0.36 68.633 0.931 -21.12 0.931 -21.12 0.36 68.633
8400 0.362 68.513 0.931 -21.241 0.931 -21.241 0.362 68.513
8450 0.364 68.393 0.93 -21.362 0.93 -21.362 0.364 68.393
8500 0.366 68.273 0.929 -21.483 0.929 -21.483 0.366 68.273
8550 0.368 68.154 0.928 -21.604 0.928 -21.604 0.368 68.154
8600 0.37 68.034 0.927 -21.725 0.927 -21.725 0.37 68.034
8650 0.372 67.915 0.927 -21.845 0.927 -21.845 0.372 67.915
8700 0.374 67.796 0.926 -21.965 0.926 -21.965 0.374 67.796
8750 0.376 67.678 0.925 -22.085 0.925 -22.085 0.376 67.678
8800 0.378 67.559 0.924 -22.204 0.924 -22.204 0.378 67.559
8850 0.38 67.441 0.923 -22.324 0.923 -22.324 0.38 67.441
8900 0.382 67.323 0.923 -22.443 0.923 -22.443 0.382 67.323
8950 0.384 67.205 0.922 -22.562 0.922 -22.562 0.384 67.205
9000 0.386 67.087 0.921 -22.68 0.921 -22.68 0.386 67.087
9050 0.387 66.97 0.92 -22.799 0.92 -22.799 0.387 66.97
9100 0.389 66.853 0.92 -22.917 0.92 -22.917 0.389 66.853
9150 0.391 66.736 0.919 -23.035 0.919 -23.035 0.391 66.736
9200 0.393 66.619 0.918 -23.152 0.918 -23.152 0.393 66.619
9250 0.395 66.503 0.917 -23.27 0.917 -23.27 0.395 66.503
9300 0.397 66.387 0.916 -23.387 0.916 -23.387 0.397 66.387
9350 0.399 66.271 0.915 -23.504 0.915 -23.504 0.399 66.271
9400 0.401 66.155 0.915 -23.621 0.915 -23.621 0.401 66.155
9450 0.403 66.039 0.914 -23.737 0.914 -23.737 0.403 66.039
9500 0.404 65.924 0.913 -23.854 0.913 -23.854 0.404 65.924
9550 0.406 65.809 0.912 -23.97 0.912 -23.97 0.406 65.809
9600 0.408 65.694 0.911 -24.085 0.911 -24.085 0.408 65.694
9650 0.41 65.579 0.911 -24.201 0.911 -24.201 0.41 65.579
9700 0.412 65.465 0.91 -24.316 0.91 -24.316 0.412 65.465
9750 0.414 65.35 0.909 -24.432 0.909 -24.432 0.414 65.35
9800 0.415 65.236 0.908 -24.546 0.908 -24.546 0.415 65.236
9850 0.417 65.123 0.907 -24.661 0.907 -24.661 0.417 65.123
9900 0.419 65.009 0.906 -24.776 0.906 -24.776 0.419 65.009
9950 0.421 64.896 0.906 -24.89 0.906 -24.89 0.421 64.896
10000 0.423 64.782 0.905 -25.004 0.905 -25.004 0.423 64.782
10050 0.424 64.67 0.904 -25.117 0.904 -25.117 0.424 64.67
10100 0.426 64.557 0.903 -25.231 0.903 -25.231 0.426 64.557
10150 0.428 64.444 0.902 -25.344 0.902 -25.344 0.428 64.444
10200 0.43 64.332 0.901 -25.457 0.901 -25.457 0.43 64.332
10250 0.432 64.22 0.9 -25.57 0.9 -25.57 0.432 64.22
10300 0.433 64.108 0.9 -25.683 0.9 -25.683 0.433 64.108
10350 0.435 63.997 0.899 -25.795 0.899 -25.795 0.435 63.997
10400 0.437 63.885 0.898 -25.907 0.898 -25.907 0.437 63.885
10450 0.439 63.774 0.897 -26.019 0.897 -26.019 0.439 63.774
10500 0.44 63.663 0.896 -26.13 0.896 -26.13 0.44 63.663
10550 0.442 63.553 0.895 -26.242 0.895 -26.242 0.442 63.553
10600 0.444 63.442 0.894 -26.353 0.894 -26.353 0.444 63.442
10650 0.446 63.332 0.894 -26.464 0.894 -26.464 0.446 63.332
10700 0.447 63.222 0.893 -26.575 0.893 -26.575 0.447 63.222
10750 0.449 63.112 0.892 -26.685 0.892 -26.685 0.449 63.112
10800 0.451 63.003 0.891 -26.795 0.891 -26.795 0.451 63.003
10850 0.453 62.893 0.89 -26.906 0.89 -26.906 0.453 62.893
10900 0.454 62.784 0.889 -27.015 0.889 -27.015 0.454 62.784
10950 0.456 62.675 0.888 -27.125 0.888 -27.125 0.456 62.675
11000 0.458 62.567 0.888 -27.234 0.888 -27.234 0.458 62.567
11050 0.459 62.458 0.887 -27.343 0.887 -27.343 0.459 62.458
11100 0.461 62.35 0.886 -27.452 0.886 -27.452 0.461 62.35
11150 0.463 62.242 0.885 -27.561 0.885 -27.561 0.463 62.242
11200 0.464 62.134 0.884 -27.669 0.884 -27.669 0.464 62.134
11250 0.466 62.027 0.883 -27.777 0.883 -27.777 0.466 62.027
11300 0.468 61.92 0.882 -27.885 0.882 -27.885 0.468 61.92
11350 0.469 61.812 0.881 -27.993 0.881 -27.993 0.469 61.812
11400 0.471 61.706 0.881 -28.101 0.881 -28.101 0.471 61.706
11450 0.473 61.599 0.88 -28.208 0.88 -28.208 0.473 61.599
11500 0.474 61.492 0.879 -28.315 0.879 -28.315 0.474 61.492
11550 0.476 61.386 0.878 -28.422 0.878 -28.422 0.476 61.386
11600 0.478 61.28 0.877 -28.528 0.877 -28.528 0.478 61.28
11650 0.479 61.175 0.876 -28.635 0.876 -28.635 0.479 61.175
11700 0.481 61.069 0.875 -28.741 0.875 -28.741 0.481 61.069
11750 0.482 60.964 0.874 -28.847 0.874 -28.847 0.482 60.964
11800 0.484 60.859 0.873 -28.952 0.873 -28.952 0.484 60.859
11850 0.486 60.754 0.873 -29.058 0.873 -29.058 0.486 60.754
11900 0.487 60.649 0.872 -29.163 0.872 -29.163 0.487 60.649
11950 0.489 60.545 0.871 -29.268 0.871 -29.268 0.489 60.545
12000 0.49 60.44 0.87 -29.373 0.87 -29.373 0.49 60.44
12050 0.492 60.336 0.869 -29.477 0.869 -29.477 0.492 60.336
12100 0.494 60.233 0.868 -29.582 0.868 -29.582 0.494 60.233
12150 0.495 60.129 0.867 -29.686 0.867 -29.686 0.495 60.129
12200 0.497 60.026 0.866 -29.79 0.866 -29.79 0.497 60.026
12250 0.498 59.923 0.865 -29.893 0.865 -29.893 0.498 59.923
12300 0.5 59.82 0.864 -29.997 0.864 -29.997 0.5 59.82
12350 0.502 59.717 0.864 -30.1 0.864 -30.1 0.502 59.717
12400 0.503 59.615 0.863 -30.203 0.863 -30.203 0.503 59.615
12450 0.505 59.513 0.862 -30.306 0.862 -30.306 0.505 59.513
12500 0.506 59.411 0.861 -30.408 0.861 -30.408 0.506 59.411
12550 0.508 59.309 0.86 -30.51 0.86 -30.51 0.508 59.309
12600 0.509 59.207 0.859 -30.612 0.859 -30.612 0.509 59.207
12650 0.511 59.106 0.858 -30.714 0.858 -30.714 0.511 59.106
12700 0.512 59.005 0.857 -30.816 0.857 -30.816 0.512 59.005
12750 0.514 58.904 0.856 -30.917 0.856 -30.917 0.514 58.904
12800 0.515 58.803 0.855 -31.018 0.855 -31.018 0.515 58.803
12850 0.517 58.703 0.854 -31.119 0.854 -31.119 0.517 58.703
12900 0.518 58.603 0.854 -31.22 0.854 -31.22 0.518 58.603
12950 0.52 58.503 0.853 -31.32 0.853 -31.32 0.52 58.503
13000 0.521 58.403 0.852 -31.421 0.852 -31.421 0.521 58.403
13050 0.523 58.303 0.851 -31.521 0.851 -31.521 0.523 58.303
13100 0.524 58.204 0.85 -31.621 0.85 -31.621 0.524 58.204
13150 0.526 58.105 0.849 -31.72 0.849 -31.72 0.526 58.105
13200 0.527 58.006 0.848 -31.82 0.848 -31.82 0.527 58.006
13250 0.529 57.907 0.847 -31.919 0.847 -31.919 0.529 57.907
13300 0.53 57.809 0.846 -32.018 0.846 -32.018 0.53 57.809
13350 0.532 57.71 0.845 -32.116 0.845 -32.116 0.532 57.71
13400 0.533 57.612 0.844 -32.215 0.844 -32.215 0.533 57.612
13450 0.535 57.515 0.844 -32.313 0.844 -32.313 0.535 57.515
13500 0.536 57.417 0.843 -32.411 0.843 -32.411 0.536 57.417
13550 0.537 57.319 0.842 -32.509 0.842 -32.509 0.537 57.319
13600 0.539 57.222 0.841 -32.607 0.841 -32.607 0.539 57.222
13650 0.54 57.125 0.84 -32.704 0.84 -32.704 0.54 57.125
13700 0.542 57.029 0.839 -32.801 0.839 -32.801 0.542 57.029
13750 0.543 56.932 0.838 -32.898 0.838 -32.898 0.543 56.932
13800 0.545 56.836 0.837 -32.995 0.837 -32.995 0.545 56.836
13850 0.546 56.74 0.836 -33.091 0.836 -33.091 0.546 56.74
13900 0.547 56.644 0.835 -33.188 0.835 -33.188 0.547 56.644
13950 0.549 56.548 0.834 -33.284 0.834 -33.284 0.549 56.548
14000 0.55 56.453 0.833 -33.38 0.833 -33.38 0.55 56.453
14050 0.552 56.357 0.833 -33.475 0.833 -33.475 0.552 56.357
14100 0.553 56.262 0.832 -33.571 0.832 -33.571 0.553 56.262
14150 0.554 56.168 0.831 -33.666 0.831 -33.666 0.554 56.168
14200 0.556 56.073 0.83 -33.761 0.83 -33.761 0.556 56.073
14250 0.557 55.979 0.829 -33.856 0.829 -33.856 0.557 55.979
14300 0.558 55.884 0.828 -33.95 0.828 -33.95 0.558 55.884
14350 0.56 55.791 0.827 -34.045 0.827 -34.045 0.56 55.791
14400 0.561 55.697 0.826 -34.139 0.826 -34.139 0.561 55.697
14450 0.563 55.603 0.825 -34.233 0.825 -34.233 0.563 55.603
14500 0.564 55.51 0.824 -34.326 0.824 -34.326 0.564 55.51
14550 0.565 55.417 0.823 -34.42 0.823 -34.42 0.565 55.417
14600 0.567 55.324 0.822 -34.513 0.822 -34.513 0.567 55.324
14650 0.568 55.231 0.821 -34.606 0.821 -34.606 0.568 55.231
14700 0.569 55.139 0.821 -34.699 0.821 -34.699 0.569 55.139
14750 0.571 55.047 0.82 -34.792 0.82 -34.792 0.571 55.047
14800 0.572 54.955 0.819 -34.884 0.819 -34.884 0.572 54.955
14850 0.573 54.863 0.818 -34.976 0.818 -34.976 0.573 54.863
14900 0.575 54.771 0.817 -35.068 0.817 -35.068 0.575 54.771
14950 0.576 54.68 0.816 -35.16 0.816 -35.16 0.576 54.68
15000 0.577 54.588 0.815 -35.251 0.815 -35.251 0.577 54.588
15050 0.578 54.497 0.814 -35.343 0.814 -35.343 0.578 54.497
15100 0.58 54.407 0.813 -35.434 0.813 -35.434 0.58 54.407
15150 0.581 54.316 0.812 -35.525 0.812 -35.525 0.581 54.316
15200 0.582 54.226 0.811 -35.616 0.811 -35.616 0.582 54.226
15250 0.584 54.136 0.81 -35.706 0.81 -35.706 0.584 54.136
15300 0.585 54.046 0.809 -35.796 0.809 -35.796 0.585 54.046
15350 0.586 53.956 0.809 -35.886 0.809 -35.886 0.586 53.956
15400 0.587 53.866 0.808 -35.976 0.808 -35.976 0.587 53.866
15450 0.589 53.777 0.807 -36.066 0.807 -36.066 0.589 53.777
15500 0.59 53.688 0.806 -36.155 0.806 -36.155 0.59 53.688
15550 0.591 53.599 0.805 -36.245 0.805 -36.245 0.591 53.599
15600 0.592 53.51 0.804 -36.334 0.804 -36.334 0.592 53.51
15650 0.594 53.422 0.803 -36.423 0.803 -36.423 0.594 53.422
15700 0.595 53.333 0.802 -36.511 0.802 -36.511 0.595 53.333
15750 0.596 53.245 0.801 -36.6 0.801 -36.6 0.596 53.245
15800 0.597 53.157 0.8 -36.688 0.8 -36.688 0.597 53.157
15850 0.599 53.07 0.799 -36.776 0.799 -36.776 0.599 53.07
15900 0.6 52.982 0.798 -36.864 0.798 -36.864 0.6 52.982
15950 0.601 52.895 0.798 -36.951 0.798 -36.951 0.601 52.895
16000 0.602 52.808 0.797 -37.039 0.797 -37.039 0.602 52.808
16050 0.604 52.721 0.796 -37.126 0.796 -37.126 0.604 52.721
16100 0.605 52.634 0.795 -37.213 0.795 -37.213 0.605 52.634
16150 0.606 52.548 0.794 -37.299 0.794 -37.299 0.606 52.548
16200 0.607 52.462 0.793 -37.386 0.793 -37.386 0.607 52.462
16250 0.608 52.376 0.792 -37.472 0.792 -37.472 0.608 52.376
16300 0.61 52.29 0.791 -37.559 0.791 -37.559 0.61 52.29
16350 0.611 52.204 0.79 -37.645 0.79 -37.645 0.611 52.204
16400 0.612 52.119 0.789 -37.73 0.789 -37.73 0.612 52.119
16450 0.613 52.033 0.788 -37.816 0.788 -37.816 0.613 52.033
16500 0.614 51.948 0.787 -37.901 0.787 -37.901 0.614 51.948
16550 0.615 51.863 0.787 -37.986 0.787 -37.986 0.615 51.863
16600 0.617 51.779 0.786 -38.071 0.786 -38.071 0.617 51.779
16650 0.618 51.694 0.785 -38.156 0.785 -38.156 0.618 51.694
16700 0.619 51.61 0.784 -38.241 0.784 -38.241 0.619 51.61
16750 0.62 51.526 0.783 -38.325 0.783 -38.325 0.62 51.526
16800 0.621 51.442 0.782 -38.409 0.782 -38.409 0.621 51.442
16850 0.622 51.358 0.781 -38.493 0.781 -38.493 0.622 51.358
16900 0.624 51.275 0.78 -38.577 0.78 -38.577 0.624 51.275
16950 0.625 51.192 0.779 -38.66 0.779 -38.66 0.625 51.192
