! AVX Thin Film Operation		Date: April 2012 
! Description: Accu-P® Series, Thin Film, SMD, RF Capacitor
! Part Number: 08051J1R2PBTTR					
!	100	MHz	-	10.05	GHz			
!	Serial	Measurements						
!								
#	MHZ	S	MA	R	50			
!	S11	S21	S12	S22				
!	dB	Phase	dB	Phase	dB	Phase	dB	Phase
100	0.997	-4.313	0.075	85.676	0.075	85.676	0.997	-4.313
102.469	0.997	-4.42	0.077	85.569	0.077	85.569	0.997	-4.42
104.939	0.997	-4.526	0.079	85.463	0.079	85.463	0.997	-4.526
107.408	0.997	-4.632	0.081	85.356	0.081	85.356	0.997	-4.632
109.878	0.997	-4.738	0.083	85.25	0.083	85.25	0.997	-4.738
112.347	0.996	-4.844	0.084	85.144	0.084	85.144	0.996	-4.844
114.817	0.996	-4.95	0.086	85.037	0.086	85.037	0.996	-4.95
117.286	0.996	-5.056	0.088	84.931	0.088	84.931	0.996	-5.056
119.756	0.996	-5.162	0.09	84.825	0.09	84.825	0.996	-5.162
122.225	0.996	-5.268	0.092	84.719	0.092	84.719	0.996	-5.268
124.694	0.996	-5.374	0.094	84.612	0.094	84.612	0.996	-5.374
127.164	0.995	-5.48	0.095	84.506	0.095	84.506	0.995	-5.48
129.633	0.995	-5.586	0.097	84.4	0.097	84.4	0.995	-5.586
132.103	0.995	-5.692	0.099	84.294	0.099	84.294	0.995	-5.692
134.572	0.995	-5.797	0.101	84.188	0.101	84.188	0.995	-5.797
137.042	0.995	-5.903	0.103	84.082	0.103	84.082	0.995	-5.903
139.511	0.994	-6.009	0.105	83.976	0.105	83.976	0.994	-6.009
141.981	0.994	-6.115	0.107	83.87	0.107	83.87	0.994	-6.115
144.45	0.994	-6.22	0.108	83.764	0.108	83.764	0.994	-6.22
146.919	0.994	-6.326	0.11	83.658	0.11	83.658	0.994	-6.326
149.389	0.994	-6.432	0.112	83.552	0.112	83.552	0.994	-6.432
151.858	0.993	-6.537	0.114	83.446	0.114	83.446	0.993	-6.537
154.328	0.993	-6.643	0.116	83.34	0.116	83.34	0.993	-6.643
156.797	0.993	-6.748	0.118	83.235	0.118	83.235	0.993	-6.748
159.267	0.993	-6.854	0.119	83.129	0.119	83.129	0.993	-6.854
161.736	0.993	-6.959	0.121	83.023	0.121	83.023	0.993	-6.959
164.206	0.992	-7.065	0.123	82.918	0.123	82.918	0.992	-7.065
166.675	0.992	-7.17	0.125	82.812	0.125	82.812	0.992	-7.17
169.144	0.992	-7.275	0.127	82.706	0.127	82.706	0.992	-7.275
171.614	0.992	-7.381	0.128	82.601	0.128	82.601	0.992	-7.381
174.083	0.991	-7.486	0.13	82.495	0.13	82.495	0.991	-7.486
176.553	0.991	-7.591	0.132	82.39	0.132	82.39	0.991	-7.591
179.022	0.991	-7.696	0.134	82.284	0.134	82.284	0.991	-7.696
181.492	0.991	-7.801	0.136	82.179	0.136	82.179	0.991	-7.801
183.961	0.99	-7.906	0.138	82.074	0.138	82.074	0.99	-7.906
186.431	0.99	-8.011	0.139	81.968	0.139	81.968	0.99	-8.011
188.9	0.99	-8.116	0.141	81.863	0.141	81.863	0.99	-8.116
191.369	0.99	-8.221	0.143	81.758	0.143	81.758	0.99	-8.221
193.839	0.989	-8.326	0.145	81.653	0.145	81.653	0.989	-8.326
196.308	0.989	-8.431	0.147	81.548	0.147	81.548	0.989	-8.431
198.778	0.989	-8.536	0.148	81.443	0.148	81.443	0.989	-8.536
201.247	0.989	-8.641	0.15	81.338	0.15	81.338	0.989	-8.641
203.717	0.988	-8.745	0.152	81.233	0.152	81.233	0.988	-8.745
206.186	0.988	-8.85	0.154	81.128	0.154	81.128	0.988	-8.85
208.656	0.988	-8.955	0.156	81.023	0.156	81.023	0.988	-8.955
211.125	0.987	-9.059	0.157	80.918	0.157	80.918	0.987	-9.059
213.594	0.987	-9.164	0.159	80.813	0.159	80.813	0.987	-9.164
216.064	0.987	-9.268	0.161	80.708	0.161	80.708	0.987	-9.268
218.533	0.987	-9.373	0.163	80.604	0.163	80.604	0.987	-9.373
221.003	0.986	-9.477	0.165	80.499	0.165	80.499	0.986	-9.477
223.472	0.986	-9.581	0.166	80.395	0.166	80.395	0.986	-9.581
225.942	0.986	-9.686	0.168	80.29	0.168	80.29	0.986	-9.686
228.411	0.985	-9.79	0.17	80.185	0.17	80.185	0.985	-9.79
230.881	0.985	-9.894	0.172	80.081	0.172	80.081	0.985	-9.894
233.35	0.985	-9.998	0.174	79.977	0.174	79.977	0.985	-9.998
235.819	0.984	-10.102	0.175	79.872	0.175	79.872	0.984	-10.102
238.289	0.984	-10.206	0.177	79.768	0.177	79.768	0.984	-10.206
240.758	0.984	-10.31	0.179	79.664	0.179	79.664	0.984	-10.31
243.228	0.983	-10.414	0.181	79.56	0.181	79.56	0.983	-10.414
245.697	0.983	-10.518	0.183	79.456	0.183	79.456	0.983	-10.518
248.167	0.983	-10.622	0.184	79.352	0.184	79.352	0.983	-10.622
250.636	0.982	-10.725	0.186	79.248	0.186	79.248	0.982	-10.725
253.106	0.982	-10.829	0.188	79.144	0.188	79.144	0.982	-10.829
255.575	0.982	-10.933	0.19	79.04	0.19	79.04	0.982	-10.933
258.044	0.981	-11.036	0.191	78.936	0.191	78.936	0.981	-11.036
260.514	0.981	-11.14	0.193	78.832	0.193	78.832	0.981	-11.14
262.983	0.981	-11.243	0.195	78.728	0.195	78.728	0.981	-11.243
265.453	0.98	-11.346	0.197	78.625	0.197	78.625	0.98	-11.346
267.922	0.98	-11.45	0.199	78.521	0.199	78.521	0.98	-11.45
270.392	0.98	-11.553	0.2	78.418	0.2	78.418	0.98	-11.553
272.861	0.979	-11.656	0.202	78.314	0.202	78.314	0.979	-11.656
275.331	0.979	-11.759	0.204	78.211	0.204	78.211	0.979	-11.759
277.8	0.979	-11.862	0.206	78.108	0.206	78.108	0.979	-11.862
280.269	0.978	-11.965	0.207	78.004	0.207	78.004	0.978	-11.965
282.739	0.978	-12.068	0.209	77.901	0.209	77.901	0.978	-12.068
285.208	0.977	-12.171	0.211	77.798	0.211	77.798	0.977	-12.171
287.678	0.977	-12.274	0.213	77.695	0.213	77.695	0.977	-12.274
290.147	0.977	-12.377	0.214	77.592	0.214	77.592	0.977	-12.377
292.617	0.976	-12.479	0.216	77.489	0.216	77.489	0.976	-12.479
295.086	0.976	-12.582	0.218	77.386	0.218	77.386	0.976	-12.582
297.556	0.975	-12.685	0.22	77.283	0.22	77.283	0.975	-12.685
300.025	0.975	-12.787	0.221	77.18	0.221	77.18	0.975	-12.787
302.494	0.975	-12.889	0.223	77.078	0.223	77.078	0.975	-12.889
304.964	0.974	-12.992	0.225	76.975	0.225	76.975	0.974	-12.992
307.433	0.974	-13.094	0.227	76.873	0.227	76.873	0.974	-13.094
309.903	0.973	-13.196	0.228	76.77	0.228	76.77	0.973	-13.196
312.372	0.973	-13.298	0.23	76.668	0.23	76.668	0.973	-13.298
314.842	0.973	-13.401	0.232	76.565	0.232	76.565	0.973	-13.401
317.311	0.972	-13.503	0.233	76.463	0.233	76.463	0.972	-13.503
319.78	0.972	-13.605	0.235	76.361	0.235	76.361	0.972	-13.605
322.25	0.971	-13.706	0.237	76.259	0.237	76.259	0.971	-13.706
324.719	0.971	-13.808	0.239	76.157	0.239	76.157	0.971	-13.808
327.189	0.971	-13.91	0.24	76.055	0.24	76.055	0.971	-13.91
329.658	0.97	-14.012	0.242	75.953	0.242	75.953	0.97	-14.012
332.128	0.97	-14.113	0.244	75.851	0.244	75.851	0.97	-14.113
334.597	0.969	-14.215	0.246	75.749	0.246	75.749	0.969	-14.215
337.067	0.969	-14.316	0.247	75.647	0.247	75.647	0.969	-14.316
339.536	0.968	-14.418	0.249	75.546	0.249	75.546	0.968	-14.418
342.005	0.968	-14.519	0.251	75.444	0.251	75.444	0.968	-14.519
344.475	0.967	-14.62	0.252	75.343	0.252	75.343	0.967	-14.62
346.944	0.967	-14.721	0.254	75.241	0.254	75.241	0.967	-14.721
349.414	0.967	-14.822	0.256	75.14	0.256	75.14	0.967	-14.822
351.883	0.966	-14.923	0.258	75.038	0.258	75.038	0.966	-14.923
354.353	0.966	-15.024	0.259	74.937	0.259	74.937	0.966	-15.024
356.822	0.965	-15.125	0.261	74.836	0.261	74.836	0.965	-15.125
359.292	0.965	-15.226	0.263	74.735	0.263	74.735	0.965	-15.226
361.761	0.964	-15.326	0.264	74.634	0.264	74.634	0.964	-15.326
364.23	0.964	-15.427	0.266	74.533	0.266	74.533	0.964	-15.427
366.7	0.963	-15.528	0.268	74.432	0.268	74.432	0.963	-15.528
369.169	0.963	-15.628	0.269	74.332	0.269	74.332	0.963	-15.628
371.639	0.962	-15.728	0.271	74.231	0.271	74.231	0.962	-15.728
374.108	0.962	-15.829	0.273	74.131	0.273	74.131	0.962	-15.829
376.578	0.961	-15.929	0.274	74.03	0.274	74.03	0.961	-15.929
379.047	0.961	-16.029	0.276	73.93	0.276	73.93	0.961	-16.029
381.517	0.96	-16.129	0.278	73.829	0.278	73.829	0.96	-16.129
383.986	0.96	-16.229	0.279	73.729	0.279	73.729	0.96	-16.229
386.455	0.959	-16.329	0.281	73.629	0.281	73.629	0.959	-16.329
388.925	0.959	-16.429	0.283	73.529	0.283	73.529	0.959	-16.429
391.394	0.958	-16.529	0.284	73.429	0.284	73.429	0.958	-16.529
393.864	0.958	-16.628	0.286	73.329	0.286	73.329	0.958	-16.628
396.333	0.957	-16.728	0.288	73.229	0.288	73.229	0.957	-16.728
398.803	0.957	-16.827	0.289	73.129	0.289	73.129	0.957	-16.827
401.272	0.956	-16.927	0.291	73.03	0.291	73.03	0.956	-16.927
403.742	0.956	-17.026	0.293	72.93	0.293	72.93	0.956	-17.026
406.211	0.955	-17.125	0.294	72.83	0.294	72.83	0.955	-17.125
408.68	0.955	-17.225	0.296	72.731	0.296	72.731	0.955	-17.225
411.15	0.954	-17.324	0.298	72.632	0.298	72.632	0.954	-17.324
413.619	0.954	-17.423	0.299	72.532	0.299	72.532	0.954	-17.423
416.089	0.953	-17.522	0.301	72.433	0.301	72.433	0.953	-17.522
418.558	0.953	-17.62	0.303	72.334	0.303	72.334	0.953	-17.62
421.028	0.952	-17.719	0.304	72.235	0.304	72.235	0.952	-17.719
423.497	0.952	-17.818	0.306	72.136	0.306	72.136	0.952	-17.818
425.967	0.951	-17.916	0.308	72.037	0.308	72.037	0.951	-17.916
428.436	0.951	-18.015	0.309	71.939	0.309	71.939	0.951	-18.015
430.905	0.95	-18.113	0.311	71.84	0.311	71.84	0.95	-18.113
433.375	0.95	-18.211	0.313	71.741	0.313	71.741	0.95	-18.211
435.844	0.949	-18.31	0.314	71.643	0.314	71.643	0.949	-18.31
438.314	0.949	-18.408	0.316	71.544	0.316	71.544	0.949	-18.408
440.783	0.948	-18.506	0.317	71.446	0.317	71.446	0.948	-18.506
443.253	0.947	-18.604	0.319	71.348	0.319	71.348	0.947	-18.604
445.722	0.947	-18.702	0.321	71.25	0.321	71.25	0.947	-18.702
448.192	0.946	-18.799	0.322	71.152	0.322	71.152	0.946	-18.799
450.661	0.946	-18.897	0.324	71.054	0.324	71.054	0.946	-18.897
453.13	0.945	-18.995	0.325	70.956	0.325	70.956	0.945	-18.995
455.6	0.945	-19.092	0.327	70.858	0.327	70.858	0.945	-19.092
458.069	0.944	-19.19	0.329	70.761	0.329	70.761	0.944	-19.19
460.539	0.944	-19.287	0.33	70.663	0.33	70.663	0.944	-19.287
463.008	0.943	-19.384	0.332	70.565	0.332	70.565	0.943	-19.384
465.478	0.942	-19.481	0.333	70.468	0.333	70.468	0.942	-19.481
467.947	0.942	-19.578	0.335	70.371	0.335	70.371	0.942	-19.578
470.417	0.941	-19.675	0.337	70.273	0.337	70.273	0.941	-19.675
472.886	0.941	-19.772	0.338	70.176	0.338	70.176	0.941	-19.772
475.355	0.94	-19.869	0.34	70.079	0.34	70.079	0.94	-19.869
477.825	0.94	-19.966	0.341	69.982	0.341	69.982	0.94	-19.966
480.294	0.939	-20.062	0.343	69.886	0.343	69.886	0.939	-20.062
482.764	0.938	-20.159	0.345	69.789	0.345	69.789	0.938	-20.159
485.233	0.938	-20.255	0.346	69.692	0.346	69.692	0.938	-20.255
487.703	0.937	-20.351	0.348	69.596	0.348	69.596	0.937	-20.351
490.172	0.937	-20.447	0.349	69.499	0.349	69.499	0.937	-20.447
492.642	0.936	-20.544	0.351	69.403	0.351	69.403	0.936	-20.544
495.111	0.935	-20.64	0.352	69.306	0.352	69.306	0.935	-20.64
497.58	0.935	-20.735	0.354	69.21	0.354	69.21	0.935	-20.735
500.05	0.934	-20.831	0.356	69.114	0.356	69.114	0.934	-20.831
502.519	0.934	-20.927	0.357	69.018	0.357	69.018	0.934	-20.927
504.989	0.933	-21.023	0.359	68.922	0.359	68.922	0.933	-21.023
507.458	0.932	-21.118	0.36	68.826	0.36	68.826	0.932	-21.118
509.928	0.932	-21.214	0.362	68.731	0.362	68.731	0.932	-21.214
512.397	0.931	-21.309	0.363	68.635	0.363	68.635	0.931	-21.309
514.867	0.931	-21.404	0.365	68.54	0.365	68.54	0.931	-21.404
517.336	0.93	-21.499	0.366	68.444	0.366	68.444	0.93	-21.499
519.805	0.929	-21.594	0.368	68.349	0.368	68.349	0.929	-21.594
522.275	0.929	-21.689	0.37	68.254	0.37	68.254	0.929	-21.689
524.744	0.928	-21.784	0.371	68.159	0.371	68.159	0.928	-21.784
527.214	0.928	-21.879	0.373	68.064	0.373	68.064	0.928	-21.879
529.683	0.927	-21.974	0.374	67.969	0.374	67.969	0.927	-21.974
532.153	0.926	-22.068	0.376	67.874	0.376	67.874	0.926	-22.068
534.622	0.926	-22.163	0.377	67.779	0.377	67.779	0.926	-22.163
537.092	0.925	-22.257	0.379	67.684	0.379	67.684	0.925	-22.257
539.561	0.924	-22.351	0.38	67.59	0.38	67.59	0.924	-22.351
542.03	0.924	-22.445	0.382	67.495	0.382	67.495	0.924	-22.445
544.5	0.923	-22.539	0.383	67.401	0.383	67.401	0.923	-22.539
546.969	0.923	-22.633	0.385	67.307	0.385	67.307	0.923	-22.633
549.439	0.922	-22.727	0.386	67.213	0.386	67.213	0.922	-22.727
551.908	0.921	-22.821	0.388	67.119	0.388	67.119	0.921	-22.821
554.378	0.921	-22.915	0.389	67.025	0.389	67.025	0.921	-22.915
556.847	0.92	-23.008	0.391	66.931	0.391	66.931	0.92	-23.008
559.317	0.919	-23.102	0.392	66.837	0.392	66.837	0.919	-23.102
561.786	0.919	-23.195	0.394	66.744	0.394	66.744	0.919	-23.195
564.255	0.918	-23.288	0.395	66.65	0.395	66.65	0.918	-23.288
566.725	0.917	-23.381	0.397	66.557	0.397	66.557	0.917	-23.381
569.194	0.917	-23.474	0.398	66.463	0.398	66.463	0.917	-23.474
571.664	0.916	-23.567	0.4	66.37	0.4	66.37	0.916	-23.567
574.133	0.916	-23.66	0.401	66.277	0.401	66.277	0.916	-23.66
576.603	0.915	-23.753	0.403	66.184	0.403	66.184	0.915	-23.753
579.072	0.914	-23.845	0.404	66.091	0.404	66.091	0.914	-23.845
581.542	0.914	-23.938	0.406	65.998	0.406	65.998	0.914	-23.938
584.011	0.913	-24.03	0.407	65.906	0.407	65.906	0.913	-24.03
586.48	0.912	-24.123	0.409	65.813	0.409	65.813	0.912	-24.123
588.95	0.912	-24.215	0.41	65.721	0.41	65.721	0.912	-24.215
591.419	0.911	-24.307	0.412	65.628	0.412	65.628	0.911	-24.307
593.889	0.91	-24.399	0.413	65.536	0.413	65.536	0.91	-24.399
596.358	0.91	-24.491	0.415	65.444	0.415	65.444	0.91	-24.491
598.828	0.909	-24.583	0.416	65.352	0.416	65.352	0.909	-24.583
601.297	0.908	-24.674	0.417	65.26	0.417	65.26	0.908	-24.674
603.767	0.908	-24.766	0.419	65.168	0.419	65.168	0.908	-24.766
606.236	0.907	-24.858	0.42	65.076	0.42	65.076	0.907	-24.858
608.705	0.906	-24.949	0.422	64.984	0.422	64.984	0.906	-24.949
611.175	0.906	-25.04	0.423	64.893	0.423	64.893	0.906	-25.04
613.644	0.905	-25.131	0.425	64.801	0.425	64.801	0.905	-25.131
616.114	0.904	-25.222	0.426	64.71	0.426	64.71	0.904	-25.222
618.583	0.903	-25.313	0.428	64.619	0.428	64.619	0.903	-25.313
621.053	0.903	-25.404	0.429	64.528	0.429	64.528	0.903	-25.404
623.522	0.902	-25.495	0.43	64.437	0.43	64.437	0.902	-25.495
625.992	0.901	-25.586	0.432	64.346	0.432	64.346	0.901	-25.586
628.461	0.901	-25.676	0.433	64.255	0.433	64.255	0.901	-25.676
630.93	0.9	-25.767	0.435	64.164	0.435	64.164	0.9	-25.767
633.4	0.899	-25.857	0.436	64.074	0.436	64.074	0.899	-25.857
635.869	0.899	-25.947	0.438	63.983	0.438	63.983	0.899	-25.947
638.339	0.898	-26.037	0.439	63.893	0.439	63.893	0.898	-26.037
640.808	0.897	-26.127	0.44	63.803	0.44	63.803	0.897	-26.127
643.278	0.897	-26.217	0.442	63.712	0.442	63.712	0.897	-26.217
645.747	0.896	-26.307	0.443	63.622	0.443	63.622	0.896	-26.307
648.217	0.895	-26.396	0.445	63.532	0.445	63.532	0.895	-26.396
650.686	0.894	-26.486	0.446	63.442	0.446	63.442	0.894	-26.486
653.155	0.894	-26.575	0.447	63.353	0.447	63.353	0.894	-26.575
655.625	0.893	-26.665	0.449	63.263	0.449	63.263	0.893	-26.665
658.094	0.892	-26.754	0.45	63.174	0.45	63.174	0.892	-26.754
660.564	0.892	-26.843	0.452	63.084	0.452	63.084	0.892	-26.843
663.033	0.891	-26.932	0.453	62.995	0.453	62.995	0.891	-26.932
665.503	0.89	-27.021	0.454	62.906	0.454	62.906	0.89	-27.021
667.972	0.89	-27.11	0.456	62.817	0.456	62.817	0.89	-27.11
670.442	0.889	-27.199	0.457	62.728	0.457	62.728	0.889	-27.199
672.911	0.888	-27.287	0.458	62.639	0.458	62.639	0.888	-27.287
675.38	0.887	-27.376	0.46	62.55	0.46	62.55	0.887	-27.376
677.85	0.887	-27.464	0.461	62.461	0.461	62.461	0.887	-27.464
680.319	0.886	-27.552	0.463	62.373	0.463	62.373	0.886	-27.552
682.789	0.885	-27.641	0.464	62.284	0.464	62.284	0.885	-27.641
685.258	0.885	-27.729	0.465	62.196	0.465	62.196	0.885	-27.729
687.728	0.884	-27.816	0.467	62.108	0.467	62.108	0.884	-27.816
690.197	0.883	-27.904	0.468	62.02	0.468	62.02	0.883	-27.904
692.667	0.882	-27.992	0.469	61.932	0.469	61.932	0.882	-27.992
695.136	0.882	-28.08	0.471	61.844	0.471	61.844	0.882	-28.08
697.605	0.881	-28.167	0.472	61.756	0.472	61.756	0.881	-28.167
700.075	0.88	-28.255	0.473	61.668	0.473	61.668	0.88	-28.255
702.544	0.879	-28.342	0.475	61.581	0.475	61.581	0.879	-28.342
705.014	0.879	-28.429	0.476	61.493	0.476	61.493	0.879	-28.429
707.483	0.878	-28.516	0.477	61.406	0.477	61.406	0.878	-28.516
709.953	0.877	-28.603	0.479	61.319	0.479	61.319	0.877	-28.603
712.422	0.877	-28.69	0.48	61.232	0.48	61.232	0.877	-28.69
714.891	0.876	-28.777	0.481	61.145	0.481	61.145	0.876	-28.777
717.361	0.875	-28.863	0.483	61.058	0.483	61.058	0.875	-28.863
719.83	0.874	-28.95	0.484	60.971	0.484	60.971	0.874	-28.95
722.3	0.874	-29.036	0.485	60.884	0.485	60.884	0.874	-29.036
724.769	0.873	-29.122	0.487	60.798	0.487	60.798	0.873	-29.122
727.239	0.872	-29.208	0.488	60.711	0.488	60.711	0.872	-29.208
729.708	0.871	-29.295	0.489	60.625	0.489	60.625	0.871	-29.295
732.178	0.871	-29.381	0.491	60.539	0.491	60.539	0.871	-29.381
734.647	0.87	-29.466	0.492	60.453	0.492	60.453	0.87	-29.466
737.116	0.869	-29.552	0.493	60.367	0.493	60.367	0.869	-29.552
739.586	0.868	-29.638	0.495	60.281	0.495	60.281	0.868	-29.638
742.055	0.868	-29.723	0.496	60.195	0.496	60.195	0.868	-29.723
744.525	0.867	-29.809	0.497	60.109	0.497	60.109	0.867	-29.809
746.994	0.866	-29.894	0.498	60.024	0.498	60.024	0.866	-29.894
749.464	0.865	-29.979	0.5	59.938	0.5	59.938	0.865	-29.979
751.933	0.865	-30.064	0.501	59.853	0.501	59.853	0.865	-30.064
754.403	0.864	-30.149	0.502	59.768	0.502	59.768	0.864	-30.149
756.872	0.863	-30.234	0.504	59.682	0.504	59.682	0.863	-30.234
759.341	0.862	-30.319	0.505	59.597	0.505	59.597	0.862	-30.319
761.811	0.862	-30.403	0.506	59.513	0.506	59.513	0.862	-30.403
764.28	0.861	-30.488	0.507	59.428	0.507	59.428	0.861	-30.488
766.75	0.86	-30.572	0.509	59.343	0.509	59.343	0.86	-30.572
769.219	0.859	-30.656	0.51	59.259	0.51	59.259	0.859	-30.656
771.689	0.859	-30.741	0.511	59.174	0.511	59.174	0.859	-30.741
774.158	0.858	-30.825	0.512	59.09	0.512	59.09	0.858	-30.825
776.628	0.857	-30.909	0.514	59.006	0.514	59.006	0.857	-30.909
779.097	0.856	-30.992	0.515	58.921	0.515	58.921	0.856	-30.992
781.566	0.856	-31.076	0.516	58.837	0.516	58.837	0.856	-31.076
784.036	0.855	-31.16	0.517	58.754	0.517	58.754	0.855	-31.16
786.505	0.854	-31.243	0.519	58.67	0.519	58.67	0.854	-31.243
788.975	0.853	-31.327	0.52	58.586	0.52	58.586	0.853	-31.327
791.444	0.853	-31.41	0.521	58.502	0.521	58.502	0.853	-31.41
793.914	0.852	-31.493	0.522	58.419	0.522	58.419	0.852	-31.493
796.383	0.851	-31.576	0.524	58.336	0.524	58.336	0.851	-31.576
798.853	0.85	-31.659	0.525	58.252	0.525	58.252	0.85	-31.659
801.322	0.85	-31.742	0.526	58.169	0.526	58.169	0.85	-31.742
803.791	0.849	-31.825	0.527	58.086	0.527	58.086	0.849	-31.825
806.261	0.848	-31.907	0.529	58.003	0.529	58.003	0.848	-31.907
808.73	0.847	-31.99	0.53	57.921	0.53	57.921	0.847	-31.99
811.2	0.847	-32.072	0.531	57.838	0.531	57.838	0.847	-32.072
813.669	0.846	-32.154	0.532	57.755	0.532	57.755	0.846	-32.154
816.139	0.845	-32.236	0.533	57.673	0.533	57.673	0.845	-32.236
818.608	0.844	-32.319	0.535	57.591	0.535	57.591	0.844	-32.319
821.078	0.843	-32.4	0.536	57.508	0.536	57.508	0.843	-32.4
823.547	0.843	-32.482	0.537	57.426	0.537	57.426	0.843	-32.482
826.016	0.842	-32.564	0.538	57.344	0.538	57.344	0.842	-32.564
828.486	0.841	-32.646	0.539	57.263	0.539	57.263	0.841	-32.646
830.955	0.84	-32.727	0.541	57.181	0.541	57.181	0.84	-32.727
833.425	0.84	-32.808	0.542	57.099	0.542	57.099	0.84	-32.808
835.894	0.839	-32.89	0.543	57.018	0.543	57.018	0.839	-32.89
838.364	0.838	-32.971	0.544	56.936	0.544	56.936	0.838	-32.971
840.833	0.837	-33.052	0.545	56.855	0.545	56.855	0.837	-33.052
843.303	0.837	-33.133	0.547	56.774	0.547	56.774	0.837	-33.133
845.772	0.836	-33.214	0.548	56.692	0.548	56.692	0.836	-33.214
848.241	0.835	-33.294	0.549	56.611	0.549	56.611	0.835	-33.294
850.711	0.834	-33.375	0.55	56.531	0.55	56.531	0.834	-33.375
853.18	0.833	-33.455	0.551	56.45	0.551	56.45	0.833	-33.455
855.65	0.833	-33.536	0.552	56.369	0.552	56.369	0.833	-33.536
858.119	0.832	-33.616	0.554	56.289	0.554	56.289	0.832	-33.616
860.589	0.831	-33.696	0.555	56.208	0.555	56.208	0.831	-33.696
863.058	0.83	-33.776	0.556	56.128	0.556	56.128	0.83	-33.776
865.528	0.83	-33.856	0.557	56.048	0.557	56.048	0.83	-33.856
867.997	0.829	-33.936	0.558	55.968	0.558	55.968	0.829	-33.936
870.466	0.828	-34.016	0.559	55.888	0.559	55.888	0.828	-34.016
872.936	0.827	-34.095	0.561	55.808	0.561	55.808	0.827	-34.095
875.405	0.826	-34.175	0.562	55.728	0.562	55.728	0.826	-34.175
877.875	0.826	-34.254	0.563	55.648	0.563	55.648	0.826	-34.254
880.344	0.825	-34.333	0.564	55.569	0.564	55.569	0.825	-34.333
882.814	0.824	-34.412	0.565	55.489	0.565	55.489	0.824	-34.412
885.283	0.823	-34.491	0.566	55.41	0.566	55.41	0.823	-34.491
887.753	0.822	-34.57	0.567	55.331	0.567	55.331	0.822	-34.57
890.222	0.822	-34.649	0.569	55.252	0.569	55.252	0.822	-34.649
892.691	0.821	-34.728	0.57	55.173	0.57	55.173	0.821	-34.728
895.161	0.82	-34.806	0.571	55.094	0.571	55.094	0.82	-34.806
897.63	0.819	-34.885	0.572	55.015	0.572	55.015	0.819	-34.885
