! AVX Thin Film Operation		Date: April 2012 
! Description: Accu-P® Series, Thin Film, SMD, RF Capacitor
! Part Number: 08051J1R6PBTTR					
!	100	MHz	-	20.05	GHz			
!	Serial	Measurements						
!								
#	MHZ	S	MA	R	50			
!	S11	S21	S12	S22				
!	dB	Phase	dB	Phase	dB	Phase	dB	Phase
50 0.999 -2.878 0.05 87.053 0.05 87.053 0.999 -2.878
100 0.995 -5.743 0.1 84.177 0.1 84.177 0.995 -5.743
150 0.989 -8.582 0.149 81.325 0.149 81.325 0.989 -8.582
200 0.98 -11.386 0.197 78.51 0.197 78.51 0.98 -11.386
250 0.969 -14.141 0.244 75.742 0.244 75.742 0.969 -14.141
300 0.956 -16.841 0.29 73.031 0.29 73.031 0.956 -16.841
350 0.942 -19.475 0.333 70.385 0.333 70.385 0.942 -19.475
400 0.926 -22.037 0.375 67.81 0.375 67.81 0.926 -22.037
450 0.909 -24.523 0.415 65.312 0.415 65.312 0.909 -24.523
500 0.89 -26.928 0.453 62.895 0.453 62.895 0.89 -26.928
550 0.871 -29.249 0.489 60.562 0.489 60.562 0.871 -29.249
600 0.851 -31.484 0.522 58.313 0.522 58.313 0.851 -31.484
650 0.831 -33.634 0.554 56.151 0.554 56.151 0.831 -33.634
700 0.81 -35.699 0.584 54.073 0.584 54.073 0.81 -35.699
750 0.789 -37.679 0.611 52.08 0.611 52.08 0.789 -37.679
800 0.768 -39.577 0.637 50.169 0.637 50.169 0.768 -39.577
850 0.747 -41.395 0.661 48.338 0.661 48.338 0.747 -41.395
900 0.726 -43.135 0.684 46.584 0.684 46.584 0.726 -43.135
950 0.706 -44.8 0.705 44.906 0.705 44.906 0.706 -44.8
1000 0.686 -46.393 0.724 43.299 0.724 43.299 0.686 -46.393
1050 0.666 -47.917 0.742 41.76 0.742 41.76 0.666 -47.917
1100 0.647 -49.376 0.759 40.287 0.759 40.287 0.647 -49.376
1150 0.628 -50.772 0.775 38.876 0.775 38.876 0.628 -50.772
1200 0.609 -52.108 0.789 37.525 0.789 37.525 0.609 -52.108
1250 0.591 -53.388 0.803 36.229 0.803 36.229 0.591 -53.388
1300 0.573 -54.615 0.815 34.987 0.815 34.987 0.573 -54.615
1350 0.556 -55.791 0.827 33.795 0.827 33.795 0.556 -55.791
1400 0.54 -56.919 0.838 32.65 0.838 32.65 0.54 -56.919
1450 0.523 -58.002 0.848 31.551 0.848 31.551 0.523 -58.002
1500 0.507 -59.041 0.858 30.494 0.858 30.494 0.507 -59.041
1550 0.492 -60.04 0.866 29.478 0.866 29.478 0.492 -60.04
1600 0.477 -61.001 0.875 28.5 0.875 28.5 0.477 -61.001
1650 0.463 -61.925 0.882 27.557 0.882 27.557 0.463 -61.925
1700 0.449 -62.814 0.89 26.649 0.89 26.649 0.449 -62.814
1750 0.435 -63.671 0.896 25.773 0.896 25.773 0.435 -63.671
1800 0.421 -64.497 0.903 24.927 0.903 24.927 0.421 -64.497
1850 0.409 -65.293 0.909 24.11 0.909 24.11 0.409 -65.293
1900 0.396 -66.062 0.914 23.32 0.914 23.32 0.396 -66.062
1950 0.384 -66.804 0.919 22.555 0.919 22.555 0.384 -66.804
2000 0.372 -67.521 0.924 21.816 0.924 21.816 0.372 -67.521
2050 0.36 -68.215 0.929 21.099 0.929 21.099 0.36 -68.215
2100 0.349 -68.885 0.933 20.404 0.933 20.404 0.349 -68.885
2150 0.338 -69.534 0.937 19.73 0.937 19.73 0.338 -69.534
2200 0.327 -70.162 0.941 19.076 0.941 19.076 0.327 -70.162
2250 0.316 -70.771 0.944 18.441 0.944 18.441 0.316 -70.771
2300 0.306 -71.36 0.948 17.823 0.948 17.823 0.306 -71.36
2350 0.296 -71.932 0.951 17.223 0.951 17.223 0.296 -71.932
2400 0.286 -72.486 0.954 16.638 0.954 16.638 0.286 -72.486
2450 0.277 -73.023 0.957 16.069 0.957 16.069 0.277 -73.023
2500 0.268 -73.545 0.959 15.515 0.959 15.515 0.268 -73.545
2550 0.258 -74.051 0.962 14.974 0.962 14.974 0.258 -74.051
2600 0.25 -74.542 0.964 14.447 0.964 14.447 0.25 -74.542
2650 0.241 -75.018 0.966 13.933 0.966 13.933 0.241 -75.018
2700 0.232 -75.481 0.968 13.43 0.968 13.43 0.232 -75.481
2750 0.224 -75.93 0.97 12.94 0.97 12.94 0.224 -75.93
2800 0.216 -76.366 0.972 12.46 0.972 12.46 0.216 -76.366
2850 0.208 -76.789 0.974 11.991 0.974 11.991 0.208 -76.789
2900 0.2 -77.199 0.975 11.532 0.975 11.532 0.2 -77.199
2950 0.192 -77.596 0.977 11.082 0.977 11.082 0.192 -77.596
3000 0.185 -77.981 0.978 10.642 0.978 10.642 0.185 -77.981
3050 0.177 -78.354 0.98 10.211 0.98 10.211 0.177 -78.354
3100 0.17 -78.714 0.981 9.788 0.981 9.788 0.17 -78.714
3150 0.163 -79.062 0.982 9.374 0.982 9.374 0.163 -79.062
3200 0.156 -79.398 0.983 8.967 0.983 8.967 0.156 -79.398
3250 0.149 -79.72 0.984 8.568 0.984 8.568 0.149 -79.72
3300 0.142 -80.03 0.985 8.177 0.985 8.177 0.142 -80.03
3350 0.136 -80.326 0.986 7.792 0.986 7.792 0.136 -80.326
3400 0.129 -80.608 0.987 7.414 0.987 7.414 0.129 -80.608
3450 0.123 -80.875 0.988 7.042 0.988 7.042 0.123 -80.875
3500 0.116 -81.126 0.989 6.677 0.989 6.677 0.116 -81.126
3550 0.11 -81.36 0.989 6.317 0.989 6.317 0.11 -81.36
3600 0.104 -81.576 0.99 5.964 0.99 5.964 0.104 -81.576
3650 0.098 -81.771 0.991 5.616 0.991 5.616 0.098 -81.771
3700 0.092 -81.944 0.991 5.273 0.991 5.273 0.092 -81.944
3750 0.086 -82.092 0.992 4.935 0.992 4.935 0.086 -82.092
3800 0.08 -82.21 0.992 4.603 0.992 4.603 0.08 -82.21
3850 0.075 -82.293 0.993 4.275 0.993 4.275 0.075 -82.293
3900 0.069 -82.336 0.993 3.952 0.993 3.952 0.069 -82.336
3950 0.064 -82.33 0.994 3.634 0.994 3.634 0.064 -82.33
4000 0.058 -82.264 0.994 3.32 0.994 3.32 0.058 -82.264
4050 0.053 -82.121 0.994 3.01 0.994 3.01 0.053 -82.121
4100 0.047 -81.879 0.994 2.704 0.994 2.704 0.047 -81.879
4150 0.042 -81.504 0.995 2.402 0.995 2.402 0.042 -81.504
4200 0.037 -80.947 0.995 2.104 0.995 2.104 0.037 -80.947
4250 0.032 -80.124 0.995 1.809 0.995 1.809 0.032 -80.124
4300 0.027 -78.897 0.995 1.519 0.995 1.519 0.027 -78.897
4350 0.022 -77.005 0.995 1.231 0.995 1.231 0.022 -77.005
4400 0.017 -73.909 0.995 0.948 0.995 0.948 0.017 -73.909
4450 0.012 -68.301 0.995 0.667 0.995 0.667 0.012 -68.301
4500 8.14e-3 -56.253 0.996 0.39 0.996 0.39 8.14e-3 -56.253
4550 4.907e-3 -24.086 0.996 0.115 0.996 0.115 4.907e-3 -24.086
4600 5.24e-3 31.162 0.996 -0.156 0.996 -0.156 5.24e-3 31.162
4650 8.655e-3 58.433 0.995 -0.424 0.995 -0.424 8.655e-3 58.433
4700 0.013 68.92 0.995 -0.69 0.995 -0.69 0.013 68.92
4750 0.017 73.982 0.995 -0.953 0.995 -0.953 0.017 73.982
4800 0.022 76.848 0.995 -1.213 0.995 -1.213 0.022 76.848
4850 0.026 78.636 0.995 -1.47 0.995 -1.47 0.026 78.636
4900 0.03 79.82 0.995 -1.725 0.995 -1.725 0.03 79.82
4950 0.035 80.634 0.995 -1.978 0.995 -1.978 0.035 80.634
5000 0.039 81.206 0.995 -2.228 0.995 -2.228 0.039 81.206
5050 0.043 81.611 0.995 -2.475 0.995 -2.475 0.043 81.611
5100 0.048 81.895 0.994 -2.721 0.994 -2.721 0.048 81.895
5150 0.052 82.092 0.994 -2.964 0.994 -2.964 0.052 82.092
5200 0.056 82.221 0.994 -3.205 0.994 -3.205 0.056 82.221
5250 0.06 82.298 0.994 -3.444 0.994 -3.444 0.06 82.298
5300 0.064 82.335 0.993 -3.681 0.993 -3.681 0.064 82.335
5350 0.068 82.338 0.993 -3.916 0.993 -3.916 0.068 82.338
5400 0.072 82.315 0.993 -4.148 0.993 -4.148 0.072 82.315
5450 0.076 82.271 0.993 -4.379 0.993 -4.379 0.076 82.271
5500 0.08 82.208 0.992 -4.608 0.992 -4.608 0.08 82.208
5550 0.084 82.13 0.992 -4.835 0.992 -4.835 0.084 82.13
5600 0.088 82.04 0.992 -5.061 0.992 -5.061 0.088 82.04
5650 0.092 81.939 0.991 -5.284 0.991 -5.284 0.092 81.939
5700 0.096 81.829 0.991 -5.506 0.991 -5.506 0.096 81.829
5750 0.1 81.711 0.991 -5.726 0.991 -5.726 0.1 81.711
5800 0.104 81.587 0.99 -5.945 0.99 -5.945 0.104 81.587
5850 0.107 81.457 0.99 -6.162 0.99 -6.162 0.107 81.457
5900 0.111 81.322 0.989 -6.377 0.989 -6.377 0.111 81.322
5950 0.115 81.183 0.989 -6.591 0.989 -6.591 0.115 81.183
6000 0.119 81.04 0.988 -6.803 0.988 -6.803 0.119 81.04
6050 0.122 80.894 0.988 -7.014 0.988 -7.014 0.122 80.894
6100 0.126 80.746 0.988 -7.223 0.988 -7.223 0.126 80.746
6150 0.129 80.595 0.987 -7.431 0.987 -7.431 0.129 80.595
6200 0.133 80.442 0.987 -7.638 0.987 -7.638 0.133 80.442
6250 0.137 80.287 0.986 -7.843 0.986 -7.843 0.137 80.287
6300 0.14 80.131 0.986 -8.047 0.986 -8.047 0.14 80.131
6350 0.144 79.973 0.985 -8.249 0.985 -8.249 0.144 79.973
6400 0.147 79.814 0.985 -8.451 0.985 -8.451 0.147 79.814
6450 0.15 79.654 0.984 -8.651 0.984 -8.651 0.15 79.654
6500 0.154 79.494 0.984 -8.849 0.984 -8.849 0.154 79.494
6550 0.157 79.333 0.983 -9.047 0.983 -9.047 0.157 79.333
6600 0.161 79.171 0.983 -9.243 0.983 -9.243 0.161 79.171
6650 0.164 79.009 0.982 -9.438 0.982 -9.438 0.164 79.009
6700 0.167 78.846 0.981 -9.632 0.981 -9.632 0.167 78.846
6750 0.171 78.684 0.981 -9.825 0.981 -9.825 0.171 78.684
6800 0.174 78.521 0.98 -10.017 0.98 -10.017 0.174 78.521
6850 0.177 78.357 0.98 -10.207 0.98 -10.207 0.177 78.357
6900 0.181 78.194 0.979 -10.397 0.979 -10.397 0.181 78.194
6950 0.184 78.031 0.979 -10.585 0.979 -10.585 0.184 78.031
7000 0.187 77.868 0.978 -10.773 0.978 -10.773 0.187 77.868
7050 0.19 77.705 0.977 -10.959 0.977 -10.959 0.19 77.705
7100 0.193 77.542 0.977 -11.144 0.977 -11.144 0.193 77.542
7150 0.196 77.379 0.976 -11.329 0.976 -11.329 0.196 77.379
7200 0.2 77.216 0.975 -11.512 0.975 -11.512 0.2 77.216
7250 0.203 77.054 0.975 -11.694 0.975 -11.694 0.203 77.054
7300 0.206 76.892 0.974 -11.876 0.974 -11.876 0.206 76.892
7350 0.209 76.73 0.974 -12.056 0.974 -12.056 0.209 76.73
7400 0.212 76.568 0.973 -12.236 0.973 -12.236 0.212 76.568
7450 0.215 76.407 0.972 -12.415 0.972 -12.415 0.215 76.407
7500 0.218 76.246 0.972 -12.592 0.972 -12.592 0.218 76.246
7550 0.221 76.085 0.971 -12.769 0.971 -12.769 0.221 76.085
7600 0.224 75.925 0.97 -12.945 0.97 -12.945 0.224 75.925
7650 0.227 75.765 0.969 -13.12 0.969 -13.12 0.227 75.765
7700 0.23 75.606 0.969 -13.295 0.969 -13.295 0.23 75.606
7750 0.233 75.446 0.968 -13.468 0.968 -13.468 0.233 75.446
7800 0.236 75.288 0.967 -13.641 0.967 -13.641 0.236 75.288
7850 0.239 75.129 0.967 -13.812 0.967 -13.812 0.239 75.129
7900 0.242 74.972 0.966 -13.984 0.966 -13.984 0.242 74.972
7950 0.245 74.814 0.965 -14.154 0.965 -14.154 0.245 74.814
8000 0.247 74.657 0.965 -14.323 0.965 -14.323 0.247 74.657
8050 0.25 74.5 0.964 -14.492 0.964 -14.492 0.25 74.5
8100 0.253 74.344 0.963 -14.66 0.963 -14.66 0.253 74.344
8150 0.256 74.188 0.962 -14.827 0.962 -14.827 0.256 74.188
8200 0.259 74.033 0.962 -14.993 0.962 -14.993 0.259 74.033
8250 0.262 73.878 0.961 -15.159 0.961 -15.159 0.262 73.878
8300 0.264 73.724 0.96 -15.324 0.96 -15.324 0.264 73.724
8350 0.267 73.57 0.959 -15.488 0.959 -15.488 0.267 73.57
8400 0.27 73.416 0.959 -15.651 0.959 -15.651 0.27 73.416
8450 0.273 73.263 0.958 -15.814 0.958 -15.814 0.273 73.263
8500 0.275 73.111 0.957 -15.976 0.957 -15.976 0.275 73.111
8550 0.278 72.959 0.956 -16.138 0.956 -16.138 0.278 72.959
8600 0.281 72.807 0.955 -16.298 0.955 -16.298 0.281 72.807
8650 0.283 72.656 0.955 -16.458 0.955 -16.458 0.283 72.656
8700 0.286 72.505 0.954 -16.618 0.954 -16.618 0.286 72.505
8750 0.289 72.355 0.953 -16.776 0.953 -16.776 0.289 72.355
8800 0.291 72.205 0.952 -16.935 0.952 -16.935 0.291 72.205
8850 0.294 72.056 0.951 -17.092 0.951 -17.092 0.294 72.056
8900 0.297 71.907 0.951 -17.249 0.951 -17.249 0.297 71.907
8950 0.299 71.759 0.95 -17.405 0.95 -17.405 0.299 71.759
9000 0.302 71.611 0.949 -17.56 0.949 -17.56 0.302 71.611
9050 0.304 71.463 0.948 -17.715 0.948 -17.715 0.304 71.463
9100 0.307 71.316 0.947 -17.869 0.947 -17.869 0.307 71.316
9150 0.309 71.17 0.947 -18.023 0.947 -18.023 0.309 71.17
9200 0.312 71.024 0.946 -18.176 0.946 -18.176 0.312 71.024
9250 0.314 70.878 0.945 -18.329 0.945 -18.329 0.314 70.878
9300 0.317 70.733 0.944 -18.481 0.944 -18.481 0.317 70.733
9350 0.32 70.588 0.943 -18.632 0.943 -18.632 0.32 70.588
9400 0.322 70.444 0.942 -18.783 0.942 -18.783 0.322 70.444
9450 0.324 70.3 0.942 -18.933 0.942 -18.933 0.324 70.3
9500 0.327 70.156 0.941 -19.082 0.941 -19.082 0.327 70.156
9550 0.329 70.014 0.94 -19.231 0.94 -19.231 0.329 70.014
9600 0.332 69.871 0.939 -19.38 0.939 -19.38 0.332 69.871
9650 0.334 69.729 0.938 -19.528 0.938 -19.528 0.334 69.729
9700 0.337 69.587 0.937 -19.675 0.937 -19.675 0.337 69.587
9750 0.339 69.446 0.936 -19.822 0.936 -19.822 0.339 69.446
9800 0.342 69.306 0.936 -19.968 0.936 -19.968 0.342 69.306
9850 0.344 69.165 0.935 -20.114 0.935 -20.114 0.344 69.165
9900 0.346 69.025 0.934 -20.259 0.934 -20.259 0.346 69.025
9950 0.349 68.886 0.933 -20.403 0.933 -20.403 0.349 68.886
10000 0.351 68.747 0.932 -20.548 0.932 -20.548 0.351 68.747
10050 0.353 68.608 0.931 -20.691 0.931 -20.691 0.353 68.608
10100 0.356 68.47 0.93 -20.834 0.93 -20.834 0.356 68.47
10150 0.358 68.333 0.929 -20.977 0.929 -20.977 0.358 68.333
10200 0.36 68.195 0.929 -21.119 0.929 -21.119 0.36 68.195
10250 0.363 68.059 0.928 -21.26 0.928 -21.26 0.363 68.059
10300 0.365 67.922 0.927 -21.401 0.927 -21.401 0.365 67.922
10350 0.367 67.786 0.926 -21.542 0.926 -21.542 0.367 67.786
10400 0.369 67.651 0.925 -21.682 0.925 -21.682 0.369 67.651
10450 0.372 67.516 0.924 -21.822 0.924 -21.822 0.372 67.516
10500 0.374 67.381 0.923 -21.961 0.923 -21.961 0.374 67.381
10550 0.376 67.246 0.922 -22.099 0.922 -22.099 0.376 67.246
10600 0.378 67.113 0.921 -22.238 0.921 -22.238 0.378 67.113
10650 0.381 66.979 0.92 -22.375 0.92 -22.375 0.381 66.979
10700 0.383 66.846 0.92 -22.512 0.92 -22.512 0.383 66.846
10750 0.385 66.713 0.919 -22.649 0.919 -22.649 0.385 66.713
10800 0.387 66.581 0.918 -22.785 0.918 -22.785 0.387 66.581
10850 0.389 66.449 0.917 -22.921 0.917 -22.921 0.389 66.449
10900 0.392 66.318 0.916 -23.056 0.916 -23.056 0.392 66.318
10950 0.394 66.187 0.915 -23.191 0.915 -23.191 0.394 66.187
11000 0.396 66.056 0.914 -23.326 0.914 -23.326 0.396 66.056
11050 0.398 65.926 0.913 -23.46 0.913 -23.46 0.398 65.926
11100 0.4 65.796 0.912 -23.593 0.912 -23.593 0.4 65.796
11150 0.402 65.666 0.911 -23.726 0.911 -23.726 0.402 65.666
11200 0.405 65.537 0.91 -23.859 0.91 -23.859 0.405 65.537
11250 0.407 65.409 0.909 -23.991 0.909 -23.991 0.407 65.409
11300 0.409 65.28 0.908 -24.123 0.908 -24.123 0.409 65.28
11350 0.411 65.152 0.907 -24.254 0.907 -24.254 0.411 65.152
11400 0.413 65.025 0.907 -24.385 0.907 -24.385 0.413 65.025
11450 0.415 64.898 0.906 -24.515 0.906 -24.515 0.415 64.898
11500 0.417 64.771 0.905 -24.645 0.905 -24.645 0.417 64.771
11550 0.419 64.645 0.904 -24.775 0.904 -24.775 0.419 64.645
11600 0.421 64.519 0.903 -24.904 0.903 -24.904 0.421 64.519
11650 0.423 64.393 0.902 -25.033 0.902 -25.033 0.423 64.393
11700 0.425 64.268 0.901 -25.161 0.901 -25.161 0.425 64.268
11750 0.427 64.143 0.9 -25.289 0.9 -25.289 0.427 64.143
11800 0.429 64.018 0.899 -25.417 0.899 -25.417 0.429 64.018
11850 0.431 63.894 0.898 -25.544 0.898 -25.544 0.431 63.894
11900 0.433 63.771 0.897 -25.671 0.897 -25.671 0.433 63.771
11950 0.435 63.647 0.896 -25.797 0.896 -25.797 0.435 63.647
12000 0.437 63.524 0.895 -25.923 0.895 -25.923 0.437 63.524
12050 0.439 63.401 0.894 -26.048 0.894 -26.048 0.439 63.401
12100 0.441 63.279 0.893 -26.173 0.893 -26.173 0.441 63.279
12150 0.443 63.157 0.892 -26.298 0.892 -26.298 0.443 63.157
12200 0.445 63.036 0.891 -26.422 0.891 -26.422 0.445 63.036
12250 0.447 62.914 0.89 -26.546 0.89 -26.546 0.447 62.914
12300 0.449 62.794 0.889 -26.67 0.889 -26.67 0.449 62.794
12350 0.451 62.673 0.888 -26.793 0.888 -26.793 0.451 62.673
12400 0.453 62.553 0.887 -26.916 0.887 -26.916 0.453 62.553
12450 0.455 62.433 0.887 -27.038 0.887 -27.038 0.455 62.433
12500 0.456 62.314 0.886 -27.16 0.886 -27.16 0.456 62.314
12550 0.458 62.195 0.885 -27.281 0.885 -27.281 0.458 62.195
12600 0.46 62.076 0.884 -27.403 0.884 -27.403 0.46 62.076
12650 0.462 61.958 0.883 -27.523 0.883 -27.523 0.462 61.958
12700 0.464 61.84 0.882 -27.644 0.882 -27.644 0.464 61.84
12750 0.466 61.722 0.881 -27.764 0.881 -27.764 0.466 61.722
12800 0.468 61.605 0.88 -27.884 0.88 -27.884 0.468 61.605
12850 0.47 61.488 0.879 -28.003 0.879 -28.003 0.47 61.488
12900 0.471 61.371 0.878 -28.122 0.878 -28.122 0.471 61.371
12950 0.473 61.255 0.877 -28.241 0.877 -28.241 0.473 61.255
13000 0.475 61.139 0.876 -28.359 0.876 -28.359 0.475 61.139
13050 0.477 61.023 0.875 -28.477 0.875 -28.477 0.477 61.023
13100 0.479 60.908 0.874 -28.594 0.874 -28.594 0.479 60.908
13150 0.48 60.793 0.873 -28.711 0.873 -28.711 0.48 60.793
13200 0.482 60.678 0.872 -28.828 0.872 -28.828 0.482 60.678
13250 0.484 60.564 0.871 -28.945 0.871 -28.945 0.484 60.564
13300 0.486 60.45 0.87 -29.061 0.87 -29.061 0.486 60.45
13350 0.488 60.336 0.869 -29.176 0.869 -29.176 0.488 60.336
13400 0.489 60.223 0.868 -29.292 0.868 -29.292 0.489 60.223
13450 0.491 60.11 0.867 -29.407 0.867 -29.407 0.491 60.11
13500 0.493 59.997 0.866 -29.521 0.866 -29.521 0.493 59.997
13550 0.495 59.885 0.865 -29.636 0.865 -29.636 0.495 59.885
13600 0.496 59.773 0.864 -29.75 0.864 -29.75 0.496 59.773
13650 0.498 59.662 0.863 -29.863 0.863 -29.863 0.498 59.662
13700 0.5 59.55 0.862 -29.977 0.862 -29.977 0.5 59.55
13750 0.501 59.439 0.861 -30.09 0.861 -30.09 0.501 59.439
13800 0.503 59.328 0.86 -30.202 0.86 -30.202 0.503 59.328
13850 0.505 59.218 0.859 -30.315 0.859 -30.315 0.505 59.218
13900 0.506 59.108 0.858 -30.427 0.858 -30.427 0.506 59.108
13950 0.508 58.998 0.857 -30.538 0.857 -30.538 0.508 58.998
14000 0.51 58.889 0.856 -30.649 0.856 -30.649 0.51 58.889
14050 0.511 58.78 0.855 -30.76 0.855 -30.76 0.511 58.78
14100 0.513 58.671 0.854 -30.871 0.854 -30.871 0.513 58.671
14150 0.515 58.562 0.853 -30.981 0.853 -30.981 0.515 58.562
14200 0.516 58.454 0.852 -31.091 0.852 -31.091 0.516 58.454
14250 0.518 58.346 0.851 -31.201 0.851 -31.201 0.518 58.346
14300 0.52 58.239 0.85 -31.31 0.85 -31.31 0.52 58.239
14350 0.521 58.132 0.849 -31.419 0.849 -31.419 0.521 58.132
14400 0.523 58.025 0.848 -31.528 0.848 -31.528 0.523 58.025
14450 0.525 57.918 0.847 -31.636 0.847 -31.636 0.525 57.918
14500 0.526 57.812 0.846 -31.744 0.846 -31.744 0.526 57.812
14550 0.528 57.706 0.845 -31.852 0.845 -31.852 0.528 57.706
14600 0.529 57.6 0.844 -31.959 0.844 -31.959 0.529 57.6
14650 0.531 57.495 0.843 -32.066 0.843 -32.066 0.531 57.495
14700 0.532 57.389 0.842 -32.173 0.842 -32.173 0.532 57.389
14750 0.534 57.285 0.841 -32.279 0.841 -32.279 0.534 57.285
14800 0.536 57.18 0.84 -32.386 0.84 -32.386 0.536 57.18
14850 0.537 57.076 0.839 -32.491 0.839 -32.491 0.537 57.076
14900 0.539 56.972 0.838 -32.597 0.838 -32.597 0.539 56.972
14950 0.54 56.868 0.837 -32.702 0.837 -32.702 0.54 56.868
15000 0.542 56.765 0.836 -32.807 0.836 -32.807 0.542 56.765
15050 0.543 56.662 0.835 -32.911 0.835 -32.911 0.543 56.662
15100 0.545 56.559 0.834 -33.016 0.834 -33.016 0.545 56.559
15150 0.546 56.457 0.833 -33.12 0.833 -33.12 0.546 56.457
15200 0.548 56.354 0.833 -33.223 0.833 -33.223 0.548 56.354
15250 0.549 56.253 0.832 -33.327 0.832 -33.327 0.549 56.253
15300 0.551 56.151 0.831 -33.43 0.831 -33.43 0.551 56.151
15350 0.552 56.05 0.83 -33.533 0.83 -33.533 0.552 56.05
15400 0.554 55.949 0.829 -33.635 0.829 -33.635 0.554 55.949
15450 0.555 55.848 0.828 -33.737 0.828 -33.737 0.555 55.848
15500 0.557 55.747 0.827 -33.839 0.827 -33.839 0.557 55.747
15550 0.558 55.647 0.826 -33.941 0.826 -33.941 0.558 55.647
15600 0.56 55.547 0.825 -34.042 0.825 -34.042 0.56 55.547
15650 0.561 55.448 0.824 -34.143 0.824 -34.143 0.561 55.448
15700 0.563 55.348 0.823 -34.244 0.823 -34.244 0.563 55.348
15750 0.564 55.249 0.822 -34.344 0.822 -34.344 0.564 55.249
15800 0.566 55.151 0.821 -34.444 0.821 -34.444 0.566 55.151
15850 0.567 55.052 0.82 -34.544 0.82 -34.544 0.567 55.052
15900 0.568 54.954 0.819 -34.643 0.819 -34.643 0.568 54.954
15950 0.57 54.856 0.818 -34.743 0.818 -34.743 0.57 54.856
16000 0.571 54.758 0.817 -34.842 0.817 -34.842 0.571 54.758
16050 0.573 54.661 0.816 -34.94 0.816 -34.94 0.573 54.661
16100 0.574 54.564 0.815 -35.039 0.815 -35.039 0.574 54.564
16150 0.576 54.467 0.814 -35.137 0.814 -35.137 0.576 54.467
16200 0.577 54.37 0.813 -35.235 0.813 -35.235 0.577 54.37
16250 0.578 54.274 0.812 -35.332 0.812 -35.332 0.578 54.274
16300 0.58 54.178 0.811 -35.429 0.811 -35.429 0.58 54.178
16350 0.581 54.082 0.81 -35.526 0.81 -35.526 0.581 54.082
16400 0.582 53.987 0.809 -35.623 0.809 -35.623 0.582 53.987
16450 0.584 53.892 0.808 -35.72 0.808 -35.72 0.584 53.892
16500 0.585 53.797 0.807 -35.816 0.807 -35.816 0.585 53.797
16550 0.587 53.702 0.806 -35.912 0.806 -35.912 0.587 53.702
16600 0.588 53.607 0.805 -36.007 0.805 -36.007 0.588 53.607
16650 0.589 53.513 0.804 -36.103 0.804 -36.103 0.589 53.513
16700 0.591 53.419 0.803 -36.198 0.803 -36.198 0.591 53.419
16750 0.592 53.326 0.802 -36.292 0.802 -36.292 0.592 53.326
16800 0.593 53.232 0.801 -36.387 0.801 -36.387 0.593 53.232
16850 0.595 53.139 0.8 -36.481 0.8 -36.481 0.595 53.139
16900 0.596 53.046 0.799 -36.575 0.799 -36.575 0.596 53.046
16950 0.597 52.954 0.798 -36.669 0.798 -36.669 0.597 52.954
