! AVX Thin Film Operation		Date: April 2012 
! Description: Accu-P® Series, Thin Film, SMD, RF Capacitor
! Part Number: 08055J200FBTTR					
!	50	MHz	-	20.05	GHz			
!	Serial	Measurements						
!								
#	MHZ	S	MA	R	50			
!	S11	S21	S12	S22				
!	dB	Phase	dB	Phase	dB	Phase	dB	Phase
50 0.846 -32.152 0.532 57.747 0.532 57.747 0.846 -32.152
100 0.62 -51.566 0.783 38.289 0.783 38.289 0.62 -51.566
150 0.463 -62.224 0.885 27.586 0.885 27.586 0.463 -62.224
200 0.362 -68.569 0.931 21.193 0.931 21.193 0.362 -68.569
250 0.293 -72.703 0.955 17.011 0.955 17.011 0.293 -72.703
300 0.243 -75.593 0.969 14.069 0.969 14.069 0.243 -75.593
350 0.206 -77.726 0.977 11.882 0.977 11.882 0.206 -77.726
400 0.177 -79.364 0.983 10.184 0.983 10.184 0.177 -79.364
450 0.153 -80.663 0.987 8.822 0.987 8.822 0.153 -80.663
500 0.134 -81.717 0.99 7.698 0.99 7.698 0.134 -81.717
550 0.118 -82.588 0.992 6.749 0.992 6.749 0.118 -82.588
600 0.103 -83.318 0.993 5.933 0.993 5.933 0.103 -83.318
650 0.091 -83.933 0.995 5.22 0.995 5.22 0.091 -83.933
700 0.08 -84.452 0.995 4.588 0.995 4.588 0.08 -84.452
750 0.07 -84.887 0.996 4.022 0.996 4.022 0.07 -84.887
800 0.061 -85.244 0.997 3.508 0.997 3.508 0.061 -85.244
850 0.053 -85.524 0.997 3.039 0.997 3.039 0.053 -85.524
900 0.045 -85.722 0.998 2.606 0.998 2.606 0.045 -85.722
950 0.038 -85.822 0.998 2.204 0.998 2.204 0.038 -85.822
1000 0.032 -85.796 0.998 1.829 0.998 1.829 0.032 -85.796
1050 0.026 -85.584 0.998 1.476 0.998 1.476 0.026 -85.584
1100 0.02 -85.066 0.998 1.143 0.998 1.143 0.02 -85.066
1150 0.014 -83.942 0.999 0.827 0.999 0.827 0.014 -83.942
1200 9.272e-3 -81.284 0.999 0.526 0.999 0.526 9.272e-3 -81.284
1250 4.356e-3 -72.115 0.999 0.238 0.999 0.238 4.356e-3 -72.115
1300 1.481e-3 26.896 0.999 -0.038 0.999 -0.038 1.481e-3 26.896
1350 5.474e-3 75.734 0.999 -0.304 0.999 -0.304 5.474e-3 75.734
1400 9.88e-3 81.756 0.999 -0.561 0.999 -0.561 9.88e-3 81.756
1450 0.014 83.847 0.999 -0.809 0.999 -0.809 0.014 83.847
1500 0.018 84.825 0.999 -1.05 0.999 -1.05 0.018 84.825
1550 0.022 85.339 0.998 -1.284 0.998 -1.284 0.022 85.339
1600 0.026 85.618 0.998 -1.512 0.998 -1.512 0.026 85.618
1650 0.03 85.761 0.998 -1.734 0.998 -1.734 0.03 85.761
1700 0.034 85.821 0.998 -1.951 0.998 -1.951 0.034 85.821
1750 0.038 85.826 0.998 -2.164 0.998 -2.164 0.038 85.826
1800 0.041 85.793 0.998 -2.372 0.998 -2.372 0.041 85.793
1850 0.045 85.732 0.998 -2.576 0.998 -2.576 0.045 85.732
1900 0.048 85.653 0.997 -2.777 0.997 -2.777 0.048 85.653
1950 0.052 85.558 0.997 -2.974 0.997 -2.974 0.052 85.558
2000 0.055 85.453 0.997 -3.168 0.997 -3.168 0.055 85.453
2050 0.059 85.339 0.997 -3.359 0.997 -3.359 0.059 85.339
2100 0.062 85.219 0.997 -3.547 0.997 -3.547 0.062 85.219
2150 0.065 85.093 0.997 -3.733 0.997 -3.733 0.065 85.093
2200 0.068 84.963 0.996 -3.917 0.996 -3.917 0.068 84.963
2250 0.071 84.831 0.996 -4.098 0.996 -4.098 0.071 84.831
2300 0.075 84.695 0.996 -4.277 0.996 -4.277 0.075 84.695
2350 0.078 84.558 0.996 -4.454 0.996 -4.454 0.078 84.558
2400 0.081 84.419 0.995 -4.63 0.995 -4.63 0.081 84.419
2450 0.084 84.278 0.995 -4.804 0.995 -4.804 0.084 84.278
2500 0.087 84.137 0.995 -4.976 0.995 -4.976 0.087 84.137
2550 0.09 83.995 0.995 -5.146 0.995 -5.146 0.09 83.995
2600 0.093 83.852 0.994 -5.315 0.994 -5.315 0.093 83.852
2650 0.096 83.709 0.994 -5.483 0.994 -5.483 0.096 83.709
2700 0.098 83.565 0.994 -5.65 0.994 -5.65 0.098 83.565
2750 0.101 83.422 0.994 -5.815 0.994 -5.815 0.101 83.422
2800 0.104 83.278 0.993 -5.979 0.993 -5.979 0.104 83.278
2850 0.107 83.134 0.993 -6.142 0.993 -6.142 0.107 83.134
2900 0.11 82.99 0.993 -6.303 0.993 -6.303 0.11 82.99
2950 0.113 82.846 0.992 -6.464 0.992 -6.464 0.113 82.846
3000 0.115 82.702 0.992 -6.624 0.992 -6.624 0.115 82.702
3050 0.118 82.558 0.992 -6.783 0.992 -6.783 0.118 82.558
3100 0.121 82.414 0.991 -6.941 0.991 -6.941 0.121 82.414
3150 0.124 82.271 0.991 -7.098 0.991 -7.098 0.124 82.271
3200 0.126 82.127 0.991 -7.254 0.991 -7.254 0.126 82.127
3250 0.129 81.984 0.99 -7.41 0.99 -7.41 0.129 81.984
3300 0.132 81.841 0.99 -7.564 0.99 -7.564 0.132 81.841
3350 0.134 81.698 0.99 -7.718 0.99 -7.718 0.134 81.698
3400 0.137 81.555 0.989 -7.872 0.989 -7.872 0.137 81.555
3450 0.14 81.413 0.989 -8.024 0.989 -8.024 0.14 81.413
3500 0.142 81.271 0.988 -8.176 0.988 -8.176 0.142 81.271
3550 0.145 81.129 0.988 -8.328 0.988 -8.328 0.145 81.129
3600 0.147 80.987 0.988 -8.478 0.988 -8.478 0.147 80.987
3650 0.15 80.846 0.987 -8.628 0.987 -8.628 0.15 80.846
3700 0.153 80.705 0.987 -8.778 0.987 -8.778 0.153 80.705
3750 0.155 80.564 0.987 -8.927 0.987 -8.927 0.155 80.564
3800 0.158 80.423 0.986 -9.075 0.986 -9.075 0.158 80.423
3850 0.16 80.282 0.986 -9.223 0.986 -9.223 0.16 80.282
3900 0.163 80.142 0.985 -9.37 0.985 -9.37 0.163 80.142
3950 0.165 80.002 0.985 -9.517 0.985 -9.517 0.165 80.002
4000 0.168 79.863 0.984 -9.664 0.984 -9.664 0.168 79.863
4050 0.17 79.723 0.984 -9.81 0.984 -9.81 0.17 79.723
4100 0.173 79.584 0.984 -9.955 0.984 -9.955 0.173 79.584
4150 0.175 79.445 0.983 -10.1 0.983 -10.1 0.175 79.445
4200 0.178 79.306 0.983 -10.245 0.983 -10.245 0.178 79.306
4250 0.18 79.168 0.982 -10.389 0.982 -10.389 0.18 79.168
4300 0.183 79.03 0.982 -10.533 0.982 -10.533 0.183 79.03
4350 0.185 78.892 0.981 -10.676 0.981 -10.676 0.185 78.892
4400 0.188 78.754 0.981 -10.819 0.981 -10.819 0.188 78.754
4450 0.19 78.617 0.98 -10.961 0.98 -10.961 0.19 78.617
4500 0.193 78.479 0.98 -11.103 0.98 -11.103 0.193 78.479
4550 0.195 78.342 0.979 -11.245 0.979 -11.245 0.195 78.342
4600 0.197 78.206 0.979 -11.387 0.979 -11.387 0.197 78.206
4650 0.2 78.069 0.978 -11.528 0.978 -11.528 0.2 78.069
4700 0.202 77.933 0.978 -11.668 0.978 -11.668 0.202 77.933
4750 0.205 77.797 0.977 -11.808 0.977 -11.808 0.205 77.797
4800 0.207 77.661 0.977 -11.948 0.977 -11.948 0.207 77.661
4850 0.209 77.526 0.976 -12.088 0.976 -12.088 0.209 77.526
4900 0.212 77.39 0.976 -12.227 0.976 -12.227 0.212 77.39
4950 0.214 77.255 0.975 -12.366 0.975 -12.366 0.214 77.255
5000 0.217 77.12 0.975 -12.505 0.975 -12.505 0.217 77.12
5050 0.219 76.986 0.974 -12.643 0.974 -12.643 0.219 76.986
5100 0.221 76.851 0.974 -12.781 0.974 -12.781 0.221 76.851
5150 0.224 76.717 0.973 -12.919 0.973 -12.919 0.224 76.717
5200 0.226 76.583 0.973 -13.056 0.973 -13.056 0.226 76.583
5250 0.228 76.45 0.972 -13.193 0.972 -13.193 0.228 76.45
5300 0.231 76.316 0.972 -13.33 0.972 -13.33 0.231 76.316
5350 0.233 76.183 0.971 -13.466 0.971 -13.466 0.233 76.183
5400 0.235 76.05 0.971 -13.602 0.971 -13.602 0.235 76.05
5450 0.237 75.917 0.97 -13.738 0.97 -13.738 0.237 75.917
5500 0.24 75.784 0.969 -13.874 0.969 -13.874 0.24 75.784
5550 0.242 75.652 0.969 -14.009 0.969 -14.009 0.242 75.652
5600 0.244 75.52 0.968 -14.144 0.968 -14.144 0.244 75.52
5650 0.247 75.388 0.968 -14.279 0.968 -14.279 0.247 75.388
5700 0.249 75.256 0.967 -14.413 0.967 -14.413 0.249 75.256
5750 0.251 75.125 0.967 -14.547 0.967 -14.547 0.251 75.125
5800 0.253 74.994 0.966 -14.681 0.966 -14.681 0.253 74.994
5850 0.256 74.863 0.965 -14.815 0.965 -14.815 0.256 74.863
5900 0.258 74.732 0.965 -14.948 0.965 -14.948 0.258 74.732
5950 0.26 74.601 0.964 -15.081 0.964 -15.081 0.26 74.601
6000 0.262 74.471 0.964 -15.214 0.964 -15.214 0.262 74.471
6050 0.265 74.341 0.963 -15.346 0.963 -15.346 0.265 74.341
6100 0.267 74.211 0.962 -15.479 0.962 -15.479 0.267 74.211
6150 0.269 74.081 0.962 -15.611 0.962 -15.611 0.269 74.081
6200 0.271 73.952 0.961 -15.742 0.961 -15.742 0.271 73.952
6250 0.274 73.822 0.96 -15.874 0.96 -15.874 0.274 73.822
6300 0.276 73.693 0.96 -16.005 0.96 -16.005 0.276 73.693
6350 0.278 73.565 0.959 -16.136 0.959 -16.136 0.278 73.565
6400 0.28 73.436 0.959 -16.267 0.959 -16.267 0.28 73.436
6450 0.282 73.308 0.958 -16.397 0.958 -16.397 0.282 73.308
6500 0.284 73.179 0.957 -16.527 0.957 -16.527 0.284 73.179
6550 0.287 73.051 0.957 -16.657 0.957 -16.657 0.287 73.051
6600 0.289 72.924 0.956 -16.787 0.956 -16.787 0.289 72.924
6650 0.291 72.796 0.955 -16.916 0.955 -16.916 0.291 72.796
6700 0.293 72.669 0.955 -17.046 0.955 -17.046 0.293 72.669
6750 0.295 72.542 0.954 -17.175 0.954 -17.175 0.295 72.542
6800 0.297 72.415 0.953 -17.303 0.953 -17.303 0.297 72.415
6850 0.3 72.288 0.953 -17.432 0.953 -17.432 0.3 72.288
6900 0.302 72.162 0.952 -17.56 0.952 -17.56 0.302 72.162
6950 0.304 72.036 0.951 -17.688 0.951 -17.688 0.304 72.036
7000 0.306 71.91 0.951 -17.816 0.951 -17.816 0.306 71.91
7050 0.308 71.784 0.95 -17.943 0.95 -17.943 0.308 71.784
7100 0.31 71.658 0.949 -18.07 0.949 -18.07 0.31 71.658
7150 0.312 71.533 0.949 -18.197 0.949 -18.197 0.312 71.533
7200 0.314 71.408 0.948 -18.324 0.948 -18.324 0.314 71.408
7250 0.316 71.283 0.947 -18.45 0.947 -18.45 0.316 71.283
7300 0.319 71.158 0.946 -18.577 0.946 -18.577 0.319 71.158
7350 0.321 71.034 0.946 -18.703 0.946 -18.703 0.321 71.034
7400 0.323 70.909 0.945 -18.829 0.945 -18.829 0.323 70.909
7450 0.325 70.785 0.944 -18.954 0.944 -18.954 0.325 70.785
7500 0.327 70.661 0.944 -19.079 0.944 -19.079 0.327 70.661
7550 0.329 70.538 0.943 -19.204 0.943 -19.204 0.329 70.538
7600 0.331 70.414 0.942 -19.329 0.942 -19.329 0.331 70.414
7650 0.333 70.291 0.941 -19.454 0.941 -19.454 0.333 70.291
7700 0.335 70.168 0.941 -19.578 0.941 -19.578 0.335 70.168
7750 0.337 70.045 0.94 -19.702 0.94 -19.702 0.337 70.045
7800 0.339 69.923 0.939 -19.826 0.939 -19.826 0.339 69.923
7850 0.341 69.801 0.939 -19.95 0.939 -19.95 0.341 69.801
7900 0.343 69.679 0.938 -20.073 0.938 -20.073 0.343 69.679
7950 0.345 69.557 0.937 -20.196 0.937 -20.196 0.345 69.557
8000 0.347 69.435 0.936 -20.319 0.936 -20.319 0.347 69.435
8050 0.349 69.313 0.936 -20.442 0.936 -20.442 0.349 69.313
8100 0.351 69.192 0.935 -20.565 0.935 -20.565 0.351 69.192
8150 0.353 69.071 0.934 -20.687 0.934 -20.687 0.353 69.071
8200 0.355 68.95 0.933 -20.809 0.933 -20.809 0.355 68.95
8250 0.357 68.83 0.933 -20.931 0.933 -20.931 0.357 68.83
8300 0.359 68.709 0.932 -21.052 0.932 -21.052 0.359 68.709
8350 0.361 68.589 0.931 -21.173 0.931 -21.173 0.361 68.589
8400 0.363 68.469 0.93 -21.295 0.93 -21.295 0.363 68.469
8450 0.365 68.35 0.929 -21.415 0.929 -21.415 0.365 68.35
8500 0.367 68.23 0.929 -21.536 0.929 -21.536 0.367 68.23
8550 0.369 68.111 0.928 -21.656 0.928 -21.656 0.369 68.111
8600 0.371 67.992 0.927 -21.776 0.927 -21.776 0.371 67.992
8650 0.373 67.873 0.926 -21.896 0.926 -21.896 0.373 67.873
8700 0.375 67.754 0.926 -22.016 0.926 -22.016 0.375 67.754
8750 0.377 67.636 0.925 -22.136 0.925 -22.136 0.377 67.636
8800 0.379 67.518 0.924 -22.255 0.924 -22.255 0.379 67.518
8850 0.381 67.4 0.923 -22.374 0.923 -22.374 0.381 67.4
8900 0.383 67.282 0.922 -22.492 0.922 -22.492 0.383 67.282
8950 0.384 67.165 0.922 -22.611 0.922 -22.611 0.384 67.165
9000 0.386 67.047 0.921 -22.729 0.921 -22.729 0.386 67.047
9050 0.388 66.93 0.92 -22.847 0.92 -22.847 0.388 66.93
9100 0.39 66.813 0.919 -22.965 0.919 -22.965 0.39 66.813
9150 0.392 66.697 0.918 -23.083 0.918 -23.083 0.392 66.697
9200 0.394 66.58 0.918 -23.2 0.918 -23.2 0.394 66.58
9250 0.396 66.464 0.917 -23.317 0.917 -23.317 0.396 66.464
9300 0.398 66.348 0.916 -23.434 0.916 -23.434 0.398 66.348
9350 0.4 66.232 0.915 -23.551 0.915 -23.551 0.4 66.232
9400 0.401 66.117 0.914 -23.667 0.914 -23.667 0.401 66.117
9450 0.403 66.001 0.914 -23.783 0.914 -23.783 0.403 66.001
9500 0.405 65.886 0.913 -23.899 0.913 -23.899 0.405 65.886
9550 0.407 65.771 0.912 -24.015 0.912 -24.015 0.407 65.771
9600 0.409 65.657 0.911 -24.131 0.911 -24.131 0.409 65.657
9650 0.411 65.542 0.91 -24.246 0.91 -24.246 0.411 65.542
9700 0.412 65.428 0.909 -24.361 0.909 -24.361 0.412 65.428
9750 0.414 65.314 0.909 -24.476 0.909 -24.476 0.414 65.314
9800 0.416 65.2 0.908 -24.59 0.908 -24.59 0.416 65.2
9850 0.418 65.087 0.907 -24.705 0.907 -24.705 0.418 65.087
9900 0.42 64.973 0.906 -24.819 0.906 -24.819 0.42 64.973
9950 0.422 64.86 0.905 -24.933 0.905 -24.933 0.422 64.86
10000 0.423 64.747 0.904 -25.047 0.904 -25.047 0.423 64.747
10050 0.425 64.635 0.904 -25.16 0.904 -25.16 0.425 64.635
10100 0.427 64.522 0.903 -25.273 0.903 -25.273 0.427 64.522
10150 0.429 64.41 0.902 -25.386 0.902 -25.386 0.429 64.41
10200 0.43 64.298 0.901 -25.499 0.901 -25.499 0.43 64.298
10250 0.432 64.186 0.9 -25.611 0.9 -25.611 0.432 64.186
10300 0.434 64.075 0.899 -25.724 0.899 -25.724 0.434 64.075
10350 0.436 63.963 0.899 -25.836 0.899 -25.836 0.436 63.963
10400 0.438 63.852 0.898 -25.948 0.898 -25.948 0.438 63.852
10450 0.439 63.741 0.897 -26.059 0.897 -26.059 0.439 63.741
10500 0.441 63.631 0.896 -26.171 0.896 -26.171 0.441 63.631
10550 0.443 63.52 0.895 -26.282 0.895 -26.282 0.443 63.52
10600 0.445 63.41 0.894 -26.393 0.894 -26.393 0.445 63.41
10650 0.446 63.3 0.893 -26.503 0.893 -26.503 0.446 63.3
10700 0.448 63.19 0.893 -26.614 0.893 -26.614 0.448 63.19
10750 0.45 63.081 0.892 -26.724 0.892 -26.724 0.45 63.081
10800 0.451 62.971 0.891 -26.834 0.891 -26.834 0.451 62.971
10850 0.453 62.862 0.89 -26.944 0.89 -26.944 0.453 62.862
10900 0.455 62.753 0.889 -27.054 0.889 -27.054 0.455 62.753
10950 0.457 62.645 0.888 -27.163 0.888 -27.163 0.457 62.645
11000 0.458 62.536 0.887 -27.272 0.887 -27.272 0.458 62.536
11050 0.46 62.428 0.886 -27.381 0.886 -27.381 0.46 62.428
11100 0.462 62.32 0.886 -27.489 0.886 -27.489 0.462 62.32
11150 0.463 62.212 0.885 -27.598 0.885 -27.598 0.463 62.212
11200 0.465 62.104 0.884 -27.706 0.884 -27.706 0.465 62.104
11250 0.467 61.997 0.883 -27.814 0.883 -27.814 0.467 61.997
11300 0.468 61.89 0.882 -27.922 0.882 -27.922 0.468 61.89
11350 0.47 61.783 0.881 -28.029 0.881 -28.029 0.47 61.783
11400 0.472 61.676 0.88 -28.137 0.88 -28.137 0.472 61.676
11450 0.473 61.57 0.879 -28.244 0.879 -28.244 0.473 61.57
11500 0.475 61.464 0.879 -28.35 0.879 -28.35 0.475 61.464
11550 0.477 61.358 0.878 -28.457 0.878 -28.457 0.477 61.358
11600 0.478 61.252 0.877 -28.563 0.877 -28.563 0.478 61.252
11650 0.48 61.146 0.876 -28.67 0.876 -28.67 0.48 61.146
11700 0.481 61.041 0.875 -28.776 0.875 -28.776 0.481 61.041
11750 0.483 60.936 0.874 -28.881 0.874 -28.881 0.483 60.936
11800 0.485 60.831 0.873 -28.987 0.873 -28.987 0.485 60.831
11850 0.486 60.726 0.872 -29.092 0.872 -29.092 0.486 60.726
11900 0.488 60.622 0.871 -29.197 0.871 -29.197 0.488 60.622
11950 0.489 60.517 0.871 -29.302 0.871 -29.302 0.489 60.517
12000 0.491 60.413 0.87 -29.406 0.87 -29.406 0.491 60.413
12050 0.493 60.31 0.869 -29.511 0.869 -29.511 0.493 60.31
12100 0.494 60.206 0.868 -29.615 0.868 -29.615 0.494 60.206
12150 0.496 60.103 0.867 -29.719 0.867 -29.719 0.496 60.103
12200 0.497 59.999 0.866 -29.822 0.866 -29.822 0.497 59.999
12250 0.499 59.896 0.865 -29.926 0.865 -29.926 0.499 59.896
12300 0.5 59.794 0.864 -30.029 0.864 -30.029 0.5 59.794
12350 0.502 59.691 0.863 -30.132 0.863 -30.132 0.502 59.691
12400 0.504 59.589 0.862 -30.235 0.862 -30.235 0.504 59.589
12450 0.505 59.487 0.862 -30.337 0.862 -30.337 0.505 59.487
12500 0.507 59.385 0.861 -30.44 0.861 -30.44 0.507 59.385
12550 0.508 59.283 0.86 -30.542 0.86 -30.542 0.508 59.283
12600 0.51 59.182 0.859 -30.644 0.859 -30.644 0.51 59.182
12650 0.511 59.081 0.858 -30.745 0.858 -30.745 0.511 59.081
12700 0.513 58.98 0.857 -30.847 0.857 -30.847 0.513 58.98
12750 0.514 58.879 0.856 -30.948 0.856 -30.948 0.514 58.879
12800 0.516 58.779 0.855 -31.049 0.855 -31.049 0.516 58.779
12850 0.517 58.678 0.854 -31.15 0.854 -31.15 0.517 58.678
12900 0.519 58.578 0.853 -31.25 0.853 -31.25 0.519 58.578
12950 0.52 58.478 0.852 -31.351 0.852 -31.351 0.52 58.478
13000 0.522 58.379 0.852 -31.451 0.852 -31.451 0.522 58.379
13050 0.523 58.279 0.851 -31.551 0.851 -31.551 0.523 58.279
13100 0.525 58.18 0.85 -31.65 0.85 -31.65 0.525 58.18
13150 0.526 58.081 0.849 -31.75 0.849 -31.75 0.526 58.081
13200 0.528 57.982 0.848 -31.849 0.848 -31.849 0.528 57.982
13250 0.529 57.884 0.847 -31.948 0.847 -31.948 0.529 57.884
13300 0.531 57.785 0.846 -32.047 0.846 -32.047 0.531 57.785
13350 0.532 57.687 0.845 -32.145 0.845 -32.145 0.532 57.687
13400 0.534 57.589 0.844 -32.243 0.844 -32.243 0.534 57.589
13450 0.535 57.492 0.843 -32.342 0.843 -32.342 0.535 57.492
13500 0.536 57.394 0.842 -32.439 0.842 -32.439 0.536 57.394
13550 0.538 57.297 0.841 -32.537 0.841 -32.537 0.538 57.297
13600 0.539 57.2 0.841 -32.635 0.841 -32.635 0.539 57.2
13650 0.541 57.103 0.84 -32.732 0.84 -32.732 0.541 57.103
13700 0.542 57.007 0.839 -32.829 0.839 -32.829 0.542 57.007
13750 0.544 56.91 0.838 -32.926 0.838 -32.926 0.544 56.91
13800 0.545 56.814 0.837 -33.022 0.837 -33.022 0.545 56.814
13850 0.546 56.718 0.836 -33.119 0.836 -33.119 0.546 56.718
13900 0.548 56.622 0.835 -33.215 0.835 -33.215 0.548 56.622
13950 0.549 56.527 0.834 -33.311 0.834 -33.311 0.549 56.527
14000 0.551 56.431 0.833 -33.406 0.833 -33.406 0.551 56.431
14050 0.552 56.336 0.832 -33.502 0.832 -33.502 0.552 56.336
14100 0.553 56.241 0.831 -33.597 0.831 -33.597 0.553 56.241
14150 0.555 56.147 0.83 -33.692 0.83 -33.692 0.555 56.147
14200 0.556 56.052 0.83 -33.787 0.83 -33.787 0.556 56.052
14250 0.557 55.958 0.829 -33.882 0.829 -33.882 0.557 55.958
14300 0.559 55.864 0.828 -33.976 0.828 -33.976 0.559 55.864
14350 0.56 55.77 0.827 -34.07 0.827 -34.07 0.56 55.77
14400 0.562 55.676 0.826 -34.164 0.826 -34.164 0.562 55.676
14450 0.563 55.583 0.825 -34.258 0.825 -34.258 0.563 55.583
14500 0.564 55.49 0.824 -34.352 0.824 -34.352 0.564 55.49
14550 0.566 55.397 0.823 -34.445 0.823 -34.445 0.566 55.397
14600 0.567 55.304 0.822 -34.538 0.822 -34.538 0.567 55.304
14650 0.568 55.211 0.821 -34.631 0.821 -34.631 0.568 55.211
14700 0.57 55.119 0.82 -34.724 0.82 -34.724 0.57 55.119
14750 0.571 55.027 0.819 -34.816 0.819 -34.816 0.571 55.027
14800 0.572 54.935 0.819 -34.909 0.819 -34.909 0.572 54.935
14850 0.574 54.843 0.818 -35.001 0.818 -35.001 0.574 54.843
14900 0.575 54.752 0.817 -35.092 0.817 -35.092 0.575 54.752
14950 0.576 54.66 0.816 -35.184 0.816 -35.184 0.576 54.66
15000 0.578 54.569 0.815 -35.276 0.815 -35.276 0.578 54.569
15050 0.579 54.478 0.814 -35.367 0.814 -35.367 0.579 54.478
15100 0.58 54.388 0.813 -35.458 0.813 -35.458 0.58 54.388
15150 0.581 54.297 0.812 -35.549 0.812 -35.549 0.581 54.297
15200 0.583 54.207 0.811 -35.639 0.811 -35.639 0.583 54.207
15250 0.584 54.117 0.81 -35.73 0.81 -35.73 0.584 54.117
15300 0.585 54.027 0.809 -35.82 0.809 -35.82 0.585 54.027
15350 0.587 53.937 0.808 -35.91 0.808 -35.91 0.587 53.937
15400 0.588 53.848 0.807 -35.999 0.807 -35.999 0.588 53.848
15450 0.589 53.759 0.807 -36.089 0.807 -36.089 0.589 53.759
15500 0.59 53.67 0.806 -36.178 0.806 -36.178 0.59 53.67
15550 0.592 53.581 0.805 -36.267 0.805 -36.267 0.592 53.581
15600 0.593 53.492 0.804 -36.356 0.804 -36.356 0.593 53.492
15650 0.594 53.404 0.803 -36.445 0.803 -36.445 0.594 53.404
15700 0.595 53.316 0.802 -36.534 0.802 -36.534 0.595 53.316
15750 0.597 53.228 0.801 -36.622 0.801 -36.622 0.597 53.228
15800 0.598 53.14 0.8 -36.71 0.8 -36.71 0.598 53.14
15850 0.599 53.052 0.799 -36.798 0.799 -36.798 0.599 53.052
15900 0.6 52.965 0.798 -36.886 0.798 -36.886 0.6 52.965
15950 0.601 52.878 0.797 -36.973 0.797 -36.973 0.601 52.878
16000 0.603 52.791 0.796 -37.06 0.796 -37.06 0.603 52.791
16050 0.604 52.704 0.796 -37.147 0.796 -37.147 0.604 52.704
16100 0.605 52.617 0.795 -37.234 0.795 -37.234 0.605 52.617
16150 0.606 52.531 0.794 -37.321 0.794 -37.321 0.606 52.531
16200 0.607 52.445 0.793 -37.407 0.793 -37.407 0.607 52.445
16250 0.609 52.359 0.792 -37.494 0.792 -37.494 0.609 52.359
16300 0.61 52.273 0.791 -37.58 0.791 -37.58 0.61 52.273
16350 0.611 52.188 0.79 -37.666 0.79 -37.666 0.611 52.188
16400 0.612 52.102 0.789 -37.751 0.789 -37.751 0.612 52.102
16450 0.613 52.017 0.788 -37.837 0.788 -37.837 0.613 52.017
16500 0.615 51.932 0.787 -37.922 0.787 -37.922 0.615 51.932
16550 0.616 51.847 0.786 -38.007 0.786 -38.007 0.616 51.847
16600 0.617 51.763 0.785 -38.092 0.785 -38.092 0.617 51.763
16650 0.618 51.678 0.785 -38.177 0.785 -38.177 0.618 51.678
16700 0.619 51.594 0.784 -38.261 0.784 -38.261 0.619 51.594
16750 0.62 51.51 0.783 -38.345 0.783 -38.345 0.62 51.51
16800 0.622 51.426 0.782 -38.429 0.782 -38.429 0.622 51.426
16850 0.623 51.343 0.781 -38.513 0.781 -38.513 0.623 51.343
16900 0.624 51.259 0.78 -38.597 0.78 -38.597 0.624 51.259
16950 0.625 51.176 0.779 -38.68 0.779 -38.68 0.625 51.176
