! AVX Thin Film Operation		Date: April 2012 
! Description: Accu-P® Series, Thin Film, SMD, RF Capacitor
! Part Number: 08051J3R7ABTTR					
!	100	MHz	-	20.05	GHz			
!	Serial	Measurements						
!								
#	MHZ	S	MA	R	50			
!	S11	S21	S12	S22				
!	dB	Phase	dB	Phase	dB	Phase	dB	Phase
50 0.993 -6.631 0.115 83.297 0.115 83.297 0.993 -6.631
100 0.974 -13.097 0.227 76.815 0.227 76.815 0.974 -13.097
150 0.943 -19.258 0.33 70.639 0.33 70.639 0.943 -19.258
200 0.905 -25.012 0.423 64.869 0.423 64.869 0.905 -25.012
250 0.862 -30.304 0.505 59.562 0.505 59.562 0.862 -30.304
300 0.817 -35.113 0.575 54.737 0.575 54.737 0.817 -35.113
350 0.77 -39.45 0.635 50.384 0.635 50.384 0.77 -39.45
400 0.725 -43.345 0.686 46.473 0.686 46.473 0.725 -43.345
450 0.682 -46.834 0.729 42.967 0.729 42.967 0.682 -46.834
500 0.64 -49.961 0.766 39.824 0.766 39.824 0.64 -49.961
550 0.602 -52.766 0.796 37.001 0.796 37.001 0.602 -52.766
600 0.566 -55.288 0.822 34.461 0.822 34.461 0.566 -55.288
650 0.532 -57.563 0.844 32.169 0.844 32.169 0.532 -57.563
700 0.501 -59.621 0.863 30.092 0.863 30.092 0.501 -59.621
750 0.473 -61.49 0.879 28.204 0.879 28.204 0.473 -61.49
800 0.446 -63.193 0.893 26.482 0.893 26.482 0.446 -63.193
850 0.421 -64.75 0.904 24.905 0.904 24.905 0.421 -64.75
900 0.398 -66.178 0.915 23.456 0.915 23.456 0.398 -66.178
950 0.377 -67.493 0.924 22.119 0.924 22.119 0.377 -67.493
1000 0.356 -68.708 0.932 20.882 0.932 20.882 0.356 -68.708
1050 0.338 -69.833 0.939 19.733 0.939 19.733 0.338 -69.833
1100 0.32 -70.879 0.945 18.663 0.945 18.663 0.32 -70.879
1150 0.303 -71.854 0.95 17.664 0.95 17.664 0.303 -71.854
1200 0.288 -72.764 0.955 16.727 0.955 16.727 0.288 -72.764
1250 0.273 -73.617 0.959 15.847 0.959 15.847 0.273 -73.617
1300 0.259 -74.417 0.963 15.018 0.963 15.018 0.259 -74.417
1350 0.246 -75.169 0.967 14.235 0.967 14.235 0.246 -75.169
1400 0.233 -75.878 0.97 13.494 0.97 13.494 0.233 -75.878
1450 0.221 -76.548 0.973 12.791 0.973 12.791 0.221 -76.548
1500 0.21 -77.18 0.975 12.123 0.975 12.123 0.21 -77.18
1550 0.199 -77.779 0.977 11.486 0.977 11.486 0.199 -77.779
1600 0.189 -78.347 0.979 10.878 0.979 10.878 0.189 -78.347
1650 0.179 -78.885 0.981 10.297 0.981 10.297 0.179 -78.885
1700 0.169 -79.396 0.983 9.74 0.983 9.74 0.169 -79.396
1750 0.16 -79.881 0.985 9.206 0.985 9.206 0.16 -79.881
1800 0.151 -80.341 0.986 8.693 0.986 8.693 0.151 -80.341
1850 0.143 -80.778 0.987 8.198 0.987 8.198 0.143 -80.778
1900 0.134 -81.192 0.988 7.722 0.988 7.722 0.134 -81.192
1950 0.126 -81.583 0.989 7.262 0.989 7.262 0.126 -81.583
2000 0.119 -81.953 0.99 6.818 0.99 6.818 0.119 -81.953
2050 0.111 -82.301 0.991 6.388 0.991 6.388 0.111 -82.301
2100 0.104 -82.627 0.992 5.971 0.992 5.971 0.104 -82.627
2150 0.097 -82.93 0.993 5.567 0.993 5.567 0.097 -82.93
2200 0.09 -83.209 0.993 5.175 0.993 5.175 0.09 -83.209
2250 0.084 -83.463 0.994 4.793 0.994 4.793 0.084 -83.463
2300 0.077 -83.688 0.994 4.422 0.994 4.422 0.077 -83.688
2350 0.071 -83.882 0.995 4.061 0.995 4.061 0.071 -83.882
2400 0.065 -84.04 0.995 3.708 0.995 3.708 0.065 -84.04
2450 0.059 -84.155 0.996 3.365 0.996 3.365 0.059 -84.155
2500 0.053 -84.216 0.996 3.029 0.996 3.029 0.053 -84.216
2550 0.047 -84.211 0.996 2.701 0.996 2.701 0.047 -84.211
2600 0.042 -84.117 0.997 2.38 0.997 2.38 0.042 -84.117
2650 0.036 -83.901 0.997 2.066 0.997 2.066 0.036 -83.901
2700 0.031 -83.507 0.997 1.759 0.997 1.759 0.031 -83.507
2750 0.026 -82.836 0.997 1.457 0.997 1.457 0.026 -82.836
2800 0.02 -81.695 0.997 1.162 0.997 1.162 0.02 -81.695
2850 0.015 -79.648 0.997 0.872 0.997 0.872 0.015 -79.648
2900 0.011 -75.487 0.997 0.587 0.997 0.587 0.011 -75.487
2950 5.938e-3 -64.358 0.997 0.308 0.997 0.308 5.938e-3 -64.358
3000 2.604e-3 -12.592 0.997 0.033 0.997 0.033 2.604e-3 -12.592
3050 4.866e-3 58.28 0.997 -0.238 0.997 -0.238 4.866e-3 58.28
3100 9.152e-3 73.376 0.997 -0.504 0.997 -0.504 9.152e-3 73.376
3150 0.014 78.467 0.997 -0.766 0.997 -0.766 0.014 78.467
3200 0.018 80.88 0.997 -1.024 0.997 -1.024 0.018 80.88
3250 0.022 82.22 0.997 -1.278 0.997 -1.278 0.022 82.22
3300 0.027 83.028 0.997 -1.528 0.997 -1.528 0.027 83.028
3350 0.031 83.535 0.997 -1.775 0.997 -1.775 0.031 83.535
3400 0.035 83.855 0.997 -2.019 0.997 -2.019 0.035 83.855
3450 0.04 84.052 0.997 -2.259 0.997 -2.259 0.04 84.052
3500 0.044 84.164 0.997 -2.497 0.997 -2.497 0.044 84.164
3550 0.048 84.215 0.996 -2.731 0.996 -2.731 0.048 84.215
3600 0.052 84.221 0.996 -2.963 0.996 -2.963 0.052 84.221
3650 0.056 84.194 0.996 -3.192 0.996 -3.192 0.056 84.194
3700 0.06 84.14 0.996 -3.418 0.996 -3.418 0.06 84.14
3750 0.064 84.066 0.995 -3.642 0.995 -3.642 0.064 84.066
3800 0.067 83.975 0.995 -3.863 0.995 -3.863 0.067 83.975
3850 0.071 83.872 0.995 -4.082 0.995 -4.082 0.071 83.872
3900 0.075 83.758 0.995 -4.299 0.995 -4.299 0.075 83.758
3950 0.079 83.635 0.994 -4.513 0.994 -4.513 0.079 83.635
4000 0.082 83.506 0.994 -4.726 0.994 -4.726 0.082 83.506
4050 0.086 83.37 0.994 -4.936 0.994 -4.936 0.086 83.37
4100 0.09 83.23 0.993 -5.145 0.993 -5.145 0.09 83.23
4150 0.093 83.086 0.993 -5.351 0.993 -5.351 0.093 83.086
4200 0.097 82.938 0.993 -5.556 0.993 -5.556 0.097 82.938
4250 0.1 82.788 0.992 -5.759 0.992 -5.759 0.1 82.788
4300 0.104 82.636 0.992 -5.96 0.992 -5.96 0.104 82.636
4350 0.107 82.481 0.992 -6.159 0.992 -6.159 0.107 82.481
4400 0.111 82.326 0.991 -6.357 0.991 -6.357 0.111 82.326
4450 0.114 82.168 0.991 -6.553 0.991 -6.553 0.114 82.168
4500 0.118 82.01 0.991 -6.748 0.991 -6.748 0.118 82.01
4550 0.121 81.851 0.99 -6.941 0.99 -6.941 0.121 81.851
4600 0.124 81.692 0.99 -7.133 0.99 -7.133 0.124 81.692
4650 0.127 81.531 0.989 -7.324 0.989 -7.324 0.127 81.531
4700 0.131 81.371 0.989 -7.513 0.989 -7.513 0.131 81.371
4750 0.134 81.21 0.988 -7.7 0.988 -7.7 0.134 81.21
4800 0.137 81.049 0.988 -7.887 0.988 -7.887 0.137 81.049
4850 0.14 80.888 0.988 -8.072 0.988 -8.072 0.14 80.888
4900 0.144 80.727 0.987 -8.256 0.987 -8.256 0.144 80.727
4950 0.147 80.566 0.987 -8.439 0.987 -8.439 0.147 80.566
5000 0.15 80.405 0.986 -8.62 0.986 -8.62 0.15 80.405
5050 0.153 80.244 0.986 -8.801 0.986 -8.801 0.153 80.244
5100 0.156 80.084 0.985 -8.98 0.985 -8.98 0.156 80.084
5150 0.159 79.924 0.985 -9.158 0.985 -9.158 0.159 79.924
5200 0.162 79.764 0.984 -9.336 0.984 -9.336 0.162 79.764
5250 0.165 79.604 0.984 -9.512 0.984 -9.512 0.165 79.604
5300 0.168 79.444 0.983 -9.687 0.983 -9.687 0.168 79.444
5350 0.171 79.285 0.983 -9.861 0.983 -9.861 0.171 79.285
5400 0.174 79.127 0.982 -10.034 0.982 -10.034 0.174 79.127
5450 0.177 78.968 0.982 -10.207 0.982 -10.207 0.177 78.968
5500 0.18 78.81 0.981 -10.378 0.981 -10.378 0.18 78.81
5550 0.183 78.653 0.981 -10.548 0.981 -10.548 0.183 78.653
5600 0.186 78.496 0.98 -10.718 0.98 -10.718 0.186 78.496
5650 0.189 78.339 0.979 -10.887 0.979 -10.887 0.189 78.339
5700 0.192 78.183 0.979 -11.055 0.979 -11.055 0.192 78.183
5750 0.195 78.027 0.978 -11.222 0.978 -11.222 0.195 78.027
5800 0.197 77.871 0.978 -11.388 0.978 -11.388 0.197 77.871
5850 0.2 77.716 0.977 -11.553 0.977 -11.553 0.2 77.716
5900 0.203 77.562 0.977 -11.718 0.977 -11.718 0.203 77.562
5950 0.206 77.408 0.976 -11.882 0.976 -11.882 0.206 77.408
6000 0.209 77.254 0.975 -12.045 0.975 -12.045 0.209 77.254
6050 0.211 77.101 0.975 -12.207 0.975 -12.207 0.211 77.101
6100 0.214 76.948 0.974 -12.369 0.974 -12.369 0.214 76.948
6150 0.217 76.796 0.974 -12.53 0.974 -12.53 0.217 76.796
6200 0.22 76.644 0.973 -12.69 0.973 -12.69 0.22 76.644
6250 0.222 76.492 0.972 -12.849 0.972 -12.849 0.222 76.492
6300 0.225 76.341 0.972 -13.008 0.972 -13.008 0.225 76.341
6350 0.228 76.191 0.971 -13.166 0.971 -13.166 0.228 76.191
6400 0.23 76.041 0.971 -13.324 0.971 -13.324 0.23 76.041
6450 0.233 75.891 0.97 -13.481 0.97 -13.481 0.233 75.891
6500 0.236 75.742 0.969 -13.637 0.969 -13.637 0.236 75.742
6550 0.238 75.593 0.969 -13.793 0.969 -13.793 0.238 75.593
6600 0.241 75.445 0.968 -13.948 0.968 -13.948 0.241 75.445
6650 0.244 75.297 0.967 -14.102 0.967 -14.102 0.244 75.297
6700 0.246 75.15 0.967 -14.256 0.967 -14.256 0.246 75.15
6750 0.249 75.003 0.966 -14.409 0.966 -14.409 0.249 75.003
6800 0.251 74.856 0.965 -14.561 0.965 -14.561 0.251 74.856
6850 0.254 74.71 0.965 -14.713 0.965 -14.713 0.254 74.71
6900 0.257 74.564 0.964 -14.865 0.964 -14.865 0.257 74.564
6950 0.259 74.419 0.963 -15.016 0.963 -15.016 0.259 74.419
7000 0.262 74.274 0.963 -15.166 0.963 -15.166 0.262 74.274
7050 0.264 74.13 0.962 -15.316 0.962 -15.316 0.264 74.13
7100 0.267 73.986 0.961 -15.465 0.961 -15.465 0.267 73.986
7150 0.269 73.842 0.961 -15.614 0.961 -15.614 0.269 73.842
7200 0.272 73.699 0.96 -15.762 0.96 -15.762 0.272 73.699
7250 0.274 73.556 0.959 -15.91 0.959 -15.91 0.274 73.556
7300 0.277 73.414 0.958 -16.057 0.958 -16.057 0.277 73.414
7350 0.279 73.272 0.958 -16.203 0.958 -16.203 0.279 73.272
7400 0.282 73.13 0.957 -16.349 0.957 -16.349 0.282 73.13
7450 0.284 72.989 0.956 -16.495 0.956 -16.495 0.284 72.989
7500 0.286 72.848 0.956 -16.64 0.956 -16.64 0.286 72.848
7550 0.289 72.708 0.955 -16.785 0.955 -16.785 0.289 72.708
7600 0.291 72.568 0.954 -16.929 0.954 -16.929 0.291 72.568
7650 0.294 72.428 0.953 -17.073 0.953 -17.073 0.294 72.428
7700 0.296 72.289 0.953 -17.216 0.953 -17.216 0.296 72.289
7750 0.298 72.15 0.952 -17.359 0.952 -17.359 0.298 72.15
7800 0.301 72.012 0.951 -17.501 0.951 -17.501 0.301 72.012
7850 0.303 71.874 0.95 -17.643 0.95 -17.643 0.303 71.874
7900 0.305 71.736 0.95 -17.784 0.95 -17.784 0.305 71.736
7950 0.308 71.599 0.949 -17.925 0.949 -17.925 0.308 71.599
8000 0.31 71.462 0.948 -18.066 0.948 -18.066 0.31 71.462
8050 0.312 71.326 0.947 -18.206 0.947 -18.206 0.312 71.326
8100 0.315 71.19 0.947 -18.345 0.947 -18.345 0.315 71.19
8150 0.317 71.054 0.946 -18.484 0.946 -18.484 0.317 71.054
8200 0.319 70.918 0.945 -18.623 0.945 -18.623 0.319 70.918
8250 0.322 70.783 0.944 -18.761 0.944 -18.761 0.322 70.783
8300 0.324 70.649 0.944 -18.899 0.944 -18.899 0.324 70.649
8350 0.326 70.514 0.943 -19.037 0.943 -19.037 0.326 70.514
8400 0.328 70.381 0.942 -19.174 0.942 -19.174 0.328 70.381
8450 0.331 70.247 0.941 -19.31 0.941 -19.31 0.331 70.247
8500 0.333 70.114 0.94 -19.447 0.94 -19.447 0.333 70.114
8550 0.335 69.981 0.94 -19.582 0.94 -19.582 0.335 69.981
8600 0.337 69.848 0.939 -19.718 0.939 -19.718 0.337 69.848
8650 0.34 69.716 0.938 -19.853 0.938 -19.853 0.34 69.716
8700 0.342 69.584 0.937 -19.987 0.937 -19.987 0.342 69.584
8750 0.344 69.453 0.936 -20.122 0.936 -20.122 0.344 69.453
8800 0.346 69.322 0.936 -20.255 0.936 -20.255 0.346 69.322
8850 0.348 69.191 0.935 -20.389 0.935 -20.389 0.348 69.191
8900 0.351 69.061 0.934 -20.522 0.934 -20.522 0.351 69.061
8950 0.353 68.931 0.933 -20.655 0.933 -20.655 0.353 68.931
9000 0.355 68.801 0.932 -20.787 0.932 -20.787 0.355 68.801
9050 0.357 68.672 0.932 -20.919 0.932 -20.919 0.357 68.672
9100 0.359 68.543 0.931 -21.05 0.931 -21.05 0.359 68.543
9150 0.361 68.414 0.93 -21.182 0.93 -21.182 0.361 68.414
9200 0.363 68.286 0.929 -21.312 0.929 -21.312 0.363 68.286
9250 0.366 68.157 0.928 -21.443 0.928 -21.443 0.366 68.157
9300 0.368 68.03 0.927 -21.573 0.927 -21.573 0.368 68.03
9350 0.37 67.902 0.927 -21.702 0.927 -21.702 0.37 67.902
9400 0.372 67.775 0.926 -21.832 0.926 -21.832 0.372 67.775
9450 0.374 67.649 0.925 -21.961 0.925 -21.961 0.374 67.649
9500 0.376 67.522 0.924 -22.089 0.924 -22.089 0.376 67.522
9550 0.378 67.396 0.923 -22.218 0.923 -22.218 0.378 67.396
9600 0.38 67.271 0.922 -22.345 0.922 -22.345 0.38 67.271
9650 0.382 67.145 0.922 -22.473 0.922 -22.473 0.382 67.145
9700 0.384 67.02 0.921 -22.6 0.921 -22.6 0.384 67.02
9750 0.386 66.895 0.92 -22.727 0.92 -22.727 0.386 66.895
9800 0.388 66.771 0.919 -22.853 0.919 -22.853 0.388 66.771
9850 0.39 66.647 0.918 -22.98 0.918 -22.98 0.39 66.647
9900 0.392 66.523 0.917 -23.105 0.917 -23.105 0.392 66.523
9950 0.394 66.399 0.916 -23.231 0.916 -23.231 0.394 66.399
10000 0.396 66.276 0.916 -23.356 0.916 -23.356 0.396 66.276
10050 0.398 66.153 0.915 -23.481 0.915 -23.481 0.398 66.153
10100 0.4 66.031 0.914 -23.605 0.914 -23.605 0.4 66.031
10150 0.402 65.909 0.913 -23.729 0.913 -23.729 0.402 65.909
10200 0.404 65.787 0.912 -23.853 0.912 -23.853 0.404 65.787
10250 0.406 65.665 0.911 -23.976 0.911 -23.976 0.406 65.665
10300 0.408 65.544 0.91 -24.099 0.91 -24.099 0.408 65.544
10350 0.41 65.423 0.909 -24.222 0.909 -24.222 0.41 65.423
10400 0.412 65.302 0.909 -24.345 0.909 -24.345 0.412 65.302
10450 0.414 65.182 0.908 -24.467 0.908 -24.467 0.414 65.182
10500 0.416 65.062 0.907 -24.589 0.907 -24.589 0.416 65.062
10550 0.418 64.942 0.906 -24.71 0.906 -24.71 0.418 64.942
10600 0.42 64.822 0.905 -24.831 0.905 -24.831 0.42 64.822
10650 0.422 64.703 0.904 -24.952 0.904 -24.952 0.422 64.703
10700 0.424 64.584 0.903 -25.072 0.903 -25.072 0.424 64.584
10750 0.426 64.466 0.902 -25.193 0.902 -25.193 0.426 64.466
10800 0.428 64.347 0.901 -25.312 0.901 -25.312 0.428 64.347
10850 0.429 64.229 0.901 -25.432 0.901 -25.432 0.429 64.229
10900 0.431 64.112 0.9 -25.551 0.9 -25.551 0.431 64.112
10950 0.433 63.994 0.899 -25.67 0.899 -25.67 0.433 63.994
11000 0.435 63.877 0.898 -25.789 0.898 -25.789 0.435 63.877
11050 0.437 63.761 0.897 -25.907 0.897 -25.907 0.437 63.761
11100 0.439 63.644 0.896 -26.025 0.896 -26.025 0.439 63.644
11150 0.441 63.528 0.895 -26.143 0.895 -26.143 0.441 63.528
11200 0.442 63.412 0.894 -26.26 0.894 -26.26 0.442 63.412
11250 0.444 63.296 0.893 -26.377 0.893 -26.377 0.444 63.296
11300 0.446 63.181 0.892 -26.494 0.892 -26.494 0.446 63.181
11350 0.448 63.066 0.892 -26.61 0.892 -26.61 0.448 63.066
11400 0.45 62.951 0.891 -26.726 0.891 -26.726 0.45 62.951
11450 0.452 62.837 0.89 -26.842 0.89 -26.842 0.452 62.837
11500 0.453 62.723 0.889 -26.958 0.889 -26.958 0.453 62.723
11550 0.455 62.609 0.888 -27.073 0.888 -27.073 0.455 62.609
11600 0.457 62.495 0.887 -27.188 0.887 -27.188 0.457 62.495
11650 0.459 62.382 0.886 -27.302 0.886 -27.302 0.459 62.382
11700 0.46 62.269 0.885 -27.417 0.885 -27.417 0.46 62.269
11750 0.462 62.156 0.884 -27.531 0.884 -27.531 0.462 62.156
11800 0.464 62.044 0.883 -27.645 0.883 -27.645 0.464 62.044
11850 0.466 61.931 0.882 -27.758 0.882 -27.758 0.466 61.931
11900 0.467 61.819 0.881 -27.871 0.881 -27.871 0.467 61.819
11950 0.469 61.708 0.881 -27.984 0.881 -27.984 0.469 61.708
12000 0.471 61.597 0.88 -28.097 0.88 -28.097 0.471 61.597
12050 0.473 61.485 0.879 -28.209 0.879 -28.209 0.473 61.485
12100 0.474 61.375 0.878 -28.321 0.878 -28.321 0.474 61.375
12150 0.476 61.264 0.877 -28.432 0.877 -28.432 0.476 61.264
12200 0.478 61.154 0.876 -28.544 0.876 -28.544 0.478 61.154
12250 0.48 61.044 0.875 -28.655 0.875 -28.655 0.48 61.044
12300 0.481 60.934 0.874 -28.766 0.874 -28.766 0.481 60.934
12350 0.483 60.825 0.873 -28.876 0.873 -28.876 0.483 60.825
12400 0.485 60.716 0.872 -28.987 0.872 -28.987 0.485 60.716
12450 0.486 60.607 0.871 -29.097 0.871 -29.097 0.486 60.607
12500 0.488 60.498 0.87 -29.206 0.87 -29.206 0.488 60.498
12550 0.49 60.39 0.869 -29.316 0.869 -29.316 0.49 60.39
12600 0.491 60.282 0.868 -29.425 0.868 -29.425 0.491 60.282
12650 0.493 60.174 0.868 -29.534 0.868 -29.534 0.493 60.174
12700 0.495 60.067 0.867 -29.642 0.867 -29.642 0.495 60.067
12750 0.496 59.96 0.866 -29.75 0.866 -29.75 0.496 59.96
12800 0.498 59.853 0.865 -29.858 0.865 -29.858 0.498 59.853
12850 0.499 59.746 0.864 -29.966 0.864 -29.966 0.499 59.746
12900 0.501 59.639 0.863 -30.074 0.863 -30.074 0.501 59.639
12950 0.503 59.533 0.862 -30.181 0.862 -30.181 0.503 59.533
13000 0.504 59.427 0.861 -30.288 0.861 -30.288 0.504 59.427
13050 0.506 59.322 0.86 -30.394 0.86 -30.394 0.506 59.322
13100 0.508 59.216 0.859 -30.501 0.859 -30.501 0.508 59.216
13150 0.509 59.111 0.858 -30.607 0.858 -30.607 0.509 59.111
13200 0.511 59.007 0.857 -30.712 0.857 -30.712 0.511 59.007
13250 0.512 58.902 0.856 -30.818 0.856 -30.818 0.512 58.902
13300 0.514 58.798 0.855 -30.923 0.855 -30.923 0.514 58.798
13350 0.515 58.694 0.854 -31.028 0.854 -31.028 0.515 58.694
13400 0.517 58.59 0.853 -31.133 0.853 -31.133 0.517 58.59
13450 0.519 58.486 0.853 -31.237 0.853 -31.237 0.519 58.486
13500 0.52 58.383 0.852 -31.342 0.852 -31.342 0.52 58.383
13550 0.522 58.28 0.851 -31.446 0.851 -31.446 0.522 58.28
13600 0.523 58.177 0.85 -31.549 0.85 -31.549 0.523 58.177
13650 0.525 58.075 0.849 -31.653 0.849 -31.653 0.525 58.075
13700 0.526 57.973 0.848 -31.756 0.848 -31.756 0.526 57.973
13750 0.528 57.871 0.847 -31.859 0.847 -31.859 0.528 57.871
13800 0.529 57.769 0.846 -31.961 0.846 -31.961 0.529 57.769
13850 0.531 57.667 0.845 -32.063 0.845 -32.063 0.531 57.667
13900 0.532 57.566 0.844 -32.166 0.844 -32.166 0.532 57.566
13950 0.534 57.465 0.843 -32.267 0.843 -32.267 0.534 57.465
14000 0.535 57.365 0.842 -32.369 0.842 -32.369 0.535 57.365
14050 0.537 57.264 0.841 -32.47 0.841 -32.47 0.537 57.264
14100 0.538 57.164 0.84 -32.571 0.84 -32.571 0.538 57.164
14150 0.54 57.064 0.839 -32.672 0.839 -32.672 0.54 57.064
14200 0.541 56.964 0.838 -32.772 0.838 -32.772 0.541 56.964
14250 0.543 56.865 0.837 -32.873 0.837 -32.873 0.543 56.865
14300 0.544 56.766 0.836 -32.973 0.836 -32.973 0.544 56.766
14350 0.546 56.667 0.835 -33.072 0.835 -33.072 0.546 56.667
14400 0.547 56.568 0.835 -33.172 0.835 -33.172 0.547 56.568
14450 0.549 56.47 0.834 -33.271 0.834 -33.271 0.549 56.47
14500 0.55 56.371 0.833 -33.37 0.833 -33.37 0.55 56.371
14550 0.551 56.273 0.832 -33.469 0.832 -33.469 0.551 56.273
14600 0.553 56.176 0.831 -33.567 0.831 -33.567 0.553 56.176
14650 0.554 56.078 0.83 -33.666 0.83 -33.666 0.554 56.078
14700 0.556 55.981 0.829 -33.763 0.829 -33.763 0.556 55.981
14750 0.557 55.884 0.828 -33.861 0.828 -33.861 0.557 55.884
14800 0.559 55.787 0.827 -33.959 0.827 -33.959 0.559 55.787
14850 0.56 55.691 0.826 -34.056 0.826 -34.056 0.56 55.691
14900 0.561 55.595 0.825 -34.153 0.825 -34.153 0.561 55.595
14950 0.563 55.499 0.824 -34.25 0.824 -34.25 0.563 55.499
15000 0.564 55.403 0.823 -34.346 0.823 -34.346 0.564 55.403
15050 0.566 55.307 0.822 -34.442 0.822 -34.442 0.566 55.307
15100 0.567 55.212 0.821 -34.538 0.821 -34.538 0.567 55.212
15150 0.568 55.117 0.82 -34.634 0.82 -34.634 0.568 55.117
15200 0.57 55.022 0.819 -34.729 0.819 -34.729 0.57 55.022
15250 0.571 54.928 0.818 -34.825 0.818 -34.825 0.571 54.928
15300 0.572 54.833 0.817 -34.92 0.817 -34.92 0.572 54.833
15350 0.574 54.739 0.817 -35.014 0.817 -35.014 0.574 54.739
15400 0.575 54.645 0.816 -35.109 0.816 -35.109 0.575 54.645
15450 0.576 54.552 0.815 -35.203 0.815 -35.203 0.576 54.552
15500 0.578 54.458 0.814 -35.297 0.814 -35.297 0.578 54.458
15550 0.579 54.365 0.813 -35.391 0.813 -35.391 0.579 54.365
15600 0.58 54.272 0.812 -35.485 0.812 -35.485 0.58 54.272
15650 0.582 54.18 0.811 -35.578 0.811 -35.578 0.582 54.18
15700 0.583 54.087 0.81 -35.671 0.81 -35.671 0.583 54.087
15750 0.584 53.995 0.809 -35.764 0.809 -35.764 0.584 53.995
15800 0.586 53.903 0.808 -35.856 0.808 -35.856 0.586 53.903
15850 0.587 53.811 0.807 -35.949 0.807 -35.949 0.587 53.811
15900 0.588 53.72 0.806 -36.041 0.806 -36.041 0.588 53.72
15950 0.59 53.629 0.805 -36.133 0.805 -36.133 0.59 53.629
16000 0.591 53.538 0.804 -36.225 0.804 -36.225 0.591 53.538
16050 0.592 53.447 0.803 -36.316 0.803 -36.316 0.592 53.447
16100 0.594 53.356 0.802 -36.407 0.802 -36.407 0.594 53.356
16150 0.595 53.266 0.801 -36.498 0.801 -36.498 0.595 53.266
16200 0.596 53.176 0.8 -36.589 0.8 -36.589 0.596 53.176
16250 0.597 53.086 0.8 -36.679 0.8 -36.679 0.597 53.086
16300 0.599 52.996 0.799 -36.77 0.799 -36.77 0.599 52.996
16350 0.6 52.907 0.798 -36.86 0.798 -36.86 0.6 52.907
16400 0.601 52.818 0.797 -36.949 0.797 -36.949 0.601 52.818
16450 0.602 52.729 0.796 -37.039 0.796 -37.039 0.602 52.729
16500 0.604 52.64 0.795 -37.128 0.795 -37.128 0.604 52.64
16550 0.605 52.551 0.794 -37.217 0.794 -37.217 0.605 52.551
16600 0.606 52.463 0.793 -37.306 0.793 -37.306 0.606 52.463
16650 0.607 52.375 0.792 -37.395 0.792 -37.395 0.607 52.375
16700 0.609 52.287 0.791 -37.483 0.791 -37.483 0.609 52.287
16750 0.61 52.199 0.79 -37.572 0.79 -37.572 0.61 52.199
16800 0.611 52.112 0.789 -37.66 0.789 -37.66 0.611 52.112
16850 0.612 52.025 0.788 -37.747 0.788 -37.747 0.612 52.025
16900 0.613 51.938 0.787 -37.835 0.787 -37.835 0.613 51.938
