! AVX Thin Film Operation		Date: April 2012 
! Description: Accu-P® Series, Thin Film, SMD, RF Capacitor
! Part Number: 08053K680FBTTR					
!	100	MHz	-	20.05	GHz			
!	Serial	Measurements						
!								
#	MHZ	S	MA	R	50			
!	S11	S21	S12	S22				
!	dB	Phase	dB	Phase	dB	Phase	dB	Phase
50 0.421 -64.996 0.906 24.875 0.906 24.875 0.421 -64.996
74.938 0.293 -72.788 0.955 17.018 0.955 17.018 0.293 -72.788
99.875 0.221 -76.991 0.974 12.745 0.974 12.745 0.221 -76.991
124.813 0.175 -79.602 0.984 10.062 0.984 10.062 0.175 -79.602
149.75 0.143 -81.378 0.989 8.21 0.989 8.21 0.143 -81.378
174.688 0.119 -82.661 0.992 6.843 0.992 6.843 0.119 -82.661
199.625 0.101 -83.627 0.994 5.785 0.994 5.785 0.101 -83.627
224.563 0.086 -84.376 0.995 4.934 0.995 4.934 0.086 -84.376
249.5 0.074 -84.966 0.996 4.229 0.996 4.229 0.074 -84.966
274.438 0.063 -85.431 0.997 3.631 0.997 3.631 0.063 -85.431
299.375 0.054 -85.792 0.997 3.113 0.997 3.113 0.054 -85.792
324.313 0.046 -86.06 0.998 2.657 0.998 2.657 0.046 -86.06
349.25 0.039 -86.235 0.998 2.25 0.998 2.25 0.039 -86.235
374.188 0.033 -86.307 0.998 1.882 0.998 1.882 0.033 -86.307
399.125 0.027 -86.249 0.999 1.545 0.999 1.545 0.027 -86.249
424.063 0.022 -86.005 0.999 1.235 0.999 1.235 0.022 -86.005
449 0.017 -85.454 0.999 0.946 0.999 0.946 0.017 -85.454
473.938 0.012 -84.292 0.999 0.676 0.999 0.676 0.012 -84.292
498.875 7.432e-3 -81.542 0.999 0.422 0.999 0.422 7.432e-3 -81.542
523.813 3.319e-3 -71.579 0.999 0.181 0.999 0.181 3.319e-3 -71.579
548.75 1.343e-3 39.261 0.999 -0.049 0.999 -0.049 1.343e-3 39.261
573.688 4.792e-3 77.209 0.999 -0.268 0.999 -0.268 4.792e-3 77.209
598.625 8.415e-3 82.429 0.999 -0.478 0.999 -0.478 8.415e-3 82.429
623.563 0.012 84.324 0.999 -0.681 0.999 -0.681 0.012 84.324
648.5 0.015 85.239 0.999 -0.877 0.999 -0.877 0.015 85.239
673.438 0.019 85.739 0.999 -1.066 0.999 -1.066 0.019 85.739
698.375 0.022 86.024 0.999 -1.25 0.999 -1.25 0.022 86.024
723.313 0.025 86.186 0.999 -1.43 0.999 -1.43 0.025 86.186
748.25 0.028 86.271 0.999 -1.604 0.999 -1.604 0.028 86.271
773.188 0.031 86.305 0.998 -1.775 0.998 -1.775 0.031 86.305
798.125 0.034 86.303 0.998 -1.942 0.998 -1.942 0.034 86.303
823.063 0.037 86.276 0.998 -2.106 0.998 -2.106 0.037 86.276
848 0.04 86.23 0.998 -2.267 0.998 -2.267 0.04 86.23
872.938 0.042 86.17 0.998 -2.425 0.998 -2.425 0.042 86.17
897.875 0.045 86.099 0.998 -2.58 0.998 -2.58 0.045 86.099
922.813 0.048 86.02 0.998 -2.734 0.998 -2.734 0.048 86.02
947.75 0.05 85.934 0.998 -2.885 0.998 -2.885 0.05 85.934
972.688 0.053 85.843 0.998 -3.034 0.998 -3.034 0.053 85.843
997.625 0.055 85.748 0.997 -3.181 0.997 -3.181 0.055 85.748
1022.563 0.058 85.65 0.997 -3.326 0.997 -3.326 0.058 85.65
1047.5 0.061 85.548 0.997 -3.47 0.997 -3.47 0.061 85.548
1072.438 0.063 85.445 0.997 -3.612 0.997 -3.612 0.063 85.445
1097.375 0.065 85.339 0.997 -3.753 0.997 -3.753 0.065 85.339
1122.313 0.068 85.232 0.997 -3.893 0.997 -3.893 0.068 85.232
1147.25 0.07 85.124 0.996 -4.031 0.996 -4.031 0.07 85.124
1172.188 0.073 85.015 0.996 -4.169 0.996 -4.169 0.073 85.015
1197.125 0.075 84.904 0.996 -4.305 0.996 -4.305 0.075 84.904
1222.063 0.077 84.793 0.996 -4.44 0.996 -4.44 0.077 84.793
1247 0.08 84.682 0.996 -4.574 0.996 -4.574 0.08 84.682
1271.938 0.082 84.569 0.996 -4.708 0.996 -4.708 0.082 84.569
1296.875 0.084 84.457 0.995 -4.84 0.995 -4.84 0.084 84.457
1321.813 0.087 84.344 0.995 -4.972 0.995 -4.972 0.087 84.344
1346.75 0.089 84.231 0.995 -5.103 0.995 -5.103 0.089 84.231
1371.688 0.091 84.117 0.995 -5.233 0.995 -5.233 0.091 84.117
1396.625 0.093 84.003 0.995 -5.362 0.995 -5.362 0.093 84.003
1421.563 0.096 83.89 0.994 -5.491 0.994 -5.491 0.096 83.89
1446.5 0.098 83.776 0.994 -5.619 0.994 -5.619 0.098 83.776
1471.438 0.1 83.662 0.994 -5.747 0.994 -5.747 0.1 83.662
1496.375 0.102 83.547 0.994 -5.874 0.994 -5.874 0.102 83.547
1521.313 0.105 83.433 0.993 -6 0.993 -6 0.105 83.433
1546.25 0.107 83.319 0.993 -6.126 0.993 -6.126 0.107 83.319
1571.188 0.109 83.205 0.993 -6.252 0.993 -6.252 0.109 83.205
1596.125 0.111 83.091 0.993 -6.377 0.993 -6.377 0.111 83.091
1621.063 0.113 82.976 0.993 -6.501 0.993 -6.501 0.113 82.976
1646 0.115 82.862 0.992 -6.625 0.992 -6.625 0.115 82.862
1670.938 0.118 82.748 0.992 -6.749 0.992 -6.749 0.118 82.748
1695.875 0.12 82.634 0.992 -6.872 0.992 -6.872 0.12 82.634
1720.813 0.122 82.52 0.992 -6.995 0.992 -6.995 0.122 82.52
1745.75 0.124 82.406 0.991 -7.117 0.991 -7.117 0.124 82.406
1770.688 0.126 82.292 0.991 -7.239 0.991 -7.239 0.126 82.292
1795.625 0.128 82.178 0.991 -7.361 0.991 -7.361 0.128 82.178
1820.563 0.13 82.065 0.99 -7.482 0.99 -7.482 0.13 82.065
1845.5 0.132 81.951 0.99 -7.603 0.99 -7.603 0.132 81.951
1870.438 0.134 81.837 0.99 -7.724 0.99 -7.724 0.134 81.837
1895.375 0.136 81.724 0.99 -7.844 0.99 -7.844 0.136 81.724
1920.313 0.139 81.61 0.989 -7.964 0.989 -7.964 0.139 81.61
1945.25 0.141 81.497 0.989 -8.084 0.989 -8.084 0.141 81.497
1970.188 0.143 81.384 0.989 -8.203 0.989 -8.203 0.143 81.384
1995.125 0.145 81.271 0.988 -8.322 0.988 -8.322 0.145 81.271
2020.063 0.147 81.158 0.988 -8.441 0.988 -8.441 0.147 81.158
2045 0.149 81.045 0.988 -8.56 0.988 -8.56 0.149 81.045
2069.938 0.151 80.932 0.988 -8.678 0.988 -8.678 0.151 80.932
2094.875 0.153 80.819 0.987 -8.796 0.987 -8.796 0.153 80.819
2119.813 0.155 80.706 0.987 -8.914 0.987 -8.914 0.155 80.706
2144.75 0.157 80.594 0.987 -9.032 0.987 -9.032 0.157 80.594
2169.688 0.159 80.481 0.986 -9.149 0.986 -9.149 0.159 80.481
2194.625 0.161 80.369 0.986 -9.266 0.986 -9.266 0.161 80.369
2219.563 0.163 80.257 0.986 -9.383 0.986 -9.383 0.163 80.257
2244.5 0.165 80.145 0.985 -9.5 0.985 -9.5 0.165 80.145
2269.438 0.167 80.033 0.985 -9.616 0.985 -9.616 0.167 80.033
2294.375 0.169 79.921 0.985 -9.732 0.985 -9.732 0.169 79.921
2319.313 0.171 79.809 0.984 -9.848 0.984 -9.848 0.171 79.809
2344.25 0.173 79.697 0.984 -9.964 0.984 -9.964 0.173 79.697
2369.188 0.175 79.586 0.984 -10.08 0.984 -10.08 0.175 79.586
2394.125 0.177 79.474 0.983 -10.195 0.983 -10.195 0.177 79.474
2419.063 0.179 79.363 0.983 -10.31 0.983 -10.31 0.179 79.363
2444 0.181 79.251 0.982 -10.425 0.982 -10.425 0.181 79.251
2468.938 0.183 79.14 0.982 -10.54 0.982 -10.54 0.183 79.14
2493.875 0.185 79.029 0.982 -10.654 0.982 -10.654 0.185 79.029
2518.813 0.187 78.918 0.981 -10.769 0.981 -10.769 0.187 78.918
2543.75 0.189 78.807 0.981 -10.883 0.981 -10.883 0.189 78.807
2568.688 0.191 78.697 0.981 -10.997 0.981 -10.997 0.191 78.697
2593.625 0.193 78.586 0.98 -11.111 0.98 -11.111 0.193 78.586
2618.563 0.195 78.476 0.98 -11.224 0.98 -11.224 0.195 78.476
2643.5 0.197 78.365 0.979 -11.338 0.979 -11.338 0.197 78.365
2668.438 0.199 78.255 0.979 -11.451 0.979 -11.451 0.199 78.255
2693.375 0.2 78.145 0.979 -11.564 0.979 -11.564 0.2 78.145
2718.313 0.202 78.035 0.978 -11.677 0.978 -11.677 0.202 78.035
2743.25 0.204 77.925 0.978 -11.79 0.978 -11.79 0.204 77.925
2768.188 0.206 77.815 0.977 -11.903 0.977 -11.903 0.206 77.815
2793.125 0.208 77.705 0.977 -12.015 0.977 -12.015 0.208 77.705
2818.063 0.21 77.596 0.977 -12.127 0.977 -12.127 0.21 77.596
2843 0.212 77.486 0.976 -12.239 0.976 -12.239 0.212 77.486
2867.938 0.214 77.377 0.976 -12.351 0.976 -12.351 0.214 77.377
2892.875 0.216 77.268 0.975 -12.463 0.975 -12.463 0.216 77.268
2917.813 0.218 77.158 0.975 -12.575 0.975 -12.575 0.218 77.158
2942.75 0.22 77.049 0.975 -12.686 0.975 -12.686 0.22 77.049
2967.688 0.222 76.94 0.974 -12.797 0.974 -12.797 0.222 76.94
2992.625 0.223 76.832 0.974 -12.909 0.974 -12.909 0.223 76.832
3017.563 0.225 76.723 0.973 -13.02 0.973 -13.02 0.225 76.723
3042.5 0.227 76.614 0.973 -13.13 0.973 -13.13 0.227 76.614
3067.438 0.229 76.506 0.972 -13.241 0.972 -13.241 0.229 76.506
3092.375 0.231 76.398 0.972 -13.351 0.972 -13.351 0.231 76.398
3117.313 0.233 76.289 0.972 -13.462 0.972 -13.462 0.233 76.289
3142.25 0.235 76.181 0.971 -13.572 0.971 -13.572 0.235 76.181
3167.188 0.237 76.073 0.971 -13.682 0.971 -13.682 0.237 76.073
3192.125 0.238 75.965 0.97 -13.792 0.97 -13.792 0.238 75.965
3217.063 0.24 75.858 0.97 -13.902 0.97 -13.902 0.24 75.858
3242 0.242 75.75 0.969 -14.011 0.969 -14.011 0.242 75.75
3266.938 0.244 75.643 0.969 -14.121 0.969 -14.121 0.244 75.643
3291.875 0.246 75.535 0.968 -14.23 0.968 -14.23 0.246 75.535
3316.813 0.248 75.428 0.968 -14.339 0.968 -14.339 0.248 75.428
3341.75 0.25 75.321 0.967 -14.448 0.967 -14.448 0.25 75.321
3366.688 0.251 75.214 0.967 -14.557 0.967 -14.557 0.251 75.214
3391.625 0.253 75.107 0.966 -14.666 0.966 -14.666 0.253 75.107
3416.563 0.255 75 0.966 -14.774 0.966 -14.774 0.255 75
3441.5 0.257 74.893 0.965 -14.883 0.965 -14.883 0.257 74.893
3466.438 0.259 74.787 0.965 -14.991 0.965 -14.991 0.259 74.787
3491.375 0.26 74.68 0.964 -15.099 0.964 -15.099 0.26 74.68
3516.313 0.262 74.574 0.964 -15.207 0.964 -15.207 0.262 74.574
3541.25 0.264 74.468 0.963 -15.315 0.963 -15.315 0.264 74.468
3566.188 0.266 74.362 0.963 -15.422 0.963 -15.422 0.266 74.362
3591.125 0.268 74.256 0.962 -15.53 0.962 -15.53 0.268 74.256
3616.063 0.27 74.15 0.962 -15.637 0.962 -15.637 0.27 74.15
3641 0.271 74.044 0.961 -15.745 0.961 -15.745 0.271 74.044
3665.938 0.273 73.939 0.961 -15.852 0.961 -15.852 0.273 73.939
3690.875 0.275 73.833 0.96 -15.959 0.96 -15.959 0.275 73.833
3715.813 0.277 73.728 0.96 -16.065 0.96 -16.065 0.277 73.728
3740.75 0.279 73.623 0.959 -16.172 0.959 -16.172 0.279 73.623
3765.688 0.28 73.518 0.959 -16.279 0.959 -16.279 0.28 73.518
3790.625 0.282 73.413 0.958 -16.385 0.958 -16.385 0.282 73.413
3815.563 0.284 73.308 0.958 -16.491 0.958 -16.491 0.284 73.308
3840.5 0.286 73.203 0.957 -16.597 0.957 -16.597 0.286 73.203
3865.438 0.287 73.098 0.957 -16.703 0.957 -16.703 0.287 73.098
3890.375 0.289 72.994 0.956 -16.809 0.956 -16.809 0.289 72.994
3915.313 0.291 72.89 0.956 -16.915 0.956 -16.915 0.291 72.89
3940.25 0.293 72.785 0.955 -17.02 0.955 -17.02 0.293 72.785
3965.188 0.294 72.681 0.955 -17.125 0.955 -17.125 0.294 72.681
3990.125 0.296 72.577 0.954 -17.231 0.954 -17.231 0.296 72.577
4015.063 0.298 72.474 0.954 -17.336 0.954 -17.336 0.298 72.474
4040 0.3 72.37 0.953 -17.441 0.953 -17.441 0.3 72.37
4064.938 0.301 72.266 0.952 -17.545 0.952 -17.545 0.301 72.266
4089.875 0.303 72.163 0.952 -17.65 0.952 -17.65 0.303 72.163
4114.813 0.305 72.06 0.951 -17.755 0.951 -17.755 0.305 72.06
4139.75 0.307 71.956 0.951 -17.859 0.951 -17.859 0.307 71.956
4164.688 0.308 71.853 0.95 -17.963 0.95 -17.963 0.308 71.853
4189.625 0.31 71.75 0.95 -18.067 0.95 -18.067 0.31 71.75
4214.563 0.312 71.648 0.949 -18.171 0.949 -18.171 0.312 71.648
4239.5 0.314 71.545 0.949 -18.275 0.949 -18.275 0.314 71.545
4264.438 0.315 71.442 0.948 -18.378 0.948 -18.378 0.315 71.442
4289.375 0.317 71.34 0.947 -18.482 0.947 -18.482 0.317 71.34
4314.313 0.319 71.238 0.947 -18.585 0.947 -18.585 0.319 71.238
4339.25 0.32 71.135 0.946 -18.688 0.946 -18.688 0.32 71.135
4364.188 0.322 71.033 0.946 -18.792 0.946 -18.792 0.322 71.033
4389.125 0.324 70.932 0.945 -18.894 0.945 -18.894 0.324 70.932
4414.063 0.326 70.83 0.945 -18.997 0.945 -18.997 0.326 70.83
4439 0.327 70.728 0.944 -19.1 0.944 -19.1 0.327 70.728
4463.938 0.329 70.627 0.943 -19.202 0.943 -19.202 0.329 70.627
4488.875 0.331 70.525 0.943 -19.305 0.943 -19.305 0.331 70.525
4513.813 0.332 70.424 0.942 -19.407 0.942 -19.407 0.332 70.424
4538.75 0.334 70.323 0.942 -19.509 0.942 -19.509 0.334 70.323
4563.688 0.336 70.222 0.941 -19.611 0.941 -19.611 0.336 70.222
4588.625 0.337 70.121 0.94 -19.713 0.94 -19.713 0.337 70.121
4613.563 0.339 70.021 0.94 -19.814 0.94 -19.814 0.339 70.021
4638.5 0.341 69.92 0.939 -19.916 0.939 -19.916 0.341 69.92
4663.438 0.342 69.82 0.939 -20.017 0.939 -20.017 0.342 69.82
4688.375 0.344 69.719 0.938 -20.118 0.938 -20.118 0.344 69.719
4713.313 0.346 69.619 0.937 -20.219 0.937 -20.219 0.346 69.619
4738.25 0.347 69.519 0.937 -20.32 0.937 -20.32 0.347 69.519
4763.188 0.349 69.419 0.936 -20.421 0.936 -20.421 0.349 69.419
4788.125 0.351 69.319 0.936 -20.521 0.936 -20.521 0.351 69.319
4813.063 0.352 69.22 0.935 -20.622 0.935 -20.622 0.352 69.22
4838 0.354 69.12 0.934 -20.722 0.934 -20.722 0.354 69.12
4862.938 0.355 69.021 0.934 -20.822 0.934 -20.822 0.355 69.021
4887.875 0.357 68.922 0.933 -20.922 0.933 -20.922 0.357 68.922
4912.813 0.359 68.823 0.932 -21.022 0.932 -21.022 0.359 68.823
4937.75 0.36 68.724 0.932 -21.122 0.932 -21.122 0.36 68.724
4962.688 0.362 68.625 0.931 -21.222 0.931 -21.222 0.362 68.625
4987.625 0.364 68.526 0.931 -21.321 0.931 -21.321 0.364 68.526
5012.563 0.365 68.428 0.93 -21.42 0.93 -21.42 0.365 68.428
5037.5 0.367 68.33 0.929 -21.519 0.929 -21.519 0.367 68.33
5062.438 0.368 68.231 0.929 -21.618 0.929 -21.618 0.368 68.231
5087.375 0.37 68.133 0.928 -21.717 0.928 -21.717 0.37 68.133
5112.313 0.372 68.035 0.927 -21.816 0.927 -21.816 0.372 68.035
5137.25 0.373 67.937 0.927 -21.915 0.927 -21.915 0.373 67.937
5162.188 0.375 67.84 0.926 -22.013 0.926 -22.013 0.375 67.84
5187.125 0.376 67.742 0.925 -22.111 0.925 -22.111 0.376 67.742
5212.063 0.378 67.645 0.925 -22.209 0.925 -22.209 0.378 67.645
5237 0.38 67.548 0.924 -22.307 0.924 -22.307 0.38 67.548
5261.938 0.381 67.45 0.924 -22.405 0.924 -22.405 0.381 67.45
5286.875 0.383 67.353 0.923 -22.503 0.923 -22.503 0.383 67.353
5311.813 0.384 67.257 0.922 -22.6 0.922 -22.6 0.384 67.257
5336.75 0.386 67.16 0.922 -22.698 0.922 -22.698 0.386 67.16
5361.688 0.387 67.063 0.921 -22.795 0.921 -22.795 0.387 67.063
5386.625 0.389 66.967 0.92 -22.892 0.92 -22.892 0.389 66.967
5411.563 0.391 66.871 0.92 -22.989 0.92 -22.989 0.391 66.871
5436.5 0.392 66.775 0.919 -23.086 0.919 -23.086 0.392 66.775
5461.438 0.394 66.679 0.918 -23.182 0.918 -23.182 0.394 66.679
5486.375 0.395 66.583 0.918 -23.279 0.918 -23.279 0.395 66.583
5511.313 0.397 66.487 0.917 -23.375 0.917 -23.375 0.397 66.487
5536.25 0.398 66.391 0.916 -23.471 0.916 -23.471 0.398 66.391
5561.188 0.4 66.296 0.916 -23.567 0.916 -23.567 0.4 66.296
5586.125 0.401 66.201 0.915 -23.663 0.915 -23.663 0.401 66.201
5611.063 0.403 66.106 0.914 -23.759 0.914 -23.759 0.403 66.106
5636 0.404 66.011 0.914 -23.855 0.914 -23.855 0.404 66.011
5660.938 0.406 65.916 0.913 -23.95 0.913 -23.95 0.406 65.916
5685.875 0.407 65.821 0.912 -24.045 0.912 -24.045 0.407 65.821
5710.813 0.409 65.727 0.912 -24.141 0.912 -24.141 0.409 65.727
5735.75 0.41 65.632 0.911 -24.236 0.911 -24.236 0.41 65.632
5760.688 0.412 65.538 0.91 -24.33 0.91 -24.33 0.412 65.538
5785.625 0.414 65.444 0.91 -24.425 0.91 -24.425 0.414 65.444
5810.563 0.415 65.35 0.909 -24.52 0.909 -24.52 0.415 65.35
5835.5 0.417 65.256 0.908 -24.614 0.908 -24.614 0.417 65.256
5860.438 0.418 65.162 0.908 -24.708 0.908 -24.708 0.418 65.162
5885.375 0.419 65.069 0.907 -24.803 0.907 -24.803 0.419 65.069
5910.313 0.421 64.975 0.906 -24.896 0.906 -24.896 0.421 64.975
5935.25 0.422 64.882 0.905 -24.99 0.905 -24.99 0.422 64.882
5960.188 0.424 64.789 0.905 -25.084 0.905 -25.084 0.424 64.789
5985.125 0.425 64.696 0.904 -25.177 0.904 -25.177 0.425 64.696
6010.063 0.427 64.603 0.903 -25.271 0.903 -25.271 0.427 64.603
6035 0.428 64.51 0.903 -25.364 0.903 -25.364 0.428 64.51
6059.938 0.43 64.418 0.902 -25.457 0.902 -25.457 0.43 64.418
6084.875 0.431 64.325 0.901 -25.55 0.901 -25.55 0.431 64.325
6109.813 0.433 64.233 0.901 -25.643 0.901 -25.643 0.433 64.233
6134.75 0.434 64.141 0.9 -25.735 0.9 -25.735 0.434 64.141
6159.688 0.436 64.049 0.899 -25.828 0.899 -25.828 0.436 64.049
6184.625 0.437 63.957 0.898 -25.92 0.898 -25.92 0.437 63.957
6209.563 0.439 63.866 0.898 -26.012 0.898 -26.012 0.439 63.866
6234.5 0.44 63.774 0.897 -26.104 0.897 -26.104 0.44 63.774
6259.438 0.441 63.683 0.896 -26.196 0.896 -26.196 0.441 63.683
6284.375 0.443 63.591 0.896 -26.288 0.896 -26.288 0.443 63.591
6309.313 0.444 63.5 0.895 -26.38 0.895 -26.38 0.444 63.5
6334.25 0.446 63.409 0.894 -26.471 0.894 -26.471 0.446 63.409
6359.188 0.447 63.319 0.894 -26.562 0.894 -26.562 0.447 63.319
6384.125 0.449 63.228 0.893 -26.653 0.893 -26.653 0.449 63.228
6409.063 0.45 63.138 0.892 -26.744 0.892 -26.744 0.45 63.138
6434 0.451 63.047 0.891 -26.835 0.891 -26.835 0.451 63.047
6458.938 0.453 62.957 0.891 -26.926 0.891 -26.926 0.453 62.957
6483.875 0.454 62.867 0.89 -27.016 0.89 -27.016 0.454 62.867
6508.813 0.456 62.777 0.889 -27.107 0.889 -27.107 0.456 62.777
6533.75 0.457 62.687 0.889 -27.197 0.889 -27.197 0.457 62.687
6558.688 0.458 62.598 0.888 -27.287 0.888 -27.287 0.458 62.598
6583.625 0.46 62.508 0.887 -27.377 0.887 -27.377 0.46 62.508
6608.563 0.461 62.419 0.886 -27.467 0.886 -27.467 0.461 62.419
6633.5 0.463 62.33 0.886 -27.556 0.886 -27.556 0.463 62.33
6658.438 0.464 62.241 0.885 -27.646 0.885 -27.646 0.464 62.241
6683.375 0.465 62.152 0.884 -27.735 0.884 -27.735 0.465 62.152
6708.313 0.467 62.063 0.883 -27.824 0.883 -27.824 0.467 62.063
6733.25 0.468 61.974 0.883 -27.913 0.883 -27.913 0.468 61.974
6758.188 0.47 61.886 0.882 -28.002 0.882 -28.002 0.47 61.886
6783.125 0.471 61.798 0.881 -28.091 0.881 -28.091 0.471 61.798
6808.063 0.472 61.71 0.881 -28.179 0.881 -28.179 0.472 61.71
6833 0.474 61.622 0.88 -28.268 0.88 -28.268 0.474 61.622
6857.938 0.475 61.534 0.879 -28.356 0.879 -28.356 0.475 61.534
6882.875 0.476 61.446 0.878 -28.444 0.878 -28.444 0.476 61.446
6907.813 0.478 61.359 0.878 -28.532 0.878 -28.532 0.478 61.359
6932.75 0.479 61.271 0.877 -28.62 0.877 -28.62 0.479 61.271
6957.688 0.48 61.184 0.876 -28.707 0.876 -28.707 0.48 61.184
6982.625 0.482 61.097 0.875 -28.795 0.875 -28.795 0.482 61.097
7007.563 0.483 61.01 0.875 -28.882 0.875 -28.882 0.483 61.01
7032.5 0.484 60.923 0.874 -28.969 0.874 -28.969 0.484 60.923
7057.438 0.486 60.836 0.873 -29.056 0.873 -29.056 0.486 60.836
7082.375 0.487 60.75 0.872 -29.143 0.872 -29.143 0.487 60.75
7107.313 0.488 60.663 0.872 -29.23 0.872 -29.23 0.488 60.663
7132.25 0.49 60.577 0.871 -29.317 0.871 -29.317 0.49 60.577
7157.188 0.491 60.491 0.87 -29.403 0.87 -29.403 0.491 60.491
7182.125 0.492 60.405 0.87 -29.49 0.87 -29.49 0.492 60.405
7207.063 0.494 60.319 0.869 -29.576 0.869 -29.576 0.494 60.319
7232 0.495 60.234 0.868 -29.662 0.868 -29.662 0.495 60.234
7256.938 0.496 60.148 0.867 -29.748 0.867 -29.748 0.496 60.148
7281.875 0.497 60.063 0.867 -29.833 0.867 -29.833 0.497 60.063
7306.813 0.499 59.978 0.866 -29.919 0.866 -29.919 0.499 59.978
7331.75 0.5 59.893 0.865 -30.004 0.865 -30.004 0.5 59.893
7356.688 0.501 59.808 0.864 -30.089 0.864 -30.089 0.501 59.808
7381.625 0.503 59.723 0.864 -30.175 0.864 -30.175 0.503 59.723
7406.563 0.504 59.638 0.863 -30.259 0.863 -30.259 0.504 59.638
7431.5 0.505 59.554 0.862 -30.344 0.862 -30.344 0.505 59.554
7456.438 0.506 59.47 0.861 -30.429 0.861 -30.429 0.506 59.47
7481.375 0.508 59.386 0.861 -30.513 0.861 -30.513 0.508 59.386
7506.313 0.509 59.302 0.86 -30.598 0.86 -30.598 0.509 59.302
7531.25 0.51 59.218 0.859 -30.682 0.859 -30.682 0.51 59.218
7556.188 0.512 59.134 0.858 -30.766 0.858 -30.766 0.512 59.134
7581.125 0.513 59.05 0.858 -30.85 0.858 -30.85 0.513 59.05
7606.063 0.514 58.967 0.857 -30.934 0.857 -30.934 0.514 58.967
7631 0.515 58.884 0.856 -31.017 0.856 -31.017 0.515 58.884
7655.938 0.517 58.801 0.855 -31.101 0.855 -31.101 0.517 58.801
7680.875 0.518 58.718 0.855 -31.184 0.855 -31.184 0.518 58.718
7705.813 0.519 58.635 0.854 -31.267 0.854 -31.267 0.519 58.635
7730.75 0.52 58.552 0.853 -31.35 0.853 -31.35 0.52 58.552
7755.688 0.522 58.469 0.852 -31.433 0.852 -31.433 0.522 58.469
7780.625 0.523 58.387 0.852 -31.516 0.852 -31.516 0.523 58.387
7805.563 0.524 58.305 0.851 -31.598 0.851 -31.598 0.524 58.305
7830.5 0.525 58.223 0.85 -31.681 0.85 -31.681 0.525 58.223
7855.438 0.526 58.141 0.849 -31.763 0.849 -31.763 0.526 58.141
7880.375 0.528 58.059 0.849 -31.845 0.849 -31.845 0.528 58.059
7905.313 0.529 57.977 0.848 -31.927 0.848 -31.927 0.529 57.977
7930.25 0.53 57.896 0.847 -32.009 0.847 -32.009 0.53 57.896
7955.188 0.531 57.814 0.846 -32.091 0.846 -32.091 0.531 57.814
7980.125 0.532 57.733 0.846 -32.172 0.846 -32.172 0.532 57.733
8005.063 0.534 57.652 0.845 -32.253 0.845 -32.253 0.534 57.652
8030 0.535 57.571 0.844 -32.335 0.844 -32.335 0.535 57.571
8054.938 0.536 57.49 0.843 -32.416 0.843 -32.416 0.536 57.49
8079.875 0.537 57.41 0.843 -32.497 0.843 -32.497 0.537 57.41
