! AVX Thin Film Operation		Date: April 2012 
! Description: Accu-P® Series, Thin Film, SMD, RF Capacitor
! Part Number: 08051J1R3PBTTR					
!	100	MHz	-	20.05	GHz			
!	Serial	Measurements						
!								
#	MHZ	S	MA	R	50			
!	S11	S21	S12	S22				
!	dB	Phase	dB	Phase	dB	Phase	dB	Phase
50 0.999 -2.339 0.041 87.593 0.041 87.593 0.999 -2.339
100 0.997 -4.671 0.081 85.251 0.081 85.251 0.997 -4.671
150 0.992 -6.99 0.122 82.921 0.122 82.921 0.992 -6.99
200 0.987 -9.29 0.161 80.611 0.161 80.611 0.987 -9.29
250 0.979 -11.564 0.2 78.326 0.2 78.326 0.979 -11.564
300 0.971 -13.808 0.239 76.071 0.239 76.071 0.971 -13.808
350 0.961 -16.017 0.276 73.852 0.276 73.852 0.961 -16.017
400 0.949 -18.185 0.312 71.672 0.312 71.672 0.949 -18.185
450 0.937 -20.31 0.347 69.537 0.347 69.537 0.937 -20.31
500 0.924 -22.388 0.381 67.448 0.381 67.448 0.924 -22.388
550 0.909 -24.416 0.413 65.409 0.413 65.409 0.909 -24.416
600 0.894 -26.392 0.445 63.421 0.445 63.421 0.894 -26.392
650 0.879 -28.315 0.474 61.487 0.474 61.487 0.879 -28.315
700 0.863 -30.184 0.503 59.607 0.503 59.607 0.863 -30.184
750 0.846 -31.997 0.53 57.783 0.53 57.783 0.846 -31.997
800 0.829 -33.755 0.556 56.013 0.556 56.013 0.829 -33.755
850 0.812 -35.458 0.58 54.298 0.58 54.298 0.812 -35.458
900 0.795 -37.106 0.603 52.638 0.603 52.638 0.795 -37.106
950 0.778 -38.701 0.625 51.032 0.625 51.032 0.778 -38.701
1000 0.76 -40.242 0.646 49.478 0.646 49.478 0.76 -40.242
1050 0.743 -41.732 0.666 47.976 0.666 47.976 0.743 -41.732
1100 0.726 -43.171 0.684 46.524 0.684 46.524 0.726 -43.171
1150 0.709 -44.562 0.702 45.121 0.702 45.121 0.709 -44.562
1200 0.692 -45.905 0.718 43.765 0.718 43.765 0.692 -45.905
1250 0.675 -47.202 0.734 42.454 0.734 42.454 0.675 -47.202
1300 0.659 -48.455 0.748 41.188 0.748 41.188 0.659 -48.455
1350 0.642 -49.665 0.762 39.964 0.762 39.964 0.642 -49.665
1400 0.626 -50.835 0.775 38.781 0.775 38.781 0.626 -50.835
1450 0.611 -51.964 0.788 37.637 0.788 37.637 0.611 -51.964
1500 0.595 -53.056 0.799 36.531 0.799 36.531 0.595 -53.056
1550 0.58 -54.112 0.81 35.461 0.81 35.461 0.58 -54.112
1600 0.565 -55.133 0.821 34.425 0.821 34.425 0.565 -55.133
1650 0.551 -56.12 0.83 33.422 0.83 33.422 0.551 -56.12
1700 0.537 -57.076 0.839 32.451 0.839 32.451 0.537 -57.076
1750 0.523 -58.001 0.848 31.51 0.848 31.51 0.523 -58.001
1800 0.509 -58.896 0.856 30.598 0.856 30.598 0.509 -58.896
1850 0.496 -59.764 0.864 29.714 0.864 29.714 0.496 -59.764
1900 0.483 -60.605 0.871 28.856 0.871 28.856 0.483 -60.605
1950 0.47 -61.42 0.878 28.023 0.878 28.023 0.47 -61.42
2000 0.457 -62.21 0.885 27.215 0.885 27.215 0.457 -62.21
2050 0.445 -62.977 0.891 26.429 0.891 26.429 0.445 -62.977
2100 0.433 -63.722 0.897 25.666 0.897 25.666 0.433 -63.722
2150 0.421 -64.445 0.902 24.924 0.902 24.924 0.421 -64.445
2200 0.41 -65.147 0.907 24.201 0.907 24.201 0.41 -65.147
2250 0.399 -65.829 0.912 23.498 0.912 23.498 0.399 -65.829
2300 0.388 -66.492 0.917 22.814 0.917 22.814 0.388 -66.492
2350 0.377 -67.137 0.922 22.147 0.922 22.147 0.377 -67.137
2400 0.366 -67.765 0.926 21.497 0.926 21.497 0.366 -67.765
2450 0.356 -68.375 0.93 20.863 0.93 20.863 0.356 -68.375
2500 0.346 -68.969 0.933 20.245 0.933 20.245 0.346 -68.969
2550 0.336 -69.547 0.937 19.642 0.937 19.642 0.336 -69.547
2600 0.326 -70.11 0.94 19.052 0.94 19.052 0.326 -70.11
2650 0.317 -70.659 0.944 18.477 0.944 18.477 0.317 -70.659
2700 0.308 -71.194 0.947 17.914 0.947 17.914 0.308 -71.194
2750 0.298 -71.714 0.95 17.364 0.95 17.364 0.298 -71.714
2800 0.29 -72.222 0.952 16.826 0.952 16.826 0.29 -72.222
2850 0.281 -72.717 0.955 16.3 0.955 16.3 0.281 -72.717
2900 0.272 -73.199 0.957 15.785 0.957 15.785 0.272 -73.199
2950 0.264 -73.67 0.96 15.28 0.96 15.28 0.264 -73.67
3000 0.255 -74.128 0.962 14.786 0.962 14.786 0.255 -74.128
3050 0.247 -74.575 0.964 14.302 0.964 14.302 0.247 -74.575
3100 0.239 -75.011 0.966 13.827 0.966 13.827 0.239 -75.011
3150 0.231 -75.435 0.968 13.361 0.968 13.361 0.231 -75.435
3200 0.223 -75.849 0.97 12.904 0.97 12.904 0.223 -75.849
3250 0.216 -76.252 0.972 12.455 0.972 12.455 0.216 -76.252
3300 0.208 -76.644 0.973 12.015 0.973 12.015 0.208 -76.644
3350 0.201 -77.026 0.975 11.583 0.975 11.583 0.201 -77.026
3400 0.194 -77.398 0.976 11.158 0.976 11.158 0.194 -77.398
3450 0.186 -77.758 0.978 10.74 0.978 10.74 0.186 -77.758
3500 0.179 -78.109 0.979 10.33 0.979 10.33 0.179 -78.109
3550 0.172 -78.448 0.98 9.926 0.98 9.926 0.172 -78.448
3600 0.166 -78.777 0.981 9.529 0.981 9.529 0.166 -78.777
3650 0.159 -79.095 0.982 9.138 0.982 9.138 0.159 -79.095
3700 0.152 -79.401 0.983 8.754 0.983 8.754 0.152 -79.401
3750 0.146 -79.696 0.984 8.375 0.984 8.375 0.146 -79.696
3800 0.139 -79.979 0.985 8.002 0.985 8.002 0.139 -79.979
3850 0.133 -80.249 0.986 7.635 0.986 7.635 0.133 -80.249
3900 0.127 -80.505 0.987 7.273 0.987 7.273 0.127 -80.505
3950 0.121 -80.747 0.988 6.916 0.988 6.916 0.121 -80.747
4000 0.114 -80.973 0.989 6.565 0.989 6.565 0.114 -80.973
4050 0.108 -81.182 0.989 6.218 0.989 6.218 0.108 -81.182
4100 0.102 -81.372 0.99 5.876 0.99 5.876 0.102 -81.372
4150 0.097 -81.542 0.99 5.538 0.99 5.538 0.097 -81.542
4200 0.091 -81.688 0.991 5.205 0.991 5.205 0.091 -81.688
4250 0.085 -81.808 0.991 4.877 0.991 4.877 0.085 -81.808
4300 0.08 -81.896 0.992 4.552 0.992 4.552 0.08 -81.896
4350 0.074 -81.948 0.992 4.232 0.992 4.232 0.074 -81.948
4400 0.068 -81.956 0.993 3.916 0.993 3.916 0.068 -81.956
4450 0.063 -81.911 0.993 3.603 0.993 3.603 0.063 -81.911
4500 0.058 -81.801 0.993 3.294 0.993 3.294 0.058 -81.801
4550 0.052 -81.608 0.994 2.989 0.994 2.989 0.052 -81.608
4600 0.047 -81.307 0.994 2.687 0.994 2.687 0.047 -81.307
4650 0.042 -80.861 0.994 2.389 0.994 2.389 0.042 -80.861
4700 0.037 -80.216 0.994 2.094 0.994 2.094 0.037 -80.216
4750 0.032 -79.281 0.995 1.802 0.995 1.802 0.032 -79.281
4800 0.027 -77.905 0.995 1.514 0.995 1.514 0.027 -77.905
4850 0.022 -75.807 0.995 1.228 0.995 1.228 0.022 -75.807
4900 0.017 -72.408 0.995 0.946 0.995 0.946 0.017 -72.408
4950 0.013 -66.336 0.995 0.666 0.995 0.666 0.013 -66.336
5000 8.402e-3 -53.635 0.995 0.39 0.995 0.39 8.402e-3 -53.635
5050 5.333e-3 -22.13 0.995 0.116 0.995 0.116 5.333e-3 -22.13
5100 5.633e-3 28.656 0.995 -0.156 0.995 -0.156 5.633e-3 28.656
5150 8.897e-3 55.881 0.995 -0.424 0.995 -0.424 8.897e-3 55.881
5200 0.013 67.027 0.995 -0.69 0.995 -0.69 0.013 67.027
5250 0.017 72.529 0.995 -0.954 0.995 -0.954 0.017 72.529
5300 0.022 75.68 0.995 -1.215 0.995 -1.215 0.022 75.68
5350 0.026 77.662 0.995 -1.473 0.995 -1.473 0.026 77.662
5400 0.031 78.986 0.995 -1.73 0.995 -1.73 0.031 78.986
5450 0.035 79.904 0.994 -1.984 0.994 -1.984 0.035 79.904
5500 0.039 80.556 0.994 -2.235 0.994 -2.235 0.039 80.556
5550 0.044 81.024 0.994 -2.485 0.994 -2.485 0.044 81.024
5600 0.048 81.361 0.994 -2.732 0.994 -2.732 0.048 81.361
5650 0.052 81.599 0.994 -2.978 0.994 -2.978 0.052 81.599
5700 0.056 81.764 0.993 -3.221 0.993 -3.221 0.056 81.764
5750 0.061 81.871 0.993 -3.463 0.993 -3.463 0.061 81.871
5800 0.065 81.932 0.993 -3.702 0.993 -3.702 0.065 81.932
5850 0.069 81.957 0.993 -3.939 0.993 -3.939 0.069 81.957
5900 0.073 81.953 0.992 -4.175 0.992 -4.175 0.073 81.953
5950 0.077 81.924 0.992 -4.409 0.992 -4.409 0.077 81.924
6000 0.081 81.875 0.992 -4.641 0.992 -4.641 0.081 81.875
6050 0.085 81.809 0.991 -4.871 0.991 -4.871 0.085 81.809
6100 0.089 81.73 0.991 -5.1 0.991 -5.1 0.089 81.73
6150 0.093 81.638 0.991 -5.327 0.991 -5.327 0.093 81.638
6200 0.097 81.536 0.99 -5.552 0.99 -5.552 0.097 81.536
6250 0.101 81.425 0.99 -5.775 0.99 -5.775 0.101 81.425
6300 0.105 81.307 0.99 -5.997 0.99 -5.997 0.105 81.307
6350 0.108 81.182 0.989 -6.218 0.989 -6.218 0.108 81.182
6400 0.112 81.052 0.989 -6.437 0.989 -6.437 0.112 81.052
6450 0.116 80.917 0.988 -6.654 0.988 -6.654 0.116 80.917
6500 0.12 80.777 0.988 -6.87 0.988 -6.87 0.12 80.777
6550 0.123 80.634 0.987 -7.084 0.987 -7.084 0.123 80.634
6600 0.127 80.488 0.987 -7.297 0.987 -7.297 0.127 80.488
6650 0.131 80.339 0.987 -7.509 0.987 -7.509 0.131 80.339
6700 0.134 80.188 0.986 -7.719 0.986 -7.719 0.134 80.188
6750 0.138 80.034 0.986 -7.928 0.986 -7.928 0.138 80.034
6800 0.142 79.879 0.985 -8.136 0.985 -8.136 0.142 79.879
6850 0.145 79.722 0.985 -8.342 0.985 -8.342 0.145 79.722
6900 0.149 79.563 0.984 -8.547 0.984 -8.547 0.149 79.563
6950 0.152 79.404 0.983 -8.751 0.983 -8.751 0.152 79.404
7000 0.156 79.243 0.983 -8.953 0.983 -8.953 0.156 79.243
7050 0.159 79.082 0.982 -9.155 0.982 -9.155 0.159 79.082
7100 0.163 78.92 0.982 -9.355 0.982 -9.355 0.163 78.92
7150 0.166 78.757 0.981 -9.554 0.981 -9.554 0.166 78.757
7200 0.169 78.594 0.981 -9.751 0.981 -9.751 0.169 78.594
7250 0.173 78.43 0.98 -9.948 0.98 -9.948 0.173 78.43
7300 0.176 78.266 0.979 -10.143 0.979 -10.143 0.176 78.266
7350 0.18 78.102 0.979 -10.338 0.979 -10.338 0.18 78.102
7400 0.183 77.937 0.978 -10.531 0.978 -10.531 0.183 77.937
7450 0.186 77.773 0.978 -10.723 0.978 -10.723 0.186 77.773
7500 0.189 77.608 0.977 -10.914 0.977 -10.914 0.189 77.608
7550 0.193 77.444 0.976 -11.105 0.976 -11.105 0.193 77.444
7600 0.196 77.279 0.976 -11.294 0.976 -11.294 0.196 77.279
7650 0.199 77.115 0.975 -11.482 0.975 -11.482 0.199 77.115
7700 0.202 76.95 0.974 -11.669 0.974 -11.669 0.202 76.95
7750 0.205 76.786 0.974 -11.855 0.974 -11.855 0.205 76.786
7800 0.209 76.622 0.973 -12.04 0.973 -12.04 0.209 76.622
7850 0.212 76.458 0.972 -12.224 0.972 -12.224 0.212 76.458
7900 0.215 76.295 0.972 -12.407 0.972 -12.407 0.215 76.295
7950 0.218 76.132 0.971 -12.59 0.971 -12.59 0.218 76.132
8000 0.221 75.969 0.97 -12.771 0.97 -12.771 0.221 75.969
8050 0.224 75.806 0.97 -12.952 0.97 -12.952 0.224 75.806
8100 0.227 75.644 0.969 -13.131 0.969 -13.131 0.227 75.644
8150 0.23 75.482 0.968 -13.31 0.968 -13.31 0.23 75.482
8200 0.233 75.32 0.968 -13.488 0.968 -13.488 0.233 75.32
8250 0.236 75.159 0.967 -13.664 0.967 -13.664 0.236 75.159
8300 0.239 74.998 0.966 -13.841 0.966 -13.841 0.239 74.998
8350 0.242 74.838 0.965 -14.016 0.965 -14.016 0.242 74.838
8400 0.245 74.677 0.965 -14.19 0.965 -14.19 0.245 74.677
8450 0.248 74.518 0.964 -14.364 0.964 -14.364 0.248 74.518
8500 0.251 74.359 0.963 -14.537 0.963 -14.537 0.251 74.359
8550 0.254 74.2 0.962 -14.709 0.962 -14.709 0.254 74.2
8600 0.257 74.041 0.962 -14.88 0.962 -14.88 0.257 74.041
8650 0.26 73.883 0.961 -15.05 0.961 -15.05 0.26 73.883
8700 0.263 73.726 0.96 -15.22 0.96 -15.22 0.263 73.726
8750 0.265 73.569 0.959 -15.389 0.959 -15.389 0.265 73.569
8800 0.268 73.412 0.959 -15.557 0.959 -15.557 0.268 73.412
8850 0.271 73.256 0.958 -15.724 0.958 -15.724 0.271 73.256
8900 0.274 73.1 0.957 -15.891 0.957 -15.891 0.274 73.1
8950 0.277 72.945 0.956 -16.057 0.956 -16.057 0.277 72.945
9000 0.279 72.79 0.955 -16.222 0.955 -16.222 0.279 72.79
9050 0.282 72.636 0.955 -16.386 0.955 -16.386 0.282 72.636
9100 0.285 72.482 0.954 -16.55 0.954 -16.55 0.285 72.482
9150 0.288 72.329 0.953 -16.713 0.953 -16.713 0.288 72.329
9200 0.29 72.176 0.952 -16.875 0.952 -16.875 0.29 72.176
9250 0.293 72.024 0.951 -17.037 0.951 -17.037 0.293 72.024
9300 0.296 71.872 0.95 -17.198 0.95 -17.198 0.296 71.872
9350 0.298 71.72 0.95 -17.358 0.95 -17.358 0.298 71.72
9400 0.301 71.569 0.949 -17.518 0.949 -17.518 0.301 71.569
9450 0.304 71.419 0.948 -17.677 0.948 -17.677 0.304 71.419
9500 0.306 71.269 0.947 -17.835 0.947 -17.835 0.306 71.269
9550 0.309 71.119 0.946 -17.993 0.946 -17.993 0.309 71.119
9600 0.312 70.97 0.945 -18.15 0.945 -18.15 0.312 70.97
9650 0.314 70.821 0.945 -18.306 0.945 -18.306 0.314 70.821
9700 0.317 70.673 0.944 -18.462 0.944 -18.462 0.317 70.673
9750 0.319 70.526 0.943 -18.617 0.943 -18.617 0.319 70.526
9800 0.322 70.378 0.942 -18.771 0.942 -18.771 0.322 70.378
9850 0.324 70.232 0.941 -18.925 0.941 -18.925 0.324 70.232
9900 0.327 70.085 0.94 -19.079 0.94 -19.079 0.327 70.085
9950 0.329 69.94 0.939 -19.231 0.939 -19.231 0.329 69.94
10000 0.332 69.794 0.939 -19.383 0.939 -19.383 0.332 69.794
10050 0.334 69.649 0.938 -19.535 0.938 -19.535 0.334 69.649
10100 0.337 69.505 0.937 -19.686 0.937 -19.686 0.337 69.505
10150 0.339 69.361 0.936 -19.836 0.936 -19.836 0.339 69.361
10200 0.342 69.218 0.935 -19.986 0.935 -19.986 0.342 69.218
10250 0.344 69.075 0.934 -20.135 0.934 -20.135 0.344 69.075
10300 0.347 68.932 0.933 -20.283 0.933 -20.283 0.347 68.932
10350 0.349 68.79 0.932 -20.431 0.932 -20.431 0.349 68.79
10400 0.352 68.648 0.931 -20.579 0.931 -20.579 0.352 68.648
10450 0.354 68.507 0.931 -20.726 0.931 -20.726 0.354 68.507
10500 0.356 68.366 0.93 -20.872 0.93 -20.872 0.356 68.366
10550 0.359 68.226 0.929 -21.018 0.929 -21.018 0.359 68.226
10600 0.361 68.086 0.928 -21.163 0.928 -21.163 0.361 68.086
10650 0.363 67.947 0.927 -21.308 0.927 -21.308 0.363 67.947
10700 0.366 67.808 0.926 -21.452 0.926 -21.452 0.366 67.808
10750 0.368 67.67 0.925 -21.596 0.925 -21.596 0.368 67.67
10800 0.37 67.532 0.924 -21.739 0.924 -21.739 0.37 67.532
10850 0.373 67.394 0.923 -21.881 0.923 -21.881 0.373 67.394
10900 0.375 67.257 0.922 -22.023 0.922 -22.023 0.375 67.257
10950 0.377 67.12 0.921 -22.165 0.921 -22.165 0.377 67.12
11000 0.38 66.984 0.92 -22.306 0.92 -22.306 0.38 66.984
11050 0.382 66.848 0.92 -22.446 0.92 -22.446 0.382 66.848
11100 0.384 66.713 0.919 -22.586 0.919 -22.586 0.384 66.713
11150 0.386 66.578 0.918 -22.726 0.918 -22.726 0.386 66.578
11200 0.389 66.443 0.917 -22.865 0.917 -22.865 0.389 66.443
11250 0.391 66.309 0.916 -23.004 0.916 -23.004 0.391 66.309
11300 0.393 66.175 0.915 -23.142 0.915 -23.142 0.393 66.175
11350 0.395 66.042 0.914 -23.279 0.914 -23.279 0.395 66.042
11400 0.397 65.909 0.913 -23.416 0.913 -23.416 0.397 65.909
11450 0.4 65.777 0.912 -23.553 0.912 -23.553 0.4 65.777
11500 0.402 65.644 0.911 -23.689 0.911 -23.689 0.402 65.644
11550 0.404 65.513 0.91 -23.824 0.91 -23.824 0.404 65.513
11600 0.406 65.382 0.909 -23.96 0.909 -23.96 0.406 65.382
11650 0.408 65.251 0.908 -24.094 0.908 -24.094 0.408 65.251
11700 0.41 65.121 0.907 -24.229 0.907 -24.229 0.41 65.121
11750 0.413 64.991 0.906 -24.362 0.906 -24.362 0.413 64.991
11800 0.415 64.861 0.905 -24.496 0.905 -24.496 0.415 64.861
11850 0.417 64.732 0.904 -24.628 0.904 -24.628 0.417 64.732
11900 0.419 64.603 0.903 -24.761 0.903 -24.761 0.419 64.603
11950 0.421 64.475 0.902 -24.893 0.902 -24.893 0.421 64.475
12000 0.423 64.347 0.901 -25.024 0.901 -25.024 0.423 64.347
12050 0.425 64.219 0.901 -25.155 0.901 -25.155 0.425 64.219
12100 0.427 64.092 0.9 -25.286 0.9 -25.286 0.427 64.092
12150 0.429 63.965 0.899 -25.416 0.899 -25.416 0.429 63.965
12200 0.431 63.839 0.898 -25.546 0.898 -25.546 0.431 63.839
12250 0.433 63.713 0.897 -25.675 0.897 -25.675 0.433 63.713
12300 0.435 63.588 0.896 -25.804 0.896 -25.804 0.435 63.588
12350 0.437 63.462 0.895 -25.932 0.895 -25.932 0.437 63.462
12400 0.439 63.338 0.894 -26.06 0.894 -26.06 0.439 63.338
12450 0.441 63.213 0.893 -26.188 0.893 -26.188 0.441 63.213
12500 0.443 63.089 0.892 -26.315 0.892 -26.315 0.443 63.089
12550 0.445 62.966 0.891 -26.442 0.891 -26.442 0.445 62.966
12600 0.447 62.842 0.89 -26.568 0.89 -26.568 0.447 62.842
12650 0.449 62.72 0.889 -26.694 0.889 -26.694 0.449 62.72
12700 0.451 62.597 0.888 -26.819 0.888 -26.819 0.451 62.597
12750 0.453 62.475 0.887 -26.944 0.887 -26.944 0.453 62.475
12800 0.455 62.353 0.886 -27.069 0.886 -27.069 0.455 62.353
12850 0.457 62.232 0.885 -27.193 0.885 -27.193 0.457 62.232
12900 0.459 62.111 0.884 -27.317 0.884 -27.317 0.459 62.111
12950 0.461 61.99 0.883 -27.44 0.883 -27.44 0.461 61.99
13000 0.463 61.87 0.882 -27.563 0.882 -27.563 0.463 61.87
13050 0.465 61.75 0.881 -27.686 0.881 -27.686 0.465 61.75
13100 0.467 61.631 0.88 -27.808 0.88 -27.808 0.467 61.631
13150 0.468 61.512 0.879 -27.93 0.879 -27.93 0.468 61.512
13200 0.47 61.393 0.878 -28.051 0.878 -28.051 0.47 61.393
13250 0.472 61.274 0.877 -28.172 0.877 -28.172 0.472 61.274
13300 0.474 61.156 0.876 -28.293 0.876 -28.293 0.474 61.156
13350 0.476 61.039 0.875 -28.413 0.875 -28.413 0.476 61.039
13400 0.478 60.921 0.874 -28.533 0.874 -28.533 0.478 60.921
13450 0.48 60.804 0.873 -28.652 0.873 -28.652 0.48 60.804
13500 0.481 60.688 0.872 -28.772 0.872 -28.772 0.481 60.688
13550 0.483 60.571 0.871 -28.89 0.871 -28.89 0.483 60.571
13600 0.485 60.455 0.87 -29.009 0.87 -29.009 0.485 60.455
13650 0.487 60.34 0.869 -29.127 0.869 -29.127 0.487 60.34
13700 0.489 60.225 0.868 -29.244 0.868 -29.244 0.489 60.225
13750 0.49 60.11 0.867 -29.361 0.867 -29.361 0.49 60.11
13800 0.492 59.995 0.866 -29.478 0.866 -29.478 0.492 59.995
13850 0.494 59.881 0.865 -29.595 0.865 -29.595 0.494 59.881
13900 0.496 59.767 0.864 -29.711 0.864 -29.711 0.496 59.767
13950 0.497 59.654 0.863 -29.826 0.863 -29.826 0.497 59.654
14000 0.499 59.541 0.862 -29.942 0.862 -29.942 0.499 59.541
14050 0.501 59.428 0.861 -30.057 0.861 -30.057 0.501 59.428
14100 0.503 59.315 0.86 -30.171 0.86 -30.171 0.503 59.315
14150 0.504 59.203 0.859 -30.286 0.859 -30.286 0.504 59.203
14200 0.506 59.091 0.858 -30.4 0.858 -30.4 0.506 59.091
14250 0.508 58.98 0.857 -30.513 0.857 -30.513 0.508 58.98
14300 0.509 58.869 0.856 -30.626 0.856 -30.626 0.509 58.869
14350 0.511 58.758 0.855 -30.739 0.855 -30.739 0.511 58.758
14400 0.513 58.647 0.854 -30.852 0.854 -30.852 0.513 58.647
14450 0.515 58.537 0.853 -30.964 0.853 -30.964 0.515 58.537
14500 0.516 58.428 0.852 -31.076 0.852 -31.076 0.516 58.428
14550 0.518 58.318 0.851 -31.187 0.851 -31.187 0.518 58.318
14600 0.52 58.209 0.85 -31.298 0.85 -31.298 0.52 58.209
14650 0.521 58.1 0.849 -31.409 0.849 -31.409 0.521 58.1
14700 0.523 57.992 0.848 -31.52 0.848 -31.52 0.523 57.992
14750 0.524 57.883 0.847 -31.63 0.847 -31.63 0.524 57.883
14800 0.526 57.776 0.846 -31.739 0.846 -31.739 0.526 57.776
14850 0.528 57.668 0.845 -31.849 0.845 -31.849 0.528 57.668
14900 0.529 57.561 0.844 -31.958 0.844 -31.958 0.529 57.561
14950 0.531 57.454 0.843 -32.067 0.843 -32.067 0.531 57.454
15000 0.533 57.347 0.842 -32.175 0.842 -32.175 0.533 57.347
15050 0.534 57.241 0.841 -32.283 0.841 -32.283 0.534 57.241
15100 0.536 57.135 0.84 -32.391 0.84 -32.391 0.536 57.135
15150 0.537 57.029 0.839 -32.498 0.839 -32.498 0.537 57.029
15200 0.539 56.924 0.838 -32.605 0.838 -32.605 0.539 56.924
15250 0.54 56.819 0.837 -32.712 0.837 -32.712 0.54 56.819
15300 0.542 56.714 0.836 -32.819 0.836 -32.819 0.542 56.714
15350 0.544 56.61 0.835 -32.925 0.835 -32.925 0.544 56.61
15400 0.545 56.506 0.834 -33.031 0.834 -33.031 0.545 56.506
15450 0.547 56.402 0.833 -33.136 0.833 -33.136 0.547 56.402
15500 0.548 56.298 0.832 -33.241 0.832 -33.241 0.548 56.298
15550 0.55 56.195 0.831 -33.346 0.831 -33.346 0.55 56.195
15600 0.551 56.092 0.83 -33.451 0.83 -33.451 0.551 56.092
15650 0.553 55.99 0.829 -33.555 0.829 -33.555 0.553 55.99
15700 0.554 55.888 0.828 -33.659 0.828 -33.659 0.554 55.888
15750 0.556 55.786 0.827 -33.762 0.827 -33.762 0.556 55.786
15800 0.557 55.684 0.826 -33.865 0.826 -33.865 0.557 55.684
15850 0.559 55.582 0.825 -33.968 0.825 -33.968 0.559 55.582
15900 0.56 55.481 0.824 -34.071 0.824 -34.071 0.56 55.481
15950 0.562 55.381 0.823 -34.173 0.823 -34.173 0.562 55.381
16000 0.563 55.28 0.822 -34.275 0.822 -34.275 0.563 55.28
16050 0.565 55.18 0.821 -34.377 0.821 -34.377 0.565 55.18
16100 0.566 55.08 0.82 -34.479 0.82 -34.479 0.566 55.08
16150 0.568 54.98 0.819 -34.58 0.819 -34.58 0.568 54.98
16200 0.569 54.881 0.818 -34.681 0.818 -34.681 0.569 54.881
16250 0.57 54.782 0.817 -34.781 0.817 -34.781 0.57 54.782
16300 0.572 54.683 0.816 -34.881 0.816 -34.881 0.572 54.683
16350 0.573 54.585 0.815 -34.981 0.815 -34.981 0.573 54.585
16400 0.575 54.486 0.814 -35.081 0.814 -35.081 0.575 54.486
16450 0.576 54.389 0.813 -35.18 0.813 -35.18 0.576 54.389
16500 0.578 54.291 0.812 -35.279 0.812 -35.279 0.578 54.291
16550 0.579 54.194 0.811 -35.378 0.811 -35.378 0.579 54.194
16600 0.58 54.097 0.81 -35.476 0.81 -35.476 0.58 54.097
16650 0.582 54 0.809 -35.574 0.809 -35.574 0.582 54
16700 0.583 53.903 0.808 -35.672 0.808 -35.672 0.583 53.903
16750 0.585 53.807 0.807 -35.77 0.807 -35.77 0.585 53.807
16800 0.586 53.711 0.806 -35.867 0.806 -35.867 0.586 53.711
16850 0.587 53.615 0.805 -35.964 0.805 -35.964 0.587 53.615
16900 0.589 53.52 0.804 -36.061 0.804 -36.061 0.589 53.52
16950 0.59 53.425 0.803 -36.157 0.803 -36.157 0.59 53.425
