! AVX Thin Film Operation		Date: April 2012 
! Description: Accu-P® Series, Thin Film, SMD, RF Capacitor
! Part Number: 08051J3R8ABTTR					
!	100	MHz	-	20.05	GHz			
!	Serial	Measurements						
!								
#	MHZ	S	MA	R	50			
!	S11	S21	S12	S22				
!	dB	Phase	dB	Phase	dB	Phase	dB	Phase
50 0.993 -6.809 0.119 83.119 0.119 83.119 0.993 -6.809
100 0.972 -13.439 0.232 76.473 0.232 76.473 0.972 -13.439
150 0.941 -19.739 0.338 70.157 0.338 70.157 0.941 -19.739
200 0.901 -25.605 0.432 64.275 0.432 64.275 0.901 -25.605
250 0.856 -30.977 0.515 58.887 0.515 58.887 0.856 -30.977
300 0.809 -35.84 0.586 54.007 0.586 54.007 0.809 -35.84
350 0.762 -40.209 0.646 49.622 0.646 49.622 0.762 -40.209
400 0.716 -44.118 0.696 45.697 0.696 45.697 0.716 -44.118
450 0.672 -47.608 0.739 42.189 0.739 42.189 0.672 -47.608
500 0.63 -50.727 0.774 39.053 0.774 39.053 0.63 -50.727
550 0.591 -53.518 0.804 36.245 0.804 36.245 0.591 -53.518
600 0.555 -56.022 0.829 33.723 0.829 33.723 0.555 -56.022
650 0.522 -58.275 0.851 31.451 0.851 31.451 0.522 -58.275
700 0.491 -60.311 0.869 29.396 0.869 29.396 0.491 -60.311
750 0.462 -62.156 0.884 27.531 0.884 27.531 0.462 -62.156
800 0.436 -63.836 0.898 25.831 0.898 25.831 0.436 -63.836
850 0.411 -65.37 0.909 24.276 0.909 24.276 0.411 -65.37
900 0.388 -66.776 0.919 22.848 0.919 22.848 0.388 -66.776
950 0.367 -68.07 0.928 21.532 0.928 21.532 0.367 -68.07
1000 0.347 -69.264 0.935 20.315 0.935 20.315 0.347 -69.264
1050 0.329 -70.369 0.942 19.186 0.942 19.186 0.329 -70.369
1100 0.311 -71.396 0.948 18.134 0.948 18.134 0.311 -71.396
1150 0.295 -72.352 0.953 17.152 0.953 17.152 0.295 -72.352
1200 0.28 -73.245 0.958 16.231 0.958 16.231 0.28 -73.245
1250 0.265 -74.081 0.962 15.367 0.962 15.367 0.265 -74.081
1300 0.251 -74.865 0.965 14.553 0.965 14.553 0.251 -74.865
1350 0.238 -75.602 0.969 13.784 0.969 13.784 0.238 -75.602
1400 0.226 -76.296 0.972 13.057 0.972 13.057 0.226 -76.296
1450 0.214 -76.951 0.974 12.366 0.974 12.366 0.214 -76.951
1500 0.203 -77.57 0.977 11.71 0.977 11.71 0.203 -77.57
1550 0.192 -78.155 0.979 11.085 0.979 11.085 0.192 -78.155
1600 0.182 -78.71 0.981 10.488 0.981 10.488 0.182 -78.71
1650 0.172 -79.235 0.983 9.917 0.983 9.917 0.172 -79.235
1700 0.163 -79.733 0.984 9.37 0.984 9.37 0.163 -79.733
1750 0.154 -80.206 0.986 8.846 0.986 8.846 0.154 -80.206
1800 0.145 -80.653 0.987 8.341 0.987 8.341 0.145 -80.653
1850 0.137 -81.078 0.988 7.856 0.988 7.856 0.137 -81.078
1900 0.129 -81.479 0.989 7.387 0.989 7.387 0.129 -81.479
1950 0.121 -81.858 0.99 6.936 0.99 6.936 0.121 -81.858
2000 0.113 -82.214 0.991 6.499 0.991 6.499 0.113 -82.214
2050 0.106 -82.548 0.992 6.076 0.992 6.076 0.106 -82.548
2100 0.099 -82.859 0.993 5.666 0.993 5.666 0.099 -82.859
2150 0.092 -83.146 0.993 5.269 0.993 5.269 0.092 -83.146
2200 0.085 -83.407 0.994 4.883 0.994 4.883 0.085 -83.407
2250 0.079 -83.641 0.994 4.508 0.994 4.508 0.079 -83.641
2300 0.072 -83.844 0.995 4.142 0.995 4.142 0.072 -83.844
2350 0.066 -84.011 0.995 3.787 0.995 3.787 0.066 -84.011
2400 0.06 -84.137 0.996 3.44 0.996 3.44 0.06 -84.137
2450 0.054 -84.212 0.996 3.101 0.996 3.101 0.054 -84.212
2500 0.048 -84.223 0.996 2.771 0.996 2.771 0.048 -84.223
2550 0.043 -84.151 0.997 2.448 0.997 2.448 0.043 -84.151
2600 0.037 -83.965 0.997 2.132 0.997 2.132 0.037 -83.965
2650 0.032 -83.615 0.997 1.822 0.997 1.822 0.032 -83.615
2700 0.027 -83.014 0.997 1.519 0.997 1.519 0.027 -83.014
2750 0.021 -81.994 0.997 1.222 0.997 1.222 0.021 -81.994
2800 0.016 -80.192 0.997 0.931 0.997 0.931 0.016 -80.192
2850 0.012 -76.652 0.997 0.645 0.997 0.645 0.012 -76.652
2900 6.843e-3 -67.873 0.997 0.364 0.997 0.364 6.843e-3 -67.873
2950 2.968e-3 -31.166 0.997 0.088 0.997 0.088 2.968e-3 -31.166
3000 4.08e-3 51.358 0.997 -0.183 0.997 -0.183 4.08e-3 51.358
3050 8.251e-3 71.641 0.997 -0.45 0.997 -0.45 8.251e-3 71.641
3100 0.013 77.754 0.997 -0.712 0.997 -0.712 0.013 77.754
3150 0.017 80.513 0.997 -0.971 0.997 -0.971 0.017 80.513
3200 0.022 82.009 0.997 -1.226 0.997 -1.226 0.022 82.009
3250 0.026 82.899 0.997 -1.477 0.997 -1.477 0.026 82.899
3300 0.03 83.454 0.997 -1.724 0.997 -1.724 0.03 83.454
3350 0.034 83.806 0.997 -1.968 0.997 -1.968 0.034 83.806
3400 0.039 84.024 0.997 -2.209 0.997 -2.209 0.039 84.024
3450 0.043 84.151 0.997 -2.447 0.997 -2.447 0.043 84.151
3500 0.047 84.213 0.996 -2.681 0.996 -2.681 0.047 84.213
3550 0.051 84.227 0.996 -2.913 0.996 -2.913 0.051 84.227
3600 0.055 84.206 0.996 -3.142 0.996 -3.142 0.055 84.206
3650 0.059 84.157 0.996 -3.368 0.996 -3.368 0.059 84.157
3700 0.063 84.087 0.995 -3.592 0.995 -3.592 0.063 84.087
3750 0.067 84 0.995 -3.814 0.995 -3.814 0.067 84
3800 0.07 83.899 0.995 -4.033 0.995 -4.033 0.07 83.899
3850 0.074 83.788 0.995 -4.249 0.995 -4.249 0.074 83.788
3900 0.078 83.667 0.994 -4.464 0.994 -4.464 0.078 83.667
3950 0.082 83.539 0.994 -4.676 0.994 -4.676 0.082 83.539
4000 0.085 83.405 0.994 -4.886 0.994 -4.886 0.085 83.405
4050 0.089 83.266 0.994 -5.095 0.994 -5.095 0.089 83.266
4100 0.092 83.123 0.993 -5.301 0.993 -5.301 0.092 83.123
4150 0.096 82.977 0.993 -5.506 0.993 -5.506 0.096 82.977
4200 0.099 82.828 0.992 -5.708 0.992 -5.708 0.099 82.828
4250 0.103 82.676 0.992 -5.909 0.992 -5.909 0.103 82.676
4300 0.106 82.523 0.992 -6.109 0.992 -6.109 0.106 82.523
4350 0.11 82.368 0.991 -6.306 0.991 -6.306 0.11 82.368
4400 0.113 82.211 0.991 -6.502 0.991 -6.502 0.113 82.211
4450 0.117 82.054 0.991 -6.697 0.991 -6.697 0.117 82.054
4500 0.12 81.895 0.99 -6.89 0.99 -6.89 0.12 81.895
4550 0.123 81.736 0.99 -7.082 0.99 -7.082 0.123 81.736
4600 0.127 81.577 0.989 -7.272 0.989 -7.272 0.127 81.577
4650 0.13 81.417 0.989 -7.461 0.989 -7.461 0.13 81.417
4700 0.133 81.257 0.989 -7.648 0.989 -7.648 0.133 81.257
4750 0.136 81.096 0.988 -7.834 0.988 -7.834 0.136 81.096
4800 0.14 80.936 0.988 -8.019 0.988 -8.019 0.14 80.936
4850 0.143 80.775 0.987 -8.203 0.987 -8.203 0.143 80.775
4900 0.146 80.615 0.987 -8.385 0.987 -8.385 0.146 80.615
4950 0.149 80.454 0.986 -8.567 0.986 -8.567 0.149 80.454
5000 0.152 80.294 0.986 -8.747 0.986 -8.747 0.152 80.294
5050 0.155 80.134 0.985 -8.926 0.985 -8.926 0.155 80.134
5100 0.158 79.974 0.985 -9.104 0.985 -9.104 0.158 79.974
5150 0.161 79.814 0.984 -9.281 0.984 -9.281 0.161 79.814
5200 0.164 79.655 0.984 -9.457 0.984 -9.457 0.164 79.655
5250 0.167 79.496 0.983 -9.632 0.983 -9.632 0.167 79.496
5300 0.17 79.337 0.983 -9.806 0.983 -9.806 0.17 79.337
5350 0.173 79.179 0.982 -9.978 0.982 -9.978 0.173 79.179
5400 0.176 79.021 0.982 -10.15 0.982 -10.15 0.176 79.021
5450 0.179 78.863 0.981 -10.322 0.981 -10.322 0.179 78.863
5500 0.182 78.706 0.981 -10.492 0.981 -10.492 0.182 78.706
5550 0.185 78.549 0.98 -10.661 0.98 -10.661 0.185 78.549
5600 0.188 78.393 0.98 -10.83 0.98 -10.83 0.188 78.393
5650 0.191 78.237 0.979 -10.997 0.979 -10.997 0.191 78.237
5700 0.194 78.082 0.979 -11.164 0.979 -11.164 0.194 78.082
5750 0.196 77.926 0.978 -11.33 0.978 -11.33 0.196 77.926
5800 0.199 77.772 0.977 -11.495 0.977 -11.495 0.199 77.772
5850 0.202 77.617 0.977 -11.659 0.977 -11.659 0.202 77.617
5900 0.205 77.464 0.976 -11.823 0.976 -11.823 0.205 77.464
5950 0.208 77.31 0.976 -11.986 0.976 -11.986 0.208 77.31
6000 0.21 77.157 0.975 -12.148 0.975 -12.148 0.21 77.157
6050 0.213 77.005 0.974 -12.309 0.974 -12.309 0.213 77.005
6100 0.216 76.853 0.974 -12.47 0.974 -12.47 0.216 76.853
6150 0.219 76.701 0.973 -12.63 0.973 -12.63 0.219 76.701
6200 0.221 76.55 0.973 -12.789 0.973 -12.789 0.221 76.55
6250 0.224 76.4 0.972 -12.948 0.972 -12.948 0.224 76.4
6300 0.227 76.249 0.971 -13.106 0.971 -13.106 0.227 76.249
6350 0.229 76.099 0.971 -13.263 0.971 -13.263 0.229 76.099
6400 0.232 75.95 0.97 -13.42 0.97 -13.42 0.232 75.95
6450 0.235 75.801 0.97 -13.576 0.97 -13.576 0.235 75.801
6500 0.237 75.653 0.969 -13.731 0.969 -13.731 0.237 75.653
6550 0.24 75.505 0.968 -13.886 0.968 -13.886 0.24 75.505
6600 0.243 75.357 0.968 -14.04 0.968 -14.04 0.243 75.357
6650 0.245 75.21 0.967 -14.193 0.967 -14.193 0.245 75.21
6700 0.248 75.063 0.966 -14.346 0.966 -14.346 0.248 75.063
6750 0.25 74.917 0.966 -14.499 0.966 -14.499 0.25 74.917
6800 0.253 74.771 0.965 -14.651 0.965 -14.651 0.253 74.771
6850 0.255 74.625 0.964 -14.802 0.964 -14.802 0.255 74.625
6900 0.258 74.48 0.964 -14.952 0.964 -14.952 0.258 74.48
6950 0.261 74.336 0.963 -15.103 0.963 -15.103 0.261 74.336
7000 0.263 74.192 0.962 -15.252 0.962 -15.252 0.263 74.192
7050 0.266 74.048 0.962 -15.401 0.962 -15.401 0.266 74.048
7100 0.268 73.904 0.961 -15.55 0.961 -15.55 0.268 73.904
7150 0.271 73.761 0.96 -15.698 0.96 -15.698 0.271 73.761
7200 0.273 73.619 0.959 -15.845 0.959 -15.845 0.273 73.619
7250 0.276 73.477 0.959 -15.992 0.959 -15.992 0.276 73.477
7300 0.278 73.335 0.958 -16.139 0.958 -16.139 0.278 73.335
7350 0.28 73.194 0.957 -16.285 0.957 -16.285 0.28 73.194
7400 0.283 73.053 0.957 -16.43 0.957 -16.43 0.283 73.053
7450 0.285 72.912 0.956 -16.575 0.956 -16.575 0.285 72.912
7500 0.288 72.772 0.955 -16.719 0.955 -16.719 0.288 72.772
7550 0.29 72.632 0.954 -16.863 0.954 -16.863 0.29 72.632
7600 0.292 72.493 0.954 -17.007 0.954 -17.007 0.292 72.493
7650 0.295 72.354 0.953 -17.15 0.953 -17.15 0.295 72.354
7700 0.297 72.215 0.952 -17.293 0.952 -17.293 0.297 72.215
7750 0.3 72.077 0.952 -17.435 0.952 -17.435 0.3 72.077
7800 0.302 71.939 0.951 -17.576 0.951 -17.576 0.302 71.939
7850 0.304 71.802 0.95 -17.718 0.95 -17.718 0.304 71.802
7900 0.307 71.664 0.949 -17.858 0.949 -17.858 0.307 71.664
7950 0.309 71.528 0.949 -17.999 0.949 -17.999 0.309 71.528
8000 0.311 71.391 0.948 -18.139 0.948 -18.139 0.311 71.391
8050 0.314 71.255 0.947 -18.278 0.947 -18.278 0.314 71.255
8100 0.316 71.12 0.946 -18.417 0.946 -18.417 0.316 71.12
8150 0.318 70.985 0.945 -18.556 0.945 -18.556 0.318 70.985
8200 0.321 70.85 0.945 -18.694 0.945 -18.694 0.321 70.85
8250 0.323 70.715 0.944 -18.832 0.944 -18.832 0.323 70.715
8300 0.325 70.581 0.943 -18.969 0.943 -18.969 0.325 70.581
8350 0.327 70.447 0.942 -19.106 0.942 -19.106 0.327 70.447
8400 0.33 70.314 0.942 -19.242 0.942 -19.242 0.33 70.314
8450 0.332 70.181 0.941 -19.379 0.941 -19.379 0.332 70.181
8500 0.334 70.048 0.94 -19.514 0.94 -19.514 0.334 70.048
8550 0.336 69.916 0.939 -19.65 0.939 -19.65 0.336 69.916
8600 0.338 69.784 0.938 -19.784 0.938 -19.784 0.338 69.784
8650 0.341 69.652 0.938 -19.919 0.938 -19.919 0.341 69.652
8700 0.343 69.521 0.937 -20.053 0.937 -20.053 0.343 69.521
8750 0.345 69.39 0.936 -20.187 0.936 -20.187 0.345 69.39
8800 0.347 69.259 0.935 -20.32 0.935 -20.32 0.347 69.259
8850 0.349 69.129 0.934 -20.453 0.934 -20.453 0.349 69.129
8900 0.352 68.999 0.934 -20.586 0.934 -20.586 0.352 68.999
8950 0.354 68.869 0.933 -20.718 0.933 -20.718 0.354 68.869
9000 0.356 68.74 0.932 -20.85 0.932 -20.85 0.356 68.74
9050 0.358 68.611 0.931 -20.981 0.931 -20.981 0.358 68.611
9100 0.36 68.482 0.93 -21.112 0.93 -21.112 0.36 68.482
9150 0.362 68.354 0.93 -21.243 0.93 -21.243 0.362 68.354
9200 0.364 68.226 0.929 -21.373 0.929 -21.373 0.364 68.226
9250 0.367 68.098 0.928 -21.503 0.928 -21.503 0.367 68.098
9300 0.369 67.971 0.927 -21.633 0.927 -21.633 0.369 67.971
9350 0.371 67.844 0.926 -21.762 0.926 -21.762 0.371 67.844
9400 0.373 67.717 0.925 -21.891 0.925 -21.891 0.373 67.717
9450 0.375 67.591 0.925 -22.02 0.925 -22.02 0.375 67.591
9500 0.377 67.465 0.924 -22.148 0.924 -22.148 0.377 67.465
9550 0.379 67.339 0.923 -22.276 0.923 -22.276 0.379 67.339
9600 0.381 67.214 0.922 -22.403 0.922 -22.403 0.381 67.214
9650 0.383 67.089 0.921 -22.53 0.921 -22.53 0.383 67.089
9700 0.385 66.964 0.92 -22.657 0.92 -22.657 0.385 66.964
9750 0.387 66.84 0.919 -22.783 0.919 -22.783 0.387 66.84
9800 0.389 66.716 0.919 -22.909 0.919 -22.909 0.389 66.716
9850 0.391 66.592 0.918 -23.035 0.918 -23.035 0.391 66.592
9900 0.393 66.469 0.917 -23.161 0.917 -23.161 0.393 66.469
9950 0.395 66.346 0.916 -23.286 0.916 -23.286 0.395 66.346
10000 0.397 66.223 0.915 -23.41 0.915 -23.41 0.397 66.223
10050 0.399 66.1 0.914 -23.535 0.914 -23.535 0.399 66.1
10100 0.401 65.978 0.913 -23.659 0.913 -23.659 0.401 65.978
10150 0.403 65.856 0.913 -23.783 0.913 -23.783 0.403 65.856
10200 0.405 65.735 0.912 -23.906 0.912 -23.906 0.405 65.735
10250 0.407 65.613 0.911 -24.029 0.911 -24.029 0.407 65.613
10300 0.409 65.492 0.91 -24.152 0.91 -24.152 0.409 65.492
10350 0.411 65.372 0.909 -24.274 0.909 -24.274 0.411 65.372
10400 0.413 65.251 0.908 -24.396 0.908 -24.396 0.413 65.251
10450 0.415 65.131 0.907 -24.518 0.907 -24.518 0.415 65.131
10500 0.417 65.012 0.906 -24.639 0.906 -24.639 0.417 65.012
10550 0.419 64.892 0.906 -24.761 0.906 -24.761 0.419 64.892
10600 0.421 64.773 0.905 -24.881 0.905 -24.881 0.421 64.773
10650 0.423 64.654 0.904 -25.002 0.904 -25.002 0.423 64.654
10700 0.425 64.536 0.903 -25.122 0.903 -25.122 0.425 64.536
10750 0.426 64.417 0.902 -25.242 0.902 -25.242 0.426 64.417
10800 0.428 64.299 0.901 -25.361 0.901 -25.361 0.428 64.299
10850 0.43 64.182 0.9 -25.481 0.9 -25.481 0.43 64.182
10900 0.432 64.064 0.899 -25.6 0.899 -25.6 0.432 64.064
10950 0.434 63.947 0.898 -25.718 0.898 -25.718 0.434 63.947
11000 0.436 63.831 0.898 -25.836 0.898 -25.836 0.436 63.831
11050 0.438 63.714 0.897 -25.954 0.897 -25.954 0.438 63.714
11100 0.44 63.598 0.896 -26.072 0.896 -26.072 0.44 63.598
11150 0.441 63.482 0.895 -26.189 0.895 -26.189 0.441 63.482
11200 0.443 63.366 0.894 -26.306 0.894 -26.306 0.443 63.366
11250 0.445 63.251 0.893 -26.423 0.893 -26.423 0.445 63.251
11300 0.447 63.136 0.892 -26.54 0.892 -26.54 0.447 63.136
11350 0.449 63.021 0.891 -26.656 0.891 -26.656 0.449 63.021
11400 0.45 62.907 0.89 -26.772 0.89 -26.772 0.45 62.907
11450 0.452 62.793 0.889 -26.887 0.889 -26.887 0.452 62.793
11500 0.454 62.679 0.888 -27.002 0.888 -27.002 0.454 62.679
11550 0.456 62.565 0.888 -27.117 0.888 -27.117 0.456 62.565
11600 0.458 62.452 0.887 -27.232 0.887 -27.232 0.458 62.452
11650 0.459 62.339 0.886 -27.346 0.886 -27.346 0.459 62.339
11700 0.461 62.226 0.885 -27.46 0.885 -27.46 0.461 62.226
11750 0.463 62.113 0.884 -27.574 0.884 -27.574 0.463 62.113
11800 0.465 62.001 0.883 -27.688 0.883 -27.688 0.465 62.001
11850 0.466 61.889 0.882 -27.801 0.882 -27.801 0.466 61.889
11900 0.468 61.778 0.881 -27.914 0.881 -27.914 0.468 61.778
11950 0.47 61.666 0.88 -28.026 0.88 -28.026 0.47 61.666
12000 0.472 61.555 0.879 -28.138 0.879 -28.138 0.472 61.555
12050 0.473 61.444 0.878 -28.25 0.878 -28.25 0.473 61.444
12100 0.475 61.334 0.877 -28.362 0.877 -28.362 0.475 61.334
12150 0.477 61.224 0.877 -28.474 0.877 -28.474 0.477 61.224
12200 0.478 61.114 0.876 -28.585 0.876 -28.585 0.478 61.114
12250 0.48 61.004 0.875 -28.696 0.875 -28.696 0.48 61.004
12300 0.482 60.895 0.874 -28.806 0.874 -28.806 0.482 60.895
12350 0.484 60.785 0.873 -28.916 0.873 -28.916 0.484 60.785
12400 0.485 60.676 0.872 -29.026 0.872 -29.026 0.485 60.676
12450 0.487 60.568 0.871 -29.136 0.871 -29.136 0.487 60.568
12500 0.489 60.46 0.87 -29.246 0.87 -29.246 0.489 60.46
12550 0.49 60.351 0.869 -29.355 0.869 -29.355 0.49 60.351
12600 0.492 60.244 0.868 -29.464 0.868 -29.464 0.492 60.244
12650 0.494 60.136 0.867 -29.572 0.867 -29.572 0.494 60.136
12700 0.495 60.029 0.866 -29.681 0.866 -29.681 0.495 60.029
12750 0.497 59.922 0.865 -29.789 0.865 -29.789 0.497 59.922
12800 0.498 59.815 0.864 -29.896 0.864 -29.896 0.498 59.815
12850 0.5 59.709 0.863 -30.004 0.863 -30.004 0.5 59.709
12900 0.502 59.602 0.863 -30.111 0.863 -30.111 0.502 59.602
12950 0.503 59.496 0.862 -30.218 0.862 -30.218 0.503 59.496
13000 0.505 59.391 0.861 -30.325 0.861 -30.325 0.505 59.391
13050 0.507 59.285 0.86 -30.431 0.86 -30.431 0.507 59.285
13100 0.508 59.18 0.859 -30.537 0.859 -30.537 0.508 59.18
13150 0.51 59.075 0.858 -30.643 0.858 -30.643 0.51 59.075
13200 0.511 58.971 0.857 -30.749 0.857 -30.749 0.511 58.971
13250 0.513 58.866 0.856 -30.854 0.856 -30.854 0.513 58.866
13300 0.514 58.762 0.855 -30.959 0.855 -30.959 0.514 58.762
13350 0.516 58.658 0.854 -31.064 0.854 -31.064 0.516 58.658
13400 0.518 58.555 0.853 -31.168 0.853 -31.168 0.518 58.555
13450 0.519 58.452 0.852 -31.273 0.852 -31.273 0.519 58.452
13500 0.521 58.349 0.851 -31.377 0.851 -31.377 0.521 58.349
13550 0.522 58.246 0.85 -31.48 0.85 -31.48 0.522 58.246
13600 0.524 58.143 0.849 -31.584 0.849 -31.584 0.524 58.143
13650 0.525 58.041 0.848 -31.687 0.848 -31.687 0.525 58.041
13700 0.527 57.939 0.847 -31.79 0.847 -31.79 0.527 57.939
13750 0.528 57.837 0.847 -31.892 0.847 -31.892 0.528 57.837
13800 0.53 57.736 0.846 -31.995 0.846 -31.995 0.53 57.736
13850 0.531 57.634 0.845 -32.097 0.845 -32.097 0.531 57.634
13900 0.533 57.533 0.844 -32.199 0.844 -32.199 0.533 57.533
13950 0.534 57.432 0.843 -32.3 0.843 -32.3 0.534 57.432
14000 0.536 57.332 0.842 -32.402 0.842 -32.402 0.536 57.332
14050 0.537 57.232 0.841 -32.503 0.841 -32.503 0.537 57.232
14100 0.539 57.132 0.84 -32.604 0.84 -32.604 0.539 57.132
14150 0.54 57.032 0.839 -32.704 0.839 -32.704 0.54 57.032
14200 0.542 56.932 0.838 -32.805 0.838 -32.805 0.542 56.932
14250 0.543 56.833 0.837 -32.905 0.837 -32.905 0.543 56.833
14300 0.545 56.734 0.836 -33.005 0.836 -33.005 0.545 56.734
14350 0.546 56.635 0.835 -33.104 0.835 -33.104 0.546 56.635
14400 0.548 56.537 0.834 -33.203 0.834 -33.203 0.548 56.537
14450 0.549 56.439 0.833 -33.302 0.833 -33.302 0.549 56.439
14500 0.551 56.341 0.832 -33.401 0.832 -33.401 0.551 56.341
14550 0.552 56.243 0.831 -33.5 0.831 -33.5 0.552 56.243
14600 0.553 56.145 0.83 -33.598 0.83 -33.598 0.553 56.145
14650 0.555 56.048 0.83 -33.696 0.83 -33.696 0.555 56.048
14700 0.556 55.951 0.829 -33.794 0.829 -33.794 0.556 55.951
14750 0.558 55.854 0.828 -33.891 0.828 -33.891 0.558 55.854
14800 0.559 55.758 0.827 -33.989 0.827 -33.989 0.559 55.758
14850 0.56 55.661 0.826 -34.086 0.826 -34.086 0.56 55.661
14900 0.562 55.565 0.825 -34.183 0.825 -34.183 0.562 55.565
14950 0.563 55.469 0.824 -34.279 0.824 -34.279 0.563 55.469
15000 0.565 55.374 0.823 -34.375 0.823 -34.375 0.565 55.374
15050 0.566 55.278 0.822 -34.471 0.822 -34.471 0.566 55.278
15100 0.567 55.183 0.821 -34.567 0.821 -34.567 0.567 55.183
15150 0.569 55.088 0.82 -34.663 0.82 -34.663 0.569 55.088
15200 0.57 54.994 0.819 -34.758 0.819 -34.758 0.57 54.994
15250 0.571 54.899 0.818 -34.853 0.818 -34.853 0.571 54.899
15300 0.573 54.805 0.817 -34.948 0.817 -34.948 0.573 54.805
15350 0.574 54.711 0.816 -35.043 0.816 -35.043 0.574 54.711
15400 0.576 54.618 0.815 -35.137 0.815 -35.137 0.576 54.618
15450 0.577 54.524 0.814 -35.231 0.814 -35.231 0.577 54.524
15500 0.578 54.431 0.813 -35.325 0.813 -35.325 0.578 54.431
15550 0.58 54.338 0.812 -35.419 0.812 -35.419 0.58 54.338
15600 0.581 54.245 0.812 -35.512 0.812 -35.512 0.581 54.245
15650 0.582 54.153 0.811 -35.605 0.811 -35.605 0.582 54.153
15700 0.584 54.06 0.81 -35.698 0.81 -35.698 0.584 54.06
15750 0.585 53.968 0.809 -35.791 0.809 -35.791 0.585 53.968
15800 0.586 53.877 0.808 -35.883 0.808 -35.883 0.586 53.877
15850 0.587 53.785 0.807 -35.976 0.807 -35.976 0.587 53.785
15900 0.589 53.694 0.806 -36.068 0.806 -36.068 0.589 53.694
15950 0.59 53.603 0.805 -36.159 0.805 -36.159 0.59 53.603
16000 0.591 53.512 0.804 -36.251 0.804 -36.251 0.591 53.512
16050 0.593 53.421 0.803 -36.342 0.803 -36.342 0.593 53.421
16100 0.594 53.331 0.802 -36.433 0.802 -36.433 0.594 53.331
16150 0.595 53.24 0.801 -36.524 0.801 -36.524 0.595 53.24
16200 0.596 53.15 0.8 -36.615 0.8 -36.615 0.596 53.15
16250 0.598 53.061 0.799 -36.705 0.799 -36.705 0.598 53.061
16300 0.599 52.971 0.798 -36.795 0.798 -36.795 0.599 52.971
16350 0.6 52.882 0.797 -36.885 0.797 -36.885 0.6 52.882
16400 0.601 52.793 0.796 -36.975 0.796 -36.975 0.601 52.793
16450 0.603 52.704 0.796 -37.064 0.796 -37.064 0.603 52.704
16500 0.604 52.615 0.795 -37.153 0.795 -37.153 0.604 52.615
16550 0.605 52.527 0.794 -37.242 0.794 -37.242 0.605 52.527
16600 0.606 52.439 0.793 -37.331 0.793 -37.331 0.606 52.439
16650 0.608 52.351 0.792 -37.42 0.792 -37.42 0.608 52.351
16700 0.609 52.263 0.791 -37.508 0.791 -37.508 0.609 52.263
16750 0.61 52.175 0.79 -37.596 0.79 -37.596 0.61 52.175
16800 0.611 52.088 0.789 -37.684 0.789 -37.684 0.611 52.088
16850 0.613 52.001 0.788 -37.771 0.788 -37.771 0.613 52.001
16900 0.614 51.914 0.787 -37.859 0.787 -37.859 0.614 51.914
