! AVX Thin Film Operation		Date: April 2012 
! Description: Accu-P® Series, Thin Film, SMD, RF Capacitor
! Part Number: 08051J2R7QBTTR					
!	100	MHz	-	10.05	GHz			
!	Serial	Measurements						
!								
#	MHZ	S	MA	R	50			
!	S11	S21	S12	S22				
!	dB	Phase	dB	Phase	dB	Phase	dB	Phase
100	0.986	-9.636	0.167	80.347	0.167	80.347	0.986	-9.636
102.469	0.985	-9.87	0.171	80.113	0.171	80.113	0.985	-9.87
104.939	0.984	-10.103	0.175	79.88	0.175	79.88	0.984	-10.103
107.408	0.984	-10.336	0.179	79.646	0.179	79.646	0.984	-10.336
109.878	0.983	-10.569	0.183	79.413	0.183	79.413	0.983	-10.569
112.347	0.982	-10.801	0.187	79.18	0.187	79.18	0.982	-10.801
114.817	0.981	-11.034	0.191	78.947	0.191	78.947	0.981	-11.034
117.286	0.981	-11.265	0.195	78.715	0.195	78.715	0.981	-11.265
119.756	0.98	-11.497	0.199	78.483	0.199	78.483	0.98	-11.497
122.225	0.979	-11.728	0.203	78.252	0.203	78.252	0.979	-11.728
124.694	0.978	-11.959	0.207	78.021	0.207	78.021	0.978	-11.959
127.164	0.977	-12.189	0.211	77.79	0.211	77.79	0.977	-12.189
129.633	0.977	-12.419	0.215	77.559	0.215	77.559	0.977	-12.419
132.103	0.976	-12.649	0.219	77.329	0.219	77.329	0.976	-12.649
134.572	0.975	-12.878	0.223	77.1	0.223	77.1	0.975	-12.878
137.042	0.974	-13.107	0.227	76.87	0.227	76.87	0.974	-13.107
139.511	0.973	-13.336	0.231	76.641	0.231	76.641	0.973	-13.336
141.981	0.972	-13.564	0.235	76.413	0.235	76.413	0.972	-13.564
144.45	0.971	-13.791	0.238	76.185	0.238	76.185	0.971	-13.791
146.919	0.97	-14.019	0.242	75.957	0.242	75.957	0.97	-14.019
149.389	0.969	-14.246	0.246	75.73	0.246	75.73	0.969	-14.246
151.858	0.968	-14.472	0.25	75.503	0.25	75.503	0.968	-14.472
154.328	0.967	-14.698	0.254	75.276	0.254	75.276	0.967	-14.698
156.797	0.966	-14.924	0.258	75.05	0.258	75.05	0.966	-14.924
159.267	0.965	-15.149	0.261	74.824	0.261	74.824	0.965	-15.149
161.736	0.964	-15.374	0.265	74.599	0.265	74.599	0.964	-15.374
164.206	0.963	-15.598	0.269	74.375	0.269	74.375	0.963	-15.598
166.675	0.962	-15.822	0.273	74.15	0.273	74.15	0.962	-15.822
169.144	0.961	-16.046	0.276	73.926	0.276	73.926	0.961	-16.046
171.614	0.96	-16.269	0.28	73.703	0.28	73.703	0.96	-16.269
174.083	0.959	-16.491	0.284	73.48	0.284	73.48	0.959	-16.491
176.553	0.958	-16.713	0.288	73.258	0.288	73.258	0.958	-16.713
179.022	0.956	-16.935	0.291	73.036	0.291	73.036	0.956	-16.935
181.492	0.955	-17.156	0.295	72.814	0.295	72.814	0.955	-17.156
183.961	0.954	-17.377	0.299	72.593	0.299	72.593	0.954	-17.377
186.431	0.953	-17.597	0.302	72.372	0.302	72.372	0.953	-17.597
188.9	0.952	-17.816	0.306	72.152	0.306	72.152	0.952	-17.816
191.369	0.951	-18.036	0.31	71.933	0.31	71.933	0.951	-18.036
193.839	0.949	-18.254	0.313	71.714	0.313	71.714	0.949	-18.254
196.308	0.948	-18.472	0.317	71.495	0.317	71.495	0.948	-18.472
198.778	0.947	-18.69	0.32	71.277	0.32	71.277	0.947	-18.69
201.247	0.946	-18.907	0.324	71.059	0.324	71.059	0.946	-18.907
203.717	0.945	-19.124	0.328	70.842	0.328	70.842	0.945	-19.124
206.186	0.943	-19.34	0.331	70.626	0.331	70.626	0.943	-19.34
208.656	0.942	-19.556	0.335	70.41	0.335	70.41	0.942	-19.556
211.125	0.941	-19.771	0.338	70.194	0.338	70.194	0.941	-19.771
213.594	0.94	-19.986	0.342	69.979	0.342	69.979	0.94	-19.986
216.064	0.938	-20.2	0.345	69.765	0.345	69.765	0.938	-20.2
218.533	0.937	-20.413	0.349	69.551	0.349	69.551	0.937	-20.413
221.003	0.936	-20.626	0.352	69.337	0.352	69.337	0.936	-20.626
223.472	0.934	-20.839	0.356	69.124	0.356	69.124	0.934	-20.839
225.942	0.933	-21.051	0.359	68.912	0.359	68.912	0.933	-21.051
228.411	0.932	-21.262	0.363	68.7	0.363	68.7	0.932	-21.262
230.881	0.93	-21.473	0.366	68.489	0.366	68.489	0.93	-21.473
233.35	0.929	-21.683	0.369	68.278	0.369	68.278	0.929	-21.683
235.819	0.928	-21.893	0.373	68.068	0.373	68.068	0.928	-21.893
238.289	0.926	-22.102	0.376	67.859	0.376	67.859	0.926	-22.102
240.758	0.925	-22.31	0.38	67.65	0.38	67.65	0.925	-22.31
243.228	0.923	-22.519	0.383	67.441	0.383	67.441	0.923	-22.519
245.697	0.922	-22.726	0.386	67.233	0.386	67.233	0.922	-22.726
248.167	0.921	-22.933	0.39	67.026	0.39	67.026	0.921	-22.933
250.636	0.919	-23.139	0.393	66.819	0.393	66.819	0.919	-23.139
253.106	0.918	-23.345	0.396	66.613	0.396	66.613	0.918	-23.345
255.575	0.916	-23.55	0.4	66.407	0.4	66.407	0.916	-23.55
258.044	0.915	-23.755	0.403	66.202	0.403	66.202	0.915	-23.755
260.514	0.914	-23.959	0.406	65.998	0.406	65.998	0.914	-23.959
262.983	0.912	-24.162	0.409	65.794	0.409	65.794	0.912	-24.162
265.453	0.911	-24.365	0.413	65.591	0.413	65.591	0.911	-24.365
267.922	0.909	-24.567	0.416	65.388	0.416	65.388	0.909	-24.567
270.392	0.908	-24.769	0.419	65.186	0.419	65.186	0.908	-24.769
272.861	0.906	-24.97	0.422	64.984	0.422	64.984	0.906	-24.97
275.331	0.905	-25.171	0.425	64.783	0.425	64.783	0.905	-25.171
277.8	0.903	-25.371	0.428	64.583	0.428	64.583	0.903	-25.371
280.269	0.902	-25.57	0.432	64.383	0.432	64.383	0.902	-25.57
282.739	0.9	-25.769	0.435	64.184	0.435	64.184	0.9	-25.769
285.208	0.899	-25.967	0.438	63.986	0.438	63.986	0.899	-25.967
287.678	0.897	-26.165	0.441	63.788	0.441	63.788	0.897	-26.165
290.147	0.896	-26.361	0.444	63.59	0.444	63.59	0.896	-26.361
292.617	0.894	-26.558	0.447	63.393	0.447	63.393	0.894	-26.558
295.086	0.893	-26.754	0.45	63.197	0.45	63.197	0.893	-26.754
297.556	0.891	-26.949	0.453	63.002	0.453	63.002	0.891	-26.949
300.025	0.889	-27.143	0.456	62.807	0.456	62.807	0.889	-27.143
302.494	0.888	-27.337	0.459	62.612	0.459	62.612	0.888	-27.337
304.964	0.886	-27.53	0.462	62.419	0.462	62.419	0.886	-27.53
307.433	0.885	-27.723	0.465	62.226	0.465	62.226	0.885	-27.723
309.903	0.883	-27.915	0.468	62.033	0.468	62.033	0.883	-27.915
312.372	0.882	-28.107	0.471	61.841	0.471	61.841	0.882	-28.107
314.842	0.88	-28.298	0.474	61.65	0.474	61.65	0.88	-28.298
317.311	0.878	-28.488	0.477	61.459	0.477	61.459	0.878	-28.488
319.78	0.877	-28.678	0.48	61.269	0.48	61.269	0.877	-28.678
322.25	0.875	-28.867	0.483	61.08	0.483	61.08	0.875	-28.867
324.719	0.874	-29.055	0.486	60.891	0.486	60.891	0.874	-29.055
327.189	0.872	-29.243	0.489	60.702	0.489	60.702	0.872	-29.243
329.658	0.87	-29.43	0.491	60.515	0.491	60.515	0.87	-29.43
332.128	0.869	-29.617	0.494	60.328	0.494	60.328	0.869	-29.617
334.597	0.867	-29.803	0.497	60.141	0.497	60.141	0.867	-29.803
337.067	0.866	-29.988	0.5	59.956	0.5	59.956	0.866	-29.988
339.536	0.864	-30.173	0.503	59.77	0.503	59.77	0.864	-30.173
342.005	0.862	-30.357	0.505	59.586	0.505	59.586	0.862	-30.357
344.475	0.861	-30.54	0.508	59.402	0.508	59.402	0.861	-30.54
346.944	0.859	-30.723	0.511	59.219	0.511	59.219	0.859	-30.723
349.414	0.857	-30.906	0.514	59.036	0.514	59.036	0.857	-30.906
351.883	0.856	-31.087	0.516	58.854	0.516	58.854	0.856	-31.087
354.353	0.854	-31.268	0.519	58.672	0.519	58.672	0.854	-31.268
356.822	0.853	-31.449	0.522	58.491	0.522	58.491	0.853	-31.449
359.292	0.851	-31.629	0.524	58.311	0.524	58.311	0.851	-31.629
361.761	0.849	-31.808	0.527	58.132	0.527	58.132	0.849	-31.808
364.23	0.848	-31.986	0.53	57.953	0.53	57.953	0.848	-31.986
366.7	0.846	-32.164	0.532	57.774	0.532	57.774	0.846	-32.164
369.169	0.844	-32.342	0.535	57.596	0.535	57.596	0.844	-32.342
371.639	0.843	-32.519	0.538	57.419	0.538	57.419	0.843	-32.519
374.108	0.841	-32.695	0.54	57.243	0.54	57.243	0.841	-32.695
376.578	0.839	-32.87	0.543	57.067	0.543	57.067	0.839	-32.87
379.047	0.838	-33.045	0.545	56.891	0.545	56.891	0.838	-33.045
381.517	0.836	-33.219	0.548	56.717	0.548	56.717	0.836	-33.219
383.986	0.834	-33.393	0.55	56.543	0.55	56.543	0.834	-33.393
386.455	0.833	-33.566	0.553	56.369	0.553	56.369	0.833	-33.566
388.925	0.831	-33.739	0.555	56.196	0.555	56.196	0.831	-33.739
391.394	0.829	-33.91	0.558	56.024	0.558	56.024	0.829	-33.91
393.864	0.828	-34.082	0.56	55.852	0.56	55.852	0.828	-34.082
396.333	0.826	-34.252	0.563	55.681	0.563	55.681	0.826	-34.252
398.803	0.824	-34.422	0.565	55.511	0.565	55.511	0.824	-34.422
401.272	0.823	-34.592	0.568	55.341	0.568	55.341	0.823	-34.592
403.742	0.821	-34.76	0.57	55.172	0.57	55.172	0.821	-34.76
406.211	0.819	-34.929	0.573	55.003	0.573	55.003	0.819	-34.929
408.68	0.818	-35.096	0.575	54.835	0.575	54.835	0.818	-35.096
411.15	0.816	-35.263	0.577	54.668	0.577	54.668	0.816	-35.263
413.619	0.814	-35.43	0.58	54.501	0.58	54.501	0.814	-35.43
416.089	0.812	-35.595	0.582	54.335	0.582	54.335	0.812	-35.595
418.558	0.811	-35.76	0.584	54.169	0.584	54.169	0.811	-35.76
421.028	0.809	-35.925	0.587	54.004	0.587	54.004	0.809	-35.925
423.497	0.807	-36.089	0.589	53.84	0.589	53.84	0.807	-36.089
425.967	0.806	-36.252	0.591	53.676	0.591	53.676	0.806	-36.252
428.436	0.804	-36.415	0.594	53.513	0.594	53.513	0.804	-36.415
430.905	0.802	-36.577	0.596	53.35	0.596	53.35	0.802	-36.577
433.375	0.801	-36.739	0.598	53.188	0.598	53.188	0.801	-36.739
435.844	0.799	-36.9	0.6	53.027	0.6	53.027	0.799	-36.9
438.314	0.797	-37.06	0.603	52.866	0.603	52.866	0.797	-37.06
440.783	0.796	-37.22	0.605	52.706	0.605	52.706	0.796	-37.22
443.253	0.794	-37.379	0.607	52.546	0.607	52.546	0.794	-37.379
445.722	0.792	-37.538	0.609	52.387	0.609	52.387	0.792	-37.538
448.192	0.79	-37.696	0.611	52.229	0.611	52.229	0.79	-37.696
450.661	0.789	-37.853	0.614	52.071	0.614	52.071	0.789	-37.853
453.13	0.787	-38.01	0.616	51.914	0.616	51.914	0.787	-38.01
455.6	0.785	-38.166	0.618	51.757	0.618	51.757	0.785	-38.166
458.069	0.784	-38.322	0.62	51.601	0.62	51.601	0.784	-38.322
460.539	0.782	-38.477	0.622	51.445	0.622	51.445	0.782	-38.477
463.008	0.78	-38.632	0.624	51.29	0.624	51.29	0.78	-38.632
465.478	0.779	-38.786	0.626	51.136	0.626	51.136	0.779	-38.786
467.947	0.777	-38.939	0.628	50.982	0.628	50.982	0.777	-38.939
470.417	0.775	-39.092	0.631	50.829	0.631	50.829	0.775	-39.092
472.886	0.774	-39.244	0.633	50.676	0.633	50.676	0.774	-39.244
475.355	0.772	-39.396	0.635	50.524	0.635	50.524	0.772	-39.396
477.825	0.77	-39.547	0.637	50.373	0.637	50.373	0.77	-39.547
480.294	0.769	-39.697	0.639	50.222	0.639	50.222	0.769	-39.697
482.764	0.767	-39.847	0.641	50.071	0.641	50.071	0.767	-39.847
485.233	0.765	-39.997	0.643	49.922	0.643	49.922	0.765	-39.997
487.703	0.763	-40.145	0.645	49.772	0.645	49.772	0.763	-40.145
490.172	0.762	-40.294	0.647	49.624	0.647	49.624	0.762	-40.294
492.642	0.76	-40.441	0.649	49.476	0.649	49.476	0.76	-40.441
495.111	0.758	-40.588	0.651	49.328	0.651	49.328	0.758	-40.588
497.58	0.757	-40.735	0.653	49.181	0.653	49.181	0.757	-40.735
500.05	0.755	-40.881	0.654	49.035	0.654	49.035	0.755	-40.881
502.519	0.753	-41.026	0.656	48.889	0.656	48.889	0.753	-41.026
504.989	0.752	-41.171	0.658	48.743	0.658	48.743	0.752	-41.171
507.458	0.75	-41.316	0.66	48.599	0.66	48.599	0.75	-41.316
509.928	0.748	-41.459	0.662	48.454	0.662	48.454	0.748	-41.459
512.397	0.747	-41.603	0.664	48.311	0.664	48.311	0.747	-41.603
514.867	0.745	-41.745	0.666	48.167	0.666	48.167	0.745	-41.745
517.336	0.743	-41.888	0.668	48.025	0.668	48.025	0.743	-41.888
519.805	0.742	-42.029	0.67	47.883	0.67	47.883	0.742	-42.029
522.275	0.74	-42.17	0.671	47.741	0.671	47.741	0.74	-42.17
524.744	0.738	-42.311	0.673	47.6	0.673	47.6	0.738	-42.311
527.214	0.737	-42.451	0.675	47.46	0.675	47.46	0.737	-42.451
529.683	0.735	-42.59	0.677	47.32	0.677	47.32	0.735	-42.59
532.153	0.734	-42.729	0.679	47.181	0.679	47.181	0.734	-42.729
534.622	0.732	-42.868	0.68	47.042	0.68	47.042	0.732	-42.868
537.092	0.73	-43.005	0.682	46.904	0.682	46.904	0.73	-43.005
539.561	0.729	-43.143	0.684	46.766	0.684	46.766	0.729	-43.143
542.03	0.727	-43.28	0.686	46.628	0.686	46.628	0.727	-43.28
544.5	0.725	-43.416	0.687	46.492	0.687	46.492	0.725	-43.416
546.969	0.724	-43.552	0.689	46.356	0.689	46.356	0.724	-43.552
549.439	0.722	-43.687	0.691	46.22	0.691	46.22	0.722	-43.687
551.908	0.72	-43.822	0.692	46.085	0.692	46.085	0.72	-43.822
554.378	0.719	-43.956	0.694	45.95	0.694	45.95	0.719	-43.956
556.847	0.717	-44.089	0.696	45.816	0.696	45.816	0.717	-44.089
559.317	0.715	-44.223	0.697	45.682	0.697	45.682	0.715	-44.223
561.786	0.714	-44.355	0.699	45.549	0.699	45.549	0.714	-44.355
564.255	0.712	-44.487	0.701	45.417	0.701	45.417	0.712	-44.487
566.725	0.711	-44.619	0.702	45.285	0.702	45.285	0.711	-44.619
569.194	0.709	-44.75	0.704	45.153	0.704	45.153	0.709	-44.75
571.664	0.707	-44.881	0.706	45.022	0.706	45.022	0.707	-44.881
574.133	0.706	-45.011	0.707	44.891	0.707	44.891	0.706	-45.011
576.603	0.704	-45.141	0.709	44.761	0.709	44.761	0.704	-45.141
579.072	0.703	-45.27	0.71	44.632	0.71	44.632	0.703	-45.27
581.542	0.701	-45.398	0.712	44.503	0.712	44.503	0.701	-45.398
584.011	0.699	-45.527	0.714	44.374	0.714	44.374	0.699	-45.527
586.48	0.698	-45.654	0.715	44.246	0.715	44.246	0.698	-45.654
588.95	0.696	-45.781	0.717	44.118	0.717	44.118	0.696	-45.781
591.419	0.695	-45.908	0.718	43.991	0.718	43.991	0.695	-45.908
593.889	0.693	-46.034	0.72	43.864	0.72	43.864	0.693	-46.034
596.358	0.691	-46.16	0.721	43.738	0.721	43.738	0.691	-46.16
598.828	0.69	-46.285	0.723	43.613	0.723	43.613	0.69	-46.285
601.297	0.688	-46.41	0.724	43.487	0.724	43.487	0.688	-46.41
603.767	0.687	-46.534	0.726	43.363	0.726	43.363	0.687	-46.534
606.236	0.685	-46.658	0.727	43.239	0.727	43.239	0.685	-46.658
608.705	0.683	-46.781	0.729	43.115	0.729	43.115	0.683	-46.781
611.175	0.682	-46.904	0.73	42.991	0.73	42.991	0.682	-46.904
613.644	0.68	-47.026	0.732	42.869	0.732	42.869	0.68	-47.026
616.114	0.679	-47.148	0.733	42.746	0.733	42.746	0.679	-47.148
618.583	0.677	-47.27	0.735	42.624	0.735	42.624	0.677	-47.27
621.053	0.676	-47.391	0.736	42.503	0.736	42.503	0.676	-47.391
623.522	0.674	-47.511	0.737	42.382	0.737	42.382	0.674	-47.511
625.992	0.673	-47.631	0.739	42.262	0.739	42.262	0.673	-47.631
628.461	0.671	-47.751	0.74	42.142	0.74	42.142	0.671	-47.751
630.93	0.669	-47.87	0.742	42.022	0.742	42.022	0.669	-47.87
633.4	0.668	-47.989	0.743	41.903	0.743	41.903	0.668	-47.989
635.869	0.666	-48.107	0.744	41.784	0.744	41.784	0.666	-48.107
638.339	0.665	-48.225	0.746	41.666	0.746	41.666	0.665	-48.225
640.808	0.663	-48.342	0.747	41.548	0.747	41.548	0.663	-48.342
643.278	0.662	-48.459	0.748	41.431	0.748	41.431	0.662	-48.459
645.747	0.66	-48.575	0.75	41.314	0.75	41.314	0.66	-48.575
648.217	0.659	-48.691	0.751	41.198	0.751	41.198	0.659	-48.691
650.686	0.657	-48.807	0.752	41.082	0.752	41.082	0.657	-48.807
653.155	0.656	-48.922	0.754	40.966	0.754	40.966	0.656	-48.922
655.625	0.654	-49.036	0.755	40.851	0.755	40.851	0.654	-49.036
658.094	0.653	-49.151	0.756	40.736	0.756	40.736	0.653	-49.151
660.564	0.651	-49.264	0.758	40.622	0.758	40.622	0.651	-49.264
663.033	0.65	-49.378	0.759	40.508	0.759	40.508	0.65	-49.378
665.503	0.648	-49.491	0.76	40.395	0.76	40.395	0.648	-49.491
667.972	0.647	-49.603	0.762	40.282	0.762	40.282	0.647	-49.603
670.442	0.645	-49.715	0.763	40.17	0.763	40.17	0.645	-49.715
672.911	0.644	-49.827	0.764	40.058	0.764	40.058	0.644	-49.827
675.38	0.642	-49.938	0.765	39.946	0.765	39.946	0.642	-49.938
677.85	0.641	-50.049	0.767	39.835	0.767	39.835	0.641	-50.049
680.319	0.639	-50.159	0.768	39.724	0.768	39.724	0.639	-50.159
682.789	0.638	-50.269	0.769	39.613	0.769	39.613	0.638	-50.269
685.258	0.636	-50.379	0.77	39.503	0.77	39.503	0.636	-50.379
687.728	0.635	-50.488	0.771	39.394	0.771	39.394	0.635	-50.488
690.197	0.633	-50.596	0.773	39.285	0.773	39.285	0.633	-50.596
692.667	0.632	-50.705	0.774	39.176	0.774	39.176	0.632	-50.705
695.136	0.63	-50.813	0.775	39.068	0.775	39.068	0.63	-50.813
697.605	0.629	-50.92	0.776	38.96	0.776	38.96	0.629	-50.92
700.075	0.627	-51.027	0.777	38.852	0.777	38.852	0.627	-51.027
702.544	0.626	-51.134	0.779	38.745	0.779	38.745	0.626	-51.134
705.014	0.624	-51.24	0.78	38.638	0.78	38.638	0.624	-51.24
707.483	0.623	-51.346	0.781	38.532	0.781	38.532	0.623	-51.346
709.953	0.622	-51.451	0.782	38.426	0.782	38.426	0.622	-51.451
712.422	0.62	-51.556	0.783	38.32	0.783	38.32	0.62	-51.556
714.891	0.619	-51.661	0.784	38.215	0.784	38.215	0.619	-51.661
717.361	0.617	-51.765	0.785	38.111	0.785	38.111	0.617	-51.765
719.83	0.616	-51.869	0.787	38.006	0.787	38.006	0.616	-51.869
722.3	0.614	-51.973	0.788	37.902	0.788	37.902	0.614	-51.973
724.769	0.613	-52.076	0.789	37.799	0.789	37.799	0.613	-52.076
727.239	0.611	-52.179	0.79	37.696	0.79	37.696	0.611	-52.179
729.708	0.61	-52.281	0.791	37.593	0.791	37.593	0.61	-52.281
732.178	0.609	-52.383	0.792	37.49	0.792	37.49	0.609	-52.383
734.647	0.607	-52.484	0.793	37.388	0.793	37.388	0.607	-52.484
737.116	0.606	-52.586	0.794	37.287	0.794	37.287	0.606	-52.586
739.586	0.604	-52.687	0.795	37.185	0.795	37.185	0.604	-52.687
742.055	0.603	-52.787	0.796	37.084	0.796	37.084	0.603	-52.787
744.525	0.602	-52.887	0.797	36.984	0.797	36.984	0.602	-52.887
746.994	0.6	-52.987	0.798	36.884	0.798	36.884	0.6	-52.987
749.464	0.599	-53.086	0.8	36.784	0.8	36.784	0.599	-53.086
751.933	0.597	-53.185	0.801	36.684	0.801	36.684	0.597	-53.185
754.403	0.596	-53.284	0.802	36.585	0.802	36.585	0.596	-53.284
756.872	0.595	-53.382	0.803	36.487	0.803	36.487	0.595	-53.382
759.341	0.593	-53.48	0.804	36.388	0.804	36.388	0.593	-53.48
761.811	0.592	-53.577	0.805	36.29	0.805	36.29	0.592	-53.577
764.28	0.591	-53.674	0.806	36.193	0.806	36.193	0.591	-53.674
766.75	0.589	-53.771	0.807	36.095	0.807	36.095	0.589	-53.771
769.219	0.588	-53.868	0.808	35.998	0.808	35.998	0.588	-53.868
771.689	0.586	-53.964	0.809	35.902	0.809	35.902	0.586	-53.964
774.158	0.585	-54.06	0.81	35.806	0.81	35.806	0.585	-54.06
776.628	0.584	-54.155	0.811	35.71	0.811	35.71	0.584	-54.155
779.097	0.582	-54.25	0.812	35.614	0.812	35.614	0.582	-54.25
781.566	0.581	-54.345	0.813	35.519	0.813	35.519	0.581	-54.345
784.036	0.58	-54.439	0.813	35.424	0.813	35.424	0.58	-54.439
786.505	0.578	-54.533	0.814	35.33	0.814	35.33	0.578	-54.533
788.975	0.577	-54.627	0.815	35.236	0.815	35.236	0.577	-54.627
791.444	0.576	-54.72	0.816	35.142	0.816	35.142	0.576	-54.72
793.914	0.574	-54.813	0.817	35.048	0.817	35.048	0.574	-54.813
796.383	0.573	-54.906	0.818	34.955	0.818	34.955	0.573	-54.906
798.853	0.572	-54.998	0.819	34.863	0.819	34.863	0.572	-54.998
801.322	0.57	-55.09	0.82	34.77	0.82	34.77	0.57	-55.09
803.791	0.569	-55.181	0.821	34.678	0.821	34.678	0.569	-55.181
806.261	0.568	-55.273	0.822	34.586	0.822	34.586	0.568	-55.273
808.73	0.566	-55.364	0.823	34.495	0.823	34.495	0.566	-55.364
811.2	0.565	-55.454	0.824	34.404	0.824	34.404	0.565	-55.454
813.669	0.564	-55.545	0.825	34.313	0.825	34.313	0.564	-55.545
816.139	0.562	-55.635	0.825	34.222	0.825	34.222	0.562	-55.635
818.608	0.561	-55.724	0.826	34.132	0.826	34.132	0.561	-55.724
821.078	0.56	-55.814	0.827	34.042	0.827	34.042	0.56	-55.814
823.547	0.559	-55.903	0.828	33.953	0.828	33.953	0.559	-55.903
826.016	0.557	-55.991	0.829	33.864	0.829	33.864	0.557	-55.991
828.486	0.556	-56.08	0.83	33.775	0.83	33.775	0.556	-56.08
830.955	0.555	-56.168	0.831	33.686	0.831	33.686	0.555	-56.168
833.425	0.553	-56.255	0.832	33.598	0.832	33.598	0.553	-56.255
835.894	0.552	-56.343	0.832	33.51	0.832	33.51	0.552	-56.343
838.364	0.551	-56.43	0.833	33.423	0.833	33.423	0.551	-56.43
840.833	0.55	-56.517	0.834	33.335	0.834	33.335	0.55	-56.517
843.303	0.548	-56.603	0.835	33.248	0.835	33.248	0.548	-56.603
845.772	0.547	-56.69	0.836	33.162	0.836	33.162	0.547	-56.69
848.241	0.546	-56.775	0.837	33.075	0.837	33.075	0.546	-56.775
850.711	0.544	-56.861	0.837	32.989	0.837	32.989	0.544	-56.861
853.18	0.543	-56.946	0.838	32.903	0.838	32.903	0.543	-56.946
855.65	0.542	-57.031	0.839	32.818	0.839	32.818	0.542	-57.031
858.119	0.541	-57.116	0.84	32.733	0.84	32.733	0.541	-57.116
860.589	0.539	-57.2	0.841	32.648	0.841	32.648	0.539	-57.2
863.058	0.538	-57.284	0.841	32.563	0.841	32.563	0.538	-57.284
865.528	0.537	-57.368	0.842	32.479	0.842	32.479	0.537	-57.368
867.997	0.536	-57.452	0.843	32.395	0.843	32.395	0.536	-57.452
870.466	0.535	-57.535	0.844	32.311	0.844	32.311	0.535	-57.535
872.936	0.533	-57.618	0.844	32.228	0.844	32.228	0.533	-57.618
875.405	0.532	-57.7	0.845	32.145	0.845	32.145	0.532	-57.7
877.875	0.531	-57.783	0.846	32.062	0.846	32.062	0.531	-57.783
880.344	0.53	-57.865	0.847	31.979	0.847	31.979	0.53	-57.865
882.814	0.528	-57.947	0.848	31.897	0.848	31.897	0.528	-57.947
885.283	0.527	-58.028	0.848	31.815	0.848	31.815	0.527	-58.028
887.753	0.526	-58.109	0.849	31.733	0.849	31.733	0.526	-58.109
890.222	0.525	-58.19	0.85	31.652	0.85	31.652	0.525	-58.19
892.691	0.524	-58.271	0.851	31.571	0.851	31.571	0.524	-58.271
895.161	0.522	-58.351	0.851	31.49	0.851	31.49	0.522	-58.351
