! AVX Thin Film Operation		Date: April 2012 
! Description: Accu-P® Series, Thin Film, SMD, RF Capacitor
! Part Number: 08053J300FBTTR					
!	100	MHz	-	10.05	GHz			
!	Serial	Measurements						
!								
#	MHZ	S	MA	R	50			
!	S11	S21	S12	S22				
!	dB	Phase	dB	Phase	dB	Phase	dB	Phase
100	0.465	-62.19	0.885	27.711	0.885	27.711	0.465	-62.19
102.469	0.456	-62.77	0.889	27.129	0.889	27.129	0.456	-62.77
104.939	0.447	-63.328	0.894	26.569	0.894	26.569	0.447	-63.328
107.408	0.439	-63.866	0.898	26.029	0.898	26.029	0.439	-63.866
109.878	0.431	-64.384	0.902	25.508	0.902	25.508	0.431	-64.384
112.347	0.423	-64.884	0.905	25.006	0.905	25.006	0.423	-64.884
114.817	0.415	-65.366	0.909	24.521	0.909	24.521	0.415	-65.366
117.286	0.408	-65.832	0.912	24.052	0.912	24.052	0.408	-65.832
119.756	0.4	-66.282	0.916	23.6	0.916	23.6	0.4	-66.282
122.225	0.393	-66.717	0.919	23.162	0.919	23.162	0.393	-66.717
124.694	0.387	-67.137	0.921	22.74	0.921	22.74	0.387	-67.137
127.164	0.38	-67.544	0.924	22.33	0.924	22.33	0.38	-67.544
129.633	0.374	-67.938	0.927	21.934	0.927	21.934	0.374	-67.938
132.103	0.367	-68.319	0.929	21.55	0.929	21.55	0.367	-68.319
134.572	0.361	-68.688	0.932	21.179	0.932	21.179	0.361	-68.688
137.042	0.355	-69.046	0.934	20.818	0.934	20.818	0.355	-69.046
139.511	0.35	-69.393	0.936	20.469	0.936	20.469	0.35	-69.393
141.981	0.344	-69.729	0.938	20.13	0.938	20.13	0.344	-69.729
144.45	0.339	-70.056	0.94	19.801	0.94	19.801	0.339	-70.056
146.919	0.334	-70.373	0.942	19.482	0.942	19.482	0.334	-70.373
149.389	0.328	-70.68	0.944	19.171	0.944	19.171	0.328	-70.68
151.858	0.323	-70.979	0.945	18.87	0.945	18.87	0.323	-70.979
154.328	0.319	-71.27	0.947	18.577	0.947	18.577	0.319	-71.27
156.797	0.314	-71.552	0.949	18.292	0.949	18.292	0.314	-71.552
159.267	0.309	-71.827	0.95	18.015	0.95	18.015	0.309	-71.827
161.736	0.305	-72.094	0.952	17.745	0.952	17.745	0.305	-72.094
164.206	0.3	-72.354	0.953	17.482	0.953	17.482	0.3	-72.354
166.675	0.296	-72.608	0.954	17.226	0.954	17.226	0.296	-72.608
169.144	0.292	-72.854	0.956	16.977	0.956	16.977	0.292	-72.854
171.614	0.288	-73.094	0.957	16.734	0.957	16.734	0.288	-73.094
174.083	0.284	-73.328	0.958	16.498	0.958	16.498	0.284	-73.328
176.553	0.28	-73.557	0.959	16.267	0.959	16.267	0.28	-73.557
179.022	0.276	-73.779	0.96	16.042	0.96	16.042	0.276	-73.779
181.492	0.273	-73.996	0.961	15.822	0.961	15.822	0.273	-73.996
183.961	0.269	-74.208	0.962	15.608	0.962	15.608	0.269	-74.208
186.431	0.266	-74.415	0.963	15.398	0.963	15.398	0.266	-74.415
188.9	0.262	-74.616	0.964	15.194	0.964	15.194	0.262	-74.616
191.369	0.259	-74.813	0.965	14.994	0.965	14.994	0.259	-74.813
193.839	0.255	-75.006	0.966	14.799	0.966	14.799	0.255	-75.006
196.308	0.252	-75.194	0.967	14.608	0.967	14.608	0.252	-75.194
198.778	0.249	-75.378	0.968	14.422	0.968	14.422	0.249	-75.378
201.247	0.246	-75.557	0.968	14.24	0.968	14.24	0.246	-75.557
203.717	0.243	-75.733	0.969	14.061	0.969	14.061	0.243	-75.733
206.186	0.24	-75.905	0.97	13.887	0.97	13.887	0.24	-75.905
208.656	0.237	-76.073	0.971	13.716	0.971	13.716	0.237	-76.073
211.125	0.234	-76.237	0.971	13.549	0.971	13.549	0.234	-76.237
213.594	0.231	-76.398	0.972	13.385	0.972	13.385	0.231	-76.398
216.064	0.229	-76.556	0.973	13.225	0.973	13.225	0.229	-76.556
218.533	0.226	-76.71	0.973	13.068	0.973	13.068	0.226	-76.71
221.003	0.223	-76.861	0.974	12.914	0.974	12.914	0.223	-76.861
223.472	0.221	-77.009	0.974	12.763	0.974	12.763	0.221	-77.009
225.942	0.218	-77.154	0.975	12.615	0.975	12.615	0.218	-77.154
228.411	0.216	-77.296	0.976	12.471	0.976	12.471	0.216	-77.296
230.881	0.214	-77.436	0.976	12.328	0.976	12.328	0.214	-77.436
233.35	0.211	-77.572	0.977	12.189	0.977	12.189	0.211	-77.572
235.819	0.209	-77.706	0.977	12.052	0.977	12.052	0.209	-77.706
238.289	0.207	-77.838	0.978	11.918	0.978	11.918	0.207	-77.838
240.758	0.204	-77.967	0.978	11.787	0.978	11.787	0.204	-77.967
243.228	0.202	-78.093	0.978	11.657	0.978	11.657	0.202	-78.093
245.697	0.2	-78.217	0.979	11.53	0.979	11.53	0.2	-78.217
248.167	0.198	-78.339	0.979	11.406	0.979	11.406	0.198	-78.339
250.636	0.196	-78.458	0.98	11.283	0.98	11.283	0.196	-78.458
253.106	0.194	-78.576	0.98	11.163	0.98	11.163	0.194	-78.576
255.575	0.192	-78.691	0.981	11.045	0.981	11.045	0.192	-78.691
258.044	0.19	-78.804	0.981	10.929	0.981	10.929	0.19	-78.804
260.514	0.188	-78.915	0.981	10.815	0.981	10.815	0.188	-78.915
262.983	0.186	-79.025	0.982	10.703	0.982	10.703	0.186	-79.025
265.453	0.184	-79.132	0.982	10.592	0.982	10.592	0.184	-79.132
267.922	0.182	-79.238	0.982	10.484	0.982	10.484	0.182	-79.238
270.392	0.18	-79.341	0.983	10.377	0.983	10.377	0.18	-79.341
272.861	0.178	-79.443	0.983	10.272	0.983	10.272	0.178	-79.443
275.331	0.177	-79.544	0.983	10.169	0.983	10.169	0.177	-79.544
277.8	0.175	-79.642	0.984	10.068	0.984	10.068	0.175	-79.642
280.269	0.173	-79.739	0.984	9.968	0.984	9.968	0.173	-79.739
282.739	0.171	-79.835	0.984	9.869	0.984	9.869	0.171	-79.835
285.208	0.17	-79.928	0.985	9.772	0.985	9.772	0.17	-79.928
287.678	0.168	-80.021	0.985	9.677	0.985	9.677	0.168	-80.021
290.147	0.166	-80.112	0.985	9.583	0.985	9.583	0.166	-80.112
292.617	0.165	-80.201	0.985	9.491	0.985	9.491	0.165	-80.201
295.086	0.163	-80.289	0.986	9.4	0.986	9.4	0.163	-80.289
297.556	0.162	-80.376	0.986	9.31	0.986	9.31	0.162	-80.376
300.025	0.16	-80.461	0.986	9.221	0.986	9.221	0.16	-80.461
302.494	0.159	-80.545	0.986	9.134	0.986	9.134	0.159	-80.545
304.964	0.157	-80.628	0.987	9.048	0.987	9.048	0.157	-80.628
307.433	0.156	-80.71	0.987	8.964	0.987	8.964	0.156	-80.71
309.903	0.154	-80.79	0.987	8.88	0.987	8.88	0.154	-80.79
312.372	0.153	-80.869	0.987	8.798	0.987	8.798	0.153	-80.869
314.842	0.152	-80.947	0.988	8.717	0.988	8.717	0.152	-80.947
317.311	0.15	-81.024	0.988	8.637	0.988	8.637	0.15	-81.024
319.78	0.149	-81.099	0.988	8.558	0.988	8.558	0.149	-81.099
322.25	0.147	-81.174	0.988	8.48	0.988	8.48	0.147	-81.174
324.719	0.146	-81.247	0.988	8.404	0.988	8.404	0.146	-81.247
327.189	0.145	-81.32	0.989	8.328	0.989	8.328	0.145	-81.32
329.658	0.144	-81.391	0.989	8.253	0.989	8.253	0.144	-81.391
332.128	0.142	-81.462	0.989	8.18	0.989	8.18	0.142	-81.462
334.597	0.141	-81.531	0.989	8.107	0.989	8.107	0.141	-81.531
337.067	0.14	-81.6	0.989	8.035	0.989	8.035	0.14	-81.6
339.536	0.139	-81.667	0.989	7.964	0.989	7.964	0.139	-81.667
342.005	0.137	-81.734	0.99	7.894	0.99	7.894	0.137	-81.734
344.475	0.136	-81.8	0.99	7.825	0.99	7.825	0.136	-81.8
346.944	0.135	-81.865	0.99	7.757	0.99	7.757	0.135	-81.865
349.414	0.134	-81.929	0.99	7.69	0.99	7.69	0.134	-81.929
351.883	0.133	-81.992	0.99	7.623	0.99	7.623	0.133	-81.992
354.353	0.132	-82.054	0.99	7.557	0.99	7.557	0.132	-82.054
356.822	0.13	-82.116	0.991	7.492	0.991	7.492	0.13	-82.116
359.292	0.129	-82.177	0.991	7.428	0.991	7.428	0.129	-82.177
361.761	0.128	-82.237	0.991	7.365	0.991	7.365	0.128	-82.237
364.23	0.127	-82.296	0.991	7.302	0.991	7.302	0.127	-82.296
366.7	0.126	-82.354	0.991	7.24	0.991	7.24	0.126	-82.354
369.169	0.125	-82.412	0.991	7.179	0.991	7.179	0.125	-82.412
371.639	0.124	-82.469	0.991	7.119	0.991	7.119	0.124	-82.469
374.108	0.123	-82.525	0.992	7.059	0.992	7.059	0.123	-82.525
376.578	0.122	-82.581	0.992	7	0.992	7	0.122	-82.581
379.047	0.121	-82.635	0.992	6.941	0.992	6.941	0.121	-82.635
381.517	0.12	-82.69	0.992	6.884	0.992	6.884	0.12	-82.69
383.986	0.119	-82.743	0.992	6.827	0.992	6.827	0.119	-82.743
386.455	0.118	-82.796	0.992	6.77	0.992	6.77	0.118	-82.796
388.925	0.117	-82.848	0.992	6.714	0.992	6.714	0.117	-82.848
391.394	0.116	-82.9	0.992	6.659	0.992	6.659	0.116	-82.9
393.864	0.115	-82.951	0.992	6.604	0.992	6.604	0.115	-82.951
396.333	0.114	-83.001	0.993	6.55	0.993	6.55	0.114	-83.001
398.803	0.113	-83.051	0.993	6.497	0.993	6.497	0.113	-83.051
401.272	0.112	-83.1	0.993	6.444	0.993	6.444	0.112	-83.1
403.742	0.111	-83.149	0.993	6.391	0.993	6.391	0.111	-83.149
406.211	0.11	-83.197	0.993	6.34	0.993	6.34	0.11	-83.197
408.68	0.11	-83.244	0.993	6.288	0.993	6.288	0.11	-83.244
411.15	0.109	-83.291	0.993	6.237	0.993	6.237	0.109	-83.291
413.619	0.108	-83.338	0.993	6.187	0.993	6.187	0.108	-83.338
416.089	0.107	-83.383	0.993	6.137	0.993	6.137	0.107	-83.383
418.558	0.106	-83.429	0.993	6.088	0.993	6.088	0.106	-83.429
421.028	0.105	-83.474	0.994	6.039	0.994	6.039	0.105	-83.474
423.497	0.104	-83.518	0.994	5.991	0.994	5.991	0.104	-83.518
425.967	0.104	-83.562	0.994	5.943	0.994	5.943	0.104	-83.562
428.436	0.103	-83.605	0.994	5.896	0.994	5.896	0.103	-83.605
430.905	0.102	-83.648	0.994	5.849	0.994	5.849	0.102	-83.648
433.375	0.101	-83.69	0.994	5.803	0.994	5.803	0.101	-83.69
435.844	0.1	-83.732	0.994	5.757	0.994	5.757	0.1	-83.732
438.314	0.1	-83.774	0.994	5.711	0.994	5.711	0.1	-83.774
440.783	0.099	-83.815	0.994	5.666	0.994	5.666	0.099	-83.815
443.253	0.098	-83.855	0.994	5.621	0.994	5.621	0.098	-83.855
445.722	0.097	-83.895	0.994	5.577	0.994	5.577	0.097	-83.895
448.192	0.096	-83.935	0.994	5.533	0.994	5.533	0.096	-83.935
450.661	0.096	-83.974	0.995	5.49	0.995	5.49	0.096	-83.974
453.13	0.095	-84.013	0.995	5.447	0.995	5.447	0.095	-84.013
455.6	0.094	-84.051	0.995	5.404	0.995	5.404	0.094	-84.051
458.069	0.093	-84.089	0.995	5.362	0.995	5.362	0.093	-84.089
460.539	0.093	-84.127	0.995	5.32	0.995	5.32	0.093	-84.127
463.008	0.092	-84.164	0.995	5.278	0.995	5.278	0.092	-84.164
465.478	0.091	-84.201	0.995	5.237	0.995	5.237	0.091	-84.201
467.947	0.091	-84.237	0.995	5.196	0.995	5.196	0.091	-84.237
470.417	0.09	-84.273	0.995	5.156	0.995	5.156	0.09	-84.273
472.886	0.089	-84.309	0.995	5.115	0.995	5.115	0.089	-84.309
475.355	0.088	-84.344	0.995	5.076	0.995	5.076	0.088	-84.344
477.825	0.088	-84.379	0.995	5.036	0.995	5.036	0.088	-84.379
480.294	0.087	-84.414	0.995	4.997	0.995	4.997	0.087	-84.414
482.764	0.086	-84.448	0.995	4.958	0.995	4.958	0.086	-84.448
485.233	0.086	-84.482	0.995	4.92	0.995	4.92	0.086	-84.482
487.703	0.085	-84.515	0.995	4.882	0.995	4.882	0.085	-84.515
490.172	0.084	-84.548	0.996	4.844	0.996	4.844	0.084	-84.548
492.642	0.084	-84.581	0.996	4.806	0.996	4.806	0.084	-84.581
495.111	0.083	-84.613	0.996	4.769	0.996	4.769	0.083	-84.613
497.58	0.083	-84.645	0.996	4.732	0.996	4.732	0.083	-84.645
500.05	0.082	-84.677	0.996	4.695	0.996	4.695	0.082	-84.677
502.519	0.081	-84.709	0.996	4.659	0.996	4.659	0.081	-84.709
504.989	0.081	-84.74	0.996	4.623	0.996	4.623	0.081	-84.74
507.458	0.08	-84.771	0.996	4.587	0.996	4.587	0.08	-84.771
509.928	0.079	-84.801	0.996	4.552	0.996	4.552	0.079	-84.801
512.397	0.079	-84.831	0.996	4.516	0.996	4.516	0.079	-84.831
514.867	0.078	-84.861	0.996	4.482	0.996	4.482	0.078	-84.861
517.336	0.078	-84.891	0.996	4.447	0.996	4.447	0.078	-84.891
519.805	0.077	-84.92	0.996	4.412	0.996	4.412	0.077	-84.92
522.275	0.076	-84.949	0.996	4.378	0.996	4.378	0.076	-84.949
524.744	0.076	-84.977	0.996	4.344	0.996	4.344	0.076	-84.977
527.214	0.075	-85.006	0.996	4.311	0.996	4.311	0.075	-85.006
529.683	0.075	-85.034	0.996	4.277	0.996	4.277	0.075	-85.034
532.153	0.074	-85.062	0.996	4.244	0.996	4.244	0.074	-85.062
534.622	0.073	-85.089	0.996	4.211	0.996	4.211	0.073	-85.089
537.092	0.073	-85.116	0.996	4.178	0.996	4.178	0.073	-85.116
539.561	0.072	-85.143	0.996	4.146	0.996	4.146	0.072	-85.143
542.03	0.072	-85.17	0.997	4.114	0.997	4.114	0.072	-85.17
544.5	0.071	-85.196	0.997	4.082	0.997	4.082	0.071	-85.196
546.969	0.071	-85.222	0.997	4.05	0.997	4.05	0.071	-85.222
549.439	0.07	-85.248	0.997	4.018	0.997	4.018	0.07	-85.248
551.908	0.07	-85.274	0.997	3.987	0.997	3.987	0.07	-85.274
554.378	0.069	-85.299	0.997	3.956	0.997	3.956	0.069	-85.299
556.847	0.068	-85.324	0.997	3.925	0.997	3.925	0.068	-85.324
559.317	0.068	-85.349	0.997	3.894	0.997	3.894	0.068	-85.349
561.786	0.067	-85.373	0.997	3.864	0.997	3.864	0.067	-85.373
564.255	0.067	-85.397	0.997	3.834	0.997	3.834	0.067	-85.397
566.725	0.066	-85.421	0.997	3.804	0.997	3.804	0.066	-85.421
569.194	0.066	-85.445	0.997	3.774	0.997	3.774	0.066	-85.445
571.664	0.065	-85.469	0.997	3.744	0.997	3.744	0.065	-85.469
574.133	0.065	-85.492	0.997	3.715	0.997	3.715	0.065	-85.492
576.603	0.064	-85.515	0.997	3.685	0.997	3.685	0.064	-85.515
579.072	0.064	-85.538	0.997	3.656	0.997	3.656	0.064	-85.538
581.542	0.063	-85.56	0.997	3.627	0.997	3.627	0.063	-85.56
584.011	0.063	-85.582	0.997	3.599	0.997	3.599	0.063	-85.582
586.48	0.062	-85.604	0.997	3.57	0.997	3.57	0.062	-85.604
588.95	0.062	-85.626	0.997	3.542	0.997	3.542	0.062	-85.626
591.419	0.061	-85.647	0.997	3.513	0.997	3.513	0.061	-85.647
593.889	0.061	-85.669	0.997	3.485	0.997	3.485	0.061	-85.669
596.358	0.06	-85.69	0.997	3.458	0.997	3.458	0.06	-85.69
598.828	0.06	-85.71	0.997	3.43	0.997	3.43	0.06	-85.71
601.297	0.059	-85.731	0.997	3.403	0.997	3.403	0.059	-85.731
603.767	0.059	-85.751	0.997	3.375	0.997	3.375	0.059	-85.751
606.236	0.058	-85.771	0.997	3.348	0.997	3.348	0.058	-85.771
608.705	0.058	-85.791	0.997	3.321	0.997	3.321	0.058	-85.791
611.175	0.057	-85.811	0.997	3.294	0.997	3.294	0.057	-85.811
613.644	0.057	-85.83	0.997	3.268	0.997	3.268	0.057	-85.83
616.114	0.057	-85.849	0.998	3.241	0.998	3.241	0.057	-85.849
618.583	0.056	-85.868	0.998	3.215	0.998	3.215	0.056	-85.868
621.053	0.056	-85.887	0.998	3.189	0.998	3.189	0.056	-85.887
623.522	0.055	-85.905	0.998	3.163	0.998	3.163	0.055	-85.905
625.992	0.055	-85.923	0.998	3.137	0.998	3.137	0.055	-85.923
628.461	0.054	-85.941	0.998	3.111	0.998	3.111	0.054	-85.941
630.93	0.054	-85.959	0.998	3.085	0.998	3.085	0.054	-85.959
633.4	0.053	-85.976	0.998	3.06	0.998	3.06	0.053	-85.976
635.869	0.053	-85.994	0.998	3.035	0.998	3.035	0.053	-85.994
638.339	0.053	-86.011	0.998	3.009	0.998	3.009	0.053	-86.011
640.808	0.052	-86.027	0.998	2.984	0.998	2.984	0.052	-86.027
643.278	0.052	-86.044	0.998	2.96	0.998	2.96	0.052	-86.044
645.747	0.051	-86.06	0.998	2.935	0.998	2.935	0.051	-86.06
648.217	0.051	-86.076	0.998	2.91	0.998	2.91	0.051	-86.076
650.686	0.05	-86.092	0.998	2.886	0.998	2.886	0.05	-86.092
653.155	0.05	-86.108	0.998	2.861	0.998	2.861	0.05	-86.108
655.625	0.05	-86.123	0.998	2.837	0.998	2.837	0.05	-86.123
658.094	0.049	-86.138	0.998	2.813	0.998	2.813	0.049	-86.138
660.564	0.049	-86.153	0.998	2.789	0.998	2.789	0.049	-86.153
663.033	0.048	-86.168	0.998	2.765	0.998	2.765	0.048	-86.168
665.503	0.048	-86.183	0.998	2.742	0.998	2.742	0.048	-86.183
667.972	0.047	-86.197	0.998	2.718	0.998	2.718	0.047	-86.197
670.442	0.047	-86.211	0.998	2.695	0.998	2.695	0.047	-86.211
672.911	0.047	-86.224	0.998	2.671	0.998	2.671	0.047	-86.224
675.38	0.046	-86.238	0.998	2.648	0.998	2.648	0.046	-86.238
677.85	0.046	-86.251	0.998	2.625	0.998	2.625	0.046	-86.251
680.319	0.045	-86.264	0.998	2.602	0.998	2.602	0.045	-86.264
682.789	0.045	-86.277	0.998	2.579	0.998	2.579	0.045	-86.277
685.258	0.045	-86.29	0.998	2.556	0.998	2.556	0.045	-86.29
687.728	0.044	-86.302	0.998	2.534	0.998	2.534	0.044	-86.302
690.197	0.044	-86.314	0.998	2.511	0.998	2.511	0.044	-86.314
692.667	0.043	-86.326	0.998	2.489	0.998	2.489	0.043	-86.326
695.136	0.043	-86.337	0.998	2.467	0.998	2.467	0.043	-86.337
697.605	0.043	-86.349	0.998	2.444	0.998	2.444	0.043	-86.349
700.075	0.042	-86.36	0.998	2.422	0.998	2.422	0.042	-86.36
702.544	0.042	-86.371	0.998	2.4	0.998	2.4	0.042	-86.371
705.014	0.042	-86.381	0.998	2.379	0.998	2.379	0.042	-86.381
707.483	0.041	-86.391	0.998	2.357	0.998	2.357	0.041	-86.391
709.953	0.041	-86.401	0.998	2.335	0.998	2.335	0.041	-86.401
712.422	0.04	-86.411	0.998	2.314	0.998	2.314	0.04	-86.411
714.891	0.04	-86.421	0.998	2.292	0.998	2.292	0.04	-86.421
717.361	0.04	-86.43	0.998	2.271	0.998	2.271	0.04	-86.43
719.83	0.039	-86.439	0.998	2.25	0.998	2.25	0.039	-86.439
722.3	0.039	-86.448	0.998	2.228	0.998	2.228	0.039	-86.448
724.769	0.039	-86.456	0.998	2.207	0.998	2.207	0.039	-86.456
727.239	0.038	-86.464	0.998	2.186	0.998	2.186	0.038	-86.464
729.708	0.038	-86.472	0.998	2.166	0.998	2.166	0.038	-86.472
732.178	0.037	-86.48	0.998	2.145	0.998	2.145	0.037	-86.48
734.647	0.037	-86.487	0.998	2.124	0.998	2.124	0.037	-86.487
737.116	0.037	-86.494	0.998	2.104	0.998	2.104	0.037	-86.494
739.586	0.036	-86.501	0.998	2.083	0.998	2.083	0.036	-86.501
742.055	0.036	-86.507	0.998	2.063	0.998	2.063	0.036	-86.507
744.525	0.036	-86.513	0.998	2.042	0.998	2.042	0.036	-86.513
746.994	0.035	-86.519	0.998	2.022	0.998	2.022	0.035	-86.519
749.464	0.035	-86.524	0.998	2.002	0.998	2.002	0.035	-86.524
751.933	0.035	-86.529	0.999	1.982	0.999	1.982	0.035	-86.529
754.403	0.034	-86.534	0.999	1.962	0.999	1.962	0.034	-86.534
756.872	0.034	-86.539	0.999	1.942	0.999	1.942	0.034	-86.539
759.341	0.034	-86.543	0.999	1.922	0.999	1.922	0.034	-86.543
761.811	0.033	-86.547	0.999	1.903	0.999	1.903	0.033	-86.547
764.28	0.033	-86.55	0.999	1.883	0.999	1.883	0.033	-86.55
766.75	0.033	-86.553	0.999	1.864	0.999	1.864	0.033	-86.553
769.219	0.032	-86.556	0.999	1.844	0.999	1.844	0.032	-86.556
771.689	0.032	-86.558	0.999	1.825	0.999	1.825	0.032	-86.558
774.158	0.032	-86.56	0.999	1.806	0.999	1.806	0.032	-86.56
776.628	0.031	-86.562	0.999	1.786	0.999	1.786	0.031	-86.562
779.097	0.031	-86.563	0.999	1.767	0.999	1.767	0.031	-86.563
781.566	0.031	-86.564	0.999	1.748	0.999	1.748	0.031	-86.564
784.036	0.03	-86.565	0.999	1.729	0.999	1.729	0.03	-86.565
786.505	0.03	-86.565	0.999	1.71	0.999	1.71	0.03	-86.565
788.975	0.03	-86.564	0.999	1.691	0.999	1.691	0.03	-86.564
791.444	0.029	-86.563	0.999	1.673	0.999	1.673	0.029	-86.563
793.914	0.029	-86.562	0.999	1.654	0.999	1.654	0.029	-86.562
796.383	0.029	-86.561	0.999	1.635	0.999	1.635	0.029	-86.561
798.853	0.028	-86.558	0.999	1.617	0.999	1.617	0.028	-86.558
801.322	0.028	-86.556	0.999	1.598	0.999	1.598	0.028	-86.556
803.791	0.028	-86.553	0.999	1.58	0.999	1.58	0.028	-86.553
806.261	0.027	-86.549	0.999	1.562	0.999	1.562	0.027	-86.549
808.73	0.027	-86.545	0.999	1.544	0.999	1.544	0.027	-86.545
811.2	0.027	-86.54	0.999	1.525	0.999	1.525	0.027	-86.54
813.669	0.026	-86.535	0.999	1.507	0.999	1.507	0.026	-86.535
816.139	0.026	-86.53	0.999	1.489	0.999	1.489	0.026	-86.53
818.608	0.026	-86.523	0.999	1.471	0.999	1.471	0.026	-86.523
821.078	0.025	-86.517	0.999	1.453	0.999	1.453	0.025	-86.517
823.547	0.025	-86.509	0.999	1.436	0.999	1.436	0.025	-86.509
826.016	0.025	-86.501	0.999	1.418	0.999	1.418	0.025	-86.501
828.486	0.024	-86.493	0.999	1.4	0.999	1.4	0.024	-86.493
830.955	0.024	-86.483	0.999	1.382	0.999	1.382	0.024	-86.483
833.425	0.024	-86.474	0.999	1.365	0.999	1.365	0.024	-86.474
835.894	0.024	-86.463	0.999	1.347	0.999	1.347	0.024	-86.463
838.364	0.023	-86.452	0.999	1.33	0.999	1.33	0.023	-86.452
840.833	0.023	-86.44	0.999	1.313	0.999	1.313	0.023	-86.44
843.303	0.023	-86.427	0.999	1.295	0.999	1.295	0.023	-86.427
845.772	0.022	-86.414	0.999	1.278	0.999	1.278	0.022	-86.414
848.241	0.022	-86.399	0.999	1.261	0.999	1.261	0.022	-86.399
850.711	0.022	-86.384	0.999	1.244	0.999	1.244	0.022	-86.384
853.18	0.021	-86.368	0.999	1.227	0.999	1.227	0.021	-86.368
855.65	0.021	-86.352	0.999	1.21	0.999	1.21	0.021	-86.352
858.119	0.021	-86.334	0.999	1.193	0.999	1.193	0.021	-86.334
860.589	0.021	-86.315	0.999	1.176	0.999	1.176	0.021	-86.315
863.058	0.02	-86.296	0.999	1.159	0.999	1.159	0.02	-86.296
865.528	0.02	-86.275	0.999	1.142	0.999	1.142	0.02	-86.275
867.997	0.02	-86.253	0.999	1.125	0.999	1.125	0.02	-86.253
870.466	0.019	-86.231	0.999	1.109	0.999	1.109	0.019	-86.231
872.936	0.019	-86.207	0.999	1.092	0.999	1.092	0.019	-86.207
875.405	0.019	-86.182	0.999	1.075	0.999	1.075	0.019	-86.182
877.875	0.019	-86.156	0.999	1.059	0.999	1.059	0.019	-86.156
880.344	0.018	-86.128	0.999	1.043	0.999	1.043	0.018	-86.128
882.814	0.018	-86.1	0.999	1.026	0.999	1.026	0.018	-86.1
885.283	0.018	-86.069	0.999	1.01	0.999	1.01	0.018	-86.069
887.753	0.017	-86.038	0.999	0.994	0.999	0.994	0.017	-86.038
890.222	0.017	-86.005	0.999	0.977	0.999	0.977	0.017	-86.005
892.691	0.017	-85.97	0.999	0.961	0.999	0.961	0.017	-85.97
895.161	0.017	-85.934	0.999	0.945	0.999	0.945	0.017	-85.934
897.63	0.016	-85.896	0.999	0.929	0.999	0.929	0.016	-85.896
900.1	0.016	-85.857	0.999	0.913	0.999	0.913	0.016	-85.857
902.569	0.016	-85.815	0.999	0.897	0.999	0.897	0.016	-85.815
905.039	0.015	-85.772	0.999	0.881	0.999	0.881	0.015	-85.772
907.508	0.015	-85.727	0.999	0.865	0.999	0.865	0.015	-85.727
909.978	0.015	-85.679	0.999	0.849	0.999	0.849	0.015	-85.679
912.447	0.015	-85.629	0.999	0.833	0.999	0.833	0.015	-85.629
914.916	0.014	-85.577	0.999	0.818	0.999	0.818	0.014	-85.577
