! AVX Thin Film Operation		Date: April 2012 
! Description: Accu-P® Series, Thin Film, SMD, RF Capacitor
! Part Number: 08051K110FBTTR					
!	100	MHz	-	10.05	GHz			
!	Serial	Measurements						
!								
#	MHZ	S	MA	R	50			
!	S11	S21	S12	S22				
!	dB	Phase	dB	Phase	dB	Phase	dB	Phase
100	0.822	-34.716	0.57	55.24	0.57	55.24	0.822	-34.716
102.469	0.815	-35.377	0.579	54.578	0.579	54.578	0.815	-35.377
104.939	0.808	-36.027	0.588	53.927	0.588	53.927	0.808	-36.027
107.408	0.802	-36.667	0.597	53.286	0.597	53.286	0.802	-36.667
109.878	0.795	-37.296	0.606	52.656	0.606	52.656	0.795	-37.296
112.347	0.788	-37.915	0.614	52.035	0.614	52.035	0.788	-37.915
114.817	0.782	-38.525	0.623	51.425	0.623	51.425	0.782	-38.525
117.286	0.775	-39.124	0.631	50.824	0.631	50.824	0.775	-39.124
119.756	0.769	-39.714	0.639	50.234	0.639	50.234	0.769	-39.714
122.225	0.762	-40.294	0.647	49.652	0.647	49.652	0.762	-40.294
124.694	0.756	-40.864	0.654	49.081	0.654	49.081	0.756	-40.864
127.164	0.749	-41.426	0.662	48.519	0.662	48.519	0.749	-41.426
129.633	0.743	-41.977	0.669	47.966	0.669	47.966	0.743	-41.977
132.103	0.736	-42.52	0.676	47.422	0.676	47.422	0.736	-42.52
134.572	0.73	-43.054	0.683	46.887	0.683	46.887	0.73	-43.054
137.042	0.724	-43.578	0.689	46.362	0.689	46.362	0.724	-43.578
139.511	0.717	-44.094	0.696	45.844	0.696	45.844	0.717	-44.094
141.981	0.711	-44.602	0.702	45.336	0.702	45.336	0.711	-44.602
144.45	0.705	-45.101	0.708	44.836	0.708	44.836	0.705	-45.101
146.919	0.699	-45.592	0.714	44.344	0.714	44.344	0.699	-45.592
149.389	0.693	-46.074	0.72	43.86	0.72	43.86	0.693	-46.074
151.858	0.687	-46.548	0.726	43.385	0.726	43.385	0.687	-46.548
154.328	0.681	-47.015	0.732	42.917	0.732	42.917	0.681	-47.015
156.797	0.675	-47.474	0.737	42.457	0.737	42.457	0.675	-47.474
159.267	0.669	-47.925	0.742	42.005	0.742	42.005	0.669	-47.925
161.736	0.663	-48.369	0.747	41.56	0.747	41.56	0.663	-48.369
164.206	0.658	-48.805	0.752	41.123	0.752	41.123	0.658	-48.805
166.675	0.652	-49.234	0.757	40.692	0.757	40.692	0.652	-49.234
169.144	0.646	-49.656	0.762	40.269	0.762	40.269	0.646	-49.656
171.614	0.641	-50.071	0.767	39.853	0.767	39.853	0.641	-50.071
174.083	0.635	-50.48	0.771	39.444	0.771	39.444	0.635	-50.48
176.553	0.63	-50.881	0.776	39.041	0.776	39.041	0.63	-50.881
179.022	0.624	-51.277	0.78	38.645	0.78	38.645	0.624	-51.277
181.492	0.619	-51.665	0.784	38.255	0.784	38.255	0.619	-51.665
183.961	0.614	-52.048	0.789	37.871	0.789	37.871	0.614	-52.048
186.431	0.609	-52.424	0.793	37.494	0.793	37.494	0.609	-52.424
188.9	0.604	-52.794	0.796	37.123	0.796	37.123	0.604	-52.794
191.369	0.598	-53.158	0.8	36.758	0.8	36.758	0.598	-53.158
193.839	0.593	-53.516	0.804	36.398	0.804	36.398	0.593	-53.516
196.308	0.588	-53.869	0.808	36.045	0.808	36.045	0.588	-53.869
198.778	0.583	-54.216	0.811	35.696	0.811	35.696	0.583	-54.216
201.247	0.579	-54.557	0.815	35.354	0.815	35.354	0.579	-54.557
203.717	0.574	-54.894	0.818	35.016	0.818	35.016	0.574	-54.894
206.186	0.569	-55.224	0.821	34.684	0.821	34.684	0.569	-55.224
208.656	0.564	-55.55	0.825	34.358	0.825	34.358	0.564	-55.55
211.125	0.56	-55.871	0.828	34.036	0.828	34.036	0.56	-55.871
213.594	0.555	-56.186	0.831	33.719	0.831	33.719	0.555	-56.186
216.064	0.551	-56.497	0.834	33.407	0.834	33.407	0.551	-56.497
218.533	0.546	-56.803	0.837	33.1	0.837	33.1	0.546	-56.803
221.003	0.542	-57.105	0.84	32.798	0.84	32.798	0.542	-57.105
223.472	0.537	-57.401	0.842	32.5	0.842	32.5	0.537	-57.401
225.942	0.533	-57.694	0.845	32.206	0.845	32.206	0.533	-57.694
228.411	0.529	-57.981	0.848	31.917	0.848	31.917	0.529	-57.981
230.881	0.524	-58.265	0.85	31.633	0.85	31.633	0.524	-58.265
233.35	0.52	-58.544	0.853	31.352	0.853	31.352	0.52	-58.544
235.819	0.516	-58.819	0.856	31.076	0.856	31.076	0.516	-58.819
238.289	0.512	-59.091	0.858	30.804	0.858	30.804	0.512	-59.091
240.758	0.508	-59.358	0.86	30.536	0.86	30.536	0.508	-59.358
243.228	0.504	-59.621	0.863	30.271	0.863	30.271	0.504	-59.621
245.697	0.5	-59.88	0.865	30.011	0.865	30.011	0.5	-59.88
248.167	0.496	-60.136	0.867	29.754	0.867	29.754	0.496	-60.136
250.636	0.492	-60.388	0.869	29.501	0.869	29.501	0.492	-60.388
253.106	0.489	-60.636	0.872	29.252	0.872	29.252	0.489	-60.636
255.575	0.485	-60.881	0.874	29.006	0.874	29.006	0.485	-60.881
258.044	0.481	-61.122	0.876	28.763	0.876	28.763	0.481	-61.122
260.514	0.478	-61.36	0.878	28.524	0.878	28.524	0.478	-61.36
262.983	0.474	-61.594	0.88	28.289	0.88	28.289	0.474	-61.594
265.453	0.47	-61.826	0.882	28.056	0.882	28.056	0.47	-61.826
267.922	0.467	-62.054	0.883	27.827	0.883	27.827	0.467	-62.054
270.392	0.463	-62.279	0.885	27.601	0.885	27.601	0.463	-62.279
272.861	0.46	-62.5	0.887	27.378	0.887	27.378	0.46	-62.5
275.331	0.456	-62.719	0.889	27.158	0.889	27.158	0.456	-62.719
277.8	0.453	-62.935	0.89	26.941	0.89	26.941	0.453	-62.935
280.269	0.45	-63.148	0.892	26.727	0.892	26.727	0.45	-63.148
282.739	0.446	-63.358	0.894	26.516	0.894	26.516	0.446	-63.358
285.208	0.443	-63.565	0.895	26.308	0.895	26.308	0.443	-63.565
287.678	0.44	-63.769	0.897	26.102	0.897	26.102	0.44	-63.769
290.147	0.437	-63.971	0.899	25.899	0.899	25.899	0.437	-63.971
292.617	0.434	-64.17	0.9	25.699	0.9	25.699	0.434	-64.17
295.086	0.431	-64.366	0.902	25.502	0.902	25.502	0.431	-64.366
297.556	0.427	-64.56	0.903	25.307	0.903	25.307	0.427	-64.56
300.025	0.424	-64.752	0.904	25.114	0.904	25.114	0.424	-64.752
302.494	0.421	-64.94	0.906	24.924	0.906	24.924	0.421	-64.94
304.964	0.418	-65.127	0.907	24.736	0.907	24.736	0.418	-65.127
307.433	0.416	-65.311	0.909	24.551	0.909	24.551	0.416	-65.311
309.903	0.413	-65.493	0.91	24.368	0.91	24.368	0.413	-65.493
312.372	0.41	-65.672	0.911	24.188	0.911	24.188	0.41	-65.672
314.842	0.407	-65.849	0.912	24.009	0.912	24.009	0.407	-65.849
317.311	0.404	-66.024	0.914	23.833	0.914	23.833	0.404	-66.024
319.78	0.401	-66.197	0.915	23.659	0.915	23.659	0.401	-66.197
322.25	0.399	-66.368	0.916	23.487	0.916	23.487	0.399	-66.368
324.719	0.396	-66.536	0.917	23.318	0.917	23.318	0.396	-66.536
327.189	0.393	-66.703	0.918	23.15	0.918	23.15	0.393	-66.703
329.658	0.39	-66.867	0.92	22.984	0.92	22.984	0.39	-66.867
332.128	0.388	-67.03	0.921	22.821	0.921	22.821	0.388	-67.03
334.597	0.385	-67.19	0.922	22.659	0.922	22.659	0.385	-67.19
337.067	0.383	-67.349	0.923	22.499	0.923	22.499	0.383	-67.349
339.536	0.38	-67.506	0.924	22.341	0.924	22.341	0.38	-67.506
342.005	0.378	-67.661	0.925	22.185	0.925	22.185	0.378	-67.661
344.475	0.375	-67.814	0.926	22.031	0.926	22.031	0.375	-67.814
346.944	0.373	-67.965	0.927	21.878	0.927	21.878	0.373	-67.965
349.414	0.37	-68.114	0.928	21.728	0.928	21.728	0.37	-68.114
351.883	0.368	-68.262	0.929	21.579	0.929	21.579	0.368	-68.262
354.353	0.365	-68.408	0.93	21.431	0.93	21.431	0.365	-68.408
356.822	0.363	-68.553	0.931	21.286	0.931	21.286	0.363	-68.553
359.292	0.361	-68.695	0.932	21.142	0.932	21.142	0.361	-68.695
361.761	0.358	-68.836	0.933	21	0.933	21	0.358	-68.836
364.23	0.356	-68.976	0.933	20.859	0.933	20.859	0.356	-68.976
366.7	0.354	-69.114	0.934	20.72	0.934	20.72	0.354	-69.114
369.169	0.352	-69.25	0.935	20.582	0.935	20.582	0.352	-69.25
371.639	0.349	-69.385	0.936	20.446	0.936	20.446	0.349	-69.385
374.108	0.347	-69.519	0.937	20.311	0.937	20.311	0.347	-69.519
376.578	0.345	-69.651	0.938	20.178	0.938	20.178	0.345	-69.651
379.047	0.343	-69.781	0.938	20.046	0.938	20.046	0.343	-69.781
381.517	0.341	-69.91	0.939	19.916	0.939	19.916	0.341	-69.91
383.986	0.339	-70.038	0.94	19.787	0.94	19.787	0.339	-70.038
386.455	0.336	-70.164	0.941	19.66	0.941	19.66	0.336	-70.164
388.925	0.334	-70.289	0.941	19.533	0.941	19.533	0.334	-70.289
391.394	0.332	-70.413	0.942	19.409	0.942	19.409	0.332	-70.413
393.864	0.33	-70.535	0.943	19.285	0.943	19.285	0.33	-70.535
396.333	0.328	-70.656	0.944	19.163	0.944	19.163	0.328	-70.656
398.803	0.326	-70.776	0.944	19.042	0.944	19.042	0.326	-70.776
401.272	0.324	-70.894	0.945	18.922	0.945	18.922	0.324	-70.894
403.742	0.322	-71.011	0.946	18.804	0.946	18.804	0.322	-71.011
406.211	0.32	-71.127	0.946	18.686	0.946	18.686	0.32	-71.127
408.68	0.318	-71.242	0.947	18.57	0.947	18.57	0.318	-71.242
411.15	0.317	-71.356	0.948	18.455	0.948	18.455	0.317	-71.356
413.619	0.315	-71.469	0.948	18.341	0.948	18.341	0.315	-71.469
416.089	0.313	-71.58	0.949	18.229	0.949	18.229	0.313	-71.58
418.558	0.311	-71.69	0.949	18.117	0.949	18.117	0.311	-71.69
421.028	0.309	-71.799	0.95	18.007	0.95	18.007	0.309	-71.799
423.497	0.307	-71.907	0.951	17.898	0.951	17.898	0.307	-71.907
425.967	0.306	-72.014	0.951	17.789	0.951	17.789	0.306	-72.014
428.436	0.304	-72.12	0.952	17.682	0.952	17.682	0.304	-72.12
430.905	0.302	-72.225	0.952	17.576	0.952	17.576	0.302	-72.225
433.375	0.3	-72.329	0.953	17.471	0.953	17.471	0.3	-72.329
435.844	0.298	-72.432	0.953	17.367	0.953	17.367	0.298	-72.432
438.314	0.297	-72.534	0.954	17.264	0.954	17.264	0.297	-72.534
440.783	0.295	-72.635	0.954	17.161	0.954	17.161	0.295	-72.635
443.253	0.293	-72.735	0.955	17.06	0.955	17.06	0.293	-72.735
445.722	0.292	-72.834	0.955	16.96	0.955	16.96	0.292	-72.834
448.192	0.29	-72.932	0.956	16.861	0.956	16.861	0.29	-72.932
450.661	0.288	-73.029	0.956	16.762	0.956	16.762	0.288	-73.029
453.13	0.287	-73.125	0.957	16.665	0.957	16.665	0.287	-73.125
455.6	0.285	-73.22	0.957	16.568	0.957	16.568	0.285	-73.22
458.069	0.284	-73.315	0.958	16.472	0.958	16.472	0.284	-73.315
460.539	0.282	-73.408	0.958	16.378	0.958	16.378	0.282	-73.408
463.008	0.28	-73.501	0.959	16.284	0.959	16.284	0.28	-73.501
465.478	0.279	-73.593	0.959	16.191	0.959	16.191	0.279	-73.593
467.947	0.277	-73.683	0.96	16.098	0.96	16.098	0.277	-73.683
470.417	0.276	-73.774	0.96	16.007	0.96	16.007	0.276	-73.774
472.886	0.274	-73.863	0.961	15.916	0.961	15.916	0.274	-73.863
475.355	0.273	-73.951	0.961	15.826	0.961	15.826	0.273	-73.951
477.825	0.271	-74.039	0.961	15.737	0.961	15.737	0.271	-74.039
480.294	0.27	-74.126	0.962	15.649	0.962	15.649	0.27	-74.126
482.764	0.268	-74.212	0.962	15.562	0.962	15.562	0.268	-74.212
485.233	0.267	-74.298	0.963	15.475	0.963	15.475	0.267	-74.298
487.703	0.265	-74.382	0.963	15.389	0.963	15.389	0.265	-74.382
490.172	0.264	-74.466	0.963	15.304	0.963	15.304	0.264	-74.466
492.642	0.263	-74.549	0.964	15.219	0.964	15.219	0.263	-74.549
495.111	0.261	-74.632	0.964	15.135	0.964	15.135	0.261	-74.632
497.58	0.26	-74.714	0.965	15.052	0.965	15.052	0.26	-74.714
500.05	0.258	-74.795	0.965	14.97	0.965	14.97	0.258	-74.795
502.519	0.257	-74.875	0.965	14.888	0.965	14.888	0.257	-74.875
504.989	0.256	-74.955	0.966	14.807	0.966	14.807	0.256	-74.955
507.458	0.254	-75.034	0.966	14.727	0.966	14.727	0.254	-75.034
509.928	0.253	-75.112	0.966	14.647	0.966	14.647	0.253	-75.112
512.397	0.252	-75.19	0.967	14.568	0.967	14.568	0.252	-75.19
514.867	0.25	-75.267	0.967	14.49	0.967	14.49	0.25	-75.267
517.336	0.249	-75.343	0.967	14.412	0.967	14.412	0.249	-75.343
519.805	0.248	-75.419	0.968	14.335	0.968	14.335	0.248	-75.419
522.275	0.246	-75.494	0.968	14.258	0.968	14.258	0.246	-75.494
524.744	0.245	-75.568	0.968	14.183	0.968	14.183	0.245	-75.568
527.214	0.244	-75.642	0.969	14.107	0.969	14.107	0.244	-75.642
529.683	0.242	-75.715	0.969	14.033	0.969	14.033	0.242	-75.715
532.153	0.241	-75.788	0.969	13.959	0.969	13.959	0.241	-75.788
534.622	0.24	-75.86	0.97	13.885	0.97	13.885	0.24	-75.86
537.092	0.239	-75.932	0.97	13.812	0.97	13.812	0.239	-75.932
539.561	0.238	-76.003	0.97	13.74	0.97	13.74	0.238	-76.003
542.03	0.236	-76.073	0.971	13.668	0.971	13.668	0.236	-76.073
544.5	0.235	-76.143	0.971	13.597	0.971	13.597	0.235	-76.143
546.969	0.234	-76.212	0.971	13.526	0.971	13.526	0.234	-76.212
549.439	0.233	-76.281	0.971	13.456	0.971	13.456	0.233	-76.281
551.908	0.232	-76.349	0.972	13.386	0.972	13.386	0.232	-76.349
554.378	0.23	-76.417	0.972	13.317	0.972	13.317	0.23	-76.417
556.847	0.229	-76.484	0.972	13.249	0.972	13.249	0.229	-76.484
559.317	0.228	-76.55	0.973	13.181	0.973	13.181	0.228	-76.55
561.786	0.227	-76.616	0.973	13.113	0.973	13.113	0.227	-76.616
564.255	0.226	-76.682	0.973	13.046	0.973	13.046	0.226	-76.682
566.725	0.225	-76.747	0.973	12.98	0.973	12.98	0.225	-76.747
569.194	0.223	-76.812	0.974	12.914	0.974	12.914	0.223	-76.812
571.664	0.222	-76.876	0.974	12.848	0.974	12.848	0.222	-76.876
574.133	0.221	-76.939	0.974	12.783	0.974	12.783	0.221	-76.939
576.603	0.22	-77.002	0.974	12.719	0.974	12.719	0.22	-77.002
579.072	0.219	-77.065	0.975	12.654	0.975	12.654	0.219	-77.065
581.542	0.218	-77.127	0.975	12.591	0.975	12.591	0.218	-77.127
584.011	0.217	-77.189	0.975	12.528	0.975	12.528	0.217	-77.189
586.48	0.216	-77.25	0.975	12.465	0.975	12.465	0.216	-77.25
588.95	0.215	-77.311	0.976	12.403	0.976	12.403	0.215	-77.311
591.419	0.214	-77.371	0.976	12.341	0.976	12.341	0.214	-77.371
593.889	0.213	-77.431	0.976	12.279	0.976	12.279	0.213	-77.431
596.358	0.212	-77.491	0.976	12.218	0.976	12.218	0.212	-77.491
598.828	0.211	-77.55	0.976	12.158	0.976	12.158	0.211	-77.55
601.297	0.21	-77.609	0.977	12.098	0.977	12.098	0.21	-77.609
603.767	0.209	-77.667	0.977	12.038	0.977	12.038	0.209	-77.667
606.236	0.208	-77.725	0.977	11.979	0.977	11.979	0.208	-77.725
608.705	0.207	-77.782	0.977	11.92	0.977	11.92	0.207	-77.782
611.175	0.206	-77.839	0.978	11.861	0.978	11.861	0.206	-77.839
613.644	0.205	-77.896	0.978	11.803	0.978	11.803	0.205	-77.896
616.114	0.204	-77.952	0.978	11.745	0.978	11.745	0.204	-77.952
618.583	0.203	-78.008	0.978	11.688	0.978	11.688	0.203	-78.008
621.053	0.202	-78.063	0.978	11.631	0.978	11.631	0.202	-78.063
623.522	0.201	-78.118	0.979	11.575	0.979	11.575	0.201	-78.118
625.992	0.2	-78.173	0.979	11.518	0.979	11.518	0.2	-78.173
628.461	0.199	-78.227	0.979	11.463	0.979	11.463	0.199	-78.227
630.93	0.198	-78.281	0.979	11.407	0.979	11.407	0.198	-78.281
633.4	0.197	-78.334	0.979	11.352	0.979	11.352	0.197	-78.334
635.869	0.196	-78.387	0.98	11.297	0.98	11.297	0.196	-78.387
638.339	0.195	-78.44	0.98	11.243	0.98	11.243	0.195	-78.44
640.808	0.194	-78.493	0.98	11.189	0.98	11.189	0.194	-78.493
643.278	0.193	-78.545	0.98	11.135	0.98	11.135	0.193	-78.545
645.747	0.192	-78.596	0.98	11.082	0.98	11.082	0.192	-78.596
648.217	0.191	-78.648	0.98	11.029	0.98	11.029	0.191	-78.648
650.686	0.19	-78.699	0.981	10.977	0.981	10.977	0.19	-78.699
653.155	0.19	-78.749	0.981	10.924	0.981	10.924	0.19	-78.749
655.625	0.189	-78.8	0.981	10.872	0.981	10.872	0.189	-78.8
658.094	0.188	-78.85	0.981	10.821	0.981	10.821	0.188	-78.85
660.564	0.187	-78.899	0.981	10.769	0.981	10.769	0.187	-78.899
663.033	0.186	-78.949	0.981	10.718	0.981	10.718	0.186	-78.949
665.503	0.185	-78.998	0.982	10.668	0.982	10.668	0.185	-78.998
667.972	0.184	-79.047	0.982	10.617	0.982	10.617	0.184	-79.047
670.442	0.183	-79.095	0.982	10.567	0.982	10.567	0.183	-79.095
672.911	0.183	-79.143	0.982	10.518	0.982	10.518	0.183	-79.143
675.38	0.182	-79.191	0.982	10.468	0.982	10.468	0.182	-79.191
677.85	0.181	-79.238	0.982	10.419	0.982	10.419	0.181	-79.238
680.319	0.18	-79.286	0.983	10.37	0.983	10.37	0.18	-79.286
682.789	0.179	-79.332	0.983	10.322	0.983	10.322	0.179	-79.332
685.258	0.178	-79.379	0.983	10.274	0.983	10.274	0.178	-79.379
687.728	0.178	-79.425	0.983	10.226	0.983	10.226	0.178	-79.425
690.197	0.177	-79.471	0.983	10.178	0.983	10.178	0.177	-79.471
692.667	0.176	-79.517	0.983	10.131	0.983	10.131	0.176	-79.517
695.136	0.175	-79.562	0.983	10.084	0.983	10.084	0.175	-79.562
697.605	0.174	-79.608	0.984	10.037	0.984	10.037	0.174	-79.608
700.075	0.173	-79.652	0.984	9.99	0.984	9.99	0.173	-79.652
702.544	0.173	-79.697	0.984	9.944	0.984	9.944	0.173	-79.697
705.014	0.172	-79.741	0.984	9.898	0.984	9.898	0.172	-79.741
707.483	0.171	-79.785	0.984	9.852	0.984	9.852	0.171	-79.785
709.953	0.17	-79.829	0.984	9.807	0.984	9.807	0.17	-79.829
712.422	0.17	-79.873	0.984	9.761	0.984	9.761	0.17	-79.873
714.891	0.169	-79.916	0.985	9.717	0.985	9.717	0.169	-79.916
717.361	0.168	-79.959	0.985	9.672	0.985	9.672	0.168	-79.959
719.83	0.167	-80.001	0.985	9.627	0.985	9.627	0.167	-80.001
722.3	0.166	-80.044	0.985	9.583	0.985	9.583	0.166	-80.044
724.769	0.166	-80.086	0.985	9.539	0.985	9.539	0.166	-80.086
727.239	0.165	-80.128	0.985	9.496	0.985	9.496	0.165	-80.128
729.708	0.164	-80.17	0.985	9.452	0.985	9.452	0.164	-80.17
732.178	0.163	-80.211	0.985	9.409	0.985	9.409	0.163	-80.211
734.647	0.163	-80.252	0.986	9.366	0.986	9.366	0.163	-80.252
737.116	0.162	-80.293	0.986	9.323	0.986	9.323	0.162	-80.293
739.586	0.161	-80.334	0.986	9.281	0.986	9.281	0.161	-80.334
742.055	0.161	-80.374	0.986	9.238	0.986	9.238	0.161	-80.374
744.525	0.16	-80.415	0.986	9.196	0.986	9.196	0.16	-80.415
746.994	0.159	-80.455	0.986	9.155	0.986	9.155	0.159	-80.455
749.464	0.158	-80.494	0.986	9.113	0.986	9.113	0.158	-80.494
751.933	0.158	-80.534	0.986	9.072	0.986	9.072	0.158	-80.534
754.403	0.157	-80.573	0.987	9.031	0.987	9.031	0.157	-80.573
756.872	0.156	-80.612	0.987	8.99	0.987	8.99	0.156	-80.612
759.341	0.156	-80.651	0.987	8.949	0.987	8.949	0.156	-80.651
761.811	0.155	-80.69	0.987	8.909	0.987	8.909	0.155	-80.69
764.28	0.154	-80.728	0.987	8.868	0.987	8.868	0.154	-80.728
766.75	0.153	-80.766	0.987	8.828	0.987	8.828	0.153	-80.766
769.219	0.153	-80.804	0.987	8.788	0.987	8.788	0.153	-80.804
771.689	0.152	-80.842	0.987	8.749	0.987	8.749	0.152	-80.842
774.158	0.151	-80.88	0.987	8.709	0.987	8.709	0.151	-80.88
776.628	0.151	-80.917	0.987	8.67	0.987	8.67	0.151	-80.917
779.097	0.15	-80.954	0.988	8.631	0.988	8.631	0.15	-80.954
781.566	0.149	-80.991	0.988	8.592	0.988	8.592	0.149	-80.991
784.036	0.149	-81.028	0.988	8.554	0.988	8.554	0.149	-81.028
786.505	0.148	-81.064	0.988	8.515	0.988	8.515	0.148	-81.064
788.975	0.147	-81.101	0.988	8.477	0.988	8.477	0.147	-81.101
791.444	0.147	-81.137	0.988	8.439	0.988	8.439	0.147	-81.137
793.914	0.146	-81.173	0.988	8.401	0.988	8.401	0.146	-81.173
796.383	0.145	-81.208	0.988	8.363	0.988	8.363	0.145	-81.208
798.853	0.145	-81.244	0.988	8.326	0.988	8.326	0.145	-81.244
801.322	0.144	-81.279	0.988	8.289	0.988	8.289	0.144	-81.279
803.791	0.144	-81.314	0.989	8.252	0.989	8.252	0.144	-81.314
806.261	0.143	-81.349	0.989	8.215	0.989	8.215	0.143	-81.349
808.73	0.142	-81.384	0.989	8.178	0.989	8.178	0.142	-81.384
811.2	0.142	-81.418	0.989	8.141	0.989	8.141	0.142	-81.418
813.669	0.141	-81.453	0.989	8.105	0.989	8.105	0.141	-81.453
816.139	0.14	-81.487	0.989	8.069	0.989	8.069	0.14	-81.487
818.608	0.14	-81.521	0.989	8.033	0.989	8.033	0.14	-81.521
821.078	0.139	-81.555	0.989	7.997	0.989	7.997	0.139	-81.555
823.547	0.139	-81.588	0.989	7.961	0.989	7.961	0.139	-81.588
826.016	0.138	-81.622	0.989	7.926	0.989	7.926	0.138	-81.622
828.486	0.137	-81.655	0.989	7.891	0.989	7.891	0.137	-81.655
830.955	0.137	-81.688	0.99	7.855	0.99	7.855	0.137	-81.688
833.425	0.136	-81.721	0.99	7.82	0.99	7.82	0.136	-81.721
835.894	0.135	-81.754	0.99	7.786	0.99	7.786	0.135	-81.754
838.364	0.135	-81.786	0.99	7.751	0.99	7.751	0.135	-81.786
840.833	0.134	-81.819	0.99	7.717	0.99	7.717	0.134	-81.819
843.303	0.134	-81.851	0.99	7.682	0.99	7.682	0.134	-81.851
845.772	0.133	-81.883	0.99	7.648	0.99	7.648	0.133	-81.883
848.241	0.133	-81.915	0.99	7.614	0.99	7.614	0.133	-81.915
850.711	0.132	-81.947	0.99	7.58	0.99	7.58	0.132	-81.947
853.18	0.131	-81.978	0.99	7.546	0.99	7.546	0.131	-81.978
855.65	0.131	-82.01	0.99	7.513	0.99	7.513	0.131	-82.01
858.119	0.13	-82.041	0.99	7.479	0.99	7.479	0.13	-82.041
860.589	0.13	-82.072	0.99	7.446	0.99	7.446	0.13	-82.072
863.058	0.129	-82.103	0.991	7.413	0.991	7.413	0.129	-82.103
865.528	0.128	-82.134	0.991	7.38	0.991	7.38	0.128	-82.134
867.997	0.128	-82.164	0.991	7.347	0.991	7.347	0.128	-82.164
870.466	0.127	-82.195	0.991	7.315	0.991	7.315	0.127	-82.195
872.936	0.127	-82.225	0.991	7.282	0.991	7.282	0.127	-82.225
875.405	0.126	-82.255	0.991	7.25	0.991	7.25	0.126	-82.255
877.875	0.126	-82.285	0.991	7.218	0.991	7.218	0.126	-82.285
880.344	0.125	-82.315	0.991	7.186	0.991	7.186	0.125	-82.315
882.814	0.125	-82.345	0.991	7.154	0.991	7.154	0.125	-82.345
885.283	0.124	-82.374	0.991	7.122	0.991	7.122	0.124	-82.374
887.753	0.123	-82.404	0.991	7.09	0.991	7.09	0.123	-82.404
890.222	0.123	-82.433	0.991	7.059	0.991	7.059	0.123	-82.433
892.691	0.122	-82.462	0.991	7.027	0.991	7.027	0.122	-82.462
895.161	0.122	-82.491	0.991	6.996	0.991	6.996	0.122	-82.491
897.63	0.121	-82.52	0.992	6.965	0.992	6.965	0.121	-82.52
900.1	0.121	-82.548	0.992	6.934	0.992	6.934	0.121	-82.548
902.569	0.12	-82.577	0.992	6.903	0.992	6.903	0.12	-82.577
