! AVX Thin Film Operation		Date: April 2012 
! Description: Accu-P® Series, Thin Film, SMD, RF Capacitor
! Part Number: 08053K390FBTTR					
!	100	MHz	-	10.05	GHz			
!	Serial	Measurements						
!								
#	MHZ	S	MA	R	50			
!	S11	S21	S12	S22				
!	dB	Phase	dB	Phase	dB	Phase	dB	Phase
100	0.374	-67.937	0.927	21.935	0.927	21.935	0.374	-67.937
102.469	0.366	-68.426	0.93	21.443	0.93	21.443	0.366	-68.426
104.939	0.358	-68.895	0.933	20.971	0.933	20.971	0.358	-68.895
107.408	0.35	-69.345	0.936	20.517	0.936	20.517	0.35	-69.345
109.878	0.343	-69.778	0.938	20.081	0.938	20.081	0.343	-69.778
112.347	0.336	-70.195	0.941	19.661	0.941	19.661	0.336	-70.195
114.817	0.33	-70.595	0.943	19.257	0.943	19.257	0.33	-70.595
117.286	0.323	-70.981	0.945	18.868	0.945	18.868	0.323	-70.981
119.756	0.317	-71.353	0.948	18.493	0.948	18.493	0.317	-71.353
122.225	0.311	-71.711	0.949	18.132	0.949	18.132	0.311	-71.711
124.694	0.305	-72.057	0.951	17.783	0.951	17.783	0.305	-72.057
127.164	0.3	-72.39	0.953	17.446	0.953	17.446	0.3	-72.39
129.633	0.294	-72.713	0.955	17.12	0.955	17.12	0.294	-72.713
132.103	0.289	-73.024	0.956	16.805	0.956	16.805	0.289	-73.024
134.572	0.284	-73.325	0.958	16.501	0.958	16.501	0.284	-73.325
137.042	0.279	-73.616	0.959	16.207	0.959	16.207	0.279	-73.616
139.511	0.274	-73.898	0.961	15.921	0.961	15.921	0.274	-73.898
141.981	0.27	-74.171	0.962	15.645	0.962	15.645	0.27	-74.171
144.45	0.265	-74.435	0.963	15.377	0.963	15.377	0.265	-74.435
146.919	0.261	-74.692	0.965	15.118	0.965	15.118	0.261	-74.692
149.389	0.257	-74.94	0.966	14.866	0.966	14.866	0.257	-74.94
151.858	0.252	-75.181	0.967	14.621	0.967	14.621	0.252	-75.181
154.328	0.248	-75.415	0.968	14.384	0.968	14.384	0.248	-75.415
156.797	0.245	-75.642	0.969	14.153	0.969	14.153	0.245	-75.642
159.267	0.241	-75.863	0.97	13.929	0.97	13.929	0.241	-75.863
161.736	0.237	-76.077	0.971	13.712	0.971	13.712	0.237	-76.077
164.206	0.233	-76.286	0.971	13.5	0.971	13.5	0.233	-76.286
166.675	0.23	-76.488	0.972	13.293	0.972	13.293	0.23	-76.488
169.144	0.227	-76.686	0.973	13.093	0.973	13.093	0.227	-76.686
171.614	0.223	-76.878	0.974	12.897	0.974	12.897	0.223	-76.878
174.083	0.22	-77.064	0.975	12.707	0.975	12.707	0.22	-77.064
176.553	0.217	-77.246	0.975	12.522	0.975	12.522	0.217	-77.246
179.022	0.214	-77.424	0.976	12.341	0.976	12.341	0.214	-77.424
181.492	0.211	-77.597	0.977	12.164	0.977	12.164	0.211	-77.597
183.961	0.208	-77.765	0.977	11.992	0.977	11.992	0.208	-77.765
186.431	0.205	-77.929	0.978	11.825	0.978	11.825	0.205	-77.929
188.9	0.202	-78.09	0.978	11.661	0.978	11.661	0.202	-78.09
191.369	0.199	-78.246	0.979	11.501	0.979	11.501	0.199	-78.246
193.839	0.197	-78.399	0.98	11.345	0.98	11.345	0.197	-78.399
196.308	0.194	-78.548	0.98	11.192	0.98	11.192	0.194	-78.548
198.778	0.192	-78.693	0.981	11.043	0.981	11.043	0.192	-78.693
201.247	0.189	-78.835	0.981	10.897	0.981	10.897	0.189	-78.835
203.717	0.187	-78.974	0.982	10.754	0.982	10.754	0.187	-78.974
206.186	0.184	-79.11	0.982	10.615	0.982	10.615	0.184	-79.11
208.656	0.182	-79.243	0.982	10.478	0.982	10.478	0.182	-79.243
211.125	0.18	-79.373	0.983	10.345	0.983	10.345	0.18	-79.373
213.594	0.177	-79.5	0.983	10.214	0.983	10.214	0.177	-79.5
216.064	0.175	-79.624	0.984	10.086	0.984	10.086	0.175	-79.624
218.533	0.173	-79.746	0.984	9.961	0.984	9.961	0.173	-79.746
221.003	0.171	-79.865	0.984	9.838	0.984	9.838	0.171	-79.865
223.472	0.169	-79.981	0.985	9.718	0.985	9.718	0.169	-79.981
225.942	0.167	-80.096	0.985	9.6	0.985	9.6	0.167	-80.096
228.411	0.165	-80.207	0.985	9.484	0.985	9.484	0.165	-80.207
230.881	0.163	-80.317	0.986	9.371	0.986	9.371	0.163	-80.317
233.35	0.161	-80.424	0.986	9.26	0.986	9.26	0.161	-80.424
235.819	0.159	-80.529	0.986	9.151	0.986	9.151	0.159	-80.529
238.289	0.157	-80.633	0.987	9.044	0.987	9.044	0.157	-80.633
240.758	0.155	-80.734	0.987	8.939	0.987	8.939	0.155	-80.734
243.228	0.154	-80.833	0.987	8.836	0.987	8.836	0.154	-80.833
245.697	0.152	-80.93	0.988	8.734	0.988	8.734	0.152	-80.93
248.167	0.15	-81.026	0.988	8.635	0.988	8.635	0.15	-81.026
250.636	0.148	-81.119	0.988	8.537	0.988	8.537	0.148	-81.119
253.106	0.147	-81.211	0.988	8.441	0.988	8.441	0.147	-81.211
255.575	0.145	-81.302	0.989	8.347	0.989	8.347	0.145	-81.302
258.044	0.144	-81.39	0.989	8.255	0.989	8.255	0.144	-81.39
260.514	0.142	-81.477	0.989	8.164	0.989	8.164	0.142	-81.477
262.983	0.14	-81.563	0.989	8.074	0.989	8.074	0.14	-81.563
265.453	0.139	-81.647	0.989	7.986	0.989	7.986	0.139	-81.647
267.922	0.137	-81.729	0.99	7.9	0.99	7.9	0.137	-81.729
270.392	0.136	-81.81	0.99	7.815	0.99	7.815	0.136	-81.81
272.861	0.135	-81.89	0.99	7.731	0.99	7.731	0.135	-81.89
275.331	0.133	-81.968	0.99	7.648	0.99	7.648	0.133	-81.968
277.8	0.132	-82.045	0.99	7.567	0.99	7.567	0.132	-82.045
280.269	0.13	-82.12	0.991	7.488	0.991	7.488	0.13	-82.12
282.739	0.129	-82.195	0.991	7.409	0.991	7.409	0.129	-82.195
285.208	0.128	-82.268	0.991	7.332	0.991	7.332	0.128	-82.268
287.678	0.126	-82.34	0.991	7.256	0.991	7.256	0.126	-82.34
290.147	0.125	-82.41	0.991	7.181	0.991	7.181	0.125	-82.41
292.617	0.124	-82.48	0.991	7.107	0.991	7.107	0.124	-82.48
295.086	0.122	-82.548	0.992	7.034	0.992	7.034	0.122	-82.548
297.556	0.121	-82.616	0.992	6.962	0.992	6.962	0.121	-82.616
300.025	0.12	-82.682	0.992	6.892	0.992	6.892	0.12	-82.682
302.494	0.119	-82.747	0.992	6.822	0.992	6.822	0.119	-82.747
304.964	0.118	-82.812	0.992	6.753	0.992	6.753	0.118	-82.812
307.433	0.116	-82.875	0.992	6.686	0.992	6.686	0.116	-82.875
309.903	0.115	-82.937	0.992	6.619	0.992	6.619	0.115	-82.937
312.372	0.114	-82.998	0.993	6.553	0.993	6.553	0.114	-82.998
314.842	0.113	-83.059	0.993	6.488	0.993	6.488	0.113	-83.059
317.311	0.112	-83.118	0.993	6.424	0.993	6.424	0.112	-83.118
319.78	0.111	-83.177	0.993	6.361	0.993	6.361	0.111	-83.177
322.25	0.11	-83.235	0.993	6.299	0.993	6.299	0.11	-83.235
324.719	0.109	-83.291	0.993	6.237	0.993	6.237	0.109	-83.291
327.189	0.108	-83.347	0.993	6.176	0.993	6.176	0.108	-83.347
329.658	0.107	-83.403	0.993	6.117	0.993	6.117	0.107	-83.403
332.128	0.106	-83.457	0.994	6.058	0.994	6.058	0.106	-83.457
334.597	0.105	-83.511	0.994	5.999	0.994	5.999	0.105	-83.511
337.067	0.104	-83.563	0.994	5.942	0.994	5.942	0.104	-83.563
339.536	0.103	-83.615	0.994	5.885	0.994	5.885	0.103	-83.615
342.005	0.102	-83.667	0.994	5.828	0.994	5.828	0.102	-83.667
344.475	0.101	-83.717	0.994	5.773	0.994	5.773	0.101	-83.717
346.944	0.1	-83.767	0.994	5.718	0.994	5.718	0.1	-83.767
349.414	0.099	-83.816	0.994	5.664	0.994	5.664	0.099	-83.816
351.883	0.098	-83.865	0.994	5.611	0.994	5.611	0.098	-83.865
354.353	0.097	-83.913	0.994	5.558	0.994	5.558	0.097	-83.913
356.822	0.096	-83.96	0.994	5.505	0.994	5.505	0.096	-83.96
359.292	0.095	-84.006	0.995	5.454	0.995	5.454	0.095	-84.006
361.761	0.094	-84.052	0.995	5.403	0.995	5.403	0.094	-84.052
364.23	0.093	-84.098	0.995	5.352	0.995	5.352	0.093	-84.098
366.7	0.092	-84.142	0.995	5.303	0.995	5.303	0.092	-84.142
369.169	0.092	-84.186	0.995	5.253	0.995	5.253	0.092	-84.186
371.639	0.091	-84.23	0.995	5.205	0.995	5.205	0.091	-84.23
374.108	0.09	-84.273	0.995	5.156	0.995	5.156	0.09	-84.273
376.578	0.089	-84.315	0.995	5.109	0.995	5.109	0.089	-84.315
379.047	0.088	-84.357	0.995	5.062	0.995	5.062	0.088	-84.357
381.517	0.087	-84.398	0.995	5.015	0.995	5.015	0.087	-84.398
383.986	0.087	-84.438	0.995	4.969	0.995	4.969	0.087	-84.438
386.455	0.086	-84.479	0.995	4.923	0.995	4.923	0.086	-84.479
388.925	0.085	-84.518	0.995	4.878	0.995	4.878	0.085	-84.518
391.394	0.084	-84.557	0.996	4.833	0.996	4.833	0.084	-84.557
393.864	0.083	-84.596	0.996	4.789	0.996	4.789	0.083	-84.596
396.333	0.083	-84.634	0.996	4.746	0.996	4.746	0.083	-84.634
398.803	0.082	-84.671	0.996	4.702	0.996	4.702	0.082	-84.671
401.272	0.081	-84.708	0.996	4.659	0.996	4.659	0.081	-84.708
403.742	0.08	-84.745	0.996	4.617	0.996	4.617	0.08	-84.745
406.211	0.08	-84.781	0.996	4.575	0.996	4.575	0.08	-84.781
408.68	0.079	-84.817	0.996	4.533	0.996	4.533	0.079	-84.817
411.15	0.078	-84.852	0.996	4.492	0.996	4.492	0.078	-84.852
413.619	0.078	-84.887	0.996	4.451	0.996	4.451	0.078	-84.887
416.089	0.077	-84.921	0.996	4.411	0.996	4.411	0.077	-84.921
418.558	0.076	-84.955	0.996	4.371	0.996	4.371	0.076	-84.955
421.028	0.076	-84.988	0.996	4.332	0.996	4.332	0.076	-84.988
423.497	0.075	-85.021	0.996	4.292	0.996	4.292	0.075	-85.021
425.967	0.074	-85.054	0.996	4.253	0.996	4.253	0.074	-85.054
428.436	0.074	-85.086	0.996	4.215	0.996	4.215	0.074	-85.086
430.905	0.073	-85.118	0.996	4.177	0.996	4.177	0.073	-85.118
433.375	0.072	-85.149	0.996	4.139	0.996	4.139	0.072	-85.149
435.844	0.072	-85.18	0.997	4.102	0.997	4.102	0.072	-85.18
438.314	0.071	-85.21	0.997	4.065	0.997	4.065	0.071	-85.21
440.783	0.07	-85.241	0.997	4.028	0.997	4.028	0.07	-85.241
443.253	0.07	-85.27	0.997	3.991	0.997	3.991	0.07	-85.27
445.722	0.069	-85.3	0.997	3.955	0.997	3.955	0.069	-85.3
448.192	0.068	-85.329	0.997	3.919	0.997	3.919	0.068	-85.329
450.661	0.068	-85.357	0.997	3.884	0.997	3.884	0.068	-85.357
453.13	0.067	-85.385	0.997	3.849	0.997	3.849	0.067	-85.385
455.6	0.067	-85.413	0.997	3.814	0.997	3.814	0.067	-85.413
458.069	0.066	-85.441	0.997	3.779	0.997	3.779	0.066	-85.441
460.539	0.065	-85.468	0.997	3.745	0.997	3.745	0.065	-85.468
463.008	0.065	-85.495	0.997	3.711	0.997	3.711	0.065	-85.495
465.478	0.064	-85.521	0.997	3.677	0.997	3.677	0.064	-85.521
467.947	0.064	-85.547	0.997	3.644	0.997	3.644	0.064	-85.547
470.417	0.063	-85.573	0.997	3.611	0.997	3.611	0.063	-85.573
472.886	0.062	-85.598	0.997	3.578	0.997	3.578	0.062	-85.598
475.355	0.062	-85.623	0.997	3.545	0.997	3.545	0.062	-85.623
477.825	0.061	-85.648	0.997	3.513	0.997	3.513	0.061	-85.648
480.294	0.061	-85.672	0.997	3.481	0.997	3.481	0.061	-85.672
482.764	0.06	-85.696	0.997	3.449	0.997	3.449	0.06	-85.696
485.233	0.06	-85.72	0.997	3.417	0.997	3.417	0.06	-85.72
487.703	0.059	-85.743	0.997	3.386	0.997	3.386	0.059	-85.743
490.172	0.059	-85.766	0.997	3.355	0.997	3.355	0.059	-85.766
492.642	0.058	-85.789	0.997	3.324	0.997	3.324	0.058	-85.789
495.111	0.057	-85.811	0.997	3.293	0.997	3.293	0.057	-85.811
497.58	0.057	-85.833	0.997	3.263	0.997	3.263	0.057	-85.833
500.05	0.056	-85.855	0.998	3.233	0.998	3.233	0.056	-85.855
502.519	0.056	-85.877	0.998	3.203	0.998	3.203	0.056	-85.877
504.989	0.055	-85.898	0.998	3.173	0.998	3.173	0.055	-85.898
507.458	0.055	-85.918	0.998	3.143	0.998	3.143	0.055	-85.918
509.928	0.054	-85.939	0.998	3.114	0.998	3.114	0.054	-85.939
512.397	0.054	-85.959	0.998	3.085	0.998	3.085	0.054	-85.959
514.867	0.053	-85.979	0.998	3.056	0.998	3.056	0.053	-85.979
517.336	0.053	-85.998	0.998	3.028	0.998	3.028	0.053	-85.998
519.805	0.052	-86.018	0.998	2.999	0.998	2.999	0.052	-86.018
522.275	0.052	-86.036	0.998	2.971	0.998	2.971	0.052	-86.036
524.744	0.051	-86.055	0.998	2.943	0.998	2.943	0.051	-86.055
527.214	0.051	-86.073	0.998	2.915	0.998	2.915	0.051	-86.073
529.683	0.05	-86.091	0.998	2.887	0.998	2.887	0.05	-86.091
532.153	0.05	-86.109	0.998	2.86	0.998	2.86	0.05	-86.109
534.622	0.049	-86.126	0.998	2.832	0.998	2.832	0.049	-86.126
537.092	0.049	-86.143	0.998	2.805	0.998	2.805	0.049	-86.143
539.561	0.048	-86.16	0.998	2.778	0.998	2.778	0.048	-86.16
542.03	0.048	-86.176	0.998	2.752	0.998	2.752	0.048	-86.176
544.5	0.048	-86.193	0.998	2.725	0.998	2.725	0.048	-86.193
546.969	0.047	-86.208	0.998	2.699	0.998	2.699	0.047	-86.208
549.439	0.047	-86.224	0.998	2.672	0.998	2.672	0.047	-86.224
551.908	0.046	-86.239	0.998	2.646	0.998	2.646	0.046	-86.239
554.378	0.046	-86.254	0.998	2.62	0.998	2.62	0.046	-86.254
556.847	0.045	-86.268	0.998	2.595	0.998	2.595	0.045	-86.268
559.317	0.045	-86.283	0.998	2.569	0.998	2.569	0.045	-86.283
561.786	0.044	-86.297	0.998	2.544	0.998	2.544	0.044	-86.297
564.255	0.044	-86.31	0.998	2.519	0.998	2.519	0.044	-86.31
566.725	0.044	-86.323	0.998	2.493	0.998	2.493	0.044	-86.323
569.194	0.043	-86.336	0.998	2.469	0.998	2.469	0.043	-86.336
571.664	0.043	-86.349	0.998	2.444	0.998	2.444	0.043	-86.349
574.133	0.042	-86.361	0.998	2.419	0.998	2.419	0.042	-86.361
576.603	0.042	-86.373	0.998	2.395	0.998	2.395	0.042	-86.373
579.072	0.041	-86.385	0.998	2.37	0.998	2.37	0.041	-86.385
581.542	0.041	-86.396	0.998	2.346	0.998	2.346	0.041	-86.396
584.011	0.041	-86.407	0.998	2.322	0.998	2.322	0.041	-86.407
586.48	0.04	-86.418	0.998	2.298	0.998	2.298	0.04	-86.418
588.95	0.04	-86.428	0.998	2.275	0.998	2.275	0.04	-86.428
591.419	0.039	-86.438	0.998	2.251	0.998	2.251	0.039	-86.438
593.889	0.039	-86.448	0.998	2.227	0.998	2.227	0.039	-86.448
596.358	0.038	-86.457	0.998	2.204	0.998	2.204	0.038	-86.457
598.828	0.038	-86.466	0.998	2.181	0.998	2.181	0.038	-86.466
601.297	0.038	-86.475	0.998	2.158	0.998	2.158	0.038	-86.475
603.767	0.037	-86.483	0.998	2.135	0.998	2.135	0.037	-86.483
606.236	0.037	-86.491	0.998	2.112	0.998	2.112	0.037	-86.491
608.705	0.036	-86.499	0.998	2.089	0.998	2.089	0.036	-86.499
611.175	0.036	-86.506	0.998	2.067	0.998	2.067	0.036	-86.506
613.644	0.036	-86.513	0.998	2.044	0.998	2.044	0.036	-86.513
616.114	0.035	-86.519	0.998	2.022	0.998	2.022	0.035	-86.519
618.583	0.035	-86.525	0.998	2	0.998	2	0.035	-86.525
621.053	0.035	-86.53	0.999	1.978	0.999	1.978	0.035	-86.53
623.522	0.034	-86.536	0.999	1.956	0.999	1.956	0.034	-86.536
625.992	0.034	-86.54	0.999	1.934	0.999	1.934	0.034	-86.54
628.461	0.033	-86.545	0.999	1.912	0.999	1.912	0.033	-86.545
630.93	0.033	-86.549	0.999	1.891	0.999	1.891	0.033	-86.549
633.4	0.033	-86.552	0.999	1.869	0.999	1.869	0.033	-86.552
635.869	0.032	-86.556	0.999	1.848	0.999	1.848	0.032	-86.556
638.339	0.032	-86.558	0.999	1.826	0.999	1.826	0.032	-86.558
640.808	0.032	-86.56	0.999	1.805	0.999	1.805	0.032	-86.56
643.278	0.031	-86.562	0.999	1.784	0.999	1.784	0.031	-86.562
645.747	0.031	-86.563	0.999	1.763	0.999	1.763	0.031	-86.563
648.217	0.03	-86.564	0.999	1.742	0.999	1.742	0.03	-86.564
650.686	0.03	-86.565	0.999	1.722	0.999	1.722	0.03	-86.565
653.155	0.03	-86.564	0.999	1.701	0.999	1.701	0.03	-86.564
655.625	0.029	-86.564	0.999	1.68	0.999	1.68	0.029	-86.564
658.094	0.029	-86.563	0.999	1.66	0.999	1.66	0.029	-86.563
660.564	0.029	-86.561	0.999	1.64	0.999	1.64	0.029	-86.561
663.033	0.028	-86.559	0.999	1.619	0.999	1.619	0.028	-86.559
665.503	0.028	-86.556	0.999	1.599	0.999	1.599	0.028	-86.556
667.972	0.028	-86.553	0.999	1.579	0.999	1.579	0.028	-86.553
670.442	0.027	-86.549	0.999	1.559	0.999	1.559	0.027	-86.549
672.911	0.027	-86.544	0.999	1.539	0.999	1.539	0.027	-86.544
675.38	0.027	-86.539	0.999	1.52	0.999	1.52	0.027	-86.539
677.85	0.026	-86.533	0.999	1.5	0.999	1.5	0.026	-86.533
680.319	0.026	-86.527	0.999	1.48	0.999	1.48	0.026	-86.527
682.789	0.026	-86.52	0.999	1.461	0.999	1.461	0.026	-86.52
685.258	0.025	-86.512	0.999	1.441	0.999	1.441	0.025	-86.512
687.728	0.025	-86.503	0.999	1.422	0.999	1.422	0.025	-86.503
690.197	0.024	-86.494	0.999	1.403	0.999	1.403	0.024	-86.494
692.667	0.024	-86.484	0.999	1.384	0.999	1.384	0.024	-86.484
695.136	0.024	-86.473	0.999	1.365	0.999	1.365	0.024	-86.473
697.605	0.024	-86.462	0.999	1.346	0.999	1.346	0.024	-86.462
700.075	0.023	-86.45	0.999	1.327	0.999	1.327	0.023	-86.45
702.544	0.023	-86.437	0.999	1.308	0.999	1.308	0.023	-86.437
705.014	0.023	-86.423	0.999	1.289	0.999	1.289	0.023	-86.423
707.483	0.022	-86.408	0.999	1.271	0.999	1.271	0.022	-86.408
709.953	0.022	-86.392	0.999	1.252	0.999	1.252	0.022	-86.392
712.422	0.022	-86.375	0.999	1.234	0.999	1.234	0.022	-86.375
714.891	0.021	-86.357	0.999	1.215	0.999	1.215	0.021	-86.357
717.361	0.021	-86.338	0.999	1.197	0.999	1.197	0.021	-86.338
719.83	0.021	-86.319	0.999	1.179	0.999	1.179	0.021	-86.319
722.3	0.02	-86.298	0.999	1.16	0.999	1.16	0.02	-86.298
724.769	0.02	-86.275	0.999	1.142	0.999	1.142	0.02	-86.275
727.239	0.02	-86.252	0.999	1.124	0.999	1.124	0.02	-86.252
729.708	0.019	-86.228	0.999	1.106	0.999	1.106	0.019	-86.228
732.178	0.019	-86.202	0.999	1.088	0.999	1.088	0.019	-86.202
734.647	0.019	-86.174	0.999	1.071	0.999	1.071	0.019	-86.174
737.116	0.018	-86.146	0.999	1.053	0.999	1.053	0.018	-86.146
739.586	0.018	-86.116	0.999	1.035	0.999	1.035	0.018	-86.116
742.055	0.018	-86.084	0.999	1.018	0.999	1.018	0.018	-86.084
744.525	0.017	-86.051	0.999	1	0.999	1	0.017	-86.051
746.994	0.017	-86.016	0.999	0.983	0.999	0.983	0.017	-86.016
749.464	0.017	-85.98	0.999	0.965	0.999	0.965	0.017	-85.98
751.933	0.017	-85.941	0.999	0.948	0.999	0.948	0.017	-85.941
754.403	0.016	-85.901	0.999	0.931	0.999	0.931	0.016	-85.901
756.872	0.016	-85.859	0.999	0.914	0.999	0.914	0.016	-85.859
759.341	0.016	-85.814	0.999	0.896	0.999	0.896	0.016	-85.814
761.811	0.015	-85.768	0.999	0.879	0.999	0.879	0.015	-85.768
764.28	0.015	-85.719	0.999	0.862	0.999	0.862	0.015	-85.719
766.75	0.015	-85.667	0.999	0.845	0.999	0.845	0.015	-85.667
769.219	0.014	-85.613	0.999	0.829	0.999	0.829	0.014	-85.613
771.689	0.014	-85.557	0.999	0.812	0.999	0.812	0.014	-85.557
774.158	0.014	-85.497	0.999	0.795	0.999	0.795	0.014	-85.497
776.628	0.014	-85.434	0.999	0.778	0.999	0.778	0.014	-85.434
779.097	0.013	-85.369	0.999	0.762	0.999	0.762	0.013	-85.369
781.566	0.013	-85.299	0.999	0.745	0.999	0.745	0.013	-85.299
784.036	0.013	-85.227	0.999	0.729	0.999	0.729	0.013	-85.227
786.505	0.012	-85.15	0.999	0.712	0.999	0.712	0.012	-85.15
788.975	0.012	-85.069	0.999	0.696	0.999	0.696	0.012	-85.069
791.444	0.012	-84.984	0.999	0.679	0.999	0.679	0.012	-84.984
793.914	0.012	-84.895	0.999	0.663	0.999	0.663	0.012	-84.895
796.383	0.011	-84.8	0.999	0.647	0.999	0.647	0.011	-84.8
798.853	0.011	-84.7	0.999	0.631	0.999	0.631	0.011	-84.7
801.322	0.011	-84.594	0.999	0.615	0.999	0.615	0.011	-84.594
803.791	0.01	-84.483	0.999	0.599	0.999	0.599	0.01	-84.483
806.261	0.01	-84.364	0.999	0.583	0.999	0.583	0.01	-84.364
808.73	9.93E-03	-84.239	0.999	0.567	0.999	0.567	9.93E-03	-84.239
811.2	9.66E-03	-84.106	0.999	0.551	0.999	0.551	9.66E-03	-84.106
813.669	9.38E-03	-83.965	0.999	0.535	0.999	0.535	9.38E-03	-83.965
816.139	9.11E-03	-83.815	0.999	0.519	0.999	0.519	9.11E-03	-83.815
818.608	8.84E-03	-83.655	0.999	0.504	0.999	0.504	8.84E-03	-83.655
821.078	8.56E-03	-83.484	0.999	0.488	0.999	0.488	8.56E-03	-83.484
823.547	8.29E-03	-83.302	0.999	0.472	0.999	0.472	8.29E-03	-83.302
826.016	8.02E-03	-83.107	0.999	0.457	0.999	0.457	8.02E-03	-83.107
828.486	7.75E-03	-82.898	0.999	0.441	0.999	0.441	7.75E-03	-82.898
830.955	7.49E-03	-82.674	0.999	0.426	0.999	0.426	7.49E-03	-82.674
833.425	7.22E-03	-82.432	0.999	0.41	0.999	0.41	7.22E-03	-82.432
835.894	6.95E-03	-82.172	0.999	0.395	0.999	0.395	6.95E-03	-82.172
838.364	6.69E-03	-81.891	0.999	0.38	0.999	0.38	6.69E-03	-81.891
840.833	6.42E-03	-81.587	0.999	0.364	0.999	0.364	6.42E-03	-81.587
843.303	6.16E-03	-81.256	0.999	0.349	0.999	0.349	6.16E-03	-81.256
845.772	5.90E-03	-80.895	0.999	0.334	0.999	0.334	5.90E-03	-80.895
848.241	5.64E-03	-80.501	0.999	0.319	0.999	0.319	5.64E-03	-80.501
850.711	5.38E-03	-80.068	0.999	0.304	0.999	0.304	5.38E-03	-80.068
853.18	5.12E-03	-79.592	0.999	0.289	0.999	0.289	5.12E-03	-79.592
855.65	4.86E-03	-79.065	0.999	0.274	0.999	0.274	4.86E-03	-79.065
858.119	4.61E-03	-78.48	0.999	0.259	0.999	0.259	4.61E-03	-78.48
860.589	4.35E-03	-77.826	0.999	0.244	0.999	0.244	4.35E-03	-77.826
863.058	4.10E-03	-77.091	0.999	0.229	0.999	0.229	4.10E-03	-77.091
865.528	3.85E-03	-76.26	0.999	0.214	0.999	0.214	3.85E-03	-76.26
867.997	3.60E-03	-75.314	0.999	0.199	0.999	0.199	3.60E-03	-75.314
870.466	3.35E-03	-74.228	0.999	0.185	0.999	0.185	3.35E-03	-74.228
872.936	3.10E-03	-72.97	0.999	0.17	0.999	0.17	3.10E-03	-72.97
875.405	2.86E-03	-71.499	0.999	0.155	0.999	0.155	2.86E-03	-71.499
877.875	2.62E-03	-69.757	0.999	0.141	0.999	0.141	2.62E-03	-69.757
880.344	2.38E-03	-67.669	0.999	0.126	0.999	0.126	2.38E-03	-67.669
882.814	2.15E-03	-65.129	0.999	0.112	0.999	0.112	2.15E-03	-65.129
885.283	1.92E-03	-61.986	0.999	0.097	0.999	0.097	1.92E-03	-61.986
887.753	1.70E-03	-58.029	0.999	0.083	0.999	0.083	1.70E-03	-58.029
890.222	1.50E-03	-52.952	0.999	0.068	0.999	0.068	1.50E-03	-52.952
892.691	1.30E-03	-46.331	0.999	0.054	0.999	0.054	1.30E-03	-46.331
895.161	1.14E-03	-37.623	0.999	0.04	0.999	0.04	1.14E-03	-37.623
897.63	1.00E-03	-26.307	0.999	0.026	0.999	0.026	1.00E-03	-26.307
900.1	9.21E-04	-12.329	0.999	0.011	0.999	0.011	9.21E-04	-12.329
902.569	9.01E-04	3.239	0.999	-2.92E-03	0.999	-2.92E-03	9.01E-04	3.239
905.039	9.47E-04	18.313	0.999	-0.017	0.999	-0.017	9.47E-04	18.313
