! AVX Thin Film Operation		Date: April 2012 
! Description: Accu-P® Series, Thin Film, SMD, RF Capacitor
! Part Number: 08051K150FBTTR					
!	100	MHz	-	10.05	GHz			
!	Serial	Measurements						
!								
#	MHZ	S	MA	R	50			
!	S11	S21	S12	S22				
!	dB	Phase	dB	Phase	dB	Phase	dB	Phase
100	0.726	-43.405	0.687	46.536	0.687	46.536	0.726	-43.405
102.469	0.717	-44.108	0.696	45.831	0.696	45.831	0.717	-44.108
104.939	0.709	-44.795	0.705	45.142	0.705	45.142	0.709	-44.795
107.408	0.701	-45.467	0.713	44.469	0.713	44.469	0.701	-45.467
109.878	0.692	-46.123	0.721	43.811	0.721	43.811	0.692	-46.123
112.347	0.684	-46.764	0.729	43.168	0.729	43.168	0.684	-46.764
114.817	0.676	-47.391	0.736	42.54	0.736	42.54	0.676	-47.391
117.286	0.668	-48.004	0.743	41.926	0.743	41.926	0.668	-48.004
119.756	0.66	-48.603	0.75	41.326	0.75	41.326	0.66	-48.603
122.225	0.653	-49.188	0.757	40.739	0.757	40.739	0.653	-49.188
124.694	0.645	-49.76	0.763	40.165	0.763	40.165	0.645	-49.76
127.164	0.637	-50.32	0.77	39.604	0.77	39.604	0.637	-50.32
129.633	0.63	-50.866	0.776	39.056	0.776	39.056	0.63	-50.866
132.103	0.623	-51.401	0.782	38.52	0.782	38.52	0.623	-51.401
134.572	0.616	-51.924	0.787	37.996	0.787	37.996	0.616	-51.924
137.042	0.609	-52.435	0.793	37.483	0.793	37.483	0.609	-52.435
139.511	0.602	-52.935	0.798	36.981	0.798	36.981	0.602	-52.935
141.981	0.595	-53.424	0.803	36.491	0.803	36.491	0.595	-53.424
144.45	0.588	-53.902	0.808	36.011	0.808	36.011	0.588	-53.902
146.919	0.581	-54.37	0.813	35.541	0.813	35.541	0.581	-54.37
149.389	0.575	-54.828	0.817	35.082	0.817	35.082	0.575	-54.828
151.858	0.568	-55.277	0.822	34.632	0.822	34.632	0.568	-55.277
154.328	0.562	-55.715	0.826	34.192	0.826	34.192	0.562	-55.715
156.797	0.556	-56.144	0.83	33.761	0.83	33.761	0.556	-56.144
159.267	0.55	-56.565	0.835	33.34	0.835	33.34	0.55	-56.565
161.736	0.544	-56.976	0.838	32.927	0.838	32.927	0.544	-56.976
164.206	0.538	-57.379	0.842	32.522	0.842	32.522	0.538	-57.379
166.675	0.532	-57.773	0.846	32.126	0.846	32.126	0.532	-57.773
169.144	0.526	-58.16	0.85	31.738	0.85	31.738	0.526	-58.16
171.614	0.52	-58.539	0.853	31.358	0.853	31.358	0.52	-58.539
174.083	0.515	-58.909	0.856	30.986	0.856	30.986	0.515	-58.909
176.553	0.509	-59.273	0.86	30.621	0.86	30.621	0.509	-59.273
179.022	0.504	-59.629	0.863	30.263	0.863	30.263	0.504	-59.629
181.492	0.499	-59.978	0.866	29.913	0.866	29.913	0.499	-59.978
183.961	0.493	-60.32	0.869	29.569	0.869	29.569	0.493	-60.32
186.431	0.488	-60.656	0.872	29.232	0.872	29.232	0.488	-60.656
188.9	0.483	-60.985	0.874	28.901	0.874	28.901	0.483	-60.985
191.369	0.478	-61.307	0.877	28.577	0.877	28.577	0.478	-61.307
193.839	0.473	-61.624	0.88	28.259	0.88	28.259	0.473	-61.624
196.308	0.469	-61.934	0.882	27.947	0.882	27.947	0.469	-61.934
198.778	0.464	-62.238	0.885	27.641	0.885	27.641	0.464	-62.238
201.247	0.459	-62.537	0.887	27.341	0.887	27.341	0.459	-62.537
203.717	0.455	-62.83	0.89	27.046	0.89	27.046	0.455	-62.83
206.186	0.45	-63.118	0.892	26.757	0.892	26.757	0.45	-63.118
208.656	0.446	-63.4	0.894	26.473	0.894	26.473	0.446	-63.4
211.125	0.441	-63.678	0.896	26.194	0.896	26.194	0.441	-63.678
213.594	0.437	-63.95	0.898	25.92	0.898	25.92	0.437	-63.95
216.064	0.433	-64.217	0.9	25.651	0.9	25.651	0.433	-64.217
218.533	0.429	-64.48	0.902	25.387	0.902	25.387	0.429	-64.48
221.003	0.425	-64.738	0.904	25.128	0.904	25.128	0.425	-64.738
223.472	0.421	-64.991	0.906	24.873	0.906	24.873	0.421	-64.991
225.942	0.417	-65.24	0.908	24.622	0.908	24.622	0.417	-65.24
228.411	0.413	-65.485	0.91	24.376	0.91	24.376	0.413	-65.485
230.881	0.409	-65.725	0.912	24.134	0.912	24.134	0.409	-65.725
233.35	0.405	-65.961	0.913	23.896	0.913	23.896	0.405	-65.961
235.819	0.401	-66.194	0.915	23.662	0.915	23.662	0.401	-66.194
238.289	0.398	-66.422	0.917	23.433	0.917	23.433	0.398	-66.422
240.758	0.394	-66.647	0.918	23.206	0.918	23.206	0.394	-66.647
243.228	0.39	-66.867	0.92	22.984	0.92	22.984	0.39	-66.867
245.697	0.387	-67.085	0.921	22.765	0.921	22.765	0.387	-67.085
248.167	0.383	-67.298	0.923	22.55	0.923	22.55	0.383	-67.298
250.636	0.38	-67.508	0.924	22.338	0.924	22.338	0.38	-67.508
253.106	0.377	-67.715	0.925	22.13	0.925	22.13	0.377	-67.715
255.575	0.373	-67.918	0.927	21.925	0.927	21.925	0.373	-67.918
258.044	0.37	-68.119	0.928	21.723	0.928	21.723	0.37	-68.119
260.514	0.367	-68.316	0.929	21.525	0.929	21.525	0.367	-68.316
262.983	0.364	-68.51	0.93	21.329	0.93	21.329	0.364	-68.51
265.453	0.361	-68.7	0.932	21.137	0.932	21.137	0.361	-68.7
267.922	0.358	-68.888	0.933	20.947	0.933	20.947	0.358	-68.888
270.392	0.354	-69.073	0.934	20.76	0.934	20.76	0.354	-69.073
272.861	0.351	-69.256	0.935	20.577	0.935	20.577	0.351	-69.256
275.331	0.348	-69.435	0.936	20.395	0.936	20.395	0.348	-69.435
277.8	0.346	-69.612	0.937	20.217	0.937	20.217	0.346	-69.612
280.269	0.343	-69.786	0.938	20.041	0.938	20.041	0.343	-69.786
282.739	0.34	-69.958	0.939	19.868	0.939	19.868	0.34	-69.958
285.208	0.337	-70.127	0.94	19.698	0.94	19.698	0.337	-70.127
287.678	0.334	-70.293	0.941	19.529	0.941	19.529	0.334	-70.293
290.147	0.332	-70.457	0.942	19.364	0.942	19.364	0.332	-70.457
292.617	0.329	-70.619	0.943	19.2	0.943	19.2	0.329	-70.619
295.086	0.326	-70.778	0.944	19.039	0.944	19.039	0.326	-70.778
297.556	0.324	-70.935	0.945	18.88	0.945	18.88	0.324	-70.935
300.025	0.321	-71.09	0.946	18.724	0.946	18.724	0.321	-71.09
302.494	0.318	-71.243	0.947	18.569	0.947	18.569	0.318	-71.243
304.964	0.316	-71.394	0.948	18.417	0.948	18.417	0.316	-71.394
307.433	0.313	-71.542	0.949	18.267	0.949	18.267	0.313	-71.542
309.903	0.311	-71.689	0.949	18.119	0.949	18.119	0.311	-71.689
312.372	0.309	-71.833	0.95	17.973	0.95	17.973	0.309	-71.833
314.842	0.306	-71.976	0.951	17.828	0.951	17.828	0.306	-71.976
317.311	0.304	-72.116	0.952	17.686	0.952	17.686	0.304	-72.116
319.78	0.301	-72.255	0.952	17.546	0.952	17.546	0.301	-72.255
322.25	0.299	-72.392	0.953	17.407	0.953	17.407	0.299	-72.392
324.719	0.297	-72.527	0.954	17.271	0.954	17.271	0.297	-72.527
327.189	0.295	-72.66	0.955	17.136	0.955	17.136	0.295	-72.66
329.658	0.292	-72.792	0.955	17.002	0.955	17.002	0.292	-72.792
332.128	0.29	-72.921	0.956	16.871	0.956	16.871	0.29	-72.921
334.597	0.288	-73.05	0.957	16.741	0.957	16.741	0.288	-73.05
337.067	0.286	-73.176	0.957	16.613	0.957	16.613	0.286	-73.176
339.536	0.284	-73.301	0.958	16.486	0.958	16.486	0.284	-73.301
342.005	0.282	-73.424	0.958	16.361	0.958	16.361	0.282	-73.424
344.475	0.28	-73.546	0.959	16.238	0.959	16.238	0.28	-73.546
346.944	0.278	-73.666	0.96	16.116	0.96	16.116	0.278	-73.666
349.414	0.276	-73.785	0.96	15.995	0.96	15.995	0.276	-73.785
351.883	0.274	-73.902	0.961	15.876	0.961	15.876	0.274	-73.902
354.353	0.272	-74.018	0.961	15.759	0.961	15.759	0.272	-74.018
356.822	0.27	-74.133	0.962	15.643	0.962	15.643	0.27	-74.133
359.292	0.268	-74.246	0.962	15.528	0.962	15.528	0.268	-74.246
361.761	0.266	-74.357	0.963	15.414	0.963	15.414	0.266	-74.357
364.23	0.264	-74.468	0.963	15.302	0.963	15.302	0.264	-74.468
366.7	0.262	-74.577	0.964	15.191	0.964	15.191	0.262	-74.577
369.169	0.26	-74.684	0.964	15.082	0.964	15.082	0.26	-74.684
371.639	0.258	-74.791	0.965	14.974	0.965	14.974	0.258	-74.791
374.108	0.257	-74.896	0.965	14.867	0.965	14.867	0.257	-74.896
376.578	0.255	-75	0.966	14.761	0.966	14.761	0.255	-75
379.047	0.253	-75.103	0.966	14.656	0.966	14.656	0.253	-75.103
381.517	0.251	-75.205	0.967	14.553	0.967	14.553	0.251	-75.205
383.986	0.25	-75.305	0.967	14.451	0.967	14.451	0.25	-75.305
386.455	0.248	-75.404	0.968	14.349	0.968	14.349	0.248	-75.404
388.925	0.246	-75.503	0.968	14.249	0.968	14.249	0.246	-75.503
391.394	0.244	-75.6	0.969	14.15	0.969	14.15	0.244	-75.6
393.864	0.243	-75.696	0.969	14.053	0.969	14.053	0.243	-75.696
396.333	0.241	-75.791	0.969	13.956	0.969	13.956	0.241	-75.791
398.803	0.24	-75.885	0.97	13.86	0.97	13.86	0.24	-75.885
401.272	0.238	-75.978	0.97	13.765	0.97	13.765	0.238	-75.978
403.742	0.236	-76.07	0.971	13.672	0.971	13.672	0.236	-76.07
406.211	0.235	-76.16	0.971	13.579	0.971	13.579	0.235	-76.16
408.68	0.233	-76.25	0.971	13.487	0.971	13.487	0.233	-76.25
411.15	0.232	-76.339	0.972	13.396	0.972	13.396	0.232	-76.339
413.619	0.23	-76.427	0.972	13.306	0.972	13.306	0.23	-76.427
416.089	0.229	-76.514	0.972	13.217	0.972	13.217	0.229	-76.514
418.558	0.227	-76.601	0.973	13.129	0.973	13.129	0.227	-76.601
421.028	0.226	-76.686	0.973	13.042	0.973	13.042	0.226	-76.686
423.497	0.224	-76.77	0.973	12.956	0.973	12.956	0.224	-76.77
425.967	0.223	-76.854	0.974	12.871	0.974	12.871	0.223	-76.854
428.436	0.221	-76.936	0.974	12.786	0.974	12.786	0.221	-76.936
430.905	0.22	-77.018	0.974	12.702	0.974	12.702	0.22	-77.018
433.375	0.218	-77.099	0.975	12.62	0.975	12.62	0.218	-77.099
435.844	0.217	-77.179	0.975	12.537	0.975	12.537	0.217	-77.179
438.314	0.216	-77.259	0.975	12.456	0.975	12.456	0.216	-77.259
440.783	0.214	-77.337	0.976	12.376	0.976	12.376	0.214	-77.337
443.253	0.213	-77.415	0.976	12.296	0.976	12.296	0.213	-77.415
445.722	0.212	-77.492	0.976	12.217	0.976	12.217	0.212	-77.492
448.192	0.21	-77.568	0.977	12.139	0.977	12.139	0.21	-77.568
450.661	0.209	-77.644	0.977	12.062	0.977	12.062	0.209	-77.644
453.13	0.208	-77.719	0.977	11.985	0.977	11.985	0.208	-77.719
455.6	0.206	-77.793	0.977	11.909	0.977	11.909	0.206	-77.793
458.069	0.205	-77.866	0.978	11.834	0.978	11.834	0.205	-77.866
460.539	0.204	-77.939	0.978	11.759	0.978	11.759	0.204	-77.939
463.008	0.203	-78.01	0.978	11.685	0.978	11.685	0.203	-78.01
465.478	0.201	-78.082	0.978	11.612	0.978	11.612	0.201	-78.082
467.947	0.2	-78.152	0.979	11.539	0.979	11.539	0.2	-78.152
470.417	0.199	-78.222	0.979	11.467	0.979	11.467	0.199	-78.222
472.886	0.198	-78.291	0.979	11.396	0.979	11.396	0.198	-78.291
475.355	0.196	-78.36	0.979	11.326	0.979	11.326	0.196	-78.36
477.825	0.195	-78.428	0.98	11.256	0.98	11.256	0.195	-78.428
480.294	0.194	-78.495	0.98	11.186	0.98	11.186	0.194	-78.495
482.764	0.193	-78.562	0.98	11.117	0.98	11.117	0.193	-78.562
485.233	0.192	-78.628	0.98	11.049	0.98	11.049	0.192	-78.628
487.703	0.19	-78.694	0.981	10.982	0.981	10.982	0.19	-78.694
490.172	0.189	-78.759	0.981	10.915	0.981	10.915	0.189	-78.759
492.642	0.188	-78.823	0.981	10.848	0.981	10.848	0.188	-78.823
495.111	0.187	-78.887	0.981	10.783	0.981	10.783	0.187	-78.887
497.58	0.186	-78.95	0.981	10.717	0.981	10.717	0.186	-78.95
500.05	0.185	-79.013	0.982	10.653	0.982	10.653	0.185	-79.013
502.519	0.184	-79.075	0.982	10.588	0.982	10.588	0.184	-79.075
504.989	0.183	-79.136	0.982	10.525	0.982	10.525	0.183	-79.136
507.458	0.182	-79.197	0.982	10.462	0.982	10.462	0.182	-79.197
509.928	0.181	-79.258	0.982	10.399	0.982	10.399	0.181	-79.258
512.397	0.179	-79.318	0.983	10.337	0.983	10.337	0.179	-79.318
514.867	0.178	-79.377	0.983	10.275	0.983	10.275	0.178	-79.377
517.336	0.177	-79.436	0.983	10.214	0.983	10.214	0.177	-79.436
519.805	0.176	-79.495	0.983	10.154	0.983	10.154	0.176	-79.495
522.275	0.175	-79.553	0.983	10.094	0.983	10.094	0.175	-79.553
524.744	0.174	-79.61	0.984	10.034	0.984	10.034	0.174	-79.61
527.214	0.173	-79.667	0.984	9.975	0.984	9.975	0.173	-79.667
529.683	0.172	-79.723	0.984	9.916	0.984	9.916	0.172	-79.723
532.153	0.171	-79.779	0.984	9.858	0.984	9.858	0.171	-79.779
534.622	0.17	-79.835	0.984	9.8	0.984	9.8	0.17	-79.835
537.092	0.169	-79.89	0.984	9.743	0.984	9.743	0.169	-79.89
539.561	0.168	-79.945	0.985	9.686	0.985	9.686	0.168	-79.945
542.03	0.167	-79.999	0.985	9.63	0.985	9.63	0.167	-79.999
544.5	0.166	-80.053	0.985	9.574	0.985	9.574	0.166	-80.053
546.969	0.165	-80.106	0.985	9.518	0.985	9.518	0.165	-80.106
549.439	0.164	-80.159	0.985	9.463	0.985	9.463	0.164	-80.159
551.908	0.163	-80.211	0.985	9.409	0.985	9.409	0.163	-80.211
554.378	0.163	-80.263	0.986	9.354	0.986	9.354	0.163	-80.263
556.847	0.162	-80.315	0.986	9.301	0.986	9.301	0.162	-80.315
559.317	0.161	-80.366	0.986	9.247	0.986	9.247	0.161	-80.366
561.786	0.16	-80.417	0.986	9.194	0.986	9.194	0.16	-80.417
564.255	0.159	-80.467	0.986	9.141	0.986	9.141	0.159	-80.467
566.725	0.158	-80.517	0.986	9.089	0.986	9.089	0.158	-80.517
569.194	0.157	-80.567	0.987	9.037	0.987	9.037	0.157	-80.567
571.664	0.156	-80.616	0.987	8.986	0.987	8.986	0.156	-80.616
574.133	0.155	-80.665	0.987	8.934	0.987	8.934	0.155	-80.665
576.603	0.154	-80.714	0.987	8.884	0.987	8.884	0.154	-80.714
579.072	0.154	-80.762	0.987	8.833	0.987	8.833	0.154	-80.762
581.542	0.153	-80.809	0.987	8.783	0.987	8.783	0.153	-80.809
584.011	0.152	-80.857	0.987	8.733	0.987	8.733	0.152	-80.857
586.48	0.151	-80.904	0.987	8.684	0.987	8.684	0.151	-80.904
588.95	0.15	-80.95	0.988	8.635	0.988	8.635	0.15	-80.95
591.419	0.149	-80.997	0.988	8.586	0.988	8.586	0.149	-80.997
593.889	0.148	-81.043	0.988	8.538	0.988	8.538	0.148	-81.043
596.358	0.148	-81.088	0.988	8.49	0.988	8.49	0.148	-81.088
598.828	0.147	-81.134	0.988	8.442	0.988	8.442	0.147	-81.134
601.297	0.146	-81.178	0.988	8.395	0.988	8.395	0.146	-81.178
603.767	0.145	-81.223	0.988	8.348	0.988	8.348	0.145	-81.223
606.236	0.144	-81.267	0.988	8.301	0.988	8.301	0.144	-81.267
608.705	0.144	-81.311	0.989	8.255	0.989	8.255	0.144	-81.311
611.175	0.143	-81.355	0.989	8.209	0.989	8.209	0.143	-81.355
613.644	0.142	-81.398	0.989	8.163	0.989	8.163	0.142	-81.398
616.114	0.141	-81.441	0.989	8.117	0.989	8.117	0.141	-81.441
618.583	0.14	-81.484	0.989	8.072	0.989	8.072	0.14	-81.484
621.053	0.14	-81.526	0.989	8.027	0.989	8.027	0.14	-81.526
623.522	0.139	-81.568	0.989	7.983	0.989	7.983	0.139	-81.568
625.992	0.138	-81.61	0.989	7.938	0.989	7.938	0.138	-81.61
628.461	0.137	-81.652	0.989	7.894	0.989	7.894	0.137	-81.652
630.93	0.137	-81.693	0.99	7.851	0.99	7.851	0.137	-81.693
633.4	0.136	-81.734	0.99	7.807	0.99	7.807	0.136	-81.734
635.869	0.135	-81.774	0.99	7.764	0.99	7.764	0.135	-81.774
638.339	0.134	-81.815	0.99	7.721	0.99	7.721	0.134	-81.815
640.808	0.134	-81.855	0.99	7.678	0.99	7.678	0.134	-81.855
643.278	0.133	-81.894	0.99	7.636	0.99	7.636	0.133	-81.894
645.747	0.132	-81.934	0.99	7.594	0.99	7.594	0.132	-81.934
648.217	0.131	-81.973	0.99	7.552	0.99	7.552	0.131	-81.973
650.686	0.131	-82.012	0.99	7.511	0.99	7.511	0.131	-82.012
653.155	0.13	-82.051	0.99	7.469	0.99	7.469	0.13	-82.051
655.625	0.129	-82.089	0.991	7.428	0.991	7.428	0.129	-82.089
658.094	0.129	-82.127	0.991	7.387	0.991	7.387	0.129	-82.127
660.564	0.128	-82.165	0.991	7.347	0.991	7.347	0.128	-82.165
663.033	0.127	-82.202	0.991	7.306	0.991	7.306	0.127	-82.202
665.503	0.126	-82.24	0.991	7.266	0.991	7.266	0.126	-82.24
667.972	0.126	-82.277	0.991	7.227	0.991	7.227	0.126	-82.277
670.442	0.125	-82.314	0.991	7.187	0.991	7.187	0.125	-82.314
672.911	0.124	-82.35	0.991	7.148	0.991	7.148	0.124	-82.35
675.38	0.124	-82.387	0.991	7.108	0.991	7.108	0.124	-82.387
677.85	0.123	-82.423	0.991	7.07	0.991	7.07	0.123	-82.423
680.319	0.122	-82.459	0.991	7.031	0.991	7.031	0.122	-82.459
682.789	0.122	-82.494	0.991	6.992	0.991	6.992	0.122	-82.494
685.258	0.121	-82.53	0.992	6.954	0.992	6.954	0.121	-82.53
687.728	0.12	-82.565	0.992	6.916	0.992	6.916	0.12	-82.565
690.197	0.12	-82.6	0.992	6.878	0.992	6.878	0.12	-82.6
692.667	0.119	-82.634	0.992	6.841	0.992	6.841	0.119	-82.634
695.136	0.118	-82.669	0.992	6.803	0.992	6.803	0.118	-82.669
697.605	0.118	-82.703	0.992	6.766	0.992	6.766	0.118	-82.703
700.075	0.117	-82.737	0.992	6.729	0.992	6.729	0.117	-82.737
702.544	0.117	-82.771	0.992	6.693	0.992	6.693	0.117	-82.771
705.014	0.116	-82.804	0.992	6.656	0.992	6.656	0.116	-82.804
707.483	0.115	-82.838	0.992	6.62	0.992	6.62	0.115	-82.838
709.953	0.115	-82.871	0.992	6.584	0.992	6.584	0.115	-82.871
712.422	0.114	-82.904	0.992	6.548	0.992	6.548	0.114	-82.904
714.891	0.113	-82.936	0.992	6.512	0.992	6.512	0.113	-82.936
717.361	0.113	-82.969	0.993	6.476	0.993	6.476	0.113	-82.969
719.83	0.112	-83.001	0.993	6.441	0.993	6.441	0.112	-83.001
722.3	0.112	-83.033	0.993	6.406	0.993	6.406	0.112	-83.033
724.769	0.111	-83.065	0.993	6.371	0.993	6.371	0.111	-83.065
727.239	0.11	-83.097	0.993	6.336	0.993	6.336	0.11	-83.097
729.708	0.11	-83.128	0.993	6.302	0.993	6.302	0.11	-83.128
732.178	0.109	-83.159	0.993	6.267	0.993	6.267	0.109	-83.159
734.647	0.109	-83.19	0.993	6.233	0.993	6.233	0.109	-83.19
737.116	0.108	-83.221	0.993	6.199	0.993	6.199	0.108	-83.221
739.586	0.107	-83.252	0.993	6.165	0.993	6.165	0.107	-83.252
742.055	0.107	-83.282	0.993	6.131	0.993	6.131	0.107	-83.282
744.525	0.106	-83.313	0.993	6.098	0.993	6.098	0.106	-83.313
746.994	0.106	-83.343	0.993	6.065	0.993	6.065	0.106	-83.343
749.464	0.105	-83.373	0.993	6.031	0.993	6.031	0.105	-83.373
751.933	0.105	-83.402	0.993	5.998	0.993	5.998	0.105	-83.402
754.403	0.104	-83.432	0.993	5.966	0.993	5.966	0.104	-83.432
756.872	0.103	-83.461	0.994	5.933	0.994	5.933	0.103	-83.461
759.341	0.103	-83.49	0.994	5.9	0.994	5.9	0.103	-83.49
761.811	0.102	-83.519	0.994	5.868	0.994	5.868	0.102	-83.519
764.28	0.102	-83.548	0.994	5.836	0.994	5.836	0.102	-83.548
766.75	0.101	-83.577	0.994	5.804	0.994	5.804	0.101	-83.577
769.219	0.101	-83.605	0.994	5.772	0.994	5.772	0.101	-83.605
771.689	0.1	-83.633	0.994	5.74	0.994	5.74	0.1	-83.633
774.158	0.099	-83.661	0.994	5.709	0.994	5.709	0.099	-83.661
776.628	0.099	-83.689	0.994	5.678	0.994	5.678	0.099	-83.689
779.097	0.098	-83.717	0.994	5.646	0.994	5.646	0.098	-83.717
781.566	0.098	-83.744	0.994	5.615	0.994	5.615	0.098	-83.744
784.036	0.097	-83.772	0.994	5.584	0.994	5.584	0.097	-83.772
786.505	0.097	-83.799	0.994	5.554	0.994	5.554	0.097	-83.799
788.975	0.096	-83.826	0.994	5.523	0.994	5.523	0.096	-83.826
791.444	0.096	-83.853	0.994	5.492	0.994	5.492	0.096	-83.853
793.914	0.095	-83.879	0.994	5.462	0.994	5.462	0.095	-83.879
796.383	0.095	-83.906	0.994	5.432	0.994	5.432	0.095	-83.906
798.853	0.094	-83.932	0.994	5.402	0.994	5.402	0.094	-83.932
801.322	0.094	-83.959	0.995	5.372	0.995	5.372	0.094	-83.959
803.791	0.093	-83.985	0.995	5.342	0.995	5.342	0.093	-83.985
806.261	0.093	-84.01	0.995	5.312	0.995	5.312	0.093	-84.01
808.73	0.092	-84.036	0.995	5.283	0.995	5.283	0.092	-84.036
811.2	0.092	-84.062	0.995	5.254	0.995	5.254	0.092	-84.062
813.669	0.091	-84.087	0.995	5.224	0.995	5.224	0.091	-84.087
816.139	0.091	-84.112	0.995	5.195	0.995	5.195	0.091	-84.112
818.608	0.09	-84.137	0.995	5.166	0.995	5.166	0.09	-84.137
821.078	0.09	-84.162	0.995	5.138	0.995	5.138	0.09	-84.162
823.547	0.089	-84.187	0.995	5.109	0.995	5.109	0.089	-84.187
826.016	0.089	-84.211	0.995	5.08	0.995	5.08	0.089	-84.211
828.486	0.088	-84.236	0.995	5.052	0.995	5.052	0.088	-84.236
830.955	0.088	-84.26	0.995	5.024	0.995	5.024	0.088	-84.26
833.425	0.087	-84.284	0.995	4.995	0.995	4.995	0.087	-84.284
835.894	0.087	-84.308	0.995	4.967	0.995	4.967	0.087	-84.308
838.364	0.086	-84.332	0.995	4.939	0.995	4.939	0.086	-84.332
840.833	0.086	-84.356	0.995	4.912	0.995	4.912	0.086	-84.356
843.303	0.085	-84.379	0.995	4.884	0.995	4.884	0.085	-84.379
845.772	0.085	-84.403	0.995	4.856	0.995	4.856	0.085	-84.403
848.241	0.084	-84.426	0.995	4.829	0.995	4.829	0.084	-84.426
850.711	0.084	-84.449	0.995	4.801	0.995	4.801	0.084	-84.449
853.18	0.083	-84.472	0.995	4.774	0.995	4.774	0.083	-84.472
855.65	0.083	-84.495	0.995	4.747	0.995	4.747	0.083	-84.495
858.119	0.082	-84.517	0.996	4.72	0.996	4.72	0.082	-84.517
860.589	0.082	-84.54	0.996	4.693	0.996	4.693	0.082	-84.54
863.058	0.081	-84.562	0.996	4.667	0.996	4.667	0.081	-84.562
865.528	0.081	-84.584	0.996	4.64	0.996	4.64	0.081	-84.584
867.997	0.08	-84.606	0.996	4.613	0.996	4.613	0.08	-84.606
870.466	0.08	-84.628	0.996	4.587	0.996	4.587	0.08	-84.628
872.936	0.08	-84.65	0.996	4.561	0.996	4.561	0.08	-84.65
875.405	0.079	-84.672	0.996	4.534	0.996	4.534	0.079	-84.672
877.875	0.079	-84.693	0.996	4.508	0.996	4.508	0.079	-84.693
880.344	0.078	-84.715	0.996	4.482	0.996	4.482	0.078	-84.715
882.814	0.078	-84.736	0.996	4.456	0.996	4.456	0.078	-84.736
885.283	0.077	-84.757	0.996	4.431	0.996	4.431	0.077	-84.757
887.753	0.077	-84.778	0.996	4.405	0.996	4.405	0.077	-84.778
890.222	0.076	-84.799	0.996	4.379	0.996	4.379	0.076	-84.799
892.691	0.076	-84.819	0.996	4.354	0.996	4.354	0.076	-84.819
895.161	0.075	-84.84	0.996	4.329	0.996	4.329	0.075	-84.84
897.63	0.075	-84.86	0.996	4.303	0.996	4.303	0.075	-84.86
900.1	0.075	-84.88	0.996	4.278	0.996	4.278	0.075	-84.88
902.569	0.074	-84.9	0.996	4.253	0.996	4.253	0.074	-84.9
905.039	0.074	-84.92	0.996	4.228	0.996	4.228	0.074	-84.92
907.508	0.073	-84.94	0.996	4.203	0.996	4.203	0.073	-84.94
