! AVX Thin Film Operation		Date: April 2012 
! Description: Accu-P® Series, Thin Film, SMD, RF Capacitor
! Part Number: 08051J1R8PBTTR				
!	100	MHz	-	10.05	GHz			
!	Serial	Measurements						
!								
#	MHZ	S	MA	R	50			
!	S11	S21	S12	S22				
!	dB	Phase	dB	Phase	dB	Phase	dB	Phase
100	0.994	-6.456	0.112	83.53	0.112	83.53	0.994	-6.456
102.469	0.993	-6.614	0.115	83.372	0.115	83.372	0.993	-6.614
104.939	0.993	-6.772	0.118	83.213	0.118	83.213	0.993	-6.772
107.408	0.993	-6.93	0.121	83.055	0.121	83.055	0.993	-6.93
109.878	0.992	-7.088	0.123	82.897	0.123	82.897	0.992	-7.088
112.347	0.992	-7.246	0.126	82.738	0.126	82.738	0.992	-7.246
114.817	0.992	-7.404	0.129	82.58	0.129	82.58	0.992	-7.404
117.286	0.991	-7.562	0.132	82.422	0.132	82.422	0.991	-7.562
119.756	0.991	-7.719	0.134	82.265	0.134	82.265	0.991	-7.719
122.225	0.991	-7.877	0.137	82.107	0.137	82.107	0.991	-7.877
124.694	0.99	-8.034	0.14	81.949	0.14	81.949	0.99	-8.034
127.164	0.99	-8.191	0.142	81.791	0.142	81.791	0.99	-8.191
129.633	0.989	-8.348	0.145	81.634	0.145	81.634	0.989	-8.348
132.103	0.989	-8.505	0.148	81.477	0.148	81.477	0.989	-8.505
134.572	0.989	-8.662	0.151	81.319	0.151	81.319	0.989	-8.662
137.042	0.988	-8.819	0.153	81.162	0.153	81.162	0.988	-8.819
139.511	0.988	-8.976	0.156	81.005	0.156	81.005	0.988	-8.976
141.981	0.987	-9.132	0.159	80.848	0.159	80.848	0.987	-9.132
144.45	0.987	-9.289	0.161	80.692	0.161	80.692	0.987	-9.289
146.919	0.986	-9.445	0.164	80.535	0.164	80.535	0.986	-9.445
149.389	0.986	-9.601	0.167	80.378	0.167	80.378	0.986	-9.601
151.858	0.985	-9.757	0.169	80.222	0.169	80.222	0.985	-9.757
154.328	0.985	-9.913	0.172	80.066	0.172	80.066	0.985	-9.913
156.797	0.985	-10.069	0.175	79.91	0.175	79.91	0.985	-10.069
159.267	0.984	-10.225	0.178	79.754	0.178	79.754	0.984	-10.225
161.736	0.984	-10.38	0.18	79.598	0.18	79.598	0.984	-10.38
164.206	0.983	-10.536	0.183	79.442	0.183	79.442	0.983	-10.536
166.675	0.983	-10.691	0.186	79.286	0.186	79.286	0.983	-10.691
169.144	0.982	-10.846	0.188	79.131	0.188	79.131	0.982	-10.846
171.614	0.982	-11.001	0.191	78.975	0.191	78.975	0.982	-11.001
174.083	0.981	-11.156	0.193	78.82	0.193	78.82	0.981	-11.156
176.553	0.98	-11.311	0.196	78.665	0.196	78.665	0.98	-11.311
179.022	0.98	-11.465	0.199	78.51	0.199	78.51	0.98	-11.465
181.492	0.979	-11.62	0.201	78.356	0.201	78.356	0.979	-11.62
183.961	0.979	-11.774	0.204	78.201	0.204	78.201	0.979	-11.774
186.431	0.978	-11.928	0.207	78.046	0.207	78.046	0.978	-11.928
188.9	0.978	-12.082	0.209	77.892	0.209	77.892	0.978	-12.082
191.369	0.977	-12.236	0.212	77.738	0.212	77.738	0.977	-12.236
193.839	0.977	-12.39	0.215	77.584	0.215	77.584	0.977	-12.39
196.308	0.976	-12.543	0.217	77.43	0.217	77.43	0.976	-12.543
198.778	0.975	-12.696	0.22	77.276	0.22	77.276	0.975	-12.696
201.247	0.975	-12.85	0.222	77.123	0.222	77.123	0.975	-12.85
203.717	0.974	-13.003	0.225	76.97	0.225	76.97	0.974	-13.003
206.186	0.974	-13.155	0.228	76.816	0.228	76.816	0.974	-13.155
208.656	0.973	-13.308	0.23	76.663	0.23	76.663	0.973	-13.308
211.125	0.972	-13.461	0.233	76.51	0.233	76.51	0.972	-13.461
213.594	0.972	-13.613	0.235	76.358	0.235	76.358	0.972	-13.613
216.064	0.971	-13.765	0.238	76.205	0.238	76.205	0.971	-13.765
218.533	0.971	-13.917	0.241	76.053	0.241	76.053	0.971	-13.917
221.003	0.97	-14.069	0.243	75.901	0.243	75.901	0.97	-14.069
223.472	0.969	-14.221	0.246	75.749	0.246	75.749	0.969	-14.221
225.942	0.969	-14.372	0.248	75.597	0.248	75.597	0.969	-14.372
228.411	0.968	-14.524	0.251	75.445	0.251	75.445	0.968	-14.524
230.881	0.967	-14.675	0.253	75.294	0.253	75.294	0.967	-14.675
233.35	0.967	-14.826	0.256	75.142	0.256	75.142	0.967	-14.826
235.819	0.966	-14.976	0.258	74.991	0.258	74.991	0.966	-14.976
238.289	0.965	-15.127	0.261	74.84	0.261	74.84	0.965	-15.127
240.758	0.965	-15.277	0.263	74.69	0.263	74.69	0.965	-15.277
243.228	0.964	-15.428	0.266	74.539	0.266	74.539	0.964	-15.428
245.697	0.963	-15.578	0.269	74.389	0.269	74.389	0.963	-15.578
248.167	0.962	-15.728	0.271	74.238	0.271	74.238	0.962	-15.728
250.636	0.962	-15.877	0.274	74.088	0.274	74.088	0.962	-15.877
253.106	0.961	-16.027	0.276	73.939	0.276	73.939	0.961	-16.027
255.575	0.96	-16.176	0.279	73.789	0.279	73.789	0.96	-16.176
258.044	0.96	-16.325	0.281	73.64	0.281	73.64	0.96	-16.325
260.514	0.959	-16.474	0.284	73.49	0.284	73.49	0.959	-16.474
262.983	0.958	-16.623	0.286	73.341	0.286	73.341	0.958	-16.623
265.453	0.957	-16.771	0.289	73.193	0.289	73.193	0.957	-16.771
267.922	0.957	-16.919	0.291	73.044	0.291	73.044	0.957	-16.919
270.392	0.956	-17.067	0.293	72.896	0.293	72.896	0.956	-17.067
272.861	0.955	-17.215	0.296	72.747	0.296	72.747	0.955	-17.215
275.331	0.954	-17.363	0.298	72.599	0.298	72.599	0.954	-17.363
277.8	0.953	-17.51	0.301	72.452	0.301	72.452	0.953	-17.51
280.269	0.953	-17.658	0.303	72.304	0.303	72.304	0.953	-17.658
282.739	0.952	-17.805	0.306	72.157	0.306	72.157	0.952	-17.805
285.208	0.951	-17.952	0.308	72.009	0.308	72.009	0.951	-17.952
287.678	0.95	-18.098	0.311	71.862	0.311	71.862	0.95	-18.098
290.147	0.95	-18.245	0.313	71.716	0.313	71.716	0.95	-18.245
292.617	0.949	-18.391	0.315	71.569	0.315	71.569	0.949	-18.391
295.086	0.948	-18.537	0.318	71.423	0.318	71.423	0.948	-18.537
297.556	0.947	-18.683	0.32	71.277	0.32	71.277	0.947	-18.683
300.025	0.946	-18.828	0.323	71.131	0.323	71.131	0.946	-18.828
302.494	0.945	-18.974	0.325	70.985	0.325	70.985	0.945	-18.974
304.964	0.945	-19.119	0.328	70.839	0.328	70.839	0.945	-19.119
307.433	0.944	-19.264	0.33	70.694	0.33	70.694	0.944	-19.264
309.903	0.943	-19.408	0.332	70.549	0.332	70.549	0.943	-19.408
312.372	0.942	-19.553	0.335	70.404	0.335	70.404	0.942	-19.553
314.842	0.941	-19.697	0.337	70.26	0.337	70.26	0.941	-19.697
317.311	0.94	-19.841	0.339	70.115	0.339	70.115	0.94	-19.841
319.78	0.94	-19.985	0.342	69.971	0.342	69.971	0.94	-19.985
322.25	0.939	-20.128	0.344	69.827	0.344	69.827	0.939	-20.128
324.719	0.938	-20.272	0.346	69.684	0.346	69.684	0.938	-20.272
327.189	0.937	-20.415	0.349	69.54	0.349	69.54	0.937	-20.415
329.658	0.936	-20.558	0.351	69.397	0.351	69.397	0.936	-20.558
332.128	0.935	-20.701	0.353	69.254	0.353	69.254	0.935	-20.701
334.597	0.934	-20.843	0.356	69.111	0.356	69.111	0.934	-20.843
337.067	0.933	-20.985	0.358	68.969	0.358	68.969	0.933	-20.985
339.536	0.932	-21.127	0.36	68.826	0.36	68.826	0.932	-21.127
342.005	0.932	-21.269	0.363	68.684	0.363	68.684	0.932	-21.269
344.475	0.931	-21.41	0.365	68.542	0.365	68.542	0.931	-21.41
346.944	0.93	-21.552	0.367	68.401	0.367	68.401	0.93	-21.552
349.414	0.929	-21.693	0.37	68.259	0.37	68.259	0.929	-21.693
351.883	0.928	-21.833	0.372	68.118	0.372	68.118	0.928	-21.833
354.353	0.927	-21.974	0.374	67.977	0.374	67.977	0.927	-21.974
356.822	0.926	-22.114	0.376	67.837	0.376	67.837	0.926	-22.114
359.292	0.925	-22.254	0.379	67.696	0.379	67.696	0.925	-22.254
361.761	0.924	-22.394	0.381	67.556	0.381	67.556	0.924	-22.394
364.23	0.923	-22.534	0.383	67.416	0.383	67.416	0.923	-22.534
366.7	0.922	-22.673	0.385	67.276	0.385	67.276	0.922	-22.673
369.169	0.921	-22.812	0.388	67.137	0.388	67.137	0.921	-22.812
371.639	0.92	-22.951	0.39	66.998	0.39	66.998	0.92	-22.951
374.108	0.92	-23.09	0.392	66.859	0.392	66.859	0.92	-23.09
376.578	0.919	-23.228	0.394	66.72	0.394	66.72	0.919	-23.228
379.047	0.918	-23.366	0.397	66.581	0.397	66.581	0.918	-23.366
381.517	0.917	-23.504	0.399	66.443	0.399	66.443	0.917	-23.504
383.986	0.916	-23.642	0.401	66.305	0.401	66.305	0.916	-23.642
386.455	0.915	-23.779	0.403	66.167	0.403	66.167	0.915	-23.779
388.925	0.914	-23.917	0.405	66.03	0.405	66.03	0.914	-23.917
391.394	0.913	-24.054	0.408	65.893	0.408	65.893	0.913	-24.054
393.864	0.912	-24.19	0.41	65.756	0.41	65.756	0.912	-24.19
396.333	0.911	-24.327	0.412	65.619	0.412	65.619	0.911	-24.327
398.803	0.91	-24.463	0.414	65.482	0.414	65.482	0.91	-24.463
401.272	0.909	-24.599	0.416	65.346	0.416	65.346	0.909	-24.599
403.742	0.908	-24.734	0.418	65.21	0.418	65.21	0.908	-24.734
406.211	0.907	-24.87	0.421	65.074	0.421	65.074	0.907	-24.87
408.68	0.906	-25.005	0.423	64.939	0.423	64.939	0.906	-25.005
411.15	0.905	-25.14	0.425	64.804	0.425	64.804	0.905	-25.14
413.619	0.904	-25.275	0.427	64.669	0.427	64.669	0.904	-25.275
416.089	0.903	-25.409	0.429	64.534	0.429	64.534	0.903	-25.409
418.558	0.902	-25.543	0.431	64.399	0.431	64.399	0.902	-25.543
421.028	0.901	-25.677	0.433	64.265	0.433	64.265	0.901	-25.677
423.497	0.9	-25.811	0.435	64.131	0.435	64.131	0.9	-25.811
425.967	0.899	-25.944	0.437	63.997	0.437	63.997	0.899	-25.944
428.436	0.898	-26.077	0.44	63.864	0.44	63.864	0.898	-26.077
430.905	0.897	-26.21	0.442	63.731	0.442	63.731	0.897	-26.21
433.375	0.896	-26.343	0.444	63.598	0.444	63.598	0.896	-26.343
435.844	0.895	-26.475	0.446	63.465	0.446	63.465	0.895	-26.475
438.314	0.894	-26.607	0.448	63.333	0.448	63.333	0.894	-26.607
440.783	0.893	-26.739	0.45	63.2	0.45	63.2	0.893	-26.739
443.253	0.892	-26.871	0.452	63.068	0.452	63.068	0.892	-26.871
445.722	0.891	-27.002	0.454	62.937	0.454	62.937	0.891	-27.002
448.192	0.889	-27.133	0.456	62.805	0.456	62.805	0.889	-27.133
450.661	0.888	-27.264	0.458	62.674	0.458	62.674	0.888	-27.264
453.13	0.887	-27.394	0.46	62.543	0.46	62.543	0.887	-27.394
455.6	0.886	-27.525	0.462	62.413	0.462	62.413	0.886	-27.525
458.069	0.885	-27.655	0.464	62.282	0.464	62.282	0.885	-27.655
460.539	0.884	-27.784	0.466	62.152	0.466	62.152	0.884	-27.784
463.008	0.883	-27.914	0.468	62.022	0.468	62.022	0.883	-27.914
465.478	0.882	-28.043	0.47	61.893	0.47	61.893	0.882	-28.043
467.947	0.881	-28.172	0.472	61.763	0.472	61.763	0.881	-28.172
470.417	0.88	-28.301	0.474	61.634	0.474	61.634	0.88	-28.301
472.886	0.879	-28.429	0.476	61.506	0.476	61.506	0.879	-28.429
475.355	0.878	-28.557	0.478	61.377	0.478	61.377	0.878	-28.557
477.825	0.877	-28.685	0.48	61.249	0.48	61.249	0.877	-28.685
480.294	0.876	-28.813	0.482	61.121	0.482	61.121	0.876	-28.813
482.764	0.875	-28.94	0.484	60.993	0.484	60.993	0.875	-28.94
485.233	0.873	-29.068	0.486	60.865	0.486	60.865	0.873	-29.068
487.703	0.872	-29.194	0.488	60.738	0.488	60.738	0.872	-29.194
490.172	0.871	-29.321	0.49	60.611	0.49	60.611	0.871	-29.321
492.642	0.87	-29.447	0.492	60.485	0.492	60.485	0.87	-29.447
495.111	0.869	-29.573	0.494	60.358	0.494	60.358	0.869	-29.573
497.58	0.868	-29.699	0.495	60.232	0.495	60.232	0.868	-29.699
500.05	0.867	-29.825	0.497	60.106	0.497	60.106	0.867	-29.825
502.519	0.866	-29.95	0.499	59.98	0.499	59.98	0.866	-29.95
504.989	0.865	-30.075	0.501	59.855	0.501	59.855	0.865	-30.075
507.458	0.864	-30.2	0.503	59.73	0.503	59.73	0.864	-30.2
509.928	0.863	-30.324	0.505	59.605	0.505	59.605	0.863	-30.324
512.397	0.861	-30.449	0.507	59.48	0.507	59.48	0.861	-30.449
514.867	0.86	-30.573	0.509	59.356	0.509	59.356	0.86	-30.573
517.336	0.859	-30.696	0.51	59.232	0.51	59.232	0.859	-30.696
519.805	0.858	-30.82	0.512	59.108	0.512	59.108	0.858	-30.82
522.275	0.857	-30.943	0.514	58.985	0.514	58.985	0.857	-30.943
524.744	0.856	-31.066	0.516	58.862	0.516	58.862	0.856	-31.066
527.214	0.855	-31.189	0.518	58.739	0.518	58.739	0.855	-31.189
529.683	0.854	-31.311	0.52	58.616	0.52	58.616	0.854	-31.311
532.153	0.853	-31.433	0.522	58.493	0.522	58.493	0.853	-31.433
534.622	0.851	-31.555	0.523	58.371	0.523	58.371	0.851	-31.555
537.092	0.85	-31.676	0.525	58.249	0.525	58.249	0.85	-31.676
539.561	0.849	-31.798	0.527	58.128	0.527	58.128	0.849	-31.798
542.03	0.848	-31.919	0.529	58.006	0.529	58.006	0.848	-31.919
544.5	0.847	-32.04	0.531	57.885	0.531	57.885	0.847	-32.04
546.969	0.846	-32.16	0.532	57.764	0.532	57.764	0.846	-32.16
549.439	0.845	-32.28	0.534	57.644	0.534	57.644	0.845	-32.28
551.908	0.844	-32.4	0.536	57.523	0.536	57.523	0.844	-32.4
554.378	0.842	-32.52	0.538	57.403	0.538	57.403	0.842	-32.52
556.847	0.841	-32.64	0.539	57.283	0.539	57.283	0.841	-32.64
559.317	0.84	-32.759	0.541	57.164	0.541	57.164	0.84	-32.759
561.786	0.839	-32.878	0.543	57.044	0.543	57.044	0.839	-32.878
564.255	0.838	-32.996	0.545	56.925	0.545	56.925	0.838	-32.996
566.725	0.837	-33.115	0.546	56.807	0.546	56.807	0.837	-33.115
569.194	0.836	-33.233	0.548	56.688	0.548	56.688	0.836	-33.233
571.664	0.835	-33.351	0.55	56.57	0.55	56.57	0.835	-33.351
574.133	0.833	-33.468	0.551	56.452	0.551	56.452	0.833	-33.468
576.603	0.832	-33.586	0.553	56.334	0.553	56.334	0.832	-33.586
579.072	0.831	-33.703	0.555	56.217	0.555	56.217	0.831	-33.703
581.542	0.83	-33.82	0.557	56.1	0.557	56.1	0.83	-33.82
584.011	0.829	-33.936	0.558	55.983	0.558	55.983	0.829	-33.936
586.48	0.828	-34.052	0.56	55.866	0.56	55.866	0.828	-34.052
588.95	0.827	-34.168	0.562	55.75	0.562	55.75	0.827	-34.168
591.419	0.825	-34.284	0.563	55.634	0.563	55.634	0.825	-34.284
593.889	0.824	-34.4	0.565	55.518	0.565	55.518	0.824	-34.4
596.358	0.823	-34.515	0.567	55.402	0.567	55.402	0.823	-34.515
598.828	0.822	-34.63	0.568	55.287	0.568	55.287	0.822	-34.63
601.297	0.821	-34.745	0.57	55.172	0.57	55.172	0.821	-34.745
603.767	0.82	-34.859	0.572	55.057	0.572	55.057	0.82	-34.859
606.236	0.819	-34.973	0.573	54.942	0.573	54.942	0.819	-34.973
608.705	0.817	-35.087	0.575	54.828	0.575	54.828	0.817	-35.087
611.175	0.816	-35.201	0.576	54.714	0.576	54.714	0.816	-35.201
613.644	0.815	-35.314	0.578	54.6	0.578	54.6	0.815	-35.314
616.114	0.814	-35.427	0.58	54.487	0.58	54.487	0.814	-35.427
618.583	0.813	-35.54	0.581	54.374	0.581	54.374	0.813	-35.54
621.053	0.812	-35.653	0.583	54.261	0.583	54.261	0.812	-35.653
623.522	0.811	-35.765	0.584	54.148	0.584	54.148	0.811	-35.765
625.992	0.809	-35.877	0.586	54.036	0.586	54.036	0.809	-35.877
628.461	0.808	-35.989	0.588	53.923	0.588	53.923	0.808	-35.989
630.93	0.807	-36.101	0.589	53.811	0.589	53.811	0.807	-36.101
633.4	0.806	-36.212	0.591	53.7	0.591	53.7	0.806	-36.212
635.869	0.805	-36.323	0.592	53.588	0.592	53.588	0.805	-36.323
638.339	0.804	-36.434	0.594	53.477	0.594	53.477	0.804	-36.434
640.808	0.802	-36.544	0.595	53.366	0.595	53.366	0.802	-36.544
643.278	0.801	-36.655	0.597	53.256	0.597	53.256	0.801	-36.655
645.747	0.8	-36.765	0.599	53.145	0.599	53.145	0.8	-36.765
648.217	0.799	-36.874	0.6	53.035	0.6	53.035	0.799	-36.874
650.686	0.798	-36.984	0.602	52.925	0.602	52.925	0.798	-36.984
653.155	0.797	-37.093	0.603	52.816	0.603	52.816	0.797	-37.093
655.625	0.796	-37.202	0.605	52.706	0.605	52.706	0.796	-37.202
658.094	0.794	-37.311	0.606	52.597	0.606	52.597	0.794	-37.311
660.564	0.793	-37.419	0.608	52.488	0.608	52.488	0.793	-37.419
663.033	0.792	-37.528	0.609	52.38	0.609	52.38	0.792	-37.528
665.503	0.791	-37.636	0.611	52.271	0.611	52.271	0.791	-37.636
667.972	0.79	-37.743	0.612	52.163	0.612	52.163	0.79	-37.743
670.442	0.789	-37.851	0.614	52.056	0.614	52.056	0.789	-37.851
672.911	0.787	-37.958	0.615	51.948	0.615	51.948	0.787	-37.958
675.38	0.786	-38.065	0.617	51.841	0.617	51.841	0.786	-38.065
677.85	0.785	-38.172	0.618	51.734	0.618	51.734	0.785	-38.172
680.319	0.784	-38.278	0.619	51.627	0.619	51.627	0.784	-38.278
682.789	0.783	-38.384	0.621	51.52	0.621	51.52	0.783	-38.384
685.258	0.782	-38.49	0.622	51.414	0.622	51.414	0.782	-38.49
687.728	0.781	-38.596	0.624	51.308	0.624	51.308	0.781	-38.596
690.197	0.779	-38.701	0.625	51.202	0.625	51.202	0.779	-38.701
692.667	0.778	-38.806	0.627	51.097	0.627	51.097	0.778	-38.806
695.136	0.777	-38.911	0.628	50.991	0.628	50.991	0.777	-38.911
697.605	0.776	-39.016	0.63	50.886	0.63	50.886	0.776	-39.016
700.075	0.775	-39.12	0.631	50.782	0.631	50.782	0.775	-39.12
702.544	0.774	-39.225	0.632	50.677	0.632	50.677	0.774	-39.225
705.014	0.772	-39.329	0.634	50.573	0.634	50.573	0.772	-39.329
707.483	0.771	-39.432	0.635	50.469	0.635	50.469	0.771	-39.432
709.953	0.77	-39.536	0.637	50.365	0.637	50.365	0.77	-39.536
712.422	0.769	-39.639	0.638	50.261	0.638	50.261	0.769	-39.639
714.891	0.768	-39.742	0.639	50.158	0.639	50.158	0.768	-39.742
717.361	0.767	-39.844	0.641	50.055	0.641	50.055	0.767	-39.844
719.83	0.766	-39.947	0.642	49.952	0.642	49.952	0.766	-39.947
722.3	0.764	-40.049	0.643	49.85	0.643	49.85	0.764	-40.049
724.769	0.763	-40.151	0.645	49.747	0.645	49.747	0.763	-40.151
727.239	0.762	-40.253	0.646	49.645	0.646	49.645	0.762	-40.253
729.708	0.761	-40.354	0.648	49.543	0.648	49.543	0.761	-40.354
732.178	0.76	-40.455	0.649	49.442	0.649	49.442	0.76	-40.455
734.647	0.759	-40.556	0.65	49.341	0.65	49.341	0.759	-40.556
737.116	0.757	-40.657	0.652	49.239	0.652	49.239	0.757	-40.657
739.586	0.756	-40.757	0.653	49.139	0.653	49.139	0.756	-40.757
742.055	0.755	-40.858	0.654	49.038	0.654	49.038	0.755	-40.858
744.525	0.754	-40.958	0.656	48.938	0.656	48.938	0.754	-40.958
746.994	0.753	-41.057	0.657	48.838	0.657	48.838	0.753	-41.057
749.464	0.752	-41.157	0.658	48.738	0.658	48.738	0.752	-41.157
751.933	0.751	-41.256	0.659	48.638	0.659	48.638	0.751	-41.256
754.403	0.749	-41.355	0.661	48.539	0.661	48.539	0.749	-41.355
756.872	0.748	-41.454	0.662	48.44	0.662	48.44	0.748	-41.454
759.341	0.747	-41.553	0.663	48.341	0.663	48.341	0.747	-41.553
761.811	0.746	-41.651	0.665	48.242	0.665	48.242	0.746	-41.651
764.28	0.745	-41.749	0.666	48.144	0.666	48.144	0.745	-41.749
766.75	0.744	-41.847	0.667	48.045	0.667	48.045	0.744	-41.847
769.219	0.743	-41.944	0.668	47.947	0.668	47.947	0.743	-41.944
771.689	0.741	-42.042	0.67	47.85	0.67	47.85	0.741	-42.042
774.158	0.74	-42.139	0.671	47.752	0.671	47.752	0.74	-42.139
776.628	0.739	-42.236	0.672	47.655	0.672	47.655	0.739	-42.236
779.097	0.738	-42.332	0.673	47.558	0.673	47.558	0.738	-42.332
781.566	0.737	-42.429	0.675	47.461	0.675	47.461	0.737	-42.429
784.036	0.736	-42.525	0.676	47.365	0.676	47.365	0.736	-42.525
786.505	0.735	-42.621	0.677	47.268	0.677	47.268	0.735	-42.621
788.975	0.733	-42.716	0.678	47.172	0.678	47.172	0.733	-42.716
791.444	0.732	-42.812	0.68	47.076	0.68	47.076	0.732	-42.812
793.914	0.731	-42.907	0.681	46.981	0.681	46.981	0.731	-42.907
796.383	0.73	-43.002	0.682	46.885	0.682	46.885	0.73	-43.002
798.853	0.729	-43.097	0.683	46.79	0.683	46.79	0.729	-43.097
801.322	0.728	-43.191	0.684	46.695	0.684	46.695	0.728	-43.191
803.791	0.727	-43.286	0.686	46.601	0.686	46.601	0.727	-43.286
806.261	0.725	-43.38	0.687	46.506	0.687	46.506	0.725	-43.38
808.73	0.724	-43.474	0.688	46.412	0.688	46.412	0.724	-43.474
811.2	0.723	-43.567	0.689	46.318	0.689	46.318	0.723	-43.567
813.669	0.722	-43.661	0.69	46.224	0.69	46.224	0.722	-43.661
816.139	0.721	-43.754	0.692	46.131	0.692	46.131	0.721	-43.754
818.608	0.72	-43.847	0.693	46.037	0.693	46.037	0.72	-43.847
821.078	0.719	-43.939	0.694	45.944	0.694	45.944	0.719	-43.939
823.547	0.718	-44.032	0.695	45.852	0.695	45.852	0.718	-44.032
826.016	0.716	-44.124	0.696	45.759	0.696	45.759	0.716	-44.124
828.486	0.715	-44.216	0.697	45.667	0.697	45.667	0.715	-44.216
830.955	0.714	-44.308	0.699	45.574	0.699	45.574	0.714	-44.308
833.425	0.713	-44.399	0.7	45.482	0.7	45.482	0.713	-44.399
835.894	0.712	-44.491	0.701	45.391	0.701	45.391	0.712	-44.491
838.364	0.711	-44.582	0.702	45.299	0.702	45.299	0.711	-44.582
840.833	0.71	-44.673	0.703	45.208	0.703	45.208	0.71	-44.673
843.303	0.709	-44.764	0.704	45.117	0.704	45.117	0.709	-44.764
845.772	0.707	-44.854	0.705	45.026	0.705	45.026	0.707	-44.854
848.241	0.706	-44.944	0.706	44.935	0.706	44.935	0.706	-44.944
850.711	0.705	-45.034	0.708	44.845	0.708	44.845	0.705	-45.034
853.18	0.704	-45.124	0.709	44.755	0.709	44.755	0.704	-45.124
855.65	0.703	-45.214	0.71	44.665	0.71	44.665	0.703	-45.214
858.119	0.702	-45.303	0.711	44.575	0.711	44.575	0.702	-45.303
860.589	0.701	-45.392	0.712	44.486	0.712	44.486	0.701	-45.392
863.058	0.7	-45.481	0.713	44.396	0.713	44.396	0.7	-45.481
865.528	0.699	-45.57	0.714	44.307	0.714	44.307	0.699	-45.57
867.997	0.697	-45.658	0.715	44.218	0.715	44.218	0.697	-45.658
870.466	0.696	-45.746	0.716	44.13	0.716	44.13	0.696	-45.746
872.936	0.695	-45.834	0.717	44.041	0.717	44.041	0.695	-45.834
875.405	0.694	-45.922	0.718	43.953	0.718	43.953	0.694	-45.922
877.875	0.693	-46.01	0.719	43.865	0.719	43.865	0.693	-46.01
880.344	0.692	-46.097	0.721	43.777	0.721	43.777	0.692	-46.097
882.814	0.691	-46.184	0.722	43.69	0.722	43.69	0.691	-46.184
885.283	0.69	-46.271	0.723	43.603	0.723	43.603	0.69	-46.271
887.753	0.689	-46.358	0.724	43.515	0.724	43.515	0.689	-46.358
890.222	0.687	-46.445	0.725	43.428	0.725	43.428	0.687	-46.445
892.691	0.686	-46.531	0.726	43.342	0.726	43.342	0.686	-46.531
895.161	0.685	-46.617	0.727	43.255	0.727	43.255	0.685	-46.617
897.63	0.684	-46.703	0.728	43.169	0.728	43.169	0.684	-46.703
