! AVX Thin Film Operation		Date: April 2012 
! Description: Accu-P® Series, Thin Film, SMD, RF Capacitor
! Part Number: 08051J2R0PBTTR					
!	100	MHz	-	10.05	GHz			
!	Serial	Measurements						
!								
#	MHZ	S	MA	R	50			
!	S11	S21	S12	S22				
!	dB	Phase	dB	Phase	dB	Phase	dB	Phase
100	0.992	-7.166	0.125	82.819	0.125	82.819	0.992	-7.166
102.469	0.992	-7.342	0.128	82.643	0.128	82.643	0.992	-7.342
104.939	0.991	-7.517	0.131	82.468	0.131	82.468	0.991	-7.517
107.408	0.991	-7.692	0.134	82.293	0.134	82.293	0.991	-7.692
109.878	0.991	-7.867	0.137	82.117	0.137	82.117	0.991	-7.867
112.347	0.99	-8.042	0.14	81.942	0.14	81.942	0.99	-8.042
114.817	0.99	-8.216	0.143	81.767	0.143	81.767	0.99	-8.216
117.286	0.989	-8.391	0.146	81.592	0.146	81.592	0.989	-8.391
119.756	0.989	-8.565	0.149	81.418	0.149	81.418	0.989	-8.565
122.225	0.988	-8.739	0.152	81.243	0.152	81.243	0.988	-8.739
124.694	0.988	-8.913	0.155	81.069	0.155	81.069	0.988	-8.913
127.164	0.987	-9.087	0.158	80.894	0.158	80.894	0.987	-9.087
129.633	0.987	-9.261	0.161	80.72	0.161	80.72	0.987	-9.261
132.103	0.986	-9.435	0.164	80.546	0.164	80.546	0.986	-9.435
134.572	0.986	-9.608	0.167	80.372	0.167	80.372	0.986	-9.608
137.042	0.985	-9.781	0.17	80.199	0.17	80.199	0.985	-9.781
139.511	0.985	-9.955	0.173	80.025	0.173	80.025	0.985	-9.955
141.981	0.984	-10.128	0.176	79.852	0.176	79.852	0.984	-10.128
144.45	0.984	-10.3	0.179	79.679	0.179	79.679	0.984	-10.3
146.919	0.983	-10.473	0.182	79.506	0.182	79.506	0.983	-10.473
149.389	0.983	-10.645	0.185	79.333	0.185	79.333	0.983	-10.645
151.858	0.982	-10.818	0.188	79.16	0.188	79.16	0.982	-10.818
154.328	0.982	-10.99	0.191	78.988	0.191	78.988	0.982	-10.99
156.797	0.981	-11.162	0.194	78.816	0.194	78.816	0.981	-11.162
159.267	0.98	-11.334	0.197	78.643	0.197	78.643	0.98	-11.334
161.736	0.98	-11.505	0.199	78.471	0.199	78.471	0.98	-11.505
164.206	0.979	-11.677	0.202	78.3	0.202	78.3	0.979	-11.677
166.675	0.979	-11.848	0.205	78.128	0.205	78.128	0.979	-11.848
169.144	0.978	-12.019	0.208	77.957	0.208	77.957	0.978	-12.019
171.614	0.977	-12.19	0.211	77.786	0.211	77.786	0.977	-12.19
174.083	0.977	-12.36	0.214	77.615	0.214	77.615	0.977	-12.36
176.553	0.976	-12.531	0.217	77.444	0.217	77.444	0.976	-12.531
179.022	0.975	-12.701	0.22	77.273	0.22	77.273	0.975	-12.701
181.492	0.975	-12.871	0.223	77.103	0.223	77.103	0.975	-12.871
183.961	0.974	-13.041	0.226	76.933	0.226	76.933	0.974	-13.041
186.431	0.973	-13.21	0.229	76.763	0.229	76.763	0.973	-13.21
188.9	0.973	-13.38	0.231	76.593	0.231	76.593	0.973	-13.38
191.369	0.972	-13.549	0.234	76.423	0.234	76.423	0.972	-13.549
193.839	0.971	-13.718	0.237	76.254	0.237	76.254	0.971	-13.718
196.308	0.971	-13.887	0.24	76.085	0.24	76.085	0.971	-13.887
198.778	0.97	-14.055	0.243	75.916	0.243	75.916	0.97	-14.055
201.247	0.969	-14.224	0.246	75.747	0.246	75.747	0.969	-14.224
203.717	0.968	-14.392	0.249	75.579	0.249	75.579	0.968	-14.392
206.186	0.968	-14.56	0.251	75.411	0.251	75.411	0.968	-14.56
208.656	0.967	-14.727	0.254	75.242	0.254	75.242	0.967	-14.727
211.125	0.966	-14.895	0.257	75.075	0.257	75.075	0.966	-14.895
213.594	0.966	-15.062	0.26	74.907	0.26	74.907	0.966	-15.062
216.064	0.965	-15.229	0.263	74.74	0.263	74.74	0.965	-15.229
218.533	0.964	-15.396	0.265	74.573	0.265	74.573	0.964	-15.396
221.003	0.963	-15.562	0.268	74.406	0.268	74.406	0.963	-15.562
223.472	0.962	-15.728	0.271	74.239	0.271	74.239	0.962	-15.728
225.942	0.962	-15.894	0.274	74.073	0.274	74.073	0.962	-15.894
228.411	0.961	-16.06	0.277	73.907	0.277	73.907	0.961	-16.06
230.881	0.96	-16.226	0.279	73.741	0.279	73.741	0.96	-16.226
233.35	0.959	-16.391	0.282	73.575	0.282	73.575	0.959	-16.391
235.819	0.958	-16.556	0.285	73.41	0.285	73.41	0.958	-16.556
238.289	0.958	-16.721	0.288	73.245	0.288	73.245	0.958	-16.721
240.758	0.957	-16.885	0.29	73.08	0.29	73.08	0.957	-16.885
243.228	0.956	-17.05	0.293	72.915	0.293	72.915	0.956	-17.05
245.697	0.955	-17.214	0.296	72.751	0.296	72.751	0.955	-17.214
248.167	0.954	-17.378	0.299	72.587	0.299	72.587	0.954	-17.378
250.636	0.953	-17.541	0.301	72.423	0.301	72.423	0.953	-17.541
253.106	0.952	-17.704	0.304	72.259	0.304	72.259	0.952	-17.704
255.575	0.952	-17.867	0.307	72.096	0.307	72.096	0.952	-17.867
258.044	0.951	-18.03	0.31	71.933	0.31	71.933	0.951	-18.03
260.514	0.95	-18.193	0.312	71.77	0.312	71.77	0.95	-18.193
262.983	0.949	-18.355	0.315	71.607	0.315	71.607	0.949	-18.355
265.453	0.948	-18.517	0.318	71.445	0.318	71.445	0.948	-18.517
267.922	0.947	-18.678	0.32	71.283	0.32	71.283	0.947	-18.678
270.392	0.946	-18.84	0.323	71.121	0.323	71.121	0.946	-18.84
272.861	0.945	-19.001	0.326	70.96	0.326	70.96	0.945	-19.001
275.331	0.944	-19.162	0.328	70.798	0.328	70.798	0.944	-19.162
277.8	0.943	-19.322	0.331	70.637	0.331	70.637	0.943	-19.322
280.269	0.943	-19.483	0.334	70.477	0.334	70.477	0.943	-19.483
282.739	0.942	-19.643	0.336	70.316	0.336	70.316	0.942	-19.643
285.208	0.941	-19.802	0.339	70.156	0.339	70.156	0.941	-19.802
287.678	0.94	-19.962	0.341	69.997	0.341	69.997	0.94	-19.962
290.147	0.939	-20.121	0.344	69.837	0.344	69.837	0.939	-20.121
292.617	0.938	-20.28	0.347	69.678	0.347	69.678	0.938	-20.28
295.086	0.937	-20.438	0.349	69.519	0.349	69.519	0.937	-20.438
297.556	0.936	-20.597	0.352	69.36	0.352	69.36	0.936	-20.597
300.025	0.935	-20.755	0.354	69.202	0.354	69.202	0.935	-20.755
302.494	0.934	-20.912	0.357	69.044	0.357	69.044	0.934	-20.912
304.964	0.933	-21.07	0.36	68.886	0.36	68.886	0.933	-21.07
307.433	0.932	-21.227	0.362	68.728	0.362	68.728	0.932	-21.227
309.903	0.931	-21.384	0.365	68.571	0.365	68.571	0.931	-21.384
312.372	0.93	-21.541	0.367	68.414	0.367	68.414	0.93	-21.541
314.842	0.929	-21.697	0.37	68.258	0.37	68.258	0.929	-21.697
317.311	0.928	-21.853	0.372	68.101	0.372	68.101	0.928	-21.853
319.78	0.927	-22.008	0.375	67.945	0.375	67.945	0.927	-22.008
322.25	0.926	-22.164	0.377	67.789	0.377	67.789	0.926	-22.164
324.719	0.925	-22.319	0.38	67.634	0.38	67.634	0.925	-22.319
327.189	0.924	-22.474	0.382	67.479	0.382	67.479	0.924	-22.474
329.658	0.923	-22.628	0.385	67.324	0.385	67.324	0.923	-22.628
332.128	0.922	-22.782	0.387	67.17	0.387	67.17	0.922	-22.782
334.597	0.921	-22.936	0.39	67.015	0.39	67.015	0.921	-22.936
337.067	0.92	-23.09	0.392	66.861	0.392	66.861	0.92	-23.09
339.536	0.919	-23.243	0.395	66.708	0.395	66.708	0.919	-23.243
342.005	0.917	-23.396	0.397	66.554	0.397	66.554	0.917	-23.396
344.475	0.916	-23.548	0.4	66.401	0.4	66.401	0.916	-23.548
346.944	0.915	-23.701	0.402	66.249	0.402	66.249	0.915	-23.701
349.414	0.914	-23.853	0.404	66.096	0.404	66.096	0.914	-23.853
351.883	0.913	-24.005	0.407	65.944	0.407	65.944	0.913	-24.005
354.353	0.912	-24.156	0.409	65.793	0.409	65.793	0.912	-24.156
356.822	0.911	-24.307	0.412	65.641	0.412	65.641	0.911	-24.307
359.292	0.91	-24.458	0.414	65.49	0.414	65.49	0.91	-24.458
361.761	0.909	-24.608	0.416	65.339	0.416	65.339	0.909	-24.608
364.23	0.908	-24.758	0.419	65.189	0.419	65.189	0.908	-24.758
366.7	0.907	-24.908	0.421	65.039	0.421	65.039	0.907	-24.908
369.169	0.905	-25.058	0.424	64.889	0.424	64.889	0.905	-25.058
371.639	0.904	-25.207	0.426	64.739	0.426	64.739	0.904	-25.207
374.108	0.903	-25.356	0.428	64.59	0.428	64.59	0.903	-25.356
376.578	0.902	-25.504	0.431	64.441	0.431	64.441	0.902	-25.504
379.047	0.901	-25.652	0.433	64.292	0.433	64.292	0.901	-25.652
381.517	0.9	-25.8	0.435	64.144	0.435	64.144	0.9	-25.8
383.986	0.899	-25.948	0.438	63.996	0.438	63.996	0.899	-25.948
386.455	0.898	-26.095	0.44	63.849	0.44	63.849	0.898	-26.095
388.925	0.896	-26.242	0.442	63.701	0.442	63.701	0.896	-26.242
391.394	0.895	-26.389	0.444	63.554	0.444	63.554	0.895	-26.389
393.864	0.894	-26.535	0.447	63.408	0.447	63.408	0.894	-26.535
396.333	0.893	-26.681	0.449	63.261	0.449	63.261	0.893	-26.681
398.803	0.892	-26.827	0.451	63.115	0.451	63.115	0.892	-26.827
401.272	0.891	-26.972	0.454	62.97	0.454	62.97	0.891	-26.972
403.742	0.89	-27.117	0.456	62.824	0.456	62.824	0.89	-27.117
406.211	0.888	-27.262	0.458	62.679	0.458	62.679	0.888	-27.262
408.68	0.887	-27.406	0.46	62.534	0.46	62.534	0.887	-27.406
411.15	0.886	-27.55	0.463	62.39	0.463	62.39	0.886	-27.55
413.619	0.885	-27.694	0.465	62.246	0.465	62.246	0.885	-27.694
416.089	0.884	-27.837	0.467	62.102	0.467	62.102	0.884	-27.837
418.558	0.883	-27.98	0.469	61.959	0.469	61.959	0.883	-27.98
421.028	0.881	-28.123	0.471	61.816	0.471	61.816	0.881	-28.123
423.497	0.88	-28.265	0.474	61.673	0.474	61.673	0.88	-28.265
425.967	0.879	-28.407	0.476	61.531	0.476	61.531	0.879	-28.407
428.436	0.878	-28.549	0.478	61.389	0.478	61.389	0.878	-28.549
430.905	0.877	-28.69	0.48	61.247	0.48	61.247	0.877	-28.69
433.375	0.876	-28.831	0.482	61.105	0.482	61.105	0.876	-28.831
435.844	0.874	-28.972	0.484	60.964	0.484	60.964	0.874	-28.972
438.314	0.873	-29.113	0.487	60.824	0.487	60.824	0.873	-29.113
440.783	0.872	-29.253	0.489	60.683	0.489	60.683	0.872	-29.253
443.253	0.871	-29.392	0.491	60.543	0.491	60.543	0.871	-29.392
445.722	0.87	-29.532	0.493	60.403	0.493	60.403	0.87	-29.532
448.192	0.868	-29.671	0.495	60.264	0.495	60.264	0.868	-29.671
450.661	0.867	-29.81	0.497	60.125	0.497	60.125	0.867	-29.81
453.13	0.866	-29.948	0.499	59.986	0.499	59.986	0.866	-29.948
455.6	0.865	-30.086	0.501	59.847	0.501	59.847	0.865	-30.086
458.069	0.863	-30.224	0.503	59.709	0.503	59.709	0.863	-30.224
460.539	0.862	-30.361	0.505	59.571	0.505	59.571	0.862	-30.361
463.008	0.861	-30.498	0.508	59.434	0.508	59.434	0.861	-30.498
465.478	0.86	-30.635	0.51	59.297	0.51	59.297	0.86	-30.635
467.947	0.859	-30.772	0.512	59.16	0.512	59.16	0.859	-30.772
470.417	0.857	-30.908	0.514	59.024	0.514	59.024	0.857	-30.908
472.886	0.856	-31.043	0.516	58.887	0.516	58.887	0.856	-31.043
475.355	0.855	-31.179	0.518	58.752	0.518	58.752	0.855	-31.179
477.825	0.854	-31.314	0.52	58.616	0.52	58.616	0.854	-31.314
480.294	0.852	-31.449	0.522	58.481	0.522	58.481	0.852	-31.449
482.764	0.851	-31.583	0.524	58.346	0.524	58.346	0.851	-31.583
485.233	0.85	-31.717	0.526	58.212	0.526	58.212	0.85	-31.717
487.703	0.849	-31.851	0.528	58.078	0.528	58.078	0.849	-31.851
490.172	0.848	-31.984	0.53	57.944	0.53	57.944	0.848	-31.984
492.642	0.846	-32.118	0.532	57.81	0.532	57.81	0.846	-32.118
495.111	0.845	-32.25	0.534	57.677	0.534	57.677	0.845	-32.25
497.58	0.844	-32.383	0.536	57.544	0.536	57.544	0.844	-32.383
500.05	0.843	-32.515	0.538	57.412	0.538	57.412	0.843	-32.515
502.519	0.841	-32.647	0.539	57.28	0.539	57.28	0.841	-32.647
504.989	0.84	-32.778	0.541	57.148	0.541	57.148	0.84	-32.778
507.458	0.839	-32.909	0.543	57.016	0.543	57.016	0.839	-32.909
509.928	0.838	-33.04	0.545	56.885	0.545	56.885	0.838	-33.04
512.397	0.836	-33.17	0.547	56.755	0.547	56.755	0.836	-33.17
514.867	0.835	-33.301	0.549	56.624	0.549	56.624	0.835	-33.301
517.336	0.834	-33.43	0.551	56.494	0.551	56.494	0.834	-33.43
519.805	0.833	-33.56	0.553	56.364	0.553	56.364	0.833	-33.56
522.275	0.831	-33.689	0.555	56.235	0.555	56.235	0.831	-33.689
524.744	0.83	-33.818	0.557	56.105	0.557	56.105	0.83	-33.818
527.214	0.829	-33.946	0.558	55.977	0.558	55.977	0.829	-33.946
529.683	0.828	-34.074	0.56	55.848	0.56	55.848	0.828	-34.074
532.153	0.826	-34.202	0.562	55.72	0.562	55.72	0.826	-34.202
534.622	0.825	-34.33	0.564	55.592	0.564	55.592	0.825	-34.33
537.092	0.824	-34.457	0.566	55.464	0.566	55.464	0.824	-34.457
539.561	0.823	-34.584	0.568	55.337	0.568	55.337	0.823	-34.584
542.03	0.821	-34.71	0.569	55.21	0.569	55.21	0.821	-34.71
544.5	0.82	-34.836	0.571	55.084	0.571	55.084	0.82	-34.836
546.969	0.819	-34.962	0.573	54.958	0.573	54.958	0.819	-34.962
549.439	0.817	-35.088	0.575	54.832	0.575	54.832	0.817	-35.088
551.908	0.816	-35.213	0.577	54.706	0.577	54.706	0.816	-35.213
554.378	0.815	-35.338	0.578	54.581	0.578	54.581	0.815	-35.338
556.847	0.814	-35.462	0.58	54.456	0.58	54.456	0.814	-35.462
559.317	0.812	-35.586	0.582	54.331	0.582	54.331	0.812	-35.586
561.786	0.811	-35.71	0.584	54.207	0.584	54.207	0.811	-35.71
564.255	0.81	-35.834	0.585	54.083	0.585	54.083	0.81	-35.834
566.725	0.809	-35.957	0.587	53.96	0.587	53.96	0.809	-35.957
569.194	0.807	-36.08	0.589	53.836	0.589	53.836	0.807	-36.08
571.664	0.806	-36.203	0.591	53.713	0.591	53.713	0.806	-36.203
574.133	0.805	-36.325	0.592	53.591	0.592	53.591	0.805	-36.325
576.603	0.804	-36.447	0.594	53.468	0.594	53.468	0.804	-36.447
579.072	0.802	-36.568	0.596	53.346	0.596	53.346	0.802	-36.568
581.542	0.801	-36.69	0.597	53.225	0.597	53.225	0.801	-36.69
584.011	0.8	-36.811	0.599	53.103	0.599	53.103	0.8	-36.811
586.48	0.798	-36.931	0.601	52.982	0.601	52.982	0.798	-36.931
588.95	0.797	-37.052	0.603	52.862	0.603	52.862	0.797	-37.052
591.419	0.796	-37.172	0.604	52.741	0.604	52.741	0.796	-37.172
593.889	0.795	-37.291	0.606	52.621	0.606	52.621	0.795	-37.291
596.358	0.793	-37.411	0.608	52.502	0.608	52.502	0.793	-37.411
598.828	0.792	-37.53	0.609	52.382	0.609	52.382	0.792	-37.53
601.297	0.791	-37.648	0.611	52.263	0.611	52.263	0.791	-37.648
603.767	0.79	-37.767	0.612	52.144	0.612	52.144	0.79	-37.767
606.236	0.788	-37.885	0.614	52.026	0.614	52.026	0.788	-37.885
608.705	0.787	-38.003	0.616	51.908	0.616	51.908	0.787	-38.003
611.175	0.786	-38.12	0.617	51.79	0.617	51.79	0.786	-38.12
613.644	0.784	-38.237	0.619	51.672	0.619	51.672	0.784	-38.237
616.114	0.783	-38.354	0.621	51.555	0.621	51.555	0.783	-38.354
618.583	0.782	-38.471	0.622	51.438	0.622	51.438	0.782	-38.471
621.053	0.781	-38.587	0.624	51.322	0.624	51.322	0.781	-38.587
623.522	0.779	-38.703	0.625	51.205	0.625	51.205	0.779	-38.703
625.992	0.778	-38.818	0.627	51.089	0.627	51.089	0.778	-38.818
628.461	0.777	-38.933	0.628	50.974	0.628	50.974	0.777	-38.933
630.93	0.776	-39.048	0.63	50.858	0.63	50.858	0.776	-39.048
633.4	0.774	-39.163	0.632	50.743	0.632	50.743	0.774	-39.163
635.869	0.773	-39.277	0.633	50.629	0.633	50.629	0.773	-39.277
638.339	0.772	-39.391	0.635	50.514	0.635	50.514	0.772	-39.391
640.808	0.771	-39.505	0.636	50.4	0.636	50.4	0.771	-39.505
643.278	0.769	-39.618	0.638	50.286	0.638	50.286	0.769	-39.618
645.747	0.768	-39.732	0.639	50.173	0.639	50.173	0.768	-39.732
648.217	0.767	-39.844	0.641	50.06	0.641	50.06	0.767	-39.844
650.686	0.765	-39.957	0.642	49.947	0.642	49.947	0.765	-39.957
653.155	0.764	-40.069	0.644	49.834	0.644	49.834	0.764	-40.069
655.625	0.763	-40.181	0.645	49.722	0.645	49.722	0.763	-40.181
658.094	0.762	-40.292	0.647	49.61	0.647	49.61	0.762	-40.292
660.564	0.76	-40.404	0.648	49.499	0.648	49.499	0.76	-40.404
663.033	0.759	-40.514	0.65	49.387	0.65	49.387	0.759	-40.514
665.503	0.758	-40.625	0.651	49.276	0.651	49.276	0.758	-40.625
667.972	0.757	-40.735	0.653	49.166	0.653	49.166	0.757	-40.735
670.442	0.755	-40.845	0.654	49.055	0.654	49.055	0.755	-40.845
672.911	0.754	-40.955	0.655	48.945	0.655	48.945	0.754	-40.955
675.38	0.753	-41.065	0.657	48.835	0.657	48.835	0.753	-41.065
677.85	0.752	-41.174	0.658	48.726	0.658	48.726	0.752	-41.174
680.319	0.75	-41.283	0.66	48.617	0.66	48.617	0.75	-41.283
682.789	0.749	-41.391	0.661	48.508	0.661	48.508	0.749	-41.391
685.258	0.748	-41.499	0.663	48.399	0.663	48.399	0.748	-41.499
687.728	0.747	-41.607	0.664	48.291	0.664	48.291	0.747	-41.607
690.197	0.745	-41.715	0.665	48.183	0.665	48.183	0.745	-41.715
692.667	0.744	-41.822	0.667	48.075	0.667	48.075	0.744	-41.822
695.136	0.743	-41.929	0.668	47.968	0.668	47.968	0.743	-41.929
697.605	0.742	-42.036	0.67	47.861	0.67	47.861	0.742	-42.036
700.075	0.74	-42.142	0.671	47.754	0.671	47.754	0.74	-42.142
702.544	0.739	-42.248	0.672	47.647	0.672	47.647	0.739	-42.248
705.014	0.738	-42.354	0.674	47.541	0.674	47.541	0.738	-42.354
707.483	0.737	-42.46	0.675	47.435	0.675	47.435	0.737	-42.46
709.953	0.735	-42.565	0.676	47.329	0.676	47.329	0.735	-42.565
712.422	0.734	-42.67	0.678	47.224	0.678	47.224	0.734	-42.67
714.891	0.733	-42.775	0.679	47.119	0.679	47.119	0.733	-42.775
717.361	0.732	-42.879	0.68	47.014	0.68	47.014	0.732	-42.879
719.83	0.73	-42.983	0.682	46.91	0.682	46.91	0.73	-42.983
722.3	0.729	-43.087	0.683	46.805	0.683	46.805	0.729	-43.087
724.769	0.728	-43.191	0.684	46.701	0.684	46.701	0.728	-43.191
727.239	0.727	-43.294	0.686	46.598	0.686	46.598	0.727	-43.294
729.708	0.725	-43.397	0.687	46.494	0.687	46.494	0.725	-43.397
732.178	0.724	-43.5	0.688	46.391	0.688	46.391	0.724	-43.5
734.647	0.723	-43.602	0.69	46.289	0.69	46.289	0.723	-43.602
737.116	0.722	-43.704	0.691	46.186	0.691	46.186	0.722	-43.704
739.586	0.72	-43.806	0.692	46.084	0.692	46.084	0.72	-43.806
742.055	0.719	-43.907	0.693	45.982	0.693	45.982	0.719	-43.907
744.525	0.718	-44.009	0.695	45.88	0.695	45.88	0.718	-44.009
746.994	0.717	-44.11	0.696	45.779	0.696	45.779	0.717	-44.11
749.464	0.715	-44.21	0.697	45.678	0.697	45.678	0.715	-44.21
751.933	0.714	-44.311	0.699	45.577	0.699	45.577	0.714	-44.311
754.403	0.713	-44.411	0.7	45.477	0.7	45.477	0.713	-44.411
756.872	0.712	-44.511	0.701	45.376	0.701	45.376	0.712	-44.511
759.341	0.711	-44.61	0.702	45.276	0.702	45.276	0.711	-44.61
761.811	0.709	-44.71	0.704	45.177	0.704	45.177	0.709	-44.71
764.28	0.708	-44.809	0.705	45.077	0.705	45.077	0.708	-44.809
766.75	0.707	-44.907	0.706	44.978	0.706	44.978	0.707	-44.907
769.219	0.706	-45.006	0.707	44.879	0.707	44.879	0.706	-45.006
771.689	0.704	-45.104	0.708	44.781	0.708	44.781	0.704	-45.104
774.158	0.703	-45.202	0.71	44.682	0.71	44.682	0.703	-45.202
776.628	0.702	-45.3	0.711	44.584	0.711	44.584	0.702	-45.3
779.097	0.701	-45.397	0.712	44.486	0.712	44.486	0.701	-45.397
781.566	0.7	-45.494	0.713	44.389	0.713	44.389	0.7	-45.494
784.036	0.698	-45.591	0.714	44.292	0.714	44.292	0.698	-45.591
786.505	0.697	-45.688	0.716	44.195	0.716	44.195	0.697	-45.688
788.975	0.696	-45.784	0.717	44.098	0.717	44.098	0.696	-45.784
791.444	0.695	-45.88	0.718	44.001	0.718	44.001	0.695	-45.88
793.914	0.693	-45.976	0.719	43.905	0.719	43.905	0.693	-45.976
796.383	0.692	-46.071	0.72	43.809	0.72	43.809	0.692	-46.071
798.853	0.691	-46.167	0.721	43.714	0.721	43.714	0.691	-46.167
801.322	0.69	-46.262	0.723	43.618	0.723	43.618	0.69	-46.262
803.791	0.689	-46.356	0.724	43.523	0.724	43.523	0.689	-46.356
806.261	0.687	-46.451	0.725	43.428	0.725	43.428	0.687	-46.451
808.73	0.686	-46.545	0.726	43.334	0.726	43.334	0.686	-46.545
811.2	0.685	-46.639	0.727	43.239	0.727	43.239	0.685	-46.639
813.669	0.684	-46.733	0.728	43.145	0.728	43.145	0.684	-46.733
816.139	0.683	-46.826	0.729	43.052	0.729	43.052	0.683	-46.826
818.608	0.681	-46.919	0.73	42.958	0.73	42.958	0.681	-46.919
821.078	0.68	-47.012	0.731	42.865	0.731	42.865	0.68	-47.012
823.547	0.679	-47.105	0.733	42.772	0.733	42.772	0.679	-47.105
826.016	0.678	-47.197	0.734	42.679	0.734	42.679	0.678	-47.197
828.486	0.677	-47.289	0.735	42.586	0.735	42.586	0.677	-47.289
830.955	0.676	-47.381	0.736	42.494	0.736	42.494	0.676	-47.381
833.425	0.674	-47.473	0.737	42.402	0.737	42.402	0.674	-47.473
835.894	0.673	-47.564	0.738	42.31	0.738	42.31	0.673	-47.564
838.364	0.672	-47.655	0.739	42.219	0.739	42.219	0.672	-47.655
840.833	0.671	-47.746	0.74	42.127	0.74	42.127	0.671	-47.746
843.303	0.67	-47.837	0.741	42.036	0.741	42.036	0.67	-47.837
845.772	0.668	-47.927	0.742	41.946	0.742	41.946	0.668	-47.927
848.241	0.667	-48.017	0.743	41.855	0.743	41.855	0.667	-48.017
850.711	0.666	-48.107	0.744	41.765	0.744	41.765	0.666	-48.107
853.18	0.665	-48.197	0.745	41.675	0.745	41.675	0.665	-48.197
855.65	0.664	-48.286	0.746	41.585	0.746	41.585	0.664	-48.286
858.119	0.663	-48.375	0.748	41.496	0.748	41.496	0.663	-48.375
860.589	0.661	-48.464	0.749	41.406	0.749	41.406	0.661	-48.464
863.058	0.66	-48.552	0.75	41.317	0.75	41.317	0.66	-48.552
865.528	0.659	-48.641	0.751	41.229	0.751	41.229	0.659	-48.641
867.997	0.658	-48.729	0.752	41.14	0.752	41.14	0.658	-48.729
870.466	0.657	-48.817	0.753	41.052	0.753	41.052	0.657	-48.817
872.936	0.656	-48.904	0.754	40.964	0.754	40.964	0.656	-48.904
875.405	0.654	-48.992	0.755	40.876	0.755	40.876	0.654	-48.992
877.875	0.653	-49.079	0.756	40.788	0.756	40.788	0.653	-49.079
880.344	0.652	-49.166	0.757	40.701	0.757	40.701	0.652	-49.166
882.814	0.651	-49.253	0.758	40.614	0.758	40.614	0.651	-49.253
885.283	0.65	-49.339	0.759	40.527	0.759	40.527	0.65	-49.339
887.753	0.649	-49.425	0.76	40.44	0.76	40.44	0.649	-49.425
890.222	0.648	-49.511	0.761	40.354	0.761	40.354	0.648	-49.511
892.691	0.646	-49.597	0.762	40.268	0.762	40.268	0.646	-49.597
895.161	0.645	-49.682	0.762	40.182	0.762	40.182	0.645	-49.682
897.63	0.644	-49.768	0.763	40.096	0.763	40.096	0.644	-49.768
