! AVX Thin Film Operation		Date: April 2012 
! Description: Accu-P® Series, Thin Film, SMD, RF Capacitor
! Part Number: 08055J210FBTTR					
!	50	MHz	-	20.05	GHz			
!	Serial	Measurements						
!								
#	MHZ	S	MA	R	50			
!	S11	S21	S12	S22				
!	dB	Phase	dB	Phase	dB	Phase	dB	Phase
50 0.834 -33.441 0.551 56.516 0.551 56.516 0.834 -33.441
74.958 0.709 -44.75 0.704 45.185 0.704 45.185 0.709 -44.75
99.917 0.602 -52.931 0.798 36.983 0.798 36.983 0.602 -52.931
124.875 0.515 -58.907 0.856 30.985 0.856 30.985 0.515 -58.907
149.833 0.446 -63.379 0.894 26.491 0.894 26.491 0.446 -63.379
174.792 0.391 -66.818 0.919 23.03 0.919 23.03 0.391 -66.818
199.75 0.347 -69.529 0.937 20.296 0.937 20.296 0.347 -69.529
224.708 0.31 -71.715 0.95 18.087 0.95 18.087 0.31 -71.715
249.667 0.28 -73.512 0.959 16.266 0.959 16.266 0.28 -73.512
274.625 0.254 -75.015 0.966 14.739 0.966 14.739 0.254 -75.015
299.583 0.232 -76.29 0.972 13.44 0.972 13.44 0.232 -76.29
324.542 0.213 -77.384 0.976 12.319 0.976 12.319 0.213 -77.384
349.5 0.197 -78.335 0.979 11.342 0.979 11.342 0.197 -78.335
374.458 0.182 -79.169 0.982 10.482 0.982 10.482 0.182 -79.169
399.417 0.169 -79.906 0.985 9.717 0.985 9.717 0.169 -79.906
424.375 0.157 -80.562 0.986 9.031 0.986 9.031 0.157 -80.562
449.333 0.146 -81.15 0.988 8.413 0.988 8.413 0.146 -81.15
474.292 0.137 -81.68 0.99 7.851 0.99 7.851 0.137 -81.68
499.25 0.128 -82.161 0.991 7.337 0.991 7.337 0.128 -82.161
524.208 0.12 -82.598 0.992 6.865 0.992 6.865 0.12 -82.598
549.167 0.112 -82.997 0.993 6.43 0.993 6.43 0.112 -82.997
574.125 0.105 -83.362 0.993 6.025 0.993 6.025 0.105 -83.362
599.083 0.098 -83.697 0.994 5.649 0.994 5.649 0.098 -83.697
624.042 0.092 -84.005 0.995 5.297 0.995 5.297 0.092 -84.005
649 0.087 -84.289 0.995 4.967 0.995 4.967 0.087 -84.289
673.958 0.081 -84.55 0.996 4.656 0.996 4.656 0.081 -84.55
698.917 0.076 -84.789 0.996 4.363 0.996 4.363 0.076 -84.789
723.875 0.071 -85.01 0.996 4.085 0.996 4.085 0.071 -85.01
748.833 0.067 -85.211 0.997 3.821 0.997 3.821 0.067 -85.211
773.792 0.062 -85.394 0.997 3.57 0.997 3.57 0.062 -85.394
798.75 0.058 -85.559 0.997 3.33 0.997 3.33 0.058 -85.559
823.708 0.054 -85.706 0.997 3.1 0.997 3.1 0.054 -85.706
848.667 0.05 -85.834 0.998 2.881 0.998 2.881 0.05 -85.834
873.625 0.047 -85.944 0.998 2.67 0.998 2.67 0.047 -85.944
898.583 0.043 -86.032 0.998 2.467 0.998 2.467 0.043 -86.032
923.542 0.04 -86.099 0.998 2.271 0.998 2.271 0.04 -86.099
948.5 0.036 -86.139 0.998 2.082 0.998 2.082 0.036 -86.139
973.458 0.033 -86.151 0.998 1.9 0.998 1.9 0.033 -86.151
998.417 0.03 -86.128 0.998 1.723 0.998 1.723 0.03 -86.128
1023.375 0.027 -86.062 0.999 1.552 0.999 1.552 0.027 -86.062
1048.333 0.024 -85.942 0.999 1.385 0.999 1.385 0.024 -85.942
1073.292 0.021 -85.751 0.999 1.224 0.999 1.224 0.021 -85.751
1098.25 0.019 -85.463 0.999 1.066 0.999 1.066 0.019 -85.463
1123.208 0.016 -85.036 0.999 0.913 0.999 0.913 0.016 -85.036
1148.167 0.013 -84.396 0.999 0.764 0.999 0.764 0.013 -84.396
1173.125 0.011 -83.406 0.999 0.618 0.999 0.618 0.011 -83.406
1198.083 8.372e-3 -81.776 0.999 0.475 0.999 0.475 8.372e-3 -81.776
1223.042 5.97e-3 -78.765 0.999 0.336 0.999 0.336 5.97e-3 -78.765
1248 3.66e-3 -71.835 0.999 0.199 0.999 0.199 3.66e-3 -71.835
1272.958 1.61e-3 -45.43 0.999 0.066 0.999 0.066 1.61e-3 -45.43
1297.917 1.603e-3 45.179 0.999 -0.065 0.999 -0.065 1.603e-3 45.179
1322.875 3.566e-3 71.35 0.999 -0.194 0.999 -0.194 3.566e-3 71.35
1347.833 5.698e-3 78.254 0.999 -0.32 0.999 -0.32 5.698e-3 78.254
1372.792 7.832e-3 81.269 0.999 -0.444 0.999 -0.444 7.832e-3 81.269
1397.75 9.942e-3 82.915 0.999 -0.566 0.999 -0.566 9.942e-3 82.915
1422.708 0.012 83.928 0.999 -0.686 0.999 -0.686 0.012 83.928
1447.667 0.014 84.597 0.999 -0.804 0.999 -0.804 0.014 84.597
1472.625 0.016 85.06 0.999 -0.92 0.999 -0.92 0.016 85.06
1497.583 0.018 85.389 0.999 -1.035 0.999 -1.035 0.018 85.389
1522.542 0.02 85.627 0.999 -1.148 0.999 -1.148 0.02 85.627
1547.5 0.022 85.801 0.999 -1.259 0.999 -1.259 0.022 85.801
1572.458 0.024 85.927 0.999 -1.369 0.999 -1.369 0.024 85.927
1597.417 0.026 86.017 0.999 -1.478 0.999 -1.478 0.026 86.017
1622.375 0.028 86.079 0.998 -1.585 0.998 -1.585 0.028 86.079
1647.333 0.03 86.119 0.998 -1.691 0.998 -1.691 0.03 86.119
1672.292 0.031 86.142 0.998 -1.796 0.998 -1.796 0.031 86.142
1697.25 0.033 86.151 0.998 -1.899 0.998 -1.899 0.033 86.151
1722.208 0.035 86.148 0.998 -2.002 0.998 -2.002 0.035 86.148
1747.167 0.037 86.136 0.998 -2.103 0.998 -2.103 0.037 86.136
1772.125 0.038 86.116 0.998 -2.203 0.998 -2.203 0.038 86.116
1797.083 0.04 86.089 0.998 -2.303 0.998 -2.303 0.04 86.089
1822.042 0.042 86.057 0.998 -2.401 0.998 -2.401 0.042 86.057
1847 0.044 86.02 0.998 -2.498 0.998 -2.498 0.044 86.02
1871.958 0.045 85.978 0.998 -2.595 0.998 -2.595 0.045 85.978
1896.917 0.047 85.933 0.998 -2.691 0.998 -2.691 0.047 85.933
1921.875 0.049 85.885 0.998 -2.786 0.998 -2.786 0.049 85.885
1946.833 0.05 85.834 0.998 -2.88 0.998 -2.88 0.05 85.834
1971.792 0.052 85.781 0.998 -2.974 0.998 -2.974 0.052 85.781
1996.75 0.054 85.726 0.997 -3.066 0.997 -3.066 0.054 85.726
2021.708 0.055 85.67 0.997 -3.158 0.997 -3.158 0.055 85.67
2046.667 0.057 85.611 0.997 -3.25 0.997 -3.25 0.057 85.611
2071.625 0.058 85.551 0.997 -3.341 0.997 -3.341 0.058 85.551
2096.583 0.06 85.491 0.997 -3.431 0.997 -3.431 0.06 85.491
2121.542 0.061 85.429 0.997 -3.52 0.997 -3.52 0.061 85.429
2146.5 0.063 85.366 0.997 -3.609 0.997 -3.609 0.063 85.366
2171.458 0.064 85.302 0.997 -3.698 0.997 -3.698 0.064 85.302
2196.417 0.066 85.237 0.997 -3.785 0.997 -3.785 0.066 85.237
2221.375 0.068 85.172 0.997 -3.873 0.997 -3.873 0.068 85.172
2246.333 0.069 85.106 0.996 -3.959 0.996 -3.959 0.069 85.106
2271.292 0.071 85.04 0.996 -4.046 0.996 -4.046 0.071 85.04
2296.25 0.072 84.973 0.996 -4.132 0.996 -4.132 0.072 84.973
2321.208 0.074 84.906 0.996 -4.217 0.996 -4.217 0.074 84.906
2346.167 0.075 84.838 0.996 -4.302 0.996 -4.302 0.075 84.838
2371.125 0.076 84.77 0.996 -4.386 0.996 -4.386 0.076 84.77
2396.083 0.078 84.702 0.996 -4.47 0.996 -4.47 0.078 84.702
2421.042 0.079 84.634 0.996 -4.554 0.996 -4.554 0.079 84.634
2446 0.081 84.565 0.996 -4.637 0.996 -4.637 0.081 84.565
2470.958 0.082 84.496 0.995 -4.72 0.995 -4.72 0.082 84.496
2495.917 0.084 84.427 0.995 -4.803 0.995 -4.803 0.084 84.427
2520.875 0.085 84.358 0.995 -4.885 0.995 -4.885 0.085 84.358
2545.833 0.087 84.289 0.995 -4.967 0.995 -4.967 0.087 84.289
2570.792 0.088 84.22 0.995 -5.048 0.995 -5.048 0.088 84.22
2595.75 0.089 84.15 0.995 -5.129 0.995 -5.129 0.089 84.15
2620.708 0.091 84.081 0.995 -5.21 0.995 -5.21 0.091 84.081
2645.667 0.092 84.011 0.995 -5.29 0.995 -5.29 0.092 84.011
2670.625 0.094 83.941 0.994 -5.371 0.994 -5.371 0.094 83.941
2695.583 0.095 83.872 0.994 -5.45 0.994 -5.45 0.095 83.872
2720.542 0.096 83.802 0.994 -5.53 0.994 -5.53 0.096 83.802
2745.5 0.098 83.732 0.994 -5.609 0.994 -5.609 0.098 83.732
2770.458 0.099 83.662 0.994 -5.688 0.994 -5.688 0.099 83.662
2795.417 0.1 83.593 0.994 -5.767 0.994 -5.767 0.1 83.593
2820.375 0.102 83.523 0.994 -5.845 0.994 -5.845 0.102 83.523
2845.333 0.103 83.453 0.994 -5.923 0.994 -5.923 0.103 83.453
2870.292 0.105 83.383 0.993 -6.001 0.993 -6.001 0.105 83.383
2895.25 0.106 83.314 0.993 -6.079 0.993 -6.079 0.106 83.314
2920.208 0.107 83.244 0.993 -6.157 0.993 -6.157 0.107 83.244
2945.167 0.109 83.174 0.993 -6.234 0.993 -6.234 0.109 83.174
2970.125 0.11 83.104 0.993 -6.311 0.993 -6.311 0.11 83.104
2995.083 0.111 83.035 0.993 -6.387 0.993 -6.387 0.111 83.035
3020.042 0.113 82.965 0.993 -6.464 0.993 -6.464 0.113 82.965
3045 0.114 82.896 0.992 -6.54 0.992 -6.54 0.114 82.896
3069.958 0.115 82.826 0.992 -6.616 0.992 -6.616 0.115 82.826
3094.917 0.117 82.757 0.992 -6.692 0.992 -6.692 0.117 82.757
3119.875 0.118 82.687 0.992 -6.768 0.992 -6.768 0.118 82.687
3144.833 0.119 82.618 0.992 -6.843 0.992 -6.843 0.119 82.618
3169.792 0.12 82.548 0.992 -6.919 0.992 -6.919 0.12 82.548
3194.75 0.122 82.479 0.991 -6.994 0.991 -6.994 0.122 82.479
3219.708 0.123 82.41 0.991 -7.069 0.991 -7.069 0.123 82.41
3244.667 0.124 82.341 0.991 -7.143 0.991 -7.143 0.124 82.341
3269.625 0.126 82.271 0.991 -7.218 0.991 -7.218 0.126 82.271
3294.583 0.127 82.202 0.991 -7.292 0.991 -7.292 0.127 82.202
3319.542 0.128 82.133 0.991 -7.366 0.991 -7.366 0.128 82.133
3344.5 0.13 82.064 0.99 -7.44 0.99 -7.44 0.13 82.064
3369.458 0.131 81.995 0.99 -7.514 0.99 -7.514 0.131 81.995
3394.417 0.132 81.927 0.99 -7.588 0.99 -7.588 0.132 81.927
3419.375 0.133 81.858 0.99 -7.661 0.99 -7.661 0.133 81.858
3444.333 0.135 81.789 0.99 -7.735 0.99 -7.735 0.135 81.789
3469.292 0.136 81.72 0.99 -7.808 0.99 -7.808 0.136 81.72
3494.25 0.137 81.652 0.989 -7.881 0.989 -7.881 0.137 81.652
3519.208 0.138 81.583 0.989 -7.954 0.989 -7.954 0.138 81.583
3544.167 0.14 81.515 0.989 -8.027 0.989 -8.027 0.14 81.515
3569.125 0.141 81.446 0.989 -8.099 0.989 -8.099 0.141 81.446
3594.083 0.142 81.378 0.989 -8.172 0.989 -8.172 0.142 81.378
3619.042 0.143 81.309 0.989 -8.244 0.989 -8.244 0.143 81.309
3644 0.145 81.241 0.988 -8.316 0.988 -8.316 0.145 81.241
3668.958 0.146 81.173 0.988 -8.388 0.988 -8.388 0.146 81.173
3693.917 0.147 81.105 0.988 -8.46 0.988 -8.46 0.147 81.105
3718.875 0.148 81.037 0.988 -8.532 0.988 -8.532 0.148 81.037
3743.833 0.15 80.969 0.988 -8.604 0.988 -8.604 0.15 80.969
3768.792 0.151 80.901 0.987 -8.675 0.987 -8.675 0.151 80.901
3793.75 0.152 80.833 0.987 -8.747 0.987 -8.747 0.152 80.833
3818.708 0.153 80.765 0.987 -8.818 0.987 -8.818 0.153 80.765
3843.667 0.155 80.697 0.987 -8.889 0.987 -8.889 0.155 80.697
3868.625 0.156 80.629 0.987 -8.96 0.987 -8.96 0.156 80.629
3893.583 0.157 80.562 0.986 -9.031 0.986 -9.031 0.157 80.562
3918.542 0.158 80.494 0.986 -9.102 0.986 -9.102 0.158 80.494
3943.5 0.159 80.427 0.986 -9.173 0.986 -9.173 0.159 80.427
3968.458 0.161 80.359 0.986 -9.243 0.986 -9.243 0.161 80.359
3993.417 0.162 80.292 0.986 -9.314 0.986 -9.314 0.162 80.292
4018.375 0.163 80.224 0.986 -9.384 0.986 -9.384 0.163 80.224
4043.333 0.164 80.157 0.985 -9.454 0.985 -9.454 0.164 80.157
4068.292 0.165 80.09 0.985 -9.525 0.985 -9.525 0.165 80.09
4093.25 0.167 80.023 0.985 -9.595 0.985 -9.595 0.167 80.023
4118.208 0.168 79.956 0.985 -9.664 0.985 -9.664 0.168 79.956
4143.167 0.169 79.889 0.984 -9.734 0.984 -9.734 0.169 79.889
4168.125 0.17 79.822 0.984 -9.804 0.984 -9.804 0.17 79.822
4193.083 0.171 79.755 0.984 -9.874 0.984 -9.874 0.171 79.755
4218.042 0.173 79.688 0.984 -9.943 0.984 -9.943 0.173 79.688
4243 0.174 79.621 0.984 -10.013 0.984 -10.013 0.174 79.621
4267.958 0.175 79.554 0.983 -10.082 0.983 -10.082 0.175 79.554
4292.917 0.176 79.488 0.983 -10.151 0.983 -10.151 0.176 79.488
4317.875 0.177 79.421 0.983 -10.22 0.983 -10.22 0.177 79.421
4342.833 0.179 79.354 0.983 -10.289 0.983 -10.289 0.179 79.354
4367.792 0.18 79.288 0.983 -10.358 0.983 -10.358 0.18 79.288
4392.75 0.181 79.221 0.982 -10.427 0.982 -10.427 0.181 79.221
4417.708 0.182 79.155 0.982 -10.496 0.982 -10.496 0.182 79.155
4442.667 0.183 79.089 0.982 -10.564 0.982 -10.564 0.183 79.089
4467.625 0.185 79.022 0.982 -10.633 0.982 -10.633 0.185 79.022
4492.583 0.186 78.956 0.981 -10.702 0.981 -10.702 0.186 78.956
4517.542 0.187 78.89 0.981 -10.77 0.981 -10.77 0.187 78.89
4542.5 0.188 78.824 0.981 -10.838 0.981 -10.838 0.188 78.824
4567.458 0.189 78.758 0.981 -10.906 0.981 -10.906 0.189 78.758
4592.417 0.19 78.692 0.981 -10.975 0.981 -10.975 0.19 78.692
4617.375 0.192 78.626 0.98 -11.043 0.98 -11.043 0.192 78.626
4642.333 0.193 78.56 0.98 -11.111 0.98 -11.111 0.193 78.56
4667.292 0.194 78.494 0.98 -11.178 0.98 -11.178 0.194 78.494
4692.25 0.195 78.428 0.98 -11.246 0.98 -11.246 0.195 78.428
4717.208 0.196 78.363 0.979 -11.314 0.979 -11.314 0.196 78.363
4742.167 0.197 78.297 0.979 -11.382 0.979 -11.382 0.197 78.297
4767.125 0.199 78.231 0.979 -11.449 0.979 -11.449 0.199 78.231
4792.083 0.2 78.166 0.979 -11.517 0.979 -11.517 0.2 78.166
4817.042 0.201 78.1 0.979 -11.584 0.979 -11.584 0.201 78.1
4842 0.202 78.035 0.978 -11.651 0.978 -11.651 0.202 78.035
4866.958 0.203 77.97 0.978 -11.719 0.978 -11.719 0.203 77.97
4891.917 0.204 77.904 0.978 -11.786 0.978 -11.786 0.204 77.904
4916.875 0.205 77.839 0.978 -11.853 0.978 -11.853 0.205 77.839
4941.833 0.207 77.774 0.977 -11.92 0.977 -11.92 0.207 77.774
4966.792 0.208 77.709 0.977 -11.987 0.977 -11.987 0.208 77.709
4991.75 0.209 77.644 0.977 -12.054 0.977 -12.054 0.209 77.644
5016.708 0.21 77.578 0.977 -12.12 0.977 -12.12 0.21 77.578
5041.667 0.211 77.513 0.976 -12.187 0.976 -12.187 0.211 77.513
5066.625 0.212 77.449 0.976 -12.254 0.976 -12.254 0.212 77.449
5091.583 0.213 77.384 0.976 -12.32 0.976 -12.32 0.213 77.384
5116.542 0.215 77.319 0.976 -12.387 0.976 -12.387 0.215 77.319
5141.5 0.216 77.254 0.975 -12.453 0.975 -12.453 0.216 77.254
5166.458 0.217 77.189 0.975 -12.519 0.975 -12.519 0.217 77.189
5191.417 0.218 77.125 0.975 -12.586 0.975 -12.586 0.218 77.125
5216.375 0.219 77.06 0.975 -12.652 0.975 -12.652 0.219 77.06
5241.333 0.22 76.995 0.974 -12.718 0.974 -12.718 0.22 76.995
5266.292 0.221 76.931 0.974 -12.784 0.974 -12.784 0.221 76.931
5291.25 0.222 76.866 0.974 -12.85 0.974 -12.85 0.222 76.866
5316.208 0.224 76.802 0.974 -12.916 0.974 -12.916 0.224 76.802
5341.167 0.225 76.738 0.973 -12.982 0.973 -12.982 0.225 76.738
5366.125 0.226 76.673 0.973 -13.048 0.973 -13.048 0.226 76.673
5391.083 0.227 76.609 0.973 -13.113 0.973 -13.113 0.227 76.609
5416.042 0.228 76.545 0.973 -13.179 0.973 -13.179 0.228 76.545
5441 0.229 76.481 0.972 -13.245 0.972 -13.245 0.229 76.481
5465.958 0.23 76.417 0.972 -13.31 0.972 -13.31 0.23 76.417
5490.917 0.231 76.352 0.972 -13.376 0.972 -13.376 0.231 76.352
5515.875 0.232 76.288 0.972 -13.441 0.972 -13.441 0.232 76.288
5540.833 0.234 76.224 0.971 -13.506 0.971 -13.506 0.234 76.224
5565.792 0.235 76.161 0.971 -13.571 0.971 -13.571 0.235 76.161
5590.75 0.236 76.097 0.971 -13.637 0.971 -13.637 0.236 76.097
5615.708 0.237 76.033 0.97 -13.702 0.97 -13.702 0.237 76.033
5640.667 0.238 75.969 0.97 -13.767 0.97 -13.767 0.238 75.969
5665.625 0.239 75.906 0.97 -13.832 0.97 -13.832 0.239 75.906
5690.583 0.24 75.842 0.97 -13.897 0.97 -13.897 0.24 75.842
5715.542 0.241 75.778 0.969 -13.962 0.969 -13.962 0.241 75.778
5740.5 0.242 75.715 0.969 -14.026 0.969 -14.026 0.242 75.715
5765.458 0.243 75.651 0.969 -14.091 0.969 -14.091 0.243 75.651
5790.417 0.245 75.588 0.969 -14.156 0.969 -14.156 0.245 75.588
5815.375 0.246 75.524 0.968 -14.22 0.968 -14.22 0.246 75.524
5840.333 0.247 75.461 0.968 -14.285 0.968 -14.285 0.247 75.461
5865.292 0.248 75.398 0.968 -14.349 0.968 -14.349 0.248 75.398
5890.25 0.249 75.335 0.967 -14.414 0.967 -14.414 0.249 75.335
5915.208 0.25 75.271 0.967 -14.478 0.967 -14.478 0.25 75.271
5940.167 0.251 75.208 0.967 -14.542 0.967 -14.542 0.251 75.208
5965.125 0.252 75.145 0.967 -14.607 0.967 -14.607 0.252 75.145
5990.083 0.253 75.082 0.966 -14.671 0.966 -14.671 0.253 75.082
6015.042 0.254 75.019 0.966 -14.735 0.966 -14.735 0.254 75.019
6040 0.255 74.956 0.966 -14.799 0.966 -14.799 0.255 74.956
6064.958 0.257 74.893 0.965 -14.863 0.965 -14.863 0.257 74.893
6089.917 0.258 74.83 0.965 -14.927 0.965 -14.927 0.258 74.83
6114.875 0.259 74.768 0.965 -14.991 0.965 -14.991 0.259 74.768
6139.833 0.26 74.705 0.965 -15.055 0.965 -15.055 0.26 74.705
6164.792 0.261 74.642 0.964 -15.118 0.964 -15.118 0.261 74.642
6189.75 0.262 74.58 0.964 -15.182 0.964 -15.182 0.262 74.58
6214.708 0.263 74.517 0.964 -15.246 0.964 -15.246 0.263 74.517
6239.667 0.264 74.455 0.963 -15.309 0.963 -15.309 0.264 74.455
6264.625 0.265 74.392 0.963 -15.373 0.963 -15.373 0.265 74.392
6289.583 0.266 74.33 0.963 -15.436 0.963 -15.436 0.266 74.33
6314.542 0.267 74.267 0.963 -15.499 0.963 -15.499 0.267 74.267
6339.5 0.268 74.205 0.962 -15.563 0.962 -15.563 0.268 74.205
6364.458 0.269 74.143 0.962 -15.626 0.962 -15.626 0.269 74.143
6389.417 0.27 74.08 0.962 -15.689 0.962 -15.689 0.27 74.08
6414.375 0.271 74.018 0.961 -15.752 0.961 -15.752 0.271 74.018
6439.333 0.273 73.956 0.961 -15.816 0.961 -15.816 0.273 73.956
6464.292 0.274 73.894 0.961 -15.879 0.961 -15.879 0.274 73.894
6489.25 0.275 73.832 0.96 -15.942 0.96 -15.942 0.275 73.832
6514.208 0.276 73.77 0.96 -16.004 0.96 -16.004 0.276 73.77
6539.167 0.277 73.708 0.96 -16.067 0.96 -16.067 0.277 73.708
6564.125 0.278 73.646 0.96 -16.13 0.96 -16.13 0.278 73.646
6589.083 0.279 73.584 0.959 -16.193 0.959 -16.193 0.279 73.584
6614.042 0.28 73.523 0.959 -16.256 0.959 -16.256 0.28 73.523
6639 0.281 73.461 0.959 -16.318 0.959 -16.318 0.281 73.461
6663.958 0.282 73.399 0.958 -16.381 0.958 -16.381 0.282 73.399
6688.917 0.283 73.337 0.958 -16.443 0.958 -16.443 0.283 73.337
6713.875 0.284 73.276 0.958 -16.506 0.958 -16.506 0.284 73.276
6738.833 0.285 73.214 0.957 -16.568 0.957 -16.568 0.285 73.214
6763.792 0.286 73.153 0.957 -16.631 0.957 -16.631 0.286 73.153
6788.75 0.287 73.091 0.957 -16.693 0.957 -16.693 0.287 73.091
6813.708 0.288 73.03 0.956 -16.755 0.956 -16.755 0.288 73.03
6838.667 0.289 72.969 0.956 -16.817 0.956 -16.817 0.289 72.969
6863.625 0.29 72.907 0.956 -16.879 0.956 -16.879 0.29 72.907
6888.583 0.291 72.846 0.956 -16.941 0.956 -16.941 0.291 72.846
6913.542 0.292 72.785 0.955 -17.003 0.955 -17.003 0.292 72.785
6938.5 0.293 72.724 0.955 -17.065 0.955 -17.065 0.293 72.724
6963.458 0.294 72.663 0.955 -17.127 0.955 -17.127 0.294 72.663
6988.417 0.296 72.602 0.954 -17.189 0.954 -17.189 0.296 72.602
7013.375 0.297 72.541 0.954 -17.251 0.954 -17.251 0.297 72.541
7038.333 0.298 72.48 0.954 -17.313 0.954 -17.313 0.298 72.48
7063.292 0.299 72.419 0.953 -17.374 0.953 -17.374 0.299 72.419
7088.25 0.3 72.358 0.953 -17.436 0.953 -17.436 0.3 72.358
7113.208 0.301 72.297 0.953 -17.498 0.953 -17.498 0.301 72.297
7138.167 0.302 72.236 0.952 -17.559 0.952 -17.559 0.302 72.236
7163.125 0.303 72.176 0.952 -17.621 0.952 -17.621 0.303 72.176
7188.083 0.304 72.115 0.952 -17.682 0.952 -17.682 0.304 72.115
7213.042 0.305 72.055 0.951 -17.743 0.951 -17.743 0.305 72.055
7238 0.306 71.994 0.951 -17.805 0.951 -17.805 0.306 71.994
7262.958 0.307 71.933 0.951 -17.866 0.951 -17.866 0.307 71.933
7287.917 0.308 71.873 0.95 -17.927 0.95 -17.927 0.308 71.873
7312.875 0.309 71.813 0.95 -17.988 0.95 -17.988 0.309 71.813
7337.833 0.31 71.752 0.95 -18.049 0.95 -18.049 0.31 71.752
7362.792 0.311 71.692 0.949 -18.11 0.949 -18.11 0.311 71.692
7387.75 0.312 71.632 0.949 -18.171 0.949 -18.171 0.312 71.632
7412.708 0.313 71.572 0.949 -18.232 0.949 -18.232 0.313 71.572
7437.667 0.314 71.511 0.948 -18.293 0.948 -18.293 0.314 71.511
7462.625 0.315 71.451 0.948 -18.354 0.948 -18.354 0.315 71.451
7487.583 0.316 71.391 0.948 -18.414 0.948 -18.414 0.316 71.391
7512.542 0.317 71.331 0.947 -18.475 0.947 -18.475 0.317 71.331
7537.5 0.318 71.271 0.947 -18.536 0.947 -18.536 0.318 71.271
7562.458 0.319 71.211 0.947 -18.596 0.947 -18.596 0.319 71.211
7587.417 0.32 71.151 0.946 -18.657 0.946 -18.657 0.32 71.151
7612.375 0.321 71.092 0.946 -18.717 0.946 -18.717 0.321 71.092
7637.333 0.322 71.032 0.946 -18.778 0.946 -18.778 0.322 71.032
7662.292 0.323 70.972 0.945 -18.838 0.945 -18.838 0.323 70.972
7687.25 0.324 70.913 0.945 -18.898 0.945 -18.898 0.324 70.913
7712.208 0.325 70.853 0.945 -18.959 0.945 -18.959 0.325 70.853
7737.167 0.326 70.793 0.944 -19.019 0.944 -19.019 0.326 70.793
7762.125 0.327 70.734 0.944 -19.079 0.944 -19.079 0.327 70.734
7787.083 0.328 70.674 0.944 -19.139 0.944 -19.139 0.328 70.674
7812.042 0.329 70.615 0.943 -19.199 0.943 -19.199 0.329 70.615
7837 0.33 70.556 0.943 -19.259 0.943 -19.259 0.33 70.556
7861.958 0.331 70.496 0.943 -19.319 0.943 -19.319 0.331 70.496
7886.917 0.332 70.437 0.942 -19.379 0.942 -19.379 0.332 70.437
7911.875 0.333 70.378 0.942 -19.439 0.942 -19.439 0.333 70.378
7936.833 0.334 70.319 0.942 -19.499 0.942 -19.499 0.334 70.319
7961.792 0.335 70.26 0.941 -19.558 0.941 -19.558 0.335 70.26
7986.75 0.336 70.2 0.941 -19.618 0.941 -19.618 0.336 70.2
8011.708 0.337 70.141 0.941 -19.678 0.941 -19.678 0.337 70.141
8036.667 0.338 70.083 0.94 -19.737 0.94 -19.737 0.338 70.083
8061.625 0.339 70.024 0.94 -19.797 0.94 -19.797 0.339 70.024
8086.583 0.34 69.965 0.939 -19.856 0.939 -19.856 0.34 69.965
