! AVX Thin Film Operation		Date: April 2012 
! Description: Accu-P® Series, Thin Film, SMD, RF Capacitor
! Part Number: 08055J160FBTTR					
!	100	MHz	-	10.05	GHz			
!	Serial	Measurements						
!								
#	MHZ	S	MA	R	50			
!	S11	S21	S12	S22				
!	dB	Phase	dB	Phase	dB	Phase	dB	Phase
100	0.703	-45.267	0.71	44.675	0.71	44.675	0.703	-45.267
102.469	0.694	-45.972	0.719	43.969	0.719	43.969	0.694	-45.972
104.939	0.686	-46.659	0.727	43.28	0.727	43.28	0.686	-46.659
107.408	0.677	-47.33	0.735	42.608	0.735	42.608	0.677	-47.33
109.878	0.669	-47.984	0.743	41.952	0.743	41.952	0.669	-47.984
112.347	0.66	-48.623	0.75	41.312	0.75	41.312	0.66	-48.623
114.817	0.652	-49.247	0.758	40.687	0.758	40.687	0.652	-49.247
117.286	0.644	-49.855	0.764	40.077	0.764	40.077	0.644	-49.855
119.756	0.636	-50.449	0.771	39.481	0.771	39.481	0.636	-50.449
122.225	0.628	-51.029	0.777	38.9	0.777	38.9	0.628	-51.029
124.694	0.62	-51.595	0.784	38.333	0.784	38.333	0.62	-51.595
127.164	0.613	-52.148	0.79	37.779	0.79	37.779	0.613	-52.148
129.633	0.605	-52.687	0.795	37.237	0.795	37.237	0.605	-52.687
132.103	0.598	-53.214	0.801	36.709	0.801	36.709	0.598	-53.214
134.572	0.591	-53.729	0.806	36.193	0.806	36.193	0.591	-53.729
137.042	0.583	-54.232	0.811	35.688	0.811	35.688	0.583	-54.232
139.511	0.576	-54.723	0.816	35.195	0.816	35.195	0.576	-54.723
141.981	0.569	-55.204	0.821	34.714	0.821	34.714	0.569	-55.204
144.45	0.563	-55.673	0.826	34.243	0.826	34.243	0.563	-55.673
146.919	0.556	-56.131	0.83	33.783	0.83	33.783	0.556	-56.131
149.389	0.55	-56.58	0.835	33.333	0.835	33.333	0.55	-56.58
151.858	0.543	-57.018	0.839	32.893	0.839	32.893	0.543	-57.018
154.328	0.537	-57.447	0.843	32.463	0.843	32.463	0.537	-57.447
156.797	0.531	-57.866	0.847	32.043	0.847	32.043	0.531	-57.866
159.267	0.524	-58.276	0.851	31.631	0.851	31.631	0.524	-58.276
161.736	0.518	-58.677	0.854	31.229	0.854	31.229	0.518	-58.677
164.206	0.513	-59.069	0.858	30.835	0.858	30.835	0.513	-59.069
166.675	0.507	-59.453	0.861	30.449	0.861	30.449	0.507	-59.453
169.144	0.501	-59.829	0.865	30.072	0.865	30.072	0.501	-59.829
171.614	0.495	-60.197	0.868	29.703	0.868	29.703	0.495	-60.197
174.083	0.49	-60.557	0.871	29.341	0.871	29.341	0.49	-60.557
176.553	0.485	-60.91	0.874	28.987	0.874	28.987	0.485	-60.91
179.022	0.479	-61.256	0.877	28.64	0.877	28.64	0.479	-61.256
181.492	0.474	-61.594	0.88	28.3	0.88	28.3	0.474	-61.594
183.961	0.469	-61.925	0.882	27.967	0.882	27.967	0.469	-61.925
186.431	0.464	-62.25	0.885	27.64	0.885	27.64	0.464	-62.25
188.9	0.459	-62.569	0.888	27.321	0.888	27.321	0.459	-62.569
191.369	0.454	-62.881	0.89	27.007	0.89	27.007	0.454	-62.881
193.839	0.449	-63.186	0.892	26.7	0.892	26.7	0.449	-63.186
196.308	0.445	-63.486	0.895	26.398	0.895	26.398	0.445	-63.486
198.778	0.44	-63.78	0.897	26.103	0.897	26.103	0.44	-63.78
201.247	0.435	-64.069	0.899	25.813	0.899	25.813	0.435	-64.069
203.717	0.431	-64.351	0.901	25.529	0.901	25.529	0.431	-64.351
206.186	0.427	-64.629	0.904	25.25	0.904	25.25	0.427	-64.629
208.656	0.422	-64.901	0.906	24.976	0.906	24.976	0.422	-64.901
211.125	0.418	-65.168	0.908	24.707	0.908	24.707	0.418	-65.168
213.594	0.414	-65.43	0.909	24.444	0.909	24.444	0.414	-65.43
216.064	0.41	-65.688	0.911	24.185	0.911	24.185	0.41	-65.688
218.533	0.406	-65.94	0.913	23.93	0.913	23.93	0.406	-65.94
221.003	0.402	-66.189	0.915	23.681	0.915	23.681	0.402	-66.189
223.472	0.398	-66.432	0.917	23.436	0.917	23.436	0.398	-66.432
225.942	0.394	-66.671	0.918	23.195	0.918	23.195	0.394	-66.671
228.411	0.39	-66.907	0.92	22.958	0.92	22.958	0.39	-66.907
230.881	0.386	-67.137	0.921	22.726	0.921	22.726	0.386	-67.137
233.35	0.383	-67.364	0.923	22.497	0.923	22.497	0.383	-67.364
235.819	0.379	-67.587	0.924	22.273	0.924	22.273	0.379	-67.587
238.289	0.375	-67.806	0.926	22.052	0.926	22.052	0.375	-67.806
240.758	0.372	-68.022	0.927	21.835	0.927	21.835	0.372	-68.022
243.228	0.368	-68.234	0.929	21.622	0.929	21.622	0.368	-68.234
245.697	0.365	-68.442	0.93	21.412	0.93	21.412	0.365	-68.442
248.167	0.362	-68.647	0.931	21.206	0.931	21.206	0.362	-68.647
250.636	0.358	-68.848	0.933	21.003	0.933	21.003	0.358	-68.848
253.106	0.355	-69.046	0.934	20.803	0.934	20.803	0.355	-69.046
255.575	0.352	-69.241	0.935	20.607	0.935	20.607	0.352	-69.241
258.044	0.349	-69.432	0.936	20.414	0.936	20.414	0.349	-69.432
260.514	0.346	-69.621	0.937	20.224	0.937	20.224	0.346	-69.621
262.983	0.343	-69.807	0.939	20.036	0.939	20.036	0.343	-69.807
265.453	0.34	-69.989	0.94	19.852	0.94	19.852	0.34	-69.989
267.922	0.337	-70.169	0.941	19.671	0.941	19.671	0.337	-70.169
270.392	0.334	-70.346	0.942	19.492	0.942	19.492	0.334	-70.346
272.861	0.331	-70.52	0.943	19.316	0.943	19.316	0.331	-70.52
275.331	0.328	-70.692	0.944	19.143	0.944	19.143	0.328	-70.692
277.8	0.325	-70.861	0.945	18.973	0.945	18.973	0.325	-70.861
280.269	0.322	-71.027	0.946	18.805	0.946	18.805	0.322	-71.027
282.739	0.32	-71.191	0.947	18.639	0.947	18.639	0.32	-71.191
285.208	0.317	-71.353	0.948	18.476	0.948	18.476	0.317	-71.353
287.678	0.314	-71.512	0.948	18.315	0.948	18.315	0.314	-71.512
290.147	0.312	-71.668	0.949	18.157	0.949	18.157	0.312	-71.668
292.617	0.309	-71.823	0.95	18.001	0.95	18.001	0.309	-71.823
295.086	0.306	-71.975	0.951	17.847	0.951	17.847	0.306	-71.975
297.556	0.304	-72.125	0.952	17.696	0.952	17.696	0.304	-72.125
300.025	0.301	-72.273	0.953	17.546	0.953	17.546	0.301	-72.273
302.494	0.299	-72.419	0.953	17.399	0.953	17.399	0.299	-72.419
304.964	0.297	-72.562	0.954	17.253	0.954	17.253	0.297	-72.562
307.433	0.294	-72.704	0.955	17.11	0.955	17.11	0.294	-72.704
309.903	0.292	-72.844	0.956	16.969	0.956	16.969	0.292	-72.844
312.372	0.29	-72.982	0.956	16.829	0.956	16.829	0.29	-72.982
314.842	0.287	-73.118	0.957	16.692	0.957	16.692	0.287	-73.118
317.311	0.285	-73.252	0.958	16.556	0.958	16.556	0.285	-73.252
319.78	0.283	-73.384	0.958	16.422	0.958	16.422	0.283	-73.384
322.25	0.28	-73.514	0.959	16.29	0.959	16.29	0.28	-73.514
324.719	0.278	-73.643	0.96	16.159	0.96	16.159	0.278	-73.643
327.189	0.276	-73.77	0.96	16.031	0.96	16.031	0.276	-73.77
329.658	0.274	-73.896	0.961	15.904	0.961	15.904	0.274	-73.896
332.128	0.272	-74.019	0.961	15.778	0.961	15.778	0.272	-74.019
334.597	0.27	-74.141	0.962	15.654	0.962	15.654	0.27	-74.141
337.067	0.268	-74.262	0.963	15.532	0.963	15.532	0.268	-74.262
339.536	0.266	-74.381	0.963	15.411	0.963	15.411	0.266	-74.381
342.005	0.264	-74.498	0.964	15.292	0.964	15.292	0.264	-74.498
344.475	0.262	-74.614	0.964	15.175	0.964	15.175	0.262	-74.614
346.944	0.26	-74.729	0.965	15.058	0.965	15.058	0.26	-74.729
349.414	0.258	-74.842	0.965	14.943	0.965	14.943	0.258	-74.842
351.883	0.256	-74.954	0.966	14.83	0.966	14.83	0.256	-74.954
354.353	0.254	-75.064	0.966	14.718	0.966	14.718	0.254	-75.064
356.822	0.252	-75.173	0.967	14.607	0.967	14.607	0.252	-75.173
359.292	0.25	-75.281	0.967	14.498	0.967	14.498	0.25	-75.281
361.761	0.249	-75.387	0.968	14.39	0.968	14.39	0.249	-75.387
364.23	0.247	-75.492	0.968	14.283	0.968	14.283	0.247	-75.492
366.7	0.245	-75.596	0.969	14.177	0.969	14.177	0.245	-75.596
369.169	0.243	-75.699	0.969	14.073	0.969	14.073	0.243	-75.699
371.639	0.241	-75.8	0.969	13.97	0.969	13.97	0.241	-75.8
374.108	0.24	-75.9	0.97	13.868	0.97	13.868	0.24	-75.9
376.578	0.238	-75.999	0.97	13.767	0.97	13.767	0.238	-75.999
379.047	0.236	-76.097	0.971	13.668	0.971	13.668	0.236	-76.097
381.517	0.235	-76.194	0.971	13.569	0.971	13.569	0.235	-76.194
383.986	0.233	-76.289	0.972	13.472	0.972	13.472	0.233	-76.289
386.455	0.231	-76.384	0.972	13.375	0.972	13.375	0.231	-76.384
388.925	0.23	-76.478	0.972	13.28	0.972	13.28	0.23	-76.478
391.394	0.228	-76.57	0.973	13.186	0.973	13.186	0.228	-76.57
393.864	0.227	-76.661	0.973	13.092	0.973	13.092	0.227	-76.661
396.333	0.225	-76.752	0.973	13	0.973	13	0.225	-76.752
398.803	0.223	-76.841	0.974	12.909	0.974	12.909	0.223	-76.841
401.272	0.222	-76.93	0.974	12.819	0.974	12.819	0.222	-76.93
403.742	0.22	-77.017	0.974	12.729	0.974	12.729	0.22	-77.017
406.211	0.219	-77.104	0.975	12.641	0.975	12.641	0.219	-77.104
408.68	0.217	-77.189	0.975	12.554	0.975	12.554	0.217	-77.189
411.15	0.216	-77.274	0.975	12.467	0.975	12.467	0.216	-77.274
413.619	0.214	-77.358	0.976	12.382	0.976	12.382	0.214	-77.358
416.089	0.213	-77.44	0.976	12.297	0.976	12.297	0.213	-77.44
418.558	0.212	-77.522	0.976	12.213	0.976	12.213	0.212	-77.522
421.028	0.21	-77.604	0.977	12.13	0.977	12.13	0.21	-77.604
423.497	0.209	-77.684	0.977	12.048	0.977	12.048	0.209	-77.684
425.967	0.207	-77.763	0.977	11.966	0.977	11.966	0.207	-77.763
428.436	0.206	-77.842	0.978	11.886	0.978	11.886	0.206	-77.842
430.905	0.205	-77.92	0.978	11.806	0.978	11.806	0.205	-77.92
433.375	0.203	-77.997	0.978	11.727	0.978	11.727	0.203	-77.997
435.844	0.202	-78.073	0.978	11.649	0.978	11.649	0.202	-78.073
438.314	0.201	-78.149	0.979	11.572	0.979	11.572	0.201	-78.149
440.783	0.199	-78.223	0.979	11.495	0.979	11.495	0.199	-78.223
443.253	0.198	-78.297	0.979	11.419	0.979	11.419	0.198	-78.297
445.722	0.197	-78.371	0.979	11.344	0.979	11.344	0.197	-78.371
448.192	0.195	-78.443	0.98	11.269	0.98	11.269	0.195	-78.443
450.661	0.194	-78.515	0.98	11.196	0.98	11.196	0.194	-78.515
453.13	0.193	-78.586	0.98	11.122	0.98	11.122	0.193	-78.586
455.6	0.192	-78.657	0.98	11.05	0.98	11.05	0.192	-78.657
458.069	0.19	-78.727	0.981	10.978	0.981	10.978	0.19	-78.727
460.539	0.189	-78.796	0.981	10.907	0.981	10.907	0.189	-78.796
463.008	0.188	-78.864	0.981	10.837	0.981	10.837	0.188	-78.864
465.478	0.187	-78.932	0.981	10.767	0.981	10.767	0.187	-78.932
467.947	0.186	-78.999	0.982	10.698	0.982	10.698	0.186	-78.999
470.417	0.184	-79.066	0.982	10.629	0.982	10.629	0.184	-79.066
472.886	0.183	-79.132	0.982	10.561	0.982	10.561	0.183	-79.132
475.355	0.182	-79.197	0.982	10.494	0.982	10.494	0.182	-79.197
477.825	0.181	-79.262	0.983	10.427	0.983	10.427	0.181	-79.262
480.294	0.18	-79.326	0.983	10.361	0.983	10.361	0.18	-79.326
482.764	0.179	-79.389	0.983	10.296	0.983	10.296	0.179	-79.389
485.233	0.178	-79.452	0.983	10.231	0.983	10.231	0.178	-79.452
487.703	0.177	-79.514	0.983	10.166	0.983	10.166	0.177	-79.514
490.172	0.175	-79.576	0.984	10.102	0.984	10.102	0.175	-79.576
492.642	0.174	-79.637	0.984	10.039	0.984	10.039	0.174	-79.637
495.111	0.173	-79.698	0.984	9.976	0.984	9.976	0.173	-79.698
497.58	0.172	-79.758	0.984	9.914	0.984	9.914	0.172	-79.758
500.05	0.171	-79.818	0.984	9.852	0.984	9.852	0.171	-79.818
502.519	0.17	-79.877	0.984	9.791	0.984	9.791	0.17	-79.877
504.989	0.169	-79.936	0.985	9.73	0.985	9.73	0.169	-79.936
507.458	0.168	-79.994	0.985	9.67	0.985	9.67	0.168	-79.994
509.928	0.167	-80.051	0.985	9.611	0.985	9.611	0.167	-80.051
512.397	0.166	-80.108	0.985	9.551	0.985	9.551	0.166	-80.108
514.867	0.165	-80.165	0.985	9.493	0.985	9.493	0.165	-80.165
517.336	0.164	-80.221	0.985	9.434	0.985	9.434	0.164	-80.221
519.805	0.163	-80.277	0.986	9.377	0.986	9.377	0.163	-80.277
522.275	0.162	-80.332	0.986	9.319	0.986	9.319	0.162	-80.332
524.744	0.161	-80.387	0.986	9.262	0.986	9.262	0.161	-80.387
527.214	0.16	-80.441	0.986	9.206	0.986	9.206	0.16	-80.441
529.683	0.159	-80.495	0.986	9.15	0.986	9.15	0.159	-80.495
532.153	0.158	-80.548	0.986	9.094	0.986	9.094	0.158	-80.548
534.622	0.157	-80.601	0.987	9.039	0.987	9.039	0.157	-80.601
537.092	0.156	-80.653	0.987	8.985	0.987	8.985	0.156	-80.653
539.561	0.155	-80.705	0.987	8.93	0.987	8.93	0.155	-80.705
542.03	0.154	-80.757	0.987	8.877	0.987	8.877	0.154	-80.757
544.5	0.153	-80.808	0.987	8.823	0.987	8.823	0.153	-80.808
546.969	0.152	-80.859	0.987	8.77	0.987	8.77	0.152	-80.859
549.439	0.152	-80.909	0.987	8.717	0.987	8.717	0.152	-80.909
551.908	0.151	-80.959	0.988	8.665	0.988	8.665	0.151	-80.959
554.378	0.15	-81.009	0.988	8.613	0.988	8.613	0.15	-81.009
556.847	0.149	-81.058	0.988	8.562	0.988	8.562	0.149	-81.058
559.317	0.148	-81.107	0.988	8.511	0.988	8.511	0.148	-81.107
561.786	0.147	-81.155	0.988	8.46	0.988	8.46	0.147	-81.155
564.255	0.146	-81.203	0.988	8.41	0.988	8.41	0.146	-81.203
566.725	0.145	-81.251	0.988	8.36	0.988	8.36	0.145	-81.251
569.194	0.145	-81.298	0.989	8.31	0.989	8.31	0.145	-81.298
571.664	0.144	-81.345	0.989	8.261	0.989	8.261	0.144	-81.345
574.133	0.143	-81.391	0.989	8.212	0.989	8.212	0.143	-81.391
576.603	0.142	-81.437	0.989	8.164	0.989	8.164	0.142	-81.437
579.072	0.141	-81.483	0.989	8.115	0.989	8.115	0.141	-81.483
581.542	0.14	-81.529	0.989	8.067	0.989	8.067	0.14	-81.529
584.011	0.14	-81.574	0.989	8.02	0.989	8.02	0.14	-81.574
586.48	0.139	-81.619	0.989	7.973	0.989	7.973	0.139	-81.619
588.95	0.138	-81.663	0.989	7.926	0.989	7.926	0.138	-81.663
591.419	0.137	-81.707	0.99	7.879	0.99	7.879	0.137	-81.707
593.889	0.136	-81.751	0.99	7.833	0.99	7.833	0.136	-81.751
596.358	0.135	-81.794	0.99	7.787	0.99	7.787	0.135	-81.794
598.828	0.135	-81.837	0.99	7.741	0.99	7.741	0.135	-81.837
601.297	0.134	-81.88	0.99	7.696	0.99	7.696	0.134	-81.88
603.767	0.133	-81.923	0.99	7.651	0.99	7.651	0.133	-81.923
606.236	0.132	-81.965	0.99	7.606	0.99	7.606	0.132	-81.965
608.705	0.132	-82.007	0.99	7.562	0.99	7.562	0.132	-82.007
611.175	0.131	-82.048	0.99	7.518	0.99	7.518	0.131	-82.048
613.644	0.13	-82.089	0.991	7.474	0.991	7.474	0.13	-82.089
616.114	0.129	-82.13	0.991	7.431	0.991	7.431	0.129	-82.13
618.583	0.129	-82.171	0.991	7.387	0.991	7.387	0.129	-82.171
621.053	0.128	-82.211	0.991	7.344	0.991	7.344	0.128	-82.211
623.522	0.127	-82.251	0.991	7.302	0.991	7.302	0.127	-82.251
625.992	0.126	-82.291	0.991	7.259	0.991	7.259	0.126	-82.291
628.461	0.126	-82.331	0.991	7.217	0.991	7.217	0.126	-82.331
630.93	0.125	-82.37	0.991	7.175	0.991	7.175	0.125	-82.37
633.4	0.124	-82.409	0.991	7.134	0.991	7.134	0.124	-82.409
635.869	0.123	-82.448	0.991	7.092	0.991	7.092	0.123	-82.448
638.339	0.123	-82.486	0.991	7.051	0.991	7.051	0.123	-82.486
640.808	0.122	-82.524	0.992	7.01	0.992	7.01	0.122	-82.524
643.278	0.121	-82.562	0.992	6.97	0.992	6.97	0.121	-82.562
645.747	0.121	-82.6	0.992	6.929	0.992	6.929	0.121	-82.6
648.217	0.12	-82.637	0.992	6.889	0.992	6.889	0.12	-82.637
650.686	0.119	-82.674	0.992	6.85	0.992	6.85	0.119	-82.674
653.155	0.119	-82.711	0.992	6.81	0.992	6.81	0.119	-82.711
655.625	0.118	-82.747	0.992	6.771	0.992	6.771	0.118	-82.747
658.094	0.117	-82.784	0.992	6.731	0.992	6.731	0.117	-82.784
660.564	0.117	-82.82	0.992	6.693	0.992	6.693	0.117	-82.82
663.033	0.116	-82.855	0.992	6.654	0.992	6.654	0.116	-82.855
665.503	0.115	-82.891	0.992	6.615	0.992	6.615	0.115	-82.891
667.972	0.115	-82.926	0.992	6.577	0.992	6.577	0.115	-82.926
670.442	0.114	-82.961	0.993	6.539	0.993	6.539	0.114	-82.961
672.911	0.113	-82.996	0.993	6.501	0.993	6.501	0.113	-82.996
675.38	0.113	-83.031	0.993	6.464	0.993	6.464	0.113	-83.031
677.85	0.112	-83.065	0.993	6.427	0.993	6.427	0.112	-83.065
680.319	0.111	-83.099	0.993	6.39	0.993	6.39	0.111	-83.099
682.789	0.111	-83.133	0.993	6.353	0.993	6.353	0.111	-83.133
685.258	0.11	-83.167	0.993	6.316	0.993	6.316	0.11	-83.167
687.728	0.109	-83.2	0.993	6.279	0.993	6.279	0.109	-83.2
690.197	0.109	-83.234	0.993	6.243	0.993	6.243	0.109	-83.234
692.667	0.108	-83.267	0.993	6.207	0.993	6.207	0.108	-83.267
695.136	0.108	-83.299	0.993	6.171	0.993	6.171	0.108	-83.299
697.605	0.107	-83.332	0.993	6.136	0.993	6.136	0.107	-83.332
700.075	0.106	-83.364	0.993	6.1	0.993	6.1	0.106	-83.364
702.544	0.106	-83.396	0.993	6.065	0.993	6.065	0.106	-83.396
705.014	0.105	-83.428	0.993	6.03	0.993	6.03	0.105	-83.428
707.483	0.104	-83.46	0.994	5.995	0.994	5.995	0.104	-83.46
709.953	0.104	-83.492	0.994	5.96	0.994	5.96	0.104	-83.492
712.422	0.103	-83.523	0.994	5.926	0.994	5.926	0.103	-83.523
714.891	0.103	-83.554	0.994	5.891	0.994	5.891	0.103	-83.554
717.361	0.102	-83.585	0.994	5.857	0.994	5.857	0.102	-83.585
719.83	0.101	-83.615	0.994	5.823	0.994	5.823	0.101	-83.615
722.3	0.101	-83.646	0.994	5.789	0.994	5.789	0.101	-83.646
724.769	0.1	-83.676	0.994	5.756	0.994	5.756	0.1	-83.676
727.239	0.1	-83.706	0.994	5.722	0.994	5.722	0.1	-83.706
729.708	0.099	-83.736	0.994	5.689	0.994	5.689	0.099	-83.736
732.178	0.099	-83.766	0.994	5.656	0.994	5.656	0.099	-83.766
734.647	0.098	-83.795	0.994	5.623	0.994	5.623	0.098	-83.795
737.116	0.097	-83.825	0.994	5.59	0.994	5.59	0.097	-83.825
739.586	0.097	-83.854	0.994	5.558	0.994	5.558	0.097	-83.854
742.055	0.096	-83.883	0.994	5.525	0.994	5.525	0.096	-83.883
744.525	0.096	-83.912	0.994	5.493	0.994	5.493	0.096	-83.912
746.994	0.095	-83.94	0.994	5.461	0.994	5.461	0.095	-83.94
749.464	0.095	-83.968	0.995	5.429	0.995	5.429	0.095	-83.968
751.933	0.094	-83.997	0.995	5.397	0.995	5.397	0.094	-83.997
754.403	0.094	-84.025	0.995	5.366	0.995	5.366	0.094	-84.025
756.872	0.093	-84.052	0.995	5.334	0.995	5.334	0.093	-84.052
759.341	0.092	-84.08	0.995	5.303	0.995	5.303	0.092	-84.08
761.811	0.092	-84.108	0.995	5.272	0.995	5.272	0.092	-84.108
764.28	0.091	-84.135	0.995	5.241	0.995	5.241	0.091	-84.135
766.75	0.091	-84.162	0.995	5.21	0.995	5.21	0.091	-84.162
769.219	0.09	-84.189	0.995	5.18	0.995	5.18	0.09	-84.189
771.689	0.09	-84.216	0.995	5.149	0.995	5.149	0.09	-84.216
774.158	0.089	-84.242	0.995	5.119	0.995	5.119	0.089	-84.242
776.628	0.089	-84.269	0.995	5.088	0.995	5.088	0.089	-84.269
779.097	0.088	-84.295	0.995	5.058	0.995	5.058	0.088	-84.295
781.566	0.088	-84.321	0.995	5.028	0.995	5.028	0.088	-84.321
784.036	0.087	-84.347	0.995	4.999	0.995	4.999	0.087	-84.347
786.505	0.087	-84.373	0.995	4.969	0.995	4.969	0.087	-84.373
788.975	0.086	-84.398	0.995	4.939	0.995	4.939	0.086	-84.398
791.444	0.086	-84.424	0.995	4.91	0.995	4.91	0.086	-84.424
793.914	0.085	-84.449	0.995	4.881	0.995	4.881	0.085	-84.449
796.383	0.085	-84.474	0.995	4.852	0.995	4.852	0.085	-84.474
798.853	0.084	-84.499	0.995	4.823	0.995	4.823	0.084	-84.499
801.322	0.084	-84.524	0.996	4.794	0.996	4.794	0.084	-84.524
803.791	0.083	-84.548	0.996	4.765	0.996	4.765	0.083	-84.548
806.261	0.083	-84.573	0.996	4.736	0.996	4.736	0.083	-84.573
808.73	0.082	-84.597	0.996	4.708	0.996	4.708	0.082	-84.597
811.2	0.082	-84.621	0.996	4.68	0.996	4.68	0.082	-84.621
813.669	0.081	-84.645	0.996	4.652	0.996	4.652	0.081	-84.645
816.139	0.081	-84.669	0.996	4.623	0.996	4.623	0.081	-84.669
818.608	0.08	-84.692	0.996	4.595	0.996	4.595	0.08	-84.692
821.078	0.08	-84.716	0.996	4.568	0.996	4.568	0.08	-84.716
823.547	0.079	-84.739	0.996	4.54	0.996	4.54	0.079	-84.739
826.016	0.079	-84.762	0.996	4.512	0.996	4.512	0.079	-84.762
828.486	0.078	-84.785	0.996	4.485	0.996	4.485	0.078	-84.785
830.955	0.078	-84.808	0.996	4.458	0.996	4.458	0.078	-84.808
833.425	0.077	-84.831	0.996	4.43	0.996	4.43	0.077	-84.831
835.894	0.077	-84.853	0.996	4.403	0.996	4.403	0.077	-84.853
838.364	0.076	-84.876	0.996	4.376	0.996	4.376	0.076	-84.876
840.833	0.076	-84.898	0.996	4.349	0.996	4.349	0.076	-84.898
843.303	0.075	-84.92	0.996	4.323	0.996	4.323	0.075	-84.92
845.772	0.075	-84.942	0.996	4.296	0.996	4.296	0.075	-84.942
848.241	0.074	-84.964	0.996	4.269	0.996	4.269	0.074	-84.964
850.711	0.074	-84.985	0.996	4.243	0.996	4.243	0.074	-84.985
853.18	0.074	-85.007	0.996	4.217	0.996	4.217	0.074	-85.007
855.65	0.073	-85.028	0.996	4.19	0.996	4.19	0.073	-85.028
858.119	0.073	-85.049	0.996	4.164	0.996	4.164	0.073	-85.049
860.589	0.072	-85.07	0.996	4.138	0.996	4.138	0.072	-85.07
863.058	0.072	-85.091	0.996	4.112	0.996	4.112	0.072	-85.091
865.528	0.071	-85.112	0.996	4.087	0.996	4.087	0.071	-85.112
867.997	0.071	-85.133	0.996	4.061	0.996	4.061	0.071	-85.133
870.466	0.07	-85.153	0.997	4.035	0.997	4.035	0.07	-85.153
872.936	0.07	-85.173	0.997	4.01	0.997	4.01	0.07	-85.173
875.405	0.069	-85.194	0.997	3.985	0.997	3.985	0.069	-85.194
877.875	0.069	-85.214	0.997	3.959	0.997	3.959	0.069	-85.214
880.344	0.069	-85.233	0.997	3.934	0.997	3.934	0.069	-85.233
882.814	0.068	-85.253	0.997	3.909	0.997	3.909	0.068	-85.253
885.283	0.068	-85.273	0.997	3.884	0.997	3.884	0.068	-85.273
887.753	0.067	-85.292	0.997	3.859	0.997	3.859	0.067	-85.292
890.222	0.067	-85.311	0.997	3.835	0.997	3.835	0.067	-85.311
892.691	0.066	-85.331	0.997	3.81	0.997	3.81	0.066	-85.331
895.161	0.066	-85.35	0.997	3.785	0.997	3.785	0.066	-85.35
897.63	0.066	-85.368	0.997	3.761	0.997	3.761	0.066	-85.368
900.1	0.065	-85.387	0.997	3.736	0.997	3.736	0.065	-85.387
902.569	0.065	-85.406	0.997	3.712	0.997	3.712	0.065	-85.406
905.039	0.064	-85.424	0.997	3.688	0.997	3.688	0.064	-85.424
907.508	0.064	-85.442	0.997	3.664	0.997	3.664	0.064	-85.442
909.978	0.063	-85.46	0.997	3.64	0.997	3.64	0.063	-85.46
