! AVX Thin Film Operation		Date: April 2012 
! Description: Accu-P® Series, Thin Film, SMD, RF Capacitor
! Part Number: 08051J6R2BBTTR					
!	100	MHz	-	10.05	GHz			
!	Serial	Measurements						
!								
#	MHZ	S	MA	R	50			
!	S11	S21	S12	S22				
!	dB	Phase	dB	Phase	dB	Phase	dB	Phase
100	0.931	-21.316	0.364	68.657	0.364	68.657	0.931	-21.316
102.469	0.928	-21.796	0.371	68.177	0.371	68.177	0.928	-21.796
104.939	0.925	-22.272	0.379	67.7	0.379	67.7	0.925	-22.272
107.408	0.922	-22.745	0.387	67.226	0.387	67.226	0.922	-22.745
109.878	0.919	-23.215	0.394	66.756	0.394	66.756	0.919	-23.215
112.347	0.916	-23.682	0.402	66.288	0.402	66.288	0.916	-23.682
114.817	0.912	-24.145	0.409	65.824	0.409	65.824	0.912	-24.145
117.286	0.909	-24.606	0.416	65.363	0.416	65.363	0.909	-24.606
119.756	0.906	-25.063	0.424	64.905	0.424	64.905	0.906	-25.063
122.225	0.902	-25.517	0.431	64.45	0.431	64.45	0.902	-25.517
124.694	0.899	-25.967	0.438	63.999	0.438	63.999	0.899	-25.967
127.164	0.895	-26.415	0.445	63.551	0.445	63.551	0.895	-26.415
129.633	0.892	-26.859	0.452	63.106	0.452	63.106	0.892	-26.859
132.103	0.888	-27.299	0.459	62.665	0.459	62.665	0.888	-27.299
134.572	0.885	-27.737	0.465	62.227	0.465	62.227	0.885	-27.737
137.042	0.881	-28.171	0.472	61.792	0.472	61.792	0.881	-28.171
139.511	0.878	-28.602	0.479	61.361	0.479	61.361	0.878	-28.602
141.981	0.874	-29.029	0.485	60.933	0.485	60.933	0.874	-29.029
144.45	0.87	-29.453	0.492	60.508	0.492	60.508	0.87	-29.453
146.919	0.867	-29.874	0.498	60.087	0.498	60.087	0.867	-29.874
149.389	0.863	-30.291	0.504	59.669	0.504	59.669	0.863	-30.291
151.858	0.859	-30.705	0.511	59.254	0.511	59.254	0.859	-30.705
154.328	0.856	-31.115	0.517	58.843	0.517	58.843	0.856	-31.115
156.797	0.852	-31.523	0.523	58.435	0.523	58.435	0.852	-31.523
159.267	0.848	-31.926	0.529	58.031	0.529	58.031	0.848	-31.926
161.736	0.845	-32.327	0.535	57.629	0.535	57.629	0.845	-32.327
164.206	0.841	-32.724	0.541	57.232	0.541	57.232	0.841	-32.724
166.675	0.837	-33.118	0.546	56.837	0.546	56.837	0.837	-33.118
169.144	0.833	-33.508	0.552	56.446	0.552	56.446	0.833	-33.508
171.614	0.83	-33.895	0.558	56.058	0.558	56.058	0.83	-33.895
174.083	0.826	-34.279	0.563	55.674	0.563	55.674	0.826	-34.279
176.553	0.822	-34.66	0.569	55.293	0.569	55.293	0.822	-34.66
179.022	0.818	-35.037	0.574	54.915	0.574	54.915	0.818	-35.037
181.492	0.815	-35.411	0.579	54.54	0.579	54.54	0.815	-35.411
183.961	0.811	-35.781	0.585	54.169	0.585	54.169	0.811	-35.781
186.431	0.807	-36.149	0.59	53.801	0.59	53.801	0.807	-36.149
188.9	0.803	-36.513	0.595	53.436	0.595	53.436	0.803	-36.513
191.369	0.799	-36.874	0.6	53.075	0.6	53.075	0.799	-36.874
193.839	0.796	-37.231	0.605	52.716	0.605	52.716	0.796	-37.231
196.308	0.792	-37.586	0.61	52.361	0.61	52.361	0.792	-37.586
198.778	0.788	-37.937	0.615	52.009	0.615	52.009	0.788	-37.937
201.247	0.784	-38.285	0.62	51.66	0.62	51.66	0.784	-38.285
203.717	0.781	-38.63	0.624	51.315	0.624	51.315	0.781	-38.63
206.186	0.777	-38.972	0.629	50.972	0.629	50.972	0.777	-38.972
208.656	0.773	-39.311	0.634	50.633	0.634	50.633	0.773	-39.311
211.125	0.769	-39.647	0.638	50.296	0.638	50.296	0.769	-39.647
213.594	0.766	-39.979	0.643	49.963	0.643	49.963	0.766	-39.979
216.064	0.762	-40.309	0.647	49.633	0.647	49.633	0.762	-40.309
218.533	0.758	-40.636	0.651	49.305	0.651	49.305	0.758	-40.636
221.003	0.754	-40.959	0.656	48.981	0.656	48.981	0.754	-40.959
223.472	0.751	-41.28	0.66	48.66	0.66	48.66	0.751	-41.28
225.942	0.747	-41.598	0.664	48.341	0.664	48.341	0.747	-41.598
228.411	0.743	-41.913	0.668	48.026	0.668	48.026	0.743	-41.913
230.881	0.74	-42.224	0.672	47.713	0.672	47.713	0.74	-42.224
233.35	0.736	-42.533	0.676	47.403	0.676	47.403	0.736	-42.533
235.819	0.733	-42.84	0.68	47.096	0.68	47.096	0.733	-42.84
238.289	0.729	-43.143	0.684	46.792	0.684	46.792	0.729	-43.143
240.758	0.725	-43.444	0.688	46.491	0.688	46.491	0.725	-43.444
243.228	0.722	-43.741	0.691	46.193	0.691	46.193	0.722	-43.741
245.697	0.718	-44.036	0.695	45.897	0.695	45.897	0.718	-44.036
248.167	0.715	-44.329	0.699	45.604	0.699	45.604	0.715	-44.329
250.636	0.711	-44.618	0.702	45.314	0.702	45.314	0.711	-44.618
253.106	0.707	-44.905	0.706	45.026	0.706	45.026	0.707	-44.905
255.575	0.704	-45.189	0.709	44.741	0.709	44.741	0.704	-45.189
258.044	0.7	-45.471	0.713	44.459	0.713	44.459	0.7	-45.471
260.514	0.697	-45.75	0.716	44.179	0.716	44.179	0.697	-45.75
262.983	0.693	-46.026	0.72	43.902	0.72	43.902	0.693	-46.026
265.453	0.69	-46.3	0.723	43.628	0.723	43.628	0.69	-46.3
267.922	0.687	-46.572	0.726	43.356	0.726	43.356	0.687	-46.572
270.392	0.683	-46.84	0.729	43.086	0.729	43.086	0.683	-46.84
272.861	0.68	-47.107	0.733	42.819	0.733	42.819	0.68	-47.107
275.331	0.676	-47.371	0.736	42.555	0.736	42.555	0.676	-47.371
277.8	0.673	-47.632	0.739	42.292	0.739	42.292	0.673	-47.632
280.269	0.67	-47.891	0.742	42.033	0.742	42.033	0.67	-47.891
282.739	0.666	-48.148	0.745	41.775	0.745	41.775	0.666	-48.148
285.208	0.663	-48.402	0.748	41.521	0.748	41.521	0.663	-48.402
287.678	0.66	-48.654	0.751	41.268	0.751	41.268	0.66	-48.654
290.147	0.656	-48.903	0.754	41.018	0.754	41.018	0.656	-48.903
292.617	0.653	-49.151	0.756	40.77	0.756	40.77	0.653	-49.151
295.086	0.65	-49.396	0.759	40.524	0.759	40.524	0.65	-49.396
297.556	0.647	-49.639	0.762	40.28	0.762	40.28	0.647	-49.639
300.025	0.643	-49.879	0.765	40.039	0.765	40.039	0.643	-49.879
302.494	0.64	-50.118	0.767	39.8	0.767	39.8	0.64	-50.118
304.964	0.637	-50.354	0.77	39.563	0.77	39.563	0.637	-50.354
307.433	0.634	-50.588	0.773	39.328	0.773	39.328	0.634	-50.588
309.903	0.631	-50.82	0.775	39.096	0.775	39.096	0.631	-50.82
312.372	0.627	-51.05	0.778	38.865	0.778	38.865	0.627	-51.05
314.842	0.624	-51.277	0.78	38.637	0.78	38.637	0.624	-51.277
317.311	0.621	-51.503	0.783	38.41	0.783	38.41	0.621	-51.503
319.78	0.618	-51.727	0.785	38.186	0.785	38.186	0.618	-51.727
322.25	0.615	-51.948	0.787	37.964	0.787	37.964	0.615	-51.948
324.719	0.612	-52.168	0.79	37.743	0.79	37.743	0.612	-52.168
327.189	0.609	-52.386	0.792	37.525	0.792	37.525	0.609	-52.386
329.658	0.606	-52.601	0.794	37.308	0.794	37.308	0.606	-52.601
332.128	0.603	-52.815	0.797	37.094	0.797	37.094	0.603	-52.815
334.597	0.6	-53.027	0.799	36.881	0.799	36.881	0.6	-53.027
337.067	0.597	-53.237	0.801	36.671	0.801	36.671	0.597	-53.237
339.536	0.594	-53.445	0.803	36.462	0.803	36.462	0.594	-53.445
342.005	0.591	-53.651	0.805	36.255	0.805	36.255	0.591	-53.651
344.475	0.588	-53.856	0.808	36.05	0.808	36.05	0.588	-53.856
346.944	0.586	-54.059	0.81	35.846	0.81	35.846	0.586	-54.059
349.414	0.583	-54.259	0.812	35.645	0.812	35.645	0.583	-54.259
351.883	0.58	-54.458	0.814	35.445	0.814	35.445	0.58	-54.458
354.353	0.577	-54.656	0.816	35.247	0.816	35.247	0.577	-54.656
356.822	0.574	-54.851	0.818	35.051	0.818	35.051	0.574	-54.851
359.292	0.572	-55.045	0.82	34.856	0.82	34.856	0.572	-55.045
361.761	0.569	-55.238	0.822	34.663	0.822	34.663	0.569	-55.238
364.23	0.566	-55.428	0.823	34.472	0.823	34.472	0.566	-55.428
366.7	0.563	-55.617	0.825	34.282	0.825	34.282	0.563	-55.617
369.169	0.561	-55.804	0.827	34.094	0.827	34.094	0.561	-55.804
371.639	0.558	-55.99	0.829	33.908	0.829	33.908	0.558	-55.99
374.108	0.555	-56.174	0.831	33.723	0.831	33.723	0.555	-56.174
376.578	0.553	-56.356	0.833	33.54	0.833	33.54	0.553	-56.356
379.047	0.55	-56.537	0.834	33.358	0.834	33.358	0.55	-56.537
381.517	0.547	-56.717	0.836	33.178	0.836	33.178	0.547	-56.717
383.986	0.545	-56.895	0.838	33	0.838	33	0.545	-56.895
386.455	0.542	-57.071	0.839	32.823	0.839	32.823	0.542	-57.071
388.925	0.539	-57.246	0.841	32.647	0.841	32.647	0.539	-57.246
391.394	0.537	-57.419	0.843	32.473	0.843	32.473	0.537	-57.419
393.864	0.534	-57.591	0.844	32.3	0.844	32.3	0.534	-57.591
396.333	0.532	-57.761	0.846	32.129	0.846	32.129	0.532	-57.761
398.803	0.529	-57.931	0.847	31.959	0.847	31.959	0.529	-57.931
401.272	0.527	-58.098	0.849	31.791	0.849	31.791	0.527	-58.098
403.742	0.524	-58.264	0.85	31.624	0.85	31.624	0.524	-58.264
406.211	0.522	-58.429	0.852	31.458	0.852	31.458	0.522	-58.429
408.68	0.519	-58.593	0.853	31.294	0.853	31.294	0.519	-58.593
411.15	0.517	-58.755	0.855	31.131	0.855	31.131	0.517	-58.755
413.619	0.515	-58.916	0.856	30.97	0.856	30.97	0.515	-58.916
416.089	0.512	-59.075	0.858	30.81	0.858	30.81	0.512	-59.075
418.558	0.51	-59.233	0.859	30.651	0.859	30.651	0.51	-59.233
421.028	0.507	-59.39	0.861	30.493	0.861	30.493	0.507	-59.39
423.497	0.505	-59.546	0.862	30.337	0.862	30.337	0.505	-59.546
425.967	0.503	-59.7	0.863	30.182	0.863	30.182	0.503	-59.7
428.436	0.5	-59.853	0.865	30.028	0.865	30.028	0.5	-59.853
430.905	0.498	-60.005	0.866	29.875	0.866	29.875	0.498	-60.005
433.375	0.496	-60.156	0.867	29.724	0.867	29.724	0.496	-60.156
435.844	0.494	-60.305	0.869	29.574	0.869	29.574	0.494	-60.305
438.314	0.491	-60.453	0.87	29.425	0.87	29.425	0.491	-60.453
440.783	0.489	-60.6	0.871	29.277	0.871	29.277	0.489	-60.6
443.253	0.487	-60.746	0.872	29.131	0.872	29.131	0.487	-60.746
445.722	0.485	-60.891	0.874	28.985	0.874	28.985	0.485	-60.891
448.192	0.482	-61.034	0.875	28.841	0.875	28.841	0.482	-61.034
450.661	0.48	-61.177	0.876	28.698	0.876	28.698	0.48	-61.177
453.13	0.478	-61.318	0.877	28.555	0.877	28.555	0.478	-61.318
455.6	0.476	-61.458	0.878	28.415	0.878	28.415	0.476	-61.458
458.069	0.474	-61.598	0.88	28.275	0.88	28.275	0.474	-61.598
460.539	0.472	-61.736	0.881	28.136	0.881	28.136	0.472	-61.736
463.008	0.469	-61.873	0.882	27.998	0.882	27.998	0.469	-61.873
465.478	0.467	-62.009	0.883	27.861	0.883	27.861	0.467	-62.009
467.947	0.465	-62.143	0.884	27.726	0.884	27.726	0.465	-62.143
470.417	0.463	-62.277	0.885	27.591	0.885	27.591	0.463	-62.277
472.886	0.461	-62.41	0.886	27.458	0.886	27.458	0.461	-62.41
475.355	0.459	-62.542	0.887	27.325	0.887	27.325	0.459	-62.542
477.825	0.457	-62.673	0.888	27.194	0.888	27.194	0.457	-62.673
480.294	0.455	-62.802	0.889	27.063	0.889	27.063	0.455	-62.802
482.764	0.453	-62.931	0.89	26.934	0.89	26.934	0.453	-62.931
485.233	0.451	-63.059	0.891	26.805	0.891	26.805	0.451	-63.059
487.703	0.449	-63.186	0.892	26.677	0.892	26.677	0.449	-63.186
490.172	0.447	-63.312	0.893	26.551	0.893	26.551	0.447	-63.312
492.642	0.445	-63.437	0.894	26.425	0.894	26.425	0.445	-63.437
495.111	0.443	-63.561	0.895	26.3	0.895	26.3	0.443	-63.561
497.58	0.441	-63.684	0.896	26.176	0.896	26.176	0.441	-63.684
500.05	0.439	-63.806	0.897	26.053	0.897	26.053	0.439	-63.806
502.519	0.437	-63.928	0.898	25.931	0.898	25.931	0.437	-63.928
504.989	0.435	-64.048	0.899	25.81	0.899	25.81	0.435	-64.048
507.458	0.433	-64.168	0.9	25.69	0.9	25.69	0.433	-64.168
509.928	0.432	-64.286	0.901	25.57	0.901	25.57	0.432	-64.286
512.397	0.43	-64.404	0.902	25.451	0.902	25.451	0.43	-64.404
514.867	0.428	-64.521	0.903	25.334	0.903	25.334	0.428	-64.521
517.336	0.426	-64.637	0.904	25.217	0.904	25.217	0.426	-64.637
519.805	0.424	-64.753	0.904	25.101	0.904	25.101	0.424	-64.753
522.275	0.422	-64.867	0.905	24.986	0.905	24.986	0.422	-64.867
524.744	0.421	-64.981	0.906	24.871	0.906	24.871	0.421	-64.981
527.214	0.419	-65.093	0.907	24.758	0.907	24.758	0.419	-65.093
529.683	0.417	-65.205	0.908	24.645	0.908	24.645	0.417	-65.205
532.153	0.415	-65.317	0.909	24.533	0.909	24.533	0.415	-65.317
534.622	0.413	-65.427	0.909	24.422	0.909	24.422	0.413	-65.427
537.092	0.412	-65.537	0.91	24.311	0.91	24.311	0.412	-65.537
539.561	0.41	-65.646	0.911	24.201	0.911	24.201	0.41	-65.646
542.03	0.408	-65.754	0.912	24.093	0.912	24.093	0.408	-65.754
544.5	0.406	-65.861	0.913	23.984	0.913	23.984	0.406	-65.861
546.969	0.405	-65.968	0.913	23.877	0.913	23.877	0.405	-65.968
549.439	0.403	-66.074	0.914	23.77	0.914	23.77	0.403	-66.074
551.908	0.401	-66.179	0.915	23.664	0.915	23.664	0.401	-66.179
554.378	0.4	-66.283	0.916	23.559	0.916	23.559	0.4	-66.283
556.847	0.398	-66.387	0.916	23.455	0.916	23.455	0.398	-66.387
559.317	0.396	-66.49	0.917	23.351	0.917	23.351	0.396	-66.49
561.786	0.395	-66.592	0.918	23.248	0.918	23.248	0.395	-66.592
564.255	0.393	-66.694	0.918	23.145	0.918	23.145	0.393	-66.694
566.725	0.391	-66.795	0.919	23.044	0.919	23.044	0.391	-66.795
569.194	0.39	-66.895	0.92	22.943	0.92	22.943	0.39	-66.895
571.664	0.388	-66.994	0.92	22.842	0.92	22.842	0.388	-66.994
574.133	0.387	-67.093	0.921	22.743	0.921	22.743	0.387	-67.093
576.603	0.385	-67.192	0.922	22.644	0.922	22.644	0.385	-67.192
579.072	0.383	-67.289	0.922	22.545	0.922	22.545	0.383	-67.289
581.542	0.382	-67.386	0.923	22.448	0.923	22.448	0.382	-67.386
584.011	0.38	-67.482	0.924	22.351	0.924	22.351	0.38	-67.482
586.48	0.379	-67.578	0.924	22.254	0.924	22.254	0.379	-67.578
588.95	0.377	-67.673	0.925	22.158	0.925	22.158	0.377	-67.673
591.419	0.376	-67.767	0.926	22.063	0.926	22.063	0.376	-67.767
593.889	0.374	-67.861	0.926	21.969	0.926	21.969	0.374	-67.861
596.358	0.373	-67.954	0.927	21.875	0.927	21.875	0.373	-67.954
598.828	0.371	-68.047	0.927	21.781	0.927	21.781	0.371	-68.047
601.297	0.37	-68.139	0.928	21.688	0.928	21.688	0.37	-68.139
603.767	0.368	-68.23	0.929	21.596	0.929	21.596	0.368	-68.23
606.236	0.367	-68.321	0.929	21.505	0.929	21.505	0.367	-68.321
608.705	0.365	-68.411	0.93	21.414	0.93	21.414	0.365	-68.411
611.175	0.364	-68.501	0.93	21.323	0.93	21.323	0.364	-68.501
613.644	0.362	-68.59	0.931	21.233	0.931	21.233	0.362	-68.59
616.114	0.361	-68.678	0.932	21.144	0.932	21.144	0.361	-68.678
618.583	0.359	-68.766	0.932	21.055	0.932	21.055	0.359	-68.766
621.053	0.358	-68.853	0.933	20.967	0.933	20.967	0.358	-68.853
623.522	0.356	-68.94	0.933	20.88	0.933	20.88	0.356	-68.94
625.992	0.355	-69.026	0.934	20.793	0.934	20.793	0.355	-69.026
628.461	0.354	-69.112	0.934	20.706	0.934	20.706	0.354	-69.112
630.93	0.352	-69.197	0.935	20.62	0.935	20.62	0.352	-69.197
633.4	0.351	-69.282	0.935	20.535	0.935	20.535	0.351	-69.282
635.869	0.349	-69.366	0.936	20.45	0.936	20.45	0.349	-69.366
638.339	0.348	-69.45	0.936	20.365	0.936	20.365	0.348	-69.45
640.808	0.347	-69.533	0.937	20.281	0.937	20.281	0.347	-69.533
643.278	0.345	-69.615	0.937	20.198	0.937	20.198	0.345	-69.615
645.747	0.344	-69.697	0.938	20.115	0.938	20.115	0.344	-69.697
648.217	0.343	-69.779	0.938	20.033	0.938	20.033	0.343	-69.779
650.686	0.341	-69.86	0.939	19.951	0.939	19.951	0.341	-69.86
653.155	0.34	-69.941	0.939	19.869	0.939	19.869	0.34	-69.941
655.625	0.339	-70.021	0.94	19.788	0.94	19.788	0.339	-70.021
658.094	0.337	-70.1	0.94	19.708	0.94	19.708	0.337	-70.1
660.564	0.336	-70.18	0.941	19.628	0.941	19.628	0.336	-70.18
663.033	0.335	-70.258	0.941	19.548	0.941	19.548	0.335	-70.258
665.503	0.333	-70.336	0.942	19.469	0.942	19.469	0.333	-70.336
667.972	0.332	-70.414	0.942	19.391	0.942	19.391	0.332	-70.414
670.442	0.331	-70.491	0.943	19.313	0.943	19.313	0.331	-70.491
672.911	0.329	-70.568	0.943	19.235	0.943	19.235	0.329	-70.568
675.38	0.328	-70.645	0.943	19.158	0.943	19.158	0.328	-70.645
677.85	0.327	-70.72	0.944	19.081	0.944	19.081	0.327	-70.72
680.319	0.326	-70.796	0.944	19.005	0.944	19.005	0.326	-70.796
682.789	0.324	-70.871	0.945	18.929	0.945	18.929	0.324	-70.871
685.258	0.323	-70.946	0.945	18.853	0.945	18.853	0.323	-70.946
687.728	0.322	-71.02	0.946	18.778	0.946	18.778	0.322	-71.02
690.197	0.321	-71.093	0.946	18.704	0.946	18.704	0.321	-71.093
692.667	0.319	-71.167	0.946	18.629	0.946	18.629	0.319	-71.167
695.136	0.318	-71.24	0.947	18.556	0.947	18.556	0.318	-71.24
697.605	0.317	-71.312	0.947	18.482	0.947	18.482	0.317	-71.312
700.075	0.316	-71.384	0.948	18.409	0.948	18.409	0.316	-71.384
702.544	0.315	-71.456	0.948	18.337	0.948	18.337	0.315	-71.456
705.014	0.313	-71.527	0.948	18.265	0.948	18.265	0.313	-71.527
707.483	0.312	-71.598	0.949	18.193	0.949	18.193	0.312	-71.598
709.953	0.311	-71.668	0.949	18.122	0.949	18.122	0.311	-71.668
712.422	0.31	-71.738	0.95	18.051	0.95	18.051	0.31	-71.738
714.891	0.309	-71.808	0.95	17.98	0.95	17.98	0.309	-71.808
717.361	0.308	-71.877	0.95	17.91	0.95	17.91	0.308	-71.877
719.83	0.306	-71.946	0.951	17.841	0.951	17.841	0.306	-71.946
722.3	0.305	-72.014	0.951	17.771	0.951	17.771	0.305	-72.014
724.769	0.304	-72.083	0.952	17.702	0.952	17.702	0.304	-72.083
727.239	0.303	-72.15	0.952	17.634	0.952	17.634	0.303	-72.15
729.708	0.302	-72.218	0.952	17.565	0.952	17.565	0.302	-72.218
732.178	0.301	-72.285	0.953	17.497	0.953	17.497	0.301	-72.285
734.647	0.3	-72.351	0.953	17.43	0.953	17.43	0.3	-72.351
737.116	0.298	-72.417	0.953	17.363	0.953	17.363	0.298	-72.417
739.586	0.297	-72.483	0.954	17.296	0.954	17.296	0.297	-72.483
742.055	0.296	-72.549	0.954	17.23	0.954	17.23	0.296	-72.549
744.525	0.295	-72.614	0.954	17.164	0.954	17.164	0.295	-72.614
746.994	0.294	-72.679	0.955	17.098	0.955	17.098	0.294	-72.679
749.464	0.293	-72.743	0.955	17.032	0.955	17.032	0.293	-72.743
751.933	0.292	-72.808	0.955	16.967	0.955	16.967	0.292	-72.808
754.403	0.291	-72.871	0.956	16.903	0.956	16.903	0.291	-72.871
756.872	0.29	-72.935	0.956	16.838	0.956	16.838	0.29	-72.935
759.341	0.289	-72.998	0.956	16.774	0.956	16.774	0.289	-72.998
761.811	0.288	-73.061	0.957	16.711	0.957	16.711	0.288	-73.061
764.28	0.286	-73.123	0.957	16.647	0.957	16.647	0.286	-73.123
766.75	0.285	-73.185	0.957	16.584	0.957	16.584	0.285	-73.185
769.219	0.284	-73.247	0.958	16.521	0.958	16.521	0.284	-73.247
771.689	0.283	-73.308	0.958	16.459	0.958	16.459	0.283	-73.308
774.158	0.282	-73.37	0.958	16.397	0.958	16.397	0.282	-73.37
776.628	0.281	-73.43	0.958	16.335	0.958	16.335	0.281	-73.43
779.097	0.28	-73.491	0.959	16.274	0.959	16.274	0.28	-73.491
781.566	0.279	-73.551	0.959	16.213	0.959	16.213	0.279	-73.551
784.036	0.278	-73.611	0.959	16.152	0.959	16.152	0.278	-73.611
786.505	0.277	-73.671	0.96	16.091	0.96	16.091	0.277	-73.671
788.975	0.276	-73.73	0.96	16.031	0.96	16.031	0.276	-73.73
791.444	0.275	-73.789	0.96	15.971	0.96	15.971	0.275	-73.789
793.914	0.274	-73.848	0.961	15.912	0.961	15.912	0.274	-73.848
796.383	0.273	-73.906	0.961	15.852	0.961	15.852	0.273	-73.906
798.853	0.272	-73.964	0.961	15.793	0.961	15.793	0.272	-73.964
801.322	0.271	-74.022	0.961	15.734	0.961	15.734	0.271	-74.022
803.791	0.27	-74.079	0.962	15.676	0.962	15.676	0.27	-74.079
806.261	0.269	-74.136	0.962	15.618	0.962	15.618	0.269	-74.136
808.73	0.268	-74.193	0.962	15.56	0.962	15.56	0.268	-74.193
811.2	0.267	-74.25	0.962	15.502	0.962	15.502	0.267	-74.25
813.669	0.266	-74.306	0.963	15.445	0.963	15.445	0.266	-74.306
816.139	0.265	-74.362	0.963	15.388	0.963	15.388	0.265	-74.362
818.608	0.264	-74.418	0.963	15.331	0.963	15.331	0.264	-74.418
821.078	0.263	-74.474	0.964	15.275	0.964	15.275	0.263	-74.474
823.547	0.263	-74.529	0.964	15.218	0.964	15.218	0.263	-74.529
826.016	0.262	-74.584	0.964	15.163	0.964	15.163	0.262	-74.584
828.486	0.261	-74.639	0.964	15.107	0.964	15.107	0.261	-74.639
830.955	0.26	-74.693	0.965	15.051	0.965	15.051	0.26	-74.693
833.425	0.259	-74.747	0.965	14.996	0.965	14.996	0.259	-74.747
835.894	0.258	-74.801	0.965	14.941	0.965	14.941	0.258	-74.801
838.364	0.257	-74.855	0.965	14.887	0.965	14.887	0.257	-74.855
840.833	0.256	-74.908	0.966	14.832	0.966	14.832	0.256	-74.908
843.303	0.255	-74.961	0.966	14.778	0.966	14.778	0.255	-74.961
845.772	0.254	-75.014	0.966	14.724	0.966	14.724	0.254	-75.014
848.241	0.253	-75.067	0.966	14.671	0.966	14.671	0.253	-75.067
850.711	0.252	-75.119	0.966	14.617	0.966	14.617	0.252	-75.119
853.18	0.251	-75.171	0.967	14.564	0.967	14.564	0.251	-75.171
855.65	0.251	-75.223	0.967	14.511	0.967	14.511	0.251	-75.223
858.119	0.25	-75.275	0.967	14.459	0.967	14.459	0.25	-75.275
860.589	0.249	-75.326	0.967	14.406	0.967	14.406	0.249	-75.326
863.058	0.248	-75.377	0.968	14.354	0.968	14.354	0.248	-75.377
865.528	0.247	-75.428	0.968	14.302	0.968	14.302	0.247	-75.428
867.997	0.246	-75.479	0.968	14.25	0.968	14.25	0.246	-75.479
870.466	0.245	-75.529	0.968	14.199	0.968	14.199	0.245	-75.529
872.936	0.244	-75.58	0.969	14.148	0.969	14.148	0.244	-75.58
875.405	0.244	-75.63	0.969	14.097	0.969	14.097	0.244	-75.63
877.875	0.243	-75.679	0.969	14.046	0.969	14.046	0.243	-75.679
880.344	0.242	-75.729	0.969	13.996	0.969	13.996	0.242	-75.729
882.814	0.241	-75.778	0.969	13.945	0.969	13.945	0.241	-75.778
885.283	0.24	-75.827	0.97	13.895	0.97	13.895	0.24	-75.827
887.753	0.239	-75.876	0.97	13.845	0.97	13.845	0.239	-75.876
890.222	0.238	-75.925	0.97	13.796	0.97	13.796	0.238	-75.925
892.691	0.238	-75.973	0.97	13.746	0.97	13.746	0.238	-75.973
895.161	0.237	-76.021	0.97	13.697	0.97	13.697	0.237	-76.021
