! AVX Thin Film Operation		Date: April 2012 
! Description: Accu-P® Series, Thin Film, SMD, RF Capacitor
! Part Number: 08051J1R7PBTTR					
!	100	MHz	-	20.05	GHz			
!	Serial	Measurements						
!								
#	MHZ	S	MA	R	50			
!	S11	S21	S12	S22				
!	dB	Phase	dB	Phase	dB	Phase	dB	Phase
50 0.999 -3.057 0.053 86.873 0.053 86.873 0.999 -3.057
100 0.994 -6.099 0.106 83.819 0.106 83.819 0.994 -6.099
150 0.987 -9.11 0.158 80.795 0.158 80.795 0.987 -9.11
200 0.977 -12.078 0.209 77.815 0.209 77.815 0.977 -12.078
250 0.965 -14.989 0.259 74.891 0.259 74.891 0.965 -14.989
300 0.951 -17.832 0.306 72.036 0.306 72.036 0.951 -17.832
350 0.935 -20.598 0.352 69.257 0.352 69.257 0.935 -20.598
400 0.917 -23.28 0.395 66.562 0.395 66.562 0.917 -23.28
450 0.898 -25.871 0.436 63.957 0.436 63.957 0.898 -25.871
500 0.878 -28.369 0.475 61.446 0.475 61.446 0.878 -28.369
550 0.857 -30.77 0.512 59.032 0.512 59.032 0.857 -30.77
600 0.836 -33.075 0.546 56.714 0.546 56.714 0.836 -33.075
650 0.814 -35.281 0.578 54.494 0.578 54.494 0.814 -35.281
700 0.792 -37.392 0.607 52.369 0.607 52.369 0.792 -37.392
750 0.77 -39.41 0.635 50.338 0.635 50.338 0.77 -39.41
800 0.748 -41.336 0.66 48.398 0.66 48.398 0.748 -41.336
850 0.726 -43.173 0.684 46.546 0.684 46.546 0.726 -43.173
900 0.704 -44.927 0.706 44.778 0.706 44.778 0.704 -44.927
950 0.683 -46.599 0.727 43.091 0.727 43.091 0.683 -46.599
1000 0.662 -48.193 0.745 41.481 0.745 41.481 0.662 -48.193
1050 0.642 -49.715 0.763 39.945 0.763 39.945 0.642 -49.715
1100 0.622 -51.167 0.779 38.477 0.779 38.477 0.622 -51.167
1150 0.603 -52.553 0.794 37.075 0.794 37.075 0.603 -52.553
1200 0.584 -53.876 0.808 35.736 0.808 35.736 0.584 -53.876
1250 0.566 -55.141 0.821 34.455 0.821 34.455 0.566 -55.141
1300 0.548 -56.35 0.832 33.229 0.832 33.229 0.548 -56.35
1350 0.531 -57.506 0.843 32.055 0.843 32.055 0.531 -57.506
1400 0.514 -58.614 0.854 30.93 0.854 30.93 0.514 -58.614
1450 0.498 -59.674 0.863 29.851 0.863 29.851 0.498 -59.674
1500 0.482 -60.691 0.872 28.816 0.872 28.816 0.482 -60.691
1550 0.467 -61.667 0.88 27.821 0.88 27.821 0.467 -61.667
1600 0.452 -62.603 0.888 26.865 0.888 26.865 0.452 -62.603
1650 0.438 -63.503 0.895 25.946 0.895 25.946 0.438 -63.503
1700 0.424 -64.367 0.902 25.06 0.902 25.06 0.424 -64.367
1750 0.41 -65.199 0.908 24.207 0.908 24.207 0.41 -65.199
1800 0.397 -66 0.914 23.384 0.914 23.384 0.397 -66
1850 0.384 -66.772 0.919 22.59 0.919 22.59 0.384 -66.772
1900 0.372 -67.516 0.924 21.823 0.924 21.823 0.372 -67.516
1950 0.36 -68.233 0.929 21.081 0.929 21.081 0.36 -68.233
2000 0.348 -68.926 0.933 20.364 0.933 20.364 0.348 -68.926
2050 0.337 -69.594 0.937 19.669 0.937 19.669 0.337 -69.594
2100 0.326 -70.24 0.941 18.996 0.941 18.996 0.326 -70.24
2150 0.315 -70.865 0.945 18.344 0.945 18.344 0.315 -70.865
2200 0.304 -71.469 0.948 17.711 0.948 17.711 0.304 -71.469
2250 0.294 -72.054 0.951 17.096 0.951 17.096 0.294 -72.054
2300 0.284 -72.619 0.954 16.499 0.954 16.499 0.284 -72.619
2350 0.274 -73.167 0.957 15.919 0.957 15.919 0.274 -73.167
2400 0.265 -73.698 0.96 15.354 0.96 15.354 0.265 -73.698
2450 0.256 -74.212 0.962 14.804 0.962 14.804 0.256 -74.212
2500 0.247 -74.71 0.965 14.269 0.965 14.269 0.247 -74.71
2550 0.238 -75.193 0.967 13.747 0.967 13.747 0.238 -75.193
2600 0.229 -75.661 0.969 13.238 0.969 13.238 0.229 -75.661
2650 0.221 -76.114 0.971 12.741 0.971 12.741 0.221 -76.114
2700 0.212 -76.553 0.973 12.256 0.973 12.256 0.212 -76.553
2750 0.204 -76.979 0.975 11.782 0.975 11.782 0.204 -76.979
2800 0.196 -77.391 0.976 11.319 0.976 11.319 0.196 -77.391
2850 0.189 -77.79 0.978 10.866 0.978 10.866 0.189 -77.79
2900 0.181 -78.175 0.979 10.423 0.979 10.423 0.181 -78.175
2950 0.174 -78.548 0.98 9.989 0.98 9.989 0.174 -78.548
3000 0.166 -78.907 0.982 9.564 0.982 9.564 0.166 -78.907
3050 0.159 -79.254 0.983 9.148 0.983 9.148 0.159 -79.254
3100 0.152 -79.587 0.984 8.74 0.984 8.74 0.152 -79.587
3150 0.145 -79.907 0.985 8.34 0.985 8.34 0.145 -79.907
3200 0.138 -80.212 0.986 7.947 0.986 7.947 0.138 -80.212
3250 0.132 -80.504 0.987 7.562 0.987 7.562 0.132 -80.504
3300 0.125 -80.78 0.988 7.184 0.988 7.184 0.125 -80.78
3350 0.119 -81.04 0.988 6.812 0.988 6.812 0.119 -81.04
3400 0.112 -81.284 0.989 6.447 0.989 6.447 0.112 -81.284
3450 0.106 -81.509 0.99 6.088 0.99 6.088 0.106 -81.509
3500 0.1 -81.714 0.991 5.735 0.991 5.735 0.1 -81.714
3550 0.094 -81.897 0.991 5.387 0.991 5.387 0.094 -81.897
3600 0.088 -82.055 0.992 5.045 0.992 5.045 0.088 -82.055
3650 0.082 -82.184 0.992 4.709 0.992 4.709 0.082 -82.184
3700 0.076 -82.281 0.993 4.377 0.993 4.377 0.076 -82.281
3750 0.071 -82.338 0.993 4.051 0.993 4.051 0.071 -82.338
3800 0.065 -82.349 0.993 3.729 0.993 3.729 0.065 -82.349
3850 0.06 -82.303 0.994 3.412 0.994 3.412 0.06 -82.303
3900 0.054 -82.185 0.994 3.1 0.994 3.1 0.054 -82.185
3950 0.049 -81.975 0.994 2.791 0.994 2.791 0.049 -81.975
4000 0.044 -81.643 0.995 2.487 0.995 2.487 0.044 -81.643
4050 0.038 -81.145 0.995 2.187 0.995 2.187 0.038 -81.145
4100 0.033 -80.408 0.995 1.891 0.995 1.891 0.033 -80.408
4150 0.028 -79.314 0.995 1.599 0.995 1.599 0.028 -79.314
4200 0.023 -77.644 0.995 1.31 0.995 1.31 0.023 -77.644
4250 0.018 -74.963 0.995 1.025 0.995 1.025 0.018 -74.963
4300 0.014 -70.262 0.995 0.743 0.995 0.743 0.014 -70.262
4350 9.253e-3 -60.696 0.996 0.464 0.996 0.464 9.253e-3 -60.696
4400 5.551e-3 -36.299 0.996 0.189 0.996 0.189 5.551e-3 -36.299
4450 4.692e-3 17.896 0.996 -0.083 0.996 -0.083 4.692e-3 17.896
4500 7.595e-3 53.657 0.996 -0.352 0.996 -0.352 7.595e-3 53.657
4550 0.012 66.91 0.995 -0.618 0.995 -0.618 0.012 66.91
4600 0.016 72.942 0.995 -0.882 0.995 -0.882 0.016 72.942
4650 0.02 76.237 0.995 -1.142 0.995 -1.142 0.02 76.237
4700 0.025 78.248 0.995 -1.4 0.995 -1.4 0.025 78.248
4750 0.029 79.562 0.995 -1.655 0.995 -1.655 0.029 79.562
4800 0.034 80.458 0.995 -1.908 0.995 -1.908 0.034 80.458
4850 0.038 81.084 0.995 -2.158 0.995 -2.158 0.038 81.084
4900 0.042 81.527 0.995 -2.406 0.995 -2.406 0.042 81.527
4950 0.046 81.84 0.994 -2.651 0.994 -2.651 0.046 81.84
5000 0.051 82.057 0.994 -2.894 0.994 -2.894 0.051 82.057
5050 0.055 82.203 0.994 -3.135 0.994 -3.135 0.055 82.203
5100 0.059 82.293 0.994 -3.373 0.994 -3.373 0.059 82.293
5150 0.063 82.339 0.994 -3.61 0.994 -3.61 0.063 82.339
5200 0.067 82.351 0.993 -3.845 0.993 -3.845 0.067 82.351
5250 0.071 82.335 0.993 -4.077 0.993 -4.077 0.071 82.335
5300 0.075 82.296 0.993 -4.307 0.993 -4.307 0.075 82.296
5350 0.079 82.239 0.992 -4.536 0.992 -4.536 0.079 82.239
5400 0.083 82.165 0.992 -4.763 0.992 -4.763 0.083 82.165
5450 0.087 82.079 0.992 -4.988 0.992 -4.988 0.087 82.079
5500 0.091 81.981 0.991 -5.211 0.991 -5.211 0.091 81.981
5550 0.095 81.874 0.991 -5.432 0.991 -5.432 0.095 81.874
5600 0.099 81.759 0.991 -5.652 0.991 -5.652 0.099 81.759
5650 0.102 81.638 0.99 -5.869 0.99 -5.869 0.102 81.638
5700 0.106 81.51 0.99 -6.086 0.99 -6.086 0.106 81.51
5750 0.11 81.377 0.99 -6.3 0.99 -6.3 0.11 81.377
5800 0.114 81.24 0.989 -6.514 0.989 -6.514 0.114 81.24
5850 0.117 81.099 0.989 -6.725 0.989 -6.725 0.117 81.099
5900 0.121 80.955 0.988 -6.935 0.988 -6.935 0.121 80.955
5950 0.124 80.808 0.988 -7.144 0.988 -7.144 0.124 80.808
6000 0.128 80.659 0.987 -7.351 0.987 -7.351 0.128 80.659
6050 0.132 80.507 0.987 -7.557 0.987 -7.557 0.132 80.507
6100 0.135 80.354 0.986 -7.761 0.986 -7.761 0.135 80.354
6150 0.139 80.199 0.986 -7.964 0.986 -7.964 0.139 80.199
6200 0.142 80.043 0.985 -8.166 0.985 -8.166 0.142 80.043
6250 0.146 79.886 0.985 -8.366 0.985 -8.366 0.146 79.886
6300 0.149 79.727 0.984 -8.566 0.984 -8.566 0.149 79.727
6350 0.152 79.568 0.984 -8.764 0.984 -8.764 0.152 79.568
6400 0.156 79.408 0.983 -8.96 0.983 -8.96 0.156 79.408
6450 0.159 79.248 0.983 -9.156 0.983 -9.156 0.159 79.248
6500 0.163 79.087 0.982 -9.35 0.982 -9.35 0.163 79.087
6550 0.166 78.925 0.982 -9.543 0.982 -9.543 0.166 78.925
6600 0.169 78.764 0.981 -9.735 0.981 -9.735 0.169 78.764
6650 0.172 78.602 0.981 -9.926 0.981 -9.926 0.172 78.602
6700 0.176 78.44 0.98 -10.116 0.98 -10.116 0.176 78.44
6750 0.179 78.278 0.979 -10.304 0.979 -10.304 0.179 78.278
6800 0.182 78.115 0.979 -10.492 0.979 -10.492 0.182 78.115
6850 0.185 77.953 0.978 -10.678 0.978 -10.678 0.185 77.953
6900 0.189 77.791 0.978 -10.864 0.978 -10.864 0.189 77.791
6950 0.192 77.629 0.977 -11.048 0.977 -11.048 0.192 77.629
7000 0.195 77.468 0.976 -11.232 0.976 -11.232 0.195 77.468
7050 0.198 77.306 0.976 -11.415 0.976 -11.415 0.198 77.306
7100 0.201 77.145 0.975 -11.596 0.975 -11.596 0.201 77.145
7150 0.204 76.984 0.975 -11.777 0.975 -11.777 0.204 76.984
7200 0.207 76.823 0.974 -11.956 0.974 -11.956 0.207 76.823
7250 0.21 76.662 0.973 -12.135 0.973 -12.135 0.21 76.662
7300 0.213 76.502 0.973 -12.313 0.973 -12.313 0.213 76.502
7350 0.216 76.342 0.972 -12.49 0.972 -12.49 0.216 76.342
7400 0.219 76.182 0.971 -12.666 0.971 -12.666 0.219 76.182
7450 0.222 76.023 0.971 -12.841 0.971 -12.841 0.222 76.023
7500 0.225 75.864 0.97 -13.015 0.97 -13.015 0.225 75.864
7550 0.228 75.705 0.969 -13.189 0.969 -13.189 0.228 75.705
7600 0.231 75.547 0.969 -13.362 0.969 -13.362 0.231 75.547
7650 0.234 75.389 0.968 -13.533 0.968 -13.533 0.234 75.389
7700 0.237 75.232 0.967 -13.705 0.967 -13.705 0.237 75.232
7750 0.24 75.075 0.966 -13.875 0.966 -13.875 0.24 75.075
7800 0.243 74.918 0.966 -14.044 0.966 -14.044 0.243 74.918
7850 0.246 74.762 0.965 -14.213 0.965 -14.213 0.246 74.762
7900 0.248 74.606 0.964 -14.381 0.964 -14.381 0.248 74.606
7950 0.251 74.451 0.964 -14.548 0.964 -14.548 0.251 74.451
8000 0.254 74.296 0.963 -14.714 0.963 -14.714 0.254 74.296
8050 0.257 74.141 0.962 -14.88 0.962 -14.88 0.257 74.141
8100 0.26 73.987 0.961 -15.045 0.961 -15.045 0.26 73.987
8150 0.262 73.834 0.961 -15.209 0.961 -15.209 0.262 73.834
8200 0.265 73.681 0.96 -15.372 0.96 -15.372 0.265 73.681
8250 0.268 73.528 0.959 -15.535 0.959 -15.535 0.268 73.528
8300 0.271 73.376 0.958 -15.697 0.958 -15.697 0.271 73.376
8350 0.273 73.224 0.958 -15.859 0.958 -15.859 0.273 73.224
8400 0.276 73.073 0.957 -16.019 0.957 -16.019 0.276 73.073
8450 0.279 72.922 0.956 -16.179 0.956 -16.179 0.279 72.922
8500 0.281 72.771 0.955 -16.339 0.955 -16.339 0.281 72.771
8550 0.284 72.621 0.954 -16.497 0.954 -16.497 0.284 72.621
8600 0.287 72.472 0.954 -16.655 0.954 -16.655 0.287 72.472
8650 0.289 72.323 0.953 -16.813 0.953 -16.813 0.289 72.323
8700 0.292 72.174 0.952 -16.969 0.952 -16.969 0.292 72.174
8750 0.294 72.026 0.951 -17.126 0.951 -17.126 0.294 72.026
8800 0.297 71.878 0.95 -17.281 0.95 -17.281 0.297 71.878
8850 0.3 71.731 0.95 -17.436 0.95 -17.436 0.3 71.731
8900 0.302 71.584 0.949 -17.59 0.949 -17.59 0.302 71.584
8950 0.305 71.438 0.948 -17.744 0.948 -17.744 0.305 71.438
9000 0.307 71.292 0.947 -17.897 0.947 -17.897 0.307 71.292
9050 0.31 71.146 0.946 -18.049 0.946 -18.049 0.31 71.146
9100 0.312 71.001 0.946 -18.201 0.946 -18.201 0.312 71.001
9150 0.315 70.857 0.945 -18.352 0.945 -18.352 0.315 70.857
9200 0.317 70.713 0.944 -18.503 0.944 -18.503 0.317 70.713
9250 0.32 70.569 0.943 -18.653 0.943 -18.653 0.32 70.569
9300 0.322 70.426 0.942 -18.803 0.942 -18.803 0.322 70.426
9350 0.325 70.283 0.941 -18.952 0.941 -18.952 0.325 70.283
9400 0.327 70.141 0.941 -19.1 0.941 -19.1 0.327 70.141
9450 0.33 69.999 0.94 -19.248 0.94 -19.248 0.33 69.999
9500 0.332 69.857 0.939 -19.395 0.939 -19.395 0.332 69.857
9550 0.335 69.716 0.938 -19.542 0.938 -19.542 0.335 69.716
9600 0.337 69.576 0.937 -19.689 0.937 -19.689 0.337 69.576
9650 0.339 69.436 0.936 -19.834 0.936 -19.834 0.339 69.436
9700 0.342 69.296 0.935 -19.979 0.935 -19.979 0.342 69.296
9750 0.344 69.157 0.935 -20.124 0.935 -20.124 0.344 69.157
9800 0.346 69.018 0.934 -20.268 0.934 -20.268 0.346 69.018
9850 0.349 68.879 0.933 -20.412 0.933 -20.412 0.349 68.879
9900 0.351 68.741 0.932 -20.555 0.932 -20.555 0.351 68.741
9950 0.353 68.604 0.931 -20.698 0.931 -20.698 0.353 68.604
10000 0.356 68.467 0.93 -20.84 0.93 -20.84 0.356 68.467
10050 0.358 68.33 0.929 -20.981 0.929 -20.981 0.358 68.33
10100 0.36 68.193 0.929 -21.122 0.929 -21.122 0.36 68.193
10150 0.363 68.058 0.928 -21.263 0.928 -21.263 0.363 68.058
10200 0.365 67.922 0.927 -21.403 0.927 -21.403 0.365 67.922
10250 0.367 67.787 0.926 -21.543 0.926 -21.543 0.367 67.787
10300 0.369 67.652 0.925 -21.682 0.925 -21.682 0.369 67.652
10350 0.372 67.518 0.924 -21.821 0.924 -21.821 0.372 67.518
10400 0.374 67.384 0.923 -21.959 0.923 -21.959 0.374 67.384
10450 0.376 67.251 0.922 -22.096 0.922 -22.096 0.376 67.251
10500 0.378 67.118 0.921 -22.234 0.921 -22.234 0.378 67.118
10550 0.381 66.985 0.92 -22.371 0.92 -22.371 0.381 66.985
10600 0.383 66.853 0.92 -22.507 0.92 -22.507 0.383 66.853
10650 0.385 66.721 0.919 -22.643 0.919 -22.643 0.385 66.721
10700 0.387 66.589 0.918 -22.778 0.918 -22.778 0.387 66.589
10750 0.389 66.458 0.917 -22.913 0.917 -22.913 0.389 66.458
10800 0.392 66.328 0.916 -23.048 0.916 -23.048 0.392 66.328
10850 0.394 66.197 0.915 -23.182 0.915 -23.182 0.394 66.197
10900 0.396 66.067 0.914 -23.315 0.914 -23.315 0.396 66.067
10950 0.398 65.938 0.913 -23.448 0.913 -23.448 0.398 65.938
11000 0.4 65.809 0.912 -23.581 0.912 -23.581 0.4 65.809
11050 0.402 65.68 0.911 -23.713 0.911 -23.713 0.402 65.68
11100 0.404 65.552 0.91 -23.845 0.91 -23.845 0.404 65.552
11150 0.406 65.424 0.909 -23.977 0.909 -23.977 0.406 65.424
11200 0.408 65.296 0.909 -24.108 0.909 -24.108 0.408 65.296
11250 0.411 65.169 0.908 -24.238 0.908 -24.238 0.411 65.169
11300 0.413 65.042 0.907 -24.368 0.907 -24.368 0.413 65.042
11350 0.415 64.916 0.906 -24.498 0.906 -24.498 0.415 64.916
11400 0.417 64.79 0.905 -24.627 0.905 -24.627 0.417 64.79
11450 0.419 64.664 0.904 -24.756 0.904 -24.756 0.419 64.664
11500 0.421 64.539 0.903 -24.885 0.903 -24.885 0.421 64.539
11550 0.423 64.414 0.902 -25.013 0.902 -25.013 0.423 64.414
11600 0.425 64.289 0.901 -25.141 0.901 -25.141 0.425 64.289
11650 0.427 64.165 0.9 -25.268 0.9 -25.268 0.427 64.165
11700 0.429 64.041 0.899 -25.395 0.899 -25.395 0.429 64.041
11750 0.431 63.918 0.898 -25.521 0.898 -25.521 0.431 63.918
11800 0.433 63.794 0.897 -25.647 0.897 -25.647 0.433 63.794
11850 0.435 63.672 0.896 -25.773 0.896 -25.773 0.435 63.672
11900 0.437 63.549 0.895 -25.898 0.895 -25.898 0.437 63.549
11950 0.439 63.427 0.894 -26.023 0.894 -26.023 0.439 63.427
12000 0.441 63.306 0.893 -26.147 0.893 -26.147 0.441 63.306
12050 0.443 63.184 0.893 -26.271 0.893 -26.271 0.443 63.184
12100 0.445 63.063 0.892 -26.395 0.892 -26.395 0.445 63.063
12150 0.447 62.943 0.891 -26.518 0.891 -26.518 0.447 62.943
12200 0.448 62.822 0.89 -26.641 0.89 -26.641 0.448 62.822
12250 0.45 62.702 0.889 -26.764 0.889 -26.764 0.45 62.702
12300 0.452 62.583 0.888 -26.886 0.888 -26.886 0.452 62.583
12350 0.454 62.464 0.887 -27.008 0.887 -27.008 0.454 62.464
12400 0.456 62.345 0.886 -27.129 0.886 -27.129 0.456 62.345
12450 0.458 62.226 0.885 -27.25 0.885 -27.25 0.458 62.226
12500 0.46 62.108 0.884 -27.371 0.884 -27.371 0.46 62.108
12550 0.462 61.99 0.883 -27.491 0.883 -27.491 0.462 61.99
12600 0.463 61.873 0.882 -27.611 0.882 -27.611 0.463 61.873
12650 0.465 61.756 0.881 -27.731 0.881 -27.731 0.465 61.756
12700 0.467 61.639 0.88 -27.85 0.88 -27.85 0.467 61.639
12750 0.469 61.522 0.879 -27.969 0.879 -27.969 0.469 61.522
12800 0.471 61.406 0.878 -28.087 0.878 -28.087 0.471 61.406
12850 0.473 61.29 0.877 -28.205 0.877 -28.205 0.473 61.29
12900 0.474 61.175 0.876 -28.323 0.876 -28.323 0.474 61.175
12950 0.476 61.06 0.875 -28.44 0.875 -28.44 0.476 61.06
13000 0.478 60.945 0.874 -28.557 0.874 -28.557 0.478 60.945
13050 0.48 60.83 0.873 -28.674 0.873 -28.674 0.48 60.83
13100 0.482 60.716 0.872 -28.79 0.872 -28.79 0.482 60.716
13150 0.483 60.602 0.871 -28.906 0.871 -28.906 0.483 60.602
13200 0.485 60.489 0.87 -29.022 0.87 -29.022 0.485 60.489
13250 0.487 60.376 0.869 -29.137 0.869 -29.137 0.487 60.376
13300 0.489 60.263 0.868 -29.252 0.868 -29.252 0.489 60.263
13350 0.49 60.15 0.867 -29.367 0.867 -29.367 0.49 60.15
13400 0.492 60.038 0.866 -29.481 0.866 -29.481 0.492 60.038
13450 0.494 59.926 0.865 -29.595 0.865 -29.595 0.494 59.926
13500 0.496 59.815 0.864 -29.708 0.864 -29.708 0.496 59.815
13550 0.497 59.703 0.863 -29.822 0.863 -29.822 0.497 59.703
13600 0.499 59.592 0.862 -29.934 0.862 -29.934 0.499 59.592
13650 0.501 59.482 0.861 -30.047 0.861 -30.047 0.501 59.482
13700 0.502 59.372 0.861 -30.159 0.861 -30.159 0.502 59.372
13750 0.504 59.262 0.86 -30.271 0.86 -30.271 0.504 59.262
13800 0.506 59.152 0.859 -30.383 0.859 -30.383 0.506 59.152
13850 0.507 59.043 0.858 -30.494 0.858 -30.494 0.507 59.043
13900 0.509 58.933 0.857 -30.605 0.857 -30.605 0.509 58.933
13950 0.511 58.825 0.856 -30.715 0.856 -30.715 0.511 58.825
14000 0.512 58.716 0.855 -30.826 0.855 -30.826 0.512 58.716
14050 0.514 58.608 0.854 -30.935 0.854 -30.935 0.514 58.608
14100 0.516 58.5 0.853 -31.045 0.853 -31.045 0.516 58.5
14150 0.517 58.393 0.852 -31.154 0.852 -31.154 0.517 58.393
14200 0.519 58.286 0.851 -31.263 0.851 -31.263 0.519 58.286
14250 0.521 58.179 0.85 -31.372 0.85 -31.372 0.521 58.179
14300 0.522 58.072 0.849 -31.48 0.849 -31.48 0.522 58.072
14350 0.524 57.966 0.848 -31.588 0.848 -31.588 0.524 57.966
14400 0.525 57.86 0.847 -31.696 0.847 -31.696 0.525 57.86
14450 0.527 57.754 0.846 -31.803 0.846 -31.803 0.527 57.754
14500 0.529 57.649 0.845 -31.91 0.845 -31.91 0.529 57.649
14550 0.53 57.544 0.844 -32.017 0.844 -32.017 0.53 57.544
14600 0.532 57.439 0.843 -32.123 0.843 -32.123 0.532 57.439
14650 0.533 57.334 0.842 -32.23 0.842 -32.23 0.533 57.334
14700 0.535 57.23 0.841 -32.335 0.841 -32.335 0.535 57.23
14750 0.536 57.126 0.84 -32.441 0.84 -32.441 0.536 57.126
14800 0.538 57.022 0.839 -32.546 0.839 -32.546 0.538 57.022
14850 0.54 56.919 0.838 -32.651 0.838 -32.651 0.54 56.919
14900 0.541 56.816 0.837 -32.756 0.837 -32.756 0.541 56.816
14950 0.543 56.713 0.836 -32.86 0.836 -32.86 0.543 56.713
15000 0.544 56.611 0.835 -32.964 0.835 -32.964 0.544 56.611
15050 0.546 56.509 0.834 -33.068 0.834 -33.068 0.546 56.509
15100 0.547 56.407 0.833 -33.171 0.833 -33.171 0.547 56.407
15150 0.549 56.305 0.832 -33.274 0.832 -33.274 0.549 56.305
15200 0.55 56.204 0.831 -33.377 0.831 -33.377 0.55 56.204
15250 0.552 56.103 0.83 -33.479 0.83 -33.479 0.552 56.103
15300 0.553 56.002 0.829 -33.581 0.829 -33.581 0.553 56.002
15350 0.555 55.901 0.828 -33.683 0.828 -33.683 0.555 55.901
15400 0.556 55.801 0.827 -33.785 0.827 -33.785 0.556 55.801
15450 0.558 55.701 0.826 -33.886 0.826 -33.886 0.558 55.701
15500 0.559 55.602 0.825 -33.987 0.825 -33.987 0.559 55.602
15550 0.56 55.502 0.824 -34.088 0.824 -34.088 0.56 55.502
15600 0.562 55.403 0.823 -34.189 0.823 -34.189 0.562 55.403
15650 0.563 55.304 0.822 -34.289 0.822 -34.289 0.563 55.304
15700 0.565 55.206 0.821 -34.389 0.821 -34.389 0.565 55.206
15750 0.566 55.108 0.82 -34.488 0.82 -34.488 0.566 55.108
15800 0.568 55.01 0.819 -34.587 0.819 -34.587 0.568 55.01
15850 0.569 54.912 0.818 -34.687 0.818 -34.687 0.569 54.912
15900 0.571 54.814 0.817 -34.785 0.817 -34.785 0.571 54.814
15950 0.572 54.717 0.816 -34.884 0.816 -34.884 0.572 54.717
16000 0.573 54.62 0.815 -34.982 0.815 -34.982 0.573 54.62
16050 0.575 54.524 0.814 -35.08 0.814 -35.08 0.575 54.524
16100 0.576 54.427 0.813 -35.177 0.813 -35.177 0.576 54.427
16150 0.578 54.331 0.812 -35.275 0.812 -35.275 0.578 54.331
16200 0.579 54.235 0.811 -35.372 0.811 -35.372 0.579 54.235
16250 0.58 54.14 0.81 -35.469 0.81 -35.469 0.58 54.14
16300 0.582 54.045 0.809 -35.565 0.809 -35.565 0.582 54.045
16350 0.583 53.949 0.809 -35.661 0.809 -35.661 0.583 53.949
16400 0.584 53.855 0.808 -35.757 0.808 -35.757 0.584 53.855
16450 0.586 53.76 0.807 -35.853 0.807 -35.853 0.586 53.76
16500 0.587 53.666 0.806 -35.949 0.806 -35.949 0.587 53.666
16550 0.588 53.572 0.805 -36.044 0.805 -36.044 0.588 53.572
16600 0.59 53.478 0.804 -36.139 0.804 -36.139 0.59 53.478
16650 0.591 53.385 0.803 -36.233 0.803 -36.233 0.591 53.385
16700 0.592 53.291 0.802 -36.328 0.802 -36.328 0.592 53.291
16750 0.594 53.199 0.801 -36.422 0.801 -36.422 0.594 53.199
16800 0.595 53.106 0.8 -36.516 0.8 -36.516 0.595 53.106
16850 0.596 53.013 0.799 -36.609 0.799 -36.609 0.596 53.013
16900 0.598 52.921 0.798 -36.702 0.798 -36.702 0.598 52.921
