! AVX Thin Film Operation		Date: April 2012 
! Description: Accu-P® Series, Thin Film, SMD, RF Capacitor
! Part Number: 08051K140FBTTR					
!	50	MHz	-	20.05	GHz			
!	Serial	Measurements						
!								
#	MHZ	S	MA	R	50			
!	S11	S21	S12	S22				
!	dB	Phase	dB	Phase	dB	Phase	dB	Phase
50 0.915 -23.748 0.403 66.161 0.403 66.161 0.915 -23.748
100 0.749 -41.401 0.661 48.474 0.661 48.474 0.749 -41.401
150 0.6 -53.001 0.799 36.84 0.799 36.84 0.6 -53.001
200 0.487 -60.651 0.872 29.154 0.872 29.154 0.487 -60.651
250 0.404 -65.921 0.913 23.847 0.913 23.847 0.404 -65.921
300 0.342 -69.727 0.938 20.003 0.938 20.003 0.342 -69.727
350 0.294 -72.591 0.954 17.1 0.954 17.1 0.294 -72.591
400 0.256 -74.821 0.965 14.828 0.965 14.828 0.256 -74.821
450 0.225 -76.606 0.973 12.998 0.973 12.998 0.225 -76.606
500 0.199 -78.069 0.978 11.488 0.978 11.488 0.199 -78.069
550 0.177 -79.29 0.983 10.217 0.983 10.217 0.177 -79.29
600 0.159 -80.324 0.986 9.127 0.986 9.127 0.159 -80.324
650 0.142 -81.213 0.988 8.179 0.988 8.179 0.142 -81.213
700 0.128 -81.982 0.99 7.344 0.99 7.344 0.128 -81.982
750 0.115 -82.654 0.992 6.6 0.992 6.6 0.115 -82.654
800 0.103 -83.243 0.993 5.93 0.993 5.93 0.103 -83.243
850 0.093 -83.76 0.994 5.321 0.994 5.321 0.093 -83.76
900 0.083 -84.212 0.995 4.764 0.995 4.764 0.083 -84.212
950 0.074 -84.605 0.996 4.251 0.996 4.251 0.074 -84.605
1000 0.066 -84.939 0.996 3.775 0.996 3.775 0.066 -84.939
1050 0.058 -85.214 0.997 3.331 0.997 3.331 0.058 -85.214
1100 0.051 -85.425 0.997 2.914 0.997 2.914 0.051 -85.425
1150 0.044 -85.562 0.998 2.522 0.998 2.522 0.044 -85.562
1200 0.038 -85.605 0.998 2.151 0.998 2.151 0.038 -85.605
1250 0.031 -85.52 0.998 1.798 0.998 1.798 0.031 -85.52
1300 0.026 -85.243 0.998 1.462 0.998 1.462 0.026 -85.243
1350 0.02 -84.642 0.998 1.141 0.998 1.141 0.02 -84.642
1400 0.015 -83.4 0.998 0.833 0.998 0.833 0.015 -83.4
1450 9.476e-3 -80.555 0.998 0.536 0.998 0.536 9.476e-3 -80.555
1500 4.615e-3 -71.212 0.999 0.251 0.999 0.251 4.615e-3 -71.212
1550 1.532e-3 16.754 0.999 -0.025 0.999 -0.025 1.532e-3 16.754
1600 5.314e-3 73.68 0.999 -0.293 0.999 -0.293 5.314e-3 73.68
1650 9.745e-3 80.788 0.998 -0.552 0.998 -0.552 9.745e-3 80.788
1700 0.014 83.225 0.998 -0.804 0.998 -0.804 0.014 83.225
1750 0.018 84.368 0.998 -1.049 0.998 -1.049 0.018 84.368
1800 0.023 84.976 0.998 -1.289 0.998 -1.289 0.023 84.976
1850 0.027 85.313 0.998 -1.522 0.998 -1.522 0.027 85.313
1900 0.031 85.495 0.998 -1.751 0.998 -1.751 0.031 85.495
1950 0.034 85.582 0.998 -1.975 0.998 -1.975 0.034 85.582
2000 0.038 85.606 0.998 -2.194 0.998 -2.194 0.038 85.606
2050 0.042 85.586 0.998 -2.409 0.998 -2.409 0.042 85.586
2100 0.046 85.535 0.997 -2.62 0.997 -2.62 0.046 85.535
2150 0.049 85.461 0.997 -2.828 0.997 -2.828 0.049 85.461
2200 0.053 85.371 0.997 -3.033 0.997 -3.033 0.053 85.371
2250 0.056 85.268 0.997 -3.234 0.997 -3.234 0.056 85.268
2300 0.06 85.155 0.997 -3.432 0.997 -3.432 0.06 85.155
2350 0.063 85.035 0.997 -3.628 0.997 -3.628 0.063 85.035
2400 0.067 84.908 0.996 -3.821 0.996 -3.821 0.067 84.908
2450 0.07 84.777 0.996 -4.011 0.996 -4.011 0.07 84.777
2500 0.073 84.642 0.996 -4.2 0.996 -4.2 0.073 84.642
2550 0.076 84.504 0.996 -4.386 0.996 -4.386 0.076 84.504
2600 0.08 84.364 0.995 -4.57 0.995 -4.57 0.08 84.364
2650 0.083 84.222 0.995 -4.752 0.995 -4.752 0.083 84.222
2700 0.086 84.078 0.995 -4.932 0.995 -4.932 0.086 84.078
2750 0.089 83.933 0.995 -5.111 0.995 -5.111 0.089 83.933
2800 0.092 83.788 0.994 -5.288 0.994 -5.288 0.092 83.788
2850 0.095 83.641 0.994 -5.463 0.994 -5.463 0.095 83.641
2900 0.098 83.494 0.994 -5.637 0.994 -5.637 0.098 83.494
2950 0.101 83.347 0.993 -5.809 0.993 -5.809 0.101 83.347
3000 0.104 83.199 0.993 -5.981 0.993 -5.981 0.104 83.199
3050 0.107 83.051 0.993 -6.15 0.993 -6.15 0.107 83.051
3100 0.11 82.903 0.992 -6.319 0.992 -6.319 0.11 82.903
3150 0.113 82.755 0.992 -6.486 0.992 -6.486 0.113 82.755
3200 0.116 82.607 0.992 -6.652 0.992 -6.652 0.116 82.607
3250 0.119 82.459 0.991 -6.818 0.991 -6.818 0.119 82.459
3300 0.122 82.311 0.991 -6.982 0.991 -6.982 0.122 82.311
3350 0.124 82.164 0.991 -7.145 0.991 -7.145 0.124 82.164
3400 0.127 82.016 0.99 -7.307 0.99 -7.307 0.127 82.016
3450 0.13 81.869 0.99 -7.468 0.99 -7.468 0.13 81.869
3500 0.133 81.722 0.99 -7.628 0.99 -7.628 0.133 81.722
3550 0.136 81.575 0.989 -7.788 0.989 -7.788 0.136 81.575
3600 0.138 81.429 0.989 -7.946 0.989 -7.946 0.138 81.429
3650 0.141 81.283 0.989 -8.104 0.989 -8.104 0.141 81.283
3700 0.144 81.137 0.988 -8.261 0.988 -8.261 0.144 81.137
3750 0.146 80.991 0.988 -8.417 0.988 -8.417 0.146 80.991
3800 0.149 80.846 0.987 -8.573 0.987 -8.573 0.149 80.846
3850 0.152 80.701 0.987 -8.727 0.987 -8.727 0.152 80.701
3900 0.154 80.556 0.986 -8.882 0.986 -8.882 0.154 80.556
3950 0.157 80.411 0.986 -9.035 0.986 -9.035 0.157 80.411
4000 0.16 80.267 0.986 -9.188 0.986 -9.188 0.16 80.267
4050 0.162 80.123 0.985 -9.34 0.985 -9.34 0.162 80.123
4100 0.165 79.98 0.985 -9.492 0.985 -9.492 0.165 79.98
4150 0.168 79.837 0.984 -9.643 0.984 -9.643 0.168 79.837
4200 0.17 79.694 0.984 -9.793 0.984 -9.793 0.17 79.694
4250 0.173 79.551 0.983 -9.943 0.983 -9.943 0.173 79.551
4300 0.175 79.409 0.983 -10.092 0.983 -10.092 0.175 79.409
4350 0.178 79.267 0.983 -10.241 0.983 -10.241 0.178 79.267
4400 0.18 79.125 0.982 -10.389 0.982 -10.389 0.18 79.125
4450 0.183 78.984 0.982 -10.537 0.982 -10.537 0.183 78.984
4500 0.185 78.843 0.981 -10.684 0.981 -10.684 0.185 78.843
4550 0.188 78.702 0.981 -10.831 0.981 -10.831 0.188 78.702
4600 0.19 78.561 0.98 -10.977 0.98 -10.977 0.19 78.561
4650 0.193 78.421 0.98 -11.123 0.98 -11.123 0.193 78.421
4700 0.195 78.281 0.979 -11.268 0.979 -11.268 0.195 78.281
4750 0.198 78.142 0.979 -11.413 0.979 -11.413 0.198 78.142
4800 0.2 78.002 0.978 -11.557 0.978 -11.557 0.2 78.002
4850 0.203 77.863 0.978 -11.701 0.978 -11.701 0.203 77.863
4900 0.205 77.725 0.977 -11.845 0.977 -11.845 0.205 77.725
4950 0.208 77.586 0.977 -11.988 0.977 -11.988 0.208 77.586
5000 0.21 77.448 0.976 -12.131 0.976 -12.131 0.21 77.448
5050 0.213 77.31 0.976 -12.273 0.976 -12.273 0.213 77.31
5100 0.215 77.172 0.975 -12.415 0.975 -12.415 0.215 77.172
5150 0.217 77.035 0.975 -12.557 0.975 -12.557 0.217 77.035
5200 0.22 76.898 0.974 -12.698 0.974 -12.698 0.22 76.898
5250 0.222 76.761 0.973 -12.839 0.973 -12.839 0.222 76.761
5300 0.225 76.625 0.973 -12.979 0.973 -12.979 0.225 76.625
5350 0.227 76.489 0.972 -13.119 0.972 -13.119 0.227 76.489
5400 0.229 76.353 0.972 -13.259 0.972 -13.259 0.229 76.353
5450 0.232 76.217 0.971 -13.398 0.971 -13.398 0.232 76.217
5500 0.234 76.081 0.971 -13.537 0.971 -13.537 0.234 76.081
5550 0.236 75.946 0.97 -13.676 0.97 -13.676 0.236 75.946
5600 0.239 75.811 0.97 -13.814 0.97 -13.814 0.239 75.811
5650 0.241 75.677 0.969 -13.952 0.969 -13.952 0.241 75.677
5700 0.243 75.542 0.968 -14.09 0.968 -14.09 0.243 75.542
5750 0.246 75.408 0.968 -14.227 0.968 -14.227 0.246 75.408
5800 0.248 75.274 0.967 -14.364 0.967 -14.364 0.248 75.274
5850 0.25 75.141 0.967 -14.501 0.967 -14.501 0.25 75.141
5900 0.253 75.008 0.966 -14.637 0.966 -14.637 0.253 75.008
5950 0.255 74.874 0.965 -14.773 0.965 -14.773 0.255 74.874
6000 0.257 74.742 0.965 -14.909 0.965 -14.909 0.257 74.742
6050 0.26 74.609 0.964 -15.044 0.964 -15.044 0.26 74.609
6100 0.262 74.477 0.964 -15.179 0.964 -15.179 0.262 74.477
6150 0.264 74.345 0.963 -15.314 0.963 -15.314 0.264 74.345
6200 0.266 74.213 0.962 -15.449 0.962 -15.449 0.266 74.213
6250 0.269 74.081 0.962 -15.583 0.962 -15.583 0.269 74.081
6300 0.271 73.95 0.961 -15.717 0.961 -15.717 0.271 73.95
6350 0.273 73.819 0.96 -15.85 0.96 -15.85 0.273 73.819
6400 0.275 73.688 0.96 -15.983 0.96 -15.983 0.275 73.688
6450 0.278 73.558 0.959 -16.116 0.959 -16.116 0.278 73.558
6500 0.28 73.427 0.958 -16.249 0.958 -16.249 0.28 73.427
6550 0.282 73.297 0.958 -16.382 0.958 -16.382 0.282 73.297
6600 0.284 73.167 0.957 -16.514 0.957 -16.514 0.284 73.167
6650 0.286 73.038 0.957 -16.645 0.957 -16.645 0.286 73.038
6700 0.289 72.908 0.956 -16.777 0.956 -16.777 0.289 72.908
6750 0.291 72.779 0.955 -16.908 0.955 -16.908 0.291 72.779
6800 0.293 72.65 0.955 -17.039 0.955 -17.039 0.293 72.65
6850 0.295 72.522 0.954 -17.17 0.954 -17.17 0.295 72.522
6900 0.297 72.393 0.953 -17.3 0.953 -17.3 0.297 72.393
6950 0.3 72.265 0.952 -17.431 0.952 -17.431 0.3 72.265
7000 0.302 72.137 0.952 -17.56 0.952 -17.56 0.302 72.137
7050 0.304 72.01 0.951 -17.69 0.951 -17.69 0.304 72.01
7100 0.306 71.882 0.95 -17.819 0.95 -17.819 0.306 71.882
7150 0.308 71.755 0.95 -17.948 0.95 -17.948 0.308 71.755
7200 0.31 71.628 0.949 -18.077 0.949 -18.077 0.31 71.628
7250 0.312 71.501 0.948 -18.206 0.948 -18.206 0.312 71.501
7300 0.315 71.375 0.948 -18.334 0.948 -18.334 0.315 71.375
7350 0.317 71.249 0.947 -18.462 0.947 -18.462 0.317 71.249
7400 0.319 71.123 0.946 -18.59 0.946 -18.59 0.319 71.123
7450 0.321 70.997 0.946 -18.717 0.946 -18.717 0.321 70.997
7500 0.323 70.872 0.945 -18.845 0.945 -18.845 0.323 70.872
7550 0.325 70.746 0.944 -18.971 0.944 -18.971 0.325 70.746
7600 0.327 70.621 0.943 -19.098 0.943 -19.098 0.327 70.621
7650 0.329 70.496 0.943 -19.225 0.943 -19.225 0.329 70.496
7700 0.331 70.372 0.942 -19.351 0.942 -19.351 0.331 70.372
7750 0.333 70.247 0.941 -19.477 0.941 -19.477 0.333 70.247
7800 0.335 70.123 0.94 -19.602 0.94 -19.602 0.335 70.123
7850 0.338 70 0.94 -19.728 0.94 -19.728 0.338 70
7900 0.34 69.876 0.939 -19.853 0.939 -19.853 0.34 69.876
7950 0.342 69.752 0.938 -19.978 0.938 -19.978 0.342 69.752
8000 0.344 69.629 0.937 -20.102 0.937 -20.102 0.344 69.629
8050 0.346 69.506 0.937 -20.227 0.937 -20.227 0.346 69.506
8100 0.348 69.384 0.936 -20.351 0.936 -20.351 0.348 69.384
8150 0.35 69.261 0.935 -20.475 0.935 -20.475 0.35 69.261
8200 0.352 69.139 0.934 -20.598 0.934 -20.598 0.352 69.139
8250 0.354 69.017 0.934 -20.722 0.934 -20.722 0.354 69.017
8300 0.356 68.895 0.933 -20.845 0.933 -20.845 0.356 68.895
8350 0.358 68.774 0.932 -20.968 0.932 -20.968 0.358 68.774
8400 0.36 68.652 0.931 -21.09 0.931 -21.09 0.36 68.652
8450 0.362 68.531 0.931 -21.213 0.931 -21.213 0.362 68.531
8500 0.364 68.411 0.93 -21.335 0.93 -21.335 0.364 68.411
8550 0.366 68.29 0.929 -21.457 0.929 -21.457 0.366 68.29
8600 0.368 68.17 0.928 -21.578 0.928 -21.578 0.368 68.17
8650 0.37 68.049 0.928 -21.699 0.928 -21.699 0.37 68.049
8700 0.372 67.93 0.927 -21.821 0.927 -21.821 0.372 67.93
8750 0.374 67.81 0.926 -21.941 0.926 -21.941 0.374 67.81
8800 0.376 67.69 0.925 -22.062 0.925 -22.062 0.376 67.69
8850 0.378 67.571 0.924 -22.182 0.924 -22.182 0.378 67.571
8900 0.38 67.452 0.924 -22.303 0.924 -22.303 0.38 67.452
8950 0.381 67.334 0.923 -22.422 0.923 -22.422 0.381 67.334
9000 0.383 67.215 0.922 -22.542 0.922 -22.542 0.383 67.215
9050 0.385 67.097 0.921 -22.661 0.921 -22.661 0.385 67.097
9100 0.387 66.979 0.92 -22.781 0.92 -22.781 0.387 66.979
9150 0.389 66.861 0.92 -22.899 0.92 -22.899 0.389 66.861
9200 0.391 66.743 0.919 -23.018 0.919 -23.018 0.391 66.743
9250 0.393 66.626 0.918 -23.137 0.918 -23.137 0.393 66.626
9300 0.395 66.509 0.917 -23.255 0.917 -23.255 0.395 66.509
9350 0.397 66.392 0.916 -23.373 0.916 -23.373 0.397 66.392
9400 0.399 66.275 0.915 -23.49 0.915 -23.49 0.399 66.275
9450 0.4 66.159 0.915 -23.608 0.915 -23.608 0.4 66.159
9500 0.402 66.043 0.914 -23.725 0.914 -23.725 0.402 66.043
9550 0.404 65.927 0.913 -23.842 0.913 -23.842 0.404 65.927
9600 0.406 65.811 0.912 -23.959 0.912 -23.959 0.406 65.811
9650 0.408 65.695 0.911 -24.075 0.911 -24.075 0.408 65.695
9700 0.41 65.58 0.911 -24.191 0.911 -24.191 0.41 65.58
9750 0.412 65.465 0.91 -24.307 0.91 -24.307 0.412 65.465
9800 0.413 65.35 0.909 -24.423 0.909 -24.423 0.413 65.35
9850 0.415 65.236 0.908 -24.538 0.908 -24.538 0.415 65.236
9900 0.417 65.121 0.907 -24.654 0.907 -24.654 0.417 65.121
9950 0.419 65.007 0.906 -24.769 0.906 -24.769 0.419 65.007
10000 0.421 64.893 0.906 -24.883 0.906 -24.883 0.421 64.893
10050 0.423 64.78 0.905 -24.998 0.905 -24.998 0.423 64.78
10100 0.424 64.666 0.904 -25.112 0.904 -25.112 0.424 64.666
10150 0.426 64.553 0.903 -25.226 0.903 -25.226 0.426 64.553
10200 0.428 64.44 0.902 -25.34 0.902 -25.34 0.428 64.44
10250 0.43 64.327 0.901 -25.454 0.901 -25.454 0.43 64.327
10300 0.432 64.215 0.9 -25.567 0.9 -25.567 0.432 64.215
10350 0.433 64.103 0.9 -25.68 0.9 -25.68 0.433 64.103
10400 0.435 63.991 0.899 -25.793 0.899 -25.793 0.435 63.991
10450 0.437 63.879 0.898 -25.906 0.898 -25.906 0.437 63.879
10500 0.439 63.767 0.897 -26.018 0.897 -26.018 0.439 63.767
10550 0.44 63.656 0.896 -26.13 0.896 -26.13 0.44 63.656
10600 0.442 63.545 0.895 -26.242 0.895 -26.242 0.442 63.545
10650 0.444 63.434 0.894 -26.354 0.894 -26.354 0.444 63.434
10700 0.446 63.323 0.894 -26.465 0.894 -26.465 0.446 63.323
10750 0.447 63.213 0.893 -26.576 0.893 -26.576 0.447 63.213
10800 0.449 63.103 0.892 -26.687 0.892 -26.687 0.449 63.103
10850 0.451 62.993 0.891 -26.798 0.891 -26.798 0.451 62.993
10900 0.453 62.883 0.89 -26.908 0.89 -26.908 0.453 62.883
10950 0.454 62.773 0.889 -27.019 0.889 -27.019 0.454 62.773
11000 0.456 62.664 0.888 -27.129 0.888 -27.129 0.456 62.664
11050 0.458 62.555 0.887 -27.239 0.887 -27.239 0.458 62.555
11100 0.459 62.446 0.887 -27.348 0.887 -27.348 0.459 62.446
11150 0.461 62.338 0.886 -27.457 0.886 -27.457 0.461 62.338
11200 0.463 62.229 0.885 -27.566 0.885 -27.566 0.463 62.229
11250 0.464 62.121 0.884 -27.675 0.884 -27.675 0.464 62.121
11300 0.466 62.013 0.883 -27.784 0.883 -27.784 0.466 62.013
11350 0.468 61.905 0.882 -27.892 0.882 -27.892 0.468 61.905
11400 0.469 61.798 0.881 -28 0.881 -28 0.469 61.798
11450 0.471 61.691 0.88 -28.108 0.88 -28.108 0.471 61.691
11500 0.473 61.584 0.88 -28.216 0.88 -28.216 0.473 61.584
11550 0.474 61.477 0.879 -28.323 0.879 -28.323 0.474 61.477
11600 0.476 61.37 0.878 -28.431 0.878 -28.431 0.476 61.37
11650 0.478 61.264 0.877 -28.538 0.877 -28.538 0.478 61.264
11700 0.479 61.158 0.876 -28.644 0.876 -28.644 0.479 61.158
11750 0.481 61.052 0.875 -28.751 0.875 -28.751 0.481 61.052
11800 0.483 60.947 0.874 -28.857 0.874 -28.857 0.483 60.947
11850 0.484 60.841 0.873 -28.963 0.873 -28.963 0.484 60.841
11900 0.486 60.736 0.872 -29.069 0.872 -29.069 0.486 60.736
11950 0.487 60.631 0.871 -29.174 0.871 -29.174 0.487 60.631
12000 0.489 60.526 0.871 -29.28 0.871 -29.28 0.489 60.526
12050 0.491 60.422 0.87 -29.385 0.87 -29.385 0.491 60.422
12100 0.492 60.317 0.869 -29.49 0.869 -29.49 0.492 60.317
12150 0.494 60.213 0.868 -29.594 0.868 -29.594 0.494 60.213
12200 0.495 60.11 0.867 -29.699 0.867 -29.699 0.495 60.11
12250 0.497 60.006 0.866 -29.803 0.866 -29.803 0.497 60.006
12300 0.499 59.903 0.865 -29.907 0.865 -29.907 0.499 59.903
12350 0.5 59.799 0.864 -30.011 0.864 -30.011 0.5 59.799
12400 0.502 59.696 0.863 -30.114 0.863 -30.114 0.502 59.696
12450 0.503 59.594 0.862 -30.217 0.862 -30.217 0.503 59.594
12500 0.505 59.491 0.862 -30.32 0.862 -30.32 0.505 59.491
12550 0.506 59.389 0.861 -30.423 0.861 -30.423 0.506 59.389
12600 0.508 59.287 0.86 -30.526 0.86 -30.526 0.508 59.287
12650 0.509 59.185 0.859 -30.628 0.859 -30.628 0.509 59.185
12700 0.511 59.084 0.858 -30.73 0.858 -30.73 0.511 59.084
12750 0.513 58.982 0.857 -30.832 0.857 -30.832 0.513 58.982
12800 0.514 58.881 0.856 -30.934 0.856 -30.934 0.514 58.881
12850 0.516 58.78 0.855 -31.035 0.855 -31.035 0.516 58.78
12900 0.517 58.679 0.854 -31.136 0.854 -31.136 0.517 58.679
12950 0.519 58.579 0.853 -31.237 0.853 -31.237 0.519 58.579
13000 0.52 58.479 0.852 -31.338 0.852 -31.338 0.52 58.479
13050 0.522 58.379 0.852 -31.439 0.852 -31.439 0.522 58.379
13100 0.523 58.279 0.851 -31.539 0.851 -31.539 0.523 58.279
13150 0.525 58.179 0.85 -31.639 0.85 -31.639 0.525 58.179
13200 0.526 58.08 0.849 -31.739 0.849 -31.739 0.526 58.08
13250 0.528 57.981 0.848 -31.838 0.848 -31.838 0.528 57.981
13300 0.529 57.882 0.847 -31.938 0.847 -31.938 0.529 57.882
13350 0.53 57.783 0.846 -32.037 0.846 -32.037 0.53 57.783
13400 0.532 57.685 0.845 -32.136 0.845 -32.136 0.532 57.685
13450 0.533 57.587 0.844 -32.235 0.844 -32.235 0.533 57.587
13500 0.535 57.489 0.843 -32.333 0.843 -32.333 0.535 57.489
13550 0.536 57.391 0.842 -32.431 0.842 -32.431 0.536 57.391
13600 0.538 57.293 0.841 -32.53 0.841 -32.53 0.538 57.293
13650 0.539 57.196 0.841 -32.627 0.841 -32.627 0.539 57.196
13700 0.541 57.099 0.84 -32.725 0.84 -32.725 0.541 57.099
13750 0.542 57.002 0.839 -32.822 0.839 -32.822 0.542 57.002
13800 0.543 56.905 0.838 -32.92 0.838 -32.92 0.543 56.905
13850 0.545 56.808 0.837 -33.016 0.837 -33.016 0.545 56.808
13900 0.546 56.712 0.836 -33.113 0.836 -33.113 0.546 56.712
13950 0.548 56.616 0.835 -33.21 0.835 -33.21 0.548 56.616
14000 0.549 56.52 0.834 -33.306 0.834 -33.306 0.549 56.52
14050 0.551 56.425 0.833 -33.402 0.833 -33.402 0.551 56.425
14100 0.552 56.329 0.832 -33.498 0.832 -33.498 0.552 56.329
14150 0.553 56.234 0.831 -33.593 0.831 -33.593 0.553 56.234
14200 0.555 56.139 0.83 -33.689 0.83 -33.689 0.555 56.139
14250 0.556 56.044 0.829 -33.784 0.829 -33.784 0.556 56.044
14300 0.557 55.95 0.829 -33.879 0.829 -33.879 0.557 55.95
14350 0.559 55.856 0.828 -33.974 0.828 -33.974 0.559 55.856
14400 0.56 55.761 0.827 -34.068 0.827 -34.068 0.56 55.761
14450 0.562 55.668 0.826 -34.162 0.826 -34.162 0.562 55.668
14500 0.563 55.574 0.825 -34.257 0.825 -34.257 0.563 55.574
14550 0.564 55.48 0.824 -34.35 0.824 -34.35 0.564 55.48
14600 0.566 55.387 0.823 -34.444 0.823 -34.444 0.566 55.387
14650 0.567 55.294 0.822 -34.537 0.822 -34.537 0.567 55.294
14700 0.568 55.201 0.821 -34.631 0.821 -34.631 0.568 55.201
14750 0.57 55.109 0.82 -34.724 0.82 -34.724 0.57 55.109
14800 0.571 55.016 0.819 -34.816 0.819 -34.816 0.571 55.016
14850 0.572 54.924 0.818 -34.909 0.818 -34.909 0.572 54.924
14900 0.574 54.832 0.817 -35.001 0.817 -35.001 0.574 54.832
14950 0.575 54.74 0.817 -35.094 0.817 -35.094 0.575 54.74
15000 0.576 54.649 0.816 -35.185 0.816 -35.185 0.576 54.649
15050 0.578 54.557 0.815 -35.277 0.815 -35.277 0.578 54.557
15100 0.579 54.466 0.814 -35.369 0.814 -35.369 0.579 54.466
15150 0.58 54.375 0.813 -35.46 0.813 -35.46 0.58 54.375
15200 0.581 54.285 0.812 -35.551 0.812 -35.551 0.581 54.285
15250 0.583 54.194 0.811 -35.642 0.811 -35.642 0.583 54.194
15300 0.584 54.104 0.81 -35.732 0.81 -35.732 0.584 54.104
15350 0.585 54.014 0.809 -35.823 0.809 -35.823 0.585 54.014
15400 0.587 53.924 0.808 -35.913 0.808 -35.913 0.587 53.924
15450 0.588 53.834 0.807 -36.003 0.807 -36.003 0.588 53.834
15500 0.589 53.745 0.806 -36.093 0.806 -36.093 0.589 53.745
15550 0.59 53.656 0.805 -36.182 0.805 -36.182 0.59 53.656
15600 0.592 53.567 0.805 -36.272 0.805 -36.272 0.592 53.567
15650 0.593 53.478 0.804 -36.361 0.804 -36.361 0.593 53.478
15700 0.594 53.389 0.803 -36.45 0.803 -36.45 0.594 53.389
15750 0.595 53.301 0.802 -36.539 0.802 -36.539 0.595 53.301
15800 0.597 53.213 0.801 -36.627 0.801 -36.627 0.597 53.213
15850 0.598 53.125 0.8 -36.716 0.8 -36.716 0.598 53.125
15900 0.599 53.037 0.799 -36.804 0.799 -36.804 0.599 53.037
15950 0.6 52.949 0.798 -36.892 0.798 -36.892 0.6 52.949
16000 0.602 52.862 0.797 -36.979 0.797 -36.979 0.602 52.862
16050 0.603 52.775 0.796 -37.067 0.796 -37.067 0.603 52.775
16100 0.604 52.688 0.795 -37.154 0.795 -37.154 0.604 52.688
16150 0.605 52.601 0.794 -37.241 0.794 -37.241 0.605 52.601
16200 0.606 52.515 0.794 -37.328 0.794 -37.328 0.606 52.515
16250 0.608 52.428 0.793 -37.415 0.793 -37.415 0.608 52.428
16300 0.609 52.342 0.792 -37.501 0.792 -37.501 0.609 52.342
16350 0.61 52.256 0.791 -37.587 0.791 -37.587 0.61 52.256
16400 0.611 52.17 0.79 -37.673 0.79 -37.673 0.611 52.17
16450 0.612 52.085 0.789 -37.759 0.789 -37.759 0.612 52.085
16500 0.614 52 0.788 -37.845 0.788 -37.845 0.614 52
16550 0.615 51.914 0.787 -37.93 0.787 -37.93 0.615 51.914
16600 0.616 51.829 0.786 -38.016 0.786 -38.016 0.616 51.829
16650 0.617 51.745 0.785 -38.101 0.785 -38.101 0.617 51.745
16700 0.618 51.66 0.784 -38.185 0.784 -38.185 0.618 51.66
16750 0.619 51.576 0.783 -38.27 0.783 -38.27 0.619 51.576
16800 0.621 51.492 0.783 -38.354 0.783 -38.354 0.621 51.492
16850 0.622 51.408 0.782 -38.439 0.782 -38.439 0.622 51.408
16900 0.623 51.324 0.781 -38.523 0.781 -38.523 0.623 51.324
16950 0.624 51.241 0.78 -38.607 0.78 -38.607 0.624 51.241
