! AVX Thin Film Operation		Date: April 2012 
! Description: Accu-P® Series, Thin Film, SMD, RF Capacitor
! Part Number: 08051J2R9QBTTR					
!	100	MHz	-	20.05	GHz			
!	Serial	Measurements						
!								
#	MHZ	S	MA	R	50			
!	S11	S21	S12	S22				
!	dB	Phase	dB	Phase	dB	Phase	dB	Phase
50 0.996 -5.206 0.091 84.716 0.091 84.716 0.996 -5.206
100 0.983 -10.332 0.179 79.57 0.179 79.57 0.983 -10.332
150 0.964 -15.307 0.264 74.575 0.264 74.575 0.964 -15.307
200 0.938 -20.071 0.343 69.791 0.343 69.791 0.938 -20.071
250 0.908 -24.581 0.416 65.26 0.416 65.26 0.908 -24.581
300 0.875 -28.81 0.482 61.01 0.482 61.01 0.875 -28.81
350 0.839 -32.746 0.541 57.052 0.541 57.052 0.839 -32.746
400 0.803 -36.389 0.593 53.388 0.593 53.388 0.803 -36.389
450 0.766 -39.748 0.639 50.007 0.639 50.007 0.766 -39.748
500 0.73 -42.837 0.68 46.896 0.68 46.896 0.73 -42.837
550 0.695 -45.675 0.715 44.037 0.715 44.037 0.695 -45.675
600 0.661 -48.281 0.746 41.408 0.746 41.408 0.661 -48.281
650 0.629 -50.674 0.774 38.992 0.774 38.992 0.629 -50.674
700 0.599 -52.876 0.797 36.767 0.797 36.767 0.599 -52.876
750 0.57 -54.903 0.818 34.715 0.818 34.715 0.57 -54.903
800 0.542 -56.773 0.837 32.821 0.837 32.821 0.542 -56.773
850 0.516 -58.502 0.853 31.067 0.853 31.067 0.516 -58.502
900 0.492 -60.103 0.867 29.44 0.867 29.44 0.492 -60.103
950 0.468 -61.589 0.88 27.928 0.88 27.928 0.468 -61.589
1000 0.446 -62.971 0.891 26.518 0.891 26.518 0.446 -62.971
1050 0.426 -64.26 0.901 25.202 0.901 25.202 0.426 -64.26
1100 0.406 -65.464 0.91 23.969 0.91 23.969 0.406 -65.464
1150 0.388 -66.59 0.918 22.813 0.918 22.813 0.388 -66.59
1200 0.37 -67.647 0.925 21.726 0.925 21.726 0.37 -67.647
1250 0.354 -68.64 0.931 20.701 0.931 20.701 0.354 -68.64
1300 0.338 -69.574 0.937 19.734 0.937 19.734 0.338 -69.574
1350 0.323 -70.456 0.942 18.818 0.942 18.818 0.323 -70.456
1400 0.308 -71.288 0.947 17.95 0.947 17.95 0.308 -71.288
1450 0.295 -72.075 0.952 17.126 0.952 17.126 0.295 -72.075
1500 0.281 -72.821 0.955 16.341 0.955 16.341 0.281 -72.821
1550 0.269 -73.528 0.959 15.594 0.959 15.594 0.269 -73.528
1600 0.257 -74.2 0.962 14.88 0.962 14.88 0.257 -74.2
1650 0.245 -74.838 0.965 14.197 0.965 14.197 0.245 -74.838
1700 0.234 -75.445 0.968 13.543 0.968 13.543 0.234 -75.445
1750 0.224 -76.023 0.971 12.916 0.971 12.916 0.224 -76.023
1800 0.213 -76.574 0.973 12.313 0.973 12.313 0.213 -76.574
1850 0.203 -77.098 0.975 11.734 0.975 11.734 0.203 -77.098
1900 0.194 -77.598 0.977 11.175 0.977 11.175 0.194 -77.598
1950 0.185 -78.074 0.979 10.637 0.979 10.637 0.185 -78.074
2000 0.176 -78.528 0.98 10.117 0.98 10.117 0.176 -78.528
2050 0.167 -78.96 0.982 9.615 0.982 9.615 0.167 -78.96
2100 0.159 -79.37 0.983 9.129 0.983 9.129 0.159 -79.37
2150 0.151 -79.759 0.984 8.658 0.984 8.658 0.151 -79.759
2200 0.143 -80.128 0.986 8.201 0.986 8.201 0.143 -80.128
2250 0.135 -80.476 0.987 7.758 0.987 7.758 0.135 -80.476
2300 0.128 -80.803 0.988 7.327 0.988 7.327 0.128 -80.803
2350 0.12 -81.109 0.989 6.908 0.989 6.908 0.12 -81.109
2400 0.113 -81.392 0.989 6.5 0.989 6.5 0.113 -81.392
2450 0.106 -81.652 0.99 6.103 0.99 6.103 0.106 -81.652
2500 0.1 -81.888 0.991 5.716 0.991 5.716 0.1 -81.888
2550 0.093 -82.096 0.991 5.338 0.991 5.338 0.093 -82.096
2600 0.087 -82.275 0.992 4.969 0.992 4.969 0.087 -82.275
2650 0.08 -82.421 0.993 4.609 0.993 4.609 0.08 -82.421
2700 0.074 -82.528 0.993 4.256 0.993 4.256 0.074 -82.528
2750 0.068 -82.59 0.994 3.911 0.994 3.911 0.068 -82.59
2800 0.062 -82.598 0.994 3.573 0.994 3.573 0.062 -82.598
2850 0.057 -82.539 0.994 3.243 0.994 3.243 0.057 -82.539
2900 0.051 -82.397 0.995 2.918 0.995 2.918 0.051 -82.397
2950 0.046 -82.145 0.995 2.6 0.995 2.6 0.046 -82.145
3000 0.04 -81.746 0.995 2.288 0.995 2.288 0.04 -81.746
3050 0.035 -81.138 0.995 1.982 0.995 1.982 0.035 -81.138
3100 0.03 -80.221 0.995 1.681 0.995 1.681 0.03 -80.221
3150 0.025 -78.817 0.996 1.385 0.996 1.385 0.025 -78.817
3200 0.02 -76.573 0.996 1.094 0.996 1.094 0.02 -76.573
3250 0.015 -72.695 0.996 0.807 0.996 0.807 0.015 -72.695
3300 0.01 -65.012 0.996 0.526 0.996 0.526 0.01 -65.012
3350 6.015e-3 -45.82 0.996 0.248 0.996 0.248 6.015e-3 -45.82
3400 4.196e-3 5.957 0.996 -0.025 0.996 -0.025 4.196e-3 5.957
3450 6.619e-3 50.615 0.996 -0.294 0.996 -0.294 6.619e-3 50.615
3500 0.011 66.31 0.996 -0.56 0.996 -0.56 0.011 66.31
3550 0.015 72.95 0.996 -0.822 0.996 -0.822 0.015 72.95
3600 0.019 76.434 0.996 -1.08 0.996 -1.08 0.019 76.434
3650 0.024 78.508 0.996 -1.335 0.996 -1.335 0.024 78.508
3700 0.028 79.841 0.995 -1.586 0.995 -1.586 0.028 79.841
3750 0.032 80.739 0.995 -1.835 0.995 -1.835 0.032 80.739
3800 0.037 81.362 0.995 -2.08 0.995 -2.08 0.037 81.362
3850 0.041 81.799 0.995 -2.323 0.995 -2.323 0.041 81.799
3900 0.045 82.106 0.995 -2.562 0.995 -2.562 0.045 82.106
3950 0.049 82.318 0.995 -2.799 0.995 -2.799 0.049 82.318
4000 0.053 82.459 0.994 -3.033 0.994 -3.033 0.053 82.459
4050 0.057 82.546 0.994 -3.265 0.994 -3.265 0.057 82.546
4100 0.061 82.59 0.994 -3.494 0.994 -3.494 0.061 82.59
4150 0.065 82.602 0.994 -3.721 0.994 -3.721 0.065 82.602
4200 0.069 82.586 0.993 -3.946 0.993 -3.946 0.069 82.586
4250 0.073 82.548 0.993 -4.168 0.993 -4.168 0.073 82.548
4300 0.077 82.492 0.993 -4.389 0.993 -4.389 0.077 82.492
4350 0.08 82.421 0.993 -4.607 0.993 -4.607 0.08 82.421
4400 0.084 82.338 0.992 -4.823 0.992 -4.823 0.084 82.338
4450 0.088 82.244 0.992 -5.037 0.992 -5.037 0.088 82.244
4500 0.092 82.142 0.992 -5.249 0.992 -5.249 0.092 82.142
4550 0.095 82.032 0.991 -5.46 0.991 -5.46 0.095 82.032
4600 0.099 81.915 0.991 -5.668 0.991 -5.668 0.099 81.915
4650 0.102 81.793 0.991 -5.875 0.991 -5.875 0.102 81.793
4700 0.106 81.667 0.99 -6.08 0.99 -6.08 0.106 81.667
4750 0.11 81.536 0.99 -6.284 0.99 -6.284 0.11 81.536
4800 0.113 81.402 0.989 -6.486 0.989 -6.486 0.113 81.402
4850 0.117 81.265 0.989 -6.686 0.989 -6.686 0.117 81.265
4900 0.12 81.125 0.989 -6.885 0.989 -6.885 0.12 81.125
4950 0.123 80.983 0.988 -7.082 0.988 -7.082 0.123 80.983
5000 0.127 80.839 0.988 -7.278 0.988 -7.278 0.127 80.839
5050 0.13 80.694 0.987 -7.473 0.987 -7.473 0.13 80.694
5100 0.133 80.547 0.987 -7.666 0.987 -7.666 0.133 80.547
5150 0.137 80.398 0.986 -7.858 0.986 -7.858 0.137 80.398
5200 0.14 80.249 0.986 -8.048 0.986 -8.048 0.14 80.249
5250 0.143 80.099 0.986 -8.238 0.986 -8.238 0.143 80.099
5300 0.147 79.948 0.985 -8.426 0.985 -8.426 0.147 79.948
5350 0.15 79.796 0.985 -8.613 0.985 -8.613 0.15 79.796
5400 0.153 79.644 0.984 -8.798 0.984 -8.798 0.153 79.644
5450 0.156 79.492 0.984 -8.983 0.984 -8.983 0.156 79.492
5500 0.159 79.339 0.983 -9.166 0.983 -9.166 0.159 79.339
5550 0.162 79.186 0.983 -9.348 0.983 -9.348 0.162 79.186
5600 0.166 79.032 0.982 -9.529 0.982 -9.529 0.166 79.032
5650 0.169 78.879 0.982 -9.71 0.982 -9.71 0.169 78.879
5700 0.172 78.726 0.981 -9.889 0.981 -9.889 0.172 78.726
5750 0.175 78.572 0.98 -10.067 0.98 -10.067 0.175 78.572
5800 0.178 78.418 0.98 -10.244 0.98 -10.244 0.178 78.418
5850 0.181 78.265 0.979 -10.42 0.979 -10.42 0.181 78.265
5900 0.184 78.112 0.979 -10.595 0.979 -10.595 0.184 78.112
5950 0.187 77.958 0.978 -10.769 0.978 -10.769 0.187 77.958
6000 0.19 77.805 0.978 -10.942 0.978 -10.942 0.19 77.805
6050 0.193 77.652 0.977 -11.115 0.977 -11.115 0.193 77.652
6100 0.196 77.5 0.977 -11.286 0.977 -11.286 0.196 77.5
6150 0.199 77.347 0.976 -11.457 0.976 -11.457 0.199 77.347
6200 0.202 77.195 0.975 -11.627 0.975 -11.627 0.202 77.195
6250 0.204 77.043 0.975 -11.795 0.975 -11.795 0.204 77.043
6300 0.207 76.891 0.974 -11.964 0.974 -11.964 0.207 76.891
6350 0.21 76.74 0.974 -12.131 0.974 -12.131 0.21 76.74
6400 0.213 76.588 0.973 -12.297 0.973 -12.297 0.213 76.588
6450 0.216 76.437 0.972 -12.463 0.972 -12.463 0.216 76.437
6500 0.219 76.287 0.972 -12.628 0.972 -12.628 0.219 76.287
6550 0.221 76.137 0.971 -12.792 0.971 -12.792 0.221 76.137
6600 0.224 75.987 0.97 -12.956 0.97 -12.956 0.224 75.987
6650 0.227 75.837 0.97 -13.118 0.97 -13.118 0.227 75.837
6700 0.23 75.688 0.969 -13.28 0.969 -13.28 0.23 75.688
6750 0.232 75.539 0.968 -13.442 0.968 -13.442 0.232 75.539
6800 0.235 75.391 0.968 -13.602 0.968 -13.602 0.235 75.391
6850 0.238 75.242 0.967 -13.762 0.967 -13.762 0.238 75.242
6900 0.241 75.095 0.966 -13.921 0.966 -13.921 0.241 75.095
6950 0.243 74.947 0.966 -14.08 0.966 -14.08 0.243 74.947
7000 0.246 74.8 0.965 -14.238 0.965 -14.238 0.246 74.8
7050 0.249 74.653 0.964 -14.395 0.964 -14.395 0.249 74.653
7100 0.251 74.507 0.964 -14.552 0.964 -14.552 0.251 74.507
7150 0.254 74.361 0.963 -14.708 0.963 -14.708 0.254 74.361
7200 0.257 74.216 0.962 -14.863 0.962 -14.863 0.257 74.216
7250 0.259 74.07 0.962 -15.018 0.962 -15.018 0.259 74.07
7300 0.262 73.926 0.961 -15.172 0.961 -15.172 0.262 73.926
7350 0.264 73.781 0.96 -15.325 0.96 -15.325 0.264 73.781
7400 0.267 73.637 0.96 -15.478 0.96 -15.478 0.267 73.637
7450 0.269 73.493 0.959 -15.631 0.959 -15.631 0.269 73.493
7500 0.272 73.35 0.958 -15.782 0.958 -15.782 0.272 73.35
7550 0.275 73.207 0.957 -15.934 0.957 -15.934 0.275 73.207
7600 0.277 73.065 0.957 -16.084 0.957 -16.084 0.277 73.065
7650 0.28 72.922 0.956 -16.234 0.956 -16.234 0.28 72.922
7700 0.282 72.781 0.955 -16.384 0.955 -16.384 0.282 72.781
7750 0.285 72.639 0.955 -16.533 0.955 -16.533 0.285 72.639
7800 0.287 72.498 0.954 -16.681 0.954 -16.681 0.287 72.498
7850 0.29 72.358 0.953 -16.829 0.953 -16.829 0.29 72.358
7900 0.292 72.217 0.952 -16.977 0.952 -16.977 0.292 72.217
7950 0.294 72.077 0.952 -17.124 0.952 -17.124 0.294 72.077
8000 0.297 71.938 0.951 -17.27 0.951 -17.27 0.297 71.938
8050 0.299 71.799 0.95 -17.416 0.95 -17.416 0.299 71.799
8100 0.302 71.66 0.949 -17.561 0.949 -17.561 0.302 71.66
8150 0.304 71.522 0.949 -17.706 0.949 -17.706 0.304 71.522
8200 0.307 71.384 0.948 -17.85 0.948 -17.85 0.307 71.384
8250 0.309 71.246 0.947 -17.994 0.947 -17.994 0.309 71.246
8300 0.311 71.109 0.946 -18.137 0.946 -18.137 0.311 71.109
8350 0.314 70.972 0.945 -18.28 0.945 -18.28 0.314 70.972
8400 0.316 70.835 0.945 -18.423 0.945 -18.423 0.316 70.835
8450 0.318 70.699 0.944 -18.565 0.944 -18.565 0.318 70.699
8500 0.321 70.563 0.943 -18.706 0.943 -18.706 0.321 70.563
8550 0.323 70.428 0.942 -18.847 0.942 -18.847 0.323 70.428
8600 0.325 70.293 0.942 -18.988 0.942 -18.988 0.325 70.293
8650 0.328 70.158 0.941 -19.128 0.941 -19.128 0.328 70.158
8700 0.33 70.024 0.94 -19.267 0.94 -19.267 0.33 70.024
8750 0.332 69.89 0.939 -19.407 0.939 -19.407 0.332 69.89
8800 0.335 69.756 0.938 -19.545 0.938 -19.545 0.335 69.756
8850 0.337 69.623 0.937 -19.684 0.937 -19.684 0.337 69.623
8900 0.339 69.49 0.937 -19.821 0.937 -19.821 0.339 69.49
8950 0.341 69.357 0.936 -19.959 0.936 -19.959 0.341 69.357
9000 0.344 69.225 0.935 -20.096 0.935 -20.096 0.344 69.225
9050 0.346 69.093 0.934 -20.232 0.934 -20.232 0.346 69.093
9100 0.348 68.962 0.933 -20.368 0.933 -20.368 0.348 68.962
9150 0.35 68.83 0.933 -20.504 0.933 -20.504 0.35 68.83
9200 0.353 68.7 0.932 -20.639 0.932 -20.639 0.353 68.7
9250 0.355 68.569 0.931 -20.774 0.931 -20.774 0.355 68.569
9300 0.357 68.439 0.93 -20.909 0.93 -20.909 0.357 68.439
9350 0.359 68.309 0.929 -21.043 0.929 -21.043 0.359 68.309
9400 0.361 68.18 0.928 -21.176 0.928 -21.176 0.361 68.18
9450 0.363 68.051 0.928 -21.31 0.928 -21.31 0.363 68.051
9500 0.366 67.922 0.927 -21.442 0.927 -21.442 0.366 67.922
9550 0.368 67.793 0.926 -21.575 0.926 -21.575 0.368 67.793
9600 0.37 67.665 0.925 -21.707 0.925 -21.707 0.37 67.665
9650 0.372 67.537 0.924 -21.838 0.924 -21.838 0.372 67.537
9700 0.374 67.41 0.923 -21.97 0.923 -21.97 0.374 67.41
9750 0.376 67.283 0.922 -22.101 0.922 -22.101 0.376 67.283
9800 0.378 67.156 0.922 -22.231 0.922 -22.231 0.378 67.156
9850 0.38 67.03 0.921 -22.361 0.921 -22.361 0.38 67.03
9900 0.383 66.904 0.92 -22.491 0.92 -22.491 0.383 66.904
9950 0.385 66.778 0.919 -22.62 0.919 -22.62 0.385 66.778
10000 0.387 66.653 0.918 -22.749 0.918 -22.749 0.387 66.653
10050 0.389 66.527 0.917 -22.878 0.917 -22.878 0.389 66.527
10100 0.391 66.403 0.916 -23.006 0.916 -23.006 0.391 66.403
10150 0.393 66.278 0.916 -23.134 0.916 -23.134 0.393 66.278
10200 0.395 66.154 0.915 -23.261 0.915 -23.261 0.395 66.154
10250 0.397 66.03 0.914 -23.388 0.914 -23.388 0.397 66.03
10300 0.399 65.907 0.913 -23.515 0.913 -23.515 0.399 65.907
10350 0.401 65.784 0.912 -23.641 0.912 -23.641 0.401 65.784
10400 0.403 65.661 0.911 -23.767 0.911 -23.767 0.403 65.661
10450 0.405 65.538 0.91 -23.893 0.91 -23.893 0.405 65.538
10500 0.407 65.416 0.909 -24.018 0.909 -24.018 0.407 65.416
10550 0.409 65.294 0.909 -24.143 0.909 -24.143 0.409 65.294
10600 0.411 65.173 0.908 -24.267 0.908 -24.267 0.411 65.173
10650 0.413 65.052 0.907 -24.392 0.907 -24.392 0.413 65.052
10700 0.415 64.931 0.906 -24.516 0.906 -24.516 0.415 64.931
10750 0.417 64.81 0.905 -24.639 0.905 -24.639 0.417 64.81
10800 0.419 64.69 0.904 -24.762 0.904 -24.762 0.419 64.69
10850 0.421 64.57 0.903 -24.885 0.903 -24.885 0.421 64.57
10900 0.423 64.45 0.902 -25.007 0.902 -25.007 0.423 64.45
10950 0.425 64.331 0.901 -25.13 0.901 -25.13 0.425 64.331
11000 0.427 64.212 0.9 -25.251 0.9 -25.251 0.427 64.212
11050 0.429 64.093 0.9 -25.373 0.9 -25.373 0.429 64.093
11100 0.43 63.974 0.899 -25.494 0.899 -25.494 0.43 63.974
11150 0.432 63.856 0.898 -25.615 0.898 -25.615 0.432 63.856
11200 0.434 63.738 0.897 -25.735 0.897 -25.735 0.434 63.738
11250 0.436 63.621 0.896 -25.855 0.896 -25.855 0.436 63.621
11300 0.438 63.504 0.895 -25.975 0.895 -25.975 0.438 63.504
11350 0.44 63.387 0.894 -26.094 0.894 -26.094 0.44 63.387
11400 0.442 63.27 0.893 -26.213 0.893 -26.213 0.442 63.27
11450 0.444 63.154 0.892 -26.332 0.892 -26.332 0.444 63.154
11500 0.445 63.038 0.891 -26.451 0.891 -26.451 0.445 63.038
11550 0.447 62.922 0.89 -26.569 0.89 -26.569 0.447 62.922
11600 0.449 62.807 0.89 -26.686 0.89 -26.686 0.449 62.807
11650 0.451 62.692 0.889 -26.804 0.889 -26.804 0.451 62.692
11700 0.453 62.577 0.888 -26.921 0.888 -26.921 0.453 62.577
11750 0.455 62.462 0.887 -27.038 0.887 -27.038 0.455 62.462
11800 0.456 62.348 0.886 -27.154 0.886 -27.154 0.456 62.348
11850 0.458 62.234 0.885 -27.271 0.885 -27.271 0.458 62.234
11900 0.46 62.12 0.884 -27.386 0.884 -27.386 0.46 62.12
11950 0.462 62.007 0.883 -27.502 0.883 -27.502 0.462 62.007
12000 0.464 61.894 0.882 -27.617 0.882 -27.617 0.464 61.894
12050 0.465 61.781 0.881 -27.732 0.881 -27.732 0.465 61.781
12100 0.467 61.669 0.88 -27.847 0.88 -27.847 0.467 61.669
12150 0.469 61.556 0.879 -27.961 0.879 -27.961 0.469 61.556
12200 0.471 61.445 0.878 -28.075 0.878 -28.075 0.471 61.445
12250 0.472 61.333 0.877 -28.189 0.877 -28.189 0.472 61.333
12300 0.474 61.222 0.877 -28.302 0.877 -28.302 0.474 61.222
12350 0.476 61.111 0.876 -28.415 0.876 -28.415 0.476 61.111
12400 0.478 61 0.875 -28.528 0.875 -28.528 0.478 61
12450 0.479 60.889 0.874 -28.64 0.874 -28.64 0.479 60.889
12500 0.481 60.779 0.873 -28.752 0.873 -28.752 0.481 60.779
12550 0.483 60.669 0.872 -28.864 0.872 -28.864 0.483 60.669
12600 0.484 60.56 0.871 -28.976 0.871 -28.976 0.484 60.56
12650 0.486 60.45 0.87 -29.087 0.87 -29.087 0.486 60.45
12700 0.488 60.341 0.869 -29.198 0.869 -29.198 0.488 60.341
12750 0.49 60.232 0.868 -29.309 0.868 -29.309 0.49 60.232
12800 0.491 60.124 0.867 -29.419 0.867 -29.419 0.491 60.124
12850 0.493 60.016 0.866 -29.529 0.866 -29.529 0.493 60.016
12900 0.495 59.908 0.865 -29.639 0.865 -29.639 0.495 59.908
12950 0.496 59.8 0.864 -29.748 0.864 -29.748 0.496 59.8
13000 0.498 59.693 0.863 -29.857 0.863 -29.857 0.498 59.693
13050 0.5 59.585 0.862 -29.966 0.862 -29.966 0.5 59.585
13100 0.501 59.479 0.861 -30.075 0.861 -30.075 0.501 59.479
13150 0.503 59.372 0.861 -30.183 0.861 -30.183 0.503 59.372
13200 0.504 59.266 0.86 -30.291 0.86 -30.291 0.504 59.266
13250 0.506 59.16 0.859 -30.399 0.859 -30.399 0.506 59.16
13300 0.508 59.054 0.858 -30.506 0.858 -30.506 0.508 59.054
13350 0.509 58.948 0.857 -30.613 0.857 -30.613 0.509 58.948
13400 0.511 58.843 0.856 -30.72 0.856 -30.72 0.511 58.843
13450 0.512 58.738 0.855 -30.827 0.855 -30.827 0.512 58.738
13500 0.514 58.634 0.854 -30.933 0.854 -30.933 0.514 58.634
13550 0.516 58.529 0.853 -31.039 0.853 -31.039 0.516 58.529
13600 0.517 58.425 0.852 -31.145 0.852 -31.145 0.517 58.425
13650 0.519 58.321 0.851 -31.25 0.851 -31.25 0.519 58.321
13700 0.52 58.218 0.85 -31.356 0.85 -31.356 0.52 58.218
13750 0.522 58.114 0.849 -31.46 0.849 -31.46 0.522 58.114
13800 0.523 58.011 0.848 -31.565 0.848 -31.565 0.523 58.011
13850 0.525 57.908 0.847 -31.669 0.847 -31.669 0.525 57.908
13900 0.527 57.806 0.846 -31.773 0.846 -31.773 0.527 57.806
13950 0.528 57.704 0.845 -31.877 0.845 -31.877 0.528 57.704
14000 0.53 57.602 0.844 -31.981 0.844 -31.981 0.53 57.602
14050 0.531 57.5 0.843 -32.084 0.843 -32.084 0.531 57.5
14100 0.533 57.398 0.842 -32.187 0.842 -32.187 0.533 57.398
14150 0.534 57.297 0.842 -32.29 0.842 -32.29 0.534 57.297
14200 0.536 57.196 0.841 -32.392 0.841 -32.392 0.536 57.196
14250 0.537 57.095 0.84 -32.494 0.84 -32.494 0.537 57.095
14300 0.539 56.995 0.839 -32.596 0.839 -32.596 0.539 56.995
14350 0.54 56.895 0.838 -32.698 0.838 -32.698 0.54 56.895
14400 0.542 56.795 0.837 -32.799 0.837 -32.799 0.542 56.795
14450 0.543 56.695 0.836 -32.9 0.836 -32.9 0.543 56.695
14500 0.545 56.596 0.835 -33.001 0.835 -33.001 0.545 56.596
14550 0.546 56.496 0.834 -33.101 0.834 -33.101 0.546 56.496
14600 0.548 56.398 0.833 -33.202 0.833 -33.202 0.548 56.398
14650 0.549 56.299 0.832 -33.302 0.832 -33.302 0.549 56.299
14700 0.551 56.2 0.831 -33.401 0.831 -33.401 0.551 56.2
14750 0.552 56.102 0.83 -33.501 0.83 -33.501 0.552 56.102
14800 0.553 56.004 0.829 -33.6 0.829 -33.6 0.553 56.004
14850 0.555 55.907 0.828 -33.699 0.828 -33.699 0.555 55.907
14900 0.556 55.809 0.827 -33.798 0.827 -33.798 0.556 55.809
14950 0.558 55.712 0.826 -33.896 0.826 -33.896 0.558 55.712
15000 0.559 55.615 0.825 -33.994 0.825 -33.994 0.559 55.615
15050 0.561 55.519 0.824 -34.092 0.824 -34.092 0.561 55.519
15100 0.562 55.422 0.823 -34.19 0.823 -34.19 0.562 55.422
15150 0.563 55.326 0.822 -34.287 0.822 -34.287 0.563 55.326
15200 0.565 55.23 0.821 -34.384 0.821 -34.384 0.565 55.23
15250 0.566 55.134 0.821 -34.481 0.821 -34.481 0.566 55.134
15300 0.568 55.039 0.82 -34.578 0.82 -34.578 0.568 55.039
15350 0.569 54.944 0.819 -34.674 0.819 -34.674 0.569 54.944
15400 0.57 54.849 0.818 -34.77 0.818 -34.77 0.57 54.849
15450 0.572 54.754 0.817 -34.866 0.817 -34.866 0.572 54.754
15500 0.573 54.66 0.816 -34.962 0.816 -34.962 0.573 54.66
15550 0.574 54.566 0.815 -35.057 0.815 -35.057 0.574 54.566
15600 0.576 54.472 0.814 -35.152 0.814 -35.152 0.576 54.472
15650 0.577 54.378 0.813 -35.247 0.813 -35.247 0.577 54.378
15700 0.578 54.284 0.812 -35.342 0.812 -35.342 0.578 54.284
15750 0.58 54.191 0.811 -35.436 0.811 -35.436 0.58 54.191
15800 0.581 54.098 0.81 -35.53 0.81 -35.53 0.581 54.098
15850 0.582 54.005 0.809 -35.624 0.809 -35.624 0.582 54.005
15900 0.584 53.913 0.808 -35.718 0.808 -35.718 0.584 53.913
15950 0.585 53.821 0.807 -35.811 0.807 -35.811 0.585 53.821
16000 0.586 53.729 0.806 -35.904 0.806 -35.904 0.586 53.729
16050 0.588 53.637 0.805 -35.997 0.805 -35.997 0.588 53.637
16100 0.589 53.545 0.804 -36.09 0.804 -36.09 0.589 53.545
16150 0.59 53.454 0.803 -36.182 0.803 -36.182 0.59 53.454
16200 0.592 53.363 0.802 -36.274 0.802 -36.274 0.592 53.363
16250 0.593 53.272 0.801 -36.366 0.801 -36.366 0.593 53.272
16300 0.594 53.181 0.801 -36.458 0.801 -36.458 0.594 53.181
16350 0.596 53.091 0.8 -36.549 0.8 -36.549 0.596 53.091
16400 0.597 53.001 0.799 -36.64 0.799 -36.64 0.597 53.001
16450 0.598 52.911 0.798 -36.731 0.798 -36.731 0.598 52.911
16500 0.599 52.821 0.797 -36.822 0.797 -36.822 0.599 52.821
16550 0.601 52.731 0.796 -36.913 0.796 -36.913 0.601 52.731
16600 0.602 52.642 0.795 -37.003 0.795 -37.003 0.602 52.642
16650 0.603 52.553 0.794 -37.093 0.794 -37.093 0.603 52.553
16700 0.604 52.464 0.793 -37.183 0.793 -37.183 0.604 52.464
16750 0.606 52.376 0.792 -37.272 0.792 -37.272 0.606 52.376
16800 0.607 52.287 0.791 -37.361 0.791 -37.361 0.607 52.287
16850 0.608 52.199 0.79 -37.451 0.79 -37.451 0.608 52.199
16900 0.609 52.111 0.789 -37.539 0.789 -37.539 0.609 52.111
16950 0.611 52.024 0.788 -37.628 0.788 -37.628 0.611 52.024
