! AVX Thin Film Operation		Date: April 2012 
! Description: Accu-P® Series, Thin Film, SMD, RF Capacitor
! Part Number: 08051J7R5BBTTR					
!	100	MHz	-	10.05	GHz			
!	Serial	Measurements						
!								
#	MHZ	S	MA	R	50			
!	S11	S21	S12	S22				
!	dB	Phase	dB	Phase	dB	Phase	dB	Phase
100	0.904	-25.276	0.427	64.692	0.427	64.692	0.904	-25.276
102.469	0.9	-25.822	0.436	64.145	0.436	64.145	0.9	-25.822
104.939	0.896	-26.363	0.444	63.603	0.444	63.603	0.896	-26.363
107.408	0.892	-26.899	0.452	63.066	0.452	63.066	0.892	-26.899
109.878	0.887	-27.431	0.461	62.534	0.461	62.534	0.887	-27.431
112.347	0.883	-27.957	0.469	62.006	0.469	62.006	0.883	-27.957
114.817	0.879	-28.479	0.477	61.484	0.477	61.484	0.879	-28.479
117.286	0.874	-28.996	0.485	60.966	0.485	60.966	0.874	-28.996
119.756	0.87	-29.507	0.493	60.454	0.493	60.454	0.87	-29.507
122.225	0.866	-30.014	0.5	59.946	0.5	59.946	0.866	-30.014
124.694	0.861	-30.516	0.508	59.443	0.508	59.443	0.861	-30.516
127.164	0.857	-31.013	0.515	58.945	0.515	58.945	0.857	-31.013
129.633	0.852	-31.505	0.523	58.453	0.523	58.453	0.852	-31.505
132.103	0.848	-31.992	0.53	57.965	0.53	57.965	0.848	-31.992
134.572	0.843	-32.474	0.537	57.482	0.537	57.482	0.843	-32.474
137.042	0.839	-32.952	0.544	57.004	0.544	57.004	0.839	-32.952
139.511	0.834	-33.424	0.551	56.531	0.551	56.531	0.834	-33.424
141.981	0.83	-33.891	0.558	56.062	0.558	56.062	0.83	-33.891
144.45	0.825	-34.354	0.564	55.599	0.564	55.599	0.825	-34.354
146.919	0.821	-34.812	0.571	55.141	0.571	55.141	0.821	-34.812
149.389	0.816	-35.264	0.577	54.687	0.577	54.687	0.816	-35.264
151.858	0.811	-35.712	0.584	54.238	0.584	54.238	0.811	-35.712
154.328	0.807	-36.156	0.59	53.794	0.59	53.794	0.807	-36.156
156.797	0.802	-36.594	0.596	53.355	0.596	53.355	0.802	-36.594
159.267	0.798	-37.028	0.602	52.92	0.602	52.92	0.798	-37.028
161.736	0.793	-37.457	0.608	52.49	0.608	52.49	0.793	-37.457
164.206	0.789	-37.881	0.614	52.065	0.614	52.065	0.789	-37.881
166.675	0.784	-38.301	0.62	51.644	0.62	51.644	0.784	-38.301
169.144	0.78	-38.716	0.625	51.228	0.625	51.228	0.78	-38.716
171.614	0.775	-39.127	0.631	50.817	0.631	50.817	0.775	-39.127
174.083	0.771	-39.533	0.637	50.41	0.637	50.41	0.771	-39.533
176.553	0.766	-39.935	0.642	50.008	0.642	50.008	0.766	-39.935
179.022	0.762	-40.332	0.647	49.61	0.647	49.61	0.762	-40.332
181.492	0.757	-40.724	0.652	49.216	0.652	49.216	0.757	-40.724
183.961	0.753	-41.113	0.658	48.827	0.658	48.827	0.753	-41.113
186.431	0.748	-41.497	0.663	48.442	0.663	48.442	0.748	-41.497
188.9	0.744	-41.877	0.668	48.062	0.668	48.062	0.744	-41.877
191.369	0.739	-42.252	0.672	47.685	0.672	47.685	0.739	-42.252
193.839	0.735	-42.623	0.677	47.313	0.677	47.313	0.735	-42.623
196.308	0.731	-42.99	0.682	46.945	0.682	46.945	0.731	-42.99
198.778	0.726	-43.353	0.686	46.582	0.686	46.582	0.726	-43.353
201.247	0.722	-43.712	0.691	46.222	0.691	46.222	0.722	-43.712
203.717	0.718	-44.067	0.695	45.866	0.695	45.866	0.718	-44.067
206.186	0.713	-44.418	0.7	45.515	0.7	45.515	0.713	-44.418
208.656	0.709	-44.765	0.704	45.167	0.704	45.167	0.709	-44.765
211.125	0.705	-45.108	0.708	44.823	0.708	44.823	0.705	-45.108
213.594	0.701	-45.447	0.713	44.483	0.713	44.483	0.701	-45.447
216.064	0.697	-45.782	0.717	44.147	0.717	44.147	0.697	-45.782
218.533	0.692	-46.114	0.721	43.815	0.721	43.815	0.692	-46.114
221.003	0.688	-46.441	0.725	43.486	0.725	43.486	0.688	-46.441
223.472	0.684	-46.766	0.729	43.161	0.729	43.161	0.684	-46.766
225.942	0.68	-47.086	0.732	42.84	0.732	42.84	0.68	-47.086
228.411	0.676	-47.403	0.736	42.522	0.736	42.522	0.676	-47.403
230.881	0.672	-47.716	0.74	42.208	0.74	42.208	0.672	-47.716
233.35	0.668	-48.026	0.743	41.897	0.743	41.897	0.668	-48.026
235.819	0.664	-48.332	0.747	41.59	0.747	41.59	0.664	-48.332
238.289	0.66	-48.635	0.751	41.287	0.751	41.287	0.66	-48.635
240.758	0.656	-48.935	0.754	40.986	0.754	40.986	0.656	-48.935
243.228	0.652	-49.231	0.757	40.689	0.757	40.689	0.652	-49.231
245.697	0.648	-49.524	0.761	40.396	0.761	40.396	0.648	-49.524
248.167	0.644	-49.813	0.764	40.105	0.764	40.105	0.644	-49.813
250.636	0.64	-50.1	0.767	39.818	0.767	39.818	0.64	-50.1
253.106	0.637	-50.383	0.77	39.534	0.77	39.534	0.637	-50.383
255.575	0.633	-50.663	0.773	39.253	0.773	39.253	0.633	-50.663
258.044	0.629	-50.94	0.776	38.975	0.776	38.975	0.629	-50.94
260.514	0.625	-51.214	0.779	38.7	0.779	38.7	0.625	-51.214
262.983	0.622	-51.485	0.782	38.429	0.782	38.429	0.622	-51.485
265.453	0.618	-51.753	0.785	38.16	0.785	38.16	0.618	-51.753
267.922	0.614	-52.018	0.788	37.894	0.788	37.894	0.614	-52.018
270.392	0.611	-52.28	0.791	37.631	0.791	37.631	0.611	-52.28
272.861	0.607	-52.539	0.794	37.371	0.794	37.371	0.607	-52.539
275.331	0.603	-52.795	0.796	37.114	0.796	37.114	0.603	-52.795
277.8	0.6	-53.049	0.799	36.859	0.799	36.859	0.6	-53.049
280.269	0.596	-53.3	0.802	36.608	0.802	36.608	0.596	-53.3
282.739	0.593	-53.548	0.804	36.359	0.804	36.359	0.593	-53.548
285.208	0.589	-53.793	0.807	36.112	0.807	36.112	0.589	-53.793
287.678	0.586	-54.036	0.809	35.869	0.809	35.869	0.586	-54.036
290.147	0.583	-54.277	0.812	35.628	0.812	35.628	0.583	-54.277
292.617	0.579	-54.514	0.814	35.389	0.814	35.389	0.579	-54.514
295.086	0.576	-54.749	0.817	35.153	0.817	35.153	0.576	-54.749
297.556	0.572	-54.982	0.819	34.92	0.819	34.92	0.572	-54.982
300.025	0.569	-55.212	0.821	34.688	0.821	34.688	0.569	-55.212
302.494	0.566	-55.44	0.824	34.46	0.824	34.46	0.566	-55.44
304.964	0.563	-55.665	0.826	34.234	0.826	34.234	0.563	-55.665
307.433	0.559	-55.888	0.828	34.01	0.828	34.01	0.559	-55.888
309.903	0.556	-56.109	0.83	33.788	0.83	33.788	0.556	-56.109
312.372	0.553	-56.327	0.832	33.569	0.832	33.569	0.553	-56.327
314.842	0.55	-56.543	0.834	33.352	0.834	33.352	0.55	-56.543
317.311	0.547	-56.757	0.836	33.138	0.836	33.138	0.547	-56.757
319.78	0.544	-56.969	0.838	32.925	0.838	32.925	0.544	-56.969
322.25	0.54	-57.178	0.84	32.715	0.84	32.715	0.54	-57.178
324.719	0.537	-57.386	0.842	32.507	0.842	32.507	0.537	-57.386
327.189	0.534	-57.591	0.844	32.301	0.844	32.301	0.534	-57.591
329.658	0.531	-57.794	0.846	32.097	0.846	32.097	0.531	-57.794
332.128	0.528	-57.995	0.848	31.895	0.848	31.895	0.528	-57.995
334.597	0.525	-58.194	0.85	31.695	0.85	31.695	0.525	-58.194
337.067	0.522	-58.391	0.852	31.497	0.852	31.497	0.522	-58.391
339.536	0.52	-58.586	0.853	31.301	0.853	31.301	0.52	-58.586
342.005	0.517	-58.779	0.855	31.108	0.855	31.108	0.517	-58.779
344.475	0.514	-58.97	0.857	30.916	0.857	30.916	0.514	-58.97
346.944	0.511	-59.159	0.859	30.726	0.859	30.726	0.511	-59.159
349.414	0.508	-59.346	0.86	30.537	0.86	30.537	0.508	-59.346
351.883	0.505	-59.532	0.862	30.351	0.862	30.351	0.505	-59.532
354.353	0.503	-59.715	0.864	30.167	0.864	30.167	0.503	-59.715
356.822	0.5	-59.897	0.865	29.984	0.865	29.984	0.5	-59.897
359.292	0.497	-60.077	0.867	29.803	0.867	29.803	0.497	-60.077
361.761	0.494	-60.255	0.868	29.624	0.868	29.624	0.494	-60.255
364.23	0.492	-60.432	0.87	29.447	0.87	29.447	0.492	-60.432
366.7	0.489	-60.607	0.871	29.271	0.871	29.271	0.489	-60.607
369.169	0.486	-60.78	0.873	29.097	0.873	29.097	0.486	-60.78
371.639	0.484	-60.951	0.874	28.925	0.874	28.925	0.484	-60.951
374.108	0.481	-61.121	0.876	28.754	0.876	28.754	0.481	-61.121
376.578	0.478	-61.289	0.877	28.585	0.877	28.585	0.478	-61.289
379.047	0.476	-61.456	0.878	28.417	0.878	28.417	0.476	-61.456
381.517	0.473	-61.621	0.88	28.251	0.88	28.251	0.473	-61.621
383.986	0.471	-61.784	0.881	28.087	0.881	28.087	0.471	-61.784
386.455	0.468	-61.946	0.883	27.924	0.883	27.924	0.468	-61.946
388.925	0.466	-62.106	0.884	27.763	0.884	27.763	0.466	-62.106
391.394	0.463	-62.265	0.885	27.603	0.885	27.603	0.463	-62.265
393.864	0.461	-62.423	0.886	27.445	0.886	27.445	0.461	-62.423
396.333	0.458	-62.579	0.888	27.288	0.888	27.288	0.458	-62.579
398.803	0.456	-62.733	0.889	27.133	0.889	27.133	0.456	-62.733
401.272	0.454	-62.886	0.89	26.979	0.89	26.979	0.454	-62.886
403.742	0.451	-63.038	0.891	26.826	0.891	26.826	0.451	-63.038
406.211	0.449	-63.188	0.892	26.675	0.892	26.675	0.449	-63.188
408.68	0.447	-63.337	0.894	26.525	0.894	26.525	0.447	-63.337
411.15	0.444	-63.485	0.895	26.377	0.895	26.377	0.444	-63.485
413.619	0.442	-63.631	0.896	26.229	0.896	26.229	0.442	-63.631
416.089	0.44	-63.776	0.897	26.084	0.897	26.084	0.44	-63.776
418.558	0.437	-63.92	0.898	25.939	0.898	25.939	0.437	-63.92
421.028	0.435	-64.062	0.899	25.796	0.899	25.796	0.435	-64.062
423.497	0.433	-64.203	0.9	25.654	0.9	25.654	0.433	-64.203
425.967	0.431	-64.343	0.901	25.513	0.901	25.513	0.431	-64.343
428.436	0.429	-64.481	0.902	25.374	0.902	25.374	0.429	-64.481
430.905	0.426	-64.619	0.903	25.235	0.903	25.235	0.426	-64.619
433.375	0.424	-64.755	0.904	25.098	0.904	25.098	0.424	-64.755
435.844	0.422	-64.89	0.905	24.962	0.905	24.962	0.422	-64.89
438.314	0.42	-65.024	0.906	24.828	0.906	24.828	0.42	-65.024
440.783	0.418	-65.156	0.907	24.694	0.907	24.694	0.418	-65.156
443.253	0.416	-65.288	0.908	24.562	0.908	24.562	0.416	-65.288
445.722	0.414	-65.418	0.909	24.43	0.909	24.43	0.414	-65.418
448.192	0.412	-65.548	0.91	24.3	0.91	24.3	0.412	-65.548
450.661	0.409	-65.676	0.911	24.171	0.911	24.171	0.409	-65.676
453.13	0.407	-65.803	0.912	24.043	0.912	24.043	0.407	-65.803
455.6	0.405	-65.929	0.913	23.916	0.913	23.916	0.405	-65.929
458.069	0.403	-66.054	0.914	23.791	0.914	23.791	0.403	-66.054
460.539	0.401	-66.178	0.915	23.666	0.915	23.666	0.401	-66.178
463.008	0.399	-66.3	0.916	23.542	0.916	23.542	0.399	-66.3
465.478	0.397	-66.422	0.917	23.419	0.917	23.419	0.397	-66.422
467.947	0.396	-66.543	0.917	23.298	0.917	23.298	0.396	-66.543
470.417	0.394	-66.663	0.918	23.177	0.918	23.177	0.394	-66.663
472.886	0.392	-66.782	0.919	23.057	0.919	23.057	0.392	-66.782
475.355	0.39	-66.899	0.92	22.938	0.92	22.938	0.39	-66.899
477.825	0.388	-67.016	0.921	22.82	0.921	22.82	0.388	-67.016
480.294	0.386	-67.132	0.921	22.704	0.921	22.704	0.386	-67.132
482.764	0.384	-67.247	0.922	22.588	0.922	22.588	0.384	-67.247
485.233	0.382	-67.361	0.923	22.473	0.923	22.473	0.382	-67.361
487.703	0.38	-67.474	0.924	22.359	0.924	22.359	0.38	-67.474
490.172	0.379	-67.587	0.924	22.246	0.924	22.246	0.379	-67.587
492.642	0.377	-67.698	0.925	22.133	0.925	22.133	0.377	-67.698
495.111	0.375	-67.808	0.926	22.022	0.926	22.022	0.375	-67.808
497.58	0.373	-67.918	0.927	21.911	0.927	21.911	0.373	-67.918
500.05	0.371	-68.027	0.927	21.802	0.927	21.802	0.371	-68.027
502.519	0.37	-68.134	0.928	21.693	0.928	21.693	0.37	-68.134
504.989	0.368	-68.241	0.929	21.585	0.929	21.585	0.368	-68.241
507.458	0.366	-68.347	0.929	21.478	0.929	21.478	0.366	-68.347
509.928	0.364	-68.453	0.93	21.372	0.93	21.372	0.364	-68.453
512.397	0.363	-68.557	0.931	21.266	0.931	21.266	0.363	-68.557
514.867	0.361	-68.661	0.931	21.162	0.931	21.162	0.361	-68.661
517.336	0.359	-68.764	0.932	21.058	0.932	21.058	0.359	-68.764
519.805	0.358	-68.866	0.933	20.955	0.933	20.955	0.358	-68.866
522.275	0.356	-68.967	0.933	20.852	0.933	20.852	0.356	-68.967
524.744	0.354	-69.068	0.934	20.751	0.934	20.751	0.354	-69.068
527.214	0.353	-69.168	0.935	20.65	0.935	20.65	0.353	-69.168
529.683	0.351	-69.267	0.935	20.55	0.935	20.55	0.351	-69.267
532.153	0.349	-69.365	0.936	20.451	0.936	20.451	0.349	-69.365
534.622	0.348	-69.463	0.936	20.352	0.936	20.352	0.348	-69.463
537.092	0.346	-69.559	0.937	20.254	0.937	20.254	0.346	-69.559
539.561	0.345	-69.656	0.938	20.157	0.938	20.157	0.345	-69.656
542.03	0.343	-69.751	0.938	20.061	0.938	20.061	0.343	-69.751
544.5	0.341	-69.846	0.939	19.965	0.939	19.965	0.341	-69.846
546.969	0.34	-69.94	0.939	19.87	0.939	19.87	0.34	-69.94
549.439	0.338	-70.033	0.94	19.776	0.94	19.776	0.338	-70.033
551.908	0.337	-70.126	0.94	19.682	0.94	19.682	0.337	-70.126
554.378	0.335	-70.217	0.941	19.589	0.941	19.589	0.335	-70.217
556.847	0.334	-70.309	0.942	19.497	0.942	19.497	0.334	-70.309
559.317	0.332	-70.399	0.942	19.406	0.942	19.406	0.332	-70.399
561.786	0.331	-70.489	0.943	19.315	0.943	19.315	0.331	-70.489
564.255	0.329	-70.579	0.943	19.224	0.943	19.224	0.329	-70.579
566.725	0.328	-70.667	0.944	19.135	0.944	19.135	0.328	-70.667
569.194	0.326	-70.755	0.944	19.046	0.944	19.046	0.326	-70.755
571.664	0.325	-70.843	0.945	18.957	0.945	18.957	0.325	-70.843
574.133	0.323	-70.93	0.945	18.869	0.945	18.869	0.323	-70.93
576.603	0.322	-71.016	0.946	18.782	0.946	18.782	0.322	-71.016
579.072	0.321	-71.101	0.946	18.696	0.946	18.696	0.321	-71.101
581.542	0.319	-71.186	0.947	18.61	0.947	18.61	0.319	-71.186
584.011	0.318	-71.271	0.947	18.524	0.947	18.524	0.318	-71.271
586.48	0.316	-71.355	0.948	18.439	0.948	18.439	0.316	-71.355
588.95	0.315	-71.438	0.948	18.355	0.948	18.355	0.315	-71.438
591.419	0.314	-71.521	0.948	18.271	0.948	18.271	0.314	-71.521
593.889	0.312	-71.603	0.949	18.188	0.949	18.188	0.312	-71.603
596.358	0.311	-71.684	0.949	18.106	0.949	18.106	0.311	-71.684
598.828	0.309	-71.765	0.95	18.024	0.95	18.024	0.309	-71.765
601.297	0.308	-71.846	0.95	17.942	0.95	17.942	0.308	-71.846
603.767	0.307	-71.925	0.951	17.861	0.951	17.861	0.307	-71.925
606.236	0.305	-72.005	0.951	17.781	0.951	17.781	0.305	-72.005
608.705	0.304	-72.084	0.952	17.701	0.952	17.701	0.304	-72.084
611.175	0.303	-72.162	0.952	17.622	0.952	17.622	0.303	-72.162
613.644	0.301	-72.24	0.952	17.543	0.952	17.543	0.301	-72.24
616.114	0.3	-72.317	0.953	17.465	0.953	17.465	0.3	-72.317
618.583	0.299	-72.394	0.953	17.387	0.953	17.387	0.299	-72.394
621.053	0.298	-72.47	0.954	17.31	0.954	17.31	0.298	-72.47
623.522	0.296	-72.546	0.954	17.233	0.954	17.233	0.296	-72.546
625.992	0.295	-72.621	0.954	17.157	0.954	17.157	0.295	-72.621
628.461	0.294	-72.696	0.955	17.081	0.955	17.081	0.294	-72.696
630.93	0.292	-72.77	0.955	17.006	0.955	17.006	0.292	-72.77
633.4	0.291	-72.844	0.956	16.931	0.956	16.931	0.291	-72.844
635.869	0.29	-72.917	0.956	16.856	0.956	16.856	0.29	-72.917
638.339	0.289	-72.99	0.956	16.782	0.956	16.782	0.289	-72.99
640.808	0.288	-73.062	0.957	16.709	0.957	16.709	0.288	-73.062
643.278	0.286	-73.134	0.957	16.636	0.957	16.636	0.286	-73.134
645.747	0.285	-73.205	0.957	16.564	0.957	16.564	0.285	-73.205
648.217	0.284	-73.276	0.958	16.492	0.958	16.492	0.284	-73.276
650.686	0.283	-73.347	0.958	16.42	0.958	16.42	0.283	-73.347
653.155	0.281	-73.417	0.958	16.349	0.958	16.349	0.281	-73.417
655.625	0.28	-73.487	0.959	16.278	0.959	16.278	0.28	-73.487
658.094	0.279	-73.556	0.959	16.208	0.959	16.208	0.279	-73.556
660.564	0.278	-73.625	0.959	16.138	0.959	16.138	0.278	-73.625
663.033	0.277	-73.693	0.96	16.069	0.96	16.069	0.277	-73.693
665.503	0.276	-73.761	0.96	15.999	0.96	15.999	0.276	-73.761
667.972	0.274	-73.828	0.96	15.931	0.96	15.931	0.274	-73.828
670.442	0.273	-73.896	0.961	15.863	0.961	15.863	0.273	-73.896
672.911	0.272	-73.962	0.961	15.795	0.961	15.795	0.272	-73.962
675.38	0.271	-74.029	0.961	15.728	0.961	15.728	0.271	-74.029
677.85	0.27	-74.094	0.962	15.661	0.962	15.661	0.27	-74.094
680.319	0.269	-74.16	0.962	15.594	0.962	15.594	0.269	-74.16
682.789	0.268	-74.225	0.962	15.528	0.962	15.528	0.268	-74.225
685.258	0.267	-74.29	0.963	15.462	0.963	15.462	0.267	-74.29
687.728	0.266	-74.354	0.963	15.397	0.963	15.397	0.266	-74.354
690.197	0.264	-74.418	0.963	15.332	0.963	15.332	0.264	-74.418
692.667	0.263	-74.481	0.964	15.267	0.964	15.267	0.263	-74.481
695.136	0.262	-74.544	0.964	15.203	0.964	15.203	0.262	-74.544
697.605	0.261	-74.607	0.964	15.139	0.964	15.139	0.261	-74.607
700.075	0.26	-74.67	0.964	15.075	0.964	15.075	0.26	-74.67
702.544	0.259	-74.732	0.965	15.012	0.965	15.012	0.259	-74.732
705.014	0.258	-74.793	0.965	14.949	0.965	14.949	0.258	-74.793
707.483	0.257	-74.855	0.965	14.887	0.965	14.887	0.257	-74.855
709.953	0.256	-74.916	0.966	14.825	0.966	14.825	0.256	-74.916
712.422	0.255	-74.976	0.966	14.763	0.966	14.763	0.255	-74.976
714.891	0.254	-75.036	0.966	14.702	0.966	14.702	0.254	-75.036
717.361	0.253	-75.096	0.966	14.641	0.966	14.641	0.253	-75.096
719.83	0.252	-75.156	0.967	14.58	0.967	14.58	0.252	-75.156
722.3	0.251	-75.215	0.967	14.52	0.967	14.52	0.251	-75.215
724.769	0.25	-75.274	0.967	14.46	0.967	14.46	0.25	-75.274
727.239	0.249	-75.333	0.967	14.4	0.967	14.4	0.249	-75.333
729.708	0.248	-75.391	0.968	14.341	0.968	14.341	0.248	-75.391
732.178	0.247	-75.449	0.968	14.281	0.968	14.281	0.247	-75.449
734.647	0.246	-75.506	0.968	14.223	0.968	14.223	0.246	-75.506
737.116	0.245	-75.563	0.968	14.164	0.968	14.164	0.245	-75.563
739.586	0.244	-75.62	0.969	14.106	0.969	14.106	0.244	-75.62
742.055	0.243	-75.677	0.969	14.049	0.969	14.049	0.243	-75.677
744.525	0.242	-75.733	0.969	13.991	0.969	13.991	0.242	-75.733
746.994	0.241	-75.789	0.969	13.934	0.969	13.934	0.241	-75.789
749.464	0.24	-75.845	0.97	13.877	0.97	13.877	0.24	-75.845
751.933	0.239	-75.9	0.97	13.821	0.97	13.821	0.239	-75.9
754.403	0.238	-75.955	0.97	13.764	0.97	13.764	0.238	-75.955
756.872	0.237	-76.01	0.97	13.708	0.97	13.708	0.237	-76.01
759.341	0.236	-76.064	0.971	13.653	0.971	13.653	0.236	-76.064
761.811	0.235	-76.119	0.971	13.597	0.971	13.597	0.235	-76.119
764.28	0.234	-76.172	0.971	13.542	0.971	13.542	0.234	-76.172
766.75	0.233	-76.226	0.971	13.488	0.971	13.488	0.233	-76.226
769.219	0.232	-76.279	0.971	13.433	0.971	13.433	0.232	-76.279
771.689	0.231	-76.332	0.972	13.379	0.972	13.379	0.231	-76.332
774.158	0.23	-76.385	0.972	13.325	0.972	13.325	0.23	-76.385
776.628	0.23	-76.437	0.972	13.271	0.972	13.271	0.23	-76.437
779.097	0.229	-76.489	0.972	13.218	0.972	13.218	0.229	-76.489
781.566	0.228	-76.541	0.973	13.165	0.973	13.165	0.228	-76.541
784.036	0.227	-76.593	0.973	13.112	0.973	13.112	0.227	-76.593
786.505	0.226	-76.644	0.973	13.06	0.973	13.06	0.226	-76.644
788.975	0.225	-76.695	0.973	13.007	0.973	13.007	0.225	-76.695
791.444	0.224	-76.746	0.973	12.955	0.973	12.955	0.224	-76.746
793.914	0.223	-76.797	0.974	12.904	0.974	12.904	0.223	-76.797
796.383	0.222	-76.847	0.974	12.852	0.974	12.852	0.222	-76.847
798.853	0.222	-76.897	0.974	12.801	0.974	12.801	0.222	-76.897
801.322	0.221	-76.947	0.974	12.75	0.974	12.75	0.221	-76.947
803.791	0.22	-76.996	0.974	12.699	0.974	12.699	0.22	-76.996
806.261	0.219	-77.045	0.975	12.649	0.975	12.649	0.219	-77.045
808.73	0.218	-77.094	0.975	12.598	0.975	12.598	0.218	-77.094
811.2	0.217	-77.143	0.975	12.549	0.975	12.549	0.217	-77.143
813.669	0.216	-77.191	0.975	12.499	0.975	12.499	0.216	-77.191
816.139	0.216	-77.24	0.975	12.449	0.975	12.449	0.216	-77.24
818.608	0.215	-77.288	0.976	12.4	0.976	12.4	0.215	-77.288
821.078	0.214	-77.335	0.976	12.351	0.976	12.351	0.214	-77.335
823.547	0.213	-77.383	0.976	12.302	0.976	12.302	0.213	-77.383
826.016	0.212	-77.43	0.976	12.254	0.976	12.254	0.212	-77.43
828.486	0.211	-77.477	0.976	12.205	0.976	12.205	0.211	-77.477
830.955	0.211	-77.524	0.976	12.157	0.976	12.157	0.211	-77.524
833.425	0.21	-77.57	0.977	12.11	0.977	12.11	0.21	-77.57
835.894	0.209	-77.617	0.977	12.062	0.977	12.062	0.209	-77.617
838.364	0.208	-77.663	0.977	12.015	0.977	12.015	0.208	-77.663
840.833	0.207	-77.709	0.977	11.967	0.977	11.967	0.207	-77.709
843.303	0.207	-77.754	0.977	11.92	0.977	11.92	0.207	-77.754
845.772	0.206	-77.8	0.977	11.874	0.977	11.874	0.206	-77.8
848.241	0.205	-77.845	0.978	11.827	0.978	11.827	0.205	-77.845
850.711	0.204	-77.89	0.978	11.781	0.978	11.781	0.204	-77.89
853.18	0.203	-77.934	0.978	11.735	0.978	11.735	0.203	-77.934
855.65	0.203	-77.979	0.978	11.689	0.978	11.689	0.203	-77.979
858.119	0.202	-78.023	0.978	11.643	0.978	11.643	0.202	-78.023
860.589	0.201	-78.067	0.978	11.598	0.978	11.598	0.201	-78.067
863.058	0.2	-78.111	0.979	11.553	0.979	11.553	0.2	-78.111
865.528	0.2	-78.155	0.979	11.508	0.979	11.508	0.2	-78.155
867.997	0.199	-78.198	0.979	11.463	0.979	11.463	0.199	-78.198
870.466	0.198	-78.242	0.979	11.418	0.979	11.418	0.198	-78.242
872.936	0.197	-78.285	0.979	11.374	0.979	11.374	0.197	-78.285
875.405	0.196	-78.328	0.979	11.33	0.979	11.33	0.196	-78.328
877.875	0.196	-78.37	0.979	11.286	0.979	11.286	0.196	-78.37
880.344	0.195	-78.413	0.98	11.242	0.98	11.242	0.195	-78.413
882.814	0.194	-78.455	0.98	11.198	0.98	11.198	0.194	-78.455
885.283	0.193	-78.497	0.98	11.155	0.98	11.155	0.193	-78.497
887.753	0.193	-78.539	0.98	11.111	0.98	11.111	0.193	-78.539
890.222	0.192	-78.58	0.98	11.068	0.98	11.068	0.192	-78.58
892.691	0.191	-78.622	0.98	11.026	0.98	11.026	0.191	-78.622
895.161	0.191	-78.663	0.981	10.983	0.981	10.983	0.191	-78.663
