! AVX Thin Film Operation		Date: April 2012 
! Description: Accu-P® Series, Thin Film, SMD, RF Capacitor
! Part Number: 08051J2R2QBTTR					
!	100	MHz	-	10.05	GHz			
!	Serial	Measurements						
!								
#	MHZ	S	MA	R	50			
!	S11	S21	S12	S22				
!	dB	Phase	dB	Phase	dB	Phase	dB	Phase
100	0.991	-7.875	0.137	82.11	0.137	82.11	0.991	-7.875
102.469	0.99	-8.067	0.14	81.917	0.14	81.917	0.99	-8.067
104.939	0.99	-8.259	0.144	81.725	0.144	81.725	0.99	-8.259
107.408	0.989	-8.451	0.147	81.532	0.147	81.532	0.989	-8.451
109.878	0.989	-8.643	0.15	81.34	0.15	81.34	0.989	-8.643
112.347	0.988	-8.835	0.154	81.148	0.154	81.148	0.988	-8.835
114.817	0.988	-9.026	0.157	80.957	0.157	80.957	0.988	-9.026
117.286	0.987	-9.217	0.16	80.765	0.16	80.765	0.987	-9.217
119.756	0.986	-9.408	0.163	80.574	0.163	80.574	0.986	-9.408
122.225	0.986	-9.599	0.167	80.383	0.167	80.383	0.986	-9.599
124.694	0.985	-9.79	0.17	80.192	0.17	80.192	0.985	-9.79
127.164	0.985	-9.98	0.173	80.001	0.173	80.001	0.985	-9.98
129.633	0.984	-10.17	0.177	79.81	0.177	79.81	0.984	-10.17
132.103	0.984	-10.36	0.18	79.62	0.18	79.62	0.984	-10.36
134.572	0.983	-10.55	0.183	79.43	0.183	79.43	0.983	-10.55
137.042	0.982	-10.74	0.186	79.24	0.186	79.24	0.982	-10.74
139.511	0.982	-10.929	0.19	79.05	0.19	79.05	0.982	-10.929
141.981	0.981	-11.118	0.193	78.86	0.193	78.86	0.981	-11.118
144.45	0.981	-11.307	0.196	78.671	0.196	78.671	0.981	-11.307
146.919	0.98	-11.496	0.199	78.482	0.199	78.482	0.98	-11.496
149.389	0.979	-11.684	0.203	78.293	0.203	78.293	0.979	-11.684
151.858	0.979	-11.873	0.206	78.104	0.206	78.104	0.979	-11.873
154.328	0.978	-12.061	0.209	77.916	0.209	77.916	0.978	-12.061
156.797	0.977	-12.248	0.212	77.728	0.212	77.728	0.977	-12.248
159.267	0.976	-12.436	0.215	77.54	0.215	77.54	0.976	-12.436
161.736	0.976	-12.623	0.219	77.352	0.219	77.352	0.976	-12.623
164.206	0.975	-12.81	0.222	77.165	0.222	77.165	0.975	-12.81
166.675	0.974	-12.997	0.225	76.978	0.225	76.978	0.974	-12.997
169.144	0.974	-13.184	0.228	76.791	0.228	76.791	0.974	-13.184
171.614	0.973	-13.37	0.231	76.604	0.231	76.604	0.973	-13.37
174.083	0.972	-13.556	0.234	76.417	0.234	76.417	0.972	-13.556
176.553	0.971	-13.742	0.238	76.231	0.238	76.231	0.971	-13.742
179.022	0.97	-13.927	0.241	76.045	0.241	76.045	0.97	-13.927
181.492	0.97	-14.113	0.244	75.86	0.244	75.86	0.97	-14.113
183.961	0.969	-14.298	0.247	75.674	0.247	75.674	0.969	-14.298
186.431	0.968	-14.483	0.25	75.489	0.25	75.489	0.968	-14.483
188.9	0.967	-14.667	0.253	75.304	0.253	75.304	0.967	-14.667
191.369	0.966	-14.851	0.256	75.12	0.256	75.12	0.966	-14.851
193.839	0.966	-15.035	0.259	74.936	0.259	74.936	0.966	-15.035
196.308	0.965	-15.219	0.263	74.751	0.263	74.751	0.965	-15.219
198.778	0.964	-15.402	0.266	74.568	0.266	74.568	0.964	-15.402
201.247	0.963	-15.585	0.269	74.384	0.269	74.384	0.963	-15.585
203.717	0.962	-15.768	0.272	74.201	0.272	74.201	0.962	-15.768
206.186	0.961	-15.95	0.275	74.018	0.275	74.018	0.961	-15.95
208.656	0.96	-16.133	0.278	73.836	0.278	73.836	0.96	-16.133
211.125	0.96	-16.314	0.281	73.654	0.281	73.654	0.96	-16.314
213.594	0.959	-16.496	0.284	73.472	0.284	73.472	0.959	-16.496
216.064	0.958	-16.677	0.287	73.29	0.287	73.29	0.958	-16.677
218.533	0.957	-16.858	0.29	73.109	0.29	73.109	0.957	-16.858
221.003	0.956	-17.039	0.293	72.927	0.293	72.927	0.956	-17.039
223.472	0.955	-17.219	0.296	72.747	0.296	72.747	0.955	-17.219
225.942	0.954	-17.399	0.299	72.566	0.299	72.566	0.954	-17.399
228.411	0.953	-17.579	0.302	72.386	0.302	72.386	0.953	-17.579
230.881	0.952	-17.759	0.305	72.206	0.305	72.206	0.952	-17.759
233.35	0.951	-17.938	0.308	72.027	0.308	72.027	0.951	-17.938
235.819	0.95	-18.116	0.311	71.848	0.311	71.848	0.95	-18.116
238.289	0.949	-18.295	0.314	71.669	0.314	71.669	0.949	-18.295
240.758	0.948	-18.473	0.317	71.49	0.317	71.49	0.948	-18.473
243.228	0.947	-18.651	0.32	71.312	0.32	71.312	0.947	-18.651
245.697	0.946	-18.828	0.323	71.134	0.323	71.134	0.946	-18.828
248.167	0.945	-19.005	0.326	70.957	0.326	70.957	0.945	-19.005
250.636	0.944	-19.182	0.329	70.78	0.329	70.78	0.944	-19.182
253.106	0.943	-19.359	0.331	70.603	0.331	70.603	0.943	-19.359
255.575	0.942	-19.535	0.334	70.426	0.334	70.426	0.942	-19.535
258.044	0.941	-19.711	0.337	70.25	0.337	70.25	0.941	-19.711
260.514	0.94	-19.886	0.34	70.074	0.34	70.074	0.94	-19.886
262.983	0.939	-20.061	0.343	69.899	0.343	69.899	0.939	-20.061
265.453	0.938	-20.236	0.346	69.724	0.346	69.724	0.938	-20.236
267.922	0.937	-20.41	0.349	69.549	0.349	69.549	0.937	-20.41
270.392	0.936	-20.584	0.352	69.375	0.352	69.375	0.936	-20.584
272.861	0.935	-20.758	0.354	69.2	0.354	69.2	0.935	-20.758
275.331	0.934	-20.932	0.357	69.027	0.357	69.027	0.934	-20.932
277.8	0.933	-21.105	0.36	68.853	0.36	68.853	0.933	-21.105
280.269	0.932	-21.277	0.363	68.68	0.363	68.68	0.932	-21.277
282.739	0.93	-21.449	0.366	68.508	0.366	68.508	0.93	-21.449
285.208	0.929	-21.621	0.368	68.335	0.368	68.335	0.929	-21.621
287.678	0.928	-21.793	0.371	68.163	0.371	68.163	0.928	-21.793
290.147	0.927	-21.964	0.374	67.992	0.374	67.992	0.927	-21.964
292.617	0.926	-22.135	0.377	67.82	0.377	67.82	0.926	-22.135
295.086	0.925	-22.306	0.38	67.65	0.38	67.65	0.925	-22.306
297.556	0.924	-22.476	0.382	67.479	0.382	67.479	0.924	-22.476
300.025	0.923	-22.645	0.385	67.309	0.385	67.309	0.923	-22.645
302.494	0.921	-22.815	0.388	67.139	0.388	67.139	0.921	-22.815
304.964	0.92	-22.984	0.39	66.97	0.39	66.97	0.92	-22.984
307.433	0.919	-23.152	0.393	66.801	0.393	66.801	0.919	-23.152
309.903	0.918	-23.321	0.396	66.632	0.396	66.632	0.918	-23.321
312.372	0.917	-23.489	0.399	66.464	0.399	66.464	0.917	-23.489
314.842	0.916	-23.656	0.401	66.296	0.401	66.296	0.916	-23.656
317.311	0.914	-23.823	0.404	66.128	0.404	66.128	0.914	-23.823
319.78	0.913	-23.99	0.407	65.961	0.407	65.961	0.913	-23.99
322.25	0.912	-24.156	0.409	65.795	0.409	65.795	0.912	-24.156
324.719	0.911	-24.322	0.412	65.628	0.412	65.628	0.911	-24.322
327.189	0.91	-24.488	0.415	65.462	0.415	65.462	0.91	-24.488
329.658	0.908	-24.653	0.417	65.297	0.417	65.297	0.908	-24.653
332.128	0.907	-24.818	0.42	65.131	0.42	65.131	0.907	-24.818
334.597	0.906	-24.983	0.422	64.966	0.422	64.966	0.906	-24.983
337.067	0.905	-25.147	0.425	64.802	0.425	64.802	0.905	-25.147
339.536	0.904	-25.31	0.428	64.638	0.428	64.638	0.904	-25.31
342.005	0.902	-25.474	0.43	64.474	0.43	64.474	0.902	-25.474
344.475	0.901	-25.637	0.433	64.311	0.433	64.311	0.901	-25.637
346.944	0.9	-25.799	0.435	64.148	0.435	64.148	0.9	-25.799
349.414	0.899	-25.961	0.438	63.985	0.438	63.985	0.899	-25.961
351.883	0.897	-26.123	0.44	63.823	0.44	63.823	0.897	-26.123
354.353	0.896	-26.284	0.443	63.662	0.443	63.662	0.896	-26.284
356.822	0.895	-26.445	0.445	63.5	0.445	63.5	0.895	-26.445
359.292	0.894	-26.606	0.448	63.339	0.448	63.339	0.894	-26.606
361.761	0.892	-26.766	0.45	63.179	0.45	63.179	0.892	-26.766
364.23	0.891	-26.926	0.453	63.019	0.453	63.019	0.891	-26.926
366.7	0.89	-27.085	0.455	62.859	0.455	62.859	0.89	-27.085
369.169	0.889	-27.244	0.458	62.699	0.458	62.699	0.889	-27.244
371.639	0.887	-27.403	0.46	62.54	0.46	62.54	0.887	-27.403
374.108	0.886	-27.561	0.463	62.382	0.463	62.382	0.886	-27.561
376.578	0.885	-27.719	0.465	62.224	0.465	62.224	0.885	-27.719
379.047	0.883	-27.876	0.468	62.066	0.468	62.066	0.883	-27.876
381.517	0.882	-28.033	0.47	61.908	0.47	61.908	0.882	-28.033
383.986	0.881	-28.19	0.472	61.751	0.472	61.751	0.881	-28.19
386.455	0.88	-28.346	0.475	61.595	0.475	61.595	0.88	-28.346
388.925	0.878	-28.502	0.477	61.439	0.477	61.439	0.878	-28.502
391.394	0.877	-28.657	0.48	61.283	0.48	61.283	0.877	-28.657
393.864	0.876	-28.812	0.482	61.127	0.482	61.127	0.876	-28.812
396.333	0.874	-28.967	0.484	60.972	0.484	60.972	0.874	-28.967
398.803	0.873	-29.121	0.487	60.818	0.487	60.818	0.873	-29.121
401.272	0.872	-29.275	0.489	60.664	0.489	60.664	0.872	-29.275
403.742	0.87	-29.429	0.491	60.51	0.491	60.51	0.87	-29.429
406.211	0.869	-29.582	0.494	60.356	0.494	60.356	0.869	-29.582
408.68	0.868	-29.734	0.496	60.203	0.496	60.203	0.868	-29.734
411.15	0.866	-29.886	0.498	60.051	0.498	60.051	0.866	-29.886
413.619	0.865	-30.038	0.501	59.899	0.501	59.899	0.865	-30.038
416.089	0.864	-30.19	0.503	59.747	0.503	59.747	0.864	-30.19
418.558	0.862	-30.341	0.505	59.595	0.505	59.595	0.862	-30.341
421.028	0.861	-30.491	0.507	59.444	0.507	59.444	0.861	-30.491
423.497	0.86	-30.641	0.51	59.294	0.51	59.294	0.86	-30.641
425.967	0.858	-30.791	0.512	59.144	0.512	59.144	0.858	-30.791
428.436	0.857	-30.941	0.514	58.994	0.514	58.994	0.857	-30.941
430.905	0.856	-31.09	0.516	58.845	0.516	58.845	0.856	-31.09
433.375	0.854	-31.238	0.519	58.696	0.519	58.696	0.854	-31.238
435.844	0.853	-31.386	0.521	58.547	0.521	58.547	0.853	-31.386
438.314	0.852	-31.534	0.523	58.399	0.523	58.399	0.852	-31.534
440.783	0.85	-31.681	0.525	58.251	0.525	58.251	0.85	-31.681
443.253	0.849	-31.828	0.527	58.104	0.527	58.104	0.849	-31.828
445.722	0.848	-31.975	0.53	57.957	0.53	57.957	0.848	-31.975
448.192	0.846	-32.121	0.532	57.81	0.532	57.81	0.846	-32.121
450.661	0.845	-32.267	0.534	57.664	0.534	57.664	0.845	-32.267
453.13	0.844	-32.412	0.536	57.518	0.536	57.518	0.844	-32.412
455.6	0.842	-32.557	0.538	57.373	0.538	57.373	0.842	-32.557
458.069	0.841	-32.702	0.54	57.228	0.54	57.228	0.841	-32.702
460.539	0.839	-32.846	0.542	57.084	0.542	57.084	0.839	-32.846
463.008	0.838	-32.99	0.544	56.939	0.544	56.939	0.838	-32.99
465.478	0.837	-33.133	0.547	56.796	0.547	56.796	0.837	-33.133
467.947	0.835	-33.276	0.549	56.652	0.549	56.652	0.835	-33.276
470.417	0.834	-33.418	0.551	56.51	0.551	56.51	0.834	-33.418
472.886	0.833	-33.561	0.553	56.367	0.553	56.367	0.833	-33.561
475.355	0.831	-33.702	0.555	56.225	0.555	56.225	0.831	-33.702
477.825	0.83	-33.844	0.557	56.083	0.557	56.083	0.83	-33.844
480.294	0.828	-33.984	0.559	55.942	0.559	55.942	0.828	-33.984
482.764	0.827	-34.125	0.561	55.801	0.561	55.801	0.827	-34.125
485.233	0.826	-34.265	0.563	55.66	0.563	55.66	0.826	-34.265
487.703	0.824	-34.405	0.565	55.52	0.565	55.52	0.824	-34.405
490.172	0.823	-34.544	0.567	55.381	0.567	55.381	0.823	-34.544
492.642	0.822	-34.683	0.569	55.241	0.569	55.241	0.822	-34.683
495.111	0.82	-34.822	0.571	55.102	0.571	55.102	0.82	-34.822
497.58	0.819	-34.96	0.573	54.964	0.573	54.964	0.819	-34.96
500.05	0.817	-35.098	0.575	54.826	0.575	54.826	0.817	-35.098
502.519	0.816	-35.235	0.577	54.688	0.577	54.688	0.816	-35.235
504.989	0.815	-35.372	0.579	54.551	0.579	54.551	0.815	-35.372
507.458	0.813	-35.508	0.581	54.414	0.581	54.414	0.813	-35.508
509.928	0.812	-35.645	0.583	54.277	0.583	54.277	0.812	-35.645
512.397	0.81	-35.78	0.585	54.141	0.585	54.141	0.81	-35.78
514.867	0.809	-35.916	0.587	54.005	0.587	54.005	0.809	-35.916
517.336	0.808	-36.051	0.589	53.87	0.589	53.87	0.808	-36.051
519.805	0.806	-36.185	0.59	53.735	0.59	53.735	0.806	-36.185
522.275	0.805	-36.319	0.592	53.6	0.592	53.6	0.805	-36.319
524.744	0.804	-36.453	0.594	53.466	0.594	53.466	0.804	-36.453
527.214	0.802	-36.587	0.596	53.332	0.596	53.332	0.802	-36.587
529.683	0.801	-36.72	0.598	53.199	0.598	53.199	0.801	-36.72
532.153	0.799	-36.852	0.6	53.066	0.6	53.066	0.799	-36.852
534.622	0.798	-36.984	0.602	52.933	0.602	52.933	0.798	-36.984
537.092	0.797	-37.116	0.603	52.801	0.603	52.801	0.797	-37.116
539.561	0.795	-37.248	0.605	52.669	0.605	52.669	0.795	-37.248
542.03	0.794	-37.379	0.607	52.538	0.607	52.538	0.794	-37.379
544.5	0.792	-37.51	0.609	52.407	0.609	52.407	0.792	-37.51
546.969	0.791	-37.64	0.611	52.276	0.611	52.276	0.791	-37.64
549.439	0.79	-37.77	0.612	52.146	0.612	52.146	0.79	-37.77
551.908	0.788	-37.899	0.614	52.016	0.614	52.016	0.788	-37.899
554.378	0.787	-38.028	0.616	51.886	0.616	51.886	0.787	-38.028
556.847	0.785	-38.157	0.618	51.757	0.618	51.757	0.785	-38.157
559.317	0.784	-38.285	0.62	51.628	0.62	51.628	0.784	-38.285
561.786	0.783	-38.413	0.621	51.5	0.621	51.5	0.783	-38.413
564.255	0.781	-38.541	0.623	51.372	0.623	51.372	0.781	-38.541
566.725	0.78	-38.668	0.625	51.244	0.625	51.244	0.78	-38.668
569.194	0.778	-38.795	0.627	51.117	0.627	51.117	0.778	-38.795
571.664	0.777	-38.922	0.628	50.99	0.628	50.99	0.777	-38.922
574.133	0.776	-39.048	0.63	50.864	0.63	50.864	0.776	-39.048
576.603	0.774	-39.173	0.632	50.738	0.632	50.738	0.774	-39.173
579.072	0.773	-39.299	0.633	50.612	0.633	50.612	0.773	-39.299
581.542	0.771	-39.424	0.635	50.486	0.635	50.486	0.771	-39.424
584.011	0.77	-39.548	0.637	50.361	0.637	50.361	0.77	-39.548
586.48	0.769	-39.672	0.638	50.237	0.638	50.237	0.769	-39.672
588.95	0.767	-39.796	0.64	50.113	0.64	50.113	0.767	-39.796
591.419	0.766	-39.92	0.642	49.989	0.642	49.989	0.766	-39.92
593.889	0.765	-40.043	0.643	49.865	0.643	49.865	0.765	-40.043
596.358	0.763	-40.165	0.645	49.742	0.645	49.742	0.763	-40.165
598.828	0.762	-40.288	0.647	49.62	0.647	49.62	0.762	-40.288
601.297	0.76	-40.41	0.648	49.497	0.648	49.497	0.76	-40.41
603.767	0.759	-40.531	0.65	49.375	0.65	49.375	0.759	-40.531
606.236	0.758	-40.653	0.651	49.254	0.651	49.254	0.758	-40.653
608.705	0.756	-40.773	0.653	49.132	0.653	49.132	0.756	-40.773
611.175	0.755	-40.894	0.655	49.011	0.655	49.011	0.755	-40.894
613.644	0.753	-41.014	0.656	48.891	0.656	48.891	0.753	-41.014
616.114	0.752	-41.134	0.658	48.771	0.658	48.771	0.752	-41.134
618.583	0.751	-41.253	0.659	48.651	0.659	48.651	0.751	-41.253
621.053	0.749	-41.372	0.661	48.531	0.661	48.531	0.749	-41.372
623.522	0.748	-41.491	0.663	48.412	0.663	48.412	0.748	-41.491
625.992	0.747	-41.609	0.664	48.294	0.664	48.294	0.747	-41.609
628.461	0.745	-41.727	0.666	48.175	0.666	48.175	0.745	-41.727
630.93	0.744	-41.845	0.667	48.057	0.667	48.057	0.744	-41.845
633.4	0.742	-41.962	0.669	47.94	0.669	47.94	0.742	-41.962
635.869	0.741	-42.079	0.67	47.822	0.67	47.822	0.741	-42.079
638.339	0.74	-42.195	0.672	47.705	0.672	47.705	0.74	-42.195
640.808	0.738	-42.312	0.673	47.589	0.673	47.589	0.738	-42.312
643.278	0.737	-42.427	0.675	47.473	0.675	47.473	0.737	-42.427
645.747	0.736	-42.543	0.676	47.357	0.676	47.357	0.736	-42.543
648.217	0.734	-42.658	0.678	47.241	0.678	47.241	0.734	-42.658
650.686	0.733	-42.773	0.679	47.126	0.679	47.126	0.733	-42.773
653.155	0.731	-42.887	0.681	47.011	0.681	47.011	0.731	-42.887
655.625	0.73	-43.001	0.682	46.897	0.682	46.897	0.73	-43.001
658.094	0.729	-43.115	0.683	46.783	0.683	46.783	0.729	-43.115
660.564	0.727	-43.228	0.685	46.669	0.685	46.669	0.727	-43.228
663.033	0.726	-43.341	0.686	46.556	0.686	46.556	0.726	-43.341
665.503	0.725	-43.454	0.688	46.443	0.688	46.443	0.725	-43.454
667.972	0.723	-43.566	0.689	46.33	0.689	46.33	0.723	-43.566
670.442	0.722	-43.678	0.691	46.217	0.691	46.217	0.722	-43.678
672.911	0.721	-43.79	0.692	46.105	0.692	46.105	0.721	-43.79
675.38	0.719	-43.901	0.693	45.994	0.693	45.994	0.719	-43.901
677.85	0.718	-44.012	0.695	45.882	0.695	45.882	0.718	-44.012
680.319	0.717	-44.123	0.696	45.771	0.696	45.771	0.717	-44.123
682.789	0.715	-44.233	0.698	45.661	0.698	45.661	0.715	-44.233
685.258	0.714	-44.343	0.699	45.55	0.699	45.55	0.714	-44.343
687.728	0.713	-44.452	0.7	45.44	0.7	45.44	0.713	-44.452
690.197	0.711	-44.562	0.702	45.331	0.702	45.331	0.711	-44.562
692.667	0.71	-44.671	0.703	45.221	0.703	45.221	0.71	-44.671
695.136	0.708	-44.779	0.704	45.112	0.704	45.112	0.708	-44.779
697.605	0.707	-44.887	0.706	45.004	0.706	45.004	0.707	-44.887
700.075	0.706	-44.995	0.707	44.895	0.707	44.895	0.706	-44.995
702.544	0.704	-45.103	0.708	44.787	0.708	44.787	0.704	-45.103
705.014	0.703	-45.21	0.71	44.68	0.71	44.68	0.703	-45.21
707.483	0.702	-45.317	0.711	44.572	0.711	44.572	0.702	-45.317
709.953	0.7	-45.424	0.712	44.465	0.712	44.465	0.7	-45.424
712.422	0.699	-45.53	0.714	44.359	0.714	44.359	0.699	-45.53
714.891	0.698	-45.636	0.715	44.252	0.715	44.252	0.698	-45.636
717.361	0.696	-45.741	0.716	44.146	0.716	44.146	0.696	-45.741
719.83	0.695	-45.847	0.717	44.041	0.717	44.041	0.695	-45.847
722.3	0.694	-45.952	0.719	43.935	0.719	43.935	0.694	-45.952
724.769	0.693	-46.056	0.72	43.83	0.72	43.83	0.693	-46.056
727.239	0.691	-46.161	0.721	43.725	0.721	43.725	0.691	-46.161
729.708	0.69	-46.265	0.723	43.621	0.723	43.621	0.69	-46.265
732.178	0.689	-46.368	0.724	43.517	0.724	43.517	0.689	-46.368
734.647	0.687	-46.472	0.725	43.413	0.725	43.413	0.687	-46.472
737.116	0.686	-46.575	0.726	43.31	0.726	43.31	0.686	-46.575
739.586	0.685	-46.677	0.728	43.207	0.728	43.207	0.685	-46.677
742.055	0.683	-46.78	0.729	43.104	0.729	43.104	0.683	-46.78
744.525	0.682	-46.882	0.73	43.001	0.73	43.001	0.682	-46.882
746.994	0.681	-46.984	0.731	42.899	0.731	42.899	0.681	-46.984
749.464	0.679	-47.085	0.732	42.797	0.732	42.797	0.679	-47.085
751.933	0.678	-47.186	0.734	42.695	0.734	42.695	0.678	-47.186
754.403	0.677	-47.287	0.735	42.594	0.735	42.594	0.677	-47.287
756.872	0.676	-47.388	0.736	42.493	0.736	42.493	0.676	-47.388
759.341	0.674	-47.488	0.737	42.393	0.737	42.393	0.674	-47.488
761.811	0.673	-47.588	0.738	42.292	0.738	42.292	0.673	-47.588
764.28	0.672	-47.688	0.739	42.192	0.739	42.192	0.672	-47.688
766.75	0.67	-47.787	0.741	42.092	0.741	42.092	0.67	-47.787
769.219	0.669	-47.886	0.742	41.993	0.742	41.993	0.669	-47.886
771.689	0.668	-47.985	0.743	41.894	0.743	41.894	0.668	-47.985
774.158	0.666	-48.083	0.744	41.795	0.744	41.795	0.666	-48.083
776.628	0.665	-48.181	0.745	41.696	0.745	41.696	0.665	-48.181
779.097	0.664	-48.279	0.746	41.598	0.746	41.598	0.664	-48.279
781.566	0.663	-48.377	0.748	41.5	0.748	41.5	0.663	-48.377
784.036	0.661	-48.474	0.749	41.403	0.749	41.403	0.661	-48.474
786.505	0.66	-48.571	0.75	41.305	0.75	41.305	0.66	-48.571
788.975	0.659	-48.667	0.751	41.208	0.751	41.208	0.659	-48.667
791.444	0.658	-48.764	0.752	41.112	0.752	41.112	0.658	-48.764
793.914	0.656	-48.86	0.753	41.015	0.753	41.015	0.656	-48.86
796.383	0.655	-48.955	0.754	40.919	0.754	40.919	0.655	-48.955
798.853	0.654	-49.051	0.755	40.823	0.755	40.823	0.654	-49.051
801.322	0.652	-49.146	0.756	40.727	0.756	40.727	0.652	-49.146
803.791	0.651	-49.241	0.757	40.632	0.757	40.632	0.651	-49.241
806.261	0.65	-49.335	0.759	40.537	0.759	40.537	0.65	-49.335
808.73	0.649	-49.43	0.76	40.442	0.76	40.442	0.649	-49.43
811.2	0.647	-49.524	0.761	40.348	0.761	40.348	0.647	-49.524
813.669	0.646	-49.617	0.762	40.254	0.762	40.254	0.646	-49.617
816.139	0.645	-49.711	0.763	40.16	0.763	40.16	0.645	-49.711
818.608	0.644	-49.804	0.764	40.066	0.764	40.066	0.644	-49.804
821.078	0.642	-49.897	0.765	39.973	0.765	39.973	0.642	-49.897
823.547	0.641	-49.989	0.766	39.88	0.766	39.88	0.641	-49.989
826.016	0.64	-50.082	0.767	39.787	0.767	39.787	0.64	-50.082
828.486	0.639	-50.174	0.768	39.695	0.768	39.695	0.639	-50.174
830.955	0.637	-50.266	0.769	39.603	0.769	39.603	0.637	-50.266
833.425	0.636	-50.357	0.77	39.511	0.77	39.511	0.636	-50.357
835.894	0.635	-50.448	0.771	39.419	0.771	39.419	0.635	-50.448
838.364	0.634	-50.539	0.772	39.328	0.772	39.328	0.634	-50.539
840.833	0.633	-50.63	0.773	39.237	0.773	39.237	0.633	-50.63
843.303	0.631	-50.72	0.774	39.146	0.774	39.146	0.631	-50.72
845.772	0.63	-50.81	0.775	39.055	0.775	39.055	0.63	-50.81
848.241	0.629	-50.9	0.776	38.965	0.776	38.965	0.629	-50.9
850.711	0.628	-50.99	0.777	38.875	0.777	38.875	0.628	-50.99
853.18	0.626	-51.079	0.778	38.785	0.778	38.785	0.626	-51.079
855.65	0.625	-51.168	0.779	38.696	0.779	38.696	0.625	-51.168
858.119	0.624	-51.257	0.78	38.607	0.78	38.607	0.624	-51.257
860.589	0.623	-51.345	0.781	38.518	0.781	38.518	0.623	-51.345
863.058	0.622	-51.433	0.782	38.429	0.782	38.429	0.622	-51.433
865.528	0.62	-51.521	0.783	38.341	0.783	38.341	0.62	-51.521
867.997	0.619	-51.609	0.784	38.253	0.784	38.253	0.619	-51.609
870.466	0.618	-51.696	0.785	38.165	0.785	38.165	0.618	-51.696
872.936	0.617	-51.784	0.786	38.077	0.786	38.077	0.617	-51.784
875.405	0.616	-51.87	0.787	37.99	0.787	37.99	0.616	-51.87
877.875	0.614	-51.957	0.788	37.903	0.788	37.903	0.614	-51.957
880.344	0.613	-52.043	0.788	37.816	0.788	37.816	0.613	-52.043
882.814	0.612	-52.13	0.789	37.73	0.789	37.73	0.612	-52.13
885.283	0.611	-52.215	0.79	37.643	0.79	37.643	0.611	-52.215
887.753	0.61	-52.301	0.791	37.557	0.791	37.557	0.61	-52.301
890.222	0.608	-52.386	0.792	37.471	0.792	37.471	0.608	-52.386
892.691	0.607	-52.471	0.793	37.386	0.793	37.386	0.607	-52.471
895.161	0.606	-52.556	0.794	37.301	0.794	37.301	0.606	-52.556
897.63	0.605	-52.641	0.795	37.216	0.795	37.216	0.605	-52.641
