! AVX Thin Film Operation		Date: April 2012 
! Description: Accu-P® Series, Thin Film, SMD, RF Capacitor
! Part Number: 08051J3R0QBTTR					
!	100	MHz	-	20.05	GHz			
!	Serial	Measurements						
!								
#	MHZ	S	MA	R	50			
!	S11	S21	S12	S22				
!	dB	Phase	dB	Phase	dB	Phase	dB	Phase
100	0.983	-10.684	0.185	79.299	0.185	79.299	0.983	-10.684
102.469	0.982	-10.942	0.19	79.041	0.19	79.041	0.982	-10.942
104.939	0.981	-11.199	0.194	78.783	0.194	78.783	0.981	-11.199
107.408	0.98	-11.456	0.199	78.525	0.199	78.525	0.98	-11.456
109.878	0.979	-11.713	0.203	78.268	0.203	78.268	0.979	-11.713
112.347	0.978	-11.969	0.207	78.011	0.207	78.011	0.978	-11.969
114.817	0.977	-12.225	0.212	77.755	0.212	77.755	0.977	-12.225
117.286	0.976	-12.48	0.216	77.499	0.216	77.499	0.976	-12.48
119.756	0.975	-12.735	0.22	77.244	0.22	77.244	0.975	-12.735
122.225	0.974	-12.99	0.225	76.989	0.225	76.989	0.974	-12.99
124.694	0.973	-13.244	0.229	76.735	0.229	76.735	0.973	-13.244
127.164	0.972	-13.497	0.233	76.481	0.233	76.481	0.972	-13.497
129.633	0.971	-13.75	0.238	76.227	0.238	76.227	0.971	-13.75
132.103	0.97	-14.003	0.242	75.975	0.242	75.975	0.97	-14.003
134.572	0.969	-14.254	0.246	75.722	0.246	75.722	0.969	-14.254
137.042	0.968	-14.506	0.25	75.47	0.25	75.47	0.968	-14.506
139.511	0.967	-14.757	0.255	75.219	0.255	75.219	0.967	-14.757
141.981	0.966	-15.007	0.259	74.968	0.259	74.968	0.966	-15.007
144.45	0.965	-15.257	0.263	74.718	0.263	74.718	0.965	-15.257
146.919	0.963	-15.506	0.267	74.468	0.267	74.468	0.963	-15.506
149.389	0.962	-15.755	0.272	74.219	0.272	74.219	0.962	-15.755
151.858	0.961	-16.003	0.276	73.971	0.276	73.971	0.961	-16.003
154.328	0.96	-16.251	0.28	73.723	0.28	73.723	0.96	-16.251
156.797	0.959	-16.498	0.284	73.475	0.284	73.475	0.959	-16.498
159.267	0.957	-16.744	0.288	73.228	0.288	73.228	0.957	-16.744
161.736	0.956	-16.99	0.292	72.982	0.292	72.982	0.956	-16.99
164.206	0.955	-17.235	0.296	72.736	0.296	72.736	0.955	-17.235
166.675	0.954	-17.48	0.3	72.491	0.3	72.491	0.954	-17.48
169.144	0.952	-17.724	0.304	72.247	0.304	72.247	0.952	-17.724
171.614	0.951	-17.967	0.308	72.003	0.308	72.003	0.951	-17.967
174.083	0.95	-18.21	0.313	71.76	0.313	71.76	0.95	-18.21
176.553	0.948	-18.452	0.317	71.517	0.317	71.517	0.948	-18.452
179.022	0.947	-18.694	0.321	71.275	0.321	71.275	0.947	-18.694
181.492	0.946	-18.935	0.324	71.034	0.324	71.034	0.946	-18.935
183.961	0.944	-19.175	0.328	70.793	0.328	70.793	0.944	-19.175
186.431	0.943	-19.415	0.332	70.553	0.332	70.553	0.943	-19.415
188.9	0.942	-19.654	0.336	70.313	0.336	70.313	0.942	-19.654
191.369	0.94	-19.892	0.34	70.075	0.34	70.075	0.94	-19.892
193.839	0.939	-20.13	0.344	69.836	0.344	69.836	0.939	-20.13
196.308	0.937	-20.367	0.348	69.599	0.348	69.599	0.937	-20.367
198.778	0.936	-20.603	0.352	69.362	0.352	69.362	0.936	-20.603
201.247	0.934	-20.839	0.356	69.126	0.356	69.126	0.934	-20.839
203.717	0.933	-21.074	0.36	68.891	0.36	68.891	0.933	-21.074
206.186	0.931	-21.308	0.363	68.656	0.363	68.656	0.931	-21.308
208.656	0.93	-21.542	0.367	68.422	0.367	68.422	0.93	-21.542
211.125	0.928	-21.775	0.371	68.188	0.371	68.188	0.928	-21.775
213.594	0.927	-22.007	0.375	67.956	0.375	67.956	0.927	-22.007
216.064	0.925	-22.239	0.378	67.724	0.378	67.724	0.925	-22.239
218.533	0.924	-22.47	0.382	67.492	0.382	67.492	0.924	-22.47
221.003	0.922	-22.7	0.386	67.262	0.386	67.262	0.922	-22.7
223.472	0.921	-22.929	0.39	67.032	0.39	67.032	0.921	-22.929
225.942	0.919	-23.158	0.393	66.803	0.393	66.803	0.919	-23.158
228.411	0.918	-23.386	0.397	66.574	0.397	66.574	0.918	-23.386
230.881	0.916	-23.613	0.401	66.347	0.401	66.347	0.916	-23.613
233.35	0.914	-23.84	0.404	66.12	0.404	66.12	0.914	-23.84
235.819	0.913	-24.066	0.408	65.893	0.408	65.893	0.913	-24.066
238.289	0.911	-24.291	0.411	65.668	0.411	65.668	0.911	-24.291
240.758	0.91	-24.515	0.415	65.443	0.415	65.443	0.91	-24.515
243.228	0.908	-24.739	0.418	65.219	0.418	65.219	0.908	-24.739
245.697	0.906	-24.962	0.422	64.995	0.422	64.995	0.906	-24.962
248.167	0.905	-25.184	0.426	64.773	0.426	64.773	0.905	-25.184
250.636	0.903	-25.406	0.429	64.551	0.429	64.551	0.903	-25.406
253.106	0.901	-25.626	0.432	64.33	0.432	64.33	0.901	-25.626
255.575	0.9	-25.846	0.436	64.109	0.436	64.109	0.9	-25.846
258.044	0.898	-26.065	0.439	63.89	0.439	63.89	0.898	-26.065
260.514	0.896	-26.284	0.443	63.671	0.443	63.671	0.896	-26.284
262.983	0.895	-26.502	0.446	63.453	0.446	63.453	0.895	-26.502
265.453	0.893	-26.719	0.45	63.235	0.45	63.235	0.893	-26.719
267.922	0.891	-26.935	0.453	63.018	0.453	63.018	0.891	-26.935
270.392	0.889	-27.15	0.456	62.802	0.456	62.802	0.889	-27.15
272.861	0.888	-27.365	0.46	62.587	0.46	62.587	0.888	-27.365
275.331	0.886	-27.579	0.463	62.373	0.463	62.373	0.886	-27.579
277.8	0.884	-27.792	0.466	62.159	0.466	62.159	0.884	-27.792
280.269	0.883	-28.005	0.47	61.946	0.47	61.946	0.883	-28.005
282.739	0.881	-28.216	0.473	61.734	0.473	61.734	0.881	-28.216
285.208	0.879	-28.427	0.476	61.523	0.476	61.523	0.879	-28.427
287.678	0.877	-28.638	0.479	61.312	0.479	61.312	0.877	-28.638
290.147	0.875	-28.847	0.482	61.102	0.482	61.102	0.875	-28.847
292.617	0.874	-29.056	0.486	60.893	0.486	60.893	0.874	-29.056
295.086	0.872	-29.264	0.489	60.685	0.489	60.685	0.872	-29.264
297.556	0.87	-29.471	0.492	60.477	0.492	60.477	0.87	-29.471
300.025	0.868	-29.677	0.495	60.271	0.495	60.271	0.868	-29.677
302.494	0.867	-29.883	0.498	60.065	0.498	60.065	0.867	-29.883
304.964	0.865	-30.087	0.501	59.859	0.501	59.859	0.865	-30.087
307.433	0.863	-30.291	0.504	59.655	0.504	59.655	0.863	-30.291
309.903	0.861	-30.495	0.507	59.451	0.507	59.451	0.861	-30.495
312.372	0.859	-30.697	0.511	59.248	0.511	59.248	0.859	-30.697
314.842	0.858	-30.899	0.514	59.046	0.514	59.046	0.858	-30.899
317.311	0.856	-31.1	0.517	58.845	0.517	58.845	0.856	-31.1
319.78	0.854	-31.3	0.52	58.644	0.52	58.644	0.854	-31.3
322.25	0.852	-31.5	0.522	58.444	0.522	58.444	0.852	-31.5
324.719	0.85	-31.698	0.525	58.245	0.525	58.245	0.85	-31.698
327.189	0.848	-31.896	0.528	58.047	0.528	58.047	0.848	-31.896
329.658	0.847	-32.093	0.531	57.849	0.531	57.849	0.847	-32.093
332.128	0.845	-32.29	0.534	57.652	0.534	57.652	0.845	-32.29
334.597	0.843	-32.485	0.537	57.456	0.537	57.456	0.843	-32.485
337.067	0.841	-32.68	0.54	57.261	0.54	57.261	0.841	-32.68
339.536	0.839	-32.874	0.543	57.067	0.543	57.067	0.839	-32.874
342.005	0.837	-33.067	0.546	56.873	0.546	56.873	0.837	-33.067
344.475	0.836	-33.26	0.548	56.68	0.548	56.68	0.836	-33.26
346.944	0.834	-33.452	0.551	56.488	0.551	56.488	0.834	-33.452
349.414	0.832	-33.643	0.554	56.296	0.554	56.296	0.832	-33.643
351.883	0.83	-33.833	0.557	56.105	0.557	56.105	0.83	-33.833
354.353	0.828	-34.023	0.56	55.915	0.56	55.915	0.828	-34.023
356.822	0.826	-34.211	0.562	55.726	0.562	55.726	0.826	-34.211
359.292	0.825	-34.399	0.565	55.538	0.565	55.538	0.825	-34.399
361.761	0.823	-34.587	0.568	55.35	0.568	55.35	0.823	-34.587
364.23	0.821	-34.773	0.57	55.163	0.57	55.163	0.821	-34.773
366.7	0.819	-34.959	0.573	54.977	0.573	54.977	0.819	-34.959
369.169	0.817	-35.144	0.576	54.792	0.576	54.792	0.817	-35.144
371.639	0.815	-35.328	0.578	54.607	0.578	54.607	0.815	-35.328
374.108	0.813	-35.511	0.581	54.423	0.581	54.423	0.813	-35.511
376.578	0.811	-35.694	0.583	54.24	0.583	54.24	0.811	-35.694
379.047	0.81	-35.876	0.586	54.058	0.586	54.058	0.81	-35.876
381.517	0.808	-36.057	0.589	53.876	0.589	53.876	0.808	-36.057
383.986	0.806	-36.238	0.591	53.695	0.591	53.695	0.806	-36.238
386.455	0.804	-36.417	0.594	53.515	0.594	53.515	0.804	-36.417
388.925	0.802	-36.596	0.596	53.335	0.596	53.335	0.802	-36.596
391.394	0.8	-36.775	0.599	53.157	0.599	53.157	0.8	-36.775
393.864	0.798	-36.952	0.601	52.979	0.601	52.979	0.798	-36.952
396.333	0.797	-37.129	0.604	52.801	0.604	52.801	0.797	-37.129
398.803	0.795	-37.305	0.606	52.625	0.606	52.625	0.795	-37.305
401.272	0.793	-37.48	0.608	52.449	0.608	52.449	0.793	-37.48
403.742	0.791	-37.655	0.611	52.274	0.611	52.274	0.791	-37.655
406.211	0.789	-37.829	0.613	52.1	0.613	52.1	0.789	-37.829
408.68	0.787	-38.002	0.616	51.926	0.616	51.926	0.787	-38.002
411.15	0.785	-38.174	0.618	51.754	0.618	51.754	0.785	-38.174
413.619	0.783	-38.346	0.62	51.581	0.62	51.581	0.783	-38.346
416.089	0.782	-38.517	0.623	51.41	0.623	51.41	0.782	-38.517
418.558	0.78	-38.687	0.625	51.239	0.625	51.239	0.78	-38.687
421.028	0.778	-38.857	0.627	51.069	0.627	51.069	0.778	-38.857
423.497	0.776	-39.025	0.63	50.9	0.63	50.9	0.776	-39.025
425.967	0.774	-39.194	0.632	50.732	0.632	50.732	0.774	-39.194
428.436	0.772	-39.361	0.634	50.564	0.634	50.564	0.772	-39.361
430.905	0.77	-39.528	0.636	50.397	0.636	50.397	0.77	-39.528
433.375	0.769	-39.693	0.639	50.23	0.639	50.23	0.769	-39.693
435.844	0.767	-39.859	0.641	50.065	0.641	50.065	0.767	-39.859
438.314	0.765	-40.023	0.643	49.9	0.643	49.9	0.765	-40.023
440.783	0.763	-40.187	0.645	49.735	0.645	49.735	0.763	-40.187
443.253	0.761	-40.35	0.647	49.572	0.647	49.572	0.761	-40.35
445.722	0.759	-40.513	0.65	49.409	0.65	49.409	0.759	-40.513
448.192	0.758	-40.674	0.652	49.247	0.652	49.247	0.758	-40.674
450.661	0.756	-40.836	0.654	49.085	0.654	49.085	0.756	-40.836
453.13	0.754	-40.996	0.656	48.924	0.656	48.924	0.754	-40.996
455.6	0.752	-41.156	0.658	48.764	0.658	48.764	0.752	-41.156
458.069	0.75	-41.315	0.66	48.605	0.66	48.605	0.75	-41.315
460.539	0.748	-41.473	0.662	48.446	0.662	48.446	0.748	-41.473
463.008	0.746	-41.631	0.664	48.288	0.664	48.288	0.746	-41.631
465.478	0.745	-41.788	0.666	48.13	0.666	48.13	0.745	-41.788
467.947	0.743	-41.944	0.668	47.974	0.668	47.974	0.743	-41.944
470.417	0.741	-42.1	0.67	47.817	0.67	47.817	0.741	-42.1
472.886	0.739	-42.254	0.672	47.662	0.672	47.662	0.739	-42.254
475.355	0.737	-42.409	0.674	47.507	0.674	47.507	0.737	-42.409
477.825	0.736	-42.562	0.676	47.353	0.676	47.353	0.736	-42.562
480.294	0.734	-42.715	0.678	47.2	0.678	47.2	0.734	-42.715
482.764	0.732	-42.868	0.68	47.047	0.68	47.047	0.732	-42.868
485.233	0.73	-43.019	0.682	46.895	0.682	46.895	0.73	-43.019
487.703	0.728	-43.17	0.684	46.744	0.684	46.744	0.728	-43.17
490.172	0.726	-43.321	0.686	46.593	0.686	46.593	0.726	-43.321
492.642	0.725	-43.47	0.688	46.443	0.688	46.443	0.725	-43.47
495.111	0.723	-43.619	0.69	46.293	0.69	46.293	0.723	-43.619
497.58	0.721	-43.768	0.692	46.144	0.692	46.144	0.721	-43.768
500.05	0.719	-43.916	0.694	45.996	0.694	45.996	0.719	-43.916
502.519	0.718	-44.063	0.695	45.848	0.695	45.848	0.718	-44.063
504.989	0.716	-44.209	0.697	45.701	0.697	45.701	0.716	-44.209
507.458	0.714	-44.355	0.699	45.555	0.699	45.555	0.714	-44.355
509.928	0.712	-44.5	0.701	45.409	0.701	45.409	0.712	-44.5
512.397	0.71	-44.645	0.703	45.264	0.703	45.264	0.71	-44.645
514.867	0.709	-44.789	0.704	45.12	0.704	45.12	0.709	-44.789
517.336	0.707	-44.932	0.706	44.976	0.706	44.976	0.707	-44.932
519.805	0.705	-45.075	0.708	44.833	0.708	44.833	0.705	-45.075
522.275	0.703	-45.217	0.71	44.69	0.71	44.69	0.703	-45.217
524.744	0.702	-45.359	0.712	44.548	0.712	44.548	0.702	-45.359
527.214	0.7	-45.499	0.713	44.407	0.713	44.407	0.7	-45.499
529.683	0.698	-45.64	0.715	44.266	0.715	44.266	0.698	-45.64
532.153	0.696	-45.779	0.717	44.126	0.717	44.126	0.696	-45.779
534.622	0.694	-45.918	0.718	43.987	0.718	43.987	0.694	-45.918
537.092	0.693	-46.057	0.72	43.848	0.72	43.848	0.693	-46.057
539.561	0.691	-46.195	0.722	43.709	0.722	43.709	0.691	-46.195
542.03	0.689	-46.332	0.723	43.572	0.723	43.572	0.689	-46.332
544.5	0.688	-46.469	0.725	43.435	0.725	43.435	0.688	-46.469
546.969	0.686	-46.605	0.727	43.298	0.727	43.298	0.686	-46.605
549.439	0.684	-46.74	0.728	43.162	0.728	43.162	0.684	-46.74
551.908	0.682	-46.875	0.73	43.027	0.73	43.027	0.682	-46.875
554.378	0.681	-47.01	0.731	42.892	0.731	42.892	0.681	-47.01
556.847	0.679	-47.143	0.733	42.758	0.733	42.758	0.679	-47.143
559.317	0.677	-47.276	0.735	42.624	0.735	42.624	0.677	-47.276
561.786	0.675	-47.409	0.736	42.491	0.736	42.491	0.675	-47.409
564.255	0.674	-47.541	0.738	42.358	0.738	42.358	0.674	-47.541
566.725	0.672	-47.673	0.739	42.226	0.739	42.226	0.672	-47.673
569.194	0.67	-47.803	0.741	42.095	0.741	42.095	0.67	-47.803
571.664	0.669	-47.934	0.742	41.964	0.742	41.964	0.669	-47.934
574.133	0.667	-48.064	0.744	41.834	0.744	41.834	0.667	-48.064
576.603	0.665	-48.193	0.745	41.704	0.745	41.704	0.665	-48.193
579.072	0.664	-48.321	0.747	41.575	0.747	41.575	0.664	-48.321
581.542	0.662	-48.45	0.748	41.447	0.748	41.447	0.662	-48.45
584.011	0.66	-48.577	0.75	41.319	0.75	41.319	0.66	-48.577
586.48	0.659	-48.704	0.751	41.191	0.751	41.191	0.659	-48.704
588.95	0.657	-48.831	0.753	41.064	0.753	41.064	0.657	-48.831
591.419	0.655	-48.957	0.754	40.938	0.754	40.938	0.655	-48.957
593.889	0.654	-49.082	0.756	40.812	0.756	40.812	0.654	-49.082
596.358	0.652	-49.207	0.757	40.687	0.757	40.687	0.652	-49.207
598.828	0.65	-49.331	0.758	40.562	0.758	40.562	0.65	-49.331
601.297	0.649	-49.455	0.76	40.438	0.76	40.438	0.649	-49.455
603.767	0.647	-49.578	0.761	40.314	0.761	40.314	0.647	-49.578
606.236	0.645	-49.701	0.763	40.191	0.763	40.191	0.645	-49.701
608.705	0.644	-49.823	0.764	40.068	0.764	40.068	0.644	-49.823
611.175	0.642	-49.945	0.765	39.946	0.765	39.946	0.642	-49.945
613.644	0.64	-50.066	0.767	39.824	0.767	39.824	0.64	-50.066
616.114	0.639	-50.186	0.768	39.703	0.768	39.703	0.639	-50.186
618.583	0.637	-50.307	0.769	39.583	0.769	39.583	0.637	-50.307
621.053	0.636	-50.426	0.771	39.463	0.771	39.463	0.636	-50.426
623.522	0.634	-50.545	0.772	39.343	0.772	39.343	0.634	-50.545
625.992	0.632	-50.664	0.773	39.224	0.773	39.224	0.632	-50.664
628.461	0.631	-50.782	0.775	39.105	0.775	39.105	0.631	-50.782
630.93	0.629	-50.9	0.776	38.987	0.776	38.987	0.629	-50.9
633.4	0.628	-51.017	0.777	38.87	0.777	38.87	0.628	-51.017
635.869	0.626	-51.133	0.779	38.753	0.779	38.753	0.626	-51.133
638.339	0.624	-51.249	0.78	38.636	0.78	38.636	0.624	-51.249
640.808	0.623	-51.365	0.781	38.52	0.781	38.52	0.623	-51.365
643.278	0.621	-51.48	0.782	38.404	0.782	38.404	0.621	-51.48
645.747	0.62	-51.595	0.784	38.289	0.784	38.289	0.62	-51.595
648.217	0.618	-51.709	0.785	38.175	0.785	38.175	0.618	-51.709
650.686	0.616	-51.823	0.786	38.06	0.786	38.06	0.616	-51.823
653.155	0.615	-51.936	0.787	37.947	0.787	37.947	0.615	-51.936
655.625	0.613	-52.048	0.789	37.834	0.789	37.834	0.613	-52.048
658.094	0.612	-52.161	0.79	37.721	0.79	37.721	0.612	-52.161
660.564	0.61	-52.273	0.791	37.609	0.791	37.609	0.61	-52.273
663.033	0.609	-52.384	0.792	37.497	0.792	37.497	0.609	-52.384
665.503	0.607	-52.495	0.793	37.385	0.793	37.385	0.607	-52.495
667.972	0.606	-52.605	0.794	37.275	0.794	37.275	0.606	-52.605
670.442	0.604	-52.715	0.796	37.164	0.796	37.164	0.604	-52.715
672.911	0.603	-52.824	0.797	37.054	0.797	37.054	0.603	-52.824
675.38	0.601	-52.933	0.798	36.945	0.798	36.945	0.601	-52.933
677.85	0.6	-53.042	0.799	36.836	0.799	36.836	0.6	-53.042
680.319	0.598	-53.15	0.8	36.727	0.8	36.727	0.598	-53.15
682.789	0.596	-53.258	0.801	36.619	0.801	36.619	0.596	-53.258
685.258	0.595	-53.365	0.802	36.511	0.802	36.511	0.595	-53.365
687.728	0.593	-53.472	0.804	36.404	0.804	36.404	0.593	-53.472
690.197	0.592	-53.578	0.805	36.297	0.805	36.297	0.592	-53.578
692.667	0.59	-53.684	0.806	36.191	0.806	36.191	0.59	-53.684
695.136	0.589	-53.789	0.807	36.085	0.807	36.085	0.589	-53.789
697.605	0.587	-53.894	0.808	35.98	0.808	35.98	0.587	-53.894
700.075	0.586	-53.999	0.809	35.875	0.809	35.875	0.586	-53.999
702.544	0.585	-54.103	0.81	35.77	0.81	35.77	0.585	-54.103
705.014	0.583	-54.207	0.811	35.666	0.811	35.666	0.583	-54.207
707.483	0.582	-54.31	0.812	35.562	0.812	35.562	0.582	-54.31
709.953	0.58	-54.413	0.813	35.459	0.813	35.459	0.58	-54.413
712.422	0.579	-54.515	0.814	35.356	0.814	35.356	0.579	-54.515
714.891	0.577	-54.617	0.815	35.253	0.815	35.253	0.577	-54.617
717.361	0.576	-54.719	0.816	35.151	0.816	35.151	0.576	-54.719
719.83	0.574	-54.82	0.817	35.05	0.817	35.05	0.574	-54.82
722.3	0.573	-54.921	0.818	34.948	0.818	34.948	0.573	-54.921
724.769	0.571	-55.021	0.819	34.847	0.819	34.847	0.571	-55.021
727.239	0.57	-55.121	0.82	34.747	0.82	34.747	0.57	-55.121
729.708	0.569	-55.22	0.821	34.647	0.821	34.647	0.569	-55.22
732.178	0.567	-55.32	0.822	34.547	0.822	34.547	0.567	-55.32
734.647	0.566	-55.418	0.823	34.448	0.823	34.448	0.566	-55.418
737.116	0.564	-55.517	0.824	34.349	0.824	34.349	0.564	-55.517
739.586	0.563	-55.615	0.825	34.251	0.825	34.251	0.563	-55.615
742.055	0.561	-55.712	0.826	34.153	0.826	34.153	0.561	-55.712
744.525	0.56	-55.809	0.827	34.055	0.827	34.055	0.56	-55.809
746.994	0.559	-55.906	0.828	33.958	0.828	33.958	0.559	-55.906
749.464	0.557	-56.002	0.829	33.861	0.829	33.861	0.557	-56.002
751.933	0.556	-56.098	0.83	33.765	0.83	33.765	0.556	-56.098
754.403	0.554	-56.194	0.831	33.669	0.831	33.669	0.554	-56.194
756.872	0.553	-56.289	0.832	33.573	0.832	33.573	0.553	-56.289
759.341	0.552	-56.384	0.833	33.478	0.833	33.478	0.552	-56.384
761.811	0.55	-56.478	0.834	33.383	0.834	33.383	0.55	-56.478
764.28	0.549	-56.572	0.835	33.288	0.835	33.288	0.549	-56.572
766.75	0.547	-56.666	0.835	33.194	0.835	33.194	0.547	-56.666
769.219	0.546	-56.759	0.836	33.1	0.836	33.1	0.546	-56.759
771.689	0.545	-56.852	0.837	33.007	0.837	33.007	0.545	-56.852
774.158	0.543	-56.945	0.838	32.914	0.838	32.914	0.543	-56.945
776.628	0.542	-57.037	0.839	32.821	0.839	32.821	0.542	-57.037
779.097	0.541	-57.129	0.84	32.729	0.84	32.729	0.541	-57.129
781.566	0.539	-57.22	0.841	32.637	0.841	32.637	0.539	-57.22
784.036	0.538	-57.311	0.842	32.545	0.842	32.545	0.538	-57.311
786.505	0.537	-57.402	0.842	32.454	0.842	32.454	0.537	-57.402
788.975	0.535	-57.493	0.843	32.363	0.843	32.363	0.535	-57.493
791.444	0.534	-57.583	0.844	32.272	0.844	32.272	0.534	-57.583
793.914	0.533	-57.672	0.845	32.182	0.845	32.182	0.533	-57.672
796.383	0.531	-57.762	0.846	32.092	0.846	32.092	0.531	-57.762
798.853	0.53	-57.85	0.847	32.003	0.847	32.003	0.53	-57.85
801.322	0.529	-57.939	0.847	31.914	0.847	31.914	0.529	-57.939
803.791	0.527	-58.027	0.848	31.825	0.848	31.825	0.527	-58.027
806.261	0.526	-58.115	0.849	31.737	0.849	31.737	0.526	-58.115
808.73	0.525	-58.203	0.85	31.649	0.85	31.649	0.525	-58.203
811.2	0.523	-58.29	0.851	31.561	0.851	31.561	0.523	-58.29
813.669	0.522	-58.377	0.852	31.473	0.852	31.473	0.522	-58.377
816.139	0.521	-58.464	0.852	31.386	0.852	31.386	0.521	-58.464
818.608	0.52	-58.55	0.853	31.3	0.853	31.3	0.52	-58.55
821.078	0.518	-58.636	0.854	31.213	0.854	31.213	0.518	-58.636
823.547	0.517	-58.721	0.855	31.127	0.855	31.127	0.517	-58.721
826.016	0.516	-58.807	0.855	31.041	0.855	31.041	0.516	-58.807
828.486	0.514	-58.891	0.856	30.956	0.856	30.956	0.514	-58.891
830.955	0.513	-58.976	0.857	30.871	0.857	30.871	0.513	-58.976
833.425	0.512	-59.06	0.858	30.786	0.858	30.786	0.512	-59.06
835.894	0.511	-59.144	0.858	30.702	0.858	30.702	0.511	-59.144
838.364	0.509	-59.228	0.859	30.617	0.859	30.617	0.509	-59.228
840.833	0.508	-59.311	0.86	30.534	0.86	30.534	0.508	-59.311
843.303	0.507	-59.394	0.861	30.45	0.861	30.45	0.507	-59.394
845.772	0.506	-59.477	0.861	30.367	0.861	30.367	0.506	-59.477
848.241	0.504	-59.559	0.862	30.284	0.862	30.284	0.504	-59.559
850.711	0.503	-59.641	0.863	30.202	0.863	30.202	0.503	-59.641
853.18	0.502	-59.723	0.864	30.119	0.864	30.119	0.502	-59.723
855.65	0.501	-59.804	0.864	30.037	0.864	30.037	0.501	-59.804
858.119	0.499	-59.885	0.865	29.956	0.865	29.956	0.499	-59.885
860.589	0.498	-59.966	0.866	29.875	0.866	29.875	0.498	-59.966
863.058	0.497	-60.047	0.866	29.794	0.866	29.794	0.497	-60.047
865.528	0.496	-60.127	0.867	29.713	0.867	29.713	0.496	-60.127
867.997	0.494	-60.207	0.868	29.632	0.868	29.632	0.494	-60.207
870.466	0.493	-60.286	0.869	29.552	0.869	29.552	0.493	-60.286
872.936	0.492	-60.365	0.869	29.472	0.869	29.472	0.492	-60.365
875.405	0.491	-60.444	0.87	29.393	0.87	29.393	0.491	-60.444
877.875	0.49	-60.523	0.871	29.314	0.871	29.314	0.49	-60.523
880.344	0.488	-60.602	0.871	29.235	0.871	29.235	0.488	-60.602
882.814	0.487	-60.68	0.872	29.156	0.872	29.156	0.487	-60.68
885.283	0.486	-60.757	0.873	29.078	0.873	29.078	0.486	-60.757
887.753	0.485	-60.835	0.873	29	0.873	29	0.485	-60.835
890.222	0.484	-60.912	0.874	28.922	0.874	28.922	0.484	-60.912
892.691	0.482	-60.989	0.875	28.845	0.875	28.845	0.482	-60.989
895.161	0.481	-61.066	0.875	28.767	0.875	28.767	0.481	-61.066
