! AVX Thin Film Operation		Date: April 2012 
! Description: Accu-P® Series, Thin Film, SMD, RF Capacitor
! Part Number: 08053J270FBTTR					
!	100	MHz	-	10.05	GHz			
!	Serial	Measurements						
!								
#	MHZ	S	MA	R	50			
!	S11	S21	S12	S22				
!	dB	Phase	dB	Phase	dB	Phase	dB	Phase
100	0.504	-59.62	0.863	30.292	0.863	30.292	0.504	-59.62
102.469	0.495	-60.233	0.868	29.677	0.868	29.677	0.495	-60.233
104.939	0.486	-60.824	0.873	29.083	0.873	29.083	0.486	-60.824
107.408	0.477	-61.395	0.878	28.51	0.878	28.51	0.477	-61.395
109.878	0.469	-61.946	0.883	27.957	0.883	27.957	0.469	-61.946
112.347	0.461	-62.478	0.887	27.422	0.887	27.422	0.461	-62.478
114.817	0.453	-62.993	0.891	26.906	0.891	26.906	0.453	-62.993
117.286	0.445	-63.49	0.895	26.406	0.895	26.406	0.445	-63.49
119.756	0.437	-63.971	0.899	25.923	0.899	25.923	0.437	-63.971
122.225	0.43	-64.437	0.902	25.455	0.902	25.455	0.43	-64.437
124.694	0.423	-64.887	0.905	25.002	0.905	25.002	0.423	-64.887
127.164	0.416	-65.324	0.909	24.563	0.909	24.563	0.416	-65.324
129.633	0.409	-65.747	0.912	24.138	0.912	24.138	0.409	-65.747
132.103	0.402	-66.157	0.915	23.726	0.915	23.726	0.402	-66.157
134.572	0.396	-66.554	0.917	23.326	0.917	23.326	0.396	-66.554
137.042	0.39	-66.94	0.92	22.938	0.92	22.938	0.39	-66.94
139.511	0.384	-67.314	0.923	22.562	0.923	22.562	0.384	-67.314
141.981	0.378	-67.677	0.925	22.197	0.925	22.197	0.378	-67.677
144.45	0.372	-68.03	0.927	21.842	0.927	21.842	0.372	-68.03
146.919	0.366	-68.372	0.93	21.497	0.93	21.497	0.366	-68.372
149.389	0.361	-68.705	0.932	21.161	0.932	21.161	0.361	-68.705
151.858	0.356	-69.029	0.934	20.835	0.934	20.835	0.356	-69.029
154.328	0.351	-69.344	0.936	20.518	0.936	20.518	0.351	-69.344
156.797	0.345	-69.65	0.938	20.21	0.938	20.21	0.345	-69.65
159.267	0.341	-69.948	0.939	19.909	0.939	19.909	0.341	-69.948
161.736	0.336	-70.239	0.941	19.617	0.941	19.617	0.336	-70.239
164.206	0.331	-70.521	0.943	19.332	0.943	19.332	0.331	-70.521
166.675	0.326	-70.796	0.944	19.054	0.944	19.054	0.326	-70.796
169.144	0.322	-71.065	0.946	18.784	0.946	18.784	0.322	-71.065
171.614	0.318	-71.326	0.947	18.52	0.947	18.52	0.318	-71.326
174.083	0.313	-71.581	0.949	18.263	0.949	18.263	0.313	-71.581
176.553	0.309	-71.83	0.95	18.012	0.95	18.012	0.309	-71.83
179.022	0.305	-72.072	0.951	17.767	0.951	17.767	0.305	-72.072
181.492	0.301	-72.309	0.953	17.528	0.953	17.528	0.301	-72.309
183.961	0.297	-72.54	0.954	17.295	0.954	17.295	0.297	-72.54
186.431	0.293	-72.765	0.955	17.067	0.955	17.067	0.293	-72.765
188.9	0.29	-72.986	0.956	16.844	0.956	16.844	0.29	-72.986
191.369	0.286	-73.201	0.957	16.626	0.957	16.626	0.286	-73.201
193.839	0.283	-73.411	0.958	16.414	0.958	16.414	0.283	-73.411
196.308	0.279	-73.617	0.959	16.206	0.959	16.206	0.279	-73.617
198.778	0.276	-73.818	0.96	16.002	0.96	16.002	0.276	-73.818
201.247	0.272	-74.014	0.961	15.804	0.961	15.804	0.272	-74.014
203.717	0.269	-74.207	0.962	15.609	0.962	15.609	0.269	-74.207
206.186	0.266	-74.395	0.963	15.418	0.963	15.418	0.266	-74.395
208.656	0.263	-74.579	0.964	15.232	0.964	15.232	0.263	-74.579
211.125	0.26	-74.759	0.965	15.049	0.965	15.049	0.26	-74.759
213.594	0.257	-74.935	0.966	14.871	0.966	14.871	0.257	-74.935
216.064	0.254	-75.108	0.966	14.696	0.966	14.696	0.254	-75.108
218.533	0.251	-75.277	0.967	14.524	0.967	14.524	0.251	-75.277
221.003	0.248	-75.443	0.968	14.356	0.968	14.356	0.248	-75.443
223.472	0.245	-75.605	0.969	14.191	0.969	14.191	0.245	-75.605
225.942	0.242	-75.764	0.969	14.029	0.969	14.029	0.242	-75.764
228.411	0.24	-75.92	0.97	13.871	0.97	13.871	0.24	-75.92
230.881	0.237	-76.073	0.971	13.716	0.971	13.716	0.237	-76.073
233.35	0.235	-76.223	0.971	13.563	0.971	13.563	0.235	-76.223
235.819	0.232	-76.37	0.972	13.414	0.972	13.414	0.232	-76.37
238.289	0.229	-76.515	0.972	13.267	0.972	13.267	0.229	-76.515
240.758	0.227	-76.656	0.973	13.123	0.973	13.123	0.227	-76.656
243.228	0.225	-76.795	0.974	12.981	0.974	12.981	0.225	-76.795
245.697	0.222	-76.931	0.974	12.842	0.974	12.842	0.222	-76.931
248.167	0.22	-77.065	0.975	12.706	0.975	12.706	0.22	-77.065
250.636	0.218	-77.197	0.975	12.572	0.975	12.572	0.218	-77.197
253.106	0.215	-77.326	0.976	12.44	0.976	12.44	0.215	-77.326
255.575	0.213	-77.453	0.976	12.311	0.976	12.311	0.213	-77.453
258.044	0.211	-77.577	0.977	12.184	0.977	12.184	0.211	-77.577
260.514	0.209	-77.7	0.977	12.059	0.977	12.059	0.209	-77.7
262.983	0.207	-77.82	0.977	11.936	0.977	11.936	0.207	-77.82
265.453	0.205	-77.938	0.978	11.815	0.978	11.815	0.205	-77.938
267.922	0.203	-78.054	0.978	11.697	0.978	11.697	0.203	-78.054
270.392	0.201	-78.169	0.979	11.58	0.979	11.58	0.201	-78.169
272.861	0.199	-78.281	0.979	11.465	0.979	11.465	0.199	-78.281
275.331	0.197	-78.391	0.98	11.352	0.98	11.352	0.197	-78.391
277.8	0.195	-78.5	0.98	11.241	0.98	11.241	0.195	-78.5
280.269	0.193	-78.607	0.98	11.131	0.98	11.131	0.193	-78.607
282.739	0.191	-78.712	0.981	11.023	0.981	11.023	0.191	-78.712
285.208	0.189	-78.816	0.981	10.917	0.981	10.917	0.189	-78.816
287.678	0.188	-78.917	0.981	10.813	0.981	10.813	0.188	-78.917
290.147	0.186	-79.018	0.982	10.71	0.982	10.71	0.186	-79.018
292.617	0.184	-79.116	0.982	10.609	0.982	10.609	0.184	-79.116
295.086	0.182	-79.213	0.982	10.509	0.982	10.509	0.182	-79.213
297.556	0.181	-79.309	0.983	10.411	0.983	10.411	0.181	-79.309
300.025	0.179	-79.403	0.983	10.314	0.983	10.314	0.179	-79.403
302.494	0.177	-79.496	0.983	10.218	0.983	10.218	0.177	-79.496
304.964	0.176	-79.587	0.984	10.124	0.984	10.124	0.176	-79.587
307.433	0.174	-79.677	0.984	10.031	0.984	10.031	0.174	-79.677
309.903	0.173	-79.766	0.984	9.94	0.984	9.94	0.173	-79.766
312.372	0.171	-79.853	0.984	9.85	0.984	9.85	0.171	-79.853
314.842	0.17	-79.939	0.985	9.761	0.985	9.761	0.17	-79.939
317.311	0.168	-80.024	0.985	9.674	0.985	9.674	0.168	-80.024
319.78	0.167	-80.108	0.985	9.587	0.985	9.587	0.167	-80.108
322.25	0.165	-80.19	0.985	9.502	0.985	9.502	0.165	-80.19
324.719	0.164	-80.271	0.986	9.418	0.986	9.418	0.164	-80.271
327.189	0.162	-80.351	0.986	9.335	0.986	9.335	0.162	-80.351
329.658	0.161	-80.43	0.986	9.253	0.986	9.253	0.161	-80.43
332.128	0.159	-80.508	0.986	9.172	0.986	9.172	0.159	-80.508
334.597	0.158	-80.585	0.987	9.093	0.987	9.093	0.158	-80.585
337.067	0.157	-80.661	0.987	9.014	0.987	9.014	0.157	-80.661
339.536	0.155	-80.736	0.987	8.937	0.987	8.937	0.155	-80.736
342.005	0.154	-80.81	0.987	8.86	0.987	8.86	0.154	-80.81
344.475	0.153	-80.882	0.987	8.784	0.987	8.784	0.153	-80.882
346.944	0.151	-80.954	0.988	8.71	0.988	8.71	0.151	-80.954
349.414	0.15	-81.025	0.988	8.636	0.988	8.636	0.15	-81.025
351.883	0.149	-81.095	0.988	8.563	0.988	8.563	0.149	-81.095
354.353	0.148	-81.164	0.988	8.491	0.988	8.491	0.148	-81.164
356.822	0.146	-81.232	0.988	8.42	0.988	8.42	0.146	-81.232
359.292	0.145	-81.299	0.989	8.35	0.989	8.35	0.145	-81.299
361.761	0.144	-81.366	0.989	8.28	0.989	8.28	0.144	-81.366
364.23	0.143	-81.431	0.989	8.212	0.989	8.212	0.143	-81.431
366.7	0.142	-81.496	0.989	8.144	0.989	8.144	0.142	-81.496
369.169	0.141	-81.56	0.989	8.077	0.989	8.077	0.141	-81.56
371.639	0.139	-81.623	0.989	8.011	0.989	8.011	0.139	-81.623
374.108	0.138	-81.685	0.99	7.945	0.99	7.945	0.138	-81.685
376.578	0.137	-81.747	0.99	7.881	0.99	7.881	0.137	-81.747
379.047	0.136	-81.808	0.99	7.817	0.99	7.817	0.136	-81.808
381.517	0.135	-81.868	0.99	7.754	0.99	7.754	0.135	-81.868
383.986	0.134	-81.927	0.99	7.691	0.99	7.691	0.134	-81.927
386.455	0.133	-81.986	0.99	7.629	0.99	7.629	0.133	-81.986
388.925	0.132	-82.044	0.99	7.568	0.99	7.568	0.132	-82.044
391.394	0.131	-82.101	0.991	7.508	0.991	7.508	0.131	-82.101
393.864	0.13	-82.158	0.991	7.448	0.991	7.448	0.13	-82.158
396.333	0.129	-82.214	0.991	7.389	0.991	7.389	0.129	-82.214
398.803	0.128	-82.269	0.991	7.331	0.991	7.331	0.128	-82.269
401.272	0.127	-82.324	0.991	7.273	0.991	7.273	0.127	-82.324
403.742	0.126	-82.378	0.991	7.215	0.991	7.215	0.126	-82.378
406.211	0.125	-82.431	0.991	7.159	0.991	7.159	0.125	-82.431
408.68	0.124	-82.484	0.991	7.103	0.991	7.103	0.124	-82.484
411.15	0.123	-82.536	0.992	7.047	0.992	7.047	0.123	-82.536
413.619	0.122	-82.588	0.992	6.992	0.992	6.992	0.122	-82.588
416.089	0.121	-82.639	0.992	6.938	0.992	6.938	0.121	-82.639
418.558	0.12	-82.689	0.992	6.884	0.992	6.884	0.12	-82.689
421.028	0.119	-82.739	0.992	6.831	0.992	6.831	0.119	-82.739
423.497	0.118	-82.788	0.992	6.778	0.992	6.778	0.118	-82.788
425.967	0.117	-82.837	0.992	6.726	0.992	6.726	0.117	-82.837
428.436	0.116	-82.885	0.992	6.674	0.992	6.674	0.116	-82.885
430.905	0.115	-82.933	0.992	6.623	0.992	6.623	0.115	-82.933
433.375	0.114	-82.98	0.993	6.572	0.993	6.572	0.114	-82.98
435.844	0.114	-83.027	0.993	6.522	0.993	6.522	0.114	-83.027
438.314	0.113	-83.073	0.993	6.472	0.993	6.472	0.113	-83.073
440.783	0.112	-83.119	0.993	6.423	0.993	6.423	0.112	-83.119
443.253	0.111	-83.164	0.993	6.374	0.993	6.374	0.111	-83.164
445.722	0.11	-83.209	0.993	6.326	0.993	6.326	0.11	-83.209
448.192	0.109	-83.254	0.993	6.278	0.993	6.278	0.109	-83.254
450.661	0.109	-83.297	0.993	6.231	0.993	6.231	0.109	-83.297
453.13	0.108	-83.341	0.993	6.184	0.993	6.184	0.108	-83.341
455.6	0.107	-83.384	0.993	6.137	0.993	6.137	0.107	-83.384
458.069	0.106	-83.426	0.993	6.091	0.993	6.091	0.106	-83.426
460.539	0.105	-83.468	0.994	6.045	0.994	6.045	0.105	-83.468
463.008	0.105	-83.51	0.994	6	0.994	6	0.105	-83.51
465.478	0.104	-83.551	0.994	5.955	0.994	5.955	0.104	-83.551
467.947	0.103	-83.592	0.994	5.91	0.994	5.91	0.103	-83.592
470.417	0.102	-83.632	0.994	5.866	0.994	5.866	0.102	-83.632
472.886	0.101	-83.672	0.994	5.823	0.994	5.823	0.101	-83.672
475.355	0.101	-83.712	0.994	5.779	0.994	5.779	0.101	-83.712
477.825	0.1	-83.751	0.994	5.736	0.994	5.736	0.1	-83.751
480.294	0.099	-83.79	0.994	5.694	0.994	5.694	0.099	-83.79
482.764	0.098	-83.828	0.994	5.651	0.994	5.651	0.098	-83.828
485.233	0.098	-83.866	0.994	5.609	0.994	5.609	0.098	-83.866
487.703	0.097	-83.904	0.994	5.568	0.994	5.568	0.097	-83.904
490.172	0.096	-83.941	0.994	5.527	0.994	5.527	0.096	-83.941
492.642	0.096	-83.978	0.995	5.486	0.995	5.486	0.096	-83.978
495.111	0.095	-84.014	0.995	5.445	0.995	5.445	0.095	-84.014
497.58	0.094	-84.05	0.995	5.405	0.995	5.405	0.094	-84.05
500.05	0.094	-84.086	0.995	5.365	0.995	5.365	0.094	-84.086
502.519	0.093	-84.122	0.995	5.325	0.995	5.325	0.093	-84.122
504.989	0.092	-84.157	0.995	5.286	0.995	5.286	0.092	-84.157
507.458	0.091	-84.192	0.995	5.247	0.995	5.247	0.091	-84.192
509.928	0.091	-84.226	0.995	5.209	0.995	5.209	0.091	-84.226
512.397	0.09	-84.26	0.995	5.17	0.995	5.17	0.09	-84.26
514.867	0.089	-84.294	0.995	5.132	0.995	5.132	0.089	-84.294
517.336	0.089	-84.327	0.995	5.095	0.995	5.095	0.089	-84.327
519.805	0.088	-84.361	0.995	5.057	0.995	5.057	0.088	-84.361
522.275	0.088	-84.393	0.995	5.02	0.995	5.02	0.088	-84.393
524.744	0.087	-84.426	0.995	4.983	0.995	4.983	0.087	-84.426
527.214	0.086	-84.458	0.995	4.946	0.995	4.946	0.086	-84.458
529.683	0.086	-84.49	0.995	4.91	0.995	4.91	0.086	-84.49
532.153	0.085	-84.522	0.995	4.874	0.995	4.874	0.085	-84.522
534.622	0.084	-84.553	0.996	4.838	0.996	4.838	0.084	-84.553
537.092	0.084	-84.584	0.996	4.803	0.996	4.803	0.084	-84.584
539.561	0.083	-84.615	0.996	4.768	0.996	4.768	0.083	-84.615
542.03	0.083	-84.645	0.996	4.733	0.996	4.733	0.083	-84.645
544.5	0.082	-84.675	0.996	4.698	0.996	4.698	0.082	-84.675
546.969	0.081	-84.705	0.996	4.663	0.996	4.663	0.081	-84.705
549.439	0.081	-84.735	0.996	4.629	0.996	4.629	0.081	-84.735
551.908	0.08	-84.764	0.996	4.595	0.996	4.595	0.08	-84.764
554.378	0.08	-84.793	0.996	4.561	0.996	4.561	0.08	-84.793
556.847	0.079	-84.822	0.996	4.528	0.996	4.528	0.079	-84.822
559.317	0.078	-84.85	0.996	4.494	0.996	4.494	0.078	-84.85
561.786	0.078	-84.878	0.996	4.461	0.996	4.461	0.078	-84.878
564.255	0.077	-84.906	0.996	4.429	0.996	4.429	0.077	-84.906
566.725	0.077	-84.934	0.996	4.396	0.996	4.396	0.077	-84.934
569.194	0.076	-84.961	0.996	4.364	0.996	4.364	0.076	-84.961
571.664	0.076	-84.988	0.996	4.331	0.996	4.331	0.076	-84.988
574.133	0.075	-85.015	0.996	4.299	0.996	4.299	0.075	-85.015
576.603	0.074	-85.042	0.996	4.268	0.996	4.268	0.074	-85.042
579.072	0.074	-85.068	0.996	4.236	0.996	4.236	0.074	-85.068
581.542	0.073	-85.094	0.996	4.205	0.996	4.205	0.073	-85.094
584.011	0.073	-85.12	0.996	4.174	0.996	4.174	0.073	-85.12
586.48	0.072	-85.146	0.996	4.143	0.996	4.143	0.072	-85.146
588.95	0.072	-85.171	0.997	4.112	0.997	4.112	0.072	-85.171
591.419	0.071	-85.196	0.997	4.082	0.997	4.082	0.071	-85.196
593.889	0.071	-85.221	0.997	4.051	0.997	4.051	0.071	-85.221
596.358	0.07	-85.246	0.997	4.021	0.997	4.021	0.07	-85.246
598.828	0.07	-85.27	0.997	3.991	0.997	3.991	0.07	-85.27
601.297	0.069	-85.295	0.997	3.961	0.997	3.961	0.069	-85.295
603.767	0.069	-85.319	0.997	3.932	0.997	3.932	0.069	-85.319
606.236	0.068	-85.342	0.997	3.902	0.997	3.902	0.068	-85.342
608.705	0.068	-85.366	0.997	3.873	0.997	3.873	0.068	-85.366
611.175	0.067	-85.389	0.997	3.844	0.997	3.844	0.067	-85.389
613.644	0.067	-85.412	0.997	3.815	0.997	3.815	0.067	-85.412
616.114	0.066	-85.435	0.997	3.787	0.997	3.787	0.066	-85.435
618.583	0.066	-85.457	0.997	3.758	0.997	3.758	0.066	-85.457
621.053	0.065	-85.48	0.997	3.73	0.997	3.73	0.065	-85.48
623.522	0.065	-85.502	0.997	3.702	0.997	3.702	0.065	-85.502
625.992	0.064	-85.524	0.997	3.674	0.997	3.674	0.064	-85.524
628.461	0.064	-85.545	0.997	3.646	0.997	3.646	0.064	-85.545
630.93	0.063	-85.567	0.997	3.618	0.997	3.618	0.063	-85.567
633.4	0.063	-85.588	0.997	3.591	0.997	3.591	0.063	-85.588
635.869	0.062	-85.609	0.997	3.563	0.997	3.563	0.062	-85.609
638.339	0.062	-85.63	0.997	3.536	0.997	3.536	0.062	-85.63
640.808	0.061	-85.651	0.997	3.509	0.997	3.509	0.061	-85.651
643.278	0.061	-85.671	0.997	3.482	0.997	3.482	0.061	-85.671
645.747	0.06	-85.691	0.997	3.456	0.997	3.456	0.06	-85.691
648.217	0.06	-85.711	0.997	3.429	0.997	3.429	0.06	-85.711
650.686	0.059	-85.731	0.997	3.403	0.997	3.403	0.059	-85.731
653.155	0.059	-85.75	0.997	3.376	0.997	3.376	0.059	-85.75
655.625	0.058	-85.77	0.997	3.35	0.997	3.35	0.058	-85.77
658.094	0.058	-85.789	0.997	3.324	0.997	3.324	0.058	-85.789
660.564	0.058	-85.808	0.997	3.299	0.997	3.299	0.058	-85.808
663.033	0.057	-85.826	0.997	3.273	0.997	3.273	0.057	-85.826
665.503	0.057	-85.845	0.997	3.247	0.997	3.247	0.057	-85.845
667.972	0.056	-85.863	0.998	3.222	0.998	3.222	0.056	-85.863
670.442	0.056	-85.881	0.998	3.197	0.998	3.197	0.056	-85.881
672.911	0.055	-85.899	0.998	3.171	0.998	3.171	0.055	-85.899
675.38	0.055	-85.916	0.998	3.146	0.998	3.146	0.055	-85.916
677.85	0.054	-85.934	0.998	3.122	0.998	3.122	0.054	-85.934
680.319	0.054	-85.951	0.998	3.097	0.998	3.097	0.054	-85.951
682.789	0.054	-85.968	0.998	3.072	0.998	3.072	0.054	-85.968
685.258	0.053	-85.985	0.998	3.048	0.998	3.048	0.053	-85.985
687.728	0.053	-86.001	0.998	3.023	0.998	3.023	0.053	-86.001
690.197	0.052	-86.018	0.998	2.999	0.998	2.999	0.052	-86.018
692.667	0.052	-86.034	0.998	2.975	0.998	2.975	0.052	-86.034
695.136	0.051	-86.05	0.998	2.951	0.998	2.951	0.051	-86.05
697.605	0.051	-86.065	0.998	2.927	0.998	2.927	0.051	-86.065
700.075	0.051	-86.081	0.998	2.903	0.998	2.903	0.051	-86.081
702.544	0.05	-86.096	0.998	2.88	0.998	2.88	0.05	-86.096
705.014	0.05	-86.111	0.998	2.856	0.998	2.856	0.05	-86.111
707.483	0.049	-86.126	0.998	2.833	0.998	2.833	0.049	-86.126
709.953	0.049	-86.141	0.998	2.81	0.998	2.81	0.049	-86.141
712.422	0.049	-86.155	0.998	2.786	0.998	2.786	0.049	-86.155
714.891	0.048	-86.169	0.998	2.763	0.998	2.763	0.048	-86.169
717.361	0.048	-86.183	0.998	2.74	0.998	2.74	0.048	-86.183
719.83	0.047	-86.197	0.998	2.717	0.998	2.717	0.047	-86.197
722.3	0.047	-86.211	0.998	2.695	0.998	2.695	0.047	-86.211
724.769	0.047	-86.224	0.998	2.672	0.998	2.672	0.047	-86.224
727.239	0.046	-86.237	0.998	2.65	0.998	2.65	0.046	-86.237
729.708	0.046	-86.25	0.998	2.627	0.998	2.627	0.046	-86.25
732.178	0.045	-86.263	0.998	2.605	0.998	2.605	0.045	-86.263
734.647	0.045	-86.275	0.998	2.583	0.998	2.583	0.045	-86.275
737.116	0.045	-86.287	0.998	2.561	0.998	2.561	0.045	-86.287
739.586	0.044	-86.299	0.998	2.539	0.998	2.539	0.044	-86.299
742.055	0.044	-86.311	0.998	2.517	0.998	2.517	0.044	-86.311
744.525	0.044	-86.323	0.998	2.495	0.998	2.495	0.044	-86.323
746.994	0.043	-86.334	0.998	2.473	0.998	2.473	0.043	-86.334
749.464	0.043	-86.345	0.998	2.452	0.998	2.452	0.043	-86.345
751.933	0.042	-86.356	0.998	2.43	0.998	2.43	0.042	-86.356
754.403	0.042	-86.367	0.998	2.409	0.998	2.409	0.042	-86.367
756.872	0.042	-86.377	0.998	2.387	0.998	2.387	0.042	-86.377
759.341	0.041	-86.387	0.998	2.366	0.998	2.366	0.041	-86.387
761.811	0.041	-86.397	0.998	2.345	0.998	2.345	0.041	-86.397
764.28	0.041	-86.407	0.998	2.324	0.998	2.324	0.041	-86.407
766.75	0.04	-86.416	0.998	2.303	0.998	2.303	0.04	-86.416
769.219	0.04	-86.425	0.998	2.282	0.998	2.282	0.04	-86.425
771.689	0.039	-86.434	0.998	2.262	0.998	2.262	0.039	-86.434
774.158	0.039	-86.443	0.998	2.241	0.998	2.241	0.039	-86.443
776.628	0.039	-86.451	0.998	2.22	0.998	2.22	0.039	-86.451
779.097	0.038	-86.459	0.998	2.2	0.998	2.2	0.038	-86.459
781.566	0.038	-86.467	0.998	2.179	0.998	2.179	0.038	-86.467
784.036	0.038	-86.474	0.998	2.159	0.998	2.159	0.038	-86.474
786.505	0.037	-86.482	0.998	2.139	0.998	2.139	0.037	-86.482
788.975	0.037	-86.489	0.998	2.119	0.998	2.119	0.037	-86.489
791.444	0.037	-86.496	0.998	2.099	0.998	2.099	0.037	-86.496
793.914	0.036	-86.502	0.998	2.079	0.998	2.079	0.036	-86.502
796.383	0.036	-86.508	0.998	2.059	0.998	2.059	0.036	-86.508
798.853	0.036	-86.514	0.998	2.039	0.998	2.039	0.036	-86.514
801.322	0.035	-86.52	0.998	2.019	0.998	2.019	0.035	-86.52
803.791	0.035	-86.525	0.998	2	0.998	2	0.035	-86.525
806.261	0.035	-86.53	0.999	1.98	0.999	1.98	0.035	-86.53
808.73	0.034	-86.535	0.999	1.96	0.999	1.96	0.034	-86.535
811.2	0.034	-86.539	0.999	1.941	0.999	1.941	0.034	-86.539
813.669	0.034	-86.543	0.999	1.922	0.999	1.922	0.034	-86.543
816.139	0.033	-86.547	0.999	1.902	0.999	1.902	0.033	-86.547
818.608	0.033	-86.55	0.999	1.883	0.999	1.883	0.033	-86.55
821.078	0.033	-86.553	0.999	1.864	0.999	1.864	0.033	-86.553
823.547	0.032	-86.556	0.999	1.845	0.999	1.845	0.032	-86.556
826.016	0.032	-86.558	0.999	1.826	0.999	1.826	0.032	-86.558
828.486	0.032	-86.56	0.999	1.807	0.999	1.807	0.032	-86.56
830.955	0.031	-86.562	0.999	1.788	0.999	1.788	0.031	-86.562
833.425	0.031	-86.563	0.999	1.769	0.999	1.769	0.031	-86.563
835.894	0.031	-86.564	0.999	1.751	0.999	1.751	0.031	-86.564
838.364	0.03	-86.564	0.999	1.732	0.999	1.732	0.03	-86.564
840.833	0.03	-86.565	0.999	1.714	0.999	1.714	0.03	-86.565
843.303	0.03	-86.564	0.999	1.695	0.999	1.695	0.03	-86.564
845.772	0.029	-86.564	0.999	1.677	0.999	1.677	0.029	-86.564
848.241	0.029	-86.562	0.999	1.658	0.999	1.658	0.029	-86.562
850.711	0.029	-86.561	0.999	1.64	0.999	1.64	0.029	-86.561
853.18	0.028	-86.559	0.999	1.622	0.999	1.622	0.028	-86.559
855.65	0.028	-86.557	0.999	1.604	0.999	1.604	0.028	-86.557
858.119	0.028	-86.554	0.999	1.586	0.999	1.586	0.028	-86.554
860.589	0.027	-86.55	0.999	1.568	0.999	1.568	0.027	-86.55
863.058	0.027	-86.546	0.999	1.55	0.999	1.55	0.027	-86.546
865.528	0.027	-86.542	0.999	1.532	0.999	1.532	0.027	-86.542
867.997	0.026	-86.537	0.999	1.514	0.999	1.514	0.026	-86.537
870.466	0.026	-86.532	0.999	1.496	0.999	1.496	0.026	-86.532
872.936	0.026	-86.526	0.999	1.478	0.999	1.478	0.026	-86.526
875.405	0.026	-86.519	0.999	1.461	0.999	1.461	0.026	-86.519
877.875	0.025	-86.512	0.999	1.443	0.999	1.443	0.025	-86.512
880.344	0.025	-86.505	0.999	1.426	0.999	1.426	0.025	-86.505
882.814	0.025	-86.497	0.999	1.408	0.999	1.408	0.025	-86.497
885.283	0.024	-86.488	0.999	1.391	0.999	1.391	0.024	-86.488
887.753	0.024	-86.478	0.999	1.373	0.999	1.373	0.024	-86.478
890.222	0.024	-86.468	0.999	1.356	0.999	1.356	0.024	-86.468
892.691	0.023	-86.458	0.999	1.339	0.999	1.339	0.023	-86.458
895.161	0.023	-86.446	0.999	1.322	0.999	1.322	0.023	-86.446
897.63	0.023	-86.434	0.999	1.305	0.999	1.305	0.023	-86.434
900.1	0.022	-86.421	0.999	1.288	0.999	1.288	0.022	-86.421
902.569	0.022	-86.408	0.999	1.271	0.999	1.271	0.022	-86.408
905.039	0.022	-86.393	0.999	1.254	0.999	1.254	0.022	-86.393
907.508	0.022	-86.378	0.999	1.237	0.999	1.237	0.022	-86.378
909.978	0.021	-86.362	0.999	1.22	0.999	1.22	0.021	-86.362
912.447	0.021	-86.345	0.999	1.203	0.999	1.203	0.021	-86.345
