! AVX Thin Film Operation		Date: April 2012 
! Description: Accu-P® Series, Thin Film, SMD, RF Capacitor
! Part Number: 08051J3R1ABTTR					
!	100	MHz	-	20.05	GHz			
!	Serial	Measurements						
!								
#	MHZ	S	MA	R	50			
!	S11	S21	S12	S22				
!	dB	Phase	dB	Phase	dB	Phase	dB	Phase
50 0.995 -5.563 0.097 84.364 0.097 84.364 0.995 -5.563
100 0.981 -11.029 0.191 78.883 0.191 78.883 0.981 -11.029
150 0.959 -16.311 0.281 73.586 0.281 73.586 0.959 -16.311
200 0.931 -21.34 0.364 68.541 0.364 68.541 0.931 -21.34
250 0.897 -26.069 0.439 63.796 0.439 63.796 0.897 -26.069
300 0.861 -30.47 0.507 59.379 0.507 59.379 0.861 -30.47
350 0.822 -34.534 0.567 55.298 0.567 55.298 0.822 -34.534
400 0.783 -38.268 0.619 51.549 0.619 51.549 0.783 -38.268
450 0.744 -41.685 0.665 48.115 0.665 48.115 0.744 -41.685
500 0.707 -44.806 0.705 44.977 0.705 44.977 0.707 -44.806
550 0.671 -47.655 0.739 42.111 0.739 42.111 0.671 -47.655
600 0.636 -50.256 0.769 39.492 0.769 39.492 0.636 -50.256
650 0.603 -52.634 0.795 37.097 0.795 37.097 0.603 -52.634
700 0.572 -54.81 0.817 34.902 0.817 34.902 0.572 -54.81
750 0.543 -56.807 0.837 32.886 0.837 32.886 0.543 -56.807
800 0.516 -58.643 0.854 31.031 0.854 31.031 0.516 -58.643
850 0.49 -60.335 0.869 29.32 0.869 29.32 0.49 -60.335
900 0.465 -61.898 0.882 27.737 0.882 27.737 0.465 -61.898
950 0.443 -63.345 0.894 26.269 0.894 26.269 0.443 -63.345
1000 0.421 -64.689 0.904 24.904 0.904 24.904 0.421 -64.689
1050 0.401 -65.94 0.913 23.631 0.913 23.631 0.401 -65.94
1100 0.382 -67.107 0.921 22.441 0.921 22.441 0.382 -67.107
1150 0.364 -68.198 0.929 21.327 0.929 21.327 0.364 -68.198
1200 0.347 -69.22 0.935 20.28 0.935 20.28 0.347 -69.22
1250 0.33 -70.18 0.941 19.295 0.941 19.295 0.33 -70.18
1300 0.315 -71.084 0.946 18.365 0.946 18.365 0.315 -71.084
1350 0.3 -71.935 0.951 17.486 0.951 17.486 0.3 -71.935
1400 0.287 -72.74 0.955 16.653 0.955 16.653 0.287 -72.74
1450 0.273 -73.5 0.959 15.862 0.959 15.862 0.273 -73.5
1500 0.261 -74.221 0.962 15.11 0.962 15.11 0.261 -74.221
1550 0.249 -74.905 0.966 14.393 0.966 14.393 0.249 -74.905
1600 0.237 -75.554 0.968 13.709 0.968 13.709 0.237 -75.554
1650 0.226 -76.172 0.971 13.055 0.971 13.055 0.226 -76.172
1700 0.215 -76.76 0.974 12.428 0.974 12.428 0.215 -76.76
1750 0.205 -77.32 0.976 11.827 0.976 11.827 0.205 -77.32
1800 0.195 -77.854 0.978 11.25 0.978 11.25 0.195 -77.854
1850 0.186 -78.363 0.98 10.695 0.98 10.695 0.186 -78.363
1900 0.176 -78.849 0.981 10.16 0.981 10.16 0.176 -78.849
1950 0.168 -79.312 0.983 9.644 0.983 9.644 0.168 -79.312
2000 0.159 -79.754 0.984 9.146 0.984 9.146 0.159 -79.754
2050 0.151 -80.175 0.986 8.664 0.986 8.664 0.151 -80.175
2100 0.143 -80.576 0.987 8.198 0.987 8.198 0.143 -80.576
2150 0.135 -80.957 0.988 7.746 0.988 7.746 0.135 -80.957
2200 0.127 -81.318 0.989 7.308 0.989 7.308 0.127 -81.318
2250 0.12 -81.659 0.99 6.882 0.99 6.882 0.12 -81.659
2300 0.113 -81.979 0.991 6.469 0.991 6.469 0.113 -81.979
2350 0.106 -82.279 0.991 6.066 0.991 6.066 0.106 -82.279
2400 0.099 -82.557 0.992 5.674 0.992 5.674 0.099 -82.557
2450 0.092 -82.812 0.993 5.293 0.993 5.293 0.092 -82.812
2500 0.086 -83.042 0.993 4.92 0.993 4.92 0.086 -83.042
2550 0.08 -83.243 0.994 4.557 0.994 4.557 0.08 -83.243
2600 0.073 -83.413 0.994 4.202 0.994 4.202 0.073 -83.413
2650 0.067 -83.546 0.995 3.855 0.995 3.855 0.067 -83.546
2700 0.061 -83.635 0.995 3.515 0.995 3.515 0.061 -83.635
2750 0.056 -83.671 0.995 3.183 0.995 3.183 0.056 -83.671
2800 0.05 -83.639 0.996 2.857 0.996 2.857 0.05 -83.639
2850 0.044 -83.519 0.996 2.538 0.996 2.538 0.044 -83.519
2900 0.039 -83.281 0.996 2.226 0.996 2.226 0.039 -83.281
2950 0.034 -82.873 0.996 1.919 0.996 1.919 0.034 -82.873
3000 0.028 -82.211 0.997 1.617 0.997 1.617 0.028 -82.211
3050 0.023 -81.139 0.997 1.321 0.997 1.321 0.023 -81.139
3100 0.018 -79.337 0.997 1.03 0.997 1.03 0.018 -79.337
3150 0.013 -76.035 0.997 0.744 0.997 0.744 0.013 -76.035
3200 8.638e-3 -68.845 0.997 0.463 0.997 0.463 8.638e-3 -68.845
3250 4.456e-3 -46.587 0.997 0.186 0.997 0.186 4.456e-3 -46.587
3300 3.406e-3 26.27 0.997 -0.087 0.997 -0.087 3.406e-3 26.27
3350 6.91e-3 63.435 0.997 -0.355 0.997 -0.355 6.91e-3 63.435
3400 0.011 73.627 0.997 -0.62 0.997 -0.62 0.011 73.627
3450 0.016 77.89 0.997 -0.881 0.997 -0.881 0.016 77.89
3500 0.02 80.126 0.997 -1.138 0.997 -1.138 0.02 80.126
3550 0.024 81.447 0.997 -1.392 0.997 -1.392 0.024 81.447
3600 0.029 82.28 0.997 -1.643 0.997 -1.643 0.029 82.28
3650 0.033 82.823 0.996 -1.89 0.996 -1.89 0.033 82.823
3700 0.037 83.18 0.996 -2.134 0.996 -2.134 0.037 83.18
3750 0.042 83.413 0.996 -2.375 0.996 -2.375 0.042 83.413
3800 0.046 83.557 0.996 -2.614 0.996 -2.614 0.046 83.557
3850 0.05 83.637 0.996 -2.849 0.996 -2.849 0.05 83.637
3900 0.054 83.669 0.996 -3.082 0.996 -3.082 0.054 83.669
3950 0.058 83.664 0.995 -3.313 0.995 -3.313 0.058 83.664
4000 0.062 83.63 0.995 -3.541 0.995 -3.541 0.062 83.63
4050 0.066 83.573 0.995 -3.766 0.995 -3.766 0.066 83.573
4100 0.07 83.498 0.995 -3.989 0.995 -3.989 0.07 83.498
4150 0.073 83.409 0.994 -4.21 0.994 -4.21 0.073 83.409
4200 0.077 83.307 0.994 -4.429 0.994 -4.429 0.077 83.307
4250 0.081 83.196 0.994 -4.646 0.994 -4.646 0.081 83.196
4300 0.085 83.076 0.993 -4.861 0.993 -4.861 0.085 83.076
4350 0.088 82.95 0.993 -5.073 0.993 -5.073 0.088 82.95
4400 0.092 82.817 0.993 -5.284 0.993 -5.284 0.092 82.817
4450 0.096 82.68 0.992 -5.493 0.992 -5.493 0.096 82.68
4500 0.099 82.539 0.992 -5.7 0.992 -5.7 0.099 82.539
4550 0.103 82.395 0.992 -5.906 0.992 -5.906 0.103 82.395
4600 0.106 82.248 0.991 -6.11 0.991 -6.11 0.106 82.248
4650 0.11 82.098 0.991 -6.312 0.991 -6.312 0.11 82.098
4700 0.113 81.946 0.99 -6.512 0.99 -6.512 0.113 81.946
4750 0.117 81.793 0.99 -6.711 0.99 -6.711 0.117 81.793
4800 0.12 81.638 0.99 -6.909 0.99 -6.909 0.12 81.638
4850 0.124 81.482 0.989 -7.105 0.989 -7.105 0.124 81.482
4900 0.127 81.325 0.989 -7.299 0.989 -7.299 0.127 81.325
4950 0.13 81.167 0.988 -7.492 0.988 -7.492 0.13 81.167
5000 0.134 81.008 0.988 -7.684 0.988 -7.684 0.134 81.008
5050 0.137 80.849 0.988 -7.875 0.988 -7.875 0.137 80.849
5100 0.14 80.69 0.987 -8.064 0.987 -8.064 0.14 80.69
5150 0.144 80.53 0.987 -8.252 0.987 -8.252 0.144 80.53
5200 0.147 80.37 0.986 -8.438 0.986 -8.438 0.147 80.37
5250 0.15 80.21 0.986 -8.624 0.986 -8.624 0.15 80.21
5300 0.153 80.05 0.985 -8.808 0.985 -8.808 0.153 80.05
5350 0.156 79.89 0.985 -8.991 0.985 -8.991 0.156 79.89
5400 0.159 79.73 0.984 -9.173 0.984 -9.173 0.159 79.73
5450 0.163 79.57 0.984 -9.354 0.984 -9.354 0.163 79.57
5500 0.166 79.41 0.983 -9.534 0.983 -9.534 0.166 79.41
5550 0.169 79.251 0.983 -9.713 0.983 -9.713 0.169 79.251
5600 0.172 79.092 0.982 -9.891 0.982 -9.891 0.172 79.092
5650 0.175 78.932 0.982 -10.068 0.982 -10.068 0.175 78.932
5700 0.178 78.774 0.981 -10.243 0.981 -10.243 0.178 78.774
5750 0.181 78.615 0.98 -10.418 0.98 -10.418 0.181 78.615
5800 0.184 78.457 0.98 -10.592 0.98 -10.592 0.184 78.457
5850 0.187 78.299 0.979 -10.765 0.979 -10.765 0.187 78.299
5900 0.19 78.142 0.979 -10.937 0.979 -10.937 0.19 78.142
5950 0.193 77.985 0.978 -11.108 0.978 -11.108 0.193 77.985
6000 0.196 77.828 0.978 -11.279 0.978 -11.279 0.196 77.828
6050 0.199 77.671 0.977 -11.448 0.977 -11.448 0.199 77.671
6100 0.201 77.515 0.976 -11.617 0.976 -11.617 0.201 77.515
6150 0.204 77.36 0.976 -11.785 0.976 -11.785 0.204 77.36
6200 0.207 77.205 0.975 -11.952 0.975 -11.952 0.207 77.205
6250 0.21 77.05 0.975 -12.118 0.975 -12.118 0.21 77.05
6300 0.213 76.896 0.974 -12.283 0.974 -12.283 0.213 76.896
6350 0.216 76.742 0.973 -12.448 0.973 -12.448 0.216 76.742
6400 0.218 76.588 0.973 -12.612 0.973 -12.612 0.218 76.588
6450 0.221 76.435 0.972 -12.775 0.972 -12.775 0.221 76.435
6500 0.224 76.282 0.972 -12.938 0.972 -12.938 0.224 76.282
6550 0.227 76.13 0.971 -13.099 0.971 -13.099 0.227 76.13
6600 0.229 75.979 0.97 -13.26 0.97 -13.26 0.229 75.979
6650 0.232 75.827 0.97 -13.421 0.97 -13.421 0.232 75.827
6700 0.235 75.676 0.969 -13.58 0.969 -13.58 0.235 75.676
6750 0.238 75.526 0.968 -13.739 0.968 -13.739 0.238 75.526
6800 0.24 75.376 0.968 -13.897 0.968 -13.897 0.24 75.376
6850 0.243 75.226 0.967 -14.055 0.967 -14.055 0.243 75.226
6900 0.246 75.077 0.966 -14.212 0.966 -14.212 0.246 75.077
6950 0.248 74.928 0.966 -14.368 0.966 -14.368 0.248 74.928
7000 0.251 74.78 0.965 -14.524 0.965 -14.524 0.251 74.78
7050 0.253 74.632 0.964 -14.679 0.964 -14.679 0.253 74.632
7100 0.256 74.485 0.964 -14.834 0.964 -14.834 0.256 74.485
7150 0.259 74.338 0.963 -14.988 0.963 -14.988 0.259 74.338
7200 0.261 74.191 0.962 -15.141 0.962 -15.141 0.261 74.191
7250 0.264 74.045 0.962 -15.294 0.962 -15.294 0.264 74.045
7300 0.266 73.9 0.961 -15.446 0.961 -15.446 0.266 73.9
7350 0.269 73.754 0.96 -15.597 0.96 -15.597 0.269 73.754
7400 0.271 73.61 0.959 -15.748 0.959 -15.748 0.271 73.61
7450 0.274 73.465 0.959 -15.899 0.959 -15.899 0.274 73.465
7500 0.276 73.321 0.958 -16.049 0.958 -16.049 0.276 73.321
7550 0.279 73.178 0.957 -16.198 0.957 -16.198 0.279 73.178
7600 0.281 73.034 0.957 -16.347 0.957 -16.347 0.281 73.034
7650 0.284 72.892 0.956 -16.495 0.956 -16.495 0.284 72.892
7700 0.286 72.749 0.955 -16.643 0.955 -16.643 0.286 72.749
7750 0.289 72.607 0.954 -16.79 0.954 -16.79 0.289 72.607
7800 0.291 72.466 0.954 -16.937 0.954 -16.937 0.291 72.466
7850 0.294 72.325 0.953 -17.083 0.953 -17.083 0.294 72.325
7900 0.296 72.184 0.952 -17.228 0.952 -17.228 0.296 72.184
7950 0.299 72.044 0.951 -17.374 0.951 -17.374 0.299 72.044
8000 0.301 71.904 0.951 -17.518 0.951 -17.518 0.301 71.904
8050 0.303 71.764 0.95 -17.662 0.95 -17.662 0.303 71.764
8100 0.306 71.625 0.949 -17.806 0.949 -17.806 0.306 71.625
8150 0.308 71.487 0.948 -17.949 0.948 -17.949 0.308 71.487
8200 0.311 71.348 0.948 -18.092 0.948 -18.092 0.311 71.348
8250 0.313 71.21 0.947 -18.234 0.947 -18.234 0.313 71.21
8300 0.315 71.073 0.946 -18.376 0.946 -18.376 0.315 71.073
8350 0.318 70.936 0.945 -18.517 0.945 -18.517 0.318 70.936
8400 0.32 70.799 0.944 -18.658 0.944 -18.658 0.32 70.799
8450 0.322 70.662 0.944 -18.799 0.944 -18.799 0.322 70.662
8500 0.325 70.526 0.943 -18.939 0.943 -18.939 0.325 70.526
8550 0.327 70.391 0.942 -19.078 0.942 -19.078 0.327 70.391
8600 0.329 70.256 0.941 -19.217 0.941 -19.217 0.329 70.256
8650 0.331 70.121 0.94 -19.356 0.94 -19.356 0.331 70.121
8700 0.334 69.986 0.94 -19.494 0.94 -19.494 0.334 69.986
8750 0.336 69.852 0.939 -19.632 0.939 -19.632 0.336 69.852
8800 0.338 69.718 0.938 -19.769 0.938 -19.769 0.338 69.718
8850 0.34 69.585 0.937 -19.906 0.937 -19.906 0.34 69.585
8900 0.343 69.452 0.936 -20.043 0.936 -20.043 0.343 69.452
8950 0.345 69.319 0.936 -20.179 0.936 -20.179 0.345 69.319
9000 0.347 69.187 0.935 -20.314 0.935 -20.314 0.347 69.187
9050 0.349 69.055 0.934 -20.45 0.934 -20.45 0.349 69.055
9100 0.352 68.923 0.933 -20.584 0.933 -20.584 0.352 68.923
9150 0.354 68.792 0.932 -20.719 0.932 -20.719 0.354 68.792
9200 0.356 68.661 0.931 -20.853 0.931 -20.853 0.356 68.661
9250 0.358 68.531 0.931 -20.986 0.931 -20.986 0.358 68.531
9300 0.36 68.4 0.93 -21.12 0.93 -21.12 0.36 68.4
9350 0.362 68.271 0.929 -21.252 0.929 -21.252 0.362 68.271
9400 0.365 68.141 0.928 -21.385 0.928 -21.385 0.365 68.141
9450 0.367 68.012 0.927 -21.517 0.927 -21.517 0.367 68.012
9500 0.369 67.883 0.926 -21.648 0.926 -21.648 0.369 67.883
9550 0.371 67.755 0.926 -21.78 0.926 -21.78 0.371 67.755
9600 0.373 67.627 0.925 -21.91 0.925 -21.91 0.373 67.627
9650 0.375 67.499 0.924 -22.041 0.924 -22.041 0.375 67.499
9700 0.377 67.372 0.923 -22.171 0.923 -22.171 0.377 67.372
9750 0.379 67.245 0.922 -22.301 0.922 -22.301 0.379 67.245
9800 0.382 67.118 0.921 -22.43 0.921 -22.43 0.382 67.118
9850 0.384 66.992 0.92 -22.559 0.92 -22.559 0.384 66.992
9900 0.386 66.866 0.92 -22.688 0.92 -22.688 0.386 66.866
9950 0.388 66.74 0.919 -22.816 0.919 -22.816 0.388 66.74
10000 0.39 66.614 0.918 -22.944 0.918 -22.944 0.39 66.614
10050 0.392 66.489 0.917 -23.071 0.917 -23.071 0.392 66.489
10100 0.394 66.365 0.916 -23.198 0.916 -23.198 0.394 66.365
10150 0.396 66.24 0.915 -23.325 0.915 -23.325 0.396 66.24
10200 0.398 66.116 0.914 -23.451 0.914 -23.451 0.398 66.116
10250 0.4 65.993 0.914 -23.577 0.914 -23.577 0.4 65.993
10300 0.402 65.869 0.913 -23.703 0.913 -23.703 0.402 65.869
10350 0.404 65.746 0.912 -23.828 0.912 -23.828 0.404 65.746
10400 0.406 65.623 0.911 -23.953 0.911 -23.953 0.406 65.623
10450 0.408 65.501 0.91 -24.078 0.91 -24.078 0.408 65.501
10500 0.41 65.379 0.909 -24.202 0.909 -24.202 0.41 65.379
10550 0.412 65.257 0.908 -24.326 0.908 -24.326 0.412 65.257
10600 0.414 65.136 0.907 -24.45 0.907 -24.45 0.414 65.136
10650 0.416 65.014 0.906 -24.573 0.906 -24.573 0.416 65.014
10700 0.418 64.894 0.906 -24.696 0.906 -24.696 0.418 64.894
10750 0.42 64.773 0.905 -24.818 0.905 -24.818 0.42 64.773
10800 0.422 64.653 0.904 -24.941 0.904 -24.941 0.422 64.653
10850 0.424 64.533 0.903 -25.063 0.903 -25.063 0.424 64.533
10900 0.426 64.413 0.902 -25.184 0.902 -25.184 0.426 64.413
10950 0.427 64.294 0.901 -25.305 0.901 -25.305 0.427 64.294
11000 0.429 64.175 0.9 -25.426 0.9 -25.426 0.429 64.175
11050 0.431 64.057 0.899 -25.547 0.899 -25.547 0.431 64.057
11100 0.433 63.938 0.898 -25.667 0.898 -25.667 0.433 63.938
11150 0.435 63.82 0.897 -25.787 0.897 -25.787 0.435 63.82
11200 0.437 63.702 0.897 -25.906 0.897 -25.906 0.437 63.702
11250 0.439 63.585 0.896 -26.026 0.896 -26.026 0.439 63.585
11300 0.441 63.468 0.895 -26.144 0.895 -26.144 0.441 63.468
11350 0.443 63.351 0.894 -26.263 0.894 -26.263 0.443 63.351
11400 0.444 63.235 0.893 -26.381 0.893 -26.381 0.444 63.235
11450 0.446 63.118 0.892 -26.499 0.892 -26.499 0.446 63.118
11500 0.448 63.003 0.891 -26.617 0.891 -26.617 0.448 63.003
11550 0.45 62.887 0.89 -26.734 0.89 -26.734 0.45 62.887
11600 0.452 62.772 0.889 -26.851 0.889 -26.851 0.452 62.772
11650 0.453 62.657 0.888 -26.968 0.888 -26.968 0.453 62.657
11700 0.455 62.542 0.887 -27.084 0.887 -27.084 0.455 62.542
11750 0.457 62.428 0.886 -27.2 0.886 -27.2 0.457 62.428
11800 0.459 62.313 0.886 -27.316 0.886 -27.316 0.459 62.313
11850 0.461 62.2 0.885 -27.431 0.885 -27.431 0.461 62.2
11900 0.462 62.086 0.884 -27.546 0.884 -27.546 0.462 62.086
11950 0.464 61.973 0.883 -27.661 0.883 -27.661 0.464 61.973
12000 0.466 61.86 0.882 -27.776 0.882 -27.776 0.466 61.86
12050 0.468 61.747 0.881 -27.89 0.881 -27.89 0.468 61.747
12100 0.47 61.635 0.88 -28.004 0.88 -28.004 0.47 61.635
12150 0.471 61.523 0.879 -28.117 0.879 -28.117 0.471 61.523
12200 0.473 61.411 0.878 -28.23 0.878 -28.23 0.473 61.411
12250 0.475 61.3 0.877 -28.343 0.877 -28.343 0.475 61.3
12300 0.476 61.188 0.876 -28.456 0.876 -28.456 0.476 61.188
12350 0.478 61.077 0.875 -28.568 0.875 -28.568 0.478 61.077
12400 0.48 60.967 0.874 -28.68 0.874 -28.68 0.48 60.967
12450 0.482 60.856 0.873 -28.792 0.873 -28.792 0.482 60.856
12500 0.483 60.746 0.872 -28.904 0.872 -28.904 0.483 60.746
12550 0.485 60.637 0.872 -29.015 0.872 -29.015 0.485 60.637
12600 0.487 60.527 0.871 -29.126 0.871 -29.126 0.487 60.527
12650 0.488 60.418 0.87 -29.236 0.87 -29.236 0.488 60.418
12700 0.49 60.309 0.869 -29.346 0.869 -29.346 0.49 60.309
12750 0.492 60.2 0.868 -29.456 0.868 -29.456 0.492 60.2
12800 0.493 60.092 0.867 -29.566 0.867 -29.566 0.493 60.092
12850 0.495 59.984 0.866 -29.675 0.866 -29.675 0.495 59.984
12900 0.497 59.876 0.865 -29.785 0.865 -29.785 0.497 59.876
12950 0.498 59.768 0.864 -29.893 0.864 -29.893 0.498 59.768
13000 0.5 59.661 0.863 -30.002 0.863 -30.002 0.5 59.661
13050 0.502 59.554 0.862 -30.11 0.862 -30.11 0.502 59.554
13100 0.503 59.448 0.861 -30.218 0.861 -30.218 0.503 59.448
13150 0.505 59.341 0.86 -30.326 0.86 -30.326 0.505 59.341
13200 0.507 59.235 0.859 -30.433 0.859 -30.433 0.507 59.235
13250 0.508 59.129 0.858 -30.54 0.858 -30.54 0.508 59.129
13300 0.51 59.023 0.857 -30.647 0.857 -30.647 0.51 59.023
13350 0.511 58.918 0.856 -30.754 0.856 -30.754 0.511 58.918
13400 0.513 58.813 0.855 -30.86 0.855 -30.86 0.513 58.813
13450 0.515 58.708 0.855 -30.966 0.855 -30.966 0.515 58.708
13500 0.516 58.604 0.854 -31.071 0.854 -31.071 0.516 58.604
13550 0.518 58.499 0.853 -31.177 0.853 -31.177 0.518 58.499
13600 0.519 58.395 0.852 -31.282 0.852 -31.282 0.519 58.395
13650 0.521 58.292 0.851 -31.387 0.851 -31.387 0.521 58.292
13700 0.522 58.188 0.85 -31.491 0.85 -31.491 0.522 58.188
13750 0.524 58.085 0.849 -31.596 0.849 -31.596 0.524 58.085
13800 0.525 57.982 0.848 -31.7 0.848 -31.7 0.525 57.982
13850 0.527 57.879 0.847 -31.804 0.847 -31.804 0.527 57.879
13900 0.529 57.777 0.846 -31.907 0.846 -31.907 0.529 57.777
13950 0.53 57.675 0.845 -32.01 0.845 -32.01 0.53 57.675
14000 0.532 57.573 0.844 -32.113 0.844 -32.113 0.532 57.573
14050 0.533 57.471 0.843 -32.216 0.843 -32.216 0.533 57.471
14100 0.535 57.37 0.842 -32.318 0.842 -32.318 0.535 57.37
14150 0.536 57.269 0.841 -32.42 0.841 -32.42 0.536 57.269
14200 0.538 57.168 0.84 -32.522 0.84 -32.522 0.538 57.168
14250 0.539 57.067 0.839 -32.624 0.839 -32.624 0.539 57.067
14300 0.541 56.967 0.838 -32.725 0.838 -32.725 0.541 56.967
14350 0.542 56.867 0.837 -32.826 0.837 -32.826 0.542 56.867
14400 0.544 56.767 0.836 -32.927 0.836 -32.927 0.544 56.767
14450 0.545 56.667 0.836 -33.028 0.836 -33.028 0.545 56.667
14500 0.547 56.568 0.835 -33.128 0.835 -33.128 0.547 56.568
14550 0.548 56.469 0.834 -33.228 0.834 -33.228 0.548 56.469
14600 0.549 56.37 0.833 -33.328 0.833 -33.328 0.549 56.37
14650 0.551 56.272 0.832 -33.427 0.832 -33.427 0.551 56.272
14700 0.552 56.173 0.831 -33.526 0.831 -33.526 0.552 56.173
14750 0.554 56.075 0.83 -33.625 0.83 -33.625 0.554 56.075
14800 0.555 55.978 0.829 -33.724 0.829 -33.724 0.555 55.978
14850 0.557 55.88 0.828 -33.822 0.828 -33.822 0.557 55.88
14900 0.558 55.783 0.827 -33.921 0.827 -33.921 0.558 55.783
14950 0.559 55.686 0.826 -34.019 0.826 -34.019 0.559 55.686
15000 0.561 55.589 0.825 -34.116 0.825 -34.116 0.561 55.589
15050 0.562 55.492 0.824 -34.214 0.824 -34.214 0.562 55.492
15100 0.564 55.396 0.823 -34.311 0.823 -34.311 0.564 55.396
15150 0.565 55.3 0.822 -34.408 0.822 -34.408 0.565 55.3
15200 0.566 55.204 0.821 -34.504 0.821 -34.504 0.566 55.204
15250 0.568 55.109 0.82 -34.601 0.82 -34.601 0.568 55.109
15300 0.569 55.013 0.819 -34.697 0.819 -34.697 0.569 55.013
15350 0.571 54.918 0.818 -34.793 0.818 -34.793 0.571 54.918
15400 0.572 54.824 0.817 -34.889 0.817 -34.889 0.572 54.824
15450 0.573 54.729 0.816 -34.984 0.816 -34.984 0.573 54.729
15500 0.575 54.635 0.815 -35.079 0.815 -35.079 0.575 54.635
15550 0.576 54.541 0.815 -35.174 0.815 -35.174 0.576 54.541
15600 0.577 54.447 0.814 -35.269 0.814 -35.269 0.577 54.447
15650 0.579 54.353 0.813 -35.363 0.813 -35.363 0.579 54.353
15700 0.58 54.26 0.812 -35.457 0.812 -35.457 0.58 54.26
15750 0.581 54.167 0.811 -35.551 0.811 -35.551 0.581 54.167
15800 0.583 54.074 0.81 -35.645 0.81 -35.645 0.583 54.074
15850 0.584 53.981 0.809 -35.738 0.809 -35.738 0.584 53.981
15900 0.585 53.889 0.808 -35.832 0.808 -35.832 0.585 53.889
15950 0.587 53.797 0.807 -35.925 0.807 -35.925 0.587 53.797
16000 0.588 53.705 0.806 -36.017 0.806 -36.017 0.588 53.705
16050 0.589 53.613 0.805 -36.11 0.805 -36.11 0.589 53.613
16100 0.591 53.521 0.804 -36.202 0.804 -36.202 0.591 53.521
16150 0.592 53.43 0.803 -36.294 0.803 -36.294 0.592 53.43
16200 0.593 53.339 0.802 -36.386 0.802 -36.386 0.593 53.339
16250 0.595 53.248 0.801 -36.477 0.801 -36.477 0.595 53.248
16300 0.596 53.158 0.8 -36.568 0.8 -36.568 0.596 53.158
16350 0.597 53.068 0.799 -36.659 0.799 -36.659 0.597 53.068
16400 0.598 52.977 0.798 -36.75 0.798 -36.75 0.598 52.977
16450 0.6 52.888 0.797 -36.841 0.797 -36.841 0.6 52.888
16500 0.601 52.798 0.797 -36.931 0.797 -36.931 0.601 52.798
16550 0.602 52.709 0.796 -37.021 0.796 -37.021 0.602 52.709
16600 0.603 52.62 0.795 -37.111 0.795 -37.111 0.603 52.62
16650 0.605 52.531 0.794 -37.201 0.794 -37.201 0.605 52.531
16700 0.606 52.442 0.793 -37.29 0.793 -37.29 0.606 52.442
16750 0.607 52.353 0.792 -37.379 0.792 -37.379 0.607 52.353
16800 0.608 52.265 0.791 -37.468 0.791 -37.468 0.608 52.265
16850 0.61 52.177 0.79 -37.557 0.79 -37.557 0.61 52.177
16900 0.611 52.089 0.789 -37.645 0.789 -37.645 0.611 52.089
16950 0.612 52.002 0.788 -37.734 0.788 -37.734 0.612 52.002
