! AVX Thin Film Operation		Date: April 2012 
! Description: Accu-P® Series, Thin Film, SMD, RF Capacitor
! Part Number: 08051J3R6ABTTR					
!	100	MHz	-	10.05	GHz			
!	Serial	Measurements						
!								
#	MHZ	S	MA	R	50			
!	S11	S21	S12	S22				
!	dB	Phase	dB	Phase	dB	Phase	dB	Phase
100	0.975	-12.758	0.221	77.223	0.221	77.223	0.975	-12.758
102.469	0.974	-13.063	0.226	76.917	0.226	76.917	0.974	-13.063
104.939	0.973	-13.367	0.231	76.612	0.231	76.612	0.973	-13.367
107.408	0.972	-13.671	0.236	76.308	0.236	76.308	0.972	-13.671
109.878	0.97	-13.974	0.241	76.005	0.241	76.005	0.97	-13.974
112.347	0.969	-14.276	0.247	75.702	0.247	75.702	0.969	-14.276
114.817	0.968	-14.577	0.252	75.401	0.252	75.401	0.968	-14.577
117.286	0.966	-14.878	0.257	75.099	0.257	75.099	0.966	-14.878
119.756	0.965	-15.177	0.262	74.799	0.262	74.799	0.965	-15.177
122.225	0.964	-15.476	0.267	74.5	0.267	74.5	0.964	-15.476
124.694	0.962	-15.775	0.272	74.201	0.272	74.201	0.962	-15.775
127.164	0.961	-16.072	0.277	73.903	0.277	73.903	0.961	-16.072
129.633	0.959	-16.369	0.282	73.606	0.282	73.606	0.959	-16.369
132.103	0.958	-16.664	0.287	73.31	0.287	73.31	0.958	-16.664
134.572	0.956	-16.959	0.292	73.015	0.292	73.015	0.956	-16.959
137.042	0.955	-17.253	0.297	72.72	0.297	72.72	0.955	-17.253
139.511	0.953	-17.546	0.301	72.427	0.301	72.427	0.953	-17.546
141.981	0.952	-17.838	0.306	72.134	0.306	72.134	0.952	-17.838
144.45	0.95	-18.13	0.311	71.842	0.311	71.842	0.95	-18.13
146.919	0.949	-18.42	0.316	71.551	0.316	71.551	0.949	-18.42
149.389	0.947	-18.71	0.321	71.261	0.321	71.261	0.947	-18.71
151.858	0.945	-18.998	0.326	70.972	0.326	70.972	0.945	-18.998
154.328	0.944	-19.286	0.33	70.684	0.33	70.684	0.944	-19.286
156.797	0.942	-19.573	0.335	70.397	0.335	70.397	0.942	-19.573
159.267	0.94	-19.858	0.34	70.111	0.34	70.111	0.94	-19.858
161.736	0.939	-20.143	0.344	69.825	0.344	69.825	0.939	-20.143
164.206	0.937	-20.427	0.349	69.541	0.349	69.541	0.937	-20.427
166.675	0.935	-20.71	0.354	69.258	0.354	69.258	0.935	-20.71
169.144	0.933	-20.992	0.358	68.975	0.358	68.975	0.933	-20.992
171.614	0.932	-21.273	0.363	68.694	0.363	68.694	0.932	-21.273
174.083	0.93	-21.552	0.367	68.414	0.367	68.414	0.93	-21.552
176.553	0.928	-21.831	0.372	68.134	0.372	68.134	0.928	-21.831
179.022	0.926	-22.109	0.376	67.856	0.376	67.856	0.926	-22.109
181.492	0.924	-22.386	0.381	67.578	0.381	67.578	0.924	-22.386
183.961	0.923	-22.662	0.385	67.302	0.385	67.302	0.923	-22.662
186.431	0.921	-22.937	0.39	67.027	0.39	67.027	0.921	-22.937
188.9	0.919	-23.21	0.394	66.753	0.394	66.753	0.919	-23.21
191.369	0.917	-23.483	0.398	66.479	0.398	66.479	0.917	-23.483
193.839	0.915	-23.755	0.403	66.207	0.403	66.207	0.915	-23.755
196.308	0.913	-24.025	0.407	65.936	0.407	65.936	0.913	-24.025
198.778	0.911	-24.295	0.411	65.666	0.411	65.666	0.911	-24.295
201.247	0.909	-24.564	0.416	65.397	0.416	65.397	0.909	-24.564
203.717	0.907	-24.831	0.42	65.129	0.42	65.129	0.907	-24.831
206.186	0.905	-25.097	0.424	64.862	0.424	64.862	0.905	-25.097
208.656	0.903	-25.363	0.428	64.596	0.428	64.596	0.903	-25.363
211.125	0.901	-25.627	0.433	64.332	0.433	64.332	0.901	-25.627
213.594	0.899	-25.89	0.437	64.068	0.437	64.068	0.899	-25.89
216.064	0.897	-26.152	0.441	63.806	0.441	63.806	0.897	-26.152
218.533	0.895	-26.413	0.445	63.544	0.445	63.544	0.895	-26.413
221.003	0.893	-26.673	0.449	63.284	0.449	63.284	0.893	-26.673
223.472	0.891	-26.932	0.453	63.024	0.453	63.024	0.891	-26.932
225.942	0.889	-27.189	0.457	62.766	0.457	62.766	0.889	-27.189
228.411	0.887	-27.446	0.461	62.509	0.461	62.509	0.887	-27.446
230.881	0.885	-27.702	0.465	62.253	0.465	62.253	0.885	-27.702
233.35	0.883	-27.956	0.469	61.998	0.469	61.998	0.883	-27.956
235.819	0.881	-28.209	0.473	61.745	0.473	61.745	0.881	-28.209
238.289	0.879	-28.461	0.477	61.492	0.477	61.492	0.879	-28.461
240.758	0.877	-28.712	0.48	61.24	0.48	61.24	0.877	-28.712
243.228	0.875	-28.962	0.484	60.99	0.484	60.99	0.875	-28.962
245.697	0.872	-29.211	0.488	60.741	0.488	60.741	0.872	-29.211
248.167	0.87	-29.459	0.492	60.492	0.492	60.492	0.87	-29.459
250.636	0.868	-29.706	0.496	60.245	0.496	60.245	0.868	-29.706
253.106	0.866	-29.951	0.499	59.999	0.499	59.999	0.866	-29.951
255.575	0.864	-30.196	0.503	59.754	0.503	59.754	0.864	-30.196
258.044	0.862	-30.439	0.507	59.511	0.507	59.511	0.862	-30.439
260.514	0.86	-30.681	0.51	59.268	0.51	59.268	0.86	-30.681
262.983	0.857	-30.922	0.514	59.026	0.514	59.026	0.857	-30.922
265.453	0.855	-31.162	0.517	58.786	0.517	58.786	0.855	-31.162
267.922	0.853	-31.401	0.521	58.547	0.521	58.547	0.853	-31.401
270.392	0.851	-31.638	0.525	58.309	0.525	58.309	0.851	-31.638
272.861	0.849	-31.875	0.528	58.071	0.528	58.071	0.849	-31.875
275.331	0.847	-32.11	0.532	57.836	0.532	57.836	0.847	-32.11
277.8	0.844	-32.345	0.535	57.601	0.535	57.601	0.844	-32.345
280.269	0.842	-32.578	0.538	57.367	0.538	57.367	0.842	-32.578
282.739	0.84	-32.81	0.542	57.134	0.542	57.134	0.84	-32.81
285.208	0.838	-33.041	0.545	56.903	0.545	56.903	0.838	-33.041
287.678	0.836	-33.271	0.549	56.672	0.549	56.672	0.836	-33.271
290.147	0.833	-33.5	0.552	56.443	0.552	56.443	0.833	-33.5
292.617	0.831	-33.728	0.555	56.215	0.555	56.215	0.831	-33.728
295.086	0.829	-33.954	0.559	55.988	0.559	55.988	0.829	-33.954
297.556	0.827	-34.18	0.562	55.762	0.562	55.762	0.827	-34.18
300.025	0.824	-34.404	0.565	55.537	0.565	55.537	0.824	-34.404
302.494	0.822	-34.627	0.568	55.313	0.568	55.313	0.822	-34.627
304.964	0.82	-34.85	0.571	55.09	0.571	55.09	0.82	-34.85
307.433	0.818	-35.071	0.575	54.869	0.575	54.869	0.818	-35.071
309.903	0.816	-35.291	0.578	54.648	0.578	54.648	0.816	-35.291
312.372	0.813	-35.51	0.581	54.429	0.581	54.429	0.813	-35.51
314.842	0.811	-35.728	0.584	54.21	0.584	54.21	0.811	-35.728
317.311	0.809	-35.944	0.587	53.993	0.587	53.993	0.809	-35.944
319.78	0.807	-36.16	0.59	53.777	0.59	53.777	0.807	-36.16
322.25	0.804	-36.375	0.593	53.562	0.593	53.562	0.804	-36.375
324.719	0.802	-36.588	0.596	53.348	0.596	53.348	0.802	-36.588
327.189	0.8	-36.801	0.599	53.135	0.599	53.135	0.8	-36.801
329.658	0.798	-37.012	0.602	52.923	0.602	52.923	0.798	-37.012
332.128	0.796	-37.222	0.605	52.712	0.605	52.712	0.796	-37.222
334.597	0.793	-37.432	0.608	52.503	0.608	52.503	0.793	-37.432
337.067	0.791	-37.64	0.611	52.294	0.611	52.294	0.791	-37.64
339.536	0.789	-37.847	0.614	52.086	0.614	52.086	0.789	-37.847
342.005	0.787	-38.053	0.616	51.88	0.616	51.88	0.787	-38.053
344.475	0.784	-38.258	0.619	51.674	0.619	51.674	0.784	-38.258
346.944	0.782	-38.462	0.622	51.47	0.622	51.47	0.782	-38.462
349.414	0.78	-38.665	0.625	51.266	0.625	51.266	0.78	-38.665
351.883	0.778	-38.867	0.628	51.064	0.628	51.064	0.778	-38.867
354.353	0.776	-39.068	0.63	50.862	0.63	50.862	0.776	-39.068
356.822	0.773	-39.268	0.633	50.662	0.633	50.662	0.773	-39.268
359.292	0.771	-39.466	0.636	50.463	0.636	50.463	0.771	-39.466
361.761	0.769	-39.664	0.638	50.264	0.638	50.264	0.769	-39.664
364.23	0.767	-39.861	0.641	50.067	0.641	50.067	0.767	-39.861
366.7	0.765	-40.057	0.644	49.871	0.644	49.871	0.765	-40.057
369.169	0.762	-40.251	0.646	49.676	0.646	49.676	0.762	-40.251
371.639	0.76	-40.445	0.649	49.481	0.649	49.481	0.76	-40.445
374.108	0.758	-40.638	0.651	49.288	0.651	49.288	0.758	-40.638
376.578	0.756	-40.83	0.654	49.096	0.654	49.096	0.756	-40.83
379.047	0.754	-41.02	0.656	48.905	0.656	48.905	0.754	-41.02
381.517	0.751	-41.21	0.659	48.714	0.659	48.714	0.751	-41.21
383.986	0.749	-41.399	0.661	48.525	0.661	48.525	0.749	-41.399
386.455	0.747	-41.587	0.664	48.337	0.664	48.337	0.747	-41.587
388.925	0.745	-41.773	0.666	48.15	0.666	48.15	0.745	-41.773
391.394	0.743	-41.959	0.669	47.963	0.669	47.963	0.743	-41.959
393.864	0.741	-42.144	0.671	47.778	0.671	47.778	0.741	-42.144
396.333	0.738	-42.328	0.673	47.594	0.673	47.594	0.738	-42.328
398.803	0.736	-42.511	0.676	47.41	0.676	47.41	0.736	-42.511
401.272	0.734	-42.693	0.678	47.228	0.678	47.228	0.734	-42.693
403.742	0.732	-42.874	0.68	47.046	0.68	47.046	0.732	-42.874
406.211	0.73	-43.054	0.683	46.866	0.683	46.866	0.73	-43.054
408.68	0.728	-43.233	0.685	46.686	0.685	46.686	0.728	-43.233
411.15	0.725	-43.411	0.687	46.507	0.687	46.507	0.725	-43.411
413.619	0.723	-43.588	0.689	46.33	0.689	46.33	0.723	-43.588
416.089	0.721	-43.765	0.692	46.153	0.692	46.153	0.721	-43.765
418.558	0.719	-43.94	0.694	45.977	0.694	45.977	0.719	-43.94
421.028	0.717	-44.115	0.696	45.802	0.696	45.802	0.717	-44.115
423.497	0.715	-44.288	0.698	45.628	0.698	45.628	0.715	-44.288
425.967	0.713	-44.461	0.7	45.455	0.7	45.455	0.713	-44.461
428.436	0.711	-44.633	0.703	45.282	0.703	45.282	0.711	-44.633
430.905	0.708	-44.803	0.705	45.111	0.705	45.111	0.708	-44.803
433.375	0.706	-44.973	0.707	44.941	0.707	44.941	0.706	-44.973
435.844	0.704	-45.142	0.709	44.771	0.709	44.771	0.704	-45.142
438.314	0.702	-45.311	0.711	44.602	0.711	44.602	0.702	-45.311
440.783	0.7	-45.478	0.713	44.435	0.713	44.435	0.7	-45.478
443.253	0.698	-45.644	0.715	44.268	0.715	44.268	0.698	-45.644
445.722	0.696	-45.81	0.717	44.102	0.717	44.102	0.696	-45.81
448.192	0.694	-45.974	0.719	43.936	0.719	43.936	0.694	-45.974
450.661	0.692	-46.138	0.721	43.772	0.721	43.772	0.692	-46.138
453.13	0.69	-46.301	0.723	43.609	0.723	43.609	0.69	-46.301
455.6	0.688	-46.463	0.725	43.446	0.725	43.446	0.688	-46.463
458.069	0.686	-46.624	0.727	43.284	0.727	43.284	0.686	-46.624
460.539	0.684	-46.785	0.729	43.124	0.729	43.124	0.684	-46.785
463.008	0.682	-46.944	0.731	42.963	0.731	42.963	0.682	-46.944
465.478	0.679	-47.103	0.733	42.804	0.733	42.804	0.679	-47.103
467.947	0.677	-47.261	0.734	42.646	0.734	42.646	0.677	-47.261
470.417	0.675	-47.418	0.736	42.488	0.736	42.488	0.675	-47.418
472.886	0.673	-47.574	0.738	42.332	0.738	42.332	0.673	-47.574
475.355	0.671	-47.73	0.74	42.176	0.74	42.176	0.671	-47.73
477.825	0.669	-47.884	0.742	42.021	0.742	42.021	0.669	-47.884
480.294	0.667	-48.038	0.744	41.866	0.744	41.866	0.667	-48.038
482.764	0.665	-48.191	0.745	41.713	0.745	41.713	0.665	-48.191
485.233	0.663	-48.343	0.747	41.56	0.747	41.56	0.663	-48.343
487.703	0.661	-48.494	0.749	41.408	0.749	41.408	0.661	-48.494
490.172	0.659	-48.645	0.751	41.257	0.751	41.257	0.659	-48.645
492.642	0.657	-48.795	0.752	41.107	0.752	41.107	0.657	-48.795
495.111	0.655	-48.944	0.754	40.957	0.754	40.957	0.655	-48.944
497.58	0.654	-49.092	0.756	40.808	0.756	40.808	0.654	-49.092
500.05	0.652	-49.24	0.757	40.66	0.757	40.66	0.652	-49.24
502.519	0.65	-49.386	0.759	40.513	0.759	40.513	0.65	-49.386
504.989	0.648	-49.532	0.761	40.367	0.761	40.367	0.648	-49.532
507.458	0.646	-49.678	0.762	40.221	0.762	40.221	0.646	-49.678
509.928	0.644	-49.822	0.764	40.076	0.764	40.076	0.644	-49.822
512.397	0.642	-49.966	0.766	39.932	0.766	39.932	0.642	-49.966
514.867	0.64	-50.109	0.767	39.788	0.767	39.788	0.64	-50.109
517.336	0.638	-50.251	0.769	39.646	0.769	39.646	0.638	-50.251
519.805	0.636	-50.392	0.77	39.504	0.77	39.504	0.636	-50.392
522.275	0.634	-50.533	0.772	39.362	0.772	39.362	0.634	-50.533
524.744	0.632	-50.673	0.774	39.222	0.774	39.222	0.632	-50.673
527.214	0.63	-50.812	0.775	39.082	0.775	39.082	0.63	-50.812
529.683	0.629	-50.951	0.777	38.943	0.777	38.943	0.629	-50.951
532.153	0.627	-51.089	0.778	38.804	0.778	38.804	0.627	-51.089
534.622	0.625	-51.226	0.78	38.667	0.78	38.667	0.625	-51.226
537.092	0.623	-51.362	0.781	38.53	0.781	38.53	0.623	-51.362
539.561	0.621	-51.498	0.783	38.393	0.783	38.393	0.621	-51.498
542.03	0.619	-51.633	0.784	38.258	0.784	38.258	0.619	-51.633
544.5	0.617	-51.768	0.786	38.123	0.786	38.123	0.617	-51.768
546.969	0.616	-51.901	0.787	37.989	0.787	37.989	0.616	-51.901
549.439	0.614	-52.034	0.788	37.855	0.788	37.855	0.614	-52.034
551.908	0.612	-52.167	0.79	37.722	0.79	37.722	0.612	-52.167
554.378	0.61	-52.298	0.791	37.59	0.791	37.59	0.61	-52.298
556.847	0.608	-52.429	0.793	37.459	0.793	37.459	0.608	-52.429
559.317	0.606	-52.56	0.794	37.328	0.794	37.328	0.606	-52.56
561.786	0.605	-52.689	0.795	37.198	0.795	37.198	0.605	-52.689
564.255	0.603	-52.818	0.797	37.068	0.797	37.068	0.603	-52.818
566.725	0.601	-52.947	0.798	36.939	0.798	36.939	0.601	-52.947
569.194	0.599	-53.074	0.799	36.811	0.799	36.811	0.599	-53.074
571.664	0.597	-53.201	0.801	36.683	0.801	36.683	0.597	-53.201
574.133	0.596	-53.328	0.802	36.557	0.802	36.557	0.596	-53.328
576.603	0.594	-53.453	0.803	36.43	0.803	36.43	0.594	-53.453
579.072	0.592	-53.579	0.805	36.305	0.805	36.305	0.592	-53.579
581.542	0.59	-53.703	0.806	36.18	0.806	36.18	0.59	-53.703
584.011	0.589	-53.827	0.807	36.055	0.807	36.055	0.589	-53.827
586.48	0.587	-53.95	0.809	35.931	0.809	35.931	0.587	-53.95
588.95	0.585	-54.073	0.81	35.808	0.81	35.808	0.585	-54.073
591.419	0.583	-54.195	0.811	35.686	0.811	35.686	0.583	-54.195
593.889	0.582	-54.316	0.812	35.564	0.812	35.564	0.582	-54.316
596.358	0.58	-54.437	0.813	35.442	0.813	35.442	0.58	-54.437
598.828	0.578	-54.557	0.815	35.322	0.815	35.322	0.578	-54.557
601.297	0.576	-54.677	0.816	35.201	0.816	35.201	0.576	-54.677
603.767	0.575	-54.796	0.817	35.082	0.817	35.082	0.575	-54.796
606.236	0.573	-54.914	0.818	34.963	0.818	34.963	0.573	-54.914
608.705	0.571	-55.032	0.819	34.845	0.819	34.845	0.571	-55.032
611.175	0.57	-55.149	0.821	34.727	0.821	34.727	0.57	-55.149
613.644	0.568	-55.266	0.822	34.61	0.822	34.61	0.568	-55.266
616.114	0.566	-55.382	0.823	34.493	0.823	34.493	0.566	-55.382
618.583	0.565	-55.498	0.824	34.377	0.824	34.377	0.565	-55.498
621.053	0.563	-55.613	0.825	34.261	0.825	34.261	0.563	-55.613
623.522	0.561	-55.727	0.826	34.146	0.826	34.146	0.561	-55.727
625.992	0.56	-55.841	0.827	34.032	0.827	34.032	0.56	-55.841
628.461	0.558	-55.954	0.829	33.918	0.829	33.918	0.558	-55.954
630.93	0.556	-56.067	0.83	33.805	0.83	33.805	0.556	-56.067
633.4	0.555	-56.179	0.831	33.692	0.831	33.692	0.555	-56.179
635.869	0.553	-56.291	0.832	33.58	0.832	33.58	0.553	-56.291
638.339	0.551	-56.402	0.833	33.468	0.833	33.468	0.551	-56.402
640.808	0.55	-56.512	0.834	33.357	0.834	33.357	0.55	-56.512
643.278	0.548	-56.622	0.835	33.247	0.835	33.247	0.548	-56.622
645.747	0.547	-56.732	0.836	33.137	0.836	33.137	0.547	-56.732
648.217	0.545	-56.841	0.837	33.027	0.837	33.027	0.545	-56.841
650.686	0.543	-56.949	0.838	32.918	0.838	32.918	0.543	-56.949
653.155	0.542	-57.057	0.839	32.81	0.839	32.81	0.542	-57.057
655.625	0.54	-57.164	0.84	32.702	0.84	32.702	0.54	-57.164
658.094	0.539	-57.271	0.841	32.595	0.841	32.595	0.539	-57.271
660.564	0.537	-57.378	0.842	32.488	0.842	32.488	0.537	-57.378
663.033	0.536	-57.483	0.843	32.381	0.843	32.381	0.536	-57.483
665.503	0.534	-57.589	0.844	32.275	0.844	32.275	0.534	-57.589
667.972	0.532	-57.694	0.845	32.17	0.845	32.17	0.532	-57.694
670.442	0.531	-57.798	0.846	32.065	0.846	32.065	0.531	-57.798
672.911	0.529	-57.902	0.847	31.961	0.847	31.961	0.529	-57.902
675.38	0.528	-58.005	0.848	31.857	0.848	31.857	0.528	-58.005
677.85	0.526	-58.108	0.849	31.753	0.849	31.753	0.526	-58.108
680.319	0.525	-58.21	0.85	31.65	0.85	31.65	0.525	-58.21
682.789	0.523	-58.312	0.851	31.548	0.851	31.548	0.523	-58.312
685.258	0.522	-58.414	0.852	31.446	0.852	31.446	0.522	-58.414
687.728	0.52	-58.514	0.853	31.345	0.853	31.345	0.52	-58.514
690.197	0.519	-58.615	0.854	31.244	0.854	31.244	0.519	-58.615
692.667	0.517	-58.715	0.855	31.143	0.855	31.143	0.517	-58.715
695.136	0.516	-58.814	0.855	31.043	0.855	31.043	0.516	-58.814
697.605	0.514	-58.913	0.856	30.943	0.856	30.943	0.514	-58.913
700.075	0.513	-59.012	0.857	30.844	0.857	30.844	0.513	-59.012
702.544	0.511	-59.11	0.858	30.746	0.858	30.746	0.511	-59.11
705.014	0.51	-59.208	0.859	30.647	0.859	30.647	0.51	-59.208
707.483	0.508	-59.305	0.86	30.55	0.86	30.55	0.508	-59.305
709.953	0.507	-59.402	0.861	30.452	0.861	30.452	0.507	-59.402
712.422	0.505	-59.498	0.862	30.355	0.862	30.355	0.505	-59.498
714.891	0.504	-59.594	0.862	30.259	0.862	30.259	0.504	-59.594
717.361	0.502	-59.689	0.863	30.163	0.863	30.163	0.502	-59.689
719.83	0.501	-59.784	0.864	30.067	0.864	30.067	0.501	-59.784
722.3	0.5	-59.879	0.865	29.972	0.865	29.972	0.5	-59.879
724.769	0.498	-59.973	0.866	29.878	0.866	29.878	0.498	-59.973
727.239	0.497	-60.067	0.867	29.783	0.867	29.783	0.497	-60.067
729.708	0.495	-60.16	0.867	29.689	0.867	29.689	0.495	-60.16
732.178	0.494	-60.253	0.868	29.596	0.868	29.596	0.494	-60.253
734.647	0.492	-60.345	0.869	29.503	0.869	29.503	0.492	-60.345
737.116	0.491	-60.437	0.87	29.41	0.87	29.41	0.491	-60.437
739.586	0.49	-60.529	0.871	29.318	0.871	29.318	0.49	-60.529
742.055	0.488	-60.62	0.871	29.227	0.871	29.227	0.488	-60.62
744.525	0.487	-60.711	0.872	29.135	0.872	29.135	0.487	-60.711
746.994	0.485	-60.801	0.873	29.044	0.873	29.044	0.485	-60.801
749.464	0.484	-60.891	0.874	28.954	0.874	28.954	0.484	-60.891
751.933	0.483	-60.98	0.874	28.864	0.874	28.864	0.483	-60.98
754.403	0.481	-61.07	0.875	28.774	0.875	28.774	0.481	-61.07
756.872	0.48	-61.158	0.876	28.685	0.876	28.685	0.48	-61.158
759.341	0.479	-61.247	0.877	28.596	0.877	28.596	0.479	-61.247
761.811	0.477	-61.335	0.877	28.507	0.877	28.507	0.477	-61.335
764.28	0.476	-61.422	0.878	28.419	0.878	28.419	0.476	-61.422
766.75	0.475	-61.509	0.879	28.332	0.879	28.332	0.475	-61.509
769.219	0.473	-61.596	0.88	28.244	0.88	28.244	0.473	-61.596
771.689	0.472	-61.682	0.88	28.157	0.88	28.157	0.472	-61.682
774.158	0.471	-61.768	0.881	28.071	0.881	28.071	0.471	-61.768
776.628	0.469	-61.854	0.882	27.984	0.882	27.984	0.469	-61.854
779.097	0.468	-61.939	0.882	27.899	0.882	27.899	0.468	-61.939
781.566	0.467	-62.024	0.883	27.813	0.883	27.813	0.467	-62.024
784.036	0.465	-62.109	0.884	27.728	0.884	27.728	0.465	-62.109
786.505	0.464	-62.193	0.885	27.643	0.885	27.643	0.464	-62.193
788.975	0.463	-62.277	0.885	27.559	0.885	27.559	0.463	-62.277
791.444	0.461	-62.36	0.886	27.475	0.886	27.475	0.461	-62.36
793.914	0.46	-62.443	0.887	27.391	0.887	27.391	0.46	-62.443
796.383	0.459	-62.526	0.887	27.308	0.887	27.308	0.459	-62.526
798.853	0.457	-62.608	0.888	27.225	0.888	27.225	0.457	-62.608
801.322	0.456	-62.69	0.889	27.143	0.889	27.143	0.456	-62.69
803.791	0.455	-62.771	0.889	27.061	0.889	27.061	0.455	-62.771
806.261	0.454	-62.853	0.89	26.979	0.89	26.979	0.454	-62.853
808.73	0.452	-62.934	0.89	26.897	0.89	26.897	0.452	-62.934
811.2	0.451	-63.014	0.891	26.816	0.891	26.816	0.451	-63.014
813.669	0.45	-63.094	0.892	26.735	0.892	26.735	0.45	-63.094
816.139	0.449	-63.174	0.892	26.655	0.892	26.655	0.449	-63.174
818.608	0.447	-63.254	0.893	26.575	0.893	26.575	0.447	-63.254
821.078	0.446	-63.333	0.894	26.495	0.894	26.495	0.446	-63.333
823.547	0.445	-63.412	0.894	26.415	0.894	26.415	0.445	-63.412
826.016	0.444	-63.49	0.895	26.336	0.895	26.336	0.444	-63.49
828.486	0.442	-63.568	0.895	26.258	0.895	26.258	0.442	-63.568
830.955	0.441	-63.646	0.896	26.179	0.896	26.179	0.441	-63.646
833.425	0.44	-63.724	0.897	26.101	0.897	26.101	0.44	-63.724
835.894	0.439	-63.801	0.897	26.023	0.897	26.023	0.439	-63.801
838.364	0.438	-63.878	0.898	25.946	0.898	25.946	0.438	-63.878
840.833	0.436	-63.954	0.898	25.869	0.898	25.869	0.436	-63.954
843.303	0.435	-64.031	0.899	25.792	0.899	25.792	0.435	-64.031
845.772	0.434	-64.107	0.9	25.715	0.9	25.715	0.434	-64.107
848.241	0.433	-64.182	0.9	25.639	0.9	25.639	0.433	-64.182
850.711	0.432	-64.257	0.901	25.563	0.901	25.563	0.432	-64.257
853.18	0.43	-64.332	0.901	25.488	0.901	25.488	0.43	-64.332
855.65	0.429	-64.407	0.902	25.412	0.902	25.412	0.429	-64.407
858.119	0.428	-64.481	0.902	25.337	0.902	25.337	0.428	-64.481
860.589	0.427	-64.555	0.903	25.263	0.903	25.263	0.427	-64.555
863.058	0.426	-64.629	0.904	25.188	0.904	25.188	0.426	-64.629
865.528	0.424	-64.703	0.904	25.114	0.904	25.114	0.424	-64.703
867.997	0.423	-64.776	0.905	25.041	0.905	25.041	0.423	-64.776
870.466	0.422	-64.848	0.905	24.967	0.905	24.967	0.422	-64.848
872.936	0.421	-64.921	0.906	24.894	0.906	24.894	0.421	-64.921
875.405	0.42	-64.993	0.906	24.821	0.906	24.821	0.42	-64.993
877.875	0.419	-65.065	0.907	24.749	0.907	24.749	0.419	-65.065
880.344	0.417	-65.137	0.907	24.676	0.907	24.676	0.417	-65.137
882.814	0.416	-65.208	0.908	24.604	0.908	24.604	0.416	-65.208
885.283	0.415	-65.279	0.908	24.533	0.908	24.533	0.415	-65.279
887.753	0.414	-65.35	0.909	24.461	0.909	24.461	0.414	-65.35
890.222	0.413	-65.42	0.909	24.39	0.909	24.39	0.413	-65.42
892.691	0.412	-65.491	0.91	24.319	0.91	24.319	0.412	-65.491
