!	AVX	Thin	Film	Operation	
!
!	Date:	March 2012		
!
!	Description: Ultra-Miniature 01005 Size ACCU - P® Thin Film RF / Microwave Capacitor
!
!	Part Number:  C005YJ0R6ABSTR	
!								
!	Serial	Measurements						
!
# MHZ S MA R 50

50 1 -1.08 0.019 88.862 0.019 88.862 1 -1.08
100 0.999 -2.159 0.038 87.782 0.038 87.782 0.999 -2.159
150 0.998 -3.237 0.056 86.703 0.056 86.703 0.998 -3.237
200 0.997 -4.313 0.075 85.626 0.075 85.626 0.997 -4.313
250 0.995 -5.386 0.094 84.552 0.094 84.552 0.995 -5.386
300 0.994 -6.455 0.112 83.481 0.112 83.481 0.994 -6.455
350 0.991 -7.521 0.131 82.414 0.131 82.414 0.991 -7.521
400 0.989 -8.582 0.149 81.352 0.149 81.352 0.989 -8.582
450 0.986 -9.638 0.167 80.295 0.167 80.295 0.986 -9.638
500 0.982 -10.688 0.185 79.244 0.185 79.244 0.982 -10.688
550 0.979 -11.732 0.203 78.199 0.203 78.199 0.979 -11.732
600 0.975 -12.769 0.221 77.16 0.221 77.16 0.975 -12.769
650 0.971 -13.799 0.239 76.13 0.239 76.13 0.971 -13.799
700 0.966 -14.821 0.256 75.107 0.256 75.107 0.966 -14.821
750 0.962 -15.834 0.273 74.092 0.273 74.092 0.962 -15.834
800 0.957 -16.839 0.29 73.086 0.29 73.086 0.957 -16.839
850 0.952 -17.835 0.306 72.09 0.306 72.09 0.952 -17.835
900 0.946 -18.821 0.323 71.102 0.323 71.102 0.946 -18.821
950 0.94 -19.797 0.339 70.125 0.339 70.125 0.94 -19.797
1000 0.935 -20.763 0.354 69.158 0.354 69.158 0.935 -20.763
1050 0.928 -21.718 0.37 68.202 0.37 68.202 0.928 -21.718
1100 0.922 -22.663 0.385 67.256 0.385 67.256 0.922 -22.663
1150 0.916 -23.596 0.4 66.321 0.4 66.321 0.916 -23.596
1200 0.909 -24.518 0.415 65.398 0.415 65.398 0.909 -24.518
1250 0.902 -25.429 0.429 64.486 0.429 64.486 0.902 -25.429
1300 0.896 -26.329 0.444 63.585 0.444 63.585 0.896 -26.329
1350 0.889 -27.216 0.457 62.696 0.457 62.696 0.889 -27.216
1400 0.881 -28.092 0.471 61.819 0.471 61.819 0.881 -28.092
1450 0.874 -28.956 0.484 60.954 0.484 60.954 0.874 -28.956
1500 0.867 -29.807 0.497 60.101 0.497 60.101 0.867 -29.807
1550 0.86 -30.647 0.51 59.261 0.51 59.261 0.86 -30.647
1600 0.852 -31.475 0.522 58.432 0.522 58.432 0.852 -31.475
1650 0.844 -32.29 0.534 57.615 0.534 57.615 0.844 -32.29
1700 0.837 -33.094 0.546 56.81 0.546 56.81 0.837 -33.094
1750 0.829 -33.885 0.558 56.017 0.558 56.017 0.829 -33.885
1800 0.822 -34.665 0.569 55.237 0.569 55.237 0.822 -34.665
1850 0.814 -35.432 0.58 54.468 0.58 54.468 0.814 -35.432
1900 0.806 -36.188 0.59 53.711 0.59 53.711 0.806 -36.188
1950 0.798 -36.931 0.601 52.966 0.601 52.966 0.798 -36.931
2000 0.791 -37.663 0.611 52.233 0.611 52.233 0.791 -37.663
2050 0.783 -38.384 0.621 51.511 0.621 51.511 0.783 -38.384
2100 0.775 -39.093 0.631 50.801 0.631 50.801 0.775 -39.093
2150 0.767 -39.79 0.64 50.102 0.64 50.102 0.767 -39.79
2200 0.759 -40.477 0.649 49.415 0.649 49.415 0.759 -40.477
2250 0.752 -41.152 0.658 48.738 0.658 48.738 0.752 -41.152
2300 0.744 -41.816 0.667 48.073 0.667 48.073 0.744 -41.816
2350 0.736 -42.469 0.675 47.418 0.675 47.418 0.736 -42.469
2400 0.729 -43.112 0.683 46.774 0.683 46.774 0.729 -43.112
2450 0.721 -43.744 0.691 46.141 0.691 46.141 0.721 -43.744
2500 0.713 -44.366 0.699 45.518 0.699 45.518 0.713 -44.366
2550 0.706 -44.977 0.707 44.905 0.707 44.905 0.706 -44.977
2600 0.698 -45.579 0.714 44.302 0.714 44.302 0.698 -45.579
2650 0.691 -46.17 0.721 43.709 0.721 43.709 0.691 -46.17
2700 0.684 -46.752 0.728 43.126 0.728 43.126 0.684 -46.752
2750 0.676 -47.324 0.735 42.552 0.735 42.552 0.676 -47.324
2800 0.669 -47.887 0.742 41.988 0.742 41.988 0.669 -47.887
2850 0.662 -48.441 0.748 41.432 0.748 41.432 0.662 -48.441
2900 0.655 -48.985 0.755 40.886 0.755 40.886 0.655 -48.985
2950 0.647 -49.521 0.761 40.349 0.761 40.349 0.647 -49.521
3000 0.64 -50.048 0.767 39.821 0.767 39.821 0.64 -50.048
3050 0.633 -50.567 0.772 39.301 0.772 39.301 0.633 -50.567
3100 0.626 -51.077 0.778 38.789 0.778 38.789 0.626 -51.077
3150 0.62 -51.578 0.783 38.286 0.783 38.286 0.62 -51.578
3200 0.613 -52.072 0.789 37.79 0.789 37.79 0.613 -52.072
3250 0.606 -52.558 0.794 37.303 0.794 37.303 0.606 -52.558
3300 0.599 -53.036 0.799 36.823 0.799 36.823 0.599 -53.036
3350 0.593 -53.507 0.804 36.351 0.804 36.351 0.593 -53.507
3400 0.586 -53.97 0.809 35.887 0.809 35.887 0.586 -53.97
3450 0.58 -54.425 0.813 35.429 0.813 35.429 0.58 -54.425
3500 0.573 -54.874 0.818 34.979 0.818 34.979 0.573 -54.874
3550 0.567 -55.316 0.822 34.536 0.822 34.536 0.567 -55.316
3600 0.561 -55.75 0.827 34.1 0.827 34.1 0.561 -55.75
3650 0.554 -56.178 0.831 33.67 0.831 33.67 0.554 -56.178
3700 0.548 -56.6 0.835 33.247 0.835 33.247 0.548 -56.6
3750 0.542 -57.015 0.839 32.83 0.839 32.83 0.542 -57.015
3800 0.536 -57.424 0.843 32.42 0.843 32.42 0.536 -57.424
3850 0.53 -57.826 0.846 32.016 0.846 32.016 0.53 -57.826
3900 0.524 -58.223 0.85 31.617 0.85 31.617 0.524 -58.223
3950 0.518 -58.613 0.854 31.225 0.854 31.225 0.518 -58.613
4000 0.513 -58.998 0.857 30.839 0.857 30.839 0.513 -58.998
4050 0.507 -59.377 0.861 30.458 0.861 30.458 0.507 -59.377
4100 0.501 -59.75 0.864 30.082 0.864 30.082 0.501 -59.75
4150 0.496 -60.118 0.867 29.712 0.867 29.712 0.496 -60.118
4200 0.49 -60.481 0.87 29.348 0.87 29.348 0.49 -60.481
4250 0.485 -60.839 0.873 28.989 0.873 28.989 0.485 -60.839
4300 0.479 -61.191 0.876 28.634 0.876 28.634 0.479 -61.191
4350 0.474 -61.539 0.879 28.285 0.879 28.285 0.474 -61.539
4400 0.469 -61.881 0.882 27.941 0.882 27.941 0.469 -61.881
4450 0.463 -62.219 0.885 27.601 0.885 27.601 0.463 -62.219
4500 0.458 -62.552 0.887 27.266 0.887 27.266 0.458 -62.552
4550 0.453 -62.88 0.89 26.936 0.89 26.936 0.453 -62.88
4600 0.448 -63.204 0.893 26.61 0.893 26.61 0.448 -63.204
4650 0.443 -63.524 0.895 26.288 0.895 26.288 0.443 -63.524
4700 0.438 -63.839 0.898 25.971 0.898 25.971 0.438 -63.839
4750 0.433 -64.15 0.9 25.658 0.9 25.658 0.433 -64.15
4800 0.428 -64.456 0.902 25.349 0.902 25.349 0.428 -64.456
4850 0.423 -64.759 0.905 25.044 0.905 25.044 0.423 -64.759
4900 0.419 -65.058 0.907 24.743 0.907 24.743 0.419 -65.058
4950 0.414 -65.353 0.909 24.446 0.909 24.446 0.414 -65.353
5000 0.409 -65.644 0.911 24.153 0.911 24.153 0.409 -65.644
5050 0.405 -65.931 0.913 23.864 0.913 23.864 0.405 -65.931
5100 0.4 -66.215 0.915 23.578 0.915 23.578 0.4 -66.215
5150 0.395 -66.495 0.917 23.296 0.917 23.296 0.395 -66.495
5200 0.391 -66.771 0.919 23.017 0.919 23.017 0.391 -66.771
5250 0.387 -67.044 0.921 22.741 0.921 22.741 0.387 -67.044
5300 0.382 -67.314 0.923 22.469 0.923 22.469 0.382 -67.314
5350 0.378 -67.58 0.924 22.201 0.924 22.201 0.378 -67.58
5400 0.374 -67.843 0.926 21.935 0.926 21.935 0.374 -67.843
5450 0.369 -68.103 0.928 21.673 0.928 21.673 0.369 -68.103
5500 0.365 -68.36 0.93 21.414 0.93 21.414 0.365 -68.36
5550 0.361 -68.613 0.931 21.158 0.931 21.158 0.361 -68.613
5600 0.357 -68.864 0.933 20.905 0.933 20.905 0.357 -68.864
5650 0.353 -69.112 0.934 20.654 0.934 20.654 0.353 -69.112
5700 0.349 -69.357 0.936 20.407 0.936 20.407 0.349 -69.357
5750 0.345 -69.598 0.937 20.162 0.937 20.162 0.345 -69.598
5800 0.341 -69.838 0.939 19.921 0.939 19.921 0.341 -69.838
5850 0.337 -70.074 0.94 19.681 0.94 19.681 0.337 -70.074
5900 0.333 -70.308 0.942 19.445 0.942 19.445 0.333 -70.308
5950 0.329 -70.539 0.943 19.211 0.943 19.211 0.329 -70.539
6000 0.325 -70.767 0.944 18.98 0.944 18.98 0.325 -70.767
6050 0.321 -70.993 0.945 18.751 0.945 18.751 0.321 -70.993
6100 0.318 -71.217 0.947 18.525 0.947 18.525 0.318 -71.217
6150 0.314 -71.438 0.948 18.301 0.948 18.301 0.314 -71.438
6200 0.31 -71.656 0.949 18.079 0.949 18.079 0.31 -71.656
6250 0.307 -71.873 0.95 17.86 0.95 17.86 0.307 -71.873
6300 0.303 -72.087 0.952 17.643 0.952 17.643 0.303 -72.087
6350 0.3 -72.298 0.953 17.428 0.953 17.428 0.3 -72.298
6400 0.296 -72.508 0.954 17.216 0.954 17.216 0.296 -72.508
6450 0.292 -72.715 0.955 17.005 0.955 17.005 0.292 -72.715
6500 0.289 -72.92 0.956 16.797 0.956 16.797 0.289 -72.92
6550 0.286 -73.123 0.957 16.591 0.957 16.591 0.286 -73.123
6600 0.282 -73.324 0.958 16.387 0.958 16.387 0.282 -73.324
6650 0.279 -73.522 0.959 16.185 0.959 16.185 0.279 -73.522
6700 0.275 -73.719 0.96 15.984 0.96 15.984 0.275 -73.719
6750 0.272 -73.914 0.961 15.786 0.961 15.786 0.272 -73.914
6800 0.269 -74.107 0.962 15.59 0.962 15.59 0.269 -74.107
6850 0.265 -74.297 0.963 15.395 0.963 15.395 0.265 -74.297
6900 0.262 -74.486 0.964 15.203 0.964 15.203 0.262 -74.486
6950 0.259 -74.674 0.964 15.012 0.964 15.012 0.259 -74.674
7000 0.256 -74.859 0.965 14.823 0.965 14.823 0.256 -74.859
7050 0.253 -75.042 0.966 14.635 0.966 14.635 0.253 -75.042
7100 0.25 -75.224 0.967 14.45 0.967 14.45 0.25 -75.224
7150 0.246 -75.404 0.968 14.266 0.968 14.266 0.246 -75.404
7200 0.243 -75.582 0.969 14.084 0.969 14.084 0.243 -75.582
7250 0.24 -75.759 0.969 13.903 0.969 13.903 0.24 -75.759
7300 0.237 -75.934 0.97 13.724 0.97 13.724 0.237 -75.934
7350 0.234 -76.107 0.971 13.546 0.971 13.546 0.234 -76.107
7400 0.231 -76.278 0.971 13.37 0.971 13.37 0.231 -76.278
7450 0.228 -76.449 0.972 13.196 0.972 13.196 0.228 -76.449
7500 0.225 -76.617 0.973 13.023 0.973 13.023 0.225 -76.617
7550 0.222 -76.784 0.974 12.851 0.974 12.851 0.222 -76.784
7600 0.22 -76.949 0.974 12.681 0.974 12.681 0.22 -76.949
7650 0.217 -77.113 0.975 12.513 0.975 12.513 0.217 -77.113
7700 0.214 -77.275 0.975 12.346 0.975 12.346 0.214 -77.275
7750 0.211 -77.436 0.976 12.18 0.976 12.18 0.211 -77.436
7800 0.208 -77.596 0.977 12.015 0.977 12.015 0.208 -77.596
7850 0.205 -77.754 0.977 11.852 0.977 11.852 0.205 -77.754
7900 0.203 -77.91 0.978 11.69 0.978 11.69 0.203 -77.91
7950 0.2 -78.066 0.978 11.53 0.978 11.53 0.2 -78.066
8000 0.197 -78.22 0.979 11.37 0.979 11.37 0.197 -78.22
8050 0.194 -78.372 0.98 11.212 0.98 11.212 0.194 -78.372
8100 0.192 -78.523 0.98 11.055 0.98 11.055 0.192 -78.523
8150 0.189 -78.673 0.981 10.9 0.981 10.9 0.189 -78.673
8200 0.186 -78.822 0.981 10.745 0.981 10.745 0.186 -78.822
8250 0.184 -78.969 0.982 10.592 0.982 10.592 0.184 -78.969
8300 0.181 -79.115 0.982 10.44 0.982 10.44 0.181 -79.115
8350 0.179 -79.259 0.983 10.289 0.983 10.289 0.179 -79.259
8400 0.176 -79.403 0.983 10.139 0.983 10.139 0.176 -79.403
8450 0.173 -79.545 0.983 9.99 0.983 9.99 0.173 -79.545
8500 0.171 -79.686 0.984 9.843 0.984 9.843 0.171 -79.686
8550 0.168 -79.825 0.984 9.696 0.984 9.696 0.168 -79.825
8600 0.166 -79.964 0.985 9.55 0.985 9.55 0.166 -79.964
8650 0.163 -80.101 0.985 9.406 0.985 9.406 0.163 -80.101
8700 0.161 -80.237 0.986 9.262 0.986 9.262 0.161 -80.237
8750 0.159 -80.372 0.986 9.12 0.986 9.12 0.159 -80.372
8800 0.156 -80.506 0.986 8.978 0.986 8.978 0.156 -80.506
8850 0.154 -80.638 0.987 8.838 0.987 8.838 0.154 -80.638
8900 0.151 -80.77 0.987 8.698 0.987 8.698 0.151 -80.77
8950 0.149 -80.9 0.987 8.56 0.987 8.56 0.149 -80.9
9000 0.146 -81.029 0.988 8.422 0.988 8.422 0.146 -81.029
9050 0.144 -81.157 0.988 8.285 0.988 8.285 0.144 -81.157
9100 0.142 -81.283 0.988 8.149 0.988 8.149 0.142 -81.283
9150 0.139 -81.409 0.989 8.014 0.989 8.014 0.139 -81.409
9200 0.137 -81.533 0.989 7.88 0.989 7.88 0.137 -81.533
9250 0.135 -81.657 0.989 7.747 0.989 7.747 0.135 -81.657
9300 0.133 -81.779 0.99 7.615 0.99 7.615 0.133 -81.779
9350 0.13 -81.9 0.99 7.483 0.99 7.483 0.13 -81.9
9400 0.128 -82.02 0.99 7.353 0.99 7.353 0.128 -82.02
9450 0.126 -82.139 0.991 7.223 0.991 7.223 0.126 -82.139
9500 0.124 -82.256 0.991 7.094 0.991 7.094 0.124 -82.256
9550 0.121 -82.373 0.991 6.965 0.991 6.965 0.121 -82.373
9600 0.119 -82.488 0.991 6.838 0.991 6.838 0.119 -82.488
9650 0.117 -82.602 0.992 6.711 0.992 6.711 0.117 -82.602
9700 0.115 -82.715 0.992 6.585 0.992 6.585 0.115 -82.715
9750 0.113 -82.827 0.992 6.46 0.992 6.46 0.113 -82.827
9800 0.11 -82.938 0.992 6.336 0.992 6.336 0.11 -82.938
9850 0.108 -83.047 0.993 6.212 0.993 6.212 0.108 -83.047
9900 0.106 -83.155 0.993 6.089 0.993 6.089 0.106 -83.155
9950 0.104 -83.262 0.993 5.967 0.993 5.967 0.104 -83.262
10000 0.102 -83.368 0.993 5.846 0.993 5.846 0.102 -83.368
10050 0.1 -83.472 0.994 5.725 0.994 5.725 0.1 -83.472
10100 0.098 -83.575 0.994 5.605 0.994 5.605 0.098 -83.575
10150 0.096 -83.677 0.994 5.485 0.994 5.485 0.096 -83.677
10200 0.094 -83.777 0.994 5.366 0.994 5.366 0.094 -83.777
10250 0.091 -83.876 0.994 5.248 0.994 5.248 0.091 -83.876
10300 0.089 -83.974 0.995 5.131 0.995 5.131 0.089 -83.974
10350 0.087 -84.07 0.995 5.014 0.995 5.014 0.087 -84.07
10400 0.085 -84.165 0.995 4.898 0.995 4.898 0.085 -84.165
10450 0.083 -84.258 0.995 4.782 0.995 4.782 0.083 -84.258
10500 0.081 -84.349 0.995 4.667 0.995 4.667 0.081 -84.349
10550 0.079 -84.439 0.995 4.553 0.995 4.553 0.079 -84.439
10600 0.077 -84.527 0.996 4.439 0.996 4.439 0.077 -84.527
10650 0.075 -84.613 0.996 4.326 0.996 4.326 0.075 -84.613
10700 0.073 -84.698 0.996 4.214 0.996 4.214 0.073 -84.698
10750 0.072 -84.78 0.996 4.102 0.996 4.102 0.072 -84.78
10800 0.07 -84.86 0.996 3.99 0.996 3.99 0.07 -84.86
10850 0.068 -84.939 0.996 3.88 0.996 3.88 0.068 -84.939
10900 0.066 -85.014 0.996 3.769 0.996 3.769 0.066 -85.014
10950 0.064 -85.088 0.997 3.66 0.997 3.66 0.064 -85.088
11000 0.062 -85.159 0.997 3.551 0.997 3.551 0.062 -85.159
11050 0.06 -85.227 0.997 3.442 0.997 3.442 0.06 -85.227
11100 0.058 -85.292 0.997 3.334 0.997 3.334 0.058 -85.292
11150 0.056 -85.354 0.997 3.226 0.997 3.226 0.056 -85.354
11200 0.054 -85.412 0.997 3.119 0.997 3.119 0.054 -85.412
11250 0.053 -85.467 0.997 3.013 0.997 3.013 0.053 -85.467
11300 0.051 -85.518 0.997 2.907 0.997 2.907 0.051 -85.518
11350 0.049 -85.564 0.997 2.802 0.997 2.802 0.049 -85.564
11400 0.047 -85.605 0.997 2.697 0.997 2.697 0.047 -85.605
11450 0.045 -85.642 0.998 2.592 0.998 2.592 0.045 -85.642
11500 0.043 -85.672 0.998 2.488 0.998 2.488 0.043 -85.672
11550 0.042 -85.696 0.998 2.385 0.998 2.385 0.042 -85.696
11600 0.04 -85.712 0.998 2.282 0.998 2.282 0.04 -85.712
11650 0.038 -85.721 0.998 2.179 0.998 2.179 0.038 -85.721
11700 0.036 -85.72 0.998 2.077 0.998 2.077 0.036 -85.72
11750 0.034 -85.708 0.998 1.975 0.998 1.975 0.034 -85.708
11800 0.033 -85.685 0.998 1.874 0.998 1.874 0.033 -85.685
11850 0.031 -85.647 0.998 1.773 0.998 1.773 0.031 -85.647
11900 0.029 -85.593 0.998 1.673 0.998 1.673 0.029 -85.593
11950 0.027 -85.52 0.998 1.573 0.998 1.573 0.027 -85.52
12000 0.026 -85.424 0.998 1.474 0.998 1.474 0.026 -85.424
12050 0.024 -85.301 0.998 1.375 0.998 1.375 0.024 -85.301
12100 0.022 -85.143 0.998 1.276 0.998 1.276 0.022 -85.143
12150 0.021 -84.944 0.998 1.178 0.998 1.178 0.021 -84.944
12200 0.019 -84.693 0.998 1.081 0.998 1.081 0.019 -84.693
12250 0.017 -84.374 0.998 0.983 0.998 0.983 0.017 -84.374
12300 0.016 -83.966 0.998 0.886 0.998 0.886 0.016 -83.966
12350 0.014 -83.438 0.999 0.79 0.999 0.79 0.014 -83.438
12400 0.012 -82.741 0.999 0.694 0.999 0.694 0.012 -82.741
12450 0.011 -81.798 0.999 0.598 0.999 0.598 0.011 -81.798
12500 8.886e-3 -80.474 0.999 0.503 0.999 0.503 8.886e-3 -80.474
12550 7.254e-3 -78.516 0.999 0.408 0.999 0.408 7.254e-3 -78.516
12600 5.644e-3 -75.391 0.999 0.313 0.999 0.313 5.644e-3 -75.391
12650 4.072e-3 -69.766 0.999 0.219 0.999 0.219 4.072e-3 -69.766
12700 2.595e-3 -57.391 0.999 0.125 0.999 0.125 2.595e-3 -57.391
12750 1.501e-3 -21.804 0.999 0.032 0.999 0.032 1.501e-3 -21.804
12800 1.754e-3 37.344 0.999 -0.061 0.999 -0.061 1.754e-3 37.344
12850 3.024e-3 62.402 0.999 -0.154 0.999 -0.154 3.024e-3 62.402
12900 4.515e-3 71.777 0.999 -0.246 0.999 -0.246 4.515e-3 71.777
12950 6.063e-3 76.373 0.999 -0.338 0.999 -0.338 6.063e-3 76.373
13000 7.628e-3 79.043 0.999 -0.43 0.999 -0.43 7.628e-3 79.043
13050 9.199e-3 80.765 0.999 -0.521 0.999 -0.521 9.199e-3 80.765
13100 0.011 81.953 0.999 -0.612 0.999 -0.612 0.011 81.953
13150 0.012 82.812 0.999 -0.702 0.999 -0.702 0.012 82.812
13200 0.014 83.455 0.999 -0.793 0.999 -0.793 0.014 83.455
13250 0.015 83.948 0.998 -0.883 0.998 -0.883 0.015 83.948
13300 0.017 84.332 0.998 -0.972 0.998 -0.972 0.017 84.332
13350 0.019 84.636 0.998 -1.062 0.998 -1.062 0.019 84.636
13400 0.02 84.879 0.998 -1.15 0.998 -1.15 0.02 84.879
13450 0.022 85.073 0.998 -1.239 0.998 -1.239 0.022 85.073
13500 0.023 85.229 0.998 -1.327 0.998 -1.327 0.023 85.229
13550 0.025 85.355 0.998 -1.415 0.998 -1.415 0.025 85.355
13600 0.026 85.455 0.998 -1.503 0.998 -1.503 0.026 85.455
13650 0.028 85.534 0.998 -1.59 0.998 -1.59 0.028 85.534
13700 0.029 85.596 0.998 -1.677 0.998 -1.677 0.029 85.596
13750 0.031 85.643 0.998 -1.764 0.998 -1.764 0.031 85.643
13800 0.032 85.678 0.998 -1.851 0.998 -1.851 0.032 85.678
13850 0.034 85.701 0.998 -1.937 0.998 -1.937 0.034 85.701
13900 0.035 85.715 0.998 -2.023 0.998 -2.023 0.035 85.715
13950 0.037 85.721 0.998 -2.108 0.998 -2.108 0.037 85.721
14000 0.038 85.72 0.998 -2.194 0.998 -2.194 0.038 85.72
14050 0.04 85.713 0.998 -2.279 0.998 -2.279 0.04 85.713
14100 0.041 85.7 0.998 -2.363 0.998 -2.363 0.041 85.7
14150 0.043 85.682 0.998 -2.448 0.998 -2.448 0.043 85.682
14200 0.044 85.66 0.998 -2.532 0.998 -2.532 0.044 85.66
14250 0.046 85.634 0.998 -2.616 0.998 -2.616 0.046 85.634
14300 0.047 85.604 0.997 -2.699 0.997 -2.699 0.047 85.604
14350 0.049 85.572 0.997 -2.783 0.997 -2.783 0.049 85.572
14400 0.05 85.536 0.997 -2.866 0.997 -2.866 0.05 85.536
14450 0.051 85.498 0.997 -2.949 0.997 -2.949 0.051 85.498
14500 0.053 85.458 0.997 -3.031 0.997 -3.031 0.053 85.458
14550 0.054 85.415 0.997 -3.114 0.997 -3.114 0.054 85.415
14600 0.056 85.371 0.997 -3.196 0.997 -3.196 0.056 85.371
14650 0.057 85.325 0.997 -3.277 0.997 -3.277 0.057 85.325
14700 0.059 85.277 0.997 -3.359 0.997 -3.359 0.059 85.277
14750 0.06 85.228 0.997 -3.44 0.997 -3.44 0.06 85.228
14800 0.061 85.177 0.997 -3.521 0.997 -3.521 0.061 85.177
14850 0.063 85.126 0.997 -3.602 0.997 -3.602 0.063 85.126
14900 0.064 85.073 0.997 -3.682 0.997 -3.682 0.064 85.073
14950 0.066 85.019 0.996 -3.763 0.996 -3.763 0.066 85.019
15000 0.067 84.964 0.996 -3.843 0.996 -3.843 0.067 84.964
15050 0.068 84.908 0.996 -3.923 0.996 -3.923 0.068 84.908
15100 0.07 84.852 0.996 -4.002 0.996 -4.002 0.07 84.852
15150 0.071 84.795 0.996 -4.081 0.996 -4.081 0.071 84.795
15200 0.073 84.737 0.996 -4.161 0.996 -4.161 0.073 84.737
15250 0.074 84.679 0.996 -4.239 0.996 -4.239 0.074 84.679
15300 0.075 84.619 0.996 -4.318 0.996 -4.318 0.075 84.619
15350 0.077 84.56 0.996 -4.396 0.996 -4.396 0.077 84.56
15400 0.078 84.5 0.996 -4.475 0.996 -4.475 0.078 84.5
15450 0.079 84.439 0.995 -4.553 0.995 -4.553 0.079 84.439
15500 0.081 84.378 0.995 -4.63 0.995 -4.63 0.081 84.378
15550 0.082 84.317 0.995 -4.708 0.995 -4.708 0.082 84.317
15600 0.083 84.255 0.995 -4.785 0.995 -4.785 0.083 84.255
15650 0.085 84.193 0.995 -4.862 0.995 -4.862 0.085 84.193
15700 0.086 84.131 0.995 -4.939 0.995 -4.939 0.086 84.131
15750 0.087 84.069 0.995 -5.016 0.995 -5.016 0.087 84.069
15800 0.089 84.006 0.995 -5.092 0.995 -5.092 0.089 84.006
15850 0.09 83.943 0.995 -5.168 0.995 -5.168 0.09 83.943
15900 0.091 83.879 0.994 -5.244 0.994 -5.244 0.091 83.879
15950 0.093 83.816 0.994 -5.32 0.994 -5.32 0.093 83.816
16000 0.094 83.752 0.994 -5.396 0.994 -5.396 0.094 83.752
16050 0.095 83.689 0.994 -5.471 0.994 -5.471 0.095 83.689
16100 0.097 83.625 0.994 -5.547 0.994 -5.547 0.097 83.625
16150 0.098 83.561 0.994 -5.622 0.994 -5.622 0.098 83.561
16200 0.099 83.496 0.994 -5.696 0.994 -5.696 0.099 83.496
16250 0.101 83.432 0.994 -5.771 0.994 -5.771 0.101 83.432
16300 0.102 83.368 0.993 -5.845 0.993 -5.845 0.102 83.368
16350 0.103 83.303 0.993 -5.92 0.993 -5.92 0.103 83.303
16400 0.104 83.239 0.993 -5.994 0.993 -5.994 0.104 83.239
16450 0.106 83.174 0.993 -6.068 0.993 -6.068 0.106 83.174
16500 0.107 83.109 0.993 -6.141 0.993 -6.141 0.107 83.109
16550 0.108 83.045 0.993 -6.215 0.993 -6.215 0.108 83.045
16600 0.11 82.98 0.993 -6.288 0.993 -6.288 0.11 82.98
16650 0.111 82.915 0.992 -6.361 0.992 -6.361 0.111 82.915
16700 0.112 82.85 0.992 -6.434 0.992 -6.434 0.112 82.85
16750 0.113 82.785 0.992 -6.507 0.992 -6.507 0.113 82.785
16800 0.115 82.721 0.992 -6.579 0.992 -6.579 0.115 82.721
16850 0.116 82.656 0.992 -6.652 0.992 -6.652 0.116 82.656
16900 0.117 82.591 0.992 -6.724 0.992 -6.724 0.117 82.591
16950 0.118 82.526 0.992 -6.796 0.992 -6.796 0.118 82.526
17000 0.12 82.461 0.991 -6.868 0.991 -6.868 0.12 82.461
17050 0.121 82.396 0.991 -6.94 0.991 -6.94 0.121 82.396
17100 0.122 82.331 0.991 -7.011 0.991 -7.011 0.122 82.331
