!	AVX	Thin	Film	Operation	
!
!	Date:	March 2012		
!
!	Description: Ultra-Miniature 01005 Size ACCU - P® Thin Film RF / Microwave Capacitor
!
!	Part Number:  C005YK1R0ABSTR	
!								
!	Serial	Measurements						
!								
#	MHz	S	db	R	50			
!	S11	S21	S12	S22				
!	dB	Phase	dB	Phase	dB	Phase	dB	Phase
50	-4.61E-03	-1.799	-30.061	88.132	-30.061	88.132	-4.61E-03	-1.799
77.444	-0.011	-2.786	-26.267	87.14	-26.267	87.14	-0.011	-2.786
104.887	-0.02	-3.771	-23.641	86.149	-23.641	86.149	-0.02	-3.771
132.331	-0.031	-4.753	-21.633	85.161	-21.633	85.161	-0.031	-4.753
159.774	-0.045	-5.733	-20.009	84.175	-20.009	84.175	-0.045	-5.733
187.218	-0.061	-6.71	-18.648	83.192	-18.648	83.192	-0.061	-6.71
214.662	-0.08	-7.683	-17.478	82.213	-17.478	82.213	-0.08	-7.683
242.105	-0.102	-8.652	-16.453	81.238	-16.453	81.238	-0.102	-8.652
269.549	-0.126	-9.616	-15.543	80.268	-15.543	80.268	-0.126	-9.616
296.992	-0.152	-10.575	-14.726	79.303	-14.726	79.303	-0.152	-10.575
324.436	-0.181	-11.528	-13.986	78.343	-13.986	78.343	-0.181	-11.528
351.88	-0.212	-12.475	-13.31	77.39	-13.31	77.39	-0.212	-12.475
379.323	-0.245	-13.416	-12.689	76.443	-12.689	76.443	-0.245	-13.416
406.767	-0.281	-14.35	-12.116	75.503	-12.116	75.503	-0.281	-14.35
434.211	-0.319	-15.276	-11.585	74.571	-11.585	74.571	-0.319	-15.276
461.654	-0.359	-16.195	-11.091	73.646	-11.091	73.646	-0.359	-16.195
489.098	-0.401	-17.106	-10.629	72.729	-10.629	72.729	-0.401	-17.106
516.541	-0.445	-18.009	-10.196	71.821	-10.196	71.821	-0.445	-18.009
543.985	-0.491	-18.902	-9.79	70.921	-9.79	70.921	-0.491	-18.902
571.429	-0.539	-19.787	-9.408	70.03	-9.408	70.03	-0.539	-19.787
598.872	-0.588	-20.663	-9.048	69.148	-9.048	69.148	-0.588	-20.663
626.316	-0.64	-21.53	-8.707	68.275	-8.707	68.275	-0.64	-21.53
653.759	-0.693	-22.386	-8.385	67.412	-8.385	67.412	-0.693	-22.386
681.203	-0.748	-23.233	-8.079	66.559	-8.079	66.559	-0.748	-23.233
708.647	-0.805	-24.071	-7.79	65.716	-7.79	65.716	-0.805	-24.071
736.09	-0.863	-24.897	-7.514	64.883	-7.514	64.883	-0.863	-24.897
763.534	-0.922	-25.714	-7.252	64.06	-7.252	64.06	-0.922	-25.714
790.977	-0.983	-26.521	-7.003	63.247	-7.003	63.247	-0.983	-26.521
818.421	-1.046	-27.316	-6.765	62.445	-6.765	62.445	-1.046	-27.316
845.865	-1.109	-28.102	-6.539	61.654	-6.539	61.654	-1.109	-28.102
873.308	-1.174	-28.877	-6.322	60.873	-6.322	60.873	-1.174	-28.877
900.752	-1.24	-29.641	-6.115	60.102	-6.115	60.102	-1.24	-29.641
928.195	-1.308	-30.394	-5.918	59.342	-5.918	59.342	-1.308	-30.394
955.639	-1.376	-31.137	-5.729	58.593	-5.729	58.593	-1.376	-31.137
983.083	-1.445	-31.87	-5.547	57.855	-5.547	57.855	-1.445	-31.87
1010.526	-1.516	-32.591	-5.374	57.127	-5.374	57.127	-1.516	-32.591
1037.97	-1.587	-33.302	-5.208	56.41	-5.208	56.41	-1.587	-33.302
1065.414	-1.659	-34.003	-5.048	55.703	-5.048	55.703	-1.659	-34.003
1092.857	-1.732	-34.693	-4.895	55.007	-4.895	55.007	-1.732	-34.693
1120.301	-1.806	-35.372	-4.748	54.321	-4.748	54.321	-1.806	-35.372
1147.744	-1.88	-36.041	-4.607	53.645	-4.607	53.645	-1.88	-36.041
1175.188	-1.955	-36.7	-4.471	52.98	-4.471	52.98	-1.955	-36.7
1202.632	-2.031	-37.349	-4.341	52.325	-4.341	52.325	-2.031	-37.349
1230.075	-2.107	-37.987	-4.216	51.681	-4.216	51.681	-2.107	-37.987
1257.519	-2.184	-38.615	-4.095	51.046	-4.095	51.046	-2.184	-38.615
1284.962	-2.262	-39.234	-3.979	50.421	-3.979	50.421	-2.262	-39.234
1312.406	-2.34	-39.843	-3.867	49.806	-3.867	49.806	-2.34	-39.843
1339.85	-2.418	-40.442	-3.759	49.201	-3.759	49.201	-2.418	-40.442
1367.293	-2.497	-41.031	-3.656	48.605	-3.656	48.605	-2.497	-41.031
1394.737	-2.576	-41.611	-3.556	48.018	-3.556	48.018	-2.576	-41.611
1422.18	-2.655	-42.182	-3.459	47.441	-3.459	47.441	-2.655	-42.182
1449.624	-2.735	-42.743	-3.366	46.873	-3.366	46.873	-2.735	-42.743
1477.068	-2.815	-43.295	-3.276	46.315	-3.276	46.315	-2.815	-43.295
1504.511	-2.896	-43.839	-3.19	45.765	-3.19	45.765	-2.896	-43.839
1531.955	-2.976	-44.373	-3.106	45.223	-3.106	45.223	-2.976	-44.373
1559.398	-3.057	-44.899	-3.025	44.691	-3.025	44.691	-3.057	-44.899
1586.842	-3.138	-45.417	-2.947	44.167	-2.947	44.167	-3.138	-45.417
1614.286	-3.219	-45.926	-2.872	43.651	-2.872	43.651	-3.219	-45.926
1641.729	-3.301	-46.427	-2.799	43.144	-2.799	43.144	-3.301	-46.427
1669.173	-3.382	-46.919	-2.729	42.645	-2.729	42.645	-3.382	-46.919
1696.617	-3.464	-47.404	-2.66	42.153	-2.66	42.153	-3.464	-47.404
1724.06	-3.545	-47.881	-2.595	41.67	-2.595	41.67	-3.545	-47.881
1751.504	-3.627	-48.35	-2.531	41.194	-2.531	41.194	-3.627	-48.35
1778.947	-3.709	-48.812	-2.469	40.725	-2.469	40.725	-3.709	-48.812
1806.391	-3.791	-49.266	-2.409	40.265	-2.409	40.265	-3.791	-49.266
1833.835	-3.873	-49.713	-2.351	39.811	-2.351	39.811	-3.873	-49.713
1861.278	-3.954	-50.153	-2.295	39.364	-2.295	39.364	-3.954	-50.153
1888.722	-4.036	-50.585	-2.241	38.925	-2.241	38.925	-4.036	-50.585
1916.165	-4.118	-51.011	-2.188	38.492	-2.188	38.492	-4.118	-51.011
1943.609	-4.2	-51.43	-2.137	38.066	-2.137	38.066	-4.2	-51.43
1971.053	-4.282	-51.843	-2.088	37.647	-2.088	37.647	-4.282	-51.843
1998.496	-4.363	-52.249	-2.04	37.234	-2.04	37.234	-4.363	-52.249
2025.94	-4.445	-52.648	-1.993	36.828	-1.993	36.828	-4.445	-52.648
2053.383	-4.527	-53.041	-1.948	36.428	-1.948	36.428	-4.527	-53.041
2080.827	-4.608	-53.429	-1.904	36.034	-1.904	36.034	-4.608	-53.429
2108.271	-4.69	-53.81	-1.862	35.645	-1.862	35.645	-4.69	-53.81
2135.714	-4.771	-54.185	-1.82	35.263	-1.82	35.263	-4.771	-54.185
2163.158	-4.852	-54.554	-1.78	34.887	-1.78	34.887	-4.852	-54.554
2190.602	-4.933	-54.918	-1.741	34.516	-1.741	34.516	-4.933	-54.918
2218.045	-5.014	-55.276	-1.703	34.151	-1.703	34.151	-5.014	-55.276
2245.489	-5.095	-55.629	-1.666	33.791	-1.666	33.791	-5.095	-55.629
2272.932	-5.176	-55.976	-1.631	33.437	-1.631	33.437	-5.176	-55.976
2300.376	-5.257	-56.318	-1.596	33.088	-1.596	33.088	-5.257	-56.318
2327.82	-5.338	-56.655	-1.562	32.744	-1.562	32.744	-5.338	-56.655
2355.263	-5.418	-56.987	-1.529	32.405	-1.529	32.405	-5.418	-56.987
2382.707	-5.498	-57.313	-1.497	32.07	-1.497	32.07	-5.498	-57.313
2410.15	-5.578	-57.635	-1.466	31.741	-1.466	31.741	-5.578	-57.635
2437.594	-5.658	-57.953	-1.436	31.417	-1.436	31.417	-5.658	-57.953
2465.038	-5.738	-58.265	-1.406	31.097	-1.406	31.097	-5.738	-58.265
2492.481	-5.818	-58.573	-1.377	30.781	-1.377	30.781	-5.818	-58.573
2519.925	-5.898	-58.877	-1.349	30.47	-1.349	30.47	-5.898	-58.877
2547.368	-5.977	-59.176	-1.322	30.164	-1.322	30.164	-5.977	-59.176
2574.812	-6.056	-59.471	-1.296	29.862	-1.296	29.862	-6.056	-59.471
2602.256	-6.136	-59.761	-1.27	29.563	-1.27	29.563	-6.136	-59.761
2629.699	-6.215	-60.048	-1.245	29.27	-1.245	29.27	-6.215	-60.048
2657.143	-6.294	-60.33	-1.22	28.98	-1.22	28.98	-6.294	-60.33
2684.586	-6.372	-60.608	-1.196	28.694	-1.196	28.694	-6.372	-60.608
2712.03	-6.451	-60.883	-1.173	28.412	-1.173	28.412	-6.451	-60.883
2739.474	-6.529	-61.153	-1.15	28.133	-1.15	28.133	-6.529	-61.153
2766.917	-6.608	-61.42	-1.128	27.859	-1.128	27.859	-6.608	-61.42
2794.361	-6.686	-61.683	-1.106	27.588	-1.106	27.588	-6.686	-61.683
2821.805	-6.764	-61.943	-1.085	27.321	-1.085	27.321	-6.764	-61.943
2849.248	-6.841	-62.199	-1.065	27.057	-1.065	27.057	-6.841	-62.199
2876.692	-6.919	-62.451	-1.045	26.796	-1.045	26.796	-6.919	-62.451
2904.135	-6.997	-62.7	-1.025	26.539	-1.025	26.539	-6.997	-62.7
2931.579	-7.074	-62.946	-1.006	26.286	-1.006	26.286	-7.074	-62.946
2959.023	-7.151	-63.188	-0.987	26.035	-0.987	26.035	-7.151	-63.188
2986.466	-7.228	-63.427	-0.969	25.788	-0.969	25.788	-7.228	-63.427
3013.91	-7.305	-63.663	-0.951	25.544	-0.951	25.544	-7.305	-63.663
3041.353	-7.382	-63.896	-0.934	25.303	-0.934	25.303	-7.382	-63.896
3068.797	-7.459	-64.126	-0.917	25.065	-0.917	25.065	-7.459	-64.126
3096.241	-7.536	-64.353	-0.9	24.83	-0.9	24.83	-7.536	-64.353
3123.684	-7.612	-64.577	-0.884	24.598	-0.884	24.598	-7.612	-64.577
3151.128	-7.688	-64.798	-0.868	24.369	-0.868	24.369	-7.688	-64.798
3178.571	-7.764	-65.016	-0.852	24.142	-0.852	24.142	-7.764	-65.016
3206.015	-7.841	-65.231	-0.837	23.919	-0.837	23.919	-7.841	-65.231
3233.459	-7.916	-65.444	-0.822	23.698	-0.822	23.698	-7.916	-65.444
3260.902	-7.992	-65.653	-0.808	23.479	-0.808	23.479	-7.992	-65.653
3288.346	-8.068	-65.861	-0.794	23.263	-0.794	23.263	-8.068	-65.861
3315.789	-8.143	-66.065	-0.78	23.05	-0.78	23.05	-8.143	-66.065
3343.233	-8.219	-66.268	-0.766	22.839	-0.766	22.839	-8.219	-66.268
3370.677	-8.294	-66.467	-0.753	22.631	-0.753	22.631	-8.294	-66.467
3398.12	-8.37	-66.664	-0.74	22.425	-0.74	22.425	-8.37	-66.664
3425.564	-8.445	-66.859	-0.727	22.222	-0.727	22.222	-8.445	-66.859
3453.008	-8.52	-67.051	-0.715	22.021	-0.715	22.021	-8.52	-67.051
3480.451	-8.595	-67.241	-0.703	21.822	-0.703	21.822	-8.595	-67.241
3507.895	-8.669	-67.429	-0.691	21.625	-0.691	21.625	-8.669	-67.429
3535.338	-8.744	-67.615	-0.679	21.43	-0.679	21.43	-8.744	-67.615
3562.782	-8.819	-67.798	-0.668	21.238	-0.668	21.238	-8.819	-67.798
3590.226	-8.893	-67.979	-0.657	21.048	-0.657	21.048	-8.893	-67.979
3617.669	-8.968	-68.158	-0.646	20.86	-0.646	20.86	-8.968	-68.158
3645.113	-9.042	-68.335	-0.635	20.674	-0.635	20.674	-9.042	-68.335
3672.556	-9.116	-68.509	-0.625	20.49	-0.625	20.49	-9.116	-68.509
3700	-9.191	-68.682	-0.614	20.308	-0.614	20.308	-9.191	-68.682
3727.444	-9.265	-68.853	-0.604	20.128	-0.604	20.128	-9.265	-68.853
3754.887	-9.339	-69.022	-0.594	19.949	-0.594	19.949	-9.339	-69.022
3782.331	-9.413	-69.188	-0.585	19.773	-0.585	19.773	-9.413	-69.188
3809.774	-9.487	-69.353	-0.575	19.599	-0.575	19.599	-9.487	-69.353
3837.218	-9.56	-69.516	-0.566	19.426	-0.566	19.426	-9.56	-69.516
3864.662	-9.634	-69.677	-0.557	19.255	-0.557	19.255	-9.634	-69.677
3892.105	-9.708	-69.837	-0.548	19.086	-0.548	19.086	-9.708	-69.837
3919.549	-9.782	-69.994	-0.539	18.918	-0.539	18.918	-9.782	-69.994
3946.992	-9.855	-70.15	-0.53	18.753	-0.53	18.753	-9.855	-70.15
3974.436	-9.929	-70.304	-0.522	18.589	-0.522	18.589	-9.929	-70.304
4001.88	-10.002	-70.457	-0.514	18.426	-0.514	18.426	-10.002	-70.457
4029.323	-10.076	-70.607	-0.506	18.265	-0.506	18.265	-10.076	-70.607
4056.767	-10.149	-70.756	-0.498	18.106	-0.498	18.106	-10.149	-70.756
4084.211	-10.223	-70.904	-0.49	17.948	-0.49	17.948	-10.223	-70.904
4111.654	-10.296	-71.049	-0.482	17.792	-0.482	17.792	-10.296	-71.049
4139.098	-10.369	-71.193	-0.475	17.638	-0.475	17.638	-10.369	-71.193
4166.541	-10.443	-71.336	-0.467	17.485	-0.467	17.485	-10.443	-71.336
4193.985	-10.516	-71.477	-0.46	17.333	-0.46	17.333	-10.516	-71.477
4221.429	-10.589	-71.617	-0.453	17.183	-0.453	17.183	-10.589	-71.617
4248.872	-10.663	-71.755	-0.446	17.034	-0.446	17.034	-10.663	-71.755
4276.316	-10.736	-71.891	-0.439	16.886	-0.439	16.886	-10.736	-71.891
4303.759	-10.809	-72.027	-0.433	16.74	-0.433	16.74	-10.809	-72.027
4331.203	-10.882	-72.16	-0.426	16.596	-0.426	16.596	-10.882	-72.16
4358.647	-10.956	-72.292	-0.42	16.452	-0.42	16.452	-10.956	-72.292
4386.09	-11.029	-72.423	-0.413	16.31	-0.413	16.31	-11.029	-72.423
4413.534	-11.102	-72.553	-0.407	16.169	-0.407	16.169	-11.102	-72.553
4440.977	-11.175	-72.681	-0.401	16.03	-0.401	16.03	-11.175	-72.681
4468.421	-11.249	-72.808	-0.395	15.891	-0.395	15.891	-11.249	-72.808
4495.865	-11.322	-72.933	-0.389	15.754	-0.389	15.754	-11.322	-72.933
4523.308	-11.395	-73.058	-0.383	15.619	-0.383	15.619	-11.395	-73.058
4550.752	-11.468	-73.181	-0.377	15.484	-0.377	15.484	-11.468	-73.181
4578.195	-11.542	-73.302	-0.372	15.35	-0.372	15.35	-11.542	-73.302
4605.639	-11.615	-73.423	-0.366	15.218	-0.366	15.218	-11.615	-73.423
4633.083	-11.689	-73.542	-0.361	15.087	-0.361	15.087	-11.689	-73.542
4660.526	-11.762	-73.66	-0.356	14.957	-0.356	14.957	-11.762	-73.66
4687.97	-11.836	-73.776	-0.35	14.828	-0.35	14.828	-11.836	-73.776
4715.414	-11.909	-73.892	-0.345	14.7	-0.345	14.7	-11.909	-73.892
4742.857	-11.983	-74.006	-0.34	14.573	-0.34	14.573	-11.983	-74.006
4770.301	-12.056	-74.12	-0.335	14.447	-0.335	14.447	-12.056	-74.12
4797.744	-12.13	-74.232	-0.33	14.322	-0.33	14.322	-12.13	-74.232
4825.188	-12.204	-74.343	-0.326	14.199	-0.326	14.199	-12.204	-74.343
4852.632	-12.278	-74.452	-0.321	14.076	-0.321	14.076	-12.278	-74.452
4880.075	-12.351	-74.561	-0.316	13.954	-0.316	13.954	-12.351	-74.561
4907.519	-12.425	-74.669	-0.312	13.833	-0.312	13.833	-12.425	-74.669
4934.962	-12.499	-74.775	-0.307	13.714	-0.307	13.714	-12.499	-74.775
4962.406	-12.574	-74.881	-0.303	13.595	-0.303	13.595	-12.574	-74.881
4989.85	-12.648	-74.985	-0.299	13.477	-0.299	13.477	-12.648	-74.985
5017.293	-12.722	-75.088	-0.294	13.36	-0.294	13.36	-12.722	-75.088
5044.737	-12.796	-75.191	-0.29	13.244	-0.29	13.244	-12.796	-75.191
5072.18	-12.871	-75.292	-0.286	13.129	-0.286	13.129	-12.871	-75.292
5099.624	-12.945	-75.392	-0.282	13.014	-0.282	13.014	-12.945	-75.392
5127.068	-13.02	-75.491	-0.278	12.901	-0.278	12.901	-13.02	-75.491
5154.511	-13.095	-75.59	-0.274	12.788	-0.274	12.788	-13.095	-75.59
5181.955	-13.17	-75.687	-0.27	12.677	-0.27	12.677	-13.17	-75.687
5209.398	-13.245	-75.783	-0.267	12.566	-0.267	12.566	-13.245	-75.783
5236.842	-13.32	-75.878	-0.263	12.456	-0.263	12.456	-13.32	-75.878
5264.286	-13.395	-75.973	-0.259	12.346	-0.259	12.346	-13.395	-75.973
5291.729	-13.471	-76.066	-0.256	12.238	-0.256	12.238	-13.471	-76.066
5319.173	-13.546	-76.159	-0.252	12.13	-0.252	12.13	-13.546	-76.159
5346.617	-13.622	-76.25	-0.249	12.024	-0.249	12.024	-13.622	-76.25
5374.06	-13.698	-76.341	-0.245	11.917	-0.245	11.917	-13.698	-76.341
5401.504	-13.773	-76.43	-0.242	11.812	-0.242	11.812	-13.773	-76.43
5428.947	-13.85	-76.519	-0.239	11.707	-0.239	11.707	-13.85	-76.519
5456.391	-13.926	-76.607	-0.235	11.604	-0.235	11.604	-13.926	-76.607
5483.835	-14.002	-76.694	-0.232	11.501	-0.232	11.501	-14.002	-76.694
5511.278	-14.079	-76.78	-0.229	11.398	-0.229	11.398	-14.079	-76.78
5538.722	-14.156	-76.865	-0.226	11.296	-0.226	11.296	-14.156	-76.865
5566.165	-14.232	-76.949	-0.223	11.195	-0.223	11.195	-14.232	-76.949
5593.609	-14.31	-77.033	-0.22	11.095	-0.22	11.095	-14.31	-77.033
5621.053	-14.387	-77.115	-0.217	10.995	-0.217	10.995	-14.387	-77.115
5648.496	-14.464	-77.197	-0.214	10.897	-0.214	10.897	-14.464	-77.197
5675.94	-14.542	-77.278	-0.211	10.798	-0.211	10.798	-14.542	-77.278
5703.383	-14.62	-77.358	-0.208	10.701	-0.208	10.701	-14.62	-77.358
5730.827	-14.698	-77.437	-0.205	10.604	-0.205	10.604	-14.698	-77.437
5758.271	-14.776	-77.515	-0.203	10.507	-0.203	10.507	-14.776	-77.515
5785.714	-14.855	-77.592	-0.2	10.412	-0.2	10.412	-14.855	-77.592
5813.158	-14.933	-77.669	-0.197	10.317	-0.197	10.317	-14.933	-77.669
5840.602	-15.012	-77.745	-0.195	10.222	-0.195	10.222	-15.012	-77.745
5868.045	-15.092	-77.819	-0.192	10.128	-0.192	10.128	-15.092	-77.819
5895.489	-15.171	-77.894	-0.19	10.035	-0.19	10.035	-15.171	-77.894
5922.932	-15.251	-77.967	-0.187	9.942	-0.187	9.942	-15.251	-77.967
5950.376	-15.331	-78.039	-0.185	9.85	-0.185	9.85	-15.331	-78.039
5977.82	-15.411	-78.111	-0.182	9.759	-0.182	9.759	-15.411	-78.111
6005.263	-15.491	-78.182	-0.18	9.668	-0.18	9.668	-15.491	-78.182
6032.707	-15.572	-78.252	-0.178	9.577	-0.178	9.577	-15.572	-78.252
6060.15	-15.653	-78.321	-0.175	9.488	-0.175	9.488	-15.653	-78.321
6087.594	-15.734	-78.389	-0.173	9.398	-0.173	9.398	-15.734	-78.389
6115.038	-15.816	-78.457	-0.171	9.31	-0.171	9.31	-15.816	-78.457
6142.481	-15.897	-78.523	-0.169	9.221	-0.169	9.221	-15.897	-78.523
6169.925	-15.98	-78.589	-0.167	9.134	-0.167	9.134	-15.98	-78.589
6197.368	-16.062	-78.654	-0.164	9.047	-0.164	9.047	-16.062	-78.654
6224.812	-16.145	-78.719	-0.162	8.96	-0.162	8.96	-16.145	-78.719
6252.256	-16.228	-78.782	-0.16	8.874	-0.16	8.874	-16.228	-78.782
6279.699	-16.311	-78.845	-0.158	8.788	-0.158	8.788	-16.311	-78.845
6307.143	-16.395	-78.907	-0.156	8.703	-0.156	8.703	-16.395	-78.907
6334.586	-16.479	-78.968	-0.154	8.618	-0.154	8.618	-16.479	-78.968
6362.03	-16.563	-79.028	-0.152	8.534	-0.152	8.534	-16.563	-79.028
6389.474	-16.648	-79.087	-0.15	8.451	-0.15	8.451	-16.648	-79.087
6416.917	-16.733	-79.146	-0.149	8.368	-0.149	8.368	-16.733	-79.146
6444.361	-16.819	-79.204	-0.147	8.285	-0.147	8.285	-16.819	-79.204
6471.805	-16.905	-79.261	-0.145	8.203	-0.145	8.203	-16.905	-79.261
6499.248	-16.991	-79.317	-0.143	8.121	-0.143	8.121	-16.991	-79.317
6526.692	-17.078	-79.372	-0.141	8.04	-0.141	8.04	-17.078	-79.372
6554.135	-17.165	-79.427	-0.14	7.959	-0.14	7.959	-17.165	-79.427
6581.579	-17.252	-79.481	-0.138	7.878	-0.138	7.878	-17.252	-79.481
6609.023	-17.34	-79.533	-0.136	7.798	-0.136	7.798	-17.34	-79.533
6636.466	-17.428	-79.585	-0.135	7.719	-0.135	7.719	-17.428	-79.585
6663.91	-17.517	-79.637	-0.133	7.64	-0.133	7.64	-17.517	-79.637
6691.353	-17.606	-79.687	-0.131	7.561	-0.131	7.561	-17.606	-79.687
6718.797	-17.696	-79.736	-0.13	7.483	-0.13	7.483	-17.696	-79.736
6746.241	-17.786	-79.785	-0.128	7.405	-0.128	7.405	-17.786	-79.785
6773.684	-17.877	-79.832	-0.127	7.327	-0.127	7.327	-17.877	-79.832
6801.128	-17.968	-79.879	-0.125	7.25	-0.125	7.25	-17.968	-79.879
6828.571	-18.059	-79.925	-0.124	7.173	-0.124	7.173	-18.059	-79.925
6856.015	-18.152	-79.97	-0.122	7.097	-0.122	7.097	-18.152	-79.97
6883.459	-18.244	-80.014	-0.121	7.021	-0.121	7.021	-18.244	-80.014
6910.902	-18.337	-80.058	-0.12	6.946	-0.12	6.946	-18.337	-80.058
6938.346	-18.431	-80.1	-0.118	6.871	-0.118	6.871	-18.431	-80.1
6965.789	-18.525	-80.141	-0.117	6.796	-0.117	6.796	-18.525	-80.141
6993.233	-18.62	-80.182	-0.115	6.722	-0.115	6.722	-18.62	-80.182
7020.677	-18.715	-80.221	-0.114	6.648	-0.114	6.648	-18.715	-80.221
7048.12	-18.811	-80.26	-0.113	6.574	-0.113	6.574	-18.811	-80.26
7075.564	-18.908	-80.297	-0.112	6.501	-0.112	6.501	-18.908	-80.297
7103.008	-19.005	-80.334	-0.11	6.428	-0.11	6.428	-19.005	-80.334
7130.451	-19.103	-80.37	-0.109	6.355	-0.109	6.355	-19.103	-80.37
7157.895	-19.202	-80.404	-0.108	6.283	-0.108	6.283	-19.202	-80.404
7185.338	-19.301	-80.438	-0.107	6.211	-0.107	6.211	-19.301	-80.438
7212.782	-19.401	-80.47	-0.105	6.14	-0.105	6.14	-19.401	-80.47
7240.226	-19.501	-80.501	-0.104	6.069	-0.104	6.069	-19.501	-80.501
7267.669	-19.602	-80.532	-0.103	5.998	-0.103	5.998	-19.602	-80.532
7295.113	-19.704	-80.561	-0.102	5.928	-0.102	5.928	-19.704	-80.561
7322.556	-19.807	-80.589	-0.101	5.857	-0.101	5.857	-19.807	-80.589
7350	-19.91	-80.616	-0.1	5.788	-0.1	5.788	-19.91	-80.616
7377.444	-20.014	-80.642	-0.099	5.718	-0.099	5.718	-20.014	-80.642
7404.887	-20.119	-80.667	-0.098	5.649	-0.098	5.649	-20.119	-80.667
7432.331	-20.225	-80.69	-0.097	5.58	-0.097	5.58	-20.225	-80.69
7459.774	-20.332	-80.712	-0.096	5.512	-0.096	5.512	-20.332	-80.712
7487.218	-20.439	-80.733	-0.095	5.443	-0.095	5.443	-20.439	-80.733
7514.662	-20.547	-80.753	-0.094	5.375	-0.094	5.375	-20.547	-80.753
7542.105	-20.656	-80.771	-0.093	5.308	-0.093	5.308	-20.656	-80.771
7569.549	-20.766	-80.788	-0.092	5.24	-0.092	5.24	-20.766	-80.788
7596.992	-20.877	-80.804	-0.091	5.173	-0.091	5.173	-20.877	-80.804
7624.436	-20.989	-80.818	-0.09	5.107	-0.09	5.107	-20.989	-80.818
7651.88	-21.102	-80.831	-0.089	5.04	-0.089	5.04	-21.102	-80.831
7679.323	-21.216	-80.842	-0.088	4.974	-0.088	4.974	-21.216	-80.842
7706.767	-21.331	-80.852	-0.087	4.908	-0.087	4.908	-21.331	-80.852
7734.211	-21.447	-80.861	-0.087	4.843	-0.087	4.843	-21.447	-80.861
7761.654	-21.564	-80.867	-0.086	4.777	-0.086	4.777	-21.564	-80.867
7789.098	-21.682	-80.872	-0.085	4.712	-0.085	4.712	-21.682	-80.872
7816.541	-21.801	-80.876	-0.084	4.648	-0.084	4.648	-21.801	-80.876
7843.985	-21.921	-80.877	-0.083	4.583	-0.083	4.583	-21.921	-80.877
7871.429	-22.043	-80.877	-0.082	4.519	-0.082	4.519	-22.043	-80.877
7898.872	-22.166	-80.875	-0.082	4.455	-0.082	4.455	-22.166	-80.875
7926.316	-22.29	-80.872	-0.081	4.391	-0.081	4.391	-22.29	-80.872
7953.759	-22.415	-80.866	-0.08	4.328	-0.08	4.328	-22.415	-80.866
7981.203	-22.541	-80.858	-0.08	4.265	-0.08	4.265	-22.541	-80.858
8008.647	-22.669	-80.848	-0.079	4.202	-0.079	4.202	-22.669	-80.848
8036.09	-22.799	-80.836	-0.078	4.139	-0.078	4.139	-22.799	-80.836
8063.534	-22.929	-80.822	-0.077	4.077	-0.077	4.077	-22.929	-80.822
8090.977	-23.061	-80.806	-0.077	4.015	-0.077	4.015	-23.061	-80.806
8118.421	-23.195	-80.787	-0.076	3.953	-0.076	3.953	-23.195	-80.787
8145.865	-23.33	-80.766	-0.075	3.891	-0.075	3.891	-23.33	-80.766
