!	AVX	Thin	Film	Operation	
!
!	Date:	March 2012		
!
!	Description: Ultra-Miniature 01005 Size ACCU - P® Thin Film RF / Microwave Capacitor
!
!	Part Number:  C005YK1R5ABSTR	
!								
!	Serial	Measurements						
!								
#	MHz	S	db	R	50			
!	S11	S21	S12	S22				
!	dB	Phase	dB	Phase	dB	Phase	dB	Phase
50	-0.01	-2.698	-26.545	87.232	-26.545	87.232	-0.01	-2.698
74.937	-0.022	-4.04	-23.042	85.884	-23.042	85.884	-0.022	-4.04
99.875	-0.039	-5.377	-20.564	84.54	-20.564	84.54	-0.039	-5.377
124.812	-0.061	-6.709	-18.649	83.202	-18.649	83.202	-0.061	-6.709
149.749	-0.088	-8.034	-17.092	81.871	-17.092	81.871	-0.088	-8.034
174.687	-0.119	-9.351	-15.784	80.549	-15.784	80.549	-0.119	-9.351
199.624	-0.154	-10.658	-14.659	79.235	-14.659	79.235	-0.154	-10.658
224.561	-0.194	-11.954	-13.675	77.933	-13.675	77.933	-0.194	-11.954
249.499	-0.238	-13.238	-12.803	76.642	-12.803	76.642	-0.238	-13.238
274.436	-0.286	-14.509	-12.022	75.365	-12.022	75.365	-0.286	-14.509
299.373	-0.339	-15.767	-11.317	74.101	-11.317	74.101	-0.339	-15.767
324.311	-0.395	-17.009	-10.677	72.853	-10.677	72.853	-0.395	-17.009
349.248	-0.455	-18.236	-10.091	71.619	-10.091	71.619	-0.455	-18.236
374.185	-0.518	-19.447	-9.553	70.403	-9.553	70.403	-0.518	-19.447
399.123	-0.585	-20.64	-9.057	69.203	-9.057	69.203	-0.585	-20.64
424.06	-0.655	-21.815	-8.598	68.021	-8.598	68.021	-0.655	-21.815
448.997	-0.729	-22.973	-8.172	66.858	-8.172	66.858	-0.729	-22.973
473.935	-0.805	-24.111	-7.776	65.713	-7.776	65.713	-0.805	-24.111
498.872	-0.884	-25.231	-7.406	64.587	-7.406	64.587	-0.884	-25.231
523.81	-0.966	-26.331	-7.061	63.481	-7.061	63.481	-0.966	-26.331
548.747	-1.05	-27.411	-6.738	62.394	-6.738	62.394	-1.05	-27.411
573.684	-1.136	-28.472	-6.435	61.327	-6.435	61.327	-1.136	-28.472
598.622	-1.225	-29.512	-6.15	60.281	-6.15	60.281	-1.225	-29.512
623.559	-1.316	-30.533	-5.882	59.254	-5.882	59.254	-1.316	-30.533
648.496	-1.408	-31.533	-5.63	58.247	-5.63	58.247	-1.408	-31.533
673.434	-1.503	-32.513	-5.392	57.26	-5.392	57.26	-1.503	-32.513
698.371	-1.599	-33.474	-5.168	56.293	-5.168	56.293	-1.599	-33.474
723.308	-1.696	-34.415	-4.956	55.346	-4.956	55.346	-1.696	-34.415
748.246	-1.795	-35.336	-4.756	54.419	-4.756	54.419	-1.795	-35.336
773.183	-1.895	-36.237	-4.566	53.511	-4.566	53.511	-1.895	-36.237
798.12	-1.996	-37.119	-4.387	52.622	-4.387	52.622	-1.996	-37.119
823.058	-2.099	-37.982	-4.216	51.753	-4.216	51.753	-2.099	-37.982
847.995	-2.202	-38.827	-4.055	50.902	-4.055	50.902	-2.202	-38.827
872.932	-2.306	-39.653	-3.902	50.07	-3.902	50.07	-2.306	-39.653
897.87	-2.411	-40.46	-3.756	49.255	-3.756	49.255	-2.411	-40.46
922.807	-2.516	-41.25	-3.618	48.459	-3.618	48.459	-2.516	-41.25
947.744	-2.622	-42.022	-3.486	47.68	-3.486	47.68	-2.622	-42.022
972.682	-2.729	-42.777	-3.361	46.919	-3.361	46.919	-2.729	-42.777
997.619	-2.836	-43.515	-3.241	46.174	-3.241	46.174	-2.836	-43.515
1022.556	-2.943	-44.237	-3.127	45.446	-3.127	45.446	-2.943	-44.237
1047.494	-3.051	-44.942	-3.019	44.734	-3.019	44.734	-3.051	-44.942
1072.431	-3.158	-45.632	-2.915	44.038	-2.915	44.038	-3.158	-45.632
1097.368	-3.266	-46.306	-2.817	43.357	-2.817	43.357	-3.266	-46.306
1122.306	-3.375	-46.965	-2.722	42.692	-2.722	42.692	-3.375	-46.965
1147.243	-3.483	-47.609	-2.632	42.041	-2.632	42.041	-3.483	-47.609
1172.18	-3.591	-48.239	-2.546	41.404	-2.546	41.404	-3.591	-48.239
1197.118	-3.699	-48.855	-2.463	40.782	-2.463	40.782	-3.699	-48.855
1222.055	-3.807	-49.457	-2.385	40.173	-2.385	40.173	-3.807	-49.457
1246.992	-3.915	-50.045	-2.309	39.577	-2.309	39.577	-3.915	-50.045
1271.93	-4.023	-50.621	-2.237	38.995	-2.237	38.995	-4.023	-50.621
1296.867	-4.131	-51.184	-2.167	38.425	-2.167	38.425	-4.131	-51.184
1321.805	-4.239	-51.735	-2.101	37.868	-2.101	37.868	-4.239	-51.735
1346.742	-4.346	-52.274	-2.037	37.322	-2.037	37.322	-4.346	-52.274
1371.679	-4.453	-52.801	-1.976	36.788	-1.976	36.788	-4.453	-52.801
1396.617	-4.56	-53.316	-1.917	36.266	-1.917	36.266	-4.56	-53.316
1421.554	-4.667	-53.821	-1.86	35.754	-1.86	35.754	-4.667	-53.821
1446.491	-4.773	-54.314	-1.806	35.254	-1.806	35.254	-4.773	-54.314
1471.429	-4.879	-54.797	-1.754	34.764	-1.754	34.764	-4.879	-54.797
1496.366	-4.985	-55.27	-1.704	34.284	-1.704	34.284	-4.985	-55.27
1521.303	-5.09	-55.733	-1.656	33.814	-1.656	33.814	-5.09	-55.733
1546.241	-5.195	-56.186	-1.609	33.354	-1.609	33.354	-5.195	-56.186
1571.178	-5.3	-56.63	-1.565	32.903	-1.565	32.903	-5.3	-56.63
1596.115	-5.405	-57.065	-1.522	32.461	-1.522	32.461	-5.405	-57.065
1621.053	-5.509	-57.49	-1.48	32.029	-1.48	32.029	-5.509	-57.49
1645.99	-5.612	-57.907	-1.44	31.604	-1.44	31.604	-5.612	-57.907
1670.927	-5.715	-58.316	-1.402	31.189	-1.402	31.189	-5.715	-58.316
1695.865	-5.818	-58.716	-1.364	30.781	-1.364	30.781	-5.818	-58.716
1720.802	-5.921	-59.108	-1.328	30.382	-1.328	30.382	-5.921	-59.108
1745.739	-6.023	-59.493	-1.294	29.99	-1.294	29.99	-6.023	-59.493
1770.677	-6.125	-59.87	-1.26	29.606	-1.26	29.606	-6.125	-59.87
1795.614	-6.226	-60.239	-1.228	29.229	-1.228	29.229	-6.226	-60.239
1820.551	-6.327	-60.601	-1.197	28.86	-1.197	28.86	-6.327	-60.601
1845.489	-6.427	-60.957	-1.167	28.497	-1.167	28.497	-6.427	-60.957
1870.426	-6.527	-61.305	-1.138	28.141	-1.138	28.141	-6.527	-61.305
1895.363	-6.627	-61.647	-1.11	27.792	-1.11	27.792	-6.627	-61.647
1920.301	-6.726	-61.982	-1.082	27.449	-1.082	27.449	-6.726	-61.982
1945.238	-6.825	-62.311	-1.056	27.112	-1.056	27.112	-6.825	-62.311
1970.175	-6.924	-62.634	-1.03	26.782	-1.03	26.782	-6.924	-62.634
1995.113	-7.022	-62.951	-1.006	26.458	-1.006	26.458	-7.022	-62.951
2020.05	-7.12	-63.262	-0.982	26.139	-0.982	26.139	-7.12	-63.262
2044.987	-7.217	-63.568	-0.959	25.826	-0.959	25.826	-7.217	-63.568
2069.925	-7.314	-63.867	-0.936	25.518	-0.936	25.518	-7.314	-63.867
2094.862	-7.411	-64.162	-0.914	25.216	-0.914	25.216	-7.411	-64.162
2119.799	-7.507	-64.451	-0.893	24.919	-0.893	24.919	-7.507	-64.451
2144.737	-7.603	-64.735	-0.873	24.627	-0.873	24.627	-7.603	-64.735
2169.674	-7.698	-65.014	-0.853	24.34	-0.853	24.34	-7.698	-65.014
2194.612	-7.794	-65.289	-0.834	24.058	-0.834	24.058	-7.794	-65.289
2219.549	-7.888	-65.558	-0.815	23.78	-0.815	23.78	-7.888	-65.558
2244.486	-7.983	-65.823	-0.797	23.508	-0.797	23.508	-7.983	-65.823
2269.424	-8.077	-66.083	-0.779	23.239	-0.779	23.239	-8.077	-66.083
2294.361	-8.171	-66.339	-0.762	22.975	-0.762	22.975	-8.171	-66.339
2319.298	-8.264	-66.591	-0.745	22.715	-0.745	22.715	-8.264	-66.591
2344.236	-8.357	-66.838	-0.729	22.46	-0.729	22.46	-8.357	-66.838
2369.173	-8.45	-67.082	-0.714	22.208	-0.714	22.208	-8.45	-67.082
2394.11	-8.543	-67.321	-0.698	21.961	-0.698	21.961	-8.543	-67.321
2419.048	-8.635	-67.556	-0.683	21.717	-0.683	21.717	-8.635	-67.556
2443.985	-8.727	-67.788	-0.669	21.477	-0.669	21.477	-8.727	-67.788
2468.922	-8.818	-68.016	-0.655	21.241	-0.655	21.241	-8.818	-68.016
2493.86	-8.909	-68.24	-0.641	21.008	-0.641	21.008	-8.909	-68.24
2518.797	-9	-68.461	-0.628	20.779	-0.628	20.779	-9	-68.461
2543.734	-9.091	-68.678	-0.615	20.553	-0.615	20.553	-9.091	-68.678
2568.672	-9.182	-68.892	-0.602	20.331	-0.602	20.331	-9.182	-68.892
2593.609	-9.272	-69.102	-0.59	20.112	-0.59	20.112	-9.272	-69.102
2618.546	-9.362	-69.309	-0.578	19.896	-0.578	19.896	-9.362	-69.309
2643.484	-9.451	-69.513	-0.567	19.683	-0.567	19.683	-9.451	-69.513
2668.421	-9.541	-69.714	-0.555	19.473	-0.555	19.473	-9.541	-69.714
2693.358	-9.63	-69.912	-0.544	19.266	-0.544	19.266	-9.63	-69.912
2718.296	-9.719	-70.107	-0.533	19.063	-0.533	19.063	-9.719	-70.107
2743.233	-9.807	-70.299	-0.523	18.862	-0.523	18.862	-9.807	-70.299
2768.17	-9.896	-70.488	-0.513	18.663	-0.513	18.663	-9.896	-70.488
2793.108	-9.984	-70.675	-0.503	18.468	-0.503	18.468	-9.984	-70.675
2818.045	-10.072	-70.858	-0.493	18.275	-0.493	18.275	-10.072	-70.858
2842.982	-10.16	-71.039	-0.484	18.085	-0.484	18.085	-10.16	-71.039
2867.92	-10.247	-71.217	-0.474	17.897	-0.474	17.897	-10.247	-71.217
2892.857	-10.335	-71.393	-0.465	17.712	-0.465	17.712	-10.335	-71.393
2917.794	-10.422	-71.567	-0.456	17.529	-0.456	17.529	-10.422	-71.567
2942.732	-10.509	-71.737	-0.448	17.349	-0.448	17.349	-10.509	-71.737
2967.669	-10.596	-71.906	-0.439	17.171	-0.439	17.171	-10.596	-71.906
2992.607	-10.683	-72.072	-0.431	16.995	-0.431	16.995	-10.683	-72.072
3017.544	-10.769	-72.236	-0.423	16.822	-0.423	16.822	-10.769	-72.236
3042.481	-10.855	-72.397	-0.415	16.65	-0.415	16.65	-10.855	-72.397
3067.419	-10.942	-72.556	-0.408	16.481	-0.408	16.481	-10.942	-72.556
3092.356	-11.028	-72.713	-0.4	16.314	-0.4	16.314	-11.028	-72.713
3117.293	-11.113	-72.868	-0.393	16.149	-0.393	16.149	-11.113	-72.868
3142.231	-11.199	-73.021	-0.386	15.986	-0.386	15.986	-11.199	-73.021
3167.168	-11.285	-73.172	-0.379	15.825	-0.379	15.825	-11.285	-73.172
3192.105	-11.37	-73.321	-0.372	15.666	-0.372	15.666	-11.37	-73.321
3217.043	-11.456	-73.468	-0.365	15.509	-0.365	15.509	-11.456	-73.468
3241.98	-11.541	-73.613	-0.359	15.354	-0.359	15.354	-11.541	-73.613
3266.917	-11.626	-73.755	-0.352	15.2	-0.352	15.2	-11.626	-73.755
3291.855	-11.711	-73.897	-0.346	15.049	-0.346	15.049	-11.711	-73.897
3316.792	-11.796	-74.036	-0.34	14.899	-0.34	14.899	-11.796	-74.036
3341.729	-11.881	-74.173	-0.334	14.751	-0.334	14.751	-11.881	-74.173
3366.667	-11.966	-74.309	-0.328	14.604	-0.328	14.604	-11.966	-74.309
3391.604	-12.05	-74.443	-0.323	14.459	-0.323	14.459	-12.05	-74.443
3416.541	-12.135	-74.575	-0.317	14.316	-0.317	14.316	-12.135	-74.575
3441.479	-12.22	-74.705	-0.312	14.174	-0.312	14.174	-12.22	-74.705
3466.416	-12.304	-74.834	-0.306	14.034	-0.306	14.034	-12.304	-74.834
3491.353	-12.388	-74.962	-0.301	13.896	-0.301	13.896	-12.388	-74.962
3516.291	-12.473	-75.087	-0.296	13.759	-0.296	13.759	-12.473	-75.087
3541.228	-12.557	-75.211	-0.291	13.623	-0.291	13.623	-12.557	-75.211
3566.165	-12.641	-75.334	-0.286	13.489	-0.286	13.489	-12.641	-75.334
3591.103	-12.726	-75.455	-0.281	13.356	-0.281	13.356	-12.726	-75.455
3616.04	-12.81	-75.574	-0.276	13.225	-0.276	13.225	-12.81	-75.574
3640.977	-12.894	-75.692	-0.272	13.095	-0.272	13.095	-12.894	-75.692
3665.915	-12.978	-75.809	-0.267	12.966	-0.267	12.966	-12.978	-75.809
3690.852	-13.063	-75.924	-0.263	12.839	-0.263	12.839	-13.063	-75.924
3715.789	-13.147	-76.038	-0.258	12.713	-0.258	12.713	-13.147	-76.038
3740.727	-13.231	-76.15	-0.254	12.588	-0.254	12.588	-13.231	-76.15
3765.664	-13.315	-76.261	-0.25	12.465	-0.25	12.465	-13.315	-76.261
3790.602	-13.4	-76.371	-0.246	12.342	-0.246	12.342	-13.4	-76.371
3815.539	-13.484	-76.479	-0.242	12.221	-0.242	12.221	-13.484	-76.479
3840.476	-13.568	-76.586	-0.238	12.102	-0.238	12.102	-13.568	-76.586
3865.414	-13.652	-76.692	-0.234	11.983	-0.234	11.983	-13.652	-76.692
3890.351	-13.737	-76.796	-0.23	11.865	-0.23	11.865	-13.737	-76.796
3915.288	-13.821	-76.899	-0.227	11.749	-0.227	11.749	-13.821	-76.899
3940.226	-13.906	-77.001	-0.223	11.633	-0.223	11.633	-13.906	-77.001
3965.163	-13.99	-77.102	-0.219	11.519	-0.219	11.519	-13.99	-77.102
3990.1	-14.075	-77.201	-0.216	11.406	-0.216	11.406	-14.075	-77.201
4015.038	-14.159	-77.3	-0.213	11.294	-0.213	11.294	-14.159	-77.3
4039.975	-14.244	-77.397	-0.209	11.183	-0.209	11.183	-14.244	-77.397
4064.912	-14.329	-77.493	-0.206	11.073	-0.206	11.073	-14.329	-77.493
4089.85	-14.414	-77.588	-0.203	10.964	-0.203	10.964	-14.414	-77.588
4114.787	-14.499	-77.681	-0.199	10.855	-0.199	10.855	-14.499	-77.681
4139.724	-14.584	-77.774	-0.196	10.748	-0.196	10.748	-14.584	-77.774
4164.662	-14.669	-77.865	-0.193	10.642	-0.193	10.642	-14.669	-77.865
4189.599	-14.754	-77.956	-0.19	10.537	-0.19	10.537	-14.754	-77.956
4214.536	-14.84	-78.045	-0.187	10.432	-0.187	10.432	-14.84	-78.045
4239.474	-14.925	-78.133	-0.185	10.329	-0.185	10.329	-14.925	-78.133
4264.411	-15.011	-78.22	-0.182	10.226	-0.182	10.226	-15.011	-78.22
4289.348	-15.097	-78.306	-0.179	10.125	-0.179	10.125	-15.097	-78.306
4314.286	-15.183	-78.391	-0.176	10.024	-0.176	10.024	-15.183	-78.391
4339.223	-15.269	-78.475	-0.174	9.924	-0.174	9.924	-15.269	-78.475
4364.16	-15.355	-78.558	-0.171	9.825	-0.171	9.825	-15.355	-78.558
4389.098	-15.442	-78.64	-0.168	9.726	-0.168	9.726	-15.442	-78.64
4414.035	-15.528	-78.721	-0.166	9.629	-0.166	9.629	-15.528	-78.721
4438.972	-15.615	-78.801	-0.163	9.532	-0.163	9.532	-15.615	-78.801
4463.91	-15.702	-78.881	-0.161	9.436	-0.161	9.436	-15.702	-78.881
4488.847	-15.789	-78.959	-0.158	9.341	-0.158	9.341	-15.789	-78.959
4513.784	-15.877	-79.036	-0.156	9.246	-0.156	9.246	-15.877	-79.036
4538.722	-15.964	-79.112	-0.154	9.153	-0.154	9.153	-15.964	-79.112
4563.659	-16.052	-79.187	-0.152	9.06	-0.152	9.06	-16.052	-79.187
4588.596	-16.14	-79.261	-0.149	8.968	-0.149	8.968	-16.14	-79.261
4613.534	-16.229	-79.334	-0.147	8.876	-0.147	8.876	-16.229	-79.334
4638.471	-16.317	-79.407	-0.145	8.785	-0.145	8.785	-16.317	-79.407
4663.409	-16.406	-79.478	-0.143	8.695	-0.143	8.695	-16.406	-79.478
4688.346	-16.495	-79.549	-0.141	8.606	-0.141	8.606	-16.495	-79.549
4713.283	-16.584	-79.618	-0.139	8.517	-0.139	8.517	-16.584	-79.618
4738.221	-16.674	-79.687	-0.137	8.429	-0.137	8.429	-16.674	-79.687
4763.158	-16.764	-79.755	-0.135	8.341	-0.135	8.341	-16.764	-79.755
4788.095	-16.854	-79.821	-0.133	8.255	-0.133	8.255	-16.854	-79.821
4813.033	-16.944	-79.887	-0.131	8.168	-0.131	8.168	-16.944	-79.887
4837.97	-17.035	-79.952	-0.129	8.083	-0.129	8.083	-17.035	-79.952
4862.907	-17.126	-80.016	-0.127	7.998	-0.127	7.998	-17.126	-80.016
4887.845	-17.217	-80.08	-0.126	7.914	-0.126	7.914	-17.217	-80.08
4912.782	-17.309	-80.142	-0.124	7.83	-0.124	7.83	-17.309	-80.142
4937.719	-17.401	-80.203	-0.122	7.747	-0.122	7.747	-17.401	-80.203
4962.657	-17.493	-80.264	-0.12	7.664	-0.12	7.664	-17.493	-80.264
4987.594	-17.586	-80.323	-0.119	7.582	-0.119	7.582	-17.586	-80.323
5012.531	-17.679	-80.382	-0.117	7.501	-0.117	7.501	-17.679	-80.382
5037.469	-17.773	-80.44	-0.115	7.42	-0.115	7.42	-17.773	-80.44
5062.406	-17.867	-80.497	-0.114	7.34	-0.114	7.34	-17.867	-80.497
5087.343	-17.961	-80.553	-0.112	7.26	-0.112	7.26	-17.961	-80.553
5112.281	-18.056	-80.608	-0.111	7.181	-0.111	7.181	-18.056	-80.608
5137.218	-18.151	-80.662	-0.109	7.102	-0.109	7.102	-18.151	-80.662
5162.155	-18.246	-80.716	-0.108	7.024	-0.108	7.024	-18.246	-80.716
5187.093	-18.342	-80.768	-0.106	6.946	-0.106	6.946	-18.342	-80.768
5212.03	-18.439	-80.82	-0.105	6.869	-0.105	6.869	-18.439	-80.82
5236.967	-18.536	-80.87	-0.104	6.792	-0.104	6.792	-18.536	-80.87
5261.905	-18.633	-80.92	-0.102	6.716	-0.102	6.716	-18.633	-80.92
5286.842	-18.731	-80.969	-0.101	6.64	-0.101	6.64	-18.731	-80.969
5311.779	-18.829	-81.017	-0.099	6.565	-0.099	6.565	-18.829	-81.017
5336.717	-18.928	-81.064	-0.098	6.49	-0.098	6.49	-18.928	-81.064
5361.654	-19.027	-81.11	-0.097	6.416	-0.097	6.416	-19.027	-81.11
5386.591	-19.127	-81.155	-0.096	6.342	-0.096	6.342	-19.127	-81.155
5411.529	-19.228	-81.199	-0.094	6.269	-0.094	6.269	-19.228	-81.199
5436.466	-19.329	-81.242	-0.093	6.196	-0.093	6.196	-19.329	-81.242
5461.404	-19.43	-81.284	-0.092	6.123	-0.092	6.123	-19.43	-81.284
5486.341	-19.533	-81.326	-0.091	6.051	-0.091	6.051	-19.533	-81.326
5511.278	-19.635	-81.366	-0.09	5.98	-0.09	5.98	-19.635	-81.366
5536.216	-19.739	-81.405	-0.089	5.908	-0.089	5.908	-19.739	-81.405
5561.153	-19.843	-81.444	-0.087	5.838	-0.087	5.838	-19.843	-81.444
5586.09	-19.948	-81.481	-0.086	5.767	-0.086	5.767	-19.948	-81.481
5611.028	-20.053	-81.517	-0.085	5.697	-0.085	5.697	-20.053	-81.517
5635.965	-20.159	-81.552	-0.084	5.628	-0.084	5.628	-20.159	-81.552
5660.902	-20.266	-81.586	-0.083	5.559	-0.083	5.559	-20.266	-81.586
5685.84	-20.373	-81.619	-0.082	5.49	-0.082	5.49	-20.373	-81.619
5710.777	-20.481	-81.651	-0.081	5.422	-0.081	5.422	-20.481	-81.651
5735.714	-20.59	-81.682	-0.08	5.354	-0.08	5.354	-20.59	-81.682
5760.652	-20.7	-81.712	-0.079	5.286	-0.079	5.286	-20.7	-81.712
5785.589	-20.811	-81.741	-0.078	5.219	-0.078	5.219	-20.811	-81.741
5810.526	-20.922	-81.768	-0.077	5.152	-0.077	5.152	-20.922	-81.768
5835.464	-21.034	-81.795	-0.076	5.086	-0.076	5.086	-21.034	-81.795
5860.401	-21.147	-81.82	-0.076	5.02	-0.076	5.02	-21.147	-81.82
5885.338	-21.261	-81.844	-0.075	4.954	-0.075	4.954	-21.261	-81.844
5910.276	-21.376	-81.866	-0.074	4.888	-0.074	4.888	-21.376	-81.866
5935.213	-21.491	-81.888	-0.073	4.823	-0.073	4.823	-21.491	-81.888
5960.15	-21.608	-81.908	-0.072	4.759	-0.072	4.759	-21.608	-81.908
5985.088	-21.726	-81.927	-0.071	4.694	-0.071	4.694	-21.726	-81.927
6010.025	-21.844	-81.944	-0.071	4.63	-0.071	4.63	-21.844	-81.944
6034.962	-21.964	-81.96	-0.07	4.567	-0.07	4.567	-21.964	-81.96
6059.9	-22.085	-81.975	-0.069	4.503	-0.069	4.503	-22.085	-81.975
6084.837	-22.206	-81.988	-0.068	4.44	-0.068	4.44	-22.206	-81.988
6109.774	-22.329	-82	-0.068	4.377	-0.068	4.377	-22.329	-82
6134.712	-22.453	-82.01	-0.067	4.315	-0.067	4.315	-22.453	-82.01
6159.649	-22.578	-82.018	-0.066	4.253	-0.066	4.253	-22.578	-82.018
6184.586	-22.705	-82.025	-0.065	4.191	-0.065	4.191	-22.705	-82.025
6209.524	-22.832	-82.031	-0.065	4.13	-0.065	4.13	-22.832	-82.031
6234.461	-22.961	-82.034	-0.064	4.068	-0.064	4.068	-22.961	-82.034
6259.398	-23.091	-82.036	-0.063	4.008	-0.063	4.008	-23.091	-82.036
6284.336	-23.223	-82.036	-0.063	3.947	-0.063	3.947	-23.223	-82.036
6309.273	-23.355	-82.035	-0.062	3.887	-0.062	3.887	-23.355	-82.035
6334.211	-23.49	-82.031	-0.062	3.827	-0.062	3.827	-23.49	-82.031
6359.148	-23.625	-82.025	-0.061	3.767	-0.061	3.767	-23.625	-82.025
6384.085	-23.762	-82.018	-0.06	3.708	-0.06	3.708	-23.762	-82.018
6409.023	-23.901	-82.008	-0.06	3.649	-0.06	3.649	-23.901	-82.008
6433.96	-24.041	-81.996	-0.059	3.59	-0.059	3.59	-24.041	-81.996
6458.897	-24.183	-81.981	-0.059	3.531	-0.059	3.531	-24.183	-81.981
6483.835	-24.327	-81.965	-0.058	3.473	-0.058	3.473	-24.327	-81.965
6508.772	-24.472	-81.946	-0.058	3.415	-0.058	3.415	-24.472	-81.946
6533.709	-24.619	-81.924	-0.057	3.357	-0.057	3.357	-24.619	-81.924
6558.647	-24.768	-81.899	-0.057	3.299	-0.057	3.299	-24.768	-81.899
6583.584	-24.919	-81.872	-0.056	3.242	-0.056	3.242	-24.919	-81.872
6608.521	-25.072	-81.842	-0.056	3.185	-0.056	3.185	-25.072	-81.842
6633.459	-25.227	-81.809	-0.055	3.128	-0.055	3.128	-25.227	-81.809
6658.396	-25.383	-81.773	-0.055	3.072	-0.055	3.072	-25.383	-81.773
6683.333	-25.543	-81.734	-0.054	3.016	-0.054	3.016	-25.543	-81.734
6708.271	-25.704	-81.691	-0.054	2.96	-0.054	2.96	-25.704	-81.691
6733.208	-25.867	-81.645	-0.053	2.904	-0.053	2.904	-25.867	-81.645
6758.145	-26.033	-81.595	-0.053	2.848	-0.053	2.848	-26.033	-81.595
6783.083	-26.202	-81.541	-0.052	2.793	-0.052	2.793	-26.202	-81.541
6808.02	-26.373	-81.483	-0.052	2.738	-0.052	2.738	-26.373	-81.483
6832.957	-26.547	-81.42	-0.052	2.683	-0.052	2.683	-26.547	-81.42
6857.895	-26.723	-81.353	-0.051	2.629	-0.051	2.629	-26.723	-81.353
6882.832	-26.903	-81.282	-0.051	2.574	-0.051	2.574	-26.903	-81.282
6907.769	-27.085	-81.205	-0.051	2.52	-0.051	2.52	-27.085	-81.205
6932.707	-27.27	-81.123	-0.05	2.466	-0.05	2.466	-27.27	-81.123
6957.644	-27.459	-81.035	-0.05	2.412	-0.05	2.412	-27.459	-81.035
6982.581	-27.651	-80.941	-0.049	2.359	-0.049	2.359	-27.651	-80.941
7007.519	-27.847	-80.841	-0.049	2.306	-0.049	2.306	-27.847	-80.841
7032.456	-28.046	-80.735	-0.049	2.253	-0.049	2.253	-28.046	-80.735
7057.393	-28.249	-80.621	-0.049	2.2	-0.049	2.2	-28.249	-80.621
7082.331	-28.455	-80.499	-0.048	2.147	-0.048	2.147	-28.455	-80.499
7107.268	-28.666	-80.37	-0.048	2.095	-0.048	2.095	-28.666	-80.37
7132.206	-28.882	-80.232	-0.048	2.043	-0.048	2.043	-28.882	-80.232
7157.143	-29.101	-80.085	-0.047	1.991	-0.047	1.991	-29.101	-80.085
7182.08	-29.326	-79.928	-0.047	1.939	-0.047	1.939	-29.326	-79.928
7207.018	-29.555	-79.76	-0.047	1.887	-0.047	1.887	-29.555	-79.76
7231.955	-29.79	-79.581	-0.047	1.836	-0.047	1.836	-29.79	-79.581
7256.892	-30.03	-79.39	-0.046	1.785	-0.046	1.785	-30.03	-79.39
7281.83	-30.276	-79.185	-0.046	1.734	-0.046	1.734	-30.276	-79.185
7306.767	-30.527	-78.967	-0.046	1.683	-0.046	1.683	-30.527	-78.967
7331.704	-30.786	-78.732	-0.046	1.632	-0.046	1.632	-30.786	-78.732
7356.642	-31.05	-78.482	-0.045	1.582	-0.045	1.582	-31.05	-78.482
7381.579	-31.322	-78.213	-0.045	1.531	-0.045	1.531	-31.322	-78.213
7406.516	-31.601	-77.924	-0.045	1.481	-0.045	1.481	-31.601	-77.924
