!	AVX	Thin	Film	Operation	
!
!	Date:	March 2012		
!
!	Description: Ultra-Miniature 01005 Size ACCU - P® Thin Film RF / Microwave Capacitor
!
!	Part Number:  C005YJ0R1ABSTR	
!								
!	Serial	Measurements						
!
# MHZ S MA R 50

50 1 -0.18 3.142e-3 89.763 3.142e-3 89.763 1 -0.18
150.125 1 -0.54 9.432e-3 89.402 9.432e-3 89.402 1 -0.54
250.251 1 -0.901 0.016 89.041 0.016 89.041 1 -0.901
350.376 1 -1.261 0.022 88.68 0.022 88.68 1 -1.261
450.501 1 -1.622 0.028 88.319 0.028 88.319 1 -1.622
550.627 0.999 -1.982 0.035 87.959 0.035 87.959 0.999 -1.982
650.752 0.999 -2.342 0.041 87.598 0.041 87.598 0.999 -2.342
750.877 0.999 -2.703 0.047 87.237 0.047 87.237 0.999 -2.703
851.003 0.999 -3.063 0.053 86.877 0.053 86.877 0.999 -3.063
951.128 0.998 -3.423 0.06 86.516 0.06 86.516 0.998 -3.423
1051.253 0.998 -3.783 0.066 86.156 0.066 86.156 0.998 -3.783
1151.378 0.997 -4.143 0.072 85.795 0.072 85.795 0.997 -4.143
1251.504 0.997 -4.503 0.079 85.435 0.079 85.435 0.997 -4.503
1351.629 0.996 -4.863 0.085 85.075 0.085 85.075 0.996 -4.863
1451.754 0.996 -5.223 0.091 84.715 0.091 84.715 0.996 -5.223
1551.88 0.995 -5.582 0.097 84.355 0.097 84.355 0.995 -5.582
1652.005 0.995 -5.942 0.104 83.995 0.104 83.995 0.995 -5.942
1752.13 0.994 -6.301 0.11 83.635 0.11 83.635 0.994 -6.301
1852.256 0.993 -6.661 0.116 83.275 0.116 83.275 0.993 -6.661
1952.381 0.992 -7.02 0.122 82.916 0.122 82.916 0.992 -7.02
2052.506 0.992 -7.379 0.128 82.556 0.128 82.556 0.992 -7.379
2152.632 0.991 -7.738 0.135 82.197 0.135 82.197 0.991 -7.738
2252.757 0.99 -8.097 0.141 81.838 0.141 81.838 0.99 -8.097
2352.882 0.989 -8.455 0.147 81.479 0.147 81.479 0.989 -8.455
2453.008 0.988 -8.814 0.153 81.12 0.153 81.12 0.988 -8.814
2553.133 0.987 -9.172 0.159 80.761 0.159 80.761 0.987 -9.172
2653.258 0.986 -9.53 0.166 80.402 0.166 80.402 0.986 -9.53
2753.383 0.985 -9.888 0.172 80.044 0.172 80.044 0.985 -9.888
2853.509 0.984 -10.246 0.178 79.686 0.178 79.686 0.984 -10.246
2953.634 0.983 -10.604 0.184 79.328 0.184 79.328 0.983 -10.604
3053.759 0.982 -10.961 0.19 78.97 0.19 78.97 0.982 -10.961
3153.885 0.98 -11.318 0.196 78.612 0.196 78.612 0.98 -11.318
3254.01 0.979 -11.675 0.202 78.255 0.202 78.255 0.979 -11.675
3354.135 0.978 -12.032 0.208 77.897 0.208 77.897 0.978 -12.032
3454.261 0.976 -12.389 0.215 77.54 0.215 77.54 0.976 -12.389
3554.386 0.975 -12.745 0.221 77.183 0.221 77.183 0.975 -12.745
3654.511 0.974 -13.101 0.227 76.827 0.227 76.827 0.974 -13.101
3754.637 0.972 -13.457 0.233 76.47 0.233 76.47 0.972 -13.457
3854.762 0.971 -13.813 0.239 76.114 0.239 76.114 0.971 -13.813
3954.887 0.969 -14.168 0.245 75.758 0.245 75.758 0.969 -14.168
4055.013 0.968 -14.523 0.251 75.403 0.251 75.403 0.968 -14.523
4155.138 0.966 -14.878 0.257 75.047 0.257 75.047 0.966 -14.878
4255.263 0.965 -15.233 0.263 74.692 0.263 74.692 0.965 -15.233
4355.388 0.963 -15.587 0.269 74.337 0.269 74.337 0.963 -15.587
4455.514 0.961 -15.941 0.275 73.983 0.275 73.983 0.961 -15.941
4555.639 0.959 -16.295 0.281 73.629 0.281 73.629 0.959 -16.295
4655.764 0.958 -16.649 0.287 73.275 0.287 73.275 0.958 -16.649
4755.89 0.956 -17.002 0.292 72.921 0.292 72.921 0.956 -17.002
4856.015 0.954 -17.355 0.298 72.567 0.298 72.567 0.954 -17.355
4956.14 0.952 -17.708 0.304 72.214 0.304 72.214 0.952 -17.708
5056.266 0.95 -18.06 0.31 71.861 0.31 71.861 0.95 -18.06
5156.391 0.948 -18.412 0.316 71.509 0.316 71.509 0.948 -18.412
5256.516 0.946 -18.764 0.322 71.157 0.322 71.157 0.946 -18.764
5356.642 0.944 -19.115 0.327 70.805 0.327 70.805 0.944 -19.115
5456.767 0.942 -19.466 0.333 70.453 0.333 70.453 0.942 -19.466
5556.892 0.94 -19.817 0.339 70.102 0.339 70.102 0.94 -19.817
5657.018 0.938 -20.167 0.345 69.751 0.345 69.751 0.938 -20.167
5757.143 0.936 -20.517 0.35 69.401 0.35 69.401 0.936 -20.517
5857.268 0.934 -20.866 0.356 69.051 0.356 69.051 0.934 -20.866
5957.393 0.932 -21.216 0.362 68.701 0.362 68.701 0.932 -21.216
6057.519 0.929 -21.565 0.368 68.352 0.368 68.352 0.929 -21.565
6157.644 0.927 -21.913 0.373 68.002 0.373 68.002 0.927 -21.913
6257.769 0.925 -22.261 0.379 67.654 0.379 67.654 0.925 -22.261
6357.895 0.923 -22.609 0.384 67.306 0.384 67.306 0.923 -22.609
6458.02 0.92 -22.956 0.39 66.958 0.39 66.958 0.92 -22.956
6558.145 0.918 -23.303 0.396 66.61 0.396 66.61 0.918 -23.303
6658.271 0.915 -23.65 0.401 66.263 0.401 66.263 0.915 -23.65
6758.396 0.913 -23.996 0.407 65.916 0.407 65.916 0.913 -23.996
6858.521 0.91 -24.342 0.412 65.57 0.412 65.57 0.91 -24.342
6958.647 0.908 -24.687 0.418 65.224 0.418 65.224 0.908 -24.687
7058.772 0.905 -25.032 0.423 64.879 0.423 64.879 0.905 -25.032
7158.897 0.903 -25.376 0.429 64.534 0.429 64.534 0.903 -25.376
7259.023 0.9 -25.72 0.434 64.189 0.434 64.189 0.9 -25.72
7359.148 0.898 -26.064 0.439 63.845 0.439 63.845 0.898 -26.064
7459.273 0.895 -26.407 0.445 63.501 0.445 63.501 0.895 -26.407
7559.398 0.892 -26.75 0.45 63.158 0.45 63.158 0.892 -26.75
7659.524 0.89 -27.092 0.455 62.815 0.455 62.815 0.89 -27.092
7759.649 0.887 -27.434 0.461 62.472 0.461 62.472 0.887 -27.434
7859.774 0.884 -27.775 0.466 62.13 0.466 62.13 0.884 -27.775
7959.9 0.881 -28.116 0.471 61.789 0.471 61.789 0.881 -28.116
8060.025 0.878 -28.456 0.476 61.448 0.476 61.448 0.878 -28.456
8160.15 0.876 -28.796 0.482 61.107 0.482 61.107 0.876 -28.796
8260.276 0.873 -29.135 0.487 60.767 0.487 60.767 0.873 -29.135
8360.401 0.87 -29.474 0.492 60.428 0.492 60.428 0.87 -29.474
8460.526 0.867 -29.813 0.497 60.089 0.497 60.089 0.867 -29.813
8560.652 0.864 -30.151 0.502 59.75 0.502 59.75 0.864 -30.151
8660.777 0.861 -30.488 0.507 59.412 0.507 59.412 0.861 -30.488
8760.902 0.858 -30.825 0.512 59.074 0.512 59.074 0.858 -30.825
8861.028 0.855 -31.162 0.517 58.737 0.517 58.737 0.855 -31.162
8961.153 0.852 -31.498 0.522 58.4 0.522 58.4 0.852 -31.498
9061.278 0.849 -31.833 0.527 58.064 0.527 58.064 0.849 -31.833
9161.404 0.846 -32.168 0.532 57.729 0.532 57.729 0.846 -32.168
9261.529 0.842 -32.502 0.537 57.394 0.537 57.394 0.842 -32.502
9361.654 0.839 -32.836 0.542 57.059 0.542 57.059 0.839 -32.836
9461.779 0.836 -33.169 0.547 56.725 0.547 56.725 0.836 -33.169
9561.905 0.833 -33.502 0.552 56.392 0.552 56.392 0.833 -33.502
9662.03 0.83 -33.834 0.557 56.059 0.557 56.059 0.83 -33.834
9762.155 0.826 -34.166 0.562 55.726 0.562 55.726 0.826 -34.166
9862.281 0.823 -34.497 0.566 55.395 0.566 55.395 0.823 -34.497
9962.406 0.82 -34.827 0.571 55.063 0.571 55.063 0.82 -34.827
10062.531 0.816 -35.157 0.576 54.733 0.576 54.733 0.816 -35.157
10162.657 0.813 -35.487 0.581 54.402 0.581 54.402 0.813 -35.487
10262.782 0.81 -35.816 0.585 54.073 0.585 54.073 0.81 -35.816
10362.907 0.806 -36.144 0.59 53.744 0.59 53.744 0.806 -36.144
10463.033 0.803 -36.471 0.594 53.415 0.594 53.415 0.803 -36.471
10563.158 0.8 -36.799 0.599 53.087 0.599 53.087 0.8 -36.799
10663.283 0.796 -37.125 0.604 52.76 0.604 52.76 0.796 -37.125
10763.409 0.793 -37.451 0.608 52.433 0.608 52.433 0.793 -37.451
10863.534 0.789 -37.776 0.613 52.107 0.613 52.107 0.789 -37.776
10963.659 0.786 -38.101 0.617 51.781 0.617 51.781 0.786 -38.101
11063.784 0.782 -38.425 0.621 51.456 0.621 51.456 0.782 -38.425
11163.91 0.779 -38.749 0.626 51.132 0.626 51.132 0.779 -38.749
11264.035 0.775 -39.072 0.63 50.808 0.63 50.808 0.775 -39.072
11364.16 0.771 -39.394 0.635 50.485 0.635 50.485 0.771 -39.394
11464.286 0.768 -39.716 0.639 50.163 0.639 50.163 0.768 -39.716
11564.411 0.764 -40.037 0.643 49.841 0.643 49.841 0.764 -40.037
11664.536 0.761 -40.357 0.648 49.519 0.648 49.519 0.761 -40.357
11764.662 0.757 -40.677 0.652 49.198 0.652 49.198 0.757 -40.677
11864.787 0.753 -40.996 0.656 48.878 0.656 48.878 0.753 -40.996
11964.912 0.75 -41.315 0.66 48.559 0.66 48.559 0.75 -41.315
12065.038 0.746 -41.633 0.664 48.24 0.664 48.24 0.746 -41.633
12165.163 0.742 -41.95 0.668 47.922 0.668 47.922 0.742 -41.95
12265.288 0.739 -42.267 0.673 47.604 0.673 47.604 0.739 -42.267
12365.414 0.735 -42.583 0.677 47.287 0.677 47.287 0.735 -42.583
12465.539 0.731 -42.898 0.681 46.971 0.681 46.971 0.731 -42.898
12565.664 0.727 -43.213 0.685 46.655 0.685 46.655 0.727 -43.213
12665.789 0.723 -43.527 0.689 46.34 0.689 46.34 0.723 -43.527
12765.915 0.72 -43.84 0.693 46.025 0.693 46.025 0.72 -43.84
12866.04 0.716 -44.153 0.697 45.712 0.697 45.712 0.716 -44.153
12966.165 0.712 -44.465 0.7 45.398 0.7 45.398 0.712 -44.465
13066.291 0.708 -44.777 0.704 45.086 0.704 45.086 0.708 -44.777
13166.416 0.704 -45.087 0.708 44.774 0.708 44.774 0.704 -45.087
13266.541 0.7 -45.397 0.712 44.463 0.712 44.463 0.7 -45.397
13366.667 0.697 -45.707 0.716 44.152 0.716 44.152 0.697 -45.707
13466.792 0.693 -46.016 0.72 43.843 0.72 43.843 0.693 -46.016
13566.917 0.689 -46.324 0.723 43.533 0.723 43.533 0.689 -46.324
13667.043 0.685 -46.631 0.727 43.225 0.727 43.225 0.685 -46.631
13767.168 0.681 -46.938 0.731 42.917 0.731 42.917 0.681 -46.938
13867.293 0.677 -47.244 0.734 42.61 0.734 42.61 0.677 -47.244
13967.419 0.673 -47.549 0.738 42.303 0.738 42.303 0.673 -47.549
14067.544 0.669 -47.854 0.741 41.998 0.741 41.998 0.669 -47.854
14167.669 0.665 -48.158 0.745 41.692 0.745 41.692 0.665 -48.158
14267.794 0.661 -48.461 0.749 41.388 0.749 41.388 0.661 -48.461
14367.92 0.657 -48.764 0.752 41.084 0.752 41.084 0.657 -48.764
14468.045 0.653 -49.065 0.755 40.781 0.755 40.781 0.653 -49.065
14568.17 0.649 -49.367 0.759 40.479 0.759 40.479 0.649 -49.367
14668.296 0.645 -49.667 0.762 40.177 0.762 40.177 0.645 -49.667
14768.421 0.641 -49.967 0.766 39.876 0.766 39.876 0.641 -49.967
14868.546 0.637 -50.266 0.769 39.576 0.769 39.576 0.637 -50.266
14968.672 0.633 -50.564 0.772 39.276 0.772 39.276 0.633 -50.564
15068.797 0.629 -50.862 0.776 38.977 0.776 38.977 0.629 -50.862
15168.922 0.625 -51.159 0.779 38.679 0.779 38.679 0.625 -51.159
15269.048 0.621 -51.455 0.782 38.381 0.782 38.381 0.621 -51.455
15369.173 0.617 -51.75 0.785 38.084 0.785 38.084 0.617 -51.75
15469.298 0.613 -52.045 0.788 37.788 0.788 37.788 0.613 -52.045
15569.424 0.609 -52.339 0.792 37.493 0.792 37.493 0.609 -52.339
15669.549 0.605 -52.632 0.795 37.198 0.795 37.198 0.605 -52.632
15769.674 0.6 -52.925 0.798 36.904 0.798 36.904 0.6 -52.925
15869.799 0.596 -53.217 0.801 36.611 0.801 36.611 0.596 -53.217
15969.925 0.592 -53.508 0.804 36.318 0.804 36.318 0.592 -53.508
16070.05 0.588 -53.798 0.807 36.026 0.807 36.026 0.588 -53.798
16170.175 0.584 -54.088 0.81 35.735 0.81 35.735 0.584 -54.088
16270.301 0.58 -54.377 0.813 35.445 0.813 35.445 0.58 -54.377
16370.426 0.576 -54.665 0.816 35.155 0.816 35.155 0.576 -54.665
16470.551 0.572 -54.952 0.819 34.866 0.819 34.866 0.572 -54.952
16570.677 0.568 -55.239 0.822 34.578 0.822 34.578 0.568 -55.239
16670.802 0.563 -55.525 0.824 34.29 0.824 34.29 0.563 -55.525
16770.927 0.559 -55.81 0.827 34.003 0.827 34.003 0.559 -55.81
16871.053 0.555 -56.095 0.83 33.717 0.83 33.717 0.555 -56.095
16971.178 0.551 -56.379 0.833 33.431 0.833 33.431 0.551 -56.379
17071.303 0.547 -56.661 0.835 33.147 0.835 33.147 0.547 -56.661
17171.429 0.543 -56.944 0.838 32.863 0.838 32.863 0.543 -56.944
17271.554 0.538 -57.225 0.841 32.58 0.841 32.58 0.538 -57.225
17371.679 0.534 -57.506 0.843 32.297 0.843 32.297 0.534 -57.506
17471.805 0.53 -57.786 0.846 32.015 0.846 32.015 0.53 -57.786
17571.93 0.526 -58.065 0.849 31.734 0.849 31.734 0.526 -58.065
17672.055 0.522 -58.344 0.851 31.454 0.851 31.454 0.522 -58.344
17772.18 0.518 -58.621 0.854 31.174 0.854 31.174 0.518 -58.621
17872.306 0.513 -58.898 0.856 30.895 0.856 30.895 0.513 -58.898
17972.431 0.509 -59.174 0.859 30.617 0.859 30.617 0.509 -59.174
18072.556 0.505 -59.45 0.861 30.34 0.861 30.34 0.505 -59.45
18172.682 0.501 -59.725 0.864 30.063 0.864 30.063 0.501 -59.725
18272.807 0.497 -59.999 0.866 29.787 0.866 29.787 0.497 -59.999
18372.932 0.493 -60.272 0.868 29.512 0.868 29.512 0.493 -60.272
18473.058 0.488 -60.544 0.871 29.237 0.871 29.237 0.488 -60.544
18573.183 0.484 -60.816 0.873 28.963 0.873 28.963 0.484 -60.816
18673.308 0.48 -61.087 0.875 28.69 0.875 28.69 0.48 -61.087
18773.434 0.476 -61.357 0.878 28.418 0.878 28.418 0.476 -61.357
18873.559 0.472 -61.626 0.88 28.146 0.88 28.146 0.472 -61.626
18973.684 0.468 -61.894 0.882 27.876 0.882 27.876 0.468 -61.894
19073.81 0.463 -62.162 0.884 27.605 0.884 27.605 0.463 -62.162
19173.935 0.459 -62.429 0.886 27.336 0.886 27.336 0.459 -62.429
19274.06 0.455 -62.695 0.889 27.067 0.889 27.067 0.455 -62.695
19374.185 0.451 -62.961 0.891 26.799 0.891 26.799 0.451 -62.961
19474.311 0.447 -63.226 0.893 26.532 0.893 26.532 0.447 -63.226
19574.436 0.443 -63.489 0.895 26.266 0.895 26.266 0.443 -63.489
19674.561 0.438 -63.753 0.897 26 0.897 26 0.438 -63.753
19774.687 0.434 -64.015 0.899 25.735 0.899 25.735 0.434 -64.015
19874.812 0.43 -64.276 0.901 25.471 0.901 25.471 0.43 -64.276
19974.937 0.426 -64.537 0.903 25.207 0.903 25.207 0.426 -64.537
20075.063 0.422 -64.797 0.905 24.945 0.905 24.945 0.422 -64.797
20175.188 0.418 -65.056 0.907 24.683 0.907 24.683 0.418 -65.056
20275.313 0.413 -65.315 0.909 24.421 0.909 24.421 0.413 -65.315
20375.439 0.409 -65.573 0.91 24.161 0.91 24.161 0.409 -65.573
20475.564 0.405 -65.829 0.912 23.901 0.912 23.901 0.405 -65.829
20575.689 0.401 -66.085 0.914 23.642 0.914 23.642 0.401 -66.085
20675.815 0.397 -66.341 0.916 23.383 0.916 23.383 0.397 -66.341
20775.94 0.393 -66.595 0.918 23.126 0.918 23.126 0.393 -66.595
20876.065 0.389 -66.849 0.919 22.869 0.919 22.869 0.389 -66.849
20976.19 0.385 -67.102 0.921 22.613 0.921 22.613 0.385 -67.102
21076.316 0.38 -67.354 0.923 22.357 0.923 22.357 0.38 -67.354
21176.441 0.376 -67.605 0.925 22.103 0.925 22.103 0.376 -67.605
21276.566 0.372 -67.856 0.926 21.849 0.926 21.849 0.372 -67.856
21376.692 0.368 -68.105 0.928 21.595 0.928 21.595 0.368 -68.105
21476.817 0.364 -68.354 0.929 21.343 0.929 21.343 0.364 -68.354
21576.942 0.36 -68.602 0.931 21.091 0.931 21.091 0.36 -68.602
21677.068 0.356 -68.85 0.933 20.84 0.933 20.84 0.356 -68.85
21777.193 0.352 -69.096 0.934 20.59 0.934 20.59 0.352 -69.096
21877.318 0.348 -69.342 0.936 20.34 0.936 20.34 0.348 -69.342
21977.444 0.344 -69.587 0.937 20.091 0.937 20.091 0.344 -69.587
22077.569 0.339 -69.831 0.939 19.843 0.939 19.843 0.339 -69.831
22177.694 0.335 -70.074 0.94 19.595 0.94 19.595 0.335 -70.074
22277.82 0.331 -70.316 0.942 19.349 0.942 19.349 0.331 -70.316
22377.945 0.327 -70.558 0.943 19.103 0.943 19.103 0.327 -70.558
22478.07 0.323 -70.799 0.944 18.858 0.944 18.858 0.323 -70.799
22578.195 0.319 -71.039 0.946 18.613 0.946 18.613 0.319 -71.039
22678.321 0.315 -71.278 0.947 18.369 0.947 18.369 0.315 -71.278
22778.446 0.311 -71.516 0.948 18.126 0.948 18.126 0.311 -71.516
22878.571 0.307 -71.753 0.95 17.884 0.95 17.884 0.307 -71.753
22978.697 0.303 -71.99 0.951 17.642 0.951 17.642 0.303 -71.99
23078.822 0.299 -72.226 0.952 17.401 0.952 17.401 0.299 -72.226
23178.947 0.295 -72.461 0.954 17.161 0.954 17.161 0.295 -72.461
23279.073 0.291 -72.695 0.955 16.921 0.955 16.921 0.291 -72.695
23379.198 0.287 -72.928 0.956 16.683 0.956 16.683 0.287 -72.928
23479.323 0.283 -73.16 0.957 16.444 0.957 16.444 0.283 -73.16
23579.449 0.279 -73.392 0.958 16.207 0.958 16.207 0.279 -73.392
23679.574 0.275 -73.622 0.959 15.97 0.959 15.97 0.275 -73.622
23779.699 0.271 -73.852 0.961 15.735 0.961 15.735 0.271 -73.852
23879.825 0.267 -74.081 0.962 15.499 0.962 15.499 0.267 -74.081
23979.95 0.263 -74.309 0.963 15.265 0.963 15.265 0.263 -74.309
24080.075 0.259 -74.536 0.964 15.031 0.964 15.031 0.259 -74.536
24180.201 0.255 -74.762 0.965 14.798 0.965 14.798 0.255 -74.762
24280.326 0.251 -74.988 0.966 14.565 0.966 14.565 0.251 -74.988
24380.451 0.248 -75.212 0.967 14.334 0.967 14.334 0.248 -75.212
24480.576 0.244 -75.436 0.968 14.103 0.968 14.103 0.244 -75.436
24580.702 0.24 -75.658 0.969 13.873 0.969 13.873 0.24 -75.658
24680.827 0.236 -75.88 0.97 13.643 0.97 13.643 0.236 -75.88
24780.952 0.232 -76.1 0.971 13.414 0.971 13.414 0.232 -76.1
24881.078 0.228 -76.32 0.972 13.186 0.972 13.186 0.228 -76.32
24981.203 0.224 -76.539 0.973 12.958 0.973 12.958 0.224 -76.539
25081.328 0.22 -76.757 0.973 12.732 0.973 12.732 0.22 -76.757
25181.454 0.217 -76.973 0.974 12.505 0.974 12.505 0.217 -76.973
25281.579 0.213 -77.189 0.975 12.28 0.975 12.28 0.213 -77.189
25381.704 0.209 -77.404 0.976 12.055 0.976 12.055 0.209 -77.404
25481.83 0.205 -77.617 0.977 11.831 0.977 11.831 0.205 -77.617
25581.955 0.201 -77.83 0.978 11.608 0.978 11.608 0.201 -77.83
25682.08 0.197 -78.042 0.978 11.385 0.978 11.385 0.197 -78.042
25782.206 0.194 -78.252 0.979 11.163 0.979 11.163 0.194 -78.252
25882.331 0.19 -78.462 0.98 10.942 0.98 10.942 0.19 -78.462
25982.456 0.186 -78.67 0.981 10.722 0.981 10.722 0.186 -78.67
26082.581 0.182 -78.877 0.981 10.502 0.981 10.502 0.182 -78.877
26182.707 0.179 -79.083 0.982 10.282 0.982 10.282 0.179 -79.083
26282.832 0.175 -79.287 0.983 10.064 0.983 10.064 0.175 -79.287
26382.957 0.171 -79.491 0.983 9.846 0.983 9.846 0.171 -79.491
26483.083 0.167 -79.693 0.984 9.629 0.984 9.629 0.167 -79.693
26583.208 0.164 -79.894 0.985 9.412 0.985 9.412 0.164 -79.894
26683.333 0.16 -80.093 0.985 9.197 0.985 9.197 0.16 -80.093
26783.459 0.156 -80.291 0.986 8.981 0.986 8.981 0.156 -80.291
26883.584 0.152 -80.488 0.986 8.767 0.986 8.767 0.152 -80.488
26983.709 0.149 -80.683 0.987 8.553 0.987 8.553 0.149 -80.683
27083.835 0.145 -80.877 0.987 8.34 0.987 8.34 0.145 -80.877
27183.96 0.141 -81.069 0.988 8.127 0.988 8.127 0.141 -81.069
27284.085 0.138 -81.259 0.988 7.916 0.988 7.916 0.138 -81.259
27384.211 0.134 -81.447 0.989 7.705 0.989 7.705 0.134 -81.447
27484.336 0.13 -81.634 0.989 7.494 0.989 7.494 0.13 -81.634
27584.461 0.127 -81.819 0.99 7.284 0.99 7.284 0.127 -81.819
27684.586 0.123 -82.001 0.99 7.075 0.99 7.075 0.123 -82.001
27784.712 0.12 -82.182 0.991 6.867 0.991 6.867 0.12 -82.182
27884.837 0.116 -82.36 0.991 6.659 0.991 6.659 0.116 -82.36
27984.962 0.112 -82.535 0.992 6.451 0.992 6.451 0.112 -82.535
28085.088 0.109 -82.708 0.992 6.245 0.992 6.245 0.109 -82.708
28185.213 0.105 -82.878 0.992 6.039 0.992 6.039 0.105 -82.878
28285.338 0.102 -83.045 0.993 5.834 0.993 5.834 0.102 -83.045
28385.464 0.098 -83.209 0.993 5.629 0.993 5.629 0.098 -83.209
28485.589 0.095 -83.369 0.994 5.425 0.994 5.425 0.095 -83.369
28585.714 0.091 -83.526 0.994 5.222 0.994 5.222 0.091 -83.526
28685.84 0.088 -83.678 0.994 5.019 0.994 5.019 0.088 -83.678
28785.965 0.084 -83.825 0.994 4.817 0.994 4.817 0.084 -83.825
28886.09 0.08 -83.967 0.995 4.616 0.995 4.616 0.08 -83.967
28986.216 0.077 -84.103 0.995 4.415 0.995 4.415 0.077 -84.103
29086.341 0.074 -84.233 0.995 4.215 0.995 4.215 0.074 -84.233
29186.466 0.07 -84.356 0.996 4.016 0.996 4.016 0.07 -84.356
29286.591 0.067 -84.47 0.996 3.817 0.996 3.817 0.067 -84.47
29386.717 0.063 -84.574 0.996 3.618 0.996 3.618 0.063 -84.574
29486.842 0.06 -84.667 0.996 3.421 0.996 3.421 0.06 -84.667
29586.967 0.056 -84.747 0.996 3.224 0.996 3.224 0.056 -84.747
29687.093 0.053 -84.812 0.997 3.028 0.997 3.028 0.053 -84.812
29787.218 0.049 -84.859 0.997 2.832 0.997 2.832 0.049 -84.859
29887.343 0.046 -84.883 0.997 2.637 0.997 2.637 0.046 -84.883
29987.469 0.043 -84.88 0.997 2.442 0.997 2.442 0.043 -84.88
30087.594 0.039 -84.843 0.997 2.249 0.997 2.249 0.039 -84.843
30187.719 0.036 -84.764 0.997 2.055 0.997 2.055 0.036 -84.764
30287.845 0.033 -84.628 0.997 1.863 0.997 1.863 0.033 -84.628
30387.97 0.029 -84.418 0.998 1.671 0.998 1.671 0.029 -84.418
30488.095 0.026 -84.105 0.998 1.479 0.998 1.479 0.026 -84.105
30588.221 0.023 -83.645 0.998 1.289 0.998 1.289 0.023 -83.645
30688.346 0.019 -82.964 0.998 1.098 0.998 1.098 0.019 -82.964
30788.471 0.016 -81.927 0.998 0.909 0.998 0.909 0.016 -81.927
30888.596 0.013 -80.263 0.998 0.72 0.998 0.72 0.013 -80.263
30988.722 9.489e-3 -77.34 0.998 0.532 0.998 0.532 9.489e-3 -77.34
31088.847 6.323e-3 -71.277 0.998 0.344 0.998 0.344 6.323e-3 -71.277
31188.972 3.384e-3 -53.748 0.998 0.157 0.998 0.157 3.384e-3 -53.748
31289.098 2.061e-3 14.617 0.998 -0.03 0.998 -0.03 2.061e-3 14.617
31389.223 4.262e-3 61.889 0.998 -0.216 0.998 -0.216 4.262e-3 61.889
31489.348 7.28e-3 73.703 0.998 -0.401 0.998 -0.401 7.28e-3 73.703
31589.474 0.01 78.381 0.998 -0.586 0.998 -0.586 0.01 78.381
31689.599 0.014 80.792 0.998 -0.77 0.998 -0.77 0.014 80.792
