!	AVX	Thin	Film	Operation	
!
!	Date:	March 2012		
!
!	Description: Ultra-Miniature 01005 Size ACCU - P® Thin Film RF / Microwave Capacitor
!
!	Part Number:  C005YJ0R3ABSTR	
!								
!	Serial	Measurements						
!								
#	MHz	S	db	R	50			
!	S11	S21	S12	S22				
!	dB	Phase	dB	Phase	dB	Phase	dB	Phase
50	-4.68E-04	-0.54	-40.515	89.402	-40.515	89.402	-4.68E-04	-0.54
100	-1.71E-03	-1.08	-34.495	88.862	-34.495	88.862	-1.71E-03	-1.08
150	-3.72E-03	-1.62	-30.975	88.321	-30.975	88.321	-3.72E-03	-1.62
200	-6.51E-03	-2.159	-28.479	87.781	-28.479	87.781	-6.51E-03	-2.159
250	-0.01	-2.698	-26.544	87.242	-26.544	87.242	-0.01	-2.698
300	-0.014	-3.237	-24.964	86.702	-24.964	86.702	-0.014	-3.237
350	-0.019	-3.776	-23.629	86.163	-23.629	86.163	-0.019	-3.776
400	-0.025	-4.314	-22.474	85.625	-22.474	85.625	-0.025	-4.314
450	-0.032	-4.851	-21.456	85.087	-21.456	85.087	-0.032	-4.851
500	-0.039	-5.388	-20.547	84.55	-20.547	84.55	-0.039	-5.388
550	-0.047	-5.924	-19.726	84.013	-19.726	84.013	-0.047	-5.924
600	-0.056	-6.459	-18.978	83.477	-18.978	83.477	-0.056	-6.459
650	-0.066	-6.993	-18.291	82.942	-18.291	82.942	-0.066	-6.993
700	-0.076	-7.527	-17.655	82.408	-17.655	82.408	-0.076	-7.527
750	-0.088	-8.059	-17.065	81.875	-17.065	81.875	-0.088	-8.059
800	-0.1	-8.591	-16.515	81.343	-16.515	81.343	-0.1	-8.591
850	-0.112	-9.121	-15.998	80.813	-15.998	80.813	-0.112	-9.121
900	-0.126	-9.65	-15.513	80.283	-15.513	80.283	-0.126	-9.65
950	-0.14	-10.178	-15.055	79.754	-15.055	79.754	-0.14	-10.178
1000	-0.154	-10.704	-14.622	79.227	-14.622	79.227	-0.154	-10.704
1050	-0.17	-11.23	-14.211	78.701	-14.211	78.701	-0.17	-11.23
1100	-0.186	-11.754	-13.82	78.177	-13.82	78.177	-0.186	-11.754
1150	-0.203	-12.276	-13.448	77.654	-13.448	77.654	-0.203	-12.276
1200	-0.221	-12.797	-13.093	77.133	-13.093	77.133	-0.221	-12.797
1250	-0.239	-13.316	-12.753	76.613	-12.753	76.613	-0.239	-13.316
1300	-0.258	-13.834	-12.428	76.095	-12.428	76.095	-0.258	-13.834
1350	-0.278	-14.349	-12.117	75.578	-12.117	75.578	-0.278	-14.349
1400	-0.299	-14.864	-11.818	75.063	-11.818	75.063	-0.299	-14.864
1450	-0.32	-15.376	-11.53	74.551	-11.53	74.551	-0.32	-15.376
1500	-0.341	-15.887	-11.253	74.039	-11.253	74.039	-0.341	-15.887
1550	-0.364	-16.395	-10.987	73.53	-10.987	73.53	-0.364	-16.395
1600	-0.387	-16.902	-10.73	73.023	-10.73	73.023	-0.387	-16.902
1650	-0.411	-17.407	-10.482	72.518	-10.482	72.518	-0.411	-17.407
1700	-0.435	-17.909	-10.243	72.014	-10.243	72.014	-0.435	-17.909
1750	-0.46	-18.41	-10.011	71.513	-10.011	71.513	-0.46	-18.41
1800	-0.486	-18.908	-9.788	71.014	-9.788	71.014	-0.486	-18.908
1850	-0.512	-19.405	-9.571	70.517	-9.571	70.517	-0.512	-19.405
1900	-0.539	-19.899	-9.361	70.022	-9.361	70.022	-0.539	-19.899
1950	-0.567	-20.391	-9.158	69.53	-9.158	69.53	-0.567	-20.391
2000	-0.595	-20.88	-8.961	69.04	-8.961	69.04	-0.595	-20.88
2050	-0.623	-21.368	-8.77	68.552	-8.77	68.552	-0.623	-21.368
2100	-0.653	-21.853	-8.584	68.066	-8.584	68.066	-0.653	-21.853
2150	-0.683	-22.335	-8.404	67.583	-8.404	67.583	-0.683	-22.335
2200	-0.713	-22.816	-8.229	67.102	-8.229	67.102	-0.713	-22.816
2250	-0.744	-23.294	-8.058	66.623	-8.058	66.623	-0.744	-23.294
2300	-0.775	-23.769	-7.893	66.147	-7.893	66.147	-0.775	-23.769
2350	-0.808	-24.242	-7.732	65.674	-7.732	65.674	-0.808	-24.242
2400	-0.84	-24.712	-7.575	65.202	-7.575	65.202	-0.84	-24.712
2450	-0.873	-25.18	-7.423	64.734	-7.423	64.734	-0.873	-25.18
2500	-0.907	-25.646	-7.274	64.268	-7.274	64.268	-0.907	-25.646
2550	-0.941	-26.109	-7.13	63.804	-7.13	63.804	-0.941	-26.109
2600	-0.976	-26.569	-6.989	63.343	-6.989	63.343	-0.976	-26.569
2650	-1.011	-27.026	-6.851	62.885	-6.851	62.885	-1.011	-27.026
2700	-1.047	-27.481	-6.717	62.429	-6.717	62.429	-1.047	-27.481
2750	-1.083	-27.934	-6.587	61.976	-6.587	61.976	-1.083	-27.934
2800	-1.12	-28.384	-6.459	61.526	-6.459	61.526	-1.12	-28.384
2850	-1.157	-28.831	-6.335	61.078	-6.335	61.078	-1.157	-28.831
2900	-1.195	-29.275	-6.214	60.633	-6.214	60.633	-1.195	-29.275
2950	-1.233	-29.717	-6.095	60.19	-6.095	60.19	-1.233	-29.717
3000	-1.271	-30.156	-5.98	59.751	-5.98	59.751	-1.271	-30.156
3050	-1.31	-30.593	-5.867	59.314	-5.867	59.314	-1.31	-30.593
3100	-1.35	-31.026	-5.757	58.879	-5.757	58.879	-1.35	-31.026
3150	-1.39	-31.457	-5.649	58.447	-5.649	58.447	-1.39	-31.457
3200	-1.43	-31.886	-5.544	58.018	-5.544	58.018	-1.43	-31.886
3250	-1.471	-32.311	-5.441	57.592	-5.441	57.592	-1.471	-32.311
3300	-1.512	-32.734	-5.34	57.169	-5.34	57.169	-1.512	-32.734
3350	-1.553	-33.154	-5.242	56.748	-5.242	56.748	-1.553	-33.154
3400	-1.595	-33.572	-5.146	56.33	-5.146	56.33	-1.595	-33.572
3450	-1.637	-33.986	-5.052	55.914	-5.052	55.914	-1.637	-33.986
3500	-1.68	-34.398	-4.96	55.501	-4.96	55.501	-1.68	-34.398
3550	-1.723	-34.808	-4.87	55.091	-4.87	55.091	-1.723	-34.808
3600	-1.766	-35.214	-4.782	54.684	-4.782	54.684	-1.766	-35.214
3650	-1.81	-35.618	-4.696	54.28	-4.696	54.28	-1.81	-35.618
3700	-1.854	-36.019	-4.612	53.878	-4.612	53.878	-1.854	-36.019
3750	-1.899	-36.417	-4.529	53.479	-4.529	53.479	-1.899	-36.417
3800	-1.944	-36.813	-4.448	53.082	-4.448	53.082	-1.944	-36.813
3850	-1.989	-37.206	-4.369	52.688	-4.369	52.688	-1.989	-37.206
3900	-2.034	-37.597	-4.292	52.297	-4.292	52.297	-2.034	-37.597
3950	-2.08	-37.984	-4.216	51.909	-4.216	51.909	-2.08	-37.984
4000	-2.126	-38.369	-4.142	51.523	-4.142	51.523	-2.126	-38.369
4050	-2.173	-38.751	-4.069	51.14	-4.069	51.14	-2.173	-38.751
4100	-2.22	-39.131	-3.998	50.76	-3.998	50.76	-2.22	-39.131
4150	-2.267	-39.508	-3.928	50.382	-3.928	50.382	-2.267	-39.508
4200	-2.314	-39.883	-3.86	50.007	-3.86	50.007	-2.314	-39.883
4250	-2.362	-40.254	-3.793	49.634	-3.793	49.634	-2.362	-40.254
4300	-2.41	-40.624	-3.727	49.264	-3.727	49.264	-2.41	-40.624
4350	-2.458	-40.99	-3.663	48.897	-3.663	48.897	-2.458	-40.99
4400	-2.507	-41.354	-3.6	48.532	-3.6	48.532	-2.507	-41.354
4450	-2.555	-41.716	-3.538	48.17	-3.538	48.17	-2.555	-41.716
4500	-2.605	-42.074	-3.477	47.81	-3.477	47.81	-2.605	-42.074
4550	-2.654	-42.431	-3.418	47.453	-3.418	47.453	-2.654	-42.431
4600	-2.704	-42.784	-3.359	47.098	-3.359	47.098	-2.704	-42.784
4650	-2.753	-43.136	-3.302	46.746	-3.302	46.746	-2.753	-43.136
4700	-2.804	-43.484	-3.246	46.397	-3.246	46.397	-2.804	-43.484
4750	-2.854	-43.831	-3.191	46.05	-3.191	46.05	-2.854	-43.831
4800	-2.905	-44.174	-3.137	45.705	-3.137	45.705	-2.905	-44.174
4850	-2.956	-44.516	-3.084	45.363	-3.084	45.363	-2.956	-44.516
4900	-3.007	-44.855	-3.032	45.023	-3.032	45.023	-3.007	-44.855
4950	-3.058	-45.191	-2.981	44.686	-2.981	44.686	-3.058	-45.191
5000	-3.11	-45.525	-2.931	44.351	-2.931	44.351	-3.11	-45.525
5050	-3.162	-45.857	-2.882	44.018	-2.882	44.018	-3.162	-45.857
5100	-3.214	-46.186	-2.834	43.688	-2.834	43.688	-3.214	-46.186
5150	-3.266	-46.513	-2.787	43.36	-2.787	43.36	-3.266	-46.513
5200	-3.319	-46.837	-2.74	43.035	-2.74	43.035	-3.319	-46.837
5250	-3.371	-47.16	-2.695	42.712	-2.695	42.712	-3.371	-47.16
5300	-3.424	-47.479	-2.65	42.391	-2.65	42.391	-3.424	-47.479
5350	-3.478	-47.797	-2.606	42.073	-2.606	42.073	-3.478	-47.797
5400	-3.531	-48.112	-2.563	41.756	-2.563	41.756	-3.531	-48.112
5450	-3.585	-48.425	-2.521	41.442	-2.521	41.442	-3.585	-48.425
5500	-3.638	-48.736	-2.479	41.131	-2.479	41.131	-3.638	-48.736
5550	-3.692	-49.045	-2.438	40.821	-2.438	40.821	-3.692	-49.045
5600	-3.747	-49.351	-2.398	40.514	-2.398	40.514	-3.747	-49.351
5650	-3.801	-49.655	-2.359	40.209	-2.359	40.209	-3.801	-49.655
5700	-3.856	-49.957	-2.32	39.906	-2.32	39.906	-3.856	-49.957
5750	-3.911	-50.257	-2.282	39.605	-2.282	39.605	-3.911	-50.257
5800	-3.966	-50.555	-2.245	39.306	-2.245	39.306	-3.966	-50.555
5850	-4.021	-50.851	-2.208	39.01	-2.208	39.01	-4.021	-50.851
5900	-4.076	-51.144	-2.172	38.715	-2.172	38.715	-4.076	-51.144
5950	-4.132	-51.435	-2.137	38.423	-2.137	38.423	-4.132	-51.435
6000	-4.188	-51.725	-2.102	38.132	-2.102	38.132	-4.188	-51.725
6050	-4.243	-52.012	-2.068	37.844	-2.068	37.844	-4.243	-52.012
6100	-4.3	-52.297	-2.034	37.558	-2.034	37.558	-4.3	-52.297
6150	-4.356	-52.58	-2.001	37.274	-2.001	37.274	-4.356	-52.58
6200	-4.412	-52.862	-1.969	36.991	-1.969	36.991	-4.412	-52.862
6250	-4.469	-53.141	-1.937	36.711	-1.937	36.711	-4.469	-53.141
6300	-4.526	-53.418	-1.906	36.433	-1.906	36.433	-4.526	-53.418
6350	-4.583	-53.693	-1.875	36.156	-1.875	36.156	-4.583	-53.693
6400	-4.64	-53.967	-1.844	35.882	-1.844	35.882	-4.64	-53.967
6450	-4.698	-54.238	-1.815	35.609	-1.815	35.609	-4.698	-54.238
6500	-4.755	-54.508	-1.785	35.339	-1.785	35.339	-4.755	-54.508
6550	-4.813	-54.776	-1.757	35.07	-1.757	35.07	-4.813	-54.776
6600	-4.871	-55.041	-1.728	34.803	-1.728	34.803	-4.871	-55.041
6650	-4.929	-55.305	-1.7	34.538	-1.7	34.538	-4.929	-55.305
6700	-4.987	-55.568	-1.673	34.274	-1.673	34.274	-4.987	-55.568
6750	-5.046	-55.828	-1.646	34.013	-1.646	34.013	-5.046	-55.828
6800	-5.104	-56.087	-1.62	33.753	-1.62	33.753	-5.104	-56.087
6850	-5.163	-56.343	-1.594	33.495	-1.594	33.495	-5.163	-56.343
6900	-5.222	-56.598	-1.568	33.239	-1.568	33.239	-5.222	-56.598
6950	-5.281	-56.852	-1.543	32.985	-1.543	32.985	-5.281	-56.852
7000	-5.341	-57.103	-1.518	32.732	-1.518	32.732	-5.341	-57.103
7050	-5.4	-57.353	-1.494	32.481	-1.494	32.481	-5.4	-57.353
7100	-5.46	-57.601	-1.47	32.232	-1.47	32.232	-5.46	-57.601
7150	-5.52	-57.848	-1.446	31.984	-1.446	31.984	-5.52	-57.848
7200	-5.58	-58.093	-1.423	31.738	-1.423	31.738	-5.58	-58.093
7250	-5.64	-58.336	-1.4	31.493	-1.4	31.493	-5.64	-58.336
7300	-5.7	-58.577	-1.377	31.251	-1.377	31.251	-5.7	-58.577
7350	-5.761	-58.817	-1.355	31.01	-1.355	31.01	-5.761	-58.817
7400	-5.821	-59.056	-1.334	30.77	-1.334	30.77	-5.821	-59.056
7450	-5.882	-59.292	-1.312	30.532	-1.312	30.532	-5.882	-59.292
7500	-5.943	-59.527	-1.291	30.295	-1.291	30.295	-5.943	-59.527
7550	-6.005	-59.761	-1.27	30.061	-1.27	30.061	-6.005	-59.761
7600	-6.066	-59.993	-1.25	29.827	-1.25	29.827	-6.066	-59.993
7650	-6.128	-60.224	-1.23	29.595	-1.23	29.595	-6.128	-60.224
7700	-6.189	-60.453	-1.21	29.365	-1.21	29.365	-6.189	-60.453
7750	-6.251	-60.68	-1.191	29.136	-1.191	29.136	-6.251	-60.68
7800	-6.314	-60.906	-1.171	28.909	-1.171	28.909	-6.314	-60.906
7850	-6.376	-61.131	-1.153	28.683	-1.153	28.683	-6.376	-61.131
7900	-6.438	-61.354	-1.134	28.458	-1.134	28.458	-6.438	-61.354
7950	-6.501	-61.575	-1.116	28.235	-1.116	28.235	-6.501	-61.575
8000	-6.564	-61.796	-1.098	28.014	-1.098	28.014	-6.564	-61.796
8050	-6.627	-62.015	-1.08	27.793	-1.08	27.793	-6.627	-62.015
8100	-6.69	-62.232	-1.063	27.575	-1.063	27.575	-6.69	-62.232
8150	-6.754	-62.448	-1.045	27.357	-1.045	27.357	-6.754	-62.448
8200	-6.817	-62.663	-1.029	27.141	-1.029	27.141	-6.817	-62.663
8250	-6.881	-62.876	-1.012	26.926	-1.012	26.926	-6.881	-62.876
8300	-6.945	-63.088	-0.996	26.713	-0.996	26.713	-6.945	-63.088
8350	-7.009	-63.299	-0.979	26.501	-0.979	26.501	-7.009	-63.299
8400	-7.074	-63.508	-0.964	26.29	-0.964	26.29	-7.074	-63.508
8450	-7.138	-63.716	-0.948	26.08	-0.948	26.08	-7.138	-63.716
8500	-7.203	-63.923	-0.932	25.872	-0.932	25.872	-7.203	-63.923
8550	-7.268	-64.128	-0.917	25.665	-0.917	25.665	-7.268	-64.128
8600	-7.333	-64.332	-0.902	25.459	-0.902	25.459	-7.333	-64.332
8650	-7.399	-64.535	-0.888	25.255	-0.888	25.255	-7.399	-64.535
8700	-7.464	-64.737	-0.873	25.051	-0.873	25.051	-7.464	-64.737
8750	-7.53	-64.937	-0.859	24.849	-0.859	24.849	-7.53	-64.937
8800	-7.596	-65.136	-0.845	24.649	-0.845	24.649	-7.596	-65.136
8850	-7.662	-65.334	-0.831	24.449	-0.831	24.449	-7.662	-65.334
8900	-7.729	-65.531	-0.817	24.25	-0.817	24.25	-7.729	-65.531
8950	-7.796	-65.727	-0.804	24.053	-0.804	24.053	-7.796	-65.727
9000	-7.863	-65.921	-0.791	23.857	-0.791	23.857	-7.863	-65.921
9050	-7.93	-66.114	-0.778	23.662	-0.778	23.662	-7.93	-66.114
9100	-7.997	-66.306	-0.765	23.468	-0.765	23.468	-7.997	-66.306
9150	-8.065	-66.497	-0.752	23.276	-0.752	23.276	-8.065	-66.497
9200	-8.132	-66.687	-0.74	23.084	-0.74	23.084	-8.132	-66.687
9250	-8.201	-66.876	-0.727	22.893	-0.727	22.893	-8.201	-66.876
9300	-8.269	-67.063	-0.715	22.704	-0.715	22.704	-8.269	-67.063
9350	-8.337	-67.25	-0.703	22.516	-0.703	22.516	-8.337	-67.25
9400	-8.406	-67.435	-0.692	22.329	-0.692	22.329	-8.406	-67.435
9450	-8.475	-67.619	-0.68	22.142	-0.68	22.142	-8.475	-67.619
9500	-8.544	-67.803	-0.669	21.957	-0.669	21.957	-8.544	-67.803
9550	-8.614	-67.985	-0.658	21.773	-0.658	21.773	-8.614	-67.985
9600	-8.684	-68.166	-0.646	21.59	-0.646	21.59	-8.684	-68.166
9650	-8.754	-68.346	-0.636	21.408	-0.636	21.408	-8.754	-68.346
9700	-8.824	-68.525	-0.625	21.227	-0.625	21.227	-8.824	-68.525
9750	-8.895	-68.703	-0.614	21.047	-0.614	21.047	-8.895	-68.703
9800	-8.966	-68.88	-0.604	20.868	-0.604	20.868	-8.966	-68.88
9850	-9.037	-69.056	-0.594	20.69	-0.594	20.69	-9.037	-69.056
9900	-9.108	-69.231	-0.584	20.513	-0.584	20.513	-9.108	-69.231
9950	-9.18	-69.405	-0.574	20.337	-0.574	20.337	-9.18	-69.405
10000	-9.252	-69.578	-0.564	20.162	-0.564	20.162	-9.252	-69.578
10050	-9.324	-69.75	-0.554	19.987	-0.554	19.987	-9.324	-69.75
10100	-9.397	-69.921	-0.545	19.814	-0.545	19.814	-9.397	-69.921
10150	-9.47	-70.091	-0.535	19.642	-0.535	19.642	-9.47	-70.091
10200	-9.543	-70.26	-0.526	19.47	-0.526	19.47	-9.543	-70.26
10250	-9.616	-70.428	-0.517	19.3	-0.517	19.3	-9.616	-70.428
10300	-9.69	-70.596	-0.508	19.13	-0.508	19.13	-9.69	-70.596
10350	-9.764	-70.762	-0.499	18.961	-0.499	18.961	-9.764	-70.762
10400	-9.838	-70.927	-0.49	18.794	-0.49	18.794	-9.838	-70.927
10450	-9.913	-71.092	-0.482	18.627	-0.482	18.627	-9.913	-71.092
10500	-9.988	-71.256	-0.473	18.461	-0.473	18.461	-9.988	-71.256
10550	-10.064	-71.418	-0.465	18.295	-0.465	18.295	-10.064	-71.418
10600	-10.139	-71.58	-0.457	18.131	-0.457	18.131	-10.139	-71.58
10650	-10.215	-71.741	-0.449	17.967	-0.449	17.967	-10.215	-71.741
10700	-10.292	-71.902	-0.441	17.805	-0.441	17.805	-10.292	-71.902
10750	-10.369	-72.061	-0.433	17.643	-0.433	17.643	-10.369	-72.061
10800	-10.446	-72.219	-0.425	17.482	-0.425	17.482	-10.446	-72.219
10850	-10.523	-72.377	-0.417	17.321	-0.417	17.321	-10.523	-72.377
10900	-10.601	-72.534	-0.41	17.162	-0.41	17.162	-10.601	-72.534
10950	-10.68	-72.689	-0.402	17.003	-0.402	17.003	-10.68	-72.689
11000	-10.758	-72.845	-0.395	16.845	-0.395	16.845	-10.758	-72.845
11050	-10.837	-72.999	-0.388	16.688	-0.388	16.688	-10.837	-72.999
11100	-10.917	-73.152	-0.381	16.532	-0.381	16.532	-10.917	-73.152
11150	-10.997	-73.305	-0.374	16.376	-0.374	16.376	-10.997	-73.305
11200	-11.077	-73.457	-0.367	16.222	-0.367	16.222	-11.077	-73.457
11250	-11.157	-73.608	-0.36	16.068	-0.36	16.068	-11.157	-73.608
11300	-11.239	-73.758	-0.354	15.914	-0.354	15.914	-11.239	-73.758
11350	-11.32	-73.907	-0.347	15.762	-0.347	15.762	-11.32	-73.907
11400	-11.402	-74.056	-0.341	15.61	-0.341	15.61	-11.402	-74.056
11450	-11.484	-74.204	-0.334	15.459	-0.334	15.459	-11.484	-74.204
11500	-11.567	-74.351	-0.328	15.308	-0.328	15.308	-11.567	-74.351
11550	-11.651	-74.498	-0.322	15.159	-0.322	15.159	-11.651	-74.498
11600	-11.734	-74.643	-0.316	15.01	-0.316	15.01	-11.734	-74.643
11650	-11.819	-74.788	-0.31	14.862	-0.31	14.862	-11.819	-74.788
11700	-11.903	-74.932	-0.304	14.714	-0.304	14.714	-11.903	-74.932
11750	-11.989	-75.076	-0.298	14.567	-0.298	14.567	-11.989	-75.076
11800	-12.074	-75.218	-0.292	14.421	-0.292	14.421	-12.074	-75.218
11850	-12.161	-75.36	-0.286	14.275	-0.286	14.275	-12.161	-75.36
11900	-12.247	-75.501	-0.281	14.131	-0.281	14.131	-12.247	-75.501
11950	-12.335	-75.642	-0.275	13.986	-0.275	13.986	-12.335	-75.642
12000	-12.422	-75.782	-0.27	13.843	-0.27	13.843	-12.422	-75.782
12050	-12.511	-75.921	-0.265	13.7	-0.265	13.7	-12.511	-75.921
12100	-12.6	-76.059	-0.259	13.558	-0.259	13.558	-12.6	-76.059
12150	-12.689	-76.197	-0.254	13.416	-0.254	13.416	-12.689	-76.197
12200	-12.779	-76.334	-0.249	13.275	-0.249	13.275	-12.779	-76.334
12250	-12.87	-76.47	-0.244	13.135	-0.244	13.135	-12.87	-76.47
12300	-12.961	-76.605	-0.239	12.995	-0.239	12.995	-12.961	-76.605
12350	-13.053	-76.74	-0.234	12.856	-0.234	12.856	-13.053	-76.74
12400	-13.146	-76.874	-0.23	12.718	-0.23	12.718	-13.146	-76.874
12450	-13.239	-77.008	-0.225	12.58	-0.225	12.58	-13.239	-77.008
12500	-13.333	-77.141	-0.22	12.442	-0.22	12.442	-13.333	-77.141
12550	-13.427	-77.273	-0.216	12.306	-0.216	12.306	-13.427	-77.273
12600	-13.522	-77.404	-0.211	12.17	-0.211	12.17	-13.522	-77.404
12650	-13.618	-77.535	-0.207	12.034	-0.207	12.034	-13.618	-77.535
12700	-13.714	-77.665	-0.203	11.899	-0.203	11.899	-13.714	-77.665
12750	-13.812	-77.795	-0.198	11.765	-0.198	11.765	-13.812	-77.795
12800	-13.91	-77.924	-0.194	11.631	-0.194	11.631	-13.91	-77.924
12850	-14.008	-78.052	-0.19	11.498	-0.19	11.498	-14.008	-78.052
12900	-14.108	-78.179	-0.186	11.365	-0.186	11.365	-14.108	-78.179
12950	-14.208	-78.306	-0.182	11.233	-0.182	11.233	-14.208	-78.306
13000	-14.309	-78.432	-0.178	11.102	-0.178	11.102	-14.309	-78.432
13050	-14.411	-78.558	-0.174	10.971	-0.174	10.971	-14.411	-78.558
13100	-14.513	-78.682	-0.17	10.84	-0.17	10.84	-14.513	-78.682
13150	-14.617	-78.807	-0.167	10.71	-0.167	10.71	-14.617	-78.807
13200	-14.721	-78.93	-0.163	10.581	-0.163	10.581	-14.721	-78.93
13250	-14.826	-79.053	-0.159	10.452	-0.159	10.452	-14.826	-79.053
13300	-14.933	-79.175	-0.156	10.324	-0.156	10.324	-14.933	-79.175
13350	-15.04	-79.297	-0.152	10.196	-0.152	10.196	-15.04	-79.297
13400	-15.148	-79.418	-0.149	10.069	-0.149	10.069	-15.148	-79.418
13450	-15.256	-79.538	-0.145	9.942	-0.145	9.942	-15.256	-79.538
13500	-15.366	-79.658	-0.142	9.815	-0.142	9.815	-15.366	-79.658
13550	-15.477	-79.777	-0.139	9.69	-0.139	9.69	-15.477	-79.777
13600	-15.589	-79.895	-0.135	9.564	-0.135	9.564	-15.589	-79.895
13650	-15.702	-80.013	-0.132	9.44	-0.132	9.44	-15.702	-80.013
13700	-15.816	-80.13	-0.129	9.315	-0.129	9.315	-15.816	-80.13
13750	-15.932	-80.247	-0.126	9.192	-0.126	9.192	-15.932	-80.247
13800	-16.048	-80.362	-0.123	9.068	-0.123	9.068	-16.048	-80.362
13850	-16.165	-80.477	-0.12	8.945	-0.12	8.945	-16.165	-80.477
13900	-16.284	-80.592	-0.117	8.823	-0.117	8.823	-16.284	-80.592
13950	-16.404	-80.706	-0.114	8.701	-0.114	8.701	-16.404	-80.706
14000	-16.525	-80.819	-0.112	8.58	-0.112	8.58	-16.525	-80.819
14050	-16.647	-80.931	-0.109	8.459	-0.109	8.459	-16.647	-80.931
14100	-16.771	-81.043	-0.106	8.338	-0.106	8.338	-16.771	-81.043
14150	-16.896	-81.154	-0.103	8.218	-0.103	8.218	-16.896	-81.154
14200	-17.023	-81.264	-0.101	8.099	-0.101	8.099	-17.023	-81.264
14250	-17.151	-81.374	-0.098	7.979	-0.098	7.979	-17.151	-81.374
14300	-17.28	-81.483	-0.096	7.861	-0.096	7.861	-17.28	-81.483
14350	-17.411	-81.591	-0.093	7.742	-0.093	7.742	-17.411	-81.591
14400	-17.543	-81.699	-0.091	7.625	-0.091	7.625	-17.543	-81.699
14450	-17.677	-81.806	-0.089	7.507	-0.089	7.507	-17.677	-81.806
14500	-17.813	-81.912	-0.086	7.39	-0.086	7.39	-17.813	-81.912
14550	-17.95	-82.018	-0.084	7.274	-0.084	7.274	-17.95	-82.018
14600	-18.089	-82.122	-0.082	7.158	-0.082	7.158	-18.089	-82.122
14650	-18.23	-82.226	-0.079	7.042	-0.079	7.042	-18.23	-82.226
14700	-18.373	-82.329	-0.077	6.927	-0.077	6.927	-18.373	-82.329
14750	-18.517	-82.432	-0.075	6.812	-0.075	6.812	-18.517	-82.432
14800	-18.664	-82.533	-0.073	6.697	-0.073	6.697	-18.664	-82.533
14850	-18.812	-82.634	-0.071	6.583	-0.071	6.583	-18.812	-82.634
14900	-18.963	-82.734	-0.069	6.47	-0.069	6.47	-18.963	-82.734
14950	-19.115	-82.833	-0.067	6.356	-0.067	6.356	-19.115	-82.833
15000	-19.27	-82.932	-0.065	6.244	-0.065	6.244	-19.27	-82.932
15050	-19.427	-83.029	-0.064	6.131	-0.064	6.131	-19.427	-83.029
15100	-19.587	-83.125	-0.062	6.019	-0.062	6.019	-19.587	-83.125
15150	-19.749	-83.221	-0.06	5.907	-0.06	5.907	-19.749	-83.221
15200	-19.914	-83.316	-0.058	5.796	-0.058	5.796	-19.914	-83.316
15250	-20.081	-83.409	-0.057	5.685	-0.057	5.685	-20.081	-83.409
15300	-20.251	-83.502	-0.055	5.575	-0.055	5.575	-20.251	-83.502
15350	-20.423	-83.593	-0.053	5.465	-0.053	5.465	-20.423	-83.593
15400	-20.599	-83.684	-0.052	5.355	-0.052	5.355	-20.599	-83.684
15450	-20.778	-83.773	-0.05	5.245	-0.05	5.245	-20.778	-83.773
15500	-20.96	-83.862	-0.049	5.136	-0.049	5.136	-20.96	-83.862
15550	-21.145	-83.949	-0.047	5.028	-0.047	5.028	-21.145	-83.949
15600	-21.333	-84.035	-0.046	4.92	-0.046	4.92	-21.333	-84.035
15650	-21.525	-84.119	-0.044	4.812	-0.044	4.812	-21.525	-84.119
