!	AVX	Thin	Film	Operation	
!
!	Date:	March 2012		
!
!	Description: Ultra-Miniature 01005 Size ACCU - P® Thin Film RF / Microwave Capacitor
!
!	Part Number:  C005YK0R9ABSTR	
!								
!	Serial	Measurements						
!
# MHZ S MA R 50

50 1 -1.62 0.028 88.322 0.028 88.322 1 -1.62
100 0.998 -3.237 0.056 86.703 0.056 86.703 0.998 -3.237
150 0.996 -4.849 0.085 85.089 0.085 85.089 0.996 -4.849
200 0.994 -6.454 0.112 83.482 0.112 83.482 0.994 -6.454
250 0.99 -8.05 0.14 81.885 0.14 81.885 0.99 -8.05
300 0.986 -9.634 0.167 80.299 0.167 80.299 0.986 -9.634
350 0.981 -11.205 0.194 78.726 0.194 78.726 0.981 -11.205
400 0.975 -12.76 0.221 77.17 0.221 77.17 0.975 -12.76
450 0.969 -14.298 0.247 75.63 0.247 75.63 0.969 -14.298
500 0.962 -15.817 0.273 74.11 0.273 74.11 0.962 -15.817
550 0.954 -17.315 0.298 72.61 0.298 72.61 0.954 -17.315
600 0.946 -18.792 0.322 71.132 0.322 71.132 0.946 -18.792
650 0.938 -20.245 0.346 69.677 0.346 69.677 0.938 -20.245
700 0.929 -21.673 0.369 68.246 0.369 68.246 0.929 -21.673
750 0.919 -23.077 0.392 66.841 0.392 66.841 0.919 -23.077
800 0.91 -24.454 0.414 65.462 0.414 65.462 0.91 -24.454
850 0.9 -25.805 0.435 64.11 0.435 64.11 0.9 -25.805
900 0.889 -27.129 0.456 62.784 0.456 62.784 0.889 -27.129
950 0.879 -28.425 0.476 61.487 0.476 61.487 0.879 -28.425
1000 0.868 -29.693 0.495 60.217 0.495 60.217 0.868 -29.693
1050 0.857 -30.933 0.514 58.975 0.514 58.975 0.857 -30.933
1100 0.846 -32.145 0.532 57.761 0.532 57.761 0.846 -32.145
1150 0.835 -33.329 0.549 56.576 0.549 56.576 0.835 -33.329
1200 0.823 -34.485 0.566 55.418 0.566 55.418 0.823 -34.485
1250 0.812 -35.613 0.582 54.288 0.582 54.288 0.812 -35.613
1300 0.801 -36.714 0.598 53.185 0.598 53.185 0.801 -36.714
1350 0.789 -37.788 0.613 52.109 0.613 52.109 0.789 -37.788
1400 0.778 -38.835 0.627 51.06 0.627 51.06 0.778 -38.835
1450 0.766 -39.856 0.641 50.037 0.641 50.037 0.766 -39.856
1500 0.755 -40.851 0.654 49.04 0.654 49.04 0.755 -40.851
1550 0.744 -41.821 0.667 48.068 0.667 48.068 0.744 -41.821
1600 0.733 -42.767 0.679 47.121 0.679 47.121 0.733 -42.767
1650 0.722 -43.688 0.691 46.198 0.691 46.198 0.722 -43.688
1700 0.711 -44.585 0.702 45.299 0.702 45.299 0.711 -44.585
1750 0.7 -45.459 0.713 44.423 0.713 44.423 0.7 -45.459
1800 0.689 -46.311 0.723 43.569 0.723 43.569 0.689 -46.311
1850 0.679 -47.142 0.733 42.737 0.733 42.737 0.679 -47.142
1900 0.668 -47.95 0.743 41.926 0.743 41.926 0.668 -47.95
1950 0.658 -48.739 0.752 41.136 0.752 41.136 0.658 -48.739
2000 0.648 -49.507 0.76 40.366 0.76 40.366 0.648 -49.507
2050 0.638 -50.255 0.769 39.615 0.769 39.615 0.638 -50.255
2100 0.628 -50.985 0.777 38.883 0.777 38.883 0.628 -50.985
2150 0.618 -51.696 0.785 38.17 0.785 38.17 0.618 -51.696
2200 0.608 -52.39 0.792 37.474 0.792 37.474 0.608 -52.39
2250 0.599 -53.066 0.799 36.796 0.799 36.796 0.599 -53.066
2300 0.59 -53.726 0.806 36.134 0.806 36.134 0.59 -53.726
2350 0.581 -54.369 0.813 35.489 0.813 35.489 0.581 -54.369
2400 0.572 -54.997 0.819 34.859 0.819 34.859 0.572 -54.997
2450 0.563 -55.609 0.825 34.245 0.825 34.245 0.563 -55.609
2500 0.554 -56.207 0.831 33.645 0.831 33.645 0.554 -56.207
2550 0.546 -56.79 0.837 33.059 0.837 33.059 0.546 -56.79
2600 0.537 -57.36 0.842 32.487 0.842 32.487 0.537 -57.36
2650 0.529 -57.916 0.847 31.929 0.847 31.929 0.529 -57.916
2700 0.521 -58.46 0.852 31.383 0.852 31.383 0.521 -58.46
2750 0.513 -58.99 0.857 30.85 0.857 30.85 0.513 -58.99
2800 0.505 -59.509 0.862 30.329 0.862 30.329 0.505 -59.509
2850 0.497 -60.016 0.866 29.82 0.866 29.82 0.497 -60.016
2900 0.49 -60.511 0.87 29.322 0.87 29.322 0.49 -60.511
2950 0.482 -60.996 0.875 28.835 0.875 28.835 0.482 -60.996
3000 0.475 -61.47 0.879 28.359 0.879 28.359 0.475 -61.47
3050 0.468 -61.933 0.882 27.893 0.882 27.893 0.468 -61.933
3100 0.461 -62.387 0.886 27.437 0.886 27.437 0.461 -62.387
3150 0.454 -62.83 0.89 26.991 0.89 26.991 0.454 -62.83
3200 0.447 -63.265 0.893 26.554 0.893 26.554 0.447 -63.265
3250 0.44 -63.69 0.896 26.126 0.896 26.126 0.44 -63.69
3300 0.434 -64.107 0.9 25.707 0.9 25.707 0.434 -64.107
3350 0.427 -64.514 0.903 25.296 0.903 25.296 0.427 -64.514
3400 0.421 -64.914 0.906 24.894 0.906 24.894 0.421 -64.914
3450 0.415 -65.306 0.909 24.5 0.909 24.5 0.415 -65.306
3500 0.409 -65.689 0.911 24.114 0.911 24.114 0.409 -65.689
3550 0.403 -66.065 0.914 23.735 0.914 23.735 0.403 -66.065
3600 0.397 -66.434 0.917 23.363 0.917 23.363 0.397 -66.434
3650 0.391 -66.796 0.919 22.999 0.919 22.999 0.391 -66.796
3700 0.385 -67.151 0.922 22.641 0.922 22.641 0.385 -67.151
3750 0.379 -67.499 0.924 22.29 0.924 22.29 0.379 -67.499
3800 0.374 -67.841 0.926 21.945 0.926 21.945 0.374 -67.841
3850 0.368 -68.176 0.928 21.607 0.928 21.607 0.368 -68.176
3900 0.363 -68.505 0.93 21.275 0.93 21.275 0.363 -68.505
3950 0.358 -68.828 0.933 20.949 0.933 20.949 0.358 -68.828
4000 0.352 -69.145 0.934 20.629 0.934 20.629 0.352 -69.145
4050 0.347 -69.457 0.936 20.314 0.936 20.314 0.347 -69.457
4100 0.342 -69.763 0.938 20.004 0.938 20.004 0.342 -69.763
4150 0.337 -70.064 0.94 19.7 0.94 19.7 0.337 -70.064
4200 0.332 -70.36 0.942 19.401 0.942 19.401 0.332 -70.36
4250 0.327 -70.651 0.944 19.107 0.944 19.107 0.327 -70.651
4300 0.323 -70.937 0.945 18.818 0.945 18.818 0.323 -70.937
4350 0.318 -71.218 0.947 18.534 0.947 18.534 0.318 -71.218
4400 0.313 -71.494 0.948 18.254 0.948 18.254 0.313 -71.494
4450 0.309 -71.766 0.95 17.978 0.95 17.978 0.309 -71.766
4500 0.304 -72.033 0.951 17.707 0.951 17.707 0.304 -72.033
4550 0.3 -72.297 0.953 17.441 0.953 17.441 0.3 -72.297
4600 0.295 -72.556 0.954 17.178 0.954 17.178 0.295 -72.556
4650 0.291 -72.811 0.955 16.919 0.955 16.919 0.291 -72.811
4700 0.287 -73.062 0.957 16.664 0.957 16.664 0.287 -73.062
4750 0.283 -73.309 0.958 16.414 0.958 16.414 0.283 -73.309
4800 0.278 -73.552 0.959 16.166 0.959 16.166 0.278 -73.552
4850 0.274 -73.792 0.96 15.923 0.96 15.923 0.274 -73.792
4900 0.27 -74.028 0.961 15.682 0.961 15.682 0.27 -74.028
4950 0.266 -74.261 0.963 15.446 0.963 15.446 0.266 -74.261
5000 0.262 -74.49 0.964 15.212 0.964 15.212 0.262 -74.49
5050 0.259 -74.716 0.965 14.982 0.965 14.982 0.259 -74.716
5100 0.255 -74.938 0.966 14.755 0.966 14.755 0.255 -74.938
5150 0.251 -75.158 0.967 14.531 0.967 14.531 0.251 -75.158
5200 0.247 -75.374 0.968 14.311 0.968 14.311 0.247 -75.374
5250 0.243 -75.588 0.969 14.093 0.969 14.093 0.243 -75.588
5300 0.24 -75.798 0.969 13.878 0.969 13.878 0.24 -75.798
5350 0.236 -76.006 0.97 13.666 0.97 13.666 0.236 -76.006
5400 0.233 -76.21 0.971 13.456 0.971 13.456 0.233 -76.21
5450 0.229 -76.412 0.972 13.249 0.972 13.249 0.229 -76.412
5500 0.226 -76.611 0.973 13.045 0.973 13.045 0.226 -76.611
5550 0.222 -76.808 0.974 12.844 0.974 12.844 0.222 -76.808
5600 0.219 -77.002 0.974 12.644 0.974 12.644 0.219 -77.002
5650 0.216 -77.193 0.975 12.448 0.975 12.448 0.216 -77.193
5700 0.212 -77.382 0.976 12.253 0.976 12.253 0.212 -77.382
5750 0.209 -77.569 0.977 12.061 0.977 12.061 0.209 -77.569
5800 0.206 -77.753 0.977 11.872 0.977 11.872 0.206 -77.753
5850 0.203 -77.935 0.978 11.684 0.978 11.684 0.203 -77.935
5900 0.199 -78.114 0.979 11.499 0.979 11.499 0.199 -78.114
5950 0.196 -78.291 0.979 11.316 0.979 11.316 0.196 -78.291
6000 0.193 -78.466 0.98 11.135 0.98 11.135 0.193 -78.466
6050 0.19 -78.639 0.98 10.956 0.98 10.956 0.19 -78.639
6100 0.187 -78.81 0.981 10.778 0.981 10.778 0.187 -78.81
6150 0.184 -78.979 0.982 10.603 0.982 10.603 0.184 -78.979
6200 0.181 -79.145 0.982 10.43 0.982 10.43 0.181 -79.145
6250 0.178 -79.31 0.983 10.259 0.983 10.259 0.178 -79.31
6300 0.175 -79.473 0.983 10.089 0.983 10.089 0.175 -79.473
6350 0.172 -79.633 0.984 9.921 0.984 9.921 0.172 -79.633
6400 0.169 -79.792 0.984 9.755 0.984 9.755 0.169 -79.792
6450 0.167 -79.949 0.985 9.591 0.985 9.591 0.167 -79.949
6500 0.164 -80.104 0.985 9.428 0.985 9.428 0.164 -80.104
6550 0.161 -80.257 0.986 9.267 0.986 9.267 0.161 -80.257
6600 0.158 -80.408 0.986 9.108 0.986 9.108 0.158 -80.408
6650 0.156 -80.558 0.986 8.95 0.986 8.95 0.156 -80.558
6700 0.153 -80.706 0.987 8.794 0.987 8.794 0.153 -80.706
6750 0.15 -80.852 0.987 8.639 0.987 8.639 0.15 -80.852
6800 0.148 -80.996 0.988 8.486 0.988 8.486 0.148 -80.996
6850 0.145 -81.139 0.988 8.334 0.988 8.334 0.145 -81.139
6900 0.142 -81.28 0.988 8.183 0.988 8.183 0.142 -81.28
6950 0.14 -81.419 0.989 8.034 0.989 8.034 0.14 -81.419
7000 0.137 -81.557 0.989 7.887 0.989 7.887 0.137 -81.557
7050 0.135 -81.693 0.99 7.74 0.99 7.74 0.135 -81.693
7100 0.132 -81.828 0.99 7.595 0.99 7.595 0.132 -81.828
7150 0.13 -81.96 0.99 7.452 0.99 7.452 0.13 -81.96
7200 0.127 -82.092 0.991 7.309 0.991 7.309 0.127 -82.092
7250 0.125 -82.221 0.991 7.168 0.991 7.168 0.125 -82.221
7300 0.122 -82.349 0.991 7.028 0.991 7.028 0.122 -82.349
7350 0.12 -82.476 0.991 6.889 0.991 6.889 0.12 -82.476
7400 0.118 -82.601 0.992 6.752 0.992 6.752 0.118 -82.601
7450 0.115 -82.724 0.992 6.615 0.992 6.615 0.115 -82.724
7500 0.113 -82.846 0.992 6.48 0.992 6.48 0.113 -82.846
7550 0.111 -82.966 0.993 6.346 0.993 6.346 0.111 -82.966
7600 0.108 -83.085 0.993 6.213 0.993 6.213 0.108 -83.085
7650 0.106 -83.202 0.993 6.081 0.993 6.081 0.106 -83.202
7700 0.104 -83.317 0.993 5.95 0.993 5.95 0.104 -83.317
7750 0.101 -83.431 0.994 5.82 0.994 5.82 0.101 -83.431
7800 0.099 -83.543 0.994 5.691 0.994 5.691 0.099 -83.543
7850 0.097 -83.654 0.994 5.563 0.994 5.563 0.097 -83.654
7900 0.095 -83.763 0.994 5.436 0.994 5.436 0.095 -83.763
7950 0.093 -83.87 0.994 5.31 0.994 5.31 0.093 -83.87
8000 0.09 -83.976 0.995 5.185 0.995 5.185 0.09 -83.976
8050 0.088 -84.08 0.995 5.061 0.995 5.061 0.088 -84.08
8100 0.086 -84.182 0.995 4.938 0.995 4.938 0.086 -84.182
8150 0.084 -84.282 0.995 4.815 0.995 4.815 0.084 -84.282
8200 0.082 -84.38 0.995 4.694 0.995 4.694 0.082 -84.38
8250 0.08 -84.476 0.995 4.573 0.995 4.573 0.08 -84.476
8300 0.078 -84.571 0.996 4.454 0.996 4.454 0.078 -84.571
8350 0.076 -84.663 0.996 4.335 0.996 4.335 0.076 -84.663
8400 0.074 -84.753 0.996 4.217 0.996 4.217 0.074 -84.753
8450 0.071 -84.841 0.996 4.099 0.996 4.099 0.071 -84.841
8500 0.069 -84.927 0.996 3.983 0.996 3.983 0.069 -84.927
8550 0.067 -85.01 0.996 3.867 0.996 3.867 0.067 -85.01
8600 0.065 -85.091 0.997 3.753 0.997 3.753 0.065 -85.091
8650 0.063 -85.169 0.997 3.638 0.997 3.638 0.063 -85.169
8700 0.062 -85.244 0.997 3.525 0.997 3.525 0.062 -85.244
8750 0.06 -85.317 0.997 3.412 0.997 3.412 0.06 -85.317
8800 0.058 -85.386 0.997 3.301 0.997 3.301 0.058 -85.386
8850 0.056 -85.451 0.997 3.189 0.997 3.189 0.056 -85.451
8900 0.054 -85.513 0.997 3.079 0.997 3.079 0.054 -85.513
8950 0.052 -85.571 0.997 2.969 0.997 2.969 0.052 -85.571
9000 0.05 -85.625 0.997 2.86 0.997 2.86 0.05 -85.625
9050 0.048 -85.674 0.998 2.752 0.998 2.752 0.048 -85.674
9100 0.046 -85.718 0.998 2.644 0.998 2.644 0.046 -85.718
9150 0.044 -85.756 0.998 2.537 0.998 2.537 0.044 -85.756
9200 0.042 -85.788 0.998 2.43 0.998 2.43 0.042 -85.788
9250 0.041 -85.813 0.998 2.325 0.998 2.325 0.041 -85.813
9300 0.039 -85.83 0.998 2.219 0.998 2.219 0.039 -85.83
9350 0.037 -85.839 0.998 2.115 0.998 2.115 0.037 -85.839
9400 0.035 -85.837 0.998 2.011 0.998 2.011 0.035 -85.837
9450 0.033 -85.824 0.998 1.907 0.998 1.907 0.033 -85.824
9500 0.032 -85.798 0.998 1.805 0.998 1.805 0.032 -85.798
9550 0.03 -85.757 0.998 1.702 0.998 1.702 0.03 -85.757
9600 0.028 -85.698 0.998 1.601 0.998 1.601 0.028 -85.698
9650 0.026 -85.617 0.998 1.5 0.998 1.5 0.026 -85.617
9700 0.024 -85.511 0.998 1.399 0.998 1.399 0.024 -85.511
9750 0.023 -85.374 0.998 1.299 0.998 1.299 0.023 -85.374
9800 0.021 -85.198 0.998 1.2 0.998 1.2 0.021 -85.198
9850 0.019 -84.975 0.998 1.101 0.998 1.101 0.019 -84.975
9900 0.018 -84.689 0.999 1.002 0.999 1.002 0.018 -84.689
9950 0.016 -84.323 0.999 0.904 0.999 0.904 0.016 -84.323
10000 0.014 -83.848 0.999 0.807 0.999 0.807 0.014 -83.848
10050 0.012 -83.221 0.999 0.71 0.999 0.71 0.012 -83.221
10100 0.011 -82.373 0.999 0.614 0.999 0.614 0.011 -82.373
10150 9.133e-3 -81.187 0.999 0.518 0.999 0.518 9.133e-3 -81.187
10200 7.489e-3 -79.445 0.999 0.422 0.999 0.422 7.489e-3 -79.445
10250 5.865e-3 -76.69 0.999 0.327 0.999 0.327 5.865e-3 -76.69
10300 4.274e-3 -71.814 0.999 0.233 0.999 0.233 4.274e-3 -71.814
10350 2.76e-3 -61.349 0.999 0.139 0.999 0.139 2.76e-3 -61.349
10400 1.537e-3 -30.978 0.999 0.045 0.999 0.045 1.537e-3 -30.978
10450 1.559e-3 32.245 0.999 -0.048 0.999 -0.048 1.559e-3 32.245
10500 2.782e-3 61.59 0.999 -0.14 0.999 -0.14 2.782e-3 61.59
10550 4.268e-3 71.787 0.999 -0.233 0.999 -0.233 4.268e-3 71.787
10600 5.813e-3 76.576 0.999 -0.324 0.999 -0.324 5.813e-3 76.576
10650 7.375e-3 79.293 0.999 -0.416 0.999 -0.416 7.375e-3 79.293
10700 8.942e-3 81.019 0.999 -0.507 0.999 -0.507 8.942e-3 81.019
10750 0.011 82.199 0.999 -0.597 0.999 -0.597 0.011 82.199
10800 0.012 83.045 0.999 -0.687 0.999 -0.687 0.012 83.045
10850 0.014 83.674 0.999 -0.777 0.999 -0.777 0.014 83.674
10900 0.015 84.153 0.999 -0.866 0.999 -0.866 0.015 84.153
10950 0.017 84.526 0.999 -0.955 0.999 -0.955 0.017 84.526
11000 0.018 84.819 0.999 -1.044 0.999 -1.044 0.018 84.819
11050 0.02 85.052 0.998 -1.132 0.998 -1.132 0.02 85.052
11100 0.021 85.238 0.998 -1.22 0.998 -1.22 0.021 85.238
11150 0.023 85.386 0.998 -1.307 0.998 -1.307 0.023 85.386
11200 0.024 85.505 0.998 -1.394 0.998 -1.394 0.024 85.505
11250 0.026 85.599 0.998 -1.481 0.998 -1.481 0.026 85.599
11300 0.027 85.673 0.998 -1.567 0.998 -1.567 0.027 85.673
11350 0.029 85.731 0.998 -1.653 0.998 -1.653 0.029 85.731
11400 0.03 85.773 0.998 -1.739 0.998 -1.739 0.03 85.773
11450 0.032 85.804 0.998 -1.824 0.998 -1.824 0.032 85.804
11500 0.033 85.824 0.998 -1.909 0.998 -1.909 0.033 85.824
11550 0.035 85.836 0.998 -1.993 0.998 -1.993 0.035 85.836
11600 0.036 85.839 0.998 -2.078 0.998 -2.078 0.036 85.839
11650 0.038 85.836 0.998 -2.161 0.998 -2.161 0.038 85.836
11700 0.039 85.827 0.998 -2.245 0.998 -2.245 0.039 85.827
11750 0.041 85.812 0.998 -2.328 0.998 -2.328 0.041 85.812
11800 0.042 85.793 0.998 -2.411 0.998 -2.411 0.042 85.793
11850 0.044 85.77 0.998 -2.494 0.998 -2.494 0.044 85.77
11900 0.045 85.743 0.998 -2.576 0.998 -2.576 0.045 85.743
11950 0.046 85.712 0.998 -2.658 0.998 -2.658 0.046 85.712
12000 0.048 85.679 0.998 -2.74 0.998 -2.74 0.048 85.679
12050 0.049 85.643 0.997 -2.821 0.997 -2.821 0.049 85.643
12100 0.051 85.605 0.997 -2.902 0.997 -2.902 0.051 85.605
12150 0.052 85.564 0.997 -2.983 0.997 -2.983 0.052 85.564
12200 0.053 85.522 0.997 -3.063 0.997 -3.063 0.053 85.522
12250 0.055 85.478 0.997 -3.143 0.997 -3.143 0.055 85.478
12300 0.056 85.432 0.997 -3.223 0.997 -3.223 0.056 85.432
12350 0.058 85.384 0.997 -3.303 0.997 -3.303 0.058 85.384
12400 0.059 85.336 0.997 -3.382 0.997 -3.382 0.059 85.336
12450 0.06 85.286 0.997 -3.461 0.997 -3.461 0.06 85.286
12500 0.062 85.235 0.997 -3.54 0.997 -3.54 0.062 85.235
12550 0.063 85.183 0.997 -3.619 0.997 -3.619 0.063 85.183
12600 0.064 85.13 0.997 -3.697 0.997 -3.697 0.064 85.13
12650 0.066 85.076 0.997 -3.775 0.997 -3.775 0.066 85.076
12700 0.067 85.021 0.996 -3.853 0.996 -3.853 0.067 85.021
12750 0.069 84.966 0.996 -3.93 0.996 -3.93 0.069 84.966
12800 0.07 84.91 0.996 -4.007 0.996 -4.007 0.07 84.91
12850 0.071 84.853 0.996 -4.084 0.996 -4.084 0.071 84.853
12900 0.073 84.796 0.996 -4.161 0.996 -4.161 0.073 84.796
12950 0.074 84.738 0.996 -4.237 0.996 -4.237 0.074 84.738
13000 0.075 84.68 0.996 -4.313 0.996 -4.313 0.075 84.68
13050 0.077 84.621 0.996 -4.389 0.996 -4.389 0.077 84.621
13100 0.078 84.562 0.996 -4.465 0.996 -4.465 0.078 84.562
13150 0.079 84.502 0.996 -4.54 0.996 -4.54 0.079 84.502
13200 0.08 84.443 0.995 -4.616 0.995 -4.616 0.08 84.443
13250 0.082 84.383 0.995 -4.691 0.995 -4.691 0.082 84.383
13300 0.083 84.322 0.995 -4.765 0.995 -4.765 0.083 84.322
13350 0.084 84.262 0.995 -4.84 0.995 -4.84 0.084 84.262
13400 0.086 84.201 0.995 -4.914 0.995 -4.914 0.086 84.201
13450 0.087 84.14 0.995 -4.988 0.995 -4.988 0.087 84.14
13500 0.088 84.078 0.995 -5.062 0.995 -5.062 0.088 84.078
13550 0.09 84.017 0.995 -5.136 0.995 -5.136 0.09 84.017
13600 0.091 83.955 0.995 -5.209 0.995 -5.209 0.091 83.955
13650 0.092 83.894 0.994 -5.282 0.994 -5.282 0.092 83.894
13700 0.093 83.832 0.994 -5.355 0.994 -5.355 0.093 83.832
13750 0.095 83.77 0.994 -5.428 0.994 -5.428 0.095 83.77
13800 0.096 83.707 0.994 -5.501 0.994 -5.501 0.096 83.707
13850 0.097 83.645 0.994 -5.573 0.994 -5.573 0.097 83.645
13900 0.098 83.583 0.994 -5.645 0.994 -5.645 0.098 83.583
13950 0.1 83.521 0.994 -5.717 0.994 -5.717 0.1 83.521
14000 0.101 83.458 0.994 -5.789 0.994 -5.789 0.101 83.458
14050 0.102 83.396 0.993 -5.86 0.993 -5.86 0.102 83.396
14100 0.103 83.333 0.993 -5.932 0.993 -5.932 0.103 83.333
14150 0.105 83.271 0.993 -6.003 0.993 -6.003 0.105 83.271
14200 0.106 83.208 0.993 -6.074 0.993 -6.074 0.106 83.208
14250 0.107 83.145 0.993 -6.145 0.993 -6.145 0.107 83.145
14300 0.108 83.083 0.993 -6.215 0.993 -6.215 0.108 83.083
14350 0.109 83.02 0.993 -6.285 0.993 -6.285 0.109 83.02
14400 0.111 82.957 0.993 -6.356 0.993 -6.356 0.111 82.957
14450 0.112 82.895 0.992 -6.426 0.992 -6.426 0.112 82.895
14500 0.113 82.832 0.992 -6.495 0.992 -6.495 0.113 82.832
14550 0.114 82.77 0.992 -6.565 0.992 -6.565 0.114 82.77
14600 0.116 82.707 0.992 -6.634 0.992 -6.634 0.116 82.707
14650 0.117 82.644 0.992 -6.704 0.992 -6.704 0.117 82.644
14700 0.118 82.582 0.992 -6.773 0.992 -6.773 0.118 82.582
14750 0.119 82.519 0.992 -6.842 0.992 -6.842 0.119 82.519
14800 0.12 82.457 0.991 -6.91 0.991 -6.91 0.12 82.457
14850 0.122 82.394 0.991 -6.979 0.991 -6.979 0.122 82.394
14900 0.123 82.332 0.991 -7.047 0.991 -7.047 0.123 82.332
14950 0.124 82.269 0.991 -7.116 0.991 -7.116 0.124 82.269
15000 0.125 82.207 0.991 -7.184 0.991 -7.184 0.125 82.207
15050 0.126 82.145 0.991 -7.252 0.991 -7.252 0.126 82.145
15100 0.127 82.083 0.991 -7.319 0.991 -7.319 0.127 82.083
15150 0.129 82.02 0.99 -7.387 0.99 -7.387 0.129 82.02
15200 0.13 81.958 0.99 -7.454 0.99 -7.454 0.13 81.958
15250 0.131 81.896 0.99 -7.521 0.99 -7.521 0.131 81.896
15300 0.132 81.834 0.99 -7.588 0.99 -7.588 0.132 81.834
15350 0.133 81.772 0.99 -7.655 0.99 -7.655 0.133 81.772
15400 0.134 81.71 0.99 -7.722 0.99 -7.722 0.134 81.71
15450 0.136 81.648 0.989 -7.789 0.989 -7.789 0.136 81.648
15500 0.137 81.587 0.989 -7.855 0.989 -7.855 0.137 81.587
15550 0.138 81.525 0.989 -7.921 0.989 -7.921 0.138 81.525
15600 0.139 81.463 0.989 -7.988 0.989 -7.988 0.139 81.463
15650 0.14 81.402 0.989 -8.053 0.989 -8.053 0.14 81.402
15700 0.141 81.34 0.989 -8.119 0.989 -8.119 0.141 81.34
15750 0.142 81.279 0.988 -8.185 0.988 -8.185 0.142 81.279
15800 0.144 81.217 0.988 -8.25 0.988 -8.25 0.144 81.217
15850 0.145 81.156 0.988 -8.316 0.988 -8.316 0.145 81.156
15900 0.146 81.095 0.988 -8.381 0.988 -8.381 0.146 81.095
15950 0.147 81.033 0.988 -8.446 0.988 -8.446 0.147 81.033
16000 0.148 80.972 0.988 -8.511 0.988 -8.511 0.148 80.972
16050 0.149 80.911 0.987 -8.576 0.987 -8.576 0.149 80.911
16100 0.15 80.85 0.987 -8.641 0.987 -8.641 0.15 80.85
16150 0.151 80.79 0.987 -8.705 0.987 -8.705 0.151 80.79
16200 0.152 80.729 0.987 -8.769 0.987 -8.769 0.152 80.729
16250 0.154 80.668 0.987 -8.834 0.987 -8.834 0.154 80.668
16300 0.155 80.608 0.987 -8.898 0.987 -8.898 0.155 80.608
16350 0.156 80.547 0.986 -8.962 0.986 -8.962 0.156 80.547
16400 0.157 80.487 0.986 -9.026 0.986 -9.026 0.157 80.487
16450 0.158 80.426 0.986 -9.089 0.986 -9.089 0.158 80.426
16500 0.159 80.366 0.986 -9.153 0.986 -9.153 0.159 80.366
16550 0.16 80.306 0.986 -9.216 0.986 -9.216 0.16 80.306
16600 0.161 80.245 0.986 -9.279 0.986 -9.279 0.161 80.245
16650 0.162 80.185 0.985 -9.343 0.985 -9.343 0.162 80.185
16700 0.163 80.125 0.985 -9.406 0.985 -9.406 0.163 80.125
16750 0.165 80.066 0.985 -9.469 0.985 -9.469 0.165 80.066
16800 0.166 80.006 0.985 -9.531 0.985 -9.531 0.166 80.006
16850 0.167 79.946 0.985 -9.594 0.985 -9.594 0.167 79.946
16900 0.168 79.886 0.984 -9.656 0.984 -9.656 0.168 79.886
16950 0.169 79.827 0.984 -9.719 0.984 -9.719 0.169 79.827
17000 0.17 79.767 0.984 -9.781 0.984 -9.781 0.17 79.767
17050 0.171 79.708 0.984 -9.843 0.984 -9.843 0.171 79.708
17100 0.172 79.649 0.984 -9.905 0.984 -9.905 0.172 79.649
17150 0.173 79.589 0.984 -9.967 0.984 -9.967 0.173 79.589
17200 0.174 79.53 0.983 -10.029 0.983 -10.029 0.174 79.53
