!	AVX	Thin	Film	Operation	
!
!	Date:	March 2012		
!
!	Description: Ultra-Miniature 01005 Size ACCU - P® Thin Film RF / Microwave Capacitor
!
!	Part Number:  C005YK1R8ABSTR	
!								
!	Serial	Measurements						
!								
#	MHz	S	db	R	50			
!	S11	S21	S12	S22				
!	dB	Phase	dB	Phase	dB	Phase	dB	Phase
50	-0.015	-3.236	-24.966	86.689	-24.966	86.689	-0.015	-3.236
74.937	-0.032	-4.844	-21.468	85.073	-21.468	85.073	-0.032	-4.844
99.875	-0.057	-6.444	-18.997	83.464	-18.997	83.464	-0.057	-6.444
124.812	-0.088	-8.035	-17.091	81.865	-17.091	81.865	-0.088	-8.035
149.749	-0.126	-9.613	-15.546	80.278	-15.546	80.278	-0.126	-9.613
174.687	-0.17	-11.177	-14.251	78.705	-14.251	78.705	-0.17	-11.177
199.624	-0.22	-12.725	-13.141	77.149	-13.141	77.149	-0.22	-12.725
224.561	-0.277	-14.254	-12.174	75.611	-12.174	75.611	-0.277	-14.254
249.499	-0.339	-15.763	-11.319	74.093	-11.319	74.093	-0.339	-15.763
274.436	-0.407	-17.251	-10.558	72.597	-10.558	72.597	-0.407	-17.251
299.373	-0.48	-18.715	-9.874	71.124	-9.874	71.124	-0.48	-18.715
324.311	-0.558	-20.155	-9.255	69.675	-9.255	69.675	-0.558	-20.155
349.248	-0.641	-21.57	-8.692	68.251	-8.692	68.251	-0.641	-21.57
374.185	-0.729	-22.958	-8.177	66.854	-8.177	66.854	-0.729	-22.958
399.123	-0.821	-24.319	-7.706	65.485	-7.706	65.485	-0.821	-24.319
424.06	-0.916	-25.652	-7.272	64.143	-7.272	64.143	-0.916	-25.652
448.997	-1.016	-26.957	-6.872	62.829	-6.872	62.829	-1.016	-26.957
473.935	-1.118	-28.233	-6.502	61.545	-6.502	61.545	-1.118	-28.233
498.872	-1.224	-29.48	-6.158	60.289	-6.158	60.289	-1.224	-29.48
523.81	-1.333	-30.698	-5.84	59.062	-5.84	59.062	-1.333	-30.698
548.747	-1.444	-31.887	-5.543	57.864	-5.543	57.864	-1.444	-31.887
573.684	-1.558	-33.047	-5.267	56.696	-5.267	56.696	-1.558	-33.047
598.622	-1.674	-34.177	-5.009	55.556	-5.009	55.556	-1.674	-34.177
623.559	-1.792	-35.28	-4.768	54.445	-4.768	54.445	-1.792	-35.28
648.496	-1.912	-36.354	-4.542	53.362	-4.542	53.362	-1.912	-36.354
673.434	-2.033	-37.4	-4.331	52.307	-4.331	52.307	-2.033	-37.4
698.371	-2.156	-38.418	-4.132	51.28	-4.132	51.28	-2.156	-38.418
723.308	-2.279	-39.41	-3.946	50.279	-3.946	50.279	-2.279	-39.41
748.246	-2.404	-40.375	-3.771	49.305	-3.771	49.305	-2.404	-40.375
773.183	-2.53	-41.315	-3.606	48.357	-3.606	48.357	-2.53	-41.315
798.12	-2.656	-42.229	-3.451	47.434	-3.451	47.434	-2.656	-42.229
823.058	-2.783	-43.118	-3.305	46.535	-3.305	46.535	-2.783	-43.118
847.995	-2.911	-43.983	-3.167	45.661	-3.167	45.661	-2.911	-43.983
872.932	-3.039	-44.824	-3.037	44.811	-3.037	44.811	-3.039	-44.824
897.87	-3.167	-45.643	-2.914	43.983	-2.914	43.983	-3.167	-45.643
922.807	-3.295	-46.44	-2.797	43.177	-2.797	43.177	-3.295	-46.44
947.744	-3.424	-47.214	-2.687	42.393	-2.687	42.393	-3.424	-47.214
972.682	-3.552	-47.968	-2.583	41.63	-2.583	41.63	-3.552	-47.968
997.619	-3.681	-48.702	-2.484	40.888	-2.484	40.888	-3.681	-48.702
1022.556	-3.809	-49.415	-2.39	40.165	-2.39	40.165	-3.809	-49.415
1047.494	-3.937	-50.11	-2.301	39.461	-2.301	39.461	-3.937	-50.11
1072.431	-4.064	-50.786	-2.216	38.776	-2.216	38.776	-4.064	-50.786
1097.368	-4.192	-51.443	-2.136	38.109	-2.136	38.109	-4.192	-51.443
1122.306	-4.319	-52.084	-2.059	37.46	-2.059	37.46	-4.319	-52.084
1147.243	-4.445	-52.707	-1.986	36.827	-1.986	36.827	-4.445	-52.707
1172.18	-4.572	-53.314	-1.917	36.21	-1.917	36.21	-4.572	-53.314
1197.118	-4.697	-53.906	-1.851	35.61	-1.851	35.61	-4.697	-53.906
1222.055	-4.823	-54.481	-1.788	35.024	-1.788	35.024	-4.823	-54.481
1246.992	-4.947	-55.043	-1.728	34.454	-1.728	34.454	-4.947	-55.043
1271.93	-5.071	-55.589	-1.67	33.898	-1.67	33.898	-5.071	-55.589
1296.867	-5.195	-56.122	-1.616	33.355	-1.616	33.355	-5.195	-56.122
1321.805	-5.318	-56.641	-1.563	32.826	-1.563	32.826	-5.318	-56.641
1346.742	-5.441	-57.148	-1.513	32.31	-1.513	32.31	-5.441	-57.148
1371.679	-5.562	-57.641	-1.465	31.807	-1.465	31.807	-5.562	-57.641
1396.617	-5.684	-58.123	-1.42	31.316	-1.42	31.316	-5.684	-58.123
1421.554	-5.804	-58.593	-1.376	30.836	-1.376	30.836	-5.804	-58.593
1446.491	-5.924	-59.051	-1.334	30.368	-1.334	30.368	-5.924	-59.051
1471.429	-6.043	-59.498	-1.293	29.911	-1.293	29.911	-6.043	-59.498
1496.366	-6.162	-59.935	-1.255	29.465	-1.255	29.465	-6.162	-59.935
1521.303	-6.28	-60.361	-1.218	29.029	-1.218	29.029	-6.28	-60.361
1546.241	-6.398	-60.777	-1.182	28.603	-1.182	28.603	-6.398	-60.777
1571.178	-6.514	-61.184	-1.148	28.186	-1.148	28.186	-6.514	-61.184
1596.115	-6.63	-61.581	-1.115	27.779	-1.115	27.779	-6.63	-61.581
1621.053	-6.746	-61.969	-1.083	27.381	-1.083	27.381	-6.746	-61.969
1645.99	-6.861	-62.348	-1.053	26.992	-1.053	26.992	-6.861	-62.348
1670.927	-6.975	-62.718	-1.024	26.611	-1.024	26.611	-6.975	-62.718
1695.865	-7.089	-63.081	-0.996	26.239	-0.996	26.239	-7.089	-63.081
1720.802	-7.202	-63.435	-0.968	25.875	-0.968	25.875	-7.202	-63.435
1745.739	-7.314	-63.781	-0.942	25.518	-0.942	25.518	-7.314	-63.781
1770.677	-7.426	-64.12	-0.917	25.169	-0.917	25.169	-7.426	-64.12
1795.614	-7.537	-64.452	-0.893	24.827	-0.893	24.827	-7.537	-64.452
1820.551	-7.647	-64.776	-0.87	24.492	-0.87	24.492	-7.647	-64.776
1845.489	-7.757	-65.094	-0.847	24.164	-0.847	24.164	-7.757	-65.094
1870.426	-7.867	-65.405	-0.825	23.842	-0.825	23.842	-7.867	-65.405
1895.363	-7.976	-65.709	-0.804	23.527	-0.804	23.527	-7.976	-65.709
1920.301	-8.084	-66.007	-0.784	23.219	-0.784	23.219	-8.084	-66.007
1945.238	-8.192	-66.299	-0.765	22.916	-0.765	22.916	-8.192	-66.299
1970.175	-8.299	-66.585	-0.746	22.619	-0.746	22.619	-8.299	-66.585
1995.113	-8.405	-66.865	-0.727	22.328	-0.727	22.328	-8.405	-66.865
2020.05	-8.512	-67.14	-0.71	22.043	-0.71	22.043	-8.512	-67.14
2044.987	-8.617	-67.409	-0.692	21.763	-0.692	21.763	-8.617	-67.409
2069.925	-8.722	-67.673	-0.676	21.488	-0.676	21.488	-8.722	-67.673
2094.862	-8.827	-67.932	-0.66	21.218	-0.66	21.218	-8.827	-67.932
2119.799	-8.931	-68.186	-0.644	20.953	-0.644	20.953	-8.931	-68.186
2144.737	-9.035	-68.434	-0.629	20.693	-0.629	20.693	-9.035	-68.434
2169.674	-9.138	-68.678	-0.615	20.438	-0.615	20.438	-9.138	-68.678
2194.612	-9.24	-68.918	-0.601	20.187	-0.601	20.187	-9.24	-68.918
2219.549	-9.343	-69.153	-0.587	19.941	-0.587	19.941	-9.343	-69.153
2244.486	-9.444	-69.383	-0.574	19.699	-0.574	19.699	-9.444	-69.383
2269.424	-9.546	-69.61	-0.561	19.461	-0.561	19.461	-9.546	-69.61
2294.361	-9.647	-69.832	-0.548	19.227	-0.548	19.227	-9.647	-69.832
2319.298	-9.747	-70.05	-0.536	18.997	-0.536	18.997	-9.747	-70.05
2344.236	-9.847	-70.264	-0.525	18.771	-0.525	18.771	-9.847	-70.264
2369.173	-9.947	-70.475	-0.513	18.549	-0.513	18.549	-9.947	-70.475
2394.11	-10.046	-70.681	-0.502	18.331	-0.502	18.331	-10.046	-70.681
2419.048	-10.145	-70.884	-0.491	18.116	-0.491	18.116	-10.145	-70.884
2443.985	-10.244	-71.084	-0.481	17.904	-0.481	17.904	-10.244	-71.084
2468.922	-10.342	-71.28	-0.471	17.696	-0.471	17.696	-10.342	-71.28
2493.86	-10.44	-71.472	-0.461	17.491	-0.461	17.491	-10.44	-71.472
2518.797	-10.537	-71.662	-0.451	17.29	-0.451	17.29	-10.537	-71.662
2543.734	-10.635	-71.848	-0.442	17.091	-0.442	17.091	-10.635	-71.848
2568.672	-10.731	-72.031	-0.433	16.896	-0.433	16.896	-10.731	-72.031
2593.609	-10.828	-72.21	-0.424	16.704	-0.424	16.704	-10.828	-72.21
2618.546	-10.924	-72.387	-0.415	16.514	-0.415	16.514	-10.924	-72.387
2643.484	-11.02	-72.561	-0.407	16.328	-0.407	16.328	-11.02	-72.561
2668.421	-11.116	-72.732	-0.399	16.144	-0.399	16.144	-11.116	-72.732
2693.358	-11.211	-72.901	-0.391	15.963	-0.391	15.963	-11.211	-72.901
2718.296	-11.306	-73.066	-0.383	15.784	-0.383	15.784	-11.306	-73.066
2743.233	-11.401	-73.229	-0.376	15.608	-0.376	15.608	-11.401	-73.229
2768.17	-11.496	-73.389	-0.368	15.435	-0.368	15.435	-11.496	-73.389
2793.108	-11.59	-73.547	-0.361	15.264	-0.361	15.264	-11.59	-73.547
2818.045	-11.685	-73.702	-0.354	15.095	-0.354	15.095	-11.685	-73.702
2842.982	-11.778	-73.855	-0.348	14.929	-0.348	14.929	-11.778	-73.855
2867.92	-11.872	-74.005	-0.341	14.765	-0.341	14.765	-11.872	-74.005
2892.857	-11.966	-74.153	-0.335	14.603	-0.335	14.603	-11.966	-74.153
2917.794	-12.059	-74.299	-0.328	14.444	-0.328	14.444	-12.059	-74.299
2942.732	-12.152	-74.442	-0.322	14.286	-0.322	14.286	-12.152	-74.442
2967.669	-12.245	-74.583	-0.316	14.131	-0.316	14.131	-12.245	-74.583
2992.607	-12.338	-74.722	-0.31	13.978	-0.31	13.978	-12.338	-74.722
3017.544	-12.43	-74.859	-0.305	13.827	-0.305	13.827	-12.43	-74.859
3042.481	-12.523	-74.994	-0.299	13.677	-0.299	13.677	-12.523	-74.994
3067.419	-12.615	-75.127	-0.294	13.53	-0.294	13.53	-12.615	-75.127
3092.356	-12.707	-75.258	-0.288	13.384	-0.288	13.384	-12.707	-75.258
3117.293	-12.799	-75.386	-0.283	13.241	-0.283	13.241	-12.799	-75.386
3142.231	-12.891	-75.513	-0.278	13.099	-0.278	13.099	-12.891	-75.513
3167.168	-12.983	-75.638	-0.273	12.959	-0.273	12.959	-12.983	-75.638
3192.105	-13.074	-75.762	-0.268	12.82	-0.268	12.82	-13.074	-75.762
3217.043	-13.166	-75.883	-0.264	12.684	-0.264	12.684	-13.166	-75.883
3241.98	-13.257	-76.003	-0.259	12.549	-0.259	12.549	-13.257	-76.003
3266.917	-13.349	-76.12	-0.255	12.415	-0.255	12.415	-13.349	-76.12
3291.855	-13.44	-76.237	-0.25	12.283	-0.25	12.283	-13.44	-76.237
3316.792	-13.531	-76.351	-0.246	12.153	-0.246	12.153	-13.531	-76.351
3341.729	-13.622	-76.464	-0.242	12.024	-0.242	12.024	-13.622	-76.464
3366.667	-13.713	-76.575	-0.238	11.897	-0.238	11.897	-13.713	-76.575
3391.604	-13.804	-76.684	-0.234	11.771	-0.234	11.771	-13.804	-76.684
3416.541	-13.895	-76.792	-0.23	11.646	-0.23	11.646	-13.895	-76.792
3441.479	-13.986	-76.899	-0.226	11.523	-0.226	11.523	-13.986	-76.899
3466.416	-14.077	-77.003	-0.222	11.402	-0.222	11.402	-14.077	-77.003
3491.353	-14.168	-77.107	-0.218	11.281	-0.218	11.281	-14.168	-77.107
3516.291	-14.259	-77.209	-0.215	11.162	-0.215	11.162	-14.259	-77.209
3541.228	-14.35	-77.309	-0.211	11.044	-0.211	11.044	-14.35	-77.309
3566.165	-14.441	-77.408	-0.208	10.928	-0.208	10.928	-14.441	-77.408
3591.103	-14.532	-77.505	-0.204	10.813	-0.204	10.813	-14.532	-77.505
3616.04	-14.623	-77.601	-0.201	10.699	-0.201	10.699	-14.623	-77.601
3640.977	-14.714	-77.696	-0.198	10.586	-0.198	10.586	-14.714	-77.696
3665.915	-14.805	-77.789	-0.195	10.474	-0.195	10.474	-14.805	-77.789
3690.852	-14.896	-77.881	-0.192	10.364	-0.192	10.364	-14.896	-77.881
3715.789	-14.987	-77.972	-0.189	10.254	-0.189	10.254	-14.987	-77.972
3740.727	-15.078	-78.061	-0.186	10.146	-0.186	10.146	-15.078	-78.061
3765.664	-15.169	-78.149	-0.183	10.039	-0.183	10.039	-15.169	-78.149
3790.602	-15.26	-78.236	-0.18	9.933	-0.18	9.933	-15.26	-78.236
3815.539	-15.352	-78.322	-0.177	9.827	-0.177	9.827	-15.352	-78.322
3840.476	-15.443	-78.406	-0.174	9.723	-0.174	9.723	-15.443	-78.406
3865.414	-15.535	-78.489	-0.172	9.62	-0.172	9.62	-15.535	-78.489
3890.351	-15.626	-78.571	-0.169	9.518	-0.169	9.518	-15.626	-78.571
3915.288	-15.718	-78.651	-0.167	9.417	-0.167	9.417	-15.718	-78.651
3940.226	-15.81	-78.731	-0.164	9.317	-0.164	9.317	-15.81	-78.731
3965.163	-15.902	-78.809	-0.162	9.218	-0.162	9.218	-15.902	-78.809
3990.1	-15.994	-78.886	-0.159	9.12	-0.159	9.12	-15.994	-78.886
4015.038	-16.087	-78.962	-0.157	9.022	-0.157	9.022	-16.087	-78.962
4039.975	-16.179	-79.036	-0.155	8.926	-0.155	8.926	-16.179	-79.036
4064.912	-16.272	-79.11	-0.152	8.83	-0.152	8.83	-16.272	-79.11
4089.85	-16.365	-79.182	-0.15	8.735	-0.15	8.735	-16.365	-79.182
4114.787	-16.458	-79.254	-0.148	8.642	-0.148	8.642	-16.458	-79.254
4139.724	-16.551	-79.324	-0.146	8.549	-0.146	8.549	-16.551	-79.324
4164.662	-16.644	-79.393	-0.144	8.456	-0.144	8.456	-16.644	-79.393
4189.599	-16.738	-79.461	-0.142	8.365	-0.142	8.365	-16.738	-79.461
4214.536	-16.832	-79.528	-0.14	8.274	-0.14	8.274	-16.832	-79.528
4239.474	-16.926	-79.593	-0.138	8.184	-0.138	8.184	-16.926	-79.593
4264.411	-17.02	-79.658	-0.136	8.095	-0.136	8.095	-17.02	-79.658
4289.348	-17.114	-79.722	-0.134	8.007	-0.134	8.007	-17.114	-79.722
4314.286	-17.209	-79.784	-0.132	7.919	-0.132	7.919	-17.209	-79.784
4339.223	-17.304	-79.845	-0.13	7.833	-0.13	7.833	-17.304	-79.845
4364.16	-17.4	-79.906	-0.128	7.746	-0.128	7.746	-17.4	-79.906
4389.098	-17.495	-79.965	-0.126	7.661	-0.126	7.661	-17.495	-79.965
4414.035	-17.591	-80.023	-0.125	7.576	-0.125	7.576	-17.591	-80.023
4438.972	-17.687	-80.081	-0.123	7.492	-0.123	7.492	-17.687	-80.081
4463.91	-17.784	-80.137	-0.121	7.409	-0.121	7.409	-17.784	-80.137
4488.847	-17.881	-80.192	-0.12	7.326	-0.12	7.326	-17.881	-80.192
4513.784	-17.978	-80.246	-0.118	7.244	-0.118	7.244	-17.978	-80.246
4538.722	-18.075	-80.299	-0.117	7.163	-0.117	7.163	-18.075	-80.299
4563.659	-18.173	-80.351	-0.115	7.082	-0.115	7.082	-18.173	-80.351
4588.596	-18.271	-80.401	-0.114	7.002	-0.114	7.002	-18.271	-80.401
4613.534	-18.37	-80.451	-0.112	6.922	-0.112	6.922	-18.37	-80.451
4638.471	-18.469	-80.5	-0.111	6.843	-0.111	6.843	-18.469	-80.5
4663.409	-18.568	-80.547	-0.109	6.765	-0.109	6.765	-18.568	-80.547
4688.346	-18.668	-80.594	-0.108	6.687	-0.108	6.687	-18.668	-80.594
4713.283	-18.768	-80.64	-0.106	6.61	-0.106	6.61	-18.768	-80.64
4738.221	-18.869	-80.684	-0.105	6.533	-0.105	6.533	-18.869	-80.684
4763.158	-18.97	-80.727	-0.104	6.457	-0.104	6.457	-18.97	-80.727
4788.095	-19.072	-80.77	-0.102	6.381	-0.102	6.381	-19.072	-80.77
4813.033	-19.174	-80.811	-0.101	6.306	-0.101	6.306	-19.174	-80.811
4837.97	-19.276	-80.851	-0.1	6.232	-0.1	6.232	-19.276	-80.851
4862.907	-19.379	-80.89	-0.099	6.158	-0.099	6.158	-19.379	-80.89
4887.845	-19.483	-80.928	-0.098	6.084	-0.098	6.084	-19.483	-80.928
4912.782	-19.587	-80.965	-0.096	6.011	-0.096	6.011	-19.587	-80.965
4937.719	-19.691	-81	-0.095	5.939	-0.095	5.939	-19.691	-81
4962.657	-19.796	-81.035	-0.094	5.867	-0.094	5.867	-19.796	-81.035
4987.594	-19.902	-81.068	-0.093	5.796	-0.093	5.796	-19.902	-81.068
5012.531	-20.008	-81.1	-0.092	5.725	-0.092	5.725	-20.008	-81.1
5037.469	-20.115	-81.131	-0.091	5.654	-0.091	5.654	-20.115	-81.131
5062.406	-20.223	-81.161	-0.09	5.584	-0.09	5.584	-20.223	-81.161
5087.343	-20.331	-81.19	-0.089	5.515	-0.089	5.515	-20.331	-81.19
5112.281	-20.44	-81.217	-0.088	5.446	-0.088	5.446	-20.44	-81.217
5137.218	-20.549	-81.243	-0.087	5.377	-0.087	5.377	-20.549	-81.243
5162.155	-20.66	-81.268	-0.086	5.309	-0.086	5.309	-20.66	-81.268
5187.093	-20.77	-81.292	-0.085	5.241	-0.085	5.241	-20.77	-81.292
5212.03	-20.882	-81.314	-0.084	5.174	-0.084	5.174	-20.882	-81.314
5236.967	-20.994	-81.335	-0.083	5.107	-0.083	5.107	-20.994	-81.335
5261.905	-21.107	-81.355	-0.082	5.04	-0.082	5.04	-21.107	-81.355
5286.842	-21.221	-81.373	-0.081	4.974	-0.081	4.974	-21.221	-81.373
5311.779	-21.336	-81.39	-0.08	4.908	-0.08	4.908	-21.336	-81.39
5336.717	-21.451	-81.406	-0.079	4.843	-0.079	4.843	-21.451	-81.406
5361.654	-21.568	-81.42	-0.079	4.778	-0.079	4.778	-21.568	-81.42
5386.591	-21.685	-81.433	-0.078	4.714	-0.078	4.714	-21.685	-81.433
5411.529	-21.803	-81.444	-0.077	4.65	-0.077	4.65	-21.803	-81.444
5436.466	-21.922	-81.453	-0.076	4.586	-0.076	4.586	-21.922	-81.453
5461.404	-22.042	-81.461	-0.075	4.523	-0.075	4.523	-22.042	-81.461
5486.341	-22.163	-81.468	-0.075	4.46	-0.075	4.46	-22.163	-81.468
5511.278	-22.285	-81.473	-0.074	4.397	-0.074	4.397	-22.285	-81.473
5536.216	-22.408	-81.476	-0.073	4.335	-0.073	4.335	-22.408	-81.476
5561.153	-22.532	-81.477	-0.073	4.273	-0.073	4.273	-22.532	-81.477
5586.09	-22.657	-81.477	-0.072	4.212	-0.072	4.212	-22.657	-81.477
5611.028	-22.783	-81.475	-0.071	4.15	-0.071	4.15	-22.783	-81.475
5635.965	-22.91	-81.471	-0.07	4.09	-0.07	4.09	-22.91	-81.471
5660.902	-23.039	-81.465	-0.07	4.029	-0.07	4.029	-23.039	-81.465
5685.84	-23.168	-81.457	-0.069	3.969	-0.069	3.969	-23.168	-81.457
5710.777	-23.299	-81.448	-0.069	3.909	-0.069	3.909	-23.299	-81.448
5735.714	-23.431	-81.436	-0.068	3.85	-0.068	3.85	-23.431	-81.436
5760.652	-23.565	-81.422	-0.067	3.79	-0.067	3.79	-23.565	-81.422
5785.589	-23.7	-81.405	-0.067	3.731	-0.067	3.731	-23.7	-81.405
5810.526	-23.836	-81.387	-0.066	3.673	-0.066	3.673	-23.836	-81.387
5835.464	-23.973	-81.366	-0.066	3.615	-0.066	3.615	-23.973	-81.366
5860.401	-24.113	-81.342	-0.065	3.557	-0.065	3.557	-24.113	-81.342
5885.338	-24.253	-81.316	-0.065	3.499	-0.065	3.499	-24.253	-81.316
5910.276	-24.395	-81.288	-0.064	3.442	-0.064	3.442	-24.395	-81.288
5935.213	-24.539	-81.257	-0.063	3.385	-0.063	3.385	-24.539	-81.257
5960.15	-24.684	-81.223	-0.063	3.328	-0.063	3.328	-24.684	-81.223
5985.088	-24.831	-81.186	-0.062	3.272	-0.062	3.272	-24.831	-81.186
6010.025	-24.98	-81.146	-0.062	3.215	-0.062	3.215	-24.98	-81.146
6034.962	-25.131	-81.103	-0.062	3.159	-0.062	3.159	-25.131	-81.103
6059.9	-25.283	-81.056	-0.061	3.104	-0.061	3.104	-25.283	-81.056
6084.837	-25.438	-81.006	-0.061	3.049	-0.061	3.049	-25.438	-81.006
6109.774	-25.594	-80.953	-0.06	2.993	-0.06	2.993	-25.594	-80.953
6134.712	-25.753	-80.896	-0.06	2.939	-0.06	2.939	-25.753	-80.896
6159.649	-25.914	-80.834	-0.059	2.884	-0.059	2.884	-25.914	-80.834
6184.586	-26.076	-80.769	-0.059	2.83	-0.059	2.83	-26.076	-80.769
6209.524	-26.242	-80.7	-0.058	2.776	-0.058	2.776	-26.242	-80.7
6234.461	-26.409	-80.626	-0.058	2.722	-0.058	2.722	-26.409	-80.626
6259.398	-26.579	-80.547	-0.058	2.669	-0.058	2.669	-26.579	-80.547
6284.336	-26.751	-80.464	-0.057	2.615	-0.057	2.615	-26.751	-80.464
6309.273	-26.926	-80.375	-0.057	2.562	-0.057	2.562	-26.926	-80.375
6334.211	-27.104	-80.281	-0.057	2.51	-0.057	2.51	-27.104	-80.281
6359.148	-27.285	-80.181	-0.056	2.457	-0.056	2.457	-27.285	-80.181
6384.085	-27.468	-80.075	-0.056	2.405	-0.056	2.405	-27.468	-80.075
6409.023	-27.655	-79.963	-0.056	2.353	-0.056	2.353	-27.655	-79.963
6433.96	-27.845	-79.844	-0.055	2.301	-0.055	2.301	-27.845	-79.844
6458.897	-28.038	-79.718	-0.055	2.249	-0.055	2.249	-28.038	-79.718
6483.835	-28.234	-79.584	-0.055	2.198	-0.055	2.198	-28.234	-79.584
6508.772	-28.434	-79.442	-0.054	2.147	-0.054	2.147	-28.434	-79.442
6533.709	-28.638	-79.292	-0.054	2.096	-0.054	2.096	-28.638	-79.292
6558.647	-28.846	-79.132	-0.054	2.045	-0.054	2.045	-28.846	-79.132
6583.584	-29.057	-78.963	-0.054	1.995	-0.054	1.995	-29.057	-78.963
6608.521	-29.273	-78.784	-0.053	1.945	-0.053	1.945	-29.273	-78.784
6633.459	-29.494	-78.594	-0.053	1.895	-0.053	1.895	-29.494	-78.594
6658.396	-29.718	-78.392	-0.053	1.845	-0.053	1.845	-29.718	-78.392
6683.333	-29.948	-78.177	-0.053	1.795	-0.053	1.795	-29.948	-78.177
6708.271	-30.183	-77.948	-0.052	1.746	-0.052	1.746	-30.183	-77.948
6733.208	-30.423	-77.705	-0.052	1.697	-0.052	1.697	-30.423	-77.705
6758.145	-30.669	-77.447	-0.052	1.648	-0.052	1.648	-30.669	-77.447
6783.083	-30.92	-77.171	-0.052	1.599	-0.052	1.599	-30.92	-77.171
6808.02	-31.178	-76.877	-0.051	1.55	-0.051	1.55	-31.178	-76.877
6832.957	-31.442	-76.563	-0.051	1.502	-0.051	1.502	-31.442	-76.563
6857.895	-31.712	-76.227	-0.051	1.454	-0.051	1.454	-31.712	-76.227
6882.832	-31.99	-75.868	-0.051	1.406	-0.051	1.406	-31.99	-75.868
6907.769	-32.276	-75.483	-0.051	1.358	-0.051	1.358	-32.276	-75.483
6932.707	-32.569	-75.07	-0.051	1.31	-0.051	1.31	-32.569	-75.07
6957.644	-32.871	-74.625	-0.05	1.263	-0.05	1.263	-32.871	-74.625
6982.581	-33.182	-74.147	-0.05	1.215	-0.05	1.215	-33.182	-74.147
7007.519	-33.503	-73.631	-0.05	1.168	-0.05	1.168	-33.503	-73.631
7032.456	-33.833	-73.073	-0.05	1.121	-0.05	1.121	-33.833	-73.073
7057.393	-34.174	-72.47	-0.05	1.075	-0.05	1.075	-34.174	-72.47
7082.331	-34.527	-71.814	-0.05	1.028	-0.05	1.028	-34.527	-71.814
7107.268	-34.891	-71.101	-0.05	0.982	-0.05	0.982	-34.891	-71.101
7132.206	-35.268	-70.323	-0.049	0.936	-0.049	0.936	-35.268	-70.323
7157.143	-35.659	-69.472	-0.049	0.89	-0.049	0.89	-35.659	-69.472
7182.08	-36.064	-68.538	-0.049	0.844	-0.049	0.844	-36.064	-68.538
7207.018	-36.485	-67.51	-0.049	0.798	-0.049	0.798	-36.485	-67.51
7231.955	-36.922	-66.375	-0.049	0.752	-0.049	0.752	-36.922	-66.375
7256.892	-37.376	-65.117	-0.049	0.707	-0.049	0.707	-37.376	-65.117
7281.83	-37.848	-63.717	-0.049	0.662	-0.049	0.662	-37.848	-63.717
7306.767	-38.339	-62.154	-0.049	0.617	-0.049	0.617	-38.339	-62.154
7331.704	-38.849	-60.4	-0.049	0.572	-0.049	0.572	-38.849	-60.4
7356.642	-39.379	-58.425	-0.049	0.527	-0.049	0.527	-39.379	-58.425
7381.579	-39.928	-56.19	-0.049	0.483	-0.049	0.483	-39.928	-56.19
7406.516	-40.496	-53.65	-0.049	0.438	-0.049	0.438	-40.496	-53.65
7431.454	-41.079	-50.755	-0.048	0.394	-0.048	0.394	-41.079	-50.755
