!	AVX	Thin	Film	Operation	
!
!	Date:	March 2012		
!
!	Description: Ultra-Miniature 01005 Size ACCU - P® Thin Film RF / Microwave Capacitor
!
!	Part Number:  C005YJ0R5ABSTR	
!								
!	Serial	Measurements						
!
# MHZ S MA R 50

50 1 -0.9 0.016 89.042 0.016 89.042 1 -0.9
100 0.999 -1.799 0.031 88.141 0.031 88.141 0.999 -1.799
150 0.999 -2.698 0.047 87.242 0.047 87.242 0.999 -2.698
200 0.998 -3.596 0.063 86.343 0.063 86.343 0.998 -3.596
250 0.997 -4.492 0.078 85.446 0.078 85.446 0.997 -4.492
300 0.995 -5.386 0.094 84.551 0.094 84.551 0.995 -5.386
350 0.994 -6.278 0.109 83.659 0.109 83.659 0.994 -6.278
400 0.992 -7.167 0.125 82.768 0.125 82.768 0.992 -7.167
450 0.99 -8.054 0.14 81.881 0.14 81.881 0.99 -8.054
500 0.988 -8.937 0.155 80.997 0.155 80.997 0.988 -8.937
550 0.985 -9.816 0.17 80.117 0.17 80.117 0.985 -9.816
600 0.982 -10.692 0.186 79.24 0.186 79.24 0.982 -10.692
650 0.979 -11.563 0.2 78.368 0.2 78.368 0.979 -11.563
700 0.976 -12.43 0.215 77.501 0.215 77.501 0.976 -12.43
750 0.973 -13.291 0.23 76.638 0.23 76.638 0.973 -13.291
800 0.969 -14.148 0.244 75.78 0.244 75.78 0.969 -14.148
850 0.966 -14.999 0.259 74.928 0.259 74.928 0.966 -14.999
900 0.962 -15.845 0.273 74.082 0.273 74.082 0.962 -15.845
950 0.958 -16.684 0.287 73.241 0.287 73.241 0.958 -16.684
1000 0.953 -17.518 0.301 72.407 0.301 72.407 0.953 -17.518
1050 0.949 -18.345 0.315 71.578 0.315 71.578 0.949 -18.345
1100 0.944 -19.166 0.328 70.757 0.328 70.757 0.944 -19.166
1150 0.939 -19.979 0.342 69.942 0.342 69.942 0.939 -19.979
1200 0.934 -20.786 0.355 69.134 0.355 69.134 0.934 -20.786
1250 0.929 -21.586 0.368 68.334 0.368 68.334 0.929 -21.586
1300 0.924 -22.378 0.381 67.54 0.381 67.54 0.924 -22.378
1350 0.919 -23.163 0.393 66.754 0.393 66.754 0.919 -23.163
1400 0.913 -23.941 0.406 65.976 0.406 65.976 0.913 -23.941
1450 0.908 -24.71 0.418 65.205 0.418 65.205 0.908 -24.71
1500 0.902 -25.472 0.43 64.442 0.43 64.442 0.902 -25.472
1550 0.896 -26.226 0.442 63.687 0.442 63.687 0.896 -26.226
1600 0.891 -26.973 0.454 62.94 0.454 62.94 0.891 -26.973
1650 0.885 -27.711 0.465 62.201 0.465 62.201 0.885 -27.711
1700 0.879 -28.441 0.476 61.47 0.476 61.47 0.879 -28.441
1750 0.872 -29.163 0.487 60.747 0.487 60.747 0.872 -29.163
1800 0.866 -29.877 0.498 60.032 0.498 60.032 0.866 -29.877
1850 0.86 -30.582 0.509 59.325 0.509 59.325 0.86 -30.582
1900 0.854 -31.28 0.519 58.627 0.519 58.627 0.854 -31.28
1950 0.847 -31.969 0.529 57.937 0.529 57.937 0.847 -31.969
2000 0.841 -32.65 0.54 57.255 0.54 57.255 0.841 -32.65
2050 0.835 -33.322 0.549 56.581 0.549 56.581 0.835 -33.322
2100 0.828 -33.987 0.559 55.915 0.559 55.915 0.828 -33.987
2150 0.822 -34.643 0.568 55.258 0.568 55.258 0.822 -34.643
2200 0.815 -35.291 0.578 54.609 0.578 54.609 0.815 -35.291
2250 0.809 -35.931 0.587 53.968 0.587 53.968 0.809 -35.931
2300 0.802 -36.563 0.596 53.335 0.596 53.335 0.802 -36.563
2350 0.796 -37.187 0.604 52.71 0.604 52.71 0.796 -37.187
2400 0.789 -37.803 0.613 52.093 0.613 52.093 0.789 -37.803
2450 0.782 -38.411 0.621 51.484 0.621 51.484 0.782 -38.411
2500 0.776 -39.011 0.629 50.883 0.629 50.883 0.776 -39.011
2550 0.769 -39.603 0.637 50.289 0.637 50.289 0.769 -39.603
2600 0.763 -40.188 0.645 49.704 0.645 49.704 0.763 -40.188
2650 0.756 -40.764 0.653 49.126 0.653 49.126 0.756 -40.764
2700 0.75 -41.334 0.66 48.555 0.66 48.555 0.75 -41.334
2750 0.743 -41.895 0.668 47.992 0.668 47.992 0.743 -41.895
2800 0.737 -42.45 0.675 47.437 0.675 47.437 0.737 -42.45
2850 0.73 -42.996 0.682 46.889 0.682 46.889 0.73 -42.996
2900 0.724 -43.536 0.689 46.348 0.689 46.348 0.724 -43.536
2950 0.717 -44.068 0.696 45.814 0.696 45.814 0.717 -44.068
3000 0.711 -44.594 0.702 45.288 0.702 45.288 0.711 -44.594
3050 0.704 -45.112 0.708 44.768 0.708 44.768 0.704 -45.112
3100 0.698 -45.623 0.715 44.256 0.715 44.256 0.698 -45.623
3150 0.692 -46.128 0.721 43.75 0.721 43.75 0.692 -46.128
3200 0.685 -46.626 0.727 43.251 0.727 43.251 0.685 -46.626
3250 0.679 -47.117 0.733 42.758 0.733 42.758 0.679 -47.117
3300 0.673 -47.602 0.738 42.273 0.738 42.273 0.673 -47.602
3350 0.666 -48.08 0.744 41.793 0.744 41.793 0.666 -48.08
3400 0.66 -48.552 0.75 41.32 0.75 41.32 0.66 -48.552
3450 0.654 -49.017 0.755 40.853 0.755 40.853 0.654 -49.017
3500 0.648 -49.477 0.76 40.393 0.76 40.393 0.648 -49.477
3550 0.642 -49.93 0.765 39.938 0.765 39.938 0.642 -49.93
3600 0.636 -50.377 0.77 39.489 0.77 39.489 0.636 -50.377
3650 0.63 -50.819 0.775 39.047 0.775 39.047 0.63 -50.819
3700 0.624 -51.254 0.78 38.61 0.78 38.61 0.624 -51.254
3750 0.618 -51.684 0.785 38.178 0.785 38.178 0.618 -51.684
3800 0.612 -52.108 0.789 37.753 0.789 37.753 0.612 -52.108
3850 0.606 -52.527 0.794 37.333 0.794 37.333 0.606 -52.527
3900 0.601 -52.94 0.798 36.918 0.798 36.918 0.601 -52.94
3950 0.595 -53.348 0.802 36.509 0.802 36.509 0.595 -53.348
4000 0.589 -53.751 0.806 36.105 0.806 36.105 0.589 -53.751
4050 0.584 -54.148 0.811 35.706 0.811 35.706 0.584 -54.148
4100 0.578 -54.541 0.815 35.312 0.815 35.312 0.578 -54.541
4150 0.572 -54.928 0.818 34.923 0.818 34.923 0.572 -54.928
4200 0.567 -55.311 0.822 34.539 0.822 34.539 0.567 -55.311
4250 0.562 -55.688 0.826 34.16 0.826 34.16 0.562 -55.688
4300 0.556 -56.061 0.83 33.786 0.83 33.786 0.556 -56.061
4350 0.551 -56.429 0.833 33.416 0.833 33.416 0.551 -56.429
4400 0.545 -56.793 0.837 33.051 0.837 33.051 0.545 -56.793
4450 0.54 -57.152 0.84 32.69 0.84 32.69 0.54 -57.152
4500 0.535 -57.507 0.843 32.334 0.843 32.334 0.535 -57.507
4550 0.53 -57.857 0.847 31.982 0.847 31.982 0.53 -57.857
4600 0.525 -58.203 0.85 31.635 0.85 31.635 0.525 -58.203
4650 0.519 -58.545 0.853 31.292 0.853 31.292 0.519 -58.545
4700 0.514 -58.882 0.856 30.952 0.856 30.952 0.514 -58.882
4750 0.509 -59.216 0.859 30.617 0.859 30.617 0.509 -59.216
4800 0.504 -59.545 0.862 30.286 0.862 30.286 0.504 -59.545
4850 0.499 -59.871 0.865 29.959 0.865 29.959 0.499 -59.871
4900 0.494 -60.193 0.868 29.636 0.868 29.636 0.494 -60.193
4950 0.49 -60.511 0.87 29.316 0.87 29.316 0.49 -60.511
5000 0.485 -60.825 0.873 29 0.873 29 0.485 -60.825
5050 0.48 -61.135 0.876 28.688 0.876 28.688 0.48 -61.135
5100 0.475 -61.442 0.878 28.379 0.878 28.379 0.475 -61.442
5150 0.471 -61.745 0.881 28.074 0.881 28.074 0.471 -61.745
5200 0.466 -62.045 0.883 27.773 0.883 27.773 0.466 -62.045
5250 0.461 -62.342 0.886 27.474 0.886 27.474 0.461 -62.342
5300 0.457 -62.635 0.888 27.18 0.888 27.18 0.457 -62.635
5350 0.452 -62.924 0.89 26.888 0.89 26.888 0.452 -62.924
5400 0.448 -63.211 0.893 26.6 0.893 26.6 0.448 -63.211
5450 0.443 -63.494 0.895 26.315 0.895 26.315 0.443 -63.494
5500 0.439 -63.774 0.897 26.033 0.897 26.033 0.439 -63.774
5550 0.435 -64.051 0.899 25.754 0.899 25.754 0.435 -64.051
5600 0.43 -64.325 0.901 25.478 0.901 25.478 0.43 -64.325
5650 0.426 -64.596 0.903 25.205 0.903 25.205 0.426 -64.596
5700 0.422 -64.865 0.905 24.935 0.905 24.935 0.422 -64.865
5750 0.417 -65.13 0.907 24.668 0.907 24.668 0.417 -65.13
5800 0.413 -65.392 0.909 24.403 0.909 24.403 0.413 -65.392
5850 0.409 -65.652 0.911 24.142 0.911 24.142 0.409 -65.652
5900 0.405 -65.909 0.913 23.883 0.913 23.883 0.405 -65.909
5950 0.401 -66.163 0.915 23.627 0.915 23.627 0.401 -66.163
6000 0.397 -66.414 0.916 23.373 0.916 23.373 0.397 -66.414
6050 0.393 -66.663 0.918 23.122 0.918 23.122 0.393 -66.663
6100 0.389 -66.909 0.92 22.874 0.92 22.874 0.389 -66.909
6150 0.385 -67.153 0.922 22.628 0.922 22.628 0.385 -67.153
6200 0.381 -67.394 0.923 22.384 0.923 22.384 0.381 -67.394
6250 0.377 -67.633 0.925 22.143 0.925 22.143 0.377 -67.633
6300 0.373 -67.869 0.926 21.905 0.926 21.905 0.373 -67.869
6350 0.369 -68.103 0.928 21.668 0.928 21.668 0.369 -68.103
6400 0.365 -68.335 0.929 21.434 0.929 21.434 0.365 -68.335
6450 0.362 -68.565 0.931 21.203 0.931 21.203 0.362 -68.565
6500 0.358 -68.792 0.932 20.973 0.932 20.973 0.358 -68.792
6550 0.354 -69.017 0.934 20.746 0.934 20.746 0.354 -69.017
6600 0.351 -69.239 0.935 20.521 0.935 20.521 0.351 -69.239
6650 0.347 -69.46 0.936 20.298 0.936 20.298 0.347 -69.46
6700 0.343 -69.679 0.938 20.077 0.938 20.077 0.343 -69.679
6750 0.34 -69.895 0.939 19.858 0.939 19.858 0.34 -69.895
6800 0.336 -70.109 0.94 19.641 0.94 19.641 0.336 -70.109
6850 0.333 -70.322 0.942 19.426 0.942 19.426 0.333 -70.322
6900 0.329 -70.532 0.943 19.213 0.943 19.213 0.329 -70.532
6950 0.326 -70.74 0.944 19.002 0.944 19.002 0.326 -70.74
7000 0.322 -70.947 0.945 18.793 0.945 18.793 0.322 -70.947
7050 0.319 -71.151 0.946 18.586 0.946 18.586 0.319 -71.151
7100 0.315 -71.354 0.948 18.38 0.948 18.38 0.315 -71.354
7150 0.312 -71.555 0.949 18.176 0.949 18.176 0.312 -71.555
7200 0.309 -71.754 0.95 17.975 0.95 17.975 0.309 -71.754
7250 0.305 -71.951 0.951 17.774 0.951 17.774 0.305 -71.951
7300 0.302 -72.147 0.952 17.576 0.952 17.576 0.302 -72.147
7350 0.299 -72.341 0.953 17.379 0.953 17.379 0.299 -72.341
7400 0.295 -72.533 0.954 17.184 0.954 17.184 0.295 -72.533
7450 0.292 -72.723 0.955 16.991 0.955 16.991 0.292 -72.723
7500 0.289 -72.912 0.956 16.799 0.956 16.799 0.289 -72.912
7550 0.286 -73.099 0.957 16.609 0.957 16.609 0.286 -73.099
7600 0.283 -73.284 0.958 16.42 0.958 16.42 0.283 -73.284
7650 0.28 -73.468 0.959 16.233 0.959 16.233 0.28 -73.468
7700 0.276 -73.65 0.96 16.048 0.96 16.048 0.276 -73.65
7750 0.273 -73.831 0.96 15.864 0.96 15.864 0.273 -73.831
7800 0.27 -74.01 0.961 15.681 0.961 15.681 0.27 -74.01
7850 0.267 -74.188 0.962 15.5 0.962 15.5 0.267 -74.188
7900 0.264 -74.364 0.963 15.32 0.963 15.32 0.264 -74.364
7950 0.261 -74.539 0.964 15.142 0.964 15.142 0.261 -74.539
8000 0.258 -74.712 0.965 14.965 0.965 14.965 0.258 -74.712
8050 0.255 -74.884 0.965 14.79 0.965 14.79 0.255 -74.884
8100 0.252 -75.054 0.966 14.615 0.966 14.615 0.252 -75.054
8150 0.249 -75.224 0.967 14.443 0.967 14.443 0.249 -75.224
8200 0.247 -75.391 0.968 14.271 0.968 14.271 0.247 -75.391
8250 0.244 -75.558 0.968 14.101 0.968 14.101 0.244 -75.558
8300 0.241 -75.723 0.969 13.932 0.969 13.932 0.241 -75.723
8350 0.238 -75.886 0.97 13.764 0.97 13.764 0.238 -75.886
8400 0.235 -76.049 0.971 13.598 0.971 13.598 0.235 -76.049
8450 0.232 -76.21 0.971 13.432 0.971 13.432 0.232 -76.21
8500 0.23 -76.37 0.972 13.268 0.972 13.268 0.23 -76.37
8550 0.227 -76.528 0.973 13.105 0.973 13.105 0.227 -76.528
8600 0.224 -76.685 0.973 12.944 0.973 12.944 0.224 -76.685
8650 0.221 -76.841 0.974 12.783 0.974 12.783 0.221 -76.841
8700 0.219 -76.996 0.974 12.624 0.974 12.624 0.219 -76.996
8750 0.216 -77.15 0.975 12.465 0.975 12.465 0.216 -77.15
8800 0.213 -77.302 0.976 12.308 0.976 12.308 0.213 -77.302
8850 0.211 -77.454 0.976 12.152 0.976 12.152 0.211 -77.454
8900 0.208 -77.604 0.977 11.997 0.977 11.997 0.208 -77.604
8950 0.205 -77.753 0.977 11.843 0.977 11.843 0.205 -77.753
9000 0.203 -77.901 0.978 11.69 0.978 11.69 0.203 -77.901
9050 0.2 -78.047 0.978 11.538 0.978 11.538 0.2 -78.047
9100 0.197 -78.193 0.979 11.387 0.979 11.387 0.197 -78.193
9150 0.195 -78.337 0.979 11.237 0.979 11.237 0.195 -78.337
9200 0.192 -78.481 0.98 11.089 0.98 11.089 0.192 -78.481
9250 0.19 -78.623 0.98 10.941 0.98 10.941 0.19 -78.623
9300 0.187 -78.764 0.981 10.794 0.981 10.794 0.187 -78.764
9350 0.185 -78.904 0.981 10.648 0.981 10.648 0.185 -78.904
9400 0.182 -79.043 0.982 10.503 0.982 10.503 0.182 -79.043
9450 0.18 -79.181 0.982 10.358 0.982 10.358 0.18 -79.181
9500 0.177 -79.318 0.983 10.215 0.983 10.215 0.177 -79.318
9550 0.175 -79.454 0.983 10.073 0.983 10.073 0.175 -79.454
9600 0.172 -79.589 0.984 9.931 0.984 9.931 0.172 -79.589
9650 0.17 -79.723 0.984 9.791 0.984 9.791 0.17 -79.723
9700 0.168 -79.856 0.984 9.651 0.984 9.651 0.168 -79.856
9750 0.165 -79.988 0.985 9.512 0.985 9.512 0.165 -79.988
9800 0.163 -80.118 0.985 9.374 0.985 9.374 0.163 -80.118
9850 0.161 -80.248 0.986 9.237 0.986 9.237 0.161 -80.248
9900 0.158 -80.377 0.986 9.101 0.986 9.101 0.158 -80.377
9950 0.156 -80.505 0.986 8.965 0.986 8.965 0.156 -80.505
10000 0.154 -80.632 0.987 8.83 0.987 8.83 0.154 -80.632
10050 0.151 -80.758 0.987 8.696 0.987 8.696 0.151 -80.758
10100 0.149 -80.882 0.987 8.563 0.987 8.563 0.149 -80.882
10150 0.147 -81.006 0.988 8.431 0.988 8.431 0.147 -81.006
10200 0.144 -81.129 0.988 8.299 0.988 8.299 0.144 -81.129
10250 0.142 -81.251 0.988 8.168 0.988 8.168 0.142 -81.251
10300 0.14 -81.372 0.989 8.038 0.989 8.038 0.14 -81.372
10350 0.138 -81.492 0.989 7.909 0.989 7.909 0.138 -81.492
10400 0.135 -81.611 0.989 7.78 0.989 7.78 0.135 -81.611
10450 0.133 -81.729 0.99 7.652 0.99 7.652 0.133 -81.729
10500 0.131 -81.846 0.99 7.525 0.99 7.525 0.131 -81.846
10550 0.129 -81.962 0.99 7.398 0.99 7.398 0.129 -81.962
10600 0.127 -82.077 0.991 7.272 0.991 7.272 0.127 -82.077
10650 0.124 -82.191 0.991 7.147 0.991 7.147 0.124 -82.191
10700 0.122 -82.303 0.991 7.022 0.991 7.022 0.122 -82.303
10750 0.12 -82.415 0.991 6.899 0.991 6.899 0.12 -82.415
10800 0.118 -82.526 0.992 6.775 0.992 6.775 0.118 -82.526
10850 0.116 -82.636 0.992 6.653 0.992 6.653 0.116 -82.636
10900 0.114 -82.745 0.992 6.531 0.992 6.531 0.114 -82.745
10950 0.112 -82.853 0.992 6.41 0.992 6.41 0.112 -82.853
11000 0.11 -82.959 0.993 6.289 0.993 6.289 0.11 -82.959
11050 0.107 -83.065 0.993 6.169 0.993 6.169 0.107 -83.065
11100 0.105 -83.169 0.993 6.049 0.993 6.049 0.105 -83.169
11150 0.103 -83.273 0.993 5.931 0.993 5.931 0.103 -83.273
11200 0.101 -83.375 0.993 5.812 0.993 5.812 0.101 -83.375
11250 0.099 -83.476 0.994 5.695 0.994 5.695 0.099 -83.476
11300 0.097 -83.575 0.994 5.578 0.994 5.578 0.097 -83.575
11350 0.095 -83.674 0.994 5.461 0.994 5.461 0.095 -83.674
11400 0.093 -83.771 0.994 5.345 0.994 5.345 0.093 -83.771
11450 0.091 -83.867 0.994 5.23 0.994 5.23 0.091 -83.867
11500 0.089 -83.962 0.995 5.115 0.995 5.115 0.089 -83.962
11550 0.087 -84.055 0.995 5.001 0.995 5.001 0.087 -84.055
11600 0.085 -84.147 0.995 4.887 0.995 4.887 0.085 -84.147
11650 0.083 -84.237 0.995 4.774 0.995 4.774 0.083 -84.237
11700 0.081 -84.326 0.995 4.662 0.995 4.662 0.081 -84.326
11750 0.079 -84.414 0.995 4.55 0.995 4.55 0.079 -84.414
11800 0.077 -84.499 0.996 4.438 0.996 4.438 0.077 -84.499
11850 0.075 -84.583 0.996 4.327 0.996 4.327 0.075 -84.583
11900 0.074 -84.665 0.996 4.217 0.996 4.217 0.074 -84.665
11950 0.072 -84.745 0.996 4.107 0.996 4.107 0.072 -84.745
12000 0.07 -84.824 0.996 3.997 0.996 3.997 0.07 -84.824
12050 0.068 -84.9 0.996 3.888 0.996 3.888 0.068 -84.9
12100 0.066 -84.974 0.996 3.78 0.996 3.78 0.066 -84.974
12150 0.064 -85.045 0.997 3.672 0.997 3.672 0.064 -85.045
12200 0.062 -85.114 0.997 3.564 0.997 3.564 0.062 -85.114
12250 0.06 -85.18 0.997 3.457 0.997 3.457 0.06 -85.18
12300 0.058 -85.244 0.997 3.35 0.997 3.35 0.058 -85.244
12350 0.057 -85.304 0.997 3.244 0.997 3.244 0.057 -85.304
12400 0.055 -85.361 0.997 3.138 0.997 3.138 0.055 -85.361
12450 0.053 -85.414 0.997 3.033 0.997 3.033 0.053 -85.414
12500 0.051 -85.464 0.997 2.928 0.997 2.928 0.051 -85.464
12550 0.049 -85.509 0.997 2.824 0.997 2.824 0.049 -85.509
12600 0.047 -85.549 0.997 2.72 0.997 2.72 0.047 -85.549
12650 0.046 -85.584 0.998 2.617 0.998 2.617 0.046 -85.584
12700 0.044 -85.614 0.998 2.514 0.998 2.514 0.044 -85.614
12750 0.042 -85.637 0.998 2.411 0.998 2.411 0.042 -85.637
12800 0.04 -85.653 0.998 2.309 0.998 2.309 0.04 -85.653
12850 0.039 -85.661 0.998 2.207 0.998 2.207 0.039 -85.661
12900 0.037 -85.66 0.998 2.106 0.998 2.106 0.037 -85.66
12950 0.035 -85.649 0.998 2.005 0.998 2.005 0.035 -85.649
13000 0.033 -85.626 0.998 1.904 0.998 1.904 0.033 -85.626
13050 0.032 -85.589 0.998 1.804 0.998 1.804 0.032 -85.589
13100 0.03 -85.536 0.998 1.705 0.998 1.705 0.03 -85.536
13150 0.028 -85.466 0.998 1.605 0.998 1.605 0.028 -85.466
13200 0.026 -85.373 0.998 1.506 0.998 1.506 0.026 -85.373
13250 0.025 -85.253 0.998 1.408 0.998 1.408 0.025 -85.253
13300 0.023 -85.102 0.998 1.31 0.998 1.31 0.023 -85.102
13350 0.021 -84.911 0.998 1.212 0.998 1.212 0.021 -84.911
13400 0.02 -84.671 0.998 1.114 0.998 1.114 0.02 -84.671
13450 0.018 -84.368 0.998 1.017 0.998 1.017 0.018 -84.368
13500 0.016 -83.982 0.998 0.921 0.998 0.921 0.016 -83.982
13550 0.014 -83.487 0.998 0.824 0.998 0.824 0.014 -83.487
13600 0.013 -82.84 0.998 0.728 0.998 0.728 0.013 -82.84
13650 0.011 -81.974 0.999 0.633 0.999 0.633 0.011 -81.974
13700 9.492e-3 -80.778 0.999 0.538 0.999 0.538 9.492e-3 -80.778
13750 7.859e-3 -79.05 0.999 0.443 0.999 0.443 7.859e-3 -79.05
13800 6.244e-3 -76.382 0.999 0.348 0.999 0.348 6.244e-3 -76.382
13850 4.659e-3 -71.83 0.999 0.254 0.999 0.254 4.659e-3 -71.83
13900 3.141e-3 -62.693 0.999 0.16 0.999 0.16 3.141e-3 -62.693
13950 1.846e-3 -38.989 0.999 0.067 0.999 0.067 1.846e-3 -38.989
14000 1.506e-3 17.893 0.999 -0.027 0.999 -0.027 1.506e-3 17.893
14050 2.529e-3 55.364 0.999 -0.119 0.999 -0.119 2.529e-3 55.364
14100 3.967e-3 68.608 0.999 -0.212 0.999 -0.212 3.967e-3 68.608
14150 5.498e-3 74.585 0.999 -0.304 0.999 -0.304 5.498e-3 74.585
14200 7.058e-3 77.889 0.999 -0.396 0.999 -0.396 7.058e-3 77.889
14250 8.629e-3 79.952 0.999 -0.488 0.999 -0.488 8.629e-3 79.952
14300 0.01 81.346 0.999 -0.579 0.999 -0.579 0.01 81.346
14350 0.012 82.339 0.998 -0.67 0.998 -0.67 0.012 82.339
14400 0.013 83.075 0.998 -0.76 0.998 -0.76 0.013 83.075
14450 0.015 83.635 0.998 -0.851 0.998 -0.851 0.015 83.635
14500 0.016 84.069 0.998 -0.941 0.998 -0.941 0.016 84.069
14550 0.018 84.412 0.998 -1.03 0.998 -1.03 0.018 84.412
14600 0.02 84.685 0.998 -1.12 0.998 -1.12 0.02 84.685
14650 0.021 84.904 0.998 -1.209 0.998 -1.209 0.021 84.904
14700 0.023 85.081 0.998 -1.298 0.998 -1.298 0.023 85.081
14750 0.024 85.223 0.998 -1.386 0.998 -1.386 0.024 85.223
14800 0.026 85.337 0.998 -1.474 0.998 -1.474 0.026 85.337
14850 0.027 85.428 0.998 -1.562 0.998 -1.562 0.027 85.428
14900 0.029 85.5 0.998 -1.65 0.998 -1.65 0.029 85.5
14950 0.03 85.555 0.998 -1.737 0.998 -1.737 0.03 85.555
15000 0.032 85.597 0.998 -1.824 0.998 -1.824 0.032 85.597
15050 0.033 85.627 0.998 -1.911 0.998 -1.911 0.033 85.627
15100 0.035 85.647 0.998 -1.998 0.998 -1.998 0.035 85.647
15150 0.036 85.658 0.998 -2.084 0.998 -2.084 0.036 85.658
15200 0.038 85.662 0.998 -2.17 0.998 -2.17 0.038 85.662
15250 0.039 85.658 0.998 -2.255 0.998 -2.255 0.039 85.658
15300 0.041 85.649 0.998 -2.341 0.998 -2.341 0.041 85.649
15350 0.042 85.634 0.998 -2.426 0.998 -2.426 0.042 85.634
15400 0.044 85.614 0.998 -2.511 0.998 -2.511 0.044 85.614
15450 0.045 85.591 0.998 -2.596 0.998 -2.596 0.045 85.591
15500 0.047 85.563 0.997 -2.68 0.997 -2.68 0.047 85.563
15550 0.048 85.533 0.997 -2.764 0.997 -2.764 0.048 85.533
15600 0.05 85.499 0.997 -2.848 0.997 -2.848 0.05 85.499
15650 0.051 85.462 0.997 -2.932 0.997 -2.932 0.051 85.462
15700 0.053 85.423 0.997 -3.015 0.997 -3.015 0.053 85.423
15750 0.054 85.382 0.997 -3.098 0.997 -3.098 0.054 85.382
15800 0.056 85.338 0.997 -3.181 0.997 -3.181 0.056 85.338
15850 0.057 85.293 0.997 -3.264 0.997 -3.264 0.057 85.293
15900 0.058 85.246 0.997 -3.346 0.997 -3.346 0.058 85.246
15950 0.06 85.197 0.997 -3.428 0.997 -3.428 0.06 85.197
16000 0.061 85.148 0.997 -3.51 0.997 -3.51 0.061 85.148
16050 0.063 85.096 0.997 -3.592 0.997 -3.592 0.063 85.096
16100 0.064 85.044 0.997 -3.673 0.997 -3.673 0.064 85.044
16150 0.066 84.99 0.996 -3.755 0.996 -3.755 0.066 84.99
16200 0.067 84.936 0.996 -3.836 0.996 -3.836 0.067 84.936
16250 0.068 84.88 0.996 -3.916 0.996 -3.916 0.068 84.88
16300 0.07 84.824 0.996 -3.997 0.996 -3.997 0.07 84.824
16350 0.071 84.766 0.996 -4.077 0.996 -4.077 0.071 84.766
16400 0.073 84.709 0.996 -4.157 0.996 -4.157 0.073 84.709
16450 0.074 84.65 0.996 -4.237 0.996 -4.237 0.074 84.65
16500 0.075 84.591 0.996 -4.317 0.996 -4.317 0.075 84.591
16550 0.077 84.531 0.996 -4.396 0.996 -4.396 0.077 84.531
16600 0.078 84.471 0.996 -4.476 0.996 -4.476 0.078 84.471
16650 0.079 84.41 0.995 -4.555 0.995 -4.555 0.079 84.41
16700 0.081 84.348 0.995 -4.633 0.995 -4.633 0.081 84.348
16750 0.082 84.287 0.995 -4.712 0.995 -4.712 0.082 84.287
16800 0.084 84.225 0.995 -4.79 0.995 -4.79 0.084 84.225
16850 0.085 84.162 0.995 -4.869 0.995 -4.869 0.085 84.162
16900 0.086 84.099 0.995 -4.946 0.995 -4.946 0.086 84.099
16950 0.088 84.036 0.995 -5.024 0.995 -5.024 0.088 84.036
17000 0.089 83.973 0.995 -5.102 0.995 -5.102 0.089 83.973
17050 0.09 83.909 0.994 -5.179 0.994 -5.179 0.09 83.909
17100 0.092 83.846 0.994 -5.256 0.994 -5.256 0.092 83.846
