!	AVX	Thin	Film	Operation	
!
!	Date:	March 2012		
!
!	Description: Ultra-Miniature 01005 Size ACCU - P® Thin Film RF / Microwave Capacitor
!
!	Part Number:  C005YK2R4ABSTR	
!								
!	Serial	Measurements						
!								
#	MHz	S	db	R	50			
!	S11	S21	S12	S22				
!	dB	Phase	dB	Phase	dB	Phase	dB	Phase
50	-0.025	-4.312	-22.478	85.615	-22.478	85.615	-0.025	-4.312
72.431	-0.053	-6.233	-19.285	83.686	-19.285	83.686	-0.053	-6.233
94.862	-0.09	-8.141	-16.978	81.771	-16.978	81.771	-0.09	-8.141
117.293	-0.136	-10.031	-15.18	79.874	-15.18	79.874	-0.136	-10.031
139.724	-0.192	-11.899	-13.715	77.998	-13.715	77.998	-0.192	-11.899
162.155	-0.256	-13.742	-12.485	76.147	-12.485	76.147	-0.256	-13.742
184.586	-0.329	-15.558	-11.431	74.325	-11.431	74.325	-0.329	-15.558
207.018	-0.41	-17.342	-10.513	72.533	-10.513	72.533	-0.41	-17.342
229.449	-0.498	-19.093	-9.706	70.775	-9.706	70.775	-0.498	-19.093
251.88	-0.594	-20.808	-8.99	69.052	-8.99	69.052	-0.594	-20.808
274.311	-0.696	-22.486	-8.348	67.367	-8.348	67.367	-0.696	-22.486
296.742	-0.804	-24.125	-7.771	65.721	-7.771	65.721	-0.804	-24.125
319.173	-0.918	-25.724	-7.25	64.115	-7.25	64.115	-0.918	-25.724
341.604	-1.037	-27.281	-6.776	62.55	-6.776	62.55	-1.037	-27.281
364.035	-1.161	-28.797	-6.344	61.026	-6.344	61.026	-1.161	-28.797
386.466	-1.29	-30.272	-5.95	59.544	-5.95	59.544	-1.29	-30.272
408.897	-1.422	-31.704	-5.588	58.105	-5.588	58.105	-1.422	-31.704
431.328	-1.557	-33.094	-5.256	56.707	-5.256	56.707	-1.557	-33.094
453.759	-1.696	-34.443	-4.95	55.351	-4.95	55.351	-1.696	-34.443
476.19	-1.837	-35.75	-4.668	54.036	-4.668	54.036	-1.837	-35.75
498.622	-1.98	-37.017	-4.407	52.762	-4.407	52.762	-1.98	-37.017
521.053	-2.126	-38.244	-4.166	51.527	-4.166	51.527	-2.126	-38.244
543.484	-2.273	-39.432	-3.942	50.331	-3.942	50.331	-2.273	-39.432
565.915	-2.421	-40.582	-3.734	49.174	-3.734	49.174	-2.421	-40.582
588.346	-2.571	-41.695	-3.541	48.053	-3.541	48.053	-2.571	-41.695
610.777	-2.722	-42.772	-3.361	46.969	-3.361	46.969	-2.722	-42.772
633.208	-2.873	-43.814	-3.194	45.92	-3.194	45.92	-2.873	-43.814
655.639	-3.025	-44.822	-3.037	44.904	-3.037	44.904	-3.025	-44.822
678.07	-3.177	-45.796	-2.891	43.922	-2.891	43.922	-3.177	-45.796
700.501	-3.329	-46.739	-2.754	42.971	-2.754	42.971	-3.329	-46.739
722.932	-3.481	-47.652	-2.626	42.051	-2.626	42.051	-3.481	-47.652
745.363	-3.633	-48.534	-2.506	41.161	-2.506	41.161	-3.633	-48.534
767.794	-3.785	-49.388	-2.393	40.299	-2.393	40.299	-3.785	-49.388
790.226	-3.936	-50.215	-2.288	39.465	-2.288	39.465	-3.936	-50.215
812.657	-4.087	-51.015	-2.188	38.658	-2.188	38.658	-4.087	-51.015
835.088	-4.237	-51.789	-2.094	37.876	-2.094	37.876	-4.237	-51.789
857.519	-4.387	-52.539	-2.006	37.118	-2.006	37.118	-4.387	-52.539
879.95	-4.536	-53.265	-1.923	36.384	-1.923	36.384	-4.536	-53.265
902.381	-4.684	-53.968	-1.844	35.673	-1.844	35.673	-4.684	-53.968
924.812	-4.831	-54.649	-1.77	34.984	-1.77	34.984	-4.831	-54.649
947.243	-4.978	-55.31	-1.7	34.316	-1.7	34.316	-4.978	-55.31
969.674	-5.124	-55.95	-1.633	33.668	-1.633	33.668	-5.124	-55.95
992.105	-5.268	-56.57	-1.571	33.039	-1.571	33.039	-5.268	-56.57
1014.536	-5.412	-57.172	-1.511	32.429	-1.511	32.429	-5.412	-57.172
1036.967	-5.555	-57.756	-1.455	31.837	-1.455	31.837	-5.555	-57.756
1059.398	-5.697	-58.323	-1.401	31.262	-1.401	31.262	-5.697	-58.323
1081.83	-5.838	-58.873	-1.35	30.704	-1.35	30.704	-5.838	-58.873
1104.261	-5.978	-59.407	-1.302	30.162	-1.302	30.162	-5.978	-59.407
1126.692	-6.117	-59.926	-1.256	29.635	-1.256	29.635	-6.117	-59.926
1149.123	-6.255	-60.43	-1.212	29.123	-1.212	29.123	-6.255	-60.43
1171.554	-6.392	-60.92	-1.17	28.625	-1.17	28.625	-6.392	-60.92
1193.985	-6.528	-61.397	-1.13	28.14	-1.13	28.14	-6.528	-61.397
1216.416	-6.663	-61.86	-1.092	27.669	-1.092	27.669	-6.663	-61.86
1238.847	-6.797	-62.31	-1.056	27.21	-1.056	27.21	-6.797	-62.31
1261.278	-6.929	-62.748	-1.022	26.764	-1.022	26.764	-6.929	-62.748
1283.709	-7.061	-63.175	-0.989	26.329	-0.989	26.329	-7.061	-63.175
1306.14	-7.192	-63.59	-0.957	25.905	-0.957	25.905	-7.192	-63.59
1328.571	-7.322	-63.994	-0.927	25.492	-0.927	25.492	-7.322	-63.994
1351.003	-7.451	-64.388	-0.898	25.09	-0.898	25.09	-7.451	-64.388
1373.434	-7.58	-64.772	-0.87	24.698	-0.87	24.698	-7.58	-64.772
1395.865	-7.707	-65.146	-0.844	24.315	-0.844	24.315	-7.707	-65.146
1418.296	-7.833	-65.511	-0.818	23.942	-0.818	23.942	-7.833	-65.511
1440.727	-7.958	-65.866	-0.794	23.578	-0.794	23.578	-7.958	-65.866
1463.158	-8.083	-66.213	-0.771	23.223	-0.771	23.223	-8.083	-66.213
1485.589	-8.207	-66.551	-0.748	22.876	-0.748	22.876	-8.207	-66.551
1508.02	-8.329	-66.881	-0.727	22.537	-0.727	22.537	-8.329	-66.881
1530.451	-8.451	-67.204	-0.706	22.206	-0.706	22.206	-8.451	-67.204
1552.882	-8.572	-67.518	-0.686	21.882	-0.686	21.882	-8.572	-67.518
1575.313	-8.693	-67.826	-0.667	21.566	-0.667	21.566	-8.693	-67.826
1597.744	-8.812	-68.126	-0.649	21.257	-0.649	21.257	-8.812	-68.126
1620.175	-8.931	-68.419	-0.631	20.955	-0.631	20.955	-8.931	-68.419
1642.607	-9.049	-68.706	-0.614	20.659	-0.614	20.659	-9.049	-68.706
1665.038	-9.166	-68.986	-0.597	20.37	-0.597	20.37	-9.166	-68.986
1687.469	-9.282	-69.26	-0.581	20.087	-0.581	20.087	-9.282	-69.26
1709.9	-9.398	-69.528	-0.566	19.81	-0.566	19.81	-9.398	-69.528
1732.331	-9.513	-69.79	-0.551	19.538	-0.551	19.538	-9.513	-69.79
1754.762	-9.627	-70.046	-0.537	19.273	-0.537	19.273	-9.627	-70.046
1777.193	-9.741	-70.297	-0.523	19.012	-0.523	19.012	-9.741	-70.297
1799.624	-9.854	-70.543	-0.51	18.757	-0.51	18.757	-9.854	-70.543
1822.055	-9.966	-70.783	-0.497	18.508	-0.497	18.508	-9.966	-70.783
1844.486	-10.078	-71.019	-0.485	18.263	-0.485	18.263	-10.078	-71.019
1866.917	-10.189	-71.249	-0.473	18.022	-0.473	18.022	-10.189	-71.249
1889.348	-10.3	-71.475	-0.461	17.787	-0.461	17.787	-10.3	-71.475
1911.779	-10.41	-71.696	-0.45	17.556	-0.45	17.556	-10.41	-71.696
1934.211	-10.519	-71.913	-0.439	17.329	-0.439	17.329	-10.519	-71.913
1956.642	-10.628	-72.126	-0.429	17.107	-0.429	17.107	-10.628	-72.126
1979.073	-10.736	-72.334	-0.419	16.889	-0.419	16.889	-10.736	-72.334
2001.504	-10.844	-72.539	-0.409	16.674	-0.409	16.674	-10.844	-72.539
2023.935	-10.951	-72.739	-0.399	16.464	-0.399	16.464	-10.951	-72.739
2046.366	-11.057	-72.935	-0.39	16.257	-0.39	16.257	-11.057	-72.935
2068.797	-11.164	-73.128	-0.381	16.054	-0.381	16.054	-11.164	-73.128
2091.228	-11.269	-73.317	-0.373	15.855	-0.373	15.855	-11.269	-73.317
2113.659	-11.375	-73.503	-0.364	15.659	-0.364	15.659	-11.375	-73.503
2136.09	-11.479	-73.685	-0.356	15.467	-0.356	15.467	-11.479	-73.685
2158.521	-11.584	-73.864	-0.348	15.277	-0.348	15.277	-11.584	-73.864
2180.952	-11.688	-74.04	-0.34	15.091	-0.34	15.091	-11.688	-74.04
2203.383	-11.791	-74.212	-0.333	14.908	-0.333	14.908	-11.791	-74.212
2225.815	-11.894	-74.381	-0.326	14.728	-0.326	14.728	-11.894	-74.381
2248.246	-11.997	-74.548	-0.319	14.551	-0.319	14.551	-11.997	-74.548
2270.677	-12.099	-74.711	-0.312	14.377	-0.312	14.377	-12.099	-74.711
2293.108	-12.201	-74.872	-0.305	14.206	-0.305	14.206	-12.201	-74.872
2315.539	-12.303	-75.029	-0.299	14.037	-0.299	14.037	-12.303	-75.029
2337.97	-12.404	-75.184	-0.293	13.871	-0.293	13.871	-12.404	-75.184
2360.401	-12.505	-75.337	-0.286	13.707	-0.286	13.707	-12.505	-75.337
2382.832	-12.606	-75.486	-0.28	13.546	-0.28	13.546	-12.606	-75.486
2405.263	-12.706	-75.633	-0.275	13.388	-0.275	13.388	-12.706	-75.633
2427.694	-12.806	-75.778	-0.269	13.232	-0.269	13.232	-12.806	-75.778
2450.125	-12.906	-75.92	-0.264	13.078	-0.264	13.078	-12.906	-75.92
2472.556	-13.005	-76.06	-0.258	12.926	-0.258	12.926	-13.005	-76.06
2494.987	-13.105	-76.198	-0.253	12.777	-0.253	12.777	-13.105	-76.198
2517.419	-13.204	-76.333	-0.248	12.63	-0.248	12.63	-13.204	-76.333
2539.85	-13.302	-76.466	-0.243	12.485	-0.243	12.485	-13.302	-76.466
2562.281	-13.401	-76.597	-0.238	12.342	-0.238	12.342	-13.401	-76.597
2584.712	-13.499	-76.726	-0.234	12.201	-0.234	12.201	-13.499	-76.726
2607.143	-13.597	-76.853	-0.229	12.062	-0.229	12.062	-13.597	-76.853
2629.574	-13.695	-76.978	-0.225	11.925	-0.225	11.925	-13.695	-76.978
2652.005	-13.792	-77.101	-0.22	11.789	-0.22	11.789	-13.792	-77.101
2674.436	-13.89	-77.222	-0.216	11.656	-0.216	11.656	-13.89	-77.222
2696.867	-13.987	-77.341	-0.212	11.524	-0.212	11.524	-13.987	-77.341
2719.298	-14.084	-77.458	-0.208	11.394	-0.208	11.394	-14.084	-77.458
2741.729	-14.181	-77.573	-0.204	11.266	-0.204	11.266	-14.181	-77.573
2764.16	-14.278	-77.686	-0.2	11.139	-0.2	11.139	-14.278	-77.686
2786.591	-14.375	-77.798	-0.197	11.014	-0.197	11.014	-14.375	-77.798
2809.023	-14.471	-77.908	-0.193	10.891	-0.193	10.891	-14.471	-77.908
2831.454	-14.568	-78.017	-0.189	10.769	-0.189	10.769	-14.568	-78.017
2853.885	-14.664	-78.123	-0.186	10.649	-0.186	10.649	-14.664	-78.123
2876.316	-14.761	-78.228	-0.183	10.53	-0.183	10.53	-14.761	-78.228
2898.747	-14.857	-78.332	-0.179	10.413	-0.179	10.413	-14.857	-78.332
2921.178	-14.953	-78.434	-0.176	10.297	-0.176	10.297	-14.953	-78.434
2943.609	-15.049	-78.534	-0.173	10.183	-0.173	10.183	-15.049	-78.534
2966.04	-15.145	-78.633	-0.17	10.069	-0.17	10.069	-15.145	-78.633
2988.471	-15.241	-78.73	-0.167	9.958	-0.167	9.958	-15.241	-78.73
3010.902	-15.337	-78.826	-0.164	9.847	-0.164	9.847	-15.337	-78.826
3033.333	-15.433	-78.921	-0.161	9.738	-0.161	9.738	-15.433	-78.921
3055.764	-15.529	-79.014	-0.158	9.63	-0.158	9.63	-15.529	-79.014
3078.195	-15.624	-79.105	-0.155	9.523	-0.155	9.523	-15.624	-79.105
3100.627	-15.72	-79.196	-0.153	9.418	-0.153	9.418	-15.72	-79.196
3123.058	-15.816	-79.285	-0.15	9.313	-0.15	9.313	-15.816	-79.285
3145.489	-15.912	-79.372	-0.148	9.21	-0.148	9.21	-15.912	-79.372
3167.92	-16.008	-79.459	-0.145	9.108	-0.145	9.108	-16.008	-79.459
3190.351	-16.104	-79.544	-0.143	9.007	-0.143	9.007	-16.104	-79.544
3212.782	-16.2	-79.627	-0.14	8.907	-0.14	8.907	-16.2	-79.627
3235.213	-16.296	-79.71	-0.138	8.808	-0.138	8.808	-16.296	-79.71
3257.644	-16.392	-79.791	-0.136	8.711	-0.136	8.711	-16.392	-79.791
3280.075	-16.488	-79.871	-0.133	8.614	-0.133	8.614	-16.488	-79.871
3302.506	-16.584	-79.95	-0.131	8.518	-0.131	8.518	-16.584	-79.95
3324.937	-16.681	-80.028	-0.129	8.423	-0.129	8.423	-16.681	-80.028
3347.368	-16.777	-80.104	-0.127	8.33	-0.127	8.33	-16.777	-80.104
3369.799	-16.874	-80.18	-0.125	8.237	-0.125	8.237	-16.874	-80.18
3392.231	-16.971	-80.254	-0.123	8.145	-0.123	8.145	-16.971	-80.254
3414.662	-17.067	-80.327	-0.121	8.054	-0.121	8.054	-17.067	-80.327
3437.093	-17.164	-80.399	-0.119	7.964	-0.119	7.964	-17.164	-80.399
3459.524	-17.262	-80.469	-0.117	7.875	-0.117	7.875	-17.262	-80.469
3481.955	-17.359	-80.539	-0.115	7.786	-0.115	7.786	-17.359	-80.539
3504.386	-17.456	-80.608	-0.113	7.699	-0.113	7.699	-17.456	-80.608
3526.817	-17.554	-80.675	-0.112	7.612	-0.112	7.612	-17.554	-80.675
3549.248	-17.652	-80.742	-0.11	7.526	-0.11	7.526	-17.652	-80.742
3571.679	-17.75	-80.807	-0.108	7.441	-0.108	7.441	-17.75	-80.807
3594.11	-17.848	-80.871	-0.107	7.357	-0.107	7.357	-17.848	-80.871
3616.541	-17.947	-80.935	-0.105	7.274	-0.105	7.274	-17.947	-80.935
3638.972	-18.045	-80.997	-0.103	7.191	-0.103	7.191	-18.045	-80.997
3661.404	-18.144	-81.058	-0.102	7.109	-0.102	7.109	-18.144	-81.058
3683.835	-18.243	-81.118	-0.1	7.028	-0.1	7.028	-18.243	-81.118
3706.266	-18.343	-81.177	-0.099	6.947	-0.099	6.947	-18.343	-81.177
3728.697	-18.443	-81.236	-0.097	6.867	-0.097	6.867	-18.443	-81.236
3751.128	-18.543	-81.293	-0.096	6.788	-0.096	6.788	-18.543	-81.293
3773.559	-18.643	-81.349	-0.094	6.71	-0.094	6.71	-18.643	-81.349
3795.99	-18.744	-81.404	-0.093	6.632	-0.093	6.632	-18.744	-81.404
3818.421	-18.845	-81.458	-0.092	6.555	-0.092	6.555	-18.845	-81.458
3840.852	-18.946	-81.511	-0.09	6.479	-0.09	6.479	-18.946	-81.511
3863.283	-19.048	-81.563	-0.089	6.403	-0.089	6.403	-19.048	-81.563
3885.714	-19.15	-81.615	-0.088	6.328	-0.088	6.328	-19.15	-81.615
3908.145	-19.252	-81.665	-0.087	6.253	-0.087	6.253	-19.252	-81.665
3930.576	-19.355	-81.714	-0.085	6.179	-0.085	6.179	-19.355	-81.714
3953.008	-19.458	-81.762	-0.084	6.106	-0.084	6.106	-19.458	-81.762
3975.439	-19.561	-81.809	-0.083	6.033	-0.083	6.033	-19.561	-81.809
3997.87	-19.665	-81.856	-0.082	5.961	-0.082	5.961	-19.665	-81.856
4020.301	-19.77	-81.901	-0.081	5.889	-0.081	5.889	-19.77	-81.901
4042.732	-19.875	-81.945	-0.08	5.818	-0.08	5.818	-19.875	-81.945
4065.163	-19.98	-81.988	-0.078	5.748	-0.078	5.748	-19.98	-81.988
4087.594	-20.086	-82.03	-0.077	5.678	-0.077	5.678	-20.086	-82.03
4110.025	-20.192	-82.072	-0.076	5.609	-0.076	5.609	-20.192	-82.072
4132.456	-20.299	-82.112	-0.075	5.54	-0.075	5.54	-20.299	-82.112
4154.887	-20.406	-82.151	-0.074	5.471	-0.074	5.471	-20.406	-82.151
4177.318	-20.514	-82.189	-0.073	5.404	-0.073	5.404	-20.514	-82.189
4199.749	-20.622	-82.226	-0.072	5.336	-0.072	5.336	-20.622	-82.226
4222.18	-20.731	-82.262	-0.071	5.269	-0.071	5.269	-20.731	-82.262
4244.612	-20.841	-82.297	-0.07	5.203	-0.07	5.203	-20.841	-82.297
4267.043	-20.951	-82.331	-0.07	5.137	-0.07	5.137	-20.951	-82.331
4289.474	-21.062	-82.364	-0.069	5.072	-0.069	5.072	-21.062	-82.364
4311.905	-21.173	-82.396	-0.068	5.007	-0.068	5.007	-21.173	-82.396
4334.336	-21.285	-82.427	-0.067	4.942	-0.067	4.942	-21.285	-82.427
4356.767	-21.398	-82.457	-0.066	4.878	-0.066	4.878	-21.398	-82.457
4379.198	-21.511	-82.485	-0.065	4.815	-0.065	4.815	-21.511	-82.485
4401.629	-21.626	-82.513	-0.064	4.752	-0.064	4.752	-21.626	-82.513
4424.06	-21.74	-82.539	-0.064	4.689	-0.064	4.689	-21.74	-82.539
4446.491	-21.856	-82.564	-0.063	4.627	-0.063	4.627	-21.856	-82.564
4468.922	-21.972	-82.588	-0.062	4.565	-0.062	4.565	-21.972	-82.588
4491.353	-22.09	-82.611	-0.061	4.503	-0.061	4.503	-22.09	-82.611
4513.784	-22.208	-82.632	-0.061	4.442	-0.061	4.442	-22.208	-82.632
4536.216	-22.326	-82.653	-0.06	4.382	-0.06	4.382	-22.326	-82.653
4558.647	-22.446	-82.672	-0.059	4.321	-0.059	4.321	-22.446	-82.672
4581.078	-22.567	-82.69	-0.059	4.262	-0.059	4.262	-22.567	-82.69
4603.509	-22.688	-82.706	-0.058	4.202	-0.058	4.202	-22.688	-82.706
4625.94	-22.811	-82.721	-0.057	4.143	-0.057	4.143	-22.811	-82.721
4648.371	-22.934	-82.735	-0.057	4.084	-0.057	4.084	-22.934	-82.735
4670.802	-23.058	-82.748	-0.056	4.026	-0.056	4.026	-23.058	-82.748
4693.233	-23.184	-82.759	-0.055	3.968	-0.055	3.968	-23.184	-82.759
4715.664	-23.31	-82.768	-0.055	3.91	-0.055	3.91	-23.31	-82.768
4738.095	-23.438	-82.776	-0.054	3.853	-0.054	3.853	-23.438	-82.776
4760.526	-23.566	-82.783	-0.054	3.796	-0.054	3.796	-23.566	-82.783
4782.957	-23.696	-82.788	-0.053	3.74	-0.053	3.74	-23.696	-82.788
4805.388	-23.827	-82.792	-0.052	3.683	-0.052	3.683	-23.827	-82.792
4827.82	-23.959	-82.793	-0.052	3.627	-0.052	3.627	-23.959	-82.793
4850.251	-24.093	-82.794	-0.051	3.572	-0.051	3.572	-24.093	-82.794
4872.682	-24.227	-82.792	-0.051	3.517	-0.051	3.517	-24.227	-82.792
4895.113	-24.363	-82.789	-0.05	3.462	-0.05	3.462	-24.363	-82.789
4917.544	-24.501	-82.783	-0.05	3.407	-0.05	3.407	-24.501	-82.783
4939.975	-24.64	-82.776	-0.049	3.353	-0.049	3.353	-24.64	-82.776
4962.406	-24.78	-82.767	-0.049	3.299	-0.049	3.299	-24.78	-82.767
4984.837	-24.921	-82.756	-0.048	3.245	-0.048	3.245	-24.921	-82.756
5007.268	-25.065	-82.743	-0.048	3.192	-0.048	3.192	-25.065	-82.743
5029.699	-25.209	-82.728	-0.048	3.139	-0.048	3.139	-25.209	-82.728
5052.13	-25.356	-82.71	-0.047	3.086	-0.047	3.086	-25.356	-82.71
5074.561	-25.504	-82.69	-0.047	3.033	-0.047	3.033	-25.504	-82.69
5096.992	-25.654	-82.668	-0.046	2.981	-0.046	2.981	-25.654	-82.668
5119.424	-25.805	-82.643	-0.046	2.929	-0.046	2.929	-25.805	-82.643
5141.855	-25.959	-82.616	-0.045	2.877	-0.045	2.877	-25.959	-82.616
5164.286	-26.114	-82.586	-0.045	2.826	-0.045	2.826	-26.114	-82.586
5186.717	-26.272	-82.553	-0.045	2.775	-0.045	2.775	-26.272	-82.553
5209.148	-26.431	-82.517	-0.044	2.724	-0.044	2.724	-26.431	-82.517
5231.579	-26.593	-82.478	-0.044	2.674	-0.044	2.674	-26.593	-82.478
5254.01	-26.756	-82.436	-0.044	2.623	-0.044	2.623	-26.756	-82.436
5276.441	-26.922	-82.39	-0.043	2.573	-0.043	2.573	-26.922	-82.39
5298.872	-27.091	-82.342	-0.043	2.523	-0.043	2.523	-27.091	-82.342
5321.303	-27.262	-82.289	-0.043	2.474	-0.043	2.474	-27.262	-82.289
5343.734	-27.435	-82.232	-0.042	2.424	-0.042	2.424	-27.435	-82.232
5366.165	-27.611	-82.172	-0.042	2.375	-0.042	2.375	-27.611	-82.172
5388.596	-27.789	-82.107	-0.042	2.327	-0.042	2.327	-27.789	-82.107
5411.028	-27.971	-82.038	-0.041	2.278	-0.041	2.278	-27.971	-82.038
5433.459	-28.155	-81.964	-0.041	2.23	-0.041	2.23	-28.155	-81.964
5455.89	-28.343	-81.885	-0.041	2.182	-0.041	2.182	-28.343	-81.885
5478.321	-28.533	-81.801	-0.04	2.134	-0.04	2.134	-28.533	-81.801
5500.752	-28.727	-81.711	-0.04	2.086	-0.04	2.086	-28.727	-81.711
5523.183	-28.924	-81.615	-0.04	2.039	-0.04	2.039	-28.924	-81.615
5545.614	-29.125	-81.514	-0.04	1.991	-0.04	1.991	-29.125	-81.514
5568.045	-29.33	-81.405	-0.039	1.944	-0.039	1.944	-29.33	-81.405
5590.476	-29.538	-81.29	-0.039	1.898	-0.039	1.898	-29.538	-81.29
5612.907	-29.751	-81.167	-0.039	1.851	-0.039	1.851	-29.751	-81.167
5635.338	-29.967	-81.036	-0.039	1.805	-0.039	1.805	-29.967	-81.036
5657.769	-30.189	-80.896	-0.039	1.759	-0.039	1.759	-30.189	-80.896
5680.201	-30.414	-80.748	-0.038	1.713	-0.038	1.713	-30.414	-80.748
5702.632	-30.645	-80.589	-0.038	1.667	-0.038	1.667	-30.645	-80.589
5725.063	-30.881	-80.42	-0.038	1.622	-0.038	1.622	-30.881	-80.42
5747.494	-31.122	-80.24	-0.038	1.576	-0.038	1.576	-31.122	-80.24
5769.925	-31.369	-80.047	-0.038	1.531	-0.038	1.531	-31.369	-80.047
5792.356	-31.622	-79.842	-0.037	1.486	-0.037	1.486	-31.622	-79.842
5814.787	-31.881	-79.622	-0.037	1.441	-0.037	1.441	-31.881	-79.622
5837.218	-32.147	-79.386	-0.037	1.397	-0.037	1.397	-32.147	-79.386
5859.649	-32.42	-79.134	-0.037	1.353	-0.037	1.353	-32.42	-79.134
5882.08	-32.7	-78.863	-0.037	1.308	-0.037	1.308	-32.7	-78.863
5904.511	-32.987	-78.573	-0.037	1.264	-0.037	1.264	-32.987	-78.573
5926.942	-33.284	-78.26	-0.036	1.221	-0.036	1.221	-33.284	-78.26
5949.373	-33.589	-77.923	-0.036	1.177	-0.036	1.177	-33.589	-77.923
5971.805	-33.903	-77.56	-0.036	1.134	-0.036	1.134	-33.903	-77.56
5994.236	-34.227	-77.167	-0.036	1.09	-0.036	1.09	-34.227	-77.167
6016.667	-34.562	-76.742	-0.036	1.047	-0.036	1.047	-34.562	-76.742
6039.098	-34.908	-76.28	-0.036	1.004	-0.036	1.004	-34.908	-76.28
6061.529	-35.267	-75.777	-0.036	0.962	-0.036	0.962	-35.267	-75.777
6083.96	-35.638	-75.229	-0.036	0.919	-0.036	0.919	-35.638	-75.229
6106.391	-36.024	-74.63	-0.035	0.877	-0.035	0.877	-36.024	-74.63
6128.822	-36.424	-73.972	-0.035	0.835	-0.035	0.835	-36.424	-73.972
6151.253	-36.841	-73.248	-0.035	0.793	-0.035	0.793	-36.841	-73.248
6173.684	-37.275	-72.449	-0.035	0.751	-0.035	0.751	-37.275	-72.449
6196.115	-37.728	-71.562	-0.035	0.709	-0.035	0.709	-37.728	-71.562
6218.546	-38.201	-70.574	-0.035	0.667	-0.035	0.667	-38.201	-70.574
6240.977	-38.697	-69.47	-0.035	0.626	-0.035	0.626	-38.697	-69.47
6263.409	-39.216	-68.227	-0.035	0.585	-0.035	0.585	-39.216	-68.227
6285.84	-39.761	-66.823	-0.035	0.544	-0.035	0.544	-39.761	-66.823
6308.271	-40.334	-65.226	-0.035	0.503	-0.035	0.503	-40.334	-65.226
6330.702	-40.936	-63.399	-0.035	0.462	-0.035	0.462	-40.936	-63.399
6353.133	-41.569	-61.294	-0.035	0.421	-0.035	0.421	-41.569	-61.294
6375.564	-42.234	-58.852	-0.035	0.381	-0.035	0.381	-42.234	-58.852
6397.995	-42.93	-55.998	-0.035	0.34	-0.035	0.34	-42.93	-55.998
6420.426	-43.657	-52.641	-0.035	0.3	-0.035	0.3	-43.657	-52.641
6442.857	-44.407	-48.668	-0.035	0.26	-0.035	0.26	-44.407	-48.668
6465.288	-45.17	-43.945	-0.034	0.22	-0.034	0.22	-45.17	-43.945
6487.719	-45.925	-38.33	-0.034	0.18	-0.034	0.18	-45.925	-38.33
6510.15	-46.64	-31.692	-0.034	0.141	-0.034	0.141	-46.64	-31.692
6532.581	-47.266	-23.96	-0.034	0.101	-0.034	0.101	-47.266	-23.96
6555.013	-47.744	-15.197	-0.034	0.062	-0.034	0.062	-47.744	-15.197
6577.444	-48.013	-5.67	-0.034	0.023	-0.034	0.023	-48.013	-5.67
6599.875	-48.033	4.15	-0.034	-0.017	-0.034	-0.017	-48.033	4.15
6622.306	-47.803	13.699	-0.034	-0.055	-0.034	-0.055	-47.803	13.699
6644.737	-47.362	22.5	-0.034	-0.094	-0.034	-0.094	-47.362	22.5
6667.168	-46.77	30.277	-0.034	-0.133	-0.034	-0.133	-46.77	30.277
6689.599	-46.088	36.96	-0.034	-0.172	-0.034	-0.172	-46.088	36.96
