!	AVX	Thin	Film	Operation	
!
!	Date:	March 2012		
!
!	Description: Ultra-Miniature 01005 Size ACCU - P® Thin Film RF / Microwave Capacitor
!
!	Part Number:  C005YJ0R4ABSTR	
!								
!	Serial	Measurements						
!								
#	MHz	S	db	R	50			
!	S11	S21	S12	S22				
!	dB	Phase	dB	Phase	dB	Phase	dB	Phase
50	-7.98E-04	-0.72	-38.017	89.221	-38.017	89.221	-7.98E-04	-0.72
100	-2.98E-03	-1.44	-31.998	88.499	-31.998	88.499	-2.98E-03	-1.44
150	-6.53E-03	-2.159	-28.479	87.778	-28.479	87.778	-6.53E-03	-2.159
200	-0.011	-2.878	-25.985	87.057	-25.985	87.057	-0.011	-2.878
250	-0.018	-3.596	-24.052	86.338	-24.052	86.338	-0.018	-3.596
300	-0.025	-4.313	-22.475	85.619	-22.475	85.619	-0.025	-4.313
350	-0.034	-5.029	-21.144	84.901	-21.144	84.901	-0.034	-5.029
400	-0.045	-5.743	-19.994	84.185	-19.994	84.185	-0.045	-5.743
450	-0.057	-6.456	-18.981	83.47	-18.981	83.47	-0.057	-6.456
500	-0.07	-7.168	-18.078	82.756	-18.078	82.756	-0.07	-7.168
550	-0.084	-7.877	-17.262	82.045	-17.262	82.045	-0.084	-7.877
600	-0.1	-8.585	-16.521	81.336	-16.521	81.336	-0.1	-8.585
650	-0.117	-9.29	-15.84	80.629	-15.84	80.629	-0.117	-9.29
700	-0.135	-9.993	-15.213	79.924	-15.213	79.924	-0.135	-9.993
750	-0.155	-10.693	-14.631	79.222	-14.631	79.222	-0.155	-10.693
800	-0.175	-11.391	-14.089	78.522	-14.089	78.522	-0.175	-11.391
850	-0.198	-12.085	-13.582	77.825	-13.582	77.825	-0.198	-12.085
900	-0.221	-12.777	-13.106	77.132	-13.106	77.132	-0.221	-12.777
950	-0.246	-13.466	-12.658	76.441	-12.658	76.441	-0.246	-13.466
1000	-0.271	-14.151	-12.235	75.754	-12.235	75.754	-0.271	-14.151
1050	-0.298	-14.833	-11.835	75.07	-11.835	75.07	-0.298	-14.833
1100	-0.326	-15.511	-11.456	74.39	-11.456	74.39	-0.326	-15.511
1150	-0.356	-16.186	-11.096	73.713	-11.096	73.713	-0.356	-16.186
1200	-0.386	-16.857	-10.753	73.041	-10.753	73.041	-0.386	-16.857
1250	-0.418	-17.524	-10.426	72.372	-10.426	72.372	-0.418	-17.524
1300	-0.45	-18.187	-10.114	71.707	-10.114	71.707	-0.45	-18.187
1350	-0.484	-18.845	-9.816	71.046	-9.816	71.046	-0.484	-18.845
1400	-0.519	-19.5	-9.53	70.39	-9.53	70.39	-0.519	-19.5
1450	-0.555	-20.15	-9.257	69.738	-9.257	69.738	-0.555	-20.15
1500	-0.592	-20.796	-8.994	69.09	-8.994	69.09	-0.592	-20.796
1550	-0.63	-21.437	-8.743	68.447	-8.743	68.447	-0.63	-21.437
1600	-0.668	-22.074	-8.501	67.808	-8.501	67.808	-0.668	-22.074
1650	-0.708	-22.706	-8.268	67.174	-8.268	67.174	-0.708	-22.706
1700	-0.749	-23.333	-8.044	66.545	-8.044	66.545	-0.749	-23.333
1750	-0.791	-23.955	-7.829	65.92	-7.829	65.92	-0.791	-23.955
1800	-0.833	-24.573	-7.621	65.301	-7.621	65.301	-0.833	-24.573
1850	-0.877	-25.186	-7.421	64.686	-7.421	64.686	-0.877	-25.186
1900	-0.921	-25.793	-7.228	64.076	-7.228	64.076	-0.921	-25.793
1950	-0.966	-26.396	-7.041	63.472	-7.041	63.472	-0.966	-26.396
2000	-1.012	-26.994	-6.861	62.872	-6.861	62.872	-1.012	-26.994
2050	-1.059	-27.586	-6.687	62.277	-6.687	62.277	-1.059	-27.586
2100	-1.107	-28.174	-6.518	61.688	-6.518	61.688	-1.107	-28.174
2150	-1.155	-28.756	-6.356	61.103	-6.356	61.103	-1.155	-28.756
2200	-1.204	-29.333	-6.198	60.524	-6.198	60.524	-1.204	-29.333
2250	-1.254	-29.905	-6.046	59.95	-6.046	59.95	-1.254	-29.905
2300	-1.304	-30.472	-5.898	59.381	-5.898	59.381	-1.304	-30.472
2350	-1.355	-31.033	-5.755	58.818	-5.755	58.818	-1.355	-31.033
2400	-1.407	-31.59	-5.616	58.259	-5.616	58.259	-1.407	-31.59
2450	-1.46	-32.141	-5.482	57.706	-5.482	57.706	-1.46	-32.141
2500	-1.513	-32.687	-5.351	57.158	-5.351	57.158	-1.513	-32.687
2550	-1.566	-33.227	-5.225	56.616	-5.225	56.616	-1.566	-33.227
2600	-1.621	-33.763	-5.102	56.078	-5.102	56.078	-1.621	-33.763
2650	-1.675	-34.293	-4.983	55.546	-4.983	55.546	-1.675	-34.293
2700	-1.731	-34.818	-4.868	55.018	-4.868	55.018	-1.731	-34.818
2750	-1.787	-35.338	-4.755	54.497	-4.755	54.497	-1.787	-35.338
2800	-1.843	-35.853	-4.646	53.98	-4.646	53.98	-1.843	-35.853
2850	-1.9	-36.362	-4.541	53.468	-4.541	53.468	-1.9	-36.362
2900	-1.957	-36.867	-4.438	52.961	-4.438	52.961	-1.957	-36.867
2950	-2.015	-37.366	-4.338	52.46	-4.338	52.46	-2.015	-37.366
3000	-2.074	-37.86	-4.24	51.964	-4.24	51.964	-2.074	-37.86
3050	-2.132	-38.349	-4.146	51.472	-4.146	51.472	-2.132	-38.349
3100	-2.192	-38.833	-4.054	50.986	-4.054	50.986	-2.192	-38.833
3150	-2.251	-39.313	-3.964	50.504	-3.964	50.504	-2.251	-39.313
3200	-2.311	-39.787	-3.877	50.028	-3.877	50.028	-2.311	-39.787
3250	-2.372	-40.256	-3.793	49.557	-3.793	49.557	-2.372	-40.256
3300	-2.433	-40.721	-3.71	49.09	-3.71	49.09	-2.433	-40.721
3350	-2.494	-41.18	-3.63	48.628	-3.63	48.628	-2.494	-41.18
3400	-2.555	-41.635	-3.552	48.171	-3.552	48.171	-2.555	-41.635
3450	-2.617	-42.085	-3.475	47.719	-3.475	47.719	-2.617	-42.085
3500	-2.679	-42.53	-3.401	47.271	-3.401	47.271	-2.679	-42.53
3550	-2.742	-42.971	-3.329	46.829	-3.329	46.829	-2.742	-42.971
3600	-2.805	-43.407	-3.259	46.39	-3.259	46.39	-2.805	-43.407
3650	-2.868	-43.838	-3.19	45.957	-3.19	45.957	-2.868	-43.838
3700	-2.931	-44.265	-3.123	45.528	-3.123	45.528	-2.931	-44.265
3750	-2.995	-44.687	-3.058	45.103	-3.058	45.103	-2.995	-44.687
3800	-3.059	-45.105	-2.994	44.683	-2.994	44.683	-3.059	-45.105
3850	-3.123	-45.518	-2.932	44.267	-2.932	44.267	-3.123	-45.518
3900	-3.187	-45.927	-2.872	43.856	-2.872	43.856	-3.187	-45.927
3950	-3.252	-46.331	-2.813	43.449	-2.813	43.449	-3.252	-46.331
4000	-3.317	-46.732	-2.755	43.046	-2.755	43.046	-3.317	-46.732
4050	-3.382	-47.128	-2.699	42.648	-2.699	42.648	-3.382	-47.128
4100	-3.447	-47.52	-2.645	42.253	-2.645	42.253	-3.447	-47.52
4150	-3.513	-47.908	-2.591	41.863	-2.591	41.863	-3.513	-47.908
4200	-3.579	-48.291	-2.539	41.477	-2.539	41.477	-3.579	-48.291
4250	-3.645	-48.671	-2.488	41.095	-2.488	41.095	-3.645	-48.671
4300	-3.711	-49.046	-2.438	40.717	-2.438	40.717	-3.711	-49.046
4350	-3.777	-49.418	-2.39	40.343	-2.39	40.343	-3.777	-49.418
4400	-3.844	-49.786	-2.342	39.973	-2.342	39.973	-3.844	-49.786
4450	-3.91	-50.15	-2.296	39.606	-2.296	39.606	-3.91	-50.15
4500	-3.977	-50.51	-2.251	39.244	-2.251	39.244	-3.977	-50.51
4550	-4.044	-50.866	-2.206	38.885	-2.206	38.885	-4.044	-50.866
4600	-4.111	-51.219	-2.163	38.53	-2.163	38.53	-4.111	-51.219
4650	-4.179	-51.568	-2.121	38.178	-2.121	38.178	-4.179	-51.568
4700	-4.246	-51.913	-2.08	37.83	-2.08	37.83	-4.246	-51.913
4750	-4.314	-52.255	-2.039	37.486	-2.039	37.486	-4.314	-52.255
4800	-4.382	-52.593	-2	37.145	-2	37.145	-4.382	-52.593
4850	-4.449	-52.927	-1.961	36.808	-1.961	36.808	-4.449	-52.927
4900	-4.517	-53.259	-1.924	36.474	-1.924	36.474	-4.517	-53.259
4950	-4.586	-53.586	-1.887	36.144	-1.887	36.144	-4.586	-53.586
5000	-4.654	-53.911	-1.851	35.816	-1.851	35.816	-4.654	-53.911
5050	-4.722	-54.232	-1.815	35.493	-1.815	35.493	-4.722	-54.232
5100	-4.791	-54.55	-1.781	35.172	-1.781	35.172	-4.791	-54.55
5150	-4.86	-54.864	-1.747	34.855	-1.747	34.855	-4.86	-54.864
5200	-4.928	-55.176	-1.714	34.54	-1.714	34.54	-4.928	-55.176
5250	-4.997	-55.484	-1.682	34.229	-1.682	34.229	-4.997	-55.484
5300	-5.066	-55.789	-1.65	33.921	-1.65	33.921	-5.066	-55.789
5350	-5.135	-56.092	-1.619	33.616	-1.619	33.616	-5.135	-56.092
5400	-5.205	-56.391	-1.589	33.314	-1.589	33.314	-5.205	-56.391
5450	-5.274	-56.687	-1.559	33.015	-1.559	33.015	-5.274	-56.687
5500	-5.344	-56.98	-1.53	32.719	-1.53	32.719	-5.344	-56.98
5550	-5.413	-57.27	-1.502	32.426	-1.502	32.426	-5.413	-57.27
5600	-5.483	-57.558	-1.474	32.136	-1.474	32.136	-5.483	-57.558
5650	-5.553	-57.842	-1.446	31.848	-1.446	31.848	-5.553	-57.842
5700	-5.622	-58.124	-1.42	31.564	-1.42	31.564	-5.622	-58.124
5750	-5.692	-58.403	-1.394	31.282	-1.394	31.282	-5.692	-58.403
5800	-5.763	-58.68	-1.368	31.002	-1.368	31.002	-5.763	-58.68
5850	-5.833	-58.953	-1.343	30.725	-1.343	30.725	-5.833	-58.953
5900	-5.903	-59.224	-1.318	30.451	-1.318	30.451	-5.903	-59.224
5950	-5.973	-59.493	-1.294	30.18	-1.294	30.18	-5.973	-59.493
6000	-6.044	-59.759	-1.27	29.911	-1.27	29.911	-6.044	-59.759
6050	-6.115	-60.022	-1.247	29.644	-1.247	29.644	-6.115	-60.022
6100	-6.185	-60.283	-1.225	29.38	-1.225	29.38	-6.185	-60.283
6150	-6.256	-60.541	-1.202	29.119	-1.202	29.119	-6.256	-60.541
6200	-6.327	-60.797	-1.181	28.86	-1.181	28.86	-6.327	-60.797
6250	-6.398	-61.051	-1.159	28.603	-1.159	28.603	-6.398	-61.051
6300	-6.469	-61.302	-1.138	28.348	-1.138	28.348	-6.469	-61.302
6350	-6.54	-61.551	-1.118	28.096	-1.118	28.096	-6.54	-61.551
6400	-6.612	-61.798	-1.098	27.846	-1.098	27.846	-6.612	-61.798
6450	-6.683	-62.042	-1.078	27.599	-1.078	27.599	-6.683	-62.042
6500	-6.755	-62.284	-1.058	27.353	-1.058	27.353	-6.755	-62.284
6550	-6.826	-62.524	-1.039	27.11	-1.039	27.11	-6.826	-62.524
6600	-6.898	-62.762	-1.021	26.869	-1.021	26.869	-6.898	-62.762
6650	-6.97	-62.997	-1.002	26.63	-1.002	26.63	-6.97	-62.997
6700	-7.042	-63.23	-0.984	26.393	-0.984	26.393	-7.042	-63.23
6750	-7.114	-63.462	-0.967	26.158	-0.967	26.158	-7.114	-63.462
6800	-7.186	-63.691	-0.95	25.926	-0.95	25.926	-7.186	-63.691
6850	-7.258	-63.918	-0.933	25.695	-0.933	25.695	-7.258	-63.918
6900	-7.331	-64.143	-0.916	25.466	-0.916	25.466	-7.331	-64.143
6950	-7.403	-64.367	-0.9	25.239	-0.9	25.239	-7.403	-64.367
7000	-7.476	-64.588	-0.884	25.014	-0.884	25.014	-7.476	-64.588
7050	-7.549	-64.807	-0.868	24.791	-0.868	24.791	-7.549	-64.807
7100	-7.622	-65.025	-0.853	24.57	-0.853	24.57	-7.622	-65.025
7150	-7.695	-65.24	-0.837	24.351	-0.837	24.351	-7.695	-65.24
7200	-7.768	-65.454	-0.823	24.134	-0.823	24.134	-7.768	-65.454
7250	-7.841	-65.666	-0.808	23.918	-0.808	23.918	-7.841	-65.666
7300	-7.915	-65.876	-0.794	23.704	-0.794	23.704	-7.915	-65.876
7350	-7.989	-66.084	-0.78	23.492	-0.78	23.492	-7.989	-66.084
7400	-8.062	-66.29	-0.766	23.282	-0.766	23.282	-8.062	-66.29
7450	-8.136	-66.495	-0.752	23.073	-0.752	23.073	-8.136	-66.495
7500	-8.21	-66.698	-0.739	22.866	-0.739	22.866	-8.21	-66.698
7550	-8.284	-66.9	-0.726	22.661	-0.726	22.661	-8.284	-66.9
7600	-8.359	-67.099	-0.713	22.457	-0.713	22.457	-8.359	-67.099
7650	-8.433	-67.297	-0.7	22.255	-0.7	22.255	-8.433	-67.297
7700	-8.508	-67.494	-0.688	22.054	-0.688	22.054	-8.508	-67.494
7750	-8.583	-67.688	-0.676	21.855	-0.676	21.855	-8.583	-67.688
7800	-8.658	-67.881	-0.664	21.658	-0.664	21.658	-8.658	-67.881
7850	-8.733	-68.073	-0.652	21.462	-0.652	21.462	-8.733	-68.073
7900	-8.808	-68.263	-0.64	21.268	-0.64	21.268	-8.808	-68.263
7950	-8.884	-68.452	-0.629	21.075	-0.629	21.075	-8.884	-68.452
8000	-8.959	-68.639	-0.618	20.884	-0.618	20.884	-8.959	-68.639
8050	-9.035	-68.824	-0.607	20.694	-0.607	20.694	-9.035	-68.824
8100	-9.111	-69.008	-0.596	20.505	-0.596	20.505	-9.111	-69.008
8150	-9.187	-69.191	-0.586	20.318	-0.586	20.318	-9.187	-69.191
8200	-9.264	-69.372	-0.575	20.132	-0.575	20.132	-9.264	-69.372
8250	-9.34	-69.551	-0.565	19.948	-0.565	19.948	-9.34	-69.551
8300	-9.417	-69.73	-0.555	19.765	-0.555	19.765	-9.417	-69.73
8350	-9.494	-69.906	-0.545	19.584	-0.545	19.584	-9.494	-69.906
8400	-9.571	-70.082	-0.535	19.403	-0.535	19.403	-9.571	-70.082
8450	-9.649	-70.256	-0.526	19.224	-0.526	19.224	-9.649	-70.256
8500	-9.726	-70.429	-0.517	19.047	-0.517	19.047	-9.726	-70.429
8550	-9.804	-70.6	-0.507	18.87	-0.507	18.87	-9.804	-70.6
8600	-9.882	-70.77	-0.498	18.695	-0.498	18.695	-9.882	-70.77
8650	-9.96	-70.939	-0.489	18.521	-0.489	18.521	-9.96	-70.939
8700	-10.039	-71.107	-0.481	18.349	-0.481	18.349	-10.039	-71.107
8750	-10.118	-71.273	-0.472	18.177	-0.472	18.177	-10.118	-71.273
8800	-10.197	-71.438	-0.464	18.007	-0.464	18.007	-10.197	-71.438
8850	-10.276	-71.602	-0.455	17.838	-0.455	17.838	-10.276	-71.602
8900	-10.355	-71.765	-0.447	17.67	-0.447	17.67	-10.355	-71.765
8950	-10.435	-71.926	-0.439	17.503	-0.439	17.503	-10.435	-71.926
9000	-10.515	-72.086	-0.431	17.337	-0.431	17.337	-10.515	-72.086
9050	-10.596	-72.245	-0.423	17.173	-0.423	17.173	-10.596	-72.245
9100	-10.676	-72.403	-0.416	17.01	-0.416	17.01	-10.676	-72.403
9150	-10.757	-72.559	-0.408	16.847	-0.408	16.847	-10.757	-72.559
9200	-10.838	-72.715	-0.401	16.686	-0.401	16.686	-10.838	-72.715
9250	-10.919	-72.869	-0.394	16.526	-0.394	16.526	-10.919	-72.869
9300	-11.001	-73.022	-0.387	16.367	-0.387	16.367	-11.001	-73.022
9350	-11.083	-73.175	-0.38	16.209	-0.38	16.209	-11.083	-73.175
9400	-11.165	-73.325	-0.373	16.052	-0.373	16.052	-11.165	-73.325
9450	-11.248	-73.475	-0.366	15.896	-0.366	15.896	-11.248	-73.475
9500	-11.331	-73.624	-0.359	15.741	-0.359	15.741	-11.331	-73.624
9550	-11.414	-73.772	-0.353	15.587	-0.353	15.587	-11.414	-73.772
9600	-11.498	-73.919	-0.346	15.433	-0.346	15.433	-11.498	-73.919
9650	-11.582	-74.064	-0.34	15.281	-0.34	15.281	-11.582	-74.064
9700	-11.666	-74.209	-0.334	15.13	-0.334	15.13	-11.666	-74.209
9750	-11.751	-74.352	-0.327	14.98	-0.327	14.98	-11.751	-74.352
9800	-11.836	-74.495	-0.321	14.831	-0.321	14.831	-11.836	-74.495
9850	-11.921	-74.636	-0.315	14.683	-0.315	14.683	-11.921	-74.636
9900	-12.007	-74.777	-0.31	14.535	-0.31	14.535	-12.007	-74.777
9950	-12.093	-74.916	-0.304	14.389	-0.304	14.389	-12.093	-74.916
10000	-12.179	-75.055	-0.298	14.243	-0.298	14.243	-12.179	-75.055
10050	-12.266	-75.192	-0.293	14.098	-0.293	14.098	-12.266	-75.192
10100	-12.354	-75.329	-0.287	13.954	-0.287	13.954	-12.354	-75.329
10150	-12.441	-75.464	-0.282	13.811	-0.282	13.811	-12.441	-75.464
10200	-12.529	-75.599	-0.277	13.669	-0.277	13.669	-12.529	-75.599
10250	-12.618	-75.733	-0.271	13.528	-0.271	13.528	-12.618	-75.733
10300	-12.707	-75.865	-0.266	13.387	-0.266	13.387	-12.707	-75.865
10350	-12.796	-75.997	-0.261	13.248	-0.261	13.248	-12.796	-75.997
10400	-12.886	-76.128	-0.256	13.109	-0.256	13.109	-12.886	-76.128
10450	-12.977	-76.258	-0.251	12.971	-0.251	12.971	-12.977	-76.258
10500	-13.067	-76.387	-0.247	12.834	-0.247	12.834	-13.067	-76.387
10550	-13.159	-76.515	-0.242	12.697	-0.242	12.697	-13.159	-76.515
10600	-13.25	-76.642	-0.237	12.561	-0.237	12.561	-13.25	-76.642
10650	-13.343	-76.768	-0.233	12.427	-0.233	12.427	-13.343	-76.768
10700	-13.436	-76.894	-0.228	12.292	-0.228	12.292	-13.436	-76.894
10750	-13.529	-77.018	-0.224	12.159	-0.224	12.159	-13.529	-77.018
10800	-13.623	-77.142	-0.22	12.026	-0.22	12.026	-13.623	-77.142
10850	-13.717	-77.264	-0.215	11.894	-0.215	11.894	-13.717	-77.264
10900	-13.812	-77.386	-0.211	11.763	-0.211	11.763	-13.812	-77.386
10950	-13.908	-77.507	-0.207	11.633	-0.207	11.633	-13.908	-77.507
11000	-14.004	-77.627	-0.203	11.503	-0.203	11.503	-14.004	-77.627
11050	-14.101	-77.747	-0.199	11.374	-0.199	11.374	-14.101	-77.747
11100	-14.198	-77.865	-0.195	11.245	-0.195	11.245	-14.198	-77.865
11150	-14.296	-77.982	-0.191	11.118	-0.191	11.118	-14.296	-77.982
11200	-14.394	-78.099	-0.188	10.99	-0.188	10.99	-14.394	-78.099
11250	-14.494	-78.215	-0.184	10.864	-0.184	10.864	-14.494	-78.215
11300	-14.593	-78.33	-0.18	10.738	-0.18	10.738	-14.593	-78.33
11350	-14.694	-78.444	-0.177	10.613	-0.177	10.613	-14.694	-78.444
11400	-14.795	-78.557	-0.173	10.489	-0.173	10.489	-14.795	-78.557
11450	-14.897	-78.669	-0.17	10.365	-0.17	10.365	-14.897	-78.669
11500	-15	-78.781	-0.166	10.242	-0.166	10.242	-15	-78.781
11550	-15.103	-78.892	-0.163	10.12	-0.163	10.12	-15.103	-78.892
11600	-15.207	-79.002	-0.16	9.998	-0.16	9.998	-15.207	-79.002
11650	-15.312	-79.111	-0.156	9.876	-0.156	9.876	-15.312	-79.111
11700	-15.418	-79.219	-0.153	9.756	-0.153	9.756	-15.418	-79.219
11750	-15.524	-79.326	-0.15	9.636	-0.15	9.636	-15.524	-79.326
11800	-15.632	-79.432	-0.147	9.516	-0.147	9.516	-15.632	-79.432
11850	-15.74	-79.538	-0.144	9.397	-0.144	9.397	-15.74	-79.538
11900	-15.849	-79.643	-0.141	9.279	-0.141	9.279	-15.849	-79.643
11950	-15.959	-79.747	-0.138	9.161	-0.138	9.161	-15.959	-79.747
12000	-16.07	-79.85	-0.135	9.044	-0.135	9.044	-16.07	-79.85
12050	-16.181	-79.952	-0.133	8.928	-0.133	8.928	-16.181	-79.952
12100	-16.294	-80.053	-0.13	8.812	-0.13	8.812	-16.294	-80.053
12150	-16.408	-80.153	-0.127	8.696	-0.127	8.696	-16.408	-80.153
12200	-16.522	-80.253	-0.125	8.581	-0.125	8.581	-16.522	-80.253
12250	-16.638	-80.351	-0.122	8.467	-0.122	8.467	-16.638	-80.351
12300	-16.755	-80.449	-0.119	8.353	-0.119	8.353	-16.755	-80.449
12350	-16.872	-80.546	-0.117	8.24	-0.117	8.24	-16.872	-80.546
12400	-16.991	-80.642	-0.114	8.127	-0.114	8.127	-16.991	-80.642
12450	-17.111	-80.737	-0.112	8.015	-0.112	8.015	-17.111	-80.737
12500	-17.232	-80.831	-0.11	7.903	-0.11	7.903	-17.232	-80.831
12550	-17.355	-80.924	-0.107	7.792	-0.107	7.792	-17.355	-80.924
12600	-17.478	-81.016	-0.105	7.681	-0.105	7.681	-17.478	-81.016
12650	-17.603	-81.108	-0.103	7.571	-0.103	7.571	-17.603	-81.108
12700	-17.729	-81.198	-0.101	7.461	-0.101	7.461	-17.729	-81.198
12750	-17.856	-81.287	-0.098	7.352	-0.098	7.352	-17.856	-81.287
12800	-17.985	-81.376	-0.096	7.243	-0.096	7.243	-17.985	-81.376
12850	-18.115	-81.463	-0.094	7.135	-0.094	7.135	-18.115	-81.463
12900	-18.246	-81.549	-0.092	7.027	-0.092	7.027	-18.246	-81.549
12950	-18.379	-81.635	-0.09	6.92	-0.09	6.92	-18.379	-81.635
13000	-18.514	-81.719	-0.088	6.813	-0.088	6.813	-18.514	-81.719
13050	-18.65	-81.802	-0.086	6.706	-0.086	6.706	-18.65	-81.802
13100	-18.787	-81.884	-0.084	6.6	-0.084	6.6	-18.787	-81.884
13150	-18.927	-81.965	-0.083	6.495	-0.083	6.495	-18.927	-81.965
13200	-19.068	-82.044	-0.081	6.39	-0.081	6.39	-19.068	-82.044
13250	-19.21	-82.123	-0.079	6.285	-0.079	6.285	-19.21	-82.123
13300	-19.355	-82.2	-0.077	6.181	-0.077	6.181	-19.355	-82.2
13350	-19.501	-82.276	-0.076	6.077	-0.076	6.077	-19.501	-82.276
13400	-19.649	-82.351	-0.074	5.974	-0.074	5.974	-19.649	-82.351
13450	-19.799	-82.425	-0.072	5.871	-0.072	5.871	-19.799	-82.425
13500	-19.952	-82.497	-0.071	5.769	-0.071	5.769	-19.952	-82.497
13550	-20.106	-82.568	-0.069	5.667	-0.069	5.667	-20.106	-82.568
13600	-20.262	-82.637	-0.068	5.565	-0.068	5.565	-20.262	-82.637
13650	-20.421	-82.705	-0.066	5.464	-0.066	5.464	-20.421	-82.705
13700	-20.582	-82.772	-0.065	5.363	-0.065	5.363	-20.582	-82.772
13750	-20.746	-82.836	-0.063	5.263	-0.063	5.263	-20.746	-82.836
13800	-20.911	-82.9	-0.062	5.163	-0.062	5.163	-20.911	-82.9
13850	-21.08	-82.961	-0.061	5.063	-0.061	5.063	-21.08	-82.961
13900	-21.251	-83.021	-0.059	4.964	-0.059	4.964	-21.251	-83.021
13950	-21.425	-83.079	-0.058	4.865	-0.058	4.865	-21.425	-83.079
14000	-21.602	-83.135	-0.057	4.767	-0.057	4.767	-21.602	-83.135
14050	-21.782	-83.189	-0.055	4.669	-0.055	4.669	-21.782	-83.189
14100	-21.965	-83.241	-0.054	4.571	-0.054	4.571	-21.965	-83.241
14150	-22.151	-83.29	-0.053	4.474	-0.053	4.474	-22.151	-83.29
14200	-22.34	-83.338	-0.052	4.377	-0.052	4.377	-22.34	-83.338
14250	-22.533	-83.383	-0.051	4.281	-0.051	4.281	-22.533	-83.383
14300	-22.73	-83.425	-0.05	4.184	-0.05	4.184	-22.73	-83.425
14350	-22.93	-83.465	-0.049	4.089	-0.049	4.089	-22.93	-83.465
14400	-23.135	-83.502	-0.048	3.993	-0.048	3.993	-23.135	-83.502
14450	-23.343	-83.536	-0.047	3.898	-0.047	3.898	-23.343	-83.536
14500	-23.556	-83.567	-0.046	3.803	-0.046	3.803	-23.556	-83.567
14550	-23.774	-83.595	-0.045	3.709	-0.045	3.709	-23.774	-83.595
14600	-23.996	-83.619	-0.044	3.615	-0.044	3.615	-23.996	-83.619
14650	-24.223	-83.639	-0.043	3.521	-0.043	3.521	-24.223	-83.639
14700	-24.456	-83.655	-0.042	3.428	-0.042	3.428	-24.456	-83.655
14750	-24.694	-83.667	-0.041	3.335	-0.041	3.335	-24.694	-83.667
14800	-24.937	-83.674	-0.04	3.242	-0.04	3.242	-24.937	-83.674
14850	-25.187	-83.676	-0.04	3.15	-0.04	3.15	-25.187	-83.676
14900	-25.444	-83.673	-0.039	3.058	-0.039	3.058	-25.444	-83.673
14950	-25.707	-83.664	-0.038	2.966	-0.038	2.966	-25.707	-83.664
15000	-25.977	-83.649	-0.037	2.875	-0.037	2.875	-25.977	-83.649
15050	-26.256	-83.626	-0.037	2.784	-0.037	2.784	-26.256	-83.626
15100	-26.542	-83.596	-0.036	2.693	-0.036	2.693	-26.542	-83.596
15150	-26.837	-83.558	-0.036	2.603	-0.036	2.603	-26.837	-83.558
15200	-27.141	-83.511	-0.035	2.513	-0.035	2.513	-27.141	-83.511
15250	-27.456	-83.454	-0.034	2.423	-0.034	2.423	-27.456	-83.454
15300	-27.78	-83.386	-0.034	2.334	-0.034	2.334	-27.78	-83.386
15350	-28.117	-83.306	-0.033	2.244	-0.033	2.244	-28.117	-83.306
15400	-28.465	-83.212	-0.033	2.155	-0.033	2.155	-28.465	-83.212
15450	-28.827	-83.103	-0.032	2.067	-0.032	2.067	-28.827	-83.103
15500	-29.203	-82.977	-0.032	1.979	-0.032	1.979	-29.203	-82.977
15550	-29.595	-82.832	-0.031	1.891	-0.031	1.891	-29.595	-82.832
15600	-30.003	-82.664	-0.031	1.803	-0.031	1.803	-30.003	-82.664
