!	AVX	Thin	Film	Operation	
!
!	Date:	March 2012		
!
!	Description: Ultra-Miniature 01005 Size ACCU - P® Thin Film RF / Microwave Capacitor
!
!	Part Number:  C005YK0R8ABSTR	
!								
!	Serial	Measurements						
!								
#	MHz	S	db	R	50			
!	S11	S21	S12	S22				
!	dB	Phase	dB	Phase	dB	Phase	dB	Phase
50	-2.99E-03	-1.44	-31.998	88.494	-31.998	88.494	-2.99E-03	-1.44
84.962	-8.38E-03	-2.445	-27.398	87.483	-27.398	87.483	-8.38E-03	-2.445
119.925	-0.016	-3.45	-24.412	86.472	-24.412	86.472	-0.016	-3.45
154.887	-0.027	-4.452	-22.2	85.464	-22.2	85.464	-0.027	-4.452
189.85	-0.041	-5.452	-20.445	84.458	-20.445	84.458	-0.041	-5.452
224.812	-0.057	-6.449	-18.992	83.455	-18.992	83.455	-0.057	-6.449
259.774	-0.075	-7.442	-17.754	82.456	-17.754	82.456	-0.075	-7.442
294.737	-0.097	-8.43	-16.677	81.461	-16.677	81.461	-0.097	-8.43
329.699	-0.121	-9.415	-15.725	80.471	-15.725	80.471	-0.121	-9.415
364.662	-0.147	-10.394	-14.875	79.486	-14.875	79.486	-0.147	-10.394
399.624	-0.176	-11.367	-14.107	78.506	-14.107	78.506	-0.176	-11.367
434.586	-0.207	-12.334	-13.407	77.533	-13.407	77.533	-0.207	-12.334
469.549	-0.241	-13.295	-12.767	76.566	-12.767	76.566	-0.241	-13.295
504.511	-0.277	-14.249	-12.177	75.606	-12.177	75.606	-0.277	-14.249
539.474	-0.315	-15.195	-11.631	74.654	-11.631	74.654	-0.315	-15.195
574.436	-0.356	-16.133	-11.123	73.709	-11.123	73.709	-0.356	-16.133
609.398	-0.399	-17.064	-10.65	72.773	-10.65	72.773	-0.399	-17.064
644.361	-0.444	-17.986	-10.207	71.845	-10.207	71.845	-0.444	-17.986
679.323	-0.49	-18.899	-9.792	70.925	-9.792	70.925	-0.49	-18.899
714.286	-0.539	-19.803	-9.402	70.015	-9.402	70.015	-0.539	-19.803
749.248	-0.59	-20.697	-9.034	69.114	-9.034	69.114	-0.59	-20.697
784.211	-0.643	-21.582	-8.687	68.223	-8.687	68.223	-0.643	-21.582
819.173	-0.698	-22.458	-8.359	67.342	-8.359	67.342	-0.698	-22.458
854.135	-0.754	-23.323	-8.048	66.47	-8.048	66.47	-0.754	-23.323
889.098	-0.812	-24.178	-7.753	65.609	-7.753	65.609	-0.812	-24.178
924.06	-0.872	-25.023	-7.474	64.758	-7.474	64.758	-0.872	-25.023
959.023	-0.933	-25.857	-7.208	63.917	-7.208	63.917	-0.933	-25.857
993.985	-0.996	-26.681	-6.955	63.087	-6.955	63.087	-0.996	-26.681
1028.947	-1.06	-27.494	-6.714	62.268	-6.714	62.268	-1.06	-27.494
1063.91	-1.125	-28.296	-6.484	61.46	-6.484	61.46	-1.125	-28.296
1098.872	-1.192	-29.087	-6.265	60.662	-6.265	60.662	-1.192	-29.087
1133.835	-1.26	-29.868	-6.055	59.875	-6.055	59.875	-1.26	-29.868
1168.797	-1.33	-30.637	-5.855	59.099	-5.855	59.099	-1.33	-30.637
1203.759	-1.4	-31.396	-5.664	58.334	-5.664	58.334	-1.4	-31.396
1238.722	-1.472	-32.144	-5.481	57.58	-5.481	57.58	-1.472	-32.144
1273.684	-1.544	-32.881	-5.306	56.837	-5.306	56.837	-1.544	-32.881
1308.647	-1.618	-33.607	-5.138	56.105	-5.138	56.105	-1.618	-33.607
1343.609	-1.692	-34.322	-4.977	55.383	-4.977	55.383	-1.692	-34.322
1378.571	-1.768	-35.026	-4.822	54.672	-4.822	54.672	-1.768	-35.026
1413.534	-1.844	-35.72	-4.674	53.972	-4.674	53.972	-1.844	-35.72
1448.496	-1.921	-36.403	-4.532	53.283	-4.532	53.283	-1.921	-36.403
1483.459	-1.998	-37.075	-4.395	52.604	-4.395	52.604	-1.998	-37.075
1518.421	-2.077	-37.737	-4.264	51.935	-4.264	51.935	-2.077	-37.737
1553.383	-2.156	-38.389	-4.138	51.277	-4.138	51.277	-2.156	-38.389
1588.346	-2.236	-39.03	-4.017	50.629	-4.017	50.629	-2.236	-39.03
1623.308	-2.316	-39.662	-3.9	49.991	-3.9	49.991	-2.316	-39.662
1658.271	-2.397	-40.283	-3.788	49.363	-3.788	49.363	-2.397	-40.283
1693.233	-2.478	-40.894	-3.679	48.746	-3.679	48.746	-2.478	-40.894
1728.195	-2.56	-41.496	-3.575	48.137	-3.575	48.137	-2.56	-41.496
1763.158	-2.642	-42.087	-3.475	47.539	-3.475	47.539	-2.642	-42.087
1798.12	-2.724	-42.67	-3.378	46.95	-3.378	46.95	-2.724	-42.67
1833.083	-2.807	-43.243	-3.285	46.37	-3.285	46.37	-2.807	-43.243
1868.045	-2.89	-43.806	-3.195	45.8	-3.195	45.8	-2.89	-43.806
1903.008	-2.974	-44.361	-3.108	45.239	-3.108	45.239	-2.974	-44.361
1937.97	-3.058	-44.906	-3.024	44.686	-3.024	44.686	-3.058	-44.906
1972.932	-3.142	-45.443	-2.943	44.143	-2.943	44.143	-3.142	-45.443
2007.895	-3.226	-45.971	-2.865	43.608	-2.865	43.608	-3.226	-45.971
2042.857	-3.311	-46.491	-2.79	43.082	-2.79	43.082	-3.311	-46.491
2077.82	-3.396	-47.002	-2.717	42.564	-2.717	42.564	-3.396	-47.002
2112.782	-3.48	-47.505	-2.646	42.054	-2.646	42.054	-3.48	-47.505
2147.744	-3.565	-47.999	-2.578	41.553	-2.578	41.553	-3.565	-47.999
2182.707	-3.651	-48.486	-2.512	41.059	-2.512	41.059	-3.651	-48.486
2217.669	-3.736	-48.965	-2.449	40.573	-2.449	40.573	-3.736	-48.965
2252.632	-3.821	-49.436	-2.387	40.095	-2.387	40.095	-3.821	-49.436
2287.594	-3.907	-49.899	-2.327	39.625	-2.327	39.625	-3.907	-49.899
2322.556	-3.992	-50.356	-2.27	39.161	-2.27	39.161	-3.992	-50.356
2357.519	-4.078	-50.805	-2.214	38.705	-2.214	38.705	-4.078	-50.805
2392.481	-4.163	-51.246	-2.16	38.257	-2.16	38.257	-4.163	-51.246
2427.444	-4.249	-51.681	-2.107	37.815	-2.107	37.815	-4.249	-51.681
2462.406	-4.335	-52.109	-2.056	37.38	-2.056	37.38	-4.335	-52.109
2497.368	-4.42	-52.53	-2.007	36.951	-2.007	36.951	-4.42	-52.53
2532.331	-4.506	-52.944	-1.959	36.53	-1.959	36.53	-4.506	-52.944
2567.293	-4.591	-53.352	-1.913	36.115	-1.913	36.115	-4.591	-53.352
2602.256	-4.677	-53.754	-1.868	35.706	-1.868	35.706	-4.677	-53.754
2637.218	-4.763	-54.149	-1.824	35.303	-1.824	35.303	-4.763	-54.149
2672.18	-4.848	-54.539	-1.782	34.906	-1.782	34.906	-4.848	-54.539
2707.143	-4.934	-54.922	-1.741	34.516	-1.741	34.516	-4.934	-54.922
2742.105	-5.019	-55.299	-1.701	34.131	-1.701	34.131	-5.019	-55.299
2777.068	-5.104	-55.671	-1.662	33.752	-1.662	33.752	-5.104	-55.671
2812.03	-5.19	-56.037	-1.624	33.379	-1.624	33.379	-5.19	-56.037
2846.992	-5.275	-56.397	-1.588	33.011	-1.588	33.011	-5.275	-56.397
2881.955	-5.36	-56.752	-1.552	32.648	-1.552	32.648	-5.36	-56.752
2916.917	-5.445	-57.101	-1.518	32.291	-1.518	32.291	-5.445	-57.101
2951.88	-5.53	-57.446	-1.484	31.939	-1.484	31.939	-5.53	-57.446
2986.842	-5.615	-57.785	-1.452	31.592	-1.452	31.592	-5.615	-57.785
3021.805	-5.7	-58.119	-1.42	31.25	-1.42	31.25	-5.7	-58.119
3056.767	-5.785	-58.449	-1.389	30.913	-1.389	30.913	-5.785	-58.449
3091.729	-5.869	-58.773	-1.359	30.581	-1.359	30.581	-5.869	-58.773
3126.692	-5.954	-59.093	-1.33	30.253	-1.33	30.253	-5.954	-59.093
3161.654	-6.038	-59.408	-1.301	29.93	-1.301	29.93	-6.038	-59.408
3196.617	-6.123	-59.718	-1.274	29.611	-1.274	29.611	-6.123	-59.718
3231.579	-6.207	-60.025	-1.247	29.297	-1.247	29.297	-6.207	-60.025
3266.541	-6.291	-60.326	-1.22	28.987	-1.22	28.987	-6.291	-60.326
3301.504	-6.376	-60.624	-1.195	28.682	-1.195	28.682	-6.376	-60.624
3336.466	-6.46	-60.917	-1.17	28.381	-1.17	28.381	-6.46	-60.917
3371.429	-6.543	-61.206	-1.146	28.083	-1.146	28.083	-6.543	-61.206
3406.391	-6.627	-61.491	-1.122	27.79	-1.122	27.79	-6.627	-61.491
3441.353	-6.711	-61.772	-1.099	27.5	-1.099	27.5	-6.711	-61.772
3476.316	-6.795	-62.049	-1.077	27.215	-1.077	27.215	-6.795	-62.049
3511.278	-6.878	-62.323	-1.055	26.933	-1.055	26.933	-6.878	-62.323
3546.241	-6.962	-62.593	-1.033	26.655	-1.033	26.655	-6.962	-62.593
3581.203	-7.045	-62.859	-1.013	26.38	-1.013	26.38	-7.045	-62.859
3616.165	-7.128	-63.121	-0.992	26.109	-0.992	26.109	-7.128	-63.121
3651.128	-7.212	-63.38	-0.972	25.842	-0.972	25.842	-7.212	-63.38
3686.09	-7.295	-63.635	-0.953	25.578	-0.953	25.578	-7.295	-63.635
3721.053	-7.378	-63.887	-0.934	25.317	-0.934	25.317	-7.378	-63.887
3756.015	-7.461	-64.136	-0.916	25.06	-0.916	25.06	-7.461	-64.136
3790.977	-7.544	-64.381	-0.898	24.805	-0.898	24.805	-7.544	-64.381
3825.94	-7.626	-64.623	-0.88	24.554	-0.88	24.554	-7.626	-64.623
3860.902	-7.709	-64.862	-0.863	24.306	-0.863	24.306	-7.709	-64.862
3895.865	-7.792	-65.098	-0.847	24.061	-0.847	24.061	-7.792	-65.098
3930.827	-7.875	-65.331	-0.83	23.819	-0.83	23.819	-7.875	-65.331
3965.789	-7.957	-65.561	-0.814	23.58	-0.814	23.58	-7.957	-65.561
4000.752	-8.04	-65.788	-0.799	23.344	-0.799	23.344	-8.04	-65.788
4035.714	-8.122	-66.012	-0.784	23.111	-0.784	23.111	-8.122	-66.012
4070.677	-8.204	-66.233	-0.769	22.88	-0.769	22.88	-8.204	-66.233
4105.639	-8.287	-66.452	-0.754	22.652	-0.754	22.652	-8.287	-66.452
4140.602	-8.369	-66.668	-0.74	22.427	-0.74	22.427	-8.369	-66.668
4175.564	-8.451	-66.881	-0.726	22.204	-0.726	22.204	-8.451	-66.881
4210.526	-8.533	-67.091	-0.712	21.984	-0.712	21.984	-8.533	-67.091
4245.489	-8.615	-67.299	-0.699	21.767	-0.699	21.767	-8.615	-67.299
4280.451	-8.698	-67.504	-0.686	21.551	-0.686	21.551	-8.698	-67.504
4315.414	-8.78	-67.707	-0.674	21.339	-0.674	21.339	-8.78	-67.707
4350.376	-8.862	-67.908	-0.661	21.128	-0.661	21.128	-8.862	-67.908
4385.338	-8.944	-68.105	-0.649	20.92	-0.649	20.92	-8.944	-68.105
4420.301	-9.026	-68.301	-0.637	20.715	-0.637	20.715	-9.026	-68.301
4455.263	-9.108	-68.494	-0.625	20.511	-0.625	20.511	-9.108	-68.494
4490.226	-9.19	-68.685	-0.614	20.31	-0.614	20.31	-9.19	-68.685
4525.188	-9.272	-68.874	-0.603	20.111	-0.603	20.111	-9.272	-68.874
4560.15	-9.354	-69.06	-0.592	19.914	-0.592	19.914	-9.354	-69.06
4595.113	-9.435	-69.245	-0.581	19.719	-0.581	19.719	-9.435	-69.245
4630.075	-9.517	-69.427	-0.571	19.526	-0.571	19.526	-9.517	-69.427
4665.038	-9.599	-69.607	-0.561	19.336	-0.561	19.336	-9.599	-69.607
4700	-9.681	-69.785	-0.551	19.147	-0.551	19.147	-9.681	-69.785
4734.962	-9.763	-69.961	-0.541	18.96	-0.541	18.96	-9.763	-69.961
4769.925	-9.845	-70.135	-0.531	18.775	-0.531	18.775	-9.845	-70.135
4804.887	-9.927	-70.307	-0.522	18.592	-0.522	18.592	-9.927	-70.307
4839.85	-10.009	-70.477	-0.513	18.411	-0.513	18.411	-10.009	-70.477
4874.812	-10.091	-70.645	-0.504	18.231	-0.504	18.231	-10.091	-70.645
4909.774	-10.174	-70.811	-0.495	18.054	-0.495	18.054	-10.174	-70.811
4944.737	-10.256	-70.975	-0.486	17.878	-0.486	17.878	-10.256	-70.975
4979.699	-10.338	-71.138	-0.478	17.704	-0.478	17.704	-10.338	-71.138
5014.662	-10.42	-71.298	-0.469	17.531	-0.469	17.531	-10.42	-71.298
5049.624	-10.503	-71.457	-0.461	17.361	-0.461	17.361	-10.503	-71.457
5084.586	-10.585	-71.614	-0.453	17.192	-0.453	17.192	-10.585	-71.614
5119.549	-10.667	-71.77	-0.445	17.024	-0.445	17.024	-10.667	-71.77
5154.511	-10.75	-71.923	-0.438	16.858	-0.438	16.858	-10.75	-71.923
5189.474	-10.833	-72.075	-0.43	16.694	-0.43	16.694	-10.833	-72.075
5224.436	-10.915	-72.226	-0.423	16.531	-0.423	16.531	-10.915	-72.226
5259.398	-10.998	-72.374	-0.416	16.37	-0.416	16.37	-10.998	-72.374
5294.361	-11.081	-72.521	-0.408	16.21	-0.408	16.21	-11.081	-72.521
5329.323	-11.164	-72.667	-0.401	16.052	-0.401	16.052	-11.164	-72.667
5364.286	-11.247	-72.811	-0.395	15.895	-0.395	15.895	-11.247	-72.811
5399.248	-11.33	-72.953	-0.388	15.739	-0.388	15.739	-11.33	-72.953
5434.211	-11.413	-73.094	-0.381	15.585	-0.381	15.585	-11.413	-73.094
5469.173	-11.497	-73.233	-0.375	15.433	-0.375	15.433	-11.497	-73.233
5504.135	-11.58	-73.371	-0.369	15.281	-0.369	15.281	-11.58	-73.371
5539.098	-11.664	-73.508	-0.362	15.131	-0.362	15.131	-11.664	-73.508
5574.06	-11.747	-73.643	-0.356	14.983	-0.356	14.983	-11.747	-73.643
5609.023	-11.831	-73.776	-0.35	14.835	-0.35	14.835	-11.831	-73.776
5643.985	-11.915	-73.908	-0.345	14.689	-0.345	14.689	-11.915	-73.908
5678.947	-12	-74.039	-0.339	14.544	-0.339	14.544	-12	-74.039
5713.91	-12.084	-74.168	-0.333	14.4	-0.333	14.4	-12.084	-74.168
5748.872	-12.168	-74.296	-0.328	14.258	-0.328	14.258	-12.168	-74.296
5783.835	-12.253	-74.423	-0.322	14.117	-0.322	14.117	-12.253	-74.423
5818.797	-12.338	-74.548	-0.317	13.976	-0.317	13.976	-12.338	-74.548
5853.759	-12.423	-74.672	-0.312	13.837	-0.312	13.837	-12.423	-74.672
5888.722	-12.508	-74.794	-0.307	13.7	-0.307	13.7	-12.508	-74.794
5923.684	-12.594	-74.916	-0.301	13.563	-0.301	13.563	-12.594	-74.916
5958.647	-12.679	-75.036	-0.297	13.427	-0.297	13.427	-12.679	-75.036
5993.609	-12.765	-75.154	-0.292	13.293	-0.292	13.293	-12.765	-75.154
6028.571	-12.851	-75.272	-0.287	13.159	-0.287	13.159	-12.851	-75.272
6063.534	-12.937	-75.388	-0.282	13.027	-0.282	13.027	-12.937	-75.388
6098.496	-13.024	-75.503	-0.278	12.895	-0.278	12.895	-13.024	-75.503
6133.459	-13.11	-75.617	-0.273	12.765	-0.273	12.765	-13.11	-75.617
6168.421	-13.197	-75.729	-0.269	12.636	-0.269	12.636	-13.197	-75.729
6203.383	-13.285	-75.841	-0.264	12.507	-0.264	12.507	-13.285	-75.841
6238.346	-13.372	-75.951	-0.26	12.38	-0.26	12.38	-13.372	-75.951
6273.308	-13.46	-76.06	-0.256	12.254	-0.256	12.254	-13.46	-76.06
6308.271	-13.548	-76.168	-0.252	12.128	-0.252	12.128	-13.548	-76.168
6343.233	-13.636	-76.274	-0.248	12.004	-0.248	12.004	-13.636	-76.274
6378.195	-13.724	-76.38	-0.244	11.88	-0.244	11.88	-13.724	-76.38
6413.158	-13.813	-76.484	-0.24	11.757	-0.24	11.757	-13.813	-76.484
6448.12	-13.902	-76.587	-0.236	11.636	-0.236	11.636	-13.902	-76.587
6483.083	-13.992	-76.689	-0.232	11.515	-0.232	11.515	-13.992	-76.689
6518.045	-14.081	-76.79	-0.229	11.395	-0.229	11.395	-14.081	-76.79
6553.008	-14.171	-76.89	-0.225	11.276	-0.225	11.276	-14.171	-76.89
6587.97	-14.262	-76.989	-0.221	11.157	-0.221	11.157	-14.262	-76.989
6622.932	-14.352	-77.086	-0.218	11.04	-0.218	11.04	-14.352	-77.086
6657.895	-14.443	-77.183	-0.214	10.923	-0.214	10.923	-14.443	-77.183
6692.857	-14.535	-77.278	-0.211	10.807	-0.211	10.807	-14.535	-77.278
6727.82	-14.627	-77.372	-0.208	10.692	-0.208	10.692	-14.627	-77.372
6762.782	-14.719	-77.466	-0.204	10.578	-0.204	10.578	-14.719	-77.466
6797.744	-14.811	-77.558	-0.201	10.464	-0.201	10.464	-14.811	-77.558
6832.707	-14.904	-77.649	-0.198	10.352	-0.198	10.352	-14.904	-77.649
6867.669	-14.998	-77.739	-0.195	10.24	-0.195	10.24	-14.998	-77.739
6902.632	-15.091	-77.827	-0.192	10.129	-0.192	10.129	-15.091	-77.827
6937.594	-15.185	-77.915	-0.189	10.018	-0.189	10.018	-15.185	-77.915
6972.556	-15.28	-78.002	-0.186	9.908	-0.186	9.908	-15.28	-78.002
7007.519	-15.375	-78.087	-0.183	9.799	-0.183	9.799	-15.375	-78.087
7042.481	-15.47	-78.172	-0.18	9.691	-0.18	9.691	-15.47	-78.172
7077.444	-15.566	-78.255	-0.178	9.583	-0.178	9.583	-15.566	-78.255
7112.406	-15.663	-78.338	-0.175	9.477	-0.175	9.477	-15.663	-78.338
7147.368	-15.76	-78.419	-0.172	9.37	-0.172	9.37	-15.76	-78.419
7182.331	-15.857	-78.499	-0.17	9.265	-0.17	9.265	-15.857	-78.499
7217.293	-15.955	-78.578	-0.167	9.16	-0.167	9.16	-15.955	-78.578
7252.256	-16.053	-78.657	-0.164	9.056	-0.164	9.056	-16.053	-78.657
7287.218	-16.152	-78.734	-0.162	8.952	-0.162	8.952	-16.152	-78.734
7322.18	-16.252	-78.809	-0.159	8.849	-0.159	8.849	-16.252	-78.809
7357.143	-16.352	-78.884	-0.157	8.747	-0.157	8.747	-16.352	-78.884
7392.105	-16.452	-78.958	-0.155	8.645	-0.155	8.645	-16.452	-78.958
7427.068	-16.554	-79.03	-0.152	8.544	-0.152	8.544	-16.554	-79.03
7462.03	-16.655	-79.102	-0.15	8.444	-0.15	8.444	-16.655	-79.102
7496.992	-16.758	-79.172	-0.148	8.344	-0.148	8.344	-16.758	-79.172
7531.955	-16.861	-79.242	-0.146	8.244	-0.146	8.244	-16.861	-79.242
7566.917	-16.965	-79.31	-0.144	8.146	-0.144	8.146	-16.965	-79.31
7601.88	-17.069	-79.377	-0.141	8.048	-0.141	8.048	-17.069	-79.377
7636.842	-17.174	-79.442	-0.139	7.95	-0.139	7.95	-17.174	-79.442
7671.805	-17.28	-79.507	-0.137	7.853	-0.137	7.853	-17.28	-79.507
7706.767	-17.386	-79.571	-0.135	7.757	-0.135	7.757	-17.386	-79.571
7741.729	-17.493	-79.633	-0.133	7.661	-0.133	7.661	-17.493	-79.633
7776.692	-17.601	-79.694	-0.131	7.565	-0.131	7.565	-17.601	-79.694
7811.654	-17.71	-79.754	-0.129	7.471	-0.129	7.471	-17.71	-79.754
7846.617	-17.819	-79.813	-0.128	7.376	-0.128	7.376	-17.819	-79.813
7881.579	-17.929	-79.87	-0.126	7.283	-0.126	7.283	-17.929	-79.87
7916.541	-18.04	-79.926	-0.124	7.189	-0.124	7.189	-18.04	-79.926
7951.504	-18.152	-79.981	-0.122	7.097	-0.122	7.097	-18.152	-79.981
7986.466	-18.265	-80.035	-0.12	7.004	-0.12	7.004	-18.265	-80.035
8021.429	-18.379	-80.087	-0.119	6.913	-0.119	6.913	-18.379	-80.087
8056.391	-18.493	-80.138	-0.117	6.822	-0.117	6.822	-18.493	-80.138
8091.353	-18.608	-80.188	-0.115	6.731	-0.115	6.731	-18.608	-80.188
8126.316	-18.725	-80.237	-0.114	6.641	-0.114	6.641	-18.725	-80.237
8161.278	-18.842	-80.283	-0.112	6.551	-0.112	6.551	-18.842	-80.283
8196.241	-18.961	-80.329	-0.111	6.462	-0.111	6.462	-18.961	-80.329
8231.203	-19.08	-80.373	-0.109	6.373	-0.109	6.373	-19.08	-80.373
8266.165	-19.2	-80.416	-0.108	6.284	-0.108	6.284	-19.2	-80.416
8301.128	-19.322	-80.457	-0.106	6.196	-0.106	6.196	-19.322	-80.457
8336.09	-19.444	-80.496	-0.105	6.109	-0.105	6.109	-19.444	-80.496
8371.053	-19.568	-80.534	-0.103	6.022	-0.103	6.022	-19.568	-80.534
8406.015	-19.693	-80.57	-0.102	5.935	-0.102	5.935	-19.693	-80.57
8440.977	-19.819	-80.605	-0.101	5.849	-0.101	5.849	-19.819	-80.605
8475.94	-19.946	-80.638	-0.099	5.763	-0.099	5.763	-19.946	-80.638
8510.902	-20.075	-80.669	-0.098	5.678	-0.098	5.678	-20.075	-80.669
8545.865	-20.205	-80.699	-0.097	5.593	-0.097	5.593	-20.205	-80.699
8580.827	-20.336	-80.727	-0.096	5.509	-0.096	5.509	-20.336	-80.727
8615.789	-20.469	-80.752	-0.094	5.425	-0.094	5.425	-20.469	-80.752
8650.752	-20.603	-80.776	-0.093	5.341	-0.093	5.341	-20.603	-80.776
8685.714	-20.738	-80.798	-0.092	5.258	-0.092	5.258	-20.738	-80.798
8720.677	-20.875	-80.818	-0.091	5.175	-0.091	5.175	-20.875	-80.818
8755.639	-21.013	-80.835	-0.09	5.092	-0.09	5.092	-21.013	-80.835
8790.602	-21.153	-80.851	-0.089	5.01	-0.089	5.01	-21.153	-80.851
8825.564	-21.295	-80.864	-0.087	4.929	-0.087	4.929	-21.295	-80.864
8860.526	-21.438	-80.875	-0.086	4.847	-0.086	4.847	-21.438	-80.875
8895.489	-21.583	-80.883	-0.085	4.766	-0.085	4.766	-21.583	-80.883
8930.451	-21.73	-80.889	-0.084	4.686	-0.084	4.686	-21.73	-80.889
8965.414	-21.879	-80.893	-0.083	4.606	-0.083	4.606	-21.879	-80.893
9000.376	-22.03	-80.893	-0.082	4.526	-0.082	4.526	-22.03	-80.893
9035.338	-22.182	-80.891	-0.081	4.446	-0.081	4.446	-22.182	-80.891
9070.301	-22.337	-80.886	-0.081	4.367	-0.081	4.367	-22.337	-80.886
9105.263	-22.493	-80.878	-0.08	4.289	-0.08	4.289	-22.493	-80.878
9140.226	-22.652	-80.867	-0.079	4.21	-0.079	4.21	-22.652	-80.867
9175.188	-22.813	-80.852	-0.078	4.132	-0.078	4.132	-22.813	-80.852
9210.15	-22.977	-80.834	-0.077	4.054	-0.077	4.054	-22.977	-80.834
9245.113	-23.142	-80.812	-0.076	3.977	-0.076	3.977	-23.142	-80.812
9280.075	-23.311	-80.787	-0.075	3.9	-0.075	3.9	-23.311	-80.787
9315.038	-23.482	-80.758	-0.075	3.823	-0.075	3.823	-23.482	-80.758
9350	-23.655	-80.724	-0.074	3.747	-0.074	3.747	-23.655	-80.724
9384.962	-23.831	-80.686	-0.073	3.671	-0.073	3.671	-23.831	-80.686
9419.925	-24.01	-80.644	-0.072	3.595	-0.072	3.595	-24.01	-80.644
9454.887	-24.192	-80.596	-0.072	3.52	-0.072	3.52	-24.192	-80.596
9489.85	-24.378	-80.544	-0.071	3.444	-0.071	3.444	-24.378	-80.544
9524.812	-24.566	-80.486	-0.07	3.37	-0.07	3.37	-24.566	-80.486
9559.774	-24.758	-80.423	-0.07	3.295	-0.07	3.295	-24.758	-80.423
9594.737	-24.953	-80.353	-0.069	3.221	-0.069	3.221	-24.953	-80.353
9629.699	-25.152	-80.278	-0.068	3.147	-0.068	3.147	-25.152	-80.278
9664.662	-25.354	-80.195	-0.068	3.073	-0.068	3.073	-25.354	-80.195
9699.624	-25.561	-80.105	-0.067	3	-0.067	3	-25.561	-80.105
9734.586	-25.771	-80.008	-0.067	2.927	-0.067	2.927	-25.771	-80.008
9769.549	-25.986	-79.903	-0.066	2.854	-0.066	2.854	-25.986	-79.903
9804.511	-26.206	-79.788	-0.065	2.782	-0.065	2.782	-26.206	-79.788
9839.474	-26.43	-79.665	-0.065	2.71	-0.065	2.71	-26.43	-79.665
9874.436	-26.659	-79.532	-0.064	2.638	-0.064	2.638	-26.659	-79.532
9909.398	-26.893	-79.387	-0.064	2.566	-0.064	2.566	-26.893	-79.387
9944.361	-27.133	-79.232	-0.063	2.495	-0.063	2.495	-27.133	-79.232
9979.323	-27.378	-79.064	-0.063	2.424	-0.063	2.424	-27.378	-79.064
10014.286	-27.63	-78.882	-0.063	2.353	-0.063	2.353	-27.63	-78.882
10049.248	-27.888	-78.686	-0.062	2.283	-0.062	2.283	-27.888	-78.686
10084.211	-28.152	-78.475	-0.062	2.212	-0.062	2.212	-28.152	-78.475
10119.173	-28.423	-78.246	-0.061	2.142	-0.061	2.142	-28.423	-78.246
10154.135	-28.702	-77.999	-0.061	2.073	-0.061	2.073	-28.702	-77.999
10189.098	-28.989	-77.731	-0.061	2.003	-0.061	2.003	-28.989	-77.731
10224.06	-29.284	-77.441	-0.06	1.934	-0.06	1.934	-29.284	-77.441
10259.023	-29.588	-77.127	-0.06	1.865	-0.06	1.865	-29.588	-77.127
10293.985	-29.902	-76.785	-0.059	1.796	-0.059	1.796	-29.902	-76.785
10328.947	-30.225	-76.414	-0.059	1.728	-0.059	1.728	-30.225	-76.414
10363.91	-30.56	-76.009	-0.059	1.66	-0.059	1.66	-30.56	-76.009
