!	AVX	Thin	Film	Operation	
!
!	Date:	March 2012		
!
!	Description: Ultra-Miniature 01005 Size ACCU - P® Thin Film RF / Microwave Capacitor
!
!	Part Number:  C005YJ0R7ABSTR	
!								
!	Serial	Measurements						
!								
#	MHz	S	db	R	50			
!	S11	S21	S12	S22				
!	dB	Phase	dB	Phase	dB	Phase	dB	Phase
50	-2.32E-03	-1.26	-33.157	88.674	-33.157	88.674	-2.32E-03	-1.26
87.469	-6.85E-03	-2.203	-28.304	87.724	-28.304	87.724	-6.85E-03	-2.203
124.937	-0.014	-3.145	-25.213	86.774	-25.213	86.774	-0.014	-3.145
162.406	-0.023	-4.086	-22.944	85.827	-22.944	85.827	-0.023	-4.086
199.875	-0.035	-5.025	-21.152	84.882	-21.152	84.882	-0.035	-5.025
237.343	-0.049	-5.961	-19.672	83.939	-19.672	83.939	-0.049	-5.961
274.812	-0.065	-6.894	-18.414	82.999	-18.414	82.999	-0.065	-6.894
312.281	-0.084	-7.823	-17.322	82.062	-17.322	82.062	-0.084	-7.823
349.749	-0.105	-8.749	-16.357	81.129	-16.357	81.129	-0.105	-8.749
387.218	-0.128	-9.671	-15.494	80.201	-15.494	80.201	-0.128	-9.671
424.687	-0.153	-10.588	-14.716	79.277	-14.716	79.277	-0.153	-10.588
462.155	-0.181	-11.5	-14.007	78.358	-14.007	78.358	-0.181	-11.5
499.624	-0.21	-12.406	-13.358	77.445	-13.358	77.445	-0.21	-12.406
537.093	-0.242	-13.307	-12.759	76.537	-12.759	76.537	-0.242	-13.307
574.561	-0.276	-14.202	-12.205	75.635	-12.205	75.635	-0.276	-14.202
612.03	-0.312	-15.09	-11.689	74.74	-11.689	74.74	-0.312	-15.09
649.499	-0.35	-15.971	-11.208	73.852	-11.208	73.852	-0.35	-15.971
686.967	-0.389	-16.846	-10.758	72.97	-10.758	72.97	-0.389	-16.846
724.436	-0.431	-17.713	-10.336	72.097	-10.336	72.097	-0.431	-17.713
761.905	-0.475	-18.572	-9.938	71.23	-9.938	71.23	-0.475	-18.572
799.373	-0.52	-19.424	-9.563	70.372	-9.563	70.372	-0.52	-19.424
836.842	-0.567	-20.267	-9.209	69.521	-9.209	69.521	-0.567	-20.267
874.311	-0.616	-21.102	-8.873	68.679	-8.873	68.679	-0.616	-21.102
911.779	-0.666	-21.929	-8.555	67.845	-8.555	67.845	-0.666	-21.929
949.248	-0.718	-22.747	-8.253	67.02	-8.253	67.02	-0.718	-22.747
986.717	-0.772	-23.556	-7.966	66.204	-7.966	66.204	-0.772	-23.556
1024.185	-0.827	-24.356	-7.693	65.397	-7.693	65.397	-0.827	-24.356
1061.654	-0.883	-25.147	-7.433	64.599	-7.433	64.599	-0.883	-25.147
1099.123	-0.941	-25.929	-7.185	63.81	-7.185	63.81	-0.941	-25.929
1136.591	-1	-26.702	-6.948	63.03	-6.948	63.03	-1	-26.702
1174.06	-1.06	-27.465	-6.722	62.26	-6.722	62.26	-1.06	-27.465
1211.529	-1.122	-28.219	-6.506	61.499	-6.506	61.499	-1.122	-28.219
1248.997	-1.185	-28.963	-6.299	60.747	-6.299	60.747	-1.185	-28.963
1286.466	-1.249	-29.698	-6.1	60.005	-6.1	60.005	-1.249	-29.698
1323.935	-1.314	-30.423	-5.91	59.273	-5.91	59.273	-1.314	-30.423
1361.404	-1.38	-31.139	-5.728	58.55	-5.728	58.55	-1.38	-31.139
1398.872	-1.447	-31.845	-5.553	57.837	-5.553	57.837	-1.447	-31.845
1436.341	-1.515	-32.541	-5.386	57.133	-5.386	57.133	-1.515	-32.541
1473.81	-1.584	-33.228	-5.225	56.439	-5.225	56.439	-1.584	-33.228
1511.278	-1.654	-33.906	-5.07	55.754	-5.07	55.754	-1.654	-33.906
1548.747	-1.724	-34.574	-4.921	55.079	-4.921	55.079	-1.724	-34.574
1586.216	-1.796	-35.232	-4.778	54.413	-4.778	54.413	-1.796	-35.232
1623.684	-1.868	-35.881	-4.64	53.757	-4.64	53.757	-1.868	-35.881
1661.153	-1.94	-36.521	-4.508	53.109	-4.508	53.109	-1.94	-36.521
1698.622	-2.014	-37.152	-4.38	52.471	-4.38	52.471	-2.014	-37.152
1736.09	-2.088	-37.773	-4.257	51.843	-4.257	51.843	-2.088	-37.773
1773.559	-2.162	-38.386	-4.139	51.223	-4.139	51.223	-2.162	-38.386
1811.028	-2.238	-38.989	-4.024	50.612	-4.024	50.612	-2.238	-38.989
1848.496	-2.313	-39.583	-3.914	50.01	-3.914	50.01	-2.313	-39.583
1885.965	-2.39	-40.169	-3.808	49.417	-3.808	49.417	-2.39	-40.169
1923.434	-2.466	-40.746	-3.705	48.833	-3.705	48.833	-2.466	-40.746
1960.902	-2.543	-41.314	-3.606	48.257	-3.606	48.257	-2.543	-41.314
1998.371	-2.621	-41.874	-3.511	47.69	-3.511	47.69	-2.621	-41.874
2035.84	-2.699	-42.425	-3.418	47.131	-3.418	47.131	-2.699	-42.425
2073.308	-2.777	-42.968	-3.329	46.58	-3.329	46.58	-2.777	-42.968
2110.777	-2.855	-43.503	-3.243	46.038	-3.243	46.038	-2.855	-43.503
2148.246	-2.934	-44.03	-3.16	45.504	-3.16	45.504	-2.934	-44.03
2185.714	-3.013	-44.548	-3.079	44.977	-3.079	44.977	-3.013	-44.548
2223.183	-3.093	-45.059	-3.001	44.459	-3.001	44.459	-3.093	-45.059
2260.652	-3.172	-45.562	-2.926	43.948	-2.926	43.948	-3.172	-45.562
2298.12	-3.252	-46.058	-2.853	43.445	-2.853	43.445	-3.252	-46.058
2335.589	-3.332	-46.546	-2.782	42.949	-2.782	42.949	-3.332	-46.546
2373.058	-3.413	-47.027	-2.713	42.46	-2.713	42.46	-3.413	-47.027
2410.526	-3.493	-47.5	-2.647	41.979	-2.647	41.979	-3.493	-47.5
2447.995	-3.573	-47.966	-2.583	41.505	-2.583	41.505	-3.573	-47.966
2485.464	-3.654	-48.425	-2.521	41.038	-2.521	41.038	-3.654	-48.425
2522.932	-3.735	-48.877	-2.46	40.578	-2.46	40.578	-3.735	-48.877
2560.401	-3.816	-49.323	-2.402	40.124	-2.402	40.124	-3.816	-49.323
2597.87	-3.897	-49.762	-2.345	39.678	-2.345	39.678	-3.897	-49.762
2635.338	-3.978	-50.194	-2.29	39.237	-2.29	39.237	-3.978	-50.194
2672.807	-4.059	-50.62	-2.237	38.804	-2.237	38.804	-4.059	-50.62
2710.276	-4.14	-51.039	-2.185	38.376	-2.185	38.376	-4.14	-51.039
2747.744	-4.221	-51.452	-2.134	37.955	-2.134	37.955	-4.221	-51.452
2785.213	-4.303	-51.859	-2.086	37.54	-2.086	37.54	-4.303	-51.859
2822.682	-4.384	-52.26	-2.038	37.131	-2.038	37.131	-4.384	-52.26
2860.15	-4.465	-52.655	-1.992	36.727	-1.992	36.727	-4.465	-52.655
2897.619	-4.547	-53.044	-1.947	36.33	-1.947	36.33	-4.547	-53.044
2935.088	-4.628	-53.428	-1.904	35.938	-1.904	35.938	-4.628	-53.428
2972.556	-4.709	-53.806	-1.862	35.552	-1.862	35.552	-4.709	-53.806
3010.025	-4.791	-54.178	-1.821	35.171	-1.821	35.171	-4.791	-54.178
3047.494	-4.872	-54.545	-1.781	34.795	-1.781	34.795	-4.872	-54.545
3084.962	-4.953	-54.907	-1.742	34.425	-1.742	34.425	-4.953	-54.907
3122.431	-5.035	-55.264	-1.704	34.06	-1.704	34.06	-5.035	-55.264
3159.9	-5.116	-55.615	-1.668	33.7	-1.668	33.7	-5.116	-55.615
3197.368	-5.197	-55.962	-1.632	33.345	-1.632	33.345	-5.197	-55.962
3234.837	-5.278	-56.303	-1.597	32.995	-1.597	32.995	-5.278	-56.303
3272.306	-5.36	-56.64	-1.563	32.65	-1.563	32.65	-5.36	-56.64
3309.774	-5.441	-56.972	-1.53	32.309	-1.53	32.309	-5.441	-56.972
3347.243	-5.522	-57.299	-1.498	31.973	-1.498	31.973	-5.522	-57.299
3384.712	-5.603	-57.621	-1.467	31.641	-1.467	31.641	-5.603	-57.621
3422.18	-5.684	-57.94	-1.437	31.314	-1.437	31.314	-5.684	-57.94
3459.649	-5.765	-58.253	-1.407	30.992	-1.407	30.992	-5.765	-58.253
3497.118	-5.845	-58.563	-1.378	30.673	-1.378	30.673	-5.845	-58.563
3534.586	-5.926	-58.868	-1.35	30.359	-1.35	30.359	-5.926	-58.868
3572.055	-6.007	-59.169	-1.323	30.049	-1.323	30.049	-6.007	-59.169
3609.524	-6.088	-59.466	-1.296	29.743	-1.296	29.743	-6.088	-59.466
3646.992	-6.168	-59.759	-1.27	29.441	-1.27	29.441	-6.168	-59.759
3684.461	-6.249	-60.048	-1.244	29.142	-1.244	29.142	-6.249	-60.048
3721.93	-6.329	-60.333	-1.22	28.848	-1.22	28.848	-6.329	-60.333
3759.398	-6.41	-60.614	-1.195	28.557	-1.195	28.557	-6.41	-60.614
3796.867	-6.49	-60.892	-1.172	28.27	-1.172	28.27	-6.49	-60.892
3834.336	-6.571	-61.166	-1.149	27.987	-1.149	27.987	-6.571	-61.166
3871.805	-6.651	-61.436	-1.126	27.707	-1.126	27.707	-6.651	-61.436
3909.273	-6.731	-61.703	-1.104	27.431	-1.104	27.431	-6.731	-61.703
3946.742	-6.811	-61.966	-1.083	27.158	-1.083	27.158	-6.811	-61.966
3984.211	-6.891	-62.226	-1.062	26.889	-1.062	26.889	-6.891	-62.226
4021.679	-6.971	-62.482	-1.042	26.622	-1.042	26.622	-6.971	-62.482
4059.148	-7.051	-62.736	-1.022	26.359	-1.022	26.359	-7.051	-62.736
4096.617	-7.131	-62.986	-1.002	26.099	-1.002	26.099	-7.131	-62.986
4134.085	-7.211	-63.232	-0.983	25.843	-0.983	25.843	-7.211	-63.232
4171.554	-7.291	-63.476	-0.965	25.589	-0.965	25.589	-7.291	-63.476
4209.023	-7.371	-63.717	-0.947	25.338	-0.947	25.338	-7.371	-63.717
4246.491	-7.45	-63.954	-0.929	25.09	-0.929	25.09	-7.45	-63.954
4283.96	-7.53	-64.189	-0.912	24.846	-0.912	24.846	-7.53	-64.189
4321.429	-7.61	-64.421	-0.895	24.604	-0.895	24.604	-7.61	-64.421
4358.897	-7.689	-64.65	-0.878	24.364	-0.878	24.364	-7.689	-64.65
4396.366	-7.769	-64.876	-0.862	24.128	-0.862	24.128	-7.769	-64.876
4433.835	-7.849	-65.099	-0.846	23.894	-0.846	23.894	-7.849	-65.099
4471.303	-7.928	-65.319	-0.831	23.663	-0.831	23.663	-7.928	-65.319
4508.772	-8.008	-65.537	-0.816	23.434	-0.816	23.434	-8.008	-65.537
4546.241	-8.087	-65.753	-0.801	23.208	-0.801	23.208	-8.087	-65.753
4583.709	-8.166	-65.965	-0.786	22.985	-0.786	22.985	-8.166	-65.965
4621.178	-8.246	-66.176	-0.772	22.764	-0.772	22.764	-8.246	-66.176
4658.647	-8.325	-66.383	-0.758	22.545	-0.758	22.545	-8.325	-66.383
4696.115	-8.405	-66.588	-0.745	22.329	-0.745	22.329	-8.405	-66.588
4733.584	-8.484	-66.791	-0.731	22.115	-0.731	22.115	-8.484	-66.791
4771.053	-8.563	-66.992	-0.718	21.903	-0.718	21.903	-8.563	-66.992
4808.521	-8.643	-67.19	-0.706	21.694	-0.706	21.694	-8.643	-67.19
4845.99	-8.722	-67.385	-0.693	21.486	-0.693	21.486	-8.722	-67.385
4883.459	-8.801	-67.579	-0.681	21.281	-0.681	21.281	-8.801	-67.579
4920.927	-8.881	-67.77	-0.669	21.079	-0.669	21.079	-8.881	-67.77
4958.396	-8.96	-67.959	-0.657	20.878	-0.657	20.878	-8.96	-67.959
4995.865	-9.039	-68.146	-0.646	20.679	-0.646	20.679	-9.039	-68.146
5033.333	-9.119	-68.331	-0.635	20.482	-0.635	20.482	-9.119	-68.331
5070.802	-9.198	-68.514	-0.624	20.288	-0.624	20.288	-9.198	-68.514
5108.271	-9.278	-68.694	-0.613	20.095	-0.613	20.095	-9.278	-68.694
5145.739	-9.357	-68.873	-0.602	19.904	-0.602	19.904	-9.357	-68.873
5183.208	-9.436	-69.049	-0.592	19.715	-0.592	19.715	-9.436	-69.049
5220.677	-9.516	-69.224	-0.582	19.528	-0.582	19.528	-9.516	-69.224
5258.145	-9.595	-69.397	-0.572	19.343	-0.572	19.343	-9.595	-69.397
5295.614	-9.675	-69.568	-0.562	19.16	-0.562	19.16	-9.675	-69.568
5333.083	-9.755	-69.736	-0.553	18.978	-0.553	18.978	-9.755	-69.736
5370.551	-9.834	-69.903	-0.543	18.798	-0.543	18.798	-9.834	-69.903
5408.02	-9.914	-70.069	-0.534	18.62	-0.534	18.62	-9.914	-70.069
5445.489	-9.994	-70.232	-0.525	18.444	-0.525	18.444	-9.994	-70.232
5482.957	-10.073	-70.394	-0.516	18.269	-0.516	18.269	-10.073	-70.394
5520.426	-10.153	-70.553	-0.508	18.096	-0.508	18.096	-10.153	-70.553
5557.895	-10.233	-70.712	-0.499	17.924	-0.499	17.924	-10.233	-70.712
5595.363	-10.313	-70.868	-0.491	17.754	-0.491	17.754	-10.313	-70.868
5632.832	-10.393	-71.023	-0.483	17.586	-0.483	17.586	-10.393	-71.023
5670.301	-10.474	-71.176	-0.475	17.419	-0.475	17.419	-10.474	-71.176
5707.769	-10.554	-71.327	-0.467	17.254	-0.467	17.254	-10.554	-71.327
5745.238	-10.634	-71.477	-0.459	17.09	-0.459	17.09	-10.634	-71.477
5782.707	-10.715	-71.625	-0.452	16.927	-0.452	16.927	-10.715	-71.625
5820.175	-10.795	-71.772	-0.444	16.766	-0.444	16.766	-10.795	-71.772
5857.644	-10.876	-71.917	-0.437	16.607	-0.437	16.607	-10.876	-71.917
5895.113	-10.956	-72.06	-0.43	16.449	-0.43	16.449	-10.956	-72.06
5932.581	-11.037	-72.202	-0.423	16.292	-0.423	16.292	-11.037	-72.202
5970.05	-11.118	-72.343	-0.416	16.137	-0.416	16.137	-11.118	-72.343
6007.519	-11.199	-72.482	-0.409	15.982	-0.409	15.982	-11.199	-72.482
6044.987	-11.281	-72.619	-0.403	15.83	-0.403	15.83	-11.281	-72.619
6082.456	-11.362	-72.755	-0.396	15.678	-0.396	15.678	-11.362	-72.755
6119.925	-11.443	-72.89	-0.39	15.528	-0.39	15.528	-11.443	-72.89
6157.393	-11.525	-73.023	-0.384	15.379	-0.384	15.379	-11.525	-73.023
6194.862	-11.607	-73.155	-0.377	15.231	-0.377	15.231	-11.607	-73.155
6232.331	-11.689	-73.286	-0.371	15.085	-0.371	15.085	-11.689	-73.286
6269.799	-11.771	-73.415	-0.366	14.939	-0.366	14.939	-11.771	-73.415
6307.268	-11.853	-73.542	-0.36	14.795	-0.36	14.795	-11.853	-73.542
6344.737	-11.936	-73.669	-0.354	14.652	-0.354	14.652	-11.936	-73.669
6382.206	-12.018	-73.794	-0.348	14.51	-0.348	14.51	-12.018	-73.794
6419.674	-12.101	-73.918	-0.343	14.37	-0.343	14.37	-12.101	-73.918
6457.143	-12.184	-74.04	-0.337	14.23	-0.337	14.23	-12.184	-74.04
6494.612	-12.267	-74.161	-0.332	14.091	-0.332	14.091	-12.267	-74.161
6532.08	-12.35	-74.281	-0.327	13.954	-0.327	13.954	-12.35	-74.281
6569.549	-12.434	-74.4	-0.322	13.818	-0.322	13.818	-12.434	-74.4
6607.018	-12.518	-74.517	-0.317	13.682	-0.317	13.682	-12.518	-74.517
6644.486	-12.602	-74.633	-0.312	13.548	-0.312	13.548	-12.602	-74.633
6681.955	-12.686	-74.748	-0.307	13.415	-0.307	13.415	-12.686	-74.748
6719.424	-12.77	-74.861	-0.302	13.282	-0.302	13.282	-12.77	-74.861
6756.892	-12.855	-74.974	-0.298	13.151	-0.298	13.151	-12.855	-74.974
6794.361	-12.94	-75.085	-0.293	13.021	-0.293	13.021	-12.94	-75.085
6831.83	-13.025	-75.195	-0.288	12.892	-0.288	12.892	-13.025	-75.195
6869.298	-13.11	-75.304	-0.284	12.763	-0.284	12.763	-13.11	-75.304
6906.767	-13.196	-75.412	-0.28	12.636	-0.28	12.636	-13.196	-75.412
6944.236	-13.282	-75.518	-0.275	12.509	-0.275	12.509	-13.282	-75.518
6981.704	-13.368	-75.623	-0.271	12.383	-0.271	12.383	-13.368	-75.623
7019.173	-13.455	-75.727	-0.267	12.259	-0.267	12.259	-13.455	-75.727
7056.642	-13.541	-75.83	-0.263	12.135	-0.263	12.135	-13.541	-75.83
7094.11	-13.628	-75.932	-0.259	12.012	-0.259	12.012	-13.628	-75.932
7131.579	-13.716	-76.033	-0.255	11.89	-0.255	11.89	-13.716	-76.033
7169.048	-13.803	-76.132	-0.251	11.769	-0.251	11.769	-13.803	-76.132
7206.516	-13.891	-76.231	-0.247	11.648	-0.247	11.648	-13.891	-76.231
7243.985	-13.98	-76.328	-0.244	11.529	-0.244	11.529	-13.98	-76.328
7281.454	-14.068	-76.424	-0.24	11.41	-0.24	11.41	-14.068	-76.424
7318.922	-14.157	-76.519	-0.236	11.292	-0.236	11.292	-14.157	-76.519
7356.391	-14.247	-76.613	-0.233	11.175	-0.233	11.175	-14.247	-76.613
7393.86	-14.336	-76.706	-0.229	11.058	-0.229	11.058	-14.336	-76.706
7431.328	-14.426	-76.798	-0.226	10.943	-0.226	10.943	-14.426	-76.798
7468.797	-14.517	-76.889	-0.223	10.828	-0.223	10.828	-14.517	-76.889
7506.266	-14.607	-76.978	-0.219	10.714	-0.219	10.714	-14.607	-76.978
7543.734	-14.699	-77.067	-0.216	10.6	-0.216	10.6	-14.699	-77.067
7581.203	-14.79	-77.154	-0.213	10.488	-0.213	10.488	-14.79	-77.154
7618.672	-14.882	-77.24	-0.21	10.376	-0.21	10.376	-14.882	-77.24
7656.14	-14.975	-77.325	-0.207	10.264	-0.207	10.264	-14.975	-77.325
7693.609	-15.067	-77.409	-0.204	10.154	-0.204	10.154	-15.067	-77.409
7731.078	-15.161	-77.492	-0.201	10.044	-0.201	10.044	-15.161	-77.492
7768.546	-15.254	-77.574	-0.198	9.935	-0.198	9.935	-15.254	-77.574
7806.015	-15.349	-77.655	-0.195	9.827	-0.195	9.827	-15.349	-77.655
7843.484	-15.443	-77.734	-0.192	9.719	-0.192	9.719	-15.443	-77.734
7880.952	-15.538	-77.813	-0.189	9.612	-0.189	9.612	-15.538	-77.813
7918.421	-15.634	-77.89	-0.186	9.505	-0.186	9.505	-15.634	-77.89
7955.89	-15.73	-77.966	-0.184	9.399	-0.184	9.399	-15.73	-77.966
7993.358	-15.827	-78.041	-0.181	9.294	-0.181	9.294	-15.827	-78.041
8030.827	-15.924	-78.115	-0.179	9.19	-0.179	9.19	-15.924	-78.115
8068.296	-16.022	-78.188	-0.176	9.086	-0.176	9.086	-16.022	-78.188
8105.764	-16.12	-78.26	-0.174	8.982	-0.174	8.982	-16.12	-78.26
8143.233	-16.219	-78.331	-0.171	8.88	-0.171	8.88	-16.219	-78.331
8180.702	-16.318	-78.4	-0.169	8.778	-0.169	8.778	-16.318	-78.4
8218.17	-16.418	-78.468	-0.166	8.676	-0.166	8.676	-16.418	-78.468
8255.639	-16.519	-78.536	-0.164	8.575	-0.164	8.575	-16.519	-78.536
8293.108	-16.62	-78.601	-0.162	8.475	-0.162	8.475	-16.62	-78.601
8330.576	-16.722	-78.666	-0.159	8.375	-0.159	8.375	-16.722	-78.666
8368.045	-16.825	-78.73	-0.157	8.276	-0.157	8.276	-16.825	-78.73
8405.514	-16.928	-78.792	-0.155	8.177	-0.155	8.177	-16.928	-78.792
8442.982	-17.032	-78.853	-0.153	8.079	-0.153	8.079	-17.032	-78.853
8480.451	-17.136	-78.913	-0.151	7.982	-0.151	7.982	-17.136	-78.913
8517.92	-17.241	-78.972	-0.149	7.885	-0.149	7.885	-17.241	-78.972
8555.388	-17.347	-79.029	-0.147	7.788	-0.147	7.788	-17.347	-79.029
8592.857	-17.454	-79.085	-0.145	7.692	-0.145	7.692	-17.454	-79.085
8630.326	-17.561	-79.14	-0.143	7.597	-0.143	7.597	-17.561	-79.14
8667.794	-17.67	-79.194	-0.141	7.502	-0.141	7.502	-17.67	-79.194
8705.263	-17.779	-79.246	-0.139	7.407	-0.139	7.407	-17.779	-79.246
8742.732	-17.889	-79.297	-0.137	7.313	-0.137	7.313	-17.889	-79.297
8780.201	-17.999	-79.346	-0.135	7.22	-0.135	7.22	-17.999	-79.346
8817.669	-18.111	-79.394	-0.134	7.127	-0.134	7.127	-18.111	-79.394
8855.138	-18.223	-79.441	-0.132	7.034	-0.132	7.034	-18.223	-79.441
8892.607	-18.337	-79.486	-0.13	6.942	-0.13	6.942	-18.337	-79.486
8930.075	-18.451	-79.53	-0.129	6.851	-0.129	6.851	-18.451	-79.53
8967.544	-18.566	-79.572	-0.127	6.76	-0.127	6.76	-18.566	-79.572
9005.013	-18.682	-79.612	-0.125	6.669	-0.125	6.669	-18.682	-79.612
9042.481	-18.799	-79.652	-0.124	6.579	-0.124	6.579	-18.799	-79.652
9079.95	-18.917	-79.689	-0.122	6.49	-0.122	6.49	-18.917	-79.689
9117.419	-19.037	-79.725	-0.121	6.4	-0.121	6.4	-19.037	-79.725
9154.887	-19.157	-79.759	-0.119	6.311	-0.119	6.311	-19.157	-79.759
9192.356	-19.278	-79.792	-0.118	6.223	-0.118	6.223	-19.278	-79.792
9229.825	-19.401	-79.822	-0.116	6.135	-0.116	6.135	-19.401	-79.822
9267.293	-19.524	-79.851	-0.115	6.048	-0.115	6.048	-19.524	-79.851
9304.762	-19.649	-79.879	-0.113	5.961	-0.113	5.961	-19.649	-79.879
9342.231	-19.775	-79.904	-0.112	5.874	-0.112	5.874	-19.775	-79.904
9379.699	-19.903	-79.927	-0.111	5.788	-0.111	5.788	-19.903	-79.927
9417.168	-20.031	-79.949	-0.109	5.702	-0.109	5.702	-20.031	-79.949
9454.637	-20.161	-79.968	-0.108	5.617	-0.108	5.617	-20.161	-79.968
9492.105	-20.292	-79.985	-0.107	5.532	-0.107	5.532	-20.292	-79.985
9529.574	-20.425	-80	-0.106	5.447	-0.106	5.447	-20.425	-80
9567.043	-20.559	-80.013	-0.104	5.363	-0.104	5.363	-20.559	-80.013
9604.511	-20.695	-80.024	-0.103	5.279	-0.103	5.279	-20.695	-80.024
9641.98	-20.832	-80.032	-0.102	5.195	-0.102	5.195	-20.832	-80.032
9679.449	-20.971	-80.037	-0.101	5.112	-0.101	5.112	-20.971	-80.037
9716.917	-21.111	-80.041	-0.1	5.03	-0.1	5.03	-21.111	-80.041
9754.386	-21.253	-80.041	-0.099	4.947	-0.099	4.947	-21.253	-80.041
9791.855	-21.396	-80.039	-0.098	4.865	-0.098	4.865	-21.396	-80.039
9829.323	-21.542	-80.034	-0.096	4.784	-0.096	4.784	-21.542	-80.034
9866.792	-21.689	-80.026	-0.095	4.702	-0.095	4.702	-21.689	-80.026
9904.261	-21.838	-80.015	-0.094	4.621	-0.094	4.621	-21.838	-80.015
9941.729	-21.989	-80.001	-0.093	4.541	-0.093	4.541	-21.989	-80.001
9979.198	-22.142	-79.983	-0.093	4.461	-0.093	4.461	-22.142	-79.983
10016.667	-22.297	-79.962	-0.092	4.381	-0.092	4.381	-22.297	-79.962
10054.135	-22.454	-79.938	-0.091	4.301	-0.091	4.301	-22.454	-79.938
10091.604	-22.614	-79.909	-0.09	4.222	-0.09	4.222	-22.614	-79.909
10129.073	-22.775	-79.877	-0.089	4.143	-0.089	4.143	-22.775	-79.877
10166.541	-22.939	-79.841	-0.088	4.065	-0.088	4.065	-22.939	-79.841
10204.01	-23.106	-79.8	-0.087	3.987	-0.087	3.987	-23.106	-79.8
10241.479	-23.275	-79.755	-0.086	3.909	-0.086	3.909	-23.275	-79.755
10278.947	-23.446	-79.705	-0.086	3.831	-0.086	3.831	-23.446	-79.705
10316.416	-23.621	-79.651	-0.085	3.754	-0.085	3.754	-23.621	-79.651
10353.885	-23.798	-79.591	-0.084	3.677	-0.084	3.677	-23.798	-79.591
10391.353	-23.978	-79.525	-0.083	3.601	-0.083	3.601	-23.978	-79.525
10428.822	-24.161	-79.454	-0.083	3.525	-0.083	3.525	-24.161	-79.454
10466.291	-24.347	-79.377	-0.082	3.449	-0.082	3.449	-24.347	-79.377
10503.759	-24.536	-79.293	-0.081	3.373	-0.081	3.373	-24.536	-79.293
10541.228	-24.729	-79.202	-0.081	3.298	-0.081	3.298	-24.729	-79.202
10578.697	-24.925	-79.105	-0.08	3.222	-0.08	3.222	-24.925	-79.105
10616.165	-25.125	-78.999	-0.079	3.148	-0.079	3.148	-25.125	-78.999
10653.634	-25.329	-78.886	-0.079	3.073	-0.079	3.073	-25.329	-78.886
10691.103	-25.537	-78.764	-0.078	2.999	-0.078	2.999	-25.537	-78.764
10728.571	-25.748	-78.632	-0.077	2.925	-0.077	2.925	-25.748	-78.632
10766.04	-25.965	-78.491	-0.077	2.852	-0.077	2.852	-25.965	-78.491
10803.509	-26.186	-78.339	-0.076	2.778	-0.076	2.778	-26.186	-78.339
10840.977	-26.411	-78.176	-0.076	2.705	-0.076	2.705	-26.411	-78.176
10878.446	-26.642	-78.001	-0.075	2.632	-0.075	2.632	-26.642	-78.001
10915.915	-26.878	-77.813	-0.075	2.56	-0.075	2.56	-26.878	-77.813
10953.383	-27.119	-77.611	-0.074	2.488	-0.074	2.488	-27.119	-77.611
10990.852	-27.366	-77.394	-0.074	2.416	-0.074	2.416	-27.366	-77.394
11028.321	-27.619	-77.161	-0.073	2.344	-0.073	2.344	-27.619	-77.161
11065.789	-27.879	-76.91	-0.073	2.273	-0.073	2.273	-27.879	-76.91
11103.258	-28.145	-76.64	-0.073	2.201	-0.073	2.201	-28.145	-76.64
