!	AVX	Thin	Film	Operation	
!
!	Date:	March 2012		
!
!	Description: Ultra-Miniature 01005 Size ACCU - P® Thin Film RF / Microwave Capacitor
!
!	Part Number:  C005YJ0R2ABSTR	
!								
!	Serial	Measurements						
!
# MHZ S MA R 50

50 1 -0.36 6.283e-3 89.582 6.283e-3 89.582 1 -0.36
150.125 1 -1.081 0.019 88.861 0.019 88.861 1 -1.081
250.251 0.999 -1.801 0.031 88.14 0.031 88.14 0.999 -1.801
350.376 0.999 -2.522 0.044 87.419 0.044 87.419 0.999 -2.522
450.501 0.998 -3.241 0.057 86.698 0.057 86.698 0.998 -3.241
550.627 0.998 -3.96 0.069 85.978 0.069 85.978 0.998 -3.96
650.752 0.997 -4.679 0.082 85.259 0.082 85.259 0.997 -4.679
750.877 0.995 -5.396 0.094 84.541 0.094 84.541 0.995 -5.396
851.003 0.994 -6.112 0.106 83.824 0.106 83.824 0.994 -6.112
951.128 0.993 -6.827 0.119 83.108 0.119 83.108 0.993 -6.827
1051.253 0.991 -7.541 0.131 82.394 0.131 82.394 0.991 -7.541
1151.378 0.989 -8.253 0.144 81.681 0.144 81.681 0.989 -8.253
1251.504 0.988 -8.964 0.156 80.969 0.156 80.969 0.988 -8.964
1351.629 0.986 -9.673 0.168 80.259 0.168 80.259 0.986 -9.673
1451.754 0.983 -10.38 0.18 79.551 0.18 79.551 0.983 -10.38
1551.88 0.981 -11.086 0.192 78.845 0.192 78.845 0.981 -11.086
1652.005 0.979 -11.789 0.204 78.141 0.204 78.141 0.979 -11.789
1752.13 0.976 -12.49 0.216 77.44 0.216 77.44 0.976 -12.49
1852.256 0.973 -13.189 0.228 76.74 0.228 76.74 0.973 -13.189
1952.381 0.97 -13.885 0.24 76.043 0.24 76.043 0.97 -13.885
2052.506 0.967 -14.579 0.252 75.349 0.252 75.349 0.967 -14.579
2152.632 0.964 -15.27 0.263 74.657 0.263 74.657 0.964 -15.27
2252.757 0.961 -15.958 0.275 73.967 0.275 73.967 0.961 -15.958
2352.882 0.958 -16.643 0.286 73.281 0.286 73.281 0.958 -16.643
2453.008 0.954 -17.326 0.298 72.598 0.298 72.598 0.954 -17.326
2553.133 0.951 -18.006 0.309 71.917 0.309 71.917 0.951 -18.006
2653.258 0.947 -18.682 0.32 71.24 0.32 71.24 0.947 -18.682
2753.383 0.943 -19.355 0.331 70.566 0.331 70.566 0.943 -19.355
2853.509 0.939 -20.025 0.342 69.895 0.342 69.895 0.939 -20.025
2953.634 0.935 -20.692 0.353 69.228 0.353 69.228 0.935 -20.692
3053.759 0.931 -21.355 0.364 68.564 0.364 68.564 0.931 -21.355
3153.885 0.927 -22.015 0.375 67.903 0.375 67.903 0.927 -22.015
3254.01 0.922 -22.671 0.385 67.246 0.385 67.246 0.922 -22.671
3354.135 0.918 -23.323 0.396 66.593 0.396 66.593 0.918 -23.323
3454.261 0.913 -23.972 0.406 65.943 0.406 65.943 0.913 -23.972
3554.386 0.908 -24.617 0.417 65.297 0.417 65.297 0.908 -24.617
3654.511 0.904 -25.258 0.427 64.655 0.427 64.655 0.904 -25.258
3754.637 0.899 -25.895 0.437 64.017 0.437 64.017 0.899 -25.895
3854.762 0.894 -26.528 0.447 63.383 0.447 63.383 0.894 -26.528
3954.887 0.889 -27.158 0.456 62.753 0.456 62.753 0.889 -27.158
4055.013 0.884 -27.783 0.466 62.126 0.466 62.126 0.884 -27.783
4155.138 0.879 -28.404 0.476 61.504 0.476 61.504 0.879 -28.404
4255.263 0.874 -29.021 0.485 60.886 0.485 60.886 0.874 -29.021
4355.388 0.868 -29.634 0.494 60.272 0.494 60.272 0.868 -29.634
4455.514 0.863 -30.243 0.504 59.662 0.504 59.662 0.863 -30.243
4555.639 0.858 -30.848 0.513 59.056 0.513 59.056 0.858 -30.848
4655.764 0.852 -31.448 0.522 58.455 0.522 58.455 0.852 -31.448
4755.89 0.847 -32.045 0.531 57.857 0.531 57.857 0.847 -32.045
4856.015 0.841 -32.637 0.539 57.264 0.539 57.264 0.841 -32.637
4956.14 0.836 -33.225 0.548 56.675 0.548 56.675 0.836 -33.225
5056.266 0.83 -33.808 0.556 56.091 0.556 56.091 0.83 -33.808
5156.391 0.824 -34.387 0.565 55.51 0.565 55.51 0.824 -34.387
5256.516 0.818 -34.962 0.573 54.934 0.573 54.934 0.818 -34.962
5356.642 0.813 -35.533 0.581 54.362 0.581 54.362 0.813 -35.533
5456.767 0.807 -36.099 0.589 53.795 0.589 53.795 0.807 -36.099
5556.892 0.801 -36.661 0.597 53.232 0.597 53.232 0.801 -36.661
5657.018 0.795 -37.219 0.605 52.673 0.605 52.673 0.795 -37.219
5757.143 0.789 -37.773 0.613 52.118 0.613 52.118 0.789 -37.773
5857.268 0.783 -38.322 0.62 51.568 0.62 51.568 0.783 -38.322
5957.393 0.777 -38.867 0.628 51.022 0.628 51.022 0.777 -38.867
6057.519 0.771 -39.408 0.635 50.48 0.635 50.48 0.771 -39.408
6157.644 0.765 -39.944 0.642 49.942 0.642 49.942 0.765 -39.944
6257.769 0.759 -40.476 0.649 49.409 0.649 49.409 0.759 -40.476
6357.895 0.753 -41.004 0.656 48.879 0.656 48.879 0.753 -41.004
6458.02 0.747 -41.528 0.663 48.354 0.663 48.354 0.747 -41.528
6558.145 0.741 -42.047 0.67 47.834 0.67 47.834 0.741 -42.047
6658.271 0.735 -42.563 0.676 47.317 0.676 47.317 0.735 -42.563
6758.396 0.729 -43.074 0.683 46.805 0.683 46.805 0.729 -43.074
6858.521 0.723 -43.581 0.689 46.296 0.689 46.296 0.723 -43.581
6958.647 0.717 -44.084 0.696 45.792 0.696 45.792 0.717 -44.084
7058.772 0.711 -44.582 0.702 45.292 0.702 45.292 0.711 -44.582
7158.897 0.705 -45.077 0.708 44.796 0.708 44.796 0.705 -45.077
7259.023 0.698 -45.568 0.714 44.304 0.714 44.304 0.698 -45.568
7359.148 0.692 -46.054 0.72 43.816 0.72 43.816 0.692 -46.054
7459.273 0.686 -46.537 0.726 43.332 0.726 43.332 0.686 -46.537
7559.398 0.68 -47.016 0.732 42.851 0.732 42.851 0.68 -47.016
7659.524 0.674 -47.49 0.737 42.375 0.737 42.375 0.674 -47.49
7759.649 0.668 -47.961 0.743 41.903 0.743 41.903 0.668 -47.961
7859.774 0.662 -48.428 0.748 41.434 0.748 41.434 0.662 -48.428
7959.9 0.656 -48.891 0.753 40.97 0.753 40.97 0.656 -48.891
8060.025 0.65 -49.351 0.759 40.509 0.759 40.509 0.65 -49.351
8160.15 0.643 -49.806 0.764 40.052 0.764 40.052 0.643 -49.806
8260.276 0.637 -50.258 0.769 39.599 0.769 39.599 0.637 -50.258
8360.401 0.631 -50.706 0.774 39.149 0.774 39.149 0.631 -50.706
8460.526 0.625 -51.15 0.779 38.703 0.779 38.703 0.625 -51.15
8560.652 0.619 -51.591 0.784 38.261 0.784 38.261 0.619 -51.591
8660.777 0.613 -52.028 0.788 37.822 0.788 37.822 0.613 -52.028
8760.902 0.607 -52.461 0.793 37.387 0.793 37.387 0.607 -52.461
8861.028 0.601 -52.891 0.797 36.956 0.797 36.956 0.601 -52.891
8961.153 0.595 -53.317 0.802 36.528 0.802 36.528 0.595 -53.317
9061.278 0.589 -53.74 0.806 36.103 0.806 36.103 0.589 -53.74
9161.404 0.583 -54.159 0.811 35.682 0.811 35.682 0.583 -54.159
9261.529 0.577 -54.575 0.815 35.264 0.815 35.264 0.577 -54.575
9361.654 0.571 -54.987 0.819 34.85 0.819 34.85 0.571 -54.987
9461.779 0.566 -55.396 0.823 34.439 0.823 34.439 0.566 -55.396
9561.905 0.56 -55.802 0.827 34.031 0.827 34.031 0.56 -55.802
9662.03 0.554 -56.205 0.831 33.627 0.831 33.627 0.554 -56.205
9762.155 0.548 -56.604 0.835 33.226 0.835 33.226 0.548 -56.604
9862.281 0.542 -57 0.839 32.828 0.839 32.828 0.542 -57
9962.406 0.536 -57.393 0.842 32.433 0.842 32.433 0.536 -57.393
10062.531 0.531 -57.782 0.846 32.041 0.846 32.041 0.531 -57.782
10162.657 0.525 -58.169 0.85 31.652 0.85 31.652 0.525 -58.169
10262.782 0.519 -58.552 0.853 31.267 0.853 31.267 0.519 -58.552
10362.907 0.513 -58.932 0.857 30.884 0.857 30.884 0.513 -58.932
10463.033 0.508 -59.31 0.86 30.505 0.86 30.505 0.508 -59.31
10563.158 0.502 -59.684 0.863 30.129 0.863 30.129 0.502 -59.684
10663.283 0.496 -60.055 0.867 29.755 0.867 29.755 0.496 -60.055
10763.409 0.491 -60.423 0.87 29.384 0.87 29.384 0.491 -60.423
10863.534 0.485 -60.789 0.873 29.016 0.873 29.016 0.485 -60.789
10963.659 0.479 -61.151 0.876 28.651 0.876 28.651 0.479 -61.151
11063.784 0.474 -61.511 0.879 28.289 0.879 28.289 0.474 -61.511
11163.91 0.468 -61.868 0.882 27.93 0.882 27.93 0.468 -61.868
11264.035 0.463 -62.222 0.885 27.573 0.885 27.573 0.463 -62.222
11364.16 0.457 -62.573 0.888 27.219 0.888 27.219 0.457 -62.573
11464.286 0.452 -62.922 0.89 26.868 0.89 26.868 0.452 -62.922
11564.411 0.447 -63.268 0.893 26.519 0.893 26.519 0.447 -63.268
11664.536 0.441 -63.611 0.896 26.173 0.896 26.173 0.441 -63.611
11764.662 0.436 -63.952 0.898 25.83 0.898 25.83 0.436 -63.952
11864.787 0.43 -64.29 0.901 25.489 0.901 25.489 0.43 -64.29
11964.912 0.425 -64.625 0.904 25.151 0.904 25.151 0.425 -64.625
12065.038 0.42 -64.958 0.906 24.815 0.906 24.815 0.42 -64.958
12165.163 0.414 -65.288 0.908 24.482 0.908 24.482 0.414 -65.288
12265.288 0.409 -65.616 0.911 24.151 0.911 24.151 0.409 -65.616
12365.414 0.404 -65.941 0.913 23.822 0.913 23.822 0.404 -65.941
12465.539 0.399 -66.264 0.915 23.496 0.915 23.496 0.399 -66.264
12565.664 0.394 -66.585 0.918 23.172 0.918 23.172 0.394 -66.585
12665.789 0.388 -66.903 0.92 22.851 0.92 22.851 0.388 -66.903
12765.915 0.383 -67.219 0.922 22.532 0.922 22.532 0.383 -67.219
12866.04 0.378 -67.532 0.924 22.215 0.924 22.215 0.378 -67.532
12966.165 0.373 -67.843 0.926 21.9 0.926 21.9 0.373 -67.843
13066.291 0.368 -68.152 0.928 21.588 0.928 21.588 0.368 -68.152
13166.416 0.363 -68.458 0.93 21.278 0.93 21.278 0.363 -68.458
13266.541 0.358 -68.762 0.932 20.97 0.932 20.97 0.358 -68.762
13366.667 0.353 -69.064 0.934 20.664 0.934 20.664 0.353 -69.064
13466.792 0.348 -69.364 0.936 20.36 0.936 20.36 0.348 -69.364
13566.917 0.343 -69.662 0.938 20.058 0.938 20.058 0.343 -69.662
13667.043 0.338 -69.957 0.939 19.759 0.939 19.759 0.338 -69.957
13767.168 0.333 -70.25 0.941 19.461 0.941 19.461 0.333 -70.25
13867.293 0.328 -70.542 0.943 19.166 0.943 19.166 0.328 -70.542
13967.419 0.323 -70.831 0.945 18.872 0.945 18.872 0.323 -70.831
14067.544 0.319 -71.118 0.946 18.58 0.946 18.58 0.319 -71.118
14167.669 0.314 -71.403 0.948 18.291 0.948 18.291 0.314 -71.403
14267.794 0.309 -71.685 0.949 18.003 0.949 18.003 0.309 -71.685
14367.92 0.304 -71.966 0.951 17.717 0.951 17.717 0.304 -71.966
14468.045 0.3 -72.245 0.952 17.433 0.952 17.433 0.3 -72.245
14568.17 0.295 -72.522 0.954 17.151 0.954 17.151 0.295 -72.522
14668.296 0.29 -72.797 0.955 16.871 0.955 16.871 0.29 -72.797
14768.421 0.286 -73.069 0.957 16.593 0.957 16.593 0.286 -73.069
14868.546 0.281 -73.34 0.958 16.316 0.958 16.316 0.281 -73.34
14968.672 0.276 -73.609 0.959 16.042 0.959 16.042 0.276 -73.609
15068.797 0.272 -73.876 0.961 15.769 0.961 15.769 0.272 -73.876
15168.922 0.267 -74.141 0.962 15.497 0.962 15.497 0.267 -74.141
15269.048 0.263 -74.405 0.963 15.228 0.963 15.228 0.263 -74.405
15369.173 0.258 -74.666 0.964 14.96 0.964 14.96 0.258 -74.666
15469.298 0.254 -74.926 0.966 14.694 0.966 14.694 0.254 -74.926
15569.424 0.249 -75.183 0.967 14.429 0.967 14.429 0.249 -75.183
15669.549 0.245 -75.439 0.968 14.166 0.968 14.166 0.245 -75.439
15769.674 0.24 -75.693 0.969 13.905 0.969 13.905 0.24 -75.693
15869.799 0.236 -75.945 0.97 13.645 0.97 13.645 0.236 -75.945
15969.925 0.232 -76.195 0.971 13.387 0.971 13.387 0.232 -76.195
16070.05 0.227 -76.444 0.972 13.131 0.972 13.131 0.227 -76.444
16170.175 0.223 -76.69 0.973 12.876 0.973 12.876 0.223 -76.69
16270.301 0.219 -76.935 0.974 12.622 0.974 12.622 0.219 -76.935
16370.426 0.214 -77.178 0.975 12.37 0.975 12.37 0.214 -77.178
16470.551 0.21 -77.419 0.976 12.12 0.976 12.12 0.21 -77.419
16570.677 0.206 -77.658 0.977 11.871 0.977 11.871 0.206 -77.658
16670.802 0.201 -77.896 0.978 11.624 0.978 11.624 0.201 -77.896
16770.927 0.197 -78.131 0.979 11.378 0.979 11.378 0.197 -78.131
16871.053 0.193 -78.365 0.979 11.133 0.979 11.133 0.193 -78.365
16971.178 0.189 -78.597 0.98 10.89 0.98 10.89 0.189 -78.597
17071.303 0.185 -78.827 0.981 10.648 0.981 10.648 0.185 -78.827
17171.429 0.181 -79.056 0.982 10.408 0.982 10.408 0.181 -79.056
17271.554 0.177 -79.282 0.983 10.169 0.983 10.169 0.177 -79.282
17371.679 0.172 -79.507 0.983 9.931 0.983 9.931 0.172 -79.507
17471.805 0.168 -79.729 0.984 9.695 0.984 9.695 0.168 -79.729
17571.93 0.164 -79.95 0.985 9.46 0.985 9.46 0.164 -79.95
17672.055 0.16 -80.169 0.985 9.226 0.985 9.226 0.16 -80.169
17772.18 0.156 -80.386 0.986 8.994 0.986 8.994 0.156 -80.386
17872.306 0.152 -80.6 0.987 8.763 0.987 8.763 0.152 -80.6
17972.431 0.148 -80.813 0.987 8.533 0.987 8.533 0.148 -80.813
18072.556 0.144 -81.023 0.988 8.305 0.988 8.305 0.144 -81.023
18172.682 0.141 -81.232 0.988 8.078 0.988 8.078 0.141 -81.232
18272.807 0.137 -81.438 0.989 7.852 0.989 7.852 0.137 -81.438
18372.932 0.133 -81.642 0.989 7.627 0.989 7.627 0.133 -81.642
18473.058 0.129 -81.844 0.99 7.403 0.99 7.403 0.129 -81.844
18573.183 0.125 -82.043 0.99 7.181 0.99 7.181 0.125 -82.043
18673.308 0.121 -82.239 0.991 6.96 0.991 6.96 0.121 -82.239
18773.434 0.117 -82.433 0.991 6.74 0.991 6.74 0.117 -82.433
18873.559 0.114 -82.624 0.992 6.521 0.992 6.521 0.114 -82.624
18973.684 0.11 -82.813 0.992 6.303 0.992 6.303 0.11 -82.813
19073.81 0.106 -82.998 0.993 6.086 0.993 6.086 0.106 -82.998
19173.935 0.102 -83.18 0.993 5.871 0.993 5.871 0.102 -83.18
19274.06 0.099 -83.358 0.993 5.657 0.993 5.657 0.099 -83.358
19374.185 0.095 -83.533 0.994 5.443 0.994 5.443 0.095 -83.533
19474.311 0.091 -83.703 0.994 5.231 0.994 5.231 0.091 -83.703
19574.436 0.088 -83.87 0.994 5.02 0.994 5.02 0.088 -83.87
19674.561 0.084 -84.031 0.995 4.81 0.995 4.81 0.084 -84.031
19774.687 0.08 -84.188 0.995 4.601 0.995 4.601 0.08 -84.188
19874.812 0.077 -84.338 0.995 4.393 0.995 4.393 0.077 -84.338
19974.937 0.073 -84.483 0.996 4.187 0.996 4.187 0.073 -84.483
20075.063 0.069 -84.62 0.996 3.981 0.996 3.981 0.069 -84.62
20175.188 0.066 -84.749 0.996 3.776 0.996 3.776 0.066 -84.749
20275.313 0.062 -84.868 0.996 3.572 0.996 3.572 0.062 -84.868
20375.439 0.059 -84.977 0.997 3.37 0.997 3.37 0.059 -84.977
20475.564 0.055 -85.074 0.997 3.168 0.997 3.168 0.055 -85.074
20575.689 0.052 -85.156 0.997 2.967 0.997 2.967 0.052 -85.156
20675.815 0.048 -85.22 0.997 2.767 0.997 2.767 0.048 -85.22
20775.94 0.045 -85.264 0.997 2.568 0.997 2.568 0.045 -85.264
20876.065 0.041 -85.281 0.997 2.37 0.997 2.37 0.041 -85.281
20976.19 0.038 -85.265 0.998 2.173 0.998 2.173 0.038 -85.265
21076.316 0.035 -85.208 0.998 1.977 0.998 1.977 0.035 -85.208
21176.441 0.031 -85.095 0.998 1.782 0.998 1.782 0.031 -85.095
21276.566 0.028 -84.908 0.998 1.588 0.998 1.588 0.028 -84.908
21376.692 0.024 -84.618 0.998 1.395 0.998 1.395 0.024 -84.618
21476.817 0.021 -84.175 0.998 1.202 0.998 1.202 0.021 -84.175
21576.942 0.018 -83.496 0.998 1.011 0.998 1.011 0.018 -83.496
21677.068 0.014 -82.421 0.998 0.82 0.998 0.82 0.014 -82.421
21777.193 0.011 -80.606 0.998 0.631 0.998 0.631 0.011 -80.606
21877.318 7.896e-3 -77.148 0.998 0.442 0.998 0.442 7.896e-3 -77.148
21977.444 4.744e-3 -68.79 0.998 0.254 0.998 0.254 4.744e-3 -68.79
22077.569 2.058e-3 -34.399 0.998 0.067 0.998 0.067 2.058e-3 -34.399
22177.694 2.689e-3 50.76 0.998 -0.12 0.998 -0.12 2.689e-3 50.76
22277.82 5.587e-3 72.014 0.998 -0.305 0.998 -0.305 5.587e-3 72.014
22377.945 8.712e-3 78.279 0.998 -0.49 0.998 -0.49 8.712e-3 78.279
22478.07 0.012 81.111 0.998 -0.673 0.998 -0.673 0.012 81.111
22578.195 0.015 82.666 0.998 -0.856 0.998 -0.856 0.015 82.666
22678.321 0.018 83.613 0.998 -1.038 0.998 -1.038 0.018 83.613
22778.446 0.021 84.223 0.998 -1.22 0.998 -1.22 0.021 84.223
22878.571 0.024 84.628 0.998 -1.4 0.998 -1.4 0.024 84.628
22978.697 0.028 84.899 0.998 -1.58 0.998 -1.58 0.028 84.899
23078.822 0.031 85.077 0.998 -1.759 0.998 -1.759 0.031 85.077
23178.947 0.034 85.19 0.998 -1.937 0.998 -1.937 0.034 85.19
23279.073 0.037 85.253 0.998 -2.115 0.998 -2.115 0.037 85.253
23379.198 0.04 85.279 0.998 -2.291 0.998 -2.291 0.04 85.279
23479.323 0.043 85.276 0.997 -2.467 0.997 -2.467 0.043 85.276
23579.449 0.046 85.25 0.997 -2.643 0.997 -2.643 0.046 85.25
23679.574 0.049 85.206 0.997 -2.817 0.997 -2.817 0.049 85.206
23779.699 0.052 85.147 0.997 -2.991 0.997 -2.991 0.052 85.147
23879.825 0.055 85.076 0.997 -3.164 0.997 -3.164 0.055 85.076
23979.95 0.058 84.994 0.997 -3.336 0.997 -3.336 0.058 84.994
24080.075 0.061 84.904 0.996 -3.507 0.996 -3.507 0.061 84.904
24180.201 0.064 84.807 0.996 -3.678 0.996 -3.678 0.064 84.807
24280.326 0.067 84.704 0.996 -3.848 0.996 -3.848 0.067 84.704
24380.451 0.07 84.596 0.996 -4.018 0.996 -4.018 0.07 84.596
24480.576 0.073 84.483 0.996 -4.186 0.996 -4.186 0.073 84.483
24580.702 0.076 84.366 0.995 -4.354 0.995 -4.354 0.076 84.366
24680.827 0.079 84.246 0.995 -4.522 0.995 -4.522 0.079 84.246
24780.952 0.082 84.123 0.995 -4.688 0.995 -4.688 0.082 84.123
24881.078 0.085 83.998 0.995 -4.854 0.995 -4.854 0.085 83.998
24981.203 0.088 83.87 0.994 -5.019 0.994 -5.019 0.088 83.87
25081.328 0.09 83.741 0.994 -5.184 0.994 -5.184 0.09 83.741
25181.454 0.093 83.61 0.994 -5.348 0.994 -5.348 0.093 83.61
25281.579 0.096 83.477 0.994 -5.511 0.994 -5.511 0.096 83.477
25381.704 0.099 83.344 0.993 -5.674 0.993 -5.674 0.099 83.344
25481.83 0.102 83.209 0.993 -5.836 0.993 -5.836 0.102 83.209
25581.955 0.104 83.073 0.993 -5.997 0.993 -5.997 0.104 83.073
25682.08 0.107 82.937 0.993 -6.158 0.993 -6.158 0.107 82.937
25782.206 0.11 82.799 0.992 -6.318 0.992 -6.318 0.11 82.799
25882.331 0.113 82.662 0.992 -6.478 0.992 -6.478 0.113 82.662
25982.456 0.116 82.523 0.992 -6.637 0.992 -6.637 0.116 82.523
26082.581 0.118 82.385 0.991 -6.795 0.991 -6.795 0.118 82.385
26182.707 0.121 82.245 0.991 -6.952 0.991 -6.952 0.121 82.245
26282.832 0.124 82.106 0.991 -7.11 0.991 -7.11 0.124 82.106
26382.957 0.126 81.967 0.99 -7.266 0.99 -7.266 0.126 81.967
26483.083 0.129 81.827 0.99 -7.422 0.99 -7.422 0.129 81.827
26583.208 0.132 81.687 0.99 -7.577 0.99 -7.577 0.132 81.687
26683.333 0.135 81.547 0.989 -7.732 0.989 -7.732 0.135 81.547
26783.459 0.137 81.407 0.989 -7.886 0.989 -7.886 0.137 81.407
26883.584 0.14 81.267 0.988 -8.039 0.988 -8.039 0.14 81.267
26983.709 0.143 81.127 0.988 -8.192 0.988 -8.192 0.143 81.127
27083.835 0.145 80.987 0.988 -8.344 0.988 -8.344 0.145 80.987
27183.96 0.148 80.847 0.987 -8.496 0.987 -8.496 0.148 80.847
27284.085 0.15 80.707 0.987 -8.647 0.987 -8.647 0.15 80.707
27384.211 0.153 80.568 0.987 -8.798 0.987 -8.798 0.153 80.568
27484.336 0.156 80.428 0.986 -8.948 0.986 -8.948 0.156 80.428
27584.461 0.158 80.289 0.986 -9.098 0.986 -9.098 0.158 80.289
27684.586 0.161 80.15 0.985 -9.247 0.985 -9.247 0.161 80.15
27784.712 0.163 80.011 0.985 -9.395 0.985 -9.395 0.163 80.011
27884.837 0.166 79.872 0.984 -9.543 0.984 -9.543 0.166 79.872
27984.962 0.168 79.734 0.984 -9.69 0.984 -9.69 0.168 79.734
28085.088 0.171 79.595 0.984 -9.837 0.984 -9.837 0.171 79.595
28185.213 0.173 79.457 0.983 -9.983 0.983 -9.983 0.173 79.457
28285.338 0.176 79.32 0.983 -10.129 0.983 -10.129 0.176 79.32
28385.464 0.178 79.182 0.982 -10.275 0.982 -10.275 0.178 79.182
28485.589 0.181 79.045 0.982 -10.419 0.982 -10.419 0.181 79.045
28585.714 0.183 78.908 0.981 -10.563 0.981 -10.563 0.183 78.908
28685.84 0.186 78.771 0.981 -10.707 0.981 -10.707 0.186 78.771
28785.965 0.188 78.635 0.98 -10.85 0.98 -10.85 0.188 78.635
28886.09 0.191 78.499 0.98 -10.993 0.98 -10.993 0.191 78.499
28986.216 0.193 78.363 0.979 -11.135 0.979 -11.135 0.193 78.363
29086.341 0.196 78.228 0.979 -11.277 0.979 -11.277 0.196 78.228
29186.466 0.198 78.093 0.979 -11.418 0.979 -11.418 0.198 78.093
29286.591 0.2 77.958 0.978 -11.559 0.978 -11.559 0.2 77.958
29386.717 0.203 77.823 0.978 -11.699 0.978 -11.699 0.203 77.823
29486.842 0.205 77.689 0.977 -11.839 0.977 -11.839 0.205 77.689
29586.967 0.208 77.556 0.977 -11.978 0.977 -11.978 0.208 77.556
29687.093 0.21 77.422 0.976 -12.117 0.976 -12.117 0.21 77.422
29787.218 0.212 77.289 0.976 -12.255 0.976 -12.255 0.212 77.289
29887.343 0.215 77.156 0.975 -12.393 0.975 -12.393 0.215 77.156
29987.469 0.217 77.024 0.974 -12.53 0.974 -12.53 0.217 77.024
30087.594 0.219 76.892 0.974 -12.667 0.974 -12.667 0.219 76.892
30187.719 0.222 76.76 0.973 -12.803 0.973 -12.803 0.222 76.76
30287.845 0.224 76.629 0.973 -12.939 0.973 -12.939 0.224 76.629
30387.97 0.226 76.498 0.972 -13.075 0.972 -13.075 0.226 76.498
30488.095 0.229 76.367 0.972 -13.21 0.972 -13.21 0.229 76.367
30588.221 0.231 76.237 0.971 -13.344 0.971 -13.344 0.231 76.237
30688.346 0.233 76.107 0.971 -13.478 0.971 -13.478 0.233 76.107
30788.471 0.235 75.977 0.97 -13.612 0.97 -13.612 0.235 75.977
30888.596 0.238 75.848 0.97 -13.745 0.97 -13.745 0.238 75.848
30988.722 0.24 75.719 0.969 -13.878 0.969 -13.878 0.24 75.719
31088.847 0.242 75.59 0.969 -14.01 0.969 -14.01 0.242 75.59
31188.972 0.244 75.462 0.968 -14.142 0.968 -14.142 0.244 75.462
31289.098 0.247 75.334 0.967 -14.274 0.967 -14.274 0.247 75.334
31389.223 0.249 75.207 0.967 -14.405 0.967 -14.405 0.249 75.207
31489.348 0.251 75.08 0.966 -14.535 0.966 -14.535 0.251 75.08
31589.474 0.253 74.953 0.966 -14.665 0.966 -14.665 0.253 74.953
31689.599 0.255 74.827 0.965 -14.795 0.965 -14.795 0.255 74.827
31789.724 0.258 74.7 0.965 -14.925 0.965 -14.925 0.258 74.7
