!	AVX	Thin	Film	Operation	
!
!	Date:	March 2012		
!
!	Description: Ultra-Miniature 01005 Size ACCU - P® Thin Film RF / Microwave Capacitor
!
!	Part Number:  C005YK2R2ABSTR	
!								
!	Serial	Measurements						
!								
#	MHz	S	db	R	50			
!	S11	S21	S12	S22				
!	dB	Phase	dB	Phase	dB	Phase	dB	Phase
50	-0.021	-3.954	-23.23	85.972	-23.23	85.972	-0.021	-3.954
72.431	-0.045	-5.717	-20.033	84.201	-20.033	84.201	-0.045	-5.717
94.862	-0.076	-7.47	-17.72	82.44	-17.72	82.44	-0.076	-7.47
117.293	-0.115	-9.21	-15.915	80.693	-15.915	80.693	-0.115	-9.21
139.724	-0.162	-10.932	-14.441	78.963	-14.441	78.963	-0.162	-10.932
162.155	-0.217	-12.636	-13.201	77.252	-13.201	77.252	-0.217	-12.636
184.586	-0.279	-14.317	-12.136	75.564	-12.136	75.564	-0.279	-14.317
207.018	-0.348	-15.974	-11.207	73.899	-11.207	73.899	-0.348	-15.974
229.449	-0.423	-17.604	-10.387	72.261	-10.387	72.261	-0.423	-17.604
251.88	-0.505	-19.206	-9.657	70.651	-9.657	70.651	-0.505	-19.206
274.311	-0.593	-20.778	-9.001	69.072	-9.001	69.072	-0.593	-20.778
296.742	-0.686	-22.319	-8.41	67.523	-8.41	67.523	-0.686	-22.319
319.173	-0.785	-23.827	-7.873	66.007	-7.873	66.007	-0.785	-23.827
341.604	-0.888	-25.302	-7.383	64.525	-7.383	64.525	-0.888	-25.302
364.035	-0.996	-26.743	-6.936	63.077	-6.936	63.077	-0.996	-26.743
386.466	-1.109	-28.148	-6.526	61.663	-6.526	61.663	-1.109	-28.148
408.897	-1.225	-29.519	-6.148	60.285	-6.148	60.285	-1.225	-29.519
431.328	-1.344	-30.855	-5.8	58.942	-5.8	58.942	-1.344	-30.855
453.759	-1.466	-32.155	-5.478	57.634	-5.478	57.634	-1.466	-32.155
476.19	-1.592	-33.42	-5.18	56.361	-5.18	56.361	-1.592	-33.42
498.622	-1.72	-34.65	-4.904	55.123	-4.904	55.123	-1.72	-34.65
521.053	-1.85	-35.846	-4.648	53.919	-4.648	53.919	-1.85	-35.846
543.484	-1.982	-37.008	-4.409	52.749	-4.409	52.749	-1.982	-37.008
565.915	-2.115	-38.137	-4.187	51.613	-4.187	51.613	-2.115	-38.137
588.346	-2.251	-39.233	-3.979	50.51	-3.979	50.51	-2.251	-39.233
610.777	-2.387	-40.296	-3.785	49.438	-3.785	49.438	-2.387	-40.296
633.208	-2.524	-41.328	-3.604	48.398	-3.604	48.398	-2.524	-41.328
655.639	-2.663	-42.33	-3.434	47.389	-3.434	47.389	-2.663	-42.33
678.07	-2.802	-43.302	-3.275	46.409	-3.275	46.409	-2.802	-43.302
700.501	-2.941	-44.245	-3.126	45.458	-3.126	45.458	-2.941	-44.245
722.932	-3.081	-45.159	-2.986	44.536	-2.986	44.536	-3.081	-45.159
745.363	-3.221	-46.047	-2.854	43.641	-2.854	43.641	-3.221	-46.047
767.794	-3.361	-46.907	-2.73	42.772	-2.73	42.772	-3.361	-46.907
790.226	-3.502	-47.742	-2.614	41.929	-2.614	41.929	-3.502	-47.742
812.657	-3.642	-48.553	-2.504	41.111	-2.504	41.111	-3.642	-48.553
835.088	-3.782	-49.339	-2.4	40.317	-2.4	40.317	-3.782	-49.339
857.519	-3.921	-50.102	-2.302	39.546	-2.302	39.546	-3.921	-50.102
879.95	-4.06	-50.842	-2.209	38.797	-2.209	38.797	-4.06	-50.842
902.381	-4.199	-51.561	-2.122	38.07	-2.122	38.07	-4.199	-51.561
924.812	-4.338	-52.259	-2.039	37.364	-2.039	37.364	-4.338	-52.259
947.243	-4.476	-52.936	-1.96	36.679	-1.96	36.679	-4.476	-52.936
969.674	-4.613	-53.594	-1.886	36.013	-1.886	36.013	-4.613	-53.594
992.105	-4.749	-54.234	-1.815	35.365	-1.815	35.365	-4.749	-54.234
1014.536	-4.885	-54.855	-1.748	34.736	-1.748	34.736	-4.885	-54.855
1036.967	-5.021	-55.458	-1.684	34.124	-1.684	34.124	-5.021	-55.458
1059.398	-5.155	-56.045	-1.624	33.529	-1.624	33.529	-5.155	-56.045
1081.83	-5.289	-56.615	-1.566	32.95	-1.566	32.95	-5.289	-56.615
1104.261	-5.422	-57.17	-1.511	32.387	-1.511	32.387	-5.422	-57.17
1126.692	-5.555	-57.71	-1.459	31.84	-1.459	31.84	-5.555	-57.71
1149.123	-5.686	-58.234	-1.409	31.306	-1.409	31.306	-5.686	-58.234
1171.554	-5.817	-58.745	-1.362	30.787	-1.362	30.787	-5.817	-58.745
1193.985	-5.947	-59.242	-1.316	30.282	-1.316	30.282	-5.947	-59.242
1216.416	-6.076	-59.727	-1.273	29.789	-1.273	29.789	-6.076	-59.727
1238.847	-6.204	-60.198	-1.232	29.309	-1.232	29.309	-6.204	-60.198
1261.278	-6.332	-60.657	-1.192	28.841	-1.192	28.841	-6.332	-60.657
1283.709	-6.458	-61.105	-1.155	28.385	-1.155	28.385	-6.458	-61.105
1306.14	-6.584	-61.541	-1.118	27.941	-1.118	27.941	-6.584	-61.541
1328.571	-6.709	-61.966	-1.084	27.507	-1.084	27.507	-6.709	-61.966
1351.003	-6.834	-62.38	-1.051	27.084	-1.051	27.084	-6.834	-62.38
1373.434	-6.957	-62.784	-1.019	26.671	-1.019	26.671	-6.957	-62.784
1395.865	-7.08	-63.178	-0.988	26.268	-0.988	26.268	-7.08	-63.178
1418.296	-7.202	-63.563	-0.959	25.875	-0.959	25.875	-7.202	-63.563
1440.727	-7.323	-63.939	-0.931	25.49	-0.931	25.49	-7.323	-63.939
1463.158	-7.443	-64.305	-0.904	25.115	-0.904	25.115	-7.443	-64.305
1485.589	-7.563	-64.663	-0.878	24.748	-0.878	24.748	-7.563	-64.663
1508.02	-7.682	-65.012	-0.853	24.39	-0.853	24.39	-7.682	-65.012
1530.451	-7.8	-65.354	-0.829	24.039	-0.829	24.039	-7.8	-65.354
1552.882	-7.917	-65.687	-0.806	23.697	-0.806	23.697	-7.917	-65.687
1575.313	-8.034	-66.013	-0.784	23.362	-0.784	23.362	-8.034	-66.013
1597.744	-8.15	-66.332	-0.763	23.034	-0.763	23.034	-8.15	-66.332
1620.175	-8.265	-66.643	-0.742	22.713	-0.742	22.713	-8.265	-66.643
1642.607	-8.38	-66.948	-0.722	22.399	-0.722	22.399	-8.38	-66.948
1665.038	-8.493	-67.246	-0.703	22.092	-0.703	22.092	-8.493	-67.246
1687.469	-8.607	-67.538	-0.685	21.791	-0.685	21.791	-8.607	-67.538
1709.9	-8.719	-67.823	-0.667	21.496	-0.667	21.496	-8.719	-67.823
1732.331	-8.831	-68.102	-0.65	21.208	-0.65	21.208	-8.831	-68.102
1754.762	-8.943	-68.376	-0.633	20.925	-0.633	20.925	-8.943	-68.376
1777.193	-9.053	-68.643	-0.617	20.648	-0.617	20.648	-9.053	-68.643
1799.624	-9.163	-68.905	-0.602	20.376	-0.602	20.376	-9.163	-68.905
1822.055	-9.273	-69.162	-0.587	20.11	-0.587	20.11	-9.273	-69.162
1844.486	-9.382	-69.414	-0.572	19.848	-0.572	19.848	-9.382	-69.414
1866.917	-9.49	-69.66	-0.558	19.592	-0.558	19.592	-9.49	-69.66
1889.348	-9.598	-69.902	-0.545	19.341	-0.545	19.341	-9.598	-69.902
1911.779	-9.705	-70.138	-0.532	19.094	-0.532	19.094	-9.705	-70.138
1934.211	-9.812	-70.371	-0.519	18.852	-0.519	18.852	-9.812	-70.371
1956.642	-9.918	-70.598	-0.507	18.614	-0.507	18.614	-9.918	-70.598
1979.073	-10.024	-70.821	-0.495	18.381	-0.495	18.381	-10.024	-70.821
2001.504	-10.129	-71.04	-0.484	18.152	-0.484	18.152	-10.129	-71.04
2023.935	-10.234	-71.255	-0.472	17.927	-0.472	17.927	-10.234	-71.255
2046.366	-10.338	-71.466	-0.462	17.706	-0.462	17.706	-10.338	-71.466
2068.797	-10.442	-71.673	-0.451	17.489	-0.451	17.489	-10.442	-71.673
2091.228	-10.545	-71.876	-0.441	17.275	-0.441	17.275	-10.545	-71.876
2113.659	-10.648	-72.075	-0.431	17.065	-0.431	17.065	-10.648	-72.075
2136.09	-10.75	-72.271	-0.422	16.859	-0.422	16.859	-10.75	-72.271
2158.521	-10.852	-72.463	-0.412	16.656	-0.412	16.656	-10.852	-72.463
2180.952	-10.954	-72.652	-0.403	16.457	-0.403	16.457	-10.954	-72.652
2203.383	-11.055	-72.837	-0.395	16.261	-0.395	16.261	-11.055	-72.837
2225.815	-11.156	-73.019	-0.386	16.068	-0.386	16.068	-11.156	-73.019
2248.246	-11.257	-73.198	-0.378	15.878	-0.378	15.878	-11.257	-73.198
2270.677	-11.357	-73.374	-0.37	15.691	-0.37	15.691	-11.357	-73.374
2293.108	-11.457	-73.547	-0.362	15.507	-0.362	15.507	-11.457	-73.547
2315.539	-11.556	-73.717	-0.354	15.326	-0.354	15.326	-11.556	-73.717
2337.97	-11.655	-73.883	-0.347	15.148	-0.347	15.148	-11.655	-73.883
2360.401	-11.754	-74.048	-0.34	14.973	-0.34	14.973	-11.754	-74.048
2382.832	-11.853	-74.209	-0.333	14.8	-0.333	14.8	-11.853	-74.209
2405.263	-11.951	-74.368	-0.326	14.63	-0.326	14.63	-11.951	-74.368
2427.694	-12.049	-74.524	-0.319	14.462	-0.319	14.462	-12.049	-74.524
2450.125	-12.147	-74.677	-0.313	14.297	-0.313	14.297	-12.147	-74.677
2472.556	-12.244	-74.828	-0.307	14.134	-0.307	14.134	-12.244	-74.828
2494.987	-12.341	-74.977	-0.301	13.974	-0.301	13.974	-12.341	-74.977
2517.419	-12.438	-75.123	-0.295	13.815	-0.295	13.815	-12.438	-75.123
2539.85	-12.535	-75.267	-0.289	13.66	-0.289	13.66	-12.535	-75.267
2562.281	-12.631	-75.408	-0.283	13.506	-0.283	13.506	-12.631	-75.408
2584.712	-12.727	-75.548	-0.278	13.354	-0.278	13.354	-12.727	-75.548
2607.143	-12.823	-75.685	-0.272	13.205	-0.272	13.205	-12.823	-75.685
2629.574	-12.919	-75.82	-0.267	13.057	-0.267	13.057	-12.919	-75.82
2652.005	-13.015	-75.952	-0.262	12.912	-0.262	12.912	-13.015	-75.952
2674.436	-13.11	-76.083	-0.257	12.768	-0.257	12.768	-13.11	-76.083
2696.867	-13.205	-76.212	-0.252	12.627	-0.252	12.627	-13.205	-76.212
2719.298	-13.3	-76.339	-0.247	12.487	-0.247	12.487	-13.3	-76.339
2741.729	-13.395	-76.464	-0.243	12.349	-0.243	12.349	-13.395	-76.464
2764.16	-13.49	-76.587	-0.238	12.213	-0.238	12.213	-13.49	-76.587
2786.591	-13.585	-76.708	-0.234	12.079	-0.234	12.079	-13.585	-76.708
2809.023	-13.679	-76.827	-0.23	11.946	-0.23	11.946	-13.679	-76.827
2831.454	-13.774	-76.945	-0.225	11.815	-0.225	11.815	-13.774	-76.945
2853.885	-13.868	-77.06	-0.221	11.685	-0.221	11.685	-13.868	-77.06
2876.316	-13.962	-77.174	-0.217	11.558	-0.217	11.558	-13.962	-77.174
2898.747	-14.056	-77.287	-0.213	11.431	-0.213	11.431	-14.056	-77.287
2921.178	-14.15	-77.397	-0.21	11.307	-0.21	11.307	-14.15	-77.397
2943.609	-14.244	-77.506	-0.206	11.183	-0.206	11.183	-14.244	-77.506
2966.04	-14.338	-77.614	-0.202	11.062	-0.202	11.062	-14.338	-77.614
2988.471	-14.432	-77.72	-0.199	10.941	-0.199	10.941	-14.432	-77.72
3010.902	-14.525	-77.824	-0.195	10.822	-0.195	10.822	-14.525	-77.824
3033.333	-14.619	-77.927	-0.192	10.705	-0.192	10.705	-14.619	-77.927
3055.764	-14.713	-78.028	-0.188	10.588	-0.188	10.588	-14.713	-78.028
3078.195	-14.806	-78.128	-0.185	10.473	-0.185	10.473	-14.806	-78.128
3100.627	-14.9	-78.226	-0.182	10.36	-0.182	10.36	-14.9	-78.226
3123.058	-14.994	-78.323	-0.179	10.248	-0.179	10.248	-14.994	-78.323
3145.489	-15.087	-78.419	-0.176	10.136	-0.176	10.136	-15.087	-78.419
3167.92	-15.181	-78.513	-0.173	10.027	-0.173	10.027	-15.181	-78.513
3190.351	-15.275	-78.605	-0.17	9.918	-0.17	9.918	-15.275	-78.605
3212.782	-15.368	-78.697	-0.167	9.81	-0.167	9.81	-15.368	-78.697
3235.213	-15.462	-78.787	-0.164	9.704	-0.164	9.704	-15.462	-78.787
3257.644	-15.556	-78.876	-0.162	9.599	-0.162	9.599	-15.556	-78.876
3280.075	-15.65	-78.963	-0.159	9.494	-0.159	9.494	-15.65	-78.963
3302.506	-15.744	-79.05	-0.156	9.391	-0.156	9.391	-15.744	-79.05
3324.937	-15.838	-79.135	-0.154	9.289	-0.154	9.289	-15.838	-79.135
3347.368	-15.932	-79.218	-0.151	9.188	-0.151	9.188	-15.932	-79.218
3369.799	-16.026	-79.301	-0.149	9.088	-0.149	9.088	-16.026	-79.301
3392.231	-16.12	-79.382	-0.146	8.989	-0.146	8.989	-16.12	-79.382
3414.662	-16.214	-79.462	-0.144	8.891	-0.144	8.891	-16.214	-79.462
3437.093	-16.309	-79.541	-0.142	8.794	-0.142	8.794	-16.309	-79.541
3459.524	-16.403	-79.619	-0.14	8.698	-0.14	8.698	-16.403	-79.619
3481.955	-16.498	-79.696	-0.137	8.603	-0.137	8.603	-16.498	-79.696
3504.386	-16.593	-79.771	-0.135	8.509	-0.135	8.509	-16.593	-79.771
3526.817	-16.688	-79.845	-0.133	8.416	-0.133	8.416	-16.688	-79.845
3549.248	-16.783	-79.919	-0.131	8.323	-0.131	8.323	-16.783	-79.919
3571.679	-16.878	-79.991	-0.129	8.232	-0.129	8.232	-16.878	-79.991
3594.11	-16.974	-80.062	-0.127	8.141	-0.127	8.141	-16.974	-80.062
3616.541	-17.07	-80.132	-0.125	8.051	-0.125	8.051	-17.07	-80.132
3638.972	-17.165	-80.2	-0.123	7.962	-0.123	7.962	-17.165	-80.2
3661.404	-17.261	-80.268	-0.121	7.874	-0.121	7.874	-17.261	-80.268
3683.835	-17.358	-80.335	-0.12	7.786	-0.12	7.786	-17.358	-80.335
3706.266	-17.454	-80.401	-0.118	7.7	-0.118	7.7	-17.454	-80.401
3728.697	-17.551	-80.465	-0.116	7.614	-0.116	7.614	-17.551	-80.465
3751.128	-17.648	-80.529	-0.114	7.529	-0.114	7.529	-17.648	-80.529
3773.559	-17.745	-80.591	-0.113	7.444	-0.113	7.444	-17.745	-80.591
3795.99	-17.843	-80.653	-0.111	7.361	-0.111	7.361	-17.843	-80.653
3818.421	-17.941	-80.713	-0.109	7.278	-0.109	7.278	-17.941	-80.713
3840.852	-18.039	-80.772	-0.108	7.195	-0.108	7.195	-18.039	-80.772
3863.283	-18.137	-80.831	-0.106	7.114	-0.106	7.114	-18.137	-80.831
3885.714	-18.236	-80.888	-0.105	7.033	-0.105	7.033	-18.236	-80.888
3908.145	-18.335	-80.945	-0.103	6.953	-0.103	6.953	-18.335	-80.945
3930.576	-18.434	-81	-0.102	6.873	-0.102	6.873	-18.434	-81
3953.008	-18.534	-81.054	-0.1	6.794	-0.1	6.794	-18.534	-81.054
3975.439	-18.634	-81.108	-0.099	6.716	-0.099	6.716	-18.634	-81.108
3997.87	-18.735	-81.16	-0.097	6.638	-0.097	6.638	-18.735	-81.16
4020.301	-18.835	-81.211	-0.096	6.561	-0.096	6.561	-18.835	-81.211
4042.732	-18.937	-81.262	-0.095	6.485	-0.095	6.485	-18.937	-81.262
4065.163	-19.038	-81.311	-0.093	6.409	-0.093	6.409	-19.038	-81.311
4087.594	-19.14	-81.359	-0.092	6.333	-0.092	6.333	-19.14	-81.359
4110.025	-19.243	-81.406	-0.091	6.259	-0.091	6.259	-19.243	-81.406
4132.456	-19.346	-81.453	-0.09	6.185	-0.09	6.185	-19.346	-81.453
4154.887	-19.449	-81.498	-0.088	6.111	-0.088	6.111	-19.449	-81.498
4177.318	-19.553	-81.542	-0.087	6.038	-0.087	6.038	-19.553	-81.542
4199.749	-19.657	-81.585	-0.086	5.966	-0.086	5.966	-19.657	-81.585
4222.18	-19.762	-81.627	-0.085	5.894	-0.085	5.894	-19.762	-81.627
4244.612	-19.867	-81.669	-0.084	5.822	-0.084	5.822	-19.867	-81.669
4267.043	-19.973	-81.709	-0.083	5.751	-0.083	5.751	-19.973	-81.709
4289.474	-20.079	-81.748	-0.082	5.681	-0.082	5.681	-20.079	-81.748
4311.905	-20.186	-81.786	-0.081	5.611	-0.081	5.611	-20.186	-81.786
4334.336	-20.294	-81.823	-0.08	5.542	-0.08	5.542	-20.294	-81.823
4356.767	-20.402	-81.858	-0.079	5.473	-0.079	5.473	-20.402	-81.858
4379.198	-20.51	-81.893	-0.078	5.405	-0.078	5.405	-20.51	-81.893
4401.629	-20.62	-81.927	-0.077	5.337	-0.077	5.337	-20.62	-81.927
4424.06	-20.73	-81.959	-0.076	5.269	-0.076	5.269	-20.73	-81.959
4446.491	-20.84	-81.991	-0.075	5.202	-0.075	5.202	-20.84	-81.991
4468.922	-20.951	-82.021	-0.074	5.136	-0.074	5.136	-20.951	-82.021
4491.353	-21.063	-82.05	-0.073	5.07	-0.073	5.07	-21.063	-82.05
4513.784	-21.176	-82.078	-0.072	5.004	-0.072	5.004	-21.176	-82.078
4536.216	-21.289	-82.105	-0.071	4.939	-0.071	4.939	-21.289	-82.105
4558.647	-21.403	-82.131	-0.07	4.874	-0.07	4.874	-21.403	-82.131
4581.078	-21.518	-82.155	-0.069	4.81	-0.069	4.81	-21.518	-82.155
4603.509	-21.634	-82.179	-0.069	4.746	-0.069	4.746	-21.634	-82.179
4625.94	-21.75	-82.2	-0.068	4.682	-0.068	4.682	-21.75	-82.2
4648.371	-21.868	-82.221	-0.067	4.619	-0.067	4.619	-21.868	-82.221
4670.802	-21.986	-82.241	-0.066	4.556	-0.066	4.556	-21.986	-82.241
4693.233	-22.105	-82.259	-0.066	4.494	-0.066	4.494	-22.105	-82.259
4715.664	-22.225	-82.275	-0.065	4.432	-0.065	4.432	-22.225	-82.275
4738.095	-22.346	-82.291	-0.064	4.37	-0.064	4.37	-22.346	-82.291
4760.526	-22.467	-82.305	-0.063	4.309	-0.063	4.309	-22.467	-82.305
4782.957	-22.59	-82.317	-0.063	4.248	-0.063	4.248	-22.59	-82.317
4805.388	-22.714	-82.328	-0.062	4.188	-0.062	4.188	-22.714	-82.328
4827.82	-22.839	-82.338	-0.061	4.128	-0.061	4.128	-22.839	-82.338
4850.251	-22.965	-82.346	-0.061	4.068	-0.061	4.068	-22.965	-82.346
4872.682	-23.092	-82.353	-0.06	4.009	-0.06	4.009	-23.092	-82.353
4895.113	-23.22	-82.357	-0.059	3.95	-0.059	3.95	-23.22	-82.357
4917.544	-23.349	-82.361	-0.059	3.891	-0.059	3.891	-23.349	-82.361
4939.975	-23.479	-82.362	-0.058	3.833	-0.058	3.833	-23.479	-82.362
4962.406	-23.611	-82.362	-0.058	3.775	-0.058	3.775	-23.611	-82.362
4984.837	-23.744	-82.36	-0.057	3.717	-0.057	3.717	-23.744	-82.36
5007.268	-23.878	-82.356	-0.057	3.66	-0.057	3.66	-23.878	-82.356
5029.699	-24.014	-82.35	-0.056	3.603	-0.056	3.603	-24.014	-82.35
5052.13	-24.151	-82.343	-0.055	3.546	-0.055	3.546	-24.151	-82.343
5074.561	-24.289	-82.333	-0.055	3.49	-0.055	3.49	-24.289	-82.333
5096.992	-24.429	-82.321	-0.054	3.434	-0.054	3.434	-24.429	-82.321
5119.424	-24.57	-82.307	-0.054	3.378	-0.054	3.378	-24.57	-82.307
5141.855	-24.713	-82.291	-0.053	3.322	-0.053	3.322	-24.713	-82.291
5164.286	-24.857	-82.273	-0.053	3.267	-0.053	3.267	-24.857	-82.273
5186.717	-25.003	-82.252	-0.052	3.212	-0.052	3.212	-25.003	-82.252
5209.148	-25.151	-82.228	-0.052	3.158	-0.052	3.158	-25.151	-82.228
5231.579	-25.301	-82.202	-0.052	3.103	-0.052	3.103	-25.301	-82.202
5254.01	-25.452	-82.174	-0.051	3.049	-0.051	3.049	-25.452	-82.174
5276.441	-25.605	-82.142	-0.051	2.996	-0.051	2.996	-25.605	-82.142
5298.872	-25.76	-82.108	-0.05	2.942	-0.05	2.942	-25.76	-82.108
5321.303	-25.917	-82.07	-0.05	2.889	-0.05	2.889	-25.917	-82.07
5343.734	-26.077	-82.03	-0.049	2.836	-0.049	2.836	-26.077	-82.03
5366.165	-26.238	-81.986	-0.049	2.783	-0.049	2.783	-26.238	-81.986
5388.596	-26.401	-81.939	-0.049	2.731	-0.049	2.731	-26.401	-81.939
5411.028	-26.567	-81.888	-0.048	2.679	-0.048	2.679	-26.567	-81.888
5433.459	-26.735	-81.833	-0.048	2.627	-0.048	2.627	-26.735	-81.833
5455.89	-26.906	-81.774	-0.048	2.575	-0.048	2.575	-26.906	-81.774
5478.321	-27.079	-81.712	-0.047	2.524	-0.047	2.524	-27.079	-81.712
5500.752	-27.255	-81.645	-0.047	2.473	-0.047	2.473	-27.255	-81.645
5523.183	-27.433	-81.573	-0.046	2.422	-0.046	2.422	-27.433	-81.573
5545.614	-27.615	-81.496	-0.046	2.371	-0.046	2.371	-27.615	-81.496
5568.045	-27.799	-81.415	-0.046	2.321	-0.046	2.321	-27.799	-81.415
5590.476	-27.986	-81.328	-0.046	2.271	-0.046	2.271	-27.986	-81.328
5612.907	-28.177	-81.235	-0.045	2.221	-0.045	2.221	-28.177	-81.235
5635.338	-28.371	-81.136	-0.045	2.171	-0.045	2.171	-28.371	-81.136
5657.769	-28.568	-81.031	-0.045	2.122	-0.045	2.122	-28.568	-81.031
5680.201	-28.769	-80.92	-0.044	2.073	-0.044	2.073	-28.769	-80.92
5702.632	-28.973	-80.801	-0.044	2.024	-0.044	2.024	-28.973	-80.801
5725.063	-29.182	-80.674	-0.044	1.975	-0.044	1.975	-29.182	-80.674
5747.494	-29.395	-80.54	-0.044	1.926	-0.044	1.926	-29.395	-80.54
5769.925	-29.611	-80.396	-0.043	1.878	-0.043	1.878	-29.611	-80.396
5792.356	-29.833	-80.244	-0.043	1.83	-0.043	1.83	-29.833	-80.244
5814.787	-30.059	-80.081	-0.043	1.782	-0.043	1.782	-30.059	-80.081
5837.218	-30.29	-79.908	-0.043	1.734	-0.043	1.734	-30.29	-79.908
5859.649	-30.526	-79.724	-0.042	1.687	-0.042	1.687	-30.526	-79.724
5882.08	-30.767	-79.527	-0.042	1.639	-0.042	1.639	-30.767	-79.527
5904.511	-31.014	-79.317	-0.042	1.592	-0.042	1.592	-31.014	-79.317
5926.942	-31.267	-79.093	-0.042	1.545	-0.042	1.545	-31.267	-79.093
5949.373	-31.527	-78.854	-0.042	1.498	-0.042	1.498	-31.527	-78.854
5971.805	-31.793	-78.597	-0.042	1.452	-0.042	1.452	-31.793	-78.597
5994.236	-32.066	-78.322	-0.041	1.406	-0.041	1.406	-32.066	-78.322
6016.667	-32.346	-78.028	-0.041	1.359	-0.041	1.359	-32.346	-78.028
6039.098	-32.634	-77.712	-0.041	1.314	-0.041	1.314	-32.634	-77.712
6061.529	-32.93	-77.371	-0.041	1.268	-0.041	1.268	-32.93	-77.371
6083.96	-33.236	-77.005	-0.041	1.222	-0.041	1.222	-33.236	-77.005
6106.391	-33.55	-76.61	-0.041	1.177	-0.041	1.177	-33.55	-76.61
6128.822	-33.875	-76.182	-0.04	1.132	-0.04	1.132	-33.875	-76.182
6151.253	-34.21	-75.72	-0.04	1.087	-0.04	1.087	-34.21	-75.72
6173.684	-34.556	-75.218	-0.04	1.042	-0.04	1.042	-34.556	-75.218
6196.115	-34.914	-74.671	-0.04	0.997	-0.04	0.997	-34.914	-74.671
6218.546	-35.285	-74.076	-0.04	0.953	-0.04	0.953	-35.285	-74.076
6240.977	-35.671	-73.424	-0.04	0.908	-0.04	0.908	-35.671	-73.424
6263.409	-36.071	-72.71	-0.04	0.864	-0.04	0.864	-36.071	-72.71
6285.84	-36.486	-71.924	-0.04	0.82	-0.04	0.82	-36.486	-71.924
6308.271	-36.919	-71.055	-0.039	0.776	-0.039	0.776	-36.919	-71.055
6330.702	-37.371	-70.093	-0.039	0.732	-0.039	0.732	-37.371	-70.093
6353.133	-37.842	-69.022	-0.039	0.689	-0.039	0.689	-37.842	-69.022
6375.564	-38.335	-67.825	-0.039	0.646	-0.039	0.646	-38.335	-67.825
6397.995	-38.85	-66.479	-0.039	0.602	-0.039	0.602	-38.85	-66.479
6420.426	-39.39	-64.96	-0.039	0.559	-0.039	0.559	-39.39	-64.96
6442.857	-39.955	-63.236	-0.039	0.517	-0.039	0.517	-39.955	-63.236
6465.288	-40.548	-61.266	-0.039	0.474	-0.039	0.474	-40.548	-61.266
6487.719	-41.168	-59.002	-0.039	0.431	-0.039	0.431	-41.168	-59.002
6510.15	-41.816	-56.385	-0.039	0.389	-0.039	0.389	-41.816	-56.385
6532.581	-42.491	-53.341	-0.039	0.347	-0.039	0.347	-42.491	-53.341
6555.013	-43.187	-49.782	-0.039	0.304	-0.039	0.304	-43.187	-49.782
6577.444	-43.898	-45.602	-0.039	0.263	-0.039	0.263	-43.898	-45.602
6599.875	-44.61	-40.686	-0.039	0.221	-0.039	0.221	-44.61	-40.686
6622.306	-45.298	-34.921	-0.039	0.179	-0.039	0.179	-45.298	-34.921
6644.737	-45.931	-28.22	-0.039	0.137	-0.039	0.137	-45.931	-28.22
6667.168	-46.464	-20.571	-0.039	0.096	-0.039	0.096	-46.464	-20.571
6689.599	-46.845	-12.093	-0.039	0.055	-0.039	0.055	-46.845	-12.093
