!	AVX	Thin	Film	Operation	
!
!	Date:	March 2012		
!
!	Description: Ultra-Miniature 01005 Size ACCU - P® Thin Film RF / Microwave Capacitor
!
!	Part Number:  C005YK1R2ABSTR	
!								
!	Serial	Measurements						
!								
#	MHz	S	db	R	50			
!	S11	S21	S12	S22				
!	dB	Phase	dB	Phase	dB	Phase	dB	Phase
50	-6.56E-03	-2.159	-28.48	87.772	-28.48	87.772	-6.56E-03	-2.159
77.444	-0.015	-3.342	-24.688	86.583	-24.688	86.583	-0.015	-3.342
104.887	-0.028	-4.522	-22.065	85.397	-22.065	85.397	-0.028	-4.522
132.331	-0.044	-5.698	-20.062	84.214	-20.062	84.214	-0.044	-5.698
159.774	-0.064	-6.87	-18.444	83.036	-18.444	83.036	-0.064	-6.87
187.218	-0.088	-8.036	-17.09	81.863	-17.09	81.863	-0.088	-8.036
214.662	-0.115	-9.196	-15.928	80.697	-15.928	80.697	-0.115	-9.196
242.105	-0.146	-10.348	-14.912	79.538	-14.912	79.538	-0.146	-10.348
269.549	-0.18	-11.493	-14.012	78.387	-14.012	78.387	-0.18	-11.493
296.992	-0.217	-12.629	-13.206	77.245	-13.206	77.245	-0.217	-12.629
324.436	-0.258	-13.755	-12.477	76.113	-12.477	76.113	-0.258	-13.755
351.88	-0.301	-14.871	-11.814	74.991	-11.814	74.991	-0.301	-14.871
379.323	-0.348	-15.975	-11.206	73.879	-11.206	73.879	-0.348	-15.975
406.767	-0.398	-17.069	-10.647	72.78	-10.647	72.78	-0.398	-17.069
434.211	-0.451	-18.15	-10.131	71.692	-10.131	71.692	-0.451	-18.15
461.654	-0.507	-19.219	-9.651	70.617	-9.651	70.617	-0.507	-19.219
489.098	-0.565	-20.275	-9.205	69.555	-9.205	69.555	-0.565	-20.275
516.541	-0.626	-21.317	-8.789	68.506	-8.789	68.506	-0.626	-21.317
543.985	-0.689	-22.345	-8.4	67.471	-8.4	67.471	-0.689	-22.345
571.429	-0.755	-23.359	-8.035	66.451	-8.035	66.451	-0.755	-23.359
598.872	-0.823	-24.359	-7.692	65.445	-7.692	65.445	-0.823	-24.359
626.316	-0.894	-25.344	-7.37	64.453	-7.37	64.453	-0.894	-25.344
653.759	-0.966	-26.314	-7.066	63.477	-7.066	63.477	-0.966	-26.314
681.203	-1.04	-27.269	-6.78	62.516	-6.78	62.516	-1.04	-27.269
708.647	-1.116	-28.208	-6.509	61.57	-6.509	61.57	-1.116	-28.208
736.09	-1.194	-29.132	-6.252	60.639	-6.252	60.639	-1.194	-29.132
763.534	-1.274	-30.041	-6.01	59.723	-6.01	59.723	-1.274	-30.041
790.977	-1.355	-30.934	-5.78	58.824	-5.78	58.824	-1.355	-30.934
818.421	-1.437	-31.812	-5.561	57.939	-5.561	57.939	-1.437	-31.812
845.865	-1.521	-32.675	-5.354	57.07	-5.354	57.07	-1.521	-32.675
873.308	-1.606	-33.522	-5.157	56.216	-5.157	56.216	-1.606	-33.522
900.752	-1.693	-34.354	-4.97	55.378	-4.97	55.378	-1.693	-34.354
928.195	-1.78	-35.171	-4.791	54.555	-4.791	54.555	-1.78	-35.171
955.639	-1.869	-35.972	-4.621	53.746	-4.621	53.746	-1.869	-35.972
983.083	-1.958	-36.759	-4.459	52.953	-4.459	52.953	-1.958	-36.759
1010.526	-2.049	-37.531	-4.305	52.175	-4.305	52.175	-2.049	-37.531
1037.97	-2.14	-38.288	-4.157	51.411	-4.157	51.411	-2.14	-38.288
1065.414	-2.232	-39.031	-4.017	50.661	-4.017	50.661	-2.232	-39.031
1092.857	-2.324	-39.76	-3.882	49.926	-3.882	49.926	-2.324	-39.76
1120.301	-2.417	-40.474	-3.754	49.204	-3.754	49.204	-2.417	-40.474
1147.744	-2.511	-41.175	-3.631	48.497	-3.631	48.497	-2.511	-41.175
1175.188	-2.605	-41.862	-3.513	47.803	-3.513	47.803	-2.605	-41.862
1202.632	-2.7	-42.536	-3.4	47.122	-3.4	47.122	-2.7	-42.536
1230.075	-2.795	-43.197	-3.292	46.455	-3.292	46.455	-2.795	-43.197
1257.519	-2.89	-43.844	-3.189	45.8	-3.189	45.8	-2.89	-43.844
1284.962	-2.986	-44.479	-3.09	45.159	-3.09	45.159	-2.986	-44.479
1312.406	-3.082	-45.102	-2.995	44.529	-2.995	44.529	-3.082	-45.102
1339.85	-3.178	-45.713	-2.903	43.912	-2.903	43.912	-3.178	-45.713
1367.293	-3.275	-46.311	-2.816	43.307	-2.816	43.307	-3.275	-46.311
1394.737	-3.371	-46.898	-2.732	42.713	-2.732	42.713	-3.371	-46.898
1422.18	-3.468	-47.473	-2.651	42.131	-2.651	42.131	-3.468	-47.473
1449.624	-3.564	-48.037	-2.573	41.56	-2.573	41.56	-3.564	-48.037
1477.068	-3.661	-48.59	-2.499	41	-2.499	41	-3.661	-48.59
1504.511	-3.758	-49.132	-2.427	40.45	-2.427	40.45	-3.758	-49.132
1531.955	-3.854	-49.664	-2.358	39.912	-2.358	39.912	-3.854	-49.664
1559.398	-3.951	-50.186	-2.291	39.383	-2.291	39.383	-3.951	-50.186
1586.842	-4.048	-50.697	-2.227	38.865	-2.227	38.865	-4.048	-50.697
1614.286	-4.144	-51.199	-2.165	38.356	-2.165	38.356	-4.144	-51.199
1641.729	-4.241	-51.691	-2.106	37.857	-2.106	37.857	-4.241	-51.691
1669.173	-4.337	-52.173	-2.049	37.367	-2.049	37.367	-4.337	-52.173
1696.617	-4.433	-52.647	-1.993	36.887	-1.993	36.887	-4.433	-52.647
1724.06	-4.529	-53.111	-1.94	36.415	-1.94	36.415	-4.529	-53.111
1751.504	-4.625	-53.567	-1.889	35.952	-1.889	35.952	-4.625	-53.567
1778.947	-4.721	-54.014	-1.839	35.498	-1.839	35.498	-4.721	-54.014
1806.391	-4.817	-54.452	-1.791	35.052	-1.791	35.052	-4.817	-54.452
1833.835	-4.912	-54.883	-1.745	34.614	-1.745	34.614	-4.912	-54.883
1861.278	-5.007	-55.306	-1.7	34.184	-1.7	34.184	-5.007	-55.306
1888.722	-5.102	-55.72	-1.657	33.762	-1.657	33.762	-5.102	-55.72
1916.165	-5.197	-56.128	-1.615	33.348	-1.615	33.348	-5.197	-56.128
1943.609	-5.291	-56.527	-1.575	32.941	-1.575	32.941	-5.291	-56.527
1971.053	-5.386	-56.92	-1.536	32.541	-1.536	32.541	-5.386	-56.92
1998.496	-5.48	-57.305	-1.498	32.148	-1.498	32.148	-5.48	-57.305
2025.94	-5.573	-57.684	-1.461	31.762	-1.461	31.762	-5.573	-57.684
2053.383	-5.667	-58.056	-1.426	31.382	-1.426	31.382	-5.667	-58.056
2080.827	-5.76	-58.421	-1.392	31.01	-1.392	31.01	-5.76	-58.421
2108.271	-5.853	-58.78	-1.358	30.643	-1.358	30.643	-5.853	-58.78
2135.714	-5.946	-59.132	-1.326	30.283	-1.326	30.283	-5.946	-59.132
2163.158	-6.039	-59.479	-1.295	29.929	-1.295	29.929	-6.039	-59.479
2190.602	-6.131	-59.819	-1.265	29.581	-1.265	29.581	-6.131	-59.819
2218.045	-6.223	-60.153	-1.236	29.239	-1.236	29.239	-6.223	-60.153
2245.489	-6.315	-60.482	-1.207	28.902	-1.207	28.902	-6.315	-60.482
2272.932	-6.406	-60.805	-1.18	28.571	-1.18	28.571	-6.406	-60.805
2300.376	-6.498	-61.123	-1.153	28.246	-1.153	28.246	-6.498	-61.123
2327.82	-6.589	-61.436	-1.127	27.925	-1.127	27.925	-6.589	-61.436
2355.263	-6.679	-61.743	-1.102	27.61	-1.102	27.61	-6.679	-61.743
2382.707	-6.77	-62.045	-1.077	27.3	-1.077	27.3	-6.77	-62.045
2410.15	-6.86	-62.342	-1.053	26.995	-1.053	26.995	-6.86	-62.342
2437.594	-6.95	-62.635	-1.03	26.695	-1.03	26.695	-6.95	-62.635
2465.038	-7.04	-62.922	-1.008	26.399	-1.008	26.399	-7.04	-62.922
2492.481	-7.129	-63.205	-0.986	26.108	-0.986	26.108	-7.129	-63.205
2519.925	-7.218	-63.483	-0.965	25.821	-0.965	25.821	-7.218	-63.483
2547.368	-7.307	-63.757	-0.944	25.539	-0.944	25.539	-7.307	-63.757
2574.812	-7.396	-64.027	-0.924	25.261	-0.924	25.261	-7.396	-64.027
2602.256	-7.484	-64.292	-0.905	24.988	-0.905	24.988	-7.484	-64.292
2629.699	-7.573	-64.554	-0.886	24.718	-0.886	24.718	-7.573	-64.554
2657.143	-7.66	-64.811	-0.867	24.453	-0.867	24.453	-7.66	-64.811
2684.586	-7.748	-65.064	-0.849	24.191	-0.849	24.191	-7.748	-65.064
2712.03	-7.836	-65.313	-0.832	23.933	-0.832	23.933	-7.836	-65.313
2739.474	-7.923	-65.559	-0.815	23.679	-0.815	23.679	-7.923	-65.559
2766.917	-8.01	-65.801	-0.798	23.429	-0.798	23.429	-8.01	-65.801
2794.361	-8.097	-66.039	-0.782	23.182	-0.782	23.182	-8.097	-66.039
2821.805	-8.184	-66.273	-0.766	22.939	-0.766	22.939	-8.184	-66.273
2849.248	-8.27	-66.505	-0.751	22.699	-0.751	22.699	-8.27	-66.505
2876.692	-8.356	-66.732	-0.736	22.462	-0.736	22.462	-8.356	-66.732
2904.135	-8.442	-66.957	-0.721	22.229	-0.721	22.229	-8.442	-66.957
2931.579	-8.528	-67.178	-0.707	21.999	-0.707	21.999	-8.528	-67.178
2959.023	-8.614	-67.396	-0.693	21.772	-0.693	21.772	-8.614	-67.396
2986.466	-8.699	-67.611	-0.68	21.548	-0.68	21.548	-8.699	-67.611
3013.91	-8.784	-67.822	-0.667	21.328	-0.667	21.328	-8.784	-67.822
3041.353	-8.869	-68.031	-0.654	21.11	-0.654	21.11	-8.869	-68.031
3068.797	-8.954	-68.237	-0.641	20.895	-0.641	20.895	-8.954	-68.237
3096.241	-9.039	-68.44	-0.629	20.683	-0.629	20.683	-9.039	-68.44
3123.684	-9.123	-68.64	-0.617	20.473	-0.617	20.473	-9.123	-68.64
3151.128	-9.208	-68.837	-0.605	20.267	-0.605	20.267	-9.208	-68.837
3178.571	-9.292	-69.032	-0.594	20.063	-0.594	20.063	-9.292	-69.032
3206.015	-9.376	-69.223	-0.583	19.861	-0.583	19.861	-9.376	-69.223
3233.459	-9.46	-69.413	-0.572	19.662	-0.572	19.662	-9.46	-69.413
3260.902	-9.543	-69.599	-0.561	19.466	-0.561	19.466	-9.543	-69.599
3288.346	-9.627	-69.784	-0.551	19.272	-0.551	19.272	-9.627	-69.784
3315.789	-9.71	-69.965	-0.541	19.081	-0.541	19.081	-9.71	-69.965
3343.233	-9.794	-70.145	-0.531	18.892	-0.531	18.892	-9.794	-70.145
3370.677	-9.877	-70.322	-0.521	18.705	-0.521	18.705	-9.877	-70.322
3398.12	-9.96	-70.496	-0.512	18.52	-0.512	18.52	-9.96	-70.496
3425.564	-10.043	-70.669	-0.503	18.338	-0.503	18.338	-10.043	-70.669
3453.008	-10.126	-70.839	-0.494	18.158	-0.494	18.158	-10.126	-70.839
3480.451	-10.209	-71.007	-0.485	17.979	-0.485	17.979	-10.209	-71.007
3507.895	-10.291	-71.173	-0.476	17.803	-0.476	17.803	-10.291	-71.173
3535.338	-10.374	-71.336	-0.468	17.63	-0.468	17.63	-10.374	-71.336
3562.782	-10.456	-71.498	-0.46	17.458	-0.46	17.458	-10.456	-71.498
3590.226	-10.538	-71.657	-0.451	17.288	-0.451	17.288	-10.538	-71.657
3617.669	-10.621	-71.815	-0.444	17.12	-0.444	17.12	-10.621	-71.815
3645.113	-10.703	-71.97	-0.436	16.953	-0.436	16.953	-10.703	-71.97
3672.556	-10.785	-72.124	-0.428	16.789	-0.428	16.789	-10.785	-72.124
3700	-10.867	-72.275	-0.421	16.627	-0.421	16.627	-10.867	-72.275
3727.444	-10.949	-72.425	-0.414	16.466	-0.414	16.466	-10.949	-72.425
3754.887	-11.031	-72.573	-0.406	16.307	-0.406	16.307	-11.031	-72.573
3782.331	-11.113	-72.719	-0.4	16.15	-0.4	16.15	-11.113	-72.719
3809.774	-11.195	-72.863	-0.393	15.994	-0.393	15.994	-11.195	-72.863
3837.218	-11.276	-73.006	-0.386	15.84	-0.386	15.84	-11.276	-73.006
3864.662	-11.358	-73.147	-0.38	15.688	-0.38	15.688	-11.358	-73.147
3892.105	-11.44	-73.286	-0.373	15.538	-0.373	15.538	-11.44	-73.286
3919.549	-11.521	-73.424	-0.367	15.389	-0.367	15.389	-11.521	-73.424
3946.992	-11.603	-73.559	-0.361	15.241	-0.361	15.241	-11.603	-73.559
3974.436	-11.685	-73.694	-0.355	15.095	-0.355	15.095	-11.685	-73.694
4001.88	-11.766	-73.826	-0.349	14.951	-0.349	14.951	-11.766	-73.826
4029.323	-11.848	-73.957	-0.343	14.808	-0.343	14.808	-11.848	-73.957
4056.767	-11.929	-74.087	-0.337	14.666	-0.337	14.666	-11.929	-74.087
4084.211	-12.011	-74.215	-0.332	14.526	-0.332	14.526	-12.011	-74.215
4111.654	-12.092	-74.341	-0.326	14.387	-0.326	14.387	-12.092	-74.341
4139.098	-12.174	-74.466	-0.321	14.25	-0.321	14.25	-12.174	-74.466
4166.541	-12.256	-74.59	-0.316	14.113	-0.316	14.113	-12.256	-74.59
4193.985	-12.337	-74.712	-0.311	13.979	-0.311	13.979	-12.337	-74.712
4221.429	-12.419	-74.833	-0.306	13.845	-0.306	13.845	-12.419	-74.833
4248.872	-12.501	-74.952	-0.301	13.713	-0.301	13.713	-12.501	-74.952
4276.316	-12.582	-75.07	-0.296	13.582	-0.296	13.582	-12.582	-75.07
4303.759	-12.664	-75.187	-0.291	13.452	-0.291	13.452	-12.664	-75.187
4331.203	-12.746	-75.302	-0.286	13.324	-0.286	13.324	-12.746	-75.302
4358.647	-12.828	-75.416	-0.282	13.197	-0.282	13.197	-12.828	-75.416
4386.09	-12.91	-75.528	-0.277	13.07	-0.277	13.07	-12.91	-75.528
4413.534	-12.991	-75.64	-0.273	12.945	-0.273	12.945	-12.991	-75.64
4440.977	-13.074	-75.75	-0.269	12.822	-0.269	12.822	-13.074	-75.75
4468.421	-13.156	-75.859	-0.265	12.699	-0.265	12.699	-13.156	-75.859
4495.865	-13.238	-75.966	-0.26	12.577	-0.26	12.577	-13.238	-75.966
4523.308	-13.32	-76.073	-0.256	12.457	-0.256	12.457	-13.32	-76.073
4550.752	-13.402	-76.178	-0.252	12.337	-0.252	12.337	-13.402	-76.178
4578.195	-13.485	-76.282	-0.248	12.219	-0.248	12.219	-13.485	-76.282
4605.639	-13.568	-76.384	-0.245	12.101	-0.245	12.101	-13.568	-76.384
4633.083	-13.65	-76.486	-0.241	11.985	-0.241	11.985	-13.65	-76.486
4660.526	-13.733	-76.587	-0.237	11.869	-0.237	11.869	-13.733	-76.587
4687.97	-13.816	-76.686	-0.233	11.755	-0.233	11.755	-13.816	-76.686
4715.414	-13.899	-76.784	-0.23	11.641	-0.23	11.641	-13.899	-76.784
4742.857	-13.982	-76.881	-0.226	11.529	-0.226	11.529	-13.982	-76.881
4770.301	-14.065	-76.977	-0.223	11.417	-0.223	11.417	-14.065	-76.977
4797.744	-14.149	-77.072	-0.22	11.307	-0.22	11.307	-14.149	-77.072
4825.188	-14.232	-77.166	-0.216	11.197	-0.216	11.197	-14.232	-77.166
4852.632	-14.316	-77.258	-0.213	11.088	-0.213	11.088	-14.316	-77.258
4880.075	-14.4	-77.35	-0.21	10.98	-0.21	10.98	-14.4	-77.35
4907.519	-14.484	-77.441	-0.207	10.873	-0.207	10.873	-14.484	-77.441
4934.962	-14.568	-77.53	-0.204	10.767	-0.204	10.767	-14.568	-77.53
4962.406	-14.653	-77.619	-0.2	10.661	-0.2	10.661	-14.653	-77.619
4989.85	-14.737	-77.706	-0.198	10.556	-0.198	10.556	-14.737	-77.706
5017.293	-14.822	-77.793	-0.195	10.453	-0.195	10.453	-14.822	-77.793
5044.737	-14.907	-77.878	-0.192	10.35	-0.192	10.35	-14.907	-77.878
5072.18	-14.992	-77.963	-0.189	10.247	-0.189	10.247	-14.992	-77.963
5099.624	-15.078	-78.046	-0.186	10.146	-0.186	10.146	-15.078	-78.046
5127.068	-15.163	-78.129	-0.183	10.045	-0.183	10.045	-15.163	-78.129
5154.511	-15.249	-78.21	-0.181	9.945	-0.181	9.945	-15.249	-78.21
5181.955	-15.335	-78.291	-0.178	9.846	-0.178	9.846	-15.335	-78.291
5209.398	-15.422	-78.37	-0.175	9.748	-0.175	9.748	-15.422	-78.37
5236.842	-15.508	-78.449	-0.173	9.65	-0.173	9.65	-15.508	-78.449
5264.286	-15.595	-78.527	-0.17	9.553	-0.17	9.553	-15.595	-78.527
5291.729	-15.682	-78.603	-0.168	9.457	-0.168	9.457	-15.682	-78.603
5319.173	-15.769	-78.679	-0.166	9.361	-0.166	9.361	-15.769	-78.679
5346.617	-15.857	-78.754	-0.163	9.266	-0.163	9.266	-15.857	-78.754
5374.06	-15.945	-78.828	-0.161	9.172	-0.161	9.172	-15.945	-78.828
5401.504	-16.033	-78.901	-0.159	9.078	-0.159	9.078	-16.033	-78.901
5428.947	-16.122	-78.973	-0.156	8.986	-0.156	8.986	-16.122	-78.973
5456.391	-16.211	-79.044	-0.154	8.893	-0.154	8.893	-16.211	-79.044
5483.835	-16.3	-79.114	-0.152	8.802	-0.152	8.802	-16.3	-79.114
5511.278	-16.389	-79.183	-0.15	8.711	-0.15	8.711	-16.389	-79.183
5538.722	-16.479	-79.251	-0.148	8.62	-0.148	8.62	-16.479	-79.251
5566.165	-16.569	-79.319	-0.146	8.53	-0.146	8.53	-16.569	-79.319
5593.609	-16.659	-79.385	-0.144	8.441	-0.144	8.441	-16.659	-79.385
5621.053	-16.75	-79.45	-0.142	8.353	-0.142	8.353	-16.75	-79.45
5648.496	-16.842	-79.515	-0.14	8.265	-0.14	8.265	-16.842	-79.515
5675.94	-16.933	-79.579	-0.138	8.177	-0.138	8.177	-16.933	-79.579
5703.383	-17.025	-79.641	-0.136	8.09	-0.136	8.09	-17.025	-79.641
5730.827	-17.117	-79.703	-0.134	8.004	-0.134	8.004	-17.117	-79.703
5758.271	-17.21	-79.764	-0.132	7.918	-0.132	7.918	-17.21	-79.764
5785.714	-17.303	-79.824	-0.13	7.833	-0.13	7.833	-17.303	-79.824
5813.158	-17.397	-79.883	-0.129	7.749	-0.129	7.749	-17.397	-79.883
5840.602	-17.491	-79.941	-0.127	7.665	-0.127	7.665	-17.491	-79.941
5868.045	-17.586	-79.998	-0.125	7.581	-0.125	7.581	-17.586	-79.998
5895.489	-17.68	-80.055	-0.124	7.498	-0.124	7.498	-17.68	-80.055
5922.932	-17.776	-80.11	-0.122	7.415	-0.122	7.415	-17.776	-80.11
5950.376	-17.872	-80.164	-0.12	7.333	-0.12	7.333	-17.872	-80.164
5977.82	-17.968	-80.217	-0.119	7.252	-0.119	7.252	-17.968	-80.217
6005.263	-18.065	-80.27	-0.117	7.171	-0.117	7.171	-18.065	-80.27
6032.707	-18.162	-80.321	-0.116	7.09	-0.116	7.09	-18.162	-80.321
6060.15	-18.26	-80.372	-0.114	7.01	-0.114	7.01	-18.26	-80.372
6087.594	-18.359	-80.421	-0.113	6.931	-0.113	6.931	-18.359	-80.421
6115.038	-18.458	-80.47	-0.111	6.852	-0.111	6.852	-18.458	-80.47
6142.481	-18.557	-80.517	-0.11	6.773	-0.11	6.773	-18.557	-80.517
6169.925	-18.658	-80.564	-0.108	6.695	-0.108	6.695	-18.658	-80.564
6197.368	-18.758	-80.61	-0.107	6.617	-0.107	6.617	-18.758	-80.61
6224.812	-18.86	-80.654	-0.106	6.54	-0.106	6.54	-18.86	-80.654
6252.256	-18.962	-80.698	-0.104	6.463	-0.104	6.463	-18.962	-80.698
6279.699	-19.064	-80.74	-0.103	6.386	-0.103	6.386	-19.064	-80.74
6307.143	-19.168	-80.781	-0.102	6.311	-0.102	6.311	-19.168	-80.781
6334.586	-19.271	-80.822	-0.1	6.235	-0.1	6.235	-19.271	-80.822
6362.03	-19.376	-80.861	-0.099	6.16	-0.099	6.16	-19.376	-80.861
6389.474	-19.481	-80.899	-0.098	6.085	-0.098	6.085	-19.481	-80.899
6416.917	-19.587	-80.936	-0.097	6.011	-0.097	6.011	-19.587	-80.936
6444.361	-19.694	-80.972	-0.096	5.937	-0.096	5.937	-19.694	-80.972
6471.805	-19.802	-81.007	-0.094	5.863	-0.094	5.863	-19.802	-81.007
6499.248	-19.91	-81.041	-0.093	5.79	-0.093	5.79	-19.91	-81.041
6526.692	-20.019	-81.073	-0.092	5.718	-0.092	5.718	-20.019	-81.073
6554.135	-20.129	-81.104	-0.091	5.645	-0.091	5.645	-20.129	-81.104
6581.579	-20.239	-81.134	-0.09	5.573	-0.09	5.573	-20.239	-81.134
6609.023	-20.351	-81.163	-0.089	5.502	-0.089	5.502	-20.351	-81.163
6636.466	-20.463	-81.191	-0.088	5.431	-0.088	5.431	-20.463	-81.191
6663.91	-20.577	-81.217	-0.087	5.36	-0.087	5.36	-20.577	-81.217
6691.353	-20.691	-81.242	-0.086	5.289	-0.086	5.289	-20.691	-81.242
6718.797	-20.806	-81.266	-0.085	5.219	-0.085	5.219	-20.806	-81.266
6746.241	-20.922	-81.288	-0.084	5.15	-0.084	5.15	-20.922	-81.288
6773.684	-21.039	-81.309	-0.083	5.08	-0.083	5.08	-21.039	-81.309
6801.128	-21.157	-81.328	-0.082	5.011	-0.082	5.011	-21.157	-81.328
6828.571	-21.276	-81.346	-0.081	4.942	-0.081	4.942	-21.276	-81.346
6856.015	-21.396	-81.362	-0.08	4.874	-0.08	4.874	-21.396	-81.362
6883.459	-21.518	-81.377	-0.079	4.806	-0.079	4.806	-21.518	-81.377
6910.902	-21.64	-81.391	-0.079	4.738	-0.079	4.738	-21.64	-81.391
6938.346	-21.763	-81.402	-0.078	4.671	-0.078	4.671	-21.763	-81.402
6965.789	-21.888	-81.412	-0.077	4.604	-0.077	4.604	-21.888	-81.412
6993.233	-22.014	-81.421	-0.076	4.537	-0.076	4.537	-22.014	-81.421
7020.677	-22.141	-81.427	-0.075	4.471	-0.075	4.471	-22.141	-81.427
7048.12	-22.269	-81.432	-0.075	4.405	-0.075	4.405	-22.269	-81.432
7075.564	-22.399	-81.435	-0.074	4.339	-0.074	4.339	-22.399	-81.435
7103.008	-22.53	-81.436	-0.073	4.274	-0.073	4.274	-22.53	-81.436
7130.451	-22.663	-81.435	-0.072	4.208	-0.072	4.208	-22.663	-81.435
7157.895	-22.796	-81.431	-0.072	4.144	-0.072	4.144	-22.796	-81.431
7185.338	-22.932	-81.426	-0.071	4.079	-0.071	4.079	-22.932	-81.426
7212.782	-23.069	-81.419	-0.07	4.015	-0.07	4.015	-23.069	-81.419
7240.226	-23.207	-81.409	-0.069	3.951	-0.069	3.951	-23.207	-81.409
7267.669	-23.347	-81.397	-0.069	3.887	-0.069	3.887	-23.347	-81.397
7295.113	-23.489	-81.383	-0.068	3.824	-0.068	3.824	-23.489	-81.383
7322.556	-23.632	-81.366	-0.068	3.761	-0.068	3.761	-23.632	-81.366
7350	-23.777	-81.346	-0.067	3.698	-0.067	3.698	-23.777	-81.346
7377.444	-23.924	-81.324	-0.066	3.635	-0.066	3.635	-23.924	-81.324
7404.887	-24.072	-81.299	-0.066	3.573	-0.066	3.573	-24.072	-81.299
7432.331	-24.223	-81.271	-0.065	3.511	-0.065	3.511	-24.223	-81.271
7459.774	-24.376	-81.239	-0.065	3.449	-0.065	3.449	-24.376	-81.239
7487.218	-24.53	-81.205	-0.064	3.388	-0.064	3.388	-24.53	-81.205
7514.662	-24.687	-81.167	-0.063	3.327	-0.063	3.327	-24.687	-81.167
7542.105	-24.846	-81.126	-0.063	3.266	-0.063	3.266	-24.846	-81.126
7569.549	-25.007	-81.081	-0.062	3.205	-0.062	3.205	-25.007	-81.081
7596.992	-25.171	-81.033	-0.062	3.145	-0.062	3.145	-25.171	-81.033
7624.436	-25.337	-80.98	-0.061	3.084	-0.061	3.084	-25.337	-80.98
7651.88	-25.505	-80.923	-0.061	3.024	-0.061	3.024	-25.505	-80.923
7679.323	-25.676	-80.862	-0.06	2.965	-0.06	2.965	-25.676	-80.862
7706.767	-25.85	-80.796	-0.06	2.905	-0.06	2.905	-25.85	-80.796
7734.211	-26.026	-80.725	-0.06	2.846	-0.06	2.846	-26.026	-80.725
7761.654	-26.206	-80.65	-0.059	2.787	-0.059	2.787	-26.206	-80.65
7789.098	-26.388	-80.568	-0.059	2.728	-0.059	2.728	-26.388	-80.568
7816.541	-26.573	-80.481	-0.058	2.67	-0.058	2.67	-26.573	-80.481
7843.985	-26.762	-80.388	-0.058	2.612	-0.058	2.612	-26.762	-80.388
7871.429	-26.954	-80.289	-0.057	2.554	-0.057	2.554	-26.954	-80.289
7898.872	-27.15	-80.183	-0.057	2.496	-0.057	2.496	-27.15	-80.183
7926.316	-27.349	-80.069	-0.057	2.438	-0.057	2.438	-27.349	-80.069
7953.759	-27.552	-79.948	-0.056	2.381	-0.056	2.381	-27.552	-79.948
7981.203	-27.759	-79.819	-0.056	2.324	-0.056	2.324	-27.759	-79.819
8008.647	-27.97	-79.681	-0.056	2.267	-0.056	2.267	-27.97	-79.681
8036.09	-28.186	-79.534	-0.055	2.21	-0.055	2.21	-28.186	-79.534
8063.534	-28.406	-79.377	-0.055	2.154	-0.055	2.154	-28.406	-79.377
8090.977	-28.63	-79.21	-0.055	2.097	-0.055	2.097	-28.63	-79.21
8118.421	-28.86	-79.031	-0.054	2.041	-0.054	2.041	-28.86	-79.031
8145.865	-29.095	-78.84	-0.054	1.986	-0.054	1.986	-29.095	-78.84
8173.308	-29.335	-78.636	-0.054	1.93	-0.054	1.93	-29.335	-78.636
