!	AVX	Thin	Film	Operation	
!
!	Date:	March 2012		
!
!	Description: Ultra-Miniature 01005 Size ACCU - P® Thin Film RF / Microwave Capacitor
!
!	Part Number:  C005YK2R1ABSTR	
!								
!	Serial	Measurements						
!								
#	MHz	S	db	R	50			
!	S11	S21	S12	S22				
!	dB	Phase	dB	Phase	dB	Phase	dB	Phase
50	-0.02	-3.774	-23.632	86.152	-23.632	86.152	-0.02	-3.774
72.431	-0.041	-5.459	-20.433	84.46	-20.433	84.46	-0.041	-5.459
94.862	-0.069	-7.134	-18.118	82.778	-18.118	82.778	-0.069	-7.134
117.293	-0.105	-8.798	-16.309	81.107	-16.309	81.107	-0.105	-8.798
139.724	-0.148	-10.447	-14.831	79.451	-14.831	79.451	-0.148	-10.447
162.155	-0.198	-12.079	-13.587	77.812	-13.587	77.812	-0.198	-12.079
184.586	-0.255	-13.691	-12.516	76.192	-12.516	76.192	-0.255	-13.691
207.018	-0.318	-15.282	-11.582	74.594	-11.582	74.594	-0.318	-15.282
229.449	-0.387	-16.85	-10.756	73.018	-10.756	73.018	-0.387	-16.85
251.88	-0.462	-18.393	-10.019	71.468	-10.019	71.468	-0.462	-18.393
274.311	-0.543	-19.91	-9.357	69.945	-9.357	69.945	-0.543	-19.91
296.742	-0.629	-21.398	-8.758	68.449	-8.758	68.449	-0.629	-21.398
319.173	-0.721	-22.858	-8.213	66.982	-8.213	66.982	-0.721	-22.858
341.604	-0.816	-24.287	-7.717	65.545	-7.717	65.545	-0.816	-24.287
364.035	-0.917	-25.686	-7.261	64.139	-7.261	64.139	-0.917	-25.686
386.466	-1.021	-27.054	-6.843	62.764	-6.843	62.764	-1.021	-27.054
408.897	-1.129	-28.39	-6.458	61.421	-6.458	61.421	-1.129	-28.39
431.328	-1.24	-29.694	-6.101	60.109	-6.101	60.109	-1.24	-29.694
453.759	-1.354	-30.966	-5.772	58.83	-5.772	58.83	-1.354	-30.966
476.19	-1.471	-32.206	-5.466	57.583	-5.466	57.583	-1.471	-32.206
498.622	-1.591	-33.413	-5.182	56.368	-5.182	56.368	-1.591	-33.413
521.053	-1.713	-34.59	-4.918	55.184	-4.918	55.184	-1.713	-34.59
543.484	-1.837	-35.734	-4.671	54.032	-4.671	54.032	-1.837	-35.734
565.915	-1.963	-36.848	-4.441	52.911	-4.441	52.911	-1.963	-36.848
588.346	-2.091	-37.932	-4.226	51.82	-4.226	51.82	-2.091	-37.932
610.777	-2.22	-38.985	-4.025	50.759	-4.025	50.759	-2.22	-38.985
633.208	-2.35	-40.009	-3.837	49.727	-3.837	49.727	-2.35	-40.009
655.639	-2.481	-41.004	-3.66	48.725	-3.66	48.725	-2.481	-41.004
678.07	-2.613	-41.972	-3.494	47.75	-3.494	47.75	-2.613	-41.972
700.501	-2.745	-42.911	-3.339	46.803	-3.339	46.803	-2.745	-42.911
722.932	-2.878	-43.824	-3.192	45.882	-3.192	45.882	-2.878	-43.824
745.363	-3.012	-44.711	-3.054	44.988	-3.054	44.988	-3.012	-44.711
767.794	-3.146	-45.573	-2.924	44.119	-2.924	44.119	-3.146	-45.573
790.226	-3.28	-46.41	-2.802	43.274	-2.802	43.274	-3.28	-46.41
812.657	-3.414	-47.223	-2.686	42.453	-2.686	42.453	-3.414	-47.223
835.088	-3.548	-48.013	-2.577	41.655	-2.577	41.655	-3.548	-48.013
857.519	-3.682	-48.781	-2.473	40.88	-2.473	40.88	-3.682	-48.781
879.95	-3.816	-49.527	-2.375	40.126	-2.375	40.126	-3.816	-49.527
902.381	-3.949	-50.252	-2.283	39.393	-2.283	39.393	-3.949	-50.252
924.812	-4.082	-50.957	-2.195	38.681	-2.195	38.681	-4.082	-50.957
947.243	-4.215	-51.642	-2.112	37.988	-2.112	37.988	-4.215	-51.642
969.674	-4.348	-52.308	-2.033	37.315	-2.033	37.315	-4.348	-52.308
992.105	-4.48	-52.955	-1.958	36.659	-1.958	36.659	-4.48	-52.955
1014.536	-4.611	-53.585	-1.887	36.022	-1.887	36.022	-4.611	-53.585
1036.967	-4.742	-54.198	-1.819	35.401	-1.819	35.401	-4.742	-54.198
1059.398	-4.872	-54.794	-1.754	34.797	-1.754	34.797	-4.872	-54.794
1081.83	-5.002	-55.374	-1.693	34.21	-1.693	34.21	-5.002	-55.374
1104.261	-5.131	-55.938	-1.635	33.637	-1.635	33.637	-5.131	-55.938
1126.692	-5.259	-56.488	-1.579	33.08	-1.579	33.08	-5.259	-56.488
1149.123	-5.387	-57.023	-1.526	32.537	-1.526	32.537	-5.387	-57.023
1171.554	-5.514	-57.544	-1.475	32.008	-1.475	32.008	-5.514	-57.544
1193.985	-5.64	-58.051	-1.426	31.492	-1.426	31.492	-5.64	-58.051
1216.416	-5.766	-58.546	-1.38	30.99	-1.38	30.99	-5.766	-58.546
1238.847	-5.89	-59.028	-1.336	30.5	-1.336	30.5	-5.89	-59.028
1261.278	-6.015	-59.497	-1.294	30.022	-1.294	30.022	-6.015	-59.497
1283.709	-6.138	-59.955	-1.253	29.556	-1.253	29.556	-6.138	-59.955
1306.14	-6.261	-60.402	-1.214	29.101	-1.214	29.101	-6.261	-60.402
1328.571	-6.383	-60.838	-1.177	28.657	-1.177	28.657	-6.383	-60.838
1351.003	-6.504	-61.263	-1.141	28.224	-1.141	28.224	-6.504	-61.263
1373.434	-6.624	-61.677	-1.107	27.801	-1.107	27.801	-6.624	-61.677
1395.865	-6.744	-62.082	-1.074	27.388	-1.074	27.388	-6.744	-62.082
1418.296	-6.863	-62.477	-1.043	26.985	-1.043	26.985	-6.863	-62.477
1440.727	-6.982	-62.863	-1.013	26.59	-1.013	26.59	-6.982	-62.863
1463.158	-7.099	-63.24	-0.984	26.205	-0.984	26.205	-7.099	-63.24
1485.589	-7.216	-63.608	-0.956	25.829	-0.956	25.829	-7.216	-63.608
1508.02	-7.332	-63.967	-0.929	25.461	-0.929	25.461	-7.332	-63.967
1530.451	-7.448	-64.319	-0.903	25.101	-0.903	25.101	-7.448	-64.319
1552.882	-7.563	-64.662	-0.878	24.748	-0.878	24.748	-7.563	-64.662
1575.313	-7.677	-64.998	-0.854	24.404	-0.854	24.404	-7.677	-64.998
1597.744	-7.791	-65.327	-0.831	24.067	-0.831	24.067	-7.791	-65.327
1620.175	-7.903	-65.648	-0.809	23.737	-0.809	23.737	-7.903	-65.648
1642.607	-8.016	-65.963	-0.787	23.414	-0.787	23.414	-8.016	-65.963
1665.038	-8.127	-66.27	-0.767	23.097	-0.767	23.097	-8.127	-66.27
1687.469	-8.238	-66.571	-0.747	22.787	-0.747	22.787	-8.238	-66.571
1709.9	-8.349	-66.866	-0.728	22.484	-0.728	22.484	-8.349	-66.866
1732.331	-8.458	-67.154	-0.709	22.186	-0.709	22.186	-8.458	-67.154
1754.762	-8.567	-67.437	-0.691	21.895	-0.691	21.895	-8.567	-67.437
1777.193	-8.676	-67.714	-0.674	21.609	-0.674	21.609	-8.676	-67.714
1799.624	-8.784	-67.985	-0.657	21.329	-0.657	21.329	-8.784	-67.985
1822.055	-8.891	-68.25	-0.641	21.054	-0.641	21.054	-8.891	-68.25
1844.486	-8.998	-68.511	-0.625	20.785	-0.625	20.785	-8.998	-68.511
1866.917	-9.105	-68.766	-0.61	20.52	-0.61	20.52	-9.105	-68.766
1889.348	-9.21	-69.016	-0.595	20.261	-0.595	20.261	-9.21	-69.016
1911.779	-9.316	-69.261	-0.581	20.006	-0.581	20.006	-9.316	-69.261
1934.211	-9.42	-69.502	-0.567	19.756	-0.567	19.756	-9.42	-69.502
1956.642	-9.525	-69.738	-0.554	19.511	-0.554	19.511	-9.525	-69.738
1979.073	-9.628	-69.969	-0.541	19.27	-0.541	19.27	-9.628	-69.969
2001.504	-9.732	-70.196	-0.529	19.033	-0.529	19.033	-9.732	-70.196
2023.935	-9.834	-70.419	-0.517	18.801	-0.517	18.801	-9.834	-70.419
2046.366	-9.937	-70.638	-0.505	18.573	-0.505	18.573	-9.937	-70.638
2068.797	-10.039	-70.852	-0.493	18.348	-0.493	18.348	-10.039	-70.852
2091.228	-10.14	-71.063	-0.482	18.128	-0.482	18.128	-10.14	-71.063
2113.659	-10.241	-71.27	-0.472	17.911	-0.472	17.911	-10.241	-71.27
2136.09	-10.342	-71.473	-0.461	17.698	-0.461	17.698	-10.342	-71.473
2158.521	-10.442	-71.673	-0.451	17.488	-0.451	17.488	-10.442	-71.673
2180.952	-10.542	-71.869	-0.441	17.282	-0.441	17.282	-10.542	-71.869
2203.383	-10.641	-72.062	-0.432	17.079	-0.432	17.079	-10.641	-72.062
2225.815	-10.74	-72.251	-0.423	16.879	-0.423	16.879	-10.74	-72.251
2248.246	-10.839	-72.437	-0.414	16.683	-0.414	16.683	-10.839	-72.437
2270.677	-10.937	-72.62	-0.405	16.49	-0.405	16.49	-10.937	-72.62
2293.108	-11.035	-72.8	-0.396	16.3	-0.396	16.3	-11.035	-72.8
2315.539	-11.133	-72.977	-0.388	16.112	-0.388	16.112	-11.133	-72.977
2337.97	-11.23	-73.15	-0.38	15.928	-0.38	15.928	-11.23	-73.15
2360.401	-11.327	-73.321	-0.372	15.746	-0.372	15.746	-11.327	-73.321
2382.832	-11.424	-73.489	-0.365	15.568	-0.365	15.568	-11.424	-73.489
2405.263	-11.52	-73.655	-0.357	15.392	-0.357	15.392	-11.52	-73.655
2427.694	-11.616	-73.817	-0.35	15.218	-0.35	15.218	-11.616	-73.817
2450.125	-11.712	-73.977	-0.343	15.047	-0.343	15.047	-11.712	-73.977
2472.556	-11.808	-74.135	-0.336	14.879	-0.336	14.879	-11.808	-74.135
2494.987	-11.903	-74.29	-0.329	14.713	-0.329	14.713	-11.903	-74.29
2517.419	-11.998	-74.442	-0.323	14.549	-0.323	14.549	-11.998	-74.442
2539.85	-12.093	-74.592	-0.317	14.388	-0.317	14.388	-12.093	-74.592
2562.281	-12.187	-74.74	-0.31	14.228	-0.31	14.228	-12.187	-74.74
2584.712	-12.282	-74.885	-0.304	14.072	-0.304	14.072	-12.282	-74.885
2607.143	-12.376	-75.029	-0.298	13.917	-0.298	13.917	-12.376	-75.029
2629.574	-12.47	-75.169	-0.293	13.764	-0.293	13.764	-12.47	-75.169
2652.005	-12.563	-75.308	-0.287	13.614	-0.287	13.614	-12.563	-75.308
2674.436	-12.657	-75.445	-0.282	13.465	-0.282	13.465	-12.657	-75.445
2696.867	-12.75	-75.58	-0.276	13.318	-0.276	13.318	-12.75	-75.58
2719.298	-12.843	-75.712	-0.271	13.174	-0.271	13.174	-12.843	-75.712
2741.729	-12.936	-75.843	-0.266	13.031	-0.266	13.031	-12.936	-75.843
2764.16	-13.029	-75.972	-0.261	12.89	-0.261	12.89	-13.029	-75.972
2786.591	-13.122	-76.098	-0.256	12.751	-0.256	12.751	-13.122	-76.098
2809.023	-13.214	-76.223	-0.252	12.614	-0.252	12.614	-13.214	-76.223
2831.454	-13.307	-76.346	-0.247	12.478	-0.247	12.478	-13.307	-76.346
2853.885	-13.399	-76.467	-0.243	12.344	-0.243	12.344	-13.399	-76.467
2876.316	-13.491	-76.587	-0.238	12.212	-0.238	12.212	-13.491	-76.587
2898.747	-13.583	-76.705	-0.234	12.081	-0.234	12.081	-13.583	-76.705
2921.178	-13.675	-76.821	-0.23	11.952	-0.23	11.952	-13.675	-76.821
2943.609	-13.767	-76.935	-0.226	11.824	-0.226	11.824	-13.767	-76.935
2966.04	-13.859	-77.048	-0.222	11.698	-0.222	11.698	-13.859	-77.048
2988.471	-13.95	-77.159	-0.218	11.573	-0.218	11.573	-13.95	-77.159
3010.902	-14.042	-77.269	-0.214	11.45	-0.214	11.45	-14.042	-77.269
3033.333	-14.133	-77.377	-0.21	11.329	-0.21	11.329	-14.133	-77.377
3055.764	-14.225	-77.483	-0.207	11.208	-0.207	11.208	-14.225	-77.483
3078.195	-14.316	-77.588	-0.203	11.089	-0.203	11.089	-14.316	-77.588
3100.627	-14.408	-77.692	-0.2	10.972	-0.2	10.972	-14.408	-77.692
3123.058	-14.499	-77.794	-0.196	10.855	-0.196	10.855	-14.499	-77.794
3145.489	-14.59	-77.894	-0.193	10.74	-0.193	10.74	-14.59	-77.894
3167.92	-14.682	-77.993	-0.19	10.627	-0.19	10.627	-14.682	-77.993
3190.351	-14.773	-78.091	-0.186	10.514	-0.186	10.514	-14.773	-78.091
3212.782	-14.865	-78.188	-0.183	10.403	-0.183	10.403	-14.865	-78.188
3235.213	-14.956	-78.283	-0.18	10.293	-0.18	10.293	-14.956	-78.283
3257.644	-15.047	-78.377	-0.177	10.184	-0.177	10.184	-15.047	-78.377
3280.075	-15.139	-78.469	-0.174	10.076	-0.174	10.076	-15.139	-78.469
3302.506	-15.23	-78.56	-0.171	9.969	-0.171	9.969	-15.23	-78.56
3324.937	-15.322	-78.65	-0.169	9.864	-0.169	9.864	-15.322	-78.65
3347.368	-15.413	-78.739	-0.166	9.759	-0.166	9.759	-15.413	-78.739
3369.799	-15.505	-78.826	-0.163	9.656	-0.163	9.656	-15.505	-78.826
3392.231	-15.596	-78.912	-0.161	9.554	-0.161	9.554	-15.596	-78.912
3414.662	-15.688	-78.997	-0.158	9.452	-0.158	9.452	-15.688	-78.997
3437.093	-15.78	-79.081	-0.155	9.352	-0.155	9.352	-15.78	-79.081
3459.524	-15.872	-79.164	-0.153	9.252	-0.153	9.252	-15.872	-79.164
3481.955	-15.964	-79.245	-0.151	9.154	-0.151	9.154	-15.964	-79.245
3504.386	-16.056	-79.326	-0.148	9.057	-0.148	9.057	-16.056	-79.326
3526.817	-16.148	-79.405	-0.146	8.96	-0.146	8.96	-16.148	-79.405
3549.248	-16.24	-79.483	-0.144	8.865	-0.144	8.865	-16.24	-79.483
3571.679	-16.333	-79.56	-0.141	8.77	-0.141	8.77	-16.333	-79.56
3594.11	-16.426	-79.636	-0.139	8.676	-0.139	8.676	-16.426	-79.636
3616.541	-16.518	-79.71	-0.137	8.583	-0.137	8.583	-16.518	-79.71
3638.972	-16.611	-79.784	-0.135	8.491	-0.135	8.491	-16.611	-79.784
3661.404	-16.704	-79.857	-0.133	8.4	-0.133	8.4	-16.704	-79.857
3683.835	-16.798	-79.928	-0.131	8.309	-0.131	8.309	-16.798	-79.928
3706.266	-16.891	-79.999	-0.129	8.22	-0.129	8.22	-16.891	-79.999
3728.697	-16.985	-80.068	-0.127	8.131	-0.127	8.131	-16.985	-80.068
3751.128	-17.078	-80.136	-0.125	8.043	-0.125	8.043	-17.078	-80.136
3773.559	-17.173	-80.204	-0.123	7.955	-0.123	7.955	-17.173	-80.204
3795.99	-17.267	-80.27	-0.121	7.869	-0.121	7.869	-17.267	-80.27
3818.421	-17.361	-80.336	-0.119	7.783	-0.119	7.783	-17.361	-80.336
3840.852	-17.456	-80.4	-0.118	7.698	-0.118	7.698	-17.456	-80.4
3863.283	-17.551	-80.463	-0.116	7.614	-0.116	7.614	-17.551	-80.463
3885.714	-17.646	-80.526	-0.114	7.53	-0.114	7.53	-17.646	-80.526
3908.145	-17.742	-80.587	-0.113	7.447	-0.113	7.447	-17.742	-80.587
3930.576	-17.838	-80.647	-0.111	7.365	-0.111	7.365	-17.838	-80.647
3953.008	-17.934	-80.707	-0.109	7.284	-0.109	7.284	-17.934	-80.707
3975.439	-18.03	-80.765	-0.108	7.203	-0.108	7.203	-18.03	-80.765
3997.87	-18.127	-80.823	-0.106	7.122	-0.106	7.122	-18.127	-80.823
4020.301	-18.224	-80.879	-0.105	7.043	-0.105	7.043	-18.224	-80.879
4042.732	-18.321	-80.935	-0.103	6.964	-0.103	6.964	-18.321	-80.935
4065.163	-18.419	-80.989	-0.102	6.886	-0.102	6.886	-18.419	-80.989
4087.594	-18.517	-81.043	-0.1	6.808	-0.1	6.808	-18.517	-81.043
4110.025	-18.615	-81.095	-0.099	6.731	-0.099	6.731	-18.615	-81.095
4132.456	-18.714	-81.147	-0.098	6.654	-0.098	6.654	-18.714	-81.147
4154.887	-18.813	-81.198	-0.096	6.578	-0.096	6.578	-18.813	-81.198
4177.318	-18.912	-81.247	-0.095	6.503	-0.095	6.503	-18.912	-81.247
4199.749	-19.012	-81.296	-0.094	6.428	-0.094	6.428	-19.012	-81.296
4222.18	-19.113	-81.344	-0.092	6.354	-0.092	6.354	-19.113	-81.344
4244.612	-19.213	-81.391	-0.091	6.28	-0.091	6.28	-19.213	-81.391
4267.043	-19.315	-81.436	-0.09	6.207	-0.09	6.207	-19.315	-81.436
4289.474	-19.416	-81.481	-0.089	6.134	-0.089	6.134	-19.416	-81.481
4311.905	-19.518	-81.525	-0.088	6.062	-0.088	6.062	-19.518	-81.525
4334.336	-19.621	-81.568	-0.087	5.991	-0.087	5.991	-19.621	-81.568
4356.767	-19.724	-81.61	-0.085	5.92	-0.085	5.92	-19.724	-81.61
4379.198	-19.828	-81.651	-0.084	5.849	-0.084	5.849	-19.828	-81.651
4401.629	-19.932	-81.691	-0.083	5.779	-0.083	5.779	-19.932	-81.691
4424.06	-20.037	-81.73	-0.082	5.709	-0.082	5.709	-20.037	-81.73
4446.491	-20.142	-81.767	-0.081	5.64	-0.081	5.64	-20.142	-81.767
4468.922	-20.248	-81.804	-0.08	5.572	-0.08	5.572	-20.248	-81.804
4491.353	-20.354	-81.84	-0.079	5.503	-0.079	5.503	-20.354	-81.84
4513.784	-20.461	-81.875	-0.078	5.436	-0.078	5.436	-20.461	-81.875
4536.216	-20.568	-81.908	-0.077	5.368	-0.077	5.368	-20.568	-81.908
4558.647	-20.677	-81.941	-0.076	5.302	-0.076	5.302	-20.677	-81.941
4581.078	-20.785	-81.973	-0.075	5.235	-0.075	5.235	-20.785	-81.973
4603.509	-20.895	-82.003	-0.074	5.169	-0.074	5.169	-20.895	-82.003
4625.94	-21.005	-82.032	-0.073	5.104	-0.073	5.104	-21.005	-82.032
4648.371	-21.116	-82.061	-0.073	5.039	-0.073	5.039	-21.116	-82.061
4670.802	-21.228	-82.088	-0.072	4.974	-0.072	4.974	-21.228	-82.088
4693.233	-21.34	-82.114	-0.071	4.91	-0.071	4.91	-21.34	-82.114
4715.664	-21.453	-82.138	-0.07	4.846	-0.07	4.846	-21.453	-82.138
4738.095	-21.567	-82.162	-0.069	4.783	-0.069	4.783	-21.567	-82.162
4760.526	-21.682	-82.184	-0.068	4.719	-0.068	4.719	-21.682	-82.184
4782.957	-21.797	-82.206	-0.068	4.657	-0.068	4.657	-21.797	-82.206
4805.388	-21.914	-82.226	-0.067	4.595	-0.067	4.595	-21.914	-82.226
4827.82	-22.031	-82.244	-0.066	4.533	-0.066	4.533	-22.031	-82.244
4850.251	-22.149	-82.262	-0.065	4.471	-0.065	4.471	-22.149	-82.262
4872.682	-22.268	-82.278	-0.065	4.41	-0.065	4.41	-22.268	-82.278
4895.113	-22.388	-82.292	-0.064	4.349	-0.064	4.349	-22.388	-82.292
4917.544	-22.509	-82.306	-0.063	4.289	-0.063	4.289	-22.509	-82.306
4939.975	-22.631	-82.317	-0.063	4.229	-0.063	4.229	-22.631	-82.317
4962.406	-22.753	-82.328	-0.062	4.169	-0.062	4.169	-22.753	-82.328
4984.837	-22.877	-82.337	-0.061	4.109	-0.061	4.109	-22.877	-82.337
5007.268	-23.002	-82.344	-0.061	4.05	-0.061	4.05	-23.002	-82.344
5029.699	-23.129	-82.35	-0.06	3.992	-0.06	3.992	-23.129	-82.35
5052.13	-23.256	-82.355	-0.059	3.933	-0.059	3.933	-23.256	-82.355
5074.561	-23.384	-82.357	-0.059	3.875	-0.059	3.875	-23.384	-82.357
5096.992	-23.514	-82.358	-0.058	3.818	-0.058	3.818	-23.514	-82.358
5119.424	-23.645	-82.358	-0.058	3.76	-0.058	3.76	-23.645	-82.358
5141.855	-23.777	-82.355	-0.057	3.703	-0.057	3.703	-23.777	-82.355
5164.286	-23.91	-82.351	-0.056	3.646	-0.056	3.646	-23.91	-82.351
5186.717	-24.045	-82.344	-0.056	3.59	-0.056	3.59	-24.045	-82.344
5209.148	-24.181	-82.336	-0.055	3.534	-0.055	3.534	-24.181	-82.336
5231.579	-24.318	-82.326	-0.055	3.478	-0.055	3.478	-24.318	-82.326
5254.01	-24.457	-82.314	-0.054	3.422	-0.054	3.422	-24.457	-82.314
5276.441	-24.598	-82.3	-0.054	3.367	-0.054	3.367	-24.598	-82.3
5298.872	-24.74	-82.283	-0.053	3.312	-0.053	3.312	-24.74	-82.283
5321.303	-24.884	-82.264	-0.053	3.257	-0.053	3.257	-24.884	-82.264
5343.734	-25.029	-82.243	-0.052	3.203	-0.052	3.203	-25.029	-82.243
5366.165	-25.176	-82.219	-0.052	3.149	-0.052	3.149	-25.176	-82.219
5388.596	-25.325	-82.193	-0.051	3.095	-0.051	3.095	-25.325	-82.193
5411.028	-25.475	-82.164	-0.051	3.041	-0.051	3.041	-25.475	-82.164
5433.459	-25.628	-82.132	-0.051	2.988	-0.051	2.988	-25.628	-82.132
5455.89	-25.782	-82.097	-0.05	2.935	-0.05	2.935	-25.782	-82.097
5478.321	-25.938	-82.06	-0.05	2.882	-0.05	2.882	-25.938	-82.06
5500.752	-26.097	-82.019	-0.049	2.829	-0.049	2.829	-26.097	-82.019
5523.183	-26.257	-81.975	-0.049	2.777	-0.049	2.777	-26.257	-81.975
5545.614	-26.42	-81.927	-0.049	2.725	-0.049	2.725	-26.42	-81.927
5568.045	-26.585	-81.876	-0.048	2.673	-0.048	2.673	-26.585	-81.876
5590.476	-26.753	-81.821	-0.048	2.622	-0.048	2.622	-26.753	-81.821
5612.907	-26.923	-81.762	-0.048	2.57	-0.048	2.57	-26.923	-81.762
5635.338	-27.095	-81.699	-0.047	2.519	-0.047	2.519	-27.095	-81.699
5657.769	-27.27	-81.632	-0.047	2.469	-0.047	2.469	-27.27	-81.632
5680.201	-27.448	-81.56	-0.047	2.418	-0.047	2.418	-27.448	-81.56
5702.632	-27.628	-81.484	-0.046	2.368	-0.046	2.368	-27.628	-81.484
5725.063	-27.812	-81.402	-0.046	2.318	-0.046	2.318	-27.812	-81.402
5747.494	-27.999	-81.315	-0.046	2.268	-0.046	2.268	-27.999	-81.315
5769.925	-28.188	-81.222	-0.045	2.218	-0.045	2.218	-28.188	-81.222
5792.356	-28.382	-81.123	-0.045	2.169	-0.045	2.169	-28.382	-81.123
5814.787	-28.578	-81.018	-0.045	2.119	-0.045	2.119	-28.578	-81.018
5837.218	-28.778	-80.907	-0.044	2.07	-0.044	2.07	-28.778	-80.907
5859.649	-28.982	-80.788	-0.044	2.022	-0.044	2.022	-28.982	-80.788
5882.08	-29.19	-80.661	-0.044	1.973	-0.044	1.973	-29.19	-80.661
5904.511	-29.402	-80.527	-0.044	1.925	-0.044	1.925	-29.402	-80.527
5926.942	-29.618	-80.383	-0.043	1.876	-0.043	1.876	-29.618	-80.383
5949.373	-29.838	-80.231	-0.043	1.828	-0.043	1.828	-29.838	-80.231
5971.805	-30.064	-80.069	-0.043	1.781	-0.043	1.781	-30.064	-80.069
5994.236	-30.294	-79.896	-0.043	1.733	-0.043	1.733	-30.294	-79.896
6016.667	-30.529	-79.712	-0.043	1.686	-0.043	1.686	-30.529	-79.712
6039.098	-30.77	-79.515	-0.042	1.639	-0.042	1.639	-30.77	-79.515
6061.529	-31.016	-79.306	-0.042	1.592	-0.042	1.592	-31.016	-79.306
6083.96	-31.268	-79.082	-0.042	1.545	-0.042	1.545	-31.268	-79.082
6106.391	-31.527	-78.843	-0.042	1.498	-0.042	1.498	-31.527	-78.843
6128.822	-31.792	-78.587	-0.042	1.452	-0.042	1.452	-31.792	-78.587
6151.253	-32.064	-78.312	-0.041	1.406	-0.041	1.406	-32.064	-78.312
6173.684	-32.343	-78.019	-0.041	1.36	-0.041	1.36	-32.343	-78.019
6196.115	-32.631	-77.703	-0.041	1.314	-0.041	1.314	-32.631	-77.703
6218.546	-32.926	-77.363	-0.041	1.268	-0.041	1.268	-32.926	-77.363
6240.977	-33.23	-76.998	-0.041	1.223	-0.041	1.223	-33.23	-76.998
6263.409	-33.544	-76.604	-0.041	1.178	-0.041	1.178	-33.544	-76.604
6285.84	-33.867	-76.178	-0.04	1.133	-0.04	1.133	-33.867	-76.178
6308.271	-34.201	-75.716	-0.04	1.088	-0.04	1.088	-34.201	-75.716
6330.702	-34.547	-75.216	-0.04	1.043	-0.04	1.043	-34.547	-75.216
6353.133	-34.904	-74.671	-0.04	0.998	-0.04	0.998	-34.904	-74.671
6375.564	-35.274	-74.078	-0.04	0.954	-0.04	0.954	-35.274	-74.078
6397.995	-35.658	-73.428	-0.04	0.91	-0.04	0.91	-35.658	-73.428
6420.426	-36.057	-72.717	-0.04	0.865	-0.04	0.865	-36.057	-72.717
6442.857	-36.471	-71.933	-0.04	0.821	-0.04	0.821	-36.471	-71.933
6465.288	-36.903	-71.069	-0.04	0.778	-0.04	0.778	-36.903	-71.069
6487.719	-37.353	-70.111	-0.039	0.734	-0.039	0.734	-37.353	-70.111
6510.15	-37.822	-69.045	-0.039	0.691	-0.039	0.691	-37.822	-69.045
6532.581	-38.313	-67.853	-0.039	0.647	-0.039	0.647	-38.313	-67.853
6555.013	-38.827	-66.515	-0.039	0.604	-0.039	0.604	-38.827	-66.515
6577.444	-39.365	-65.004	-0.039	0.561	-0.039	0.561	-39.365	-65.004
6599.875	-39.928	-63.29	-0.039	0.518	-0.039	0.518	-39.928	-63.29
6622.306	-40.519	-61.332	-0.039	0.476	-0.039	0.476	-40.519	-61.332
6644.737	-41.137	-59.084	-0.039	0.433	-0.039	0.433	-41.137	-59.084
6667.168	-41.783	-56.485	-0.039	0.391	-0.039	0.391	-41.783	-56.485
6689.599	-42.455	-53.463	-0.039	0.349	-0.039	0.349	-42.455	-53.463
