! AVX Thin Film Operation		Date: April 2012 
! Description: Accu-P® Series, Thin Film, SMD, RF Capacitor
! Part Number: 12101J330FBTTR					
!	100	MHz	-	10.05	GHz			
!	Serial	Measurements						
!								
#	MHZ	S	MA	R	50			
!	S11	S21	S12	S22				
!	dB	Phase	dB	Phase	dB	Phase	dB	Phase
100	0.429	-64.49	0.903	25.414	0.903	25.414	0.429	-64.49
109.812	0.396	-66.558	0.917	23.336	0.917	23.336	0.396	-66.558
119.623	0.367	-68.343	0.929	21.541	0.929	21.541	0.367	-68.343
129.435	0.342	-69.896	0.939	19.978	0.939	19.978	0.342	-69.896
139.247	0.319	-71.258	0.947	18.605	0.947	18.605	0.319	-71.258
149.058	0.299	-72.463	0.954	17.39	0.954	17.39	0.299	-72.463
158.87	0.281	-73.536	0.959	16.308	0.959	16.308	0.281	-73.536
168.682	0.264	-74.496	0.964	15.337	0.964	15.337	0.264	-74.496
178.494	0.25	-75.361	0.968	14.461	0.968	14.461	0.25	-75.361
188.305	0.236	-76.145	0.971	13.667	0.971	13.667	0.236	-76.145
198.117	0.224	-76.858	0.974	12.943	0.974	12.943	0.224	-76.858
207.929	0.213	-77.509	0.976	12.28	0.976	12.28	0.213	-77.509
217.74	0.202	-78.107	0.979	11.671	0.979	11.671	0.202	-78.107
227.552	0.193	-78.658	0.98	11.109	0.98	11.109	0.193	-78.658
237.364	0.184	-79.166	0.982	10.589	0.982	10.589	0.184	-79.166
247.175	0.175	-79.638	0.984	10.105	0.984	10.105	0.175	-79.638
256.987	0.168	-80.077	0.985	9.654	0.985	9.654	0.168	-80.077
266.799	0.16	-80.486	0.986	9.232	0.986	9.232	0.16	-80.486
276.611	0.154	-80.868	0.987	8.837	0.987	8.837	0.154	-80.868
286.422	0.147	-81.226	0.988	8.466	0.988	8.466	0.147	-81.226
296.234	0.141	-81.563	0.989	8.116	0.989	8.116	0.141	-81.563
306.046	0.135	-81.879	0.99	7.785	0.99	7.785	0.135	-81.879
315.857	0.13	-82.178	0.991	7.473	0.991	7.473	0.13	-82.178
325.669	0.125	-82.46	0.991	7.176	0.991	7.176	0.125	-82.46
335.481	0.12	-82.727	0.992	6.894	0.992	6.894	0.12	-82.727
345.292	0.115	-82.979	0.993	6.626	0.993	6.626	0.115	-82.979
355.104	0.111	-83.219	0.993	6.371	0.993	6.371	0.111	-83.219
364.916	0.107	-83.447	0.993	6.126	0.993	6.126	0.107	-83.447
374.727	0.103	-83.663	0.994	5.893	0.994	5.893	0.103	-83.663
384.539	0.099	-83.87	0.994	5.669	0.994	5.669	0.099	-83.87
394.351	0.095	-84.066	0.995	5.454	0.995	5.454	0.095	-84.066
404.163	0.091	-84.253	0.995	5.248	0.995	5.248	0.091	-84.253
413.974	0.088	-84.432	0.995	5.05	0.995	5.05	0.088	-84.432
423.786	0.085	-84.603	0.996	4.858	0.996	4.858	0.085	-84.603
433.598	0.081	-84.766	0.996	4.674	0.996	4.674	0.081	-84.766
443.409	0.078	-84.921	0.996	4.496	0.996	4.496	0.078	-84.921
453.221	0.075	-85.07	0.996	4.324	0.996	4.324	0.075	-85.07
463.033	0.073	-85.212	0.997	4.158	0.997	4.158	0.073	-85.212
472.844	0.07	-85.347	0.997	3.997	0.997	3.997	0.07	-85.347
482.656	0.067	-85.477	0.997	3.841	0.997	3.841	0.067	-85.477
492.468	0.064	-85.6	0.997	3.69	0.997	3.69	0.064	-85.6
502.279	0.062	-85.717	0.997	3.543	0.997	3.543	0.062	-85.717
512.091	0.059	-85.829	0.997	3.4	0.997	3.4	0.059	-85.829
521.903	0.057	-85.935	0.998	3.261	0.998	3.261	0.057	-85.935
531.715	0.055	-86.036	0.998	3.126	0.998	3.126	0.055	-86.036
541.526	0.052	-86.13	0.998	2.994	0.998	2.994	0.052	-86.13
551.338	0.05	-86.22	0.998	2.865	0.998	2.865	0.05	-86.22
561.15	0.048	-86.303	0.998	2.74	0.998	2.74	0.048	-86.303
570.961	0.046	-86.381	0.998	2.618	0.998	2.618	0.046	-86.381
580.773	0.044	-86.452	0.998	2.498	0.998	2.498	0.044	-86.452
590.585	0.042	-86.517	0.998	2.381	0.998	2.381	0.042	-86.517
600.396	0.04	-86.576	0.998	2.267	0.998	2.267	0.04	-86.576
610.208	0.038	-86.628	0.998	2.155	0.998	2.155	0.038	-86.628
620.02	0.036	-86.672	0.999	2.045	0.999	2.045	0.036	-86.672
629.832	0.034	-86.709	0.999	1.938	0.999	1.938	0.034	-86.709
639.643	0.032	-86.736	0.999	1.833	0.999	1.833	0.032	-86.736
649.455	0.03	-86.754	0.999	1.73	0.999	1.73	0.03	-86.754
659.267	0.028	-86.761	0.999	1.628	0.999	1.628	0.028	-86.761
669.078	0.027	-86.755	0.999	1.529	0.999	1.529	0.027	-86.755
678.89	0.025	-86.736	0.999	1.431	0.999	1.431	0.025	-86.736
688.702	0.023	-86.7	0.999	1.335	0.999	1.335	0.023	-86.7
698.513	0.022	-86.645	0.999	1.241	0.999	1.241	0.022	-86.645
708.325	0.02	-86.567	0.999	1.148	0.999	1.148	0.02	-86.567
718.137	0.018	-86.462	0.999	1.057	0.999	1.057	0.018	-86.462
727.948	0.017	-86.321	0.999	0.967	0.999	0.967	0.017	-86.321
737.76	0.015	-86.137	0.999	0.878	0.999	0.878	0.015	-86.137
747.572	0.014	-85.896	0.999	0.791	0.999	0.791	0.014	-85.896
757.384	0.012	-85.579	0.999	0.705	0.999	0.705	0.012	-85.579
767.195	0.011	-85.158	0.999	0.621	0.999	0.621	0.011	-85.158
777.007	9.41E-03	-84.588	0.999	0.537	0.999	0.537	9.41E-03	-84.588
786.819	7.98E-03	-83.792	0.999	0.455	0.999	0.455	7.98E-03	-83.792
796.63	6.57E-03	-82.632	0.999	0.373	0.999	0.373	6.57E-03	-82.632
806.442	5.18E-03	-80.824	0.999	0.293	0.999	0.293	5.18E-03	-80.824
816.254	3.82E-03	-77.696	0.999	0.214	0.999	0.214	3.82E-03	-77.696
826.065	2.50E-03	-71.196	0.999	0.136	0.999	0.136	2.50E-03	-71.196
835.877	1.29E-03	-51.763	0.999	0.058	0.999	0.058	1.29E-03	-51.763
845.689	8.60E-04	21.608	0.999	-0.018	0.999	-0.018	8.60E-04	21.608
855.5	1.82E-03	63.853	0.999	-0.094	0.999	-0.094	1.82E-03	63.853
865.312	3.05E-03	74.613	0.999	-0.168	0.999	-0.168	3.05E-03	74.613
875.124	4.30E-03	79.05	0.999	-0.242	0.999	-0.242	4.30E-03	79.05
884.936	5.56E-03	81.419	0.999	-0.315	0.999	-0.315	5.56E-03	81.419
894.747	6.81E-03	82.873	0.999	-0.388	0.999	-0.388	6.81E-03	82.873
904.559	8.05E-03	83.844	0.999	-0.459	0.999	-0.459	8.05E-03	83.844
914.371	9.29E-03	84.531	0.999	-0.53	0.999	-0.53	9.29E-03	84.531
924.182	0.011	85.035	0.999	-0.6	0.999	-0.6	0.011	85.035
933.994	0.012	85.417	0.999	-0.67	0.999	-0.67	0.012	85.417
943.806	0.013	85.712	0.999	-0.738	0.999	-0.738	0.013	85.712
953.617	0.014	85.943	0.999	-0.807	0.999	-0.807	0.014	85.943
963.429	0.015	86.127	0.999	-0.874	0.999	-0.874	0.015	86.127
973.241	0.016	86.273	0.999	-0.941	0.999	-0.941	0.016	86.273
983.053	0.018	86.39	0.999	-1.008	0.999	-1.008	0.018	86.39
992.864	0.019	86.483	0.999	-1.073	0.999	-1.073	0.019	86.483
1002.676	0.02	86.558	0.999	-1.139	0.999	-1.139	0.02	86.558
1012.488	0.021	86.617	0.999	-1.203	0.999	-1.203	0.021	86.617
1022.299	0.022	86.663	0.999	-1.268	0.999	-1.268	0.022	86.663
1032.111	0.023	86.698	0.999	-1.331	0.999	-1.331	0.023	86.698
1041.923	0.024	86.725	0.999	-1.395	0.999	-1.395	0.024	86.725
1051.734	0.025	86.743	0.999	-1.457	0.999	-1.457	0.025	86.743
1061.546	0.027	86.754	0.999	-1.52	0.999	-1.52	0.027	86.754
1071.358	0.028	86.76	0.999	-1.582	0.999	-1.582	0.028	86.76
1081.169	0.029	86.76	0.999	-1.643	0.999	-1.643	0.029	86.76
1090.981	0.03	86.757	0.999	-1.704	0.999	-1.704	0.03	86.757
1100.793	0.031	86.749	0.999	-1.765	0.999	-1.765	0.031	86.749
1110.605	0.032	86.738	0.999	-1.825	0.999	-1.825	0.032	86.738
1120.416	0.033	86.724	0.999	-1.885	0.999	-1.885	0.033	86.724
1130.228	0.034	86.707	0.999	-1.944	0.999	-1.944	0.034	86.707
1140.04	0.035	86.687	0.999	-2.003	0.999	-2.003	0.035	86.687
1149.851	0.036	86.666	0.999	-2.062	0.999	-2.062	0.036	86.666
1159.663	0.037	86.643	0.999	-2.12	0.999	-2.12	0.037	86.643
1169.475	0.038	86.618	0.998	-2.178	0.998	-2.178	0.038	86.618
1179.286	0.039	86.591	0.998	-2.236	0.998	-2.236	0.039	86.591
1189.098	0.04	86.563	0.998	-2.293	0.998	-2.293	0.04	86.563
1198.91	0.041	86.534	0.998	-2.35	0.998	-2.35	0.041	86.534
1208.722	0.042	86.504	0.998	-2.407	0.998	-2.407	0.042	86.504
1218.533	0.043	86.472	0.998	-2.463	0.998	-2.463	0.043	86.472
1228.345	0.044	86.44	0.998	-2.519	0.998	-2.519	0.044	86.44
1238.157	0.045	86.407	0.998	-2.575	0.998	-2.575	0.045	86.407
1247.968	0.046	86.373	0.998	-2.63	0.998	-2.63	0.046	86.373
1257.78	0.047	86.338	0.998	-2.686	0.998	-2.686	0.047	86.338
1267.592	0.048	86.303	0.998	-2.741	0.998	-2.741	0.048	86.303
1277.403	0.049	86.267	0.998	-2.795	0.998	-2.795	0.049	86.267
1287.215	0.05	86.23	0.998	-2.85	0.998	-2.85	0.05	86.23
1297.027	0.051	86.193	0.998	-2.904	0.998	-2.904	0.051	86.193
1306.838	0.052	86.156	0.998	-2.958	0.998	-2.958	0.052	86.156
1316.65	0.053	86.118	0.998	-3.012	0.998	-3.012	0.053	86.118
1326.462	0.053	86.08	0.998	-3.065	0.998	-3.065	0.053	86.08
1336.274	0.054	86.041	0.998	-3.118	0.998	-3.118	0.054	86.041
1346.085	0.055	86.002	0.998	-3.171	0.998	-3.171	0.055	86.002
1355.897	0.056	85.963	0.998	-3.224	0.998	-3.224	0.056	85.963
1365.709	0.057	85.923	0.998	-3.277	0.998	-3.277	0.057	85.923
1375.52	0.058	85.884	0.998	-3.329	0.998	-3.329	0.058	85.884
1385.332	0.059	85.844	0.997	-3.381	0.997	-3.381	0.059	85.844
1395.144	0.06	85.804	0.997	-3.433	0.997	-3.433	0.06	85.804
1404.955	0.061	85.763	0.997	-3.485	0.997	-3.485	0.061	85.763
1414.767	0.062	85.723	0.997	-3.536	0.997	-3.536	0.062	85.723
1424.579	0.063	85.682	0.997	-3.588	0.997	-3.588	0.063	85.682
1434.39	0.063	85.641	0.997	-3.639	0.997	-3.639	0.063	85.641
1444.202	0.064	85.6	0.997	-3.69	0.997	-3.69	0.064	85.6
1454.014	0.065	85.559	0.997	-3.74	0.997	-3.74	0.065	85.559
1463.826	0.066	85.518	0.997	-3.791	0.997	-3.791	0.066	85.518
1473.637	0.067	85.476	0.997	-3.841	0.997	-3.841	0.067	85.476
1483.449	0.068	85.435	0.997	-3.892	0.997	-3.892	0.068	85.435
1493.261	0.069	85.393	0.997	-3.942	0.997	-3.942	0.069	85.393
1503.072	0.07	85.352	0.997	-3.992	0.997	-3.992	0.07	85.352
1512.884	0.07	85.31	0.997	-4.041	0.997	-4.041	0.07	85.31
1522.696	0.071	85.269	0.997	-4.091	0.997	-4.091	0.071	85.269
1532.507	0.072	85.227	0.997	-4.14	0.997	-4.14	0.072	85.227
1542.319	0.073	85.185	0.997	-4.19	0.997	-4.19	0.073	85.185
1552.131	0.074	85.143	0.996	-4.239	0.996	-4.239	0.074	85.143
1561.943	0.075	85.101	0.996	-4.288	0.996	-4.288	0.075	85.101
1571.754	0.076	85.059	0.996	-4.337	0.996	-4.337	0.076	85.059
1581.566	0.076	85.017	0.996	-4.385	0.996	-4.385	0.076	85.017
1591.378	0.077	84.975	0.996	-4.434	0.996	-4.434	0.077	84.975
1601.189	0.078	84.933	0.996	-4.482	0.996	-4.482	0.078	84.933
1611.001	0.079	84.891	0.996	-4.531	0.996	-4.531	0.079	84.891
1620.813	0.08	84.849	0.996	-4.579	0.996	-4.579	0.08	84.849
1630.624	0.081	84.807	0.996	-4.627	0.996	-4.627	0.081	84.807
1640.436	0.082	84.765	0.996	-4.675	0.996	-4.675	0.082	84.765
1650.248	0.082	84.723	0.996	-4.723	0.996	-4.723	0.082	84.723
1660.059	0.083	84.681	0.996	-4.77	0.996	-4.77	0.083	84.681
1669.871	0.084	84.639	0.996	-4.818	0.996	-4.818	0.084	84.639
1679.683	0.085	84.597	0.996	-4.865	0.996	-4.865	0.085	84.597
1689.495	0.086	84.555	0.996	-4.912	0.996	-4.912	0.086	84.555
1699.306	0.086	84.512	0.995	-4.96	0.995	-4.96	0.086	84.512
1709.118	0.087	84.47	0.995	-5.007	0.995	-5.007	0.087	84.47
1718.93	0.088	84.428	0.995	-5.054	0.995	-5.054	0.088	84.428
1728.741	0.089	84.386	0.995	-5.1	0.995	-5.1	0.089	84.386
1738.553	0.09	84.344	0.995	-5.147	0.995	-5.147	0.09	84.344
1748.365	0.091	84.302	0.995	-5.194	0.995	-5.194	0.091	84.302
1758.176	0.091	84.26	0.995	-5.24	0.995	-5.24	0.091	84.26
1767.988	0.092	84.218	0.995	-5.287	0.995	-5.287	0.092	84.218
1777.8	0.093	84.176	0.995	-5.333	0.995	-5.333	0.093	84.176
1787.611	0.094	84.134	0.995	-5.379	0.995	-5.379	0.094	84.134
1797.423	0.095	84.092	0.995	-5.425	0.995	-5.425	0.095	84.092
1807.235	0.095	84.05	0.995	-5.471	0.995	-5.471	0.095	84.05
1817.047	0.096	84.008	0.995	-5.517	0.995	-5.517	0.096	84.008
1826.858	0.097	83.967	0.994	-5.563	0.994	-5.563	0.097	83.967
1836.67	0.098	83.925	0.994	-5.609	0.994	-5.609	0.098	83.925
1846.482	0.099	83.883	0.994	-5.655	0.994	-5.655	0.099	83.883
1856.293	0.099	83.841	0.994	-5.7	0.994	-5.7	0.099	83.841
1866.105	0.1	83.799	0.994	-5.746	0.994	-5.746	0.1	83.799
1875.917	0.101	83.757	0.994	-5.791	0.994	-5.791	0.101	83.757
1885.728	0.102	83.716	0.994	-5.836	0.994	-5.836	0.102	83.716
1895.54	0.102	83.674	0.994	-5.881	0.994	-5.881	0.102	83.674
1905.352	0.103	83.632	0.994	-5.926	0.994	-5.926	0.103	83.632
1915.164	0.104	83.591	0.994	-5.971	0.994	-5.971	0.104	83.591
1924.975	0.105	83.549	0.994	-6.016	0.994	-6.016	0.105	83.549
1934.787	0.106	83.507	0.994	-6.061	0.994	-6.061	0.106	83.507
1944.599	0.106	83.466	0.994	-6.106	0.994	-6.106	0.106	83.466
1954.41	0.107	83.424	0.993	-6.151	0.993	-6.151	0.107	83.424
1964.222	0.108	83.383	0.993	-6.195	0.993	-6.195	0.108	83.383
1974.034	0.109	83.341	0.993	-6.24	0.993	-6.24	0.109	83.341
1983.845	0.109	83.3	0.993	-6.284	0.993	-6.284	0.109	83.3
1993.657	0.11	83.258	0.993	-6.329	0.993	-6.329	0.11	83.258
2003.469	0.111	83.217	0.993	-6.373	0.993	-6.373	0.111	83.217
2013.28	0.112	83.175	0.993	-6.417	0.993	-6.417	0.112	83.175
2023.092	0.113	83.134	0.993	-6.462	0.993	-6.462	0.113	83.134
2032.904	0.113	83.093	0.993	-6.506	0.993	-6.506	0.113	83.093
2042.716	0.114	83.051	0.993	-6.55	0.993	-6.55	0.114	83.051
2052.527	0.115	83.01	0.993	-6.594	0.993	-6.594	0.115	83.01
2062.339	0.116	82.969	0.993	-6.638	0.993	-6.638	0.116	82.969
2072.151	0.116	82.928	0.992	-6.681	0.992	-6.681	0.116	82.928
2081.962	0.117	82.886	0.992	-6.725	0.992	-6.725	0.117	82.886
2091.774	0.118	82.845	0.992	-6.769	0.992	-6.769	0.118	82.845
2101.586	0.119	82.804	0.992	-6.813	0.992	-6.813	0.119	82.804
2111.397	0.119	82.763	0.992	-6.856	0.992	-6.856	0.119	82.763
2121.209	0.12	82.722	0.992	-6.9	0.992	-6.9	0.12	82.722
2131.021	0.121	82.681	0.992	-6.943	0.992	-6.943	0.121	82.681
2140.833	0.122	82.64	0.992	-6.986	0.992	-6.986	0.122	82.64
2150.644	0.122	82.599	0.992	-7.03	0.992	-7.03	0.122	82.599
2160.456	0.123	82.558	0.992	-7.073	0.992	-7.073	0.123	82.558
2170.268	0.124	82.517	0.992	-7.116	0.992	-7.116	0.124	82.517
2180.079	0.125	82.476	0.991	-7.159	0.991	-7.159	0.125	82.476
2189.891	0.125	82.435	0.991	-7.202	0.991	-7.202	0.125	82.435
2199.703	0.126	82.394	0.991	-7.245	0.991	-7.245	0.126	82.394
2209.514	0.127	82.353	0.991	-7.288	0.991	-7.288	0.127	82.353
2219.326	0.128	82.313	0.991	-7.331	0.991	-7.331	0.128	82.313
2229.138	0.128	82.272	0.991	-7.374	0.991	-7.374	0.128	82.272
2238.949	0.129	82.231	0.991	-7.417	0.991	-7.417	0.129	82.231
2248.761	0.13	82.19	0.991	-7.46	0.991	-7.46	0.13	82.19
2258.573	0.131	82.15	0.991	-7.502	0.991	-7.502	0.131	82.15
2268.385	0.131	82.109	0.991	-7.545	0.991	-7.545	0.131	82.109
2278.196	0.132	82.069	0.99	-7.588	0.99	-7.588	0.132	82.069
2288.008	0.133	82.028	0.99	-7.63	0.99	-7.63	0.133	82.028
2297.82	0.134	81.987	0.99	-7.673	0.99	-7.673	0.134	81.987
2307.631	0.134	81.947	0.99	-7.715	0.99	-7.715	0.134	81.947
2317.443	0.135	81.906	0.99	-7.757	0.99	-7.757	0.135	81.906
2327.255	0.136	81.866	0.99	-7.8	0.99	-7.8	0.136	81.866
2337.066	0.136	81.825	0.99	-7.842	0.99	-7.842	0.136	81.825
2346.878	0.137	81.785	0.99	-7.884	0.99	-7.884	0.137	81.785
2356.69	0.138	81.745	0.99	-7.926	0.99	-7.926	0.138	81.745
2366.501	0.139	81.704	0.99	-7.969	0.99	-7.969	0.139	81.704
2376.313	0.139	81.664	0.989	-8.011	0.989	-8.011	0.139	81.664
2386.125	0.14	81.624	0.989	-8.053	0.989	-8.053	0.14	81.624
2395.937	0.141	81.583	0.989	-8.095	0.989	-8.095	0.141	81.583
2405.748	0.142	81.543	0.989	-8.137	0.989	-8.137	0.142	81.543
2415.56	0.142	81.503	0.989	-8.178	0.989	-8.178	0.142	81.503
2425.372	0.143	81.463	0.989	-8.22	0.989	-8.22	0.143	81.463
2435.183	0.144	81.422	0.989	-8.262	0.989	-8.262	0.144	81.422
2444.995	0.144	81.382	0.989	-8.304	0.989	-8.304	0.144	81.382
2454.807	0.145	81.342	0.989	-8.346	0.989	-8.346	0.145	81.342
2464.618	0.146	81.302	0.989	-8.387	0.989	-8.387	0.146	81.302
2474.43	0.147	81.262	0.988	-8.429	0.988	-8.429	0.147	81.262
2484.242	0.147	81.222	0.988	-8.47	0.988	-8.47	0.147	81.222
2494.054	0.148	81.182	0.988	-8.512	0.988	-8.512	0.148	81.182
2503.865	0.149	81.142	0.988	-8.553	0.988	-8.553	0.149	81.142
2513.677	0.149	81.102	0.988	-8.595	0.988	-8.595	0.149	81.102
2523.489	0.15	81.062	0.988	-8.636	0.988	-8.636	0.15	81.062
2533.3	0.151	81.022	0.988	-8.678	0.988	-8.678	0.151	81.022
2543.112	0.152	80.982	0.988	-8.719	0.988	-8.719	0.152	80.982
2552.924	0.152	80.942	0.988	-8.76	0.988	-8.76	0.152	80.942
2562.735	0.153	80.903	0.987	-8.802	0.987	-8.802	0.153	80.903
2572.547	0.154	80.863	0.987	-8.843	0.987	-8.843	0.154	80.863
2582.359	0.154	80.823	0.987	-8.884	0.987	-8.884	0.154	80.823
2592.17	0.155	80.783	0.987	-8.925	0.987	-8.925	0.155	80.783
2601.982	0.156	80.744	0.987	-8.966	0.987	-8.966	0.156	80.744
2611.794	0.157	80.704	0.987	-9.007	0.987	-9.007	0.157	80.704
2621.606	0.157	80.664	0.987	-9.048	0.987	-9.048	0.157	80.664
2631.417	0.158	80.624	0.987	-9.089	0.987	-9.089	0.158	80.624
2641.229	0.159	80.585	0.987	-9.13	0.987	-9.13	0.159	80.585
2651.041	0.159	80.545	0.986	-9.171	0.986	-9.171	0.159	80.545
2660.852	0.16	80.506	0.986	-9.212	0.986	-9.212	0.16	80.506
2670.664	0.161	80.466	0.986	-9.253	0.986	-9.253	0.161	80.466
2680.476	0.161	80.427	0.986	-9.293	0.986	-9.293	0.161	80.427
2690.287	0.162	80.387	0.986	-9.334	0.986	-9.334	0.162	80.387
2700.099	0.163	80.348	0.986	-9.375	0.986	-9.375	0.163	80.348
2709.911	0.164	80.308	0.986	-9.416	0.986	-9.416	0.164	80.308
2719.722	0.164	80.269	0.986	-9.456	0.986	-9.456	0.164	80.269
2729.534	0.165	80.229	0.986	-9.497	0.986	-9.497	0.165	80.229
2739.346	0.166	80.19	0.985	-9.537	0.985	-9.537	0.166	80.19
2749.158	0.166	80.151	0.985	-9.578	0.985	-9.578	0.166	80.151
2758.969	0.167	80.111	0.985	-9.618	0.985	-9.618	0.167	80.111
2768.781	0.168	80.072	0.985	-9.659	0.985	-9.659	0.168	80.072
2778.593	0.168	80.033	0.985	-9.699	0.985	-9.699	0.168	80.033
2788.404	0.169	79.993	0.985	-9.74	0.985	-9.74	0.169	79.993
2798.216	0.17	79.954	0.985	-9.78	0.985	-9.78	0.17	79.954
2808.028	0.171	79.915	0.985	-9.821	0.985	-9.821	0.171	79.915
2817.839	0.171	79.876	0.984	-9.861	0.984	-9.861	0.171	79.876
2827.651	0.172	79.836	0.984	-9.901	0.984	-9.901	0.172	79.836
2837.463	0.173	79.797	0.984	-9.941	0.984	-9.941	0.173	79.797
2847.275	0.173	79.758	0.984	-9.982	0.984	-9.982	0.173	79.758
2857.086	0.174	79.719	0.984	-10.022	0.984	-10.022	0.174	79.719
2866.898	0.175	79.68	0.984	-10.062	0.984	-10.062	0.175	79.68
2876.71	0.175	79.641	0.984	-10.102	0.984	-10.102	0.175	79.641
2886.521	0.176	79.602	0.984	-10.142	0.984	-10.142	0.176	79.602
2896.333	0.177	79.563	0.983	-10.182	0.983	-10.182	0.177	79.563
2906.145	0.177	79.524	0.983	-10.222	0.983	-10.222	0.177	79.524
2915.956	0.178	79.485	0.983	-10.262	0.983	-10.262	0.178	79.485
2925.768	0.179	79.446	0.983	-10.302	0.983	-10.302	0.179	79.446
2935.58	0.18	79.407	0.983	-10.342	0.983	-10.342	0.18	79.407
2945.391	0.18	79.368	0.983	-10.382	0.983	-10.382	0.18	79.368
2955.203	0.181	79.329	0.983	-10.422	0.983	-10.422	0.181	79.329
2965.015	0.182	79.29	0.983	-10.461	0.983	-10.461	0.182	79.29
2974.827	0.182	79.252	0.982	-10.501	0.982	-10.501	0.182	79.252
2984.638	0.183	79.213	0.982	-10.541	0.982	-10.541	0.183	79.213
2994.45	0.184	79.174	0.982	-10.581	0.982	-10.581	0.184	79.174
3004.262	0.184	79.135	0.982	-10.621	0.982	-10.621	0.184	79.135
3014.073	0.185	79.096	0.982	-10.66	0.982	-10.66	0.185	79.096
3023.885	0.186	79.058	0.982	-10.7	0.982	-10.7	0.186	79.058
3033.697	0.186	79.019	0.982	-10.739	0.982	-10.739	0.186	79.019
3043.508	0.187	78.98	0.982	-10.779	0.982	-10.779	0.187	78.98
3053.32	0.188	78.942	0.981	-10.819	0.981	-10.819	0.188	78.942
3063.132	0.188	78.903	0.981	-10.858	0.981	-10.858	0.188	78.903
3072.944	0.189	78.864	0.981	-10.898	0.981	-10.898	0.189	78.864
3082.755	0.19	78.826	0.981	-10.937	0.981	-10.937	0.19	78.826
3092.567	0.19	78.787	0.981	-10.977	0.981	-10.977	0.19	78.787
3102.379	0.191	78.749	0.981	-11.016	0.981	-11.016	0.191	78.749
3112.19	0.192	78.71	0.981	-11.055	0.981	-11.055	0.192	78.71
3122.002	0.192	78.672	0.981	-11.095	0.981	-11.095	0.192	78.672
3131.814	0.193	78.633	0.98	-11.134	0.98	-11.134	0.193	78.633
3141.625	0.194	78.595	0.98	-11.173	0.98	-11.173	0.194	78.595
3151.437	0.194	78.556	0.98	-11.213	0.98	-11.213	0.194	78.556
3161.249	0.195	78.518	0.98	-11.252	0.98	-11.252	0.195	78.518
3171.06	0.196	78.479	0.98	-11.291	0.98	-11.291	0.196	78.479
3180.872	0.196	78.441	0.98	-11.33	0.98	-11.33	0.196	78.441
3190.684	0.197	78.403	0.98	-11.37	0.98	-11.37	0.197	78.403
3200.496	0.198	78.364	0.979	-11.409	0.979	-11.409	0.198	78.364
3210.307	0.198	78.326	0.979	-11.448	0.979	-11.448	0.198	78.326
3220.119	0.199	78.288	0.979	-11.487	0.979	-11.487	0.199	78.288
3229.931	0.2	78.249	0.979	-11.526	0.979	-11.526	0.2	78.249
3239.742	0.2	78.211	0.979	-11.565	0.979	-11.565	0.2	78.211
3249.554	0.201	78.173	0.979	-11.604	0.979	-11.604	0.201	78.173
3259.366	0.202	78.134	0.979	-11.643	0.979	-11.643	0.202	78.134
3269.177	0.202	78.096	0.979	-11.682	0.979	-11.682	0.202	78.096
3278.989	0.203	78.058	0.978	-11.721	0.978	-11.721	0.203	78.058
3288.801	0.204	78.02	0.978	-11.76	0.978	-11.76	0.204	78.02
