! AVX Thin Film Operation		Date: April 2012 
! Description: Accu-P® Series, Thin Film, SMD, RF Capacitor
! Part Number: 12101J130FBTTR					
!	100	MHz	-	10.05	GHz			
!	Serial	Measurements						
!								
#	MHZ	S	MA	R	50			
!	S11	S21	S12	S22				
!	dB	Phase	dB	Phase	dB	Phase	dB	Phase
100	0.772	-39.389	0.635	50.568	0.635	50.568	0.772	-39.389
109.812	0.742	-42.07	0.67	47.883	0.67	47.883	0.742	-42.07
119.623	0.712	-44.551	0.702	45.398	0.702	45.398	0.712	-44.551
129.435	0.683	-46.844	0.73	43.1	0.73	43.1	0.683	-46.844
139.247	0.656	-48.966	0.754	40.975	0.754	40.975	0.656	-48.966
149.058	0.629	-50.929	0.776	39.007	0.776	39.007	0.629	-50.929
158.87	0.604	-52.748	0.796	37.184	0.796	37.184	0.604	-52.748
168.682	0.581	-54.434	0.813	35.494	0.813	35.494	0.581	-54.434
178.494	0.558	-56	0.829	33.924	0.829	33.924	0.558	-56
188.305	0.537	-57.456	0.843	32.463	0.843	32.463	0.537	-57.456
198.117	0.517	-58.812	0.855	31.103	0.855	31.103	0.517	-58.812
207.929	0.497	-60.077	0.867	29.833	0.867	29.833	0.497	-60.077
217.74	0.479	-61.259	0.877	28.646	0.877	28.646	0.479	-61.259
227.552	0.462	-62.366	0.886	27.535	0.886	27.535	0.462	-62.366
237.364	0.446	-63.404	0.894	26.493	0.894	26.493	0.446	-63.404
247.175	0.431	-64.378	0.902	25.514	0.902	25.514	0.431	-64.378
256.987	0.416	-65.295	0.908	24.593	0.908	24.593	0.416	-65.295
266.799	0.402	-66.158	0.915	23.725	0.915	23.725	0.402	-66.158
276.611	0.389	-66.973	0.92	22.905	0.92	22.905	0.389	-66.973
286.422	0.377	-67.743	0.925	22.13	0.925	22.13	0.377	-67.743
296.234	0.365	-68.472	0.93	21.397	0.93	21.397	0.365	-68.472
306.046	0.353	-69.162	0.935	20.701	0.935	20.701	0.353	-69.162
315.857	0.343	-69.818	0.939	20.041	0.939	20.041	0.343	-69.818
325.669	0.332	-70.44	0.942	19.413	0.942	19.413	0.332	-70.44
335.481	0.323	-71.033	0.946	18.816	0.946	18.816	0.323	-71.033
345.292	0.313	-71.597	0.949	18.246	0.949	18.246	0.313	-71.597
355.104	0.304	-72.136	0.952	17.703	0.952	17.703	0.304	-72.136
364.916	0.295	-72.65	0.955	17.183	0.955	17.183	0.295	-72.65
374.727	0.287	-73.142	0.957	16.687	0.957	16.687	0.287	-73.142
384.539	0.279	-73.612	0.959	16.211	0.959	16.211	0.279	-73.612
394.351	0.272	-74.063	0.962	15.755	0.962	15.755	0.272	-74.063
404.163	0.264	-74.495	0.964	15.317	0.964	15.317	0.264	-74.495
413.974	0.257	-74.909	0.966	14.897	0.966	14.897	0.257	-74.909
423.786	0.25	-75.308	0.967	14.493	0.967	14.493	0.25	-75.308
433.598	0.244	-75.691	0.969	14.104	0.969	14.104	0.244	-75.691
443.409	0.237	-76.06	0.971	13.729	0.971	13.729	0.237	-76.06
453.221	0.231	-76.415	0.972	13.368	0.972	13.368	0.231	-76.415
463.033	0.225	-76.758	0.973	13.019	0.973	13.019	0.225	-76.758
472.844	0.22	-77.088	0.975	12.683	0.975	12.683	0.22	-77.088
482.656	0.214	-77.407	0.976	12.358	0.976	12.358	0.214	-77.407
492.468	0.209	-77.715	0.977	12.043	0.977	12.043	0.209	-77.715
502.279	0.203	-78.013	0.978	11.739	0.978	11.739	0.203	-78.013
512.091	0.198	-78.302	0.979	11.444	0.979	11.444	0.198	-78.302
521.903	0.194	-78.581	0.98	11.158	0.98	11.158	0.194	-78.581
531.715	0.189	-78.851	0.981	10.881	0.981	10.881	0.189	-78.851
541.526	0.184	-79.113	0.982	10.611	0.982	10.611	0.184	-79.113
551.338	0.18	-79.368	0.983	10.35	0.983	10.35	0.18	-79.368
561.15	0.175	-79.614	0.984	10.096	0.984	10.096	0.175	-79.614
570.961	0.171	-79.854	0.984	9.849	0.984	9.849	0.171	-79.854
580.773	0.167	-80.087	0.985	9.609	0.985	9.609	0.167	-80.087
590.585	0.163	-80.313	0.986	9.375	0.986	9.375	0.163	-80.313
600.396	0.159	-80.533	0.986	9.147	0.986	9.147	0.159	-80.533
610.208	0.155	-80.747	0.987	8.925	0.987	8.925	0.155	-80.747
620.02	0.151	-80.955	0.988	8.708	0.988	8.708	0.151	-80.955
629.832	0.148	-81.158	0.988	8.497	0.988	8.497	0.148	-81.158
639.643	0.144	-81.355	0.989	8.291	0.989	8.291	0.144	-81.355
649.455	0.141	-81.548	0.989	8.09	0.989	8.09	0.141	-81.548
659.267	0.137	-81.735	0.99	7.893	0.99	7.893	0.137	-81.735
669.078	0.134	-81.918	0.99	7.701	0.99	7.701	0.134	-81.918
678.89	0.131	-82.097	0.991	7.513	0.991	7.513	0.131	-82.097
688.702	0.128	-82.271	0.991	7.329	0.991	7.329	0.128	-82.271
698.513	0.124	-82.44	0.991	7.149	0.991	7.149	0.124	-82.44
708.325	0.121	-82.606	0.992	6.972	0.992	6.972	0.121	-82.606
718.137	0.118	-82.768	0.992	6.8	0.992	6.8	0.118	-82.768
727.948	0.115	-82.926	0.992	6.631	0.992	6.631	0.115	-82.926
737.76	0.113	-83.08	0.993	6.465	0.993	6.465	0.113	-83.08
747.572	0.11	-83.231	0.993	6.302	0.993	6.302	0.11	-83.231
757.384	0.107	-83.379	0.993	6.143	0.993	6.143	0.107	-83.379
767.195	0.104	-83.523	0.994	5.986	0.994	5.986	0.104	-83.523
777.007	0.102	-83.663	0.994	5.832	0.994	5.832	0.102	-83.663
786.819	0.099	-83.801	0.994	5.681	0.994	5.681	0.099	-83.801
796.63	0.096	-83.935	0.994	5.533	0.994	5.533	0.096	-83.935
806.442	0.094	-84.066	0.995	5.387	0.995	5.387	0.094	-84.066
816.254	0.091	-84.194	0.995	5.244	0.995	5.244	0.091	-84.194
826.065	0.089	-84.32	0.995	5.103	0.995	5.103	0.089	-84.32
835.877	0.087	-84.442	0.995	4.965	0.995	4.965	0.087	-84.442
845.689	0.084	-84.561	0.996	4.829	0.996	4.829	0.084	-84.561
855.5	0.082	-84.678	0.996	4.695	0.996	4.695	0.082	-84.678
865.312	0.08	-84.792	0.996	4.563	0.996	4.563	0.08	-84.792
875.124	0.077	-84.903	0.996	4.433	0.996	4.433	0.077	-84.903
884.936	0.075	-85.011	0.996	4.305	0.996	4.305	0.075	-85.011
894.747	0.073	-85.116	0.996	4.178	0.996	4.178	0.073	-85.116
904.559	0.071	-85.219	0.997	4.054	0.997	4.054	0.071	-85.219
914.371	0.069	-85.319	0.997	3.932	0.997	3.932	0.069	-85.319
924.182	0.066	-85.416	0.997	3.811	0.997	3.811	0.066	-85.416
933.994	0.064	-85.51	0.997	3.692	0.997	3.692	0.064	-85.51
943.806	0.062	-85.601	0.997	3.574	0.997	3.574	0.062	-85.601
953.617	0.06	-85.689	0.997	3.458	0.997	3.458	0.06	-85.689
963.429	0.058	-85.774	0.997	3.344	0.997	3.344	0.058	-85.774
973.241	0.056	-85.856	0.998	3.231	0.998	3.231	0.056	-85.856
983.053	0.054	-85.935	0.998	3.119	0.998	3.119	0.054	-85.935
992.864	0.053	-86.011	0.998	3.009	0.998	3.009	0.053	-86.011
1002.676	0.051	-86.083	0.998	2.9	0.998	2.9	0.051	-86.083
1012.488	0.049	-86.151	0.998	2.793	0.998	2.793	0.049	-86.151
1022.299	0.047	-86.215	0.998	2.687	0.998	2.687	0.047	-86.215
1032.111	0.045	-86.276	0.998	2.582	0.998	2.582	0.045	-86.276
1041.923	0.043	-86.331	0.998	2.478	0.998	2.478	0.043	-86.331
1051.734	0.041	-86.383	0.998	2.375	0.998	2.375	0.041	-86.383
1061.546	0.04	-86.429	0.998	2.274	0.998	2.274	0.04	-86.429
1071.358	0.038	-86.469	0.998	2.174	0.998	2.174	0.038	-86.469
1081.169	0.036	-86.503	0.998	2.075	0.998	2.075	0.036	-86.503
1090.981	0.034	-86.531	0.999	1.976	0.999	1.976	0.034	-86.531
1100.793	0.033	-86.551	0.999	1.879	0.999	1.879	0.033	-86.551
1110.605	0.031	-86.562	0.999	1.783	0.999	1.783	0.031	-86.562
1120.416	0.029	-86.564	0.999	1.688	0.999	1.688	0.029	-86.564
1130.228	0.028	-86.555	0.999	1.594	0.999	1.594	0.028	-86.555
1140.04	0.026	-86.533	0.999	1.5	0.999	1.5	0.026	-86.533
1149.851	0.025	-86.496	0.999	1.408	0.999	1.408	0.025	-86.496
1159.663	0.023	-86.442	0.999	1.317	0.999	1.317	0.023	-86.442
1169.475	0.021	-86.367	0.999	1.226	0.999	1.226	0.021	-86.367
1179.286	0.02	-86.267	0.999	1.136	0.999	1.136	0.02	-86.267
1189.098	0.018	-86.136	0.999	1.047	0.999	1.047	0.018	-86.136
1198.91	0.017	-85.965	0.999	0.959	0.999	0.959	0.017	-85.965
1208.722	0.015	-85.745	0.999	0.871	0.999	0.871	0.015	-85.745
1218.533	0.014	-85.459	0.999	0.785	0.999	0.785	0.014	-85.459
1228.345	0.012	-85.084	0.999	0.699	0.999	0.699	0.012	-85.084
1238.157	0.011	-84.587	0.999	0.614	0.999	0.614	0.011	-84.587
1247.968	9.28E-03	-83.909	0.999	0.529	0.999	0.529	9.28E-03	-83.909
1257.78	7.83E-03	-82.955	0.999	0.445	0.999	0.445	7.83E-03	-82.955
1267.592	6.39E-03	-81.543	0.999	0.362	0.999	0.362	6.39E-03	-81.543
1277.403	4.97E-03	-79.287	0.999	0.28	0.999	0.28	4.97E-03	-79.287
1287.215	3.57E-03	-75.217	0.999	0.198	0.999	0.198	3.57E-03	-75.217
1297.027	2.23E-03	-66.087	0.999	0.117	0.999	0.117	2.23E-03	-66.087
1306.838	1.10E-03	-35.126	0.999	0.036	0.999	0.036	1.10E-03	-35.126
1316.65	1.18E-03	40.226	0.999	-0.044	0.999	-0.044	1.18E-03	40.226
1326.462	2.33E-03	67.149	0.999	-0.123	0.999	-0.123	2.33E-03	67.149
1336.274	3.64E-03	75.474	0.999	-0.202	0.999	-0.202	3.64E-03	75.474
1346.085	4.97E-03	79.293	0.999	-0.28	0.999	-0.28	4.97E-03	79.293
1355.897	6.31E-03	81.444	0.999	-0.358	0.999	-0.358	6.31E-03	81.444
1365.709	7.64E-03	82.806	0.999	-0.435	0.999	-0.435	7.64E-03	82.806
1375.52	8.97E-03	83.735	0.999	-0.511	0.999	-0.511	8.97E-03	83.735
1385.332	0.01	84.4	0.999	-0.587	0.999	-0.587	0.01	84.4
1395.144	0.012	84.893	0.999	-0.663	0.999	-0.663	0.012	84.893
1404.955	0.013	85.268	0.999	-0.738	0.999	-0.738	0.013	85.268
1414.767	0.014	85.559	0.999	-0.813	0.999	-0.813	0.014	85.559
1424.579	0.016	85.788	0.999	-0.887	0.999	-0.887	0.016	85.788
1434.39	0.017	85.969	0.999	-0.96	0.999	-0.96	0.017	85.969
1444.202	0.018	86.112	0.999	-1.034	0.999	-1.034	0.018	86.112
1454.014	0.019	86.227	0.999	-1.106	0.999	-1.106	0.019	86.227
1463.826	0.021	86.318	0.999	-1.179	0.999	-1.179	0.021	86.318
1473.637	0.022	86.39	0.999	-1.25	0.999	-1.25	0.022	86.39
1483.449	0.023	86.446	0.999	-1.322	0.999	-1.322	0.023	86.446
1493.261	0.024	86.489	0.999	-1.393	0.999	-1.393	0.024	86.489
1503.072	0.026	86.52	0.999	-1.463	0.999	-1.463	0.026	86.52
1512.884	0.027	86.542	0.999	-1.534	0.999	-1.534	0.027	86.542
1522.696	0.028	86.556	0.999	-1.603	0.999	-1.603	0.028	86.556
1532.507	0.029	86.563	0.999	-1.673	0.999	-1.673	0.029	86.563
1542.319	0.03	86.564	0.999	-1.742	0.999	-1.742	0.03	86.564
1552.131	0.032	86.56	0.999	-1.81	0.999	-1.81	0.032	86.56
1561.943	0.033	86.551	0.999	-1.879	0.999	-1.879	0.033	86.551
1571.754	0.034	86.538	0.999	-1.947	0.999	-1.947	0.034	86.538
1581.566	0.035	86.521	0.998	-2.014	0.998	-2.014	0.035	86.521
1591.378	0.036	86.501	0.998	-2.081	0.998	-2.081	0.036	86.501
1601.189	0.037	86.478	0.998	-2.148	0.998	-2.148	0.037	86.478
1611.001	0.039	86.453	0.998	-2.215	0.998	-2.215	0.039	86.453
1620.813	0.04	86.426	0.998	-2.281	0.998	-2.281	0.04	86.426
1630.624	0.041	86.396	0.998	-2.347	0.998	-2.347	0.041	86.396
1640.436	0.042	86.365	0.998	-2.413	0.998	-2.413	0.042	86.365
1650.248	0.043	86.332	0.998	-2.478	0.998	-2.478	0.043	86.332
1660.059	0.044	86.297	0.998	-2.543	0.998	-2.543	0.044	86.297
1669.871	0.046	86.261	0.998	-2.607	0.998	-2.607	0.046	86.261
1679.683	0.047	86.224	0.998	-2.672	0.998	-2.672	0.047	86.224
1689.495	0.048	86.186	0.998	-2.736	0.998	-2.736	0.048	86.186
1699.306	0.049	86.147	0.998	-2.8	0.998	-2.8	0.049	86.147
1709.118	0.05	86.107	0.998	-2.863	0.998	-2.863	0.05	86.107
1718.93	0.051	86.066	0.998	-2.926	0.998	-2.926	0.051	86.066
1728.741	0.052	86.024	0.998	-2.989	0.998	-2.989	0.052	86.024
1738.553	0.053	85.982	0.998	-3.052	0.998	-3.052	0.053	85.982
1748.365	0.054	85.939	0.998	-3.114	0.998	-3.114	0.054	85.939
1758.176	0.055	85.895	0.998	-3.177	0.998	-3.177	0.055	85.895
1767.988	0.057	85.851	0.998	-3.239	0.998	-3.239	0.057	85.851
1777.8	0.058	85.806	0.997	-3.3	0.997	-3.3	0.058	85.806
1787.611	0.059	85.761	0.997	-3.362	0.997	-3.362	0.059	85.761
1797.423	0.06	85.716	0.997	-3.423	0.997	-3.423	0.06	85.716
1807.235	0.061	85.67	0.997	-3.484	0.997	-3.484	0.061	85.67
1817.047	0.062	85.624	0.997	-3.544	0.997	-3.544	0.062	85.624
1826.858	0.063	85.577	0.997	-3.605	0.997	-3.605	0.063	85.577
1836.67	0.064	85.53	0.997	-3.665	0.997	-3.665	0.064	85.53
1846.482	0.065	85.483	0.997	-3.725	0.997	-3.725	0.065	85.483
1856.293	0.066	85.436	0.997	-3.785	0.997	-3.785	0.066	85.436
1866.105	0.067	85.389	0.997	-3.845	0.997	-3.845	0.067	85.389
1875.917	0.068	85.341	0.997	-3.904	0.997	-3.904	0.068	85.341
1885.728	0.069	85.293	0.997	-3.963	0.997	-3.963	0.069	85.293
1895.54	0.07	85.245	0.997	-4.022	0.997	-4.022	0.07	85.245
1905.352	0.071	85.197	0.997	-4.081	0.997	-4.081	0.071	85.197
1915.164	0.072	85.149	0.996	-4.139	0.996	-4.139	0.072	85.149
1924.975	0.073	85.1	0.996	-4.198	0.996	-4.198	0.073	85.1
1934.787	0.074	85.052	0.996	-4.256	0.996	-4.256	0.074	85.052
1944.599	0.075	85.003	0.996	-4.314	0.996	-4.314	0.075	85.003
1954.41	0.076	84.954	0.996	-4.371	0.996	-4.371	0.076	84.954
1964.222	0.077	84.906	0.996	-4.429	0.996	-4.429	0.077	84.906
1974.034	0.078	84.857	0.996	-4.486	0.996	-4.486	0.078	84.857
1983.845	0.079	84.808	0.996	-4.544	0.996	-4.544	0.079	84.808
1993.657	0.08	84.759	0.996	-4.601	0.996	-4.601	0.08	84.759
2003.469	0.081	84.71	0.996	-4.657	0.996	-4.657	0.081	84.71
2013.28	0.082	84.661	0.996	-4.714	0.996	-4.714	0.082	84.661
2023.092	0.083	84.612	0.996	-4.771	0.996	-4.771	0.083	84.612
2032.904	0.084	84.563	0.996	-4.827	0.996	-4.827	0.084	84.563
2042.716	0.085	84.514	0.995	-4.883	0.995	-4.883	0.085	84.514
2052.527	0.086	84.465	0.995	-4.939	0.995	-4.939	0.086	84.465
2062.339	0.087	84.416	0.995	-4.995	0.995	-4.995	0.087	84.416
2072.151	0.088	84.366	0.995	-5.05	0.995	-5.05	0.088	84.366
2081.962	0.089	84.317	0.995	-5.106	0.995	-5.106	0.089	84.317
2091.774	0.09	84.268	0.995	-5.161	0.995	-5.161	0.09	84.268
2101.586	0.091	84.219	0.995	-5.216	0.995	-5.216	0.091	84.219
2111.397	0.092	84.17	0.995	-5.272	0.995	-5.272	0.092	84.17
2121.209	0.093	84.121	0.995	-5.326	0.995	-5.326	0.093	84.121
2131.021	0.094	84.072	0.995	-5.381	0.995	-5.381	0.094	84.072
2140.833	0.095	84.023	0.995	-5.436	0.995	-5.436	0.095	84.023
2150.644	0.096	83.974	0.995	-5.49	0.995	-5.49	0.096	83.974
2160.456	0.097	83.925	0.994	-5.544	0.994	-5.544	0.097	83.925
2170.268	0.098	83.876	0.994	-5.599	0.994	-5.599	0.098	83.876
2180.079	0.098	83.827	0.994	-5.653	0.994	-5.653	0.098	83.827
2189.891	0.099	83.778	0.994	-5.706	0.994	-5.706	0.099	83.778
2199.703	0.1	83.729	0.994	-5.76	0.994	-5.76	0.1	83.729
2209.514	0.101	83.68	0.994	-5.814	0.994	-5.814	0.101	83.68
2219.326	0.102	83.631	0.994	-5.867	0.994	-5.867	0.102	83.631
2229.138	0.103	83.583	0.994	-5.92	0.994	-5.92	0.103	83.583
2238.949	0.104	83.534	0.994	-5.974	0.994	-5.974	0.104	83.534
2248.761	0.105	83.485	0.994	-6.027	0.994	-6.027	0.105	83.485
2258.573	0.106	83.437	0.993	-6.08	0.993	-6.08	0.106	83.437
2268.385	0.107	83.388	0.993	-6.132	0.993	-6.132	0.107	83.388
2278.196	0.108	83.339	0.993	-6.185	0.993	-6.185	0.108	83.339
2288.008	0.109	83.291	0.993	-6.238	0.993	-6.238	0.109	83.291
2297.82	0.11	83.242	0.993	-6.29	0.993	-6.29	0.11	83.242
2307.631	0.11	83.194	0.993	-6.342	0.993	-6.342	0.11	83.194
2317.443	0.111	83.146	0.993	-6.395	0.993	-6.395	0.111	83.146
2327.255	0.112	83.097	0.993	-6.447	0.993	-6.447	0.112	83.097
2337.066	0.113	83.049	0.993	-6.499	0.993	-6.499	0.113	83.049
2346.878	0.114	83.001	0.993	-6.551	0.993	-6.551	0.114	83.001
2356.69	0.115	82.952	0.992	-6.602	0.992	-6.602	0.115	82.952
2366.501	0.116	82.904	0.992	-6.654	0.992	-6.654	0.116	82.904
2376.313	0.117	82.856	0.992	-6.705	0.992	-6.705	0.117	82.856
2386.125	0.118	82.808	0.992	-6.757	0.992	-6.757	0.118	82.808
2395.937	0.119	82.76	0.992	-6.808	0.992	-6.808	0.119	82.76
2405.748	0.119	82.712	0.992	-6.859	0.992	-6.859	0.119	82.712
2415.56	0.12	82.664	0.992	-6.91	0.992	-6.91	0.12	82.664
2425.372	0.121	82.617	0.992	-6.961	0.992	-6.961	0.121	82.617
2435.183	0.122	82.569	0.992	-7.012	0.992	-7.012	0.122	82.569
2444.995	0.123	82.521	0.992	-7.063	0.992	-7.063	0.123	82.521
2454.807	0.124	82.473	0.991	-7.114	0.991	-7.114	0.124	82.473
2464.618	0.125	82.426	0.991	-7.164	0.991	-7.164	0.125	82.426
2474.43	0.126	82.378	0.991	-7.215	0.991	-7.215	0.126	82.378
2484.242	0.126	82.331	0.991	-7.265	0.991	-7.265	0.126	82.331
2494.054	0.127	82.283	0.991	-7.315	0.991	-7.315	0.127	82.283
2503.865	0.128	82.236	0.991	-7.365	0.991	-7.365	0.128	82.236
2513.677	0.129	82.188	0.991	-7.416	0.991	-7.416	0.129	82.188
2523.489	0.13	82.141	0.991	-7.466	0.991	-7.466	0.13	82.141
2533.3	0.131	82.094	0.991	-7.515	0.991	-7.515	0.131	82.094
2543.112	0.132	82.047	0.99	-7.565	0.99	-7.565	0.132	82.047
2552.924	0.133	82	0.99	-7.615	0.99	-7.615	0.133	82
2562.735	0.133	81.953	0.99	-7.665	0.99	-7.665	0.133	81.953
2572.547	0.134	81.906	0.99	-7.714	0.99	-7.714	0.134	81.906
2582.359	0.135	81.859	0.99	-7.763	0.99	-7.763	0.135	81.859
2592.17	0.136	81.812	0.99	-7.813	0.99	-7.813	0.136	81.812
2601.982	0.137	81.765	0.99	-7.862	0.99	-7.862	0.137	81.765
2611.794	0.138	81.718	0.99	-7.911	0.99	-7.911	0.138	81.718
2621.606	0.138	81.671	0.989	-7.96	0.989	-7.96	0.138	81.671
2631.417	0.139	81.624	0.989	-8.009	0.989	-8.009	0.139	81.624
2641.229	0.14	81.578	0.989	-8.058	0.989	-8.058	0.14	81.578
2651.041	0.141	81.531	0.989	-8.107	0.989	-8.107	0.141	81.531
2660.852	0.142	81.485	0.989	-8.156	0.989	-8.156	0.142	81.485
2670.664	0.143	81.438	0.989	-8.204	0.989	-8.204	0.143	81.438
2680.476	0.144	81.392	0.989	-8.253	0.989	-8.253	0.144	81.392
2690.287	0.144	81.345	0.989	-8.302	0.989	-8.302	0.144	81.345
2700.099	0.145	81.299	0.989	-8.35	0.989	-8.35	0.145	81.299
2709.911	0.146	81.253	0.988	-8.398	0.988	-8.398	0.146	81.253
2719.722	0.147	81.206	0.988	-8.447	0.988	-8.447	0.147	81.206
2729.534	0.148	81.16	0.988	-8.495	0.988	-8.495	0.148	81.16
2739.346	0.149	81.114	0.988	-8.543	0.988	-8.543	0.149	81.114
2749.158	0.149	81.068	0.988	-8.591	0.988	-8.591	0.149	81.068
2758.969	0.15	81.022	0.988	-8.639	0.988	-8.639	0.15	81.022
2768.781	0.151	80.976	0.988	-8.687	0.988	-8.687	0.151	80.976
2778.593	0.152	80.93	0.988	-8.735	0.988	-8.735	0.152	80.93
2788.404	0.153	80.884	0.987	-8.782	0.987	-8.782	0.153	80.884
2798.216	0.154	80.838	0.987	-8.83	0.987	-8.83	0.154	80.838
2808.028	0.154	80.793	0.987	-8.878	0.987	-8.878	0.154	80.793
2817.839	0.155	80.747	0.987	-8.925	0.987	-8.925	0.155	80.747
2827.651	0.156	80.701	0.987	-8.972	0.987	-8.972	0.156	80.701
2837.463	0.157	80.656	0.987	-9.02	0.987	-9.02	0.157	80.656
2847.275	0.158	80.61	0.987	-9.067	0.987	-9.067	0.158	80.61
2857.086	0.158	80.564	0.986	-9.114	0.986	-9.114	0.158	80.564
2866.898	0.159	80.519	0.986	-9.162	0.986	-9.162	0.159	80.519
2876.71	0.16	80.473	0.986	-9.209	0.986	-9.209	0.16	80.473
2886.521	0.161	80.428	0.986	-9.256	0.986	-9.256	0.161	80.428
2896.333	0.162	80.383	0.986	-9.303	0.986	-9.303	0.162	80.383
2906.145	0.162	80.337	0.986	-9.35	0.986	-9.35	0.162	80.337
2915.956	0.163	80.292	0.986	-9.396	0.986	-9.396	0.163	80.292
2925.768	0.164	80.247	0.986	-9.443	0.986	-9.443	0.164	80.247
2935.58	0.165	80.202	0.985	-9.49	0.985	-9.49	0.165	80.202
2945.391	0.166	80.157	0.985	-9.536	0.985	-9.536	0.166	80.157
2955.203	0.166	80.112	0.985	-9.583	0.985	-9.583	0.166	80.112
2965.015	0.167	80.067	0.985	-9.63	0.985	-9.63	0.167	80.067
2974.827	0.168	80.022	0.985	-9.676	0.985	-9.676	0.168	80.022
2984.638	0.169	79.977	0.985	-9.722	0.985	-9.722	0.169	79.977
2994.45	0.17	79.932	0.985	-9.769	0.985	-9.769	0.17	79.932
3004.262	0.17	79.887	0.984	-9.815	0.984	-9.815	0.17	79.887
3014.073	0.171	79.842	0.984	-9.861	0.984	-9.861	0.171	79.842
3023.885	0.172	79.798	0.984	-9.907	0.984	-9.907	0.172	79.798
3033.697	0.173	79.753	0.984	-9.953	0.984	-9.953	0.173	79.753
3043.508	0.174	79.708	0.984	-9.999	0.984	-9.999	0.174	79.708
3053.32	0.174	79.664	0.984	-10.045	0.984	-10.045	0.174	79.664
3063.132	0.175	79.619	0.984	-10.091	0.984	-10.091	0.175	79.619
3072.944	0.176	79.575	0.984	-10.137	0.984	-10.137	0.176	79.575
3082.755	0.177	79.53	0.983	-10.183	0.983	-10.183	0.177	79.53
3092.567	0.178	79.486	0.983	-10.229	0.983	-10.229	0.178	79.486
3102.379	0.178	79.442	0.983	-10.274	0.983	-10.274	0.178	79.442
3112.19	0.179	79.397	0.983	-10.32	0.983	-10.32	0.179	79.397
3122.002	0.18	79.353	0.983	-10.365	0.983	-10.365	0.18	79.353
3131.814	0.181	79.309	0.983	-10.411	0.983	-10.411	0.181	79.309
3141.625	0.181	79.264	0.983	-10.456	0.983	-10.456	0.181	79.264
3151.437	0.182	79.22	0.982	-10.502	0.982	-10.502	0.182	79.22
3161.249	0.183	79.176	0.982	-10.547	0.982	-10.547	0.183	79.176
3171.06	0.184	79.132	0.982	-10.592	0.982	-10.592	0.184	79.132
3180.872	0.185	79.088	0.982	-10.637	0.982	-10.637	0.185	79.088
3190.684	0.185	79.044	0.982	-10.683	0.982	-10.683	0.185	79.044
3200.496	0.186	79	0.982	-10.728	0.982	-10.728	0.186	79
3210.307	0.187	78.956	0.981	-10.773	0.981	-10.773	0.187	78.956
3220.119	0.188	78.912	0.981	-10.818	0.981	-10.818	0.188	78.912
3229.931	0.188	78.869	0.981	-10.863	0.981	-10.863	0.188	78.869
3239.742	0.189	78.825	0.981	-10.908	0.981	-10.908	0.189	78.825
3249.554	0.19	78.781	0.981	-10.953	0.981	-10.953	0.19	78.781
3259.366	0.191	78.737	0.981	-10.997	0.981	-10.997	0.191	78.737
3269.177	0.192	78.694	0.981	-11.042	0.981	-11.042	0.192	78.694
3278.989	0.192	78.65	0.98	-11.087	0.98	-11.087	0.192	78.65
