! AVX Thin Film Operation		Date: April 2012 
! Description: Accu-P® Series, Thin Film, SMD, RF Capacitor
! Part Number: 12101J3R4ABTTR					
!	100	MHz	-	20.05	GHz			
!	Serial	Measurements						
!								
#	MHZ	S	MA	R	50			
!	S11	S21	S12	S22				
!	dB	Phase	dB	Phase	dB	Phase	dB	Phase
50 0.994 -6.098 0.106 83.823 0.106 83.823 0.994 -6.098
100 0.978 -12.071 0.209 77.828 0.209 77.828 0.978 -12.071
150 0.951 -17.81 0.306 72.067 0.306 72.067 0.951 -17.81
200 0.918 -23.231 0.394 66.624 0.394 66.624 0.918 -23.231
250 0.879 -28.282 0.474 61.551 0.474 61.551 0.879 -28.282
300 0.837 -32.937 0.544 56.873 0.544 56.873 0.837 -32.937
350 0.794 -37.194 0.605 52.592 0.605 52.592 0.794 -37.194
400 0.751 -41.068 0.657 48.695 0.657 48.695 0.751 -41.068
450 0.709 -44.583 0.702 45.156 0.702 45.156 0.709 -44.583
500 0.668 -47.769 0.74 41.945 0.74 41.945 0.668 -47.769
550 0.63 -50.658 0.773 39.031 0.773 39.031 0.63 -50.658
600 0.593 -53.281 0.802 36.382 0.802 36.382 0.593 -53.281
650 0.559 -55.667 0.826 33.969 0.826 33.969 0.559 -55.667
700 0.526 -57.843 0.847 31.766 0.847 31.766 0.526 -57.843
750 0.496 -59.832 0.865 29.748 0.865 29.748 0.496 -59.832
800 0.468 -61.656 0.88 27.894 0.88 27.894 0.468 -61.656
850 0.441 -63.334 0.894 26.185 0.894 26.185 0.441 -63.334
900 0.416 -64.882 0.905 24.605 0.905 24.605 0.416 -64.882
950 0.393 -66.314 0.916 23.14 0.916 23.14 0.393 -66.314
1000 0.371 -67.642 0.925 21.776 0.925 21.776 0.371 -67.642
1050 0.35 -68.878 0.933 20.504 0.933 20.504 0.35 -68.878
1100 0.331 -70.03 0.94 19.313 0.94 19.313 0.331 -70.03
1150 0.312 -71.107 0.946 18.195 0.946 18.195 0.312 -71.107
1200 0.295 -72.116 0.952 17.143 0.952 17.143 0.295 -72.116
1250 0.278 -73.062 0.957 16.151 0.957 16.151 0.278 -73.062
1300 0.262 -73.952 0.961 15.212 0.961 15.212 0.262 -73.952
1350 0.247 -74.79 0.965 14.322 0.965 14.322 0.247 -74.79
1400 0.233 -75.58 0.969 13.476 0.969 13.476 0.233 -75.58
1450 0.219 -76.326 0.972 12.67 0.972 12.67 0.219 -76.326
1500 0.206 -77.03 0.975 11.902 0.975 11.902 0.206 -77.03
1550 0.194 -77.694 0.977 11.167 0.977 11.167 0.194 -77.694
1600 0.182 -78.321 0.98 10.463 0.98 10.463 0.182 -78.321
1650 0.17 -78.913 0.982 9.787 0.982 9.787 0.17 -78.913
1700 0.159 -79.47 0.983 9.138 0.983 9.138 0.159 -79.47
1750 0.148 -79.993 0.985 8.513 0.985 8.513 0.148 -79.993
1800 0.138 -80.482 0.987 7.91 0.987 7.91 0.138 -80.482
1850 0.128 -80.936 0.988 7.328 0.988 7.328 0.128 -80.936
1900 0.118 -81.354 0.989 6.766 0.989 6.766 0.118 -81.354
1950 0.108 -81.735 0.99 6.221 0.99 6.221 0.108 -81.735
2000 0.099 -82.073 0.991 5.693 0.991 5.693 0.099 -82.073
2050 0.09 -82.365 0.992 5.181 0.992 5.181 0.09 -82.365
2100 0.082 -82.602 0.993 4.683 0.993 4.683 0.082 -82.602
2150 0.073 -82.774 0.993 4.199 0.993 4.199 0.073 -82.774
2200 0.065 -82.864 0.994 3.728 0.994 3.728 0.065 -82.864
2250 0.057 -82.846 0.995 3.269 0.995 3.269 0.057 -82.846
2300 0.049 -82.679 0.995 2.821 0.995 2.821 0.049 -82.679
2350 0.042 -82.295 0.995 2.383 0.995 2.383 0.042 -82.295
2400 0.034 -81.568 0.996 1.956 0.996 1.956 0.034 -81.568
2450 0.027 -80.248 0.996 1.538 0.996 1.538 0.027 -80.248
2500 0.02 -77.746 0.996 1.129 0.996 1.129 0.02 -77.746
2550 0.013 -72.32 0.996 0.728 0.996 0.728 0.013 -72.32
2600 7.024e-3 -56.188 0.996 0.336 0.996 0.336 7.024e-3 -56.188
2650 3.969e-3 12.479 0.996 -0.049 0.996 -0.049 3.969e-3 12.479
2700 8.402e-3 62.112 0.996 -0.427 0.996 -0.427 8.402e-3 62.112
2750 0.014 73.659 0.996 -0.798 0.996 -0.798 0.014 73.659
2800 0.021 78.028 0.996 -1.163 0.996 -1.163 0.021 78.028
2850 0.027 80.175 0.996 -1.521 0.996 -1.521 0.027 80.175
2900 0.033 81.369 0.996 -1.874 0.996 -1.874 0.033 81.369
2950 0.039 82.07 0.995 -2.22 0.995 -2.22 0.039 82.07
3000 0.045 82.485 0.995 -2.562 0.995 -2.562 0.045 82.485
3050 0.051 82.721 0.995 -2.898 0.995 -2.898 0.051 82.721
3100 0.056 82.838 0.995 -3.23 0.995 -3.23 0.056 82.838
3150 0.062 82.871 0.994 -3.557 0.994 -3.557 0.062 82.871
3200 0.068 82.845 0.994 -3.879 0.994 -3.879 0.068 82.845
3250 0.073 82.775 0.993 -4.197 0.993 -4.197 0.073 82.775
3300 0.079 82.671 0.993 -4.511 0.993 -4.511 0.079 82.671
3350 0.084 82.542 0.993 -4.821 0.993 -4.821 0.084 82.542
3400 0.089 82.393 0.992 -5.127 0.992 -5.127 0.089 82.393
3450 0.095 82.229 0.992 -5.429 0.992 -5.429 0.095 82.229
3500 0.1 82.052 0.991 -5.728 0.991 -5.728 0.1 82.052
3550 0.105 81.865 0.991 -6.024 0.991 -6.024 0.105 81.865
3600 0.11 81.671 0.99 -6.316 0.99 -6.316 0.11 81.671
3650 0.115 81.469 0.989 -6.605 0.989 -6.605 0.115 81.469
3700 0.12 81.263 0.989 -6.891 0.989 -6.891 0.12 81.263
3750 0.125 81.053 0.988 -7.174 0.988 -7.174 0.125 81.053
3800 0.13 80.839 0.988 -7.454 0.988 -7.454 0.13 80.839
3850 0.135 80.623 0.987 -7.732 0.987 -7.732 0.135 80.623
3900 0.139 80.405 0.986 -8.007 0.986 -8.007 0.139 80.405
3950 0.144 80.184 0.986 -8.279 0.986 -8.279 0.144 80.184
4000 0.149 79.963 0.985 -8.549 0.985 -8.549 0.149 79.963
4050 0.153 79.741 0.984 -8.816 0.984 -8.816 0.153 79.741
4100 0.158 79.518 0.984 -9.081 0.984 -9.081 0.158 79.518
4150 0.162 79.295 0.983 -9.344 0.983 -9.344 0.162 79.295
4200 0.167 79.071 0.982 -9.604 0.982 -9.604 0.167 79.071
4250 0.171 78.847 0.981 -9.863 0.981 -9.863 0.171 78.847
4300 0.176 78.624 0.981 -10.119 0.981 -10.119 0.176 78.624
4350 0.18 78.4 0.98 -10.373 0.98 -10.373 0.18 78.4
4400 0.184 78.177 0.979 -10.625 0.979 -10.625 0.184 78.177
4450 0.189 77.955 0.978 -10.876 0.978 -10.876 0.189 77.955
4500 0.193 77.732 0.977 -11.124 0.977 -11.124 0.193 77.732
4550 0.197 77.51 0.977 -11.371 0.977 -11.371 0.197 77.51
4600 0.201 77.289 0.976 -11.616 0.976 -11.616 0.201 77.289
4650 0.206 77.069 0.975 -11.859 0.975 -11.859 0.206 77.069
4700 0.21 76.849 0.974 -12.1 0.974 -12.1 0.21 76.849
4750 0.214 76.629 0.973 -12.34 0.973 -12.34 0.214 76.629
4800 0.218 76.411 0.972 -12.578 0.972 -12.578 0.218 76.411
4850 0.222 76.193 0.971 -12.814 0.971 -12.814 0.222 76.193
4900 0.226 75.976 0.97 -13.049 0.97 -13.049 0.226 75.976
4950 0.23 75.76 0.969 -13.283 0.969 -13.283 0.23 75.76
5000 0.234 75.544 0.968 -13.514 0.968 -13.514 0.234 75.544
5050 0.238 75.33 0.968 -13.745 0.968 -13.745 0.238 75.33
5100 0.242 75.116 0.967 -13.974 0.967 -13.974 0.242 75.116
5150 0.245 74.903 0.966 -14.202 0.966 -14.202 0.245 74.903
5200 0.249 74.691 0.965 -14.428 0.965 -14.428 0.249 74.691
5250 0.253 74.479 0.964 -14.653 0.964 -14.653 0.253 74.479
5300 0.257 74.269 0.963 -14.876 0.963 -14.876 0.257 74.269
5350 0.261 74.059 0.962 -15.099 0.962 -15.099 0.261 74.059
5400 0.264 73.851 0.961 -15.32 0.961 -15.32 0.264 73.851
5450 0.268 73.643 0.96 -15.539 0.96 -15.539 0.268 73.643
5500 0.272 73.436 0.959 -15.758 0.959 -15.758 0.272 73.436
5550 0.275 73.229 0.958 -15.975 0.958 -15.975 0.275 73.229
5600 0.279 73.024 0.957 -16.191 0.957 -16.191 0.279 73.024
5650 0.282 72.819 0.955 -16.406 0.955 -16.406 0.282 72.819
5700 0.286 72.616 0.954 -16.62 0.954 -16.62 0.286 72.616
5750 0.29 72.413 0.953 -16.832 0.953 -16.832 0.29 72.413
5800 0.293 72.211 0.952 -17.044 0.952 -17.044 0.293 72.211
5850 0.297 72.009 0.951 -17.254 0.951 -17.254 0.297 72.009
5900 0.3 71.809 0.95 -17.464 0.95 -17.464 0.3 71.809
5950 0.304 71.609 0.949 -17.672 0.949 -17.672 0.304 71.609
6000 0.307 71.411 0.948 -17.879 0.948 -17.879 0.307 71.411
6050 0.31 71.213 0.947 -18.085 0.947 -18.085 0.31 71.213
6100 0.314 71.015 0.946 -18.29 0.946 -18.29 0.314 71.015
6150 0.317 70.819 0.945 -18.495 0.945 -18.495 0.317 70.819
6200 0.321 70.623 0.943 -18.698 0.943 -18.698 0.321 70.623
6250 0.324 70.429 0.942 -18.9 0.942 -18.9 0.324 70.429
6300 0.327 70.235 0.941 -19.101 0.941 -19.101 0.327 70.235
6350 0.331 70.042 0.94 -19.301 0.94 -19.301 0.331 70.042
6400 0.334 69.849 0.939 -19.5 0.939 -19.5 0.334 69.849
6450 0.337 69.657 0.938 -19.699 0.938 -19.699 0.337 69.657
6500 0.34 69.467 0.937 -19.896 0.937 -19.896 0.34 69.467
6550 0.344 69.277 0.935 -20.092 0.935 -20.092 0.344 69.277
6600 0.347 69.087 0.934 -20.288 0.934 -20.288 0.347 69.087
6650 0.35 68.899 0.933 -20.483 0.933 -20.483 0.35 68.899
6700 0.353 68.711 0.932 -20.676 0.932 -20.676 0.353 68.711
6750 0.356 68.524 0.931 -20.869 0.931 -20.869 0.356 68.524
6800 0.359 68.337 0.929 -21.061 0.929 -21.061 0.359 68.337
6850 0.362 68.152 0.928 -21.252 0.928 -21.252 0.362 68.152
6900 0.366 67.967 0.927 -21.442 0.927 -21.442 0.366 67.967
6950 0.369 67.783 0.926 -21.632 0.926 -21.632 0.369 67.783
7000 0.372 67.599 0.925 -21.82 0.925 -21.82 0.372 67.599
7050 0.375 67.417 0.923 -22.008 0.923 -22.008 0.375 67.417
7100 0.378 67.235 0.922 -22.195 0.922 -22.195 0.378 67.235
7150 0.381 67.054 0.921 -22.381 0.921 -22.381 0.381 67.054
7200 0.384 66.873 0.92 -22.566 0.92 -22.566 0.384 66.873
7250 0.387 66.693 0.918 -22.751 0.918 -22.751 0.387 66.693
7300 0.39 66.514 0.917 -22.935 0.917 -22.935 0.39 66.514
7350 0.393 66.336 0.916 -23.117 0.916 -23.117 0.393 66.336
7400 0.396 66.158 0.915 -23.3 0.915 -23.3 0.396 66.158
7450 0.398 65.981 0.913 -23.481 0.913 -23.481 0.398 65.981
7500 0.401 65.805 0.912 -23.661 0.912 -23.661 0.401 65.805
7550 0.404 65.629 0.911 -23.841 0.911 -23.841 0.404 65.629
7600 0.407 65.454 0.91 -24.02 0.91 -24.02 0.407 65.454
7650 0.41 65.28 0.908 -24.199 0.908 -24.199 0.41 65.28
7700 0.413 65.106 0.907 -24.376 0.907 -24.376 0.413 65.106
7750 0.416 64.933 0.906 -24.553 0.906 -24.553 0.416 64.933
7800 0.418 64.761 0.905 -24.729 0.905 -24.729 0.418 64.761
7850 0.421 64.589 0.903 -24.904 0.903 -24.904 0.421 64.589
7900 0.424 64.418 0.902 -25.079 0.902 -25.079 0.424 64.418
7950 0.427 64.248 0.901 -25.253 0.901 -25.253 0.427 64.248
8000 0.429 64.078 0.899 -25.426 0.899 -25.426 0.429 64.078
8050 0.432 63.909 0.898 -25.599 0.898 -25.599 0.432 63.909
8100 0.435 63.741 0.897 -25.77 0.897 -25.77 0.435 63.741
8150 0.437 63.573 0.896 -25.941 0.896 -25.941 0.437 63.573
8200 0.44 63.406 0.894 -26.112 0.894 -26.112 0.44 63.406
8250 0.443 63.24 0.893 -26.282 0.893 -26.282 0.443 63.24
8300 0.445 63.074 0.892 -26.451 0.892 -26.451 0.445 63.074
8350 0.448 62.909 0.89 -26.619 0.89 -26.619 0.448 62.909
8400 0.451 62.744 0.889 -26.786 0.889 -26.786 0.451 62.744
8450 0.453 62.58 0.888 -26.953 0.888 -26.953 0.453 62.58
8500 0.456 62.417 0.886 -27.12 0.886 -27.12 0.456 62.417
8550 0.458 62.254 0.885 -27.285 0.885 -27.285 0.458 62.254
8600 0.461 62.092 0.884 -27.45 0.884 -27.45 0.461 62.092
8650 0.464 61.931 0.882 -27.615 0.882 -27.615 0.464 61.931
8700 0.466 61.77 0.881 -27.778 0.881 -27.778 0.466 61.77
8750 0.469 61.61 0.88 -27.941 0.88 -27.941 0.469 61.61
8800 0.471 61.45 0.878 -28.104 0.878 -28.104 0.471 61.45
8850 0.474 61.291 0.877 -28.265 0.877 -28.265 0.474 61.291
8900 0.476 61.133 0.876 -28.426 0.876 -28.426 0.476 61.133
8950 0.479 60.975 0.874 -28.587 0.874 -28.587 0.479 60.975
9000 0.481 60.817 0.873 -28.747 0.873 -28.747 0.481 60.817
9050 0.483 60.661 0.872 -28.906 0.872 -28.906 0.483 60.661
9100 0.486 60.505 0.87 -29.064 0.87 -29.064 0.486 60.505
9150 0.488 60.349 0.869 -29.222 0.869 -29.222 0.488 60.349
9200 0.491 60.194 0.868 -29.38 0.868 -29.38 0.491 60.194
9250 0.493 60.04 0.866 -29.536 0.866 -29.536 0.493 60.04
9300 0.495 59.886 0.865 -29.692 0.865 -29.692 0.495 59.886
9350 0.498 59.733 0.864 -29.848 0.864 -29.848 0.498 59.733
9400 0.5 59.581 0.862 -30.003 0.862 -30.003 0.5 59.581
9450 0.502 59.429 0.861 -30.157 0.861 -30.157 0.502 59.429
9500 0.505 59.277 0.86 -30.311 0.86 -30.311 0.505 59.277
9550 0.507 59.126 0.858 -30.464 0.858 -30.464 0.507 59.126
9600 0.509 58.976 0.857 -30.616 0.857 -30.616 0.509 58.976
9650 0.512 58.826 0.856 -30.768 0.856 -30.768 0.512 58.826
9700 0.514 58.677 0.854 -30.919 0.854 -30.919 0.514 58.677
9750 0.516 58.529 0.853 -31.07 0.853 -31.07 0.516 58.529
9800 0.518 58.381 0.852 -31.22 0.852 -31.22 0.518 58.381
9850 0.521 58.233 0.85 -31.37 0.85 -31.37 0.521 58.233
9900 0.523 58.086 0.849 -31.519 0.849 -31.519 0.523 58.086
9950 0.525 57.94 0.848 -31.667 0.848 -31.667 0.525 57.94
10000 0.527 57.794 0.846 -31.815 0.846 -31.815 0.527 57.794
10050 0.529 57.649 0.845 -31.962 0.845 -31.962 0.529 57.649
10100 0.532 57.504 0.843 -32.109 0.843 -32.109 0.532 57.504
10150 0.534 57.36 0.842 -32.255 0.842 -32.255 0.534 57.36
10200 0.536 57.216 0.841 -32.401 0.841 -32.401 0.536 57.216
10250 0.538 57.073 0.839 -32.546 0.839 -32.546 0.538 57.073
10300 0.54 56.93 0.838 -32.69 0.838 -32.69 0.54 56.93
10350 0.542 56.788 0.837 -32.834 0.837 -32.834 0.542 56.788
10400 0.544 56.647 0.835 -32.977 0.835 -32.977 0.544 56.647
10450 0.546 56.506 0.834 -33.12 0.834 -33.12 0.546 56.506
10500 0.548 56.365 0.833 -33.262 0.833 -33.262 0.548 56.365
10550 0.551 56.225 0.831 -33.404 0.831 -33.404 0.551 56.225
10600 0.553 56.086 0.83 -33.545 0.83 -33.545 0.553 56.086
10650 0.555 55.947 0.829 -33.686 0.829 -33.686 0.555 55.947
10700 0.557 55.808 0.827 -33.826 0.827 -33.826 0.557 55.808
10750 0.559 55.67 0.826 -33.966 0.826 -33.966 0.559 55.67
10800 0.561 55.533 0.824 -34.105 0.824 -34.105 0.561 55.533
10850 0.563 55.396 0.823 -34.243 0.823 -34.243 0.563 55.396
10900 0.565 55.26 0.822 -34.381 0.822 -34.381 0.565 55.26
10950 0.567 55.124 0.82 -34.519 0.82 -34.519 0.567 55.124
11000 0.569 54.988 0.819 -34.655 0.819 -34.655 0.569 54.988
11050 0.571 54.854 0.818 -34.792 0.818 -34.792 0.571 54.854
11100 0.573 54.719 0.816 -34.928 0.816 -34.928 0.573 54.719
11150 0.574 54.585 0.815 -35.063 0.815 -35.063 0.574 54.585
11200 0.576 54.452 0.814 -35.198 0.814 -35.198 0.576 54.452
11250 0.578 54.319 0.812 -35.332 0.812 -35.332 0.578 54.319
11300 0.58 54.187 0.811 -35.466 0.811 -35.466 0.58 54.187
11350 0.582 54.055 0.81 -35.6 0.81 -35.6 0.582 54.055
11400 0.584 53.923 0.808 -35.732 0.808 -35.732 0.584 53.923
11450 0.586 53.793 0.807 -35.865 0.807 -35.865 0.586 53.793
11500 0.588 53.662 0.806 -35.997 0.806 -35.997 0.588 53.662
11550 0.59 53.532 0.804 -36.128 0.804 -36.128 0.59 53.532
11600 0.591 53.403 0.803 -36.259 0.803 -36.259 0.591 53.403
11650 0.593 53.274 0.802 -36.389 0.802 -36.389 0.593 53.274
11700 0.595 53.145 0.8 -36.519 0.8 -36.519 0.595 53.145
11750 0.597 53.017 0.799 -36.648 0.799 -36.648 0.597 53.017
11800 0.599 52.89 0.797 -36.777 0.797 -36.777 0.599 52.89
11850 0.601 52.763 0.796 -36.906 0.796 -36.906 0.601 52.763
11900 0.602 52.636 0.795 -37.034 0.795 -37.034 0.602 52.636
11950 0.604 52.51 0.793 -37.161 0.793 -37.161 0.604 52.51
12000 0.606 52.384 0.792 -37.288 0.792 -37.288 0.606 52.384
12050 0.608 52.259 0.791 -37.414 0.791 -37.414 0.608 52.259
12100 0.609 52.134 0.789 -37.54 0.789 -37.54 0.609 52.134
12150 0.611 52.01 0.788 -37.666 0.788 -37.666 0.611 52.01
12200 0.613 51.886 0.787 -37.791 0.787 -37.791 0.613 51.886
12250 0.615 51.763 0.785 -37.916 0.785 -37.916 0.615 51.763
12300 0.616 51.64 0.784 -38.04 0.784 -38.04 0.616 51.64
12350 0.618 51.517 0.783 -38.163 0.783 -38.163 0.618 51.517
12400 0.62 51.395 0.781 -38.287 0.781 -38.287 0.62 51.395
12450 0.621 51.274 0.78 -38.409 0.78 -38.409 0.621 51.274
12500 0.623 51.153 0.779 -38.532 0.779 -38.532 0.623 51.153
12550 0.625 51.032 0.778 -38.653 0.778 -38.653 0.625 51.032
12600 0.626 50.912 0.776 -38.775 0.776 -38.775 0.626 50.912
12650 0.628 50.792 0.775 -38.896 0.775 -38.896 0.628 50.792
12700 0.63 50.672 0.774 -39.016 0.774 -39.016 0.63 50.672
12750 0.631 50.554 0.772 -39.136 0.772 -39.136 0.631 50.554
12800 0.633 50.435 0.771 -39.256 0.771 -39.256 0.633 50.435
12850 0.634 50.317 0.77 -39.375 0.77 -39.375 0.634 50.317
12900 0.636 50.199 0.768 -39.494 0.768 -39.494 0.636 50.199
12950 0.638 50.082 0.767 -39.612 0.767 -39.612 0.638 50.082
13000 0.639 49.966 0.766 -39.73 0.766 -39.73 0.639 49.966
13050 0.641 49.849 0.764 -39.847 0.764 -39.847 0.641 49.849
13100 0.642 49.733 0.763 -39.964 0.763 -39.964 0.642 49.733
13150 0.644 49.618 0.762 -40.08 0.762 -40.08 0.644 49.618
13200 0.645 49.503 0.76 -40.196 0.76 -40.196 0.645 49.503
13250 0.647 49.388 0.759 -40.312 0.759 -40.312 0.647 49.388
13300 0.648 49.274 0.758 -40.427 0.758 -40.427 0.648 49.274
13350 0.65 49.16 0.757 -40.542 0.757 -40.542 0.65 49.16
13400 0.652 49.047 0.755 -40.656 0.755 -40.656 0.652 49.047
13450 0.653 48.934 0.754 -40.77 0.754 -40.77 0.653 48.934
13500 0.655 48.821 0.753 -40.884 0.753 -40.884 0.655 48.821
13550 0.656 48.709 0.751 -40.997 0.751 -40.997 0.656 48.709
13600 0.658 48.598 0.75 -41.11 0.75 -41.11 0.658 48.598
13650 0.659 48.486 0.749 -41.222 0.749 -41.222 0.659 48.486
13700 0.66 48.375 0.748 -41.334 0.748 -41.334 0.66 48.375
13750 0.662 48.265 0.746 -41.445 0.746 -41.445 0.662 48.265
13800 0.663 48.155 0.745 -41.556 0.745 -41.556 0.663 48.155
13850 0.665 48.045 0.744 -41.667 0.744 -41.667 0.665 48.045
13900 0.666 47.936 0.742 -41.777 0.742 -41.777 0.666 47.936
13950 0.668 47.827 0.741 -41.887 0.741 -41.887 0.668 47.827
14000 0.669 47.718 0.74 -41.996 0.74 -41.996 0.669 47.718
14050 0.67 47.61 0.739 -42.105 0.739 -42.105 0.67 47.61
14100 0.672 47.503 0.737 -42.214 0.737 -42.214 0.672 47.503
14150 0.673 47.395 0.736 -42.322 0.736 -42.322 0.673 47.395
14200 0.675 47.288 0.735 -42.43 0.735 -42.43 0.675 47.288
14250 0.676 47.182 0.734 -42.537 0.734 -42.537 0.676 47.182
14300 0.677 47.076 0.732 -42.644 0.732 -42.644 0.677 47.076
14350 0.679 46.97 0.731 -42.751 0.731 -42.751 0.679 46.97
14400 0.68 46.865 0.73 -42.857 0.73 -42.857 0.68 46.865
14450 0.682 46.76 0.728 -42.963 0.728 -42.963 0.682 46.76
14500 0.683 46.655 0.727 -43.068 0.727 -43.068 0.683 46.655
14550 0.684 46.551 0.726 -43.173 0.726 -43.173 0.684 46.551
14600 0.686 46.447 0.725 -43.278 0.725 -43.278 0.686 46.447
14650 0.687 46.343 0.723 -43.382 0.723 -43.382 0.687 46.343
14700 0.688 46.24 0.722 -43.486 0.722 -43.486 0.688 46.24
14750 0.689 46.138 0.721 -43.59 0.721 -43.59 0.689 46.138
14800 0.691 46.035 0.72 -43.693 0.72 -43.693 0.691 46.035
14850 0.692 45.933 0.719 -43.795 0.719 -43.795 0.692 45.933
14900 0.693 45.832 0.717 -43.898 0.717 -43.898 0.693 45.832
14950 0.695 45.73 0.716 -44 0.716 -44 0.695 45.73
15000 0.696 45.629 0.715 -44.102 0.715 -44.102 0.696 45.629
15050 0.697 45.529 0.714 -44.203 0.714 -44.203 0.697 45.529
15100 0.698 45.429 0.712 -44.304 0.712 -44.304 0.698 45.429
15150 0.7 45.329 0.711 -44.404 0.711 -44.404 0.7 45.329
15200 0.701 45.23 0.71 -44.504 0.71 -44.504 0.701 45.23
15250 0.702 45.13 0.709 -44.604 0.709 -44.604 0.702 45.13
15300 0.703 45.032 0.708 -44.704 0.708 -44.704 0.703 45.032
15350 0.705 44.933 0.706 -44.803 0.706 -44.803 0.705 44.933
15400 0.706 44.835 0.705 -44.902 0.705 -44.902 0.706 44.835
15450 0.707 44.738 0.704 -45 0.704 -45 0.707 44.738
15500 0.708 44.64 0.703 -45.098 0.703 -45.098 0.708 44.64
15550 0.71 44.543 0.701 -45.196 0.701 -45.196 0.71 44.543
15600 0.711 44.447 0.7 -45.293 0.7 -45.293 0.711 44.447
15650 0.712 44.35 0.699 -45.39 0.699 -45.39 0.712 44.35
15700 0.713 44.254 0.698 -45.487 0.698 -45.487 0.713 44.254
15750 0.714 44.159 0.697 -45.583 0.697 -45.583 0.714 44.159
15800 0.715 44.064 0.695 -45.679 0.695 -45.679 0.715 44.064
15850 0.717 43.969 0.694 -45.774 0.694 -45.774 0.717 43.969
15900 0.718 43.874 0.693 -45.87 0.693 -45.87 0.718 43.874
15950 0.719 43.78 0.692 -45.965 0.692 -45.965 0.719 43.78
16000 0.72 43.686 0.691 -46.059 0.691 -46.059 0.72 43.686
16050 0.721 43.592 0.69 -46.153 0.69 -46.153 0.721 43.592
16100 0.722 43.499 0.688 -46.247 0.688 -46.247 0.722 43.499
16150 0.723 43.406 0.687 -46.341 0.687 -46.341 0.723 43.406
16200 0.725 43.314 0.686 -46.434 0.686 -46.434 0.725 43.314
16250 0.726 43.222 0.685 -46.527 0.685 -46.527 0.726 43.222
16300 0.727 43.13 0.684 -46.619 0.684 -46.619 0.727 43.13
16350 0.728 43.038 0.682 -46.712 0.682 -46.712 0.728 43.038
16400 0.729 42.947 0.681 -46.804 0.681 -46.804 0.729 42.947
16450 0.73 42.856 0.68 -46.895 0.68 -46.895 0.73 42.856
16500 0.731 42.765 0.679 -46.986 0.679 -46.986 0.731 42.765
16550 0.732 42.675 0.678 -47.077 0.678 -47.077 0.732 42.675
16600 0.733 42.585 0.677 -47.168 0.677 -47.168 0.733 42.585
16650 0.734 42.495 0.676 -47.258 0.676 -47.258 0.734 42.495
16700 0.735 42.406 0.674 -47.348 0.674 -47.348 0.735 42.406
16750 0.737 42.317 0.673 -47.438 0.673 -47.438 0.737 42.317
16800 0.738 42.228 0.672 -47.527 0.672 -47.527 0.738 42.228
16850 0.739 42.14 0.671 -47.616 0.671 -47.616 0.739 42.14
16900 0.74 42.052 0.67 -47.705 0.67 -47.705 0.74 42.052
16950 0.741 41.964 0.669 -47.793 0.669 -47.793 0.741 41.964
