! AVX Thin Film Operation		Date: April 2012 
! Description: Accu-P® Series, Thin Film, SMD, RF Capacitor
! Part Number: 12101J3R5ABTTR					
!	100	MHz	-	20.05	GHz			
!	Serial	Measurements						
!								
#	MHZ	S	MA	R	50			
!	S11	S21	S12	S22				
!	dB	Phase	dB	Phase	dB	Phase	dB	Phase
50 0.994 -6.276 0.109 83.645 0.109 83.645 0.994 -6.276
100 0.976 -12.416 0.215 77.484 0.215 77.484 0.976 -12.416
150 0.949 -18.301 0.314 71.578 0.314 71.578 0.949 -18.301
200 0.914 -23.842 0.404 66.014 0.404 66.014 0.914 -23.842
250 0.873 -28.986 0.485 60.848 0.485 60.848 0.873 -28.986
300 0.83 -33.708 0.555 56.104 0.555 56.104 0.83 -33.708
350 0.786 -38.01 0.616 51.779 0.616 51.779 0.786 -38.01
400 0.741 -41.91 0.668 47.856 0.668 47.856 0.741 -41.91
450 0.698 -45.436 0.712 44.306 0.712 44.306 0.698 -45.436
500 0.657 -48.623 0.75 41.095 0.75 41.095 0.657 -48.623
550 0.618 -51.504 0.783 38.189 0.783 38.189 0.618 -51.504
600 0.581 -54.114 0.81 35.554 0.81 35.554 0.581 -54.114
650 0.547 -56.482 0.834 33.159 0.834 33.159 0.547 -56.482
700 0.515 -58.638 0.854 30.976 0.854 30.976 0.515 -58.638
750 0.485 -60.606 0.871 28.979 0.871 28.979 0.485 -60.606
800 0.456 -62.408 0.886 27.148 0.886 27.148 0.456 -62.408
850 0.43 -64.064 0.899 25.462 0.899 25.462 0.43 -64.064
900 0.405 -65.589 0.911 23.904 0.911 23.904 0.405 -65.589
950 0.382 -67 0.921 22.461 0.921 22.461 0.382 -67
1000 0.36 -68.307 0.929 21.119 0.929 21.119 0.36 -68.307
1050 0.34 -69.522 0.937 19.867 0.937 19.867 0.34 -69.522
1100 0.321 -70.654 0.944 18.696 0.944 18.696 0.321 -70.654
1150 0.302 -71.712 0.95 17.597 0.95 17.597 0.302 -71.712
1200 0.285 -72.702 0.955 16.564 0.955 16.564 0.285 -72.702
1250 0.269 -73.631 0.96 15.589 0.96 15.589 0.269 -73.631
1300 0.253 -74.504 0.964 14.666 0.964 14.666 0.253 -74.504
1350 0.238 -75.326 0.967 13.792 0.967 13.792 0.238 -75.326
1400 0.224 -76.1 0.971 12.961 0.971 12.961 0.224 -76.1
1450 0.211 -76.83 0.974 12.17 0.974 12.17 0.211 -76.83
1500 0.198 -77.519 0.977 11.415 0.977 11.415 0.198 -77.519
1550 0.186 -78.169 0.979 10.694 0.979 10.694 0.186 -78.169
1600 0.174 -78.781 0.981 10.002 0.981 10.002 0.174 -78.781
1650 0.162 -79.359 0.983 9.339 0.983 9.339 0.162 -79.359
1700 0.151 -79.901 0.985 8.701 0.985 8.701 0.151 -79.901
1750 0.141 -80.409 0.986 8.087 0.986 8.087 0.141 -80.409
1800 0.13 -80.883 0.988 7.495 0.988 7.495 0.13 -80.883
1850 0.121 -81.321 0.989 6.923 0.989 6.923 0.121 -81.321
1900 0.111 -81.721 0.99 6.37 0.99 6.37 0.111 -81.721
1950 0.102 -82.082 0.991 5.835 0.991 5.835 0.102 -82.082
2000 0.093 -82.398 0.992 5.316 0.992 5.316 0.093 -82.398
2050 0.084 -82.663 0.993 4.812 0.993 4.812 0.084 -82.663
2100 0.075 -82.867 0.993 4.323 0.993 4.323 0.075 -82.867
2150 0.067 -82.996 0.994 3.847 0.994 3.847 0.067 -82.996
2200 0.059 -83.028 0.995 3.383 0.995 3.383 0.059 -83.028
2250 0.051 -82.929 0.995 2.931 0.995 2.931 0.051 -82.929
2300 0.044 -82.64 0.995 2.49 0.995 2.49 0.044 -82.64
2350 0.036 -82.059 0.996 2.059 0.996 2.059 0.036 -82.059
2400 0.029 -80.984 0.996 1.638 0.996 1.638 0.029 -80.984
2450 0.022 -78.962 0.996 1.227 0.996 1.227 0.022 -78.962
2500 0.015 -74.735 0.996 0.824 0.996 0.824 0.015 -74.735
2550 8.354e-3 -63.262 0.996 0.429 0.996 0.429 8.354e-3 -63.262
2600 3.775e-3 -11.188 0.996 0.042 0.996 0.042 3.775e-3 -11.188
2650 6.956e-3 57.506 0.996 -0.337 0.996 -0.337 6.956e-3 57.506
2700 0.013 72.654 0.996 -0.71 0.996 -0.71 0.013 72.654
2750 0.019 77.77 0.996 -1.076 0.996 -1.076 0.019 77.77
2800 0.025 80.158 0.996 -1.435 0.996 -1.435 0.025 80.158
2850 0.031 81.448 0.996 -1.789 0.996 -1.789 0.031 81.448
2900 0.037 82.193 0.996 -2.137 0.996 -2.137 0.037 82.193
2950 0.043 82.63 0.995 -2.479 0.995 -2.479 0.043 82.63
3000 0.049 82.876 0.995 -2.816 0.995 -2.816 0.049 82.876
3050 0.055 82.996 0.995 -3.148 0.995 -3.148 0.055 82.996
3100 0.061 83.031 0.994 -3.476 0.994 -3.476 0.061 83.031
3150 0.066 83.004 0.994 -3.798 0.994 -3.798 0.066 83.004
3200 0.072 82.933 0.994 -4.117 0.994 -4.117 0.072 82.933
3250 0.077 82.827 0.993 -4.431 0.993 -4.431 0.077 82.827
3300 0.083 82.696 0.993 -4.741 0.993 -4.741 0.083 82.696
3350 0.088 82.545 0.992 -5.048 0.992 -5.048 0.088 82.545
3400 0.093 82.378 0.992 -5.35 0.992 -5.35 0.093 82.378
3450 0.099 82.199 0.991 -5.649 0.991 -5.649 0.099 82.199
3500 0.104 82.01 0.991 -5.945 0.991 -5.945 0.104 82.01
3550 0.109 81.814 0.99 -6.237 0.99 -6.237 0.109 81.814
3600 0.114 81.611 0.99 -6.526 0.99 -6.526 0.114 81.611
3650 0.119 81.403 0.989 -6.812 0.989 -6.812 0.119 81.403
3700 0.124 81.191 0.989 -7.095 0.989 -7.095 0.124 81.191
3750 0.128 80.976 0.988 -7.376 0.988 -7.376 0.128 80.976
3800 0.133 80.758 0.987 -7.653 0.987 -7.653 0.133 80.758
3850 0.138 80.538 0.987 -7.928 0.987 -7.928 0.138 80.538
3900 0.143 80.317 0.986 -8.2 0.986 -8.2 0.143 80.317
3950 0.147 80.095 0.985 -8.469 0.985 -8.469 0.147 80.095
4000 0.152 79.871 0.985 -8.737 0.985 -8.737 0.152 79.871
4050 0.157 79.647 0.984 -9.002 0.984 -9.002 0.157 79.647
4100 0.161 79.423 0.983 -9.264 0.983 -9.264 0.161 79.423
4150 0.166 79.198 0.983 -9.524 0.983 -9.524 0.166 79.198
4200 0.17 78.974 0.982 -9.782 0.982 -9.782 0.17 78.974
4250 0.174 78.75 0.981 -10.039 0.981 -10.039 0.174 78.75
4300 0.179 78.525 0.98 -10.293 0.98 -10.293 0.179 78.525
4350 0.183 78.302 0.979 -10.545 0.979 -10.545 0.183 78.302
4400 0.187 78.078 0.979 -10.795 0.979 -10.795 0.187 78.078
4450 0.192 77.855 0.978 -11.043 0.978 -11.043 0.192 77.855
4500 0.196 77.633 0.977 -11.289 0.977 -11.289 0.196 77.633
4550 0.2 77.411 0.976 -11.534 0.976 -11.534 0.2 77.411
4600 0.204 77.19 0.975 -11.777 0.975 -11.777 0.204 77.19
4650 0.208 76.97 0.974 -12.018 0.974 -12.018 0.208 76.97
4700 0.212 76.75 0.974 -12.257 0.974 -12.257 0.212 76.75
4750 0.216 76.531 0.973 -12.495 0.973 -12.495 0.216 76.531
4800 0.22 76.313 0.972 -12.731 0.972 -12.731 0.22 76.313
4850 0.224 76.096 0.971 -12.966 0.971 -12.966 0.224 76.096
4900 0.228 75.879 0.97 -13.199 0.97 -13.199 0.228 75.879
4950 0.232 75.663 0.969 -13.431 0.969 -13.431 0.232 75.663
5000 0.236 75.448 0.968 -13.661 0.968 -13.661 0.236 75.448
5050 0.24 75.234 0.967 -13.89 0.967 -13.89 0.24 75.234
5100 0.244 75.021 0.966 -14.117 0.966 -14.117 0.244 75.021
5150 0.248 74.809 0.965 -14.343 0.965 -14.343 0.248 74.809
5200 0.252 74.597 0.964 -14.568 0.964 -14.568 0.252 74.597
5250 0.255 74.386 0.963 -14.791 0.963 -14.791 0.255 74.386
5300 0.259 74.177 0.962 -15.013 0.962 -15.013 0.259 74.177
5350 0.263 73.968 0.961 -15.234 0.961 -15.234 0.263 73.968
5400 0.266 73.759 0.96 -15.453 0.96 -15.453 0.266 73.759
5450 0.27 73.552 0.959 -15.672 0.959 -15.672 0.27 73.552
5500 0.274 73.346 0.958 -15.889 0.958 -15.889 0.274 73.346
5550 0.277 73.14 0.957 -16.105 0.957 -16.105 0.277 73.14
5600 0.281 72.935 0.956 -16.319 0.956 -16.319 0.281 72.935
5650 0.285 72.731 0.955 -16.533 0.955 -16.533 0.285 72.731
5700 0.288 72.528 0.954 -16.745 0.954 -16.745 0.288 72.528
5750 0.292 72.326 0.953 -16.957 0.953 -16.957 0.292 72.326
5800 0.295 72.125 0.952 -17.167 0.952 -17.167 0.295 72.125
5850 0.299 71.924 0.951 -17.376 0.951 -17.376 0.299 71.924
5900 0.302 71.724 0.95 -17.584 0.95 -17.584 0.302 71.724
5950 0.306 71.525 0.949 -17.791 0.949 -17.791 0.306 71.525
6000 0.309 71.327 0.947 -17.997 0.947 -17.997 0.309 71.327
6050 0.312 71.13 0.946 -18.202 0.946 -18.202 0.312 71.13
6100 0.316 70.934 0.945 -18.406 0.945 -18.406 0.316 70.934
6150 0.319 70.738 0.944 -18.609 0.944 -18.609 0.319 70.738
6200 0.322 70.543 0.943 -18.811 0.943 -18.811 0.322 70.543
6250 0.326 70.349 0.942 -19.012 0.942 -19.012 0.326 70.349
6300 0.329 70.156 0.941 -19.212 0.941 -19.212 0.329 70.156
6350 0.332 69.963 0.94 -19.411 0.94 -19.411 0.332 69.963
6400 0.336 69.771 0.938 -19.609 0.938 -19.609 0.336 69.771
6450 0.339 69.58 0.937 -19.807 0.937 -19.807 0.339 69.58
6500 0.342 69.39 0.936 -20.003 0.936 -20.003 0.342 69.39
6550 0.345 69.201 0.935 -20.198 0.935 -20.198 0.345 69.201
6600 0.348 69.012 0.934 -20.393 0.934 -20.393 0.348 69.012
6650 0.352 68.824 0.933 -20.586 0.933 -20.586 0.352 68.824
6700 0.355 68.637 0.931 -20.779 0.931 -20.779 0.355 68.637
6750 0.358 68.45 0.93 -20.971 0.93 -20.971 0.358 68.45
6800 0.361 68.265 0.929 -21.162 0.929 -21.162 0.361 68.265
6850 0.364 68.08 0.928 -21.352 0.928 -21.352 0.364 68.08
6900 0.367 67.895 0.927 -21.542 0.927 -21.542 0.367 67.895
6950 0.37 67.712 0.925 -21.73 0.925 -21.73 0.37 67.712
7000 0.373 67.529 0.924 -21.918 0.924 -21.918 0.373 67.529
7050 0.376 67.347 0.923 -22.104 0.923 -22.104 0.376 67.347
7100 0.379 67.166 0.922 -22.291 0.922 -22.291 0.379 67.166
7150 0.382 66.985 0.92 -22.476 0.92 -22.476 0.382 66.985
7200 0.385 66.805 0.919 -22.66 0.919 -22.66 0.385 66.805
7250 0.388 66.626 0.918 -22.844 0.918 -22.844 0.388 66.626
7300 0.391 66.447 0.917 -23.027 0.917 -23.027 0.391 66.447
7350 0.394 66.269 0.915 -23.209 0.915 -23.209 0.394 66.269
7400 0.397 66.092 0.914 -23.39 0.914 -23.39 0.397 66.092
7450 0.4 65.916 0.913 -23.571 0.913 -23.571 0.4 65.916
7500 0.403 65.74 0.912 -23.75 0.912 -23.75 0.403 65.74
7550 0.406 65.565 0.91 -23.929 0.91 -23.929 0.406 65.565
7600 0.408 65.39 0.909 -24.108 0.909 -24.108 0.408 65.39
7650 0.411 65.217 0.908 -24.285 0.908 -24.285 0.411 65.217
7700 0.414 65.043 0.907 -24.462 0.907 -24.462 0.414 65.043
7750 0.417 64.871 0.905 -24.638 0.905 -24.638 0.417 64.871
7800 0.42 64.699 0.904 -24.813 0.904 -24.813 0.42 64.699
7850 0.422 64.528 0.903 -24.988 0.903 -24.988 0.422 64.528
7900 0.425 64.358 0.902 -25.162 0.902 -25.162 0.425 64.358
7950 0.428 64.188 0.9 -25.335 0.9 -25.335 0.428 64.188
8000 0.431 64.019 0.899 -25.508 0.899 -25.508 0.431 64.019
8050 0.433 63.85 0.898 -25.679 0.898 -25.679 0.433 63.85
8100 0.436 63.682 0.896 -25.851 0.896 -25.851 0.436 63.682
8150 0.439 63.515 0.895 -26.021 0.895 -26.021 0.439 63.515
8200 0.441 63.349 0.894 -26.191 0.894 -26.191 0.441 63.349
8250 0.444 63.183 0.892 -26.36 0.892 -26.36 0.444 63.183
8300 0.447 63.017 0.891 -26.528 0.891 -26.528 0.447 63.017
8350 0.449 62.853 0.89 -26.696 0.89 -26.696 0.449 62.853
8400 0.452 62.688 0.889 -26.863 0.889 -26.863 0.452 62.688
8450 0.454 62.525 0.887 -27.029 0.887 -27.029 0.454 62.525
8500 0.457 62.362 0.886 -27.195 0.886 -27.195 0.457 62.362
8550 0.46 62.2 0.885 -27.36 0.885 -27.36 0.46 62.2
8600 0.462 62.038 0.883 -27.524 0.883 -27.524 0.462 62.038
8650 0.465 61.877 0.882 -27.688 0.882 -27.688 0.465 61.877
8700 0.467 61.717 0.881 -27.851 0.881 -27.851 0.467 61.717
8750 0.47 61.557 0.879 -28.013 0.879 -28.013 0.47 61.557
8800 0.472 61.398 0.878 -28.175 0.878 -28.175 0.472 61.398
8850 0.475 61.239 0.877 -28.336 0.877 -28.336 0.475 61.239
8900 0.477 61.081 0.875 -28.497 0.875 -28.497 0.477 61.081
8950 0.48 60.924 0.874 -28.657 0.874 -28.657 0.48 60.924
9000 0.482 60.767 0.873 -28.816 0.873 -28.816 0.482 60.767
9050 0.484 60.611 0.871 -28.975 0.871 -28.975 0.484 60.611
9100 0.487 60.455 0.87 -29.133 0.87 -29.133 0.487 60.455
9150 0.489 60.3 0.869 -29.29 0.869 -29.29 0.489 60.3
9200 0.492 60.146 0.867 -29.447 0.867 -29.447 0.492 60.146
9250 0.494 59.992 0.866 -29.603 0.866 -29.603 0.494 59.992
9300 0.496 59.838 0.865 -29.758 0.865 -29.758 0.496 59.838
9350 0.499 59.686 0.863 -29.913 0.863 -29.913 0.499 59.686
9400 0.501 59.533 0.862 -30.068 0.862 -30.068 0.501 59.533
9450 0.503 59.382 0.861 -30.222 0.861 -30.222 0.503 59.382
9500 0.506 59.231 0.859 -30.375 0.859 -30.375 0.506 59.231
9550 0.508 59.08 0.858 -30.527 0.858 -30.527 0.508 59.08
9600 0.51 58.93 0.857 -30.679 0.857 -30.679 0.51 58.93
9650 0.513 58.781 0.855 -30.831 0.855 -30.831 0.513 58.781
9700 0.515 58.632 0.854 -30.982 0.854 -30.982 0.515 58.632
9750 0.517 58.484 0.853 -31.132 0.853 -31.132 0.517 58.484
9800 0.519 58.336 0.851 -31.281 0.851 -31.281 0.519 58.336
9850 0.521 58.189 0.85 -31.431 0.85 -31.431 0.521 58.189
9900 0.524 58.043 0.848 -31.579 0.848 -31.579 0.524 58.043
9950 0.526 57.896 0.847 -31.727 0.847 -31.727 0.526 57.896
10000 0.528 57.751 0.846 -31.874 0.846 -31.874 0.528 57.751
10050 0.53 57.606 0.844 -32.021 0.844 -32.021 0.53 57.606
10100 0.532 57.462 0.843 -32.167 0.843 -32.167 0.532 57.462
10150 0.535 57.318 0.842 -32.313 0.842 -32.313 0.535 57.318
10200 0.537 57.174 0.84 -32.458 0.84 -32.458 0.537 57.174
10250 0.539 57.031 0.839 -32.603 0.839 -32.603 0.539 57.031
10300 0.541 56.889 0.838 -32.747 0.838 -32.747 0.541 56.889
10350 0.543 56.747 0.836 -32.89 0.836 -32.89 0.543 56.747
10400 0.545 56.606 0.835 -33.033 0.835 -33.033 0.545 56.606
10450 0.547 56.465 0.834 -33.176 0.834 -33.176 0.547 56.465
10500 0.549 56.325 0.832 -33.318 0.832 -33.318 0.549 56.325
10550 0.551 56.186 0.831 -33.459 0.831 -33.459 0.551 56.186
10600 0.553 56.046 0.83 -33.6 0.83 -33.6 0.553 56.046
10650 0.555 55.908 0.828 -33.74 0.828 -33.74 0.555 55.908
10700 0.557 55.77 0.827 -33.88 0.827 -33.88 0.557 55.77
10750 0.559 55.632 0.825 -34.019 0.825 -34.019 0.559 55.632
10800 0.561 55.495 0.824 -34.158 0.824 -34.158 0.561 55.495
10850 0.563 55.358 0.823 -34.296 0.823 -34.296 0.563 55.358
10900 0.565 55.222 0.821 -34.433 0.821 -34.433 0.565 55.222
10950 0.567 55.087 0.82 -34.57 0.82 -34.57 0.567 55.087
11000 0.569 54.952 0.819 -34.707 0.819 -34.707 0.569 54.952
11050 0.571 54.817 0.817 -34.843 0.817 -34.843 0.571 54.817
11100 0.573 54.683 0.816 -34.978 0.816 -34.978 0.573 54.683
11150 0.575 54.549 0.815 -35.114 0.815 -35.114 0.575 54.549
11200 0.577 54.416 0.813 -35.248 0.813 -35.248 0.577 54.416
11250 0.579 54.284 0.812 -35.382 0.812 -35.382 0.579 54.284
11300 0.581 54.152 0.811 -35.516 0.811 -35.516 0.581 54.152
11350 0.583 54.02 0.809 -35.649 0.809 -35.649 0.583 54.02
11400 0.585 53.889 0.808 -35.781 0.808 -35.781 0.585 53.889
11450 0.587 53.758 0.807 -35.913 0.807 -35.913 0.587 53.758
11500 0.588 53.628 0.805 -36.045 0.805 -36.045 0.588 53.628
11550 0.59 53.498 0.804 -36.176 0.804 -36.176 0.59 53.498
11600 0.592 53.369 0.803 -36.306 0.803 -36.306 0.592 53.369
11650 0.594 53.24 0.801 -36.436 0.801 -36.436 0.594 53.24
11700 0.596 53.112 0.8 -36.566 0.8 -36.566 0.596 53.112
11750 0.598 52.984 0.798 -36.695 0.798 -36.695 0.598 52.984
11800 0.599 52.857 0.797 -36.823 0.797 -36.823 0.599 52.857
11850 0.601 52.73 0.796 -36.951 0.796 -36.951 0.601 52.73
11900 0.603 52.604 0.794 -37.079 0.794 -37.079 0.603 52.604
11950 0.605 52.478 0.793 -37.206 0.793 -37.206 0.605 52.478
12000 0.606 52.352 0.792 -37.333 0.792 -37.333 0.606 52.352
12050 0.608 52.227 0.79 -37.459 0.79 -37.459 0.608 52.227
12100 0.61 52.103 0.789 -37.585 0.789 -37.585 0.61 52.103
12150 0.612 51.979 0.788 -37.71 0.788 -37.71 0.612 51.979
12200 0.613 51.855 0.786 -37.835 0.786 -37.835 0.613 51.855
12250 0.615 51.732 0.785 -37.959 0.785 -37.959 0.615 51.732
12300 0.617 51.609 0.784 -38.083 0.784 -38.083 0.617 51.609
12350 0.619 51.487 0.782 -38.206 0.782 -38.206 0.619 51.487
12400 0.62 51.365 0.781 -38.329 0.781 -38.329 0.62 51.365
12450 0.622 51.244 0.78 -38.452 0.78 -38.452 0.622 51.244
12500 0.624 51.123 0.779 -38.574 0.779 -38.574 0.624 51.123
12550 0.625 51.003 0.777 -38.695 0.777 -38.695 0.625 51.003
12600 0.627 50.883 0.776 -38.816 0.776 -38.816 0.627 50.883
12650 0.628 50.763 0.775 -38.937 0.775 -38.937 0.628 50.763
12700 0.63 50.644 0.773 -39.057 0.773 -39.057 0.63 50.644
12750 0.632 50.525 0.772 -39.177 0.772 -39.177 0.632 50.525
12800 0.633 50.407 0.771 -39.296 0.771 -39.296 0.633 50.407
12850 0.635 50.289 0.769 -39.415 0.769 -39.415 0.635 50.289
12900 0.637 50.172 0.768 -39.533 0.768 -39.533 0.637 50.172
12950 0.638 50.055 0.767 -39.651 0.767 -39.651 0.638 50.055
13000 0.64 49.938 0.765 -39.769 0.765 -39.769 0.64 49.938
13050 0.641 49.822 0.764 -39.886 0.764 -39.886 0.641 49.822
13100 0.643 49.706 0.763 -40.003 0.763 -40.003 0.643 49.706
13150 0.644 49.591 0.761 -40.119 0.761 -40.119 0.644 49.591
13200 0.646 49.476 0.76 -40.235 0.76 -40.235 0.646 49.476
13250 0.647 49.362 0.759 -40.35 0.759 -40.35 0.647 49.362
13300 0.649 49.248 0.758 -40.465 0.758 -40.465 0.649 49.248
13350 0.651 49.134 0.756 -40.58 0.756 -40.58 0.651 49.134
13400 0.652 49.021 0.755 -40.694 0.755 -40.694 0.652 49.021
13450 0.654 48.908 0.754 -40.808 0.754 -40.808 0.654 48.908
13500 0.655 48.796 0.752 -40.921 0.752 -40.921 0.655 48.796
13550 0.657 48.684 0.751 -41.034 0.751 -41.034 0.657 48.684
13600 0.658 48.572 0.75 -41.146 0.75 -41.146 0.658 48.572
13650 0.659 48.461 0.749 -41.258 0.749 -41.258 0.659 48.461
13700 0.661 48.35 0.747 -41.37 0.747 -41.37 0.661 48.35
13750 0.662 48.24 0.746 -41.481 0.746 -41.481 0.662 48.24
13800 0.664 48.13 0.745 -41.592 0.745 -41.592 0.664 48.13
13850 0.665 48.021 0.743 -41.702 0.743 -41.702 0.665 48.021
13900 0.667 47.912 0.742 -41.812 0.742 -41.812 0.667 47.912
13950 0.668 47.803 0.741 -41.922 0.741 -41.922 0.668 47.803
14000 0.67 47.695 0.74 -42.031 0.74 -42.031 0.67 47.695
14050 0.671 47.587 0.738 -42.14 0.738 -42.14 0.671 47.587
14100 0.672 47.479 0.737 -42.248 0.737 -42.248 0.672 47.479
14150 0.674 47.372 0.736 -42.356 0.736 -42.356 0.674 47.372
14200 0.675 47.265 0.735 -42.464 0.735 -42.464 0.675 47.265
14250 0.677 47.159 0.733 -42.571 0.733 -42.571 0.677 47.159
14300 0.678 47.053 0.732 -42.678 0.732 -42.678 0.678 47.053
14350 0.679 46.947 0.731 -42.784 0.731 -42.784 0.679 46.947
14400 0.681 46.842 0.729 -42.89 0.729 -42.89 0.681 46.842
14450 0.682 46.737 0.728 -42.996 0.728 -42.996 0.682 46.737
14500 0.683 46.633 0.727 -43.101 0.727 -43.101 0.683 46.633
14550 0.685 46.529 0.726 -43.206 0.726 -43.206 0.685 46.529
14600 0.686 46.425 0.724 -43.31 0.724 -43.31 0.686 46.425
14650 0.687 46.322 0.723 -43.414 0.723 -43.414 0.687 46.322
14700 0.689 46.219 0.722 -43.518 0.722 -43.518 0.689 46.219
14750 0.69 46.116 0.721 -43.621 0.721 -43.621 0.69 46.116
14800 0.691 46.014 0.72 -43.724 0.72 -43.724 0.691 46.014
14850 0.692 45.912 0.718 -43.827 0.718 -43.827 0.692 45.912
14900 0.694 45.81 0.717 -43.929 0.717 -43.929 0.694 45.81
14950 0.695 45.709 0.716 -44.031 0.716 -44.031 0.695 45.709
15000 0.696 45.609 0.715 -44.133 0.715 -44.133 0.696 45.609
15050 0.698 45.508 0.713 -44.234 0.713 -44.234 0.698 45.508
15100 0.699 45.408 0.712 -44.334 0.712 -44.334 0.699 45.408
15150 0.7 45.309 0.711 -44.435 0.711 -44.435 0.7 45.309
15200 0.701 45.209 0.71 -44.535 0.71 -44.535 0.701 45.209
15250 0.703 45.11 0.708 -44.634 0.708 -44.634 0.703 45.11
15300 0.704 45.012 0.707 -44.734 0.707 -44.734 0.704 45.012
15350 0.705 44.913 0.706 -44.833 0.706 -44.833 0.705 44.913
15400 0.706 44.816 0.705 -44.931 0.705 -44.931 0.706 44.816
15450 0.707 44.718 0.704 -45.03 0.704 -45.03 0.707 44.718
15500 0.709 44.621 0.702 -45.127 0.702 -45.127 0.709 44.621
15550 0.71 44.524 0.701 -45.225 0.701 -45.225 0.71 44.524
15600 0.711 44.427 0.7 -45.322 0.7 -45.322 0.711 44.427
15650 0.712 44.331 0.699 -45.419 0.699 -45.419 0.712 44.331
15700 0.713 44.235 0.698 -45.515 0.698 -45.515 0.713 44.235
15750 0.715 44.14 0.696 -45.611 0.696 -45.611 0.715 44.14
15800 0.716 44.045 0.695 -45.707 0.695 -45.707 0.716 44.045
15850 0.717 43.95 0.694 -45.803 0.694 -45.803 0.717 43.95
15900 0.718 43.856 0.693 -45.898 0.693 -45.898 0.718 43.856
15950 0.719 43.762 0.692 -45.993 0.692 -45.993 0.719 43.762
16000 0.72 43.668 0.69 -46.087 0.69 -46.087 0.72 43.668
16050 0.722 43.574 0.689 -46.181 0.689 -46.181 0.722 43.574
16100 0.723 43.481 0.688 -46.275 0.688 -46.275 0.723 43.481
16150 0.724 43.388 0.687 -46.368 0.687 -46.368 0.724 43.388
16200 0.725 43.296 0.686 -46.461 0.686 -46.461 0.725 43.296
16250 0.726 43.204 0.685 -46.554 0.685 -46.554 0.726 43.204
16300 0.727 43.112 0.683 -46.646 0.683 -46.646 0.727 43.112
16350 0.728 43.021 0.682 -46.738 0.682 -46.738 0.728 43.021
16400 0.729 42.929 0.681 -46.83 0.681 -46.83 0.729 42.929
16450 0.73 42.839 0.68 -46.922 0.68 -46.922 0.73 42.839
16500 0.732 42.748 0.679 -47.013 0.679 -47.013 0.732 42.748
16550 0.733 42.658 0.678 -47.103 0.678 -47.103 0.733 42.658
16600 0.734 42.568 0.676 -47.194 0.676 -47.194 0.734 42.568
16650 0.735 42.478 0.675 -47.284 0.675 -47.284 0.735 42.478
16700 0.736 42.389 0.674 -47.374 0.674 -47.374 0.736 42.389
16750 0.737 42.3 0.673 -47.463 0.673 -47.463 0.737 42.3
16800 0.738 42.212 0.672 -47.553 0.672 -47.553 0.738 42.212
16850 0.739 42.123 0.671 -47.641 0.671 -47.641 0.739 42.123
16900 0.74 42.035 0.67 -47.73 0.67 -47.73 0.74 42.035
