! AVX Thin Film Operation		Date: April 2012 
! Description: Accu-P® Series, Thin Film, SMD, RF Capacitor
! Part Number: 12101J6R2BBTTR					
!	100	MHz	-	10.05	GHz			
!	Serial	Measurements						
!								
#	MHZ	S	MA	R	50			
!	S11	S21	S12	S22				
!	dB	Phase	dB	Phase	dB	Phase	dB	Phase
100	0.931	-21.334	0.364	68.641	0.364	68.641	0.931	-21.334
109.812	0.919	-23.226	0.394	66.747	0.394	66.747	0.919	-23.226
119.623	0.906	-25.068	0.424	64.903	0.424	64.903	0.906	-25.068
129.435	0.892	-26.859	0.452	63.109	0.452	63.109	0.892	-26.859
139.247	0.878	-28.599	0.479	61.366	0.479	61.366	0.878	-28.599
149.058	0.863	-30.287	0.504	59.676	0.504	59.676	0.863	-30.287
158.87	0.848	-31.922	0.529	58.038	0.529	58.038	0.848	-31.922
168.682	0.833	-33.505	0.552	56.453	0.552	56.453	0.833	-33.505
178.494	0.818	-35.036	0.574	54.919	0.574	54.919	0.818	-35.036
188.305	0.803	-36.516	0.595	53.437	0.595	53.437	0.803	-36.516
198.117	0.788	-37.945	0.615	52.005	0.615	52.005	0.788	-37.945
207.929	0.773	-39.325	0.634	50.623	0.634	50.623	0.773	-39.325
217.74	0.758	-40.657	0.652	49.289	0.652	49.289	0.758	-40.657
227.552	0.743	-41.942	0.668	48.002	0.668	48.002	0.743	-41.942
237.364	0.728	-43.181	0.684	46.76	0.684	46.76	0.728	-43.181
247.175	0.714	-44.376	0.699	45.562	0.699	45.562	0.714	-44.376
256.987	0.7	-45.529	0.714	44.407	0.714	44.407	0.7	-45.529
266.799	0.686	-46.64	0.727	43.293	0.727	43.293	0.686	-46.64
276.611	0.672	-47.712	0.74	42.218	0.74	42.218	0.672	-47.712
286.422	0.658	-48.746	0.752	41.182	0.752	41.182	0.658	-48.746
296.234	0.645	-49.743	0.763	40.182	0.763	40.182	0.645	-49.743
306.046	0.632	-50.706	0.774	39.217	0.774	39.217	0.632	-50.706
315.857	0.62	-51.634	0.784	38.286	0.784	38.286	0.62	-51.634
325.669	0.607	-52.531	0.794	37.387	0.794	37.387	0.607	-52.531
335.481	0.595	-53.396	0.803	36.519	0.803	36.519	0.595	-53.396
345.292	0.583	-54.232	0.811	35.68	0.811	35.68	0.583	-54.232
355.104	0.572	-55.039	0.82	34.87	0.82	34.87	0.572	-55.039
364.916	0.56	-55.82	0.827	34.087	0.827	34.087	0.56	-55.82
374.727	0.549	-56.574	0.835	33.33	0.835	33.33	0.549	-56.574
384.539	0.539	-57.304	0.842	32.598	0.842	32.598	0.539	-57.304
394.351	0.528	-58.01	0.848	31.889	0.848	31.889	0.528	-58.01
404.163	0.518	-58.693	0.854	31.203	0.854	31.203	0.518	-58.693
413.974	0.508	-59.354	0.86	30.539	0.86	30.539	0.508	-59.354
423.786	0.498	-59.995	0.866	29.896	0.866	29.896	0.498	-59.995
433.598	0.489	-60.615	0.871	29.272	0.871	29.272	0.489	-60.615
443.409	0.48	-61.217	0.876	28.668	0.876	28.668	0.48	-61.217
453.221	0.471	-61.8	0.881	28.082	0.881	28.082	0.471	-61.8
463.033	0.462	-62.366	0.886	27.513	0.886	27.513	0.462	-62.366
472.844	0.453	-62.915	0.89	26.961	0.89	26.961	0.453	-62.915
482.656	0.445	-63.449	0.895	26.425	0.895	26.425	0.445	-63.449
492.468	0.437	-63.966	0.899	25.904	0.899	25.904	0.437	-63.966
502.279	0.429	-64.47	0.902	25.398	0.902	25.398	0.429	-64.47
512.091	0.421	-64.958	0.906	24.906	0.906	24.906	0.421	-64.958
521.903	0.414	-65.434	0.909	24.427	0.909	24.427	0.414	-65.434
531.715	0.406	-65.896	0.913	23.962	0.913	23.962	0.406	-65.896
541.526	0.399	-66.346	0.916	23.509	0.916	23.509	0.399	-66.346
551.338	0.392	-66.784	0.919	23.068	0.919	23.068	0.392	-66.784
561.15	0.385	-67.211	0.922	22.638	0.922	22.638	0.385	-67.211
570.961	0.378	-67.626	0.925	22.22	0.925	22.22	0.378	-67.626
580.773	0.372	-68.031	0.927	21.812	0.927	21.812	0.372	-68.031
590.585	0.365	-68.426	0.93	21.414	0.93	21.414	0.365	-68.426
600.396	0.359	-68.81	0.932	21.026	0.932	21.026	0.359	-68.81
610.208	0.353	-69.186	0.935	20.647	0.935	20.647	0.353	-69.186
620.02	0.347	-69.552	0.937	20.278	0.937	20.278	0.347	-69.552
629.832	0.341	-69.909	0.939	19.917	0.939	19.917	0.341	-69.909
639.643	0.335	-70.258	0.941	19.564	0.941	19.564	0.335	-70.258
649.455	0.329	-70.599	0.943	19.22	0.943	19.22	0.329	-70.599
659.267	0.324	-70.932	0.945	18.884	0.945	18.884	0.324	-70.932
669.078	0.318	-71.258	0.947	18.555	0.947	18.555	0.318	-71.258
678.89	0.313	-71.576	0.949	18.233	0.949	18.233	0.313	-71.576
688.702	0.308	-71.887	0.95	17.918	0.95	17.918	0.308	-71.887
698.513	0.303	-72.191	0.952	17.61	0.952	17.61	0.303	-72.191
708.325	0.298	-72.489	0.954	17.309	0.954	17.309	0.298	-72.489
718.137	0.293	-72.781	0.955	17.013	0.955	17.013	0.293	-72.781
727.948	0.288	-73.066	0.957	16.724	0.957	16.724	0.288	-73.066
737.76	0.283	-73.346	0.958	16.441	0.958	16.441	0.283	-73.346
747.572	0.278	-73.619	0.959	16.163	0.959	16.163	0.278	-73.619
757.384	0.274	-73.888	0.961	15.891	0.961	15.891	0.274	-73.888
767.195	0.269	-74.15	0.962	15.624	0.962	15.624	0.269	-74.15
777.007	0.265	-74.408	0.963	15.363	0.963	15.363	0.265	-74.408
786.819	0.261	-74.661	0.964	15.106	0.964	15.106	0.261	-74.661
796.63	0.256	-74.908	0.966	14.854	0.966	14.854	0.256	-74.908
806.442	0.252	-75.152	0.967	14.607	0.967	14.607	0.252	-75.152
816.254	0.248	-75.39	0.968	14.364	0.968	14.364	0.248	-75.39
826.065	0.244	-75.624	0.969	14.126	0.969	14.126	0.244	-75.624
835.877	0.24	-75.854	0.97	13.891	0.97	13.891	0.24	-75.854
845.689	0.236	-76.079	0.971	13.661	0.971	13.661	0.236	-76.079
855.5	0.232	-76.301	0.972	13.435	0.972	13.435	0.232	-76.301
865.312	0.229	-76.519	0.972	13.213	0.972	13.213	0.229	-76.519
875.124	0.225	-76.733	0.973	12.995	0.973	12.995	0.225	-76.733
884.936	0.221	-76.943	0.974	12.78	0.974	12.78	0.221	-76.943
894.747	0.218	-77.149	0.975	12.568	0.975	12.568	0.218	-77.149
904.559	0.214	-77.352	0.976	12.36	0.976	12.36	0.214	-77.352
914.371	0.211	-77.552	0.977	12.156	0.977	12.156	0.211	-77.552
924.182	0.207	-77.748	0.977	11.954	0.977	11.954	0.207	-77.748
933.994	0.204	-77.941	0.978	11.756	0.978	11.756	0.204	-77.941
943.806	0.2	-78.131	0.979	11.561	0.979	11.561	0.2	-78.131
953.617	0.197	-78.318	0.979	11.369	0.979	11.369	0.197	-78.318
963.429	0.194	-78.502	0.98	11.179	0.98	11.179	0.194	-78.502
973.241	0.191	-78.683	0.981	10.993	0.981	10.993	0.191	-78.683
983.053	0.188	-78.861	0.981	10.809	0.981	10.809	0.188	-78.861
992.864	0.184	-79.037	0.982	10.628	0.982	10.628	0.184	-79.037
1002.676	0.181	-79.209	0.982	10.449	0.982	10.449	0.181	-79.209
1012.488	0.178	-79.379	0.983	10.273	0.983	10.273	0.178	-79.379
1022.299	0.175	-79.547	0.983	10.099	0.983	10.099	0.175	-79.547
1032.111	0.172	-79.712	0.984	9.928	0.984	9.928	0.172	-79.712
1041.923	0.17	-79.875	0.984	9.759	0.984	9.759	0.17	-79.875
1051.734	0.167	-80.035	0.985	9.593	0.985	9.593	0.167	-80.035
1061.546	0.164	-80.193	0.985	9.428	0.985	9.428	0.164	-80.193
1071.358	0.161	-80.348	0.986	9.266	0.986	9.266	0.161	-80.348
1081.169	0.158	-80.502	0.986	9.106	0.986	9.106	0.158	-80.502
1090.981	0.156	-80.653	0.987	8.947	0.987	8.947	0.156	-80.653
1100.793	0.153	-80.802	0.987	8.791	0.987	8.791	0.153	-80.802
1110.605	0.15	-80.949	0.988	8.637	0.988	8.637	0.15	-80.949
1120.416	0.148	-81.093	0.988	8.484	0.988	8.484	0.148	-81.093
1130.228	0.145	-81.236	0.988	8.334	0.988	8.334	0.145	-81.236
1140.04	0.142	-81.377	0.989	8.185	0.989	8.185	0.142	-81.377
1149.851	0.14	-81.516	0.989	8.038	0.989	8.038	0.14	-81.516
1159.663	0.137	-81.653	0.989	7.893	0.989	7.893	0.137	-81.653
1169.475	0.135	-81.788	0.99	7.749	0.99	7.749	0.135	-81.788
1179.286	0.132	-81.921	0.99	7.608	0.99	7.608	0.132	-81.921
1189.098	0.13	-82.052	0.99	7.467	0.99	7.467	0.13	-82.052
1198.91	0.128	-82.182	0.991	7.328	0.991	7.328	0.128	-82.182
1208.722	0.125	-82.31	0.991	7.191	0.991	7.191	0.125	-82.31
1218.533	0.123	-82.436	0.991	7.056	0.991	7.056	0.123	-82.436
1228.345	0.121	-82.56	0.992	6.921	0.992	6.921	0.121	-82.56
1238.157	0.118	-82.683	0.992	6.788	0.992	6.788	0.118	-82.683
1247.968	0.116	-82.804	0.992	6.657	0.992	6.657	0.116	-82.804
1257.78	0.114	-82.923	0.992	6.527	0.992	6.527	0.114	-82.923
1267.592	0.111	-83.04	0.993	6.398	0.993	6.398	0.111	-83.04
1277.403	0.109	-83.156	0.993	6.271	0.993	6.271	0.109	-83.156
1287.215	0.107	-83.271	0.993	6.145	0.993	6.145	0.107	-83.271
1297.027	0.105	-83.383	0.993	6.02	0.993	6.02	0.105	-83.383
1306.838	0.103	-83.494	0.994	5.896	0.994	5.896	0.103	-83.494
1316.65	0.101	-83.604	0.994	5.773	0.994	5.773	0.101	-83.604
1326.462	0.098	-83.712	0.994	5.652	0.994	5.652	0.098	-83.712
1336.274	0.096	-83.818	0.994	5.532	0.994	5.532	0.096	-83.818
1346.085	0.094	-83.922	0.994	5.413	0.994	5.413	0.094	-83.922
1355.897	0.092	-84.026	0.995	5.295	0.995	5.295	0.092	-84.026
1365.709	0.09	-84.127	0.995	5.178	0.995	5.178	0.09	-84.127
1375.52	0.088	-84.227	0.995	5.062	0.995	5.062	0.088	-84.227
1385.332	0.086	-84.325	0.995	4.948	0.995	4.948	0.086	-84.325
1395.144	0.084	-84.421	0.995	4.834	0.995	4.834	0.084	-84.421
1404.955	0.082	-84.516	0.996	4.721	0.996	4.721	0.082	-84.516
1414.767	0.08	-84.61	0.996	4.609	0.996	4.609	0.08	-84.61
1424.579	0.078	-84.701	0.996	4.499	0.996	4.499	0.078	-84.701
1434.39	0.077	-84.791	0.996	4.389	0.996	4.389	0.077	-84.791
1444.202	0.075	-84.879	0.996	4.28	0.996	4.28	0.075	-84.879
1454.014	0.073	-84.965	0.996	4.172	0.996	4.172	0.073	-84.965
1463.826	0.071	-85.049	0.996	4.065	0.996	4.065	0.071	-85.049
1473.637	0.069	-85.132	0.997	3.958	0.997	3.958	0.069	-85.132
1483.449	0.067	-85.212	0.997	3.853	0.997	3.853	0.067	-85.212
1493.261	0.065	-85.291	0.997	3.748	0.997	3.748	0.065	-85.291
1503.072	0.064	-85.367	0.997	3.645	0.997	3.645	0.064	-85.367
1512.884	0.062	-85.441	0.997	3.542	0.997	3.542	0.062	-85.441
1522.696	0.06	-85.513	0.997	3.439	0.997	3.439	0.06	-85.513
1532.507	0.058	-85.582	0.997	3.338	0.997	3.338	0.058	-85.582
1542.319	0.056	-85.649	0.997	3.237	0.997	3.237	0.056	-85.649
1552.131	0.055	-85.714	0.997	3.137	0.997	3.137	0.055	-85.714
1561.943	0.053	-85.775	0.997	3.038	0.997	3.038	0.053	-85.775
1571.754	0.051	-85.834	0.998	2.94	0.998	2.94	0.051	-85.834
1581.566	0.05	-85.89	0.998	2.842	0.998	2.842	0.05	-85.89
1591.378	0.048	-85.942	0.998	2.745	0.998	2.745	0.048	-85.942
1601.189	0.046	-85.99	0.998	2.649	0.998	2.649	0.046	-85.99
1611.001	0.045	-86.035	0.998	2.553	0.998	2.553	0.045	-86.035
1620.813	0.043	-86.075	0.998	2.458	0.998	2.458	0.043	-86.075
1630.624	0.041	-86.111	0.998	2.364	0.998	2.364	0.041	-86.111
1640.436	0.04	-86.142	0.998	2.27	0.998	2.27	0.04	-86.142
1650.248	0.038	-86.167	0.998	2.177	0.998	2.177	0.038	-86.167
1660.059	0.036	-86.186	0.998	2.084	0.998	2.084	0.036	-86.186
1669.871	0.035	-86.198	0.998	1.993	0.998	1.993	0.035	-86.198
1679.683	0.033	-86.202	0.998	1.901	0.998	1.901	0.033	-86.202
1689.495	0.032	-86.198	0.998	1.811	0.998	1.811	0.032	-86.198
1699.306	0.03	-86.184	0.998	1.721	0.998	1.721	0.03	-86.184
1709.118	0.028	-86.159	0.998	1.631	0.998	1.631	0.028	-86.159
1718.93	0.027	-86.12	0.999	1.542	0.999	1.542	0.027	-86.12
1728.741	0.025	-86.066	0.999	1.454	0.999	1.454	0.025	-86.066
1738.553	0.024	-85.995	0.999	1.366	0.999	1.366	0.024	-85.995
1748.365	0.022	-85.902	0.999	1.278	0.999	1.278	0.022	-85.902
1758.176	0.021	-85.784	0.999	1.191	0.999	1.191	0.021	-85.784
1767.988	0.019	-85.634	0.999	1.105	0.999	1.105	0.019	-85.634
1777.8	0.018	-85.446	0.999	1.019	0.999	1.019	0.018	-85.446
1787.611	0.016	-85.209	0.999	0.934	0.999	0.934	0.016	-85.209
1797.423	0.015	-84.91	0.999	0.849	0.999	0.849	0.015	-84.91
1807.235	0.013	-84.529	0.999	0.765	0.999	0.765	0.013	-84.529
1817.047	0.012	-84.036	0.999	0.681	0.999	0.681	0.012	-84.036
1826.858	0.01	-83.387	0.999	0.598	0.999	0.598	0.01	-83.387
1836.67	9.05E-03	-82.51	0.999	0.515	0.999	0.515	9.05E-03	-82.51
1846.482	7.62E-03	-81.278	0.999	0.432	0.999	0.432	7.62E-03	-81.278
1856.293	6.21E-03	-79.455	0.999	0.35	0.999	0.35	6.21E-03	-79.455
1866.105	4.81E-03	-76.535	0.999	0.269	0.999	0.269	4.81E-03	-76.535
1875.917	3.45E-03	-71.239	0.999	0.187	0.999	0.187	3.45E-03	-71.239
1885.728	2.16E-03	-59.337	0.999	0.107	0.999	0.107	2.16E-03	-59.337
1895.54	1.19E-03	-22.683	0.999	0.026	0.999	0.026	1.19E-03	-22.683
1905.352	1.44E-03	40.319	0.999	-0.054	0.999	-0.054	1.44E-03	40.319
1915.164	2.57E-03	64.535	0.999	-0.133	0.999	-0.133	2.57E-03	64.535
1924.975	3.86E-03	73.253	0.999	-0.212	0.999	-0.212	3.86E-03	73.253
1934.787	5.19E-03	77.491	0.999	-0.291	0.999	-0.291	5.19E-03	77.491
1944.599	6.54E-03	79.949	0.999	-0.369	0.999	-0.369	6.54E-03	79.949
1954.41	7.88E-03	81.534	0.999	-0.447	0.999	-0.447	7.88E-03	81.534
1964.222	9.22E-03	82.63	0.999	-0.525	0.999	-0.525	9.22E-03	82.63
1974.034	0.011	83.424	0.999	-0.602	0.999	-0.602	0.011	83.424
1983.845	0.012	84.019	0.999	-0.678	0.999	-0.678	0.012	84.019
1993.657	0.013	84.477	0.999	-0.755	0.999	-0.755	0.013	84.477
2003.469	0.015	84.836	0.999	-0.831	0.999	-0.831	0.015	84.836
2013.28	0.016	85.121	0.999	-0.907	0.999	-0.907	0.016	85.121
2023.092	0.017	85.349	0.999	-0.982	0.999	-0.982	0.017	85.349
2032.904	0.018	85.534	0.999	-1.057	0.999	-1.057	0.018	85.534
2042.716	0.02	85.684	0.999	-1.132	0.999	-1.132	0.02	85.684
2052.527	0.021	85.805	0.999	-1.206	0.999	-1.206	0.021	85.805
2062.339	0.022	85.904	0.999	-1.28	0.999	-1.28	0.022	85.904
2072.151	0.024	85.983	0.999	-1.354	0.999	-1.354	0.024	85.983
2081.962	0.025	86.047	0.999	-1.427	0.999	-1.427	0.025	86.047
2091.774	0.026	86.097	0.999	-1.5	0.999	-1.5	0.026	86.097
2101.586	0.027	86.135	0.999	-1.573	0.999	-1.573	0.027	86.135
2111.397	0.029	86.163	0.998	-1.645	0.998	-1.645	0.029	86.163
2121.209	0.03	86.183	0.998	-1.717	0.998	-1.717	0.03	86.183
2131.021	0.031	86.196	0.998	-1.789	0.998	-1.789	0.031	86.196
2140.833	0.032	86.202	0.998	-1.861	0.998	-1.861	0.032	86.202
2150.644	0.034	86.202	0.998	-1.932	0.998	-1.932	0.034	86.202
2160.456	0.035	86.197	0.998	-2.003	0.998	-2.003	0.035	86.197
2170.268	0.036	86.188	0.998	-2.073	0.998	-2.073	0.036	86.188
2180.079	0.037	86.174	0.998	-2.144	0.998	-2.144	0.037	86.174
2189.891	0.039	86.158	0.998	-2.214	0.998	-2.214	0.039	86.158
2199.703	0.04	86.138	0.998	-2.284	0.998	-2.284	0.04	86.138
2209.514	0.041	86.115	0.998	-2.353	0.998	-2.353	0.041	86.115
2219.326	0.042	86.089	0.998	-2.422	0.998	-2.422	0.042	86.089
2229.138	0.043	86.062	0.998	-2.491	0.998	-2.491	0.043	86.062
2238.949	0.045	86.032	0.998	-2.56	0.998	-2.56	0.045	86.032
2248.761	0.046	86	0.998	-2.629	0.998	-2.629	0.046	86
2258.573	0.047	85.967	0.998	-2.697	0.998	-2.697	0.047	85.967
2268.385	0.048	85.931	0.998	-2.765	0.998	-2.765	0.048	85.931
2278.196	0.049	85.895	0.998	-2.833	0.998	-2.833	0.049	85.895
2288.008	0.051	85.857	0.998	-2.9	0.998	-2.9	0.051	85.857
2297.82	0.052	85.818	0.998	-2.967	0.998	-2.967	0.052	85.818
2307.631	0.053	85.778	0.998	-3.034	0.998	-3.034	0.053	85.778
2317.443	0.054	85.737	0.997	-3.101	0.997	-3.101	0.054	85.737
2327.255	0.055	85.695	0.997	-3.167	0.997	-3.167	0.055	85.695
2337.066	0.056	85.652	0.997	-3.234	0.997	-3.234	0.056	85.652
2346.878	0.058	85.608	0.997	-3.3	0.997	-3.3	0.058	85.608
2356.69	0.059	85.564	0.997	-3.366	0.997	-3.366	0.059	85.564
2366.501	0.06	85.519	0.997	-3.431	0.997	-3.431	0.06	85.519
2376.313	0.061	85.473	0.997	-3.497	0.997	-3.497	0.061	85.473
2386.125	0.062	85.427	0.997	-3.562	0.997	-3.562	0.062	85.427
2395.937	0.063	85.38	0.997	-3.627	0.997	-3.627	0.063	85.38
2405.748	0.064	85.333	0.997	-3.691	0.997	-3.691	0.064	85.333
2415.56	0.066	85.285	0.997	-3.756	0.997	-3.756	0.066	85.285
2425.372	0.067	85.237	0.997	-3.82	0.997	-3.82	0.067	85.237
2435.183	0.068	85.188	0.997	-3.884	0.997	-3.884	0.068	85.188
2444.995	0.069	85.139	0.997	-3.948	0.997	-3.948	0.069	85.139
2454.807	0.07	85.09	0.996	-4.012	0.996	-4.012	0.07	85.09
2464.618	0.071	85.041	0.996	-4.075	0.996	-4.075	0.071	85.041
2474.43	0.072	84.991	0.996	-4.139	0.996	-4.139	0.072	84.991
2484.242	0.073	84.941	0.996	-4.202	0.996	-4.202	0.073	84.941
2494.054	0.074	84.891	0.996	-4.265	0.996	-4.265	0.074	84.891
2503.865	0.075	84.84	0.996	-4.327	0.996	-4.327	0.075	84.84
2513.677	0.077	84.79	0.996	-4.39	0.996	-4.39	0.077	84.79
2523.489	0.078	84.739	0.996	-4.452	0.996	-4.452	0.078	84.739
2533.3	0.079	84.688	0.996	-4.514	0.996	-4.514	0.079	84.688
2543.112	0.08	84.637	0.996	-4.576	0.996	-4.576	0.08	84.637
2552.924	0.081	84.586	0.996	-4.638	0.996	-4.638	0.081	84.586
2562.735	0.082	84.534	0.996	-4.7	0.996	-4.7	0.082	84.534
2572.547	0.083	84.483	0.995	-4.761	0.995	-4.761	0.083	84.483
2582.359	0.084	84.431	0.995	-4.822	0.995	-4.822	0.084	84.431
2592.17	0.085	84.379	0.995	-4.884	0.995	-4.884	0.085	84.379
2601.982	0.086	84.328	0.995	-4.944	0.995	-4.944	0.086	84.328
2611.794	0.087	84.276	0.995	-5.005	0.995	-5.005	0.087	84.276
2621.606	0.088	84.224	0.995	-5.066	0.995	-5.066	0.088	84.224
2631.417	0.089	84.172	0.995	-5.126	0.995	-5.126	0.089	84.172
2641.229	0.09	84.12	0.995	-5.186	0.995	-5.186	0.09	84.12
2651.041	0.091	84.068	0.995	-5.246	0.995	-5.246	0.091	84.068
2660.852	0.092	84.016	0.995	-5.306	0.995	-5.306	0.092	84.016
2670.664	0.094	83.964	0.995	-5.366	0.995	-5.366	0.094	83.964
2680.476	0.095	83.911	0.994	-5.426	0.994	-5.426	0.095	83.911
2690.287	0.096	83.859	0.994	-5.485	0.994	-5.485	0.096	83.859
2700.099	0.097	83.807	0.994	-5.544	0.994	-5.544	0.097	83.807
2709.911	0.098	83.755	0.994	-5.603	0.994	-5.603	0.098	83.755
2719.722	0.099	83.702	0.994	-5.662	0.994	-5.662	0.099	83.702
2729.534	0.1	83.65	0.994	-5.721	0.994	-5.721	0.1	83.65
2739.346	0.101	83.598	0.994	-5.78	0.994	-5.78	0.101	83.598
2749.158	0.102	83.546	0.994	-5.838	0.994	-5.838	0.102	83.546
2758.969	0.103	83.493	0.994	-5.897	0.994	-5.897	0.103	83.493
2768.781	0.104	83.441	0.994	-5.955	0.994	-5.955	0.104	83.441
2778.593	0.105	83.389	0.993	-6.013	0.993	-6.013	0.105	83.389
2788.404	0.106	83.337	0.993	-6.071	0.993	-6.071	0.106	83.337
2798.216	0.107	83.285	0.993	-6.129	0.993	-6.129	0.107	83.285
2808.028	0.108	83.233	0.993	-6.187	0.993	-6.187	0.108	83.233
2817.839	0.109	83.18	0.993	-6.244	0.993	-6.244	0.109	83.18
2827.651	0.11	83.128	0.993	-6.301	0.993	-6.301	0.11	83.128
2837.463	0.111	83.076	0.993	-6.359	0.993	-6.359	0.111	83.076
2847.275	0.112	83.024	0.993	-6.416	0.993	-6.416	0.112	83.024
2857.086	0.113	82.972	0.993	-6.473	0.993	-6.473	0.113	82.972
2866.898	0.114	82.92	0.992	-6.53	0.992	-6.53	0.114	82.92
2876.71	0.115	82.868	0.992	-6.586	0.992	-6.586	0.115	82.868
2886.521	0.116	82.816	0.992	-6.643	0.992	-6.643	0.116	82.816
2896.333	0.117	82.765	0.992	-6.699	0.992	-6.699	0.117	82.765
2906.145	0.118	82.713	0.992	-6.756	0.992	-6.756	0.118	82.713
2915.956	0.119	82.661	0.992	-6.812	0.992	-6.812	0.119	82.661
2925.768	0.12	82.609	0.992	-6.868	0.992	-6.868	0.12	82.609
2935.58	0.121	82.558	0.992	-6.924	0.992	-6.924	0.121	82.558
2945.391	0.122	82.506	0.991	-6.98	0.991	-6.98	0.122	82.506
2955.203	0.122	82.454	0.991	-7.035	0.991	-7.035	0.122	82.454
2965.015	0.123	82.403	0.991	-7.091	0.991	-7.091	0.123	82.403
2974.827	0.124	82.351	0.991	-7.146	0.991	-7.146	0.124	82.351
2984.638	0.125	82.3	0.991	-7.202	0.991	-7.202	0.125	82.3
2994.45	0.126	82.248	0.991	-7.257	0.991	-7.257	0.126	82.248
3004.262	0.127	82.197	0.991	-7.312	0.991	-7.312	0.127	82.197
3014.073	0.128	82.146	0.991	-7.367	0.991	-7.367	0.128	82.146
3023.885	0.129	82.095	0.991	-7.422	0.991	-7.422	0.129	82.095
3033.697	0.13	82.043	0.99	-7.477	0.99	-7.477	0.13	82.043
3043.508	0.131	81.992	0.99	-7.531	0.99	-7.531	0.131	81.992
3053.32	0.132	81.941	0.99	-7.586	0.99	-7.586	0.132	81.941
3063.132	0.133	81.89	0.99	-7.64	0.99	-7.64	0.133	81.89
3072.944	0.134	81.839	0.99	-7.695	0.99	-7.695	0.134	81.839
3082.755	0.135	81.788	0.99	-7.749	0.99	-7.749	0.135	81.788
3092.567	0.136	81.738	0.99	-7.803	0.99	-7.803	0.136	81.738
3102.379	0.137	81.687	0.99	-7.857	0.99	-7.857	0.137	81.687
3112.19	0.138	81.636	0.989	-7.911	0.989	-7.911	0.138	81.636
3122.002	0.139	81.585	0.989	-7.965	0.989	-7.965	0.139	81.585
3131.814	0.139	81.535	0.989	-8.018	0.989	-8.018	0.139	81.535
3141.625	0.14	81.484	0.989	-8.072	0.989	-8.072	0.14	81.484
3151.437	0.141	81.434	0.989	-8.125	0.989	-8.125	0.141	81.434
3161.249	0.142	81.383	0.989	-8.179	0.989	-8.179	0.142	81.383
3171.06	0.143	81.333	0.989	-8.232	0.989	-8.232	0.143	81.333
3180.872	0.144	81.282	0.988	-8.285	0.988	-8.285	0.144	81.282
3190.684	0.145	81.232	0.988	-8.338	0.988	-8.338	0.145	81.232
3200.496	0.146	81.182	0.988	-8.391	0.988	-8.391	0.146	81.182
3210.307	0.147	81.132	0.988	-8.444	0.988	-8.444	0.147	81.132
3220.119	0.148	81.082	0.988	-8.497	0.988	-8.497	0.148	81.082
3229.931	0.149	81.032	0.988	-8.549	0.988	-8.549	0.149	81.032
3239.742	0.15	80.982	0.988	-8.602	0.988	-8.602	0.15	80.982
3249.554	0.15	80.932	0.988	-8.654	0.988	-8.654	0.15	80.932
3259.366	0.151	80.882	0.987	-8.707	0.987	-8.707	0.151	80.882
3269.177	0.152	80.832	0.987	-8.759	0.987	-8.759	0.152	80.832
