! AVX Thin Film Operation		Date: April 2012 
! Description: Accu-P® Series, Thin Film, SMD, RF Capacitor
! Part Number: 12101J0R2PBTTR					
!	100	MHz	-	20.05	GHz			
!	Serial	Measurements						
!								
#	MHZ	S	MA	R	50			
!	S11	S21	S12	S22				
!	dB	Phase	dB	Phase	dB	Phase	dB	Phase
50 1 -0.36 6.283e-3 89.58 6.283e-3 89.58 1 -0.36
100 1 -0.72 0.013 89.218 0.013 89.218 1 -0.72
150 1 -1.08 0.019 88.856 0.019 88.856 1 -1.08
200 1 -1.44 0.025 88.493 0.025 88.493 1 -1.44
250 0.999 -1.8 0.031 88.131 0.031 88.131 0.999 -1.8
300 0.999 -2.161 0.038 87.768 0.038 87.768 0.999 -2.161
350 0.999 -2.521 0.044 87.406 0.044 87.406 0.999 -2.521
400 0.999 -2.881 0.05 87.043 0.05 87.043 0.999 -2.881
450 0.998 -3.242 0.057 86.68 0.057 86.68 0.998 -3.242
500 0.998 -3.603 0.063 86.317 0.063 86.317 0.998 -3.603
550 0.998 -3.963 0.069 85.954 0.069 85.954 0.998 -3.963
600 0.997 -4.324 0.075 85.59 0.075 85.59 0.997 -4.324
650 0.997 -4.686 0.082 85.227 0.082 85.227 0.997 -4.686
700 0.996 -5.047 0.088 84.863 0.088 84.863 0.996 -5.047
750 0.995 -5.409 0.094 84.499 0.094 84.499 0.995 -5.409
800 0.995 -5.771 0.101 84.135 0.101 84.135 0.995 -5.771
850 0.994 -6.133 0.107 83.77 0.107 83.77 0.994 -6.133
900 0.993 -6.495 0.113 83.405 0.113 83.405 0.993 -6.495
950 0.993 -6.858 0.119 83.04 0.119 83.04 0.993 -6.858
1000 0.992 -7.221 0.126 82.675 0.126 82.675 0.992 -7.221
1050 0.991 -7.584 0.132 82.309 0.132 82.309 0.991 -7.584
1100 0.99 -7.948 0.138 81.943 0.138 81.943 0.99 -7.948
1150 0.989 -8.312 0.145 81.576 0.145 81.576 0.989 -8.312
1200 0.988 -8.676 0.151 81.209 0.151 81.209 0.988 -8.676
1250 0.987 -9.041 0.157 80.842 0.157 80.842 0.987 -9.041
1300 0.986 -9.406 0.163 80.474 0.163 80.474 0.986 -9.406
1350 0.985 -9.772 0.17 80.106 0.17 80.106 0.985 -9.772
1400 0.984 -10.138 0.176 79.738 0.176 79.738 0.984 -10.138
1450 0.983 -10.504 0.182 79.369 0.182 79.369 0.983 -10.504
1500 0.982 -10.871 0.189 78.999 0.189 78.999 0.982 -10.871
1550 0.98 -11.239 0.195 78.629 0.195 78.629 0.98 -11.239
1600 0.979 -11.607 0.201 78.259 0.201 78.259 0.979 -11.607
1650 0.978 -11.975 0.207 77.888 0.207 77.888 0.978 -11.975
1700 0.976 -12.344 0.214 77.516 0.214 77.516 0.976 -12.344
1750 0.975 -12.713 0.22 77.144 0.22 77.144 0.975 -12.713
1800 0.973 -13.083 0.226 76.772 0.226 76.772 0.973 -13.083
1850 0.972 -13.454 0.233 76.399 0.233 76.399 0.972 -13.454
1900 0.97 -13.825 0.239 76.025 0.239 76.025 0.97 -13.825
1950 0.969 -14.196 0.245 75.65 0.245 75.65 0.969 -14.196
2000 0.967 -14.569 0.252 75.275 0.252 75.275 0.967 -14.569
2050 0.965 -14.942 0.258 74.9 0.258 74.9 0.965 -14.942
2100 0.964 -15.315 0.264 74.523 0.264 74.523 0.964 -15.315
2150 0.962 -15.689 0.27 74.146 0.27 74.146 0.962 -15.689
2200 0.96 -16.064 0.277 73.769 0.277 73.769 0.96 -16.064
2250 0.958 -16.44 0.283 73.391 0.283 73.391 0.958 -16.44
2300 0.956 -16.816 0.289 73.012 0.289 73.012 0.956 -16.816
2350 0.954 -17.193 0.296 72.632 0.296 72.632 0.954 -17.193
2400 0.952 -17.57 0.302 72.251 0.302 72.251 0.952 -17.57
2450 0.95 -17.948 0.308 71.87 0.308 71.87 0.95 -17.948
2500 0.948 -18.327 0.314 71.488 0.314 71.488 0.948 -18.327
2550 0.946 -18.707 0.321 71.106 0.321 71.106 0.946 -18.707
2600 0.944 -19.088 0.327 70.722 0.327 70.722 0.944 -19.088
2650 0.942 -19.469 0.333 70.338 0.333 70.338 0.942 -19.469
2700 0.939 -19.851 0.34 69.953 0.34 69.953 0.939 -19.851
2750 0.937 -20.233 0.346 69.567 0.346 69.567 0.937 -20.233
2800 0.935 -20.617 0.352 69.181 0.352 69.181 0.935 -20.617
2850 0.932 -21.001 0.358 68.793 0.358 68.793 0.932 -21.001
2900 0.93 -21.386 0.365 68.405 0.365 68.405 0.93 -21.386
2950 0.927 -21.772 0.371 68.016 0.371 68.016 0.927 -21.772
3000 0.925 -22.159 0.377 67.626 0.377 67.626 0.925 -22.159
3050 0.922 -22.547 0.383 67.235 0.383 67.235 0.922 -22.547
3100 0.919 -22.935 0.39 66.843 0.39 66.843 0.919 -22.935
3150 0.917 -23.325 0.396 66.451 0.396 66.451 0.917 -23.325
3200 0.914 -23.715 0.402 66.057 0.402 66.057 0.914 -23.715
3250 0.911 -24.106 0.408 65.663 0.408 65.663 0.911 -24.106
3300 0.908 -24.498 0.415 65.267 0.415 65.267 0.908 -24.498
3350 0.905 -24.891 0.421 64.871 0.421 64.871 0.905 -24.891
3400 0.902 -25.284 0.427 64.474 0.427 64.474 0.902 -25.284
3450 0.899 -25.679 0.433 64.076 0.433 64.076 0.899 -25.679
3500 0.896 -26.074 0.44 63.677 0.44 63.677 0.896 -26.074
3550 0.893 -26.471 0.446 63.277 0.446 63.277 0.893 -26.471
3600 0.89 -26.868 0.452 62.876 0.452 62.876 0.89 -26.868
3650 0.887 -27.266 0.458 62.474 0.458 62.474 0.887 -27.266
3700 0.884 -27.665 0.464 62.071 0.464 62.071 0.884 -27.665
3750 0.88 -28.065 0.47 61.668 0.47 61.668 0.88 -28.065
3800 0.877 -28.466 0.477 61.263 0.477 61.263 0.877 -28.466
3850 0.873 -28.868 0.483 60.857 0.483 60.857 0.873 -28.868
3900 0.87 -29.271 0.489 60.451 0.489 60.451 0.87 -29.271
3950 0.866 -29.674 0.495 60.043 0.495 60.043 0.866 -29.674
4000 0.863 -30.079 0.501 59.634 0.501 59.634 0.863 -30.079
4050 0.859 -30.485 0.507 59.225 0.507 59.225 0.859 -30.485
4100 0.856 -30.891 0.513 58.814 0.513 58.814 0.856 -30.891
4150 0.852 -31.299 0.52 58.403 0.52 58.403 0.852 -31.299
4200 0.848 -31.707 0.526 57.99 0.526 57.99 0.848 -31.707
4250 0.844 -32.116 0.532 57.577 0.532 57.577 0.844 -32.116
4300 0.84 -32.526 0.538 57.162 0.538 57.162 0.84 -32.526
4350 0.836 -32.938 0.544 56.747 0.544 56.747 0.836 -32.938
4400 0.832 -33.35 0.55 56.33 0.55 56.33 0.832 -33.35
4450 0.828 -33.763 0.556 55.913 0.556 55.913 0.828 -33.763
4500 0.824 -34.177 0.562 55.495 0.562 55.495 0.824 -34.177
4550 0.82 -34.591 0.568 55.075 0.568 55.075 0.82 -34.591
4600 0.816 -35.007 0.574 54.655 0.574 54.655 0.816 -35.007
4650 0.811 -35.424 0.58 54.234 0.58 54.234 0.811 -35.424
4700 0.807 -35.841 0.586 53.811 0.586 53.811 0.807 -35.841
4750 0.803 -36.26 0.591 53.388 0.591 53.388 0.803 -36.26
4800 0.798 -36.679 0.597 52.964 0.597 52.964 0.798 -36.679
4850 0.794 -37.099 0.603 52.539 0.603 52.539 0.794 -37.099
4900 0.789 -37.52 0.609 52.113 0.609 52.113 0.789 -37.52
4950 0.785 -37.942 0.615 51.686 0.615 51.686 0.785 -37.942
5000 0.78 -38.365 0.621 51.258 0.621 51.258 0.78 -38.365
5050 0.775 -38.789 0.626 50.829 0.626 50.829 0.775 -38.789
5100 0.771 -39.213 0.632 50.399 0.632 50.399 0.771 -39.213
5150 0.766 -39.638 0.638 49.968 0.638 49.968 0.766 -39.638
5200 0.761 -40.064 0.644 49.537 0.644 49.537 0.761 -40.064
5250 0.756 -40.491 0.649 49.104 0.649 49.104 0.756 -40.491
5300 0.751 -40.919 0.655 48.671 0.655 48.671 0.751 -40.919
5350 0.746 -41.347 0.661 48.237 0.661 48.237 0.746 -41.347
5400 0.741 -41.776 0.666 47.802 0.666 47.802 0.741 -41.776
5450 0.736 -42.206 0.672 47.366 0.672 47.366 0.736 -42.206
5500 0.731 -42.637 0.677 46.929 0.677 46.929 0.731 -42.637
5550 0.725 -43.068 0.683 46.492 0.683 46.492 0.725 -43.068
5600 0.72 -43.5 0.688 46.053 0.688 46.053 0.72 -43.5
5650 0.715 -43.933 0.694 45.614 0.694 45.614 0.715 -43.933
5700 0.709 -44.366 0.699 45.175 0.699 45.175 0.709 -44.366
5750 0.704 -44.8 0.705 44.734 0.705 44.734 0.704 -44.8
5800 0.698 -45.235 0.71 44.293 0.71 44.293 0.698 -45.235
5850 0.693 -45.67 0.715 43.851 0.715 43.851 0.693 -45.67
5900 0.687 -46.106 0.721 43.408 0.721 43.408 0.687 -46.106
5950 0.682 -46.542 0.726 42.964 0.726 42.964 0.682 -46.542
6000 0.676 -46.979 0.731 42.52 0.731 42.52 0.676 -46.979
6050 0.67 -47.416 0.736 42.076 0.736 42.076 0.67 -47.416
6100 0.664 -47.854 0.741 41.63 0.741 41.63 0.664 -47.854
6150 0.659 -48.293 0.747 41.184 0.747 41.184 0.659 -48.293
6200 0.653 -48.731 0.752 40.738 0.752 40.738 0.653 -48.731
6250 0.647 -49.17 0.757 40.29 0.757 40.29 0.647 -49.17
6300 0.641 -49.61 0.762 39.843 0.762 39.843 0.641 -49.61
6350 0.635 -50.05 0.767 39.395 0.767 39.395 0.635 -50.05
6400 0.629 -50.49 0.772 38.946 0.772 38.946 0.629 -50.49
6450 0.622 -50.931 0.776 38.497 0.776 38.497 0.622 -50.931
6500 0.616 -51.371 0.781 38.047 0.781 38.047 0.616 -51.371
6550 0.61 -51.812 0.786 37.597 0.786 37.597 0.61 -51.812
6600 0.604 -52.254 0.791 37.146 0.791 37.146 0.604 -52.254
6650 0.598 -52.695 0.795 36.696 0.795 36.696 0.598 -52.695
6700 0.591 -53.136 0.8 36.244 0.8 36.244 0.591 -53.136
6750 0.585 -53.578 0.805 35.793 0.805 35.793 0.585 -53.578
6800 0.578 -54.02 0.809 35.341 0.809 35.341 0.578 -54.02
6850 0.572 -54.462 0.814 34.889 0.814 34.889 0.572 -54.462
6900 0.566 -54.903 0.818 34.436 0.818 34.436 0.566 -54.903
6950 0.559 -55.345 0.823 33.984 0.823 33.984 0.559 -55.345
7000 0.552 -55.787 0.827 33.531 0.827 33.531 0.552 -55.787
7050 0.546 -56.228 0.831 33.078 0.831 33.078 0.546 -56.228
7100 0.539 -56.67 0.836 32.625 0.836 32.625 0.539 -56.67
7150 0.532 -57.111 0.84 32.172 0.84 32.172 0.532 -57.111
7200 0.526 -57.552 0.844 31.718 0.844 31.718 0.526 -57.552
7250 0.519 -57.992 0.848 31.265 0.848 31.265 0.519 -57.992
7300 0.512 -58.433 0.852 30.812 0.852 30.812 0.512 -58.433
7350 0.505 -58.873 0.856 30.358 0.856 30.358 0.505 -58.873
7400 0.499 -59.312 0.86 29.905 0.86 29.905 0.499 -59.312
7450 0.492 -59.752 0.864 29.451 0.864 29.451 0.492 -59.752
7500 0.485 -60.19 0.868 28.998 0.868 28.998 0.485 -60.19
7550 0.478 -60.628 0.872 28.545 0.872 28.545 0.478 -60.628
7600 0.471 -61.066 0.875 28.092 0.875 28.092 0.471 -61.066
7650 0.464 -61.503 0.879 27.639 0.879 27.639 0.464 -61.503
7700 0.457 -61.939 0.883 27.187 0.883 27.187 0.457 -61.939
7750 0.45 -62.374 0.886 26.735 0.886 26.735 0.45 -62.374
7800 0.443 -62.809 0.89 26.283 0.89 26.283 0.443 -62.809
7850 0.436 -63.243 0.893 25.831 0.893 25.831 0.436 -63.243
7900 0.429 -63.676 0.896 25.38 0.896 25.38 0.429 -63.676
7950 0.422 -64.107 0.9 24.929 0.9 24.929 0.422 -64.107
8000 0.414 -64.538 0.903 24.478 0.903 24.478 0.414 -64.538
8050 0.407 -64.968 0.906 24.028 0.906 24.028 0.407 -64.968
8100 0.4 -65.396 0.909 23.578 0.909 23.578 0.4 -65.396
8150 0.393 -65.824 0.912 23.129 0.912 23.129 0.393 -65.824
8200 0.386 -66.25 0.915 22.68 0.915 22.68 0.386 -66.25
8250 0.378 -66.674 0.918 22.232 0.918 22.232 0.378 -66.674
8300 0.371 -67.097 0.921 21.784 0.921 21.784 0.371 -67.097
8350 0.364 -67.519 0.924 21.338 0.924 21.338 0.364 -67.519
8400 0.357 -67.938 0.927 20.891 0.927 20.891 0.357 -67.938
8450 0.349 -68.356 0.93 20.446 0.93 20.446 0.349 -68.356
8500 0.342 -68.773 0.932 20.001 0.932 20.001 0.342 -68.773
8550 0.335 -69.187 0.935 19.557 0.935 19.557 0.335 -69.187
8600 0.328 -69.599 0.938 19.113 0.938 19.113 0.328 -69.599
8650 0.32 -70.009 0.94 18.671 0.94 18.671 0.32 -70.009
8700 0.313 -70.417 0.942 18.229 0.942 18.229 0.313 -70.417
8750 0.306 -70.822 0.945 17.788 0.945 17.788 0.306 -70.822
8800 0.298 -71.225 0.947 17.348 0.947 17.348 0.298 -71.225
8850 0.291 -71.625 0.949 16.909 0.949 16.909 0.291 -71.625
8900 0.284 -72.022 0.952 16.471 0.952 16.471 0.284 -72.022
8950 0.276 -72.416 0.954 16.033 0.954 16.033 0.276 -72.416
9000 0.269 -72.807 0.956 15.597 0.956 15.597 0.269 -72.807
9050 0.262 -73.195 0.958 15.162 0.958 15.162 0.262 -73.195
9100 0.254 -73.578 0.96 14.728 0.96 14.728 0.254 -73.578
9150 0.247 -73.958 0.962 14.295 0.962 14.295 0.247 -73.958
9200 0.24 -74.334 0.963 13.863 0.963 13.863 0.24 -74.334
9250 0.232 -74.705 0.965 13.432 0.965 13.432 0.232 -74.705
9300 0.225 -75.071 0.967 13.003 0.967 13.003 0.225 -75.071
9350 0.218 -75.432 0.968 12.574 0.968 12.574 0.218 -75.432
9400 0.211 -75.787 0.97 12.147 0.97 12.147 0.211 -75.787
9450 0.203 -76.136 0.972 11.721 0.972 11.721 0.203 -76.136
9500 0.196 -76.478 0.973 11.296 0.973 11.296 0.196 -76.478
9550 0.189 -76.813 0.974 10.873 0.974 10.873 0.189 -76.813
9600 0.182 -77.14 0.976 10.451 0.976 10.451 0.182 -77.14
9650 0.174 -77.458 0.977 10.03 0.977 10.03 0.174 -77.458
9700 0.167 -77.766 0.978 9.61 0.978 9.61 0.167 -77.766
9750 0.16 -78.063 0.98 9.192 0.98 9.192 0.16 -78.063
9800 0.153 -78.348 0.981 8.775 0.981 8.775 0.153 -78.348
9850 0.146 -78.619 0.982 8.36 0.982 8.36 0.146 -78.619
9900 0.138 -78.874 0.983 7.946 0.983 7.946 0.138 -78.874
9950 0.131 -79.11 0.984 7.534 0.984 7.534 0.131 -79.11
10000 0.124 -79.326 0.985 7.123 0.985 7.123 0.124 -79.326
10050 0.117 -79.518 0.985 6.713 0.985 6.713 0.117 -79.518
10100 0.11 -79.681 0.986 6.305 0.986 6.305 0.11 -79.681
10150 0.103 -79.81 0.987 5.899 0.987 5.899 0.103 -79.81
10200 0.096 -79.898 0.988 5.494 0.988 5.494 0.096 -79.898
10250 0.089 -79.936 0.988 5.091 0.988 5.091 0.089 -79.936
10300 0.082 -79.913 0.989 4.689 0.989 4.689 0.082 -79.913
10350 0.075 -79.811 0.989 4.289 0.989 4.289 0.075 -79.811
10400 0.068 -79.608 0.99 3.89 0.99 3.89 0.068 -79.608
10450 0.061 -79.272 0.99 3.494 0.99 3.494 0.061 -79.272
10500 0.055 -78.754 0.991 3.098 0.991 3.098 0.055 -78.754
10550 0.048 -77.979 0.991 2.705 0.991 2.705 0.048 -77.979
10600 0.041 -76.826 0.991 2.313 0.991 2.313 0.041 -76.826
10650 0.034 -75.078 0.992 1.923 0.992 1.923 0.034 -75.078
10700 0.028 -72.327 0.992 1.534 0.992 1.534 0.028 -72.327
10750 0.021 -67.697 0.992 1.147 0.992 1.147 0.021 -67.697
10800 0.015 -59.012 0.992 0.762 0.992 0.762 0.015 -59.012
10850 0.01 -40.077 0.992 0.379 0.992 0.379 0.01 -40.077
10900 7.749e-3 0.394 0.992 -3.074e-3 0.992 -3.074e-3 7.749e-3 0.394
10950 0.01 40.4 0.992 -0.383 0.992 -0.383 0.01 40.4
11000 0.015 58.986 0.992 -0.761 0.992 -0.761 0.015 58.986
11050 0.021 67.545 0.992 -1.138 0.992 -1.138 0.021 67.545
11100 0.028 72.129 0.992 -1.512 0.992 -1.512 0.028 72.129
11150 0.034 74.866 0.992 -1.885 0.992 -1.885 0.034 74.866
11200 0.04 76.616 0.991 -2.256 0.991 -2.256 0.04 76.616
11250 0.046 77.782 0.991 -2.625 0.991 -2.625 0.046 77.782
11300 0.053 78.576 0.991 -2.993 0.991 -2.993 0.053 78.576
11350 0.059 79.118 0.991 -3.358 0.991 -3.358 0.059 79.118
11400 0.065 79.484 0.99 -3.722 0.99 -3.722 0.065 79.484
11450 0.072 79.721 0.99 -4.084 0.99 -4.084 0.072 79.721
11500 0.078 79.861 0.989 -4.445 0.989 -4.445 0.078 79.861
11550 0.084 79.926 0.989 -4.803 0.989 -4.803 0.084 79.926
11600 0.09 79.934 0.988 -5.159 0.988 -5.159 0.09 79.934
11650 0.096 79.895 0.988 -5.514 0.988 -5.514 0.096 79.895
11700 0.103 79.819 0.987 -5.867 0.987 -5.867 0.103 79.819
11750 0.109 79.712 0.986 -6.218 0.986 -6.218 0.109 79.712
11800 0.115 79.58 0.986 -6.567 0.986 -6.567 0.115 79.58
11850 0.121 79.427 0.985 -6.914 0.985 -6.914 0.121 79.427
11900 0.127 79.257 0.984 -7.26 0.984 -7.26 0.127 79.257
11950 0.133 79.072 0.984 -7.604 0.984 -7.604 0.133 79.072
12000 0.138 78.874 0.983 -7.945 0.983 -7.945 0.138 78.874
12050 0.144 78.666 0.982 -8.285 0.982 -8.285 0.144 78.666
12100 0.15 78.449 0.981 -8.623 0.981 -8.623 0.15 78.449
12150 0.156 78.224 0.98 -8.96 0.98 -8.96 0.156 78.224
12200 0.162 77.992 0.979 -9.294 0.979 -9.294 0.162 77.992
12250 0.167 77.754 0.978 -9.626 0.978 -9.626 0.167 77.754
12300 0.173 77.512 0.977 -9.957 0.977 -9.957 0.173 77.512
12350 0.179 77.266 0.976 -10.286 0.976 -10.286 0.179 77.266
12400 0.184 77.015 0.975 -10.613 0.975 -10.613 0.184 77.015
12450 0.19 76.762 0.974 -10.938 0.974 -10.938 0.19 76.762
12500 0.195 76.506 0.973 -11.261 0.973 -11.261 0.195 76.506
12550 0.201 76.248 0.972 -11.583 0.972 -11.583 0.201 76.248
12600 0.206 75.988 0.971 -11.902 0.971 -11.902 0.206 75.988
12650 0.212 75.726 0.97 -12.22 0.97 -12.22 0.212 75.726
12700 0.217 75.464 0.969 -12.536 0.969 -12.536 0.217 75.464
12750 0.223 75.2 0.967 -12.85 0.967 -12.85 0.223 75.2
12800 0.228 74.935 0.966 -13.163 0.966 -13.163 0.228 74.935
12850 0.233 74.67 0.965 -13.473 0.965 -13.473 0.233 74.67
12900 0.238 74.404 0.964 -13.782 0.964 -13.782 0.238 74.404
12950 0.244 74.138 0.962 -14.089 0.962 -14.089 0.244 74.138
13000 0.249 73.872 0.961 -14.394 0.961 -14.394 0.249 73.872
13050 0.254 73.605 0.96 -14.697 0.96 -14.697 0.254 73.605
13100 0.259 73.339 0.958 -14.999 0.958 -14.999 0.259 73.339
13150 0.264 73.074 0.957 -15.298 0.957 -15.298 0.264 73.074
13200 0.269 72.808 0.956 -15.596 0.956 -15.596 0.269 72.808
13250 0.274 72.543 0.954 -15.893 0.954 -15.893 0.274 72.543
13300 0.279 72.278 0.953 -16.187 0.953 -16.187 0.279 72.278
13350 0.284 72.014 0.951 -16.48 0.951 -16.48 0.284 72.014
13400 0.289 71.751 0.95 -16.771 0.95 -16.771 0.289 71.751
13450 0.293 71.488 0.949 -17.06 0.949 -17.06 0.293 71.488
13500 0.298 71.226 0.947 -17.347 0.947 -17.347 0.298 71.226
13550 0.303 70.965 0.946 -17.633 0.946 -17.633 0.303 70.965
13600 0.308 70.704 0.944 -17.917 0.944 -17.917 0.308 70.704
13650 0.312 70.444 0.943 -18.199 0.943 -18.199 0.312 70.444
13700 0.317 70.186 0.941 -18.479 0.941 -18.479 0.317 70.186
13750 0.322 69.928 0.94 -18.758 0.94 -18.758 0.322 69.928
13800 0.326 69.671 0.938 -19.035 0.938 -19.035 0.326 69.671
13850 0.331 69.416 0.936 -19.311 0.936 -19.311 0.331 69.416
13900 0.335 69.161 0.935 -19.585 0.935 -19.585 0.335 69.161
13950 0.34 68.907 0.933 -19.857 0.933 -19.857 0.34 68.907
14000 0.344 68.655 0.932 -20.127 0.932 -20.127 0.344 68.655
14050 0.349 68.403 0.93 -20.396 0.93 -20.396 0.349 68.403
14100 0.353 68.153 0.928 -20.663 0.928 -20.663 0.353 68.153
14150 0.357 67.904 0.927 -20.928 0.927 -20.928 0.357 67.904
14200 0.362 67.655 0.925 -21.192 0.925 -21.192 0.362 67.655
14250 0.366 67.409 0.923 -21.454 0.923 -21.454 0.366 67.409
14300 0.37 67.163 0.922 -21.715 0.922 -21.715 0.37 67.163
14350 0.374 66.918 0.92 -21.974 0.92 -21.974 0.374 66.918
14400 0.378 66.675 0.918 -22.231 0.918 -22.231 0.378 66.675
14450 0.383 66.433 0.917 -22.487 0.917 -22.487 0.383 66.433
14500 0.387 66.192 0.915 -22.741 0.915 -22.741 0.387 66.192
14550 0.391 65.952 0.913 -22.994 0.913 -22.994 0.391 65.952
14600 0.395 65.713 0.912 -23.245 0.912 -23.245 0.395 65.713
14650 0.399 65.476 0.91 -23.494 0.91 -23.494 0.399 65.476
14700 0.403 65.24 0.908 -23.742 0.908 -23.742 0.403 65.24
14750 0.407 65.005 0.906 -23.989 0.906 -23.989 0.407 65.005
14800 0.411 64.771 0.905 -24.234 0.905 -24.234 0.411 64.771
14850 0.414 64.539 0.903 -24.477 0.903 -24.477 0.414 64.539
14900 0.418 64.308 0.901 -24.719 0.901 -24.719 0.418 64.308
14950 0.422 64.078 0.9 -24.959 0.9 -24.959 0.422 64.078
15000 0.426 63.849 0.898 -25.198 0.898 -25.198 0.426 63.849
15050 0.43 63.622 0.896 -25.436 0.896 -25.436 0.43 63.622
15100 0.433 63.395 0.894 -25.672 0.894 -25.672 0.433 63.395
15150 0.437 63.171 0.892 -25.906 0.892 -25.906 0.437 63.171
15200 0.441 62.947 0.891 -26.139 0.891 -26.139 0.441 62.947
15250 0.444 62.724 0.889 -26.371 0.889 -26.371 0.444 62.724
15300 0.448 62.503 0.887 -26.601 0.887 -26.601 0.448 62.503
15350 0.451 62.283 0.885 -26.83 0.885 -26.83 0.451 62.283
15400 0.455 62.064 0.884 -27.057 0.884 -27.057 0.455 62.064
15450 0.458 61.847 0.882 -27.283 0.882 -27.283 0.458 61.847
15500 0.462 61.63 0.88 -27.507 0.88 -27.507 0.462 61.63
15550 0.465 61.415 0.878 -27.73 0.878 -27.73 0.465 61.415
15600 0.469 61.201 0.876 -27.952 0.876 -27.952 0.469 61.201
15650 0.472 60.988 0.875 -28.173 0.875 -28.173 0.472 60.988
15700 0.476 60.777 0.873 -28.392 0.873 -28.392 0.476 60.777
15750 0.479 60.567 0.871 -28.609 0.871 -28.609 0.479 60.567
15800 0.482 60.357 0.869 -28.825 0.869 -28.825 0.482 60.357
15850 0.485 60.149 0.867 -29.04 0.867 -29.04 0.485 60.149
15900 0.489 59.943 0.866 -29.254 0.866 -29.254 0.489 59.943
15950 0.492 59.737 0.864 -29.466 0.864 -29.466 0.492 59.737
16000 0.495 59.533 0.862 -29.677 0.862 -29.677 0.495 59.533
16050 0.498 59.33 0.86 -29.887 0.86 -29.887 0.498 59.33
16100 0.501 59.127 0.858 -30.096 0.858 -30.096 0.501 59.127
16150 0.505 58.927 0.857 -30.303 0.857 -30.303 0.505 58.927
16200 0.508 58.727 0.855 -30.509 0.855 -30.509 0.508 58.727
16250 0.511 58.528 0.853 -30.713 0.853 -30.713 0.511 58.528
16300 0.514 58.331 0.851 -30.917 0.851 -30.917 0.514 58.331
16350 0.517 58.135 0.849 -31.119 0.849 -31.119 0.517 58.135
16400 0.52 57.939 0.848 -31.32 0.848 -31.32 0.52 57.939
16450 0.523 57.745 0.846 -31.519 0.846 -31.519 0.523 57.745
16500 0.526 57.552 0.844 -31.718 0.844 -31.718 0.526 57.552
16550 0.529 57.361 0.842 -31.915 0.842 -31.915 0.529 57.361
16600 0.532 57.17 0.84 -32.111 0.84 -32.111 0.532 57.17
16650 0.534 56.98 0.839 -32.306 0.839 -32.306 0.534 56.98
16700 0.537 56.792 0.837 -32.499 0.837 -32.499 0.537 56.792
16750 0.54 56.604 0.835 -32.692 0.835 -32.692 0.54 56.604
16800 0.543 56.418 0.833 -32.883 0.833 -32.883 0.543 56.418
16850 0.546 56.233 0.831 -33.073 0.831 -33.073 0.546 56.233
16900 0.549 56.049 0.83 -33.262 0.83 -33.262 0.549 56.049
16950 0.551 55.865 0.828 -33.45 0.828 -33.45 0.551 55.865
17000 0.554 55.683 0.826 -33.637 0.826 -33.637 0.554 55.683
