! AVX Thin Film Operation		Date: April 2012 
! Description: Accu-P® Series, Thin Film, SMD, RF Capacitor
! Part Number: 12101J8R2BBTTR					
!	100	MHz	-	10.05	GHz			
!	Serial	Measurements						
!								
#	MHZ	S	MA	R	50			
!	S11	S21	S12	S22				
!	dB	Phase	dB	Phase	dB	Phase	dB	Phase
100	0.888	-27.334	0.459	62.636	0.459	62.636	0.888	-27.334
109.812	0.869	-29.596	0.494	60.372	0.494	60.372	0.869	-29.596
119.623	0.85	-31.765	0.526	58.199	0.526	58.199	0.85	-31.765
129.435	0.83	-33.842	0.557	56.12	0.557	56.12	0.83	-33.842
139.247	0.81	-35.827	0.585	54.131	0.585	54.131	0.81	-35.827
149.058	0.791	-37.723	0.612	52.233	0.612	52.233	0.791	-37.723
158.87	0.771	-39.531	0.636	50.421	0.636	50.421	0.771	-39.531
168.682	0.751	-41.255	0.659	48.695	0.659	48.695	0.751	-41.255
178.494	0.732	-42.898	0.681	47.049	0.681	47.049	0.732	-42.898
188.305	0.713	-44.462	0.7	45.481	0.7	45.481	0.713	-44.462
198.117	0.695	-45.953	0.719	43.988	0.719	43.988	0.695	-45.953
207.929	0.676	-47.372	0.736	42.565	0.736	42.565	0.676	-47.372
217.74	0.659	-48.724	0.752	41.21	0.752	41.21	0.659	-48.724
227.552	0.642	-50.013	0.766	39.919	0.766	39.919	0.642	-50.013
237.364	0.625	-51.241	0.78	38.688	0.78	38.688	0.625	-51.241
247.175	0.609	-52.412	0.792	37.514	0.792	37.514	0.609	-52.412
256.987	0.593	-53.529	0.804	36.394	0.804	36.394	0.593	-53.529
266.799	0.578	-54.595	0.815	35.324	0.815	35.324	0.578	-54.595
276.611	0.564	-55.613	0.825	34.303	0.825	34.303	0.564	-55.613
286.422	0.549	-56.586	0.835	33.327	0.835	33.327	0.549	-56.586
296.234	0.536	-57.516	0.844	32.394	0.844	32.394	0.536	-57.516
306.046	0.523	-58.406	0.852	31.501	0.852	31.501	0.523	-58.406
315.857	0.51	-59.257	0.859	30.646	0.859	30.646	0.51	-59.257
325.669	0.497	-60.074	0.867	29.827	0.867	29.827	0.497	-60.074
335.481	0.485	-60.856	0.873	29.041	0.873	29.041	0.485	-60.856
345.292	0.474	-61.606	0.88	28.287	0.88	28.287	0.474	-61.606
355.104	0.463	-62.327	0.886	27.563	0.886	27.563	0.463	-62.327
364.916	0.452	-63.019	0.891	26.868	0.891	26.868	0.452	-63.019
374.727	0.441	-63.684	0.896	26.2	0.896	26.2	0.441	-63.684
384.539	0.431	-64.324	0.901	25.556	0.901	25.556	0.431	-64.324
394.351	0.422	-64.94	0.906	24.937	0.906	24.937	0.422	-64.94
404.163	0.412	-65.533	0.91	24.341	0.91	24.341	0.412	-65.533
413.974	0.403	-66.104	0.914	23.766	0.914	23.766	0.403	-66.104
423.786	0.394	-66.655	0.918	23.211	0.918	23.211	0.394	-66.655
433.598	0.386	-67.187	0.922	22.676	0.922	22.676	0.386	-67.187
443.409	0.377	-67.701	0.925	22.159	0.925	22.159	0.377	-67.701
453.221	0.369	-68.197	0.928	21.659	0.928	21.659	0.369	-68.197
463.033	0.361	-68.676	0.932	21.176	0.932	21.176	0.361	-68.676
472.844	0.354	-69.14	0.934	20.708	0.934	20.708	0.354	-69.14
482.656	0.346	-69.589	0.937	20.256	0.937	20.256	0.346	-69.589
492.468	0.339	-70.024	0.94	19.817	0.94	19.817	0.339	-70.024
502.279	0.332	-70.445	0.942	19.393	0.942	19.393	0.332	-70.445
512.091	0.325	-70.853	0.945	18.981	0.945	18.981	0.325	-70.853
521.903	0.319	-71.249	0.947	18.581	0.947	18.581	0.319	-71.249
531.715	0.312	-71.633	0.949	18.193	0.949	18.193	0.312	-71.633
541.526	0.306	-72.006	0.951	17.816	0.951	17.816	0.306	-72.006
551.338	0.3	-72.368	0.953	17.45	0.953	17.45	0.3	-72.368
561.15	0.294	-72.72	0.955	17.094	0.955	17.094	0.294	-72.72
570.961	0.288	-73.062	0.957	16.748	0.957	16.748	0.288	-73.062
580.773	0.283	-73.395	0.958	16.411	0.958	16.411	0.283	-73.395
590.585	0.277	-73.719	0.96	16.083	0.96	16.083	0.277	-73.719
600.396	0.272	-74.034	0.961	15.763	0.961	15.763	0.272	-74.034
610.208	0.266	-74.341	0.963	15.452	0.963	15.452	0.266	-74.341
620.02	0.261	-74.64	0.964	15.148	0.964	15.148	0.261	-74.64
629.832	0.256	-74.932	0.966	14.852	0.966	14.852	0.256	-74.932
639.643	0.251	-75.216	0.967	14.564	0.967	14.564	0.251	-75.216
649.455	0.247	-75.493	0.968	14.282	0.968	14.282	0.247	-75.493
659.267	0.242	-75.764	0.969	14.007	0.969	14.007	0.242	-75.764
669.078	0.237	-76.028	0.97	13.738	0.97	13.738	0.237	-76.028
678.89	0.233	-76.286	0.971	13.475	0.971	13.475	0.233	-76.286
688.702	0.229	-76.538	0.973	13.218	0.973	13.218	0.229	-76.538
698.513	0.224	-76.784	0.974	12.967	0.974	12.967	0.224	-76.784
708.325	0.22	-77.025	0.974	12.722	0.974	12.722	0.22	-77.025
718.137	0.216	-77.26	0.975	12.481	0.975	12.481	0.216	-77.26
727.948	0.212	-77.49	0.976	12.246	0.976	12.246	0.212	-77.49
737.76	0.208	-77.715	0.977	12.016	0.977	12.016	0.208	-77.715
747.572	0.204	-77.936	0.978	11.79	0.978	11.79	0.204	-77.936
757.384	0.201	-78.152	0.979	11.569	0.979	11.569	0.201	-78.152
767.195	0.197	-78.363	0.979	11.352	0.979	11.352	0.197	-78.363
777.007	0.193	-78.57	0.98	11.139	0.98	11.139	0.193	-78.57
786.819	0.19	-78.773	0.981	10.931	0.981	10.931	0.19	-78.773
796.63	0.186	-78.971	0.982	10.727	0.982	10.727	0.186	-78.971
806.442	0.183	-79.166	0.982	10.526	0.982	10.526	0.183	-79.166
816.254	0.179	-79.357	0.983	10.329	0.983	10.329	0.179	-79.357
826.065	0.176	-79.544	0.983	10.135	0.983	10.135	0.176	-79.544
835.877	0.173	-79.728	0.984	9.945	0.984	9.945	0.173	-79.728
845.689	0.17	-79.908	0.985	9.759	0.985	9.759	0.17	-79.908
855.5	0.166	-80.085	0.985	9.575	0.985	9.575	0.166	-80.085
865.312	0.163	-80.259	0.986	9.395	0.986	9.395	0.163	-80.259
875.124	0.16	-80.429	0.986	9.218	0.986	9.218	0.16	-80.429
884.936	0.157	-80.597	0.987	9.043	0.987	9.043	0.157	-80.597
894.747	0.154	-80.761	0.987	8.872	0.987	8.872	0.154	-80.761
904.559	0.151	-80.923	0.987	8.703	0.987	8.703	0.151	-80.923
914.371	0.148	-81.081	0.988	8.537	0.988	8.537	0.148	-81.081
924.182	0.146	-81.237	0.988	8.374	0.988	8.374	0.146	-81.237
933.994	0.143	-81.391	0.989	8.213	0.989	8.213	0.143	-81.391
943.806	0.14	-81.541	0.989	8.054	0.989	8.054	0.14	-81.541
953.617	0.137	-81.689	0.99	7.898	0.99	7.898	0.137	-81.689
963.429	0.135	-81.835	0.99	7.744	0.99	7.744	0.135	-81.835
973.241	0.132	-81.978	0.99	7.593	0.99	7.593	0.132	-81.978
983.053	0.13	-82.118	0.991	7.443	0.991	7.443	0.13	-82.118
992.864	0.127	-82.257	0.991	7.296	0.991	7.296	0.127	-82.257
1002.676	0.124	-82.393	0.991	7.151	0.991	7.151	0.124	-82.393
1012.488	0.122	-82.527	0.992	7.008	0.992	7.008	0.122	-82.527
1022.299	0.12	-82.658	0.992	6.866	0.992	6.866	0.12	-82.658
1032.111	0.117	-82.788	0.992	6.727	0.992	6.727	0.117	-82.788
1041.923	0.115	-82.915	0.992	6.589	0.992	6.589	0.115	-82.915
1051.734	0.112	-83.04	0.993	6.453	0.993	6.453	0.112	-83.04
1061.546	0.11	-83.164	0.993	6.319	0.993	6.319	0.11	-83.164
1071.358	0.108	-83.285	0.993	6.187	0.993	6.187	0.108	-83.285
1081.169	0.106	-83.404	0.993	6.056	0.993	6.056	0.106	-83.404
1090.981	0.103	-83.521	0.994	5.927	0.994	5.927	0.103	-83.521
1100.793	0.101	-83.637	0.994	5.8	0.994	5.8	0.101	-83.637
1110.605	0.099	-83.75	0.994	5.674	0.994	5.674	0.099	-83.75
1120.416	0.097	-83.861	0.994	5.549	0.994	5.549	0.097	-83.861
1130.228	0.095	-83.971	0.995	5.426	0.995	5.426	0.095	-83.971
1140.04	0.092	-84.079	0.995	5.305	0.995	5.305	0.092	-84.079
1149.851	0.09	-84.185	0.995	5.185	0.995	5.185	0.09	-84.185
1159.663	0.088	-84.289	0.995	5.066	0.995	5.066	0.088	-84.289
1169.475	0.086	-84.391	0.995	4.948	0.995	4.948	0.086	-84.391
1179.286	0.084	-84.491	0.995	4.832	0.995	4.832	0.084	-84.491
1189.098	0.082	-84.589	0.996	4.717	0.996	4.717	0.082	-84.589
1198.91	0.08	-84.686	0.996	4.603	0.996	4.603	0.08	-84.686
1208.722	0.078	-84.781	0.996	4.49	0.996	4.49	0.078	-84.781
1218.533	0.076	-84.873	0.996	4.379	0.996	4.379	0.076	-84.873
1228.345	0.074	-84.964	0.996	4.269	0.996	4.269	0.074	-84.964
1238.157	0.073	-85.053	0.996	4.16	0.996	4.16	0.073	-85.053
1247.968	0.071	-85.14	0.997	4.052	0.997	4.052	0.071	-85.14
1257.78	0.069	-85.225	0.997	3.945	0.997	3.945	0.069	-85.225
1267.592	0.067	-85.308	0.997	3.839	0.997	3.839	0.067	-85.308
1277.403	0.065	-85.389	0.997	3.734	0.997	3.734	0.065	-85.389
1287.215	0.063	-85.468	0.997	3.63	0.997	3.63	0.063	-85.468
1297.027	0.062	-85.544	0.997	3.527	0.997	3.527	0.062	-85.544
1306.838	0.06	-85.619	0.997	3.425	0.997	3.425	0.06	-85.619
1316.65	0.058	-85.691	0.997	3.324	0.997	3.324	0.058	-85.691
1326.462	0.056	-85.76	0.997	3.223	0.997	3.223	0.056	-85.76
1336.274	0.055	-85.827	0.998	3.124	0.998	3.124	0.055	-85.827
1346.085	0.053	-85.891	0.998	3.026	0.998	3.026	0.053	-85.891
1355.897	0.051	-85.953	0.998	2.928	0.998	2.928	0.051	-85.953
1365.709	0.049	-86.011	0.998	2.832	0.998	2.832	0.049	-86.011
1375.52	0.048	-86.066	0.998	2.736	0.998	2.736	0.048	-86.066
1385.332	0.046	-86.118	0.998	2.641	0.998	2.641	0.046	-86.118
1395.144	0.044	-86.167	0.998	2.546	0.998	2.546	0.044	-86.167
1404.955	0.043	-86.211	0.998	2.453	0.998	2.453	0.043	-86.211
1414.767	0.041	-86.251	0.998	2.36	0.998	2.36	0.041	-86.251
1424.579	0.04	-86.287	0.998	2.268	0.998	2.268	0.04	-86.287
1434.39	0.038	-86.317	0.998	2.177	0.998	2.177	0.038	-86.317
1444.202	0.036	-86.343	0.998	2.086	0.998	2.086	0.036	-86.343
1454.014	0.035	-86.362	0.998	1.996	0.998	1.996	0.035	-86.362
1463.826	0.033	-86.374	0.998	1.907	0.998	1.907	0.033	-86.374
1473.637	0.032	-86.379	0.998	1.819	0.998	1.819	0.032	-86.379
1483.449	0.03	-86.375	0.999	1.731	0.999	1.731	0.03	-86.375
1493.261	0.029	-86.362	0.999	1.643	0.999	1.643	0.029	-86.362
1503.072	0.027	-86.338	0.999	1.557	0.999	1.557	0.027	-86.338
1512.884	0.026	-86.301	0.999	1.471	0.999	1.471	0.026	-86.301
1522.696	0.024	-86.249	0.999	1.386	0.999	1.386	0.024	-86.249
1532.507	0.023	-86.18	0.999	1.301	0.999	1.301	0.023	-86.18
1542.319	0.021	-86.09	0.999	1.217	0.999	1.217	0.021	-86.09
1552.131	0.02	-85.975	0.999	1.133	0.999	1.133	0.02	-85.975
1561.943	0.018	-85.829	0.999	1.05	0.999	1.05	0.018	-85.829
1571.754	0.017	-85.647	0.999	0.968	0.999	0.968	0.017	-85.647
1581.566	0.015	-85.416	0.999	0.886	0.999	0.886	0.015	-85.416
1591.378	0.014	-85.124	0.999	0.804	0.999	0.804	0.014	-85.124
1601.189	0.013	-84.752	0.999	0.723	0.999	0.723	0.013	-84.752
1611.001	0.011	-84.27	0.999	0.643	0.999	0.643	0.011	-84.27
1620.813	9.88E-03	-83.634	0.999	0.563	0.999	0.563	9.88E-03	-83.634
1630.624	8.51E-03	-82.77	0.999	0.484	0.999	0.484	8.51E-03	-82.77
1640.436	7.14E-03	-81.552	0.999	0.405	0.999	0.405	7.14E-03	-81.552
1650.248	5.79E-03	-79.738	0.999	0.327	0.999	0.327	5.79E-03	-79.738
1660.059	4.46E-03	-76.801	0.999	0.249	0.999	0.249	4.46E-03	-76.801
1669.871	3.16E-03	-71.374	0.999	0.172	0.999	0.172	3.16E-03	-71.374
1679.683	1.93E-03	-58.728	0.999	0.095	0.999	0.095	1.93E-03	-58.728
1689.495	1.05E-03	-17.548	0.999	0.018	0.999	0.018	1.05E-03	-17.548
1699.306	1.42E-03	45.277	0.999	-0.058	0.999	-0.058	1.42E-03	45.277
1709.118	2.54E-03	66.66	0.999	-0.134	0.999	-0.134	2.54E-03	66.66
1718.93	3.78E-03	74.453	0.999	-0.209	0.999	-0.209	3.78E-03	74.453
1728.741	5.05E-03	78.299	0.999	-0.283	0.999	-0.283	5.05E-03	78.299
1738.553	6.33E-03	80.552	0.999	-0.358	0.999	-0.358	6.33E-03	80.552
1748.365	7.60E-03	82.015	0.999	-0.432	0.999	-0.432	7.60E-03	82.015
1758.176	8.88E-03	83.031	0.999	-0.505	0.999	-0.505	8.88E-03	83.031
1767.988	0.01	83.769	0.999	-0.578	0.999	-0.578	0.01	83.769
1777.8	0.011	84.325	0.999	-0.651	0.999	-0.651	0.011	84.325
1787.611	0.013	84.753	0.999	-0.724	0.999	-0.724	0.013	84.753
1797.423	0.014	85.089	0.999	-0.796	0.999	-0.796	0.014	85.089
1807.235	0.015	85.356	0.999	-0.867	0.999	-0.867	0.015	85.356
1817.047	0.016	85.571	0.999	-0.938	0.999	-0.938	0.016	85.571
1826.858	0.018	85.745	0.999	-1.009	0.999	-1.009	0.018	85.745
1836.67	0.019	85.886	0.999	-1.08	0.999	-1.08	0.019	85.886
1846.482	0.02	86	0.999	-1.15	0.999	-1.15	0.02	86
1856.293	0.021	86.094	0.999	-1.22	0.999	-1.22	0.021	86.094
1866.105	0.023	86.169	0.999	-1.289	0.999	-1.289	0.023	86.169
1875.917	0.024	86.229	0.999	-1.359	0.999	-1.359	0.024	86.229
1885.728	0.025	86.276	0.999	-1.428	0.999	-1.428	0.025	86.276
1895.54	0.026	86.313	0.999	-1.496	0.999	-1.496	0.026	86.313
1905.352	0.027	86.34	0.999	-1.564	0.999	-1.564	0.027	86.34
1915.164	0.029	86.359	0.999	-1.632	0.999	-1.632	0.029	86.359
1924.975	0.03	86.372	0.999	-1.7	0.999	-1.7	0.03	86.372
1934.787	0.031	86.378	0.999	-1.767	0.999	-1.767	0.031	86.378
1944.599	0.032	86.379	0.998	-1.834	0.998	-1.834	0.032	86.379
1954.41	0.033	86.375	0.998	-1.901	0.998	-1.901	0.033	86.375
1964.222	0.034	86.366	0.998	-1.967	0.998	-1.967	0.034	86.366
1974.034	0.035	86.355	0.998	-2.033	0.998	-2.033	0.035	86.355
1983.845	0.037	86.339	0.998	-2.099	0.998	-2.099	0.037	86.339
1993.657	0.038	86.321	0.998	-2.165	0.998	-2.165	0.038	86.321
2003.469	0.039	86.3	0.998	-2.23	0.998	-2.23	0.039	86.3
2013.28	0.04	86.277	0.998	-2.295	0.998	-2.295	0.04	86.277
2023.092	0.041	86.251	0.998	-2.36	0.998	-2.36	0.041	86.251
2032.904	0.042	86.224	0.998	-2.424	0.998	-2.424	0.042	86.224
2042.716	0.043	86.194	0.998	-2.488	0.998	-2.488	0.043	86.194
2052.527	0.045	86.164	0.998	-2.552	0.998	-2.552	0.045	86.164
2062.339	0.046	86.131	0.998	-2.616	0.998	-2.616	0.046	86.131
2072.151	0.047	86.097	0.998	-2.679	0.998	-2.679	0.047	86.097
2081.962	0.048	86.062	0.998	-2.743	0.998	-2.743	0.048	86.062
2091.774	0.049	86.026	0.998	-2.806	0.998	-2.806	0.049	86.026
2101.586	0.05	85.989	0.998	-2.868	0.998	-2.868	0.05	85.989
2111.397	0.051	85.951	0.998	-2.931	0.998	-2.931	0.051	85.951
2121.209	0.052	85.912	0.998	-2.993	0.998	-2.993	0.052	85.912
2131.021	0.053	85.872	0.998	-3.055	0.998	-3.055	0.053	85.872
2140.833	0.054	85.832	0.998	-3.117	0.998	-3.117	0.054	85.832
2150.644	0.055	85.791	0.997	-3.178	0.997	-3.178	0.055	85.791
2160.456	0.057	85.749	0.997	-3.24	0.997	-3.24	0.057	85.749
2170.268	0.058	85.707	0.997	-3.301	0.997	-3.301	0.058	85.707
2180.079	0.059	85.664	0.997	-3.362	0.997	-3.362	0.059	85.664
2189.891	0.06	85.62	0.997	-3.423	0.997	-3.423	0.06	85.62
2199.703	0.061	85.576	0.997	-3.483	0.997	-3.483	0.061	85.576
2209.514	0.062	85.532	0.997	-3.543	0.997	-3.543	0.062	85.532
2219.326	0.063	85.488	0.997	-3.603	0.997	-3.603	0.063	85.488
2229.138	0.064	85.443	0.997	-3.663	0.997	-3.663	0.064	85.443
2238.949	0.065	85.397	0.997	-3.723	0.997	-3.723	0.065	85.397
2248.761	0.066	85.352	0.997	-3.782	0.997	-3.782	0.066	85.352
2258.573	0.067	85.306	0.997	-3.842	0.997	-3.842	0.067	85.306
2268.385	0.068	85.26	0.997	-3.901	0.997	-3.901	0.068	85.26
2278.196	0.069	85.213	0.997	-3.96	0.997	-3.96	0.069	85.213
2288.008	0.07	85.167	0.997	-4.018	0.997	-4.018	0.07	85.167
2297.82	0.071	85.12	0.996	-4.077	0.996	-4.077	0.071	85.12
2307.631	0.072	85.073	0.996	-4.135	0.996	-4.135	0.072	85.073
2317.443	0.073	85.026	0.996	-4.193	0.996	-4.193	0.073	85.026
2327.255	0.074	84.978	0.996	-4.251	0.996	-4.251	0.074	84.978
2337.066	0.075	84.931	0.996	-4.309	0.996	-4.309	0.075	84.931
2346.878	0.076	84.883	0.996	-4.367	0.996	-4.367	0.076	84.883
2356.69	0.077	84.836	0.996	-4.424	0.996	-4.424	0.077	84.836
2366.501	0.078	84.788	0.996	-4.482	0.996	-4.482	0.078	84.788
2376.313	0.079	84.74	0.996	-4.539	0.996	-4.539	0.079	84.74
2386.125	0.08	84.692	0.996	-4.596	0.996	-4.596	0.08	84.692
2395.937	0.081	84.644	0.996	-4.652	0.996	-4.652	0.081	84.644
2405.748	0.082	84.596	0.996	-4.709	0.996	-4.709	0.082	84.596
2415.56	0.083	84.548	0.996	-4.765	0.996	-4.765	0.083	84.548
2425.372	0.084	84.5	0.995	-4.822	0.995	-4.822	0.084	84.5
2435.183	0.085	84.451	0.995	-4.878	0.995	-4.878	0.085	84.451
2444.995	0.086	84.403	0.995	-4.934	0.995	-4.934	0.086	84.403
2454.807	0.087	84.355	0.995	-4.99	0.995	-4.99	0.087	84.355
2464.618	0.088	84.306	0.995	-5.045	0.995	-5.045	0.088	84.306
2474.43	0.089	84.258	0.995	-5.101	0.995	-5.101	0.089	84.258
2484.242	0.09	84.209	0.995	-5.156	0.995	-5.156	0.09	84.209
2494.054	0.091	84.161	0.995	-5.211	0.995	-5.211	0.091	84.161
2503.865	0.092	84.112	0.995	-5.267	0.995	-5.267	0.092	84.112
2513.677	0.093	84.064	0.995	-5.321	0.995	-5.321	0.093	84.064
2523.489	0.094	84.015	0.995	-5.376	0.995	-5.376	0.094	84.015
2533.3	0.095	83.967	0.995	-5.431	0.995	-5.431	0.095	83.967
2543.112	0.096	83.918	0.994	-5.485	0.994	-5.485	0.096	83.918
2552.924	0.097	83.87	0.994	-5.54	0.994	-5.54	0.097	83.87
2562.735	0.097	83.821	0.994	-5.594	0.994	-5.594	0.097	83.821
2572.547	0.098	83.773	0.994	-5.648	0.994	-5.648	0.098	83.773
2582.359	0.099	83.725	0.994	-5.702	0.994	-5.702	0.099	83.725
2592.17	0.1	83.676	0.994	-5.756	0.994	-5.756	0.1	83.676
2601.982	0.101	83.628	0.994	-5.81	0.994	-5.81	0.101	83.628
2611.794	0.102	83.579	0.994	-5.863	0.994	-5.863	0.102	83.579
2621.606	0.103	83.531	0.994	-5.917	0.994	-5.917	0.103	83.531
2631.417	0.104	83.483	0.994	-5.97	0.994	-5.97	0.104	83.483
2641.229	0.105	83.434	0.993	-6.023	0.993	-6.023	0.105	83.434
2651.041	0.106	83.386	0.993	-6.076	0.993	-6.076	0.106	83.386
2660.852	0.107	83.338	0.993	-6.129	0.993	-6.129	0.107	83.338
2670.664	0.108	83.29	0.993	-6.182	0.993	-6.182	0.108	83.29
2680.476	0.109	83.241	0.993	-6.235	0.993	-6.235	0.109	83.241
2690.287	0.11	83.193	0.993	-6.287	0.993	-6.287	0.11	83.193
2700.099	0.11	83.145	0.993	-6.34	0.993	-6.34	0.11	83.145
2709.911	0.111	83.097	0.993	-6.392	0.993	-6.392	0.111	83.097
2719.722	0.112	83.049	0.993	-6.444	0.993	-6.444	0.112	83.049
2729.534	0.113	83.001	0.993	-6.496	0.993	-6.496	0.113	83.001
2739.346	0.114	82.953	0.992	-6.548	0.992	-6.548	0.114	82.953
2749.158	0.115	82.905	0.992	-6.6	0.992	-6.6	0.115	82.905
2758.969	0.116	82.857	0.992	-6.652	0.992	-6.652	0.116	82.857
2768.781	0.117	82.809	0.992	-6.703	0.992	-6.703	0.117	82.809
2778.593	0.118	82.762	0.992	-6.755	0.992	-6.755	0.118	82.762
2788.404	0.119	82.714	0.992	-6.806	0.992	-6.806	0.119	82.714
2798.216	0.119	82.666	0.992	-6.858	0.992	-6.858	0.119	82.666
2808.028	0.12	82.619	0.992	-6.909	0.992	-6.909	0.12	82.619
2817.839	0.121	82.571	0.992	-6.96	0.992	-6.96	0.121	82.571
2827.651	0.122	82.523	0.992	-7.011	0.992	-7.011	0.122	82.523
2837.463	0.123	82.476	0.991	-7.062	0.991	-7.062	0.123	82.476
2847.275	0.124	82.428	0.991	-7.113	0.991	-7.113	0.124	82.428
2857.086	0.125	82.381	0.991	-7.163	0.991	-7.163	0.125	82.381
2866.898	0.126	82.334	0.991	-7.214	0.991	-7.214	0.126	82.334
2876.71	0.126	82.286	0.991	-7.264	0.991	-7.264	0.126	82.286
2886.521	0.127	82.239	0.991	-7.315	0.991	-7.315	0.127	82.239
2896.333	0.128	82.192	0.991	-7.365	0.991	-7.365	0.128	82.192
2906.145	0.129	82.145	0.991	-7.415	0.991	-7.415	0.129	82.145
2915.956	0.13	82.098	0.991	-7.465	0.991	-7.465	0.13	82.098
2925.768	0.131	82.051	0.99	-7.515	0.99	-7.515	0.131	82.051
2935.58	0.132	82.004	0.99	-7.565	0.99	-7.565	0.132	82.004
2945.391	0.133	81.957	0.99	-7.615	0.99	-7.615	0.133	81.957
2955.203	0.133	81.91	0.99	-7.665	0.99	-7.665	0.133	81.91
2965.015	0.134	81.863	0.99	-7.714	0.99	-7.714	0.134	81.863
2974.827	0.135	81.816	0.99	-7.764	0.99	-7.764	0.135	81.816
2984.638	0.136	81.769	0.99	-7.813	0.99	-7.813	0.136	81.769
2994.45	0.137	81.723	0.99	-7.863	0.99	-7.863	0.137	81.723
3004.262	0.138	81.676	0.989	-7.912	0.989	-7.912	0.138	81.676
3014.073	0.139	81.629	0.989	-7.961	0.989	-7.961	0.139	81.629
3023.885	0.139	81.583	0.989	-8.01	0.989	-8.01	0.139	81.583
3033.697	0.14	81.536	0.989	-8.059	0.989	-8.059	0.14	81.536
3043.508	0.141	81.49	0.989	-8.108	0.989	-8.108	0.141	81.49
3053.32	0.142	81.444	0.989	-8.157	0.989	-8.157	0.142	81.444
3063.132	0.143	81.397	0.989	-8.206	0.989	-8.206	0.143	81.397
3072.944	0.144	81.351	0.989	-8.254	0.989	-8.254	0.144	81.351
3082.755	0.144	81.305	0.989	-8.303	0.989	-8.303	0.144	81.305
3092.567	0.145	81.259	0.988	-8.351	0.988	-8.351	0.145	81.259
3102.379	0.146	81.213	0.988	-8.4	0.988	-8.4	0.146	81.213
3112.19	0.147	81.166	0.988	-8.448	0.988	-8.448	0.147	81.166
3122.002	0.148	81.12	0.988	-8.496	0.988	-8.496	0.148	81.12
3131.814	0.149	81.074	0.988	-8.544	0.988	-8.544	0.149	81.074
3141.625	0.149	81.029	0.988	-8.593	0.988	-8.593	0.149	81.029
3151.437	0.15	80.983	0.988	-8.64	0.988	-8.64	0.15	80.983
3161.249	0.151	80.937	0.988	-8.688	0.988	-8.688	0.151	80.937
3171.06	0.152	80.891	0.987	-8.736	0.987	-8.736	0.152	80.891
3180.872	0.153	80.845	0.987	-8.784	0.987	-8.784	0.153	80.845
3190.684	0.154	80.8	0.987	-8.832	0.987	-8.832	0.154	80.8
3200.496	0.154	80.754	0.987	-8.879	0.987	-8.879	0.154	80.754
3210.307	0.155	80.709	0.987	-8.927	0.987	-8.927	0.155	80.709
3220.119	0.156	80.663	0.987	-8.974	0.987	-8.974	0.156	80.663
3229.931	0.157	80.618	0.987	-9.022	0.987	-9.022	0.157	80.618
3239.742	0.158	80.572	0.987	-9.069	0.987	-9.069	0.158	80.572
3249.554	0.158	80.527	0.986	-9.116	0.986	-9.116	0.158	80.527
3259.366	0.159	80.482	0.986	-9.163	0.986	-9.163	0.159	80.482
3269.177	0.16	80.437	0.986	-9.21	0.986	-9.21	0.16	80.437
3278.989	0.161	80.391	0.986	-9.257	0.986	-9.257	0.161	80.391
