! AVX Thin Film Operation		Date: April 2012 
! Description: Accu-P® Series, Thin Film, SMD, RF Capacitor
! Part Number: 12101J4R7ABTTR					
!	100	MHz	-	10.05	GHz			
!	Serial	Measurements						
!								
#	MHZ	S	MA	R	50			
!	S11	S21	S12	S22				
!	dB	Phase	dB	Phase	dB	Phase	dB	Phase
100	0.959	-16.483	0.284	73.495	0.284	73.495	0.959	-16.483
109.812	0.951	-18.007	0.309	71.968	0.309	71.968	0.951	-18.007
119.623	0.942	-19.508	0.334	70.466	0.334	70.466	0.942	-19.508
129.435	0.934	-20.982	0.358	68.989	0.358	68.989	0.934	-20.982
139.247	0.924	-22.431	0.382	67.538	0.382	67.538	0.924	-22.431
149.058	0.914	-23.852	0.404	66.115	0.404	66.115	0.914	-23.852
158.87	0.904	-25.245	0.426	64.72	0.426	64.72	0.904	-25.245
168.682	0.894	-26.609	0.448	63.353	0.448	63.353	0.894	-26.609
178.494	0.883	-27.945	0.469	62.016	0.469	62.016	0.883	-27.945
188.305	0.872	-29.25	0.489	60.708	0.489	60.708	0.872	-29.25
198.117	0.861	-30.526	0.508	59.43	0.508	59.43	0.861	-30.526
207.929	0.85	-31.772	0.527	58.182	0.527	58.182	0.85	-31.772
217.74	0.838	-32.989	0.544	56.963	0.544	56.963	0.838	-32.989
227.552	0.827	-34.175	0.562	55.774	0.562	55.774	0.827	-34.175
237.364	0.815	-35.333	0.578	54.614	0.578	54.614	0.815	-35.333
247.175	0.804	-36.461	0.594	53.484	0.594	53.484	0.804	-36.461
256.987	0.792	-37.56	0.61	52.382	0.61	52.382	0.792	-37.56
266.799	0.781	-38.631	0.624	51.309	0.624	51.309	0.781	-38.631
276.611	0.769	-39.675	0.638	50.263	0.638	50.263	0.769	-39.675
286.422	0.758	-40.691	0.652	49.245	0.652	49.245	0.758	-40.691
296.234	0.746	-41.68	0.665	48.254	0.665	48.254	0.746	-41.68
306.046	0.735	-42.643	0.677	47.289	0.677	47.289	0.735	-42.643
315.857	0.724	-43.58	0.689	46.349	0.689	46.349	0.724	-43.58
325.669	0.712	-44.492	0.701	45.434	0.701	45.434	0.712	-44.492
335.481	0.701	-45.38	0.712	44.544	0.712	44.544	0.701	-45.38
345.292	0.691	-46.245	0.722	43.678	0.722	43.678	0.691	-46.245
355.104	0.68	-47.086	0.732	42.834	0.732	42.834	0.68	-47.086
364.916	0.669	-47.905	0.742	42.013	0.742	42.013	0.669	-47.905
374.727	0.659	-48.702	0.751	41.213	0.751	41.213	0.659	-48.702
384.539	0.649	-49.478	0.76	40.435	0.76	40.435	0.649	-49.478
394.351	0.638	-50.233	0.769	39.677	0.769	39.677	0.638	-50.233
404.163	0.628	-50.969	0.777	38.939	0.777	38.939	0.628	-50.969
413.974	0.619	-51.685	0.785	38.22	0.785	38.22	0.619	-51.685
423.786	0.609	-52.383	0.792	37.52	0.792	37.52	0.609	-52.383
433.598	0.6	-53.063	0.799	36.838	0.799	36.838	0.6	-53.063
443.409	0.59	-53.725	0.806	36.173	0.806	36.173	0.59	-53.725
453.221	0.581	-54.37	0.813	35.525	0.813	35.525	0.581	-54.37
463.033	0.572	-54.999	0.819	34.894	0.819	34.894	0.572	-54.999
472.844	0.563	-55.613	0.825	34.278	0.825	34.278	0.563	-55.613
482.656	0.555	-56.21	0.831	33.678	0.831	33.678	0.555	-56.21
492.468	0.546	-56.793	0.837	33.092	0.837	33.092	0.546	-56.793
502.279	0.538	-57.362	0.842	32.521	0.842	32.521	0.538	-57.362
512.091	0.529	-57.917	0.847	31.964	0.847	31.964	0.529	-57.917
521.903	0.521	-58.458	0.852	31.42	0.852	31.42	0.521	-58.458
531.715	0.513	-58.987	0.857	30.889	0.857	30.889	0.513	-58.987
541.526	0.506	-59.503	0.862	30.37	0.862	30.37	0.506	-59.503
551.338	0.498	-60.006	0.866	29.864	0.866	29.864	0.498	-60.006
561.15	0.49	-60.498	0.87	29.369	0.87	29.369	0.49	-60.498
570.961	0.483	-60.979	0.874	28.886	0.874	28.886	0.483	-60.979
580.773	0.476	-61.449	0.878	28.414	0.878	28.414	0.476	-61.449
590.585	0.469	-61.908	0.882	27.952	0.882	27.952	0.469	-61.908
600.396	0.462	-62.356	0.886	27.501	0.886	27.501	0.462	-62.356
610.208	0.455	-62.795	0.889	27.059	0.889	27.059	0.455	-62.795
620.02	0.448	-63.224	0.893	26.627	0.893	26.627	0.448	-63.224
629.832	0.442	-63.644	0.896	26.205	0.896	26.205	0.442	-63.644
639.643	0.435	-64.055	0.899	25.791	0.899	25.791	0.435	-64.055
649.455	0.429	-64.457	0.902	25.386	0.902	25.386	0.429	-64.457
659.267	0.422	-64.85	0.905	24.99	0.905	24.99	0.422	-64.85
669.078	0.416	-65.236	0.908	24.602	0.908	24.602	0.416	-65.236
678.89	0.41	-65.613	0.911	24.222	0.911	24.222	0.41	-65.613
688.702	0.404	-65.982	0.913	23.849	0.913	23.849	0.404	-65.982
698.513	0.398	-66.345	0.916	23.484	0.916	23.484	0.398	-66.345
708.325	0.393	-66.699	0.918	23.126	0.918	23.126	0.393	-66.699
718.137	0.387	-67.047	0.921	22.776	0.921	22.776	0.387	-67.047
727.948	0.382	-67.388	0.923	22.431	0.923	22.431	0.382	-67.388
737.76	0.376	-67.723	0.925	22.094	0.925	22.094	0.376	-67.723
747.572	0.371	-68.051	0.928	21.763	0.928	21.763	0.371	-68.051
757.384	0.365	-68.372	0.93	21.438	0.93	21.438	0.365	-68.372
767.195	0.36	-68.688	0.932	21.119	0.932	21.119	0.36	-68.688
777.007	0.355	-68.998	0.934	20.806	0.934	20.806	0.355	-68.998
786.819	0.35	-69.302	0.935	20.499	0.935	20.499	0.35	-69.302
796.63	0.345	-69.6	0.937	20.197	0.937	20.197	0.345	-69.6
806.442	0.34	-69.894	0.939	19.901	0.939	19.901	0.34	-69.894
816.254	0.336	-70.181	0.941	19.61	0.941	19.61	0.336	-70.181
826.065	0.331	-70.464	0.942	19.324	0.942	19.324	0.331	-70.464
835.877	0.326	-70.742	0.944	19.042	0.944	19.042	0.326	-70.742
845.689	0.322	-71.015	0.946	18.766	0.946	18.766	0.322	-71.015
855.5	0.317	-71.284	0.947	18.494	0.947	18.494	0.317	-71.284
865.312	0.313	-71.547	0.949	18.227	0.949	18.227	0.313	-71.547
875.124	0.308	-71.807	0.95	17.964	0.95	17.964	0.308	-71.807
884.936	0.304	-72.062	0.951	17.705	0.951	17.705	0.304	-72.062
894.747	0.3	-72.313	0.953	17.45	0.953	17.45	0.3	-72.313
904.559	0.296	-72.56	0.954	17.2	0.954	17.2	0.296	-72.56
914.371	0.292	-72.803	0.955	16.953	0.955	16.953	0.292	-72.803
924.182	0.288	-73.042	0.957	16.711	0.957	16.711	0.288	-73.042
933.994	0.284	-73.277	0.958	16.472	0.958	16.472	0.284	-73.277
943.806	0.28	-73.508	0.959	16.236	0.959	16.236	0.28	-73.508
953.617	0.276	-73.736	0.96	16.004	0.96	16.004	0.276	-73.736
963.429	0.272	-73.961	0.961	15.776	0.961	15.776	0.272	-73.961
973.241	0.268	-74.182	0.962	15.551	0.962	15.551	0.268	-74.182
983.053	0.264	-74.399	0.963	15.329	0.963	15.329	0.264	-74.399
992.864	0.261	-74.614	0.964	15.111	0.964	15.111	0.261	-74.614
1002.676	0.257	-74.825	0.965	14.895	0.965	14.895	0.257	-74.825
1012.488	0.253	-75.033	0.966	14.683	0.966	14.683	0.253	-75.033
1022.299	0.25	-75.239	0.967	14.473	0.967	14.473	0.25	-75.239
1032.111	0.246	-75.441	0.968	14.267	0.968	14.267	0.246	-75.441
1041.923	0.243	-75.64	0.969	14.063	0.969	14.063	0.243	-75.64
1051.734	0.24	-75.837	0.97	13.862	0.97	13.862	0.24	-75.837
1061.546	0.236	-76.031	0.97	13.663	0.97	13.663	0.236	-76.031
1071.358	0.233	-76.222	0.971	13.468	0.971	13.468	0.233	-76.222
1081.169	0.23	-76.41	0.972	13.274	0.972	13.274	0.23	-76.41
1090.981	0.226	-76.596	0.973	13.084	0.973	13.084	0.226	-76.596
1100.793	0.223	-76.78	0.974	12.895	0.974	12.895	0.223	-76.78
1110.605	0.22	-76.961	0.974	12.71	0.974	12.71	0.22	-76.961
1120.416	0.217	-77.139	0.975	12.526	0.975	12.526	0.217	-77.139
1130.228	0.214	-77.315	0.976	12.345	0.976	12.345	0.214	-77.315
1140.04	0.211	-77.489	0.976	12.166	0.976	12.166	0.211	-77.489
1149.851	0.208	-77.661	0.977	11.989	0.977	11.989	0.208	-77.661
1159.663	0.205	-77.83	0.978	11.814	0.978	11.814	0.205	-77.83
1169.475	0.202	-77.998	0.978	11.641	0.978	11.641	0.202	-77.998
1179.286	0.199	-78.163	0.979	11.471	0.979	11.471	0.199	-78.163
1189.098	0.196	-78.326	0.979	11.302	0.979	11.302	0.196	-78.326
1198.91	0.193	-78.487	0.98	11.135	0.98	11.135	0.193	-78.487
1208.722	0.19	-78.646	0.98	10.97	0.98	10.97	0.19	-78.646
1218.533	0.188	-78.803	0.981	10.807	0.981	10.807	0.188	-78.803
1228.345	0.185	-78.958	0.982	10.646	0.982	10.646	0.185	-78.958
1238.157	0.182	-79.112	0.982	10.486	0.982	10.486	0.182	-79.112
1247.968	0.179	-79.263	0.983	10.329	0.983	10.329	0.179	-79.263
1257.78	0.177	-79.413	0.983	10.173	0.983	10.173	0.177	-79.413
1267.592	0.174	-79.56	0.983	10.018	0.983	10.018	0.174	-79.56
1277.403	0.171	-79.706	0.984	9.866	0.984	9.866	0.171	-79.706
1287.215	0.169	-79.851	0.984	9.715	0.984	9.715	0.169	-79.851
1297.027	0.166	-79.993	0.985	9.565	0.985	9.565	0.166	-79.993
1306.838	0.164	-80.134	0.985	9.417	0.985	9.417	0.164	-80.134
1316.65	0.161	-80.274	0.986	9.271	0.986	9.271	0.161	-80.274
1326.462	0.159	-80.411	0.986	9.126	0.986	9.126	0.159	-80.411
1336.274	0.156	-80.547	0.986	8.982	0.986	8.982	0.156	-80.547
1346.085	0.154	-80.682	0.987	8.84	0.987	8.84	0.154	-80.682
1355.897	0.151	-80.815	0.987	8.699	0.987	8.699	0.151	-80.815
1365.709	0.149	-80.946	0.988	8.56	0.988	8.56	0.149	-80.946
1375.52	0.146	-81.076	0.988	8.422	0.988	8.422	0.146	-81.076
1385.332	0.144	-81.204	0.988	8.285	0.988	8.285	0.144	-81.204
1395.144	0.142	-81.331	0.989	8.149	0.989	8.149	0.142	-81.331
1404.955	0.139	-81.457	0.989	8.015	0.989	8.015	0.139	-81.457
1414.767	0.137	-81.581	0.989	7.882	0.989	7.882	0.137	-81.581
1424.579	0.135	-81.703	0.99	7.75	0.99	7.75	0.135	-81.703
1434.39	0.133	-81.824	0.99	7.619	0.99	7.619	0.133	-81.824
1444.202	0.13	-81.944	0.99	7.49	0.99	7.49	0.13	-81.944
1454.014	0.128	-82.062	0.99	7.362	0.99	7.362	0.128	-82.062
1463.826	0.126	-82.179	0.991	7.234	0.991	7.234	0.126	-82.179
1473.637	0.124	-82.295	0.991	7.108	0.991	7.108	0.124	-82.295
1483.449	0.122	-82.409	0.991	6.983	0.991	6.983	0.122	-82.409
1493.261	0.119	-82.522	0.992	6.859	0.992	6.859	0.119	-82.522
1503.072	0.117	-82.634	0.992	6.736	0.992	6.736	0.117	-82.634
1512.884	0.115	-82.744	0.992	6.614	0.992	6.614	0.115	-82.744
1522.696	0.113	-82.853	0.992	6.494	0.992	6.494	0.113	-82.853
1532.507	0.111	-82.96	0.993	6.374	0.993	6.374	0.111	-82.96
1542.319	0.109	-83.066	0.993	6.255	0.993	6.255	0.109	-83.066
1552.131	0.107	-83.171	0.993	6.137	0.993	6.137	0.107	-83.171
1561.943	0.105	-83.275	0.993	6.02	0.993	6.02	0.105	-83.275
1571.754	0.103	-83.377	0.993	5.903	0.993	5.903	0.103	-83.377
1581.566	0.101	-83.478	0.994	5.788	0.994	5.788	0.101	-83.478
1591.378	0.099	-83.577	0.994	5.674	0.994	5.674	0.099	-83.577
1601.189	0.097	-83.675	0.994	5.56	0.994	5.56	0.097	-83.675
1611.001	0.095	-83.772	0.994	5.448	0.994	5.448	0.095	-83.772
1620.813	0.093	-83.867	0.994	5.336	0.994	5.336	0.093	-83.867
1630.624	0.091	-83.961	0.995	5.225	0.995	5.225	0.091	-83.961
1640.436	0.089	-84.054	0.995	5.115	0.995	5.115	0.089	-84.054
1650.248	0.087	-84.145	0.995	5.006	0.995	5.006	0.087	-84.145
1660.059	0.085	-84.235	0.995	4.897	0.995	4.897	0.085	-84.235
1669.871	0.083	-84.323	0.995	4.789	0.995	4.789	0.083	-84.323
1679.683	0.082	-84.409	0.995	4.682	0.995	4.682	0.082	-84.409
1689.495	0.08	-84.495	0.996	4.576	0.996	4.576	0.08	-84.495
1699.306	0.078	-84.578	0.996	4.47	0.996	4.47	0.078	-84.578
1709.118	0.076	-84.66	0.996	4.366	0.996	4.366	0.076	-84.66
1718.93	0.074	-84.74	0.996	4.261	0.996	4.261	0.074	-84.74
1728.741	0.073	-84.819	0.996	4.158	0.996	4.158	0.073	-84.819
1738.553	0.071	-84.895	0.996	4.055	0.996	4.055	0.071	-84.895
1748.365	0.069	-84.97	0.996	3.953	0.996	3.953	0.069	-84.97
1758.176	0.067	-85.043	0.996	3.852	0.996	3.852	0.067	-85.043
1767.988	0.065	-85.114	0.997	3.751	0.997	3.751	0.065	-85.114
1777.8	0.064	-85.183	0.997	3.651	0.997	3.651	0.064	-85.183
1787.611	0.062	-85.25	0.997	3.552	0.997	3.552	0.062	-85.25
1797.423	0.06	-85.314	0.997	3.453	0.997	3.453	0.06	-85.314
1807.235	0.059	-85.376	0.997	3.355	0.997	3.355	0.059	-85.376
1817.047	0.057	-85.436	0.997	3.257	0.997	3.257	0.057	-85.436
1826.858	0.055	-85.492	0.997	3.16	0.997	3.16	0.055	-85.492
1836.67	0.053	-85.546	0.997	3.064	0.997	3.064	0.053	-85.546
1846.482	0.052	-85.597	0.997	2.968	0.997	2.968	0.052	-85.597
1856.293	0.05	-85.645	0.997	2.873	0.997	2.873	0.05	-85.645
1866.105	0.048	-85.689	0.998	2.778	0.998	2.778	0.048	-85.689
1875.917	0.047	-85.729	0.998	2.684	0.998	2.684	0.047	-85.729
1885.728	0.045	-85.765	0.998	2.591	0.998	2.591	0.045	-85.765
1895.54	0.044	-85.797	0.998	2.498	0.998	2.498	0.044	-85.797
1905.352	0.042	-85.824	0.998	2.405	0.998	2.405	0.042	-85.824
1915.164	0.04	-85.845	0.998	2.314	0.998	2.314	0.04	-85.845
1924.975	0.039	-85.861	0.998	2.222	0.998	2.222	0.039	-85.861
1934.787	0.037	-85.87	0.998	2.131	0.998	2.131	0.037	-85.87
1944.599	0.036	-85.872	0.998	2.041	0.998	2.041	0.036	-85.872
1954.41	0.034	-85.866	0.998	1.951	0.998	1.951	0.034	-85.866
1964.222	0.033	-85.85	0.998	1.862	0.998	1.862	0.033	-85.85
1974.034	0.031	-85.825	0.998	1.773	0.998	1.773	0.031	-85.825
1983.845	0.029	-85.787	0.998	1.684	0.998	1.684	0.029	-85.787
1993.657	0.028	-85.736	0.998	1.596	0.998	1.596	0.028	-85.736
2003.469	0.026	-85.669	0.998	1.509	0.998	1.509	0.026	-85.669
2013.28	0.025	-85.583	0.998	1.422	0.998	1.422	0.025	-85.583
2023.092	0.023	-85.476	0.998	1.335	0.998	1.335	0.023	-85.476
2032.904	0.022	-85.342	0.998	1.249	0.998	1.249	0.022	-85.342
2042.716	0.02	-85.177	0.998	1.163	0.998	1.163	0.02	-85.177
2052.527	0.019	-84.974	0.999	1.078	0.999	1.078	0.019	-84.974
2062.339	0.017	-84.722	0.999	0.993	0.999	0.993	0.017	-84.722
2072.151	0.016	-84.41	0.999	0.909	0.999	0.909	0.016	-84.41
2081.962	0.014	-84.02	0.999	0.825	0.999	0.825	0.014	-84.02
2091.774	0.013	-83.525	0.999	0.741	0.999	0.741	0.013	-83.525
2101.586	0.012	-82.889	0.999	0.658	0.999	0.658	0.012	-82.889
2111.397	0.01	-82.051	0.999	0.575	0.999	0.575	0.01	-82.051
2121.209	8.69E-03	-80.917	0.999	0.493	0.999	0.493	8.69E-03	-80.917
2131.021	7.28E-03	-79.316	0.999	0.411	0.999	0.411	7.28E-03	-79.316
2140.833	5.89E-03	-76.923	0.999	0.329	0.999	0.329	5.89E-03	-76.923
2150.644	4.51E-03	-73.026	0.999	0.248	0.999	0.248	4.51E-03	-73.026
2160.456	3.19E-03	-65.78	0.999	0.167	0.999	0.167	3.19E-03	-65.78
2170.268	1.99E-03	-49.108	0.999	0.086	0.999	0.086	1.99E-03	-49.108
2180.079	1.30E-03	-4.622	0.999	6.02E-03	0.999	6.02E-03	1.30E-03	-4.622
2189.891	1.83E-03	44.682	0.999	-0.074	0.999	-0.074	1.83E-03	44.682
2199.703	2.97E-03	63.944	0.999	-0.153	0.999	-0.153	2.97E-03	63.944
2209.514	4.26E-03	72.008	0.999	-0.232	0.999	-0.232	4.26E-03	72.008
2219.326	5.58E-03	76.236	0.999	-0.311	0.999	-0.311	5.58E-03	76.236
2229.138	6.92E-03	78.795	0.999	-0.389	0.999	-0.389	6.92E-03	78.795
2238.949	8.26E-03	80.49	0.999	-0.468	0.999	-0.468	8.26E-03	80.49
2248.761	9.60E-03	81.684	0.999	-0.545	0.999	-0.545	9.60E-03	81.684
2258.573	0.011	82.563	0.999	-0.623	0.999	-0.623	0.011	82.563
2268.385	0.012	83.231	0.999	-0.7	0.999	-0.7	0.012	83.231
2278.196	0.014	83.75	0.999	-0.776	0.999	-0.776	0.014	83.75
2288.008	0.015	84.162	0.999	-0.853	0.999	-0.853	0.015	84.162
2297.82	0.016	84.492	0.999	-0.929	0.999	-0.929	0.016	84.492
2307.631	0.018	84.761	0.999	-1.005	0.999	-1.005	0.018	84.761
2317.443	0.019	84.98	0.999	-1.08	0.999	-1.08	0.019	84.98
2327.255	0.02	85.161	0.998	-1.156	0.998	-1.156	0.02	85.161
2337.066	0.022	85.31	0.998	-1.23	0.998	-1.23	0.022	85.31
2346.878	0.023	85.432	0.998	-1.305	0.998	-1.305	0.023	85.432
2356.69	0.024	85.534	0.998	-1.379	0.998	-1.379	0.024	85.534
2366.501	0.025	85.617	0.998	-1.453	0.998	-1.453	0.025	85.617
2376.313	0.027	85.684	0.998	-1.527	0.998	-1.527	0.027	85.684
2386.125	0.028	85.739	0.998	-1.601	0.998	-1.601	0.028	85.739
2395.937	0.029	85.782	0.998	-1.674	0.998	-1.674	0.029	85.782
2405.748	0.031	85.815	0.998	-1.747	0.998	-1.747	0.031	85.815
2415.56	0.032	85.839	0.998	-1.819	0.998	-1.819	0.032	85.839
2425.372	0.033	85.857	0.998	-1.892	0.998	-1.892	0.033	85.857
2435.183	0.034	85.867	0.998	-1.964	0.998	-1.964	0.034	85.867
2444.995	0.036	85.872	0.998	-2.035	0.998	-2.035	0.036	85.872
2454.807	0.037	85.871	0.998	-2.107	0.998	-2.107	0.037	85.871
2464.618	0.038	85.866	0.998	-2.178	0.998	-2.178	0.038	85.866
2474.43	0.039	85.857	0.998	-2.249	0.998	-2.249	0.039	85.857
2484.242	0.041	85.844	0.998	-2.32	0.998	-2.32	0.041	85.844
2494.054	0.042	85.828	0.998	-2.391	0.998	-2.391	0.042	85.828
2503.865	0.043	85.808	0.998	-2.461	0.998	-2.461	0.043	85.808
2513.677	0.044	85.786	0.998	-2.531	0.998	-2.531	0.044	85.786
2523.489	0.045	85.762	0.998	-2.601	0.998	-2.601	0.045	85.762
2533.3	0.047	85.735	0.998	-2.67	0.998	-2.67	0.047	85.735
2543.112	0.048	85.706	0.998	-2.74	0.998	-2.74	0.048	85.706
2552.924	0.049	85.675	0.998	-2.809	0.998	-2.809	0.049	85.675
2562.735	0.05	85.642	0.997	-2.878	0.997	-2.878	0.05	85.642
2572.547	0.051	85.608	0.997	-2.946	0.997	-2.946	0.051	85.608
2582.359	0.053	85.573	0.997	-3.015	0.997	-3.015	0.053	85.573
2592.17	0.054	85.536	0.997	-3.083	0.997	-3.083	0.054	85.536
2601.982	0.055	85.498	0.997	-3.151	0.997	-3.151	0.055	85.498
2611.794	0.056	85.458	0.997	-3.219	0.997	-3.219	0.056	85.458
2621.606	0.057	85.418	0.997	-3.286	0.997	-3.286	0.057	85.418
2631.417	0.059	85.377	0.997	-3.353	0.997	-3.353	0.059	85.377
2641.229	0.06	85.335	0.997	-3.421	0.997	-3.421	0.06	85.335
2651.041	0.061	85.292	0.997	-3.487	0.997	-3.487	0.061	85.292
2660.852	0.062	85.248	0.997	-3.554	0.997	-3.554	0.062	85.248
2670.664	0.063	85.204	0.997	-3.621	0.997	-3.621	0.063	85.204
2680.476	0.064	85.159	0.997	-3.687	0.997	-3.687	0.064	85.159
2690.287	0.065	85.113	0.997	-3.753	0.997	-3.753	0.065	85.113
2700.099	0.067	85.067	0.996	-3.819	0.996	-3.819	0.067	85.067
2709.911	0.068	85.02	0.996	-3.884	0.996	-3.884	0.068	85.02
2719.722	0.069	84.973	0.996	-3.95	0.996	-3.95	0.069	84.973
2729.534	0.07	84.925	0.996	-4.015	0.996	-4.015	0.07	84.925
2739.346	0.071	84.877	0.996	-4.08	0.996	-4.08	0.071	84.877
2749.158	0.072	84.828	0.996	-4.145	0.996	-4.145	0.072	84.828
2758.969	0.073	84.779	0.996	-4.21	0.996	-4.21	0.073	84.779
2768.781	0.075	84.73	0.996	-4.274	0.996	-4.274	0.075	84.73
2778.593	0.076	84.681	0.996	-4.339	0.996	-4.339	0.076	84.681
2788.404	0.077	84.631	0.996	-4.403	0.996	-4.403	0.077	84.631
2798.216	0.078	84.581	0.996	-4.467	0.996	-4.467	0.078	84.581
2808.028	0.079	84.531	0.996	-4.531	0.996	-4.531	0.079	84.531
2817.839	0.08	84.48	0.995	-4.594	0.995	-4.594	0.08	84.48
2827.651	0.081	84.429	0.995	-4.658	0.995	-4.658	0.081	84.429
2837.463	0.082	84.378	0.995	-4.721	0.995	-4.721	0.082	84.378
2847.275	0.083	84.327	0.995	-4.784	0.995	-4.784	0.083	84.327
2857.086	0.085	84.276	0.995	-4.847	0.995	-4.847	0.085	84.276
2866.898	0.086	84.224	0.995	-4.909	0.995	-4.909	0.086	84.224
2876.71	0.087	84.173	0.995	-4.972	0.995	-4.972	0.087	84.173
2886.521	0.088	84.121	0.995	-5.034	0.995	-5.034	0.088	84.121
2896.333	0.089	84.069	0.995	-5.097	0.995	-5.097	0.089	84.069
2906.145	0.09	84.017	0.995	-5.159	0.995	-5.159	0.09	84.017
2915.956	0.091	83.965	0.995	-5.221	0.995	-5.221	0.091	83.965
2925.768	0.092	83.913	0.994	-5.282	0.994	-5.282	0.092	83.913
2935.58	0.093	83.861	0.994	-5.344	0.994	-5.344	0.093	83.861
2945.391	0.094	83.808	0.994	-5.405	0.994	-5.405	0.094	83.808
2955.203	0.095	83.756	0.994	-5.467	0.994	-5.467	0.095	83.756
2965.015	0.096	83.703	0.994	-5.528	0.994	-5.528	0.096	83.703
2974.827	0.097	83.651	0.994	-5.589	0.994	-5.589	0.097	83.651
2984.638	0.098	83.598	0.994	-5.649	0.994	-5.649	0.098	83.598
2994.45	0.1	83.546	0.994	-5.71	0.994	-5.71	0.1	83.546
3004.262	0.101	83.493	0.994	-5.771	0.994	-5.771	0.101	83.493
3014.073	0.102	83.44	0.994	-5.831	0.994	-5.831	0.102	83.44
3023.885	0.103	83.388	0.993	-5.891	0.993	-5.891	0.103	83.388
3033.697	0.104	83.335	0.993	-5.951	0.993	-5.951	0.104	83.335
3043.508	0.105	83.282	0.993	-6.011	0.993	-6.011	0.105	83.282
3053.32	0.106	83.23	0.993	-6.071	0.993	-6.071	0.106	83.23
3063.132	0.107	83.177	0.993	-6.13	0.993	-6.13	0.107	83.177
3072.944	0.108	83.124	0.993	-6.19	0.993	-6.19	0.108	83.124
3082.755	0.109	83.071	0.993	-6.249	0.993	-6.249	0.109	83.071
3092.567	0.11	83.018	0.993	-6.309	0.993	-6.309	0.11	83.018
3102.379	0.111	82.966	0.993	-6.368	0.993	-6.368	0.111	82.966
3112.19	0.112	82.913	0.992	-6.427	0.992	-6.427	0.112	82.913
3122.002	0.113	82.86	0.992	-6.485	0.992	-6.485	0.113	82.86
3131.814	0.114	82.807	0.992	-6.544	0.992	-6.544	0.114	82.807
3141.625	0.115	82.755	0.992	-6.602	0.992	-6.602	0.115	82.755
3151.437	0.116	82.702	0.992	-6.661	0.992	-6.661	0.116	82.702
3161.249	0.117	82.649	0.992	-6.719	0.992	-6.719	0.117	82.649
3171.06	0.118	82.597	0.992	-6.777	0.992	-6.777	0.118	82.597
3180.872	0.119	82.544	0.992	-6.835	0.992	-6.835	0.119	82.544
3190.684	0.12	82.491	0.991	-6.893	0.991	-6.893	0.12	82.491
3200.496	0.121	82.439	0.991	-6.951	0.991	-6.951	0.121	82.439
3210.307	0.122	82.386	0.991	-7.008	0.991	-7.008	0.122	82.386
3220.119	0.123	82.334	0.991	-7.066	0.991	-7.066	0.123	82.334
3229.931	0.124	82.281	0.991	-7.123	0.991	-7.123	0.124	82.281
3239.742	0.125	82.229	0.991	-7.181	0.991	-7.181	0.125	82.229
3249.554	0.126	82.176	0.991	-7.238	0.991	-7.238	0.126	82.176
3259.366	0.127	82.124	0.991	-7.295	0.991	-7.295	0.127	82.124
