! AVX Thin Film Operation		Date: April 2012 
! Description: Accu-P® Series, Thin Film, SMD, RF Capacitor
! Part Number: 12101J300FBTTR					
!	100	MHz	-	10.05	GHz			
!	Serial	Measurements						
!								
#	MHZ	S	MA	R	50			
!	S11	S21	S12	S22				
!	dB	Phase	dB	Phase	dB	Phase	dB	Phase
100	0.463	-62.304	0.885	27.609	0.885	27.609	0.463	-62.304
109.812	0.429	-64.5	0.903	25.404	0.903	25.404	0.429	-64.5
119.623	0.399	-66.404	0.916	23.491	0.916	23.491	0.399	-66.404
129.435	0.372	-68.068	0.928	21.818	0.928	21.818	0.372	-68.068
139.247	0.348	-69.533	0.937	20.344	0.937	20.344	0.348	-69.533
149.058	0.326	-70.832	0.945	19.036	0.945	19.036	0.326	-70.832
158.87	0.307	-71.991	0.951	17.867	0.951	17.867	0.307	-71.991
168.682	0.289	-73.031	0.956	16.818	0.956	16.818	0.289	-73.031
178.494	0.273	-73.969	0.961	15.87	0.961	15.87	0.273	-73.969
188.305	0.259	-74.821	0.965	15.009	0.965	15.009	0.259	-74.821
198.117	0.246	-75.596	0.969	14.223	0.969	14.223	0.246	-75.596
207.929	0.234	-76.306	0.972	13.504	0.972	13.504	0.234	-76.306
217.74	0.222	-76.957	0.974	12.842	0.974	12.842	0.222	-76.957
227.552	0.212	-77.558	0.977	12.231	0.977	12.231	0.212	-77.558
237.364	0.202	-78.114	0.979	11.664	0.979	11.664	0.202	-78.114
247.175	0.193	-78.63	0.98	11.138	0.98	11.138	0.193	-78.63
256.987	0.185	-79.11	0.982	10.647	0.982	10.647	0.185	-79.11
266.799	0.177	-79.557	0.983	10.188	0.983	10.188	0.177	-79.557
276.611	0.169	-79.976	0.985	9.757	0.985	9.757	0.169	-79.976
286.422	0.163	-80.369	0.986	9.352	0.986	9.352	0.163	-80.369
296.234	0.156	-80.739	0.987	8.971	0.987	8.971	0.156	-80.739
306.046	0.15	-81.086	0.988	8.611	0.988	8.611	0.15	-81.086
315.857	0.144	-81.415	0.989	8.27	0.989	8.27	0.144	-81.415
325.669	0.138	-81.725	0.99	7.947	0.99	7.947	0.138	-81.725
335.481	0.133	-82.018	0.99	7.64	0.99	7.64	0.133	-82.018
345.292	0.128	-82.297	0.991	7.348	0.991	7.348	0.128	-82.297
355.104	0.123	-82.561	0.992	7.069	0.992	7.069	0.123	-82.561
364.916	0.118	-82.813	0.992	6.803	0.992	6.803	0.118	-82.813
374.727	0.114	-83.052	0.993	6.549	0.993	6.549	0.114	-83.052
384.539	0.11	-83.28	0.993	6.305	0.993	6.305	0.11	-83.28
394.351	0.106	-83.498	0.994	6.071	0.994	6.071	0.106	-83.498
404.163	0.102	-83.706	0.994	5.847	0.994	5.847	0.102	-83.706
413.974	0.098	-83.904	0.994	5.631	0.994	5.631	0.098	-83.904
423.786	0.095	-84.094	0.995	5.423	0.995	5.423	0.095	-84.094
433.598	0.091	-84.276	0.995	5.223	0.995	5.223	0.091	-84.276
443.409	0.088	-84.45	0.995	5.029	0.995	5.029	0.088	-84.45
453.221	0.084	-84.617	0.996	4.842	0.996	4.842	0.084	-84.617
463.033	0.081	-84.777	0.996	4.662	0.996	4.662	0.081	-84.777
472.844	0.078	-84.93	0.996	4.487	0.996	4.487	0.078	-84.93
482.656	0.075	-85.076	0.996	4.317	0.996	4.317	0.075	-85.076
492.468	0.072	-85.216	0.997	4.153	0.997	4.153	0.072	-85.216
502.279	0.07	-85.351	0.997	3.993	0.997	3.993	0.07	-85.351
512.091	0.067	-85.479	0.997	3.838	0.997	3.838	0.067	-85.479
521.903	0.064	-85.602	0.997	3.687	0.997	3.687	0.064	-85.602
531.715	0.062	-85.719	0.997	3.54	0.997	3.54	0.062	-85.719
541.526	0.059	-85.831	0.997	3.397	0.997	3.397	0.059	-85.831
551.338	0.057	-85.937	0.998	3.258	0.998	3.258	0.057	-85.937
561.15	0.054	-86.038	0.998	3.122	0.998	3.122	0.054	-86.038
570.961	0.052	-86.134	0.998	2.989	0.998	2.989	0.052	-86.134
580.773	0.05	-86.223	0.998	2.86	0.998	2.86	0.05	-86.223
590.585	0.048	-86.307	0.998	2.733	0.998	2.733	0.048	-86.307
600.396	0.046	-86.386	0.998	2.61	0.998	2.61	0.046	-86.386
610.208	0.043	-86.458	0.998	2.488	0.998	2.488	0.043	-86.458
620.02	0.041	-86.523	0.998	2.37	0.998	2.37	0.041	-86.523
629.832	0.039	-86.582	0.998	2.254	0.998	2.254	0.039	-86.582
639.643	0.037	-86.634	0.999	2.14	0.999	2.14	0.037	-86.634
649.455	0.035	-86.678	0.999	2.028	0.999	2.028	0.035	-86.678
659.267	0.033	-86.714	0.999	1.919	0.999	1.919	0.033	-86.714
669.078	0.032	-86.74	0.999	1.811	0.999	1.811	0.032	-86.74
678.89	0.03	-86.756	0.999	1.706	0.999	1.706	0.03	-86.756
688.702	0.028	-86.761	0.999	1.602	0.999	1.602	0.028	-86.761
698.513	0.026	-86.751	0.999	1.5	0.999	1.5	0.026	-86.751
708.325	0.024	-86.726	0.999	1.4	0.999	1.4	0.024	-86.726
718.137	0.023	-86.683	0.999	1.302	0.999	1.302	0.023	-86.683
727.948	0.021	-86.618	0.999	1.205	0.999	1.205	0.021	-86.618
737.76	0.019	-86.526	0.999	1.109	0.999	1.109	0.019	-86.526
747.572	0.018	-86.402	0.999	1.015	0.999	1.015	0.018	-86.402
757.384	0.016	-86.236	0.999	0.923	0.999	0.923	0.016	-86.236
767.195	0.015	-86.016	0.999	0.832	0.999	0.832	0.015	-86.016
777.007	0.013	-85.724	0.999	0.742	0.999	0.742	0.013	-85.724
786.819	0.011	-85.334	0.999	0.653	0.999	0.653	0.011	-85.334
796.63	9.90E-03	-84.802	0.999	0.565	0.999	0.565	9.90E-03	-84.802
806.442	8.40E-03	-84.058	0.999	0.479	0.999	0.479	8.40E-03	-84.058
816.254	6.92E-03	-82.969	0.999	0.394	0.999	0.394	6.92E-03	-82.969
826.065	5.46E-03	-81.271	0.999	0.309	0.999	0.309	5.46E-03	-81.271
835.877	4.03E-03	-78.332	0.999	0.226	0.999	0.226	4.03E-03	-78.332
845.689	2.64E-03	-72.23	0.999	0.144	0.999	0.144	2.64E-03	-72.23
855.5	1.36E-03	-53.913	0.999	0.063	0.999	0.063	1.36E-03	-53.913
865.312	8.54E-04	20.626	0.999	-0.017	0.999	-0.017	8.54E-04	20.626
875.124	1.87E-03	64.535	0.999	-0.097	0.999	-0.097	1.87E-03	64.535
884.936	3.16E-03	75.163	0.999	-0.175	0.999	-0.175	3.16E-03	75.163
894.747	4.48E-03	79.473	0.999	-0.253	0.999	-0.253	4.48E-03	79.473
904.559	5.81E-03	81.757	0.999	-0.33	0.999	-0.33	5.81E-03	81.757
914.371	7.12E-03	83.15	0.999	-0.406	0.999	-0.406	7.12E-03	83.15
924.182	8.43E-03	84.077	0.999	-0.481	0.999	-0.481	8.43E-03	84.077
933.994	9.73E-03	84.729	0.999	-0.555	0.999	-0.555	9.73E-03	84.729
943.806	0.011	85.207	0.999	-0.629	0.999	-0.629	0.011	85.207
953.617	0.012	85.566	0.999	-0.702	0.999	-0.702	0.012	85.566
963.429	0.014	85.841	0.999	-0.775	0.999	-0.775	0.014	85.841
973.241	0.015	86.056	0.999	-0.846	0.999	-0.846	0.015	86.056
983.053	0.016	86.225	0.999	-0.918	0.999	-0.918	0.016	86.225
992.864	0.017	86.358	0.999	-0.988	0.999	-0.988	0.017	86.358
1002.676	0.018	86.463	0.999	-1.058	0.999	-1.058	0.018	86.463
1012.488	0.02	86.546	0.999	-1.127	0.999	-1.127	0.02	86.546
1022.299	0.021	86.611	0.999	-1.196	0.999	-1.196	0.021	86.611
1032.111	0.022	86.661	0.999	-1.264	0.999	-1.264	0.022	86.661
1041.923	0.023	86.699	0.999	-1.332	0.999	-1.332	0.023	86.699
1051.734	0.024	86.726	0.999	-1.399	0.999	-1.399	0.024	86.726
1061.546	0.026	86.745	0.999	-1.466	0.999	-1.466	0.026	86.745
1071.358	0.027	86.756	0.999	-1.532	0.999	-1.532	0.027	86.756
1081.169	0.028	86.76	0.999	-1.597	0.999	-1.597	0.028	86.76
1090.981	0.029	86.76	0.999	-1.663	0.999	-1.663	0.029	86.76
1100.793	0.03	86.754	0.999	-1.727	0.999	-1.727	0.03	86.754
1110.605	0.031	86.744	0.999	-1.792	0.999	-1.792	0.031	86.744
1120.416	0.032	86.731	0.999	-1.856	0.999	-1.856	0.032	86.731
1130.228	0.033	86.714	0.999	-1.919	0.999	-1.919	0.033	86.714
1140.04	0.035	86.695	0.999	-1.982	0.999	-1.982	0.035	86.695
1149.851	0.036	86.672	0.999	-2.045	0.999	-2.045	0.036	86.672
1159.663	0.037	86.648	0.999	-2.107	0.999	-2.107	0.037	86.648
1169.475	0.038	86.622	0.998	-2.169	0.998	-2.169	0.038	86.622
1179.286	0.039	86.594	0.998	-2.23	0.998	-2.23	0.039	86.594
1189.098	0.04	86.564	0.998	-2.292	0.998	-2.292	0.04	86.564
1198.91	0.041	86.533	0.998	-2.352	0.998	-2.352	0.041	86.533
1208.722	0.042	86.5	0.998	-2.413	0.998	-2.413	0.042	86.5
1218.533	0.043	86.467	0.998	-2.473	0.998	-2.473	0.043	86.467
1228.345	0.044	86.432	0.998	-2.533	0.998	-2.533	0.044	86.432
1238.157	0.045	86.396	0.998	-2.592	0.998	-2.592	0.045	86.396
1247.968	0.046	86.36	0.998	-2.651	0.998	-2.651	0.046	86.36
1257.78	0.047	86.322	0.998	-2.71	0.998	-2.71	0.047	86.322
1267.592	0.048	86.284	0.998	-2.769	0.998	-2.769	0.048	86.284
1277.403	0.049	86.245	0.998	-2.827	0.998	-2.827	0.049	86.245
1287.215	0.05	86.206	0.998	-2.885	0.998	-2.885	0.05	86.206
1297.027	0.051	86.166	0.998	-2.943	0.998	-2.943	0.051	86.166
1306.838	0.052	86.126	0.998	-3	0.998	-3	0.052	86.126
1316.65	0.053	86.085	0.998	-3.057	0.998	-3.057	0.053	86.085
1326.462	0.054	86.044	0.998	-3.114	0.998	-3.114	0.054	86.044
1336.274	0.055	86.002	0.998	-3.171	0.998	-3.171	0.055	86.002
1346.085	0.056	85.96	0.998	-3.227	0.998	-3.227	0.056	85.96
1355.897	0.057	85.918	0.998	-3.283	0.998	-3.283	0.057	85.918
1365.709	0.058	85.876	0.998	-3.339	0.998	-3.339	0.058	85.876
1375.52	0.059	85.833	0.997	-3.395	0.997	-3.395	0.059	85.833
1385.332	0.06	85.79	0.997	-3.45	0.997	-3.45	0.06	85.79
1395.144	0.061	85.747	0.997	-3.506	0.997	-3.506	0.061	85.747
1404.955	0.062	85.703	0.997	-3.561	0.997	-3.561	0.062	85.703
1414.767	0.063	85.66	0.997	-3.615	0.997	-3.615	0.063	85.66
1424.579	0.064	85.616	0.997	-3.67	0.997	-3.67	0.064	85.616
1434.39	0.065	85.572	0.997	-3.724	0.997	-3.724	0.065	85.572
1444.202	0.066	85.528	0.997	-3.778	0.997	-3.778	0.066	85.528
1454.014	0.067	85.484	0.997	-3.832	0.997	-3.832	0.067	85.484
1463.826	0.068	85.44	0.997	-3.886	0.997	-3.886	0.068	85.44
1473.637	0.069	85.395	0.997	-3.94	0.997	-3.94	0.069	85.395
1483.449	0.07	85.351	0.997	-3.993	0.997	-3.993	0.07	85.351
1493.261	0.071	85.306	0.997	-4.046	0.997	-4.046	0.071	85.306
1503.072	0.071	85.262	0.997	-4.099	0.997	-4.099	0.071	85.262
1512.884	0.072	85.217	0.997	-4.152	0.997	-4.152	0.072	85.217
1522.696	0.073	85.172	0.997	-4.205	0.997	-4.205	0.073	85.172
1532.507	0.074	85.127	0.996	-4.257	0.996	-4.257	0.074	85.127
1542.319	0.075	85.083	0.996	-4.309	0.996	-4.309	0.075	85.083
1552.131	0.076	85.038	0.996	-4.362	0.996	-4.362	0.076	85.038
1561.943	0.077	84.993	0.996	-4.414	0.996	-4.414	0.077	84.993
1571.754	0.078	84.948	0.996	-4.465	0.996	-4.465	0.078	84.948
1581.566	0.079	84.903	0.996	-4.517	0.996	-4.517	0.079	84.903
1591.378	0.08	84.858	0.996	-4.569	0.996	-4.569	0.08	84.858
1601.189	0.081	84.813	0.996	-4.62	0.996	-4.62	0.081	84.813
1611.001	0.081	84.768	0.996	-4.671	0.996	-4.671	0.081	84.768
1620.813	0.082	84.723	0.996	-4.722	0.996	-4.722	0.082	84.723
1630.624	0.083	84.678	0.996	-4.773	0.996	-4.773	0.083	84.678
1640.436	0.084	84.633	0.996	-4.824	0.996	-4.824	0.084	84.633
1650.248	0.085	84.588	0.996	-4.875	0.996	-4.875	0.085	84.588
1660.059	0.086	84.543	0.996	-4.925	0.996	-4.925	0.086	84.543
1669.871	0.087	84.498	0.995	-4.975	0.995	-4.975	0.087	84.498
1679.683	0.088	84.453	0.995	-5.026	0.995	-5.026	0.088	84.453
1689.495	0.088	84.409	0.995	-5.076	0.995	-5.076	0.088	84.409
1699.306	0.089	84.364	0.995	-5.126	0.995	-5.126	0.089	84.364
1709.118	0.09	84.319	0.995	-5.176	0.995	-5.176	0.09	84.319
1718.93	0.091	84.274	0.995	-5.225	0.995	-5.225	0.091	84.274
1728.741	0.092	84.229	0.995	-5.275	0.995	-5.275	0.092	84.229
1738.553	0.093	84.184	0.995	-5.324	0.995	-5.324	0.093	84.184
1748.365	0.094	84.139	0.995	-5.374	0.995	-5.374	0.094	84.139
1758.176	0.095	84.094	0.995	-5.423	0.995	-5.423	0.095	84.094
1767.988	0.095	84.05	0.995	-5.472	0.995	-5.472	0.095	84.05
1777.8	0.096	84.005	0.995	-5.521	0.995	-5.521	0.096	84.005
1787.611	0.097	83.96	0.994	-5.57	0.994	-5.57	0.097	83.96
1797.423	0.098	83.916	0.994	-5.619	0.994	-5.619	0.098	83.916
1807.235	0.099	83.871	0.994	-5.668	0.994	-5.668	0.099	83.871
1817.047	0.1	83.826	0.994	-5.716	0.994	-5.716	0.1	83.826
1826.858	0.1	83.782	0.994	-5.765	0.994	-5.765	0.1	83.782
1836.67	0.101	83.737	0.994	-5.813	0.994	-5.813	0.101	83.737
1846.482	0.102	83.692	0.994	-5.861	0.994	-5.861	0.102	83.692
1856.293	0.103	83.648	0.994	-5.909	0.994	-5.909	0.103	83.648
1866.105	0.104	83.603	0.994	-5.958	0.994	-5.958	0.104	83.603
1875.917	0.105	83.559	0.994	-6.006	0.994	-6.006	0.105	83.559
1885.728	0.105	83.515	0.994	-6.053	0.994	-6.053	0.105	83.515
1895.54	0.106	83.47	0.994	-6.101	0.994	-6.101	0.106	83.47
1905.352	0.107	83.426	0.993	-6.149	0.993	-6.149	0.107	83.426
1915.164	0.108	83.382	0.993	-6.196	0.993	-6.196	0.108	83.382
1924.975	0.109	83.337	0.993	-6.244	0.993	-6.244	0.109	83.337
1934.787	0.11	83.293	0.993	-6.291	0.993	-6.291	0.11	83.293
1944.599	0.11	83.249	0.993	-6.339	0.993	-6.339	0.11	83.249
1954.41	0.111	83.205	0.993	-6.386	0.993	-6.386	0.111	83.205
1964.222	0.112	83.161	0.993	-6.433	0.993	-6.433	0.112	83.161
1974.034	0.113	83.116	0.993	-6.48	0.993	-6.48	0.113	83.116
1983.845	0.114	83.072	0.993	-6.527	0.993	-6.527	0.114	83.072
1993.657	0.114	83.028	0.993	-6.574	0.993	-6.574	0.114	83.028
2003.469	0.115	82.984	0.993	-6.621	0.993	-6.621	0.115	82.984
2013.28	0.116	82.94	0.992	-6.668	0.992	-6.668	0.116	82.94
2023.092	0.117	82.896	0.992	-6.714	0.992	-6.714	0.117	82.896
2032.904	0.118	82.853	0.992	-6.761	0.992	-6.761	0.118	82.853
2042.716	0.119	82.809	0.992	-6.808	0.992	-6.808	0.119	82.809
2052.527	0.119	82.765	0.992	-6.854	0.992	-6.854	0.119	82.765
2062.339	0.12	82.721	0.992	-6.9	0.992	-6.9	0.12	82.721
2072.151	0.121	82.677	0.992	-6.947	0.992	-6.947	0.121	82.677
2081.962	0.122	82.634	0.992	-6.993	0.992	-6.993	0.122	82.634
2091.774	0.123	82.59	0.992	-7.039	0.992	-7.039	0.123	82.59
2101.586	0.123	82.546	0.992	-7.085	0.992	-7.085	0.123	82.546
2111.397	0.124	82.503	0.991	-7.131	0.991	-7.131	0.124	82.503
2121.209	0.125	82.459	0.991	-7.177	0.991	-7.177	0.125	82.459
2131.021	0.126	82.416	0.991	-7.223	0.991	-7.223	0.126	82.416
2140.833	0.127	82.372	0.991	-7.269	0.991	-7.269	0.127	82.372
2150.644	0.127	82.329	0.991	-7.314	0.991	-7.314	0.127	82.329
2160.456	0.128	82.285	0.991	-7.36	0.991	-7.36	0.128	82.285
2170.268	0.129	82.242	0.991	-7.406	0.991	-7.406	0.129	82.242
2180.079	0.13	82.199	0.991	-7.451	0.991	-7.451	0.13	82.199
2189.891	0.13	82.155	0.991	-7.497	0.991	-7.497	0.13	82.155
2199.703	0.131	82.112	0.991	-7.542	0.991	-7.542	0.131	82.112
2209.514	0.132	82.069	0.99	-7.587	0.99	-7.587	0.132	82.069
2219.326	0.133	82.026	0.99	-7.632	0.99	-7.632	0.133	82.026
2229.138	0.134	81.982	0.99	-7.678	0.99	-7.678	0.134	81.982
2238.949	0.134	81.939	0.99	-7.723	0.99	-7.723	0.134	81.939
2248.761	0.135	81.896	0.99	-7.768	0.99	-7.768	0.135	81.896
2258.573	0.136	81.853	0.99	-7.813	0.99	-7.813	0.136	81.853
2268.385	0.137	81.81	0.99	-7.858	0.99	-7.858	0.137	81.81
2278.196	0.137	81.767	0.99	-7.903	0.99	-7.903	0.137	81.767
2288.008	0.138	81.724	0.99	-7.948	0.99	-7.948	0.138	81.724
2297.82	0.139	81.681	0.989	-7.992	0.989	-7.992	0.139	81.681
2307.631	0.14	81.638	0.989	-8.037	0.989	-8.037	0.14	81.638
2317.443	0.141	81.596	0.989	-8.082	0.989	-8.082	0.141	81.596
2327.255	0.141	81.553	0.989	-8.126	0.989	-8.126	0.141	81.553
2337.066	0.142	81.51	0.989	-8.171	0.989	-8.171	0.142	81.51
2346.878	0.143	81.467	0.989	-8.215	0.989	-8.215	0.143	81.467
2356.69	0.144	81.424	0.989	-8.26	0.989	-8.26	0.144	81.424
2366.501	0.144	81.382	0.989	-8.304	0.989	-8.304	0.144	81.382
2376.313	0.145	81.339	0.989	-8.349	0.989	-8.349	0.145	81.339
2386.125	0.146	81.297	0.988	-8.393	0.988	-8.393	0.146	81.297
2395.937	0.147	81.254	0.988	-8.437	0.988	-8.437	0.147	81.254
2405.748	0.147	81.211	0.988	-8.481	0.988	-8.481	0.147	81.211
2415.56	0.148	81.169	0.988	-8.526	0.988	-8.526	0.148	81.169
2425.372	0.149	81.126	0.988	-8.57	0.988	-8.57	0.149	81.126
2435.183	0.15	81.084	0.988	-8.614	0.988	-8.614	0.15	81.084
2444.995	0.151	81.041	0.988	-8.658	0.988	-8.658	0.151	81.041
2454.807	0.151	80.999	0.988	-8.702	0.988	-8.702	0.151	80.999
2464.618	0.152	80.957	0.988	-8.745	0.988	-8.745	0.152	80.957
2474.43	0.153	80.914	0.987	-8.789	0.987	-8.789	0.153	80.914
2484.242	0.154	80.872	0.987	-8.833	0.987	-8.833	0.154	80.872
2494.054	0.154	80.83	0.987	-8.877	0.987	-8.877	0.154	80.83
2503.865	0.155	80.788	0.987	-8.921	0.987	-8.921	0.155	80.788
2513.677	0.156	80.745	0.987	-8.964	0.987	-8.964	0.156	80.745
2523.489	0.157	80.703	0.987	-9.008	0.987	-9.008	0.157	80.703
2533.3	0.157	80.661	0.987	-9.051	0.987	-9.051	0.157	80.661
2543.112	0.158	80.619	0.987	-9.095	0.987	-9.095	0.158	80.619
2552.924	0.159	80.577	0.987	-9.138	0.987	-9.138	0.159	80.577
2562.735	0.16	80.535	0.986	-9.182	0.986	-9.182	0.16	80.535
2572.547	0.16	80.493	0.986	-9.225	0.986	-9.225	0.16	80.493
2582.359	0.161	80.451	0.986	-9.268	0.986	-9.268	0.161	80.451
2592.17	0.162	80.409	0.986	-9.312	0.986	-9.312	0.162	80.409
2601.982	0.163	80.367	0.986	-9.355	0.986	-9.355	0.163	80.367
2611.794	0.163	80.325	0.986	-9.398	0.986	-9.398	0.163	80.325
2621.606	0.164	80.283	0.986	-9.441	0.986	-9.441	0.164	80.283
2631.417	0.165	80.241	0.986	-9.484	0.986	-9.484	0.165	80.241
2641.229	0.166	80.2	0.985	-9.528	0.985	-9.528	0.166	80.2
2651.041	0.166	80.158	0.985	-9.571	0.985	-9.571	0.166	80.158
2660.852	0.167	80.116	0.985	-9.614	0.985	-9.614	0.167	80.116
2670.664	0.168	80.074	0.985	-9.657	0.985	-9.657	0.168	80.074
2680.476	0.168	80.033	0.985	-9.699	0.985	-9.699	0.168	80.033
2690.287	0.169	79.991	0.985	-9.742	0.985	-9.742	0.169	79.991
2700.099	0.17	79.949	0.985	-9.785	0.985	-9.785	0.17	79.949
2709.911	0.171	79.908	0.985	-9.828	0.985	-9.828	0.171	79.908
2719.722	0.171	79.866	0.984	-9.871	0.984	-9.871	0.171	79.866
2729.534	0.172	79.825	0.984	-9.913	0.984	-9.913	0.172	79.825
2739.346	0.173	79.783	0.984	-9.956	0.984	-9.956	0.173	79.783
2749.158	0.174	79.741	0.984	-9.999	0.984	-9.999	0.174	79.741
2758.969	0.174	79.7	0.984	-10.041	0.984	-10.041	0.174	79.7
2768.781	0.175	79.659	0.984	-10.084	0.984	-10.084	0.175	79.659
2778.593	0.176	79.617	0.984	-10.126	0.984	-10.126	0.176	79.617
2788.404	0.177	79.576	0.984	-10.169	0.984	-10.169	0.177	79.576
2798.216	0.177	79.534	0.983	-10.211	0.983	-10.211	0.177	79.534
2808.028	0.178	79.493	0.983	-10.254	0.983	-10.254	0.178	79.493
2817.839	0.179	79.452	0.983	-10.296	0.983	-10.296	0.179	79.452
2827.651	0.179	79.411	0.983	-10.338	0.983	-10.338	0.179	79.411
2837.463	0.18	79.369	0.983	-10.381	0.983	-10.381	0.18	79.369
2847.275	0.181	79.328	0.983	-10.423	0.983	-10.423	0.181	79.328
2857.086	0.182	79.287	0.983	-10.465	0.983	-10.465	0.182	79.287
2866.898	0.182	79.246	0.982	-10.507	0.982	-10.507	0.182	79.246
2876.71	0.183	79.205	0.982	-10.549	0.982	-10.549	0.183	79.205
2886.521	0.184	79.163	0.982	-10.592	0.982	-10.592	0.184	79.163
2896.333	0.185	79.122	0.982	-10.634	0.982	-10.634	0.185	79.122
2906.145	0.185	79.081	0.982	-10.676	0.982	-10.676	0.185	79.081
2915.956	0.186	79.04	0.982	-10.718	0.982	-10.718	0.186	79.04
2925.768	0.187	78.999	0.982	-10.76	0.982	-10.76	0.187	78.999
2935.58	0.187	78.958	0.981	-10.802	0.981	-10.802	0.187	78.958
2945.391	0.188	78.917	0.981	-10.844	0.981	-10.844	0.188	78.917
2955.203	0.189	78.876	0.981	-10.885	0.981	-10.885	0.189	78.876
2965.015	0.19	78.835	0.981	-10.927	0.981	-10.927	0.19	78.835
2974.827	0.19	78.795	0.981	-10.969	0.981	-10.969	0.19	78.795
2984.638	0.191	78.754	0.981	-11.011	0.981	-11.011	0.191	78.754
2994.45	0.192	78.713	0.981	-11.053	0.981	-11.053	0.192	78.713
3004.262	0.192	78.672	0.981	-11.094	0.981	-11.094	0.192	78.672
3014.073	0.193	78.631	0.98	-11.136	0.98	-11.136	0.193	78.631
3023.885	0.194	78.591	0.98	-11.178	0.98	-11.178	0.194	78.591
3033.697	0.195	78.55	0.98	-11.219	0.98	-11.219	0.195	78.55
3043.508	0.195	78.509	0.98	-11.261	0.98	-11.261	0.195	78.509
3053.32	0.196	78.468	0.98	-11.302	0.98	-11.302	0.196	78.468
3063.132	0.197	78.428	0.98	-11.344	0.98	-11.344	0.197	78.428
3072.944	0.197	78.387	0.98	-11.385	0.98	-11.385	0.197	78.387
3082.755	0.198	78.346	0.979	-11.427	0.979	-11.427	0.198	78.346
3092.567	0.199	78.306	0.979	-11.468	0.979	-11.468	0.199	78.306
3102.379	0.2	78.265	0.979	-11.51	0.979	-11.51	0.2	78.265
3112.19	0.2	78.225	0.979	-11.551	0.979	-11.551	0.2	78.225
3122.002	0.201	78.184	0.979	-11.592	0.979	-11.592	0.201	78.184
3131.814	0.202	78.144	0.979	-11.634	0.979	-11.634	0.202	78.144
3141.625	0.202	78.103	0.979	-11.675	0.979	-11.675	0.202	78.103
3151.437	0.203	78.063	0.978	-11.716	0.978	-11.716	0.203	78.063
3161.249	0.204	78.023	0.978	-11.757	0.978	-11.757	0.204	78.023
3171.06	0.204	77.982	0.978	-11.799	0.978	-11.799	0.204	77.982
3180.872	0.205	77.942	0.978	-11.84	0.978	-11.84	0.205	77.942
3190.684	0.206	77.901	0.978	-11.881	0.978	-11.881	0.206	77.901
3200.496	0.207	77.861	0.978	-11.922	0.978	-11.922	0.207	77.861
3210.307	0.207	77.821	0.977	-11.963	0.977	-11.963	0.207	77.821
3220.119	0.208	77.781	0.977	-12.004	0.977	-12.004	0.208	77.781
3229.931	0.209	77.74	0.977	-12.045	0.977	-12.045	0.209	77.74
3239.742	0.209	77.7	0.977	-12.086	0.977	-12.086	0.209	77.7
3249.554	0.21	77.66	0.977	-12.127	0.977	-12.127	0.21	77.66
3259.366	0.211	77.62	0.977	-12.168	0.977	-12.168	0.211	77.62
3269.177	0.211	77.58	0.977	-12.209	0.977	-12.209	0.211	77.58
3278.989	0.212	77.539	0.976	-12.25	0.976	-12.25	0.212	77.539
