! AVX Thin Film Operation		Date: April 2012 
! Description: Accu-P® Series, Thin Film, SMD, RF Capacitor
! Part Number: 12101J0R4PBTTR					
!	100	MHz	-	20.05	GHz			
!	Serial	Measurements						
!								
#	MHZ	S	MA	R	50			
!	S11	S21	S12	S22				
!	dB	Phase	dB	Phase	dB	Phase	dB	Phase
50 1 -0.72 0.013 89.219 0.013 89.219 1 -0.72
100 1 -1.44 0.025 88.495 0.025 88.495 1 -1.44
150 0.999 -2.16 0.038 87.771 0.038 87.771 0.999 -2.16
200 0.999 -2.879 0.05 87.047 0.05 87.047 0.999 -2.879
250 0.998 -3.599 0.063 86.324 0.063 86.324 0.998 -3.599
300 0.997 -4.318 0.075 85.601 0.075 85.601 0.997 -4.318
350 0.996 -5.037 0.088 84.878 0.088 84.878 0.996 -5.037
400 0.995 -5.755 0.1 84.156 0.1 84.156 0.995 -5.755
450 0.993 -6.473 0.113 83.433 0.113 83.433 0.993 -6.473
500 0.992 -7.191 0.125 82.712 0.125 82.712 0.992 -7.191
550 0.99 -7.908 0.138 81.991 0.138 81.991 0.99 -7.908
600 0.988 -8.624 0.15 81.27 0.15 81.27 0.988 -8.624
650 0.986 -9.34 0.162 80.55 0.162 80.55 0.986 -9.34
700 0.984 -10.056 0.175 79.83 0.175 79.83 0.984 -10.056
750 0.982 -10.77 0.187 79.112 0.187 79.112 0.982 -10.77
800 0.98 -11.484 0.199 78.394 0.199 78.394 0.98 -11.484
850 0.977 -12.197 0.211 77.676 0.211 77.676 0.977 -12.197
900 0.974 -12.909 0.223 76.96 0.223 76.96 0.974 -12.909
950 0.971 -13.621 0.235 76.244 0.235 76.244 0.971 -13.621
1000 0.968 -14.331 0.248 75.53 0.248 75.53 0.968 -14.331
1050 0.965 -15.04 0.259 74.816 0.259 74.816 0.965 -15.04
1100 0.962 -15.748 0.271 74.103 0.271 74.103 0.962 -15.748
1150 0.958 -16.456 0.283 73.391 0.283 73.391 0.958 -16.456
1200 0.955 -17.162 0.295 72.681 0.295 72.681 0.955 -17.162
1250 0.951 -17.867 0.307 71.971 0.307 71.971 0.951 -17.867
1300 0.947 -18.57 0.318 71.263 0.318 71.263 0.947 -18.57
1350 0.943 -19.273 0.33 70.556 0.33 70.556 0.943 -19.273
1400 0.939 -19.974 0.342 69.85 0.342 69.85 0.939 -19.974
1450 0.934 -20.674 0.353 69.146 0.353 69.146 0.934 -20.674
1500 0.93 -21.372 0.364 68.443 0.364 68.443 0.93 -21.372
1550 0.925 -22.069 0.376 67.741 0.376 67.741 0.925 -22.069
1600 0.921 -22.764 0.387 67.041 0.387 67.041 0.921 -22.764
1650 0.916 -23.458 0.398 66.342 0.398 66.342 0.916 -23.458
1700 0.911 -24.151 0.409 65.645 0.409 65.645 0.911 -24.151
1750 0.906 -24.841 0.42 64.949 0.42 64.949 0.906 -24.841
1800 0.901 -25.53 0.431 64.255 0.431 64.255 0.901 -25.53
1850 0.895 -26.218 0.442 63.563 0.442 63.563 0.895 -26.218
1900 0.89 -26.903 0.452 62.872 0.452 62.872 0.89 -26.903
1950 0.884 -27.587 0.463 62.183 0.463 62.183 0.884 -27.587
2000 0.879 -28.269 0.474 61.496 0.474 61.496 0.879 -28.269
2050 0.873 -28.949 0.484 60.81 0.484 60.81 0.873 -28.949
2100 0.867 -29.627 0.494 60.127 0.494 60.127 0.867 -29.627
2150 0.861 -30.304 0.505 59.445 0.505 59.445 0.861 -30.304
2200 0.855 -30.978 0.515 58.765 0.515 58.765 0.855 -30.978
2250 0.849 -31.65 0.525 58.087 0.525 58.087 0.849 -31.65
2300 0.843 -32.32 0.535 57.412 0.535 57.412 0.843 -32.32
2350 0.836 -32.989 0.544 56.738 0.544 56.738 0.836 -32.989
2400 0.83 -33.655 0.554 56.066 0.554 56.066 0.83 -33.655
2450 0.823 -34.318 0.564 55.396 0.564 55.396 0.823 -34.318
2500 0.816 -34.98 0.573 54.729 0.573 54.729 0.816 -34.98
2550 0.81 -35.639 0.583 54.063 0.583 54.063 0.81 -35.639
2600 0.803 -36.296 0.592 53.4 0.592 53.4 0.803 -36.296
2650 0.796 -36.951 0.601 52.739 0.601 52.739 0.796 -36.951
2700 0.789 -37.603 0.61 52.08 0.61 52.08 0.789 -37.603
2750 0.782 -38.254 0.619 51.424 0.619 51.424 0.782 -38.254
2800 0.775 -38.901 0.628 50.769 0.628 50.769 0.775 -38.901
2850 0.767 -39.546 0.637 50.118 0.637 50.118 0.767 -39.546
2900 0.76 -40.189 0.645 49.468 0.645 49.468 0.76 -40.189
2950 0.753 -40.829 0.654 48.821 0.654 48.821 0.753 -40.829
3000 0.745 -41.467 0.662 48.176 0.662 48.176 0.745 -41.467
3050 0.738 -42.102 0.67 47.534 0.67 47.534 0.738 -42.102
3100 0.73 -42.734 0.679 46.894 0.679 46.894 0.73 -42.734
3150 0.722 -43.364 0.687 46.257 0.687 46.257 0.722 -43.364
3200 0.715 -43.991 0.695 45.622 0.695 45.622 0.715 -43.991
3250 0.707 -44.616 0.702 44.99 0.702 44.99 0.707 -44.616
3300 0.699 -45.238 0.71 44.36 0.71 44.36 0.699 -45.238
3350 0.691 -45.857 0.718 43.733 0.718 43.733 0.691 -45.857
3400 0.683 -46.473 0.725 43.109 0.725 43.109 0.683 -46.473
3450 0.675 -47.086 0.732 42.487 0.732 42.487 0.675 -47.086
3500 0.667 -47.697 0.74 41.868 0.74 41.868 0.667 -47.697
3550 0.659 -48.305 0.747 41.251 0.747 41.251 0.659 -48.305
3600 0.651 -48.91 0.754 40.637 0.754 40.637 0.651 -48.91
3650 0.643 -49.512 0.761 40.026 0.761 40.026 0.643 -49.512
3700 0.635 -50.111 0.767 39.418 0.767 39.418 0.635 -50.111
3750 0.627 -50.707 0.774 38.812 0.774 38.812 0.627 -50.707
3800 0.619 -51.3 0.78 38.21 0.78 38.21 0.619 -51.3
3850 0.61 -51.89 0.787 37.609 0.787 37.609 0.61 -51.89
3900 0.602 -52.477 0.793 37.012 0.793 37.012 0.602 -52.477
3950 0.594 -53.061 0.799 36.418 0.799 36.418 0.594 -53.061
4000 0.585 -53.642 0.805 35.826 0.805 35.826 0.585 -53.642
4050 0.577 -54.22 0.811 35.237 0.811 35.237 0.577 -54.22
4100 0.569 -54.795 0.817 34.651 0.817 34.651 0.569 -54.795
4150 0.56 -55.366 0.823 34.068 0.823 34.068 0.56 -55.366
4200 0.552 -55.935 0.828 33.488 0.828 33.488 0.552 -55.935
4250 0.543 -56.5 0.834 32.91 0.834 32.91 0.543 -56.5
4300 0.535 -57.062 0.839 32.336 0.839 32.336 0.535 -57.062
4350 0.526 -57.621 0.845 31.764 0.845 31.764 0.526 -57.621
4400 0.518 -58.176 0.85 31.195 0.85 31.195 0.518 -58.176
4450 0.51 -58.729 0.855 30.63 0.855 30.63 0.51 -58.729
4500 0.501 -59.277 0.86 30.067 0.86 30.067 0.501 -59.277
4550 0.493 -59.823 0.865 29.507 0.865 29.507 0.493 -59.823
4600 0.484 -60.365 0.869 28.95 0.869 28.95 0.484 -60.365
4650 0.476 -60.904 0.874 28.396 0.874 28.396 0.476 -60.904
4700 0.467 -61.439 0.878 27.845 0.878 27.845 0.467 -61.439
4750 0.459 -61.971 0.883 27.296 0.883 27.296 0.459 -61.971
4800 0.45 -62.5 0.887 26.751 0.887 26.751 0.45 -62.5
4850 0.442 -63.025 0.891 26.209 0.891 26.209 0.442 -63.025
4900 0.433 -63.546 0.895 25.669 0.895 25.669 0.433 -63.546
4950 0.425 -64.064 0.899 25.133 0.899 25.133 0.425 -64.064
5000 0.416 -64.578 0.903 24.6 0.903 24.6 0.416 -64.578
5050 0.408 -65.089 0.907 24.069 0.907 24.069 0.408 -65.089
5100 0.399 -65.595 0.911 23.542 0.911 23.542 0.399 -65.595
5150 0.391 -66.098 0.914 23.017 0.914 23.017 0.391 -66.098
5200 0.383 -66.598 0.918 22.495 0.918 22.495 0.383 -66.598
5250 0.374 -67.093 0.921 21.977 0.921 21.977 0.374 -67.093
5300 0.366 -67.585 0.925 21.461 0.925 21.461 0.366 -67.585
5350 0.358 -68.072 0.928 20.948 0.928 20.948 0.358 -68.072
5400 0.349 -68.556 0.931 20.439 0.931 20.439 0.349 -68.556
5450 0.341 -69.036 0.934 19.932 0.934 19.932 0.341 -69.036
5500 0.333 -69.511 0.937 19.428 0.937 19.428 0.333 -69.511
5550 0.324 -69.982 0.94 18.927 0.94 18.927 0.324 -69.982
5600 0.316 -70.449 0.943 18.429 0.943 18.429 0.316 -70.449
5650 0.308 -70.911 0.945 17.934 0.945 17.934 0.308 -70.911
5700 0.3 -71.369 0.948 17.442 0.948 17.442 0.3 -71.369
5750 0.292 -71.822 0.95 16.952 0.95 16.952 0.292 -71.822
5800 0.284 -72.271 0.953 16.466 0.953 16.466 0.284 -72.271
5850 0.275 -72.715 0.955 15.983 0.955 15.983 0.275 -72.715
5900 0.267 -73.153 0.957 15.502 0.957 15.502 0.267 -73.153
5950 0.259 -73.586 0.96 15.024 0.96 15.024 0.259 -73.586
6000 0.251 -74.014 0.962 14.55 0.962 14.55 0.251 -74.014
6050 0.243 -74.436 0.964 14.078 0.964 14.078 0.243 -74.436
6100 0.235 -74.852 0.966 13.609 0.966 13.609 0.235 -74.852
6150 0.227 -75.262 0.967 13.143 0.967 13.143 0.227 -75.262
6200 0.22 -75.666 0.969 12.679 0.969 12.679 0.22 -75.666
6250 0.212 -76.062 0.971 12.219 0.971 12.219 0.212 -76.062
6300 0.204 -76.452 0.973 11.761 0.973 11.761 0.204 -76.452
6350 0.196 -76.833 0.974 11.307 0.974 11.307 0.196 -76.833
6400 0.188 -77.206 0.976 10.855 0.976 10.855 0.188 -77.206
6450 0.181 -77.57 0.977 10.406 0.977 10.406 0.181 -77.57
6500 0.173 -77.924 0.979 9.959 0.979 9.959 0.173 -77.924
6550 0.165 -78.268 0.98 9.516 0.98 9.516 0.165 -78.268
6600 0.158 -78.599 0.981 9.075 0.981 9.075 0.158 -78.599
6650 0.15 -78.918 0.982 8.637 0.982 8.637 0.15 -78.918
6700 0.143 -79.222 0.983 8.202 0.983 8.202 0.143 -79.222
6750 0.135 -79.51 0.984 7.769 0.984 7.769 0.135 -79.51
6800 0.128 -79.779 0.985 7.339 0.985 7.339 0.128 -79.779
6850 0.121 -80.027 0.986 6.912 0.986 6.912 0.121 -80.027
6900 0.113 -80.25 0.987 6.488 0.987 6.488 0.113 -80.25
6950 0.106 -80.444 0.988 6.066 0.988 6.066 0.106 -80.444
7000 0.099 -80.604 0.989 5.647 0.989 5.647 0.099 -80.604
7050 0.091 -80.721 0.989 5.231 0.989 5.231 0.091 -80.721
7100 0.084 -80.787 0.99 4.817 0.99 4.817 0.084 -80.787
7150 0.077 -80.788 0.991 4.406 0.991 4.406 0.077 -80.788
7200 0.07 -80.707 0.991 3.997 0.991 3.997 0.07 -80.707
7250 0.063 -80.517 0.992 3.592 0.992 3.592 0.063 -80.517
7300 0.056 -80.18 0.992 3.188 0.992 3.188 0.056 -80.18
7350 0.049 -79.637 0.992 2.788 0.992 2.788 0.049 -79.637
7400 0.042 -78.79 0.993 2.39 0.993 2.39 0.042 -78.79
7450 0.035 -77.471 0.993 1.994 0.993 1.994 0.035 -77.471
7500 0.029 -75.357 0.993 1.601 0.993 1.601 0.029 -75.357
7550 0.022 -71.758 0.993 1.211 0.993 1.211 0.022 -71.758
7600 0.016 -64.915 0.993 0.823 0.993 0.823 0.016 -64.915
7650 0.01 -49.276 0.993 0.438 0.993 0.438 0.01 -49.276
7700 6.545e-3 -8.343 0.994 0.055 0.994 0.055 6.545e-3 -8.343
7750 8.616e-3 40.951 0.994 -0.326 0.994 -0.326 8.616e-3 40.951
7800 0.014 61.496 0.993 -0.704 0.993 -0.704 0.014 61.496
7850 0.02 69.95 0.993 -1.079 0.993 -1.079 0.02 69.95
7900 0.026 74.219 0.993 -1.452 0.993 -1.452 0.026 74.219
7950 0.032 76.676 0.993 -1.823 0.993 -1.823 0.032 76.676
8000 0.039 78.203 0.993 -2.191 0.993 -2.191 0.039 78.203
8050 0.045 79.192 0.993 -2.557 0.993 -2.557 0.045 79.192
8100 0.051 79.845 0.992 -2.921 0.992 -2.921 0.051 79.845
8150 0.058 80.274 0.992 -3.282 0.992 -3.282 0.058 80.274
8200 0.064 80.547 0.992 -3.64 0.992 -3.64 0.064 80.547
8250 0.07 80.707 0.991 -3.997 0.991 -3.997 0.07 80.707
8300 0.076 80.783 0.991 -4.351 0.991 -4.351 0.076 80.783
8350 0.082 80.794 0.99 -4.703 0.99 -4.703 0.082 80.794
8400 0.088 80.756 0.99 -5.052 0.99 -5.052 0.088 80.756
8450 0.094 80.679 0.989 -5.4 0.989 -5.4 0.094 80.679
8500 0.1 80.57 0.989 -5.745 0.989 -5.745 0.1 80.57
8550 0.106 80.435 0.988 -6.088 0.988 -6.088 0.106 80.435
8600 0.112 80.28 0.987 -6.428 0.987 -6.428 0.112 80.28
8650 0.118 80.107 0.987 -6.766 0.987 -6.766 0.118 80.107
8700 0.124 79.919 0.986 -7.103 0.986 -7.103 0.124 79.919
8750 0.13 79.72 0.985 -7.437 0.985 -7.437 0.13 79.72
8800 0.135 79.51 0.984 -7.768 0.984 -7.768 0.135 79.51
8850 0.141 79.292 0.984 -8.098 0.984 -8.098 0.141 79.292
8900 0.147 79.067 0.983 -8.426 0.983 -8.426 0.147 79.067
8950 0.152 78.836 0.982 -8.751 0.982 -8.751 0.152 78.836
9000 0.158 78.6 0.981 -9.074 0.981 -9.074 0.158 78.6
9050 0.163 78.359 0.98 -9.395 0.98 -9.395 0.163 78.359
9100 0.169 78.115 0.979 -9.715 0.979 -9.715 0.169 78.115
9150 0.174 77.867 0.978 -10.032 0.978 -10.032 0.174 77.867
9200 0.18 77.617 0.977 -10.347 0.977 -10.347 0.18 77.617
9250 0.185 77.365 0.976 -10.66 0.976 -10.66 0.185 77.365
9300 0.19 77.111 0.975 -10.97 0.975 -10.97 0.19 77.111
9350 0.196 76.856 0.974 -11.279 0.974 -11.279 0.196 76.856
9400 0.201 76.599 0.973 -11.586 0.973 -11.586 0.201 76.599
9450 0.206 76.342 0.972 -11.891 0.972 -11.891 0.206 76.342
9500 0.211 76.084 0.971 -12.194 0.971 -12.194 0.211 76.084
9550 0.216 75.825 0.97 -12.495 0.97 -12.495 0.216 75.825
9600 0.222 75.566 0.969 -12.794 0.969 -12.794 0.222 75.566
9650 0.227 75.307 0.968 -13.092 0.968 -13.092 0.227 75.307
9700 0.232 75.048 0.967 -13.387 0.967 -13.387 0.232 75.048
9750 0.237 74.789 0.965 -13.68 0.965 -13.68 0.237 74.789
9800 0.242 74.531 0.964 -13.972 0.964 -13.972 0.242 74.531
9850 0.246 74.272 0.963 -14.261 0.963 -14.261 0.246 74.272
9900 0.251 74.015 0.962 -14.549 0.962 -14.549 0.251 74.015
9950 0.256 73.757 0.96 -14.835 0.96 -14.835 0.256 73.757
10000 0.261 73.501 0.959 -15.119 0.959 -15.119 0.261 73.501
10050 0.266 73.245 0.958 -15.401 0.958 -15.401 0.266 73.245
10100 0.27 72.989 0.957 -15.682 0.957 -15.682 0.27 72.989
10150 0.275 72.735 0.955 -15.961 0.955 -15.961 0.275 72.735
10200 0.28 72.481 0.954 -16.238 0.954 -16.238 0.28 72.481
10250 0.284 72.228 0.953 -16.513 0.953 -16.513 0.284 72.228
10300 0.289 71.976 0.951 -16.786 0.951 -16.786 0.289 71.976
10350 0.293 71.725 0.95 -17.058 0.95 -17.058 0.293 71.725
10400 0.298 71.475 0.948 -17.328 0.948 -17.328 0.298 71.475
10450 0.302 71.226 0.947 -17.596 0.947 -17.596 0.302 71.226
10500 0.307 70.978 0.946 -17.863 0.946 -17.863 0.307 70.978
10550 0.311 70.73 0.944 -18.128 0.944 -18.128 0.311 70.73
10600 0.316 70.485 0.943 -18.391 0.943 -18.391 0.316 70.485
10650 0.32 70.24 0.941 -18.652 0.941 -18.652 0.32 70.24
10700 0.324 69.996 0.94 -18.912 0.94 -18.912 0.324 69.996
10750 0.328 69.753 0.938 -19.171 0.938 -19.171 0.328 69.753
10800 0.333 69.511 0.937 -19.427 0.937 -19.427 0.333 69.511
10850 0.337 69.271 0.935 -19.682 0.935 -19.682 0.337 69.271
10900 0.341 69.032 0.934 -19.936 0.934 -19.936 0.341 69.032
10950 0.345 68.794 0.932 -20.188 0.932 -20.188 0.345 68.794
11000 0.349 68.557 0.931 -20.438 0.931 -20.438 0.349 68.557
11050 0.353 68.321 0.929 -20.687 0.929 -20.687 0.353 68.321
11100 0.357 68.086 0.928 -20.934 0.928 -20.934 0.357 68.086
11150 0.361 67.853 0.926 -21.18 0.926 -21.18 0.361 67.853
11200 0.365 67.62 0.925 -21.424 0.925 -21.424 0.365 67.62
11250 0.369 67.389 0.923 -21.666 0.923 -21.666 0.369 67.389
11300 0.373 67.159 0.922 -21.908 0.922 -21.908 0.373 67.159
11350 0.377 66.93 0.92 -22.147 0.92 -22.147 0.377 66.93
11400 0.381 66.703 0.919 -22.385 0.919 -22.385 0.381 66.703
11450 0.385 66.477 0.917 -22.622 0.917 -22.622 0.385 66.477
11500 0.388 66.251 0.915 -22.857 0.915 -22.857 0.388 66.251
11550 0.392 66.027 0.914 -23.091 0.914 -23.091 0.392 66.027
11600 0.396 65.804 0.912 -23.324 0.912 -23.324 0.396 65.804
11650 0.4 65.583 0.911 -23.555 0.911 -23.555 0.4 65.583
11700 0.403 65.362 0.909 -23.784 0.909 -23.784 0.403 65.362
11750 0.407 65.143 0.907 -24.012 0.907 -24.012 0.407 65.143
11800 0.411 64.925 0.906 -24.239 0.906 -24.239 0.411 64.925
11850 0.414 64.708 0.904 -24.464 0.904 -24.464 0.414 64.708
11900 0.418 64.492 0.903 -24.689 0.903 -24.689 0.418 64.492
11950 0.421 64.278 0.901 -24.911 0.901 -24.911 0.421 64.278
12000 0.425 64.064 0.899 -25.133 0.899 -25.133 0.425 64.064
12050 0.428 63.852 0.898 -25.352 0.898 -25.352 0.428 63.852
12100 0.432 63.641 0.896 -25.571 0.896 -25.571 0.432 63.641
12150 0.435 63.431 0.894 -25.789 0.894 -25.789 0.435 63.431
12200 0.438 63.222 0.893 -26.005 0.893 -26.005 0.438 63.222
12250 0.442 63.014 0.891 -26.219 0.891 -26.219 0.442 63.014
12300 0.445 62.808 0.89 -26.433 0.89 -26.433 0.445 62.808
12350 0.448 62.603 0.888 -26.645 0.888 -26.645 0.448 62.603
12400 0.452 62.398 0.886 -26.856 0.886 -26.856 0.452 62.398
12450 0.455 62.195 0.885 -27.066 0.885 -27.066 0.455 62.195
12500 0.458 61.993 0.883 -27.274 0.883 -27.274 0.458 61.993
12550 0.461 61.792 0.881 -27.481 0.881 -27.481 0.461 61.792
12600 0.465 61.592 0.88 -27.687 0.88 -27.687 0.465 61.592
12650 0.468 61.393 0.878 -27.892 0.878 -27.892 0.468 61.393
12700 0.471 61.196 0.876 -28.095 0.876 -28.095 0.471 61.196
12750 0.474 60.999 0.875 -28.298 0.875 -28.298 0.474 60.999
12800 0.477 60.804 0.873 -28.499 0.873 -28.499 0.477 60.804
12850 0.48 60.609 0.871 -28.699 0.871 -28.699 0.48 60.609
12900 0.483 60.416 0.87 -28.898 0.87 -28.898 0.483 60.416
12950 0.486 60.224 0.868 -29.095 0.868 -29.095 0.486 60.224
13000 0.489 60.032 0.866 -29.292 0.866 -29.292 0.489 60.032
13050 0.492 59.842 0.865 -29.487 0.865 -29.487 0.492 59.842
13100 0.495 59.653 0.863 -29.681 0.863 -29.681 0.495 59.653
13150 0.498 59.465 0.861 -29.874 0.861 -29.874 0.498 59.465
13200 0.501 59.278 0.86 -30.066 0.86 -30.066 0.501 59.278
13250 0.504 59.092 0.858 -30.257 0.858 -30.257 0.504 59.092
13300 0.507 58.907 0.856 -30.447 0.856 -30.447 0.507 58.907
13350 0.51 58.723 0.855 -30.636 0.855 -30.636 0.51 58.723
13400 0.512 58.54 0.853 -30.823 0.853 -30.823 0.512 58.54
13450 0.515 58.358 0.851 -31.01 0.851 -31.01 0.515 58.358
13500 0.518 58.177 0.85 -31.195 0.85 -31.195 0.518 58.177
13550 0.521 57.997 0.848 -31.379 0.848 -31.379 0.521 57.997
13600 0.523 57.818 0.846 -31.563 0.846 -31.563 0.523 57.818
13650 0.526 57.64 0.845 -31.745 0.845 -31.745 0.526 57.64
13700 0.529 57.463 0.843 -31.926 0.843 -31.926 0.529 57.463
13750 0.532 57.286 0.841 -32.106 0.841 -32.106 0.532 57.286
13800 0.534 57.111 0.84 -32.286 0.84 -32.286 0.534 57.111
13850 0.537 56.937 0.838 -32.464 0.838 -32.464 0.537 56.937
13900 0.539 56.764 0.836 -32.641 0.836 -32.641 0.539 56.764
13950 0.542 56.591 0.835 -32.817 0.835 -32.817 0.542 56.591
14000 0.545 56.42 0.833 -32.992 0.833 -32.992 0.545 56.42
14050 0.547 56.249 0.832 -33.166 0.832 -33.166 0.547 56.249
14100 0.55 56.08 0.83 -33.34 0.83 -33.34 0.55 56.08
14150 0.552 55.911 0.828 -33.512 0.828 -33.512 0.552 55.911
14200 0.555 55.743 0.827 -33.683 0.827 -33.683 0.555 55.743
14250 0.557 55.577 0.825 -33.853 0.825 -33.853 0.557 55.577
14300 0.56 55.411 0.823 -34.023 0.823 -34.023 0.56 55.411
14350 0.562 55.246 0.822 -34.191 0.822 -34.191 0.562 55.246
14400 0.564 55.081 0.82 -34.359 0.82 -34.359 0.564 55.081
14450 0.567 54.918 0.818 -34.525 0.818 -34.525 0.567 54.918
14500 0.569 54.756 0.817 -34.691 0.817 -34.691 0.569 54.756
14550 0.572 54.594 0.815 -34.856 0.815 -34.856 0.572 54.594
14600 0.574 54.433 0.813 -35.02 0.813 -35.02 0.574 54.433
14650 0.576 54.274 0.812 -35.183 0.812 -35.183 0.576 54.274
14700 0.579 54.115 0.81 -35.345 0.81 -35.345 0.579 54.115
14750 0.581 53.956 0.809 -35.506 0.809 -35.506 0.581 53.956
14800 0.583 53.799 0.807 -35.666 0.807 -35.666 0.583 53.799
14850 0.585 53.643 0.805 -35.826 0.805 -35.826 0.585 53.643
14900 0.588 53.487 0.804 -35.984 0.804 -35.984 0.588 53.487
14950 0.59 53.332 0.802 -36.142 0.802 -36.142 0.59 53.332
15000 0.592 53.178 0.801 -36.299 0.801 -36.299 0.592 53.178
15050 0.594 53.025 0.799 -36.455 0.799 -36.455 0.594 53.025
15100 0.596 52.872 0.797 -36.61 0.797 -36.61 0.596 52.872
15150 0.599 52.721 0.796 -36.764 0.796 -36.764 0.599 52.721
15200 0.601 52.57 0.794 -36.918 0.794 -36.918 0.601 52.57
15250 0.603 52.42 0.793 -37.07 0.793 -37.07 0.603 52.42
15300 0.605 52.271 0.791 -37.222 0.791 -37.222 0.605 52.271
15350 0.607 52.122 0.789 -37.373 0.789 -37.373 0.607 52.122
15400 0.609 51.975 0.788 -37.523 0.788 -37.523 0.609 51.975
15450 0.611 51.828 0.786 -37.673 0.786 -37.673 0.611 51.828
15500 0.613 51.681 0.785 -37.822 0.785 -37.822 0.613 51.681
15550 0.615 51.536 0.783 -37.969 0.783 -37.969 0.615 51.536
15600 0.617 51.391 0.781 -38.117 0.781 -38.117 0.617 51.391
15650 0.619 51.247 0.78 -38.263 0.78 -38.263 0.619 51.247
15700 0.621 51.104 0.778 -38.408 0.778 -38.408 0.621 51.104
15750 0.623 50.962 0.777 -38.553 0.777 -38.553 0.623 50.962
15800 0.625 50.82 0.775 -38.697 0.775 -38.697 0.625 50.82
15850 0.627 50.679 0.774 -38.841 0.774 -38.841 0.627 50.679
15900 0.629 50.539 0.772 -38.983 0.772 -38.983 0.629 50.539
15950 0.631 50.399 0.771 -39.125 0.771 -39.125 0.631 50.399
16000 0.633 50.26 0.769 -39.266 0.769 -39.266 0.633 50.26
16050 0.635 50.122 0.767 -39.406 0.767 -39.406 0.635 50.122
16100 0.637 49.985 0.766 -39.546 0.766 -39.546 0.637 49.985
16150 0.639 49.848 0.764 -39.685 0.764 -39.685 0.639 49.848
16200 0.64 49.712 0.763 -39.823 0.763 -39.823 0.64 49.712
16250 0.642 49.577 0.761 -39.96 0.761 -39.96 0.642 49.577
16300 0.644 49.442 0.76 -40.097 0.76 -40.097 0.644 49.442
16350 0.646 49.308 0.758 -40.233 0.758 -40.233 0.646 49.308
16400 0.648 49.175 0.757 -40.368 0.757 -40.368 0.648 49.175
16450 0.65 49.042 0.755 -40.503 0.755 -40.503 0.65 49.042
16500 0.651 48.91 0.754 -40.637 0.754 -40.637 0.651 48.91
16550 0.653 48.779 0.752 -40.77 0.752 -40.77 0.653 48.779
16600 0.655 48.648 0.751 -40.903 0.751 -40.903 0.655 48.648
16650 0.657 48.518 0.749 -41.035 0.749 -41.035 0.657 48.518
16700 0.658 48.389 0.748 -41.166 0.748 -41.166 0.658 48.389
16750 0.66 48.26 0.746 -41.297 0.746 -41.297 0.66 48.26
16800 0.662 48.132 0.745 -41.427 0.745 -41.427 0.662 48.132
16850 0.663 48.004 0.743 -41.556 0.743 -41.556 0.663 48.004
16900 0.665 47.877 0.742 -41.685 0.742 -41.685 0.665 47.877
16950 0.667 47.751 0.74 -41.813 0.74 -41.813 0.667 47.751
