! AVX Thin Film Operation		Date: April 2012 
! Description: Accu-P® Series, Thin Film, SMD, RF Capacitor
! Part Number: 12101J170FBTTR					
!	50	MHz	-	20.05	GHz			
!	Serial	Measurements						
!								
#	MHZ	S	MA	R	50			
!	S11	S21	S12	S22				
!	dB	Phase	dB	Phase	dB	Phase	dB	Phase
50 0.881 -28.124 0.471 61.769 0.471 61.769 0.881 -28.124
100 0.68 -47.007 0.731 42.835 0.731 42.835 0.68 -47.007
150 0.522 -58.294 0.851 31.496 0.851 31.496 0.522 -58.294
200 0.413 -65.329 0.909 24.406 0.909 24.406 0.413 -65.329
250 0.336 -70.03 0.94 19.647 0.94 19.647 0.336 -70.03
300 0.28 -73.371 0.958 16.246 0.958 16.246 0.28 -73.371
350 0.237 -75.862 0.97 13.689 0.97 13.689 0.237 -75.862
400 0.203 -77.792 0.977 11.688 0.977 11.688 0.203 -77.792
450 0.175 -79.332 0.983 10.069 0.983 10.069 0.175 -79.332
500 0.152 -80.589 0.987 8.725 0.987 8.725 0.152 -80.589
550 0.132 -81.632 0.989 7.583 0.989 7.583 0.132 -81.632
600 0.115 -82.506 0.992 6.596 0.992 6.596 0.115 -82.506
650 0.1 -83.241 0.993 5.728 0.993 5.728 0.1 -83.241
700 0.086 -83.857 0.994 4.955 0.994 4.955 0.086 -83.857
750 0.074 -84.364 0.995 4.258 0.995 4.258 0.074 -84.364
800 0.063 -84.76 0.996 3.623 0.996 3.623 0.063 -84.76
850 0.053 -85.036 0.997 3.04 0.997 3.04 0.053 -85.036
900 0.044 -85.164 0.997 2.5 0.997 2.5 0.044 -85.164
950 0.035 -85.082 0.998 1.996 0.998 1.996 0.035 -85.082
1000 0.027 -84.653 0.998 1.523 0.998 1.523 0.027 -84.653
1050 0.019 -83.526 0.998 1.077 0.998 1.077 0.019 -83.526
1100 0.012 -80.501 0.998 0.654 0.998 0.654 0.012 -80.501
1150 4.717e-3 -67.645 0.998 0.25 0.998 0.25 4.717e-3 -67.645
1200 2.952e-3 52.909 0.998 -0.135 0.998 -0.135 2.952e-3 52.909
1250 8.994e-3 78.112 0.998 -0.505 0.998 -0.505 8.994e-3 78.112
1300 0.015 82.404 0.998 -0.861 0.998 -0.861 0.015 82.404
1350 0.021 83.969 0.998 -1.205 0.998 -1.205 0.021 83.969
1400 0.027 84.676 0.998 -1.538 0.998 -1.538 0.027 84.676
1450 0.033 85.007 0.998 -1.862 0.998 -1.862 0.033 85.007
1500 0.038 85.143 0.998 -2.176 0.998 -2.176 0.038 85.143
1550 0.043 85.166 0.997 -2.482 0.997 -2.482 0.043 85.166
1600 0.049 85.118 0.997 -2.781 0.997 -2.781 0.049 85.118
1650 0.054 85.024 0.997 -3.073 0.997 -3.073 0.054 85.024
1700 0.059 84.899 0.996 -3.359 0.996 -3.359 0.059 84.899
1750 0.064 84.751 0.996 -3.64 0.996 -3.64 0.064 84.751
1800 0.068 84.588 0.996 -3.915 0.996 -3.915 0.068 84.588
1850 0.073 84.413 0.996 -4.186 0.996 -4.186 0.073 84.413
1900 0.078 84.229 0.995 -4.452 0.995 -4.452 0.078 84.229
1950 0.082 84.039 0.995 -4.714 0.995 -4.714 0.082 84.039
2000 0.087 83.844 0.994 -4.972 0.994 -4.972 0.087 83.844
2050 0.091 83.646 0.994 -5.227 0.994 -5.227 0.091 83.646
2100 0.095 83.445 0.994 -5.479 0.994 -5.479 0.095 83.445
2150 0.1 83.243 0.993 -5.727 0.993 -5.727 0.1 83.243
2200 0.104 83.038 0.993 -5.973 0.993 -5.973 0.104 83.038
2250 0.108 82.833 0.992 -6.215 0.992 -6.215 0.108 82.833
2300 0.112 82.627 0.992 -6.456 0.992 -6.456 0.112 82.627
2350 0.117 82.421 0.991 -6.694 0.991 -6.694 0.117 82.421
2400 0.121 82.215 0.991 -6.929 0.991 -6.929 0.121 82.215
2450 0.125 82.008 0.99 -7.163 0.99 -7.163 0.125 82.008
2500 0.129 81.802 0.99 -7.394 0.99 -7.394 0.129 81.802
2550 0.133 81.596 0.989 -7.624 0.989 -7.624 0.133 81.596
2600 0.137 81.39 0.989 -7.851 0.989 -7.851 0.137 81.39
2650 0.141 81.184 0.988 -8.077 0.988 -8.077 0.141 81.184
2700 0.144 80.979 0.988 -8.302 0.988 -8.302 0.144 80.979
2750 0.148 80.774 0.987 -8.524 0.987 -8.524 0.148 80.774
2800 0.152 80.57 0.987 -8.746 0.987 -8.746 0.152 80.57
2850 0.156 80.366 0.986 -8.965 0.986 -8.965 0.156 80.366
2900 0.16 80.163 0.985 -9.184 0.985 -9.184 0.16 80.163
2950 0.163 79.961 0.985 -9.401 0.985 -9.401 0.163 79.961
3000 0.167 79.759 0.984 -9.616 0.984 -9.616 0.167 79.759
3050 0.171 79.557 0.983 -9.831 0.983 -9.831 0.171 79.557
3100 0.174 79.356 0.983 -10.044 0.983 -10.044 0.174 79.356
3150 0.178 79.156 0.982 -10.256 0.982 -10.256 0.178 79.156
3200 0.182 78.956 0.982 -10.467 0.982 -10.467 0.182 78.956
3250 0.185 78.757 0.981 -10.677 0.981 -10.677 0.185 78.757
3300 0.189 78.558 0.98 -10.886 0.98 -10.886 0.189 78.558
3350 0.192 78.36 0.979 -11.094 0.979 -11.094 0.192 78.36
3400 0.196 78.163 0.979 -11.301 0.979 -11.301 0.196 78.163
3450 0.199 77.966 0.978 -11.507 0.978 -11.507 0.199 77.966
3500 0.203 77.769 0.977 -11.712 0.977 -11.712 0.203 77.769
3550 0.206 77.574 0.977 -11.916 0.977 -11.916 0.206 77.574
3600 0.21 77.378 0.976 -12.119 0.976 -12.119 0.21 77.378
3650 0.213 77.184 0.975 -12.321 0.975 -12.321 0.213 77.184
3700 0.217 76.99 0.974 -12.523 0.974 -12.523 0.217 76.99
3750 0.22 76.796 0.974 -12.724 0.974 -12.724 0.22 76.796
3800 0.224 76.603 0.973 -12.924 0.973 -12.924 0.224 76.603
3850 0.227 76.411 0.972 -13.123 0.972 -13.123 0.227 76.411
3900 0.23 76.219 0.971 -13.321 0.971 -13.321 0.23 76.219
3950 0.234 76.027 0.97 -13.519 0.97 -13.519 0.234 76.027
4000 0.237 75.837 0.97 -13.716 0.97 -13.716 0.237 75.837
4050 0.24 75.646 0.969 -13.912 0.969 -13.912 0.24 75.646
4100 0.244 75.457 0.968 -14.107 0.968 -14.107 0.244 75.457
4150 0.247 75.267 0.967 -14.302 0.967 -14.302 0.247 75.267
4200 0.25 75.079 0.966 -14.496 0.966 -14.496 0.25 75.079
4250 0.254 74.89 0.965 -14.689 0.965 -14.689 0.254 74.89
4300 0.257 74.703 0.965 -14.882 0.965 -14.882 0.257 74.703
4350 0.26 74.516 0.964 -15.074 0.964 -15.074 0.26 74.516
4400 0.263 74.329 0.963 -15.266 0.963 -15.266 0.263 74.329
4450 0.267 74.143 0.962 -15.456 0.962 -15.456 0.267 74.143
4500 0.27 73.957 0.961 -15.646 0.961 -15.646 0.27 73.957
4550 0.273 73.772 0.96 -15.836 0.96 -15.836 0.273 73.772
4600 0.276 73.587 0.959 -16.025 0.959 -16.025 0.276 73.587
4650 0.279 73.403 0.958 -16.213 0.958 -16.213 0.279 73.403
4700 0.282 73.22 0.957 -16.401 0.957 -16.401 0.282 73.22
4750 0.285 73.036 0.957 -16.588 0.957 -16.588 0.285 73.036
4800 0.289 72.854 0.956 -16.774 0.956 -16.774 0.289 72.854
4850 0.292 72.672 0.955 -16.96 0.955 -16.96 0.292 72.672
4900 0.295 72.49 0.954 -17.145 0.954 -17.145 0.295 72.49
4950 0.298 72.309 0.953 -17.33 0.953 -17.33 0.298 72.309
5000 0.301 72.128 0.952 -17.514 0.952 -17.514 0.301 72.128
5050 0.304 71.948 0.951 -17.698 0.951 -17.698 0.304 71.948
5100 0.307 71.768 0.95 -17.881 0.95 -17.881 0.307 71.768
5150 0.31 71.589 0.949 -18.063 0.949 -18.063 0.31 71.589
5200 0.313 71.41 0.948 -18.245 0.948 -18.245 0.313 71.41
5250 0.316 71.232 0.947 -18.426 0.947 -18.426 0.316 71.232
5300 0.319 71.054 0.946 -18.607 0.946 -18.607 0.319 71.054
5350 0.322 70.877 0.945 -18.788 0.945 -18.788 0.322 70.877
5400 0.325 70.7 0.944 -18.967 0.944 -18.967 0.325 70.7
5450 0.328 70.524 0.943 -19.146 0.943 -19.146 0.328 70.524
5500 0.331 70.348 0.942 -19.325 0.942 -19.325 0.331 70.348
5550 0.334 70.173 0.941 -19.503 0.941 -19.503 0.334 70.173
5600 0.337 69.998 0.94 -19.681 0.94 -19.681 0.337 69.998
5650 0.34 69.823 0.939 -19.858 0.939 -19.858 0.34 69.823
5700 0.343 69.649 0.938 -20.034 0.938 -20.034 0.343 69.649
5750 0.345 69.476 0.937 -20.21 0.937 -20.21 0.345 69.476
5800 0.348 69.303 0.935 -20.386 0.935 -20.386 0.348 69.303
5850 0.351 69.13 0.934 -20.561 0.934 -20.561 0.351 69.13
5900 0.354 68.958 0.933 -20.735 0.933 -20.735 0.354 68.958
5950 0.357 68.787 0.932 -20.909 0.932 -20.909 0.357 68.787
6000 0.36 68.616 0.931 -21.082 0.931 -21.082 0.36 68.616
6050 0.363 68.445 0.93 -21.255 0.93 -21.255 0.363 68.445
6100 0.365 68.275 0.929 -21.428 0.929 -21.428 0.365 68.275
6150 0.368 68.105 0.928 -21.599 0.928 -21.599 0.368 68.105
6200 0.371 67.936 0.927 -21.771 0.927 -21.771 0.371 67.936
6250 0.374 67.767 0.926 -21.942 0.926 -21.942 0.374 67.767
6300 0.376 67.599 0.925 -22.112 0.925 -22.112 0.376 67.599
6350 0.379 67.431 0.923 -22.282 0.923 -22.282 0.379 67.431
6400 0.382 67.263 0.922 -22.451 0.922 -22.451 0.382 67.263
6450 0.385 67.096 0.921 -22.62 0.921 -22.62 0.385 67.096
6500 0.387 66.93 0.92 -22.788 0.92 -22.788 0.387 66.93
6550 0.39 66.764 0.919 -22.956 0.919 -22.956 0.39 66.764
6600 0.393 66.599 0.918 -23.124 0.918 -23.124 0.393 66.599
6650 0.395 66.433 0.917 -23.29 0.917 -23.29 0.395 66.433
6700 0.398 66.269 0.915 -23.457 0.915 -23.457 0.398 66.269
6750 0.401 66.105 0.914 -23.623 0.914 -23.623 0.401 66.105
6800 0.403 65.941 0.913 -23.788 0.913 -23.788 0.403 65.941
6850 0.406 65.778 0.912 -23.953 0.912 -23.953 0.406 65.778
6900 0.409 65.615 0.911 -24.117 0.911 -24.117 0.409 65.615
6950 0.411 65.453 0.91 -24.281 0.91 -24.281 0.411 65.453
7000 0.414 65.291 0.908 -24.444 0.908 -24.444 0.414 65.291
7050 0.416 65.13 0.907 -24.607 0.907 -24.607 0.416 65.13
7100 0.419 64.969 0.906 -24.77 0.906 -24.77 0.419 64.969
7150 0.422 64.809 0.905 -24.932 0.905 -24.932 0.422 64.809
7200 0.424 64.649 0.904 -25.093 0.904 -25.093 0.424 64.649
7250 0.427 64.489 0.903 -25.254 0.903 -25.254 0.427 64.489
7300 0.429 64.33 0.901 -25.415 0.901 -25.415 0.429 64.33
7350 0.432 64.172 0.9 -25.575 0.9 -25.575 0.432 64.172
7400 0.434 64.013 0.899 -25.734 0.899 -25.734 0.434 64.013
7450 0.437 63.856 0.898 -25.893 0.898 -25.893 0.437 63.856
7500 0.439 63.699 0.896 -26.052 0.896 -26.052 0.439 63.699
7550 0.442 63.542 0.895 -26.21 0.895 -26.21 0.442 63.542
7600 0.444 63.386 0.894 -26.367 0.894 -26.367 0.444 63.386
7650 0.447 63.23 0.893 -26.525 0.893 -26.525 0.447 63.23
7700 0.449 63.074 0.892 -26.681 0.892 -26.681 0.449 63.074
7750 0.451 62.92 0.89 -26.837 0.89 -26.837 0.451 62.92
7800 0.454 62.765 0.889 -26.993 0.889 -26.993 0.454 62.765
7850 0.456 62.611 0.888 -27.148 0.888 -27.148 0.456 62.611
7900 0.459 62.458 0.887 -27.303 0.887 -27.303 0.459 62.458
7950 0.461 62.305 0.885 -27.457 0.885 -27.457 0.461 62.305
8000 0.463 62.152 0.884 -27.611 0.884 -27.611 0.463 62.152
8050 0.466 62 0.883 -27.764 0.883 -27.764 0.466 62
8100 0.468 61.848 0.882 -27.917 0.882 -27.917 0.468 61.848
8150 0.471 61.697 0.88 -28.07 0.88 -28.07 0.471 61.697
8200 0.473 61.546 0.879 -28.222 0.879 -28.222 0.473 61.546
8250 0.475 61.396 0.878 -28.373 0.878 -28.373 0.475 61.396
8300 0.478 61.246 0.877 -28.524 0.877 -28.524 0.478 61.246
8350 0.48 61.097 0.875 -28.674 0.875 -28.674 0.48 61.097
8400 0.482 60.948 0.874 -28.824 0.874 -28.824 0.482 60.948
8450 0.484 60.799 0.873 -28.974 0.873 -28.974 0.484 60.799
8500 0.487 60.651 0.872 -29.123 0.872 -29.123 0.487 60.651
8550 0.489 60.504 0.87 -29.272 0.87 -29.272 0.489 60.504
8600 0.491 60.356 0.869 -29.42 0.869 -29.42 0.491 60.356
8650 0.493 60.21 0.868 -29.568 0.868 -29.568 0.493 60.21
8700 0.496 60.063 0.867 -29.715 0.867 -29.715 0.496 60.063
8750 0.498 59.918 0.865 -29.862 0.865 -29.862 0.498 59.918
8800 0.5 59.772 0.864 -30.008 0.864 -30.008 0.5 59.772
8850 0.502 59.627 0.863 -30.154 0.863 -30.154 0.502 59.627
8900 0.505 59.483 0.861 -30.299 0.861 -30.299 0.505 59.483
8950 0.507 59.339 0.86 -30.444 0.86 -30.444 0.507 59.339
9000 0.509 59.195 0.859 -30.589 0.859 -30.589 0.509 59.195
9050 0.511 59.052 0.858 -30.733 0.858 -30.733 0.511 59.052
9100 0.513 58.91 0.856 -30.876 0.856 -30.876 0.513 58.91
9150 0.515 58.767 0.855 -31.019 0.855 -31.019 0.515 58.767
9200 0.517 58.626 0.854 -31.162 0.854 -31.162 0.517 58.626
9250 0.52 58.484 0.853 -31.304 0.853 -31.304 0.52 58.484
9300 0.522 58.343 0.851 -31.446 0.851 -31.446 0.522 58.343
9350 0.524 58.203 0.85 -31.587 0.85 -31.587 0.524 58.203
9400 0.526 58.063 0.849 -31.728 0.849 -31.728 0.526 58.063
9450 0.528 57.923 0.847 -31.869 0.847 -31.869 0.528 57.923
9500 0.53 57.784 0.846 -32.008 0.846 -32.008 0.53 57.784
9550 0.532 57.646 0.845 -32.148 0.845 -32.148 0.532 57.646
9600 0.534 57.507 0.843 -32.287 0.843 -32.287 0.534 57.507
9650 0.536 57.37 0.842 -32.426 0.842 -32.426 0.536 57.37
9700 0.538 57.232 0.841 -32.564 0.841 -32.564 0.538 57.232
9750 0.54 57.095 0.84 -32.701 0.84 -32.701 0.54 57.095
9800 0.542 56.959 0.838 -32.839 0.838 -32.839 0.542 56.959
9850 0.544 56.823 0.837 -32.976 0.837 -32.976 0.544 56.823
9900 0.546 56.687 0.836 -33.112 0.836 -33.112 0.546 56.687
9950 0.548 56.552 0.834 -33.248 0.834 -33.248 0.548 56.552
10000 0.55 56.417 0.833 -33.383 0.833 -33.383 0.55 56.417
10050 0.552 56.283 0.832 -33.518 0.832 -33.518 0.552 56.283
10100 0.554 56.149 0.83 -33.653 0.83 -33.653 0.554 56.149
10150 0.556 56.016 0.829 -33.787 0.829 -33.787 0.556 56.016
10200 0.558 55.883 0.828 -33.921 0.828 -33.921 0.558 55.883
10250 0.56 55.75 0.827 -34.054 0.827 -34.054 0.56 55.75
10300 0.562 55.618 0.825 -34.187 0.825 -34.187 0.562 55.618
10350 0.564 55.486 0.824 -34.319 0.824 -34.319 0.564 55.486
10400 0.566 55.355 0.823 -34.451 0.823 -34.451 0.566 55.355
10450 0.568 55.224 0.821 -34.583 0.821 -34.583 0.568 55.224
10500 0.569 55.093 0.82 -34.714 0.82 -34.714 0.569 55.093
10550 0.571 54.963 0.819 -34.845 0.819 -34.845 0.571 54.963
10600 0.573 54.834 0.817 -34.975 0.817 -34.975 0.573 54.834
10650 0.575 54.705 0.816 -35.105 0.816 -35.105 0.575 54.705
10700 0.577 54.576 0.815 -35.234 0.815 -35.234 0.577 54.576
10750 0.579 54.448 0.814 -35.363 0.814 -35.363 0.579 54.448
10800 0.581 54.32 0.812 -35.492 0.812 -35.492 0.581 54.32
10850 0.582 54.192 0.811 -35.62 0.811 -35.62 0.582 54.192
10900 0.584 54.065 0.81 -35.748 0.81 -35.748 0.584 54.065
10950 0.586 53.938 0.808 -35.875 0.808 -35.875 0.586 53.938
11000 0.588 53.812 0.807 -36.002 0.807 -36.002 0.588 53.812
11050 0.59 53.686 0.806 -36.128 0.806 -36.128 0.59 53.686
11100 0.591 53.561 0.804 -36.254 0.804 -36.254 0.591 53.561
11150 0.593 53.436 0.803 -36.38 0.803 -36.38 0.593 53.436
11200 0.595 53.311 0.802 -36.505 0.802 -36.505 0.595 53.311
11250 0.597 53.187 0.801 -36.63 0.801 -36.63 0.597 53.187
11300 0.598 53.063 0.799 -36.754 0.799 -36.754 0.598 53.063
11350 0.6 52.94 0.798 -36.878 0.798 -36.878 0.6 52.94
11400 0.602 52.817 0.797 -37.002 0.797 -37.002 0.602 52.817
11450 0.604 52.694 0.795 -37.125 0.795 -37.125 0.604 52.694
11500 0.605 52.572 0.794 -37.247 0.794 -37.247 0.605 52.572
11550 0.607 52.45 0.793 -37.37 0.793 -37.37 0.607 52.45
11600 0.609 52.329 0.792 -37.492 0.792 -37.492 0.609 52.329
11650 0.61 52.208 0.79 -37.613 0.79 -37.613 0.61 52.208
11700 0.612 52.088 0.789 -37.734 0.789 -37.734 0.612 52.088
11750 0.614 51.968 0.788 -37.855 0.788 -37.855 0.614 51.968
11800 0.615 51.848 0.786 -37.975 0.786 -37.975 0.615 51.848
11850 0.617 51.728 0.785 -38.095 0.785 -38.095 0.617 51.728
11900 0.619 51.61 0.784 -38.214 0.784 -38.214 0.619 51.61
11950 0.62 51.491 0.783 -38.333 0.783 -38.333 0.62 51.491
12000 0.622 51.373 0.781 -38.452 0.781 -38.452 0.622 51.373
12050 0.623 51.255 0.78 -38.57 0.78 -38.57 0.623 51.255
12100 0.625 51.138 0.779 -38.688 0.779 -38.688 0.625 51.138
12150 0.627 51.021 0.777 -38.806 0.777 -38.806 0.627 51.021
12200 0.628 50.904 0.776 -38.923 0.776 -38.923 0.628 50.904
12250 0.63 50.788 0.775 -39.039 0.775 -39.039 0.63 50.788
12300 0.631 50.672 0.774 -39.156 0.774 -39.156 0.631 50.672
12350 0.633 50.557 0.772 -39.272 0.772 -39.272 0.633 50.557
12400 0.635 50.442 0.771 -39.387 0.771 -39.387 0.635 50.442
12450 0.636 50.327 0.77 -39.502 0.77 -39.502 0.636 50.327
12500 0.638 50.213 0.768 -39.617 0.768 -39.617 0.638 50.213
12550 0.639 50.099 0.767 -39.731 0.767 -39.731 0.639 50.099
12600 0.641 49.986 0.766 -39.845 0.766 -39.845 0.641 49.986
12650 0.642 49.873 0.765 -39.959 0.765 -39.959 0.642 49.873
12700 0.644 49.76 0.763 -40.072 0.763 -40.072 0.644 49.76
12750 0.645 49.648 0.762 -40.185 0.762 -40.185 0.645 49.648
12800 0.647 49.536 0.761 -40.297 0.761 -40.297 0.647 49.536
12850 0.648 49.424 0.76 -40.409 0.76 -40.409 0.648 49.424
12900 0.65 49.313 0.758 -40.521 0.758 -40.521 0.65 49.313
12950 0.651 49.202 0.757 -40.632 0.757 -40.632 0.651 49.202
13000 0.653 49.092 0.756 -40.743 0.756 -40.743 0.653 49.092
13050 0.654 48.981 0.755 -40.853 0.755 -40.853 0.654 48.981
13100 0.656 48.872 0.753 -40.963 0.753 -40.963 0.656 48.872
13150 0.657 48.762 0.752 -41.073 0.752 -41.073 0.657 48.762
13200 0.658 48.653 0.751 -41.183 0.751 -41.183 0.658 48.653
13250 0.66 48.545 0.749 -41.292 0.749 -41.292 0.66 48.545
13300 0.661 48.437 0.748 -41.4 0.748 -41.4 0.661 48.437
13350 0.663 48.329 0.747 -41.508 0.747 -41.508 0.663 48.329
13400 0.664 48.221 0.746 -41.616 0.746 -41.616 0.664 48.221
13450 0.666 48.114 0.744 -41.724 0.744 -41.724 0.666 48.114
13500 0.667 48.007 0.743 -41.831 0.743 -41.831 0.667 48.007
13550 0.668 47.901 0.742 -41.938 0.742 -41.938 0.668 47.901
13600 0.67 47.795 0.741 -42.044 0.741 -42.044 0.67 47.795
13650 0.671 47.689 0.74 -42.15 0.74 -42.15 0.671 47.689
13700 0.672 47.584 0.738 -42.256 0.738 -42.256 0.672 47.584
13750 0.674 47.479 0.737 -42.362 0.737 -42.362 0.674 47.479
13800 0.675 47.374 0.736 -42.467 0.736 -42.467 0.675 47.374
13850 0.677 47.27 0.735 -42.571 0.735 -42.571 0.677 47.27
13900 0.678 47.166 0.733 -42.675 0.733 -42.675 0.678 47.166
13950 0.679 47.062 0.732 -42.779 0.732 -42.779 0.679 47.062
14000 0.681 46.959 0.731 -42.883 0.731 -42.883 0.681 46.959
14050 0.682 46.856 0.73 -42.986 0.73 -42.986 0.682 46.856
14100 0.683 46.754 0.728 -43.089 0.728 -43.089 0.683 46.754
14150 0.684 46.652 0.727 -43.192 0.727 -43.192 0.684 46.652
14200 0.686 46.55 0.726 -43.294 0.726 -43.294 0.686 46.55
14250 0.687 46.448 0.725 -43.396 0.725 -43.396 0.687 46.448
14300 0.688 46.347 0.724 -43.497 0.724 -43.497 0.688 46.347
14350 0.69 46.246 0.722 -43.598 0.722 -43.598 0.69 46.246
14400 0.691 46.146 0.721 -43.699 0.721 -43.699 0.691 46.146
14450 0.692 46.046 0.72 -43.799 0.72 -43.799 0.692 46.046
14500 0.693 45.946 0.719 -43.9 0.719 -43.9 0.693 45.946
14550 0.695 45.847 0.717 -43.999 0.717 -43.999 0.695 45.847
14600 0.696 45.748 0.716 -44.099 0.716 -44.099 0.696 45.748
14650 0.697 45.649 0.715 -44.198 0.715 -44.198 0.697 45.649
14700 0.698 45.55 0.714 -44.297 0.714 -44.297 0.698 45.55
14750 0.7 45.452 0.713 -44.395 0.713 -44.395 0.7 45.452
14800 0.701 45.355 0.711 -44.493 0.711 -44.493 0.701 45.355
14850 0.702 45.257 0.71 -44.591 0.71 -44.591 0.702 45.257
14900 0.703 45.16 0.709 -44.688 0.709 -44.688 0.703 45.16
14950 0.704 45.063 0.708 -44.785 0.708 -44.785 0.704 45.063
15000 0.706 44.967 0.707 -44.882 0.707 -44.882 0.706 44.967
15050 0.707 44.871 0.706 -44.979 0.706 -44.979 0.707 44.871
15100 0.708 44.775 0.704 -45.075 0.704 -45.075 0.708 44.775
15150 0.709 44.68 0.703 -45.17 0.703 -45.17 0.709 44.68
15200 0.71 44.584 0.702 -45.266 0.702 -45.266 0.71 44.584
15250 0.712 44.49 0.701 -45.361 0.701 -45.361 0.712 44.49
15300 0.713 44.395 0.7 -45.456 0.7 -45.456 0.713 44.395
15350 0.714 44.301 0.698 -45.55 0.698 -45.55 0.714 44.301
15400 0.715 44.207 0.697 -45.644 0.697 -45.644 0.715 44.207
15450 0.716 44.114 0.696 -45.738 0.696 -45.738 0.716 44.114
15500 0.717 44.02 0.695 -45.832 0.695 -45.832 0.717 44.02
15550 0.718 43.927 0.694 -45.925 0.694 -45.925 0.718 43.927
15600 0.72 43.835 0.693 -46.018 0.693 -46.018 0.72 43.835
15650 0.721 43.743 0.691 -46.11 0.691 -46.11 0.721 43.743
15700 0.722 43.651 0.69 -46.203 0.69 -46.203 0.722 43.651
15750 0.723 43.559 0.689 -46.295 0.689 -46.295 0.723 43.559
15800 0.724 43.468 0.688 -46.386 0.688 -46.386 0.724 43.468
15850 0.725 43.377 0.687 -46.478 0.687 -46.478 0.725 43.377
15900 0.726 43.286 0.686 -46.569 0.686 -46.569 0.726 43.286
15950 0.727 43.195 0.684 -46.659 0.684 -46.659 0.727 43.195
16000 0.728 43.105 0.683 -46.75 0.683 -46.75 0.728 43.105
16050 0.729 43.015 0.682 -46.84 0.682 -46.84 0.729 43.015
16100 0.731 42.926 0.681 -46.93 0.681 -46.93 0.731 42.926
16150 0.732 42.837 0.68 -47.019 0.68 -47.019 0.732 42.837
16200 0.733 42.748 0.679 -47.108 0.679 -47.108 0.733 42.748
16250 0.734 42.659 0.678 -47.197 0.678 -47.197 0.734 42.659
16300 0.735 42.571 0.677 -47.286 0.677 -47.286 0.735 42.571
16350 0.736 42.483 0.675 -47.374 0.675 -47.374 0.736 42.483
16400 0.737 42.395 0.674 -47.462 0.674 -47.462 0.737 42.395
16450 0.738 42.308 0.673 -47.55 0.673 -47.55 0.738 42.308
16500 0.739 42.221 0.672 -47.637 0.672 -47.637 0.739 42.221
16550 0.74 42.134 0.671 -47.724 0.671 -47.724 0.74 42.134
16600 0.741 42.047 0.67 -47.811 0.67 -47.811 0.741 42.047
16650 0.742 41.961 0.669 -47.897 0.669 -47.897 0.742 41.961
16700 0.743 41.875 0.668 -47.984 0.668 -47.984 0.743 41.875
16750 0.744 41.789 0.666 -48.07 0.666 -48.07 0.744 41.789
16800 0.745 41.704 0.665 -48.155 0.665 -48.155 0.745 41.704
16850 0.746 41.619 0.664 -48.241 0.664 -48.241 0.746 41.619
16900 0.747 41.534 0.663 -48.326 0.663 -48.326 0.747 41.534
