! AVX Thin Film Operation		Date: April 2012 
! Description: Accu-P® Series, Thin Film, SMD, RF Capacitor
! Part Number: 12101J4R1ABTTR					
!	100	MHz	-	20.05	GHz			
!	Serial	Measurements						
!								
#	MHZ	S	MA	R	50			
!	S11	S21	S12	S22				
!	dB	Phase	dB	Phase	dB	Phase	dB	Phase
50 0.992 -7.341 0.128 82.578 0.128 82.578 0.992 -7.341
100 0.968 -14.463 0.25 75.432 0.25 75.432 0.968 -14.463
150 0.932 -21.185 0.361 68.686 0.361 68.686 0.932 -21.185
200 0.887 -27.388 0.46 62.459 0.46 62.459 0.887 -27.388
250 0.837 -33.013 0.545 56.809 0.545 56.809 0.837 -33.013
300 0.785 -38.055 0.616 51.742 0.616 51.742 0.785 -38.055
350 0.734 -42.543 0.676 47.228 0.676 47.228 0.734 -42.543
400 0.685 -46.525 0.726 43.22 0.726 43.22 0.685 -46.525
450 0.638 -50.056 0.767 39.662 0.767 39.662 0.638 -50.056
500 0.595 -53.192 0.801 36.498 0.801 36.498 0.595 -53.192
550 0.555 -55.986 0.829 33.676 0.829 33.676 0.555 -55.986
600 0.517 -58.482 0.852 31.15 0.852 31.15 0.517 -58.482
650 0.483 -60.723 0.872 28.879 0.872 28.879 0.483 -60.723
700 0.451 -62.743 0.889 26.827 0.889 26.827 0.451 -62.743
750 0.422 -64.571 0.903 24.966 0.903 24.966 0.422 -64.571
800 0.395 -66.234 0.915 23.269 0.915 23.269 0.395 -66.234
850 0.37 -67.751 0.926 21.716 0.926 21.716 0.37 -67.751
900 0.347 -69.141 0.935 20.287 0.935 20.287 0.347 -69.141
950 0.325 -70.42 0.942 18.969 0.942 18.969 0.325 -70.42
1000 0.305 -71.601 0.949 17.746 0.949 17.746 0.305 -71.601
1050 0.286 -72.693 0.955 16.609 0.955 16.609 0.286 -72.693
1100 0.268 -73.708 0.96 15.547 0.96 15.547 0.268 -73.708
1150 0.251 -74.652 0.964 14.552 0.964 14.552 0.251 -74.652
1200 0.235 -75.533 0.968 13.617 0.968 13.617 0.235 -75.533
1250 0.22 -76.355 0.972 12.735 0.972 12.735 0.22 -76.355
1300 0.206 -77.125 0.975 11.902 0.975 11.902 0.206 -77.125
1350 0.193 -77.846 0.978 11.112 0.978 11.112 0.193 -77.846
1400 0.18 -78.521 0.98 10.362 0.98 10.362 0.18 -78.521
1450 0.168 -79.154 0.982 9.647 0.982 9.647 0.168 -79.154
1500 0.156 -79.745 0.984 8.965 0.984 8.965 0.156 -79.745
1550 0.145 -80.297 0.986 8.312 0.986 8.312 0.145 -80.297
1600 0.134 -80.81 0.988 7.686 0.988 7.686 0.134 -80.81
1650 0.123 -81.283 0.989 7.085 0.989 7.085 0.123 -81.283
1700 0.113 -81.717 0.99 6.507 0.99 6.507 0.113 -81.717
1750 0.104 -82.108 0.991 5.95 0.991 5.95 0.104 -82.108
1800 0.094 -82.453 0.992 5.413 0.992 5.413 0.094 -82.453
1850 0.085 -82.747 0.993 4.893 0.993 4.893 0.085 -82.747
1900 0.077 -82.98 0.994 4.39 0.994 4.39 0.077 -82.98
1950 0.068 -83.14 0.994 3.902 0.994 3.902 0.068 -83.14
2000 0.06 -83.207 0.995 3.429 0.995 3.429 0.06 -83.207
2050 0.052 -83.147 0.995 2.969 0.995 2.969 0.052 -83.147
2100 0.044 -82.908 0.996 2.521 0.996 2.521 0.044 -82.908
2150 0.037 -82.394 0.996 2.085 0.996 2.085 0.037 -82.394
2200 0.029 -81.418 0.996 1.66 0.996 1.66 0.029 -81.418
2250 0.022 -79.562 0.996 1.245 0.996 1.245 0.022 -79.562
2300 0.015 -75.669 0.996 0.84 0.996 0.84 0.015 -75.669
2350 8.506e-3 -65.134 0.996 0.444 0.996 0.444 8.506e-3 -65.134
2400 3.65e-3 -15.491 0.996 0.056 0.996 0.056 3.65e-3 -15.491
2450 6.654e-3 57.768 0.996 -0.324 0.996 -0.324 6.654e-3 57.768
2500 0.013 73.152 0.996 -0.696 0.996 -0.696 0.013 73.152
2550 0.019 78.182 0.996 -1.061 0.996 -1.061 0.019 78.182
2600 0.025 80.498 0.996 -1.419 0.996 -1.419 0.025 80.498
2650 0.031 81.736 0.996 -1.771 0.996 -1.771 0.031 81.736
2700 0.037 82.444 0.996 -2.116 0.996 -2.116 0.037 82.444
2750 0.043 82.853 0.996 -2.456 0.996 -2.456 0.043 82.853
2800 0.049 83.078 0.995 -2.791 0.995 -2.791 0.049 83.078
2850 0.055 83.184 0.995 -3.12 0.995 -3.12 0.055 83.184
2900 0.06 83.206 0.995 -3.444 0.995 -3.444 0.06 83.206
2950 0.066 83.17 0.994 -3.764 0.994 -3.764 0.066 83.17
3000 0.071 83.092 0.994 -4.079 0.994 -4.079 0.071 83.092
3050 0.077 82.981 0.994 -4.389 0.994 -4.389 0.077 82.981
3100 0.082 82.845 0.993 -4.696 0.993 -4.696 0.082 82.845
3150 0.087 82.691 0.993 -4.998 0.993 -4.998 0.087 82.691
3200 0.092 82.523 0.992 -5.297 0.992 -5.297 0.092 82.523
3250 0.098 82.342 0.992 -5.592 0.992 -5.592 0.098 82.342
3300 0.103 82.153 0.991 -5.884 0.991 -5.884 0.103 82.153
3350 0.108 81.956 0.991 -6.172 0.991 -6.172 0.108 81.956
3400 0.113 81.754 0.99 -6.457 0.99 -6.457 0.113 81.754
3450 0.117 81.546 0.99 -6.739 0.99 -6.739 0.117 81.546
3500 0.122 81.335 0.989 -7.018 0.989 -7.018 0.122 81.335
3550 0.127 81.121 0.988 -7.294 0.988 -7.294 0.127 81.121
3600 0.132 80.905 0.988 -7.567 0.988 -7.567 0.132 80.905
3650 0.136 80.687 0.987 -7.837 0.987 -7.837 0.136 80.687
3700 0.141 80.468 0.986 -8.105 0.986 -8.105 0.141 80.468
3750 0.146 80.247 0.986 -8.371 0.986 -8.371 0.146 80.247
3800 0.15 80.026 0.985 -8.634 0.985 -8.634 0.15 80.026
3850 0.155 79.805 0.984 -8.895 0.984 -8.895 0.155 79.805
3900 0.159 79.583 0.984 -9.153 0.984 -9.153 0.159 79.583
3950 0.164 79.361 0.983 -9.41 0.983 -9.41 0.164 79.361
4000 0.168 79.139 0.982 -9.664 0.982 -9.664 0.168 79.139
4050 0.172 78.917 0.982 -9.916 0.982 -9.916 0.172 78.917
4100 0.177 78.696 0.981 -10.166 0.981 -10.166 0.177 78.696
4150 0.181 78.475 0.98 -10.414 0.98 -10.414 0.181 78.475
4200 0.185 78.254 0.979 -10.66 0.979 -10.66 0.185 78.254
4250 0.189 78.034 0.978 -10.905 0.978 -10.905 0.189 78.034
4300 0.193 77.814 0.978 -11.147 0.978 -11.147 0.193 77.814
4350 0.197 77.595 0.977 -11.388 0.977 -11.388 0.197 77.595
4400 0.202 77.377 0.976 -11.627 0.976 -11.627 0.202 77.377
4450 0.206 77.159 0.975 -11.865 0.975 -11.865 0.206 77.159
4500 0.21 76.942 0.974 -12.101 0.974 -12.101 0.21 76.942
4550 0.214 76.726 0.973 -12.335 0.973 -12.335 0.214 76.726
4600 0.218 76.511 0.973 -12.568 0.973 -12.568 0.218 76.511
4650 0.222 76.296 0.972 -12.799 0.972 -12.799 0.222 76.296
4700 0.225 76.082 0.971 -13.029 0.971 -13.029 0.225 76.082
4750 0.229 75.869 0.97 -13.257 0.97 -13.257 0.229 75.869
4800 0.233 75.657 0.969 -13.484 0.969 -13.484 0.233 75.657
4850 0.237 75.445 0.968 -13.71 0.968 -13.71 0.237 75.445
4900 0.241 75.235 0.967 -13.934 0.967 -13.934 0.241 75.235
4950 0.245 75.025 0.966 -14.157 0.966 -14.157 0.245 75.025
5000 0.248 74.816 0.965 -14.378 0.965 -14.378 0.248 74.816
5050 0.252 74.607 0.964 -14.599 0.964 -14.599 0.252 74.607
5100 0.256 74.4 0.963 -14.818 0.963 -14.818 0.256 74.4
5150 0.259 74.194 0.962 -15.036 0.962 -15.036 0.259 74.194
5200 0.263 73.988 0.961 -15.252 0.961 -15.252 0.263 73.988
5250 0.267 73.783 0.96 -15.468 0.96 -15.468 0.267 73.783
5300 0.27 73.579 0.959 -15.682 0.959 -15.682 0.27 73.579
5350 0.274 73.375 0.958 -15.895 0.958 -15.895 0.274 73.375
5400 0.277 73.173 0.957 -16.107 0.957 -16.107 0.277 73.173
5450 0.281 72.971 0.956 -16.318 0.956 -16.318 0.281 72.971
5500 0.285 72.77 0.955 -16.528 0.955 -16.528 0.285 72.77
5550 0.288 72.57 0.954 -16.737 0.954 -16.737 0.288 72.57
5600 0.291 72.371 0.953 -16.945 0.953 -16.945 0.291 72.371
5650 0.295 72.173 0.952 -17.152 0.952 -17.152 0.295 72.173
5700 0.298 71.975 0.951 -17.357 0.951 -17.357 0.298 71.975
5750 0.302 71.778 0.95 -17.562 0.95 -17.562 0.302 71.778
5800 0.305 71.582 0.949 -17.766 0.949 -17.766 0.305 71.582
5850 0.309 71.386 0.948 -17.968 0.948 -17.968 0.309 71.386
5900 0.312 71.192 0.947 -18.17 0.947 -18.17 0.312 71.192
5950 0.315 70.998 0.946 -18.371 0.946 -18.371 0.315 70.998
6000 0.318 70.805 0.944 -18.571 0.944 -18.571 0.318 70.805
6050 0.322 70.613 0.943 -18.77 0.943 -18.77 0.322 70.613
6100 0.325 70.421 0.942 -18.968 0.942 -18.968 0.325 70.421
6150 0.328 70.23 0.941 -19.165 0.941 -19.165 0.328 70.23
6200 0.332 70.04 0.94 -19.361 0.94 -19.361 0.332 70.04
6250 0.335 69.851 0.939 -19.557 0.939 -19.557 0.335 69.851
6300 0.338 69.662 0.938 -19.751 0.938 -19.751 0.338 69.662
6350 0.341 69.474 0.937 -19.945 0.937 -19.945 0.341 69.474
6400 0.344 69.287 0.935 -20.137 0.935 -20.137 0.344 69.287
6450 0.347 69.101 0.934 -20.329 0.934 -20.329 0.347 69.101
6500 0.351 68.915 0.933 -20.52 0.933 -20.52 0.351 68.915
6550 0.354 68.73 0.932 -20.711 0.932 -20.711 0.354 68.73
6600 0.357 68.546 0.931 -20.9 0.931 -20.9 0.357 68.546
6650 0.36 68.362 0.93 -21.089 0.93 -21.089 0.36 68.362
6700 0.363 68.179 0.928 -21.276 0.928 -21.276 0.363 68.179
6750 0.366 67.997 0.927 -21.463 0.927 -21.463 0.366 67.997
6800 0.369 67.816 0.926 -21.649 0.926 -21.649 0.369 67.816
6850 0.372 67.635 0.925 -21.835 0.925 -21.835 0.372 67.635
6900 0.375 67.455 0.924 -22.02 0.924 -22.02 0.375 67.455
6950 0.378 67.275 0.922 -22.203 0.922 -22.203 0.378 67.275
7000 0.381 67.096 0.921 -22.386 0.921 -22.386 0.381 67.096
7050 0.384 66.918 0.92 -22.569 0.92 -22.569 0.384 66.918
7100 0.387 66.741 0.919 -22.75 0.919 -22.75 0.387 66.741
7150 0.39 66.564 0.918 -22.931 0.918 -22.931 0.39 66.564
7200 0.393 66.388 0.916 -23.111 0.916 -23.111 0.393 66.388
7250 0.395 66.213 0.915 -23.291 0.915 -23.291 0.395 66.213
7300 0.398 66.038 0.914 -23.469 0.914 -23.469 0.398 66.038
7350 0.401 65.864 0.913 -23.647 0.913 -23.647 0.401 65.864
7400 0.404 65.69 0.911 -23.825 0.911 -23.825 0.404 65.69
7450 0.407 65.517 0.91 -24.001 0.91 -24.001 0.407 65.517
7500 0.41 65.345 0.909 -24.177 0.909 -24.177 0.41 65.345
7550 0.412 65.173 0.908 -24.352 0.908 -24.352 0.412 65.173
7600 0.415 65.002 0.906 -24.526 0.906 -24.526 0.415 65.002
7650 0.418 64.832 0.905 -24.7 0.905 -24.7 0.418 64.832
7700 0.421 64.662 0.904 -24.873 0.904 -24.873 0.421 64.662
7750 0.423 64.493 0.903 -25.045 0.903 -25.045 0.423 64.493
7800 0.426 64.325 0.901 -25.217 0.901 -25.217 0.426 64.325
7850 0.429 64.157 0.9 -25.388 0.9 -25.388 0.429 64.157
7900 0.431 63.99 0.899 -25.558 0.899 -25.558 0.431 63.99
7950 0.434 63.823 0.897 -25.728 0.897 -25.728 0.434 63.823
8000 0.437 63.657 0.896 -25.897 0.896 -25.897 0.437 63.657
8050 0.439 63.492 0.895 -26.065 0.895 -26.065 0.439 63.492
8100 0.442 63.327 0.894 -26.233 0.894 -26.233 0.442 63.327
8150 0.445 63.163 0.892 -26.4 0.892 -26.4 0.445 63.163
8200 0.447 63 0.891 -26.566 0.891 -26.566 0.447 63
8250 0.45 62.837 0.89 -26.732 0.89 -26.732 0.45 62.837
8300 0.452 62.674 0.888 -26.897 0.888 -26.897 0.452 62.674
8350 0.455 62.513 0.887 -27.061 0.887 -27.061 0.455 62.513
8400 0.458 62.351 0.886 -27.225 0.886 -27.225 0.458 62.351
8450 0.46 62.191 0.885 -27.388 0.885 -27.388 0.46 62.191
8500 0.463 62.031 0.883 -27.551 0.883 -27.551 0.463 62.031
8550 0.465 61.871 0.882 -27.713 0.882 -27.713 0.465 61.871
8600 0.468 61.713 0.881 -27.874 0.881 -27.874 0.468 61.713
8650 0.47 61.554 0.879 -28.035 0.879 -28.035 0.47 61.554
8700 0.472 61.397 0.878 -28.195 0.878 -28.195 0.472 61.397
8750 0.475 61.24 0.877 -28.355 0.877 -28.355 0.475 61.24
8800 0.477 61.083 0.875 -28.513 0.875 -28.513 0.477 61.083
8850 0.48 60.927 0.874 -28.672 0.874 -28.672 0.48 60.927
8900 0.482 60.772 0.873 -28.829 0.873 -28.829 0.482 60.772
8950 0.485 60.617 0.871 -28.986 0.871 -28.986 0.485 60.617
9000 0.487 60.463 0.87 -29.143 0.87 -29.143 0.487 60.463
9050 0.489 60.309 0.869 -29.299 0.869 -29.299 0.489 60.309
9100 0.492 60.156 0.867 -29.454 0.867 -29.454 0.492 60.156
9150 0.494 60.003 0.866 -29.609 0.866 -29.609 0.494 60.003
9200 0.496 59.851 0.865 -29.763 0.865 -29.763 0.496 59.851
9250 0.499 59.7 0.863 -29.916 0.863 -29.916 0.499 59.7
9300 0.501 59.549 0.862 -30.069 0.862 -30.069 0.501 59.549
9350 0.503 59.399 0.861 -30.222 0.861 -30.222 0.503 59.399
9400 0.506 59.249 0.859 -30.374 0.859 -30.374 0.506 59.249
9450 0.508 59.099 0.858 -30.525 0.858 -30.525 0.508 59.099
9500 0.51 58.951 0.857 -30.676 0.857 -30.676 0.51 58.951
9550 0.512 58.803 0.855 -30.826 0.855 -30.826 0.512 58.803
9600 0.515 58.655 0.854 -30.975 0.854 -30.975 0.515 58.655
9650 0.517 58.508 0.853 -31.124 0.853 -31.124 0.517 58.508
9700 0.519 58.361 0.851 -31.273 0.851 -31.273 0.519 58.361
9750 0.521 58.215 0.85 -31.421 0.85 -31.421 0.521 58.215
9800 0.524 58.07 0.849 -31.568 0.849 -31.568 0.524 58.07
9850 0.526 57.925 0.847 -31.715 0.847 -31.715 0.526 57.925
9900 0.528 57.78 0.846 -31.861 0.846 -31.861 0.528 57.78
9950 0.53 57.636 0.845 -32.007 0.845 -32.007 0.53 57.636
10000 0.532 57.493 0.843 -32.152 0.843 -32.152 0.532 57.493
10050 0.534 57.35 0.842 -32.296 0.842 -32.296 0.534 57.35
10100 0.536 57.207 0.841 -32.44 0.841 -32.44 0.536 57.207
10150 0.539 57.066 0.839 -32.584 0.839 -32.584 0.539 57.066
10200 0.541 56.924 0.838 -32.727 0.838 -32.727 0.541 56.924
10250 0.543 56.783 0.837 -32.869 0.837 -32.869 0.543 56.783
10300 0.545 56.643 0.835 -33.011 0.835 -33.011 0.545 56.643
10350 0.547 56.503 0.834 -33.153 0.834 -33.153 0.547 56.503
10400 0.549 56.364 0.833 -33.294 0.833 -33.294 0.549 56.364
10450 0.551 56.225 0.831 -33.434 0.831 -33.434 0.551 56.225
10500 0.553 56.087 0.83 -33.574 0.83 -33.574 0.553 56.087
10550 0.555 55.949 0.829 -33.713 0.829 -33.713 0.555 55.949
10600 0.557 55.812 0.827 -33.852 0.827 -33.852 0.557 55.812
10650 0.559 55.675 0.826 -33.99 0.826 -33.99 0.559 55.675
10700 0.561 55.539 0.825 -34.128 0.825 -34.128 0.561 55.539
10750 0.563 55.403 0.823 -34.265 0.823 -34.265 0.563 55.403
10800 0.565 55.267 0.822 -34.402 0.822 -34.402 0.565 55.267
10850 0.567 55.133 0.82 -34.538 0.82 -34.538 0.567 55.133
10900 0.569 54.998 0.819 -34.674 0.819 -34.674 0.569 54.998
10950 0.571 54.864 0.818 -34.809 0.818 -34.809 0.571 54.864
11000 0.573 54.731 0.816 -34.944 0.816 -34.944 0.573 54.731
11050 0.575 54.598 0.815 -35.078 0.815 -35.078 0.575 54.598
11100 0.577 54.466 0.814 -35.212 0.814 -35.212 0.577 54.466
11150 0.579 54.334 0.812 -35.345 0.812 -35.345 0.579 54.334
11200 0.58 54.202 0.811 -35.478 0.811 -35.478 0.58 54.202
11250 0.582 54.071 0.81 -35.61 0.81 -35.61 0.582 54.071
11300 0.584 53.941 0.808 -35.742 0.808 -35.742 0.584 53.941
11350 0.586 53.811 0.807 -35.873 0.807 -35.873 0.586 53.811
11400 0.588 53.681 0.806 -36.004 0.806 -36.004 0.588 53.681
11450 0.59 53.552 0.804 -36.134 0.804 -36.134 0.59 53.552
11500 0.592 53.424 0.803 -36.264 0.803 -36.264 0.592 53.424
11550 0.593 53.296 0.802 -36.394 0.802 -36.394 0.593 53.296
11600 0.595 53.168 0.8 -36.523 0.8 -36.523 0.595 53.168
11650 0.597 53.041 0.799 -36.651 0.799 -36.651 0.597 53.041
11700 0.599 52.914 0.798 -36.779 0.798 -36.779 0.599 52.914
11750 0.601 52.788 0.796 -36.906 0.796 -36.906 0.601 52.788
11800 0.602 52.662 0.795 -37.033 0.795 -37.033 0.602 52.662
11850 0.604 52.536 0.794 -37.16 0.794 -37.16 0.604 52.536
11900 0.606 52.411 0.792 -37.286 0.792 -37.286 0.606 52.411
11950 0.608 52.287 0.791 -37.412 0.791 -37.412 0.608 52.287
12000 0.609 52.163 0.79 -37.537 0.79 -37.537 0.609 52.163
12050 0.611 52.039 0.788 -37.662 0.788 -37.662 0.611 52.039
12100 0.613 51.916 0.787 -37.786 0.787 -37.786 0.613 51.916
12150 0.614 51.793 0.786 -37.91 0.786 -37.91 0.614 51.793
12200 0.616 51.671 0.784 -38.033 0.784 -38.033 0.616 51.671
12250 0.618 51.549 0.783 -38.156 0.783 -38.156 0.618 51.549
12300 0.619 51.428 0.782 -38.278 0.782 -38.278 0.619 51.428
12350 0.621 51.307 0.781 -38.4 0.781 -38.4 0.621 51.307
12400 0.623 51.187 0.779 -38.522 0.779 -38.522 0.623 51.187
12450 0.624 51.067 0.778 -38.643 0.778 -38.643 0.624 51.067
12500 0.626 50.947 0.777 -38.763 0.777 -38.763 0.626 50.947
12550 0.628 50.828 0.775 -38.884 0.775 -38.884 0.628 50.828
12600 0.629 50.709 0.774 -39.003 0.774 -39.003 0.629 50.709
12650 0.631 50.591 0.773 -39.123 0.773 -39.123 0.631 50.591
12700 0.633 50.473 0.771 -39.242 0.771 -39.242 0.633 50.473
12750 0.634 50.355 0.77 -39.36 0.77 -39.36 0.634 50.355
12800 0.636 50.238 0.769 -39.478 0.769 -39.478 0.636 50.238
12850 0.637 50.122 0.767 -39.596 0.767 -39.596 0.637 50.122
12900 0.639 50.006 0.766 -39.713 0.766 -39.713 0.639 50.006
12950 0.641 49.89 0.765 -39.829 0.765 -39.829 0.641 49.89
13000 0.642 49.774 0.764 -39.946 0.764 -39.946 0.642 49.774
13050 0.644 49.659 0.762 -40.062 0.762 -40.062 0.644 49.659
13100 0.645 49.545 0.761 -40.177 0.761 -40.177 0.645 49.545
13150 0.647 49.431 0.76 -40.292 0.76 -40.292 0.647 49.431
13200 0.648 49.317 0.758 -40.407 0.758 -40.407 0.648 49.317
13250 0.65 49.204 0.757 -40.521 0.757 -40.521 0.65 49.204
13300 0.651 49.091 0.756 -40.635 0.756 -40.635 0.651 49.091
13350 0.653 48.978 0.754 -40.748 0.754 -40.748 0.653 48.978
13400 0.654 48.866 0.753 -40.861 0.753 -40.861 0.654 48.866
13450 0.656 48.755 0.752 -40.974 0.752 -40.974 0.656 48.755
13500 0.657 48.643 0.751 -41.086 0.751 -41.086 0.657 48.643
13550 0.659 48.533 0.749 -41.197 0.749 -41.197 0.659 48.533
13600 0.66 48.422 0.748 -41.309 0.748 -41.309 0.66 48.422
13650 0.662 48.312 0.747 -41.42 0.747 -41.42 0.662 48.312
13700 0.663 48.202 0.746 -41.53 0.746 -41.53 0.663 48.202
13750 0.664 48.093 0.744 -41.64 0.744 -41.64 0.664 48.093
13800 0.666 47.984 0.743 -41.75 0.743 -41.75 0.666 47.984
13850 0.667 47.876 0.742 -41.859 0.742 -41.859 0.667 47.876
13900 0.669 47.768 0.74 -41.968 0.74 -41.968 0.669 47.768
13950 0.67 47.66 0.739 -42.077 0.739 -42.077 0.67 47.66
14000 0.672 47.552 0.738 -42.185 0.738 -42.185 0.672 47.552
14050 0.673 47.445 0.737 -42.293 0.737 -42.293 0.673 47.445
14100 0.674 47.339 0.735 -42.4 0.735 -42.4 0.674 47.339
14150 0.676 47.233 0.734 -42.507 0.734 -42.507 0.676 47.233
14200 0.677 47.127 0.733 -42.613 0.733 -42.613 0.677 47.127
14250 0.678 47.022 0.732 -42.72 0.732 -42.72 0.678 47.022
14300 0.68 46.916 0.73 -42.825 0.73 -42.825 0.68 46.916
14350 0.681 46.812 0.729 -42.931 0.729 -42.931 0.681 46.812
14400 0.682 46.708 0.728 -43.036 0.728 -43.036 0.682 46.708
14450 0.684 46.604 0.727 -43.141 0.727 -43.141 0.684 46.604
14500 0.685 46.5 0.725 -43.245 0.725 -43.245 0.685 46.5
14550 0.686 46.397 0.724 -43.349 0.724 -43.349 0.686 46.397
14600 0.688 46.294 0.723 -43.452 0.723 -43.452 0.688 46.294
14650 0.689 46.192 0.722 -43.555 0.722 -43.555 0.689 46.192
14700 0.69 46.09 0.72 -43.658 0.72 -43.658 0.69 46.09
14750 0.692 45.988 0.719 -43.761 0.719 -43.761 0.692 45.988
14800 0.693 45.886 0.718 -43.863 0.718 -43.863 0.693 45.886
14850 0.694 45.785 0.717 -43.964 0.717 -43.964 0.694 45.785
14900 0.695 45.685 0.716 -44.066 0.716 -44.066 0.695 45.685
14950 0.697 45.585 0.714 -44.167 0.714 -44.167 0.697 45.585
15000 0.698 45.485 0.713 -44.267 0.713 -44.267 0.698 45.485
15050 0.699 45.385 0.712 -44.368 0.712 -44.368 0.699 45.385
15100 0.701 45.286 0.711 -44.467 0.711 -44.467 0.701 45.286
15150 0.702 45.187 0.709 -44.567 0.709 -44.567 0.702 45.187
15200 0.703 45.089 0.708 -44.666 0.708 -44.666 0.703 45.089
15250 0.704 44.99 0.707 -44.765 0.707 -44.765 0.704 44.99
15300 0.705 44.893 0.706 -44.863 0.706 -44.863 0.705 44.893
15350 0.707 44.795 0.705 -44.961 0.705 -44.961 0.707 44.795
15400 0.708 44.698 0.703 -45.059 0.703 -45.059 0.708 44.698
15450 0.709 44.601 0.702 -45.157 0.702 -45.157 0.709 44.601
15500 0.71 44.505 0.701 -45.254 0.701 -45.254 0.71 44.505
15550 0.711 44.409 0.7 -45.35 0.7 -45.35 0.711 44.409
15600 0.713 44.313 0.699 -45.447 0.699 -45.447 0.713 44.313
15650 0.714 44.218 0.697 -45.543 0.697 -45.543 0.714 44.218
15700 0.715 44.123 0.696 -45.638 0.696 -45.638 0.715 44.123
15750 0.716 44.028 0.695 -45.734 0.695 -45.734 0.716 44.028
15800 0.717 43.933 0.694 -45.829 0.694 -45.829 0.717 43.933
15850 0.718 43.839 0.693 -45.924 0.693 -45.924 0.718 43.839
15900 0.72 43.746 0.691 -46.018 0.691 -46.018 0.72 43.746
15950 0.721 43.652 0.69 -46.112 0.69 -46.112 0.721 43.652
16000 0.722 43.559 0.689 -46.205 0.689 -46.205 0.722 43.559
16050 0.723 43.466 0.688 -46.299 0.688 -46.299 0.723 43.466
16100 0.724 43.374 0.687 -46.392 0.687 -46.392 0.724 43.374
16150 0.725 43.282 0.686 -46.484 0.686 -46.484 0.725 43.282
16200 0.726 43.19 0.684 -46.577 0.684 -46.577 0.726 43.19
16250 0.727 43.099 0.683 -46.669 0.683 -46.669 0.727 43.099
16300 0.729 43.008 0.682 -46.761 0.682 -46.761 0.729 43.008
16350 0.73 42.917 0.681 -46.852 0.681 -46.852 0.73 42.917
16400 0.731 42.826 0.68 -46.943 0.68 -46.943 0.731 42.826
16450 0.732 42.736 0.679 -47.034 0.679 -47.034 0.732 42.736
16500 0.733 42.646 0.677 -47.124 0.677 -47.124 0.733 42.646
16550 0.734 42.557 0.676 -47.214 0.676 -47.214 0.734 42.557
16600 0.735 42.468 0.675 -47.304 0.675 -47.304 0.735 42.468
16650 0.736 42.379 0.674 -47.393 0.674 -47.393 0.736 42.379
16700 0.737 42.29 0.673 -47.483 0.673 -47.483 0.737 42.29
16750 0.738 42.202 0.672 -47.571 0.672 -47.571 0.738 42.202
16800 0.739 42.114 0.671 -47.66 0.671 -47.66 0.739 42.114
16850 0.74 42.026 0.669 -47.748 0.669 -47.748 0.74 42.026
16900 0.741 41.939 0.668 -47.836 0.668 -47.836 0.741 41.939
