! AVX Thin Film Operation		Date: April 2012 
! Description: Accu-P® Series, Thin Film, SMD, RF Capacitor
! Part Number: 12101J3R9ABTTR					
!	100	MHz	-	10.05	GHz			
!	Serial	Measurements						
!								
#	MHZ	S	MA	R	50			
!	S11	S21	S12	S22				
!	dB	Phase	dB	Phase	dB	Phase	dB	Phase
100	0.971	-13.791	0.238	76.19	0.238	76.19	0.971	-13.791
109.812	0.965	-15.09	0.26	74.889	0.26	74.889	0.965	-15.09
119.623	0.959	-16.374	0.282	73.602	0.282	73.602	0.959	-16.374
129.435	0.953	-17.644	0.303	72.331	0.303	72.331	0.953	-17.644
139.247	0.946	-18.897	0.324	71.075	0.324	71.075	0.946	-18.897
149.058	0.939	-20.134	0.344	69.837	0.344	69.837	0.939	-20.134
158.87	0.931	-21.353	0.364	68.616	0.364	68.616	0.931	-21.353
168.682	0.923	-22.553	0.384	67.413	0.384	67.413	0.923	-22.553
178.494	0.915	-23.736	0.403	66.229	0.403	66.229	0.915	-23.736
188.305	0.907	-24.899	0.421	65.064	0.421	65.064	0.907	-24.899
198.117	0.898	-26.043	0.439	63.918	0.439	63.918	0.898	-26.043
207.929	0.889	-27.167	0.457	62.792	0.457	62.792	0.889	-27.167
217.74	0.88	-28.271	0.474	61.686	0.474	61.686	0.88	-28.271
227.552	0.871	-29.355	0.49	60.6	0.49	60.6	0.871	-29.355
237.364	0.862	-30.419	0.506	59.534	0.506	59.534	0.862	-30.419
247.175	0.853	-31.462	0.522	58.489	0.522	58.489	0.853	-31.462
256.987	0.843	-32.485	0.537	57.464	0.537	57.464	0.843	-32.485
266.799	0.833	-33.488	0.552	56.459	0.552	56.459	0.833	-33.488
276.611	0.824	-34.471	0.566	55.474	0.566	55.474	0.824	-34.471
286.422	0.814	-35.434	0.58	54.509	0.58	54.509	0.814	-35.434
296.234	0.805	-36.376	0.593	53.564	0.593	53.564	0.805	-36.376
306.046	0.795	-37.3	0.606	52.639	0.606	52.639	0.795	-37.3
315.857	0.785	-38.203	0.618	51.733	0.618	51.733	0.785	-38.203
325.669	0.775	-39.088	0.631	50.847	0.631	50.847	0.775	-39.088
335.481	0.766	-39.953	0.642	49.979	0.642	49.979	0.766	-39.953
345.292	0.756	-40.8	0.653	49.13	0.653	49.13	0.756	-40.8
355.104	0.747	-41.629	0.664	48.299	0.664	48.299	0.747	-41.629
364.916	0.737	-42.44	0.675	47.487	0.675	47.487	0.737	-42.44
374.727	0.728	-43.233	0.685	46.692	0.685	46.692	0.728	-43.233
384.539	0.718	-44.009	0.695	45.914	0.695	45.914	0.718	-44.009
394.351	0.709	-44.767	0.704	45.153	0.704	45.153	0.709	-44.767
404.163	0.7	-45.51	0.713	44.409	0.713	44.409	0.7	-45.51
413.974	0.691	-46.235	0.722	43.681	0.722	43.681	0.691	-46.235
423.786	0.682	-46.946	0.731	42.968	0.731	42.968	0.682	-46.946
433.598	0.673	-47.64	0.739	42.272	0.739	42.272	0.673	-47.64
443.409	0.664	-48.32	0.747	41.59	0.747	41.59	0.664	-48.32
453.221	0.655	-48.984	0.755	40.923	0.755	40.923	0.655	-48.984
463.033	0.646	-49.635	0.762	40.271	0.762	40.271	0.646	-49.635
472.844	0.638	-50.271	0.769	39.632	0.769	39.632	0.638	-50.271
482.656	0.629	-50.893	0.776	39.008	0.776	39.008	0.629	-50.893
492.468	0.621	-51.502	0.783	38.396	0.783	38.396	0.621	-51.502
502.279	0.613	-52.099	0.789	37.798	0.789	37.798	0.613	-52.099
512.091	0.605	-52.682	0.795	37.212	0.795	37.212	0.605	-52.682
521.903	0.597	-53.253	0.801	36.639	0.801	36.639	0.597	-53.253
531.715	0.589	-53.812	0.807	36.078	0.807	36.078	0.589	-53.812
541.526	0.581	-54.36	0.813	35.528	0.813	35.528	0.581	-54.36
551.338	0.573	-54.896	0.818	34.99	0.818	34.99	0.573	-54.896
561.15	0.566	-55.421	0.823	34.463	0.823	34.463	0.566	-55.421
570.961	0.558	-55.935	0.828	33.946	0.828	33.946	0.558	-55.935
580.773	0.551	-56.438	0.833	33.44	0.833	33.44	0.551	-56.438
590.585	0.544	-56.932	0.838	32.945	0.838	32.945	0.544	-56.932
600.396	0.537	-57.415	0.843	32.459	0.843	32.459	0.537	-57.415
610.208	0.53	-57.889	0.847	31.983	0.847	31.983	0.53	-57.889
620.02	0.523	-58.353	0.851	31.516	0.851	31.516	0.523	-58.353
629.832	0.516	-58.809	0.855	31.058	0.855	31.058	0.516	-58.809
639.643	0.509	-59.255	0.859	30.61	0.859	30.61	0.509	-59.255
649.455	0.503	-59.693	0.863	30.169	0.863	30.169	0.503	-59.693
659.267	0.496	-60.122	0.867	29.738	0.867	29.738	0.496	-60.122
669.078	0.49	-60.543	0.871	29.314	0.871	29.314	0.49	-60.543
678.89	0.483	-60.956	0.874	28.899	0.874	28.899	0.483	-60.956
688.702	0.477	-61.361	0.878	28.491	0.878	28.491	0.477	-61.361
698.513	0.471	-61.759	0.881	28.091	0.881	28.091	0.471	-61.759
708.325	0.465	-62.149	0.884	27.698	0.884	27.698	0.465	-62.149
718.137	0.459	-62.533	0.887	27.312	0.887	27.312	0.459	-62.533
727.948	0.453	-62.909	0.89	26.933	0.89	26.933	0.453	-62.909
737.76	0.447	-63.278	0.893	26.561	0.893	26.561	0.447	-63.278
747.572	0.441	-63.641	0.896	26.196	0.896	26.196	0.441	-63.641
757.384	0.436	-63.998	0.899	25.837	0.899	25.837	0.436	-63.998
767.195	0.43	-64.348	0.901	25.484	0.901	25.484	0.43	-64.348
777.007	0.425	-64.692	0.904	25.137	0.904	25.137	0.425	-64.692
786.819	0.419	-65.03	0.907	24.796	0.907	24.796	0.419	-65.03
796.63	0.414	-65.362	0.909	24.461	0.909	24.461	0.414	-65.362
806.442	0.409	-65.689	0.911	24.132	0.911	24.132	0.409	-65.689
816.254	0.404	-66.01	0.914	23.808	0.914	23.808	0.404	-66.01
826.065	0.399	-66.326	0.916	23.489	0.916	23.489	0.399	-66.326
835.877	0.394	-66.637	0.918	23.176	0.918	23.176	0.394	-66.637
845.689	0.389	-66.942	0.92	22.868	0.92	22.868	0.389	-66.942
855.5	0.384	-67.243	0.922	22.564	0.922	22.564	0.384	-67.243
865.312	0.379	-67.539	0.924	22.265	0.924	22.265	0.379	-67.539
875.124	0.374	-67.83	0.926	21.972	0.926	21.972	0.374	-67.83
884.936	0.369	-68.116	0.928	21.682	0.928	21.682	0.369	-68.116
894.747	0.365	-68.398	0.93	21.397	0.93	21.397	0.365	-68.398
904.559	0.36	-68.676	0.932	21.117	0.932	21.117	0.36	-68.676
914.371	0.356	-68.949	0.933	20.84	0.933	20.84	0.356	-68.949
924.182	0.351	-69.218	0.935	20.568	0.935	20.568	0.351	-69.218
933.994	0.347	-69.483	0.937	20.3	0.937	20.3	0.347	-69.483
943.806	0.343	-69.745	0.938	20.036	0.938	20.036	0.343	-69.745
953.617	0.338	-70.002	0.94	19.775	0.94	19.775	0.338	-70.002
963.429	0.334	-70.255	0.941	19.519	0.941	19.519	0.334	-70.255
973.241	0.33	-70.505	0.943	19.266	0.943	19.266	0.33	-70.505
983.053	0.326	-70.751	0.944	19.016	0.944	19.016	0.326	-70.751
992.864	0.322	-70.994	0.945	18.771	0.945	18.771	0.322	-70.994
1002.676	0.318	-71.233	0.947	18.528	0.947	18.528	0.318	-71.233
1012.488	0.314	-71.469	0.948	18.289	0.948	18.289	0.314	-71.469
1022.299	0.31	-71.701	0.949	18.053	0.949	18.053	0.31	-71.701
1032.111	0.306	-71.93	0.951	17.82	0.951	17.82	0.306	-71.93
1041.923	0.302	-72.157	0.952	17.591	0.952	17.591	0.302	-72.157
1051.734	0.298	-72.38	0.953	17.364	0.953	17.364	0.298	-72.38
1061.546	0.295	-72.6	0.954	17.141	0.954	17.141	0.295	-72.6
1071.358	0.291	-72.817	0.955	16.92	0.955	16.92	0.291	-72.817
1081.169	0.287	-73.031	0.956	16.702	0.956	16.702	0.287	-73.031
1090.981	0.284	-73.242	0.958	16.487	0.958	16.487	0.284	-73.242
1100.793	0.28	-73.451	0.959	16.275	0.959	16.275	0.28	-73.451
1110.605	0.277	-73.657	0.96	16.065	0.96	16.065	0.277	-73.657
1120.416	0.273	-73.86	0.961	15.858	0.961	15.858	0.273	-73.86
1130.228	0.27	-74.061	0.962	15.653	0.962	15.653	0.27	-74.061
1140.04	0.266	-74.259	0.963	15.451	0.963	15.451	0.266	-74.259
1149.851	0.263	-74.455	0.963	15.251	0.963	15.251	0.263	-74.455
1159.663	0.26	-74.648	0.964	15.054	0.964	15.054	0.26	-74.648
1169.475	0.256	-74.839	0.965	14.859	0.965	14.859	0.256	-74.839
1179.286	0.253	-75.028	0.966	14.666	0.966	14.666	0.253	-75.028
1189.098	0.25	-75.214	0.967	14.476	0.967	14.476	0.25	-75.214
1198.91	0.247	-75.398	0.968	14.287	0.968	14.287	0.247	-75.398
1208.722	0.244	-75.58	0.969	14.101	0.969	14.101	0.244	-75.58
1218.533	0.241	-75.759	0.969	13.917	0.969	13.917	0.241	-75.759
1228.345	0.237	-75.937	0.97	13.735	0.97	13.735	0.237	-75.937
1238.157	0.234	-76.112	0.971	13.555	0.971	13.555	0.234	-76.112
1247.968	0.231	-76.286	0.972	13.377	0.972	13.377	0.231	-76.286
1257.78	0.228	-76.457	0.972	13.201	0.972	13.201	0.228	-76.457
1267.592	0.225	-76.627	0.973	13.027	0.973	13.027	0.225	-76.627
1277.403	0.222	-76.794	0.974	12.855	0.974	12.855	0.222	-76.794
1287.215	0.22	-76.96	0.974	12.684	0.974	12.684	0.22	-76.96
1297.027	0.217	-77.124	0.975	12.515	0.975	12.515	0.217	-77.124
1306.838	0.214	-77.286	0.975	12.348	0.975	12.348	0.214	-77.286
1316.65	0.211	-77.446	0.976	12.183	0.976	12.183	0.211	-77.446
1326.462	0.208	-77.604	0.977	12.019	0.977	12.019	0.208	-77.604
1336.274	0.205	-77.761	0.977	11.857	0.977	11.857	0.205	-77.761
1346.085	0.203	-77.916	0.978	11.697	0.978	11.697	0.203	-77.916
1355.897	0.2	-78.069	0.978	11.538	0.978	11.538	0.2	-78.069
1365.709	0.197	-78.221	0.979	11.381	0.979	11.381	0.197	-78.221
1375.52	0.195	-78.371	0.979	11.225	0.979	11.225	0.195	-78.371
1385.332	0.192	-78.519	0.98	11.071	0.98	11.071	0.192	-78.519
1395.144	0.189	-78.666	0.981	10.918	0.981	10.918	0.189	-78.666
1404.955	0.187	-78.812	0.981	10.767	0.981	10.767	0.187	-78.812
1414.767	0.184	-78.955	0.982	10.617	0.982	10.617	0.184	-78.955
1424.579	0.182	-79.098	0.982	10.469	0.982	10.469	0.182	-79.098
1434.39	0.179	-79.239	0.982	10.322	0.982	10.322	0.179	-79.239
1444.202	0.177	-79.378	0.983	10.176	0.983	10.176	0.177	-79.378
1454.014	0.174	-79.516	0.983	10.031	0.983	10.031	0.174	-79.516
1463.826	0.172	-79.652	0.984	9.888	0.984	9.888	0.172	-79.652
1473.637	0.169	-79.787	0.984	9.746	0.984	9.746	0.169	-79.787
1483.449	0.167	-79.921	0.985	9.605	0.985	9.605	0.167	-79.921
1493.261	0.164	-80.053	0.985	9.466	0.985	9.466	0.164	-80.053
1503.072	0.162	-80.184	0.985	9.328	0.985	9.328	0.162	-80.184
1512.884	0.16	-80.314	0.986	9.191	0.986	9.191	0.16	-80.314
1522.696	0.157	-80.442	0.986	9.055	0.986	9.055	0.157	-80.442
1532.507	0.155	-80.57	0.987	8.92	0.987	8.92	0.155	-80.57
1542.319	0.153	-80.695	0.987	8.786	0.987	8.786	0.153	-80.695
1552.131	0.15	-80.82	0.987	8.654	0.987	8.654	0.15	-80.82
1561.943	0.148	-80.943	0.988	8.522	0.988	8.522	0.148	-80.943
1571.754	0.146	-81.065	0.988	8.392	0.988	8.392	0.146	-81.065
1581.566	0.144	-81.186	0.988	8.263	0.988	8.263	0.144	-81.186
1591.378	0.141	-81.305	0.989	8.134	0.989	8.134	0.141	-81.305
1601.189	0.139	-81.423	0.989	8.007	0.989	8.007	0.139	-81.423
1611.001	0.137	-81.541	0.989	7.881	0.989	7.881	0.137	-81.541
1620.813	0.135	-81.656	0.989	7.755	0.989	7.755	0.135	-81.656
1630.624	0.133	-81.771	0.99	7.631	0.99	7.631	0.133	-81.771
1640.436	0.131	-81.885	0.99	7.507	0.99	7.507	0.131	-81.885
1650.248	0.129	-81.997	0.99	7.385	0.99	7.385	0.129	-81.997
1660.059	0.126	-82.108	0.991	7.263	0.991	7.263	0.126	-82.108
1669.871	0.124	-82.218	0.991	7.143	0.991	7.143	0.124	-82.218
1679.683	0.122	-82.327	0.991	7.023	0.991	7.023	0.122	-82.327
1689.495	0.12	-82.434	0.991	6.904	0.991	6.904	0.12	-82.434
1699.306	0.118	-82.541	0.992	6.786	0.992	6.786	0.118	-82.541
1709.118	0.116	-82.646	0.992	6.669	0.992	6.669	0.116	-82.646
1718.93	0.114	-82.75	0.992	6.552	0.992	6.552	0.114	-82.75
1728.741	0.112	-82.853	0.992	6.437	0.992	6.437	0.112	-82.853
1738.553	0.11	-82.955	0.993	6.322	0.993	6.322	0.11	-82.955
1748.365	0.108	-83.055	0.993	6.208	0.993	6.208	0.108	-83.055
1758.176	0.106	-83.155	0.993	6.095	0.993	6.095	0.106	-83.155
1767.988	0.104	-83.253	0.993	5.982	0.993	5.982	0.104	-83.253
1777.8	0.102	-83.35	0.993	5.871	0.993	5.871	0.102	-83.35
1787.611	0.1	-83.446	0.994	5.76	0.994	5.76	0.1	-83.446
1797.423	0.098	-83.541	0.994	5.65	0.994	5.65	0.098	-83.541
1807.235	0.097	-83.634	0.994	5.54	0.994	5.54	0.097	-83.634
1817.047	0.095	-83.726	0.994	5.431	0.994	5.431	0.095	-83.726
1826.858	0.093	-83.817	0.994	5.323	0.994	5.323	0.093	-83.817
1836.67	0.091	-83.906	0.994	5.216	0.994	5.216	0.091	-83.906
1846.482	0.089	-83.995	0.995	5.109	0.995	5.109	0.089	-83.995
1856.293	0.087	-84.081	0.995	5.003	0.995	5.003	0.087	-84.081
1866.105	0.085	-84.167	0.995	4.898	0.995	4.898	0.085	-84.167
1875.917	0.084	-84.251	0.995	4.793	0.995	4.793	0.084	-84.251
1885.728	0.082	-84.334	0.995	4.689	0.995	4.689	0.082	-84.334
1895.54	0.08	-84.415	0.995	4.586	0.995	4.586	0.08	-84.415
1905.352	0.078	-84.495	0.996	4.483	0.996	4.483	0.078	-84.495
1915.164	0.076	-84.573	0.996	4.381	0.996	4.381	0.076	-84.573
1924.975	0.075	-84.65	0.996	4.28	0.996	4.28	0.075	-84.65
1934.787	0.073	-84.725	0.996	4.179	0.996	4.179	0.073	-84.725
1944.599	0.071	-84.798	0.996	4.078	0.996	4.078	0.071	-84.798
1954.41	0.069	-84.87	0.996	3.979	0.996	3.979	0.069	-84.87
1964.222	0.068	-84.939	0.996	3.879	0.996	3.879	0.068	-84.939
1974.034	0.066	-85.007	0.996	3.781	0.996	3.781	0.066	-85.007
1983.845	0.064	-85.073	0.997	3.683	0.997	3.683	0.064	-85.073
1993.657	0.063	-85.136	0.997	3.585	0.997	3.585	0.063	-85.136
2003.469	0.061	-85.198	0.997	3.488	0.997	3.488	0.061	-85.198
2013.28	0.059	-85.257	0.997	3.392	0.997	3.392	0.059	-85.257
2023.092	0.058	-85.313	0.997	3.296	0.997	3.296	0.058	-85.313
2032.904	0.056	-85.367	0.997	3.201	0.997	3.201	0.056	-85.367
2042.716	0.054	-85.418	0.997	3.106	0.997	3.106	0.054	-85.418
2052.527	0.053	-85.466	0.997	3.011	0.997	3.011	0.053	-85.466
2062.339	0.051	-85.511	0.997	2.918	0.997	2.918	0.051	-85.511
2072.151	0.049	-85.552	0.997	2.824	0.997	2.824	0.049	-85.552
2081.962	0.048	-85.59	0.997	2.731	0.997	2.731	0.048	-85.59
2091.774	0.046	-85.623	0.998	2.639	0.998	2.639	0.046	-85.623
2101.586	0.044	-85.652	0.998	2.547	0.998	2.547	0.044	-85.652
2111.397	0.043	-85.677	0.998	2.456	0.998	2.456	0.043	-85.677
2121.209	0.041	-85.696	0.998	2.365	0.998	2.365	0.041	-85.696
2131.021	0.04	-85.709	0.998	2.274	0.998	2.274	0.04	-85.709
2140.833	0.038	-85.716	0.998	2.184	0.998	2.184	0.038	-85.716
2150.644	0.037	-85.716	0.998	2.095	0.998	2.095	0.037	-85.716
2160.456	0.035	-85.708	0.998	2.005	0.998	2.005	0.035	-85.708
2170.268	0.033	-85.691	0.998	1.917	0.998	1.917	0.033	-85.691
2180.079	0.032	-85.663	0.998	1.828	0.998	1.828	0.032	-85.663
2189.891	0.03	-85.625	0.998	1.741	0.998	1.741	0.03	-85.625
2199.703	0.029	-85.573	0.998	1.653	0.998	1.653	0.029	-85.573
2209.514	0.027	-85.506	0.998	1.566	0.998	1.566	0.027	-85.506
2219.326	0.026	-85.421	0.998	1.479	0.998	1.479	0.026	-85.421
2229.138	0.024	-85.316	0.998	1.393	0.998	1.393	0.024	-85.316
2238.949	0.023	-85.186	0.998	1.307	0.998	1.307	0.023	-85.186
2248.761	0.021	-85.027	0.998	1.222	0.998	1.222	0.021	-85.027
2258.573	0.02	-84.832	0.998	1.137	0.998	1.137	0.02	-84.832
2268.385	0.018	-84.594	0.998	1.052	0.998	1.052	0.018	-84.594
2278.196	0.017	-84.301	0.998	0.968	0.998	0.968	0.017	-84.301
2288.008	0.015	-83.938	0.998	0.884	0.998	0.884	0.015	-83.938
2297.82	0.014	-83.484	0.999	0.801	0.999	0.801	0.014	-83.484
2307.631	0.013	-82.91	0.999	0.717	0.999	0.717	0.013	-82.91
2317.443	0.011	-82.17	0.999	0.635	0.999	0.635	0.011	-82.17
2327.255	9.74E-03	-81.192	0.999	0.552	0.999	0.552	9.74E-03	-81.192
2337.066	8.32E-03	-79.857	0.999	0.47	0.999	0.47	8.32E-03	-79.857
2346.878	6.92E-03	-77.954	0.999	0.388	0.999	0.388	6.92E-03	-77.954
2356.69	5.54E-03	-75.063	0.999	0.307	0.999	0.307	5.54E-03	-75.063
2366.501	4.18E-03	-70.245	0.999	0.226	0.999	0.226	4.18E-03	-70.245
2376.313	2.89E-03	-60.962	0.999	0.145	0.999	0.145	2.89E-03	-60.962
2386.125	1.80E-03	-38.904	0.999	0.065	0.999	0.065	1.80E-03	-38.904
2395.937	1.42E-03	10.751	0.999	-0.015	0.999	-0.015	1.42E-03	10.751
2405.748	2.17E-03	49.747	0.999	-0.095	0.999	-0.095	2.17E-03	49.747
2415.56	3.35E-03	65.144	0.999	-0.174	0.999	-0.174	3.35E-03	65.144
2425.372	4.64E-03	72.202	0.999	-0.253	0.999	-0.253	4.64E-03	72.202
2435.183	5.96E-03	76.107	0.999	-0.332	0.999	-0.332	5.96E-03	76.107
2444.995	7.30E-03	78.549	0.999	-0.411	0.999	-0.411	7.30E-03	78.549
2454.807	8.64E-03	80.202	0.999	-0.489	0.999	-0.489	8.64E-03	80.202
2464.618	9.99E-03	81.385	0.999	-0.567	0.999	-0.567	9.99E-03	81.385
2474.43	0.011	82.266	0.999	-0.644	0.999	-0.644	0.011	82.266
2484.242	0.013	82.941	0.999	-0.721	0.999	-0.721	0.013	82.941
2494.054	0.014	83.471	0.999	-0.798	0.999	-0.798	0.014	83.471
2503.865	0.015	83.893	0.998	-0.875	0.998	-0.875	0.015	83.893
2513.677	0.017	84.235	0.998	-0.951	0.998	-0.951	0.017	84.235
2523.489	0.018	84.514	0.998	-1.027	0.998	-1.027	0.018	84.514
2533.3	0.019	84.743	0.998	-1.103	0.998	-1.103	0.019	84.743
2543.112	0.021	84.933	0.998	-1.179	0.998	-1.179	0.021	84.933
2552.924	0.022	85.09	0.998	-1.254	0.998	-1.254	0.022	85.09
2562.735	0.023	85.221	0.998	-1.329	0.998	-1.329	0.023	85.221
2572.547	0.025	85.33	0.998	-1.403	0.998	-1.403	0.025	85.33
2582.359	0.026	85.42	0.998	-1.478	0.998	-1.478	0.026	85.42
2592.17	0.027	85.493	0.998	-1.552	0.998	-1.552	0.027	85.493
2601.982	0.028	85.554	0.998	-1.626	0.998	-1.626	0.028	85.554
2611.794	0.03	85.602	0.998	-1.7	0.998	-1.7	0.03	85.602
2621.606	0.031	85.64	0.998	-1.773	0.998	-1.773	0.031	85.64
2631.417	0.032	85.67	0.998	-1.846	0.998	-1.846	0.032	85.67
2641.229	0.034	85.691	0.998	-1.919	0.998	-1.919	0.034	85.691
2651.041	0.035	85.706	0.998	-1.991	0.998	-1.991	0.035	85.706
2660.852	0.036	85.714	0.998	-2.064	0.998	-2.064	0.036	85.714
2670.664	0.037	85.717	0.998	-2.136	0.998	-2.136	0.037	85.717
2680.476	0.039	85.715	0.998	-2.208	0.998	-2.208	0.039	85.715
2690.287	0.04	85.709	0.998	-2.279	0.998	-2.279	0.04	85.709
2700.099	0.041	85.698	0.998	-2.351	0.998	-2.351	0.041	85.698
2709.911	0.042	85.684	0.998	-2.422	0.998	-2.422	0.042	85.684
2719.722	0.044	85.667	0.998	-2.493	0.998	-2.493	0.044	85.667
2729.534	0.045	85.647	0.998	-2.564	0.998	-2.564	0.045	85.647
2739.346	0.046	85.625	0.998	-2.634	0.998	-2.634	0.046	85.625
2749.158	0.047	85.6	0.997	-2.704	0.997	-2.704	0.047	85.6
2758.969	0.048	85.573	0.997	-2.774	0.997	-2.774	0.048	85.573
2768.781	0.05	85.544	0.997	-2.844	0.997	-2.844	0.05	85.544
2778.593	0.051	85.513	0.997	-2.914	0.997	-2.914	0.051	85.513
2788.404	0.052	85.48	0.997	-2.983	0.997	-2.983	0.052	85.48
2798.216	0.053	85.446	0.997	-3.052	0.997	-3.052	0.053	85.446
2808.028	0.054	85.41	0.997	-3.121	0.997	-3.121	0.054	85.41
2817.839	0.056	85.373	0.997	-3.19	0.997	-3.19	0.056	85.373
2827.651	0.057	85.335	0.997	-3.258	0.997	-3.258	0.057	85.335
2837.463	0.058	85.295	0.997	-3.327	0.997	-3.327	0.058	85.295
2847.275	0.059	85.255	0.997	-3.395	0.997	-3.395	0.059	85.255
2857.086	0.06	85.213	0.997	-3.463	0.997	-3.463	0.06	85.213
2866.898	0.062	85.171	0.997	-3.53	0.997	-3.53	0.062	85.171
2876.71	0.063	85.128	0.997	-3.598	0.997	-3.598	0.063	85.128
2886.521	0.064	85.084	0.997	-3.665	0.997	-3.665	0.064	85.084
2896.333	0.065	85.04	0.996	-3.732	0.996	-3.732	0.065	85.04
2906.145	0.066	84.995	0.996	-3.799	0.996	-3.799	0.066	84.995
2915.956	0.067	84.949	0.996	-3.866	0.996	-3.866	0.067	84.949
2925.768	0.069	84.902	0.996	-3.932	0.996	-3.932	0.069	84.902
2935.58	0.07	84.855	0.996	-3.999	0.996	-3.999	0.07	84.855
2945.391	0.071	84.808	0.996	-4.065	0.996	-4.065	0.071	84.808
2955.203	0.072	84.76	0.996	-4.131	0.996	-4.131	0.072	84.76
2965.015	0.073	84.712	0.996	-4.196	0.996	-4.196	0.073	84.712
2974.827	0.074	84.663	0.996	-4.262	0.996	-4.262	0.074	84.663
2984.638	0.075	84.614	0.996	-4.327	0.996	-4.327	0.075	84.614
2994.45	0.077	84.564	0.996	-4.393	0.996	-4.393	0.077	84.564
3004.262	0.078	84.515	0.996	-4.458	0.996	-4.458	0.078	84.515
3014.073	0.079	84.465	0.995	-4.523	0.995	-4.523	0.079	84.465
3023.885	0.08	84.414	0.995	-4.587	0.995	-4.587	0.08	84.414
3033.697	0.081	84.364	0.995	-4.652	0.995	-4.652	0.081	84.364
3043.508	0.082	84.313	0.995	-4.716	0.995	-4.716	0.082	84.313
3053.32	0.083	84.262	0.995	-4.78	0.995	-4.78	0.083	84.262
3063.132	0.084	84.21	0.995	-4.844	0.995	-4.844	0.084	84.21
3072.944	0.086	84.159	0.995	-4.908	0.995	-4.908	0.086	84.159
3082.755	0.087	84.107	0.995	-4.972	0.995	-4.972	0.087	84.107
3092.567	0.088	84.055	0.995	-5.035	0.995	-5.035	0.088	84.055
3102.379	0.089	84.003	0.995	-5.099	0.995	-5.099	0.089	84.003
3112.19	0.09	83.951	0.995	-5.162	0.995	-5.162	0.09	83.951
3122.002	0.091	83.899	0.994	-5.225	0.994	-5.225	0.091	83.899
3131.814	0.092	83.847	0.994	-5.288	0.994	-5.288	0.092	83.847
3141.625	0.093	83.794	0.994	-5.351	0.994	-5.351	0.093	83.794
3151.437	0.094	83.741	0.994	-5.413	0.994	-5.413	0.094	83.741
3161.249	0.095	83.689	0.994	-5.475	0.994	-5.475	0.095	83.689
3171.06	0.097	83.636	0.994	-5.538	0.994	-5.538	0.097	83.636
3180.872	0.098	83.583	0.994	-5.6	0.994	-5.6	0.098	83.583
3190.684	0.099	83.53	0.994	-5.662	0.994	-5.662	0.099	83.53
3200.496	0.1	83.477	0.994	-5.724	0.994	-5.724	0.1	83.477
3210.307	0.101	83.424	0.994	-5.785	0.994	-5.785	0.101	83.424
3220.119	0.102	83.371	0.993	-5.847	0.993	-5.847	0.102	83.371
3229.931	0.103	83.318	0.993	-5.908	0.993	-5.908	0.103	83.318
3239.742	0.104	83.265	0.993	-5.969	0.993	-5.969	0.104	83.265
3249.554	0.105	83.211	0.993	-6.03	0.993	-6.03	0.105	83.211
3259.366	0.106	83.158	0.993	-6.091	0.993	-6.091	0.106	83.158
