! AVX Thin Film Operation		Date: April 2012 
! Description: Accu-P® Series, Thin Film, SMD, RF Capacitor
! Part Number: 12101J4R6ABTTR					
!	50	MHz	-	20.05	GHz			
!	Serial	Measurements						
!								
#	MHZ	S	MA	R	50			
!	S11	S21	S12	S22				
!	dB	Phase	dB	Phase	dB	Phase	dB	Phase
50 0.99 -8.225 0.143 81.693 0.143 81.693 0.99 -8.225
100 0.96 -16.142 0.278 73.752 0.278 73.752 0.96 -16.142
150 0.916 -23.509 0.399 66.36 0.399 66.36 0.916 -23.509
200 0.863 -30.184 0.503 59.661 0.503 59.661 0.863 -30.184
250 0.806 -36.119 0.589 53.7 0.589 53.7 0.806 -36.119
300 0.748 -41.336 0.66 48.457 0.66 48.457 0.748 -41.336
350 0.693 -45.897 0.718 43.87 0.718 43.87 0.693 -45.897
400 0.641 -49.878 0.765 39.862 0.765 39.862 0.641 -49.878
450 0.593 -53.36 0.802 36.353 0.802 36.353 0.593 -53.36
500 0.549 -56.415 0.833 33.269 0.833 33.269 0.549 -56.415
550 0.508 -59.108 0.858 30.546 0.858 30.546 0.508 -59.108
600 0.471 -61.496 0.879 28.128 0.879 28.128 0.471 -61.496
650 0.438 -63.623 0.896 25.969 0.896 25.969 0.438 -63.623
700 0.407 -65.529 0.91 24.029 0.91 24.029 0.407 -65.529
750 0.379 -67.245 0.922 22.278 0.922 22.278 0.379 -67.245
800 0.353 -68.799 0.932 20.687 0.932 20.687 0.353 -68.799
850 0.329 -70.213 0.941 19.236 0.941 19.236 0.329 -70.213
900 0.307 -71.504 0.948 17.904 0.948 17.904 0.307 -71.504
950 0.287 -72.688 0.955 16.676 0.955 16.676 0.287 -72.688
1000 0.268 -73.778 0.96 15.54 0.96 15.54 0.268 -73.778
1050 0.25 -74.784 0.965 14.484 0.965 14.484 0.25 -74.784
1100 0.233 -75.717 0.969 13.499 0.969 13.499 0.233 -75.717
1150 0.218 -76.582 0.973 12.576 0.973 12.576 0.218 -76.582
1200 0.203 -77.387 0.976 11.71 0.976 11.71 0.203 -77.387
1250 0.189 -78.137 0.979 10.892 0.979 10.892 0.189 -78.137
1300 0.176 -78.837 0.981 10.12 0.981 10.12 0.176 -78.837
1350 0.163 -79.488 0.983 9.387 0.983 9.387 0.163 -79.488
1400 0.151 -80.095 0.985 8.691 0.985 8.691 0.151 -80.095
1450 0.14 -80.659 0.987 8.027 0.987 8.027 0.14 -80.659
1500 0.129 -81.181 0.988 7.394 0.988 7.394 0.129 -81.181
1550 0.118 -81.661 0.99 6.787 0.99 6.787 0.118 -81.661
1600 0.108 -82.098 0.991 6.205 0.991 6.205 0.108 -82.098
1650 0.098 -82.49 0.992 5.645 0.992 5.645 0.098 -82.49
1700 0.089 -82.833 0.993 5.107 0.993 5.107 0.089 -82.833
1750 0.08 -83.12 0.994 4.587 0.994 4.587 0.08 -83.12
1800 0.071 -83.341 0.994 4.085 0.994 4.085 0.071 -83.341
1850 0.063 -83.48 0.995 3.599 0.995 3.599 0.063 -83.48
1900 0.055 -83.513 0.995 3.128 0.995 3.128 0.055 -83.513
1950 0.047 -83.397 0.996 2.672 0.996 2.672 0.047 -83.397
2000 0.039 -83.062 0.996 2.228 0.996 2.228 0.039 -83.062
2050 0.032 -82.369 0.996 1.796 0.996 1.796 0.032 -82.369
2100 0.024 -81.025 0.997 1.376 0.997 1.376 0.024 -81.025
2150 0.017 -78.274 0.997 0.966 0.997 0.966 0.017 -78.274
2200 0.01 -71.458 0.997 0.566 0.997 0.566 0.01 -71.458
2250 4.423e-3 -43.422 0.997 0.175 0.997 0.175 4.423e-3 -43.422
2300 4.834e-3 48.299 0.997 -0.207 0.997 -0.207 4.834e-3 48.299
2350 0.011 71.904 0.997 -0.582 0.997 -0.582 0.011 71.904
2400 0.017 78.095 0.997 -0.948 0.997 -0.948 0.017 78.095
2450 0.023 80.7 0.997 -1.307 0.997 -1.307 0.023 80.7
2500 0.029 82.029 0.996 -1.659 0.996 -1.659 0.029 82.029
2550 0.035 82.765 0.996 -2.005 0.996 -2.005 0.035 82.765
2600 0.041 83.179 0.996 -2.345 0.996 -2.345 0.041 83.179
2650 0.047 83.401 0.996 -2.679 0.996 -2.679 0.047 83.401
2700 0.053 83.499 0.995 -3.008 0.995 -3.008 0.053 83.499
2750 0.058 83.514 0.995 -3.331 0.995 -3.331 0.058 83.514
2800 0.064 83.47 0.995 -3.649 0.995 -3.649 0.064 83.47
2850 0.069 83.384 0.994 -3.963 0.994 -3.963 0.069 83.384
2900 0.075 83.266 0.994 -4.272 0.994 -4.272 0.075 83.266
2950 0.08 83.124 0.994 -4.577 0.994 -4.577 0.08 83.124
3000 0.085 82.965 0.993 -4.878 0.993 -4.878 0.085 82.965
3050 0.09 82.791 0.993 -5.175 0.993 -5.175 0.09 82.791
3100 0.095 82.607 0.992 -5.468 0.992 -5.468 0.095 82.607
3150 0.1 82.414 0.992 -5.758 0.992 -5.758 0.1 82.414
3200 0.105 82.214 0.991 -6.044 0.991 -6.044 0.105 82.214
3250 0.11 82.008 0.991 -6.327 0.991 -6.327 0.11 82.008
3300 0.115 81.799 0.99 -6.607 0.99 -6.607 0.115 81.799
3350 0.12 81.586 0.99 -6.884 0.99 -6.884 0.12 81.586
3400 0.125 81.37 0.989 -7.158 0.989 -7.158 0.125 81.37
3450 0.129 81.153 0.988 -7.429 0.988 -7.429 0.129 81.153
3500 0.134 80.933 0.988 -7.697 0.988 -7.697 0.134 80.933
3550 0.139 80.713 0.987 -7.963 0.987 -7.963 0.139 80.713
3600 0.143 80.492 0.987 -8.226 0.987 -8.226 0.143 80.492
3650 0.148 80.27 0.986 -8.487 0.986 -8.487 0.148 80.27
3700 0.152 80.048 0.985 -8.745 0.985 -8.745 0.152 80.048
3750 0.156 79.826 0.984 -9.001 0.984 -9.001 0.156 79.826
3800 0.161 79.604 0.984 -9.255 0.984 -9.255 0.161 79.604
3850 0.165 79.382 0.983 -9.507 0.983 -9.507 0.165 79.382
3900 0.17 79.161 0.982 -9.757 0.982 -9.757 0.17 79.161
3950 0.174 78.939 0.982 -10.005 0.982 -10.005 0.174 78.939
4000 0.178 78.719 0.981 -10.251 0.981 -10.251 0.178 78.719
4050 0.182 78.498 0.98 -10.495 0.98 -10.495 0.182 78.498
4100 0.186 78.279 0.979 -10.737 0.979 -10.737 0.186 78.279
4150 0.19 78.06 0.979 -10.978 0.979 -10.978 0.19 78.06
4200 0.195 77.841 0.978 -11.216 0.978 -11.216 0.195 77.841
4250 0.199 77.623 0.977 -11.454 0.977 -11.454 0.199 77.623
4300 0.203 77.406 0.976 -11.689 0.976 -11.689 0.203 77.406
4350 0.207 77.19 0.975 -11.923 0.975 -11.923 0.207 77.19
4400 0.211 76.975 0.974 -12.155 0.974 -12.155 0.211 76.975
4450 0.215 76.76 0.974 -12.386 0.974 -12.386 0.215 76.76
4500 0.218 76.546 0.973 -12.615 0.973 -12.615 0.218 76.546
4550 0.222 76.333 0.972 -12.843 0.972 -12.843 0.222 76.333
4600 0.226 76.121 0.971 -13.069 0.971 -13.069 0.226 76.121
4650 0.23 75.909 0.97 -13.295 0.97 -13.295 0.23 75.909
4700 0.234 75.699 0.969 -13.518 0.969 -13.518 0.234 75.699
4750 0.238 75.489 0.968 -13.741 0.968 -13.741 0.238 75.489
4800 0.241 75.28 0.967 -13.962 0.967 -13.962 0.241 75.28
4850 0.245 75.072 0.966 -14.182 0.966 -14.182 0.245 75.072
4900 0.249 74.864 0.965 -14.4 0.965 -14.4 0.249 74.864
4950 0.252 74.658 0.964 -14.618 0.964 -14.618 0.252 74.658
5000 0.256 74.452 0.963 -14.834 0.963 -14.834 0.256 74.452
5050 0.26 74.247 0.963 -15.049 0.963 -15.049 0.26 74.247
5100 0.263 74.043 0.962 -15.263 0.962 -15.263 0.263 74.043
5150 0.267 73.84 0.961 -15.476 0.961 -15.476 0.267 73.84
5200 0.27 73.637 0.96 -15.687 0.96 -15.687 0.27 73.637
5250 0.274 73.435 0.959 -15.898 0.959 -15.898 0.274 73.435
5300 0.277 73.235 0.958 -16.107 0.958 -16.107 0.277 73.235
5350 0.281 73.034 0.957 -16.316 0.957 -16.316 0.281 73.034
5400 0.284 72.835 0.956 -16.523 0.956 -16.523 0.284 72.835
5450 0.288 72.637 0.954 -16.729 0.954 -16.729 0.288 72.637
5500 0.291 72.439 0.953 -16.935 0.953 -16.935 0.291 72.439
5550 0.295 72.242 0.952 -17.139 0.952 -17.139 0.295 72.242
5600 0.298 72.046 0.951 -17.343 0.951 -17.343 0.298 72.046
5650 0.301 71.85 0.95 -17.545 0.95 -17.545 0.301 71.85
5700 0.305 71.656 0.949 -17.746 0.949 -17.746 0.305 71.656
5750 0.308 71.462 0.948 -17.947 0.948 -17.947 0.308 71.462
5800 0.311 71.268 0.947 -18.147 0.947 -18.147 0.311 71.268
5850 0.315 71.076 0.946 -18.345 0.946 -18.345 0.315 71.076
5900 0.318 70.884 0.945 -18.543 0.945 -18.543 0.318 70.884
5950 0.321 70.693 0.944 -18.74 0.944 -18.74 0.321 70.693
6000 0.325 70.503 0.943 -18.936 0.943 -18.936 0.325 70.503
6050 0.328 70.314 0.942 -19.131 0.942 -19.131 0.328 70.314
6100 0.331 70.125 0.94 -19.326 0.94 -19.326 0.331 70.125
6150 0.334 69.937 0.939 -19.519 0.939 -19.519 0.334 69.937
6200 0.337 69.75 0.938 -19.712 0.938 -19.712 0.337 69.75
6250 0.34 69.563 0.937 -19.904 0.937 -19.904 0.34 69.563
6300 0.344 69.377 0.936 -20.095 0.936 -20.095 0.344 69.377
6350 0.347 69.192 0.935 -20.285 0.935 -20.285 0.347 69.192
6400 0.35 69.007 0.934 -20.474 0.934 -20.474 0.35 69.007
6450 0.353 68.823 0.933 -20.663 0.933 -20.663 0.353 68.823
6500 0.356 68.64 0.931 -20.85 0.931 -20.85 0.356 68.64
6550 0.359 68.458 0.93 -21.037 0.93 -21.037 0.359 68.458
6600 0.362 68.276 0.929 -21.224 0.929 -21.224 0.362 68.276
6650 0.365 68.095 0.928 -21.409 0.928 -21.409 0.365 68.095
6700 0.368 67.914 0.927 -21.594 0.927 -21.594 0.368 67.914
6750 0.371 67.735 0.925 -21.778 0.925 -21.778 0.371 67.735
6800 0.374 67.556 0.924 -21.961 0.924 -21.961 0.374 67.556
6850 0.377 67.377 0.923 -22.143 0.923 -22.143 0.377 67.377
6900 0.38 67.199 0.922 -22.325 0.922 -22.325 0.38 67.199
6950 0.383 67.022 0.921 -22.506 0.921 -22.506 0.383 67.022
7000 0.386 66.846 0.919 -22.686 0.919 -22.686 0.386 66.846
7050 0.389 66.67 0.918 -22.866 0.918 -22.866 0.389 66.67
7100 0.391 66.495 0.917 -23.045 0.917 -23.045 0.391 66.495
7150 0.394 66.32 0.916 -23.223 0.916 -23.223 0.394 66.32
7200 0.397 66.146 0.915 -23.4 0.915 -23.4 0.397 66.146
7250 0.4 65.973 0.913 -23.577 0.913 -23.577 0.4 65.973
7300 0.403 65.8 0.912 -23.753 0.912 -23.753 0.403 65.8
7350 0.406 65.628 0.911 -23.928 0.911 -23.928 0.406 65.628
7400 0.408 65.457 0.91 -24.103 0.91 -24.103 0.408 65.457
7450 0.411 65.286 0.908 -24.277 0.908 -24.277 0.411 65.286
7500 0.414 65.116 0.907 -24.45 0.907 -24.45 0.414 65.116
7550 0.417 64.946 0.906 -24.623 0.906 -24.623 0.417 64.946
7600 0.419 64.777 0.905 -24.795 0.905 -24.795 0.419 64.777
7650 0.422 64.609 0.903 -24.966 0.903 -24.966 0.422 64.609
7700 0.425 64.441 0.902 -25.137 0.902 -25.137 0.425 64.441
7750 0.427 64.274 0.901 -25.307 0.901 -25.307 0.427 64.274
7800 0.43 64.108 0.9 -25.476 0.9 -25.476 0.43 64.108
7850 0.433 63.942 0.898 -25.645 0.898 -25.645 0.433 63.942
7900 0.435 63.776 0.897 -25.813 0.897 -25.813 0.435 63.776
7950 0.438 63.612 0.896 -25.98 0.896 -25.98 0.438 63.612
8000 0.441 63.448 0.895 -26.147 0.895 -26.147 0.441 63.448
8050 0.443 63.284 0.893 -26.313 0.893 -26.313 0.443 63.284
8100 0.446 63.121 0.892 -26.478 0.892 -26.478 0.446 63.121
8150 0.448 62.959 0.891 -26.643 0.891 -26.643 0.448 62.959
8200 0.451 62.797 0.889 -26.808 0.889 -26.808 0.451 62.797
8250 0.454 62.636 0.888 -26.971 0.888 -26.971 0.454 62.636
8300 0.456 62.475 0.887 -27.134 0.887 -27.134 0.456 62.475
8350 0.459 62.315 0.886 -27.297 0.886 -27.297 0.459 62.315
8400 0.461 62.155 0.884 -27.459 0.884 -27.459 0.461 62.155
8450 0.464 61.997 0.883 -27.62 0.883 -27.62 0.464 61.997
8500 0.466 61.838 0.882 -27.78 0.882 -27.78 0.466 61.838
8550 0.469 61.68 0.88 -27.94 0.88 -27.94 0.469 61.68
8600 0.471 61.523 0.879 -28.1 0.879 -28.1 0.471 61.523
8650 0.473 61.367 0.878 -28.259 0.878 -28.259 0.473 61.367
8700 0.476 61.211 0.876 -28.417 0.876 -28.417 0.476 61.211
8750 0.478 61.055 0.875 -28.575 0.875 -28.575 0.478 61.055
8800 0.481 60.9 0.874 -28.732 0.874 -28.732 0.481 60.9
8850 0.483 60.746 0.872 -28.888 0.872 -28.888 0.483 60.746
8900 0.485 60.592 0.871 -29.044 0.871 -29.044 0.485 60.592
8950 0.488 60.438 0.87 -29.199 0.87 -29.199 0.488 60.438
9000 0.49 60.286 0.869 -29.354 0.869 -29.354 0.49 60.286
9050 0.493 60.133 0.867 -29.508 0.867 -29.508 0.493 60.133
9100 0.495 59.982 0.866 -29.662 0.866 -29.662 0.495 59.982
9150 0.497 59.831 0.865 -29.815 0.865 -29.815 0.497 59.831
9200 0.5 59.68 0.863 -29.967 0.863 -29.967 0.5 59.68
9250 0.502 59.53 0.862 -30.119 0.862 -30.119 0.502 59.53
9300 0.504 59.38 0.861 -30.271 0.861 -30.271 0.504 59.38
9350 0.506 59.231 0.859 -30.421 0.859 -30.421 0.506 59.231
9400 0.509 59.083 0.858 -30.572 0.858 -30.572 0.509 59.083
9450 0.511 58.935 0.857 -30.721 0.857 -30.721 0.511 58.935
9500 0.513 58.788 0.855 -30.87 0.855 -30.87 0.513 58.788
9550 0.515 58.641 0.854 -31.019 0.854 -31.019 0.515 58.641
9600 0.518 58.494 0.853 -31.167 0.853 -31.167 0.518 58.494
9650 0.52 58.349 0.851 -31.314 0.851 -31.314 0.52 58.349
9700 0.522 58.203 0.85 -31.461 0.85 -31.461 0.522 58.203
9750 0.524 58.058 0.849 -31.608 0.849 -31.608 0.524 58.058
9800 0.526 57.914 0.847 -31.754 0.847 -31.754 0.526 57.914
9850 0.528 57.77 0.846 -31.899 0.846 -31.899 0.528 57.77
9900 0.531 57.627 0.845 -32.044 0.845 -32.044 0.531 57.627
9950 0.533 57.485 0.843 -32.188 0.843 -32.188 0.533 57.485
10000 0.535 57.342 0.842 -32.332 0.842 -32.332 0.535 57.342
10050 0.537 57.201 0.841 -32.475 0.841 -32.475 0.537 57.201
10100 0.539 57.059 0.839 -32.618 0.839 -32.618 0.539 57.059
10150 0.541 56.919 0.838 -32.76 0.838 -32.76 0.541 56.919
10200 0.543 56.778 0.837 -32.902 0.837 -32.902 0.543 56.778
10250 0.545 56.639 0.835 -33.043 0.835 -33.043 0.545 56.639
10300 0.547 56.5 0.834 -33.183 0.834 -33.183 0.547 56.5
10350 0.549 56.361 0.833 -33.323 0.833 -33.323 0.549 56.361
10400 0.551 56.223 0.831 -33.463 0.831 -33.463 0.551 56.223
10450 0.553 56.085 0.83 -33.602 0.83 -33.602 0.553 56.085
10500 0.555 55.948 0.829 -33.741 0.829 -33.741 0.555 55.948
10550 0.557 55.811 0.827 -33.879 0.827 -33.879 0.557 55.811
10600 0.559 55.675 0.826 -34.016 0.826 -34.016 0.559 55.675
10650 0.561 55.539 0.825 -34.153 0.825 -34.153 0.561 55.539
10700 0.563 55.404 0.823 -34.29 0.823 -34.29 0.563 55.404
10750 0.565 55.269 0.822 -34.426 0.822 -34.426 0.565 55.269
10800 0.567 55.135 0.821 -34.562 0.821 -34.562 0.567 55.135
10850 0.569 55.001 0.819 -34.697 0.819 -34.697 0.569 55.001
10900 0.571 54.868 0.818 -34.831 0.818 -34.831 0.571 54.868
10950 0.573 54.735 0.816 -34.965 0.816 -34.965 0.573 54.735
11000 0.575 54.602 0.815 -35.099 0.815 -35.099 0.575 54.602
11050 0.577 54.471 0.814 -35.232 0.814 -35.232 0.577 54.471
11100 0.579 54.339 0.812 -35.365 0.812 -35.365 0.579 54.339
11150 0.581 54.208 0.811 -35.497 0.811 -35.497 0.581 54.208
11200 0.583 54.078 0.81 -35.628 0.81 -35.628 0.583 54.078
11250 0.584 53.948 0.808 -35.76 0.808 -35.76 0.584 53.948
11300 0.586 53.818 0.807 -35.89 0.807 -35.89 0.586 53.818
11350 0.588 53.689 0.806 -36.021 0.806 -36.021 0.588 53.689
11400 0.59 53.56 0.804 -36.15 0.804 -36.15 0.59 53.56
11450 0.592 53.432 0.803 -36.28 0.803 -36.28 0.592 53.432
11500 0.594 53.304 0.802 -36.408 0.802 -36.408 0.594 53.304
11550 0.595 53.177 0.801 -36.537 0.801 -36.537 0.595 53.177
11600 0.597 53.05 0.799 -36.665 0.799 -36.665 0.597 53.05
11650 0.599 52.924 0.798 -36.792 0.798 -36.792 0.599 52.924
11700 0.601 52.798 0.797 -36.919 0.797 -36.919 0.601 52.798
11750 0.602 52.673 0.795 -37.046 0.795 -37.046 0.602 52.673
11800 0.604 52.548 0.794 -37.172 0.794 -37.172 0.604 52.548
11850 0.606 52.423 0.793 -37.297 0.793 -37.297 0.606 52.423
11900 0.608 52.299 0.791 -37.422 0.791 -37.422 0.608 52.299
11950 0.609 52.175 0.79 -37.547 0.79 -37.547 0.609 52.175
12000 0.611 52.052 0.789 -37.671 0.789 -37.671 0.611 52.052
12050 0.613 51.929 0.787 -37.795 0.787 -37.795 0.613 51.929
12100 0.615 51.807 0.786 -37.918 0.786 -37.918 0.615 51.807
12150 0.616 51.685 0.785 -38.041 0.785 -38.041 0.616 51.685
12200 0.618 51.564 0.783 -38.163 0.783 -38.163 0.618 51.564
12250 0.62 51.443 0.782 -38.285 0.782 -38.285 0.62 51.443
12300 0.621 51.322 0.781 -38.407 0.781 -38.407 0.621 51.322
12350 0.623 51.202 0.779 -38.528 0.779 -38.528 0.623 51.202
12400 0.625 51.082 0.778 -38.649 0.778 -38.649 0.625 51.082
12450 0.626 50.963 0.777 -38.769 0.777 -38.769 0.626 50.963
12500 0.628 50.844 0.775 -38.889 0.775 -38.889 0.628 50.844
12550 0.629 50.726 0.774 -39.008 0.774 -39.008 0.629 50.726
12600 0.631 50.608 0.773 -39.127 0.773 -39.127 0.631 50.608
12650 0.633 50.49 0.772 -39.245 0.772 -39.245 0.633 50.49
12700 0.634 50.373 0.77 -39.364 0.77 -39.364 0.634 50.373
12750 0.636 50.256 0.769 -39.481 0.769 -39.481 0.636 50.256
12800 0.637 50.14 0.768 -39.598 0.768 -39.598 0.637 50.14
12850 0.639 50.024 0.766 -39.715 0.766 -39.715 0.639 50.024
12900 0.641 49.909 0.765 -39.831 0.765 -39.831 0.641 49.909
12950 0.642 49.793 0.764 -39.947 0.764 -39.947 0.642 49.793
13000 0.644 49.679 0.762 -40.063 0.762 -40.063 0.644 49.679
13050 0.645 49.564 0.761 -40.178 0.761 -40.178 0.645 49.564
13100 0.647 49.451 0.76 -40.293 0.76 -40.293 0.647 49.451
13150 0.648 49.337 0.759 -40.407 0.759 -40.407 0.648 49.337
13200 0.65 49.224 0.757 -40.521 0.757 -40.521 0.65 49.224
13250 0.651 49.111 0.756 -40.634 0.756 -40.634 0.651 49.111
13300 0.653 48.999 0.755 -40.747 0.755 -40.747 0.653 48.999
13350 0.654 48.887 0.753 -40.86 0.753 -40.86 0.654 48.887
13400 0.656 48.776 0.752 -40.972 0.752 -40.972 0.656 48.776
13450 0.657 48.665 0.751 -41.084 0.751 -41.084 0.657 48.665
13500 0.659 48.554 0.75 -41.195 0.75 -41.195 0.659 48.554
13550 0.66 48.444 0.748 -41.306 0.748 -41.306 0.66 48.444
13600 0.662 48.334 0.747 -41.417 0.747 -41.417 0.662 48.334
13650 0.663 48.225 0.746 -41.527 0.746 -41.527 0.663 48.225
13700 0.664 48.116 0.745 -41.637 0.745 -41.637 0.664 48.116
13750 0.666 48.007 0.743 -41.746 0.743 -41.746 0.666 48.007
13800 0.667 47.899 0.742 -41.855 0.742 -41.855 0.667 47.899
13850 0.669 47.791 0.741 -41.964 0.741 -41.964 0.669 47.791
13900 0.67 47.683 0.739 -42.072 0.739 -42.072 0.67 47.683
13950 0.671 47.576 0.738 -42.18 0.738 -42.18 0.671 47.576
14000 0.673 47.469 0.737 -42.288 0.737 -42.288 0.673 47.469
14050 0.674 47.363 0.736 -42.395 0.736 -42.395 0.674 47.363
14100 0.676 47.257 0.734 -42.501 0.734 -42.501 0.676 47.257
14150 0.677 47.151 0.733 -42.608 0.733 -42.608 0.677 47.151
14200 0.678 47.046 0.732 -42.714 0.732 -42.714 0.678 47.046
14250 0.68 46.941 0.731 -42.819 0.731 -42.819 0.68 46.941
14300 0.681 46.837 0.729 -42.924 0.729 -42.924 0.681 46.837
14350 0.682 46.733 0.728 -43.029 0.728 -43.029 0.682 46.733
14400 0.684 46.629 0.727 -43.134 0.727 -43.134 0.684 46.629
14450 0.685 46.525 0.726 -43.238 0.726 -43.238 0.685 46.525
14500 0.686 46.422 0.724 -43.341 0.724 -43.341 0.686 46.422
14550 0.688 46.32 0.723 -43.445 0.723 -43.445 0.688 46.32
14600 0.689 46.218 0.722 -43.548 0.722 -43.548 0.689 46.218
14650 0.69 46.116 0.721 -43.65 0.721 -43.65 0.69 46.116
14700 0.692 46.014 0.72 -43.752 0.72 -43.752 0.692 46.014
14750 0.693 45.913 0.718 -43.854 0.718 -43.854 0.693 45.913
14800 0.694 45.812 0.717 -43.956 0.717 -43.956 0.694 45.812
14850 0.695 45.711 0.716 -44.057 0.716 -44.057 0.695 45.711
14900 0.697 45.611 0.715 -44.158 0.715 -44.158 0.697 45.611
14950 0.698 45.512 0.713 -44.258 0.713 -44.258 0.698 45.512
15000 0.699 45.412 0.712 -44.358 0.712 -44.358 0.699 45.412
15050 0.7 45.313 0.711 -44.458 0.711 -44.458 0.7 45.313
15100 0.702 45.214 0.71 -44.557 0.71 -44.557 0.702 45.214
15150 0.703 45.116 0.709 -44.656 0.709 -44.656 0.703 45.116
15200 0.704 45.018 0.707 -44.755 0.707 -44.755 0.704 45.018
15250 0.705 44.92 0.706 -44.853 0.706 -44.853 0.705 44.92
15300 0.707 44.823 0.705 -44.951 0.705 -44.951 0.707 44.823
15350 0.708 44.726 0.704 -45.048 0.704 -45.048 0.708 44.726
15400 0.709 44.629 0.703 -45.146 0.703 -45.146 0.709 44.629
15450 0.71 44.533 0.701 -45.243 0.701 -45.243 0.71 44.533
15500 0.711 44.437 0.7 -45.339 0.7 -45.339 0.711 44.437
15550 0.712 44.341 0.699 -45.435 0.699 -45.435 0.712 44.341
15600 0.714 44.246 0.698 -45.531 0.698 -45.531 0.714 44.246
15650 0.715 44.151 0.697 -45.627 0.697 -45.627 0.715 44.151
15700 0.716 44.056 0.695 -45.722 0.695 -45.722 0.716 44.056
15750 0.717 43.962 0.694 -45.817 0.694 -45.817 0.717 43.962
15800 0.718 43.868 0.693 -45.911 0.693 -45.911 0.718 43.868
15850 0.719 43.775 0.692 -46.005 0.692 -46.005 0.719 43.775
15900 0.721 43.681 0.691 -46.099 0.691 -46.099 0.721 43.681
15950 0.722 43.588 0.689 -46.193 0.689 -46.193 0.722 43.588
16000 0.723 43.496 0.688 -46.286 0.688 -46.286 0.723 43.496
16050 0.724 43.403 0.687 -46.379 0.687 -46.379 0.724 43.403
16100 0.725 43.311 0.686 -46.471 0.686 -46.471 0.725 43.311
16150 0.726 43.22 0.685 -46.564 0.685 -46.564 0.726 43.22
16200 0.727 43.128 0.684 -46.656 0.684 -46.656 0.727 43.128
16250 0.728 43.037 0.682 -46.747 0.682 -46.747 0.728 43.037
16300 0.729 42.946 0.681 -46.838 0.681 -46.838 0.729 42.946
16350 0.731 42.856 0.68 -46.929 0.68 -46.929 0.731 42.856
16400 0.732 42.766 0.679 -47.02 0.679 -47.02 0.732 42.766
16450 0.733 42.676 0.678 -47.11 0.678 -47.11 0.733 42.676
16500 0.734 42.587 0.677 -47.2 0.677 -47.2 0.734 42.587
16550 0.735 42.498 0.676 -47.29 0.676 -47.29 0.735 42.498
16600 0.736 42.409 0.674 -47.379 0.674 -47.379 0.736 42.409
16650 0.737 42.32 0.673 -47.468 0.673 -47.468 0.737 42.32
16700 0.738 42.232 0.672 -47.557 0.672 -47.557 0.738 42.232
16750 0.739 42.144 0.671 -47.645 0.671 -47.645 0.739 42.144
16800 0.74 42.056 0.67 -47.733 0.67 -47.733 0.74 42.056
16850 0.741 41.969 0.669 -47.821 0.669 -47.821 0.741 41.969
16900 0.742 41.882 0.668 -47.909 0.668 -47.909 0.742 41.882
