! AVX Thin Film Operation		Date: April 2012 
! Description: Accu-P® Series, Thin Film, SMD, RF Capacitor
! Part Number: 12101J2R8QBTTR					
!	100	MHz	-	20.05	GHz			
!	Serial	Measurements						
!								
#	MHZ	S	MA	R	50			
!	S11	S21	S12	S22				
!	dB	Phase	dB	Phase	dB	Phase	dB	Phase
50 0.996 -5.028 0.088 84.895 0.088 84.895 0.996 -5.028
100 0.985 -9.986 0.173 79.917 0.173 79.917 0.985 -9.986
150 0.966 -14.813 0.256 75.07 0.256 75.07 0.966 -14.813
200 0.942 -19.454 0.333 70.409 0.333 70.409 0.942 -19.454
250 0.913 -23.872 0.405 65.971 0.405 65.971 0.913 -23.872
300 0.881 -28.038 0.47 61.784 0.47 61.784 0.881 -28.038
350 0.847 -31.94 0.529 57.861 0.529 57.861 0.847 -31.94
400 0.811 -35.575 0.582 54.206 0.582 54.206 0.811 -35.575
450 0.775 -38.947 0.629 50.812 0.629 50.812 0.775 -38.947
500 0.739 -42.068 0.67 47.668 0.67 47.668 0.739 -42.068
550 0.704 -44.953 0.707 44.761 0.707 44.761 0.704 -44.953
600 0.67 -47.617 0.739 42.074 0.739 42.074 0.67 -47.617
650 0.637 -50.079 0.767 39.589 0.767 39.589 0.637 -50.079
700 0.606 -52.354 0.792 37.289 0.792 37.289 0.606 -52.354
750 0.576 -54.461 0.814 35.158 0.814 35.158 0.576 -54.461
800 0.547 -56.414 0.833 33.18 0.833 33.18 0.547 -56.414
850 0.52 -58.227 0.85 31.34 0.85 31.34 0.52 -58.227
900 0.494 -59.914 0.865 29.626 0.865 29.626 0.494 -59.914
950 0.47 -61.487 0.879 28.025 0.879 28.025 0.47 -61.487
1000 0.447 -62.955 0.891 26.527 0.891 26.527 0.447 -62.955
1050 0.425 -64.33 0.901 25.122 0.901 25.122 0.425 -64.33
1100 0.404 -65.619 0.911 23.801 0.911 23.801 0.404 -65.619
1150 0.384 -66.829 0.919 22.557 0.919 22.557 0.384 -66.829
1200 0.365 -67.969 0.927 21.383 0.927 21.383 0.365 -67.969
1250 0.347 -69.043 0.934 20.272 0.934 20.272 0.347 -69.043
1300 0.329 -70.057 0.94 19.219 0.94 19.219 0.329 -70.057
1350 0.313 -71.016 0.946 18.22 0.946 18.22 0.313 -71.016
1400 0.297 -71.925 0.951 17.269 0.951 17.269 0.297 -71.925
1450 0.282 -72.786 0.955 16.362 0.955 16.362 0.282 -72.786
1500 0.267 -73.603 0.959 15.496 0.959 15.496 0.267 -73.603
1550 0.253 -74.38 0.963 14.668 0.963 14.668 0.253 -74.38
1600 0.24 -75.118 0.967 13.875 0.967 13.875 0.24 -75.118
1650 0.227 -75.821 0.97 13.113 0.97 13.113 0.227 -75.821
1700 0.214 -76.489 0.973 12.382 0.973 12.382 0.214 -76.489
1750 0.202 -77.124 0.975 11.678 0.975 11.678 0.202 -77.124
1800 0.191 -77.729 0.977 10.999 0.977 10.999 0.191 -77.729
1850 0.18 -78.302 0.98 10.345 0.98 10.345 0.18 -78.302
1900 0.169 -78.847 0.981 9.712 0.981 9.712 0.169 -78.847
1950 0.158 -79.361 0.983 9.1 0.983 9.1 0.158 -79.361
2000 0.148 -79.847 0.985 8.508 0.985 8.508 0.148 -79.847
2050 0.138 -80.302 0.986 7.933 0.986 7.933 0.138 -80.302
2100 0.128 -80.726 0.987 7.376 0.987 7.376 0.128 -80.726
2150 0.119 -81.117 0.989 6.834 0.989 6.834 0.119 -81.117
2200 0.11 -81.473 0.99 6.307 0.99 6.307 0.11 -81.473
2250 0.101 -81.789 0.991 5.794 0.991 5.794 0.101 -81.789
2300 0.092 -82.061 0.991 5.295 0.991 5.295 0.092 -82.061
2350 0.084 -82.28 0.992 4.807 0.992 4.807 0.084 -82.28
2400 0.076 -82.436 0.993 4.332 0.993 4.332 0.076 -82.436
2450 0.068 -82.514 0.993 3.868 0.993 3.868 0.068 -82.514
2500 0.06 -82.488 0.994 3.414 0.994 3.414 0.06 -82.488
2550 0.052 -82.321 0.994 2.97 0.994 2.97 0.052 -82.321
2600 0.044 -81.953 0.995 2.535 0.995 2.535 0.044 -81.953
2650 0.037 -81.275 0.995 2.109 0.995 2.109 0.037 -81.275
2700 0.03 -80.081 0.995 1.692 0.995 1.692 0.03 -80.081
2750 0.023 -77.92 0.995 1.283 0.995 1.283 0.023 -77.92
2800 0.016 -73.605 0.996 0.881 0.996 0.881 0.016 -73.605
2850 9.514e-3 -62.847 0.996 0.487 0.996 0.487 9.514e-3 -62.847
2900 4.612e-3 -22.11 0.996 0.1 0.996 0.1 4.612e-3 -22.11
2950 6.499e-3 48.647 0.996 -0.281 0.996 -0.281 6.499e-3 48.647
3000 0.012 68.864 0.996 -0.655 0.996 -0.655 0.012 68.864
3050 0.018 75.53 0.996 -1.023 0.996 -1.023 0.018 75.53
3100 0.025 78.601 0.995 -1.386 0.995 -1.386 0.025 78.601
3150 0.031 80.266 0.995 -1.742 0.995 -1.742 0.031 80.266
3200 0.037 81.243 0.995 -2.094 0.995 -2.094 0.037 81.243
3250 0.043 81.835 0.995 -2.44 0.995 -2.44 0.043 81.835
3300 0.049 82.193 0.995 -2.782 0.995 -2.782 0.049 82.193
3350 0.055 82.396 0.994 -3.119 0.994 -3.119 0.055 82.396
3400 0.06 82.495 0.994 -3.451 0.994 -3.451 0.06 82.495
3450 0.066 82.518 0.994 -3.779 0.994 -3.779 0.066 82.518
3500 0.072 82.485 0.993 -4.103 0.993 -4.103 0.072 82.485
3550 0.077 82.412 0.993 -4.423 0.993 -4.423 0.077 82.412
3600 0.083 82.307 0.992 -4.739 0.992 -4.739 0.083 82.307
3650 0.088 82.177 0.992 -5.051 0.992 -5.051 0.088 82.177
3700 0.093 82.028 0.991 -5.359 0.991 -5.359 0.093 82.028
3750 0.099 81.863 0.991 -5.664 0.991 -5.664 0.099 81.863
3800 0.104 81.687 0.99 -5.966 0.99 -5.966 0.104 81.687
3850 0.109 81.5 0.99 -6.265 0.99 -6.265 0.109 81.5
3900 0.114 81.305 0.989 -6.56 0.989 -6.56 0.114 81.305
3950 0.119 81.104 0.989 -6.852 0.989 -6.852 0.119 81.104
4000 0.124 80.898 0.988 -7.142 0.988 -7.142 0.124 80.898
4050 0.129 80.687 0.987 -7.428 0.987 -7.428 0.129 80.687
4100 0.134 80.473 0.987 -7.712 0.987 -7.712 0.134 80.473
4150 0.139 80.256 0.986 -7.993 0.986 -7.993 0.139 80.256
4200 0.144 80.036 0.985 -8.271 0.985 -8.271 0.144 80.036
4250 0.149 79.815 0.985 -8.547 0.985 -8.547 0.149 79.815
4300 0.153 79.593 0.984 -8.82 0.984 -8.82 0.153 79.593
4350 0.158 79.369 0.983 -9.091 0.983 -9.091 0.158 79.369
4400 0.163 79.145 0.982 -9.36 0.982 -9.36 0.163 79.145
4450 0.167 78.92 0.982 -9.626 0.982 -9.626 0.167 78.92
4500 0.172 78.694 0.981 -9.891 0.981 -9.891 0.172 78.694
4550 0.176 78.469 0.98 -10.153 0.98 -10.153 0.176 78.469
4600 0.181 78.244 0.979 -10.413 0.979 -10.413 0.181 78.244
4650 0.185 78.018 0.978 -10.671 0.978 -10.671 0.185 78.018
4700 0.19 77.793 0.978 -10.926 0.978 -10.926 0.19 77.793
4750 0.194 77.568 0.977 -11.18 0.977 -11.18 0.194 77.568
4800 0.198 77.344 0.976 -11.433 0.976 -11.433 0.198 77.344
4850 0.203 77.12 0.975 -11.683 0.975 -11.683 0.203 77.12
4900 0.207 76.897 0.974 -11.931 0.974 -11.931 0.207 76.897
4950 0.211 76.674 0.973 -12.178 0.973 -12.178 0.211 76.674
5000 0.215 76.452 0.972 -12.423 0.972 -12.423 0.215 76.452
5050 0.219 76.23 0.971 -12.666 0.971 -12.666 0.219 76.23
5100 0.223 76.01 0.971 -12.907 0.971 -12.907 0.223 76.01
5150 0.227 75.79 0.97 -13.147 0.97 -13.147 0.227 75.79
5200 0.232 75.57 0.969 -13.386 0.969 -13.386 0.232 75.57
5250 0.236 75.352 0.968 -13.622 0.968 -13.622 0.236 75.352
5300 0.24 75.134 0.967 -13.858 0.967 -13.858 0.24 75.134
5350 0.244 74.917 0.966 -14.091 0.966 -14.091 0.244 74.917
5400 0.247 74.701 0.965 -14.324 0.965 -14.324 0.247 74.701
5450 0.251 74.486 0.964 -14.554 0.964 -14.554 0.251 74.486
5500 0.255 74.272 0.963 -14.784 0.963 -14.784 0.255 74.272
5550 0.259 74.058 0.962 -15.012 0.962 -15.012 0.259 74.058
5600 0.263 73.846 0.961 -15.238 0.961 -15.238 0.263 73.846
5650 0.267 73.634 0.96 -15.464 0.96 -15.464 0.267 73.634
5700 0.27 73.423 0.959 -15.688 0.959 -15.688 0.27 73.423
5750 0.274 73.213 0.957 -15.91 0.957 -15.91 0.274 73.213
5800 0.278 73.004 0.956 -16.132 0.956 -16.132 0.278 73.004
5850 0.282 72.795 0.955 -16.352 0.955 -16.352 0.282 72.795
5900 0.285 72.588 0.954 -16.571 0.954 -16.571 0.285 72.588
5950 0.289 72.381 0.953 -16.788 0.953 -16.788 0.289 72.381
6000 0.292 72.175 0.952 -17.005 0.952 -17.005 0.292 72.175
6050 0.296 71.971 0.951 -17.22 0.951 -17.22 0.296 71.971
6100 0.3 71.767 0.95 -17.434 0.95 -17.434 0.3 71.767
6150 0.303 71.563 0.949 -17.647 0.949 -17.647 0.303 71.563
6200 0.307 71.361 0.948 -17.859 0.948 -17.859 0.307 71.361
6250 0.31 71.16 0.947 -18.07 0.947 -18.07 0.31 71.16
6300 0.314 70.959 0.945 -18.279 0.945 -18.279 0.314 70.959
6350 0.317 70.759 0.944 -18.488 0.944 -18.488 0.317 70.759
6400 0.321 70.561 0.943 -18.695 0.943 -18.695 0.321 70.561
6450 0.324 70.362 0.942 -18.902 0.942 -18.902 0.324 70.362
6500 0.327 70.165 0.941 -19.107 0.941 -19.107 0.327 70.165
6550 0.331 69.969 0.94 -19.311 0.94 -19.311 0.331 69.969
6600 0.334 69.773 0.938 -19.514 0.938 -19.514 0.334 69.773
6650 0.337 69.578 0.937 -19.717 0.937 -19.717 0.337 69.578
6700 0.341 69.385 0.936 -19.918 0.936 -19.918 0.341 69.385
6750 0.344 69.191 0.935 -20.118 0.935 -20.118 0.344 69.191
6800 0.347 68.999 0.934 -20.317 0.934 -20.317 0.347 68.999
6850 0.35 68.808 0.932 -20.516 0.932 -20.516 0.35 68.808
6900 0.354 68.617 0.931 -20.713 0.931 -20.713 0.354 68.617
6950 0.357 68.427 0.93 -20.91 0.93 -20.91 0.357 68.427
7000 0.36 68.238 0.929 -21.105 0.929 -21.105 0.36 68.238
7050 0.363 68.049 0.928 -21.3 0.928 -21.3 0.363 68.049
7100 0.366 67.862 0.926 -21.493 0.926 -21.493 0.366 67.862
7150 0.37 67.675 0.925 -21.686 0.925 -21.686 0.37 67.675
7200 0.373 67.489 0.924 -21.878 0.924 -21.878 0.373 67.489
7250 0.376 67.304 0.923 -22.069 0.923 -22.069 0.376 67.304
7300 0.379 67.119 0.921 -22.259 0.921 -22.259 0.379 67.119
7350 0.382 66.935 0.92 -22.448 0.92 -22.448 0.382 66.935
7400 0.385 66.752 0.919 -22.636 0.919 -22.636 0.385 66.752
7450 0.388 66.57 0.918 -22.824 0.918 -22.824 0.388 66.57
7500 0.391 66.388 0.916 -23.01 0.916 -23.01 0.391 66.388
7550 0.394 66.208 0.915 -23.196 0.915 -23.196 0.394 66.208
7600 0.397 66.028 0.914 -23.381 0.914 -23.381 0.397 66.028
7650 0.4 65.848 0.913 -23.565 0.913 -23.565 0.4 65.848
7700 0.403 65.67 0.911 -23.749 0.911 -23.749 0.403 65.67
7750 0.406 65.492 0.91 -23.931 0.91 -23.931 0.406 65.492
7800 0.409 65.315 0.909 -24.113 0.909 -24.113 0.409 65.315
7850 0.411 65.138 0.907 -24.294 0.907 -24.294 0.411 65.138
7900 0.414 64.962 0.906 -24.474 0.906 -24.474 0.414 64.962
7950 0.417 64.787 0.905 -24.653 0.905 -24.653 0.417 64.787
8000 0.42 64.613 0.903 -24.832 0.903 -24.832 0.42 64.613
8050 0.423 64.44 0.902 -25.009 0.902 -25.009 0.423 64.44
8100 0.426 64.267 0.901 -25.186 0.901 -25.186 0.426 64.267
8150 0.428 64.094 0.9 -25.363 0.9 -25.363 0.428 64.094
8200 0.431 63.923 0.898 -25.538 0.898 -25.538 0.431 63.923
8250 0.434 63.752 0.897 -25.713 0.897 -25.713 0.434 63.752
8300 0.437 63.582 0.896 -25.887 0.896 -25.887 0.437 63.582
8350 0.439 63.412 0.894 -26.06 0.894 -26.06 0.439 63.412
8400 0.442 63.243 0.893 -26.232 0.893 -26.232 0.442 63.243
8450 0.445 63.075 0.892 -26.404 0.892 -26.404 0.445 63.075
8500 0.447 62.908 0.89 -26.575 0.89 -26.575 0.447 62.908
8550 0.45 62.741 0.889 -26.746 0.889 -26.746 0.45 62.741
8600 0.453 62.575 0.888 -26.915 0.888 -26.915 0.453 62.575
8650 0.455 62.409 0.886 -27.084 0.886 -27.084 0.455 62.409
8700 0.458 62.244 0.885 -27.252 0.885 -27.252 0.458 62.244
8750 0.461 62.08 0.884 -27.42 0.884 -27.42 0.461 62.08
8800 0.463 61.917 0.882 -27.586 0.882 -27.586 0.463 61.917
8850 0.466 61.754 0.881 -27.753 0.881 -27.753 0.466 61.754
8900 0.468 61.591 0.88 -27.918 0.88 -27.918 0.468 61.591
8950 0.471 61.43 0.878 -28.083 0.878 -28.083 0.471 61.43
9000 0.473 61.269 0.877 -28.247 0.877 -28.247 0.473 61.269
9050 0.476 61.108 0.876 -28.41 0.876 -28.41 0.476 61.108
9100 0.478 60.949 0.874 -28.573 0.874 -28.573 0.478 60.949
9150 0.481 60.79 0.873 -28.735 0.873 -28.735 0.481 60.79
9200 0.483 60.631 0.872 -28.896 0.872 -28.896 0.483 60.631
9250 0.486 60.473 0.87 -29.057 0.87 -29.057 0.486 60.473
9300 0.488 60.316 0.869 -29.217 0.869 -29.217 0.488 60.316
9350 0.491 60.159 0.867 -29.376 0.867 -29.376 0.491 60.159
9400 0.493 60.003 0.866 -29.535 0.866 -29.535 0.493 60.003
9450 0.495 59.848 0.865 -29.693 0.865 -29.693 0.495 59.848
9500 0.498 59.693 0.863 -29.85 0.863 -29.85 0.498 59.693
9550 0.5 59.539 0.862 -30.007 0.862 -30.007 0.5 59.539
9600 0.502 59.385 0.861 -30.163 0.861 -30.163 0.502 59.385
9650 0.505 59.232 0.859 -30.319 0.859 -30.319 0.505 59.232
9700 0.507 59.08 0.858 -30.474 0.858 -30.474 0.507 59.08
9750 0.509 58.928 0.857 -30.628 0.857 -30.628 0.509 58.928
9800 0.512 58.777 0.855 -30.782 0.855 -30.782 0.512 58.777
9850 0.514 58.626 0.854 -30.935 0.854 -30.935 0.514 58.626
9900 0.516 58.476 0.852 -31.087 0.852 -31.087 0.516 58.476
9950 0.519 58.326 0.851 -31.239 0.851 -31.239 0.519 58.326
10000 0.521 58.177 0.85 -31.39 0.85 -31.39 0.521 58.177
10050 0.523 58.029 0.848 -31.541 0.848 -31.541 0.523 58.029
10100 0.525 57.881 0.847 -31.691 0.847 -31.691 0.525 57.881
10150 0.528 57.734 0.846 -31.841 0.846 -31.841 0.528 57.734
10200 0.53 57.587 0.844 -31.989 0.844 -31.989 0.53 57.587
10250 0.532 57.441 0.843 -32.138 0.843 -32.138 0.532 57.441
10300 0.534 57.296 0.841 -32.285 0.841 -32.285 0.534 57.296
10350 0.536 57.151 0.84 -32.432 0.84 -32.432 0.536 57.151
10400 0.538 57.006 0.839 -32.579 0.839 -32.579 0.538 57.006
10450 0.541 56.862 0.837 -32.725 0.837 -32.725 0.541 56.862
10500 0.543 56.719 0.836 -32.87 0.836 -32.87 0.543 56.719
10550 0.545 56.576 0.835 -33.015 0.835 -33.015 0.545 56.576
10600 0.547 56.434 0.833 -33.159 0.833 -33.159 0.547 56.434
10650 0.549 56.293 0.832 -33.303 0.832 -33.303 0.549 56.293
10700 0.551 56.151 0.831 -33.446 0.831 -33.446 0.551 56.151
10750 0.553 56.011 0.829 -33.588 0.829 -33.588 0.553 56.011
10800 0.555 55.871 0.828 -33.73 0.828 -33.73 0.555 55.871
10850 0.557 55.731 0.826 -33.871 0.826 -33.871 0.557 55.731
10900 0.559 55.592 0.825 -34.012 0.825 -34.012 0.559 55.592
10950 0.561 55.454 0.824 -34.152 0.824 -34.152 0.561 55.454
11000 0.563 55.316 0.822 -34.292 0.822 -34.292 0.563 55.316
11050 0.565 55.179 0.821 -34.431 0.821 -34.431 0.565 55.179
11100 0.567 55.042 0.82 -34.57 0.82 -34.57 0.567 55.042
11150 0.569 54.905 0.818 -34.708 0.818 -34.708 0.569 54.905
11200 0.571 54.77 0.817 -34.845 0.817 -34.845 0.571 54.77
11250 0.573 54.634 0.815 -34.982 0.815 -34.982 0.573 54.634
11300 0.575 54.5 0.814 -35.119 0.814 -35.119 0.575 54.5
11350 0.577 54.365 0.813 -35.255 0.813 -35.255 0.577 54.365
11400 0.579 54.232 0.811 -35.39 0.811 -35.39 0.579 54.232
11450 0.581 54.098 0.81 -35.525 0.81 -35.525 0.581 54.098
11500 0.583 53.966 0.809 -35.659 0.809 -35.659 0.583 53.966
11550 0.585 53.833 0.807 -35.793 0.807 -35.793 0.585 53.833
11600 0.587 53.702 0.806 -35.927 0.806 -35.927 0.587 53.702
11650 0.589 53.57 0.805 -36.059 0.805 -36.059 0.589 53.57
11700 0.591 53.44 0.803 -36.192 0.803 -36.192 0.591 53.44
11750 0.592 53.309 0.802 -36.323 0.802 -36.323 0.592 53.309
11800 0.594 53.18 0.801 -36.455 0.801 -36.455 0.594 53.18
11850 0.596 53.05 0.799 -36.585 0.799 -36.585 0.596 53.05
11900 0.598 52.922 0.798 -36.716 0.798 -36.716 0.598 52.922
11950 0.6 52.793 0.796 -36.845 0.796 -36.845 0.6 52.793
12000 0.601 52.666 0.795 -36.975 0.795 -36.975 0.601 52.666
12050 0.603 52.538 0.794 -37.103 0.794 -37.103 0.603 52.538
12100 0.605 52.411 0.792 -37.232 0.792 -37.232 0.605 52.411
12150 0.607 52.285 0.791 -37.359 0.791 -37.359 0.607 52.285
12200 0.609 52.159 0.79 -37.487 0.79 -37.487 0.609 52.159
12250 0.61 52.034 0.788 -37.613 0.788 -37.613 0.61 52.034
12300 0.612 51.909 0.787 -37.74 0.787 -37.74 0.612 51.909
12350 0.614 51.785 0.786 -37.866 0.786 -37.866 0.614 51.785
12400 0.616 51.661 0.784 -37.991 0.784 -37.991 0.616 51.661
12450 0.617 51.537 0.783 -38.116 0.783 -38.116 0.617 51.537
12500 0.619 51.414 0.782 -38.24 0.782 -38.24 0.619 51.414
12550 0.621 51.291 0.78 -38.364 0.78 -38.364 0.621 51.291
12600 0.622 51.169 0.779 -38.487 0.779 -38.487 0.622 51.169
12650 0.624 51.048 0.778 -38.61 0.778 -38.61 0.624 51.048
12700 0.626 50.926 0.776 -38.733 0.776 -38.733 0.626 50.926
12750 0.627 50.806 0.775 -38.855 0.775 -38.855 0.627 50.806
12800 0.629 50.685 0.774 -38.976 0.774 -38.976 0.629 50.685
12850 0.631 50.566 0.772 -39.097 0.772 -39.097 0.631 50.566
12900 0.632 50.446 0.771 -39.218 0.771 -39.218 0.632 50.446
12950 0.634 50.327 0.77 -39.338 0.77 -39.338 0.634 50.327
13000 0.636 50.209 0.768 -39.458 0.768 -39.458 0.636 50.209
13050 0.637 50.091 0.767 -39.577 0.767 -39.577 0.637 50.091
13100 0.639 49.973 0.766 -39.696 0.766 -39.696 0.639 49.973
13150 0.64 49.856 0.764 -39.814 0.764 -39.814 0.64 49.856
13200 0.642 49.739 0.763 -39.932 0.763 -39.932 0.642 49.739
13250 0.643 49.623 0.762 -40.05 0.762 -40.05 0.643 49.623
13300 0.645 49.507 0.76 -40.167 0.76 -40.167 0.645 49.507
13350 0.647 49.392 0.759 -40.283 0.759 -40.283 0.647 49.392
13400 0.648 49.277 0.758 -40.399 0.758 -40.399 0.648 49.277
13450 0.65 49.162 0.757 -40.515 0.757 -40.515 0.65 49.162
13500 0.651 49.048 0.755 -40.63 0.755 -40.63 0.651 49.048
13550 0.653 48.934 0.754 -40.745 0.754 -40.745 0.653 48.934
13600 0.654 48.821 0.753 -40.859 0.753 -40.859 0.654 48.821
13650 0.656 48.708 0.751 -40.973 0.751 -40.973 0.656 48.708
13700 0.657 48.596 0.75 -41.087 0.75 -41.087 0.657 48.596
13750 0.659 48.483 0.749 -41.2 0.749 -41.2 0.659 48.483
13800 0.66 48.372 0.747 -41.313 0.747 -41.313 0.66 48.372
13850 0.662 48.261 0.746 -41.425 0.746 -41.425 0.662 48.261
13900 0.663 48.15 0.745 -41.537 0.745 -41.537 0.663 48.15
13950 0.665 48.04 0.744 -41.648 0.744 -41.648 0.665 48.04
14000 0.666 47.93 0.742 -41.759 0.742 -41.759 0.666 47.93
14050 0.667 47.82 0.741 -41.87 0.741 -41.87 0.667 47.82
14100 0.669 47.711 0.74 -41.98 0.74 -41.98 0.669 47.711
14150 0.67 47.602 0.738 -42.089 0.738 -42.089 0.67 47.602
14200 0.672 47.494 0.737 -42.199 0.737 -42.199 0.672 47.494
14250 0.673 47.386 0.736 -42.308 0.736 -42.308 0.673 47.386
14300 0.675 47.278 0.735 -42.416 0.735 -42.416 0.675 47.278
14350 0.676 47.171 0.733 -42.524 0.733 -42.524 0.676 47.171
14400 0.677 47.064 0.732 -42.632 0.732 -42.632 0.677 47.064
14450 0.679 46.958 0.731 -42.739 0.731 -42.739 0.679 46.958
14500 0.68 46.852 0.73 -42.846 0.73 -42.846 0.68 46.852
14550 0.681 46.746 0.728 -42.953 0.728 -42.953 0.681 46.746
14600 0.683 46.641 0.727 -43.059 0.727 -43.059 0.683 46.641
14650 0.684 46.536 0.726 -43.165 0.726 -43.165 0.684 46.536
14700 0.685 46.432 0.725 -43.27 0.725 -43.27 0.685 46.432
14750 0.687 46.328 0.723 -43.375 0.723 -43.375 0.687 46.328
14800 0.688 46.224 0.722 -43.479 0.722 -43.479 0.688 46.224
14850 0.689 46.121 0.721 -43.584 0.721 -43.584 0.689 46.121
14900 0.691 46.018 0.72 -43.687 0.72 -43.687 0.691 46.018
14950 0.692 45.916 0.718 -43.791 0.718 -43.791 0.692 45.916
15000 0.693 45.814 0.717 -43.894 0.717 -43.894 0.693 45.814
15050 0.695 45.712 0.716 -43.996 0.716 -43.996 0.695 45.712
15100 0.696 45.61 0.715 -44.099 0.715 -44.099 0.696 45.61
15150 0.697 45.509 0.713 -44.2 0.713 -44.2 0.697 45.509
15200 0.698 45.409 0.712 -44.302 0.712 -44.302 0.698 45.409
15250 0.7 45.308 0.711 -44.403 0.711 -44.403 0.7 45.308
15300 0.701 45.209 0.71 -44.504 0.71 -44.504 0.701 45.209
15350 0.702 45.109 0.708 -44.604 0.708 -44.604 0.702 45.109
15400 0.703 45.01 0.707 -44.704 0.707 -44.704 0.703 45.01
15450 0.705 44.911 0.706 -44.804 0.706 -44.804 0.705 44.911
15500 0.706 44.813 0.705 -44.903 0.705 -44.903 0.706 44.813
15550 0.707 44.714 0.704 -45.002 0.704 -45.002 0.707 44.714
15600 0.708 44.617 0.702 -45.1 0.702 -45.1 0.708 44.617
15650 0.71 44.519 0.701 -45.199 0.701 -45.199 0.71 44.519
15700 0.711 44.422 0.7 -45.296 0.7 -45.296 0.711 44.422
15750 0.712 44.326 0.699 -45.394 0.699 -45.394 0.712 44.326
15800 0.713 44.229 0.698 -45.491 0.698 -45.491 0.713 44.229
15850 0.714 44.133 0.696 -45.588 0.696 -45.588 0.714 44.133
15900 0.716 44.038 0.695 -45.684 0.695 -45.684 0.716 44.038
15950 0.717 43.942 0.694 -45.78 0.694 -45.78 0.717 43.942
16000 0.718 43.847 0.693 -45.876 0.693 -45.876 0.718 43.847
16050 0.719 43.753 0.692 -45.971 0.692 -45.971 0.719 43.753
16100 0.72 43.658 0.69 -46.066 0.69 -46.066 0.72 43.658
16150 0.721 43.565 0.689 -46.161 0.689 -46.161 0.721 43.565
16200 0.722 43.471 0.688 -46.255 0.688 -46.255 0.722 43.471
16250 0.724 43.378 0.687 -46.349 0.687 -46.349 0.724 43.378
16300 0.725 43.285 0.686 -46.443 0.686 -46.443 0.725 43.285
16350 0.726 43.192 0.684 -46.536 0.684 -46.536 0.726 43.192
16400 0.727 43.1 0.683 -46.629 0.683 -46.629 0.727 43.1
16450 0.728 43.008 0.682 -46.722 0.682 -46.722 0.728 43.008
16500 0.729 42.916 0.681 -46.814 0.681 -46.814 0.729 42.916
16550 0.73 42.825 0.68 -46.906 0.68 -46.906 0.73 42.825
16600 0.731 42.734 0.679 -46.998 0.679 -46.998 0.731 42.734
16650 0.732 42.644 0.677 -47.089 0.677 -47.089 0.732 42.644
16700 0.733 42.553 0.676 -47.18 0.676 -47.18 0.733 42.553
16750 0.735 42.463 0.675 -47.271 0.675 -47.271 0.735 42.463
16800 0.736 42.374 0.674 -47.361 0.674 -47.361 0.736 42.374
16850 0.737 42.284 0.673 -47.451 0.673 -47.451 0.737 42.284
16900 0.738 42.195 0.672 -47.54 0.672 -47.54 0.738 42.195
16950 0.739 42.107 0.671 -47.63 0.671 -47.63 0.739 42.107
