! AVX Thin Film Operation		Date: April 2012 
! Description: Accu-P® Series, Thin Film, SMD, RF Capacitor
! Part Number: 12101J140FBTTR					
!	50	MHz	-	20.05	GHz			
!	Serial	Measurements						
!								
#	MHZ	S	MA	R	50			
!	S11	S21	S12	S22				
!	dB	Phase	dB	Phase	dB	Phase	dB	Phase
50 0.915 -23.756 0.403 66.144 0.403 66.144 0.915 -23.756
100 0.748 -41.441 0.662 48.415 0.662 48.415 0.748 -41.441
150 0.598 -53.088 0.8 36.723 0.8 36.723 0.598 -53.088
200 0.484 -60.789 0.873 28.975 0.873 28.975 0.484 -60.789
250 0.4 -66.109 0.914 23.607 0.914 23.607 0.4 -66.109
300 0.337 -69.963 0.939 19.702 0.939 19.702 0.337 -69.963
350 0.288 -72.872 0.956 16.738 0.956 16.738 0.288 -72.872
400 0.249 -75.145 0.967 14.407 0.967 14.407 0.249 -75.145
450 0.217 -76.97 0.974 12.519 0.974 12.519 0.217 -76.97
500 0.19 -78.469 0.98 10.951 0.98 10.951 0.19 -78.469
550 0.167 -79.723 0.984 9.622 0.984 9.622 0.167 -79.723
600 0.147 -80.785 0.987 8.474 0.987 8.474 0.147 -80.785
650 0.13 -81.694 0.99 7.469 0.99 7.469 0.13 -81.694
700 0.115 -82.476 0.992 6.577 0.992 6.577 0.115 -82.476
750 0.101 -83.149 0.993 5.776 0.993 5.776 0.101 -83.149
800 0.088 -83.724 0.994 5.049 0.994 5.049 0.088 -83.724
850 0.076 -84.206 0.995 4.384 0.995 4.384 0.076 -84.206
900 0.066 -84.592 0.996 3.771 0.996 3.771 0.066 -84.592
950 0.056 -84.873 0.997 3.201 0.997 3.201 0.056 -84.873
1000 0.047 -85.024 0.997 2.669 0.997 2.669 0.047 -85.024
1050 0.038 -84.996 0.997 2.168 0.997 2.168 0.038 -84.996
1100 0.03 -84.682 0.998 1.696 0.998 1.696 0.03 -84.682
1150 0.022 -83.837 0.998 1.248 0.998 1.248 0.022 -83.837
1200 0.014 -81.734 0.998 0.821 0.998 0.821 0.014 -81.734
1250 7.442e-3 -75.02 0.998 0.413 0.998 0.413 7.442e-3 -75.02
1300 1.908e-3 -11.109 0.998 0.021 0.998 0.021 1.908e-3 -11.109
1350 6.483e-3 72.864 0.998 -0.356 0.998 -0.356 6.483e-3 72.864
1400 0.013 80.798 0.998 -0.719 0.998 -0.719 0.013 80.798
1450 0.019 83.208 0.998 -1.071 0.998 -1.071 0.019 83.208
1500 0.025 84.241 0.998 -1.412 0.998 -1.412 0.025 84.241
1550 0.03 84.732 0.998 -1.743 0.998 -1.743 0.03 84.732
1600 0.036 84.958 0.997 -2.065 0.997 -2.065 0.036 84.958
1650 0.042 85.035 0.997 -2.379 0.997 -2.379 0.042 85.035
1700 0.047 85.022 0.997 -2.686 0.997 -2.686 0.047 85.022
1750 0.052 84.951 0.997 -2.986 0.997 -2.986 0.052 84.951
1800 0.057 84.84 0.996 -3.28 0.996 -3.28 0.057 84.84
1850 0.062 84.703 0.996 -3.568 0.996 -3.568 0.062 84.703
1900 0.067 84.546 0.996 -3.851 0.996 -3.851 0.067 84.546
1950 0.072 84.375 0.996 -4.129 0.996 -4.129 0.072 84.375
2000 0.077 84.193 0.995 -4.402 0.995 -4.402 0.077 84.193
2050 0.081 84.004 0.995 -4.671 0.995 -4.671 0.081 84.004
2100 0.086 83.809 0.994 -4.936 0.994 -4.936 0.086 83.809
2150 0.091 83.61 0.994 -5.198 0.994 -5.198 0.091 83.61
2200 0.095 83.407 0.994 -5.456 0.994 -5.456 0.095 83.407
2250 0.1 83.202 0.993 -5.71 0.993 -5.71 0.1 83.202
2300 0.104 82.995 0.993 -5.962 0.993 -5.962 0.104 82.995
2350 0.108 82.787 0.992 -6.211 0.992 -6.211 0.108 82.787
2400 0.112 82.579 0.992 -6.457 0.992 -6.457 0.112 82.579
2450 0.117 82.369 0.991 -6.701 0.991 -6.701 0.117 82.369
2500 0.121 82.16 0.991 -6.942 0.991 -6.942 0.121 82.16
2550 0.125 81.95 0.99 -7.181 0.99 -7.181 0.125 81.95
2600 0.129 81.74 0.99 -7.417 0.99 -7.417 0.129 81.74
2650 0.133 81.531 0.989 -7.652 0.989 -7.652 0.133 81.531
2700 0.137 81.321 0.989 -7.884 0.989 -7.884 0.137 81.321
2750 0.141 81.112 0.988 -8.115 0.988 -8.115 0.141 81.112
2800 0.145 80.904 0.988 -8.344 0.988 -8.344 0.145 80.904
2850 0.149 80.696 0.987 -8.571 0.987 -8.571 0.149 80.696
2900 0.153 80.488 0.986 -8.797 0.986 -8.797 0.153 80.488
2950 0.157 80.282 0.986 -9.021 0.986 -9.021 0.157 80.282
3000 0.161 80.075 0.985 -9.243 0.985 -9.243 0.161 80.075
3050 0.164 79.869 0.984 -9.464 0.984 -9.464 0.164 79.869
3100 0.168 79.664 0.984 -9.684 0.984 -9.684 0.168 79.664
3150 0.172 79.46 0.983 -9.902 0.983 -9.902 0.172 79.46
3200 0.176 79.256 0.983 -10.119 0.983 -10.119 0.176 79.256
3250 0.179 79.053 0.982 -10.335 0.982 -10.335 0.179 79.053
3300 0.183 78.85 0.981 -10.55 0.981 -10.55 0.183 78.85
3350 0.187 78.648 0.98 -10.763 0.98 -10.763 0.187 78.648
3400 0.19 78.446 0.98 -10.975 0.98 -10.975 0.19 78.446
3450 0.194 78.246 0.979 -11.186 0.979 -11.186 0.194 78.246
3500 0.198 78.046 0.978 -11.396 0.978 -11.396 0.198 78.046
3550 0.201 77.846 0.978 -11.605 0.978 -11.605 0.201 77.846
3600 0.205 77.647 0.977 -11.813 0.977 -11.813 0.205 77.647
3650 0.208 77.449 0.976 -12.02 0.976 -12.02 0.208 77.449
3700 0.212 77.252 0.975 -12.226 0.975 -12.226 0.212 77.252
3750 0.215 77.055 0.975 -12.431 0.975 -12.431 0.215 77.055
3800 0.219 76.858 0.974 -12.635 0.974 -12.635 0.219 76.858
3850 0.222 76.662 0.973 -12.839 0.973 -12.839 0.222 76.662
3900 0.226 76.467 0.972 -13.041 0.972 -13.041 0.226 76.467
3950 0.229 76.273 0.971 -13.243 0.971 -13.243 0.229 76.273
4000 0.232 76.079 0.971 -13.444 0.971 -13.444 0.232 76.079
4050 0.236 75.885 0.97 -13.643 0.97 -13.643 0.236 75.885
4100 0.239 75.693 0.969 -13.843 0.969 -13.843 0.239 75.693
4150 0.243 75.5 0.968 -14.041 0.968 -14.041 0.243 75.5
4200 0.246 75.309 0.967 -14.239 0.967 -14.239 0.246 75.309
4250 0.249 75.118 0.966 -14.435 0.966 -14.435 0.249 75.118
4300 0.253 74.927 0.966 -14.631 0.966 -14.631 0.253 74.927
4350 0.256 74.737 0.965 -14.827 0.965 -14.827 0.256 74.737
4400 0.259 74.548 0.964 -15.021 0.964 -15.021 0.259 74.548
4450 0.262 74.359 0.963 -15.215 0.963 -15.215 0.262 74.359
4500 0.266 74.171 0.962 -15.408 0.962 -15.408 0.266 74.171
4550 0.269 73.983 0.961 -15.601 0.961 -15.601 0.269 73.983
4600 0.272 73.796 0.96 -15.793 0.96 -15.793 0.272 73.796
4650 0.275 73.609 0.959 -15.984 0.959 -15.984 0.275 73.609
4700 0.279 73.423 0.958 -16.174 0.958 -16.174 0.279 73.423
4750 0.282 73.238 0.958 -16.364 0.958 -16.364 0.282 73.238
4800 0.285 73.053 0.957 -16.554 0.957 -16.554 0.285 73.053
4850 0.288 72.868 0.956 -16.742 0.956 -16.742 0.288 72.868
4900 0.291 72.685 0.955 -16.93 0.955 -16.93 0.291 72.685
4950 0.294 72.501 0.954 -17.117 0.954 -17.117 0.294 72.501
5000 0.297 72.318 0.953 -17.304 0.953 -17.304 0.297 72.318
5050 0.301 72.136 0.952 -17.49 0.952 -17.49 0.301 72.136
5100 0.304 71.954 0.951 -17.675 0.951 -17.675 0.304 71.954
5150 0.307 71.773 0.95 -17.86 0.95 -17.86 0.307 71.773
5200 0.31 71.592 0.949 -18.045 0.949 -18.045 0.31 71.592
5250 0.313 71.412 0.948 -18.228 0.948 -18.228 0.313 71.412
5300 0.316 71.232 0.947 -18.411 0.947 -18.411 0.316 71.232
5350 0.319 71.053 0.946 -18.594 0.946 -18.594 0.319 71.053
5400 0.322 70.874 0.945 -18.776 0.945 -18.776 0.322 70.874
5450 0.325 70.696 0.944 -18.957 0.944 -18.957 0.325 70.696
5500 0.328 70.518 0.943 -19.138 0.943 -19.138 0.328 70.518
5550 0.331 70.341 0.942 -19.318 0.942 -19.318 0.331 70.341
5600 0.334 70.164 0.941 -19.497 0.941 -19.497 0.334 70.164
5650 0.337 69.988 0.94 -19.676 0.94 -19.676 0.337 69.988
5700 0.34 69.812 0.939 -19.855 0.939 -19.855 0.34 69.812
5750 0.343 69.637 0.938 -20.033 0.938 -20.033 0.343 69.637
5800 0.345 69.462 0.936 -20.21 0.936 -20.21 0.345 69.462
5850 0.348 69.288 0.935 -20.387 0.935 -20.387 0.348 69.288
5900 0.351 69.114 0.934 -20.563 0.934 -20.563 0.351 69.114
5950 0.354 68.941 0.933 -20.739 0.933 -20.739 0.354 68.941
6000 0.357 68.769 0.932 -20.914 0.932 -20.914 0.357 68.769
6050 0.36 68.596 0.931 -21.089 0.931 -21.089 0.36 68.596
6100 0.363 68.425 0.93 -21.263 0.93 -21.263 0.363 68.425
6150 0.365 68.253 0.929 -21.436 0.929 -21.436 0.365 68.253
6200 0.368 68.083 0.928 -21.609 0.928 -21.609 0.368 68.083
6250 0.371 67.912 0.927 -21.782 0.927 -21.782 0.371 67.912
6300 0.374 67.743 0.926 -21.954 0.926 -21.954 0.374 67.743
6350 0.377 67.573 0.924 -22.125 0.924 -22.125 0.377 67.573
6400 0.379 67.404 0.923 -22.296 0.923 -22.296 0.379 67.404
6450 0.382 67.236 0.922 -22.467 0.922 -22.467 0.382 67.236
6500 0.385 67.068 0.921 -22.636 0.921 -22.636 0.385 67.068
6550 0.388 66.901 0.92 -22.806 0.92 -22.806 0.388 66.901
6600 0.39 66.734 0.919 -22.975 0.919 -22.975 0.39 66.734
6650 0.393 66.568 0.918 -23.143 0.918 -23.143 0.393 66.568
6700 0.396 66.402 0.916 -23.311 0.916 -23.311 0.396 66.402
6750 0.398 66.236 0.915 -23.478 0.915 -23.478 0.398 66.236
6800 0.401 66.072 0.914 -23.645 0.914 -23.645 0.401 66.072
6850 0.404 65.907 0.913 -23.811 0.913 -23.811 0.404 65.907
6900 0.406 65.743 0.912 -23.977 0.912 -23.977 0.406 65.743
6950 0.409 65.58 0.911 -24.142 0.911 -24.142 0.409 65.58
7000 0.412 65.417 0.909 -24.307 0.909 -24.307 0.412 65.417
7050 0.414 65.254 0.908 -24.471 0.908 -24.471 0.414 65.254
7100 0.417 65.092 0.907 -24.635 0.907 -24.635 0.417 65.092
7150 0.419 64.93 0.906 -24.798 0.906 -24.798 0.419 64.93
7200 0.422 64.769 0.905 -24.961 0.905 -24.961 0.422 64.769
7250 0.425 64.609 0.903 -25.123 0.903 -25.123 0.425 64.609
7300 0.427 64.449 0.902 -25.284 0.902 -25.284 0.427 64.449
7350 0.43 64.289 0.901 -25.446 0.901 -25.446 0.43 64.289
7400 0.432 64.13 0.9 -25.606 0.9 -25.606 0.432 64.13
7450 0.435 63.971 0.899 -25.767 0.899 -25.767 0.435 63.971
7500 0.437 63.813 0.897 -25.926 0.897 -25.926 0.437 63.813
7550 0.44 63.655 0.896 -26.086 0.896 -26.086 0.44 63.655
7600 0.442 63.498 0.895 -26.244 0.895 -26.244 0.442 63.498
7650 0.445 63.341 0.894 -26.403 0.894 -26.403 0.445 63.341
7700 0.447 63.185 0.892 -26.56 0.892 -26.56 0.447 63.185
7750 0.45 63.029 0.891 -26.718 0.891 -26.718 0.45 63.029
7800 0.452 62.873 0.89 -26.874 0.89 -26.874 0.452 62.873
7850 0.454 62.718 0.889 -27.031 0.889 -27.031 0.454 62.718
7900 0.457 62.564 0.888 -27.186 0.888 -27.186 0.457 62.564
7950 0.459 62.41 0.886 -27.342 0.886 -27.342 0.459 62.41
8000 0.462 62.256 0.885 -27.496 0.885 -27.496 0.462 62.256
8050 0.464 62.103 0.884 -27.651 0.884 -27.651 0.464 62.103
8100 0.466 61.951 0.883 -27.805 0.883 -27.805 0.466 61.951
8150 0.469 61.799 0.881 -27.958 0.881 -27.958 0.469 61.799
8200 0.471 61.647 0.88 -28.111 0.88 -28.111 0.471 61.647
8250 0.474 61.496 0.879 -28.263 0.879 -28.263 0.474 61.496
8300 0.476 61.345 0.878 -28.415 0.878 -28.415 0.476 61.345
8350 0.478 61.195 0.876 -28.567 0.876 -28.567 0.478 61.195
8400 0.48 61.045 0.875 -28.718 0.875 -28.718 0.48 61.045
8450 0.483 60.896 0.874 -28.868 0.874 -28.868 0.483 60.896
8500 0.485 60.747 0.872 -29.018 0.872 -29.018 0.485 60.747
8550 0.487 60.598 0.871 -29.168 0.871 -29.168 0.487 60.598
8600 0.49 60.45 0.87 -29.317 0.87 -29.317 0.49 60.45
8650 0.492 60.303 0.869 -29.465 0.869 -29.465 0.492 60.303
8700 0.494 60.156 0.867 -29.613 0.867 -29.613 0.494 60.156
8750 0.496 60.009 0.866 -29.761 0.866 -29.761 0.496 60.009
8800 0.499 59.863 0.865 -29.908 0.865 -29.908 0.499 59.863
8850 0.501 59.717 0.864 -30.055 0.864 -30.055 0.501 59.717
8900 0.503 59.572 0.862 -30.201 0.862 -30.201 0.503 59.572
8950 0.505 59.427 0.861 -30.347 0.861 -30.347 0.505 59.427
9000 0.507 59.283 0.86 -30.492 0.86 -30.492 0.507 59.283
9050 0.51 59.139 0.858 -30.637 0.858 -30.637 0.51 59.139
9100 0.512 58.996 0.857 -30.781 0.857 -30.781 0.512 58.996
9150 0.514 58.853 0.856 -30.925 0.856 -30.925 0.514 58.853
9200 0.516 58.71 0.855 -31.069 0.855 -31.069 0.516 58.71
9250 0.518 58.568 0.853 -31.212 0.853 -31.212 0.518 58.568
9300 0.52 58.427 0.852 -31.354 0.852 -31.354 0.52 58.427
9350 0.522 58.286 0.851 -31.496 0.851 -31.496 0.522 58.286
9400 0.525 58.145 0.849 -31.638 0.849 -31.638 0.525 58.145
9450 0.527 58.005 0.848 -31.779 0.848 -31.779 0.527 58.005
9500 0.529 57.865 0.847 -31.919 0.847 -31.919 0.529 57.865
9550 0.531 57.726 0.846 -32.06 0.846 -32.06 0.531 57.726
9600 0.533 57.587 0.844 -32.199 0.844 -32.199 0.533 57.587
9650 0.535 57.448 0.843 -32.339 0.843 -32.339 0.535 57.448
9700 0.537 57.31 0.842 -32.478 0.842 -32.478 0.537 57.31
9750 0.539 57.173 0.84 -32.616 0.84 -32.616 0.539 57.173
9800 0.541 57.036 0.839 -32.754 0.839 -32.754 0.541 57.036
9850 0.543 56.899 0.838 -32.891 0.838 -32.891 0.543 56.899
9900 0.545 56.763 0.836 -33.028 0.836 -33.028 0.545 56.763
9950 0.547 56.627 0.835 -33.165 0.835 -33.165 0.547 56.627
10000 0.549 56.492 0.834 -33.301 0.834 -33.301 0.549 56.492
10050 0.551 56.357 0.833 -33.437 0.833 -33.437 0.551 56.357
10100 0.553 56.222 0.831 -33.572 0.831 -33.572 0.553 56.222
10150 0.555 56.088 0.83 -33.707 0.83 -33.707 0.555 56.088
10200 0.557 55.955 0.829 -33.841 0.829 -33.841 0.557 55.955
10250 0.559 55.821 0.827 -33.975 0.827 -33.975 0.559 55.821
10300 0.561 55.689 0.826 -34.109 0.826 -34.109 0.561 55.689
10350 0.563 55.556 0.825 -34.242 0.825 -34.242 0.563 55.556
10400 0.565 55.425 0.823 -34.374 0.823 -34.374 0.565 55.425
10450 0.567 55.293 0.822 -34.506 0.822 -34.506 0.567 55.293
10500 0.568 55.162 0.821 -34.638 0.821 -34.638 0.568 55.162
10550 0.57 55.032 0.819 -34.769 0.819 -34.769 0.57 55.032
10600 0.572 54.901 0.818 -34.9 0.818 -34.9 0.572 54.901
10650 0.574 54.772 0.817 -35.031 0.817 -35.031 0.574 54.772
10700 0.576 54.642 0.816 -35.161 0.816 -35.161 0.576 54.642
10750 0.578 54.514 0.814 -35.29 0.814 -35.29 0.578 54.514
10800 0.58 54.385 0.813 -35.419 0.813 -35.419 0.58 54.385
10850 0.581 54.257 0.812 -35.548 0.812 -35.548 0.581 54.257
10900 0.583 54.13 0.81 -35.676 0.81 -35.676 0.583 54.13
10950 0.585 54.002 0.809 -35.804 0.809 -35.804 0.585 54.002
11000 0.587 53.876 0.808 -35.931 0.808 -35.931 0.587 53.876
11050 0.589 53.749 0.806 -36.058 0.806 -36.058 0.589 53.749
11100 0.59 53.623 0.805 -36.185 0.805 -36.185 0.59 53.623
11150 0.592 53.498 0.804 -36.311 0.804 -36.311 0.592 53.498
11200 0.594 53.373 0.803 -36.437 0.803 -36.437 0.594 53.373
11250 0.596 53.248 0.801 -36.562 0.801 -36.562 0.596 53.248
11300 0.597 53.124 0.8 -36.687 0.8 -36.687 0.597 53.124
11350 0.599 53 0.799 -36.811 0.799 -36.811 0.599 53
11400 0.601 52.877 0.797 -36.935 0.797 -36.935 0.601 52.877
11450 0.603 52.754 0.796 -37.059 0.796 -37.059 0.603 52.754
11500 0.604 52.631 0.795 -37.182 0.795 -37.182 0.604 52.631
11550 0.606 52.509 0.793 -37.305 0.793 -37.305 0.606 52.509
11600 0.608 52.387 0.792 -37.427 0.792 -37.427 0.608 52.387
11650 0.609 52.266 0.791 -37.549 0.791 -37.549 0.609 52.266
11700 0.611 52.145 0.79 -37.671 0.79 -37.671 0.611 52.145
11750 0.613 52.024 0.788 -37.792 0.788 -37.792 0.613 52.024
11800 0.614 51.904 0.787 -37.912 0.787 -37.912 0.614 51.904
11850 0.616 51.784 0.786 -38.033 0.786 -38.033 0.616 51.784
11900 0.618 51.665 0.784 -38.153 0.784 -38.153 0.618 51.665
11950 0.619 51.546 0.783 -38.272 0.783 -38.272 0.619 51.546
12000 0.621 51.428 0.782 -38.391 0.782 -38.391 0.621 51.428
12050 0.623 51.309 0.781 -38.51 0.781 -38.51 0.623 51.309
12100 0.624 51.192 0.779 -38.628 0.779 -38.628 0.624 51.192
12150 0.626 51.074 0.778 -38.746 0.778 -38.746 0.626 51.074
12200 0.627 50.957 0.777 -38.863 0.777 -38.863 0.627 50.957
12250 0.629 50.841 0.775 -38.981 0.775 -38.981 0.629 50.841
12300 0.631 50.725 0.774 -39.097 0.774 -39.097 0.631 50.725
12350 0.632 50.609 0.773 -39.214 0.773 -39.214 0.632 50.609
12400 0.634 50.493 0.772 -39.329 0.772 -39.329 0.634 50.493
12450 0.635 50.378 0.77 -39.445 0.77 -39.445 0.635 50.378
12500 0.637 50.264 0.769 -39.56 0.769 -39.56 0.637 50.264
12550 0.638 50.15 0.768 -39.675 0.768 -39.675 0.638 50.15
12600 0.64 50.036 0.766 -39.789 0.766 -39.789 0.64 50.036
12650 0.641 49.922 0.765 -39.903 0.765 -39.903 0.641 49.922
12700 0.643 49.809 0.764 -40.017 0.764 -40.017 0.643 49.809
12750 0.645 49.696 0.763 -40.13 0.763 -40.13 0.645 49.696
12800 0.646 49.584 0.761 -40.243 0.761 -40.243 0.646 49.584
12850 0.648 49.472 0.76 -40.355 0.76 -40.355 0.648 49.472
12900 0.649 49.361 0.759 -40.467 0.759 -40.467 0.649 49.361
12950 0.65 49.25 0.758 -40.579 0.758 -40.579 0.65 49.25
13000 0.652 49.139 0.756 -40.69 0.756 -40.69 0.652 49.139
13050 0.653 49.028 0.755 -40.801 0.755 -40.801 0.653 49.028
13100 0.655 48.918 0.754 -40.911 0.754 -40.911 0.655 48.918
13150 0.656 48.809 0.753 -41.021 0.753 -41.021 0.656 48.809
13200 0.658 48.699 0.751 -41.131 0.751 -41.131 0.658 48.699
13250 0.659 48.59 0.75 -41.24 0.75 -41.24 0.659 48.59
13300 0.661 48.482 0.749 -41.349 0.749 -41.349 0.661 48.482
13350 0.662 48.374 0.747 -41.458 0.747 -41.458 0.662 48.374
13400 0.663 48.266 0.746 -41.566 0.746 -41.566 0.663 48.266
13450 0.665 48.158 0.745 -41.674 0.745 -41.674 0.665 48.158
13500 0.666 48.051 0.744 -41.782 0.744 -41.782 0.666 48.051
13550 0.668 47.945 0.743 -41.889 0.743 -41.889 0.668 47.945
13600 0.669 47.838 0.741 -41.995 0.741 -41.995 0.669 47.838
13650 0.67 47.732 0.74 -42.102 0.74 -42.102 0.67 47.732
13700 0.672 47.627 0.739 -42.208 0.739 -42.208 0.672 47.627
13750 0.673 47.521 0.738 -42.314 0.738 -42.314 0.673 47.521
13800 0.675 47.416 0.736 -42.419 0.736 -42.419 0.675 47.416
13850 0.676 47.312 0.735 -42.524 0.735 -42.524 0.676 47.312
13900 0.677 47.208 0.734 -42.628 0.734 -42.628 0.677 47.208
13950 0.679 47.104 0.733 -42.733 0.733 -42.733 0.679 47.104
14000 0.68 47 0.731 -42.837 0.731 -42.837 0.68 47
14050 0.681 46.897 0.73 -42.94 0.73 -42.94 0.681 46.897
14100 0.683 46.794 0.729 -43.043 0.729 -43.043 0.683 46.794
14150 0.684 46.692 0.728 -43.146 0.728 -43.146 0.684 46.692
14200 0.685 46.59 0.726 -43.249 0.726 -43.249 0.685 46.59
14250 0.686 46.488 0.725 -43.351 0.725 -43.351 0.686 46.488
14300 0.688 46.387 0.724 -43.453 0.724 -43.453 0.688 46.387
14350 0.689 46.286 0.723 -43.554 0.723 -43.554 0.689 46.286
14400 0.69 46.185 0.722 -43.655 0.722 -43.655 0.69 46.185
14450 0.692 46.084 0.72 -43.756 0.72 -43.756 0.692 46.084
14500 0.693 45.984 0.719 -43.856 0.719 -43.856 0.693 45.984
14550 0.694 45.885 0.718 -43.956 0.718 -43.956 0.694 45.885
14600 0.695 45.785 0.717 -44.056 0.717 -44.056 0.695 45.785
14650 0.697 45.686 0.716 -44.155 0.716 -44.155 0.697 45.686
14700 0.698 45.588 0.714 -44.254 0.714 -44.254 0.698 45.588
14750 0.699 45.489 0.713 -44.353 0.713 -44.353 0.699 45.489
14800 0.7 45.391 0.712 -44.451 0.712 -44.451 0.7 45.391
14850 0.702 45.294 0.711 -44.549 0.711 -44.549 0.702 45.294
14900 0.703 45.196 0.71 -44.647 0.71 -44.647 0.703 45.196
14950 0.704 45.099 0.708 -44.744 0.708 -44.744 0.704 45.099
15000 0.705 45.003 0.707 -44.841 0.707 -44.841 0.705 45.003
15050 0.706 44.906 0.706 -44.938 0.706 -44.938 0.706 44.906
15100 0.708 44.81 0.705 -45.034 0.705 -45.034 0.708 44.81
15150 0.709 44.715 0.704 -45.13 0.704 -45.13 0.709 44.715
15200 0.71 44.619 0.702 -45.226 0.702 -45.226 0.71 44.619
15250 0.711 44.524 0.701 -45.322 0.701 -45.322 0.711 44.524
15300 0.712 44.43 0.7 -45.417 0.7 -45.417 0.712 44.43
15350 0.713 44.335 0.699 -45.511 0.699 -45.511 0.713 44.335
15400 0.715 44.241 0.698 -45.606 0.698 -45.606 0.715 44.241
15450 0.716 44.147 0.697 -45.7 0.697 -45.7 0.716 44.147
15500 0.717 44.054 0.695 -45.794 0.695 -45.794 0.717 44.054
15550 0.718 43.961 0.694 -45.887 0.694 -45.887 0.718 43.961
15600 0.719 43.868 0.693 -45.98 0.693 -45.98 0.719 43.868
15650 0.72 43.775 0.692 -46.073 0.692 -46.073 0.72 43.775
15700 0.721 43.683 0.691 -46.165 0.691 -46.165 0.721 43.683
15750 0.722 43.591 0.69 -46.258 0.69 -46.258 0.722 43.591
15800 0.724 43.5 0.688 -46.349 0.688 -46.349 0.724 43.5
15850 0.725 43.409 0.687 -46.441 0.687 -46.441 0.725 43.409
15900 0.726 43.318 0.686 -46.532 0.686 -46.532 0.726 43.318
15950 0.727 43.227 0.685 -46.623 0.685 -46.623 0.727 43.227
16000 0.728 43.137 0.684 -46.714 0.684 -46.714 0.728 43.137
16050 0.729 43.047 0.683 -46.804 0.683 -46.804 0.729 43.047
16100 0.73 42.957 0.681 -46.894 0.681 -46.894 0.73 42.957
16150 0.731 42.868 0.68 -46.984 0.68 -46.984 0.731 42.868
16200 0.732 42.778 0.679 -47.073 0.679 -47.073 0.732 42.778
16250 0.733 42.69 0.678 -47.162 0.678 -47.162 0.733 42.69
16300 0.734 42.601 0.677 -47.251 0.677 -47.251 0.734 42.601
16350 0.735 42.513 0.676 -47.339 0.676 -47.339 0.735 42.513
16400 0.736 42.425 0.675 -47.428 0.675 -47.428 0.736 42.425
16450 0.737 42.337 0.673 -47.516 0.673 -47.516 0.737 42.337
16500 0.738 42.25 0.672 -47.603 0.672 -47.603 0.738 42.25
16550 0.74 42.163 0.671 -47.69 0.671 -47.69 0.74 42.163
16600 0.741 42.076 0.67 -47.777 0.67 -47.777 0.741 42.076
16650 0.742 41.99 0.669 -47.864 0.669 -47.864 0.742 41.99
16700 0.743 41.904 0.668 -47.951 0.668 -47.951 0.743 41.904
16750 0.744 41.818 0.667 -48.037 0.667 -48.037 0.744 41.818
16800 0.745 41.732 0.666 -48.123 0.666 -48.123 0.745 41.732
16850 0.746 41.647 0.665 -48.208 0.665 -48.208 0.746 41.647
16900 0.747 41.562 0.663 -48.293 0.663 -48.293 0.747 41.562
