! AVX Thin Film Operation		Date: April 2012 
! Description: Accu-P® Series, Thin Film, SMD, RF Capacitor
! Part Number: 12101J2R6QBTTR					
!	100	MHz	-	20.05	GHz			
!	Serial	Measurements						
!								
#	MHZ	S	MA	R	50			
!	S11	S21	S12	S22				
!	dB	Phase	dB	Phase	dB	Phase	dB	Phase
50 0.997 -4.67 0.081 85.254 0.081 85.254 0.997 -4.67
100 0.987 -9.286 0.161 80.62 0.161 80.62 0.987 -9.286
150 0.971 -13.795 0.238 76.093 0.238 76.093 0.971 -13.795
200 0.95 -18.155 0.312 71.714 0.312 71.714 0.95 -18.155
250 0.924 -22.332 0.38 67.518 0.38 67.518 0.924 -22.332
300 0.895 -26.3 0.443 63.531 0.443 63.531 0.895 -26.3
350 0.864 -30.046 0.501 59.765 0.501 59.765 0.864 -30.046
400 0.831 -33.564 0.553 56.228 0.553 56.228 0.831 -33.564
450 0.798 -36.853 0.6 52.919 0.6 52.919 0.798 -36.853
500 0.764 -39.92 0.642 49.832 0.642 49.832 0.764 -39.92
550 0.731 -42.775 0.679 46.956 0.679 46.956 0.731 -42.775
600 0.698 -45.43 0.712 44.281 0.712 44.281 0.698 -45.43
650 0.666 -47.897 0.742 41.792 0.742 41.792 0.666 -47.897
700 0.636 -50.191 0.768 39.476 0.768 39.476 0.636 -50.191
750 0.606 -52.325 0.792 37.319 0.792 37.319 0.606 -52.325
800 0.578 -54.313 0.812 35.308 0.812 35.308 0.578 -54.313
850 0.551 -56.166 0.831 33.43 0.831 33.43 0.551 -56.166
900 0.525 -57.897 0.847 31.675 0.847 31.675 0.525 -57.897
950 0.5 -59.515 0.862 30.03 0.862 30.03 0.5 -59.515
1000 0.477 -61.032 0.875 28.487 0.875 28.487 0.477 -61.032
1050 0.455 -62.455 0.887 27.037 0.887 27.037 0.455 -62.455
1100 0.433 -63.792 0.897 25.67 0.897 25.67 0.433 -63.792
1150 0.413 -65.052 0.907 24.381 0.907 24.381 0.413 -65.052
1200 0.393 -66.24 0.915 23.162 0.915 23.162 0.393 -66.24
1250 0.375 -67.362 0.923 22.007 0.923 22.007 0.375 -67.362
1300 0.357 -68.423 0.93 20.911 0.93 20.911 0.357 -68.423
1350 0.34 -69.429 0.936 19.87 0.936 19.87 0.34 -69.429
1400 0.324 -70.383 0.942 18.878 0.942 18.878 0.324 -70.383
1450 0.308 -71.29 0.947 17.932 0.947 17.932 0.308 -71.29
1500 0.293 -72.151 0.952 17.028 0.952 17.028 0.293 -72.151
1550 0.278 -72.972 0.956 16.163 0.956 16.163 0.278 -72.972
1600 0.264 -73.753 0.96 15.334 0.96 15.334 0.264 -73.753
1650 0.251 -74.498 0.964 14.538 0.964 14.538 0.251 -74.498
1700 0.238 -75.209 0.967 13.774 0.967 13.774 0.238 -75.209
1750 0.226 -75.887 0.97 13.038 0.97 13.038 0.226 -75.887
1800 0.214 -76.534 0.973 12.328 0.973 12.328 0.214 -76.534
1850 0.202 -77.151 0.975 11.644 0.975 11.644 0.202 -77.151
1900 0.191 -77.74 0.977 10.982 0.977 10.982 0.191 -77.74
1950 0.18 -78.3 0.979 10.343 0.979 10.343 0.18 -78.3
2000 0.169 -78.833 0.981 9.724 0.981 9.724 0.169 -78.833
2050 0.159 -79.338 0.983 9.123 0.983 9.123 0.159 -79.338
2100 0.149 -79.815 0.985 8.541 0.985 8.541 0.149 -79.815
2150 0.139 -80.264 0.986 7.975 0.986 7.975 0.139 -80.264
2200 0.129 -80.683 0.987 7.425 0.987 7.425 0.129 -80.683
2250 0.12 -81.071 0.989 6.889 0.989 6.889 0.12 -81.071
2300 0.111 -81.426 0.99 6.368 0.99 6.368 0.111 -81.426
2350 0.102 -81.743 0.991 5.86 0.991 5.86 0.102 -81.743
2400 0.094 -82.017 0.991 5.364 0.991 5.364 0.094 -82.017
2450 0.085 -82.241 0.992 4.88 0.992 4.88 0.085 -82.241
2500 0.077 -82.406 0.993 4.407 0.993 4.407 0.077 -82.406
2550 0.069 -82.495 0.993 3.944 0.993 3.944 0.069 -82.495
2600 0.061 -82.488 0.994 3.492 0.994 3.492 0.061 -82.488
2650 0.053 -82.348 0.994 3.049 0.994 3.049 0.053 -82.348
2700 0.046 -82.022 0.995 2.615 0.995 2.615 0.046 -82.022
2750 0.038 -81.413 0.995 2.189 0.995 2.189 0.038 -81.413
2800 0.031 -80.34 0.995 1.772 0.995 1.772 0.031 -80.34
2850 0.024 -78.422 0.995 1.362 0.995 1.362 0.024 -78.422
2900 0.017 -74.696 0.996 0.96 0.996 0.96 0.017 -74.696
2950 0.011 -65.946 0.996 0.565 0.996 0.565 0.011 -65.946
3000 5.277e-3 -35.538 0.996 0.176 0.996 0.176 5.277e-3 -35.538
3050 5.587e-3 39.717 0.996 -0.205 0.996 -0.205 5.587e-3 39.717
3100 0.011 66.519 0.996 -0.581 0.996 -0.581 0.011 66.519
3150 0.017 74.575 0.996 -0.951 0.996 -0.951 0.017 74.575
3200 0.023 78.112 0.995 -1.315 0.995 -1.315 0.023 78.112
3250 0.03 79.983 0.995 -1.674 0.995 -1.674 0.03 79.983
3300 0.036 81.069 0.995 -2.027 0.995 -2.027 0.036 81.069
3350 0.042 81.726 0.995 -2.376 0.995 -2.376 0.042 81.726
3400 0.048 82.123 0.995 -2.72 0.995 -2.72 0.048 82.123
3450 0.054 82.353 0.994 -3.059 0.994 -3.059 0.054 82.353
3500 0.059 82.47 0.994 -3.393 0.994 -3.393 0.059 82.47
3550 0.065 82.505 0.994 -3.724 0.994 -3.724 0.065 82.505
3600 0.071 82.482 0.993 -4.05 0.993 -4.05 0.071 82.482
3650 0.076 82.415 0.993 -4.372 0.993 -4.372 0.076 82.415
3700 0.082 82.315 0.992 -4.69 0.992 -4.69 0.082 82.315
3750 0.087 82.188 0.992 -5.005 0.992 -5.005 0.087 82.188
3800 0.093 82.041 0.991 -5.316 0.991 -5.316 0.093 82.041
3850 0.098 81.878 0.991 -5.624 0.991 -5.624 0.098 81.878
3900 0.103 81.702 0.99 -5.928 0.99 -5.928 0.103 81.702
3950 0.109 81.516 0.99 -6.229 0.99 -6.229 0.109 81.516
4000 0.114 81.321 0.989 -6.527 0.989 -6.527 0.114 81.321
4050 0.119 81.119 0.989 -6.821 0.989 -6.821 0.119 81.119
4100 0.124 80.912 0.988 -7.113 0.988 -7.113 0.124 80.912
4150 0.129 80.7 0.987 -7.402 0.987 -7.402 0.129 80.7
4200 0.134 80.484 0.987 -7.689 0.987 -7.689 0.134 80.484
4250 0.139 80.266 0.986 -7.972 0.986 -7.972 0.139 80.266
4300 0.144 80.045 0.985 -8.253 0.985 -8.253 0.144 80.045
4350 0.148 79.822 0.985 -8.531 0.985 -8.531 0.148 79.822
4400 0.153 79.598 0.984 -8.807 0.984 -8.807 0.153 79.598
4450 0.158 79.373 0.983 -9.081 0.983 -9.081 0.158 79.373
4500 0.163 79.147 0.982 -9.352 0.982 -9.352 0.163 79.147
4550 0.167 78.92 0.982 -9.621 0.982 -9.621 0.167 78.92
4600 0.172 78.693 0.981 -9.887 0.981 -9.887 0.172 78.693
4650 0.176 78.466 0.98 -10.152 0.98 -10.152 0.176 78.466
4700 0.181 78.238 0.979 -10.414 0.979 -10.414 0.181 78.238
4750 0.185 78.011 0.978 -10.674 0.978 -10.674 0.185 78.011
4800 0.19 77.784 0.978 -10.932 0.978 -10.932 0.19 77.784
4850 0.194 77.557 0.977 -11.189 0.977 -11.189 0.194 77.557
4900 0.198 77.331 0.976 -11.443 0.976 -11.443 0.198 77.331
4950 0.203 77.105 0.975 -11.695 0.975 -11.695 0.203 77.105
5000 0.207 76.88 0.974 -11.946 0.974 -11.946 0.207 76.88
5050 0.211 76.655 0.973 -12.195 0.973 -12.195 0.211 76.655
5100 0.215 76.431 0.972 -12.442 0.972 -12.442 0.215 76.431
5150 0.22 76.208 0.971 -12.687 0.971 -12.687 0.22 76.208
5200 0.224 75.985 0.97 -12.931 0.97 -12.931 0.224 75.985
5250 0.228 75.763 0.969 -13.173 0.969 -13.173 0.228 75.763
5300 0.232 75.542 0.968 -13.413 0.968 -13.413 0.232 75.542
5350 0.236 75.322 0.968 -13.652 0.968 -13.652 0.236 75.322
5400 0.24 75.102 0.967 -13.889 0.967 -13.889 0.24 75.102
5450 0.244 74.883 0.966 -14.125 0.966 -14.125 0.244 74.883
5500 0.248 74.666 0.965 -14.359 0.965 -14.359 0.248 74.666
5550 0.252 74.449 0.964 -14.592 0.964 -14.592 0.252 74.449
5600 0.256 74.233 0.963 -14.823 0.963 -14.823 0.256 74.233
5650 0.26 74.017 0.961 -15.053 0.961 -15.053 0.26 74.017
5700 0.264 73.803 0.96 -15.281 0.96 -15.281 0.264 73.803
5750 0.267 73.589 0.959 -15.508 0.959 -15.508 0.267 73.589
5800 0.271 73.377 0.958 -15.734 0.958 -15.734 0.271 73.377
5850 0.275 73.165 0.957 -15.958 0.957 -15.958 0.275 73.165
5900 0.279 72.954 0.956 -16.181 0.956 -16.181 0.279 72.954
5950 0.282 72.744 0.955 -16.403 0.955 -16.403 0.282 72.744
6000 0.286 72.535 0.954 -16.624 0.954 -16.624 0.286 72.535
6050 0.29 72.327 0.953 -16.843 0.953 -16.843 0.29 72.327
6100 0.293 72.12 0.952 -17.061 0.952 -17.061 0.293 72.12
6150 0.297 71.913 0.951 -17.278 0.951 -17.278 0.297 71.913
6200 0.301 71.708 0.95 -17.494 0.95 -17.494 0.301 71.708
6250 0.304 71.503 0.948 -17.708 0.948 -17.708 0.304 71.503
6300 0.308 71.299 0.947 -17.921 0.947 -17.921 0.308 71.299
6350 0.311 71.097 0.946 -18.134 0.946 -18.134 0.311 71.097
6400 0.315 70.895 0.945 -18.345 0.945 -18.345 0.315 70.895
6450 0.318 70.693 0.944 -18.555 0.944 -18.555 0.318 70.693
6500 0.322 70.493 0.943 -18.763 0.943 -18.763 0.322 70.493
6550 0.325 70.294 0.942 -18.971 0.942 -18.971 0.325 70.294
6600 0.329 70.095 0.94 -19.178 0.94 -19.178 0.329 70.095
6650 0.332 69.897 0.939 -19.383 0.939 -19.383 0.332 69.897
6700 0.335 69.701 0.938 -19.588 0.938 -19.588 0.335 69.701
6750 0.339 69.505 0.937 -19.792 0.937 -19.792 0.339 69.505
6800 0.342 69.309 0.936 -19.994 0.936 -19.994 0.342 69.309
6850 0.345 69.115 0.934 -20.196 0.934 -20.196 0.345 69.115
6900 0.349 68.921 0.933 -20.396 0.933 -20.396 0.349 68.921
6950 0.352 68.729 0.932 -20.596 0.932 -20.596 0.352 68.729
7000 0.355 68.537 0.931 -20.794 0.931 -20.794 0.355 68.537
7050 0.358 68.346 0.929 -20.992 0.929 -20.992 0.358 68.346
7100 0.361 68.155 0.928 -21.188 0.928 -21.188 0.361 68.155
7150 0.365 67.966 0.927 -21.384 0.927 -21.384 0.365 67.966
7200 0.368 67.777 0.926 -21.579 0.926 -21.579 0.368 67.777
7250 0.371 67.589 0.925 -21.773 0.925 -21.773 0.371 67.589
7300 0.374 67.402 0.923 -21.965 0.923 -21.965 0.374 67.402
7350 0.377 67.216 0.922 -22.157 0.922 -22.157 0.377 67.216
7400 0.38 67.03 0.921 -22.348 0.921 -22.348 0.38 67.03
7450 0.383 66.846 0.92 -22.539 0.92 -22.539 0.383 66.846
7500 0.386 66.662 0.918 -22.728 0.918 -22.728 0.386 66.662
7550 0.389 66.479 0.917 -22.916 0.917 -22.916 0.389 66.479
7600 0.392 66.296 0.916 -23.104 0.916 -23.104 0.392 66.296
7650 0.395 66.114 0.914 -23.291 0.914 -23.291 0.395 66.114
7700 0.398 65.933 0.913 -23.477 0.913 -23.477 0.398 65.933
7750 0.401 65.753 0.912 -23.662 0.912 -23.662 0.401 65.753
7800 0.404 65.574 0.911 -23.846 0.911 -23.846 0.404 65.574
7850 0.407 65.395 0.909 -24.029 0.909 -24.029 0.407 65.395
7900 0.41 65.217 0.908 -24.212 0.908 -24.212 0.41 65.217
7950 0.413 65.04 0.907 -24.393 0.907 -24.393 0.413 65.04
8000 0.416 64.863 0.905 -24.574 0.905 -24.574 0.416 64.863
8050 0.419 64.687 0.904 -24.754 0.904 -24.754 0.419 64.687
8100 0.422 64.512 0.903 -24.934 0.903 -24.934 0.422 64.512
8150 0.424 64.338 0.901 -25.112 0.901 -25.112 0.424 64.338
8200 0.427 64.164 0.9 -25.29 0.9 -25.29 0.427 64.164
8250 0.43 63.991 0.899 -25.467 0.899 -25.467 0.43 63.991
8300 0.433 63.819 0.897 -25.643 0.897 -25.643 0.433 63.819
8350 0.436 63.648 0.896 -25.818 0.896 -25.818 0.436 63.648
8400 0.438 63.477 0.895 -25.993 0.895 -25.993 0.438 63.477
8450 0.441 63.307 0.893 -26.167 0.893 -26.167 0.441 63.307
8500 0.444 63.137 0.892 -26.34 0.892 -26.34 0.444 63.137
8550 0.446 62.968 0.891 -26.512 0.891 -26.512 0.446 62.968
8600 0.449 62.8 0.889 -26.684 0.889 -26.684 0.449 62.8
8650 0.452 62.633 0.888 -26.855 0.888 -26.855 0.452 62.633
8700 0.454 62.466 0.887 -27.025 0.887 -27.025 0.454 62.466
8750 0.457 62.3 0.885 -27.195 0.885 -27.195 0.457 62.3
8800 0.46 62.135 0.884 -27.363 0.884 -27.363 0.46 62.135
8850 0.462 61.97 0.883 -27.531 0.883 -27.531 0.462 61.97
8900 0.465 61.806 0.881 -27.699 0.881 -27.699 0.465 61.806
8950 0.467 61.642 0.88 -27.865 0.88 -27.865 0.467 61.642
9000 0.47 61.479 0.879 -28.031 0.879 -28.031 0.47 61.479
9050 0.473 61.317 0.877 -28.196 0.877 -28.196 0.473 61.317
9100 0.475 61.156 0.876 -28.361 0.876 -28.361 0.475 61.156
9150 0.478 60.995 0.875 -28.525 0.875 -28.525 0.478 60.995
9200 0.48 60.835 0.873 -28.688 0.873 -28.688 0.48 60.835
9250 0.483 60.675 0.872 -28.85 0.872 -28.85 0.483 60.675
9300 0.485 60.516 0.871 -29.012 0.871 -29.012 0.485 60.516
9350 0.487 60.358 0.869 -29.173 0.869 -29.173 0.487 60.358
9400 0.49 60.2 0.868 -29.334 0.868 -29.334 0.49 60.2
9450 0.492 60.043 0.866 -29.493 0.866 -29.493 0.492 60.043
9500 0.495 59.887 0.865 -29.653 0.865 -29.653 0.495 59.887
9550 0.497 59.731 0.864 -29.811 0.864 -29.811 0.497 59.731
9600 0.5 59.576 0.862 -29.969 0.862 -29.969 0.5 59.576
9650 0.502 59.421 0.861 -30.126 0.861 -30.126 0.502 59.421
9700 0.504 59.267 0.86 -30.282 0.86 -30.282 0.504 59.267
9750 0.507 59.114 0.858 -30.438 0.858 -30.438 0.507 59.114
9800 0.509 58.961 0.857 -30.594 0.857 -30.594 0.509 58.961
9850 0.511 58.809 0.855 -30.748 0.855 -30.748 0.511 58.809
9900 0.514 58.657 0.854 -30.902 0.854 -30.902 0.514 58.657
9950 0.516 58.506 0.853 -31.056 0.853 -31.056 0.516 58.506
10000 0.518 58.356 0.851 -31.208 0.851 -31.208 0.518 58.356
10050 0.52 58.206 0.85 -31.36 0.85 -31.36 0.52 58.206
10100 0.523 58.057 0.849 -31.512 0.849 -31.512 0.523 58.057
10150 0.525 57.908 0.847 -31.663 0.847 -31.663 0.525 57.908
10200 0.527 57.76 0.846 -31.813 0.846 -31.813 0.527 57.76
10250 0.529 57.613 0.844 -31.963 0.844 -31.963 0.529 57.613
10300 0.532 57.466 0.843 -32.112 0.843 -32.112 0.532 57.466
10350 0.534 57.32 0.842 -32.26 0.842 -32.26 0.534 57.32
10400 0.536 57.174 0.84 -32.408 0.84 -32.408 0.536 57.174
10450 0.538 57.029 0.839 -32.555 0.839 -32.555 0.538 57.029
10500 0.54 56.884 0.838 -32.702 0.838 -32.702 0.54 56.884
10550 0.542 56.74 0.836 -32.848 0.836 -32.848 0.542 56.74
10600 0.545 56.597 0.835 -32.994 0.835 -32.994 0.545 56.597
10650 0.547 56.454 0.833 -33.139 0.833 -33.139 0.547 56.454
10700 0.549 56.311 0.832 -33.283 0.832 -33.283 0.549 56.311
10750 0.551 56.169 0.831 -33.427 0.831 -33.427 0.551 56.169
10800 0.553 56.028 0.829 -33.57 0.829 -33.57 0.553 56.028
10850 0.555 55.887 0.828 -33.712 0.828 -33.712 0.555 55.887
10900 0.557 55.747 0.827 -33.855 0.827 -33.855 0.557 55.747
10950 0.559 55.608 0.825 -33.996 0.825 -33.996 0.559 55.608
11000 0.561 55.469 0.824 -34.137 0.824 -34.137 0.561 55.469
11050 0.563 55.33 0.822 -34.277 0.822 -34.277 0.563 55.33
11100 0.565 55.192 0.821 -34.417 0.821 -34.417 0.565 55.192
11150 0.567 55.054 0.82 -34.556 0.82 -34.556 0.567 55.054
11200 0.569 54.917 0.818 -34.695 0.818 -34.695 0.569 54.917
11250 0.571 54.781 0.817 -34.833 0.817 -34.833 0.571 54.781
11300 0.573 54.645 0.816 -34.971 0.816 -34.971 0.573 54.645
11350 0.575 54.51 0.814 -35.108 0.814 -35.108 0.575 54.51
11400 0.577 54.375 0.813 -35.245 0.813 -35.245 0.577 54.375
11450 0.579 54.241 0.811 -35.381 0.811 -35.381 0.579 54.241
11500 0.581 54.107 0.81 -35.516 0.81 -35.516 0.581 54.107
11550 0.583 53.973 0.809 -35.651 0.809 -35.651 0.583 53.973
11600 0.585 53.841 0.807 -35.785 0.807 -35.785 0.585 53.841
11650 0.587 53.708 0.806 -35.919 0.806 -35.919 0.587 53.708
11700 0.589 53.577 0.805 -36.053 0.805 -36.053 0.589 53.577
11750 0.59 53.445 0.803 -36.185 0.803 -36.185 0.59 53.445
11800 0.592 53.315 0.802 -36.318 0.802 -36.318 0.592 53.315
11850 0.594 53.184 0.801 -36.449 0.801 -36.449 0.594 53.184
11900 0.596 53.055 0.799 -36.581 0.799 -36.581 0.596 53.055
11950 0.598 52.925 0.798 -36.711 0.798 -36.711 0.598 52.925
12000 0.6 52.797 0.797 -36.842 0.797 -36.842 0.6 52.797
12050 0.601 52.668 0.795 -36.971 0.795 -36.971 0.601 52.668
12100 0.603 52.54 0.794 -37.101 0.794 -37.101 0.603 52.54
12150 0.605 52.413 0.792 -37.229 0.792 -37.229 0.605 52.413
12200 0.607 52.286 0.791 -37.358 0.791 -37.358 0.607 52.286
12250 0.609 52.16 0.79 -37.485 0.79 -37.485 0.609 52.16
12300 0.61 52.034 0.788 -37.613 0.788 -37.613 0.61 52.034
12350 0.612 51.909 0.787 -37.739 0.787 -37.739 0.612 51.909
12400 0.614 51.784 0.786 -37.866 0.786 -37.866 0.614 51.784
12450 0.616 51.659 0.784 -37.991 0.784 -37.991 0.616 51.659
12500 0.617 51.536 0.783 -38.117 0.783 -38.117 0.617 51.536
12550 0.619 51.412 0.782 -38.242 0.782 -38.242 0.619 51.412
12600 0.621 51.289 0.78 -38.366 0.78 -38.366 0.621 51.289
12650 0.622 51.167 0.779 -38.49 0.779 -38.49 0.622 51.167
12700 0.624 51.044 0.778 -38.613 0.778 -38.613 0.624 51.044
12750 0.626 50.923 0.776 -38.736 0.776 -38.736 0.626 50.923
12800 0.627 50.802 0.775 -38.858 0.775 -38.858 0.627 50.802
12850 0.629 50.681 0.774 -38.98 0.774 -38.98 0.629 50.681
12900 0.631 50.561 0.772 -39.102 0.772 -39.102 0.631 50.561
12950 0.632 50.441 0.771 -39.223 0.771 -39.223 0.632 50.441
13000 0.634 50.322 0.77 -39.343 0.77 -39.343 0.634 50.322
13050 0.636 50.203 0.768 -39.463 0.768 -39.463 0.636 50.203
13100 0.637 50.084 0.767 -39.583 0.767 -39.583 0.637 50.084
13150 0.639 49.966 0.766 -39.702 0.766 -39.702 0.639 49.966
13200 0.64 49.849 0.764 -39.821 0.764 -39.821 0.64 49.849
13250 0.642 49.732 0.763 -39.939 0.763 -39.939 0.642 49.732
13300 0.644 49.615 0.762 -40.057 0.762 -40.057 0.644 49.615
13350 0.645 49.499 0.76 -40.174 0.76 -40.174 0.645 49.499
13400 0.647 49.383 0.759 -40.291 0.759 -40.291 0.647 49.383
13450 0.648 49.268 0.758 -40.408 0.758 -40.408 0.648 49.268
13500 0.65 49.153 0.756 -40.524 0.756 -40.524 0.65 49.153
13550 0.651 49.039 0.755 -40.639 0.755 -40.639 0.651 49.039
13600 0.653 48.925 0.754 -40.754 0.754 -40.754 0.653 48.925
13650 0.654 48.811 0.753 -40.869 0.753 -40.869 0.654 48.811
13700 0.656 48.698 0.751 -40.983 0.751 -40.983 0.656 48.698
13750 0.657 48.585 0.75 -41.097 0.75 -41.097 0.657 48.585
13800 0.659 48.473 0.749 -41.21 0.749 -41.21 0.659 48.473
13850 0.66 48.361 0.747 -41.323 0.747 -41.323 0.66 48.361
13900 0.662 48.249 0.746 -41.436 0.746 -41.436 0.662 48.249
13950 0.663 48.138 0.745 -41.548 0.745 -41.548 0.663 48.138
14000 0.665 48.028 0.743 -41.66 0.743 -41.66 0.665 48.028
14050 0.666 47.917 0.742 -41.771 0.742 -41.771 0.666 47.917
14100 0.668 47.808 0.741 -41.882 0.741 -41.882 0.668 47.808
14150 0.669 47.698 0.74 -41.992 0.74 -41.992 0.669 47.698
14200 0.67 47.589 0.738 -42.102 0.738 -42.102 0.67 47.589
14250 0.672 47.48 0.737 -42.212 0.737 -42.212 0.672 47.48
14300 0.673 47.372 0.736 -42.321 0.736 -42.321 0.673 47.372
14350 0.675 47.264 0.735 -42.43 0.735 -42.43 0.675 47.264
14400 0.676 47.157 0.733 -42.538 0.733 -42.538 0.676 47.157
14450 0.677 47.05 0.732 -42.646 0.732 -42.646 0.677 47.05
14500 0.679 46.944 0.731 -42.754 0.731 -42.754 0.679 46.944
14550 0.68 46.837 0.729 -42.861 0.729 -42.861 0.68 46.837
14600 0.682 46.731 0.728 -42.967 0.728 -42.967 0.682 46.731
14650 0.683 46.626 0.727 -43.074 0.727 -43.074 0.683 46.626
14700 0.684 46.521 0.726 -43.18 0.726 -43.18 0.684 46.521
14750 0.686 46.416 0.724 -43.285 0.724 -43.285 0.686 46.416
14800 0.687 46.312 0.723 -43.39 0.723 -43.39 0.687 46.312
14850 0.688 46.208 0.722 -43.495 0.722 -43.495 0.688 46.208
14900 0.69 46.105 0.721 -43.6 0.721 -43.6 0.69 46.105
14950 0.691 46.002 0.719 -43.704 0.719 -43.704 0.691 46.002
15000 0.692 45.899 0.718 -43.807 0.718 -43.807 0.692 45.899
15050 0.694 45.797 0.717 -43.91 0.717 -43.91 0.694 45.797
15100 0.695 45.695 0.716 -44.013 0.716 -44.013 0.695 45.695
15150 0.696 45.593 0.714 -44.116 0.714 -44.116 0.696 45.593
15200 0.697 45.492 0.713 -44.218 0.713 -44.218 0.697 45.492
15250 0.699 45.391 0.712 -44.319 0.712 -44.319 0.699 45.391
15300 0.7 45.291 0.711 -44.421 0.711 -44.421 0.7 45.291
15350 0.701 45.191 0.709 -44.522 0.709 -44.522 0.701 45.191
15400 0.702 45.091 0.708 -44.622 0.708 -44.622 0.702 45.091
15450 0.704 44.991 0.707 -44.722 0.707 -44.722 0.704 44.991
15500 0.705 44.892 0.706 -44.822 0.706 -44.822 0.705 44.892
15550 0.706 44.794 0.705 -44.922 0.705 -44.922 0.706 44.794
15600 0.707 44.696 0.703 -45.021 0.703 -45.021 0.707 44.696
15650 0.709 44.598 0.702 -45.119 0.702 -45.119 0.709 44.598
15700 0.71 44.5 0.701 -45.218 0.701 -45.218 0.71 44.5
15750 0.711 44.403 0.7 -45.316 0.7 -45.316 0.711 44.403
15800 0.712 44.306 0.698 -45.413 0.698 -45.413 0.712 44.306
15850 0.713 44.21 0.697 -45.511 0.697 -45.511 0.713 44.21
15900 0.715 44.113 0.696 -45.607 0.696 -45.607 0.715 44.113
15950 0.716 44.018 0.695 -45.704 0.695 -45.704 0.716 44.018
16000 0.717 43.922 0.694 -45.8 0.694 -45.8 0.717 43.922
16050 0.718 43.827 0.692 -45.896 0.692 -45.896 0.718 43.827
16100 0.719 43.732 0.691 -45.992 0.691 -45.992 0.719 43.732
16150 0.72 43.638 0.69 -46.087 0.69 -46.087 0.72 43.638
16200 0.722 43.544 0.689 -46.182 0.689 -46.182 0.722 43.544
16250 0.723 43.45 0.688 -46.276 0.688 -46.276 0.723 43.45
16300 0.724 43.357 0.687 -46.37 0.687 -46.37 0.724 43.357
16350 0.725 43.264 0.685 -46.464 0.685 -46.464 0.725 43.264
16400 0.726 43.171 0.684 -46.557 0.684 -46.557 0.726 43.171
16450 0.727 43.079 0.683 -46.65 0.683 -46.65 0.727 43.079
16500 0.728 42.987 0.682 -46.743 0.682 -46.743 0.728 42.987
16550 0.729 42.895 0.681 -46.836 0.681 -46.836 0.729 42.895
16600 0.73 42.803 0.679 -46.928 0.679 -46.928 0.73 42.803
16650 0.732 42.712 0.678 -47.019 0.678 -47.019 0.732 42.712
16700 0.733 42.622 0.677 -47.111 0.677 -47.111 0.733 42.622
16750 0.734 42.531 0.676 -47.202 0.676 -47.202 0.734 42.531
16800 0.735 42.441 0.675 -47.293 0.675 -47.293 0.735 42.441
16850 0.736 42.351 0.674 -47.383 0.674 -47.383 0.736 42.351
16900 0.737 42.262 0.673 -47.473 0.673 -47.473 0.737 42.262
