! AVX Thin Film Operation		Date: April 2012 
! Description: Accu-P® Series, Thin Film, SMD, RF Capacitor
! Part Number: 12101J1R7PBTTR					
!	100	MHz	-	20.05	GHz			
!	Serial	Measurements						
!								
#	MHZ	S	MA	R	50			
!	S11	S21	S12	S22				
!	dB	Phase	dB	Phase	dB	Phase	dB	Phase
50 0.999 -3.057 0.053 86.872 0.053 86.872 0.999 -3.057
100 0.994 -6.1 0.106 83.816 0.106 83.816 0.994 -6.1
150 0.987 -9.115 0.158 80.788 0.158 80.788 0.987 -9.115
200 0.977 -12.087 0.209 77.802 0.209 77.802 0.977 -12.087
250 0.965 -15.007 0.259 74.869 0.259 74.869 0.965 -15.007
300 0.951 -17.862 0.307 72 0.307 72 0.951 -17.862
350 0.935 -20.645 0.353 69.204 0.353 69.204 0.935 -20.645
400 0.917 -23.348 0.396 66.487 0.396 66.487 0.917 -23.348
450 0.898 -25.965 0.438 63.856 0.438 63.856 0.898 -25.965
500 0.877 -28.493 0.477 61.314 0.477 61.314 0.877 -28.493
550 0.856 -30.928 0.514 58.864 0.514 58.864 0.856 -30.928
600 0.834 -33.271 0.549 56.507 0.549 56.507 0.834 -33.271
650 0.812 -35.519 0.581 54.243 0.581 54.243 0.812 -35.519
700 0.789 -37.676 0.611 52.072 0.611 52.072 0.789 -37.676
750 0.766 -39.741 0.639 49.991 0.639 49.991 0.766 -39.741
800 0.743 -41.719 0.665 47.998 0.665 47.998 0.743 -41.719
850 0.72 -43.61 0.69 46.091 0.69 46.091 0.72 -43.61
900 0.698 -45.419 0.712 44.265 0.712 44.265 0.698 -45.419
950 0.676 -47.149 0.733 42.519 0.733 42.519 0.676 -47.149
1000 0.654 -48.803 0.752 40.848 0.752 40.848 0.654 -48.803
1050 0.633 -50.384 0.77 39.249 0.77 39.249 0.633 -50.384
1100 0.612 -51.898 0.787 37.717 0.787 37.717 0.612 -51.898
1150 0.591 -53.346 0.802 36.251 0.802 36.251 0.591 -53.346
1200 0.571 -54.732 0.816 34.846 0.816 34.846 0.571 -54.732
1250 0.552 -56.06 0.83 33.498 0.83 33.498 0.552 -56.06
1300 0.533 -57.333 0.842 32.205 0.842 32.205 0.533 -57.333
1350 0.515 -58.553 0.853 30.964 0.853 30.964 0.515 -58.553
1400 0.497 -59.724 0.864 29.772 0.864 29.772 0.497 -59.724
1450 0.479 -60.849 0.873 28.625 0.873 28.625 0.479 -60.849
1500 0.462 -61.929 0.882 27.522 0.882 27.522 0.462 -61.929
1550 0.446 -62.968 0.891 26.459 0.891 26.459 0.446 -62.968
1600 0.43 -63.967 0.899 25.435 0.899 25.435 0.43 -63.967
1650 0.414 -64.929 0.906 24.447 0.906 24.447 0.414 -64.929
1700 0.399 -65.856 0.913 23.494 0.913 23.494 0.399 -65.856
1750 0.384 -66.749 0.919 22.572 0.919 22.572 0.384 -66.749
1800 0.369 -67.61 0.925 21.682 0.925 21.682 0.369 -67.61
1850 0.355 -68.441 0.93 20.82 0.93 20.82 0.355 -68.441
1900 0.342 -69.244 0.935 19.985 0.935 19.985 0.342 -69.244
1950 0.329 -70.019 0.94 19.177 0.94 19.177 0.329 -70.019
2000 0.316 -70.768 0.944 18.392 0.944 18.392 0.316 -70.768
2050 0.303 -71.492 0.948 17.631 0.948 17.631 0.303 -71.492
2100 0.291 -72.191 0.952 16.892 0.952 16.892 0.291 -72.191
2150 0.279 -72.868 0.956 16.173 0.956 16.173 0.279 -72.868
2200 0.267 -73.523 0.959 15.474 0.959 15.474 0.267 -73.523
2250 0.255 -74.156 0.962 14.794 0.962 14.794 0.255 -74.156
2300 0.244 -74.769 0.965 14.131 0.965 14.131 0.244 -74.769
2350 0.233 -75.361 0.968 13.485 0.968 13.485 0.233 -75.361
2400 0.223 -75.933 0.97 12.856 0.97 12.856 0.223 -75.933
2450 0.212 -76.486 0.973 12.241 0.973 12.241 0.212 -76.486
2500 0.202 -77.019 0.975 11.642 0.975 11.642 0.202 -77.019
2550 0.192 -77.534 0.977 11.056 0.977 11.056 0.192 -77.534
2600 0.182 -78.029 0.979 10.483 0.979 10.483 0.182 -78.029
2650 0.172 -78.504 0.98 9.923 0.98 9.923 0.172 -78.504
2700 0.163 -78.96 0.982 9.374 0.982 9.374 0.163 -78.96
2750 0.154 -79.394 0.983 8.838 0.983 8.838 0.154 -79.394
2800 0.145 -79.808 0.985 8.312 0.985 8.312 0.145 -79.808
2850 0.136 -80.198 0.986 7.797 0.986 7.797 0.136 -80.198
2900 0.127 -80.564 0.987 7.292 0.987 7.292 0.127 -80.564
2950 0.118 -80.902 0.988 6.797 0.988 6.797 0.118 -80.902
3000 0.11 -81.211 0.989 6.31 0.989 6.31 0.11 -81.211
3050 0.102 -81.485 0.99 5.833 0.99 5.833 0.102 -81.485
3100 0.094 -81.719 0.991 5.364 0.991 5.364 0.094 -81.719
3150 0.086 -81.906 0.992 4.904 0.992 4.904 0.086 -81.906
3200 0.078 -82.034 0.992 4.451 0.992 4.451 0.078 -82.034
3250 0.07 -82.089 0.993 4.006 0.993 4.006 0.07 -82.089
3300 0.062 -82.049 0.993 3.568 0.993 3.568 0.062 -82.049
3350 0.055 -81.88 0.994 3.137 0.994 3.137 0.055 -81.88
3400 0.048 -81.53 0.994 2.713 0.994 2.713 0.048 -81.53
3450 0.04 -80.908 0.994 2.295 0.994 2.295 0.04 -80.908
3500 0.033 -79.853 0.995 1.884 0.995 1.884 0.033 -79.853
3550 0.026 -78.036 0.995 1.478 0.995 1.478 0.026 -78.036
3600 0.019 -74.687 0.995 1.078 0.995 1.078 0.019 -74.687
3650 0.013 -67.527 0.995 0.684 0.995 0.684 0.013 -67.527
3700 7.033e-3 -46.943 0.995 0.296 0.995 0.296 7.033e-3 -46.943
3750 5.013e-3 17.643 0.995 -0.087 0.995 -0.087 5.013e-3 17.643
3800 9.428e-3 59.103 0.995 -0.466 0.995 -0.466 9.428e-3 59.103
3850 0.015 71.102 0.995 -0.839 0.995 -0.839 0.015 71.102
3900 0.022 76.029 0.995 -1.208 0.995 -1.208 0.022 76.029
3950 0.028 78.554 0.995 -1.572 0.995 -1.572 0.028 78.554
4000 0.034 80.007 0.995 -1.931 0.995 -1.931 0.034 80.007
4050 0.04 80.891 0.994 -2.287 0.994 -2.287 0.04 80.891
4100 0.046 81.442 0.994 -2.638 0.994 -2.638 0.046 81.442
4150 0.052 81.779 0.994 -2.985 0.994 -2.985 0.052 81.779
4200 0.058 81.974 0.994 -3.328 0.994 -3.328 0.058 81.974
4250 0.064 82.068 0.993 -3.667 0.993 -3.667 0.064 82.068
4300 0.07 82.089 0.993 -4.003 0.993 -4.003 0.07 82.089
4350 0.076 82.056 0.992 -4.334 0.992 -4.334 0.076 82.056
4400 0.081 81.982 0.992 -4.663 0.992 -4.663 0.081 81.982
4450 0.087 81.875 0.991 -4.988 0.991 -4.988 0.087 81.875
4500 0.093 81.744 0.991 -5.309 0.991 -5.309 0.093 81.744
4550 0.098 81.592 0.99 -5.628 0.99 -5.628 0.098 81.592
4600 0.104 81.425 0.99 -5.943 0.99 -5.943 0.104 81.425
4650 0.109 81.244 0.989 -6.255 0.989 -6.255 0.109 81.244
4700 0.114 81.053 0.989 -6.565 0.989 -6.565 0.114 81.053
4750 0.12 80.853 0.988 -6.871 0.988 -6.871 0.12 80.853
4800 0.125 80.646 0.987 -7.174 0.987 -7.174 0.125 80.646
4850 0.13 80.433 0.987 -7.475 0.987 -7.475 0.13 80.433
4900 0.135 80.216 0.986 -7.773 0.986 -7.773 0.135 80.216
4950 0.14 79.994 0.985 -8.068 0.985 -8.068 0.14 79.994
5000 0.145 79.77 0.985 -8.361 0.985 -8.361 0.145 79.77
5050 0.15 79.543 0.984 -8.651 0.984 -8.651 0.15 79.543
5100 0.155 79.313 0.983 -8.939 0.983 -8.939 0.155 79.313
5150 0.16 79.083 0.982 -9.224 0.982 -9.224 0.16 79.083
5200 0.165 78.85 0.982 -9.507 0.982 -9.507 0.165 78.85
5250 0.17 78.617 0.981 -9.788 0.981 -9.788 0.17 78.617
5300 0.175 78.383 0.98 -10.066 0.98 -10.066 0.175 78.383
5350 0.18 78.149 0.979 -10.342 0.979 -10.342 0.18 78.149
5400 0.184 77.914 0.978 -10.616 0.978 -10.616 0.184 77.914
5450 0.189 77.679 0.977 -10.888 0.977 -10.888 0.189 77.679
5500 0.194 77.445 0.976 -11.158 0.976 -11.158 0.194 77.445
5550 0.198 77.21 0.975 -11.425 0.975 -11.425 0.198 77.21
5600 0.203 76.976 0.975 -11.691 0.975 -11.691 0.203 76.976
5650 0.207 76.742 0.974 -11.955 0.974 -11.955 0.207 76.742
5700 0.212 76.508 0.973 -12.217 0.973 -12.217 0.212 76.508
5750 0.216 76.275 0.972 -12.477 0.972 -12.477 0.216 76.275
5800 0.22 76.043 0.971 -12.735 0.971 -12.735 0.22 76.043
5850 0.225 75.811 0.97 -12.991 0.97 -12.991 0.225 75.811
5900 0.229 75.58 0.969 -13.245 0.969 -13.245 0.229 75.58
5950 0.233 75.349 0.968 -13.498 0.968 -13.498 0.233 75.349
6000 0.238 75.12 0.967 -13.749 0.967 -13.749 0.238 75.12
6050 0.242 74.891 0.966 -13.998 0.966 -13.998 0.242 74.891
6100 0.246 74.663 0.965 -14.246 0.965 -14.246 0.246 74.663
6150 0.25 74.436 0.963 -14.492 0.963 -14.492 0.25 74.436
6200 0.254 74.21 0.962 -14.736 0.962 -14.736 0.254 74.21
6250 0.259 73.984 0.961 -14.979 0.961 -14.979 0.259 73.984
6300 0.263 73.76 0.96 -15.22 0.96 -15.22 0.263 73.76
6350 0.267 73.536 0.959 -15.46 0.959 -15.46 0.267 73.536
6400 0.271 73.314 0.958 -15.698 0.958 -15.698 0.271 73.314
6450 0.275 73.092 0.957 -15.934 0.957 -15.934 0.275 73.092
6500 0.279 72.872 0.956 -16.169 0.956 -16.169 0.279 72.872
6550 0.282 72.652 0.955 -16.403 0.955 -16.403 0.282 72.652
6600 0.286 72.433 0.953 -16.635 0.953 -16.635 0.286 72.433
6650 0.29 72.215 0.952 -16.866 0.952 -16.866 0.29 72.215
6700 0.294 71.999 0.951 -17.096 0.951 -17.096 0.294 71.999
6750 0.298 71.783 0.95 -17.324 0.95 -17.324 0.298 71.783
6800 0.302 71.568 0.949 -17.55 0.949 -17.55 0.302 71.568
6850 0.305 71.354 0.948 -17.776 0.948 -17.776 0.305 71.354
6900 0.309 71.141 0.946 -18 0.946 -18 0.309 71.141
6950 0.313 70.929 0.945 -18.223 0.945 -18.223 0.313 70.929
7000 0.316 70.718 0.944 -18.444 0.944 -18.444 0.316 70.718
7050 0.32 70.508 0.943 -18.664 0.943 -18.664 0.32 70.508
7100 0.324 70.299 0.942 -18.883 0.942 -18.883 0.324 70.299
7150 0.327 70.091 0.94 -19.101 0.94 -19.101 0.327 70.091
7200 0.331 69.884 0.939 -19.317 0.939 -19.317 0.331 69.884
7250 0.334 69.678 0.938 -19.533 0.938 -19.533 0.334 69.678
7300 0.338 69.473 0.937 -19.747 0.937 -19.747 0.338 69.473
7350 0.341 69.269 0.935 -19.959 0.935 -19.959 0.341 69.269
7400 0.345 69.065 0.934 -20.171 0.934 -20.171 0.345 69.065
7450 0.348 68.863 0.933 -20.382 0.933 -20.382 0.348 68.863
7500 0.352 68.661 0.932 -20.591 0.932 -20.591 0.352 68.661
7550 0.355 68.461 0.93 -20.8 0.93 -20.8 0.355 68.461
7600 0.359 68.261 0.929 -21.007 0.929 -21.007 0.359 68.261
7650 0.362 68.063 0.928 -21.213 0.928 -21.213 0.362 68.063
7700 0.365 67.865 0.926 -21.418 0.926 -21.418 0.365 67.865
7750 0.369 67.668 0.925 -21.622 0.925 -21.622 0.369 67.668
7800 0.372 67.472 0.924 -21.825 0.924 -21.825 0.372 67.472
7850 0.375 67.277 0.922 -22.026 0.922 -22.026 0.375 67.277
7900 0.378 67.083 0.921 -22.227 0.921 -22.227 0.378 67.083
7950 0.382 66.89 0.92 -22.427 0.92 -22.427 0.382 66.89
8000 0.385 66.697 0.918 -22.625 0.918 -22.625 0.385 66.697
8050 0.388 66.506 0.917 -22.823 0.917 -22.823 0.388 66.506
8100 0.391 66.315 0.916 -23.02 0.916 -23.02 0.391 66.315
8150 0.394 66.126 0.914 -23.215 0.914 -23.215 0.394 66.126
8200 0.397 65.937 0.913 -23.41 0.913 -23.41 0.397 65.937
8250 0.4 65.749 0.912 -23.604 0.912 -23.604 0.4 65.749
8300 0.404 65.561 0.91 -23.796 0.91 -23.796 0.404 65.561
8350 0.407 65.375 0.909 -23.988 0.909 -23.988 0.407 65.375
8400 0.41 65.19 0.908 -24.179 0.908 -24.179 0.41 65.19
8450 0.413 65.005 0.906 -24.369 0.906 -24.369 0.413 65.005
8500 0.416 64.821 0.905 -24.558 0.905 -24.558 0.416 64.821
8550 0.419 64.638 0.904 -24.746 0.904 -24.746 0.419 64.638
8600 0.422 64.456 0.902 -24.933 0.902 -24.933 0.422 64.456
8650 0.425 64.275 0.901 -25.119 0.901 -25.119 0.425 64.275
8700 0.427 64.094 0.9 -25.304 0.9 -25.304 0.427 64.094
8750 0.43 63.915 0.898 -25.489 0.898 -25.489 0.43 63.915
8800 0.433 63.736 0.897 -25.672 0.897 -25.672 0.433 63.736
8850 0.436 63.557 0.895 -25.855 0.895 -25.855 0.436 63.557
8900 0.439 63.38 0.894 -26.037 0.894 -26.037 0.439 63.38
8950 0.442 63.204 0.893 -26.217 0.893 -26.217 0.442 63.204
9000 0.445 63.028 0.891 -26.397 0.891 -26.397 0.445 63.028
9050 0.447 62.853 0.89 -26.577 0.89 -26.577 0.447 62.853
9100 0.45 62.679 0.888 -26.755 0.888 -26.755 0.45 62.679
9150 0.453 62.505 0.887 -26.932 0.887 -26.932 0.453 62.505
9200 0.456 62.333 0.886 -27.109 0.886 -27.109 0.456 62.333
9250 0.458 62.161 0.884 -27.285 0.884 -27.285 0.458 62.161
9300 0.461 61.99 0.883 -27.46 0.883 -27.46 0.461 61.99
9350 0.464 61.819 0.882 -27.634 0.882 -27.634 0.464 61.819
9400 0.467 61.65 0.88 -27.807 0.88 -27.807 0.467 61.65
9450 0.469 61.481 0.879 -27.98 0.879 -27.98 0.469 61.481
9500 0.472 61.312 0.877 -28.151 0.877 -28.151 0.472 61.312
9550 0.474 61.145 0.876 -28.322 0.876 -28.322 0.474 61.145
9600 0.477 60.978 0.874 -28.493 0.874 -28.493 0.477 60.978
9650 0.48 60.812 0.873 -28.662 0.873 -28.662 0.48 60.812
9700 0.482 60.647 0.872 -28.831 0.872 -28.831 0.482 60.647
9750 0.485 60.483 0.87 -28.998 0.87 -28.998 0.485 60.483
9800 0.487 60.319 0.869 -29.166 0.869 -29.166 0.487 60.319
9850 0.49 60.156 0.867 -29.332 0.867 -29.332 0.49 60.156
9900 0.492 59.993 0.866 -29.497 0.866 -29.497 0.492 59.993
9950 0.495 59.831 0.865 -29.662 0.865 -29.662 0.495 59.831
10000 0.497 59.67 0.863 -29.826 0.863 -29.826 0.497 59.67
10050 0.5 59.51 0.862 -29.99 0.862 -29.99 0.5 59.51
10100 0.502 59.351 0.86 -30.152 0.86 -30.152 0.502 59.351
10150 0.505 59.192 0.859 -30.314 0.859 -30.314 0.505 59.192
10200 0.507 59.033 0.857 -30.475 0.857 -30.475 0.507 59.033
10250 0.51 58.876 0.856 -30.636 0.856 -30.636 0.51 58.876
10300 0.512 58.719 0.855 -30.795 0.855 -30.795 0.512 58.719
10350 0.514 58.563 0.853 -30.954 0.853 -30.954 0.514 58.563
10400 0.517 58.407 0.852 -31.113 0.852 -31.113 0.517 58.407
10450 0.519 58.252 0.85 -31.27 0.85 -31.27 0.519 58.252
10500 0.521 58.098 0.849 -31.427 0.849 -31.427 0.521 58.098
10550 0.524 57.944 0.848 -31.584 0.848 -31.584 0.524 57.944
10600 0.526 57.791 0.846 -31.739 0.846 -31.739 0.526 57.791
10650 0.528 57.639 0.845 -31.894 0.845 -31.894 0.528 57.639
10700 0.531 57.487 0.843 -32.048 0.843 -32.048 0.531 57.487
10750 0.533 57.336 0.842 -32.202 0.842 -32.202 0.533 57.336
10800 0.535 57.186 0.84 -32.354 0.84 -32.354 0.535 57.186
10850 0.537 57.036 0.839 -32.507 0.839 -32.507 0.537 57.036
10900 0.54 56.887 0.838 -32.658 0.838 -32.658 0.54 56.887
10950 0.542 56.739 0.836 -32.809 0.836 -32.809 0.542 56.739
11000 0.544 56.591 0.835 -32.959 0.835 -32.959 0.544 56.591
11050 0.546 56.444 0.833 -33.109 0.833 -33.109 0.546 56.444
11100 0.548 56.297 0.832 -33.257 0.832 -33.257 0.548 56.297
11150 0.551 56.151 0.831 -33.406 0.831 -33.406 0.551 56.151
11200 0.553 56.006 0.829 -33.553 0.829 -33.553 0.553 56.006
11250 0.555 55.861 0.828 -33.7 0.828 -33.7 0.555 55.861
11300 0.557 55.717 0.826 -33.847 0.826 -33.847 0.557 55.717
11350 0.559 55.573 0.825 -33.992 0.825 -33.992 0.559 55.573
11400 0.561 55.43 0.823 -34.137 0.823 -34.137 0.561 55.43
11450 0.563 55.288 0.822 -34.282 0.822 -34.282 0.563 55.288
11500 0.565 55.146 0.821 -34.426 0.821 -34.426 0.565 55.146
11550 0.567 55.005 0.819 -34.569 0.819 -34.569 0.567 55.005
11600 0.569 54.864 0.818 -34.712 0.818 -34.712 0.569 54.864
11650 0.571 54.724 0.816 -34.854 0.816 -34.854 0.571 54.724
11700 0.574 54.585 0.815 -34.995 0.815 -34.995 0.574 54.585
11750 0.576 54.446 0.814 -35.136 0.814 -35.136 0.576 54.446
11800 0.578 54.308 0.812 -35.276 0.812 -35.276 0.578 54.308
11850 0.58 54.17 0.811 -35.416 0.811 -35.416 0.58 54.17
11900 0.581 54.033 0.809 -35.555 0.809 -35.555 0.581 54.033
11950 0.583 53.896 0.808 -35.693 0.808 -35.693 0.583 53.896
12000 0.585 53.76 0.807 -35.831 0.807 -35.831 0.585 53.76
12050 0.587 53.625 0.805 -35.968 0.805 -35.968 0.587 53.625
12100 0.589 53.49 0.804 -36.105 0.804 -36.105 0.589 53.49
12150 0.591 53.355 0.802 -36.241 0.802 -36.241 0.591 53.355
12200 0.593 53.221 0.801 -36.377 0.801 -36.377 0.593 53.221
12250 0.595 53.088 0.8 -36.512 0.8 -36.512 0.595 53.088
12300 0.597 52.956 0.798 -36.646 0.798 -36.646 0.597 52.956
12350 0.599 52.823 0.797 -36.78 0.797 -36.78 0.599 52.823
12400 0.601 52.692 0.795 -36.913 0.795 -36.913 0.601 52.692
12450 0.602 52.561 0.794 -37.046 0.794 -37.046 0.602 52.561
12500 0.604 52.43 0.793 -37.178 0.793 -37.178 0.604 52.43
12550 0.606 52.3 0.791 -37.31 0.791 -37.31 0.606 52.3
12600 0.608 52.17 0.79 -37.441 0.79 -37.441 0.608 52.17
12650 0.61 52.042 0.788 -37.572 0.788 -37.572 0.61 52.042
12700 0.612 51.913 0.787 -37.702 0.787 -37.702 0.612 51.913
12750 0.613 51.785 0.786 -37.831 0.786 -37.831 0.613 51.785
12800 0.615 51.658 0.784 -37.96 0.784 -37.96 0.615 51.658
12850 0.617 51.531 0.783 -38.089 0.783 -38.089 0.617 51.531
12900 0.619 51.404 0.782 -38.217 0.782 -38.217 0.619 51.404
12950 0.62 51.279 0.78 -38.344 0.78 -38.344 0.62 51.279
13000 0.622 51.153 0.779 -38.471 0.779 -38.471 0.622 51.153
13050 0.624 51.028 0.777 -38.597 0.777 -38.597 0.624 51.028
13100 0.626 50.904 0.776 -38.723 0.776 -38.723 0.626 50.904
13150 0.627 50.78 0.775 -38.848 0.775 -38.848 0.627 50.78
13200 0.629 50.657 0.773 -38.973 0.773 -38.973 0.629 50.657
13250 0.631 50.534 0.772 -39.098 0.772 -39.098 0.631 50.534
13300 0.632 50.411 0.771 -39.221 0.771 -39.221 0.632 50.411
13350 0.634 50.29 0.769 -39.345 0.769 -39.345 0.634 50.29
13400 0.636 50.168 0.768 -39.467 0.768 -39.467 0.636 50.168
13450 0.637 50.047 0.767 -39.59 0.767 -39.59 0.637 50.047
13500 0.639 49.927 0.765 -39.711 0.765 -39.711 0.639 49.927
13550 0.641 49.807 0.764 -39.833 0.764 -39.833 0.641 49.807
13600 0.642 49.687 0.763 -39.954 0.763 -39.954 0.642 49.687
13650 0.644 49.568 0.761 -40.074 0.761 -40.074 0.644 49.568
13700 0.645 49.45 0.76 -40.194 0.76 -40.194 0.645 49.45
13750 0.647 49.332 0.759 -40.313 0.759 -40.313 0.647 49.332
13800 0.649 49.214 0.757 -40.432 0.757 -40.432 0.649 49.214
13850 0.65 49.097 0.756 -40.55 0.756 -40.55 0.65 49.097
13900 0.652 48.98 0.755 -40.668 0.755 -40.668 0.652 48.98
13950 0.653 48.864 0.753 -40.786 0.753 -40.786 0.653 48.864
14000 0.655 48.749 0.752 -40.903 0.752 -40.903 0.655 48.749
14050 0.656 48.633 0.751 -41.019 0.751 -41.019 0.656 48.633
14100 0.658 48.518 0.749 -41.135 0.749 -41.135 0.658 48.518
14150 0.659 48.404 0.748 -41.251 0.748 -41.251 0.659 48.404
14200 0.661 48.29 0.747 -41.366 0.747 -41.366 0.661 48.29
14250 0.662 48.177 0.745 -41.48 0.745 -41.48 0.662 48.177
14300 0.664 48.064 0.744 -41.595 0.744 -41.595 0.664 48.064
14350 0.665 47.951 0.743 -41.708 0.743 -41.708 0.665 47.951
14400 0.667 47.839 0.741 -41.822 0.741 -41.822 0.667 47.839
14450 0.668 47.727 0.74 -41.935 0.74 -41.935 0.668 47.727
14500 0.67 47.616 0.739 -42.047 0.739 -42.047 0.67 47.616
14550 0.671 47.505 0.737 -42.159 0.737 -42.159 0.671 47.505
14600 0.673 47.395 0.736 -42.27 0.736 -42.27 0.673 47.395
14650 0.674 47.285 0.735 -42.381 0.735 -42.381 0.674 47.285
14700 0.675 47.175 0.733 -42.492 0.733 -42.492 0.675 47.175
14750 0.677 47.066 0.732 -42.602 0.732 -42.602 0.677 47.066
14800 0.678 46.958 0.731 -42.712 0.731 -42.712 0.678 46.958
14850 0.68 46.849 0.73 -42.821 0.73 -42.821 0.68 46.849
14900 0.681 46.742 0.728 -42.93 0.728 -42.93 0.681 46.742
14950 0.683 46.634 0.727 -43.039 0.727 -43.039 0.683 46.634
15000 0.684 46.527 0.726 -43.147 0.726 -43.147 0.684 46.527
15050 0.685 46.421 0.724 -43.254 0.724 -43.254 0.685 46.421
15100 0.687 46.314 0.723 -43.362 0.723 -43.362 0.687 46.314
15150 0.688 46.209 0.722 -43.468 0.722 -43.468 0.688 46.209
15200 0.689 46.103 0.721 -43.575 0.721 -43.575 0.689 46.103
15250 0.691 45.998 0.719 -43.681 0.719 -43.681 0.691 45.998
15300 0.692 45.894 0.718 -43.786 0.718 -43.786 0.692 45.894
15350 0.693 45.79 0.717 -43.891 0.717 -43.891 0.693 45.79
15400 0.695 45.686 0.716 -43.996 0.716 -43.996 0.695 45.686
15450 0.696 45.583 0.714 -44.1 0.714 -44.1 0.696 45.583
15500 0.697 45.48 0.713 -44.204 0.713 -44.204 0.697 45.48
15550 0.699 45.377 0.712 -44.308 0.712 -44.308 0.699 45.377
15600 0.7 45.275 0.711 -44.411 0.711 -44.411 0.7 45.275
15650 0.701 45.173 0.709 -44.513 0.709 -44.513 0.701 45.173
15700 0.702 45.072 0.708 -44.616 0.708 -44.616 0.702 45.072
15750 0.704 44.971 0.707 -44.718 0.707 -44.718 0.704 44.971
15800 0.705 44.87 0.706 -44.819 0.706 -44.819 0.705 44.87
15850 0.706 44.77 0.704 -44.92 0.704 -44.92 0.706 44.77
15900 0.707 44.67 0.703 -45.021 0.703 -45.021 0.707 44.67
15950 0.709 44.571 0.702 -45.121 0.702 -45.121 0.709 44.571
16000 0.71 44.472 0.701 -45.221 0.701 -45.221 0.71 44.472
16050 0.711 44.373 0.699 -45.321 0.699 -45.321 0.711 44.373
16100 0.712 44.275 0.698 -45.42 0.698 -45.42 0.712 44.275
16150 0.713 44.177 0.697 -45.519 0.697 -45.519 0.713 44.177
16200 0.715 44.079 0.696 -45.617 0.696 -45.617 0.715 44.079
16250 0.716 43.982 0.694 -45.715 0.694 -45.715 0.716 43.982
16300 0.717 43.885 0.693 -45.813 0.693 -45.813 0.717 43.885
16350 0.718 43.789 0.692 -45.91 0.692 -45.91 0.718 43.789
16400 0.719 43.693 0.691 -46.007 0.691 -46.007 0.719 43.693
16450 0.721 43.597 0.69 -46.104 0.69 -46.104 0.721 43.597
16500 0.722 43.501 0.688 -46.2 0.688 -46.2 0.722 43.501
16550 0.723 43.406 0.687 -46.296 0.687 -46.296 0.723 43.406
16600 0.724 43.312 0.686 -46.392 0.686 -46.392 0.724 43.312
16650 0.725 43.217 0.685 -46.487 0.685 -46.487 0.725 43.217
16700 0.726 43.123 0.684 -46.581 0.684 -46.581 0.726 43.123
16750 0.727 43.03 0.682 -46.676 0.682 -46.676 0.727 43.03
16800 0.729 42.937 0.681 -46.77 0.681 -46.77 0.729 42.937
16850 0.73 42.844 0.68 -46.864 0.68 -46.864 0.73 42.844
16900 0.731 42.751 0.679 -46.957 0.679 -46.957 0.731 42.751
16950 0.732 42.659 0.678 -47.05 0.678 -47.05 0.732 42.659
