! AVX Thin Film Operation		Date: April 2012 
! Description: Accu-P® Series, Thin Film, SMD, RF Capacitor
! Part Number: 12101J2R0PBTTR					
!	100	MHz	-	20.05	GHz			
!	Serial	Measurements						
!								
#	MHZ	S	MA	R	50			
!	S11	S21	S12	S22				
!	dB	Phase	dB	Phase	dB	Phase	dB	Phase
50 0.998 -3.954 0.069 86.038 0.069 86.038 0.998 -3.954
74.938 0.995 -5.917 0.103 84.073 0.103 84.073 0.995 -5.917
99.875 0.991 -7.867 0.137 82.119 0.137 82.119 0.991 -7.867
124.813 0.985 -9.801 0.17 80.181 0.17 80.181 0.985 -9.801
149.75 0.979 -11.715 0.203 78.263 0.203 78.263 0.979 -11.715
174.688 0.972 -13.607 0.235 76.368 0.235 76.368 0.972 -13.607
199.625 0.964 -15.473 0.267 74.498 0.267 74.498 0.964 -15.473
224.563 0.955 -17.31 0.298 72.657 0.298 72.657 0.955 -17.31
249.5 0.945 -19.116 0.327 70.848 0.327 70.848 0.945 -19.116
274.438 0.934 -20.888 0.357 69.072 0.357 69.072 0.934 -20.888
299.375 0.923 -22.625 0.385 67.331 0.385 67.331 0.923 -22.625
324.313 0.911 -24.326 0.412 65.627 0.412 65.627 0.911 -24.326
349.25 0.898 -25.988 0.438 63.961 0.438 63.961 0.898 -25.988
374.188 0.886 -27.611 0.463 62.334 0.463 62.334 0.886 -27.611
399.125 0.872 -29.194 0.488 60.747 0.488 60.747 0.872 -29.194
424.063 0.859 -30.737 0.511 59.201 0.511 59.201 0.859 -30.737
449 0.845 -32.24 0.533 57.694 0.533 57.694 0.845 -32.24
473.938 0.831 -33.702 0.555 56.228 0.555 56.228 0.831 -33.702
498.875 0.817 -35.124 0.575 54.803 0.575 54.803 0.817 -35.124
523.813 0.803 -36.506 0.595 53.417 0.595 53.417 0.803 -36.506
548.75 0.789 -37.848 0.614 52.07 0.614 52.07 0.789 -37.848
573.688 0.775 -39.152 0.631 50.763 0.631 50.763 0.775 -39.152
598.625 0.76 -40.418 0.648 49.493 0.648 49.493 0.76 -40.418
623.563 0.746 -41.646 0.665 48.261 0.665 48.261 0.746 -41.646
648.5 0.732 -42.838 0.68 47.065 0.68 47.065 0.732 -42.838
673.438 0.718 -43.994 0.695 45.905 0.695 45.905 0.718 -43.994
698.375 0.704 -45.116 0.709 44.779 0.709 44.779 0.704 -45.116
723.313 0.691 -46.204 0.722 43.687 0.722 43.687 0.691 -46.204
748.25 0.677 -47.259 0.734 42.628 0.734 42.628 0.677 -47.259
773.188 0.664 -48.283 0.746 41.599 0.746 41.599 0.664 -48.283
798.125 0.651 -49.277 0.758 40.602 0.758 40.602 0.651 -49.277
823.063 0.638 -50.241 0.769 39.633 0.769 39.633 0.638 -50.241
848 0.625 -51.177 0.779 38.693 0.779 38.693 0.625 -51.177
872.938 0.613 -52.085 0.789 37.781 0.789 37.781 0.613 -52.085
897.875 0.6 -52.966 0.798 36.895 0.798 36.895 0.6 -52.966
922.813 0.588 -53.822 0.807 36.034 0.807 36.034 0.588 -53.822
947.75 0.576 -54.654 0.816 35.199 0.816 35.199 0.576 -54.654
972.688 0.565 -55.462 0.824 34.386 0.824 34.386 0.565 -55.462
997.625 0.553 -56.246 0.831 33.597 0.831 33.597 0.553 -56.246
1022.563 0.542 -57.009 0.839 32.829 0.839 32.829 0.542 -57.009
1047.5 0.531 -57.751 0.846 32.083 0.846 32.083 0.531 -57.751
1072.438 0.52 -58.473 0.852 31.356 0.852 31.356 0.52 -58.473
1097.375 0.51 -59.175 0.859 30.65 0.859 30.65 0.51 -59.175
1122.313 0.499 -59.858 0.865 29.962 0.865 29.962 0.499 -59.858
1147.25 0.489 -60.522 0.871 29.292 0.871 29.292 0.489 -60.522
1172.188 0.479 -61.17 0.876 28.639 0.876 28.639 0.479 -61.17
1197.125 0.47 -61.801 0.881 28.004 0.881 28.004 0.47 -61.801
1222.063 0.46 -62.415 0.886 27.384 0.886 27.384 0.46 -62.415
1247 0.451 -63.014 0.891 26.78 0.891 26.78 0.451 -63.014
1271.938 0.441 -63.598 0.896 26.19 0.896 26.19 0.441 -63.598
1296.875 0.432 -64.168 0.9 25.615 0.9 25.615 0.432 -64.168
1321.813 0.423 -64.724 0.904 25.054 0.904 25.054 0.423 -64.724
1346.75 0.415 -65.266 0.908 24.506 0.908 24.506 0.415 -65.266
1371.688 0.406 -65.795 0.912 23.97 0.912 23.97 0.406 -65.795
1396.625 0.398 -66.313 0.916 23.447 0.916 23.447 0.398 -66.313
1421.563 0.39 -66.818 0.919 22.936 0.919 22.936 0.39 -66.818
1446.5 0.382 -67.311 0.923 22.437 0.923 22.437 0.382 -67.311
1471.438 0.374 -67.794 0.926 21.948 0.926 21.948 0.374 -67.794
1496.375 0.366 -68.265 0.929 21.47 0.929 21.47 0.366 -68.265
1521.313 0.358 -68.727 0.932 21.002 0.932 21.002 0.358 -68.727
1546.25 0.351 -69.178 0.935 20.544 0.935 20.544 0.351 -69.178
1571.188 0.344 -69.62 0.937 20.096 0.937 20.096 0.344 -69.62
1596.125 0.336 -70.052 0.94 19.656 0.94 19.656 0.336 -70.052
1621.063 0.329 -70.475 0.943 19.226 0.943 19.226 0.329 -70.475
1646 0.322 -70.89 0.945 18.804 0.945 18.804 0.322 -70.89
1670.938 0.315 -71.296 0.947 18.391 0.947 18.391 0.315 -71.296
1695.875 0.309 -71.694 0.949 17.985 0.949 17.985 0.309 -71.694
1720.813 0.302 -72.084 0.952 17.587 0.952 17.587 0.302 -72.084
1745.75 0.296 -72.467 0.954 17.197 0.954 17.197 0.296 -72.467
1770.688 0.289 -72.842 0.956 16.814 0.956 16.814 0.289 -72.842
1795.625 0.283 -73.21 0.957 16.437 0.957 16.437 0.283 -73.21
1820.563 0.277 -73.571 0.959 16.068 0.959 16.068 0.277 -73.571
1845.5 0.271 -73.925 0.961 15.705 0.961 15.705 0.271 -73.925
1870.438 0.265 -74.272 0.963 15.348 0.963 15.348 0.265 -74.272
1895.375 0.259 -74.613 0.964 14.998 0.964 14.998 0.259 -74.613
1920.313 0.253 -74.948 0.966 14.653 0.966 14.653 0.253 -74.948
1945.25 0.247 -75.277 0.967 14.315 0.967 14.315 0.247 -75.277
1970.188 0.242 -75.601 0.969 13.981 0.969 13.981 0.242 -75.601
1995.125 0.236 -75.918 0.97 13.653 0.97 13.653 0.236 -75.918
2020.063 0.231 -76.23 0.971 13.331 0.971 13.331 0.231 -76.23
2045 0.225 -76.536 0.973 13.013 0.973 13.013 0.225 -76.536
2069.938 0.22 -76.838 0.974 12.7 0.974 12.7 0.22 -76.838
2094.875 0.215 -77.134 0.975 12.392 0.975 12.392 0.215 -77.134
2119.813 0.209 -77.425 0.976 12.089 0.976 12.089 0.209 -77.425
2144.75 0.204 -77.711 0.977 11.79 0.977 11.79 0.204 -77.711
2169.688 0.199 -77.992 0.978 11.496 0.978 11.496 0.199 -77.992
2194.625 0.194 -78.269 0.979 11.206 0.979 11.206 0.194 -78.269
2219.563 0.189 -78.541 0.98 10.92 0.98 10.92 0.189 -78.541
2244.5 0.185 -78.808 0.981 10.637 0.981 10.637 0.185 -78.808
2269.438 0.18 -79.071 0.982 10.359 0.982 10.359 0.18 -79.071
2294.375 0.175 -79.33 0.983 10.085 0.983 10.085 0.175 -79.33
2319.313 0.17 -79.584 0.984 9.814 0.984 9.814 0.17 -79.584
2344.25 0.166 -79.834 0.984 9.547 0.984 9.547 0.166 -79.834
2369.188 0.161 -80.08 0.985 9.283 0.985 9.283 0.161 -80.08
2394.125 0.157 -80.322 0.986 9.023 0.986 9.023 0.157 -80.322
2419.063 0.152 -80.559 0.987 8.765 0.987 8.765 0.152 -80.559
2444 0.148 -80.793 0.987 8.512 0.987 8.512 0.148 -80.793
2468.938 0.144 -81.022 0.988 8.261 0.988 8.261 0.144 -81.022
2493.875 0.139 -81.247 0.988 8.013 0.988 8.013 0.139 -81.247
2518.813 0.135 -81.469 0.989 7.768 0.989 7.768 0.135 -81.469
2543.75 0.131 -81.686 0.99 7.526 0.99 7.526 0.131 -81.686
2568.688 0.127 -81.899 0.99 7.287 0.99 7.287 0.127 -81.899
2593.625 0.123 -82.107 0.991 7.051 0.991 7.051 0.123 -82.107
2618.563 0.119 -82.312 0.991 6.817 0.991 6.817 0.119 -82.312
2643.5 0.115 -82.512 0.992 6.586 0.992 6.586 0.115 -82.512
2668.438 0.111 -82.708 0.992 6.357 0.992 6.357 0.111 -82.708
2693.375 0.107 -82.9 0.992 6.131 0.992 6.131 0.107 -82.9
2718.313 0.103 -83.086 0.993 5.908 0.993 5.908 0.103 -83.086
2743.25 0.099 -83.268 0.993 5.686 0.993 5.686 0.099 -83.268
2768.188 0.095 -83.445 0.994 5.467 0.994 5.467 0.095 -83.445
2793.125 0.092 -83.617 0.994 5.251 0.994 5.251 0.092 -83.617
2818.063 0.088 -83.783 0.994 5.036 0.994 5.036 0.088 -83.783
2843 0.084 -83.943 0.995 4.823 0.995 4.823 0.084 -83.943
2867.938 0.08 -84.097 0.995 4.613 0.995 4.613 0.08 -84.097
2892.875 0.077 -84.244 0.995 4.405 0.995 4.405 0.077 -84.244
2917.813 0.073 -84.384 0.996 4.199 0.996 4.199 0.073 -84.384
2942.75 0.07 -84.515 0.996 3.994 0.996 3.994 0.07 -84.515
2967.688 0.066 -84.638 0.996 3.792 0.996 3.792 0.066 -84.638
2992.625 0.063 -84.75 0.996 3.591 0.996 3.591 0.063 -84.75
3017.563 0.059 -84.852 0.996 3.392 0.996 3.392 0.059 -84.852
3042.5 0.056 -84.94 0.997 3.195 0.997 3.195 0.056 -84.94
3067.438 0.052 -85.014 0.997 3 0.997 3 0.052 -85.014
3092.375 0.049 -85.071 0.997 2.807 0.997 2.807 0.049 -85.071
3117.313 0.046 -85.107 0.997 2.615 0.997 2.615 0.046 -85.107
3142.25 0.042 -85.118 0.997 2.425 0.997 2.425 0.042 -85.118
3167.188 0.039 -85.099 0.997 2.236 0.997 2.236 0.039 -85.099
3192.125 0.036 -85.043 0.998 2.049 0.998 2.049 0.036 -85.043
3217.063 0.033 -84.94 0.998 1.863 0.998 1.863 0.033 -84.94
3242 0.029 -84.774 0.998 1.679 0.998 1.679 0.029 -84.774
3266.938 0.026 -84.525 0.998 1.497 0.998 1.497 0.026 -84.525
3291.875 0.023 -84.161 0.998 1.316 0.998 1.316 0.023 -84.161
3316.813 0.02 -83.629 0.998 1.136 0.998 1.136 0.02 -83.629
3341.75 0.017 -82.84 0.998 0.958 0.998 0.958 0.017 -82.84
3366.688 0.014 -81.627 0.998 0.781 0.998 0.781 0.014 -81.627
3391.625 0.011 -79.638 0.998 0.605 0.998 0.605 0.011 -79.638
3416.563 7.742e-3 -75.995 0.998 0.431 0.998 0.431 7.742e-3 -75.995
3441.5 4.859e-3 -67.782 0.998 0.258 0.998 0.258 4.859e-3 -67.782
3466.438 2.362e-3 -39.629 0.998 0.086 0.998 0.086 2.362e-3 -39.629
3491.375 2.335e-3 38.816 0.998 -0.084 0.998 -0.084 2.335e-3 38.816
3516.313 4.78e-3 67.402 0.998 -0.253 0.998 -0.253 4.78e-3 67.402
3541.25 7.576e-3 75.701 0.998 -0.421 0.998 -0.421 7.576e-3 75.701
3566.188 0.01 79.377 0.998 -0.588 0.998 -0.588 0.01 79.377
3591.125 0.013 81.386 0.998 -0.754 0.998 -0.754 0.013 81.386
3616.063 0.016 82.617 0.998 -0.919 0.998 -0.919 0.016 82.617
3641 0.019 83.424 0.998 -1.082 0.998 -1.082 0.019 83.424
3665.938 0.022 83.975 0.998 -1.245 0.998 -1.245 0.022 83.975
3690.875 0.025 84.36 0.998 -1.406 0.998 -1.406 0.025 84.36
3715.813 0.027 84.632 0.998 -1.567 0.998 -1.567 0.027 84.632
3740.75 0.03 84.823 0.998 -1.726 0.998 -1.726 0.03 84.823
3765.688 0.033 84.954 0.998 -1.884 0.998 -1.884 0.033 84.954
3790.625 0.036 85.04 0.998 -2.042 0.998 -2.042 0.036 85.04
3815.563 0.038 85.091 0.997 -2.198 0.997 -2.198 0.038 85.091
3840.5 0.041 85.115 0.997 -2.353 0.997 -2.353 0.041 85.115
3865.438 0.044 85.116 0.997 -2.508 0.997 -2.508 0.044 85.116
3890.375 0.046 85.1 0.997 -2.661 0.997 -2.661 0.046 85.1
3915.313 0.049 85.069 0.997 -2.814 0.997 -2.814 0.049 85.069
3940.25 0.052 85.026 0.997 -2.966 0.997 -2.966 0.052 85.026
3965.188 0.054 84.972 0.997 -3.117 0.997 -3.117 0.054 84.972
3990.125 0.057 84.91 0.997 -3.267 0.997 -3.267 0.057 84.91
4015.063 0.06 84.84 0.996 -3.416 0.996 -3.416 0.06 84.84
4040 0.062 84.765 0.996 -3.564 0.996 -3.564 0.062 84.765
4064.938 0.065 84.684 0.996 -3.711 0.996 -3.711 0.065 84.684
4089.875 0.067 84.598 0.996 -3.858 0.996 -3.858 0.067 84.598
4114.813 0.07 84.509 0.996 -4.004 0.996 -4.004 0.07 84.509
4139.75 0.072 84.416 0.996 -4.149 0.996 -4.149 0.072 84.416
4164.688 0.075 84.32 0.995 -4.293 0.995 -4.293 0.075 84.32
4189.625 0.077 84.222 0.995 -4.437 0.995 -4.437 0.077 84.222
4214.563 0.08 84.121 0.995 -4.58 0.995 -4.58 0.08 84.121
4239.5 0.082 84.018 0.995 -4.722 0.995 -4.722 0.082 84.018
4264.438 0.085 83.913 0.995 -4.863 0.995 -4.863 0.085 83.913
4289.375 0.087 83.807 0.994 -5.004 0.994 -5.004 0.087 83.807
4314.313 0.09 83.7 0.994 -5.144 0.994 -5.144 0.09 83.7
4339.25 0.092 83.591 0.994 -5.283 0.994 -5.283 0.092 83.591
4364.188 0.094 83.482 0.994 -5.421 0.994 -5.421 0.094 83.482
4389.125 0.097 83.371 0.993 -5.559 0.993 -5.559 0.097 83.371
4414.063 0.099 83.26 0.993 -5.696 0.993 -5.696 0.099 83.26
4439 0.102 83.148 0.993 -5.833 0.993 -5.833 0.102 83.148
4463.938 0.104 83.036 0.993 -5.969 0.993 -5.969 0.104 83.036
4488.875 0.106 82.923 0.993 -6.104 0.993 -6.104 0.106 82.923
4513.813 0.109 82.809 0.992 -6.238 0.992 -6.238 0.109 82.809
4538.75 0.111 82.695 0.992 -6.372 0.992 -6.372 0.111 82.695
4563.688 0.113 82.581 0.992 -6.506 0.992 -6.506 0.113 82.581
4588.625 0.116 82.467 0.991 -6.639 0.991 -6.639 0.116 82.467
4613.563 0.118 82.352 0.991 -6.771 0.991 -6.771 0.118 82.352
4638.5 0.12 82.238 0.991 -6.902 0.991 -6.902 0.12 82.238
4663.438 0.122 82.123 0.991 -7.033 0.991 -7.033 0.122 82.123
4688.375 0.125 82.008 0.99 -7.164 0.99 -7.164 0.125 82.008
4713.313 0.127 81.893 0.99 -7.294 0.99 -7.294 0.127 81.893
4738.25 0.129 81.778 0.99 -7.423 0.99 -7.423 0.129 81.778
4763.188 0.131 81.663 0.99 -7.552 0.99 -7.552 0.131 81.663
4788.125 0.134 81.548 0.989 -7.68 0.989 -7.68 0.134 81.548
4813.063 0.136 81.433 0.989 -7.807 0.989 -7.807 0.136 81.433
4838 0.138 81.319 0.989 -7.934 0.989 -7.934 0.138 81.319
4862.938 0.14 81.204 0.988 -8.061 0.988 -8.061 0.14 81.204
4887.875 0.142 81.089 0.988 -8.187 0.988 -8.187 0.142 81.089
4912.813 0.145 80.975 0.988 -8.313 0.988 -8.313 0.145 80.975
4937.75 0.147 80.86 0.987 -8.438 0.987 -8.438 0.147 80.86
4962.688 0.149 80.746 0.987 -8.562 0.987 -8.562 0.149 80.746
4987.625 0.151 80.632 0.987 -8.686 0.987 -8.686 0.151 80.632
5012.563 0.153 80.518 0.986 -8.81 0.986 -8.81 0.153 80.518
5037.5 0.155 80.405 0.986 -8.933 0.986 -8.933 0.155 80.405
5062.438 0.157 80.291 0.986 -9.056 0.986 -9.056 0.157 80.291
5087.375 0.16 80.178 0.985 -9.178 0.985 -9.178 0.16 80.178
5112.313 0.162 80.065 0.985 -9.3 0.985 -9.3 0.162 80.065
5137.25 0.164 79.952 0.985 -9.421 0.985 -9.421 0.164 79.952
5162.188 0.166 79.839 0.984 -9.542 0.984 -9.542 0.166 79.839
5187.125 0.168 79.727 0.984 -9.662 0.984 -9.662 0.168 79.727
5212.063 0.17 79.614 0.984 -9.782 0.984 -9.782 0.17 79.614
5237 0.172 79.502 0.983 -9.901 0.983 -9.901 0.172 79.502
5261.938 0.174 79.39 0.983 -10.02 0.983 -10.02 0.174 79.39
5286.875 0.176 79.279 0.983 -10.139 0.983 -10.139 0.176 79.279
5311.813 0.178 79.168 0.982 -10.257 0.982 -10.257 0.178 79.168
5336.75 0.18 79.057 0.982 -10.375 0.982 -10.375 0.18 79.057
5361.688 0.182 78.946 0.981 -10.492 0.981 -10.492 0.182 78.946
5386.625 0.184 78.835 0.981 -10.609 0.981 -10.609 0.184 78.835
5411.563 0.186 78.725 0.981 -10.726 0.981 -10.726 0.186 78.725
5436.5 0.188 78.615 0.98 -10.842 0.98 -10.842 0.188 78.615
5461.438 0.19 78.505 0.98 -10.957 0.98 -10.957 0.19 78.505
5486.375 0.192 78.395 0.98 -11.073 0.98 -11.073 0.192 78.395
5511.313 0.194 78.286 0.979 -11.188 0.979 -11.188 0.194 78.286
5536.25 0.196 78.177 0.979 -11.302 0.979 -11.302 0.196 78.177
5561.188 0.198 78.068 0.978 -11.416 0.978 -11.416 0.198 78.068
5586.125 0.2 77.96 0.978 -11.53 0.978 -11.53 0.2 77.96
5611.063 0.202 77.851 0.978 -11.643 0.978 -11.643 0.202 77.851
5636 0.204 77.743 0.977 -11.756 0.977 -11.756 0.204 77.743
5660.938 0.206 77.636 0.977 -11.869 0.977 -11.869 0.206 77.636
5685.875 0.208 77.528 0.976 -11.981 0.976 -11.981 0.208 77.528
5710.813 0.21 77.421 0.976 -12.093 0.976 -12.093 0.21 77.421
5735.75 0.211 77.314 0.976 -12.205 0.976 -12.205 0.211 77.314
5760.688 0.213 77.207 0.975 -12.316 0.975 -12.316 0.213 77.207
5785.625 0.215 77.101 0.975 -12.427 0.975 -12.427 0.215 77.101
5810.563 0.217 76.994 0.974 -12.537 0.974 -12.537 0.217 76.994
5835.5 0.219 76.888 0.974 -12.648 0.974 -12.648 0.219 76.888
5860.438 0.221 76.783 0.974 -12.757 0.974 -12.757 0.221 76.783
5885.375 0.223 76.677 0.973 -12.867 0.973 -12.867 0.223 76.677
5910.313 0.225 76.572 0.973 -12.976 0.973 -12.976 0.225 76.572
5935.25 0.226 76.467 0.972 -13.085 0.972 -13.085 0.226 76.467
5960.188 0.228 76.362 0.972 -13.193 0.972 -13.193 0.228 76.362
5985.125 0.23 76.258 0.971 -13.302 0.971 -13.302 0.23 76.258
6010.063 0.232 76.154 0.971 -13.409 0.971 -13.409 0.232 76.154
6035 0.234 76.05 0.971 -13.517 0.971 -13.517 0.234 76.05
6059.938 0.236 75.946 0.97 -13.624 0.97 -13.624 0.236 75.946
6084.875 0.237 75.843 0.97 -13.731 0.97 -13.731 0.237 75.843
6109.813 0.239 75.74 0.969 -13.838 0.969 -13.838 0.239 75.74
6134.75 0.241 75.637 0.969 -13.944 0.969 -13.944 0.241 75.637
6159.688 0.243 75.534 0.968 -14.05 0.968 -14.05 0.243 75.534
6184.625 0.245 75.432 0.968 -14.156 0.968 -14.156 0.245 75.432
6209.563 0.246 75.329 0.967 -14.261 0.967 -14.261 0.246 75.329
6234.5 0.248 75.228 0.967 -14.366 0.967 -14.366 0.248 75.228
6259.438 0.25 75.126 0.967 -14.471 0.967 -14.471 0.25 75.126
6284.375 0.252 75.024 0.966 -14.575 0.966 -14.575 0.252 75.024
6309.313 0.253 74.923 0.966 -14.679 0.966 -14.679 0.253 74.923
6334.25 0.255 74.822 0.965 -14.783 0.965 -14.783 0.255 74.822
6359.188 0.257 74.722 0.965 -14.887 0.965 -14.887 0.257 74.722
6384.125 0.259 74.621 0.964 -14.99 0.964 -14.99 0.259 74.621
6409.063 0.26 74.521 0.964 -15.093 0.964 -15.093 0.26 74.521
6434 0.262 74.421 0.963 -15.196 0.963 -15.196 0.262 74.421
6458.938 0.264 74.321 0.963 -15.298 0.963 -15.298 0.264 74.321
6483.875 0.266 74.221 0.962 -15.401 0.962 -15.401 0.266 74.221
6508.813 0.267 74.122 0.962 -15.502 0.962 -15.502 0.267 74.122
6533.75 0.269 74.023 0.961 -15.604 0.961 -15.604 0.269 74.023
6558.688 0.271 73.924 0.961 -15.705 0.961 -15.705 0.271 73.924
6583.625 0.272 73.826 0.96 -15.807 0.96 -15.807 0.272 73.826
6608.563 0.274 73.727 0.96 -15.907 0.96 -15.907 0.274 73.727
6633.5 0.276 73.629 0.959 -16.008 0.959 -16.008 0.276 73.629
6658.438 0.277 73.531 0.959 -16.108 0.959 -16.108 0.277 73.531
6683.375 0.279 73.434 0.959 -16.208 0.959 -16.208 0.279 73.434
6708.313 0.281 73.336 0.958 -16.308 0.958 -16.308 0.281 73.336
6733.25 0.282 73.239 0.958 -16.408 0.958 -16.408 0.282 73.239
6758.188 0.284 73.142 0.957 -16.507 0.957 -16.507 0.284 73.142
6783.125 0.286 73.045 0.957 -16.606 0.957 -16.606 0.286 73.045
6808.063 0.287 72.949 0.956 -16.705 0.956 -16.705 0.287 72.949
6833 0.289 72.852 0.956 -16.803 0.956 -16.803 0.289 72.852
6857.938 0.291 72.756 0.955 -16.901 0.955 -16.901 0.291 72.756
6882.875 0.292 72.66 0.955 -16.999 0.955 -16.999 0.292 72.66
6907.813 0.294 72.564 0.954 -17.097 0.954 -17.097 0.294 72.564
6932.75 0.296 72.469 0.954 -17.195 0.954 -17.195 0.296 72.469
6957.688 0.297 72.374 0.953 -17.292 0.953 -17.292 0.297 72.374
6982.625 0.299 72.279 0.953 -17.389 0.953 -17.389 0.299 72.279
7007.563 0.3 72.184 0.952 -17.486 0.952 -17.486 0.3 72.184
7032.5 0.302 72.089 0.952 -17.582 0.952 -17.582 0.302 72.089
7057.438 0.304 71.995 0.951 -17.678 0.951 -17.678 0.304 71.995
7082.375 0.305 71.901 0.951 -17.774 0.951 -17.774 0.305 71.901
7107.313 0.307 71.807 0.95 -17.87 0.95 -17.87 0.307 71.807
7132.25 0.308 71.713 0.95 -17.966 0.95 -17.966 0.308 71.713
7157.188 0.31 71.619 0.949 -18.061 0.949 -18.061 0.31 71.619
7182.125 0.312 71.526 0.948 -18.156 0.948 -18.156 0.312 71.526
7207.063 0.313 71.433 0.948 -18.251 0.948 -18.251 0.313 71.433
7232 0.315 71.34 0.947 -18.346 0.947 -18.346 0.315 71.34
7256.938 0.316 71.247 0.947 -18.44 0.947 -18.44 0.316 71.247
7281.875 0.318 71.155 0.946 -18.535 0.946 -18.535 0.318 71.155
7306.813 0.319 71.062 0.946 -18.629 0.946 -18.629 0.319 71.062
7331.75 0.321 70.97 0.945 -18.723 0.945 -18.723 0.321 70.97
7356.688 0.323 70.878 0.945 -18.816 0.945 -18.816 0.323 70.878
7381.625 0.324 70.787 0.944 -18.909 0.944 -18.909 0.324 70.787
7406.563 0.326 70.695 0.944 -19.003 0.944 -19.003 0.326 70.695
7431.5 0.327 70.604 0.943 -19.095 0.943 -19.095 0.327 70.604
7456.438 0.329 70.513 0.943 -19.188 0.943 -19.188 0.329 70.513
7481.375 0.33 70.422 0.942 -19.281 0.942 -19.281 0.33 70.422
7506.313 0.332 70.331 0.942 -19.373 0.942 -19.373 0.332 70.331
7531.25 0.333 70.24 0.941 -19.465 0.941 -19.465 0.333 70.24
7556.188 0.335 70.15 0.941 -19.557 0.941 -19.557 0.335 70.15
7581.125 0.336 70.06 0.94 -19.648 0.94 -19.648 0.336 70.06
7606.063 0.338 69.97 0.94 -19.74 0.94 -19.74 0.338 69.97
7631 0.339 69.88 0.939 -19.831 0.939 -19.831 0.339 69.88
7655.938 0.341 69.791 0.938 -19.922 0.938 -19.922 0.341 69.791
7680.875 0.342 69.701 0.938 -20.013 0.938 -20.013 0.342 69.701
7705.813 0.344 69.612 0.937 -20.103 0.937 -20.103 0.344 69.612
7730.75 0.345 69.523 0.937 -20.194 0.937 -20.194 0.345 69.523
7755.688 0.347 69.434 0.936 -20.284 0.936 -20.284 0.347 69.434
7780.625 0.348 69.346 0.936 -20.374 0.936 -20.374 0.348 69.346
7805.563 0.35 69.257 0.935 -20.464 0.935 -20.464 0.35 69.257
7830.5 0.351 69.169 0.935 -20.553 0.935 -20.553 0.351 69.169
7855.438 0.353 69.081 0.934 -20.643 0.934 -20.643 0.353 69.081
7880.375 0.354 68.993 0.934 -20.732 0.934 -20.732 0.354 68.993
7905.313 0.355 68.905 0.933 -20.821 0.933 -20.821 0.355 68.905
7930.25 0.357 68.818 0.932 -20.91 0.932 -20.91 0.357 68.818
7955.188 0.358 68.73 0.932 -20.998 0.932 -20.998 0.358 68.73
7980.125 0.36 68.643 0.931 -21.087 0.931 -21.087 0.36 68.643
8005.063 0.361 68.556 0.931 -21.175 0.931 -21.175 0.361 68.556
8030 0.363 68.469 0.93 -21.263 0.93 -21.263 0.363 68.469
8054.938 0.364 68.383 0.93 -21.351 0.93 -21.351 0.364 68.383
8079.875 0.366 68.296 0.929 -21.439 0.929 -21.439 0.366 68.296
