! AVX Thin Film Operation		Date: April 2012 
! Description: Accu-P® Series, Thin Film, SMD, RF Capacitor
! Part Number: 12101J3R6ABTTR					
!	100	MHz	-	10.05	GHz			
!	Serial	Measurements						
!								
#	MHZ	S	MA	R	50			
!	S11	S21	S12	S22				
!	dB	Phase	dB	Phase	dB	Phase	dB	Phase
100	0.975	-12.765	0.221	77.217	0.221	77.217	0.975	-12.765
109.812	0.97	-13.974	0.241	76.006	0.241	76.006	0.97	-13.974
119.623	0.965	-15.173	0.262	74.806	0.262	74.806	0.965	-15.173
129.435	0.959	-16.359	0.282	73.618	0.282	73.618	0.959	-16.359
139.247	0.953	-17.532	0.301	72.443	0.301	72.443	0.953	-17.532
149.058	0.947	-18.692	0.32	71.281	0.32	71.281	0.947	-18.692
158.87	0.94	-19.837	0.339	70.134	0.339	70.134	0.94	-19.837
168.682	0.934	-20.968	0.358	69.001	0.358	69.001	0.934	-20.968
178.494	0.926	-22.084	0.376	67.883	0.376	67.883	0.926	-22.084
188.305	0.919	-23.184	0.394	66.781	0.394	66.781	0.919	-23.184
198.117	0.911	-24.268	0.411	65.695	0.411	65.695	0.911	-24.268
207.929	0.904	-25.336	0.428	64.626	0.428	64.626	0.904	-25.336
217.74	0.895	-26.388	0.444	63.573	0.444	63.573	0.895	-26.388
227.552	0.887	-27.422	0.461	62.536	0.461	62.536	0.887	-27.422
237.364	0.879	-28.44	0.476	61.517	0.476	61.517	0.879	-28.44
247.175	0.87	-29.44	0.492	60.514	0.492	60.514	0.87	-29.44
256.987	0.862	-30.424	0.506	59.529	0.506	59.529	0.862	-30.424
266.799	0.853	-31.39	0.521	58.561	0.521	58.561	0.853	-31.39
276.611	0.844	-32.339	0.535	57.61	0.535	57.61	0.844	-32.339
286.422	0.836	-33.271	0.549	56.676	0.549	56.676	0.836	-33.271
296.234	0.827	-34.186	0.562	55.76	0.562	55.76	0.827	-34.186
306.046	0.818	-35.083	0.575	54.86	0.575	54.86	0.818	-35.083
315.857	0.809	-35.964	0.587	53.978	0.587	53.978	0.809	-35.964
325.669	0.8	-36.828	0.599	53.112	0.599	53.112	0.8	-36.828
335.481	0.791	-37.675	0.611	52.263	0.611	52.263	0.791	-37.675
345.292	0.782	-38.506	0.623	51.43	0.623	51.43	0.782	-38.506
355.104	0.773	-39.321	0.634	50.613	0.634	50.613	0.773	-39.321
364.916	0.764	-40.12	0.644	49.812	0.644	49.812	0.764	-40.12
374.727	0.755	-40.903	0.655	49.028	0.655	49.028	0.755	-40.903
384.539	0.746	-41.67	0.665	48.258	0.665	48.258	0.746	-41.67
394.351	0.737	-42.422	0.675	47.504	0.675	47.504	0.737	-42.422
404.163	0.729	-43.16	0.684	46.765	0.684	46.765	0.729	-43.16
413.974	0.72	-43.882	0.693	46.041	0.693	46.041	0.72	-43.882
423.786	0.711	-44.59	0.702	45.331	0.702	45.331	0.711	-44.59
433.598	0.703	-45.284	0.711	44.635	0.711	44.635	0.703	-45.284
443.409	0.694	-45.963	0.719	43.953	0.719	43.953	0.694	-45.963
453.221	0.686	-46.63	0.727	43.285	0.727	43.285	0.686	-46.63
463.033	0.677	-47.282	0.735	42.63	0.735	42.63	0.677	-47.282
472.844	0.669	-47.922	0.742	41.989	0.742	41.989	0.669	-47.922
482.656	0.661	-48.549	0.75	41.36	0.75	41.36	0.661	-48.549
492.468	0.653	-49.164	0.757	40.743	0.757	40.743	0.653	-49.164
502.279	0.645	-49.766	0.763	40.139	0.763	40.139	0.645	-49.766
512.091	0.637	-50.356	0.77	39.546	0.77	39.546	0.637	-50.356
521.903	0.629	-50.935	0.776	38.966	0.776	38.966	0.629	-50.935
531.715	0.621	-51.502	0.783	38.396	0.783	38.396	0.621	-51.502
541.526	0.613	-52.059	0.789	37.838	0.789	37.838	0.613	-52.059
551.338	0.606	-52.604	0.794	37.291	0.794	37.291	0.606	-52.604
561.15	0.598	-53.139	0.8	36.754	0.8	36.754	0.598	-53.139
570.961	0.591	-53.663	0.806	36.227	0.806	36.227	0.591	-53.663
580.773	0.584	-54.178	0.811	35.711	0.811	35.711	0.584	-54.178
590.585	0.576	-54.682	0.816	35.204	0.816	35.204	0.576	-54.682
600.396	0.569	-55.177	0.821	34.707	0.821	34.707	0.569	-55.177
610.208	0.562	-55.662	0.826	34.22	0.826	34.22	0.562	-55.662
620.02	0.555	-56.139	0.83	33.741	0.83	33.741	0.555	-56.139
629.832	0.549	-56.606	0.835	33.272	0.835	33.272	0.549	-56.606
639.643	0.542	-57.065	0.839	32.811	0.839	32.811	0.542	-57.065
649.455	0.535	-57.516	0.844	32.358	0.844	32.358	0.535	-57.516
659.267	0.529	-57.958	0.848	31.914	0.848	31.914	0.529	-57.958
669.078	0.522	-58.392	0.852	31.477	0.852	31.477	0.522	-58.392
678.89	0.516	-58.818	0.856	31.049	0.856	31.049	0.516	-58.818
688.702	0.509	-59.236	0.859	30.628	0.859	30.628	0.509	-59.236
698.513	0.503	-59.648	0.863	30.215	0.863	30.215	0.503	-59.648
708.325	0.497	-60.051	0.866	29.809	0.866	29.809	0.497	-60.051
718.137	0.491	-60.448	0.87	29.41	0.87	29.41	0.491	-60.448
727.948	0.485	-60.838	0.873	29.018	0.873	29.018	0.485	-60.838
737.76	0.479	-61.221	0.876	28.632	0.876	28.632	0.479	-61.221
747.572	0.473	-61.597	0.88	28.253	0.88	28.253	0.473	-61.597
757.384	0.468	-61.967	0.883	27.881	0.883	27.881	0.468	-61.967
767.195	0.462	-62.331	0.886	27.515	0.886	27.515	0.462	-62.331
777.007	0.456	-62.689	0.889	27.155	0.889	27.155	0.456	-62.689
786.819	0.451	-63.041	0.891	26.801	0.891	26.801	0.451	-63.041
796.63	0.445	-63.387	0.894	26.452	0.894	26.452	0.445	-63.387
806.442	0.44	-63.727	0.897	26.11	0.897	26.11	0.44	-63.727
816.254	0.435	-64.062	0.899	25.772	0.899	25.772	0.435	-64.062
826.065	0.43	-64.391	0.902	25.441	0.902	25.441	0.43	-64.391
835.877	0.424	-64.715	0.904	25.114	0.904	25.114	0.424	-64.715
845.689	0.419	-65.034	0.907	24.792	0.907	24.792	0.419	-65.034
855.5	0.414	-65.348	0.909	24.476	0.909	24.476	0.414	-65.348
865.312	0.409	-65.657	0.911	24.164	0.911	24.164	0.409	-65.657
875.124	0.404	-65.961	0.913	23.858	0.913	23.858	0.404	-65.961
884.936	0.4	-66.261	0.915	23.555	0.915	23.555	0.4	-66.261
894.747	0.395	-66.556	0.917	23.258	0.917	23.258	0.395	-66.556
904.559	0.39	-66.846	0.919	22.965	0.919	22.965	0.39	-66.846
914.371	0.386	-67.133	0.921	22.676	0.921	22.676	0.386	-67.133
924.182	0.381	-67.415	0.923	22.391	0.923	22.391	0.381	-67.415
933.994	0.376	-67.692	0.925	22.11	0.925	22.11	0.376	-67.692
943.806	0.372	-67.966	0.927	21.834	0.927	21.834	0.372	-67.966
953.617	0.368	-68.236	0.929	21.561	0.929	21.561	0.368	-68.236
963.429	0.363	-68.502	0.93	21.293	0.93	21.293	0.363	-68.502
973.241	0.359	-68.764	0.932	21.028	0.932	21.028	0.359	-68.764
983.053	0.355	-69.022	0.934	20.766	0.934	20.766	0.355	-69.022
992.864	0.35	-69.277	0.935	20.509	0.935	20.509	0.35	-69.277
1002.676	0.346	-69.528	0.937	20.255	0.937	20.255	0.346	-69.528
1012.488	0.342	-69.776	0.938	20.004	0.938	20.004	0.342	-69.776
1022.299	0.338	-70.021	0.94	19.756	0.94	19.756	0.338	-70.021
1032.111	0.334	-70.262	0.941	19.512	0.941	19.512	0.334	-70.262
1041.923	0.33	-70.499	0.943	19.271	0.943	19.271	0.33	-70.499
1051.734	0.326	-70.734	0.944	19.034	0.944	19.034	0.326	-70.734
1061.546	0.322	-70.966	0.945	18.799	0.945	18.799	0.322	-70.966
1071.358	0.318	-71.194	0.947	18.567	0.947	18.567	0.318	-71.194
1081.169	0.315	-71.42	0.948	18.338	0.948	18.338	0.315	-71.42
1090.981	0.311	-71.643	0.949	18.113	0.949	18.113	0.311	-71.643
1100.793	0.307	-71.862	0.95	17.889	0.95	17.889	0.307	-71.862
1110.605	0.304	-72.079	0.951	17.669	0.951	17.669	0.304	-72.079
1120.416	0.3	-72.294	0.953	17.451	0.953	17.451	0.3	-72.294
1130.228	0.296	-72.505	0.954	17.237	0.954	17.237	0.296	-72.505
1140.04	0.293	-72.714	0.955	17.024	0.955	17.024	0.293	-72.714
1149.851	0.289	-72.921	0.956	16.814	0.956	16.814	0.289	-72.921
1159.663	0.286	-73.125	0.957	16.607	0.957	16.607	0.286	-73.125
1169.475	0.282	-73.326	0.958	16.402	0.958	16.402	0.282	-73.326
1179.286	0.279	-73.525	0.959	16.199	0.959	16.199	0.279	-73.525
1189.098	0.276	-73.722	0.96	15.999	0.96	15.999	0.276	-73.722
1198.91	0.272	-73.916	0.961	15.801	0.961	15.801	0.272	-73.916
1208.722	0.269	-74.108	0.962	15.605	0.962	15.605	0.269	-74.108
1218.533	0.266	-74.298	0.963	15.412	0.963	15.412	0.266	-74.298
1228.345	0.263	-74.485	0.964	15.22	0.964	15.22	0.263	-74.485
1238.157	0.259	-74.671	0.964	15.031	0.964	15.031	0.259	-74.671
1247.968	0.256	-74.854	0.965	14.844	0.965	14.844	0.256	-74.854
1257.78	0.253	-75.035	0.966	14.658	0.966	14.658	0.253	-75.035
1267.592	0.25	-75.214	0.967	14.475	0.967	14.475	0.25	-75.214
1277.403	0.247	-75.392	0.968	14.294	0.968	14.294	0.247	-75.392
1287.215	0.244	-75.567	0.968	14.114	0.968	14.114	0.244	-75.567
1297.027	0.241	-75.74	0.969	13.937	0.969	13.937	0.241	-75.74
1306.838	0.238	-75.912	0.97	13.761	0.97	13.761	0.238	-75.912
1316.65	0.235	-76.081	0.971	13.587	0.971	13.587	0.235	-76.081
1326.462	0.232	-76.249	0.971	13.415	0.971	13.415	0.232	-76.249
1336.274	0.229	-76.415	0.972	13.245	0.972	13.245	0.229	-76.415
1346.085	0.226	-76.579	0.973	13.076	0.973	13.076	0.226	-76.579
1355.897	0.223	-76.742	0.973	12.909	0.973	12.909	0.223	-76.742
1365.709	0.221	-76.902	0.974	12.743	0.974	12.743	0.221	-76.902
1375.52	0.218	-77.061	0.975	12.58	0.975	12.58	0.218	-77.061
1385.332	0.215	-77.219	0.975	12.417	0.975	12.417	0.215	-77.219
1395.144	0.212	-77.374	0.976	12.257	0.976	12.257	0.212	-77.374
1404.955	0.21	-77.529	0.976	12.098	0.976	12.098	0.21	-77.529
1414.767	0.207	-77.681	0.977	11.94	0.977	11.94	0.207	-77.681
1424.579	0.204	-77.832	0.978	11.784	0.978	11.784	0.204	-77.832
1434.39	0.202	-77.982	0.978	11.629	0.978	11.629	0.202	-77.982
1444.202	0.199	-78.13	0.979	11.475	0.979	11.475	0.199	-78.13
1454.014	0.196	-78.276	0.979	11.323	0.979	11.323	0.196	-78.276
1463.826	0.194	-78.421	0.98	11.173	0.98	11.173	0.194	-78.421
1473.637	0.191	-78.565	0.98	11.024	0.98	11.024	0.191	-78.565
1483.449	0.189	-78.707	0.981	10.876	0.981	10.876	0.189	-78.707
1493.261	0.186	-78.848	0.981	10.729	0.981	10.729	0.186	-78.848
1503.072	0.184	-78.988	0.982	10.584	0.982	10.584	0.184	-78.988
1512.884	0.181	-79.126	0.982	10.439	0.982	10.439	0.181	-79.126
1522.696	0.179	-79.262	0.983	10.296	0.983	10.296	0.179	-79.262
1532.507	0.176	-79.398	0.983	10.155	0.983	10.155	0.176	-79.398
1542.319	0.174	-79.532	0.983	10.014	0.983	10.014	0.174	-79.532
1552.131	0.172	-79.665	0.984	9.875	0.984	9.875	0.172	-79.665
1561.943	0.169	-79.796	0.984	9.737	0.984	9.737	0.169	-79.796
1571.754	0.167	-79.927	0.985	9.6	0.985	9.6	0.167	-79.927
1581.566	0.164	-80.056	0.985	9.464	0.985	9.464	0.164	-80.056
1591.378	0.162	-80.184	0.985	9.329	0.985	9.329	0.162	-80.184
1601.189	0.16	-80.31	0.986	9.195	0.986	9.195	0.16	-80.31
1611.001	0.158	-80.436	0.986	9.062	0.986	9.062	0.158	-80.436
1620.813	0.155	-80.56	0.986	8.93	0.986	8.93	0.155	-80.56
1630.624	0.153	-80.683	0.987	8.8	0.987	8.8	0.153	-80.683
1640.436	0.151	-80.805	0.987	8.67	0.987	8.67	0.151	-80.805
1650.248	0.149	-80.925	0.988	8.541	0.988	8.541	0.149	-80.925
1660.059	0.146	-81.045	0.988	8.414	0.988	8.414	0.146	-81.045
1669.871	0.144	-81.163	0.988	8.287	0.988	8.287	0.144	-81.163
1679.683	0.142	-81.28	0.988	8.161	0.988	8.161	0.142	-81.28
1689.495	0.14	-81.396	0.989	8.036	0.989	8.036	0.14	-81.396
1699.306	0.138	-81.511	0.989	7.912	0.989	7.912	0.138	-81.511
1709.118	0.136	-81.625	0.989	7.789	0.989	7.789	0.136	-81.625
1718.93	0.133	-81.738	0.99	7.667	0.99	7.667	0.133	-81.738
1728.741	0.131	-81.85	0.99	7.546	0.99	7.546	0.131	-81.85
1738.553	0.129	-81.96	0.99	7.425	0.99	7.425	0.129	-81.96
1748.365	0.127	-82.07	0.99	7.305	0.99	7.305	0.127	-82.07
1758.176	0.125	-82.178	0.991	7.187	0.991	7.187	0.125	-82.178
1767.988	0.123	-82.285	0.991	7.069	0.991	7.069	0.123	-82.285
1777.8	0.121	-82.391	0.991	6.952	0.991	6.952	0.121	-82.391
1787.611	0.119	-82.496	0.992	6.835	0.992	6.835	0.119	-82.496
1797.423	0.117	-82.6	0.992	6.72	0.992	6.72	0.117	-82.6
1807.235	0.115	-82.703	0.992	6.605	0.992	6.605	0.115	-82.703
1817.047	0.113	-82.805	0.992	6.491	0.992	6.491	0.113	-82.805
1826.858	0.111	-82.906	0.992	6.377	0.992	6.377	0.111	-82.906
1836.67	0.109	-83.005	0.993	6.265	0.993	6.265	0.109	-83.005
1846.482	0.107	-83.104	0.993	6.153	0.993	6.153	0.107	-83.104
1856.293	0.105	-83.201	0.993	6.042	0.993	6.042	0.105	-83.201
1866.105	0.103	-83.297	0.993	5.932	0.993	5.932	0.103	-83.297
1875.917	0.101	-83.392	0.993	5.822	0.993	5.822	0.101	-83.392
1885.728	0.1	-83.486	0.994	5.713	0.994	5.713	0.1	-83.486
1895.54	0.098	-83.579	0.994	5.604	0.994	5.604	0.098	-83.579
1905.352	0.096	-83.671	0.994	5.497	0.994	5.497	0.096	-83.671
1915.164	0.094	-83.761	0.994	5.39	0.994	5.39	0.094	-83.761
1924.975	0.092	-83.85	0.994	5.283	0.994	5.283	0.092	-83.85
1934.787	0.09	-83.938	0.995	5.178	0.995	5.178	0.09	-83.938
1944.599	0.088	-84.025	0.995	5.073	0.995	5.073	0.088	-84.025
1954.41	0.087	-84.11	0.995	4.968	0.995	4.968	0.087	-84.11
1964.222	0.085	-84.194	0.995	4.864	0.995	4.864	0.085	-84.194
1974.034	0.083	-84.277	0.995	4.761	0.995	4.761	0.083	-84.277
1983.845	0.081	-84.358	0.995	4.658	0.995	4.658	0.081	-84.358
1993.657	0.079	-84.438	0.995	4.556	0.995	4.556	0.079	-84.438
2003.469	0.078	-84.517	0.996	4.455	0.996	4.455	0.078	-84.517
2013.28	0.076	-84.594	0.996	4.354	0.996	4.354	0.076	-84.594
2023.092	0.074	-84.669	0.996	4.254	0.996	4.254	0.074	-84.669
2032.904	0.072	-84.743	0.996	4.154	0.996	4.154	0.072	-84.743
2042.716	0.071	-84.815	0.996	4.055	0.996	4.055	0.071	-84.815
2052.527	0.069	-84.886	0.996	3.956	0.996	3.956	0.069	-84.886
2062.339	0.067	-84.954	0.996	3.858	0.996	3.858	0.067	-84.954
2072.151	0.066	-85.021	0.996	3.76	0.996	3.76	0.066	-85.021
2081.962	0.064	-85.086	0.997	3.663	0.997	3.663	0.064	-85.086
2091.774	0.062	-85.148	0.997	3.566	0.997	3.566	0.062	-85.148
2101.586	0.061	-85.209	0.997	3.47	0.997	3.47	0.061	-85.209
2111.397	0.059	-85.267	0.997	3.375	0.997	3.375	0.059	-85.267
2121.209	0.057	-85.322	0.997	3.28	0.997	3.28	0.057	-85.322
2131.021	0.056	-85.375	0.997	3.185	0.997	3.185	0.056	-85.375
2140.833	0.054	-85.426	0.997	3.091	0.997	3.091	0.054	-85.426
2150.644	0.052	-85.473	0.997	2.998	0.997	2.998	0.052	-85.473
2160.456	0.051	-85.517	0.997	2.904	0.997	2.904	0.051	-85.517
2170.268	0.049	-85.557	0.997	2.812	0.997	2.812	0.049	-85.557
2180.079	0.047	-85.594	0.997	2.72	0.997	2.72	0.047	-85.594
2189.891	0.046	-85.627	0.998	2.628	0.998	2.628	0.046	-85.627
2199.703	0.044	-85.655	0.998	2.536	0.998	2.536	0.044	-85.655
2209.514	0.043	-85.679	0.998	2.446	0.998	2.446	0.043	-85.679
2219.326	0.041	-85.697	0.998	2.355	0.998	2.355	0.041	-85.697
2229.138	0.04	-85.71	0.998	2.265	0.998	2.265	0.04	-85.71
2238.949	0.038	-85.716	0.998	2.176	0.998	2.176	0.038	-85.716
2248.761	0.036	-85.715	0.998	2.086	0.998	2.086	0.036	-85.715
2258.573	0.035	-85.706	0.998	1.998	0.998	1.998	0.035	-85.706
2268.385	0.033	-85.689	0.998	1.909	0.998	1.909	0.033	-85.689
2278.196	0.032	-85.661	0.998	1.822	0.998	1.822	0.032	-85.661
2288.008	0.03	-85.621	0.998	1.734	0.998	1.734	0.03	-85.621
2297.82	0.029	-85.569	0.998	1.647	0.998	1.647	0.029	-85.569
2307.631	0.027	-85.501	0.998	1.56	0.998	1.56	0.027	-85.501
2317.443	0.026	-85.415	0.998	1.474	0.998	1.474	0.026	-85.415
2327.255	0.024	-85.309	0.998	1.388	0.998	1.388	0.024	-85.309
2337.066	0.023	-85.178	0.998	1.302	0.998	1.302	0.023	-85.178
2346.878	0.021	-85.017	0.998	1.217	0.998	1.217	0.021	-85.017
2356.69	0.02	-84.821	0.998	1.132	0.998	1.132	0.02	-84.821
2366.501	0.018	-84.581	0.998	1.048	0.998	1.048	0.018	-84.581
2376.313	0.017	-84.285	0.998	0.964	0.998	0.964	0.017	-84.285
2386.125	0.015	-83.919	0.998	0.88	0.998	0.88	0.015	-83.919
2395.937	0.014	-83.462	0.999	0.797	0.999	0.797	0.014	-83.462
2405.748	0.013	-82.882	0.999	0.714	0.999	0.714	0.013	-82.882
2415.56	0.011	-82.134	0.999	0.631	0.999	0.631	0.011	-82.134
2425.372	9.68E-03	-81.145	0.999	0.549	0.999	0.549	9.68E-03	-81.145
2435.183	8.27E-03	-79.795	0.999	0.467	0.999	0.467	8.27E-03	-79.795
2444.995	6.87E-03	-77.864	0.999	0.385	0.999	0.385	6.87E-03	-77.864
2454.807	5.49E-03	-74.925	0.999	0.304	0.999	0.304	5.49E-03	-74.925
2464.618	4.13E-03	-70.004	0.999	0.223	0.999	0.223	4.13E-03	-70.004
2474.43	2.85E-03	-60.46	0.999	0.142	0.999	0.142	2.85E-03	-60.46
2484.242	1.77E-03	-37.61	0.999	0.062	0.999	0.062	1.77E-03	-37.61
2494.054	1.43E-03	12.756	0.999	-0.018	0.999	-0.018	1.43E-03	12.756
2503.865	2.21E-03	50.599	0.999	-0.098	0.999	-0.098	2.21E-03	50.599
2513.677	3.40E-03	65.502	0.999	-0.177	0.999	-0.177	3.40E-03	65.502
2523.489	4.69E-03	72.389	0.999	-0.256	0.999	-0.256	4.69E-03	72.389
2533.3	6.02E-03	76.221	0.999	-0.335	0.999	-0.335	6.02E-03	76.221
2543.112	7.35E-03	78.625	0.999	-0.414	0.999	-0.414	7.35E-03	78.625
2552.924	8.70E-03	80.256	0.999	-0.492	0.999	-0.492	8.70E-03	80.256
2562.735	0.01	81.426	0.999	-0.57	0.999	-0.57	0.01	81.426
2572.547	0.011	82.297	0.999	-0.647	0.999	-0.647	0.011	82.297
2582.359	0.013	82.967	0.999	-0.725	0.999	-0.725	0.013	82.967
2592.17	0.014	83.492	0.999	-0.802	0.999	-0.802	0.014	83.492
2601.982	0.015	83.911	0.998	-0.878	0.998	-0.878	0.015	83.911
2611.794	0.017	84.249	0.998	-0.955	0.998	-0.955	0.017	84.249
2621.606	0.018	84.526	0.998	-1.031	0.998	-1.031	0.018	84.526
2631.417	0.019	84.754	0.998	-1.107	0.998	-1.107	0.019	84.754
2641.229	0.021	84.942	0.998	-1.183	0.998	-1.183	0.021	84.942
2651.041	0.022	85.098	0.998	-1.258	0.998	-1.258	0.022	85.098
2660.852	0.023	85.228	0.998	-1.333	0.998	-1.333	0.023	85.228
2670.664	0.025	85.336	0.998	-1.408	0.998	-1.408	0.025	85.336
2680.476	0.026	85.425	0.998	-1.483	0.998	-1.483	0.026	85.425
2690.287	0.027	85.498	0.998	-1.557	0.998	-1.557	0.027	85.498
2700.099	0.028	85.557	0.998	-1.631	0.998	-1.631	0.028	85.557
2709.911	0.03	85.605	0.998	-1.705	0.998	-1.705	0.03	85.605
2719.722	0.031	85.643	0.998	-1.778	0.998	-1.778	0.031	85.643
2729.534	0.032	85.672	0.998	-1.852	0.998	-1.852	0.032	85.672
2739.346	0.034	85.692	0.998	-1.925	0.998	-1.925	0.034	85.692
2749.158	0.035	85.706	0.998	-1.998	0.998	-1.998	0.035	85.706
2758.969	0.036	85.714	0.998	-2.07	0.998	-2.07	0.036	85.714
2768.781	0.037	85.717	0.998	-2.143	0.998	-2.143	0.037	85.717
2778.593	0.039	85.714	0.998	-2.215	0.998	-2.215	0.039	85.714
2788.404	0.04	85.708	0.998	-2.287	0.998	-2.287	0.04	85.708
2798.216	0.041	85.697	0.998	-2.358	0.998	-2.358	0.041	85.697
2808.028	0.042	85.683	0.998	-2.43	0.998	-2.43	0.042	85.683
2817.839	0.044	85.665	0.998	-2.501	0.998	-2.501	0.044	85.665
2827.651	0.045	85.645	0.998	-2.572	0.998	-2.572	0.045	85.645
2837.463	0.046	85.622	0.998	-2.643	0.998	-2.643	0.046	85.622
2847.275	0.047	85.597	0.997	-2.713	0.997	-2.713	0.047	85.597
2857.086	0.049	85.569	0.997	-2.784	0.997	-2.784	0.049	85.569
2866.898	0.05	85.539	0.997	-2.854	0.997	-2.854	0.05	85.539
2876.71	0.051	85.508	0.997	-2.924	0.997	-2.924	0.051	85.508
2886.521	0.052	85.475	0.997	-2.993	0.997	-2.993	0.052	85.475
2896.333	0.053	85.44	0.997	-3.063	0.997	-3.063	0.053	85.44
2906.145	0.055	85.404	0.997	-3.132	0.997	-3.132	0.055	85.404
2915.956	0.056	85.367	0.997	-3.201	0.997	-3.201	0.056	85.367
2925.768	0.057	85.328	0.997	-3.27	0.997	-3.27	0.057	85.328
2935.58	0.058	85.288	0.997	-3.338	0.997	-3.338	0.058	85.288
2945.391	0.059	85.247	0.997	-3.407	0.997	-3.407	0.059	85.247
2955.203	0.061	85.206	0.997	-3.475	0.997	-3.475	0.061	85.206
2965.015	0.062	85.163	0.997	-3.543	0.997	-3.543	0.062	85.163
2974.827	0.063	85.12	0.997	-3.611	0.997	-3.611	0.063	85.12
2984.638	0.064	85.075	0.997	-3.679	0.997	-3.679	0.064	85.075
2994.45	0.065	85.03	0.996	-3.746	0.996	-3.746	0.065	85.03
3004.262	0.067	84.985	0.996	-3.813	0.996	-3.813	0.067	84.985
3014.073	0.068	84.938	0.996	-3.88	0.996	-3.88	0.068	84.938
3023.885	0.069	84.892	0.996	-3.947	0.996	-3.947	0.069	84.892
3033.697	0.07	84.844	0.996	-4.014	0.996	-4.014	0.07	84.844
3043.508	0.071	84.796	0.996	-4.081	0.996	-4.081	0.071	84.796
3053.32	0.072	84.748	0.996	-4.147	0.996	-4.147	0.072	84.748
3063.132	0.073	84.699	0.996	-4.213	0.996	-4.213	0.073	84.699
3072.944	0.075	84.65	0.996	-4.279	0.996	-4.279	0.075	84.65
3082.755	0.076	84.601	0.996	-4.345	0.996	-4.345	0.076	84.601
3092.567	0.077	84.551	0.996	-4.41	0.996	-4.41	0.077	84.551
3102.379	0.078	84.501	0.996	-4.476	0.996	-4.476	0.078	84.501
3112.19	0.079	84.45	0.995	-4.541	0.995	-4.541	0.079	84.45
3122.002	0.08	84.399	0.995	-4.606	0.995	-4.606	0.08	84.399
3131.814	0.081	84.348	0.995	-4.671	0.995	-4.671	0.081	84.348
3141.625	0.083	84.297	0.995	-4.736	0.995	-4.736	0.083	84.297
3151.437	0.084	84.245	0.995	-4.801	0.995	-4.801	0.084	84.245
3161.249	0.085	84.194	0.995	-4.865	0.995	-4.865	0.085	84.194
3171.06	0.086	84.142	0.995	-4.929	0.995	-4.929	0.086	84.142
3180.872	0.087	84.09	0.995	-4.993	0.995	-4.993	0.087	84.09
3190.684	0.088	84.037	0.995	-5.057	0.995	-5.057	0.088	84.037
3200.496	0.089	83.985	0.995	-5.121	0.995	-5.121	0.089	83.985
3210.307	0.09	83.932	0.995	-5.185	0.995	-5.185	0.09	83.932
3220.119	0.091	83.88	0.994	-5.248	0.994	-5.248	0.091	83.88
3229.931	0.093	83.827	0.994	-5.311	0.994	-5.311	0.093	83.827
3239.742	0.094	83.774	0.994	-5.375	0.994	-5.375	0.094	83.774
3249.554	0.095	83.721	0.994	-5.437	0.994	-5.437	0.095	83.721
3259.366	0.096	83.668	0.994	-5.5	0.994	-5.5	0.096	83.668
