! AVX Thin Film Operation		Date: April 2012 
! Description: Accu-P® Series, Thin Film, SMD, RF Capacitor
! Part Number: 12101J220FBTTR					
!	100	MHz	-	10.05	GHz			
!	Serial	Measurements						
!								
#	MHZ	S	MA	R	50			
!	S11	S21	S12	S22				
!	dB	Phase	dB	Phase	dB	Phase	dB	Phase
100	0.582	-54.343	0.813	35.593	0.813	35.593	0.582	-54.343
109.812	0.545	-56.887	0.838	33.042	0.838	33.042	0.545	-56.887
119.623	0.512	-59.138	0.858	30.785	0.858	30.785	0.512	-59.138
129.435	0.481	-61.138	0.876	28.778	0.876	28.778	0.481	-61.138
139.247	0.454	-62.924	0.89	26.986	0.89	26.986	0.454	-62.924
149.058	0.429	-64.526	0.903	25.377	0.903	25.377	0.429	-64.526
158.87	0.406	-65.97	0.913	23.927	0.913	23.927	0.406	-65.97
168.682	0.385	-67.277	0.922	22.613	0.922	22.613	0.385	-67.277
178.494	0.365	-68.464	0.93	21.419	0.93	21.419	0.365	-68.464
188.305	0.347	-69.548	0.937	20.328	0.937	20.328	0.347	-69.548
198.117	0.331	-70.54	0.943	19.329	0.943	19.329	0.331	-70.54
207.929	0.316	-71.452	0.948	18.41	0.948	18.41	0.316	-71.452
217.74	0.302	-72.293	0.953	17.562	0.953	17.562	0.302	-72.293
227.552	0.289	-73.071	0.957	16.777	0.957	16.777	0.289	-73.071
237.364	0.276	-73.793	0.96	16.048	0.96	16.048	0.276	-73.793
247.175	0.265	-74.464	0.963	15.369	0.963	15.369	0.265	-74.464
256.987	0.254	-75.091	0.966	14.735	0.966	14.735	0.254	-75.091
266.799	0.244	-75.677	0.969	14.142	0.969	14.142	0.244	-75.677
276.611	0.235	-76.226	0.971	13.585	0.971	13.585	0.235	-76.226
286.422	0.226	-76.741	0.973	13.061	0.973	13.061	0.226	-76.741
296.234	0.218	-77.227	0.975	12.568	0.975	12.568	0.218	-77.227
306.046	0.21	-77.684	0.977	12.102	0.977	12.102	0.21	-77.684
315.857	0.202	-78.117	0.979	11.661	0.979	11.661	0.202	-78.117
325.669	0.195	-78.526	0.98	11.243	0.98	11.243	0.195	-78.526
335.481	0.188	-78.914	0.981	10.846	0.981	10.846	0.188	-78.914
345.292	0.182	-79.283	0.983	10.469	0.983	10.469	0.182	-79.283
355.104	0.176	-79.634	0.984	10.109	0.984	10.109	0.176	-79.634
364.916	0.17	-79.967	0.985	9.766	0.985	9.766	0.17	-79.967
374.727	0.164	-80.286	0.986	9.439	0.986	9.439	0.164	-80.286
384.539	0.159	-80.59	0.987	9.125	0.987	9.125	0.159	-80.59
394.351	0.153	-80.88	0.987	8.825	0.987	8.825	0.153	-80.88
404.163	0.148	-81.159	0.988	8.536	0.988	8.536	0.148	-81.159
413.974	0.144	-81.425	0.989	8.259	0.989	8.259	0.144	-81.425
423.786	0.139	-81.681	0.989	7.993	0.989	7.993	0.139	-81.681
433.598	0.135	-81.926	0.99	7.737	0.99	7.737	0.135	-81.926
443.409	0.13	-82.162	0.991	7.49	0.991	7.49	0.13	-82.162
453.221	0.126	-82.388	0.991	7.252	0.991	7.252	0.126	-82.388
463.033	0.122	-82.606	0.992	7.022	0.992	7.022	0.122	-82.606
472.844	0.118	-82.816	0.992	6.799	0.992	6.799	0.118	-82.816
482.656	0.115	-83.019	0.993	6.584	0.993	6.584	0.115	-83.019
492.468	0.111	-83.214	0.993	6.376	0.993	6.376	0.111	-83.214
502.279	0.108	-83.402	0.993	6.174	0.993	6.174	0.108	-83.402
512.091	0.104	-83.584	0.994	5.979	0.994	5.979	0.104	-83.584
521.903	0.101	-83.76	0.994	5.788	0.994	5.788	0.101	-83.76
531.715	0.098	-83.929	0.994	5.604	0.994	5.604	0.098	-83.929
541.526	0.095	-84.093	0.995	5.424	0.995	5.424	0.095	-84.093
551.338	0.092	-84.252	0.995	5.25	0.995	5.25	0.092	-84.252
561.15	0.089	-84.405	0.995	5.08	0.995	5.08	0.089	-84.405
570.961	0.086	-84.553	0.996	4.914	0.996	4.914	0.086	-84.553
580.773	0.083	-84.696	0.996	4.753	0.996	4.753	0.083	-84.696
590.585	0.08	-84.835	0.996	4.596	0.996	4.596	0.08	-84.835
600.396	0.077	-84.968	0.996	4.442	0.996	4.442	0.077	-84.968
610.208	0.075	-85.098	0.996	4.292	0.996	4.292	0.075	-85.098
620.02	0.072	-85.223	0.997	4.145	0.997	4.145	0.072	-85.223
629.832	0.07	-85.343	0.997	4.002	0.997	4.002	0.07	-85.343
639.643	0.067	-85.46	0.997	3.862	0.997	3.862	0.067	-85.46
649.455	0.065	-85.572	0.997	3.725	0.997	3.725	0.065	-85.572
659.267	0.063	-85.68	0.997	3.59	0.997	3.59	0.063	-85.68
669.078	0.06	-85.784	0.997	3.459	0.997	3.459	0.06	-85.784
678.89	0.058	-85.883	0.998	3.33	0.998	3.33	0.058	-85.883
688.702	0.056	-85.978	0.998	3.203	0.998	3.203	0.056	-85.978
698.513	0.054	-86.069	0.998	3.079	0.998	3.079	0.054	-86.069
708.325	0.052	-86.156	0.998	2.957	0.998	2.957	0.052	-86.156
718.137	0.05	-86.238	0.998	2.838	0.998	2.838	0.05	-86.238
727.948	0.047	-86.316	0.998	2.72	0.998	2.72	0.047	-86.316
737.76	0.045	-86.388	0.998	2.605	0.998	2.605	0.045	-86.388
747.572	0.043	-86.456	0.998	2.491	0.998	2.491	0.043	-86.456
757.384	0.042	-86.518	0.998	2.38	0.998	2.38	0.042	-86.518
767.195	0.04	-86.575	0.998	2.27	0.998	2.27	0.04	-86.575
777.007	0.038	-86.625	0.998	2.162	0.998	2.162	0.038	-86.625
786.819	0.036	-86.668	0.999	2.056	0.999	2.056	0.036	-86.668
796.63	0.034	-86.705	0.999	1.951	0.999	1.951	0.034	-86.705
806.442	0.032	-86.733	0.999	1.848	0.999	1.848	0.032	-86.733
816.254	0.03	-86.752	0.999	1.746	0.999	1.746	0.03	-86.752
826.065	0.029	-86.76	0.999	1.646	0.999	1.646	0.029	-86.76
835.877	0.027	-86.757	0.999	1.547	0.999	1.547	0.027	-86.757
845.689	0.025	-86.741	0.999	1.45	0.999	1.45	0.025	-86.741
855.5	0.024	-86.709	0.999	1.354	0.999	1.354	0.024	-86.709
865.312	0.022	-86.657	0.999	1.259	0.999	1.259	0.022	-86.657
875.124	0.02	-86.584	0.999	1.165	0.999	1.165	0.02	-86.584
884.936	0.019	-86.483	0.999	1.073	0.999	1.073	0.019	-86.483
894.747	0.017	-86.347	0.999	0.982	0.999	0.982	0.017	-86.347
904.559	0.016	-86.167	0.999	0.891	0.999	0.891	0.016	-86.167
914.371	0.014	-85.93	0.999	0.802	0.999	0.802	0.014	-85.93
924.182	0.012	-85.616	0.999	0.714	0.999	0.714	0.012	-85.616
933.994	0.011	-85.195	0.999	0.627	0.999	0.627	0.011	-85.195
943.806	9.48E-03	-84.62	0.999	0.541	0.999	0.541	9.48E-03	-84.62
953.617	8.00E-03	-83.807	0.999	0.456	0.999	0.456	8.00E-03	-83.807
963.429	6.54E-03	-82.603	0.999	0.372	0.999	0.372	6.54E-03	-82.603
973.241	5.10E-03	-80.685	0.999	0.288	0.999	0.288	5.10E-03	-80.685
983.053	3.68E-03	-77.251	0.999	0.206	0.999	0.206	3.68E-03	-77.251
992.864	2.31E-03	-69.641	0.999	0.124	0.999	0.124	2.31E-03	-69.641
1002.676	1.10E-03	-43.446	0.999	0.043	0.999	0.043	1.10E-03	-43.446
1012.488	1.02E-03	38.564	0.999	-0.037	0.999	-0.037	1.02E-03	38.564
1022.299	2.17E-03	68.305	0.999	-0.116	0.999	-0.116	2.17E-03	68.305
1032.111	3.49E-03	76.542	0.999	-0.194	0.999	-0.194	3.49E-03	76.542
1041.923	4.82E-03	80.172	0.999	-0.272	0.999	-0.272	4.82E-03	80.172
1051.734	6.15E-03	82.177	0.999	-0.349	0.999	-0.349	6.15E-03	82.177
1061.546	7.47E-03	83.431	0.999	-0.426	0.999	-0.426	7.47E-03	83.431
1071.358	8.79E-03	84.278	0.999	-0.501	0.999	-0.501	8.79E-03	84.278
1081.169	0.01	84.88	0.999	-0.576	0.999	-0.576	0.01	84.88
1090.981	0.011	85.323	0.999	-0.651	0.999	-0.651	0.011	85.323
1100.793	0.013	85.658	0.999	-0.725	0.999	-0.725	0.013	85.658
1110.605	0.014	85.916	0.999	-0.798	0.999	-0.798	0.014	85.916
1120.416	0.015	86.117	0.999	-0.87	0.999	-0.87	0.015	86.117
1130.228	0.016	86.275	0.999	-0.943	0.999	-0.943	0.016	86.275
1140.04	0.018	86.4	0.999	-1.014	0.999	-1.014	0.018	86.4
1149.851	0.019	86.498	0.999	-1.085	0.999	-1.085	0.019	86.498
1159.663	0.02	86.575	0.999	-1.155	0.999	-1.155	0.02	86.575
1169.475	0.021	86.634	0.999	-1.225	0.999	-1.225	0.021	86.634
1179.286	0.023	86.679	0.999	-1.295	0.999	-1.295	0.023	86.679
1189.098	0.024	86.713	0.999	-1.364	0.999	-1.364	0.024	86.713
1198.91	0.025	86.736	0.999	-1.432	0.999	-1.432	0.025	86.736
1208.722	0.026	86.751	0.999	-1.5	0.999	-1.5	0.026	86.751
1218.533	0.027	86.759	0.999	-1.568	0.999	-1.568	0.027	86.759
1228.345	0.029	86.761	0.999	-1.635	0.999	-1.635	0.029	86.761
1238.157	0.03	86.757	0.999	-1.702	0.999	-1.702	0.03	86.757
1247.968	0.031	86.748	0.999	-1.768	0.999	-1.768	0.031	86.748
1257.78	0.032	86.736	0.999	-1.834	0.999	-1.834	0.032	86.736
1267.592	0.033	86.72	0.999	-1.899	0.999	-1.899	0.033	86.72
1277.403	0.034	86.7	0.999	-1.964	0.999	-1.964	0.034	86.7
1287.215	0.035	86.678	0.999	-2.029	0.999	-2.029	0.035	86.678
1297.027	0.037	86.654	0.999	-2.093	0.999	-2.093	0.037	86.654
1306.838	0.038	86.627	0.998	-2.157	0.998	-2.157	0.038	86.627
1316.65	0.039	86.598	0.998	-2.22	0.998	-2.22	0.039	86.598
1326.462	0.04	86.568	0.998	-2.283	0.998	-2.283	0.04	86.568
1336.274	0.041	86.536	0.998	-2.346	0.998	-2.346	0.041	86.536
1346.085	0.042	86.502	0.998	-2.409	0.998	-2.409	0.042	86.502
1355.897	0.043	86.468	0.998	-2.471	0.998	-2.471	0.043	86.468
1365.709	0.044	86.432	0.998	-2.533	0.998	-2.533	0.044	86.432
1375.52	0.045	86.395	0.998	-2.594	0.998	-2.594	0.045	86.395
1385.332	0.046	86.357	0.998	-2.655	0.998	-2.655	0.046	86.357
1395.144	0.047	86.318	0.998	-2.716	0.998	-2.716	0.047	86.318
1404.955	0.048	86.279	0.998	-2.777	0.998	-2.777	0.048	86.279
1414.767	0.05	86.239	0.998	-2.837	0.998	-2.837	0.05	86.239
1424.579	0.051	86.198	0.998	-2.897	0.998	-2.897	0.051	86.198
1434.39	0.052	86.156	0.998	-2.957	0.998	-2.957	0.052	86.156
1444.202	0.053	86.114	0.998	-3.016	0.998	-3.016	0.053	86.114
1454.014	0.054	86.072	0.998	-3.076	0.998	-3.076	0.054	86.072
1463.826	0.055	86.029	0.998	-3.134	0.998	-3.134	0.055	86.029
1473.637	0.056	85.986	0.998	-3.193	0.998	-3.193	0.056	85.986
1483.449	0.057	85.942	0.998	-3.251	0.998	-3.251	0.057	85.942
1493.261	0.058	85.898	0.998	-3.31	0.998	-3.31	0.058	85.898
1503.072	0.059	85.854	0.997	-3.368	0.997	-3.368	0.059	85.854
1512.884	0.06	85.809	0.997	-3.425	0.997	-3.425	0.06	85.809
1522.696	0.061	85.765	0.997	-3.483	0.997	-3.483	0.061	85.765
1532.507	0.062	85.72	0.997	-3.54	0.997	-3.54	0.062	85.72
1542.319	0.063	85.674	0.997	-3.597	0.997	-3.597	0.063	85.674
1552.131	0.064	85.629	0.997	-3.654	0.997	-3.654	0.064	85.629
1561.943	0.065	85.584	0.997	-3.71	0.997	-3.71	0.065	85.584
1571.754	0.066	85.538	0.997	-3.766	0.997	-3.766	0.066	85.538
1581.566	0.067	85.492	0.997	-3.822	0.997	-3.822	0.067	85.492
1591.378	0.068	85.446	0.997	-3.878	0.997	-3.878	0.068	85.446
1601.189	0.069	85.4	0.997	-3.934	0.997	-3.934	0.069	85.4
1611.001	0.07	85.354	0.997	-3.989	0.997	-3.989	0.07	85.354
1620.813	0.071	85.307	0.997	-4.045	0.997	-4.045	0.071	85.307
1630.624	0.071	85.261	0.997	-4.1	0.997	-4.1	0.071	85.261
1640.436	0.072	85.215	0.997	-4.155	0.997	-4.155	0.072	85.215
1650.248	0.073	85.168	0.997	-4.209	0.997	-4.209	0.073	85.168
1660.059	0.074	85.122	0.996	-4.264	0.996	-4.264	0.074	85.122
1669.871	0.075	85.075	0.996	-4.318	0.996	-4.318	0.075	85.075
1679.683	0.076	85.028	0.996	-4.373	0.996	-4.373	0.076	85.028
1689.495	0.077	84.982	0.996	-4.427	0.996	-4.427	0.077	84.982
1699.306	0.078	84.935	0.996	-4.48	0.996	-4.48	0.078	84.935
1709.118	0.079	84.888	0.996	-4.534	0.996	-4.534	0.079	84.888
1718.93	0.08	84.842	0.996	-4.587	0.996	-4.587	0.08	84.842
1728.741	0.081	84.795	0.996	-4.641	0.996	-4.641	0.081	84.795
1738.553	0.082	84.748	0.996	-4.694	0.996	-4.694	0.082	84.748
1748.365	0.083	84.701	0.996	-4.747	0.996	-4.747	0.083	84.701
1758.176	0.084	84.655	0.996	-4.8	0.996	-4.8	0.084	84.655
1767.988	0.085	84.608	0.996	-4.853	0.996	-4.853	0.085	84.608
1777.8	0.086	84.561	0.996	-4.905	0.996	-4.905	0.086	84.561
1787.611	0.086	84.514	0.995	-4.957	0.995	-4.957	0.086	84.514
1797.423	0.087	84.468	0.995	-5.01	0.995	-5.01	0.087	84.468
1807.235	0.088	84.421	0.995	-5.062	0.995	-5.062	0.088	84.421
1817.047	0.089	84.374	0.995	-5.114	0.995	-5.114	0.089	84.374
1826.858	0.09	84.328	0.995	-5.166	0.995	-5.166	0.09	84.328
1836.67	0.091	84.281	0.995	-5.217	0.995	-5.217	0.091	84.281
1846.482	0.092	84.234	0.995	-5.269	0.995	-5.269	0.092	84.234
1856.293	0.093	84.188	0.995	-5.32	0.995	-5.32	0.093	84.188
1866.105	0.094	84.141	0.995	-5.371	0.995	-5.371	0.094	84.141
1875.917	0.095	84.095	0.995	-5.423	0.995	-5.423	0.095	84.095
1885.728	0.095	84.048	0.995	-5.474	0.995	-5.474	0.095	84.048
1895.54	0.096	84.002	0.995	-5.525	0.995	-5.525	0.096	84.002
1905.352	0.097	83.955	0.994	-5.575	0.994	-5.575	0.097	83.955
1915.164	0.098	83.909	0.994	-5.626	0.994	-5.626	0.098	83.909
1924.975	0.099	83.863	0.994	-5.676	0.994	-5.676	0.099	83.863
1934.787	0.1	83.816	0.994	-5.727	0.994	-5.727	0.1	83.816
1944.599	0.101	83.77	0.994	-5.777	0.994	-5.777	0.101	83.77
1954.41	0.102	83.724	0.994	-5.827	0.994	-5.827	0.102	83.724
1964.222	0.102	83.678	0.994	-5.877	0.994	-5.877	0.102	83.678
1974.034	0.103	83.631	0.994	-5.927	0.994	-5.927	0.103	83.631
1983.845	0.104	83.585	0.994	-5.977	0.994	-5.977	0.104	83.585
1993.657	0.105	83.539	0.994	-6.027	0.994	-6.027	0.105	83.539
2003.469	0.106	83.493	0.994	-6.076	0.994	-6.076	0.106	83.493
2013.28	0.107	83.447	0.993	-6.126	0.993	-6.126	0.107	83.447
2023.092	0.108	83.401	0.993	-6.175	0.993	-6.175	0.108	83.401
2032.904	0.108	83.355	0.993	-6.225	0.993	-6.225	0.108	83.355
2042.716	0.109	83.309	0.993	-6.274	0.993	-6.274	0.109	83.309
2052.527	0.11	83.264	0.993	-6.323	0.993	-6.323	0.11	83.264
2062.339	0.111	83.218	0.993	-6.372	0.993	-6.372	0.111	83.218
2072.151	0.112	83.172	0.993	-6.421	0.993	-6.421	0.112	83.172
2081.962	0.113	83.126	0.993	-6.47	0.993	-6.47	0.113	83.126
2091.774	0.114	83.081	0.993	-6.518	0.993	-6.518	0.114	83.081
2101.586	0.114	83.035	0.993	-6.567	0.993	-6.567	0.114	83.035
2111.397	0.115	82.99	0.993	-6.615	0.993	-6.615	0.115	82.99
2121.209	0.116	82.944	0.992	-6.664	0.992	-6.664	0.116	82.944
2131.021	0.117	82.899	0.992	-6.712	0.992	-6.712	0.117	82.899
2140.833	0.118	82.853	0.992	-6.76	0.992	-6.76	0.118	82.853
2150.644	0.119	82.808	0.992	-6.809	0.992	-6.809	0.119	82.808
2160.456	0.119	82.762	0.992	-6.857	0.992	-6.857	0.119	82.762
2170.268	0.12	82.717	0.992	-6.905	0.992	-6.905	0.12	82.717
2180.079	0.121	82.672	0.992	-6.952	0.992	-6.952	0.121	82.672
2189.891	0.122	82.627	0.992	-7	0.992	-7	0.122	82.627
2199.703	0.123	82.582	0.992	-7.048	0.992	-7.048	0.123	82.582
2209.514	0.124	82.536	0.992	-7.096	0.992	-7.096	0.124	82.536
2219.326	0.124	82.491	0.991	-7.143	0.991	-7.143	0.124	82.491
2229.138	0.125	82.446	0.991	-7.191	0.991	-7.191	0.125	82.446
2238.949	0.126	82.401	0.991	-7.238	0.991	-7.238	0.126	82.401
2248.761	0.127	82.356	0.991	-7.285	0.991	-7.285	0.127	82.356
2258.573	0.128	82.312	0.991	-7.332	0.991	-7.332	0.128	82.312
2268.385	0.128	82.267	0.991	-7.38	0.991	-7.38	0.128	82.267
2278.196	0.129	82.222	0.991	-7.427	0.991	-7.427	0.129	82.222
2288.008	0.13	82.177	0.991	-7.474	0.991	-7.474	0.13	82.177
2297.82	0.131	82.132	0.991	-7.521	0.991	-7.521	0.131	82.132
2307.631	0.132	82.088	0.99	-7.567	0.99	-7.567	0.132	82.088
2317.443	0.133	82.043	0.99	-7.614	0.99	-7.614	0.133	82.043
2327.255	0.133	81.999	0.99	-7.661	0.99	-7.661	0.133	81.999
2337.066	0.134	81.954	0.99	-7.707	0.99	-7.707	0.134	81.954
2346.878	0.135	81.91	0.99	-7.754	0.99	-7.754	0.135	81.91
2356.69	0.136	81.865	0.99	-7.8	0.99	-7.8	0.136	81.865
2366.501	0.137	81.821	0.99	-7.847	0.99	-7.847	0.137	81.821
2376.313	0.137	81.776	0.99	-7.893	0.99	-7.893	0.137	81.776
2386.125	0.138	81.732	0.99	-7.939	0.99	-7.939	0.138	81.732
2395.937	0.139	81.688	0.99	-7.986	0.99	-7.986	0.139	81.688
2405.748	0.14	81.644	0.989	-8.032	0.989	-8.032	0.14	81.644
2415.56	0.141	81.599	0.989	-8.078	0.989	-8.078	0.141	81.599
2425.372	0.141	81.555	0.989	-8.124	0.989	-8.124	0.141	81.555
2435.183	0.142	81.511	0.989	-8.17	0.989	-8.17	0.142	81.511
2444.995	0.143	81.467	0.989	-8.216	0.989	-8.216	0.143	81.467
2454.807	0.144	81.423	0.989	-8.261	0.989	-8.261	0.144	81.423
2464.618	0.144	81.379	0.989	-8.307	0.989	-8.307	0.144	81.379
2474.43	0.145	81.335	0.989	-8.353	0.989	-8.353	0.145	81.335
2484.242	0.146	81.291	0.988	-8.398	0.988	-8.398	0.146	81.291
2494.054	0.147	81.247	0.988	-8.444	0.988	-8.444	0.147	81.247
2503.865	0.148	81.204	0.988	-8.49	0.988	-8.49	0.148	81.204
2513.677	0.148	81.16	0.988	-8.535	0.988	-8.535	0.148	81.16
2523.489	0.149	81.116	0.988	-8.58	0.988	-8.58	0.149	81.116
2533.3	0.15	81.072	0.988	-8.626	0.988	-8.626	0.15	81.072
2543.112	0.151	81.029	0.988	-8.671	0.988	-8.671	0.151	81.029
2552.924	0.152	80.985	0.988	-8.716	0.988	-8.716	0.152	80.985
2562.735	0.152	80.941	0.988	-8.761	0.988	-8.761	0.152	80.941
2572.547	0.153	80.898	0.987	-8.806	0.987	-8.806	0.153	80.898
2582.359	0.154	80.854	0.987	-8.851	0.987	-8.851	0.154	80.854
2592.17	0.155	80.811	0.987	-8.896	0.987	-8.896	0.155	80.811
2601.982	0.155	80.768	0.987	-8.941	0.987	-8.941	0.155	80.768
2611.794	0.156	80.724	0.987	-8.986	0.987	-8.986	0.156	80.724
2621.606	0.157	80.681	0.987	-9.031	0.987	-9.031	0.157	80.681
2631.417	0.158	80.638	0.987	-9.076	0.987	-9.076	0.158	80.638
2641.229	0.159	80.594	0.987	-9.12	0.987	-9.12	0.159	80.594
2651.041	0.159	80.551	0.986	-9.165	0.986	-9.165	0.159	80.551
2660.852	0.16	80.508	0.986	-9.21	0.986	-9.21	0.16	80.508
2670.664	0.161	80.465	0.986	-9.254	0.986	-9.254	0.161	80.465
2680.476	0.162	80.422	0.986	-9.299	0.986	-9.299	0.162	80.422
2690.287	0.162	80.379	0.986	-9.343	0.986	-9.343	0.162	80.379
2700.099	0.163	80.335	0.986	-9.387	0.986	-9.387	0.163	80.335
2709.911	0.164	80.292	0.986	-9.432	0.986	-9.432	0.164	80.292
2719.722	0.165	80.249	0.986	-9.476	0.986	-9.476	0.165	80.249
2729.534	0.165	80.207	0.985	-9.52	0.985	-9.52	0.165	80.207
2739.346	0.166	80.164	0.985	-9.564	0.985	-9.564	0.166	80.164
2749.158	0.167	80.121	0.985	-9.609	0.985	-9.609	0.167	80.121
2758.969	0.168	80.078	0.985	-9.653	0.985	-9.653	0.168	80.078
2768.781	0.168	80.035	0.985	-9.697	0.985	-9.697	0.168	80.035
2778.593	0.169	79.992	0.985	-9.741	0.985	-9.741	0.169	79.992
2788.404	0.17	79.95	0.985	-9.785	0.985	-9.785	0.17	79.95
2798.216	0.171	79.907	0.985	-9.829	0.985	-9.829	0.171	79.907
2808.028	0.171	79.864	0.984	-9.872	0.984	-9.872	0.171	79.864
2817.839	0.172	79.822	0.984	-9.916	0.984	-9.916	0.172	79.822
2827.651	0.173	79.779	0.984	-9.96	0.984	-9.96	0.173	79.779
2837.463	0.174	79.737	0.984	-10.004	0.984	-10.004	0.174	79.737
2847.275	0.174	79.694	0.984	-10.047	0.984	-10.047	0.174	79.694
2857.086	0.175	79.652	0.984	-10.091	0.984	-10.091	0.175	79.652
2866.898	0.176	79.609	0.984	-10.134	0.984	-10.134	0.176	79.609
2876.71	0.177	79.567	0.983	-10.178	0.983	-10.178	0.177	79.567
2886.521	0.177	79.524	0.983	-10.221	0.983	-10.221	0.177	79.524
2896.333	0.178	79.482	0.983	-10.265	0.983	-10.265	0.178	79.482
2906.145	0.179	79.44	0.983	-10.308	0.983	-10.308	0.179	79.44
2915.956	0.18	79.398	0.983	-10.352	0.983	-10.352	0.18	79.398
2925.768	0.18	79.355	0.983	-10.395	0.983	-10.395	0.18	79.355
2935.58	0.181	79.313	0.983	-10.438	0.983	-10.438	0.181	79.313
2945.391	0.182	79.271	0.983	-10.481	0.983	-10.481	0.182	79.271
2955.203	0.183	79.229	0.982	-10.525	0.982	-10.525	0.183	79.229
2965.015	0.183	79.187	0.982	-10.568	0.982	-10.568	0.183	79.187
2974.827	0.184	79.145	0.982	-10.611	0.982	-10.611	0.184	79.145
2984.638	0.185	79.103	0.982	-10.654	0.982	-10.654	0.185	79.103
2994.45	0.186	79.061	0.982	-10.697	0.982	-10.697	0.186	79.061
3004.262	0.186	79.019	0.982	-10.74	0.982	-10.74	0.186	79.019
3014.073	0.187	78.977	0.982	-10.783	0.982	-10.783	0.187	78.977
3023.885	0.188	78.935	0.981	-10.826	0.981	-10.826	0.188	78.935
3033.697	0.189	78.893	0.981	-10.869	0.981	-10.869	0.189	78.893
3043.508	0.189	78.851	0.981	-10.911	0.981	-10.911	0.189	78.851
3053.32	0.19	78.809	0.981	-10.954	0.981	-10.954	0.19	78.809
3063.132	0.191	78.767	0.981	-10.997	0.981	-10.997	0.191	78.767
3072.944	0.191	78.726	0.981	-11.04	0.981	-11.04	0.191	78.726
3082.755	0.192	78.684	0.981	-11.082	0.981	-11.082	0.192	78.684
3092.567	0.193	78.642	0.98	-11.125	0.98	-11.125	0.193	78.642
3102.379	0.194	78.601	0.98	-11.167	0.98	-11.167	0.194	78.601
3112.19	0.194	78.559	0.98	-11.21	0.98	-11.21	0.194	78.559
3122.002	0.195	78.517	0.98	-11.252	0.98	-11.252	0.195	78.517
3131.814	0.196	78.476	0.98	-11.295	0.98	-11.295	0.196	78.476
3141.625	0.197	78.434	0.98	-11.337	0.98	-11.337	0.197	78.434
3151.437	0.197	78.393	0.98	-11.38	0.98	-11.38	0.197	78.393
3161.249	0.198	78.351	0.979	-11.422	0.979	-11.422	0.198	78.351
3171.06	0.199	78.31	0.979	-11.464	0.979	-11.464	0.199	78.31
3180.872	0.199	78.268	0.979	-11.507	0.979	-11.507	0.199	78.268
3190.684	0.2	78.227	0.979	-11.549	0.979	-11.549	0.2	78.227
3200.496	0.201	78.186	0.979	-11.591	0.979	-11.591	0.201	78.186
3210.307	0.202	78.144	0.979	-11.633	0.979	-11.633	0.202	78.144
3220.119	0.202	78.103	0.979	-11.675	0.979	-11.675	0.202	78.103
3229.931	0.203	78.062	0.978	-11.718	0.978	-11.718	0.203	78.062
3239.742	0.204	78.02	0.978	-11.76	0.978	-11.76	0.204	78.02
3249.554	0.205	77.979	0.978	-11.802	0.978	-11.802	0.205	77.979
3259.366	0.205	77.938	0.978	-11.844	0.978	-11.844	0.205	77.938
3269.177	0.206	77.897	0.978	-11.886	0.978	-11.886	0.206	77.897
3278.989	0.207	77.856	0.978	-11.927	0.978	-11.927	0.207	77.856
