! AVX Thin Film Operation		Date: April 2012 
! Description: Accu-P® Series, Thin Film, SMD, RF Capacitor
! Part Number: 12101J9R1BBTTR					
!	100	MHz	-	10.05	GHz			
!	Serial	Measurements						
!								
#	MHZ	S	MA	R	50			
!	S11	S21	S12	S22				
!	dB	Phase	dB	Phase	dB	Phase	dB	Phase
100	0.867	-29.848	0.498	60.122	0.498	60.122	0.867	-29.848
109.812	0.846	-32.235	0.533	57.732	0.533	57.732	0.846	-32.235
119.623	0.824	-34.508	0.567	55.456	0.567	55.456	0.824	-34.508
129.435	0.802	-36.669	0.597	53.292	0.597	53.292	0.802	-36.669
139.247	0.78	-38.72	0.626	51.238	0.626	51.238	0.78	-38.72
149.058	0.758	-40.666	0.652	49.29	0.652	49.29	0.758	-40.666
158.87	0.737	-42.51	0.676	47.443	0.676	47.443	0.737	-42.51
168.682	0.716	-44.257	0.698	45.693	0.698	45.693	0.716	-44.257
178.494	0.695	-45.912	0.718	44.035	0.718	44.035	0.695	-45.912
188.305	0.675	-47.479	0.737	42.465	0.737	42.465	0.675	-47.479
198.117	0.656	-48.964	0.754	40.977	0.754	40.977	0.656	-48.964
207.929	0.637	-50.371	0.77	39.567	0.77	39.567	0.637	-50.371
217.74	0.619	-51.705	0.785	38.229	0.785	38.229	0.619	-51.705
227.552	0.601	-52.97	0.798	36.961	0.798	36.961	0.601	-52.97
237.364	0.584	-54.171	0.811	35.757	0.811	35.757	0.584	-54.171
247.175	0.568	-55.312	0.822	34.613	0.822	34.613	0.568	-55.312
256.987	0.552	-56.396	0.833	33.526	0.833	33.526	0.552	-56.396
266.799	0.537	-57.427	0.843	32.492	0.843	32.492	0.537	-57.427
276.611	0.523	-58.409	0.852	31.507	0.852	31.507	0.523	-58.409
286.422	0.509	-59.344	0.86	30.569	0.86	30.569	0.509	-59.344
296.234	0.495	-60.235	0.868	29.674	0.868	29.674	0.495	-60.235
306.046	0.482	-61.086	0.875	28.82	0.875	28.82	0.482	-61.086
315.857	0.47	-61.898	0.882	28.005	0.882	28.005	0.47	-61.898
325.669	0.457	-62.675	0.888	27.225	0.888	27.225	0.457	-62.675
335.481	0.446	-63.417	0.894	26.479	0.894	26.479	0.446	-63.417
345.292	0.435	-64.128	0.9	25.765	0.9	25.765	0.435	-64.128
355.104	0.424	-64.809	0.905	25.08	0.905	25.08	0.424	-64.809
364.916	0.413	-65.463	0.91	24.424	0.91	24.424	0.413	-65.463
374.727	0.403	-66.089	0.914	23.794	0.914	23.794	0.403	-66.089
384.539	0.394	-66.691	0.918	23.188	0.918	23.188	0.394	-66.691
394.351	0.384	-67.27	0.922	22.606	0.922	22.606	0.384	-67.27
404.163	0.375	-67.827	0.926	22.046	0.926	22.046	0.375	-67.827
413.974	0.367	-68.362	0.93	21.507	0.93	21.507	0.367	-68.362
423.786	0.358	-68.878	0.933	20.988	0.933	20.988	0.358	-68.878
433.598	0.35	-69.375	0.936	20.487	0.936	20.487	0.35	-69.375
443.409	0.342	-69.855	0.939	20.003	0.939	20.003	0.342	-69.855
453.221	0.334	-70.318	0.942	19.537	0.942	19.537	0.334	-70.318
463.033	0.327	-70.765	0.944	19.086	0.944	19.086	0.327	-70.765
472.844	0.32	-71.197	0.947	18.65	0.947	18.65	0.32	-71.197
482.656	0.313	-71.615	0.949	18.229	0.949	18.229	0.313	-71.615
492.468	0.306	-72.019	0.951	17.82	0.951	17.82	0.306	-72.019
502.279	0.299	-72.411	0.953	17.425	0.953	17.425	0.299	-72.411
512.091	0.293	-72.79	0.955	17.042	0.955	17.042	0.293	-72.79
521.903	0.287	-73.157	0.957	16.67	0.957	16.67	0.287	-73.157
531.715	0.281	-73.514	0.959	16.31	0.959	16.31	0.281	-73.514
541.526	0.275	-73.86	0.961	15.96	0.961	15.96	0.275	-73.86
551.338	0.269	-74.196	0.962	15.62	0.962	15.62	0.269	-74.196
561.15	0.264	-74.522	0.964	15.29	0.964	15.29	0.264	-74.522
570.961	0.258	-74.839	0.965	14.969	0.965	14.969	0.258	-74.839
580.773	0.253	-75.147	0.967	14.656	0.967	14.656	0.253	-75.147
590.585	0.248	-75.447	0.968	14.352	0.968	14.352	0.248	-75.447
600.396	0.243	-75.738	0.969	14.056	0.969	14.056	0.243	-75.738
610.208	0.238	-76.022	0.97	13.767	0.97	13.767	0.238	-76.022
620.02	0.233	-76.299	0.972	13.486	0.972	13.486	0.233	-76.299
629.832	0.229	-76.569	0.973	13.212	0.973	13.212	0.229	-76.569
639.643	0.224	-76.831	0.974	12.944	0.974	12.944	0.224	-76.831
649.455	0.22	-77.088	0.975	12.683	0.975	12.683	0.22	-77.088
659.267	0.215	-77.338	0.976	12.428	0.976	12.428	0.215	-77.338
669.078	0.211	-77.582	0.977	12.18	0.977	12.18	0.211	-77.582
678.89	0.207	-77.82	0.977	11.936	0.977	11.936	0.207	-77.82
688.702	0.203	-78.053	0.978	11.698	0.978	11.698	0.203	-78.053
698.513	0.199	-78.28	0.979	11.466	0.979	11.466	0.199	-78.28
708.325	0.195	-78.502	0.98	11.239	0.98	11.239	0.195	-78.502
718.137	0.191	-78.719	0.981	11.016	0.981	11.016	0.191	-78.719
727.948	0.187	-78.932	0.981	10.798	0.981	10.798	0.187	-78.932
737.76	0.184	-79.14	0.982	10.585	0.982	10.585	0.184	-79.14
747.572	0.18	-79.343	0.983	10.376	0.983	10.376	0.18	-79.343
757.384	0.177	-79.542	0.983	10.171	0.983	10.171	0.177	-79.542
767.195	0.173	-79.737	0.984	9.97	0.984	9.97	0.173	-79.737
777.007	0.17	-79.928	0.985	9.773	0.985	9.773	0.17	-79.928
786.819	0.166	-80.115	0.985	9.58	0.985	9.58	0.166	-80.115
796.63	0.163	-80.298	0.986	9.39	0.986	9.39	0.163	-80.298
806.442	0.16	-80.478	0.986	9.204	0.986	9.204	0.16	-80.478
816.254	0.157	-80.654	0.987	9.022	0.987	9.022	0.157	-80.654
826.065	0.154	-80.826	0.987	8.842	0.987	8.842	0.154	-80.826
835.877	0.151	-80.996	0.988	8.666	0.988	8.666	0.151	-80.996
845.689	0.148	-81.162	0.988	8.493	0.988	8.493	0.148	-81.162
855.5	0.145	-81.325	0.989	8.323	0.989	8.323	0.145	-81.325
865.312	0.142	-81.485	0.989	8.156	0.989	8.156	0.142	-81.485
875.124	0.139	-81.642	0.989	7.991	0.989	7.991	0.139	-81.642
884.936	0.136	-81.796	0.99	7.829	0.99	7.829	0.136	-81.796
894.747	0.133	-81.947	0.99	7.67	0.99	7.67	0.133	-81.947
904.559	0.131	-82.096	0.991	7.513	0.991	7.513	0.131	-82.096
914.371	0.128	-82.242	0.991	7.359	0.991	7.359	0.128	-82.242
924.182	0.125	-82.385	0.991	7.207	0.991	7.207	0.125	-82.385
933.994	0.123	-82.526	0.992	7.058	0.992	7.058	0.123	-82.526
943.806	0.12	-82.664	0.992	6.911	0.992	6.911	0.12	-82.664
953.617	0.118	-82.8	0.992	6.765	0.992	6.765	0.118	-82.8
963.429	0.115	-82.934	0.992	6.622	0.992	6.622	0.115	-82.934
973.241	0.113	-83.065	0.993	6.481	0.993	6.481	0.113	-83.065
983.053	0.11	-83.194	0.993	6.342	0.993	6.342	0.11	-83.194
992.864	0.108	-83.321	0.993	6.205	0.993	6.205	0.108	-83.321
1002.676	0.106	-83.445	0.993	6.07	0.993	6.07	0.106	-83.445
1012.488	0.103	-83.568	0.994	5.937	0.994	5.937	0.103	-83.568
1022.299	0.101	-83.688	0.994	5.805	0.994	5.805	0.101	-83.688
1032.111	0.099	-83.806	0.994	5.675	0.994	5.675	0.099	-83.806
1041.923	0.097	-83.922	0.994	5.547	0.994	5.547	0.097	-83.922
1051.734	0.094	-84.036	0.995	5.421	0.995	5.421	0.094	-84.036
1061.546	0.092	-84.149	0.995	5.296	0.995	5.296	0.092	-84.149
1071.358	0.09	-84.259	0.995	5.172	0.995	5.172	0.09	-84.259
1081.169	0.088	-84.367	0.995	5.05	0.995	5.05	0.088	-84.367
1090.981	0.086	-84.473	0.995	4.93	0.995	4.93	0.086	-84.473
1100.793	0.084	-84.577	0.996	4.811	0.996	4.811	0.084	-84.577
1110.605	0.082	-84.679	0.996	4.693	0.996	4.693	0.082	-84.679
1120.416	0.08	-84.779	0.996	4.577	0.996	4.577	0.08	-84.779
1130.228	0.078	-84.878	0.996	4.462	0.996	4.462	0.078	-84.878
1140.04	0.076	-84.974	0.996	4.348	0.996	4.348	0.076	-84.974
1149.851	0.074	-85.068	0.996	4.236	0.996	4.236	0.074	-85.068
1159.663	0.072	-85.161	0.997	4.125	0.997	4.125	0.072	-85.161
1169.475	0.07	-85.251	0.997	4.015	0.997	4.015	0.07	-85.251
1179.286	0.068	-85.339	0.997	3.906	0.997	3.906	0.068	-85.339
1189.098	0.066	-85.426	0.997	3.798	0.997	3.798	0.066	-85.426
1198.91	0.064	-85.51	0.997	3.692	0.997	3.692	0.064	-85.51
1208.722	0.063	-85.592	0.997	3.586	0.997	3.586	0.063	-85.592
1218.533	0.061	-85.671	0.997	3.482	0.997	3.482	0.061	-85.671
1228.345	0.059	-85.749	0.997	3.379	0.997	3.379	0.059	-85.749
1238.157	0.057	-85.824	0.997	3.276	0.997	3.276	0.057	-85.824
1247.968	0.055	-85.896	0.998	3.175	0.998	3.175	0.055	-85.896
1257.78	0.054	-85.966	0.998	3.075	0.998	3.075	0.054	-85.966
1267.592	0.052	-86.033	0.998	2.975	0.998	2.975	0.052	-86.033
1277.403	0.05	-86.098	0.998	2.877	0.998	2.877	0.05	-86.098
1287.215	0.048	-86.159	0.998	2.779	0.998	2.779	0.048	-86.159
1297.027	0.047	-86.218	0.998	2.682	0.998	2.682	0.047	-86.218
1306.838	0.045	-86.273	0.998	2.586	0.998	2.586	0.045	-86.273
1316.65	0.043	-86.324	0.998	2.492	0.998	2.492	0.043	-86.324
1326.462	0.042	-86.372	0.998	2.397	0.998	2.397	0.042	-86.372
1336.274	0.04	-86.415	0.998	2.304	0.998	2.304	0.04	-86.415
1346.085	0.039	-86.454	0.998	2.211	0.998	2.211	0.039	-86.454
1355.897	0.037	-86.488	0.998	2.12	0.998	2.12	0.037	-86.488
1365.709	0.035	-86.517	0.998	2.029	0.998	2.029	0.035	-86.517
1375.52	0.034	-86.539	0.999	1.938	0.999	1.938	0.034	-86.539
1385.332	0.032	-86.555	0.999	1.849	0.999	1.849	0.032	-86.555
1395.144	0.031	-86.563	0.999	1.76	0.999	1.76	0.031	-86.563
1404.955	0.029	-86.563	0.999	1.672	0.999	1.672	0.029	-86.563
1414.767	0.028	-86.553	0.999	1.584	0.999	1.584	0.028	-86.553
1424.579	0.026	-86.532	0.999	1.498	0.999	1.498	0.026	-86.532
1434.39	0.025	-86.498	0.999	1.412	0.999	1.412	0.025	-86.498
1444.202	0.023	-86.449	0.999	1.326	0.999	1.326	0.023	-86.449
1454.014	0.022	-86.382	0.999	1.241	0.999	1.241	0.022	-86.382
1463.826	0.02	-86.293	0.999	1.157	0.999	1.157	0.02	-86.293
1473.637	0.019	-86.179	0.999	1.074	0.999	1.074	0.019	-86.179
1483.449	0.017	-86.032	0.999	0.991	0.999	0.991	0.017	-86.032
1493.261	0.016	-85.844	0.999	0.908	0.999	0.908	0.016	-85.844
1503.072	0.014	-85.605	0.999	0.826	0.999	0.826	0.014	-85.605
1512.884	0.013	-85.298	0.999	0.745	0.999	0.745	0.013	-85.298
1522.696	0.012	-84.9	0.999	0.664	0.999	0.664	0.012	-84.9
1532.507	0.01	-84.374	0.999	0.584	0.999	0.584	0.01	-84.374
1542.319	8.85E-03	-83.663	0.999	0.504	0.999	0.504	8.85E-03	-83.663
1552.131	7.48E-03	-82.667	0.999	0.425	0.999	0.425	7.48E-03	-82.667
1561.943	6.12E-03	-81.201	0.999	0.347	0.999	0.347	6.12E-03	-81.201
1571.754	4.78E-03	-78.874	0.999	0.269	0.999	0.269	4.78E-03	-78.874
1581.566	3.45E-03	-74.715	0.999	0.191	0.999	0.191	3.45E-03	-74.715
1591.378	2.18E-03	-65.552	0.999	0.114	0.999	0.114	2.18E-03	-65.552
1601.189	1.11E-03	-35.87	0.999	0.037	0.999	0.037	1.11E-03	-35.87
1611.001	1.13E-03	36.977	0.999	-0.039	0.999	-0.039	1.13E-03	36.977
1620.813	2.19E-03	65.666	0.999	-0.115	0.999	-0.115	2.19E-03	65.666
1630.624	3.43E-03	74.621	0.999	-0.19	0.999	-0.19	3.43E-03	74.621
1640.436	4.71E-03	78.716	0.999	-0.265	0.999	-0.265	4.71E-03	78.716
1650.248	5.99E-03	81.017	0.999	-0.339	0.999	-0.339	5.99E-03	81.017
1660.059	7.26E-03	82.474	0.999	-0.413	0.999	-0.413	7.26E-03	82.474
1669.871	8.54E-03	83.467	0.999	-0.486	0.999	-0.486	8.54E-03	83.467
1679.683	9.81E-03	84.179	0.999	-0.56	0.999	-0.56	9.81E-03	84.179
1689.495	0.011	84.708	0.999	-0.632	0.999	-0.632	0.011	84.708
1699.306	0.012	85.112	0.999	-0.705	0.999	-0.705	0.012	85.112
1709.118	0.014	85.427	0.999	-0.776	0.999	-0.776	0.014	85.427
1718.93	0.015	85.675	0.999	-0.848	0.999	-0.848	0.015	85.675
1728.741	0.016	85.872	0.999	-0.919	0.999	-0.919	0.016	85.872
1738.553	0.017	86.03	0.999	-0.99	0.999	-0.99	0.017	86.03
1748.365	0.019	86.157	0.999	-1.06	0.999	-1.06	0.019	86.157
1758.176	0.02	86.26	0.999	-1.13	0.999	-1.13	0.02	86.26
1767.988	0.021	86.341	0.999	-1.2	0.999	-1.2	0.021	86.341
1777.8	0.022	86.406	0.999	-1.269	0.999	-1.269	0.022	86.406
1787.611	0.023	86.457	0.999	-1.338	0.999	-1.338	0.023	86.457
1797.423	0.025	86.496	0.999	-1.407	0.999	-1.407	0.025	86.496
1807.235	0.026	86.525	0.999	-1.475	0.999	-1.475	0.026	86.525
1817.047	0.027	86.545	0.999	-1.543	0.999	-1.543	0.027	86.545
1826.858	0.028	86.557	0.999	-1.611	0.999	-1.611	0.028	86.557
1836.67	0.029	86.563	0.999	-1.678	0.999	-1.678	0.029	86.563
1846.482	0.03	86.564	0.999	-1.745	0.999	-1.745	0.03	86.564
1856.293	0.032	86.56	0.999	-1.812	0.999	-1.812	0.032	86.56
1866.105	0.033	86.551	0.999	-1.878	0.999	-1.878	0.033	86.551
1875.917	0.034	86.538	0.999	-1.944	0.999	-1.944	0.034	86.538
1885.728	0.035	86.522	0.998	-2.01	0.998	-2.01	0.035	86.522
1895.54	0.036	86.503	0.998	-2.075	0.998	-2.075	0.036	86.503
1905.352	0.037	86.481	0.998	-2.141	0.998	-2.141	0.037	86.481
1915.164	0.038	86.457	0.998	-2.205	0.998	-2.205	0.038	86.457
1924.975	0.04	86.43	0.998	-2.27	0.998	-2.27	0.04	86.43
1934.787	0.041	86.402	0.998	-2.334	0.998	-2.334	0.041	86.402
1944.599	0.042	86.371	0.998	-2.399	0.998	-2.399	0.042	86.371
1954.41	0.043	86.339	0.998	-2.462	0.998	-2.462	0.043	86.339
1964.222	0.044	86.306	0.998	-2.526	0.998	-2.526	0.044	86.306
1974.034	0.045	86.271	0.998	-2.589	0.998	-2.589	0.045	86.271
1983.845	0.046	86.235	0.998	-2.652	0.998	-2.652	0.046	86.235
1993.657	0.047	86.198	0.998	-2.715	0.998	-2.715	0.047	86.198
2003.469	0.048	86.16	0.998	-2.778	0.998	-2.778	0.048	86.16
2013.28	0.05	86.121	0.998	-2.84	0.998	-2.84	0.05	86.121
2023.092	0.051	86.082	0.998	-2.902	0.998	-2.902	0.051	86.082
2032.904	0.052	86.041	0.998	-2.964	0.998	-2.964	0.052	86.041
2042.716	0.053	86	0.998	-3.025	0.998	-3.025	0.053	86
2052.527	0.054	85.958	0.998	-3.087	0.998	-3.087	0.054	85.958
2062.339	0.055	85.915	0.998	-3.148	0.998	-3.148	0.055	85.915
2072.151	0.056	85.872	0.998	-3.209	0.998	-3.209	0.056	85.872
2081.962	0.057	85.829	0.997	-3.269	0.997	-3.269	0.057	85.829
2091.774	0.058	85.785	0.997	-3.33	0.997	-3.33	0.058	85.785
2101.586	0.059	85.74	0.997	-3.39	0.997	-3.39	0.059	85.74
2111.397	0.06	85.695	0.997	-3.45	0.997	-3.45	0.06	85.695
2121.209	0.061	85.65	0.997	-3.51	0.997	-3.51	0.061	85.65
2131.021	0.062	85.605	0.997	-3.569	0.997	-3.569	0.062	85.605
2140.833	0.063	85.559	0.997	-3.629	0.997	-3.629	0.063	85.559
2150.644	0.064	85.513	0.997	-3.688	0.997	-3.688	0.064	85.513
2160.456	0.065	85.466	0.997	-3.747	0.997	-3.747	0.065	85.466
2170.268	0.066	85.42	0.997	-3.806	0.997	-3.806	0.066	85.42
2180.079	0.067	85.373	0.997	-3.864	0.997	-3.864	0.067	85.373
2189.891	0.068	85.326	0.997	-3.923	0.997	-3.923	0.068	85.326
2199.703	0.069	85.279	0.997	-3.981	0.997	-3.981	0.069	85.279
2209.514	0.07	85.231	0.997	-4.039	0.997	-4.039	0.07	85.231
2219.326	0.071	85.184	0.997	-4.097	0.997	-4.097	0.071	85.184
2229.138	0.072	85.136	0.996	-4.154	0.996	-4.154	0.072	85.136
2238.949	0.073	85.088	0.996	-4.212	0.996	-4.212	0.073	85.088
2248.761	0.074	85.041	0.996	-4.269	0.996	-4.269	0.074	85.041
2258.573	0.075	84.993	0.996	-4.326	0.996	-4.326	0.075	84.993
2268.385	0.076	84.945	0.996	-4.383	0.996	-4.383	0.076	84.945
2278.196	0.077	84.896	0.996	-4.44	0.996	-4.44	0.077	84.896
2288.008	0.078	84.848	0.996	-4.496	0.996	-4.496	0.078	84.848
2297.82	0.079	84.8	0.996	-4.553	0.996	-4.553	0.079	84.8
2307.631	0.08	84.752	0.996	-4.609	0.996	-4.609	0.08	84.752
2317.443	0.081	84.703	0.996	-4.665	0.996	-4.665	0.081	84.703
2327.255	0.082	84.655	0.996	-4.721	0.996	-4.721	0.082	84.655
2337.066	0.083	84.606	0.996	-4.777	0.996	-4.777	0.083	84.606
2346.878	0.084	84.558	0.996	-4.832	0.996	-4.832	0.084	84.558
2356.69	0.085	84.51	0.995	-4.888	0.995	-4.888	0.085	84.51
2366.501	0.086	84.461	0.995	-4.943	0.995	-4.943	0.086	84.461
2376.313	0.087	84.412	0.995	-4.998	0.995	-4.998	0.087	84.412
2386.125	0.088	84.364	0.995	-5.053	0.995	-5.053	0.088	84.364
2395.937	0.089	84.315	0.995	-5.108	0.995	-5.108	0.089	84.315
2405.748	0.09	84.267	0.995	-5.163	0.995	-5.163	0.09	84.267
2415.56	0.091	84.218	0.995	-5.217	0.995	-5.217	0.091	84.218
2425.372	0.092	84.17	0.995	-5.272	0.995	-5.272	0.092	84.17
2435.183	0.093	84.121	0.995	-5.326	0.995	-5.326	0.093	84.121
2444.995	0.094	84.073	0.995	-5.38	0.995	-5.38	0.094	84.073
2454.807	0.095	84.024	0.995	-5.434	0.995	-5.434	0.095	84.024
2464.618	0.096	83.976	0.995	-5.488	0.995	-5.488	0.096	83.976
2474.43	0.097	83.927	0.994	-5.542	0.994	-5.542	0.097	83.927
2484.242	0.098	83.879	0.994	-5.595	0.994	-5.595	0.098	83.879
2494.054	0.098	83.83	0.994	-5.649	0.994	-5.649	0.098	83.83
2503.865	0.099	83.782	0.994	-5.702	0.994	-5.702	0.099	83.782
2513.677	0.1	83.734	0.994	-5.755	0.994	-5.755	0.1	83.734
2523.489	0.101	83.685	0.994	-5.808	0.994	-5.808	0.101	83.685
2533.3	0.102	83.637	0.994	-5.861	0.994	-5.861	0.102	83.637
2543.112	0.103	83.589	0.994	-5.914	0.994	-5.914	0.103	83.589
2552.924	0.104	83.54	0.994	-5.966	0.994	-5.966	0.104	83.54
2562.735	0.105	83.492	0.994	-6.019	0.994	-6.019	0.105	83.492
2572.547	0.106	83.444	0.993	-6.071	0.993	-6.071	0.106	83.444
2582.359	0.107	83.396	0.993	-6.124	0.993	-6.124	0.107	83.396
2592.17	0.108	83.348	0.993	-6.176	0.993	-6.176	0.108	83.348
2601.982	0.108	83.3	0.993	-6.228	0.993	-6.228	0.108	83.3
2611.794	0.109	83.252	0.993	-6.28	0.993	-6.28	0.109	83.252
2621.606	0.11	83.204	0.993	-6.332	0.993	-6.332	0.11	83.204
2631.417	0.111	83.156	0.993	-6.383	0.993	-6.383	0.111	83.156
2641.229	0.112	83.108	0.993	-6.435	0.993	-6.435	0.112	83.108
2651.041	0.113	83.06	0.993	-6.486	0.993	-6.486	0.113	83.06
2660.852	0.114	83.013	0.993	-6.538	0.993	-6.538	0.114	83.013
2670.664	0.115	82.965	0.993	-6.589	0.993	-6.589	0.115	82.965
2680.476	0.116	82.917	0.992	-6.64	0.992	-6.64	0.116	82.917
2690.287	0.117	82.87	0.992	-6.691	0.992	-6.691	0.117	82.87
2700.099	0.117	82.822	0.992	-6.742	0.992	-6.742	0.117	82.822
2709.911	0.118	82.775	0.992	-6.793	0.992	-6.793	0.118	82.775
2719.722	0.119	82.727	0.992	-6.843	0.992	-6.843	0.119	82.727
2729.534	0.12	82.68	0.992	-6.894	0.992	-6.894	0.12	82.68
2739.346	0.121	82.632	0.992	-6.944	0.992	-6.944	0.121	82.632
2749.158	0.122	82.585	0.992	-6.995	0.992	-6.995	0.122	82.585
2758.969	0.123	82.538	0.992	-7.045	0.992	-7.045	0.123	82.538
2768.781	0.124	82.491	0.991	-7.095	0.991	-7.095	0.124	82.491
2778.593	0.124	82.444	0.991	-7.145	0.991	-7.145	0.124	82.444
2788.404	0.125	82.397	0.991	-7.195	0.991	-7.195	0.125	82.397
2798.216	0.126	82.349	0.991	-7.245	0.991	-7.245	0.126	82.349
2808.028	0.127	82.303	0.991	-7.295	0.991	-7.295	0.127	82.303
2817.839	0.128	82.256	0.991	-7.345	0.991	-7.345	0.128	82.256
2827.651	0.129	82.209	0.991	-7.394	0.991	-7.394	0.129	82.209
2837.463	0.13	82.162	0.991	-7.444	0.991	-7.444	0.13	82.162
2847.275	0.13	82.115	0.991	-7.493	0.991	-7.493	0.13	82.115
2857.086	0.131	82.068	0.99	-7.542	0.99	-7.542	0.131	82.068
2866.898	0.132	82.022	0.99	-7.592	0.99	-7.592	0.132	82.022
2876.71	0.133	81.975	0.99	-7.641	0.99	-7.641	0.133	81.975
2886.521	0.134	81.929	0.99	-7.69	0.99	-7.69	0.134	81.929
2896.333	0.135	81.882	0.99	-7.739	0.99	-7.739	0.135	81.882
2906.145	0.136	81.836	0.99	-7.788	0.99	-7.788	0.136	81.836
2915.956	0.136	81.789	0.99	-7.836	0.99	-7.836	0.136	81.789
2925.768	0.137	81.743	0.99	-7.885	0.99	-7.885	0.137	81.743
2935.58	0.138	81.697	0.99	-7.934	0.99	-7.934	0.138	81.697
2945.391	0.139	81.65	0.989	-7.982	0.989	-7.982	0.139	81.65
2955.203	0.14	81.604	0.989	-8.03	0.989	-8.03	0.14	81.604
2965.015	0.141	81.558	0.989	-8.079	0.989	-8.079	0.141	81.558
2974.827	0.141	81.512	0.989	-8.127	0.989	-8.127	0.141	81.512
2984.638	0.142	81.466	0.989	-8.175	0.989	-8.175	0.142	81.466
2994.45	0.143	81.42	0.989	-8.223	0.989	-8.223	0.143	81.42
3004.262	0.144	81.374	0.989	-8.271	0.989	-8.271	0.144	81.374
3014.073	0.145	81.328	0.989	-8.319	0.989	-8.319	0.145	81.328
3023.885	0.146	81.283	0.988	-8.367	0.988	-8.367	0.146	81.283
3033.697	0.146	81.237	0.988	-8.415	0.988	-8.415	0.146	81.237
3043.508	0.147	81.191	0.988	-8.462	0.988	-8.462	0.147	81.191
3053.32	0.148	81.146	0.988	-8.51	0.988	-8.51	0.148	81.146
3063.132	0.149	81.1	0.988	-8.558	0.988	-8.558	0.149	81.1
3072.944	0.15	81.054	0.988	-8.605	0.988	-8.605	0.15	81.054
3082.755	0.15	81.009	0.988	-8.652	0.988	-8.652	0.15	81.009
3092.567	0.151	80.964	0.988	-8.7	0.988	-8.7	0.151	80.964
3102.379	0.152	80.918	0.987	-8.747	0.987	-8.747	0.152	80.918
3112.19	0.153	80.873	0.987	-8.794	0.987	-8.794	0.153	80.873
3122.002	0.154	80.828	0.987	-8.841	0.987	-8.841	0.154	80.828
3131.814	0.155	80.782	0.987	-8.888	0.987	-8.888	0.155	80.782
3141.625	0.155	80.737	0.987	-8.935	0.987	-8.935	0.155	80.737
3151.437	0.156	80.692	0.987	-8.982	0.987	-8.982	0.156	80.692
3161.249	0.157	80.647	0.987	-9.029	0.987	-9.029	0.157	80.647
3171.06	0.158	80.602	0.987	-9.075	0.987	-9.075	0.158	80.602
3180.872	0.159	80.557	0.986	-9.122	0.986	-9.122	0.159	80.557
3190.684	0.159	80.512	0.986	-9.169	0.986	-9.169	0.159	80.512
3200.496	0.16	80.467	0.986	-9.215	0.986	-9.215	0.16	80.467
3210.307	0.161	80.423	0.986	-9.261	0.986	-9.261	0.161	80.423
3220.119	0.162	80.378	0.986	-9.308	0.986	-9.308	0.162	80.378
3229.931	0.163	80.333	0.986	-9.354	0.986	-9.354	0.163	80.333
3239.742	0.163	80.288	0.986	-9.4	0.986	-9.4	0.163	80.288
3249.554	0.164	80.244	0.986	-9.446	0.986	-9.446	0.164	80.244
3259.366	0.165	80.199	0.985	-9.492	0.985	-9.492	0.165	80.199
3269.177	0.166	80.155	0.985	-9.538	0.985	-9.538	0.166	80.155
3278.989	0.167	80.11	0.985	-9.584	0.985	-9.584	0.167	80.11
3288.801	0.167	80.066	0.985	-9.63	0.985	-9.63	0.167	80.066
