! AVX Thin Film Operation		Date: April 2012 
! Description: Accu-P® Series, Thin Film, SMD, RF Capacitor
! Part Number: 12101J3R7ABTTR					
!	100	MHz	-	20.05	GHz			
!	Serial	Measurements						
!								
#	MHZ	S	MA	R	50			
!	S11	S21	S12	S22				
!	dB	Phase	dB	Phase	dB	Phase	dB	Phase
50 0.993 -6.632 0.115 83.288 0.115 83.288 0.993 -6.632
100 0.974 -13.102 0.227 76.796 0.227 76.796 0.974 -13.102
150 0.943 -19.273 0.33 70.601 0.33 70.601 0.943 -19.273
200 0.905 -25.047 0.423 64.805 0.423 64.805 0.905 -25.047
250 0.861 -30.365 0.506 59.464 0.506 59.464 0.861 -30.365
300 0.815 -35.208 0.577 54.596 0.577 54.596 0.815 -35.208
350 0.768 -39.586 0.637 50.195 0.637 50.195 0.768 -39.586
400 0.722 -43.525 0.689 46.231 0.689 46.231 0.722 -43.525
450 0.678 -47.063 0.732 42.668 0.732 42.668 0.678 -47.063
500 0.636 -50.24 0.769 39.465 0.769 39.465 0.636 -50.24
550 0.596 -53.098 0.8 36.581 0.8 36.581 0.596 -53.098
600 0.559 -55.673 0.826 33.978 0.826 33.978 0.559 -55.673
650 0.524 -58.001 0.848 31.621 0.848 31.621 0.524 -58.001
700 0.492 -60.113 0.867 29.481 0.867 29.481 0.492 -60.113
750 0.462 -62.034 0.883 27.529 0.883 27.529 0.462 -62.034
800 0.434 -63.789 0.897 25.743 0.897 25.743 0.434 -63.789
850 0.408 -65.397 0.909 24.102 0.909 24.102 0.408 -65.397
900 0.384 -66.875 0.92 22.589 0.92 22.589 0.384 -66.875
950 0.361 -68.24 0.929 21.189 0.929 21.189 0.361 -68.24
1000 0.34 -69.502 0.937 19.888 0.937 19.888 0.34 -69.502
1050 0.32 -70.674 0.944 18.677 0.944 18.677 0.32 -70.674
1100 0.301 -71.764 0.95 17.544 0.95 17.544 0.301 -71.764
1150 0.284 -72.781 0.955 16.482 0.955 16.482 0.284 -72.781
1200 0.267 -73.732 0.96 15.484 0.96 15.484 0.267 -73.732
1250 0.251 -74.623 0.964 14.542 0.964 14.542 0.251 -74.623
1300 0.236 -75.459 0.968 13.652 0.968 13.652 0.236 -75.459
1350 0.222 -76.244 0.971 12.808 0.971 12.808 0.222 -76.244
1400 0.208 -76.982 0.974 12.006 0.974 12.006 0.208 -76.982
1450 0.195 -77.677 0.977 11.243 0.977 11.243 0.195 -77.677
1500 0.183 -78.331 0.98 10.514 0.98 10.514 0.183 -78.331
1550 0.171 -78.946 0.982 9.817 0.982 9.817 0.171 -78.946
1600 0.159 -79.524 0.984 9.15 0.984 9.15 0.159 -79.524
1650 0.148 -80.065 0.985 8.509 0.985 8.509 0.148 -80.065
1700 0.137 -80.57 0.987 7.893 0.987 7.893 0.137 -80.57
1750 0.127 -81.038 0.988 7.3 0.988 7.3 0.127 -81.038
1800 0.117 -81.47 0.989 6.728 0.989 6.728 0.117 -81.47
1850 0.108 -81.861 0.991 6.175 0.991 6.175 0.108 -81.861
1900 0.098 -82.21 0.991 5.64 0.991 5.64 0.098 -82.21
1950 0.089 -82.511 0.992 5.122 0.992 5.122 0.089 -82.511
2000 0.081 -82.757 0.993 4.62 0.993 4.62 0.081 -82.757
2050 0.072 -82.936 0.994 4.132 0.994 4.132 0.072 -82.936
2100 0.064 -83.031 0.994 3.658 0.994 3.658 0.064 -83.031
2150 0.056 -83.016 0.995 3.196 0.995 3.196 0.056 -83.016
2200 0.048 -82.848 0.995 2.747 0.995 2.747 0.048 -82.848
2250 0.04 -82.454 0.995 2.309 0.995 2.309 0.04 -82.454
2300 0.033 -81.7 0.996 1.881 0.996 1.881 0.033 -81.7
2350 0.026 -80.306 0.996 1.463 0.996 1.463 0.026 -80.306
2400 0.019 -77.595 0.996 1.054 0.996 1.054 0.019 -77.595
2450 0.012 -71.423 0.996 0.654 0.996 0.654 0.012 -71.423
2500 5.886e-3 -50.876 0.996 0.263 0.996 0.263 5.886e-3 -50.876
2550 4.256e-3 29.679 0.996 -0.121 0.996 -0.121 4.256e-3 29.679
2600 9.436e-3 66.463 0.996 -0.498 0.996 -0.498 9.436e-3 66.463
2650 0.016 75.416 0.996 -0.867 0.996 -0.867 0.016 75.416
2700 0.022 79.006 0.996 -1.23 0.996 -1.23 0.022 79.006
2750 0.028 80.814 0.996 -1.586 0.996 -1.586 0.028 80.814
2800 0.034 81.827 0.996 -1.936 0.996 -1.936 0.034 81.827
2850 0.04 82.418 0.996 -2.281 0.996 -2.281 0.04 82.418
2900 0.046 82.762 0.995 -2.62 0.995 -2.62 0.046 82.762
2950 0.052 82.948 0.995 -2.954 0.995 -2.954 0.052 82.948
3000 0.057 83.029 0.995 -3.283 0.995 -3.283 0.057 83.029
3050 0.063 83.035 0.994 -3.607 0.994 -3.607 0.063 83.035
3100 0.069 82.988 0.994 -3.926 0.994 -3.926 0.069 82.988
3150 0.074 82.902 0.994 -4.242 0.994 -4.242 0.074 82.902
3200 0.079 82.785 0.993 -4.553 0.993 -4.553 0.079 82.785
3250 0.085 82.646 0.993 -4.86 0.993 -4.86 0.085 82.646
3300 0.09 82.489 0.992 -5.163 0.992 -5.163 0.09 82.489
3350 0.095 82.318 0.992 -5.463 0.992 -5.463 0.095 82.318
3400 0.1 82.136 0.991 -5.759 0.991 -5.759 0.1 82.136
3450 0.105 81.945 0.991 -6.052 0.991 -6.052 0.105 81.945
3500 0.111 81.746 0.99 -6.341 0.99 -6.341 0.111 81.746
3550 0.115 81.543 0.99 -6.628 0.99 -6.628 0.115 81.543
3600 0.12 81.334 0.989 -6.911 0.989 -6.911 0.12 81.334
3650 0.125 81.122 0.988 -7.191 0.988 -7.191 0.125 81.122
3700 0.13 80.907 0.988 -7.469 0.988 -7.469 0.13 80.907
3750 0.135 80.69 0.987 -7.743 0.987 -7.743 0.135 80.69
3800 0.139 80.471 0.987 -8.015 0.987 -8.015 0.139 80.471
3850 0.144 80.251 0.986 -8.285 0.986 -8.285 0.144 80.251
3900 0.149 80.029 0.985 -8.552 0.985 -8.552 0.149 80.029
3950 0.153 79.807 0.985 -8.817 0.985 -8.817 0.153 79.807
4000 0.158 79.584 0.984 -9.079 0.984 -9.079 0.158 79.584
4050 0.162 79.361 0.983 -9.339 0.983 -9.339 0.162 79.361
4100 0.167 79.138 0.982 -9.597 0.982 -9.597 0.167 79.138
4150 0.171 78.915 0.982 -9.853 0.982 -9.853 0.171 78.915
4200 0.176 78.692 0.981 -10.107 0.981 -10.107 0.176 78.692
4250 0.18 78.47 0.98 -10.358 0.98 -10.358 0.18 78.47
4300 0.184 78.248 0.979 -10.608 0.979 -10.608 0.184 78.248
4350 0.188 78.026 0.978 -10.856 0.978 -10.856 0.188 78.026
4400 0.193 77.804 0.978 -11.102 0.978 -11.102 0.193 77.804
4450 0.197 77.584 0.977 -11.346 0.977 -11.346 0.197 77.584
4500 0.201 77.364 0.976 -11.589 0.976 -11.589 0.201 77.364
4550 0.205 77.144 0.975 -11.83 0.975 -11.83 0.205 77.144
4600 0.209 76.925 0.974 -12.069 0.974 -12.069 0.209 76.925
4650 0.213 76.707 0.973 -12.306 0.973 -12.306 0.213 76.707
4700 0.217 76.49 0.972 -12.542 0.972 -12.542 0.217 76.49
4750 0.221 76.273 0.972 -12.776 0.972 -12.776 0.221 76.273
4800 0.225 76.058 0.971 -13.009 0.971 -13.009 0.225 76.058
4850 0.229 75.843 0.97 -13.24 0.97 -13.24 0.229 75.843
4900 0.233 75.628 0.969 -13.47 0.969 -13.47 0.233 75.628
4950 0.237 75.415 0.968 -13.699 0.968 -13.699 0.237 75.415
5000 0.241 75.202 0.967 -13.926 0.967 -13.926 0.241 75.202
5050 0.245 74.991 0.966 -14.151 0.966 -14.151 0.245 74.991
5100 0.248 74.78 0.965 -14.376 0.965 -14.376 0.248 74.78
5150 0.252 74.57 0.964 -14.599 0.964 -14.599 0.252 74.57
5200 0.256 74.36 0.963 -14.82 0.963 -14.82 0.256 74.36
5250 0.26 74.152 0.962 -15.041 0.962 -15.041 0.26 74.152
5300 0.263 73.944 0.961 -15.26 0.961 -15.26 0.263 73.944
5350 0.267 73.738 0.96 -15.478 0.96 -15.478 0.267 73.738
5400 0.271 73.532 0.959 -15.695 0.959 -15.695 0.271 73.532
5450 0.274 73.327 0.958 -15.91 0.958 -15.91 0.274 73.327
5500 0.278 73.123 0.957 -16.125 0.957 -16.125 0.278 73.123
5550 0.281 72.919 0.956 -16.338 0.956 -16.338 0.281 72.919
5600 0.285 72.717 0.955 -16.55 0.955 -16.55 0.285 72.717
5650 0.288 72.515 0.954 -16.761 0.954 -16.761 0.288 72.515
5700 0.292 72.314 0.953 -16.971 0.953 -16.971 0.292 72.314
5750 0.295 72.114 0.952 -17.18 0.952 -17.18 0.295 72.114
5800 0.299 71.914 0.951 -17.388 0.951 -17.388 0.299 71.914
5850 0.302 71.716 0.95 -17.594 0.95 -17.594 0.302 71.716
5900 0.306 71.518 0.948 -17.8 0.948 -17.8 0.306 71.518
5950 0.309 71.321 0.947 -18.005 0.947 -18.005 0.309 71.321
6000 0.312 71.125 0.946 -18.208 0.946 -18.208 0.312 71.125
6050 0.316 70.93 0.945 -18.411 0.945 -18.411 0.316 70.93
6100 0.319 70.735 0.944 -18.613 0.944 -18.613 0.319 70.735
6150 0.323 70.541 0.943 -18.814 0.943 -18.814 0.323 70.541
6200 0.326 70.348 0.942 -19.014 0.942 -19.014 0.326 70.348
6250 0.329 70.156 0.941 -19.212 0.941 -19.212 0.329 70.156
6300 0.332 69.965 0.94 -19.41 0.94 -19.41 0.332 69.965
6350 0.336 69.774 0.938 -19.608 0.938 -19.608 0.336 69.774
6400 0.339 69.584 0.937 -19.804 0.937 -19.804 0.339 69.584
6450 0.342 69.395 0.936 -19.999 0.936 -19.999 0.342 69.395
6500 0.345 69.206 0.935 -20.193 0.935 -20.193 0.345 69.206
6550 0.348 69.019 0.934 -20.387 0.934 -20.387 0.348 69.019
6600 0.352 68.832 0.933 -20.579 0.933 -20.579 0.352 68.832
6650 0.355 68.645 0.931 -20.771 0.931 -20.771 0.355 68.645
6700 0.358 68.46 0.93 -20.962 0.93 -20.962 0.358 68.46
6750 0.361 68.275 0.929 -21.152 0.929 -21.152 0.361 68.275
6800 0.364 68.091 0.928 -21.341 0.928 -21.341 0.364 68.091
6850 0.367 67.908 0.927 -21.53 0.927 -21.53 0.367 67.908
6900 0.37 67.725 0.925 -21.717 0.925 -21.717 0.37 67.725
6950 0.373 67.543 0.924 -21.904 0.924 -21.904 0.373 67.543
7000 0.376 67.362 0.923 -22.09 0.923 -22.09 0.376 67.362
7050 0.379 67.181 0.922 -22.275 0.922 -22.275 0.379 67.181
7100 0.382 67.002 0.921 -22.46 0.921 -22.46 0.382 67.002
7150 0.385 66.822 0.919 -22.643 0.919 -22.643 0.385 66.822
7200 0.388 66.644 0.918 -22.826 0.918 -22.826 0.388 66.644
7250 0.391 66.466 0.917 -23.008 0.917 -23.008 0.391 66.466
7300 0.394 66.289 0.916 -23.189 0.916 -23.189 0.394 66.289
7350 0.397 66.113 0.914 -23.37 0.914 -23.37 0.397 66.113
7400 0.4 65.937 0.913 -23.55 0.913 -23.55 0.4 65.937
7450 0.402 65.762 0.912 -23.729 0.912 -23.729 0.402 65.762
7500 0.405 65.587 0.911 -23.907 0.911 -23.907 0.405 65.587
7550 0.408 65.414 0.909 -24.085 0.909 -24.085 0.408 65.414
7600 0.411 65.241 0.908 -24.261 0.908 -24.261 0.411 65.241
7650 0.414 65.068 0.907 -24.437 0.907 -24.437 0.414 65.068
7700 0.416 64.896 0.906 -24.613 0.906 -24.613 0.416 64.896
7750 0.419 64.725 0.904 -24.788 0.904 -24.788 0.419 64.725
7800 0.422 64.555 0.903 -24.961 0.903 -24.961 0.422 64.555
7850 0.425 64.385 0.902 -25.135 0.902 -25.135 0.425 64.385
7900 0.427 64.216 0.9 -25.307 0.9 -25.307 0.427 64.216
7950 0.43 64.047 0.899 -25.479 0.899 -25.479 0.43 64.047
8000 0.433 63.879 0.898 -25.65 0.898 -25.65 0.433 63.879
8050 0.436 63.712 0.897 -25.821 0.897 -25.821 0.436 63.712
8100 0.438 63.545 0.895 -25.991 0.895 -25.991 0.438 63.545
8150 0.441 63.379 0.894 -26.16 0.894 -26.16 0.441 63.379
8200 0.444 63.214 0.893 -26.328 0.893 -26.328 0.444 63.214
8250 0.446 63.049 0.891 -26.496 0.891 -26.496 0.446 63.049
8300 0.449 62.885 0.89 -26.663 0.89 -26.663 0.449 62.885
8350 0.451 62.721 0.889 -26.83 0.889 -26.83 0.451 62.721
8400 0.454 62.559 0.888 -26.996 0.888 -26.996 0.454 62.559
8450 0.457 62.396 0.886 -27.161 0.886 -27.161 0.457 62.396
8500 0.459 62.234 0.885 -27.325 0.885 -27.325 0.459 62.234
8550 0.462 62.073 0.884 -27.489 0.884 -27.489 0.462 62.073
8600 0.464 61.913 0.882 -27.652 0.882 -27.652 0.464 61.913
8650 0.467 61.753 0.881 -27.815 0.881 -27.815 0.467 61.753
8700 0.469 61.593 0.88 -27.977 0.88 -27.977 0.469 61.593
8750 0.472 61.435 0.878 -28.138 0.878 -28.138 0.472 61.435
8800 0.474 61.277 0.877 -28.299 0.877 -28.299 0.474 61.277
8850 0.477 61.119 0.876 -28.459 0.876 -28.459 0.477 61.119
8900 0.479 60.962 0.874 -28.618 0.874 -28.618 0.479 60.962
8950 0.481 60.806 0.873 -28.777 0.873 -28.777 0.481 60.806
9000 0.484 60.65 0.872 -28.935 0.872 -28.935 0.484 60.65
9050 0.486 60.495 0.87 -29.093 0.87 -29.093 0.486 60.495
9100 0.489 60.34 0.869 -29.25 0.869 -29.25 0.489 60.34
9150 0.491 60.186 0.868 -29.407 0.868 -29.407 0.491 60.186
9200 0.493 60.032 0.866 -29.562 0.866 -29.562 0.493 60.032
9250 0.496 59.879 0.865 -29.717 0.865 -29.717 0.496 59.879
9300 0.498 59.727 0.864 -29.872 0.864 -29.872 0.498 59.727
9350 0.5 59.575 0.862 -30.026 0.862 -30.026 0.5 59.575
9400 0.503 59.424 0.861 -30.18 0.861 -30.18 0.503 59.424
9450 0.505 59.273 0.86 -30.332 0.86 -30.332 0.505 59.273
9500 0.507 59.123 0.858 -30.485 0.858 -30.485 0.507 59.123
9550 0.51 58.973 0.857 -30.636 0.857 -30.636 0.51 58.973
9600 0.512 58.824 0.856 -30.787 0.856 -30.787 0.512 58.824
9650 0.514 58.676 0.854 -30.938 0.854 -30.938 0.514 58.676
9700 0.516 58.528 0.853 -31.088 0.853 -31.088 0.516 58.528
9750 0.519 58.38 0.852 -31.237 0.852 -31.237 0.519 58.38
9800 0.521 58.234 0.85 -31.386 0.85 -31.386 0.521 58.234
9850 0.523 58.087 0.849 -31.534 0.849 -31.534 0.523 58.087
9900 0.525 57.941 0.848 -31.682 0.848 -31.682 0.525 57.941
9950 0.527 57.796 0.846 -31.829 0.846 -31.829 0.527 57.796
10000 0.53 57.652 0.845 -31.976 0.845 -31.976 0.53 57.652
10050 0.532 57.507 0.843 -32.122 0.843 -32.122 0.532 57.507
10100 0.534 57.364 0.842 -32.267 0.842 -32.267 0.534 57.364
10150 0.536 57.221 0.841 -32.412 0.841 -32.412 0.536 57.221
10200 0.538 57.078 0.839 -32.556 0.839 -32.556 0.538 57.078
10250 0.54 56.936 0.838 -32.7 0.838 -32.7 0.54 56.936
10300 0.542 56.794 0.837 -32.843 0.837 -32.843 0.542 56.794
10350 0.544 56.653 0.835 -32.986 0.835 -32.986 0.544 56.653
10400 0.547 56.513 0.834 -33.128 0.834 -33.128 0.547 56.513
10450 0.549 56.373 0.833 -33.27 0.833 -33.27 0.549 56.373
10500 0.551 56.233 0.831 -33.411 0.831 -33.411 0.551 56.233
10550 0.553 56.095 0.83 -33.551 0.83 -33.551 0.553 56.095
10600 0.555 55.956 0.829 -33.691 0.829 -33.691 0.555 55.956
10650 0.557 55.818 0.827 -33.831 0.827 -33.831 0.557 55.818
10700 0.559 55.681 0.826 -33.97 0.826 -33.97 0.559 55.681
10750 0.561 55.544 0.825 -34.108 0.825 -34.108 0.561 55.544
10800 0.563 55.407 0.823 -34.246 0.823 -34.246 0.563 55.407
10850 0.565 55.272 0.822 -34.384 0.822 -34.384 0.565 55.272
10900 0.567 55.136 0.821 -34.521 0.821 -34.521 0.567 55.136
10950 0.569 55.001 0.819 -34.657 0.819 -34.657 0.569 55.001
11000 0.571 54.867 0.818 -34.793 0.818 -34.793 0.571 54.867
11050 0.573 54.733 0.816 -34.928 0.816 -34.928 0.573 54.733
11100 0.574 54.599 0.815 -35.063 0.815 -35.063 0.574 54.599
11150 0.576 54.466 0.814 -35.198 0.814 -35.198 0.576 54.466
11200 0.578 54.334 0.812 -35.332 0.812 -35.332 0.578 54.334
11250 0.58 54.202 0.811 -35.465 0.811 -35.465 0.58 54.202
11300 0.582 54.071 0.81 -35.598 0.81 -35.598 0.582 54.071
11350 0.584 53.94 0.808 -35.73 0.808 -35.73 0.584 53.94
11400 0.586 53.809 0.807 -35.862 0.807 -35.862 0.586 53.809
11450 0.588 53.679 0.806 -35.993 0.806 -35.993 0.588 53.679
11500 0.59 53.549 0.804 -36.124 0.804 -36.124 0.59 53.549
11550 0.591 53.42 0.803 -36.255 0.803 -36.255 0.591 53.42
11600 0.593 53.292 0.802 -36.385 0.802 -36.385 0.593 53.292
11650 0.595 53.163 0.8 -36.514 0.8 -36.514 0.595 53.163
11700 0.597 53.036 0.799 -36.643 0.799 -36.643 0.597 53.036
11750 0.599 52.909 0.798 -36.771 0.798 -36.771 0.599 52.909
11800 0.6 52.782 0.796 -36.899 0.796 -36.899 0.6 52.782
11850 0.602 52.656 0.795 -37.027 0.795 -37.027 0.602 52.656
11900 0.604 52.53 0.794 -37.154 0.794 -37.154 0.604 52.53
11950 0.606 52.404 0.792 -37.281 0.792 -37.281 0.606 52.404
12000 0.607 52.279 0.791 -37.407 0.791 -37.407 0.607 52.279
12050 0.609 52.155 0.79 -37.532 0.79 -37.532 0.609 52.155
12100 0.611 52.031 0.788 -37.657 0.788 -37.657 0.611 52.031
12150 0.613 51.908 0.787 -37.782 0.787 -37.782 0.613 51.908
12200 0.614 51.784 0.786 -37.906 0.786 -37.906 0.614 51.784
12250 0.616 51.662 0.784 -38.03 0.784 -38.03 0.616 51.662
12300 0.618 51.54 0.783 -38.153 0.783 -38.153 0.618 51.54
12350 0.619 51.418 0.782 -38.276 0.782 -38.276 0.619 51.418
12400 0.621 51.297 0.78 -38.399 0.78 -38.399 0.621 51.297
12450 0.623 51.176 0.779 -38.521 0.779 -38.521 0.623 51.176
12500 0.624 51.055 0.778 -38.642 0.778 -38.642 0.624 51.055
12550 0.626 50.935 0.776 -38.763 0.776 -38.763 0.626 50.935
12600 0.628 50.816 0.775 -38.884 0.775 -38.884 0.628 50.816
12650 0.629 50.697 0.774 -39.004 0.774 -39.004 0.629 50.697
12700 0.631 50.578 0.773 -39.124 0.773 -39.124 0.631 50.578
12750 0.633 50.46 0.771 -39.243 0.771 -39.243 0.633 50.46
12800 0.634 50.342 0.77 -39.362 0.77 -39.362 0.634 50.342
12850 0.636 50.225 0.769 -39.48 0.769 -39.48 0.636 50.225
12900 0.637 50.108 0.767 -39.598 0.767 -39.598 0.637 50.108
12950 0.639 49.991 0.766 -39.716 0.766 -39.716 0.639 49.991
13000 0.641 49.875 0.765 -39.833 0.765 -39.833 0.641 49.875
13050 0.642 49.759 0.763 -39.949 0.763 -39.949 0.642 49.759
13100 0.644 49.644 0.762 -40.066 0.762 -40.066 0.644 49.644
13150 0.645 49.529 0.761 -40.181 0.761 -40.181 0.645 49.529
13200 0.647 49.415 0.759 -40.297 0.759 -40.297 0.647 49.415
13250 0.648 49.301 0.758 -40.412 0.758 -40.412 0.648 49.301
13300 0.65 49.187 0.757 -40.526 0.757 -40.526 0.65 49.187
13350 0.651 49.074 0.756 -40.64 0.756 -40.64 0.651 49.074
13400 0.653 48.961 0.754 -40.754 0.754 -40.754 0.653 48.961
13450 0.654 48.849 0.753 -40.867 0.753 -40.867 0.654 48.849
13500 0.656 48.737 0.752 -40.98 0.752 -40.98 0.656 48.737
13550 0.657 48.626 0.75 -41.093 0.75 -41.093 0.657 48.626
13600 0.659 48.515 0.749 -41.205 0.749 -41.205 0.659 48.515
13650 0.66 48.404 0.748 -41.316 0.748 -41.316 0.66 48.404
13700 0.662 48.294 0.747 -41.427 0.747 -41.427 0.662 48.294
13750 0.663 48.184 0.745 -41.538 0.745 -41.538 0.663 48.184
13800 0.665 48.074 0.744 -41.649 0.744 -41.649 0.665 48.074
13850 0.666 47.965 0.743 -41.759 0.743 -41.759 0.666 47.965
13900 0.667 47.856 0.741 -41.868 0.741 -41.868 0.667 47.856
13950 0.669 47.748 0.74 -41.977 0.74 -41.977 0.669 47.748
14000 0.67 47.64 0.739 -42.086 0.739 -42.086 0.67 47.64
14050 0.672 47.532 0.738 -42.195 0.738 -42.195 0.672 47.532
14100 0.673 47.425 0.736 -42.303 0.736 -42.303 0.673 47.425
14150 0.674 47.318 0.735 -42.41 0.735 -42.41 0.674 47.318
14200 0.676 47.212 0.734 -42.517 0.734 -42.517 0.676 47.212
14250 0.677 47.106 0.733 -42.624 0.733 -42.624 0.677 47.106
14300 0.679 47 0.731 -42.731 0.731 -42.731 0.679 47
14350 0.68 46.895 0.73 -42.837 0.73 -42.837 0.68 46.895
14400 0.681 46.79 0.729 -42.942 0.729 -42.942 0.681 46.79
14450 0.683 46.686 0.728 -43.048 0.728 -43.048 0.683 46.686
14500 0.684 46.582 0.726 -43.152 0.726 -43.152 0.684 46.582
14550 0.685 46.478 0.725 -43.257 0.725 -43.257 0.685 46.478
14600 0.687 46.375 0.724 -43.361 0.724 -43.361 0.687 46.375
14650 0.688 46.272 0.723 -43.465 0.723 -43.465 0.688 46.272
14700 0.689 46.169 0.721 -43.568 0.721 -43.568 0.689 46.169
14750 0.691 46.067 0.72 -43.671 0.72 -43.671 0.691 46.067
14800 0.692 45.965 0.719 -43.774 0.719 -43.774 0.692 45.965
14850 0.693 45.863 0.718 -43.876 0.718 -43.876 0.693 45.863
14900 0.694 45.762 0.716 -43.978 0.716 -43.978 0.694 45.762
14950 0.696 45.661 0.715 -44.08 0.715 -44.08 0.696 45.661
15000 0.697 45.561 0.714 -44.181 0.714 -44.181 0.697 45.561
15050 0.698 45.461 0.713 -44.282 0.713 -44.282 0.698 45.461
15100 0.699 45.361 0.712 -44.382 0.712 -44.382 0.699 45.361
15150 0.701 45.262 0.71 -44.482 0.71 -44.482 0.701 45.262
15200 0.702 45.163 0.709 -44.582 0.709 -44.582 0.702 45.163
15250 0.703 45.064 0.708 -44.681 0.708 -44.681 0.703 45.064
15300 0.704 44.966 0.707 -44.78 0.707 -44.78 0.704 44.966
15350 0.706 44.868 0.705 -44.879 0.705 -44.879 0.706 44.868
15400 0.707 44.77 0.704 -44.977 0.704 -44.977 0.707 44.77
15450 0.708 44.673 0.703 -45.075 0.703 -45.075 0.708 44.673
15500 0.709 44.576 0.702 -45.172 0.702 -45.172 0.709 44.576
15550 0.71 44.48 0.701 -45.27 0.701 -45.27 0.71 44.48
15600 0.712 44.383 0.699 -45.366 0.699 -45.366 0.712 44.383
15650 0.713 44.288 0.698 -45.463 0.698 -45.463 0.713 44.288
15700 0.714 44.192 0.697 -45.559 0.697 -45.559 0.714 44.192
15750 0.715 44.097 0.696 -45.655 0.696 -45.655 0.715 44.097
15800 0.716 44.002 0.695 -45.751 0.695 -45.751 0.716 44.002
15850 0.717 43.908 0.694 -45.846 0.694 -45.846 0.717 43.908
15900 0.719 43.813 0.692 -45.94 0.692 -45.94 0.719 43.813
15950 0.72 43.72 0.691 -46.035 0.691 -46.035 0.72 43.72
16000 0.721 43.626 0.69 -46.129 0.69 -46.129 0.721 43.626
16050 0.722 43.533 0.689 -46.223 0.689 -46.223 0.722 43.533
16100 0.723 43.44 0.688 -46.316 0.688 -46.316 0.723 43.44
16150 0.724 43.347 0.686 -46.409 0.686 -46.409 0.724 43.347
16200 0.725 43.255 0.685 -46.502 0.685 -46.502 0.725 43.255
16250 0.727 43.163 0.684 -46.595 0.684 -46.595 0.727 43.163
16300 0.728 43.072 0.683 -46.687 0.683 -46.687 0.728 43.072
16350 0.729 42.981 0.682 -46.779 0.682 -46.779 0.729 42.981
16400 0.73 42.89 0.681 -46.87 0.681 -46.87 0.73 42.89
16450 0.731 42.799 0.679 -46.961 0.679 -46.961 0.731 42.799
16500 0.732 42.709 0.678 -47.052 0.678 -47.052 0.732 42.709
16550 0.733 42.619 0.677 -47.143 0.677 -47.143 0.733 42.619
16600 0.734 42.529 0.676 -47.233 0.676 -47.233 0.734 42.529
16650 0.735 42.44 0.675 -47.323 0.675 -47.323 0.735 42.44
16700 0.736 42.351 0.674 -47.412 0.674 -47.412 0.736 42.351
16750 0.737 42.262 0.673 -47.502 0.673 -47.502 0.737 42.262
16800 0.738 42.174 0.671 -47.591 0.671 -47.591 0.738 42.174
16850 0.739 42.086 0.67 -47.679 0.67 -47.679 0.739 42.086
16900 0.74 41.998 0.669 -47.767 0.669 -47.767 0.74 41.998
