! AVX Thin Film Operation		Date: April 2012 
! Description: Accu-P® Series, Thin Film, SMD, RF Capacitor
! Part Number: 12101J3R0QBTTR					
!	100	MHz	-	20.05	GHz			
!	Serial	Measurements						
!								
#	MHZ	S	MA	R	50			
!	S11	S21	S12	S22				
!	dB	Phase	dB	Phase	dB	Phase	dB	Phase
50 0.995 -5.385 0.094 84.538 0.094 84.538 0.995 -5.385
100 0.982 -10.685 0.185 79.218 0.185 79.218 0.982 -10.685
150 0.962 -15.822 0.273 74.06 0.273 74.06 0.962 -15.822
200 0.934 -20.734 0.354 69.127 0.354 69.127 0.934 -20.734
250 0.902 -25.378 0.429 64.463 0.429 64.463 0.902 -25.378
300 0.867 -29.724 0.496 60.095 0.496 60.095 0.867 -29.724
350 0.829 -33.763 0.556 56.035 0.556 56.035 0.829 -33.763
400 0.791 -37.496 0.609 52.281 0.609 52.281 0.791 -37.496
450 0.753 -40.933 0.655 48.822 0.655 48.822 0.753 -40.933
500 0.715 -44.091 0.696 45.641 0.696 45.641 0.715 -44.091
550 0.678 -46.99 0.731 42.719 0.731 42.719 0.678 -46.99
600 0.643 -49.651 0.762 40.034 0.762 40.034 0.643 -49.651
650 0.61 -52.096 0.789 37.565 0.789 37.565 0.61 -52.096
700 0.578 -54.345 0.813 35.291 0.813 35.291 0.578 -54.345
750 0.547 -56.418 0.833 33.192 0.833 33.192 0.547 -56.418
800 0.519 -58.331 0.851 31.252 0.851 31.252 0.519 -58.331
850 0.492 -60.102 0.867 29.454 0.867 29.454 0.492 -60.102
900 0.466 -61.744 0.881 27.784 0.881 27.784 0.466 -61.744
950 0.442 -63.27 0.893 26.228 0.893 26.228 0.442 -63.27
1000 0.419 -64.692 0.904 24.775 0.904 24.775 0.419 -64.692
1050 0.397 -66.019 0.914 23.416 0.914 23.416 0.397 -66.019
1100 0.377 -67.262 0.922 22.14 0.922 22.14 0.377 -67.262
1150 0.357 -68.426 0.93 20.94 0.93 20.94 0.357 -68.426
1200 0.339 -69.521 0.937 19.809 0.937 19.809 0.339 -69.521
1250 0.321 -70.551 0.943 18.74 0.943 18.74 0.321 -70.551
1300 0.305 -71.522 0.949 17.727 0.949 17.727 0.305 -71.522
1350 0.289 -72.439 0.953 16.767 0.953 16.767 0.289 -72.439
1400 0.273 -73.306 0.958 15.853 0.958 15.853 0.273 -73.306
1450 0.259 -74.127 0.962 14.983 0.962 14.983 0.259 -74.127
1500 0.245 -74.905 0.966 14.152 0.966 14.152 0.245 -74.905
1550 0.231 -75.643 0.969 13.358 0.969 13.358 0.231 -75.643
1600 0.218 -76.343 0.972 12.597 0.972 12.597 0.218 -76.343
1650 0.206 -77.008 0.975 11.867 0.975 11.867 0.206 -77.008
1700 0.194 -77.638 0.977 11.165 0.977 11.165 0.194 -77.638
1750 0.182 -78.236 0.979 10.49 0.979 10.49 0.182 -78.236
1800 0.171 -78.803 0.981 9.84 0.981 9.84 0.171 -78.803
1850 0.16 -79.338 0.983 9.212 0.983 9.212 0.16 -79.338
1900 0.15 -79.842 0.985 8.605 0.985 8.605 0.15 -79.842
1950 0.14 -80.316 0.986 8.018 0.986 8.018 0.14 -80.316
2000 0.13 -80.757 0.987 7.449 0.987 7.449 0.13 -80.757
2050 0.12 -81.165 0.989 6.898 0.989 6.898 0.12 -81.165
2100 0.111 -81.538 0.99 6.362 0.99 6.362 0.111 -81.538
2150 0.102 -81.871 0.991 5.842 0.991 5.842 0.102 -81.871
2200 0.093 -82.16 0.992 5.336 0.992 5.336 0.093 -82.16
2250 0.085 -82.399 0.992 4.843 0.992 4.843 0.085 -82.399
2300 0.076 -82.576 0.993 4.362 0.993 4.362 0.076 -82.576
2350 0.068 -82.677 0.994 3.894 0.994 3.894 0.068 -82.677
2400 0.06 -82.679 0.994 3.436 0.994 3.436 0.06 -82.679
2450 0.052 -82.547 0.995 2.989 0.995 2.989 0.052 -82.547
2500 0.045 -82.223 0.995 2.552 0.995 2.552 0.045 -82.223
2550 0.037 -81.606 0.995 2.124 0.995 2.124 0.037 -81.606
2600 0.03 -80.502 0.995 1.705 0.995 1.705 0.03 -80.502
2650 0.023 -78.487 0.996 1.294 0.996 1.294 0.023 -78.487
2700 0.016 -74.447 0.996 0.892 0.996 0.892 0.016 -74.447
2750 9.583e-3 -64.352 0.996 0.497 0.996 0.497 9.583e-3 -64.352
2800 4.497e-3 -24.993 0.996 0.109 0.996 0.109 4.497e-3 -24.993
2850 6.248e-3 49.048 0.996 -0.271 0.996 -0.271 6.248e-3 49.048
2900 0.012 69.485 0.996 -0.646 0.996 -0.646 0.012 69.485
2950 0.018 76.023 0.996 -1.014 0.996 -1.014 0.018 76.023
3000 0.024 78.997 0.996 -1.376 0.996 -1.376 0.024 78.997
3050 0.03 80.595 0.995 -1.732 0.995 -1.732 0.03 80.595
3100 0.037 81.525 0.995 -2.083 0.995 -2.083 0.037 81.525
3150 0.043 82.083 0.995 -2.428 0.995 -2.428 0.043 82.083
3200 0.048 82.414 0.995 -2.769 0.995 -2.769 0.048 82.414
3250 0.054 82.597 0.994 -3.105 0.994 -3.105 0.054 82.597
3300 0.06 82.679 0.994 -3.436 0.994 -3.436 0.06 82.679
3350 0.066 82.689 0.994 -3.763 0.994 -3.763 0.066 82.689
3400 0.071 82.646 0.993 -4.085 0.993 -4.085 0.071 82.646
3450 0.077 82.563 0.993 -4.403 0.993 -4.403 0.077 82.563
3500 0.082 82.451 0.993 -4.718 0.993 -4.718 0.082 82.451
3550 0.088 82.315 0.992 -5.029 0.992 -5.029 0.088 82.315
3600 0.093 82.161 0.992 -5.336 0.992 -5.336 0.093 82.161
3650 0.098 81.992 0.991 -5.639 0.991 -5.639 0.098 81.992
3700 0.104 81.811 0.991 -5.939 0.991 -5.939 0.104 81.811
3750 0.109 81.621 0.99 -6.236 0.99 -6.236 0.109 81.621
3800 0.114 81.424 0.989 -6.53 0.989 -6.53 0.114 81.424
3850 0.119 81.221 0.989 -6.82 0.989 -6.82 0.119 81.221
3900 0.124 81.012 0.988 -7.108 0.988 -7.108 0.124 81.012
3950 0.129 80.8 0.988 -7.393 0.988 -7.393 0.129 80.8
4000 0.134 80.584 0.987 -7.674 0.987 -7.674 0.134 80.584
4050 0.138 80.366 0.986 -7.954 0.986 -7.954 0.138 80.366
4100 0.143 80.146 0.986 -8.23 0.986 -8.23 0.143 80.146
4150 0.148 79.924 0.985 -8.505 0.985 -8.505 0.148 79.924
4200 0.153 79.701 0.984 -8.776 0.984 -8.776 0.153 79.701
4250 0.157 79.478 0.984 -9.045 0.984 -9.045 0.157 79.478
4300 0.162 79.253 0.983 -9.312 0.983 -9.312 0.162 79.253
4350 0.166 79.028 0.982 -9.577 0.982 -9.577 0.166 79.028
4400 0.171 78.803 0.981 -9.84 0.981 -9.84 0.171 78.803
4450 0.175 78.578 0.98 -10.1 0.98 -10.1 0.175 78.578
4500 0.18 78.352 0.98 -10.358 0.98 -10.358 0.18 78.352
4550 0.184 78.127 0.979 -10.614 0.979 -10.614 0.184 78.127
4600 0.189 77.903 0.978 -10.869 0.978 -10.869 0.189 77.903
4650 0.193 77.678 0.977 -11.121 0.977 -11.121 0.193 77.678
4700 0.197 77.454 0.976 -11.371 0.976 -11.371 0.197 77.454
4750 0.201 77.231 0.975 -11.62 0.975 -11.62 0.201 77.231
4800 0.206 77.008 0.975 -11.867 0.975 -11.867 0.206 77.008
4850 0.21 76.786 0.974 -12.112 0.974 -12.112 0.21 76.786
4900 0.214 76.564 0.973 -12.355 0.973 -12.355 0.214 76.564
4950 0.218 76.343 0.972 -12.597 0.972 -12.597 0.218 76.343
5000 0.222 76.123 0.971 -12.837 0.971 -12.837 0.222 76.123
5050 0.226 75.904 0.97 -13.075 0.97 -13.075 0.226 75.904
5100 0.23 75.685 0.969 -13.312 0.969 -13.312 0.23 75.685
5150 0.234 75.468 0.968 -13.547 0.968 -13.547 0.234 75.468
5200 0.238 75.251 0.967 -13.781 0.967 -13.781 0.238 75.251
5250 0.242 75.035 0.966 -14.013 0.966 -14.013 0.242 75.035
5300 0.246 74.819 0.965 -14.244 0.965 -14.244 0.246 74.819
5350 0.25 74.605 0.964 -14.474 0.964 -14.474 0.25 74.605
5400 0.254 74.391 0.963 -14.702 0.963 -14.702 0.254 74.391
5450 0.258 74.178 0.962 -14.928 0.962 -14.928 0.258 74.178
5500 0.261 73.967 0.961 -15.153 0.961 -15.153 0.261 73.967
5550 0.265 73.756 0.96 -15.377 0.96 -15.377 0.265 73.756
5600 0.269 73.545 0.959 -15.6 0.959 -15.6 0.269 73.545
5650 0.273 73.336 0.958 -15.821 0.958 -15.821 0.273 73.336
5700 0.276 73.128 0.957 -16.042 0.957 -16.042 0.276 73.128
5750 0.28 72.92 0.956 -16.26 0.956 -16.26 0.28 72.92
5800 0.284 72.713 0.955 -16.478 0.955 -16.478 0.284 72.713
5850 0.287 72.507 0.954 -16.695 0.954 -16.695 0.287 72.507
5900 0.291 72.302 0.953 -16.91 0.953 -16.91 0.291 72.302
5950 0.294 72.098 0.952 -17.124 0.952 -17.124 0.294 72.098
6000 0.298 71.895 0.951 -17.337 0.951 -17.337 0.298 71.895
6050 0.302 71.693 0.949 -17.549 0.949 -17.549 0.302 71.693
6100 0.305 71.491 0.948 -17.759 0.948 -17.759 0.305 71.491
6150 0.309 71.29 0.947 -17.969 0.947 -17.969 0.309 71.29
6200 0.312 71.09 0.946 -18.178 0.946 -18.178 0.312 71.09
6250 0.315 70.891 0.945 -18.385 0.945 -18.385 0.315 70.891
6300 0.319 70.693 0.944 -18.591 0.944 -18.591 0.319 70.693
6350 0.322 70.496 0.943 -18.797 0.943 -18.797 0.322 70.496
6400 0.326 70.299 0.942 -19.001 0.942 -19.001 0.326 70.299
6450 0.329 70.103 0.94 -19.204 0.94 -19.204 0.329 70.103
6500 0.332 69.908 0.939 -19.407 0.939 -19.407 0.332 69.908
6550 0.336 69.714 0.938 -19.608 0.938 -19.608 0.336 69.714
6600 0.339 69.521 0.937 -19.808 0.937 -19.808 0.339 69.521
6650 0.342 69.328 0.936 -20.008 0.936 -20.008 0.342 69.328
6700 0.345 69.137 0.934 -20.206 0.934 -20.206 0.345 69.137
6750 0.349 68.946 0.933 -20.404 0.933 -20.404 0.349 68.946
6800 0.352 68.756 0.932 -20.6 0.932 -20.6 0.352 68.756
6850 0.355 68.566 0.931 -20.796 0.931 -20.796 0.355 68.566
6900 0.358 68.378 0.93 -20.99 0.93 -20.99 0.358 68.378
6950 0.361 68.19 0.928 -21.184 0.928 -21.184 0.361 68.19
7000 0.365 68.003 0.927 -21.377 0.927 -21.377 0.365 68.003
7050 0.368 67.816 0.926 -21.569 0.926 -21.569 0.368 67.816
7100 0.371 67.631 0.925 -21.76 0.925 -21.76 0.371 67.631
7150 0.374 67.446 0.924 -21.95 0.924 -21.95 0.374 67.446
7200 0.377 67.262 0.922 -22.14 0.922 -22.14 0.377 67.262
7250 0.38 67.079 0.921 -22.328 0.921 -22.328 0.38 67.079
7300 0.383 66.896 0.92 -22.516 0.92 -22.516 0.383 66.896
7350 0.386 66.714 0.919 -22.703 0.919 -22.703 0.386 66.714
7400 0.389 66.533 0.917 -22.889 0.917 -22.889 0.389 66.533
7450 0.392 66.353 0.916 -23.074 0.916 -23.074 0.392 66.353
7500 0.395 66.173 0.915 -23.258 0.915 -23.258 0.395 66.173
7550 0.398 65.994 0.914 -23.442 0.914 -23.442 0.398 65.994
7600 0.401 65.816 0.912 -23.624 0.912 -23.624 0.401 65.816
7650 0.404 65.639 0.911 -23.806 0.911 -23.806 0.404 65.639
7700 0.407 65.462 0.91 -23.987 0.91 -23.987 0.407 65.462
7750 0.409 65.286 0.908 -24.168 0.908 -24.168 0.409 65.286
7800 0.412 65.11 0.907 -24.347 0.907 -24.347 0.412 65.11
7850 0.415 64.936 0.906 -24.526 0.906 -24.526 0.415 64.936
7900 0.418 64.762 0.905 -24.704 0.905 -24.704 0.418 64.762
7950 0.421 64.588 0.903 -24.881 0.903 -24.881 0.421 64.588
8000 0.424 64.416 0.902 -25.058 0.902 -25.058 0.424 64.416
8050 0.426 64.244 0.901 -25.234 0.901 -25.234 0.426 64.244
8100 0.429 64.072 0.899 -25.409 0.899 -25.409 0.429 64.072
8150 0.432 63.902 0.898 -25.583 0.898 -25.583 0.432 63.902
8200 0.435 63.732 0.897 -25.756 0.897 -25.756 0.435 63.732
8250 0.437 63.563 0.895 -25.929 0.895 -25.929 0.437 63.563
8300 0.44 63.394 0.894 -26.101 0.894 -26.101 0.44 63.394
8350 0.443 63.226 0.893 -26.273 0.893 -26.273 0.443 63.226
8400 0.445 63.059 0.892 -26.443 0.892 -26.443 0.445 63.059
8450 0.448 62.892 0.89 -26.613 0.89 -26.613 0.448 62.892
8500 0.451 62.726 0.889 -26.783 0.889 -26.783 0.451 62.726
8550 0.453 62.561 0.888 -26.951 0.888 -26.951 0.453 62.561
8600 0.456 62.396 0.886 -27.119 0.886 -27.119 0.456 62.396
8650 0.458 62.232 0.885 -27.286 0.885 -27.286 0.458 62.232
8700 0.461 62.069 0.884 -27.453 0.884 -27.453 0.461 62.069
8750 0.464 61.906 0.882 -27.618 0.882 -27.618 0.464 61.906
8800 0.466 61.744 0.881 -27.784 0.881 -27.784 0.466 61.744
8850 0.469 61.583 0.88 -27.948 0.88 -27.948 0.469 61.583
8900 0.471 61.422 0.878 -28.112 0.878 -28.112 0.471 61.422
8950 0.474 61.262 0.877 -28.275 0.877 -28.275 0.474 61.262
9000 0.476 61.102 0.876 -28.437 0.876 -28.437 0.476 61.102
9050 0.479 60.943 0.874 -28.599 0.874 -28.599 0.479 60.943
9100 0.481 60.785 0.873 -28.76 0.873 -28.76 0.481 60.785
9150 0.484 60.627 0.871 -28.921 0.871 -28.921 0.484 60.627
9200 0.486 60.47 0.87 -29.08 0.87 -29.08 0.486 60.47
9250 0.488 60.313 0.869 -29.24 0.869 -29.24 0.488 60.313
9300 0.491 60.157 0.867 -29.398 0.867 -29.398 0.491 60.157
9350 0.493 60.002 0.866 -29.556 0.866 -29.556 0.493 60.002
9400 0.496 59.847 0.865 -29.713 0.865 -29.713 0.496 59.847
9450 0.498 59.693 0.863 -29.87 0.863 -29.87 0.498 59.693
9500 0.5 59.539 0.862 -30.026 0.862 -30.026 0.5 59.539
9550 0.503 59.386 0.861 -30.181 0.861 -30.181 0.503 59.386
9600 0.505 59.234 0.859 -30.336 0.859 -30.336 0.505 59.234
9650 0.507 59.082 0.858 -30.49 0.858 -30.49 0.507 59.082
9700 0.51 58.931 0.857 -30.644 0.857 -30.644 0.51 58.931
9750 0.512 58.78 0.855 -30.797 0.855 -30.797 0.512 58.78
9800 0.514 58.63 0.854 -30.949 0.854 -30.949 0.514 58.63
9850 0.517 58.481 0.852 -31.101 0.852 -31.101 0.517 58.481
9900 0.519 58.332 0.851 -31.252 0.851 -31.252 0.519 58.332
9950 0.521 58.183 0.85 -31.403 0.85 -31.403 0.521 58.183
10000 0.523 58.035 0.848 -31.553 0.848 -31.553 0.523 58.035
10050 0.526 57.888 0.847 -31.702 0.847 -31.702 0.526 57.888
10100 0.528 57.742 0.846 -31.851 0.846 -31.851 0.528 57.742
10150 0.53 57.595 0.844 -31.999 0.844 -31.999 0.53 57.595
10200 0.532 57.45 0.843 -32.146 0.843 -32.146 0.532 57.45
10250 0.534 57.305 0.842 -32.293 0.842 -32.293 0.534 57.305
10300 0.536 57.16 0.84 -32.44 0.84 -32.44 0.536 57.16
10350 0.539 57.017 0.839 -32.586 0.839 -32.586 0.539 57.017
10400 0.541 56.873 0.837 -32.731 0.837 -32.731 0.541 56.873
10450 0.543 56.73 0.836 -32.876 0.836 -32.876 0.543 56.73
10500 0.545 56.588 0.835 -33.02 0.835 -33.02 0.545 56.588
10550 0.547 56.446 0.833 -33.163 0.833 -33.163 0.547 56.446
10600 0.549 56.305 0.832 -33.307 0.832 -33.307 0.549 56.305
10650 0.551 56.165 0.831 -33.449 0.831 -33.449 0.551 56.165
10700 0.553 56.024 0.829 -33.591 0.829 -33.591 0.553 56.024
10750 0.555 55.885 0.828 -33.732 0.828 -33.732 0.555 55.885
10800 0.557 55.746 0.827 -33.873 0.827 -33.873 0.557 55.746
10850 0.559 55.607 0.825 -34.013 0.825 -34.013 0.559 55.607
10900 0.561 55.469 0.824 -34.153 0.824 -34.153 0.561 55.469
10950 0.563 55.332 0.822 -34.292 0.822 -34.292 0.563 55.332
11000 0.565 55.195 0.821 -34.431 0.821 -34.431 0.565 55.195
11050 0.567 55.058 0.82 -34.569 0.82 -34.569 0.567 55.058
11100 0.569 54.922 0.818 -34.707 0.818 -34.707 0.569 54.922
11150 0.571 54.787 0.817 -34.844 0.817 -34.844 0.571 54.787
11200 0.573 54.652 0.816 -34.98 0.816 -34.98 0.573 54.652
11250 0.575 54.518 0.814 -35.116 0.814 -35.116 0.575 54.518
11300 0.577 54.384 0.813 -35.252 0.813 -35.252 0.577 54.384
11350 0.579 54.25 0.812 -35.387 0.812 -35.387 0.579 54.25
11400 0.581 54.118 0.81 -35.521 0.81 -35.521 0.581 54.118
11450 0.583 53.985 0.809 -35.655 0.809 -35.655 0.583 53.985
11500 0.585 53.853 0.808 -35.788 0.808 -35.788 0.585 53.853
11550 0.587 53.722 0.806 -35.921 0.806 -35.921 0.587 53.722
11600 0.589 53.591 0.805 -36.054 0.805 -36.054 0.589 53.591
11650 0.59 53.461 0.803 -36.186 0.803 -36.186 0.59 53.461
11700 0.592 53.331 0.802 -36.317 0.802 -36.317 0.592 53.331
11750 0.594 53.201 0.801 -36.448 0.801 -36.448 0.594 53.201
11800 0.596 53.072 0.799 -36.578 0.799 -36.578 0.596 53.072
11850 0.598 52.944 0.798 -36.708 0.798 -36.708 0.598 52.944
11900 0.6 52.816 0.797 -36.837 0.797 -36.837 0.6 52.816
11950 0.601 52.688 0.795 -36.966 0.795 -36.966 0.601 52.688
12000 0.603 52.561 0.794 -37.095 0.794 -37.095 0.603 52.561
12050 0.605 52.435 0.793 -37.223 0.793 -37.223 0.605 52.435
12100 0.607 52.309 0.791 -37.35 0.791 -37.35 0.607 52.309
12150 0.608 52.183 0.79 -37.477 0.79 -37.477 0.608 52.183
12200 0.61 52.058 0.789 -37.603 0.789 -37.603 0.61 52.058
12250 0.612 51.933 0.787 -37.729 0.787 -37.729 0.612 51.933
12300 0.614 51.809 0.786 -37.855 0.786 -37.855 0.614 51.809
12350 0.615 51.686 0.785 -37.98 0.785 -37.98 0.615 51.686
12400 0.617 51.562 0.783 -38.104 0.783 -38.104 0.617 51.562
12450 0.619 51.44 0.782 -38.228 0.782 -38.228 0.619 51.44
12500 0.62 51.317 0.781 -38.352 0.781 -38.352 0.62 51.317
12550 0.622 51.195 0.779 -38.475 0.779 -38.475 0.622 51.195
12600 0.624 51.074 0.778 -38.598 0.778 -38.598 0.624 51.074
12650 0.626 50.953 0.777 -38.72 0.777 -38.72 0.626 50.953
12700 0.627 50.832 0.775 -38.841 0.775 -38.841 0.627 50.832
12750 0.629 50.712 0.774 -38.963 0.774 -38.963 0.629 50.712
12800 0.63 50.593 0.773 -39.084 0.773 -39.084 0.63 50.593
12850 0.632 50.474 0.771 -39.204 0.771 -39.204 0.632 50.474
12900 0.634 50.355 0.77 -39.324 0.77 -39.324 0.634 50.355
12950 0.635 50.237 0.769 -39.443 0.769 -39.443 0.635 50.237
13000 0.637 50.119 0.767 -39.562 0.767 -39.562 0.637 50.119
13050 0.639 50.001 0.766 -39.681 0.766 -39.681 0.639 50.001
13100 0.64 49.884 0.765 -39.799 0.765 -39.799 0.64 49.884
13150 0.642 49.768 0.763 -39.916 0.763 -39.916 0.642 49.768
13200 0.643 49.652 0.762 -40.034 0.762 -40.034 0.643 49.652
13250 0.645 49.536 0.761 -40.15 0.761 -40.15 0.645 49.536
13300 0.646 49.421 0.76 -40.267 0.76 -40.267 0.646 49.421
13350 0.648 49.306 0.758 -40.383 0.758 -40.383 0.648 49.306
13400 0.649 49.192 0.757 -40.498 0.757 -40.498 0.649 49.192
13450 0.651 49.078 0.756 -40.613 0.756 -40.613 0.651 49.078
13500 0.652 48.964 0.754 -40.728 0.754 -40.728 0.652 48.964
13550 0.654 48.851 0.753 -40.842 0.753 -40.842 0.654 48.851
13600 0.655 48.738 0.752 -40.955 0.752 -40.955 0.655 48.738
13650 0.657 48.626 0.75 -41.069 0.75 -41.069 0.657 48.626
13700 0.658 48.514 0.749 -41.182 0.749 -41.182 0.658 48.514
13750 0.66 48.403 0.748 -41.294 0.748 -41.294 0.66 48.403
13800 0.661 48.291 0.747 -41.406 0.747 -41.406 0.661 48.291
13850 0.663 48.181 0.745 -41.518 0.745 -41.518 0.663 48.181
13900 0.664 48.071 0.744 -41.629 0.744 -41.629 0.664 48.071
13950 0.666 47.961 0.743 -41.74 0.743 -41.74 0.666 47.961
14000 0.667 47.851 0.741 -41.85 0.741 -41.85 0.667 47.851
14050 0.669 47.742 0.74 -41.96 0.74 -41.96 0.669 47.742
14100 0.67 47.634 0.739 -42.07 0.739 -42.07 0.67 47.634
14150 0.671 47.526 0.738 -42.179 0.738 -42.179 0.671 47.526
14200 0.673 47.418 0.736 -42.288 0.736 -42.288 0.673 47.418
14250 0.674 47.31 0.735 -42.396 0.735 -42.396 0.674 47.31
14300 0.676 47.203 0.734 -42.504 0.734 -42.504 0.676 47.203
14350 0.677 47.097 0.733 -42.611 0.733 -42.611 0.677 47.097
14400 0.678 46.99 0.731 -42.719 0.731 -42.719 0.678 46.99
14450 0.68 46.885 0.73 -42.825 0.73 -42.825 0.68 46.885
14500 0.681 46.779 0.729 -42.932 0.729 -42.932 0.681 46.779
14550 0.682 46.674 0.727 -43.038 0.727 -43.038 0.682 46.674
14600 0.684 46.569 0.726 -43.143 0.726 -43.143 0.684 46.569
14650 0.685 46.465 0.725 -43.248 0.725 -43.248 0.685 46.465
14700 0.687 46.361 0.724 -43.353 0.724 -43.353 0.687 46.361
14750 0.688 46.257 0.722 -43.457 0.722 -43.457 0.688 46.257
14800 0.689 46.154 0.721 -43.561 0.721 -43.561 0.689 46.154
14850 0.69 46.052 0.72 -43.665 0.72 -43.665 0.69 46.052
14900 0.692 45.949 0.719 -43.768 0.719 -43.768 0.692 45.949
14950 0.693 45.847 0.717 -43.871 0.717 -43.871 0.693 45.847
15000 0.694 45.745 0.716 -43.974 0.716 -43.974 0.694 45.745
15050 0.696 45.644 0.715 -44.076 0.715 -44.076 0.696 45.644
15100 0.697 45.543 0.714 -44.178 0.714 -44.178 0.697 45.543
15150 0.698 45.443 0.713 -44.279 0.713 -44.279 0.698 45.443
15200 0.699 45.342 0.711 -44.38 0.711 -44.38 0.699 45.342
15250 0.701 45.243 0.71 -44.481 0.71 -44.481 0.701 45.243
15300 0.702 45.143 0.709 -44.581 0.709 -44.581 0.702 45.143
15350 0.703 45.044 0.708 -44.681 0.708 -44.681 0.703 45.044
15400 0.704 44.945 0.706 -44.78 0.706 -44.78 0.704 44.945
15450 0.706 44.847 0.705 -44.879 0.705 -44.879 0.706 44.847
15500 0.707 44.749 0.704 -44.978 0.704 -44.978 0.707 44.749
15550 0.708 44.651 0.703 -45.077 0.703 -45.077 0.708 44.651
15600 0.709 44.554 0.702 -45.175 0.702 -45.175 0.709 44.554
15650 0.71 44.457 0.7 -45.272 0.7 -45.272 0.71 44.457
15700 0.712 44.36 0.699 -45.37 0.699 -45.37 0.712 44.36
15750 0.713 44.264 0.698 -45.467 0.698 -45.467 0.713 44.264
15800 0.714 44.168 0.697 -45.564 0.697 -45.564 0.714 44.168
15850 0.715 44.072 0.696 -45.66 0.696 -45.66 0.715 44.072
15900 0.716 43.977 0.694 -45.756 0.694 -45.756 0.716 43.977
15950 0.718 43.882 0.693 -45.851 0.693 -45.851 0.718 43.882
16000 0.719 43.788 0.692 -45.947 0.692 -45.947 0.719 43.788
16050 0.72 43.693 0.691 -46.042 0.691 -46.042 0.72 43.693
16100 0.721 43.599 0.69 -46.136 0.69 -46.136 0.721 43.599
16150 0.722 43.506 0.688 -46.23 0.688 -46.23 0.722 43.506
16200 0.723 43.413 0.687 -46.324 0.687 -46.324 0.723 43.413
16250 0.724 43.32 0.686 -46.418 0.686 -46.418 0.724 43.32
16300 0.726 43.227 0.685 -46.511 0.685 -46.511 0.726 43.227
16350 0.727 43.135 0.684 -46.604 0.684 -46.604 0.727 43.135
16400 0.728 43.043 0.683 -46.697 0.683 -46.697 0.728 43.043
16450 0.729 42.952 0.681 -46.789 0.681 -46.789 0.729 42.952
16500 0.73 42.86 0.68 -46.881 0.68 -46.881 0.73 42.86
16550 0.731 42.77 0.679 -46.972 0.679 -46.972 0.731 42.77
16600 0.732 42.679 0.678 -47.063 0.678 -47.063 0.732 42.679
16650 0.733 42.589 0.677 -47.154 0.677 -47.154 0.733 42.589
16700 0.734 42.499 0.676 -47.245 0.676 -47.245 0.734 42.499
16750 0.735 42.409 0.674 -47.335 0.674 -47.335 0.735 42.409
16800 0.736 42.32 0.673 -47.425 0.673 -47.425 0.736 42.32
16850 0.737 42.231 0.672 -47.515 0.672 -47.515 0.737 42.231
16900 0.739 42.142 0.671 -47.604 0.671 -47.604 0.739 42.142
