! AVX Thin Film Operation		Date: April 2012 
! Description: Accu-P® Series, Thin Film, SMD, RF Capacitor
! Part Number: 12101J2R5QBTTR					
!	100	MHz	-	20.05	GHz			
!	Serial	Measurements						
!								
#	MHZ	S	MA	R	50			
!	S11	S21	S12	S22				
!	dB	Phase	dB	Phase	dB	Phase	dB	Phase
50 0.997 -4.491 0.078 85.434 0.078 85.434 0.997 -4.491
100 0.988 -8.934 0.155 80.973 0.155 80.973 0.988 -8.934
150 0.973 -13.283 0.23 76.607 0.23 76.607 0.973 -13.283
200 0.953 -17.498 0.301 72.374 0.301 72.374 0.953 -17.498
250 0.929 -21.549 0.367 68.305 0.367 68.305 0.929 -21.549
300 0.902 -25.412 0.429 64.423 0.429 64.423 0.902 -25.412
350 0.872 -29.072 0.486 60.744 0.486 60.744 0.872 -29.072
400 0.841 -32.523 0.538 57.275 0.538 57.275 0.841 -32.523
450 0.809 -35.763 0.584 54.016 0.584 54.016 0.809 -35.763
500 0.777 -38.795 0.627 50.964 0.627 50.964 0.777 -38.795
550 0.744 -41.628 0.664 48.112 0.664 48.112 0.744 -41.628
600 0.713 -44.271 0.698 45.448 0.698 45.448 0.713 -44.271
650 0.682 -46.736 0.728 42.963 0.728 42.963 0.682 -46.736
700 0.651 -49.035 0.755 40.643 0.755 40.643 0.651 -49.035
750 0.622 -51.179 0.779 38.477 0.779 38.477 0.622 -51.179
800 0.594 -53.181 0.801 36.453 0.801 36.453 0.594 -53.181
850 0.567 -55.052 0.82 34.559 0.82 34.559 0.567 -55.052
900 0.541 -56.803 0.837 32.784 0.837 32.784 0.541 -56.803
950 0.517 -58.443 0.852 31.119 0.852 31.119 0.517 -58.443
1000 0.493 -59.983 0.866 29.554 0.866 29.554 0.493 -59.983
1050 0.471 -61.43 0.878 28.081 0.878 28.081 0.471 -61.43
1100 0.449 -62.792 0.889 26.692 0.889 26.692 0.449 -62.792
1150 0.429 -64.076 0.899 25.38 0.899 25.38 0.429 -64.076
1200 0.409 -65.288 0.908 24.138 0.908 24.138 0.409 -65.288
1250 0.39 -66.435 0.917 22.961 0.917 22.961 0.39 -66.435
1300 0.372 -67.521 0.924 21.843 0.924 21.843 0.372 -67.521
1350 0.355 -68.55 0.931 20.779 0.931 20.779 0.355 -68.55
1400 0.338 -69.528 0.937 19.766 0.937 19.766 0.338 -69.528
1450 0.322 -70.458 0.942 18.799 0.942 18.799 0.322 -70.458
1500 0.307 -71.343 0.948 17.875 0.948 17.875 0.307 -71.343
1550 0.292 -72.186 0.952 16.991 0.952 16.991 0.292 -72.186
1600 0.278 -72.99 0.956 16.143 0.956 16.143 0.278 -72.99
1650 0.264 -73.757 0.96 15.328 0.96 15.328 0.264 -73.757
1700 0.251 -74.49 0.964 14.546 0.964 14.546 0.251 -74.49
1750 0.238 -75.19 0.967 13.793 0.967 13.793 0.238 -75.19
1800 0.226 -75.859 0.97 13.067 0.97 13.067 0.226 -75.859
1850 0.214 -76.498 0.973 12.366 0.973 12.366 0.214 -76.498
1900 0.203 -77.109 0.975 11.689 0.975 11.689 0.203 -77.109
1950 0.191 -77.692 0.977 11.034 0.977 11.034 0.191 -77.692
2000 0.181 -78.248 0.979 10.401 0.979 10.401 0.181 -78.248
2050 0.17 -78.777 0.981 9.786 0.981 9.786 0.17 -78.777
2100 0.16 -79.279 0.983 9.19 0.983 9.19 0.16 -79.279
2150 0.15 -79.755 0.984 8.611 0.984 8.611 0.15 -79.755
2200 0.14 -80.204 0.986 8.048 0.986 8.048 0.14 -80.204
2250 0.131 -80.623 0.987 7.5 0.987 7.5 0.131 -80.623
2300 0.121 -81.013 0.988 6.967 0.988 6.967 0.121 -81.013
2350 0.112 -81.37 0.989 6.447 0.989 6.447 0.112 -81.37
2400 0.104 -81.69 0.99 5.94 0.99 5.94 0.104 -81.69
2450 0.095 -81.97 0.991 5.445 0.991 5.445 0.095 -81.97
2500 0.087 -82.202 0.992 4.962 0.992 4.962 0.087 -82.202
2550 0.078 -82.376 0.993 4.489 0.993 4.489 0.078 -82.376
2600 0.07 -82.479 0.993 4.027 0.993 4.027 0.07 -82.479
2650 0.062 -82.49 0.994 3.574 0.994 3.574 0.062 -82.49
2700 0.055 -82.378 0.994 3.131 0.994 3.131 0.055 -82.378
2750 0.047 -82.092 0.995 2.696 0.995 2.696 0.047 -82.092
2800 0.04 -81.547 0.995 2.27 0.995 2.27 0.04 -81.547
2850 0.033 -80.584 0.995 1.852 0.995 1.852 0.033 -80.584
2900 0.026 -78.876 0.995 1.441 0.995 1.441 0.026 -78.876
2950 0.019 -75.636 0.996 1.038 0.996 1.038 0.019 -75.636
3000 0.012 -68.4 0.996 0.642 0.996 0.642 0.012 -68.4
3050 6.153e-3 -45.511 0.996 0.253 0.996 0.253 6.153e-3 -45.511
3100 4.86e-3 27.83 0.996 -0.131 0.996 -0.131 4.86e-3 27.83
3150 9.844e-3 63.641 0.996 -0.508 0.996 -0.508 9.844e-3 63.641
3200 0.016 73.486 0.996 -0.879 0.996 -0.879 0.016 73.486
3250 0.022 77.576 0.995 -1.244 0.995 -1.244 0.022 77.576
3300 0.028 79.681 0.995 -1.604 0.995 -1.604 0.028 79.681
3350 0.034 80.887 0.995 -1.959 0.995 -1.959 0.034 80.887
3400 0.041 81.613 0.995 -2.309 0.995 -2.309 0.041 81.613
3450 0.047 82.053 0.995 -2.655 0.995 -2.655 0.047 82.053
3500 0.052 82.312 0.994 -2.995 0.994 -2.995 0.052 82.312
3550 0.058 82.447 0.994 -3.332 0.994 -3.332 0.058 82.447
3600 0.064 82.497 0.994 -3.663 0.994 -3.663 0.064 82.497
3650 0.07 82.484 0.993 -3.991 0.993 -3.991 0.07 82.484
3700 0.075 82.424 0.993 -4.315 0.993 -4.315 0.075 82.424
3750 0.081 82.329 0.992 -4.635 0.992 -4.635 0.081 82.329
3800 0.086 82.206 0.992 -4.951 0.992 -4.951 0.086 82.206
3850 0.092 82.062 0.991 -5.264 0.991 -5.264 0.092 82.062
3900 0.097 81.901 0.991 -5.573 0.991 -5.573 0.097 81.901
3950 0.103 81.727 0.99 -5.879 0.99 -5.879 0.103 81.727
4000 0.108 81.541 0.99 -6.182 0.99 -6.182 0.108 81.541
4050 0.113 81.347 0.989 -6.481 0.989 -6.481 0.113 81.347
4100 0.118 81.146 0.989 -6.778 0.989 -6.778 0.118 81.146
4150 0.123 80.939 0.988 -7.071 0.988 -7.071 0.123 80.939
4200 0.128 80.727 0.987 -7.362 0.987 -7.362 0.128 80.727
4250 0.133 80.511 0.987 -7.649 0.987 -7.649 0.133 80.511
4300 0.138 80.292 0.986 -7.934 0.986 -7.934 0.138 80.292
4350 0.143 80.071 0.985 -8.217 0.985 -8.217 0.143 80.071
4400 0.148 79.847 0.985 -8.497 0.985 -8.497 0.148 79.847
4450 0.153 79.622 0.984 -8.774 0.984 -8.774 0.153 79.622
4500 0.157 79.396 0.983 -9.049 0.983 -9.049 0.157 79.396
4550 0.162 79.169 0.983 -9.322 0.983 -9.322 0.162 79.169
4600 0.167 78.942 0.982 -9.592 0.982 -9.592 0.167 78.942
4650 0.171 78.714 0.981 -9.86 0.981 -9.86 0.171 78.714
4700 0.176 78.485 0.98 -10.126 0.98 -10.126 0.176 78.485
4750 0.18 78.257 0.979 -10.39 0.979 -10.39 0.18 78.257
4800 0.185 78.029 0.979 -10.651 0.979 -10.651 0.185 78.029
4850 0.189 77.801 0.978 -10.911 0.978 -10.911 0.189 77.801
4900 0.194 77.573 0.977 -11.169 0.977 -11.169 0.194 77.573
4950 0.198 77.345 0.976 -11.424 0.976 -11.424 0.198 77.345
5000 0.202 77.119 0.975 -11.678 0.975 -11.678 0.202 77.119
5050 0.207 76.892 0.974 -11.93 0.974 -11.93 0.207 76.892
5100 0.211 76.666 0.973 -12.18 0.973 -12.18 0.211 76.666
5150 0.215 76.441 0.972 -12.429 0.972 -12.429 0.215 76.441
5200 0.219 76.217 0.971 -12.675 0.971 -12.675 0.219 76.217
5250 0.224 75.993 0.97 -12.92 0.97 -12.92 0.224 75.993
5300 0.228 75.77 0.969 -13.163 0.969 -13.163 0.228 75.77
5350 0.232 75.548 0.969 -13.405 0.969 -13.405 0.232 75.548
5400 0.236 75.326 0.968 -13.645 0.968 -13.645 0.236 75.326
5450 0.24 75.106 0.967 -13.883 0.967 -13.883 0.24 75.106
5500 0.244 74.886 0.966 -14.12 0.966 -14.12 0.244 74.886
5550 0.248 74.667 0.965 -14.356 0.965 -14.356 0.248 74.667
5600 0.252 74.449 0.964 -14.59 0.964 -14.59 0.252 74.449
5650 0.256 74.232 0.963 -14.822 0.963 -14.822 0.256 74.232
5700 0.26 74.016 0.961 -15.053 0.961 -15.053 0.26 74.016
5750 0.264 73.8 0.96 -15.282 0.96 -15.282 0.264 73.8
5800 0.267 73.586 0.959 -15.511 0.959 -15.511 0.267 73.586
5850 0.271 73.372 0.958 -15.737 0.958 -15.737 0.271 73.372
5900 0.275 73.16 0.957 -15.963 0.957 -15.963 0.275 73.16
5950 0.279 72.948 0.956 -16.187 0.956 -16.187 0.279 72.948
6000 0.283 72.737 0.955 -16.41 0.955 -16.41 0.283 72.737
6050 0.286 72.527 0.954 -16.631 0.954 -16.631 0.286 72.527
6100 0.29 72.318 0.953 -16.852 0.953 -16.852 0.29 72.318
6150 0.294 72.11 0.952 -17.071 0.952 -17.071 0.294 72.11
6200 0.297 71.902 0.951 -17.288 0.951 -17.288 0.297 71.902
6250 0.301 71.696 0.949 -17.505 0.949 -17.505 0.301 71.696
6300 0.304 71.49 0.948 -17.72 0.948 -17.72 0.304 71.49
6350 0.308 71.286 0.947 -17.935 0.947 -17.935 0.308 71.286
6400 0.311 71.082 0.946 -18.148 0.946 -18.148 0.311 71.082
6450 0.315 70.879 0.945 -18.36 0.945 -18.36 0.315 70.879
6500 0.318 70.677 0.944 -18.57 0.944 -18.57 0.318 70.677
6550 0.322 70.476 0.943 -18.78 0.943 -18.78 0.322 70.476
6600 0.325 70.276 0.941 -18.989 0.941 -18.989 0.325 70.276
6650 0.329 70.076 0.94 -19.196 0.94 -19.196 0.329 70.076
6700 0.332 69.878 0.939 -19.403 0.939 -19.403 0.332 69.878
6750 0.336 69.68 0.938 -19.608 0.938 -19.608 0.336 69.68
6800 0.339 69.484 0.937 -19.812 0.937 -19.812 0.339 69.484
6850 0.342 69.288 0.935 -20.016 0.935 -20.016 0.342 69.288
6900 0.346 69.092 0.934 -20.218 0.934 -20.218 0.346 69.092
6950 0.349 68.898 0.933 -20.419 0.933 -20.419 0.349 68.898
7000 0.352 68.705 0.932 -20.619 0.932 -20.619 0.352 68.705
7050 0.355 68.512 0.931 -20.819 0.931 -20.819 0.355 68.512
7100 0.359 68.32 0.929 -21.017 0.929 -21.017 0.359 68.32
7150 0.362 68.129 0.928 -21.214 0.928 -21.214 0.362 68.129
7200 0.365 67.939 0.927 -21.411 0.927 -21.411 0.365 67.939
7250 0.368 67.75 0.926 -21.606 0.926 -21.606 0.368 67.75
7300 0.371 67.561 0.924 -21.801 0.924 -21.801 0.371 67.561
7350 0.375 67.374 0.923 -21.994 0.923 -21.994 0.375 67.374
7400 0.378 67.187 0.922 -22.187 0.922 -22.187 0.378 67.187
7450 0.381 67.001 0.921 -22.378 0.921 -22.378 0.381 67.001
7500 0.384 66.815 0.919 -22.569 0.919 -22.569 0.384 66.815
7550 0.387 66.631 0.918 -22.759 0.918 -22.759 0.387 66.631
7600 0.39 66.447 0.917 -22.948 0.917 -22.948 0.39 66.447
7650 0.393 66.264 0.915 -23.136 0.915 -23.136 0.393 66.264
7700 0.396 66.082 0.914 -23.324 0.914 -23.324 0.396 66.082
7750 0.399 65.9 0.913 -23.51 0.913 -23.51 0.399 65.9
7800 0.402 65.719 0.912 -23.696 0.912 -23.696 0.402 65.719
7850 0.405 65.539 0.91 -23.88 0.91 -23.88 0.405 65.539
7900 0.408 65.36 0.909 -24.064 0.909 -24.064 0.408 65.36
7950 0.411 65.181 0.908 -24.247 0.908 -24.247 0.411 65.181
8000 0.414 65.004 0.906 -24.43 0.906 -24.43 0.414 65.004
8050 0.416 64.827 0.905 -24.611 0.905 -24.611 0.416 64.827
8100 0.419 64.65 0.904 -24.792 0.904 -24.792 0.419 64.65
8150 0.422 64.475 0.902 -24.971 0.902 -24.971 0.422 64.475
8200 0.425 64.3 0.901 -25.15 0.901 -25.15 0.425 64.3
8250 0.428 64.126 0.9 -25.329 0.9 -25.329 0.428 64.126
8300 0.431 63.952 0.898 -25.506 0.898 -25.506 0.431 63.952
8350 0.433 63.78 0.897 -25.683 0.897 -25.683 0.433 63.78
8400 0.436 63.608 0.896 -25.858 0.896 -25.858 0.436 63.608
8450 0.439 63.437 0.894 -26.033 0.894 -26.033 0.439 63.437
8500 0.442 63.266 0.893 -26.208 0.893 -26.208 0.442 63.266
8550 0.444 63.096 0.892 -26.381 0.892 -26.381 0.444 63.096
8600 0.447 62.927 0.89 -26.554 0.89 -26.554 0.447 62.927
8650 0.45 62.758 0.889 -26.726 0.889 -26.726 0.45 62.758
8700 0.452 62.591 0.888 -26.897 0.888 -26.897 0.452 62.591
8750 0.455 62.423 0.886 -27.068 0.886 -27.068 0.455 62.423
8800 0.458 62.257 0.885 -27.238 0.885 -27.238 0.458 62.257
8850 0.46 62.091 0.884 -27.407 0.884 -27.407 0.46 62.091
8900 0.463 61.926 0.882 -27.575 0.882 -27.575 0.463 61.926
8950 0.466 61.762 0.881 -27.743 0.881 -27.743 0.466 61.762
9000 0.468 61.598 0.88 -27.91 0.88 -27.91 0.468 61.598
9050 0.471 61.435 0.878 -28.076 0.878 -28.076 0.471 61.435
9100 0.473 61.272 0.877 -28.242 0.877 -28.242 0.473 61.272
9150 0.476 61.11 0.876 -28.407 0.876 -28.407 0.476 61.11
9200 0.478 60.949 0.874 -28.571 0.874 -28.571 0.478 60.949
9250 0.481 60.789 0.873 -28.734 0.873 -28.734 0.481 60.789
9300 0.483 60.629 0.871 -28.897 0.871 -28.897 0.483 60.629
9350 0.486 60.47 0.87 -29.059 0.87 -29.059 0.486 60.47
9400 0.488 60.311 0.869 -29.221 0.869 -29.221 0.488 60.311
9450 0.491 60.153 0.867 -29.381 0.867 -29.381 0.491 60.153
9500 0.493 59.996 0.866 -29.541 0.866 -29.541 0.493 59.996
9550 0.495 59.839 0.865 -29.701 0.865 -29.701 0.495 59.839
9600 0.498 59.683 0.863 -29.859 0.863 -29.859 0.498 59.683
9650 0.5 59.527 0.862 -30.018 0.862 -30.018 0.5 59.527
9700 0.503 59.373 0.861 -30.175 0.861 -30.175 0.503 59.373
9750 0.505 59.218 0.859 -30.332 0.859 -30.332 0.505 59.218
9800 0.507 59.065 0.858 -30.488 0.858 -30.488 0.507 59.065
9850 0.51 58.912 0.856 -30.643 0.856 -30.643 0.51 58.912
9900 0.512 58.759 0.855 -30.798 0.855 -30.798 0.512 58.759
9950 0.514 58.607 0.854 -30.952 0.854 -30.952 0.514 58.607
10000 0.517 58.456 0.852 -31.106 0.852 -31.106 0.517 58.456
10050 0.519 58.306 0.851 -31.259 0.851 -31.259 0.519 58.306
10100 0.521 58.156 0.85 -31.411 0.85 -31.411 0.521 58.156
10150 0.523 58.006 0.848 -31.563 0.848 -31.563 0.523 58.006
10200 0.526 57.857 0.847 -31.714 0.847 -31.714 0.526 57.857
10250 0.528 57.709 0.845 -31.864 0.845 -31.864 0.528 57.709
10300 0.53 57.562 0.844 -32.014 0.844 -32.014 0.53 57.562
10350 0.532 57.414 0.843 -32.164 0.843 -32.164 0.532 57.414
10400 0.535 57.268 0.841 -32.312 0.841 -32.312 0.535 57.268
10450 0.537 57.122 0.84 -32.46 0.84 -32.46 0.537 57.122
10500 0.539 56.977 0.838 -32.608 0.838 -32.608 0.539 56.977
10550 0.541 56.832 0.837 -32.755 0.837 -32.755 0.541 56.832
10600 0.543 56.688 0.836 -32.901 0.836 -32.901 0.543 56.688
10650 0.545 56.544 0.834 -33.046 0.834 -33.046 0.545 56.544
10700 0.547 56.401 0.833 -33.192 0.833 -33.192 0.547 56.401
10750 0.55 56.258 0.832 -33.336 0.832 -33.336 0.55 56.258
10800 0.552 56.116 0.83 -33.48 0.83 -33.48 0.552 56.116
10850 0.554 55.975 0.829 -33.623 0.829 -33.623 0.554 55.975
10900 0.556 55.834 0.827 -33.766 0.827 -33.766 0.556 55.834
10950 0.558 55.694 0.826 -33.908 0.826 -33.908 0.558 55.694
11000 0.56 55.554 0.825 -34.05 0.825 -34.05 0.56 55.554
11050 0.562 55.415 0.823 -34.191 0.823 -34.191 0.562 55.415
11100 0.564 55.276 0.822 -34.331 0.822 -34.331 0.564 55.276
11150 0.566 55.138 0.821 -34.471 0.821 -34.471 0.566 55.138
11200 0.568 55.001 0.819 -34.611 0.819 -34.611 0.568 55.001
11250 0.57 54.863 0.818 -34.75 0.818 -34.75 0.57 54.863
11300 0.572 54.727 0.816 -34.888 0.816 -34.888 0.572 54.727
11350 0.574 54.591 0.815 -35.026 0.815 -35.026 0.574 54.591
11400 0.576 54.455 0.814 -35.163 0.814 -35.163 0.576 54.455
11450 0.578 54.32 0.812 -35.299 0.812 -35.299 0.578 54.32
11500 0.58 54.186 0.811 -35.435 0.811 -35.435 0.58 54.186
11550 0.582 54.052 0.81 -35.571 0.81 -35.571 0.582 54.052
11600 0.584 53.919 0.808 -35.706 0.808 -35.706 0.584 53.919
11650 0.586 53.786 0.807 -35.84 0.807 -35.84 0.586 53.786
11700 0.587 53.654 0.805 -35.974 0.805 -35.974 0.587 53.654
11750 0.589 53.522 0.804 -36.108 0.804 -36.108 0.589 53.522
11800 0.591 53.39 0.803 -36.241 0.803 -36.241 0.591 53.39
11850 0.593 53.26 0.801 -36.373 0.801 -36.373 0.593 53.26
11900 0.595 53.129 0.8 -36.505 0.8 -36.505 0.595 53.129
11950 0.597 52.999 0.799 -36.636 0.799 -36.636 0.597 52.999
12000 0.599 52.87 0.797 -36.767 0.797 -36.767 0.599 52.87
12050 0.6 52.741 0.796 -36.897 0.796 -36.897 0.6 52.741
12100 0.602 52.613 0.795 -37.027 0.795 -37.027 0.602 52.613
12150 0.604 52.485 0.793 -37.156 0.793 -37.156 0.604 52.485
12200 0.606 52.358 0.792 -37.285 0.792 -37.285 0.606 52.358
12250 0.608 52.231 0.79 -37.414 0.79 -37.414 0.608 52.231
12300 0.609 52.104 0.789 -37.541 0.789 -37.541 0.609 52.104
12350 0.611 51.979 0.788 -37.669 0.788 -37.669 0.611 51.979
12400 0.613 51.853 0.786 -37.795 0.786 -37.795 0.613 51.853
12450 0.615 51.728 0.785 -37.922 0.785 -37.922 0.615 51.728
12500 0.616 51.604 0.784 -38.047 0.784 -38.047 0.616 51.604
12550 0.618 51.48 0.782 -38.173 0.782 -38.173 0.618 51.48
12600 0.62 51.356 0.781 -38.298 0.781 -38.298 0.62 51.356
12650 0.621 51.233 0.78 -38.422 0.78 -38.422 0.621 51.233
12700 0.623 51.111 0.778 -38.546 0.778 -38.546 0.623 51.111
12750 0.625 50.989 0.777 -38.669 0.777 -38.669 0.625 50.989
12800 0.627 50.867 0.776 -38.792 0.776 -38.792 0.627 50.867
12850 0.628 50.746 0.774 -38.915 0.774 -38.915 0.628 50.746
12900 0.63 50.625 0.773 -39.036 0.773 -39.036 0.63 50.625
12950 0.631 50.505 0.772 -39.158 0.772 -39.158 0.631 50.505
13000 0.633 50.385 0.77 -39.279 0.77 -39.279 0.633 50.385
13050 0.635 50.266 0.769 -39.4 0.769 -39.4 0.635 50.266
13100 0.636 50.147 0.768 -39.52 0.768 -39.52 0.636 50.147
13150 0.638 50.029 0.766 -39.639 0.766 -39.639 0.638 50.029
13200 0.64 49.911 0.765 -39.758 0.765 -39.758 0.64 49.911
13250 0.641 49.793 0.764 -39.877 0.764 -39.877 0.641 49.793
13300 0.643 49.676 0.762 -39.995 0.762 -39.995 0.643 49.676
13350 0.644 49.559 0.761 -40.113 0.761 -40.113 0.644 49.559
13400 0.646 49.443 0.76 -40.23 0.76 -40.23 0.646 49.443
13450 0.647 49.327 0.758 -40.347 0.758 -40.347 0.647 49.327
13500 0.649 49.212 0.757 -40.464 0.757 -40.464 0.649 49.212
13550 0.651 49.097 0.756 -40.58 0.756 -40.58 0.651 49.097
13600 0.652 48.983 0.755 -40.695 0.755 -40.695 0.652 48.983
13650 0.654 48.869 0.753 -40.81 0.753 -40.81 0.654 48.869
13700 0.655 48.755 0.752 -40.925 0.752 -40.925 0.655 48.755
13750 0.657 48.642 0.751 -41.039 0.751 -41.039 0.657 48.642
13800 0.658 48.529 0.749 -41.153 0.749 -41.153 0.658 48.529
13850 0.66 48.417 0.748 -41.266 0.748 -41.266 0.66 48.417
13900 0.661 48.305 0.747 -41.379 0.747 -41.379 0.661 48.305
13950 0.663 48.194 0.745 -41.492 0.745 -41.492 0.663 48.194
14000 0.664 48.083 0.744 -41.604 0.744 -41.604 0.664 48.083
14050 0.665 47.972 0.743 -41.716 0.743 -41.716 0.665 47.972
14100 0.667 47.862 0.742 -41.827 0.742 -41.827 0.667 47.862
14150 0.668 47.752 0.74 -41.938 0.74 -41.938 0.668 47.752
14200 0.67 47.643 0.739 -42.048 0.739 -42.048 0.67 47.643
14250 0.671 47.534 0.738 -42.158 0.738 -42.158 0.671 47.534
14300 0.673 47.425 0.736 -42.268 0.736 -42.268 0.673 47.425
14350 0.674 47.317 0.735 -42.377 0.735 -42.377 0.674 47.317
14400 0.675 47.209 0.734 -42.485 0.734 -42.485 0.675 47.209
14450 0.677 47.102 0.733 -42.594 0.733 -42.594 0.677 47.102
14500 0.678 46.995 0.731 -42.702 0.731 -42.702 0.678 46.995
14550 0.68 46.888 0.73 -42.809 0.73 -42.809 0.68 46.888
14600 0.681 46.782 0.729 -42.916 0.729 -42.916 0.681 46.782
14650 0.682 46.676 0.727 -43.023 0.727 -43.023 0.682 46.676
14700 0.684 46.571 0.726 -43.129 0.726 -43.129 0.684 46.571
14750 0.685 46.466 0.725 -43.235 0.725 -43.235 0.685 46.466
14800 0.686 46.361 0.724 -43.341 0.724 -43.341 0.686 46.361
14850 0.688 46.257 0.722 -43.446 0.722 -43.446 0.688 46.257
14900 0.689 46.153 0.721 -43.55 0.721 -43.55 0.689 46.153
14950 0.69 46.05 0.72 -43.655 0.72 -43.655 0.69 46.05
15000 0.692 45.947 0.719 -43.759 0.719 -43.759 0.692 45.947
15050 0.693 45.844 0.717 -43.862 0.717 -43.862 0.693 45.844
15100 0.694 45.742 0.716 -43.965 0.716 -43.965 0.694 45.742
15150 0.696 45.64 0.715 -44.068 0.715 -44.068 0.696 45.64
15200 0.697 45.539 0.714 -44.17 0.714 -44.17 0.697 45.539
15250 0.698 45.437 0.712 -44.272 0.712 -44.272 0.698 45.437
15300 0.699 45.337 0.711 -44.374 0.711 -44.374 0.699 45.337
15350 0.701 45.236 0.71 -44.475 0.71 -44.475 0.701 45.236
15400 0.702 45.136 0.709 -44.576 0.709 -44.576 0.702 45.136
15450 0.703 45.037 0.708 -44.677 0.708 -44.677 0.703 45.037
15500 0.704 44.937 0.706 -44.777 0.706 -44.777 0.704 44.937
15550 0.706 44.838 0.705 -44.876 0.705 -44.876 0.706 44.838
15600 0.707 44.74 0.704 -44.976 0.704 -44.976 0.707 44.74
15650 0.708 44.642 0.703 -45.075 0.703 -45.075 0.708 44.642
15700 0.709 44.544 0.701 -45.174 0.701 -45.174 0.709 44.544
15750 0.71 44.446 0.7 -45.272 0.7 -45.272 0.71 44.446
15800 0.712 44.349 0.699 -45.37 0.699 -45.37 0.712 44.349
15850 0.713 44.252 0.698 -45.467 0.698 -45.467 0.713 44.252
15900 0.714 44.156 0.697 -45.564 0.697 -45.564 0.714 44.156
15950 0.715 44.06 0.695 -45.661 0.695 -45.661 0.715 44.06
16000 0.716 43.964 0.694 -45.758 0.694 -45.758 0.716 43.964
16050 0.718 43.869 0.693 -45.854 0.693 -45.854 0.718 43.869
16100 0.719 43.774 0.692 -45.95 0.692 -45.95 0.719 43.774
16150 0.72 43.679 0.691 -46.045 0.691 -46.045 0.72 43.679
16200 0.721 43.585 0.689 -46.14 0.689 -46.14 0.721 43.585
16250 0.722 43.491 0.688 -46.235 0.688 -46.235 0.722 43.491
16300 0.723 43.397 0.687 -46.329 0.687 -46.329 0.723 43.397
16350 0.724 43.304 0.686 -46.423 0.686 -46.423 0.724 43.304
16400 0.726 43.211 0.685 -46.517 0.685 -46.517 0.726 43.211
16450 0.727 43.118 0.684 -46.61 0.684 -46.61 0.727 43.118
16500 0.728 43.026 0.682 -46.703 0.682 -46.703 0.728 43.026
16550 0.729 42.934 0.681 -46.796 0.681 -46.796 0.729 42.934
16600 0.73 42.842 0.68 -46.888 0.68 -46.888 0.73 42.842
16650 0.731 42.751 0.679 -46.98 0.679 -46.98 0.731 42.751
16700 0.732 42.66 0.678 -47.072 0.678 -47.072 0.732 42.66
16750 0.733 42.569 0.676 -47.163 0.676 -47.163 0.733 42.569
16800 0.734 42.479 0.675 -47.254 0.675 -47.254 0.734 42.479
16850 0.735 42.389 0.674 -47.345 0.674 -47.345 0.735 42.389
16900 0.737 42.299 0.673 -47.435 0.673 -47.435 0.737 42.299
