! AVX Thin Film Operation		Date: April 2012 
! Description: Accu-P® Series, Thin Film, SMD, RF Capacitor
! Part Number: 12101J2R2QBTTR					
!	100	MHz	-	20.05	GHz			
!	Serial	Measurements						
!								
#	MHZ	S	MA	R	50			
!	S11	S21	S12	S22				
!	dB	Phase	dB	Phase	dB	Phase	dB	Phase
50 0.998 -3.955 0.069 86.038 0.069 86.038 0.998 -3.955
74.938 0.995 -5.917 0.103 84.072 0.103 84.072 0.995 -5.917
99.875 0.991 -7.867 0.137 82.118 0.137 82.118 0.991 -7.867
124.813 0.985 -9.802 0.17 80.18 0.17 80.18 0.985 -9.802
149.75 0.979 -11.718 0.203 78.261 0.203 78.261 0.979 -11.718
174.688 0.972 -13.612 0.235 76.364 0.235 76.364 0.972 -13.612
199.625 0.964 -15.48 0.267 74.492 0.267 74.492 0.964 -15.48
224.563 0.954 -17.319 0.298 72.649 0.298 72.649 0.954 -17.319
249.5 0.945 -19.129 0.328 70.836 0.328 70.836 0.945 -19.129
274.438 0.934 -20.905 0.357 69.056 0.357 69.056 0.934 -20.905
299.375 0.923 -22.646 0.385 67.311 0.385 67.311 0.923 -22.646
324.313 0.911 -24.352 0.412 65.602 0.412 65.602 0.911 -24.352
349.25 0.898 -26.02 0.439 63.931 0.439 63.931 0.898 -26.02
374.188 0.885 -27.649 0.464 62.298 0.464 62.298 0.885 -27.649
399.125 0.872 -29.239 0.488 60.704 0.488 60.704 0.872 -29.239
424.063 0.859 -30.79 0.512 59.15 0.512 59.15 0.859 -30.79
449 0.845 -32.301 0.534 57.635 0.534 57.635 0.845 -32.301
473.938 0.831 -33.771 0.556 56.161 0.556 56.161 0.831 -33.771
498.875 0.816 -35.202 0.576 54.726 0.576 54.726 0.816 -35.202
523.813 0.802 -36.594 0.596 53.331 0.596 53.331 0.802 -36.594
548.75 0.788 -37.947 0.615 51.974 0.615 51.974 0.788 -37.947
573.688 0.773 -39.261 0.633 50.656 0.633 50.656 0.773 -39.261
598.625 0.759 -40.537 0.65 49.376 0.65 49.376 0.759 -40.537
623.563 0.745 -41.777 0.666 48.132 0.666 48.132 0.745 -41.777
648.5 0.73 -42.98 0.682 46.925 0.682 46.925 0.73 -42.98
673.438 0.716 -44.148 0.697 45.753 0.697 45.753 0.716 -44.148
698.375 0.702 -45.282 0.711 44.615 0.711 44.615 0.702 -45.282
723.313 0.688 -46.383 0.724 43.51 0.724 43.51 0.688 -46.383
748.25 0.675 -47.451 0.737 42.438 0.737 42.438 0.675 -47.451
773.188 0.661 -48.488 0.749 41.397 0.749 41.397 0.661 -48.488
798.125 0.648 -49.495 0.76 40.386 0.76 40.386 0.648 -49.495
823.063 0.635 -50.472 0.771 39.405 0.771 39.405 0.635 -50.472
848 0.622 -51.421 0.782 38.451 0.782 38.451 0.622 -51.421
872.938 0.609 -52.343 0.792 37.525 0.792 37.525 0.609 -52.343
897.875 0.597 -53.238 0.801 36.626 0.801 36.626 0.597 -53.238
922.813 0.584 -54.108 0.81 35.751 0.81 35.751 0.584 -54.108
947.75 0.572 -54.953 0.819 34.901 0.819 34.901 0.572 -54.953
972.688 0.56 -55.775 0.827 34.075 0.827 34.075 0.56 -55.775
997.625 0.549 -56.574 0.835 33.272 0.835 33.272 0.549 -56.574
1022.563 0.537 -57.351 0.842 32.49 0.842 32.49 0.537 -57.351
1047.5 0.526 -58.107 0.849 31.729 0.849 31.729 0.526 -58.107
1072.438 0.515 -58.843 0.856 30.989 0.856 30.989 0.515 -58.843
1097.375 0.504 -59.559 0.862 30.268 0.862 30.268 0.504 -59.559
1122.313 0.493 -60.256 0.868 29.566 0.868 29.566 0.493 -60.256
1147.25 0.483 -60.935 0.874 28.881 0.874 28.881 0.483 -60.935
1172.188 0.473 -61.597 0.88 28.215 0.88 28.215 0.473 -61.597
1197.125 0.463 -62.242 0.885 27.564 0.885 27.564 0.463 -62.242
1222.063 0.453 -62.87 0.89 26.93 0.89 26.93 0.453 -62.87
1247 0.443 -63.483 0.895 26.312 0.895 26.312 0.443 -63.483
1271.938 0.434 -64.082 0.899 25.708 0.899 25.708 0.434 -64.082
1296.875 0.424 -64.665 0.904 25.119 0.904 25.119 0.424 -64.665
1321.813 0.415 -65.235 0.908 24.543 0.908 24.543 0.415 -65.235
1346.75 0.406 -65.792 0.912 23.981 0.912 23.981 0.406 -65.792
1371.688 0.398 -66.335 0.916 23.431 0.916 23.431 0.398 -66.335
1396.625 0.389 -66.866 0.92 22.894 0.92 22.894 0.389 -66.866
1421.563 0.381 -67.385 0.923 22.368 0.923 22.368 0.381 -67.385
1446.5 0.372 -67.893 0.926 21.855 0.926 21.855 0.372 -67.893
1471.438 0.364 -68.389 0.93 21.352 0.93 21.352 0.364 -68.389
1496.375 0.356 -68.875 0.933 20.859 0.933 20.859 0.356 -68.875
1521.313 0.348 -69.35 0.936 20.377 0.936 20.377 0.348 -69.35
1546.25 0.34 -69.815 0.939 19.905 0.939 19.905 0.34 -69.815
1571.188 0.333 -70.27 0.941 19.443 0.941 19.443 0.333 -70.27
1596.125 0.325 -70.716 0.944 18.989 0.944 18.989 0.325 -70.716
1621.063 0.318 -71.153 0.946 18.545 0.946 18.545 0.318 -71.153
1646 0.311 -71.581 0.949 18.109 0.949 18.109 0.311 -71.581
1670.938 0.304 -72.001 0.951 17.682 0.951 17.682 0.304 -72.001
1695.875 0.297 -72.412 0.953 17.262 0.953 17.262 0.297 -72.412
1720.813 0.29 -72.815 0.955 16.85 0.955 16.85 0.29 -72.815
1745.75 0.283 -73.211 0.957 16.446 0.957 16.446 0.283 -73.211
1770.688 0.276 -73.599 0.959 16.049 0.959 16.049 0.276 -73.599
1795.625 0.27 -73.98 0.961 15.659 0.961 15.659 0.27 -73.98
1820.563 0.263 -74.353 0.963 15.276 0.963 15.276 0.263 -74.353
1845.5 0.257 -74.72 0.965 14.899 0.965 14.899 0.257 -74.72
1870.438 0.251 -75.081 0.966 14.529 0.966 14.529 0.251 -75.081
1895.375 0.245 -75.434 0.968 14.165 0.968 14.165 0.245 -75.434
1920.313 0.239 -75.782 0.969 13.806 0.969 13.806 0.239 -75.782
1945.25 0.233 -76.123 0.971 13.454 0.971 13.454 0.233 -76.123
1970.188 0.227 -76.458 0.972 13.107 0.972 13.107 0.227 -76.458
1995.125 0.221 -76.788 0.974 12.766 0.974 12.766 0.221 -76.788
2020.063 0.215 -77.111 0.975 12.429 0.975 12.429 0.215 -77.111
2045 0.21 -77.429 0.976 12.098 0.976 12.098 0.21 -77.429
2069.938 0.204 -77.742 0.977 11.772 0.977 11.772 0.204 -77.742
2094.875 0.199 -78.049 0.978 11.451 0.978 11.451 0.199 -78.049
2119.813 0.193 -78.351 0.979 11.134 0.979 11.134 0.193 -78.351
2144.75 0.188 -78.648 0.98 10.822 0.98 10.822 0.188 -78.648
2169.688 0.182 -78.94 0.981 10.514 0.981 10.514 0.182 -78.94
2194.625 0.177 -79.227 0.982 10.211 0.982 10.211 0.177 -79.227
2219.563 0.172 -79.509 0.983 9.911 0.983 9.911 0.172 -79.509
2244.5 0.167 -79.786 0.984 9.616 0.984 9.616 0.167 -79.786
2269.438 0.162 -80.059 0.985 9.324 0.985 9.324 0.162 -80.059
2294.375 0.157 -80.326 0.986 9.037 0.986 9.037 0.157 -80.326
2319.313 0.152 -80.589 0.987 8.753 0.987 8.753 0.152 -80.589
2344.25 0.147 -80.848 0.987 8.473 0.987 8.473 0.147 -80.848
2369.188 0.143 -81.101 0.988 8.196 0.988 8.196 0.143 -81.101
2394.125 0.138 -81.35 0.989 7.922 0.989 7.922 0.138 -81.35
2419.063 0.133 -81.594 0.989 7.652 0.989 7.652 0.133 -81.594
2444 0.129 -81.833 0.99 7.386 0.99 7.386 0.129 -81.833
2468.938 0.124 -82.068 0.991 7.122 0.991 7.122 0.124 -82.068
2493.875 0.119 -82.297 0.991 6.861 0.991 6.861 0.119 -82.297
2518.813 0.115 -82.522 0.992 6.604 0.992 6.604 0.115 -82.522
2543.75 0.111 -82.741 0.992 6.349 0.992 6.349 0.111 -82.741
2568.688 0.106 -82.955 0.993 6.097 0.993 6.097 0.106 -82.955
2593.625 0.102 -83.164 0.993 5.848 0.993 5.848 0.102 -83.164
2618.563 0.098 -83.366 0.993 5.601 0.993 5.601 0.098 -83.366
2643.5 0.093 -83.563 0.994 5.358 0.994 5.358 0.093 -83.563
2668.438 0.089 -83.753 0.994 5.116 0.994 5.116 0.089 -83.753
2693.375 0.085 -83.936 0.995 4.878 0.995 4.878 0.085 -83.936
2718.313 0.081 -84.111 0.995 4.641 0.995 4.641 0.081 -84.111
2743.25 0.077 -84.279 0.995 4.408 0.995 4.408 0.077 -84.279
2768.188 0.073 -84.437 0.996 4.176 0.996 4.176 0.073 -84.437
2793.125 0.069 -84.586 0.996 3.947 0.996 3.947 0.069 -84.586
2818.063 0.065 -84.723 0.996 3.72 0.996 3.72 0.065 -84.723
2843 0.061 -84.848 0.996 3.495 0.996 3.495 0.061 -84.848
2867.938 0.057 -84.957 0.997 3.272 0.997 3.272 0.057 -84.957
2892.875 0.053 -85.05 0.997 3.052 0.997 3.052 0.053 -85.05
2917.813 0.049 -85.122 0.997 2.833 0.997 2.833 0.049 -85.122
2942.75 0.046 -85.169 0.997 2.616 0.997 2.616 0.046 -85.169
2967.688 0.042 -85.185 0.997 2.402 0.997 2.402 0.042 -85.185
2992.625 0.038 -85.164 0.998 2.189 0.998 2.189 0.038 -85.164
3017.563 0.035 -85.092 0.998 1.978 0.998 1.978 0.035 -85.092
3042.5 0.031 -84.956 0.998 1.769 0.998 1.769 0.031 -84.956
3067.438 0.027 -84.729 0.998 1.561 0.998 1.561 0.027 -84.729
3092.375 0.024 -84.374 0.998 1.356 0.998 1.356 0.024 -84.374
3117.313 0.02 -83.825 0.998 1.152 0.998 1.152 0.02 -83.825
3142.25 0.017 -82.964 0.998 0.95 0.998 0.95 0.017 -82.964
3167.188 0.013 -81.552 0.998 0.749 0.998 0.749 0.013 -81.552
3192.125 9.76e-3 -79.018 0.998 0.55 0.998 0.55 9.76e-3 -79.018
3217.063 6.402e-3 -73.623 0.998 0.353 0.998 0.353 6.402e-3 -73.623
3242 3.256e-3 -56.968 0.998 0.157 0.998 0.157 3.256e-3 -56.968
3266.938 1.886e-3 20.39 0.998 -0.038 0.998 -0.038 1.886e-3 20.39
3291.875 4.396e-3 66.065 0.998 -0.231 0.998 -0.231 4.396e-3 66.065
3316.813 7.576e-3 76.088 0.998 -0.422 0.998 -0.422 7.576e-3 76.088
3341.75 0.011 79.995 0.998 -0.612 0.998 -0.612 0.011 79.995
3366.688 0.014 81.993 0.998 -0.801 0.998 -0.801 0.014 81.993
3391.625 0.017 83.161 0.998 -0.988 0.998 -0.988 0.017 83.161
3416.563 0.021 83.897 0.998 -1.174 0.998 -1.174 0.021 83.897
3441.5 0.024 84.38 0.998 -1.359 0.998 -1.359 0.024 84.38
3466.438 0.027 84.702 0.998 -1.542 0.998 -1.542 0.027 84.702
3491.375 0.03 84.916 0.998 -1.724 0.998 -1.724 0.03 84.916
3516.313 0.033 85.053 0.998 -1.905 0.998 -1.905 0.033 85.053
3541.25 0.036 85.136 0.998 -2.084 0.998 -2.084 0.036 85.136
3566.188 0.04 85.176 0.997 -2.263 0.997 -2.263 0.04 85.176
3591.125 0.043 85.185 0.997 -2.44 0.997 -2.44 0.043 85.185
3616.063 0.046 85.169 0.997 -2.616 0.997 -2.616 0.046 85.169
3641 0.049 85.133 0.997 -2.791 0.997 -2.791 0.049 85.133
3665.938 0.052 85.081 0.997 -2.965 0.997 -2.965 0.052 85.081
3690.875 0.055 85.016 0.997 -3.138 0.997 -3.138 0.055 85.016
3715.813 0.058 84.94 0.997 -3.309 0.997 -3.309 0.058 84.94
3740.75 0.061 84.855 0.996 -3.48 0.996 -3.48 0.061 84.855
3765.688 0.064 84.763 0.996 -3.65 0.996 -3.65 0.064 84.763
3790.625 0.067 84.665 0.996 -3.818 0.996 -3.818 0.067 84.665
3815.563 0.07 84.561 0.996 -3.986 0.996 -3.986 0.07 84.561
3840.5 0.072 84.453 0.996 -4.152 0.996 -4.152 0.072 84.453
3865.438 0.075 84.341 0.995 -4.318 0.995 -4.318 0.075 84.341
3890.375 0.078 84.226 0.995 -4.482 0.995 -4.482 0.078 84.226
3915.313 0.081 84.108 0.995 -4.646 0.995 -4.646 0.081 84.108
3940.25 0.084 83.988 0.995 -4.809 0.995 -4.809 0.084 83.988
3965.188 0.087 83.865 0.994 -4.97 0.994 -4.97 0.087 83.865
3990.125 0.089 83.741 0.994 -5.131 0.994 -5.131 0.089 83.741
4015.063 0.092 83.615 0.994 -5.291 0.994 -5.291 0.092 83.615
4040 0.095 83.488 0.994 -5.451 0.994 -5.451 0.095 83.488
4064.938 0.098 83.36 0.993 -5.609 0.993 -5.609 0.098 83.36
4089.875 0.1 83.231 0.993 -5.766 0.993 -5.766 0.1 83.231
4114.813 0.103 83.101 0.993 -5.923 0.993 -5.923 0.103 83.101
4139.75 0.106 82.97 0.993 -6.079 0.993 -6.079 0.106 82.97
4164.688 0.109 82.839 0.992 -6.234 0.992 -6.234 0.109 82.839
4189.625 0.111 82.708 0.992 -6.388 0.992 -6.388 0.111 82.708
4214.563 0.114 82.575 0.992 -6.542 0.992 -6.542 0.114 82.575
4239.5 0.117 82.443 0.991 -6.694 0.991 -6.694 0.117 82.443
4264.438 0.119 82.311 0.991 -6.846 0.991 -6.846 0.119 82.311
4289.375 0.122 82.178 0.991 -6.997 0.991 -6.997 0.122 82.178
4314.313 0.124 82.045 0.99 -7.148 0.99 -7.148 0.124 82.045
4339.25 0.127 81.912 0.99 -7.297 0.99 -7.297 0.127 81.912
4364.188 0.13 81.779 0.99 -7.446 0.99 -7.446 0.13 81.779
4389.125 0.132 81.646 0.989 -7.595 0.989 -7.595 0.132 81.646
4414.063 0.135 81.513 0.989 -7.742 0.989 -7.742 0.135 81.513
4439 0.137 81.38 0.989 -7.889 0.989 -7.889 0.137 81.38
4463.938 0.14 81.248 0.988 -8.035 0.988 -8.035 0.14 81.248
4488.875 0.142 81.115 0.988 -8.181 0.988 -8.181 0.142 81.115
4513.813 0.145 80.983 0.988 -8.325 0.988 -8.325 0.145 80.983
4538.75 0.147 80.85 0.987 -8.47 0.987 -8.47 0.147 80.85
4563.688 0.15 80.718 0.987 -8.613 0.987 -8.613 0.15 80.718
4588.625 0.152 80.587 0.987 -8.756 0.987 -8.756 0.152 80.587
4613.563 0.155 80.455 0.986 -8.898 0.986 -8.898 0.155 80.455
4638.5 0.157 80.324 0.986 -9.04 0.986 -9.04 0.157 80.324
4663.438 0.16 80.192 0.985 -9.181 0.985 -9.181 0.16 80.192
4688.375 0.162 80.062 0.985 -9.321 0.985 -9.321 0.162 80.062
4713.313 0.164 79.931 0.985 -9.461 0.985 -9.461 0.164 79.931
4738.25 0.167 79.801 0.984 -9.601 0.984 -9.601 0.167 79.801
4763.188 0.169 79.671 0.984 -9.739 0.984 -9.739 0.169 79.671
4788.125 0.172 79.541 0.983 -9.877 0.983 -9.877 0.172 79.541
4813.063 0.174 79.412 0.983 -10.015 0.983 -10.015 0.174 79.412
4838 0.176 79.283 0.983 -10.152 0.983 -10.152 0.176 79.283
4862.938 0.179 79.154 0.982 -10.288 0.982 -10.288 0.179 79.154
4887.875 0.181 79.026 0.982 -10.424 0.982 -10.424 0.181 79.026
4912.813 0.183 78.898 0.981 -10.559 0.981 -10.559 0.183 78.898
4937.75 0.186 78.77 0.981 -10.694 0.981 -10.694 0.186 78.77
4962.688 0.188 78.642 0.98 -10.828 0.98 -10.828 0.188 78.642
4987.625 0.19 78.515 0.98 -10.962 0.98 -10.962 0.19 78.515
5012.563 0.192 78.389 0.98 -11.095 0.98 -11.095 0.192 78.389
5037.5 0.195 78.262 0.979 -11.228 0.979 -11.228 0.195 78.262
5062.438 0.197 78.136 0.979 -11.36 0.979 -11.36 0.197 78.136
5087.375 0.199 78.01 0.978 -11.492 0.978 -11.492 0.199 78.01
5112.313 0.201 77.885 0.978 -11.623 0.978 -11.623 0.201 77.885
5137.25 0.204 77.76 0.977 -11.753 0.977 -11.753 0.204 77.76
5162.188 0.206 77.635 0.977 -11.884 0.977 -11.884 0.206 77.635
5187.125 0.208 77.511 0.976 -12.013 0.976 -12.013 0.208 77.511
5212.063 0.21 77.387 0.976 -12.142 0.976 -12.142 0.21 77.387
5237 0.213 77.263 0.975 -12.271 0.975 -12.271 0.213 77.263
5261.938 0.215 77.14 0.975 -12.399 0.975 -12.399 0.215 77.14
5286.875 0.217 77.017 0.974 -12.527 0.974 -12.527 0.217 77.017
5311.813 0.219 76.894 0.974 -12.655 0.974 -12.655 0.219 76.894
5336.75 0.221 76.772 0.973 -12.782 0.973 -12.782 0.221 76.772
5361.688 0.223 76.65 0.973 -12.908 0.973 -12.908 0.223 76.65
5386.625 0.226 76.529 0.973 -13.034 0.973 -13.034 0.226 76.529
5411.563 0.228 76.407 0.972 -13.16 0.972 -13.16 0.228 76.407
5436.5 0.23 76.286 0.972 -13.285 0.972 -13.285 0.23 76.286
5461.438 0.232 76.166 0.971 -13.409 0.971 -13.409 0.232 76.166
5486.375 0.234 76.046 0.971 -13.534 0.971 -13.534 0.234 76.046
5511.313 0.236 75.926 0.97 -13.658 0.97 -13.658 0.236 75.926
5536.25 0.238 75.806 0.969 -13.781 0.969 -13.781 0.238 75.806
5561.188 0.24 75.687 0.969 -13.904 0.969 -13.904 0.24 75.687
5586.125 0.242 75.568 0.968 -14.027 0.968 -14.027 0.242 75.568
5611.063 0.244 75.45 0.968 -14.149 0.968 -14.149 0.244 75.45
5636 0.247 75.331 0.967 -14.271 0.967 -14.271 0.247 75.331
5660.938 0.249 75.213 0.967 -14.392 0.967 -14.392 0.249 75.213
5685.875 0.251 75.096 0.966 -14.513 0.966 -14.513 0.251 75.096
5710.813 0.253 74.979 0.966 -14.633 0.966 -14.633 0.253 74.979
5735.75 0.255 74.862 0.965 -14.754 0.965 -14.754 0.255 74.862
5760.688 0.257 74.745 0.965 -14.873 0.965 -14.873 0.257 74.745
5785.625 0.259 74.629 0.964 -14.993 0.964 -14.993 0.259 74.629
5810.563 0.261 74.513 0.964 -15.112 0.964 -15.112 0.261 74.513
5835.5 0.263 74.397 0.963 -15.231 0.963 -15.231 0.263 74.397
5860.438 0.265 74.282 0.963 -15.349 0.963 -15.349 0.265 74.282
5885.375 0.267 74.167 0.962 -15.467 0.962 -15.467 0.267 74.167
5910.313 0.269 74.053 0.962 -15.584 0.962 -15.584 0.269 74.053
5935.25 0.271 73.938 0.961 -15.702 0.961 -15.702 0.271 73.938
5960.188 0.273 73.824 0.96 -15.818 0.96 -15.818 0.273 73.824
5985.125 0.275 73.71 0.96 -15.935 0.96 -15.935 0.275 73.71
6010.063 0.276 73.597 0.959 -16.051 0.959 -16.051 0.276 73.597
6035 0.278 73.484 0.959 -16.167 0.959 -16.167 0.278 73.484
6059.938 0.28 73.371 0.958 -16.282 0.958 -16.282 0.28 73.371
6084.875 0.282 73.259 0.958 -16.397 0.958 -16.397 0.282 73.259
6109.813 0.284 73.146 0.957 -16.512 0.957 -16.512 0.284 73.146
6134.75 0.286 73.035 0.956 -16.626 0.956 -16.626 0.286 73.035
6159.688 0.288 72.923 0.956 -16.74 0.956 -16.74 0.288 72.923
6184.625 0.29 72.812 0.955 -16.854 0.955 -16.854 0.29 72.812
6209.563 0.292 72.701 0.955 -16.967 0.955 -16.967 0.292 72.701
6234.5 0.294 72.59 0.954 -17.08 0.954 -17.08 0.294 72.59
6259.438 0.296 72.48 0.954 -17.193 0.954 -17.193 0.296 72.48
6284.375 0.297 72.37 0.953 -17.305 0.953 -17.305 0.297 72.37
6309.313 0.299 72.26 0.952 -17.417 0.952 -17.417 0.299 72.26
6334.25 0.301 72.15 0.952 -17.529 0.952 -17.529 0.301 72.15
6359.188 0.303 72.041 0.951 -17.641 0.951 -17.641 0.303 72.041
6384.125 0.305 71.932 0.951 -17.752 0.951 -17.752 0.305 71.932
6409.063 0.307 71.823 0.95 -17.862 0.95 -17.862 0.307 71.823
6434 0.309 71.715 0.95 -17.973 0.95 -17.973 0.309 71.715
6458.938 0.31 71.607 0.949 -18.083 0.949 -18.083 0.31 71.607
6483.875 0.312 71.499 0.948 -18.193 0.948 -18.193 0.312 71.499
6508.813 0.314 71.392 0.948 -18.302 0.948 -18.302 0.314 71.392
6533.75 0.316 71.284 0.947 -18.412 0.947 -18.412 0.316 71.284
6558.688 0.318 71.177 0.947 -18.52 0.947 -18.52 0.318 71.177
6583.625 0.319 71.071 0.946 -18.629 0.946 -18.629 0.319 71.071
6608.563 0.321 70.964 0.945 -18.737 0.945 -18.737 0.321 70.964
6633.5 0.323 70.858 0.945 -18.845 0.945 -18.845 0.323 70.858
6658.438 0.325 70.752 0.944 -18.953 0.944 -18.953 0.325 70.752
6683.375 0.327 70.646 0.944 -19.06 0.944 -19.06 0.327 70.646
6708.313 0.328 70.541 0.943 -19.168 0.943 -19.168 0.328 70.541
6733.25 0.33 70.436 0.942 -19.274 0.942 -19.274 0.33 70.436
6758.188 0.332 70.331 0.942 -19.381 0.942 -19.381 0.332 70.331
6783.125 0.334 70.227 0.941 -19.487 0.941 -19.487 0.334 70.227
6808.063 0.335 70.122 0.94 -19.593 0.94 -19.593 0.335 70.122
6833 0.337 70.018 0.94 -19.699 0.94 -19.699 0.337 70.018
6857.938 0.339 69.915 0.939 -19.804 0.939 -19.804 0.339 69.915
6882.875 0.341 69.811 0.939 -19.909 0.939 -19.909 0.341 69.811
6907.813 0.342 69.708 0.938 -20.014 0.938 -20.014 0.342 69.708
6932.75 0.344 69.605 0.937 -20.119 0.937 -20.119 0.344 69.605
6957.688 0.346 69.502 0.937 -20.223 0.937 -20.223 0.346 69.502
6982.625 0.347 69.4 0.936 -20.327 0.936 -20.327 0.347 69.4
7007.563 0.349 69.297 0.935 -20.431 0.935 -20.431 0.349 69.297
7032.5 0.351 69.195 0.935 -20.534 0.935 -20.534 0.351 69.195
7057.438 0.352 69.094 0.934 -20.637 0.934 -20.637 0.352 69.094
7082.375 0.354 68.992 0.934 -20.74 0.934 -20.74 0.354 68.992
7107.313 0.356 68.891 0.933 -20.843 0.933 -20.843 0.356 68.891
7132.25 0.357 68.79 0.932 -20.945 0.932 -20.945 0.357 68.79
7157.188 0.359 68.689 0.932 -21.048 0.932 -21.048 0.359 68.689
7182.125 0.361 68.589 0.931 -21.149 0.931 -21.149 0.361 68.589
7207.063 0.362 68.489 0.93 -21.251 0.93 -21.251 0.362 68.489
7232 0.364 68.389 0.93 -21.352 0.93 -21.352 0.364 68.389
7256.938 0.366 68.289 0.929 -21.453 0.929 -21.453 0.366 68.289
7281.875 0.367 68.189 0.928 -21.554 0.928 -21.554 0.367 68.189
7306.813 0.369 68.09 0.928 -21.655 0.928 -21.655 0.369 68.09
7331.75 0.371 67.991 0.927 -21.755 0.927 -21.755 0.371 67.991
7356.688 0.372 67.892 0.926 -21.855 0.926 -21.855 0.372 67.892
7381.625 0.374 67.794 0.926 -21.955 0.926 -21.955 0.374 67.794
7406.563 0.375 67.695 0.925 -22.055 0.925 -22.055 0.375 67.695
7431.5 0.377 67.597 0.925 -22.154 0.925 -22.154 0.377 67.597
7456.438 0.379 67.499 0.924 -22.253 0.924 -22.253 0.379 67.499
7481.375 0.38 67.402 0.923 -22.352 0.923 -22.352 0.38 67.402
7506.313 0.382 67.304 0.923 -22.45 0.923 -22.45 0.382 67.304
7531.25 0.383 67.207 0.922 -22.549 0.922 -22.549 0.383 67.207
7556.188 0.385 67.11 0.921 -22.647 0.921 -22.647 0.385 67.11
7581.125 0.387 67.014 0.921 -22.745 0.921 -22.745 0.387 67.014
7606.063 0.388 66.917 0.92 -22.842 0.92 -22.842 0.388 66.917
7631 0.39 66.821 0.919 -22.94 0.919 -22.94 0.39 66.821
7655.938 0.391 66.725 0.919 -23.037 0.919 -23.037 0.391 66.725
7680.875 0.393 66.629 0.918 -23.134 0.918 -23.134 0.393 66.629
7705.813 0.394 66.534 0.917 -23.231 0.917 -23.231 0.394 66.534
7730.75 0.396 66.438 0.917 -23.327 0.917 -23.327 0.396 66.438
7755.688 0.398 66.343 0.916 -23.423 0.916 -23.423 0.398 66.343
7780.625 0.399 66.248 0.915 -23.519 0.915 -23.519 0.399 66.248
7805.563 0.401 66.154 0.915 -23.615 0.915 -23.615 0.401 66.154
7830.5 0.402 66.059 0.914 -23.71 0.914 -23.71 0.402 66.059
7855.438 0.404 65.965 0.913 -23.806 0.913 -23.806 0.404 65.965
7880.375 0.405 65.871 0.913 -23.901 0.913 -23.901 0.405 65.871
7905.313 0.407 65.777 0.912 -23.996 0.912 -23.996 0.407 65.777
7930.25 0.408 65.683 0.911 -24.09 0.911 -24.09 0.408 65.683
7955.188 0.41 65.59 0.911 -24.184 0.911 -24.184 0.41 65.59
7980.125 0.411 65.497 0.91 -24.279 0.91 -24.279 0.411 65.497
8005.063 0.413 65.404 0.909 -24.373 0.909 -24.373 0.413 65.404
8030 0.414 65.311 0.909 -24.466 0.909 -24.466 0.414 65.311
8054.938 0.416 65.219 0.908 -24.56 0.908 -24.56 0.416 65.219
