! AVX Thin Film Operation		Date: April 2012 
! Description: Accu-P® Series, Thin Film, SMD, RF Capacitor
! Part Number: 12101J1R0PBTTR					
!	100	MHz	-	10.05	GHz			
!	Serial	Measurements						
!								
#	MHZ	S	MA	R	50			
!	S11	S21	S12	S22				
!	dB	Phase	dB	Phase	dB	Phase	dB	Phase
100	0.998	-3.597	0.063	86.393	0.063	86.393	0.998	-3.597
109.812	0.998	-3.949	0.069	86.04	0.069	86.04	0.998	-3.949
119.623	0.997	-4.301	0.075	85.687	0.075	85.687	0.997	-4.301
129.435	0.997	-4.653	0.081	85.334	0.081	85.334	0.997	-4.653
139.247	0.996	-5.004	0.087	84.982	0.087	84.982	0.996	-5.004
149.058	0.996	-5.355	0.093	84.63	0.093	84.63	0.996	-5.355
158.87	0.995	-5.706	0.099	84.278	0.099	84.278	0.995	-5.706
168.682	0.994	-6.057	0.106	83.926	0.106	83.926	0.994	-6.057
178.494	0.994	-6.407	0.112	83.575	0.112	83.575	0.994	-6.407
188.305	0.993	-6.757	0.118	83.223	0.118	83.223	0.993	-6.757
198.117	0.992	-7.107	0.124	82.873	0.124	82.873	0.992	-7.107
207.929	0.991	-7.456	0.13	82.522	0.13	82.522	0.991	-7.456
217.74	0.991	-7.805	0.136	82.173	0.136	82.173	0.991	-7.805
227.552	0.99	-8.154	0.142	81.823	0.142	81.823	0.99	-8.154
237.364	0.989	-8.502	0.148	81.474	0.148	81.474	0.989	-8.502
247.175	0.988	-8.85	0.154	81.125	0.154	81.125	0.988	-8.85
256.987	0.987	-9.197	0.16	80.777	0.16	80.777	0.987	-9.197
266.799	0.986	-9.544	0.166	80.429	0.166	80.429	0.986	-9.544
276.611	0.985	-9.89	0.172	80.082	0.172	80.082	0.985	-9.89
286.422	0.984	-10.236	0.178	79.735	0.178	79.735	0.984	-10.236
296.234	0.983	-10.581	0.184	79.389	0.184	79.389	0.983	-10.581
306.046	0.982	-10.926	0.19	79.043	0.19	79.043	0.982	-10.926
315.857	0.981	-11.27	0.195	78.698	0.195	78.698	0.981	-11.27
325.669	0.979	-11.614	0.201	78.353	0.201	78.353	0.979	-11.614
335.481	0.978	-11.957	0.207	78.009	0.207	78.009	0.978	-11.957
345.292	0.977	-12.3	0.213	77.665	0.213	77.665	0.977	-12.3
355.104	0.976	-12.642	0.219	77.322	0.219	77.322	0.976	-12.642
364.916	0.974	-12.983	0.225	76.98	0.225	76.98	0.974	-12.983
374.727	0.973	-13.324	0.23	76.638	0.23	76.638	0.973	-13.324
384.539	0.972	-13.664	0.236	76.297	0.236	76.297	0.972	-13.664
394.351	0.97	-14.003	0.242	75.957	0.242	75.957	0.97	-14.003
404.163	0.969	-14.342	0.248	75.617	0.248	75.617	0.969	-14.342
413.974	0.967	-14.68	0.253	75.278	0.253	75.278	0.967	-14.68
423.786	0.966	-15.017	0.259	74.94	0.259	74.94	0.966	-15.017
433.598	0.964	-15.353	0.265	74.602	0.265	74.602	0.964	-15.353
443.409	0.963	-15.689	0.27	74.266	0.27	74.266	0.963	-15.689
453.221	0.961	-16.024	0.276	73.929	0.276	73.929	0.961	-16.024
463.033	0.959	-16.359	0.282	73.594	0.282	73.594	0.959	-16.359
472.844	0.958	-16.692	0.287	73.259	0.287	73.259	0.958	-16.692
482.656	0.956	-17.025	0.293	72.926	0.293	72.926	0.956	-17.025
492.468	0.954	-17.357	0.298	72.593	0.298	72.593	0.954	-17.357
502.279	0.952	-17.688	0.304	72.26	0.304	72.26	0.952	-17.688
512.091	0.951	-18.019	0.309	71.929	0.309	71.929	0.951	-18.019
521.903	0.949	-18.348	0.315	71.598	0.315	71.598	0.949	-18.348
531.715	0.947	-18.677	0.32	71.268	0.32	71.268	0.947	-18.677
541.526	0.945	-19.005	0.326	70.94	0.326	70.94	0.945	-19.005
551.338	0.943	-19.332	0.331	70.611	0.331	70.611	0.943	-19.332
561.15	0.941	-19.658	0.336	70.284	0.336	70.284	0.941	-19.658
570.961	0.939	-19.984	0.342	69.958	0.342	69.958	0.939	-19.984
580.773	0.937	-20.308	0.347	69.632	0.347	69.632	0.937	-20.308
590.585	0.935	-20.632	0.352	69.308	0.352	69.308	0.935	-20.632
600.396	0.933	-20.954	0.358	68.984	0.358	68.984	0.933	-20.954
610.208	0.931	-21.276	0.363	68.661	0.363	68.661	0.931	-21.276
620.02	0.929	-21.597	0.368	68.34	0.368	68.34	0.929	-21.597
629.832	0.927	-21.917	0.373	68.019	0.373	68.019	0.927	-21.917
639.643	0.925	-22.236	0.378	67.699	0.378	67.699	0.925	-22.236
649.455	0.923	-22.553	0.384	67.38	0.384	67.38	0.923	-22.553
659.267	0.921	-22.87	0.389	67.062	0.389	67.062	0.921	-22.87
669.078	0.919	-23.187	0.394	66.745	0.394	66.745	0.919	-23.187
678.89	0.917	-23.502	0.399	66.429	0.399	66.429	0.917	-23.502
688.702	0.914	-23.816	0.404	66.113	0.404	66.113	0.914	-23.816
698.513	0.912	-24.129	0.409	65.799	0.409	65.799	0.912	-24.129
708.325	0.91	-24.441	0.414	65.486	0.414	65.486	0.91	-24.441
718.137	0.908	-24.752	0.419	65.174	0.419	65.174	0.908	-24.752
727.948	0.905	-25.062	0.424	64.863	0.424	64.863	0.905	-25.062
737.76	0.903	-25.371	0.428	64.553	0.428	64.553	0.903	-25.371
747.572	0.901	-25.679	0.433	64.243	0.433	64.243	0.901	-25.679
757.384	0.898	-25.986	0.438	63.935	0.438	63.935	0.898	-25.986
767.195	0.896	-26.292	0.443	63.628	0.443	63.628	0.896	-26.292
777.007	0.894	-26.597	0.448	63.322	0.448	63.322	0.894	-26.597
786.819	0.891	-26.901	0.452	63.017	0.452	63.017	0.891	-26.901
796.63	0.889	-27.204	0.457	62.713	0.457	62.713	0.889	-27.204
806.442	0.886	-27.506	0.462	62.41	0.462	62.41	0.886	-27.506
816.254	0.884	-27.807	0.466	62.108	0.466	62.108	0.884	-27.807
826.065	0.881	-28.107	0.471	61.808	0.471	61.808	0.881	-28.107
835.877	0.879	-28.405	0.476	61.508	0.476	61.508	0.879	-28.405
845.689	0.876	-28.703	0.48	61.209	0.48	61.209	0.876	-28.703
855.5	0.874	-28.999	0.485	60.912	0.485	60.912	0.874	-28.999
865.312	0.871	-29.295	0.489	60.615	0.489	60.615	0.871	-29.295
875.124	0.869	-29.589	0.494	60.32	0.494	60.32	0.869	-29.589
884.936	0.866	-29.883	0.498	60.025	0.498	60.025	0.866	-29.883
894.747	0.864	-30.175	0.503	59.732	0.503	59.732	0.864	-30.175
904.559	0.861	-30.466	0.507	59.44	0.507	59.44	0.861	-30.466
914.371	0.858	-30.756	0.511	59.148	0.511	59.148	0.858	-30.756
924.182	0.856	-31.045	0.516	58.858	0.516	58.858	0.856	-31.045
933.994	0.853	-31.333	0.52	58.569	0.52	58.569	0.853	-31.333
943.806	0.851	-31.62	0.524	58.282	0.524	58.282	0.851	-31.62
953.617	0.848	-31.905	0.529	57.995	0.529	57.995	0.848	-31.905
963.429	0.845	-32.19	0.533	57.709	0.533	57.709	0.845	-32.19
973.241	0.843	-32.473	0.537	57.424	0.537	57.424	0.843	-32.473
983.053	0.84	-32.756	0.541	57.141	0.541	57.141	0.84	-32.756
992.864	0.837	-33.037	0.545	56.859	0.545	56.859	0.837	-33.037
1002.676	0.835	-33.317	0.549	56.577	0.549	56.577	0.835	-33.317
1012.488	0.832	-33.596	0.553	56.297	0.553	56.297	0.832	-33.596
1022.299	0.829	-33.874	0.557	56.018	0.557	56.018	0.829	-33.874
1032.111	0.826	-34.151	0.561	55.74	0.561	55.74	0.826	-34.151
1041.923	0.824	-34.427	0.565	55.463	0.565	55.463	0.824	-34.427
1051.734	0.821	-34.701	0.569	55.187	0.569	55.187	0.821	-34.701
1061.546	0.818	-34.975	0.573	54.913	0.573	54.913	0.818	-34.975
1071.358	0.816	-35.247	0.577	54.639	0.577	54.639	0.816	-35.247
1081.169	0.813	-35.519	0.581	54.366	0.581	54.366	0.813	-35.519
1090.981	0.81	-35.789	0.585	54.095	0.585	54.095	0.81	-35.789
1100.793	0.807	-36.058	0.589	53.825	0.589	53.825	0.807	-36.058
1110.605	0.804	-36.326	0.592	53.556	0.592	53.556	0.804	-36.326
1120.416	0.802	-36.593	0.596	53.288	0.596	53.288	0.802	-36.593
1130.228	0.799	-36.859	0.6	53.021	0.6	53.021	0.799	-36.859
1140.04	0.796	-37.124	0.604	52.755	0.604	52.755	0.796	-37.124
1149.851	0.793	-37.387	0.607	52.49	0.607	52.49	0.793	-37.387
1159.663	0.79	-37.65	0.611	52.226	0.611	52.226	0.79	-37.65
1169.475	0.788	-37.911	0.614	51.964	0.614	51.964	0.788	-37.911
1179.286	0.785	-38.172	0.618	51.702	0.618	51.702	0.785	-38.172
1189.098	0.782	-38.431	0.622	51.442	0.622	51.442	0.782	-38.431
1198.91	0.779	-38.689	0.625	51.182	0.625	51.182	0.779	-38.689
1208.722	0.776	-38.946	0.629	50.924	0.629	50.924	0.776	-38.946
1218.533	0.773	-39.202	0.632	50.667	0.632	50.667	0.773	-39.202
1228.345	0.771	-39.457	0.635	50.411	0.635	50.411	0.771	-39.457
1238.157	0.768	-39.711	0.639	50.156	0.639	50.156	0.768	-39.711
1247.968	0.765	-39.963	0.642	49.902	0.642	49.902	0.765	-39.963
1257.78	0.762	-40.215	0.646	49.649	0.646	49.649	0.762	-40.215
1267.592	0.759	-40.466	0.649	49.397	0.649	49.397	0.759	-40.466
1277.403	0.756	-40.715	0.652	49.146	0.652	49.146	0.756	-40.715
1287.215	0.754	-40.964	0.656	48.897	0.656	48.897	0.754	-40.964
1297.027	0.751	-41.211	0.659	48.648	0.659	48.648	0.751	-41.211
1306.838	0.748	-41.457	0.662	48.401	0.662	48.401	0.748	-41.457
1316.65	0.745	-41.702	0.665	48.154	0.665	48.154	0.745	-41.702
1326.462	0.742	-41.947	0.668	47.909	0.668	47.909	0.742	-41.947
1336.274	0.739	-42.19	0.672	47.665	0.672	47.665	0.739	-42.19
1346.085	0.736	-42.432	0.675	47.421	0.675	47.421	0.736	-42.432
1355.897	0.733	-42.673	0.678	47.179	0.678	47.179	0.733	-42.673
1365.709	0.731	-42.913	0.681	46.938	0.681	46.938	0.731	-42.913
1375.52	0.728	-43.152	0.684	46.698	0.684	46.698	0.728	-43.152
1385.332	0.725	-43.389	0.687	46.458	0.687	46.458	0.725	-43.389
1395.144	0.722	-43.626	0.69	46.22	0.69	46.22	0.722	-43.626
1404.955	0.719	-43.862	0.693	45.983	0.693	45.983	0.719	-43.862
1414.767	0.716	-44.097	0.696	45.747	0.696	45.747	0.716	-44.097
1424.579	0.713	-44.331	0.699	45.512	0.699	45.512	0.713	-44.331
1434.39	0.711	-44.563	0.702	45.278	0.702	45.278	0.711	-44.563
1444.202	0.708	-44.795	0.705	45.045	0.705	45.045	0.708	-44.795
1454.014	0.705	-45.026	0.707	44.813	0.707	44.813	0.705	-45.026
1463.826	0.702	-45.255	0.71	44.582	0.71	44.582	0.702	-45.255
1473.637	0.699	-45.484	0.713	44.352	0.713	44.352	0.699	-45.484
1483.449	0.696	-45.711	0.716	44.123	0.716	44.123	0.696	-45.711
1493.261	0.693	-45.938	0.719	43.896	0.719	43.896	0.693	-45.938
1503.072	0.69	-46.164	0.721	43.669	0.721	43.669	0.69	-46.164
1512.884	0.688	-46.388	0.724	43.443	0.724	43.443	0.688	-46.388
1522.696	0.685	-46.612	0.727	43.218	0.727	43.218	0.685	-46.612
1532.507	0.682	-46.835	0.729	42.994	0.729	42.994	0.682	-46.835
1542.319	0.679	-47.056	0.732	42.771	0.732	42.771	0.679	-47.056
1552.131	0.676	-47.277	0.735	42.549	0.735	42.549	0.676	-47.277
1561.943	0.673	-47.497	0.737	42.327	0.737	42.327	0.673	-47.497
1571.754	0.671	-47.716	0.74	42.107	0.74	42.107	0.671	-47.716
1581.566	0.668	-47.933	0.742	41.888	0.742	41.888	0.668	-47.933
1591.378	0.665	-48.15	0.745	41.67	0.745	41.67	0.665	-48.15
1601.189	0.662	-48.366	0.747	41.453	0.747	41.453	0.662	-48.366
1611.001	0.659	-48.581	0.75	41.236	0.75	41.236	0.659	-48.581
1620.813	0.656	-48.795	0.752	41.021	0.752	41.021	0.656	-48.795
1630.624	0.654	-49.008	0.755	40.807	0.755	40.807	0.654	-49.008
1640.436	0.651	-49.22	0.757	40.593	0.757	40.593	0.651	-49.22
1650.248	0.648	-49.431	0.76	40.38	0.76	40.38	0.648	-49.431
1660.059	0.645	-49.642	0.762	40.169	0.762	40.169	0.645	-49.642
1669.871	0.642	-49.851	0.764	39.958	0.764	39.958	0.642	-49.851
1679.683	0.639	-50.059	0.767	39.748	0.767	39.748	0.639	-50.059
1689.495	0.637	-50.267	0.769	39.539	0.769	39.539	0.637	-50.267
1699.306	0.634	-50.473	0.771	39.331	0.771	39.331	0.634	-50.473
1709.118	0.631	-50.679	0.774	39.124	0.774	39.124	0.631	-50.679
1718.93	0.628	-50.884	0.776	38.918	0.776	38.918	0.628	-50.884
1728.741	0.625	-51.087	0.778	38.713	0.778	38.713	0.625	-51.087
1738.553	0.623	-51.29	0.78	38.508	0.78	38.508	0.623	-51.29
1748.365	0.62	-51.492	0.783	38.305	0.783	38.305	0.62	-51.492
1758.176	0.617	-51.694	0.785	38.102	0.785	38.102	0.617	-51.694
1767.988	0.614	-51.894	0.787	37.901	0.787	37.901	0.614	-51.894
1777.8	0.612	-52.093	0.789	37.7	0.789	37.7	0.612	-52.093
1787.611	0.609	-52.292	0.791	37.5	0.791	37.5	0.609	-52.292
1797.423	0.606	-52.489	0.793	37.3	0.793	37.3	0.606	-52.489
1807.235	0.603	-52.686	0.795	37.102	0.795	37.102	0.603	-52.686
1817.047	0.6	-52.882	0.797	36.905	0.797	36.905	0.6	-52.882
1826.858	0.598	-53.077	0.799	36.708	0.799	36.708	0.598	-53.077
1836.67	0.595	-53.271	0.801	36.512	0.801	36.512	0.595	-53.271
1846.482	0.592	-53.465	0.803	36.317	0.803	36.317	0.592	-53.465
1856.293	0.59	-53.657	0.805	36.123	0.805	36.123	0.59	-53.657
1866.105	0.587	-53.849	0.807	35.93	0.807	35.93	0.587	-53.849
1875.917	0.584	-54.04	0.809	35.738	0.809	35.738	0.584	-54.04
1885.728	0.581	-54.23	0.811	35.546	0.811	35.546	0.581	-54.23
1895.54	0.579	-54.419	0.813	35.355	0.813	35.355	0.579	-54.419
1905.352	0.576	-54.608	0.815	35.165	0.815	35.165	0.576	-54.608
1915.164	0.573	-54.795	0.817	34.976	0.817	34.976	0.573	-54.795
1924.975	0.571	-54.982	0.819	34.788	0.819	34.788	0.571	-54.982
1934.787	0.568	-55.168	0.821	34.6	0.821	34.6	0.568	-55.168
1944.599	0.565	-55.353	0.823	34.413	0.823	34.413	0.565	-55.353
1954.41	0.562	-55.537	0.825	34.227	0.825	34.227	0.562	-55.537
1964.222	0.56	-55.721	0.826	34.042	0.826	34.042	0.56	-55.721
1974.034	0.557	-55.904	0.828	33.858	0.828	33.858	0.557	-55.904
1983.845	0.554	-56.086	0.83	33.674	0.83	33.674	0.554	-56.086
1993.657	0.552	-56.267	0.832	33.491	0.832	33.491	0.552	-56.267
2003.469	0.549	-56.447	0.833	33.309	0.833	33.309	0.549	-56.447
2013.28	0.547	-56.627	0.835	33.128	0.835	33.128	0.547	-56.627
2023.092	0.544	-56.806	0.837	32.947	0.837	32.947	0.544	-56.806
2032.904	0.541	-56.984	0.839	32.767	0.839	32.767	0.541	-56.984
2042.716	0.539	-57.161	0.84	32.588	0.84	32.588	0.539	-57.161
2052.527	0.536	-57.338	0.842	32.41	0.842	32.41	0.536	-57.338
2062.339	0.533	-57.514	0.844	32.232	0.844	32.232	0.533	-57.514
2072.151	0.531	-57.689	0.845	32.056	0.845	32.056	0.531	-57.689
2081.962	0.528	-57.863	0.847	31.88	0.847	31.88	0.528	-57.863
2091.774	0.526	-58.037	0.848	31.704	0.848	31.704	0.526	-58.037
2101.586	0.523	-58.21	0.85	31.529	0.85	31.529	0.523	-58.21
2111.397	0.52	-58.382	0.852	31.356	0.852	31.356	0.52	-58.382
2121.209	0.518	-58.553	0.853	31.182	0.853	31.182	0.518	-58.553
2131.021	0.515	-58.724	0.855	31.01	0.855	31.01	0.515	-58.724
2140.833	0.513	-58.894	0.856	30.838	0.856	30.838	0.513	-58.894
2150.644	0.51	-59.063	0.858	30.667	0.858	30.667	0.51	-59.063
2160.456	0.507	-59.232	0.859	30.496	0.859	30.496	0.507	-59.232
2170.268	0.505	-59.4	0.861	30.327	0.861	30.327	0.505	-59.4
2180.079	0.502	-59.567	0.862	30.158	0.862	30.158	0.502	-59.567
2189.891	0.5	-59.733	0.864	29.989	0.864	29.989	0.5	-59.733
2199.703	0.497	-59.899	0.865	29.822	0.865	29.822	0.497	-59.899
2209.514	0.495	-60.064	0.867	29.655	0.867	29.655	0.495	-60.064
2219.326	0.492	-60.229	0.868	29.488	0.868	29.488	0.492	-60.229
2229.138	0.49	-60.392	0.869	29.323	0.869	29.323	0.49	-60.392
2238.949	0.487	-60.555	0.871	29.158	0.871	29.158	0.487	-60.555
2248.761	0.485	-60.718	0.872	28.993	0.872	28.993	0.485	-60.718
2258.573	0.482	-60.879	0.874	28.83	0.874	28.83	0.482	-60.879
2268.385	0.48	-61.04	0.875	28.667	0.875	28.667	0.48	-61.04
2278.196	0.477	-61.201	0.876	28.505	0.876	28.505	0.477	-61.201
2288.008	0.475	-61.361	0.878	28.343	0.878	28.343	0.475	-61.361
2297.82	0.472	-61.52	0.879	28.182	0.879	28.182	0.472	-61.52
2307.631	0.47	-61.678	0.88	28.021	0.88	28.021	0.47	-61.678
2317.443	0.467	-61.836	0.882	27.862	0.882	27.862	0.467	-61.836
2327.255	0.465	-61.993	0.883	27.702	0.883	27.702	0.465	-61.993
2337.066	0.462	-62.149	0.884	27.544	0.884	27.544	0.462	-62.149
2346.878	0.46	-62.305	0.885	27.386	0.885	27.386	0.46	-62.305
2356.69	0.458	-62.46	0.887	27.229	0.887	27.229	0.458	-62.46
2366.501	0.455	-62.615	0.888	27.072	0.888	27.072	0.455	-62.615
2376.313	0.453	-62.769	0.889	26.916	0.889	26.916	0.453	-62.769
2386.125	0.45	-62.922	0.89	26.76	0.89	26.76	0.45	-62.922
2395.937	0.448	-63.075	0.892	26.606	0.892	26.606	0.448	-63.075
2405.748	0.445	-63.227	0.893	26.451	0.893	26.451	0.445	-63.227
2415.56	0.443	-63.378	0.894	26.298	0.894	26.298	0.443	-63.378
2425.372	0.441	-63.529	0.895	26.145	0.895	26.145	0.441	-63.529
2435.183	0.438	-63.68	0.896	25.992	0.896	25.992	0.438	-63.68
2444.995	0.436	-63.829	0.897	25.84	0.897	25.84	0.436	-63.829
2454.807	0.433	-63.978	0.899	25.689	0.899	25.689	0.433	-63.978
2464.618	0.431	-64.127	0.9	25.538	0.9	25.538	0.431	-64.127
2474.43	0.429	-64.275	0.901	25.388	0.901	25.388	0.429	-64.275
2484.242	0.426	-64.422	0.902	25.239	0.902	25.239	0.426	-64.422
2494.054	0.424	-64.569	0.903	25.089	0.903	25.089	0.424	-64.569
2503.865	0.422	-64.715	0.904	24.941	0.904	24.941	0.422	-64.715
2513.677	0.419	-64.86	0.905	24.793	0.905	24.793	0.419	-64.86
2523.489	0.417	-65.005	0.906	24.646	0.906	24.646	0.417	-65.005
2533.3	0.415	-65.15	0.907	24.499	0.907	24.499	0.415	-65.15
2543.112	0.412	-65.294	0.908	24.353	0.908	24.353	0.412	-65.294
2552.924	0.41	-65.437	0.91	24.207	0.91	24.207	0.41	-65.437
2562.735	0.408	-65.58	0.911	24.062	0.911	24.062	0.408	-65.58
2572.547	0.405	-65.722	0.912	23.917	0.912	23.917	0.405	-65.722
2582.359	0.403	-65.863	0.913	23.773	0.913	23.773	0.403	-65.863
2592.17	0.401	-66.004	0.914	23.63	0.914	23.63	0.401	-66.004
2601.982	0.399	-66.145	0.915	23.487	0.915	23.487	0.399	-66.145
2611.794	0.396	-66.285	0.916	23.344	0.916	23.344	0.396	-66.285
2621.606	0.394	-66.424	0.917	23.202	0.917	23.202	0.394	-66.424
2631.417	0.392	-66.563	0.918	23.061	0.918	23.061	0.392	-66.563
2641.229	0.389	-66.701	0.918	22.92	0.918	22.92	0.389	-66.701
2651.041	0.387	-66.839	0.919	22.78	0.919	22.78	0.387	-66.839
2660.852	0.385	-66.977	0.92	22.64	0.92	22.64	0.385	-66.977
2670.664	0.383	-67.113	0.921	22.5	0.921	22.5	0.383	-67.113
2680.476	0.38	-67.249	0.922	22.362	0.922	22.362	0.38	-67.249
2690.287	0.378	-67.385	0.923	22.223	0.923	22.223	0.378	-67.385
2700.099	0.376	-67.52	0.924	22.085	0.924	22.085	0.376	-67.52
2709.911	0.374	-67.655	0.925	21.948	0.925	21.948	0.374	-67.655
2719.722	0.372	-67.789	0.926	21.811	0.926	21.811	0.372	-67.789
2729.534	0.369	-67.923	0.927	21.675	0.927	21.675	0.369	-67.923
2739.346	0.367	-68.056	0.928	21.539	0.928	21.539	0.367	-68.056
2749.158	0.365	-68.188	0.928	21.403	0.928	21.403	0.365	-68.188
2758.969	0.363	-68.321	0.929	21.268	0.929	21.268	0.363	-68.321
2768.781	0.361	-68.452	0.93	21.134	0.93	21.134	0.361	-68.452
2778.593	0.358	-68.583	0.931	21	0.931	21	0.358	-68.583
2788.404	0.356	-68.714	0.932	20.866	0.932	20.866	0.356	-68.714
2798.216	0.354	-68.844	0.933	20.733	0.933	20.733	0.354	-68.844
2808.028	0.352	-68.974	0.933	20.601	0.933	20.601	0.352	-68.974
2817.839	0.35	-69.103	0.934	20.469	0.934	20.469	0.35	-69.103
2827.651	0.348	-69.231	0.935	20.337	0.935	20.337	0.348	-69.231
2837.463	0.345	-69.359	0.936	20.206	0.936	20.206	0.345	-69.359
2847.275	0.343	-69.487	0.937	20.075	0.937	20.075	0.343	-69.487
2857.086	0.341	-69.614	0.937	19.945	0.937	19.945	0.341	-69.614
2866.898	0.339	-69.741	0.938	19.815	0.938	19.815	0.339	-69.741
2876.71	0.337	-69.867	0.939	19.685	0.939	19.685	0.337	-69.867
2886.521	0.335	-69.993	0.94	19.556	0.94	19.556	0.335	-69.993
2896.333	0.333	-70.118	0.94	19.428	0.94	19.428	0.333	-70.118
2906.145	0.331	-70.243	0.941	19.3	0.941	19.3	0.331	-70.243
2915.956	0.328	-70.368	0.942	19.172	0.942	19.172	0.328	-70.368
2925.768	0.326	-70.491	0.943	19.045	0.943	19.045	0.326	-70.491
2935.58	0.324	-70.615	0.943	18.918	0.943	18.918	0.324	-70.615
2945.391	0.322	-70.738	0.944	18.792	0.944	18.792	0.322	-70.738
2955.203	0.32	-70.86	0.945	18.666	0.945	18.666	0.32	-70.86
2965.015	0.318	-70.982	0.945	18.54	0.945	18.54	0.318	-70.982
2974.827	0.316	-71.104	0.946	18.415	0.946	18.415	0.316	-71.104
2984.638	0.314	-71.225	0.947	18.291	0.947	18.291	0.314	-71.225
2994.45	0.312	-71.346	0.948	18.166	0.948	18.166	0.312	-71.346
3004.262	0.31	-71.466	0.948	18.043	0.948	18.043	0.31	-71.466
3014.073	0.308	-71.586	0.949	17.919	0.949	17.919	0.308	-71.586
3023.885	0.306	-71.705	0.949	17.796	0.949	17.796	0.306	-71.705
3033.697	0.304	-71.824	0.95	17.674	0.95	17.674	0.304	-71.824
3043.508	0.302	-71.943	0.951	17.551	0.951	17.551	0.302	-71.943
3053.32	0.3	-72.061	0.951	17.43	0.951	17.43	0.3	-72.061
3063.132	0.298	-72.178	0.952	17.308	0.952	17.308	0.298	-72.178
3072.944	0.296	-72.296	0.953	17.187	0.953	17.187	0.296	-72.296
3082.755	0.293	-72.412	0.953	17.066	0.953	17.066	0.293	-72.412
3092.567	0.291	-72.529	0.954	16.946	0.954	16.946	0.291	-72.529
3102.379	0.289	-72.645	0.955	16.826	0.955	16.826	0.289	-72.645
3112.19	0.287	-72.76	0.955	16.707	0.955	16.707	0.287	-72.76
3122.002	0.285	-72.875	0.956	16.588	0.956	16.588	0.285	-72.875
3131.814	0.284	-72.99	0.956	16.469	0.956	16.469	0.284	-72.99
3141.625	0.282	-73.104	0.957	16.351	0.957	16.351	0.282	-73.104
3151.437	0.28	-73.218	0.957	16.233	0.957	16.233	0.28	-73.218
3161.249	0.278	-73.331	0.958	16.115	0.958	16.115	0.278	-73.331
3171.06	0.276	-73.444	0.959	15.998	0.959	15.998	0.276	-73.444
3180.872	0.274	-73.556	0.959	15.881	0.959	15.881	0.274	-73.556
3190.684	0.272	-73.668	0.96	15.765	0.96	15.765	0.272	-73.668
3200.496	0.27	-73.78	0.96	15.649	0.96	15.649	0.27	-73.78
3210.307	0.268	-73.891	0.961	15.533	0.961	15.533	0.268	-73.891
3220.119	0.266	-74.002	0.961	15.418	0.961	15.418	0.266	-74.002
3229.931	0.264	-74.113	0.962	15.303	0.962	15.303	0.264	-74.113
