! AVX Thin Film Operation		Date: April 2012 
! Description: Accu-P® Series, Thin Film, SMD, RF Capacitor
! Part Number: 12101J190FBTTR					
!	50	MHz	-	20.05	GHz			
!	Serial	Measurements						
!								
#	MHZ	S	MA	R	50			
!	S11	S21	S12	S22				
!	dB	Phase	dB	Phase	dB	Phase	dB	Phase
50 0.857 -30.854 0.513 59.035 0.513 59.035 0.857 -30.854
100 0.638 -50.177 0.768 39.658 0.768 39.658 0.638 -50.177
150 0.48 -61.09 0.875 28.689 0.875 28.689 0.48 -61.09
200 0.375 -67.691 0.925 22.03 0.925 22.03 0.375 -67.691
250 0.303 -72.033 0.951 17.626 0.951 17.626 0.303 -72.033
300 0.25 -75.091 0.966 14.502 0.966 14.502 0.25 -75.091
350 0.211 -77.36 0.976 12.161 0.976 12.161 0.211 -77.36
400 0.179 -79.111 0.982 10.331 0.982 10.331 0.179 -79.111
450 0.154 -80.503 0.986 8.852 0.986 8.852 0.154 -80.503
500 0.133 -81.633 0.989 7.621 0.989 7.621 0.133 -81.633
550 0.115 -82.566 0.992 6.575 0.992 6.575 0.115 -82.566
600 0.099 -83.34 0.993 5.668 0.993 5.668 0.099 -83.34
650 0.085 -83.98 0.995 4.869 0.995 4.869 0.085 -83.98
700 0.072 -84.499 0.996 4.155 0.996 4.155 0.072 -84.499
750 0.061 -84.901 0.996 3.51 0.996 3.51 0.061 -84.901
800 0.051 -85.173 0.997 2.921 0.997 2.921 0.051 -85.173
850 0.042 -85.285 0.997 2.379 0.997 2.379 0.042 -85.285
900 0.033 -85.164 0.998 1.875 0.998 1.875 0.033 -85.164
950 0.025 -84.647 0.998 1.403 0.998 1.403 0.025 -84.647
1000 0.017 -83.279 0.998 0.96 0.998 0.96 0.017 -83.279
1050 9.578e-3 -79.299 0.998 0.54 0.998 0.54 9.578e-3 -79.299
1100 2.988e-3 -55.426 0.998 0.141 0.998 0.141 2.988e-3 -55.426
1150 4.513e-3 67.773 0.998 -0.24 0.998 -0.24 4.513e-3 67.773
1200 0.011 80.302 0.998 -0.605 0.998 -0.605 0.011 80.302
1250 0.017 83.26 0.998 -0.956 0.998 -0.956 0.017 83.26
1300 0.023 84.427 0.998 -1.295 0.998 -1.295 0.023 84.427
1350 0.028 84.959 0.998 -1.623 0.998 -1.623 0.028 84.959
1400 0.034 85.199 0.998 -1.941 0.998 -1.941 0.034 85.199
1450 0.039 85.28 0.998 -2.25 0.998 -2.25 0.039 85.28
1500 0.045 85.269 0.997 -2.551 0.997 -2.551 0.045 85.269
1550 0.05 85.199 0.997 -2.845 0.997 -2.845 0.05 85.199
1600 0.055 85.089 0.997 -3.133 0.997 -3.133 0.055 85.089
1650 0.06 84.953 0.997 -3.414 0.997 -3.414 0.06 84.953
1700 0.064 84.798 0.996 -3.69 0.996 -3.69 0.064 84.798
1750 0.069 84.629 0.996 -3.961 0.996 -3.961 0.069 84.629
1800 0.074 84.45 0.996 -4.227 0.996 -4.227 0.074 84.45
1850 0.078 84.264 0.995 -4.489 0.995 -4.489 0.078 84.264
1900 0.083 84.073 0.995 -4.747 0.995 -4.747 0.083 84.073
1950 0.087 83.877 0.994 -5.001 0.994 -5.001 0.087 83.877
2000 0.092 83.679 0.994 -5.252 0.994 -5.252 0.092 83.679
2050 0.096 83.478 0.994 -5.5 0.994 -5.5 0.096 83.478
2100 0.1 83.276 0.993 -5.745 0.993 -5.745 0.1 83.276
2150 0.104 83.072 0.993 -5.987 0.993 -5.987 0.104 83.072
2200 0.108 82.868 0.992 -6.226 0.992 -6.226 0.108 82.868
2250 0.113 82.663 0.992 -6.463 0.992 -6.463 0.113 82.663
2300 0.117 82.458 0.991 -6.698 0.991 -6.698 0.117 82.458
2350 0.121 82.253 0.991 -6.931 0.991 -6.931 0.121 82.253
2400 0.125 82.048 0.99 -7.161 0.99 -7.161 0.125 82.048
2450 0.129 81.843 0.99 -7.39 0.99 -7.39 0.129 81.843
2500 0.133 81.638 0.989 -7.616 0.989 -7.616 0.133 81.638
2550 0.136 81.433 0.989 -7.841 0.989 -7.841 0.136 81.433
2600 0.14 81.229 0.988 -8.065 0.988 -8.065 0.14 81.229
2650 0.144 81.026 0.988 -8.286 0.988 -8.286 0.144 81.026
2700 0.148 80.823 0.987 -8.507 0.987 -8.507 0.148 80.823
2750 0.152 80.62 0.987 -8.725 0.987 -8.725 0.152 80.62
2800 0.155 80.418 0.986 -8.943 0.986 -8.943 0.155 80.418
2850 0.159 80.216 0.986 -9.159 0.986 -9.159 0.159 80.216
2900 0.163 80.015 0.985 -9.374 0.985 -9.374 0.163 80.015
2950 0.167 79.814 0.984 -9.587 0.984 -9.587 0.167 79.814
3000 0.17 79.614 0.984 -9.8 0.984 -9.8 0.17 79.614
3050 0.174 79.414 0.983 -10.011 0.983 -10.011 0.174 79.414
3100 0.177 79.215 0.982 -10.221 0.982 -10.221 0.177 79.215
3150 0.181 79.017 0.982 -10.43 0.982 -10.43 0.181 79.017
3200 0.185 78.819 0.981 -10.638 0.981 -10.638 0.185 78.819
3250 0.188 78.621 0.98 -10.845 0.98 -10.845 0.188 78.621
3300 0.192 78.425 0.98 -11.052 0.98 -11.052 0.192 78.425
3350 0.195 78.228 0.979 -11.257 0.979 -11.257 0.195 78.228
3400 0.199 78.033 0.978 -11.461 0.978 -11.461 0.199 78.033
3450 0.202 77.837 0.978 -11.664 0.978 -11.664 0.202 77.837
3500 0.206 77.643 0.977 -11.867 0.977 -11.867 0.206 77.643
3550 0.209 77.449 0.976 -12.069 0.976 -12.069 0.209 77.449
3600 0.213 77.255 0.975 -12.27 0.975 -12.27 0.213 77.255
3650 0.216 77.062 0.975 -12.47 0.975 -12.47 0.216 77.062
3700 0.219 76.87 0.974 -12.669 0.974 -12.669 0.219 76.87
3750 0.223 76.678 0.973 -12.868 0.973 -12.868 0.223 76.678
3800 0.226 76.486 0.972 -13.065 0.972 -13.065 0.226 76.486
3850 0.229 76.295 0.972 -13.263 0.972 -13.263 0.229 76.295
3900 0.233 76.105 0.971 -13.459 0.971 -13.459 0.233 76.105
3950 0.236 75.915 0.97 -13.655 0.97 -13.655 0.236 75.915
4000 0.239 75.726 0.969 -13.85 0.969 -13.85 0.239 75.726
4050 0.243 75.537 0.968 -14.044 0.968 -14.044 0.243 75.537
4100 0.246 75.348 0.968 -14.238 0.968 -14.238 0.246 75.348
4150 0.249 75.16 0.967 -14.431 0.967 -14.431 0.249 75.16
4200 0.252 74.973 0.966 -14.623 0.966 -14.623 0.252 74.973
4250 0.256 74.786 0.965 -14.815 0.965 -14.815 0.256 74.786
4300 0.259 74.6 0.964 -15.006 0.964 -15.006 0.259 74.6
4350 0.262 74.414 0.963 -15.196 0.963 -15.196 0.262 74.414
4400 0.265 74.228 0.962 -15.386 0.962 -15.386 0.265 74.228
4450 0.269 74.043 0.961 -15.575 0.961 -15.575 0.269 74.043
4500 0.272 73.859 0.961 -15.764 0.961 -15.764 0.272 73.859
4550 0.275 73.675 0.96 -15.952 0.96 -15.952 0.275 73.675
4600 0.278 73.492 0.959 -16.139 0.959 -16.139 0.278 73.492
4650 0.281 73.309 0.958 -16.326 0.958 -16.326 0.281 73.309
4700 0.284 73.126 0.957 -16.512 0.957 -16.512 0.284 73.126
4750 0.287 72.944 0.956 -16.698 0.956 -16.698 0.287 72.944
4800 0.29 72.762 0.955 -16.883 0.955 -16.883 0.29 72.762
4850 0.294 72.581 0.954 -17.068 0.954 -17.068 0.294 72.581
4900 0.297 72.401 0.953 -17.252 0.953 -17.252 0.297 72.401
4950 0.3 72.221 0.952 -17.435 0.952 -17.435 0.3 72.221
5000 0.303 72.041 0.951 -17.618 0.951 -17.618 0.303 72.041
5050 0.306 71.862 0.95 -17.8 0.95 -17.8 0.306 71.862
5100 0.309 71.683 0.949 -17.982 0.949 -17.982 0.309 71.683
5150 0.312 71.505 0.948 -18.163 0.948 -18.163 0.312 71.505
5200 0.315 71.327 0.947 -18.344 0.947 -18.344 0.315 71.327
5250 0.318 71.15 0.946 -18.524 0.946 -18.524 0.318 71.15
5300 0.321 70.973 0.945 -18.704 0.945 -18.704 0.321 70.973
5350 0.324 70.796 0.944 -18.883 0.944 -18.883 0.324 70.796
5400 0.327 70.62 0.943 -19.062 0.943 -19.062 0.327 70.62
5450 0.33 70.445 0.942 -19.24 0.942 -19.24 0.33 70.445
5500 0.332 70.27 0.941 -19.418 0.941 -19.418 0.332 70.27
5550 0.335 70.095 0.94 -19.595 0.94 -19.595 0.335 70.095
5600 0.338 69.921 0.939 -19.771 0.939 -19.771 0.338 69.921
5650 0.341 69.748 0.938 -19.947 0.938 -19.947 0.341 69.748
5700 0.344 69.574 0.937 -20.123 0.937 -20.123 0.344 69.574
5750 0.347 69.402 0.936 -20.298 0.936 -20.298 0.347 69.402
5800 0.35 69.23 0.935 -20.472 0.935 -20.472 0.35 69.23
5850 0.353 69.058 0.934 -20.646 0.934 -20.646 0.353 69.058
5900 0.355 68.886 0.933 -20.82 0.933 -20.82 0.355 68.886
5950 0.358 68.716 0.932 -20.993 0.932 -20.993 0.358 68.716
6000 0.361 68.545 0.931 -21.166 0.931 -21.166 0.361 68.545
6050 0.364 68.375 0.93 -21.338 0.93 -21.338 0.364 68.375
6100 0.367 68.206 0.929 -21.509 0.929 -21.509 0.367 68.206
6150 0.369 68.037 0.927 -21.68 0.927 -21.68 0.369 68.037
6200 0.372 67.868 0.926 -21.851 0.926 -21.851 0.372 67.868
6250 0.375 67.7 0.925 -22.021 0.925 -22.021 0.375 67.7
6300 0.378 67.532 0.924 -22.19 0.924 -22.19 0.378 67.532
6350 0.38 67.365 0.923 -22.359 0.923 -22.359 0.38 67.365
6400 0.383 67.199 0.922 -22.528 0.922 -22.528 0.383 67.199
6450 0.386 67.032 0.921 -22.696 0.921 -22.696 0.386 67.032
6500 0.389 66.866 0.92 -22.864 0.92 -22.864 0.389 66.866
6550 0.391 66.701 0.918 -23.031 0.918 -23.031 0.391 66.701
6600 0.394 66.536 0.917 -23.197 0.917 -23.197 0.394 66.536
6650 0.397 66.372 0.916 -23.363 0.916 -23.363 0.397 66.372
6700 0.399 66.208 0.915 -23.529 0.915 -23.529 0.399 66.208
6750 0.402 66.044 0.914 -23.694 0.914 -23.694 0.402 66.044
6800 0.404 65.881 0.913 -23.859 0.913 -23.859 0.404 65.881
6850 0.407 65.719 0.912 -24.023 0.912 -24.023 0.407 65.719
6900 0.41 65.556 0.91 -24.187 0.91 -24.187 0.41 65.556
6950 0.412 65.395 0.909 -24.35 0.909 -24.35 0.412 65.395
7000 0.415 65.233 0.908 -24.513 0.908 -24.513 0.415 65.233
7050 0.417 65.073 0.907 -24.675 0.907 -24.675 0.417 65.073
7100 0.42 64.912 0.906 -24.837 0.906 -24.837 0.42 64.912
7150 0.423 64.752 0.904 -24.998 0.904 -24.998 0.423 64.752
7200 0.425 64.593 0.903 -25.159 0.903 -25.159 0.425 64.593
7250 0.428 64.434 0.902 -25.319 0.902 -25.319 0.428 64.434
7300 0.43 64.276 0.901 -25.479 0.901 -25.479 0.43 64.276
7350 0.433 64.117 0.9 -25.639 0.9 -25.639 0.433 64.117
7400 0.435 63.96 0.898 -25.798 0.898 -25.798 0.435 63.96
7450 0.438 63.803 0.897 -25.956 0.897 -25.956 0.438 63.803
7500 0.44 63.646 0.896 -26.114 0.896 -26.114 0.44 63.646
7550 0.443 63.49 0.895 -26.272 0.895 -26.272 0.443 63.49
7600 0.445 63.334 0.894 -26.429 0.894 -26.429 0.445 63.334
7650 0.448 63.179 0.892 -26.585 0.892 -26.585 0.448 63.179
7700 0.45 63.024 0.891 -26.741 0.891 -26.741 0.45 63.024
7750 0.452 62.869 0.89 -26.897 0.89 -26.897 0.452 62.869
7800 0.455 62.715 0.889 -27.052 0.889 -27.052 0.455 62.715
7850 0.457 62.562 0.888 -27.207 0.888 -27.207 0.457 62.562
7900 0.46 62.409 0.886 -27.361 0.886 -27.361 0.46 62.409
7950 0.462 62.256 0.885 -27.515 0.885 -27.515 0.462 62.256
8000 0.464 62.104 0.884 -27.668 0.884 -27.668 0.464 62.104
8050 0.467 61.952 0.883 -27.821 0.883 -27.821 0.467 61.952
8100 0.469 61.801 0.881 -27.973 0.881 -27.973 0.469 61.801
8150 0.471 61.65 0.88 -28.125 0.88 -28.125 0.471 61.65
8200 0.474 61.5 0.879 -28.277 0.879 -28.277 0.474 61.5
8250 0.476 61.35 0.878 -28.428 0.878 -28.428 0.476 61.35
8300 0.478 61.2 0.876 -28.578 0.876 -28.578 0.478 61.2
8350 0.481 61.051 0.875 -28.728 0.875 -28.728 0.481 61.051
8400 0.483 60.903 0.874 -28.878 0.874 -28.878 0.483 60.903
8450 0.485 60.755 0.873 -29.027 0.873 -29.027 0.485 60.755
8500 0.487 60.607 0.871 -29.176 0.871 -29.176 0.487 60.607
8550 0.49 60.46 0.87 -29.324 0.87 -29.324 0.49 60.46
8600 0.492 60.313 0.869 -29.472 0.869 -29.472 0.492 60.313
8650 0.494 60.167 0.867 -29.619 0.867 -29.619 0.494 60.167
8700 0.496 60.021 0.866 -29.766 0.866 -29.766 0.496 60.021
8750 0.499 59.876 0.865 -29.912 0.865 -29.912 0.499 59.876
8800 0.501 59.731 0.864 -30.058 0.864 -30.058 0.501 59.731
8850 0.503 59.586 0.862 -30.203 0.862 -30.203 0.503 59.586
8900 0.505 59.442 0.861 -30.348 0.861 -30.348 0.505 59.442
8950 0.507 59.298 0.86 -30.493 0.86 -30.493 0.507 59.298
9000 0.51 59.155 0.859 -30.637 0.859 -30.637 0.51 59.155
9050 0.512 59.012 0.857 -30.781 0.857 -30.781 0.512 59.012
9100 0.514 58.87 0.856 -30.924 0.856 -30.924 0.514 58.87
9150 0.516 58.728 0.855 -31.067 0.855 -31.067 0.516 58.728
9200 0.518 58.587 0.853 -31.209 0.853 -31.209 0.518 58.587
9250 0.52 58.446 0.852 -31.351 0.852 -31.351 0.52 58.446
9300 0.522 58.305 0.851 -31.492 0.851 -31.492 0.522 58.305
9350 0.524 58.165 0.85 -31.633 0.85 -31.633 0.524 58.165
9400 0.527 58.025 0.848 -31.773 0.848 -31.773 0.527 58.025
9450 0.529 57.886 0.847 -31.913 0.847 -31.913 0.529 57.886
9500 0.531 57.747 0.846 -32.053 0.846 -32.053 0.531 57.747
9550 0.533 57.609 0.844 -32.192 0.844 -32.192 0.533 57.609
9600 0.535 57.471 0.843 -32.331 0.843 -32.331 0.535 57.471
9650 0.537 57.333 0.842 -32.469 0.842 -32.469 0.537 57.333
9700 0.539 57.196 0.841 -32.607 0.841 -32.607 0.539 57.196
9750 0.541 57.06 0.839 -32.744 0.839 -32.744 0.541 57.06
9800 0.543 56.923 0.838 -32.881 0.838 -32.881 0.543 56.923
9850 0.545 56.788 0.837 -33.018 0.837 -33.018 0.545 56.788
9900 0.547 56.652 0.835 -33.154 0.835 -33.154 0.547 56.652
9950 0.549 56.517 0.834 -33.289 0.834 -33.289 0.549 56.517
10000 0.551 56.383 0.833 -33.425 0.833 -33.425 0.551 56.383
10050 0.553 56.249 0.831 -33.559 0.831 -33.559 0.553 56.249
10100 0.555 56.115 0.83 -33.694 0.83 -33.694 0.555 56.115
10150 0.557 55.982 0.829 -33.828 0.829 -33.828 0.557 55.982
10200 0.559 55.849 0.828 -33.961 0.828 -33.961 0.559 55.849
10250 0.561 55.717 0.826 -34.094 0.826 -34.094 0.561 55.717
10300 0.562 55.585 0.825 -34.226 0.825 -34.226 0.562 55.585
10350 0.564 55.454 0.824 -34.359 0.824 -34.359 0.564 55.454
10400 0.566 55.323 0.822 -34.49 0.822 -34.49 0.566 55.323
10450 0.568 55.192 0.821 -34.622 0.821 -34.622 0.568 55.192
10500 0.57 55.062 0.82 -34.752 0.82 -34.752 0.57 55.062
10550 0.572 54.932 0.818 -34.883 0.818 -34.883 0.572 54.932
10600 0.574 54.803 0.817 -35.013 0.817 -35.013 0.574 54.803
10650 0.576 54.674 0.816 -35.142 0.816 -35.142 0.576 54.674
10700 0.577 54.545 0.815 -35.272 0.815 -35.272 0.577 54.545
10750 0.579 54.417 0.813 -35.4 0.813 -35.4 0.579 54.417
10800 0.581 54.289 0.812 -35.529 0.812 -35.529 0.581 54.289
10850 0.583 54.162 0.811 -35.656 0.811 -35.656 0.583 54.162
10900 0.585 54.035 0.809 -35.784 0.809 -35.784 0.585 54.035
10950 0.587 53.909 0.808 -35.911 0.808 -35.911 0.587 53.909
11000 0.588 53.783 0.807 -36.037 0.807 -36.037 0.588 53.783
11050 0.59 53.657 0.805 -36.164 0.805 -36.164 0.59 53.657
11100 0.592 53.532 0.804 -36.289 0.804 -36.289 0.592 53.532
11150 0.594 53.407 0.803 -36.415 0.803 -36.415 0.594 53.407
11200 0.595 53.283 0.802 -36.54 0.802 -36.54 0.595 53.283
11250 0.597 53.159 0.8 -36.664 0.8 -36.664 0.597 53.159
11300 0.599 53.035 0.799 -36.788 0.799 -36.788 0.599 53.035
11350 0.601 52.912 0.798 -36.912 0.798 -36.912 0.601 52.912
11400 0.602 52.789 0.796 -37.035 0.796 -37.035 0.602 52.789
11450 0.604 52.667 0.795 -37.158 0.795 -37.158 0.604 52.667
11500 0.606 52.545 0.794 -37.281 0.794 -37.281 0.606 52.545
11550 0.607 52.424 0.793 -37.403 0.793 -37.403 0.607 52.424
11600 0.609 52.302 0.791 -37.524 0.791 -37.524 0.609 52.302
11650 0.611 52.182 0.79 -37.646 0.79 -37.646 0.611 52.182
11700 0.612 52.061 0.789 -37.766 0.789 -37.766 0.612 52.061
11750 0.614 51.941 0.787 -37.887 0.787 -37.887 0.614 51.941
11800 0.616 51.822 0.786 -38.007 0.786 -38.007 0.616 51.822
11850 0.617 51.703 0.785 -38.127 0.785 -38.127 0.617 51.703
11900 0.619 51.584 0.784 -38.246 0.784 -38.246 0.619 51.584
11950 0.621 51.466 0.782 -38.365 0.782 -38.365 0.621 51.466
12000 0.622 51.348 0.781 -38.483 0.781 -38.483 0.622 51.348
12050 0.624 51.23 0.78 -38.601 0.78 -38.601 0.624 51.23
12100 0.626 51.113 0.778 -38.719 0.778 -38.719 0.626 51.113
12150 0.627 50.996 0.777 -38.836 0.777 -38.836 0.627 50.996
12200 0.629 50.88 0.776 -38.953 0.776 -38.953 0.629 50.88
12250 0.63 50.764 0.775 -39.069 0.775 -39.069 0.63 50.764
12300 0.632 50.648 0.773 -39.185 0.773 -39.185 0.632 50.648
12350 0.633 50.533 0.772 -39.301 0.772 -39.301 0.633 50.533
12400 0.635 50.418 0.771 -39.416 0.771 -39.416 0.635 50.418
12450 0.637 50.304 0.769 -39.531 0.769 -39.531 0.637 50.304
12500 0.638 50.19 0.768 -39.646 0.768 -39.646 0.638 50.19
12550 0.64 50.076 0.767 -39.76 0.767 -39.76 0.64 50.076
12600 0.641 49.963 0.766 -39.874 0.766 -39.874 0.641 49.963
12650 0.643 49.85 0.764 -39.987 0.764 -39.987 0.643 49.85
12700 0.644 49.737 0.763 -40.1 0.763 -40.1 0.644 49.737
12750 0.646 49.625 0.762 -40.213 0.762 -40.213 0.646 49.625
12800 0.647 49.513 0.761 -40.325 0.761 -40.325 0.647 49.513
12850 0.649 49.402 0.759 -40.437 0.759 -40.437 0.649 49.402
12900 0.65 49.291 0.758 -40.548 0.758 -40.548 0.65 49.291
12950 0.652 49.18 0.757 -40.659 0.757 -40.659 0.652 49.18
13000 0.653 49.07 0.756 -40.77 0.756 -40.77 0.653 49.07
13050 0.654 48.96 0.754 -40.88 0.754 -40.88 0.654 48.96
13100 0.656 48.85 0.753 -40.99 0.753 -40.99 0.656 48.85
13150 0.657 48.741 0.752 -41.1 0.752 -41.1 0.657 48.741
13200 0.659 48.632 0.75 -41.209 0.75 -41.209 0.659 48.632
13250 0.66 48.524 0.749 -41.318 0.749 -41.318 0.66 48.524
13300 0.662 48.416 0.748 -41.426 0.748 -41.426 0.662 48.416
13350 0.663 48.308 0.747 -41.534 0.747 -41.534 0.663 48.308
13400 0.664 48.201 0.745 -41.642 0.745 -41.642 0.664 48.201
13450 0.666 48.094 0.744 -41.749 0.744 -41.749 0.666 48.094
13500 0.667 47.987 0.743 -41.856 0.743 -41.856 0.667 47.987
13550 0.669 47.881 0.742 -41.963 0.742 -41.963 0.669 47.881
13600 0.67 47.775 0.741 -42.069 0.741 -42.069 0.67 47.775
13650 0.671 47.669 0.739 -42.175 0.739 -42.175 0.671 47.669
13700 0.673 47.564 0.738 -42.281 0.738 -42.281 0.673 47.564
13750 0.674 47.459 0.737 -42.386 0.737 -42.386 0.674 47.459
13800 0.675 47.355 0.736 -42.491 0.736 -42.491 0.675 47.355
13850 0.677 47.251 0.734 -42.595 0.734 -42.595 0.677 47.251
13900 0.678 47.147 0.733 -42.7 0.733 -42.7 0.678 47.147
13950 0.679 47.043 0.732 -42.803 0.732 -42.803 0.679 47.043
14000 0.681 46.94 0.731 -42.907 0.731 -42.907 0.681 46.94
14050 0.682 46.838 0.729 -43.01 0.729 -43.01 0.682 46.838
14100 0.683 46.735 0.728 -43.113 0.728 -43.113 0.683 46.735
14150 0.685 46.633 0.727 -43.215 0.727 -43.215 0.685 46.633
14200 0.686 46.531 0.726 -43.317 0.726 -43.317 0.686 46.531
14250 0.687 46.43 0.725 -43.419 0.725 -43.419 0.687 46.43
14300 0.689 46.329 0.723 -43.52 0.723 -43.52 0.689 46.329
14350 0.69 46.228 0.722 -43.621 0.722 -43.621 0.69 46.228
14400 0.691 46.128 0.721 -43.722 0.721 -43.722 0.691 46.128
14450 0.692 46.028 0.72 -43.822 0.72 -43.822 0.692 46.028
14500 0.694 45.929 0.718 -43.922 0.718 -43.922 0.694 45.929
14550 0.695 45.829 0.717 -44.022 0.717 -44.022 0.695 45.829
14600 0.696 45.73 0.716 -44.121 0.716 -44.121 0.696 45.73
14650 0.697 45.632 0.715 -44.22 0.715 -44.22 0.697 45.632
14700 0.699 45.533 0.714 -44.318 0.714 -44.318 0.699 45.533
14750 0.7 45.435 0.712 -44.417 0.712 -44.417 0.7 45.435
14800 0.701 45.338 0.711 -44.515 0.711 -44.515 0.701 45.338
14850 0.702 45.24 0.71 -44.612 0.71 -44.612 0.702 45.24
14900 0.704 45.143 0.709 -44.71 0.709 -44.71 0.704 45.143
14950 0.705 45.047 0.708 -44.807 0.708 -44.807 0.705 45.047
15000 0.706 44.95 0.706 -44.903 0.706 -44.903 0.706 44.95
15050 0.707 44.854 0.705 -45 0.705 -45 0.707 44.854
15100 0.708 44.759 0.704 -45.095 0.704 -45.095 0.708 44.759
15150 0.709 44.663 0.703 -45.191 0.703 -45.191 0.709 44.663
15200 0.711 44.568 0.702 -45.286 0.702 -45.286 0.711 44.568
15250 0.712 44.474 0.701 -45.381 0.701 -45.381 0.712 44.474
15300 0.713 44.379 0.699 -45.476 0.699 -45.476 0.713 44.379
15350 0.714 44.285 0.698 -45.57 0.698 -45.57 0.714 44.285
15400 0.715 44.191 0.697 -45.665 0.697 -45.665 0.715 44.191
15450 0.716 44.098 0.696 -45.758 0.696 -45.758 0.716 44.098
15500 0.718 44.005 0.695 -45.852 0.695 -45.852 0.718 44.005
15550 0.719 43.912 0.694 -45.945 0.694 -45.945 0.719 43.912
15600 0.72 43.82 0.692 -46.038 0.692 -46.038 0.72 43.82
15650 0.721 43.727 0.691 -46.13 0.691 -46.13 0.721 43.727
15700 0.722 43.636 0.69 -46.222 0.69 -46.222 0.722 43.636
15750 0.723 43.544 0.689 -46.314 0.689 -46.314 0.723 43.544
15800 0.724 43.453 0.688 -46.405 0.688 -46.405 0.724 43.453
15850 0.725 43.362 0.687 -46.497 0.687 -46.497 0.725 43.362
15900 0.726 43.271 0.685 -46.588 0.685 -46.588 0.726 43.271
15950 0.728 43.181 0.684 -46.678 0.684 -46.678 0.728 43.181
16000 0.729 43.091 0.683 -46.768 0.683 -46.768 0.729 43.091
16050 0.73 43.001 0.682 -46.858 0.682 -46.858 0.73 43.001
16100 0.731 42.912 0.681 -46.948 0.681 -46.948 0.731 42.912
16150 0.732 42.823 0.68 -47.038 0.68 -47.038 0.732 42.823
16200 0.733 42.734 0.679 -47.127 0.679 -47.127 0.733 42.734
16250 0.734 42.645 0.677 -47.215 0.677 -47.215 0.734 42.645
16300 0.735 42.557 0.676 -47.304 0.676 -47.304 0.735 42.557
16350 0.736 42.469 0.675 -47.392 0.675 -47.392 0.736 42.469
16400 0.737 42.381 0.674 -47.48 0.674 -47.48 0.737 42.381
16450 0.738 42.294 0.673 -47.567 0.673 -47.567 0.738 42.294
16500 0.739 42.207 0.672 -47.655 0.672 -47.655 0.739 42.207
16550 0.74 42.12 0.671 -47.742 0.671 -47.742 0.74 42.12
16600 0.741 42.034 0.67 -47.828 0.67 -47.828 0.741 42.034
16650 0.742 41.948 0.668 -47.915 0.668 -47.915 0.742 41.948
16700 0.743 41.862 0.667 -48.001 0.667 -48.001 0.743 41.862
16750 0.744 41.776 0.666 -48.087 0.666 -48.087 0.744 41.776
16800 0.745 41.691 0.665 -48.172 0.665 -48.172 0.745 41.691
16850 0.746 41.606 0.664 -48.258 0.664 -48.258 0.746 41.606
16900 0.747 41.521 0.663 -48.343 0.663 -48.343 0.747 41.521
16950 0.748 41.437 0.662 -48.427 0.662 -48.427 0.748 41.437
