! AVX Thin Film Operation		Date: April 2012 
! Description: Accu-P® Series, Thin Film, SMD, RF Capacitor
! Part Number: 12101J0R9PBTTR					
!	100	MHz	-	20.05	GHz			
!	Serial	Measurements						
!								
#	MHZ	S	MA	R	50			
!	S11	S21	S12	S22				
!	dB	Phase	dB	Phase	dB	Phase	dB	Phase
50 1 -1.62 0.028 88.376 0.028 88.376 1 -1.62
74.938 0.999 -2.427 0.042 87.567 0.042 87.567 0.999 -2.427
99.875 0.998 -3.234 0.056 86.758 0.056 86.758 0.998 -3.234
124.813 0.998 -4.04 0.07 85.95 0.07 85.95 0.998 -4.04
149.75 0.996 -4.845 0.084 85.143 0.084 85.143 0.996 -4.845
174.688 0.995 -5.648 0.098 84.337 0.098 84.337 0.995 -5.648
199.625 0.994 -6.451 0.112 83.533 0.112 83.533 0.994 -6.451
224.563 0.992 -7.251 0.126 82.73 0.126 82.73 0.992 -7.251
249.5 0.99 -8.05 0.14 81.929 0.14 81.929 0.99 -8.05
274.438 0.988 -8.847 0.154 81.13 0.154 81.13 0.988 -8.847
299.375 0.986 -9.642 0.167 80.333 0.167 80.333 0.986 -9.642
324.313 0.983 -10.435 0.181 79.538 0.181 79.538 0.983 -10.435
349.25 0.981 -11.224 0.195 78.746 0.195 78.746 0.981 -11.224
374.188 0.978 -12.012 0.208 77.957 0.208 77.957 0.978 -12.012
399.125 0.975 -12.796 0.221 77.17 0.221 77.17 0.975 -12.796
424.063 0.972 -13.578 0.235 76.387 0.235 76.387 0.972 -13.578
449 0.969 -14.356 0.248 75.606 0.248 75.606 0.969 -14.356
473.938 0.965 -15.131 0.261 74.829 0.261 74.829 0.965 -15.131
498.875 0.962 -15.902 0.274 74.056 0.274 74.056 0.962 -15.902
523.813 0.958 -16.67 0.287 73.286 0.287 73.286 0.958 -16.67
548.75 0.954 -17.434 0.3 72.519 0.3 72.519 0.954 -17.434
573.688 0.95 -18.194 0.312 71.757 0.312 71.757 0.95 -18.194
598.625 0.946 -18.95 0.325 70.999 0.325 70.999 0.946 -18.95
623.563 0.941 -19.702 0.337 70.245 0.337 70.245 0.941 -19.702
648.5 0.937 -20.45 0.349 69.495 0.349 69.495 0.937 -20.45
673.438 0.932 -21.194 0.362 68.749 0.362 68.749 0.932 -21.194
698.375 0.927 -21.932 0.374 68.008 0.374 68.008 0.927 -21.932
723.313 0.922 -22.667 0.385 67.271 0.385 67.271 0.922 -22.667
748.25 0.917 -23.396 0.397 66.54 0.397 66.54 0.917 -23.396
773.188 0.912 -24.121 0.409 65.812 0.409 65.812 0.912 -24.121
798.125 0.907 -24.841 0.42 65.09 0.42 65.09 0.907 -24.841
823.063 0.902 -25.556 0.431 64.373 0.431 64.373 0.902 -25.556
848 0.896 -26.267 0.443 63.66 0.443 63.66 0.896 -26.267
872.938 0.891 -26.972 0.454 62.953 0.454 62.953 0.891 -26.972
897.875 0.885 -27.672 0.464 62.251 0.464 62.251 0.885 -27.672
922.813 0.879 -28.366 0.475 61.554 0.475 61.554 0.879 -28.366
947.75 0.873 -29.056 0.486 60.862 0.486 60.862 0.873 -29.056
972.688 0.868 -29.74 0.496 60.175 0.496 60.175 0.868 -29.74
997.625 0.862 -30.419 0.506 59.494 0.506 59.494 0.862 -30.419
1022.563 0.856 -31.093 0.516 58.818 0.516 58.818 0.856 -31.093
1047.5 0.849 -31.761 0.526 58.147 0.526 58.147 0.849 -31.761
1072.438 0.843 -32.424 0.536 57.482 0.536 57.482 0.843 -32.424
1097.375 0.837 -33.081 0.546 56.823 0.546 56.823 0.837 -33.081
1122.313 0.831 -33.733 0.555 56.168 0.555 56.168 0.831 -33.733
1147.25 0.824 -34.379 0.565 55.519 0.565 55.519 0.824 -34.379
1172.188 0.818 -35.02 0.574 54.876 0.574 54.876 0.818 -35.02
1197.125 0.811 -35.656 0.583 54.238 0.583 54.238 0.811 -35.656
1222.063 0.805 -36.286 0.592 53.605 0.592 53.605 0.805 -36.286
1247 0.798 -36.91 0.601 52.978 0.601 52.978 0.798 -36.91
1271.938 0.792 -37.53 0.609 52.357 0.609 52.357 0.792 -37.53
1296.875 0.785 -38.143 0.618 51.741 0.618 51.741 0.785 -38.143
1321.813 0.779 -38.751 0.626 51.13 0.626 51.13 0.779 -38.751
1346.75 0.772 -39.354 0.634 50.525 0.634 50.525 0.772 -39.354
1371.688 0.765 -39.951 0.642 49.925 0.642 49.925 0.765 -39.951
1396.625 0.758 -40.543 0.65 49.33 0.65 49.33 0.758 -40.543
1421.563 0.752 -41.13 0.658 48.741 0.658 48.741 0.752 -41.13
1446.5 0.745 -41.711 0.665 48.157 0.665 48.157 0.745 -41.711
1471.438 0.738 -42.286 0.673 47.579 0.673 47.579 0.738 -42.286
1496.375 0.731 -42.857 0.68 47.006 0.68 47.006 0.731 -42.857
1521.313 0.725 -43.422 0.687 46.438 0.687 46.438 0.725 -43.422
1546.25 0.718 -43.982 0.694 45.875 0.694 45.875 0.718 -43.982
1571.188 0.711 -44.536 0.701 45.318 0.701 45.318 0.711 -44.536
1596.125 0.704 -45.086 0.708 44.765 0.708 44.765 0.704 -45.086
1621.063 0.697 -45.63 0.715 44.218 0.715 44.218 0.697 -45.63
1646 0.691 -46.17 0.721 43.676 0.721 43.676 0.691 -46.17
1670.938 0.684 -46.704 0.728 43.139 0.728 43.139 0.684 -46.704
1695.875 0.677 -47.233 0.734 42.607 0.734 42.607 0.677 -47.233
1720.813 0.67 -47.757 0.74 42.08 0.74 42.08 0.67 -47.757
1745.75 0.663 -48.276 0.746 41.557 0.746 41.557 0.663 -48.276
1770.688 0.657 -48.791 0.752 41.04 0.752 41.04 0.657 -48.791
1795.625 0.65 -49.3 0.758 40.527 0.758 40.527 0.65 -49.3
1820.563 0.643 -49.805 0.764 40.02 0.764 40.02 0.643 -49.805
1845.5 0.636 -50.305 0.769 39.517 0.769 39.517 0.636 -50.305
1870.438 0.63 -50.8 0.775 39.018 0.775 39.018 0.63 -50.8
1895.375 0.623 -51.29 0.78 38.525 0.78 38.525 0.623 -51.29
1920.313 0.616 -51.776 0.786 38.035 0.786 38.035 0.616 -51.776
1945.25 0.609 -52.257 0.791 37.551 0.791 37.551 0.609 -52.257
1970.188 0.603 -52.734 0.796 37.071 0.796 37.071 0.603 -52.734
1995.125 0.596 -53.206 0.801 36.595 0.801 36.595 0.596 -53.206
2020.063 0.59 -53.674 0.806 36.124 0.806 36.124 0.59 -53.674
2045 0.583 -54.137 0.81 35.657 0.81 35.657 0.583 -54.137
2069.938 0.576 -54.597 0.815 35.194 0.815 35.194 0.576 -54.597
2094.875 0.57 -55.051 0.82 34.736 0.82 34.736 0.57 -55.051
2119.813 0.563 -55.502 0.824 34.282 0.824 34.282 0.563 -55.502
2144.75 0.557 -55.948 0.829 33.832 0.829 33.832 0.557 -55.948
2169.688 0.55 -56.39 0.833 33.386 0.833 33.386 0.55 -56.39
2194.625 0.544 -56.829 0.837 32.944 0.837 32.944 0.544 -56.829
2219.563 0.537 -57.263 0.841 32.506 0.841 32.506 0.537 -57.263
2244.5 0.531 -57.693 0.845 32.072 0.845 32.072 0.531 -57.693
2269.438 0.525 -58.119 0.849 31.642 0.849 31.642 0.525 -58.119
2294.375 0.518 -58.541 0.853 31.216 0.853 31.216 0.518 -58.541
2319.313 0.512 -58.959 0.857 30.793 0.857 30.793 0.512 -58.959
2344.25 0.506 -59.374 0.861 30.375 0.861 30.375 0.506 -59.374
2369.188 0.499 -59.784 0.864 29.96 0.864 29.96 0.499 -59.784
2394.125 0.493 -60.191 0.868 29.548 0.868 29.548 0.493 -60.191
2419.063 0.487 -60.595 0.871 29.141 0.871 29.141 0.487 -60.595
2444 0.481 -60.994 0.875 28.737 0.875 28.737 0.481 -60.994
2468.938 0.475 -61.39 0.878 28.336 0.878 28.336 0.475 -61.39
2493.875 0.469 -61.783 0.881 27.939 0.881 27.939 0.469 -61.783
2518.813 0.462 -62.172 0.884 27.545 0.884 27.545 0.462 -62.172
2543.75 0.456 -62.557 0.887 27.155 0.887 27.155 0.456 -62.557
2568.688 0.45 -62.939 0.891 26.768 0.891 26.768 0.45 -62.939
2593.625 0.444 -63.318 0.894 26.385 0.894 26.385 0.444 -63.318
2618.563 0.438 -63.694 0.896 26.004 0.896 26.004 0.438 -63.694
2643.5 0.433 -64.066 0.899 25.627 0.899 25.627 0.433 -64.066
2668.438 0.427 -64.434 0.902 25.253 0.902 25.253 0.427 -64.434
2693.375 0.421 -64.8 0.905 24.882 0.905 24.882 0.421 -64.8
2718.313 0.415 -65.162 0.908 24.514 0.908 24.514 0.415 -65.162
2743.25 0.409 -65.521 0.91 24.15 0.91 24.15 0.409 -65.521
2768.188 0.403 -65.878 0.913 23.788 0.913 23.788 0.403 -65.878
2793.125 0.398 -66.231 0.915 23.429 0.915 23.429 0.398 -66.231
2818.063 0.392 -66.581 0.918 23.073 0.918 23.073 0.392 -66.581
2843 0.386 -66.928 0.92 22.72 0.92 22.72 0.386 -66.928
2867.938 0.381 -67.272 0.922 22.37 0.922 22.37 0.381 -67.272
2892.875 0.375 -67.613 0.925 22.023 0.925 22.023 0.375 -67.613
2917.813 0.369 -67.951 0.927 21.678 0.927 21.678 0.369 -67.951
2942.75 0.364 -68.286 0.929 21.336 0.929 21.336 0.364 -68.286
2967.688 0.358 -68.618 0.931 20.997 0.931 20.997 0.358 -68.618
2992.625 0.353 -68.948 0.933 20.661 0.933 20.661 0.353 -68.948
3017.563 0.347 -69.275 0.935 20.327 0.935 20.327 0.347 -69.275
3042.5 0.342 -69.599 0.937 19.996 0.937 19.996 0.342 -69.599
3067.438 0.337 -69.92 0.939 19.667 0.939 19.667 0.337 -69.92
3092.375 0.331 -70.239 0.941 19.341 0.941 19.341 0.331 -70.239
3117.313 0.326 -70.555 0.943 19.018 0.943 19.018 0.326 -70.555
3142.25 0.321 -70.868 0.945 18.696 0.945 18.696 0.321 -70.868
3167.188 0.315 -71.179 0.947 18.378 0.947 18.378 0.315 -71.179
3192.125 0.31 -71.487 0.948 18.061 0.948 18.061 0.31 -71.487
3217.063 0.305 -71.792 0.95 17.747 0.95 17.747 0.305 -71.792
3242 0.3 -72.095 0.952 17.436 0.952 17.436 0.3 -72.095
3266.938 0.294 -72.395 0.953 17.126 0.953 17.126 0.294 -72.395
3291.875 0.289 -72.693 0.955 16.819 0.955 16.819 0.289 -72.693
3316.813 0.284 -72.988 0.956 16.514 0.956 16.514 0.284 -72.988
3341.75 0.279 -73.281 0.958 16.212 0.958 16.212 0.279 -73.281
3366.688 0.274 -73.572 0.959 15.911 0.959 15.911 0.274 -73.572
3391.625 0.269 -73.859 0.961 15.613 0.961 15.613 0.269 -73.859
3416.563 0.264 -74.145 0.962 15.317 0.962 15.317 0.264 -74.145
3441.5 0.259 -74.428 0.963 15.023 0.963 15.023 0.259 -74.428
3466.438 0.254 -74.709 0.965 14.731 0.965 14.731 0.254 -74.709
3491.375 0.249 -74.987 0.966 14.441 0.966 14.441 0.249 -74.987
3516.313 0.245 -75.263 0.967 14.153 0.967 14.153 0.245 -75.263
3541.25 0.24 -75.536 0.968 13.867 0.968 13.867 0.24 -75.536
3566.188 0.235 -75.807 0.97 13.583 0.97 13.583 0.235 -75.807
3591.125 0.23 -76.076 0.971 13.301 0.971 13.301 0.23 -76.076
3616.063 0.225 -76.342 0.972 13.021 0.972 13.021 0.225 -76.342
3641 0.221 -76.606 0.973 12.742 0.973 12.742 0.221 -76.606
3665.938 0.216 -76.867 0.974 12.466 0.974 12.466 0.216 -76.867
3690.875 0.211 -77.126 0.975 12.191 0.975 12.191 0.211 -77.126
3715.813 0.207 -77.383 0.976 11.919 0.976 11.919 0.207 -77.383
3740.75 0.202 -77.637 0.977 11.648 0.977 11.648 0.202 -77.637
3765.688 0.197 -77.888 0.978 11.379 0.978 11.379 0.197 -77.888
3790.625 0.193 -78.138 0.979 11.111 0.979 11.111 0.193 -78.138
3815.563 0.188 -78.384 0.98 10.846 0.98 10.846 0.188 -78.384
3840.5 0.184 -78.629 0.98 10.582 0.98 10.582 0.184 -78.629
3865.438 0.179 -78.87 0.981 10.32 0.981 10.32 0.179 -78.87
3890.375 0.175 -79.11 0.982 10.059 0.982 10.059 0.175 -79.11
3915.313 0.17 -79.346 0.983 9.8 0.983 9.8 0.17 -79.346
3940.25 0.166 -79.58 0.984 9.543 0.984 9.543 0.166 -79.58
3965.188 0.161 -79.811 0.984 9.287 0.984 9.287 0.161 -79.811
3990.125 0.157 -80.039 0.985 9.033 0.985 9.033 0.157 -80.039
4015.063 0.153 -80.264 0.986 8.781 0.986 8.781 0.153 -80.264
4040 0.148 -80.487 0.986 8.53 0.986 8.53 0.148 -80.487
4064.938 0.144 -80.706 0.987 8.281 0.987 8.281 0.144 -80.706
4089.875 0.14 -80.922 0.988 8.033 0.988 8.033 0.14 -80.922
4114.813 0.136 -81.135 0.988 7.786 0.988 7.786 0.136 -81.135
4139.75 0.131 -81.345 0.989 7.541 0.989 7.541 0.131 -81.345
4164.688 0.127 -81.551 0.989 7.298 0.989 7.298 0.127 -81.551
4189.625 0.123 -81.753 0.99 7.056 0.99 7.056 0.123 -81.753
4214.563 0.119 -81.951 0.99 6.816 0.99 6.816 0.119 -81.951
4239.5 0.115 -82.145 0.991 6.576 0.991 6.576 0.115 -82.145
4264.438 0.11 -82.334 0.991 6.339 0.991 6.339 0.11 -82.334
4289.375 0.106 -82.518 0.992 6.102 0.992 6.102 0.106 -82.518
4314.313 0.102 -82.698 0.992 5.867 0.992 5.867 0.102 -82.698
4339.25 0.098 -82.871 0.993 5.634 0.993 5.634 0.098 -82.871
4364.188 0.094 -83.039 0.993 5.402 0.993 5.402 0.094 -83.039
4389.125 0.09 -83.2 0.993 5.171 0.993 5.171 0.09 -83.2
4414.063 0.086 -83.354 0.994 4.941 0.994 4.941 0.086 -83.354
4439 0.082 -83.499 0.994 4.713 0.994 4.713 0.082 -83.499
4463.938 0.078 -83.635 0.994 4.485 0.994 4.485 0.078 -83.635
4488.875 0.074 -83.761 0.995 4.26 0.995 4.26 0.074 -83.761
4513.813 0.07 -83.875 0.995 4.035 0.995 4.035 0.07 -83.875
4538.75 0.067 -83.976 0.995 3.812 0.995 3.812 0.067 -83.976
4563.688 0.063 -84.061 0.995 3.59 0.995 3.59 0.063 -84.061
4588.625 0.059 -84.127 0.996 3.369 0.996 3.369 0.059 -84.127
4613.563 0.055 -84.172 0.996 3.149 0.996 3.149 0.055 -84.172
4638.5 0.051 -84.191 0.996 2.931 0.996 2.931 0.051 -84.191
4663.438 0.047 -84.178 0.996 2.713 0.996 2.713 0.047 -84.178
4688.375 0.044 -84.125 0.996 2.497 0.996 2.497 0.044 -84.125
4713.313 0.04 -84.022 0.997 2.282 0.997 2.282 0.04 -84.022
4738.25 0.036 -83.855 0.997 2.068 0.997 2.068 0.036 -83.855
4763.188 0.032 -83.601 0.997 1.855 0.997 1.855 0.032 -83.601
4788.125 0.029 -83.23 0.997 1.644 0.997 1.644 0.029 -83.23
4813.063 0.025 -82.692 0.997 1.433 0.997 1.433 0.025 -82.692
4838 0.022 -81.905 0.997 1.224 0.997 1.224 0.022 -81.905
4862.938 0.018 -80.72 0.997 1.015 0.997 1.015 0.018 -80.72
4887.875 0.014 -78.847 0.997 0.808 0.997 0.808 0.014 -78.847
4912.813 0.011 -75.624 0.997 0.602 0.997 0.602 0.011 -75.624
4937.75 7.381e-3 -69.194 0.997 0.396 0.997 0.396 7.381e-3 -69.194
4962.688 4.228e-3 -52.301 0.997 0.192 0.997 0.192 4.228e-3 -52.301
4987.625 2.581e-3 4.264 0.997 -0.011 0.997 -0.011 2.581e-3 4.264
5012.563 4.524e-3 55.112 0.997 -0.213 0.997 -0.213 4.524e-3 55.112
5037.5 7.676e-3 69.994 0.997 -0.414 0.997 -0.414 7.676e-3 69.994
5062.438 0.011 75.891 0.997 -0.615 0.997 -0.615 0.011 75.891
5087.375 0.014 78.914 0.997 -0.814 0.997 -0.814 0.014 78.914
5112.313 0.018 80.697 0.997 -1.012 0.997 -1.012 0.018 80.697
5137.25 0.021 81.838 0.997 -1.209 0.997 -1.209 0.021 81.838
5162.188 0.025 82.605 0.997 -1.405 0.997 -1.405 0.025 82.605
5187.125 0.028 83.137 0.997 -1.601 0.997 -1.601 0.028 83.137
5212.063 0.031 83.51 0.997 -1.795 0.997 -1.795 0.031 83.51
5237 0.035 83.772 0.997 -1.989 0.997 -1.989 0.035 83.772
5261.938 0.038 83.953 0.997 -2.181 0.997 -2.181 0.038 83.953
5286.875 0.041 84.073 0.997 -2.373 0.997 -2.373 0.041 84.073
5311.813 0.045 84.146 0.996 -2.564 0.996 -2.564 0.045 84.146
5336.75 0.048 84.183 0.996 -2.754 0.996 -2.754 0.048 84.183
5361.688 0.051 84.191 0.996 -2.943 0.996 -2.943 0.051 84.191
5386.625 0.055 84.175 0.996 -3.131 0.996 -3.131 0.055 84.175
5411.563 0.058 84.14 0.996 -3.318 0.996 -3.318 0.058 84.14
5436.5 0.061 84.089 0.996 -3.504 0.996 -3.504 0.061 84.089
5461.438 0.064 84.024 0.995 -3.69 0.995 -3.69 0.064 84.024
5486.375 0.068 83.949 0.995 -3.874 0.995 -3.874 0.068 83.949
5511.313 0.071 83.864 0.995 -4.058 0.995 -4.058 0.071 83.864
5536.25 0.074 83.771 0.995 -4.241 0.995 -4.241 0.074 83.771
5561.188 0.077 83.671 0.994 -4.423 0.994 -4.423 0.077 83.671
5586.125 0.08 83.565 0.994 -4.605 0.994 -4.605 0.08 83.565
5611.063 0.083 83.454 0.994 -4.785 0.994 -4.785 0.083 83.454
5636 0.087 83.338 0.994 -4.965 0.994 -4.965 0.087 83.338
5660.938 0.09 83.218 0.993 -5.144 0.993 -5.144 0.09 83.218
5685.875 0.093 83.095 0.993 -5.322 0.993 -5.322 0.093 83.095
5710.813 0.096 82.969 0.993 -5.5 0.993 -5.5 0.096 82.969
5735.75 0.099 82.84 0.993 -5.676 0.993 -5.676 0.099 82.84
5760.688 0.102 82.709 0.992 -5.852 0.992 -5.852 0.102 82.709
5785.625 0.105 82.576 0.992 -6.027 0.992 -6.027 0.105 82.576
5810.563 0.108 82.442 0.992 -6.201 0.992 -6.201 0.108 82.442
5835.5 0.111 82.305 0.991 -6.375 0.991 -6.375 0.111 82.305
5860.438 0.114 82.167 0.991 -6.548 0.991 -6.548 0.114 82.167
5885.375 0.117 82.029 0.991 -6.72 0.991 -6.72 0.117 82.029
5910.313 0.12 81.889 0.99 -6.891 0.99 -6.891 0.12 81.889
5935.25 0.123 81.748 0.99 -7.062 0.99 -7.062 0.123 81.748
5960.188 0.126 81.606 0.989 -7.232 0.989 -7.232 0.126 81.606
5985.125 0.129 81.464 0.989 -7.401 0.989 -7.401 0.129 81.464
6010.063 0.132 81.321 0.989 -7.57 0.989 -7.57 0.132 81.321
6035 0.135 81.177 0.988 -7.737 0.988 -7.737 0.135 81.177
6059.938 0.138 81.033 0.988 -7.905 0.988 -7.905 0.138 81.033
6084.875 0.14 80.889 0.988 -8.071 0.988 -8.071 0.14 80.889
6109.813 0.143 80.745 0.987 -8.237 0.987 -8.237 0.143 80.745
6134.75 0.146 80.6 0.987 -8.402 0.987 -8.402 0.146 80.6
6159.688 0.149 80.455 0.986 -8.566 0.986 -8.566 0.149 80.455
6184.625 0.152 80.31 0.986 -8.73 0.986 -8.73 0.152 80.31
6209.563 0.155 80.165 0.985 -8.893 0.985 -8.893 0.155 80.165
6234.5 0.157 80.019 0.985 -9.055 0.985 -9.055 0.157 80.019
6259.438 0.16 79.874 0.985 -9.217 0.985 -9.217 0.16 79.874
6284.375 0.163 79.729 0.984 -9.378 0.984 -9.378 0.163 79.729
6309.313 0.166 79.584 0.984 -9.539 0.984 -9.539 0.166 79.584
6334.25 0.168 79.439 0.983 -9.699 0.983 -9.699 0.168 79.439
6359.188 0.171 79.294 0.983 -9.858 0.983 -9.858 0.171 79.294
6384.125 0.174 79.149 0.982 -10.016 0.982 -10.016 0.174 79.149
6409.063 0.177 79.004 0.982 -10.174 0.982 -10.174 0.177 79.004
6434 0.179 78.859 0.981 -10.332 0.981 -10.332 0.179 78.859
6458.938 0.182 78.715 0.981 -10.488 0.981 -10.488 0.182 78.715
6483.875 0.185 78.571 0.98 -10.644 0.98 -10.644 0.185 78.571
6508.813 0.187 78.427 0.98 -10.8 0.98 -10.8 0.187 78.427
6533.75 0.19 78.283 0.979 -10.955 0.979 -10.955 0.19 78.283
6558.688 0.193 78.14 0.979 -11.109 0.979 -11.109 0.193 78.14
6583.625 0.195 77.997 0.978 -11.263 0.978 -11.263 0.195 77.997
6608.563 0.198 77.854 0.978 -11.416 0.978 -11.416 0.198 77.854
6633.5 0.201 77.711 0.977 -11.569 0.977 -11.569 0.201 77.711
6658.438 0.203 77.569 0.977 -11.721 0.977 -11.721 0.203 77.569
6683.375 0.206 77.427 0.976 -11.872 0.976 -11.872 0.206 77.427
6708.313 0.208 77.285 0.976 -12.023 0.976 -12.023 0.208 77.285
6733.25 0.211 77.143 0.975 -12.173 0.975 -12.173 0.211 77.143
6758.188 0.213 77.002 0.974 -12.323 0.974 -12.323 0.213 77.002
6783.125 0.216 76.861 0.974 -12.472 0.974 -12.472 0.216 76.861
6808.063 0.219 76.721 0.973 -12.62 0.973 -12.62 0.219 76.721
6833 0.221 76.581 0.973 -12.768 0.973 -12.768 0.221 76.581
6857.938 0.224 76.441 0.972 -12.916 0.972 -12.916 0.224 76.441
6882.875 0.226 76.302 0.972 -13.063 0.972 -13.063 0.226 76.302
6907.813 0.229 76.162 0.971 -13.209 0.971 -13.209 0.229 76.162
6932.75 0.231 76.024 0.97 -13.355 0.97 -13.355 0.231 76.024
6957.688 0.233 75.885 0.97 -13.5 0.97 -13.5 0.233 75.885
6982.625 0.236 75.747 0.969 -13.645 0.969 -13.645 0.236 75.747
7007.563 0.238 75.61 0.969 -13.79 0.969 -13.79 0.238 75.61
7032.5 0.241 75.472 0.968 -13.933 0.968 -13.933 0.241 75.472
7057.438 0.243 75.335 0.967 -14.077 0.967 -14.077 0.243 75.335
7082.375 0.246 75.199 0.967 -14.219 0.967 -14.219 0.246 75.199
7107.313 0.248 75.063 0.966 -14.361 0.966 -14.361 0.248 75.063
7132.25 0.25 74.927 0.966 -14.503 0.966 -14.503 0.25 74.927
7157.188 0.253 74.791 0.965 -14.644 0.965 -14.644 0.253 74.791
7182.125 0.255 74.656 0.964 -14.785 0.964 -14.785 0.255 74.656
7207.063 0.258 74.522 0.964 -14.925 0.964 -14.925 0.258 74.522
7232 0.26 74.387 0.963 -15.065 0.963 -15.065 0.26 74.387
7256.938 0.262 74.253 0.963 -15.204 0.963 -15.204 0.262 74.253
7281.875 0.265 74.12 0.962 -15.343 0.962 -15.343 0.265 74.12
7306.813 0.267 73.986 0.961 -15.481 0.961 -15.481 0.267 73.986
7331.75 0.269 73.854 0.961 -15.619 0.961 -15.619 0.269 73.854
7356.688 0.272 73.721 0.96 -15.756 0.96 -15.756 0.272 73.721
7381.625 0.274 73.589 0.959 -15.893 0.959 -15.893 0.274 73.589
7406.563 0.276 73.458 0.959 -16.029 0.959 -16.029 0.276 73.458
7431.5 0.278 73.326 0.958 -16.165 0.958 -16.165 0.278 73.326
7456.438 0.281 73.195 0.957 -16.3 0.957 -16.3 0.281 73.195
7481.375 0.283 73.065 0.957 -16.435 0.957 -16.435 0.283 73.065
7506.313 0.285 72.935 0.956 -16.57 0.956 -16.57 0.285 72.935
7531.25 0.287 72.805 0.955 -16.704 0.955 -16.704 0.287 72.805
7556.188 0.29 72.675 0.955 -16.837 0.955 -16.837 0.29 72.675
7581.125 0.292 72.546 0.954 -16.97 0.954 -16.97 0.292 72.546
7606.063 0.294 72.418 0.953 -17.103 0.953 -17.103 0.294 72.418
7631 0.296 72.29 0.953 -17.235 0.953 -17.235 0.296 72.29
7655.938 0.298 72.162 0.952 -17.367 0.952 -17.367 0.298 72.162
7680.875 0.301 72.034 0.951 -17.498 0.951 -17.498 0.301 72.034
7705.813 0.303 71.907 0.951 -17.629 0.951 -17.629 0.303 71.907
7730.75 0.305 71.78 0.95 -17.759 0.95 -17.759 0.305 71.78
7755.688 0.307 71.654 0.949 -17.889 0.949 -17.889 0.307 71.654
7780.625 0.309 71.528 0.949 -18.019 0.949 -18.019 0.309 71.528
7805.563 0.311 71.402 0.948 -18.148 0.948 -18.148 0.311 71.402
7830.5 0.314 71.277 0.947 -18.277 0.947 -18.277 0.314 71.277
7855.438 0.316 71.152 0.946 -18.405 0.946 -18.405 0.316 71.152
7880.375 0.318 71.027 0.946 -18.533 0.946 -18.533 0.318 71.027
7905.313 0.32 70.903 0.945 -18.66 0.945 -18.66 0.32 70.903
7930.25 0.322 70.779 0.944 -18.787 0.944 -18.787 0.322 70.779
7955.188 0.324 70.656 0.944 -18.914 0.944 -18.914 0.324 70.656
7980.125 0.326 70.533 0.943 -19.04 0.943 -19.04 0.326 70.533
8005.063 0.328 70.41 0.942 -19.165 0.942 -19.165 0.328 70.41
8030 0.33 70.288 0.941 -19.291 0.941 -19.291 0.33 70.288
8054.938 0.332 70.166 0.941 -19.416 0.941 -19.416 0.332 70.166
8079.875 0.334 70.044 0.94 -19.54 0.94 -19.54 0.334 70.044
