! AVX Thin Film Operation		Date: April 2012 
! Description: Accu-P® Series, Thin Film, SMD, RF Capacitor
! Part Number: 12101J150FBTTR					
!	100	MHz	-	10.05	GHz			
!	Serial	Measurements						
!								
#	MHZ	S	MA	R	50			
!	S11	S21	S12	S22				
!	dB	Phase	dB	Phase	dB	Phase	dB	Phase
100	0.725	-43.473	0.688	46.478	0.688	46.478	0.725	-43.473
109.812	0.692	-46.188	0.722	43.758	0.722	43.758	0.692	-46.188
119.623	0.66	-48.669	0.751	41.272	0.751	41.272	0.66	-48.669
129.435	0.629	-50.936	0.776	39	0.776	39	0.629	-50.936
139.247	0.601	-53.011	0.799	36.921	0.799	36.921	0.601	-53.011
149.058	0.574	-54.912	0.818	35.014	0.818	35.014	0.574	-54.912
158.87	0.548	-56.658	0.835	33.263	0.835	33.263	0.548	-56.658
168.682	0.525	-58.265	0.85	31.652	0.85	31.652	0.525	-58.265
178.494	0.502	-59.746	0.864	30.165	0.864	30.165	0.502	-59.746
188.305	0.482	-61.115	0.876	28.792	0.876	28.792	0.482	-61.115
198.117	0.462	-62.382	0.886	27.519	0.886	27.519	0.462	-62.382
207.929	0.444	-63.559	0.895	26.337	0.895	26.337	0.444	-63.559
217.74	0.426	-64.653	0.904	25.238	0.904	25.238	0.426	-64.653
227.552	0.41	-65.673	0.911	24.212	0.911	24.212	0.41	-65.673
237.364	0.395	-66.626	0.918	23.254	0.918	23.254	0.395	-66.626
247.175	0.38	-67.518	0.924	22.357	0.924	22.357	0.38	-67.518
256.987	0.367	-68.354	0.929	21.515	0.929	21.515	0.367	-68.354
266.799	0.354	-69.139	0.934	20.724	0.934	20.724	0.354	-69.139
276.611	0.342	-69.879	0.939	19.979	0.939	19.979	0.342	-69.879
286.422	0.33	-70.576	0.943	19.277	0.943	19.277	0.33	-70.576
296.234	0.319	-71.235	0.947	18.612	0.947	18.612	0.319	-71.235
306.046	0.309	-71.857	0.95	17.984	0.95	17.984	0.309	-71.857
315.857	0.299	-72.447	0.953	17.388	0.953	17.388	0.299	-72.447
325.669	0.289	-73.007	0.956	16.822	0.956	16.822	0.289	-73.007
335.481	0.28	-73.539	0.959	16.284	0.959	16.284	0.28	-73.539
345.292	0.272	-74.045	0.961	15.772	0.961	15.772	0.272	-74.045
355.104	0.264	-74.528	0.964	15.284	0.964	15.284	0.264	-74.528
364.916	0.256	-74.988	0.966	14.818	0.966	14.818	0.256	-74.988
374.727	0.248	-75.427	0.968	14.372	0.968	14.372	0.248	-75.427
384.539	0.241	-75.847	0.97	13.946	0.97	13.946	0.241	-75.847
394.351	0.234	-76.249	0.971	13.537	0.971	13.537	0.234	-76.249
404.163	0.227	-76.634	0.973	13.145	0.973	13.145	0.227	-76.634
413.974	0.221	-77.004	0.974	12.769	0.974	12.769	0.221	-77.004
423.786	0.215	-77.358	0.976	12.407	0.976	12.407	0.215	-77.358
433.598	0.209	-77.699	0.977	12.059	0.977	12.059	0.209	-77.699
443.409	0.203	-78.027	0.978	11.724	0.978	11.724	0.203	-78.027
453.221	0.198	-78.343	0.979	11.401	0.979	11.401	0.198	-78.343
463.033	0.192	-78.647	0.98	11.09	0.98	11.09	0.192	-78.647
472.844	0.187	-78.941	0.981	10.789	0.981	10.789	0.187	-78.941
482.656	0.182	-79.224	0.982	10.498	0.982	10.498	0.182	-79.224
492.468	0.177	-79.498	0.983	10.217	0.983	10.217	0.177	-79.498
502.279	0.173	-79.762	0.984	9.944	0.984	9.944	0.173	-79.762
512.091	0.168	-80.017	0.985	9.68	0.985	9.68	0.168	-80.017
521.903	0.164	-80.265	0.986	9.425	0.986	9.425	0.164	-80.265
531.715	0.159	-80.504	0.986	9.177	0.986	9.177	0.159	-80.504
541.526	0.155	-80.736	0.987	8.936	0.987	8.936	0.155	-80.736
551.338	0.151	-80.962	0.988	8.702	0.988	8.702	0.151	-80.962
561.15	0.147	-81.18	0.988	8.474	0.988	8.474	0.147	-81.18
570.961	0.144	-81.392	0.989	8.253	0.989	8.253	0.144	-81.392
580.773	0.14	-81.597	0.989	8.038	0.989	8.038	0.14	-81.597
590.585	0.136	-81.797	0.99	7.828	0.99	7.828	0.136	-81.797
600.396	0.133	-81.991	0.99	7.624	0.99	7.624	0.133	-81.991
610.208	0.129	-82.18	0.991	7.425	0.991	7.425	0.129	-82.18
620.02	0.126	-82.363	0.991	7.23	0.991	7.23	0.126	-82.363
629.832	0.123	-82.542	0.992	7.041	0.992	7.041	0.123	-82.542
639.643	0.119	-82.716	0.992	6.856	0.992	6.856	0.119	-82.716
649.455	0.116	-82.885	0.992	6.675	0.992	6.675	0.116	-82.885
659.267	0.113	-83.05	0.993	6.498	0.993	6.498	0.113	-83.05
669.078	0.11	-83.21	0.993	6.325	0.993	6.325	0.11	-83.21
678.89	0.107	-83.366	0.993	6.156	0.993	6.156	0.107	-83.366
688.702	0.104	-83.519	0.994	5.99	0.994	5.99	0.104	-83.519
698.513	0.102	-83.667	0.994	5.828	0.994	5.828	0.102	-83.667
708.325	0.099	-83.812	0.994	5.669	0.994	5.669	0.099	-83.812
718.137	0.096	-83.953	0.994	5.514	0.994	5.514	0.096	-83.953
727.948	0.093	-84.09	0.995	5.361	0.995	5.361	0.093	-84.09
737.76	0.091	-84.224	0.995	5.211	0.995	5.211	0.091	-84.224
747.572	0.088	-84.354	0.995	5.065	0.995	5.065	0.088	-84.354
757.384	0.086	-84.481	0.995	4.92	0.995	4.92	0.086	-84.481
767.195	0.083	-84.605	0.996	4.779	0.996	4.779	0.083	-84.605
777.007	0.081	-84.725	0.996	4.64	0.996	4.64	0.081	-84.725
786.819	0.079	-84.843	0.996	4.503	0.996	4.503	0.079	-84.843
796.63	0.076	-84.957	0.996	4.369	0.996	4.369	0.076	-84.957
806.442	0.074	-85.068	0.996	4.237	0.996	4.237	0.074	-85.068
816.254	0.072	-85.175	0.997	4.107	0.997	4.107	0.072	-85.175
826.065	0.069	-85.28	0.997	3.979	0.997	3.979	0.069	-85.28
835.877	0.067	-85.381	0.997	3.854	0.997	3.854	0.067	-85.381
845.689	0.065	-85.48	0.997	3.73	0.997	3.73	0.065	-85.48
855.5	0.063	-85.575	0.997	3.608	0.997	3.608	0.063	-85.575
865.312	0.061	-85.667	0.997	3.488	0.997	3.488	0.061	-85.667
875.124	0.059	-85.755	0.997	3.37	0.997	3.37	0.059	-85.755
884.936	0.057	-85.84	0.997	3.253	0.997	3.253	0.057	-85.84
894.747	0.055	-85.922	0.998	3.138	0.998	3.138	0.055	-85.922
904.559	0.053	-86	0.998	3.025	0.998	3.025	0.053	-86
914.371	0.051	-86.074	0.998	2.913	0.998	2.913	0.051	-86.074
924.182	0.049	-86.145	0.998	2.803	0.998	2.803	0.049	-86.145
933.994	0.047	-86.211	0.998	2.694	0.998	2.694	0.047	-86.211
943.806	0.045	-86.273	0.998	2.587	0.998	2.587	0.045	-86.273
953.617	0.043	-86.33	0.998	2.481	0.998	2.481	0.043	-86.33
963.429	0.041	-86.382	0.998	2.376	0.998	2.376	0.041	-86.382
973.241	0.04	-86.429	0.998	2.273	0.998	2.273	0.04	-86.429
983.053	0.038	-86.47	0.998	2.171	0.998	2.171	0.038	-86.47
992.864	0.036	-86.505	0.998	2.07	0.998	2.07	0.036	-86.505
1002.676	0.034	-86.532	0.999	1.97	0.999	1.97	0.034	-86.532
1012.488	0.033	-86.552	0.999	1.872	0.999	1.872	0.033	-86.552
1022.299	0.031	-86.563	0.999	1.774	0.999	1.774	0.031	-86.563
1032.111	0.029	-86.564	0.999	1.678	0.999	1.678	0.029	-86.564
1041.923	0.028	-86.553	0.999	1.582	0.999	1.582	0.028	-86.553
1051.734	0.026	-86.529	0.999	1.488	0.999	1.488	0.026	-86.529
1061.546	0.024	-86.49	0.999	1.395	0.999	1.395	0.024	-86.49
1071.358	0.023	-86.432	0.999	1.302	0.999	1.302	0.023	-86.432
1081.169	0.021	-86.353	0.999	1.211	0.999	1.211	0.021	-86.353
1090.981	0.02	-86.247	0.999	1.12	0.999	1.12	0.02	-86.247
1100.793	0.018	-86.108	0.999	1.031	0.999	1.031	0.018	-86.108
1110.605	0.016	-85.928	0.999	0.942	0.999	0.942	0.016	-85.928
1120.416	0.015	-85.694	0.999	0.854	0.999	0.854	0.015	-85.694
1130.228	0.013	-85.391	0.999	0.767	0.999	0.767	0.013	-85.391
1140.04	0.012	-84.992	0.999	0.681	0.999	0.681	0.012	-84.992
1149.851	0.01	-84.46	0.999	0.596	0.999	0.596	0.01	-84.46
1159.663	8.96E-03	-83.731	0.999	0.511	0.999	0.511	8.96E-03	-83.731
1169.475	7.51E-03	-82.693	0.999	0.427	0.999	0.427	7.51E-03	-82.693
1179.286	6.07E-03	-81.133	0.999	0.344	0.999	0.344	6.07E-03	-81.133
1189.098	4.65E-03	-78.585	0.999	0.261	0.999	0.261	4.65E-03	-78.585
1198.91	3.26E-03	-73.808	0.999	0.18	0.999	0.18	3.26E-03	-73.808
1208.722	1.94E-03	-62.273	0.999	0.098	0.999	0.098	1.94E-03	-62.273
1218.533	9.53E-04	-19.234	0.999	0.018	0.999	0.018	9.53E-04	-19.234
1228.345	1.40E-03	50.121	0.999	-0.062	0.999	-0.062	1.40E-03	50.121
1238.157	2.62E-03	69.782	0.999	-0.141	0.999	-0.141	2.62E-03	69.782
1247.968	3.94E-03	76.571	0.999	-0.22	0.999	-0.22	3.94E-03	76.571
1257.78	5.27E-03	79.876	0.999	-0.297	0.999	-0.297	5.27E-03	79.876
1267.592	6.60E-03	81.798	0.999	-0.375	0.999	-0.375	6.60E-03	81.798
1277.403	7.93E-03	83.04	0.999	-0.452	0.999	-0.452	7.93E-03	83.04
1287.215	9.26E-03	83.897	0.999	-0.528	0.999	-0.528	9.26E-03	83.897
1297.027	0.011	84.517	0.999	-0.604	0.999	-0.604	0.011	84.517
1306.838	0.012	84.98	0.999	-0.679	0.999	-0.679	0.012	84.98
1316.65	0.013	85.334	0.999	-0.753	0.999	-0.753	0.013	85.334
1326.462	0.014	85.609	0.999	-0.827	0.999	-0.827	0.014	85.609
1336.274	0.016	85.826	0.999	-0.901	0.999	-0.901	0.016	85.826
1346.085	0.017	85.998	0.999	-0.974	0.999	-0.974	0.017	85.998
1355.897	0.018	86.135	0.999	-1.047	0.999	-1.047	0.018	86.135
1365.709	0.02	86.245	0.999	-1.119	0.999	-1.119	0.02	86.245
1375.52	0.021	86.331	0.999	-1.191	0.999	-1.191	0.021	86.331
1385.332	0.022	86.4	0.999	-1.262	0.999	-1.262	0.022	86.4
1395.144	0.023	86.453	0.999	-1.333	0.999	-1.333	0.023	86.453
1404.955	0.024	86.494	0.999	-1.403	0.999	-1.403	0.024	86.494
1414.767	0.026	86.524	0.999	-1.473	0.999	-1.473	0.026	86.524
1424.579	0.027	86.545	0.999	-1.542	0.999	-1.542	0.027	86.545
1434.39	0.028	86.557	0.999	-1.611	0.999	-1.611	0.028	86.557
1444.202	0.029	86.564	0.999	-1.68	0.999	-1.68	0.029	86.564
1454.014	0.031	86.564	0.999	-1.748	0.999	-1.748	0.031	86.564
1463.826	0.032	86.559	0.999	-1.816	0.999	-1.816	0.032	86.559
1473.637	0.033	86.55	0.999	-1.884	0.999	-1.884	0.033	86.55
1483.449	0.034	86.537	0.999	-1.951	0.999	-1.951	0.034	86.537
1493.261	0.035	86.52	0.998	-2.018	0.998	-2.018	0.035	86.52
1503.072	0.036	86.5	0.998	-2.084	0.998	-2.084	0.036	86.5
1512.884	0.038	86.477	0.998	-2.151	0.998	-2.151	0.038	86.477
1522.696	0.039	86.452	0.998	-2.216	0.998	-2.216	0.039	86.452
1532.507	0.04	86.425	0.998	-2.282	0.998	-2.282	0.04	86.425
1542.319	0.041	86.396	0.998	-2.347	0.998	-2.347	0.041	86.396
1552.131	0.042	86.365	0.998	-2.412	0.998	-2.412	0.042	86.365
1561.943	0.043	86.332	0.998	-2.476	0.998	-2.476	0.043	86.332
1571.754	0.044	86.298	0.998	-2.54	0.998	-2.54	0.044	86.298
1581.566	0.045	86.263	0.998	-2.604	0.998	-2.604	0.045	86.263
1591.378	0.047	86.227	0.998	-2.668	0.998	-2.668	0.047	86.227
1601.189	0.048	86.189	0.998	-2.731	0.998	-2.731	0.048	86.189
1611.001	0.049	86.15	0.998	-2.794	0.998	-2.794	0.049	86.15
1620.813	0.05	86.111	0.998	-2.856	0.998	-2.856	0.05	86.111
1630.624	0.051	86.071	0.998	-2.919	0.998	-2.919	0.051	86.071
1640.436	0.052	86.03	0.998	-2.981	0.998	-2.981	0.052	86.03
1650.248	0.053	85.988	0.998	-3.043	0.998	-3.043	0.053	85.988
1660.059	0.054	85.946	0.998	-3.104	0.998	-3.104	0.054	85.946
1669.871	0.055	85.903	0.998	-3.166	0.998	-3.166	0.055	85.903
1679.683	0.056	85.859	0.998	-3.227	0.998	-3.227	0.056	85.859
1689.495	0.057	85.816	0.997	-3.287	0.997	-3.287	0.057	85.816
1699.306	0.058	85.771	0.997	-3.348	0.997	-3.348	0.058	85.771
1709.118	0.059	85.727	0.997	-3.408	0.997	-3.408	0.059	85.727
1718.93	0.061	85.682	0.997	-3.468	0.997	-3.468	0.061	85.682
1728.741	0.062	85.636	0.997	-3.528	0.997	-3.528	0.062	85.636
1738.553	0.063	85.59	0.997	-3.588	0.997	-3.588	0.063	85.59
1748.365	0.064	85.545	0.997	-3.647	0.997	-3.647	0.064	85.545
1758.176	0.065	85.498	0.997	-3.706	0.997	-3.706	0.065	85.498
1767.988	0.066	85.452	0.997	-3.765	0.997	-3.765	0.066	85.452
1777.8	0.067	85.405	0.997	-3.824	0.997	-3.824	0.067	85.405
1787.611	0.068	85.358	0.997	-3.882	0.997	-3.882	0.068	85.358
1797.423	0.069	85.311	0.997	-3.941	0.997	-3.941	0.069	85.311
1807.235	0.07	85.264	0.997	-3.999	0.997	-3.999	0.07	85.264
1817.047	0.071	85.217	0.997	-4.056	0.997	-4.056	0.071	85.217
1826.858	0.072	85.169	0.997	-4.114	0.997	-4.114	0.072	85.169
1836.67	0.073	85.122	0.996	-4.172	0.996	-4.172	0.073	85.122
1846.482	0.074	85.074	0.996	-4.229	0.996	-4.229	0.074	85.074
1856.293	0.075	85.027	0.996	-4.286	0.996	-4.286	0.075	85.027
1866.105	0.076	84.979	0.996	-4.343	0.996	-4.343	0.076	84.979
1875.917	0.077	84.931	0.996	-4.399	0.996	-4.399	0.077	84.931
1885.728	0.078	84.883	0.996	-4.456	0.996	-4.456	0.078	84.883
1895.54	0.079	84.835	0.996	-4.512	0.996	-4.512	0.079	84.835
1905.352	0.08	84.787	0.996	-4.568	0.996	-4.568	0.08	84.787
1915.164	0.081	84.739	0.996	-4.624	0.996	-4.624	0.081	84.739
1924.975	0.082	84.69	0.996	-4.68	0.996	-4.68	0.082	84.69
1934.787	0.083	84.642	0.996	-4.736	0.996	-4.736	0.083	84.642
1944.599	0.084	84.594	0.996	-4.791	0.996	-4.791	0.084	84.594
1954.41	0.084	84.546	0.996	-4.846	0.996	-4.846	0.084	84.546
1964.222	0.085	84.498	0.995	-4.902	0.995	-4.902	0.085	84.498
1974.034	0.086	84.449	0.995	-4.957	0.995	-4.957	0.086	84.449
1983.845	0.087	84.401	0.995	-5.011	0.995	-5.011	0.087	84.401
1993.657	0.088	84.353	0.995	-5.066	0.995	-5.066	0.088	84.353
2003.469	0.089	84.304	0.995	-5.12	0.995	-5.12	0.089	84.304
2013.28	0.09	84.256	0.995	-5.175	0.995	-5.175	0.09	84.256
2023.092	0.091	84.208	0.995	-5.229	0.995	-5.229	0.091	84.208
2032.904	0.092	84.16	0.995	-5.283	0.995	-5.283	0.092	84.16
2042.716	0.093	84.112	0.995	-5.337	0.995	-5.337	0.093	84.112
2052.527	0.094	84.063	0.995	-5.391	0.995	-5.391	0.094	84.063
2062.339	0.095	84.015	0.995	-5.444	0.995	-5.444	0.095	84.015
2072.151	0.096	83.967	0.995	-5.498	0.995	-5.498	0.096	83.967
2081.962	0.097	83.919	0.994	-5.551	0.994	-5.551	0.097	83.919
2091.774	0.098	83.871	0.994	-5.604	0.994	-5.604	0.098	83.871
2101.586	0.099	83.823	0.994	-5.657	0.994	-5.657	0.099	83.823
2111.397	0.099	83.775	0.994	-5.71	0.994	-5.71	0.099	83.775
2121.209	0.1	83.727	0.994	-5.763	0.994	-5.763	0.1	83.727
2131.021	0.101	83.679	0.994	-5.815	0.994	-5.815	0.101	83.679
2140.833	0.102	83.631	0.994	-5.868	0.994	-5.868	0.102	83.631
2150.644	0.103	83.583	0.994	-5.92	0.994	-5.92	0.103	83.583
2160.456	0.104	83.535	0.994	-5.973	0.994	-5.973	0.104	83.535
2170.268	0.105	83.487	0.994	-6.025	0.994	-6.025	0.105	83.487
2180.079	0.106	83.439	0.993	-6.077	0.993	-6.077	0.106	83.439
2189.891	0.107	83.392	0.993	-6.129	0.993	-6.129	0.107	83.392
2199.703	0.108	83.344	0.993	-6.18	0.993	-6.18	0.108	83.344
2209.514	0.109	83.296	0.993	-6.232	0.993	-6.232	0.109	83.296
2219.326	0.109	83.249	0.993	-6.283	0.993	-6.283	0.109	83.249
2229.138	0.11	83.201	0.993	-6.335	0.993	-6.335	0.11	83.201
2238.949	0.111	83.153	0.993	-6.386	0.993	-6.386	0.111	83.153
2248.761	0.112	83.106	0.993	-6.437	0.993	-6.437	0.112	83.106
2258.573	0.113	83.058	0.993	-6.488	0.993	-6.488	0.113	83.058
2268.385	0.114	83.011	0.993	-6.539	0.993	-6.539	0.114	83.011
2278.196	0.115	82.964	0.992	-6.59	0.992	-6.59	0.115	82.964
2288.008	0.116	82.916	0.992	-6.641	0.992	-6.641	0.116	82.916
2297.82	0.117	82.869	0.992	-6.692	0.992	-6.692	0.117	82.869
2307.631	0.117	82.822	0.992	-6.742	0.992	-6.742	0.117	82.822
2317.443	0.118	82.775	0.992	-6.793	0.992	-6.793	0.118	82.775
2327.255	0.119	82.728	0.992	-6.843	0.992	-6.843	0.119	82.728
2337.066	0.12	82.681	0.992	-6.893	0.992	-6.893	0.12	82.681
2346.878	0.121	82.634	0.992	-6.943	0.992	-6.943	0.121	82.634
2356.69	0.122	82.587	0.992	-6.993	0.992	-6.993	0.122	82.587
2366.501	0.123	82.54	0.992	-7.043	0.992	-7.043	0.123	82.54
2376.313	0.123	82.493	0.991	-7.093	0.991	-7.093	0.123	82.493
2386.125	0.124	82.446	0.991	-7.143	0.991	-7.143	0.124	82.446
2395.937	0.125	82.399	0.991	-7.192	0.991	-7.192	0.125	82.399
2405.748	0.126	82.353	0.991	-7.242	0.991	-7.242	0.126	82.353
2415.56	0.127	82.306	0.991	-7.291	0.991	-7.291	0.127	82.306
2425.372	0.128	82.259	0.991	-7.341	0.991	-7.341	0.128	82.259
2435.183	0.129	82.213	0.991	-7.39	0.991	-7.39	0.129	82.213
2444.995	0.129	82.166	0.991	-7.439	0.991	-7.439	0.129	82.166
2454.807	0.13	82.12	0.991	-7.488	0.991	-7.488	0.13	82.12
2464.618	0.131	82.073	0.99	-7.537	0.99	-7.537	0.131	82.073
2474.43	0.132	82.027	0.99	-7.586	0.99	-7.586	0.132	82.027
2484.242	0.133	81.981	0.99	-7.635	0.99	-7.635	0.133	81.981
2494.054	0.134	81.934	0.99	-7.684	0.99	-7.684	0.134	81.934
2503.865	0.135	81.888	0.99	-7.732	0.99	-7.732	0.135	81.888
2513.677	0.135	81.842	0.99	-7.781	0.99	-7.781	0.135	81.842
2523.489	0.136	81.796	0.99	-7.829	0.99	-7.829	0.136	81.796
2533.3	0.137	81.75	0.99	-7.878	0.99	-7.878	0.137	81.75
2543.112	0.138	81.704	0.99	-7.926	0.99	-7.926	0.138	81.704
2552.924	0.139	81.658	0.989	-7.974	0.989	-7.974	0.139	81.658
2562.735	0.14	81.612	0.989	-8.022	0.989	-8.022	0.14	81.612
2572.547	0.14	81.566	0.989	-8.07	0.989	-8.07	0.14	81.566
2582.359	0.141	81.52	0.989	-8.118	0.989	-8.118	0.141	81.52
2592.17	0.142	81.475	0.989	-8.166	0.989	-8.166	0.142	81.475
2601.982	0.143	81.429	0.989	-8.214	0.989	-8.214	0.143	81.429
2611.794	0.144	81.383	0.989	-8.262	0.989	-8.262	0.144	81.383
2621.606	0.145	81.338	0.989	-8.31	0.989	-8.31	0.145	81.338
2631.417	0.145	81.292	0.988	-8.357	0.988	-8.357	0.145	81.292
2641.229	0.146	81.246	0.988	-8.405	0.988	-8.405	0.146	81.246
2651.041	0.147	81.201	0.988	-8.452	0.988	-8.452	0.147	81.201
2660.852	0.148	81.156	0.988	-8.5	0.988	-8.5	0.148	81.156
2670.664	0.149	81.11	0.988	-8.547	0.988	-8.547	0.149	81.11
2680.476	0.149	81.065	0.988	-8.594	0.988	-8.594	0.149	81.065
2690.287	0.15	81.02	0.988	-8.641	0.988	-8.641	0.15	81.02
2700.099	0.151	80.974	0.988	-8.688	0.988	-8.688	0.151	80.974
2709.911	0.152	80.929	0.988	-8.735	0.988	-8.735	0.152	80.929
2719.722	0.153	80.884	0.987	-8.782	0.987	-8.782	0.153	80.884
2729.534	0.153	80.839	0.987	-8.829	0.987	-8.829	0.153	80.839
2739.346	0.154	80.794	0.987	-8.876	0.987	-8.876	0.154	80.794
2749.158	0.155	80.749	0.987	-8.923	0.987	-8.923	0.155	80.749
2758.969	0.156	80.704	0.987	-8.97	0.987	-8.97	0.156	80.704
2768.781	0.157	80.659	0.987	-9.016	0.987	-9.016	0.157	80.659
2778.593	0.158	80.614	0.987	-9.063	0.987	-9.063	0.158	80.614
2788.404	0.158	80.569	0.987	-9.109	0.987	-9.109	0.158	80.569
2798.216	0.159	80.525	0.986	-9.156	0.986	-9.156	0.159	80.525
2808.028	0.16	80.48	0.986	-9.202	0.986	-9.202	0.16	80.48
2817.839	0.161	80.435	0.986	-9.248	0.986	-9.248	0.161	80.435
2827.651	0.162	80.391	0.986	-9.295	0.986	-9.295	0.162	80.391
2837.463	0.162	80.346	0.986	-9.341	0.986	-9.341	0.162	80.346
2847.275	0.163	80.301	0.986	-9.387	0.986	-9.387	0.163	80.301
2857.086	0.164	80.257	0.986	-9.433	0.986	-9.433	0.164	80.257
2866.898	0.165	80.212	0.985	-9.479	0.985	-9.479	0.165	80.212
2876.71	0.165	80.168	0.985	-9.525	0.985	-9.525	0.165	80.168
2886.521	0.166	80.124	0.985	-9.571	0.985	-9.571	0.166	80.124
2896.333	0.167	80.079	0.985	-9.617	0.985	-9.617	0.167	80.079
2906.145	0.168	80.035	0.985	-9.662	0.985	-9.662	0.168	80.035
2915.956	0.169	79.991	0.985	-9.708	0.985	-9.708	0.169	79.991
2925.768	0.169	79.947	0.985	-9.754	0.985	-9.754	0.169	79.947
2935.58	0.17	79.902	0.985	-9.799	0.985	-9.799	0.17	79.902
2945.391	0.171	79.858	0.984	-9.845	0.984	-9.845	0.171	79.858
2955.203	0.172	79.814	0.984	-9.89	0.984	-9.89	0.172	79.814
2965.015	0.173	79.77	0.984	-9.936	0.984	-9.936	0.173	79.77
2974.827	0.173	79.726	0.984	-9.981	0.984	-9.981	0.173	79.726
2984.638	0.174	79.682	0.984	-10.026	0.984	-10.026	0.174	79.682
2994.45	0.175	79.638	0.984	-10.071	0.984	-10.071	0.175	79.638
3004.262	0.176	79.595	0.984	-10.117	0.984	-10.117	0.176	79.595
3014.073	0.176	79.551	0.983	-10.162	0.983	-10.162	0.176	79.551
3023.885	0.177	79.507	0.983	-10.207	0.983	-10.207	0.177	79.507
3033.697	0.178	79.463	0.983	-10.252	0.983	-10.252	0.178	79.463
3043.508	0.179	79.42	0.983	-10.297	0.983	-10.297	0.179	79.42
3053.32	0.18	79.376	0.983	-10.342	0.983	-10.342	0.18	79.376
3063.132	0.18	79.332	0.983	-10.387	0.983	-10.387	0.18	79.332
3072.944	0.181	79.289	0.983	-10.431	0.983	-10.431	0.181	79.289
3082.755	0.182	79.245	0.982	-10.476	0.982	-10.476	0.182	79.245
3092.567	0.183	79.202	0.982	-10.521	0.982	-10.521	0.183	79.202
3102.379	0.183	79.158	0.982	-10.566	0.982	-10.566	0.183	79.158
3112.19	0.184	79.115	0.982	-10.61	0.982	-10.61	0.184	79.115
3122.002	0.185	79.071	0.982	-10.655	0.982	-10.655	0.185	79.071
3131.814	0.186	79.028	0.982	-10.699	0.982	-10.699	0.186	79.028
3141.625	0.186	78.985	0.982	-10.744	0.982	-10.744	0.186	78.985
3151.437	0.187	78.941	0.981	-10.788	0.981	-10.788	0.187	78.941
3161.249	0.188	78.898	0.981	-10.832	0.981	-10.832	0.188	78.898
3171.06	0.189	78.855	0.981	-10.877	0.981	-10.877	0.189	78.855
3180.872	0.189	78.812	0.981	-10.921	0.981	-10.921	0.189	78.812
3190.684	0.19	78.769	0.981	-10.965	0.981	-10.965	0.19	78.769
3200.496	0.191	78.726	0.981	-11.009	0.981	-11.009	0.191	78.726
3210.307	0.192	78.683	0.981	-11.053	0.981	-11.053	0.192	78.683
3220.119	0.192	78.64	0.98	-11.098	0.98	-11.098	0.192	78.64
3229.931	0.193	78.597	0.98	-11.142	0.98	-11.142	0.193	78.597
3239.742	0.194	78.554	0.98	-11.186	0.98	-11.186	0.194	78.554
3249.554	0.195	78.511	0.98	-11.229	0.98	-11.229	0.195	78.511
3259.366	0.195	78.468	0.98	-11.273	0.98	-11.273	0.195	78.468
3269.177	0.196	78.425	0.98	-11.317	0.98	-11.317	0.196	78.425
3278.989	0.197	78.383	0.98	-11.361	0.98	-11.361	0.197	78.383
