! AVX Thin Film Operation		Date: April 2012 
! Description: Accu-P® Series, Thin Film, SMD, RF Capacitor
! Part Number: 12101J1R1PBTTR					
!	100	MHz	-	20.05	GHz			
!	Serial	Measurements						
!								
#	MHZ	S	MA	R	50			
!	S11	S21	S12	S22				
!	dB	Phase	dB	Phase	dB	Phase	dB	Phase
50 0.999 -1.979 0.035 87.954 0.035 87.954 0.999 -1.979
100 0.998 -3.955 0.069 85.969 0.069 85.969 0.998 -3.955
150 0.995 -5.924 0.103 83.99 0.103 83.99 0.995 -5.924
200 0.99 -7.883 0.137 82.022 0.137 82.022 0.99 -7.883
250 0.985 -9.828 0.171 80.067 0.171 80.067 0.985 -9.828
300 0.979 -11.757 0.204 78.129 0.204 78.129 0.979 -11.757
350 0.971 -13.666 0.236 76.21 0.236 76.21 0.971 -13.666
400 0.963 -15.554 0.268 74.312 0.268 74.312 0.963 -15.554
450 0.953 -17.417 0.299 72.439 0.299 72.439 0.953 -17.417
500 0.943 -19.254 0.33 70.593 0.33 70.593 0.943 -19.254
550 0.932 -21.062 0.359 68.774 0.359 68.774 0.932 -21.062
600 0.92 -22.84 0.388 66.987 0.388 66.987 0.92 -22.84
650 0.908 -24.586 0.416 65.23 0.416 65.23 0.908 -24.586
700 0.895 -26.299 0.443 63.507 0.443 63.507 0.895 -26.299
750 0.881 -27.977 0.469 61.818 0.469 61.818 0.881 -27.977
800 0.867 -29.622 0.494 60.163 0.494 60.163 0.867 -29.622
850 0.853 -31.23 0.518 58.543 0.518 58.543 0.853 -31.23
900 0.838 -32.803 0.542 56.96 0.542 56.96 0.838 -32.803
950 0.823 -34.34 0.564 55.412 0.564 55.412 0.823 -34.34
1000 0.808 -35.841 0.586 53.899 0.586 53.899 0.808 -35.841
1050 0.793 -37.306 0.606 52.423 0.606 52.423 0.793 -37.306
1100 0.777 -38.736 0.626 50.982 0.626 50.982 0.777 -38.736
1150 0.761 -40.13 0.645 49.576 0.645 49.576 0.761 -40.13
1200 0.746 -41.489 0.662 48.204 0.662 48.204 0.746 -41.489
1250 0.73 -42.814 0.68 46.867 0.68 46.867 0.73 -42.814
1300 0.714 -44.106 0.696 45.563 0.696 45.563 0.714 -44.106
1350 0.698 -45.364 0.712 44.291 0.712 44.291 0.698 -45.364
1400 0.683 -46.59 0.726 43.052 0.726 43.052 0.683 -46.59
1450 0.667 -47.785 0.741 41.844 0.741 41.844 0.667 -47.785
1500 0.652 -48.949 0.754 40.666 0.754 40.666 0.652 -48.949
1550 0.636 -50.083 0.767 39.518 0.767 39.518 0.636 -50.083
1600 0.621 -51.188 0.779 38.399 0.779 38.399 0.621 -51.188
1650 0.606 -52.265 0.791 37.307 0.791 37.307 0.606 -52.265
1700 0.591 -53.314 0.802 36.243 0.802 36.243 0.591 -53.314
1750 0.577 -54.336 0.812 35.205 0.812 35.205 0.577 -54.336
1800 0.562 -55.333 0.823 34.192 0.823 34.192 0.562 -55.333
1850 0.548 -56.305 0.832 33.204 0.832 33.204 0.548 -56.305
1900 0.533 -57.253 0.841 32.239 0.841 32.239 0.533 -57.253
1950 0.52 -58.177 0.85 31.298 0.85 31.298 0.52 -58.177
2000 0.506 -59.078 0.858 30.378 0.858 30.378 0.506 -59.078
2050 0.492 -59.957 0.866 29.48 0.866 29.48 0.492 -59.957
2100 0.479 -60.815 0.873 28.603 0.873 28.603 0.479 -60.815
2150 0.466 -61.653 0.88 27.745 0.88 27.745 0.466 -61.653
2200 0.453 -62.47 0.887 26.907 0.887 26.907 0.453 -62.47
2250 0.44 -63.269 0.893 26.088 0.893 26.088 0.44 -63.269
2300 0.427 -64.048 0.899 25.286 0.899 25.286 0.427 -64.048
2350 0.415 -64.809 0.905 24.502 0.905 24.502 0.415 -64.809
2400 0.403 -65.553 0.91 23.734 0.91 23.734 0.403 -65.553
2450 0.39 -66.279 0.916 22.983 0.916 22.983 0.39 -66.279
2500 0.379 -66.989 0.921 22.247 0.921 22.247 0.379 -66.989
2550 0.367 -67.683 0.925 21.526 0.925 21.526 0.367 -67.683
2600 0.355 -68.361 0.93 20.819 0.93 20.819 0.355 -68.361
2650 0.344 -69.024 0.934 20.127 0.934 20.127 0.344 -69.024
2700 0.333 -69.672 0.938 19.448 0.938 19.448 0.333 -69.672
2750 0.322 -70.305 0.942 18.782 0.942 18.782 0.322 -70.305
2800 0.311 -70.924 0.945 18.128 0.945 18.128 0.311 -70.924
2850 0.301 -71.529 0.949 17.487 0.949 17.487 0.301 -71.529
2900 0.29 -72.121 0.952 16.858 0.952 16.858 0.29 -72.121
2950 0.28 -72.699 0.955 16.24 0.955 16.24 0.28 -72.699
3000 0.27 -73.263 0.958 15.633 0.958 15.633 0.27 -73.263
3050 0.259 -73.815 0.961 15.036 0.961 15.036 0.259 -73.815
3100 0.25 -74.353 0.963 14.45 0.963 14.45 0.25 -74.353
3150 0.24 -74.879 0.966 13.874 0.966 13.874 0.24 -74.879
3200 0.23 -75.391 0.968 13.307 0.968 13.307 0.23 -75.391
3250 0.221 -75.89 0.97 12.75 0.97 12.75 0.221 -75.89
3300 0.211 -76.377 0.972 12.201 0.972 12.201 0.211 -76.377
3350 0.202 -76.849 0.974 11.662 0.974 11.662 0.202 -76.849
3400 0.193 -77.308 0.976 11.13 0.976 11.13 0.193 -77.308
3450 0.184 -77.753 0.978 10.607 0.978 10.607 0.184 -77.753
3500 0.175 -78.184 0.979 10.092 0.979 10.092 0.175 -78.184
3550 0.167 -78.599 0.981 9.585 0.981 9.585 0.167 -78.599
3600 0.158 -78.998 0.982 9.085 0.982 9.085 0.158 -78.998
3650 0.149 -79.38 0.983 8.592 0.983 8.592 0.149 -79.38
3700 0.141 -79.743 0.985 8.107 0.985 8.107 0.141 -79.743
3750 0.133 -80.086 0.986 7.628 0.986 7.628 0.133 -80.086
3800 0.125 -80.407 0.987 7.156 0.987 7.156 0.125 -80.407
3850 0.117 -80.702 0.988 6.69 0.988 6.69 0.117 -80.702
3900 0.109 -80.969 0.989 6.23 0.989 6.23 0.109 -80.969
3950 0.101 -81.202 0.99 5.777 0.99 5.777 0.101 -81.202
4000 0.093 -81.395 0.99 5.329 0.99 5.329 0.093 -81.395
4050 0.085 -81.541 0.991 4.887 0.991 4.887 0.085 -81.541
4100 0.078 -81.627 0.992 4.451 0.992 4.451 0.078 -81.627
4150 0.07 -81.638 0.992 4.02 0.992 4.02 0.07 -81.638
4200 0.063 -81.551 0.993 3.595 0.993 3.595 0.063 -81.551
4250 0.056 -81.332 0.993 3.174 0.993 3.174 0.056 -81.332
4300 0.048 -80.925 0.994 2.759 0.994 2.759 0.048 -80.925
4350 0.041 -80.242 0.994 2.349 0.994 2.349 0.041 -80.242
4400 0.034 -79.123 0.994 1.943 0.994 1.943 0.034 -79.123
4450 0.027 -77.252 0.994 1.542 0.994 1.542 0.027 -77.252
4500 0.021 -73.92 0.994 1.145 0.994 1.145 0.021 -73.92
4550 0.014 -67.168 0.995 0.753 0.995 0.753 0.014 -67.168
4600 8.312e-3 -49.731 0.995 0.365 0.995 0.365 8.312e-3 -49.731
4650 5.341e-3 3.408 0.995 -0.018 0.995 -0.018 5.341e-3 3.408
4700 8.754e-3 52.08 0.995 -0.398 0.995 -0.398 8.754e-3 52.08
4750 0.015 67.671 0.995 -0.773 0.995 -0.773 0.015 67.671
4800 0.021 73.916 0.994 -1.145 0.994 -1.145 0.021 73.916
4850 0.027 77.071 0.994 -1.513 0.994 -1.513 0.027 77.071
4900 0.033 78.879 0.994 -1.877 0.994 -1.877 0.033 78.879
4950 0.039 79.989 0.994 -2.237 0.994 -2.237 0.039 79.989
5000 0.046 80.692 0.994 -2.594 0.994 -2.594 0.046 80.692
5050 0.052 81.138 0.993 -2.947 0.993 -2.947 0.052 81.138
5100 0.058 81.412 0.993 -3.297 0.993 -3.297 0.058 81.412
5150 0.064 81.567 0.993 -3.644 0.993 -3.644 0.064 81.567
5200 0.07 81.635 0.992 -3.987 0.992 -3.987 0.07 81.635
5250 0.076 81.639 0.992 -4.327 0.992 -4.327 0.076 81.639
5300 0.081 81.593 0.991 -4.664 0.991 -4.664 0.081 81.593
5350 0.087 81.509 0.991 -4.998 0.991 -4.998 0.087 81.509
5400 0.093 81.395 0.99 -5.329 0.99 -5.329 0.093 81.395
5450 0.099 81.257 0.99 -5.657 0.99 -5.657 0.099 81.257
5500 0.104 81.1 0.989 -5.982 0.989 -5.982 0.104 81.1
5550 0.11 80.928 0.989 -6.304 0.989 -6.304 0.11 80.928
5600 0.115 80.742 0.988 -6.623 0.988 -6.623 0.115 80.742
5650 0.121 80.546 0.987 -6.94 0.987 -6.94 0.121 80.546
5700 0.126 80.342 0.987 -7.254 0.987 -7.254 0.126 80.342
5750 0.132 80.13 0.986 -7.565 0.986 -7.565 0.132 80.13
5800 0.137 79.912 0.985 -7.874 0.985 -7.874 0.137 79.912
5850 0.142 79.689 0.985 -8.18 0.985 -8.18 0.142 79.689
5900 0.148 79.462 0.984 -8.484 0.984 -8.484 0.148 79.462
5950 0.153 79.231 0.983 -8.786 0.983 -8.786 0.153 79.231
6000 0.158 78.998 0.982 -9.085 0.982 -9.085 0.158 78.998
6050 0.163 78.763 0.981 -9.381 0.981 -9.381 0.163 78.763
6100 0.168 78.526 0.98 -9.675 0.98 -9.675 0.168 78.526
6150 0.173 78.287 0.98 -9.967 0.98 -9.967 0.173 78.287
6200 0.178 78.047 0.979 -10.257 0.979 -10.257 0.178 78.047
6250 0.183 77.806 0.978 -10.545 0.978 -10.545 0.183 77.806
6300 0.188 77.565 0.977 -10.83 0.977 -10.83 0.188 77.565
6350 0.193 77.323 0.976 -11.113 0.976 -11.113 0.193 77.323
6400 0.198 77.081 0.975 -11.395 0.975 -11.395 0.198 77.081
6450 0.202 76.839 0.974 -11.674 0.974 -11.674 0.202 76.839
6500 0.207 76.597 0.973 -11.951 0.973 -11.951 0.207 76.597
6550 0.212 76.355 0.972 -12.226 0.972 -12.226 0.212 76.355
6600 0.216 76.113 0.971 -12.499 0.971 -12.499 0.216 76.113
6650 0.221 75.872 0.97 -12.77 0.97 -12.77 0.221 75.872
6700 0.226 75.632 0.969 -13.039 0.969 -13.039 0.226 75.632
6750 0.23 75.391 0.968 -13.307 0.968 -13.307 0.23 75.391
6800 0.235 75.152 0.967 -13.572 0.967 -13.572 0.235 75.152
6850 0.239 74.913 0.966 -13.836 0.966 -13.836 0.239 74.913
6900 0.244 74.675 0.965 -14.098 0.965 -14.098 0.244 74.675
6950 0.248 74.438 0.964 -14.358 0.964 -14.358 0.248 74.438
7000 0.252 74.201 0.962 -14.616 0.962 -14.616 0.252 74.201
7050 0.257 73.965 0.961 -14.873 0.961 -14.873 0.257 73.965
7100 0.261 73.731 0.96 -15.128 0.96 -15.128 0.261 73.731
7150 0.265 73.497 0.959 -15.381 0.959 -15.381 0.265 73.497
7200 0.27 73.264 0.958 -15.632 0.958 -15.632 0.27 73.264
7250 0.274 73.032 0.957 -15.882 0.957 -15.882 0.274 73.032
7300 0.278 72.801 0.955 -16.13 0.955 -16.13 0.278 72.801
7350 0.282 72.571 0.954 -16.377 0.954 -16.377 0.282 72.571
7400 0.286 72.341 0.953 -16.622 0.953 -16.622 0.286 72.341
7450 0.29 72.113 0.952 -16.866 0.952 -16.866 0.29 72.113
7500 0.294 71.886 0.951 -17.108 0.951 -17.108 0.294 71.886
7550 0.298 71.66 0.949 -17.348 0.949 -17.348 0.298 71.66
7600 0.302 71.435 0.948 -17.587 0.948 -17.587 0.302 71.435
7650 0.306 71.211 0.947 -17.825 0.947 -17.825 0.306 71.211
7700 0.31 70.988 0.946 -18.061 0.946 -18.061 0.31 70.988
7750 0.314 70.766 0.944 -18.296 0.944 -18.296 0.314 70.766
7800 0.318 70.545 0.943 -18.529 0.943 -18.529 0.318 70.545
7850 0.322 70.326 0.942 -18.76 0.942 -18.76 0.322 70.326
7900 0.325 70.107 0.94 -18.991 0.94 -18.991 0.325 70.107
7950 0.329 69.889 0.939 -19.22 0.939 -19.22 0.329 69.889
8000 0.333 69.672 0.938 -19.447 0.938 -19.447 0.333 69.672
8050 0.337 69.457 0.937 -19.674 0.937 -19.674 0.337 69.457
8100 0.34 69.242 0.935 -19.899 0.935 -19.899 0.34 69.242
8150 0.344 69.028 0.934 -20.122 0.934 -20.122 0.344 69.028
8200 0.348 68.816 0.933 -20.344 0.933 -20.344 0.348 68.816
8250 0.351 68.604 0.931 -20.565 0.931 -20.565 0.351 68.604
8300 0.355 68.394 0.93 -20.785 0.93 -20.785 0.355 68.394
8350 0.358 68.184 0.928 -21.004 0.928 -21.004 0.358 68.184
8400 0.362 67.976 0.927 -21.221 0.927 -21.221 0.362 67.976
8450 0.366 67.769 0.926 -21.437 0.926 -21.437 0.366 67.769
8500 0.369 67.562 0.924 -21.651 0.924 -21.651 0.369 67.562
8550 0.372 67.357 0.923 -21.865 0.923 -21.865 0.372 67.357
8600 0.376 67.153 0.922 -22.077 0.922 -22.077 0.376 67.153
8650 0.379 66.949 0.92 -22.288 0.92 -22.288 0.379 66.949
8700 0.383 66.747 0.919 -22.498 0.919 -22.498 0.383 66.747
8750 0.386 66.545 0.917 -22.707 0.917 -22.707 0.386 66.545
8800 0.389 66.345 0.916 -22.915 0.916 -22.915 0.389 66.345
8850 0.393 66.146 0.915 -23.121 0.915 -23.121 0.393 66.146
8900 0.396 65.947 0.913 -23.326 0.913 -23.326 0.396 65.947
8950 0.399 65.75 0.912 -23.531 0.912 -23.531 0.399 65.75
9000 0.403 65.553 0.91 -23.734 0.91 -23.734 0.403 65.553
9050 0.406 65.358 0.909 -23.936 0.909 -23.936 0.406 65.358
9100 0.409 65.163 0.908 -24.137 0.908 -24.137 0.409 65.163
9150 0.412 64.97 0.906 -24.336 0.906 -24.336 0.412 64.97
9200 0.415 64.777 0.905 -24.535 0.905 -24.535 0.415 64.777
9250 0.418 64.585 0.903 -24.733 0.903 -24.733 0.418 64.585
9300 0.422 64.394 0.902 -24.929 0.902 -24.929 0.422 64.394
9350 0.425 64.205 0.9 -25.125 0.9 -25.125 0.425 64.205
9400 0.428 64.016 0.899 -25.319 0.899 -25.319 0.428 64.016
9450 0.431 63.828 0.898 -25.513 0.898 -25.513 0.431 63.828
9500 0.434 63.64 0.896 -25.705 0.896 -25.705 0.434 63.64
9550 0.437 63.454 0.895 -25.897 0.895 -25.897 0.437 63.454
9600 0.44 63.269 0.893 -26.087 0.893 -26.087 0.44 63.269
9650 0.443 63.085 0.892 -26.277 0.892 -26.277 0.443 63.085
9700 0.446 62.901 0.89 -26.465 0.89 -26.465 0.446 62.901
9750 0.449 62.718 0.889 -26.653 0.889 -26.653 0.449 62.718
9800 0.452 62.537 0.887 -26.839 0.887 -26.839 0.452 62.537
9850 0.454 62.356 0.886 -27.025 0.886 -27.025 0.454 62.356
9900 0.457 62.176 0.884 -27.209 0.884 -27.209 0.457 62.176
9950 0.46 61.997 0.883 -27.393 0.883 -27.393 0.46 61.997
10000 0.463 61.818 0.882 -27.576 0.882 -27.576 0.463 61.818
10050 0.466 61.641 0.88 -27.758 0.88 -27.758 0.466 61.641
10100 0.469 61.464 0.879 -27.939 0.879 -27.939 0.469 61.464
10150 0.471 61.289 0.877 -28.119 0.877 -28.119 0.471 61.289
10200 0.474 61.114 0.876 -28.298 0.876 -28.298 0.474 61.114
10250 0.477 60.94 0.874 -28.476 0.874 -28.476 0.477 60.94
10300 0.48 60.766 0.873 -28.653 0.873 -28.653 0.48 60.766
10350 0.482 60.594 0.871 -28.829 0.871 -28.829 0.482 60.594
10400 0.485 60.422 0.87 -29.005 0.87 -29.005 0.485 60.422
10450 0.488 60.252 0.868 -29.179 0.868 -29.179 0.488 60.252
10500 0.49 60.082 0.867 -29.353 0.867 -29.353 0.49 60.082
10550 0.493 59.912 0.865 -29.526 0.865 -29.526 0.493 59.912
10600 0.495 59.744 0.864 -29.698 0.864 -29.698 0.495 59.744
10650 0.498 59.576 0.862 -29.869 0.862 -29.869 0.498 59.576
10700 0.501 59.41 0.861 -30.04 0.861 -30.04 0.501 59.41
10750 0.503 59.244 0.859 -30.209 0.859 -30.209 0.503 59.244
10800 0.506 59.078 0.858 -30.378 0.858 -30.378 0.506 59.078
10850 0.508 58.914 0.856 -30.546 0.856 -30.546 0.508 58.914
10900 0.511 58.75 0.855 -30.713 0.855 -30.713 0.511 58.75
10950 0.513 58.587 0.853 -30.879 0.853 -30.879 0.513 58.587
11000 0.516 58.425 0.852 -31.044 0.852 -31.044 0.516 58.425
11050 0.518 58.264 0.851 -31.209 0.851 -31.209 0.518 58.264
11100 0.521 58.103 0.849 -31.373 0.849 -31.373 0.521 58.103
11150 0.523 57.943 0.848 -31.536 0.848 -31.536 0.523 57.943
11200 0.525 57.784 0.846 -31.698 0.846 -31.698 0.525 57.784
11250 0.528 57.625 0.845 -31.859 0.845 -31.859 0.528 57.625
11300 0.53 57.468 0.843 -32.02 0.843 -32.02 0.53 57.468
11350 0.533 57.311 0.842 -32.18 0.842 -32.18 0.533 57.311
11400 0.535 57.154 0.84 -32.339 0.84 -32.339 0.535 57.154
11450 0.537 56.999 0.839 -32.498 0.839 -32.498 0.537 56.999
11500 0.54 56.844 0.837 -32.655 0.837 -32.655 0.54 56.844
11550 0.542 56.69 0.836 -32.812 0.836 -32.812 0.542 56.69
11600 0.544 56.536 0.834 -32.968 0.834 -32.968 0.544 56.536
11650 0.546 56.383 0.833 -33.124 0.833 -33.124 0.546 56.383
11700 0.549 56.231 0.831 -33.279 0.831 -33.279 0.549 56.231
11750 0.551 56.08 0.83 -33.433 0.83 -33.433 0.551 56.08
11800 0.553 55.929 0.828 -33.586 0.828 -33.586 0.553 55.929
11850 0.555 55.779 0.827 -33.738 0.827 -33.738 0.555 55.779
11900 0.558 55.63 0.825 -33.89 0.825 -33.89 0.558 55.63
11950 0.56 55.481 0.824 -34.041 0.824 -34.041 0.56 55.481
12000 0.562 55.334 0.823 -34.192 0.823 -34.192 0.562 55.334
12050 0.564 55.186 0.821 -34.341 0.821 -34.341 0.564 55.186
12100 0.566 55.04 0.82 -34.49 0.82 -34.49 0.566 55.04
12150 0.568 54.894 0.818 -34.639 0.818 -34.639 0.568 54.894
12200 0.571 54.748 0.817 -34.786 0.817 -34.786 0.571 54.748
12250 0.573 54.604 0.815 -34.933 0.815 -34.933 0.573 54.604
12300 0.575 54.46 0.814 -35.08 0.814 -35.08 0.575 54.46
12350 0.577 54.316 0.812 -35.225 0.812 -35.225 0.577 54.316
12400 0.579 54.174 0.811 -35.37 0.811 -35.37 0.579 54.174
12450 0.581 54.031 0.809 -35.514 0.809 -35.514 0.581 54.031
12500 0.583 53.89 0.808 -35.658 0.808 -35.658 0.583 53.89
12550 0.585 53.749 0.806 -35.801 0.806 -35.801 0.585 53.749
12600 0.587 53.609 0.805 -35.943 0.805 -35.943 0.587 53.609
12650 0.589 53.469 0.804 -36.085 0.804 -36.085 0.589 53.469
12700 0.591 53.33 0.802 -36.226 0.802 -36.226 0.591 53.33
12750 0.593 53.192 0.801 -36.367 0.801 -36.367 0.593 53.192
12800 0.595 53.054 0.799 -36.506 0.799 -36.506 0.595 53.054
12850 0.597 52.917 0.798 -36.645 0.798 -36.645 0.597 52.917
12900 0.599 52.781 0.796 -36.784 0.796 -36.784 0.599 52.781
12950 0.601 52.645 0.795 -36.922 0.795 -36.922 0.601 52.645
13000 0.603 52.509 0.793 -37.059 0.793 -37.059 0.603 52.509
13050 0.605 52.375 0.792 -37.196 0.792 -37.196 0.605 52.375
13100 0.606 52.241 0.791 -37.332 0.791 -37.332 0.606 52.241
13150 0.608 52.107 0.789 -37.467 0.789 -37.467 0.608 52.107
13200 0.61 51.974 0.788 -37.602 0.788 -37.602 0.61 51.974
13250 0.612 51.842 0.786 -37.736 0.786 -37.736 0.612 51.842
13300 0.614 51.71 0.785 -37.87 0.785 -37.87 0.614 51.71
13350 0.616 51.579 0.783 -38.003 0.783 -38.003 0.616 51.579
13400 0.618 51.448 0.782 -38.135 0.782 -38.135 0.618 51.448
13450 0.619 51.318 0.781 -38.267 0.781 -38.267 0.619 51.318
13500 0.621 51.188 0.779 -38.399 0.779 -38.399 0.621 51.188
13550 0.623 51.059 0.778 -38.529 0.778 -38.529 0.623 51.059
13600 0.625 50.931 0.776 -38.659 0.776 -38.659 0.625 50.931
13650 0.626 50.803 0.775 -38.789 0.775 -38.789 0.626 50.803
13700 0.628 50.676 0.774 -38.918 0.774 -38.918 0.628 50.676
13750 0.63 50.549 0.772 -39.046 0.772 -39.046 0.63 50.549
13800 0.632 50.423 0.771 -39.174 0.771 -39.174 0.632 50.423
13850 0.633 50.297 0.769 -39.302 0.769 -39.302 0.633 50.297
13900 0.635 50.172 0.768 -39.428 0.768 -39.428 0.635 50.172
13950 0.637 50.047 0.767 -39.554 0.767 -39.554 0.637 50.047
14000 0.639 49.923 0.765 -39.68 0.765 -39.68 0.639 49.923
14050 0.64 49.8 0.764 -39.805 0.764 -39.805 0.64 49.8
14100 0.642 49.676 0.762 -39.93 0.762 -39.93 0.642 49.676
14150 0.644 49.554 0.761 -40.054 0.761 -40.054 0.644 49.554
14200 0.645 49.432 0.76 -40.177 0.76 -40.177 0.645 49.432
14250 0.647 49.311 0.758 -40.3 0.758 -40.3 0.647 49.311
14300 0.648 49.19 0.757 -40.423 0.757 -40.423 0.648 49.19
14350 0.65 49.069 0.756 -40.545 0.756 -40.545 0.65 49.069
14400 0.652 48.949 0.754 -40.666 0.754 -40.666 0.652 48.949
14450 0.653 48.83 0.753 -40.787 0.753 -40.787 0.653 48.83
14500 0.655 48.711 0.751 -40.907 0.751 -40.907 0.655 48.711
14550 0.656 48.592 0.75 -41.027 0.75 -41.027 0.656 48.592
14600 0.658 48.475 0.749 -41.146 0.749 -41.146 0.658 48.475
14650 0.66 48.357 0.747 -41.265 0.747 -41.265 0.66 48.357
14700 0.661 48.24 0.746 -41.383 0.746 -41.383 0.661 48.24
14750 0.663 48.124 0.745 -41.501 0.745 -41.501 0.663 48.124
14800 0.664 48.008 0.743 -41.619 0.743 -41.619 0.664 48.008
14850 0.666 47.892 0.742 -41.735 0.742 -41.735 0.666 47.892
14900 0.667 47.777 0.741 -41.852 0.741 -41.852 0.667 47.777
14950 0.669 47.663 0.739 -41.968 0.739 -41.968 0.669 47.663
15000 0.67 47.549 0.738 -42.083 0.738 -42.083 0.67 47.549
15050 0.672 47.435 0.737 -42.198 0.737 -42.198 0.672 47.435
15100 0.673 47.322 0.735 -42.312 0.735 -42.312 0.673 47.322
15150 0.675 47.21 0.734 -42.426 0.734 -42.426 0.675 47.21
15200 0.676 47.097 0.733 -42.539 0.733 -42.539 0.676 47.097
15250 0.678 46.986 0.731 -42.652 0.731 -42.652 0.678 46.986
15300 0.679 46.875 0.73 -42.765 0.73 -42.765 0.679 46.875
15350 0.68 46.764 0.729 -42.877 0.729 -42.877 0.68 46.764
15400 0.682 46.653 0.727 -42.988 0.727 -42.988 0.682 46.653
15450 0.683 46.544 0.726 -43.099 0.726 -43.099 0.683 46.544
15500 0.685 46.434 0.725 -43.21 0.725 -43.21 0.685 46.434
15550 0.686 46.325 0.723 -43.32 0.723 -43.32 0.686 46.325
15600 0.687 46.217 0.722 -43.43 0.722 -43.43 0.687 46.217
15650 0.689 46.109 0.721 -43.539 0.721 -43.539 0.689 46.109
15700 0.69 46.001 0.719 -43.648 0.719 -43.648 0.69 46.001
15750 0.692 45.894 0.718 -43.756 0.718 -43.756 0.692 45.894
15800 0.693 45.787 0.717 -43.864 0.717 -43.864 0.693 45.787
15850 0.694 45.681 0.715 -43.971 0.715 -43.971 0.694 45.681
15900 0.696 45.575 0.714 -44.078 0.714 -44.078 0.696 45.575
15950 0.697 45.469 0.713 -44.185 0.713 -44.185 0.697 45.469
16000 0.698 45.364 0.712 -44.291 0.712 -44.291 0.698 45.364
16050 0.7 45.26 0.71 -44.397 0.71 -44.397 0.7 45.26
16100 0.701 45.156 0.709 -44.502 0.709 -44.502 0.701 45.156
16150 0.702 45.052 0.708 -44.607 0.708 -44.607 0.702 45.052
16200 0.704 44.949 0.706 -44.711 0.706 -44.711 0.704 44.949
16250 0.705 44.846 0.705 -44.815 0.705 -44.815 0.705 44.846
16300 0.706 44.743 0.704 -44.919 0.704 -44.919 0.706 44.743
16350 0.707 44.641 0.703 -45.022 0.703 -45.022 0.707 44.641
16400 0.709 44.539 0.701 -45.125 0.701 -45.125 0.709 44.539
16450 0.71 44.438 0.7 -45.227 0.7 -45.227 0.71 44.438
16500 0.711 44.337 0.699 -45.329 0.699 -45.329 0.711 44.337
16550 0.712 44.237 0.698 -45.43 0.698 -45.43 0.712 44.237
16600 0.714 44.137 0.696 -45.531 0.696 -45.531 0.714 44.137
16650 0.715 44.037 0.695 -45.632 0.695 -45.632 0.715 44.037
16700 0.716 43.938 0.694 -45.732 0.694 -45.732 0.716 43.938
16750 0.717 43.839 0.693 -45.832 0.693 -45.832 0.717 43.839
16800 0.719 43.74 0.691 -45.932 0.691 -45.932 0.719 43.74
16850 0.72 43.642 0.69 -46.031 0.69 -46.031 0.72 43.642
16900 0.721 43.545 0.689 -46.129 0.689 -46.129 0.721 43.545
