! AVX Thin Film Operation		Date: April 2012 
! Description: Accu-P® Series, Thin Film, SMD, RF Capacitor
! Part Number: 12101J470FBTTR					
!	100	MHz	-	10.05	GHz			
!	Serial	Measurements						
!								
#	MHZ	S	MA	R	50			
!	S11	S21	S12	S22				
!	dB	Phase	dB	Phase	dB	Phase	dB	Phase
100	0.315	-71.533	0.949	18.346	0.949	18.346	0.315	-71.533
109.812	0.288	-73.13	0.957	16.737	0.957	16.737	0.288	-73.13
119.623	0.265	-74.49	0.964	15.364	0.964	15.364	0.265	-74.49
129.435	0.245	-75.661	0.969	14.18	0.969	14.18	0.245	-75.661
139.247	0.227	-76.681	0.973	13.147	0.973	13.147	0.227	-76.681
149.058	0.212	-77.576	0.977	12.239	0.977	12.239	0.212	-77.576
158.87	0.198	-78.369	0.979	11.433	0.979	11.433	0.198	-78.369
168.682	0.186	-79.076	0.982	10.713	0.982	10.713	0.186	-79.076
178.494	0.175	-79.71	0.984	10.064	0.984	10.064	0.175	-79.71
188.305	0.165	-80.282	0.986	9.478	0.986	9.478	0.165	-80.282
198.117	0.155	-80.802	0.987	8.944	0.987	8.944	0.155	-80.802
207.929	0.147	-81.275	0.988	8.455	0.988	8.455	0.147	-81.275
217.74	0.139	-81.709	0.99	8.006	0.99	8.006	0.139	-81.709
227.552	0.132	-82.107	0.991	7.592	0.991	7.592	0.132	-82.107
237.364	0.125	-82.475	0.991	7.208	0.991	7.208	0.125	-82.475
247.175	0.119	-82.815	0.992	6.851	0.992	6.851	0.119	-82.815
256.987	0.114	-83.131	0.993	6.518	0.993	6.518	0.114	-83.131
266.799	0.108	-83.425	0.993	6.207	0.993	6.207	0.108	-83.425
276.611	0.103	-83.699	0.994	5.914	0.994	5.914	0.103	-83.699
286.422	0.098	-83.955	0.994	5.639	0.994	5.639	0.098	-83.955
296.234	0.094	-84.195	0.995	5.379	0.995	5.379	0.094	-84.195
306.046	0.089	-84.421	0.995	5.133	0.995	5.133	0.089	-84.421
315.857	0.085	-84.632	0.996	4.9	0.996	4.9	0.085	-84.632
325.669	0.082	-84.832	0.996	4.679	0.996	4.679	0.082	-84.832
335.481	0.078	-85.019	0.996	4.468	0.996	4.468	0.078	-85.019
345.292	0.074	-85.196	0.997	4.267	0.997	4.267	0.074	-85.196
355.104	0.071	-85.363	0.997	4.074	0.997	4.074	0.071	-85.363
364.916	0.068	-85.52	0.997	3.89	0.997	3.89	0.068	-85.52
374.727	0.065	-85.669	0.997	3.714	0.997	3.714	0.065	-85.669
384.539	0.062	-85.808	0.997	3.544	0.997	3.544	0.062	-85.808
394.351	0.059	-85.94	0.998	3.382	0.998	3.382	0.059	-85.94
404.163	0.056	-86.064	0.998	3.225	0.998	3.225	0.056	-86.064
413.974	0.054	-86.18	0.998	3.073	0.998	3.073	0.054	-86.18
423.786	0.051	-86.289	0.998	2.927	0.998	2.927	0.051	-86.289
433.598	0.049	-86.39	0.998	2.786	0.998	2.786	0.049	-86.39
443.409	0.046	-86.485	0.998	2.649	0.998	2.649	0.046	-86.485
453.221	0.044	-86.571	0.998	2.517	0.998	2.517	0.044	-86.571
463.033	0.042	-86.651	0.998	2.388	0.998	2.388	0.042	-86.651
472.844	0.039	-86.723	0.999	2.263	0.999	2.263	0.039	-86.723
482.656	0.037	-86.786	0.999	2.142	0.999	2.142	0.037	-86.786
492.468	0.035	-86.842	0.999	2.024	0.999	2.024	0.035	-86.842
502.279	0.033	-86.888	0.999	1.909	0.999	1.909	0.033	-86.888
512.091	0.031	-86.925	0.999	1.797	0.999	1.797	0.031	-86.925
521.903	0.029	-86.952	0.999	1.688	0.999	1.688	0.029	-86.952
531.715	0.028	-86.967	0.999	1.582	0.999	1.582	0.028	-86.967
541.526	0.026	-86.969	0.999	1.478	0.999	1.478	0.026	-86.969
551.338	0.024	-86.956	0.999	1.376	0.999	1.376	0.024	-86.956
561.15	0.022	-86.925	0.999	1.276	0.999	1.276	0.022	-86.925
570.961	0.021	-86.874	0.999	1.179	0.999	1.179	0.021	-86.874
580.773	0.019	-86.798	0.999	1.083	0.999	1.083	0.019	-86.798
590.585	0.017	-86.691	0.999	0.99	0.999	0.99	0.017	-86.691
600.396	0.016	-86.547	0.999	0.898	0.999	0.898	0.016	-86.547
610.208	0.014	-86.352	0.999	0.808	0.999	0.808	0.014	-86.352
620.02	0.013	-86.093	0.999	0.72	0.999	0.72	0.013	-86.093
629.832	0.011	-85.744	0.999	0.633	0.999	0.633	0.011	-85.744
639.643	9.58E-03	-85.266	0.999	0.548	0.999	0.548	9.58E-03	-85.266
649.455	8.13E-03	-84.597	0.999	0.464	0.999	0.464	8.13E-03	-84.597
659.267	6.69E-03	-83.617	0.999	0.381	0.999	0.381	6.69E-03	-83.617
669.078	5.28E-03	-82.091	0.999	0.3	0.999	0.3	5.28E-03	-82.091
678.89	3.91E-03	-79.458	0.999	0.22	0.999	0.22	3.91E-03	-79.458
688.702	2.56E-03	-74.022	0.999	0.141	0.999	0.141	2.56E-03	-74.022
698.513	1.31E-03	-57.745	0.999	0.064	0.999	0.064	1.31E-03	-57.745
708.325	7.35E-04	17.785	0.999	-0.013	0.999	-0.013	7.35E-04	17.785
718.137	1.69E-03	65.51	0.999	-0.088	0.999	-0.088	1.69E-03	65.51
727.948	2.93E-03	76.009	0.999	-0.163	0.999	-0.163	2.93E-03	76.009
737.76	4.18E-03	80.138	0.999	-0.236	0.999	-0.236	4.18E-03	80.138
747.572	5.44E-03	82.298	0.999	-0.309	0.999	-0.309	5.44E-03	82.298
757.384	6.68E-03	83.608	0.999	-0.381	0.999	-0.381	6.68E-03	83.608
767.195	7.91E-03	84.475	0.999	-0.451	0.999	-0.451	7.91E-03	84.475
777.007	9.13E-03	85.083	0.999	-0.521	0.999	-0.521	9.13E-03	85.083
786.819	0.01	85.527	0.999	-0.591	0.999	-0.591	0.01	85.527
796.63	0.012	85.861	0.999	-0.659	0.999	-0.659	0.012	85.861
806.442	0.013	86.117	0.999	-0.727	0.999	-0.727	0.013	86.117
816.254	0.014	86.316	0.999	-0.794	0.999	-0.794	0.014	86.316
826.065	0.015	86.472	0.999	-0.86	0.999	-0.86	0.015	86.472
835.877	0.016	86.595	0.999	-0.926	0.999	-0.926	0.016	86.595
845.689	0.017	86.693	0.999	-0.991	0.999	-0.991	0.017	86.693
855.5	0.018	86.769	0.999	-1.055	0.999	-1.055	0.018	86.769
865.312	0.02	86.83	0.999	-1.119	0.999	-1.119	0.02	86.83
875.124	0.021	86.876	0.999	-1.182	0.999	-1.182	0.021	86.876
884.936	0.022	86.911	0.999	-1.245	0.999	-1.245	0.022	86.911
894.747	0.023	86.937	0.999	-1.307	0.999	-1.307	0.023	86.937
904.559	0.024	86.954	0.999	-1.368	0.999	-1.368	0.024	86.954
914.371	0.025	86.965	0.999	-1.429	0.999	-1.429	0.025	86.965
924.182	0.026	86.969	0.999	-1.49	0.999	-1.49	0.026	86.969
933.994	0.027	86.969	0.999	-1.55	0.999	-1.55	0.027	86.969
943.806	0.028	86.964	0.999	-1.61	0.999	-1.61	0.028	86.964
953.617	0.029	86.956	0.999	-1.669	0.999	-1.669	0.029	86.956
963.429	0.03	86.944	0.999	-1.728	0.999	-1.728	0.03	86.944
973.241	0.031	86.929	0.999	-1.786	0.999	-1.786	0.031	86.929
983.053	0.032	86.911	0.999	-1.844	0.999	-1.844	0.032	86.911
992.864	0.033	86.891	0.999	-1.901	0.999	-1.901	0.033	86.891
1002.676	0.034	86.869	0.999	-1.958	0.999	-1.958	0.034	86.869
1012.488	0.035	86.846	0.999	-2.015	0.999	-2.015	0.035	86.846
1022.299	0.036	86.82	0.999	-2.072	0.999	-2.072	0.036	86.82
1032.111	0.037	86.794	0.999	-2.128	0.999	-2.128	0.037	86.794
1041.923	0.038	86.765	0.999	-2.183	0.999	-2.183	0.038	86.765
1051.734	0.039	86.736	0.999	-2.239	0.999	-2.239	0.039	86.736
1061.546	0.04	86.706	0.998	-2.294	0.998	-2.294	0.04	86.706
1071.358	0.041	86.674	0.998	-2.349	0.998	-2.349	0.041	86.674
1081.169	0.042	86.642	0.998	-2.403	0.998	-2.403	0.042	86.642
1090.981	0.043	86.609	0.998	-2.457	0.998	-2.457	0.043	86.609
1100.793	0.044	86.575	0.998	-2.511	0.998	-2.511	0.044	86.575
1110.605	0.045	86.541	0.998	-2.564	0.998	-2.564	0.045	86.541
1120.416	0.046	86.506	0.998	-2.618	0.998	-2.618	0.046	86.506
1130.228	0.047	86.47	0.998	-2.671	0.998	-2.671	0.047	86.47
1140.04	0.048	86.434	0.998	-2.723	0.998	-2.723	0.048	86.434
1149.851	0.048	86.397	0.998	-2.776	0.998	-2.776	0.048	86.397
1159.663	0.049	86.36	0.998	-2.828	0.998	-2.828	0.049	86.36
1169.475	0.05	86.323	0.998	-2.88	0.998	-2.88	0.05	86.323
1179.286	0.051	86.285	0.998	-2.932	0.998	-2.932	0.051	86.285
1189.098	0.052	86.247	0.998	-2.983	0.998	-2.983	0.052	86.247
1198.91	0.053	86.209	0.998	-3.035	0.998	-3.035	0.053	86.209
1208.722	0.054	86.171	0.998	-3.086	0.998	-3.086	0.054	86.171
1218.533	0.055	86.132	0.998	-3.137	0.998	-3.137	0.055	86.132
1228.345	0.056	86.093	0.998	-3.187	0.998	-3.187	0.056	86.093
1238.157	0.056	86.054	0.998	-3.238	0.998	-3.238	0.056	86.054
1247.968	0.057	86.014	0.998	-3.288	0.998	-3.288	0.057	86.014
1257.78	0.058	85.975	0.998	-3.338	0.998	-3.338	0.058	85.975
1267.592	0.059	85.935	0.998	-3.388	0.998	-3.388	0.059	85.935
1277.403	0.06	85.895	0.998	-3.438	0.998	-3.438	0.06	85.895
1287.215	0.061	85.855	0.997	-3.487	0.997	-3.487	0.061	85.855
1297.027	0.062	85.815	0.997	-3.536	0.997	-3.536	0.062	85.815
1306.838	0.063	85.775	0.997	-3.586	0.997	-3.586	0.063	85.775
1316.65	0.063	85.734	0.997	-3.634	0.997	-3.634	0.063	85.734
1326.462	0.064	85.694	0.997	-3.683	0.997	-3.683	0.064	85.694
1336.274	0.065	85.654	0.997	-3.732	0.997	-3.732	0.065	85.654
1346.085	0.066	85.613	0.997	-3.78	0.997	-3.78	0.066	85.613
1355.897	0.067	85.572	0.997	-3.829	0.997	-3.829	0.067	85.572
1365.709	0.068	85.532	0.997	-3.877	0.997	-3.877	0.068	85.532
1375.52	0.068	85.491	0.997	-3.925	0.997	-3.925	0.068	85.491
1385.332	0.069	85.45	0.997	-3.973	0.997	-3.973	0.069	85.45
1395.144	0.07	85.409	0.997	-4.02	0.997	-4.02	0.07	85.409
1404.955	0.071	85.368	0.997	-4.068	0.997	-4.068	0.071	85.368
1414.767	0.072	85.328	0.997	-4.115	0.997	-4.115	0.072	85.328
1424.579	0.073	85.287	0.997	-4.163	0.997	-4.163	0.073	85.287
1434.39	0.073	85.246	0.997	-4.21	0.997	-4.21	0.073	85.246
1444.202	0.074	85.205	0.997	-4.257	0.997	-4.257	0.074	85.205
1454.014	0.075	85.164	0.996	-4.304	0.996	-4.304	0.075	85.164
1463.826	0.076	85.123	0.996	-4.35	0.996	-4.35	0.076	85.123
1473.637	0.077	85.082	0.996	-4.397	0.996	-4.397	0.077	85.082
1483.449	0.077	85.041	0.996	-4.444	0.996	-4.444	0.077	85.041
1493.261	0.078	85	0.996	-4.49	0.996	-4.49	0.078	85
1503.072	0.079	84.958	0.996	-4.536	0.996	-4.536	0.079	84.958
1512.884	0.08	84.917	0.996	-4.582	0.996	-4.582	0.08	84.917
1522.696	0.081	84.876	0.996	-4.628	0.996	-4.628	0.081	84.876
1532.507	0.081	84.835	0.996	-4.674	0.996	-4.674	0.081	84.835
1542.319	0.082	84.794	0.996	-4.72	0.996	-4.72	0.082	84.794
1552.131	0.083	84.753	0.996	-4.766	0.996	-4.766	0.083	84.753
1561.943	0.084	84.712	0.996	-4.812	0.996	-4.812	0.084	84.712
1571.754	0.085	84.671	0.996	-4.857	0.996	-4.857	0.085	84.671
1581.566	0.085	84.63	0.996	-4.903	0.996	-4.903	0.085	84.63
1591.378	0.086	84.589	0.996	-4.948	0.996	-4.948	0.086	84.589
1601.189	0.087	84.548	0.996	-4.993	0.996	-4.993	0.087	84.548
1611.001	0.088	84.507	0.995	-5.038	0.995	-5.038	0.088	84.507
1620.813	0.089	84.466	0.995	-5.083	0.995	-5.083	0.089	84.466
1630.624	0.089	84.425	0.995	-5.128	0.995	-5.128	0.089	84.425
1640.436	0.09	84.384	0.995	-5.173	0.995	-5.173	0.09	84.384
1650.248	0.091	84.343	0.995	-5.218	0.995	-5.218	0.091	84.343
1660.059	0.092	84.302	0.995	-5.262	0.995	-5.262	0.092	84.302
1669.871	0.092	84.261	0.995	-5.307	0.995	-5.307	0.092	84.261
1679.683	0.093	84.221	0.995	-5.351	0.995	-5.351	0.093	84.221
1689.495	0.094	84.18	0.995	-5.396	0.995	-5.396	0.094	84.18
1699.306	0.095	84.139	0.995	-5.44	0.995	-5.44	0.095	84.139
1709.118	0.096	84.098	0.995	-5.484	0.995	-5.484	0.096	84.098
1718.93	0.096	84.057	0.995	-5.529	0.995	-5.529	0.096	84.057
1728.741	0.097	84.016	0.995	-5.573	0.995	-5.573	0.097	84.016
1738.553	0.098	83.976	0.995	-5.617	0.995	-5.617	0.098	83.976
1748.365	0.099	83.935	0.994	-5.661	0.994	-5.661	0.099	83.935
1758.176	0.099	83.894	0.994	-5.704	0.994	-5.704	0.099	83.894
1767.988	0.1	83.854	0.994	-5.748	0.994	-5.748	0.1	83.854
1777.8	0.101	83.813	0.994	-5.792	0.994	-5.792	0.101	83.813
1787.611	0.102	83.772	0.994	-5.836	0.994	-5.836	0.102	83.772
1797.423	0.102	83.732	0.994	-5.879	0.994	-5.879	0.102	83.732
1807.235	0.103	83.691	0.994	-5.923	0.994	-5.923	0.103	83.691
1817.047	0.104	83.65	0.994	-5.966	0.994	-5.966	0.104	83.65
1826.858	0.105	83.61	0.994	-6.009	0.994	-6.009	0.105	83.61
1836.67	0.105	83.569	0.994	-6.053	0.994	-6.053	0.105	83.569
1846.482	0.106	83.529	0.994	-6.096	0.994	-6.096	0.106	83.529
1856.293	0.107	83.488	0.994	-6.139	0.994	-6.139	0.107	83.488
1866.105	0.108	83.448	0.993	-6.182	0.993	-6.182	0.108	83.448
1875.917	0.108	83.407	0.993	-6.225	0.993	-6.225	0.108	83.407
1885.728	0.109	83.367	0.993	-6.268	0.993	-6.268	0.109	83.367
1895.54	0.11	83.327	0.993	-6.311	0.993	-6.311	0.11	83.327
1905.352	0.111	83.286	0.993	-6.354	0.993	-6.354	0.111	83.286
1915.164	0.111	83.246	0.993	-6.397	0.993	-6.397	0.111	83.246
1924.975	0.112	83.206	0.993	-6.439	0.993	-6.439	0.112	83.206
1934.787	0.113	83.165	0.993	-6.482	0.993	-6.482	0.113	83.165
1944.599	0.114	83.125	0.993	-6.525	0.993	-6.525	0.114	83.125
1954.41	0.114	83.085	0.993	-6.567	0.993	-6.567	0.114	83.085
1964.222	0.115	83.044	0.993	-6.61	0.993	-6.61	0.115	83.044
1974.034	0.116	83.004	0.993	-6.652	0.993	-6.652	0.116	83.004
1983.845	0.117	82.964	0.992	-6.694	0.992	-6.694	0.117	82.964
1993.657	0.117	82.924	0.992	-6.737	0.992	-6.737	0.117	82.924
2003.469	0.118	82.884	0.992	-6.779	0.992	-6.779	0.118	82.884
2013.28	0.119	82.844	0.992	-6.821	0.992	-6.821	0.119	82.844
2023.092	0.12	82.804	0.992	-6.863	0.992	-6.863	0.12	82.804
2032.904	0.12	82.764	0.992	-6.905	0.992	-6.905	0.12	82.764
2042.716	0.121	82.724	0.992	-6.947	0.992	-6.947	0.121	82.724
2052.527	0.122	82.684	0.992	-6.989	0.992	-6.989	0.122	82.684
2062.339	0.122	82.644	0.992	-7.031	0.992	-7.031	0.122	82.644
2072.151	0.123	82.604	0.992	-7.073	0.992	-7.073	0.123	82.604
2081.962	0.124	82.564	0.992	-7.115	0.992	-7.115	0.124	82.564
2091.774	0.125	82.524	0.992	-7.157	0.992	-7.157	0.125	82.524
2101.586	0.125	82.484	0.991	-7.199	0.991	-7.199	0.125	82.484
2111.397	0.126	82.444	0.991	-7.24	0.991	-7.24	0.126	82.444
2121.209	0.127	82.404	0.991	-7.282	0.991	-7.282	0.127	82.404
2131.021	0.127	82.364	0.991	-7.324	0.991	-7.324	0.127	82.364
2140.833	0.128	82.325	0.991	-7.365	0.991	-7.365	0.128	82.325
2150.644	0.129	82.285	0.991	-7.407	0.991	-7.407	0.129	82.285
2160.456	0.13	82.245	0.991	-7.448	0.991	-7.448	0.13	82.245
2170.268	0.13	82.205	0.991	-7.49	0.991	-7.49	0.13	82.205
2180.079	0.131	82.166	0.991	-7.531	0.991	-7.531	0.131	82.166
2189.891	0.132	82.126	0.991	-7.573	0.991	-7.573	0.132	82.126
2199.703	0.132	82.086	0.99	-7.614	0.99	-7.614	0.132	82.086
2209.514	0.133	82.047	0.99	-7.655	0.99	-7.655	0.133	82.047
2219.326	0.134	82.007	0.99	-7.696	0.99	-7.696	0.134	82.007
2229.138	0.135	81.967	0.99	-7.737	0.99	-7.737	0.135	81.967
2238.949	0.135	81.928	0.99	-7.779	0.99	-7.779	0.135	81.928
2248.761	0.136	81.888	0.99	-7.82	0.99	-7.82	0.136	81.888
2258.573	0.137	81.849	0.99	-7.861	0.99	-7.861	0.137	81.849
2268.385	0.137	81.809	0.99	-7.902	0.99	-7.902	0.137	81.809
2278.196	0.138	81.77	0.99	-7.943	0.99	-7.943	0.138	81.77
2288.008	0.139	81.73	0.99	-7.984	0.99	-7.984	0.139	81.73
2297.82	0.14	81.691	0.99	-8.025	0.99	-8.025	0.14	81.691
2307.631	0.14	81.652	0.989	-8.066	0.989	-8.066	0.14	81.652
2317.443	0.141	81.612	0.989	-8.106	0.989	-8.106	0.141	81.612
2327.255	0.142	81.573	0.989	-8.147	0.989	-8.147	0.142	81.573
2337.066	0.142	81.534	0.989	-8.188	0.989	-8.188	0.142	81.534
2346.878	0.143	81.494	0.989	-8.229	0.989	-8.229	0.143	81.494
2356.69	0.144	81.455	0.989	-8.269	0.989	-8.269	0.144	81.455
2366.501	0.145	81.416	0.989	-8.31	0.989	-8.31	0.145	81.416
2376.313	0.145	81.376	0.989	-8.351	0.989	-8.351	0.145	81.376
2386.125	0.146	81.337	0.989	-8.391	0.989	-8.391	0.146	81.337
2395.937	0.147	81.298	0.988	-8.432	0.988	-8.432	0.147	81.298
2405.748	0.147	81.259	0.988	-8.472	0.988	-8.472	0.147	81.259
2415.56	0.148	81.22	0.988	-8.513	0.988	-8.513	0.148	81.22
2425.372	0.149	81.18	0.988	-8.553	0.988	-8.553	0.149	81.18
2435.183	0.149	81.141	0.988	-8.593	0.988	-8.593	0.149	81.141
2444.995	0.15	81.102	0.988	-8.634	0.988	-8.634	0.15	81.102
2454.807	0.151	81.063	0.988	-8.674	0.988	-8.674	0.151	81.063
2464.618	0.152	81.024	0.988	-8.714	0.988	-8.714	0.152	81.024
2474.43	0.152	80.985	0.988	-8.755	0.988	-8.755	0.152	80.985
2484.242	0.153	80.946	0.988	-8.795	0.988	-8.795	0.153	80.946
2494.054	0.154	80.907	0.987	-8.835	0.987	-8.835	0.154	80.907
2503.865	0.154	80.868	0.987	-8.875	0.987	-8.875	0.154	80.868
2513.677	0.155	80.829	0.987	-8.915	0.987	-8.915	0.155	80.829
2523.489	0.156	80.79	0.987	-8.956	0.987	-8.956	0.156	80.79
2533.3	0.156	80.751	0.987	-8.996	0.987	-8.996	0.156	80.751
2543.112	0.157	80.712	0.987	-9.036	0.987	-9.036	0.157	80.712
2552.924	0.158	80.673	0.987	-9.076	0.987	-9.076	0.158	80.673
2562.735	0.158	80.635	0.987	-9.116	0.987	-9.116	0.158	80.635
2572.547	0.159	80.596	0.987	-9.156	0.987	-9.156	0.159	80.596
2582.359	0.16	80.557	0.986	-9.195	0.986	-9.195	0.16	80.557
2592.17	0.16	80.518	0.986	-9.235	0.986	-9.235	0.16	80.518
2601.982	0.161	80.479	0.986	-9.275	0.986	-9.275	0.161	80.479
2611.794	0.162	80.441	0.986	-9.315	0.986	-9.315	0.162	80.441
2621.606	0.163	80.402	0.986	-9.355	0.986	-9.355	0.163	80.402
2631.417	0.163	80.363	0.986	-9.395	0.986	-9.395	0.163	80.363
2641.229	0.164	80.324	0.986	-9.434	0.986	-9.434	0.164	80.324
2651.041	0.165	80.286	0.986	-9.474	0.986	-9.474	0.165	80.286
2660.852	0.165	80.247	0.986	-9.514	0.986	-9.514	0.165	80.247
2670.664	0.166	80.208	0.985	-9.553	0.985	-9.553	0.166	80.208
2680.476	0.167	80.17	0.985	-9.593	0.985	-9.593	0.167	80.17
2690.287	0.167	80.131	0.985	-9.633	0.985	-9.633	0.167	80.131
2700.099	0.168	80.093	0.985	-9.672	0.985	-9.672	0.168	80.093
2709.911	0.169	80.054	0.985	-9.712	0.985	-9.712	0.169	80.054
2719.722	0.169	80.015	0.985	-9.751	0.985	-9.751	0.169	80.015
2729.534	0.17	79.977	0.985	-9.791	0.985	-9.791	0.17	79.977
2739.346	0.171	79.938	0.985	-9.83	0.985	-9.83	0.171	79.938
2749.158	0.171	79.9	0.985	-9.87	0.985	-9.87	0.171	79.9
2758.969	0.172	79.862	0.984	-9.909	0.984	-9.909	0.172	79.862
2768.781	0.173	79.823	0.984	-9.948	0.984	-9.948	0.173	79.823
2778.593	0.173	79.785	0.984	-9.988	0.984	-9.988	0.173	79.785
2788.404	0.174	79.746	0.984	-10.027	0.984	-10.027	0.174	79.746
2798.216	0.175	79.708	0.984	-10.066	0.984	-10.066	0.175	79.708
2808.028	0.175	79.669	0.984	-10.106	0.984	-10.106	0.175	79.669
2817.839	0.176	79.631	0.984	-10.145	0.984	-10.145	0.176	79.631
2827.651	0.177	79.593	0.984	-10.184	0.984	-10.184	0.177	79.593
2837.463	0.177	79.554	0.983	-10.223	0.983	-10.223	0.177	79.554
2847.275	0.178	79.516	0.983	-10.262	0.983	-10.262	0.178	79.516
2857.086	0.179	79.478	0.983	-10.302	0.983	-10.302	0.179	79.478
2866.898	0.18	79.44	0.983	-10.341	0.983	-10.341	0.18	79.44
2876.71	0.18	79.401	0.983	-10.38	0.983	-10.38	0.18	79.401
2886.521	0.181	79.363	0.983	-10.419	0.983	-10.419	0.181	79.363
2896.333	0.182	79.325	0.983	-10.458	0.983	-10.458	0.182	79.325
2906.145	0.182	79.287	0.983	-10.497	0.983	-10.497	0.182	79.287
2915.956	0.183	79.249	0.982	-10.536	0.982	-10.536	0.183	79.249
2925.768	0.184	79.21	0.982	-10.575	0.982	-10.575	0.184	79.21
2935.58	0.184	79.172	0.982	-10.614	0.982	-10.614	0.184	79.172
2945.391	0.185	79.134	0.982	-10.653	0.982	-10.653	0.185	79.134
2955.203	0.186	79.096	0.982	-10.692	0.982	-10.692	0.186	79.096
2965.015	0.186	79.058	0.982	-10.731	0.982	-10.731	0.186	79.058
2974.827	0.187	79.02	0.982	-10.769	0.982	-10.769	0.187	79.02
2984.638	0.188	78.982	0.982	-10.808	0.982	-10.808	0.188	78.982
2994.45	0.188	78.944	0.981	-10.847	0.981	-10.847	0.188	78.944
3004.262	0.189	78.906	0.981	-10.886	0.981	-10.886	0.189	78.906
3014.073	0.19	78.868	0.981	-10.925	0.981	-10.925	0.19	78.868
3023.885	0.19	78.83	0.981	-10.963	0.981	-10.963	0.19	78.83
3033.697	0.191	78.792	0.981	-11.002	0.981	-11.002	0.191	78.792
3043.508	0.192	78.754	0.981	-11.041	0.981	-11.041	0.192	78.754
3053.32	0.192	78.716	0.981	-11.079	0.981	-11.079	0.192	78.716
3063.132	0.193	78.678	0.981	-11.118	0.981	-11.118	0.193	78.678
3072.944	0.193	78.64	0.98	-11.157	0.98	-11.157	0.193	78.64
3082.755	0.194	78.602	0.98	-11.195	0.98	-11.195	0.194	78.602
3092.567	0.195	78.564	0.98	-11.234	0.98	-11.234	0.195	78.564
3102.379	0.195	78.527	0.98	-11.272	0.98	-11.272	0.195	78.527
3112.19	0.196	78.489	0.98	-11.311	0.98	-11.311	0.196	78.489
3122.002	0.197	78.451	0.98	-11.349	0.98	-11.349	0.197	78.451
3131.814	0.197	78.413	0.98	-11.388	0.98	-11.388	0.197	78.413
3141.625	0.198	78.375	0.979	-11.426	0.979	-11.426	0.198	78.375
3151.437	0.199	78.338	0.979	-11.465	0.979	-11.465	0.199	78.338
3161.249	0.199	78.3	0.979	-11.503	0.979	-11.503	0.199	78.3
3171.06	0.2	78.262	0.979	-11.542	0.979	-11.542	0.2	78.262
3180.872	0.201	78.224	0.979	-11.58	0.979	-11.58	0.201	78.224
3190.684	0.201	78.187	0.979	-11.618	0.979	-11.618	0.201	78.187
3200.496	0.202	78.149	0.979	-11.657	0.979	-11.657	0.202	78.149
3210.307	0.203	78.111	0.979	-11.695	0.979	-11.695	0.203	78.111
3220.119	0.203	78.074	0.978	-11.733	0.978	-11.733	0.203	78.074
3229.931	0.204	78.036	0.978	-11.771	0.978	-11.771	0.204	78.036
3239.742	0.205	77.999	0.978	-11.81	0.978	-11.81	0.205	77.999
3249.554	0.205	77.961	0.978	-11.848	0.978	-11.848	0.205	77.961
3259.366	0.206	77.923	0.978	-11.886	0.978	-11.886	0.206	77.923
3269.177	0.207	77.886	0.978	-11.924	0.978	-11.924	0.207	77.886
3278.989	0.207	77.848	0.978	-11.963	0.978	-11.963	0.207	77.848
