! AVX Thin Film Operation		Date: April 2012 
! Description: Accu-P® Series, Thin Film, SMD, RF Capacitor
! Part Number: 12101J1R4PBTTR					
!	100	MHz	-	20.05	GHz			
!	Serial	Measurements						
!								
#	MHZ	S	MA	R	50			
!	S11	S21	S12	S22				
!	dB	Phase	dB	Phase	dB	Phase	dB	Phase
50 0.999 -2.519 0.044 87.413 0.044 87.413 0.999 -2.519
100 0.996 -5.029 0.088 84.89 0.088 84.89 0.996 -5.029
150 0.991 -7.525 0.131 82.384 0.131 82.384 0.991 -7.525
200 0.985 -9.998 0.174 79.899 0.174 79.899 0.985 -9.998
250 0.976 -12.442 0.215 77.444 0.215 77.444 0.976 -12.442
300 0.966 -14.85 0.256 75.024 0.256 75.024 0.966 -14.85
350 0.954 -17.217 0.296 72.644 0.296 72.644 0.954 -17.217
400 0.942 -19.538 0.334 70.311 0.334 70.311 0.942 -19.538
450 0.927 -21.809 0.372 68.028 0.372 68.028 0.927 -21.809
500 0.912 -24.027 0.407 65.799 0.407 65.799 0.912 -24.027
550 0.896 -26.188 0.441 63.626 0.441 63.626 0.896 -26.188
600 0.879 -28.29 0.474 61.511 0.474 61.511 0.879 -28.29
650 0.861 -30.332 0.505 59.457 0.505 59.457 0.861 -30.332
700 0.843 -32.312 0.535 57.463 0.535 57.463 0.843 -32.312
750 0.824 -34.232 0.563 55.53 0.563 55.53 0.824 -34.232
800 0.806 -36.09 0.589 53.659 0.589 53.659 0.806 -36.09
850 0.786 -37.887 0.614 51.848 0.614 51.848 0.786 -37.887
900 0.767 -39.625 0.638 50.097 0.638 50.097 0.767 -39.625
950 0.748 -41.303 0.66 48.405 0.66 48.405 0.748 -41.303
1000 0.729 -42.924 0.681 46.77 0.681 46.77 0.729 -42.924
1050 0.709 -44.489 0.701 45.19 0.701 45.19 0.709 -44.489
1100 0.69 -46 0.719 43.664 0.719 43.664 0.69 -46
1150 0.672 -47.459 0.737 42.191 0.737 42.191 0.672 -47.459
1200 0.653 -48.866 0.753 40.768 0.753 40.768 0.653 -48.866
1250 0.635 -50.225 0.769 39.393 0.769 39.393 0.635 -50.225
1300 0.617 -51.537 0.783 38.065 0.783 38.065 0.617 -51.537
1350 0.599 -52.804 0.797 36.781 0.797 36.781 0.599 -52.804
1400 0.581 -54.027 0.809 35.541 0.809 35.541 0.581 -54.027
1450 0.564 -55.209 0.821 34.341 0.821 34.341 0.564 -55.209
1500 0.547 -56.352 0.832 33.18 0.832 33.18 0.547 -56.352
1550 0.531 -57.456 0.843 32.057 0.843 32.057 0.531 -57.456
1600 0.515 -58.524 0.853 30.97 0.853 30.97 0.515 -58.524
1650 0.499 -59.558 0.862 29.916 0.862 29.916 0.499 -59.558
1700 0.483 -60.558 0.871 28.895 0.871 28.895 0.483 -60.558
1750 0.468 -61.526 0.879 27.905 0.879 27.905 0.468 -61.526
1800 0.453 -62.465 0.887 26.945 0.887 26.945 0.453 -62.465
1850 0.439 -63.374 0.894 26.013 0.894 26.013 0.439 -63.374
1900 0.424 -64.255 0.901 25.108 0.901 25.108 0.424 -64.255
1950 0.41 -65.11 0.907 24.228 0.907 24.228 0.41 -65.11
2000 0.397 -65.939 0.913 23.373 0.913 23.373 0.397 -65.939
2050 0.383 -66.744 0.919 22.542 0.919 22.542 0.383 -66.744
2100 0.37 -67.525 0.924 21.733 0.924 21.733 0.37 -67.525
2150 0.357 -68.283 0.929 20.945 0.929 20.945 0.357 -68.283
2200 0.345 -69.02 0.934 20.177 0.934 20.177 0.345 -69.02
2250 0.333 -69.736 0.938 19.429 0.938 19.429 0.333 -69.736
2300 0.321 -70.432 0.942 18.699 0.942 18.699 0.321 -70.432
2350 0.309 -71.108 0.946 17.987 0.946 17.987 0.309 -71.108
2400 0.297 -71.766 0.95 17.292 0.95 17.292 0.297 -71.766
2450 0.286 -72.405 0.953 16.613 0.953 16.613 0.286 -72.405
2500 0.275 -73.026 0.957 15.95 0.957 15.95 0.275 -73.026
2550 0.264 -73.63 0.96 15.302 0.96 15.302 0.264 -73.63
2600 0.253 -74.217 0.962 14.668 0.962 14.668 0.253 -74.217
2650 0.243 -74.787 0.965 14.047 0.965 14.047 0.243 -74.787
2700 0.232 -75.34 0.968 13.44 0.968 13.44 0.232 -75.34
2750 0.222 -75.878 0.97 12.845 0.97 12.845 0.222 -75.878
2800 0.212 -76.399 0.972 12.262 0.972 12.262 0.212 -76.399
2850 0.203 -76.904 0.974 11.691 0.974 11.691 0.203 -76.904
2900 0.193 -77.392 0.976 11.131 0.976 11.131 0.193 -77.392
2950 0.184 -77.864 0.978 10.581 0.978 10.581 0.184 -77.864
3000 0.174 -78.319 0.98 10.042 0.98 10.042 0.174 -78.319
3050 0.165 -78.756 0.981 9.513 0.981 9.513 0.165 -78.756
3100 0.156 -79.175 0.983 8.993 0.983 8.993 0.156 -79.175
3150 0.148 -79.575 0.984 8.482 0.984 8.482 0.148 -79.575
3200 0.139 -79.954 0.985 7.981 0.985 7.981 0.139 -79.954
3250 0.13 -80.31 0.986 7.487 0.986 7.487 0.13 -80.31
3300 0.122 -80.642 0.988 7.002 0.988 7.002 0.122 -80.642
3350 0.114 -80.947 0.989 6.525 0.989 6.525 0.114 -80.947
3400 0.106 -81.22 0.989 6.055 0.989 6.055 0.106 -81.22
3450 0.098 -81.457 0.99 5.593 0.99 5.593 0.098 -81.457
3500 0.09 -81.65 0.991 5.137 0.991 5.137 0.09 -81.65
3550 0.082 -81.791 0.992 4.689 0.992 4.689 0.082 -81.791
3600 0.074 -81.868 0.992 4.247 0.992 4.247 0.074 -81.868
3650 0.067 -81.86 0.993 3.812 0.993 3.812 0.067 -81.86
3700 0.059 -81.742 0.993 3.383 0.993 3.383 0.059 -81.742
3750 0.052 -81.471 0.994 2.96 0.994 2.96 0.052 -81.471
3800 0.045 -80.981 0.994 2.542 0.994 2.542 0.045 -80.981
3850 0.038 -80.154 0.994 2.131 0.994 2.131 0.038 -80.154
3900 0.031 -78.772 0.995 1.724 0.995 1.724 0.031 -78.772
3950 0.024 -76.371 0.995 1.323 0.995 1.323 0.024 -76.371
4000 0.017 -71.783 0.995 0.927 0.995 0.927 0.017 -71.783
4050 0.011 -61.182 0.995 0.537 0.995 0.537 0.011 -61.182
4100 5.682e-3 -27.384 0.995 0.151 0.995 0.151 5.682e-3 -27.384
4150 6.452e-3 38.418 0.995 -0.231 0.995 -0.231 6.452e-3 38.418
4200 0.012 63.981 0.995 -0.608 0.995 -0.608 0.012 63.981
4250 0.018 72.607 0.995 -0.98 0.995 -0.98 0.018 72.607
4300 0.024 76.566 0.995 -1.348 0.995 -1.348 0.024 76.566
4350 0.03 78.718 0.995 -1.712 0.995 -1.712 0.03 78.718
4400 0.037 79.997 0.994 -2.072 0.994 -2.072 0.037 79.997
4450 0.043 80.793 0.994 -2.428 0.994 -2.428 0.043 80.793
4500 0.049 81.293 0.994 -2.78 0.994 -2.78 0.049 81.293
4550 0.055 81.601 0.993 -3.128 0.993 -3.128 0.055 81.601
4600 0.061 81.778 0.993 -3.473 0.993 -3.473 0.061 81.778
4650 0.067 81.86 0.993 -3.814 0.993 -3.814 0.067 81.86
4700 0.073 81.874 0.992 -4.151 0.992 -4.151 0.073 81.874
4750 0.078 81.835 0.992 -4.485 0.992 -4.485 0.078 81.835
4800 0.084 81.757 0.991 -4.816 0.991 -4.816 0.084 81.757
4850 0.09 81.648 0.991 -5.144 0.991 -5.144 0.09 81.648
4900 0.095 81.514 0.99 -5.468 0.99 -5.468 0.095 81.514
4950 0.101 81.36 0.99 -5.79 0.99 -5.79 0.101 81.36
5000 0.107 81.191 0.989 -6.108 0.989 -6.108 0.107 81.191
5050 0.112 81.008 0.989 -6.424 0.989 -6.424 0.112 81.008
5100 0.117 80.815 0.988 -6.736 0.988 -6.736 0.117 80.815
5150 0.123 80.613 0.987 -7.046 0.987 -7.046 0.123 80.613
5200 0.128 80.404 0.987 -7.353 0.987 -7.353 0.128 80.404
5250 0.133 80.19 0.986 -7.657 0.986 -7.657 0.133 80.19
5300 0.139 79.97 0.985 -7.959 0.985 -7.959 0.139 79.97
5350 0.144 79.746 0.985 -8.258 0.985 -8.258 0.144 79.746
5400 0.149 79.519 0.984 -8.555 0.984 -8.555 0.149 79.519
5450 0.154 79.29 0.983 -8.849 0.983 -8.849 0.154 79.29
5500 0.159 79.058 0.982 -9.14 0.982 -9.14 0.159 79.058
5550 0.164 78.824 0.981 -9.43 0.981 -9.43 0.164 78.824
5600 0.169 78.589 0.981 -9.717 0.981 -9.717 0.169 78.589
5650 0.174 78.353 0.98 -10.001 0.98 -10.001 0.174 78.353
5700 0.179 78.116 0.979 -10.284 0.979 -10.284 0.179 78.116
5750 0.183 77.879 0.978 -10.564 0.978 -10.564 0.183 77.879
5800 0.188 77.641 0.977 -10.842 0.977 -10.842 0.188 77.641
5850 0.193 77.403 0.976 -11.118 0.976 -11.118 0.193 77.403
5900 0.198 77.165 0.975 -11.392 0.975 -11.392 0.198 77.165
5950 0.202 76.927 0.974 -11.664 0.974 -11.664 0.202 76.927
6000 0.207 76.69 0.973 -11.934 0.973 -11.934 0.207 76.69
6050 0.211 76.452 0.972 -12.202 0.972 -12.202 0.211 76.452
6100 0.216 76.216 0.971 -12.468 0.971 -12.468 0.216 76.216
6150 0.22 75.979 0.97 -12.732 0.97 -12.732 0.22 75.979
6200 0.225 75.743 0.969 -12.994 0.969 -12.994 0.225 75.743
6250 0.229 75.508 0.968 -13.255 0.968 -13.255 0.229 75.508
6300 0.234 75.274 0.967 -13.513 0.967 -13.513 0.234 75.274
6350 0.238 75.04 0.966 -13.77 0.966 -13.77 0.238 75.04
6400 0.242 74.807 0.965 -14.025 0.965 -14.025 0.242 74.807
6450 0.247 74.575 0.964 -14.278 0.964 -14.278 0.247 74.575
6500 0.251 74.344 0.963 -14.53 0.963 -14.53 0.251 74.344
6550 0.255 74.113 0.962 -14.78 0.962 -14.78 0.255 74.113
6600 0.259 73.884 0.961 -15.028 0.961 -15.028 0.259 73.884
6650 0.263 73.655 0.96 -15.274 0.96 -15.274 0.263 73.655
6700 0.268 73.427 0.959 -15.52 0.959 -15.52 0.268 73.427
6750 0.272 73.201 0.957 -15.763 0.957 -15.763 0.272 73.201
6800 0.276 72.975 0.956 -16.005 0.956 -16.005 0.276 72.975
6850 0.28 72.75 0.955 -16.245 0.955 -16.245 0.28 72.75
6900 0.284 72.526 0.954 -16.484 0.954 -16.484 0.284 72.526
6950 0.288 72.303 0.953 -16.721 0.953 -16.721 0.288 72.303
7000 0.292 72.081 0.952 -16.957 0.952 -16.957 0.292 72.081
7050 0.296 71.86 0.95 -17.192 0.95 -17.192 0.296 71.86
7100 0.299 71.64 0.949 -17.425 0.949 -17.425 0.299 71.64
7150 0.303 71.422 0.948 -17.656 0.948 -17.656 0.303 71.422
7200 0.307 71.204 0.947 -17.886 0.947 -17.886 0.307 71.204
7250 0.311 70.987 0.946 -18.115 0.946 -18.115 0.311 70.987
7300 0.315 70.771 0.944 -18.343 0.944 -18.343 0.315 70.771
7350 0.318 70.556 0.943 -18.569 0.943 -18.569 0.318 70.556
7400 0.322 70.342 0.942 -18.793 0.942 -18.793 0.322 70.342
7450 0.326 70.129 0.941 -19.017 0.941 -19.017 0.326 70.129
7500 0.33 69.917 0.939 -19.239 0.939 -19.239 0.33 69.917
7550 0.333 69.706 0.938 -19.46 0.938 -19.46 0.333 69.706
7600 0.337 69.497 0.937 -19.679 0.937 -19.679 0.337 69.497
7650 0.34 69.288 0.935 -19.898 0.935 -19.898 0.34 69.288
7700 0.344 69.08 0.934 -20.115 0.934 -20.115 0.344 69.08
7750 0.347 68.873 0.933 -20.331 0.933 -20.331 0.347 68.873
7800 0.351 68.667 0.932 -20.545 0.932 -20.545 0.351 68.667
7850 0.354 68.462 0.93 -20.759 0.93 -20.759 0.354 68.462
7900 0.358 68.258 0.929 -20.971 0.929 -20.971 0.358 68.258
7950 0.361 68.055 0.928 -21.182 0.928 -21.182 0.361 68.055
8000 0.365 67.853 0.926 -21.392 0.926 -21.392 0.365 67.853
8050 0.368 67.652 0.925 -21.601 0.925 -21.601 0.368 67.652
8100 0.372 67.452 0.924 -21.808 0.924 -21.808 0.372 67.452
8150 0.375 67.252 0.922 -22.015 0.922 -22.015 0.375 67.252
8200 0.378 67.054 0.921 -22.22 0.921 -22.22 0.378 67.054
8250 0.381 66.857 0.92 -22.425 0.92 -22.425 0.381 66.857
8300 0.385 66.66 0.918 -22.628 0.918 -22.628 0.385 66.66
8350 0.388 66.465 0.917 -22.83 0.917 -22.83 0.388 66.465
8400 0.391 66.27 0.916 -23.031 0.916 -23.031 0.391 66.27
8450 0.394 66.077 0.914 -23.231 0.914 -23.231 0.394 66.077
8500 0.398 65.884 0.913 -23.43 0.913 -23.43 0.398 65.884
8550 0.401 65.692 0.911 -23.628 0.911 -23.628 0.401 65.692
8600 0.404 65.502 0.91 -23.825 0.91 -23.825 0.404 65.502
8650 0.407 65.312 0.909 -24.02 0.909 -24.02 0.407 65.312
8700 0.41 65.122 0.907 -24.215 0.907 -24.215 0.41 65.122
8750 0.413 64.934 0.906 -24.409 0.906 -24.409 0.413 64.934
8800 0.416 64.747 0.904 -24.602 0.904 -24.602 0.416 64.747
8850 0.419 64.56 0.903 -24.794 0.903 -24.794 0.419 64.56
8900 0.422 64.375 0.902 -24.985 0.902 -24.985 0.422 64.375
8950 0.425 64.19 0.9 -25.175 0.9 -25.175 0.425 64.19
9000 0.428 64.006 0.899 -25.364 0.899 -25.364 0.428 64.006
9050 0.431 63.823 0.897 -25.552 0.897 -25.552 0.431 63.823
9100 0.434 63.641 0.896 -25.739 0.896 -25.739 0.434 63.641
9150 0.437 63.46 0.895 -25.925 0.895 -25.925 0.437 63.46
9200 0.44 63.279 0.893 -26.11 0.893 -26.11 0.44 63.279
9250 0.443 63.1 0.892 -26.294 0.892 -26.294 0.443 63.1
9300 0.446 62.921 0.89 -26.477 0.89 -26.477 0.446 62.921
9350 0.449 62.743 0.889 -26.66 0.889 -26.66 0.449 62.743
9400 0.452 62.566 0.888 -26.841 0.888 -26.841 0.452 62.566
9450 0.454 62.389 0.886 -27.022 0.886 -27.022 0.454 62.389
9500 0.457 62.214 0.885 -27.202 0.885 -27.202 0.457 62.214
9550 0.46 62.039 0.883 -27.381 0.883 -27.381 0.46 62.039
9600 0.463 61.865 0.882 -27.559 0.882 -27.559 0.463 61.865
9650 0.465 61.692 0.88 -27.736 0.88 -27.736 0.465 61.692
9700 0.468 61.52 0.879 -27.912 0.879 -27.912 0.468 61.52
9750 0.471 61.348 0.878 -28.088 0.878 -28.088 0.471 61.348
9800 0.474 61.177 0.876 -28.262 0.876 -28.262 0.474 61.177
9850 0.476 61.007 0.875 -28.436 0.875 -28.436 0.476 61.007
9900 0.479 60.838 0.873 -28.609 0.873 -28.609 0.479 60.838
9950 0.481 60.67 0.872 -28.781 0.872 -28.781 0.481 60.67
10000 0.484 60.502 0.87 -28.952 0.87 -28.952 0.484 60.502
10050 0.487 60.335 0.869 -29.123 0.869 -29.123 0.487 60.335
10100 0.489 60.169 0.868 -29.293 0.868 -29.293 0.489 60.169
10150 0.492 60.003 0.866 -29.462 0.866 -29.462 0.492 60.003
10200 0.494 59.839 0.865 -29.63 0.865 -29.63 0.494 59.839
10250 0.497 59.675 0.863 -29.797 0.863 -29.797 0.497 59.675
10300 0.499 59.511 0.862 -29.963 0.862 -29.963 0.499 59.511
10350 0.502 59.349 0.86 -30.129 0.86 -30.129 0.502 59.349
10400 0.504 59.187 0.859 -30.294 0.859 -30.294 0.504 59.187
10450 0.507 59.026 0.857 -30.458 0.857 -30.458 0.507 59.026
10500 0.509 58.866 0.856 -30.622 0.856 -30.622 0.509 58.866
10550 0.512 58.706 0.855 -30.784 0.855 -30.784 0.512 58.706
10600 0.514 58.547 0.853 -30.946 0.853 -30.946 0.514 58.547
10650 0.517 58.389 0.852 -31.107 0.852 -31.107 0.517 58.389
10700 0.519 58.231 0.85 -31.268 0.85 -31.268 0.519 58.231
10750 0.521 58.075 0.849 -31.428 0.849 -31.428 0.521 58.075
10800 0.524 57.918 0.847 -31.586 0.847 -31.586 0.524 57.918
10850 0.526 57.763 0.846 -31.745 0.846 -31.745 0.526 57.763
10900 0.528 57.608 0.844 -31.902 0.844 -31.902 0.528 57.608
10950 0.531 57.454 0.843 -32.059 0.843 -32.059 0.531 57.454
11000 0.533 57.301 0.842 -32.215 0.842 -32.215 0.533 57.301
11050 0.535 57.148 0.84 -32.37 0.84 -32.37 0.535 57.148
11100 0.538 56.996 0.839 -32.525 0.839 -32.525 0.538 56.996
11150 0.54 56.845 0.837 -32.679 0.837 -32.679 0.54 56.845
11200 0.542 56.694 0.836 -32.832 0.836 -32.832 0.542 56.694
11250 0.544 56.544 0.834 -32.985 0.834 -32.985 0.544 56.544
11300 0.547 56.394 0.833 -33.137 0.833 -33.137 0.547 56.394
11350 0.549 56.246 0.831 -33.288 0.831 -33.288 0.549 56.246
11400 0.551 56.098 0.83 -33.439 0.83 -33.439 0.551 56.098
11450 0.553 55.95 0.829 -33.588 0.829 -33.588 0.553 55.95
11500 0.555 55.803 0.827 -33.738 0.827 -33.738 0.555 55.803
11550 0.558 55.657 0.826 -33.886 0.826 -33.886 0.558 55.657
11600 0.56 55.511 0.824 -34.034 0.824 -34.034 0.56 55.511
11650 0.562 55.367 0.823 -34.181 0.823 -34.181 0.562 55.367
11700 0.564 55.222 0.821 -34.328 0.821 -34.328 0.564 55.222
11750 0.566 55.079 0.82 -34.474 0.82 -34.474 0.566 55.079
11800 0.568 54.935 0.819 -34.619 0.819 -34.619 0.568 54.935
11850 0.57 54.793 0.817 -34.763 0.817 -34.763 0.57 54.793
11900 0.572 54.651 0.816 -34.907 0.816 -34.907 0.572 54.651
11950 0.574 54.51 0.814 -35.051 0.814 -35.051 0.574 54.51
12000 0.576 54.369 0.813 -35.194 0.813 -35.194 0.576 54.369
12050 0.578 54.229 0.811 -35.336 0.811 -35.336 0.578 54.229
12100 0.58 54.09 0.81 -35.477 0.81 -35.477 0.58 54.09
12150 0.582 53.951 0.809 -35.618 0.809 -35.618 0.582 53.951
12200 0.584 53.813 0.807 -35.758 0.807 -35.758 0.584 53.813
12250 0.586 53.675 0.806 -35.898 0.806 -35.898 0.586 53.675
12300 0.588 53.538 0.804 -36.037 0.804 -36.037 0.588 53.538
12350 0.59 53.401 0.803 -36.175 0.803 -36.175 0.59 53.401
12400 0.592 53.266 0.801 -36.313 0.801 -36.313 0.592 53.266
12450 0.594 53.13 0.8 -36.45 0.8 -36.45 0.594 53.13
12500 0.596 52.995 0.799 -36.587 0.799 -36.587 0.596 52.995
12550 0.598 52.861 0.797 -36.723 0.797 -36.723 0.598 52.861
12600 0.6 52.728 0.796 -36.858 0.796 -36.858 0.6 52.728
12650 0.602 52.594 0.794 -36.993 0.794 -36.993 0.602 52.594
12700 0.604 52.462 0.793 -37.128 0.793 -37.128 0.604 52.462
12750 0.605 52.33 0.792 -37.261 0.792 -37.261 0.605 52.33
12800 0.607 52.199 0.79 -37.394 0.79 -37.394 0.607 52.199
12850 0.609 52.068 0.789 -37.527 0.789 -37.527 0.609 52.068
12900 0.611 51.937 0.787 -37.659 0.787 -37.659 0.611 51.937
12950 0.613 51.808 0.786 -37.791 0.786 -37.791 0.613 51.808
13000 0.615 51.678 0.785 -37.921 0.785 -37.921 0.615 51.678
13050 0.616 51.55 0.783 -38.052 0.783 -38.052 0.616 51.55
13100 0.618 51.422 0.782 -38.182 0.782 -38.182 0.618 51.422
13150 0.62 51.294 0.78 -38.311 0.78 -38.311 0.62 51.294
13200 0.622 51.167 0.779 -38.439 0.779 -38.439 0.622 51.167
13250 0.623 51.04 0.778 -38.568 0.778 -38.568 0.623 51.04
13300 0.625 50.914 0.776 -38.695 0.776 -38.695 0.625 50.914
13350 0.627 50.789 0.775 -38.822 0.775 -38.822 0.627 50.789
13400 0.629 50.664 0.773 -38.949 0.773 -38.949 0.629 50.664
13450 0.63 50.539 0.772 -39.075 0.772 -39.075 0.63 50.539
13500 0.632 50.416 0.771 -39.2 0.771 -39.2 0.632 50.416
13550 0.634 50.292 0.769 -39.325 0.769 -39.325 0.634 50.292
13600 0.635 50.169 0.768 -39.45 0.768 -39.45 0.635 50.169
13650 0.637 50.047 0.767 -39.573 0.767 -39.573 0.637 50.047
13700 0.639 49.925 0.765 -39.697 0.765 -39.697 0.639 49.925
13750 0.64 49.803 0.764 -39.82 0.764 -39.82 0.64 49.803
13800 0.642 49.682 0.762 -39.942 0.762 -39.942 0.642 49.682
13850 0.644 49.562 0.761 -40.064 0.761 -40.064 0.644 49.562
13900 0.645 49.442 0.76 -40.185 0.76 -40.185 0.645 49.442
13950 0.647 49.323 0.758 -40.306 0.758 -40.306 0.647 49.323
14000 0.648 49.204 0.757 -40.426 0.757 -40.426 0.648 49.204
14050 0.65 49.085 0.756 -40.546 0.756 -40.546 0.65 49.085
14100 0.652 48.967 0.754 -40.665 0.754 -40.665 0.652 48.967
14150 0.653 48.85 0.753 -40.784 0.753 -40.784 0.653 48.85
14200 0.655 48.733 0.752 -40.903 0.752 -40.903 0.655 48.733
14250 0.656 48.616 0.75 -41.021 0.75 -41.021 0.656 48.616
14300 0.658 48.5 0.749 -41.138 0.749 -41.138 0.658 48.5
14350 0.659 48.384 0.748 -41.255 0.748 -41.255 0.659 48.384
14400 0.661 48.269 0.746 -41.371 0.746 -41.371 0.661 48.269
14450 0.662 48.155 0.745 -41.487 0.745 -41.487 0.662 48.155
14500 0.664 48.04 0.744 -41.603 0.744 -41.603 0.664 48.04
14550 0.665 47.927 0.742 -41.718 0.742 -41.718 0.665 47.927
14600 0.667 47.813 0.741 -41.832 0.741 -41.832 0.667 47.813
14650 0.668 47.701 0.74 -41.946 0.74 -41.946 0.668 47.701
14700 0.67 47.588 0.738 -42.06 0.738 -42.06 0.67 47.588
14750 0.671 47.476 0.737 -42.173 0.737 -42.173 0.671 47.476
14800 0.673 47.365 0.736 -42.286 0.736 -42.286 0.673 47.365
14850 0.674 47.254 0.734 -42.398 0.734 -42.398 0.674 47.254
14900 0.676 47.143 0.733 -42.51 0.733 -42.51 0.676 47.143
14950 0.677 47.033 0.732 -42.621 0.732 -42.621 0.677 47.033
15000 0.679 46.923 0.73 -42.732 0.73 -42.732 0.679 46.923
15050 0.68 46.814 0.729 -42.842 0.729 -42.842 0.68 46.814
15100 0.681 46.705 0.728 -42.952 0.728 -42.952 0.681 46.705
15150 0.683 46.597 0.727 -43.062 0.727 -43.062 0.683 46.597
15200 0.684 46.489 0.725 -43.171 0.725 -43.171 0.684 46.489
15250 0.686 46.381 0.724 -43.279 0.724 -43.279 0.686 46.381
15300 0.687 46.274 0.723 -43.388 0.723 -43.388 0.687 46.274
15350 0.688 46.167 0.721 -43.495 0.721 -43.495 0.688 46.167
15400 0.69 46.061 0.72 -43.603 0.72 -43.603 0.69 46.061
15450 0.691 45.955 0.719 -43.71 0.719 -43.71 0.691 45.955
15500 0.692 45.85 0.718 -43.816 0.718 -43.816 0.692 45.85
15550 0.694 45.745 0.716 -43.922 0.716 -43.922 0.694 45.745
15600 0.695 45.64 0.715 -44.028 0.715 -44.028 0.695 45.64
15650 0.696 45.536 0.714 -44.133 0.714 -44.133 0.696 45.536
15700 0.698 45.432 0.712 -44.238 0.712 -44.238 0.698 45.432
15750 0.699 45.329 0.711 -44.342 0.711 -44.342 0.699 45.329
15800 0.7 45.226 0.71 -44.446 0.71 -44.446 0.7 45.226
15850 0.702 45.123 0.709 -44.55 0.709 -44.55 0.702 45.123
15900 0.703 45.021 0.707 -44.653 0.707 -44.653 0.703 45.021
15950 0.704 44.919 0.706 -44.756 0.706 -44.756 0.704 44.919
16000 0.705 44.818 0.705 -44.858 0.705 -44.858 0.705 44.818
16050 0.707 44.717 0.704 -44.96 0.704 -44.96 0.707 44.717
16100 0.708 44.616 0.702 -45.062 0.702 -45.062 0.708 44.616
16150 0.709 44.516 0.701 -45.163 0.701 -45.163 0.709 44.516
16200 0.71 44.417 0.7 -45.264 0.7 -45.264 0.71 44.417
16250 0.712 44.317 0.699 -45.364 0.699 -45.364 0.712 44.317
16300 0.713 44.218 0.697 -45.464 0.697 -45.464 0.713 44.218
16350 0.714 44.119 0.696 -45.563 0.696 -45.563 0.714 44.119
16400 0.715 44.021 0.695 -45.663 0.695 -45.663 0.715 44.021
16450 0.716 43.923 0.694 -45.761 0.694 -45.761 0.716 43.923
16500 0.718 43.826 0.692 -45.86 0.692 -45.86 0.718 43.826
16550 0.719 43.729 0.691 -45.958 0.691 -45.958 0.719 43.729
16600 0.72 43.632 0.69 -46.056 0.69 -46.056 0.72 43.632
16650 0.721 43.536 0.689 -46.153 0.689 -46.153 0.721 43.536
16700 0.722 43.44 0.688 -46.25 0.688 -46.25 0.722 43.44
16750 0.724 43.344 0.686 -46.346 0.686 -46.346 0.724 43.344
16800 0.725 43.249 0.685 -46.442 0.685 -46.442 0.725 43.249
16850 0.726 43.154 0.684 -46.538 0.684 -46.538 0.726 43.154
16900 0.727 43.059 0.683 -46.634 0.683 -46.634 0.727 43.059
16950 0.728 42.965 0.682 -46.729 0.682 -46.729 0.728 42.965
