! AVX Thin Film Operation		Date: April 2012 
! Description: Accu-P® Series, Thin Film, SMD, RF Capacitor
! Part Number: 12101J120FBTTR					
!	100	MHz	-	10.05	GHz			
!	Serial	Measurements						
!								
#	MHZ	S	MA	R	50			
!	S11	S21	S12	S22				
!	dB	Phase	dB	Phase	dB	Phase	dB	Phase
100	0.797	-37.143	0.604	52.818	0.604	52.818	0.797	-37.143
109.812	0.768	-39.78	0.64	50.177	0.64	50.177	0.768	-39.78
119.623	0.74	-42.237	0.672	47.716	0.672	47.716	0.74	-42.237
129.435	0.712	-44.523	0.701	45.426	0.701	45.426	0.712	-44.523
139.247	0.686	-46.65	0.727	43.295	0.727	43.295	0.686	-46.65
149.058	0.66	-48.63	0.75	41.312	0.75	41.312	0.66	-48.63
158.87	0.636	-50.472	0.771	39.465	0.771	39.465	0.636	-50.472
168.682	0.612	-52.189	0.79	37.745	0.79	37.745	0.612	-52.189
178.494	0.59	-53.789	0.807	36.14	0.807	36.14	0.59	-53.789
188.305	0.568	-55.283	0.822	34.642	0.822	34.642	0.568	-55.283
198.117	0.548	-56.68	0.836	33.242	0.836	33.242	0.548	-56.68
207.929	0.529	-57.986	0.848	31.931	0.848	31.931	0.529	-57.986
217.74	0.511	-59.211	0.859	30.703	0.859	30.703	0.511	-59.211
227.552	0.493	-60.36	0.869	29.549	0.869	29.549	0.493	-60.36
237.364	0.477	-61.439	0.878	28.465	0.878	28.465	0.477	-61.439
247.175	0.461	-62.456	0.887	27.445	0.887	27.445	0.461	-62.456
256.987	0.446	-63.413	0.894	26.483	0.894	26.483	0.446	-63.413
266.799	0.432	-64.317	0.901	25.575	0.901	25.575	0.432	-64.317
276.611	0.418	-65.171	0.908	24.717	0.908	24.717	0.418	-65.171
286.422	0.405	-65.979	0.913	23.905	0.913	23.905	0.405	-65.979
296.234	0.393	-66.745	0.919	23.134	0.919	23.134	0.393	-66.745
306.046	0.381	-67.472	0.924	22.403	0.924	22.403	0.381	-67.472
315.857	0.37	-68.162	0.928	21.709	0.928	21.709	0.37	-68.162
325.669	0.359	-68.818	0.932	21.048	0.932	21.048	0.359	-68.818
335.481	0.349	-69.443	0.936	20.418	0.936	20.418	0.349	-69.443
345.292	0.339	-70.039	0.94	19.818	0.94	19.818	0.339	-70.039
355.104	0.33	-70.608	0.943	19.244	0.943	19.244	0.33	-70.608
364.916	0.321	-71.152	0.946	18.696	0.946	18.696	0.321	-71.152
374.727	0.312	-71.672	0.949	18.171	0.949	18.171	0.312	-71.672
384.539	0.304	-72.169	0.952	17.669	0.952	17.669	0.304	-72.169
394.351	0.295	-72.646	0.954	17.187	0.954	17.187	0.295	-72.646
404.163	0.288	-73.104	0.957	16.725	0.957	16.725	0.288	-73.104
413.974	0.28	-73.543	0.959	16.28	0.959	16.28	0.28	-73.543
423.786	0.273	-73.966	0.961	15.853	0.961	15.853	0.273	-73.966
433.598	0.266	-74.372	0.963	15.442	0.963	15.442	0.266	-74.372
443.409	0.26	-74.763	0.965	15.046	0.965	15.046	0.26	-74.763
453.221	0.253	-75.139	0.967	14.664	0.967	14.664	0.253	-75.139
463.033	0.247	-75.503	0.968	14.295	0.968	14.295	0.247	-75.503
472.844	0.241	-75.853	0.97	13.939	0.97	13.939	0.241	-75.853
482.656	0.235	-76.191	0.971	13.596	0.971	13.596	0.235	-76.191
492.468	0.229	-76.518	0.972	13.263	0.972	13.263	0.229	-76.518
502.279	0.224	-76.834	0.974	12.941	0.974	12.941	0.224	-76.834
512.091	0.219	-77.14	0.975	12.63	0.975	12.63	0.219	-77.14
521.903	0.214	-77.437	0.976	12.328	0.976	12.328	0.214	-77.437
531.715	0.209	-77.724	0.977	12.035	0.977	12.035	0.209	-77.724
541.526	0.204	-78.002	0.978	11.75	0.978	11.75	0.204	-78.002
551.338	0.199	-78.272	0.979	11.475	0.979	11.475	0.199	-78.272
561.15	0.194	-78.533	0.98	11.206	0.98	11.206	0.194	-78.533
570.961	0.19	-78.788	0.981	10.946	0.981	10.946	0.19	-78.788
580.773	0.186	-79.035	0.982	10.692	0.982	10.692	0.186	-79.035
590.585	0.181	-79.275	0.983	10.446	0.983	10.446	0.181	-79.275
600.396	0.177	-79.508	0.983	10.206	0.983	10.206	0.177	-79.508
610.208	0.173	-79.735	0.984	9.971	0.984	9.971	0.173	-79.735
620.02	0.169	-79.956	0.985	9.743	0.985	9.743	0.169	-79.956
629.832	0.165	-80.172	0.985	9.521	0.985	9.521	0.165	-80.172
639.643	0.162	-80.381	0.986	9.304	0.986	9.304	0.162	-80.381
649.455	0.158	-80.586	0.987	9.092	0.987	9.092	0.158	-80.586
659.267	0.154	-80.785	0.987	8.885	0.987	8.885	0.154	-80.785
669.078	0.151	-80.98	0.988	8.683	0.988	8.683	0.151	-80.98
678.89	0.148	-81.169	0.988	8.485	0.988	8.485	0.148	-81.169
688.702	0.144	-81.354	0.989	8.292	0.989	8.292	0.144	-81.354
698.513	0.141	-81.535	0.989	8.103	0.989	8.103	0.141	-81.535
708.325	0.138	-81.711	0.99	7.918	0.99	7.918	0.138	-81.711
718.137	0.135	-81.884	0.99	7.737	0.99	7.737	0.135	-81.884
727.948	0.132	-82.052	0.99	7.56	0.99	7.56	0.132	-82.052
737.76	0.129	-82.216	0.991	7.386	0.991	7.386	0.129	-82.216
747.572	0.126	-82.377	0.991	7.216	0.991	7.216	0.126	-82.377
757.384	0.123	-82.535	0.992	7.049	0.992	7.049	0.123	-82.535
767.195	0.12	-82.688	0.992	6.885	0.992	6.885	0.12	-82.688
777.007	0.117	-82.839	0.992	6.724	0.992	6.724	0.117	-82.839
786.819	0.114	-82.986	0.993	6.566	0.993	6.566	0.114	-82.986
796.63	0.112	-83.13	0.993	6.411	0.993	6.411	0.112	-83.13
806.442	0.109	-83.271	0.993	6.259	0.993	6.259	0.109	-83.271
816.254	0.106	-83.409	0.993	6.11	0.993	6.11	0.106	-83.409
826.065	0.104	-83.544	0.994	5.963	0.994	5.963	0.104	-83.544
835.877	0.101	-83.676	0.994	5.818	0.994	5.818	0.101	-83.676
845.689	0.099	-83.805	0.994	5.676	0.994	5.676	0.099	-83.805
855.5	0.096	-83.932	0.994	5.537	0.994	5.537	0.096	-83.932
865.312	0.094	-84.056	0.995	5.399	0.995	5.399	0.094	-84.056
875.124	0.092	-84.177	0.995	5.264	0.995	5.264	0.092	-84.177
884.936	0.089	-84.295	0.995	5.131	0.995	5.131	0.089	-84.295
894.747	0.087	-84.411	0.995	4.999	0.995	4.999	0.087	-84.411
904.559	0.085	-84.525	0.995	4.87	0.995	4.87	0.085	-84.525
914.371	0.083	-84.636	0.996	4.743	0.996	4.743	0.083	-84.636
924.182	0.081	-84.744	0.996	4.618	0.996	4.618	0.081	-84.744
933.994	0.078	-84.85	0.996	4.494	0.996	4.494	0.078	-84.85
943.806	0.076	-84.954	0.996	4.372	0.996	4.372	0.076	-84.954
953.617	0.074	-85.055	0.996	4.252	0.996	4.252	0.074	-85.055
963.429	0.072	-85.153	0.997	4.133	0.997	4.133	0.072	-85.153
973.241	0.07	-85.25	0.997	4.017	0.997	4.017	0.07	-85.25
983.053	0.068	-85.343	0.997	3.901	0.997	3.901	0.068	-85.343
992.864	0.066	-85.434	0.997	3.787	0.997	3.787	0.066	-85.434
1002.676	0.064	-85.523	0.997	3.675	0.997	3.675	0.064	-85.523
1012.488	0.062	-85.609	0.997	3.564	0.997	3.564	0.062	-85.609
1022.299	0.06	-85.692	0.997	3.454	0.997	3.454	0.06	-85.692
1032.111	0.058	-85.773	0.997	3.346	0.997	3.346	0.058	-85.773
1041.923	0.057	-85.851	0.998	3.239	0.998	3.239	0.057	-85.851
1051.734	0.055	-85.926	0.998	3.133	0.998	3.133	0.055	-85.926
1061.546	0.053	-85.998	0.998	3.029	0.998	3.029	0.053	-85.998
1071.358	0.051	-86.066	0.998	2.925	0.998	2.925	0.051	-86.066
1081.169	0.049	-86.132	0.998	2.823	0.998	2.823	0.049	-86.132
1090.981	0.048	-86.194	0.998	2.722	0.998	2.722	0.048	-86.194
1100.793	0.046	-86.253	0.998	2.622	0.998	2.622	0.046	-86.253
1110.605	0.044	-86.307	0.998	2.523	0.998	2.523	0.044	-86.307
1120.416	0.042	-86.358	0.998	2.426	0.998	2.426	0.042	-86.358
1130.228	0.041	-86.404	0.998	2.329	0.998	2.329	0.041	-86.404
1140.04	0.039	-86.446	0.998	2.233	0.998	2.233	0.039	-86.446
1149.851	0.037	-86.482	0.998	2.138	0.998	2.138	0.037	-86.482
1159.663	0.036	-86.512	0.998	2.045	0.998	2.045	0.036	-86.512
1169.475	0.034	-86.536	0.999	1.952	0.999	1.952	0.034	-86.536
1179.286	0.032	-86.554	0.999	1.86	0.999	1.86	0.032	-86.554
1189.098	0.031	-86.563	0.999	1.769	0.999	1.769	0.031	-86.563
1198.91	0.029	-86.564	0.999	1.678	0.999	1.678	0.029	-86.564
1208.722	0.028	-86.554	0.999	1.589	0.999	1.589	0.028	-86.554
1218.533	0.026	-86.533	0.999	1.5	0.999	1.5	0.026	-86.533
1228.345	0.025	-86.499	0.999	1.412	0.999	1.412	0.025	-86.499
1238.157	0.023	-86.449	0.999	1.325	0.999	1.325	0.023	-86.449
1247.968	0.022	-86.38	0.999	1.239	0.999	1.239	0.022	-86.38
1257.78	0.02	-86.289	0.999	1.154	0.999	1.154	0.02	-86.289
1267.592	0.019	-86.171	0.999	1.069	0.999	1.069	0.019	-86.171
1277.403	0.017	-86.02	0.999	0.985	0.999	0.985	0.017	-86.02
1287.215	0.016	-85.827	0.999	0.902	0.999	0.902	0.016	-85.827
1297.027	0.014	-85.58	0.999	0.819	0.999	0.819	0.014	-85.58
1306.838	0.013	-85.263	0.999	0.737	0.999	0.737	0.013	-85.263
1316.65	0.011	-84.849	0.999	0.655	0.999	0.655	0.011	-84.849
1326.462	0.01	-84.302	0.999	0.575	0.999	0.575	0.01	-84.302
1336.274	8.68E-03	-83.557	0.999	0.495	0.999	0.495	8.68E-03	-83.557
1346.085	7.30E-03	-82.508	0.999	0.415	0.999	0.415	7.30E-03	-82.508
1355.897	5.94E-03	-80.95	0.999	0.336	0.999	0.336	5.94E-03	-80.95
1365.709	4.59E-03	-78.442	0.999	0.258	0.999	0.258	4.59E-03	-78.442
1375.52	3.27E-03	-73.857	0.999	0.18	0.999	0.18	3.27E-03	-73.857
1385.332	2.01E-03	-63.311	0.999	0.103	0.999	0.103	2.01E-03	-63.311
1395.144	1.01E-03	-27.046	0.999	0.026	0.999	0.026	1.01E-03	-27.046
1404.955	1.25E-03	43.945	0.999	-0.05	0.999	-0.05	1.25E-03	43.945
1414.767	2.37E-03	67.522	0.999	-0.125	0.999	-0.125	2.37E-03	67.522
1424.579	3.61E-03	75.377	0.999	-0.2	0.999	-0.2	3.61E-03	75.377
1434.39	4.88E-03	79.108	0.999	-0.275	0.999	-0.275	4.88E-03	79.108
1444.202	6.16E-03	81.251	0.999	-0.349	0.999	-0.349	6.16E-03	81.251
1454.014	7.43E-03	82.624	0.999	-0.423	0.999	-0.423	7.43E-03	82.624
1463.826	8.70E-03	83.568	0.999	-0.496	0.999	-0.496	8.70E-03	83.568
1473.637	9.96E-03	84.25	0.999	-0.568	0.999	-0.568	9.96E-03	84.25
1483.449	0.011	84.759	0.999	-0.64	0.999	-0.64	0.011	84.759
1493.261	0.012	85.149	0.999	-0.712	0.999	-0.712	0.012	85.149
1503.072	0.014	85.453	0.999	-0.783	0.999	-0.783	0.014	85.453
1512.884	0.015	85.694	0.999	-0.854	0.999	-0.854	0.015	85.694
1522.696	0.016	85.886	0.999	-0.925	0.999	-0.925	0.016	85.886
1532.507	0.017	86.04	0.999	-0.995	0.999	-0.995	0.017	86.04
1542.319	0.019	86.164	0.999	-1.064	0.999	-1.064	0.019	86.164
1552.131	0.02	86.264	0.999	-1.133	0.999	-1.133	0.02	86.264
1561.943	0.021	86.344	0.999	-1.202	0.999	-1.202	0.021	86.344
1571.754	0.022	86.407	0.999	-1.27	0.999	-1.27	0.022	86.407
1581.566	0.023	86.457	0.999	-1.339	0.999	-1.339	0.023	86.457
1591.378	0.025	86.496	0.999	-1.406	0.999	-1.406	0.025	86.496
1601.189	0.026	86.524	0.999	-1.473	0.999	-1.473	0.026	86.524
1611.001	0.027	86.544	0.999	-1.54	0.999	-1.54	0.027	86.544
1620.813	0.028	86.557	0.999	-1.607	0.999	-1.607	0.028	86.557
1630.624	0.029	86.563	0.999	-1.673	0.999	-1.673	0.029	86.563
1640.436	0.03	86.564	0.999	-1.739	0.999	-1.739	0.03	86.564
1650.248	0.032	86.56	0.999	-1.805	0.999	-1.805	0.032	86.56
1660.059	0.033	86.552	0.999	-1.87	0.999	-1.87	0.033	86.552
1669.871	0.034	86.54	0.999	-1.935	0.999	-1.935	0.034	86.54
1679.683	0.035	86.525	0.998	-1.999	0.998	-1.999	0.035	86.525
1689.495	0.036	86.507	0.998	-2.063	0.998	-2.063	0.036	86.507
1699.306	0.037	86.486	0.998	-2.127	0.998	-2.127	0.037	86.486
1709.118	0.038	86.462	0.998	-2.191	0.998	-2.191	0.038	86.462
1718.93	0.039	86.437	0.998	-2.254	0.998	-2.254	0.039	86.437
1728.741	0.04	86.409	0.998	-2.317	0.998	-2.317	0.04	86.409
1738.553	0.042	86.38	0.998	-2.38	0.998	-2.38	0.042	86.38
1748.365	0.043	86.349	0.998	-2.443	0.998	-2.443	0.043	86.349
1758.176	0.044	86.317	0.998	-2.505	0.998	-2.505	0.044	86.317
1767.988	0.045	86.284	0.998	-2.567	0.998	-2.567	0.045	86.284
1777.8	0.046	86.249	0.998	-2.629	0.998	-2.629	0.046	86.249
1787.611	0.047	86.213	0.998	-2.69	0.998	-2.69	0.047	86.213
1797.423	0.048	86.177	0.998	-2.751	0.998	-2.751	0.048	86.177
1807.235	0.049	86.139	0.998	-2.812	0.998	-2.812	0.049	86.139
1817.047	0.05	86.101	0.998	-2.873	0.998	-2.873	0.05	86.101
1826.858	0.051	86.061	0.998	-2.933	0.998	-2.933	0.051	86.061
1836.67	0.052	86.021	0.998	-2.993	0.998	-2.993	0.052	86.021
1846.482	0.053	85.981	0.998	-3.053	0.998	-3.053	0.053	85.981
1856.293	0.054	85.94	0.998	-3.113	0.998	-3.113	0.054	85.94
1866.105	0.055	85.898	0.998	-3.172	0.998	-3.172	0.055	85.898
1875.917	0.056	85.856	0.998	-3.231	0.998	-3.231	0.056	85.856
1885.728	0.057	85.814	0.997	-3.29	0.997	-3.29	0.057	85.814
1895.54	0.058	85.771	0.997	-3.349	0.997	-3.349	0.058	85.771
1905.352	0.059	85.727	0.997	-3.407	0.997	-3.407	0.059	85.727
1915.164	0.06	85.684	0.997	-3.466	0.997	-3.466	0.06	85.684
1924.975	0.061	85.64	0.997	-3.524	0.997	-3.524	0.061	85.64
1934.787	0.062	85.595	0.997	-3.582	0.997	-3.582	0.062	85.595
1944.599	0.063	85.551	0.997	-3.639	0.997	-3.639	0.063	85.551
1954.41	0.064	85.506	0.997	-3.697	0.997	-3.697	0.064	85.506
1964.222	0.065	85.461	0.997	-3.754	0.997	-3.754	0.065	85.461
1974.034	0.066	85.415	0.997	-3.811	0.997	-3.811	0.066	85.415
1983.845	0.067	85.37	0.997	-3.868	0.997	-3.868	0.067	85.37
1993.657	0.068	85.324	0.997	-3.924	0.997	-3.924	0.068	85.324
2003.469	0.069	85.279	0.997	-3.981	0.997	-3.981	0.069	85.279
2013.28	0.07	85.233	0.997	-4.037	0.997	-4.037	0.07	85.233
2023.092	0.071	85.187	0.997	-4.093	0.997	-4.093	0.071	85.187
2032.904	0.072	85.14	0.996	-4.149	0.996	-4.149	0.072	85.14
2042.716	0.073	85.094	0.996	-4.205	0.996	-4.205	0.073	85.094
2052.527	0.074	85.048	0.996	-4.261	0.996	-4.261	0.074	85.048
2062.339	0.075	85.001	0.996	-4.316	0.996	-4.316	0.075	85.001
2072.151	0.076	84.955	0.996	-4.371	0.996	-4.371	0.076	84.955
2081.962	0.077	84.908	0.996	-4.426	0.996	-4.426	0.077	84.908
2091.774	0.078	84.861	0.996	-4.481	0.996	-4.481	0.078	84.861
2101.586	0.079	84.815	0.996	-4.536	0.996	-4.536	0.079	84.815
2111.397	0.08	84.768	0.996	-4.59	0.996	-4.59	0.08	84.768
2121.209	0.081	84.721	0.996	-4.645	0.996	-4.645	0.081	84.721
2131.021	0.082	84.674	0.996	-4.699	0.996	-4.699	0.082	84.674
2140.833	0.083	84.627	0.996	-4.753	0.996	-4.753	0.083	84.627
2150.644	0.084	84.581	0.996	-4.807	0.996	-4.807	0.084	84.581
2160.456	0.085	84.534	0.996	-4.86	0.996	-4.86	0.085	84.534
2170.268	0.086	84.487	0.995	-4.914	0.995	-4.914	0.086	84.487
2180.079	0.087	84.44	0.995	-4.967	0.995	-4.967	0.087	84.44
2189.891	0.088	84.393	0.995	-5.021	0.995	-5.021	0.088	84.393
2199.703	0.088	84.346	0.995	-5.074	0.995	-5.074	0.088	84.346
2209.514	0.089	84.299	0.995	-5.127	0.995	-5.127	0.089	84.299
2219.326	0.09	84.252	0.995	-5.18	0.995	-5.18	0.09	84.252
2229.138	0.091	84.205	0.995	-5.232	0.995	-5.232	0.091	84.205
2238.949	0.092	84.158	0.995	-5.285	0.995	-5.285	0.092	84.158
2248.761	0.093	84.111	0.995	-5.337	0.995	-5.337	0.093	84.111
2258.573	0.094	84.064	0.995	-5.39	0.995	-5.39	0.094	84.064
2268.385	0.095	84.017	0.995	-5.442	0.995	-5.442	0.095	84.017
2278.196	0.096	83.97	0.995	-5.494	0.995	-5.494	0.096	83.97
2288.008	0.097	83.924	0.994	-5.546	0.994	-5.546	0.097	83.924
2297.82	0.098	83.877	0.994	-5.598	0.994	-5.598	0.098	83.877
2307.631	0.098	83.83	0.994	-5.649	0.994	-5.649	0.098	83.83
2317.443	0.099	83.783	0.994	-5.701	0.994	-5.701	0.099	83.783
2327.255	0.1	83.736	0.994	-5.752	0.994	-5.752	0.1	83.736
2337.066	0.101	83.69	0.994	-5.803	0.994	-5.803	0.101	83.69
2346.878	0.102	83.643	0.994	-5.854	0.994	-5.854	0.102	83.643
2356.69	0.103	83.596	0.994	-5.905	0.994	-5.905	0.103	83.596
2366.501	0.104	83.55	0.994	-5.956	0.994	-5.956	0.104	83.55
2376.313	0.105	83.503	0.994	-6.007	0.994	-6.007	0.105	83.503
2386.125	0.106	83.457	0.994	-6.058	0.994	-6.058	0.106	83.457
2395.937	0.106	83.41	0.993	-6.108	0.993	-6.108	0.106	83.41
2405.748	0.107	83.364	0.993	-6.159	0.993	-6.159	0.107	83.364
2415.56	0.108	83.317	0.993	-6.209	0.993	-6.209	0.108	83.317
2425.372	0.109	83.271	0.993	-6.259	0.993	-6.259	0.109	83.271
2435.183	0.11	83.225	0.993	-6.309	0.993	-6.309	0.11	83.225
2444.995	0.111	83.178	0.993	-6.359	0.993	-6.359	0.111	83.178
2454.807	0.112	83.132	0.993	-6.409	0.993	-6.409	0.112	83.132
2464.618	0.112	83.086	0.993	-6.459	0.993	-6.459	0.112	83.086
2474.43	0.113	83.04	0.993	-6.509	0.993	-6.509	0.113	83.04
2484.242	0.114	82.994	0.993	-6.558	0.993	-6.558	0.114	82.994
2494.054	0.115	82.947	0.992	-6.608	0.992	-6.608	0.115	82.947
2503.865	0.116	82.901	0.992	-6.657	0.992	-6.657	0.116	82.901
2513.677	0.117	82.855	0.992	-6.706	0.992	-6.706	0.117	82.855
2523.489	0.118	82.81	0.992	-6.755	0.992	-6.755	0.118	82.81
2533.3	0.118	82.764	0.992	-6.804	0.992	-6.804	0.118	82.764
2543.112	0.119	82.718	0.992	-6.853	0.992	-6.853	0.119	82.718
2552.924	0.12	82.672	0.992	-6.902	0.992	-6.902	0.12	82.672
2562.735	0.121	82.626	0.992	-6.951	0.992	-6.951	0.121	82.626
2572.547	0.122	82.581	0.992	-7	0.992	-7	0.122	82.581
2582.359	0.123	82.535	0.992	-7.048	0.992	-7.048	0.123	82.535
2592.17	0.124	82.489	0.991	-7.097	0.991	-7.097	0.124	82.489
2601.982	0.124	82.444	0.991	-7.145	0.991	-7.145	0.124	82.444
2611.794	0.125	82.398	0.991	-7.193	0.991	-7.193	0.125	82.398
2621.606	0.126	82.353	0.991	-7.242	0.991	-7.242	0.126	82.353
2631.417	0.127	82.308	0.991	-7.29	0.991	-7.29	0.127	82.308
2641.229	0.128	82.262	0.991	-7.338	0.991	-7.338	0.128	82.262
2651.041	0.129	82.217	0.991	-7.386	0.991	-7.386	0.129	82.217
2660.852	0.129	82.172	0.991	-7.433	0.991	-7.433	0.129	82.172
2670.664	0.13	82.126	0.991	-7.481	0.991	-7.481	0.13	82.126
2680.476	0.131	82.081	0.99	-7.529	0.99	-7.529	0.131	82.081
2690.287	0.132	82.036	0.99	-7.576	0.99	-7.576	0.132	82.036
2700.099	0.133	81.991	0.99	-7.624	0.99	-7.624	0.133	81.991
2709.911	0.133	81.946	0.99	-7.671	0.99	-7.671	0.133	81.946
2719.722	0.134	81.901	0.99	-7.719	0.99	-7.719	0.134	81.901
2729.534	0.135	81.856	0.99	-7.766	0.99	-7.766	0.135	81.856
2739.346	0.136	81.811	0.99	-7.813	0.99	-7.813	0.136	81.811
2749.158	0.137	81.767	0.99	-7.86	0.99	-7.86	0.137	81.767
2758.969	0.138	81.722	0.99	-7.907	0.99	-7.907	0.138	81.722
2768.781	0.138	81.677	0.989	-7.954	0.989	-7.954	0.138	81.677
2778.593	0.139	81.632	0.989	-8.001	0.989	-8.001	0.139	81.632
2788.404	0.14	81.588	0.989	-8.048	0.989	-8.048	0.14	81.588
2798.216	0.141	81.543	0.989	-8.094	0.989	-8.094	0.141	81.543
2808.028	0.142	81.499	0.989	-8.141	0.989	-8.141	0.142	81.499
2817.839	0.142	81.454	0.989	-8.188	0.989	-8.188	0.142	81.454
2827.651	0.143	81.41	0.989	-8.234	0.989	-8.234	0.143	81.41
2837.463	0.144	81.365	0.989	-8.28	0.989	-8.28	0.144	81.365
2847.275	0.145	81.321	0.989	-8.327	0.989	-8.327	0.145	81.321
2857.086	0.146	81.277	0.988	-8.373	0.988	-8.373	0.146	81.277
2866.898	0.146	81.233	0.988	-8.419	0.988	-8.419	0.146	81.233
2876.71	0.147	81.188	0.988	-8.465	0.988	-8.465	0.147	81.188
2886.521	0.148	81.144	0.988	-8.511	0.988	-8.511	0.148	81.144
2896.333	0.149	81.1	0.988	-8.557	0.988	-8.557	0.149	81.1
2906.145	0.15	81.056	0.988	-8.603	0.988	-8.603	0.15	81.056
2915.956	0.15	81.012	0.988	-8.649	0.988	-8.649	0.15	81.012
2925.768	0.151	80.968	0.988	-8.695	0.988	-8.695	0.151	80.968
2935.58	0.152	80.924	0.987	-8.74	0.987	-8.74	0.152	80.924
2945.391	0.153	80.881	0.987	-8.786	0.987	-8.786	0.153	80.881
2955.203	0.154	80.837	0.987	-8.832	0.987	-8.832	0.154	80.837
2965.015	0.154	80.793	0.987	-8.877	0.987	-8.877	0.154	80.793
2974.827	0.155	80.749	0.987	-8.922	0.987	-8.922	0.155	80.749
2984.638	0.156	80.706	0.987	-8.968	0.987	-8.968	0.156	80.706
2994.45	0.157	80.662	0.987	-9.013	0.987	-9.013	0.157	80.662
3004.262	0.157	80.618	0.987	-9.058	0.987	-9.058	0.157	80.618
3014.073	0.158	80.575	0.987	-9.104	0.987	-9.104	0.158	80.575
3023.885	0.159	80.531	0.986	-9.149	0.986	-9.149	0.159	80.531
3033.697	0.16	80.488	0.986	-9.194	0.986	-9.194	0.16	80.488
3043.508	0.161	80.445	0.986	-9.239	0.986	-9.239	0.161	80.445
3053.32	0.161	80.401	0.986	-9.284	0.986	-9.284	0.161	80.401
3063.132	0.162	80.358	0.986	-9.328	0.986	-9.328	0.162	80.358
3072.944	0.163	80.315	0.986	-9.373	0.986	-9.373	0.163	80.315
3082.755	0.164	80.271	0.986	-9.418	0.986	-9.418	0.164	80.271
3092.567	0.164	80.228	0.986	-9.463	0.986	-9.463	0.164	80.228
3102.379	0.165	80.185	0.985	-9.507	0.985	-9.507	0.165	80.185
3112.19	0.166	80.142	0.985	-9.552	0.985	-9.552	0.166	80.142
3122.002	0.167	80.099	0.985	-9.596	0.985	-9.596	0.167	80.099
3131.814	0.167	80.056	0.985	-9.641	0.985	-9.641	0.167	80.056
3141.625	0.168	80.013	0.985	-9.685	0.985	-9.685	0.168	80.013
3151.437	0.169	79.97	0.985	-9.729	0.985	-9.729	0.169	79.97
3161.249	0.17	79.927	0.985	-9.774	0.985	-9.774	0.17	79.927
3171.06	0.171	79.884	0.984	-9.818	0.984	-9.818	0.171	79.884
3180.872	0.171	79.842	0.984	-9.862	0.984	-9.862	0.171	79.842
3190.684	0.172	79.799	0.984	-9.906	0.984	-9.906	0.172	79.799
3200.496	0.173	79.756	0.984	-9.95	0.984	-9.95	0.173	79.756
3210.307	0.174	79.714	0.984	-9.994	0.984	-9.994	0.174	79.714
3220.119	0.174	79.671	0.984	-10.038	0.984	-10.038	0.174	79.671
3229.931	0.175	79.628	0.984	-10.082	0.984	-10.082	0.175	79.628
3239.742	0.176	79.586	0.984	-10.126	0.984	-10.126	0.176	79.586
3249.554	0.177	79.543	0.983	-10.169	0.983	-10.169	0.177	79.543
3259.366	0.177	79.501	0.983	-10.213	0.983	-10.213	0.177	79.501
3269.177	0.178	79.458	0.983	-10.257	0.983	-10.257	0.178	79.458
3278.989	0.179	79.416	0.983	-10.3	0.983	-10.3	0.179	79.416
