! AVX Thin Film Operation		Date: April 2012 
! Description: Accu-P® Series, Thin Film, SMD, RF Capacitor
! Part Number: 12101J240FBTTR					
!	50	MHz	-	20.05	GHz			
!	Serial	Measurements						
!								
#	MHZ	S	MA	R	50			
!	S11	S21	S12	S22				
!	dB	Phase	dB	Phase	dB	Phase	dB	Phase
50 0.797 -37.043 0.602 52.841 0.602 52.841 0.797 -37.043
100 0.548 -56.595 0.835 33.23 0.835 33.23 0.548 -56.595
150 0.396 -66.434 0.917 23.33 0.917 23.33 0.396 -66.434
200 0.303 -72.076 0.951 17.622 0.951 17.622 0.303 -72.076
250 0.241 -75.693 0.969 13.934 0.969 13.934 0.241 -75.693
300 0.197 -78.206 0.979 11.345 0.979 11.345 0.197 -78.206
350 0.164 -80.054 0.985 9.412 0.985 9.412 0.164 -80.054
400 0.137 -81.47 0.989 7.901 0.989 7.901 0.137 -81.47
450 0.116 -82.586 0.992 6.676 0.992 6.676 0.116 -82.586
500 0.099 -83.481 0.994 5.653 0.994 5.653 0.099 -83.481
550 0.083 -84.201 0.995 4.779 0.995 4.779 0.083 -84.201
600 0.07 -84.775 0.996 4.017 0.996 4.017 0.07 -84.775
650 0.058 -85.21 0.997 3.342 0.997 3.342 0.058 -85.21
700 0.048 -85.5 0.997 2.735 0.997 2.735 0.048 -85.5
750 0.038 -85.61 0.998 2.183 0.998 2.183 0.038 -85.61
800 0.029 -85.454 0.998 1.676 0.998 1.676 0.029 -85.454
850 0.021 -84.812 0.998 1.206 0.998 1.206 0.021 -84.812
900 0.013 -82.987 0.998 0.766 0.998 0.766 0.013 -82.987
950 6.333e-3 -76.282 0.999 0.353 0.999 0.353 6.333e-3 -76.282
1000 1.609e-3 24.5 0.999 -0.038 0.999 -0.038 1.609e-3 24.5
1050 7.313e-3 78.044 0.999 -0.411 0.999 -0.411 7.313e-3 78.044
1100 0.013 82.986 0.998 -0.766 0.998 -0.766 0.013 82.986
1150 0.019 84.56 0.998 -1.108 0.998 -1.108 0.019 84.56
1200 0.025 85.218 0.998 -1.437 0.998 -1.437 0.025 85.218
1250 0.031 85.503 0.998 -1.755 0.998 -1.755 0.031 85.503
1300 0.036 85.603 0.998 -2.063 0.998 -2.063 0.036 85.603
1350 0.041 85.597 0.998 -2.362 0.998 -2.362 0.041 85.597
1400 0.046 85.528 0.997 -2.653 0.997 -2.653 0.046 85.528
1450 0.051 85.418 0.997 -2.938 0.997 -2.938 0.051 85.418
1500 0.056 85.28 0.997 -3.216 0.997 -3.216 0.056 85.28
1550 0.061 85.124 0.997 -3.488 0.997 -3.488 0.061 85.124
1600 0.066 84.954 0.996 -3.755 0.996 -3.755 0.066 84.954
1650 0.07 84.775 0.996 -4.017 0.996 -4.017 0.07 84.775
1700 0.075 84.588 0.996 -4.275 0.996 -4.275 0.075 84.588
1750 0.079 84.397 0.995 -4.529 0.995 -4.529 0.079 84.397
1800 0.083 84.201 0.995 -4.779 0.995 -4.779 0.083 84.201
1850 0.088 84.003 0.995 -5.026 0.995 -5.026 0.088 84.003
1900 0.092 83.804 0.994 -5.269 0.994 -5.269 0.092 83.804
1950 0.096 83.602 0.994 -5.51 0.994 -5.51 0.096 83.602
2000 0.1 83.4 0.993 -5.748 0.993 -5.748 0.1 83.4
2050 0.104 83.197 0.993 -5.983 0.993 -5.983 0.104 83.197
2100 0.108 82.993 0.993 -6.216 0.993 -6.216 0.108 82.993
2150 0.112 82.79 0.992 -6.447 0.992 -6.447 0.112 82.79
2200 0.116 82.586 0.992 -6.676 0.992 -6.676 0.116 82.586
2250 0.12 82.383 0.991 -6.902 0.991 -6.902 0.12 82.383
2300 0.124 82.179 0.991 -7.127 0.991 -7.127 0.124 82.179
2350 0.128 81.976 0.99 -7.35 0.99 -7.35 0.128 81.976
2400 0.132 81.774 0.99 -7.572 0.99 -7.572 0.132 81.774
2450 0.136 81.571 0.989 -7.792 0.989 -7.792 0.136 81.571
2500 0.139 81.369 0.989 -8.01 0.989 -8.01 0.139 81.369
2550 0.143 81.168 0.988 -8.227 0.988 -8.227 0.143 81.168
2600 0.147 80.967 0.988 -8.442 0.988 -8.442 0.147 80.967
2650 0.151 80.766 0.987 -8.657 0.987 -8.657 0.151 80.766
2700 0.154 80.566 0.987 -8.87 0.987 -8.87 0.154 80.566
2750 0.158 80.367 0.986 -9.082 0.986 -9.082 0.158 80.367
2800 0.161 80.168 0.985 -9.292 0.985 -9.292 0.161 80.168
2850 0.165 79.969 0.985 -9.502 0.985 -9.502 0.165 79.969
2900 0.169 79.772 0.984 -9.71 0.984 -9.71 0.169 79.772
2950 0.172 79.574 0.984 -9.918 0.984 -9.918 0.172 79.574
3000 0.176 79.377 0.983 -10.125 0.983 -10.125 0.176 79.377
3050 0.179 79.181 0.982 -10.33 0.982 -10.33 0.179 79.181
3100 0.183 78.985 0.982 -10.535 0.982 -10.535 0.183 78.985
3150 0.186 78.789 0.981 -10.739 0.981 -10.739 0.186 78.789
3200 0.19 78.595 0.98 -10.942 0.98 -10.942 0.19 78.595
3250 0.193 78.4 0.98 -11.144 0.98 -11.144 0.193 78.4
3300 0.197 78.206 0.979 -11.345 0.979 -11.345 0.197 78.206
3350 0.2 78.013 0.978 -11.545 0.978 -11.545 0.2 78.013
3400 0.204 77.82 0.978 -11.745 0.978 -11.745 0.204 77.82
3450 0.207 77.628 0.977 -11.944 0.977 -11.944 0.207 77.628
3500 0.21 77.436 0.976 -12.142 0.976 -12.142 0.21 77.436
3550 0.214 77.245 0.975 -12.34 0.975 -12.34 0.214 77.245
3600 0.217 77.054 0.975 -12.537 0.975 -12.537 0.217 77.054
3650 0.22 76.863 0.974 -12.733 0.974 -12.733 0.22 76.863
3700 0.224 76.673 0.973 -12.928 0.973 -12.928 0.224 76.673
3750 0.227 76.484 0.972 -13.123 0.972 -13.123 0.227 76.484
3800 0.23 76.295 0.972 -13.317 0.972 -13.317 0.23 76.295
3850 0.234 76.107 0.971 -13.511 0.971 -13.511 0.234 76.107
3900 0.237 75.919 0.97 -13.704 0.97 -13.704 0.237 75.919
3950 0.24 75.731 0.969 -13.896 0.969 -13.896 0.24 75.731
4000 0.243 75.544 0.968 -14.087 0.968 -14.087 0.243 75.544
4050 0.247 75.357 0.968 -14.279 0.968 -14.279 0.247 75.357
4100 0.25 75.171 0.967 -14.469 0.967 -14.469 0.25 75.171
4150 0.253 74.985 0.966 -14.659 0.966 -14.659 0.253 74.985
4200 0.256 74.8 0.965 -14.848 0.965 -14.848 0.256 74.8
4250 0.259 74.615 0.964 -15.037 0.964 -15.037 0.259 74.615
4300 0.263 74.431 0.963 -15.225 0.963 -15.225 0.263 74.431
4350 0.266 74.247 0.962 -15.413 0.962 -15.413 0.266 74.247
4400 0.269 74.064 0.962 -15.6 0.962 -15.6 0.269 74.064
4450 0.272 73.881 0.961 -15.786 0.961 -15.786 0.272 73.881
4500 0.275 73.698 0.96 -15.972 0.96 -15.972 0.275 73.698
4550 0.278 73.516 0.959 -16.158 0.959 -16.158 0.278 73.516
4600 0.281 73.335 0.958 -16.342 0.958 -16.342 0.281 73.335
4650 0.284 73.154 0.957 -16.527 0.957 -16.527 0.284 73.154
4700 0.288 72.973 0.956 -16.711 0.956 -16.711 0.288 72.973
4750 0.291 72.793 0.955 -16.894 0.955 -16.894 0.291 72.793
4800 0.294 72.613 0.954 -17.077 0.954 -17.077 0.294 72.613
4850 0.297 72.433 0.953 -17.259 0.953 -17.259 0.297 72.433
4900 0.3 72.255 0.952 -17.441 0.952 -17.441 0.3 72.255
4950 0.303 72.076 0.951 -17.622 0.951 -17.622 0.303 72.076
5000 0.306 71.898 0.951 -17.803 0.951 -17.803 0.306 71.898
5050 0.309 71.72 0.95 -17.983 0.95 -17.983 0.309 71.72
5100 0.312 71.543 0.949 -18.163 0.949 -18.163 0.312 71.543
5150 0.315 71.367 0.948 -18.342 0.948 -18.342 0.315 71.367
5200 0.318 71.19 0.947 -18.521 0.947 -18.521 0.318 71.19
5250 0.321 71.014 0.946 -18.699 0.946 -18.699 0.321 71.014
5300 0.324 70.839 0.945 -18.877 0.945 -18.877 0.324 70.839
5350 0.326 70.664 0.944 -19.054 0.944 -19.054 0.326 70.664
5400 0.329 70.49 0.943 -19.231 0.943 -19.231 0.329 70.49
5450 0.332 70.316 0.942 -19.407 0.942 -19.407 0.332 70.316
5500 0.335 70.142 0.941 -19.583 0.941 -19.583 0.335 70.142
5550 0.338 69.969 0.94 -19.758 0.94 -19.758 0.338 69.969
5600 0.341 69.796 0.938 -19.933 0.938 -19.933 0.341 69.796
5650 0.344 69.624 0.937 -20.107 0.937 -20.107 0.344 69.624
5700 0.347 69.452 0.936 -20.281 0.936 -20.281 0.347 69.452
5750 0.349 69.28 0.935 -20.454 0.935 -20.454 0.349 69.28
5800 0.352 69.109 0.934 -20.627 0.934 -20.627 0.352 69.109
5850 0.355 68.939 0.933 -20.8 0.933 -20.8 0.355 68.939
5900 0.358 68.769 0.932 -20.972 0.932 -20.972 0.358 68.769
5950 0.361 68.599 0.931 -21.143 0.931 -21.143 0.361 68.599
6000 0.363 68.43 0.93 -21.314 0.93 -21.314 0.363 68.43
6050 0.366 68.261 0.929 -21.485 0.929 -21.485 0.366 68.261
6100 0.369 68.093 0.928 -21.655 0.928 -21.655 0.369 68.093
6150 0.372 67.925 0.927 -21.824 0.927 -21.824 0.372 67.925
6200 0.375 67.758 0.926 -21.993 0.926 -21.993 0.375 67.758
6250 0.377 67.591 0.924 -22.162 0.924 -22.162 0.377 67.591
6300 0.38 67.424 0.923 -22.33 0.923 -22.33 0.38 67.424
6350 0.383 67.258 0.922 -22.498 0.922 -22.498 0.383 67.258
6400 0.385 67.092 0.921 -22.665 0.921 -22.665 0.385 67.092
6450 0.388 66.927 0.92 -22.832 0.92 -22.832 0.388 66.927
6500 0.391 66.762 0.919 -22.998 0.919 -22.998 0.391 66.762
6550 0.393 66.598 0.918 -23.164 0.918 -23.164 0.393 66.598
6600 0.396 66.434 0.917 -23.329 0.917 -23.329 0.396 66.434
6650 0.399 66.271 0.915 -23.494 0.915 -23.494 0.399 66.271
6700 0.401 66.108 0.914 -23.659 0.914 -23.659 0.401 66.108
6750 0.404 65.945 0.913 -23.823 0.913 -23.823 0.404 65.945
6800 0.407 65.783 0.912 -23.986 0.912 -23.986 0.407 65.783
6850 0.409 65.621 0.911 -24.149 0.911 -24.149 0.409 65.621
6900 0.412 65.46 0.91 -24.312 0.91 -24.312 0.412 65.46
6950 0.414 65.299 0.909 -24.474 0.909 -24.474 0.414 65.299
7000 0.417 65.139 0.907 -24.635 0.907 -24.635 0.417 65.139
7050 0.419 64.979 0.906 -24.797 0.906 -24.797 0.419 64.979
7100 0.422 64.819 0.905 -24.957 0.905 -24.957 0.422 64.819
7150 0.424 64.66 0.904 -25.117 0.904 -25.117 0.424 64.66
7200 0.427 64.502 0.903 -25.277 0.903 -25.277 0.427 64.502
7250 0.43 64.344 0.901 -25.437 0.901 -25.437 0.43 64.344
7300 0.432 64.186 0.9 -25.595 0.9 -25.595 0.432 64.186
7350 0.435 64.029 0.899 -25.754 0.899 -25.754 0.435 64.029
7400 0.437 63.872 0.898 -25.912 0.898 -25.912 0.437 63.872
7450 0.439 63.716 0.897 -26.069 0.897 -26.069 0.439 63.716
7500 0.442 63.56 0.895 -26.226 0.895 -26.226 0.442 63.56
7550 0.444 63.404 0.894 -26.383 0.894 -26.383 0.444 63.404
7600 0.447 63.249 0.893 -26.539 0.893 -26.539 0.447 63.249
7650 0.449 63.095 0.892 -26.694 0.892 -26.694 0.449 63.095
7700 0.452 62.941 0.891 -26.85 0.891 -26.85 0.452 62.941
7750 0.454 62.787 0.889 -27.004 0.889 -27.004 0.454 62.787
7800 0.456 62.634 0.888 -27.159 0.888 -27.159 0.456 62.634
7850 0.459 62.481 0.887 -27.312 0.887 -27.312 0.459 62.481
7900 0.461 62.329 0.886 -27.466 0.886 -27.466 0.461 62.329
7950 0.464 62.177 0.884 -27.619 0.884 -27.619 0.464 62.177
8000 0.466 62.025 0.883 -27.771 0.883 -27.771 0.466 62.025
8050 0.468 61.874 0.882 -27.923 0.882 -27.923 0.468 61.874
8100 0.471 61.724 0.881 -28.074 0.881 -28.074 0.471 61.724
8150 0.473 61.574 0.879 -28.225 0.879 -28.225 0.473 61.574
8200 0.475 61.424 0.878 -28.376 0.878 -28.376 0.475 61.424
8250 0.478 61.275 0.877 -28.526 0.877 -28.526 0.478 61.275
8300 0.48 61.126 0.876 -28.676 0.876 -28.676 0.48 61.126
8350 0.482 60.977 0.874 -28.825 0.874 -28.825 0.482 60.977
8400 0.484 60.83 0.873 -28.974 0.873 -28.974 0.484 60.83
8450 0.487 60.682 0.872 -29.122 0.872 -29.122 0.487 60.682
8500 0.489 60.535 0.871 -29.27 0.871 -29.27 0.489 60.535
8550 0.491 60.388 0.869 -29.418 0.869 -29.418 0.491 60.388
8600 0.493 60.242 0.868 -29.565 0.868 -29.565 0.493 60.242
8650 0.496 60.097 0.867 -29.711 0.867 -29.711 0.496 60.097
8700 0.498 59.951 0.866 -29.857 0.866 -29.857 0.498 59.951
8750 0.5 59.806 0.864 -30.003 0.864 -30.003 0.5 59.806
8800 0.502 59.662 0.863 -30.148 0.863 -30.148 0.502 59.662
8850 0.504 59.518 0.862 -30.293 0.862 -30.293 0.504 59.518
8900 0.507 59.375 0.861 -30.437 0.861 -30.437 0.507 59.375
8950 0.509 59.231 0.859 -30.581 0.859 -30.581 0.509 59.231
9000 0.511 59.089 0.858 -30.724 0.858 -30.724 0.511 59.089
9050 0.513 58.947 0.857 -30.867 0.857 -30.867 0.513 58.947
9100 0.515 58.805 0.855 -31.01 0.855 -31.01 0.515 58.805
9150 0.517 58.663 0.854 -31.152 0.854 -31.152 0.517 58.663
9200 0.519 58.523 0.853 -31.293 0.853 -31.293 0.519 58.523
9250 0.522 58.382 0.852 -31.435 0.852 -31.435 0.522 58.382
9300 0.524 58.242 0.85 -31.575 0.85 -31.575 0.524 58.242
9350 0.526 58.102 0.849 -31.716 0.849 -31.716 0.526 58.102
9400 0.528 57.963 0.848 -31.856 0.848 -31.856 0.528 57.963
9450 0.53 57.825 0.846 -31.995 0.846 -31.995 0.53 57.825
9500 0.532 57.686 0.845 -32.134 0.845 -32.134 0.532 57.686
9550 0.534 57.548 0.844 -32.272 0.844 -32.272 0.534 57.548
9600 0.536 57.411 0.843 -32.411 0.843 -32.411 0.536 57.411
9650 0.538 57.274 0.841 -32.548 0.841 -32.548 0.538 57.274
9700 0.54 57.137 0.84 -32.685 0.84 -32.685 0.54 57.137
9750 0.542 57.001 0.839 -32.822 0.839 -32.822 0.542 57.001
9800 0.544 56.865 0.837 -32.959 0.837 -32.959 0.544 56.865
9850 0.546 56.73 0.836 -33.094 0.836 -33.094 0.546 56.73
9900 0.548 56.595 0.835 -33.23 0.835 -33.23 0.548 56.595
9950 0.55 56.461 0.834 -33.365 0.834 -33.365 0.55 56.461
10000 0.552 56.327 0.832 -33.5 0.832 -33.5 0.552 56.327
10050 0.554 56.193 0.831 -33.634 0.831 -33.634 0.554 56.193
10100 0.556 56.06 0.83 -33.768 0.83 -33.768 0.556 56.06
10150 0.558 55.927 0.828 -33.901 0.828 -33.901 0.558 55.927
10200 0.56 55.795 0.827 -34.034 0.827 -34.034 0.56 55.795
10250 0.562 55.663 0.826 -34.166 0.826 -34.166 0.562 55.663
10300 0.564 55.532 0.824 -34.298 0.824 -34.298 0.564 55.532
10350 0.565 55.401 0.823 -34.43 0.823 -34.43 0.565 55.401
10400 0.567 55.27 0.822 -34.561 0.822 -34.561 0.567 55.27
10450 0.569 55.14 0.821 -34.692 0.821 -34.692 0.569 55.14
10500 0.571 55.01 0.819 -34.822 0.819 -34.822 0.571 55.01
10550 0.573 54.881 0.818 -34.952 0.818 -34.952 0.573 54.881
10600 0.575 54.752 0.817 -35.082 0.817 -35.082 0.575 54.752
10650 0.577 54.623 0.815 -35.211 0.815 -35.211 0.577 54.623
10700 0.578 54.495 0.814 -35.339 0.814 -35.339 0.578 54.495
10750 0.58 54.367 0.813 -35.468 0.813 -35.468 0.58 54.367
10800 0.582 54.24 0.811 -35.595 0.811 -35.595 0.582 54.24
10850 0.584 54.113 0.81 -35.723 0.81 -35.723 0.584 54.113
10900 0.586 53.987 0.809 -35.85 0.809 -35.85 0.586 53.987
10950 0.587 53.86 0.808 -35.976 0.808 -35.976 0.587 53.86
11000 0.589 53.735 0.806 -36.102 0.806 -36.102 0.589 53.735
11050 0.591 53.61 0.805 -36.228 0.805 -36.228 0.591 53.61
11100 0.593 53.485 0.804 -36.354 0.804 -36.354 0.593 53.485
11150 0.595 53.36 0.802 -36.478 0.802 -36.478 0.595 53.36
11200 0.596 53.236 0.801 -36.603 0.801 -36.603 0.596 53.236
11250 0.598 53.113 0.8 -36.727 0.8 -36.727 0.598 53.113
11300 0.6 52.989 0.799 -36.851 0.799 -36.851 0.6 52.989
11350 0.601 52.867 0.797 -36.974 0.797 -36.974 0.601 52.867
11400 0.603 52.744 0.796 -37.097 0.796 -37.097 0.603 52.744
11450 0.605 52.622 0.795 -37.219 0.795 -37.219 0.605 52.622
11500 0.607 52.501 0.793 -37.341 0.793 -37.341 0.607 52.501
11550 0.608 52.379 0.792 -37.463 0.792 -37.463 0.608 52.379
11600 0.61 52.259 0.791 -37.584 0.791 -37.584 0.61 52.259
11650 0.612 52.138 0.789 -37.705 0.789 -37.705 0.612 52.138
11700 0.613 52.018 0.788 -37.826 0.788 -37.826 0.613 52.018
11750 0.615 51.899 0.787 -37.946 0.787 -37.946 0.615 51.899
11800 0.617 51.779 0.786 -38.065 0.786 -38.065 0.617 51.779
11850 0.618 51.661 0.784 -38.184 0.784 -38.184 0.618 51.661
11900 0.62 51.542 0.783 -38.303 0.783 -38.303 0.62 51.542
11950 0.621 51.424 0.782 -38.422 0.782 -38.422 0.621 51.424
12000 0.623 51.306 0.781 -38.54 0.781 -38.54 0.623 51.306
12050 0.625 51.189 0.779 -38.658 0.779 -38.658 0.625 51.189
12100 0.626 51.072 0.778 -38.775 0.778 -38.775 0.626 51.072
12150 0.628 50.956 0.777 -38.892 0.777 -38.892 0.628 50.956
12200 0.629 50.84 0.775 -39.008 0.775 -39.008 0.629 50.84
12250 0.631 50.724 0.774 -39.124 0.774 -39.124 0.631 50.724
12300 0.633 50.609 0.773 -39.24 0.773 -39.24 0.633 50.609
12350 0.634 50.494 0.772 -39.355 0.772 -39.355 0.634 50.494
12400 0.636 50.379 0.77 -39.47 0.77 -39.47 0.636 50.379
12450 0.637 50.265 0.769 -39.585 0.769 -39.585 0.637 50.265
12500 0.639 50.151 0.768 -39.699 0.768 -39.699 0.639 50.151
12550 0.64 50.038 0.766 -39.813 0.766 -39.813 0.64 50.038
12600 0.642 49.925 0.765 -39.926 0.765 -39.926 0.642 49.925
12650 0.643 49.812 0.764 -40.039 0.764 -40.039 0.643 49.812
12700 0.645 49.7 0.763 -40.152 0.763 -40.152 0.645 49.7
12750 0.646 49.588 0.761 -40.264 0.761 -40.264 0.646 49.588
12800 0.648 49.476 0.76 -40.376 0.76 -40.376 0.648 49.476
12850 0.649 49.365 0.759 -40.488 0.759 -40.488 0.649 49.365
12900 0.651 49.254 0.758 -40.599 0.758 -40.599 0.651 49.254
12950 0.652 49.144 0.756 -40.709 0.756 -40.709 0.652 49.144
13000 0.654 49.034 0.755 -40.82 0.755 -40.82 0.654 49.034
13050 0.655 48.924 0.754 -40.93 0.754 -40.93 0.655 48.924
13100 0.657 48.815 0.753 -41.039 0.753 -41.039 0.657 48.815
13150 0.658 48.706 0.751 -41.149 0.751 -41.149 0.658 48.706
13200 0.659 48.598 0.75 -41.258 0.75 -41.258 0.659 48.598
13250 0.661 48.489 0.749 -41.366 0.749 -41.366 0.661 48.489
13300 0.662 48.382 0.748 -41.474 0.748 -41.474 0.662 48.382
13350 0.664 48.274 0.746 -41.582 0.746 -41.582 0.664 48.274
13400 0.665 48.167 0.745 -41.69 0.745 -41.69 0.665 48.167
13450 0.666 48.06 0.744 -41.797 0.744 -41.797 0.666 48.06
13500 0.668 47.954 0.743 -41.903 0.743 -41.903 0.668 47.954
13550 0.669 47.848 0.741 -42.01 0.741 -42.01 0.669 47.848
13600 0.671 47.742 0.74 -42.116 0.74 -42.116 0.671 47.742
13650 0.672 47.637 0.739 -42.221 0.739 -42.221 0.672 47.637
13700 0.673 47.532 0.738 -42.327 0.738 -42.327 0.673 47.532
13750 0.675 47.427 0.736 -42.432 0.736 -42.432 0.675 47.427
13800 0.676 47.323 0.735 -42.536 0.735 -42.536 0.676 47.323
13850 0.677 47.219 0.734 -42.64 0.734 -42.64 0.677 47.219
13900 0.679 47.115 0.733 -42.744 0.733 -42.744 0.679 47.115
13950 0.68 47.012 0.732 -42.848 0.732 -42.848 0.68 47.012
14000 0.681 46.909 0.73 -42.951 0.73 -42.951 0.681 46.909
14050 0.683 46.807 0.729 -43.054 0.729 -43.054 0.683 46.807
14100 0.684 46.705 0.728 -43.156 0.728 -43.156 0.684 46.705
14150 0.685 46.603 0.727 -43.258 0.727 -43.258 0.685 46.603
14200 0.687 46.501 0.725 -43.36 0.725 -43.36 0.687 46.501
14250 0.688 46.4 0.724 -43.462 0.724 -43.462 0.688 46.4
14300 0.689 46.299 0.723 -43.563 0.723 -43.563 0.689 46.299
14350 0.69 46.199 0.722 -43.663 0.722 -43.663 0.69 46.199
14400 0.692 46.099 0.721 -43.764 0.721 -43.764 0.692 46.099
14450 0.693 45.999 0.719 -43.864 0.719 -43.864 0.693 45.999
14500 0.694 45.9 0.718 -43.964 0.718 -43.964 0.694 45.9
14550 0.695 45.8 0.717 -44.063 0.717 -44.063 0.695 45.8
14600 0.697 45.702 0.716 -44.162 0.716 -44.162 0.697 45.702
14650 0.698 45.603 0.715 -44.261 0.715 -44.261 0.698 45.603
14700 0.699 45.505 0.713 -44.359 0.713 -44.359 0.699 45.505
14750 0.7 45.407 0.712 -44.457 0.712 -44.457 0.7 45.407
14800 0.702 45.31 0.711 -44.555 0.711 -44.555 0.702 45.31
14850 0.703 45.213 0.71 -44.652 0.71 -44.652 0.703 45.213
14900 0.704 45.116 0.709 -44.749 0.709 -44.749 0.704 45.116
14950 0.705 45.019 0.707 -44.846 0.707 -44.846 0.705 45.019
15000 0.706 44.923 0.706 -44.943 0.706 -44.943 0.706 44.923
15050 0.708 44.827 0.705 -45.039 0.705 -45.039 0.708 44.827
15100 0.709 44.732 0.704 -45.134 0.704 -45.134 0.709 44.732
15150 0.71 44.637 0.703 -45.23 0.703 -45.23 0.71 44.637
15200 0.711 44.542 0.701 -45.325 0.701 -45.325 0.711 44.542
15250 0.712 44.447 0.7 -45.42 0.7 -45.42 0.712 44.447
15300 0.713 44.353 0.699 -45.514 0.699 -45.514 0.713 44.353
15350 0.715 44.259 0.698 -45.608 0.698 -45.608 0.715 44.259
15400 0.716 44.166 0.697 -45.702 0.697 -45.702 0.716 44.166
15450 0.717 44.072 0.696 -45.796 0.696 -45.796 0.717 44.072
15500 0.718 43.98 0.694 -45.889 0.694 -45.889 0.718 43.98
15550 0.719 43.887 0.693 -45.982 0.693 -45.982 0.719 43.887
15600 0.72 43.795 0.692 -46.074 0.692 -46.074 0.72 43.795
15650 0.721 43.703 0.691 -46.167 0.691 -46.167 0.721 43.703
15700 0.722 43.611 0.69 -46.259 0.69 -46.259 0.722 43.611
15750 0.724 43.519 0.689 -46.35 0.689 -46.35 0.724 43.519
15800 0.725 43.428 0.687 -46.441 0.687 -46.441 0.725 43.428
15850 0.726 43.338 0.686 -46.533 0.686 -46.533 0.726 43.338
15900 0.727 43.247 0.685 -46.623 0.685 -46.623 0.727 43.247
15950 0.728 43.157 0.684 -46.714 0.684 -46.714 0.728 43.157
16000 0.729 43.067 0.683 -46.804 0.683 -46.804 0.729 43.067
16050 0.73 42.977 0.682 -46.894 0.682 -46.894 0.73 42.977
16100 0.731 42.888 0.681 -46.983 0.681 -46.983 0.731 42.888
16150 0.732 42.799 0.679 -47.072 0.679 -47.072 0.732 42.799
16200 0.733 42.711 0.678 -47.161 0.678 -47.161 0.733 42.711
16250 0.734 42.622 0.677 -47.25 0.677 -47.25 0.734 42.622
16300 0.735 42.534 0.676 -47.338 0.676 -47.338 0.735 42.534
16350 0.736 42.446 0.675 -47.426 0.675 -47.426 0.736 42.446
16400 0.737 42.359 0.674 -47.514 0.674 -47.514 0.737 42.359
16450 0.738 42.272 0.673 -47.601 0.673 -47.601 0.738 42.272
16500 0.739 42.185 0.672 -47.688 0.672 -47.688 0.739 42.185
16550 0.741 42.098 0.67 -47.775 0.67 -47.775 0.741 42.098
16600 0.742 42.012 0.669 -47.862 0.669 -47.862 0.742 42.012
16650 0.743 41.926 0.668 -47.948 0.668 -47.948 0.743 41.926
16700 0.744 41.84 0.667 -48.034 0.667 -48.034 0.744 41.84
16750 0.745 41.755 0.666 -48.119 0.666 -48.119 0.745 41.755
16800 0.746 41.669 0.665 -48.205 0.665 -48.205 0.746 41.669
16850 0.747 41.585 0.664 -48.29 0.664 -48.29 0.747 41.585
16900 0.748 41.5 0.663 -48.375 0.663 -48.375 0.748 41.5
