! AVX Thin Film Operation		Date: April 2012 
! Description: Accu-P® Series, Thin Film, SMD, RF Capacitor
! Part Number: 12101J1R9PBTTR					
!	100	MHz	-	20.05	GHz			
!	Serial	Measurements						
!								
#	MHZ	S	MA	R	50			
!	S11	S21	S12	S22				
!	dB	Phase	dB	Phase	dB	Phase	dB	Phase
50 0.998 -3.416 0.06 86.512 0.06 86.512 0.998 -3.416
100 0.993 -6.812 0.119 83.101 0.119 83.101 0.993 -6.812
150 0.984 -10.167 0.177 79.731 0.177 79.731 0.984 -10.167
200 0.972 -13.464 0.233 76.42 0.233 76.42 0.972 -13.464
250 0.957 -16.686 0.287 73.183 0.287 73.183 0.957 -16.686
300 0.94 -19.819 0.339 70.034 0.339 70.034 0.94 -19.819
350 0.92 -22.853 0.388 66.984 0.388 66.984 0.92 -22.853
400 0.899 -25.78 0.435 64.042 0.435 64.042 0.899 -25.78
450 0.876 -28.592 0.479 61.214 0.479 61.214 0.876 -28.592
500 0.853 -31.288 0.519 58.503 0.519 58.503 0.853 -31.288
550 0.828 -33.865 0.557 55.909 0.557 55.909 0.828 -33.865
600 0.803 -36.324 0.592 53.434 0.592 53.434 0.803 -36.324
650 0.778 -38.666 0.625 51.075 0.625 51.075 0.778 -38.666
700 0.753 -40.896 0.655 48.828 0.655 48.828 0.753 -40.896
750 0.728 -43.015 0.682 46.691 0.682 46.691 0.728 -43.015
800 0.703 -45.03 0.707 44.659 0.707 44.659 0.703 -45.03
850 0.679 -46.945 0.731 42.726 0.731 42.726 0.679 -46.945
900 0.655 -48.764 0.752 40.888 0.752 40.888 0.655 -48.764
950 0.631 -50.493 0.772 39.14 0.772 39.14 0.631 -50.493
1000 0.608 -52.136 0.789 37.477 0.789 37.477 0.608 -52.136
1050 0.586 -53.7 0.806 35.893 0.806 35.893 0.586 -53.7
1100 0.565 -55.188 0.821 34.384 0.821 34.384 0.565 -55.188
1150 0.544 -56.606 0.835 32.946 0.835 32.946 0.544 -56.606
1200 0.524 -57.956 0.848 31.573 0.848 31.573 0.524 -57.956
1250 0.504 -59.245 0.859 30.261 0.859 30.261 0.504 -59.245
1300 0.485 -60.475 0.87 29.008 0.87 29.008 0.485 -60.475
1350 0.467 -61.651 0.88 27.808 0.88 27.808 0.467 -61.651
1400 0.449 -62.775 0.889 26.659 0.889 26.659 0.449 -62.775
1450 0.431 -63.851 0.898 25.557 0.898 25.557 0.431 -63.851
1500 0.415 -64.881 0.905 24.499 0.905 24.499 0.415 -64.881
1550 0.398 -65.869 0.913 23.483 0.913 23.483 0.398 -65.869
1600 0.383 -66.817 0.919 22.505 0.919 22.505 0.383 -66.817
1650 0.368 -67.727 0.925 21.564 0.925 21.564 0.368 -67.727
1700 0.353 -68.601 0.931 20.657 0.931 20.657 0.353 -68.601
1750 0.338 -69.442 0.936 19.783 0.936 19.783 0.338 -69.442
1800 0.325 -70.251 0.941 18.938 0.941 18.938 0.325 -70.251
1850 0.311 -71.029 0.946 18.122 0.946 18.122 0.311 -71.029
1900 0.298 -71.779 0.95 17.332 0.95 17.332 0.298 -71.779
1950 0.285 -72.501 0.954 16.568 0.954 16.568 0.285 -72.501
2000 0.273 -73.197 0.957 15.827 0.957 15.827 0.273 -73.197
2050 0.261 -73.868 0.961 15.109 0.961 15.109 0.261 -73.868
2100 0.249 -74.515 0.964 14.412 0.964 14.412 0.249 -74.515
2150 0.237 -75.139 0.967 13.735 0.967 13.735 0.237 -75.139
2200 0.226 -75.739 0.969 13.076 0.969 13.076 0.226 -75.739
2250 0.215 -76.318 0.972 12.436 0.972 12.436 0.215 -76.318
2300 0.205 -76.875 0.974 11.812 0.974 11.812 0.205 -76.875
2350 0.194 -77.411 0.976 11.204 0.976 11.204 0.194 -77.411
2400 0.184 -77.925 0.978 10.612 0.978 10.612 0.184 -77.925
2450 0.174 -78.418 0.98 10.034 0.98 10.034 0.174 -78.418
2500 0.165 -78.89 0.982 9.47 0.982 9.47 0.165 -78.89
2550 0.155 -79.339 0.983 8.919 0.983 8.919 0.155 -79.339
2600 0.146 -79.765 0.985 8.38 0.985 8.38 0.146 -79.765
2650 0.137 -80.167 0.986 7.853 0.986 7.853 0.137 -80.167
2700 0.128 -80.543 0.987 7.338 0.987 7.338 0.128 -80.543
2750 0.119 -80.891 0.988 6.833 0.988 6.833 0.119 -80.891
2800 0.11 -81.207 0.989 6.338 0.989 6.338 0.11 -81.207
2850 0.102 -81.488 0.99 5.854 0.99 5.854 0.102 -81.488
2900 0.094 -81.729 0.991 5.378 0.991 5.378 0.094 -81.729
2950 0.086 -81.92 0.992 4.912 0.992 4.912 0.086 -81.92
3000 0.078 -82.053 0.992 4.454 0.992 4.454 0.078 -82.053
3050 0.07 -82.111 0.993 4.005 0.993 4.005 0.07 -82.111
3100 0.062 -82.072 0.993 3.563 0.993 3.563 0.062 -82.072
3150 0.055 -81.903 0.994 3.129 0.994 3.129 0.055 -81.903
3200 0.047 -81.55 0.994 2.702 0.994 2.702 0.047 -81.55
3250 0.04 -80.921 0.994 2.282 0.994 2.282 0.04 -80.921
3300 0.033 -79.85 0.995 1.869 0.995 1.869 0.033 -79.85
3350 0.026 -78 0.995 1.462 0.995 1.462 0.026 -78
3400 0.019 -74.569 0.995 1.062 0.995 1.062 0.019 -74.569
3450 0.013 -67.156 0.995 0.667 0.995 0.667 0.013 -67.156
3500 6.798e-3 -45.413 0.995 0.279 0.995 0.279 6.798e-3 -45.413
3550 5.087e-3 20.905 0.995 -0.104 0.995 -0.104 5.087e-3 20.905
3600 9.665e-3 60.092 0.995 -0.482 0.995 -0.482 9.665e-3 60.092
3650 0.016 71.494 0.995 -0.855 0.995 -0.855 0.016 71.494
3700 0.022 76.233 0.995 -1.223 0.995 -1.223 0.022 76.233
3750 0.028 78.679 0.995 -1.586 0.995 -1.586 0.028 78.679
3800 0.034 80.09 0.995 -1.944 0.995 -1.944 0.034 80.09
3850 0.04 80.95 0.994 -2.298 0.994 -2.298 0.04 80.95
3900 0.046 81.486 0.994 -2.647 0.994 -2.647 0.046 81.486
3950 0.052 81.814 0.994 -2.992 0.994 -2.992 0.052 81.814
4000 0.058 82.002 0.994 -3.333 0.994 -3.333 0.058 82.002
4050 0.064 82.092 0.993 -3.67 0.993 -3.67 0.064 82.092
4100 0.07 82.111 0.993 -4.004 0.993 -4.004 0.07 82.111
4150 0.076 82.076 0.992 -4.333 0.992 -4.333 0.076 82.076
4200 0.081 82.001 0.992 -4.659 0.992 -4.659 0.081 82.001
4250 0.087 81.895 0.991 -4.982 0.991 -4.982 0.087 81.895
4300 0.093 81.764 0.991 -5.301 0.991 -5.301 0.093 81.764
4350 0.098 81.613 0.99 -5.617 0.99 -5.617 0.098 81.613
4400 0.103 81.447 0.99 -5.929 0.99 -5.929 0.103 81.447
4450 0.109 81.268 0.989 -6.239 0.989 -6.239 0.109 81.268
4500 0.114 81.078 0.989 -6.545 0.989 -6.545 0.114 81.078
4550 0.119 80.88 0.988 -6.848 0.988 -6.848 0.119 80.88
4600 0.125 80.675 0.987 -7.149 0.987 -7.149 0.125 80.675
4650 0.13 80.465 0.987 -7.447 0.987 -7.447 0.13 80.465
4700 0.135 80.25 0.986 -7.742 0.986 -7.742 0.135 80.25
4750 0.14 80.031 0.985 -8.034 0.985 -8.034 0.14 80.031
4800 0.145 79.809 0.985 -8.324 0.985 -8.324 0.145 79.809
4850 0.15 79.584 0.984 -8.611 0.984 -8.611 0.15 79.584
4900 0.155 79.357 0.983 -8.896 0.983 -8.896 0.155 79.357
4950 0.16 79.129 0.982 -9.178 0.982 -9.178 0.16 79.129
5000 0.164 78.9 0.982 -9.458 0.982 -9.458 0.164 78.9
5050 0.169 78.669 0.981 -9.736 0.981 -9.736 0.169 78.669
5100 0.174 78.438 0.98 -10.011 0.98 -10.011 0.174 78.438
5150 0.179 78.206 0.979 -10.284 0.979 -10.284 0.179 78.206
5200 0.183 77.974 0.978 -10.555 0.978 -10.555 0.183 77.974
5250 0.188 77.742 0.978 -10.824 0.978 -10.824 0.188 77.742
5300 0.192 77.51 0.977 -11.091 0.977 -11.091 0.192 77.51
5350 0.197 77.278 0.976 -11.355 0.976 -11.355 0.197 77.278
5400 0.201 77.047 0.975 -11.618 0.975 -11.618 0.201 77.047
5450 0.206 76.816 0.974 -11.879 0.974 -11.879 0.206 76.816
5500 0.21 76.585 0.973 -12.138 0.973 -12.138 0.21 76.585
5550 0.215 76.355 0.972 -12.395 0.972 -12.395 0.215 76.355
5600 0.219 76.125 0.971 -12.65 0.971 -12.65 0.219 76.125
5650 0.223 75.896 0.97 -12.904 0.97 -12.904 0.223 75.896
5700 0.228 75.668 0.969 -13.155 0.969 -13.155 0.228 75.668
5750 0.232 75.44 0.968 -13.405 0.968 -13.405 0.232 75.44
5800 0.236 75.213 0.967 -13.653 0.967 -13.653 0.236 75.213
5850 0.24 74.987 0.966 -13.9 0.966 -13.9 0.24 74.987
5900 0.244 74.762 0.965 -14.145 0.965 -14.145 0.244 74.762
5950 0.249 74.537 0.964 -14.388 0.964 -14.388 0.249 74.537
6000 0.253 74.314 0.963 -14.629 0.963 -14.629 0.253 74.314
6050 0.257 74.091 0.962 -14.87 0.962 -14.87 0.257 74.091
6100 0.261 73.869 0.961 -15.108 0.961 -15.108 0.261 73.869
6150 0.265 73.648 0.96 -15.345 0.96 -15.345 0.265 73.648
6200 0.269 73.428 0.959 -15.581 0.959 -15.581 0.269 73.428
6250 0.273 73.209 0.958 -15.815 0.958 -15.815 0.273 73.209
6300 0.276 72.991 0.956 -16.047 0.956 -16.047 0.276 72.991
6350 0.28 72.774 0.955 -16.279 0.955 -16.279 0.28 72.774
6400 0.284 72.557 0.954 -16.508 0.954 -16.508 0.284 72.557
6450 0.288 72.342 0.953 -16.737 0.953 -16.737 0.288 72.342
6500 0.292 72.127 0.952 -16.964 0.952 -16.964 0.292 72.127
6550 0.296 71.914 0.951 -17.19 0.951 -17.19 0.296 71.914
6600 0.299 71.701 0.95 -17.414 0.95 -17.414 0.299 71.701
6650 0.303 71.49 0.948 -17.637 0.948 -17.637 0.303 71.49
6700 0.307 71.279 0.947 -17.859 0.947 -17.859 0.307 71.279
6750 0.31 71.069 0.946 -18.079 0.946 -18.079 0.31 71.069
6800 0.314 70.861 0.945 -18.299 0.945 -18.299 0.314 70.861
6850 0.318 70.653 0.944 -18.517 0.944 -18.517 0.318 70.653
6900 0.321 70.446 0.942 -18.733 0.942 -18.733 0.321 70.446
6950 0.325 70.24 0.941 -18.949 0.941 -18.949 0.325 70.24
7000 0.328 70.035 0.94 -19.164 0.94 -19.164 0.328 70.035
7050 0.332 69.831 0.939 -19.377 0.939 -19.377 0.332 69.831
7100 0.335 69.628 0.938 -19.589 0.938 -19.589 0.335 69.628
7150 0.339 69.425 0.936 -19.8 0.936 -19.8 0.339 69.425
7200 0.342 69.224 0.935 -20.01 0.935 -20.01 0.342 69.224
7250 0.346 69.023 0.934 -20.218 0.934 -20.218 0.346 69.023
7300 0.349 68.824 0.933 -20.426 0.933 -20.426 0.349 68.824
7350 0.352 68.625 0.931 -20.632 0.931 -20.632 0.352 68.625
7400 0.356 68.427 0.93 -20.838 0.93 -20.838 0.356 68.427
7450 0.359 68.231 0.929 -21.042 0.929 -21.042 0.359 68.231
7500 0.362 68.035 0.927 -21.245 0.927 -21.245 0.362 68.035
7550 0.366 67.84 0.926 -21.447 0.926 -21.447 0.366 67.84
7600 0.369 67.645 0.925 -21.648 0.925 -21.648 0.369 67.645
7650 0.372 67.452 0.924 -21.849 0.924 -21.849 0.372 67.452
7700 0.375 67.259 0.922 -22.048 0.922 -22.048 0.375 67.259
7750 0.379 67.068 0.921 -22.246 0.921 -22.246 0.379 67.068
7800 0.382 66.877 0.92 -22.443 0.92 -22.443 0.382 66.877
7850 0.385 66.687 0.918 -22.639 0.918 -22.639 0.385 66.687
7900 0.388 66.498 0.917 -22.834 0.917 -22.834 0.388 66.498
7950 0.391 66.31 0.916 -23.028 0.916 -23.028 0.391 66.31
8000 0.394 66.122 0.914 -23.221 0.914 -23.221 0.394 66.122
8050 0.397 65.936 0.913 -23.414 0.913 -23.414 0.397 65.936
8100 0.4 65.75 0.912 -23.605 0.912 -23.605 0.4 65.75
8150 0.403 65.565 0.91 -23.795 0.91 -23.795 0.403 65.565
8200 0.407 65.381 0.909 -23.985 0.909 -23.985 0.407 65.381
8250 0.41 65.198 0.908 -24.173 0.908 -24.173 0.41 65.198
8300 0.413 65.015 0.906 -24.361 0.906 -24.361 0.413 65.015
8350 0.415 64.834 0.905 -24.548 0.905 -24.548 0.415 64.834
8400 0.418 64.653 0.904 -24.734 0.904 -24.734 0.418 64.653
8450 0.421 64.473 0.902 -24.918 0.902 -24.918 0.421 64.473
8500 0.424 64.293 0.901 -25.103 0.901 -25.103 0.424 64.293
8550 0.427 64.115 0.9 -25.286 0.9 -25.286 0.427 64.115
8600 0.43 63.937 0.898 -25.468 0.898 -25.468 0.43 63.937
8650 0.433 63.76 0.897 -25.649 0.897 -25.649 0.433 63.76
8700 0.436 63.584 0.896 -25.83 0.896 -25.83 0.436 63.584
8750 0.439 63.408 0.894 -26.01 0.894 -26.01 0.439 63.408
8800 0.441 63.234 0.893 -26.189 0.893 -26.189 0.441 63.234
8850 0.444 63.06 0.892 -26.367 0.892 -26.367 0.444 63.06
8900 0.447 62.887 0.89 -26.544 0.89 -26.544 0.447 62.887
8950 0.45 62.714 0.889 -26.721 0.889 -26.721 0.45 62.714
9000 0.452 62.543 0.887 -26.896 0.887 -26.896 0.452 62.543
9050 0.455 62.372 0.886 -27.071 0.886 -27.071 0.455 62.372
9100 0.458 62.201 0.885 -27.245 0.885 -27.245 0.458 62.201
9150 0.461 62.032 0.883 -27.418 0.883 -27.418 0.461 62.032
9200 0.463 61.863 0.882 -27.591 0.882 -27.591 0.463 61.863
9250 0.466 61.695 0.88 -27.763 0.88 -27.763 0.466 61.695
9300 0.468 61.528 0.879 -27.933 0.879 -27.933 0.468 61.528
9350 0.471 61.361 0.878 -28.104 0.878 -28.104 0.471 61.361
9400 0.474 61.195 0.876 -28.273 0.876 -28.273 0.474 61.195
9450 0.476 61.03 0.875 -28.442 0.875 -28.442 0.476 61.03
9500 0.479 60.866 0.874 -28.609 0.874 -28.609 0.479 60.866
9550 0.481 60.702 0.872 -28.777 0.872 -28.777 0.481 60.702
9600 0.484 60.539 0.871 -28.943 0.871 -28.943 0.484 60.539
9650 0.486 60.376 0.869 -29.109 0.869 -29.109 0.486 60.376
9700 0.489 60.215 0.868 -29.273 0.868 -29.273 0.489 60.215
9750 0.491 60.054 0.867 -29.438 0.867 -29.438 0.491 60.054
9800 0.494 59.893 0.865 -29.601 0.865 -29.601 0.494 59.893
9850 0.496 59.734 0.864 -29.764 0.864 -29.764 0.496 59.734
9900 0.499 59.575 0.862 -29.926 0.862 -29.926 0.499 59.575
9950 0.501 59.416 0.861 -30.087 0.861 -30.087 0.501 59.416
10000 0.504 59.259 0.86 -30.248 0.86 -30.248 0.504 59.259
10050 0.506 59.102 0.858 -30.407 0.858 -30.407 0.506 59.102
10100 0.509 58.945 0.857 -30.567 0.857 -30.567 0.509 58.945
10150 0.511 58.79 0.855 -30.725 0.855 -30.725 0.511 58.79
10200 0.513 58.635 0.854 -30.883 0.854 -30.883 0.513 58.635
10250 0.516 58.48 0.852 -31.04 0.852 -31.04 0.516 58.48
10300 0.518 58.326 0.851 -31.196 0.851 -31.196 0.518 58.326
10350 0.52 58.173 0.85 -31.352 0.85 -31.352 0.52 58.173
10400 0.523 58.021 0.848 -31.507 0.848 -31.507 0.523 58.021
10450 0.525 57.869 0.847 -31.662 0.847 -31.662 0.525 57.869
10500 0.527 57.718 0.845 -31.815 0.845 -31.815 0.527 57.718
10550 0.529 57.567 0.844 -31.969 0.844 -31.969 0.529 57.567
10600 0.532 57.417 0.843 -32.121 0.843 -32.121 0.532 57.417
10650 0.534 57.268 0.841 -32.273 0.841 -32.273 0.534 57.268
10700 0.536 57.119 0.84 -32.424 0.84 -32.424 0.536 57.119
10750 0.538 56.971 0.838 -32.574 0.838 -32.574 0.538 56.971
10800 0.541 56.823 0.837 -32.724 0.837 -32.724 0.541 56.823
10850 0.543 56.677 0.836 -32.873 0.836 -32.873 0.543 56.677
10900 0.545 56.53 0.834 -33.022 0.834 -33.022 0.545 56.53
10950 0.547 56.385 0.833 -33.17 0.833 -33.17 0.547 56.385
11000 0.549 56.239 0.831 -33.317 0.831 -33.317 0.549 56.239
11050 0.551 56.095 0.83 -33.464 0.83 -33.464 0.551 56.095
11100 0.554 55.951 0.829 -33.61 0.829 -33.61 0.554 55.951
11150 0.556 55.808 0.827 -33.756 0.827 -33.756 0.556 55.808
11200 0.558 55.665 0.826 -33.9 0.826 -33.9 0.558 55.665
11250 0.56 55.523 0.824 -34.045 0.824 -34.045 0.56 55.523
11300 0.562 55.381 0.823 -34.188 0.823 -34.188 0.562 55.381
11350 0.564 55.24 0.822 -34.331 0.822 -34.331 0.564 55.24
11400 0.566 55.1 0.82 -34.474 0.82 -34.474 0.566 55.1
11450 0.568 54.96 0.819 -34.616 0.819 -34.616 0.568 54.96
11500 0.57 54.821 0.817 -34.757 0.817 -34.757 0.57 54.821
11550 0.572 54.682 0.816 -34.898 0.816 -34.898 0.572 54.682
11600 0.574 54.544 0.815 -35.038 0.815 -35.038 0.574 54.544
11650 0.576 54.406 0.813 -35.177 0.813 -35.177 0.576 54.406
11700 0.578 54.269 0.812 -35.316 0.812 -35.316 0.578 54.269
11750 0.58 54.133 0.81 -35.455 0.81 -35.455 0.58 54.133
11800 0.582 53.997 0.809 -35.592 0.809 -35.592 0.582 53.997
11850 0.584 53.861 0.808 -35.73 0.808 -35.73 0.584 53.861
11900 0.586 53.727 0.806 -35.866 0.806 -35.866 0.586 53.727
11950 0.588 53.592 0.805 -36.002 0.805 -36.002 0.588 53.592
12000 0.59 53.459 0.803 -36.138 0.803 -36.138 0.59 53.459
12050 0.592 53.325 0.802 -36.273 0.802 -36.273 0.592 53.325
12100 0.594 53.193 0.801 -36.407 0.801 -36.407 0.594 53.193
12150 0.595 53.061 0.799 -36.541 0.799 -36.541 0.595 53.061
12200 0.597 52.929 0.798 -36.674 0.798 -36.674 0.597 52.929
12250 0.599 52.798 0.797 -36.807 0.797 -36.807 0.599 52.798
12300 0.601 52.667 0.795 -36.939 0.795 -36.939 0.601 52.667
12350 0.603 52.537 0.794 -37.071 0.794 -37.071 0.603 52.537
12400 0.605 52.408 0.792 -37.202 0.792 -37.202 0.605 52.408
12450 0.606 52.279 0.791 -37.333 0.791 -37.333 0.606 52.279
12500 0.608 52.15 0.79 -37.463 0.79 -37.463 0.608 52.15
12550 0.61 52.022 0.788 -37.592 0.788 -37.592 0.61 52.022
12600 0.612 51.895 0.787 -37.721 0.787 -37.721 0.612 51.895
12650 0.614 51.768 0.786 -37.85 0.786 -37.85 0.614 51.768
12700 0.615 51.641 0.784 -37.978 0.784 -37.978 0.615 51.641
12750 0.617 51.515 0.783 -38.105 0.783 -38.105 0.617 51.515
12800 0.619 51.39 0.781 -38.232 0.781 -38.232 0.619 51.39
12850 0.621 51.265 0.78 -38.359 0.78 -38.359 0.621 51.265
12900 0.622 51.141 0.779 -38.485 0.779 -38.485 0.622 51.141
12950 0.624 51.017 0.777 -38.61 0.777 -38.61 0.624 51.017
13000 0.626 50.893 0.776 -38.735 0.776 -38.735 0.626 50.893
13050 0.627 50.77 0.775 -38.859 0.775 -38.859 0.627 50.77
13100 0.629 50.648 0.773 -38.983 0.773 -38.983 0.629 50.648
13150 0.631 50.526 0.772 -39.107 0.772 -39.107 0.631 50.526
13200 0.632 50.404 0.771 -39.23 0.771 -39.23 0.632 50.404
13250 0.634 50.283 0.769 -39.352 0.769 -39.352 0.634 50.283
13300 0.636 50.163 0.768 -39.474 0.768 -39.474 0.636 50.163
13350 0.637 50.042 0.767 -39.596 0.767 -39.596 0.637 50.042
13400 0.639 49.923 0.765 -39.717 0.765 -39.717 0.639 49.923
13450 0.641 49.804 0.764 -39.837 0.764 -39.837 0.641 49.804
13500 0.642 49.685 0.763 -39.957 0.763 -39.957 0.642 49.685
13550 0.644 49.567 0.761 -40.077 0.761 -40.077 0.644 49.567
13600 0.645 49.449 0.76 -40.196 0.76 -40.196 0.645 49.449
13650 0.647 49.332 0.759 -40.314 0.759 -40.314 0.647 49.332
13700 0.649 49.215 0.757 -40.432 0.757 -40.432 0.649 49.215
13750 0.65 49.098 0.756 -40.55 0.756 -40.55 0.65 49.098
13800 0.652 48.982 0.755 -40.667 0.755 -40.667 0.652 48.982
13850 0.653 48.867 0.753 -40.784 0.753 -40.784 0.653 48.867
13900 0.655 48.752 0.752 -40.9 0.752 -40.9 0.655 48.752
13950 0.656 48.637 0.751 -41.016 0.751 -41.016 0.656 48.637
14000 0.658 48.523 0.749 -41.131 0.749 -41.131 0.658 48.523
14050 0.659 48.41 0.748 -41.246 0.748 -41.246 0.659 48.41
14100 0.661 48.296 0.747 -41.361 0.747 -41.361 0.661 48.296
14150 0.662 48.183 0.745 -41.475 0.745 -41.475 0.662 48.183
14200 0.664 48.071 0.744 -41.588 0.744 -41.588 0.664 48.071
14250 0.665 47.959 0.743 -41.701 0.743 -41.701 0.665 47.959
14300 0.667 47.848 0.741 -41.814 0.741 -41.814 0.667 47.848
14350 0.668 47.737 0.74 -41.926 0.74 -41.926 0.668 47.737
14400 0.67 47.626 0.739 -42.038 0.739 -42.038 0.67 47.626
14450 0.671 47.516 0.737 -42.149 0.737 -42.149 0.671 47.516
14500 0.673 47.406 0.736 -42.26 0.736 -42.26 0.673 47.406
14550 0.674 47.297 0.735 -42.37 0.735 -42.37 0.674 47.297
14600 0.675 47.188 0.734 -42.481 0.734 -42.481 0.675 47.188
14650 0.677 47.079 0.732 -42.59 0.732 -42.59 0.677 47.079
14700 0.678 46.971 0.731 -42.699 0.731 -42.699 0.678 46.971
14750 0.68 46.863 0.73 -42.808 0.73 -42.808 0.68 46.863
14800 0.681 46.756 0.728 -42.916 0.728 -42.916 0.681 46.756
14850 0.682 46.649 0.727 -43.024 0.727 -43.024 0.682 46.649
14900 0.684 46.543 0.726 -43.132 0.726 -43.132 0.684 46.543
14950 0.685 46.437 0.725 -43.239 0.725 -43.239 0.685 46.437
15000 0.686 46.331 0.723 -43.346 0.723 -43.346 0.686 46.331
15050 0.688 46.226 0.722 -43.452 0.722 -43.452 0.688 46.226
15100 0.689 46.121 0.721 -43.558 0.721 -43.558 0.689 46.121
15150 0.69 46.016 0.72 -43.663 0.72 -43.663 0.69 46.016
15200 0.692 45.912 0.718 -43.768 0.718 -43.768 0.692 45.912
15250 0.693 45.809 0.717 -43.873 0.717 -43.873 0.693 45.809
15300 0.694 45.705 0.716 -43.977 0.716 -43.977 0.694 45.705
15350 0.696 45.603 0.715 -44.081 0.715 -44.081 0.696 45.603
15400 0.697 45.5 0.713 -44.184 0.713 -44.184 0.697 45.5
15450 0.698 45.398 0.712 -44.287 0.712 -44.287 0.698 45.398
15500 0.7 45.296 0.711 -44.39 0.711 -44.39 0.7 45.296
15550 0.701 45.195 0.71 -44.492 0.71 -44.492 0.701 45.195
15600 0.702 45.094 0.708 -44.594 0.708 -44.594 0.702 45.094
15650 0.703 44.993 0.707 -44.696 0.707 -44.696 0.703 44.993
15700 0.705 44.893 0.706 -44.797 0.706 -44.797 0.705 44.893
15750 0.706 44.794 0.705 -44.897 0.705 -44.897 0.706 44.794
15800 0.707 44.694 0.703 -44.998 0.703 -44.998 0.707 44.694
15850 0.708 44.595 0.702 -45.098 0.702 -45.098 0.708 44.595
15900 0.71 44.496 0.701 -45.197 0.701 -45.197 0.71 44.496
15950 0.711 44.398 0.7 -45.296 0.7 -45.296 0.711 44.398
16000 0.712 44.3 0.698 -45.395 0.698 -45.395 0.712 44.3
16050 0.713 44.203 0.697 -45.494 0.697 -45.494 0.713 44.203
16100 0.714 44.105 0.696 -45.592 0.696 -45.592 0.714 44.105
16150 0.716 44.009 0.695 -45.689 0.695 -45.689 0.716 44.009
16200 0.717 43.912 0.694 -45.787 0.694 -45.787 0.717 43.912
16250 0.718 43.816 0.692 -45.884 0.692 -45.884 0.718 43.816
16300 0.719 43.72 0.691 -45.98 0.691 -45.98 0.719 43.72
16350 0.72 43.625 0.69 -46.076 0.69 -46.076 0.72 43.625
16400 0.721 43.53 0.689 -46.172 0.689 -46.172 0.721 43.53
16450 0.723 43.435 0.688 -46.268 0.688 -46.268 0.723 43.435
16500 0.724 43.341 0.686 -46.363 0.686 -46.363 0.724 43.341
16550 0.725 43.247 0.685 -46.458 0.685 -46.458 0.725 43.247
16600 0.726 43.153 0.684 -46.552 0.684 -46.552 0.726 43.153
16650 0.727 43.06 0.683 -46.646 0.683 -46.646 0.727 43.06
16700 0.728 42.967 0.682 -46.74 0.682 -46.74 0.728 42.967
16750 0.729 42.874 0.68 -46.833 0.68 -46.833 0.729 42.874
16800 0.73 42.782 0.679 -46.926 0.679 -46.926 0.73 42.782
16850 0.732 42.69 0.678 -47.019 0.678 -47.019 0.732 42.69
16900 0.733 42.599 0.677 -47.111 0.677 -47.111 0.733 42.599
