! AVX Thin Film Operation		Date: April 2012 
! Description: Accu-P® Series, Thin Film, SMD, RF Capacitor
! Part Number: 12101J1R8PBTTR					
!	100	MHz	-	10.05	GHz			
!	Serial	Measurements						
!								
#	MHZ	S	MA	R	50			
!	S11	S21	S12	S22				
!	dB	Phase	dB	Phase	dB	Phase	dB	Phase
100	0.994	-6.453	0.112	83.534	0.112	83.534	0.994	-6.453
109.812	0.992	-7.08	0.123	82.905	0.123	82.905	0.992	-7.08
119.623	0.991	-7.706	0.134	82.279	0.134	82.279	0.991	-7.706
129.435	0.989	-8.329	0.145	81.654	0.145	81.654	0.989	-8.329
139.247	0.988	-8.951	0.156	81.031	0.156	81.031	0.988	-8.951
149.058	0.986	-9.571	0.166	80.41	0.166	80.41	0.986	-9.571
158.87	0.984	-10.188	0.177	79.791	0.177	79.791	0.984	-10.188
168.682	0.982	-10.803	0.187	79.175	0.187	79.175	0.982	-10.803
178.494	0.98	-11.416	0.198	78.561	0.198	78.561	0.98	-11.416
188.305	0.978	-12.026	0.208	77.95	0.208	77.95	0.978	-12.026
198.117	0.976	-12.633	0.219	77.341	0.219	77.341	0.976	-12.633
207.929	0.973	-13.238	0.229	76.735	0.229	76.735	0.973	-13.238
217.74	0.971	-13.84	0.239	76.132	0.239	76.132	0.971	-13.84
227.552	0.968	-14.438	0.249	75.532	0.249	75.532	0.968	-14.438
237.364	0.966	-15.034	0.259	74.936	0.259	74.936	0.966	-15.034
247.175	0.963	-15.626	0.269	74.342	0.269	74.342	0.963	-15.626
256.987	0.96	-16.215	0.279	73.752	0.279	73.752	0.96	-16.215
266.799	0.957	-16.8	0.289	73.165	0.289	73.165	0.957	-16.8
276.611	0.954	-17.382	0.299	72.582	0.299	72.582	0.954	-17.382
286.422	0.951	-17.96	0.308	72.002	0.308	72.002	0.951	-17.96
296.234	0.948	-18.535	0.318	71.426	0.318	71.426	0.948	-18.535
306.046	0.945	-19.106	0.327	70.854	0.327	70.854	0.945	-19.106
315.857	0.941	-19.673	0.337	70.286	0.337	70.286	0.941	-19.673
325.669	0.938	-20.236	0.346	69.721	0.346	69.721	0.938	-20.236
335.481	0.935	-20.796	0.355	69.161	0.355	69.161	0.935	-20.796
345.292	0.931	-21.351	0.364	68.604	0.364	68.604	0.931	-21.351
355.104	0.928	-21.902	0.373	68.052	0.373	68.052	0.928	-21.902
364.916	0.924	-22.449	0.382	67.504	0.382	67.504	0.924	-22.449
374.727	0.92	-22.992	0.391	66.96	0.391	66.96	0.92	-22.992
384.539	0.917	-23.53	0.399	66.42	0.399	66.42	0.917	-23.53
394.351	0.913	-24.065	0.408	65.884	0.408	65.884	0.913	-24.065
404.163	0.909	-24.594	0.416	65.353	0.416	65.353	0.909	-24.594
413.974	0.905	-25.12	0.425	64.826	0.425	64.826	0.905	-25.12
423.786	0.901	-25.641	0.433	64.304	0.433	64.304	0.901	-25.641
433.598	0.897	-26.158	0.441	63.785	0.441	63.785	0.897	-26.158
443.409	0.893	-26.671	0.449	63.272	0.449	63.272	0.893	-26.671
453.221	0.889	-27.179	0.457	62.762	0.457	62.762	0.889	-27.179
463.033	0.885	-27.682	0.465	62.258	0.465	62.258	0.885	-27.682
472.844	0.881	-28.181	0.472	61.757	0.472	61.757	0.881	-28.181
482.656	0.877	-28.676	0.48	61.262	0.48	61.262	0.877	-28.676
492.468	0.873	-29.166	0.487	60.77	0.487	60.77	0.873	-29.166
502.279	0.868	-29.651	0.495	60.284	0.495	60.284	0.868	-29.651
512.091	0.864	-30.132	0.502	59.801	0.502	59.801	0.864	-30.132
521.903	0.86	-30.609	0.509	59.324	0.509	59.324	0.86	-30.609
531.715	0.856	-31.08	0.516	58.85	0.516	58.85	0.856	-31.08
541.526	0.852	-31.548	0.523	58.382	0.523	58.382	0.852	-31.548
551.338	0.847	-32.011	0.53	57.918	0.53	57.918	0.847	-32.011
561.15	0.843	-32.469	0.537	57.458	0.537	57.458	0.843	-32.469
570.961	0.839	-32.923	0.544	57.003	0.544	57.003	0.839	-32.923
580.773	0.834	-33.372	0.55	56.552	0.55	56.552	0.834	-33.372
590.585	0.83	-33.817	0.557	56.106	0.557	56.106	0.83	-33.817
600.396	0.826	-34.258	0.563	55.664	0.563	55.664	0.826	-34.258
610.208	0.821	-34.694	0.569	55.227	0.569	55.227	0.821	-34.694
620.02	0.817	-35.125	0.575	54.794	0.575	54.794	0.817	-35.125
629.832	0.813	-35.553	0.581	54.365	0.581	54.365	0.813	-35.553
639.643	0.808	-35.976	0.587	53.941	0.587	53.941	0.808	-35.976
649.455	0.804	-36.394	0.593	53.521	0.593	53.521	0.804	-36.394
659.267	0.8	-36.808	0.599	53.106	0.599	53.106	0.8	-36.808
669.078	0.795	-37.218	0.605	52.695	0.605	52.695	0.795	-37.218
678.89	0.791	-37.624	0.61	52.288	0.61	52.288	0.791	-37.624
688.702	0.787	-38.025	0.616	51.885	0.616	51.885	0.787	-38.025
698.513	0.782	-38.422	0.621	51.487	0.621	51.487	0.782	-38.422
708.325	0.778	-38.815	0.627	51.093	0.627	51.093	0.778	-38.815
718.137	0.774	-39.204	0.632	50.703	0.632	50.703	0.774	-39.204
727.948	0.77	-39.588	0.637	50.317	0.637	50.317	0.77	-39.588
737.76	0.765	-39.969	0.642	49.935	0.642	49.935	0.765	-39.969
747.572	0.761	-40.346	0.647	49.557	0.647	49.557	0.761	-40.346
757.384	0.757	-40.718	0.652	49.183	0.652	49.183	0.757	-40.718
767.195	0.753	-41.087	0.657	48.813	0.657	48.813	0.753	-41.087
777.007	0.748	-41.451	0.662	48.447	0.662	48.447	0.748	-41.451
786.819	0.744	-41.812	0.667	48.085	0.667	48.085	0.744	-41.812
796.63	0.74	-42.169	0.671	47.727	0.671	47.727	0.74	-42.169
806.442	0.736	-42.521	0.676	47.373	0.676	47.373	0.736	-42.521
816.254	0.732	-42.871	0.68	47.023	0.68	47.023	0.732	-42.871
826.065	0.727	-43.216	0.685	46.676	0.685	46.676	0.727	-43.216
835.877	0.723	-43.558	0.689	46.333	0.689	46.333	0.723	-43.558
845.689	0.719	-43.895	0.693	45.994	0.693	45.994	0.719	-43.895
855.5	0.715	-44.23	0.698	45.658	0.698	45.658	0.715	-44.23
865.312	0.711	-44.56	0.702	45.326	0.702	45.326	0.711	-44.56
875.124	0.707	-44.887	0.706	44.998	0.706	44.998	0.707	-44.887
884.936	0.703	-45.211	0.71	44.673	0.71	44.673	0.703	-45.211
894.747	0.699	-45.531	0.714	44.352	0.714	44.352	0.699	-45.531
904.559	0.695	-45.848	0.717	44.034	0.717	44.034	0.695	-45.848
914.371	0.691	-46.161	0.721	43.72	0.721	43.72	0.691	-46.161
924.182	0.687	-46.47	0.725	43.409	0.725	43.409	0.687	-46.47
933.994	0.683	-46.777	0.729	43.101	0.729	43.101	0.683	-46.777
943.806	0.679	-47.08	0.732	42.796	0.732	42.796	0.679	-47.08
953.617	0.676	-47.38	0.736	42.495	0.736	42.495	0.676	-47.38
963.429	0.672	-47.676	0.739	42.197	0.739	42.197	0.672	-47.676
973.241	0.668	-47.97	0.743	41.903	0.743	41.903	0.668	-47.97
983.053	0.664	-48.26	0.746	41.611	0.746	41.611	0.664	-48.26
992.864	0.66	-48.547	0.75	41.323	0.75	41.323	0.66	-48.547
1002.676	0.657	-48.831	0.753	41.037	0.753	41.037	0.657	-48.831
1012.488	0.653	-49.112	0.756	40.755	0.756	40.755	0.653	-49.112
1022.299	0.649	-49.39	0.759	40.476	0.759	40.476	0.649	-49.39
1032.111	0.645	-49.665	0.762	40.2	0.762	40.2	0.645	-49.665
1041.923	0.642	-49.937	0.765	39.926	0.765	39.926	0.642	-49.937
1051.734	0.638	-50.206	0.768	39.656	0.768	39.656	0.638	-50.206
1061.546	0.635	-50.473	0.771	39.388	0.771	39.388	0.635	-50.473
1071.358	0.631	-50.736	0.774	39.123	0.774	39.123	0.631	-50.736
1081.169	0.627	-50.997	0.777	38.861	0.777	38.861	0.627	-50.997
1090.981	0.624	-51.255	0.78	38.602	0.78	38.602	0.624	-51.255
1100.793	0.62	-51.51	0.783	38.346	0.783	38.346	0.62	-51.51
1110.605	0.617	-51.762	0.785	38.092	0.785	38.092	0.617	-51.762
1120.416	0.613	-52.012	0.788	37.841	0.788	37.841	0.613	-52.012
1130.228	0.61	-52.259	0.791	37.592	0.791	37.592	0.61	-52.259
1140.04	0.607	-52.504	0.793	37.346	0.793	37.346	0.607	-52.504
1149.851	0.603	-52.746	0.796	37.103	0.796	37.103	0.603	-52.746
1159.663	0.6	-52.985	0.798	36.862	0.798	36.862	0.6	-52.985
1169.475	0.597	-53.222	0.801	36.624	0.801	36.624	0.597	-53.222
1179.286	0.593	-53.457	0.803	36.388	0.803	36.388	0.593	-53.457
1189.098	0.59	-53.689	0.806	36.154	0.806	36.154	0.59	-53.689
1198.91	0.587	-53.919	0.808	35.923	0.808	35.923	0.587	-53.919
1208.722	0.583	-54.146	0.811	35.695	0.811	35.695	0.583	-54.146
1218.533	0.58	-54.371	0.813	35.468	0.813	35.468	0.58	-54.371
1228.345	0.577	-54.594	0.815	35.244	0.815	35.244	0.577	-54.594
1238.157	0.574	-54.814	0.817	35.023	0.817	35.023	0.574	-54.814
1247.968	0.571	-55.032	0.819	34.803	0.819	34.803	0.571	-55.032
1257.78	0.568	-55.248	0.822	34.586	0.822	34.586	0.568	-55.248
1267.592	0.565	-55.462	0.824	34.371	0.824	34.371	0.565	-55.462
1277.403	0.561	-55.674	0.826	34.158	0.826	34.158	0.561	-55.674
1287.215	0.558	-55.883	0.828	33.947	0.828	33.947	0.558	-55.883
1297.027	0.555	-56.091	0.83	33.738	0.83	33.738	0.555	-56.091
1306.838	0.552	-56.296	0.832	33.532	0.832	33.532	0.552	-56.296
1316.65	0.549	-56.499	0.834	33.327	0.834	33.327	0.549	-56.499
1326.462	0.546	-56.7	0.836	33.124	0.836	33.124	0.546	-56.7
1336.274	0.544	-56.899	0.838	32.924	0.838	32.924	0.544	-56.899
1346.085	0.541	-57.097	0.84	32.725	0.84	32.725	0.541	-57.097
1355.897	0.538	-57.292	0.841	32.529	0.841	32.529	0.538	-57.292
1365.709	0.535	-57.485	0.843	32.334	0.843	32.334	0.535	-57.485
1375.52	0.532	-57.677	0.845	32.141	0.845	32.141	0.532	-57.677
1385.332	0.529	-57.866	0.847	31.95	0.847	31.95	0.529	-57.866
1395.144	0.526	-58.054	0.849	31.761	0.849	31.761	0.526	-58.054
1404.955	0.524	-58.24	0.85	31.574	0.85	31.574	0.524	-58.24
1414.767	0.521	-58.424	0.852	31.389	0.852	31.389	0.521	-58.424
1424.579	0.518	-58.606	0.854	31.205	0.854	31.205	0.518	-58.606
1434.39	0.515	-58.787	0.855	31.023	0.855	31.023	0.515	-58.787
1444.202	0.513	-58.966	0.857	30.843	0.857	30.843	0.513	-58.966
1454.014	0.51	-59.143	0.858	30.664	0.858	30.664	0.51	-59.143
1463.826	0.507	-59.318	0.86	30.488	0.86	30.488	0.507	-59.318
1473.637	0.505	-59.492	0.862	30.312	0.862	30.312	0.505	-59.492
1483.449	0.502	-59.664	0.863	30.139	0.863	30.139	0.502	-59.664
1493.261	0.5	-59.834	0.865	29.967	0.865	29.967	0.5	-59.834
1503.072	0.497	-60.003	0.866	29.797	0.866	29.797	0.497	-60.003
1512.884	0.494	-60.171	0.868	29.628	0.868	29.628	0.494	-60.171
1522.696	0.492	-60.336	0.869	29.461	0.869	29.461	0.492	-60.336
1532.507	0.489	-60.5	0.87	29.296	0.87	29.296	0.489	-60.5
1542.319	0.487	-60.663	0.872	29.132	0.872	29.132	0.487	-60.663
1552.131	0.484	-60.824	0.873	28.969	0.873	28.969	0.484	-60.824
1561.943	0.482	-60.984	0.874	28.808	0.874	28.808	0.482	-60.984
1571.754	0.479	-61.142	0.876	28.649	0.876	28.649	0.479	-61.142
1581.566	0.477	-61.299	0.877	28.491	0.877	28.491	0.477	-61.299
1591.378	0.475	-61.454	0.878	28.334	0.878	28.334	0.475	-61.454
1601.189	0.472	-61.608	0.88	28.179	0.88	28.179	0.472	-61.608
1611.001	0.47	-61.76	0.881	28.025	0.881	28.025	0.47	-61.76
1620.813	0.468	-61.911	0.882	27.872	0.882	27.872	0.468	-61.911
1630.624	0.465	-62.061	0.883	27.721	0.883	27.721	0.465	-62.061
1640.436	0.463	-62.209	0.885	27.571	0.885	27.571	0.463	-62.209
1650.248	0.461	-62.356	0.886	27.423	0.886	27.423	0.461	-62.356
1660.059	0.458	-62.502	0.887	27.276	0.887	27.276	0.458	-62.502
1669.871	0.456	-62.647	0.888	27.13	0.888	27.13	0.456	-62.647
1679.683	0.454	-62.79	0.889	26.986	0.889	26.986	0.454	-62.79
1689.495	0.452	-62.932	0.89	26.842	0.89	26.842	0.452	-62.932
1699.306	0.449	-63.072	0.892	26.7	0.892	26.7	0.449	-63.072
1709.118	0.447	-63.212	0.893	26.559	0.893	26.559	0.447	-63.212
1718.93	0.445	-63.35	0.894	26.42	0.894	26.42	0.445	-63.35
1728.741	0.443	-63.487	0.895	26.281	0.895	26.281	0.443	-63.487
1738.553	0.441	-63.623	0.896	26.144	0.896	26.144	0.441	-63.623
1748.365	0.439	-63.757	0.897	26.008	0.897	26.008	0.439	-63.757
1758.176	0.436	-63.891	0.898	25.873	0.898	25.873	0.436	-63.891
1767.988	0.434	-64.023	0.899	25.74	0.899	25.74	0.434	-64.023
1777.8	0.432	-64.154	0.9	25.607	0.9	25.607	0.432	-64.154
1787.611	0.43	-64.284	0.901	25.476	0.901	25.476	0.43	-64.284
1797.423	0.428	-64.413	0.902	25.345	0.902	25.345	0.428	-64.413
1807.235	0.426	-64.541	0.903	25.216	0.903	25.216	0.426	-64.541
1817.047	0.424	-64.668	0.904	25.088	0.904	25.088	0.424	-64.668
1826.858	0.422	-64.794	0.905	24.961	0.905	24.961	0.422	-64.794
1836.67	0.42	-64.918	0.906	24.834	0.906	24.834	0.42	-64.918
1846.482	0.418	-65.042	0.907	24.709	0.907	24.709	0.418	-65.042
1856.293	0.416	-65.165	0.908	24.585	0.908	24.585	0.416	-65.165
1866.105	0.414	-65.286	0.908	24.462	0.908	24.462	0.414	-65.286
1875.917	0.412	-65.407	0.909	24.34	0.909	24.34	0.412	-65.407
1885.728	0.41	-65.526	0.91	24.219	0.91	24.219	0.41	-65.526
1895.54	0.408	-65.645	0.911	24.099	0.911	24.099	0.408	-65.645
1905.352	0.406	-65.763	0.912	23.98	0.912	23.98	0.406	-65.763
1915.164	0.405	-65.879	0.913	23.862	0.913	23.862	0.405	-65.879
1924.975	0.403	-65.995	0.914	23.745	0.914	23.745	0.403	-65.995
1934.787	0.401	-66.11	0.914	23.629	0.914	23.629	0.401	-66.11
1944.599	0.399	-66.224	0.915	23.513	0.915	23.513	0.399	-66.224
1954.41	0.397	-66.337	0.916	23.399	0.916	23.399	0.397	-66.337
1964.222	0.395	-66.449	0.917	23.286	0.917	23.286	0.395	-66.449
1974.034	0.394	-66.56	0.917	23.173	0.917	23.173	0.394	-66.56
1983.845	0.392	-66.67	0.918	23.061	0.918	23.061	0.392	-66.67
1993.657	0.39	-66.779	0.919	22.95	0.919	22.95	0.39	-66.779
2003.469	0.388	-66.888	0.92	22.84	0.92	22.84	0.388	-66.888
2013.28	0.386	-66.996	0.92	22.731	0.92	22.731	0.386	-66.996
2023.092	0.385	-67.103	0.921	22.623	0.921	22.623	0.385	-67.103
2032.904	0.383	-67.209	0.922	22.516	0.922	22.516	0.383	-67.209
2042.716	0.381	-67.314	0.923	22.409	0.923	22.409	0.381	-67.314
2052.527	0.38	-67.418	0.923	22.303	0.923	22.303	0.38	-67.418
2062.339	0.378	-67.522	0.924	22.198	0.924	22.198	0.378	-67.522
2072.151	0.376	-67.624	0.925	22.094	0.925	22.094	0.376	-67.624
2081.962	0.374	-67.726	0.925	21.99	0.925	21.99	0.374	-67.726
2091.774	0.373	-67.828	0.926	21.888	0.926	21.888	0.373	-67.828
2101.586	0.371	-67.928	0.927	21.786	0.927	21.786	0.371	-67.928
2111.397	0.37	-68.028	0.927	21.685	0.927	21.685	0.37	-68.028
2121.209	0.368	-68.127	0.928	21.584	0.928	21.584	0.368	-68.127
2131.021	0.366	-68.225	0.929	21.485	0.929	21.485	0.366	-68.225
2140.833	0.365	-68.322	0.929	21.386	0.929	21.386	0.365	-68.322
2150.644	0.363	-68.419	0.93	21.288	0.93	21.288	0.363	-68.419
2160.456	0.361	-68.515	0.931	21.19	0.931	21.19	0.361	-68.515
2170.268	0.36	-68.61	0.931	21.093	0.931	21.093	0.36	-68.61
2180.079	0.358	-68.705	0.932	20.997	0.932	20.997	0.358	-68.705
2189.891	0.357	-68.798	0.932	20.902	0.932	20.902	0.357	-68.798
2199.703	0.355	-68.892	0.933	20.807	0.933	20.807	0.355	-68.892
2209.514	0.354	-68.984	0.933	20.713	0.933	20.713	0.354	-68.984
2219.326	0.352	-69.076	0.934	20.62	0.934	20.62	0.352	-69.076
2229.138	0.351	-69.167	0.935	20.528	0.935	20.528	0.351	-69.167
2238.949	0.349	-69.257	0.935	20.436	0.935	20.436	0.349	-69.257
2248.761	0.348	-69.347	0.936	20.344	0.936	20.344	0.348	-69.347
2258.573	0.346	-69.436	0.936	20.254	0.936	20.254	0.346	-69.436
2268.385	0.345	-69.525	0.937	20.164	0.937	20.164	0.345	-69.525
2278.196	0.343	-69.613	0.937	20.074	0.937	20.074	0.343	-69.613
2288.008	0.342	-69.7	0.938	19.985	0.938	19.985	0.342	-69.7
2297.82	0.34	-69.787	0.938	19.897	0.938	19.897	0.34	-69.787
2307.631	0.339	-69.873	0.939	19.81	0.939	19.81	0.339	-69.873
2317.443	0.337	-69.958	0.939	19.723	0.939	19.723	0.337	-69.958
2327.255	0.336	-70.043	0.94	19.636	0.94	19.636	0.336	-70.043
2337.066	0.335	-70.127	0.94	19.551	0.94	19.551	0.335	-70.127
2346.878	0.333	-70.211	0.941	19.465	0.941	19.465	0.333	-70.211
2356.69	0.332	-70.294	0.941	19.381	0.941	19.381	0.332	-70.294
2366.501	0.33	-70.376	0.942	19.297	0.942	19.297	0.33	-70.376
2376.313	0.329	-70.458	0.942	19.213	0.942	19.213	0.329	-70.458
2386.125	0.328	-70.54	0.943	19.131	0.943	19.131	0.328	-70.54
2395.937	0.326	-70.62	0.943	19.048	0.943	19.048	0.326	-70.62
2405.748	0.325	-70.701	0.944	18.967	0.944	18.967	0.325	-70.701
2415.56	0.324	-70.78	0.944	18.885	0.944	18.885	0.324	-70.78
2425.372	0.322	-70.859	0.945	18.805	0.945	18.805	0.322	-70.859
2435.183	0.321	-70.938	0.945	18.724	0.945	18.724	0.321	-70.938
2444.995	0.32	-71.016	0.946	18.645	0.946	18.645	0.32	-71.016
2454.807	0.318	-71.094	0.946	18.566	0.946	18.566	0.318	-71.094
2464.618	0.317	-71.171	0.947	18.487	0.947	18.487	0.317	-71.171
2474.43	0.316	-71.247	0.947	18.409	0.947	18.409	0.316	-71.247
2484.242	0.315	-71.323	0.947	18.332	0.947	18.332	0.315	-71.323
2494.054	0.313	-71.399	0.948	18.255	0.948	18.255	0.313	-71.399
2503.865	0.312	-71.474	0.948	18.178	0.948	18.178	0.312	-71.474
2513.677	0.311	-71.548	0.949	18.102	0.949	18.102	0.311	-71.548
2523.489	0.309	-71.622	0.949	18.026	0.949	18.026	0.309	-71.622
2533.3	0.308	-71.696	0.949	17.951	0.949	17.951	0.308	-71.696
2543.112	0.307	-71.769	0.95	17.877	0.95	17.877	0.307	-71.769
2552.924	0.306	-71.841	0.95	17.803	0.95	17.803	0.306	-71.841
2562.735	0.305	-71.913	0.951	17.729	0.951	17.729	0.305	-71.913
2572.547	0.303	-71.985	0.951	17.656	0.951	17.656	0.303	-71.985
2582.359	0.302	-72.056	0.951	17.583	0.951	17.583	0.302	-72.056
2592.17	0.301	-72.127	0.952	17.511	0.952	17.511	0.301	-72.127
2601.982	0.3	-72.197	0.952	17.439	0.952	17.439	0.3	-72.197
2611.794	0.299	-72.267	0.953	17.367	0.953	17.367	0.299	-72.267
2621.606	0.297	-72.336	0.953	17.296	0.953	17.296	0.297	-72.336
2631.417	0.296	-72.405	0.953	17.226	0.953	17.226	0.296	-72.405
2641.229	0.295	-72.474	0.954	17.156	0.954	17.156	0.295	-72.474
2651.041	0.294	-72.542	0.954	17.086	0.954	17.086	0.294	-72.542
2660.852	0.293	-72.609	0.954	17.017	0.954	17.017	0.293	-72.609
2670.664	0.292	-72.676	0.955	16.948	0.955	16.948	0.292	-72.676
2680.476	0.29	-72.743	0.955	16.88	0.955	16.88	0.29	-72.743
2690.287	0.289	-72.81	0.955	16.812	0.955	16.812	0.289	-72.81
2700.099	0.288	-72.875	0.956	16.744	0.956	16.744	0.288	-72.875
2709.911	0.287	-72.941	0.956	16.677	0.956	16.677	0.287	-72.941
2719.722	0.286	-73.006	0.956	16.61	0.956	16.61	0.286	-73.006
2729.534	0.285	-73.071	0.957	16.544	0.957	16.544	0.285	-73.071
2739.346	0.284	-73.135	0.957	16.478	0.957	16.478	0.284	-73.135
2749.158	0.283	-73.199	0.957	16.413	0.957	16.413	0.283	-73.199
2758.969	0.281	-73.263	0.958	16.347	0.958	16.347	0.281	-73.263
2768.781	0.28	-73.326	0.958	16.283	0.958	16.283	0.28	-73.326
2778.593	0.279	-73.389	0.958	16.218	0.958	16.218	0.279	-73.389
2788.404	0.278	-73.451	0.959	16.154	0.959	16.154	0.278	-73.451
2798.216	0.277	-73.513	0.959	16.09	0.959	16.09	0.277	-73.513
2808.028	0.276	-73.575	0.959	16.027	0.959	16.027	0.276	-73.575
2817.839	0.275	-73.636	0.96	15.964	0.96	15.964	0.275	-73.636
2827.651	0.274	-73.697	0.96	15.902	0.96	15.902	0.274	-73.697
2837.463	0.273	-73.757	0.96	15.839	0.96	15.839	0.273	-73.757
2847.275	0.272	-73.818	0.96	15.778	0.96	15.778	0.272	-73.818
2857.086	0.271	-73.877	0.961	15.716	0.961	15.716	0.271	-73.877
2866.898	0.27	-73.937	0.961	15.655	0.961	15.655	0.27	-73.937
2876.71	0.269	-73.996	0.961	15.594	0.961	15.594	0.269	-73.996
2886.521	0.268	-74.055	0.962	15.534	0.962	15.534	0.268	-74.055
2896.333	0.267	-74.113	0.962	15.474	0.962	15.474	0.267	-74.113
2906.145	0.266	-74.171	0.962	15.414	0.962	15.414	0.266	-74.171
2915.956	0.265	-74.229	0.962	15.354	0.962	15.354	0.265	-74.229
2925.768	0.264	-74.286	0.963	15.295	0.963	15.295	0.264	-74.286
2935.58	0.263	-74.344	0.963	15.237	0.963	15.237	0.263	-74.344
2945.391	0.262	-74.4	0.963	15.178	0.963	15.178	0.262	-74.4
2955.203	0.261	-74.457	0.963	15.12	0.963	15.12	0.261	-74.457
2965.015	0.26	-74.513	0.964	15.062	0.964	15.062	0.26	-74.513
2974.827	0.259	-74.569	0.964	15.005	0.964	15.005	0.259	-74.569
2984.638	0.258	-74.624	0.964	14.947	0.964	14.947	0.258	-74.624
2994.45	0.257	-74.679	0.964	14.891	0.964	14.891	0.257	-74.679
3004.262	0.256	-74.734	0.965	14.834	0.965	14.834	0.256	-74.734
3014.073	0.255	-74.789	0.965	14.778	0.965	14.778	0.255	-74.789
3023.885	0.254	-74.843	0.965	14.722	0.965	14.722	0.254	-74.843
3033.697	0.253	-74.897	0.965	14.666	0.965	14.666	0.253	-74.897
3043.508	0.252	-74.95	0.966	14.611	0.966	14.611	0.252	-74.95
3053.32	0.251	-75.004	0.966	14.556	0.966	14.556	0.251	-75.004
3063.132	0.25	-75.057	0.966	14.501	0.966	14.501	0.25	-75.057
3072.944	0.249	-75.11	0.966	14.446	0.966	14.446	0.249	-75.11
3082.755	0.249	-75.162	0.967	14.392	0.967	14.392	0.249	-75.162
3092.567	0.248	-75.214	0.967	14.338	0.967	14.338	0.248	-75.214
3102.379	0.247	-75.266	0.967	14.285	0.967	14.285	0.247	-75.266
3112.19	0.246	-75.318	0.967	14.231	0.967	14.231	0.246	-75.318
3122.002	0.245	-75.369	0.968	14.178	0.968	14.178	0.245	-75.369
3131.814	0.244	-75.42	0.968	14.126	0.968	14.126	0.244	-75.42
3141.625	0.243	-75.471	0.968	14.073	0.968	14.073	0.243	-75.471
3151.437	0.242	-75.521	0.968	14.021	0.968	14.021	0.242	-75.521
3161.249	0.241	-75.571	0.968	13.969	0.968	13.969	0.241	-75.571
3171.06	0.241	-75.621	0.969	13.917	0.969	13.917	0.241	-75.621
3180.872	0.24	-75.671	0.969	13.866	0.969	13.866	0.24	-75.671
3190.684	0.239	-75.72	0.969	13.815	0.969	13.815	0.239	-75.72
3200.496	0.238	-75.769	0.969	13.764	0.969	13.764	0.238	-75.769
3210.307	0.237	-75.818	0.97	13.713	0.97	13.713	0.237	-75.818
3220.119	0.236	-75.867	0.97	13.663	0.97	13.663	0.236	-75.867
