! AVX Thin Film Operation		Date: April 2012 
! Description: Accu-P® Series, Thin Film, SMD, RF Capacitor
! Part Number: 12101J0R6PBTTR					
!	100	MHz	-	20.05	GHz			
!	Serial	Measurements						
!								
#	MHZ	S	MA	R	50			
!	S11	S21	S12	S22				
!	dB	Phase	dB	Phase	dB	Phase	dB	Phase
50 1 -1.08 0.019 88.917 0.019 88.917 1 -1.08
74.938 1 -1.618 0.028 88.377 0.028 88.377 1 -1.618
99.875 0.999 -2.157 0.038 87.837 0.038 87.837 0.999 -2.157
124.813 0.999 -2.695 0.047 87.297 0.047 87.297 0.999 -2.695
149.75 0.998 -3.233 0.056 86.757 0.056 86.757 0.998 -3.233
174.688 0.998 -3.771 0.066 86.218 0.066 86.218 0.998 -3.771
199.625 0.997 -4.308 0.075 85.679 0.075 85.679 0.997 -4.308
224.563 0.996 -4.845 0.084 85.14 0.084 85.14 0.996 -4.845
249.5 0.996 -5.382 0.094 84.602 0.094 84.602 0.996 -5.382
274.438 0.995 -5.918 0.103 84.064 0.103 84.064 0.995 -5.918
299.375 0.994 -6.454 0.112 83.527 0.112 83.527 0.994 -6.454
324.313 0.993 -6.989 0.122 82.99 0.122 82.99 0.993 -6.989
349.25 0.991 -7.523 0.131 82.454 0.131 82.454 0.991 -7.523
374.188 0.99 -8.057 0.14 81.918 0.14 81.918 0.99 -8.057
399.125 0.989 -8.59 0.149 81.383 0.149 81.383 0.989 -8.59
424.063 0.987 -9.123 0.159 80.849 0.159 80.849 0.987 -9.123
449 0.986 -9.655 0.168 80.315 0.168 80.315 0.986 -9.655
473.938 0.984 -10.186 0.177 79.783 0.177 79.783 0.984 -10.186
498.875 0.982 -10.716 0.186 79.251 0.186 79.251 0.982 -10.716
523.813 0.981 -11.246 0.195 78.72 0.195 78.72 0.981 -11.246
548.75 0.979 -11.774 0.204 78.19 0.204 78.19 0.979 -11.774
573.688 0.977 -12.301 0.213 77.66 0.213 77.66 0.977 -12.301
598.625 0.975 -12.828 0.222 77.132 0.222 77.132 0.975 -12.828
623.563 0.973 -13.354 0.231 76.605 0.231 76.605 0.973 -13.354
648.5 0.971 -13.878 0.24 76.079 0.24 76.079 0.971 -13.878
673.438 0.968 -14.401 0.249 75.554 0.249 75.554 0.968 -14.401
698.375 0.966 -14.923 0.258 75.03 0.258 75.03 0.966 -14.923
723.313 0.964 -15.445 0.266 74.507 0.266 74.507 0.964 -15.445
748.25 0.961 -15.964 0.275 73.986 0.275 73.986 0.961 -15.964
773.188 0.959 -16.483 0.284 73.465 0.284 73.465 0.959 -16.483
798.125 0.956 -17 0.292 72.946 0.292 72.946 0.956 -17
823.063 0.953 -17.516 0.301 72.429 0.301 72.429 0.953 -17.516
848 0.951 -18.031 0.31 71.912 0.31 71.912 0.951 -18.031
872.938 0.948 -18.544 0.318 71.397 0.318 71.397 0.948 -18.544
897.875 0.945 -19.056 0.326 70.884 0.326 70.884 0.945 -19.056
922.813 0.942 -19.567 0.335 70.371 0.335 70.371 0.942 -19.567
947.75 0.939 -20.076 0.343 69.861 0.343 69.861 0.939 -20.076
972.688 0.936 -20.583 0.352 69.351 0.352 69.351 0.936 -20.583
997.625 0.933 -21.089 0.36 68.843 0.36 68.843 0.933 -21.089
1022.563 0.929 -21.594 0.368 68.337 0.368 68.337 0.929 -21.594
1047.5 0.926 -22.097 0.376 67.833 0.376 67.833 0.926 -22.097
1072.438 0.923 -22.598 0.384 67.329 0.384 67.329 0.923 -22.598
1097.375 0.919 -23.098 0.392 66.828 0.392 66.828 0.919 -23.098
1122.313 0.916 -23.596 0.4 66.328 0.4 66.328 0.916 -23.596
1147.25 0.912 -24.092 0.408 65.83 0.408 65.83 0.912 -24.092
1172.188 0.909 -24.587 0.416 65.333 0.416 65.333 0.909 -24.587
1197.125 0.905 -25.08 0.424 64.839 0.424 64.839 0.905 -25.08
1222.063 0.901 -25.571 0.432 64.346 0.432 64.346 0.901 -25.571
1247 0.898 -26.06 0.439 63.854 0.439 63.854 0.898 -26.06
1271.938 0.894 -26.548 0.447 63.365 0.447 63.365 0.894 -26.548
1296.875 0.89 -27.034 0.455 62.877 0.455 62.877 0.89 -27.034
1321.813 0.886 -27.518 0.462 62.391 0.462 62.391 0.886 -27.518
1346.75 0.882 -28 0.469 61.907 0.469 61.907 0.882 -28
1371.688 0.878 -28.481 0.477 61.425 0.477 61.425 0.878 -28.481
1396.625 0.874 -28.959 0.484 60.944 0.484 60.944 0.874 -28.959
1421.563 0.87 -29.436 0.491 60.466 0.491 60.466 0.87 -29.436
1446.5 0.866 -29.911 0.499 59.989 0.499 59.989 0.866 -29.911
1471.438 0.862 -30.384 0.506 59.514 0.506 59.514 0.862 -30.384
1496.375 0.858 -30.854 0.513 59.041 0.513 59.041 0.858 -30.854
1521.313 0.853 -31.323 0.52 58.57 0.52 58.57 0.853 -31.323
1546.25 0.849 -31.79 0.527 58.101 0.527 58.101 0.849 -31.79
1571.188 0.845 -32.256 0.534 57.634 0.534 57.634 0.845 -32.256
1596.125 0.84 -32.719 0.541 57.169 0.541 57.169 0.84 -32.719
1621.063 0.836 -33.18 0.547 56.706 0.547 56.706 0.836 -33.18
1646 0.831 -33.639 0.554 56.245 0.554 56.245 0.831 -33.639
1670.938 0.827 -34.096 0.561 55.786 0.561 55.786 0.827 -34.096
1695.875 0.822 -34.551 0.567 55.329 0.567 55.329 0.822 -34.551
1720.813 0.818 -35.004 0.574 54.873 0.574 54.873 0.818 -35.004
1745.75 0.813 -35.455 0.58 54.42 0.58 54.42 0.813 -35.455
1770.688 0.809 -35.904 0.586 53.969 0.586 53.969 0.809 -35.904
1795.625 0.804 -36.351 0.593 53.52 0.593 53.52 0.804 -36.351
1820.563 0.799 -36.796 0.599 53.073 0.599 53.073 0.799 -36.796
1845.5 0.795 -37.239 0.605 52.628 0.605 52.628 0.795 -37.239
1870.438 0.79 -37.68 0.611 52.185 0.611 52.185 0.79 -37.68
1895.375 0.785 -38.119 0.617 51.744 0.617 51.744 0.785 -38.119
1920.313 0.78 -38.556 0.623 51.305 0.623 51.305 0.78 -38.556
1945.25 0.776 -38.991 0.629 50.868 0.629 50.868 0.776 -38.991
1970.188 0.771 -39.423 0.635 50.433 0.635 50.433 0.771 -39.423
1995.125 0.766 -39.854 0.641 50.001 0.641 50.001 0.766 -39.854
2020.063 0.761 -40.282 0.647 49.57 0.647 49.57 0.761 -40.282
2045 0.756 -40.709 0.652 49.141 0.652 49.141 0.756 -40.709
2069.938 0.751 -41.133 0.658 48.714 0.658 48.714 0.751 -41.133
2094.875 0.747 -41.555 0.663 48.29 0.663 48.29 0.747 -41.555
2119.813 0.742 -41.976 0.669 47.867 0.669 47.867 0.742 -41.976
2144.75 0.737 -42.394 0.674 47.447 0.674 47.447 0.737 -42.394
2169.688 0.732 -42.81 0.68 47.028 0.68 47.028 0.732 -42.81
2194.625 0.727 -43.224 0.685 46.612 0.685 46.612 0.727 -43.224
2219.563 0.722 -43.636 0.69 46.198 0.69 46.198 0.722 -43.636
2244.5 0.717 -44.046 0.695 45.785 0.695 45.785 0.717 -44.046
2269.438 0.712 -44.454 0.7 45.375 0.7 45.375 0.712 -44.454
2294.375 0.707 -44.859 0.705 44.967 0.705 44.967 0.707 -44.859
2319.313 0.702 -45.263 0.71 44.56 0.71 44.56 0.702 -45.263
2344.25 0.697 -45.665 0.715 44.156 0.715 44.156 0.697 -45.665
2369.188 0.692 -46.065 0.72 43.754 0.72 43.754 0.692 -46.065
2394.125 0.687 -46.462 0.725 43.354 0.725 43.354 0.687 -46.462
2419.063 0.681 -46.858 0.73 42.956 0.73 42.956 0.681 -46.858
2444 0.676 -47.251 0.734 42.559 0.734 42.559 0.676 -47.251
2468.938 0.671 -47.643 0.739 42.165 0.739 42.165 0.671 -47.643
2493.875 0.666 -48.032 0.744 41.773 0.744 41.773 0.666 -48.032
2518.813 0.661 -48.42 0.748 41.383 0.748 41.383 0.661 -48.42
2543.75 0.656 -48.805 0.752 40.995 0.752 40.995 0.656 -48.805
2568.688 0.651 -49.189 0.757 40.608 0.757 40.608 0.651 -49.189
2593.625 0.646 -49.57 0.761 40.224 0.761 40.224 0.646 -49.57
2618.563 0.641 -49.95 0.765 39.842 0.765 39.842 0.641 -49.95
2643.5 0.636 -50.327 0.77 39.462 0.77 39.462 0.636 -50.327
2668.438 0.63 -50.703 0.774 39.083 0.774 39.083 0.63 -50.703
2693.375 0.625 -51.077 0.778 38.707 0.778 38.707 0.625 -51.077
2718.313 0.62 -51.448 0.782 38.332 0.782 38.332 0.62 -51.448
2743.25 0.615 -51.818 0.786 37.959 0.786 37.959 0.615 -51.818
2768.188 0.61 -52.186 0.79 37.589 0.79 37.589 0.61 -52.186
2793.125 0.605 -52.551 0.794 37.22 0.794 37.22 0.605 -52.551
2818.063 0.6 -52.915 0.798 36.853 0.798 36.853 0.6 -52.915
2843 0.595 -53.277 0.802 36.488 0.802 36.488 0.595 -53.277
2867.938 0.59 -53.637 0.805 36.125 0.805 36.125 0.59 -53.637
2892.875 0.584 -53.995 0.809 35.764 0.809 35.764 0.584 -53.995
2917.813 0.579 -54.351 0.813 35.404 0.813 35.404 0.579 -54.351
2942.75 0.574 -54.706 0.816 35.047 0.816 35.047 0.574 -54.706
2967.688 0.569 -55.058 0.82 34.691 0.82 34.691 0.569 -55.058
2992.625 0.564 -55.409 0.823 34.337 0.823 34.337 0.564 -55.409
3017.563 0.559 -55.757 0.827 33.985 0.827 33.985 0.559 -55.757
3042.5 0.554 -56.104 0.83 33.635 0.83 33.635 0.554 -56.104
3067.438 0.549 -56.449 0.833 33.286 0.833 33.286 0.549 -56.449
3092.375 0.544 -56.792 0.837 32.94 0.837 32.94 0.544 -56.792
3117.313 0.539 -57.134 0.84 32.595 0.84 32.595 0.539 -57.134
3142.25 0.534 -57.473 0.843 32.252 0.843 32.252 0.534 -57.473
3167.188 0.529 -57.811 0.846 31.91 0.846 31.91 0.529 -57.811
3192.125 0.524 -58.147 0.849 31.571 0.849 31.571 0.524 -58.147
3217.063 0.519 -58.481 0.852 31.233 0.852 31.233 0.519 -58.481
3242 0.514 -58.813 0.855 30.897 0.855 30.897 0.514 -58.813
3266.938 0.508 -59.143 0.858 30.563 0.858 30.563 0.508 -59.143
3291.875 0.503 -59.472 0.861 30.23 0.861 30.23 0.503 -59.472
3316.813 0.498 -59.799 0.864 29.899 0.864 29.899 0.498 -59.799
3341.75 0.493 -60.124 0.867 29.57 0.867 29.57 0.493 -60.124
3366.688 0.489 -60.448 0.87 29.242 0.87 29.242 0.489 -60.448
3391.625 0.484 -60.769 0.873 28.916 0.873 28.916 0.484 -60.769
3416.563 0.479 -61.089 0.875 28.592 0.875 28.592 0.479 -61.089
3441.5 0.474 -61.408 0.878 28.269 0.878 28.269 0.474 -61.408
3466.438 0.469 -61.724 0.881 27.948 0.881 27.948 0.469 -61.724
3491.375 0.464 -62.039 0.883 27.629 0.883 27.629 0.464 -62.039
3516.313 0.459 -62.352 0.886 27.311 0.886 27.311 0.459 -62.352
3541.25 0.454 -62.664 0.888 26.995 0.888 26.995 0.454 -62.664
3566.188 0.449 -62.973 0.891 26.681 0.891 26.681 0.449 -62.973
3591.125 0.444 -63.281 0.893 26.368 0.893 26.368 0.444 -63.281
3616.063 0.439 -63.588 0.896 26.057 0.896 26.057 0.439 -63.588
3641 0.434 -63.893 0.898 25.747 0.898 25.747 0.434 -63.893
3665.938 0.43 -64.196 0.9 25.439 0.9 25.439 0.43 -64.196
3690.875 0.425 -64.497 0.903 25.132 0.903 25.132 0.425 -64.497
3715.813 0.42 -64.797 0.905 24.827 0.905 24.827 0.42 -64.797
3740.75 0.415 -65.096 0.907 24.524 0.907 24.524 0.415 -65.096
3765.688 0.41 -65.392 0.909 24.222 0.909 24.222 0.41 -65.392
3790.625 0.405 -65.687 0.911 23.921 0.911 23.921 0.405 -65.687
3815.563 0.401 -65.981 0.913 23.622 0.913 23.622 0.401 -65.981
3840.5 0.396 -66.272 0.915 23.325 0.915 23.325 0.396 -66.272
3865.438 0.391 -66.563 0.918 23.029 0.918 23.029 0.391 -66.563
3890.375 0.386 -66.851 0.92 22.734 0.92 22.734 0.386 -66.851
3915.313 0.382 -67.138 0.921 22.441 0.921 22.441 0.382 -67.138
3940.25 0.377 -67.424 0.923 22.149 0.923 22.149 0.377 -67.424
3965.188 0.372 -67.708 0.925 21.859 0.925 21.859 0.372 -67.708
3990.125 0.368 -67.99 0.927 21.57 0.927 21.57 0.368 -67.99
4015.063 0.363 -68.271 0.929 21.283 0.929 21.283 0.363 -68.271
4040 0.358 -68.55 0.931 20.997 0.931 20.997 0.358 -68.55
4064.938 0.354 -68.828 0.933 20.712 0.933 20.712 0.354 -68.828
4089.875 0.349 -69.104 0.934 20.429 0.934 20.429 0.349 -69.104
4114.813 0.344 -69.379 0.936 20.147 0.936 20.147 0.344 -69.379
4139.75 0.34 -69.652 0.938 19.867 0.938 19.867 0.34 -69.652
4164.688 0.335 -69.924 0.939 19.588 0.939 19.588 0.335 -69.924
4189.625 0.331 -70.194 0.941 19.31 0.941 19.31 0.331 -70.194
4214.563 0.326 -70.463 0.942 19.034 0.942 19.034 0.326 -70.463
4239.5 0.322 -70.73 0.944 18.759 0.944 18.759 0.322 -70.73
4264.438 0.317 -70.995 0.946 18.485 0.946 18.485 0.317 -70.995
4289.375 0.313 -71.259 0.947 18.213 0.947 18.213 0.313 -71.259
4314.313 0.308 -71.522 0.948 17.942 0.948 17.942 0.308 -71.522
4339.25 0.304 -71.783 0.95 17.672 0.95 17.672 0.304 -71.783
4364.188 0.299 -72.042 0.951 17.404 0.951 17.404 0.299 -72.042
4389.125 0.295 -72.3 0.953 17.136 0.953 17.136 0.295 -72.3
4414.063 0.29 -72.557 0.954 16.87 0.954 16.87 0.29 -72.557
4439 0.286 -72.812 0.955 16.606 0.955 16.606 0.286 -72.812
4463.938 0.281 -73.065 0.957 16.342 0.957 16.342 0.281 -73.065
4488.875 0.277 -73.317 0.958 16.08 0.958 16.08 0.277 -73.317
4513.813 0.273 -73.568 0.959 15.819 0.959 15.819 0.273 -73.568
4538.75 0.268 -73.817 0.96 15.559 0.96 15.559 0.268 -73.817
4563.688 0.264 -74.064 0.962 15.301 0.962 15.301 0.264 -74.064
4588.625 0.26 -74.31 0.963 15.044 0.963 15.044 0.26 -74.31
4613.563 0.255 -74.554 0.964 14.788 0.964 14.788 0.255 -74.554
4638.5 0.251 -74.797 0.965 14.533 0.965 14.533 0.251 -74.797
4663.438 0.247 -75.039 0.966 14.279 0.966 14.279 0.247 -75.039
4688.375 0.242 -75.278 0.967 14.026 0.967 14.026 0.242 -75.278
4713.313 0.238 -75.516 0.968 13.775 0.968 13.775 0.238 -75.516
4738.25 0.234 -75.753 0.969 13.525 0.969 13.525 0.234 -75.753
4763.188 0.23 -75.988 0.97 13.276 0.97 13.276 0.23 -75.988
4788.125 0.225 -76.221 0.971 13.028 0.971 13.028 0.225 -76.221
4813.063 0.221 -76.453 0.972 12.781 0.972 12.781 0.221 -76.453
4838 0.217 -76.683 0.973 12.536 0.973 12.536 0.217 -76.683
4862.938 0.213 -76.912 0.974 12.291 0.974 12.291 0.213 -76.912
4887.875 0.209 -77.139 0.975 12.048 0.975 12.048 0.209 -77.139
4912.813 0.205 -77.364 0.976 11.805 0.976 11.805 0.205 -77.364
4937.75 0.2 -77.587 0.977 11.564 0.977 11.564 0.2 -77.587
4962.688 0.196 -77.809 0.978 11.324 0.978 11.324 0.196 -77.809
4987.625 0.192 -78.029 0.978 11.085 0.978 11.085 0.192 -78.029
5012.563 0.188 -78.247 0.979 10.847 0.979 10.847 0.188 -78.247
5037.5 0.184 -78.463 0.98 10.61 0.98 10.61 0.184 -78.463
5062.438 0.18 -78.677 0.981 10.374 0.981 10.374 0.18 -78.677
5087.375 0.176 -78.889 0.981 10.139 0.981 10.139 0.176 -78.889
5112.313 0.172 -79.1 0.982 9.906 0.982 9.906 0.172 -79.1
5137.25 0.168 -79.308 0.983 9.673 0.983 9.673 0.168 -79.308
5162.188 0.164 -79.514 0.983 9.441 0.983 9.441 0.164 -79.514
5187.125 0.16 -79.718 0.984 9.211 0.984 9.211 0.16 -79.718
5212.063 0.156 -79.92 0.985 8.981 0.985 8.981 0.156 -79.92
5237 0.152 -80.12 0.985 8.752 0.985 8.752 0.152 -80.12
5261.938 0.148 -80.317 0.986 8.525 0.986 8.525 0.148 -80.317
5286.875 0.144 -80.511 0.987 8.298 0.987 8.298 0.144 -80.511
5311.813 0.14 -80.703 0.987 8.072 0.987 8.072 0.14 -80.703
5336.75 0.137 -80.892 0.988 7.848 0.988 7.848 0.137 -80.892
5361.688 0.133 -81.079 0.988 7.624 0.988 7.624 0.133 -81.079
5386.625 0.129 -81.262 0.989 7.401 0.989 7.401 0.129 -81.262
5411.563 0.125 -81.442 0.989 7.18 0.989 7.18 0.125 -81.442
5436.5 0.121 -81.618 0.99 6.959 0.99 6.959 0.121 -81.618
5461.438 0.117 -81.791 0.99 6.739 0.99 6.739 0.117 -81.791
5486.375 0.114 -81.961 0.991 6.52 0.991 6.52 0.114 -81.961
5511.313 0.11 -82.126 0.991 6.302 0.991 6.302 0.11 -82.126
5536.25 0.106 -82.286 0.991 6.085 0.991 6.085 0.106 -82.286
5561.188 0.102 -82.442 0.992 5.869 0.992 5.869 0.102 -82.442
5586.125 0.099 -82.592 0.992 5.654 0.992 5.654 0.099 -82.592
5611.063 0.095 -82.737 0.992 5.439 0.992 5.439 0.095 -82.737
5636 0.091 -82.876 0.993 5.226 0.993 5.226 0.091 -82.876
5660.938 0.087 -83.007 0.993 5.013 0.993 5.013 0.087 -83.007
5685.875 0.084 -83.131 0.993 4.802 0.993 4.802 0.084 -83.131
5710.813 0.08 -83.247 0.994 4.591 0.994 4.591 0.08 -83.247
5735.75 0.076 -83.353 0.994 4.381 0.994 4.381 0.076 -83.353
5760.688 0.073 -83.448 0.994 4.172 0.994 4.172 0.073 -83.448
5785.625 0.069 -83.531 0.995 3.964 0.995 3.964 0.069 -83.531
5810.563 0.066 -83.6 0.995 3.757 0.995 3.757 0.066 -83.6
5835.5 0.062 -83.652 0.995 3.551 0.995 3.551 0.062 -83.652
5860.438 0.058 -83.686 0.995 3.345 0.995 3.345 0.058 -83.686
5885.375 0.055 -83.697 0.995 3.14 0.995 3.14 0.055 -83.697
5910.313 0.051 -83.681 0.996 2.937 0.996 2.937 0.051 -83.681
5935.25 0.048 -83.633 0.996 2.734 0.996 2.734 0.048 -83.633
5960.188 0.044 -83.546 0.996 2.532 0.996 2.532 0.044 -83.546
5985.125 0.041 -83.409 0.996 2.33 0.996 2.33 0.041 -83.409
6010.063 0.037 -83.21 0.996 2.13 0.996 2.13 0.037 -83.21
6035 0.034 -82.929 0.996 1.93 0.996 1.93 0.034 -82.929
6059.938 0.03 -82.541 0.997 1.731 0.997 1.731 0.03 -82.541
6084.875 0.027 -82.004 0.997 1.533 0.997 1.533 0.027 -82.004
6109.813 0.024 -81.256 0.997 1.336 0.997 1.336 0.024 -81.256
6134.75 0.02 -80.193 0.997 1.139 0.997 1.139 0.02 -80.193
6159.688 0.017 -78.626 0.997 0.944 0.997 0.944 0.017 -78.626
6184.625 0.013 -76.189 0.997 0.749 0.997 0.749 0.013 -76.189
6209.563 0.01 -72.053 0.997 0.555 0.997 0.555 0.01 -72.053
6234.5 6.994e-3 -63.953 0.997 0.361 0.997 0.361 6.994e-3 -63.953
6259.438 4.224e-3 -43.97 0.997 0.169 0.997 0.169 4.224e-3 -43.97
6284.375 3.059e-3 7.607 0.997 -0.023 0.997 -0.023 3.059e-3 7.607
6309.313 4.815e-3 50.764 0.997 -0.214 0.997 -0.214 4.815e-3 50.764
6334.25 7.685e-3 66.364 0.997 -0.405 0.997 -0.405 7.685e-3 66.364
6359.188 0.011 73.111 0.997 -0.594 0.997 -0.594 0.011 73.111
6384.125 0.014 76.71 0.997 -0.783 0.997 -0.783 0.014 76.71
6409.063 0.017 78.889 0.997 -0.971 0.997 -0.971 0.017 78.889
6434 0.02 80.315 0.997 -1.158 0.997 -1.158 0.02 80.315
6458.938 0.024 81.298 0.997 -1.345 0.997 -1.345 0.024 81.298
6483.875 0.027 81.997 0.997 -1.531 0.997 -1.531 0.027 81.997
6508.813 0.03 82.506 0.997 -1.716 0.997 -1.716 0.03 82.506
6533.75 0.033 82.879 0.996 -1.9 0.996 -1.9 0.033 82.879
6558.688 0.036 83.154 0.996 -2.084 0.996 -2.084 0.036 83.154
6583.625 0.04 83.354 0.996 -2.267 0.996 -2.267 0.04 83.354
6608.563 0.043 83.497 0.996 -2.45 0.996 -2.45 0.043 83.497
6633.5 0.046 83.595 0.996 -2.631 0.996 -2.631 0.046 83.595
6658.438 0.049 83.656 0.996 -2.812 0.996 -2.812 0.049 83.656
6683.375 0.052 83.688 0.996 -2.992 0.996 -2.992 0.052 83.688
6708.313 0.055 83.697 0.995 -3.172 0.995 -3.172 0.055 83.697
6733.25 0.059 83.685 0.995 -3.351 0.995 -3.351 0.059 83.685
6758.188 0.062 83.657 0.995 -3.529 0.995 -3.529 0.062 83.657
6783.125 0.065 83.614 0.995 -3.706 0.995 -3.706 0.065 83.614
6808.063 0.068 83.56 0.995 -3.883 0.995 -3.883 0.068 83.56
6833 0.071 83.495 0.994 -4.059 0.994 -4.059 0.071 83.495
6857.938 0.074 83.421 0.994 -4.235 0.994 -4.235 0.074 83.421
6882.875 0.077 83.339 0.994 -4.41 0.994 -4.41 0.077 83.339
6907.813 0.08 83.251 0.994 -4.584 0.994 -4.584 0.08 83.251
6932.75 0.083 83.156 0.994 -4.757 0.994 -4.757 0.083 83.156
6957.688 0.086 83.057 0.993 -4.93 0.993 -4.93 0.086 83.057
6982.625 0.089 82.953 0.993 -5.102 0.993 -5.102 0.089 82.953
7007.563 0.092 82.845 0.993 -5.274 0.993 -5.274 0.092 82.845
7032.5 0.095 82.733 0.992 -5.445 0.992 -5.445 0.095 82.733
7057.438 0.098 82.619 0.992 -5.615 0.992 -5.615 0.098 82.619
7082.375 0.101 82.501 0.992 -5.785 0.992 -5.785 0.101 82.501
7107.313 0.104 82.381 0.992 -5.954 0.992 -5.954 0.104 82.381
7132.25 0.107 82.259 0.991 -6.122 0.991 -6.122 0.107 82.259
7157.188 0.11 82.134 0.991 -6.29 0.991 -6.29 0.11 82.134
7182.125 0.113 82.008 0.991 -6.457 0.991 -6.457 0.113 82.008
7207.063 0.115 81.881 0.99 -6.624 0.99 -6.624 0.115 81.881
7232 0.118 81.752 0.99 -6.79 0.99 -6.79 0.118 81.752
7256.938 0.121 81.621 0.99 -6.955 0.99 -6.955 0.121 81.621
7281.875 0.124 81.49 0.989 -7.12 0.989 -7.12 0.124 81.49
7306.813 0.127 81.357 0.989 -7.284 0.989 -7.284 0.127 81.357
7331.75 0.13 81.224 0.989 -7.448 0.989 -7.448 0.13 81.224
7356.688 0.132 81.09 0.988 -7.611 0.988 -7.611 0.132 81.09
7381.625 0.135 80.955 0.988 -7.773 0.988 -7.773 0.135 80.955
7406.563 0.138 80.819 0.987 -7.935 0.987 -7.935 0.138 80.819
7431.5 0.141 80.683 0.987 -8.096 0.987 -8.096 0.141 80.683
7456.438 0.144 80.547 0.987 -8.257 0.987 -8.257 0.144 80.547
7481.375 0.146 80.41 0.986 -8.417 0.986 -8.417 0.146 80.41
7506.313 0.149 80.272 0.986 -8.576 0.986 -8.576 0.149 80.272
7531.25 0.152 80.135 0.985 -8.735 0.985 -8.735 0.152 80.135
7556.188 0.155 79.997 0.985 -8.893 0.985 -8.893 0.155 79.997
7581.125 0.157 79.858 0.985 -9.051 0.985 -9.051 0.157 79.858
7606.063 0.16 79.72 0.984 -9.209 0.984 -9.209 0.16 79.72
7631 0.163 79.582 0.984 -9.365 0.984 -9.365 0.163 79.582
7655.938 0.165 79.443 0.983 -9.521 0.983 -9.521 0.165 79.443
7680.875 0.168 79.305 0.983 -9.677 0.983 -9.677 0.168 79.305
7705.813 0.171 79.166 0.982 -9.832 0.982 -9.832 0.171 79.166
7730.75 0.173 79.027 0.982 -9.986 0.982 -9.986 0.173 79.027
7755.688 0.176 78.889 0.981 -10.14 0.981 -10.14 0.176 78.889
7780.625 0.179 78.75 0.981 -10.294 0.981 -10.294 0.179 78.75
7805.563 0.181 78.611 0.98 -10.447 0.98 -10.447 0.181 78.611
7830.5 0.184 78.473 0.98 -10.599 0.98 -10.599 0.184 78.473
7855.438 0.187 78.334 0.979 -10.751 0.979 -10.751 0.187 78.334
7880.375 0.189 78.196 0.979 -10.902 0.979 -10.902 0.189 78.196
7905.313 0.192 78.058 0.978 -11.053 0.978 -11.053 0.192 78.058
7930.25 0.194 77.92 0.978 -11.203 0.978 -11.203 0.194 77.92
7955.188 0.197 77.782 0.977 -11.353 0.977 -11.353 0.197 77.782
7980.125 0.199 77.645 0.977 -11.502 0.977 -11.502 0.199 77.645
8005.063 0.202 77.507 0.976 -11.651 0.976 -11.651 0.202 77.507
8030 0.204 77.37 0.976 -11.799 0.976 -11.799 0.204 77.37
8054.938 0.207 77.233 0.975 -11.946 0.975 -11.946 0.207 77.233
8079.875 0.21 77.096 0.975 -12.094 0.975 -12.094 0.21 77.096
8104.813 0.212 76.959 0.974 -12.24 0.974 -12.24 0.212 76.959
