! AVX Thin Film Operation		Date: April 2012 
! Description: Accu-P® Series, Thin Film, SMD, RF Capacitor
! Part Number: 12101J110FBTTR					
!	100	MHz	-	10.05	GHz			
!	Serial	Measurements						
!								
#	MHZ	S	MA	R	50			
!	S11	S21	S12	S22				
!	dB	Phase	dB	Phase	dB	Phase	dB	Phase
100	0.821	-34.753	0.57	55.211	0.57	55.211	0.821	-34.753
109.812	0.795	-37.325	0.606	52.636	0.606	52.636	0.795	-37.325
119.623	0.769	-39.737	0.639	50.22	0.639	50.22	0.769	-39.737
129.435	0.743	-41.998	0.669	47.955	0.669	47.955	0.743	-41.998
139.247	0.717	-44.115	0.696	45.835	0.696	45.835	0.717	-44.115
149.058	0.693	-46.097	0.721	43.85	0.721	43.85	0.693	-46.097
158.87	0.669	-47.951	0.743	41.992	0.743	41.992	0.669	-47.951
168.682	0.646	-49.688	0.763	40.252	0.763	40.252	0.646	-49.688
178.494	0.624	-51.314	0.781	38.621	0.781	38.621	0.624	-51.314
188.305	0.603	-52.839	0.797	37.093	0.797	37.093	0.603	-52.839
198.117	0.583	-54.27	0.812	35.659	0.812	35.659	0.583	-54.27
207.929	0.564	-55.613	0.825	34.311	0.825	34.311	0.564	-55.613
217.74	0.545	-56.876	0.837	33.044	0.837	33.044	0.545	-56.876
227.552	0.528	-58.065	0.849	31.852	0.849	31.852	0.528	-58.065
237.364	0.511	-59.185	0.859	30.728	0.859	30.728	0.511	-59.185
247.175	0.495	-60.242	0.868	29.668	0.868	29.668	0.495	-60.242
256.987	0.48	-61.24	0.877	28.666	0.877	28.666	0.48	-61.24
266.799	0.465	-62.183	0.884	27.718	0.884	27.718	0.465	-62.183
276.611	0.451	-63.077	0.892	26.821	0.892	26.821	0.451	-63.077
286.422	0.438	-63.924	0.898	25.97	0.898	25.97	0.438	-63.924
296.234	0.425	-64.727	0.904	25.163	0.904	25.163	0.425	-64.727
306.046	0.413	-65.491	0.91	24.396	0.91	24.396	0.413	-65.491
315.857	0.401	-66.217	0.915	23.666	0.915	23.666	0.401	-66.217
325.669	0.39	-66.908	0.92	22.97	0.92	22.97	0.39	-66.908
335.481	0.38	-67.567	0.924	22.307	0.924	22.307	0.38	-67.567
345.292	0.369	-68.196	0.928	21.674	0.928	21.674	0.369	-68.196
355.104	0.36	-68.797	0.932	21.07	0.932	21.07	0.36	-68.797
364.916	0.35	-69.371	0.936	20.491	0.936	20.491	0.35	-69.371
374.727	0.341	-69.92	0.939	19.938	0.939	19.938	0.341	-69.92
384.539	0.332	-70.447	0.942	19.407	0.942	19.407	0.332	-70.447
394.351	0.324	-70.952	0.945	18.898	0.945	18.898	0.324	-70.952
404.163	0.316	-71.436	0.948	18.409	0.948	18.409	0.316	-71.436
413.974	0.308	-71.901	0.951	17.939	0.951	17.939	0.308	-71.901
423.786	0.301	-72.349	0.953	17.488	0.953	17.488	0.301	-72.349
433.598	0.293	-72.779	0.955	17.053	0.955	17.053	0.293	-72.779
443.409	0.286	-73.193	0.957	16.634	0.957	16.634	0.286	-73.193
453.221	0.28	-73.593	0.959	16.23	0.959	16.23	0.28	-73.593
463.033	0.273	-73.978	0.961	15.841	0.961	15.841	0.273	-73.978
472.844	0.267	-74.349	0.963	15.465	0.963	15.465	0.267	-74.349
482.656	0.261	-74.708	0.965	15.101	0.965	15.101	0.261	-74.708
492.468	0.255	-75.055	0.966	14.75	0.966	14.75	0.255	-75.055
502.279	0.249	-75.39	0.968	14.41	0.968	14.41	0.249	-75.39
512.091	0.243	-75.714	0.969	14.08	0.969	14.08	0.243	-75.714
521.903	0.238	-76.028	0.97	13.761	0.97	13.761	0.238	-76.028
531.715	0.233	-76.332	0.972	13.452	0.972	13.452	0.233	-76.332
541.526	0.228	-76.627	0.973	13.152	0.973	13.152	0.228	-76.627
551.338	0.223	-76.913	0.974	12.861	0.974	12.861	0.223	-76.913
561.15	0.218	-77.191	0.975	12.578	0.975	12.578	0.218	-77.191
570.961	0.213	-77.46	0.976	12.303	0.976	12.303	0.213	-77.46
580.773	0.209	-77.722	0.977	12.036	0.977	12.036	0.209	-77.722
590.585	0.204	-77.977	0.978	11.776	0.978	11.776	0.204	-77.977
600.396	0.2	-78.224	0.979	11.523	0.979	11.523	0.2	-78.224
610.208	0.196	-78.465	0.98	11.277	0.98	11.277	0.196	-78.465
620.02	0.191	-78.699	0.981	11.037	0.981	11.037	0.191	-78.699
629.832	0.187	-78.927	0.981	10.803	0.981	10.803	0.187	-78.927
639.643	0.184	-79.149	0.982	10.575	0.982	10.575	0.184	-79.149
649.455	0.18	-79.366	0.983	10.352	0.983	10.352	0.18	-79.366
659.267	0.176	-79.577	0.984	10.135	0.984	10.135	0.176	-79.577
669.078	0.172	-79.783	0.984	9.923	0.984	9.923	0.172	-79.783
678.89	0.169	-79.983	0.985	9.716	0.985	9.716	0.169	-79.983
688.702	0.165	-80.179	0.985	9.513	0.985	9.513	0.165	-80.179
698.513	0.162	-80.371	0.986	9.315	0.986	9.315	0.162	-80.371
708.325	0.159	-80.558	0.986	9.121	0.986	9.121	0.159	-80.558
718.137	0.155	-80.74	0.987	8.932	0.987	8.932	0.155	-80.74
727.948	0.152	-80.919	0.987	8.746	0.987	8.746	0.152	-80.919
737.76	0.149	-81.093	0.988	8.565	0.988	8.565	0.149	-81.093
747.572	0.146	-81.264	0.988	8.387	0.988	8.387	0.146	-81.264
757.384	0.143	-81.431	0.989	8.212	0.989	8.212	0.143	-81.431
767.195	0.14	-81.594	0.989	8.041	0.989	8.041	0.14	-81.594
777.007	0.137	-81.754	0.99	7.874	0.99	7.874	0.137	-81.754
786.819	0.134	-81.91	0.99	7.709	0.99	7.709	0.134	-81.91
796.63	0.131	-82.063	0.99	7.548	0.99	7.548	0.131	-82.063
806.442	0.129	-82.213	0.991	7.39	0.991	7.39	0.129	-82.213
816.254	0.126	-82.36	0.991	7.234	0.991	7.234	0.126	-82.36
826.065	0.123	-82.504	0.991	7.082	0.991	7.082	0.123	-82.504
835.877	0.121	-82.644	0.992	6.932	0.992	6.932	0.121	-82.644
845.689	0.118	-82.783	0.992	6.784	0.992	6.784	0.118	-82.783
855.5	0.116	-82.918	0.992	6.639	0.992	6.639	0.116	-82.918
865.312	0.113	-83.05	0.993	6.497	0.993	6.497	0.113	-83.05
875.124	0.111	-83.181	0.993	6.357	0.993	6.357	0.111	-83.181
884.936	0.108	-83.308	0.993	6.219	0.993	6.219	0.108	-83.308
894.747	0.106	-83.433	0.993	6.084	0.993	6.084	0.106	-83.433
904.559	0.104	-83.556	0.994	5.95	0.994	5.95	0.104	-83.556
914.371	0.101	-83.676	0.994	5.819	0.994	5.819	0.101	-83.676
924.182	0.099	-83.793	0.994	5.689	0.994	5.689	0.099	-83.793
933.994	0.097	-83.909	0.994	5.562	0.994	5.562	0.097	-83.909
943.806	0.095	-84.022	0.995	5.436	0.995	5.436	0.095	-84.022
953.617	0.093	-84.133	0.995	5.312	0.995	5.312	0.093	-84.133
963.429	0.09	-84.242	0.995	5.191	0.995	5.191	0.09	-84.242
973.241	0.088	-84.349	0.995	5.07	0.995	5.07	0.088	-84.349
983.053	0.086	-84.454	0.995	4.952	0.995	4.952	0.086	-84.454
992.864	0.084	-84.556	0.996	4.835	0.996	4.835	0.084	-84.556
1002.676	0.082	-84.656	0.996	4.719	0.996	4.719	0.082	-84.656
1012.488	0.08	-84.755	0.996	4.606	0.996	4.606	0.08	-84.755
1022.299	0.078	-84.851	0.996	4.493	0.996	4.493	0.078	-84.851
1032.111	0.076	-84.945	0.996	4.382	0.996	4.382	0.076	-84.945
1041.923	0.075	-85.037	0.996	4.273	0.996	4.273	0.075	-85.037
1051.734	0.073	-85.128	0.996	4.165	0.996	4.165	0.073	-85.128
1061.546	0.071	-85.216	0.997	4.058	0.997	4.058	0.071	-85.216
1071.358	0.069	-85.302	0.997	3.952	0.997	3.952	0.069	-85.302
1081.169	0.067	-85.386	0.997	3.848	0.997	3.848	0.067	-85.386
1090.981	0.065	-85.468	0.997	3.745	0.997	3.745	0.065	-85.468
1100.793	0.064	-85.547	0.997	3.643	0.997	3.643	0.064	-85.547
1110.605	0.062	-85.625	0.997	3.543	0.997	3.543	0.062	-85.625
1120.416	0.06	-85.7	0.997	3.443	0.997	3.443	0.06	-85.7
1130.228	0.058	-85.773	0.997	3.345	0.997	3.345	0.058	-85.773
1140.04	0.057	-85.844	0.997	3.248	0.997	3.248	0.057	-85.844
1149.851	0.055	-85.913	0.998	3.151	0.998	3.151	0.055	-85.913
1159.663	0.053	-85.979	0.998	3.056	0.998	3.056	0.053	-85.979
1169.475	0.052	-86.042	0.998	2.962	0.998	2.962	0.052	-86.042
1179.286	0.05	-86.103	0.998	2.869	0.998	2.869	0.05	-86.103
1189.098	0.048	-86.161	0.998	2.777	0.998	2.777	0.048	-86.161
1198.91	0.047	-86.216	0.998	2.685	0.998	2.685	0.047	-86.216
1208.722	0.045	-86.268	0.998	2.595	0.998	2.595	0.045	-86.268
1218.533	0.044	-86.317	0.998	2.505	0.998	2.505	0.044	-86.317
1228.345	0.042	-86.363	0.998	2.417	0.998	2.417	0.042	-86.363
1238.157	0.041	-86.404	0.998	2.329	0.998	2.329	0.041	-86.404
1247.968	0.039	-86.442	0.998	2.242	0.998	2.242	0.039	-86.442
1257.78	0.038	-86.476	0.998	2.156	0.998	2.156	0.038	-86.476
1267.592	0.036	-86.505	0.998	2.07	0.998	2.07	0.036	-86.505
1277.403	0.035	-86.528	0.999	1.985	0.999	1.985	0.035	-86.528
1287.215	0.033	-86.547	0.999	1.902	0.999	1.902	0.033	-86.547
1297.027	0.032	-86.559	0.999	1.818	0.999	1.818	0.032	-86.559
1306.838	0.03	-86.564	0.999	1.736	0.999	1.736	0.03	-86.564
1316.65	0.029	-86.562	0.999	1.654	0.999	1.654	0.029	-86.562
1326.462	0.027	-86.551	0.999	1.573	0.999	1.573	0.027	-86.551
1336.274	0.026	-86.531	0.999	1.493	0.999	1.493	0.026	-86.531
1346.085	0.025	-86.499	0.999	1.413	0.999	1.413	0.025	-86.499
1355.897	0.023	-86.454	0.999	1.334	0.999	1.334	0.023	-86.454
1365.709	0.022	-86.395	0.999	1.256	0.999	1.256	0.022	-86.395
1375.52	0.021	-86.318	0.999	1.178	0.999	1.178	0.021	-86.318
1385.332	0.019	-86.22	0.999	1.101	0.999	1.101	0.019	-86.22
1395.144	0.018	-86.096	0.999	1.024	0.999	1.024	0.018	-86.096
1404.955	0.017	-85.942	0.999	0.948	0.999	0.948	0.017	-85.942
1414.767	0.015	-85.749	0.999	0.873	0.999	0.873	0.015	-85.749
1424.579	0.014	-85.508	0.999	0.798	0.999	0.798	0.014	-85.508
1434.39	0.013	-85.205	0.999	0.724	0.999	0.724	0.013	-85.205
1444.202	0.011	-84.818	0.999	0.65	0.999	0.65	0.011	-84.818
1454.014	0.01	-84.319	0.999	0.577	0.999	0.577	0.01	-84.319
1463.826	8.85E-03	-83.66	0.999	0.504	0.999	0.504	8.85E-03	-83.66
1473.637	7.59E-03	-82.765	0.999	0.432	0.999	0.432	7.59E-03	-82.765
1483.449	6.35E-03	-81.499	0.999	0.36	0.999	0.36	6.35E-03	-81.499
1493.261	5.12E-03	-79.602	0.999	0.289	0.999	0.289	5.12E-03	-79.602
1503.072	3.91E-03	-76.498	0.999	0.218	0.999	0.218	3.91E-03	-76.498
1512.884	2.74E-03	-70.653	0.999	0.148	0.999	0.148	2.74E-03	-70.653
1522.696	1.63E-03	-56.525	0.999	0.078	0.999	0.078	1.63E-03	-56.525
1532.507	9.12E-04	-9.671	0.999	8.79E-03	0.999	8.79E-03	9.12E-04	-9.671
1542.319	1.38E-03	49.347	0.999	-0.06	0.999	-0.06	1.38E-03	49.347
1552.131	2.42E-03	68.04	0.999	-0.129	0.999	-0.129	2.42E-03	68.04
1561.943	3.55E-03	75.123	0.999	-0.197	0.999	-0.197	3.55E-03	75.123
1571.754	4.70E-03	78.705	0.999	-0.264	0.999	-0.264	4.70E-03	78.705
1581.566	5.86E-03	80.835	0.999	-0.332	0.999	-0.332	5.86E-03	80.835
1591.378	7.01E-03	82.232	0.999	-0.398	0.999	-0.398	7.01E-03	82.232
1601.189	8.16E-03	83.21	0.999	-0.465	0.999	-0.465	8.16E-03	83.21
1611.001	9.31E-03	83.925	0.999	-0.531	0.999	-0.531	9.31E-03	83.925
1620.813	0.01	84.467	0.999	-0.597	0.999	-0.597	0.01	84.467
1630.624	0.012	84.886	0.999	-0.662	0.999	-0.662	0.012	84.886
1640.436	0.013	85.218	0.999	-0.727	0.999	-0.727	0.013	85.218
1650.248	0.014	85.483	0.999	-0.791	0.999	-0.791	0.014	85.483
1660.059	0.015	85.698	0.999	-0.855	0.999	-0.855	0.015	85.698
1669.871	0.016	85.873	0.999	-0.919	0.999	-0.919	0.016	85.873
1679.683	0.017	86.016	0.999	-0.983	0.999	-0.983	0.017	86.016
1689.495	0.018	86.134	0.999	-1.046	0.999	-1.046	0.018	86.134
1699.306	0.019	86.231	0.999	-1.109	0.999	-1.109	0.019	86.231
1709.118	0.02	86.31	0.999	-1.171	0.999	-1.171	0.02	86.31
1718.93	0.022	86.375	0.999	-1.234	0.999	-1.234	0.022	86.375
1728.741	0.023	86.427	0.999	-1.295	0.999	-1.295	0.023	86.427
1738.553	0.024	86.469	0.999	-1.357	0.999	-1.357	0.024	86.469
1748.365	0.025	86.501	0.999	-1.418	0.999	-1.418	0.025	86.501
1758.176	0.026	86.526	0.999	-1.479	0.999	-1.479	0.026	86.526
1767.988	0.027	86.544	0.999	-1.54	0.999	-1.54	0.027	86.544
1777.8	0.028	86.556	0.999	-1.6	0.999	-1.6	0.028	86.556
1787.611	0.029	86.562	0.999	-1.66	0.999	-1.66	0.029	86.562
1797.423	0.03	86.564	0.999	-1.72	0.999	-1.72	0.03	86.564
1807.235	0.031	86.562	0.999	-1.779	0.999	-1.779	0.031	86.562
1817.047	0.032	86.557	0.999	-1.839	0.999	-1.839	0.032	86.557
1826.858	0.033	86.547	0.999	-1.898	0.999	-1.898	0.033	86.547
1836.67	0.034	86.535	0.999	-1.956	0.999	-1.956	0.034	86.535
1846.482	0.035	86.521	0.998	-2.015	0.998	-2.015	0.035	86.521
1856.293	0.036	86.504	0.998	-2.073	0.998	-2.073	0.036	86.504
1866.105	0.037	86.484	0.998	-2.131	0.998	-2.131	0.037	86.484
1875.917	0.038	86.463	0.998	-2.189	0.998	-2.189	0.038	86.463
1885.728	0.039	86.44	0.998	-2.246	0.998	-2.246	0.039	86.44
1895.54	0.04	86.416	0.998	-2.303	0.998	-2.303	0.04	86.416
1905.352	0.041	86.39	0.998	-2.36	0.998	-2.36	0.041	86.39
1915.164	0.042	86.362	0.998	-2.417	0.998	-2.417	0.042	86.362
1924.975	0.043	86.334	0.998	-2.473	0.998	-2.473	0.043	86.334
1934.787	0.044	86.304	0.998	-2.53	0.998	-2.53	0.044	86.304
1944.599	0.045	86.273	0.998	-2.586	0.998	-2.586	0.045	86.273
1954.41	0.046	86.242	0.998	-2.641	0.998	-2.641	0.046	86.242
1964.222	0.047	86.209	0.998	-2.697	0.998	-2.697	0.047	86.209
1974.034	0.048	86.176	0.998	-2.752	0.998	-2.752	0.048	86.176
1983.845	0.049	86.142	0.998	-2.808	0.998	-2.808	0.049	86.142
1993.657	0.05	86.107	0.998	-2.863	0.998	-2.863	0.05	86.107
2003.469	0.051	86.072	0.998	-2.917	0.998	-2.917	0.051	86.072
2013.28	0.052	86.036	0.998	-2.972	0.998	-2.972	0.052	86.036
2023.092	0.053	85.999	0.998	-3.026	0.998	-3.026	0.053	85.999
2032.904	0.054	85.962	0.998	-3.08	0.998	-3.08	0.054	85.962
2042.716	0.055	85.925	0.998	-3.134	0.998	-3.134	0.055	85.925
2052.527	0.056	85.887	0.998	-3.188	0.998	-3.188	0.056	85.887
2062.339	0.057	85.849	0.998	-3.242	0.998	-3.242	0.057	85.849
2072.151	0.057	85.81	0.997	-3.295	0.997	-3.295	0.057	85.81
2081.962	0.058	85.771	0.997	-3.348	0.997	-3.348	0.058	85.771
2091.774	0.059	85.732	0.997	-3.401	0.997	-3.401	0.059	85.732
2101.586	0.06	85.692	0.997	-3.454	0.997	-3.454	0.06	85.692
2111.397	0.061	85.652	0.997	-3.507	0.997	-3.507	0.061	85.652
2121.209	0.062	85.612	0.997	-3.559	0.997	-3.559	0.062	85.612
2131.021	0.063	85.572	0.997	-3.612	0.997	-3.612	0.063	85.572
2140.833	0.064	85.532	0.997	-3.664	0.997	-3.664	0.064	85.532
2150.644	0.065	85.491	0.997	-3.716	0.997	-3.716	0.065	85.491
2160.456	0.066	85.45	0.997	-3.768	0.997	-3.768	0.066	85.45
2170.268	0.067	85.409	0.997	-3.819	0.997	-3.819	0.067	85.409
2180.079	0.068	85.368	0.997	-3.871	0.997	-3.871	0.068	85.368
2189.891	0.068	85.326	0.997	-3.922	0.997	-3.922	0.068	85.326
2199.703	0.069	85.285	0.997	-3.973	0.997	-3.973	0.069	85.285
2209.514	0.07	85.243	0.997	-4.024	0.997	-4.024	0.07	85.243
2219.326	0.071	85.202	0.997	-4.075	0.997	-4.075	0.071	85.202
2229.138	0.072	85.16	0.997	-4.126	0.997	-4.126	0.072	85.16
2238.949	0.073	85.118	0.996	-4.176	0.996	-4.176	0.073	85.118
2248.761	0.074	85.076	0.996	-4.227	0.996	-4.227	0.074	85.076
2258.573	0.075	85.034	0.996	-4.277	0.996	-4.277	0.075	85.034
2268.385	0.075	84.992	0.996	-4.327	0.996	-4.327	0.075	84.992
2278.196	0.076	84.95	0.996	-4.377	0.996	-4.377	0.076	84.95
2288.008	0.077	84.907	0.996	-4.427	0.996	-4.427	0.077	84.907
2297.82	0.078	84.865	0.996	-4.477	0.996	-4.477	0.078	84.865
2307.631	0.079	84.823	0.996	-4.526	0.996	-4.526	0.079	84.823
2317.443	0.08	84.78	0.996	-4.576	0.996	-4.576	0.08	84.78
2327.255	0.081	84.738	0.996	-4.625	0.996	-4.625	0.081	84.738
2337.066	0.081	84.696	0.996	-4.674	0.996	-4.674	0.081	84.696
2346.878	0.082	84.653	0.996	-4.723	0.996	-4.723	0.082	84.653
2356.69	0.083	84.611	0.996	-4.772	0.996	-4.772	0.083	84.611
2366.501	0.084	84.568	0.996	-4.821	0.996	-4.821	0.084	84.568
2376.313	0.085	84.526	0.995	-4.869	0.995	-4.869	0.085	84.526
2386.125	0.086	84.483	0.995	-4.918	0.995	-4.918	0.086	84.483
2395.937	0.087	84.441	0.995	-4.966	0.995	-4.966	0.087	84.441
2405.748	0.087	84.398	0.995	-5.015	0.995	-5.015	0.087	84.398
2415.56	0.088	84.356	0.995	-5.063	0.995	-5.063	0.088	84.356
2425.372	0.089	84.313	0.995	-5.111	0.995	-5.111	0.089	84.313
2435.183	0.09	84.27	0.995	-5.159	0.995	-5.159	0.09	84.27
2444.995	0.091	84.228	0.995	-5.207	0.995	-5.207	0.091	84.228
2454.807	0.092	84.185	0.995	-5.254	0.995	-5.254	0.092	84.185
2464.618	0.092	84.143	0.995	-5.302	0.995	-5.302	0.092	84.143
2474.43	0.093	84.1	0.995	-5.349	0.995	-5.349	0.093	84.1
2484.242	0.094	84.058	0.995	-5.397	0.995	-5.397	0.094	84.058
2494.054	0.095	84.015	0.995	-5.444	0.995	-5.444	0.095	84.015
2503.865	0.096	83.973	0.995	-5.491	0.995	-5.491	0.096	83.973
2513.677	0.097	83.931	0.994	-5.538	0.994	-5.538	0.097	83.931
2523.489	0.097	83.888	0.994	-5.585	0.994	-5.585	0.097	83.888
2533.3	0.098	83.846	0.994	-5.632	0.994	-5.632	0.098	83.846
2543.112	0.099	83.803	0.994	-5.678	0.994	-5.678	0.099	83.803
2552.924	0.1	83.761	0.994	-5.725	0.994	-5.725	0.1	83.761
2562.735	0.101	83.719	0.994	-5.772	0.994	-5.772	0.101	83.719
2572.547	0.101	83.676	0.994	-5.818	0.994	-5.818	0.101	83.676
2582.359	0.102	83.634	0.994	-5.864	0.994	-5.864	0.102	83.634
2592.17	0.103	83.592	0.994	-5.91	0.994	-5.91	0.103	83.592
2601.982	0.104	83.55	0.994	-5.956	0.994	-5.956	0.104	83.55
2611.794	0.105	83.507	0.994	-6.002	0.994	-6.002	0.105	83.507
2621.606	0.105	83.465	0.994	-6.048	0.994	-6.048	0.105	83.465
2631.417	0.106	83.423	0.993	-6.094	0.993	-6.094	0.106	83.423
2641.229	0.107	83.381	0.993	-6.14	0.993	-6.14	0.107	83.381
2651.041	0.108	83.339	0.993	-6.186	0.993	-6.186	0.108	83.339
2660.852	0.109	83.297	0.993	-6.231	0.993	-6.231	0.109	83.297
2670.664	0.109	83.255	0.993	-6.277	0.993	-6.277	0.109	83.255
2680.476	0.11	83.213	0.993	-6.322	0.993	-6.322	0.11	83.213
2690.287	0.111	83.171	0.993	-6.367	0.993	-6.367	0.111	83.171
2700.099	0.112	83.129	0.993	-6.412	0.993	-6.412	0.112	83.129
2709.911	0.112	83.087	0.993	-6.457	0.993	-6.457	0.112	83.087
2719.722	0.113	83.046	0.993	-6.502	0.993	-6.502	0.113	83.046
2729.534	0.114	83.004	0.993	-6.547	0.993	-6.547	0.114	83.004
2739.346	0.115	82.962	0.992	-6.592	0.992	-6.592	0.115	82.962
2749.158	0.116	82.92	0.992	-6.637	0.992	-6.637	0.116	82.92
2758.969	0.116	82.879	0.992	-6.681	0.992	-6.681	0.116	82.879
2768.781	0.117	82.837	0.992	-6.726	0.992	-6.726	0.117	82.837
2778.593	0.118	82.795	0.992	-6.771	0.992	-6.771	0.118	82.795
2788.404	0.119	82.754	0.992	-6.815	0.992	-6.815	0.119	82.754
2798.216	0.119	82.712	0.992	-6.859	0.992	-6.859	0.119	82.712
2808.028	0.12	82.671	0.992	-6.903	0.992	-6.903	0.12	82.671
2817.839	0.121	82.629	0.992	-6.948	0.992	-6.948	0.121	82.629
2827.651	0.122	82.588	0.992	-6.992	0.992	-6.992	0.122	82.588
2837.463	0.122	82.547	0.992	-7.036	0.992	-7.036	0.122	82.547
2847.275	0.123	82.505	0.991	-7.08	0.991	-7.08	0.123	82.505
2857.086	0.124	82.464	0.991	-7.124	0.991	-7.124	0.124	82.464
2866.898	0.125	82.423	0.991	-7.167	0.991	-7.167	0.125	82.423
2876.71	0.126	82.382	0.991	-7.211	0.991	-7.211	0.126	82.382
2886.521	0.126	82.341	0.991	-7.255	0.991	-7.255	0.126	82.341
2896.333	0.127	82.299	0.991	-7.298	0.991	-7.298	0.127	82.299
2906.145	0.128	82.258	0.991	-7.342	0.991	-7.342	0.128	82.258
2915.956	0.129	82.217	0.991	-7.385	0.991	-7.385	0.129	82.217
2925.768	0.129	82.176	0.991	-7.428	0.991	-7.428	0.129	82.176
2935.58	0.13	82.135	0.991	-7.472	0.991	-7.472	0.13	82.135
2945.391	0.131	82.094	0.991	-7.515	0.991	-7.515	0.131	82.094
2955.203	0.132	82.054	0.99	-7.558	0.99	-7.558	0.132	82.054
2965.015	0.132	82.013	0.99	-7.601	0.99	-7.601	0.132	82.013
2974.827	0.133	81.972	0.99	-7.644	0.99	-7.644	0.133	81.972
2984.638	0.134	81.931	0.99	-7.687	0.99	-7.687	0.134	81.931
2994.45	0.135	81.891	0.99	-7.73	0.99	-7.73	0.135	81.891
3004.262	0.135	81.85	0.99	-7.773	0.99	-7.773	0.135	81.85
3014.073	0.136	81.809	0.99	-7.815	0.99	-7.815	0.136	81.809
3023.885	0.137	81.769	0.99	-7.858	0.99	-7.858	0.137	81.769
3033.697	0.137	81.728	0.99	-7.901	0.99	-7.901	0.137	81.728
3043.508	0.138	81.688	0.99	-7.943	0.99	-7.943	0.138	81.688
3053.32	0.139	81.647	0.989	-7.986	0.989	-7.986	0.139	81.647
3063.132	0.14	81.607	0.989	-8.028	0.989	-8.028	0.14	81.607
3072.944	0.14	81.566	0.989	-8.07	0.989	-8.07	0.14	81.566
3082.755	0.141	81.526	0.989	-8.113	0.989	-8.113	0.141	81.526
3092.567	0.142	81.486	0.989	-8.155	0.989	-8.155	0.142	81.486
3102.379	0.143	81.445	0.989	-8.197	0.989	-8.197	0.143	81.445
3112.19	0.143	81.405	0.989	-8.239	0.989	-8.239	0.143	81.405
3122.002	0.144	81.365	0.989	-8.281	0.989	-8.281	0.144	81.365
3131.814	0.145	81.325	0.989	-8.323	0.989	-8.323	0.145	81.325
3141.625	0.145	81.285	0.988	-8.365	0.988	-8.365	0.145	81.285
3151.437	0.146	81.245	0.988	-8.407	0.988	-8.407	0.146	81.245
3161.249	0.147	81.205	0.988	-8.449	0.988	-8.449	0.147	81.205
3171.06	0.148	81.165	0.988	-8.49	0.988	-8.49	0.148	81.165
3180.872	0.148	81.125	0.988	-8.532	0.988	-8.532	0.148	81.125
3190.684	0.149	81.085	0.988	-8.574	0.988	-8.574	0.149	81.085
3200.496	0.15	81.045	0.988	-8.615	0.988	-8.615	0.15	81.045
3210.307	0.151	81.005	0.988	-8.657	0.988	-8.657	0.151	81.005
3220.119	0.151	80.965	0.988	-8.698	0.988	-8.698	0.151	80.965
3229.931	0.152	80.925	0.988	-8.739	0.988	-8.739	0.152	80.925
3239.742	0.153	80.886	0.987	-8.781	0.987	-8.781	0.153	80.886
3249.554	0.153	80.846	0.987	-8.822	0.987	-8.822	0.153	80.846
3259.366	0.154	80.806	0.987	-8.863	0.987	-8.863	0.154	80.806
3269.177	0.155	80.767	0.987	-8.904	0.987	-8.904	0.155	80.767
3278.989	0.155	80.727	0.987	-8.946	0.987	-8.946	0.155	80.727
