! AVX Thin Film Operation		Date: April 2012 
! Description: Accu-P® Series, Thin Film, SMD, RF Capacitor
! Part Number: 12101J0R1PBTTR					
!	100	MHz	-	20.05	GHz			
!	Serial	Measurements						
!								
#	MHZ	S	MA	R	50			
!	S11	S21	S12	S22				
!	dB	Phase	dB	Phase	dB	Phase	dB	Phase
100	0.943	-19.427	0.333	70.548	0.333	70.548	0.943	-19.427
109.812	0.932	-21.18	0.361	68.793	0.361	68.793	0.932	-21.18
119.623	0.921	-22.896	0.389	67.075	0.389	67.075	0.921	-22.896
129.435	0.909	-24.571	0.416	65.397	0.416	65.397	0.909	-24.571
139.247	0.897	-26.206	0.442	63.76	0.442	63.76	0.897	-26.206
149.058	0.884	-27.8	0.466	62.164	0.466	62.164	0.884	-27.8
158.87	0.871	-29.351	0.49	60.61	0.49	60.61	0.871	-29.351
168.682	0.858	-30.859	0.513	59.099	0.513	59.099	0.858	-30.859
178.494	0.845	-32.325	0.535	57.631	0.535	57.631	0.845	-32.325
188.305	0.831	-33.749	0.556	56.205	0.556	56.205	0.831	-33.749
198.117	0.817	-35.13	0.575	54.822	0.575	54.822	0.817	-35.13
207.929	0.804	-36.47	0.594	53.48	0.594	53.48	0.804	-36.47
217.74	0.79	-37.768	0.612	52.179	0.612	52.179	0.79	-37.768
227.552	0.776	-39.026	0.63	50.918	0.63	50.918	0.776	-39.026
237.364	0.763	-40.245	0.646	49.697	0.646	49.697	0.763	-40.245
247.175	0.749	-41.425	0.662	48.514	0.662	48.514	0.749	-41.425
256.987	0.736	-42.568	0.676	47.369	0.676	47.369	0.736	-42.568
266.799	0.722	-43.674	0.691	46.26	0.691	46.26	0.722	-43.674
276.611	0.709	-44.745	0.704	45.187	0.704	45.187	0.709	-44.745
286.422	0.697	-45.781	0.717	44.148	0.717	44.148	0.697	-45.781
296.234	0.684	-46.784	0.729	43.143	0.729	43.143	0.684	-46.784
306.046	0.671	-47.755	0.74	42.169	0.74	42.169	0.671	-47.755
315.857	0.659	-48.695	0.751	41.226	0.751	41.226	0.659	-48.695
325.669	0.647	-49.605	0.762	40.314	0.762	40.314	0.647	-49.605
335.481	0.635	-50.486	0.771	39.43	0.771	39.43	0.635	-50.486
345.292	0.624	-51.34	0.781	38.574	0.781	38.574	0.624	-51.34
355.104	0.612	-52.167	0.79	37.745	0.79	37.745	0.612	-52.167
364.916	0.601	-52.968	0.798	36.941	0.798	36.941	0.601	-52.968
374.727	0.59	-53.744	0.806	36.162	0.806	36.162	0.59	-53.744
384.539	0.579	-54.496	0.814	35.407	0.814	35.407	0.579	-54.496
394.351	0.569	-55.226	0.821	34.675	0.821	34.675	0.569	-55.226
404.163	0.559	-55.933	0.828	33.965	0.828	33.965	0.559	-55.933
413.974	0.549	-56.62	0.835	33.276	0.835	33.276	0.549	-56.62
423.786	0.539	-57.286	0.841	32.607	0.841	32.607	0.539	-57.286
433.598	0.529	-57.932	0.847	31.957	0.847	31.957	0.529	-57.932
443.409	0.52	-58.56	0.853	31.327	0.853	31.327	0.52	-58.56
453.221	0.511	-59.17	0.859	30.714	0.859	30.714	0.511	-59.17
463.033	0.502	-59.762	0.864	30.119	0.864	30.119	0.502	-59.762
472.844	0.493	-60.338	0.869	29.541	0.869	29.541	0.493	-60.338
482.656	0.484	-60.898	0.874	28.978	0.874	28.978	0.484	-60.898
492.468	0.476	-61.442	0.878	28.431	0.878	28.431	0.476	-61.442
502.279	0.468	-61.972	0.883	27.898	0.883	27.898	0.468	-61.972
512.091	0.46	-62.487	0.887	27.38	0.887	27.38	0.46	-62.487
521.903	0.452	-62.989	0.891	26.875	0.891	26.875	0.452	-62.989
531.715	0.444	-63.478	0.895	26.384	0.895	26.384	0.444	-63.478
541.526	0.437	-63.954	0.898	25.905	0.898	25.905	0.437	-63.954
551.338	0.43	-64.417	0.902	25.438	0.902	25.438	0.43	-64.417
561.15	0.422	-64.869	0.905	24.983	0.905	24.983	0.422	-64.869
570.961	0.415	-65.31	0.909	24.54	0.909	24.54	0.415	-65.31
580.773	0.408	-65.739	0.912	24.107	0.912	24.107	0.408	-65.739
590.585	0.402	-66.159	0.915	23.685	0.915	23.685	0.402	-66.159
600.396	0.395	-66.568	0.918	23.272	0.918	23.272	0.395	-66.568
610.208	0.389	-66.967	0.92	22.87	0.92	22.87	0.389	-66.967
620.02	0.382	-67.357	0.923	22.477	0.923	22.477	0.382	-67.357
629.832	0.376	-67.738	0.925	22.093	0.925	22.093	0.376	-67.738
639.643	0.37	-68.11	0.928	21.717	0.928	21.717	0.37	-68.11
649.455	0.364	-68.474	0.93	21.35	0.93	21.35	0.364	-68.474
659.267	0.358	-68.83	0.933	20.991	0.933	20.991	0.358	-68.83
669.078	0.353	-69.177	0.935	20.64	0.935	20.64	0.353	-69.177
678.89	0.347	-69.517	0.937	20.297	0.937	20.297	0.347	-69.517
688.702	0.341	-69.85	0.939	19.961	0.939	19.961	0.341	-69.85
698.513	0.336	-70.176	0.941	19.632	0.941	19.632	0.336	-70.176
708.325	0.331	-70.494	0.943	19.31	0.943	19.31	0.331	-70.494
718.137	0.325	-70.807	0.944	18.994	0.944	18.994	0.325	-70.807
727.948	0.32	-71.112	0.946	18.685	0.946	18.685	0.32	-71.112
737.76	0.315	-71.412	0.948	18.382	0.948	18.382	0.315	-71.412
747.572	0.31	-71.705	0.949	18.085	0.949	18.085	0.31	-71.705
757.384	0.306	-71.993	0.951	17.793	0.951	17.793	0.306	-71.993
767.195	0.301	-72.275	0.953	17.508	0.953	17.508	0.301	-72.275
777.007	0.296	-72.551	0.954	17.227	0.954	17.227	0.296	-72.551
786.819	0.292	-72.822	0.955	16.952	0.955	16.952	0.292	-72.822
796.63	0.287	-73.088	0.957	16.682	0.957	16.682	0.287	-73.088
806.442	0.283	-73.349	0.958	16.417	0.958	16.417	0.283	-73.349
816.254	0.278	-73.606	0.959	16.157	0.959	16.157	0.278	-73.606
826.065	0.274	-73.857	0.961	15.902	0.961	15.902	0.274	-73.857
835.877	0.27	-74.104	0.962	15.651	0.962	15.651	0.27	-74.104
845.689	0.266	-74.347	0.963	15.404	0.963	15.404	0.266	-74.347
855.5	0.262	-74.585	0.964	15.161	0.964	15.161	0.262	-74.585
865.312	0.258	-74.819	0.965	14.923	0.965	14.923	0.258	-74.819
875.124	0.254	-75.049	0.966	14.689	0.966	14.689	0.254	-75.049
884.936	0.25	-75.275	0.967	14.458	0.967	14.458	0.25	-75.275
894.747	0.246	-75.498	0.968	14.232	0.968	14.232	0.246	-75.498
904.559	0.242	-75.716	0.969	14.009	0.969	14.009	0.242	-75.716
914.371	0.238	-75.931	0.97	13.789	0.97	13.789	0.238	-75.931
924.182	0.235	-76.142	0.971	13.573	0.971	13.573	0.235	-76.142
933.994	0.231	-76.35	0.972	13.36	0.972	13.36	0.231	-76.35
943.806	0.228	-76.555	0.973	13.151	0.973	13.151	0.228	-76.555
953.617	0.224	-76.756	0.973	12.945	0.973	12.945	0.224	-76.756
963.429	0.221	-76.954	0.974	12.742	0.974	12.742	0.221	-76.954
973.241	0.217	-77.15	0.975	12.542	0.975	12.542	0.217	-77.15
983.053	0.214	-77.342	0.976	12.344	0.976	12.344	0.214	-77.342
992.864	0.21	-77.531	0.976	12.15	0.976	12.15	0.21	-77.531
1002.676	0.207	-77.717	0.977	11.959	0.977	11.959	0.207	-77.717
1012.488	0.204	-77.901	0.978	11.77	0.978	11.77	0.204	-77.901
1022.299	0.201	-78.081	0.978	11.584	0.978	11.584	0.201	-78.081
1032.111	0.198	-78.259	0.979	11.4	0.979	11.4	0.198	-78.259
1041.923	0.195	-78.435	0.98	11.219	0.98	11.219	0.195	-78.435
1051.734	0.191	-78.608	0.98	11.04	0.98	11.04	0.191	-78.608
1061.546	0.188	-78.778	0.981	10.864	0.981	10.864	0.188	-78.778
1071.358	0.185	-78.946	0.981	10.69	0.981	10.69	0.185	-78.946
1081.169	0.183	-79.112	0.982	10.518	0.982	10.518	0.183	-79.112
1090.981	0.18	-79.275	0.983	10.349	0.983	10.349	0.18	-79.275
1100.793	0.177	-79.436	0.983	10.181	0.983	10.181	0.177	-79.436
1110.605	0.174	-79.595	0.984	10.016	0.984	10.016	0.174	-79.595
1120.416	0.171	-79.752	0.984	9.853	0.984	9.853	0.171	-79.752
1130.228	0.168	-79.906	0.985	9.692	0.985	9.692	0.168	-79.906
1140.04	0.166	-80.059	0.985	9.532	0.985	9.532	0.166	-80.059
1149.851	0.163	-80.209	0.985	9.375	0.985	9.375	0.163	-80.209
1159.663	0.16	-80.357	0.986	9.219	0.986	9.219	0.16	-80.357
1169.475	0.158	-80.504	0.986	9.066	0.986	9.066	0.158	-80.504
1179.286	0.155	-80.648	0.987	8.914	0.987	8.914	0.155	-80.648
1189.098	0.152	-80.791	0.987	8.764	0.987	8.764	0.152	-80.791
1198.91	0.15	-80.931	0.988	8.615	0.988	8.615	0.15	-80.931
1208.722	0.147	-81.07	0.988	8.468	0.988	8.468	0.147	-81.07
1218.533	0.145	-81.207	0.988	8.323	0.988	8.323	0.145	-81.207
1228.345	0.142	-81.342	0.989	8.18	0.989	8.18	0.142	-81.342
1238.157	0.14	-81.476	0.989	8.038	0.989	8.038	0.14	-81.476
1247.968	0.137	-81.608	0.989	7.897	0.989	7.897	0.137	-81.608
1257.78	0.135	-81.738	0.99	7.758	0.99	7.758	0.135	-81.738
1267.592	0.133	-81.866	0.99	7.621	0.99	7.621	0.133	-81.866
1277.403	0.13	-81.993	0.99	7.484	0.99	7.484	0.13	-81.993
1287.215	0.128	-82.118	0.991	7.35	0.991	7.35	0.128	-82.118
1297.027	0.126	-82.241	0.991	7.216	0.991	7.216	0.126	-82.241
1306.838	0.123	-82.363	0.991	7.084	0.991	7.084	0.123	-82.363
1316.65	0.121	-82.483	0.991	6.954	0.991	6.954	0.121	-82.483
1326.462	0.119	-82.602	0.992	6.824	0.992	6.824	0.119	-82.602
1336.274	0.117	-82.719	0.992	6.696	0.992	6.696	0.117	-82.719
1346.085	0.114	-82.835	0.992	6.569	0.992	6.569	0.114	-82.835
1355.897	0.112	-82.949	0.992	6.443	0.992	6.443	0.112	-82.949
1365.709	0.11	-83.061	0.993	6.319	0.993	6.319	0.11	-83.061
1375.52	0.108	-83.172	0.993	6.195	0.993	6.195	0.108	-83.172
1385.332	0.106	-83.282	0.993	6.073	0.993	6.073	0.106	-83.282
1395.144	0.104	-83.39	0.993	5.952	0.993	5.952	0.104	-83.39
1404.955	0.102	-83.496	0.994	5.831	0.994	5.831	0.102	-83.496
1414.767	0.1	-83.601	0.994	5.712	0.994	5.712	0.1	-83.601
1424.579	0.097	-83.704	0.994	5.594	0.994	5.594	0.097	-83.704
1434.39	0.095	-83.806	0.994	5.477	0.994	5.477	0.095	-83.806
1444.202	0.093	-83.907	0.994	5.361	0.994	5.361	0.093	-83.907
1454.014	0.091	-84.005	0.995	5.247	0.995	5.247	0.091	-84.005
1463.826	0.089	-84.103	0.995	5.133	0.995	5.133	0.089	-84.103
1473.637	0.088	-84.199	0.995	5.019	0.995	5.019	0.088	-84.199
1483.449	0.086	-84.293	0.995	4.907	0.995	4.907	0.086	-84.293
1493.261	0.084	-84.385	0.995	4.796	0.995	4.796	0.084	-84.385
1503.072	0.082	-84.476	0.995	4.686	0.995	4.686	0.082	-84.476
1512.884	0.08	-84.566	0.996	4.576	0.996	4.576	0.08	-84.566
1522.696	0.078	-84.653	0.996	4.468	0.996	4.468	0.078	-84.653
1532.507	0.076	-84.739	0.996	4.36	0.996	4.36	0.076	-84.739
1542.319	0.074	-84.823	0.996	4.253	0.996	4.253	0.074	-84.823
1552.131	0.072	-84.906	0.996	4.147	0.996	4.147	0.072	-84.906
1561.943	0.07	-84.986	0.996	4.042	0.996	4.042	0.07	-84.986
1571.754	0.069	-85.065	0.996	3.937	0.996	3.937	0.069	-85.065
1581.566	0.067	-85.141	0.997	3.834	0.997	3.834	0.067	-85.141
1591.378	0.065	-85.216	0.997	3.731	0.997	3.731	0.065	-85.216
1601.189	0.063	-85.288	0.997	3.629	0.997	3.629	0.063	-85.288
1611.001	0.062	-85.359	0.997	3.527	0.997	3.527	0.062	-85.359
1620.813	0.06	-85.427	0.997	3.426	0.997	3.426	0.06	-85.427
1630.624	0.058	-85.492	0.997	3.326	0.997	3.326	0.058	-85.492
1640.436	0.056	-85.555	0.997	3.227	0.997	3.227	0.056	-85.555
1650.248	0.055	-85.615	0.997	3.128	0.997	3.128	0.055	-85.615
1660.059	0.053	-85.672	0.997	3.03	0.997	3.03	0.053	-85.672
1669.871	0.051	-85.726	0.997	2.933	0.997	2.933	0.051	-85.726
1679.683	0.05	-85.777	0.998	2.837	0.998	2.837	0.05	-85.777
1689.495	0.048	-85.825	0.998	2.741	0.998	2.741	0.048	-85.825
1699.306	0.046	-85.868	0.998	2.645	0.998	2.645	0.046	-85.868
1709.118	0.045	-85.908	0.998	2.551	0.998	2.551	0.045	-85.908
1718.93	0.043	-85.943	0.998	2.456	0.998	2.456	0.043	-85.943
1728.741	0.041	-85.973	0.998	2.363	0.998	2.363	0.041	-85.973
1738.553	0.04	-85.998	0.998	2.27	0.998	2.27	0.04	-85.998
1748.365	0.038	-86.017	0.998	2.178	0.998	2.178	0.038	-86.017
1758.176	0.036	-86.029	0.998	2.086	0.998	2.086	0.036	-86.029
1767.988	0.035	-86.034	0.998	1.995	0.998	1.995	0.035	-86.034
1777.8	0.033	-86.031	0.998	1.904	0.998	1.904	0.033	-86.031
1787.611	0.032	-86.018	0.998	1.814	0.998	1.814	0.032	-86.018
1797.423	0.03	-85.995	0.998	1.724	0.998	1.724	0.03	-85.995
1807.235	0.029	-85.96	0.998	1.635	0.998	1.635	0.029	-85.96
1817.047	0.027	-85.911	0.998	1.547	0.998	1.547	0.027	-85.911
1826.858	0.025	-85.846	0.998	1.459	0.998	1.459	0.025	-85.846
1836.67	0.024	-85.762	0.999	1.371	0.999	1.371	0.024	-85.762
1846.482	0.022	-85.655	0.999	1.284	0.999	1.284	0.022	-85.655
1856.293	0.021	-85.521	0.999	1.198	0.999	1.198	0.021	-85.521
1866.105	0.019	-85.353	0.999	1.112	0.999	1.112	0.019	-85.353
1875.917	0.018	-85.145	0.999	1.026	0.999	1.026	0.018	-85.145
1885.728	0.016	-84.885	0.999	0.941	0.999	0.941	0.016	-84.885
1895.54	0.015	-84.559	0.999	0.857	0.999	0.857	0.015	-84.559
1905.352	0.014	-84.147	0.999	0.772	0.999	0.772	0.014	-84.147
1915.164	0.012	-83.617	0.999	0.689	0.999	0.689	0.012	-83.617
1924.975	0.011	-82.923	0.999	0.606	0.999	0.606	0.011	-82.923
1934.787	9.20E-03	-81.991	0.999	0.523	0.999	0.523	9.20E-03	-81.991
1944.599	7.78E-03	-80.694	0.999	0.44	0.999	0.44	7.78E-03	-80.694
1954.41	6.37E-03	-78.791	0.999	0.358	0.999	0.358	6.37E-03	-78.791
1964.222	4.98E-03	-75.788	0.999	0.277	0.999	0.277	4.98E-03	-75.788
1974.034	3.62E-03	-70.463	0.999	0.196	0.999	0.196	3.62E-03	-70.463
1983.845	2.34E-03	-59.028	0.999	0.115	0.999	0.115	2.34E-03	-59.028
1993.657	1.34E-03	-26.726	0.999	0.035	0.999	0.035	1.34E-03	-26.726
2003.469	1.44E-03	33.355	0.999	-0.045	0.999	-0.045	1.44E-03	33.355
2013.28	2.49E-03	61.054	0.999	-0.125	0.999	-0.125	2.49E-03	61.054
2023.092	3.76E-03	71.187	0.999	-0.204	0.999	-0.204	3.76E-03	71.187
2032.904	5.08E-03	76.064	0.999	-0.283	0.999	-0.283	5.08E-03	76.064
2042.716	6.42E-03	78.871	0.999	-0.361	0.999	-0.361	6.42E-03	78.871
2052.527	7.76E-03	80.672	0.999	-0.439	0.999	-0.439	7.76E-03	80.672
2062.339	9.10E-03	81.914	0.999	-0.517	0.999	-0.517	9.10E-03	81.914
2072.151	0.01	82.812	0.999	-0.594	0.999	-0.594	0.01	82.812
2081.962	0.012	83.486	0.999	-0.671	0.999	-0.671	0.012	83.486
2091.774	0.013	84.004	0.999	-0.748	0.999	-0.748	0.013	84.004
2101.586	0.014	84.411	0.999	-0.824	0.999	-0.824	0.014	84.411
2111.397	0.016	84.736	0.999	-0.9	0.999	-0.9	0.016	84.736
2121.209	0.017	84.997	0.999	-0.976	0.999	-0.976	0.017	84.997
2131.021	0.018	85.21	0.999	-1.051	0.999	-1.051	0.018	85.21
2140.833	0.02	85.383	0.999	-1.126	0.999	-1.126	0.02	85.383
2150.644	0.021	85.525	0.999	-1.2	0.999	-1.2	0.021	85.525
2160.456	0.022	85.641	0.999	-1.275	0.999	-1.275	0.022	85.641
2170.268	0.024	85.736	0.999	-1.349	0.999	-1.349	0.024	85.736
2180.079	0.025	85.813	0.998	-1.422	0.998	-1.422	0.025	85.813
2189.891	0.026	85.875	0.998	-1.496	0.998	-1.496	0.026	85.875
2199.703	0.027	85.925	0.998	-1.569	0.998	-1.569	0.027	85.925
2209.514	0.029	85.963	0.998	-1.641	0.998	-1.641	0.029	85.963
2219.326	0.03	85.992	0.998	-1.714	0.998	-1.714	0.03	85.992
2229.138	0.031	86.012	0.998	-1.786	0.998	-1.786	0.031	86.012
2238.949	0.032	86.026	0.998	-1.858	0.998	-1.858	0.032	86.026
2248.761	0.034	86.032	0.998	-1.93	0.998	-1.93	0.034	86.032
2258.573	0.035	86.034	0.998	-2.001	0.998	-2.001	0.035	86.034
2268.385	0.036	86.03	0.998	-2.072	0.998	-2.072	0.036	86.03
2278.196	0.037	86.022	0.998	-2.143	0.998	-2.143	0.037	86.022
2288.008	0.039	86.01	0.998	-2.213	0.998	-2.213	0.039	86.01
2297.82	0.04	85.994	0.998	-2.283	0.998	-2.283	0.04	85.994
2307.631	0.041	85.976	0.998	-2.353	0.998	-2.353	0.041	85.976
2317.443	0.042	85.954	0.998	-2.423	0.998	-2.423	0.042	85.954
2327.255	0.044	85.93	0.998	-2.492	0.998	-2.492	0.044	85.93
2337.066	0.045	85.903	0.998	-2.562	0.998	-2.562	0.045	85.903
2346.878	0.046	85.875	0.998	-2.631	0.998	-2.631	0.046	85.875
2356.69	0.047	85.844	0.998	-2.699	0.998	-2.699	0.047	85.844
2366.501	0.048	85.812	0.998	-2.768	0.998	-2.768	0.048	85.812
2376.313	0.049	85.778	0.998	-2.836	0.998	-2.836	0.049	85.778
2386.125	0.051	85.742	0.998	-2.904	0.998	-2.904	0.051	85.742
2395.937	0.052	85.705	0.997	-2.972	0.997	-2.972	0.052	85.705
2405.748	0.053	85.667	0.997	-3.039	0.997	-3.039	0.053	85.667
2415.56	0.054	85.628	0.997	-3.106	0.997	-3.106	0.054	85.628
2425.372	0.055	85.588	0.997	-3.173	0.997	-3.173	0.055	85.588
2435.183	0.057	85.547	0.997	-3.24	0.997	-3.24	0.057	85.547
2444.995	0.058	85.505	0.997	-3.307	0.997	-3.307	0.058	85.505
2454.807	0.059	85.462	0.997	-3.373	0.997	-3.373	0.059	85.462
2464.618	0.06	85.418	0.997	-3.439	0.997	-3.439	0.06	85.418
2474.43	0.061	85.374	0.997	-3.505	0.997	-3.505	0.061	85.374
2484.242	0.062	85.329	0.997	-3.571	0.997	-3.571	0.062	85.329
2494.054	0.063	85.283	0.997	-3.636	0.997	-3.636	0.063	85.283
2503.865	0.065	85.237	0.997	-3.701	0.997	-3.701	0.065	85.237
2513.677	0.066	85.19	0.997	-3.766	0.997	-3.766	0.066	85.19
2523.489	0.067	85.143	0.997	-3.831	0.997	-3.831	0.067	85.143
2533.3	0.068	85.096	0.996	-3.896	0.996	-3.896	0.068	85.096
2543.112	0.069	85.048	0.996	-3.96	0.996	-3.96	0.069	85.048
2552.924	0.07	84.999	0.996	-4.025	0.996	-4.025	0.07	84.999
2562.735	0.071	84.95	0.996	-4.089	0.996	-4.089	0.071	84.95
2572.547	0.072	84.901	0.996	-4.153	0.996	-4.153	0.072	84.901
2582.359	0.074	84.852	0.996	-4.216	0.996	-4.216	0.074	84.852
2592.17	0.075	84.802	0.996	-4.28	0.996	-4.28	0.075	84.802
2601.982	0.076	84.753	0.996	-4.343	0.996	-4.343	0.076	84.753
2611.794	0.077	84.703	0.996	-4.406	0.996	-4.406	0.077	84.703
2621.606	0.078	84.652	0.996	-4.469	0.996	-4.469	0.078	84.652
2631.417	0.079	84.602	0.996	-4.532	0.996	-4.532	0.079	84.602
2641.229	0.08	84.551	0.996	-4.594	0.996	-4.594	0.08	84.551
2651.041	0.081	84.5	0.996	-4.657	0.996	-4.657	0.081	84.5
2660.852	0.082	84.449	0.995	-4.719	0.995	-4.719	0.082	84.449
2670.664	0.083	84.398	0.995	-4.781	0.995	-4.781	0.083	84.398
2680.476	0.084	84.347	0.995	-4.843	0.995	-4.843	0.084	84.347
2690.287	0.085	84.295	0.995	-4.904	0.995	-4.904	0.085	84.295
2700.099	0.087	84.244	0.995	-4.966	0.995	-4.966	0.087	84.244
2709.911	0.088	84.192	0.995	-5.027	0.995	-5.027	0.088	84.192
2719.722	0.089	84.14	0.995	-5.088	0.995	-5.088	0.089	84.14
2729.534	0.09	84.089	0.995	-5.149	0.995	-5.149	0.09	84.089
2739.346	0.091	84.037	0.995	-5.21	0.995	-5.21	0.091	84.037
2749.158	0.092	83.985	0.995	-5.271	0.995	-5.271	0.092	83.985
2758.969	0.093	83.933	0.994	-5.331	0.994	-5.331	0.093	83.933
2768.781	0.094	83.881	0.994	-5.392	0.994	-5.392	0.094	83.881
2778.593	0.095	83.829	0.994	-5.452	0.994	-5.452	0.095	83.829
2788.404	0.096	83.776	0.994	-5.512	0.994	-5.512	0.096	83.776
2798.216	0.097	83.724	0.994	-5.572	0.994	-5.572	0.097	83.724
2808.028	0.098	83.672	0.994	-5.631	0.994	-5.631	0.098	83.672
2817.839	0.099	83.62	0.994	-5.691	0.994	-5.691	0.099	83.62
2827.651	0.1	83.568	0.994	-5.75	0.994	-5.75	0.1	83.568
2837.463	0.101	83.515	0.994	-5.81	0.994	-5.81	0.101	83.515
2847.275	0.102	83.463	0.994	-5.869	0.994	-5.869	0.102	83.463
2857.086	0.103	83.411	0.993	-5.928	0.993	-5.928	0.103	83.411
2866.898	0.104	83.359	0.993	-5.986	0.993	-5.986	0.104	83.359
2876.71	0.105	83.306	0.993	-6.045	0.993	-6.045	0.105	83.306
2886.521	0.106	83.254	0.993	-6.104	0.993	-6.104	0.106	83.254
2896.333	0.107	83.202	0.993	-6.162	0.993	-6.162	0.107	83.202
2906.145	0.108	83.149	0.993	-6.22	0.993	-6.22	0.108	83.149
2915.956	0.109	83.097	0.993	-6.278	0.993	-6.278	0.109	83.097
2925.768	0.11	83.045	0.993	-6.336	0.993	-6.336	0.11	83.045
2935.58	0.111	82.993	0.993	-6.394	0.993	-6.394	0.111	82.993
2945.391	0.112	82.941	0.992	-6.452	0.992	-6.452	0.112	82.941
2955.203	0.113	82.889	0.992	-6.51	0.992	-6.51	0.113	82.889
2965.015	0.114	82.836	0.992	-6.567	0.992	-6.567	0.114	82.836
2974.827	0.115	82.784	0.992	-6.624	0.992	-6.624	0.115	82.784
2984.638	0.116	82.732	0.992	-6.681	0.992	-6.681	0.116	82.732
2994.45	0.117	82.68	0.992	-6.738	0.992	-6.738	0.117	82.68
3004.262	0.118	82.628	0.992	-6.795	0.992	-6.795	0.118	82.628
3014.073	0.119	82.576	0.992	-6.852	0.992	-6.852	0.119	82.576
3023.885	0.12	82.524	0.992	-6.909	0.992	-6.909	0.12	82.524
3033.697	0.121	82.472	0.991	-6.965	0.991	-6.965	0.121	82.472
3043.508	0.122	82.421	0.991	-7.022	0.991	-7.022	0.122	82.421
3053.32	0.123	82.369	0.991	-7.078	0.991	-7.078	0.123	82.369
3063.132	0.124	82.317	0.991	-7.134	0.991	-7.134	0.124	82.317
3072.944	0.125	82.265	0.991	-7.19	0.991	-7.19	0.125	82.265
3082.755	0.126	82.214	0.991	-7.246	0.991	-7.246	0.126	82.214
3092.567	0.127	82.162	0.991	-7.302	0.991	-7.302	0.127	82.162
3102.379	0.128	82.11	0.991	-7.358	0.991	-7.358	0.128	82.11
3112.19	0.129	82.059	0.99	-7.413	0.99	-7.413	0.129	82.059
3122.002	0.13	82.007	0.99	-7.469	0.99	-7.469	0.13	82.007
3131.814	0.131	81.956	0.99	-7.524	0.99	-7.524	0.131	81.956
3141.625	0.132	81.904	0.99	-7.579	0.99	-7.579	0.132	81.904
3151.437	0.133	81.853	0.99	-7.634	0.99	-7.634	0.133	81.853
3161.249	0.134	81.802	0.99	-7.689	0.99	-7.689	0.134	81.802
3171.06	0.135	81.751	0.99	-7.744	0.99	-7.744	0.135	81.751
3180.872	0.136	81.699	0.99	-7.799	0.99	-7.799	0.136	81.699
3190.684	0.137	81.648	0.989	-7.854	0.989	-7.854	0.137	81.648
3200.496	0.138	81.597	0.989	-7.908	0.989	-7.908	0.138	81.597
3210.307	0.139	81.546	0.989	-7.963	0.989	-7.963	0.139	81.546
3220.119	0.139	81.495	0.989	-8.017	0.989	-8.017	0.139	81.495
3229.931	0.14	81.444	0.989	-8.071	0.989	-8.071	0.14	81.444
3239.742	0.141	81.393	0.989	-8.126	0.989	-8.126	0.141	81.393
3249.554	0.142	81.343	0.989	-8.18	0.989	-8.18	0.142	81.343
3259.366	0.143	81.292	0.989	-8.233	0.989	-8.233	0.143	81.292
3269.177	0.144	81.241	0.988	-8.287	0.988	-8.287	0.144	81.241
