! AVX Thin Film Operation		Date: April 2012 
! Description: Accu-P® Series, Thin Film, SMD, RF Capacitor
! Part Number: 12101J0R8PBTTR					
!	100	MHz	-	20.05	GHz			
!	Serial	Measurements						
!								
#	MHZ	S	MA	R	50			
!	S11	S21	S12	S22				
!	dB	Phase	dB	Phase	dB	Phase	dB	Phase
50 1 -1.44 0.025 88.556 0.025 88.556 1 -1.44
74.938 0.999 -2.158 0.038 87.837 0.038 87.837 0.999 -2.158
99.875 0.999 -2.875 0.05 87.117 0.05 87.117 0.999 -2.875
124.813 0.998 -3.592 0.063 86.398 0.063 86.398 0.998 -3.592
149.75 0.997 -4.308 0.075 85.68 0.075 85.68 0.997 -4.308
174.688 0.996 -5.023 0.088 84.963 0.088 84.963 0.996 -5.023
199.625 0.995 -5.738 0.1 84.247 0.1 84.247 0.995 -5.738
224.563 0.994 -6.451 0.112 83.531 0.112 83.531 0.994 -6.451
249.5 0.992 -7.163 0.125 82.817 0.125 82.817 0.992 -7.163
274.438 0.991 -7.874 0.137 82.104 0.137 82.104 0.991 -7.874
299.375 0.989 -8.584 0.149 81.393 0.149 81.393 0.989 -8.584
324.313 0.987 -9.291 0.161 80.683 0.161 80.683 0.987 -9.291
349.25 0.985 -9.998 0.174 79.975 0.174 79.975 0.985 -9.998
374.188 0.983 -10.702 0.186 79.269 0.186 79.269 0.983 -10.702
399.125 0.98 -11.404 0.198 78.564 0.198 78.564 0.98 -11.404
424.063 0.978 -12.105 0.21 77.862 0.21 77.862 0.978 -12.105
449 0.975 -12.803 0.222 77.162 0.222 77.162 0.975 -12.803
473.938 0.972 -13.499 0.233 76.464 0.233 76.464 0.972 -13.499
498.875 0.969 -14.192 0.245 75.768 0.245 75.768 0.969 -14.192
523.813 0.966 -14.884 0.257 75.075 0.257 75.075 0.966 -14.884
548.75 0.963 -15.572 0.268 74.385 0.268 74.385 0.963 -15.572
573.688 0.96 -16.258 0.28 73.697 0.28 73.697 0.96 -16.258
598.625 0.956 -16.941 0.291 73.012 0.291 73.012 0.956 -16.941
623.563 0.953 -17.621 0.303 72.329 0.303 72.329 0.953 -17.621
648.5 0.949 -18.299 0.314 71.65 0.314 71.65 0.949 -18.299
673.438 0.945 -18.973 0.325 70.974 0.325 70.974 0.945 -18.973
698.375 0.941 -19.644 0.336 70.301 0.336 70.301 0.941 -19.644
723.313 0.937 -20.312 0.347 69.631 0.347 69.631 0.937 -20.312
748.25 0.933 -20.977 0.358 68.964 0.358 68.964 0.933 -20.977
773.188 0.929 -21.638 0.369 68.301 0.369 68.301 0.929 -21.638
798.125 0.925 -22.296 0.379 67.641 0.379 67.641 0.925 -22.296
823.063 0.92 -22.95 0.39 66.984 0.39 66.984 0.92 -22.95
848 0.916 -23.601 0.4 66.331 0.4 66.331 0.916 -23.601
872.938 0.911 -24.248 0.411 65.682 0.411 65.682 0.911 -24.248
897.875 0.907 -24.892 0.421 65.036 0.421 65.036 0.907 -24.892
922.813 0.902 -25.532 0.431 64.394 0.431 64.394 0.902 -25.532
947.75 0.897 -26.168 0.441 63.756 0.441 63.756 0.897 -26.168
972.688 0.892 -26.8 0.451 63.121 0.451 63.121 0.892 -26.8
997.625 0.887 -27.429 0.461 62.491 0.461 62.491 0.887 -27.429
1022.563 0.882 -28.053 0.47 61.864 0.47 61.864 0.882 -28.053
1047.5 0.877 -28.674 0.48 61.241 0.48 61.241 0.877 -28.674
1072.438 0.871 -29.29 0.489 60.623 0.489 60.623 0.871 -29.29
1097.375 0.866 -29.903 0.499 60.008 0.499 60.008 0.866 -29.903
1122.313 0.861 -30.512 0.508 59.397 0.508 59.397 0.861 -30.512
1147.25 0.855 -31.116 0.517 58.79 0.517 58.79 0.855 -31.116
1172.188 0.85 -31.716 0.526 58.188 0.526 58.188 0.85 -31.716
1197.125 0.844 -32.313 0.535 57.589 0.535 57.589 0.844 -32.313
1222.063 0.839 -32.905 0.543 56.995 0.543 56.995 0.839 -32.905
1247 0.833 -33.493 0.552 56.405 0.552 56.405 0.833 -33.493
1271.938 0.827 -34.077 0.56 55.818 0.56 55.818 0.827 -34.077
1296.875 0.822 -34.656 0.569 55.236 0.569 55.236 0.822 -34.656
1321.813 0.816 -35.232 0.577 54.659 0.577 54.659 0.816 -35.232
1346.75 0.81 -35.803 0.585 54.085 0.585 54.085 0.81 -35.803
1371.688 0.804 -36.37 0.593 53.515 0.593 53.515 0.804 -36.37
1396.625 0.798 -36.933 0.601 52.95 0.601 52.95 0.798 -36.933
1421.563 0.792 -37.492 0.609 52.389 0.609 52.389 0.792 -37.492
1446.5 0.786 -38.047 0.616 51.832 0.616 51.832 0.786 -38.047
1471.438 0.78 -38.597 0.624 51.279 0.624 51.279 0.78 -38.597
1496.375 0.774 -39.143 0.631 50.73 0.631 50.73 0.774 -39.143
1521.313 0.768 -39.685 0.639 50.186 0.639 50.186 0.768 -39.685
1546.25 0.762 -40.223 0.646 49.645 0.646 49.645 0.762 -40.223
1571.188 0.756 -40.757 0.653 49.109 0.653 49.109 0.756 -40.757
1596.125 0.75 -41.287 0.66 48.577 0.66 48.577 0.75 -41.287
1621.063 0.744 -41.812 0.667 48.049 0.667 48.049 0.744 -41.812
1646 0.738 -42.334 0.673 47.525 0.673 47.525 0.738 -42.334
1670.938 0.731 -42.851 0.68 47.005 0.68 47.005 0.731 -42.851
1695.875 0.725 -43.364 0.687 46.49 0.687 46.49 0.725 -43.364
1720.813 0.719 -43.873 0.693 45.978 0.693 45.978 0.719 -43.873
1745.75 0.713 -44.378 0.699 45.47 0.699 45.47 0.713 -44.378
1770.688 0.707 -44.879 0.706 44.966 0.706 44.966 0.707 -44.879
1795.625 0.7 -45.376 0.712 44.466 0.712 44.466 0.7 -45.376
1820.563 0.694 -45.869 0.718 43.971 0.718 43.971 0.694 -45.869
1845.5 0.688 -46.359 0.724 43.479 0.724 43.479 0.688 -46.359
1870.438 0.682 -46.844 0.729 42.991 0.729 42.991 0.682 -46.844
1895.375 0.676 -47.325 0.735 42.506 0.735 42.506 0.676 -47.325
1920.313 0.669 -47.803 0.741 42.026 0.741 42.026 0.669 -47.803
1945.25 0.663 -48.276 0.746 41.55 0.746 41.55 0.663 -48.276
1970.188 0.657 -48.746 0.752 41.077 0.752 41.077 0.657 -48.746
1995.125 0.651 -49.212 0.757 40.608 0.757 40.608 0.651 -49.212
2020.063 0.645 -49.674 0.762 40.143 0.762 40.143 0.645 -49.674
2045 0.639 -50.133 0.768 39.681 0.768 39.681 0.639 -50.133
2069.938 0.632 -50.587 0.773 39.224 0.773 39.224 0.632 -50.587
2094.875 0.626 -51.038 0.778 38.769 0.778 38.769 0.626 -51.038
2119.813 0.62 -51.486 0.782 38.319 0.782 38.319 0.62 -51.486
2144.75 0.614 -51.93 0.787 37.872 0.787 37.872 0.614 -51.93
2169.688 0.608 -52.37 0.792 37.428 0.792 37.428 0.608 -52.37
2194.625 0.602 -52.807 0.797 36.988 0.797 36.988 0.602 -52.807
2219.563 0.596 -53.24 0.801 36.552 0.801 36.552 0.596 -53.24
2244.5 0.589 -53.67 0.806 36.119 0.806 36.119 0.589 -53.67
2269.438 0.583 -54.096 0.81 35.689 0.81 35.689 0.583 -54.096
2294.375 0.577 -54.519 0.814 35.263 0.814 35.263 0.577 -54.519
2319.313 0.571 -54.938 0.819 34.84 0.819 34.84 0.571 -54.938
2344.25 0.565 -55.354 0.823 34.421 0.823 34.421 0.565 -55.354
2369.188 0.559 -55.767 0.827 34.005 0.827 34.005 0.559 -55.767
2394.125 0.553 -56.176 0.831 33.592 0.831 33.592 0.553 -56.176
2419.063 0.547 -56.582 0.835 33.182 0.835 33.182 0.547 -56.582
2444 0.541 -56.985 0.839 32.776 0.839 32.776 0.541 -56.985
2468.938 0.535 -57.384 0.842 32.372 0.842 32.372 0.535 -57.384
2493.875 0.53 -57.781 0.846 31.972 0.846 31.972 0.53 -57.781
2518.813 0.524 -58.174 0.85 31.575 0.85 31.575 0.524 -58.174
2543.75 0.518 -58.564 0.853 31.181 0.853 31.181 0.518 -58.564
2568.688 0.512 -58.951 0.857 30.79 0.857 30.79 0.512 -58.951
2593.625 0.506 -59.335 0.86 30.402 0.86 30.402 0.506 -59.335
2618.563 0.5 -59.716 0.864 30.017 0.864 30.017 0.5 -59.716
2643.5 0.494 -60.094 0.867 29.634 0.867 29.634 0.494 -60.094
2668.438 0.489 -60.469 0.87 29.255 0.87 29.255 0.489 -60.469
2693.375 0.483 -60.841 0.873 28.879 0.873 28.879 0.483 -60.841
2718.313 0.477 -61.21 0.876 28.505 0.876 28.505 0.477 -61.21
2743.25 0.472 -61.577 0.879 28.135 0.879 28.135 0.472 -61.577
2768.188 0.466 -61.94 0.882 27.767 0.882 27.767 0.466 -61.94
2793.125 0.46 -62.301 0.885 27.402 0.885 27.402 0.46 -62.301
2818.063 0.455 -62.659 0.888 27.039 0.888 27.039 0.455 -62.659
2843 0.449 -63.014 0.891 26.679 0.891 26.679 0.449 -63.014
2867.938 0.443 -63.366 0.894 26.322 0.894 26.322 0.443 -63.366
2892.875 0.438 -63.715 0.897 25.968 0.897 25.968 0.438 -63.715
2917.813 0.432 -64.062 0.899 25.616 0.899 25.616 0.432 -64.062
2942.75 0.427 -64.406 0.902 25.267 0.902 25.267 0.427 -64.406
2967.688 0.421 -64.748 0.904 24.92 0.904 24.92 0.421 -64.748
2992.625 0.416 -65.087 0.907 24.576 0.907 24.576 0.416 -65.087
3017.563 0.41 -65.423 0.909 24.234 0.909 24.234 0.41 -65.423
3042.5 0.405 -65.757 0.912 23.895 0.912 23.895 0.405 -65.757
3067.438 0.4 -66.088 0.914 23.558 0.914 23.558 0.4 -66.088
3092.375 0.394 -66.417 0.917 23.223 0.917 23.223 0.394 -66.417
3117.313 0.389 -66.743 0.919 22.891 0.919 22.891 0.389 -66.743
3142.25 0.384 -67.067 0.921 22.561 0.921 22.561 0.384 -67.067
3167.188 0.378 -67.389 0.923 22.234 0.923 22.234 0.378 -67.389
3192.125 0.373 -67.708 0.925 21.909 0.925 21.909 0.373 -67.708
3217.063 0.368 -68.024 0.927 21.586 0.927 21.586 0.368 -68.024
3242 0.363 -68.338 0.929 21.265 0.929 21.265 0.363 -68.338
3266.938 0.358 -68.65 0.931 20.947 0.931 20.947 0.358 -68.65
3291.875 0.352 -68.959 0.933 20.631 0.933 20.631 0.352 -68.959
3316.813 0.347 -69.267 0.935 20.317 0.935 20.317 0.347 -69.267
3341.75 0.342 -69.571 0.937 20.005 0.937 20.005 0.342 -69.571
3366.688 0.337 -69.874 0.939 19.695 0.939 19.695 0.337 -69.874
3391.625 0.332 -70.174 0.941 19.387 0.941 19.387 0.332 -70.174
3416.563 0.327 -70.472 0.943 19.082 0.943 19.082 0.327 -70.472
3441.5 0.322 -70.768 0.944 18.778 0.944 18.778 0.322 -70.768
3466.438 0.317 -71.062 0.946 18.476 0.946 18.476 0.317 -71.062
3491.375 0.312 -71.353 0.948 18.177 0.948 18.177 0.312 -71.353
3516.313 0.307 -71.642 0.949 17.879 0.949 17.879 0.307 -71.642
3541.25 0.302 -71.929 0.951 17.584 0.951 17.584 0.302 -71.929
3566.188 0.297 -72.214 0.952 17.29 0.952 17.29 0.297 -72.214
3591.125 0.292 -72.497 0.954 16.998 0.954 16.998 0.292 -72.497
3616.063 0.288 -72.778 0.955 16.708 0.955 16.708 0.288 -72.778
3641 0.283 -73.056 0.957 16.42 0.957 16.42 0.283 -73.056
3665.938 0.278 -73.333 0.958 16.134 0.958 16.134 0.278 -73.333
3690.875 0.273 -73.607 0.959 15.85 0.959 15.85 0.273 -73.607
3715.813 0.268 -73.879 0.961 15.567 0.961 15.567 0.268 -73.879
3740.75 0.264 -74.149 0.962 15.286 0.962 15.286 0.264 -74.149
3765.688 0.259 -74.417 0.963 15.007 0.963 15.007 0.259 -74.417
3790.625 0.254 -74.683 0.965 14.73 0.965 14.73 0.254 -74.683
3815.563 0.25 -74.947 0.966 14.455 0.966 14.455 0.25 -74.947
3840.5 0.245 -75.209 0.967 14.181 0.967 14.181 0.245 -75.209
3865.438 0.24 -75.468 0.968 13.909 0.968 13.909 0.24 -75.468
3890.375 0.236 -75.726 0.969 13.638 0.969 13.638 0.236 -75.726
3915.313 0.231 -75.981 0.97 13.369 0.97 13.369 0.231 -75.981
3940.25 0.227 -76.235 0.971 13.102 0.971 13.102 0.227 -76.235
3965.188 0.222 -76.486 0.972 12.837 0.972 12.837 0.222 -76.486
3990.125 0.218 -76.735 0.973 12.573 0.973 12.573 0.218 -76.735
4015.063 0.213 -76.983 0.974 12.31 0.974 12.31 0.213 -76.983
4040 0.209 -77.228 0.975 12.049 0.975 12.049 0.209 -77.228
4064.938 0.204 -77.471 0.976 11.79 0.976 11.79 0.204 -77.471
4089.875 0.2 -77.711 0.977 11.532 0.977 11.532 0.2 -77.711
4114.813 0.196 -77.95 0.978 11.276 0.978 11.276 0.196 -77.95
4139.75 0.191 -78.186 0.979 11.021 0.979 11.021 0.191 -78.186
4164.688 0.187 -78.42 0.98 10.768 0.98 10.768 0.187 -78.42
4189.625 0.183 -78.652 0.981 10.516 0.981 10.516 0.183 -78.652
4214.563 0.178 -78.882 0.981 10.266 0.981 10.266 0.178 -78.882
4239.5 0.174 -79.109 0.982 10.017 0.982 10.017 0.174 -79.109
4264.438 0.17 -79.334 0.983 9.77 0.983 9.77 0.17 -79.334
4289.375 0.165 -79.556 0.984 9.524 0.984 9.524 0.165 -79.556
4314.313 0.161 -79.776 0.984 9.279 0.984 9.279 0.161 -79.776
4339.25 0.157 -79.994 0.985 9.036 0.985 9.036 0.157 -79.994
4364.188 0.153 -80.209 0.986 8.794 0.986 8.794 0.153 -80.209
4389.125 0.149 -80.421 0.986 8.553 0.986 8.553 0.149 -80.421
4414.063 0.145 -80.63 0.987 8.314 0.987 8.314 0.145 -80.63
4439 0.141 -80.837 0.987 8.076 0.987 8.076 0.141 -80.837
4463.938 0.136 -81.04 0.988 7.839 0.988 7.839 0.136 -81.04
4488.875 0.132 -81.24 0.989 7.604 0.989 7.604 0.132 -81.24
4513.813 0.128 -81.437 0.989 7.37 0.989 7.37 0.128 -81.437
4538.75 0.124 -81.631 0.99 7.137 0.99 7.137 0.124 -81.631
4563.688 0.12 -81.82 0.99 6.906 0.99 6.906 0.12 -81.82
4588.625 0.116 -82.006 0.991 6.675 0.991 6.675 0.116 -82.006
4613.563 0.112 -82.188 0.991 6.446 0.991 6.446 0.112 -82.188
4638.5 0.108 -82.366 0.991 6.218 0.991 6.218 0.108 -82.366
4663.438 0.104 -82.538 0.992 5.992 0.992 5.992 0.104 -82.538
4688.375 0.101 -82.706 0.992 5.766 0.992 5.766 0.101 -82.706
4713.313 0.097 -82.868 0.993 5.542 0.993 5.542 0.097 -82.868
4738.25 0.093 -83.024 0.993 5.319 0.993 5.319 0.093 -83.024
4763.188 0.089 -83.173 0.993 5.097 0.993 5.097 0.089 -83.173
4788.125 0.085 -83.316 0.994 4.876 0.994 4.876 0.085 -83.316
4813.063 0.081 -83.45 0.994 4.656 0.994 4.656 0.081 -83.45
4838 0.077 -83.574 0.994 4.438 0.994 4.438 0.077 -83.574
4862.938 0.074 -83.689 0.995 4.22 0.995 4.22 0.074 -83.689
4887.875 0.07 -83.792 0.995 4.004 0.995 4.004 0.07 -83.792
4912.813 0.066 -83.882 0.995 3.789 0.995 3.789 0.066 -83.882
4937.75 0.062 -83.957 0.995 3.575 0.995 3.575 0.062 -83.957
4962.688 0.059 -84.013 0.996 3.362 0.996 3.362 0.059 -84.013
4987.625 0.055 -84.048 0.996 3.149 0.996 3.149 0.055 -84.048
5012.563 0.051 -84.058 0.996 2.939 0.996 2.939 0.051 -84.058
5037.5 0.048 -84.037 0.996 2.729 0.996 2.729 0.048 -84.037
5062.438 0.044 -83.978 0.996 2.52 0.996 2.52 0.044 -83.978
5087.375 0.04 -83.871 0.996 2.312 0.996 2.312 0.04 -83.871
5112.313 0.037 -83.704 0.997 2.105 0.997 2.105 0.037 -83.704
5137.25 0.033 -83.457 0.997 1.899 0.997 1.899 0.033 -83.457
5162.188 0.03 -83.102 0.997 1.694 0.997 1.694 0.03 -83.102
5187.125 0.026 -82.599 0.997 1.49 0.997 1.49 0.026 -82.599
5212.063 0.023 -81.877 0.997 1.287 0.997 1.287 0.023 -81.877
5237 0.019 -80.823 0.997 1.085 0.997 1.085 0.019 -80.823
5261.938 0.016 -79.217 0.997 0.884 0.997 0.884 0.016 -79.217
5286.875 0.012 -76.606 0.997 0.684 0.997 0.684 0.012 -76.606
5311.813 8.884e-3 -71.867 0.997 0.485 0.997 0.485 8.884e-3 -71.867
5336.75 5.686e-3 -61.436 0.997 0.287 0.997 0.287 5.686e-3 -61.436
5361.688 3.115e-3 -30.055 0.997 0.09 0.997 0.09 3.115e-3 -30.055
5386.625 3.275e-3 34.561 0.997 -0.107 0.997 -0.107 3.275e-3 34.561
5411.563 5.922e-3 62.644 0.997 -0.302 0.997 -0.302 5.922e-3 62.644
5436.5 9.078e-3 72.244 0.997 -0.497 0.997 -0.497 9.078e-3 72.244
5461.438 0.012 76.71 0.997 -0.69 0.997 -0.69 0.012 76.71
5486.375 0.016 79.206 0.997 -0.883 0.997 -0.883 0.016 79.206
5511.313 0.019 80.757 0.997 -1.075 0.997 -1.075 0.019 80.757
5536.25 0.022 81.785 0.997 -1.266 0.997 -1.266 0.022 81.785
5561.188 0.026 82.496 0.997 -1.456 0.997 -1.456 0.026 82.496
5586.125 0.029 82.998 0.997 -1.646 0.997 -1.646 0.029 82.998
5611.063 0.032 83.358 0.997 -1.834 0.997 -1.834 0.032 83.358
5636 0.035 83.615 0.997 -2.022 0.997 -2.022 0.035 83.615
5660.938 0.039 83.796 0.997 -2.208 0.997 -2.208 0.039 83.796
5685.875 0.042 83.92 0.996 -2.394 0.996 -2.394 0.042 83.92
5710.813 0.045 83.999 0.996 -2.58 0.996 -2.58 0.045 83.999
5735.75 0.048 84.043 0.996 -2.764 0.996 -2.764 0.048 84.043
5760.688 0.051 84.058 0.996 -2.947 0.996 -2.947 0.051 84.058
5785.625 0.055 84.05 0.996 -3.13 0.996 -3.13 0.055 84.05
5810.563 0.058 84.023 0.996 -3.312 0.996 -3.312 0.058 84.023
5835.5 0.061 83.98 0.995 -3.493 0.995 -3.493 0.061 83.98
5860.438 0.064 83.924 0.995 -3.674 0.995 -3.674 0.064 83.924
5885.375 0.067 83.857 0.995 -3.853 0.995 -3.853 0.067 83.857
5910.313 0.07 83.78 0.995 -4.032 0.995 -4.032 0.07 83.78
5935.25 0.073 83.694 0.995 -4.21 0.995 -4.21 0.073 83.694
5960.188 0.077 83.602 0.994 -4.388 0.994 -4.388 0.077 83.602
5985.125 0.08 83.503 0.994 -4.564 0.994 -4.564 0.08 83.503
6010.063 0.083 83.4 0.994 -4.74 0.994 -4.74 0.083 83.4
6035 0.086 83.291 0.994 -4.915 0.994 -4.915 0.086 83.291
6059.938 0.089 83.178 0.993 -5.089 0.993 -5.089 0.089 83.178
6084.875 0.092 83.062 0.993 -5.263 0.993 -5.263 0.092 83.062
6109.813 0.095 82.943 0.993 -5.436 0.993 -5.436 0.095 82.943
6134.75 0.098 82.821 0.993 -5.608 0.993 -5.608 0.098 82.821
6159.688 0.101 82.696 0.992 -5.78 0.992 -5.78 0.101 82.696
6184.625 0.104 82.569 0.992 -5.951 0.992 -5.951 0.104 82.569
6209.563 0.107 82.441 0.992 -6.121 0.992 -6.121 0.107 82.441
6234.5 0.11 82.31 0.991 -6.29 0.991 -6.29 0.11 82.31
6259.438 0.113 82.178 0.991 -6.459 0.991 -6.459 0.113 82.178
6284.375 0.115 82.045 0.991 -6.627 0.991 -6.627 0.115 82.045
6309.313 0.118 81.911 0.99 -6.794 0.99 -6.794 0.118 81.911
6334.25 0.121 81.775 0.99 -6.961 0.99 -6.961 0.121 81.775
6359.188 0.124 81.639 0.99 -7.127 0.99 -7.127 0.124 81.639
6384.125 0.127 81.502 0.989 -7.292 0.989 -7.292 0.127 81.502
6409.063 0.13 81.364 0.989 -7.457 0.989 -7.457 0.13 81.364
6434 0.133 81.226 0.988 -7.621 0.988 -7.621 0.133 81.226
6458.938 0.135 81.087 0.988 -7.785 0.988 -7.785 0.135 81.087
6483.875 0.138 80.947 0.988 -7.947 0.988 -7.947 0.138 80.947
6508.813 0.141 80.808 0.987 -8.109 0.987 -8.109 0.141 80.808
6533.75 0.144 80.667 0.987 -8.271 0.987 -8.271 0.144 80.667
6558.688 0.147 80.527 0.987 -8.432 0.987 -8.432 0.147 80.527
6583.625 0.149 80.387 0.986 -8.592 0.986 -8.592 0.149 80.387
6608.563 0.152 80.246 0.986 -8.752 0.986 -8.752 0.152 80.246
6633.5 0.155 80.105 0.985 -8.911 0.985 -8.911 0.155 80.105
6658.438 0.158 79.964 0.985 -9.069 0.985 -9.069 0.158 79.964
6683.375 0.16 79.823 0.984 -9.227 0.984 -9.227 0.16 79.823
6708.313 0.163 79.682 0.984 -9.384 0.984 -9.384 0.163 79.682
6733.25 0.166 79.541 0.984 -9.541 0.984 -9.541 0.166 79.541
6758.188 0.168 79.4 0.983 -9.697 0.983 -9.697 0.168 79.4
6783.125 0.171 79.259 0.983 -9.852 0.983 -9.852 0.171 79.259
6808.063 0.174 79.118 0.982 -10.007 0.982 -10.007 0.174 79.118
6833 0.176 78.978 0.982 -10.161 0.982 -10.161 0.176 78.978
6857.938 0.179 78.837 0.981 -10.315 0.981 -10.315 0.179 78.837
6882.875 0.182 78.697 0.981 -10.468 0.981 -10.468 0.182 78.697
6907.813 0.184 78.556 0.98 -10.621 0.98 -10.621 0.184 78.556
6932.75 0.187 78.416 0.98 -10.773 0.98 -10.773 0.187 78.416
6957.688 0.19 78.276 0.979 -10.924 0.979 -10.924 0.19 78.276
6982.625 0.192 78.137 0.979 -11.075 0.979 -11.075 0.192 78.137
7007.563 0.195 77.997 0.978 -11.225 0.978 -11.225 0.195 77.997
7032.5 0.197 77.858 0.978 -11.375 0.978 -11.375 0.197 77.858
7057.438 0.2 77.719 0.977 -11.524 0.977 -11.524 0.2 77.719
7082.375 0.202 77.58 0.977 -11.673 0.977 -11.673 0.202 77.58
7107.313 0.205 77.442 0.976 -11.821 0.976 -11.821 0.205 77.442
7132.25 0.207 77.304 0.976 -11.968 0.976 -11.968 0.207 77.304
7157.188 0.21 77.166 0.975 -12.116 0.975 -12.116 0.21 77.166
7182.125 0.212 77.028 0.975 -12.262 0.975 -12.262 0.212 77.028
7207.063 0.215 76.891 0.974 -12.408 0.974 -12.408 0.215 76.891
7232 0.217 76.754 0.973 -12.553 0.973 -12.553 0.217 76.754
7256.938 0.22 76.617 0.973 -12.698 0.973 -12.698 0.22 76.617
7281.875 0.222 76.48 0.972 -12.843 0.972 -12.843 0.222 76.48
7306.813 0.225 76.344 0.972 -12.987 0.972 -12.987 0.225 76.344
7331.75 0.227 76.208 0.971 -13.13 0.971 -13.13 0.227 76.208
7356.688 0.23 76.073 0.971 -13.273 0.971 -13.273 0.23 76.073
7381.625 0.232 75.938 0.97 -13.415 0.97 -13.415 0.232 75.938
7406.563 0.234 75.803 0.97 -13.557 0.97 -13.557 0.234 75.803
7431.5 0.237 75.668 0.969 -13.699 0.969 -13.699 0.237 75.668
7456.438 0.239 75.534 0.968 -13.84 0.968 -13.84 0.239 75.534
7481.375 0.242 75.4 0.968 -13.98 0.968 -13.98 0.242 75.4
7506.313 0.244 75.267 0.967 -14.12 0.967 -14.12 0.244 75.267
7531.25 0.246 75.133 0.967 -14.259 0.967 -14.259 0.246 75.133
7556.188 0.249 75.001 0.966 -14.398 0.966 -14.398 0.249 75.001
7581.125 0.251 74.868 0.965 -14.537 0.965 -14.537 0.251 74.868
7606.063 0.253 74.736 0.965 -14.675 0.965 -14.675 0.253 74.736
7631 0.256 74.604 0.964 -14.812 0.964 -14.812 0.256 74.604
7655.938 0.258 74.473 0.964 -14.949 0.964 -14.949 0.258 74.473
7680.875 0.26 74.342 0.963 -15.086 0.963 -15.086 0.26 74.342
7705.813 0.263 74.211 0.962 -15.222 0.962 -15.222 0.263 74.211
7730.75 0.265 74.081 0.962 -15.358 0.962 -15.358 0.265 74.081
7755.688 0.267 73.95 0.961 -15.493 0.961 -15.493 0.267 73.95
7780.625 0.269 73.821 0.96 -15.628 0.96 -15.628 0.269 73.821
7805.563 0.272 73.691 0.96 -15.762 0.96 -15.762 0.272 73.691
7830.5 0.274 73.562 0.959 -15.896 0.959 -15.896 0.274 73.562
7855.438 0.276 73.434 0.959 -16.029 0.959 -16.029 0.276 73.434
7880.375 0.278 73.306 0.958 -16.162 0.958 -16.162 0.278 73.306
7905.313 0.281 73.178 0.957 -16.294 0.957 -16.294 0.281 73.178
7930.25 0.283 73.05 0.957 -16.426 0.957 -16.426 0.283 73.05
7955.188 0.285 72.923 0.956 -16.558 0.956 -16.558 0.285 72.923
7980.125 0.287 72.796 0.955 -16.689 0.955 -16.689 0.287 72.796
8005.063 0.289 72.67 0.955 -16.82 0.955 -16.82 0.289 72.67
8030 0.292 72.543 0.954 -16.95 0.954 -16.95 0.292 72.543
8054.938 0.294 72.418 0.953 -17.08 0.953 -17.08 0.294 72.418
8079.875 0.296 72.292 0.953 -17.209 0.953 -17.209 0.296 72.292
