! AVX Thin Film Operation		Date: April 2012 
! Description: Accu-P® Series, Thin Film, SMD, RF Capacitor
! Part Number: 12101J4R0ABTTR					
!	100	MHz	-	20.05	GHz			
!	Serial	Measurements						
!								
#	MHZ	S	MA	R	50			
!	S11	S21	S12	S22				
!	dB	Phase	dB	Phase	dB	Phase	dB	Phase
50 0.992 -7.164 0.125 82.755 0.125 82.755 0.992 -7.164
100 0.969 -14.124 0.244 75.772 0.244 75.772 0.969 -14.124
150 0.935 -20.712 0.354 69.161 0.354 69.161 0.935 -20.712
200 0.891 -26.811 0.451 63.038 0.451 63.038 0.891 -26.811
250 0.843 -32.365 0.535 57.46 0.535 57.46 0.843 -32.365
300 0.793 -37.363 0.607 52.437 0.607 52.437 0.793 -37.363
350 0.743 -41.829 0.667 47.947 0.667 47.947 0.743 -41.829
400 0.694 -45.804 0.717 43.945 0.717 43.945 0.694 -45.804
450 0.648 -49.341 0.759 40.383 0.759 40.383 0.648 -49.341
500 0.605 -52.49 0.793 37.206 0.793 37.206 0.605 -52.49
550 0.565 -55.302 0.822 34.367 0.822 34.367 0.565 -55.302
600 0.527 -57.82 0.846 31.821 0.846 31.821 0.527 -57.82
650 0.493 -60.083 0.867 29.528 0.867 29.528 0.493 -60.083
700 0.461 -62.127 0.884 27.454 0.884 27.454 0.461 -62.127
750 0.432 -63.979 0.899 25.57 0.899 25.57 0.432 -63.979
800 0.404 -65.664 0.911 23.851 0.911 23.851 0.404 -65.664
850 0.379 -67.204 0.922 22.276 0.922 22.276 0.379 -67.204
900 0.356 -68.617 0.931 20.827 0.931 20.827 0.356 -68.617
950 0.334 -69.917 0.939 19.488 0.939 19.488 0.334 -69.917
1000 0.313 -71.117 0.946 18.247 0.946 18.247 0.313 -71.117
1050 0.294 -72.229 0.952 17.092 0.952 17.092 0.294 -72.229
1100 0.276 -73.263 0.958 16.013 0.958 16.013 0.276 -73.263
1150 0.259 -74.225 0.962 15.002 0.962 15.002 0.259 -74.225
1200 0.243 -75.123 0.967 14.052 0.967 14.052 0.243 -75.123
1250 0.228 -75.963 0.97 13.156 0.97 13.156 0.228 -75.963
1300 0.213 -76.749 0.974 12.309 0.974 12.309 0.213 -76.749
1350 0.2 -77.486 0.976 11.507 0.976 11.507 0.2 -77.486
1400 0.186 -78.178 0.979 10.744 0.979 10.744 0.186 -78.178
1450 0.174 -78.826 0.981 10.018 0.981 10.018 0.174 -78.826
1500 0.162 -79.433 0.983 9.325 0.983 9.325 0.162 -79.433
1550 0.151 -80.002 0.985 8.661 0.985 8.661 0.151 -80.002
1600 0.14 -80.532 0.987 8.026 0.987 8.026 0.14 -80.532
1650 0.129 -81.024 0.988 7.416 0.988 7.416 0.129 -81.024
1700 0.119 -81.477 0.989 6.829 0.989 6.829 0.119 -81.477
1750 0.109 -81.89 0.991 6.263 0.991 6.263 0.109 -81.89
1800 0.1 -82.26 0.992 5.718 0.992 5.718 0.1 -82.26
1850 0.091 -82.582 0.992 5.19 0.992 5.19 0.091 -82.582
1900 0.082 -82.85 0.993 4.68 0.993 4.68 0.082 -82.85
1950 0.073 -83.054 0.994 4.185 0.994 4.185 0.073 -83.054
2000 0.065 -83.177 0.994 3.705 0.994 3.705 0.065 -83.177
2050 0.057 -83.196 0.995 3.238 0.995 3.238 0.057 -83.196
2100 0.049 -83.071 0.995 2.784 0.995 2.784 0.049 -83.071
2150 0.041 -82.734 0.996 2.342 0.996 2.342 0.041 -82.734
2200 0.034 -82.064 0.996 1.912 0.996 1.912 0.034 -82.064
2250 0.026 -80.804 0.996 1.491 0.996 1.491 0.026 -80.804
2300 0.019 -78.346 0.996 1.081 0.996 1.081 0.019 -78.346
2350 0.012 -72.785 0.996 0.68 0.996 0.68 0.012 -72.785
2400 6.122e-3 -54.603 0.996 0.287 0.996 0.287 6.122e-3 -54.603
2450 3.91e-3 25.69 0.996 -0.097 0.996 -0.097 3.91e-3 25.69
2500 8.993e-3 66.477 0.996 -0.474 0.996 -0.474 8.993e-3 66.477
2550 0.015 75.706 0.996 -0.843 0.996 -0.843 0.015 75.706
2600 0.021 79.297 0.996 -1.206 0.996 -1.206 0.021 79.297
2650 0.027 81.078 0.996 -1.562 0.996 -1.562 0.027 81.078
2700 0.034 82.063 0.996 -1.911 0.996 -1.911 0.034 82.063
2750 0.04 82.632 0.996 -2.255 0.996 -2.255 0.04 82.632
2800 0.045 82.958 0.995 -2.593 0.995 -2.593 0.045 82.958
2850 0.051 83.129 0.995 -2.926 0.995 -2.926 0.051 83.129
2900 0.057 83.197 0.995 -3.254 0.995 -3.254 0.057 83.197
2950 0.062 83.194 0.995 -3.577 0.995 -3.577 0.062 83.194
3000 0.068 83.139 0.994 -3.895 0.994 -3.895 0.068 83.139
3050 0.073 83.046 0.994 -4.209 0.994 -4.209 0.073 83.046
3100 0.079 82.924 0.993 -4.518 0.993 -4.518 0.079 82.924
3150 0.084 82.78 0.993 -4.824 0.993 -4.824 0.084 82.78
3200 0.089 82.619 0.992 -5.125 0.992 -5.125 0.089 82.619
3250 0.095 82.445 0.992 -5.423 0.992 -5.423 0.095 82.445
3300 0.1 82.26 0.992 -5.717 0.992 -5.717 0.1 82.26
3350 0.105 82.067 0.991 -6.008 0.991 -6.008 0.105 82.067
3400 0.11 81.867 0.99 -6.296 0.99 -6.296 0.11 81.867
3450 0.115 81.662 0.99 -6.58 0.99 -6.58 0.115 81.662
3500 0.12 81.452 0.989 -6.862 0.989 -6.862 0.12 81.452
3550 0.124 81.239 0.989 -7.14 0.989 -7.14 0.124 81.239
3600 0.129 81.024 0.988 -7.416 0.988 -7.416 0.129 81.024
3650 0.134 80.806 0.987 -7.688 0.987 -7.688 0.134 80.806
3700 0.139 80.587 0.987 -7.959 0.987 -7.959 0.139 80.587
3750 0.143 80.367 0.986 -8.226 0.986 -8.226 0.143 80.367
3800 0.148 80.145 0.986 -8.491 0.986 -8.491 0.148 80.145
3850 0.152 79.923 0.985 -8.754 0.985 -8.754 0.152 79.923
3900 0.157 79.701 0.984 -9.015 0.984 -9.015 0.157 79.701
3950 0.161 79.478 0.983 -9.273 0.983 -9.273 0.161 79.478
4000 0.166 79.256 0.983 -9.529 0.983 -9.529 0.166 79.256
4050 0.17 79.033 0.982 -9.783 0.982 -9.783 0.17 79.033
4100 0.174 78.811 0.981 -10.035 0.981 -10.035 0.174 78.811
4150 0.179 78.589 0.98 -10.285 0.98 -10.285 0.179 78.589
4200 0.183 78.367 0.98 -10.533 0.98 -10.533 0.183 78.367
4250 0.187 78.146 0.979 -10.779 0.979 -10.779 0.187 78.146
4300 0.191 77.926 0.978 -11.023 0.978 -11.023 0.191 77.926
4350 0.195 77.706 0.977 -11.266 0.977 -11.266 0.195 77.706
4400 0.2 77.486 0.976 -11.506 0.976 -11.506 0.2 77.486
4450 0.204 77.268 0.976 -11.745 0.976 -11.745 0.204 77.268
4500 0.208 77.05 0.975 -11.983 0.975 -11.983 0.208 77.05
4550 0.212 76.833 0.974 -12.219 0.974 -12.219 0.212 76.833
4600 0.216 76.616 0.973 -12.453 0.973 -12.453 0.216 76.616
4650 0.22 76.4 0.972 -12.686 0.972 -12.686 0.22 76.4
4700 0.224 76.186 0.971 -12.917 0.971 -12.917 0.224 76.186
4750 0.227 75.971 0.97 -13.147 0.97 -13.147 0.227 75.971
4800 0.231 75.758 0.969 -13.375 0.969 -13.375 0.231 75.758
4850 0.235 75.546 0.968 -13.602 0.968 -13.602 0.235 75.546
4900 0.239 75.334 0.968 -13.827 0.968 -13.827 0.239 75.334
4950 0.243 75.123 0.967 -14.051 0.967 -14.051 0.243 75.123
5000 0.247 74.913 0.966 -14.274 0.966 -14.274 0.247 74.913
5050 0.25 74.704 0.965 -14.496 0.965 -14.496 0.25 74.704
5100 0.254 74.496 0.964 -14.716 0.964 -14.716 0.254 74.496
5150 0.258 74.288 0.963 -14.935 0.963 -14.935 0.258 74.288
5200 0.261 74.081 0.962 -15.153 0.962 -15.153 0.261 74.081
5250 0.265 73.876 0.961 -15.37 0.961 -15.37 0.265 73.876
5300 0.269 73.67 0.96 -15.585 0.96 -15.585 0.269 73.67
5350 0.272 73.466 0.959 -15.799 0.959 -15.799 0.272 73.466
5400 0.276 73.263 0.958 -16.013 0.958 -16.013 0.276 73.263
5450 0.279 73.06 0.957 -16.225 0.957 -16.225 0.279 73.06
5500 0.283 72.859 0.956 -16.436 0.956 -16.436 0.283 72.859
5550 0.286 72.658 0.955 -16.645 0.955 -16.645 0.286 72.658
5600 0.29 72.457 0.954 -16.854 0.954 -16.854 0.29 72.457
5650 0.293 72.258 0.953 -17.062 0.953 -17.062 0.293 72.258
5700 0.297 72.06 0.951 -17.269 0.951 -17.269 0.297 72.06
5750 0.3 71.862 0.95 -17.474 0.95 -17.474 0.3 71.862
5800 0.304 71.665 0.949 -17.679 0.949 -17.679 0.304 71.665
5850 0.307 71.469 0.948 -17.883 0.948 -17.883 0.307 71.469
5900 0.31 71.273 0.947 -18.085 0.947 -18.085 0.31 71.273
5950 0.314 71.079 0.946 -18.287 0.946 -18.287 0.314 71.079
6000 0.317 70.885 0.945 -18.488 0.945 -18.488 0.317 70.885
6050 0.32 70.692 0.944 -18.688 0.944 -18.688 0.32 70.692
6100 0.324 70.499 0.943 -18.887 0.943 -18.887 0.324 70.499
6150 0.327 70.308 0.942 -19.085 0.942 -19.085 0.327 70.308
6200 0.33 70.117 0.94 -19.282 0.94 -19.282 0.33 70.117
6250 0.333 69.927 0.939 -19.478 0.939 -19.478 0.333 69.927
6300 0.337 69.738 0.938 -19.673 0.938 -19.673 0.337 69.738
6350 0.34 69.549 0.937 -19.867 0.937 -19.867 0.34 69.549
6400 0.343 69.361 0.936 -20.061 0.936 -20.061 0.343 69.361
6450 0.346 69.174 0.935 -20.254 0.935 -20.254 0.346 69.174
6500 0.349 68.987 0.934 -20.445 0.934 -20.445 0.349 68.987
6550 0.352 68.802 0.932 -20.636 0.932 -20.636 0.352 68.802
6600 0.356 68.617 0.931 -20.827 0.931 -20.827 0.356 68.617
6650 0.359 68.433 0.93 -21.016 0.93 -21.016 0.359 68.433
6700 0.362 68.249 0.929 -21.204 0.929 -21.204 0.362 68.249
6750 0.365 68.066 0.928 -21.392 0.928 -21.392 0.365 68.066
6800 0.368 67.884 0.926 -21.579 0.926 -21.579 0.368 67.884
6850 0.371 67.702 0.925 -21.765 0.925 -21.765 0.371 67.702
6900 0.374 67.522 0.924 -21.95 0.924 -21.95 0.374 67.522
6950 0.377 67.342 0.923 -22.135 0.923 -22.135 0.377 67.342
7000 0.38 67.162 0.922 -22.319 0.922 -22.319 0.38 67.162
7050 0.383 66.983 0.92 -22.502 0.92 -22.502 0.383 66.983
7100 0.386 66.805 0.919 -22.684 0.919 -22.684 0.386 66.805
7150 0.389 66.628 0.918 -22.866 0.918 -22.866 0.389 66.628
7200 0.391 66.451 0.917 -23.046 0.917 -23.046 0.391 66.451
7250 0.394 66.275 0.916 -23.226 0.916 -23.226 0.394 66.275
7300 0.397 66.1 0.914 -23.406 0.914 -23.406 0.397 66.1
7350 0.4 65.925 0.913 -23.584 0.913 -23.584 0.4 65.925
7400 0.403 65.751 0.912 -23.762 0.912 -23.762 0.403 65.751
7450 0.406 65.578 0.911 -23.939 0.911 -23.939 0.406 65.578
7500 0.409 65.405 0.909 -24.115 0.909 -24.115 0.409 65.405
7550 0.411 65.233 0.908 -24.291 0.908 -24.291 0.411 65.233
7600 0.414 65.061 0.907 -24.466 0.907 -24.466 0.414 65.061
7650 0.417 64.891 0.906 -24.64 0.906 -24.64 0.417 64.891
7700 0.42 64.72 0.904 -24.814 0.904 -24.814 0.42 64.72
7750 0.422 64.551 0.903 -24.987 0.903 -24.987 0.422 64.551
7800 0.425 64.382 0.902 -25.159 0.902 -25.159 0.425 64.382
7850 0.428 64.213 0.9 -25.33 0.9 -25.33 0.428 64.213
7900 0.431 64.046 0.899 -25.501 0.899 -25.501 0.431 64.046
7950 0.433 63.879 0.898 -25.671 0.898 -25.671 0.433 63.879
8000 0.436 63.712 0.897 -25.841 0.897 -25.841 0.436 63.712
8050 0.439 63.546 0.895 -26.01 0.895 -26.01 0.439 63.546
8100 0.441 63.381 0.894 -26.178 0.894 -26.178 0.441 63.381
8150 0.444 63.217 0.893 -26.345 0.893 -26.345 0.444 63.217
8200 0.446 63.053 0.891 -26.512 0.891 -26.512 0.446 63.053
8250 0.449 62.889 0.89 -26.678 0.89 -26.678 0.449 62.889
8300 0.452 62.726 0.889 -26.844 0.889 -26.844 0.452 62.726
8350 0.454 62.564 0.888 -27.009 0.888 -27.009 0.454 62.564
8400 0.457 62.403 0.886 -27.173 0.886 -27.173 0.457 62.403
8450 0.459 62.242 0.885 -27.337 0.885 -27.337 0.459 62.242
8500 0.462 62.081 0.884 -27.5 0.884 -27.5 0.462 62.081
8550 0.464 61.921 0.882 -27.662 0.882 -27.662 0.464 61.921
8600 0.467 61.762 0.881 -27.824 0.881 -27.824 0.467 61.762
8650 0.469 61.603 0.88 -27.985 0.88 -27.985 0.469 61.603
8700 0.472 61.445 0.878 -28.146 0.878 -28.146 0.472 61.445
8750 0.474 61.288 0.877 -28.305 0.877 -28.305 0.474 61.288
8800 0.477 61.131 0.876 -28.465 0.876 -28.465 0.477 61.131
8850 0.479 60.974 0.874 -28.623 0.874 -28.623 0.479 60.974
8900 0.481 60.819 0.873 -28.782 0.873 -28.782 0.481 60.819
8950 0.484 60.663 0.872 -28.939 0.872 -28.939 0.484 60.663
9000 0.486 60.509 0.87 -29.096 0.87 -29.096 0.486 60.509
9050 0.489 60.355 0.869 -29.252 0.869 -29.252 0.489 60.355
9100 0.491 60.201 0.868 -29.408 0.868 -29.408 0.491 60.201
9150 0.493 60.048 0.866 -29.563 0.866 -29.563 0.493 60.048
9200 0.496 59.896 0.865 -29.718 0.865 -29.718 0.496 59.896
9250 0.498 59.744 0.864 -29.871 0.864 -29.871 0.498 59.744
9300 0.5 59.593 0.862 -30.025 0.862 -30.025 0.5 59.593
9350 0.503 59.442 0.861 -30.178 0.861 -30.178 0.503 59.442
9400 0.505 59.292 0.86 -30.33 0.86 -30.33 0.505 59.292
9450 0.507 59.142 0.858 -30.481 0.858 -30.481 0.507 59.142
9500 0.51 58.993 0.857 -30.632 0.857 -30.632 0.51 58.993
9550 0.512 58.845 0.856 -30.783 0.856 -30.783 0.512 58.845
9600 0.514 58.697 0.854 -30.933 0.854 -30.933 0.514 58.697
9650 0.516 58.549 0.853 -31.082 0.853 -31.082 0.516 58.549
9700 0.518 58.402 0.852 -31.231 0.852 -31.231 0.518 58.402
9750 0.521 58.256 0.85 -31.379 0.85 -31.379 0.521 58.256
9800 0.523 58.11 0.849 -31.527 0.849 -31.527 0.523 58.11
9850 0.525 57.965 0.848 -31.674 0.848 -31.674 0.525 57.965
9900 0.527 57.82 0.846 -31.821 0.846 -31.821 0.527 57.82
9950 0.529 57.676 0.845 -31.967 0.845 -31.967 0.529 57.676
10000 0.532 57.532 0.844 -32.112 0.844 -32.112 0.532 57.532
10050 0.534 57.389 0.842 -32.257 0.842 -32.257 0.534 57.389
10100 0.536 57.246 0.841 -32.401 0.841 -32.401 0.536 57.246
10150 0.538 57.104 0.84 -32.545 0.84 -32.545 0.538 57.104
10200 0.54 56.962 0.838 -32.688 0.838 -32.688 0.54 56.962
10250 0.542 56.821 0.837 -32.831 0.837 -32.831 0.542 56.821
10300 0.544 56.68 0.836 -32.973 0.836 -32.973 0.544 56.68
10350 0.546 56.54 0.834 -33.115 0.834 -33.115 0.546 56.54
10400 0.548 56.401 0.833 -33.256 0.833 -33.256 0.548 56.401
10450 0.55 56.262 0.832 -33.397 0.832 -33.397 0.55 56.262
10500 0.552 56.123 0.83 -33.537 0.83 -33.537 0.552 56.123
10550 0.555 55.985 0.829 -33.677 0.829 -33.677 0.555 55.985
10600 0.557 55.847 0.828 -33.816 0.828 -33.816 0.557 55.847
10650 0.559 55.71 0.826 -33.954 0.826 -33.954 0.559 55.71
10700 0.561 55.574 0.825 -34.092 0.825 -34.092 0.561 55.574
10750 0.563 55.437 0.824 -34.23 0.824 -34.23 0.563 55.437
10800 0.565 55.302 0.822 -34.367 0.822 -34.367 0.565 55.302
10850 0.566 55.167 0.821 -34.504 0.821 -34.504 0.566 55.167
10900 0.568 55.032 0.819 -34.64 0.819 -34.64 0.568 55.032
10950 0.57 54.898 0.818 -34.775 0.818 -34.775 0.57 54.898
11000 0.572 54.764 0.817 -34.91 0.817 -34.91 0.572 54.764
11050 0.574 54.631 0.815 -35.045 0.815 -35.045 0.574 54.631
11100 0.576 54.499 0.814 -35.179 0.814 -35.179 0.576 54.499
11150 0.578 54.366 0.813 -35.312 0.813 -35.312 0.578 54.366
11200 0.58 54.235 0.811 -35.445 0.811 -35.445 0.58 54.235
11250 0.582 54.104 0.81 -35.578 0.81 -35.578 0.582 54.104
11300 0.584 53.973 0.809 -35.71 0.809 -35.71 0.584 53.973
11350 0.586 53.843 0.807 -35.841 0.807 -35.841 0.586 53.843
11400 0.587 53.713 0.806 -35.972 0.806 -35.972 0.587 53.713
11450 0.589 53.583 0.805 -36.103 0.805 -36.103 0.589 53.583
11500 0.591 53.455 0.803 -36.233 0.803 -36.233 0.591 53.455
11550 0.593 53.326 0.802 -36.363 0.802 -36.363 0.593 53.326
11600 0.595 53.198 0.801 -36.492 0.801 -36.492 0.595 53.198
11650 0.597 53.071 0.799 -36.62 0.799 -36.62 0.597 53.071
11700 0.598 52.944 0.798 -36.749 0.798 -36.749 0.598 52.944
11750 0.6 52.817 0.797 -36.876 0.797 -36.876 0.6 52.817
11800 0.602 52.691 0.795 -37.004 0.795 -37.004 0.602 52.691
11850 0.604 52.566 0.794 -37.13 0.794 -37.13 0.604 52.566
11900 0.605 52.44 0.793 -37.257 0.793 -37.257 0.605 52.44
11950 0.607 52.316 0.791 -37.382 0.791 -37.382 0.607 52.316
12000 0.609 52.192 0.79 -37.508 0.79 -37.508 0.609 52.192
12050 0.611 52.068 0.789 -37.633 0.789 -37.633 0.611 52.068
12100 0.612 51.944 0.787 -37.757 0.787 -37.757 0.612 51.944
12150 0.614 51.822 0.786 -37.881 0.786 -37.881 0.614 51.822
12200 0.616 51.699 0.785 -38.005 0.785 -38.005 0.616 51.699
12250 0.617 51.577 0.783 -38.128 0.783 -38.128 0.617 51.577
12300 0.619 51.455 0.782 -38.25 0.782 -38.25 0.619 51.455
12350 0.621 51.334 0.781 -38.373 0.781 -38.373 0.621 51.334
12400 0.622 51.214 0.779 -38.494 0.779 -38.494 0.622 51.214
12450 0.624 51.093 0.778 -38.616 0.778 -38.616 0.624 51.093
12500 0.626 50.974 0.777 -38.736 0.777 -38.736 0.626 50.974
12550 0.627 50.854 0.776 -38.857 0.776 -38.857 0.627 50.854
12600 0.629 50.735 0.774 -38.977 0.774 -38.977 0.629 50.735
12650 0.631 50.617 0.773 -39.096 0.773 -39.096 0.631 50.617
12700 0.632 50.499 0.772 -39.215 0.772 -39.215 0.632 50.499
12750 0.634 50.381 0.77 -39.334 0.77 -39.334 0.634 50.381
12800 0.635 50.264 0.769 -39.452 0.769 -39.452 0.635 50.264
12850 0.637 50.147 0.768 -39.57 0.768 -39.57 0.637 50.147
12900 0.639 50.031 0.766 -39.687 0.766 -39.687 0.639 50.031
12950 0.64 49.915 0.765 -39.804 0.765 -39.804 0.64 49.915
13000 0.642 49.799 0.764 -39.921 0.764 -39.921 0.642 49.799
13050 0.643 49.684 0.762 -40.037 0.762 -40.037 0.643 49.684
13100 0.645 49.569 0.761 -40.152 0.761 -40.152 0.645 49.569
13150 0.646 49.455 0.76 -40.268 0.76 -40.268 0.646 49.455
13200 0.648 49.341 0.759 -40.382 0.759 -40.382 0.648 49.341
13250 0.649 49.228 0.757 -40.497 0.757 -40.497 0.649 49.228
13300 0.651 49.115 0.756 -40.611 0.756 -40.611 0.651 49.115
13350 0.652 49.002 0.755 -40.724 0.755 -40.724 0.652 49.002
13400 0.654 48.89 0.753 -40.837 0.753 -40.837 0.654 48.89
13450 0.655 48.778 0.752 -40.95 0.752 -40.95 0.655 48.778
13500 0.657 48.666 0.751 -41.062 0.751 -41.062 0.657 48.666
13550 0.658 48.555 0.75 -41.174 0.75 -41.174 0.658 48.555
13600 0.66 48.445 0.748 -41.286 0.748 -41.286 0.66 48.445
13650 0.661 48.335 0.747 -41.397 0.747 -41.397 0.661 48.335
13700 0.663 48.225 0.746 -41.507 0.746 -41.507 0.663 48.225
13750 0.664 48.115 0.744 -41.618 0.744 -41.618 0.664 48.115
13800 0.666 48.006 0.743 -41.728 0.743 -41.728 0.666 48.006
13850 0.667 47.898 0.742 -41.837 0.742 -41.837 0.667 47.898
13900 0.668 47.789 0.741 -41.946 0.741 -41.946 0.668 47.789
13950 0.67 47.681 0.739 -42.055 0.739 -42.055 0.67 47.681
14000 0.671 47.574 0.738 -42.163 0.738 -42.163 0.671 47.574
14050 0.673 47.467 0.737 -42.271 0.737 -42.271 0.673 47.467
14100 0.674 47.36 0.736 -42.379 0.736 -42.379 0.674 47.36
14150 0.675 47.254 0.734 -42.486 0.734 -42.486 0.675 47.254
14200 0.677 47.148 0.733 -42.592 0.733 -42.592 0.677 47.148
14250 0.678 47.042 0.732 -42.699 0.732 -42.699 0.678 47.042
14300 0.68 46.937 0.731 -42.805 0.731 -42.805 0.68 46.937
14350 0.681 46.832 0.729 -42.91 0.729 -42.91 0.681 46.832
14400 0.682 46.728 0.728 -43.015 0.728 -43.015 0.682 46.728
14450 0.684 46.624 0.727 -43.12 0.727 -43.12 0.684 46.624
14500 0.685 46.52 0.726 -43.225 0.726 -43.225 0.685 46.52
14550 0.686 46.417 0.724 -43.329 0.724 -43.329 0.686 46.417
14600 0.688 46.314 0.723 -43.432 0.723 -43.432 0.688 46.314
14650 0.689 46.211 0.722 -43.536 0.722 -43.536 0.689 46.211
14700 0.69 46.109 0.721 -43.639 0.721 -43.639 0.69 46.109
14750 0.691 46.007 0.719 -43.741 0.719 -43.741 0.691 46.007
14800 0.693 45.906 0.718 -43.843 0.718 -43.843 0.693 45.906
14850 0.694 45.805 0.717 -43.945 0.717 -43.945 0.694 45.805
14900 0.695 45.704 0.716 -44.047 0.716 -44.047 0.695 45.704
14950 0.697 45.603 0.715 -44.148 0.715 -44.148 0.697 45.603
15000 0.698 45.503 0.713 -44.248 0.713 -44.248 0.698 45.503
15050 0.699 45.404 0.712 -44.349 0.712 -44.349 0.699 45.404
15100 0.7 45.304 0.711 -44.449 0.711 -44.449 0.7 45.304
15150 0.702 45.205 0.71 -44.548 0.71 -44.548 0.702 45.205
15200 0.703 45.107 0.708 -44.648 0.708 -44.648 0.703 45.107
15250 0.704 45.009 0.707 -44.747 0.707 -44.747 0.704 45.009
15300 0.705 44.911 0.706 -44.845 0.706 -44.845 0.705 44.911
15350 0.706 44.813 0.705 -44.943 0.705 -44.943 0.706 44.813
15400 0.708 44.716 0.704 -45.041 0.704 -45.041 0.708 44.716
15450 0.709 44.619 0.702 -45.139 0.702 -45.139 0.709 44.619
15500 0.71 44.522 0.701 -45.236 0.701 -45.236 0.71 44.522
15550 0.711 44.426 0.7 -45.333 0.7 -45.333 0.711 44.426
15600 0.712 44.33 0.699 -45.429 0.699 -45.429 0.712 44.33
15650 0.714 44.235 0.698 -45.525 0.698 -45.525 0.714 44.235
15700 0.715 44.14 0.696 -45.621 0.696 -45.621 0.715 44.14
15750 0.716 44.045 0.695 -45.717 0.695 -45.717 0.716 44.045
15800 0.717 43.95 0.694 -45.812 0.694 -45.812 0.717 43.95
15850 0.718 43.856 0.693 -45.907 0.693 -45.907 0.718 43.856
15900 0.719 43.762 0.692 -46.001 0.692 -46.001 0.719 43.762
15950 0.72 43.669 0.69 -46.095 0.69 -46.095 0.72 43.669
16000 0.722 43.576 0.689 -46.189 0.689 -46.189 0.722 43.576
16050 0.723 43.483 0.688 -46.282 0.688 -46.282 0.723 43.483
16100 0.724 43.39 0.687 -46.375 0.687 -46.375 0.724 43.39
16150 0.725 43.298 0.686 -46.468 0.686 -46.468 0.725 43.298
16200 0.726 43.206 0.685 -46.561 0.685 -46.561 0.726 43.206
16250 0.727 43.115 0.683 -46.653 0.683 -46.653 0.727 43.115
16300 0.728 43.023 0.682 -46.745 0.682 -46.745 0.728 43.023
16350 0.729 42.932 0.681 -46.836 0.681 -46.836 0.729 42.932
16400 0.73 42.842 0.68 -46.927 0.68 -46.927 0.73 42.842
16450 0.732 42.752 0.679 -47.018 0.679 -47.018 0.732 42.752
16500 0.733 42.662 0.678 -47.109 0.678 -47.109 0.733 42.662
16550 0.734 42.572 0.677 -47.199 0.677 -47.199 0.734 42.572
16600 0.735 42.483 0.675 -47.289 0.675 -47.289 0.735 42.483
16650 0.736 42.394 0.674 -47.378 0.674 -47.378 0.736 42.394
16700 0.737 42.305 0.673 -47.467 0.673 -47.467 0.737 42.305
16750 0.738 42.217 0.672 -47.556 0.672 -47.556 0.738 42.217
16800 0.739 42.129 0.671 -47.645 0.671 -47.645 0.739 42.129
16850 0.74 42.041 0.67 -47.733 0.67 -47.733 0.74 42.041
16900 0.741 41.953 0.669 -47.821 0.669 -47.821 0.741 41.953
