! AVX Thin Film Operation		Date: April 2012 
! Description: Accu-P® Series, Thin Film, SMD, RF Capacitor
! Part Number: 12101J7R5BBTTR					
!	100	MHz	-	10.05	GHz			
!	Serial	Measurements						
!								
#	MHZ	S	MA	R	50			
!	S11	S21	S12	S22				
!	dB	Phase	dB	Phase	dB	Phase	dB	Phase
100	0.904	-25.305	0.427	64.668	0.427	64.668	0.904	-25.305
109.812	0.887	-27.454	0.461	62.516	0.461	62.516	0.887	-27.454
119.623	0.87	-29.527	0.493	60.441	0.493	60.441	0.87	-29.527
129.435	0.852	-31.522	0.523	58.442	0.523	58.442	0.852	-31.522
139.247	0.834	-33.441	0.551	56.521	0.551	56.521	0.834	-33.441
149.058	0.816	-35.284	0.578	54.676	0.578	54.676	0.816	-35.284
158.87	0.798	-37.051	0.603	52.906	0.603	52.906	0.798	-37.051
168.682	0.779	-38.744	0.626	51.21	0.626	51.21	0.779	-38.744
178.494	0.761	-40.367	0.648	49.585	0.648	49.585	0.761	-40.367
188.305	0.743	-41.92	0.668	48.029	0.668	48.029	0.743	-41.92
198.117	0.726	-43.406	0.687	46.54	0.687	46.54	0.726	-43.406
207.929	0.709	-44.828	0.705	45.115	0.705	45.115	0.709	-44.828
217.74	0.692	-46.188	0.722	43.752	0.722	43.752	0.692	-46.188
227.552	0.675	-47.49	0.737	42.447	0.737	42.447	0.675	-47.49
237.364	0.659	-48.736	0.752	41.199	0.752	41.199	0.659	-48.736
247.175	0.643	-49.928	0.765	40.004	0.765	40.004	0.643	-49.928
256.987	0.627	-51.069	0.778	38.859	0.778	38.859	0.627	-51.069
266.799	0.612	-52.163	0.79	37.763	0.79	37.763	0.612	-52.163
276.611	0.598	-53.21	0.801	36.713	0.801	36.713	0.598	-53.21
286.422	0.584	-54.213	0.811	35.707	0.811	35.707	0.584	-54.213
296.234	0.57	-55.176	0.821	34.742	0.821	34.742	0.57	-55.176
306.046	0.557	-56.099	0.83	33.815	0.83	33.815	0.557	-56.099
315.857	0.544	-56.985	0.839	32.926	0.839	32.926	0.544	-56.985
325.669	0.531	-57.836	0.847	32.072	0.847	32.072	0.531	-57.836
335.481	0.519	-58.654	0.854	31.252	0.854	31.252	0.519	-58.654
345.292	0.507	-59.44	0.861	30.463	0.861	30.463	0.507	-59.44
355.104	0.496	-60.196	0.868	29.704	0.868	29.704	0.496	-60.196
364.916	0.484	-60.924	0.874	28.973	0.874	28.973	0.484	-60.924
374.727	0.474	-61.625	0.88	28.269	0.88	28.269	0.474	-61.625
384.539	0.463	-62.3	0.885	27.59	0.885	27.59	0.463	-62.3
394.351	0.453	-62.951	0.891	26.936	0.891	26.936	0.453	-62.951
404.163	0.443	-63.579	0.896	26.305	0.896	26.305	0.443	-63.579
413.974	0.434	-64.185	0.9	25.696	0.9	25.696	0.434	-64.185
423.786	0.424	-64.771	0.905	25.107	0.905	25.107	0.424	-64.771
433.598	0.415	-65.336	0.909	24.538	0.909	24.538	0.415	-65.336
443.409	0.407	-65.883	0.913	23.988	0.913	23.988	0.407	-65.883
453.221	0.398	-66.412	0.916	23.456	0.916	23.456	0.398	-66.412
463.033	0.39	-66.924	0.92	22.941	0.92	22.941	0.39	-66.924
472.844	0.382	-67.42	0.923	22.442	0.923	22.442	0.382	-67.42
482.656	0.374	-67.9	0.927	21.958	0.927	21.958	0.374	-67.9
492.468	0.366	-68.365	0.93	21.489	0.93	21.489	0.366	-68.365
502.279	0.359	-68.817	0.932	21.034	0.932	21.034	0.359	-68.817
512.091	0.352	-69.255	0.935	20.593	0.935	20.593	0.352	-69.255
521.903	0.345	-69.68	0.938	20.164	0.938	20.164	0.345	-69.68
531.715	0.338	-70.093	0.94	19.748	0.94	19.748	0.338	-70.093
541.526	0.331	-70.494	0.943	19.343	0.943	19.343	0.331	-70.494
551.338	0.325	-70.884	0.945	18.949	0.945	18.949	0.325	-70.884
561.15	0.318	-71.264	0.947	18.566	0.947	18.566	0.318	-71.264
570.961	0.312	-71.633	0.949	18.193	0.949	18.193	0.312	-71.633
580.773	0.306	-71.992	0.951	17.83	0.951	17.83	0.306	-71.992
590.585	0.3	-72.342	0.953	17.477	0.953	17.477	0.3	-72.342
600.396	0.295	-72.682	0.955	17.132	0.955	17.132	0.295	-72.682
610.208	0.289	-73.014	0.956	16.796	0.956	16.796	0.289	-73.014
620.02	0.283	-73.338	0.958	16.468	0.958	16.468	0.283	-73.338
629.832	0.278	-73.654	0.96	16.148	0.96	16.148	0.278	-73.654
639.643	0.273	-73.962	0.961	15.836	0.961	15.836	0.273	-73.962
649.455	0.268	-74.263	0.963	15.531	0.963	15.531	0.268	-74.263
659.267	0.263	-74.556	0.964	15.234	0.964	15.234	0.263	-74.556
669.078	0.258	-74.843	0.965	14.943	0.965	14.943	0.258	-74.843
678.89	0.253	-75.123	0.966	14.658	0.966	14.658	0.253	-75.123
688.702	0.248	-75.397	0.968	14.38	0.968	14.38	0.248	-75.397
698.513	0.244	-75.665	0.969	14.108	0.969	14.108	0.244	-75.665
708.325	0.239	-75.926	0.97	13.841	0.97	13.841	0.239	-75.926
718.137	0.235	-76.182	0.971	13.581	0.971	13.581	0.235	-76.182
727.948	0.23	-76.433	0.972	13.325	0.972	13.325	0.23	-76.433
737.76	0.226	-76.678	0.973	13.075	0.973	13.075	0.226	-76.678
747.572	0.222	-76.919	0.974	12.83	0.974	12.83	0.222	-76.919
757.384	0.218	-77.154	0.975	12.59	0.975	12.59	0.218	-77.154
767.195	0.214	-77.384	0.976	12.354	0.976	12.354	0.214	-77.384
777.007	0.21	-77.61	0.977	12.123	0.977	12.123	0.21	-77.61
786.819	0.206	-77.832	0.978	11.896	0.978	11.896	0.206	-77.832
796.63	0.202	-78.049	0.978	11.674	0.978	11.674	0.202	-78.049
806.442	0.199	-78.262	0.979	11.456	0.979	11.456	0.199	-78.262
816.254	0.195	-78.471	0.98	11.241	0.98	11.241	0.195	-78.471
826.065	0.191	-78.676	0.981	11.031	0.981	11.031	0.191	-78.676
835.877	0.188	-78.877	0.981	10.824	0.981	10.824	0.188	-78.877
845.689	0.184	-79.074	0.982	10.621	0.982	10.621	0.184	-79.074
855.5	0.181	-79.268	0.983	10.421	0.983	10.421	0.181	-79.268
865.312	0.178	-79.458	0.983	10.224	0.983	10.224	0.178	-79.458
875.124	0.174	-79.645	0.984	10.031	0.984	10.031	0.174	-79.645
884.936	0.171	-79.829	0.984	9.841	0.984	9.841	0.171	-79.829
894.747	0.168	-80.009	0.985	9.654	0.985	9.654	0.168	-80.009
904.559	0.165	-80.187	0.985	9.47	0.985	9.47	0.165	-80.187
914.371	0.161	-80.361	0.986	9.289	0.986	9.289	0.161	-80.361
924.182	0.158	-80.532	0.986	9.111	0.986	9.111	0.158	-80.532
933.994	0.155	-80.701	0.987	8.935	0.987	8.935	0.155	-80.701
943.806	0.152	-80.867	0.987	8.762	0.987	8.762	0.152	-80.867
953.617	0.149	-81.03	0.988	8.591	0.988	8.591	0.149	-81.03
963.429	0.146	-81.19	0.988	8.424	0.988	8.424	0.146	-81.19
973.241	0.144	-81.347	0.989	8.258	0.989	8.258	0.144	-81.347
983.053	0.141	-81.503	0.989	8.095	0.989	8.095	0.141	-81.503
992.864	0.138	-81.655	0.989	7.934	0.989	7.934	0.138	-81.655
1002.676	0.135	-81.805	0.99	7.775	0.99	7.775	0.135	-81.805
1012.488	0.133	-81.953	0.99	7.619	0.99	7.619	0.133	-81.953
1022.299	0.13	-82.099	0.991	7.464	0.991	7.464	0.13	-82.099
1032.111	0.127	-82.242	0.991	7.312	0.991	7.312	0.127	-82.242
1041.923	0.125	-82.383	0.991	7.162	0.991	7.162	0.125	-82.383
1051.734	0.122	-82.521	0.992	7.013	0.992	7.013	0.122	-82.521
1061.546	0.12	-82.658	0.992	6.867	0.992	6.867	0.12	-82.658
1071.358	0.117	-82.792	0.992	6.722	0.992	6.722	0.117	-82.792
1081.169	0.115	-82.925	0.992	6.579	0.992	6.579	0.115	-82.925
1090.981	0.112	-83.055	0.993	6.438	0.993	6.438	0.112	-83.055
1100.793	0.11	-83.183	0.993	6.298	0.993	6.298	0.11	-83.183
1110.605	0.107	-83.309	0.993	6.16	0.993	6.16	0.107	-83.309
1120.416	0.105	-83.433	0.993	6.024	0.993	6.024	0.105	-83.433
1130.228	0.103	-83.555	0.994	5.89	0.994	5.89	0.103	-83.555
1140.04	0.1	-83.676	0.994	5.756	0.994	5.756	0.1	-83.676
1149.851	0.098	-83.794	0.994	5.625	0.994	5.625	0.098	-83.794
1159.663	0.096	-83.91	0.994	5.495	0.994	5.495	0.096	-83.91
1169.475	0.094	-84.024	0.995	5.366	0.995	5.366	0.094	-84.024
1179.286	0.091	-84.137	0.995	5.239	0.995	5.239	0.091	-84.137
1189.098	0.089	-84.247	0.995	5.113	0.995	5.113	0.089	-84.247
1198.91	0.087	-84.356	0.995	4.988	0.995	4.988	0.087	-84.356
1208.722	0.085	-84.462	0.995	4.865	0.995	4.865	0.085	-84.462
1218.533	0.083	-84.567	0.996	4.743	0.996	4.743	0.083	-84.567
1228.345	0.081	-84.67	0.996	4.622	0.996	4.622	0.081	-84.67
1238.157	0.079	-84.77	0.996	4.502	0.996	4.502	0.079	-84.77
1247.968	0.076	-84.869	0.996	4.384	0.996	4.384	0.076	-84.869
1257.78	0.074	-84.966	0.996	4.267	0.996	4.267	0.074	-84.966
1267.592	0.072	-85.06	0.996	4.151	0.996	4.151	0.072	-85.06
1277.403	0.07	-85.153	0.997	4.036	0.997	4.036	0.07	-85.153
1287.215	0.068	-85.243	0.997	3.922	0.997	3.922	0.068	-85.243
1297.027	0.066	-85.331	0.997	3.809	0.997	3.809	0.066	-85.331
1306.838	0.064	-85.417	0.997	3.697	0.997	3.697	0.064	-85.417
1316.65	0.063	-85.5	0.997	3.586	0.997	3.586	0.063	-85.5
1326.462	0.061	-85.581	0.997	3.477	0.997	3.477	0.061	-85.581
1336.274	0.059	-85.659	0.997	3.368	0.997	3.368	0.059	-85.659
1346.085	0.057	-85.735	0.997	3.26	0.997	3.26	0.057	-85.735
1355.897	0.055	-85.808	0.997	3.153	0.997	3.153	0.055	-85.808
1365.709	0.053	-85.878	0.998	3.047	0.998	3.047	0.053	-85.878
1375.52	0.051	-85.944	0.998	2.942	0.998	2.942	0.051	-85.944
1385.332	0.05	-86.008	0.998	2.837	0.998	2.837	0.05	-86.008
1395.144	0.048	-86.067	0.998	2.734	0.998	2.734	0.048	-86.067
1404.955	0.046	-86.123	0.998	2.631	0.998	2.631	0.046	-86.123
1414.767	0.044	-86.175	0.998	2.53	0.998	2.53	0.044	-86.175
1424.579	0.042	-86.222	0.998	2.429	0.998	2.429	0.042	-86.222
1434.39	0.041	-86.264	0.998	2.329	0.998	2.329	0.041	-86.264
1444.202	0.039	-86.3	0.998	2.229	0.998	2.229	0.039	-86.3
1454.014	0.037	-86.331	0.998	2.131	0.998	2.131	0.037	-86.331
1463.826	0.035	-86.355	0.998	2.033	0.998	2.033	0.035	-86.355
1473.637	0.034	-86.371	0.998	1.936	0.998	1.936	0.034	-86.371
1483.449	0.032	-86.378	0.998	1.839	0.998	1.839	0.032	-86.378
1493.261	0.03	-86.376	0.999	1.744	0.999	1.744	0.03	-86.376
1503.072	0.029	-86.363	0.999	1.649	0.999	1.649	0.029	-86.363
1512.884	0.027	-86.337	0.999	1.554	0.999	1.554	0.027	-86.337
1522.696	0.026	-86.295	0.999	1.461	0.999	1.461	0.026	-86.295
1532.507	0.024	-86.236	0.999	1.368	0.999	1.368	0.024	-86.236
1542.319	0.022	-86.155	0.999	1.275	0.999	1.275	0.022	-86.155
1552.131	0.021	-86.047	0.999	1.184	0.999	1.184	0.021	-86.047
1561.943	0.019	-85.908	0.999	1.092	0.999	1.092	0.019	-85.908
1571.754	0.018	-85.728	0.999	1.002	0.999	1.002	0.018	-85.728
1581.566	0.016	-85.496	0.999	0.912	0.999	0.912	0.016	-85.496
1591.378	0.014	-85.197	0.999	0.823	0.999	0.823	0.014	-85.197
1601.189	0.013	-84.806	0.999	0.734	0.999	0.734	0.013	-84.806
1611.001	0.011	-84.289	0.999	0.646	0.999	0.646	0.011	-84.289
1620.813	9.79E-03	-83.586	0.999	0.558	0.999	0.558	9.79E-03	-83.586
1630.624	8.28E-03	-82.601	0.999	0.471	0.999	0.471	8.28E-03	-82.601
1640.436	6.79E-03	-81.149	0.999	0.385	0.999	0.385	6.79E-03	-81.149
1650.248	5.31E-03	-78.848	0.999	0.299	0.999	0.299	5.31E-03	-78.848
1660.059	3.85E-03	-74.751	0.999	0.213	0.999	0.213	3.85E-03	-74.751
1669.871	2.45E-03	-65.801	0.999	0.128	0.999	0.128	2.45E-03	-65.801
1679.683	1.26E-03	-37.302	0.999	0.044	0.999	0.044	1.26E-03	-37.302
1689.495	1.22E-03	35.097	0.999	-0.04	0.999	-0.04	1.22E-03	35.097
1699.306	2.38E-03	65.056	0.999	-0.124	0.999	-0.124	2.38E-03	65.056
1709.118	3.75E-03	74.319	0.999	-0.207	0.999	-0.207	3.75E-03	74.319
1718.93	5.15E-03	78.519	0.999	-0.289	0.999	-0.289	5.15E-03	78.519
1728.741	6.56E-03	80.866	0.999	-0.371	0.999	-0.371	6.56E-03	80.866
1738.553	7.97E-03	82.345	0.999	-0.453	0.999	-0.453	7.97E-03	82.345
1748.365	9.38E-03	83.349	0.999	-0.534	0.999	-0.534	9.38E-03	83.349
1758.176	0.011	84.067	0.999	-0.615	0.999	-0.615	0.011	84.067
1767.988	0.012	84.598	0.999	-0.695	0.999	-0.695	0.012	84.598
1777.8	0.014	85.001	0.999	-0.775	0.999	-0.775	0.014	85.001
1787.611	0.015	85.313	0.999	-0.855	0.999	-0.855	0.015	85.313
1797.423	0.016	85.558	0.999	-0.934	0.999	-0.934	0.016	85.558
1807.235	0.018	85.751	0.999	-1.012	0.999	-1.012	0.018	85.751
1817.047	0.019	85.905	0.999	-1.091	0.999	-1.091	0.019	85.905
1826.858	0.02	86.027	0.999	-1.169	0.999	-1.169	0.02	86.027
1836.67	0.022	86.124	0.999	-1.246	0.999	-1.246	0.022	86.124
1846.482	0.023	86.2	0.999	-1.323	0.999	-1.323	0.023	86.2
1856.293	0.024	86.259	0.999	-1.4	0.999	-1.4	0.024	86.259
1866.105	0.026	86.303	0.999	-1.476	0.999	-1.476	0.026	86.303
1875.917	0.027	86.336	0.999	-1.552	0.999	-1.552	0.027	86.336
1885.728	0.028	86.358	0.999	-1.628	0.999	-1.628	0.028	86.358
1895.54	0.03	86.372	0.999	-1.703	0.999	-1.703	0.03	86.372
1905.352	0.031	86.378	0.999	-1.778	0.999	-1.778	0.031	86.378
1915.164	0.032	86.378	0.998	-1.852	0.998	-1.852	0.032	86.378
1924.975	0.034	86.372	0.998	-1.927	0.998	-1.927	0.034	86.372
1934.787	0.035	86.361	0.998	-2.001	0.998	-2.001	0.035	86.361
1944.599	0.036	86.345	0.998	-2.074	0.998	-2.074	0.036	86.345
1954.41	0.037	86.326	0.998	-2.147	0.998	-2.147	0.037	86.326
1964.222	0.039	86.303	0.998	-2.22	0.998	-2.22	0.039	86.303
1974.034	0.04	86.277	0.998	-2.293	0.998	-2.293	0.04	86.277
1983.845	0.041	86.249	0.998	-2.365	0.998	-2.365	0.041	86.249
1993.657	0.043	86.218	0.998	-2.437	0.998	-2.437	0.043	86.218
2003.469	0.044	86.185	0.998	-2.509	0.998	-2.509	0.044	86.185
2013.28	0.045	86.149	0.998	-2.58	0.998	-2.58	0.045	86.149
2023.092	0.046	86.112	0.998	-2.651	0.998	-2.651	0.046	86.112
2032.904	0.048	86.074	0.998	-2.722	0.998	-2.722	0.048	86.074
2042.716	0.049	86.034	0.998	-2.793	0.998	-2.793	0.049	86.034
2052.527	0.05	85.992	0.998	-2.863	0.998	-2.863	0.05	85.992
2062.339	0.051	85.95	0.998	-2.933	0.998	-2.933	0.051	85.95
2072.151	0.052	85.906	0.998	-3.003	0.998	-3.003	0.052	85.906
2081.962	0.054	85.861	0.998	-3.072	0.998	-3.072	0.054	85.861
2091.774	0.055	85.816	0.997	-3.141	0.997	-3.141	0.055	85.816
2101.586	0.056	85.769	0.997	-3.21	0.997	-3.21	0.056	85.769
2111.397	0.057	85.722	0.997	-3.279	0.997	-3.279	0.057	85.722
2121.209	0.058	85.674	0.997	-3.347	0.997	-3.347	0.058	85.674
2131.021	0.06	85.626	0.997	-3.415	0.997	-3.415	0.06	85.626
2140.833	0.061	85.576	0.997	-3.483	0.997	-3.483	0.061	85.576
2150.644	0.062	85.527	0.997	-3.551	0.997	-3.551	0.062	85.527
2160.456	0.063	85.477	0.997	-3.618	0.997	-3.618	0.063	85.477
2170.268	0.064	85.426	0.997	-3.685	0.997	-3.685	0.064	85.426
2180.079	0.065	85.375	0.997	-3.752	0.997	-3.752	0.065	85.375
2189.891	0.067	85.324	0.997	-3.819	0.997	-3.819	0.067	85.324
2199.703	0.068	85.272	0.997	-3.885	0.997	-3.885	0.068	85.272
2209.514	0.069	85.22	0.997	-3.951	0.997	-3.951	0.069	85.22
2219.326	0.07	85.168	0.997	-4.017	0.997	-4.017	0.07	85.168
2229.138	0.071	85.115	0.996	-4.083	0.996	-4.083	0.071	85.115
2238.949	0.072	85.062	0.996	-4.149	0.996	-4.149	0.072	85.062
2248.761	0.073	85.009	0.996	-4.214	0.996	-4.214	0.073	85.009
2258.573	0.075	84.956	0.996	-4.279	0.996	-4.279	0.075	84.956
2268.385	0.076	84.902	0.996	-4.344	0.996	-4.344	0.076	84.902
2278.196	0.077	84.849	0.996	-4.409	0.996	-4.409	0.077	84.849
2288.008	0.078	84.795	0.996	-4.473	0.996	-4.473	0.078	84.795
2297.82	0.079	84.741	0.996	-4.537	0.996	-4.537	0.079	84.741
2307.631	0.08	84.687	0.996	-4.601	0.996	-4.601	0.08	84.687
2317.443	0.081	84.633	0.996	-4.665	0.996	-4.665	0.081	84.633
2327.255	0.082	84.579	0.996	-4.729	0.996	-4.729	0.082	84.579
2337.066	0.084	84.525	0.996	-4.792	0.996	-4.792	0.084	84.525
2346.878	0.085	84.471	0.995	-4.856	0.995	-4.856	0.085	84.471
2356.69	0.086	84.416	0.995	-4.919	0.995	-4.919	0.086	84.416
2366.501	0.087	84.362	0.995	-4.981	0.995	-4.981	0.087	84.362
2376.313	0.088	84.307	0.995	-5.044	0.995	-5.044	0.088	84.307
2386.125	0.089	84.253	0.995	-5.107	0.995	-5.107	0.089	84.253
2395.937	0.09	84.198	0.995	-5.169	0.995	-5.169	0.09	84.198
2405.748	0.091	84.144	0.995	-5.231	0.995	-5.231	0.091	84.144
2415.56	0.092	84.089	0.995	-5.293	0.995	-5.293	0.092	84.089
2425.372	0.093	84.034	0.995	-5.355	0.995	-5.355	0.093	84.034
2435.183	0.094	83.98	0.995	-5.417	0.995	-5.417	0.094	83.98
2444.995	0.095	83.925	0.994	-5.478	0.994	-5.478	0.095	83.925
2454.807	0.097	83.87	0.994	-5.539	0.994	-5.539	0.097	83.87
2464.618	0.098	83.816	0.994	-5.6	0.994	-5.6	0.098	83.816
2474.43	0.099	83.761	0.994	-5.661	0.994	-5.661	0.099	83.761
2484.242	0.1	83.707	0.994	-5.722	0.994	-5.722	0.1	83.707
2494.054	0.101	83.652	0.994	-5.783	0.994	-5.783	0.101	83.652
2503.865	0.102	83.597	0.994	-5.843	0.994	-5.843	0.102	83.597
2513.677	0.103	83.543	0.994	-5.903	0.994	-5.903	0.103	83.543
2523.489	0.104	83.488	0.994	-5.964	0.994	-5.964	0.104	83.488
2533.3	0.105	83.434	0.993	-6.023	0.993	-6.023	0.105	83.434
2543.112	0.106	83.38	0.993	-6.083	0.993	-6.083	0.106	83.38
2552.924	0.107	83.325	0.993	-6.143	0.993	-6.143	0.107	83.325
2562.735	0.108	83.271	0.993	-6.202	0.993	-6.202	0.108	83.271
2572.547	0.109	83.216	0.993	-6.262	0.993	-6.262	0.109	83.216
2582.359	0.11	83.162	0.993	-6.321	0.993	-6.321	0.11	83.162
2592.17	0.111	83.108	0.993	-6.38	0.993	-6.38	0.111	83.108
2601.982	0.112	83.054	0.993	-6.439	0.993	-6.439	0.112	83.054
2611.794	0.113	83	0.993	-6.498	0.993	-6.498	0.113	83
2621.606	0.114	82.945	0.992	-6.556	0.992	-6.556	0.114	82.945
2631.417	0.115	82.891	0.992	-6.615	0.992	-6.615	0.115	82.891
2641.229	0.116	82.837	0.992	-6.673	0.992	-6.673	0.116	82.837
2651.041	0.117	82.784	0.992	-6.731	0.992	-6.731	0.117	82.784
2660.852	0.118	82.73	0.992	-6.789	0.992	-6.789	0.118	82.73
2670.664	0.119	82.676	0.992	-6.847	0.992	-6.847	0.119	82.676
2680.476	0.12	82.622	0.992	-6.905	0.992	-6.905	0.12	82.622
2690.287	0.121	82.568	0.992	-6.963	0.992	-6.963	0.121	82.568
2700.099	0.122	82.515	0.992	-7.02	0.992	-7.02	0.122	82.515
2709.911	0.123	82.461	0.991	-7.078	0.991	-7.078	0.123	82.461
2719.722	0.124	82.408	0.991	-7.135	0.991	-7.135	0.124	82.408
2729.534	0.125	82.354	0.991	-7.192	0.991	-7.192	0.125	82.354
2739.346	0.126	82.301	0.991	-7.249	0.991	-7.249	0.126	82.301
2749.158	0.127	82.247	0.991	-7.306	0.991	-7.306	0.127	82.247
2758.969	0.128	82.194	0.991	-7.363	0.991	-7.363	0.128	82.194
2768.781	0.129	82.141	0.991	-7.419	0.991	-7.419	0.129	82.141
2778.593	0.13	82.088	0.991	-7.476	0.991	-7.476	0.13	82.088
2788.404	0.131	82.035	0.99	-7.532	0.99	-7.532	0.131	82.035
2798.216	0.132	81.982	0.99	-7.589	0.99	-7.589	0.132	81.982
2808.028	0.133	81.929	0.99	-7.645	0.99	-7.645	0.133	81.929
2817.839	0.134	81.876	0.99	-7.701	0.99	-7.701	0.134	81.876
2827.651	0.135	81.823	0.99	-7.757	0.99	-7.757	0.135	81.823
2837.463	0.136	81.77	0.99	-7.813	0.99	-7.813	0.136	81.77
2847.275	0.137	81.717	0.99	-7.868	0.99	-7.868	0.137	81.717
2857.086	0.138	81.665	0.989	-7.924	0.989	-7.924	0.138	81.665
2866.898	0.139	81.612	0.989	-7.979	0.989	-7.979	0.139	81.612
2876.71	0.14	81.56	0.989	-8.035	0.989	-8.035	0.14	81.56
2886.521	0.141	81.507	0.989	-8.09	0.989	-8.09	0.141	81.507
2896.333	0.142	81.455	0.989	-8.145	0.989	-8.145	0.142	81.455
2906.145	0.143	81.403	0.989	-8.2	0.989	-8.2	0.143	81.403
2915.956	0.144	81.351	0.989	-8.255	0.989	-8.255	0.144	81.351
2925.768	0.145	81.298	0.989	-8.31	0.989	-8.31	0.145	81.298
2935.58	0.145	81.246	0.988	-8.364	0.988	-8.364	0.145	81.246
2945.391	0.146	81.194	0.988	-8.419	0.988	-8.419	0.146	81.194
2955.203	0.147	81.142	0.988	-8.473	0.988	-8.473	0.147	81.142
2965.015	0.148	81.09	0.988	-8.528	0.988	-8.528	0.148	81.09
2974.827	0.149	81.039	0.988	-8.582	0.988	-8.582	0.149	81.039
2984.638	0.15	80.987	0.988	-8.636	0.988	-8.636	0.15	80.987
2994.45	0.151	80.935	0.988	-8.69	0.988	-8.69	0.151	80.935
3004.262	0.152	80.884	0.987	-8.744	0.987	-8.744	0.152	80.884
3014.073	0.153	80.832	0.987	-8.798	0.987	-8.798	0.153	80.832
3023.885	0.154	80.781	0.987	-8.852	0.987	-8.852	0.154	80.781
3033.697	0.155	80.729	0.987	-8.906	0.987	-8.906	0.155	80.729
3043.508	0.156	80.678	0.987	-8.959	0.987	-8.959	0.156	80.678
3053.32	0.157	80.626	0.987	-9.013	0.987	-9.013	0.157	80.626
3063.132	0.158	80.575	0.987	-9.066	0.987	-9.066	0.158	80.575
3072.944	0.158	80.524	0.986	-9.119	0.986	-9.119	0.158	80.524
3082.755	0.159	80.473	0.986	-9.172	0.986	-9.172	0.159	80.473
3092.567	0.16	80.422	0.986	-9.225	0.986	-9.225	0.16	80.422
3102.379	0.161	80.371	0.986	-9.278	0.986	-9.278	0.161	80.371
3112.19	0.162	80.32	0.986	-9.331	0.986	-9.331	0.162	80.32
3122.002	0.163	80.269	0.986	-9.384	0.986	-9.384	0.163	80.269
3131.814	0.164	80.219	0.985	-9.437	0.985	-9.437	0.164	80.219
3141.625	0.165	80.168	0.985	-9.49	0.985	-9.49	0.165	80.168
3151.437	0.166	80.117	0.985	-9.542	0.985	-9.542	0.166	80.117
3161.249	0.167	80.067	0.985	-9.595	0.985	-9.595	0.167	80.067
3171.06	0.168	80.016	0.985	-9.647	0.985	-9.647	0.168	80.016
3180.872	0.168	79.966	0.985	-9.699	0.985	-9.699	0.168	79.966
3190.684	0.169	79.915	0.985	-9.751	0.985	-9.751	0.169	79.915
3200.496	0.17	79.865	0.984	-9.804	0.984	-9.804	0.17	79.865
3210.307	0.171	79.815	0.984	-9.856	0.984	-9.856	0.171	79.815
3220.119	0.172	79.765	0.984	-9.908	0.984	-9.908	0.172	79.765
3229.931	0.173	79.715	0.984	-9.959	0.984	-9.959	0.173	79.715
3239.742	0.174	79.665	0.984	-10.011	0.984	-10.011	0.174	79.665
3249.554	0.175	79.615	0.984	-10.063	0.984	-10.063	0.175	79.615
3259.366	0.176	79.565	0.983	-10.114	0.983	-10.114	0.176	79.565
3269.177	0.177	79.515	0.983	-10.166	0.983	-10.166	0.177	79.515
3278.989	0.177	79.465	0.983	-10.217	0.983	-10.217	0.177	79.465
