! AVX Thin Film Operation		Date: April 2012 
! Description: Accu-P® Series, Thin Film, SMD, RF Capacitor
! Part Number: 12101J3R1ABTTR					
!	100	MHz	-	20.05	GHz			
!	Serial	Measurements						
!								
#	MHZ	S	MA	R	50			
!	S11	S21	S12	S22				
!	dB	Phase	dB	Phase	dB	Phase	dB	Phase
50 0.995 -5.564 0.097 84.359 0.097 84.359 0.995 -5.564
100 0.981 -11.032 0.191 78.871 0.191 78.871 0.981 -11.032
150 0.959 -16.323 0.281 73.56 0.281 73.56 0.959 -16.323
200 0.93 -21.367 0.364 68.496 0.364 68.496 0.93 -21.367
250 0.897 -26.118 0.44 63.724 0.44 63.724 0.897 -26.118
300 0.86 -30.549 0.508 59.273 0.508 59.273 0.86 -30.549
350 0.821 -34.649 0.569 55.151 0.569 55.151 0.821 -34.649
400 0.781 -38.424 0.621 51.355 0.621 51.355 0.781 -38.424
450 0.742 -41.887 0.668 47.87 0.668 47.87 0.742 -41.887
500 0.703 -45.058 0.708 44.676 0.708 44.676 0.703 -45.058
550 0.666 -47.96 0.743 41.752 0.743 41.752 0.666 -47.96
600 0.63 -50.616 0.773 39.073 0.773 39.073 0.63 -50.616
650 0.596 -53.05 0.799 36.615 0.799 36.615 0.596 -53.05
700 0.564 -55.284 0.822 34.356 0.822 34.356 0.564 -55.284
750 0.534 -57.338 0.842 32.277 0.842 32.277 0.534 -57.338
800 0.505 -59.231 0.859 30.357 0.859 30.357 0.505 -59.231
850 0.478 -60.98 0.874 28.581 0.874 28.581 0.478 -60.98
900 0.453 -62.599 0.888 26.933 0.888 26.933 0.453 -62.599
950 0.429 -64.103 0.9 25.399 0.9 25.399 0.429 -64.103
1000 0.406 -65.502 0.91 23.969 0.91 23.969 0.406 -65.502
1050 0.385 -66.808 0.919 22.632 0.919 22.632 0.385 -66.808
1100 0.365 -68.028 0.927 21.378 0.927 21.378 0.365 -68.028
1150 0.345 -69.171 0.935 20.199 0.935 20.199 0.345 -69.171
1200 0.327 -70.245 0.941 19.088 0.941 19.088 0.327 -70.245
1250 0.31 -71.255 0.947 18.039 0.947 18.039 0.31 -71.255
1300 0.293 -72.206 0.952 17.046 0.952 17.046 0.293 -72.206
1350 0.277 -73.104 0.957 16.104 0.957 16.104 0.277 -73.104
1400 0.262 -73.953 0.961 15.208 0.961 15.208 0.262 -73.953
1450 0.248 -74.756 0.965 14.355 0.965 14.355 0.248 -74.756
1500 0.234 -75.516 0.968 13.541 0.968 13.541 0.234 -75.516
1550 0.221 -76.237 0.971 12.762 0.971 12.762 0.221 -76.237
1600 0.208 -76.921 0.974 12.017 0.974 12.017 0.208 -76.921
1650 0.196 -77.569 0.977 11.301 0.977 11.301 0.196 -77.569
1700 0.184 -78.183 0.979 10.614 0.979 10.614 0.184 -78.183
1750 0.173 -78.765 0.981 9.952 0.981 9.952 0.173 -78.765
1800 0.162 -79.315 0.983 9.314 0.983 9.314 0.162 -79.315
1850 0.151 -79.833 0.985 8.698 0.985 8.698 0.151 -79.833
1900 0.141 -80.32 0.986 8.103 0.986 8.103 0.141 -80.32
1950 0.131 -80.776 0.988 7.528 0.988 7.528 0.131 -80.776
2000 0.121 -81.198 0.989 6.97 0.989 6.97 0.121 -81.198
2050 0.112 -81.585 0.99 6.429 0.99 6.429 0.112 -81.585
2100 0.103 -81.933 0.991 5.904 0.991 5.904 0.103 -81.933
2150 0.094 -82.239 0.992 5.393 0.992 5.393 0.094 -82.239
2200 0.085 -82.496 0.992 4.896 0.992 4.896 0.085 -82.496
2250 0.077 -82.695 0.993 4.412 0.993 4.412 0.077 -82.695
2300 0.069 -82.821 0.994 3.941 0.994 3.941 0.069 -82.821
2350 0.061 -82.854 0.994 3.48 0.994 3.48 0.061 -82.854
2400 0.053 -82.762 0.995 3.031 0.995 3.031 0.053 -82.762
2450 0.045 -82.492 0.995 2.592 0.995 2.592 0.045 -82.492
2500 0.038 -81.951 0.995 2.162 0.995 2.162 0.038 -81.951
2550 0.031 -80.964 0.996 1.742 0.996 1.742 0.031 -80.964
2600 0.024 -79.153 0.996 1.33 0.996 1.33 0.024 -79.153
2650 0.017 -75.54 0.996 0.926 0.996 0.926 0.017 -75.54
2700 0.01 -66.67 0.996 0.53 0.996 0.53 0.01 -66.67
2750 4.613e-3 -32.339 0.996 0.142 0.996 0.142 4.613e-3 -32.339
2800 5.711e-3 46.809 0.996 -0.239 0.996 -0.239 5.711e-3 46.809
2850 0.011 69.436 0.996 -0.614 0.996 -0.614 0.011 69.436
2900 0.018 76.233 0.996 -0.983 0.996 -0.983 0.018 76.233
2950 0.024 79.242 0.996 -1.345 0.996 -1.345 0.024 79.242
3000 0.03 80.833 0.996 -1.701 0.996 -1.701 0.03 80.833
3050 0.036 81.747 0.995 -2.052 0.995 -2.052 0.036 81.747
3100 0.042 82.29 0.995 -2.398 0.995 -2.398 0.042 82.29
3150 0.048 82.607 0.995 -2.738 0.995 -2.738 0.048 82.607
3200 0.054 82.778 0.995 -3.074 0.995 -3.074 0.054 82.778
3250 0.06 82.849 0.994 -3.405 0.994 -3.405 0.06 82.849
3300 0.065 82.849 0.994 -3.731 0.994 -3.731 0.065 82.849
3350 0.071 82.798 0.994 -4.053 0.994 -4.053 0.071 82.798
3400 0.076 82.709 0.993 -4.371 0.993 -4.371 0.076 82.709
3450 0.082 82.59 0.993 -4.686 0.993 -4.686 0.082 82.59
3500 0.087 82.449 0.992 -4.996 0.992 -4.996 0.087 82.449
3550 0.092 82.29 0.992 -5.302 0.992 -5.302 0.092 82.29
3600 0.098 82.117 0.991 -5.605 0.991 -5.605 0.098 82.117
3650 0.103 81.933 0.991 -5.905 0.991 -5.905 0.103 81.933
3700 0.108 81.74 0.99 -6.201 0.99 -6.201 0.108 81.74
3750 0.113 81.539 0.99 -6.494 0.99 -6.494 0.113 81.539
3800 0.118 81.333 0.989 -6.784 0.989 -6.784 0.118 81.333
3850 0.123 81.123 0.989 -7.071 0.989 -7.071 0.123 81.123
3900 0.128 80.908 0.988 -7.355 0.988 -7.355 0.128 80.908
3950 0.133 80.691 0.987 -7.637 0.987 -7.637 0.133 80.691
4000 0.138 80.471 0.987 -7.916 0.987 -7.916 0.138 80.471
4050 0.143 80.249 0.986 -8.192 0.986 -8.192 0.143 80.249
4100 0.147 80.026 0.985 -8.465 0.985 -8.465 0.147 80.026
4150 0.152 79.802 0.985 -8.736 0.985 -8.736 0.152 79.802
4200 0.157 79.577 0.984 -9.005 0.984 -9.005 0.157 79.577
4250 0.161 79.351 0.983 -9.271 0.983 -9.271 0.161 79.351
4300 0.166 79.126 0.982 -9.535 0.982 -9.535 0.166 79.126
4350 0.17 78.899 0.982 -9.797 0.982 -9.797 0.17 78.899
4400 0.175 78.673 0.981 -10.057 0.981 -10.057 0.175 78.673
4450 0.179 78.448 0.98 -10.314 0.98 -10.314 0.179 78.448
4500 0.183 78.222 0.979 -10.57 0.979 -10.57 0.183 78.222
4550 0.188 77.997 0.978 -10.823 0.978 -10.823 0.188 77.997
4600 0.192 77.772 0.978 -11.075 0.978 -11.075 0.192 77.772
4650 0.196 77.548 0.977 -11.325 0.977 -11.325 0.196 77.548
4700 0.201 77.324 0.976 -11.573 0.976 -11.573 0.201 77.324
4750 0.205 77.101 0.975 -11.819 0.975 -11.819 0.205 77.101
4800 0.209 76.878 0.974 -12.064 0.974 -12.064 0.209 76.878
4850 0.213 76.656 0.973 -12.306 0.973 -12.306 0.213 76.656
4900 0.217 76.435 0.972 -12.547 0.972 -12.547 0.217 76.435
4950 0.221 76.215 0.971 -12.787 0.971 -12.787 0.221 76.215
5000 0.225 75.995 0.97 -13.025 0.97 -13.025 0.225 75.995
5050 0.229 75.777 0.969 -13.261 0.969 -13.261 0.229 75.777
5100 0.233 75.559 0.969 -13.495 0.969 -13.495 0.233 75.559
5150 0.237 75.342 0.968 -13.729 0.968 -13.729 0.237 75.342
5200 0.241 75.125 0.967 -13.96 0.967 -13.96 0.241 75.125
5250 0.245 74.91 0.966 -14.191 0.966 -14.191 0.245 74.91
5300 0.249 74.696 0.965 -14.42 0.965 -14.42 0.249 74.696
5350 0.253 74.482 0.964 -14.647 0.964 -14.647 0.253 74.482
5400 0.257 74.269 0.963 -14.873 0.963 -14.873 0.257 74.269
5450 0.26 74.057 0.962 -15.098 0.962 -15.098 0.26 74.057
5500 0.264 73.846 0.961 -15.321 0.961 -15.321 0.264 73.846
5550 0.268 73.636 0.96 -15.543 0.96 -15.543 0.268 73.636
5600 0.272 73.427 0.959 -15.764 0.959 -15.764 0.272 73.427
5650 0.275 73.218 0.958 -15.984 0.958 -15.984 0.275 73.218
5700 0.279 73.011 0.956 -16.202 0.956 -16.202 0.279 73.011
5750 0.283 72.804 0.955 -16.42 0.955 -16.42 0.283 72.804
5800 0.286 72.598 0.954 -16.636 0.954 -16.636 0.286 72.598
5850 0.29 72.393 0.953 -16.85 0.953 -16.85 0.29 72.393
5900 0.293 72.189 0.952 -17.064 0.952 -17.064 0.293 72.189
5950 0.297 71.986 0.951 -17.277 0.951 -17.277 0.297 71.986
6000 0.301 71.783 0.95 -17.488 0.95 -17.488 0.301 71.783
6050 0.304 71.582 0.949 -17.698 0.949 -17.698 0.304 71.582
6100 0.308 71.381 0.948 -17.907 0.948 -17.907 0.308 71.381
6150 0.311 71.181 0.947 -18.116 0.947 -18.116 0.311 71.181
6200 0.314 70.982 0.945 -18.323 0.945 -18.323 0.314 70.982
6250 0.318 70.784 0.944 -18.529 0.944 -18.529 0.318 70.784
6300 0.321 70.587 0.943 -18.734 0.943 -18.734 0.321 70.587
6350 0.325 70.39 0.942 -18.938 0.942 -18.938 0.325 70.39
6400 0.328 70.195 0.941 -19.141 0.941 -19.141 0.328 70.195
6450 0.331 70 0.94 -19.342 0.94 -19.342 0.331 70
6500 0.335 69.806 0.939 -19.543 0.939 -19.543 0.335 69.806
6550 0.338 69.612 0.937 -19.743 0.937 -19.743 0.338 69.612
6600 0.341 69.42 0.936 -19.942 0.936 -19.942 0.341 69.42
6650 0.344 69.228 0.935 -20.141 0.935 -20.141 0.344 69.228
6700 0.348 69.037 0.934 -20.338 0.934 -20.338 0.348 69.037
6750 0.351 68.847 0.933 -20.534 0.933 -20.534 0.351 68.847
6800 0.354 68.658 0.931 -20.729 0.931 -20.729 0.354 68.658
6850 0.357 68.469 0.93 -20.924 0.93 -20.924 0.357 68.469
6900 0.36 68.281 0.929 -21.117 0.929 -21.117 0.36 68.281
6950 0.363 68.094 0.928 -21.31 0.928 -21.31 0.363 68.094
7000 0.367 67.908 0.927 -21.501 0.927 -21.501 0.367 67.908
7050 0.37 67.723 0.925 -21.692 0.925 -21.692 0.37 67.723
7100 0.373 67.538 0.924 -21.882 0.924 -21.882 0.373 67.538
7150 0.376 67.354 0.923 -22.071 0.923 -22.071 0.376 67.354
7200 0.379 67.171 0.922 -22.259 0.922 -22.259 0.379 67.171
7250 0.382 66.988 0.92 -22.447 0.92 -22.447 0.382 66.988
7300 0.385 66.806 0.919 -22.633 0.919 -22.633 0.385 66.806
7350 0.388 66.625 0.918 -22.819 0.918 -22.819 0.388 66.625
7400 0.391 66.445 0.917 -23.004 0.917 -23.004 0.391 66.445
7450 0.394 66.265 0.915 -23.188 0.915 -23.188 0.394 66.265
7500 0.397 66.086 0.914 -23.372 0.914 -23.372 0.397 66.086
7550 0.4 65.908 0.913 -23.554 0.913 -23.554 0.4 65.908
7600 0.403 65.731 0.912 -23.736 0.912 -23.736 0.403 65.731
7650 0.405 65.554 0.91 -23.917 0.91 -23.917 0.405 65.554
7700 0.408 65.378 0.909 -24.097 0.909 -24.097 0.408 65.378
7750 0.411 65.202 0.908 -24.276 0.908 -24.276 0.411 65.202
7800 0.414 65.028 0.907 -24.455 0.907 -24.455 0.414 65.028
7850 0.417 64.854 0.905 -24.633 0.905 -24.633 0.417 64.854
7900 0.42 64.68 0.904 -24.81 0.904 -24.81 0.42 64.68
7950 0.422 64.508 0.903 -24.986 0.903 -24.986 0.422 64.508
8000 0.425 64.336 0.901 -25.162 0.901 -25.162 0.425 64.336
8050 0.428 64.165 0.9 -25.337 0.9 -25.337 0.428 64.165
8100 0.431 63.994 0.899 -25.511 0.899 -25.511 0.431 63.994
8150 0.433 63.824 0.897 -25.684 0.897 -25.684 0.433 63.824
8200 0.436 63.655 0.896 -25.857 0.896 -25.857 0.436 63.655
8250 0.439 63.486 0.895 -26.029 0.895 -26.029 0.439 63.486
8300 0.442 63.318 0.894 -26.2 0.894 -26.2 0.442 63.318
8350 0.444 63.151 0.892 -26.371 0.892 -26.371 0.444 63.151
8400 0.447 62.984 0.891 -26.541 0.891 -26.541 0.447 62.984
8450 0.449 62.818 0.89 -26.71 0.89 -26.71 0.449 62.818
8500 0.452 62.653 0.888 -26.878 0.888 -26.878 0.452 62.653
8550 0.455 62.488 0.887 -27.046 0.887 -27.046 0.455 62.488
8600 0.457 62.324 0.886 -27.213 0.886 -27.213 0.457 62.324
8650 0.46 62.161 0.884 -27.379 0.884 -27.379 0.46 62.161
8700 0.462 61.998 0.883 -27.545 0.883 -27.545 0.462 61.998
8750 0.465 61.836 0.882 -27.71 0.882 -27.71 0.465 61.836
8800 0.468 61.674 0.88 -27.874 0.88 -27.874 0.468 61.674
8850 0.47 61.513 0.879 -28.038 0.879 -28.038 0.47 61.513
8900 0.473 61.353 0.878 -28.201 0.878 -28.201 0.473 61.353
8950 0.475 61.193 0.876 -28.364 0.876 -28.364 0.475 61.193
9000 0.478 61.034 0.875 -28.525 0.875 -28.525 0.478 61.034
9050 0.48 60.876 0.874 -28.686 0.874 -28.686 0.48 60.876
9100 0.482 60.718 0.872 -28.847 0.872 -28.847 0.482 60.718
9150 0.485 60.561 0.871 -29.007 0.871 -29.007 0.485 60.561
9200 0.487 60.404 0.87 -29.166 0.87 -29.166 0.487 60.404
9250 0.49 60.248 0.868 -29.324 0.868 -29.324 0.49 60.248
9300 0.492 60.093 0.867 -29.482 0.867 -29.482 0.492 60.093
9350 0.495 59.938 0.866 -29.639 0.866 -29.639 0.495 59.938
9400 0.497 59.784 0.864 -29.796 0.864 -29.796 0.497 59.784
9450 0.499 59.63 0.863 -29.952 0.863 -29.952 0.499 59.63
9500 0.502 59.477 0.861 -30.107 0.861 -30.107 0.502 59.477
9550 0.504 59.324 0.86 -30.262 0.86 -30.262 0.504 59.324
9600 0.506 59.172 0.859 -30.416 0.859 -30.416 0.506 59.172
9650 0.509 59.021 0.857 -30.57 0.857 -30.57 0.509 59.021
9700 0.511 58.87 0.856 -30.723 0.856 -30.723 0.511 58.87
9750 0.513 58.72 0.855 -30.875 0.855 -30.875 0.513 58.72
9800 0.515 58.571 0.853 -31.027 0.853 -31.027 0.515 58.571
9850 0.518 58.422 0.852 -31.178 0.852 -31.178 0.518 58.422
9900 0.52 58.273 0.851 -31.329 0.851 -31.329 0.52 58.273
9950 0.522 58.125 0.849 -31.479 0.849 -31.479 0.522 58.125
10000 0.524 57.978 0.848 -31.628 0.848 -31.628 0.524 57.978
10050 0.527 57.831 0.847 -31.777 0.847 -31.777 0.527 57.831
10100 0.529 57.685 0.845 -31.925 0.845 -31.925 0.529 57.685
10150 0.531 57.539 0.844 -32.072 0.844 -32.072 0.531 57.539
10200 0.533 57.394 0.842 -32.22 0.842 -32.22 0.533 57.394
10250 0.535 57.249 0.841 -32.366 0.841 -32.366 0.535 57.249
10300 0.537 57.105 0.84 -32.512 0.84 -32.512 0.537 57.105
10350 0.54 56.962 0.838 -32.657 0.838 -32.657 0.54 56.962
10400 0.542 56.819 0.837 -32.802 0.837 -32.802 0.542 56.819
10450 0.544 56.677 0.836 -32.946 0.836 -32.946 0.544 56.677
10500 0.546 56.535 0.834 -33.09 0.834 -33.09 0.546 56.535
10550 0.548 56.393 0.833 -33.233 0.833 -33.233 0.548 56.393
10600 0.55 56.253 0.832 -33.375 0.832 -33.375 0.55 56.253
10650 0.552 56.112 0.83 -33.517 0.83 -33.517 0.552 56.112
10700 0.554 55.973 0.829 -33.659 0.829 -33.659 0.554 55.973
10750 0.556 55.834 0.827 -33.8 0.827 -33.8 0.556 55.834
10800 0.558 55.695 0.826 -33.94 0.826 -33.94 0.558 55.695
10850 0.56 55.557 0.825 -34.08 0.825 -34.08 0.56 55.557
10900 0.562 55.419 0.823 -34.219 0.823 -34.219 0.562 55.419
10950 0.564 55.282 0.822 -34.358 0.822 -34.358 0.564 55.282
11000 0.566 55.145 0.821 -34.496 0.821 -34.496 0.566 55.145
11050 0.568 55.009 0.819 -34.634 0.819 -34.634 0.568 55.009
11100 0.57 54.874 0.818 -34.771 0.818 -34.771 0.57 54.874
11150 0.572 54.739 0.817 -34.907 0.817 -34.907 0.572 54.739
11200 0.574 54.604 0.815 -35.044 0.815 -35.044 0.574 54.604
11250 0.576 54.47 0.814 -35.179 0.814 -35.179 0.576 54.47
11300 0.578 54.337 0.812 -35.314 0.812 -35.314 0.578 54.337
11350 0.58 54.204 0.811 -35.449 0.811 -35.449 0.58 54.204
11400 0.582 54.071 0.81 -35.583 0.81 -35.583 0.582 54.071
11450 0.584 53.939 0.808 -35.716 0.808 -35.716 0.584 53.939
11500 0.586 53.807 0.807 -35.849 0.807 -35.849 0.586 53.807
11550 0.588 53.676 0.806 -35.982 0.806 -35.982 0.588 53.676
11600 0.589 53.546 0.804 -36.114 0.804 -36.114 0.589 53.546
11650 0.591 53.416 0.803 -36.245 0.803 -36.245 0.591 53.416
11700 0.593 53.286 0.802 -36.376 0.802 -36.376 0.593 53.286
11750 0.595 53.157 0.8 -36.506 0.8 -36.506 0.595 53.157
11800 0.597 53.028 0.799 -36.636 0.799 -36.636 0.597 53.028
11850 0.599 52.9 0.798 -36.766 0.798 -36.766 0.599 52.9
11900 0.6 52.773 0.796 -36.895 0.796 -36.895 0.6 52.773
11950 0.602 52.646 0.795 -37.023 0.795 -37.023 0.602 52.646
12000 0.604 52.519 0.794 -37.151 0.794 -37.151 0.604 52.519
12050 0.606 52.393 0.792 -37.279 0.792 -37.279 0.606 52.393
12100 0.607 52.267 0.791 -37.406 0.791 -37.406 0.607 52.267
12150 0.609 52.142 0.79 -37.532 0.79 -37.532 0.609 52.142
12200 0.611 52.017 0.788 -37.658 0.788 -37.658 0.611 52.017
12250 0.613 51.892 0.787 -37.784 0.787 -37.784 0.613 51.892
12300 0.614 51.769 0.786 -37.909 0.786 -37.909 0.614 51.769
12350 0.616 51.645 0.784 -38.034 0.784 -38.034 0.616 51.645
12400 0.618 51.522 0.783 -38.158 0.783 -38.158 0.618 51.522
12450 0.62 51.4 0.782 -38.282 0.782 -38.282 0.62 51.4
12500 0.621 51.278 0.78 -38.405 0.78 -38.405 0.621 51.278
12550 0.623 51.156 0.779 -38.528 0.779 -38.528 0.623 51.156
12600 0.625 51.035 0.778 -38.65 0.778 -38.65 0.625 51.035
12650 0.626 50.914 0.776 -38.772 0.776 -38.772 0.626 50.914
12700 0.628 50.794 0.775 -38.893 0.775 -38.893 0.628 50.794
12750 0.63 50.674 0.774 -39.014 0.774 -39.014 0.63 50.674
12800 0.631 50.555 0.772 -39.134 0.772 -39.134 0.631 50.555
12850 0.633 50.436 0.771 -39.254 0.771 -39.254 0.633 50.436
12900 0.634 50.317 0.77 -39.374 0.77 -39.374 0.634 50.317
12950 0.636 50.199 0.768 -39.493 0.768 -39.493 0.636 50.199
13000 0.638 50.082 0.767 -39.612 0.767 -39.612 0.638 50.082
13050 0.639 49.965 0.766 -39.73 0.766 -39.73 0.639 49.965
13100 0.641 49.848 0.764 -39.848 0.764 -39.848 0.641 49.848
13150 0.642 49.732 0.763 -39.965 0.763 -39.965 0.642 49.732
13200 0.644 49.616 0.762 -40.082 0.762 -40.082 0.644 49.616
13250 0.645 49.5 0.76 -40.198 0.76 -40.198 0.645 49.5
13300 0.647 49.385 0.759 -40.314 0.759 -40.314 0.647 49.385
13350 0.649 49.271 0.758 -40.43 0.758 -40.43 0.649 49.271
13400 0.65 49.157 0.757 -40.545 0.757 -40.545 0.65 49.157
13450 0.652 49.043 0.755 -40.66 0.755 -40.66 0.652 49.043
13500 0.653 48.93 0.754 -40.774 0.754 -40.774 0.653 48.93
13550 0.655 48.817 0.753 -40.888 0.753 -40.888 0.655 48.817
13600 0.656 48.704 0.751 -41.001 0.751 -41.001 0.656 48.704
13650 0.658 48.592 0.75 -41.114 0.75 -41.114 0.658 48.592
13700 0.659 48.481 0.749 -41.227 0.749 -41.227 0.659 48.481
13750 0.661 48.369 0.747 -41.339 0.747 -41.339 0.661 48.369
13800 0.662 48.259 0.746 -41.451 0.746 -41.451 0.662 48.259
13850 0.663 48.148 0.745 -41.562 0.745 -41.562 0.663 48.148
13900 0.665 48.038 0.744 -41.673 0.744 -41.673 0.665 48.038
13950 0.666 47.929 0.742 -41.784 0.742 -41.784 0.666 47.929
14000 0.668 47.819 0.741 -41.894 0.741 -41.894 0.668 47.819
14050 0.669 47.711 0.74 -42.004 0.74 -42.004 0.669 47.711
14100 0.671 47.602 0.738 -42.113 0.738 -42.113 0.671 47.602
14150 0.672 47.494 0.737 -42.222 0.737 -42.222 0.672 47.494
14200 0.673 47.387 0.736 -42.33 0.736 -42.33 0.673 47.387
14250 0.675 47.279 0.735 -42.438 0.735 -42.438 0.675 47.279
14300 0.676 47.173 0.733 -42.546 0.733 -42.546 0.676 47.173
14350 0.678 47.066 0.732 -42.653 0.732 -42.653 0.678 47.066
14400 0.679 46.96 0.731 -42.76 0.731 -42.76 0.679 46.96
14450 0.68 46.854 0.73 -42.867 0.73 -42.867 0.68 46.854
14500 0.682 46.749 0.728 -42.973 0.728 -42.973 0.682 46.749
14550 0.683 46.644 0.727 -43.078 0.727 -43.078 0.683 46.644
14600 0.684 46.54 0.726 -43.184 0.726 -43.184 0.684 46.54
14650 0.686 46.436 0.725 -43.289 0.725 -43.289 0.686 46.436
14700 0.687 46.332 0.723 -43.393 0.723 -43.393 0.687 46.332
14750 0.688 46.229 0.722 -43.497 0.722 -43.497 0.688 46.229
14800 0.69 46.126 0.721 -43.601 0.721 -43.601 0.69 46.126
14850 0.691 46.023 0.72 -43.705 0.72 -43.705 0.691 46.023
14900 0.692 45.921 0.718 -43.808 0.718 -43.808 0.692 45.921
14950 0.694 45.819 0.717 -43.91 0.717 -43.91 0.694 45.819
15000 0.695 45.717 0.716 -44.012 0.716 -44.012 0.695 45.717
15050 0.696 45.616 0.715 -44.114 0.715 -44.114 0.696 45.616
15100 0.697 45.516 0.713 -44.216 0.713 -44.216 0.697 45.516
15150 0.699 45.415 0.712 -44.317 0.712 -44.317 0.699 45.415
15200 0.7 45.315 0.711 -44.418 0.711 -44.418 0.7 45.315
15250 0.701 45.216 0.71 -44.518 0.71 -44.518 0.701 45.216
15300 0.702 45.116 0.709 -44.618 0.709 -44.618 0.702 45.116
15350 0.704 45.017 0.707 -44.718 0.707 -44.718 0.704 45.017
15400 0.705 44.919 0.706 -44.817 0.706 -44.817 0.705 44.919
15450 0.706 44.82 0.705 -44.916 0.705 -44.916 0.706 44.82
15500 0.707 44.723 0.704 -45.015 0.704 -45.015 0.707 44.723
15550 0.709 44.625 0.702 -45.113 0.702 -45.113 0.709 44.625
15600 0.71 44.528 0.701 -45.211 0.701 -45.211 0.71 44.528
15650 0.711 44.431 0.7 -45.308 0.7 -45.308 0.711 44.431
15700 0.712 44.335 0.699 -45.406 0.699 -45.406 0.712 44.335
15750 0.713 44.239 0.698 -45.502 0.698 -45.502 0.713 44.239
15800 0.714 44.143 0.696 -45.599 0.696 -45.599 0.714 44.143
15850 0.716 44.047 0.695 -45.695 0.695 -45.695 0.716 44.047
15900 0.717 43.952 0.694 -45.791 0.694 -45.791 0.717 43.952
15950 0.718 43.858 0.693 -45.886 0.693 -45.886 0.718 43.858
16000 0.719 43.763 0.692 -45.981 0.692 -45.981 0.719 43.763
16050 0.72 43.669 0.69 -46.076 0.69 -46.076 0.72 43.669
16100 0.721 43.575 0.689 -46.17 0.689 -46.17 0.721 43.575
16150 0.723 43.482 0.688 -46.264 0.688 -46.264 0.723 43.482
16200 0.724 43.389 0.687 -46.358 0.687 -46.358 0.724 43.389
16250 0.725 43.296 0.686 -46.451 0.686 -46.451 0.725 43.296
16300 0.726 43.204 0.685 -46.545 0.685 -46.545 0.726 43.204
16350 0.727 43.112 0.683 -46.637 0.683 -46.637 0.727 43.112
16400 0.728 43.02 0.682 -46.73 0.682 -46.73 0.728 43.02
16450 0.729 42.929 0.681 -46.822 0.681 -46.822 0.729 42.929
16500 0.73 42.837 0.68 -46.913 0.68 -46.913 0.73 42.837
16550 0.731 42.747 0.679 -47.005 0.679 -47.005 0.731 42.747
16600 0.732 42.656 0.678 -47.096 0.678 -47.096 0.732 42.656
16650 0.734 42.566 0.676 -47.186 0.676 -47.186 0.734 42.566
16700 0.735 42.476 0.675 -47.277 0.675 -47.277 0.735 42.476
16750 0.736 42.387 0.674 -47.367 0.674 -47.367 0.736 42.387
16800 0.737 42.298 0.673 -47.457 0.673 -47.457 0.737 42.298
16850 0.738 42.209 0.672 -47.546 0.672 -47.546 0.738 42.209
16900 0.739 42.12 0.671 -47.635 0.671 -47.635 0.739 42.12
