! AVX Thin Film Operation		Date: April 2012 
! Description: Accu-P® Series, Thin Film, SMD, RF Capacitor
! Part Number: 12101J4R4ABTTR					
!	50	MHz	-	20.05	GHz			
!	Serial	Measurements						
!								
#	MHZ	S	MA	R	50			
!	S11	S21	S12	S22				
!	dB	Phase	dB	Phase	dB	Phase	dB	Phase
50 0.99 -7.872 0.137 82.047 0.137 82.047 0.99 -7.872
100 0.963 -15.474 0.267 74.422 0.267 74.422 0.963 -15.474
150 0.922 -22.589 0.384 67.284 0.384 67.284 0.922 -22.589
200 0.873 -29.084 0.486 60.765 0.486 60.765 0.873 -29.084
250 0.818 -34.905 0.572 54.92 0.572 54.92 0.818 -34.905
300 0.763 -40.062 0.644 49.738 0.644 49.738 0.763 -40.062
350 0.709 -44.603 0.702 45.173 0.702 45.173 0.709 -44.603
400 0.658 -48.591 0.75 41.158 0.75 41.158 0.658 -48.591
450 0.61 -52.098 0.789 37.625 0.789 37.625 0.61 -52.098
500 0.566 -55.19 0.821 34.505 0.821 34.505 0.566 -55.19
550 0.526 -57.927 0.847 31.741 0.847 31.741 0.526 -57.927
600 0.489 -60.36 0.869 29.278 0.869 29.278 0.489 -60.36
650 0.455 -62.534 0.887 27.074 0.887 27.074 0.455 -62.534
700 0.424 -64.487 0.903 25.09 0.903 25.09 0.424 -64.487
750 0.395 -66.248 0.915 23.295 0.915 23.295 0.395 -66.248
800 0.369 -67.846 0.926 21.663 0.926 21.663 0.369 -67.846
850 0.345 -69.301 0.935 20.172 0.935 20.172 0.345 -69.301
900 0.322 -70.632 0.943 18.802 0.943 18.802 0.322 -70.632
950 0.301 -71.855 0.95 17.54 0.95 17.54 0.301 -71.855
1000 0.282 -72.981 0.956 16.37 0.956 16.37 0.282 -72.981
1050 0.264 -74.022 0.961 15.283 0.961 15.283 0.264 -74.022
1100 0.246 -74.988 0.966 14.268 0.966 14.268 0.246 -74.988
1150 0.23 -75.886 0.97 13.318 0.97 13.318 0.23 -75.886
1200 0.215 -76.722 0.973 12.425 0.973 12.425 0.215 -76.722
1250 0.201 -77.502 0.976 11.583 0.976 11.583 0.201 -77.502
1300 0.187 -78.231 0.979 10.788 0.979 10.788 0.187 -78.231
1350 0.174 -78.912 0.981 10.034 0.981 10.034 0.174 -78.912
1400 0.162 -79.548 0.984 9.317 0.984 9.317 0.162 -79.548
1450 0.15 -80.142 0.985 8.634 0.985 8.634 0.15 -80.142
1500 0.139 -80.695 0.987 7.982 0.987 7.982 0.139 -80.695
1550 0.128 -81.207 0.989 7.357 0.989 7.357 0.128 -81.207
1600 0.118 -81.679 0.99 6.759 0.99 6.759 0.118 -81.679
1650 0.108 -82.11 0.991 6.184 0.991 6.184 0.108 -82.11
1700 0.098 -82.496 0.992 5.63 0.992 5.63 0.098 -82.496
1750 0.089 -82.834 0.993 5.096 0.993 5.096 0.089 -82.834
1800 0.08 -83.118 0.994 4.581 0.994 4.581 0.08 -83.118
1850 0.071 -83.336 0.994 4.082 0.994 4.082 0.071 -83.336
1900 0.063 -83.474 0.995 3.599 0.995 3.599 0.063 -83.474
1950 0.055 -83.506 0.995 3.131 0.995 3.131 0.055 -83.506
2000 0.047 -83.391 0.996 2.676 0.996 2.676 0.047 -83.391
2050 0.039 -83.059 0.996 2.234 0.996 2.234 0.039 -83.059
2100 0.032 -82.372 0.996 1.803 0.996 1.803 0.032 -82.372
2150 0.024 -81.043 0.996 1.383 0.996 1.383 0.024 -81.043
2200 0.017 -78.331 0.997 0.974 0.997 0.974 0.017 -78.331
2250 0.011 -71.659 0.997 0.574 0.997 0.574 0.011 -71.659
2300 4.529e-3 -44.685 0.997 0.183 0.997 0.183 4.529e-3 -44.685
2350 4.733e-3 47.106 0.997 -0.199 0.997 -0.199 4.733e-3 47.106
2400 0.011 71.654 0.997 -0.574 0.997 -0.574 0.011 71.654
2450 0.017 77.997 0.997 -0.941 0.997 -0.941 0.017 77.997
2500 0.023 80.65 0.997 -1.3 0.997 -1.3 0.023 80.65
2550 0.029 81.999 0.996 -1.653 0.996 -1.653 0.029 81.999
2600 0.035 82.746 0.996 -2 0.996 -2 0.035 82.746
2650 0.041 83.166 0.996 -2.341 0.996 -2.341 0.041 83.166
2700 0.047 83.391 0.996 -2.676 0.996 -2.676 0.047 83.391
2750 0.053 83.492 0.995 -3.005 0.995 -3.005 0.053 83.492
2800 0.058 83.507 0.995 -3.33 0.995 -3.33 0.058 83.507
2850 0.064 83.464 0.995 -3.649 0.995 -3.649 0.064 83.464
2900 0.069 83.378 0.994 -3.964 0.994 -3.964 0.069 83.378
2950 0.075 83.26 0.994 -4.275 0.994 -4.275 0.075 83.26
3000 0.08 83.118 0.994 -4.581 0.994 -4.581 0.08 83.118
3050 0.085 82.958 0.993 -4.883 0.993 -4.883 0.085 82.958
3100 0.09 82.783 0.993 -5.181 0.993 -5.181 0.09 82.783
3150 0.095 82.598 0.992 -5.476 0.992 -5.476 0.095 82.598
3200 0.101 82.404 0.992 -5.766 0.992 -5.766 0.101 82.404
3250 0.106 82.203 0.991 -6.054 0.991 -6.054 0.106 82.203
3300 0.11 81.997 0.991 -6.338 0.991 -6.338 0.11 81.997
3350 0.115 81.786 0.99 -6.619 0.99 -6.619 0.115 81.786
3400 0.12 81.572 0.99 -6.897 0.99 -6.897 0.12 81.572
3450 0.125 81.355 0.989 -7.172 0.989 -7.172 0.125 81.355
3500 0.13 81.137 0.988 -7.445 0.988 -7.445 0.13 81.137
3550 0.134 80.916 0.988 -7.714 0.988 -7.714 0.134 80.916
3600 0.139 80.695 0.987 -7.981 0.987 -7.981 0.139 80.695
3650 0.143 80.473 0.986 -8.246 0.986 -8.246 0.143 80.473
3700 0.148 80.25 0.986 -8.508 0.986 -8.508 0.148 80.25
3750 0.152 80.027 0.985 -8.768 0.985 -8.768 0.152 80.027
3800 0.157 79.804 0.984 -9.025 0.984 -9.025 0.157 79.804
3850 0.161 79.58 0.984 -9.28 0.984 -9.28 0.161 79.58
3900 0.166 79.357 0.983 -9.533 0.983 -9.533 0.166 79.357
3950 0.17 79.135 0.982 -9.784 0.982 -9.784 0.17 79.135
4000 0.174 78.912 0.981 -10.033 0.981 -10.033 0.174 78.912
4050 0.178 78.69 0.981 -10.28 0.981 -10.28 0.178 78.69
4100 0.183 78.469 0.98 -10.526 0.98 -10.526 0.183 78.469
4150 0.187 78.248 0.979 -10.769 0.979 -10.769 0.187 78.248
4200 0.191 78.028 0.978 -11.011 0.978 -11.011 0.191 78.028
4250 0.195 77.808 0.978 -11.25 0.978 -11.25 0.195 77.808
4300 0.199 77.59 0.977 -11.488 0.977 -11.488 0.199 77.59
4350 0.203 77.372 0.976 -11.725 0.976 -11.725 0.203 77.372
4400 0.207 77.154 0.975 -11.96 0.975 -11.96 0.207 77.154
4450 0.211 76.938 0.974 -12.193 0.974 -12.193 0.211 76.938
4500 0.215 76.722 0.973 -12.425 0.973 -12.425 0.215 76.722
4550 0.219 76.507 0.973 -12.655 0.973 -12.655 0.219 76.507
4600 0.223 76.293 0.972 -12.884 0.972 -12.884 0.223 76.293
4650 0.227 76.08 0.971 -13.111 0.971 -13.111 0.227 76.08
4700 0.231 75.868 0.97 -13.337 0.97 -13.337 0.231 75.868
4750 0.235 75.656 0.969 -13.562 0.969 -13.562 0.235 75.656
4800 0.238 75.445 0.968 -13.785 0.968 -13.785 0.238 75.445
4850 0.242 75.235 0.967 -14.007 0.967 -14.007 0.242 75.235
4900 0.246 75.026 0.966 -14.228 0.966 -14.228 0.246 75.026
4950 0.25 74.818 0.965 -14.448 0.965 -14.448 0.25 74.818
5000 0.253 74.611 0.964 -14.666 0.964 -14.666 0.253 74.611
5050 0.257 74.404 0.963 -14.883 0.963 -14.883 0.257 74.404
5100 0.261 74.198 0.962 -15.099 0.962 -15.099 0.261 74.198
5150 0.264 73.993 0.961 -15.313 0.961 -15.313 0.264 73.993
5200 0.268 73.789 0.96 -15.527 0.96 -15.527 0.268 73.789
5250 0.271 73.586 0.959 -15.739 0.959 -15.739 0.271 73.586
5300 0.275 73.384 0.958 -15.951 0.958 -15.951 0.275 73.384
5350 0.278 73.182 0.957 -16.161 0.957 -16.161 0.278 73.182
5400 0.282 72.981 0.956 -16.37 0.956 -16.37 0.282 72.981
5450 0.285 72.781 0.955 -16.578 0.955 -16.578 0.285 72.781
5500 0.289 72.582 0.954 -16.785 0.954 -16.785 0.289 72.582
5550 0.292 72.384 0.953 -16.991 0.953 -16.991 0.292 72.384
5600 0.296 72.186 0.952 -17.196 0.952 -17.196 0.296 72.186
5650 0.299 71.989 0.951 -17.4 0.951 -17.4 0.299 71.989
5700 0.302 71.793 0.95 -17.603 0.95 -17.603 0.302 71.793
5750 0.306 71.598 0.949 -17.806 0.949 -17.806 0.306 71.598
5800 0.309 71.403 0.948 -18.007 0.948 -18.007 0.309 71.403
5850 0.312 71.209 0.947 -18.207 0.947 -18.207 0.312 71.209
5900 0.316 71.016 0.946 -18.406 0.946 -18.406 0.316 71.016
5950 0.319 70.824 0.945 -18.605 0.945 -18.605 0.319 70.824
6000 0.322 70.633 0.943 -18.802 0.943 -18.802 0.322 70.633
6050 0.326 70.442 0.942 -18.999 0.942 -18.999 0.326 70.442
6100 0.329 70.252 0.941 -19.194 0.941 -19.194 0.329 70.252
6150 0.332 70.062 0.94 -19.389 0.94 -19.389 0.332 70.062
6200 0.335 69.874 0.939 -19.583 0.939 -19.583 0.335 69.874
6250 0.338 69.686 0.938 -19.776 0.938 -19.776 0.338 69.686
6300 0.342 69.499 0.937 -19.969 0.937 -19.969 0.342 69.499
6350 0.345 69.312 0.936 -20.16 0.936 -20.16 0.345 69.312
6400 0.348 69.127 0.934 -20.351 0.934 -20.351 0.348 69.127
6450 0.351 68.942 0.933 -20.541 0.933 -20.541 0.351 68.942
6500 0.354 68.757 0.932 -20.73 0.932 -20.73 0.354 68.757
6550 0.357 68.574 0.931 -20.918 0.931 -20.918 0.357 68.574
6600 0.36 68.391 0.93 -21.105 0.93 -21.105 0.36 68.391
6650 0.363 68.209 0.929 -21.292 0.929 -21.292 0.363 68.209
6700 0.366 68.027 0.927 -21.478 0.927 -21.478 0.366 68.027
6750 0.369 67.846 0.926 -21.663 0.926 -21.663 0.369 67.846
6800 0.372 67.666 0.925 -21.847 0.925 -21.847 0.372 67.666
6850 0.375 67.487 0.924 -22.031 0.924 -22.031 0.375 67.487
6900 0.378 67.308 0.923 -22.213 0.923 -22.213 0.378 67.308
6950 0.381 67.13 0.921 -22.396 0.921 -22.396 0.381 67.13
7000 0.384 66.952 0.92 -22.577 0.92 -22.577 0.384 66.952
7050 0.387 66.775 0.919 -22.757 0.919 -22.757 0.387 66.775
7100 0.39 66.599 0.918 -22.937 0.918 -22.937 0.39 66.599
7150 0.393 66.424 0.917 -23.116 0.917 -23.116 0.393 66.424
7200 0.395 66.249 0.915 -23.295 0.915 -23.295 0.395 66.249
7250 0.398 66.074 0.914 -23.473 0.914 -23.473 0.398 66.074
7300 0.401 65.901 0.913 -23.65 0.913 -23.65 0.401 65.901
7350 0.404 65.728 0.912 -23.826 0.912 -23.826 0.404 65.728
7400 0.407 65.556 0.91 -24.002 0.91 -24.002 0.407 65.556
7450 0.41 65.384 0.909 -24.176 0.909 -24.176 0.41 65.384
7500 0.412 65.213 0.908 -24.351 0.908 -24.351 0.412 65.213
7550 0.415 65.042 0.907 -24.524 0.907 -24.524 0.415 65.042
7600 0.418 64.873 0.905 -24.697 0.905 -24.697 0.418 64.873
7650 0.421 64.703 0.904 -24.869 0.904 -24.869 0.421 64.703
7700 0.423 64.535 0.903 -25.041 0.903 -25.041 0.423 64.535
7750 0.426 64.367 0.902 -25.212 0.902 -25.212 0.426 64.367
7800 0.429 64.2 0.9 -25.382 0.9 -25.382 0.429 64.2
7850 0.431 64.033 0.899 -25.552 0.899 -25.552 0.431 64.033
7900 0.434 63.867 0.898 -25.72 0.898 -25.72 0.434 63.867
7950 0.437 63.701 0.897 -25.889 0.897 -25.889 0.437 63.701
8000 0.439 63.536 0.895 -26.056 0.895 -26.056 0.439 63.536
8050 0.442 63.372 0.894 -26.223 0.894 -26.223 0.442 63.372
8100 0.444 63.208 0.893 -26.39 0.893 -26.39 0.444 63.208
8150 0.447 63.045 0.891 -26.555 0.891 -26.555 0.447 63.045
8200 0.45 62.882 0.89 -26.72 0.89 -26.72 0.45 62.882
8250 0.452 62.721 0.889 -26.885 0.889 -26.885 0.452 62.721
8300 0.455 62.559 0.888 -27.049 0.888 -27.049 0.455 62.559
8350 0.457 62.398 0.886 -27.212 0.886 -27.212 0.457 62.398
8400 0.46 62.238 0.885 -27.374 0.885 -27.374 0.46 62.238
8450 0.462 62.079 0.884 -27.536 0.884 -27.536 0.462 62.079
8500 0.465 61.919 0.882 -27.698 0.882 -27.698 0.465 61.919
8550 0.467 61.761 0.881 -27.858 0.881 -27.858 0.467 61.761
8600 0.47 61.603 0.88 -28.018 0.88 -28.018 0.47 61.603
8650 0.472 61.446 0.878 -28.178 0.878 -28.178 0.472 61.446
8700 0.475 61.289 0.877 -28.337 0.877 -28.337 0.475 61.289
8750 0.477 61.133 0.876 -28.495 0.876 -28.495 0.477 61.133
8800 0.48 60.977 0.874 -28.653 0.874 -28.653 0.48 60.977
8850 0.482 60.822 0.873 -28.81 0.873 -28.81 0.482 60.822
8900 0.484 60.668 0.872 -28.967 0.872 -28.967 0.484 60.668
8950 0.487 60.514 0.87 -29.123 0.87 -29.123 0.487 60.514
9000 0.489 60.36 0.869 -29.278 0.869 -29.278 0.489 60.36
9050 0.491 60.207 0.868 -29.433 0.868 -29.433 0.491 60.207
9100 0.494 60.055 0.867 -29.587 0.867 -29.587 0.494 60.055
9150 0.496 59.903 0.865 -29.741 0.865 -29.741 0.496 59.903
9200 0.498 59.752 0.864 -29.894 0.864 -29.894 0.498 59.752
9250 0.501 59.601 0.863 -30.046 0.863 -30.046 0.501 59.601
9300 0.503 59.451 0.861 -30.198 0.861 -30.198 0.503 59.451
9350 0.505 59.302 0.86 -30.35 0.86 -30.35 0.505 59.302
9400 0.508 59.153 0.859 -30.501 0.859 -30.501 0.508 59.153
9450 0.51 59.004 0.857 -30.651 0.857 -30.651 0.51 59.004
9500 0.512 58.856 0.856 -30.801 0.856 -30.801 0.512 58.856
9550 0.514 58.709 0.855 -30.95 0.855 -30.95 0.514 58.709
9600 0.517 58.562 0.853 -31.098 0.853 -31.098 0.517 58.562
9650 0.519 58.416 0.852 -31.246 0.852 -31.246 0.519 58.416
9700 0.521 58.27 0.851 -31.394 0.851 -31.394 0.521 58.27
9750 0.523 58.124 0.849 -31.541 0.849 -31.541 0.523 58.124
9800 0.525 57.98 0.848 -31.687 0.848 -31.687 0.525 57.98
9850 0.527 57.835 0.847 -31.833 0.847 -31.833 0.527 57.835
9900 0.53 57.692 0.845 -31.979 0.845 -31.979 0.53 57.692
9950 0.532 57.548 0.844 -32.123 0.844 -32.123 0.532 57.548
10000 0.534 57.406 0.843 -32.268 0.843 -32.268 0.534 57.406
10050 0.536 57.263 0.841 -32.411 0.841 -32.411 0.536 57.263
10100 0.538 57.122 0.84 -32.555 0.84 -32.555 0.538 57.122
10150 0.54 56.98 0.838 -32.697 0.838 -32.697 0.54 56.98
10200 0.542 56.84 0.837 -32.839 0.837 -32.839 0.542 56.84
10250 0.544 56.7 0.836 -32.981 0.836 -32.981 0.544 56.7
10300 0.546 56.56 0.834 -33.122 0.834 -33.122 0.546 56.56
10350 0.548 56.421 0.833 -33.263 0.833 -33.263 0.548 56.421
10400 0.551 56.282 0.832 -33.403 0.832 -33.403 0.551 56.282
10450 0.553 56.144 0.83 -33.542 0.83 -33.542 0.553 56.144
10500 0.555 56.006 0.829 -33.681 0.829 -33.681 0.555 56.006
10550 0.557 55.869 0.828 -33.82 0.828 -33.82 0.557 55.869
10600 0.559 55.732 0.826 -33.958 0.826 -33.958 0.559 55.732
10650 0.561 55.596 0.825 -34.096 0.825 -34.096 0.561 55.596
10700 0.563 55.46 0.824 -34.233 0.824 -34.233 0.563 55.46
10750 0.565 55.325 0.822 -34.369 0.822 -34.369 0.565 55.325
10800 0.566 55.19 0.821 -34.505 0.821 -34.505 0.566 55.19
10850 0.568 55.056 0.82 -34.641 0.82 -34.641 0.568 55.056
10900 0.57 54.922 0.818 -34.776 0.818 -34.776 0.57 54.922
10950 0.572 54.789 0.817 -34.91 0.817 -34.91 0.572 54.789
11000 0.574 54.656 0.816 -35.044 0.816 -35.044 0.574 54.656
11050 0.576 54.524 0.814 -35.178 0.814 -35.178 0.576 54.524
11100 0.578 54.392 0.813 -35.311 0.813 -35.311 0.578 54.392
11150 0.58 54.261 0.812 -35.443 0.812 -35.443 0.58 54.261
11200 0.582 54.13 0.81 -35.575 0.81 -35.575 0.582 54.13
11250 0.584 54 0.809 -35.707 0.809 -35.707 0.584 54
11300 0.586 53.87 0.808 -35.838 0.808 -35.838 0.586 53.87
11350 0.587 53.74 0.806 -35.969 0.806 -35.969 0.587 53.74
11400 0.589 53.611 0.805 -36.099 0.805 -36.099 0.589 53.611
11450 0.591 53.483 0.804 -36.229 0.804 -36.229 0.591 53.483
11500 0.593 53.354 0.802 -36.358 0.802 -36.358 0.593 53.354
11550 0.595 53.227 0.801 -36.487 0.801 -36.487 0.595 53.227
11600 0.596 53.1 0.8 -36.615 0.8 -36.615 0.596 53.1
11650 0.598 52.973 0.798 -36.743 0.798 -36.743 0.598 52.973
11700 0.6 52.847 0.797 -36.87 0.797 -36.87 0.6 52.847
11750 0.602 52.721 0.796 -36.997 0.796 -36.997 0.602 52.721
11800 0.604 52.596 0.794 -37.123 0.794 -37.123 0.604 52.596
11850 0.605 52.471 0.793 -37.249 0.793 -37.249 0.605 52.471
11900 0.607 52.346 0.792 -37.375 0.792 -37.375 0.607 52.346
11950 0.609 52.222 0.79 -37.5 0.79 -37.5 0.609 52.222
12000 0.61 52.099 0.789 -37.624 0.789 -37.624 0.61 52.099
12050 0.612 51.976 0.788 -37.748 0.788 -37.748 0.612 51.976
12100 0.614 51.853 0.786 -37.872 0.786 -37.872 0.614 51.853
12150 0.616 51.731 0.785 -37.995 0.785 -37.995 0.616 51.731
12200 0.617 51.609 0.784 -38.118 0.784 -38.118 0.617 51.609
12250 0.619 51.487 0.782 -38.24 0.782 -38.24 0.619 51.487
12300 0.621 51.367 0.781 -38.362 0.781 -38.362 0.621 51.367
12350 0.622 51.246 0.78 -38.484 0.78 -38.484 0.622 51.246
12400 0.624 51.126 0.779 -38.605 0.779 -38.605 0.624 51.126
12450 0.626 51.006 0.777 -38.725 0.777 -38.725 0.626 51.006
12500 0.627 50.887 0.776 -38.845 0.776 -38.845 0.627 50.887
12550 0.629 50.769 0.775 -38.965 0.775 -38.965 0.629 50.769
12600 0.63 50.65 0.773 -39.084 0.773 -39.084 0.63 50.65
12650 0.632 50.532 0.772 -39.203 0.772 -39.203 0.632 50.532
12700 0.634 50.415 0.771 -39.321 0.771 -39.321 0.634 50.415
12750 0.635 50.298 0.769 -39.439 0.769 -39.439 0.635 50.298
12800 0.637 50.181 0.768 -39.557 0.768 -39.557 0.637 50.181
12850 0.638 50.065 0.767 -39.674 0.767 -39.674 0.638 50.065
12900 0.64 49.949 0.765 -39.79 0.765 -39.79 0.64 49.949
12950 0.642 49.834 0.764 -39.907 0.764 -39.907 0.642 49.834
13000 0.643 49.719 0.763 -40.022 0.763 -40.022 0.643 49.719
13050 0.645 49.604 0.762 -40.138 0.762 -40.138 0.645 49.604
13100 0.646 49.49 0.76 -40.253 0.76 -40.253 0.646 49.49
13150 0.648 49.376 0.759 -40.367 0.759 -40.367 0.648 49.376
13200 0.649 49.263 0.758 -40.481 0.758 -40.481 0.649 49.263
13250 0.651 49.15 0.756 -40.595 0.756 -40.595 0.651 49.15
13300 0.652 49.038 0.755 -40.709 0.755 -40.709 0.652 49.038
13350 0.654 48.926 0.754 -40.821 0.754 -40.821 0.654 48.926
13400 0.655 48.814 0.753 -40.934 0.753 -40.934 0.655 48.814
13450 0.657 48.703 0.751 -41.046 0.751 -41.046 0.657 48.703
13500 0.658 48.592 0.75 -41.158 0.75 -41.158 0.658 48.592
13550 0.66 48.481 0.749 -41.269 0.749 -41.269 0.66 48.481
13600 0.661 48.371 0.747 -41.38 0.747 -41.38 0.661 48.371
13650 0.662 48.261 0.746 -41.49 0.746 -41.49 0.662 48.261
13700 0.664 48.152 0.745 -41.6 0.745 -41.6 0.664 48.152
13750 0.665 48.043 0.744 -41.71 0.744 -41.71 0.665 48.043
13800 0.667 47.934 0.742 -41.819 0.742 -41.819 0.667 47.934
13850 0.668 47.826 0.741 -41.928 0.741 -41.928 0.668 47.826
13900 0.67 47.719 0.74 -42.037 0.74 -42.037 0.67 47.719
13950 0.671 47.611 0.739 -42.145 0.739 -42.145 0.671 47.611
14000 0.672 47.504 0.737 -42.253 0.737 -42.253 0.672 47.504
14050 0.674 47.398 0.736 -42.36 0.736 -42.36 0.674 47.398
14100 0.675 47.291 0.735 -42.467 0.735 -42.467 0.675 47.291
14150 0.677 47.185 0.734 -42.573 0.734 -42.573 0.677 47.185
14200 0.678 47.08 0.732 -42.68 0.732 -42.68 0.678 47.08
14250 0.679 46.975 0.731 -42.785 0.731 -42.785 0.679 46.975
14300 0.681 46.87 0.73 -42.891 0.73 -42.891 0.681 46.87
14350 0.682 46.766 0.729 -42.996 0.729 -42.996 0.682 46.766
14400 0.683 46.662 0.727 -43.1 0.727 -43.1 0.683 46.662
14450 0.685 46.558 0.726 -43.205 0.726 -43.205 0.685 46.558
14500 0.686 46.455 0.725 -43.309 0.725 -43.309 0.686 46.455
14550 0.687 46.352 0.724 -43.412 0.724 -43.412 0.687 46.352
14600 0.689 46.25 0.722 -43.515 0.722 -43.515 0.689 46.25
14650 0.69 46.147 0.721 -43.618 0.721 -43.618 0.69 46.147
14700 0.691 46.046 0.72 -43.721 0.72 -43.721 0.691 46.046
14750 0.692 45.944 0.719 -43.823 0.719 -43.823 0.692 45.944
14800 0.694 45.843 0.717 -43.924 0.717 -43.924 0.694 45.843
14850 0.695 45.742 0.716 -44.026 0.716 -44.026 0.695 45.742
14900 0.696 45.642 0.715 -44.127 0.715 -44.127 0.696 45.642
14950 0.698 45.542 0.714 -44.227 0.714 -44.227 0.698 45.542
15000 0.699 45.442 0.713 -44.327 0.713 -44.327 0.699 45.442
15050 0.7 45.343 0.711 -44.427 0.711 -44.427 0.7 45.343
15100 0.701 45.244 0.71 -44.527 0.71 -44.527 0.701 45.244
15150 0.702 45.146 0.709 -44.626 0.709 -44.626 0.702 45.146
15200 0.704 45.047 0.708 -44.725 0.708 -44.725 0.704 45.047
15250 0.705 44.95 0.706 -44.823 0.706 -44.823 0.705 44.95
15300 0.706 44.852 0.705 -44.921 0.705 -44.921 0.706 44.852
15350 0.707 44.755 0.704 -45.019 0.704 -45.019 0.707 44.755
15400 0.709 44.658 0.703 -45.117 0.703 -45.117 0.709 44.658
15450 0.71 44.562 0.702 -45.214 0.702 -45.214 0.71 44.562
15500 0.711 44.465 0.7 -45.311 0.7 -45.311 0.711 44.465
15550 0.712 44.37 0.699 -45.407 0.699 -45.407 0.712 44.37
15600 0.713 44.274 0.698 -45.503 0.698 -45.503 0.713 44.274
15650 0.714 44.179 0.697 -45.599 0.697 -45.599 0.714 44.179
15700 0.716 44.084 0.696 -45.694 0.696 -45.694 0.716 44.084
15750 0.717 43.99 0.695 -45.789 0.695 -45.789 0.717 43.99
15800 0.718 43.895 0.693 -45.884 0.693 -45.884 0.718 43.895
15850 0.719 43.802 0.692 -45.978 0.692 -45.978 0.719 43.802
15900 0.72 43.708 0.691 -46.072 0.691 -46.072 0.72 43.708
15950 0.721 43.615 0.69 -46.166 0.69 -46.166 0.721 43.615
16000 0.722 43.522 0.689 -46.259 0.689 -46.259 0.722 43.522
16050 0.724 43.43 0.687 -46.352 0.687 -46.352 0.724 43.43
16100 0.725 43.338 0.686 -46.445 0.686 -46.445 0.725 43.338
16150 0.726 43.246 0.685 -46.537 0.685 -46.537 0.726 43.246
16200 0.727 43.154 0.684 -46.629 0.684 -46.629 0.727 43.154
16250 0.728 43.063 0.683 -46.721 0.683 -46.721 0.728 43.063
16300 0.729 42.972 0.682 -46.813 0.682 -46.813 0.729 42.972
16350 0.73 42.881 0.68 -46.904 0.68 -46.904 0.73 42.881
16400 0.731 42.791 0.679 -46.994 0.679 -46.994 0.731 42.791
16450 0.732 42.701 0.678 -47.085 0.678 -47.085 0.732 42.701
16500 0.733 42.612 0.677 -47.175 0.677 -47.175 0.733 42.612
16550 0.735 42.522 0.676 -47.265 0.676 -47.265 0.735 42.522
16600 0.736 42.433 0.675 -47.354 0.675 -47.354 0.736 42.433
16650 0.737 42.345 0.674 -47.443 0.674 -47.443 0.737 42.345
16700 0.738 42.256 0.672 -47.532 0.672 -47.532 0.738 42.256
16750 0.739 42.168 0.671 -47.621 0.671 -47.621 0.739 42.168
16800 0.74 42.08 0.67 -47.709 0.67 -47.709 0.74 42.08
16850 0.741 41.993 0.669 -47.797 0.669 -47.797 0.741 41.993
16900 0.742 41.906 0.668 -47.885 0.668 -47.885 0.742 41.906
16950 0.743 41.819 0.667 -47.972 0.667 -47.972 0.743 41.819
