! AVX Thin Film Operation		Date: April 2012 
! Description: Accu-P® Series, Thin Film, SMD, RF Capacitor
! Part Number: 12101J270FBTTR					
!	100	MHz	-	10.05	GHz			
!	Serial	Measurements						
!								
#	MHZ	S	MA	R	50			
!	S11	S21	S12	S22				
!	dB	Phase	dB	Phase	dB	Phase	dB	Phase
100	0.503	-59.713	0.864	30.209	0.864	30.209	0.503	-59.713
109.812	0.468	-62.038	0.883	27.875	0.883	27.875	0.468	-62.038
119.623	0.436	-64.066	0.899	25.839	0.899	25.839	0.436	-64.066
129.435	0.408	-65.847	0.912	24.05	0.912	24.05	0.408	-65.847
139.247	0.382	-67.422	0.923	22.467	0.923	22.467	0.382	-67.422
149.058	0.359	-68.822	0.932	21.059	0.932	21.059	0.359	-68.822
158.87	0.339	-70.075	0.94	19.798	0.94	19.798	0.339	-70.075
168.682	0.32	-71.202	0.947	18.662	0.947	18.662	0.32	-71.202
178.494	0.303	-72.221	0.952	17.635	0.952	17.635	0.303	-72.221
188.305	0.287	-73.147	0.957	16.701	0.957	16.701	0.287	-73.147
198.117	0.273	-73.991	0.961	15.848	0.961	15.848	0.273	-73.991
207.929	0.26	-74.764	0.965	15.066	0.965	15.066	0.26	-74.764
217.74	0.248	-75.475	0.968	14.346	0.968	14.346	0.248	-75.475
227.552	0.237	-76.131	0.971	13.681	0.971	13.681	0.237	-76.131
237.364	0.226	-76.738	0.973	13.065	0.973	13.065	0.226	-76.738
247.175	0.216	-77.302	0.976	12.492	0.976	12.492	0.216	-77.302
256.987	0.207	-77.826	0.978	11.957	0.978	11.957	0.207	-77.826
266.799	0.199	-78.316	0.979	11.458	0.979	11.458	0.199	-78.316
276.611	0.191	-78.775	0.981	10.989	0.981	10.989	0.191	-78.775
286.422	0.183	-79.205	0.982	10.549	0.982	10.549	0.183	-79.205
296.234	0.176	-79.609	0.984	10.135	0.984	10.135	0.176	-79.609
306.046	0.169	-79.99	0.985	9.744	0.985	9.744	0.169	-79.99
315.857	0.163	-80.349	0.986	9.373	0.986	9.373	0.163	-80.349
325.669	0.157	-80.689	0.987	9.023	0.987	9.023	0.157	-80.689
335.481	0.151	-81.011	0.988	8.69	0.988	8.69	0.151	-81.011
345.292	0.146	-81.316	0.989	8.373	0.989	8.373	0.146	-81.316
355.104	0.14	-81.606	0.989	8.071	0.989	8.071	0.14	-81.606
364.916	0.135	-81.882	0.99	7.783	0.99	7.783	0.135	-81.882
374.727	0.131	-82.145	0.991	7.508	0.991	7.508	0.131	-82.145
384.539	0.126	-82.395	0.991	7.244	0.991	7.244	0.126	-82.395
394.351	0.122	-82.635	0.992	6.992	0.992	6.992	0.122	-82.635
404.163	0.118	-82.864	0.992	6.749	0.992	6.749	0.118	-82.864
413.974	0.113	-83.082	0.993	6.517	0.993	6.517	0.113	-83.082
423.786	0.11	-83.292	0.993	6.293	0.993	6.293	0.11	-83.292
433.598	0.106	-83.493	0.994	6.077	0.994	6.077	0.106	-83.493
443.409	0.102	-83.686	0.994	5.869	0.994	5.869	0.102	-83.686
453.221	0.099	-83.87	0.994	5.668	0.994	5.668	0.099	-83.87
463.033	0.095	-84.048	0.995	5.474	0.995	5.474	0.095	-84.048
472.844	0.092	-84.219	0.995	5.286	0.995	5.286	0.092	-84.219
482.656	0.089	-84.383	0.995	5.105	0.995	5.105	0.089	-84.383
492.468	0.086	-84.54	0.996	4.929	0.996	4.929	0.086	-84.54
502.279	0.083	-84.692	0.996	4.758	0.996	4.758	0.083	-84.692
512.091	0.08	-84.838	0.996	4.592	0.996	4.592	0.08	-84.838
521.903	0.077	-84.978	0.996	4.431	0.996	4.431	0.077	-84.978
531.715	0.075	-85.113	0.996	4.275	0.996	4.275	0.075	-85.113
541.526	0.072	-85.242	0.997	4.122	0.997	4.122	0.072	-85.242
551.338	0.069	-85.367	0.997	3.974	0.997	3.974	0.069	-85.367
561.15	0.067	-85.486	0.997	3.83	0.997	3.83	0.067	-85.486
570.961	0.064	-85.601	0.997	3.689	0.997	3.689	0.064	-85.601
580.773	0.062	-85.71	0.997	3.551	0.997	3.551	0.062	-85.71
590.585	0.06	-85.816	0.997	3.417	0.997	3.417	0.06	-85.816
600.396	0.057	-85.916	0.998	3.286	0.998	3.286	0.057	-85.916
610.208	0.055	-86.012	0.998	3.158	0.998	3.158	0.055	-86.012
620.02	0.053	-86.103	0.998	3.033	0.998	3.033	0.053	-86.103
629.832	0.051	-86.189	0.998	2.91	0.998	2.91	0.051	-86.189
639.643	0.049	-86.27	0.998	2.79	0.998	2.79	0.049	-86.27
649.455	0.047	-86.346	0.998	2.673	0.998	2.673	0.047	-86.346
659.267	0.045	-86.417	0.998	2.558	0.998	2.558	0.045	-86.417
669.078	0.043	-86.482	0.998	2.445	0.998	2.445	0.043	-86.482
678.89	0.041	-86.542	0.998	2.334	0.998	2.334	0.041	-86.542
688.702	0.039	-86.596	0.998	2.225	0.998	2.225	0.039	-86.596
698.513	0.037	-86.643	0.999	2.119	0.999	2.119	0.037	-86.643
708.325	0.035	-86.684	0.999	2.014	0.999	2.014	0.035	-86.684
718.137	0.033	-86.716	0.999	1.911	0.999	1.911	0.033	-86.716
727.948	0.032	-86.741	0.999	1.809	0.999	1.809	0.032	-86.741
737.76	0.03	-86.756	0.999	1.71	0.999	1.71	0.03	-86.756
747.572	0.028	-86.761	0.999	1.612	0.999	1.612	0.028	-86.761
757.384	0.026	-86.754	0.999	1.515	0.999	1.515	0.026	-86.754
767.195	0.025	-86.733	0.999	1.42	0.999	1.42	0.025	-86.733
777.007	0.023	-86.696	0.999	1.326	0.999	1.326	0.023	-86.696
786.819	0.022	-86.641	0.999	1.234	0.999	1.234	0.022	-86.641
796.63	0.02	-86.563	0.999	1.143	0.999	1.143	0.02	-86.563
806.442	0.018	-86.457	0.999	1.054	0.999	1.054	0.018	-86.457
816.254	0.017	-86.318	0.999	0.965	0.999	0.965	0.017	-86.318
826.065	0.015	-86.136	0.999	0.878	0.999	0.878	0.015	-86.136
835.877	0.014	-85.899	0.999	0.792	0.999	0.792	0.014	-85.899
845.689	0.012	-85.588	0.999	0.707	0.999	0.707	0.012	-85.588
855.5	0.011	-85.175	0.999	0.623	0.999	0.623	0.011	-85.175
865.312	9.47E-03	-84.617	0.999	0.541	0.999	0.541	9.47E-03	-84.617
875.124	8.05E-03	-83.841	0.999	0.459	0.999	0.459	8.05E-03	-83.841
884.936	6.65E-03	-82.713	0.999	0.378	0.999	0.378	6.65E-03	-82.713
894.747	5.26E-03	-80.967	0.999	0.298	0.999	0.298	5.26E-03	-80.967
904.559	3.91E-03	-77.974	0.999	0.219	0.999	0.219	3.91E-03	-77.974
914.371	2.59E-03	-71.862	0.999	0.141	0.999	0.141	2.59E-03	-71.862
924.182	1.37E-03	-54.23	0.999	0.064	0.999	0.064	1.37E-03	-54.23
933.994	8.30E-04	15.503	0.999	-0.013	0.999	-0.013	8.30E-04	15.503
943.806	1.74E-03	62.511	0.999	-0.088	0.999	-0.088	1.74E-03	62.511
953.617	2.96E-03	74.163	0.999	-0.163	0.999	-0.163	2.96E-03	74.163
963.429	4.22E-03	78.84	0.999	-0.237	0.999	-0.237	4.22E-03	78.84
973.241	5.48E-03	81.305	0.999	-0.311	0.999	-0.311	5.48E-03	81.305
983.053	6.74E-03	82.805	0.999	-0.383	0.999	-0.383	6.74E-03	82.805
992.864	7.99E-03	83.802	0.999	-0.455	0.999	-0.455	7.99E-03	83.802
1002.676	9.23E-03	84.504	0.999	-0.527	0.999	-0.527	9.23E-03	84.504
1012.488	0.01	85.019	0.999	-0.598	0.999	-0.598	0.01	85.019
1022.299	0.012	85.407	0.999	-0.668	0.999	-0.668	0.012	85.407
1032.111	0.013	85.707	0.999	-0.737	0.999	-0.737	0.013	85.707
1041.923	0.014	85.941	0.999	-0.806	0.999	-0.806	0.014	85.941
1051.734	0.015	86.127	0.999	-0.874	0.999	-0.874	0.015	86.127
1061.546	0.016	86.274	0.999	-0.942	0.999	-0.942	0.016	86.274
1071.358	0.018	86.392	0.999	-1.009	0.999	-1.009	0.018	86.392
1081.169	0.019	86.486	0.999	-1.076	0.999	-1.076	0.019	86.486
1090.981	0.02	86.561	0.999	-1.142	0.999	-1.142	0.02	86.561
1100.793	0.021	86.62	0.999	-1.208	0.999	-1.208	0.021	86.62
1110.605	0.022	86.666	0.999	-1.273	0.999	-1.273	0.022	86.666
1120.416	0.023	86.701	0.999	-1.337	0.999	-1.337	0.023	86.701
1130.228	0.024	86.727	0.999	-1.402	0.999	-1.402	0.024	86.727
1140.04	0.026	86.745	0.999	-1.465	0.999	-1.465	0.026	86.745
1149.851	0.027	86.755	0.999	-1.529	0.999	-1.529	0.027	86.755
1159.663	0.028	86.76	0.999	-1.591	0.999	-1.591	0.028	86.76
1169.475	0.029	86.76	0.999	-1.654	0.999	-1.654	0.029	86.76
1179.286	0.03	86.755	0.999	-1.716	0.999	-1.716	0.03	86.755
1189.098	0.031	86.747	0.999	-1.778	0.999	-1.778	0.031	86.747
1198.91	0.032	86.735	0.999	-1.839	0.999	-1.839	0.032	86.735
1208.722	0.033	86.719	0.999	-1.9	0.999	-1.9	0.033	86.719
1218.533	0.034	86.702	0.999	-1.96	0.999	-1.96	0.034	86.702
1228.345	0.035	86.681	0.999	-2.02	0.999	-2.02	0.035	86.681
1238.157	0.036	86.659	0.999	-2.08	0.999	-2.08	0.036	86.659
1247.968	0.037	86.634	0.999	-2.14	0.999	-2.14	0.037	86.634
1257.78	0.038	86.608	0.998	-2.199	0.998	-2.199	0.038	86.608
1267.592	0.039	86.581	0.998	-2.258	0.998	-2.258	0.039	86.581
1277.403	0.04	86.552	0.998	-2.316	0.998	-2.316	0.04	86.552
1287.215	0.041	86.521	0.998	-2.374	0.998	-2.374	0.041	86.521
1297.027	0.042	86.49	0.998	-2.432	0.998	-2.432	0.042	86.49
1306.838	0.043	86.457	0.998	-2.489	0.998	-2.489	0.043	86.457
1316.65	0.044	86.424	0.998	-2.547	0.998	-2.547	0.044	86.424
1326.462	0.045	86.389	0.998	-2.604	0.998	-2.604	0.045	86.389
1336.274	0.046	86.354	0.998	-2.66	0.998	-2.66	0.046	86.354
1346.085	0.047	86.318	0.998	-2.717	0.998	-2.717	0.047	86.318
1355.897	0.048	86.282	0.998	-2.773	0.998	-2.773	0.048	86.282
1365.709	0.049	86.244	0.998	-2.829	0.998	-2.829	0.049	86.244
1375.52	0.05	86.207	0.998	-2.884	0.998	-2.884	0.05	86.207
1385.332	0.051	86.169	0.998	-2.939	0.998	-2.939	0.051	86.169
1395.144	0.052	86.13	0.998	-2.995	0.998	-2.995	0.052	86.13
1404.955	0.053	86.091	0.998	-3.049	0.998	-3.049	0.053	86.091
1414.767	0.054	86.051	0.998	-3.104	0.998	-3.104	0.054	86.051
1424.579	0.055	86.012	0.998	-3.158	0.998	-3.158	0.055	86.012
1434.39	0.056	85.971	0.998	-3.212	0.998	-3.212	0.056	85.971
1444.202	0.057	85.931	0.998	-3.266	0.998	-3.266	0.057	85.931
1454.014	0.058	85.89	0.998	-3.32	0.998	-3.32	0.058	85.89
1463.826	0.059	85.849	0.997	-3.373	0.997	-3.373	0.059	85.849
1473.637	0.06	85.808	0.997	-3.427	0.997	-3.427	0.06	85.808
1483.449	0.061	85.767	0.997	-3.48	0.997	-3.48	0.061	85.767
1493.261	0.062	85.725	0.997	-3.533	0.997	-3.533	0.062	85.725
1503.072	0.063	85.684	0.997	-3.585	0.997	-3.585	0.063	85.684
1512.884	0.063	85.642	0.997	-3.638	0.997	-3.638	0.063	85.642
1522.696	0.064	85.6	0.997	-3.69	0.997	-3.69	0.064	85.6
1532.507	0.065	85.558	0.997	-3.742	0.997	-3.742	0.065	85.558
1542.319	0.066	85.515	0.997	-3.794	0.997	-3.794	0.066	85.515
1552.131	0.067	85.473	0.997	-3.846	0.997	-3.846	0.067	85.473
1561.943	0.068	85.431	0.997	-3.897	0.997	-3.897	0.068	85.431
1571.754	0.069	85.388	0.997	-3.948	0.997	-3.948	0.069	85.388
1581.566	0.07	85.345	0.997	-4	0.997	-4	0.07	85.345
1591.378	0.071	85.303	0.997	-4.051	0.997	-4.051	0.071	85.303
1601.189	0.072	85.26	0.997	-4.101	0.997	-4.101	0.072	85.26
1611.001	0.072	85.217	0.997	-4.152	0.997	-4.152	0.072	85.217
1620.813	0.073	85.174	0.997	-4.203	0.997	-4.203	0.073	85.174
1630.624	0.074	85.131	0.996	-4.253	0.996	-4.253	0.074	85.131
1640.436	0.075	85.088	0.996	-4.303	0.996	-4.303	0.075	85.088
1650.248	0.076	85.045	0.996	-4.353	0.996	-4.353	0.076	85.045
1660.059	0.077	85.002	0.996	-4.403	0.996	-4.403	0.077	85.002
1669.871	0.078	84.959	0.996	-4.453	0.996	-4.453	0.078	84.959
1679.683	0.079	84.916	0.996	-4.502	0.996	-4.502	0.079	84.916
1689.495	0.079	84.873	0.996	-4.552	0.996	-4.552	0.079	84.873
1699.306	0.08	84.83	0.996	-4.601	0.996	-4.601	0.08	84.83
1709.118	0.081	84.787	0.996	-4.65	0.996	-4.65	0.081	84.787
1718.93	0.082	84.743	0.996	-4.699	0.996	-4.699	0.082	84.743
1728.741	0.083	84.7	0.996	-4.748	0.996	-4.748	0.083	84.7
1738.553	0.084	84.657	0.996	-4.797	0.996	-4.797	0.084	84.657
1748.365	0.084	84.614	0.996	-4.846	0.996	-4.846	0.084	84.614
1758.176	0.085	84.571	0.996	-4.894	0.996	-4.894	0.085	84.571
1767.988	0.086	84.528	0.995	-4.942	0.995	-4.942	0.086	84.528
1777.8	0.087	84.485	0.995	-4.991	0.995	-4.991	0.087	84.485
1787.611	0.088	84.442	0.995	-5.039	0.995	-5.039	0.088	84.442
1797.423	0.089	84.399	0.995	-5.087	0.995	-5.087	0.089	84.399
1807.235	0.09	84.355	0.995	-5.135	0.995	-5.135	0.09	84.355
1817.047	0.09	84.312	0.995	-5.183	0.995	-5.183	0.09	84.312
1826.858	0.091	84.269	0.995	-5.23	0.995	-5.23	0.091	84.269
1836.67	0.092	84.226	0.995	-5.278	0.995	-5.278	0.092	84.226
1846.482	0.093	84.183	0.995	-5.325	0.995	-5.325	0.093	84.183
1856.293	0.094	84.14	0.995	-5.373	0.995	-5.373	0.094	84.14
1866.105	0.094	84.097	0.995	-5.42	0.995	-5.42	0.094	84.097
1875.917	0.095	84.054	0.995	-5.467	0.995	-5.467	0.095	84.054
1885.728	0.096	84.012	0.995	-5.514	0.995	-5.514	0.096	84.012
1895.54	0.097	83.969	0.994	-5.561	0.994	-5.561	0.097	83.969
1905.352	0.098	83.926	0.994	-5.608	0.994	-5.608	0.098	83.926
1915.164	0.099	83.883	0.994	-5.654	0.994	-5.654	0.099	83.883
1924.975	0.099	83.84	0.994	-5.701	0.994	-5.701	0.099	83.84
1934.787	0.1	83.797	0.994	-5.748	0.994	-5.748	0.1	83.797
1944.599	0.101	83.755	0.994	-5.794	0.994	-5.794	0.101	83.755
1954.41	0.102	83.712	0.994	-5.84	0.994	-5.84	0.102	83.712
1964.222	0.103	83.669	0.994	-5.886	0.994	-5.886	0.103	83.669
1974.034	0.103	83.627	0.994	-5.933	0.994	-5.933	0.103	83.627
1983.845	0.104	83.584	0.994	-5.979	0.994	-5.979	0.104	83.584
1993.657	0.105	83.541	0.994	-6.025	0.994	-6.025	0.105	83.541
2003.469	0.106	83.499	0.994	-6.07	0.994	-6.07	0.106	83.499
2013.28	0.107	83.456	0.994	-6.116	0.994	-6.116	0.107	83.456
2023.092	0.107	83.414	0.993	-6.162	0.993	-6.162	0.107	83.414
2032.904	0.108	83.371	0.993	-6.208	0.993	-6.208	0.108	83.371
2042.716	0.109	83.329	0.993	-6.253	0.993	-6.253	0.109	83.329
2052.527	0.11	83.286	0.993	-6.299	0.993	-6.299	0.11	83.286
2062.339	0.11	83.244	0.993	-6.344	0.993	-6.344	0.11	83.244
2072.151	0.111	83.202	0.993	-6.389	0.993	-6.389	0.111	83.202
2081.962	0.112	83.159	0.993	-6.434	0.993	-6.434	0.112	83.159
2091.774	0.113	83.117	0.993	-6.479	0.993	-6.479	0.113	83.117
2101.586	0.114	83.075	0.993	-6.524	0.993	-6.524	0.114	83.075
2111.397	0.114	83.033	0.993	-6.569	0.993	-6.569	0.114	83.033
2121.209	0.115	82.991	0.993	-6.614	0.993	-6.614	0.115	82.991
2131.021	0.116	82.948	0.992	-6.659	0.992	-6.659	0.116	82.948
2140.833	0.117	82.906	0.992	-6.704	0.992	-6.704	0.117	82.906
2150.644	0.118	82.864	0.992	-6.749	0.992	-6.749	0.118	82.864
2160.456	0.118	82.822	0.992	-6.793	0.992	-6.793	0.118	82.822
2170.268	0.119	82.78	0.992	-6.838	0.992	-6.838	0.119	82.78
2180.079	0.12	82.738	0.992	-6.882	0.992	-6.882	0.12	82.738
2189.891	0.121	82.696	0.992	-6.926	0.992	-6.926	0.121	82.696
2199.703	0.121	82.655	0.992	-6.971	0.992	-6.971	0.121	82.655
2209.514	0.122	82.613	0.992	-7.015	0.992	-7.015	0.122	82.613
2219.326	0.123	82.571	0.992	-7.059	0.992	-7.059	0.123	82.571
2229.138	0.124	82.529	0.992	-7.103	0.992	-7.103	0.124	82.529
2238.949	0.124	82.487	0.991	-7.147	0.991	-7.147	0.124	82.487
2248.761	0.125	82.446	0.991	-7.191	0.991	-7.191	0.125	82.446
2258.573	0.126	82.404	0.991	-7.235	0.991	-7.235	0.126	82.404
2268.385	0.127	82.362	0.991	-7.279	0.991	-7.279	0.127	82.362
2278.196	0.127	82.321	0.991	-7.323	0.991	-7.323	0.127	82.321
2288.008	0.128	82.279	0.991	-7.367	0.991	-7.367	0.128	82.279
2297.82	0.129	82.238	0.991	-7.41	0.991	-7.41	0.129	82.238
2307.631	0.13	82.196	0.991	-7.454	0.991	-7.454	0.13	82.196
2317.443	0.13	82.155	0.991	-7.497	0.991	-7.497	0.13	82.155
2327.255	0.131	82.113	0.991	-7.541	0.991	-7.541	0.131	82.113
2337.066	0.132	82.072	0.99	-7.584	0.99	-7.584	0.132	82.072
2346.878	0.133	82.03	0.99	-7.628	0.99	-7.628	0.133	82.03
2356.69	0.133	81.989	0.99	-7.671	0.99	-7.671	0.133	81.989
2366.501	0.134	81.948	0.99	-7.714	0.99	-7.714	0.134	81.948
2376.313	0.135	81.906	0.99	-7.757	0.99	-7.757	0.135	81.906
2386.125	0.136	81.865	0.99	-7.8	0.99	-7.8	0.136	81.865
2395.937	0.136	81.824	0.99	-7.843	0.99	-7.843	0.136	81.824
2405.748	0.137	81.783	0.99	-7.886	0.99	-7.886	0.137	81.783
2415.56	0.138	81.742	0.99	-7.929	0.99	-7.929	0.138	81.742
2425.372	0.139	81.701	0.99	-7.972	0.99	-7.972	0.139	81.701
2435.183	0.139	81.659	0.989	-8.015	0.989	-8.015	0.139	81.659
2444.995	0.14	81.618	0.989	-8.058	0.989	-8.058	0.14	81.618
2454.807	0.141	81.577	0.989	-8.101	0.989	-8.101	0.141	81.577
2464.618	0.142	81.536	0.989	-8.143	0.989	-8.143	0.142	81.536
2474.43	0.142	81.495	0.989	-8.186	0.989	-8.186	0.142	81.495
2484.242	0.143	81.455	0.989	-8.229	0.989	-8.229	0.143	81.455
2494.054	0.144	81.414	0.989	-8.271	0.989	-8.271	0.144	81.414
2503.865	0.145	81.373	0.989	-8.314	0.989	-8.314	0.145	81.373
2513.677	0.145	81.332	0.989	-8.356	0.989	-8.356	0.145	81.332
2523.489	0.146	81.291	0.988	-8.399	0.988	-8.399	0.146	81.291
2533.3	0.147	81.25	0.988	-8.441	0.988	-8.441	0.147	81.25
2543.112	0.148	81.21	0.988	-8.483	0.988	-8.483	0.148	81.21
2552.924	0.148	81.169	0.988	-8.525	0.988	-8.525	0.148	81.169
2562.735	0.149	81.128	0.988	-8.568	0.988	-8.568	0.149	81.128
2572.547	0.15	81.088	0.988	-8.61	0.988	-8.61	0.15	81.088
2582.359	0.15	81.047	0.988	-8.652	0.988	-8.652	0.15	81.047
2592.17	0.151	81.007	0.988	-8.694	0.988	-8.694	0.151	81.007
2601.982	0.152	80.966	0.988	-8.736	0.988	-8.736	0.152	80.966
2611.794	0.153	80.925	0.987	-8.778	0.987	-8.778	0.153	80.925
2621.606	0.153	80.885	0.987	-8.82	0.987	-8.82	0.153	80.885
2631.417	0.154	80.844	0.987	-8.862	0.987	-8.862	0.154	80.844
2641.229	0.155	80.804	0.987	-8.904	0.987	-8.904	0.155	80.804
2651.041	0.155	80.764	0.987	-8.945	0.987	-8.945	0.155	80.764
2660.852	0.156	80.723	0.987	-8.987	0.987	-8.987	0.156	80.723
2670.664	0.157	80.683	0.987	-9.029	0.987	-9.029	0.157	80.683
2680.476	0.158	80.643	0.987	-9.07	0.987	-9.07	0.158	80.643
2690.287	0.158	80.602	0.987	-9.112	0.987	-9.112	0.158	80.602
2700.099	0.159	80.562	0.986	-9.154	0.986	-9.154	0.159	80.562
2709.911	0.16	80.522	0.986	-9.195	0.986	-9.195	0.16	80.522
2719.722	0.161	80.482	0.986	-9.237	0.986	-9.237	0.161	80.482
2729.534	0.161	80.441	0.986	-9.278	0.986	-9.278	0.161	80.441
2739.346	0.162	80.401	0.986	-9.319	0.986	-9.319	0.162	80.401
2749.158	0.163	80.361	0.986	-9.361	0.986	-9.361	0.163	80.361
2758.969	0.163	80.321	0.986	-9.402	0.986	-9.402	0.163	80.321
2768.781	0.164	80.281	0.986	-9.443	0.986	-9.443	0.164	80.281
2778.593	0.165	80.241	0.986	-9.485	0.986	-9.485	0.165	80.241
2788.404	0.165	80.201	0.985	-9.526	0.985	-9.526	0.165	80.201
2798.216	0.166	80.161	0.985	-9.567	0.985	-9.567	0.166	80.161
2808.028	0.167	80.121	0.985	-9.608	0.985	-9.608	0.167	80.121
2817.839	0.168	80.081	0.985	-9.649	0.985	-9.649	0.168	80.081
2827.651	0.168	80.041	0.985	-9.69	0.985	-9.69	0.168	80.041
2837.463	0.169	80.001	0.985	-9.731	0.985	-9.731	0.169	80.001
2847.275	0.17	79.962	0.985	-9.772	0.985	-9.772	0.17	79.962
2857.086	0.17	79.922	0.985	-9.813	0.985	-9.813	0.17	79.922
2866.898	0.171	79.882	0.984	-9.854	0.984	-9.854	0.171	79.882
2876.71	0.172	79.842	0.984	-9.895	0.984	-9.895	0.172	79.842
2886.521	0.173	79.803	0.984	-9.936	0.984	-9.936	0.173	79.803
2896.333	0.173	79.763	0.984	-9.977	0.984	-9.977	0.173	79.763
2906.145	0.174	79.723	0.984	-10.017	0.984	-10.017	0.174	79.723
2915.956	0.175	79.684	0.984	-10.058	0.984	-10.058	0.175	79.684
2925.768	0.175	79.644	0.984	-10.099	0.984	-10.099	0.175	79.644
2935.58	0.176	79.604	0.984	-10.14	0.984	-10.14	0.176	79.604
2945.391	0.177	79.565	0.983	-10.18	0.983	-10.18	0.177	79.565
2955.203	0.177	79.525	0.983	-10.221	0.983	-10.221	0.177	79.525
2965.015	0.178	79.486	0.983	-10.261	0.983	-10.261	0.178	79.486
2974.827	0.179	79.446	0.983	-10.302	0.983	-10.302	0.179	79.446
2984.638	0.18	79.407	0.983	-10.342	0.983	-10.342	0.18	79.407
2994.45	0.18	79.367	0.983	-10.383	0.983	-10.383	0.18	79.367
3004.262	0.181	79.328	0.983	-10.423	0.983	-10.423	0.181	79.328
3014.073	0.182	79.288	0.983	-10.463	0.983	-10.463	0.182	79.288
3023.885	0.182	79.249	0.982	-10.504	0.982	-10.504	0.182	79.249
3033.697	0.183	79.21	0.982	-10.544	0.982	-10.544	0.183	79.21
3043.508	0.184	79.17	0.982	-10.584	0.982	-10.584	0.184	79.17
3053.32	0.184	79.131	0.982	-10.625	0.982	-10.625	0.184	79.131
3063.132	0.185	79.092	0.982	-10.665	0.982	-10.665	0.185	79.092
3072.944	0.186	79.053	0.982	-10.705	0.982	-10.705	0.186	79.053
3082.755	0.186	79.013	0.982	-10.745	0.982	-10.745	0.186	79.013
3092.567	0.187	78.974	0.982	-10.785	0.982	-10.785	0.187	78.974
3102.379	0.188	78.935	0.981	-10.825	0.981	-10.825	0.188	78.935
3112.19	0.189	78.896	0.981	-10.865	0.981	-10.865	0.189	78.896
3122.002	0.189	78.857	0.981	-10.905	0.981	-10.905	0.189	78.857
3131.814	0.19	78.818	0.981	-10.945	0.981	-10.945	0.19	78.818
3141.625	0.191	78.779	0.981	-10.985	0.981	-10.985	0.191	78.779
3151.437	0.191	78.74	0.981	-11.025	0.981	-11.025	0.191	78.74
3161.249	0.192	78.701	0.981	-11.065	0.981	-11.065	0.192	78.701
3171.06	0.193	78.662	0.98	-11.105	0.98	-11.105	0.193	78.662
3180.872	0.193	78.623	0.98	-11.145	0.98	-11.145	0.193	78.623
3190.684	0.194	78.584	0.98	-11.185	0.98	-11.185	0.194	78.584
3200.496	0.195	78.545	0.98	-11.224	0.98	-11.224	0.195	78.545
3210.307	0.195	78.506	0.98	-11.264	0.98	-11.264	0.195	78.506
3220.119	0.196	78.467	0.98	-11.304	0.98	-11.304	0.196	78.467
3229.931	0.197	78.428	0.98	-11.344	0.98	-11.344	0.197	78.428
3239.742	0.197	78.389	0.98	-11.383	0.98	-11.383	0.197	78.389
3249.554	0.198	78.35	0.979	-11.423	0.979	-11.423	0.198	78.35
3259.366	0.199	78.312	0.979	-11.462	0.979	-11.462	0.199	78.312
3269.177	0.199	78.273	0.979	-11.502	0.979	-11.502	0.199	78.273
3278.989	0.2	78.234	0.979	-11.542	0.979	-11.542	0.2	78.234
