! AVX Thin Film Operation		Date: April 2012 
! Description: Accu-P® Series, Thin Film, SMD, RF Capacitor
! Part Number: 12101J2R7QBTTR					
!	100	MHz	-	10.05	GHz			
!	Serial	Measurements						
!								
#	MHZ	S	MA	R	50			
!	S11	S21	S12	S22				
!	dB	Phase	dB	Phase	dB	Phase	dB	Phase
100	0.986	-9.641	0.167	80.344	0.167	80.344	0.986	-9.641
109.812	0.983	-10.57	0.183	79.414	0.183	79.414	0.983	-10.57
119.623	0.98	-11.493	0.199	78.489	0.199	78.489	0.98	-11.493
129.435	0.977	-12.412	0.215	77.569	0.215	77.569	0.977	-12.412
139.247	0.973	-13.325	0.23	76.655	0.23	76.655	0.973	-13.325
149.058	0.969	-14.232	0.246	75.746	0.246	75.746	0.969	-14.232
158.87	0.965	-15.133	0.261	74.844	0.261	74.844	0.965	-15.133
168.682	0.961	-16.028	0.276	73.948	0.276	73.948	0.961	-16.028
178.494	0.957	-16.916	0.291	73.058	0.291	73.058	0.957	-16.916
188.305	0.952	-17.796	0.306	72.176	0.306	72.176	0.952	-17.796
198.117	0.947	-18.67	0.32	71.301	0.32	71.301	0.947	-18.67
207.929	0.942	-19.536	0.334	70.434	0.334	70.434	0.942	-19.536
217.74	0.937	-20.394	0.348	69.574	0.348	69.574	0.937	-20.394
227.552	0.932	-21.244	0.362	68.722	0.362	68.722	0.932	-21.244
237.364	0.926	-22.086	0.376	67.879	0.376	67.879	0.926	-22.086
247.175	0.921	-22.92	0.389	67.044	0.389	67.044	0.921	-22.92
256.987	0.915	-23.745	0.403	66.217	0.403	66.217	0.915	-23.745
266.799	0.909	-24.561	0.416	65.399	0.416	65.399	0.909	-24.561
276.611	0.903	-25.369	0.428	64.59	0.428	64.59	0.903	-25.369
286.422	0.897	-26.168	0.441	63.79	0.441	63.79	0.897	-26.168
296.234	0.891	-26.958	0.453	62.999	0.453	62.999	0.891	-26.958
306.046	0.885	-27.738	0.465	62.216	0.465	62.216	0.885	-27.738
315.857	0.878	-28.51	0.477	61.443	0.477	61.443	0.878	-28.51
325.669	0.872	-29.272	0.489	60.68	0.489	60.68	0.872	-29.272
335.481	0.865	-30.025	0.5	59.925	0.5	59.925	0.865	-30.025
345.292	0.859	-30.769	0.512	59.18	0.512	59.18	0.859	-30.769
355.104	0.852	-31.504	0.523	58.444	0.523	58.444	0.852	-31.504
364.916	0.845	-32.229	0.533	57.717	0.533	57.717	0.845	-32.229
374.727	0.839	-32.945	0.544	57	0.544	57	0.839	-32.945
384.539	0.832	-33.651	0.554	56.292	0.554	56.292	0.832	-33.651
394.351	0.825	-34.348	0.564	55.593	0.564	55.593	0.825	-34.348
404.163	0.818	-35.036	0.574	54.903	0.574	54.903	0.818	-35.036
413.974	0.811	-35.715	0.584	54.223	0.584	54.223	0.811	-35.715
423.786	0.804	-36.385	0.593	53.552	0.593	53.552	0.804	-36.385
433.598	0.797	-37.045	0.602	52.89	0.602	52.89	0.797	-37.045
443.409	0.791	-37.697	0.611	52.237	0.611	52.237	0.791	-37.697
453.221	0.784	-38.339	0.62	51.593	0.62	51.593	0.784	-38.339
463.033	0.777	-38.973	0.629	50.958	0.629	50.958	0.777	-38.973
472.844	0.77	-39.597	0.637	50.331	0.637	50.331	0.77	-39.597
482.656	0.763	-40.213	0.646	49.714	0.646	49.714	0.763	-40.213
492.468	0.756	-40.821	0.654	49.105	0.654	49.105	0.756	-40.821
502.279	0.749	-41.419	0.662	48.505	0.662	48.505	0.749	-41.419
512.091	0.742	-42.01	0.669	47.913	0.669	47.913	0.742	-42.01
521.903	0.735	-42.591	0.677	47.329	0.677	47.329	0.735	-42.591
531.715	0.728	-43.165	0.684	46.754	0.684	46.754	0.728	-43.165
541.526	0.722	-43.73	0.691	46.187	0.691	46.187	0.722	-43.73
551.338	0.715	-44.288	0.698	45.628	0.698	45.628	0.715	-44.288
561.15	0.708	-44.837	0.705	45.077	0.705	45.077	0.708	-44.837
570.961	0.701	-45.379	0.712	44.534	0.712	44.534	0.701	-45.379
580.773	0.695	-45.912	0.718	43.999	0.718	43.999	0.695	-45.912
590.585	0.688	-46.439	0.725	43.471	0.725	43.471	0.688	-46.439
600.396	0.681	-46.957	0.731	42.951	0.731	42.951	0.681	-46.957
610.208	0.675	-47.468	0.737	42.438	0.737	42.438	0.675	-47.468
620.02	0.668	-47.972	0.743	41.932	0.743	41.932	0.668	-47.972
629.832	0.662	-48.469	0.749	41.434	0.749	41.434	0.662	-48.469
639.643	0.655	-48.959	0.754	40.942	0.754	40.942	0.655	-48.959
649.455	0.649	-49.441	0.76	40.458	0.76	40.458	0.649	-49.441
659.267	0.643	-49.917	0.765	39.981	0.765	39.981	0.643	-49.917
669.078	0.636	-50.386	0.77	39.51	0.77	39.51	0.636	-50.386
678.89	0.63	-50.849	0.775	39.046	0.775	39.046	0.63	-50.849
688.702	0.624	-51.305	0.78	38.588	0.78	38.588	0.624	-51.305
698.513	0.618	-51.754	0.785	38.137	0.785	38.137	0.618	-51.754
708.325	0.611	-52.197	0.79	37.691	0.79	37.691	0.611	-52.197
718.137	0.605	-52.634	0.795	37.253	0.795	37.253	0.605	-52.634
727.948	0.599	-53.065	0.799	36.82	0.799	36.82	0.599	-53.065
737.76	0.593	-53.491	0.804	36.393	0.804	36.393	0.593	-53.491
747.572	0.587	-53.91	0.808	35.972	0.808	35.972	0.587	-53.91
757.384	0.582	-54.323	0.812	35.557	0.812	35.557	0.582	-54.323
767.195	0.576	-54.731	0.816	35.147	0.816	35.147	0.576	-54.731
777.007	0.57	-55.133	0.82	34.743	0.82	34.743	0.57	-55.133
786.819	0.564	-55.53	0.824	34.345	0.824	34.345	0.564	-55.53
796.63	0.558	-55.921	0.828	33.951	0.828	33.951	0.558	-55.921
806.442	0.553	-56.307	0.832	33.563	0.832	33.563	0.553	-56.307
816.254	0.547	-56.688	0.836	33.181	0.836	33.181	0.547	-56.688
826.065	0.542	-57.064	0.839	32.803	0.839	32.803	0.542	-57.064
835.877	0.536	-57.435	0.843	32.43	0.843	32.43	0.536	-57.435
845.689	0.531	-57.801	0.846	32.062	0.846	32.062	0.531	-57.801
855.5	0.525	-58.162	0.85	31.699	0.85	31.699	0.525	-58.162
865.312	0.52	-58.519	0.853	31.34	0.853	31.34	0.52	-58.519
875.124	0.515	-58.87	0.856	30.987	0.856	30.987	0.515	-58.87
884.936	0.51	-59.218	0.859	30.637	0.859	30.637	0.51	-59.218
894.747	0.504	-59.56	0.862	30.293	0.862	30.293	0.504	-59.56
904.559	0.499	-59.899	0.865	29.952	0.865	29.952	0.499	-59.899
914.371	0.494	-60.233	0.868	29.616	0.868	29.616	0.494	-60.233
924.182	0.489	-60.563	0.871	29.284	0.871	29.284	0.489	-60.563
933.994	0.484	-60.889	0.874	28.956	0.874	28.956	0.484	-60.889
943.806	0.479	-61.21	0.876	28.632	0.876	28.632	0.479	-61.21
953.617	0.474	-61.528	0.879	28.312	0.879	28.312	0.474	-61.528
963.429	0.469	-61.842	0.882	27.997	0.882	27.997	0.469	-61.842
973.241	0.465	-62.152	0.884	27.684	0.884	27.684	0.465	-62.152
983.053	0.46	-62.458	0.887	27.376	0.887	27.376	0.46	-62.458
992.864	0.455	-62.761	0.889	27.071	0.889	27.071	0.455	-62.761
1002.676	0.45	-63.059	0.891	26.77	0.891	26.77	0.45	-63.059
1012.488	0.446	-63.355	0.894	26.473	0.894	26.473	0.446	-63.355
1022.299	0.441	-63.646	0.896	26.179	0.896	26.179	0.441	-63.646
1032.111	0.437	-63.935	0.898	25.888	0.898	25.888	0.437	-63.935
1041.923	0.432	-64.22	0.9	25.601	0.9	25.601	0.432	-64.22
1051.734	0.428	-64.501	0.903	25.317	0.903	25.317	0.428	-64.501
1061.546	0.423	-64.779	0.905	25.037	0.905	25.037	0.423	-64.779
1071.358	0.419	-65.054	0.907	24.759	0.907	24.759	0.419	-65.054
1081.169	0.414	-65.326	0.909	24.485	0.909	24.485	0.414	-65.326
1090.981	0.41	-65.595	0.911	24.214	0.911	24.214	0.41	-65.595
1100.793	0.406	-65.861	0.913	23.946	0.913	23.946	0.406	-65.861
1110.605	0.402	-66.124	0.914	23.68	0.914	23.68	0.402	-66.124
1120.416	0.397	-66.384	0.916	23.418	0.916	23.418	0.397	-66.384
1130.228	0.393	-66.641	0.918	23.159	0.918	23.159	0.393	-66.641
1140.04	0.389	-66.895	0.92	22.902	0.92	22.902	0.389	-66.895
1149.851	0.385	-67.146	0.922	22.648	0.922	22.648	0.385	-67.146
1159.663	0.381	-67.395	0.923	22.397	0.923	22.397	0.381	-67.395
1169.475	0.377	-67.641	0.925	22.148	0.925	22.148	0.377	-67.641
1179.286	0.373	-67.884	0.926	21.902	0.926	21.902	0.373	-67.884
1189.098	0.369	-68.125	0.928	21.659	0.928	21.659	0.369	-68.125
1198.91	0.365	-68.363	0.93	21.418	0.93	21.418	0.365	-68.363
1208.722	0.361	-68.599	0.931	21.18	0.931	21.18	0.361	-68.599
1218.533	0.357	-68.832	0.933	20.944	0.933	20.944	0.357	-68.832
1228.345	0.354	-69.063	0.934	20.71	0.934	20.71	0.354	-69.063
1238.157	0.35	-69.291	0.935	20.479	0.935	20.479	0.35	-69.291
1247.968	0.346	-69.517	0.937	20.25	0.937	20.25	0.346	-69.517
1257.78	0.342	-69.741	0.938	20.024	0.938	20.024	0.342	-69.741
1267.592	0.339	-69.962	0.939	19.799	0.939	19.799	0.339	-69.962
1277.403	0.335	-70.182	0.941	19.577	0.941	19.577	0.335	-70.182
1287.215	0.331	-70.399	0.942	19.357	0.942	19.357	0.331	-70.399
1297.027	0.328	-70.614	0.943	19.139	0.943	19.139	0.328	-70.614
1306.838	0.324	-70.826	0.945	18.923	0.945	18.923	0.324	-70.826
1316.65	0.321	-71.037	0.946	18.71	0.946	18.71	0.321	-71.037
1326.462	0.317	-71.246	0.947	18.498	0.947	18.498	0.317	-71.246
1336.274	0.314	-71.452	0.948	18.288	0.948	18.288	0.314	-71.452
1346.085	0.31	-71.657	0.949	18.08	0.949	18.08	0.31	-71.657
1355.897	0.307	-71.859	0.95	17.874	0.95	17.874	0.307	-71.859
1365.709	0.304	-72.06	0.951	17.67	0.951	17.67	0.304	-72.06
1375.52	0.3	-72.259	0.952	17.468	0.952	17.468	0.3	-72.259
1385.332	0.297	-72.456	0.953	17.268	0.953	17.268	0.297	-72.456
1395.144	0.294	-72.651	0.955	17.069	0.955	17.069	0.294	-72.651
1404.955	0.29	-72.844	0.956	16.873	0.956	16.873	0.29	-72.844
1414.767	0.287	-73.036	0.956	16.678	0.956	16.678	0.287	-73.036
1424.579	0.284	-73.225	0.957	16.484	0.957	16.484	0.284	-73.225
1434.39	0.281	-73.414	0.958	16.293	0.958	16.293	0.281	-73.414
1444.202	0.277	-73.6	0.959	16.103	0.959	16.103	0.277	-73.6
1454.014	0.274	-73.784	0.96	15.914	0.96	15.914	0.274	-73.784
1463.826	0.271	-73.967	0.961	15.728	0.961	15.728	0.271	-73.967
1473.637	0.268	-74.149	0.962	15.543	0.962	15.543	0.268	-74.149
1483.449	0.265	-74.328	0.963	15.359	0.963	15.359	0.265	-74.328
1493.261	0.262	-74.507	0.964	15.177	0.964	15.177	0.262	-74.507
1503.072	0.259	-74.683	0.964	14.996	0.964	14.996	0.259	-74.683
1512.884	0.256	-74.858	0.965	14.817	0.965	14.817	0.256	-74.858
1522.696	0.253	-75.032	0.966	14.64	0.966	14.64	0.253	-75.032
1532.507	0.25	-75.204	0.967	14.463	0.967	14.463	0.25	-75.204
1542.319	0.247	-75.374	0.968	14.289	0.968	14.289	0.247	-75.374
1552.131	0.244	-75.543	0.968	14.115	0.968	14.115	0.244	-75.543
1561.943	0.241	-75.711	0.969	13.943	0.969	13.943	0.241	-75.711
1571.754	0.238	-75.877	0.97	13.773	0.97	13.773	0.238	-75.877
1581.566	0.235	-76.042	0.97	13.603	0.97	13.603	0.235	-76.042
1591.378	0.232	-76.205	0.971	13.435	0.971	13.435	0.232	-76.205
1601.189	0.23	-76.367	0.972	13.269	0.972	13.269	0.23	-76.367
1611.001	0.227	-76.528	0.973	13.103	0.973	13.103	0.227	-76.528
1620.813	0.224	-76.687	0.973	12.939	0.973	12.939	0.224	-76.687
1630.624	0.221	-76.845	0.974	12.776	0.974	12.776	0.221	-76.845
1640.436	0.218	-77.002	0.974	12.614	0.974	12.614	0.218	-77.002
1650.248	0.216	-77.158	0.975	12.454	0.975	12.454	0.216	-77.158
1660.059	0.213	-77.312	0.976	12.294	0.976	12.294	0.213	-77.312
1669.871	0.21	-77.465	0.976	12.136	0.976	12.136	0.21	-77.465
1679.683	0.208	-77.616	0.977	11.979	0.977	11.979	0.208	-77.616
1689.495	0.205	-77.767	0.977	11.823	0.977	11.823	0.205	-77.767
1699.306	0.202	-77.916	0.978	11.668	0.978	11.668	0.202	-77.916
1709.118	0.2	-78.064	0.978	11.514	0.978	11.514	0.2	-78.064
1718.93	0.197	-78.211	0.979	11.362	0.979	11.362	0.197	-78.211
1728.741	0.194	-78.357	0.979	11.21	0.979	11.21	0.194	-78.357
1738.553	0.192	-78.501	0.98	11.06	0.98	11.06	0.192	-78.501
1748.365	0.189	-78.644	0.98	10.91	0.98	10.91	0.189	-78.644
1758.176	0.187	-78.787	0.981	10.762	0.981	10.762	0.187	-78.787
1767.988	0.184	-78.928	0.981	10.614	0.981	10.614	0.184	-78.928
1777.8	0.182	-79.068	0.982	10.468	0.982	10.468	0.182	-79.068
1787.611	0.179	-79.206	0.982	10.322	0.982	10.322	0.179	-79.206
1797.423	0.177	-79.344	0.983	10.178	0.983	10.178	0.177	-79.344
1807.235	0.174	-79.481	0.983	10.034	0.983	10.034	0.174	-79.481
1817.047	0.172	-79.616	0.984	9.892	0.984	9.892	0.172	-79.616
1826.858	0.169	-79.75	0.984	9.75	0.984	9.75	0.169	-79.75
1836.67	0.167	-79.884	0.984	9.609	0.984	9.609	0.167	-79.884
1846.482	0.165	-80.016	0.985	9.469	0.985	9.469	0.165	-80.016
1856.293	0.162	-80.147	0.985	9.33	0.985	9.33	0.162	-80.147
1866.105	0.16	-80.277	0.986	9.192	0.986	9.192	0.16	-80.277
1875.917	0.157	-80.406	0.986	9.055	0.986	9.055	0.157	-80.406
1885.728	0.155	-80.534	0.986	8.919	0.986	8.919	0.155	-80.534
1895.54	0.153	-80.661	0.987	8.783	0.987	8.783	0.153	-80.661
1905.352	0.15	-80.787	0.987	8.648	0.987	8.648	0.15	-80.787
1915.164	0.148	-80.912	0.987	8.514	0.987	8.514	0.148	-80.912
1924.975	0.146	-81.036	0.988	8.381	0.988	8.381	0.146	-81.036
1934.787	0.143	-81.159	0.988	8.249	0.988	8.249	0.143	-81.159
1944.599	0.141	-81.281	0.988	8.118	0.988	8.118	0.141	-81.281
1954.41	0.139	-81.401	0.989	7.987	0.989	7.987	0.139	-81.401
1964.222	0.137	-81.521	0.989	7.857	0.989	7.857	0.137	-81.521
1974.034	0.134	-81.64	0.989	7.728	0.989	7.728	0.134	-81.64
1983.845	0.132	-81.757	0.99	7.599	0.99	7.599	0.132	-81.757
1993.657	0.13	-81.874	0.99	7.472	0.99	7.472	0.13	-81.874
2003.469	0.128	-81.989	0.99	7.345	0.99	7.345	0.128	-81.989
2013.28	0.126	-82.104	0.991	7.218	0.991	7.218	0.126	-82.104
2023.092	0.123	-82.217	0.991	7.093	0.991	7.093	0.123	-82.217
2032.904	0.121	-82.33	0.991	6.968	0.991	6.968	0.121	-82.33
2042.716	0.119	-82.441	0.991	6.844	0.991	6.844	0.119	-82.441
2052.527	0.117	-82.551	0.992	6.72	0.992	6.72	0.117	-82.551
2062.339	0.115	-82.66	0.992	6.598	0.992	6.598	0.115	-82.66
2072.151	0.113	-82.768	0.992	6.476	0.992	6.476	0.113	-82.768
2081.962	0.111	-82.875	0.992	6.354	0.992	6.354	0.111	-82.875
2091.774	0.109	-82.981	0.993	6.233	0.993	6.233	0.109	-82.981
2101.586	0.107	-83.085	0.993	6.113	0.993	6.113	0.107	-83.085
2111.397	0.104	-83.189	0.993	5.994	0.993	5.994	0.104	-83.189
2121.209	0.102	-83.291	0.993	5.875	0.993	5.875	0.102	-83.291
2131.021	0.1	-83.392	0.993	5.757	0.993	5.757	0.1	-83.392
2140.833	0.098	-83.492	0.994	5.639	0.994	5.639	0.098	-83.492
2150.644	0.096	-83.59	0.994	5.522	0.994	5.522	0.096	-83.59
2160.456	0.094	-83.687	0.994	5.406	0.994	5.406	0.094	-83.687
2170.268	0.092	-83.783	0.994	5.29	0.994	5.29	0.092	-83.783
2180.079	0.09	-83.878	0.994	5.175	0.994	5.175	0.09	-83.878
2189.891	0.088	-83.971	0.995	5.06	0.995	5.06	0.088	-83.971
2199.703	0.086	-84.062	0.995	4.946	0.995	4.946	0.086	-84.062
2209.514	0.084	-84.152	0.995	4.832	0.995	4.832	0.084	-84.152
2219.326	0.082	-84.241	0.995	4.719	0.995	4.719	0.082	-84.241
2229.138	0.08	-84.328	0.995	4.607	0.995	4.607	0.08	-84.328
2238.949	0.078	-84.413	0.995	4.495	0.995	4.495	0.078	-84.413
2248.761	0.076	-84.497	0.996	4.384	0.996	4.384	0.076	-84.497
2258.573	0.075	-84.578	0.996	4.273	0.996	4.273	0.075	-84.578
2268.385	0.073	-84.658	0.996	4.163	0.996	4.163	0.073	-84.658
2278.196	0.071	-84.736	0.996	4.053	0.996	4.053	0.071	-84.736
2288.008	0.069	-84.811	0.996	3.944	0.996	3.944	0.069	-84.811
2297.82	0.067	-84.885	0.996	3.835	0.996	3.835	0.067	-84.885
2307.631	0.065	-84.955	0.996	3.727	0.996	3.727	0.065	-84.955
2317.443	0.063	-85.024	0.997	3.619	0.997	3.619	0.063	-85.024
2327.255	0.061	-85.09	0.997	3.512	0.997	3.512	0.061	-85.09
2337.066	0.059	-85.152	0.997	3.405	0.997	3.405	0.059	-85.152
2346.878	0.058	-85.212	0.997	3.299	0.997	3.299	0.058	-85.212
2356.69	0.056	-85.268	0.997	3.193	0.997	3.193	0.056	-85.268
2366.501	0.054	-85.321	0.997	3.088	0.997	3.088	0.054	-85.321
2376.313	0.052	-85.37	0.997	2.983	0.997	2.983	0.052	-85.37
2386.125	0.05	-85.415	0.997	2.879	0.997	2.879	0.05	-85.415
2395.937	0.048	-85.455	0.997	2.775	0.997	2.775	0.048	-85.455
2405.748	0.047	-85.489	0.997	2.672	0.997	2.672	0.047	-85.489
2415.56	0.045	-85.519	0.997	2.569	0.997	2.569	0.045	-85.519
2425.372	0.043	-85.542	0.998	2.466	0.998	2.466	0.043	-85.542
2435.183	0.041	-85.558	0.998	2.364	0.998	2.364	0.041	-85.558
2444.995	0.04	-85.566	0.998	2.262	0.998	2.262	0.04	-85.566
2454.807	0.038	-85.565	0.998	2.161	0.998	2.161	0.038	-85.565
2464.618	0.036	-85.555	0.998	2.06	0.998	2.06	0.036	-85.555
2474.43	0.034	-85.533	0.998	1.96	0.998	1.96	0.034	-85.533
2484.242	0.032	-85.499	0.998	1.86	0.998	1.86	0.032	-85.499
2494.054	0.031	-85.449	0.998	1.76	0.998	1.76	0.031	-85.449
2503.865	0.029	-85.382	0.998	1.661	0.998	1.661	0.029	-85.382
2513.677	0.027	-85.294	0.998	1.562	0.998	1.562	0.027	-85.294
2523.489	0.026	-85.181	0.998	1.464	0.998	1.464	0.026	-85.181
2533.3	0.024	-85.039	0.998	1.366	0.998	1.366	0.024	-85.039
2543.112	0.022	-84.861	0.998	1.268	0.998	1.268	0.022	-84.861
2552.924	0.02	-84.638	0.998	1.171	0.998	1.171	0.02	-84.638
2562.735	0.019	-84.358	0.998	1.074	0.998	1.074	0.019	-84.358
2572.547	0.017	-84.007	0.998	0.978	0.998	0.978	0.017	-84.007
2582.359	0.015	-83.56	0.998	0.882	0.998	0.882	0.015	-83.56
2592.17	0.014	-82.984	0.998	0.786	0.998	0.786	0.014	-82.984
2601.982	0.012	-82.228	0.998	0.691	0.998	0.691	0.012	-82.228
2611.794	0.011	-81.209	0.998	0.596	0.998	0.596	0.011	-81.209
2621.606	8.88E-03	-79.786	0.998	0.501	0.998	0.501	8.88E-03	-79.786
2631.417	7.26E-03	-77.691	0.998	0.407	0.998	0.407	7.26E-03	-77.691
2641.229	5.67E-03	-74.369	0.998	0.313	0.998	0.313	5.67E-03	-74.369
2651.041	4.12E-03	-68.454	0.998	0.22	0.998	0.22	4.12E-03	-68.454
2660.852	2.67E-03	-55.756	0.998	0.127	0.998	0.127	2.67E-03	-55.756
2670.664	1.61E-03	-21.502	0.999	0.034	0.999	0.034	1.61E-03	-21.502
2680.476	1.81E-03	34.267	0.999	-0.059	0.999	-0.059	1.81E-03	34.267
2690.287	3.03E-03	60.193	0.998	-0.151	0.998	-0.151	3.03E-03	60.193
2700.099	4.49E-03	70.27	0.998	-0.243	0.998	-0.243	4.49E-03	70.27
2709.911	6.02E-03	75.255	0.998	-0.334	0.998	-0.334	6.02E-03	75.255
2719.722	7.57E-03	78.162	0.998	-0.425	0.998	-0.425	7.57E-03	78.162
2729.534	9.13E-03	80.04	0.998	-0.516	0.998	-0.516	9.13E-03	80.04
2739.346	0.011	81.339	0.998	-0.607	0.998	-0.607	0.011	81.339
2749.158	0.012	82.28	0.998	-0.697	0.998	-0.697	0.012	82.28
2758.969	0.014	82.986	0.998	-0.787	0.998	-0.787	0.014	82.986
2768.781	0.015	83.529	0.998	-0.876	0.998	-0.876	0.015	83.529
2778.593	0.017	83.954	0.998	-0.965	0.998	-0.965	0.017	83.954
2788.404	0.018	84.292	0.998	-1.054	0.998	-1.054	0.018	84.292
2798.216	0.02	84.563	0.998	-1.143	0.998	-1.143	0.02	84.563
2808.028	0.022	84.782	0.998	-1.231	0.998	-1.231	0.022	84.782
2817.839	0.023	84.959	0.998	-1.319	0.998	-1.319	0.023	84.959
2827.651	0.025	85.103	0.998	-1.407	0.998	-1.407	0.025	85.103
2837.463	0.026	85.219	0.998	-1.495	0.998	-1.495	0.026	85.219
2847.275	0.028	85.313	0.998	-1.582	0.998	-1.582	0.028	85.313
2857.086	0.029	85.387	0.998	-1.669	0.998	-1.669	0.029	85.387
2866.898	0.031	85.446	0.998	-1.755	0.998	-1.755	0.031	85.446
2876.71	0.032	85.491	0.998	-1.842	0.998	-1.842	0.032	85.491
2886.521	0.034	85.524	0.998	-1.928	0.998	-1.928	0.034	85.524
2896.333	0.035	85.546	0.998	-2.013	0.998	-2.013	0.035	85.546
2906.145	0.037	85.56	0.998	-2.099	0.998	-2.099	0.037	85.56
2915.956	0.038	85.566	0.998	-2.184	0.998	-2.184	0.038	85.566
2925.768	0.04	85.566	0.998	-2.269	0.998	-2.269	0.04	85.566
2935.58	0.041	85.559	0.998	-2.354	0.998	-2.354	0.041	85.559
2945.391	0.043	85.547	0.998	-2.438	0.998	-2.438	0.043	85.547
2955.203	0.044	85.53	0.998	-2.522	0.998	-2.522	0.044	85.53
2965.015	0.045	85.509	0.997	-2.606	0.997	-2.606	0.045	85.509
2974.827	0.047	85.484	0.997	-2.689	0.997	-2.689	0.047	85.484
2984.638	0.048	85.455	0.997	-2.773	0.997	-2.773	0.048	85.455
2994.45	0.05	85.424	0.997	-2.856	0.997	-2.856	0.05	85.424
3004.262	0.051	85.39	0.997	-2.939	0.997	-2.939	0.051	85.39
3014.073	0.053	85.353	0.997	-3.021	0.997	-3.021	0.053	85.353
3023.885	0.054	85.314	0.997	-3.104	0.997	-3.104	0.054	85.314
3033.697	0.056	85.272	0.997	-3.186	0.997	-3.186	0.056	85.272
3043.508	0.057	85.229	0.997	-3.268	0.997	-3.268	0.057	85.229
3053.32	0.058	85.184	0.997	-3.349	0.997	-3.349	0.058	85.184
3063.132	0.06	85.138	0.997	-3.431	0.997	-3.431	0.06	85.138
3072.944	0.061	85.09	0.997	-3.512	0.997	-3.512	0.061	85.09
3082.755	0.063	85.04	0.997	-3.593	0.997	-3.593	0.063	85.04
3092.567	0.064	84.99	0.996	-3.673	0.996	-3.673	0.064	84.99
3102.379	0.065	84.938	0.996	-3.754	0.996	-3.754	0.065	84.938
3112.19	0.067	84.885	0.996	-3.834	0.996	-3.834	0.067	84.885
3122.002	0.068	84.832	0.996	-3.914	0.996	-3.914	0.068	84.832
3131.814	0.07	84.777	0.996	-3.993	0.996	-3.993	0.07	84.777
3141.625	0.071	84.722	0.996	-4.073	0.996	-4.073	0.071	84.722
3151.437	0.072	84.665	0.996	-4.152	0.996	-4.152	0.072	84.665
3161.249	0.074	84.609	0.996	-4.231	0.996	-4.231	0.074	84.609
3171.06	0.075	84.551	0.996	-4.31	0.996	-4.31	0.075	84.551
3180.872	0.077	84.493	0.996	-4.389	0.996	-4.389	0.077	84.493
3190.684	0.078	84.434	0.995	-4.467	0.995	-4.467	0.078	84.434
3200.496	0.079	84.375	0.995	-4.545	0.995	-4.545	0.079	84.375
3210.307	0.081	84.315	0.995	-4.623	0.995	-4.623	0.081	84.315
3220.119	0.082	84.255	0.995	-4.701	0.995	-4.701	0.082	84.255
3229.931	0.083	84.195	0.995	-4.779	0.995	-4.779	0.083	84.195
3239.742	0.085	84.134	0.995	-4.856	0.995	-4.856	0.085	84.134
3249.554	0.086	84.072	0.995	-4.933	0.995	-4.933	0.086	84.072
