! AVX Thin Film Operation		Date: April 2012 
! Description: Accu-P® Series, Thin Film, SMD, RF Capacitor
! Part Number: 12101J2R1QBTTR					
!	100	MHz	-	20.05	GHz			
!	Serial	Measurements						
!								
#	MHZ	S	MA	R	50			
!	S11	S21	S12	S22				
!	dB	Phase	dB	Phase	dB	Phase	dB	Phase
50 0.998 -3.775 0.066 86.152 0.066 86.152 0.998 -3.775
100 0.991 -7.522 0.131 82.39 0.131 82.39 0.991 -7.522
150 0.981 -11.213 0.194 78.683 0.194 78.683 0.981 -11.213
200 0.966 -14.825 0.256 75.055 0.256 75.055 0.966 -14.825
250 0.948 -18.337 0.315 71.527 0.315 71.527 0.948 -18.337
300 0.928 -21.732 0.37 68.116 0.37 68.116 0.928 -21.732
350 0.905 -24.996 0.423 64.836 0.423 64.836 0.905 -24.996
400 0.88 -28.121 0.471 61.694 0.471 61.694 0.88 -28.121
450 0.854 -31.102 0.517 58.697 0.517 58.697 0.854 -31.102
500 0.828 -33.937 0.558 55.845 0.558 55.845 0.828 -33.937
550 0.8 -36.625 0.597 53.139 0.597 53.139 0.8 -36.625
600 0.772 -39.171 0.632 50.576 0.632 50.576 0.772 -39.171
650 0.745 -41.578 0.664 48.151 0.664 48.151 0.745 -41.578
700 0.718 -43.853 0.693 45.858 0.693 45.858 0.718 -43.853
750 0.691 -46.001 0.719 43.692 0.719 43.692 0.691 -46.001
800 0.665 -48.029 0.743 41.645 0.743 41.645 0.665 -48.029
850 0.639 -49.944 0.765 39.71 0.765 39.71 0.639 -49.944
900 0.614 -51.754 0.785 37.88 0.785 37.88 0.614 -51.754
950 0.59 -53.465 0.804 36.149 0.804 36.149 0.59 -53.465
1000 0.567 -55.083 0.82 34.509 0.82 34.509 0.567 -55.083
1050 0.544 -56.615 0.835 32.955 0.835 32.955 0.544 -56.615
1100 0.522 -58.068 0.849 31.48 0.849 31.48 0.522 -58.068
1150 0.501 -59.445 0.861 30.079 0.861 30.079 0.501 -59.445
1200 0.481 -60.754 0.873 28.747 0.873 28.747 0.481 -60.754
1250 0.461 -61.997 0.883 27.478 0.883 27.478 0.461 -61.997
1300 0.443 -63.181 0.892 26.269 0.892 26.269 0.443 -63.181
1350 0.424 -64.308 0.901 25.114 0.901 25.114 0.424 -64.308
1400 0.407 -65.384 0.909 24.011 0.909 24.011 0.407 -65.384
1450 0.39 -66.41 0.916 22.955 0.916 22.955 0.39 -66.41
1500 0.374 -67.391 0.923 21.944 0.923 21.944 0.374 -67.391
1550 0.358 -68.329 0.929 20.974 0.929 20.974 0.358 -68.329
1600 0.343 -69.228 0.935 20.042 0.935 20.042 0.343 -69.228
1650 0.328 -70.088 0.94 19.146 0.94 19.146 0.328 -70.088
1700 0.314 -70.913 0.945 18.284 0.945 18.284 0.314 -70.913
1750 0.3 -71.705 0.95 17.453 0.95 17.453 0.3 -71.705
1800 0.287 -72.465 0.954 16.651 0.954 16.651 0.287 -72.465
1850 0.274 -73.195 0.957 15.877 0.957 15.877 0.274 -73.195
1900 0.261 -73.897 0.961 15.129 0.961 15.129 0.261 -73.897
1950 0.249 -74.571 0.964 14.405 0.964 14.405 0.249 -74.571
2000 0.237 -75.219 0.967 13.704 0.967 13.704 0.237 -75.219
2050 0.225 -75.842 0.97 13.024 0.97 13.024 0.225 -75.842
2100 0.214 -76.44 0.972 12.365 0.972 12.365 0.214 -76.44
2150 0.203 -77.015 0.975 11.724 0.975 11.724 0.203 -77.015
2200 0.193 -77.566 0.977 11.102 0.977 11.102 0.193 -77.566
2250 0.182 -78.094 0.979 10.496 0.979 10.496 0.182 -78.094
2300 0.172 -78.599 0.981 9.907 0.981 9.907 0.172 -78.599
2350 0.162 -79.081 0.982 9.333 0.982 9.333 0.162 -79.081
2400 0.153 -79.539 0.984 8.773 0.984 8.773 0.153 -79.539
2450 0.143 -79.973 0.985 8.226 0.985 8.226 0.143 -79.973
2500 0.134 -80.381 0.986 7.693 0.986 7.693 0.134 -80.381
2550 0.125 -80.762 0.988 7.172 0.988 7.172 0.125 -80.762
2600 0.116 -81.113 0.989 6.662 0.989 6.662 0.116 -81.113
2650 0.107 -81.431 0.99 6.164 0.99 6.164 0.107 -81.431
2700 0.099 -81.712 0.991 5.676 0.991 5.676 0.099 -81.712
2750 0.091 -81.95 0.991 5.198 0.991 5.198 0.091 -81.95
2800 0.083 -82.136 0.992 4.73 0.992 4.73 0.083 -82.136
2850 0.075 -82.259 0.993 4.271 0.993 4.271 0.075 -82.259
2900 0.067 -82.301 0.993 3.821 0.993 3.821 0.067 -82.301
2950 0.059 -82.237 0.994 3.379 0.994 3.379 0.059 -82.237
3000 0.052 -82.027 0.994 2.945 0.994 2.945 0.052 -82.027
3050 0.044 -81.608 0.995 2.519 0.995 2.519 0.044 -81.608
3100 0.037 -80.865 0.995 2.1 0.995 2.1 0.037 -80.865
3150 0.03 -79.584 0.995 1.688 0.995 1.688 0.03 -79.584
3200 0.023 -77.295 0.995 1.283 0.995 1.283 0.023 -77.295
3250 0.016 -72.775 0.995 0.884 0.995 0.884 0.016 -72.775
3300 9.695e-3 -61.701 0.995 0.491 0.995 0.491 9.695e-3 -61.701
3350 4.879e-3 -21.916 0.995 0.105 0.995 0.105 4.879e-3 -21.916
3400 6.607e-3 46.526 0.995 -0.276 0.995 -0.276 6.607e-3 46.526
3450 0.012 67.65 0.995 -0.651 0.995 -0.651 0.012 67.65
3500 0.018 74.74 0.995 -1.021 0.995 -1.021 0.018 74.74
3550 0.025 78.024 0.995 -1.386 0.995 -1.386 0.025 78.024
3600 0.031 79.812 0.995 -1.746 0.995 -1.746 0.031 79.812
3650 0.037 80.868 0.995 -2.101 0.995 -2.101 0.037 80.868
3700 0.043 81.515 0.995 -2.451 0.995 -2.451 0.043 81.515
3750 0.049 81.911 0.994 -2.798 0.994 -2.798 0.049 81.911
3800 0.055 82.143 0.994 -3.139 0.994 -3.139 0.055 82.143
3850 0.061 82.262 0.994 -3.477 0.994 -3.477 0.061 82.262
3900 0.067 82.301 0.993 -3.811 0.993 -3.811 0.067 82.301
3950 0.072 82.28 0.993 -4.14 0.993 -4.14 0.072 82.28
4000 0.078 82.215 0.992 -4.466 0.992 -4.466 0.078 82.215
4050 0.084 82.116 0.992 -4.789 0.992 -4.789 0.084 82.116
4100 0.089 81.99 0.992 -5.107 0.992 -5.107 0.089 81.99
4150 0.095 81.844 0.991 -5.423 0.991 -5.423 0.095 81.844
4200 0.1 81.68 0.99 -5.735 0.99 -5.735 0.1 81.68
4250 0.105 81.504 0.99 -6.044 0.99 -6.044 0.105 81.504
4300 0.111 81.316 0.989 -6.349 0.989 -6.349 0.111 81.316
4350 0.116 81.12 0.989 -6.652 0.989 -6.652 0.116 81.12
4400 0.121 80.916 0.988 -6.952 0.988 -6.952 0.121 80.916
4450 0.126 80.707 0.988 -7.248 0.988 -7.248 0.126 80.707
4500 0.131 80.493 0.987 -7.542 0.987 -7.542 0.131 80.493
4550 0.136 80.275 0.986 -7.834 0.986 -7.834 0.136 80.275
4600 0.141 80.054 0.985 -8.122 0.985 -8.122 0.141 80.054
4650 0.146 79.83 0.985 -8.408 0.985 -8.408 0.146 79.83
4700 0.151 79.604 0.984 -8.692 0.984 -8.692 0.151 79.604
4750 0.156 79.377 0.983 -8.973 0.983 -8.973 0.156 79.377
4800 0.161 79.148 0.983 -9.251 0.983 -9.251 0.161 79.148
4850 0.166 78.918 0.982 -9.528 0.982 -9.528 0.166 78.918
4900 0.17 78.688 0.981 -9.802 0.981 -9.802 0.17 78.688
4950 0.175 78.457 0.98 -10.073 0.98 -10.073 0.175 78.457
5000 0.18 78.226 0.979 -10.343 0.979 -10.343 0.18 78.226
5050 0.184 77.995 0.978 -10.61 0.978 -10.61 0.184 77.995
5100 0.189 77.764 0.978 -10.876 0.978 -10.876 0.189 77.764
5150 0.193 77.533 0.977 -11.139 0.977 -11.139 0.193 77.533
5200 0.198 77.302 0.976 -11.4 0.976 -11.4 0.198 77.302
5250 0.202 77.072 0.975 -11.66 0.975 -11.66 0.202 77.072
5300 0.207 76.842 0.974 -11.917 0.974 -11.917 0.207 76.842
5350 0.211 76.613 0.973 -12.173 0.973 -12.173 0.211 76.613
5400 0.215 76.384 0.972 -12.427 0.972 -12.427 0.215 76.384
5450 0.22 76.156 0.971 -12.679 0.971 -12.679 0.22 76.156
5500 0.224 75.929 0.97 -12.929 0.97 -12.929 0.224 75.929
5550 0.228 75.702 0.969 -13.177 0.969 -13.177 0.228 75.702
5600 0.232 75.476 0.968 -13.424 0.968 -13.424 0.232 75.476
5650 0.236 75.251 0.967 -13.669 0.967 -13.669 0.236 75.251
5700 0.24 75.027 0.966 -13.912 0.966 -13.912 0.24 75.027
5750 0.245 74.803 0.965 -14.154 0.965 -14.154 0.245 74.803
5800 0.249 74.581 0.964 -14.394 0.964 -14.394 0.249 74.581
5850 0.253 74.359 0.963 -14.633 0.963 -14.633 0.253 74.359
5900 0.257 74.138 0.962 -14.87 0.962 -14.87 0.257 74.138
5950 0.261 73.918 0.961 -15.106 0.961 -15.106 0.261 73.918
6000 0.265 73.699 0.96 -15.34 0.96 -15.34 0.265 73.699
6050 0.268 73.481 0.959 -15.573 0.959 -15.573 0.268 73.481
6100 0.272 73.264 0.958 -15.804 0.958 -15.804 0.272 73.264
6150 0.276 73.048 0.957 -16.034 0.957 -16.034 0.276 73.048
6200 0.28 72.832 0.956 -16.262 0.956 -16.262 0.28 72.832
6250 0.284 72.618 0.954 -16.49 0.954 -16.49 0.284 72.618
6300 0.288 72.404 0.953 -16.715 0.953 -16.715 0.288 72.404
6350 0.291 72.192 0.952 -16.94 0.952 -16.94 0.291 72.192
6400 0.295 71.98 0.951 -17.163 0.951 -17.163 0.295 71.98
6450 0.299 71.77 0.95 -17.385 0.95 -17.385 0.299 71.77
6500 0.302 71.56 0.949 -17.605 0.949 -17.605 0.302 71.56
6550 0.306 71.351 0.948 -17.825 0.948 -17.825 0.306 71.351
6600 0.31 71.143 0.946 -18.043 0.946 -18.043 0.31 71.143
6650 0.313 70.936 0.945 -18.26 0.945 -18.26 0.313 70.936
6700 0.317 70.73 0.944 -18.475 0.944 -18.475 0.317 70.73
6750 0.32 70.525 0.943 -18.69 0.943 -18.69 0.32 70.525
6800 0.324 70.321 0.942 -18.903 0.942 -18.903 0.324 70.321
6850 0.328 70.117 0.94 -19.115 0.94 -19.115 0.328 70.117
6900 0.331 69.915 0.939 -19.326 0.939 -19.326 0.331 69.915
6950 0.334 69.714 0.938 -19.536 0.938 -19.536 0.334 69.714
7000 0.338 69.513 0.937 -19.745 0.937 -19.745 0.338 69.513
7050 0.341 69.313 0.936 -19.953 0.936 -19.953 0.341 69.313
7100 0.345 69.114 0.934 -20.159 0.934 -20.159 0.345 69.114
7150 0.348 68.916 0.933 -20.365 0.933 -20.365 0.348 68.916
7200 0.351 68.719 0.932 -20.569 0.932 -20.569 0.351 68.719
7250 0.355 68.523 0.931 -20.773 0.931 -20.773 0.355 68.523
7300 0.358 68.328 0.929 -20.975 0.929 -20.975 0.358 68.328
7350 0.361 68.133 0.928 -21.176 0.928 -21.176 0.361 68.133
7400 0.365 67.94 0.927 -21.377 0.927 -21.377 0.365 67.94
7450 0.368 67.747 0.926 -21.576 0.926 -21.576 0.368 67.747
7500 0.371 67.555 0.924 -21.774 0.924 -21.774 0.371 67.555
7550 0.374 67.364 0.923 -21.972 0.923 -21.972 0.374 67.364
7600 0.377 67.174 0.922 -22.168 0.922 -22.168 0.377 67.174
7650 0.381 66.985 0.92 -22.363 0.92 -22.363 0.381 66.985
7700 0.384 66.796 0.919 -22.558 0.919 -22.558 0.384 66.796
7750 0.387 66.608 0.918 -22.751 0.918 -22.751 0.387 66.608
7800 0.39 66.422 0.917 -22.944 0.917 -22.944 0.39 66.422
7850 0.393 66.236 0.915 -23.135 0.915 -23.135 0.393 66.236
7900 0.396 66.05 0.914 -23.326 0.914 -23.326 0.396 66.05
7950 0.399 65.866 0.913 -23.516 0.913 -23.516 0.399 65.866
8000 0.402 65.682 0.911 -23.704 0.911 -23.704 0.402 65.682
8050 0.405 65.499 0.91 -23.892 0.91 -23.892 0.405 65.499
8100 0.408 65.317 0.909 -24.079 0.909 -24.079 0.408 65.317
8150 0.411 65.136 0.907 -24.266 0.907 -24.266 0.411 65.136
8200 0.414 64.955 0.906 -24.451 0.906 -24.451 0.414 64.955
8250 0.417 64.776 0.905 -24.635 0.905 -24.635 0.417 64.776
8300 0.42 64.597 0.903 -24.819 0.903 -24.819 0.42 64.597
8350 0.423 64.419 0.902 -25.001 0.902 -25.001 0.423 64.419
8400 0.426 64.241 0.901 -25.183 0.901 -25.183 0.426 64.241
8450 0.428 64.065 0.899 -25.364 0.899 -25.364 0.428 64.065
8500 0.431 63.889 0.898 -25.544 0.898 -25.544 0.431 63.889
8550 0.434 63.713 0.897 -25.724 0.897 -25.724 0.434 63.713
8600 0.437 63.539 0.895 -25.902 0.895 -25.902 0.437 63.539
8650 0.44 63.365 0.894 -26.08 0.894 -26.08 0.44 63.365
8700 0.442 63.193 0.893 -26.257 0.893 -26.257 0.442 63.193
8750 0.445 63.02 0.891 -26.433 0.891 -26.433 0.445 63.02
8800 0.448 62.849 0.89 -26.608 0.89 -26.608 0.448 62.849
8850 0.451 62.678 0.888 -26.783 0.888 -26.783 0.451 62.678
8900 0.453 62.508 0.887 -26.957 0.887 -26.957 0.453 62.508
8950 0.456 62.339 0.886 -27.13 0.886 -27.13 0.456 62.339
9000 0.459 62.17 0.884 -27.302 0.884 -27.302 0.459 62.17
9050 0.461 62.002 0.883 -27.473 0.883 -27.473 0.461 62.002
9100 0.464 61.835 0.882 -27.644 0.882 -27.644 0.464 61.835
9150 0.467 61.669 0.88 -27.814 0.88 -27.814 0.467 61.669
9200 0.469 61.503 0.879 -27.983 0.879 -27.983 0.469 61.503
9250 0.472 61.338 0.877 -28.151 0.877 -28.151 0.472 61.338
9300 0.474 61.173 0.876 -28.319 0.876 -28.319 0.474 61.173
9350 0.477 61.01 0.875 -28.486 0.875 -28.486 0.477 61.01
9400 0.48 60.847 0.873 -28.652 0.873 -28.652 0.48 60.847
9450 0.482 60.684 0.872 -28.818 0.872 -28.818 0.482 60.684
9500 0.485 60.523 0.871 -28.982 0.871 -28.982 0.485 60.523
9550 0.487 60.362 0.869 -29.146 0.869 -29.146 0.487 60.362
9600 0.49 60.201 0.868 -29.31 0.868 -29.31 0.49 60.201
9650 0.492 60.042 0.866 -29.472 0.866 -29.472 0.492 60.042
9700 0.494 59.883 0.865 -29.634 0.865 -29.634 0.494 59.883
9750 0.497 59.724 0.864 -29.795 0.864 -29.795 0.497 59.724
9800 0.499 59.567 0.862 -29.956 0.862 -29.956 0.499 59.567
9850 0.502 59.41 0.861 -30.116 0.861 -30.116 0.502 59.41
9900 0.504 59.253 0.859 -30.275 0.859 -30.275 0.504 59.253
9950 0.507 59.097 0.858 -30.433 0.858 -30.433 0.507 59.097
10000 0.509 58.942 0.857 -30.591 0.857 -30.591 0.509 58.942
10050 0.511 58.788 0.855 -30.748 0.855 -30.748 0.511 58.788
10100 0.514 58.634 0.854 -30.905 0.854 -30.905 0.514 58.634
10150 0.516 58.481 0.852 -31.06 0.852 -31.06 0.516 58.481
10200 0.518 58.328 0.851 -31.216 0.851 -31.216 0.518 58.328
10250 0.521 58.176 0.85 -31.37 0.85 -31.37 0.521 58.176
10300 0.523 58.025 0.848 -31.524 0.848 -31.524 0.523 58.025
10350 0.525 57.874 0.847 -31.677 0.847 -31.677 0.525 57.874
10400 0.527 57.724 0.846 -31.83 0.846 -31.83 0.527 57.724
10450 0.53 57.574 0.844 -31.981 0.844 -31.981 0.53 57.574
10500 0.532 57.425 0.843 -32.133 0.843 -32.133 0.532 57.425
10550 0.534 57.277 0.841 -32.283 0.841 -32.283 0.534 57.277
10600 0.536 57.129 0.84 -32.433 0.84 -32.433 0.536 57.129
10650 0.539 56.982 0.839 -32.583 0.839 -32.583 0.539 56.982
10700 0.541 56.836 0.837 -32.731 0.837 -32.731 0.541 56.836
10750 0.543 56.69 0.836 -32.879 0.836 -32.879 0.543 56.69
10800 0.545 56.545 0.834 -33.027 0.834 -33.027 0.545 56.545
10850 0.547 56.4 0.833 -33.174 0.833 -33.174 0.547 56.4
10900 0.549 56.256 0.832 -33.32 0.832 -33.32 0.549 56.256
10950 0.551 56.112 0.83 -33.466 0.83 -33.466 0.551 56.112
11000 0.554 55.969 0.829 -33.611 0.829 -33.611 0.554 55.969
11050 0.556 55.827 0.827 -33.755 0.827 -33.755 0.556 55.827
11100 0.558 55.685 0.826 -33.899 0.826 -33.899 0.558 55.685
11150 0.56 55.544 0.825 -34.042 0.825 -34.042 0.56 55.544
11200 0.562 55.403 0.823 -34.185 0.823 -34.185 0.562 55.403
11250 0.564 55.263 0.822 -34.327 0.822 -34.327 0.564 55.263
11300 0.566 55.123 0.82 -34.469 0.82 -34.469 0.566 55.123
11350 0.568 54.984 0.819 -34.609 0.819 -34.609 0.568 54.984
11400 0.57 54.846 0.818 -34.75 0.818 -34.75 0.57 54.846
11450 0.572 54.708 0.816 -34.89 0.816 -34.89 0.572 54.708
11500 0.574 54.57 0.815 -35.029 0.815 -35.029 0.574 54.57
11550 0.576 54.434 0.813 -35.167 0.813 -35.167 0.576 54.434
11600 0.578 54.297 0.812 -35.305 0.812 -35.305 0.578 54.297
11650 0.58 54.162 0.811 -35.443 0.811 -35.443 0.58 54.162
11700 0.582 54.026 0.809 -35.58 0.809 -35.58 0.582 54.026
11750 0.584 53.892 0.808 -35.716 0.808 -35.716 0.584 53.892
11800 0.586 53.758 0.807 -35.852 0.807 -35.852 0.586 53.758
11850 0.588 53.624 0.805 -35.987 0.805 -35.987 0.588 53.624
11900 0.59 53.491 0.804 -36.122 0.804 -36.122 0.59 53.491
11950 0.591 53.358 0.802 -36.256 0.802 -36.256 0.591 53.358
12000 0.593 53.226 0.801 -36.39 0.801 -36.39 0.593 53.226
12050 0.595 53.095 0.8 -36.523 0.8 -36.523 0.595 53.095
12100 0.597 52.964 0.798 -36.656 0.798 -36.656 0.597 52.964
12150 0.599 52.833 0.797 -36.788 0.797 -36.788 0.599 52.833
12200 0.601 52.704 0.796 -36.919 0.796 -36.919 0.601 52.704
12250 0.603 52.574 0.794 -37.05 0.794 -37.05 0.603 52.574
12300 0.604 52.445 0.793 -37.181 0.793 -37.181 0.604 52.445
12350 0.606 52.317 0.791 -37.311 0.791 -37.311 0.606 52.317
12400 0.608 52.189 0.79 -37.44 0.79 -37.44 0.608 52.189
12450 0.61 52.062 0.789 -37.569 0.789 -37.569 0.61 52.062
12500 0.612 51.935 0.787 -37.697 0.787 -37.697 0.612 51.935
12550 0.613 51.808 0.786 -37.825 0.786 -37.825 0.613 51.808
12600 0.615 51.682 0.785 -37.952 0.785 -37.952 0.615 51.682
12650 0.617 51.557 0.783 -38.079 0.783 -38.079 0.617 51.557
12700 0.618 51.432 0.782 -38.206 0.782 -38.206 0.618 51.432
12750 0.62 51.308 0.781 -38.331 0.781 -38.331 0.62 51.308
12800 0.622 51.184 0.779 -38.457 0.779 -38.457 0.622 51.184
12850 0.624 51.06 0.778 -38.582 0.778 -38.582 0.624 51.06
12900 0.625 50.937 0.776 -38.706 0.776 -38.706 0.625 50.937
12950 0.627 50.815 0.775 -38.83 0.775 -38.83 0.627 50.815
13000 0.629 50.693 0.774 -38.953 0.774 -38.953 0.629 50.693
13050 0.63 50.571 0.772 -39.076 0.772 -39.076 0.63 50.571
13100 0.632 50.45 0.771 -39.198 0.771 -39.198 0.632 50.45
13150 0.634 50.33 0.77 -39.32 0.77 -39.32 0.634 50.33
13200 0.635 50.209 0.768 -39.442 0.768 -39.442 0.635 50.209
13250 0.637 50.09 0.767 -39.563 0.767 -39.563 0.637 50.09
13300 0.639 49.971 0.766 -39.683 0.766 -39.683 0.639 49.971
13350 0.64 49.852 0.764 -39.803 0.764 -39.803 0.64 49.852
13400 0.642 49.734 0.763 -39.923 0.763 -39.923 0.642 49.734
13450 0.643 49.616 0.762 -40.042 0.762 -40.042 0.643 49.616
13500 0.645 49.498 0.76 -40.16 0.76 -40.16 0.645 49.498
13550 0.647 49.381 0.759 -40.278 0.759 -40.278 0.647 49.381
13600 0.648 49.265 0.758 -40.396 0.758 -40.396 0.648 49.265
13650 0.65 49.149 0.756 -40.513 0.756 -40.513 0.65 49.149
13700 0.651 49.033 0.755 -40.63 0.755 -40.63 0.651 49.033
13750 0.653 48.918 0.754 -40.746 0.754 -40.746 0.653 48.918
13800 0.654 48.804 0.752 -40.862 0.752 -40.862 0.654 48.804
13850 0.656 48.689 0.751 -40.977 0.751 -40.977 0.656 48.689
13900 0.657 48.576 0.75 -41.092 0.75 -41.092 0.657 48.576
13950 0.659 48.462 0.749 -41.207 0.749 -41.207 0.659 48.462
14000 0.66 48.349 0.747 -41.321 0.747 -41.321 0.66 48.349
14050 0.662 48.237 0.746 -41.434 0.746 -41.434 0.662 48.237
14100 0.663 48.125 0.745 -41.548 0.745 -41.548 0.663 48.125
14150 0.665 48.013 0.743 -41.66 0.743 -41.66 0.665 48.013
14200 0.666 47.902 0.742 -41.773 0.742 -41.773 0.666 47.902
14250 0.668 47.791 0.741 -41.884 0.741 -41.884 0.668 47.791
14300 0.669 47.681 0.739 -41.996 0.739 -41.996 0.669 47.681
14350 0.671 47.571 0.738 -42.107 0.738 -42.107 0.671 47.571
14400 0.672 47.462 0.737 -42.217 0.737 -42.217 0.672 47.462
14450 0.673 47.352 0.736 -42.328 0.736 -42.328 0.673 47.352
14500 0.675 47.244 0.734 -42.437 0.734 -42.437 0.675 47.244
14550 0.676 47.136 0.733 -42.547 0.733 -42.547 0.676 47.136
14600 0.678 47.028 0.732 -42.655 0.732 -42.655 0.678 47.028
14650 0.679 46.92 0.73 -42.764 0.73 -42.764 0.679 46.92
14700 0.68 46.813 0.729 -42.872 0.729 -42.872 0.68 46.813
14750 0.682 46.707 0.728 -42.979 0.728 -42.979 0.682 46.707
14800 0.683 46.6 0.727 -43.087 0.727 -43.087 0.683 46.6
14850 0.684 46.495 0.725 -43.193 0.725 -43.193 0.684 46.495
14900 0.686 46.389 0.724 -43.3 0.724 -43.3 0.686 46.389
14950 0.687 46.284 0.723 -43.406 0.723 -43.406 0.687 46.284
15000 0.689 46.179 0.722 -43.511 0.722 -43.511 0.689 46.179
15050 0.69 46.075 0.72 -43.617 0.72 -43.617 0.69 46.075
15100 0.691 45.971 0.719 -43.721 0.719 -43.721 0.691 45.971
15150 0.692 45.868 0.718 -43.826 0.718 -43.826 0.692 45.868
15200 0.694 45.765 0.716 -43.93 0.716 -43.93 0.694 45.765
15250 0.695 45.662 0.715 -44.033 0.715 -44.033 0.695 45.662
15300 0.696 45.56 0.714 -44.136 0.714 -44.136 0.696 45.56
15350 0.698 45.458 0.713 -44.239 0.713 -44.239 0.698 45.458
15400 0.699 45.357 0.712 -44.342 0.712 -44.342 0.699 45.357
15450 0.7 45.255 0.71 -44.444 0.71 -44.444 0.7 45.255
15500 0.701 45.155 0.709 -44.545 0.709 -44.545 0.701 45.155
15550 0.703 45.054 0.708 -44.647 0.708 -44.647 0.703 45.054
15600 0.704 44.954 0.707 -44.747 0.707 -44.747 0.704 44.954
15650 0.705 44.855 0.705 -44.848 0.705 -44.848 0.705 44.855
15700 0.706 44.755 0.704 -44.948 0.704 -44.948 0.706 44.755
15750 0.708 44.657 0.703 -45.048 0.703 -45.048 0.708 44.657
15800 0.709 44.558 0.702 -45.147 0.702 -45.147 0.709 44.558
15850 0.71 44.46 0.7 -45.246 0.7 -45.246 0.71 44.46
15900 0.711 44.362 0.699 -45.345 0.699 -45.345 0.711 44.362
15950 0.713 44.265 0.698 -45.443 0.698 -45.443 0.713 44.265
16000 0.714 44.168 0.697 -45.541 0.697 -45.541 0.714 44.168
16050 0.715 44.071 0.696 -45.638 0.696 -45.638 0.715 44.071
16100 0.716 43.975 0.694 -45.736 0.694 -45.736 0.716 43.975
16150 0.717 43.879 0.693 -45.832 0.693 -45.832 0.717 43.879
16200 0.718 43.783 0.692 -45.929 0.692 -45.929 0.718 43.783
16250 0.72 43.688 0.691 -46.025 0.691 -46.025 0.72 43.688
16300 0.721 43.593 0.69 -46.121 0.69 -46.121 0.721 43.593
16350 0.722 43.498 0.688 -46.216 0.688 -46.216 0.722 43.498
16400 0.723 43.404 0.687 -46.311 0.687 -46.311 0.723 43.404
16450 0.724 43.31 0.686 -46.406 0.686 -46.406 0.724 43.31
16500 0.725 43.217 0.685 -46.5 0.685 -46.5 0.725 43.217
16550 0.727 43.123 0.684 -46.594 0.684 -46.594 0.727 43.123
16600 0.728 43.031 0.682 -46.687 0.682 -46.687 0.728 43.031
16650 0.729 42.938 0.681 -46.781 0.681 -46.781 0.729 42.938
16700 0.73 42.846 0.68 -46.874 0.68 -46.874 0.73 42.846
16750 0.731 42.754 0.679 -46.966 0.679 -46.966 0.731 42.754
16800 0.732 42.663 0.678 -47.058 0.678 -47.058 0.732 42.663
16850 0.733 42.571 0.677 -47.15 0.677 -47.15 0.733 42.571
16900 0.734 42.481 0.675 -47.242 0.675 -47.242 0.734 42.481
