! AVX Thin Film Operation		Date: April 2012 
! Description: Accu-P® Series, Thin Film, SMD, RF Capacitor
! Part Number: 12101J160FBTTR					
!	100	MHz	-	10.05	GHz			
!	Serial	Measurements						
!								
#	MHZ	S	MA	R	50			
!	S11	S21	S12	S22				
!	dB	Phase	dB	Phase	dB	Phase	dB	Phase
100	0.702	-45.321	0.711	44.627	0.711	44.627	0.702	-45.321
109.812	0.668	-48.032	0.744	41.911	0.744	41.911	0.668	-48.032
119.623	0.635	-50.494	0.772	39.444	0.772	39.444	0.635	-50.494
129.435	0.605	-52.732	0.796	37.2	0.796	37.2	0.605	-52.732
139.247	0.576	-54.771	0.817	35.156	0.817	35.156	0.576	-54.771
149.058	0.549	-56.631	0.835	33.29	0.835	33.29	0.549	-56.631
158.87	0.524	-58.333	0.851	31.583	0.851	31.583	0.524	-58.333
168.682	0.5	-59.894	0.865	30.017	0.865	30.017	0.5	-59.894
178.494	0.478	-61.329	0.877	28.577	0.877	28.577	0.478	-61.329
188.305	0.458	-62.651	0.888	27.249	0.888	27.249	0.458	-62.651
198.117	0.439	-63.872	0.898	26.022	0.898	26.022	0.439	-63.872
207.929	0.421	-65.003	0.906	24.885	0.906	24.885	0.421	-65.003
217.74	0.404	-66.053	0.914	23.83	0.914	23.83	0.404	-66.053
227.552	0.388	-67.031	0.921	22.847	0.921	22.847	0.388	-67.031
237.364	0.373	-67.942	0.927	21.93	0.927	21.93	0.373	-67.942
247.175	0.36	-68.793	0.932	21.073	0.932	21.073	0.36	-68.793
256.987	0.346	-69.591	0.937	20.27	0.937	20.27	0.346	-69.591
266.799	0.334	-70.339	0.942	19.516	0.942	19.516	0.334	-70.339
276.611	0.322	-71.043	0.946	18.806	0.946	18.806	0.322	-71.043
286.422	0.311	-71.705	0.949	18.137	0.949	18.137	0.311	-71.705
296.234	0.301	-72.33	0.953	17.506	0.953	17.506	0.301	-72.33
306.046	0.291	-72.921	0.956	16.909	0.956	16.909	0.291	-72.921
315.857	0.281	-73.481	0.959	16.343	0.959	16.343	0.281	-73.481
325.669	0.272	-74.011	0.961	15.807	0.961	15.807	0.272	-74.011
335.481	0.264	-74.515	0.964	15.297	0.964	15.297	0.264	-74.515
345.292	0.256	-74.994	0.966	14.812	0.966	14.812	0.256	-74.994
355.104	0.248	-75.449	0.968	14.349	0.968	14.349	0.248	-75.449
364.916	0.24	-75.884	0.97	13.908	0.97	13.908	0.24	-75.884
374.727	0.233	-76.299	0.972	13.486	0.972	13.486	0.233	-76.299
384.539	0.226	-76.695	0.973	13.083	0.973	13.083	0.226	-76.695
394.351	0.22	-77.075	0.975	12.697	0.975	12.697	0.22	-77.075
404.163	0.213	-77.438	0.976	12.326	0.976	12.326	0.213	-77.438
413.974	0.207	-77.786	0.977	11.971	0.977	11.971	0.207	-77.786
423.786	0.202	-78.12	0.979	11.629	0.979	11.629	0.202	-78.12
433.598	0.196	-78.442	0.98	11.3	0.98	11.3	0.196	-78.442
443.409	0.191	-78.75	0.981	10.984	0.981	10.984	0.191	-78.75
453.221	0.185	-79.048	0.982	10.679	0.982	10.679	0.185	-79.048
463.033	0.18	-79.334	0.983	10.385	0.983	10.385	0.18	-79.334
472.844	0.175	-79.61	0.984	10.101	0.984	10.101	0.175	-79.61
482.656	0.171	-79.876	0.984	9.827	0.984	9.827	0.171	-79.876
492.468	0.166	-80.133	0.985	9.561	0.985	9.561	0.166	-80.133
502.279	0.162	-80.381	0.986	9.304	0.986	9.304	0.162	-80.381
512.091	0.157	-80.621	0.987	9.056	0.987	9.056	0.157	-80.621
521.903	0.153	-80.853	0.987	8.814	0.987	8.814	0.153	-80.853
531.715	0.149	-81.078	0.988	8.58	0.988	8.58	0.149	-81.078
541.526	0.145	-81.296	0.989	8.353	0.989	8.353	0.145	-81.296
551.338	0.141	-81.507	0.989	8.133	0.989	8.133	0.141	-81.507
561.15	0.138	-81.711	0.99	7.918	0.99	7.918	0.138	-81.711
570.961	0.134	-81.91	0.99	7.71	0.99	7.71	0.134	-81.91
580.773	0.131	-82.102	0.991	7.507	0.991	7.507	0.131	-82.102
590.585	0.127	-82.289	0.991	7.309	0.991	7.309	0.127	-82.289
600.396	0.124	-82.471	0.991	7.117	0.991	7.117	0.124	-82.471
610.208	0.121	-82.647	0.992	6.929	0.992	6.929	0.121	-82.647
620.02	0.117	-82.819	0.992	6.746	0.992	6.746	0.117	-82.819
629.832	0.114	-82.985	0.993	6.567	0.993	6.567	0.114	-82.985
639.643	0.111	-83.148	0.993	6.393	0.993	6.393	0.111	-83.148
649.455	0.108	-83.305	0.993	6.222	0.993	6.222	0.108	-83.305
659.267	0.105	-83.459	0.994	6.055	0.994	6.055	0.105	-83.459
669.078	0.103	-83.608	0.994	5.892	0.994	5.892	0.103	-83.608
678.89	0.1	-83.754	0.994	5.733	0.994	5.733	0.1	-83.754
688.702	0.097	-83.895	0.994	5.577	0.994	5.577	0.097	-83.895
698.513	0.095	-84.033	0.995	5.424	0.995	5.424	0.095	-84.033
708.325	0.092	-84.167	0.995	5.274	0.995	5.274	0.092	-84.167
718.137	0.089	-84.298	0.995	5.128	0.995	5.128	0.089	-84.298
727.948	0.087	-84.425	0.995	4.984	0.995	4.984	0.087	-84.425
737.76	0.084	-84.549	0.996	4.843	0.996	4.843	0.084	-84.549
747.572	0.082	-84.669	0.996	4.704	0.996	4.704	0.082	-84.669
757.384	0.08	-84.787	0.996	4.569	0.996	4.569	0.08	-84.787
767.195	0.077	-84.901	0.996	4.435	0.996	4.435	0.077	-84.901
777.007	0.075	-85.011	0.996	4.304	0.996	4.304	0.075	-85.011
786.819	0.073	-85.119	0.996	4.175	0.996	4.175	0.073	-85.119
796.63	0.071	-85.223	0.997	4.049	0.997	4.049	0.071	-85.223
806.442	0.068	-85.325	0.997	3.924	0.997	3.924	0.068	-85.325
816.254	0.066	-85.423	0.997	3.802	0.997	3.802	0.066	-85.423
826.065	0.064	-85.518	0.997	3.682	0.997	3.682	0.064	-85.518
835.877	0.062	-85.61	0.997	3.563	0.997	3.563	0.062	-85.61
845.689	0.06	-85.698	0.997	3.446	0.997	3.446	0.06	-85.698
855.5	0.058	-85.783	0.997	3.331	0.997	3.331	0.058	-85.783
865.312	0.056	-85.865	0.998	3.218	0.998	3.218	0.056	-85.865
875.124	0.054	-85.944	0.998	3.107	0.998	3.107	0.054	-85.944
884.936	0.052	-86.019	0.998	2.997	0.998	2.997	0.052	-86.019
894.747	0.05	-86.09	0.998	2.888	0.998	2.888	0.05	-86.09
904.559	0.049	-86.158	0.998	2.782	0.998	2.782	0.049	-86.158
914.371	0.047	-86.222	0.998	2.676	0.998	2.676	0.047	-86.222
924.182	0.045	-86.281	0.998	2.572	0.998	2.572	0.045	-86.281
933.994	0.043	-86.336	0.998	2.47	0.998	2.47	0.043	-86.336
943.806	0.041	-86.386	0.998	2.368	0.998	2.368	0.041	-86.386
953.617	0.04	-86.431	0.998	2.268	0.998	2.268	0.04	-86.431
963.429	0.038	-86.471	0.998	2.17	0.998	2.17	0.038	-86.471
973.241	0.036	-86.504	0.998	2.072	0.998	2.072	0.036	-86.504
983.053	0.034	-86.531	0.999	1.976	0.999	1.976	0.034	-86.531
992.864	0.033	-86.55	0.999	1.88	0.999	1.88	0.033	-86.55
1002.676	0.031	-86.562	0.999	1.786	0.999	1.786	0.031	-86.562
1012.488	0.03	-86.564	0.999	1.693	0.999	1.693	0.03	-86.564
1022.299	0.028	-86.556	0.999	1.601	0.999	1.601	0.028	-86.556
1032.111	0.026	-86.536	0.999	1.51	0.999	1.51	0.026	-86.536
1041.923	0.025	-86.502	0.999	1.42	0.999	1.42	0.025	-86.502
1051.734	0.023	-86.453	0.999	1.331	0.999	1.331	0.023	-86.453
1061.546	0.022	-86.384	0.999	1.243	0.999	1.243	0.022	-86.384
1071.358	0.02	-86.292	0.999	1.156	0.999	1.156	0.02	-86.292
1081.169	0.019	-86.173	0.999	1.07	0.999	1.07	0.019	-86.173
1090.981	0.017	-86.019	0.999	0.984	0.999	0.984	0.017	-86.019
1100.793	0.016	-85.823	0.999	0.9	0.999	0.9	0.016	-85.823
1110.605	0.014	-85.571	0.999	0.816	0.999	0.816	0.014	-85.571
1120.416	0.013	-85.246	0.999	0.733	0.999	0.733	0.013	-85.246
1130.228	0.011	-84.822	0.999	0.651	0.999	0.651	0.011	-84.822
1140.04	9.98E-03	-84.26	0.999	0.569	0.999	0.569	9.98E-03	-84.26
1149.851	8.58E-03	-83.492	0.999	0.489	0.999	0.489	8.58E-03	-83.492
1159.663	7.19E-03	-82.405	0.999	0.409	0.999	0.409	7.19E-03	-82.405
1169.475	5.82E-03	-80.78	0.999	0.329	0.999	0.329	5.82E-03	-80.78
1179.286	4.47E-03	-78.14	0.999	0.251	0.999	0.251	4.47E-03	-78.14
1189.098	3.15E-03	-73.232	0.999	0.173	0.999	0.173	3.15E-03	-73.232
1198.91	1.90E-03	-61.585	0.999	0.096	0.999	0.096	1.90E-03	-61.585
1208.722	9.58E-04	-20.206	0.999	0.019	0.999	0.019	9.58E-04	-20.206
1218.533	1.34E-03	47.846	0.999	-0.057	0.999	-0.057	1.34E-03	47.846
1228.345	2.48E-03	68.609	0.999	-0.132	0.999	-0.132	2.48E-03	68.609
1238.157	3.73E-03	75.831	0.999	-0.207	0.999	-0.207	3.73E-03	75.831
1247.968	5.00E-03	79.346	0.999	-0.282	0.999	-0.282	5.00E-03	79.346
1257.78	6.26E-03	81.39	0.999	-0.355	0.999	-0.355	6.26E-03	81.39
1267.592	7.53E-03	82.712	0.999	-0.428	0.999	-0.428	7.53E-03	82.712
1277.403	8.79E-03	83.626	0.999	-0.501	0.999	-0.501	8.79E-03	83.626
1287.215	0.01	84.288	0.999	-0.573	0.999	-0.573	0.01	84.288
1297.027	0.011	84.784	0.999	-0.644	0.999	-0.644	0.011	84.784
1306.838	0.013	85.166	0.999	-0.716	0.999	-0.716	0.013	85.166
1316.65	0.014	85.464	0.999	-0.786	0.999	-0.786	0.014	85.464
1326.462	0.015	85.7	0.999	-0.856	0.999	-0.856	0.015	85.7
1336.274	0.016	85.889	0.999	-0.926	0.999	-0.926	0.016	85.889
1346.085	0.017	86.04	0.999	-0.995	0.999	-0.995	0.017	86.04
1355.897	0.019	86.163	0.999	-1.064	0.999	-1.064	0.019	86.163
1365.709	0.02	86.262	0.999	-1.132	0.999	-1.132	0.02	86.262
1375.52	0.021	86.341	0.999	-1.2	0.999	-1.2	0.021	86.341
1385.332	0.022	86.404	0.999	-1.267	0.999	-1.267	0.022	86.404
1395.144	0.023	86.454	0.999	-1.334	0.999	-1.334	0.023	86.454
1404.955	0.024	86.493	0.999	-1.4	0.999	-1.4	0.024	86.493
1414.767	0.026	86.522	0.999	-1.467	0.999	-1.467	0.026	86.522
1424.579	0.027	86.542	0.999	-1.532	0.999	-1.532	0.027	86.542
1434.39	0.028	86.556	0.999	-1.598	0.999	-1.598	0.028	86.556
1444.202	0.029	86.563	0.999	-1.663	0.999	-1.663	0.029	86.563
1454.014	0.03	86.564	0.999	-1.727	0.999	-1.727	0.03	86.564
1463.826	0.031	86.561	0.999	-1.792	0.999	-1.792	0.031	86.561
1473.637	0.032	86.554	0.999	-1.856	0.999	-1.856	0.032	86.554
1483.449	0.034	86.543	0.999	-1.919	0.999	-1.919	0.034	86.543
1493.261	0.035	86.529	0.999	-1.982	0.999	-1.982	0.035	86.529
1503.072	0.036	86.512	0.998	-2.045	0.998	-2.045	0.036	86.512
1512.884	0.037	86.492	0.998	-2.108	0.998	-2.108	0.037	86.492
1522.696	0.038	86.47	0.998	-2.17	0.998	-2.17	0.038	86.47
1532.507	0.039	86.446	0.998	-2.232	0.998	-2.232	0.039	86.446
1542.319	0.04	86.42	0.998	-2.294	0.998	-2.294	0.04	86.42
1552.131	0.041	86.392	0.998	-2.355	0.998	-2.355	0.041	86.392
1561.943	0.042	86.363	0.998	-2.416	0.998	-2.416	0.042	86.363
1571.754	0.043	86.332	0.998	-2.477	0.998	-2.477	0.043	86.332
1581.566	0.044	86.3	0.998	-2.537	0.998	-2.537	0.044	86.3
1591.378	0.045	86.267	0.998	-2.597	0.998	-2.597	0.045	86.267
1601.189	0.046	86.233	0.998	-2.657	0.998	-2.657	0.046	86.233
1611.001	0.047	86.197	0.998	-2.717	0.998	-2.717	0.047	86.197
1620.813	0.048	86.161	0.998	-2.776	0.998	-2.776	0.048	86.161
1630.624	0.049	86.124	0.998	-2.835	0.998	-2.835	0.049	86.124
1640.436	0.05	86.087	0.998	-2.894	0.998	-2.894	0.05	86.087
1650.248	0.052	86.048	0.998	-2.953	0.998	-2.953	0.052	86.048
1660.059	0.053	86.009	0.998	-3.011	0.998	-3.011	0.053	86.009
1669.871	0.054	85.97	0.998	-3.069	0.998	-3.069	0.054	85.97
1679.683	0.055	85.93	0.998	-3.127	0.998	-3.127	0.055	85.93
1689.495	0.056	85.889	0.998	-3.185	0.998	-3.185	0.056	85.889
1699.306	0.057	85.848	0.998	-3.242	0.998	-3.242	0.057	85.848
1709.118	0.058	85.807	0.997	-3.299	0.997	-3.299	0.058	85.807
1718.93	0.059	85.765	0.997	-3.356	0.997	-3.356	0.059	85.765
1728.741	0.06	85.723	0.997	-3.413	0.997	-3.413	0.06	85.723
1738.553	0.061	85.681	0.997	-3.469	0.997	-3.469	0.061	85.681
1748.365	0.061	85.638	0.997	-3.525	0.997	-3.525	0.061	85.638
1758.176	0.062	85.595	0.997	-3.581	0.997	-3.581	0.062	85.595
1767.988	0.063	85.552	0.997	-3.637	0.997	-3.637	0.063	85.552
1777.8	0.064	85.509	0.997	-3.693	0.997	-3.693	0.064	85.509
1787.611	0.065	85.465	0.997	-3.748	0.997	-3.748	0.065	85.465
1797.423	0.066	85.421	0.997	-3.804	0.997	-3.804	0.066	85.421
1807.235	0.067	85.377	0.997	-3.859	0.997	-3.859	0.067	85.377
1817.047	0.068	85.333	0.997	-3.913	0.997	-3.913	0.068	85.333
1826.858	0.069	85.289	0.997	-3.968	0.997	-3.968	0.069	85.289
1836.67	0.07	85.245	0.997	-4.023	0.997	-4.023	0.07	85.245
1846.482	0.071	85.2	0.997	-4.077	0.997	-4.077	0.071	85.2
1856.293	0.072	85.156	0.997	-4.131	0.997	-4.131	0.072	85.156
1866.105	0.073	85.111	0.996	-4.185	0.996	-4.185	0.073	85.111
1875.917	0.074	85.066	0.996	-4.239	0.996	-4.239	0.074	85.066
1885.728	0.075	85.021	0.996	-4.292	0.996	-4.292	0.075	85.021
1895.54	0.076	84.976	0.996	-4.346	0.996	-4.346	0.076	84.976
1905.352	0.077	84.931	0.996	-4.399	0.996	-4.399	0.077	84.931
1915.164	0.078	84.886	0.996	-4.452	0.996	-4.452	0.078	84.886
1924.975	0.079	84.841	0.996	-4.505	0.996	-4.505	0.079	84.841
1934.787	0.079	84.796	0.996	-4.558	0.996	-4.558	0.079	84.796
1944.599	0.08	84.751	0.996	-4.61	0.996	-4.61	0.08	84.751
1954.41	0.081	84.706	0.996	-4.663	0.996	-4.663	0.081	84.706
1964.222	0.082	84.66	0.996	-4.715	0.996	-4.715	0.082	84.66
1974.034	0.083	84.615	0.996	-4.767	0.996	-4.767	0.083	84.615
1983.845	0.084	84.57	0.996	-4.819	0.996	-4.819	0.084	84.57
1993.657	0.085	84.524	0.995	-4.871	0.995	-4.871	0.085	84.524
2003.469	0.086	84.479	0.995	-4.923	0.995	-4.923	0.086	84.479
2013.28	0.087	84.434	0.995	-4.974	0.995	-4.974	0.087	84.434
2023.092	0.088	84.388	0.995	-5.026	0.995	-5.026	0.088	84.388
2032.904	0.088	84.343	0.995	-5.077	0.995	-5.077	0.088	84.343
2042.716	0.089	84.298	0.995	-5.128	0.995	-5.128	0.089	84.298
2052.527	0.09	84.253	0.995	-5.179	0.995	-5.179	0.09	84.253
2062.339	0.091	84.207	0.995	-5.23	0.995	-5.23	0.091	84.207
2072.151	0.092	84.162	0.995	-5.281	0.995	-5.281	0.092	84.162
2081.962	0.093	84.117	0.995	-5.331	0.995	-5.331	0.093	84.117
2091.774	0.094	84.071	0.995	-5.382	0.995	-5.382	0.094	84.071
2101.586	0.095	84.026	0.995	-5.432	0.995	-5.432	0.095	84.026
2111.397	0.096	83.981	0.995	-5.482	0.995	-5.482	0.096	83.981
2121.209	0.096	83.936	0.994	-5.532	0.994	-5.532	0.096	83.936
2131.021	0.097	83.891	0.994	-5.582	0.994	-5.582	0.097	83.891
2140.833	0.098	83.845	0.994	-5.632	0.994	-5.632	0.098	83.845
2150.644	0.099	83.8	0.994	-5.682	0.994	-5.682	0.099	83.8
2160.456	0.1	83.755	0.994	-5.731	0.994	-5.731	0.1	83.755
2170.268	0.101	83.71	0.994	-5.781	0.994	-5.781	0.101	83.71
2180.079	0.102	83.665	0.994	-5.83	0.994	-5.83	0.102	83.665
2189.891	0.102	83.62	0.994	-5.88	0.994	-5.88	0.102	83.62
2199.703	0.103	83.575	0.994	-5.929	0.994	-5.929	0.103	83.575
2209.514	0.104	83.53	0.994	-5.978	0.994	-5.978	0.104	83.53
2219.326	0.105	83.485	0.994	-6.027	0.994	-6.027	0.105	83.485
2229.138	0.106	83.44	0.993	-6.076	0.993	-6.076	0.106	83.44
2238.949	0.107	83.395	0.993	-6.124	0.993	-6.124	0.107	83.395
2248.761	0.108	83.351	0.993	-6.173	0.993	-6.173	0.108	83.351
2258.573	0.108	83.306	0.993	-6.221	0.993	-6.221	0.108	83.306
2268.385	0.109	83.261	0.993	-6.27	0.993	-6.27	0.109	83.261
2278.196	0.11	83.216	0.993	-6.318	0.993	-6.318	0.11	83.216
2288.008	0.111	83.172	0.993	-6.366	0.993	-6.366	0.111	83.172
2297.82	0.112	83.127	0.993	-6.415	0.993	-6.415	0.112	83.127
2307.631	0.113	83.083	0.993	-6.463	0.993	-6.463	0.113	83.083
2317.443	0.113	83.038	0.993	-6.51	0.993	-6.51	0.113	83.038
2327.255	0.114	82.994	0.993	-6.558	0.993	-6.558	0.114	82.994
2337.066	0.115	82.949	0.992	-6.606	0.992	-6.606	0.115	82.949
2346.878	0.116	82.905	0.992	-6.654	0.992	-6.654	0.116	82.905
2356.69	0.117	82.86	0.992	-6.701	0.992	-6.701	0.117	82.86
2366.501	0.118	82.816	0.992	-6.749	0.992	-6.749	0.118	82.816
2376.313	0.118	82.772	0.992	-6.796	0.992	-6.796	0.118	82.772
2386.125	0.119	82.727	0.992	-6.843	0.992	-6.843	0.119	82.727
2395.937	0.12	82.683	0.992	-6.89	0.992	-6.89	0.12	82.683
2405.748	0.121	82.639	0.992	-6.937	0.992	-6.937	0.121	82.639
2415.56	0.122	82.595	0.992	-6.984	0.992	-6.984	0.122	82.595
2425.372	0.122	82.551	0.992	-7.031	0.992	-7.031	0.122	82.551
2435.183	0.123	82.507	0.991	-7.078	0.991	-7.078	0.123	82.507
2444.995	0.124	82.463	0.991	-7.125	0.991	-7.125	0.124	82.463
2454.807	0.125	82.419	0.991	-7.172	0.991	-7.172	0.125	82.419
2464.618	0.126	82.375	0.991	-7.218	0.991	-7.218	0.126	82.375
2474.43	0.126	82.331	0.991	-7.265	0.991	-7.265	0.126	82.331
2484.242	0.127	82.287	0.991	-7.311	0.991	-7.311	0.127	82.287
2494.054	0.128	82.243	0.991	-7.357	0.991	-7.357	0.128	82.243
2503.865	0.129	82.2	0.991	-7.404	0.991	-7.404	0.129	82.2
2513.677	0.13	82.156	0.991	-7.45	0.991	-7.45	0.13	82.156
2523.489	0.13	82.112	0.991	-7.496	0.991	-7.496	0.13	82.112
2533.3	0.131	82.069	0.99	-7.542	0.99	-7.542	0.131	82.069
2543.112	0.132	82.025	0.99	-7.588	0.99	-7.588	0.132	82.025
2552.924	0.133	81.982	0.99	-7.634	0.99	-7.634	0.133	81.982
2562.735	0.134	81.938	0.99	-7.68	0.99	-7.68	0.134	81.938
2572.547	0.134	81.895	0.99	-7.725	0.99	-7.725	0.134	81.895
2582.359	0.135	81.851	0.99	-7.771	0.99	-7.771	0.135	81.851
2592.17	0.136	81.808	0.99	-7.817	0.99	-7.817	0.136	81.808
2601.982	0.137	81.765	0.99	-7.862	0.99	-7.862	0.137	81.765
2611.794	0.138	81.721	0.99	-7.908	0.99	-7.908	0.138	81.721
2621.606	0.138	81.678	0.989	-7.953	0.989	-7.953	0.138	81.678
2631.417	0.139	81.635	0.989	-7.998	0.989	-7.998	0.139	81.635
2641.229	0.14	81.592	0.989	-8.043	0.989	-8.043	0.14	81.592
2651.041	0.141	81.549	0.989	-8.089	0.989	-8.089	0.141	81.549
2660.852	0.141	81.506	0.989	-8.134	0.989	-8.134	0.141	81.506
2670.664	0.142	81.463	0.989	-8.179	0.989	-8.179	0.142	81.463
2680.476	0.143	81.42	0.989	-8.224	0.989	-8.224	0.143	81.42
2690.287	0.144	81.377	0.989	-8.269	0.989	-8.269	0.144	81.377
2700.099	0.145	81.334	0.989	-8.313	0.989	-8.313	0.145	81.334
2709.911	0.145	81.291	0.988	-8.358	0.988	-8.358	0.145	81.291
2719.722	0.146	81.248	0.988	-8.403	0.988	-8.403	0.146	81.248
2729.534	0.147	81.206	0.988	-8.447	0.988	-8.447	0.147	81.206
2739.346	0.148	81.163	0.988	-8.492	0.988	-8.492	0.148	81.163
2749.158	0.148	81.12	0.988	-8.537	0.988	-8.537	0.148	81.12
2758.969	0.149	81.078	0.988	-8.581	0.988	-8.581	0.149	81.078
2768.781	0.15	81.035	0.988	-8.625	0.988	-8.625	0.15	81.035
2778.593	0.151	80.992	0.988	-8.67	0.988	-8.67	0.151	80.992
2788.404	0.152	80.95	0.988	-8.714	0.988	-8.714	0.152	80.95
2798.216	0.152	80.907	0.987	-8.758	0.987	-8.758	0.152	80.907
2808.028	0.153	80.865	0.987	-8.802	0.987	-8.802	0.153	80.865
2817.839	0.154	80.823	0.987	-8.846	0.987	-8.846	0.154	80.823
2827.651	0.155	80.78	0.987	-8.89	0.987	-8.89	0.155	80.78
2837.463	0.155	80.738	0.987	-8.934	0.987	-8.934	0.155	80.738
2847.275	0.156	80.696	0.987	-8.978	0.987	-8.978	0.156	80.696
2857.086	0.157	80.653	0.987	-9.022	0.987	-9.022	0.157	80.653
2866.898	0.158	80.611	0.987	-9.066	0.987	-9.066	0.158	80.611
2876.71	0.158	80.569	0.986	-9.11	0.986	-9.11	0.158	80.569
2886.521	0.159	80.527	0.986	-9.153	0.986	-9.153	0.159	80.527
2896.333	0.16	80.485	0.986	-9.197	0.986	-9.197	0.16	80.485
2906.145	0.161	80.443	0.986	-9.241	0.986	-9.241	0.161	80.443
2915.956	0.161	80.401	0.986	-9.284	0.986	-9.284	0.161	80.401
2925.768	0.162	80.359	0.986	-9.328	0.986	-9.328	0.162	80.359
2935.58	0.163	80.317	0.986	-9.371	0.986	-9.371	0.163	80.317
2945.391	0.164	80.275	0.986	-9.414	0.986	-9.414	0.164	80.275
2955.203	0.164	80.233	0.986	-9.458	0.986	-9.458	0.164	80.233
2965.015	0.165	80.191	0.985	-9.501	0.985	-9.501	0.165	80.191
2974.827	0.166	80.149	0.985	-9.544	0.985	-9.544	0.166	80.149
2984.638	0.167	80.108	0.985	-9.587	0.985	-9.587	0.167	80.108
2994.45	0.167	80.066	0.985	-9.63	0.985	-9.63	0.167	80.066
3004.262	0.168	80.024	0.985	-9.673	0.985	-9.673	0.168	80.024
3014.073	0.169	79.983	0.985	-9.716	0.985	-9.716	0.169	79.983
3023.885	0.17	79.941	0.985	-9.759	0.985	-9.759	0.17	79.941
3033.697	0.17	79.899	0.985	-9.802	0.985	-9.802	0.17	79.899
3043.508	0.171	79.858	0.984	-9.845	0.984	-9.845	0.171	79.858
3053.32	0.172	79.816	0.984	-9.888	0.984	-9.888	0.172	79.816
3063.132	0.172	79.775	0.984	-9.931	0.984	-9.931	0.172	79.775
3072.944	0.173	79.734	0.984	-9.973	0.984	-9.973	0.173	79.734
3082.755	0.174	79.692	0.984	-10.016	0.984	-10.016	0.174	79.692
3092.567	0.175	79.651	0.984	-10.059	0.984	-10.059	0.175	79.651
3102.379	0.175	79.61	0.984	-10.101	0.984	-10.101	0.175	79.61
3112.19	0.176	79.568	0.983	-10.144	0.983	-10.144	0.176	79.568
3122.002	0.177	79.527	0.983	-10.186	0.983	-10.186	0.177	79.527
3131.814	0.178	79.486	0.983	-10.229	0.983	-10.229	0.178	79.486
3141.625	0.178	79.445	0.983	-10.271	0.983	-10.271	0.178	79.445
3151.437	0.179	79.403	0.983	-10.313	0.983	-10.313	0.179	79.403
3161.249	0.18	79.362	0.983	-10.356	0.983	-10.356	0.18	79.362
3171.06	0.18	79.321	0.983	-10.398	0.983	-10.398	0.18	79.321
3180.872	0.181	79.28	0.983	-10.44	0.983	-10.44	0.181	79.28
3190.684	0.182	79.239	0.982	-10.482	0.982	-10.482	0.182	79.239
3200.496	0.183	79.198	0.982	-10.524	0.982	-10.524	0.183	79.198
3210.307	0.183	79.157	0.982	-10.566	0.982	-10.566	0.183	79.157
3220.119	0.184	79.116	0.982	-10.608	0.982	-10.608	0.184	79.116
3229.931	0.185	79.076	0.982	-10.65	0.982	-10.65	0.185	79.076
3239.742	0.186	79.035	0.982	-10.692	0.982	-10.692	0.186	79.035
3249.554	0.186	78.994	0.982	-10.734	0.982	-10.734	0.186	78.994
3259.366	0.187	78.953	0.981	-10.776	0.981	-10.776	0.187	78.953
3269.177	0.188	78.912	0.981	-10.818	0.981	-10.818	0.188	78.912
3278.989	0.188	78.872	0.981	-10.86	0.981	-10.86	0.188	78.872
3288.801	0.189	78.831	0.981	-10.901	0.981	-10.901	0.189	78.831
