! AVX Thin Film Operation		Date: April 2012 
! Description: Accu-P® Series, Thin Film, SMD, RF Capacitor
! Part Number: 12101J180FBTTR					
!	100	MHz	-	10.05	GHz			
!	Serial	Measurements						
!								
#	MHZ	S	MA	R	50			
!	S11	S21	S12	S22				
!	dB	Phase	dB	Phase	dB	Phase	dB	Phase
100	0.659	-48.729	0.752	41.219	0.752	41.219	0.659	-48.729
109.812	0.623	-51.411	0.782	38.532	0.782	38.532	0.623	-51.411
119.623	0.589	-53.822	0.807	36.115	0.807	36.115	0.589	-53.822
129.435	0.558	-55.995	0.829	33.937	0.829	33.937	0.558	-55.995
139.247	0.529	-57.959	0.848	31.967	0.848	31.967	0.529	-57.959
149.058	0.503	-59.74	0.864	30.181	0.864	30.181	0.503	-59.74
158.87	0.478	-61.359	0.878	28.557	0.878	28.557	0.478	-61.359
168.682	0.455	-62.836	0.89	27.074	0.89	27.074	0.455	-62.836
178.494	0.434	-64.188	0.9	25.717	0.9	25.717	0.434	-64.188
188.305	0.414	-65.428	0.909	24.471	0.909	24.471	0.414	-65.428
198.117	0.396	-66.571	0.918	23.323	0.918	23.323	0.396	-66.571
207.929	0.379	-67.626	0.925	22.263	0.925	22.263	0.379	-67.626
217.74	0.363	-68.602	0.931	21.28	0.931	21.28	0.363	-68.602
227.552	0.348	-69.509	0.937	20.368	0.937	20.368	0.348	-69.509
237.364	0.334	-70.352	0.942	19.518	0.942	19.518	0.334	-70.352
247.175	0.321	-71.14	0.946	18.725	0.946	18.725	0.321	-71.14
256.987	0.309	-71.876	0.95	17.983	0.95	17.983	0.309	-71.876
266.799	0.297	-72.566	0.954	17.287	0.954	17.287	0.297	-72.566
276.611	0.286	-73.214	0.957	16.633	0.957	16.633	0.286	-73.214
286.422	0.276	-73.824	0.96	16.017	0.96	16.017	0.276	-73.824
296.234	0.266	-74.399	0.963	15.435	0.963	15.435	0.266	-74.399
306.046	0.257	-74.942	0.966	14.886	0.966	14.886	0.257	-74.942
315.857	0.248	-75.456	0.968	14.366	0.968	14.366	0.248	-75.456
325.669	0.24	-75.942	0.97	13.872	0.97	13.872	0.24	-75.942
335.481	0.232	-76.405	0.972	13.403	0.972	13.403	0.232	-76.405
345.292	0.224	-76.844	0.974	12.957	0.974	12.957	0.224	-76.844
355.104	0.217	-77.262	0.975	12.531	0.975	12.531	0.217	-77.262
364.916	0.21	-77.661	0.977	12.126	0.977	12.126	0.21	-77.661
374.727	0.203	-78.042	0.978	11.738	0.978	11.738	0.203	-78.042
384.539	0.197	-78.406	0.98	11.366	0.98	11.366	0.197	-78.406
394.351	0.191	-78.754	0.981	11.011	0.981	11.011	0.191	-78.754
404.163	0.185	-79.087	0.982	10.67	0.982	10.67	0.185	-79.087
413.974	0.18	-79.407	0.983	10.342	0.983	10.342	0.18	-79.407
423.786	0.174	-79.714	0.984	10.027	0.984	10.027	0.174	-79.714
433.598	0.169	-80.008	0.985	9.724	0.985	9.724	0.169	-80.008
443.409	0.164	-80.292	0.986	9.432	0.986	9.432	0.164	-80.292
453.221	0.159	-80.565	0.986	9.151	0.986	9.151	0.159	-80.565
463.033	0.154	-80.828	0.987	8.879	0.987	8.879	0.154	-80.828
472.844	0.15	-81.082	0.988	8.616	0.988	8.616	0.15	-81.082
482.656	0.145	-81.326	0.989	8.362	0.989	8.362	0.145	-81.326
492.468	0.141	-81.562	0.989	8.116	0.989	8.116	0.141	-81.562
502.279	0.137	-81.791	0.99	7.878	0.99	7.878	0.137	-81.791
512.091	0.133	-82.011	0.99	7.647	0.99	7.647	0.133	-82.011
521.903	0.129	-82.225	0.991	7.424	0.991	7.424	0.129	-82.225
531.715	0.125	-82.432	0.991	7.206	0.991	7.206	0.125	-82.432
541.526	0.122	-82.632	0.992	6.995	0.992	6.995	0.122	-82.632
551.338	0.118	-82.826	0.992	6.79	0.992	6.79	0.118	-82.826
561.15	0.115	-83.014	0.993	6.59	0.993	6.59	0.115	-83.014
570.961	0.111	-83.196	0.993	6.395	0.993	6.395	0.111	-83.196
580.773	0.108	-83.373	0.993	6.206	0.993	6.206	0.108	-83.373
590.585	0.105	-83.544	0.994	6.021	0.994	6.021	0.105	-83.544
600.396	0.102	-83.711	0.994	5.841	0.994	5.841	0.102	-83.711
610.208	0.099	-83.873	0.994	5.665	0.994	5.665	0.099	-83.873
620.02	0.096	-84.03	0.995	5.494	0.995	5.494	0.096	-84.03
629.832	0.093	-84.183	0.995	5.326	0.995	5.326	0.093	-84.183
639.643	0.09	-84.331	0.995	5.162	0.995	5.162	0.09	-84.331
649.455	0.087	-84.475	0.995	5.002	0.995	5.002	0.087	-84.475
659.267	0.084	-84.615	0.996	4.845	0.996	4.845	0.084	-84.615
669.078	0.082	-84.75	0.996	4.691	0.996	4.691	0.082	-84.75
678.89	0.079	-84.882	0.996	4.541	0.996	4.541	0.079	-84.882
688.702	0.077	-85.01	0.996	4.394	0.996	4.394	0.077	-85.01
698.513	0.074	-85.134	0.996	4.249	0.996	4.249	0.074	-85.134
708.325	0.072	-85.254	0.997	4.108	0.997	4.108	0.072	-85.254
718.137	0.069	-85.371	0.997	3.969	0.997	3.969	0.069	-85.371
727.948	0.067	-85.484	0.997	3.832	0.997	3.832	0.067	-85.484
737.76	0.065	-85.593	0.997	3.699	0.997	3.699	0.065	-85.593
747.572	0.062	-85.698	0.997	3.567	0.997	3.567	0.062	-85.698
757.384	0.06	-85.8	0.997	3.438	0.997	3.438	0.06	-85.8
767.195	0.058	-85.897	0.998	3.311	0.998	3.311	0.058	-85.897
777.007	0.056	-85.991	0.998	3.186	0.998	3.186	0.056	-85.991
786.819	0.053	-86.081	0.998	3.063	0.998	3.063	0.053	-86.081
796.63	0.051	-86.167	0.998	2.942	0.998	2.942	0.051	-86.167
806.442	0.049	-86.248	0.998	2.823	0.998	2.823	0.049	-86.248
816.254	0.047	-86.325	0.998	2.706	0.998	2.706	0.047	-86.325
826.065	0.045	-86.397	0.998	2.59	0.998	2.59	0.045	-86.397
835.877	0.043	-86.464	0.998	2.477	0.998	2.477	0.043	-86.464
845.689	0.041	-86.526	0.998	2.365	0.998	2.365	0.041	-86.526
855.5	0.039	-86.582	0.998	2.254	0.998	2.254	0.039	-86.582
865.312	0.037	-86.632	0.999	2.145	0.999	2.145	0.037	-86.632
875.124	0.036	-86.675	0.999	2.038	0.999	2.038	0.036	-86.675
884.936	0.034	-86.71	0.999	1.932	0.999	1.932	0.034	-86.71
894.747	0.032	-86.737	0.999	1.827	0.999	1.827	0.032	-86.737
904.559	0.03	-86.754	0.999	1.724	0.999	1.724	0.03	-86.754
914.371	0.028	-86.761	0.999	1.622	0.999	1.622	0.028	-86.761
924.182	0.027	-86.754	0.999	1.521	0.999	1.521	0.027	-86.754
933.994	0.025	-86.733	0.999	1.422	0.999	1.422	0.025	-86.733
943.806	0.023	-86.695	0.999	1.324	0.999	1.324	0.023	-86.695
953.617	0.021	-86.635	0.999	1.227	0.999	1.227	0.021	-86.635
963.429	0.02	-86.549	0.999	1.13	0.999	1.13	0.02	-86.549
973.241	0.018	-86.432	0.999	1.036	0.999	1.036	0.018	-86.432
983.053	0.016	-86.274	0.999	0.942	0.999	0.942	0.016	-86.274
992.864	0.015	-86.062	0.999	0.849	0.999	0.849	0.015	-86.062
1002.676	0.013	-85.78	0.999	0.757	0.999	0.757	0.013	-85.78
1012.488	0.012	-85.4	0.999	0.666	0.999	0.666	0.012	-85.4
1022.299	0.01	-84.878	0.999	0.576	0.999	0.576	0.01	-84.878
1032.111	8.54E-03	-84.14	0.999	0.487	0.999	0.487	8.54E-03	-84.14
1041.923	7.01E-03	-83.049	0.999	0.399	0.999	0.399	7.01E-03	-83.049
1051.734	5.50E-03	-81.324	0.999	0.312	0.999	0.312	5.50E-03	-81.324
1061.546	4.01E-03	-78.27	0.999	0.225	0.999	0.225	4.01E-03	-78.27
1071.358	2.56E-03	-71.669	0.999	0.139	0.999	0.139	2.56E-03	-71.669
1081.169	1.24E-03	-49.911	0.999	0.055	0.999	0.055	1.24E-03	-49.911
1090.981	9.52E-04	32.817	0.999	-0.03	0.999	-0.03	9.52E-04	32.817
1100.793	2.13E-03	67.807	0.999	-0.113	0.999	-0.113	2.13E-03	67.807
1110.605	3.51E-03	76.62	0.999	-0.196	0.999	-0.196	3.51E-03	76.62
1120.416	4.91E-03	80.347	0.999	-0.277	0.999	-0.277	4.91E-03	80.347
1130.228	6.31E-03	82.363	0.999	-0.359	0.999	-0.359	6.31E-03	82.363
1140.04	7.71E-03	83.606	0.999	-0.439	0.999	-0.439	7.71E-03	83.606
1149.851	9.10E-03	84.438	0.999	-0.519	0.999	-0.519	9.10E-03	84.438
1159.663	0.01	85.024	0.999	-0.598	0.999	-0.598	0.01	85.024
1169.475	0.012	85.452	0.999	-0.677	0.999	-0.677	0.012	85.452
1179.286	0.013	85.773	0.999	-0.755	0.999	-0.755	0.013	85.773
1189.098	0.015	86.018	0.999	-0.832	0.999	-0.832	0.015	86.018
1198.91	0.016	86.207	0.999	-0.909	0.999	-0.909	0.016	86.207
1208.722	0.017	86.353	0.999	-0.985	0.999	-0.985	0.017	86.353
1218.533	0.019	86.467	0.999	-1.061	0.999	-1.061	0.019	86.467
1228.345	0.02	86.555	0.999	-1.136	0.999	-1.136	0.02	86.555
1238.157	0.021	86.623	0.999	-1.211	0.999	-1.211	0.021	86.623
1247.968	0.022	86.674	0.999	-1.285	0.999	-1.285	0.022	86.674
1257.78	0.024	86.711	0.999	-1.359	0.999	-1.359	0.024	86.711
1267.592	0.025	86.736	0.999	-1.432	0.999	-1.432	0.025	86.736
1277.403	0.026	86.752	0.999	-1.504	0.999	-1.504	0.026	86.752
1287.215	0.028	86.76	0.999	-1.576	0.999	-1.576	0.028	86.76
1297.027	0.029	86.76	0.999	-1.648	0.999	-1.648	0.029	86.76
1306.838	0.03	86.755	0.999	-1.719	0.999	-1.719	0.03	86.755
1316.65	0.031	86.744	0.999	-1.79	0.999	-1.79	0.031	86.744
1326.462	0.032	86.73	0.999	-1.86	0.999	-1.86	0.032	86.73
1336.274	0.034	86.711	0.999	-1.93	0.999	-1.93	0.034	86.711
1346.085	0.035	86.688	0.999	-2	0.999	-2	0.035	86.688
1355.897	0.036	86.663	0.999	-2.069	0.999	-2.069	0.036	86.663
1365.709	0.037	86.635	0.999	-2.138	0.999	-2.138	0.037	86.635
1375.52	0.039	86.605	0.998	-2.206	0.998	-2.206	0.039	86.605
1385.332	0.04	86.573	0.998	-2.274	0.998	-2.274	0.04	86.573
1395.144	0.041	86.538	0.998	-2.342	0.998	-2.342	0.041	86.538
1404.955	0.042	86.502	0.998	-2.409	0.998	-2.409	0.042	86.502
1414.767	0.043	86.465	0.998	-2.476	0.998	-2.476	0.043	86.465
1424.579	0.044	86.426	0.998	-2.542	0.998	-2.542	0.044	86.426
1434.39	0.046	86.386	0.998	-2.608	0.998	-2.608	0.046	86.386
1444.202	0.047	86.345	0.998	-2.674	0.998	-2.674	0.047	86.345
1454.014	0.048	86.303	0.998	-2.74	0.998	-2.74	0.048	86.303
1463.826	0.049	86.26	0.998	-2.805	0.998	-2.805	0.049	86.26
1473.637	0.05	86.216	0.998	-2.87	0.998	-2.87	0.05	86.216
1483.449	0.051	86.172	0.998	-2.934	0.998	-2.934	0.051	86.172
1493.261	0.052	86.127	0.998	-2.999	0.998	-2.999	0.052	86.127
1503.072	0.053	86.081	0.998	-3.063	0.998	-3.063	0.053	86.081
1512.884	0.055	86.035	0.998	-3.126	0.998	-3.126	0.055	86.035
1522.696	0.056	85.988	0.998	-3.19	0.998	-3.19	0.056	85.988
1532.507	0.057	85.941	0.998	-3.253	0.998	-3.253	0.057	85.941
1542.319	0.058	85.894	0.998	-3.315	0.998	-3.315	0.058	85.894
1552.131	0.059	85.846	0.997	-3.378	0.997	-3.378	0.059	85.846
1561.943	0.06	85.798	0.997	-3.44	0.997	-3.44	0.06	85.798
1571.754	0.061	85.749	0.997	-3.502	0.997	-3.502	0.061	85.749
1581.566	0.062	85.701	0.997	-3.564	0.997	-3.564	0.062	85.701
1591.378	0.063	85.652	0.997	-3.625	0.997	-3.625	0.063	85.652
1601.189	0.064	85.602	0.997	-3.687	0.997	-3.687	0.064	85.602
1611.001	0.065	85.553	0.997	-3.748	0.997	-3.748	0.065	85.553
1620.813	0.066	85.503	0.997	-3.808	0.997	-3.808	0.066	85.503
1630.624	0.067	85.454	0.997	-3.869	0.997	-3.869	0.067	85.454
1640.436	0.069	85.404	0.997	-3.929	0.997	-3.929	0.069	85.404
1650.248	0.07	85.354	0.997	-3.989	0.997	-3.989	0.07	85.354
1660.059	0.071	85.304	0.997	-4.049	0.997	-4.049	0.071	85.304
1669.871	0.072	85.254	0.997	-4.109	0.997	-4.109	0.072	85.254
1679.683	0.073	85.203	0.997	-4.168	0.997	-4.168	0.073	85.203
1689.495	0.074	85.153	0.996	-4.227	0.996	-4.227	0.074	85.153
1699.306	0.075	85.103	0.996	-4.286	0.996	-4.286	0.075	85.103
1709.118	0.076	85.052	0.996	-4.345	0.996	-4.345	0.076	85.052
1718.93	0.077	85.002	0.996	-4.404	0.996	-4.404	0.077	85.002
1728.741	0.078	84.951	0.996	-4.462	0.996	-4.462	0.078	84.951
1738.553	0.079	84.9	0.996	-4.52	0.996	-4.52	0.079	84.9
1748.365	0.08	84.85	0.996	-4.578	0.996	-4.578	0.08	84.85
1758.176	0.081	84.799	0.996	-4.636	0.996	-4.636	0.081	84.799
1767.988	0.082	84.749	0.996	-4.693	0.996	-4.693	0.082	84.749
1777.8	0.083	84.698	0.996	-4.751	0.996	-4.751	0.083	84.698
1787.611	0.084	84.647	0.996	-4.808	0.996	-4.808	0.084	84.647
1797.423	0.085	84.597	0.996	-4.865	0.996	-4.865	0.085	84.597
1807.235	0.086	84.546	0.996	-4.922	0.996	-4.922	0.086	84.546
1817.047	0.087	84.496	0.995	-4.979	0.995	-4.979	0.087	84.496
1826.858	0.088	84.445	0.995	-5.035	0.995	-5.035	0.088	84.445
1836.67	0.089	84.394	0.995	-5.091	0.995	-5.091	0.089	84.394
1846.482	0.09	84.344	0.995	-5.148	0.995	-5.148	0.09	84.344
1856.293	0.091	84.293	0.995	-5.204	0.995	-5.204	0.091	84.293
1866.105	0.092	84.243	0.995	-5.26	0.995	-5.26	0.092	84.243
1875.917	0.093	84.192	0.995	-5.315	0.995	-5.315	0.093	84.192
1885.728	0.094	84.142	0.995	-5.371	0.995	-5.371	0.094	84.142
1895.54	0.095	84.092	0.995	-5.426	0.995	-5.426	0.095	84.092
1905.352	0.096	84.041	0.995	-5.481	0.995	-5.481	0.096	84.041
1915.164	0.096	83.991	0.995	-5.537	0.995	-5.537	0.096	83.991
1924.975	0.097	83.941	0.994	-5.592	0.994	-5.592	0.097	83.941
1934.787	0.098	83.89	0.994	-5.646	0.994	-5.646	0.098	83.89
1944.599	0.099	83.84	0.994	-5.701	0.994	-5.701	0.099	83.84
1954.41	0.1	83.79	0.994	-5.755	0.994	-5.755	0.1	83.79
1964.222	0.101	83.74	0.994	-5.81	0.994	-5.81	0.101	83.74
1974.034	0.102	83.69	0.994	-5.864	0.994	-5.864	0.102	83.69
1983.845	0.103	83.64	0.994	-5.918	0.994	-5.918	0.103	83.64
1993.657	0.104	83.59	0.994	-5.972	0.994	-5.972	0.104	83.59
2003.469	0.105	83.54	0.994	-6.026	0.994	-6.026	0.105	83.54
2013.28	0.106	83.49	0.994	-6.08	0.994	-6.08	0.106	83.49
2023.092	0.107	83.44	0.993	-6.133	0.993	-6.133	0.107	83.44
2032.904	0.108	83.391	0.993	-6.187	0.993	-6.187	0.108	83.391
2042.716	0.109	83.341	0.993	-6.24	0.993	-6.24	0.109	83.341
2052.527	0.11	83.291	0.993	-6.293	0.993	-6.293	0.11	83.291
2062.339	0.111	83.242	0.993	-6.346	0.993	-6.346	0.111	83.242
2072.151	0.111	83.192	0.993	-6.399	0.993	-6.399	0.111	83.192
2081.962	0.112	83.143	0.993	-6.452	0.993	-6.452	0.112	83.143
2091.774	0.113	83.093	0.993	-6.505	0.993	-6.505	0.113	83.093
2101.586	0.114	83.044	0.993	-6.557	0.993	-6.557	0.114	83.044
2111.397	0.115	82.995	0.993	-6.61	0.993	-6.61	0.115	82.995
2121.209	0.116	82.946	0.992	-6.662	0.992	-6.662	0.116	82.946
2131.021	0.117	82.896	0.992	-6.715	0.992	-6.715	0.117	82.896
2140.833	0.118	82.847	0.992	-6.767	0.992	-6.767	0.118	82.847
2150.644	0.119	82.798	0.992	-6.819	0.992	-6.819	0.119	82.798
2160.456	0.12	82.749	0.992	-6.871	0.992	-6.871	0.12	82.749
2170.268	0.121	82.7	0.992	-6.923	0.992	-6.923	0.121	82.7
2180.079	0.121	82.651	0.992	-6.974	0.992	-6.974	0.121	82.651
2189.891	0.122	82.602	0.992	-7.026	0.992	-7.026	0.122	82.602
2199.703	0.123	82.554	0.992	-7.077	0.992	-7.077	0.123	82.554
2209.514	0.124	82.505	0.991	-7.129	0.991	-7.129	0.124	82.505
2219.326	0.125	82.456	0.991	-7.18	0.991	-7.18	0.125	82.456
2229.138	0.126	82.408	0.991	-7.231	0.991	-7.231	0.126	82.408
2238.949	0.127	82.359	0.991	-7.282	0.991	-7.282	0.127	82.359
2248.761	0.128	82.311	0.991	-7.333	0.991	-7.333	0.128	82.311
2258.573	0.129	82.262	0.991	-7.384	0.991	-7.384	0.129	82.262
2268.385	0.129	82.214	0.991	-7.435	0.991	-7.435	0.129	82.214
2278.196	0.13	82.165	0.991	-7.486	0.991	-7.486	0.13	82.165
2288.008	0.131	82.117	0.991	-7.537	0.991	-7.537	0.131	82.117
2297.82	0.132	82.069	0.99	-7.587	0.99	-7.587	0.132	82.069
2307.631	0.133	82.021	0.99	-7.638	0.99	-7.638	0.133	82.021
2317.443	0.134	81.973	0.99	-7.688	0.99	-7.688	0.134	81.973
2327.255	0.135	81.925	0.99	-7.738	0.99	-7.738	0.135	81.925
2337.066	0.136	81.877	0.99	-7.788	0.99	-7.788	0.136	81.877
2346.878	0.136	81.829	0.99	-7.839	0.99	-7.839	0.136	81.829
2356.69	0.137	81.781	0.99	-7.889	0.99	-7.889	0.137	81.781
2366.501	0.138	81.733	0.99	-7.939	0.99	-7.939	0.138	81.733
2376.313	0.139	81.685	0.99	-7.988	0.99	-7.988	0.139	81.685
2386.125	0.14	81.637	0.989	-8.038	0.989	-8.038	0.14	81.637
2395.937	0.141	81.59	0.989	-8.088	0.989	-8.088	0.141	81.59
2405.748	0.142	81.542	0.989	-8.137	0.989	-8.137	0.142	81.542
2415.56	0.142	81.495	0.989	-8.187	0.989	-8.187	0.142	81.495
2425.372	0.143	81.447	0.989	-8.236	0.989	-8.236	0.143	81.447
2435.183	0.144	81.4	0.989	-8.286	0.989	-8.286	0.144	81.4
2444.995	0.145	81.352	0.989	-8.335	0.989	-8.335	0.145	81.352
2454.807	0.146	81.305	0.989	-8.384	0.989	-8.384	0.146	81.305
2464.618	0.147	81.258	0.988	-8.433	0.988	-8.433	0.147	81.258
2474.43	0.148	81.21	0.988	-8.482	0.988	-8.482	0.148	81.21
2484.242	0.148	81.163	0.988	-8.531	0.988	-8.531	0.148	81.163
2494.054	0.149	81.116	0.988	-8.58	0.988	-8.58	0.149	81.116
2503.865	0.15	81.069	0.988	-8.629	0.988	-8.629	0.15	81.069
2513.677	0.151	81.022	0.988	-8.678	0.988	-8.678	0.151	81.022
2523.489	0.152	80.975	0.988	-8.727	0.988	-8.727	0.152	80.975
2533.3	0.153	80.928	0.988	-8.775	0.988	-8.775	0.153	80.928
2543.112	0.153	80.881	0.987	-8.824	0.987	-8.824	0.153	80.881
2552.924	0.154	80.834	0.987	-8.872	0.987	-8.872	0.154	80.834
2562.735	0.155	80.788	0.987	-8.921	0.987	-8.921	0.155	80.788
2572.547	0.156	80.741	0.987	-8.969	0.987	-8.969	0.156	80.741
2582.359	0.157	80.694	0.987	-9.017	0.987	-9.017	0.157	80.694
2592.17	0.158	80.647	0.987	-9.065	0.987	-9.065	0.158	80.647
2601.982	0.158	80.601	0.987	-9.114	0.987	-9.114	0.158	80.601
2611.794	0.159	80.554	0.986	-9.162	0.986	-9.162	0.159	80.554
2621.606	0.16	80.508	0.986	-9.21	0.986	-9.21	0.16	80.508
2631.417	0.161	80.461	0.986	-9.257	0.986	-9.257	0.161	80.461
2641.229	0.162	80.415	0.986	-9.305	0.986	-9.305	0.162	80.415
2651.041	0.163	80.369	0.986	-9.353	0.986	-9.353	0.163	80.369
2660.852	0.163	80.322	0.986	-9.401	0.986	-9.401	0.163	80.322
2670.664	0.164	80.276	0.986	-9.449	0.986	-9.449	0.164	80.276
2680.476	0.165	80.23	0.986	-9.496	0.986	-9.496	0.165	80.23
2690.287	0.166	80.184	0.985	-9.544	0.985	-9.544	0.166	80.184
2700.099	0.167	80.138	0.985	-9.591	0.985	-9.591	0.167	80.138
2709.911	0.167	80.092	0.985	-9.639	0.985	-9.639	0.167	80.092
2719.722	0.168	80.046	0.985	-9.686	0.985	-9.686	0.168	80.046
2729.534	0.169	80	0.985	-9.733	0.985	-9.733	0.169	80
2739.346	0.17	79.954	0.985	-9.781	0.985	-9.781	0.17	79.954
2749.158	0.171	79.908	0.985	-9.828	0.985	-9.828	0.171	79.908
2758.969	0.171	79.862	0.984	-9.875	0.984	-9.875	0.171	79.862
2768.781	0.172	79.816	0.984	-9.922	0.984	-9.922	0.172	79.816
2778.593	0.173	79.77	0.984	-9.969	0.984	-9.969	0.173	79.77
2788.404	0.174	79.725	0.984	-10.016	0.984	-10.016	0.174	79.725
2798.216	0.175	79.679	0.984	-10.063	0.984	-10.063	0.175	79.679
2808.028	0.176	79.634	0.984	-10.11	0.984	-10.11	0.176	79.634
2817.839	0.176	79.588	0.984	-10.156	0.984	-10.156	0.176	79.588
2827.651	0.177	79.542	0.983	-10.203	0.983	-10.203	0.177	79.542
2837.463	0.178	79.497	0.983	-10.25	0.983	-10.25	0.178	79.497
2847.275	0.179	79.451	0.983	-10.296	0.983	-10.296	0.179	79.451
2857.086	0.18	79.406	0.983	-10.343	0.983	-10.343	0.18	79.406
2866.898	0.18	79.361	0.983	-10.389	0.983	-10.389	0.18	79.361
2876.71	0.181	79.315	0.983	-10.436	0.983	-10.436	0.181	79.315
2886.521	0.182	79.27	0.983	-10.482	0.983	-10.482	0.182	79.27
2896.333	0.183	79.225	0.982	-10.529	0.982	-10.529	0.183	79.225
2906.145	0.184	79.18	0.982	-10.575	0.982	-10.575	0.184	79.18
2915.956	0.184	79.135	0.982	-10.621	0.982	-10.621	0.184	79.135
2925.768	0.185	79.09	0.982	-10.667	0.982	-10.667	0.185	79.09
2935.58	0.186	79.044	0.982	-10.713	0.982	-10.713	0.186	79.044
2945.391	0.187	78.999	0.982	-10.759	0.982	-10.759	0.187	78.999
2955.203	0.187	78.954	0.981	-10.806	0.981	-10.806	0.187	78.954
2965.015	0.188	78.91	0.981	-10.851	0.981	-10.851	0.188	78.91
2974.827	0.189	78.865	0.981	-10.897	0.981	-10.897	0.189	78.865
2984.638	0.19	78.82	0.981	-10.943	0.981	-10.943	0.19	78.82
2994.45	0.191	78.775	0.981	-10.989	0.981	-10.989	0.191	78.775
3004.262	0.191	78.73	0.981	-11.035	0.981	-11.035	0.191	78.73
3014.073	0.192	78.685	0.981	-11.081	0.981	-11.081	0.192	78.685
3023.885	0.193	78.641	0.98	-11.126	0.98	-11.126	0.193	78.641
3033.697	0.194	78.596	0.98	-11.172	0.98	-11.172	0.194	78.596
3043.508	0.195	78.551	0.98	-11.218	0.98	-11.218	0.195	78.551
3053.32	0.195	78.507	0.98	-11.263	0.98	-11.263	0.195	78.507
3063.132	0.196	78.462	0.98	-11.309	0.98	-11.309	0.196	78.462
3072.944	0.197	78.418	0.98	-11.354	0.98	-11.354	0.197	78.418
3082.755	0.198	78.373	0.979	-11.399	0.979	-11.399	0.198	78.373
3092.567	0.198	78.329	0.979	-11.445	0.979	-11.445	0.198	78.329
3102.379	0.199	78.285	0.979	-11.49	0.979	-11.49	0.199	78.285
3112.19	0.2	78.24	0.979	-11.535	0.979	-11.535	0.2	78.24
3122.002	0.201	78.196	0.979	-11.581	0.979	-11.581	0.201	78.196
3131.814	0.202	78.152	0.979	-11.626	0.979	-11.626	0.202	78.152
3141.625	0.202	78.107	0.979	-11.671	0.979	-11.671	0.202	78.107
3151.437	0.203	78.063	0.978	-11.716	0.978	-11.716	0.203	78.063
3161.249	0.204	78.019	0.978	-11.761	0.978	-11.761	0.204	78.019
3171.06	0.205	77.975	0.978	-11.806	0.978	-11.806	0.205	77.975
3180.872	0.205	77.931	0.978	-11.851	0.978	-11.851	0.205	77.931
3190.684	0.206	77.887	0.978	-11.896	0.978	-11.896	0.206	77.887
3200.496	0.207	77.843	0.978	-11.941	0.978	-11.941	0.207	77.843
3210.307	0.208	77.799	0.977	-11.986	0.977	-11.986	0.208	77.799
3220.119	0.208	77.755	0.977	-12.03	0.977	-12.03	0.208	77.755
3229.931	0.209	77.711	0.977	-12.075	0.977	-12.075	0.209	77.711
3239.742	0.21	77.667	0.977	-12.12	0.977	-12.12	0.21	77.667
3249.554	0.211	77.623	0.977	-12.164	0.977	-12.164	0.211	77.623
3259.366	0.211	77.579	0.977	-12.209	0.977	-12.209	0.211	77.579
3269.177	0.212	77.536	0.976	-12.254	0.976	-12.254	0.212	77.536
3278.989	0.213	77.492	0.976	-12.298	0.976	-12.298	0.213	77.492
