! AVX Thin Film Operation		Date: April 2012 
! Description: Accu-P® Series, Thin Film, SMD, RF Capacitor
! Part Number: 12101J1R6PBTTR					
!	100	MHz	-	20.05	GHz			
!	Serial	Measurements						
!								
#	MHZ	S	MA	R	50			
!	S11	S21	S12	S22				
!	dB	Phase	dB	Phase	dB	Phase	dB	Phase
50 0.999 -2.878 0.05 87.052 0.05 87.052 0.999 -2.878
100 0.995 -5.744 0.1 84.174 0.1 84.174 0.995 -5.744
150 0.989 -8.586 0.149 81.319 0.149 81.319 0.989 -8.586
200 0.98 -11.394 0.198 78.499 0.198 78.499 0.98 -11.394
250 0.969 -14.158 0.245 75.722 0.245 75.722 0.969 -14.158
300 0.956 -16.868 0.29 72.999 0.29 72.999 0.956 -16.868
350 0.942 -19.518 0.334 70.337 0.334 70.337 0.942 -19.518
400 0.925 -22.099 0.376 67.742 0.376 67.742 0.925 -22.099
450 0.908 -24.608 0.416 65.22 0.416 65.22 0.908 -24.608
500 0.889 -27.04 0.455 62.774 0.455 62.774 0.889 -27.04
550 0.87 -29.393 0.491 60.408 0.491 60.408 0.87 -29.393
600 0.849 -31.664 0.525 58.123 0.525 58.123 0.849 -31.664
650 0.828 -33.854 0.557 55.92 0.557 55.92 0.828 -33.854
700 0.807 -35.961 0.587 53.799 0.587 53.799 0.807 -35.961
750 0.785 -37.987 0.615 51.758 0.615 51.758 0.785 -37.987
800 0.764 -39.934 0.642 49.796 0.642 49.796 0.764 -39.934
850 0.742 -41.803 0.667 47.912 0.667 47.912 0.742 -41.803
900 0.721 -43.597 0.69 46.103 0.69 46.103 0.721 -43.597
950 0.699 -45.318 0.711 44.367 0.711 44.367 0.699 -45.318
1000 0.678 -46.969 0.731 42.7 0.731 42.7 0.678 -46.969
1050 0.657 -48.552 0.75 41.101 0.75 41.101 0.657 -48.552
1100 0.637 -50.071 0.767 39.565 0.767 39.565 0.637 -50.071
1150 0.617 -51.528 0.783 38.091 0.783 38.091 0.617 -51.528
1200 0.597 -52.927 0.798 36.674 0.798 36.674 0.597 -52.927
1250 0.578 -54.271 0.812 35.313 0.812 35.313 0.578 -54.271
1300 0.559 -55.561 0.825 34.004 0.825 34.004 0.559 -55.561
1350 0.541 -56.801 0.837 32.745 0.837 32.745 0.541 -56.801
1400 0.523 -57.993 0.848 31.534 0.848 31.534 0.523 -57.993
1450 0.506 -59.139 0.858 30.366 0.858 30.366 0.506 -59.139
1500 0.489 -60.243 0.868 29.242 0.868 29.242 0.489 -60.243
1550 0.472 -61.306 0.877 28.157 0.877 28.157 0.472 -61.306
1600 0.456 -62.33 0.886 27.11 0.886 27.11 0.456 -62.33
1650 0.44 -63.317 0.894 26.099 0.894 26.099 0.44 -63.317
1700 0.425 -64.27 0.901 25.123 0.901 25.123 0.425 -64.27
1750 0.41 -65.189 0.908 24.178 0.908 24.178 0.41 -65.189
1800 0.395 -66.077 0.914 23.264 0.914 23.264 0.395 -66.077
1850 0.381 -66.935 0.92 22.378 0.92 22.378 0.381 -66.935
1900 0.367 -67.764 0.926 21.52 0.926 21.52 0.367 -67.764
1950 0.353 -68.566 0.931 20.688 0.931 20.688 0.353 -68.566
2000 0.34 -69.342 0.936 19.88 0.936 19.88 0.34 -69.342
2050 0.327 -70.094 0.94 19.096 0.94 19.096 0.327 -70.094
2100 0.315 -70.821 0.945 18.334 0.945 18.334 0.315 -70.821
2150 0.302 -71.525 0.949 17.593 0.949 17.593 0.302 -71.525
2200 0.29 -72.207 0.952 16.872 0.952 16.872 0.29 -72.207
2250 0.279 -72.868 0.956 16.17 0.956 16.17 0.279 -72.868
2300 0.267 -73.509 0.959 15.486 0.959 15.486 0.267 -73.509
2350 0.256 -74.129 0.962 14.82 0.962 14.82 0.256 -74.129
2400 0.245 -74.73 0.965 14.17 0.965 14.17 0.245 -74.73
2450 0.234 -75.312 0.968 13.535 0.968 13.535 0.234 -75.312
2500 0.224 -75.876 0.97 12.915 0.97 12.915 0.224 -75.876
2550 0.213 -76.421 0.972 12.31 0.972 12.31 0.213 -76.421
2600 0.203 -76.948 0.974 11.718 0.974 11.718 0.203 -76.948
2650 0.193 -77.457 0.976 11.139 0.976 11.139 0.193 -77.457
2700 0.184 -77.947 0.978 10.573 0.978 10.573 0.184 -77.947
2750 0.174 -78.419 0.98 10.018 0.98 10.018 0.174 -78.419
2800 0.165 -78.872 0.982 9.475 0.982 9.475 0.165 -78.872
2850 0.156 -79.305 0.983 8.943 0.983 8.943 0.156 -79.305
2900 0.147 -79.718 0.984 8.421 0.984 8.421 0.147 -79.718
2950 0.138 -80.109 0.986 7.909 0.986 7.909 0.138 -80.109
3000 0.129 -80.476 0.987 7.407 0.987 7.407 0.129 -80.476
3050 0.12 -80.817 0.988 6.913 0.988 6.913 0.12 -80.817
3100 0.112 -81.13 0.989 6.429 0.989 6.429 0.112 -81.13
3150 0.104 -81.411 0.99 5.953 0.99 5.953 0.104 -81.411
3200 0.096 -81.653 0.991 5.486 0.991 5.486 0.096 -81.653
3250 0.088 -81.851 0.991 5.026 0.991 5.026 0.088 -81.851
3300 0.08 -81.995 0.992 4.574 0.992 4.574 0.08 -81.995
3350 0.072 -82.07 0.993 4.129 0.993 4.129 0.072 -82.07
3400 0.065 -82.058 0.993 3.691 0.993 3.691 0.065 -82.058
3450 0.057 -81.929 0.994 3.26 0.994 3.26 0.057 -81.929
3500 0.05 -81.637 0.994 2.835 0.994 2.835 0.05 -81.637
3550 0.042 -81.105 0.994 2.417 0.994 2.417 0.042 -81.105
3600 0.035 -80.2 0.995 2.005 0.995 2.005 0.035 -80.2
3650 0.028 -78.658 0.995 1.598 0.995 1.598 0.028 -78.658
3700 0.021 -75.893 0.995 1.197 0.995 1.197 0.021 -75.893
3750 0.015 -70.309 0.995 0.802 0.995 0.802 0.015 -70.309
3800 8.644e-3 -55.932 0.995 0.412 0.995 0.412 8.644e-3 -55.932
3850 4.814e-3 -5.68 0.995 0.027 0.995 0.027 4.814e-3 -5.68
3900 7.796e-3 51.734 0.995 -0.352 0.995 -0.352 7.796e-3 51.734
3950 0.014 68.601 0.995 -0.727 0.995 -0.727 0.014 68.601
4000 0.02 74.865 0.995 -1.098 0.995 -1.098 0.02 74.865
4050 0.026 77.916 0.995 -1.464 0.995 -1.464 0.026 77.916
4100 0.032 79.623 0.995 -1.825 0.995 -1.825 0.032 79.623
4150 0.038 80.65 0.994 -2.182 0.994 -2.182 0.038 80.65
4200 0.044 81.288 0.994 -2.535 0.994 -2.535 0.044 81.288
4250 0.051 81.682 0.994 -2.885 0.994 -2.885 0.051 81.682
4300 0.057 81.915 0.994 -3.23 0.994 -3.23 0.057 81.915
4350 0.062 82.036 0.993 -3.571 0.993 -3.571 0.062 82.036
4400 0.068 82.077 0.993 -3.909 0.993 -3.909 0.068 82.077
4450 0.074 82.058 0.992 -4.243 0.992 -4.243 0.074 82.058
4500 0.08 81.995 0.992 -4.574 0.992 -4.574 0.08 81.995
4550 0.086 81.897 0.992 -4.901 0.992 -4.901 0.086 81.897
4600 0.091 81.771 0.991 -5.225 0.991 -5.225 0.091 81.771
4650 0.097 81.624 0.991 -5.545 0.991 -5.545 0.097 81.624
4700 0.102 81.46 0.99 -5.863 0.99 -5.863 0.102 81.46
4750 0.108 81.282 0.989 -6.177 0.989 -6.177 0.108 81.282
4800 0.113 81.093 0.989 -6.489 0.989 -6.489 0.113 81.093
4850 0.118 80.894 0.988 -6.798 0.988 -6.798 0.118 80.894
4900 0.124 80.688 0.988 -7.103 0.988 -7.103 0.124 80.688
4950 0.129 80.476 0.987 -7.406 0.987 -7.406 0.129 80.476
5000 0.134 80.259 0.986 -7.707 0.986 -7.707 0.134 80.259
5050 0.139 80.037 0.985 -8.004 0.985 -8.004 0.139 80.037
5100 0.144 79.812 0.985 -8.299 0.985 -8.299 0.144 79.812
5150 0.149 79.584 0.984 -8.592 0.984 -8.592 0.149 79.584
5200 0.154 79.354 0.983 -8.882 0.983 -8.882 0.154 79.354
5250 0.159 79.122 0.982 -9.169 0.982 -9.169 0.159 79.122
5300 0.164 78.889 0.982 -9.454 0.982 -9.454 0.164 78.889
5350 0.169 78.654 0.981 -9.737 0.981 -9.737 0.169 78.654
5400 0.174 78.419 0.98 -10.018 0.98 -10.018 0.174 78.419
5450 0.179 78.183 0.979 -10.296 0.979 -10.296 0.179 78.183
5500 0.184 77.947 0.978 -10.572 0.978 -10.572 0.184 77.947
5550 0.188 77.711 0.977 -10.847 0.977 -10.847 0.188 77.711
5600 0.193 77.475 0.976 -11.118 0.976 -11.118 0.193 77.475
5650 0.198 77.238 0.976 -11.388 0.976 -11.388 0.198 77.238
5700 0.202 77.002 0.975 -11.656 0.975 -11.656 0.202 77.002
5750 0.207 76.767 0.974 -11.922 0.974 -11.922 0.207 76.767
5800 0.211 76.532 0.973 -12.186 0.973 -12.186 0.211 76.532
5850 0.216 76.297 0.972 -12.448 0.972 -12.448 0.216 76.297
5900 0.22 76.063 0.971 -12.708 0.971 -12.708 0.22 76.063
5950 0.224 75.829 0.97 -12.967 0.97 -12.967 0.224 75.829
6000 0.229 75.597 0.969 -13.223 0.969 -13.223 0.229 75.597
6050 0.233 75.364 0.968 -13.478 0.968 -13.478 0.233 75.364
6100 0.237 75.133 0.967 -13.731 0.967 -13.731 0.237 75.133
6150 0.242 74.903 0.966 -13.982 0.966 -13.982 0.242 74.903
6200 0.246 74.673 0.965 -14.232 0.965 -14.232 0.246 74.673
6250 0.25 74.444 0.964 -14.479 0.964 -14.479 0.25 74.444
6300 0.254 74.216 0.962 -14.726 0.962 -14.726 0.254 74.216
6350 0.258 73.989 0.961 -14.97 0.961 -14.97 0.258 73.989
6400 0.262 73.763 0.96 -15.213 0.96 -15.213 0.262 73.763
6450 0.267 73.538 0.959 -15.455 0.959 -15.455 0.267 73.538
6500 0.271 73.314 0.958 -15.695 0.958 -15.695 0.271 73.314
6550 0.275 73.091 0.957 -15.933 0.957 -15.933 0.275 73.091
6600 0.279 72.868 0.956 -16.17 0.956 -16.17 0.279 72.868
6650 0.282 72.647 0.955 -16.405 0.955 -16.405 0.282 72.647
6700 0.286 72.427 0.953 -16.639 0.953 -16.639 0.286 72.427
6750 0.29 72.208 0.952 -16.872 0.952 -16.872 0.29 72.208
6800 0.294 71.989 0.951 -17.103 0.951 -17.103 0.294 71.989
6850 0.298 71.772 0.95 -17.333 0.95 -17.333 0.298 71.772
6900 0.302 71.555 0.949 -17.561 0.949 -17.561 0.302 71.555
6950 0.306 71.34 0.948 -17.788 0.948 -17.788 0.306 71.34
7000 0.309 71.126 0.946 -18.014 0.946 -18.014 0.309 71.126
7050 0.313 70.912 0.945 -18.238 0.945 -18.238 0.313 70.912
7100 0.317 70.7 0.944 -18.461 0.944 -18.461 0.317 70.7
7150 0.32 70.488 0.943 -18.683 0.943 -18.683 0.32 70.488
7200 0.324 70.278 0.941 -18.903 0.941 -18.903 0.324 70.278
7250 0.328 70.068 0.94 -19.123 0.94 -19.123 0.328 70.068
7300 0.331 69.86 0.939 -19.341 0.939 -19.341 0.331 69.86
7350 0.335 69.652 0.938 -19.557 0.938 -19.557 0.335 69.652
7400 0.338 69.446 0.936 -19.773 0.936 -19.773 0.338 69.446
7450 0.342 69.24 0.935 -19.987 0.935 -19.987 0.342 69.24
7500 0.345 69.035 0.934 -20.2 0.934 -20.2 0.345 69.035
7550 0.349 68.832 0.933 -20.412 0.933 -20.412 0.349 68.832
7600 0.352 68.629 0.931 -20.623 0.931 -20.623 0.352 68.629
7650 0.356 68.427 0.93 -20.833 0.93 -20.833 0.356 68.427
7700 0.359 68.226 0.929 -21.041 0.929 -21.041 0.359 68.226
7750 0.362 68.026 0.927 -21.249 0.927 -21.249 0.362 68.026
7800 0.366 67.827 0.926 -21.455 0.926 -21.455 0.366 67.827
7850 0.369 67.629 0.925 -21.66 0.925 -21.66 0.369 67.629
7900 0.372 67.432 0.923 -21.864 0.923 -21.864 0.372 67.432
7950 0.376 67.236 0.922 -22.067 0.922 -22.067 0.376 67.236
8000 0.379 67.041 0.921 -22.269 0.921 -22.269 0.379 67.041
8050 0.382 66.846 0.92 -22.47 0.92 -22.47 0.382 66.846
8100 0.385 66.653 0.918 -22.67 0.918 -22.67 0.385 66.653
8150 0.389 66.46 0.917 -22.869 0.917 -22.869 0.389 66.46
8200 0.392 66.268 0.916 -23.066 0.916 -23.066 0.392 66.268
8250 0.395 66.078 0.914 -23.263 0.914 -23.263 0.395 66.078
8300 0.398 65.888 0.913 -23.459 0.913 -23.459 0.398 65.888
8350 0.401 65.699 0.911 -23.654 0.911 -23.654 0.401 65.699
8400 0.404 65.51 0.91 -23.848 0.91 -23.848 0.404 65.51
8450 0.407 65.323 0.909 -24.04 0.909 -24.04 0.407 65.323
8500 0.41 65.137 0.907 -24.232 0.907 -24.232 0.41 65.137
8550 0.413 64.951 0.906 -24.423 0.906 -24.423 0.413 64.951
8600 0.417 64.766 0.905 -24.613 0.905 -24.613 0.417 64.766
8650 0.42 64.582 0.903 -24.802 0.903 -24.802 0.42 64.582
8700 0.422 64.399 0.902 -24.99 0.902 -24.99 0.422 64.399
8750 0.425 64.217 0.9 -25.177 0.9 -25.177 0.425 64.217
8800 0.428 64.035 0.899 -25.363 0.899 -25.363 0.428 64.035
8850 0.431 63.855 0.898 -25.549 0.898 -25.549 0.431 63.855
8900 0.434 63.675 0.896 -25.733 0.896 -25.733 0.434 63.675
8950 0.437 63.496 0.895 -25.916 0.895 -25.916 0.437 63.496
9000 0.44 63.318 0.894 -26.099 0.894 -26.099 0.44 63.318
9050 0.443 63.14 0.892 -26.281 0.892 -26.281 0.443 63.14
9100 0.446 62.964 0.891 -26.462 0.891 -26.462 0.446 62.964
9150 0.448 62.788 0.889 -26.642 0.889 -26.642 0.448 62.788
9200 0.451 62.613 0.888 -26.821 0.888 -26.821 0.451 62.613
9250 0.454 62.439 0.887 -26.999 0.887 -26.999 0.454 62.439
9300 0.457 62.265 0.885 -27.176 0.885 -27.176 0.457 62.265
9350 0.459 62.093 0.884 -27.353 0.884 -27.353 0.459 62.093
9400 0.462 61.921 0.882 -27.529 0.882 -27.529 0.462 61.921
9450 0.465 61.75 0.881 -27.704 0.881 -27.704 0.465 61.75
9500 0.468 61.579 0.88 -27.878 0.88 -27.878 0.468 61.579
9550 0.47 61.41 0.878 -28.051 0.878 -28.051 0.47 61.41
9600 0.473 61.241 0.877 -28.223 0.877 -28.223 0.473 61.241
9650 0.476 61.073 0.875 -28.395 0.875 -28.395 0.476 61.073
9700 0.478 60.905 0.874 -28.566 0.874 -28.566 0.478 60.905
9750 0.481 60.739 0.872 -28.736 0.872 -28.736 0.481 60.739
9800 0.483 60.573 0.871 -28.905 0.871 -28.905 0.483 60.573
9850 0.486 60.408 0.87 -29.074 0.87 -29.074 0.486 60.408
9900 0.489 60.243 0.868 -29.241 0.868 -29.241 0.489 60.243
9950 0.491 60.08 0.867 -29.408 0.867 -29.408 0.491 60.08
10000 0.494 59.917 0.865 -29.574 0.865 -29.574 0.494 59.917
10050 0.496 59.754 0.864 -29.74 0.864 -29.74 0.496 59.754
10100 0.499 59.593 0.862 -29.905 0.862 -29.905 0.499 59.593
10150 0.501 59.432 0.861 -30.068 0.861 -30.068 0.501 59.432
10200 0.504 59.272 0.86 -30.232 0.86 -30.232 0.504 59.272
10250 0.506 59.112 0.858 -30.394 0.858 -30.394 0.506 59.112
10300 0.508 58.953 0.857 -30.556 0.857 -30.556 0.508 58.953
10350 0.511 58.795 0.855 -30.717 0.855 -30.717 0.511 58.795
10400 0.513 58.638 0.854 -30.877 0.854 -30.877 0.513 58.638
10450 0.516 58.481 0.852 -31.036 0.852 -31.036 0.516 58.481
10500 0.518 58.325 0.851 -31.195 0.851 -31.195 0.518 58.325
10550 0.52 58.17 0.85 -31.353 0.85 -31.353 0.52 58.17
10600 0.523 58.015 0.848 -31.511 0.848 -31.511 0.523 58.015
10650 0.525 57.861 0.847 -31.667 0.847 -31.667 0.525 57.861
10700 0.527 57.707 0.845 -31.823 0.845 -31.823 0.527 57.707
10750 0.53 57.555 0.844 -31.979 0.844 -31.979 0.53 57.555
10800 0.532 57.403 0.843 -32.133 0.843 -32.133 0.532 57.403
10850 0.534 57.251 0.841 -32.287 0.841 -32.287 0.534 57.251
10900 0.536 57.1 0.84 -32.44 0.84 -32.44 0.536 57.1
10950 0.539 56.95 0.838 -32.593 0.838 -32.593 0.539 56.95
11000 0.541 56.801 0.837 -32.745 0.837 -32.745 0.541 56.801
11050 0.543 56.652 0.835 -32.896 0.835 -32.896 0.543 56.652
11100 0.545 56.504 0.834 -33.047 0.834 -33.047 0.545 56.504
11150 0.548 56.356 0.833 -33.197 0.833 -33.197 0.548 56.356
11200 0.55 56.209 0.831 -33.346 0.831 -33.346 0.55 56.209
11250 0.552 56.063 0.83 -33.494 0.83 -33.494 0.552 56.063
11300 0.554 55.917 0.828 -33.642 0.828 -33.642 0.554 55.917
11350 0.556 55.772 0.827 -33.79 0.827 -33.79 0.556 55.772
11400 0.558 55.628 0.825 -33.936 0.825 -33.936 0.558 55.628
11450 0.56 55.484 0.824 -34.082 0.824 -34.082 0.56 55.484
11500 0.563 55.34 0.823 -34.228 0.823 -34.228 0.563 55.34
11550 0.565 55.198 0.821 -34.373 0.821 -34.373 0.565 55.198
11600 0.567 55.056 0.82 -34.517 0.82 -34.517 0.567 55.056
11650 0.569 54.914 0.818 -34.66 0.818 -34.66 0.569 54.914
11700 0.571 54.773 0.817 -34.803 0.817 -34.803 0.571 54.773
11750 0.573 54.633 0.815 -34.945 0.815 -34.945 0.573 54.633
11800 0.575 54.493 0.814 -35.087 0.814 -35.087 0.575 54.493
11850 0.577 54.354 0.813 -35.228 0.813 -35.228 0.577 54.354
11900 0.579 54.216 0.811 -35.369 0.811 -35.369 0.579 54.216
11950 0.581 54.078 0.81 -35.509 0.81 -35.509 0.581 54.078
12000 0.583 53.94 0.808 -35.648 0.808 -35.648 0.583 53.94
12050 0.585 53.803 0.807 -35.787 0.807 -35.787 0.585 53.803
12100 0.587 53.667 0.806 -35.925 0.806 -35.925 0.587 53.667
12150 0.589 53.531 0.804 -36.062 0.804 -36.062 0.589 53.531
12200 0.591 53.396 0.803 -36.199 0.803 -36.199 0.591 53.396
12250 0.593 53.262 0.801 -36.335 0.801 -36.335 0.593 53.262
12300 0.594 53.128 0.8 -36.471 0.8 -36.471 0.594 53.128
12350 0.596 52.994 0.799 -36.606 0.799 -36.606 0.596 52.994
12400 0.598 52.861 0.797 -36.741 0.797 -36.741 0.598 52.861
12450 0.6 52.729 0.796 -36.875 0.796 -36.875 0.6 52.729
12500 0.602 52.597 0.794 -37.009 0.794 -37.009 0.602 52.597
12550 0.604 52.466 0.793 -37.142 0.793 -37.142 0.604 52.466
12600 0.606 52.335 0.792 -37.274 0.792 -37.274 0.606 52.335
12650 0.607 52.205 0.79 -37.406 0.79 -37.406 0.607 52.205
12700 0.609 52.075 0.789 -37.537 0.789 -37.537 0.609 52.075
12750 0.611 51.946 0.787 -37.668 0.787 -37.668 0.611 51.946
12800 0.613 51.818 0.786 -37.798 0.786 -37.798 0.613 51.818
12850 0.615 51.69 0.785 -37.928 0.785 -37.928 0.615 51.69
12900 0.616 51.562 0.783 -38.057 0.783 -38.057 0.616 51.562
12950 0.618 51.435 0.782 -38.185 0.782 -38.185 0.618 51.435
13000 0.62 51.308 0.781 -38.313 0.781 -38.313 0.62 51.308
13050 0.622 51.182 0.779 -38.441 0.779 -38.441 0.622 51.182
13100 0.623 51.057 0.778 -38.568 0.778 -38.568 0.623 51.057
13150 0.625 50.932 0.776 -38.694 0.776 -38.694 0.625 50.932
13200 0.627 50.808 0.775 -38.82 0.775 -38.82 0.627 50.808
13250 0.629 50.684 0.774 -38.945 0.774 -38.945 0.629 50.684
13300 0.63 50.56 0.772 -39.07 0.772 -39.07 0.63 50.56
13350 0.632 50.437 0.771 -39.195 0.771 -39.195 0.632 50.437
13400 0.634 50.315 0.77 -39.319 0.77 -39.319 0.634 50.315
13450 0.635 50.193 0.768 -39.442 0.768 -39.442 0.635 50.193
13500 0.637 50.071 0.767 -39.565 0.767 -39.565 0.637 50.071
13550 0.639 49.95 0.766 -39.687 0.766 -39.687 0.639 49.95
13600 0.64 49.83 0.764 -39.809 0.764 -39.809 0.64 49.83
13650 0.642 49.71 0.763 -39.93 0.763 -39.93 0.642 49.71
13700 0.643 49.59 0.761 -40.051 0.761 -40.051 0.643 49.59
13750 0.645 49.471 0.76 -40.172 0.76 -40.172 0.645 49.471
13800 0.647 49.353 0.759 -40.291 0.759 -40.291 0.647 49.353
13850 0.648 49.235 0.757 -40.411 0.757 -40.411 0.648 49.235
13900 0.65 49.117 0.756 -40.53 0.756 -40.53 0.65 49.117
13950 0.651 49 0.755 -40.648 0.755 -40.648 0.651 49
14000 0.653 48.883 0.753 -40.766 0.753 -40.766 0.653 48.883
14050 0.655 48.767 0.752 -40.884 0.752 -40.884 0.655 48.767
14100 0.656 48.651 0.751 -41.001 0.751 -41.001 0.656 48.651
14150 0.658 48.536 0.749 -41.117 0.749 -41.117 0.658 48.536
14200 0.659 48.421 0.748 -41.233 0.748 -41.233 0.659 48.421
14250 0.661 48.307 0.747 -41.349 0.747 -41.349 0.661 48.307
14300 0.662 48.193 0.745 -41.464 0.745 -41.464 0.662 48.193
14350 0.664 48.079 0.744 -41.579 0.744 -41.579 0.664 48.079
14400 0.665 47.966 0.743 -41.693 0.743 -41.693 0.665 47.966
14450 0.667 47.854 0.741 -41.806 0.741 -41.806 0.667 47.854
14500 0.668 47.741 0.74 -41.92 0.74 -41.92 0.668 47.741
14550 0.67 47.63 0.739 -42.033 0.739 -42.033 0.67 47.63
14600 0.671 47.519 0.738 -42.145 0.738 -42.145 0.671 47.519
14650 0.672 47.408 0.736 -42.257 0.736 -42.257 0.672 47.408
14700 0.674 47.297 0.735 -42.368 0.735 -42.368 0.674 47.297
14750 0.675 47.187 0.734 -42.479 0.734 -42.479 0.675 47.187
14800 0.677 47.078 0.732 -42.59 0.732 -42.59 0.677 47.078
14850 0.678 46.969 0.731 -42.7 0.731 -42.7 0.678 46.969
14900 0.68 46.86 0.73 -42.81 0.73 -42.81 0.68 46.86
14950 0.681 46.752 0.728 -42.919 0.728 -42.919 0.681 46.752
15000 0.682 46.644 0.727 -43.028 0.727 -43.028 0.682 46.644
15050 0.684 46.537 0.726 -43.136 0.726 -43.136 0.684 46.537
15100 0.685 46.43 0.725 -43.244 0.725 -43.244 0.685 46.43
15150 0.686 46.323 0.723 -43.352 0.723 -43.352 0.686 46.323
15200 0.688 46.217 0.722 -43.459 0.722 -43.459 0.688 46.217
15250 0.689 46.111 0.721 -43.566 0.721 -43.566 0.689 46.111
15300 0.691 46.006 0.719 -43.672 0.719 -43.672 0.691 46.006
15350 0.692 45.901 0.718 -43.778 0.718 -43.778 0.692 45.901
15400 0.693 45.797 0.717 -43.884 0.717 -43.884 0.693 45.797
15450 0.695 45.693 0.716 -43.989 0.716 -43.989 0.695 45.693
15500 0.696 45.589 0.714 -44.093 0.714 -44.093 0.696 45.589
15550 0.697 45.486 0.713 -44.198 0.713 -44.198 0.697 45.486
15600 0.698 45.383 0.712 -44.301 0.712 -44.301 0.698 45.383
15650 0.7 45.28 0.711 -44.405 0.711 -44.405 0.7 45.28
15700 0.701 45.178 0.709 -44.508 0.709 -44.508 0.701 45.178
15750 0.702 45.077 0.708 -44.61 0.708 -44.61 0.702 45.077
15800 0.704 44.975 0.707 -44.713 0.707 -44.713 0.704 44.975
15850 0.705 44.874 0.706 -44.815 0.706 -44.815 0.705 44.874
15900 0.706 44.774 0.704 -44.916 0.704 -44.916 0.706 44.774
15950 0.707 44.674 0.703 -45.017 0.703 -45.017 0.707 44.674
16000 0.709 44.574 0.702 -45.118 0.702 -45.118 0.709 44.574
16050 0.71 44.475 0.701 -45.218 0.701 -45.218 0.71 44.475
16100 0.711 44.376 0.699 -45.318 0.699 -45.318 0.711 44.376
16150 0.712 44.277 0.698 -45.417 0.698 -45.417 0.712 44.277
16200 0.713 44.179 0.697 -45.516 0.697 -45.516 0.713 44.179
16250 0.715 44.081 0.696 -45.615 0.696 -45.615 0.715 44.081
16300 0.716 43.984 0.694 -45.714 0.694 -45.714 0.716 43.984
16350 0.717 43.886 0.693 -45.811 0.693 -45.811 0.717 43.886
16400 0.718 43.79 0.692 -45.909 0.692 -45.909 0.718 43.79
16450 0.719 43.693 0.691 -46.006 0.691 -46.006 0.719 43.693
16500 0.721 43.597 0.69 -46.103 0.69 -46.103 0.721 43.597
16550 0.722 43.502 0.688 -46.2 0.688 -46.2 0.722 43.502
16600 0.723 43.406 0.687 -46.296 0.687 -46.296 0.723 43.406
16650 0.724 43.311 0.686 -46.391 0.686 -46.391 0.724 43.311
16700 0.725 43.217 0.685 -46.487 0.685 -46.487 0.725 43.217
16750 0.726 43.123 0.684 -46.582 0.684 -46.582 0.726 43.123
16800 0.728 43.029 0.682 -46.677 0.682 -46.677 0.728 43.029
16850 0.729 42.935 0.681 -46.771 0.681 -46.771 0.729 42.935
16900 0.73 42.842 0.68 -46.865 0.68 -46.865 0.73 42.842
16950 0.731 42.749 0.679 -46.958 0.679 -46.958 0.731 42.749
