! AVX Thin Film Operation		Date: April 2012 
! Description: Accu-P® Series, Thin Film, SMD, RF Capacitor
! Part Number: 12101J200FBTTR					
!	100	MHz	-	10.05	GHz			
!	Serial	Measurements						
!								
#	MHZ	S	MA	R	50			
!	S11	S21	S12	S22				
!	dB	Phase	dB	Phase	dB	Phase	dB	Phase
100	0.619	-51.691	0.785	38.251	0.785	38.251	0.619	-51.691
109.812	0.583	-54.309	0.812	35.627	0.812	35.627	0.583	-54.309
119.623	0.549	-56.641	0.835	33.289	0.835	33.289	0.549	-56.641
129.435	0.518	-58.728	0.855	31.197	0.855	31.197	0.518	-58.728
139.247	0.49	-60.6	0.871	29.318	0.871	29.318	0.49	-60.6
149.058	0.464	-62.288	0.885	27.625	0.885	27.625	0.464	-62.288
158.87	0.44	-63.814	0.897	26.092	0.897	26.092	0.44	-63.814
168.682	0.418	-65.2	0.908	24.7	0.908	24.7	0.418	-65.2
178.494	0.398	-66.463	0.917	23.431	0.917	23.431	0.398	-66.463
188.305	0.379	-67.619	0.925	22.269	0.925	22.269	0.379	-67.619
198.117	0.362	-68.679	0.932	21.202	0.932	21.202	0.362	-68.679
207.929	0.346	-69.656	0.938	20.22	0.938	20.22	0.346	-69.656
217.74	0.331	-70.558	0.943	19.312	0.943	19.312	0.331	-70.558
227.552	0.317	-71.393	0.948	18.47	0.948	18.47	0.317	-71.393
237.364	0.304	-72.169	0.952	17.688	0.952	17.688	0.304	-72.169
247.175	0.292	-72.891	0.956	16.959	0.956	16.959	0.292	-72.891
256.987	0.28	-73.566	0.959	16.278	0.959	16.278	0.28	-73.566
266.799	0.27	-74.197	0.962	15.64	0.962	15.64	0.27	-74.197
276.611	0.26	-74.789	0.965	15.041	0.965	15.041	0.26	-74.789
286.422	0.25	-75.345	0.967	14.478	0.967	14.478	0.25	-75.345
296.234	0.241	-75.869	0.97	13.947	0.97	13.947	0.241	-75.869
306.046	0.233	-76.363	0.972	13.446	0.972	13.446	0.233	-76.363
315.857	0.224	-76.83	0.974	12.971	0.974	12.971	0.224	-76.83
325.669	0.217	-77.272	0.975	12.522	0.975	12.522	0.217	-77.272
335.481	0.21	-77.692	0.977	12.095	0.977	12.095	0.21	-77.692
345.292	0.203	-78.09	0.978	11.689	0.978	11.689	0.203	-78.09
355.104	0.196	-78.469	0.98	11.302	0.98	11.302	0.196	-78.469
364.916	0.19	-78.83	0.981	10.933	0.981	10.933	0.19	-78.83
374.727	0.184	-79.174	0.982	10.581	0.982	10.581	0.184	-79.174
384.539	0.178	-79.502	0.983	10.244	0.983	10.244	0.178	-79.502
394.351	0.172	-79.817	0.984	9.921	0.984	9.921	0.172	-79.817
404.163	0.167	-80.117	0.985	9.612	0.985	9.612	0.167	-80.117
413.974	0.162	-80.406	0.986	9.315	0.986	9.315	0.162	-80.406
423.786	0.157	-80.682	0.987	9.03	0.987	9.03	0.157	-80.682
433.598	0.152	-80.948	0.988	8.755	0.988	8.755	0.152	-80.948
443.409	0.148	-81.203	0.988	8.49	0.988	8.49	0.148	-81.203
453.221	0.143	-81.448	0.989	8.235	0.989	8.235	0.143	-81.448
463.033	0.139	-81.684	0.99	7.989	0.99	7.989	0.139	-81.684
472.844	0.135	-81.912	0.99	7.752	0.99	7.752	0.135	-81.912
482.656	0.131	-82.131	0.991	7.522	0.991	7.522	0.131	-82.131
492.468	0.127	-82.343	0.991	7.299	0.991	7.299	0.127	-82.343
502.279	0.123	-82.547	0.992	7.084	0.992	7.084	0.123	-82.547
512.091	0.12	-82.745	0.992	6.875	0.992	6.875	0.12	-82.745
521.903	0.116	-82.936	0.992	6.673	0.992	6.673	0.116	-82.936
531.715	0.113	-83.12	0.993	6.476	0.993	6.476	0.113	-83.12
541.526	0.109	-83.299	0.993	6.285	0.993	6.285	0.109	-83.299
551.338	0.106	-83.472	0.994	6.1	0.994	6.1	0.106	-83.472
561.15	0.103	-83.639	0.994	5.919	0.994	5.919	0.103	-83.639
570.961	0.1	-83.801	0.994	5.743	0.994	5.743	0.1	-83.801
580.773	0.097	-83.958	0.994	5.572	0.994	5.572	0.097	-83.958
590.585	0.094	-84.111	0.995	5.405	0.995	5.405	0.094	-84.111
600.396	0.091	-84.258	0.995	5.243	0.995	5.243	0.091	-84.258
610.208	0.089	-84.401	0.995	5.084	0.995	5.084	0.089	-84.401
620.02	0.086	-84.54	0.996	4.929	0.996	4.929	0.086	-84.54
629.832	0.083	-84.675	0.996	4.777	0.996	4.777	0.083	-84.675
639.643	0.081	-84.805	0.996	4.629	0.996	4.629	0.081	-84.805
649.455	0.078	-84.932	0.996	4.484	0.996	4.484	0.078	-84.932
659.267	0.076	-85.054	0.996	4.343	0.996	4.343	0.076	-85.054
669.078	0.073	-85.173	0.997	4.204	0.997	4.204	0.073	-85.173
678.89	0.071	-85.288	0.997	4.068	0.997	4.068	0.071	-85.288
688.702	0.069	-85.399	0.997	3.935	0.997	3.935	0.069	-85.399
698.513	0.066	-85.506	0.997	3.805	0.997	3.805	0.066	-85.506
708.325	0.064	-85.61	0.997	3.677	0.997	3.677	0.064	-85.61
718.137	0.062	-85.71	0.997	3.551	0.997	3.551	0.062	-85.71
727.948	0.06	-85.807	0.997	3.428	0.997	3.428	0.06	-85.807
737.76	0.058	-85.9	0.998	3.307	0.998	3.307	0.058	-85.9
747.572	0.056	-85.989	0.998	3.189	0.998	3.189	0.056	-85.989
757.384	0.054	-86.075	0.998	3.072	0.998	3.072	0.054	-86.075
767.195	0.052	-86.156	0.998	2.957	0.998	2.957	0.052	-86.156
777.007	0.05	-86.234	0.998	2.845	0.998	2.845	0.05	-86.234
786.819	0.048	-86.307	0.998	2.734	0.998	2.734	0.048	-86.307
796.63	0.046	-86.376	0.998	2.624	0.998	2.624	0.046	-86.376
806.442	0.044	-86.441	0.998	2.517	0.998	2.517	0.044	-86.441
816.254	0.042	-86.501	0.998	2.411	0.998	2.411	0.042	-86.501
826.065	0.04	-86.556	0.998	2.307	0.998	2.307	0.04	-86.556
835.877	0.038	-86.606	0.998	2.204	0.998	2.204	0.038	-86.606
845.689	0.037	-86.65	0.999	2.103	0.999	2.103	0.037	-86.65
855.5	0.035	-86.687	0.999	2.003	0.999	2.003	0.035	-86.687
865.312	0.033	-86.718	0.999	1.905	0.999	1.905	0.033	-86.718
875.124	0.032	-86.741	0.999	1.808	0.999	1.808	0.032	-86.741
884.936	0.03	-86.756	0.999	1.712	0.999	1.712	0.03	-86.756
894.747	0.028	-86.761	0.999	1.618	0.999	1.618	0.028	-86.761
904.559	0.027	-86.755	0.999	1.525	0.999	1.525	0.027	-86.755
914.371	0.025	-86.736	0.999	1.432	0.999	1.432	0.025	-86.736
924.182	0.023	-86.703	0.999	1.342	0.999	1.342	0.023	-86.703
933.994	0.022	-86.653	0.999	1.252	0.999	1.252	0.022	-86.653
943.806	0.02	-86.582	0.999	1.163	0.999	1.163	0.02	-86.582
953.617	0.019	-86.486	0.999	1.075	0.999	1.075	0.019	-86.486
963.429	0.017	-86.358	0.999	0.988	0.999	0.988	0.017	-86.358
973.241	0.016	-86.193	0.999	0.903	0.999	0.903	0.016	-86.193
983.053	0.014	-85.977	0.999	0.818	0.999	0.818	0.014	-85.977
992.864	0.013	-85.695	0.999	0.734	0.999	0.734	0.013	-85.695
1002.676	0.011	-85.325	0.999	0.651	0.999	0.651	0.011	-85.325
1012.488	9.96E-03	-84.828	0.999	0.569	0.999	0.569	9.96E-03	-84.828
1022.299	8.55E-03	-84.147	0.999	0.488	0.999	0.488	8.55E-03	-84.147
1032.111	7.15E-03	-83.176	0.999	0.407	0.999	0.407	7.15E-03	-83.176
1041.923	5.77E-03	-81.713	0.999	0.328	0.999	0.328	5.77E-03	-81.713
1051.734	4.41E-03	-79.317	0.999	0.249	0.999	0.249	4.41E-03	-79.317
1061.546	3.08E-03	-74.801	0.999	0.171	0.999	0.171	3.08E-03	-74.801
1071.358	1.81E-03	-63.739	0.999	0.093	0.999	0.093	1.81E-03	-63.739
1081.169	8.50E-04	-19.842	0.999	0.017	0.999	0.017	8.50E-04	-19.842
1090.981	1.31E-03	52.321	0.999	-0.059	0.999	-0.059	1.31E-03	52.321
1100.793	2.48E-03	71.09	0.999	-0.135	0.999	-0.135	2.48E-03	71.09
1110.605	3.74E-03	77.451	0.999	-0.209	0.999	-0.209	3.74E-03	77.451
1120.416	5.01E-03	80.535	0.999	-0.283	0.999	-0.283	5.01E-03	80.535
1130.228	6.28E-03	82.327	0.999	-0.357	0.999	-0.357	6.28E-03	82.327
1140.04	7.54E-03	83.484	0.999	-0.43	0.999	-0.43	7.54E-03	83.484
1149.851	8.79E-03	84.282	0.999	-0.502	0.999	-0.502	8.79E-03	84.282
1159.663	0.01	84.859	0.999	-0.573	0.999	-0.573	0.01	84.859
1169.475	0.011	85.29	0.999	-0.644	0.999	-0.644	0.011	85.29
1179.286	0.013	85.619	0.999	-0.715	0.999	-0.715	0.013	85.619
1189.098	0.014	85.875	0.999	-0.785	0.999	-0.785	0.014	85.875
1198.91	0.015	86.077	0.999	-0.854	0.999	-0.854	0.015	86.077
1208.722	0.016	86.236	0.999	-0.923	0.999	-0.923	0.016	86.236
1218.533	0.017	86.364	0.999	-0.992	0.999	-0.992	0.017	86.364
1228.345	0.019	86.465	0.999	-1.06	0.999	-1.06	0.019	86.465
1238.157	0.02	86.546	0.999	-1.127	0.999	-1.127	0.02	86.546
1247.968	0.021	86.609	0.999	-1.194	0.999	-1.194	0.021	86.609
1257.78	0.022	86.659	0.999	-1.261	0.999	-1.261	0.022	86.659
1267.592	0.023	86.696	0.999	-1.327	0.999	-1.327	0.023	86.696
1277.403	0.024	86.724	0.999	-1.392	0.999	-1.392	0.024	86.724
1287.215	0.025	86.743	0.999	-1.458	0.999	-1.458	0.025	86.743
1297.027	0.027	86.755	0.999	-1.522	0.999	-1.522	0.027	86.755
1306.838	0.028	86.76	0.999	-1.587	0.999	-1.587	0.028	86.76
1316.65	0.029	86.76	0.999	-1.651	0.999	-1.651	0.029	86.76
1326.462	0.03	86.755	0.999	-1.714	0.999	-1.714	0.03	86.755
1336.274	0.031	86.747	0.999	-1.778	0.999	-1.778	0.031	86.747
1346.085	0.032	86.734	0.999	-1.841	0.999	-1.841	0.032	86.734
1355.897	0.033	86.719	0.999	-1.903	0.999	-1.903	0.033	86.719
1365.709	0.034	86.7	0.999	-1.965	0.999	-1.965	0.034	86.7
1375.52	0.035	86.679	0.999	-2.027	0.999	-2.027	0.035	86.679
1385.332	0.036	86.656	0.999	-2.088	0.999	-2.088	0.036	86.656
1395.144	0.038	86.63	0.998	-2.15	0.998	-2.15	0.038	86.63
1404.955	0.039	86.603	0.998	-2.21	0.998	-2.21	0.039	86.603
1414.767	0.04	86.574	0.998	-2.271	0.998	-2.271	0.04	86.574
1424.579	0.041	86.544	0.998	-2.331	0.998	-2.331	0.041	86.544
1434.39	0.042	86.512	0.998	-2.391	0.998	-2.391	0.042	86.512
1444.202	0.043	86.479	0.998	-2.451	0.998	-2.451	0.043	86.479
1454.014	0.044	86.445	0.998	-2.51	0.998	-2.51	0.044	86.445
1463.826	0.045	86.41	0.998	-2.569	0.998	-2.569	0.045	86.41
1473.637	0.046	86.374	0.998	-2.627	0.998	-2.627	0.046	86.374
1483.449	0.047	86.338	0.998	-2.686	0.998	-2.686	0.047	86.338
1493.261	0.048	86.3	0.998	-2.744	0.998	-2.744	0.048	86.3
1503.072	0.049	86.262	0.998	-2.802	0.998	-2.802	0.049	86.262
1512.884	0.05	86.223	0.998	-2.859	0.998	-2.859	0.05	86.223
1522.696	0.051	86.184	0.998	-2.917	0.998	-2.917	0.051	86.184
1532.507	0.052	86.144	0.998	-2.974	0.998	-2.974	0.052	86.144
1542.319	0.053	86.104	0.998	-3.031	0.998	-3.031	0.053	86.104
1552.131	0.054	86.063	0.998	-3.087	0.998	-3.087	0.054	86.063
1561.943	0.055	86.022	0.998	-3.144	0.998	-3.144	0.055	86.022
1571.754	0.056	85.981	0.998	-3.2	0.998	-3.2	0.056	85.981
1581.566	0.057	85.939	0.998	-3.256	0.998	-3.256	0.057	85.939
1591.378	0.058	85.897	0.998	-3.311	0.998	-3.311	0.058	85.897
1601.189	0.059	85.855	0.997	-3.367	0.997	-3.367	0.059	85.855
1611.001	0.06	85.812	0.997	-3.422	0.997	-3.422	0.06	85.812
1620.813	0.061	85.769	0.997	-3.477	0.997	-3.477	0.061	85.769
1630.624	0.062	85.726	0.997	-3.532	0.997	-3.532	0.062	85.726
1640.436	0.063	85.683	0.997	-3.586	0.997	-3.586	0.063	85.683
1650.248	0.064	85.639	0.997	-3.641	0.997	-3.641	0.064	85.639
1660.059	0.064	85.596	0.997	-3.695	0.997	-3.695	0.064	85.596
1669.871	0.065	85.552	0.997	-3.749	0.997	-3.749	0.065	85.552
1679.683	0.066	85.508	0.997	-3.803	0.997	-3.803	0.066	85.508
1689.495	0.067	85.464	0.997	-3.856	0.997	-3.856	0.067	85.464
1699.306	0.068	85.42	0.997	-3.91	0.997	-3.91	0.068	85.42
1709.118	0.069	85.376	0.997	-3.963	0.997	-3.963	0.069	85.376
1718.93	0.07	85.331	0.997	-4.016	0.997	-4.016	0.07	85.331
1728.741	0.071	85.287	0.997	-4.069	0.997	-4.069	0.071	85.287
1738.553	0.072	85.243	0.997	-4.122	0.997	-4.122	0.072	85.243
1748.365	0.073	85.198	0.997	-4.174	0.997	-4.174	0.073	85.198
1758.176	0.074	85.154	0.996	-4.227	0.996	-4.227	0.074	85.154
1767.988	0.075	85.109	0.996	-4.279	0.996	-4.279	0.075	85.109
1777.8	0.076	85.064	0.996	-4.331	0.996	-4.331	0.076	85.064
1787.611	0.076	85.02	0.996	-4.383	0.996	-4.383	0.076	85.02
1797.423	0.077	84.975	0.996	-4.434	0.996	-4.434	0.077	84.975
1807.235	0.078	84.93	0.996	-4.486	0.996	-4.486	0.078	84.93
1817.047	0.079	84.886	0.996	-4.537	0.996	-4.537	0.079	84.886
1826.858	0.08	84.841	0.996	-4.588	0.996	-4.588	0.08	84.841
1836.67	0.081	84.796	0.996	-4.64	0.996	-4.64	0.081	84.796
1846.482	0.082	84.751	0.996	-4.69	0.996	-4.69	0.082	84.751
1856.293	0.083	84.706	0.996	-4.741	0.996	-4.741	0.083	84.706
1866.105	0.084	84.662	0.996	-4.792	0.996	-4.792	0.084	84.662
1875.917	0.084	84.617	0.996	-4.842	0.996	-4.842	0.084	84.617
1885.728	0.085	84.572	0.996	-4.893	0.996	-4.893	0.085	84.572
1895.54	0.086	84.527	0.995	-4.943	0.995	-4.943	0.086	84.527
1905.352	0.087	84.483	0.995	-4.993	0.995	-4.993	0.087	84.483
1915.164	0.088	84.438	0.995	-5.043	0.995	-5.043	0.088	84.438
1924.975	0.089	84.393	0.995	-5.093	0.995	-5.093	0.089	84.393
1934.787	0.09	84.348	0.995	-5.143	0.995	-5.143	0.09	84.348
1944.599	0.09	84.304	0.995	-5.192	0.995	-5.192	0.09	84.304
1954.41	0.091	84.259	0.995	-5.242	0.995	-5.242	0.091	84.259
1964.222	0.092	84.214	0.995	-5.291	0.995	-5.291	0.092	84.214
1974.034	0.093	84.17	0.995	-5.34	0.995	-5.34	0.093	84.17
1983.845	0.094	84.125	0.995	-5.389	0.995	-5.389	0.094	84.125
1993.657	0.095	84.081	0.995	-5.438	0.995	-5.438	0.095	84.081
2003.469	0.096	84.036	0.995	-5.487	0.995	-5.487	0.096	84.036
2013.28	0.096	83.992	0.995	-5.536	0.995	-5.536	0.096	83.992
2023.092	0.097	83.947	0.994	-5.584	0.994	-5.584	0.097	83.947
2032.904	0.098	83.903	0.994	-5.633	0.994	-5.633	0.098	83.903
2042.716	0.099	83.858	0.994	-5.681	0.994	-5.681	0.099	83.858
2052.527	0.1	83.814	0.994	-5.729	0.994	-5.729	0.1	83.814
2062.339	0.101	83.77	0.994	-5.778	0.994	-5.778	0.101	83.77
2072.151	0.102	83.725	0.994	-5.826	0.994	-5.826	0.102	83.725
2081.962	0.102	83.681	0.994	-5.874	0.994	-5.874	0.102	83.681
2091.774	0.103	83.637	0.994	-5.921	0.994	-5.921	0.103	83.637
2101.586	0.104	83.593	0.994	-5.969	0.994	-5.969	0.104	83.593
2111.397	0.105	83.549	0.994	-6.017	0.994	-6.017	0.105	83.549
2121.209	0.106	83.505	0.994	-6.064	0.994	-6.064	0.106	83.505
2131.021	0.106	83.46	0.994	-6.112	0.994	-6.112	0.106	83.46
2140.833	0.107	83.416	0.993	-6.159	0.993	-6.159	0.107	83.416
2150.644	0.108	83.372	0.993	-6.206	0.993	-6.206	0.108	83.372
2160.456	0.109	83.328	0.993	-6.253	0.993	-6.253	0.109	83.328
2170.268	0.11	83.285	0.993	-6.301	0.993	-6.301	0.11	83.285
2180.079	0.111	83.241	0.993	-6.347	0.993	-6.347	0.111	83.241
2189.891	0.111	83.197	0.993	-6.394	0.993	-6.394	0.111	83.197
2199.703	0.112	83.153	0.993	-6.441	0.993	-6.441	0.112	83.153
2209.514	0.113	83.109	0.993	-6.488	0.993	-6.488	0.113	83.109
2219.326	0.114	83.066	0.993	-6.534	0.993	-6.534	0.114	83.066
2229.138	0.115	83.022	0.993	-6.581	0.993	-6.581	0.115	83.022
2238.949	0.115	82.978	0.993	-6.627	0.993	-6.627	0.115	82.978
2248.761	0.116	82.935	0.992	-6.674	0.992	-6.674	0.116	82.935
2258.573	0.117	82.891	0.992	-6.72	0.992	-6.72	0.117	82.891
2268.385	0.118	82.848	0.992	-6.766	0.992	-6.766	0.118	82.848
2278.196	0.119	82.804	0.992	-6.812	0.992	-6.812	0.119	82.804
2288.008	0.119	82.761	0.992	-6.858	0.992	-6.858	0.119	82.761
2297.82	0.12	82.718	0.992	-6.904	0.992	-6.904	0.12	82.718
2307.631	0.121	82.674	0.992	-6.95	0.992	-6.95	0.121	82.674
2317.443	0.122	82.631	0.992	-6.996	0.992	-6.996	0.122	82.631
2327.255	0.123	82.588	0.992	-7.041	0.992	-7.041	0.123	82.588
2337.066	0.123	82.544	0.992	-7.087	0.992	-7.087	0.123	82.544
2346.878	0.124	82.501	0.991	-7.133	0.991	-7.133	0.124	82.501
2356.69	0.125	82.458	0.991	-7.178	0.991	-7.178	0.125	82.458
2366.501	0.126	82.415	0.991	-7.223	0.991	-7.223	0.126	82.415
2376.313	0.127	82.372	0.991	-7.269	0.991	-7.269	0.127	82.372
2386.125	0.127	82.329	0.991	-7.314	0.991	-7.314	0.127	82.329
2395.937	0.128	82.286	0.991	-7.359	0.991	-7.359	0.128	82.286
2405.748	0.129	82.243	0.991	-7.404	0.991	-7.404	0.129	82.243
2415.56	0.13	82.2	0.991	-7.449	0.991	-7.449	0.13	82.2
2425.372	0.13	82.158	0.991	-7.494	0.991	-7.494	0.13	82.158
2435.183	0.131	82.115	0.991	-7.539	0.991	-7.539	0.131	82.115
2444.995	0.132	82.072	0.99	-7.584	0.99	-7.584	0.132	82.072
2454.807	0.133	82.029	0.99	-7.629	0.99	-7.629	0.133	82.029
2464.618	0.134	81.987	0.99	-7.673	0.99	-7.673	0.134	81.987
2474.43	0.134	81.944	0.99	-7.718	0.99	-7.718	0.134	81.944
2484.242	0.135	81.902	0.99	-7.762	0.99	-7.762	0.135	81.902
2494.054	0.136	81.859	0.99	-7.807	0.99	-7.807	0.136	81.859
2503.865	0.137	81.816	0.99	-7.851	0.99	-7.851	0.137	81.816
2513.677	0.137	81.774	0.99	-7.896	0.99	-7.896	0.137	81.774
2523.489	0.138	81.732	0.99	-7.94	0.99	-7.94	0.138	81.732
2533.3	0.139	81.689	0.99	-7.984	0.99	-7.984	0.139	81.689
2543.112	0.14	81.647	0.989	-8.028	0.989	-8.028	0.14	81.647
2552.924	0.14	81.605	0.989	-8.072	0.989	-8.072	0.14	81.605
2562.735	0.141	81.562	0.989	-8.116	0.989	-8.116	0.141	81.562
2572.547	0.142	81.52	0.989	-8.16	0.989	-8.16	0.142	81.52
2582.359	0.143	81.478	0.989	-8.204	0.989	-8.204	0.143	81.478
2592.17	0.143	81.436	0.989	-8.248	0.989	-8.248	0.143	81.436
2601.982	0.144	81.394	0.989	-8.292	0.989	-8.292	0.144	81.394
2611.794	0.145	81.352	0.989	-8.336	0.989	-8.336	0.145	81.352
2621.606	0.146	81.31	0.989	-8.379	0.989	-8.379	0.146	81.31
2631.417	0.146	81.268	0.988	-8.423	0.988	-8.423	0.146	81.268
2641.229	0.147	81.226	0.988	-8.467	0.988	-8.467	0.147	81.226
2651.041	0.148	81.184	0.988	-8.51	0.988	-8.51	0.148	81.184
2660.852	0.149	81.142	0.988	-8.553	0.988	-8.553	0.149	81.142
2670.664	0.149	81.1	0.988	-8.597	0.988	-8.597	0.149	81.1
2680.476	0.15	81.058	0.988	-8.64	0.988	-8.64	0.15	81.058
2690.287	0.151	81.017	0.988	-8.683	0.988	-8.683	0.151	81.017
2700.099	0.152	80.975	0.988	-8.727	0.988	-8.727	0.152	80.975
2709.911	0.152	80.933	0.988	-8.77	0.988	-8.77	0.152	80.933
2719.722	0.153	80.891	0.987	-8.813	0.987	-8.813	0.153	80.891
2729.534	0.154	80.85	0.987	-8.856	0.987	-8.856	0.154	80.85
2739.346	0.155	80.808	0.987	-8.899	0.987	-8.899	0.155	80.808
2749.158	0.155	80.767	0.987	-8.942	0.987	-8.942	0.155	80.767
2758.969	0.156	80.725	0.987	-8.985	0.987	-8.985	0.156	80.725
2768.781	0.157	80.684	0.987	-9.028	0.987	-9.028	0.157	80.684
2778.593	0.158	80.642	0.987	-9.071	0.987	-9.071	0.158	80.642
2788.404	0.158	80.601	0.987	-9.113	0.987	-9.113	0.158	80.601
2798.216	0.159	80.56	0.986	-9.156	0.986	-9.156	0.159	80.56
2808.028	0.16	80.518	0.986	-9.199	0.986	-9.199	0.16	80.518
2817.839	0.161	80.477	0.986	-9.241	0.986	-9.241	0.161	80.477
2827.651	0.161	80.436	0.986	-9.284	0.986	-9.284	0.161	80.436
2837.463	0.162	80.395	0.986	-9.327	0.986	-9.327	0.162	80.395
2847.275	0.163	80.353	0.986	-9.369	0.986	-9.369	0.163	80.353
2857.086	0.164	80.312	0.986	-9.411	0.986	-9.411	0.164	80.312
2866.898	0.164	80.271	0.986	-9.454	0.986	-9.454	0.164	80.271
2876.71	0.165	80.23	0.986	-9.496	0.986	-9.496	0.165	80.23
2886.521	0.166	80.189	0.985	-9.538	0.985	-9.538	0.166	80.189
2896.333	0.166	80.148	0.985	-9.581	0.985	-9.581	0.166	80.148
2906.145	0.167	80.107	0.985	-9.623	0.985	-9.623	0.167	80.107
2915.956	0.168	80.066	0.985	-9.665	0.985	-9.665	0.168	80.066
2925.768	0.169	80.025	0.985	-9.707	0.985	-9.707	0.169	80.025
2935.58	0.169	79.984	0.985	-9.749	0.985	-9.749	0.169	79.984
2945.391	0.17	79.943	0.985	-9.791	0.985	-9.791	0.17	79.943
2955.203	0.171	79.903	0.985	-9.833	0.985	-9.833	0.171	79.903
2965.015	0.172	79.862	0.984	-9.875	0.984	-9.875	0.172	79.862
2974.827	0.172	79.821	0.984	-9.917	0.984	-9.917	0.172	79.821
2984.638	0.173	79.78	0.984	-9.959	0.984	-9.959	0.173	79.78
2994.45	0.174	79.74	0.984	-10.001	0.984	-10.001	0.174	79.74
3004.262	0.174	79.699	0.984	-10.042	0.984	-10.042	0.174	79.699
3014.073	0.175	79.658	0.984	-10.084	0.984	-10.084	0.175	79.658
3023.885	0.176	79.618	0.984	-10.126	0.984	-10.126	0.176	79.618
3033.697	0.177	79.577	0.984	-10.167	0.984	-10.167	0.177	79.577
3043.508	0.177	79.537	0.983	-10.209	0.983	-10.209	0.177	79.537
3053.32	0.178	79.496	0.983	-10.25	0.983	-10.25	0.178	79.496
3063.132	0.179	79.456	0.983	-10.292	0.983	-10.292	0.179	79.456
3072.944	0.179	79.415	0.983	-10.333	0.983	-10.333	0.179	79.415
3082.755	0.18	79.375	0.983	-10.375	0.983	-10.375	0.18	79.375
3092.567	0.181	79.334	0.983	-10.416	0.983	-10.416	0.181	79.334
3102.379	0.182	79.294	0.983	-10.458	0.983	-10.458	0.182	79.294
3112.19	0.182	79.254	0.982	-10.499	0.982	-10.499	0.182	79.254
3122.002	0.183	79.214	0.982	-10.54	0.982	-10.54	0.183	79.214
3131.814	0.184	79.173	0.982	-10.581	0.982	-10.581	0.184	79.173
3141.625	0.184	79.133	0.982	-10.623	0.982	-10.623	0.184	79.133
3151.437	0.185	79.093	0.982	-10.664	0.982	-10.664	0.185	79.093
3161.249	0.186	79.053	0.982	-10.705	0.982	-10.705	0.186	79.053
3171.06	0.186	79.013	0.982	-10.746	0.982	-10.746	0.186	79.013
3180.872	0.187	78.973	0.982	-10.787	0.982	-10.787	0.187	78.973
3190.684	0.188	78.932	0.981	-10.828	0.981	-10.828	0.188	78.932
3200.496	0.189	78.892	0.981	-10.869	0.981	-10.869	0.189	78.892
3210.307	0.189	78.852	0.981	-10.91	0.981	-10.91	0.189	78.852
3220.119	0.19	78.812	0.981	-10.951	0.981	-10.951	0.19	78.812
3229.931	0.191	78.772	0.981	-10.992	0.981	-10.992	0.191	78.772
3239.742	0.191	78.733	0.981	-11.032	0.981	-11.032	0.191	78.733
3249.554	0.192	78.693	0.981	-11.073	0.981	-11.073	0.192	78.693
3259.366	0.193	78.653	0.98	-11.114	0.98	-11.114	0.193	78.653
3269.177	0.193	78.613	0.98	-11.155	0.98	-11.155	0.193	78.613
3278.989	0.194	78.573	0.98	-11.195	0.98	-11.195	0.194	78.573
3288.801	0.195	78.533	0.98	-11.236	0.98	-11.236	0.195	78.533
