! AVX Thin Film Operation		Date: April 2012 
! Description: Accu-P® Series, Thin Film, SMD, RF Capacitor
! Part Number: 12101J100FBTTR					
!	100	MHz	-	10.05	GHz			
!	Serial	Measurements						
!								
#	MHZ	S	MA	R	50			
!	S11	S21	S12	S22				
!	dB	Phase	dB	Phase	dB	Phase	dB	Phase
100	0.845	-32.243	0.534	57.724	0.534	57.724	0.845	-32.243
109.812	0.821	-34.731	0.57	55.233	0.57	55.233	0.821	-34.731
119.623	0.797	-37.083	0.603	52.878	0.603	52.878	0.797	-37.083
129.435	0.773	-39.304	0.633	50.653	0.633	50.653	0.773	-39.304
139.247	0.75	-41.399	0.661	48.556	0.661	48.556	0.75	-41.399
149.058	0.726	-43.373	0.687	46.578	0.687	46.578	0.726	-43.373
158.87	0.704	-45.232	0.71	44.716	0.71	44.716	0.704	-45.232
168.682	0.682	-46.984	0.731	42.961	0.731	42.961	0.682	-46.984
178.494	0.66	-48.634	0.75	41.308	0.75	41.308	0.66	-48.634
188.305	0.639	-50.188	0.768	39.75	0.768	39.75	0.639	-50.188
198.117	0.62	-51.654	0.784	38.28	0.784	38.28	0.62	-51.654
207.929	0.6	-53.037	0.799	36.894	0.799	36.894	0.6	-53.037
217.74	0.582	-54.343	0.813	35.585	0.813	35.585	0.582	-54.343
227.552	0.564	-55.577	0.825	34.348	0.825	34.348	0.564	-55.577
237.364	0.547	-56.743	0.836	33.178	0.836	33.178	0.547	-56.743
247.175	0.531	-57.848	0.847	32.07	0.847	32.07	0.531	-57.848
256.987	0.515	-58.894	0.856	31.02	0.856	31.02	0.515	-58.894
266.799	0.5	-59.886	0.865	30.025	0.865	30.025	0.5	-59.886
276.611	0.486	-60.828	0.873	29.079	0.873	29.079	0.486	-60.828
286.422	0.472	-61.723	0.881	28.181	0.881	28.181	0.472	-61.723
296.234	0.459	-62.574	0.888	27.326	0.888	27.326	0.459	-62.574
306.046	0.446	-63.385	0.894	26.512	0.894	26.512	0.446	-63.385
315.857	0.434	-64.158	0.9	25.735	0.9	25.735	0.434	-64.158
325.669	0.423	-64.895	0.906	24.995	0.906	24.995	0.423	-64.895
335.481	0.411	-65.598	0.911	24.287	0.911	24.287	0.411	-65.598
345.292	0.401	-66.271	0.915	23.611	0.915	23.611	0.401	-66.271
355.104	0.39	-66.914	0.92	22.964	0.92	22.964	0.39	-66.914
364.916	0.38	-67.531	0.924	22.344	0.924	22.344	0.38	-67.531
374.727	0.371	-68.121	0.928	21.75	0.928	21.75	0.371	-68.121
384.539	0.361	-68.688	0.932	21.179	0.932	21.179	0.361	-68.688
394.351	0.352	-69.231	0.935	20.632	0.935	20.632	0.352	-69.231
404.163	0.344	-69.754	0.938	20.105	0.938	20.105	0.344	-69.754
413.974	0.335	-70.256	0.941	19.599	0.941	19.599	0.335	-70.256
423.786	0.327	-70.74	0.944	19.112	0.944	19.112	0.327	-70.74
433.598	0.32	-71.205	0.947	18.642	0.947	18.642	0.32	-71.205
443.409	0.312	-71.654	0.949	18.189	0.949	18.189	0.312	-71.654
453.221	0.305	-72.087	0.952	17.752	0.952	17.752	0.305	-72.087
463.033	0.298	-72.505	0.954	17.33	0.954	17.33	0.298	-72.505
472.844	0.291	-72.908	0.956	16.923	0.956	16.923	0.291	-72.908
482.656	0.284	-73.298	0.958	16.528	0.958	16.528	0.284	-73.298
492.468	0.278	-73.675	0.96	16.147	0.96	16.147	0.278	-73.675
502.279	0.272	-74.04	0.961	15.778	0.961	15.778	0.272	-74.04
512.091	0.266	-74.393	0.963	15.42	0.963	15.42	0.266	-74.393
521.903	0.26	-74.735	0.965	15.073	0.965	15.073	0.26	-74.735
531.715	0.254	-75.067	0.966	14.737	0.966	14.737	0.254	-75.067
541.526	0.249	-75.389	0.968	14.41	0.968	14.41	0.249	-75.389
551.338	0.244	-75.701	0.969	14.093	0.969	14.093	0.244	-75.701
561.15	0.238	-76.005	0.97	13.785	0.97	13.785	0.238	-76.005
570.961	0.233	-76.299	0.972	13.486	0.972	13.486	0.233	-76.299
580.773	0.228	-76.586	0.973	13.194	0.973	13.194	0.228	-76.586
590.585	0.223	-76.864	0.974	12.911	0.974	12.911	0.223	-76.864
600.396	0.219	-77.135	0.975	12.635	0.975	12.635	0.219	-77.135
610.208	0.214	-77.399	0.976	12.366	0.976	12.366	0.214	-77.399
620.02	0.21	-77.656	0.977	12.104	0.977	12.104	0.21	-77.656
629.832	0.205	-77.906	0.978	11.849	0.978	11.849	0.205	-77.906
639.643	0.201	-78.15	0.979	11.599	0.979	11.599	0.201	-78.15
649.455	0.197	-78.387	0.98	11.356	0.98	11.356	0.197	-78.387
659.267	0.193	-78.619	0.98	11.119	0.98	11.119	0.193	-78.619
669.078	0.189	-78.845	0.981	10.887	0.981	10.887	0.189	-78.845
678.89	0.185	-79.066	0.982	10.66	0.982	10.66	0.185	-79.066
688.702	0.181	-79.282	0.983	10.438	0.983	10.438	0.181	-79.282
698.513	0.177	-79.492	0.983	10.222	0.983	10.222	0.177	-79.492
708.325	0.174	-79.698	0.984	10.01	0.984	10.01	0.174	-79.698
718.137	0.17	-79.9	0.985	9.802	0.985	9.802	0.17	-79.9
727.948	0.167	-80.096	0.985	9.599	0.985	9.599	0.167	-80.096
737.76	0.163	-80.289	0.986	9.4	0.986	9.4	0.163	-80.289
747.572	0.16	-80.477	0.986	9.205	0.986	9.205	0.16	-80.477
757.384	0.157	-80.661	0.987	9.014	0.987	9.014	0.157	-80.661
767.195	0.153	-80.841	0.987	8.827	0.987	8.827	0.153	-80.841
777.007	0.15	-81.018	0.988	8.643	0.988	8.643	0.15	-81.018
786.819	0.147	-81.191	0.988	8.463	0.988	8.463	0.147	-81.191
796.63	0.144	-81.36	0.989	8.286	0.989	8.286	0.144	-81.36
806.442	0.141	-81.526	0.989	8.112	0.989	8.112	0.141	-81.526
816.254	0.138	-81.689	0.99	7.942	0.99	7.942	0.138	-81.689
826.065	0.135	-81.848	0.99	7.774	0.99	7.774	0.135	-81.848
835.877	0.132	-82.004	0.99	7.61	0.99	7.61	0.132	-82.004
845.689	0.13	-82.158	0.991	7.448	0.991	7.448	0.13	-82.158
855.5	0.127	-82.308	0.991	7.289	0.991	7.289	0.127	-82.308
865.312	0.124	-82.455	0.991	7.133	0.991	7.133	0.124	-82.455
875.124	0.122	-82.6	0.992	6.979	0.992	6.979	0.122	-82.6
884.936	0.119	-82.742	0.992	6.828	0.992	6.828	0.119	-82.742
894.747	0.116	-82.881	0.992	6.679	0.992	6.679	0.116	-82.881
904.559	0.114	-83.018	0.993	6.532	0.993	6.532	0.114	-83.018
914.371	0.111	-83.152	0.993	6.388	0.993	6.388	0.111	-83.152
924.182	0.109	-83.283	0.993	6.246	0.993	6.246	0.109	-83.283
933.994	0.106	-83.412	0.993	6.106	0.993	6.106	0.106	-83.412
943.806	0.104	-83.539	0.994	5.968	0.994	5.968	0.104	-83.539
953.617	0.102	-83.664	0.994	5.832	0.994	5.832	0.102	-83.664
963.429	0.099	-83.786	0.994	5.698	0.994	5.698	0.099	-83.786
973.241	0.097	-83.905	0.994	5.566	0.994	5.566	0.097	-83.905
983.053	0.095	-84.023	0.995	5.435	0.995	5.435	0.095	-84.023
992.864	0.092	-84.138	0.995	5.307	0.995	5.307	0.092	-84.138
1002.676	0.09	-84.251	0.995	5.18	0.995	5.18	0.09	-84.251
1012.488	0.088	-84.362	0.995	5.055	0.995	5.055	0.088	-84.362
1022.299	0.086	-84.471	0.995	4.931	0.995	4.931	0.086	-84.471
1032.111	0.084	-84.578	0.996	4.81	0.996	4.81	0.084	-84.578
1041.923	0.082	-84.683	0.996	4.689	0.996	4.689	0.082	-84.683
1051.734	0.08	-84.785	0.996	4.57	0.996	4.57	0.08	-84.785
1061.546	0.078	-84.885	0.996	4.453	0.996	4.453	0.078	-84.885
1071.358	0.076	-84.984	0.996	4.337	0.996	4.337	0.076	-84.984
1081.169	0.074	-85.08	0.996	4.222	0.996	4.222	0.074	-85.08
1090.981	0.072	-85.174	0.997	4.109	0.997	4.109	0.072	-85.174
1100.793	0.07	-85.266	0.997	3.997	0.997	3.997	0.07	-85.266
1110.605	0.068	-85.355	0.997	3.886	0.997	3.886	0.068	-85.355
1120.416	0.066	-85.443	0.997	3.777	0.997	3.777	0.066	-85.443
1130.228	0.064	-85.528	0.997	3.669	0.997	3.669	0.064	-85.528
1140.04	0.062	-85.61	0.997	3.562	0.997	3.562	0.062	-85.61
1149.851	0.06	-85.691	0.997	3.456	0.997	3.456	0.06	-85.691
1159.663	0.058	-85.769	0.997	3.351	0.997	3.351	0.058	-85.769
1169.475	0.057	-85.844	0.997	3.247	0.997	3.247	0.057	-85.844
1179.286	0.055	-85.917	0.998	3.145	0.998	3.145	0.055	-85.917
1189.098	0.053	-85.988	0.998	3.043	0.998	3.043	0.053	-85.988
1198.91	0.051	-86.055	0.998	2.943	0.998	2.943	0.051	-86.055
1208.722	0.05	-86.119	0.998	2.843	0.998	2.843	0.05	-86.119
1218.533	0.048	-86.181	0.998	2.745	0.998	2.745	0.048	-86.181
1228.345	0.046	-86.238	0.998	2.647	0.998	2.647	0.046	-86.238
1238.157	0.045	-86.293	0.998	2.55	0.998	2.55	0.045	-86.293
1247.968	0.043	-86.343	0.998	2.455	0.998	2.455	0.043	-86.343
1257.78	0.041	-86.39	0.998	2.36	0.998	2.36	0.041	-86.39
1267.592	0.04	-86.432	0.998	2.266	0.998	2.266	0.04	-86.432
1277.403	0.038	-86.469	0.998	2.173	0.998	2.173	0.038	-86.469
1287.215	0.036	-86.501	0.998	2.08	0.998	2.08	0.036	-86.501
1297.027	0.035	-86.528	0.998	1.989	0.998	1.989	0.035	-86.528
1306.838	0.033	-86.547	0.999	1.898	0.999	1.898	0.033	-86.547
1316.65	0.032	-86.56	0.999	1.808	0.999	1.808	0.032	-86.56
1326.462	0.03	-86.564	0.999	1.719	0.999	1.719	0.03	-86.564
1336.274	0.028	-86.56	0.999	1.63	0.999	1.63	0.028	-86.56
1346.085	0.027	-86.545	0.999	1.543	0.999	1.543	0.027	-86.545
1355.897	0.025	-86.517	0.999	1.456	0.999	1.456	0.025	-86.517
1365.709	0.024	-86.476	0.999	1.369	0.999	1.369	0.024	-86.476
1375.52	0.022	-86.418	0.999	1.284	0.999	1.284	0.022	-86.418
1385.332	0.021	-86.34	0.999	1.199	0.999	1.199	0.021	-86.34
1395.144	0.019	-86.239	0.999	1.115	0.999	1.115	0.019	-86.239
1404.955	0.018	-86.108	0.999	1.031	0.999	1.031	0.018	-86.108
1414.767	0.017	-85.941	0.999	0.948	0.999	0.948	0.017	-85.941
1424.579	0.015	-85.727	0.999	0.865	0.999	0.865	0.015	-85.727
1434.39	0.014	-85.454	0.999	0.784	0.999	0.784	0.014	-85.454
1444.202	0.012	-85.102	0.999	0.702	0.999	0.702	0.012	-85.102
1454.014	0.011	-84.641	0.999	0.622	0.999	0.622	0.011	-84.641
1463.826	9.50E-03	-84.024	0.999	0.542	0.999	0.542	9.50E-03	-84.024
1473.637	8.12E-03	-83.176	0.999	0.462	0.999	0.462	8.12E-03	-83.176
1483.449	6.75E-03	-81.958	0.999	0.383	0.999	0.383	6.75E-03	-81.958
1493.261	5.40E-03	-80.098	0.999	0.305	0.999	0.305	5.40E-03	-80.098
1503.072	4.06E-03	-76.975	0.999	0.227	0.999	0.227	4.06E-03	-76.975
1512.884	2.76E-03	-70.827	0.999	0.149	0.999	0.149	2.76E-03	-70.827
1522.696	1.55E-03	-54.55	0.999	0.073	0.999	0.073	1.55E-03	-54.55
1532.507	9.02E-04	4.237	0.999	-3.82E-03	0.999	-3.82E-03	9.02E-04	4.237
1542.319	1.66E-03	57.044	0.999	-0.08	0.999	-0.08	1.66E-03	57.044
1552.131	2.85E-03	71.472	0.999	-0.155	0.999	-0.155	2.85E-03	71.472
1561.943	4.12E-03	77.147	0.999	-0.23	0.999	-0.23	4.12E-03	77.147
1571.754	5.39E-03	80.093	0.999	-0.305	0.999	-0.305	5.39E-03	80.093
1581.566	6.67E-03	81.872	0.999	-0.379	0.999	-0.379	6.67E-03	81.872
1591.378	7.94E-03	83.047	0.999	-0.452	0.999	-0.452	7.94E-03	83.047
1601.189	9.21E-03	83.873	0.999	-0.525	0.999	-0.525	9.21E-03	83.873
1611.001	0.01	84.478	0.999	-0.598	0.999	-0.598	0.01	84.478
1620.813	0.012	84.935	0.999	-0.67	0.999	-0.67	0.012	84.935
1630.624	0.013	85.287	0.999	-0.742	0.999	-0.742	0.013	85.287
1640.436	0.014	85.563	0.999	-0.814	0.999	-0.814	0.014	85.563
1650.248	0.015	85.783	0.999	-0.885	0.999	-0.885	0.015	85.783
1660.059	0.017	85.958	0.999	-0.956	0.999	-0.956	0.017	85.958
1669.871	0.018	86.099	0.999	-1.026	0.999	-1.026	0.018	86.099
1679.683	0.019	86.212	0.999	-1.096	0.999	-1.096	0.019	86.212
1689.495	0.02	86.303	0.999	-1.165	0.999	-1.165	0.02	86.303
1699.306	0.022	86.376	0.999	-1.235	0.999	-1.235	0.022	86.376
1709.118	0.023	86.433	0.999	-1.303	0.999	-1.303	0.023	86.433
1718.93	0.024	86.477	0.999	-1.372	0.999	-1.372	0.024	86.477
1728.741	0.025	86.511	0.999	-1.44	0.999	-1.44	0.025	86.511
1738.553	0.026	86.535	0.999	-1.508	0.999	-1.508	0.026	86.535
1748.365	0.028	86.552	0.999	-1.575	0.999	-1.575	0.028	86.552
1758.176	0.029	86.561	0.999	-1.642	0.999	-1.642	0.029	86.561
1767.988	0.03	86.564	0.999	-1.709	0.999	-1.709	0.03	86.564
1777.8	0.031	86.563	0.999	-1.776	0.999	-1.776	0.031	86.563
1787.611	0.032	86.556	0.999	-1.842	0.999	-1.842	0.032	86.556
1797.423	0.033	86.546	0.999	-1.908	0.999	-1.908	0.033	86.546
1807.235	0.034	86.531	0.999	-1.973	0.999	-1.973	0.034	86.531
1817.047	0.036	86.514	0.998	-2.038	0.998	-2.038	0.036	86.514
1826.858	0.037	86.494	0.998	-2.103	0.998	-2.103	0.037	86.494
1836.67	0.038	86.471	0.998	-2.168	0.998	-2.168	0.038	86.471
1846.482	0.039	86.446	0.998	-2.232	0.998	-2.232	0.039	86.446
1856.293	0.04	86.419	0.998	-2.296	0.998	-2.296	0.04	86.419
1866.105	0.041	86.39	0.998	-2.36	0.998	-2.36	0.041	86.39
1875.917	0.042	86.359	0.998	-2.424	0.998	-2.424	0.042	86.359
1885.728	0.043	86.327	0.998	-2.487	0.998	-2.487	0.043	86.327
1895.54	0.044	86.293	0.998	-2.55	0.998	-2.55	0.044	86.293
1905.352	0.046	86.258	0.998	-2.613	0.998	-2.613	0.046	86.258
1915.164	0.047	86.222	0.998	-2.675	0.998	-2.675	0.047	86.222
1924.975	0.048	86.185	0.998	-2.737	0.998	-2.737	0.048	86.185
1934.787	0.049	86.147	0.998	-2.799	0.998	-2.799	0.049	86.147
1944.599	0.05	86.108	0.998	-2.861	0.998	-2.861	0.05	86.108
1954.41	0.051	86.068	0.998	-2.922	0.998	-2.922	0.051	86.068
1964.222	0.052	86.028	0.998	-2.984	0.998	-2.984	0.052	86.028
1974.034	0.053	85.987	0.998	-3.045	0.998	-3.045	0.053	85.987
1983.845	0.054	85.945	0.998	-3.105	0.998	-3.105	0.054	85.945
1993.657	0.055	85.903	0.998	-3.166	0.998	-3.166	0.055	85.903
2003.469	0.056	85.86	0.998	-3.226	0.998	-3.226	0.056	85.86
2013.28	0.057	85.816	0.997	-3.286	0.997	-3.286	0.057	85.816
2023.092	0.058	85.773	0.997	-3.346	0.997	-3.346	0.058	85.773
2032.904	0.059	85.729	0.997	-3.406	0.997	-3.406	0.059	85.729
2042.716	0.06	85.684	0.997	-3.465	0.997	-3.465	0.06	85.684
2052.527	0.061	85.639	0.997	-3.524	0.997	-3.524	0.061	85.639
2062.339	0.063	85.594	0.997	-3.583	0.997	-3.583	0.063	85.594
2072.151	0.064	85.549	0.997	-3.642	0.997	-3.642	0.064	85.549
2081.962	0.065	85.503	0.997	-3.7	0.997	-3.7	0.065	85.503
2091.774	0.066	85.457	0.997	-3.759	0.997	-3.759	0.066	85.457
2101.586	0.067	85.411	0.997	-3.817	0.997	-3.817	0.067	85.411
2111.397	0.068	85.364	0.997	-3.875	0.997	-3.875	0.068	85.364
2121.209	0.069	85.318	0.997	-3.933	0.997	-3.933	0.069	85.318
2131.021	0.07	85.271	0.997	-3.99	0.997	-3.99	0.07	85.271
2140.833	0.071	85.224	0.997	-4.048	0.997	-4.048	0.071	85.224
2150.644	0.072	85.177	0.997	-4.105	0.997	-4.105	0.072	85.177
2160.456	0.073	85.13	0.996	-4.162	0.996	-4.162	0.073	85.13
2170.268	0.074	85.083	0.996	-4.219	0.996	-4.219	0.074	85.083
2180.079	0.075	85.035	0.996	-4.275	0.996	-4.275	0.075	85.035
2189.891	0.076	84.988	0.996	-4.332	0.996	-4.332	0.076	84.988
2199.703	0.077	84.94	0.996	-4.388	0.996	-4.388	0.077	84.94
2209.514	0.077	84.893	0.996	-4.444	0.996	-4.444	0.077	84.893
2219.326	0.078	84.845	0.996	-4.5	0.996	-4.5	0.078	84.845
2229.138	0.079	84.797	0.996	-4.556	0.996	-4.556	0.079	84.797
2238.949	0.08	84.749	0.996	-4.612	0.996	-4.612	0.08	84.749
2248.761	0.081	84.702	0.996	-4.667	0.996	-4.667	0.081	84.702
2258.573	0.082	84.654	0.996	-4.723	0.996	-4.723	0.082	84.654
2268.385	0.083	84.606	0.996	-4.778	0.996	-4.778	0.083	84.606
2278.196	0.084	84.558	0.996	-4.833	0.996	-4.833	0.084	84.558
2288.008	0.085	84.51	0.995	-4.888	0.995	-4.888	0.085	84.51
2297.82	0.086	84.462	0.995	-4.942	0.995	-4.942	0.086	84.462
2307.631	0.087	84.414	0.995	-4.997	0.995	-4.997	0.087	84.414
2317.443	0.088	84.366	0.995	-5.051	0.995	-5.051	0.088	84.366
2327.255	0.089	84.318	0.995	-5.105	0.995	-5.105	0.089	84.318
2337.066	0.09	84.27	0.995	-5.16	0.995	-5.16	0.09	84.27
2346.878	0.091	84.222	0.995	-5.213	0.995	-5.213	0.091	84.222
2356.69	0.092	84.174	0.995	-5.267	0.995	-5.267	0.092	84.174
2366.501	0.093	84.126	0.995	-5.321	0.995	-5.321	0.093	84.126
2376.313	0.094	84.078	0.995	-5.374	0.995	-5.374	0.094	84.078
2386.125	0.095	84.03	0.995	-5.428	0.995	-5.428	0.095	84.03
2395.937	0.096	83.982	0.995	-5.481	0.995	-5.481	0.096	83.982
2405.748	0.096	83.934	0.994	-5.534	0.994	-5.534	0.096	83.934
2415.56	0.097	83.886	0.994	-5.587	0.994	-5.587	0.097	83.886
2425.372	0.098	83.838	0.994	-5.64	0.994	-5.64	0.098	83.838
2435.183	0.099	83.79	0.994	-5.693	0.994	-5.693	0.099	83.79
2444.995	0.1	83.743	0.994	-5.745	0.994	-5.745	0.1	83.743
2454.807	0.101	83.695	0.994	-5.798	0.994	-5.798	0.101	83.695
2464.618	0.102	83.647	0.994	-5.85	0.994	-5.85	0.102	83.647
2474.43	0.103	83.599	0.994	-5.902	0.994	-5.902	0.103	83.599
2484.242	0.104	83.552	0.994	-5.954	0.994	-5.954	0.104	83.552
2494.054	0.105	83.504	0.994	-6.006	0.994	-6.006	0.105	83.504
2503.865	0.106	83.456	0.994	-6.058	0.994	-6.058	0.106	83.456
2513.677	0.106	83.409	0.993	-6.11	0.993	-6.11	0.106	83.409
2523.489	0.107	83.361	0.993	-6.161	0.993	-6.161	0.107	83.361
2533.3	0.108	83.314	0.993	-6.213	0.993	-6.213	0.108	83.314
2543.112	0.109	83.266	0.993	-6.264	0.993	-6.264	0.109	83.266
2552.924	0.11	83.219	0.993	-6.315	0.993	-6.315	0.11	83.219
2562.735	0.111	83.172	0.993	-6.366	0.993	-6.366	0.111	83.172
2572.547	0.112	83.124	0.993	-6.417	0.993	-6.417	0.112	83.124
2582.359	0.113	83.077	0.993	-6.468	0.993	-6.468	0.113	83.077
2592.17	0.114	83.03	0.993	-6.519	0.993	-6.519	0.114	83.03
2601.982	0.114	82.983	0.993	-6.57	0.993	-6.57	0.114	82.983
2611.794	0.115	82.936	0.992	-6.62	0.992	-6.62	0.115	82.936
2621.606	0.116	82.889	0.992	-6.671	0.992	-6.671	0.116	82.889
2631.417	0.117	82.842	0.992	-6.721	0.992	-6.721	0.117	82.842
2641.229	0.118	82.795	0.992	-6.771	0.992	-6.771	0.118	82.795
2651.041	0.119	82.748	0.992	-6.822	0.992	-6.822	0.119	82.748
2660.852	0.12	82.701	0.992	-6.872	0.992	-6.872	0.12	82.701
2670.664	0.121	82.654	0.992	-6.922	0.992	-6.922	0.121	82.654
2680.476	0.121	82.607	0.992	-6.971	0.992	-6.971	0.121	82.607
2690.287	0.122	82.56	0.992	-7.021	0.992	-7.021	0.122	82.56
2700.099	0.123	82.514	0.992	-7.071	0.992	-7.071	0.123	82.514
2709.911	0.124	82.467	0.991	-7.12	0.991	-7.12	0.124	82.467
2719.722	0.125	82.421	0.991	-7.17	0.991	-7.17	0.125	82.421
2729.534	0.126	82.374	0.991	-7.219	0.991	-7.219	0.126	82.374
2739.346	0.127	82.328	0.991	-7.268	0.991	-7.268	0.127	82.328
2749.158	0.127	82.281	0.991	-7.317	0.991	-7.317	0.127	82.281
2758.969	0.128	82.235	0.991	-7.367	0.991	-7.367	0.128	82.235
2768.781	0.129	82.189	0.991	-7.415	0.991	-7.415	0.129	82.189
2778.593	0.13	82.142	0.991	-7.464	0.991	-7.464	0.13	82.142
2788.404	0.131	82.096	0.991	-7.513	0.991	-7.513	0.131	82.096
2798.216	0.132	82.05	0.99	-7.562	0.99	-7.562	0.132	82.05
2808.028	0.132	82.004	0.99	-7.61	0.99	-7.61	0.132	82.004
2817.839	0.133	81.958	0.99	-7.659	0.99	-7.659	0.133	81.958
2827.651	0.134	81.912	0.99	-7.707	0.99	-7.707	0.134	81.912
2837.463	0.135	81.866	0.99	-7.756	0.99	-7.756	0.135	81.866
2847.275	0.136	81.82	0.99	-7.804	0.99	-7.804	0.136	81.82
2857.086	0.137	81.774	0.99	-7.852	0.99	-7.852	0.137	81.774
2866.898	0.137	81.728	0.99	-7.9	0.99	-7.9	0.137	81.728
2876.71	0.138	81.683	0.99	-7.948	0.99	-7.948	0.138	81.683
2886.521	0.139	81.637	0.989	-7.996	0.989	-7.996	0.139	81.637
2896.333	0.14	81.591	0.989	-8.044	0.989	-8.044	0.14	81.591
2906.145	0.141	81.546	0.989	-8.092	0.989	-8.092	0.141	81.546
2915.956	0.142	81.5	0.989	-8.139	0.989	-8.139	0.142	81.5
2925.768	0.142	81.455	0.989	-8.187	0.989	-8.187	0.142	81.455
2935.58	0.143	81.409	0.989	-8.234	0.989	-8.234	0.143	81.409
2945.391	0.144	81.364	0.989	-8.282	0.989	-8.282	0.144	81.364
2955.203	0.145	81.319	0.989	-8.329	0.989	-8.329	0.145	81.319
2965.015	0.146	81.274	0.988	-8.376	0.988	-8.376	0.146	81.274
2974.827	0.146	81.228	0.988	-8.424	0.988	-8.424	0.146	81.228
2984.638	0.147	81.183	0.988	-8.471	0.988	-8.471	0.147	81.183
2994.45	0.148	81.138	0.988	-8.518	0.988	-8.518	0.148	81.138
3004.262	0.149	81.093	0.988	-8.565	0.988	-8.565	0.149	81.093
3014.073	0.15	81.048	0.988	-8.612	0.988	-8.612	0.15	81.048
3023.885	0.151	81.003	0.988	-8.658	0.988	-8.658	0.151	81.003
3033.697	0.151	80.958	0.988	-8.705	0.988	-8.705	0.151	80.958
3043.508	0.152	80.913	0.987	-8.752	0.987	-8.752	0.152	80.913
3053.32	0.153	80.869	0.987	-8.798	0.987	-8.798	0.153	80.869
3063.132	0.154	80.824	0.987	-8.845	0.987	-8.845	0.154	80.824
3072.944	0.155	80.779	0.987	-8.891	0.987	-8.891	0.155	80.779
3082.755	0.155	80.734	0.987	-8.938	0.987	-8.938	0.155	80.734
3092.567	0.156	80.69	0.987	-8.984	0.987	-8.984	0.156	80.69
3102.379	0.157	80.645	0.987	-9.03	0.987	-9.03	0.157	80.645
3112.19	0.158	80.601	0.987	-9.077	0.987	-9.077	0.158	80.601
3122.002	0.159	80.556	0.986	-9.123	0.986	-9.123	0.159	80.556
3131.814	0.159	80.512	0.986	-9.169	0.986	-9.169	0.159	80.512
3141.625	0.16	80.468	0.986	-9.215	0.986	-9.215	0.16	80.468
3151.437	0.161	80.423	0.986	-9.261	0.986	-9.261	0.161	80.423
3161.249	0.162	80.379	0.986	-9.306	0.986	-9.306	0.162	80.379
3171.06	0.163	80.335	0.986	-9.352	0.986	-9.352	0.163	80.335
3180.872	0.163	80.291	0.986	-9.398	0.986	-9.398	0.163	80.291
3190.684	0.164	80.247	0.986	-9.444	0.986	-9.444	0.164	80.247
3200.496	0.165	80.203	0.985	-9.489	0.985	-9.489	0.165	80.203
3210.307	0.166	80.159	0.985	-9.535	0.985	-9.535	0.166	80.159
3220.119	0.166	80.115	0.985	-9.58	0.985	-9.58	0.166	80.115
3229.931	0.167	80.071	0.985	-9.625	0.985	-9.625	0.167	80.071
3239.742	0.168	80.027	0.985	-9.671	0.985	-9.671	0.168	80.027
3249.554	0.169	79.983	0.985	-9.716	0.985	-9.716	0.169	79.983
3259.366	0.17	79.939	0.985	-9.761	0.985	-9.761	0.17	79.939
3269.177	0.17	79.896	0.985	-9.806	0.985	-9.806	0.17	79.896
3278.989	0.171	79.852	0.984	-9.851	0.984	-9.851	0.171	79.852
3288.801	0.172	79.808	0.984	-9.896	0.984	-9.896	0.172	79.808
