! AVX Thin Film Operation		Date: April 2012 
! Description: Accu-P® Series, Thin Film, SMD, RF Capacitor
! Part Number: 12101J390FBTTR					
!	100	MHz	-	10.05	GHz			
!	Serial	Measurements						
!								
#	MHZ	S	MA	R	50			
!	S11	S21	S12	S22				
!	dB	Phase	dB	Phase	dB	Phase	dB	Phase
100	0.372	-68.048	0.927	21.852	0.927	21.852	0.372	-68.048
109.812	0.342	-69.892	0.939	19.998	0.939	19.998	0.342	-69.892
119.623	0.316	-71.472	0.948	18.407	0.948	18.407	0.316	-71.472
129.435	0.293	-72.84	0.955	17.029	0.955	17.029	0.293	-72.84
139.247	0.273	-74.034	0.961	15.824	0.961	15.824	0.273	-74.034
149.058	0.255	-75.087	0.966	14.761	0.966	14.761	0.255	-75.087
158.87	0.239	-76.021	0.97	13.816	0.97	13.816	0.239	-76.021
168.682	0.224	-76.855	0.974	12.971	0.974	12.971	0.224	-76.855
178.494	0.211	-77.606	0.977	12.209	0.977	12.209	0.211	-77.606
188.305	0.2	-78.284	0.979	11.519	0.979	11.519	0.2	-78.284
198.117	0.189	-78.9	0.981	10.891	0.981	10.891	0.189	-78.9
207.929	0.179	-79.463	0.983	10.317	0.983	10.317	0.179	-79.463
217.74	0.17	-79.979	0.985	9.789	0.985	9.789	0.17	-79.979
227.552	0.162	-80.453	0.986	9.302	0.986	9.302	0.162	-80.453
237.364	0.154	-80.891	0.987	8.851	0.987	8.851	0.154	-80.891
247.175	0.147	-81.298	0.988	8.432	0.988	8.432	0.147	-81.298
256.987	0.14	-81.675	0.989	8.041	0.989	8.041	0.14	-81.675
266.799	0.134	-82.027	0.99	7.676	0.99	7.676	0.134	-82.027
276.611	0.128	-82.356	0.991	7.333	0.991	7.333	0.128	-82.356
286.422	0.122	-82.664	0.992	7.01	0.992	7.01	0.122	-82.664
296.234	0.117	-82.953	0.992	6.707	0.992	6.707	0.117	-82.953
306.046	0.112	-83.224	0.993	6.419	0.993	6.419	0.112	-83.224
315.857	0.107	-83.48	0.994	6.147	0.994	6.147	0.107	-83.48
325.669	0.103	-83.722	0.994	5.889	0.994	5.889	0.103	-83.722
335.481	0.098	-83.95	0.994	5.644	0.994	5.644	0.098	-83.95
345.292	0.094	-84.167	0.995	5.41	0.995	5.41	0.094	-84.167
355.104	0.09	-84.371	0.995	5.187	0.995	5.187	0.09	-84.371
364.916	0.087	-84.566	0.996	4.974	0.996	4.974	0.087	-84.566
374.727	0.083	-84.75	0.996	4.769	0.996	4.769	0.083	-84.75
384.539	0.08	-84.925	0.996	4.574	0.996	4.574	0.08	-84.925
394.351	0.076	-85.092	0.996	4.385	0.996	4.385	0.076	-85.092
404.163	0.073	-85.25	0.997	4.204	0.997	4.204	0.073	-85.25
413.974	0.07	-85.401	0.997	4.03	0.997	4.03	0.07	-85.401
423.786	0.067	-85.544	0.997	3.862	0.997	3.862	0.067	-85.544
433.598	0.065	-85.68	0.997	3.7	0.997	3.7	0.065	-85.68
443.409	0.062	-85.809	0.997	3.543	0.997	3.543	0.062	-85.809
453.221	0.059	-85.932	0.998	3.392	0.998	3.392	0.059	-85.932
463.033	0.057	-86.048	0.998	3.245	0.998	3.245	0.057	-86.048
472.844	0.054	-86.158	0.998	3.103	0.998	3.103	0.054	-86.158
482.656	0.052	-86.262	0.998	2.964	0.998	2.964	0.052	-86.262
492.468	0.049	-86.359	0.998	2.83	0.998	2.83	0.049	-86.359
502.279	0.047	-86.45	0.998	2.7	0.998	2.7	0.047	-86.45
512.091	0.045	-86.535	0.998	2.573	0.998	2.573	0.045	-86.535
521.903	0.043	-86.614	0.998	2.449	0.998	2.449	0.043	-86.614
531.715	0.041	-86.686	0.998	2.329	0.998	2.329	0.041	-86.686
541.526	0.039	-86.751	0.999	2.211	0.999	2.211	0.039	-86.751
551.338	0.037	-86.809	0.999	2.096	0.999	2.096	0.037	-86.809
561.15	0.035	-86.859	0.999	1.984	0.999	1.984	0.035	-86.859
570.961	0.033	-86.901	0.999	1.875	0.999	1.875	0.033	-86.901
580.773	0.031	-86.934	0.999	1.768	0.999	1.768	0.031	-86.934
590.585	0.029	-86.957	0.999	1.663	0.999	1.663	0.029	-86.957
600.396	0.027	-86.968	0.999	1.56	0.999	1.56	0.027	-86.968
610.208	0.025	-86.968	0.999	1.46	0.999	1.46	0.025	-86.968
620.02	0.024	-86.952	0.999	1.361	0.999	1.361	0.024	-86.952
629.832	0.022	-86.92	0.999	1.264	0.999	1.264	0.022	-86.92
639.643	0.02	-86.868	0.999	1.169	0.999	1.169	0.02	-86.868
649.455	0.019	-86.791	0.999	1.076	0.999	1.076	0.019	-86.791
659.267	0.017	-86.684	0.999	0.984	0.999	0.984	0.017	-86.684
669.078	0.016	-86.54	0.999	0.894	0.999	0.894	0.016	-86.54
678.89	0.014	-86.347	0.999	0.806	0.999	0.806	0.014	-86.347
688.702	0.013	-86.089	0.999	0.719	0.999	0.719	0.013	-86.089
698.513	0.011	-85.744	0.999	0.633	0.999	0.633	0.011	-85.744
708.325	9.60E-03	-85.272	0.999	0.549	0.999	0.549	9.60E-03	-85.272
718.137	8.15E-03	-84.612	0.999	0.465	0.999	0.465	8.15E-03	-84.612
727.948	6.73E-03	-83.649	0.999	0.383	0.999	0.383	6.73E-03	-83.649
737.76	5.33E-03	-82.154	0.999	0.303	0.999	0.303	5.33E-03	-82.154
747.572	3.96E-03	-79.589	0.999	0.223	0.999	0.223	3.96E-03	-79.589
757.384	2.62E-03	-74.348	0.999	0.144	0.999	0.144	2.62E-03	-74.348
767.195	1.36E-03	-59.013	0.999	0.067	0.999	0.067	1.36E-03	-59.013
777.007	7.20E-04	13.496	0.999	-9.63E-03	0.999	-9.63E-03	7.20E-04	13.496
786.819	1.64E-03	64.724	0.999	-0.085	0.999	-0.085	1.64E-03	64.724
796.63	2.88E-03	75.766	0.999	-0.16	0.999	-0.16	2.88E-03	75.766
806.442	4.14E-03	80.032	0.999	-0.234	0.999	-0.234	4.14E-03	80.032
816.254	5.40E-03	82.245	0.999	-0.307	0.999	-0.307	5.40E-03	82.245
826.065	6.65E-03	83.579	0.999	-0.379	0.999	-0.379	6.65E-03	83.579
835.877	7.88E-03	84.459	0.999	-0.45	0.999	-0.45	7.88E-03	84.459
845.689	9.11E-03	85.076	0.999	-0.52	0.999	-0.52	9.11E-03	85.076
855.5	0.01	85.525	0.999	-0.59	0.999	-0.59	0.01	85.525
865.312	0.012	85.862	0.999	-0.659	0.999	-0.659	0.012	85.862
875.124	0.013	86.119	0.999	-0.728	0.999	-0.728	0.013	86.119
884.936	0.014	86.32	0.999	-0.795	0.999	-0.795	0.014	86.32
894.747	0.015	86.477	0.999	-0.862	0.999	-0.862	0.015	86.477
904.559	0.016	86.6	0.999	-0.929	0.999	-0.929	0.016	86.6
914.371	0.017	86.698	0.999	-0.995	0.999	-0.995	0.017	86.698
924.182	0.019	86.774	0.999	-1.06	0.999	-1.06	0.019	86.774
933.994	0.02	86.834	0.999	-1.124	0.999	-1.124	0.02	86.834
943.806	0.021	86.88	0.999	-1.189	0.999	-1.189	0.021	86.88
953.617	0.022	86.915	0.999	-1.252	0.999	-1.252	0.022	86.915
963.429	0.023	86.939	0.999	-1.315	0.999	-1.315	0.023	86.939
973.241	0.024	86.956	0.999	-1.378	0.999	-1.378	0.024	86.956
983.053	0.025	86.966	0.999	-1.44	0.999	-1.44	0.025	86.966
992.864	0.026	86.97	0.999	-1.501	0.999	-1.501	0.026	86.97
1002.676	0.027	86.968	0.999	-1.562	0.999	-1.562	0.027	86.968
1012.488	0.028	86.963	0.999	-1.623	0.999	-1.623	0.028	86.963
1022.299	0.029	86.953	0.999	-1.683	0.999	-1.683	0.029	86.953
1032.111	0.03	86.94	0.999	-1.743	0.999	-1.743	0.03	86.94
1041.923	0.031	86.924	0.999	-1.802	0.999	-1.802	0.031	86.924
1051.734	0.032	86.905	0.999	-1.861	0.999	-1.861	0.032	86.905
1061.546	0.034	86.885	0.999	-1.92	0.999	-1.92	0.034	86.885
1071.358	0.035	86.862	0.999	-1.978	0.999	-1.978	0.035	86.862
1081.169	0.036	86.837	0.999	-2.036	0.999	-2.036	0.036	86.837
1090.981	0.037	86.81	0.999	-2.093	0.999	-2.093	0.037	86.81
1100.793	0.038	86.782	0.999	-2.15	0.999	-2.15	0.038	86.782
1110.605	0.039	86.753	0.999	-2.207	0.999	-2.207	0.039	86.753
1120.416	0.04	86.722	0.999	-2.263	0.999	-2.263	0.04	86.722
1130.228	0.04	86.691	0.998	-2.32	0.998	-2.32	0.04	86.691
1140.04	0.041	86.658	0.998	-2.375	0.998	-2.375	0.041	86.658
1149.851	0.042	86.625	0.998	-2.431	0.998	-2.431	0.042	86.625
1159.663	0.043	86.591	0.998	-2.486	0.998	-2.486	0.043	86.591
1169.475	0.044	86.556	0.998	-2.541	0.998	-2.541	0.044	86.556
1179.286	0.045	86.52	0.998	-2.595	0.998	-2.595	0.045	86.52
1189.098	0.046	86.484	0.998	-2.65	0.998	-2.65	0.046	86.484
1198.91	0.047	86.447	0.998	-2.704	0.998	-2.704	0.047	86.447
1208.722	0.048	86.41	0.998	-2.758	0.998	-2.758	0.048	86.41
1218.533	0.049	86.373	0.998	-2.811	0.998	-2.811	0.049	86.373
1228.345	0.05	86.334	0.998	-2.864	0.998	-2.864	0.05	86.334
1238.157	0.051	86.296	0.998	-2.918	0.998	-2.918	0.051	86.296
1247.968	0.052	86.257	0.998	-2.97	0.998	-2.97	0.052	86.257
1257.78	0.053	86.218	0.998	-3.023	0.998	-3.023	0.053	86.218
1267.592	0.054	86.179	0.998	-3.075	0.998	-3.075	0.054	86.179
1277.403	0.055	86.139	0.998	-3.127	0.998	-3.127	0.055	86.139
1287.215	0.055	86.099	0.998	-3.179	0.998	-3.179	0.055	86.099
1297.027	0.056	86.059	0.998	-3.231	0.998	-3.231	0.056	86.059
1306.838	0.057	86.019	0.998	-3.282	0.998	-3.282	0.057	86.019
1316.65	0.058	85.978	0.998	-3.334	0.998	-3.334	0.058	85.978
1326.462	0.059	85.938	0.998	-3.385	0.998	-3.385	0.059	85.938
1336.274	0.06	85.897	0.998	-3.435	0.998	-3.435	0.06	85.897
1346.085	0.061	85.856	0.997	-3.486	0.997	-3.486	0.061	85.856
1355.897	0.062	85.815	0.997	-3.537	0.997	-3.537	0.062	85.815
1365.709	0.063	85.774	0.997	-3.587	0.997	-3.587	0.063	85.774
1375.52	0.063	85.732	0.997	-3.637	0.997	-3.637	0.063	85.732
1385.332	0.064	85.691	0.997	-3.687	0.997	-3.687	0.064	85.691
1395.144	0.065	85.65	0.997	-3.737	0.997	-3.737	0.065	85.65
1404.955	0.066	85.608	0.997	-3.786	0.997	-3.786	0.066	85.608
1414.767	0.067	85.567	0.997	-3.836	0.997	-3.836	0.067	85.567
1424.579	0.068	85.525	0.997	-3.885	0.997	-3.885	0.068	85.525
1434.39	0.069	85.483	0.997	-3.934	0.997	-3.934	0.069	85.483
1444.202	0.069	85.441	0.997	-3.983	0.997	-3.983	0.069	85.441
1454.014	0.07	85.4	0.997	-4.032	0.997	-4.032	0.07	85.4
1463.826	0.071	85.358	0.997	-4.08	0.997	-4.08	0.071	85.358
1473.637	0.072	85.316	0.997	-4.129	0.997	-4.129	0.072	85.316
1483.449	0.073	85.274	0.997	-4.177	0.997	-4.177	0.073	85.274
1493.261	0.074	85.232	0.997	-4.225	0.997	-4.225	0.074	85.232
1503.072	0.075	85.19	0.997	-4.273	0.997	-4.273	0.075	85.19
1512.884	0.075	85.148	0.996	-4.321	0.996	-4.321	0.075	85.148
1522.696	0.076	85.106	0.996	-4.369	0.996	-4.369	0.076	85.106
1532.507	0.077	85.064	0.996	-4.417	0.996	-4.417	0.077	85.064
1542.319	0.078	85.022	0.996	-4.464	0.996	-4.464	0.078	85.022
1552.131	0.079	84.981	0.996	-4.511	0.996	-4.511	0.079	84.981
1561.943	0.079	84.939	0.996	-4.559	0.996	-4.559	0.079	84.939
1571.754	0.08	84.897	0.996	-4.606	0.996	-4.606	0.08	84.897
1581.566	0.081	84.855	0.996	-4.653	0.996	-4.653	0.081	84.855
1591.378	0.082	84.813	0.996	-4.7	0.996	-4.7	0.082	84.813
1601.189	0.083	84.771	0.996	-4.746	0.996	-4.746	0.083	84.771
1611.001	0.084	84.729	0.996	-4.793	0.996	-4.793	0.084	84.729
1620.813	0.084	84.687	0.996	-4.84	0.996	-4.84	0.084	84.687
1630.624	0.085	84.645	0.996	-4.886	0.996	-4.886	0.085	84.645
1640.436	0.086	84.603	0.996	-4.932	0.996	-4.932	0.086	84.603
1650.248	0.087	84.561	0.996	-4.979	0.996	-4.979	0.087	84.561
1660.059	0.088	84.519	0.995	-5.025	0.995	-5.025	0.088	84.519
1669.871	0.088	84.477	0.995	-5.071	0.995	-5.071	0.088	84.477
1679.683	0.089	84.436	0.995	-5.117	0.995	-5.117	0.089	84.436
1689.495	0.09	84.394	0.995	-5.162	0.995	-5.162	0.09	84.394
1699.306	0.091	84.352	0.995	-5.208	0.995	-5.208	0.091	84.352
1709.118	0.092	84.31	0.995	-5.254	0.995	-5.254	0.092	84.31
1718.93	0.092	84.269	0.995	-5.299	0.995	-5.299	0.092	84.269
1728.741	0.093	84.227	0.995	-5.345	0.995	-5.345	0.093	84.227
1738.553	0.094	84.185	0.995	-5.39	0.995	-5.39	0.094	84.185
1748.365	0.095	84.143	0.995	-5.435	0.995	-5.435	0.095	84.143
1758.176	0.096	84.102	0.995	-5.48	0.995	-5.48	0.096	84.102
1767.988	0.096	84.06	0.995	-5.525	0.995	-5.525	0.096	84.06
1777.8	0.097	84.019	0.995	-5.57	0.995	-5.57	0.097	84.019
1787.611	0.098	83.977	0.995	-5.615	0.995	-5.615	0.098	83.977
1797.423	0.099	83.935	0.994	-5.66	0.994	-5.66	0.099	83.935
1807.235	0.099	83.894	0.994	-5.705	0.994	-5.705	0.099	83.894
1817.047	0.1	83.852	0.994	-5.749	0.994	-5.749	0.1	83.852
1826.858	0.101	83.811	0.994	-5.794	0.994	-5.794	0.101	83.811
1836.67	0.102	83.77	0.994	-5.838	0.994	-5.838	0.102	83.77
1846.482	0.102	83.728	0.994	-5.883	0.994	-5.883	0.102	83.728
1856.293	0.103	83.687	0.994	-5.927	0.994	-5.927	0.103	83.687
1866.105	0.104	83.645	0.994	-5.971	0.994	-5.971	0.104	83.645
1875.917	0.105	83.604	0.994	-6.016	0.994	-6.016	0.105	83.604
1885.728	0.106	83.563	0.994	-6.06	0.994	-6.06	0.106	83.563
1895.54	0.106	83.522	0.994	-6.104	0.994	-6.104	0.106	83.522
1905.352	0.107	83.48	0.994	-6.148	0.994	-6.148	0.107	83.48
1915.164	0.108	83.439	0.993	-6.191	0.993	-6.191	0.108	83.439
1924.975	0.109	83.398	0.993	-6.235	0.993	-6.235	0.109	83.398
1934.787	0.109	83.357	0.993	-6.279	0.993	-6.279	0.109	83.357
1944.599	0.11	83.316	0.993	-6.323	0.993	-6.323	0.11	83.316
1954.41	0.111	83.275	0.993	-6.366	0.993	-6.366	0.111	83.275
1964.222	0.112	83.233	0.993	-6.41	0.993	-6.41	0.112	83.233
1974.034	0.112	83.192	0.993	-6.453	0.993	-6.453	0.112	83.192
1983.845	0.113	83.151	0.993	-6.497	0.993	-6.497	0.113	83.151
1993.657	0.114	83.11	0.993	-6.54	0.993	-6.54	0.114	83.11
2003.469	0.115	83.07	0.993	-6.583	0.993	-6.583	0.115	83.07
2013.28	0.115	83.029	0.993	-6.626	0.993	-6.626	0.115	83.029
2023.092	0.116	82.988	0.993	-6.669	0.993	-6.669	0.116	82.988
2032.904	0.117	82.947	0.992	-6.713	0.992	-6.713	0.117	82.947
2042.716	0.118	82.906	0.992	-6.756	0.992	-6.756	0.118	82.906
2052.527	0.118	82.865	0.992	-6.798	0.992	-6.798	0.118	82.865
2062.339	0.119	82.824	0.992	-6.841	0.992	-6.841	0.119	82.824
2072.151	0.12	82.784	0.992	-6.884	0.992	-6.884	0.12	82.784
2081.962	0.121	82.743	0.992	-6.927	0.992	-6.927	0.121	82.743
2091.774	0.121	82.702	0.992	-6.97	0.992	-6.97	0.121	82.702
2101.586	0.122	82.662	0.992	-7.012	0.992	-7.012	0.122	82.662
2111.397	0.123	82.621	0.992	-7.055	0.992	-7.055	0.123	82.621
2121.209	0.124	82.58	0.992	-7.098	0.992	-7.098	0.124	82.58
2131.021	0.124	82.54	0.992	-7.14	0.992	-7.14	0.124	82.54
2140.833	0.125	82.499	0.991	-7.183	0.991	-7.183	0.125	82.499
2150.644	0.126	82.459	0.991	-7.225	0.991	-7.225	0.126	82.459
2160.456	0.126	82.418	0.991	-7.267	0.991	-7.267	0.126	82.418
2170.268	0.127	82.378	0.991	-7.31	0.991	-7.31	0.127	82.378
2180.079	0.128	82.337	0.991	-7.352	0.991	-7.352	0.128	82.337
2189.891	0.129	82.297	0.991	-7.394	0.991	-7.394	0.129	82.297
2199.703	0.129	82.257	0.991	-7.436	0.991	-7.436	0.129	82.257
2209.514	0.13	82.216	0.991	-7.478	0.991	-7.478	0.13	82.216
2219.326	0.131	82.176	0.991	-7.52	0.991	-7.52	0.131	82.176
2229.138	0.132	82.136	0.991	-7.562	0.991	-7.562	0.132	82.136
2238.949	0.132	82.096	0.991	-7.604	0.991	-7.604	0.132	82.096
2248.761	0.133	82.055	0.99	-7.646	0.99	-7.646	0.133	82.055
2258.573	0.134	82.015	0.99	-7.688	0.99	-7.688	0.134	82.015
2268.385	0.135	81.975	0.99	-7.73	0.99	-7.73	0.135	81.975
2278.196	0.135	81.935	0.99	-7.771	0.99	-7.771	0.135	81.935
2288.008	0.136	81.895	0.99	-7.813	0.99	-7.813	0.136	81.895
2297.82	0.137	81.855	0.99	-7.855	0.99	-7.855	0.137	81.855
2307.631	0.137	81.814	0.99	-7.896	0.99	-7.896	0.137	81.814
2317.443	0.138	81.774	0.99	-7.938	0.99	-7.938	0.138	81.774
2327.255	0.139	81.734	0.99	-7.98	0.99	-7.98	0.139	81.734
2337.066	0.14	81.694	0.99	-8.021	0.99	-8.021	0.14	81.694
2346.878	0.14	81.654	0.989	-8.063	0.989	-8.063	0.14	81.654
2356.69	0.141	81.615	0.989	-8.104	0.989	-8.104	0.141	81.615
2366.501	0.142	81.575	0.989	-8.145	0.989	-8.145	0.142	81.575
2376.313	0.142	81.535	0.989	-8.187	0.989	-8.187	0.142	81.535
2386.125	0.143	81.495	0.989	-8.228	0.989	-8.228	0.143	81.495
2395.937	0.144	81.455	0.989	-8.269	0.989	-8.269	0.144	81.455
2405.748	0.145	81.415	0.989	-8.31	0.989	-8.31	0.145	81.415
2415.56	0.145	81.375	0.989	-8.351	0.989	-8.351	0.145	81.375
2425.372	0.146	81.336	0.989	-8.393	0.989	-8.393	0.146	81.336
2435.183	0.147	81.296	0.988	-8.434	0.988	-8.434	0.147	81.296
2444.995	0.147	81.256	0.988	-8.475	0.988	-8.475	0.147	81.256
2454.807	0.148	81.217	0.988	-8.516	0.988	-8.516	0.148	81.217
2464.618	0.149	81.177	0.988	-8.557	0.988	-8.557	0.149	81.177
2474.43	0.149	81.137	0.988	-8.598	0.988	-8.598	0.149	81.137
2484.242	0.15	81.098	0.988	-8.638	0.988	-8.638	0.15	81.098
2494.054	0.151	81.058	0.988	-8.679	0.988	-8.679	0.151	81.058
2503.865	0.152	81.018	0.988	-8.72	0.988	-8.72	0.152	81.018
2513.677	0.152	80.979	0.988	-8.761	0.988	-8.761	0.152	80.979
2523.489	0.153	80.939	0.988	-8.802	0.988	-8.802	0.153	80.939
2533.3	0.154	80.9	0.987	-8.842	0.987	-8.842	0.154	80.9
2543.112	0.154	80.86	0.987	-8.883	0.987	-8.883	0.154	80.86
2552.924	0.155	80.821	0.987	-8.924	0.987	-8.924	0.155	80.821
2562.735	0.156	80.782	0.987	-8.964	0.987	-8.964	0.156	80.782
2572.547	0.157	80.742	0.987	-9.005	0.987	-9.005	0.157	80.742
2582.359	0.157	80.703	0.987	-9.045	0.987	-9.045	0.157	80.703
2592.17	0.158	80.664	0.987	-9.086	0.987	-9.086	0.158	80.664
2601.982	0.159	80.624	0.987	-9.126	0.987	-9.126	0.159	80.624
2611.794	0.159	80.585	0.987	-9.167	0.987	-9.167	0.159	80.585
2621.606	0.16	80.546	0.986	-9.207	0.986	-9.207	0.16	80.546
2631.417	0.161	80.506	0.986	-9.247	0.986	-9.247	0.161	80.506
2641.229	0.161	80.467	0.986	-9.288	0.986	-9.288	0.161	80.467
2651.041	0.162	80.428	0.986	-9.328	0.986	-9.328	0.162	80.428
2660.852	0.163	80.389	0.986	-9.368	0.986	-9.368	0.163	80.389
2670.664	0.163	80.35	0.986	-9.409	0.986	-9.409	0.163	80.35
2680.476	0.164	80.31	0.986	-9.449	0.986	-9.449	0.164	80.31
2690.287	0.165	80.271	0.986	-9.489	0.986	-9.489	0.165	80.271
2700.099	0.166	80.232	0.986	-9.529	0.986	-9.529	0.166	80.232
2709.911	0.166	80.193	0.985	-9.569	0.985	-9.569	0.166	80.193
2719.722	0.167	80.154	0.985	-9.609	0.985	-9.609	0.167	80.154
2729.534	0.168	80.115	0.985	-9.649	0.985	-9.649	0.168	80.115
2739.346	0.168	80.076	0.985	-9.689	0.985	-9.689	0.168	80.076
2749.158	0.169	80.037	0.985	-9.729	0.985	-9.729	0.169	80.037
2758.969	0.17	79.998	0.985	-9.769	0.985	-9.769	0.17	79.998
2768.781	0.17	79.959	0.985	-9.809	0.985	-9.809	0.17	79.959
2778.593	0.171	79.92	0.985	-9.849	0.985	-9.849	0.171	79.92
2788.404	0.172	79.881	0.984	-9.889	0.984	-9.889	0.172	79.881
2798.216	0.172	79.842	0.984	-9.929	0.984	-9.929	0.172	79.842
2808.028	0.173	79.804	0.984	-9.968	0.984	-9.968	0.173	79.804
2817.839	0.174	79.765	0.984	-10.008	0.984	-10.008	0.174	79.765
2827.651	0.174	79.726	0.984	-10.048	0.984	-10.048	0.174	79.726
2837.463	0.175	79.687	0.984	-10.087	0.984	-10.087	0.175	79.687
2847.275	0.176	79.648	0.984	-10.127	0.984	-10.127	0.176	79.648
2857.086	0.177	79.61	0.984	-10.167	0.984	-10.167	0.177	79.61
2866.898	0.177	79.571	0.983	-10.206	0.983	-10.206	0.177	79.571
2876.71	0.178	79.532	0.983	-10.246	0.983	-10.246	0.178	79.532
2886.521	0.179	79.494	0.983	-10.286	0.983	-10.286	0.179	79.494
2896.333	0.179	79.455	0.983	-10.325	0.983	-10.325	0.179	79.455
2906.145	0.18	79.416	0.983	-10.365	0.983	-10.365	0.18	79.416
2915.956	0.181	79.378	0.983	-10.404	0.983	-10.404	0.181	79.378
2925.768	0.181	79.339	0.983	-10.444	0.983	-10.444	0.181	79.339
2935.58	0.182	79.3	0.983	-10.483	0.983	-10.483	0.182	79.3
2945.391	0.183	79.262	0.982	-10.522	0.982	-10.522	0.183	79.262
2955.203	0.183	79.223	0.982	-10.562	0.982	-10.562	0.183	79.223
2965.015	0.184	79.185	0.982	-10.601	0.982	-10.601	0.184	79.185
2974.827	0.185	79.146	0.982	-10.64	0.982	-10.64	0.185	79.146
2984.638	0.185	79.108	0.982	-10.68	0.982	-10.68	0.185	79.108
2994.45	0.186	79.069	0.982	-10.719	0.982	-10.719	0.186	79.069
3004.262	0.187	79.031	0.982	-10.758	0.982	-10.758	0.187	79.031
3014.073	0.187	78.992	0.982	-10.797	0.982	-10.797	0.187	78.992
3023.885	0.188	78.954	0.981	-10.836	0.981	-10.836	0.188	78.954
3033.697	0.189	78.916	0.981	-10.876	0.981	-10.876	0.189	78.916
3043.508	0.189	78.877	0.981	-10.915	0.981	-10.915	0.189	78.877
3053.32	0.19	78.839	0.981	-10.954	0.981	-10.954	0.19	78.839
3063.132	0.191	78.801	0.981	-10.993	0.981	-10.993	0.191	78.801
3072.944	0.191	78.762	0.981	-11.032	0.981	-11.032	0.191	78.762
3082.755	0.192	78.724	0.981	-11.071	0.981	-11.071	0.192	78.724
3092.567	0.193	78.686	0.981	-11.11	0.981	-11.11	0.193	78.686
3102.379	0.193	78.648	0.98	-11.149	0.98	-11.149	0.193	78.648
3112.19	0.194	78.609	0.98	-11.188	0.98	-11.188	0.194	78.609
3122.002	0.195	78.571	0.98	-11.227	0.98	-11.227	0.195	78.571
3131.814	0.195	78.533	0.98	-11.266	0.98	-11.266	0.195	78.533
3141.625	0.196	78.495	0.98	-11.305	0.98	-11.305	0.196	78.495
3151.437	0.197	78.457	0.98	-11.343	0.98	-11.343	0.197	78.457
3161.249	0.197	78.419	0.98	-11.382	0.98	-11.382	0.197	78.419
3171.06	0.198	78.38	0.98	-11.421	0.98	-11.421	0.198	78.38
3180.872	0.199	78.342	0.979	-11.46	0.979	-11.46	0.199	78.342
3190.684	0.199	78.304	0.979	-11.499	0.979	-11.499	0.199	78.304
3200.496	0.2	78.266	0.979	-11.537	0.979	-11.537	0.2	78.266
3210.307	0.201	78.228	0.979	-11.576	0.979	-11.576	0.201	78.228
3220.119	0.201	78.19	0.979	-11.615	0.979	-11.615	0.201	78.19
3229.931	0.202	78.152	0.979	-11.653	0.979	-11.653	0.202	78.152
3239.742	0.203	78.114	0.979	-11.692	0.979	-11.692	0.203	78.114
3249.554	0.203	78.076	0.978	-11.731	0.978	-11.731	0.203	78.076
3259.366	0.204	78.038	0.978	-11.769	0.978	-11.769	0.204	78.038
3269.177	0.205	78	0.978	-11.808	0.978	-11.808	0.205	78
3278.989	0.205	77.962	0.978	-11.846	0.978	-11.846	0.205	77.962
3288.801	0.206	77.925	0.978	-11.885	0.978	-11.885	0.206	77.925
