! AVX Thin Film Operation		Date: April 2012 
! Description: Accu-P® Series, Thin Film, SMD, RF Capacitor
! Part Number: 12101J1R2PBTTR					
!	100	MHz	-	10.05	GHz			
!	Serial	Measurements						
!								
#	MHZ	S	MA	R	50			
!	S11	S21	S12	S22				
!	dB	Phase	dB	Phase	dB	Phase	dB	Phase
100	0.997	-4.314	0.075	85.675	0.075	85.675	0.997	-4.314
109.812	0.997	-4.736	0.083	85.252	0.083	85.252	0.997	-4.736
119.623	0.996	-5.157	0.09	84.829	0.09	84.829	0.996	-5.157
129.435	0.995	-5.578	0.097	84.407	0.097	84.407	0.995	-5.578
139.247	0.994	-5.999	0.105	83.985	0.105	83.985	0.994	-5.999
149.058	0.994	-6.419	0.112	83.564	0.112	83.564	0.994	-6.419
158.87	0.993	-6.839	0.119	83.143	0.119	83.143	0.993	-6.839
168.682	0.992	-7.258	0.126	82.723	0.126	82.723	0.992	-7.258
178.494	0.991	-7.676	0.134	82.304	0.134	82.304	0.991	-7.676
188.305	0.99	-8.094	0.141	81.885	0.141	81.885	0.99	-8.094
198.117	0.989	-8.511	0.148	81.466	0.148	81.466	0.989	-8.511
207.929	0.988	-8.928	0.155	81.049	0.155	81.049	0.988	-8.928
217.74	0.987	-9.344	0.162	80.632	0.162	80.632	0.987	-9.344
227.552	0.985	-9.759	0.17	80.216	0.17	80.216	0.985	-9.759
237.364	0.984	-10.173	0.177	79.8	0.177	79.8	0.984	-10.173
247.175	0.983	-10.587	0.184	79.385	0.184	79.385	0.983	-10.587
256.987	0.982	-10.999	0.191	78.972	0.191	78.972	0.982	-10.999
266.799	0.98	-11.411	0.198	78.559	0.198	78.559	0.98	-11.411
276.611	0.979	-11.822	0.205	78.147	0.205	78.147	0.979	-11.822
286.422	0.977	-12.232	0.212	77.736	0.212	77.736	0.977	-12.232
296.234	0.976	-12.641	0.219	77.325	0.219	77.325	0.976	-12.641
306.046	0.974	-13.049	0.226	76.916	0.226	76.916	0.974	-13.049
315.857	0.972	-13.456	0.233	76.508	0.233	76.508	0.972	-13.456
325.669	0.971	-13.862	0.24	76.101	0.24	76.101	0.971	-13.862
335.481	0.969	-14.268	0.246	75.695	0.246	75.695	0.969	-14.268
345.292	0.967	-14.671	0.253	75.289	0.253	75.289	0.967	-14.671
355.104	0.965	-15.074	0.26	74.885	0.26	74.885	0.965	-15.074
364.916	0.964	-15.476	0.267	74.483	0.267	74.483	0.964	-15.476
374.727	0.962	-15.877	0.274	74.081	0.274	74.081	0.962	-15.877
384.539	0.96	-16.276	0.28	73.68	0.28	73.68	0.96	-16.276
394.351	0.958	-16.674	0.287	73.281	0.287	73.281	0.958	-16.674
404.163	0.956	-17.071	0.294	72.883	0.294	72.883	0.956	-17.071
413.974	0.954	-17.467	0.3	72.486	0.3	72.486	0.954	-17.467
423.786	0.952	-17.862	0.307	72.09	0.307	72.09	0.952	-17.862
433.598	0.949	-18.255	0.313	71.696	0.313	71.696	0.949	-18.255
443.409	0.947	-18.647	0.32	71.303	0.32	71.303	0.947	-18.647
453.221	0.945	-19.037	0.326	70.911	0.326	70.911	0.945	-19.037
463.033	0.943	-19.427	0.333	70.521	0.333	70.521	0.943	-19.427
472.844	0.94	-19.814	0.339	70.132	0.339	70.132	0.94	-19.814
482.656	0.938	-20.201	0.345	69.744	0.345	69.744	0.938	-20.201
492.468	0.936	-20.586	0.352	69.358	0.352	69.358	0.936	-20.586
502.279	0.933	-20.97	0.358	68.973	0.358	68.973	0.933	-20.97
512.091	0.931	-21.352	0.364	68.59	0.364	68.59	0.931	-21.352
521.903	0.929	-21.733	0.37	68.208	0.37	68.208	0.929	-21.733
531.715	0.926	-22.112	0.376	67.827	0.376	67.827	0.926	-22.112
541.526	0.924	-22.49	0.383	67.448	0.383	67.448	0.924	-22.49
551.338	0.921	-22.867	0.389	67.07	0.389	67.07	0.921	-22.867
561.15	0.918	-23.242	0.395	66.694	0.395	66.694	0.918	-23.242
570.961	0.916	-23.615	0.401	66.32	0.401	66.32	0.916	-23.615
580.773	0.913	-23.987	0.407	65.947	0.407	65.947	0.913	-23.987
590.585	0.911	-24.357	0.412	65.575	0.412	65.575	0.911	-24.357
600.396	0.908	-24.726	0.418	65.205	0.418	65.205	0.908	-24.726
610.208	0.905	-25.093	0.424	64.837	0.424	64.837	0.905	-25.093
620.02	0.902	-25.459	0.43	64.47	0.43	64.47	0.902	-25.459
629.832	0.9	-25.823	0.436	64.105	0.436	64.105	0.9	-25.823
639.643	0.897	-26.185	0.441	63.741	0.441	63.741	0.897	-26.185
649.455	0.894	-26.546	0.447	63.379	0.447	63.379	0.894	-26.546
659.267	0.891	-26.905	0.453	63.019	0.453	63.019	0.891	-26.905
669.078	0.888	-27.263	0.458	62.66	0.458	62.66	0.888	-27.263
678.89	0.885	-27.619	0.464	62.303	0.464	62.303	0.885	-27.619
688.702	0.883	-27.973	0.469	61.947	0.469	61.947	0.883	-27.973
698.513	0.88	-28.326	0.474	61.593	0.474	61.593	0.88	-28.326
708.325	0.877	-28.677	0.48	61.241	0.48	61.241	0.877	-28.677
718.137	0.874	-29.027	0.485	60.89	0.485	60.89	0.874	-29.027
727.948	0.871	-29.375	0.491	60.541	0.491	60.541	0.871	-29.375
737.76	0.868	-29.721	0.496	60.194	0.496	60.194	0.868	-29.721
747.572	0.865	-30.065	0.501	59.848	0.501	59.848	0.865	-30.065
757.384	0.862	-30.408	0.506	59.504	0.506	59.504	0.862	-30.408
767.195	0.859	-30.749	0.511	59.162	0.511	59.162	0.859	-30.749
777.007	0.856	-31.089	0.516	58.821	0.516	58.821	0.856	-31.089
786.819	0.852	-31.426	0.521	58.483	0.521	58.483	0.852	-31.426
796.63	0.849	-31.762	0.526	58.145	0.526	58.145	0.849	-31.762
806.442	0.846	-32.097	0.531	57.81	0.531	57.81	0.846	-32.097
816.254	0.843	-32.43	0.536	57.476	0.536	57.476	0.843	-32.43
826.065	0.84	-32.761	0.541	57.143	0.541	57.143	0.84	-32.761
835.877	0.837	-33.09	0.546	56.813	0.546	56.813	0.837	-33.09
845.689	0.834	-33.418	0.551	56.484	0.551	56.484	0.834	-33.418
855.5	0.831	-33.744	0.555	56.157	0.555	56.157	0.831	-33.744
865.312	0.827	-34.068	0.56	55.831	0.56	55.831	0.827	-34.068
875.124	0.824	-34.39	0.565	55.507	0.565	55.507	0.824	-34.39
884.936	0.821	-34.711	0.569	55.185	0.569	55.185	0.821	-34.711
894.747	0.818	-35.031	0.574	54.865	0.574	54.865	0.818	-35.031
904.559	0.815	-35.348	0.579	54.546	0.579	54.546	0.815	-35.348
914.371	0.811	-35.664	0.583	54.229	0.583	54.229	0.811	-35.664
924.182	0.808	-35.978	0.587	53.914	0.587	53.914	0.808	-35.978
933.994	0.805	-36.291	0.592	53.6	0.592	53.6	0.805	-36.291
943.806	0.802	-36.601	0.596	53.288	0.596	53.288	0.802	-36.601
953.617	0.798	-36.911	0.601	52.977	0.601	52.977	0.798	-36.911
963.429	0.795	-37.218	0.605	52.669	0.605	52.669	0.795	-37.218
973.241	0.792	-37.524	0.609	52.361	0.609	52.361	0.792	-37.524
983.053	0.789	-37.828	0.613	52.056	0.613	52.056	0.789	-37.828
992.864	0.785	-38.131	0.617	51.752	0.617	51.752	0.785	-38.131
1002.676	0.782	-38.431	0.622	51.45	0.622	51.45	0.782	-38.431
1012.488	0.779	-38.731	0.626	51.15	0.626	51.15	0.779	-38.731
1022.299	0.776	-39.028	0.63	50.851	0.63	50.851	0.776	-39.028
1032.111	0.772	-39.324	0.634	50.554	0.634	50.554	0.772	-39.324
1041.923	0.769	-39.618	0.638	50.258	0.638	50.258	0.769	-39.618
1051.734	0.766	-39.911	0.642	49.964	0.642	49.964	0.766	-39.911
1061.546	0.762	-40.202	0.645	49.672	0.645	49.672	0.762	-40.202
1071.358	0.759	-40.491	0.649	49.381	0.649	49.381	0.759	-40.491
1081.169	0.756	-40.779	0.653	49.092	0.653	49.092	0.756	-40.779
1090.981	0.752	-41.065	0.657	48.804	0.657	48.804	0.752	-41.065
1100.793	0.749	-41.35	0.661	48.519	0.661	48.519	0.749	-41.35
1110.605	0.746	-41.633	0.664	48.234	0.664	48.234	0.746	-41.633
1120.416	0.743	-41.914	0.668	47.951	0.668	47.951	0.743	-41.914
1130.228	0.739	-42.194	0.672	47.67	0.672	47.67	0.739	-42.194
1140.04	0.736	-42.472	0.675	47.391	0.675	47.391	0.736	-42.472
1149.851	0.733	-42.749	0.679	47.113	0.679	47.113	0.733	-42.749
1159.663	0.729	-43.024	0.682	46.836	0.682	46.836	0.729	-43.024
1169.475	0.726	-43.298	0.686	46.561	0.686	46.561	0.726	-43.298
1179.286	0.723	-43.57	0.689	46.288	0.689	46.288	0.723	-43.57
1189.098	0.72	-43.84	0.693	46.016	0.693	46.016	0.72	-43.84
1198.91	0.716	-44.109	0.696	45.746	0.696	45.746	0.716	-44.109
1208.722	0.713	-44.377	0.699	45.477	0.699	45.477	0.713	-44.377
1218.533	0.71	-44.643	0.703	45.21	0.703	45.21	0.71	-44.643
1228.345	0.706	-44.907	0.706	44.944	0.706	44.944	0.706	-44.907
1238.157	0.703	-45.17	0.709	44.68	0.709	44.68	0.703	-45.17
1247.968	0.7	-45.431	0.712	44.417	0.712	44.417	0.7	-45.431
1257.78	0.697	-45.691	0.716	44.156	0.716	44.156	0.697	-45.691
1267.592	0.693	-45.949	0.719	43.896	0.719	43.896	0.693	-45.949
1277.403	0.69	-46.206	0.722	43.638	0.722	43.638	0.69	-46.206
1287.215	0.687	-46.462	0.725	43.381	0.725	43.381	0.687	-46.462
1297.027	0.684	-46.716	0.728	43.125	0.728	43.125	0.684	-46.716
1306.838	0.68	-46.969	0.731	42.871	0.731	42.871	0.68	-46.969
1316.65	0.677	-47.22	0.734	42.619	0.734	42.619	0.677	-47.22
1326.462	0.674	-47.469	0.737	42.368	0.737	42.368	0.674	-47.469
1336.274	0.671	-47.718	0.74	42.118	0.74	42.118	0.671	-47.718
1346.085	0.667	-47.965	0.743	41.87	0.743	41.87	0.667	-47.965
1355.897	0.664	-48.21	0.746	41.623	0.746	41.623	0.664	-48.21
1365.709	0.661	-48.454	0.748	41.377	0.748	41.377	0.661	-48.454
1375.52	0.658	-48.697	0.751	41.133	0.751	41.133	0.658	-48.697
1385.332	0.655	-48.938	0.754	40.89	0.754	40.89	0.655	-48.938
1395.144	0.651	-49.178	0.757	40.649	0.757	40.649	0.651	-49.178
1404.955	0.648	-49.417	0.759	40.409	0.759	40.409	0.648	-49.417
1414.767	0.645	-49.654	0.762	40.17	0.762	40.17	0.645	-49.654
1424.579	0.642	-49.89	0.765	39.933	0.765	39.933	0.642	-49.89
1434.39	0.639	-50.124	0.767	39.697	0.767	39.697	0.639	-50.124
1444.202	0.636	-50.357	0.77	39.462	0.77	39.462	0.636	-50.357
1454.014	0.632	-50.589	0.773	39.229	0.773	39.229	0.632	-50.589
1463.826	0.629	-50.82	0.775	38.997	0.775	38.997	0.629	-50.82
1473.637	0.626	-51.049	0.778	38.766	0.778	38.766	0.626	-51.049
1483.449	0.623	-51.277	0.78	38.536	0.78	38.536	0.623	-51.277
1493.261	0.62	-51.504	0.783	38.308	0.783	38.308	0.62	-51.504
1503.072	0.617	-51.729	0.785	38.081	0.785	38.081	0.617	-51.729
1512.884	0.614	-51.953	0.788	37.855	0.788	37.855	0.614	-51.953
1522.696	0.611	-52.176	0.79	37.631	0.79	37.631	0.611	-52.176
1532.507	0.607	-52.398	0.792	37.408	0.792	37.408	0.607	-52.398
1542.319	0.604	-52.618	0.795	37.186	0.795	37.186	0.604	-52.618
1552.131	0.601	-52.837	0.797	36.965	0.797	36.965	0.601	-52.837
1561.943	0.598	-53.055	0.799	36.746	0.799	36.746	0.598	-53.055
1571.754	0.595	-53.272	0.801	36.527	0.801	36.527	0.595	-53.272
1581.566	0.592	-53.487	0.804	36.31	0.804	36.31	0.592	-53.487
1591.378	0.589	-53.702	0.806	36.094	0.806	36.094	0.589	-53.702
1601.189	0.586	-53.915	0.808	35.88	0.808	35.88	0.586	-53.915
1611.001	0.583	-54.127	0.81	35.666	0.81	35.666	0.583	-54.127
1620.813	0.58	-54.338	0.812	35.454	0.812	35.454	0.58	-54.338
1630.624	0.577	-54.547	0.815	35.243	0.815	35.243	0.577	-54.547
1640.436	0.574	-54.756	0.817	35.032	0.817	35.032	0.574	-54.756
1650.248	0.571	-54.963	0.819	34.824	0.819	34.824	0.571	-54.963
1660.059	0.568	-55.169	0.821	34.616	0.821	34.616	0.568	-55.169
1669.871	0.565	-55.374	0.823	34.409	0.823	34.409	0.565	-55.374
1679.683	0.562	-55.578	0.825	34.204	0.825	34.204	0.562	-55.578
1689.495	0.559	-55.781	0.827	33.999	0.827	33.999	0.559	-55.781
1699.306	0.556	-55.982	0.829	33.796	0.829	33.796	0.556	-55.982
1709.118	0.553	-56.183	0.831	33.594	0.831	33.594	0.553	-56.183
1718.93	0.55	-56.382	0.833	33.392	0.833	33.392	0.55	-56.382
1728.741	0.547	-56.581	0.835	33.192	0.835	33.192	0.547	-56.581
1738.553	0.545	-56.778	0.837	32.993	0.837	32.993	0.545	-56.778
1748.365	0.542	-56.974	0.838	32.795	0.838	32.795	0.542	-56.974
1758.176	0.539	-57.169	0.84	32.598	0.84	32.598	0.539	-57.169
1767.988	0.536	-57.363	0.842	32.403	0.842	32.403	0.536	-57.363
1777.8	0.533	-57.556	0.844	32.208	0.844	32.208	0.533	-57.556
1787.611	0.53	-57.748	0.846	32.014	0.846	32.014	0.53	-57.748
1797.423	0.527	-57.939	0.847	31.821	0.847	31.821	0.527	-57.939
1807.235	0.524	-58.129	0.849	31.629	0.849	31.629	0.524	-58.129
1817.047	0.522	-58.318	0.851	31.439	0.851	31.439	0.522	-58.318
1826.858	0.519	-58.506	0.853	31.249	0.853	31.249	0.519	-58.506
1836.67	0.516	-58.693	0.854	31.06	0.854	31.06	0.516	-58.693
1846.482	0.513	-58.879	0.856	30.872	0.856	30.872	0.513	-58.879
1856.293	0.51	-59.064	0.858	30.686	0.858	30.686	0.51	-59.064
1866.105	0.508	-59.248	0.859	30.5	0.859	30.5	0.508	-59.248
1875.917	0.505	-59.431	0.861	30.315	0.861	30.315	0.505	-59.431
1885.728	0.502	-59.613	0.863	30.131	0.863	30.131	0.502	-59.613
1895.54	0.499	-59.794	0.864	29.948	0.864	29.948	0.499	-59.794
1905.352	0.496	-59.974	0.866	29.766	0.866	29.766	0.496	-59.974
1915.164	0.494	-60.153	0.867	29.585	0.867	29.585	0.494	-60.153
1924.975	0.491	-60.332	0.869	29.405	0.869	29.405	0.491	-60.332
1934.787	0.488	-60.509	0.87	29.226	0.87	29.226	0.488	-60.509
1944.599	0.486	-60.685	0.872	29.047	0.872	29.047	0.486	-60.685
1954.41	0.483	-60.861	0.873	28.87	0.873	28.87	0.483	-60.861
1964.222	0.48	-61.035	0.875	28.693	0.875	28.693	0.48	-61.035
1974.034	0.477	-61.209	0.876	28.518	0.876	28.518	0.477	-61.209
1983.845	0.475	-61.382	0.878	28.343	0.878	28.343	0.475	-61.382
1993.657	0.472	-61.554	0.879	28.169	0.879	28.169	0.472	-61.554
2003.469	0.469	-61.725	0.881	27.996	0.881	27.996	0.469	-61.725
2013.28	0.467	-61.895	0.882	27.824	0.882	27.824	0.467	-61.895
2023.092	0.464	-62.064	0.883	27.652	0.883	27.652	0.464	-62.064
2032.904	0.461	-62.232	0.885	27.482	0.885	27.482	0.461	-62.232
2042.716	0.459	-62.4	0.886	27.312	0.886	27.312	0.459	-62.4
2052.527	0.456	-62.567	0.888	27.143	0.888	27.143	0.456	-62.567
2062.339	0.454	-62.732	0.889	26.976	0.889	26.976	0.454	-62.732
2072.151	0.451	-62.897	0.89	26.808	0.89	26.808	0.451	-62.897
2081.962	0.448	-63.062	0.892	26.642	0.892	26.642	0.448	-63.062
2091.774	0.446	-63.225	0.893	26.477	0.893	26.477	0.446	-63.225
2101.586	0.443	-63.388	0.894	26.312	0.894	26.312	0.443	-63.388
2111.397	0.441	-63.549	0.895	26.148	0.895	26.148	0.441	-63.549
2121.209	0.438	-63.71	0.897	25.985	0.897	25.985	0.438	-63.71
2131.021	0.436	-63.87	0.898	25.823	0.898	25.823	0.436	-63.87
2140.833	0.433	-64.03	0.899	25.661	0.899	25.661	0.433	-64.03
2150.644	0.431	-64.188	0.9	25.5	0.9	25.5	0.431	-64.188
2160.456	0.428	-64.346	0.901	25.34	0.901	25.34	0.428	-64.346
2170.268	0.425	-64.503	0.903	25.181	0.903	25.181	0.425	-64.503
2180.079	0.423	-64.659	0.904	25.022	0.904	25.022	0.423	-64.659
2189.891	0.42	-64.815	0.905	24.865	0.905	24.865	0.42	-64.815
2199.703	0.418	-64.969	0.906	24.708	0.906	24.708	0.418	-64.969
2209.514	0.416	-65.123	0.907	24.551	0.907	24.551	0.416	-65.123
2219.326	0.413	-65.276	0.908	24.396	0.908	24.396	0.413	-65.276
2229.138	0.411	-65.429	0.909	24.241	0.909	24.241	0.411	-65.429
2238.949	0.408	-65.581	0.911	24.087	0.911	24.087	0.408	-65.581
2248.761	0.406	-65.732	0.912	23.934	0.912	23.934	0.406	-65.732
2258.573	0.403	-65.882	0.913	23.781	0.913	23.781	0.403	-65.882
2268.385	0.401	-66.031	0.914	23.629	0.914	23.629	0.401	-66.031
2278.196	0.398	-66.18	0.915	23.478	0.915	23.478	0.398	-66.18
2288.008	0.396	-66.328	0.916	23.327	0.916	23.327	0.396	-66.328
2297.82	0.394	-66.476	0.917	23.177	0.917	23.177	0.394	-66.476
2307.631	0.391	-66.622	0.918	23.028	0.918	23.028	0.391	-66.622
2317.443	0.389	-66.768	0.919	22.88	0.919	22.88	0.389	-66.768
2327.255	0.386	-66.914	0.92	22.732	0.92	22.732	0.386	-66.914
2337.066	0.384	-67.058	0.921	22.585	0.921	22.585	0.384	-67.058
2346.878	0.382	-67.202	0.922	22.438	0.922	22.438	0.382	-67.202
2356.69	0.379	-67.345	0.923	22.292	0.923	22.292	0.379	-67.345
2366.501	0.377	-67.488	0.924	22.147	0.924	22.147	0.377	-67.488
2376.313	0.375	-67.63	0.925	22.002	0.925	22.002	0.375	-67.63
2386.125	0.372	-67.771	0.926	21.858	0.926	21.858	0.372	-67.771
2395.937	0.37	-67.912	0.927	21.715	0.927	21.715	0.37	-67.912
2405.748	0.368	-68.052	0.928	21.572	0.928	21.572	0.368	-68.052
2415.56	0.365	-68.191	0.928	21.43	0.928	21.43	0.365	-68.191
2425.372	0.363	-68.33	0.929	21.289	0.929	21.289	0.363	-68.33
2435.183	0.361	-68.468	0.93	21.148	0.93	21.148	0.361	-68.468
2444.995	0.359	-68.605	0.931	21.008	0.931	21.008	0.359	-68.605
2454.807	0.356	-68.742	0.932	20.868	0.932	20.868	0.356	-68.742
2464.618	0.354	-68.878	0.933	20.73	0.933	20.73	0.354	-68.878
2474.43	0.352	-69.013	0.934	20.591	0.934	20.591	0.352	-69.013
2484.242	0.349	-69.148	0.935	20.453	0.935	20.453	0.349	-69.148
2494.054	0.347	-69.282	0.935	20.316	0.935	20.316	0.347	-69.282
2503.865	0.345	-69.416	0.936	20.18	0.936	20.18	0.345	-69.416
2513.677	0.343	-69.549	0.937	20.044	0.937	20.044	0.343	-69.549
2523.489	0.341	-69.682	0.938	19.908	0.938	19.908	0.341	-69.682
2533.3	0.338	-69.813	0.939	19.773	0.939	19.773	0.338	-69.813
2543.112	0.336	-69.945	0.939	19.639	0.939	19.639	0.336	-69.945
2552.924	0.334	-70.075	0.94	19.505	0.94	19.505	0.334	-70.075
2562.735	0.332	-70.205	0.941	19.372	0.941	19.372	0.332	-70.205
2572.547	0.33	-70.335	0.942	19.239	0.942	19.239	0.33	-70.335
2582.359	0.327	-70.464	0.942	19.107	0.942	19.107	0.327	-70.464
2592.17	0.325	-70.592	0.943	18.976	0.943	18.976	0.325	-70.592
2601.982	0.323	-70.72	0.944	18.845	0.944	18.845	0.323	-70.72
2611.794	0.321	-70.847	0.945	18.714	0.945	18.714	0.321	-70.847
2621.606	0.319	-70.974	0.945	18.584	0.945	18.584	0.319	-70.974
2631.417	0.317	-71.1	0.946	18.455	0.946	18.455	0.317	-71.1
2641.229	0.314	-71.225	0.947	18.326	0.947	18.326	0.314	-71.225
2651.041	0.312	-71.35	0.948	18.198	0.948	18.198	0.312	-71.35
2660.852	0.31	-71.474	0.948	18.07	0.948	18.07	0.31	-71.474
2670.664	0.308	-71.598	0.949	17.943	0.949	17.943	0.308	-71.598
2680.476	0.306	-71.722	0.95	17.816	0.95	17.816	0.306	-71.722
2690.287	0.304	-71.844	0.95	17.69	0.95	17.69	0.304	-71.844
2700.099	0.302	-71.967	0.951	17.564	0.951	17.564	0.302	-71.967
2709.911	0.3	-72.088	0.952	17.439	0.952	17.439	0.3	-72.088
2719.722	0.298	-72.209	0.952	17.314	0.952	17.314	0.298	-72.209
2729.534	0.296	-72.33	0.953	17.19	0.953	17.19	0.296	-72.33
2739.346	0.293	-72.45	0.953	17.066	0.953	17.066	0.293	-72.45
2749.158	0.291	-72.57	0.954	16.942	0.954	16.942	0.291	-72.57
2758.969	0.289	-72.689	0.955	16.82	0.955	16.82	0.289	-72.689
2768.781	0.287	-72.807	0.955	16.697	0.955	16.697	0.287	-72.807
2778.593	0.285	-72.925	0.956	16.575	0.956	16.575	0.285	-72.925
2788.404	0.283	-73.043	0.957	16.454	0.957	16.454	0.283	-73.043
2798.216	0.281	-73.16	0.957	16.333	0.957	16.333	0.281	-73.16
2808.028	0.279	-73.276	0.958	16.212	0.958	16.212	0.279	-73.276
2817.839	0.277	-73.392	0.958	16.092	0.958	16.092	0.277	-73.392
2827.651	0.275	-73.508	0.959	15.973	0.959	15.973	0.275	-73.508
2837.463	0.273	-73.623	0.959	15.854	0.959	15.854	0.273	-73.623
2847.275	0.271	-73.737	0.96	15.735	0.96	15.735	0.271	-73.737
2857.086	0.269	-73.851	0.961	15.617	0.961	15.617	0.269	-73.851
2866.898	0.267	-73.965	0.961	15.499	0.961	15.499	0.267	-73.965
2876.71	0.265	-74.078	0.962	15.382	0.962	15.382	0.265	-74.078
2886.521	0.263	-74.191	0.962	15.265	0.962	15.265	0.263	-74.191
2896.333	0.261	-74.303	0.963	15.148	0.963	15.148	0.261	-74.303
2906.145	0.259	-74.414	0.963	15.032	0.963	15.032	0.259	-74.414
2915.956	0.257	-74.525	0.964	14.917	0.964	14.917	0.257	-74.525
2925.768	0.255	-74.636	0.964	14.802	0.964	14.802	0.255	-74.636
2935.58	0.254	-74.746	0.965	14.687	0.965	14.687	0.254	-74.746
2945.391	0.252	-74.856	0.965	14.573	0.965	14.573	0.252	-74.856
2955.203	0.25	-74.965	0.966	14.459	0.966	14.459	0.25	-74.965
2965.015	0.248	-75.074	0.966	14.345	0.966	14.345	0.248	-75.074
2974.827	0.246	-75.182	0.967	14.232	0.967	14.232	0.246	-75.182
2984.638	0.244	-75.29	0.967	14.119	0.967	14.119	0.244	-75.29
2994.45	0.242	-75.397	0.968	14.007	0.968	14.007	0.242	-75.397
3004.262	0.24	-75.504	0.968	13.895	0.968	13.895	0.24	-75.504
3014.073	0.238	-75.61	0.969	13.784	0.969	13.784	0.238	-75.61
3023.885	0.236	-75.716	0.969	13.673	0.969	13.673	0.236	-75.716
3033.697	0.235	-75.822	0.97	13.562	0.97	13.562	0.235	-75.822
3043.508	0.233	-75.927	0.97	13.452	0.97	13.452	0.233	-75.927
3053.32	0.231	-76.031	0.97	13.342	0.97	13.342	0.231	-76.031
3063.132	0.229	-76.136	0.971	13.232	0.971	13.232	0.229	-76.136
3072.944	0.227	-76.239	0.971	13.123	0.971	13.123	0.227	-76.239
3082.755	0.225	-76.342	0.972	13.015	0.972	13.015	0.225	-76.342
3092.567	0.223	-76.445	0.972	12.906	0.972	12.906	0.223	-76.445
3102.379	0.222	-76.548	0.973	12.798	0.973	12.798	0.222	-76.548
3112.19	0.22	-76.649	0.973	12.691	0.973	12.691	0.22	-76.649
3122.002	0.218	-76.751	0.973	12.583	0.973	12.583	0.218	-76.751
3131.814	0.216	-76.852	0.974	12.476	0.974	12.476	0.216	-76.852
3141.625	0.214	-76.952	0.974	12.37	0.974	12.37	0.214	-76.952
3151.437	0.212	-77.053	0.975	12.264	0.975	12.264	0.212	-77.053
3161.249	0.211	-77.152	0.975	12.158	0.975	12.158	0.211	-77.152
3171.06	0.209	-77.251	0.975	12.053	0.975	12.053	0.209	-77.251
3180.872	0.207	-77.35	0.976	11.947	0.976	11.947	0.207	-77.35
3190.684	0.205	-77.449	0.976	11.843	0.976	11.843	0.205	-77.449
3200.496	0.203	-77.546	0.977	11.738	0.977	11.738	0.203	-77.546
3210.307	0.202	-77.644	0.977	11.634	0.977	11.634	0.202	-77.644
3220.119	0.2	-77.741	0.977	11.531	0.977	11.531	0.2	-77.741
