! AVX Thin Film Operation		Date: April 2012 
! Description: Accu-P® Series, Thin Film, SMD, RF Capacitor
! Part Number: 12101J5R1ABTTR					
!	50	MHz	-	20.05	GHz			
!	Serial	Measurements						
!								
#	MHZ	S	MA	R	50			
!	S11	S21	S12	S22				
!	dB	Phase	dB	Phase	dB	Phase	dB	Phase
100	0.952	-17.803	0.306	72.173	0.306	72.173	0.952	-17.803
109.812	0.943	-19.433	0.333	70.541	0.333	70.541	0.943	-19.433
119.623	0.933	-21.032	0.359	68.939	0.359	68.939	0.933	-21.032
129.435	0.923	-22.6	0.384	67.369	0.384	67.369	0.923	-22.6
139.247	0.912	-24.136	0.409	65.831	0.409	65.831	0.912	-24.136
149.058	0.901	-25.638	0.433	64.326	0.433	64.326	0.901	-25.638
158.87	0.89	-27.106	0.456	62.856	0.456	62.856	0.89	-27.106
168.682	0.878	-28.54	0.478	61.42	0.478	61.42	0.878	-28.54
178.494	0.866	-29.938	0.499	60.019	0.499	60.019	0.866	-29.938
188.305	0.854	-31.301	0.52	58.653	0.52	58.653	0.854	-31.301
198.117	0.842	-32.629	0.539	57.323	0.539	57.323	0.842	-32.629
207.929	0.829	-33.922	0.558	56.028	0.558	56.028	0.829	-33.922
217.74	0.817	-35.18	0.576	54.767	0.576	54.767	0.817	-35.18
227.552	0.804	-36.404	0.593	53.541	0.593	53.541	0.804	-36.404
237.364	0.792	-37.594	0.61	52.349	0.61	52.349	0.792	-37.594
247.175	0.779	-38.75	0.626	51.19	0.626	51.19	0.779	-38.75
256.987	0.767	-39.873	0.641	50.065	0.641	50.065	0.767	-39.873
266.799	0.754	-40.964	0.656	48.971	0.656	48.971	0.754	-40.964
276.611	0.742	-42.024	0.669	47.909	0.669	47.909	0.742	-42.024
286.422	0.73	-43.053	0.683	46.877	0.683	46.877	0.73	-43.053
296.234	0.718	-44.053	0.695	45.875	0.695	45.875	0.718	-44.053
306.046	0.706	-45.023	0.707	44.902	0.707	44.902	0.706	-45.023
315.857	0.694	-45.965	0.719	43.958	0.719	43.958	0.694	-45.965
325.669	0.683	-46.88	0.73	43.04	0.73	43.04	0.683	-46.88
335.481	0.671	-47.768	0.74	42.15	0.74	42.15	0.671	-47.768
345.292	0.66	-48.63	0.75	41.285	0.75	41.285	0.66	-48.63
355.104	0.649	-49.468	0.76	40.445	0.76	40.445	0.649	-49.468
364.916	0.638	-50.281	0.769	39.629	0.769	39.629	0.638	-50.281
374.727	0.627	-51.071	0.778	38.836	0.778	38.836	0.627	-51.071
384.539	0.617	-51.839	0.786	38.066	0.786	38.066	0.617	-51.839
394.351	0.606	-52.585	0.794	37.317	0.794	37.317	0.606	-52.585
404.163	0.596	-53.31	0.802	36.59	0.802	36.59	0.596	-53.31
413.974	0.586	-54.014	0.809	35.883	0.809	35.883	0.586	-54.014
423.786	0.576	-54.699	0.816	35.195	0.816	35.195	0.576	-54.699
433.598	0.567	-55.366	0.823	34.526	0.823	34.526	0.567	-55.366
443.409	0.557	-56.014	0.829	33.875	0.829	33.875	0.557	-56.014
453.221	0.548	-56.644	0.835	33.242	0.835	33.242	0.548	-56.644
463.033	0.539	-57.258	0.841	32.626	0.841	32.626	0.539	-57.258
472.844	0.53	-57.855	0.847	32.026	0.847	32.026	0.53	-57.855
482.656	0.522	-58.436	0.852	31.442	0.852	31.442	0.522	-58.436
492.468	0.513	-59.003	0.857	30.873	0.857	30.873	0.513	-59.003
502.279	0.505	-59.554	0.862	30.318	0.862	30.318	0.505	-59.554
512.091	0.497	-60.092	0.867	29.778	0.867	29.778	0.497	-60.092
521.903	0.489	-60.616	0.871	29.251	0.871	29.251	0.489	-60.616
531.715	0.481	-61.127	0.876	28.738	0.876	28.738	0.481	-61.127
541.526	0.473	-61.625	0.88	28.237	0.88	28.237	0.473	-61.625
551.338	0.466	-62.111	0.884	27.748	0.884	27.748	0.466	-62.111
561.15	0.458	-62.585	0.888	27.271	0.888	27.271	0.458	-62.585
570.961	0.451	-63.047	0.891	26.806	0.891	26.806	0.451	-63.047
580.773	0.444	-63.499	0.895	26.351	0.895	26.351	0.444	-63.499
590.585	0.437	-63.94	0.898	25.907	0.898	25.907	0.437	-63.94
600.396	0.43	-64.371	0.902	25.473	0.902	25.473	0.43	-64.371
610.208	0.423	-64.791	0.905	25.049	0.905	25.049	0.423	-64.791
620.02	0.417	-65.203	0.908	24.635	0.908	24.635	0.417	-65.203
629.832	0.41	-65.605	0.911	24.23	0.911	24.23	0.41	-65.605
639.643	0.404	-65.998	0.914	23.834	0.914	23.834	0.404	-65.998
649.455	0.398	-66.382	0.916	23.447	0.916	23.447	0.398	-66.382
659.267	0.392	-66.758	0.919	23.067	0.919	23.067	0.392	-66.758
669.078	0.386	-67.126	0.921	22.696	0.921	22.696	0.386	-67.126
678.89	0.38	-67.486	0.924	22.333	0.924	22.333	0.38	-67.486
688.702	0.374	-67.838	0.926	21.977	0.926	21.977	0.374	-67.838
698.513	0.369	-68.183	0.928	21.629	0.928	21.629	0.369	-68.183
708.325	0.363	-68.522	0.931	21.288	0.931	21.288	0.363	-68.522
718.137	0.358	-68.853	0.933	20.953	0.933	20.953	0.358	-68.853
727.948	0.352	-69.177	0.935	20.625	0.935	20.625	0.352	-69.177
737.76	0.347	-69.495	0.937	20.304	0.937	20.304	0.347	-69.495
747.572	0.342	-69.807	0.939	19.988	0.939	19.988	0.342	-69.807
757.384	0.337	-70.113	0.94	19.679	0.94	19.679	0.337	-70.113
767.195	0.332	-70.412	0.942	19.376	0.942	19.376	0.332	-70.412
777.007	0.327	-70.707	0.944	19.078	0.944	19.078	0.327	-70.707
786.819	0.322	-70.995	0.945	18.786	0.945	18.786	0.322	-70.995
796.63	0.317	-71.278	0.947	18.499	0.947	18.499	0.317	-71.278
806.442	0.313	-71.556	0.949	18.218	0.949	18.218	0.313	-71.556
816.254	0.308	-71.829	0.95	17.941	0.95	17.941	0.308	-71.829
826.065	0.304	-72.097	0.952	17.669	0.952	17.669	0.304	-72.097
835.877	0.299	-72.361	0.953	17.402	0.953	17.402	0.299	-72.361
845.689	0.295	-72.619	0.954	17.14	0.954	17.14	0.295	-72.619
855.5	0.29	-72.873	0.956	16.882	0.956	16.882	0.29	-72.873
865.312	0.286	-73.123	0.957	16.628	0.957	16.628	0.286	-73.123
875.124	0.282	-73.368	0.958	16.378	0.958	16.378	0.282	-73.368
884.936	0.278	-73.61	0.959	16.133	0.959	16.133	0.278	-73.61
894.747	0.274	-73.847	0.961	15.892	0.961	15.892	0.274	-73.847
904.559	0.27	-74.08	0.962	15.654	0.962	15.654	0.27	-74.08
914.371	0.266	-74.31	0.963	15.42	0.963	15.42	0.266	-74.31
924.182	0.262	-74.536	0.964	15.19	0.964	15.19	0.262	-74.536
933.994	0.258	-74.758	0.965	14.964	0.965	14.964	0.258	-74.758
943.806	0.254	-74.976	0.966	14.741	0.966	14.741	0.254	-74.976
953.617	0.251	-75.192	0.967	14.521	0.967	14.521	0.251	-75.192
963.429	0.247	-75.403	0.968	14.305	0.968	14.305	0.247	-75.403
973.241	0.243	-75.612	0.969	14.092	0.969	14.092	0.243	-75.612
983.053	0.24	-75.817	0.97	13.882	0.97	13.882	0.24	-75.817
992.864	0.236	-76.02	0.97	13.675	0.97	13.675	0.236	-76.02
1002.676	0.233	-76.219	0.971	13.47	0.971	13.47	0.233	-76.219
1012.488	0.23	-76.415	0.972	13.269	0.972	13.269	0.23	-76.415
1022.299	0.226	-76.609	0.973	13.071	0.973	13.071	0.226	-76.609
1032.111	0.223	-76.799	0.974	12.875	0.974	12.875	0.223	-76.799
1041.923	0.22	-76.987	0.974	12.682	0.974	12.682	0.22	-76.987
1051.734	0.216	-77.172	0.975	12.492	0.975	12.492	0.216	-77.172
1061.546	0.213	-77.355	0.976	12.304	0.976	12.304	0.213	-77.355
1071.358	0.21	-77.535	0.976	12.119	0.976	12.119	0.21	-77.535
1081.169	0.207	-77.712	0.977	11.936	0.977	11.936	0.207	-77.712
1090.981	0.204	-77.887	0.978	11.755	0.978	11.755	0.204	-77.887
1100.793	0.201	-78.06	0.978	11.577	0.978	11.577	0.201	-78.06
1110.605	0.198	-78.23	0.979	11.401	0.979	11.401	0.198	-78.23
1120.416	0.195	-78.398	0.98	11.227	0.98	11.227	0.195	-78.398
1130.228	0.192	-78.564	0.98	11.055	0.98	11.055	0.192	-78.564
1140.04	0.189	-78.727	0.981	10.886	0.981	10.886	0.189	-78.727
1149.851	0.186	-78.889	0.981	10.718	0.981	10.718	0.186	-78.889
1159.663	0.183	-79.048	0.982	10.553	0.982	10.553	0.183	-79.048
1169.475	0.18	-79.205	0.982	10.389	0.982	10.389	0.18	-79.205
1179.286	0.178	-79.36	0.983	10.228	0.983	10.228	0.178	-79.36
1189.098	0.175	-79.513	0.983	10.068	0.983	10.068	0.175	-79.513
1198.91	0.172	-79.664	0.984	9.91	0.984	9.91	0.172	-79.664
1208.722	0.169	-79.814	0.984	9.754	0.984	9.754	0.169	-79.814
1218.533	0.167	-79.961	0.985	9.599	0.985	9.599	0.167	-79.961
1228.345	0.164	-80.106	0.985	9.446	0.985	9.446	0.164	-80.106
1238.157	0.162	-80.25	0.986	9.295	0.986	9.295	0.162	-80.25
1247.968	0.159	-80.392	0.986	9.146	0.986	9.146	0.159	-80.392
1257.78	0.156	-80.532	0.986	8.998	0.986	8.998	0.156	-80.532
1267.592	0.154	-80.67	0.987	8.852	0.987	8.852	0.154	-80.67
1277.403	0.151	-80.807	0.987	8.707	0.987	8.707	0.151	-80.807
1287.215	0.149	-80.942	0.988	8.564	0.988	8.564	0.149	-80.942
1297.027	0.146	-81.075	0.988	8.422	0.988	8.422	0.146	-81.075
1306.838	0.144	-81.207	0.988	8.282	0.988	8.282	0.144	-81.207
1316.65	0.142	-81.337	0.989	8.143	0.989	8.143	0.142	-81.337
1326.462	0.139	-81.466	0.989	8.005	0.989	8.005	0.139	-81.466
1336.274	0.137	-81.592	0.989	7.869	0.989	7.869	0.137	-81.592
1346.085	0.135	-81.718	0.99	7.734	0.99	7.734	0.135	-81.718
1355.897	0.132	-81.842	0.99	7.601	0.99	7.601	0.132	-81.842
1365.709	0.13	-81.964	0.99	7.469	0.99	7.469	0.13	-81.964
1375.52	0.128	-82.085	0.991	7.337	0.991	7.337	0.128	-82.085
1385.332	0.125	-82.204	0.991	7.208	0.991	7.208	0.125	-82.204
1395.144	0.123	-82.322	0.991	7.079	0.991	7.079	0.123	-82.322
1404.955	0.121	-82.438	0.991	6.952	0.991	6.952	0.121	-82.438
1414.767	0.119	-82.553	0.992	6.825	0.992	6.825	0.119	-82.553
1424.579	0.117	-82.666	0.992	6.7	0.992	6.7	0.117	-82.666
1434.39	0.115	-82.778	0.992	6.576	0.992	6.576	0.115	-82.778
1444.202	0.112	-82.889	0.992	6.453	0.992	6.453	0.112	-82.889
1454.014	0.11	-82.998	0.993	6.331	0.993	6.331	0.11	-82.998
1463.826	0.108	-83.106	0.993	6.211	0.993	6.211	0.108	-83.106
1473.637	0.106	-83.212	0.993	6.091	0.993	6.091	0.106	-83.212
1483.449	0.104	-83.317	0.993	5.972	0.993	5.972	0.104	-83.317
1493.261	0.102	-83.42	0.993	5.854	0.993	5.854	0.102	-83.42
1503.072	0.1	-83.522	0.994	5.737	0.994	5.737	0.1	-83.522
1512.884	0.098	-83.623	0.994	5.621	0.994	5.621	0.098	-83.623
1522.696	0.096	-83.722	0.994	5.506	0.994	5.506	0.096	-83.722
1532.507	0.094	-83.819	0.994	5.392	0.994	5.392	0.094	-83.819
1542.319	0.092	-83.916	0.994	5.279	0.994	5.279	0.092	-83.916
1552.131	0.09	-84.01	0.995	5.167	0.995	5.167	0.09	-84.01
1561.943	0.088	-84.103	0.995	5.056	0.995	5.056	0.088	-84.103
1571.754	0.086	-84.195	0.995	4.945	0.995	4.945	0.086	-84.195
1581.566	0.084	-84.285	0.995	4.836	0.995	4.836	0.084	-84.285
1591.378	0.082	-84.373	0.995	4.727	0.995	4.727	0.082	-84.373
1601.189	0.081	-84.46	0.995	4.619	0.995	4.619	0.081	-84.46
1611.001	0.079	-84.546	0.996	4.512	0.996	4.512	0.079	-84.546
1620.813	0.077	-84.629	0.996	4.405	0.996	4.405	0.077	-84.629
1630.624	0.075	-84.711	0.996	4.299	0.996	4.299	0.075	-84.711
1640.436	0.073	-84.791	0.996	4.195	0.996	4.195	0.073	-84.791
1650.248	0.071	-84.869	0.996	4.09	0.996	4.09	0.071	-84.869
1660.059	0.07	-84.946	0.996	3.987	0.996	3.987	0.07	-84.946
1669.871	0.068	-85.02	0.996	3.884	0.996	3.884	0.068	-85.02
1679.683	0.066	-85.092	0.997	3.782	0.997	3.782	0.066	-85.092
1689.495	0.064	-85.163	0.997	3.681	0.997	3.681	0.064	-85.163
1699.306	0.062	-85.231	0.997	3.58	0.997	3.58	0.062	-85.231
1709.118	0.061	-85.296	0.997	3.481	0.997	3.481	0.061	-85.296
1718.93	0.059	-85.36	0.997	3.381	0.997	3.381	0.059	-85.36
1728.741	0.057	-85.42	0.997	3.283	0.997	3.283	0.057	-85.42
1738.553	0.056	-85.478	0.997	3.185	0.997	3.185	0.056	-85.478
1748.365	0.054	-85.533	0.997	3.087	0.997	3.087	0.054	-85.533
1758.176	0.052	-85.585	0.997	2.991	0.997	2.991	0.052	-85.585
1767.988	0.051	-85.634	0.997	2.895	0.997	2.895	0.051	-85.634
1777.8	0.049	-85.679	0.998	2.799	0.998	2.799	0.049	-85.679
1787.611	0.047	-85.721	0.998	2.704	0.998	2.704	0.047	-85.721
1797.423	0.046	-85.758	0.998	2.61	0.998	2.61	0.046	-85.758
1807.235	0.044	-85.791	0.998	2.516	0.998	2.516	0.044	-85.791
1817.047	0.042	-85.819	0.998	2.423	0.998	2.423	0.042	-85.819
1826.858	0.041	-85.842	0.998	2.33	0.998	2.33	0.041	-85.842
1836.67	0.039	-85.859	0.998	2.238	0.998	2.238	0.039	-85.859
1846.482	0.037	-85.869	0.998	2.147	0.998	2.147	0.037	-85.869
1856.293	0.036	-85.872	0.998	2.056	0.998	2.056	0.036	-85.872
1866.105	0.034	-85.867	0.998	1.965	0.998	1.965	0.034	-85.867
1875.917	0.033	-85.853	0.998	1.876	0.998	1.876	0.033	-85.853
1885.728	0.031	-85.829	0.998	1.786	0.998	1.786	0.031	-85.829
1895.54	0.03	-85.793	0.998	1.697	0.998	1.697	0.03	-85.793
1905.352	0.028	-85.744	0.998	1.609	0.998	1.609	0.028	-85.744
1915.164	0.027	-85.679	0.998	1.521	0.998	1.521	0.027	-85.679
1924.975	0.025	-85.596	0.998	1.433	0.998	1.433	0.025	-85.596
1934.787	0.024	-85.491	0.998	1.346	0.998	1.346	0.024	-85.491
1944.599	0.022	-85.361	0.998	1.26	0.998	1.26	0.022	-85.361
1954.41	0.021	-85.2	0.998	1.174	0.998	1.174	0.021	-85.2
1964.222	0.019	-85.001	0.999	1.088	0.999	1.088	0.019	-85.001
1974.034	0.018	-84.756	0.999	1.003	0.999	1.003	0.018	-84.756
1983.845	0.016	-84.451	0.999	0.919	0.999	0.919	0.016	-84.451
1993.657	0.015	-84.07	0.999	0.834	0.999	0.834	0.015	-84.07
2003.469	0.013	-83.588	0.999	0.75	0.999	0.75	0.013	-83.588
2013.28	0.012	-82.969	0.999	0.667	0.999	0.667	0.012	-82.969
2023.092	0.01	-82.157	0.999	0.584	0.999	0.584	0.01	-82.157
2032.904	8.85E-03	-81.06	0.999	0.502	0.999	0.502	8.85E-03	-81.06
2042.716	7.43E-03	-79.52	0.999	0.419	0.999	0.419	7.43E-03	-79.52
2052.527	6.03E-03	-77.234	0.999	0.338	0.999	0.338	6.03E-03	-77.234
2062.339	4.66E-03	-73.552	0.999	0.256	0.999	0.256	4.66E-03	-73.552
2072.151	3.32E-03	-66.823	0.999	0.175	0.999	0.175	3.32E-03	-66.823
2081.962	2.10E-03	-51.744	0.999	0.095	0.999	0.095	2.10E-03	-51.744
2091.774	1.32E-03	-10.996	0.999	0.014	0.999	0.014	1.32E-03	-10.996
2101.586	1.73E-03	41.229	0.999	-0.065	0.999	-0.065	1.73E-03	41.229
2111.397	2.84E-03	62.661	0.999	-0.145	0.999	-0.145	2.84E-03	62.661
2121.209	4.12E-03	71.394	0.999	-0.224	0.999	-0.224	4.12E-03	71.394
2131.021	5.44E-03	75.885	0.999	-0.303	0.999	-0.303	5.44E-03	75.885
2140.833	6.78E-03	78.569	0.999	-0.381	0.999	-0.381	6.78E-03	78.569
2150.644	8.12E-03	80.334	0.999	-0.459	0.999	-0.459	8.12E-03	80.334
2160.456	9.46E-03	81.571	0.999	-0.537	0.999	-0.537	9.46E-03	81.571
2170.268	0.011	82.477	0.999	-0.614	0.999	-0.614	0.011	82.477
2180.079	0.012	83.164	0.999	-0.691	0.999	-0.691	0.012	83.164
2189.891	0.013	83.697	0.999	-0.768	0.999	-0.768	0.013	83.697
2199.703	0.015	84.119	0.999	-0.844	0.999	-0.844	0.015	84.119
2209.514	0.016	84.457	0.999	-0.92	0.999	-0.92	0.016	84.457
2219.326	0.017	84.731	0.999	-0.996	0.999	-0.996	0.017	84.731
2229.138	0.019	84.956	0.999	-1.071	0.999	-1.071	0.019	84.956
2238.949	0.02	85.14	0.999	-1.146	0.999	-1.146	0.02	85.14
2248.761	0.021	85.292	0.998	-1.221	0.998	-1.221	0.021	85.292
2258.573	0.023	85.418	0.998	-1.295	0.998	-1.295	0.023	85.418
2268.385	0.024	85.521	0.998	-1.369	0.998	-1.369	0.024	85.521
2278.196	0.025	85.606	0.998	-1.443	0.998	-1.443	0.025	85.606
2288.008	0.027	85.676	0.998	-1.517	0.998	-1.517	0.027	85.676
2297.82	0.028	85.732	0.998	-1.59	0.998	-1.59	0.028	85.732
2307.631	0.029	85.776	0.998	-1.663	0.998	-1.663	0.029	85.776
2317.443	0.03	85.81	0.998	-1.736	0.998	-1.736	0.03	85.81
2327.255	0.032	85.836	0.998	-1.808	0.998	-1.808	0.032	85.836
2337.066	0.033	85.854	0.998	-1.88	0.998	-1.88	0.033	85.854
2346.878	0.034	85.866	0.998	-1.952	0.998	-1.952	0.034	85.866
2356.69	0.035	85.872	0.998	-2.024	0.998	-2.024	0.035	85.872
2366.501	0.037	85.872	0.998	-2.095	0.998	-2.095	0.037	85.872
2376.313	0.038	85.868	0.998	-2.166	0.998	-2.166	0.038	85.868
2386.125	0.039	85.859	0.998	-2.237	0.998	-2.237	0.039	85.859
2395.937	0.04	85.847	0.998	-2.307	0.998	-2.307	0.04	85.847
2405.748	0.042	85.831	0.998	-2.377	0.998	-2.377	0.042	85.831
2415.56	0.043	85.812	0.998	-2.447	0.998	-2.447	0.043	85.812
2425.372	0.044	85.791	0.998	-2.517	0.998	-2.517	0.044	85.791
2435.183	0.045	85.767	0.998	-2.587	0.998	-2.587	0.045	85.767
2444.995	0.046	85.74	0.998	-2.656	0.998	-2.656	0.046	85.74
2454.807	0.048	85.712	0.998	-2.725	0.998	-2.725	0.048	85.712
2464.618	0.049	85.682	0.998	-2.794	0.998	-2.794	0.049	85.682
2474.43	0.05	85.65	0.997	-2.862	0.997	-2.862	0.05	85.65
2484.242	0.051	85.616	0.997	-2.931	0.997	-2.931	0.051	85.616
2494.054	0.052	85.581	0.997	-2.999	0.997	-2.999	0.052	85.581
2503.865	0.054	85.545	0.997	-3.067	0.997	-3.067	0.054	85.545
2513.677	0.055	85.507	0.997	-3.134	0.997	-3.134	0.055	85.507
2523.489	0.056	85.469	0.997	-3.202	0.997	-3.202	0.056	85.469
2533.3	0.057	85.429	0.997	-3.269	0.997	-3.269	0.057	85.429
2543.112	0.058	85.388	0.997	-3.336	0.997	-3.336	0.058	85.388
2552.924	0.059	85.346	0.997	-3.402	0.997	-3.402	0.059	85.346
2562.735	0.061	85.304	0.997	-3.469	0.997	-3.469	0.061	85.304
2572.547	0.062	85.261	0.997	-3.535	0.997	-3.535	0.062	85.261
2582.359	0.063	85.217	0.997	-3.601	0.997	-3.601	0.063	85.217
2592.17	0.064	85.172	0.997	-3.667	0.997	-3.667	0.064	85.172
2601.982	0.065	85.127	0.997	-3.733	0.997	-3.733	0.065	85.127
2611.794	0.066	85.081	0.997	-3.798	0.997	-3.798	0.066	85.081
2621.606	0.067	85.035	0.996	-3.864	0.996	-3.864	0.067	85.035
2631.417	0.069	84.988	0.996	-3.929	0.996	-3.929	0.069	84.988
2641.229	0.07	84.941	0.996	-3.994	0.996	-3.994	0.07	84.941
2651.041	0.071	84.893	0.996	-4.058	0.996	-4.058	0.071	84.893
2660.852	0.072	84.845	0.996	-4.123	0.996	-4.123	0.072	84.845
2670.664	0.073	84.797	0.996	-4.187	0.996	-4.187	0.073	84.797
2680.476	0.074	84.748	0.996	-4.251	0.996	-4.251	0.074	84.748
2690.287	0.075	84.699	0.996	-4.315	0.996	-4.315	0.075	84.699
2700.099	0.076	84.65	0.996	-4.379	0.996	-4.379	0.076	84.65
2709.911	0.077	84.6	0.996	-4.442	0.996	-4.442	0.077	84.6
2719.722	0.079	84.55	0.996	-4.506	0.996	-4.506	0.079	84.55
2729.534	0.08	84.5	0.996	-4.569	0.996	-4.569	0.08	84.5
2739.346	0.081	84.45	0.995	-4.632	0.995	-4.632	0.081	84.45
2749.158	0.082	84.399	0.995	-4.695	0.995	-4.695	0.082	84.399
2758.969	0.083	84.349	0.995	-4.757	0.995	-4.757	0.083	84.349
2768.781	0.084	84.298	0.995	-4.82	0.995	-4.82	0.084	84.298
2778.593	0.085	84.247	0.995	-4.882	0.995	-4.882	0.085	84.247
2788.404	0.086	84.196	0.995	-4.944	0.995	-4.944	0.086	84.196
2798.216	0.087	84.145	0.995	-5.006	0.995	-5.006	0.087	84.145
2808.028	0.088	84.093	0.995	-5.068	0.995	-5.068	0.088	84.093
2817.839	0.089	84.042	0.995	-5.13	0.995	-5.13	0.089	84.042
2827.651	0.09	83.99	0.995	-5.191	0.995	-5.191	0.09	83.99
2837.463	0.092	83.938	0.995	-5.252	0.995	-5.252	0.092	83.938
2847.275	0.093	83.887	0.994	-5.313	0.994	-5.313	0.093	83.887
2857.086	0.094	83.835	0.994	-5.374	0.994	-5.374	0.094	83.835
2866.898	0.095	83.783	0.994	-5.435	0.994	-5.435	0.095	83.783
2876.71	0.096	83.731	0.994	-5.496	0.994	-5.496	0.096	83.731
2886.521	0.097	83.679	0.994	-5.556	0.994	-5.556	0.097	83.679
2896.333	0.098	83.627	0.994	-5.617	0.994	-5.617	0.098	83.627
2906.145	0.099	83.575	0.994	-5.677	0.994	-5.677	0.099	83.575
2915.956	0.1	83.522	0.994	-5.737	0.994	-5.737	0.1	83.522
2925.768	0.101	83.47	0.994	-5.797	0.994	-5.797	0.101	83.47
2935.58	0.102	83.418	0.993	-5.857	0.993	-5.857	0.102	83.418
2945.391	0.103	83.366	0.993	-5.916	0.993	-5.916	0.103	83.366
2955.203	0.104	83.313	0.993	-5.976	0.993	-5.976	0.104	83.313
2965.015	0.105	83.261	0.993	-6.035	0.993	-6.035	0.105	83.261
2974.827	0.106	83.209	0.993	-6.094	0.993	-6.094	0.106	83.209
2984.638	0.107	83.157	0.993	-6.153	0.993	-6.153	0.107	83.157
2994.45	0.108	83.104	0.993	-6.212	0.993	-6.212	0.108	83.104
3004.262	0.109	83.052	0.993	-6.271	0.993	-6.271	0.109	83.052
3014.073	0.11	83	0.993	-6.33	0.993	-6.33	0.11	83
3023.885	0.111	82.947	0.993	-6.388	0.993	-6.388	0.111	82.947
3033.697	0.112	82.895	0.992	-6.446	0.992	-6.446	0.112	82.895
3043.508	0.113	82.843	0.992	-6.505	0.992	-6.505	0.113	82.843
3053.32	0.114	82.791	0.992	-6.563	0.992	-6.563	0.114	82.791
3063.132	0.115	82.738	0.992	-6.621	0.992	-6.621	0.115	82.738
3072.944	0.116	82.686	0.992	-6.678	0.992	-6.678	0.116	82.686
3082.755	0.117	82.634	0.992	-6.736	0.992	-6.736	0.117	82.634
3092.567	0.118	82.582	0.992	-6.794	0.992	-6.794	0.118	82.582
3102.379	0.119	82.53	0.992	-6.851	0.992	-6.851	0.119	82.53
3112.19	0.12	82.478	0.991	-6.908	0.991	-6.908	0.12	82.478
3122.002	0.121	82.426	0.991	-6.965	0.991	-6.965	0.121	82.426
3131.814	0.122	82.374	0.991	-7.022	0.991	-7.022	0.122	82.374
3141.625	0.123	82.322	0.991	-7.079	0.991	-7.079	0.123	82.322
3151.437	0.124	82.27	0.991	-7.136	0.991	-7.136	0.124	82.27
3161.249	0.125	82.218	0.991	-7.193	0.991	-7.193	0.125	82.218
3171.06	0.126	82.166	0.991	-7.249	0.991	-7.249	0.126	82.166
3180.872	0.127	82.114	0.991	-7.306	0.991	-7.306	0.127	82.114
3190.684	0.128	82.062	0.99	-7.362	0.99	-7.362	0.128	82.062
3200.496	0.129	82.01	0.99	-7.418	0.99	-7.418	0.129	82.01
3210.307	0.13	81.959	0.99	-7.474	0.99	-7.474	0.13	81.959
3220.119	0.131	81.907	0.99	-7.53	0.99	-7.53	0.131	81.907
3229.931	0.132	81.855	0.99	-7.586	0.99	-7.586	0.132	81.855
3239.742	0.133	81.804	0.99	-7.642	0.99	-7.642	0.133	81.804
3249.554	0.134	81.752	0.99	-7.697	0.99	-7.697	0.134	81.752
3259.366	0.135	81.701	0.99	-7.753	0.99	-7.753	0.135	81.701
3269.177	0.136	81.649	0.989	-7.808	0.989	-7.808	0.136	81.649
