! AVX Thin Film Operation		Date: April 2012 
! Description: Accu-P® Series, Thin Film, SMD, RF Capacitor
! Part Number: 12101J0R3PBTTR					
!	100	MHz	-	20.05	GHz			
!	Serial	Measurements						
!								
#	MHZ	S	MA	R	50			
!	S11	S21	S12	S22				
!	dB	Phase	dB	Phase	dB	Phase	dB	Phase
50 1 -0.54 9.425e-3 89.4 9.425e-3 89.4 1 -0.54
100 1 -1.08 0.019 88.857 0.019 88.857 1 -1.08
150 1 -1.62 0.028 88.314 0.028 88.314 1 -1.62
200 0.999 -2.16 0.038 87.771 0.038 87.771 0.999 -2.16
250 0.999 -2.7 0.047 87.228 0.047 87.228 0.999 -2.7
300 0.998 -3.24 0.057 86.685 0.057 86.685 0.998 -3.24
350 0.998 -3.78 0.066 86.142 0.066 86.142 0.998 -3.78
400 0.997 -4.32 0.075 85.599 0.075 85.599 0.997 -4.32
450 0.996 -4.86 0.085 85.056 0.085 85.056 0.996 -4.86
500 0.995 -5.4 0.094 84.512 0.094 84.512 0.995 -5.4
550 0.994 -5.94 0.103 83.969 0.103 83.969 0.994 -5.94
600 0.993 -6.481 0.113 83.426 0.113 83.426 0.993 -6.481
650 0.992 -7.021 0.122 82.883 0.122 82.883 0.992 -7.021
700 0.991 -7.561 0.132 82.339 0.132 82.339 0.991 -7.561
750 0.99 -8.101 0.141 81.796 0.141 81.796 0.99 -8.101
800 0.988 -8.642 0.15 81.252 0.15 81.252 0.988 -8.642
850 0.987 -9.182 0.16 80.709 0.16 80.709 0.987 -9.182
900 0.985 -9.723 0.169 80.165 0.169 80.165 0.985 -9.723
950 0.984 -10.263 0.178 79.621 0.178 79.621 0.984 -10.263
1000 0.982 -10.804 0.187 79.077 0.187 79.077 0.982 -10.804
1050 0.98 -11.345 0.197 78.534 0.197 78.534 0.98 -11.345
1100 0.978 -11.885 0.206 77.99 0.206 77.99 0.978 -11.885
1150 0.976 -12.426 0.215 77.445 0.215 77.445 0.976 -12.426
1200 0.974 -12.967 0.224 76.901 0.224 76.901 0.974 -12.967
1250 0.972 -13.508 0.234 76.357 0.234 76.357 0.972 -13.508
1300 0.97 -14.049 0.243 75.813 0.243 75.813 0.97 -14.049
1350 0.967 -14.59 0.252 75.268 0.252 75.268 0.967 -14.59
1400 0.965 -15.131 0.261 74.724 0.261 74.724 0.965 -15.131
1450 0.962 -15.672 0.27 74.179 0.27 74.179 0.962 -15.672
1500 0.959 -16.214 0.279 73.634 0.279 73.634 0.959 -16.214
1550 0.957 -16.755 0.288 73.09 0.288 73.09 0.957 -16.755
1600 0.954 -17.296 0.297 72.545 0.297 72.545 0.954 -17.296
1650 0.951 -17.838 0.306 72 0.306 72 0.951 -17.838
1700 0.948 -18.379 0.315 71.455 0.315 71.455 0.948 -18.379
1750 0.945 -18.921 0.324 70.909 0.324 70.909 0.945 -18.921
1800 0.942 -19.463 0.333 70.364 0.333 70.364 0.942 -19.463
1850 0.939 -20.004 0.342 69.819 0.342 69.819 0.939 -20.004
1900 0.935 -20.546 0.351 69.273 0.351 69.273 0.935 -20.546
1950 0.932 -21.088 0.36 68.728 0.36 68.728 0.932 -21.088
2000 0.928 -21.629 0.369 68.182 0.369 68.182 0.928 -21.629
2050 0.925 -22.171 0.377 67.637 0.377 67.637 0.925 -22.171
2100 0.921 -22.713 0.386 67.091 0.386 67.091 0.921 -22.713
2150 0.917 -23.255 0.395 66.545 0.395 66.545 0.917 -23.255
2200 0.914 -23.797 0.403 66 0.403 66 0.914 -23.797
2250 0.91 -24.339 0.412 65.454 0.412 65.454 0.91 -24.339
2300 0.906 -24.88 0.421 64.908 0.421 64.908 0.906 -24.88
2350 0.902 -25.422 0.429 64.362 0.429 64.362 0.902 -25.422
2400 0.897 -25.964 0.438 63.817 0.438 63.817 0.897 -25.964
2450 0.893 -26.506 0.446 63.271 0.446 63.271 0.893 -26.506
2500 0.889 -27.047 0.455 62.725 0.455 62.725 0.889 -27.047
2550 0.884 -27.589 0.463 62.179 0.463 62.179 0.884 -27.589
2600 0.88 -28.13 0.471 61.633 0.471 61.633 0.88 -28.13
2650 0.875 -28.672 0.48 61.088 0.48 61.088 0.875 -28.672
2700 0.871 -29.213 0.488 60.542 0.488 60.542 0.871 -29.213
2750 0.866 -29.754 0.496 59.996 0.496 59.996 0.866 -29.754
2800 0.861 -30.295 0.504 59.451 0.504 59.451 0.861 -30.295
2850 0.856 -30.836 0.513 58.905 0.513 58.905 0.856 -30.836
2900 0.851 -31.377 0.521 58.36 0.521 58.36 0.851 -31.377
2950 0.846 -31.918 0.529 57.815 0.529 57.815 0.846 -31.918
3000 0.841 -32.458 0.537 57.27 0.537 57.27 0.841 -32.458
3050 0.836 -32.998 0.545 56.725 0.545 56.725 0.836 -32.998
3100 0.831 -33.538 0.552 56.18 0.552 56.18 0.831 -33.538
3150 0.825 -34.078 0.56 55.635 0.56 55.635 0.825 -34.078
3200 0.82 -34.617 0.568 55.091 0.568 55.091 0.82 -34.617
3250 0.815 -35.156 0.576 54.547 0.576 54.547 0.815 -35.156
3300 0.809 -35.695 0.583 54.003 0.583 54.003 0.809 -35.695
3350 0.803 -36.234 0.591 53.459 0.591 53.459 0.803 -36.234
3400 0.798 -36.772 0.599 52.915 0.599 52.915 0.798 -36.772
3450 0.792 -37.31 0.606 52.372 0.606 52.372 0.792 -37.31
3500 0.786 -37.847 0.614 51.829 0.614 51.829 0.786 -37.847
3550 0.78 -38.384 0.621 51.287 0.621 51.287 0.78 -38.384
3600 0.774 -38.921 0.628 50.745 0.628 50.745 0.774 -38.921
3650 0.768 -39.457 0.636 50.203 0.636 50.203 0.768 -39.457
3700 0.762 -39.992 0.643 49.661 0.643 49.661 0.762 -39.992
3750 0.756 -40.528 0.65 49.12 0.65 49.12 0.756 -40.528
3800 0.75 -41.062 0.657 48.58 0.657 48.58 0.75 -41.062
3850 0.744 -41.596 0.664 48.04 0.664 48.04 0.744 -41.596
3900 0.737 -42.13 0.671 47.5 0.671 47.5 0.737 -42.13
3950 0.731 -42.662 0.678 46.961 0.678 46.961 0.731 -42.662
4000 0.724 -43.195 0.684 46.422 0.684 46.422 0.724 -43.195
4050 0.718 -43.726 0.691 45.884 0.691 45.884 0.718 -43.726
4100 0.711 -44.257 0.698 45.347 0.698 45.347 0.711 -44.257
4150 0.705 -44.787 0.704 44.81 0.704 44.81 0.705 -44.787
4200 0.698 -45.317 0.711 44.273 0.711 44.273 0.698 -45.317
4250 0.691 -45.845 0.717 43.738 0.717 43.738 0.691 -45.845
4300 0.685 -46.373 0.724 43.203 0.724 43.203 0.685 -46.373
4350 0.678 -46.9 0.73 42.668 0.73 42.668 0.678 -46.9
4400 0.671 -47.426 0.736 42.135 0.736 42.135 0.671 -47.426
4450 0.664 -47.951 0.743 41.602 0.743 41.602 0.664 -47.951
4500 0.657 -48.475 0.749 41.07 0.749 41.07 0.657 -48.475
4550 0.65 -48.999 0.755 40.539 0.755 40.539 0.65 -48.999
4600 0.643 -49.521 0.761 40.008 0.761 40.008 0.643 -49.521
4650 0.636 -50.042 0.767 39.479 0.767 39.479 0.636 -50.042
4700 0.629 -50.562 0.772 38.95 0.772 38.95 0.629 -50.562
4750 0.621 -51.082 0.778 38.422 0.778 38.422 0.621 -51.082
4800 0.614 -51.6 0.784 37.895 0.784 37.895 0.614 -51.6
4850 0.607 -52.116 0.789 37.369 0.789 37.369 0.607 -52.116
4900 0.6 -52.632 0.795 36.844 0.795 36.844 0.6 -52.632
4950 0.592 -53.147 0.8 36.32 0.8 36.32 0.592 -53.147
5000 0.585 -53.66 0.806 35.797 0.806 35.797 0.585 -53.66
5050 0.578 -54.172 0.811 35.275 0.811 35.275 0.578 -54.172
5100 0.57 -54.682 0.816 34.755 0.816 34.755 0.57 -54.682
5150 0.563 -55.191 0.821 34.235 0.821 34.235 0.563 -55.191
5200 0.555 -55.699 0.826 33.717 0.826 33.717 0.555 -55.699
5250 0.548 -56.205 0.831 33.199 0.831 33.199 0.548 -56.205
5300 0.54 -56.71 0.836 32.683 0.836 32.683 0.54 -56.71
5350 0.532 -57.213 0.841 32.168 0.841 32.168 0.532 -57.213
5400 0.525 -57.715 0.845 31.654 0.845 31.654 0.525 -57.715
5450 0.517 -58.215 0.85 31.142 0.85 31.142 0.517 -58.215
5500 0.51 -58.714 0.855 30.631 0.855 30.631 0.51 -58.714
5550 0.502 -59.211 0.859 30.121 0.859 30.121 0.502 -59.211
5600 0.494 -59.706 0.864 29.613 0.864 29.613 0.494 -59.706
5650 0.486 -60.199 0.868 29.106 0.868 29.106 0.486 -60.199
5700 0.479 -60.691 0.872 28.6 0.872 28.6 0.479 -60.691
5750 0.471 -61.18 0.876 28.096 0.876 28.096 0.471 -61.18
5800 0.463 -61.668 0.88 27.593 0.88 27.593 0.463 -61.668
5850 0.455 -62.154 0.884 27.092 0.884 27.092 0.455 -62.154
5900 0.448 -62.638 0.888 26.592 0.888 26.592 0.448 -62.638
5950 0.44 -63.119 0.892 26.093 0.892 26.093 0.44 -63.119
6000 0.432 -63.599 0.896 25.597 0.896 25.597 0.432 -63.599
6050 0.424 -64.077 0.899 25.101 0.899 25.101 0.424 -64.077
6100 0.416 -64.552 0.903 24.608 0.903 24.608 0.416 -64.552
6150 0.409 -65.025 0.907 24.116 0.907 24.116 0.409 -65.025
6200 0.401 -65.496 0.91 23.625 0.91 23.625 0.401 -65.496
6250 0.393 -65.964 0.913 23.137 0.913 23.137 0.393 -65.964
6300 0.385 -66.43 0.917 22.65 0.917 22.65 0.385 -66.43
6350 0.377 -66.893 0.92 22.164 0.92 22.164 0.377 -66.893
6400 0.369 -67.354 0.923 21.681 0.923 21.681 0.369 -67.354
6450 0.362 -67.813 0.926 21.199 0.926 21.199 0.362 -67.813
6500 0.354 -68.268 0.929 20.718 0.929 20.718 0.354 -68.268
6550 0.346 -68.721 0.932 20.24 0.932 20.24 0.346 -68.721
6600 0.338 -69.171 0.935 19.763 0.935 19.763 0.338 -69.171
6650 0.33 -69.617 0.938 19.289 0.938 19.289 0.33 -69.617
6700 0.323 -70.061 0.94 18.816 0.94 18.816 0.323 -70.061
6750 0.315 -70.502 0.943 18.345 0.943 18.345 0.315 -70.502
6800 0.307 -70.939 0.945 17.875 0.945 17.875 0.307 -70.939
6850 0.299 -71.373 0.948 17.408 0.948 17.408 0.299 -71.373
6900 0.291 -71.803 0.95 16.942 0.95 16.942 0.291 -71.803
6950 0.284 -72.23 0.953 16.479 0.953 16.479 0.284 -72.23
7000 0.276 -72.653 0.955 16.017 0.955 16.017 0.276 -72.653
7050 0.268 -73.071 0.957 15.557 0.957 15.557 0.268 -73.071
7100 0.261 -73.486 0.959 15.1 0.959 15.1 0.261 -73.486
7150 0.253 -73.896 0.961 14.644 0.961 14.644 0.253 -73.896
7200 0.245 -74.302 0.963 14.19 0.963 14.19 0.245 -74.302
7250 0.238 -74.702 0.965 13.738 0.965 13.738 0.238 -74.702
7300 0.23 -75.098 0.967 13.288 0.967 13.288 0.23 -75.098
7350 0.222 -75.488 0.969 12.84 0.969 12.84 0.222 -75.488
7400 0.215 -75.872 0.97 12.394 0.97 12.394 0.215 -75.872
7450 0.207 -76.249 0.972 11.951 0.972 11.951 0.207 -76.249
7500 0.2 -76.621 0.973 11.509 0.973 11.509 0.2 -76.621
7550 0.192 -76.984 0.975 11.069 0.975 11.069 0.192 -76.984
7600 0.185 -77.34 0.976 10.632 0.976 10.632 0.185 -77.34
7650 0.177 -77.688 0.978 10.196 0.978 10.196 0.177 -77.688
7700 0.17 -78.026 0.979 9.763 0.979 9.763 0.17 -78.026
7750 0.162 -78.353 0.98 9.331 0.98 9.331 0.162 -78.353
7800 0.155 -78.67 0.981 8.902 0.981 8.902 0.155 -78.67
7850 0.148 -78.973 0.983 8.475 0.983 8.475 0.148 -78.973
7900 0.14 -79.262 0.984 8.05 0.984 8.05 0.14 -79.262
7950 0.133 -79.534 0.985 7.627 0.985 7.627 0.133 -79.534
8000 0.126 -79.788 0.986 7.206 0.986 7.206 0.126 -79.788
8050 0.118 -80.02 0.986 6.787 0.986 6.787 0.118 -80.02
8100 0.111 -80.227 0.987 6.37 0.987 6.37 0.111 -80.227
8150 0.104 -80.404 0.988 5.956 0.988 5.956 0.104 -80.404
8200 0.097 -80.545 0.989 5.544 0.989 5.544 0.097 -80.545
8250 0.09 -80.642 0.989 5.133 0.989 5.133 0.09 -80.642
8300 0.083 -80.685 0.99 4.725 0.99 4.725 0.083 -80.685
8350 0.076 -80.66 0.991 4.319 0.991 4.319 0.076 -80.66
8400 0.069 -80.548 0.991 3.916 0.991 3.916 0.069 -80.548
8450 0.062 -80.32 0.991 3.514 0.991 3.514 0.062 -80.32
8500 0.055 -79.934 0.992 3.115 0.992 3.115 0.055 -79.934
8550 0.048 -79.326 0.992 2.717 0.992 2.717 0.048 -79.326
8600 0.041 -78.387 0.993 2.322 0.993 2.322 0.041 -78.387
8650 0.034 -76.929 0.993 1.929 0.993 1.929 0.034 -76.929
8700 0.028 -74.586 0.993 1.538 0.993 1.538 0.028 -74.586
8750 0.021 -70.557 0.993 1.149 0.993 1.149 0.021 -70.557
8800 0.015 -62.756 0.993 0.763 0.993 0.763 0.015 -62.756
8850 9.359e-3 -44.496 0.993 0.378 0.993 0.378 9.359e-3 -44.496
8900 6.633e-3 0.59 0.993 -3.941e-3 0.993 -3.941e-3 6.633e-3 0.59
8950 9.43e-3 44.921 0.993 -0.384 0.993 -0.384 9.43e-3 44.921
9000 0.015 62.736 0.993 -0.762 0.993 -0.762 0.015 62.736
9050 0.021 70.397 0.993 -1.138 0.993 -1.138 0.021 70.397
9100 0.027 74.38 0.993 -1.512 0.993 -1.512 0.027 74.38
9150 0.034 76.712 0.993 -1.883 0.993 -1.883 0.034 76.712
9200 0.04 78.176 0.993 -2.253 0.993 -2.253 0.04 78.176
9250 0.046 79.132 0.992 -2.62 0.992 -2.62 0.046 79.132
9300 0.053 79.766 0.992 -2.985 0.992 -2.985 0.053 79.766
9350 0.059 80.183 0.992 -3.349 0.992 -3.349 0.059 80.183
9400 0.065 80.448 0.991 -3.71 0.991 -3.71 0.065 80.448
9450 0.071 80.602 0.991 -4.068 0.991 -4.068 0.071 80.602
9500 0.077 80.674 0.99 -4.425 0.99 -4.425 0.077 80.674
9550 0.084 80.683 0.99 -4.78 0.99 -4.78 0.084 80.683
9600 0.09 80.642 0.989 -5.133 0.989 -5.133 0.09 80.642
9650 0.096 80.562 0.989 -5.483 0.989 -5.483 0.096 80.562
9700 0.102 80.45 0.988 -5.832 0.988 -5.832 0.102 80.45
9750 0.108 80.313 0.988 -6.178 0.988 -6.178 0.108 80.313
9800 0.114 80.155 0.987 -6.522 0.987 -6.522 0.114 80.155
9850 0.12 79.979 0.986 -6.865 0.986 -6.865 0.12 79.979
9900 0.126 79.789 0.986 -7.205 0.986 -7.205 0.126 79.789
9950 0.131 79.586 0.985 -7.543 0.985 -7.543 0.131 79.586
10000 0.137 79.373 0.984 -7.879 0.984 -7.879 0.137 79.373
10050 0.143 79.152 0.983 -8.214 0.983 -8.214 0.143 79.152
10100 0.149 78.923 0.982 -8.546 0.982 -8.546 0.149 78.923
10150 0.154 78.688 0.981 -8.876 0.981 -8.876 0.154 78.688
10200 0.16 78.448 0.981 -9.204 0.981 -9.204 0.16 78.448
10250 0.166 78.203 0.98 -9.53 0.98 -9.53 0.166 78.203
10300 0.171 77.955 0.979 -9.854 0.979 -9.854 0.171 77.955
10350 0.177 77.703 0.978 -10.176 0.978 -10.176 0.177 77.703
10400 0.182 77.449 0.977 -10.497 0.977 -10.497 0.182 77.449
10450 0.188 77.192 0.976 -10.815 0.976 -10.815 0.188 77.192
10500 0.193 76.933 0.975 -11.131 0.975 -11.131 0.193 76.933
10550 0.199 76.673 0.974 -11.446 0.974 -11.446 0.199 76.673
10600 0.204 76.412 0.973 -11.758 0.973 -11.758 0.204 76.412
10650 0.209 76.15 0.971 -12.069 0.971 -12.069 0.209 76.15
10700 0.214 75.886 0.97 -12.377 0.97 -12.377 0.214 75.886
10750 0.22 75.623 0.969 -12.684 0.969 -12.684 0.22 75.623
10800 0.225 75.359 0.968 -12.989 0.968 -12.989 0.225 75.359
10850 0.23 75.095 0.967 -13.292 0.967 -13.292 0.23 75.095
10900 0.235 74.83 0.966 -13.593 0.966 -13.593 0.235 74.83
10950 0.24 74.566 0.964 -13.892 0.964 -13.892 0.24 74.566
11000 0.245 74.302 0.963 -14.189 0.963 -14.189 0.245 74.302
11050 0.25 74.038 0.962 -14.485 0.962 -14.485 0.25 74.038
11100 0.255 73.775 0.96 -14.778 0.96 -14.778 0.255 73.775
11150 0.26 73.512 0.959 -15.07 0.959 -15.07 0.26 73.512
11200 0.265 73.25 0.958 -15.36 0.958 -15.36 0.265 73.25
11250 0.27 72.988 0.957 -15.648 0.957 -15.648 0.27 72.988
11300 0.275 72.728 0.955 -15.935 0.955 -15.935 0.275 72.728
11350 0.279 72.467 0.954 -16.22 0.954 -16.22 0.279 72.467
11400 0.284 72.208 0.952 -16.502 0.952 -16.502 0.284 72.208
11450 0.289 71.949 0.951 -16.784 0.951 -16.784 0.289 71.949
11500 0.293 71.692 0.95 -17.063 0.95 -17.063 0.293 71.692
11550 0.298 71.435 0.948 -17.341 0.948 -17.341 0.298 71.435
11600 0.303 71.179 0.947 -17.617 0.947 -17.617 0.303 71.179
11650 0.307 70.925 0.945 -17.891 0.945 -17.891 0.307 70.925
11700 0.312 70.671 0.944 -18.163 0.944 -18.163 0.312 70.671
11750 0.316 70.418 0.942 -18.434 0.942 -18.434 0.316 70.418
11800 0.321 70.167 0.941 -18.703 0.941 -18.703 0.321 70.167
11850 0.325 69.916 0.939 -18.971 0.939 -18.971 0.325 69.916
11900 0.33 69.667 0.938 -19.236 0.938 -19.236 0.33 69.667
11950 0.334 69.418 0.936 -19.5 0.936 -19.5 0.334 69.418
12000 0.338 69.171 0.935 -19.763 0.935 -19.763 0.338 69.171
12050 0.342 68.925 0.933 -20.024 0.933 -20.024 0.342 68.925
12100 0.347 68.68 0.932 -20.283 0.932 -20.283 0.347 68.68
12150 0.351 68.437 0.93 -20.54 0.93 -20.54 0.351 68.437
12200 0.355 68.194 0.929 -20.796 0.929 -20.796 0.355 68.194
12250 0.359 67.953 0.927 -21.051 0.927 -21.051 0.359 67.953
12300 0.363 67.713 0.925 -21.304 0.925 -21.304 0.363 67.713
12350 0.367 67.474 0.924 -21.555 0.924 -21.555 0.367 67.474
12400 0.371 67.236 0.922 -21.805 0.922 -21.805 0.371 67.236
12450 0.376 67 0.921 -22.053 0.921 -22.053 0.376 67
12500 0.379 66.765 0.919 -22.299 0.919 -22.299 0.379 66.765
12550 0.383 66.531 0.917 -22.544 0.917 -22.544 0.383 66.531
12600 0.387 66.298 0.916 -22.788 0.916 -22.788 0.387 66.298
12650 0.391 66.066 0.914 -23.03 0.914 -23.03 0.391 66.066
12700 0.395 65.836 0.912 -23.271 0.912 -23.271 0.395 65.836
12750 0.399 65.607 0.911 -23.51 0.911 -23.51 0.399 65.607
12800 0.403 65.379 0.909 -23.747 0.909 -23.747 0.403 65.379
12850 0.407 65.152 0.908 -23.983 0.908 -23.983 0.407 65.152
12900 0.41 64.927 0.906 -24.218 0.906 -24.218 0.41 64.927
12950 0.414 64.702 0.904 -24.451 0.904 -24.451 0.414 64.702
13000 0.418 64.479 0.903 -24.683 0.903 -24.683 0.418 64.479
13050 0.421 64.258 0.901 -24.913 0.901 -24.913 0.421 64.258
13100 0.425 64.037 0.899 -25.142 0.899 -25.142 0.425 64.037
13150 0.429 63.818 0.897 -25.37 0.897 -25.37 0.429 63.818
13200 0.432 63.6 0.896 -25.596 0.896 -25.596 0.432 63.6
13250 0.436 63.383 0.894 -25.821 0.894 -25.821 0.436 63.383
13300 0.439 63.167 0.892 -26.044 0.892 -26.044 0.439 63.167
13350 0.443 62.952 0.891 -26.266 0.891 -26.266 0.443 62.952
13400 0.446 62.739 0.889 -26.487 0.889 -26.487 0.446 62.739
13450 0.449 62.527 0.887 -26.706 0.887 -26.706 0.449 62.527
13500 0.453 62.316 0.886 -26.924 0.886 -26.924 0.453 62.316
13550 0.456 62.106 0.884 -27.141 0.884 -27.141 0.456 62.106
13600 0.46 61.897 0.882 -27.356 0.882 -27.356 0.46 61.897
13650 0.463 61.69 0.88 -27.57 0.88 -27.57 0.463 61.69
13700 0.466 61.484 0.879 -27.783 0.879 -27.783 0.466 61.484
13750 0.469 61.278 0.877 -27.994 0.877 -27.994 0.469 61.278
13800 0.473 61.074 0.875 -28.205 0.875 -28.205 0.473 61.074
13850 0.476 60.872 0.874 -28.414 0.874 -28.414 0.476 60.872
13900 0.479 60.67 0.872 -28.621 0.872 -28.621 0.479 60.67
13950 0.482 60.469 0.87 -28.828 0.87 -28.828 0.482 60.469
14000 0.485 60.27 0.868 -29.033 0.868 -29.033 0.485 60.27
14050 0.488 60.072 0.867 -29.237 0.867 -29.237 0.488 60.072
14100 0.492 59.874 0.865 -29.439 0.865 -29.439 0.492 59.874
14150 0.495 59.678 0.863 -29.641 0.863 -29.641 0.495 59.678
14200 0.498 59.483 0.862 -29.841 0.862 -29.841 0.498 59.483
14250 0.501 59.289 0.86 -30.04 0.86 -30.04 0.501 59.289
14300 0.504 59.097 0.858 -30.238 0.858 -30.238 0.504 59.097
14350 0.507 58.905 0.856 -30.435 0.856 -30.435 0.507 58.905
14400 0.51 58.714 0.855 -30.63 0.855 -30.63 0.51 58.714
14450 0.512 58.525 0.853 -30.825 0.853 -30.825 0.512 58.525
14500 0.515 58.336 0.851 -31.018 0.851 -31.018 0.515 58.336
14550 0.518 58.149 0.849 -31.21 0.849 -31.21 0.518 58.149
14600 0.521 57.963 0.848 -31.401 0.848 -31.401 0.521 57.963
14650 0.524 57.777 0.846 -31.591 0.846 -31.591 0.524 57.777
14700 0.527 57.593 0.844 -31.78 0.844 -31.78 0.527 57.593
14750 0.529 57.41 0.843 -31.967 0.843 -31.967 0.529 57.41
14800 0.532 57.228 0.841 -32.154 0.841 -32.154 0.532 57.228
14850 0.535 57.046 0.839 -32.339 0.839 -32.339 0.535 57.046
14900 0.538 56.866 0.837 -32.523 0.837 -32.523 0.538 56.866
14950 0.54 56.687 0.836 -32.707 0.836 -32.707 0.54 56.687
15000 0.543 56.509 0.834 -32.889 0.834 -32.889 0.543 56.509
15050 0.546 56.332 0.832 -33.07 0.832 -33.07 0.546 56.332
15100 0.548 56.156 0.831 -33.25 0.831 -33.25 0.548 56.156
15150 0.551 55.98 0.829 -33.429 0.829 -33.429 0.551 55.98
15200 0.554 55.806 0.827 -33.607 0.827 -33.607 0.554 55.806
15250 0.556 55.633 0.825 -33.784 0.825 -33.784 0.556 55.633
15300 0.559 55.461 0.824 -33.96 0.824 -33.96 0.559 55.461
15350 0.561 55.29 0.822 -34.135 0.822 -34.135 0.561 55.29
15400 0.564 55.119 0.82 -34.309 0.82 -34.309 0.564 55.119
15450 0.566 54.95 0.819 -34.482 0.819 -34.482 0.566 54.95
15500 0.569 54.781 0.817 -34.654 0.817 -34.654 0.569 54.781
15550 0.571 54.614 0.815 -34.824 0.815 -34.824 0.571 54.614
15600 0.574 54.447 0.814 -34.994 0.814 -34.994 0.574 54.447
15650 0.576 54.282 0.812 -35.163 0.812 -35.163 0.576 54.282
15700 0.578 54.117 0.81 -35.331 0.81 -35.331 0.578 54.117
15750 0.581 53.953 0.809 -35.498 0.809 -35.498 0.581 53.953
15800 0.583 53.79 0.807 -35.665 0.807 -35.665 0.583 53.79
15850 0.585 53.628 0.805 -35.83 0.805 -35.83 0.585 53.628
15900 0.588 53.467 0.804 -35.994 0.804 -35.994 0.588 53.467
15950 0.59 53.306 0.802 -36.157 0.802 -36.157 0.59 53.306
16000 0.592 53.147 0.8 -36.32 0.8 -36.32 0.592 53.147
16050 0.595 52.989 0.799 -36.481 0.799 -36.481 0.595 52.989
16100 0.597 52.831 0.797 -36.642 0.797 -36.642 0.597 52.831
16150 0.599 52.674 0.795 -36.801 0.795 -36.801 0.599 52.674
16200 0.601 52.518 0.794 -36.96 0.794 -36.96 0.601 52.518
16250 0.603 52.363 0.792 -37.118 0.792 -37.118 0.603 52.363
16300 0.606 52.209 0.79 -37.275 0.79 -37.275 0.606 52.209
16350 0.608 52.055 0.789 -37.431 0.789 -37.431 0.608 52.055
16400 0.61 51.903 0.787 -37.587 0.787 -37.587 0.61 51.903
16450 0.612 51.751 0.785 -37.741 0.785 -37.741 0.612 51.751
16500 0.614 51.6 0.784 -37.895 0.784 -37.895 0.614 51.6
16550 0.616 51.45 0.782 -38.047 0.782 -38.047 0.616 51.45
16600 0.618 51.301 0.78 -38.199 0.78 -38.199 0.618 51.301
16650 0.62 51.152 0.779 -38.35 0.779 -38.35 0.62 51.152
16700 0.623 51.004 0.777 -38.5 0.777 -38.5 0.623 51.004
16750 0.625 50.858 0.776 -38.65 0.776 -38.65 0.625 50.858
16800 0.627 50.711 0.774 -38.798 0.774 -38.798 0.627 50.711
16850 0.629 50.566 0.772 -38.946 0.772 -38.946 0.629 50.566
16900 0.631 50.421 0.771 -39.093 0.771 -39.093 0.631 50.421
16950 0.633 50.278 0.769 -39.239 0.769 -39.239 0.633 50.278
17000 0.635 50.135 0.768 -39.385 0.768 -39.385 0.635 50.135
17050 0.636 49.992 0.766 -39.529 0.766 -39.529 0.636 49.992
