! AVX Thin Film Operation		Date: April 2012 
! Description: Accu-P® Series, Thin Film, SMD, RF Capacitor
! Part Number: 12101J0R7PBTTR					
!	100	MHz	-	20.05	GHz			
!	Serial	Measurements						
!								
#	MHZ	S	MA	R	50			
!	S11	S21	S12	S22				
!	dB	Phase	dB	Phase	dB	Phase	dB	Phase
50 1 -1.26 0.022 88.736 0.022 88.736 1 -1.26
74.938 0.999 -1.888 0.033 88.107 0.033 88.107 0.999 -1.888
99.875 0.999 -2.516 0.044 87.477 0.044 87.477 0.999 -2.516
124.813 0.998 -3.144 0.055 86.847 0.055 86.847 0.998 -3.144
149.75 0.998 -3.771 0.066 86.218 0.066 86.218 0.998 -3.771
174.688 0.997 -4.397 0.077 85.59 0.077 85.59 0.997 -4.397
199.625 0.996 -5.023 0.088 84.962 0.088 84.962 0.996 -5.023
224.563 0.995 -5.649 0.098 84.335 0.098 84.335 0.995 -5.649
249.5 0.994 -6.274 0.109 83.708 0.109 83.708 0.994 -6.274
274.438 0.993 -6.897 0.12 83.083 0.12 83.083 0.993 -6.897
299.375 0.991 -7.52 0.131 82.458 0.131 82.458 0.991 -7.52
324.313 0.99 -8.142 0.142 81.834 0.142 81.834 0.99 -8.142
349.25 0.988 -8.763 0.152 81.211 0.152 81.211 0.988 -8.763
374.188 0.987 -9.383 0.163 80.59 0.163 80.59 0.987 -9.383
399.125 0.985 -10.002 0.174 79.969 0.174 79.969 0.985 -10.002
424.063 0.983 -10.619 0.184 79.35 0.184 79.35 0.983 -10.619
449 0.981 -11.235 0.195 78.732 0.195 78.732 0.981 -11.235
473.938 0.979 -11.85 0.205 78.116 0.205 78.116 0.979 -11.85
498.875 0.976 -12.463 0.216 77.501 0.216 77.501 0.976 -12.463
523.813 0.974 -13.074 0.226 76.888 0.226 76.888 0.974 -13.074
548.75 0.971 -13.684 0.237 76.276 0.237 76.276 0.971 -13.684
573.688 0.969 -14.292 0.247 75.666 0.247 75.666 0.969 -14.292
598.625 0.966 -14.899 0.257 75.058 0.257 75.058 0.966 -14.899
623.563 0.963 -15.503 0.267 74.451 0.267 74.451 0.963 -15.503
648.5 0.961 -16.106 0.277 73.847 0.277 73.847 0.961 -16.106
673.438 0.958 -16.707 0.287 73.244 0.287 73.244 0.958 -16.707
698.375 0.954 -17.305 0.297 72.644 0.297 72.644 0.954 -17.305
723.313 0.951 -17.902 0.307 72.045 0.307 72.045 0.951 -17.902
748.25 0.948 -18.497 0.317 71.449 0.317 71.449 0.948 -18.497
773.188 0.945 -19.089 0.327 70.854 0.327 70.854 0.945 -19.089
798.125 0.941 -19.679 0.337 70.262 0.337 70.262 0.941 -19.679
823.063 0.938 -20.267 0.346 69.673 0.346 69.673 0.938 -20.267
848 0.934 -20.853 0.356 69.085 0.356 69.085 0.934 -20.853
872.938 0.93 -21.436 0.365 68.5 0.365 68.5 0.93 -21.436
897.875 0.927 -22.016 0.375 67.917 0.375 67.917 0.927 -22.016
922.813 0.923 -22.595 0.384 67.337 0.384 67.337 0.923 -22.595
947.75 0.919 -23.17 0.393 66.76 0.393 66.76 0.919 -23.17
972.688 0.915 -23.744 0.403 66.184 0.403 66.184 0.915 -23.744
997.625 0.911 -24.314 0.412 65.612 0.412 65.612 0.911 -24.314
1022.563 0.907 -24.882 0.421 65.042 0.421 65.042 0.907 -24.882
1047.5 0.902 -25.448 0.43 64.475 0.43 64.475 0.902 -25.448
1072.438 0.898 -26.01 0.439 63.91 0.439 63.91 0.898 -26.01
1097.375 0.894 -26.57 0.447 63.348 0.447 63.348 0.894 -26.57
1122.313 0.889 -27.127 0.456 62.789 0.456 62.789 0.889 -27.127
1147.25 0.885 -27.682 0.465 62.232 0.465 62.232 0.885 -27.682
1172.188 0.88 -28.233 0.473 61.679 0.473 61.679 0.88 -28.233
1197.125 0.876 -28.782 0.481 61.128 0.481 61.128 0.876 -28.782
1222.063 0.871 -29.328 0.49 60.58 0.49 60.58 0.871 -29.328
1247 0.866 -29.871 0.498 60.035 0.498 60.035 0.866 -29.871
1271.938 0.862 -30.411 0.506 59.493 0.506 59.493 0.862 -30.411
1296.875 0.857 -30.948 0.514 58.954 0.514 58.954 0.857 -30.948
1321.813 0.852 -31.482 0.522 58.418 0.522 58.418 0.852 -31.482
1346.75 0.847 -32.014 0.53 57.884 0.53 57.884 0.847 -32.014
1371.688 0.842 -32.542 0.538 57.354 0.538 57.354 0.842 -32.542
1396.625 0.837 -33.067 0.546 56.826 0.546 56.826 0.837 -33.067
1421.563 0.832 -33.589 0.553 56.302 0.553 56.302 0.832 -33.589
1446.5 0.827 -34.109 0.561 55.781 0.561 55.781 0.827 -34.109
1471.438 0.822 -34.625 0.568 55.262 0.568 55.262 0.822 -34.625
1496.375 0.817 -35.138 0.576 54.747 0.576 54.747 0.817 -35.138
1521.313 0.811 -35.648 0.583 54.234 0.583 54.234 0.811 -35.648
1546.25 0.806 -36.155 0.59 53.725 0.59 53.725 0.806 -36.155
1571.188 0.801 -36.659 0.597 53.219 0.597 53.219 0.801 -36.659
1596.125 0.796 -37.16 0.604 52.715 0.604 52.715 0.796 -37.16
1621.063 0.79 -37.658 0.611 52.215 0.611 52.215 0.79 -37.658
1646 0.785 -38.153 0.618 51.718 0.618 51.718 0.785 -38.153
1670.938 0.78 -38.645 0.624 51.224 0.624 51.224 0.78 -38.645
1695.875 0.774 -39.134 0.631 50.733 0.631 50.733 0.774 -39.134
1720.813 0.769 -39.62 0.638 50.245 0.638 50.245 0.769 -39.62
1745.75 0.763 -40.102 0.644 49.76 0.644 49.76 0.763 -40.102
1770.688 0.758 -40.582 0.651 49.278 0.651 49.278 0.758 -40.582
1795.625 0.752 -41.059 0.657 48.799 0.657 48.799 0.752 -41.059
1820.563 0.747 -41.532 0.663 48.323 0.663 48.323 0.747 -41.532
1845.5 0.741 -42.003 0.669 47.85 0.669 47.85 0.741 -42.003
1870.438 0.736 -42.47 0.675 47.38 0.675 47.38 0.736 -42.47
1895.375 0.73 -42.935 0.681 46.913 0.681 46.913 0.73 -42.935
1920.313 0.725 -43.396 0.687 46.449 0.687 46.449 0.725 -43.396
1945.25 0.719 -43.855 0.693 45.988 0.693 45.988 0.719 -43.855
1970.188 0.714 -44.31 0.699 45.53 0.699 45.53 0.714 -44.31
1995.125 0.708 -44.763 0.704 45.075 0.704 45.075 0.708 -44.763
2020.063 0.702 -45.212 0.71 44.622 0.71 44.622 0.702 -45.212
2045 0.697 -45.659 0.715 44.173 0.715 44.173 0.697 -45.659
2069.938 0.691 -46.103 0.721 43.727 0.721 43.727 0.691 -46.103
2094.875 0.686 -46.543 0.726 43.284 0.726 43.284 0.686 -46.543
2119.813 0.68 -46.981 0.731 42.843 0.731 42.843 0.68 -46.981
2144.75 0.674 -47.416 0.736 42.405 0.736 42.405 0.674 -47.416
2169.688 0.669 -47.848 0.741 41.971 0.741 41.971 0.669 -47.848
2194.625 0.663 -48.277 0.746 41.539 0.746 41.539 0.663 -48.277
2219.563 0.658 -48.704 0.751 41.11 0.751 41.11 0.658 -48.704
2244.5 0.652 -49.127 0.756 40.684 0.756 40.684 0.652 -49.127
2269.438 0.646 -49.548 0.761 40.26 0.761 40.26 0.646 -49.548
2294.375 0.641 -49.965 0.766 39.839 0.766 39.839 0.641 -49.965
2319.313 0.635 -50.38 0.77 39.421 0.77 39.421 0.635 -50.38
2344.25 0.629 -50.793 0.775 39.006 0.775 39.006 0.629 -50.793
2369.188 0.624 -51.202 0.779 38.594 0.779 38.594 0.624 -51.202
2394.125 0.618 -51.609 0.784 38.184 0.784 38.184 0.618 -51.609
2419.063 0.613 -52.013 0.788 37.777 0.788 37.777 0.613 -52.013
2444 0.607 -52.414 0.792 37.373 0.792 37.373 0.607 -52.414
2468.938 0.601 -52.812 0.797 36.971 0.797 36.971 0.601 -52.812
2493.875 0.596 -53.208 0.801 36.572 0.801 36.572 0.596 -53.208
2518.813 0.59 -53.601 0.805 36.176 0.805 36.176 0.59 -53.601
2543.75 0.585 -53.992 0.809 35.782 0.809 35.782 0.585 -53.992
2568.688 0.579 -54.38 0.813 35.391 0.813 35.391 0.579 -54.38
2593.625 0.574 -54.765 0.817 35.002 0.817 35.002 0.574 -54.765
2618.563 0.568 -55.148 0.821 34.616 0.821 34.616 0.568 -55.148
2643.5 0.563 -55.528 0.824 34.232 0.824 34.232 0.563 -55.528
2668.438 0.557 -55.906 0.828 33.851 0.828 33.851 0.557 -55.906
2693.375 0.552 -56.281 0.832 33.473 0.832 33.473 0.552 -56.281
2718.313 0.546 -56.654 0.835 33.097 0.835 33.097 0.546 -56.654
2743.25 0.541 -57.024 0.839 32.723 0.839 32.723 0.541 -57.024
2768.188 0.535 -57.391 0.842 32.352 0.842 32.352 0.535 -57.391
2793.125 0.53 -57.756 0.846 31.983 0.846 31.983 0.53 -57.756
2818.063 0.524 -58.119 0.849 31.616 0.849 31.616 0.524 -58.119
2843 0.519 -58.479 0.852 31.252 0.852 31.252 0.519 -58.479
2867.938 0.513 -58.837 0.856 30.89 0.856 30.89 0.513 -58.837
2892.875 0.508 -59.193 0.859 30.531 0.859 30.531 0.508 -59.193
2917.813 0.503 -59.546 0.862 30.174 0.862 30.174 0.503 -59.546
2942.75 0.497 -59.897 0.865 29.819 0.865 29.819 0.497 -59.897
2967.688 0.492 -60.245 0.868 29.467 0.868 29.467 0.492 -60.245
2992.625 0.487 -60.591 0.871 29.116 0.871 29.116 0.487 -60.591
3017.563 0.481 -60.935 0.874 28.768 0.874 28.768 0.481 -60.935
3042.5 0.476 -61.277 0.877 28.422 0.877 28.422 0.476 -61.277
3067.438 0.471 -61.616 0.88 28.079 0.88 28.079 0.471 -61.616
3092.375 0.465 -61.953 0.883 27.737 0.883 27.737 0.465 -61.953
3117.313 0.46 -62.288 0.885 27.398 0.885 27.398 0.46 -62.288
3142.25 0.455 -62.62 0.888 27.061 0.888 27.061 0.455 -62.62
3167.188 0.45 -62.951 0.891 26.726 0.891 26.726 0.45 -62.951
3192.125 0.445 -63.279 0.893 26.393 0.893 26.393 0.445 -63.279
3217.063 0.439 -63.605 0.896 26.062 0.896 26.062 0.439 -63.605
3242 0.434 -63.929 0.898 25.733 0.898 25.733 0.434 -63.929
3266.938 0.429 -64.251 0.901 25.406 0.901 25.406 0.429 -64.251
3291.875 0.424 -64.571 0.903 25.081 0.903 25.081 0.424 -64.571
3316.813 0.419 -64.888 0.905 24.758 0.905 24.758 0.419 -64.888
3341.75 0.414 -65.204 0.908 24.438 0.908 24.438 0.414 -65.204
3366.688 0.409 -65.517 0.91 24.119 0.91 24.119 0.409 -65.517
3391.625 0.404 -65.829 0.912 23.802 0.912 23.802 0.404 -65.829
3416.563 0.399 -66.138 0.915 23.487 0.915 23.487 0.399 -66.138
3441.5 0.394 -66.446 0.917 23.174 0.917 23.174 0.394 -66.446
3466.438 0.389 -66.751 0.919 22.863 0.919 22.863 0.389 -66.751
3491.375 0.384 -67.054 0.921 22.553 0.921 22.553 0.384 -67.054
3516.313 0.379 -67.356 0.923 22.246 0.923 22.246 0.379 -67.356
3541.25 0.374 -67.655 0.925 21.94 0.925 21.94 0.374 -67.655
3566.188 0.369 -67.953 0.927 21.637 0.927 21.637 0.369 -67.953
3591.125 0.364 -68.248 0.929 21.335 0.929 21.335 0.364 -68.248
3616.063 0.359 -68.542 0.931 21.035 0.931 21.035 0.359 -68.542
3641 0.354 -68.834 0.933 20.736 0.933 20.736 0.354 -68.834
3665.938 0.349 -69.123 0.934 20.44 0.934 20.44 0.349 -69.123
3690.875 0.344 -69.411 0.936 20.145 0.936 20.145 0.344 -69.411
3715.813 0.34 -69.697 0.938 19.852 0.938 19.852 0.34 -69.697
3740.75 0.335 -69.981 0.94 19.56 0.94 19.56 0.335 -69.981
3765.688 0.33 -70.264 0.941 19.27 0.941 19.27 0.33 -70.264
3790.625 0.325 -70.544 0.943 18.982 0.943 18.982 0.325 -70.544
3815.563 0.321 -70.823 0.945 18.696 0.945 18.696 0.321 -70.823
3840.5 0.316 -71.1 0.946 18.411 0.946 18.411 0.316 -71.1
3865.438 0.311 -71.375 0.948 18.128 0.948 18.128 0.311 -71.375
3890.375 0.306 -71.648 0.949 17.846 0.949 17.846 0.306 -71.648
3915.313 0.302 -71.919 0.951 17.567 0.951 17.567 0.302 -71.919
3940.25 0.297 -72.189 0.952 17.288 0.952 17.288 0.297 -72.189
3965.188 0.293 -72.456 0.954 17.011 0.954 17.011 0.293 -72.456
3990.125 0.288 -72.722 0.955 16.736 0.955 16.736 0.288 -72.722
4015.063 0.283 -72.986 0.956 16.463 0.956 16.463 0.283 -72.986
4040 0.279 -73.249 0.958 16.19 0.958 16.19 0.279 -73.249
4064.938 0.274 -73.509 0.959 15.92 0.959 15.92 0.274 -73.509
4089.875 0.27 -73.768 0.96 15.651 0.96 15.651 0.27 -73.768
4114.813 0.265 -74.025 0.961 15.383 0.961 15.383 0.265 -74.025
4139.75 0.261 -74.28 0.963 15.117 0.963 15.117 0.261 -74.28
4164.688 0.256 -74.534 0.964 14.852 0.964 14.852 0.256 -74.534
4189.625 0.252 -74.785 0.965 14.589 0.965 14.589 0.252 -74.785
4214.563 0.247 -75.035 0.966 14.327 0.966 14.327 0.247 -75.035
4239.5 0.243 -75.283 0.967 14.067 0.967 14.067 0.243 -75.283
4264.438 0.239 -75.53 0.968 13.808 0.968 13.808 0.239 -75.53
4289.375 0.234 -75.774 0.969 13.55 0.969 13.55 0.234 -75.774
4314.313 0.23 -76.017 0.97 13.294 0.97 13.294 0.23 -76.017
4339.25 0.226 -76.258 0.971 13.039 0.971 13.039 0.226 -76.258
4364.188 0.221 -76.497 0.972 12.785 0.972 12.785 0.221 -76.497
4389.125 0.217 -76.734 0.973 12.533 0.973 12.533 0.217 -76.734
4414.063 0.213 -76.97 0.974 12.282 0.974 12.282 0.213 -76.97
4439 0.208 -77.203 0.975 12.033 0.975 12.033 0.208 -77.203
4463.938 0.204 -77.435 0.976 11.785 0.976 11.785 0.204 -77.435
4488.875 0.2 -77.665 0.977 11.538 0.977 11.538 0.2 -77.665
4513.813 0.196 -77.892 0.978 11.292 0.978 11.292 0.196 -77.892
4538.75 0.192 -78.118 0.979 11.048 0.979 11.048 0.192 -78.118
4563.688 0.187 -78.342 0.979 10.805 0.979 10.805 0.187 -78.342
4588.625 0.183 -78.564 0.98 10.563 0.98 10.563 0.183 -78.564
4613.563 0.179 -78.784 0.981 10.322 0.981 10.322 0.179 -78.784
4638.5 0.175 -79.001 0.982 10.083 0.982 10.083 0.175 -79.001
4663.438 0.171 -79.217 0.982 9.844 0.982 9.844 0.171 -79.217
4688.375 0.167 -79.43 0.983 9.607 0.983 9.607 0.167 -79.43
4713.313 0.163 -79.642 0.984 9.372 0.984 9.372 0.163 -79.642
4738.25 0.159 -79.85 0.985 9.137 0.985 9.137 0.159 -79.85
4763.188 0.155 -80.057 0.985 8.904 0.985 8.904 0.155 -80.057
4788.125 0.151 -80.261 0.986 8.671 0.986 8.671 0.151 -80.261
4813.063 0.147 -80.462 0.986 8.44 0.986 8.44 0.147 -80.462
4838 0.143 -80.661 0.987 8.21 0.987 8.21 0.143 -80.661
4862.938 0.139 -80.857 0.987 7.981 0.987 7.981 0.139 -80.857
4887.875 0.135 -81.05 0.988 7.754 0.988 7.754 0.135 -81.05
4912.813 0.131 -81.24 0.989 7.527 0.989 7.527 0.131 -81.24
4937.75 0.127 -81.427 0.989 7.302 0.989 7.302 0.127 -81.427
4962.688 0.123 -81.611 0.99 7.077 0.99 7.077 0.123 -81.611
4987.625 0.119 -81.791 0.99 6.854 0.99 6.854 0.119 -81.791
5012.563 0.116 -81.968 0.99 6.632 0.99 6.632 0.116 -81.968
5037.5 0.112 -82.14 0.991 6.41 0.991 6.41 0.112 -82.14
5062.438 0.108 -82.308 0.991 6.19 0.991 6.19 0.108 -82.308
5087.375 0.104 -82.472 0.992 5.971 0.992 5.971 0.104 -82.472
5112.313 0.1 -82.631 0.992 5.753 0.992 5.753 0.1 -82.631
5137.25 0.097 -82.784 0.993 5.536 0.993 5.536 0.097 -82.784
5162.188 0.093 -82.931 0.993 5.32 0.993 5.32 0.093 -82.931
5187.125 0.089 -83.072 0.993 5.105 0.993 5.105 0.089 -83.072
5212.063 0.085 -83.206 0.994 4.891 0.994 4.891 0.085 -83.206
5237 0.082 -83.332 0.994 4.678 0.994 4.678 0.082 -83.332
5261.938 0.078 -83.449 0.994 4.466 0.994 4.466 0.078 -83.449
5286.875 0.074 -83.557 0.994 4.255 0.994 4.255 0.074 -83.557
5311.813 0.071 -83.653 0.995 4.045 0.995 4.045 0.071 -83.653
5336.75 0.067 -83.736 0.995 3.836 0.995 3.836 0.067 -83.736
5361.688 0.063 -83.805 0.995 3.628 0.995 3.628 0.063 -83.805
5386.625 0.06 -83.856 0.995 3.421 0.995 3.421 0.06 -83.856
5411.563 0.056 -83.888 0.996 3.215 0.996 3.215 0.056 -83.888
5436.5 0.053 -83.896 0.996 3.009 0.996 3.009 0.053 -83.896
5461.438 0.049 -83.874 0.996 2.805 0.996 2.805 0.049 -83.874
5486.375 0.045 -83.819 0.996 2.602 0.996 2.602 0.045 -83.819
5511.313 0.042 -83.719 0.996 2.399 0.996 2.399 0.042 -83.719
5536.25 0.038 -83.566 0.996 2.197 0.996 2.197 0.038 -83.566
5561.188 0.035 -83.342 0.997 1.997 0.997 1.997 0.035 -83.342
5586.125 0.031 -83.025 0.997 1.797 0.997 1.797 0.031 -83.025
5611.063 0.028 -82.583 0.997 1.598 0.997 1.598 0.028 -82.583
5636 0.025 -81.965 0.997 1.4 0.997 1.4 0.025 -81.965
5660.938 0.021 -81.085 0.997 1.203 0.997 1.203 0.021 -81.085
5685.875 0.018 -79.8 0.997 1.006 0.997 1.006 0.018 -79.8
5710.813 0.014 -77.83 0.997 0.811 0.997 0.811 0.014 -77.83
5735.75 0.011 -74.576 0.997 0.616 0.997 0.616 0.011 -74.576
5760.688 7.899e-3 -68.485 0.997 0.422 0.997 0.422 7.899e-3 -68.485
5785.625 4.909e-3 -54.382 0.997 0.229 0.997 0.229 4.909e-3 -54.382
5810.563 2.916e-3 -12.808 0.997 0.037 0.997 0.037 2.916e-3 -12.808
5835.5 3.914e-3 43.276 0.997 -0.154 0.997 -0.154 3.914e-3 43.276
5860.438 6.654e-3 64.364 0.997 -0.345 0.997 -0.345 6.654e-3 64.364
5885.375 9.75e-3 72.515 0.997 -0.534 0.997 -0.534 9.75e-3 72.515
5910.313 0.013 76.587 0.997 -0.723 0.997 -0.723 0.013 76.587
5935.25 0.016 78.957 0.997 -0.911 0.997 -0.911 0.016 78.957
5960.188 0.019 80.47 0.997 -1.099 0.997 -1.099 0.019 80.47
5985.125 0.023 81.493 0.997 -1.285 0.997 -1.285 0.023 81.493
6010.063 0.026 82.212 0.997 -1.471 0.997 -1.471 0.026 82.212
6035 0.029 82.728 0.997 -1.656 0.997 -1.656 0.029 82.728
6059.938 0.032 83.103 0.997 -1.84 0.997 -1.84 0.032 83.103
6084.875 0.035 83.377 0.997 -2.023 0.997 -2.023 0.035 83.377
6109.813 0.039 83.574 0.996 -2.206 0.996 -2.206 0.039 83.574
6134.75 0.042 83.712 0.996 -2.388 0.996 -2.388 0.042 83.712
6159.688 0.045 83.806 0.996 -2.569 0.996 -2.569 0.045 83.806
6184.625 0.048 83.863 0.996 -2.75 0.996 -2.75 0.048 83.863
6209.563 0.051 83.891 0.996 -2.929 0.996 -2.929 0.051 83.891
6234.5 0.054 83.895 0.996 -3.108 0.996 -3.108 0.054 83.895
6259.438 0.057 83.879 0.996 -3.287 0.996 -3.287 0.057 83.879
6284.375 0.06 83.847 0.995 -3.464 0.995 -3.464 0.06 83.847
6309.313 0.064 83.801 0.995 -3.641 0.995 -3.641 0.064 83.801
6334.25 0.067 83.743 0.995 -3.817 0.995 -3.817 0.067 83.743
6359.188 0.07 83.675 0.995 -3.992 0.995 -3.992 0.07 83.675
6384.125 0.073 83.599 0.995 -4.167 0.995 -4.167 0.073 83.599
6409.063 0.076 83.514 0.994 -4.341 0.994 -4.341 0.076 83.514
6434 0.079 83.424 0.994 -4.514 0.994 -4.514 0.079 83.424
6458.938 0.082 83.327 0.994 -4.687 0.994 -4.687 0.082 83.327
6483.875 0.085 83.226 0.994 -4.859 0.994 -4.859 0.085 83.226
6508.813 0.088 83.12 0.993 -5.03 0.993 -5.03 0.088 83.12
6533.75 0.091 83.01 0.993 -5.201 0.993 -5.201 0.091 83.01
6558.688 0.094 82.897 0.993 -5.371 0.993 -5.371 0.094 82.897
6583.625 0.097 82.781 0.992 -5.54 0.992 -5.54 0.097 82.781
6608.563 0.1 82.663 0.992 -5.709 0.992 -5.709 0.1 82.663
6633.5 0.102 82.541 0.992 -5.877 0.992 -5.877 0.102 82.541
6658.438 0.105 82.418 0.992 -6.044 0.992 -6.044 0.105 82.418
6683.375 0.108 82.293 0.991 -6.21 0.991 -6.21 0.108 82.293
6708.313 0.111 82.166 0.991 -6.377 0.991 -6.377 0.111 82.166
6733.25 0.114 82.038 0.991 -6.542 0.991 -6.542 0.114 82.038
6758.188 0.117 81.909 0.99 -6.707 0.99 -6.707 0.117 81.909
6783.125 0.12 81.778 0.99 -6.871 0.99 -6.871 0.12 81.778
6808.063 0.122 81.646 0.99 -7.034 0.99 -7.034 0.122 81.646
6833 0.125 81.513 0.989 -7.197 0.989 -7.197 0.125 81.513
6857.938 0.128 81.38 0.989 -7.359 0.989 -7.359 0.128 81.38
6882.875 0.131 81.245 0.989 -7.521 0.989 -7.521 0.131 81.245
6907.813 0.134 81.111 0.988 -7.682 0.988 -7.682 0.134 81.111
6932.75 0.136 80.975 0.988 -7.843 0.988 -7.843 0.136 80.975
6957.688 0.139 80.839 0.987 -8.002 0.987 -8.002 0.139 80.839
6982.625 0.142 80.703 0.987 -8.162 0.987 -8.162 0.142 80.703
7007.563 0.145 80.566 0.987 -8.32 0.987 -8.32 0.145 80.566
7032.5 0.147 80.429 0.986 -8.478 0.986 -8.478 0.147 80.429
7057.438 0.15 80.292 0.986 -8.636 0.986 -8.636 0.15 80.292
7082.375 0.153 80.154 0.985 -8.793 0.985 -8.793 0.153 80.154
7107.313 0.156 80.017 0.985 -8.949 0.985 -8.949 0.156 80.017
7132.25 0.158 79.879 0.985 -9.105 0.985 -9.105 0.158 79.879
7157.188 0.161 79.741 0.984 -9.26 0.984 -9.26 0.161 79.741
7182.125 0.164 79.603 0.984 -9.415 0.984 -9.415 0.164 79.603
7207.063 0.166 79.465 0.983 -9.569 0.983 -9.569 0.166 79.465
7232 0.169 79.327 0.983 -9.722 0.983 -9.722 0.169 79.327
7256.938 0.172 79.189 0.982 -9.875 0.982 -9.875 0.172 79.189
7281.875 0.174 79.051 0.982 -10.028 0.982 -10.028 0.174 79.051
7306.813 0.177 78.914 0.981 -10.179 0.981 -10.179 0.177 78.914
7331.75 0.179 78.776 0.981 -10.331 0.981 -10.331 0.179 78.776
7356.688 0.182 78.638 0.981 -10.482 0.981 -10.482 0.182 78.638
7381.625 0.185 78.501 0.98 -10.632 0.98 -10.632 0.185 78.501
7406.563 0.187 78.363 0.98 -10.781 0.98 -10.781 0.187 78.363
7431.5 0.19 78.226 0.979 -10.931 0.979 -10.931 0.19 78.226
7456.438 0.192 78.089 0.979 -11.079 0.979 -11.079 0.192 78.089
7481.375 0.195 77.952 0.978 -11.227 0.978 -11.227 0.195 77.952
7506.313 0.197 77.816 0.978 -11.375 0.978 -11.375 0.197 77.816
7531.25 0.2 77.679 0.977 -11.522 0.977 -11.522 0.2 77.679
7556.188 0.202 77.543 0.977 -11.668 0.977 -11.668 0.202 77.543
7581.125 0.205 77.407 0.976 -11.815 0.976 -11.815 0.205 77.407
7606.063 0.207 77.271 0.976 -11.96 0.976 -11.96 0.207 77.271
7631 0.21 77.136 0.975 -12.105 0.975 -12.105 0.21 77.136
7655.938 0.212 77 0.974 -12.25 0.974 -12.25 0.212 77
7680.875 0.215 76.865 0.974 -12.394 0.974 -12.394 0.215 76.865
7705.813 0.217 76.731 0.973 -12.537 0.973 -12.537 0.217 76.731
7730.75 0.22 76.596 0.973 -12.68 0.973 -12.68 0.22 76.596
7755.688 0.222 76.462 0.972 -12.823 0.972 -12.823 0.222 76.462
7780.625 0.224 76.328 0.972 -12.965 0.972 -12.965 0.224 76.328
7805.563 0.227 76.194 0.971 -13.106 0.971 -13.106 0.227 76.194
7830.5 0.229 76.061 0.971 -13.247 0.971 -13.247 0.229 76.061
7855.438 0.232 75.928 0.97 -13.388 0.97 -13.388 0.232 75.928
7880.375 0.234 75.795 0.969 -13.528 0.969 -13.528 0.234 75.795
7905.313 0.236 75.663 0.969 -13.667 0.969 -13.667 0.236 75.663
7930.25 0.239 75.531 0.968 -13.807 0.968 -13.807 0.239 75.531
7955.188 0.241 75.399 0.968 -13.945 0.968 -13.945 0.241 75.399
7980.125 0.243 75.267 0.967 -14.083 0.967 -14.083 0.243 75.267
8005.063 0.246 75.136 0.967 -14.221 0.967 -14.221 0.246 75.136
8030 0.248 75.005 0.966 -14.358 0.966 -14.358 0.248 75.005
8054.938 0.25 74.875 0.965 -14.495 0.965 -14.495 0.25 74.875
8079.875 0.253 74.744 0.965 -14.632 0.965 -14.632 0.253 74.744
