! AVX Thin Film Operation		Date: April 2012 
! Description: Accu-P® Series, Thin Film, SMD, RF Capacitor
! Part Number: 12101J4R3ABTTR					
!	50	MHz	-	20.05	GHz			
!	Serial	Measurements						
!								
#	MHZ	S	MA	R	50			
!	S11	S21	S12	S22				
!	dB	Phase	dB	Phase	dB	Phase	dB	Phase
50 0.991 -7.695 0.134 82.224 0.134 82.224 0.991 -7.695
100 0.965 -15.138 0.261 74.757 0.261 74.757 0.965 -15.138
150 0.926 -22.124 0.377 67.747 0.377 67.747 0.926 -22.124
200 0.877 -28.524 0.478 61.323 0.478 61.323 0.877 -28.524
250 0.825 -34.283 0.563 55.539 0.563 55.539 0.825 -34.283
300 0.77 -39.404 0.635 50.392 0.635 50.392 0.77 -39.404
350 0.717 -43.93 0.694 45.841 0.694 45.841 0.717 -43.93
400 0.667 -47.918 0.742 41.827 0.742 41.827 0.667 -47.918
450 0.62 -51.434 0.782 38.283 0.782 38.283 0.62 -51.434
500 0.576 -54.542 0.815 35.148 0.815 35.148 0.576 -54.542
550 0.535 -57.297 0.841 32.364 0.841 32.364 0.535 -57.297
600 0.498 -59.751 0.864 29.88 0.864 29.88 0.498 -59.751
650 0.464 -61.947 0.883 27.653 0.883 27.653 0.464 -61.947
700 0.433 -63.922 0.898 25.647 0.898 25.647 0.433 -63.922
750 0.404 -65.705 0.911 23.83 0.911 23.83 0.404 -65.705
800 0.377 -67.323 0.923 22.177 0.923 22.177 0.377 -67.323
850 0.353 -68.798 0.932 20.665 0.932 20.665 0.353 -68.798
900 0.33 -70.148 0.941 19.277 0.941 19.277 0.33 -70.148
950 0.309 -71.388 0.948 17.996 0.948 17.996 0.309 -71.388
1000 0.289 -72.531 0.954 16.809 0.954 16.809 0.289 -72.531
1050 0.271 -73.588 0.959 15.706 0.959 15.706 0.271 -73.588
1100 0.253 -74.569 0.964 14.676 0.964 14.676 0.253 -74.569
1150 0.237 -75.481 0.968 13.711 0.968 13.711 0.237 -75.481
1200 0.222 -76.331 0.972 12.804 0.972 12.804 0.222 -76.331
1250 0.207 -77.124 0.975 11.95 0.975 11.95 0.207 -77.124
1300 0.193 -77.865 0.978 11.142 0.978 11.142 0.193 -77.865
1350 0.18 -78.557 0.98 10.377 0.98 10.377 0.18 -78.557
1400 0.168 -79.205 0.983 9.649 0.983 9.649 0.168 -79.205
1450 0.156 -79.81 0.984 8.956 0.984 8.956 0.156 -79.81
1500 0.144 -80.374 0.986 8.294 0.986 8.294 0.144 -80.374
1550 0.133 -80.897 0.988 7.661 0.988 7.661 0.133 -80.897
1600 0.123 -81.381 0.989 7.054 0.989 7.054 0.123 -81.381
1650 0.113 -81.824 0.99 6.47 0.99 6.47 0.113 -81.824
1700 0.103 -82.224 0.991 5.909 0.991 5.909 0.103 -82.224
1750 0.094 -82.577 0.992 5.368 0.992 5.368 0.094 -82.577
1800 0.085 -82.879 0.993 4.845 0.993 4.845 0.085 -82.879
1850 0.076 -83.12 0.994 4.34 0.994 4.34 0.076 -83.12
1900 0.067 -83.287 0.994 3.851 0.994 3.851 0.067 -83.287
1950 0.059 -83.361 0.995 3.376 0.995 3.376 0.059 -83.361
2000 0.051 -83.308 0.995 2.915 0.995 2.915 0.051 -83.308
2050 0.043 -83.073 0.996 2.467 0.996 2.467 0.043 -83.073
2100 0.036 -82.557 0.996 2.031 0.996 2.031 0.036 -82.557
2150 0.028 -81.563 0.996 1.606 0.996 1.606 0.028 -81.563
2200 0.021 -79.639 0.996 1.192 0.996 1.192 0.021 -79.639
2250 0.014 -75.481 0.997 0.787 0.997 0.787 0.014 -75.481
2300 7.619e-3 -63.46 0.997 0.392 0.997 0.392 7.619e-3 -63.46
2350 3.359e-3 -1.515 0.997 5.106e-3 0.997 5.106e-3 3.359e-3 -1.515
2400 7.333e-3 62.375 0.997 -0.374 0.997 -0.374 7.333e-3 62.375
2450 0.013 74.766 0.997 -0.744 0.997 -0.744 0.013 74.766
2500 0.02 79.043 0.996 -1.108 0.996 -1.108 0.02 79.043
2550 0.026 81.053 0.996 -1.465 0.996 -1.465 0.026 81.053
2600 0.032 82.134 0.996 -1.815 0.996 -1.815 0.032 82.134
2650 0.038 82.749 0.996 -2.16 0.996 -2.16 0.038 82.749
2700 0.044 83.097 0.996 -2.498 0.996 -2.498 0.044 83.097
2750 0.05 83.28 0.995 -2.831 0.995 -2.831 0.05 83.28
2800 0.055 83.355 0.995 -3.158 0.995 -3.158 0.055 83.355
2850 0.061 83.354 0.995 -3.481 0.995 -3.481 0.061 83.354
2900 0.066 83.3 0.994 -3.799 0.994 -3.799 0.066 83.3
2950 0.072 83.207 0.994 -4.112 0.994 -4.112 0.072 83.207
3000 0.077 83.085 0.994 -4.421 0.994 -4.421 0.077 83.085
3050 0.082 82.941 0.993 -4.726 0.993 -4.726 0.082 82.941
3100 0.088 82.779 0.993 -5.027 0.993 -5.027 0.088 82.779
3150 0.093 82.604 0.992 -5.324 0.992 -5.324 0.093 82.604
3200 0.098 82.419 0.992 -5.617 0.992 -5.617 0.098 82.419
3250 0.103 82.225 0.991 -5.907 0.991 -5.907 0.103 82.225
3300 0.108 82.025 0.991 -6.193 0.991 -6.193 0.108 82.025
3350 0.113 81.819 0.99 -6.477 0.99 -6.477 0.113 81.819
3400 0.118 81.609 0.99 -6.757 0.99 -6.757 0.118 81.609
3450 0.123 81.396 0.989 -7.034 0.989 -7.034 0.123 81.396
3500 0.127 81.18 0.989 -7.309 0.989 -7.309 0.127 81.18
3550 0.132 80.963 0.988 -7.58 0.988 -7.58 0.132 80.963
3600 0.137 80.744 0.987 -7.849 0.987 -7.849 0.137 80.744
3650 0.141 80.523 0.987 -8.116 0.987 -8.116 0.141 80.523
3700 0.146 80.302 0.986 -8.38 0.986 -8.38 0.146 80.302
3750 0.15 80.08 0.985 -8.641 0.985 -8.641 0.15 80.08
3800 0.155 79.858 0.985 -8.9 0.985 -8.9 0.155 79.858
3850 0.159 79.636 0.984 -9.157 0.984 -9.157 0.159 79.636
3900 0.164 79.413 0.983 -9.412 0.983 -9.412 0.164 79.413
3950 0.168 79.191 0.982 -9.665 0.982 -9.665 0.168 79.191
4000 0.172 78.969 0.982 -9.915 0.982 -9.915 0.172 78.969
4050 0.177 78.748 0.981 -10.164 0.981 -10.164 0.177 78.748
4100 0.181 78.527 0.98 -10.411 0.98 -10.411 0.181 78.527
4150 0.185 78.306 0.979 -10.656 0.979 -10.656 0.185 78.306
4200 0.189 78.086 0.979 -10.899 0.979 -10.899 0.189 78.086
4250 0.193 77.867 0.978 -11.14 0.978 -11.14 0.193 77.867
4300 0.197 77.648 0.977 -11.38 0.977 -11.38 0.197 77.648
4350 0.201 77.43 0.976 -11.617 0.976 -11.617 0.201 77.43
4400 0.205 77.213 0.975 -11.854 0.975 -11.854 0.205 77.213
4450 0.209 76.996 0.974 -12.088 0.974 -12.088 0.209 76.996
4500 0.213 76.78 0.974 -12.321 0.974 -12.321 0.213 76.78
4550 0.217 76.565 0.973 -12.553 0.973 -12.553 0.217 76.565
4600 0.221 76.351 0.972 -12.783 0.972 -12.783 0.221 76.351
4650 0.225 76.137 0.971 -13.012 0.971 -13.012 0.225 76.137
4700 0.229 75.925 0.97 -13.239 0.97 -13.239 0.229 75.925
4750 0.233 75.713 0.969 -13.465 0.969 -13.465 0.233 75.713
4800 0.237 75.502 0.968 -13.689 0.968 -13.689 0.237 75.502
4850 0.24 75.291 0.967 -13.912 0.967 -13.912 0.24 75.291
4900 0.244 75.082 0.966 -14.134 0.966 -14.134 0.244 75.082
4950 0.248 74.873 0.965 -14.355 0.965 -14.355 0.248 74.873
5000 0.252 74.666 0.964 -14.574 0.964 -14.574 0.252 74.666
5050 0.255 74.459 0.964 -14.792 0.964 -14.792 0.255 74.459
5100 0.259 74.253 0.963 -15.009 0.963 -15.009 0.259 74.253
5150 0.263 74.047 0.962 -15.224 0.962 -15.224 0.263 74.047
5200 0.266 73.843 0.961 -15.439 0.961 -15.439 0.266 73.843
5250 0.27 73.639 0.96 -15.652 0.96 -15.652 0.27 73.639
5300 0.273 73.436 0.959 -15.865 0.959 -15.865 0.273 73.436
5350 0.277 73.234 0.958 -16.076 0.958 -16.076 0.277 73.234
5400 0.28 73.033 0.957 -16.286 0.957 -16.286 0.28 73.033
5450 0.284 72.833 0.956 -16.495 0.956 -16.495 0.284 72.833
5500 0.287 72.633 0.954 -16.703 0.954 -16.703 0.287 72.633
5550 0.291 72.434 0.953 -16.91 0.953 -16.91 0.291 72.434
5600 0.294 72.236 0.952 -17.116 0.952 -17.116 0.294 72.236
5650 0.298 72.039 0.951 -17.32 0.951 -17.32 0.298 72.039
5700 0.301 71.843 0.95 -17.524 0.95 -17.524 0.301 71.843
5750 0.305 71.647 0.949 -17.727 0.949 -17.727 0.305 71.647
5800 0.308 71.452 0.948 -17.929 0.948 -17.929 0.308 71.452
5850 0.311 71.258 0.947 -18.13 0.947 -18.13 0.311 71.258
5900 0.315 71.064 0.946 -18.33 0.946 -18.33 0.315 71.064
5950 0.318 70.872 0.945 -18.53 0.945 -18.53 0.318 70.872
6000 0.321 70.68 0.944 -18.728 0.944 -18.728 0.321 70.68
6050 0.324 70.489 0.943 -18.925 0.943 -18.925 0.324 70.489
6100 0.328 70.298 0.942 -19.122 0.942 -19.122 0.328 70.298
6150 0.331 70.109 0.94 -19.317 0.94 -19.317 0.331 70.109
6200 0.334 69.92 0.939 -19.512 0.939 -19.512 0.334 69.92
6250 0.337 69.731 0.938 -19.706 0.938 -19.706 0.337 69.731
6300 0.34 69.544 0.937 -19.899 0.937 -19.899 0.34 69.544
6350 0.344 69.357 0.936 -20.091 0.936 -20.091 0.344 69.357
6400 0.347 69.171 0.935 -20.282 0.935 -20.282 0.347 69.171
6450 0.35 68.986 0.934 -20.473 0.934 -20.473 0.35 68.986
6500 0.353 68.801 0.932 -20.662 0.932 -20.662 0.353 68.801
6550 0.356 68.617 0.931 -20.851 0.931 -20.851 0.356 68.617
6600 0.359 68.434 0.93 -21.039 0.93 -21.039 0.359 68.434
6650 0.362 68.251 0.929 -21.226 0.929 -21.226 0.362 68.251
6700 0.365 68.069 0.928 -21.413 0.928 -21.413 0.365 68.069
6750 0.368 67.888 0.926 -21.598 0.926 -21.598 0.368 67.888
6800 0.371 67.708 0.925 -21.783 0.925 -21.783 0.371 67.708
6850 0.374 67.528 0.924 -21.967 0.924 -21.967 0.374 67.528
6900 0.377 67.348 0.923 -22.151 0.923 -22.151 0.377 67.348
6950 0.38 67.17 0.922 -22.334 0.922 -22.334 0.38 67.17
7000 0.383 66.992 0.92 -22.515 0.92 -22.515 0.383 66.992
7050 0.386 66.815 0.919 -22.697 0.919 -22.697 0.386 66.815
7100 0.389 66.638 0.918 -22.877 0.918 -22.877 0.389 66.638
7150 0.392 66.463 0.917 -23.057 0.917 -23.057 0.392 66.463
7200 0.395 66.287 0.916 -23.236 0.916 -23.236 0.395 66.287
7250 0.397 66.113 0.914 -23.414 0.914 -23.414 0.397 66.113
7300 0.4 65.939 0.913 -23.591 0.913 -23.591 0.4 65.939
7350 0.403 65.766 0.912 -23.768 0.912 -23.768 0.403 65.766
7400 0.406 65.593 0.911 -23.944 0.911 -23.944 0.406 65.593
7450 0.409 65.421 0.909 -24.12 0.909 -24.12 0.409 65.421
7500 0.411 65.25 0.908 -24.294 0.908 -24.294 0.411 65.25
7550 0.414 65.079 0.907 -24.468 0.907 -24.468 0.414 65.079
7600 0.417 64.909 0.906 -24.642 0.906 -24.642 0.417 64.909
7650 0.42 64.739 0.904 -24.814 0.904 -24.814 0.42 64.739
7700 0.422 64.57 0.903 -24.986 0.903 -24.986 0.422 64.57
7750 0.425 64.402 0.902 -25.158 0.902 -25.158 0.425 64.402
7800 0.428 64.234 0.901 -25.328 0.901 -25.328 0.428 64.234
7850 0.43 64.067 0.899 -25.498 0.899 -25.498 0.43 64.067
7900 0.433 63.901 0.898 -25.668 0.898 -25.668 0.433 63.901
7950 0.436 63.735 0.897 -25.836 0.897 -25.836 0.436 63.735
8000 0.438 63.57 0.896 -26.005 0.896 -26.005 0.438 63.57
8050 0.441 63.405 0.894 -26.172 0.894 -26.172 0.441 63.405
8100 0.444 63.241 0.893 -26.339 0.893 -26.339 0.444 63.241
8150 0.446 63.078 0.892 -26.505 0.892 -26.505 0.446 63.078
8200 0.449 62.915 0.89 -26.67 0.89 -26.67 0.449 62.915
8250 0.451 62.753 0.889 -26.835 0.889 -26.835 0.451 62.753
8300 0.454 62.591 0.888 -26.999 0.888 -26.999 0.454 62.591
8350 0.457 62.43 0.886 -27.163 0.886 -27.163 0.457 62.43
8400 0.459 62.27 0.885 -27.326 0.885 -27.326 0.459 62.27
8450 0.462 62.11 0.884 -27.488 0.884 -27.488 0.462 62.11
8500 0.464 61.951 0.883 -27.65 0.883 -27.65 0.464 61.951
8550 0.467 61.792 0.881 -27.811 0.881 -27.811 0.467 61.792
8600 0.469 61.634 0.88 -27.971 0.88 -27.971 0.469 61.634
8650 0.472 61.476 0.879 -28.131 0.879 -28.131 0.472 61.476
8700 0.474 61.319 0.877 -28.291 0.877 -28.291 0.474 61.319
8750 0.476 61.163 0.876 -28.449 0.876 -28.449 0.476 61.163
8800 0.479 61.007 0.875 -28.607 0.875 -28.607 0.479 61.007
8850 0.481 60.851 0.873 -28.765 0.873 -28.765 0.481 60.851
8900 0.484 60.697 0.872 -28.922 0.872 -28.922 0.484 60.697
8950 0.486 60.543 0.871 -29.078 0.871 -29.078 0.486 60.543
9000 0.488 60.389 0.869 -29.234 0.869 -29.234 0.488 60.389
9050 0.491 60.236 0.868 -29.389 0.868 -29.389 0.491 60.236
9100 0.493 60.083 0.867 -29.544 0.867 -29.544 0.493 60.083
9150 0.495 59.931 0.865 -29.698 0.865 -29.698 0.495 59.931
9200 0.498 59.78 0.864 -29.851 0.864 -29.851 0.498 59.78
9250 0.5 59.629 0.863 -30.004 0.863 -30.004 0.5 59.629
9300 0.502 59.479 0.861 -30.156 0.861 -30.156 0.502 59.479
9350 0.505 59.329 0.86 -30.308 0.86 -30.308 0.505 59.329
9400 0.507 59.18 0.859 -30.459 0.859 -30.459 0.507 59.18
9450 0.509 59.031 0.857 -30.61 0.857 -30.61 0.509 59.031
9500 0.511 58.883 0.856 -30.76 0.856 -30.76 0.511 58.883
9550 0.514 58.735 0.855 -30.909 0.855 -30.909 0.514 58.735
9600 0.516 58.588 0.853 -31.058 0.853 -31.058 0.516 58.588
9650 0.518 58.441 0.852 -31.206 0.852 -31.206 0.518 58.441
9700 0.52 58.295 0.851 -31.354 0.851 -31.354 0.52 58.295
9750 0.523 58.15 0.849 -31.501 0.849 -31.501 0.523 58.15
9800 0.525 58.005 0.848 -31.648 0.848 -31.648 0.525 58.005
9850 0.527 57.86 0.847 -31.794 0.847 -31.794 0.527 57.86
9900 0.529 57.716 0.845 -31.94 0.845 -31.94 0.529 57.716
9950 0.531 57.573 0.844 -32.085 0.844 -32.085 0.531 57.573
10000 0.533 57.43 0.843 -32.23 0.843 -32.23 0.533 57.43
10050 0.535 57.288 0.841 -32.374 0.841 -32.374 0.535 57.288
10100 0.538 57.146 0.84 -32.517 0.84 -32.517 0.538 57.146
10150 0.54 57.004 0.839 -32.66 0.839 -32.66 0.54 57.004
10200 0.542 56.863 0.837 -32.802 0.837 -32.802 0.542 56.863
10250 0.544 56.723 0.836 -32.944 0.836 -32.944 0.544 56.723
10300 0.546 56.583 0.835 -33.086 0.835 -33.086 0.546 56.583
10350 0.548 56.444 0.833 -33.226 0.833 -33.226 0.548 56.444
10400 0.55 56.305 0.832 -33.367 0.832 -33.367 0.55 56.305
10450 0.552 56.167 0.831 -33.507 0.831 -33.507 0.552 56.167
10500 0.554 56.029 0.829 -33.646 0.829 -33.646 0.554 56.029
10550 0.556 55.891 0.828 -33.785 0.828 -33.785 0.556 55.891
10600 0.558 55.755 0.827 -33.923 0.827 -33.923 0.558 55.755
10650 0.56 55.618 0.825 -34.061 0.825 -34.061 0.56 55.618
10700 0.562 55.482 0.824 -34.198 0.824 -34.198 0.562 55.482
10750 0.564 55.347 0.823 -34.335 0.823 -34.335 0.564 55.347
10800 0.566 55.212 0.821 -34.471 0.821 -34.471 0.566 55.212
10850 0.568 55.078 0.82 -34.607 0.82 -34.607 0.568 55.078
10900 0.57 54.944 0.819 -34.742 0.819 -34.742 0.57 54.944
10950 0.572 54.81 0.817 -34.877 0.817 -34.877 0.572 54.81
11000 0.574 54.677 0.816 -35.011 0.816 -35.011 0.574 54.677
11050 0.576 54.545 0.815 -35.145 0.815 -35.145 0.576 54.545
11100 0.578 54.413 0.813 -35.278 0.813 -35.278 0.578 54.413
11150 0.579 54.281 0.812 -35.411 0.812 -35.411 0.579 54.281
11200 0.581 54.15 0.811 -35.543 0.811 -35.543 0.581 54.15
11250 0.583 54.02 0.809 -35.675 0.809 -35.675 0.583 54.02
11300 0.585 53.89 0.808 -35.806 0.808 -35.806 0.585 53.89
11350 0.587 53.76 0.807 -35.937 0.807 -35.937 0.587 53.76
11400 0.589 53.631 0.805 -36.067 0.805 -36.067 0.589 53.631
11450 0.591 53.502 0.804 -36.197 0.804 -36.197 0.591 53.502
11500 0.592 53.374 0.803 -36.327 0.803 -36.327 0.592 53.374
11550 0.594 53.246 0.801 -36.456 0.801 -36.456 0.594 53.246
11600 0.596 53.119 0.8 -36.584 0.8 -36.584 0.596 53.119
11650 0.598 52.992 0.799 -36.712 0.799 -36.712 0.598 52.992
11700 0.6 52.866 0.797 -36.84 0.797 -36.84 0.6 52.866
11750 0.601 52.74 0.796 -36.967 0.796 -36.967 0.601 52.74
11800 0.603 52.614 0.795 -37.093 0.795 -37.093 0.603 52.614
11850 0.605 52.489 0.793 -37.219 0.793 -37.219 0.605 52.489
11900 0.607 52.365 0.792 -37.345 0.792 -37.345 0.607 52.365
11950 0.608 52.24 0.791 -37.47 0.791 -37.47 0.608 52.24
12000 0.61 52.117 0.789 -37.595 0.789 -37.595 0.61 52.117
12050 0.612 51.993 0.788 -37.719 0.788 -37.719 0.612 51.993
12100 0.614 51.871 0.787 -37.843 0.787 -37.843 0.614 51.871
12150 0.615 51.748 0.785 -37.967 0.785 -37.967 0.615 51.748
12200 0.617 51.626 0.784 -38.09 0.784 -38.09 0.617 51.626
12250 0.619 51.505 0.783 -38.212 0.783 -38.212 0.619 51.505
12300 0.62 51.384 0.781 -38.334 0.781 -38.334 0.62 51.384
12350 0.622 51.263 0.78 -38.456 0.78 -38.456 0.622 51.263
12400 0.624 51.143 0.779 -38.577 0.779 -38.577 0.624 51.143
12450 0.625 51.023 0.777 -38.698 0.777 -38.698 0.625 51.023
12500 0.627 50.904 0.776 -38.818 0.776 -38.818 0.627 50.904
12550 0.628 50.785 0.775 -38.938 0.775 -38.938 0.628 50.785
12600 0.63 50.667 0.773 -39.057 0.773 -39.057 0.63 50.667
12650 0.632 50.549 0.772 -39.176 0.772 -39.176 0.632 50.549
12700 0.633 50.431 0.771 -39.294 0.771 -39.294 0.633 50.431
12750 0.635 50.314 0.77 -39.413 0.77 -39.413 0.635 50.314
12800 0.636 50.197 0.768 -39.53 0.768 -39.53 0.636 50.197
12850 0.638 50.081 0.767 -39.647 0.767 -39.647 0.638 50.081
12900 0.64 49.965 0.766 -39.764 0.766 -39.764 0.64 49.965
12950 0.641 49.85 0.764 -39.881 0.764 -39.881 0.641 49.85
13000 0.643 49.734 0.763 -39.997 0.763 -39.997 0.643 49.734
13050 0.644 49.62 0.762 -40.112 0.762 -40.112 0.644 49.62
13100 0.646 49.506 0.76 -40.227 0.76 -40.227 0.646 49.506
13150 0.647 49.392 0.759 -40.342 0.759 -40.342 0.647 49.392
13200 0.649 49.278 0.758 -40.456 0.758 -40.456 0.649 49.278
13250 0.65 49.165 0.757 -40.57 0.757 -40.57 0.65 49.165
13300 0.652 49.053 0.755 -40.684 0.755 -40.684 0.652 49.053
13350 0.653 48.94 0.754 -40.797 0.754 -40.797 0.653 48.94
13400 0.655 48.829 0.753 -40.909 0.753 -40.909 0.655 48.829
13450 0.656 48.717 0.751 -41.022 0.751 -41.022 0.656 48.717
13500 0.658 48.606 0.75 -41.133 0.75 -41.133 0.658 48.606
13550 0.659 48.496 0.749 -41.245 0.749 -41.245 0.659 48.496
13600 0.661 48.385 0.748 -41.356 0.748 -41.356 0.661 48.385
13650 0.662 48.276 0.746 -41.466 0.746 -41.466 0.662 48.276
13700 0.664 48.166 0.745 -41.577 0.745 -41.577 0.664 48.166
13750 0.665 48.057 0.744 -41.686 0.744 -41.686 0.665 48.057
13800 0.666 47.948 0.743 -41.796 0.743 -41.796 0.666 47.948
13850 0.668 47.84 0.741 -41.905 0.741 -41.905 0.668 47.84
13900 0.669 47.732 0.74 -42.014 0.74 -42.014 0.669 47.732
13950 0.671 47.625 0.739 -42.122 0.739 -42.122 0.671 47.625
14000 0.672 47.518 0.737 -42.23 0.737 -42.23 0.672 47.518
14050 0.673 47.411 0.736 -42.337 0.736 -42.337 0.673 47.411
14100 0.675 47.305 0.735 -42.444 0.735 -42.444 0.675 47.305
14150 0.676 47.199 0.734 -42.551 0.734 -42.551 0.676 47.199
14200 0.678 47.093 0.732 -42.657 0.732 -42.657 0.678 47.093
14250 0.679 46.988 0.731 -42.763 0.731 -42.763 0.679 46.988
14300 0.68 46.883 0.73 -42.869 0.73 -42.869 0.68 46.883
14350 0.682 46.779 0.729 -42.974 0.729 -42.974 0.682 46.779
14400 0.683 46.675 0.727 -43.079 0.727 -43.079 0.683 46.675
14450 0.684 46.571 0.726 -43.183 0.726 -43.183 0.684 46.571
14500 0.686 46.468 0.725 -43.287 0.725 -43.287 0.686 46.468
14550 0.687 46.365 0.724 -43.391 0.724 -43.391 0.687 46.365
14600 0.688 46.262 0.723 -43.494 0.723 -43.494 0.688 46.262
14650 0.69 46.16 0.721 -43.597 0.721 -43.597 0.69 46.16
14700 0.691 46.058 0.72 -43.699 0.72 -43.699 0.691 46.058
14750 0.692 45.956 0.719 -43.802 0.719 -43.802 0.692 45.956
14800 0.693 45.855 0.718 -43.903 0.718 -43.903 0.693 45.855
14850 0.695 45.755 0.716 -44.005 0.716 -44.005 0.695 45.755
14900 0.696 45.654 0.715 -44.106 0.715 -44.106 0.696 45.654
14950 0.697 45.554 0.714 -44.207 0.714 -44.207 0.697 45.554
15000 0.699 45.454 0.713 -44.307 0.713 -44.307 0.699 45.454
15050 0.7 45.355 0.711 -44.407 0.711 -44.407 0.7 45.355
15100 0.701 45.256 0.71 -44.507 0.71 -44.507 0.701 45.256
15150 0.702 45.157 0.709 -44.606 0.709 -44.606 0.702 45.157
15200 0.703 45.059 0.708 -44.705 0.708 -44.705 0.703 45.059
15250 0.705 44.961 0.707 -44.803 0.707 -44.803 0.705 44.961
15300 0.706 44.863 0.705 -44.902 0.705 -44.902 0.706 44.863
15350 0.707 44.766 0.704 -44.999 0.704 -44.999 0.707 44.766
15400 0.708 44.669 0.703 -45.097 0.703 -45.097 0.708 44.669
15450 0.71 44.573 0.702 -45.194 0.702 -45.194 0.71 44.573
15500 0.711 44.476 0.701 -45.291 0.701 -45.291 0.711 44.476
15550 0.712 44.381 0.699 -45.388 0.699 -45.388 0.712 44.381
15600 0.713 44.285 0.698 -45.484 0.698 -45.484 0.713 44.285
15650 0.714 44.19 0.697 -45.579 0.697 -45.579 0.714 44.19
15700 0.715 44.095 0.696 -45.675 0.696 -45.675 0.715 44.095
15750 0.717 44 0.695 -45.77 0.695 -45.77 0.717 44
15800 0.718 43.906 0.693 -45.865 0.693 -45.865 0.718 43.906
15850 0.719 43.812 0.692 -45.959 0.692 -45.959 0.719 43.812
15900 0.72 43.719 0.691 -46.053 0.691 -46.053 0.72 43.719
15950 0.721 43.626 0.69 -46.147 0.69 -46.147 0.721 43.626
16000 0.722 43.533 0.689 -46.241 0.689 -46.241 0.722 43.533
16050 0.723 43.44 0.688 -46.334 0.688 -46.334 0.723 43.44
16100 0.724 43.348 0.686 -46.427 0.686 -46.427 0.724 43.348
16150 0.726 43.256 0.685 -46.519 0.685 -46.519 0.726 43.256
16200 0.727 43.164 0.684 -46.611 0.684 -46.611 0.727 43.164
16250 0.728 43.073 0.683 -46.703 0.683 -46.703 0.728 43.073
16300 0.729 42.982 0.682 -46.795 0.682 -46.795 0.729 42.982
16350 0.73 42.891 0.681 -46.886 0.681 -46.886 0.73 42.891
16400 0.731 42.801 0.679 -46.977 0.679 -46.977 0.731 42.801
16450 0.732 42.711 0.678 -47.067 0.678 -47.067 0.732 42.711
16500 0.733 42.621 0.677 -47.157 0.677 -47.157 0.733 42.621
16550 0.734 42.532 0.676 -47.247 0.676 -47.247 0.734 42.532
16600 0.735 42.443 0.675 -47.337 0.675 -47.337 0.735 42.443
16650 0.736 42.354 0.674 -47.426 0.674 -47.426 0.736 42.354
16700 0.737 42.266 0.673 -47.515 0.673 -47.515 0.737 42.266
16750 0.739 42.178 0.671 -47.604 0.671 -47.604 0.739 42.178
16800 0.74 42.09 0.67 -47.692 0.67 -47.692 0.74 42.09
16850 0.741 42.002 0.669 -47.78 0.669 -47.78 0.741 42.002
16900 0.742 41.915 0.668 -47.868 0.668 -47.868 0.742 41.915
