! AVX Thin Film Operation		Date: April 2012 
! Description: Accu-P® Series, Thin Film, SMD, RF Capacitor
! Part Number: 12101J2R4QBTTR					
!	100	MHz	-	20.05	GHz			
!	Serial	Measurements						
!								
#	MHZ	S	MA	R	50			
!	S11	S21	S12	S22				
!	dB	Phase	dB	Phase	dB	Phase	dB	Phase
50 0.997 -4.313 0.075 85.68 0.075 85.68 0.997 -4.313
74.938 0.994 -6.451 0.112 83.538 0.112 83.538 0.994 -6.451
99.875 0.989 -8.573 0.149 81.412 0.149 81.412 0.989 -8.573
124.813 0.983 -10.675 0.185 79.306 0.185 79.306 0.983 -10.675
149.75 0.975 -12.752 0.221 77.226 0.221 77.226 0.975 -12.752
174.688 0.967 -14.8 0.255 75.174 0.255 75.174 0.967 -14.8
199.625 0.957 -16.815 0.289 73.155 0.289 73.155 0.957 -16.815
224.563 0.946 -18.794 0.322 71.173 0.322 71.173 0.946 -18.794
249.5 0.935 -20.733 0.354 69.229 0.354 69.229 0.935 -20.733
274.438 0.923 -22.631 0.385 67.328 0.385 67.328 0.923 -22.631
299.375 0.91 -24.486 0.414 65.469 0.414 65.469 0.91 -24.486
324.313 0.896 -26.295 0.443 63.657 0.443 63.657 0.896 -26.295
349.25 0.882 -28.057 0.47 61.89 0.47 61.89 0.882 -28.057
374.188 0.868 -29.772 0.497 60.171 0.497 60.171 0.868 -29.772
399.125 0.853 -31.44 0.522 58.5 0.522 58.5 0.853 -31.44
424.063 0.837 -33.059 0.546 56.877 0.546 56.877 0.837 -33.059
449 0.822 -34.63 0.568 55.302 0.568 55.302 0.822 -34.63
473.938 0.807 -36.154 0.59 53.774 0.59 53.774 0.807 -36.154
498.875 0.791 -37.631 0.611 52.293 0.611 52.293 0.791 -37.631
523.813 0.776 -39.062 0.63 50.858 0.63 50.858 0.776 -39.062
548.75 0.76 -40.447 0.649 49.469 0.649 49.469 0.76 -40.447
573.688 0.745 -41.788 0.666 48.124 0.666 48.124 0.745 -41.788
598.625 0.729 -43.086 0.683 46.822 0.683 46.822 0.729 -43.086
623.563 0.714 -44.342 0.699 45.562 0.699 45.562 0.714 -44.342
648.5 0.699 -45.557 0.714 44.342 0.714 44.342 0.699 -45.557
673.438 0.684 -46.733 0.728 43.162 0.728 43.162 0.684 -46.733
698.375 0.669 -47.87 0.742 42.021 0.742 42.021 0.669 -47.87
723.313 0.655 -48.971 0.754 40.915 0.754 40.915 0.655 -48.971
748.25 0.641 -50.036 0.766 39.846 0.766 39.846 0.641 -50.036
773.188 0.627 -51.067 0.778 38.81 0.778 38.81 0.627 -51.067
798.125 0.613 -52.066 0.789 37.807 0.789 37.807 0.613 -52.066
823.063 0.6 -53.032 0.799 36.836 0.799 36.836 0.6 -53.032
848 0.586 -53.969 0.809 35.895 0.809 35.895 0.586 -53.969
872.938 0.573 -54.876 0.818 34.984 0.818 34.984 0.573 -54.876
897.875 0.561 -55.755 0.827 34.1 0.827 34.1 0.561 -55.755
922.813 0.548 -56.607 0.835 33.243 0.835 33.243 0.548 -56.607
947.75 0.536 -57.434 0.843 32.411 0.843 32.411 0.536 -57.434
972.688 0.524 -58.235 0.85 31.605 0.85 31.605 0.524 -58.235
997.625 0.512 -59.014 0.857 30.821 0.857 30.821 0.512 -59.014
1022.563 0.501 -59.769 0.864 30.061 0.864 30.061 0.501 -59.769
1047.5 0.49 -60.503 0.87 29.322 0.87 29.322 0.49 -60.503
1072.438 0.479 -61.215 0.876 28.604 0.876 28.604 0.479 -61.215
1097.375 0.468 -61.908 0.882 27.906 0.882 27.906 0.468 -61.908
1122.313 0.458 -62.581 0.888 27.227 0.888 27.227 0.458 -62.581
1147.25 0.447 -63.236 0.893 26.567 0.893 26.567 0.447 -63.236
1172.188 0.437 -63.874 0.898 25.924 0.898 25.924 0.437 -63.874
1197.125 0.427 -64.494 0.903 25.298 0.903 25.298 0.427 -64.494
1222.063 0.418 -65.098 0.907 24.688 0.907 24.688 0.418 -65.098
1247 0.408 -65.686 0.911 24.094 0.911 24.094 0.408 -65.686
1271.938 0.399 -66.26 0.915 23.514 0.915 23.514 0.399 -66.26
1296.875 0.39 -66.819 0.919 22.949 0.919 22.949 0.39 -66.819
1321.813 0.381 -67.364 0.923 22.398 0.923 22.398 0.381 -67.364
1346.75 0.372 -67.895 0.927 21.859 0.927 21.859 0.372 -67.895
1371.688 0.364 -68.414 0.93 21.334 0.93 21.334 0.364 -68.414
1396.625 0.355 -68.921 0.933 20.82 0.933 20.82 0.355 -68.921
1421.563 0.347 -69.416 0.936 20.319 0.936 20.319 0.347 -69.416
1446.5 0.339 -69.899 0.939 19.828 0.939 19.828 0.339 -69.899
1471.438 0.331 -70.371 0.942 19.349 0.942 19.349 0.331 -70.371
1496.375 0.324 -70.833 0.945 18.88 0.945 18.88 0.324 -70.833
1521.313 0.316 -71.284 0.947 18.42 0.947 18.42 0.316 -71.284
1546.25 0.309 -71.726 0.95 17.971 0.95 17.971 0.309 -71.726
1571.188 0.301 -72.158 0.952 17.531 0.952 17.531 0.301 -72.158
1596.125 0.294 -72.58 0.954 17.1 0.954 17.1 0.294 -72.58
1621.063 0.287 -72.994 0.956 16.677 0.956 16.677 0.287 -72.994
1646 0.28 -73.4 0.958 16.263 0.958 16.263 0.28 -73.4
1670.938 0.273 -73.797 0.96 15.857 0.96 15.857 0.273 -73.797
1695.875 0.267 -74.186 0.962 15.459 0.962 15.459 0.267 -74.186
1720.813 0.26 -74.567 0.964 15.068 0.964 15.068 0.26 -74.567
1745.75 0.253 -74.941 0.966 14.684 0.966 14.684 0.253 -74.941
1770.688 0.247 -75.307 0.967 14.307 0.967 14.307 0.247 -75.307
1795.625 0.241 -75.666 0.969 13.937 0.969 13.937 0.241 -75.666
1820.563 0.235 -76.019 0.97 13.574 0.97 13.574 0.235 -76.019
1845.5 0.229 -76.364 0.972 13.217 0.972 13.217 0.229 -76.364
1870.438 0.223 -76.704 0.973 12.866 0.973 12.866 0.223 -76.704
1895.375 0.217 -77.037 0.975 12.52 0.975 12.52 0.217 -77.037
1920.313 0.211 -77.363 0.976 12.181 0.976 12.181 0.211 -77.363
1945.25 0.205 -77.684 0.977 11.847 0.977 11.847 0.205 -77.684
1970.188 0.2 -77.999 0.978 11.518 0.978 11.518 0.2 -77.999
1995.125 0.194 -78.308 0.979 11.195 0.979 11.195 0.194 -78.308
2020.063 0.189 -78.612 0.98 10.876 0.98 10.876 0.189 -78.612
2045 0.183 -78.91 0.981 10.563 0.981 10.563 0.183 -78.91
2069.938 0.178 -79.202 0.982 10.254 0.982 10.254 0.178 -79.202
2094.875 0.173 -79.49 0.983 9.949 0.983 9.949 0.173 -79.49
2119.813 0.168 -79.772 0.984 9.649 0.984 9.649 0.168 -79.772
2144.75 0.163 -80.049 0.985 9.354 0.985 9.354 0.163 -80.049
2169.688 0.158 -80.321 0.986 9.062 0.986 9.062 0.158 -80.321
2194.625 0.153 -80.588 0.987 8.775 0.987 8.775 0.153 -80.588
2219.563 0.148 -80.85 0.987 8.491 0.987 8.491 0.148 -80.85
2244.5 0.143 -81.107 0.988 8.212 0.988 8.212 0.143 -81.107
2269.438 0.138 -81.359 0.989 7.935 0.989 7.935 0.138 -81.359
2294.375 0.133 -81.606 0.989 7.663 0.989 7.663 0.133 -81.606
2319.313 0.129 -81.848 0.99 7.394 0.99 7.394 0.129 -81.848
2344.25 0.124 -82.085 0.991 7.129 0.991 7.129 0.124 -82.085
2369.188 0.12 -82.317 0.991 6.866 0.991 6.866 0.12 -82.317
2394.125 0.115 -82.543 0.992 6.607 0.992 6.607 0.115 -82.543
2419.063 0.111 -82.765 0.992 6.351 0.992 6.351 0.111 -82.765
2444 0.106 -82.981 0.993 6.098 0.993 6.098 0.106 -82.981
2468.938 0.102 -83.191 0.993 5.849 0.993 5.849 0.102 -83.191
2493.875 0.098 -83.395 0.994 5.602 0.994 5.602 0.098 -83.395
2518.813 0.093 -83.593 0.994 5.357 0.994 5.357 0.093 -83.593
2543.75 0.089 -83.785 0.994 5.116 0.994 5.116 0.089 -83.785
2568.688 0.085 -83.97 0.995 4.877 0.995 4.877 0.085 -83.97
2593.625 0.081 -84.147 0.995 4.641 0.995 4.641 0.081 -84.147
2618.563 0.077 -84.316 0.995 4.407 0.995 4.407 0.077 -84.316
2643.5 0.073 -84.477 0.996 4.176 0.996 4.176 0.073 -84.477
2668.438 0.069 -84.627 0.996 3.947 0.996 3.947 0.069 -84.627
2693.375 0.065 -84.767 0.996 3.72 0.996 3.72 0.065 -84.767
2718.313 0.061 -84.894 0.996 3.496 0.996 3.496 0.061 -84.894
2743.25 0.057 -85.006 0.997 3.274 0.997 3.274 0.057 -85.006
2768.188 0.053 -85.102 0.997 3.055 0.997 3.055 0.053 -85.102
2793.125 0.05 -85.178 0.997 2.837 0.997 2.837 0.05 -85.178
2818.063 0.046 -85.23 0.997 2.621 0.997 2.621 0.046 -85.23
2843 0.042 -85.253 0.997 2.408 0.997 2.408 0.042 -85.253
2867.938 0.038 -85.24 0.998 2.196 0.998 2.196 0.038 -85.24
2892.875 0.035 -85.179 0.998 1.987 0.998 1.987 0.035 -85.179
2917.813 0.031 -85.056 0.998 1.779 0.998 1.779 0.031 -85.056
2942.75 0.028 -84.848 0.998 1.573 0.998 1.573 0.028 -84.848
2967.688 0.024 -84.52 0.998 1.369 0.998 1.369 0.024 -84.52
2992.625 0.02 -84.013 0.998 1.167 0.998 1.167 0.02 -84.013
3017.563 0.017 -83.218 0.998 0.966 0.998 0.966 0.017 -83.218
3042.5 0.013 -81.924 0.998 0.767 0.998 0.767 0.013 -81.924
3067.438 0.01 -79.634 0.998 0.57 0.998 0.57 0.01 -79.634
3092.375 6.755e-3 -74.898 0.998 0.374 0.998 0.374 6.755e-3 -74.898
3117.313 3.585e-3 -61.199 0.998 0.18 0.998 0.18 3.585e-3 -61.199
3142.25 1.73e-3 7.016 0.998 -0.012 0.998 -0.012 1.73e-3 7.016
3167.188 3.938e-3 63.943 0.998 -0.203 0.998 -0.203 3.938e-3 63.943
3192.125 7.063e-3 75.534 0.998 -0.393 0.998 -0.393 7.063e-3 75.534
3217.063 0.01 79.799 0.998 -0.581 0.998 -0.581 0.01 79.799
3242 0.013 81.923 0.998 -0.767 0.998 -0.767 0.013 81.923
3266.938 0.017 83.148 0.998 -0.952 0.998 -0.952 0.017 83.148
3291.875 0.02 83.914 0.998 -1.136 0.998 -1.136 0.02 83.914
3316.813 0.023 84.414 0.998 -1.318 0.998 -1.318 0.023 84.414
3341.75 0.026 84.747 0.998 -1.5 0.998 -1.5 0.026 84.747
3366.688 0.029 84.968 0.998 -1.679 0.998 -1.679 0.029 84.968
3391.625 0.032 85.111 0.998 -1.858 0.998 -1.858 0.032 85.111
3416.563 0.036 85.198 0.998 -2.035 0.998 -2.035 0.036 85.198
3441.5 0.039 85.242 0.998 -2.211 0.998 -2.211 0.039 85.242
3466.438 0.042 85.254 0.997 -2.386 0.997 -2.386 0.042 85.254
3491.375 0.045 85.24 0.997 -2.56 0.997 -2.56 0.045 85.24
3516.313 0.048 85.207 0.997 -2.733 0.997 -2.733 0.048 85.207
3541.25 0.051 85.157 0.997 -2.904 0.997 -2.904 0.051 85.157
3566.188 0.054 85.094 0.997 -3.074 0.997 -3.074 0.054 85.094
3591.125 0.057 85.021 0.997 -3.244 0.997 -3.244 0.057 85.021
3616.063 0.06 84.938 0.997 -3.412 0.997 -3.412 0.06 84.938
3641 0.062 84.848 0.996 -3.579 0.996 -3.579 0.062 84.848
3665.938 0.065 84.752 0.996 -3.745 0.996 -3.745 0.065 84.752
3690.875 0.068 84.651 0.996 -3.91 0.996 -3.91 0.068 84.651
3715.813 0.071 84.545 0.996 -4.074 0.996 -4.074 0.071 84.545
3740.75 0.074 84.435 0.996 -4.237 0.996 -4.237 0.074 84.435
3765.688 0.077 84.322 0.995 -4.399 0.995 -4.399 0.077 84.322
3790.625 0.08 84.206 0.995 -4.56 0.995 -4.56 0.08 84.206
3815.563 0.082 84.088 0.995 -4.721 0.995 -4.721 0.082 84.088
3840.5 0.085 83.968 0.995 -4.88 0.995 -4.88 0.085 83.968
3865.438 0.088 83.846 0.994 -5.038 0.994 -5.038 0.088 83.846
3890.375 0.091 83.722 0.994 -5.196 0.994 -5.196 0.091 83.722
3915.313 0.093 83.597 0.994 -5.353 0.994 -5.353 0.093 83.597
3940.25 0.096 83.471 0.994 -5.508 0.994 -5.508 0.096 83.471
3965.188 0.099 83.344 0.993 -5.663 0.993 -5.663 0.099 83.344
3990.125 0.101 83.217 0.993 -5.817 0.993 -5.817 0.101 83.217
4015.063 0.104 83.088 0.993 -5.971 0.993 -5.971 0.104 83.088
4040 0.107 82.96 0.993 -6.123 0.993 -6.123 0.107 82.96
4064.938 0.109 82.83 0.992 -6.275 0.992 -6.275 0.109 82.83
4089.875 0.112 82.7 0.992 -6.426 0.992 -6.426 0.112 82.7
4114.813 0.115 82.57 0.992 -6.576 0.992 -6.576 0.115 82.57
4139.75 0.117 82.44 0.991 -6.725 0.991 -6.725 0.117 82.44
4164.688 0.12 82.31 0.991 -6.874 0.991 -6.874 0.12 82.31
4189.625 0.122 82.179 0.991 -7.022 0.991 -7.022 0.122 82.179
4214.563 0.125 82.049 0.99 -7.169 0.99 -7.169 0.125 82.049
4239.5 0.127 81.918 0.99 -7.316 0.99 -7.316 0.127 81.918
4264.438 0.13 81.787 0.99 -7.461 0.99 -7.461 0.13 81.787
4289.375 0.132 81.657 0.989 -7.606 0.989 -7.606 0.132 81.657
4314.313 0.135 81.526 0.989 -7.751 0.989 -7.751 0.135 81.526
4339.25 0.137 81.396 0.989 -7.895 0.989 -7.895 0.137 81.396
4364.188 0.14 81.266 0.988 -8.038 0.988 -8.038 0.14 81.266
4389.125 0.142 81.135 0.988 -8.18 0.988 -8.18 0.142 81.135
4414.063 0.145 81.006 0.988 -8.322 0.988 -8.322 0.145 81.006
4439 0.147 80.876 0.987 -8.463 0.987 -8.463 0.147 80.876
4463.938 0.15 80.746 0.987 -8.603 0.987 -8.603 0.15 80.746
4488.875 0.152 80.617 0.987 -8.743 0.987 -8.743 0.152 80.617
4513.813 0.154 80.488 0.986 -8.882 0.986 -8.882 0.154 80.488
4538.75 0.157 80.359 0.986 -9.021 0.986 -9.021 0.157 80.359
4563.688 0.159 80.231 0.986 -9.159 0.986 -9.159 0.159 80.231
4588.625 0.162 80.102 0.985 -9.296 0.985 -9.296 0.162 80.102
4613.563 0.164 79.974 0.985 -9.433 0.985 -9.433 0.164 79.974
4638.5 0.166 79.847 0.984 -9.57 0.984 -9.57 0.166 79.847
4663.438 0.169 79.719 0.984 -9.705 0.984 -9.705 0.169 79.719
4688.375 0.171 79.592 0.984 -9.84 0.984 -9.84 0.171 79.592
4713.313 0.173 79.465 0.983 -9.975 0.983 -9.975 0.173 79.465
4738.25 0.176 79.339 0.983 -10.109 0.983 -10.109 0.176 79.339
4763.188 0.178 79.213 0.982 -10.243 0.982 -10.243 0.178 79.213
4788.125 0.18 79.087 0.982 -10.376 0.982 -10.376 0.18 79.087
4813.063 0.182 78.961 0.982 -10.508 0.982 -10.508 0.182 78.961
4838 0.185 78.836 0.981 -10.64 0.981 -10.64 0.185 78.836
4862.938 0.187 78.711 0.981 -10.771 0.981 -10.771 0.187 78.711
4887.875 0.189 78.587 0.98 -10.902 0.98 -10.902 0.189 78.587
4912.813 0.191 78.463 0.98 -11.033 0.98 -11.033 0.191 78.463
4937.75 0.194 78.339 0.979 -11.162 0.979 -11.162 0.194 78.339
4962.688 0.196 78.215 0.979 -11.292 0.979 -11.292 0.196 78.215
4987.625 0.198 78.092 0.979 -11.421 0.979 -11.421 0.198 78.092
5012.563 0.2 77.969 0.978 -11.549 0.978 -11.549 0.2 77.969
5037.5 0.202 77.847 0.978 -11.677 0.978 -11.677 0.202 77.847
5062.438 0.205 77.725 0.977 -11.805 0.977 -11.805 0.205 77.725
5087.375 0.207 77.603 0.977 -11.932 0.977 -11.932 0.207 77.603
5112.313 0.209 77.481 0.976 -12.058 0.976 -12.058 0.209 77.481
5137.25 0.211 77.36 0.976 -12.184 0.976 -12.184 0.211 77.36
5162.188 0.213 77.239 0.975 -12.31 0.975 -12.31 0.213 77.239
5187.125 0.215 77.119 0.975 -12.435 0.975 -12.435 0.215 77.119
5212.063 0.217 76.998 0.974 -12.56 0.974 -12.56 0.217 76.998
5237 0.22 76.879 0.974 -12.684 0.974 -12.684 0.22 76.879
5261.938 0.222 76.759 0.973 -12.808 0.973 -12.808 0.222 76.759
5286.875 0.224 76.64 0.973 -12.932 0.973 -12.932 0.224 76.64
5311.813 0.226 76.521 0.972 -13.055 0.972 -13.055 0.226 76.521
5336.75 0.228 76.403 0.972 -13.177 0.972 -13.177 0.228 76.403
5361.688 0.23 76.284 0.972 -13.299 0.972 -13.299 0.23 76.284
5386.625 0.232 76.166 0.971 -13.421 0.971 -13.421 0.232 76.166
5411.563 0.234 76.049 0.971 -13.542 0.971 -13.542 0.234 76.049
5436.5 0.236 75.932 0.97 -13.663 0.97 -13.663 0.236 75.932
5461.438 0.238 75.815 0.97 -13.784 0.97 -13.784 0.238 75.815
5486.375 0.24 75.698 0.969 -13.904 0.969 -13.904 0.24 75.698
5511.313 0.242 75.582 0.969 -14.024 0.969 -14.024 0.242 75.582
5536.25 0.244 75.466 0.968 -14.143 0.968 -14.143 0.244 75.466
5561.188 0.246 75.351 0.968 -14.262 0.968 -14.262 0.246 75.351
5586.125 0.248 75.235 0.967 -14.381 0.967 -14.381 0.248 75.235
5611.063 0.25 75.12 0.966 -14.499 0.966 -14.499 0.25 75.12
5636 0.252 75.006 0.966 -14.617 0.966 -14.617 0.252 75.006
5660.938 0.254 74.891 0.965 -14.734 0.965 -14.734 0.254 74.891
5685.875 0.256 74.777 0.965 -14.852 0.965 -14.852 0.256 74.777
5710.813 0.258 74.664 0.964 -14.968 0.964 -14.968 0.258 74.664
5735.75 0.26 74.55 0.964 -15.085 0.964 -15.085 0.26 74.55
5760.688 0.262 74.437 0.963 -15.201 0.963 -15.201 0.262 74.437
5785.625 0.264 74.324 0.963 -15.316 0.963 -15.316 0.264 74.324
5810.563 0.266 74.212 0.962 -15.432 0.962 -15.432 0.266 74.212
5835.5 0.268 74.1 0.962 -15.547 0.962 -15.547 0.268 74.1
5860.438 0.27 73.988 0.961 -15.661 0.961 -15.661 0.27 73.988
5885.375 0.272 73.876 0.961 -15.776 0.961 -15.776 0.272 73.876
5910.313 0.274 73.765 0.96 -15.89 0.96 -15.89 0.274 73.765
5935.25 0.276 73.654 0.96 -16.003 0.96 -16.003 0.276 73.654
5960.188 0.278 73.543 0.959 -16.116 0.959 -16.116 0.278 73.543
5985.125 0.279 73.433 0.959 -16.229 0.959 -16.229 0.279 73.433
6010.063 0.281 73.323 0.958 -16.342 0.958 -16.342 0.281 73.323
6035 0.283 73.213 0.957 -16.454 0.957 -16.454 0.283 73.213
6059.938 0.285 73.103 0.957 -16.566 0.957 -16.566 0.285 73.103
6084.875 0.287 72.994 0.956 -16.678 0.956 -16.678 0.287 72.994
6109.813 0.289 72.885 0.956 -16.789 0.956 -16.789 0.289 72.885
6134.75 0.291 72.776 0.955 -16.9 0.955 -16.9 0.291 72.776
6159.688 0.293 72.668 0.955 -17.01 0.955 -17.01 0.293 72.668
6184.625 0.294 72.56 0.954 -17.121 0.954 -17.121 0.294 72.56
6209.563 0.296 72.452 0.953 -17.231 0.953 -17.231 0.296 72.452
6234.5 0.298 72.344 0.953 -17.341 0.953 -17.341 0.298 72.344
6259.438 0.3 72.237 0.952 -17.45 0.952 -17.45 0.3 72.237
6284.375 0.302 72.13 0.952 -17.559 0.952 -17.559 0.302 72.13
6309.313 0.304 72.023 0.951 -17.668 0.951 -17.668 0.304 72.023
6334.25 0.305 71.917 0.951 -17.776 0.951 -17.776 0.305 71.917
6359.188 0.307 71.811 0.95 -17.884 0.95 -17.884 0.307 71.811
6384.125 0.309 71.705 0.949 -17.992 0.949 -17.992 0.309 71.705
6409.063 0.311 71.599 0.949 -18.1 0.949 -18.1 0.311 71.599
6434 0.312 71.494 0.948 -18.207 0.948 -18.207 0.312 71.494
6458.938 0.314 71.388 0.948 -18.314 0.948 -18.314 0.314 71.388
6483.875 0.316 71.284 0.947 -18.421 0.947 -18.421 0.316 71.284
6508.813 0.318 71.179 0.947 -18.527 0.947 -18.527 0.318 71.179
6533.75 0.32 71.075 0.946 -18.634 0.946 -18.634 0.32 71.075
6558.688 0.321 70.971 0.945 -18.739 0.945 -18.739 0.321 70.971
6583.625 0.323 70.867 0.945 -18.845 0.945 -18.845 0.323 70.867
6608.563 0.325 70.763 0.944 -18.95 0.944 -18.95 0.325 70.763
6633.5 0.326 70.66 0.944 -19.055 0.944 -19.055 0.326 70.66
6658.438 0.328 70.557 0.943 -19.16 0.943 -19.16 0.328 70.557
6683.375 0.33 70.454 0.942 -19.264 0.942 -19.264 0.33 70.454
6708.313 0.332 70.351 0.942 -19.369 0.942 -19.369 0.332 70.351
6733.25 0.333 70.249 0.941 -19.473 0.941 -19.473 0.333 70.249
6758.188 0.335 70.147 0.941 -19.576 0.941 -19.576 0.335 70.147
6783.125 0.337 70.045 0.94 -19.68 0.94 -19.68 0.337 70.045
6808.063 0.338 69.944 0.939 -19.783 0.939 -19.783 0.338 69.944
6833 0.34 69.842 0.939 -19.886 0.939 -19.886 0.34 69.842
6857.938 0.342 69.741 0.938 -19.988 0.938 -19.988 0.342 69.741
6882.875 0.344 69.64 0.938 -20.09 0.938 -20.09 0.344 69.64
6907.813 0.345 69.54 0.937 -20.193 0.937 -20.193 0.345 69.54
6932.75 0.347 69.44 0.936 -20.294 0.936 -20.294 0.347 69.44
6957.688 0.349 69.339 0.936 -20.396 0.936 -20.396 0.349 69.339
6982.625 0.35 69.24 0.935 -20.497 0.935 -20.497 0.35 69.24
7007.563 0.352 69.14 0.934 -20.598 0.934 -20.598 0.352 69.14
7032.5 0.353 69.041 0.934 -20.699 0.934 -20.699 0.353 69.041
7057.438 0.355 68.941 0.933 -20.8 0.933 -20.8 0.355 68.941
7082.375 0.357 68.843 0.933 -20.9 0.933 -20.9 0.357 68.843
7107.313 0.358 68.744 0.932 -21 0.932 -21 0.358 68.744
7132.25 0.36 68.645 0.931 -21.1 0.931 -21.1 0.36 68.645
7157.188 0.362 68.547 0.931 -21.199 0.931 -21.199 0.362 68.547
7182.125 0.363 68.449 0.93 -21.298 0.93 -21.298 0.363 68.449
7207.063 0.365 68.351 0.929 -21.397 0.929 -21.397 0.365 68.351
7232 0.366 68.254 0.929 -21.496 0.929 -21.496 0.366 68.254
7256.938 0.368 68.157 0.928 -21.595 0.928 -21.595 0.368 68.157
7281.875 0.37 68.06 0.928 -21.693 0.928 -21.693 0.37 68.06
7306.813 0.371 67.963 0.927 -21.791 0.927 -21.791 0.371 67.963
7331.75 0.373 67.866 0.926 -21.889 0.926 -21.889 0.373 67.866
7356.688 0.374 67.77 0.926 -21.987 0.926 -21.987 0.374 67.77
7381.625 0.376 67.673 0.925 -22.084 0.925 -22.084 0.376 67.673
7406.563 0.378 67.578 0.924 -22.181 0.924 -22.181 0.378 67.578
7431.5 0.379 67.482 0.924 -22.278 0.924 -22.278 0.379 67.482
7456.438 0.381 67.386 0.923 -22.375 0.923 -22.375 0.381 67.386
7481.375 0.382 67.291 0.922 -22.471 0.922 -22.471 0.382 67.291
7506.313 0.384 67.196 0.922 -22.567 0.922 -22.567 0.384 67.196
7531.25 0.385 67.101 0.921 -22.663 0.921 -22.663 0.385 67.101
7556.188 0.387 67.006 0.921 -22.759 0.921 -22.759 0.387 67.006
7581.125 0.388 66.912 0.92 -22.855 0.92 -22.855 0.388 66.912
7606.063 0.39 66.818 0.919 -22.95 0.919 -22.95 0.39 66.818
7631 0.391 66.724 0.919 -23.045 0.919 -23.045 0.391 66.724
7655.938 0.393 66.63 0.918 -23.14 0.918 -23.14 0.393 66.63
7680.875 0.394 66.536 0.917 -23.234 0.917 -23.234 0.394 66.536
7705.813 0.396 66.443 0.917 -23.329 0.917 -23.329 0.396 66.443
7730.75 0.398 66.35 0.916 -23.423 0.916 -23.423 0.398 66.35
7755.688 0.399 66.257 0.915 -23.517 0.915 -23.517 0.399 66.257
7780.625 0.401 66.164 0.915 -23.611 0.915 -23.611 0.401 66.164
7805.563 0.402 66.072 0.914 -23.704 0.914 -23.704 0.402 66.072
7830.5 0.404 65.979 0.913 -23.797 0.913 -23.797 0.404 65.979
7855.438 0.405 65.887 0.913 -23.891 0.913 -23.891 0.405 65.887
7880.375 0.406 65.795 0.912 -23.983 0.912 -23.983 0.406 65.795
7905.313 0.408 65.704 0.911 -24.076 0.911 -24.076 0.408 65.704
7930.25 0.409 65.612 0.911 -24.168 0.911 -24.168 0.409 65.612
7955.188 0.411 65.521 0.91 -24.261 0.91 -24.261 0.411 65.521
7980.125 0.412 65.43 0.909 -24.353 0.909 -24.353 0.412 65.43
8005.063 0.414 65.339 0.909 -24.445 0.909 -24.445 0.414 65.339
8030 0.415 65.248 0.908 -24.536 0.908 -24.536 0.415 65.248
8054.938 0.417 65.158 0.907 -24.628 0.907 -24.628 0.417 65.158
8079.875 0.418 65.067 0.907 -24.719 0.907 -24.719 0.418 65.067
8104.813 0.42 64.977 0.906 -24.81 0.906 -24.81 0.42 64.977
