! AVX Thin Film Operation		Date: April 2012 
! Description: Accu-P® Series, Thin Film, SMD, RF Capacitor
! Part Number: 12101J0R1PBTTR					
!	50	MHz	-	20.05	GHz			
!	Serial	Measurements						
!								
#	MHZ	S	MA	R	50			
!	S11	S21	S12	S22				
!	dB	Phase	dB	Phase	dB	Phase	dB	Phase
50 1 -0.18 3.142e-3 89.761 3.142e-3 89.761 1 -0.18
100 1 -0.36 6.283e-3 89.58 6.283e-3 89.58 1 -0.36
150 1 -0.54 9.425e-3 89.399 9.425e-3 89.399 1 -0.54
200 1 -0.72 0.013 89.218 0.013 89.218 1 -0.72
250 1 -0.9 0.016 89.036 0.016 89.036 1 -0.9
300 1 -1.08 0.019 88.855 0.019 88.855 1 -1.08
350 1 -1.26 0.022 88.673 0.022 88.673 1 -1.26
400 1 -1.441 0.025 88.492 0.025 88.492 1 -1.441
450 1 -1.621 0.028 88.31 0.028 88.31 1 -1.621
500 0.999 -1.801 0.031 88.129 0.031 88.129 0.999 -1.801
550 0.999 -1.982 0.035 87.947 0.035 87.947 0.999 -1.982
600 0.999 -2.162 0.038 87.765 0.038 87.765 0.999 -2.162
650 0.999 -2.343 0.041 87.583 0.041 87.583 0.999 -2.343
700 0.999 -2.523 0.044 87.401 0.044 87.401 0.999 -2.523
750 0.999 -2.704 0.047 87.219 0.047 87.219 0.999 -2.704
800 0.999 -2.885 0.05 87.037 0.05 87.037 0.999 -2.885
850 0.998 -3.066 0.053 86.855 0.053 86.855 0.998 -3.066
900 0.998 -3.247 0.057 86.672 0.057 86.672 0.998 -3.247
950 0.998 -3.429 0.06 86.49 0.06 86.49 0.998 -3.429
1000 0.998 -3.61 0.063 86.307 0.063 86.307 0.998 -3.61
1050 0.998 -3.792 0.066 86.124 0.066 86.124 0.998 -3.792
1100 0.997 -3.973 0.069 85.941 0.069 85.941 0.997 -3.973
1150 0.997 -4.155 0.072 85.758 0.072 85.758 0.997 -4.155
1200 0.997 -4.338 0.076 85.574 0.076 85.574 0.997 -4.338
1250 0.997 -4.52 0.079 85.39 0.079 85.39 0.997 -4.52
1300 0.997 -4.702 0.082 85.207 0.082 85.207 0.997 -4.702
1350 0.996 -4.885 0.085 85.023 0.085 85.023 0.996 -4.885
1400 0.996 -5.068 0.088 84.838 0.088 84.838 0.996 -5.068
1450 0.996 -5.251 0.092 84.654 0.092 84.654 0.996 -5.251
1500 0.995 -5.434 0.095 84.469 0.095 84.469 0.995 -5.434
1550 0.995 -5.618 0.098 84.284 0.098 84.284 0.995 -5.618
1600 0.995 -5.802 0.101 84.099 0.101 84.099 0.995 -5.802
1650 0.994 -5.986 0.104 83.913 0.104 83.913 0.994 -5.986
1700 0.994 -6.17 0.107 83.728 0.107 83.728 0.994 -6.17
1750 0.994 -6.355 0.111 83.542 0.111 83.542 0.994 -6.355
1800 0.993 -6.54 0.114 83.355 0.114 83.355 0.993 -6.54
1850 0.993 -6.725 0.117 83.169 0.117 83.169 0.993 -6.725
1900 0.993 -6.91 0.12 82.982 0.12 82.982 0.993 -6.91
1950 0.992 -7.096 0.124 82.795 0.124 82.795 0.992 -7.096
2000 0.992 -7.282 0.127 82.607 0.127 82.607 0.992 -7.282
2050 0.991 -7.468 0.13 82.42 0.13 82.42 0.991 -7.468
2100 0.991 -7.655 0.133 82.232 0.133 82.232 0.991 -7.655
2150 0.99 -7.842 0.136 82.043 0.136 82.043 0.99 -7.842
2200 0.99 -8.029 0.14 81.854 0.14 81.854 0.99 -8.029
2250 0.989 -8.217 0.143 81.665 0.143 81.665 0.989 -8.217
2300 0.989 -8.405 0.146 81.476 0.146 81.476 0.989 -8.405
2350 0.988 -8.593 0.149 81.286 0.149 81.286 0.988 -8.593
2400 0.988 -8.782 0.153 81.096 0.153 81.096 0.988 -8.782
2450 0.987 -8.971 0.156 80.905 0.156 80.905 0.987 -8.971
2500 0.987 -9.161 0.159 80.714 0.159 80.714 0.987 -9.161
2550 0.986 -9.351 0.162 80.523 0.162 80.523 0.986 -9.351
2600 0.986 -9.541 0.166 80.331 0.166 80.331 0.986 -9.541
2650 0.985 -9.732 0.169 80.138 0.169 80.138 0.985 -9.732
2700 0.985 -9.923 0.172 79.946 0.172 79.946 0.985 -9.923
2750 0.984 -10.115 0.176 79.753 0.176 79.753 0.984 -10.115
2800 0.983 -10.307 0.179 79.559 0.179 79.559 0.983 -10.307
2850 0.983 -10.499 0.182 79.365 0.182 79.365 0.983 -10.499
2900 0.982 -10.692 0.186 79.17 0.186 79.17 0.982 -10.692
2950 0.982 -10.886 0.189 78.976 0.189 78.976 0.982 -10.886
3000 0.981 -11.08 0.192 78.78 0.192 78.78 0.981 -11.08
3050 0.98 -11.274 0.196 78.584 0.196 78.584 0.98 -11.274
3100 0.98 -11.469 0.199 78.388 0.199 78.388 0.98 -11.469
3150 0.979 -11.664 0.202 78.191 0.202 78.191 0.979 -11.664
3200 0.978 -11.86 0.206 77.993 0.206 77.993 0.978 -11.86
3250 0.977 -12.056 0.209 77.795 0.209 77.795 0.977 -12.056
3300 0.977 -12.253 0.212 77.597 0.212 77.597 0.977 -12.253
3350 0.976 -12.451 0.216 77.398 0.216 77.398 0.976 -12.451
3400 0.975 -12.649 0.219 77.198 0.219 77.198 0.975 -12.649
3450 0.974 -12.847 0.222 76.998 0.222 76.998 0.974 -12.847
3500 0.974 -13.046 0.226 76.797 0.226 76.797 0.974 -13.046
3550 0.973 -13.246 0.229 76.596 0.229 76.596 0.973 -13.246
3600 0.972 -13.446 0.233 76.394 0.233 76.394 0.972 -13.446
3650 0.971 -13.647 0.236 76.192 0.236 76.192 0.971 -13.647
3700 0.97 -13.848 0.239 75.989 0.239 75.989 0.97 -13.848
3750 0.969 -14.05 0.243 75.785 0.243 75.785 0.969 -14.05
3800 0.969 -14.253 0.246 75.58 0.246 75.58 0.969 -14.253
3850 0.968 -14.456 0.25 75.376 0.25 75.376 0.968 -14.456
3900 0.967 -14.66 0.253 75.17 0.253 75.17 0.967 -14.66
3950 0.966 -14.864 0.257 74.964 0.257 74.964 0.966 -14.864
4000 0.965 -15.07 0.26 74.757 0.26 74.757 0.965 -15.07
4050 0.964 -15.275 0.263 74.549 0.263 74.549 0.964 -15.275
4100 0.963 -15.482 0.267 74.341 0.267 74.341 0.963 -15.482
4150 0.962 -15.689 0.27 74.132 0.27 74.132 0.962 -15.689
4200 0.961 -15.897 0.274 73.922 0.274 73.922 0.961 -15.897
4250 0.96 -16.105 0.277 73.712 0.277 73.712 0.96 -16.105
4300 0.959 -16.315 0.281 73.501 0.281 73.501 0.959 -16.315
4350 0.958 -16.525 0.284 73.289 0.284 73.289 0.958 -16.525
4400 0.957 -16.735 0.288 73.077 0.288 73.077 0.957 -16.735
4450 0.956 -16.947 0.291 72.863 0.291 72.863 0.956 -16.947
4500 0.955 -17.159 0.295 72.649 0.295 72.649 0.955 -17.159
4550 0.953 -17.372 0.299 72.435 0.299 72.435 0.953 -17.372
4600 0.952 -17.585 0.302 72.219 0.302 72.219 0.952 -17.585
4650 0.951 -17.8 0.306 72.003 0.306 72.003 0.951 -17.8
4700 0.95 -18.015 0.309 71.786 0.309 71.786 0.95 -18.015
4750 0.949 -18.231 0.313 71.568 0.313 71.568 0.949 -18.231
4800 0.947 -18.448 0.316 71.349 0.316 71.349 0.947 -18.448
4850 0.946 -18.665 0.32 71.129 0.32 71.129 0.946 -18.665
4900 0.945 -18.884 0.324 70.909 0.324 70.909 0.945 -18.884
4950 0.944 -19.103 0.327 70.688 0.327 70.688 0.944 -19.103
5000 0.942 -19.323 0.331 70.466 0.331 70.466 0.942 -19.323
5050 0.941 -19.544 0.335 70.243 0.335 70.243 0.941 -19.544
5100 0.94 -19.765 0.338 70.019 0.338 70.019 0.94 -19.765
5150 0.938 -19.988 0.342 69.794 0.342 69.794 0.938 -19.988
5200 0.937 -20.212 0.345 69.569 0.345 69.569 0.937 -20.212
5250 0.936 -20.436 0.349 69.342 0.349 69.342 0.936 -20.436
5300 0.934 -20.661 0.353 69.115 0.353 69.115 0.934 -20.661
5350 0.933 -20.887 0.357 68.886 0.357 68.886 0.933 -20.887
5400 0.931 -21.114 0.36 68.657 0.36 68.657 0.931 -21.114
5450 0.93 -21.342 0.364 68.427 0.364 68.427 0.93 -21.342
5500 0.928 -21.571 0.368 68.196 0.368 68.196 0.928 -21.571
5550 0.927 -21.801 0.371 67.964 0.371 67.964 0.927 -21.801
5600 0.925 -22.032 0.375 67.731 0.375 67.731 0.925 -22.032
5650 0.924 -22.264 0.379 67.497 0.379 67.497 0.924 -22.264
5700 0.922 -22.496 0.383 67.262 0.383 67.262 0.922 -22.496
5750 0.921 -22.73 0.386 67.026 0.386 67.026 0.921 -22.73
5800 0.919 -22.965 0.39 66.789 0.39 66.789 0.919 -22.965
5850 0.917 -23.2 0.394 66.551 0.394 66.551 0.917 -23.2
5900 0.916 -23.437 0.398 66.312 0.398 66.312 0.916 -23.437
5950 0.914 -23.675 0.402 66.072 0.402 66.072 0.914 -23.675
6000 0.912 -23.914 0.405 65.831 0.405 65.831 0.912 -23.914
6050 0.911 -24.153 0.409 65.588 0.409 65.588 0.911 -24.153
6100 0.909 -24.394 0.413 65.345 0.413 65.345 0.909 -24.394
6150 0.907 -24.636 0.417 65.101 0.417 65.101 0.907 -24.636
6200 0.905 -24.879 0.421 64.855 0.421 64.855 0.905 -24.879
6250 0.903 -25.123 0.425 64.609 0.425 64.609 0.903 -25.123
6300 0.902 -25.368 0.428 64.361 0.428 64.361 0.902 -25.368
6350 0.9 -25.614 0.432 64.113 0.432 64.113 0.9 -25.614
6400 0.898 -25.861 0.436 63.863 0.436 63.863 0.898 -25.861
6450 0.896 -26.11 0.44 63.612 0.44 63.612 0.896 -26.11
6500 0.894 -26.359 0.444 63.36 0.444 63.36 0.894 -26.359
6550 0.892 -26.61 0.448 63.106 0.448 63.106 0.892 -26.61
6600 0.89 -26.861 0.452 62.852 0.452 62.852 0.89 -26.861
6650 0.888 -27.114 0.456 62.596 0.456 62.596 0.888 -27.114
6700 0.886 -27.368 0.46 62.339 0.46 62.339 0.886 -27.368
6750 0.884 -27.624 0.464 62.081 0.464 62.081 0.884 -27.624
6800 0.881 -27.88 0.468 61.822 0.468 61.822 0.881 -27.88
6850 0.879 -28.137 0.472 61.562 0.472 61.562 0.879 -28.137
6900 0.877 -28.396 0.476 61.3 0.476 61.3 0.877 -28.396
6950 0.875 -28.656 0.48 61.037 0.48 61.037 0.875 -28.656
7000 0.873 -28.917 0.484 60.773 0.484 60.773 0.873 -28.917
7050 0.87 -29.18 0.488 60.508 0.488 60.508 0.87 -29.18
7100 0.868 -29.443 0.492 60.242 0.492 60.242 0.868 -29.443
7150 0.866 -29.708 0.496 59.974 0.496 59.974 0.866 -29.708
7200 0.863 -29.974 0.5 59.705 0.5 59.705 0.863 -29.974
7250 0.861 -30.241 0.504 59.434 0.504 59.434 0.861 -30.241
7300 0.859 -30.51 0.508 59.163 0.508 59.163 0.859 -30.51
7350 0.856 -30.78 0.512 58.89 0.512 58.89 0.856 -30.78
7400 0.854 -31.051 0.516 58.615 0.516 58.615 0.854 -31.051
7450 0.851 -31.323 0.52 58.34 0.52 58.34 0.851 -31.323
7500 0.849 -31.597 0.524 58.063 0.524 58.063 0.849 -31.597
7550 0.846 -31.872 0.528 57.785 0.528 57.785 0.846 -31.872
7600 0.843 -32.148 0.532 57.505 0.532 57.505 0.843 -32.148
7650 0.841 -32.425 0.536 57.224 0.536 57.224 0.841 -32.425
7700 0.838 -32.704 0.54 56.942 0.54 56.942 0.838 -32.704
7750 0.835 -32.984 0.544 56.658 0.544 56.658 0.835 -32.984
7800 0.833 -33.266 0.549 56.373 0.549 56.373 0.833 -33.266
7850 0.83 -33.549 0.553 56.087 0.553 56.087 0.83 -33.549
7900 0.827 -33.833 0.557 55.799 0.557 55.799 0.827 -33.833
7950 0.824 -34.118 0.561 55.51 0.561 55.51 0.824 -34.118
8000 0.821 -34.405 0.565 55.219 0.565 55.219 0.821 -34.405
8050 0.818 -34.693 0.569 54.927 0.569 54.927 0.818 -34.693
8100 0.815 -34.983 0.573 54.634 0.573 54.634 0.815 -34.983
8150 0.813 -35.274 0.577 54.339 0.577 54.339 0.813 -35.274
8200 0.809 -35.566 0.582 54.043 0.582 54.043 0.809 -35.566
8250 0.806 -35.86 0.586 53.746 0.586 53.746 0.806 -35.86
8300 0.803 -36.155 0.59 53.447 0.59 53.447 0.803 -36.155
8350 0.8 -36.451 0.594 53.146 0.594 53.146 0.8 -36.451
8400 0.797 -36.749 0.598 52.844 0.598 52.844 0.797 -36.749
8450 0.794 -37.048 0.603 52.541 0.603 52.541 0.794 -37.048
8500 0.791 -37.349 0.607 52.236 0.607 52.236 0.791 -37.349
8550 0.787 -37.651 0.611 51.93 0.611 51.93 0.787 -37.651
8600 0.784 -37.954 0.615 51.622 0.615 51.622 0.784 -37.954
8650 0.781 -38.259 0.619 51.313 0.619 51.313 0.781 -38.259
8700 0.777 -38.565 0.623 51.002 0.623 51.002 0.777 -38.565
8750 0.774 -38.873 0.628 50.69 0.628 50.69 0.774 -38.873
8800 0.77 -39.182 0.632 50.376 0.632 50.376 0.77 -39.182
8850 0.767 -39.493 0.636 50.061 0.636 50.061 0.767 -39.493
8900 0.763 -39.804 0.64 49.745 0.64 49.745 0.763 -39.804
8950 0.76 -40.118 0.644 49.426 0.644 49.426 0.76 -40.118
9000 0.756 -40.432 0.649 49.107 0.649 49.107 0.756 -40.432
9050 0.752 -40.749 0.653 48.786 0.653 48.786 0.752 -40.749
9100 0.749 -41.066 0.657 48.463 0.657 48.463 0.749 -41.066
9150 0.745 -41.385 0.661 48.139 0.661 48.139 0.745 -41.385
9200 0.741 -41.705 0.665 47.814 0.665 47.814 0.741 -41.705
9250 0.737 -42.027 0.67 47.487 0.67 47.487 0.737 -42.027
9300 0.733 -42.35 0.674 47.158 0.674 47.158 0.733 -42.35
9350 0.729 -42.675 0.678 46.828 0.678 46.828 0.729 -42.675
9400 0.725 -43.001 0.682 46.497 0.682 46.497 0.725 -43.001
9450 0.721 -43.328 0.686 46.164 0.686 46.164 0.721 -43.328
9500 0.717 -43.657 0.69 45.83 0.69 45.83 0.717 -43.657
9550 0.713 -43.987 0.695 45.494 0.695 45.494 0.713 -43.987
9600 0.709 -44.319 0.699 45.156 0.699 45.156 0.709 -44.319
9650 0.705 -44.652 0.703 44.817 0.703 44.817 0.705 -44.652
9700 0.701 -44.986 0.707 44.477 0.707 44.477 0.701 -44.986
9750 0.696 -45.322 0.711 44.135 0.711 44.135 0.696 -45.322
9800 0.692 -45.659 0.715 43.792 0.715 43.792 0.692 -45.659
9850 0.688 -45.997 0.719 43.447 0.719 43.447 0.688 -45.997
9900 0.683 -46.337 0.723 43.101 0.723 43.101 0.683 -46.337
9950 0.679 -46.678 0.728 42.753 0.728 42.753 0.679 -46.678
10000 0.674 -47.02 0.732 42.404 0.732 42.404 0.674 -47.02
10050 0.67 -47.364 0.736 42.053 0.736 42.053 0.67 -47.364
10100 0.665 -47.709 0.74 41.701 0.74 41.701 0.665 -47.709
10150 0.661 -48.055 0.744 41.348 0.744 41.348 0.661 -48.055
10200 0.656 -48.403 0.748 40.993 0.748 40.993 0.656 -48.403
10250 0.651 -48.752 0.752 40.637 0.752 40.637 0.651 -48.752
10300 0.647 -49.102 0.756 40.279 0.756 40.279 0.647 -49.102
10350 0.642 -49.454 0.76 39.92 0.76 39.92 0.642 -49.454
10400 0.637 -49.806 0.764 39.56 0.764 39.56 0.637 -49.806
10450 0.632 -50.16 0.768 39.198 0.768 39.198 0.632 -50.16
10500 0.627 -50.515 0.772 38.834 0.772 38.834 0.627 -50.515
10550 0.622 -50.872 0.776 38.47 0.776 38.47 0.622 -50.872
10600 0.617 -51.229 0.78 38.104 0.78 38.104 0.617 -51.229
10650 0.612 -51.588 0.784 37.737 0.784 37.737 0.612 -51.588
10700 0.607 -51.948 0.788 37.368 0.788 37.368 0.607 -51.948
10750 0.602 -52.309 0.791 36.998 0.791 36.998 0.602 -52.309
10800 0.597 -52.671 0.795 36.627 0.795 36.627 0.597 -52.671
10850 0.591 -53.034 0.799 36.254 0.799 36.254 0.591 -53.034
10900 0.586 -53.398 0.803 35.881 0.803 35.881 0.586 -53.398
10950 0.581 -53.763 0.807 35.506 0.807 35.506 0.581 -53.763
11000 0.575 -54.129 0.81 35.129 0.81 35.129 0.575 -54.129
11050 0.57 -54.497 0.814 34.752 0.814 34.752 0.57 -54.497
11100 0.565 -54.865 0.818 34.373 0.818 34.373 0.565 -54.865
11150 0.559 -55.234 0.822 33.993 0.822 33.993 0.559 -55.234
11200 0.554 -55.604 0.825 33.612 0.825 33.612 0.554 -55.604
11250 0.548 -55.975 0.829 33.23 0.829 33.23 0.548 -55.975
11300 0.542 -56.347 0.832 32.847 0.832 32.847 0.542 -56.347
11350 0.537 -56.72 0.836 32.463 0.836 32.463 0.537 -56.72
11400 0.531 -57.093 0.84 32.077 0.84 32.077 0.531 -57.093
11450 0.525 -57.468 0.843 31.69 0.843 31.69 0.525 -57.468
11500 0.52 -57.843 0.847 31.303 0.847 31.303 0.52 -57.843
11550 0.514 -58.218 0.85 30.914 0.85 30.914 0.514 -58.218
11600 0.508 -58.595 0.854 30.524 0.854 30.524 0.508 -58.595
11650 0.502 -58.972 0.857 30.134 0.857 30.134 0.502 -58.972
11700 0.496 -59.349 0.86 29.742 0.86 29.742 0.496 -59.349
11750 0.49 -59.728 0.864 29.35 0.864 29.35 0.49 -59.728
11800 0.484 -60.106 0.867 28.956 0.867 28.956 0.484 -60.106
11850 0.478 -60.485 0.87 28.562 0.87 28.562 0.478 -60.485
11900 0.472 -60.865 0.874 28.166 0.874 28.166 0.472 -60.865
11950 0.466 -61.245 0.877 27.77 0.877 27.77 0.466 -61.245
12000 0.46 -61.626 0.88 27.373 0.88 27.373 0.46 -61.626
12050 0.454 -62.006 0.883 26.976 0.883 26.976 0.454 -62.006
12100 0.447 -62.387 0.886 26.577 0.886 26.577 0.447 -62.387
12150 0.441 -62.769 0.889 26.178 0.889 26.178 0.441 -62.769
12200 0.435 -63.15 0.892 25.778 0.892 25.778 0.435 -63.15
12250 0.429 -63.531 0.895 25.377 0.895 25.377 0.429 -63.531
12300 0.422 -63.913 0.898 24.976 0.898 24.976 0.422 -63.913
12350 0.416 -64.294 0.901 24.574 0.901 24.574 0.416 -64.294
12400 0.41 -64.676 0.904 24.171 0.904 24.171 0.41 -64.676
12450 0.403 -65.057 0.907 23.768 0.907 23.768 0.403 -65.057
12500 0.397 -65.438 0.91 23.365 0.91 23.365 0.397 -65.438
12550 0.39 -65.819 0.912 22.961 0.912 22.961 0.39 -65.819
12600 0.384 -66.199 0.915 22.556 0.915 22.556 0.384 -66.199
12650 0.377 -66.579 0.918 22.151 0.918 22.151 0.377 -66.579
12700 0.371 -66.959 0.92 21.745 0.92 21.745 0.371 -66.959
12750 0.364 -67.338 0.923 21.339 0.923 21.339 0.364 -67.338
12800 0.357 -67.716 0.926 20.933 0.926 20.933 0.357 -67.716
12850 0.351 -68.094 0.928 20.527 0.928 20.527 0.351 -68.094
12900 0.344 -68.471 0.931 20.12 0.931 20.12 0.344 -68.471
12950 0.337 -68.846 0.933 19.712 0.933 19.712 0.337 -68.846
13000 0.331 -69.221 0.935 19.305 0.935 19.305 0.331 -69.221
13050 0.324 -69.595 0.938 18.897 0.938 18.897 0.324 -69.595
13100 0.317 -69.967 0.94 18.49 0.94 18.49 0.317 -69.967
13150 0.31 -70.338 0.942 18.082 0.942 18.082 0.31 -70.338
13200 0.304 -70.707 0.944 17.674 0.944 17.674 0.304 -70.707
13250 0.297 -71.074 0.946 17.266 0.946 17.266 0.297 -71.074
13300 0.29 -71.44 0.948 16.858 0.948 16.858 0.29 -71.44
13350 0.283 -71.804 0.95 16.45 0.95 16.45 0.283 -71.804
13400 0.276 -72.165 0.952 16.041 0.952 16.041 0.276 -72.165
13450 0.27 -72.524 0.954 15.633 0.954 15.633 0.27 -72.524
13500 0.263 -72.88 0.956 15.226 0.956 15.226 0.263 -72.88
13550 0.256 -73.234 0.958 14.818 0.958 14.818 0.256 -73.234
13600 0.249 -73.584 0.96 14.41 0.96 14.41 0.249 -73.584
13650 0.242 -73.931 0.962 14.003 0.962 14.003 0.242 -73.931
13700 0.235 -74.274 0.963 13.595 0.963 13.595 0.235 -74.274
13750 0.228 -74.613 0.965 13.189 0.965 13.189 0.228 -74.613
13800 0.221 -74.947 0.966 12.782 0.966 12.782 0.221 -74.947
13850 0.214 -75.277 0.968 12.376 0.968 12.376 0.214 -75.277
13900 0.208 -75.601 0.969 11.97 0.969 11.97 0.208 -75.601
13950 0.201 -75.919 0.971 11.564 0.971 11.564 0.201 -75.919
14000 0.194 -76.231 0.972 11.159 0.972 11.159 0.194 -76.231
14050 0.187 -76.535 0.974 10.754 0.974 10.754 0.187 -76.535
14100 0.18 -76.831 0.975 10.35 0.975 10.35 0.18 -76.831
14150 0.173 -77.119 0.976 9.946 0.976 9.946 0.173 -77.119
14200 0.166 -77.396 0.977 9.543 0.977 9.543 0.166 -77.396
14250 0.159 -77.662 0.978 9.14 0.978 9.14 0.159 -77.662
14300 0.152 -77.914 0.98 8.739 0.98 8.739 0.152 -77.914
14350 0.145 -78.153 0.981 8.337 0.981 8.337 0.145 -78.153
14400 0.138 -78.375 0.982 7.937 0.982 7.937 0.138 -78.375
14450 0.131 -78.577 0.982 7.537 0.982 7.537 0.131 -78.577
14500 0.125 -78.757 0.983 7.137 0.983 7.137 0.125 -78.757
14550 0.118 -78.912 0.984 6.739 0.984 6.739 0.118 -78.912
14600 0.111 -79.036 0.985 6.341 0.985 6.341 0.111 -79.036
14650 0.104 -79.123 0.986 5.945 0.986 5.945 0.104 -79.123
14700 0.097 -79.167 0.986 5.549 0.986 5.549 0.097 -79.167
14750 0.09 -79.157 0.987 5.153 0.987 5.153 0.09 -79.157
14800 0.083 -79.081 0.988 4.759 0.988 4.759 0.083 -79.081
14850 0.077 -78.922 0.988 4.366 0.988 4.366 0.077 -78.922
14900 0.07 -78.657 0.989 3.974 0.989 3.974 0.07 -78.657
14950 0.063 -78.251 0.989 3.582 0.989 3.582 0.063 -78.251
15000 0.056 -77.657 0.989 3.192 0.989 3.192 0.056 -77.657
15050 0.05 -76.799 0.99 2.803 0.99 2.803 0.05 -76.799
15100 0.043 -75.559 0.99 2.415 0.99 2.415 0.043 -75.559
15150 0.037 -73.734 0.99 2.028 0.99 2.028 0.037 -73.734
15200 0.03 -70.954 0.991 1.642 0.991 1.642 0.03 -70.954
15250 0.024 -66.474 0.991 1.257 0.991 1.257 0.024 -66.474
15300 0.018 -58.607 0.991 0.873 0.991 0.873 0.018 -58.607
15350 0.012 -43.134 0.991 0.491 0.991 0.491 0.012 -43.134
15400 9.184e-3 -11.875 0.991 0.109 0.991 0.109 9.184e-3 -11.875
15450 0.01 27.48 0.991 -0.271 0.991 -0.271 0.01 27.48
15500 0.014 50.961 0.991 -0.65 0.991 -0.65 0.014 50.961
15550 0.02 62.36 0.991 -1.027 0.991 -1.027 0.02 62.36
15600 0.026 68.459 0.991 -1.403 0.991 -1.403 0.026 68.459
15650 0.032 72.084 0.991 -1.778 0.991 -1.778 0.032 72.084
15700 0.039 74.402 0.99 -2.152 0.99 -2.152 0.039 74.402
15750 0.045 75.957 0.99 -2.524 0.99 -2.524 0.045 75.957
15800 0.051 77.032 0.99 -2.895 0.99 -2.895 0.051 77.032
15850 0.058 77.785 0.989 -3.265 0.989 -3.265 0.058 77.785
15900 0.064 78.313 0.989 -3.633 0.989 -3.633 0.064 78.313
15950 0.07 78.678 0.989 -4 0.989 -4 0.07 78.678
16000 0.077 78.922 0.988 -4.365 0.988 -4.365 0.077 78.922
16050 0.083 79.072 0.988 -4.729 0.988 -4.729 0.083 79.072
16100 0.089 79.15 0.987 -5.091 0.987 -5.091 0.089 79.15
16150 0.095 79.17 0.987 -5.452 0.987 -5.452 0.095 79.17
16200 0.102 79.143 0.986 -5.811 0.986 -5.811 0.102 79.143
16250 0.108 79.078 0.985 -6.169 0.985 -6.169 0.108 79.078
16300 0.114 78.982 0.985 -6.526 0.985 -6.526 0.114 78.982
16350 0.12 78.86 0.984 -6.88 0.984 -6.88 0.12 78.86
16400 0.126 78.716 0.983 -7.234 0.983 -7.234 0.126 78.716
16450 0.132 78.553 0.982 -7.585 0.982 -7.585 0.132 78.553
16500 0.138 78.375 0.982 -7.935 0.982 -7.935 0.138 78.375
16550 0.144 78.183 0.981 -8.284 0.981 -8.284 0.144 78.183
16600 0.15 77.98 0.98 -8.631 0.98 -8.631 0.15 77.98
16650 0.156 77.766 0.979 -8.976 0.979 -8.976 0.156 77.766
16700 0.162 77.544 0.978 -9.32 0.978 -9.32 0.162 77.544
16750 0.168 77.315 0.977 -9.662 0.977 -9.662 0.168 77.315
16800 0.174 77.079 0.976 -10.003 0.976 -10.003 0.174 77.079
16850 0.18 76.837 0.975 -10.342 0.975 -10.342 0.18 76.837
16900 0.186 76.591 0.974 -10.679 0.974 -10.679 0.186 76.591
16950 0.191 76.34 0.973 -11.014 0.973 -11.014 0.191 76.34
17000 0.197 76.086 0.972 -11.348 0.972 -11.348 0.197 76.086
17050 0.203 75.828 0.97 -11.681 0.97 -11.681 0.203 75.828
17100 0.208 75.568 0.969 -12.011 0.969 -12.011 0.208 75.568
