! AVX Thin Film Operation		Date: April 2012 
! Description: Accu-P® Series, Thin Film, SMD, RF Capacitor
! Part Number: 12101J210FBTTR					
!	50	MHz	-	20.05	GHz			
!	Serial	Measurements						
!								
#	MHZ	S	MA	R	50			
!	S11	S21	S12	S22				
!	dB	Phase	dB	Phase	dB	Phase	dB	Phase
50 0.833 -33.439 0.551 56.451 0.551 56.451 0.833 -33.439
100 0.6 -52.981 0.798 36.854 0.798 36.854 0.6 -52.981
150 0.443 -63.477 0.895 26.301 0.895 26.301 0.443 -63.477
200 0.343 -69.673 0.938 20.047 0.938 20.047 0.343 -69.673
250 0.275 -73.7 0.96 15.956 0.96 15.956 0.275 -73.7
300 0.226 -76.519 0.972 13.069 0.972 13.069 0.226 -76.519
350 0.189 -78.602 0.98 10.911 0.98 10.911 0.189 -78.602
400 0.16 -80.206 0.985 9.225 0.985 9.225 0.16 -80.206
450 0.137 -81.478 0.989 7.86 0.989 7.86 0.137 -81.478
500 0.117 -82.507 0.992 6.724 0.992 6.724 0.117 -82.507
550 0.1 -83.351 0.993 5.756 0.993 5.756 0.1 -83.351
600 0.086 -84.044 0.995 4.915 0.995 4.915 0.086 -84.044
650 0.073 -84.605 0.996 4.172 0.996 4.172 0.073 -84.605
700 0.061 -85.042 0.997 3.507 0.997 3.507 0.061 -85.042
750 0.051 -85.348 0.997 2.904 0.997 2.904 0.051 -85.348
800 0.041 -85.494 0.998 2.353 0.998 2.353 0.041 -85.494
850 0.032 -85.412 0.998 1.843 0.998 1.843 0.032 -85.412
900 0.024 -84.94 0.998 1.368 0.998 1.368 0.024 -84.94
950 0.016 -83.618 0.998 0.923 0.998 0.923 0.016 -83.618
1000 8.924e-3 -79.563 0.998 0.504 0.998 0.504 8.924e-3 -79.563
1050 2.402e-3 -50.032 0.998 0.106 0.998 0.106 2.402e-3 -50.032
1100 5.018e-3 71.864 0.998 -0.274 0.998 -0.274 5.018e-3 71.864
1150 0.011 81.474 0.998 -0.637 0.998 -0.637 0.011 81.474
1200 0.017 83.897 0.998 -0.985 0.998 -0.985 0.017 83.897
1250 0.023 84.856 0.998 -1.321 0.998 -1.321 0.023 84.856
1300 0.029 85.282 0.998 -1.646 0.998 -1.646 0.029 85.282
1350 0.034 85.458 0.998 -1.961 0.998 -1.961 0.034 85.458
1400 0.04 85.499 0.998 -2.267 0.998 -2.267 0.04 85.499
1450 0.045 85.458 0.997 -2.565 0.997 -2.565 0.045 85.458
1500 0.05 85.367 0.997 -2.855 0.997 -2.855 0.05 85.367
1550 0.055 85.243 0.997 -3.139 0.997 -3.139 0.055 85.243
1600 0.06 85.095 0.997 -3.417 0.997 -3.417 0.06 85.095
1650 0.064 84.93 0.996 -3.69 0.996 -3.69 0.064 84.93
1700 0.069 84.755 0.996 -3.958 0.996 -3.958 0.069 84.755
1750 0.074 84.57 0.996 -4.221 0.996 -4.221 0.074 84.57
1800 0.078 84.38 0.995 -4.48 0.995 -4.48 0.078 84.38
1850 0.083 84.185 0.995 -4.735 0.995 -4.735 0.083 84.185
1900 0.087 83.987 0.995 -4.986 0.995 -4.986 0.087 83.987
1950 0.091 83.786 0.994 -5.234 0.994 -5.234 0.091 83.786
2000 0.095 83.584 0.994 -5.479 0.994 -5.479 0.095 83.584
2050 0.1 83.38 0.993 -5.721 0.993 -5.721 0.1 83.38
2100 0.104 83.176 0.993 -5.961 0.993 -5.961 0.104 83.176
2150 0.108 82.971 0.993 -6.198 0.993 -6.198 0.108 82.971
2200 0.112 82.766 0.992 -6.432 0.992 -6.432 0.112 82.766
2250 0.116 82.56 0.992 -6.664 0.992 -6.664 0.116 82.56
2300 0.12 82.355 0.991 -6.895 0.991 -6.895 0.12 82.355
2350 0.124 82.15 0.991 -7.123 0.991 -7.123 0.124 82.15
2400 0.128 81.945 0.99 -7.349 0.99 -7.349 0.128 81.945
2450 0.132 81.74 0.99 -7.574 0.99 -7.574 0.132 81.74
2500 0.136 81.536 0.989 -7.797 0.989 -7.797 0.136 81.536
2550 0.139 81.332 0.989 -8.018 0.989 -8.018 0.139 81.332
2600 0.143 81.129 0.988 -8.238 0.988 -8.238 0.143 81.129
2650 0.147 80.926 0.988 -8.456 0.988 -8.456 0.147 80.926
2700 0.151 80.724 0.987 -8.673 0.987 -8.673 0.151 80.724
2750 0.155 80.522 0.986 -8.889 0.986 -8.889 0.155 80.522
2800 0.158 80.321 0.986 -9.103 0.986 -9.103 0.158 80.321
2850 0.162 80.12 0.985 -9.316 0.985 -9.316 0.162 80.12
2900 0.166 79.92 0.985 -9.528 0.985 -9.528 0.166 79.92
2950 0.169 79.72 0.984 -9.739 0.984 -9.739 0.169 79.72
3000 0.173 79.521 0.983 -9.949 0.983 -9.949 0.173 79.521
3050 0.176 79.323 0.983 -10.157 0.983 -10.157 0.176 79.323
3100 0.18 79.125 0.982 -10.365 0.982 -10.365 0.18 79.125
3150 0.183 78.927 0.981 -10.572 0.981 -10.572 0.183 78.927
3200 0.187 78.731 0.981 -10.777 0.981 -10.777 0.187 78.731
3250 0.191 78.534 0.98 -10.982 0.98 -10.982 0.191 78.534
3300 0.194 78.339 0.979 -11.186 0.979 -11.186 0.194 78.339
3350 0.197 78.143 0.979 -11.389 0.979 -11.389 0.197 78.143
3400 0.201 77.949 0.978 -11.591 0.978 -11.591 0.201 77.949
3450 0.204 77.754 0.977 -11.793 0.977 -11.793 0.204 77.754
3500 0.208 77.561 0.977 -11.993 0.977 -11.993 0.208 77.561
3550 0.211 77.368 0.976 -12.193 0.976 -12.193 0.211 77.368
3600 0.215 77.175 0.975 -12.392 0.975 -12.392 0.215 77.175
3650 0.218 76.983 0.974 -12.591 0.974 -12.591 0.218 76.983
3700 0.221 76.792 0.974 -12.788 0.974 -12.788 0.221 76.792
3750 0.225 76.601 0.973 -12.985 0.973 -12.985 0.225 76.601
3800 0.228 76.41 0.972 -13.181 0.972 -13.181 0.228 76.41
3850 0.231 76.22 0.971 -13.377 0.971 -13.377 0.231 76.22
3900 0.235 76.031 0.97 -13.571 0.97 -13.571 0.235 76.031
3950 0.238 75.842 0.97 -13.766 0.97 -13.766 0.238 75.842
4000 0.241 75.653 0.969 -13.959 0.969 -13.959 0.241 75.653
4050 0.244 75.465 0.968 -14.152 0.968 -14.152 0.244 75.465
4100 0.248 75.277 0.967 -14.344 0.967 -14.344 0.248 75.277
4150 0.251 75.09 0.966 -14.536 0.966 -14.536 0.251 75.09
4200 0.254 74.904 0.966 -14.727 0.966 -14.727 0.254 74.904
4250 0.257 74.718 0.965 -14.917 0.965 -14.917 0.257 74.718
4300 0.261 74.532 0.964 -15.107 0.964 -15.107 0.261 74.532
4350 0.264 74.347 0.963 -15.296 0.963 -15.296 0.264 74.347
4400 0.267 74.162 0.962 -15.484 0.962 -15.484 0.267 74.162
4450 0.27 73.978 0.961 -15.672 0.961 -15.672 0.27 73.978
4500 0.273 73.795 0.96 -15.86 0.96 -15.86 0.273 73.795
4550 0.276 73.611 0.959 -16.047 0.959 -16.047 0.276 73.611
4600 0.28 73.429 0.958 -16.233 0.958 -16.233 0.28 73.429
4650 0.283 73.246 0.958 -16.419 0.958 -16.419 0.283 73.246
4700 0.286 73.064 0.957 -16.604 0.957 -16.604 0.286 73.064
4750 0.289 72.883 0.956 -16.788 0.956 -16.788 0.289 72.883
4800 0.292 72.702 0.955 -16.972 0.955 -16.972 0.292 72.702
4850 0.295 72.522 0.954 -17.156 0.954 -17.156 0.295 72.522
4900 0.298 72.342 0.953 -17.339 0.953 -17.339 0.298 72.342
4950 0.301 72.162 0.952 -17.521 0.952 -17.521 0.301 72.162
5000 0.304 71.983 0.951 -17.703 0.951 -17.703 0.304 71.983
5050 0.307 71.805 0.95 -17.885 0.95 -17.885 0.307 71.805
5100 0.31 71.627 0.949 -18.065 0.949 -18.065 0.31 71.627
5150 0.313 71.449 0.948 -18.246 0.948 -18.246 0.313 71.449
5200 0.316 71.272 0.947 -18.426 0.947 -18.426 0.316 71.272
5250 0.319 71.095 0.946 -18.605 0.946 -18.605 0.319 71.095
5300 0.322 70.919 0.945 -18.784 0.945 -18.784 0.322 70.919
5350 0.325 70.743 0.944 -18.962 0.944 -18.962 0.325 70.743
5400 0.328 70.568 0.943 -19.14 0.943 -19.14 0.328 70.568
5450 0.331 70.393 0.942 -19.317 0.942 -19.317 0.331 70.393
5500 0.334 70.218 0.941 -19.494 0.941 -19.494 0.334 70.218
5550 0.337 70.044 0.94 -19.67 0.94 -19.67 0.337 70.044
5600 0.339 69.871 0.939 -19.846 0.939 -19.846 0.339 69.871
5650 0.342 69.698 0.938 -20.021 0.938 -20.021 0.342 69.698
5700 0.345 69.525 0.937 -20.196 0.937 -20.196 0.345 69.525
5750 0.348 69.353 0.936 -20.37 0.936 -20.37 0.348 69.353
5800 0.351 69.181 0.935 -20.544 0.935 -20.544 0.351 69.181
5850 0.354 69.01 0.934 -20.717 0.934 -20.717 0.354 69.01
5900 0.357 68.839 0.933 -20.89 0.933 -20.89 0.357 68.839
5950 0.359 68.669 0.932 -21.063 0.932 -21.063 0.359 68.669
6000 0.362 68.499 0.93 -21.234 0.93 -21.234 0.362 68.499
6050 0.365 68.329 0.929 -21.406 0.929 -21.406 0.365 68.329
6100 0.368 68.16 0.928 -21.577 0.928 -21.577 0.368 68.16
6150 0.371 67.992 0.927 -21.747 0.927 -21.747 0.371 67.992
6200 0.373 67.823 0.926 -21.917 0.926 -21.917 0.373 67.823
6250 0.376 67.656 0.925 -22.086 0.925 -22.086 0.376 67.656
6300 0.379 67.489 0.924 -22.255 0.924 -22.255 0.379 67.489
6350 0.381 67.322 0.923 -22.424 0.923 -22.424 0.381 67.322
6400 0.384 67.156 0.922 -22.592 0.922 -22.592 0.384 67.156
6450 0.387 66.99 0.92 -22.759 0.92 -22.759 0.387 66.99
6500 0.39 66.824 0.919 -22.926 0.919 -22.926 0.39 66.824
6550 0.392 66.659 0.918 -23.093 0.918 -23.093 0.392 66.659
6600 0.395 66.495 0.917 -23.259 0.917 -23.259 0.395 66.495
6650 0.398 66.331 0.916 -23.424 0.916 -23.424 0.398 66.331
6700 0.4 66.167 0.915 -23.589 0.915 -23.589 0.4 66.167
6750 0.403 66.004 0.914 -23.754 0.914 -23.754 0.403 66.004
6800 0.405 65.841 0.912 -23.918 0.912 -23.918 0.405 65.841
6850 0.408 65.679 0.911 -24.082 0.911 -24.082 0.408 65.679
6900 0.411 65.517 0.91 -24.245 0.91 -24.245 0.411 65.517
6950 0.413 65.356 0.909 -24.408 0.909 -24.408 0.413 65.356
7000 0.416 65.195 0.908 -24.57 0.908 -24.57 0.416 65.195
7050 0.418 65.035 0.907 -24.732 0.907 -24.732 0.418 65.035
7100 0.421 64.875 0.905 -24.893 0.905 -24.893 0.421 64.875
7150 0.423 64.715 0.904 -25.054 0.904 -25.054 0.423 64.715
7200 0.426 64.556 0.903 -25.214 0.903 -25.214 0.426 64.556
7250 0.429 64.397 0.902 -25.374 0.902 -25.374 0.429 64.397
7300 0.431 64.239 0.901 -25.533 0.901 -25.533 0.431 64.239
7350 0.434 64.082 0.899 -25.692 0.899 -25.692 0.434 64.082
7400 0.436 63.924 0.898 -25.851 0.898 -25.851 0.436 63.924
7450 0.439 63.767 0.897 -26.009 0.897 -26.009 0.439 63.767
7500 0.441 63.611 0.896 -26.166 0.896 -26.166 0.441 63.611
7550 0.443 63.455 0.895 -26.324 0.895 -26.324 0.443 63.455
7600 0.446 63.3 0.893 -26.48 0.893 -26.48 0.446 63.3
7650 0.448 63.145 0.892 -26.636 0.892 -26.636 0.448 63.145
7700 0.451 62.99 0.891 -26.792 0.891 -26.792 0.451 62.99
7750 0.453 62.836 0.89 -26.947 0.89 -26.947 0.453 62.836
7800 0.456 62.682 0.888 -27.102 0.888 -27.102 0.456 62.682
7850 0.458 62.529 0.887 -27.256 0.887 -27.256 0.458 62.529
7900 0.46 62.376 0.886 -27.41 0.886 -27.41 0.46 62.376
7950 0.463 62.224 0.885 -27.563 0.885 -27.563 0.463 62.224
8000 0.465 62.072 0.884 -27.716 0.884 -27.716 0.465 62.072
8050 0.467 61.921 0.882 -27.869 0.882 -27.869 0.467 61.921
8100 0.47 61.77 0.881 -28.021 0.881 -28.021 0.47 61.77
8150 0.472 61.619 0.88 -28.172 0.88 -28.172 0.472 61.619
8200 0.474 61.469 0.879 -28.323 0.879 -28.323 0.474 61.469
8250 0.477 61.319 0.877 -28.474 0.877 -28.474 0.477 61.319
8300 0.479 61.17 0.876 -28.624 0.876 -28.624 0.479 61.17
8350 0.481 61.021 0.875 -28.774 0.875 -28.774 0.481 61.021
8400 0.484 60.873 0.874 -28.923 0.874 -28.923 0.484 60.873
8450 0.486 60.725 0.872 -29.072 0.872 -29.072 0.486 60.725
8500 0.488 60.578 0.871 -29.22 0.871 -29.22 0.488 60.578
8550 0.49 60.431 0.87 -29.368 0.87 -29.368 0.49 60.431
8600 0.493 60.284 0.869 -29.515 0.869 -29.515 0.493 60.284
8650 0.495 60.138 0.867 -29.662 0.867 -29.662 0.495 60.138
8700 0.497 59.993 0.866 -29.809 0.866 -29.809 0.497 59.993
8750 0.499 59.847 0.865 -29.955 0.865 -29.955 0.499 59.847
8800 0.502 59.703 0.863 -30.1 0.863 -30.1 0.502 59.703
8850 0.504 59.558 0.862 -30.245 0.862 -30.245 0.504 59.558
8900 0.506 59.415 0.861 -30.39 0.861 -30.39 0.506 59.415
8950 0.508 59.271 0.86 -30.534 0.86 -30.534 0.508 59.271
9000 0.51 59.128 0.858 -30.678 0.858 -30.678 0.51 59.128
9050 0.512 58.986 0.857 -30.821 0.857 -30.821 0.512 58.986
9100 0.515 58.843 0.856 -30.964 0.856 -30.964 0.515 58.843
9150 0.517 58.702 0.854 -31.107 0.854 -31.107 0.517 58.702
9200 0.519 58.561 0.853 -31.249 0.853 -31.249 0.519 58.561
9250 0.521 58.42 0.852 -31.39 0.852 -31.39 0.521 58.42
9300 0.523 58.279 0.851 -31.531 0.851 -31.531 0.523 58.279
9350 0.525 58.14 0.849 -31.672 0.849 -31.672 0.525 58.14
9400 0.527 58 0.848 -31.812 0.848 -31.812 0.527 58
9450 0.529 57.861 0.847 -31.952 0.847 -31.952 0.529 57.861
9500 0.531 57.722 0.845 -32.091 0.845 -32.091 0.531 57.722
9550 0.533 57.584 0.844 -32.23 0.844 -32.23 0.533 57.584
9600 0.535 57.447 0.843 -32.369 0.843 -32.369 0.535 57.447
9650 0.537 57.309 0.842 -32.507 0.842 -32.507 0.537 57.309
9700 0.539 57.172 0.84 -32.644 0.84 -32.644 0.539 57.172
9750 0.541 57.036 0.839 -32.781 0.839 -32.781 0.541 57.036
9800 0.543 56.9 0.838 -32.918 0.838 -32.918 0.543 56.9
9850 0.545 56.764 0.836 -33.054 0.836 -33.054 0.545 56.764
9900 0.547 56.629 0.835 -33.19 0.835 -33.19 0.547 56.629
9950 0.549 56.494 0.834 -33.325 0.834 -33.325 0.549 56.494
10000 0.551 56.36 0.833 -33.46 0.833 -33.46 0.551 56.36
10050 0.553 56.226 0.831 -33.595 0.831 -33.595 0.553 56.226
10100 0.555 56.093 0.83 -33.729 0.83 -33.729 0.555 56.093
10150 0.557 55.96 0.829 -33.862 0.829 -33.862 0.557 55.96
10200 0.559 55.827 0.827 -33.996 0.827 -33.996 0.559 55.827
10250 0.561 55.695 0.826 -34.128 0.826 -34.128 0.561 55.695
10300 0.563 55.563 0.825 -34.261 0.825 -34.261 0.563 55.563
10350 0.565 55.432 0.823 -34.392 0.823 -34.392 0.565 55.432
10400 0.567 55.301 0.822 -34.524 0.822 -34.524 0.567 55.301
10450 0.569 55.171 0.821 -34.655 0.821 -34.655 0.569 55.171
10500 0.571 55.041 0.82 -34.786 0.82 -34.786 0.571 55.041
10550 0.572 54.911 0.818 -34.916 0.818 -34.916 0.572 54.911
10600 0.574 54.782 0.817 -35.046 0.817 -35.046 0.574 54.782
10650 0.576 54.653 0.816 -35.175 0.816 -35.175 0.576 54.653
10700 0.578 54.525 0.814 -35.304 0.814 -35.304 0.578 54.525
10750 0.58 54.397 0.813 -35.432 0.813 -35.432 0.58 54.397
10800 0.582 54.269 0.812 -35.56 0.812 -35.56 0.582 54.269
10850 0.583 54.142 0.81 -35.688 0.81 -35.688 0.583 54.142
10900 0.585 54.015 0.809 -35.815 0.809 -35.815 0.585 54.015
10950 0.587 53.889 0.808 -35.942 0.808 -35.942 0.587 53.889
11000 0.589 53.763 0.807 -36.068 0.807 -36.068 0.589 53.763
11050 0.591 53.638 0.805 -36.194 0.805 -36.194 0.591 53.638
11100 0.592 53.513 0.804 -36.32 0.804 -36.32 0.592 53.513
11150 0.594 53.388 0.803 -36.445 0.803 -36.445 0.594 53.388
11200 0.596 53.264 0.801 -36.57 0.801 -36.57 0.596 53.264
11250 0.598 53.14 0.8 -36.694 0.8 -36.694 0.598 53.14
11300 0.599 53.017 0.799 -36.818 0.799 -36.818 0.599 53.017
11350 0.601 52.894 0.798 -36.942 0.798 -36.942 0.601 52.894
11400 0.603 52.771 0.796 -37.065 0.796 -37.065 0.603 52.771
11450 0.604 52.649 0.795 -37.187 0.795 -37.187 0.604 52.649
11500 0.606 52.527 0.794 -37.31 0.794 -37.31 0.606 52.527
11550 0.608 52.406 0.792 -37.432 0.792 -37.432 0.608 52.406
11600 0.609 52.285 0.791 -37.553 0.791 -37.553 0.609 52.285
11650 0.611 52.164 0.79 -37.674 0.79 -37.674 0.611 52.164
11700 0.613 52.044 0.788 -37.795 0.788 -37.795 0.613 52.044
11750 0.614 51.924 0.787 -37.915 0.787 -37.915 0.614 51.924
11800 0.616 51.805 0.786 -38.035 0.786 -38.035 0.616 51.805
11850 0.618 51.686 0.785 -38.154 0.785 -38.154 0.618 51.686
11900 0.619 51.567 0.783 -38.273 0.783 -38.273 0.619 51.567
11950 0.621 51.449 0.782 -38.392 0.782 -38.392 0.621 51.449
12000 0.623 51.331 0.781 -38.51 0.781 -38.51 0.623 51.331
12050 0.624 51.213 0.779 -38.628 0.779 -38.628 0.624 51.213
12100 0.626 51.096 0.778 -38.746 0.778 -38.746 0.626 51.096
12150 0.627 50.98 0.777 -38.863 0.777 -38.863 0.627 50.98
12200 0.629 50.864 0.776 -38.979 0.776 -38.979 0.629 50.864
12250 0.631 50.748 0.774 -39.096 0.774 -39.096 0.631 50.748
12300 0.632 50.632 0.773 -39.212 0.773 -39.212 0.632 50.632
12350 0.634 50.517 0.772 -39.327 0.772 -39.327 0.634 50.517
12400 0.635 50.402 0.771 -39.442 0.771 -39.442 0.635 50.402
12450 0.637 50.288 0.769 -39.557 0.769 -39.557 0.637 50.288
12500 0.638 50.174 0.768 -39.671 0.768 -39.671 0.638 50.174
12550 0.64 50.06 0.767 -39.785 0.767 -39.785 0.64 50.06
12600 0.641 49.947 0.765 -39.899 0.765 -39.899 0.641 49.947
12650 0.643 49.834 0.764 -40.012 0.764 -40.012 0.643 49.834
12700 0.644 49.722 0.763 -40.125 0.763 -40.125 0.644 49.722
12750 0.646 49.61 0.762 -40.237 0.762 -40.237 0.646 49.61
12800 0.647 49.498 0.76 -40.35 0.76 -40.35 0.647 49.498
12850 0.649 49.387 0.759 -40.461 0.759 -40.461 0.649 49.387
12900 0.65 49.276 0.758 -40.573 0.758 -40.573 0.65 49.276
12950 0.652 49.165 0.757 -40.683 0.757 -40.683 0.652 49.165
13000 0.653 49.055 0.755 -40.794 0.755 -40.794 0.653 49.055
13050 0.655 48.945 0.754 -40.904 0.754 -40.904 0.655 48.945
13100 0.656 48.836 0.753 -41.014 0.753 -41.014 0.656 48.836
13150 0.658 48.727 0.752 -41.123 0.752 -41.123 0.658 48.727
13200 0.659 48.618 0.75 -41.233 0.75 -41.233 0.659 48.618
13250 0.661 48.51 0.749 -41.341 0.749 -41.341 0.661 48.51
13300 0.662 48.402 0.748 -41.45 0.748 -41.45 0.662 48.402
13350 0.663 48.294 0.747 -41.558 0.747 -41.558 0.663 48.294
13400 0.665 48.187 0.745 -41.665 0.745 -41.665 0.665 48.187
13450 0.666 48.08 0.744 -41.772 0.744 -41.772 0.666 48.08
13500 0.668 47.974 0.743 -41.879 0.743 -41.879 0.668 47.974
13550 0.669 47.867 0.742 -41.986 0.742 -41.986 0.669 47.867
13600 0.67 47.762 0.74 -42.092 0.74 -42.092 0.67 47.762
13650 0.672 47.656 0.739 -42.198 0.739 -42.198 0.672 47.656
13700 0.673 47.551 0.738 -42.303 0.738 -42.303 0.673 47.551
13750 0.674 47.446 0.737 -42.408 0.737 -42.408 0.674 47.446
13800 0.676 47.342 0.735 -42.513 0.735 -42.513 0.676 47.342
13850 0.677 47.238 0.734 -42.617 0.734 -42.617 0.677 47.238
13900 0.678 47.134 0.733 -42.721 0.733 -42.721 0.678 47.134
13950 0.68 47.031 0.732 -42.825 0.732 -42.825 0.68 47.031
14000 0.681 46.928 0.73 -42.928 0.73 -42.928 0.681 46.928
14050 0.682 46.825 0.729 -43.031 0.729 -43.031 0.682 46.825
14100 0.684 46.723 0.728 -43.134 0.728 -43.134 0.684 46.723
14150 0.685 46.621 0.727 -43.236 0.727 -43.236 0.685 46.621
14200 0.686 46.519 0.726 -43.338 0.726 -43.338 0.686 46.519
14250 0.688 46.418 0.724 -43.44 0.724 -43.44 0.688 46.418
14300 0.689 46.317 0.723 -43.541 0.723 -43.541 0.689 46.317
14350 0.69 46.216 0.722 -43.642 0.722 -43.642 0.69 46.216
14400 0.691 46.116 0.721 -43.742 0.721 -43.742 0.691 46.116
14450 0.693 46.016 0.72 -43.843 0.72 -43.843 0.693 46.016
14500 0.694 45.917 0.718 -43.942 0.718 -43.942 0.694 45.917
14550 0.695 45.817 0.717 -44.042 0.717 -44.042 0.695 45.817
14600 0.696 45.719 0.716 -44.141 0.716 -44.141 0.696 45.719
14650 0.698 45.62 0.715 -44.24 0.715 -44.24 0.698 45.62
14700 0.699 45.522 0.714 -44.338 0.714 -44.338 0.699 45.522
14750 0.7 45.424 0.712 -44.437 0.712 -44.437 0.7 45.424
14800 0.701 45.326 0.711 -44.534 0.711 -44.534 0.701 45.326
14850 0.703 45.229 0.71 -44.632 0.71 -44.632 0.703 45.229
14900 0.704 45.132 0.709 -44.729 0.709 -44.729 0.704 45.132
14950 0.705 45.036 0.708 -44.826 0.708 -44.826 0.705 45.036
15000 0.706 44.939 0.706 -44.923 0.706 -44.923 0.706 44.939
15050 0.707 44.843 0.705 -45.019 0.705 -45.019 0.707 44.843
15100 0.709 44.748 0.704 -45.115 0.704 -45.115 0.709 44.748
15150 0.71 44.653 0.703 -45.21 0.703 -45.21 0.71 44.653
15200 0.711 44.558 0.702 -45.305 0.702 -45.305 0.711 44.558
15250 0.712 44.463 0.7 -45.4 0.7 -45.4 0.712 44.463
15300 0.713 44.369 0.699 -45.495 0.699 -45.495 0.713 44.369
15350 0.714 44.275 0.698 -45.589 0.698 -45.589 0.714 44.275
15400 0.715 44.181 0.697 -45.683 0.697 -45.683 0.715 44.181
15450 0.717 44.088 0.696 -45.777 0.696 -45.777 0.717 44.088
15500 0.718 43.995 0.695 -45.87 0.695 -45.87 0.718 43.995
15550 0.719 43.902 0.693 -45.963 0.693 -45.963 0.719 43.902
15600 0.72 43.809 0.692 -46.056 0.692 -46.056 0.72 43.809
15650 0.721 43.717 0.691 -46.148 0.691 -46.148 0.721 43.717
15700 0.722 43.625 0.69 -46.24 0.69 -46.24 0.722 43.625
15750 0.723 43.534 0.689 -46.332 0.689 -46.332 0.723 43.534
15800 0.724 43.443 0.688 -46.423 0.688 -46.423 0.724 43.443
15850 0.726 43.352 0.686 -46.514 0.686 -46.514 0.726 43.352
15900 0.727 43.261 0.685 -46.605 0.685 -46.605 0.727 43.261
15950 0.728 43.171 0.684 -46.696 0.684 -46.696 0.728 43.171
16000 0.729 43.081 0.683 -46.786 0.683 -46.786 0.729 43.081
16050 0.73 42.991 0.682 -46.876 0.682 -46.876 0.73 42.991
16100 0.731 42.902 0.681 -46.965 0.681 -46.965 0.731 42.902
16150 0.732 42.813 0.68 -47.055 0.68 -47.055 0.732 42.813
16200 0.733 42.724 0.678 -47.144 0.678 -47.144 0.733 42.724
16250 0.734 42.636 0.677 -47.232 0.677 -47.232 0.734 42.636
16300 0.735 42.548 0.676 -47.321 0.676 -47.321 0.735 42.548
16350 0.736 42.46 0.675 -47.409 0.675 -47.409 0.736 42.46
16400 0.737 42.372 0.674 -47.497 0.674 -47.497 0.737 42.372
16450 0.738 42.285 0.673 -47.584 0.673 -47.584 0.738 42.285
16500 0.739 42.198 0.672 -47.671 0.672 -47.671 0.739 42.198
16550 0.74 42.111 0.671 -47.758 0.671 -47.758 0.74 42.111
16600 0.741 42.025 0.669 -47.845 0.669 -47.845 0.741 42.025
16650 0.742 41.939 0.668 -47.931 0.668 -47.931 0.742 41.939
16700 0.743 41.853 0.667 -48.017 0.667 -48.017 0.743 41.853
16750 0.744 41.767 0.666 -48.103 0.666 -48.103 0.744 41.767
16800 0.745 41.682 0.665 -48.189 0.665 -48.189 0.745 41.682
16850 0.746 41.597 0.664 -48.274 0.664 -48.274 0.746 41.597
16900 0.747 41.513 0.663 -48.359 0.663 -48.359 0.747 41.513
