! AVX Thin Film Operation		Date: April 2012 
! Description: Accu-P® Series, Thin Film, SMD, RF Capacitor
! Part Number: 12101J3R2ABTTR					
!	100	MHz	-	20.05	GHz			
!	Serial	Measurements						
!								
#	MHZ	S	MA	R	50			
!	S11	S21	S12	S22				
!	dB	Phase	dB	Phase	dB	Phase	dB	Phase
50 0.995 -5.742 0.1 84.18 0.1 84.18 0.995 -5.742
100 0.98 -11.379 0.197 78.522 0.197 78.522 0.98 -11.379
150 0.957 -16.821 0.289 73.06 0.289 73.06 0.957 -16.821
200 0.926 -21.994 0.375 67.866 0.375 67.866 0.926 -21.994
250 0.891 -26.848 0.452 62.991 0.452 62.991 0.891 -26.848
300 0.852 -31.358 0.52 58.46 0.52 58.46 0.852 -31.358
350 0.812 -35.515 0.581 54.281 0.581 54.281 0.812 -35.515
400 0.771 -39.327 0.634 50.446 0.634 50.446 0.771 -39.327
450 0.731 -42.812 0.68 46.94 0.68 46.94 0.731 -42.812
500 0.691 -45.991 0.719 43.737 0.719 43.737 0.691 -45.991
550 0.654 -48.891 0.753 40.813 0.753 40.813 0.654 -48.891
600 0.618 -51.538 0.783 38.142 0.783 38.142 0.618 -51.538
650 0.584 -53.958 0.809 35.698 0.809 35.698 0.584 -53.958
700 0.551 -56.173 0.831 33.456 0.831 33.456 0.551 -56.173
750 0.521 -58.206 0.85 31.396 0.85 31.396 0.521 -58.206
800 0.492 -60.077 0.867 29.498 0.867 29.498 0.492 -60.077
850 0.466 -61.803 0.881 27.744 0.881 27.744 0.466 -61.803
900 0.44 -63.398 0.894 26.119 0.894 26.119 0.44 -63.398
950 0.416 -64.878 0.905 24.608 0.905 24.608 0.416 -64.878
1000 0.394 -66.253 0.915 23.201 0.915 23.201 0.394 -66.253
1050 0.373 -67.535 0.924 21.886 0.924 21.886 0.373 -67.535
1100 0.353 -68.732 0.932 20.653 0.932 20.653 0.353 -68.732
1150 0.334 -69.853 0.939 19.495 0.939 19.495 0.334 -69.853
1200 0.316 -70.904 0.945 18.405 0.945 18.405 0.316 -70.904
1250 0.299 -71.892 0.951 17.375 0.951 17.375 0.299 -71.892
1300 0.282 -72.823 0.955 16.401 0.955 16.401 0.282 -72.823
1350 0.267 -73.7 0.96 15.476 0.96 15.476 0.267 -73.7
1400 0.252 -74.529 0.964 14.598 0.964 14.598 0.252 -74.529
1450 0.238 -75.312 0.967 13.761 0.967 13.761 0.238 -75.312
1500 0.224 -76.054 0.971 12.963 0.971 12.963 0.224 -76.054
1550 0.211 -76.755 0.974 12.199 0.974 12.199 0.211 -76.755
1600 0.199 -77.42 0.976 11.468 0.976 11.468 0.199 -77.42
1650 0.187 -78.049 0.979 10.767 0.979 10.767 0.187 -78.049
1700 0.175 -78.644 0.981 10.092 0.981 10.092 0.175 -78.644
1750 0.164 -79.206 0.983 9.443 0.983 9.443 0.164 -79.206
1800 0.153 -79.736 0.984 8.818 0.984 8.818 0.153 -79.736
1850 0.143 -80.233 0.986 8.214 0.986 8.214 0.143 -80.233
1900 0.133 -80.698 0.987 7.631 0.987 7.631 0.133 -80.698
1950 0.123 -81.129 0.989 7.066 0.989 7.066 0.123 -81.129
2000 0.114 -81.525 0.99 6.519 0.99 6.519 0.114 -81.525
2050 0.104 -81.883 0.991 5.988 0.991 5.988 0.104 -81.883
2100 0.095 -82.198 0.992 5.472 0.992 5.472 0.095 -82.198
2150 0.087 -82.465 0.992 4.971 0.992 4.971 0.087 -82.465
2200 0.078 -82.674 0.993 4.483 0.993 4.483 0.078 -82.674
2250 0.07 -82.813 0.994 4.008 0.994 4.008 0.07 -82.813
2300 0.062 -82.861 0.994 3.544 0.994 3.544 0.062 -82.861
2350 0.054 -82.79 0.995 3.092 0.995 3.092 0.054 -82.79
2400 0.046 -82.548 0.995 2.65 0.995 2.65 0.046 -82.548
2450 0.039 -82.051 0.995 2.219 0.995 2.219 0.039 -82.051
2500 0.032 -81.139 0.996 1.796 0.996 1.796 0.032 -81.139
2550 0.024 -79.472 0.996 1.383 0.996 1.383 0.024 -79.472
2600 0.018 -76.196 0.996 0.978 0.996 0.978 0.018 -76.196
2650 0.011 -68.446 0.996 0.581 0.996 0.581 0.011 -68.446
2700 5.122e-3 -40.475 0.996 0.191 0.996 0.191 5.122e-3 -40.475
2750 5.12e-3 40.444 0.996 -0.191 0.996 -0.191 5.12e-3 40.444
2800 0.011 67.98 0.996 -0.566 0.996 -0.566 0.011 67.98
2850 0.017 75.678 0.996 -0.935 0.996 -0.935 0.017 75.678
2900 0.023 78.971 0.996 -1.298 0.996 -1.298 0.023 78.971
2950 0.029 80.684 0.996 -1.655 0.996 -1.655 0.029 80.684
3000 0.035 81.662 0.996 -2.006 0.996 -2.006 0.035 81.662
3050 0.041 82.241 0.995 -2.352 0.995 -2.352 0.041 82.241
3100 0.047 82.581 0.995 -2.692 0.995 -2.692 0.047 82.581
3150 0.053 82.767 0.995 -3.028 0.995 -3.028 0.053 82.767
3200 0.059 82.849 0.994 -3.359 0.994 -3.359 0.059 82.849
3250 0.064 82.858 0.994 -3.685 0.994 -3.685 0.064 82.858
3300 0.07 82.813 0.994 -4.007 0.994 -4.007 0.07 82.813
3350 0.076 82.728 0.993 -4.325 0.993 -4.325 0.076 82.728
3400 0.081 82.613 0.993 -4.639 0.993 -4.639 0.081 82.613
3450 0.086 82.475 0.992 -4.949 0.992 -4.949 0.086 82.475
3500 0.092 82.319 0.992 -5.255 0.992 -5.255 0.092 82.319
3550 0.097 82.148 0.991 -5.558 0.991 -5.558 0.097 82.148
3600 0.102 81.966 0.991 -5.857 0.991 -5.857 0.102 81.966
3650 0.107 81.775 0.99 -6.153 0.99 -6.153 0.107 81.775
3700 0.112 81.576 0.99 -6.446 0.99 -6.446 0.112 81.576
3750 0.117 81.371 0.989 -6.735 0.989 -6.735 0.117 81.371
3800 0.122 81.162 0.989 -7.022 0.989 -7.022 0.122 81.162
3850 0.127 80.949 0.988 -7.305 0.988 -7.305 0.127 80.949
3900 0.132 80.733 0.987 -7.586 0.987 -7.586 0.132 80.733
3950 0.137 80.514 0.987 -7.864 0.987 -7.864 0.137 80.514
4000 0.142 80.293 0.986 -8.14 0.986 -8.14 0.142 80.293
4050 0.146 80.071 0.985 -8.413 0.985 -8.413 0.146 80.071
4100 0.151 79.848 0.985 -8.683 0.985 -8.683 0.151 79.848
4150 0.156 79.624 0.984 -8.952 0.984 -8.952 0.156 79.624
4200 0.16 79.399 0.983 -9.217 0.983 -9.217 0.16 79.399
4250 0.165 79.174 0.982 -9.481 0.982 -9.481 0.165 79.174
4300 0.169 78.949 0.982 -9.742 0.982 -9.742 0.169 78.949
4350 0.174 78.724 0.981 -10.001 0.981 -10.001 0.174 78.724
4400 0.178 78.498 0.98 -10.258 0.98 -10.258 0.178 78.498
4450 0.183 78.274 0.979 -10.513 0.979 -10.513 0.183 78.274
4500 0.187 78.049 0.979 -10.766 0.979 -10.766 0.187 78.049
4550 0.191 77.825 0.978 -11.017 0.978 -11.017 0.191 77.825
4600 0.195 77.601 0.977 -11.267 0.977 -11.267 0.195 77.601
4650 0.2 77.378 0.976 -11.514 0.976 -11.514 0.2 77.378
4700 0.204 77.156 0.975 -11.76 0.975 -11.76 0.204 77.156
4750 0.208 76.934 0.974 -12.004 0.974 -12.004 0.208 76.934
4800 0.212 76.713 0.973 -12.246 0.973 -12.246 0.212 76.713
4850 0.216 76.492 0.972 -12.486 0.972 -12.486 0.216 76.492
4900 0.22 76.273 0.972 -12.725 0.972 -12.725 0.22 76.273
4950 0.224 76.054 0.971 -12.963 0.971 -12.963 0.224 76.054
5000 0.228 75.836 0.97 -13.198 0.97 -13.198 0.228 75.836
5050 0.232 75.618 0.969 -13.432 0.969 -13.432 0.232 75.618
5100 0.236 75.402 0.968 -13.665 0.968 -13.665 0.236 75.402
5150 0.24 75.186 0.967 -13.896 0.967 -13.896 0.24 75.186
5200 0.244 74.972 0.966 -14.126 0.966 -14.126 0.244 74.972
5250 0.248 74.758 0.965 -14.355 0.965 -14.355 0.248 74.758
5300 0.252 74.544 0.964 -14.582 0.964 -14.582 0.252 74.544
5350 0.256 74.332 0.963 -14.807 0.963 -14.807 0.256 74.332
5400 0.259 74.121 0.962 -15.031 0.962 -15.031 0.259 74.121
5450 0.263 73.91 0.961 -15.254 0.961 -15.254 0.263 73.91
5500 0.267 73.701 0.96 -15.476 0.96 -15.476 0.267 73.701
5550 0.271 73.492 0.959 -15.697 0.959 -15.697 0.271 73.492
5600 0.274 73.284 0.958 -15.916 0.958 -15.916 0.274 73.284
5650 0.278 73.077 0.957 -16.134 0.957 -16.134 0.278 73.077
5700 0.282 72.871 0.956 -16.35 0.956 -16.35 0.282 72.871
5750 0.285 72.665 0.955 -16.566 0.955 -16.566 0.285 72.665
5800 0.289 72.461 0.954 -16.78 0.954 -16.78 0.289 72.461
5850 0.292 72.257 0.953 -16.994 0.953 -16.994 0.292 72.257
5900 0.296 72.054 0.951 -17.206 0.951 -17.206 0.296 72.054
5950 0.299 71.852 0.95 -17.417 0.95 -17.417 0.299 71.852
6000 0.303 71.651 0.949 -17.627 0.949 -17.627 0.303 71.651
6050 0.306 71.451 0.948 -17.836 0.948 -17.836 0.306 71.451
6100 0.31 71.252 0.947 -18.043 0.947 -18.043 0.31 71.252
6150 0.313 71.053 0.946 -18.25 0.946 -18.25 0.313 71.053
6200 0.317 70.855 0.945 -18.456 0.945 -18.456 0.317 70.855
6250 0.32 70.658 0.944 -18.66 0.944 -18.66 0.32 70.658
6300 0.323 70.462 0.942 -18.864 0.942 -18.864 0.323 70.462
6350 0.327 70.267 0.941 -19.066 0.941 -19.066 0.327 70.267
6400 0.33 70.072 0.94 -19.268 0.94 -19.268 0.33 70.072
6450 0.333 69.878 0.939 -19.469 0.939 -19.469 0.333 69.878
6500 0.337 69.685 0.938 -19.668 0.938 -19.668 0.337 69.685
6550 0.34 69.493 0.937 -19.867 0.937 -19.867 0.34 69.493
6600 0.343 69.302 0.936 -20.065 0.936 -20.065 0.343 69.302
6650 0.346 69.111 0.934 -20.262 0.934 -20.262 0.346 69.111
6700 0.35 68.921 0.933 -20.458 0.933 -20.458 0.35 68.921
6750 0.353 68.732 0.932 -20.653 0.932 -20.653 0.353 68.732
6800 0.356 68.544 0.931 -20.847 0.931 -20.847 0.356 68.544
6850 0.359 68.357 0.93 -21.04 0.93 -21.04 0.359 68.357
6900 0.362 68.17 0.928 -21.232 0.928 -21.232 0.362 68.17
6950 0.365 67.984 0.927 -21.424 0.927 -21.424 0.365 67.984
7000 0.368 67.799 0.926 -21.614 0.926 -21.614 0.368 67.799
7050 0.371 67.614 0.925 -21.804 0.925 -21.804 0.371 67.614
7100 0.375 67.43 0.923 -21.993 0.923 -21.993 0.375 67.43
7150 0.378 67.247 0.922 -22.181 0.922 -22.181 0.378 67.247
7200 0.381 67.065 0.921 -22.368 0.921 -22.368 0.381 67.065
7250 0.384 66.883 0.92 -22.555 0.92 -22.555 0.384 66.883
7300 0.387 66.703 0.919 -22.74 0.919 -22.74 0.387 66.703
7350 0.39 66.522 0.917 -22.925 0.917 -22.925 0.39 66.522
7400 0.392 66.343 0.916 -23.109 0.916 -23.109 0.392 66.343
7450 0.395 66.164 0.915 -23.292 0.915 -23.292 0.395 66.164
7500 0.398 65.986 0.913 -23.474 0.913 -23.474 0.398 65.986
7550 0.401 65.809 0.912 -23.656 0.912 -23.656 0.401 65.809
7600 0.404 65.632 0.911 -23.837 0.911 -23.837 0.404 65.632
7650 0.407 65.457 0.91 -24.017 0.91 -24.017 0.407 65.457
7700 0.41 65.281 0.908 -24.196 0.908 -24.196 0.41 65.281
7750 0.413 65.107 0.907 -24.374 0.907 -24.374 0.413 65.107
7800 0.416 64.933 0.906 -24.552 0.906 -24.552 0.416 64.933
7850 0.418 64.76 0.905 -24.729 0.905 -24.729 0.418 64.76
7900 0.421 64.587 0.903 -24.905 0.903 -24.905 0.421 64.587
7950 0.424 64.416 0.902 -25.081 0.902 -25.081 0.424 64.416
8000 0.427 64.244 0.901 -25.256 0.901 -25.256 0.427 64.244
8050 0.429 64.074 0.899 -25.43 0.899 -25.43 0.429 64.074
8100 0.432 63.904 0.898 -25.603 0.898 -25.603 0.432 63.904
8150 0.435 63.735 0.897 -25.775 0.897 -25.775 0.435 63.735
8200 0.438 63.567 0.895 -25.947 0.895 -25.947 0.438 63.567
8250 0.44 63.399 0.894 -26.119 0.894 -26.119 0.44 63.399
8300 0.443 63.232 0.893 -26.289 0.893 -26.289 0.443 63.232
8350 0.446 63.065 0.892 -26.459 0.892 -26.459 0.446 63.065
8400 0.448 62.899 0.89 -26.628 0.89 -26.628 0.448 62.899
8450 0.451 62.734 0.889 -26.796 0.889 -26.796 0.451 62.734
8500 0.453 62.569 0.888 -26.964 0.888 -26.964 0.453 62.569
8550 0.456 62.405 0.886 -27.131 0.886 -27.131 0.456 62.405
8600 0.459 62.242 0.885 -27.297 0.885 -27.297 0.459 62.242
8650 0.461 62.079 0.884 -27.463 0.884 -27.463 0.461 62.079
8700 0.464 61.917 0.882 -27.628 0.882 -27.628 0.464 61.917
8750 0.466 61.756 0.881 -27.792 0.881 -27.792 0.466 61.756
8800 0.469 61.595 0.88 -27.956 0.88 -27.956 0.469 61.595
8850 0.471 61.434 0.878 -28.119 0.878 -28.119 0.471 61.434
8900 0.474 61.275 0.877 -28.281 0.877 -28.281 0.474 61.275
8950 0.476 61.116 0.876 -28.443 0.876 -28.443 0.476 61.116
9000 0.479 60.957 0.874 -28.604 0.874 -28.604 0.479 60.957
9050 0.481 60.8 0.873 -28.764 0.873 -28.764 0.481 60.8
9100 0.484 60.642 0.872 -28.924 0.872 -28.924 0.484 60.642
9150 0.486 60.486 0.87 -29.083 0.87 -29.083 0.486 60.486
9200 0.489 60.33 0.869 -29.242 0.869 -29.242 0.489 60.33
9250 0.491 60.174 0.868 -29.399 0.868 -29.399 0.491 60.174
9300 0.493 60.02 0.866 -29.557 0.866 -29.557 0.493 60.02
9350 0.496 59.865 0.865 -29.713 0.865 -29.713 0.496 59.865
9400 0.498 59.712 0.864 -29.869 0.864 -29.869 0.498 59.712
9450 0.5 59.559 0.862 -30.025 0.862 -30.025 0.5 59.559
9500 0.503 59.406 0.861 -30.18 0.861 -30.18 0.503 59.406
9550 0.505 59.254 0.859 -30.334 0.859 -30.334 0.505 59.254
9600 0.507 59.103 0.858 -30.487 0.858 -30.487 0.507 59.103
9650 0.51 58.952 0.857 -30.64 0.857 -30.64 0.51 58.952
9700 0.512 58.802 0.855 -30.793 0.855 -30.793 0.512 58.802
9750 0.514 58.652 0.854 -30.944 0.854 -30.944 0.514 58.652
9800 0.516 58.503 0.853 -31.095 0.853 -31.095 0.516 58.503
9850 0.519 58.355 0.851 -31.246 0.851 -31.246 0.519 58.355
9900 0.521 58.207 0.85 -31.396 0.85 -31.396 0.521 58.207
9950 0.523 58.059 0.849 -31.545 0.849 -31.545 0.523 58.059
10000 0.525 57.913 0.847 -31.694 0.847 -31.694 0.525 57.913
10050 0.528 57.766 0.846 -31.842 0.846 -31.842 0.528 57.766
10100 0.53 57.621 0.845 -31.99 0.845 -31.99 0.53 57.621
10150 0.532 57.475 0.843 -32.137 0.843 -32.137 0.532 57.475
10200 0.534 57.331 0.842 -32.284 0.842 -32.284 0.534 57.331
10250 0.536 57.187 0.84 -32.43 0.84 -32.43 0.536 57.187
10300 0.538 57.043 0.839 -32.575 0.839 -32.575 0.538 57.043
10350 0.541 56.9 0.838 -32.72 0.838 -32.72 0.541 56.9
10400 0.543 56.758 0.836 -32.864 0.836 -32.864 0.543 56.758
10450 0.545 56.616 0.835 -33.008 0.835 -33.008 0.545 56.616
10500 0.547 56.475 0.834 -33.151 0.834 -33.151 0.547 56.475
10550 0.549 56.334 0.832 -33.294 0.832 -33.294 0.549 56.334
10600 0.551 56.193 0.831 -33.436 0.831 -33.436 0.551 56.193
10650 0.553 56.054 0.83 -33.577 0.83 -33.577 0.553 56.054
10700 0.555 55.914 0.828 -33.718 0.828 -33.718 0.555 55.914
10750 0.557 55.776 0.827 -33.859 0.827 -33.859 0.557 55.776
10800 0.559 55.637 0.825 -33.998 0.825 -33.998 0.559 55.637
10850 0.561 55.5 0.824 -34.138 0.824 -34.138 0.561 55.5
10900 0.563 55.363 0.823 -34.277 0.823 -34.277 0.563 55.363
10950 0.565 55.226 0.821 -34.415 0.821 -34.415 0.565 55.226
11000 0.567 55.09 0.82 -34.553 0.82 -34.553 0.567 55.09
11050 0.569 54.954 0.819 -34.69 0.819 -34.69 0.569 54.954
11100 0.571 54.819 0.817 -34.826 0.817 -34.826 0.571 54.819
11150 0.573 54.684 0.816 -34.963 0.816 -34.963 0.573 54.684
11200 0.575 54.55 0.815 -35.098 0.815 -35.098 0.575 54.55
11250 0.577 54.417 0.813 -35.233 0.813 -35.233 0.577 54.417
11300 0.579 54.283 0.812 -35.368 0.812 -35.368 0.579 54.283
11350 0.581 54.151 0.811 -35.502 0.811 -35.502 0.581 54.151
11400 0.583 54.019 0.809 -35.636 0.809 -35.636 0.583 54.019
11450 0.585 53.887 0.808 -35.769 0.808 -35.769 0.585 53.887
11500 0.586 53.756 0.807 -35.901 0.807 -35.901 0.586 53.756
11550 0.588 53.625 0.805 -36.033 0.805 -36.033 0.588 53.625
11600 0.59 53.495 0.804 -36.165 0.804 -36.165 0.59 53.495
11650 0.592 53.365 0.802 -36.296 0.802 -36.296 0.592 53.365
11700 0.594 53.236 0.801 -36.427 0.801 -36.427 0.594 53.236
11750 0.596 53.107 0.8 -36.557 0.8 -36.557 0.596 53.107
11800 0.597 52.979 0.798 -36.686 0.798 -36.686 0.597 52.979
11850 0.599 52.851 0.797 -36.815 0.797 -36.815 0.599 52.851
11900 0.601 52.724 0.796 -36.944 0.796 -36.944 0.601 52.724
11950 0.603 52.597 0.794 -37.072 0.794 -37.072 0.603 52.597
12000 0.605 52.471 0.793 -37.2 0.793 -37.2 0.605 52.471
12050 0.606 52.345 0.792 -37.327 0.792 -37.327 0.606 52.345
12100 0.608 52.22 0.79 -37.453 0.79 -37.453 0.608 52.22
12150 0.61 52.095 0.789 -37.58 0.789 -37.58 0.61 52.095
12200 0.612 51.97 0.788 -37.705 0.788 -37.705 0.612 51.97
12250 0.613 51.846 0.786 -37.831 0.786 -37.831 0.613 51.846
12300 0.615 51.723 0.785 -37.955 0.785 -37.955 0.615 51.723
12350 0.617 51.6 0.784 -38.08 0.784 -38.08 0.617 51.6
12400 0.618 51.477 0.782 -38.203 0.782 -38.203 0.618 51.477
12450 0.62 51.355 0.781 -38.327 0.781 -38.327 0.62 51.355
12500 0.622 51.233 0.78 -38.45 0.78 -38.45 0.622 51.233
12550 0.624 51.112 0.778 -38.572 0.778 -38.572 0.624 51.112
12600 0.625 50.991 0.777 -38.694 0.777 -38.694 0.625 50.991
12650 0.627 50.871 0.776 -38.816 0.776 -38.816 0.627 50.871
12700 0.628 50.751 0.774 -38.937 0.774 -38.937 0.628 50.751
12750 0.63 50.631 0.773 -39.057 0.773 -39.057 0.63 50.631
12800 0.632 50.512 0.772 -39.177 0.772 -39.177 0.632 50.512
12850 0.633 50.394 0.77 -39.297 0.77 -39.297 0.633 50.394
12900 0.635 50.276 0.769 -39.416 0.769 -39.416 0.635 50.276
12950 0.637 50.158 0.768 -39.535 0.768 -39.535 0.637 50.158
13000 0.638 50.041 0.767 -39.654 0.767 -39.654 0.638 50.041
13050 0.64 49.924 0.765 -39.771 0.765 -39.771 0.64 49.924
13100 0.641 49.807 0.764 -39.889 0.764 -39.889 0.641 49.807
13150 0.643 49.691 0.763 -40.006 0.763 -40.006 0.643 49.691
13200 0.644 49.576 0.761 -40.123 0.761 -40.123 0.644 49.576
13250 0.646 49.461 0.76 -40.239 0.76 -40.239 0.646 49.461
13300 0.648 49.346 0.759 -40.354 0.759 -40.354 0.648 49.346
13350 0.649 49.232 0.757 -40.47 0.757 -40.47 0.649 49.232
13400 0.651 49.118 0.756 -40.585 0.756 -40.585 0.651 49.118
13450 0.652 49.004 0.755 -40.699 0.755 -40.699 0.652 49.004
13500 0.654 48.891 0.753 -40.813 0.753 -40.813 0.654 48.891
13550 0.655 48.779 0.752 -40.927 0.752 -40.927 0.655 48.779
13600 0.657 48.666 0.751 -41.04 0.751 -41.04 0.657 48.666
13650 0.658 48.555 0.75 -41.152 0.75 -41.152 0.658 48.555
13700 0.66 48.443 0.748 -41.265 0.748 -41.265 0.66 48.443
13750 0.661 48.332 0.747 -41.377 0.747 -41.377 0.661 48.332
13800 0.662 48.222 0.746 -41.488 0.746 -41.488 0.662 48.222
13850 0.664 48.112 0.744 -41.599 0.744 -41.599 0.664 48.112
13900 0.665 48.002 0.743 -41.71 0.743 -41.71 0.665 48.002
13950 0.667 47.893 0.742 -41.82 0.742 -41.82 0.667 47.893
14000 0.668 47.784 0.741 -41.93 0.741 -41.93 0.668 47.784
14050 0.67 47.675 0.739 -42.04 0.739 -42.04 0.67 47.675
14100 0.671 47.567 0.738 -42.149 0.738 -42.149 0.671 47.567
14150 0.672 47.459 0.737 -42.257 0.737 -42.257 0.672 47.459
14200 0.674 47.352 0.736 -42.365 0.736 -42.365 0.674 47.352
14250 0.675 47.245 0.734 -42.473 0.734 -42.473 0.675 47.245
14300 0.677 47.138 0.733 -42.581 0.733 -42.581 0.677 47.138
14350 0.678 47.032 0.732 -42.688 0.732 -42.688 0.678 47.032
14400 0.679 46.926 0.73 -42.794 0.73 -42.794 0.679 46.926
14450 0.681 46.821 0.729 -42.901 0.729 -42.901 0.681 46.821
14500 0.682 46.716 0.728 -43.007 0.728 -43.007 0.682 46.716
14550 0.683 46.611 0.727 -43.112 0.727 -43.112 0.683 46.611
14600 0.685 46.507 0.725 -43.217 0.725 -43.217 0.685 46.507
14650 0.686 46.403 0.724 -43.322 0.724 -43.322 0.686 46.403
14700 0.687 46.299 0.723 -43.426 0.723 -43.426 0.687 46.299
14750 0.689 46.196 0.722 -43.53 0.722 -43.53 0.689 46.196
14800 0.69 46.094 0.72 -43.634 0.72 -43.634 0.69 46.094
14850 0.691 45.991 0.719 -43.737 0.719 -43.737 0.691 45.991
14900 0.693 45.889 0.718 -43.84 0.718 -43.84 0.693 45.889
14950 0.694 45.788 0.717 -43.942 0.717 -43.942 0.694 45.788
15000 0.695 45.686 0.716 -44.044 0.716 -44.044 0.695 45.686
15050 0.696 45.585 0.714 -44.146 0.714 -44.146 0.696 45.585
15100 0.698 45.485 0.713 -44.247 0.713 -44.247 0.698 45.485
15150 0.699 45.385 0.712 -44.348 0.712 -44.348 0.699 45.385
15200 0.7 45.285 0.711 -44.449 0.711 -44.449 0.7 45.285
15250 0.702 45.185 0.709 -44.549 0.709 -44.549 0.702 45.185
15300 0.703 45.086 0.708 -44.649 0.708 -44.649 0.703 45.086
15350 0.704 44.988 0.707 -44.748 0.707 -44.748 0.704 44.988
15400 0.705 44.889 0.706 -44.847 0.706 -44.847 0.705 44.889
15450 0.706 44.791 0.705 -44.946 0.705 -44.946 0.706 44.791
15500 0.708 44.693 0.703 -45.044 0.703 -45.044 0.708 44.693
15550 0.709 44.596 0.702 -45.142 0.702 -45.142 0.709 44.596
15600 0.71 44.499 0.701 -45.24 0.701 -45.24 0.71 44.499
15650 0.711 44.403 0.7 -45.337 0.7 -45.337 0.711 44.403
15700 0.712 44.306 0.699 -45.434 0.699 -45.434 0.712 44.306
15750 0.714 44.21 0.697 -45.531 0.697 -45.531 0.714 44.21
15800 0.715 44.115 0.696 -45.627 0.696 -45.627 0.715 44.115
15850 0.716 44.019 0.695 -45.723 0.695 -45.723 0.716 44.019
15900 0.717 43.925 0.694 -45.819 0.694 -45.819 0.717 43.925
15950 0.718 43.83 0.693 -45.914 0.693 -45.914 0.718 43.83
16000 0.719 43.736 0.691 -46.009 0.691 -46.009 0.719 43.736
16050 0.721 43.642 0.69 -46.103 0.69 -46.103 0.721 43.642
16100 0.722 43.548 0.689 -46.198 0.689 -46.198 0.722 43.548
16150 0.723 43.455 0.688 -46.291 0.688 -46.291 0.723 43.455
16200 0.724 43.362 0.687 -46.385 0.687 -46.385 0.724 43.362
16250 0.725 43.27 0.685 -46.478 0.685 -46.478 0.725 43.27
16300 0.726 43.177 0.684 -46.571 0.684 -46.571 0.726 43.177
16350 0.727 43.086 0.683 -46.664 0.683 -46.664 0.727 43.086
16400 0.728 42.994 0.682 -46.756 0.682 -46.756 0.728 42.994
16450 0.73 42.903 0.681 -46.848 0.681 -46.848 0.73 42.903
16500 0.731 42.812 0.68 -46.939 0.68 -46.939 0.731 42.812
16550 0.732 42.721 0.678 -47.03 0.678 -47.03 0.732 42.721
16600 0.733 42.631 0.677 -47.121 0.677 -47.121 0.733 42.631
16650 0.734 42.541 0.676 -47.212 0.676 -47.212 0.734 42.541
16700 0.735 42.451 0.675 -47.302 0.675 -47.302 0.735 42.451
16750 0.736 42.362 0.674 -47.392 0.674 -47.392 0.736 42.362
16800 0.737 42.273 0.673 -47.482 0.673 -47.482 0.737 42.273
16850 0.738 42.184 0.672 -47.571 0.672 -47.571 0.738 42.184
16900 0.739 42.096 0.67 -47.66 0.67 -47.66 0.739 42.096
