! AVX Thin Film Operation		Date: April 2012 
! Description: Accu-P® Series, Thin Film, SMD, RF Capacitor
! Part Number: 12101J1R3PBTTR					
!	100	MHz	-	20.05	GHz			
!	Serial	Measurements						
!								
#	MHZ	S	MA	R	50			
!	S11	S21	S12	S22				
!	dB	Phase	dB	Phase	dB	Phase	dB	Phase
50 0.999 -2.339 0.041 87.593 0.041 87.593 0.999 -2.339
100 0.997 -4.672 0.081 85.249 0.081 85.249 0.997 -4.672
150 0.992 -6.992 0.122 82.917 0.122 82.917 0.992 -6.992
200 0.987 -9.295 0.162 80.603 0.162 80.603 0.987 -9.295
250 0.979 -11.575 0.201 78.311 0.201 78.311 0.979 -11.575
300 0.971 -13.827 0.239 76.048 0.239 76.048 0.971 -13.827
350 0.96 -16.046 0.276 73.818 0.276 73.818 0.96 -16.046
400 0.949 -18.228 0.313 71.624 0.313 71.624 0.949 -18.228
450 0.936 -20.37 0.348 69.471 0.348 69.471 0.936 -20.37
500 0.923 -22.468 0.382 67.361 0.382 67.361 0.923 -22.468
550 0.908 -24.519 0.415 65.297 0.415 65.297 0.908 -24.519
600 0.893 -26.523 0.447 63.282 0.447 63.282 0.893 -26.523
650 0.877 -28.476 0.477 61.316 0.477 61.316 0.877 -28.476
700 0.861 -30.378 0.506 59.402 0.506 59.402 0.861 -30.378
750 0.844 -32.229 0.533 57.539 0.533 57.539 0.844 -32.229
800 0.826 -34.027 0.56 55.728 0.56 55.728 0.826 -34.027
850 0.809 -35.773 0.585 53.969 0.585 53.969 0.809 -35.773
900 0.791 -37.467 0.608 52.262 0.608 52.262 0.791 -37.467
950 0.773 -39.11 0.631 50.605 0.631 50.605 0.773 -39.11
1000 0.755 -40.702 0.652 49 0.652 49 0.755 -40.702
1050 0.737 -42.245 0.672 47.443 0.672 47.443 0.737 -42.245
1100 0.719 -43.739 0.691 45.935 0.691 45.935 0.719 -43.739
1150 0.701 -45.186 0.709 44.473 0.709 44.473 0.701 -45.186
1200 0.683 -46.587 0.726 43.057 0.726 43.057 0.683 -46.587
1250 0.665 -47.943 0.742 41.686 0.742 41.686 0.665 -47.943
1300 0.648 -49.257 0.758 40.357 0.758 40.357 0.648 -49.257
1350 0.63 -50.528 0.772 39.069 0.772 39.069 0.63 -50.528
1400 0.613 -51.76 0.785 37.821 0.785 37.821 0.613 -51.76
1450 0.596 -52.953 0.798 36.612 0.798 36.612 0.596 -52.953
1500 0.58 -54.109 0.81 35.439 0.81 35.439 0.58 -54.109
1550 0.564 -55.228 0.821 34.301 0.821 34.301 0.564 -55.228
1600 0.548 -56.314 0.832 33.198 0.832 33.198 0.548 -56.314
1650 0.532 -57.366 0.842 32.127 0.842 32.127 0.532 -57.366
1700 0.516 -58.387 0.852 31.087 0.852 31.087 0.516 -58.387
1750 0.501 -59.377 0.861 30.077 0.861 30.077 0.501 -59.377
1800 0.486 -60.337 0.869 29.096 0.869 29.096 0.486 -60.337
1850 0.472 -61.27 0.877 28.142 0.877 28.142 0.472 -61.27
1900 0.457 -62.175 0.884 27.214 0.884 27.214 0.457 -62.175
1950 0.443 -63.055 0.891 26.312 0.891 26.312 0.443 -63.055
2000 0.429 -63.909 0.898 25.434 0.898 25.434 0.429 -63.909
2050 0.416 -64.74 0.904 24.579 0.904 24.579 0.416 -64.74
2100 0.403 -65.547 0.91 23.745 0.91 23.745 0.403 -65.547
2150 0.39 -66.332 0.916 22.934 0.916 22.934 0.39 -66.332
2200 0.377 -67.096 0.921 22.142 0.921 22.142 0.377 -67.096
2250 0.364 -67.839 0.926 21.369 0.926 21.369 0.364 -67.839
2300 0.352 -68.563 0.931 20.616 0.931 20.616 0.352 -68.563
2350 0.34 -69.267 0.935 19.88 0.935 19.88 0.34 -69.267
2400 0.328 -69.952 0.94 19.161 0.94 19.161 0.328 -69.952
2450 0.317 -70.619 0.943 18.458 0.943 18.458 0.317 -70.619
2500 0.305 -71.269 0.947 17.772 0.947 17.772 0.305 -71.269
2550 0.294 -71.902 0.951 17.1 0.951 17.1 0.294 -71.902
2600 0.283 -72.518 0.954 16.443 0.954 16.443 0.283 -72.518
2650 0.272 -73.118 0.957 15.799 0.957 15.799 0.272 -73.118
2700 0.262 -73.702 0.96 15.169 0.96 15.169 0.262 -73.702
2750 0.251 -74.27 0.963 14.552 0.963 14.552 0.251 -74.27
2800 0.241 -74.822 0.965 13.947 0.965 13.947 0.241 -74.822
2850 0.231 -75.359 0.968 13.354 0.968 13.354 0.231 -75.359
2900 0.221 -75.881 0.97 12.773 0.97 12.773 0.221 -75.881
2950 0.211 -76.388 0.972 12.202 0.972 12.202 0.211 -76.388
3000 0.202 -76.879 0.974 11.642 0.974 11.642 0.202 -76.879
3050 0.192 -77.355 0.976 11.092 0.976 11.092 0.192 -77.355
3100 0.183 -77.814 0.978 10.552 0.978 10.552 0.183 -77.814
3150 0.174 -78.258 0.98 10.022 0.98 10.022 0.174 -78.258
3200 0.165 -78.684 0.981 9.5 0.981 9.5 0.165 -78.684
3250 0.156 -79.092 0.982 8.987 0.982 8.987 0.156 -79.092
3300 0.148 -79.481 0.984 8.483 0.984 8.483 0.148 -79.481
3350 0.139 -79.85 0.985 7.987 0.985 7.987 0.139 -79.85
3400 0.131 -80.196 0.986 7.499 0.986 7.499 0.131 -80.196
3450 0.122 -80.518 0.987 7.018 0.987 7.018 0.122 -80.518
3500 0.114 -80.813 0.988 6.545 0.988 6.545 0.114 -80.813
3550 0.106 -81.076 0.989 6.079 0.989 6.079 0.106 -81.076
3600 0.098 -81.302 0.99 5.62 0.99 5.62 0.098 -81.302
3650 0.09 -81.485 0.991 5.168 0.991 5.168 0.09 -81.485
3700 0.082 -81.615 0.991 4.722 0.991 4.722 0.082 -81.615
3750 0.075 -81.679 0.992 4.283 0.992 4.283 0.075 -81.679
3800 0.067 -81.658 0.992 3.849 0.992 3.849 0.067 -81.658
3850 0.06 -81.526 0.993 3.421 0.993 3.421 0.06 -81.526
3900 0.053 -81.241 0.993 3 0.993 3 0.053 -81.241
3950 0.045 -80.736 0.994 2.583 0.994 2.583 0.045 -80.736
4000 0.038 -79.897 0.994 2.172 0.994 2.172 0.038 -79.897
4050 0.031 -78.512 0.994 1.766 0.994 1.766 0.031 -78.512
4100 0.024 -76.14 0.994 1.366 0.994 1.366 0.024 -76.14
4150 0.018 -71.702 0.995 0.97 0.995 0.97 0.018 -71.702
4200 0.011 -61.827 0.995 0.579 0.995 0.579 0.011 -61.827
4250 6.263e-3 -32.301 0.995 0.193 0.995 0.193 6.263e-3 -32.301
4300 6.228e-3 31.795 0.995 -0.189 0.995 -0.189 6.228e-3 31.795
4350 0.011 61.315 0.995 -0.566 0.995 -0.566 0.011 61.315
4400 0.017 71.204 0.995 -0.939 0.995 -0.939 0.017 71.204
4450 0.023 75.668 0.994 -1.308 0.994 -1.308 0.023 75.668
4500 0.03 78.075 0.994 -1.673 0.994 -1.673 0.03 78.075
4550 0.036 79.504 0.994 -2.034 0.994 -2.034 0.036 79.504
4600 0.042 80.397 0.994 -2.391 0.994 -2.391 0.042 80.397
4650 0.048 80.965 0.994 -2.744 0.994 -2.744 0.048 80.965
4700 0.054 81.322 0.993 -3.094 0.993 -3.094 0.054 81.322
4750 0.06 81.535 0.993 -3.44 0.993 -3.44 0.06 81.535
4800 0.066 81.646 0.993 -3.783 0.993 -3.783 0.066 81.646
4850 0.072 81.682 0.992 -4.122 0.992 -4.122 0.072 81.682
4900 0.078 81.662 0.992 -4.457 0.992 -4.457 0.078 81.662
4950 0.084 81.599 0.991 -4.79 0.991 -4.79 0.084 81.599
5000 0.089 81.502 0.991 -5.119 0.991 -5.119 0.089 81.502
5050 0.095 81.378 0.99 -5.446 0.99 -5.446 0.095 81.378
5100 0.101 81.233 0.99 -5.769 0.99 -5.769 0.101 81.233
5150 0.106 81.071 0.989 -6.089 0.989 -6.089 0.106 81.071
5200 0.112 80.894 0.988 -6.406 0.988 -6.406 0.112 80.894
5250 0.117 80.707 0.988 -6.721 0.988 -6.721 0.117 80.707
5300 0.123 80.509 0.987 -7.033 0.987 -7.033 0.123 80.509
5350 0.128 80.304 0.987 -7.342 0.987 -7.342 0.128 80.304
5400 0.133 80.093 0.986 -7.648 0.986 -7.648 0.133 80.093
5450 0.138 79.876 0.985 -7.952 0.985 -7.952 0.138 79.876
5500 0.144 79.654 0.984 -8.253 0.984 -8.253 0.144 79.654
5550 0.149 79.429 0.984 -8.551 0.984 -8.551 0.149 79.429
5600 0.154 79.201 0.983 -8.848 0.983 -8.848 0.154 79.201
5650 0.159 78.97 0.982 -9.141 0.982 -9.141 0.159 78.97
5700 0.164 78.738 0.981 -9.433 0.981 -9.433 0.164 78.738
5750 0.169 78.504 0.98 -9.722 0.98 -9.722 0.169 78.504
5800 0.174 78.268 0.98 -10.009 0.98 -10.009 0.174 78.268
5850 0.179 78.032 0.979 -10.293 0.979 -10.293 0.179 78.032
5900 0.184 77.795 0.978 -10.576 0.978 -10.576 0.184 77.795
5950 0.188 77.557 0.977 -10.856 0.977 -10.856 0.188 77.557
6000 0.193 77.319 0.976 -11.134 0.976 -11.134 0.193 77.319
6050 0.198 77.081 0.975 -11.41 0.975 -11.41 0.198 77.081
6100 0.203 76.843 0.974 -11.684 0.974 -11.684 0.203 76.843
6150 0.207 76.605 0.973 -11.956 0.973 -11.956 0.207 76.605
6200 0.212 76.367 0.972 -12.226 0.972 -12.226 0.212 76.367
6250 0.216 76.13 0.971 -12.494 0.971 -12.494 0.216 76.13
6300 0.221 75.893 0.97 -12.76 0.97 -12.76 0.221 75.893
6350 0.225 75.657 0.969 -13.024 0.969 -13.024 0.225 75.657
6400 0.23 75.421 0.968 -13.286 0.968 -13.286 0.23 75.421
6450 0.234 75.186 0.967 -13.547 0.967 -13.547 0.234 75.186
6500 0.239 74.951 0.966 -13.806 0.966 -13.806 0.239 74.951
6550 0.243 74.717 0.965 -14.063 0.965 -14.063 0.243 74.717
6600 0.247 74.484 0.964 -14.318 0.964 -14.318 0.247 74.484
6650 0.252 74.252 0.963 -14.571 0.963 -14.571 0.252 74.252
6700 0.256 74.021 0.962 -14.823 0.962 -14.823 0.256 74.021
6750 0.26 73.79 0.96 -15.073 0.96 -15.073 0.26 73.79
6800 0.264 73.561 0.959 -15.322 0.959 -15.322 0.264 73.561
6850 0.268 73.332 0.958 -15.569 0.958 -15.569 0.268 73.332
6900 0.273 73.104 0.957 -15.814 0.957 -15.814 0.273 73.104
6950 0.277 72.877 0.956 -16.058 0.956 -16.058 0.277 72.877
7000 0.281 72.651 0.955 -16.3 0.955 -16.3 0.281 72.651
7050 0.285 72.427 0.953 -16.54 0.953 -16.54 0.285 72.427
7100 0.289 72.203 0.952 -16.78 0.952 -16.78 0.289 72.203
7150 0.293 71.98 0.951 -17.017 0.951 -17.017 0.293 71.98
7200 0.297 71.758 0.95 -17.253 0.95 -17.253 0.297 71.758
7250 0.301 71.537 0.949 -17.488 0.949 -17.488 0.301 71.537
7300 0.304 71.317 0.947 -17.721 0.947 -17.721 0.304 71.317
7350 0.308 71.098 0.946 -17.953 0.946 -17.953 0.308 71.098
7400 0.312 70.88 0.945 -18.184 0.945 -18.184 0.312 70.88
7450 0.316 70.663 0.944 -18.413 0.944 -18.413 0.316 70.663
7500 0.32 70.447 0.942 -18.64 0.942 -18.64 0.32 70.447
7550 0.323 70.232 0.941 -18.867 0.941 -18.867 0.323 70.232
7600 0.327 70.018 0.94 -19.092 0.94 -19.092 0.327 70.018
7650 0.331 69.805 0.939 -19.315 0.939 -19.315 0.331 69.805
7700 0.334 69.593 0.937 -19.538 0.937 -19.538 0.334 69.593
7750 0.338 69.382 0.936 -19.759 0.936 -19.759 0.338 69.382
7800 0.342 69.172 0.935 -19.979 0.935 -19.979 0.342 69.172
7850 0.345 68.963 0.933 -20.197 0.933 -20.197 0.345 68.963
7900 0.349 68.755 0.932 -20.414 0.932 -20.414 0.349 68.755
7950 0.352 68.549 0.931 -20.63 0.931 -20.63 0.352 68.549
8000 0.356 68.343 0.93 -20.845 0.93 -20.845 0.356 68.343
8050 0.359 68.138 0.928 -21.059 0.928 -21.059 0.359 68.138
8100 0.363 67.934 0.927 -21.271 0.927 -21.271 0.363 67.934
8150 0.366 67.731 0.925 -21.483 0.925 -21.483 0.366 67.731
8200 0.37 67.528 0.924 -21.693 0.924 -21.693 0.37 67.528
8250 0.373 67.327 0.923 -21.902 0.923 -21.902 0.373 67.327
8300 0.376 67.127 0.921 -22.11 0.921 -22.11 0.376 67.127
8350 0.38 66.928 0.92 -22.316 0.92 -22.316 0.38 66.928
8400 0.383 66.73 0.919 -22.522 0.919 -22.522 0.383 66.73
8450 0.386 66.533 0.917 -22.726 0.917 -22.726 0.386 66.533
8500 0.39 66.336 0.916 -22.93 0.916 -22.93 0.39 66.336
8550 0.393 66.141 0.915 -23.132 0.915 -23.132 0.393 66.141
8600 0.396 65.946 0.913 -23.333 0.913 -23.333 0.396 65.946
8650 0.399 65.753 0.912 -23.533 0.912 -23.533 0.399 65.753
8700 0.402 65.56 0.91 -23.732 0.91 -23.732 0.402 65.56
8750 0.406 65.368 0.909 -23.93 0.909 -23.93 0.406 65.368
8800 0.409 65.178 0.908 -24.127 0.908 -24.127 0.409 65.178
8850 0.412 64.988 0.906 -24.323 0.906 -24.323 0.412 64.988
8900 0.415 64.799 0.905 -24.518 0.905 -24.518 0.415 64.799
8950 0.418 64.611 0.903 -24.712 0.903 -24.712 0.418 64.611
9000 0.421 64.423 0.902 -24.905 0.902 -24.905 0.421 64.423
9050 0.424 64.237 0.901 -25.096 0.901 -25.096 0.424 64.237
9100 0.427 64.051 0.899 -25.287 0.899 -25.287 0.427 64.051
9150 0.43 63.867 0.898 -25.477 0.898 -25.477 0.43 63.867
9200 0.433 63.683 0.896 -25.666 0.896 -25.666 0.433 63.683
9250 0.436 63.5 0.895 -25.854 0.895 -25.854 0.436 63.5
9300 0.439 63.318 0.894 -26.041 0.894 -26.041 0.439 63.318
9350 0.442 63.137 0.892 -26.227 0.892 -26.227 0.442 63.137
9400 0.445 62.957 0.891 -26.412 0.891 -26.412 0.445 62.957
9450 0.448 62.777 0.889 -26.597 0.889 -26.597 0.448 62.777
9500 0.451 62.599 0.888 -26.78 0.888 -26.78 0.451 62.599
9550 0.453 62.421 0.886 -26.962 0.886 -26.962 0.453 62.421
9600 0.456 62.244 0.885 -27.144 0.885 -27.144 0.456 62.244
9650 0.459 62.068 0.884 -27.324 0.884 -27.324 0.459 62.068
9700 0.462 61.892 0.882 -27.504 0.882 -27.504 0.462 61.892
9750 0.465 61.718 0.881 -27.683 0.881 -27.683 0.465 61.718
9800 0.467 61.544 0.879 -27.861 0.879 -27.861 0.467 61.544
9850 0.47 61.371 0.878 -28.038 0.878 -28.038 0.47 61.371
9900 0.473 61.199 0.876 -28.214 0.876 -28.214 0.473 61.199
9950 0.475 61.028 0.875 -28.389 0.875 -28.389 0.475 61.028
10000 0.478 60.857 0.873 -28.564 0.873 -28.564 0.478 60.857
10050 0.481 60.688 0.872 -28.737 0.872 -28.737 0.481 60.688
10100 0.483 60.519 0.871 -28.91 0.871 -28.91 0.483 60.519
10150 0.486 60.35 0.869 -29.082 0.869 -29.082 0.486 60.35
10200 0.489 60.183 0.868 -29.253 0.868 -29.253 0.489 60.183
10250 0.491 60.016 0.866 -29.424 0.866 -29.424 0.491 60.016
10300 0.494 59.85 0.865 -29.593 0.865 -29.593 0.494 59.85
10350 0.496 59.685 0.863 -29.762 0.863 -29.762 0.496 59.685
10400 0.499 59.521 0.862 -29.93 0.862 -29.93 0.499 59.521
10450 0.501 59.357 0.86 -30.097 0.86 -30.097 0.501 59.357
10500 0.504 59.194 0.859 -30.263 0.859 -30.263 0.504 59.194
10550 0.506 59.032 0.857 -30.429 0.857 -30.429 0.506 59.032
10600 0.509 58.871 0.856 -30.593 0.856 -30.593 0.509 58.871
10650 0.511 58.71 0.855 -30.757 0.855 -30.757 0.511 58.71
10700 0.514 58.55 0.853 -30.92 0.853 -30.92 0.514 58.55
10750 0.516 58.391 0.852 -31.083 0.852 -31.083 0.516 58.391
10800 0.519 58.232 0.85 -31.245 0.85 -31.245 0.519 58.232
10850 0.521 58.074 0.849 -31.405 0.849 -31.405 0.521 58.074
10900 0.523 57.917 0.847 -31.566 0.847 -31.566 0.523 57.917
10950 0.526 57.76 0.846 -31.725 0.846 -31.725 0.526 57.76
11000 0.528 57.605 0.844 -31.884 0.844 -31.884 0.528 57.605
11050 0.531 57.45 0.843 -32.042 0.843 -32.042 0.531 57.45
11100 0.533 57.295 0.841 -32.199 0.841 -32.199 0.533 57.295
11150 0.535 57.142 0.84 -32.355 0.84 -32.355 0.535 57.142
11200 0.537 56.989 0.839 -32.511 0.839 -32.511 0.537 56.989
11250 0.54 56.836 0.837 -32.666 0.837 -32.666 0.54 56.836
11300 0.542 56.685 0.836 -32.82 0.836 -32.82 0.542 56.685
11350 0.544 56.534 0.834 -32.974 0.834 -32.974 0.544 56.534
11400 0.547 56.383 0.833 -33.127 0.833 -33.127 0.547 56.383
11450 0.549 56.234 0.831 -33.279 0.831 -33.279 0.549 56.234
11500 0.551 56.085 0.83 -33.431 0.83 -33.431 0.551 56.085
11550 0.553 55.936 0.828 -33.582 0.828 -33.582 0.553 55.936
11600 0.555 55.789 0.827 -33.732 0.827 -33.732 0.555 55.789
11650 0.557 55.642 0.826 -33.881 0.826 -33.881 0.557 55.642
11700 0.56 55.495 0.824 -34.03 0.824 -34.03 0.56 55.495
11750 0.562 55.349 0.823 -34.178 0.823 -34.178 0.562 55.349
11800 0.564 55.204 0.821 -34.326 0.821 -34.326 0.564 55.204
11850 0.566 55.06 0.82 -34.473 0.82 -34.473 0.566 55.06
11900 0.568 54.916 0.818 -34.619 0.818 -34.619 0.568 54.916
11950 0.57 54.773 0.817 -34.764 0.817 -34.764 0.57 54.773
12000 0.572 54.63 0.815 -34.909 0.815 -34.909 0.572 54.63
12050 0.574 54.488 0.814 -35.053 0.814 -35.053 0.574 54.488
12100 0.576 54.347 0.813 -35.197 0.813 -35.197 0.576 54.347
12150 0.578 54.206 0.811 -35.34 0.811 -35.34 0.578 54.206
12200 0.58 54.066 0.81 -35.482 0.81 -35.482 0.58 54.066
12250 0.582 53.926 0.808 -35.624 0.808 -35.624 0.582 53.926
12300 0.584 53.787 0.807 -35.765 0.807 -35.765 0.584 53.787
12350 0.586 53.649 0.805 -35.905 0.805 -35.905 0.586 53.649
12400 0.588 53.511 0.804 -36.045 0.804 -36.045 0.588 53.511
12450 0.59 53.374 0.803 -36.184 0.803 -36.184 0.59 53.374
12500 0.592 53.238 0.801 -36.323 0.801 -36.323 0.592 53.238
12550 0.594 53.102 0.8 -36.461 0.8 -36.461 0.594 53.102
12600 0.596 52.966 0.798 -36.598 0.798 -36.598 0.596 52.966
12650 0.598 52.831 0.797 -36.735 0.797 -36.735 0.598 52.831
12700 0.6 52.697 0.795 -36.871 0.795 -36.871 0.6 52.697
12750 0.602 52.563 0.794 -37.007 0.794 -37.007 0.602 52.563
12800 0.604 52.43 0.793 -37.142 0.793 -37.142 0.604 52.43
12850 0.606 52.298 0.791 -37.276 0.791 -37.276 0.606 52.298
12900 0.608 52.166 0.79 -37.41 0.79 -37.41 0.608 52.166
12950 0.609 52.034 0.788 -37.543 0.788 -37.543 0.609 52.034
13000 0.611 51.904 0.787 -37.676 0.787 -37.676 0.611 51.904
13050 0.613 51.773 0.786 -37.808 0.786 -37.808 0.613 51.773
13100 0.615 51.644 0.784 -37.939 0.784 -37.939 0.615 51.644
13150 0.617 51.514 0.783 -38.07 0.783 -38.07 0.617 51.514
13200 0.618 51.386 0.781 -38.201 0.781 -38.201 0.618 51.386
13250 0.62 51.258 0.78 -38.33 0.78 -38.33 0.62 51.258
13300 0.622 51.13 0.779 -38.46 0.779 -38.46 0.622 51.13
13350 0.624 51.003 0.777 -38.588 0.777 -38.588 0.624 51.003
13400 0.625 50.876 0.776 -38.717 0.776 -38.717 0.625 50.876
13450 0.627 50.75 0.774 -38.844 0.774 -38.844 0.627 50.75
13500 0.629 50.625 0.773 -38.971 0.773 -38.971 0.629 50.625
13550 0.631 50.5 0.772 -39.098 0.772 -39.098 0.631 50.5
13600 0.632 50.376 0.77 -39.224 0.77 -39.224 0.632 50.376
13650 0.634 50.252 0.769 -39.349 0.769 -39.349 0.634 50.252
13700 0.636 50.128 0.768 -39.474 0.768 -39.474 0.636 50.128
13750 0.637 50.005 0.766 -39.599 0.766 -39.599 0.637 50.005
13800 0.639 49.883 0.765 -39.723 0.765 -39.723 0.639 49.883
13850 0.641 49.761 0.763 -39.846 0.763 -39.846 0.641 49.761
13900 0.642 49.64 0.762 -39.969 0.762 -39.969 0.642 49.64
13950 0.644 49.519 0.761 -40.091 0.761 -40.091 0.644 49.519
14000 0.646 49.399 0.759 -40.213 0.759 -40.213 0.646 49.399
14050 0.647 49.279 0.758 -40.334 0.758 -40.334 0.647 49.279
14100 0.649 49.16 0.757 -40.455 0.757 -40.455 0.649 49.16
14150 0.65 49.041 0.755 -40.575 0.755 -40.575 0.65 49.041
14200 0.652 48.922 0.754 -40.695 0.754 -40.695 0.652 48.922
14250 0.654 48.804 0.752 -40.814 0.752 -40.814 0.654 48.804
14300 0.655 48.687 0.751 -40.933 0.751 -40.933 0.655 48.687
14350 0.657 48.57 0.75 -41.051 0.75 -41.051 0.657 48.57
14400 0.658 48.454 0.748 -41.169 0.748 -41.169 0.658 48.454
14450 0.66 48.338 0.747 -41.287 0.747 -41.287 0.66 48.338
14500 0.661 48.222 0.746 -41.403 0.746 -41.403 0.661 48.222
14550 0.663 48.107 0.744 -41.52 0.744 -41.52 0.663 48.107
14600 0.664 47.993 0.743 -41.636 0.743 -41.636 0.664 47.993
14650 0.666 47.879 0.742 -41.751 0.742 -41.751 0.666 47.879
14700 0.667 47.765 0.74 -41.866 0.74 -41.866 0.667 47.765
14750 0.669 47.652 0.739 -41.98 0.739 -41.98 0.669 47.652
14800 0.67 47.539 0.738 -42.094 0.738 -42.094 0.67 47.539
14850 0.672 47.427 0.736 -42.208 0.736 -42.208 0.672 47.427
14900 0.673 47.315 0.735 -42.321 0.735 -42.321 0.673 47.315
14950 0.675 47.204 0.734 -42.433 0.734 -42.433 0.675 47.204
15000 0.676 47.093 0.732 -42.545 0.732 -42.545 0.676 47.093
15050 0.678 46.983 0.731 -42.657 0.731 -42.657 0.678 46.983
15100 0.679 46.873 0.73 -42.768 0.73 -42.768 0.679 46.873
15150 0.68 46.763 0.729 -42.879 0.729 -42.879 0.68 46.763
15200 0.682 46.654 0.727 -42.989 0.727 -42.989 0.682 46.654
15250 0.683 46.545 0.726 -43.099 0.726 -43.099 0.683 46.545
15300 0.685 46.437 0.725 -43.209 0.725 -43.209 0.685 46.437
15350 0.686 46.329 0.723 -43.318 0.723 -43.318 0.686 46.329
15400 0.687 46.222 0.722 -43.426 0.722 -43.426 0.687 46.222
15450 0.689 46.115 0.721 -43.534 0.721 -43.534 0.689 46.115
15500 0.69 46.008 0.719 -43.642 0.719 -43.642 0.69 46.008
15550 0.692 45.902 0.718 -43.749 0.718 -43.749 0.692 45.902
15600 0.693 45.797 0.717 -43.856 0.717 -43.856 0.693 45.797
15650 0.694 45.692 0.716 -43.962 0.716 -43.962 0.694 45.692
15700 0.696 45.587 0.714 -44.068 0.714 -44.068 0.696 45.587
15750 0.697 45.482 0.713 -44.174 0.713 -44.174 0.697 45.482
15800 0.698 45.378 0.712 -44.279 0.712 -44.279 0.698 45.378
15850 0.699 45.275 0.711 -44.383 0.711 -44.383 0.699 45.275
15900 0.701 45.172 0.709 -44.487 0.709 -44.487 0.701 45.172
15950 0.702 45.069 0.708 -44.591 0.708 -44.591 0.702 45.069
16000 0.703 44.966 0.707 -44.695 0.707 -44.695 0.703 44.966
16050 0.705 44.864 0.705 -44.798 0.705 -44.798 0.705 44.864
16100 0.706 44.763 0.704 -44.9 0.704 -44.9 0.706 44.763
16150 0.707 44.662 0.703 -45.002 0.703 -45.002 0.707 44.662
16200 0.708 44.561 0.702 -45.104 0.702 -45.104 0.708 44.561
16250 0.71 44.461 0.7 -45.206 0.7 -45.206 0.71 44.461
16300 0.711 44.361 0.699 -45.307 0.699 -45.307 0.711 44.361
16350 0.712 44.261 0.698 -45.407 0.698 -45.407 0.712 44.261
16400 0.713 44.162 0.697 -45.507 0.697 -45.507 0.713 44.162
16450 0.715 44.063 0.695 -45.607 0.695 -45.607 0.715 44.063
16500 0.716 43.965 0.694 -45.706 0.694 -45.706 0.716 43.965
16550 0.717 43.867 0.693 -45.805 0.693 -45.805 0.717 43.867
16600 0.718 43.769 0.692 -45.904 0.692 -45.904 0.718 43.769
16650 0.719 43.672 0.691 -46.002 0.691 -46.002 0.719 43.672
16700 0.721 43.575 0.689 -46.1 0.689 -46.1 0.721 43.575
16750 0.722 43.478 0.688 -46.198 0.688 -46.198 0.722 43.478
16800 0.723 43.382 0.687 -46.295 0.687 -46.295 0.723 43.382
16850 0.724 43.286 0.686 -46.391 0.686 -46.391 0.724 43.286
16900 0.725 43.191 0.684 -46.488 0.684 -46.488 0.725 43.191
