! AVX Thin Film Operation		Date: April 2012 
! Description: Accu-P® Series, Thin Film, SMD, RF Capacitor
! Part Number: 12101J0R5PBTTR					
!	100	MHz	-	20.05	GHz			
!	Serial	Measurements						
!								
#	MHZ	S	MA	R	50			
!	S11	S21	S12	S22				
!	dB	Phase	dB	Phase	dB	Phase	dB	Phase
50 1 -0.9 0.016 89.097 0.016 89.097 1 -0.9
74.938 1 -1.349 0.024 88.647 0.024 88.647 1 -1.349
99.875 1 -1.798 0.031 88.197 0.031 88.197 1 -1.798
124.813 0.999 -2.246 0.039 87.746 0.039 87.746 0.999 -2.246
149.75 0.999 -2.695 0.047 87.296 0.047 87.296 0.999 -2.695
174.688 0.998 -3.143 0.055 86.846 0.055 86.846 0.998 -3.143
199.625 0.998 -3.591 0.063 86.397 0.063 86.397 0.998 -3.591
224.563 0.997 -4.04 0.07 85.947 0.07 85.947 0.997 -4.04
249.5 0.997 -4.487 0.078 85.498 0.078 85.498 0.997 -4.487
274.438 0.996 -4.935 0.086 85.049 0.086 85.049 0.996 -4.935
299.375 0.996 -5.383 0.094 84.6 0.094 84.6 0.996 -5.383
324.313 0.995 -5.83 0.102 84.151 0.102 84.151 0.995 -5.83
349.25 0.994 -6.277 0.109 83.702 0.109 83.702 0.994 -6.277
374.188 0.993 -6.724 0.117 83.254 0.117 83.254 0.993 -6.724
399.125 0.992 -7.17 0.125 82.806 0.125 82.806 0.992 -7.17
424.063 0.991 -7.616 0.133 82.359 0.133 82.359 0.991 -7.616
449 0.99 -8.062 0.14 81.912 0.14 81.912 0.99 -8.062
473.938 0.989 -8.507 0.148 81.465 0.148 81.465 0.989 -8.507
498.875 0.988 -8.952 0.156 81.019 0.156 81.019 0.988 -8.952
523.813 0.986 -9.396 0.163 80.573 0.163 80.573 0.986 -9.396
548.75 0.985 -9.84 0.171 80.127 0.171 80.127 0.985 -9.84
573.688 0.984 -10.284 0.179 79.682 0.179 79.682 0.984 -10.284
598.625 0.982 -10.727 0.186 79.237 0.186 79.237 0.982 -10.727
623.563 0.981 -11.17 0.194 78.793 0.194 78.793 0.981 -11.17
648.5 0.979 -11.612 0.201 78.35 0.201 78.35 0.979 -11.612
673.438 0.978 -12.053 0.209 77.907 0.209 77.907 0.978 -12.053
698.375 0.976 -12.494 0.216 77.464 0.216 77.464 0.976 -12.494
723.313 0.974 -12.935 0.224 77.022 0.224 77.022 0.974 -12.935
748.25 0.973 -13.375 0.231 76.581 0.231 76.581 0.973 -13.375
773.188 0.971 -13.814 0.239 76.14 0.239 76.14 0.971 -13.814
798.125 0.969 -14.253 0.246 75.7 0.246 75.7 0.969 -14.253
823.063 0.967 -14.691 0.254 75.26 0.254 75.26 0.967 -14.691
848 0.965 -15.128 0.261 74.821 0.261 74.821 0.965 -15.128
872.938 0.963 -15.565 0.268 74.383 0.268 74.383 0.963 -15.565
897.875 0.961 -16.001 0.276 73.945 0.276 73.945 0.961 -16.001
922.813 0.959 -16.436 0.283 73.508 0.283 73.508 0.959 -16.436
947.75 0.957 -16.871 0.29 73.072 0.29 73.072 0.957 -16.871
972.688 0.954 -17.305 0.297 72.637 0.297 72.637 0.954 -17.305
997.625 0.952 -17.738 0.305 72.202 0.305 72.202 0.952 -17.738
1022.563 0.95 -18.17 0.312 71.768 0.312 71.768 0.95 -18.17
1047.5 0.947 -18.602 0.319 71.335 0.319 71.335 0.947 -18.602
1072.438 0.945 -19.032 0.326 70.903 0.326 70.903 0.945 -19.032
1097.375 0.942 -19.462 0.333 70.471 0.333 70.471 0.942 -19.462
1122.313 0.94 -19.891 0.34 70.041 0.34 70.041 0.94 -19.891
1147.25 0.937 -20.32 0.347 69.611 0.347 69.611 0.937 -20.32
1172.188 0.935 -20.747 0.354 69.182 0.354 69.182 0.935 -20.747
1197.125 0.932 -21.173 0.361 68.754 0.361 68.754 0.932 -21.173
1222.063 0.929 -21.599 0.368 68.327 0.368 68.327 0.929 -21.599
1247 0.927 -22.024 0.375 67.9 0.375 67.9 0.927 -22.024
1271.938 0.924 -22.447 0.382 67.475 0.382 67.475 0.924 -22.447
1296.875 0.921 -22.87 0.389 67.051 0.389 67.051 0.921 -22.87
1321.813 0.918 -23.292 0.395 66.627 0.395 66.627 0.918 -23.292
1346.75 0.915 -23.713 0.402 66.205 0.402 66.205 0.915 -23.713
1371.688 0.912 -24.133 0.409 65.783 0.409 65.783 0.912 -24.133
1396.625 0.909 -24.552 0.416 65.362 0.416 65.362 0.909 -24.552
1421.563 0.906 -24.97 0.422 64.943 0.422 64.943 0.906 -24.97
1446.5 0.903 -25.387 0.429 64.524 0.429 64.524 0.903 -25.387
1471.438 0.9 -25.803 0.435 64.106 0.435 64.106 0.9 -25.803
1496.375 0.896 -26.218 0.442 63.69 0.442 63.69 0.896 -26.218
1521.313 0.893 -26.632 0.448 63.274 0.448 63.274 0.893 -26.632
1546.25 0.89 -27.044 0.455 62.86 0.455 62.86 0.89 -27.044
1571.188 0.887 -27.456 0.461 62.446 0.461 62.446 0.887 -27.456
1596.125 0.883 -27.867 0.467 62.034 0.467 62.034 0.883 -27.867
1621.063 0.88 -28.276 0.474 61.623 0.474 61.623 0.88 -28.276
1646 0.876 -28.685 0.48 61.212 0.48 61.212 0.876 -28.685
1670.938 0.873 -29.092 0.486 60.803 0.486 60.803 0.873 -29.092
1695.875 0.869 -29.499 0.492 60.395 0.492 60.395 0.869 -29.499
1720.813 0.866 -29.904 0.499 59.988 0.499 59.988 0.866 -29.904
1745.75 0.862 -30.308 0.505 59.582 0.505 59.582 0.862 -30.308
1770.688 0.859 -30.711 0.511 59.178 0.511 59.178 0.859 -30.711
1795.625 0.855 -31.112 0.517 58.774 0.517 58.774 0.855 -31.112
1820.563 0.851 -31.513 0.523 58.372 0.523 58.372 0.851 -31.513
1845.5 0.848 -31.912 0.529 57.971 0.529 57.971 0.848 -31.912
1870.438 0.844 -32.311 0.535 57.571 0.535 57.571 0.844 -32.311
1895.375 0.84 -32.708 0.54 57.172 0.54 57.172 0.84 -32.708
1920.313 0.837 -33.104 0.546 56.774 0.546 56.774 0.837 -33.104
1945.25 0.833 -33.498 0.552 56.377 0.552 56.377 0.833 -33.498
1970.188 0.829 -33.892 0.558 55.982 0.558 55.982 0.829 -33.892
1995.125 0.825 -34.284 0.563 55.588 0.563 55.588 0.825 -34.284
2020.063 0.821 -34.675 0.569 55.195 0.569 55.195 0.821 -34.675
2045 0.817 -35.065 0.575 54.803 0.575 54.803 0.817 -35.065
2069.938 0.813 -35.454 0.58 54.413 0.58 54.413 0.813 -35.454
2094.875 0.809 -35.841 0.586 54.023 0.586 54.023 0.809 -35.841
2119.813 0.805 -36.227 0.591 53.635 0.591 53.635 0.805 -36.227
2144.75 0.801 -36.612 0.596 53.248 0.596 53.248 0.801 -36.612
2169.688 0.797 -36.996 0.602 52.863 0.602 52.863 0.797 -36.996
2194.625 0.793 -37.378 0.607 52.478 0.607 52.478 0.793 -37.378
2219.563 0.789 -37.759 0.612 52.095 0.612 52.095 0.789 -37.759
2244.5 0.785 -38.139 0.618 51.713 0.618 51.713 0.785 -38.139
2269.438 0.781 -38.518 0.623 51.332 0.623 51.332 0.781 -38.518
2294.375 0.777 -38.895 0.628 50.953 0.628 50.953 0.777 -38.895
2319.313 0.772 -39.272 0.633 50.575 0.633 50.575 0.772 -39.272
2344.25 0.768 -39.646 0.638 50.198 0.638 50.198 0.768 -39.646
2369.188 0.764 -40.02 0.643 49.822 0.643 49.822 0.764 -40.02
2394.125 0.76 -40.392 0.648 49.448 0.648 49.448 0.76 -40.392
2419.063 0.756 -40.763 0.653 49.075 0.653 49.075 0.756 -40.763
2444 0.751 -41.133 0.658 48.703 0.658 48.703 0.751 -41.133
2468.938 0.747 -41.502 0.663 48.332 0.663 48.332 0.747 -41.502
2493.875 0.743 -41.869 0.667 47.963 0.667 47.963 0.743 -41.869
2518.813 0.738 -42.235 0.672 47.595 0.672 47.595 0.738 -42.235
2543.75 0.734 -42.599 0.677 47.228 0.677 47.228 0.734 -42.599
2568.688 0.73 -42.962 0.682 46.862 0.682 46.862 0.73 -42.962
2593.625 0.725 -43.324 0.686 46.498 0.686 46.498 0.725 -43.324
2618.563 0.721 -43.685 0.691 46.135 0.691 46.135 0.721 -43.685
2643.5 0.717 -44.045 0.695 45.774 0.695 45.774 0.717 -44.045
2668.438 0.712 -44.403 0.7 45.413 0.7 45.413 0.712 -44.403
2693.375 0.708 -44.759 0.704 45.054 0.704 45.054 0.708 -44.759
2718.313 0.703 -45.115 0.709 44.696 0.709 44.696 0.703 -45.115
2743.25 0.699 -45.469 0.713 44.34 0.713 44.34 0.699 -45.469
2768.188 0.694 -45.822 0.717 43.984 0.717 43.984 0.694 -45.822
2793.125 0.69 -46.174 0.721 43.63 0.721 43.63 0.69 -46.174
2818.063 0.686 -46.524 0.726 43.278 0.726 43.278 0.686 -46.524
2843 0.681 -46.873 0.73 42.926 0.73 42.926 0.681 -46.873
2867.938 0.677 -47.221 0.734 42.576 0.734 42.576 0.677 -47.221
2892.875 0.672 -47.567 0.738 42.227 0.738 42.227 0.672 -47.567
2917.813 0.668 -47.912 0.742 41.88 0.742 41.88 0.668 -47.912
2942.75 0.663 -48.256 0.746 41.533 0.746 41.533 0.663 -48.256
2967.688 0.659 -48.598 0.75 41.188 0.75 41.188 0.659 -48.598
2992.625 0.654 -48.939 0.754 40.844 0.754 40.844 0.654 -48.939
3017.563 0.649 -49.279 0.758 40.502 0.758 40.502 0.649 -49.279
3042.5 0.645 -49.618 0.762 40.161 0.762 40.161 0.645 -49.618
3067.438 0.64 -49.955 0.766 39.821 0.766 39.821 0.64 -49.955
3092.375 0.636 -50.291 0.769 39.482 0.769 39.482 0.636 -50.291
3117.313 0.631 -50.626 0.773 39.145 0.773 39.145 0.631 -50.626
3142.25 0.627 -50.959 0.777 38.809 0.777 38.809 0.627 -50.959
3167.188 0.622 -51.291 0.78 38.474 0.78 38.474 0.622 -51.291
3192.125 0.618 -51.622 0.784 38.14 0.784 38.14 0.618 -51.622
3217.063 0.613 -51.951 0.787 37.808 0.787 37.808 0.613 -51.951
3242 0.608 -52.28 0.791 37.477 0.791 37.477 0.608 -52.28
3266.938 0.604 -52.607 0.794 37.147 0.794 37.147 0.604 -52.607
3291.875 0.599 -52.932 0.798 36.818 0.798 36.818 0.599 -52.932
3316.813 0.595 -53.257 0.801 36.491 0.801 36.491 0.595 -53.257
3341.75 0.59 -53.58 0.805 36.165 0.805 36.165 0.59 -53.58
3366.688 0.586 -53.901 0.808 35.84 0.808 35.84 0.586 -53.901
3391.625 0.581 -54.222 0.811 35.516 0.811 35.516 0.581 -54.222
3416.563 0.576 -54.541 0.815 35.194 0.815 35.194 0.576 -54.541
3441.5 0.572 -54.859 0.818 34.873 0.818 34.873 0.572 -54.859
3466.438 0.567 -55.176 0.821 34.553 0.821 34.553 0.567 -55.176
3491.375 0.563 -55.491 0.824 34.234 0.824 34.234 0.563 -55.491
3516.313 0.558 -55.805 0.827 33.917 0.827 33.917 0.558 -55.805
3541.25 0.553 -56.118 0.83 33.601 0.83 33.601 0.553 -56.118
3566.188 0.549 -56.43 0.833 33.286 0.833 33.286 0.549 -56.43
3591.125 0.544 -56.74 0.836 32.972 0.836 32.972 0.544 -56.74
3616.063 0.54 -57.049 0.839 32.66 0.839 32.66 0.54 -57.049
3641 0.535 -57.357 0.842 32.348 0.842 32.348 0.535 -57.357
3665.938 0.53 -57.663 0.845 32.038 0.845 32.038 0.53 -57.663
3690.875 0.526 -57.969 0.848 31.729 0.848 31.729 0.526 -57.969
3715.813 0.521 -58.273 0.851 31.421 0.851 31.421 0.521 -58.273
3740.75 0.517 -58.576 0.853 31.115 0.853 31.115 0.517 -58.576
3765.688 0.512 -58.877 0.856 30.81 0.856 30.81 0.512 -58.877
3790.625 0.508 -59.177 0.859 30.505 0.859 30.505 0.508 -59.177
3815.563 0.503 -59.477 0.861 30.203 0.861 30.203 0.503 -59.477
3840.5 0.499 -59.774 0.864 29.901 0.864 29.901 0.499 -59.774
3865.438 0.494 -60.071 0.867 29.6 0.867 29.6 0.494 -60.071
3890.375 0.489 -60.366 0.869 29.301 0.869 29.301 0.489 -60.366
3915.313 0.485 -60.66 0.872 29.003 0.872 29.003 0.485 -60.66
3940.25 0.48 -60.953 0.874 28.705 0.874 28.705 0.48 -60.953
3965.188 0.476 -61.245 0.877 28.41 0.877 28.41 0.476 -61.245
3990.125 0.471 -61.536 0.879 28.115 0.879 28.115 0.471 -61.536
4015.063 0.467 -61.825 0.882 27.821 0.882 27.821 0.467 -61.825
4040 0.462 -62.113 0.884 27.529 0.884 27.529 0.462 -62.113
4064.938 0.458 -62.4 0.886 27.237 0.886 27.237 0.458 -62.4
4089.875 0.453 -62.685 0.889 26.947 0.889 26.947 0.453 -62.685
4114.813 0.449 -62.97 0.891 26.658 0.891 26.658 0.449 -62.97
4139.75 0.444 -63.253 0.893 26.37 0.893 26.37 0.444 -63.253
4164.688 0.44 -63.535 0.895 26.084 0.895 26.084 0.44 -63.535
4189.625 0.435 -63.815 0.897 25.798 0.897 25.798 0.435 -63.815
4214.563 0.431 -64.095 0.9 25.514 0.9 25.514 0.431 -64.095
4239.5 0.426 -64.373 0.902 25.23 0.902 25.23 0.426 -64.373
4264.438 0.422 -64.651 0.904 24.948 0.904 24.948 0.422 -64.651
4289.375 0.417 -64.927 0.906 24.667 0.906 24.667 0.417 -64.927
4314.313 0.413 -65.201 0.908 24.387 0.908 24.387 0.413 -65.201
4339.25 0.408 -65.475 0.91 24.108 0.91 24.108 0.408 -65.475
4364.188 0.404 -65.747 0.912 23.83 0.912 23.83 0.404 -65.747
4389.125 0.4 -66.018 0.914 23.553 0.914 23.553 0.4 -66.018
4414.063 0.395 -66.288 0.916 23.277 0.916 23.277 0.395 -66.288
4439 0.391 -66.557 0.917 23.003 0.917 23.003 0.391 -66.557
4463.938 0.386 -66.825 0.919 22.729 0.919 22.729 0.386 -66.825
4488.875 0.382 -67.091 0.921 22.457 0.921 22.457 0.382 -67.091
4513.813 0.378 -67.357 0.923 22.185 0.923 22.185 0.378 -67.357
4538.75 0.373 -67.621 0.925 21.915 0.925 21.915 0.373 -67.621
4563.688 0.369 -67.884 0.926 21.646 0.926 21.646 0.369 -67.884
4588.625 0.365 -68.145 0.928 21.378 0.928 21.378 0.365 -68.145
4613.563 0.36 -68.406 0.93 21.11 0.93 21.11 0.36 -68.406
4638.5 0.356 -68.665 0.932 20.844 0.932 20.844 0.356 -68.665
4663.438 0.352 -68.923 0.933 20.579 0.933 20.579 0.352 -68.923
4688.375 0.347 -69.18 0.935 20.315 0.935 20.315 0.347 -69.18
4713.313 0.343 -69.436 0.936 20.052 0.936 20.052 0.343 -69.436
4738.25 0.339 -69.691 0.938 19.79 0.938 19.79 0.339 -69.691
4763.188 0.334 -69.944 0.939 19.529 0.939 19.529 0.334 -69.944
4788.125 0.33 -70.196 0.941 19.269 0.941 19.269 0.33 -70.196
4813.063 0.326 -70.448 0.942 19.01 0.942 19.01 0.326 -70.448
4838 0.321 -70.697 0.944 18.752 0.944 18.752 0.321 -70.697
4862.938 0.317 -70.946 0.945 18.495 0.945 18.495 0.317 -70.946
4887.875 0.313 -71.194 0.947 18.24 0.947 18.24 0.313 -71.194
4912.813 0.309 -71.44 0.948 17.985 0.948 17.985 0.309 -71.44
4937.75 0.305 -71.685 0.949 17.731 0.949 17.731 0.305 -71.685
4962.688 0.3 -71.929 0.951 17.478 0.951 17.478 0.3 -71.929
4987.625 0.296 -72.172 0.952 17.226 0.952 17.226 0.296 -72.172
5012.563 0.292 -72.413 0.953 16.975 0.953 16.975 0.292 -72.413
5037.5 0.288 -72.654 0.955 16.725 0.955 16.725 0.288 -72.654
5062.438 0.284 -72.893 0.956 16.476 0.956 16.476 0.284 -72.893
5087.375 0.279 -73.131 0.957 16.228 0.957 16.228 0.279 -73.131
5112.313 0.275 -73.367 0.958 15.981 0.958 15.981 0.275 -73.367
5137.25 0.271 -73.603 0.959 15.734 0.959 15.734 0.271 -73.603
5162.188 0.267 -73.837 0.961 15.489 0.961 15.489 0.267 -73.837
5187.125 0.263 -74.07 0.962 15.245 0.962 15.245 0.263 -74.07
5212.063 0.259 -74.301 0.963 15.002 0.963 15.002 0.259 -74.301
5237 0.255 -74.532 0.964 14.759 0.964 14.759 0.255 -74.532
5261.938 0.251 -74.761 0.965 14.518 0.965 14.518 0.251 -74.761
5286.875 0.247 -74.989 0.966 14.277 0.966 14.277 0.247 -74.989
5311.813 0.243 -75.215 0.967 14.038 0.967 14.038 0.243 -75.215
5336.75 0.239 -75.44 0.968 13.799 0.968 13.799 0.239 -75.44
5361.688 0.235 -75.664 0.969 13.561 0.969 13.561 0.235 -75.664
5386.625 0.23 -75.887 0.97 13.324 0.97 13.324 0.23 -75.887
5411.563 0.226 -76.108 0.971 13.089 0.971 13.089 0.226 -76.108
5436.5 0.222 -76.328 0.972 12.854 0.972 12.854 0.222 -76.328
5461.438 0.218 -76.546 0.973 12.619 0.973 12.619 0.218 -76.546
5486.375 0.215 -76.763 0.974 12.386 0.974 12.386 0.215 -76.763
5511.313 0.211 -76.979 0.974 12.154 0.974 12.154 0.211 -76.979
5536.25 0.207 -77.193 0.975 11.922 0.975 11.922 0.207 -77.193
5561.188 0.203 -77.406 0.976 11.692 0.976 11.692 0.203 -77.406
5586.125 0.199 -77.617 0.977 11.462 0.977 11.462 0.199 -77.617
5611.063 0.195 -77.826 0.978 11.233 0.978 11.233 0.195 -77.826
5636 0.191 -78.034 0.978 11.005 0.978 11.005 0.191 -78.034
5660.938 0.187 -78.241 0.979 10.778 0.979 10.778 0.187 -78.241
5685.875 0.183 -78.445 0.98 10.552 0.98 10.552 0.183 -78.445
5710.813 0.179 -78.648 0.981 10.327 0.981 10.327 0.179 -78.648
5735.75 0.175 -78.85 0.981 10.102 0.981 10.102 0.175 -78.85
5760.688 0.172 -79.049 0.982 9.878 0.982 9.878 0.172 -79.049
5785.625 0.168 -79.247 0.983 9.656 0.983 9.656 0.168 -79.247
5810.563 0.164 -79.442 0.983 9.434 0.983 9.434 0.164 -79.442
5835.5 0.16 -79.636 0.984 9.213 0.984 9.213 0.16 -79.636
5860.438 0.156 -79.828 0.984 8.992 0.984 8.992 0.156 -79.828
5885.375 0.153 -80.017 0.985 8.773 0.985 8.773 0.153 -80.017
5910.313 0.149 -80.204 0.986 8.554 0.986 8.554 0.149 -80.204
5935.25 0.145 -80.389 0.986 8.336 0.986 8.336 0.145 -80.389
5960.188 0.141 -80.572 0.987 8.119 0.987 8.119 0.141 -80.572
5985.125 0.138 -80.752 0.987 7.903 0.987 7.903 0.138 -80.752
6010.063 0.134 -80.929 0.988 7.688 0.988 7.688 0.134 -80.929
6035 0.13 -81.103 0.988 7.473 0.988 7.473 0.13 -81.103
6059.938 0.126 -81.275 0.989 7.259 0.989 7.259 0.126 -81.275
6084.875 0.123 -81.443 0.989 7.046 0.989 7.046 0.123 -81.443
6109.813 0.119 -81.608 0.99 6.834 0.99 6.834 0.119 -81.608
6134.75 0.115 -81.769 0.99 6.623 0.99 6.623 0.115 -81.769
6159.688 0.112 -81.926 0.991 6.412 0.991 6.412 0.112 -81.926
6184.625 0.108 -82.079 0.991 6.202 0.991 6.202 0.108 -82.079
6209.563 0.104 -82.228 0.991 5.993 0.991 5.993 0.104 -82.228
6234.5 0.101 -82.372 0.992 5.785 0.992 5.785 0.101 -82.372
6259.438 0.097 -82.511 0.992 5.577 0.992 5.577 0.097 -82.511
6284.375 0.094 -82.643 0.992 5.37 0.992 5.37 0.094 -82.643
6309.313 0.09 -82.77 0.993 5.165 0.993 5.165 0.09 -82.77
6334.25 0.087 -82.889 0.993 4.959 0.993 4.959 0.087 -82.889
6359.188 0.083 -83.001 0.993 4.755 0.993 4.755 0.083 -83.001
6384.125 0.079 -83.103 0.994 4.551 0.994 4.551 0.079 -83.103
6409.063 0.076 -83.197 0.994 4.348 0.994 4.348 0.076 -83.197
6434 0.072 -83.279 0.994 4.146 0.994 4.146 0.072 -83.279
6458.938 0.069 -83.348 0.994 3.944 0.994 3.944 0.069 -83.348
6483.875 0.065 -83.404 0.995 3.744 0.995 3.744 0.065 -83.404
6508.813 0.062 -83.443 0.995 3.544 0.995 3.544 0.062 -83.443
6533.75 0.058 -83.462 0.995 3.344 0.995 3.344 0.058 -83.462
6558.688 0.055 -83.459 0.995 3.146 0.995 3.146 0.055 -83.459
6583.625 0.052 -83.43 0.995 2.948 0.995 2.948 0.052 -83.43
6608.563 0.048 -83.367 0.996 2.751 0.996 2.751 0.048 -83.367
6633.5 0.045 -83.266 0.996 2.554 0.996 2.554 0.045 -83.266
6658.438 0.041 -83.116 0.996 2.359 0.996 2.359 0.041 -83.116
6683.375 0.038 -82.904 0.996 2.164 0.996 2.164 0.038 -82.904
6708.313 0.035 -82.615 0.996 1.97 0.996 1.97 0.035 -82.615
6733.25 0.031 -82.221 0.996 1.776 0.996 1.776 0.031 -82.221
6758.188 0.028 -81.689 0.996 1.583 0.996 1.583 0.028 -81.689
6783.125 0.024 -80.961 0.996 1.391 0.996 1.391 0.024 -80.961
6808.063 0.021 -79.95 0.997 1.199 0.997 1.199 0.021 -79.95
6833 0.018 -78.5 0.997 1.009 0.997 1.009 0.018 -78.5
6857.938 0.015 -76.327 0.997 0.819 0.997 0.819 0.015 -76.327
6882.875 0.011 -72.834 0.997 0.629 0.997 0.629 0.011 -72.834
6907.813 8.349e-3 -66.574 0.997 0.44 0.997 0.44 8.349e-3 -66.574
6932.75 5.479e-3 -53.234 0.997 0.252 0.997 0.252 5.479e-3 -53.234
6957.688 3.452e-3 -19.1 0.997 0.065 0.997 0.065 3.452e-3 -19.1
6982.625 3.892e-3 32.984 0.997 -0.122 0.997 -0.122 3.892e-3 32.984
7007.563 6.285e-3 58.444 0.997 -0.308 0.997 -0.308 6.285e-3 58.444
7032.5 9.205e-3 68.765 0.997 -0.493 0.997 -0.493 9.205e-3 68.765
7057.438 0.012 73.918 0.997 -0.678 0.997 -0.678 0.012 73.918
7082.375 0.015 76.912 0.997 -0.862 0.997 -0.862 0.015 76.912
7107.313 0.019 78.825 0.997 -1.045 0.997 -1.045 0.019 78.825
7132.25 0.022 80.125 0.997 -1.228 0.997 -1.228 0.022 80.125
7157.188 0.025 81.046 0.996 -1.41 0.996 -1.41 0.025 81.046
7182.125 0.028 81.717 0.996 -1.592 0.996 -1.592 0.028 81.717
7207.063 0.031 82.214 0.996 -1.773 0.996 -1.773 0.031 82.214
7232 0.034 82.585 0.996 -1.953 0.996 -1.953 0.034 82.585
7256.938 0.037 82.864 0.996 -2.132 0.996 -2.132 0.037 82.864
7281.875 0.04 83.071 0.996 -2.311 0.996 -2.311 0.04 83.071
7306.813 0.044 83.222 0.996 -2.49 0.996 -2.49 0.044 83.222
7331.75 0.047 83.33 0.996 -2.667 0.996 -2.667 0.047 83.33
7356.688 0.05 83.401 0.996 -2.844 0.996 -2.844 0.05 83.401
7381.625 0.053 83.444 0.995 -3.021 0.995 -3.021 0.053 83.444
7406.563 0.056 83.462 0.995 -3.197 0.995 -3.197 0.056 83.462
7431.5 0.059 83.461 0.995 -3.372 0.995 -3.372 0.059 83.461
7456.438 0.062 83.442 0.995 -3.546 0.995 -3.546 0.062 83.442
7481.375 0.065 83.409 0.995 -3.72 0.995 -3.72 0.065 83.409
7506.313 0.068 83.364 0.994 -3.894 0.994 -3.894 0.068 83.364
7531.25 0.071 83.308 0.994 -4.066 0.994 -4.066 0.071 83.308
7556.188 0.074 83.243 0.994 -4.239 0.994 -4.239 0.074 83.243
7581.125 0.077 83.169 0.994 -4.41 0.994 -4.41 0.077 83.169
7606.063 0.08 83.089 0.994 -4.581 0.994 -4.581 0.08 83.089
7631 0.083 83.002 0.993 -4.752 0.993 -4.752 0.083 83.002
7655.938 0.086 82.91 0.993 -4.921 0.993 -4.921 0.086 82.91
7680.875 0.089 82.813 0.993 -5.091 0.993 -5.091 0.089 82.813
7705.813 0.092 82.712 0.993 -5.259 0.993 -5.259 0.092 82.712
7730.75 0.095 82.607 0.992 -5.427 0.992 -5.427 0.095 82.607
7755.688 0.098 82.499 0.992 -5.595 0.992 -5.595 0.098 82.499
7780.625 0.1 82.388 0.992 -5.762 0.992 -5.762 0.1 82.388
7805.563 0.103 82.274 0.991 -5.928 0.991 -5.928 0.103 82.274
7830.5 0.106 82.157 0.991 -6.094 0.991 -6.094 0.106 82.157
7855.438 0.109 82.039 0.991 -6.259 0.991 -6.259 0.109 82.039
7880.375 0.112 81.918 0.99 -6.423 0.99 -6.423 0.112 81.918
7905.313 0.115 81.795 0.99 -6.587 0.99 -6.587 0.115 81.795
7930.25 0.118 81.671 0.99 -6.751 0.99 -6.751 0.118 81.671
7955.188 0.12 81.546 0.989 -6.914 0.989 -6.914 0.12 81.546
7980.125 0.123 81.419 0.989 -7.076 0.989 -7.076 0.123 81.419
8005.063 0.126 81.291 0.989 -7.238 0.989 -7.238 0.126 81.291
8030 0.129 81.163 0.988 -7.399 0.988 -7.399 0.129 81.163
8054.938 0.132 81.033 0.988 -7.56 0.988 -7.56 0.132 81.033
8079.875 0.134 80.902 0.988 -7.72 0.988 -7.72 0.134 80.902
