! AVX Thin Film Operation		Date: April 2012 
! Description: Accu-P® Series, Thin Film, SMD, RF Capacitor
! Part Number: 12101J2R3QBTTR					
!	100	MHz	-	20.05	GHz			
!	Serial	Measurements						
!								
#	MHZ	S	MA	R	50			
!	S11	S21	S12	S22				
!	dB	Phase	dB	Phase	dB	Phase	dB	Phase
50 0.997 -4.133 0.072 85.792 0.072 85.792 0.997 -4.133
100 0.989 -8.229 0.143 81.68 0.143 81.68 0.989 -8.229
150 0.977 -12.252 0.212 77.64 0.212 77.64 0.977 -12.252
200 0.96 -16.17 0.278 73.704 0.278 73.704 0.96 -16.17
250 0.939 -19.958 0.341 69.898 0.341 69.898 0.939 -19.958
300 0.915 -23.596 0.4 66.243 0.4 66.243 0.915 -23.596
350 0.889 -27.069 0.455 62.752 0.455 62.752 0.889 -27.069
400 0.861 -30.369 0.506 59.435 0.506 59.435 0.861 -30.369
450 0.832 -33.491 0.552 56.294 0.552 56.294 0.832 -33.491
500 0.802 -36.436 0.594 53.33 0.594 53.33 0.802 -36.436
550 0.772 -39.209 0.632 50.538 0.632 50.538 0.772 -39.209
600 0.742 -41.814 0.667 47.914 0.667 47.914 0.742 -41.814
650 0.713 -44.26 0.698 45.448 0.698 45.448 0.713 -44.26
700 0.684 -46.556 0.726 43.132 0.726 43.132 0.684 -46.556
750 0.656 -48.709 0.751 40.958 0.751 40.958 0.656 -48.709
800 0.628 -50.731 0.774 38.915 0.774 38.915 0.628 -50.731
850 0.602 -52.629 0.795 36.995 0.795 36.995 0.602 -52.629
900 0.576 -54.414 0.813 35.188 0.813 35.188 0.576 -54.414
950 0.552 -56.093 0.83 33.486 0.83 33.486 0.552 -56.093
1000 0.528 -57.675 0.845 31.881 0.845 31.881 0.528 -57.675
1050 0.506 -59.166 0.859 30.365 0.859 30.365 0.506 -59.166
1100 0.484 -60.574 0.871 28.931 0.871 28.931 0.484 -60.574
1150 0.463 -61.906 0.882 27.573 0.882 27.573 0.463 -61.906
1200 0.443 -63.166 0.892 26.286 0.892 26.286 0.443 -63.166
1250 0.424 -64.361 0.902 25.063 0.902 25.063 0.424 -64.361
1300 0.405 -65.494 0.91 23.899 0.91 23.899 0.405 -65.494
1350 0.387 -66.572 0.918 22.791 0.918 22.791 0.387 -66.572
1400 0.37 -67.597 0.925 21.734 0.925 21.734 0.37 -67.597
1450 0.354 -68.573 0.931 20.723 0.931 20.723 0.354 -68.573
1500 0.338 -69.504 0.937 19.757 0.937 19.757 0.338 -69.504
1550 0.323 -70.393 0.942 18.831 0.942 18.831 0.323 -70.393
1600 0.308 -71.242 0.947 17.943 0.947 17.943 0.308 -71.242
1650 0.294 -72.053 0.951 17.089 0.951 17.089 0.294 -72.053
1700 0.28 -72.83 0.956 16.269 0.956 16.269 0.28 -72.83
1750 0.267 -73.573 0.959 15.478 0.959 15.478 0.267 -73.573
1800 0.254 -74.285 0.963 14.717 0.963 14.717 0.254 -74.285
1850 0.242 -74.967 0.966 13.981 0.966 13.981 0.242 -74.967
1900 0.23 -75.621 0.969 13.271 0.969 13.271 0.23 -75.621
1950 0.218 -76.247 0.972 12.583 0.972 12.583 0.218 -76.247
2000 0.207 -76.847 0.974 11.918 0.974 11.918 0.207 -76.847
2050 0.196 -77.421 0.976 11.273 0.976 11.273 0.196 -77.421
2100 0.185 -77.969 0.978 10.647 0.978 10.647 0.185 -77.969
2150 0.174 -78.493 0.98 10.039 0.98 10.039 0.174 -78.493
2200 0.164 -78.991 0.982 9.448 0.982 9.448 0.164 -78.991
2250 0.154 -79.464 0.984 8.873 0.984 8.873 0.154 -79.464
2300 0.145 -79.912 0.985 8.314 0.985 8.314 0.145 -79.912
2350 0.135 -80.332 0.986 7.769 0.986 7.769 0.135 -80.332
2400 0.126 -80.724 0.988 7.237 0.988 7.237 0.126 -80.724
2450 0.117 -81.085 0.989 6.718 0.989 6.718 0.117 -81.085
2500 0.108 -81.412 0.99 6.212 0.99 6.212 0.108 -81.412
2550 0.1 -81.701 0.991 5.716 0.991 5.716 0.1 -81.701
2600 0.091 -81.947 0.991 5.232 0.991 5.232 0.091 -81.947
2650 0.083 -82.14 0.992 4.758 0.992 4.758 0.083 -82.14
2700 0.075 -82.269 0.993 4.294 0.993 4.294 0.075 -82.269
2750 0.067 -82.318 0.993 3.84 0.993 3.84 0.067 -82.318
2800 0.059 -82.26 0.994 3.394 0.994 3.394 0.059 -82.26
2850 0.052 -82.058 0.994 2.957 0.994 2.957 0.052 -82.058
2900 0.044 -81.646 0.995 2.529 0.995 2.529 0.044 -81.646
2950 0.037 -80.914 0.995 2.108 0.995 2.108 0.037 -80.914
3000 0.03 -79.647 0.995 1.694 0.995 1.694 0.03 -79.647
3050 0.023 -77.382 0.995 1.288 0.995 1.288 0.023 -77.382
3100 0.016 -72.911 0.995 0.888 0.995 0.888 0.016 -72.911
3150 9.741e-3 -61.971 0.995 0.495 0.995 0.495 9.741e-3 -61.971
3200 4.882e-3 -22.625 0.995 0.108 0.995 0.108 4.882e-3 -22.625
3250 6.552e-3 46.312 0.995 -0.273 0.995 -0.273 6.552e-3 46.312
3300 0.012 67.633 0.995 -0.648 0.995 -0.648 0.012 67.633
3350 0.018 74.75 0.995 -1.017 0.995 -1.017 0.018 74.75
3400 0.025 78.039 0.995 -1.381 0.995 -1.381 0.025 78.039
3450 0.031 79.827 0.995 -1.74 0.995 -1.74 0.031 79.827
3500 0.037 80.884 0.995 -2.094 0.995 -2.094 0.037 80.884
3550 0.043 81.53 0.995 -2.444 0.995 -2.444 0.043 81.53
3600 0.049 81.926 0.994 -2.788 0.994 -2.788 0.049 81.926
3650 0.055 82.158 0.994 -3.129 0.994 -3.129 0.055 82.158
3700 0.061 82.278 0.994 -3.465 0.994 -3.465 0.061 82.278
3750 0.066 82.317 0.993 -3.797 0.993 -3.797 0.066 82.317
3800 0.072 82.298 0.993 -4.125 0.993 -4.125 0.072 82.298
3850 0.078 82.234 0.992 -4.449 0.992 -4.449 0.078 82.234
3900 0.083 82.136 0.992 -4.769 0.992 -4.769 0.083 82.136
3950 0.089 82.012 0.992 -5.086 0.992 -5.086 0.089 82.012
4000 0.094 81.867 0.991 -5.399 0.991 -5.399 0.094 81.867
4050 0.1 81.705 0.991 -5.709 0.991 -5.709 0.1 81.705
4100 0.105 81.531 0.99 -6.016 0.99 -6.016 0.105 81.531
4150 0.11 81.345 0.989 -6.319 0.989 -6.319 0.11 81.345
4200 0.115 81.151 0.989 -6.619 0.989 -6.619 0.115 81.151
4250 0.121 80.949 0.988 -6.917 0.988 -6.917 0.121 80.949
4300 0.126 80.742 0.988 -7.211 0.988 -7.211 0.126 80.742
4350 0.131 80.53 0.987 -7.503 0.987 -7.503 0.131 80.53
4400 0.136 80.314 0.986 -7.792 0.986 -7.792 0.136 80.314
4450 0.141 80.096 0.986 -8.078 0.986 -8.078 0.141 80.096
4500 0.145 79.874 0.985 -8.362 0.985 -8.362 0.145 79.874
4550 0.15 79.65 0.984 -8.643 0.984 -8.643 0.15 79.65
4600 0.155 79.425 0.983 -8.922 0.983 -8.922 0.155 79.425
4650 0.16 79.199 0.983 -9.198 0.983 -9.198 0.16 79.199
4700 0.165 78.972 0.982 -9.472 0.982 -9.472 0.165 78.972
4750 0.169 78.744 0.981 -9.743 0.981 -9.743 0.169 78.744
4800 0.174 78.515 0.98 -10.013 0.98 -10.013 0.174 78.515
4850 0.179 78.286 0.979 -10.28 0.979 -10.28 0.179 78.286
4900 0.183 78.057 0.979 -10.545 0.979 -10.545 0.183 78.057
4950 0.188 77.829 0.978 -10.808 0.978 -10.808 0.188 77.829
5000 0.192 77.6 0.977 -11.069 0.977 -11.069 0.192 77.6
5050 0.196 77.372 0.976 -11.328 0.976 -11.328 0.196 77.372
5100 0.201 77.144 0.975 -11.585 0.975 -11.585 0.201 77.144
5150 0.205 76.916 0.974 -11.84 0.974 -11.84 0.205 76.916
5200 0.21 76.689 0.973 -12.093 0.973 -12.093 0.21 76.689
5250 0.214 76.463 0.972 -12.345 0.972 -12.345 0.214 76.463
5300 0.218 76.237 0.971 -12.595 0.971 -12.595 0.218 76.237
5350 0.222 76.012 0.971 -12.843 0.971 -12.843 0.222 76.012
5400 0.227 75.787 0.97 -13.089 0.97 -13.089 0.227 75.787
5450 0.231 75.563 0.969 -13.333 0.969 -13.333 0.231 75.563
5500 0.235 75.34 0.968 -13.576 0.968 -13.576 0.235 75.34
5550 0.239 75.118 0.967 -13.818 0.967 -13.818 0.239 75.118
5600 0.243 74.897 0.966 -14.057 0.966 -14.057 0.243 74.897
5650 0.247 74.676 0.965 -14.296 0.965 -14.296 0.247 74.676
5700 0.251 74.457 0.964 -14.532 0.964 -14.532 0.251 74.457
5750 0.255 74.238 0.963 -14.767 0.963 -14.767 0.255 74.238
5800 0.259 74.02 0.961 -15.001 0.961 -15.001 0.259 74.02
5850 0.263 73.803 0.96 -15.233 0.96 -15.233 0.263 73.803
5900 0.267 73.587 0.959 -15.464 0.959 -15.464 0.267 73.587
5950 0.271 73.372 0.958 -15.693 0.958 -15.693 0.271 73.372
6000 0.274 73.157 0.957 -15.921 0.957 -15.921 0.274 73.157
6050 0.278 72.944 0.956 -16.148 0.956 -16.148 0.278 72.944
6100 0.282 72.731 0.955 -16.373 0.955 -16.373 0.282 72.731
6150 0.286 72.52 0.954 -16.597 0.954 -16.597 0.286 72.52
6200 0.289 72.309 0.953 -16.82 0.953 -16.82 0.289 72.309
6250 0.293 72.099 0.952 -17.041 0.952 -17.041 0.293 72.099
6300 0.297 71.89 0.951 -17.261 0.951 -17.261 0.297 71.89
6350 0.3 71.682 0.949 -17.48 0.949 -17.48 0.3 71.682
6400 0.304 71.475 0.948 -17.698 0.948 -17.698 0.304 71.475
6450 0.308 71.269 0.947 -17.914 0.947 -17.914 0.308 71.269
6500 0.311 71.063 0.946 -18.129 0.946 -18.129 0.311 71.063
6550 0.315 70.859 0.945 -18.343 0.945 -18.343 0.315 70.859
6600 0.318 70.655 0.944 -18.556 0.944 -18.556 0.318 70.655
6650 0.322 70.453 0.942 -18.768 0.942 -18.768 0.322 70.453
6700 0.325 70.251 0.941 -18.979 0.941 -18.979 0.325 70.251
6750 0.329 70.05 0.94 -19.188 0.94 -19.188 0.329 70.05
6800 0.332 69.85 0.939 -19.397 0.939 -19.397 0.332 69.85
6850 0.336 69.651 0.938 -19.604 0.938 -19.604 0.336 69.651
6900 0.339 69.453 0.936 -19.81 0.936 -19.81 0.339 69.453
6950 0.342 69.255 0.935 -20.015 0.935 -20.015 0.342 69.255
7000 0.346 69.059 0.934 -20.22 0.934 -20.22 0.346 69.059
7050 0.349 68.863 0.933 -20.423 0.933 -20.423 0.349 68.863
7100 0.352 68.668 0.932 -20.625 0.932 -20.625 0.352 68.668
7150 0.356 68.474 0.93 -20.826 0.93 -20.826 0.356 68.474
7200 0.359 68.281 0.929 -21.026 0.929 -21.026 0.359 68.281
7250 0.362 68.089 0.928 -21.225 0.928 -21.225 0.362 68.089
7300 0.365 67.897 0.927 -21.423 0.927 -21.423 0.365 67.897
7350 0.368 67.707 0.925 -21.62 0.925 -21.62 0.368 67.707
7400 0.372 67.517 0.924 -21.816 0.924 -21.816 0.372 67.517
7450 0.375 67.328 0.923 -22.011 0.923 -22.011 0.375 67.328
7500 0.378 67.14 0.922 -22.205 0.922 -22.205 0.378 67.14
7550 0.381 66.952 0.92 -22.399 0.92 -22.399 0.381 66.952
7600 0.384 66.766 0.919 -22.591 0.919 -22.591 0.384 66.766
7650 0.387 66.58 0.918 -22.782 0.918 -22.782 0.387 66.58
7700 0.39 66.395 0.916 -22.973 0.916 -22.973 0.39 66.395
7750 0.393 66.211 0.915 -23.162 0.915 -23.162 0.393 66.211
7800 0.396 66.028 0.914 -23.351 0.914 -23.351 0.396 66.028
7850 0.399 65.845 0.912 -23.539 0.912 -23.539 0.399 65.845
7900 0.402 65.663 0.911 -23.726 0.911 -23.726 0.402 65.663
7950 0.405 65.482 0.91 -23.912 0.91 -23.912 0.405 65.482
8000 0.408 65.302 0.909 -24.097 0.909 -24.097 0.408 65.302
8050 0.411 65.122 0.907 -24.282 0.907 -24.282 0.411 65.122
8100 0.414 64.943 0.906 -24.465 0.906 -24.465 0.414 64.943
8150 0.417 64.765 0.905 -24.648 0.905 -24.648 0.417 64.765
8200 0.42 64.588 0.903 -24.83 0.903 -24.83 0.42 64.588
8250 0.423 64.411 0.902 -25.011 0.902 -25.011 0.423 64.411
8300 0.426 64.236 0.901 -25.191 0.901 -25.191 0.426 64.236
8350 0.428 64.06 0.899 -25.37 0.899 -25.37 0.428 64.06
8400 0.431 63.886 0.898 -25.549 0.898 -25.549 0.431 63.886
8450 0.434 63.712 0.897 -25.727 0.897 -25.727 0.434 63.712
8500 0.437 63.54 0.895 -25.903 0.895 -25.903 0.437 63.54
8550 0.44 63.367 0.894 -26.08 0.894 -26.08 0.44 63.367
8600 0.442 63.196 0.893 -26.255 0.893 -26.255 0.442 63.196
8650 0.445 63.025 0.891 -26.43 0.891 -26.43 0.445 63.025
8700 0.448 62.855 0.89 -26.604 0.89 -26.604 0.448 62.855
8750 0.451 62.686 0.889 -26.777 0.889 -26.777 0.451 62.686
8800 0.453 62.517 0.887 -26.949 0.887 -26.949 0.453 62.517
8850 0.456 62.349 0.886 -27.12 0.886 -27.12 0.456 62.349
8900 0.459 62.182 0.884 -27.291 0.884 -27.291 0.459 62.182
8950 0.461 62.015 0.883 -27.461 0.883 -27.461 0.461 62.015
9000 0.464 61.849 0.882 -27.631 0.882 -27.631 0.464 61.849
9050 0.466 61.684 0.88 -27.799 0.88 -27.799 0.466 61.684
9100 0.469 61.52 0.879 -27.967 0.879 -27.967 0.469 61.52
9150 0.472 61.356 0.878 -28.134 0.878 -28.134 0.472 61.356
9200 0.474 61.193 0.876 -28.301 0.876 -28.301 0.474 61.193
9250 0.477 61.03 0.875 -28.466 0.875 -28.466 0.477 61.03
9300 0.479 60.868 0.874 -28.631 0.874 -28.631 0.479 60.868
9350 0.482 60.707 0.872 -28.796 0.872 -28.796 0.482 60.707
9400 0.484 60.547 0.871 -28.959 0.871 -28.959 0.484 60.547
9450 0.487 60.387 0.869 -29.122 0.869 -29.122 0.487 60.387
9500 0.489 60.228 0.868 -29.284 0.868 -29.284 0.489 60.228
9550 0.492 60.069 0.867 -29.446 0.867 -29.446 0.492 60.069
9600 0.494 59.911 0.865 -29.607 0.865 -29.607 0.494 59.911
9650 0.496 59.754 0.864 -29.767 0.864 -29.767 0.496 59.754
9700 0.499 59.597 0.863 -29.926 0.863 -29.926 0.499 59.597
9750 0.501 59.441 0.861 -30.085 0.861 -30.085 0.501 59.441
9800 0.504 59.286 0.86 -30.243 0.86 -30.243 0.504 59.286
9850 0.506 59.131 0.858 -30.401 0.858 -30.401 0.506 59.131
9900 0.508 58.977 0.857 -30.557 0.857 -30.557 0.508 58.977
9950 0.511 58.823 0.856 -30.713 0.856 -30.713 0.511 58.823
10000 0.513 58.67 0.854 -30.869 0.854 -30.869 0.513 58.67
10050 0.515 58.518 0.853 -31.024 0.853 -31.024 0.515 58.518
10100 0.518 58.366 0.851 -31.178 0.851 -31.178 0.518 58.366
10150 0.52 58.215 0.85 -31.331 0.85 -31.331 0.52 58.215
10200 0.522 58.065 0.849 -31.484 0.849 -31.484 0.522 58.065
10250 0.525 57.915 0.847 -31.637 0.847 -31.637 0.525 57.915
10300 0.527 57.765 0.846 -31.788 0.846 -31.788 0.527 57.765
10350 0.529 57.617 0.845 -31.939 0.845 -31.939 0.529 57.617
10400 0.531 57.469 0.843 -32.09 0.843 -32.09 0.531 57.469
10450 0.533 57.321 0.842 -32.24 0.842 -32.24 0.533 57.321
10500 0.536 57.174 0.84 -32.389 0.84 -32.389 0.536 57.174
10550 0.538 57.028 0.839 -32.537 0.839 -32.537 0.538 57.028
10600 0.54 56.882 0.838 -32.685 0.838 -32.685 0.54 56.882
10650 0.542 56.737 0.836 -32.832 0.836 -32.832 0.542 56.737
10700 0.544 56.592 0.835 -32.979 0.835 -32.979 0.544 56.592
10750 0.546 56.448 0.833 -33.125 0.833 -33.125 0.546 56.448
10800 0.549 56.305 0.832 -33.271 0.832 -33.271 0.549 56.305
10850 0.551 56.162 0.831 -33.416 0.831 -33.416 0.551 56.162
10900 0.553 56.02 0.829 -33.56 0.829 -33.56 0.553 56.02
10950 0.555 55.878 0.828 -33.704 0.828 -33.704 0.555 55.878
11000 0.557 55.737 0.826 -33.847 0.826 -33.847 0.557 55.737
11050 0.559 55.596 0.825 -33.99 0.825 -33.99 0.559 55.596
11100 0.561 55.456 0.824 -34.132 0.824 -34.132 0.561 55.456
11150 0.563 55.317 0.822 -34.273 0.822 -34.273 0.563 55.317
11200 0.565 55.178 0.821 -34.414 0.821 -34.414 0.565 55.178
11250 0.567 55.039 0.82 -34.554 0.82 -34.554 0.567 55.039
11300 0.569 54.901 0.818 -34.694 0.818 -34.694 0.569 54.901
11350 0.571 54.764 0.817 -34.833 0.817 -34.833 0.571 54.764
11400 0.573 54.627 0.815 -34.972 0.815 -34.972 0.573 54.627
11450 0.575 54.491 0.814 -35.11 0.814 -35.11 0.575 54.491
11500 0.577 54.355 0.813 -35.247 0.813 -35.247 0.577 54.355
11550 0.579 54.22 0.811 -35.384 0.811 -35.384 0.579 54.22
11600 0.581 54.086 0.81 -35.521 0.81 -35.521 0.581 54.086
11650 0.583 53.951 0.809 -35.657 0.809 -35.657 0.583 53.951
11700 0.585 53.818 0.807 -35.792 0.807 -35.792 0.585 53.818
11750 0.587 53.685 0.806 -35.927 0.806 -35.927 0.587 53.685
11800 0.589 53.552 0.804 -36.061 0.804 -36.061 0.589 53.552
11850 0.591 53.42 0.803 -36.195 0.803 -36.195 0.591 53.42
11900 0.592 53.289 0.802 -36.328 0.802 -36.328 0.592 53.289
11950 0.594 53.158 0.8 -36.46 0.8 -36.46 0.594 53.158
12000 0.596 53.027 0.799 -36.592 0.799 -36.592 0.596 53.027
12050 0.598 52.897 0.798 -36.724 0.798 -36.724 0.598 52.897
12100 0.6 52.768 0.796 -36.855 0.796 -36.855 0.6 52.768
12150 0.602 52.639 0.795 -36.986 0.795 -36.986 0.602 52.639
12200 0.603 52.51 0.793 -37.116 0.793 -37.116 0.603 52.51
12250 0.605 52.382 0.792 -37.245 0.792 -37.245 0.605 52.382
12300 0.607 52.255 0.791 -37.374 0.791 -37.374 0.607 52.255
12350 0.609 52.128 0.789 -37.503 0.789 -37.503 0.609 52.128
12400 0.611 52.001 0.788 -37.631 0.788 -37.631 0.611 52.001
12450 0.612 51.875 0.787 -37.758 0.787 -37.758 0.612 51.875
12500 0.614 51.75 0.785 -37.885 0.785 -37.885 0.614 51.75
12550 0.616 51.625 0.784 -38.012 0.784 -38.012 0.616 51.625
12600 0.618 51.5 0.783 -38.137 0.783 -38.137 0.618 51.5
12650 0.619 51.376 0.781 -38.263 0.781 -38.263 0.619 51.376
12700 0.621 51.252 0.78 -38.388 0.78 -38.388 0.621 51.252
12750 0.623 51.129 0.779 -38.512 0.779 -38.512 0.623 51.129
12800 0.624 51.007 0.777 -38.636 0.777 -38.636 0.624 51.007
12850 0.626 50.884 0.776 -38.76 0.776 -38.76 0.626 50.884
12900 0.628 50.763 0.775 -38.883 0.775 -38.883 0.628 50.763
12950 0.629 50.642 0.773 -39.006 0.773 -39.006 0.629 50.642
13000 0.631 50.521 0.772 -39.128 0.772 -39.128 0.631 50.521
13050 0.633 50.401 0.771 -39.249 0.771 -39.249 0.633 50.401
13100 0.634 50.281 0.769 -39.37 0.769 -39.37 0.634 50.281
13150 0.636 50.161 0.768 -39.491 0.768 -39.491 0.636 50.161
13200 0.638 50.042 0.767 -39.611 0.767 -39.611 0.638 50.042
13250 0.639 49.924 0.765 -39.731 0.765 -39.731 0.639 49.924
13300 0.641 49.806 0.764 -39.85 0.764 -39.85 0.641 49.806
13350 0.642 49.688 0.763 -39.969 0.763 -39.969 0.642 49.688
13400 0.644 49.571 0.761 -40.087 0.761 -40.087 0.644 49.571
13450 0.646 49.455 0.76 -40.205 0.76 -40.205 0.646 49.455
13500 0.647 49.338 0.759 -40.323 0.759 -40.323 0.647 49.338
13550 0.649 49.223 0.757 -40.439 0.757 -40.439 0.649 49.223
13600 0.65 49.107 0.756 -40.556 0.756 -40.556 0.65 49.107
13650 0.652 48.992 0.755 -40.672 0.755 -40.672 0.652 48.992
13700 0.653 48.878 0.753 -40.788 0.753 -40.788 0.653 48.878
13750 0.655 48.764 0.752 -40.903 0.752 -40.903 0.655 48.764
13800 0.656 48.65 0.751 -41.018 0.751 -41.018 0.656 48.65
13850 0.658 48.537 0.749 -41.132 0.749 -41.132 0.658 48.537
13900 0.659 48.424 0.748 -41.246 0.748 -41.246 0.659 48.424
13950 0.661 48.312 0.747 -41.359 0.747 -41.359 0.661 48.312
14000 0.662 48.2 0.745 -41.472 0.745 -41.472 0.662 48.2
14050 0.664 48.089 0.744 -41.585 0.744 -41.585 0.664 48.089
14100 0.665 47.978 0.743 -41.697 0.743 -41.697 0.665 47.978
14150 0.667 47.867 0.742 -41.808 0.742 -41.808 0.667 47.867
14200 0.668 47.757 0.74 -41.92 0.74 -41.92 0.668 47.757
14250 0.67 47.647 0.739 -42.03 0.739 -42.03 0.67 47.647
14300 0.671 47.538 0.738 -42.141 0.738 -42.141 0.671 47.538
14350 0.672 47.429 0.736 -42.251 0.736 -42.251 0.672 47.429
14400 0.674 47.321 0.735 -42.36 0.735 -42.36 0.674 47.321
14450 0.675 47.212 0.734 -42.469 0.734 -42.469 0.675 47.212
14500 0.677 47.105 0.733 -42.578 0.733 -42.578 0.677 47.105
14550 0.678 46.997 0.731 -42.686 0.731 -42.686 0.678 46.997
14600 0.679 46.89 0.73 -42.794 0.73 -42.794 0.679 46.89
14650 0.681 46.784 0.729 -42.902 0.729 -42.902 0.681 46.784
14700 0.682 46.678 0.728 -43.009 0.728 -43.009 0.682 46.678
14750 0.683 46.572 0.726 -43.116 0.726 -43.116 0.683 46.572
14800 0.685 46.467 0.725 -43.222 0.725 -43.222 0.685 46.467
14850 0.686 46.362 0.724 -43.328 0.724 -43.328 0.686 46.362
14900 0.688 46.257 0.722 -43.433 0.722 -43.433 0.688 46.257
14950 0.689 46.153 0.721 -43.538 0.721 -43.538 0.689 46.153
15000 0.69 46.05 0.72 -43.643 0.72 -43.643 0.69 46.05
15050 0.691 45.946 0.719 -43.747 0.719 -43.747 0.691 45.946
15100 0.693 45.843 0.717 -43.851 0.717 -43.851 0.693 45.843
15150 0.694 45.741 0.716 -43.955 0.716 -43.955 0.694 45.741
15200 0.695 45.639 0.715 -44.058 0.715 -44.058 0.695 45.639
15250 0.697 45.537 0.714 -44.16 0.714 -44.16 0.697 45.537
15300 0.698 45.435 0.712 -44.263 0.712 -44.263 0.698 45.435
15350 0.699 45.334 0.711 -44.365 0.711 -44.365 0.699 45.334
15400 0.7 45.234 0.71 -44.466 0.71 -44.466 0.7 45.234
15450 0.702 45.133 0.709 -44.567 0.709 -44.567 0.702 45.133
15500 0.703 45.033 0.708 -44.668 0.708 -44.668 0.703 45.033
15550 0.704 44.934 0.706 -44.769 0.706 -44.769 0.704 44.934
15600 0.705 44.834 0.705 -44.869 0.705 -44.869 0.705 44.834
15650 0.707 44.736 0.704 -44.968 0.704 -44.968 0.707 44.736
15700 0.708 44.637 0.703 -45.068 0.703 -45.068 0.708 44.637
15750 0.709 44.539 0.701 -45.167 0.701 -45.167 0.709 44.539
15800 0.71 44.441 0.7 -45.265 0.7 -45.265 0.71 44.441
15850 0.712 44.344 0.699 -45.363 0.699 -45.363 0.712 44.344
15900 0.713 44.247 0.698 -45.461 0.698 -45.461 0.713 44.247
15950 0.714 44.15 0.697 -45.559 0.697 -45.559 0.714 44.15
16000 0.715 44.054 0.695 -45.656 0.695 -45.656 0.715 44.054
16050 0.716 43.958 0.694 -45.753 0.694 -45.753 0.716 43.958
16100 0.718 43.862 0.693 -45.849 0.693 -45.849 0.718 43.862
16150 0.719 43.767 0.692 -45.945 0.692 -45.945 0.719 43.767
16200 0.72 43.672 0.691 -46.041 0.691 -46.041 0.72 43.672
16250 0.721 43.578 0.689 -46.136 0.689 -46.136 0.721 43.578
16300 0.722 43.483 0.688 -46.231 0.688 -46.231 0.722 43.483
16350 0.723 43.39 0.687 -46.326 0.687 -46.326 0.723 43.39
16400 0.724 43.296 0.686 -46.42 0.686 -46.42 0.724 43.296
16450 0.726 43.203 0.685 -46.514 0.685 -46.514 0.726 43.203
16500 0.727 43.11 0.683 -46.608 0.683 -46.608 0.727 43.11
16550 0.728 43.018 0.682 -46.701 0.682 -46.701 0.728 43.018
16600 0.729 42.925 0.681 -46.794 0.681 -46.794 0.729 42.925
16650 0.73 42.834 0.68 -46.886 0.68 -46.886 0.73 42.834
16700 0.731 42.742 0.679 -46.979 0.679 -46.979 0.731 42.742
16750 0.732 42.651 0.678 -47.07 0.678 -47.07 0.732 42.651
16800 0.733 42.56 0.676 -47.162 0.676 -47.162 0.733 42.56
16850 0.734 42.47 0.675 -47.253 0.675 -47.253 0.734 42.47
16900 0.735 42.379 0.674 -47.344 0.674 -47.344 0.735 42.379
