! AVX Thin Film Operation		Date: April 2012 
! Description: Accu-P® Series, Thin Film, SMD, RF Capacitor
! Part Number: 12101J6R8BBTTR					
!	100	MHz	-	20.05	GHz			
!	Serial	Measurements						
!								
#	MHZ	S	MA	R	50			
!	S11	S21	S12	S22				
!	dB	Phase	dB	Phase	dB	Phase	dB	Phase
50 0.978 -12.067 0.209 77.917 0.209 77.917 0.978 -12.067
74.938 0.952 -17.78 0.305 72.196 0.305 72.196 0.952 -17.78
99.875 0.919 -23.167 0.393 66.802 0.393 66.802 0.919 -23.167
124.813 0.881 -28.174 0.472 61.787 0.472 61.787 0.881 -28.174
149.75 0.84 -32.776 0.541 57.177 0.541 57.177 0.84 -32.776
174.688 0.798 -36.972 0.601 52.973 0.601 52.973 0.798 -36.972
199.625 0.757 -40.779 0.653 49.158 0.653 49.158 0.757 -40.779
224.563 0.716 -44.221 0.697 45.707 0.697 45.707 0.716 -44.221
249.5 0.677 -47.331 0.735 42.589 0.735 42.589 0.677 -47.331
274.438 0.64 -50.142 0.768 39.77 0.768 39.77 0.64 -50.142
299.375 0.605 -52.684 0.795 37.219 0.795 37.219 0.605 -52.684
324.313 0.572 -54.989 0.819 34.906 0.819 34.906 0.572 -54.989
349.25 0.542 -57.083 0.839 32.803 0.839 32.803 0.542 -57.083
374.188 0.513 -58.991 0.857 30.886 0.857 30.886 0.513 -58.991
399.125 0.487 -60.735 0.872 29.134 0.872 29.134 0.487 -60.735
424.063 0.462 -62.333 0.886 27.526 0.886 27.526 0.462 -62.333
449 0.439 -63.802 0.897 26.048 0.897 26.048 0.439 -63.802
473.938 0.418 -65.157 0.907 24.684 0.907 24.684 0.418 -65.157
498.875 0.397 -66.409 0.916 23.421 0.916 23.421 0.397 -66.409
523.813 0.379 -67.571 0.924 22.25 0.924 22.25 0.379 -67.571
548.75 0.361 -68.651 0.931 21.159 0.931 21.159 0.361 -68.651
573.688 0.344 -69.658 0.938 20.142 0.938 20.142 0.344 -69.658
598.625 0.329 -70.6 0.943 19.19 0.943 19.19 0.329 -70.6
623.563 0.314 -71.482 0.948 18.296 0.948 18.296 0.314 -71.482
648.5 0.3 -72.31 0.953 17.457 0.953 17.457 0.3 -72.31
673.438 0.287 -73.09 0.957 16.665 0.957 16.665 0.287 -73.09
698.375 0.274 -73.826 0.96 15.917 0.96 15.917 0.274 -73.826
723.313 0.262 -74.521 0.964 15.21 0.964 15.21 0.262 -74.521
748.25 0.251 -75.179 0.967 14.539 0.967 14.539 0.251 -75.179
773.188 0.24 -75.803 0.969 13.901 0.969 13.901 0.24 -75.803
798.125 0.23 -76.396 0.972 13.294 0.972 13.294 0.23 -76.396
823.063 0.22 -76.96 0.974 12.715 0.974 12.715 0.22 -76.96
848 0.211 -77.498 0.976 12.162 0.976 12.162 0.211 -77.498
872.938 0.202 -78.011 0.978 11.633 0.978 11.633 0.202 -78.011
897.875 0.193 -78.501 0.98 11.126 0.98 11.126 0.193 -78.501
922.813 0.185 -78.97 0.982 10.64 0.982 10.64 0.185 -78.97
947.75 0.177 -79.419 0.983 10.173 0.983 10.173 0.177 -79.419
972.688 0.169 -79.85 0.984 9.723 0.984 9.723 0.169 -79.85
997.625 0.161 -80.263 0.986 9.289 0.986 9.289 0.161 -80.263
1022.563 0.154 -80.659 0.987 8.871 0.987 8.871 0.154 -80.659
1047.5 0.147 -81.04 0.988 8.468 0.988 8.468 0.147 -81.04
1072.438 0.141 -81.406 0.989 8.077 0.989 8.077 0.141 -81.406
1097.375 0.134 -81.759 0.99 7.699 0.99 7.699 0.134 -81.759
1122.313 0.128 -82.097 0.991 7.333 0.991 7.333 0.128 -82.097
1147.25 0.121 -82.423 0.991 6.978 0.991 6.978 0.121 -82.423
1172.188 0.116 -82.737 0.992 6.633 0.992 6.633 0.116 -82.737
1197.125 0.11 -83.038 0.993 6.298 0.993 6.298 0.11 -83.038
1222.063 0.104 -83.327 0.993 5.973 0.993 5.973 0.104 -83.327
1247 0.099 -83.605 0.994 5.655 0.994 5.655 0.099 -83.605
1271.938 0.093 -83.871 0.994 5.346 0.994 5.346 0.093 -83.871
1296.875 0.088 -84.125 0.995 5.045 0.995 5.045 0.088 -84.125
1321.813 0.083 -84.367 0.995 4.751 0.995 4.751 0.083 -84.367
1346.75 0.078 -84.598 0.996 4.464 0.996 4.464 0.078 -84.598
1371.688 0.073 -84.815 0.996 4.184 0.996 4.184 0.073 -84.815
1396.625 0.068 -85.019 0.996 3.909 0.996 3.909 0.068 -85.019
1421.563 0.064 -85.208 0.997 3.641 0.997 3.641 0.064 -85.208
1446.5 0.059 -85.381 0.997 3.378 0.997 3.378 0.059 -85.381
1471.438 0.054 -85.536 0.997 3.121 0.997 3.121 0.054 -85.536
1496.375 0.05 -85.67 0.997 2.868 0.997 2.868 0.05 -85.67
1521.313 0.046 -85.779 0.998 2.621 0.998 2.621 0.046 -85.779
1546.25 0.042 -85.858 0.998 2.378 0.998 2.378 0.042 -85.858
1571.188 0.037 -85.9 0.998 2.14 0.998 2.14 0.037 -85.9
1596.125 0.033 -85.894 0.998 1.906 0.998 1.906 0.033 -85.894
1621.063 0.029 -85.822 0.998 1.675 0.998 1.675 0.029 -85.822
1646 0.025 -85.657 0.998 1.449 0.998 1.449 0.025 -85.657
1670.938 0.021 -85.356 0.998 1.226 0.998 1.226 0.021 -85.356
1695.875 0.018 -84.833 0.999 1.007 0.999 1.007 0.018 -84.833
1720.813 0.014 -83.921 0.999 0.792 0.999 0.792 0.014 -83.921
1745.75 0.01 -82.212 0.999 0.579 0.999 0.579 0.01 -82.212
1770.688 6.579e-3 -78.424 0.999 0.37 0.999 0.37 6.579e-3 -78.424
1795.625 3.126e-3 -65.691 0.999 0.163 0.999 0.163 3.126e-3 -65.691
1820.563 1.457e-3 28.628 0.999 -0.04 0.999 -0.04 1.457e-3 28.628
1845.5 4.393e-3 72.836 0.999 -0.241 0.999 -0.241 4.393e-3 72.836
1870.438 7.765e-3 80.084 0.999 -0.439 0.999 -0.439 7.765e-3 80.084
1895.375 0.011 82.778 0.999 -0.634 0.999 -0.634 0.011 82.778
1920.313 0.014 84.113 0.999 -0.827 0.999 -0.827 0.014 84.113
1945.25 0.018 84.866 0.999 -1.018 0.999 -1.018 0.018 84.866
1970.188 0.021 85.319 0.998 -1.206 0.998 -1.206 0.021 85.319
1995.125 0.024 85.597 0.998 -1.393 0.998 -1.393 0.024 85.597
2020.063 0.028 85.764 0.998 -1.577 0.998 -1.577 0.028 85.764
2045 0.031 85.857 0.998 -1.759 0.998 -1.759 0.031 85.857
2069.938 0.034 85.898 0.998 -1.939 0.998 -1.939 0.034 85.898
2094.875 0.037 85.902 0.998 -2.117 0.998 -2.117 0.037 85.902
2119.813 0.04 85.878 0.998 -2.293 0.998 -2.293 0.04 85.878
2144.75 0.043 85.833 0.998 -2.468 0.998 -2.468 0.043 85.833
2169.688 0.046 85.771 0.998 -2.64 0.998 -2.64 0.046 85.771
2194.625 0.049 85.697 0.998 -2.811 0.998 -2.811 0.049 85.697
2219.563 0.052 85.613 0.997 -2.981 0.997 -2.981 0.052 85.613
2244.5 0.055 85.52 0.997 -3.149 0.997 -3.149 0.055 85.52
2269.438 0.058 85.42 0.997 -3.315 0.997 -3.315 0.058 85.42
2294.375 0.061 85.316 0.997 -3.48 0.997 -3.48 0.061 85.316
2319.313 0.064 85.206 0.997 -3.643 0.997 -3.643 0.064 85.206
2344.25 0.066 85.093 0.997 -3.805 0.997 -3.805 0.066 85.093
2369.188 0.069 84.977 0.996 -3.966 0.996 -3.966 0.069 84.977
2394.125 0.072 84.859 0.996 -4.126 0.996 -4.126 0.072 84.859
2419.063 0.075 84.738 0.996 -4.284 0.996 -4.284 0.075 84.738
2444 0.077 84.616 0.996 -4.441 0.996 -4.441 0.077 84.616
2468.938 0.08 84.492 0.996 -4.596 0.996 -4.596 0.08 84.492
2493.875 0.083 84.368 0.995 -4.751 0.995 -4.751 0.083 84.368
2518.813 0.085 84.242 0.995 -4.904 0.995 -4.904 0.085 84.242
2543.75 0.088 84.116 0.995 -5.057 0.995 -5.057 0.088 84.116
2568.688 0.091 83.989 0.995 -5.208 0.995 -5.208 0.091 83.989
2593.625 0.093 83.861 0.994 -5.358 0.994 -5.358 0.093 83.861
2618.563 0.096 83.733 0.994 -5.507 0.994 -5.507 0.096 83.733
2643.5 0.099 83.605 0.994 -5.655 0.994 -5.655 0.099 83.605
2668.438 0.101 83.477 0.994 -5.802 0.994 -5.802 0.101 83.477
2693.375 0.104 83.348 0.993 -5.949 0.993 -5.949 0.104 83.348
2718.313 0.106 83.22 0.993 -6.094 0.993 -6.094 0.106 83.22
2743.25 0.109 83.091 0.993 -6.238 0.993 -6.238 0.109 83.091
2768.188 0.111 82.963 0.993 -6.382 0.993 -6.382 0.111 82.963
2793.125 0.114 82.835 0.992 -6.525 0.992 -6.525 0.114 82.835
2818.063 0.116 82.707 0.992 -6.666 0.992 -6.666 0.116 82.707
2843 0.119 82.579 0.992 -6.807 0.992 -6.807 0.119 82.579
2867.938 0.121 82.451 0.991 -6.948 0.991 -6.948 0.121 82.451
2892.875 0.123 82.324 0.991 -7.087 0.991 -7.087 0.123 82.324
2917.813 0.126 82.196 0.991 -7.226 0.991 -7.226 0.126 82.196
2942.75 0.128 82.069 0.99 -7.364 0.99 -7.364 0.128 82.069
2967.688 0.131 81.943 0.99 -7.501 0.99 -7.501 0.131 81.943
2992.625 0.133 81.816 0.99 -7.638 0.99 -7.638 0.133 81.816
3017.563 0.135 81.69 0.99 -7.773 0.99 -7.773 0.135 81.69
3042.5 0.138 81.564 0.989 -7.908 0.989 -7.908 0.138 81.564
3067.438 0.14 81.439 0.989 -8.043 0.989 -8.043 0.14 81.439
3092.375 0.142 81.313 0.989 -8.177 0.989 -8.177 0.142 81.313
3117.313 0.145 81.189 0.988 -8.31 0.988 -8.31 0.145 81.189
3142.25 0.147 81.064 0.988 -8.442 0.988 -8.442 0.147 81.064
3167.188 0.149 80.94 0.988 -8.574 0.988 -8.574 0.149 80.94
3192.125 0.151 80.816 0.987 -8.706 0.987 -8.706 0.151 80.816
3217.063 0.154 80.692 0.987 -8.836 0.987 -8.836 0.154 80.692
3242 0.156 80.569 0.987 -8.967 0.987 -8.967 0.156 80.569
3266.938 0.158 80.446 0.986 -9.096 0.986 -9.096 0.158 80.446
3291.875 0.16 80.324 0.986 -9.225 0.986 -9.225 0.16 80.324
3316.813 0.163 80.202 0.985 -9.354 0.985 -9.354 0.163 80.202
3341.75 0.165 80.08 0.985 -9.482 0.985 -9.482 0.165 80.08
3366.688 0.167 79.958 0.985 -9.609 0.985 -9.609 0.167 79.958
3391.625 0.169 79.837 0.984 -9.736 0.984 -9.736 0.169 79.837
3416.563 0.171 79.716 0.984 -9.862 0.984 -9.862 0.171 79.716
3441.5 0.173 79.596 0.984 -9.988 0.984 -9.988 0.173 79.596
3466.438 0.176 79.476 0.983 -10.113 0.983 -10.113 0.176 79.476
3491.375 0.178 79.356 0.983 -10.238 0.983 -10.238 0.178 79.356
3516.313 0.18 79.237 0.982 -10.363 0.982 -10.363 0.18 79.237
3541.25 0.182 79.118 0.982 -10.487 0.982 -10.487 0.182 79.118
3566.188 0.184 78.999 0.982 -10.61 0.982 -10.61 0.184 78.999
3591.125 0.186 78.88 0.981 -10.733 0.981 -10.733 0.186 78.88
3616.063 0.188 78.762 0.981 -10.856 0.981 -10.856 0.188 78.762
3641 0.19 78.644 0.98 -10.978 0.98 -10.978 0.19 78.644
3665.938 0.193 78.527 0.98 -11.1 0.98 -11.1 0.193 78.527
3690.875 0.195 78.41 0.98 -11.221 0.98 -11.221 0.195 78.41
3715.813 0.197 78.293 0.979 -11.342 0.979 -11.342 0.197 78.293
3740.75 0.199 78.176 0.979 -11.462 0.979 -11.462 0.199 78.176
3765.688 0.201 78.06 0.978 -11.582 0.978 -11.582 0.201 78.06
3790.625 0.203 77.944 0.978 -11.702 0.978 -11.702 0.203 77.944
3815.563 0.205 77.829 0.978 -11.821 0.978 -11.821 0.205 77.829
3840.5 0.207 77.714 0.977 -11.94 0.977 -11.94 0.207 77.714
3865.438 0.209 77.599 0.977 -12.058 0.977 -12.058 0.209 77.599
3890.375 0.211 77.484 0.976 -12.177 0.976 -12.177 0.211 77.484
3915.313 0.213 77.37 0.976 -12.294 0.976 -12.294 0.213 77.37
3940.25 0.215 77.256 0.975 -12.412 0.975 -12.412 0.215 77.256
3965.188 0.217 77.142 0.975 -12.529 0.975 -12.529 0.217 77.142
3990.125 0.219 77.028 0.974 -12.645 0.974 -12.645 0.219 77.028
4015.063 0.221 76.915 0.974 -12.761 0.974 -12.761 0.221 76.915
4040 0.223 76.802 0.974 -12.877 0.974 -12.877 0.223 76.802
4064.938 0.225 76.69 0.973 -12.993 0.973 -12.993 0.225 76.69
4089.875 0.227 76.577 0.973 -13.108 0.973 -13.108 0.227 76.577
4114.813 0.229 76.465 0.972 -13.223 0.972 -13.223 0.229 76.465
4139.75 0.231 76.353 0.972 -13.337 0.972 -13.337 0.231 76.353
4164.688 0.233 76.242 0.971 -13.452 0.971 -13.452 0.233 76.242
4189.625 0.235 76.131 0.971 -13.566 0.971 -13.566 0.235 76.131
4214.563 0.236 76.02 0.97 -13.679 0.97 -13.679 0.236 76.02
4239.5 0.238 75.909 0.97 -13.792 0.97 -13.792 0.238 75.909
4264.438 0.24 75.799 0.969 -13.905 0.969 -13.905 0.24 75.799
4289.375 0.242 75.689 0.969 -14.018 0.969 -14.018 0.242 75.689
4314.313 0.244 75.579 0.969 -14.13 0.969 -14.13 0.244 75.579
4339.25 0.246 75.469 0.968 -14.242 0.968 -14.242 0.246 75.469
4364.188 0.248 75.36 0.968 -14.354 0.968 -14.354 0.248 75.36
4389.125 0.25 75.251 0.967 -14.465 0.967 -14.465 0.25 75.251
4414.063 0.252 75.142 0.967 -14.576 0.967 -14.576 0.252 75.142
4439 0.254 75.033 0.966 -14.687 0.966 -14.687 0.254 75.033
4463.938 0.255 74.925 0.966 -14.798 0.966 -14.798 0.255 74.925
4488.875 0.257 74.817 0.965 -14.908 0.965 -14.908 0.257 74.817
4513.813 0.259 74.709 0.965 -15.018 0.965 -15.018 0.259 74.709
4538.75 0.261 74.601 0.964 -15.128 0.964 -15.128 0.261 74.601
4563.688 0.263 74.494 0.964 -15.237 0.964 -15.237 0.263 74.494
4588.625 0.265 74.387 0.963 -15.346 0.963 -15.346 0.265 74.387
4613.563 0.266 74.28 0.963 -15.455 0.963 -15.455 0.266 74.28
4638.5 0.268 74.173 0.962 -15.564 0.962 -15.564 0.268 74.173
4663.438 0.27 74.067 0.962 -15.672 0.962 -15.672 0.27 74.067
4688.375 0.272 73.961 0.961 -15.78 0.961 -15.78 0.272 73.961
4713.313 0.274 73.855 0.961 -15.888 0.961 -15.888 0.274 73.855
4738.25 0.276 73.749 0.96 -15.995 0.96 -15.995 0.276 73.749
4763.188 0.277 73.644 0.96 -16.102 0.96 -16.102 0.277 73.644
4788.125 0.279 73.539 0.959 -16.209 0.959 -16.209 0.279 73.539
4813.063 0.281 73.434 0.958 -16.316 0.958 -16.316 0.281 73.434
4838 0.283 73.329 0.958 -16.423 0.958 -16.423 0.283 73.329
4862.938 0.284 73.224 0.957 -16.529 0.957 -16.529 0.284 73.224
4887.875 0.286 73.12 0.957 -16.635 0.957 -16.635 0.286 73.12
4912.813 0.288 73.016 0.956 -16.74 0.956 -16.74 0.288 73.016
4937.75 0.29 72.912 0.956 -16.846 0.956 -16.846 0.29 72.912
4962.688 0.292 72.808 0.955 -16.951 0.955 -16.951 0.292 72.808
4987.625 0.293 72.705 0.955 -17.056 0.955 -17.056 0.293 72.705
5012.563 0.295 72.602 0.954 -17.161 0.954 -17.161 0.295 72.602
5037.5 0.297 72.499 0.954 -17.265 0.954 -17.265 0.297 72.499
5062.438 0.299 72.396 0.953 -17.37 0.953 -17.37 0.299 72.396
5087.375 0.3 72.294 0.953 -17.474 0.953 -17.474 0.3 72.294
5112.313 0.302 72.191 0.952 -17.578 0.952 -17.578 0.302 72.191
5137.25 0.304 72.089 0.952 -17.681 0.952 -17.681 0.304 72.089
5162.188 0.305 71.987 0.951 -17.784 0.951 -17.784 0.305 71.987
5187.125 0.307 71.885 0.95 -17.888 0.95 -17.888 0.307 71.885
5212.063 0.309 71.784 0.95 -17.99 0.95 -17.99 0.309 71.784
5237 0.311 71.683 0.949 -18.093 0.949 -18.093 0.311 71.683
5261.938 0.312 71.582 0.949 -18.196 0.949 -18.196 0.312 71.582
5286.875 0.314 71.481 0.948 -18.298 0.948 -18.298 0.314 71.481
5311.813 0.316 71.38 0.948 -18.4 0.948 -18.4 0.316 71.38
5336.75 0.317 71.28 0.947 -18.501 0.947 -18.501 0.317 71.28
5361.688 0.319 71.179 0.947 -18.603 0.947 -18.603 0.319 71.179
5386.625 0.321 71.079 0.946 -18.704 0.946 -18.704 0.321 71.079
5411.563 0.322 70.979 0.945 -18.805 0.945 -18.805 0.322 70.979
5436.5 0.324 70.88 0.945 -18.906 0.945 -18.906 0.324 70.88
5461.438 0.326 70.78 0.944 -19.007 0.944 -19.007 0.326 70.78
5486.375 0.327 70.681 0.944 -19.108 0.944 -19.108 0.327 70.681
5511.313 0.329 70.582 0.943 -19.208 0.943 -19.208 0.329 70.582
5536.25 0.331 70.483 0.943 -19.308 0.943 -19.308 0.331 70.483
5561.188 0.332 70.384 0.942 -19.408 0.942 -19.408 0.332 70.384
5586.125 0.334 70.286 0.941 -19.507 0.941 -19.507 0.334 70.286
5611.063 0.336 70.188 0.941 -19.607 0.941 -19.607 0.336 70.188
5636 0.337 70.089 0.94 -19.706 0.94 -19.706 0.337 70.089
5660.938 0.339 69.992 0.94 -19.805 0.94 -19.805 0.339 69.992
5685.875 0.34 69.894 0.939 -19.904 0.939 -19.904 0.34 69.894
5710.813 0.342 69.796 0.938 -20.002 0.938 -20.002 0.342 69.796
5735.75 0.344 69.699 0.938 -20.101 0.938 -20.101 0.344 69.699
5760.688 0.345 69.602 0.937 -20.199 0.937 -20.199 0.345 69.602
5785.625 0.347 69.505 0.937 -20.297 0.937 -20.297 0.347 69.505
5810.563 0.348 69.408 0.936 -20.395 0.936 -20.395 0.348 69.408
5835.5 0.35 69.312 0.936 -20.492 0.936 -20.492 0.35 69.312
5860.438 0.352 69.215 0.935 -20.59 0.935 -20.59 0.352 69.215
5885.375 0.353 69.119 0.934 -20.687 0.934 -20.687 0.353 69.119
5910.313 0.355 69.023 0.934 -20.784 0.934 -20.784 0.355 69.023
5935.25 0.356 68.927 0.933 -20.881 0.933 -20.881 0.356 68.927
5960.188 0.358 68.831 0.933 -20.977 0.933 -20.977 0.358 68.831
5985.125 0.36 68.736 0.932 -21.074 0.932 -21.074 0.36 68.736
6010.063 0.361 68.641 0.931 -21.17 0.931 -21.17 0.361 68.641
6035 0.363 68.546 0.931 -21.266 0.931 -21.266 0.363 68.546
6059.938 0.364 68.451 0.93 -21.362 0.93 -21.362 0.364 68.451
6084.875 0.366 68.356 0.929 -21.458 0.929 -21.458 0.366 68.356
6109.813 0.367 68.261 0.929 -21.553 0.929 -21.553 0.367 68.261
6134.75 0.369 68.167 0.928 -21.648 0.928 -21.648 0.369 68.167
6159.688 0.37 68.073 0.928 -21.744 0.928 -21.744 0.37 68.073
6184.625 0.372 67.979 0.927 -21.838 0.927 -21.838 0.372 67.979
6209.563 0.374 67.885 0.926 -21.933 0.926 -21.933 0.374 67.885
6234.5 0.375 67.791 0.926 -22.028 0.926 -22.028 0.375 67.791
6259.438 0.377 67.698 0.925 -22.122 0.925 -22.122 0.377 67.698
6284.375 0.378 67.604 0.925 -22.216 0.925 -22.216 0.378 67.604
6309.313 0.38 67.511 0.924 -22.31 0.924 -22.31 0.38 67.511
6334.25 0.381 67.418 0.923 -22.404 0.923 -22.404 0.381 67.418
6359.188 0.383 67.325 0.923 -22.498 0.923 -22.498 0.383 67.325
6384.125 0.384 67.233 0.922 -22.591 0.922 -22.591 0.384 67.233
6409.063 0.386 67.14 0.921 -22.684 0.921 -22.684 0.386 67.14
6434 0.387 67.048 0.921 -22.777 0.921 -22.777 0.387 67.048
6458.938 0.389 66.956 0.92 -22.87 0.92 -22.87 0.389 66.956
6483.875 0.39 66.864 0.92 -22.963 0.92 -22.963 0.39 66.864
6508.813 0.392 66.772 0.919 -23.056 0.919 -23.056 0.392 66.772
6533.75 0.393 66.681 0.918 -23.148 0.918 -23.148 0.393 66.681
6558.688 0.395 66.589 0.918 -23.24 0.918 -23.24 0.395 66.589
6583.625 0.396 66.498 0.917 -23.332 0.917 -23.332 0.396 66.498
6608.563 0.398 66.407 0.916 -23.424 0.916 -23.424 0.398 66.407
6633.5 0.399 66.316 0.916 -23.516 0.916 -23.516 0.399 66.316
6658.438 0.4 66.225 0.915 -23.607 0.915 -23.607 0.4 66.225
6683.375 0.402 66.135 0.915 -23.698 0.915 -23.698 0.402 66.135
6708.313 0.403 66.044 0.914 -23.79 0.914 -23.79 0.403 66.044
6733.25 0.405 65.954 0.913 -23.881 0.913 -23.881 0.405 65.954
6758.188 0.406 65.864 0.913 -23.971 0.913 -23.971 0.406 65.864
6783.125 0.408 65.774 0.912 -24.062 0.912 -24.062 0.408 65.774
6808.063 0.409 65.684 0.911 -24.152 0.911 -24.152 0.409 65.684
6833 0.411 65.595 0.911 -24.243 0.911 -24.243 0.411 65.595
6857.938 0.412 65.505 0.91 -24.333 0.91 -24.333 0.412 65.505
6882.875 0.413 65.416 0.909 -24.423 0.909 -24.423 0.413 65.416
6907.813 0.415 65.327 0.909 -24.512 0.909 -24.512 0.415 65.327
6932.75 0.416 65.238 0.908 -24.602 0.908 -24.602 0.416 65.238
6957.688 0.418 65.149 0.907 -24.691 0.907 -24.691 0.418 65.149
6982.625 0.419 65.061 0.907 -24.781 0.907 -24.781 0.419 65.061
7007.563 0.421 64.972 0.906 -24.87 0.906 -24.87 0.421 64.972
7032.5 0.422 64.884 0.905 -24.959 0.905 -24.959 0.422 64.884
7057.438 0.423 64.796 0.905 -25.047 0.905 -25.047 0.423 64.796
7082.375 0.425 64.708 0.904 -25.136 0.904 -25.136 0.425 64.708
7107.313 0.426 64.62 0.903 -25.224 0.903 -25.224 0.426 64.62
7132.25 0.428 64.532 0.903 -25.313 0.903 -25.313 0.428 64.532
7157.188 0.429 64.445 0.902 -25.401 0.902 -25.401 0.429 64.445
7182.125 0.43 64.358 0.902 -25.489 0.902 -25.489 0.43 64.358
7207.063 0.432 64.271 0.901 -25.576 0.901 -25.576 0.432 64.271
7232 0.433 64.184 0.9 -25.664 0.9 -25.664 0.433 64.184
7256.938 0.434 64.097 0.9 -25.751 0.9 -25.751 0.434 64.097
7281.875 0.436 64.01 0.899 -25.839 0.899 -25.839 0.436 64.01
7306.813 0.437 63.924 0.898 -25.926 0.898 -25.926 0.437 63.924
7331.75 0.439 63.837 0.898 -26.013 0.898 -26.013 0.439 63.837
7356.688 0.44 63.751 0.897 -26.099 0.897 -26.099 0.44 63.751
7381.625 0.441 63.665 0.896 -26.186 0.896 -26.186 0.441 63.665
7406.563 0.443 63.579 0.896 -26.272 0.896 -26.272 0.443 63.579
7431.5 0.444 63.493 0.895 -26.359 0.895 -26.359 0.444 63.493
7456.438 0.445 63.408 0.894 -26.445 0.894 -26.445 0.445 63.408
7481.375 0.447 63.322 0.894 -26.531 0.894 -26.531 0.447 63.322
7506.313 0.448 63.237 0.893 -26.617 0.893 -26.617 0.448 63.237
7531.25 0.449 63.152 0.892 -26.702 0.892 -26.702 0.449 63.152
7556.188 0.451 63.067 0.892 -26.788 0.892 -26.788 0.451 63.067
7581.125 0.452 62.982 0.891 -26.873 0.891 -26.873 0.452 62.982
7606.063 0.453 62.898 0.89 -26.958 0.89 -26.958 0.453 62.898
7631 0.455 62.813 0.89 -27.043 0.89 -27.043 0.455 62.813
7655.938 0.456 62.729 0.889 -27.128 0.889 -27.128 0.456 62.729
7680.875 0.457 62.645 0.888 -27.213 0.888 -27.213 0.457 62.645
7705.813 0.459 62.561 0.888 -27.297 0.888 -27.297 0.459 62.561
7730.75 0.46 62.477 0.887 -27.382 0.887 -27.382 0.46 62.477
7755.688 0.461 62.393 0.886 -27.466 0.886 -27.466 0.461 62.393
7780.625 0.463 62.31 0.885 -27.55 0.885 -27.55 0.463 62.31
7805.563 0.464 62.226 0.885 -27.634 0.885 -27.634 0.464 62.226
7830.5 0.465 62.143 0.884 -27.718 0.884 -27.718 0.465 62.143
7855.438 0.466 62.06 0.883 -27.801 0.883 -27.801 0.466 62.06
7880.375 0.468 61.977 0.883 -27.885 0.883 -27.885 0.468 61.977
7905.313 0.469 61.894 0.882 -27.968 0.882 -27.968 0.469 61.894
7930.25 0.47 61.811 0.881 -28.051 0.881 -28.051 0.47 61.811
7955.188 0.472 61.729 0.881 -28.134 0.881 -28.134 0.472 61.729
7980.125 0.473 61.647 0.88 -28.217 0.88 -28.217 0.473 61.647
8005.063 0.474 61.564 0.879 -28.299 0.879 -28.299 0.474 61.564
8030 0.475 61.482 0.879 -28.382 0.879 -28.382 0.475 61.482
8054.938 0.477 61.401 0.878 -28.464 0.878 -28.464 0.477 61.401
8079.875 0.478 61.319 0.877 -28.547 0.877 -28.547 0.478 61.319
