! AVX Thin Film Operation		Date: April 2012 
! Description: Accu-P® Series, Thin Film, SMD, RF Capacitor
! Part Number: 12101J4R5ABTTR					
!	50	MHz	-	20.05	GHz			
!	Serial	Measurements						
!								
#	MHZ	S	MA	R	50			
!	S11	S21	S12	S22				
!	dB	Phase	dB	Phase	dB	Phase	dB	Phase
50 0.99 -8.049 0.14 81.87 0.14 81.87 0.99 -8.049
100 0.962 -15.809 0.272 74.087 0.272 74.087 0.962 -15.809
150 0.919 -23.051 0.392 66.82 0.392 66.82 0.919 -23.051
200 0.868 -29.637 0.495 60.21 0.495 60.21 0.868 -29.637
250 0.812 -35.517 0.581 54.305 0.581 54.305 0.812 -35.517
300 0.756 -40.705 0.652 49.092 0.652 49.092 0.756 -40.705
350 0.701 -45.257 0.71 44.514 0.71 44.514 0.701 -45.257
400 0.649 -49.243 0.757 40.502 0.757 40.502 0.649 -49.243
450 0.602 -52.738 0.796 36.98 0.796 36.98 0.602 -52.738
500 0.557 -55.812 0.827 33.878 0.827 33.878 0.557 -55.812
550 0.517 -58.527 0.853 31.134 0.853 31.134 0.517 -58.527
600 0.48 -60.937 0.874 28.693 0.874 28.693 0.48 -60.937
650 0.446 -63.088 0.892 26.512 0.892 26.512 0.446 -63.088
700 0.416 -65.017 0.906 24.55 0.906 24.55 0.416 -65.017
750 0.387 -66.756 0.919 22.777 0.919 22.777 0.387 -66.756
800 0.361 -68.332 0.929 21.166 0.929 21.166 0.361 -68.332
850 0.337 -69.766 0.938 19.695 0.938 19.695 0.337 -69.766
900 0.315 -71.077 0.946 18.344 0.946 18.344 0.315 -71.077
950 0.294 -72.28 0.953 17.099 0.953 17.099 0.294 -72.28
1000 0.275 -73.388 0.958 15.947 0.958 15.947 0.275 -73.388
1050 0.257 -74.412 0.963 14.876 0.963 14.876 0.257 -74.412
1100 0.24 -75.36 0.968 13.876 0.968 13.876 0.24 -75.36
1150 0.224 -76.242 0.971 12.94 0.971 12.94 0.224 -76.242
1200 0.209 -77.062 0.975 12.06 0.975 12.06 0.209 -77.062
1250 0.195 -77.827 0.978 11.231 0.978 11.231 0.195 -77.827
1300 0.181 -78.541 0.98 10.447 0.98 10.447 0.181 -78.541
1350 0.169 -79.207 0.982 9.704 0.982 9.704 0.169 -79.207
1400 0.156 -79.829 0.984 8.997 0.984 8.997 0.156 -79.829
1450 0.145 -80.408 0.986 8.324 0.986 8.324 0.145 -80.408
1500 0.134 -80.945 0.988 7.681 0.988 7.681 0.134 -80.945
1550 0.123 -81.441 0.989 7.066 0.989 7.066 0.123 -81.441
1600 0.113 -81.896 0.99 6.476 0.99 6.476 0.113 -81.896
1650 0.103 -82.308 0.991 5.909 0.991 5.909 0.103 -82.308
1700 0.094 -82.673 0.992 5.363 0.992 5.363 0.094 -82.673
1750 0.084 -82.986 0.993 4.836 0.993 4.836 0.084 -82.986
1800 0.076 -83.239 0.994 4.327 0.994 4.327 0.076 -83.239
1850 0.067 -83.42 0.995 3.835 0.995 3.835 0.067 -83.42
1900 0.059 -83.509 0.995 3.359 0.995 3.359 0.059 -83.509
1950 0.051 -83.473 0.996 2.896 0.996 2.896 0.051 -83.473
2000 0.043 -83.258 0.996 2.447 0.996 2.447 0.043 -83.258
2050 0.035 -82.767 0.996 2.01 0.996 2.01 0.035 -82.767
2100 0.028 -81.802 0.996 1.585 0.996 1.585 0.028 -81.802
2150 0.021 -79.905 0.997 1.17 0.997 1.17 0.021 -79.905
2200 0.014 -75.734 0.997 0.765 0.997 0.765 0.014 -75.734
2250 7.208e-3 -63.219 0.997 0.37 0.997 0.37 7.208e-3 -63.219
2300 3.219e-3 5.13 0.997 -0.017 0.997 -0.017 3.219e-3 5.13
2350 7.598e-3 64.646 0.997 -0.395 0.997 -0.395 7.598e-3 64.646
2400 0.014 75.732 0.997 -0.765 0.997 -0.765 0.014 75.732
2450 0.02 79.621 0.997 -1.128 0.997 -1.128 0.02 79.621
2500 0.026 81.458 0.996 -1.484 0.996 -1.484 0.026 81.458
2550 0.032 82.444 0.996 -1.833 0.996 -1.833 0.032 82.444
2600 0.038 82.998 0.996 -2.177 0.996 -2.177 0.038 82.998
2650 0.044 83.305 0.996 -2.514 0.996 -2.514 0.044 83.305
2700 0.05 83.459 0.996 -2.846 0.996 -2.846 0.05 83.459
2750 0.055 83.512 0.995 -3.172 0.995 -3.172 0.055 83.512
2800 0.061 83.495 0.995 -3.493 0.995 -3.493 0.061 83.495
2850 0.067 83.428 0.995 -3.81 0.995 -3.81 0.067 83.428
2900 0.072 83.324 0.994 -4.122 0.994 -4.122 0.072 83.324
2950 0.077 83.193 0.994 -4.429 0.994 -4.429 0.077 83.193
3000 0.083 83.042 0.993 -4.733 0.993 -4.733 0.083 83.042
3050 0.088 82.874 0.993 -5.032 0.993 -5.032 0.088 82.874
3100 0.093 82.695 0.992 -5.328 0.992 -5.328 0.093 82.695
3150 0.098 82.505 0.992 -5.62 0.992 -5.62 0.098 82.505
3200 0.103 82.308 0.991 -5.908 0.991 -5.908 0.103 82.308
3250 0.108 82.104 0.991 -6.194 0.991 -6.194 0.108 82.104
3300 0.113 81.896 0.99 -6.476 0.99 -6.476 0.113 81.896
3350 0.118 81.684 0.99 -6.754 0.99 -6.754 0.118 81.684
3400 0.122 81.469 0.989 -7.03 0.989 -7.03 0.122 81.469
3450 0.127 81.252 0.989 -7.303 0.989 -7.303 0.127 81.252
3500 0.132 81.033 0.988 -7.574 0.988 -7.574 0.132 81.033
3550 0.136 80.813 0.987 -7.841 0.987 -7.841 0.136 80.813
3600 0.141 80.592 0.987 -8.106 0.987 -8.106 0.141 80.592
3650 0.146 80.37 0.986 -8.369 0.986 -8.369 0.146 80.37
3700 0.15 80.147 0.985 -8.629 0.985 -8.629 0.15 80.147
3750 0.155 79.924 0.985 -8.887 0.985 -8.887 0.155 79.924
3800 0.159 79.702 0.984 -9.143 0.984 -9.143 0.159 79.702
3850 0.163 79.479 0.983 -9.396 0.983 -9.396 0.163 79.479
3900 0.168 79.257 0.983 -9.648 0.983 -9.648 0.168 79.257
3950 0.172 79.035 0.982 -9.897 0.982 -9.897 0.172 79.035
4000 0.176 78.813 0.981 -10.145 0.981 -10.145 0.176 78.813
4050 0.18 78.592 0.98 -10.39 0.98 -10.39 0.18 78.592
4100 0.185 78.372 0.98 -10.634 0.98 -10.634 0.185 78.372
4150 0.189 78.152 0.979 -10.876 0.979 -10.876 0.189 78.152
4200 0.193 77.933 0.978 -11.116 0.978 -11.116 0.193 77.933
4250 0.197 77.714 0.977 -11.354 0.977 -11.354 0.197 77.714
4300 0.201 77.496 0.976 -11.591 0.976 -11.591 0.201 77.496
4350 0.205 77.279 0.976 -11.826 0.976 -11.826 0.205 77.279
4400 0.209 77.063 0.975 -12.06 0.975 -12.06 0.209 77.063
4450 0.213 76.847 0.974 -12.292 0.974 -12.292 0.213 76.847
4500 0.217 76.632 0.973 -12.522 0.973 -12.522 0.217 76.632
4550 0.221 76.418 0.972 -12.751 0.972 -12.751 0.221 76.418
4600 0.225 76.205 0.971 -12.979 0.971 -12.979 0.225 76.205
4650 0.228 75.993 0.97 -13.205 0.97 -13.205 0.228 75.993
4700 0.232 75.781 0.969 -13.43 0.969 -13.43 0.232 75.781
4750 0.236 75.571 0.969 -13.653 0.969 -13.653 0.236 75.571
4800 0.24 75.361 0.968 -13.876 0.968 -13.876 0.24 75.361
4850 0.244 75.152 0.967 -14.096 0.967 -14.096 0.244 75.152
4900 0.247 74.943 0.966 -14.316 0.966 -14.316 0.247 74.943
4950 0.251 74.736 0.965 -14.535 0.965 -14.535 0.251 74.736
5000 0.255 74.53 0.964 -14.752 0.964 -14.752 0.255 74.53
5050 0.258 74.324 0.963 -14.968 0.963 -14.968 0.258 74.324
5100 0.262 74.119 0.962 -15.183 0.962 -15.183 0.262 74.119
5150 0.266 73.915 0.961 -15.396 0.961 -15.396 0.266 73.915
5200 0.269 73.712 0.96 -15.609 0.96 -15.609 0.269 73.712
5250 0.273 73.509 0.959 -15.82 0.959 -15.82 0.273 73.509
5300 0.276 73.307 0.958 -16.031 0.958 -16.031 0.276 73.307
5350 0.28 73.107 0.957 -16.24 0.957 -16.24 0.28 73.107
5400 0.283 72.907 0.956 -16.448 0.956 -16.448 0.283 72.907
5450 0.287 72.707 0.955 -16.655 0.955 -16.655 0.287 72.707
5500 0.29 72.509 0.954 -16.862 0.954 -16.862 0.29 72.509
5550 0.294 72.311 0.953 -17.067 0.953 -17.067 0.294 72.311
5600 0.297 72.114 0.952 -17.271 0.952 -17.271 0.297 72.114
5650 0.3 71.918 0.951 -17.474 0.951 -17.474 0.3 71.918
5700 0.304 71.723 0.95 -17.677 0.95 -17.677 0.304 71.723
5750 0.307 71.528 0.949 -17.878 0.949 -17.878 0.307 71.528
5800 0.31 71.334 0.947 -18.078 0.947 -18.078 0.31 71.334
5850 0.314 71.141 0.946 -18.278 0.946 -18.278 0.314 71.141
5900 0.317 70.949 0.945 -18.476 0.945 -18.476 0.317 70.949
5950 0.32 70.757 0.944 -18.674 0.944 -18.674 0.32 70.757
6000 0.323 70.566 0.943 -18.871 0.943 -18.871 0.323 70.566
6050 0.327 70.376 0.942 -19.067 0.942 -19.067 0.327 70.376
6100 0.33 70.187 0.941 -19.262 0.941 -19.262 0.33 70.187
6150 0.333 69.998 0.94 -19.456 0.94 -19.456 0.333 69.998
6200 0.336 69.81 0.939 -19.649 0.939 -19.649 0.336 69.81
6250 0.339 69.623 0.937 -19.841 0.937 -19.841 0.339 69.623
6300 0.343 69.437 0.936 -20.033 0.936 -20.033 0.343 69.437
6350 0.346 69.251 0.935 -20.224 0.935 -20.224 0.346 69.251
6400 0.349 69.066 0.934 -20.414 0.934 -20.414 0.349 69.066
6450 0.352 68.881 0.933 -20.603 0.933 -20.603 0.352 68.881
6500 0.355 68.698 0.932 -20.791 0.932 -20.791 0.355 68.698
6550 0.358 68.515 0.931 -20.979 0.931 -20.979 0.358 68.515
6600 0.361 68.332 0.929 -21.166 0.929 -21.166 0.361 68.332
6650 0.364 68.151 0.928 -21.352 0.928 -21.352 0.364 68.151
6700 0.367 67.97 0.927 -21.537 0.927 -21.537 0.367 67.97
6750 0.37 67.789 0.926 -21.722 0.926 -21.722 0.37 67.789
6800 0.373 67.61 0.925 -21.905 0.925 -21.905 0.373 67.61
6850 0.376 67.431 0.923 -22.088 0.923 -22.088 0.376 67.431
6900 0.379 67.252 0.922 -22.271 0.922 -22.271 0.379 67.252
6950 0.382 67.075 0.921 -22.452 0.921 -22.452 0.382 67.075
7000 0.385 66.898 0.92 -22.633 0.92 -22.633 0.385 66.898
7050 0.388 66.721 0.919 -22.813 0.919 -22.813 0.388 66.721
7100 0.391 66.546 0.917 -22.992 0.917 -22.992 0.391 66.546
7150 0.393 66.371 0.916 -23.171 0.916 -23.171 0.393 66.371
7200 0.396 66.196 0.915 -23.349 0.915 -23.349 0.396 66.196
7250 0.399 66.023 0.914 -23.526 0.914 -23.526 0.399 66.023
7300 0.402 65.849 0.913 -23.702 0.913 -23.702 0.402 65.849
7350 0.405 65.677 0.911 -23.878 0.911 -23.878 0.405 65.677
7400 0.408 65.505 0.91 -24.053 0.91 -24.053 0.408 65.505
7450 0.41 65.334 0.909 -24.228 0.909 -24.228 0.41 65.334
7500 0.413 65.163 0.908 -24.402 0.908 -24.402 0.413 65.163
7550 0.416 64.993 0.906 -24.575 0.906 -24.575 0.416 64.993
7600 0.419 64.824 0.905 -24.747 0.905 -24.747 0.419 64.824
7650 0.421 64.655 0.904 -24.919 0.904 -24.919 0.421 64.655
7700 0.424 64.487 0.903 -25.09 0.903 -25.09 0.424 64.487
7750 0.427 64.319 0.901 -25.26 0.901 -25.26 0.427 64.319
7800 0.429 64.153 0.9 -25.43 0.9 -25.43 0.429 64.153
7850 0.432 63.986 0.899 -25.599 0.899 -25.599 0.432 63.986
7900 0.435 63.821 0.897 -25.768 0.897 -25.768 0.435 63.821
7950 0.437 63.655 0.896 -25.935 0.896 -25.935 0.437 63.655
8000 0.44 63.491 0.895 -26.103 0.895 -26.103 0.44 63.491
8050 0.443 63.327 0.894 -26.269 0.894 -26.269 0.443 63.327
8100 0.445 63.164 0.892 -26.435 0.892 -26.435 0.445 63.164
8150 0.448 63.001 0.891 -26.6 0.891 -26.6 0.448 63.001
8200 0.45 62.839 0.89 -26.765 0.89 -26.765 0.45 62.839
8250 0.453 62.677 0.888 -26.929 0.888 -26.929 0.453 62.677
8300 0.455 62.516 0.887 -27.092 0.887 -27.092 0.455 62.516
8350 0.458 62.356 0.886 -27.255 0.886 -27.255 0.458 62.356
8400 0.46 62.196 0.885 -27.417 0.885 -27.417 0.46 62.196
8450 0.463 62.037 0.883 -27.579 0.883 -27.579 0.463 62.037
8500 0.465 61.878 0.882 -27.74 0.882 -27.74 0.465 61.878
8550 0.468 61.72 0.881 -27.9 0.881 -27.9 0.468 61.72
8600 0.47 61.562 0.879 -28.06 0.879 -28.06 0.47 61.562
8650 0.473 61.405 0.878 -28.219 0.878 -28.219 0.473 61.405
8700 0.475 61.249 0.877 -28.378 0.877 -28.378 0.475 61.249
8750 0.478 61.093 0.875 -28.536 0.875 -28.536 0.478 61.093
8800 0.48 60.938 0.874 -28.693 0.874 -28.693 0.48 60.938
8850 0.483 60.783 0.873 -28.85 0.873 -28.85 0.483 60.783
8900 0.485 60.629 0.871 -29.006 0.871 -29.006 0.485 60.629
8950 0.487 60.475 0.87 -29.162 0.87 -29.162 0.487 60.475
9000 0.49 60.322 0.869 -29.317 0.869 -29.317 0.49 60.322
9050 0.492 60.17 0.868 -29.471 0.868 -29.471 0.492 60.17
9100 0.494 60.018 0.866 -29.625 0.866 -29.625 0.494 60.018
9150 0.497 59.866 0.865 -29.779 0.865 -29.779 0.497 59.866
9200 0.499 59.715 0.864 -29.931 0.864 -29.931 0.499 59.715
9250 0.501 59.565 0.862 -30.084 0.862 -30.084 0.501 59.565
9300 0.504 59.415 0.861 -30.235 0.861 -30.235 0.504 59.415
9350 0.506 59.266 0.86 -30.386 0.86 -30.386 0.506 59.266
9400 0.508 59.117 0.858 -30.537 0.858 -30.537 0.508 59.117
9450 0.51 58.969 0.857 -30.687 0.857 -30.687 0.51 58.969
9500 0.513 58.821 0.856 -30.836 0.856 -30.836 0.513 58.821
9550 0.515 58.674 0.854 -30.985 0.854 -30.985 0.515 58.674
9600 0.517 58.527 0.853 -31.133 0.853 -31.133 0.517 58.527
9650 0.519 58.381 0.852 -31.281 0.852 -31.281 0.519 58.381
9700 0.521 58.236 0.85 -31.428 0.85 -31.428 0.521 58.236
9750 0.524 58.091 0.849 -31.575 0.849 -31.575 0.524 58.091
9800 0.526 57.946 0.848 -31.721 0.848 -31.721 0.526 57.946
9850 0.528 57.802 0.846 -31.867 0.846 -31.867 0.528 57.802
9900 0.53 57.659 0.845 -32.012 0.845 -32.012 0.53 57.659
9950 0.532 57.516 0.844 -32.156 0.844 -32.156 0.532 57.516
10000 0.534 57.373 0.842 -32.3 0.842 -32.3 0.534 57.373
10050 0.536 57.231 0.841 -32.444 0.841 -32.444 0.536 57.231
10100 0.539 57.09 0.84 -32.587 0.84 -32.587 0.539 57.09
10150 0.541 56.949 0.838 -32.729 0.838 -32.729 0.541 56.949
10200 0.543 56.808 0.837 -32.871 0.837 -32.871 0.543 56.808
10250 0.545 56.668 0.836 -33.013 0.836 -33.013 0.545 56.668
10300 0.547 56.529 0.834 -33.153 0.834 -33.153 0.547 56.529
10350 0.549 56.39 0.833 -33.294 0.833 -33.294 0.549 56.39
10400 0.551 56.252 0.831 -33.434 0.831 -33.434 0.551 56.252
10450 0.553 56.114 0.83 -33.573 0.83 -33.573 0.553 56.114
10500 0.555 55.976 0.829 -33.712 0.829 -33.712 0.555 55.976
10550 0.557 55.839 0.827 -33.85 0.827 -33.85 0.557 55.839
10600 0.559 55.703 0.826 -33.988 0.826 -33.988 0.559 55.703
10650 0.561 55.567 0.825 -34.125 0.825 -34.125 0.561 55.567
10700 0.563 55.432 0.823 -34.262 0.823 -34.262 0.563 55.432
10750 0.565 55.297 0.822 -34.398 0.822 -34.398 0.565 55.297
10800 0.567 55.162 0.821 -34.534 0.821 -34.534 0.567 55.162
10850 0.569 55.028 0.819 -34.669 0.819 -34.669 0.569 55.028
10900 0.571 54.894 0.818 -34.804 0.818 -34.804 0.571 54.894
10950 0.573 54.761 0.817 -34.938 0.817 -34.938 0.573 54.761
11000 0.575 54.629 0.815 -35.072 0.815 -35.072 0.575 54.629
11050 0.577 54.497 0.814 -35.205 0.814 -35.205 0.577 54.497
11100 0.578 54.365 0.813 -35.338 0.813 -35.338 0.578 54.365
11150 0.58 54.234 0.811 -35.471 0.811 -35.471 0.58 54.234
11200 0.582 54.103 0.81 -35.603 0.81 -35.603 0.582 54.103
11250 0.584 53.973 0.809 -35.734 0.809 -35.734 0.584 53.973
11300 0.586 53.843 0.807 -35.865 0.807 -35.865 0.586 53.843
11350 0.588 53.714 0.806 -35.995 0.806 -35.995 0.588 53.714
11400 0.59 53.585 0.805 -36.125 0.805 -36.125 0.59 53.585
11450 0.591 53.457 0.803 -36.255 0.803 -36.255 0.591 53.457
11500 0.593 53.329 0.802 -36.384 0.802 -36.384 0.593 53.329
11550 0.595 53.201 0.801 -36.512 0.801 -36.512 0.595 53.201
11600 0.597 53.074 0.799 -36.64 0.799 -36.64 0.597 53.074
11650 0.599 52.948 0.798 -36.768 0.798 -36.768 0.599 52.948
11700 0.6 52.822 0.797 -36.895 0.797 -36.895 0.6 52.822
11750 0.602 52.696 0.795 -37.022 0.795 -37.022 0.602 52.696
11800 0.604 52.571 0.794 -37.148 0.794 -37.148 0.604 52.571
11850 0.606 52.446 0.793 -37.274 0.793 -37.274 0.606 52.446
11900 0.607 52.322 0.791 -37.399 0.791 -37.399 0.607 52.322
11950 0.609 52.198 0.79 -37.524 0.79 -37.524 0.609 52.198
12000 0.611 52.075 0.789 -37.648 0.789 -37.648 0.611 52.075
12050 0.613 51.952 0.788 -37.772 0.788 -37.772 0.613 51.952
12100 0.614 51.829 0.786 -37.896 0.786 -37.896 0.614 51.829
12150 0.616 51.707 0.785 -38.019 0.785 -38.019 0.616 51.707
12200 0.618 51.586 0.784 -38.141 0.784 -38.141 0.618 51.586
12250 0.619 51.465 0.782 -38.263 0.782 -38.263 0.619 51.465
12300 0.621 51.344 0.781 -38.385 0.781 -38.385 0.621 51.344
12350 0.623 51.224 0.78 -38.506 0.78 -38.506 0.623 51.224
12400 0.624 51.104 0.778 -38.627 0.778 -38.627 0.624 51.104
12450 0.626 50.984 0.777 -38.748 0.777 -38.748 0.626 50.984
12500 0.628 50.865 0.776 -38.867 0.776 -38.867 0.628 50.865
12550 0.629 50.747 0.774 -38.987 0.774 -38.987 0.629 50.747
12600 0.631 50.629 0.773 -39.106 0.773 -39.106 0.631 50.629
12650 0.632 50.511 0.772 -39.225 0.772 -39.225 0.632 50.511
12700 0.634 50.393 0.77 -39.343 0.77 -39.343 0.634 50.393
12750 0.636 50.277 0.769 -39.461 0.769 -39.461 0.636 50.277
12800 0.637 50.16 0.768 -39.578 0.768 -39.578 0.637 50.16
12850 0.639 50.044 0.767 -39.695 0.767 -39.695 0.639 50.044
12900 0.64 49.928 0.765 -39.811 0.765 -39.811 0.64 49.928
12950 0.642 49.813 0.764 -39.927 0.764 -39.927 0.642 49.813
13000 0.643 49.698 0.763 -40.043 0.763 -40.043 0.643 49.698
13050 0.645 49.584 0.761 -40.158 0.761 -40.158 0.645 49.584
13100 0.646 49.47 0.76 -40.273 0.76 -40.273 0.646 49.47
13150 0.648 49.356 0.759 -40.388 0.759 -40.388 0.648 49.356
13200 0.649 49.243 0.757 -40.502 0.757 -40.502 0.649 49.243
13250 0.651 49.13 0.756 -40.615 0.756 -40.615 0.651 49.13
13300 0.652 49.018 0.755 -40.728 0.755 -40.728 0.652 49.018
13350 0.654 48.906 0.754 -40.841 0.754 -40.841 0.654 48.906
13400 0.655 48.794 0.752 -40.953 0.752 -40.953 0.655 48.794
13450 0.657 48.683 0.751 -41.065 0.751 -41.065 0.657 48.683
13500 0.658 48.573 0.75 -41.177 0.75 -41.177 0.658 48.573
13550 0.66 48.462 0.749 -41.288 0.749 -41.288 0.66 48.462
13600 0.661 48.352 0.747 -41.399 0.747 -41.399 0.661 48.352
13650 0.663 48.243 0.746 -41.509 0.746 -41.509 0.663 48.243
13700 0.664 48.133 0.745 -41.619 0.745 -41.619 0.664 48.133
13750 0.666 48.025 0.743 -41.729 0.743 -41.729 0.666 48.025
13800 0.667 47.916 0.742 -41.838 0.742 -41.838 0.667 47.916
13850 0.668 47.808 0.741 -41.947 0.741 -41.947 0.668 47.808
13900 0.67 47.701 0.74 -42.055 0.74 -42.055 0.67 47.701
13950 0.671 47.593 0.738 -42.163 0.738 -42.163 0.671 47.593
14000 0.673 47.486 0.737 -42.271 0.737 -42.271 0.673 47.486
14050 0.674 47.38 0.736 -42.378 0.736 -42.378 0.674 47.38
14100 0.675 47.274 0.735 -42.485 0.735 -42.485 0.675 47.274
14150 0.677 47.168 0.733 -42.591 0.733 -42.591 0.677 47.168
14200 0.678 47.063 0.732 -42.697 0.732 -42.697 0.678 47.063
14250 0.679 46.958 0.731 -42.803 0.731 -42.803 0.679 46.958
14300 0.681 46.853 0.73 -42.908 0.73 -42.908 0.681 46.853
14350 0.682 46.749 0.728 -43.013 0.728 -43.013 0.682 46.749
14400 0.684 46.645 0.727 -43.117 0.727 -43.117 0.684 46.645
14450 0.685 46.541 0.726 -43.222 0.726 -43.222 0.685 46.541
14500 0.686 46.438 0.725 -43.325 0.725 -43.325 0.686 46.438
14550 0.687 46.336 0.723 -43.429 0.723 -43.429 0.687 46.336
14600 0.689 46.233 0.722 -43.532 0.722 -43.532 0.689 46.233
14650 0.69 46.131 0.721 -43.635 0.721 -43.635 0.69 46.131
14700 0.691 46.029 0.72 -43.737 0.72 -43.737 0.691 46.029
14750 0.693 45.928 0.718 -43.839 0.718 -43.839 0.693 45.928
14800 0.694 45.827 0.717 -43.94 0.717 -43.94 0.694 45.827
14850 0.695 45.727 0.716 -44.042 0.716 -44.042 0.695 45.727
14900 0.696 45.626 0.715 -44.142 0.715 -44.142 0.696 45.626
14950 0.698 45.527 0.714 -44.243 0.714 -44.243 0.698 45.527
15000 0.699 45.427 0.712 -44.343 0.712 -44.343 0.699 45.427
15050 0.7 45.328 0.711 -44.443 0.711 -44.443 0.7 45.328
15100 0.701 45.229 0.71 -44.542 0.71 -44.542 0.701 45.229
15150 0.703 45.131 0.709 -44.641 0.709 -44.641 0.703 45.131
15200 0.704 45.032 0.708 -44.74 0.708 -44.74 0.704 45.032
15250 0.705 44.935 0.706 -44.839 0.706 -44.839 0.705 44.935
15300 0.706 44.837 0.705 -44.937 0.705 -44.937 0.706 44.837
15350 0.708 44.74 0.704 -45.034 0.704 -45.034 0.708 44.74
15400 0.709 44.643 0.703 -45.132 0.703 -45.132 0.709 44.643
15450 0.71 44.547 0.701 -45.229 0.701 -45.229 0.71 44.547
15500 0.711 44.451 0.7 -45.325 0.7 -45.325 0.711 44.451
15550 0.712 44.355 0.699 -45.421 0.699 -45.421 0.712 44.355
15600 0.713 44.26 0.698 -45.517 0.698 -45.517 0.713 44.26
15650 0.715 44.165 0.697 -45.613 0.697 -45.613 0.715 44.165
15700 0.716 44.07 0.696 -45.708 0.696 -45.708 0.716 44.07
15750 0.717 43.976 0.694 -45.803 0.694 -45.803 0.717 43.976
15800 0.718 43.882 0.693 -45.898 0.693 -45.898 0.718 43.882
15850 0.719 43.788 0.692 -45.992 0.692 -45.992 0.719 43.788
15900 0.72 43.694 0.691 -46.086 0.691 -46.086 0.72 43.694
15950 0.722 43.601 0.69 -46.18 0.69 -46.18 0.722 43.601
16000 0.723 43.509 0.688 -46.273 0.688 -46.273 0.723 43.509
16050 0.724 43.416 0.687 -46.366 0.687 -46.366 0.724 43.416
16100 0.725 43.324 0.686 -46.458 0.686 -46.458 0.725 43.324
16150 0.726 43.232 0.685 -46.551 0.685 -46.551 0.726 43.232
16200 0.727 43.141 0.684 -46.643 0.684 -46.643 0.727 43.141
16250 0.728 43.05 0.683 -46.734 0.683 -46.734 0.728 43.05
16300 0.729 42.959 0.681 -46.826 0.681 -46.826 0.729 42.959
16350 0.73 42.868 0.68 -46.917 0.68 -46.917 0.73 42.868
16400 0.731 42.778 0.679 -47.007 0.679 -47.007 0.731 42.778
16450 0.733 42.688 0.678 -47.098 0.678 -47.098 0.733 42.688
16500 0.734 42.599 0.677 -47.188 0.677 -47.188 0.734 42.599
16550 0.735 42.51 0.676 -47.278 0.676 -47.278 0.735 42.51
16600 0.736 42.421 0.675 -47.367 0.675 -47.367 0.736 42.421
16650 0.737 42.332 0.673 -47.456 0.673 -47.456 0.737 42.332
16700 0.738 42.244 0.672 -47.545 0.672 -47.545 0.738 42.244
16750 0.739 42.156 0.671 -47.633 0.671 -47.633 0.739 42.156
16800 0.74 42.068 0.67 -47.722 0.67 -47.722 0.74 42.068
16850 0.741 41.981 0.669 -47.809 0.669 -47.809 0.741 41.981
16900 0.742 41.894 0.668 -47.897 0.668 -47.897 0.742 41.894
