! AVX Thin Film Operation		Date: April 2012 
! Description: Accu-P® Series, Thin Film, SMD, RF Capacitor
! Part Number: 12101J2R9QBTTR					
!	100	MHz	-	20.05	GHz			
!	Serial	Measurements						
!								
#	MHZ	S	MA	R	50			
!	S11	S21	S12	S22				
!	dB	Phase	dB	Phase	dB	Phase	dB	Phase
50 0.996 -5.207 0.091 84.717 0.091 84.717 0.996 -5.207
100 0.983 -10.336 0.179 79.568 0.179 79.568 0.983 -10.336
150 0.964 -15.319 0.264 74.565 0.264 74.565 0.964 -15.319
200 0.938 -20.097 0.344 69.767 0.344 69.767 0.938 -20.097
250 0.908 -24.629 0.417 65.215 0.417 65.215 0.908 -24.629
300 0.874 -28.888 0.483 60.935 0.483 60.935 0.874 -28.888
350 0.838 -32.862 0.543 56.942 0.543 56.942 0.838 -32.862
400 0.801 -36.548 0.596 53.234 0.596 53.234 0.801 -36.548
450 0.764 -39.956 0.642 49.805 0.642 49.805 0.764 -39.956
500 0.727 -43.098 0.683 46.641 0.683 46.641 0.727 -43.098
550 0.691 -45.992 0.719 43.725 0.719 43.725 0.691 -45.992
600 0.657 -48.657 0.751 41.037 0.751 41.037 0.657 -48.657
650 0.623 -51.112 0.778 38.559 0.778 38.559 0.623 -51.112
700 0.592 -53.376 0.803 36.271 0.803 36.271 0.592 -53.376
750 0.561 -55.467 0.824 34.155 0.824 34.155 0.561 -55.467
800 0.533 -57.401 0.842 32.195 0.842 32.195 0.533 -57.401
850 0.506 -59.194 0.859 30.376 0.859 30.376 0.506 -59.194
900 0.48 -60.86 0.873 28.683 0.873 28.683 0.48 -60.86
950 0.456 -62.41 0.886 27.105 0.886 27.105 0.456 -62.41
1000 0.433 -63.856 0.898 25.629 0.898 25.629 0.433 -63.856
1050 0.411 -65.208 0.908 24.247 0.908 24.247 0.411 -65.208
1100 0.39 -66.474 0.917 22.949 0.917 22.949 0.39 -66.474
1150 0.37 -67.662 0.925 21.727 0.925 21.727 0.37 -67.662
1200 0.351 -68.78 0.932 20.574 0.932 20.574 0.351 -68.78
1250 0.334 -69.832 0.939 19.485 0.939 19.485 0.334 -69.832
1300 0.317 -70.826 0.945 18.453 0.945 18.453 0.317 -70.826
1350 0.3 -71.764 0.95 17.473 0.95 17.473 0.3 -71.764
1400 0.285 -72.653 0.955 16.541 0.955 16.541 0.285 -72.653
1450 0.27 -73.495 0.959 15.652 0.959 15.652 0.27 -73.495
1500 0.256 -74.294 0.963 14.804 0.963 14.804 0.256 -74.294
1550 0.242 -75.052 0.966 13.993 0.966 13.993 0.242 -75.052
1600 0.229 -75.772 0.969 13.217 0.969 13.217 0.229 -75.772
1650 0.216 -76.457 0.972 12.471 0.972 12.471 0.216 -76.457
1700 0.204 -77.107 0.975 11.755 0.975 11.755 0.204 -77.107
1750 0.192 -77.726 0.977 11.066 0.977 11.066 0.192 -77.726
1800 0.181 -78.312 0.98 10.402 0.98 10.402 0.181 -78.312
1850 0.17 -78.869 0.981 9.761 0.981 9.761 0.17 -78.869
1900 0.159 -79.395 0.983 9.141 0.983 9.141 0.159 -79.395
1950 0.149 -79.891 0.985 8.542 0.985 8.542 0.149 -79.891
2000 0.139 -80.358 0.986 7.962 0.986 7.962 0.139 -80.358
2050 0.129 -80.792 0.988 7.399 0.988 7.399 0.129 -80.792
2100 0.119 -81.194 0.989 6.853 0.989 6.853 0.119 -81.194
2150 0.11 -81.561 0.99 6.322 0.99 6.322 0.11 -81.561
2200 0.101 -81.89 0.991 5.806 0.991 5.806 0.101 -81.89
2250 0.093 -82.174 0.992 5.303 0.992 5.303 0.093 -82.174
2300 0.084 -82.407 0.992 4.813 0.992 4.813 0.084 -82.407
2350 0.076 -82.579 0.993 4.335 0.993 4.335 0.076 -82.579
2400 0.068 -82.674 0.994 3.869 0.994 3.869 0.068 -82.674
2450 0.06 -82.67 0.994 3.414 0.994 3.414 0.06 -82.67
2500 0.052 -82.53 0.995 2.968 0.995 2.968 0.052 -82.53
2550 0.044 -82.195 0.995 2.533 0.995 2.533 0.044 -82.195
2600 0.037 -81.562 0.995 2.106 0.995 2.106 0.037 -81.562
2650 0.03 -80.43 0.995 1.688 0.995 1.688 0.03 -80.43
2700 0.023 -78.361 0.996 1.278 0.996 1.278 0.023 -78.361
2750 0.016 -74.194 0.996 0.877 0.996 0.877 0.016 -74.194
2800 9.351e-3 -63.656 0.996 0.482 0.996 0.482 9.351e-3 -63.656
2850 4.402e-3 -21.984 0.996 0.095 0.996 0.095 4.402e-3 -21.984
2900 6.443e-3 50.436 0.996 -0.286 0.996 -0.286 6.443e-3 50.436
2950 0.012 69.837 0.996 -0.66 0.996 -0.66 0.012 69.837
3000 0.018 76.162 0.996 -1.028 0.996 -1.028 0.018 76.162
3050 0.025 79.065 0.996 -1.39 0.996 -1.39 0.025 79.065
3100 0.031 80.631 0.995 -1.746 0.995 -1.746 0.031 80.631
3150 0.037 81.545 0.995 -2.097 0.995 -2.097 0.037 81.545
3200 0.043 82.093 0.995 -2.443 0.995 -2.443 0.043 82.093
3250 0.049 82.418 0.995 -2.784 0.995 -2.784 0.049 82.418
3300 0.055 82.597 0.994 -3.12 0.994 -3.12 0.055 82.597
3350 0.06 82.675 0.994 -3.452 0.994 -3.452 0.06 82.675
3400 0.066 82.682 0.994 -3.779 0.994 -3.779 0.066 82.682
3450 0.072 82.637 0.993 -4.102 0.993 -4.102 0.072 82.637
3500 0.077 82.553 0.993 -4.421 0.993 -4.421 0.077 82.553
3550 0.083 82.439 0.993 -4.737 0.993 -4.737 0.083 82.439
3600 0.088 82.302 0.992 -5.048 0.992 -5.048 0.088 82.302
3650 0.093 82.146 0.992 -5.356 0.992 -5.356 0.093 82.146
3700 0.099 81.976 0.991 -5.66 0.991 -5.66 0.099 81.976
3750 0.104 81.794 0.991 -5.961 0.991 -5.961 0.104 81.794
3800 0.109 81.604 0.99 -6.258 0.99 -6.258 0.109 81.604
3850 0.114 81.405 0.989 -6.553 0.989 -6.553 0.114 81.405
3900 0.119 81.201 0.989 -6.844 0.989 -6.844 0.119 81.201
3950 0.124 80.991 0.988 -7.132 0.988 -7.132 0.124 80.991
4000 0.129 80.778 0.988 -7.418 0.988 -7.418 0.129 80.778
4050 0.134 80.562 0.987 -7.701 0.987 -7.701 0.134 80.562
4100 0.139 80.343 0.986 -7.981 0.986 -7.981 0.139 80.343
4150 0.144 80.121 0.986 -8.258 0.986 -8.258 0.144 80.121
4200 0.148 79.899 0.985 -8.533 0.985 -8.533 0.148 79.899
4250 0.153 79.675 0.984 -8.806 0.984 -8.806 0.153 79.675
4300 0.158 79.45 0.983 -9.076 0.983 -9.076 0.158 79.45
4350 0.162 79.225 0.983 -9.344 0.983 -9.344 0.162 79.225
4400 0.167 78.999 0.982 -9.609 0.982 -9.609 0.167 78.999
4450 0.172 78.773 0.981 -9.872 0.981 -9.872 0.172 78.773
4500 0.176 78.546 0.98 -10.133 0.98 -10.133 0.176 78.546
4550 0.18 78.32 0.98 -10.393 0.98 -10.393 0.18 78.32
4600 0.185 78.094 0.979 -10.65 0.979 -10.65 0.185 78.094
4650 0.189 77.869 0.978 -10.905 0.978 -10.905 0.189 77.869
4700 0.194 77.644 0.977 -11.158 0.977 -11.158 0.194 77.644
4750 0.198 77.419 0.976 -11.409 0.976 -11.409 0.198 77.419
4800 0.202 77.195 0.975 -11.658 0.975 -11.658 0.202 77.195
4850 0.206 76.971 0.974 -11.906 0.974 -11.906 0.206 76.971
4900 0.211 76.748 0.974 -12.152 0.974 -12.152 0.211 76.748
4950 0.215 76.526 0.973 -12.396 0.973 -12.396 0.215 76.526
5000 0.219 76.304 0.972 -12.638 0.972 -12.638 0.219 76.304
5050 0.223 76.083 0.971 -12.879 0.971 -12.879 0.223 76.083
5100 0.227 75.863 0.97 -13.118 0.97 -13.118 0.227 75.863
5150 0.231 75.644 0.969 -13.355 0.969 -13.355 0.231 75.644
5200 0.235 75.425 0.968 -13.591 0.968 -13.591 0.235 75.425
5250 0.239 75.208 0.967 -13.826 0.967 -13.826 0.239 75.208
5300 0.243 74.991 0.966 -14.059 0.966 -14.059 0.243 74.991
5350 0.247 74.775 0.965 -14.29 0.965 -14.29 0.247 74.775
5400 0.251 74.56 0.964 -14.52 0.964 -14.52 0.251 74.56
5450 0.255 74.345 0.963 -14.749 0.963 -14.749 0.255 74.345
5500 0.258 74.132 0.962 -14.976 0.962 -14.976 0.258 74.132
5550 0.262 73.919 0.961 -15.202 0.961 -15.202 0.262 73.919
5600 0.266 73.708 0.96 -15.427 0.96 -15.427 0.266 73.708
5650 0.27 73.497 0.959 -15.65 0.959 -15.65 0.27 73.497
5700 0.274 73.287 0.958 -15.872 0.958 -15.872 0.274 73.287
5750 0.277 73.078 0.957 -16.093 0.957 -16.093 0.277 73.078
5800 0.281 72.87 0.956 -16.312 0.956 -16.312 0.281 72.87
5850 0.285 72.662 0.955 -16.531 0.955 -16.531 0.285 72.662
5900 0.288 72.456 0.954 -16.748 0.954 -16.748 0.288 72.456
5950 0.292 72.25 0.952 -16.963 0.952 -16.963 0.292 72.25
6000 0.295 72.046 0.951 -17.178 0.951 -17.178 0.295 72.046
6050 0.299 71.842 0.95 -17.392 0.95 -17.392 0.299 71.842
6100 0.302 71.639 0.949 -17.604 0.949 -17.604 0.302 71.639
6150 0.306 71.437 0.948 -17.815 0.948 -17.815 0.306 71.437
6200 0.309 71.235 0.947 -18.025 0.947 -18.025 0.309 71.235
6250 0.313 71.035 0.946 -18.234 0.946 -18.234 0.313 71.035
6300 0.316 70.835 0.945 -18.442 0.945 -18.442 0.316 70.835
6350 0.32 70.637 0.944 -18.649 0.944 -18.649 0.32 70.637
6400 0.323 70.439 0.942 -18.855 0.942 -18.855 0.323 70.439
6450 0.327 70.242 0.941 -19.06 0.941 -19.06 0.327 70.242
6500 0.33 70.045 0.94 -19.264 0.94 -19.264 0.33 70.045
6550 0.333 69.85 0.939 -19.466 0.939 -19.466 0.333 69.85
6600 0.337 69.655 0.938 -19.668 0.938 -19.668 0.337 69.655
6650 0.34 69.462 0.937 -19.869 0.937 -19.869 0.34 69.462
6700 0.343 69.269 0.935 -20.069 0.935 -20.069 0.343 69.269
6750 0.346 69.077 0.934 -20.268 0.934 -20.268 0.346 69.077
6800 0.35 68.885 0.933 -20.465 0.933 -20.465 0.35 68.885
6850 0.353 68.695 0.932 -20.662 0.932 -20.662 0.353 68.695
6900 0.356 68.505 0.931 -20.858 0.931 -20.858 0.356 68.505
6950 0.359 68.316 0.929 -21.053 0.929 -21.053 0.359 68.316
7000 0.362 68.128 0.928 -21.247 0.928 -21.247 0.362 68.128
7050 0.366 67.94 0.927 -21.441 0.927 -21.441 0.366 67.94
7100 0.369 67.753 0.926 -21.633 0.926 -21.633 0.369 67.753
7150 0.372 67.567 0.924 -21.825 0.924 -21.825 0.372 67.567
7200 0.375 67.382 0.923 -22.015 0.923 -22.015 0.375 67.382
7250 0.378 67.198 0.922 -22.205 0.922 -22.205 0.378 67.198
7300 0.381 67.014 0.921 -22.394 0.921 -22.394 0.381 67.014
7350 0.384 66.831 0.919 -22.582 0.919 -22.582 0.384 66.831
7400 0.387 66.649 0.918 -22.769 0.918 -22.769 0.387 66.649
7450 0.39 66.468 0.917 -22.955 0.917 -22.955 0.39 66.468
7500 0.393 66.287 0.916 -23.14 0.916 -23.14 0.393 66.287
7550 0.396 66.107 0.914 -23.325 0.914 -23.325 0.396 66.107
7600 0.399 65.928 0.913 -23.509 0.913 -23.509 0.399 65.928
7650 0.402 65.75 0.912 -23.692 0.912 -23.692 0.402 65.75
7700 0.405 65.572 0.911 -23.874 0.911 -23.874 0.405 65.572
7750 0.408 65.395 0.909 -24.055 0.909 -24.055 0.408 65.395
7800 0.411 65.218 0.908 -24.236 0.908 -24.236 0.411 65.218
7850 0.413 65.043 0.907 -24.416 0.907 -24.416 0.413 65.043
7900 0.416 64.868 0.905 -24.595 0.905 -24.595 0.416 64.868
7950 0.419 64.694 0.904 -24.773 0.904 -24.773 0.419 64.694
8000 0.422 64.52 0.903 -24.951 0.903 -24.951 0.422 64.52
8050 0.425 64.347 0.901 -25.127 0.901 -25.127 0.425 64.347
8100 0.427 64.175 0.9 -25.303 0.9 -25.303 0.427 64.175
8150 0.43 64.004 0.899 -25.479 0.899 -25.479 0.43 64.004
8200 0.433 63.833 0.898 -25.653 0.898 -25.653 0.433 63.833
8250 0.436 63.663 0.896 -25.827 0.896 -25.827 0.436 63.663
8300 0.438 63.493 0.895 -26 0.895 -26 0.438 63.493
8350 0.441 63.324 0.894 -26.172 0.894 -26.172 0.441 63.324
8400 0.444 63.156 0.892 -26.344 0.892 -26.344 0.444 63.156
8450 0.446 62.989 0.891 -26.515 0.891 -26.515 0.446 62.989
8500 0.449 62.822 0.89 -26.685 0.89 -26.685 0.449 62.822
8550 0.452 62.656 0.888 -26.854 0.888 -26.854 0.452 62.656
8600 0.454 62.49 0.887 -27.023 0.887 -27.023 0.454 62.49
8650 0.457 62.326 0.886 -27.191 0.886 -27.191 0.457 62.326
8700 0.46 62.161 0.884 -27.358 0.884 -27.358 0.46 62.161
8750 0.462 61.998 0.883 -27.525 0.883 -27.525 0.462 61.998
8800 0.465 61.835 0.882 -27.691 0.882 -27.691 0.465 61.835
8850 0.467 61.673 0.88 -27.856 0.88 -27.856 0.467 61.673
8900 0.47 61.511 0.879 -28.02 0.879 -28.02 0.47 61.511
8950 0.472 61.35 0.878 -28.184 0.878 -28.184 0.472 61.35
9000 0.475 61.19 0.876 -28.347 0.876 -28.347 0.475 61.19
9050 0.477 61.03 0.875 -28.51 0.875 -28.51 0.477 61.03
9100 0.48 60.871 0.874 -28.672 0.874 -28.672 0.48 60.871
9150 0.482 60.712 0.872 -28.833 0.872 -28.833 0.482 60.712
9200 0.485 60.555 0.871 -28.994 0.871 -28.994 0.485 60.555
9250 0.487 60.397 0.869 -29.154 0.869 -29.154 0.487 60.397
9300 0.49 60.241 0.868 -29.313 0.868 -29.313 0.49 60.241
9350 0.492 60.085 0.867 -29.472 0.867 -29.472 0.492 60.085
9400 0.494 59.929 0.865 -29.629 0.865 -29.629 0.494 59.929
9450 0.497 59.774 0.864 -29.787 0.864 -29.787 0.497 59.774
9500 0.499 59.62 0.863 -29.944 0.863 -29.944 0.499 59.62
9550 0.502 59.466 0.861 -30.1 0.861 -30.1 0.502 59.466
9600 0.504 59.313 0.86 -30.255 0.86 -30.255 0.504 59.313
9650 0.506 59.161 0.859 -30.41 0.859 -30.41 0.506 59.161
9700 0.509 59.009 0.857 -30.564 0.857 -30.564 0.509 59.009
9750 0.511 58.858 0.856 -30.718 0.856 -30.718 0.511 58.858
9800 0.513 58.707 0.855 -30.871 0.855 -30.871 0.513 58.707
9850 0.515 58.557 0.853 -31.023 0.853 -31.023 0.515 58.557
9900 0.518 58.407 0.852 -31.175 0.852 -31.175 0.518 58.407
9950 0.52 58.258 0.85 -31.326 0.85 -31.326 0.52 58.258
10000 0.522 58.11 0.849 -31.477 0.849 -31.477 0.522 58.11
10050 0.524 57.962 0.848 -31.627 0.848 -31.627 0.524 57.962
10100 0.527 57.815 0.846 -31.776 0.846 -31.776 0.527 57.815
10150 0.529 57.668 0.845 -31.925 0.845 -31.925 0.529 57.668
10200 0.531 57.522 0.844 -32.073 0.844 -32.073 0.531 57.522
10250 0.533 57.376 0.842 -32.221 0.842 -32.221 0.533 57.376
10300 0.535 57.231 0.841 -32.368 0.841 -32.368 0.535 57.231
10350 0.538 57.087 0.84 -32.514 0.84 -32.514 0.538 57.087
10400 0.54 56.943 0.838 -32.66 0.838 -32.66 0.54 56.943
10450 0.542 56.8 0.837 -32.805 0.837 -32.805 0.542 56.8
10500 0.544 56.657 0.835 -32.95 0.835 -32.95 0.544 56.657
10550 0.546 56.515 0.834 -33.094 0.834 -33.094 0.546 56.515
10600 0.548 56.373 0.833 -33.238 0.833 -33.238 0.548 56.373
10650 0.55 56.232 0.831 -33.381 0.831 -33.381 0.55 56.232
10700 0.552 56.091 0.83 -33.523 0.83 -33.523 0.552 56.091
10750 0.554 55.951 0.829 -33.665 0.829 -33.665 0.554 55.951
10800 0.556 55.811 0.827 -33.806 0.827 -33.806 0.556 55.811
10850 0.558 55.672 0.826 -33.947 0.826 -33.947 0.558 55.672
10900 0.56 55.534 0.824 -34.087 0.824 -34.087 0.56 55.534
10950 0.562 55.396 0.823 -34.227 0.823 -34.227 0.562 55.396
11000 0.564 55.258 0.822 -34.366 0.822 -34.366 0.564 55.258
11050 0.566 55.121 0.82 -34.505 0.82 -34.505 0.566 55.121
11100 0.568 54.985 0.819 -34.643 0.819 -34.643 0.568 54.985
11150 0.57 54.849 0.818 -34.781 0.818 -34.781 0.57 54.849
11200 0.572 54.714 0.816 -34.918 0.816 -34.918 0.572 54.714
11250 0.574 54.579 0.815 -35.054 0.815 -35.054 0.574 54.579
11300 0.576 54.445 0.814 -35.19 0.814 -35.19 0.576 54.445
11350 0.578 54.311 0.812 -35.326 0.812 -35.326 0.578 54.311
11400 0.58 54.177 0.811 -35.46 0.811 -35.46 0.58 54.177
11450 0.582 54.044 0.809 -35.595 0.809 -35.595 0.582 54.044
11500 0.584 53.912 0.808 -35.729 0.808 -35.729 0.584 53.912
11550 0.586 53.78 0.807 -35.862 0.807 -35.862 0.586 53.78
11600 0.588 53.649 0.805 -35.995 0.805 -35.995 0.588 53.649
11650 0.59 53.518 0.804 -36.127 0.804 -36.127 0.59 53.518
11700 0.591 53.388 0.803 -36.259 0.803 -36.259 0.591 53.388
11750 0.593 53.258 0.801 -36.39 0.801 -36.39 0.593 53.258
11800 0.595 53.129 0.8 -36.521 0.8 -36.521 0.595 53.129
11850 0.597 53 0.799 -36.651 0.799 -36.651 0.597 53
11900 0.599 52.871 0.797 -36.781 0.797 -36.781 0.599 52.871
11950 0.601 52.743 0.796 -36.91 0.796 -36.91 0.601 52.743
12000 0.602 52.616 0.795 -37.039 0.795 -37.039 0.602 52.616
12050 0.604 52.489 0.793 -37.168 0.793 -37.168 0.604 52.489
12100 0.606 52.363 0.792 -37.295 0.792 -37.295 0.606 52.363
12150 0.608 52.237 0.791 -37.423 0.791 -37.423 0.608 52.237
12200 0.609 52.111 0.789 -37.55 0.789 -37.55 0.609 52.111
12250 0.611 51.986 0.788 -37.676 0.788 -37.676 0.611 51.986
12300 0.613 51.861 0.787 -37.802 0.787 -37.802 0.613 51.861
12350 0.615 51.737 0.785 -37.927 0.785 -37.927 0.615 51.737
12400 0.616 51.614 0.784 -38.052 0.784 -38.052 0.616 51.614
12450 0.618 51.491 0.783 -38.176 0.783 -38.176 0.618 51.491
12500 0.62 51.368 0.781 -38.3 0.781 -38.3 0.62 51.368
12550 0.621 51.246 0.78 -38.424 0.78 -38.424 0.621 51.246
12600 0.623 51.124 0.779 -38.547 0.779 -38.547 0.623 51.124
12650 0.625 51.003 0.777 -38.669 0.777 -38.669 0.625 51.003
12700 0.626 50.882 0.776 -38.792 0.776 -38.792 0.626 50.882
12750 0.628 50.761 0.775 -38.913 0.775 -38.913 0.628 50.761
12800 0.63 50.641 0.773 -39.034 0.773 -39.034 0.63 50.641
12850 0.631 50.522 0.772 -39.155 0.772 -39.155 0.631 50.522
12900 0.633 50.403 0.771 -39.275 0.771 -39.275 0.633 50.403
12950 0.635 50.284 0.769 -39.395 0.769 -39.395 0.635 50.284
13000 0.636 50.166 0.768 -39.514 0.768 -39.514 0.636 50.166
13050 0.638 50.048 0.767 -39.633 0.767 -39.633 0.638 50.048
13100 0.639 49.931 0.765 -39.752 0.765 -39.752 0.639 49.931
13150 0.641 49.814 0.764 -39.87 0.764 -39.87 0.641 49.814
13200 0.643 49.697 0.763 -39.987 0.763 -39.987 0.643 49.697
13250 0.644 49.581 0.761 -40.104 0.761 -40.104 0.644 49.581
13300 0.646 49.466 0.76 -40.221 0.76 -40.221 0.646 49.466
13350 0.647 49.351 0.759 -40.337 0.759 -40.337 0.647 49.351
13400 0.649 49.236 0.757 -40.453 0.757 -40.453 0.649 49.236
13450 0.65 49.122 0.756 -40.568 0.756 -40.568 0.65 49.122
13500 0.652 49.008 0.755 -40.683 0.755 -40.683 0.652 49.008
13550 0.653 48.894 0.754 -40.798 0.754 -40.798 0.653 48.894
13600 0.655 48.781 0.752 -40.912 0.752 -40.912 0.655 48.781
13650 0.656 48.669 0.751 -41.025 0.751 -41.025 0.656 48.669
13700 0.658 48.557 0.75 -41.138 0.75 -41.138 0.658 48.557
13750 0.659 48.445 0.748 -41.251 0.748 -41.251 0.659 48.445
13800 0.661 48.334 0.747 -41.364 0.747 -41.364 0.661 48.334
13850 0.662 48.223 0.746 -41.475 0.746 -41.475 0.662 48.223
13900 0.664 48.112 0.744 -41.587 0.744 -41.587 0.664 48.112
13950 0.665 48.002 0.743 -41.698 0.743 -41.698 0.665 48.002
14000 0.667 47.892 0.742 -41.809 0.742 -41.809 0.667 47.892
14050 0.668 47.783 0.741 -41.919 0.741 -41.919 0.668 47.783
14100 0.67 47.674 0.739 -42.029 0.739 -42.029 0.67 47.674
14150 0.671 47.566 0.738 -42.138 0.738 -42.138 0.671 47.566
14200 0.672 47.457 0.737 -42.247 0.737 -42.247 0.672 47.457
14250 0.674 47.35 0.736 -42.356 0.736 -42.356 0.674 47.35
14300 0.675 47.242 0.734 -42.464 0.734 -42.464 0.675 47.242
14350 0.677 47.136 0.733 -42.572 0.733 -42.572 0.677 47.136
14400 0.678 47.029 0.732 -42.679 0.732 -42.679 0.678 47.029
14450 0.679 46.923 0.73 -42.786 0.73 -42.786 0.679 46.923
14500 0.681 46.817 0.729 -42.893 0.729 -42.893 0.681 46.817
14550 0.682 46.712 0.728 -42.999 0.728 -42.999 0.682 46.712
14600 0.683 46.607 0.727 -43.105 0.727 -43.105 0.683 46.607
14650 0.685 46.502 0.725 -43.21 0.725 -43.21 0.685 46.502
14700 0.686 46.398 0.724 -43.315 0.724 -43.315 0.686 46.398
14750 0.687 46.294 0.723 -43.42 0.723 -43.42 0.687 46.294
14800 0.689 46.191 0.722 -43.524 0.722 -43.524 0.689 46.191
14850 0.69 46.088 0.72 -43.628 0.72 -43.628 0.69 46.088
14900 0.691 45.985 0.719 -43.732 0.719 -43.732 0.691 45.985
14950 0.693 45.883 0.718 -43.835 0.718 -43.835 0.693 45.883
15000 0.694 45.781 0.717 -43.938 0.717 -43.938 0.694 45.781
15050 0.695 45.679 0.715 -44.04 0.715 -44.04 0.695 45.679
15100 0.696 45.578 0.714 -44.142 0.714 -44.142 0.696 45.578
15150 0.698 45.478 0.713 -44.244 0.713 -44.244 0.698 45.478
15200 0.699 45.377 0.712 -44.345 0.712 -44.345 0.699 45.377
15250 0.7 45.277 0.711 -44.446 0.711 -44.446 0.7 45.277
15300 0.701 45.177 0.709 -44.546 0.709 -44.546 0.701 45.177
15350 0.703 45.078 0.708 -44.646 0.708 -44.646 0.703 45.078
15400 0.704 44.979 0.707 -44.746 0.707 -44.746 0.704 44.979
15450 0.705 44.88 0.706 -44.845 0.706 -44.845 0.705 44.88
15500 0.706 44.782 0.704 -44.944 0.704 -44.944 0.706 44.782
15550 0.708 44.684 0.703 -45.043 0.703 -45.043 0.708 44.684
15600 0.709 44.587 0.702 -45.141 0.702 -45.141 0.709 44.587
15650 0.71 44.489 0.701 -45.239 0.701 -45.239 0.71 44.489
15700 0.711 44.393 0.7 -45.337 0.7 -45.337 0.711 44.393
15750 0.712 44.296 0.698 -45.434 0.698 -45.434 0.712 44.296
15800 0.714 44.2 0.697 -45.531 0.697 -45.531 0.714 44.2
15850 0.715 44.104 0.696 -45.628 0.696 -45.628 0.715 44.104
15900 0.716 44.009 0.695 -45.724 0.695 -45.724 0.716 44.009
15950 0.717 43.914 0.694 -45.82 0.694 -45.82 0.717 43.914
16000 0.718 43.819 0.692 -45.915 0.692 -45.915 0.718 43.819
16050 0.719 43.724 0.691 -46.01 0.691 -46.01 0.719 43.724
16100 0.721 43.63 0.69 -46.105 0.69 -46.105 0.721 43.63
16150 0.722 43.537 0.689 -46.199 0.689 -46.199 0.722 43.537
16200 0.723 43.443 0.688 -46.294 0.688 -46.294 0.723 43.443
16250 0.724 43.35 0.686 -46.387 0.686 -46.387 0.724 43.35
16300 0.725 43.257 0.685 -46.481 0.685 -46.481 0.725 43.257
16350 0.726 43.165 0.684 -46.574 0.684 -46.574 0.726 43.165
16400 0.727 43.073 0.683 -46.667 0.683 -46.667 0.727 43.073
16450 0.728 42.981 0.682 -46.759 0.682 -46.759 0.728 42.981
16500 0.73 42.89 0.681 -46.851 0.681 -46.851 0.73 42.89
16550 0.731 42.799 0.679 -46.943 0.679 -46.943 0.731 42.799
16600 0.732 42.708 0.678 -47.034 0.678 -47.034 0.732 42.708
16650 0.733 42.617 0.677 -47.125 0.677 -47.125 0.733 42.617
16700 0.734 42.527 0.676 -47.216 0.676 -47.216 0.734 42.527
16750 0.735 42.437 0.675 -47.307 0.675 -47.307 0.735 42.437
16800 0.736 42.348 0.674 -47.397 0.674 -47.397 0.736 42.348
16850 0.737 42.259 0.672 -47.486 0.672 -47.486 0.737 42.259
16900 0.738 42.17 0.671 -47.576 0.671 -47.576 0.738 42.17
