! AVX Thin Film Operation		Date: April 2012 
! Description: Accu-P® Series, Thin Film, SMD, RF Capacitor
! Part Number: 12101J430FBTTR					
!	50	MHz	-	20.05	GHz			
!	Serial	Measurements						
!								
#	MHZ	S	MA	R	50			
!	S11	S21	S12	S22				
!	dB	Phase	dB	Phase	dB	Phase	dB	Phase
50 0.593 -53.53 0.804 36.342 0.804 36.342 0.593 -53.53
100 0.341 -69.849 0.939 19.949 0.939 19.949 0.341 -69.849
150 0.23 -76.417 0.972 13.302 0.972 13.302 0.23 -76.417
200 0.169 -79.902 0.985 9.73 0.985 9.73 0.169 -79.902
250 0.13 -82.062 0.99 7.473 0.99 7.473 0.13 -82.062
300 0.103 -83.53 0.994 5.891 0.994 5.891 0.103 -83.53
350 0.082 -84.582 0.996 4.7 0.996 4.7 0.082 -84.582
400 0.066 -85.353 0.997 3.757 0.997 3.757 0.066 -85.353
450 0.052 -85.905 0.998 2.98 0.998 2.98 0.052 -85.905
500 0.04 -86.255 0.998 2.319 0.998 2.319 0.04 -86.255
550 0.03 -86.365 0.999 1.743 0.999 1.743 0.03 -86.365
600 0.021 -86.096 0.999 1.23 0.999 1.23 0.021 -86.096
650 0.013 -84.956 0.999 0.767 0.999 0.767 0.013 -84.956
700 6.064e-3 -80.159 0.999 0.343 0.999 0.343 6.064e-3 -80.159
750 1.337e-3 41.494 0.999 -0.051 0.999 -0.051 1.337e-3 41.494
800 7.382e-3 81.79 0.999 -0.419 0.999 -0.419 7.382e-3 81.79
850 0.013 84.953 0.999 -0.766 0.999 -0.766 0.013 84.953
900 0.019 85.906 0.999 -1.097 0.999 -1.097 0.019 85.906
950 0.025 86.257 0.999 -1.412 0.999 -1.412 0.025 86.257
1000 0.03 86.363 0.999 -1.715 0.999 -1.715 0.03 86.363
1050 0.035 86.348 0.998 -2.007 0.998 -2.007 0.035 86.348
1100 0.04 86.266 0.998 -2.29 0.998 -2.29 0.04 86.266
1150 0.045 86.143 0.998 -2.565 0.998 -2.565 0.045 86.143
1200 0.049 85.995 0.998 -2.833 0.998 -2.833 0.049 85.995
1250 0.054 85.831 0.998 -3.095 0.998 -3.095 0.054 85.831
1300 0.058 85.655 0.997 -3.351 0.997 -3.351 0.058 85.655
1350 0.063 85.471 0.997 -3.602 0.997 -3.602 0.063 85.471
1400 0.067 85.282 0.997 -3.849 0.997 -3.849 0.067 85.282
1450 0.071 85.089 0.996 -4.091 0.996 -4.091 0.071 85.089
1500 0.076 84.893 0.996 -4.33 0.996 -4.33 0.076 84.893
1550 0.08 84.696 0.996 -4.566 0.996 -4.566 0.08 84.696
1600 0.084 84.497 0.995 -4.799 0.995 -4.799 0.084 84.497
1650 0.088 84.298 0.995 -5.029 0.995 -5.029 0.088 84.298
1700 0.092 84.098 0.995 -5.257 0.995 -5.257 0.092 84.098
1750 0.096 83.898 0.994 -5.482 0.994 -5.482 0.096 83.898
1800 0.099 83.697 0.994 -5.705 0.994 -5.705 0.099 83.697
1850 0.103 83.497 0.994 -5.926 0.994 -5.926 0.103 83.497
1900 0.107 83.297 0.993 -6.146 0.993 -6.146 0.107 83.297
1950 0.111 83.097 0.993 -6.363 0.993 -6.363 0.111 83.097
2000 0.115 82.897 0.992 -6.579 0.992 -6.579 0.115 82.897
2050 0.118 82.698 0.992 -6.794 0.992 -6.794 0.118 82.698
2100 0.122 82.499 0.991 -7.007 0.991 -7.007 0.122 82.499
2150 0.126 82.301 0.991 -7.219 0.991 -7.219 0.126 82.301
2200 0.129 82.103 0.991 -7.43 0.991 -7.43 0.129 82.103
2250 0.133 81.905 0.99 -7.639 0.99 -7.639 0.133 81.905
2300 0.137 81.708 0.99 -7.847 0.99 -7.847 0.137 81.708
2350 0.14 81.511 0.989 -8.054 0.989 -8.054 0.14 81.511
2400 0.144 81.314 0.989 -8.261 0.989 -8.261 0.144 81.314
2450 0.147 81.118 0.988 -8.466 0.988 -8.466 0.147 81.118
2500 0.151 80.923 0.988 -8.67 0.988 -8.67 0.151 80.923
2550 0.154 80.728 0.987 -8.874 0.987 -8.874 0.154 80.728
2600 0.158 80.533 0.986 -9.076 0.986 -9.076 0.158 80.533
2650 0.161 80.339 0.986 -9.278 0.986 -9.278 0.161 80.339
2700 0.165 80.145 0.985 -9.479 0.985 -9.479 0.165 80.145
2750 0.168 79.952 0.985 -9.679 0.985 -9.679 0.168 79.952
2800 0.172 79.759 0.984 -9.879 0.984 -9.879 0.172 79.759
2850 0.175 79.567 0.983 -10.077 0.983 -10.077 0.175 79.567
2900 0.178 79.374 0.983 -10.275 0.983 -10.275 0.178 79.374
2950 0.182 79.183 0.982 -10.473 0.982 -10.473 0.182 79.183
3000 0.185 78.992 0.982 -10.67 0.982 -10.67 0.185 78.992
3050 0.189 78.801 0.981 -10.866 0.981 -10.866 0.189 78.801
3100 0.192 78.61 0.98 -11.061 0.98 -11.061 0.192 78.61
3150 0.195 78.42 0.98 -11.256 0.98 -11.256 0.195 78.42
3200 0.199 78.231 0.979 -11.451 0.979 -11.451 0.199 78.231
3250 0.202 78.042 0.978 -11.644 0.978 -11.644 0.202 78.042
3300 0.205 77.853 0.978 -11.837 0.978 -11.837 0.205 77.853
3350 0.208 77.665 0.977 -12.03 0.977 -12.03 0.208 77.665
3400 0.212 77.477 0.976 -12.222 0.976 -12.222 0.212 77.477
3450 0.215 77.289 0.976 -12.414 0.976 -12.414 0.215 77.289
3500 0.218 77.102 0.975 -12.605 0.975 -12.605 0.218 77.102
3550 0.221 76.915 0.974 -12.795 0.974 -12.795 0.221 76.915
3600 0.225 76.729 0.973 -12.985 0.973 -12.985 0.225 76.729
3650 0.228 76.543 0.973 -13.175 0.973 -13.175 0.228 76.543
3700 0.231 76.357 0.972 -13.364 0.972 -13.364 0.231 76.357
3750 0.234 76.172 0.971 -13.552 0.971 -13.552 0.234 76.172
3800 0.238 75.987 0.97 -13.74 0.97 -13.74 0.238 75.987
3850 0.241 75.803 0.969 -13.927 0.969 -13.927 0.241 75.803
3900 0.244 75.619 0.969 -14.114 0.969 -14.114 0.244 75.619
3950 0.247 75.435 0.968 -14.301 0.968 -14.301 0.247 75.435
4000 0.25 75.252 0.967 -14.487 0.967 -14.487 0.25 75.252
4050 0.253 75.069 0.966 -14.673 0.966 -14.673 0.253 75.069
4100 0.256 74.886 0.965 -14.858 0.965 -14.858 0.256 74.886
4150 0.26 74.704 0.965 -15.042 0.965 -15.042 0.26 74.704
4200 0.263 74.523 0.964 -15.227 0.964 -15.227 0.263 74.523
4250 0.266 74.341 0.963 -15.41 0.963 -15.41 0.266 74.341
4300 0.269 74.16 0.962 -15.594 0.962 -15.594 0.269 74.16
4350 0.272 73.98 0.961 -15.777 0.961 -15.777 0.272 73.98
4400 0.275 73.8 0.96 -15.959 0.96 -15.959 0.275 73.8
4450 0.278 73.62 0.959 -16.141 0.959 -16.141 0.278 73.62
4500 0.281 73.441 0.959 -16.323 0.959 -16.323 0.281 73.441
4550 0.284 73.262 0.958 -16.504 0.958 -16.504 0.284 73.262
4600 0.287 73.083 0.957 -16.684 0.957 -16.684 0.287 73.083
4650 0.29 72.905 0.956 -16.864 0.956 -16.864 0.29 72.905
4700 0.293 72.727 0.955 -17.044 0.955 -17.044 0.293 72.727
4750 0.296 72.55 0.954 -17.223 0.954 -17.223 0.296 72.55
4800 0.299 72.373 0.953 -17.402 0.953 -17.402 0.299 72.373
4850 0.302 72.196 0.952 -17.581 0.952 -17.581 0.302 72.196
4900 0.305 72.02 0.951 -17.759 0.951 -17.759 0.305 72.02
4950 0.308 71.844 0.95 -17.936 0.95 -17.936 0.308 71.844
5000 0.311 71.669 0.949 -18.113 0.949 -18.113 0.311 71.669
5050 0.314 71.494 0.948 -18.29 0.948 -18.29 0.314 71.494
5100 0.317 71.319 0.947 -18.466 0.947 -18.466 0.317 71.319
5150 0.32 71.145 0.946 -18.642 0.946 -18.642 0.32 71.145
5200 0.323 70.971 0.945 -18.818 0.945 -18.818 0.323 70.971
5250 0.325 70.798 0.944 -18.992 0.944 -18.992 0.325 70.798
5300 0.328 70.625 0.943 -19.167 0.943 -19.167 0.328 70.625
5350 0.331 70.452 0.942 -19.341 0.942 -19.341 0.331 70.452
5400 0.334 70.28 0.941 -19.515 0.941 -19.515 0.334 70.28
5450 0.337 70.108 0.94 -19.688 0.94 -19.688 0.337 70.108
5500 0.34 69.937 0.939 -19.861 0.939 -19.861 0.34 69.937
5550 0.343 69.766 0.938 -20.033 0.938 -20.033 0.343 69.766
5600 0.345 69.595 0.937 -20.205 0.937 -20.205 0.345 69.595
5650 0.348 69.425 0.936 -20.376 0.936 -20.376 0.348 69.425
5700 0.351 69.256 0.935 -20.548 0.935 -20.548 0.351 69.256
5750 0.354 69.086 0.934 -20.718 0.934 -20.718 0.354 69.086
5800 0.357 68.917 0.933 -20.888 0.933 -20.888 0.357 68.917
5850 0.359 68.749 0.932 -21.058 0.932 -21.058 0.359 68.749
5900 0.362 68.581 0.931 -21.227 0.931 -21.227 0.362 68.581
5950 0.365 68.413 0.93 -21.396 0.93 -21.396 0.365 68.413
6000 0.368 68.246 0.929 -21.565 0.929 -21.565 0.368 68.246
6050 0.37 68.079 0.928 -21.733 0.928 -21.733 0.37 68.079
6100 0.373 67.912 0.927 -21.9 0.927 -21.9 0.373 67.912
6150 0.376 67.746 0.926 -22.067 0.926 -22.067 0.376 67.746
6200 0.378 67.581 0.924 -22.234 0.924 -22.234 0.378 67.581
6250 0.381 67.415 0.923 -22.4 0.923 -22.4 0.381 67.415
6300 0.384 67.251 0.922 -22.566 0.922 -22.566 0.384 67.251
6350 0.386 67.086 0.921 -22.732 0.921 -22.732 0.386 67.086
6400 0.389 66.922 0.92 -22.897 0.92 -22.897 0.389 66.922
6450 0.392 66.759 0.919 -23.061 0.919 -23.061 0.392 66.759
6500 0.394 66.596 0.918 -23.225 0.918 -23.225 0.394 66.596
6550 0.397 66.433 0.917 -23.389 0.917 -23.389 0.397 66.433
6600 0.4 66.271 0.915 -23.552 0.915 -23.552 0.4 66.271
6650 0.402 66.109 0.914 -23.715 0.914 -23.715 0.402 66.109
6700 0.405 65.947 0.913 -23.877 0.913 -23.877 0.405 65.947
6750 0.407 65.786 0.912 -24.039 0.912 -24.039 0.407 65.786
6800 0.41 65.626 0.911 -24.201 0.911 -24.201 0.41 65.626
6850 0.412 65.466 0.91 -24.362 0.91 -24.362 0.412 65.466
6900 0.415 65.306 0.909 -24.522 0.909 -24.522 0.415 65.306
6950 0.418 65.147 0.907 -24.683 0.907 -24.683 0.418 65.147
7000 0.42 64.988 0.906 -24.842 0.906 -24.842 0.42 64.988
7050 0.423 64.829 0.905 -25.002 0.905 -25.002 0.423 64.829
7100 0.425 64.671 0.904 -25.16 0.904 -25.16 0.425 64.671
7150 0.428 64.513 0.903 -25.319 0.903 -25.319 0.428 64.513
7200 0.43 64.356 0.902 -25.477 0.902 -25.477 0.43 64.356
7250 0.433 64.2 0.9 -25.634 0.9 -25.634 0.433 64.2
7300 0.435 64.043 0.899 -25.792 0.899 -25.792 0.435 64.043
7350 0.438 63.887 0.898 -25.948 0.898 -25.948 0.438 63.887
7400 0.44 63.732 0.897 -26.104 0.897 -26.104 0.44 63.732
7450 0.442 63.577 0.896 -26.26 0.896 -26.26 0.442 63.577
7500 0.445 63.422 0.894 -26.416 0.894 -26.416 0.445 63.422
7550 0.447 63.268 0.893 -26.57 0.893 -26.57 0.447 63.268
7600 0.45 63.114 0.892 -26.725 0.892 -26.725 0.45 63.114
7650 0.452 62.961 0.891 -26.879 0.891 -26.879 0.452 62.961
7700 0.454 62.808 0.889 -27.033 0.889 -27.033 0.454 62.808
7750 0.457 62.655 0.888 -27.186 0.888 -27.186 0.457 62.655
7800 0.459 62.503 0.887 -27.338 0.887 -27.338 0.459 62.503
7850 0.462 62.352 0.886 -27.491 0.886 -27.491 0.462 62.352
7900 0.464 62.201 0.885 -27.643 0.885 -27.643 0.464 62.201
7950 0.466 62.05 0.883 -27.794 0.883 -27.794 0.466 62.05
8000 0.469 61.899 0.882 -27.945 0.882 -27.945 0.469 61.899
8050 0.471 61.75 0.881 -28.096 0.881 -28.096 0.471 61.75
8100 0.473 61.6 0.88 -28.246 0.88 -28.246 0.473 61.6
8150 0.476 61.451 0.878 -28.395 0.878 -28.395 0.476 61.451
8200 0.478 61.302 0.877 -28.544 0.877 -28.544 0.478 61.302
8250 0.48 61.154 0.876 -28.693 0.876 -28.693 0.48 61.154
8300 0.482 61.006 0.875 -28.842 0.875 -28.842 0.482 61.006
8350 0.485 60.859 0.873 -28.989 0.873 -28.989 0.485 60.859
8400 0.487 60.712 0.872 -29.137 0.872 -29.137 0.487 60.712
8450 0.489 60.566 0.871 -29.284 0.871 -29.284 0.489 60.566
8500 0.491 60.42 0.87 -29.431 0.87 -29.431 0.491 60.42
8550 0.494 60.274 0.868 -29.577 0.868 -29.577 0.494 60.274
8600 0.496 60.129 0.867 -29.722 0.867 -29.722 0.496 60.129
8650 0.498 59.984 0.866 -29.868 0.866 -29.868 0.498 59.984
8700 0.5 59.84 0.865 -30.013 0.865 -30.013 0.5 59.84
8750 0.502 59.696 0.863 -30.157 0.863 -30.157 0.502 59.696
8800 0.505 59.553 0.862 -30.301 0.862 -30.301 0.505 59.553
8850 0.507 59.41 0.861 -30.445 0.861 -30.445 0.507 59.41
8900 0.509 59.267 0.86 -30.588 0.86 -30.588 0.509 59.267
8950 0.511 59.125 0.858 -30.73 0.858 -30.73 0.511 59.125
9000 0.513 58.983 0.857 -30.873 0.857 -30.873 0.513 58.983
9050 0.515 58.842 0.856 -31.014 0.856 -31.014 0.515 58.842
9100 0.517 58.701 0.854 -31.156 0.854 -31.156 0.517 58.701
9150 0.519 58.56 0.853 -31.297 0.853 -31.297 0.519 58.56
9200 0.522 58.42 0.852 -31.437 0.852 -31.437 0.522 58.42
9250 0.524 58.281 0.851 -31.577 0.851 -31.577 0.524 58.281
9300 0.526 58.141 0.849 -31.717 0.849 -31.717 0.526 58.141
9350 0.528 58.003 0.848 -31.856 0.848 -31.856 0.528 58.003
9400 0.53 57.864 0.847 -31.995 0.847 -31.995 0.53 57.864
9450 0.532 57.726 0.846 -32.133 0.846 -32.133 0.532 57.726
9500 0.534 57.589 0.844 -32.271 0.844 -32.271 0.534 57.589
9550 0.536 57.452 0.843 -32.409 0.843 -32.409 0.536 57.452
9600 0.538 57.315 0.842 -32.546 0.842 -32.546 0.538 57.315
9650 0.54 57.179 0.84 -32.683 0.84 -32.683 0.54 57.179
9700 0.542 57.043 0.839 -32.819 0.839 -32.819 0.542 57.043
9750 0.544 56.908 0.838 -32.955 0.838 -32.955 0.544 56.908
9800 0.546 56.773 0.837 -33.09 0.837 -33.09 0.546 56.773
9850 0.548 56.638 0.835 -33.225 0.835 -33.225 0.548 56.638
9900 0.55 56.504 0.834 -33.36 0.834 -33.36 0.55 56.504
9950 0.552 56.37 0.833 -33.494 0.833 -33.494 0.552 56.37
10000 0.554 56.237 0.831 -33.627 0.831 -33.627 0.554 56.237
10050 0.556 56.104 0.83 -33.761 0.83 -33.761 0.556 56.104
10100 0.558 55.972 0.829 -33.894 0.829 -33.894 0.558 55.972
10150 0.56 55.84 0.827 -34.026 0.827 -34.026 0.56 55.84
10200 0.561 55.708 0.826 -34.158 0.826 -34.158 0.561 55.708
10250 0.563 55.577 0.825 -34.29 0.825 -34.29 0.563 55.577
10300 0.565 55.446 0.824 -34.421 0.824 -34.421 0.565 55.446
10350 0.567 55.316 0.822 -34.551 0.822 -34.551 0.567 55.316
10400 0.569 55.186 0.821 -34.682 0.821 -34.682 0.569 55.186
10450 0.571 55.056 0.82 -34.812 0.82 -34.812 0.571 55.056
10500 0.573 54.927 0.818 -34.941 0.818 -34.941 0.573 54.927
10550 0.575 54.798 0.817 -35.07 0.817 -35.07 0.575 54.798
10600 0.576 54.67 0.816 -35.199 0.816 -35.199 0.576 54.67
10650 0.578 54.542 0.815 -35.327 0.815 -35.327 0.578 54.542
10700 0.58 54.415 0.813 -35.455 0.813 -35.455 0.58 54.415
10750 0.582 54.287 0.812 -35.583 0.812 -35.583 0.582 54.287
10800 0.584 54.161 0.811 -35.71 0.811 -35.71 0.584 54.161
10850 0.585 54.035 0.809 -35.836 0.809 -35.836 0.585 54.035
10900 0.587 53.909 0.808 -35.962 0.808 -35.962 0.587 53.909
10950 0.589 53.783 0.807 -36.088 0.807 -36.088 0.589 53.783
11000 0.591 53.658 0.805 -36.214 0.805 -36.214 0.591 53.658
11050 0.593 53.533 0.804 -36.339 0.804 -36.339 0.593 53.533
11100 0.594 53.409 0.803 -36.463 0.803 -36.463 0.594 53.409
11150 0.596 53.285 0.802 -36.587 0.802 -36.587 0.596 53.285
11200 0.598 53.162 0.8 -36.711 0.8 -36.711 0.598 53.162
11250 0.6 53.039 0.799 -36.834 0.799 -36.834 0.6 53.039
11300 0.601 52.916 0.798 -36.957 0.798 -36.957 0.601 52.916
11350 0.603 52.794 0.796 -37.08 0.796 -37.08 0.603 52.794
11400 0.605 52.672 0.795 -37.202 0.795 -37.202 0.605 52.672
11450 0.606 52.551 0.794 -37.324 0.794 -37.324 0.606 52.551
11500 0.608 52.43 0.793 -37.445 0.793 -37.445 0.608 52.43
11550 0.61 52.309 0.791 -37.566 0.791 -37.566 0.61 52.309
11600 0.611 52.189 0.79 -37.687 0.79 -37.687 0.611 52.189
11650 0.613 52.069 0.789 -37.807 0.789 -37.807 0.613 52.069
11700 0.615 51.949 0.787 -37.927 0.787 -37.927 0.615 51.949
11750 0.616 51.83 0.786 -38.046 0.786 -38.046 0.616 51.83
11800 0.618 51.711 0.785 -38.165 0.785 -38.165 0.618 51.711
11850 0.62 51.593 0.784 -38.284 0.784 -38.284 0.62 51.593
11900 0.621 51.475 0.782 -38.402 0.782 -38.402 0.621 51.475
11950 0.623 51.358 0.781 -38.52 0.781 -38.52 0.623 51.358
12000 0.624 51.24 0.78 -38.637 0.78 -38.637 0.624 51.24
12050 0.626 51.124 0.779 -38.754 0.779 -38.754 0.626 51.124
12100 0.628 51.007 0.777 -38.871 0.777 -38.871 0.628 51.007
12150 0.629 50.891 0.776 -38.987 0.776 -38.987 0.629 50.891
12200 0.631 50.776 0.775 -39.103 0.775 -39.103 0.631 50.776
12250 0.632 50.66 0.773 -39.219 0.773 -39.219 0.632 50.66
12300 0.634 50.546 0.772 -39.334 0.772 -39.334 0.634 50.546
12350 0.635 50.431 0.771 -39.448 0.771 -39.448 0.635 50.431
12400 0.637 50.317 0.77 -39.563 0.77 -39.563 0.637 50.317
12450 0.638 50.203 0.768 -39.677 0.768 -39.677 0.638 50.203
12500 0.64 50.09 0.767 -39.79 0.767 -39.79 0.64 50.09
12550 0.641 49.977 0.766 -39.904 0.766 -39.904 0.641 49.977
12600 0.643 49.864 0.765 -40.016 0.765 -40.016 0.643 49.864
12650 0.645 49.752 0.763 -40.129 0.763 -40.129 0.645 49.752
12700 0.646 49.64 0.762 -40.241 0.762 -40.241 0.646 49.64
12750 0.647 49.529 0.761 -40.353 0.761 -40.353 0.647 49.529
12800 0.649 49.418 0.759 -40.464 0.759 -40.464 0.649 49.418
12850 0.65 49.307 0.758 -40.575 0.758 -40.575 0.65 49.307
12900 0.652 49.197 0.757 -40.686 0.757 -40.686 0.652 49.197
12950 0.653 49.087 0.756 -40.796 0.756 -40.796 0.653 49.087
13000 0.655 48.977 0.754 -40.906 0.754 -40.906 0.655 48.977
13050 0.656 48.868 0.753 -41.015 0.753 -41.015 0.656 48.868
13100 0.658 48.759 0.752 -41.124 0.752 -41.124 0.658 48.759
13150 0.659 48.65 0.751 -41.233 0.751 -41.233 0.659 48.65
13200 0.661 48.542 0.749 -41.342 0.749 -41.342 0.661 48.542
13250 0.662 48.434 0.748 -41.45 0.748 -41.45 0.662 48.434
13300 0.663 48.327 0.747 -41.557 0.747 -41.557 0.663 48.327
13350 0.665 48.22 0.746 -41.665 0.746 -41.665 0.665 48.22
13400 0.666 48.113 0.744 -41.772 0.744 -41.772 0.666 48.113
13450 0.668 48.007 0.743 -41.878 0.743 -41.878 0.668 48.007
13500 0.669 47.901 0.742 -41.984 0.742 -41.984 0.669 47.901
13550 0.67 47.795 0.741 -42.09 0.741 -42.09 0.67 47.795
13600 0.672 47.69 0.74 -42.196 0.74 -42.196 0.672 47.69
13650 0.673 47.585 0.738 -42.301 0.738 -42.301 0.673 47.585
13700 0.674 47.48 0.737 -42.406 0.737 -42.406 0.674 47.48
13750 0.676 47.376 0.736 -42.51 0.736 -42.51 0.676 47.376
13800 0.677 47.272 0.735 -42.614 0.735 -42.614 0.677 47.272
13850 0.678 47.168 0.733 -42.718 0.733 -42.718 0.678 47.168
13900 0.68 47.065 0.732 -42.822 0.732 -42.822 0.68 47.065
13950 0.681 46.962 0.731 -42.925 0.731 -42.925 0.681 46.962
14000 0.682 46.86 0.73 -43.027 0.73 -43.027 0.682 46.86
14050 0.684 46.758 0.728 -43.13 0.728 -43.13 0.684 46.758
14100 0.685 46.656 0.727 -43.232 0.727 -43.232 0.685 46.656
14150 0.686 46.554 0.726 -43.333 0.726 -43.333 0.686 46.554
14200 0.688 46.453 0.725 -43.435 0.725 -43.435 0.688 46.453
14250 0.689 46.352 0.724 -43.536 0.724 -43.536 0.689 46.352
14300 0.69 46.252 0.722 -43.637 0.722 -43.637 0.69 46.252
14350 0.691 46.152 0.721 -43.737 0.721 -43.737 0.691 46.152
14400 0.693 46.052 0.72 -43.837 0.72 -43.837 0.693 46.052
14450 0.694 45.952 0.719 -43.937 0.719 -43.937 0.694 45.952
14500 0.695 45.853 0.718 -44.036 0.718 -44.036 0.695 45.853
14550 0.696 45.754 0.716 -44.135 0.716 -44.135 0.696 45.754
14600 0.698 45.656 0.715 -44.233 0.715 -44.233 0.698 45.656
14650 0.699 45.558 0.714 -44.332 0.714 -44.332 0.699 45.558
14700 0.7 45.46 0.713 -44.43 0.713 -44.43 0.7 45.46
14750 0.701 45.363 0.712 -44.527 0.712 -44.527 0.701 45.363
14800 0.702 45.265 0.71 -44.625 0.71 -44.625 0.702 45.265
14850 0.704 45.169 0.709 -44.722 0.709 -44.722 0.704 45.169
14900 0.705 45.072 0.708 -44.818 0.708 -44.818 0.705 45.072
14950 0.706 44.976 0.707 -44.915 0.707 -44.915 0.706 44.976
15000 0.707 44.88 0.706 -45.011 0.706 -45.011 0.707 44.88
15050 0.708 44.784 0.704 -45.107 0.704 -45.107 0.708 44.784
15100 0.71 44.689 0.703 -45.202 0.703 -45.202 0.71 44.689
15150 0.711 44.594 0.702 -45.297 0.702 -45.297 0.711 44.594
15200 0.712 44.5 0.701 -45.392 0.701 -45.392 0.712 44.5
15250 0.713 44.406 0.7 -45.486 0.7 -45.486 0.713 44.406
15300 0.714 44.312 0.699 -45.58 0.699 -45.58 0.714 44.312
15350 0.715 44.218 0.697 -45.674 0.697 -45.674 0.715 44.218
15400 0.717 44.125 0.696 -45.768 0.696 -45.768 0.717 44.125
15450 0.718 44.032 0.695 -45.861 0.695 -45.861 0.718 44.032
15500 0.719 43.939 0.694 -45.954 0.694 -45.954 0.719 43.939
15550 0.72 43.847 0.693 -46.046 0.693 -46.046 0.72 43.847
15600 0.721 43.755 0.692 -46.138 0.692 -46.138 0.721 43.755
15650 0.722 43.663 0.69 -46.23 0.69 -46.23 0.722 43.663
15700 0.723 43.571 0.689 -46.322 0.689 -46.322 0.723 43.571
15750 0.724 43.48 0.688 -46.413 0.688 -46.413 0.724 43.48
15800 0.725 43.389 0.687 -46.504 0.687 -46.504 0.725 43.389
15850 0.727 43.299 0.686 -46.595 0.686 -46.595 0.727 43.299
15900 0.728 43.209 0.685 -46.685 0.685 -46.685 0.728 43.209
15950 0.729 43.119 0.684 -46.775 0.684 -46.775 0.729 43.119
16000 0.73 43.029 0.682 -46.865 0.682 -46.865 0.73 43.029
16050 0.731 42.94 0.681 -46.955 0.681 -46.955 0.731 42.94
16100 0.732 42.851 0.68 -47.044 0.68 -47.044 0.732 42.851
16150 0.733 42.762 0.679 -47.133 0.679 -47.133 0.733 42.762
16200 0.734 42.674 0.678 -47.221 0.678 -47.221 0.734 42.674
16250 0.735 42.585 0.677 -47.309 0.677 -47.309 0.735 42.585
16300 0.736 42.498 0.676 -47.397 0.676 -47.397 0.736 42.498
16350 0.737 42.41 0.674 -47.485 0.674 -47.485 0.737 42.41
16400 0.738 42.323 0.673 -47.573 0.673 -47.573 0.738 42.323
16450 0.739 42.236 0.672 -47.66 0.672 -47.66 0.739 42.236
16500 0.74 42.149 0.671 -47.746 0.671 -47.746 0.74 42.149
16550 0.741 42.063 0.67 -47.833 0.67 -47.833 0.741 42.063
16600 0.742 41.977 0.669 -47.919 0.669 -47.919 0.742 41.977
16650 0.743 41.891 0.668 -48.005 0.668 -48.005 0.743 41.891
16700 0.744 41.805 0.667 -48.091 0.667 -48.091 0.744 41.805
16750 0.745 41.72 0.665 -48.176 0.665 -48.176 0.745 41.72
16800 0.746 41.635 0.664 -48.261 0.664 -48.261 0.746 41.635
16850 0.747 41.551 0.663 -48.346 0.663 -48.346 0.747 41.551
16900 0.748 41.466 0.662 -48.431 0.662 -48.431 0.748 41.466
16950 0.749 41.382 0.661 -48.515 0.661 -48.515 0.749 41.382
