! AVX Thin Film Operation		Date: April 2012 
! Description: Accu-P® Series, Thin Film, SMD, RF Capacitor
! Part Number: 12101J360FBTTR					
!	100	MHz	-	20.05	GHz			
!	Serial	Measurements						
!								
#	MHZ	S	MA	R	50			
!	S11	S21	S12	S22				
!	dB	Phase	dB	Phase	dB	Phase	dB	Phase
50 0.661 -48.588 0.75 41.341 0.75 41.341 0.661 -48.588
74.938 0.504 -59.602 0.863 30.292 0.863 30.292 0.504 -59.602
99.875 0.399 -66.335 0.916 23.523 0.916 23.523 0.399 -66.335
124.813 0.326 -70.774 0.944 19.046 0.944 19.046 0.326 -70.774
149.75 0.274 -73.897 0.961 15.886 0.961 15.886 0.274 -73.897
174.688 0.234 -76.205 0.971 13.538 0.971 13.538 0.234 -76.205
199.625 0.203 -77.98 0.978 11.722 0.978 11.722 0.203 -77.98
224.563 0.178 -79.388 0.983 10.271 0.983 10.271 0.178 -79.388
249.5 0.158 -80.533 0.986 9.081 0.986 9.081 0.158 -80.533
274.438 0.141 -81.481 0.989 8.083 0.989 8.083 0.141 -81.481
299.375 0.126 -82.28 0.991 7.233 0.991 7.233 0.126 -82.28
324.313 0.113 -82.962 0.993 6.495 0.993 6.495 0.113 -82.962
349.25 0.102 -83.549 0.994 5.847 0.994 5.847 0.102 -83.549
374.188 0.092 -84.059 0.995 5.271 0.995 5.271 0.092 -84.059
399.125 0.083 -84.502 0.995 4.755 0.995 4.755 0.083 -84.502
424.063 0.075 -84.889 0.996 4.286 0.996 4.286 0.075 -84.889
449 0.067 -85.225 0.997 3.859 0.997 3.859 0.067 -85.225
473.938 0.06 -85.514 0.997 3.465 0.997 3.465 0.06 -85.514
498.875 0.054 -85.758 0.997 3.101 0.997 3.101 0.054 -85.758
523.813 0.048 -85.957 0.998 2.762 0.998 2.762 0.048 -85.957
548.75 0.043 -86.107 0.998 2.445 0.998 2.445 0.043 -86.107
573.688 0.037 -86.205 0.998 2.147 0.998 2.147 0.037 -86.205
598.625 0.033 -86.237 0.998 1.865 0.998 1.865 0.033 -86.237
623.563 0.028 -86.187 0.999 1.598 0.999 1.598 0.028 -86.187
648.5 0.023 -86.023 0.999 1.344 0.999 1.344 0.023 -86.023
673.438 0.019 -85.686 0.999 1.101 0.999 1.101 0.019 -85.686
698.375 0.015 -85.061 0.999 0.869 0.999 0.869 0.015 -85.061
723.313 0.011 -83.884 0.999 0.645 0.999 0.645 0.011 -83.884
748.25 7.59e-3 -81.398 0.999 0.43 0.999 0.43 7.59e-3 -81.398
773.188 4.04e-3 -74.287 0.999 0.223 0.999 0.223 4.04e-3 -74.287
798.125 1.148e-3 -19.948 0.999 0.022 0.999 0.022 1.148e-3 -19.948
823.063 3.189e-3 70.053 0.999 -0.172 0.999 -0.172 3.189e-3 70.053
848 6.387e-3 79.914 0.999 -0.361 0.999 -0.361 6.387e-3 79.914
872.938 9.56e-3 82.976 0.999 -0.544 0.999 -0.544 9.56e-3 82.976
897.875 0.013 84.391 0.999 -0.723 0.999 -0.723 0.013 84.391
922.813 0.016 85.163 0.999 -0.898 0.999 -0.898 0.016 85.163
947.75 0.019 85.62 0.999 -1.068 0.999 -1.068 0.019 85.62
972.688 0.022 85.9 0.999 -1.235 0.999 -1.235 0.022 85.9
997.625 0.024 86.071 0.999 -1.398 0.999 -1.398 0.024 86.071
1022.563 0.027 86.17 0.999 -1.558 0.999 -1.558 0.027 86.17
1047.5 0.03 86.221 0.998 -1.715 0.998 -1.715 0.03 86.221
1072.438 0.033 86.237 0.998 -1.87 0.998 -1.87 0.033 86.237
1097.375 0.035 86.228 0.998 -2.021 0.998 -2.021 0.035 86.228
1122.313 0.038 86.199 0.998 -2.171 0.998 -2.171 0.038 86.199
1147.25 0.04 86.155 0.998 -2.318 0.998 -2.318 0.04 86.155
1172.188 0.043 86.1 0.998 -2.463 0.998 -2.463 0.043 86.1
1197.125 0.045 86.036 0.998 -2.606 0.998 -2.606 0.045 86.036
1222.063 0.048 85.965 0.998 -2.747 0.998 -2.747 0.048 85.965
1247 0.05 85.888 0.998 -2.887 0.998 -2.887 0.05 85.888
1271.938 0.053 85.806 0.998 -3.024 0.998 -3.024 0.053 85.806
1296.875 0.055 85.72 0.997 -3.161 0.997 -3.161 0.055 85.72
1321.813 0.057 85.631 0.997 -3.295 0.997 -3.295 0.057 85.631
1346.75 0.06 85.54 0.997 -3.429 0.997 -3.429 0.06 85.54
1371.688 0.062 85.446 0.997 -3.561 0.997 -3.561 0.062 85.446
1396.625 0.064 85.35 0.997 -3.692 0.997 -3.692 0.064 85.35
1421.563 0.067 85.253 0.997 -3.821 0.997 -3.821 0.067 85.253
1446.5 0.069 85.155 0.997 -3.95 0.997 -3.95 0.069 85.155
1471.438 0.071 85.056 0.996 -4.077 0.996 -4.077 0.071 85.056
1496.375 0.073 84.956 0.996 -4.203 0.996 -4.203 0.073 84.956
1521.313 0.075 84.855 0.996 -4.329 0.996 -4.329 0.075 84.855
1546.25 0.078 84.753 0.996 -4.453 0.996 -4.453 0.078 84.753
1571.188 0.08 84.651 0.996 -4.577 0.996 -4.577 0.08 84.651
1596.125 0.082 84.549 0.996 -4.699 0.996 -4.699 0.082 84.549
1621.063 0.084 84.446 0.995 -4.821 0.995 -4.821 0.084 84.446
1646 0.086 84.343 0.995 -4.942 0.995 -4.942 0.086 84.343
1670.938 0.088 84.239 0.995 -5.063 0.995 -5.063 0.088 84.239
1695.875 0.09 84.136 0.995 -5.182 0.995 -5.182 0.09 84.136
1720.813 0.092 84.032 0.995 -5.301 0.995 -5.301 0.092 84.032
1745.75 0.094 83.929 0.994 -5.42 0.994 -5.42 0.094 83.929
1770.688 0.097 83.825 0.994 -5.537 0.994 -5.537 0.097 83.825
1795.625 0.099 83.721 0.994 -5.654 0.994 -5.654 0.099 83.721
1820.563 0.101 83.617 0.994 -5.771 0.994 -5.771 0.101 83.617
1845.5 0.103 83.514 0.994 -5.887 0.994 -5.887 0.103 83.514
1870.438 0.105 83.41 0.993 -6.002 0.993 -6.002 0.105 83.41
1895.375 0.107 83.306 0.993 -6.117 0.993 -6.117 0.107 83.306
1920.313 0.109 83.202 0.993 -6.231 0.993 -6.231 0.109 83.202
1945.25 0.111 83.099 0.993 -6.345 0.993 -6.345 0.111 83.099
1970.188 0.112 82.995 0.993 -6.459 0.993 -6.459 0.112 82.995
1995.125 0.114 82.892 0.992 -6.572 0.992 -6.572 0.114 82.892
2020.063 0.116 82.788 0.992 -6.684 0.992 -6.684 0.116 82.788
2045 0.118 82.685 0.992 -6.796 0.992 -6.796 0.118 82.685
2069.938 0.12 82.582 0.992 -6.908 0.992 -6.908 0.12 82.582
2094.875 0.122 82.479 0.991 -7.019 0.991 -7.019 0.122 82.479
2119.813 0.124 82.376 0.991 -7.13 0.991 -7.13 0.124 82.376
2144.75 0.126 82.273 0.991 -7.24 0.991 -7.24 0.126 82.273
2169.688 0.128 82.17 0.991 -7.351 0.991 -7.351 0.128 82.17
2194.625 0.13 82.068 0.99 -7.46 0.99 -7.46 0.13 82.068
2219.563 0.132 81.965 0.99 -7.57 0.99 -7.57 0.132 81.965
2244.5 0.134 81.863 0.99 -7.679 0.99 -7.679 0.134 81.863
2269.438 0.136 81.76 0.99 -7.787 0.99 -7.787 0.136 81.76
2294.375 0.137 81.658 0.989 -7.896 0.989 -7.896 0.137 81.658
2319.313 0.139 81.556 0.989 -8.004 0.989 -8.004 0.139 81.556
2344.25 0.141 81.454 0.989 -8.112 0.989 -8.112 0.141 81.454
2369.188 0.143 81.353 0.989 -8.219 0.989 -8.219 0.143 81.353
2394.125 0.145 81.251 0.988 -8.327 0.988 -8.327 0.145 81.251
2419.063 0.147 81.15 0.988 -8.433 0.988 -8.433 0.147 81.15
2444 0.149 81.048 0.988 -8.54 0.988 -8.54 0.149 81.048
2468.938 0.15 80.947 0.988 -8.646 0.988 -8.646 0.15 80.947
2493.875 0.152 80.846 0.987 -8.753 0.987 -8.753 0.152 80.846
2518.813 0.154 80.745 0.987 -8.858 0.987 -8.858 0.154 80.745
2543.75 0.156 80.644 0.987 -8.964 0.987 -8.964 0.156 80.644
2568.688 0.158 80.543 0.986 -9.069 0.986 -9.069 0.158 80.543
2593.625 0.159 80.443 0.986 -9.175 0.986 -9.175 0.159 80.443
2618.563 0.161 80.342 0.986 -9.279 0.986 -9.279 0.161 80.342
2643.5 0.163 80.242 0.986 -9.384 0.986 -9.384 0.163 80.242
2668.438 0.165 80.142 0.985 -9.488 0.985 -9.488 0.165 80.142
2693.375 0.167 80.042 0.985 -9.593 0.985 -9.593 0.167 80.042
2718.313 0.168 79.942 0.985 -9.697 0.985 -9.697 0.168 79.942
2743.25 0.17 79.842 0.984 -9.8 0.984 -9.8 0.17 79.842
2768.188 0.172 79.742 0.984 -9.904 0.984 -9.904 0.172 79.742
2793.125 0.174 79.642 0.984 -10.007 0.984 -10.007 0.174 79.642
2818.063 0.176 79.543 0.983 -10.11 0.983 -10.11 0.176 79.543
2843 0.177 79.444 0.983 -10.213 0.983 -10.213 0.177 79.444
2867.938 0.179 79.344 0.983 -10.316 0.983 -10.316 0.179 79.344
2892.875 0.181 79.245 0.982 -10.419 0.982 -10.419 0.181 79.245
2917.813 0.183 79.146 0.982 -10.521 0.982 -10.521 0.183 79.146
2942.75 0.184 79.047 0.982 -10.623 0.982 -10.623 0.184 79.047
2967.688 0.186 78.949 0.981 -10.725 0.981 -10.725 0.186 78.949
2992.625 0.188 78.85 0.981 -10.827 0.981 -10.827 0.188 78.85
3017.563 0.19 78.751 0.981 -10.928 0.981 -10.928 0.19 78.751
3042.5 0.191 78.653 0.98 -11.03 0.98 -11.03 0.191 78.653
3067.438 0.193 78.555 0.98 -11.131 0.98 -11.131 0.193 78.555
3092.375 0.195 78.457 0.98 -11.232 0.98 -11.232 0.195 78.457
3117.313 0.197 78.359 0.979 -11.333 0.979 -11.333 0.197 78.359
3142.25 0.198 78.261 0.979 -11.434 0.979 -11.434 0.198 78.261
3167.188 0.2 78.163 0.979 -11.534 0.979 -11.534 0.2 78.163
3192.125 0.202 78.065 0.978 -11.635 0.978 -11.635 0.202 78.065
3217.063 0.203 77.968 0.978 -11.735 0.978 -11.735 0.203 77.968
3242 0.205 77.87 0.978 -11.835 0.978 -11.835 0.205 77.87
3266.938 0.207 77.773 0.977 -11.935 0.977 -11.935 0.207 77.773
3291.875 0.209 77.676 0.977 -12.034 0.977 -12.034 0.209 77.676
3316.813 0.21 77.578 0.977 -12.134 0.977 -12.134 0.21 77.578
3341.75 0.212 77.481 0.976 -12.233 0.976 -12.233 0.212 77.481
3366.688 0.214 77.384 0.976 -12.333 0.976 -12.333 0.214 77.384
3391.625 0.215 77.288 0.975 -12.432 0.975 -12.432 0.215 77.288
3416.563 0.217 77.191 0.975 -12.531 0.975 -12.531 0.217 77.191
3441.5 0.219 77.094 0.975 -12.63 0.975 -12.63 0.219 77.094
3466.438 0.22 76.998 0.974 -12.728 0.974 -12.728 0.22 76.998
3491.375 0.222 76.902 0.974 -12.827 0.974 -12.827 0.222 76.902
3516.313 0.224 76.806 0.974 -12.925 0.974 -12.925 0.224 76.806
3541.25 0.225 76.709 0.973 -13.023 0.973 -13.023 0.225 76.709
3566.188 0.227 76.613 0.973 -13.121 0.973 -13.121 0.227 76.613
3591.125 0.229 76.518 0.972 -13.219 0.972 -13.219 0.229 76.518
3616.063 0.23 76.422 0.972 -13.317 0.972 -13.317 0.23 76.422
3641 0.232 76.326 0.972 -13.415 0.972 -13.415 0.232 76.326
3665.938 0.234 76.231 0.971 -13.512 0.971 -13.512 0.234 76.231
3690.875 0.235 76.135 0.971 -13.61 0.971 -13.61 0.235 76.135
3715.813 0.237 76.04 0.97 -13.707 0.97 -13.707 0.237 76.04
3740.75 0.239 75.945 0.97 -13.804 0.97 -13.804 0.239 75.945
3765.688 0.24 75.849 0.97 -13.901 0.97 -13.901 0.24 75.849
3790.625 0.242 75.754 0.969 -13.998 0.969 -13.998 0.242 75.754
3815.563 0.244 75.66 0.969 -14.094 0.969 -14.094 0.244 75.66
3840.5 0.245 75.565 0.968 -14.191 0.968 -14.191 0.245 75.565
3865.438 0.247 75.47 0.968 -14.287 0.968 -14.287 0.247 75.47
3890.375 0.248 75.375 0.968 -14.383 0.968 -14.383 0.248 75.375
3915.313 0.25 75.281 0.967 -14.48 0.967 -14.48 0.25 75.281
3940.25 0.252 75.187 0.967 -14.576 0.967 -14.576 0.252 75.187
3965.188 0.253 75.092 0.966 -14.671 0.966 -14.671 0.253 75.092
3990.125 0.255 74.998 0.966 -14.767 0.966 -14.767 0.255 74.998
4015.063 0.257 74.904 0.965 -14.863 0.965 -14.863 0.257 74.904
4040 0.258 74.81 0.965 -14.958 0.965 -14.958 0.258 74.81
4064.938 0.26 74.717 0.965 -15.054 0.965 -15.054 0.26 74.717
4089.875 0.261 74.623 0.964 -15.149 0.964 -15.149 0.261 74.623
4114.813 0.263 74.529 0.964 -15.244 0.964 -15.244 0.263 74.529
4139.75 0.265 74.436 0.963 -15.339 0.963 -15.339 0.265 74.436
4164.688 0.266 74.342 0.963 -15.434 0.963 -15.434 0.266 74.342
4189.625 0.268 74.249 0.962 -15.528 0.962 -15.528 0.268 74.249
4214.563 0.269 74.156 0.962 -15.623 0.962 -15.623 0.269 74.156
4239.5 0.271 74.063 0.962 -15.717 0.962 -15.717 0.271 74.063
4264.438 0.272 73.97 0.961 -15.812 0.961 -15.812 0.272 73.97
4289.375 0.274 73.877 0.961 -15.906 0.961 -15.906 0.274 73.877
4314.313 0.276 73.784 0.96 -16 0.96 -16 0.276 73.784
4339.25 0.277 73.692 0.96 -16.094 0.96 -16.094 0.277 73.692
4364.188 0.279 73.599 0.959 -16.188 0.959 -16.188 0.279 73.599
4389.125 0.28 73.507 0.959 -16.282 0.959 -16.282 0.28 73.507
4414.063 0.282 73.414 0.958 -16.375 0.958 -16.375 0.282 73.414
4439 0.283 73.322 0.958 -16.469 0.958 -16.469 0.283 73.322
4463.938 0.285 73.23 0.957 -16.562 0.957 -16.562 0.285 73.23
4488.875 0.287 73.138 0.957 -16.655 0.957 -16.655 0.287 73.138
4513.813 0.288 73.046 0.957 -16.748 0.957 -16.748 0.288 73.046
4538.75 0.29 72.955 0.956 -16.841 0.956 -16.841 0.29 72.955
4563.688 0.291 72.863 0.956 -16.934 0.956 -16.934 0.291 72.863
4588.625 0.293 72.771 0.955 -17.027 0.955 -17.027 0.293 72.771
4613.563 0.294 72.68 0.955 -17.119 0.955 -17.119 0.294 72.68
4638.5 0.296 72.589 0.954 -17.212 0.954 -17.212 0.296 72.589
4663.438 0.297 72.497 0.954 -17.304 0.954 -17.304 0.297 72.497
4688.375 0.299 72.406 0.953 -17.396 0.953 -17.396 0.299 72.406
4713.313 0.301 72.315 0.953 -17.489 0.953 -17.489 0.301 72.315
4738.25 0.302 72.224 0.952 -17.58 0.952 -17.58 0.302 72.224
4763.188 0.304 72.134 0.952 -17.672 0.952 -17.672 0.304 72.134
4788.125 0.305 72.043 0.951 -17.764 0.951 -17.764 0.305 72.043
4813.063 0.307 71.952 0.951 -17.856 0.951 -17.856 0.307 71.952
4838 0.308 71.862 0.95 -17.947 0.95 -17.947 0.308 71.862
4862.938 0.31 71.771 0.95 -18.039 0.95 -18.039 0.31 71.771
4887.875 0.311 71.681 0.949 -18.13 0.949 -18.13 0.311 71.681
4912.813 0.313 71.591 0.949 -18.221 0.949 -18.221 0.313 71.591
4937.75 0.314 71.501 0.948 -18.312 0.948 -18.312 0.314 71.501
4962.688 0.316 71.411 0.948 -18.403 0.948 -18.403 0.316 71.411
4987.625 0.317 71.321 0.947 -18.494 0.947 -18.494 0.317 71.321
5012.563 0.319 71.232 0.947 -18.585 0.947 -18.585 0.319 71.232
5037.5 0.32 71.142 0.946 -18.675 0.946 -18.675 0.32 71.142
5062.438 0.322 71.052 0.946 -18.766 0.946 -18.766 0.322 71.052
5087.375 0.323 70.963 0.945 -18.856 0.945 -18.856 0.323 70.963
5112.313 0.325 70.874 0.945 -18.946 0.945 -18.946 0.325 70.874
5137.25 0.326 70.785 0.944 -19.036 0.944 -19.036 0.326 70.785
5162.188 0.328 70.696 0.944 -19.126 0.944 -19.126 0.328 70.696
5187.125 0.329 70.607 0.943 -19.216 0.943 -19.216 0.329 70.607
5212.063 0.331 70.518 0.943 -19.306 0.943 -19.306 0.331 70.518
5237 0.332 70.429 0.942 -19.395 0.942 -19.395 0.332 70.429
5261.938 0.334 70.34 0.942 -19.485 0.942 -19.485 0.334 70.34
5286.875 0.335 70.252 0.941 -19.574 0.941 -19.574 0.335 70.252
5311.813 0.336 70.163 0.941 -19.663 0.941 -19.663 0.336 70.163
5336.75 0.338 70.075 0.94 -19.753 0.94 -19.753 0.338 70.075
5361.688 0.339 69.987 0.94 -19.842 0.94 -19.842 0.339 69.987
5386.625 0.341 69.899 0.939 -19.931 0.939 -19.931 0.341 69.899
5411.563 0.342 69.811 0.939 -20.019 0.939 -20.019 0.342 69.811
5436.5 0.344 69.723 0.938 -20.108 0.938 -20.108 0.344 69.723
5461.438 0.345 69.635 0.938 -20.197 0.938 -20.197 0.345 69.635
5486.375 0.347 69.548 0.937 -20.285 0.937 -20.285 0.347 69.548
5511.313 0.348 69.46 0.936 -20.373 0.936 -20.373 0.348 69.46
5536.25 0.35 69.373 0.936 -20.462 0.936 -20.462 0.35 69.373
5561.188 0.351 69.285 0.935 -20.55 0.935 -20.55 0.351 69.285
5586.125 0.352 69.198 0.935 -20.638 0.935 -20.638 0.352 69.198
5611.063 0.354 69.111 0.934 -20.725 0.934 -20.725 0.354 69.111
5636 0.355 69.024 0.934 -20.813 0.934 -20.813 0.355 69.024
5660.938 0.357 68.937 0.933 -20.901 0.933 -20.901 0.357 68.937
5685.875 0.358 68.851 0.933 -20.988 0.933 -20.988 0.358 68.851
5710.813 0.36 68.764 0.932 -21.076 0.932 -21.076 0.36 68.764
5735.75 0.361 68.677 0.932 -21.163 0.932 -21.163 0.361 68.677
5760.688 0.362 68.591 0.931 -21.25 0.931 -21.25 0.362 68.591
5785.625 0.364 68.505 0.93 -21.337 0.93 -21.337 0.364 68.505
5810.563 0.365 68.418 0.93 -21.424 0.93 -21.424 0.365 68.418
5835.5 0.367 68.332 0.929 -21.511 0.929 -21.511 0.367 68.332
5860.438 0.368 68.246 0.929 -21.597 0.929 -21.597 0.368 68.246
5885.375 0.369 68.16 0.928 -21.684 0.928 -21.684 0.369 68.16
5910.313 0.371 68.075 0.928 -21.77 0.928 -21.77 0.371 68.075
5935.25 0.372 67.989 0.927 -21.857 0.927 -21.857 0.372 67.989
5960.188 0.374 67.904 0.927 -21.943 0.927 -21.943 0.374 67.904
5985.125 0.375 67.818 0.926 -22.029 0.926 -22.029 0.375 67.818
6010.063 0.376 67.733 0.925 -22.115 0.925 -22.115 0.376 67.733
6035 0.378 67.648 0.925 -22.201 0.925 -22.201 0.378 67.648
6059.938 0.379 67.563 0.924 -22.287 0.924 -22.287 0.379 67.563
6084.875 0.381 67.478 0.924 -22.372 0.924 -22.372 0.381 67.478
6109.813 0.382 67.393 0.923 -22.458 0.923 -22.458 0.382 67.393
6134.75 0.383 67.308 0.923 -22.543 0.923 -22.543 0.383 67.308
6159.688 0.385 67.223 0.922 -22.628 0.922 -22.628 0.385 67.223
6184.625 0.386 67.139 0.921 -22.714 0.921 -22.714 0.386 67.139
6209.563 0.387 67.054 0.921 -22.799 0.921 -22.799 0.387 67.054
6234.5 0.389 66.97 0.92 -22.884 0.92 -22.884 0.389 66.97
6259.438 0.39 66.886 0.92 -22.968 0.92 -22.968 0.39 66.886
6284.375 0.392 66.802 0.919 -23.053 0.919 -23.053 0.392 66.802
6309.313 0.393 66.718 0.919 -23.138 0.919 -23.138 0.393 66.718
6334.25 0.394 66.634 0.918 -23.222 0.918 -23.222 0.394 66.634
6359.188 0.396 66.55 0.917 -23.306 0.917 -23.306 0.396 66.55
6384.125 0.397 66.466 0.917 -23.391 0.917 -23.391 0.397 66.466
6409.063 0.398 66.383 0.916 -23.475 0.916 -23.475 0.398 66.383
6434 0.4 66.3 0.916 -23.559 0.916 -23.559 0.4 66.3
6458.938 0.401 66.216 0.915 -23.643 0.915 -23.643 0.401 66.216
6483.875 0.402 66.133 0.914 -23.726 0.914 -23.726 0.402 66.133
6508.813 0.404 66.05 0.914 -23.81 0.914 -23.81 0.404 66.05
6533.75 0.405 65.967 0.913 -23.893 0.913 -23.893 0.405 65.967
6558.688 0.406 65.884 0.913 -23.977 0.913 -23.977 0.406 65.884
6583.625 0.408 65.801 0.912 -24.06 0.912 -24.06 0.408 65.801
6608.563 0.409 65.719 0.912 -24.143 0.912 -24.143 0.409 65.719
6633.5 0.41 65.636 0.911 -24.226 0.911 -24.226 0.41 65.636
6658.438 0.412 65.554 0.91 -24.309 0.91 -24.309 0.412 65.554
6683.375 0.413 65.472 0.91 -24.392 0.91 -24.392 0.413 65.472
6708.313 0.414 65.389 0.909 -24.475 0.909 -24.475 0.414 65.389
6733.25 0.416 65.307 0.909 -24.557 0.909 -24.557 0.416 65.307
6758.188 0.417 65.225 0.908 -24.64 0.908 -24.64 0.417 65.225
6783.125 0.418 65.144 0.907 -24.722 0.907 -24.722 0.418 65.144
6808.063 0.42 65.062 0.907 -24.804 0.907 -24.804 0.42 65.062
6833 0.421 64.98 0.906 -24.886 0.906 -24.886 0.421 64.98
6857.938 0.422 64.899 0.906 -24.968 0.906 -24.968 0.422 64.899
6882.875 0.423 64.817 0.905 -25.05 0.905 -25.05 0.423 64.817
6907.813 0.425 64.736 0.904 -25.132 0.904 -25.132 0.425 64.736
6932.75 0.426 64.655 0.904 -25.214 0.904 -25.214 0.426 64.655
6957.688 0.427 64.574 0.903 -25.295 0.903 -25.295 0.427 64.574
6982.625 0.429 64.493 0.903 -25.377 0.903 -25.377 0.429 64.493
7007.563 0.43 64.412 0.902 -25.458 0.902 -25.458 0.43 64.412
7032.5 0.431 64.332 0.901 -25.539 0.901 -25.539 0.431 64.332
7057.438 0.432 64.251 0.901 -25.62 0.901 -25.62 0.432 64.251
7082.375 0.434 64.17 0.9 -25.701 0.9 -25.701 0.434 64.17
7107.313 0.435 64.09 0.899 -25.782 0.899 -25.782 0.435 64.09
7132.25 0.436 64.01 0.899 -25.863 0.899 -25.863 0.436 64.01
7157.188 0.437 63.93 0.898 -25.943 0.898 -25.943 0.437 63.93
7182.125 0.439 63.85 0.898 -26.024 0.898 -26.024 0.439 63.85
7207.063 0.44 63.77 0.897 -26.104 0.897 -26.104 0.44 63.77
7232 0.441 63.69 0.896 -26.184 0.896 -26.184 0.441 63.69
7256.938 0.443 63.61 0.896 -26.264 0.896 -26.264 0.443 63.61
7281.875 0.444 63.531 0.895 -26.344 0.895 -26.344 0.444 63.531
7306.813 0.445 63.451 0.895 -26.424 0.895 -26.424 0.445 63.451
7331.75 0.446 63.372 0.894 -26.504 0.894 -26.504 0.446 63.372
7356.688 0.448 63.293 0.893 -26.584 0.893 -26.584 0.448 63.293
7381.625 0.449 63.214 0.893 -26.663 0.893 -26.663 0.449 63.214
7406.563 0.45 63.135 0.892 -26.743 0.892 -26.743 0.45 63.135
7431.5 0.451 63.056 0.891 -26.822 0.891 -26.822 0.451 63.056
7456.438 0.452 62.977 0.891 -26.901 0.891 -26.901 0.452 62.977
7481.375 0.454 62.898 0.89 -26.98 0.89 -26.98 0.454 62.898
7506.313 0.455 62.82 0.89 -27.059 0.89 -27.059 0.455 62.82
7531.25 0.456 62.741 0.889 -27.138 0.889 -27.138 0.456 62.741
7556.188 0.457 62.663 0.888 -27.217 0.888 -27.217 0.457 62.663
7581.125 0.459 62.585 0.888 -27.295 0.888 -27.295 0.459 62.585
7606.063 0.46 62.507 0.887 -27.374 0.887 -27.374 0.46 62.507
7631 0.461 62.429 0.886 -27.452 0.886 -27.452 0.461 62.429
7655.938 0.462 62.351 0.886 -27.53 0.886 -27.53 0.462 62.351
7680.875 0.463 62.273 0.885 -27.608 0.885 -27.608 0.463 62.273
7705.813 0.465 62.196 0.885 -27.686 0.885 -27.686 0.465 62.196
7730.75 0.466 62.118 0.884 -27.764 0.884 -27.764 0.466 62.118
7755.688 0.467 62.041 0.883 -27.842 0.883 -27.842 0.467 62.041
7780.625 0.468 61.964 0.883 -27.92 0.883 -27.92 0.468 61.964
7805.563 0.469 61.886 0.882 -27.997 0.882 -27.997 0.469 61.886
7830.5 0.471 61.809 0.881 -28.075 0.881 -28.075 0.471 61.809
7855.438 0.472 61.732 0.881 -28.152 0.881 -28.152 0.472 61.732
7880.375 0.473 61.656 0.88 -28.229 0.88 -28.229 0.473 61.656
7905.313 0.474 61.579 0.879 -28.306 0.879 -28.306 0.474 61.579
7930.25 0.475 61.502 0.879 -28.383 0.879 -28.383 0.475 61.502
7955.188 0.477 61.426 0.878 -28.46 0.878 -28.46 0.477 61.426
7980.125 0.478 61.349 0.878 -28.537 0.878 -28.537 0.478 61.349
8005.063 0.479 61.273 0.877 -28.613 0.877 -28.613 0.479 61.273
8030 0.48 61.197 0.876 -28.69 0.876 -28.69 0.48 61.197
8054.938 0.481 61.121 0.876 -28.766 0.876 -28.766 0.481 61.121
8079.875 0.482 61.045 0.875 -28.843 0.875 -28.843 0.482 61.045
