! AVX Thin Film Operation		Date: April 2012 
! Description: Accu-P® Series, Thin Film, SMD, RF Capacitor
! Part Number: 12101J1R5PBTTR					
!	100	MHz	-	10.05	GHz			
!	Serial	Measurements						
!								
#	MHZ	S	MA	R	50			
!	S11	S21	S12	S22				
!	dB	Phase	dB	Phase	dB	Phase	dB	Phase
100	0.996	-5.387	0.094	84.599	0.094	84.599	0.996	-5.387
109.812	0.995	-5.913	0.103	84.072	0.103	84.072	0.995	-5.913
119.623	0.994	-6.438	0.112	83.546	0.112	83.546	0.994	-6.438
129.435	0.993	-6.962	0.121	83.021	0.121	83.021	0.993	-6.962
139.247	0.991	-7.485	0.13	82.496	0.13	82.496	0.991	-7.485
149.058	0.99	-8.007	0.139	81.973	0.139	81.973	0.99	-8.007
158.87	0.989	-8.528	0.148	81.45	0.148	81.45	0.989	-8.528
168.682	0.987	-9.048	0.157	80.929	0.157	80.929	0.987	-9.048
178.494	0.986	-9.567	0.166	80.409	0.166	80.409	0.986	-9.567
188.305	0.984	-10.084	0.175	79.89	0.175	79.89	0.984	-10.084
198.117	0.983	-10.6	0.184	79.373	0.184	79.373	0.983	-10.6
207.929	0.981	-11.115	0.193	78.857	0.193	78.857	0.981	-11.115
217.74	0.979	-11.628	0.202	78.342	0.202	78.342	0.979	-11.628
227.552	0.978	-12.14	0.21	77.829	0.21	77.829	0.978	-12.14
237.364	0.976	-12.65	0.219	77.317	0.219	77.317	0.976	-12.65
247.175	0.974	-13.159	0.228	76.807	0.228	76.807	0.974	-13.159
256.987	0.972	-13.666	0.236	76.299	0.236	76.299	0.972	-13.666
266.799	0.969	-14.171	0.245	75.793	0.245	75.793	0.969	-14.171
276.611	0.967	-14.675	0.253	75.288	0.253	75.288	0.967	-14.675
286.422	0.965	-15.176	0.262	74.785	0.262	74.785	0.965	-15.176
296.234	0.963	-15.676	0.27	74.284	0.27	74.284	0.963	-15.676
306.046	0.96	-16.174	0.279	73.785	0.279	73.785	0.96	-16.174
315.857	0.958	-16.67	0.287	73.288	0.287	73.288	0.958	-16.67
325.669	0.955	-17.163	0.295	72.792	0.295	72.792	0.955	-17.163
335.481	0.953	-17.655	0.303	72.299	0.303	72.299	0.953	-17.655
345.292	0.95	-18.145	0.311	71.808	0.311	71.808	0.95	-18.145
355.104	0.947	-18.632	0.319	71.319	0.319	71.319	0.947	-18.632
364.916	0.945	-19.117	0.328	70.833	0.328	70.833	0.945	-19.117
374.727	0.942	-19.601	0.335	70.348	0.335	70.348	0.942	-19.601
384.539	0.939	-20.081	0.343	69.866	0.343	69.866	0.939	-20.081
394.351	0.936	-20.56	0.351	69.386	0.351	69.386	0.936	-20.56
404.163	0.933	-21.036	0.359	68.909	0.359	68.909	0.933	-21.036
413.974	0.93	-21.51	0.367	68.434	0.367	68.434	0.93	-21.51
423.786	0.927	-21.981	0.374	67.961	0.374	67.961	0.927	-21.981
433.598	0.924	-22.45	0.382	67.491	0.382	67.491	0.924	-22.45
443.409	0.921	-22.917	0.389	67.023	0.389	67.023	0.921	-22.917
453.221	0.917	-23.381	0.397	66.557	0.397	66.557	0.917	-23.381
463.033	0.914	-23.842	0.404	66.094	0.404	66.094	0.914	-23.842
472.844	0.911	-24.301	0.412	65.634	0.412	65.634	0.911	-24.301
482.656	0.908	-24.758	0.419	65.176	0.419	65.176	0.908	-24.758
492.468	0.904	-25.212	0.426	64.721	0.426	64.721	0.904	-25.212
502.279	0.901	-25.663	0.433	64.268	0.433	64.268	0.901	-25.663
512.091	0.897	-26.111	0.44	63.818	0.44	63.818	0.897	-26.111
521.903	0.894	-26.558	0.447	63.371	0.447	63.371	0.894	-26.558
531.715	0.89	-27.001	0.454	62.926	0.454	62.926	0.89	-27.001
541.526	0.887	-27.442	0.461	62.484	0.461	62.484	0.887	-27.442
551.338	0.883	-27.88	0.468	62.045	0.468	62.045	0.883	-27.88
561.15	0.88	-28.315	0.474	61.608	0.474	61.608	0.88	-28.315
570.961	0.876	-28.748	0.481	61.174	0.481	61.174	0.876	-28.748
580.773	0.872	-29.178	0.488	60.742	0.488	60.742	0.872	-29.178
590.585	0.869	-29.605	0.494	60.314	0.494	60.314	0.869	-29.605
600.396	0.865	-30.029	0.5	59.888	0.5	59.888	0.865	-30.029
610.208	0.861	-30.451	0.507	59.465	0.507	59.465	0.861	-30.451
620.02	0.858	-30.87	0.513	59.044	0.513	59.044	0.858	-30.87
629.832	0.854	-31.286	0.519	58.627	0.519	58.627	0.854	-31.286
639.643	0.85	-31.7	0.525	58.212	0.525	58.212	0.85	-31.7
649.455	0.846	-32.111	0.532	57.799	0.532	57.799	0.846	-32.111
659.267	0.842	-32.519	0.538	57.39	0.538	57.39	0.842	-32.519
669.078	0.839	-32.924	0.544	56.983	0.544	56.983	0.839	-32.924
678.89	0.835	-33.326	0.549	56.579	0.549	56.579	0.835	-33.326
688.702	0.831	-33.726	0.555	56.178	0.555	56.178	0.831	-33.726
698.513	0.827	-34.123	0.561	55.78	0.561	55.78	0.827	-34.123
708.325	0.823	-34.517	0.567	55.384	0.567	55.384	0.823	-34.517
718.137	0.819	-34.909	0.572	54.991	0.572	54.991	0.819	-34.909
727.948	0.815	-35.298	0.578	54.601	0.578	54.601	0.815	-35.298
737.76	0.811	-35.684	0.583	54.213	0.583	54.213	0.811	-35.684
747.572	0.807	-36.067	0.589	53.828	0.589	53.828	0.807	-36.067
757.384	0.803	-36.448	0.594	53.446	0.594	53.446	0.803	-36.448
767.195	0.799	-36.826	0.599	53.067	0.599	53.067	0.799	-36.826
777.007	0.795	-37.201	0.605	52.69	0.605	52.69	0.795	-37.201
786.819	0.791	-37.573	0.61	52.316	0.61	52.316	0.791	-37.573
796.63	0.787	-37.943	0.615	51.945	0.615	51.945	0.787	-37.943
806.442	0.783	-38.31	0.62	51.576	0.62	51.576	0.783	-38.31
816.254	0.779	-38.675	0.625	51.21	0.625	51.21	0.779	-38.675
826.065	0.775	-39.036	0.63	50.847	0.63	50.847	0.775	-39.036
835.877	0.771	-39.396	0.635	50.486	0.635	50.486	0.771	-39.396
845.689	0.767	-39.752	0.639	50.128	0.639	50.128	0.767	-39.752
855.5	0.763	-40.106	0.644	49.773	0.644	49.773	0.763	-40.106
865.312	0.76	-40.457	0.649	49.42	0.649	49.42	0.76	-40.457
875.124	0.756	-40.806	0.654	49.07	0.654	49.07	0.756	-40.806
884.936	0.752	-41.152	0.658	48.722	0.658	48.722	0.752	-41.152
894.747	0.748	-41.496	0.663	48.377	0.663	48.377	0.748	-41.496
904.559	0.744	-41.837	0.667	48.035	0.667	48.035	0.744	-41.837
914.371	0.74	-42.175	0.671	47.695	0.671	47.695	0.74	-42.175
924.182	0.736	-42.511	0.676	47.357	0.676	47.357	0.736	-42.511
933.994	0.732	-42.845	0.68	47.022	0.68	47.022	0.732	-42.845
943.806	0.728	-43.176	0.684	46.689	0.684	46.689	0.728	-43.176
953.617	0.724	-43.504	0.688	46.359	0.688	46.359	0.724	-43.504
963.429	0.72	-43.83	0.693	46.032	0.693	46.032	0.72	-43.83
973.241	0.716	-44.154	0.697	45.707	0.697	45.707	0.716	-44.154
983.053	0.712	-44.475	0.701	45.384	0.701	45.384	0.712	-44.475
992.864	0.708	-44.794	0.705	45.064	0.705	45.064	0.708	-44.794
1002.676	0.704	-45.11	0.708	44.746	0.708	44.746	0.704	-45.11
1012.488	0.7	-45.424	0.712	44.43	0.712	44.43	0.7	-45.424
1022.299	0.696	-45.736	0.716	44.117	0.716	44.117	0.696	-45.736
1032.111	0.692	-46.045	0.72	43.806	0.72	43.806	0.692	-46.045
1041.923	0.688	-46.352	0.724	43.497	0.724	43.497	0.688	-46.352
1051.734	0.684	-46.657	0.727	43.191	0.727	43.191	0.684	-46.657
1061.546	0.681	-46.959	0.731	42.887	0.731	42.887	0.681	-46.959
1071.358	0.677	-47.259	0.734	42.586	0.734	42.586	0.677	-47.259
1081.169	0.673	-47.557	0.738	42.286	0.738	42.286	0.673	-47.557
1090.981	0.669	-47.852	0.741	41.989	0.741	41.989	0.669	-47.852
1100.793	0.665	-48.146	0.745	41.694	0.745	41.694	0.665	-48.146
1110.605	0.661	-48.437	0.748	41.401	0.748	41.401	0.661	-48.437
1120.416	0.658	-48.726	0.752	41.11	0.752	41.11	0.658	-48.726
1130.228	0.654	-49.013	0.755	40.822	0.755	40.822	0.654	-49.013
1140.04	0.65	-49.297	0.758	40.536	0.758	40.536	0.65	-49.297
1149.851	0.646	-49.58	0.761	40.251	0.761	40.251	0.646	-49.58
1159.663	0.642	-49.86	0.764	39.969	0.764	39.969	0.642	-49.86
1169.475	0.639	-50.139	0.768	39.689	0.768	39.689	0.639	-50.139
1179.286	0.635	-50.415	0.771	39.411	0.771	39.411	0.635	-50.415
1189.098	0.631	-50.689	0.774	39.135	0.774	39.135	0.631	-50.689
1198.91	0.627	-50.961	0.777	38.861	0.777	38.861	0.627	-50.961
1208.722	0.624	-51.231	0.78	38.59	0.78	38.59	0.624	-51.231
1218.533	0.62	-51.499	0.783	38.32	0.783	38.32	0.62	-51.499
1228.345	0.616	-51.766	0.785	38.052	0.785	38.052	0.616	-51.766
1238.157	0.613	-52.03	0.788	37.786	0.788	37.786	0.613	-52.03
1247.968	0.609	-52.292	0.791	37.522	0.791	37.522	0.609	-52.292
1257.78	0.605	-52.552	0.794	37.26	0.794	37.26	0.605	-52.552
1267.592	0.602	-52.811	0.797	37	0.797	37	0.602	-52.811
1277.403	0.598	-53.067	0.799	36.741	0.799	36.741	0.598	-53.067
1287.215	0.595	-53.322	0.802	36.485	0.802	36.485	0.595	-53.322
1297.027	0.591	-53.574	0.805	36.23	0.805	36.23	0.591	-53.574
1306.838	0.587	-53.825	0.807	35.978	0.807	35.978	0.587	-53.825
1316.65	0.584	-54.074	0.81	35.727	0.81	35.727	0.584	-54.074
1326.462	0.58	-54.322	0.812	35.478	0.812	35.478	0.58	-54.322
1336.274	0.577	-54.567	0.815	35.23	0.815	35.23	0.577	-54.567
1346.085	0.573	-54.811	0.817	34.985	0.817	34.985	0.573	-54.811
1355.897	0.57	-55.053	0.82	34.741	0.82	34.741	0.57	-55.053
1365.709	0.566	-55.293	0.822	34.499	0.822	34.499	0.566	-55.293
1375.52	0.563	-55.531	0.824	34.259	0.824	34.259	0.563	-55.531
1385.332	0.559	-55.768	0.827	34.02	0.827	34.02	0.559	-55.768
1395.144	0.556	-56.003	0.829	33.783	0.829	33.783	0.556	-56.003
1404.955	0.553	-56.237	0.831	33.548	0.831	33.548	0.553	-56.237
1414.767	0.549	-56.468	0.834	33.314	0.834	33.314	0.549	-56.468
1424.579	0.546	-56.698	0.836	33.082	0.836	33.082	0.546	-56.698
1434.39	0.542	-56.927	0.838	32.852	0.838	32.852	0.542	-56.927
1444.202	0.539	-57.154	0.84	32.623	0.84	32.623	0.539	-57.154
1454.014	0.536	-57.379	0.842	32.396	0.842	32.396	0.536	-57.379
1463.826	0.532	-57.602	0.844	32.17	0.844	32.17	0.532	-57.602
1473.637	0.529	-57.825	0.846	31.946	0.846	31.946	0.529	-57.825
1483.449	0.526	-58.045	0.848	31.724	0.848	31.724	0.526	-58.045
1493.261	0.523	-58.264	0.85	31.503	0.85	31.503	0.523	-58.264
1503.072	0.519	-58.481	0.852	31.283	0.852	31.283	0.519	-58.481
1512.884	0.516	-58.697	0.854	31.065	0.854	31.065	0.516	-58.697
1522.696	0.513	-58.912	0.856	30.849	0.856	30.849	0.513	-58.912
1532.507	0.51	-59.125	0.858	30.634	0.858	30.634	0.51	-59.125
1542.319	0.506	-59.336	0.86	30.42	0.86	30.42	0.506	-59.336
1552.131	0.503	-59.546	0.862	30.208	0.862	30.208	0.503	-59.546
1561.943	0.5	-59.755	0.864	29.997	0.864	29.997	0.5	-59.755
1571.754	0.497	-59.962	0.866	29.788	0.866	29.788	0.497	-59.962
1581.566	0.494	-60.168	0.867	29.58	0.867	29.58	0.494	-60.168
1591.378	0.491	-60.372	0.869	29.374	0.869	29.374	0.491	-60.372
1601.189	0.487	-60.575	0.871	29.169	0.871	29.169	0.487	-60.575
1611.001	0.484	-60.777	0.873	28.965	0.873	28.965	0.484	-60.777
1620.813	0.481	-60.977	0.874	28.762	0.874	28.762	0.481	-60.977
1630.624	0.478	-61.176	0.876	28.561	0.876	28.561	0.478	-61.176
1640.436	0.475	-61.374	0.878	28.361	0.878	28.361	0.475	-61.374
1650.248	0.472	-61.57	0.879	28.163	0.879	28.163	0.472	-61.57
1660.059	0.469	-61.765	0.881	27.966	0.881	27.966	0.469	-61.765
1669.871	0.466	-61.959	0.883	27.77	0.883	27.77	0.466	-61.959
1679.683	0.463	-62.151	0.884	27.575	0.884	27.575	0.463	-62.151
1689.495	0.46	-62.343	0.886	27.381	0.886	27.381	0.46	-62.343
1699.306	0.457	-62.533	0.887	27.189	0.887	27.189	0.457	-62.533
1709.118	0.454	-62.721	0.889	26.998	0.889	26.998	0.454	-62.721
1718.93	0.451	-62.909	0.89	26.808	0.89	26.808	0.451	-62.909
1728.741	0.448	-63.095	0.892	26.62	0.892	26.62	0.448	-63.095
1738.553	0.445	-63.28	0.893	26.433	0.893	26.433	0.445	-63.28
1748.365	0.442	-63.464	0.895	26.246	0.895	26.246	0.442	-63.464
1758.176	0.439	-63.646	0.896	26.061	0.896	26.061	0.439	-63.646
1767.988	0.436	-63.828	0.897	25.877	0.897	25.877	0.436	-63.828
1777.8	0.434	-64.008	0.899	25.695	0.899	25.695	0.434	-64.008
1787.611	0.431	-64.188	0.9	25.513	0.9	25.513	0.431	-64.188
1797.423	0.428	-64.366	0.902	25.333	0.902	25.333	0.428	-64.366
1807.235	0.425	-64.543	0.903	25.153	0.903	25.153	0.425	-64.543
1817.047	0.422	-64.718	0.904	24.975	0.904	24.975	0.422	-64.718
1826.858	0.419	-64.893	0.906	24.798	0.906	24.798	0.419	-64.893
1836.67	0.417	-65.067	0.907	24.621	0.907	24.621	0.417	-65.067
1846.482	0.414	-65.239	0.908	24.446	0.908	24.446	0.414	-65.239
1856.293	0.411	-65.411	0.909	24.272	0.909	24.272	0.411	-65.411
1866.105	0.408	-65.581	0.911	24.099	0.911	24.099	0.408	-65.581
1875.917	0.406	-65.75	0.912	23.927	0.912	23.927	0.406	-65.75
1885.728	0.403	-65.919	0.913	23.757	0.913	23.757	0.403	-65.919
1895.54	0.4	-66.086	0.914	23.587	0.914	23.587	0.4	-66.086
1905.352	0.397	-66.252	0.915	23.418	0.915	23.418	0.397	-66.252
1915.164	0.395	-66.418	0.917	23.25	0.917	23.25	0.395	-66.418
1924.975	0.392	-66.582	0.918	23.083	0.918	23.083	0.392	-66.582
1934.787	0.389	-66.745	0.919	22.917	0.919	22.917	0.389	-66.745
1944.599	0.387	-66.907	0.92	22.752	0.92	22.752	0.387	-66.907
1954.41	0.384	-67.069	0.921	22.588	0.921	22.588	0.384	-67.069
1964.222	0.381	-67.229	0.922	22.425	0.922	22.425	0.381	-67.229
1974.034	0.379	-67.388	0.923	22.263	0.923	22.263	0.379	-67.388
1983.845	0.376	-67.547	0.924	22.101	0.924	22.101	0.376	-67.547
1993.657	0.374	-67.704	0.925	21.941	0.925	21.941	0.374	-67.704
2003.469	0.371	-67.861	0.926	21.782	0.926	21.782	0.371	-67.861
2013.28	0.369	-68.016	0.927	21.623	0.927	21.623	0.369	-68.016
2023.092	0.366	-68.171	0.928	21.466	0.928	21.466	0.366	-68.171
2032.904	0.363	-68.325	0.929	21.309	0.929	21.309	0.363	-68.325
2042.716	0.361	-68.478	0.93	21.153	0.93	21.153	0.361	-68.478
2052.527	0.358	-68.63	0.931	20.998	0.931	20.998	0.358	-68.63
2062.339	0.356	-68.781	0.932	20.844	0.932	20.844	0.356	-68.781
2072.151	0.353	-68.931	0.933	20.69	0.933	20.69	0.353	-68.931
2081.962	0.351	-69.08	0.934	20.538	0.934	20.538	0.351	-69.08
2091.774	0.348	-69.229	0.935	20.386	0.935	20.386	0.348	-69.229
2101.586	0.346	-69.377	0.936	20.236	0.936	20.236	0.346	-69.377
2111.397	0.343	-69.524	0.937	20.086	0.937	20.086	0.343	-69.524
2121.209	0.341	-69.67	0.938	19.936	0.938	19.936	0.341	-69.67
2131.021	0.339	-69.815	0.939	19.788	0.939	19.788	0.339	-69.815
2140.833	0.336	-69.959	0.939	19.641	0.939	19.641	0.336	-69.959
2150.644	0.334	-70.103	0.94	19.494	0.94	19.494	0.334	-70.103
2160.456	0.331	-70.245	0.941	19.348	0.941	19.348	0.331	-70.245
2170.268	0.329	-70.387	0.942	19.202	0.942	19.202	0.329	-70.387
2180.079	0.327	-70.528	0.943	19.058	0.943	19.058	0.327	-70.528
2189.891	0.324	-70.669	0.944	18.914	0.944	18.914	0.324	-70.669
2199.703	0.322	-70.808	0.944	18.771	0.944	18.771	0.322	-70.808
2209.514	0.319	-70.947	0.945	18.629	0.945	18.629	0.319	-70.947
2219.326	0.317	-71.085	0.946	18.488	0.946	18.488	0.317	-71.085
2229.138	0.315	-71.222	0.947	18.347	0.947	18.347	0.315	-71.222
2238.949	0.312	-71.359	0.948	18.207	0.948	18.207	0.312	-71.359
2248.761	0.31	-71.494	0.948	18.067	0.948	18.067	0.31	-71.494
2258.573	0.308	-71.629	0.949	17.929	0.949	17.929	0.308	-71.629
2268.385	0.306	-71.764	0.95	17.791	0.95	17.791	0.306	-71.764
2278.196	0.303	-71.897	0.951	17.654	0.951	17.654	0.303	-71.897
2288.008	0.301	-72.03	0.951	17.517	0.951	17.517	0.301	-72.03
2297.82	0.299	-72.162	0.952	17.381	0.952	17.381	0.299	-72.162
2307.631	0.296	-72.294	0.953	17.246	0.953	17.246	0.296	-72.294
2317.443	0.294	-72.424	0.953	17.112	0.953	17.112	0.294	-72.424
2327.255	0.292	-72.554	0.954	16.978	0.954	16.978	0.292	-72.554
2337.066	0.29	-72.683	0.955	16.845	0.955	16.845	0.29	-72.683
2346.878	0.288	-72.812	0.955	16.712	0.955	16.712	0.288	-72.812
2356.69	0.285	-72.94	0.956	16.58	0.956	16.58	0.285	-72.94
2366.501	0.283	-73.067	0.957	16.449	0.957	16.449	0.283	-73.067
2376.313	0.281	-73.194	0.957	16.318	0.957	16.318	0.281	-73.194
2386.125	0.279	-73.319	0.958	16.188	0.958	16.188	0.279	-73.319
2395.937	0.277	-73.445	0.959	16.059	0.959	16.059	0.277	-73.445
2405.748	0.274	-73.569	0.959	15.93	0.959	15.93	0.274	-73.569
2415.56	0.272	-73.693	0.96	15.802	0.96	15.802	0.272	-73.693
2425.372	0.27	-73.816	0.96	15.674	0.96	15.674	0.27	-73.816
2435.183	0.268	-73.939	0.961	15.548	0.961	15.548	0.268	-73.939
2444.995	0.266	-74.061	0.962	15.421	0.962	15.421	0.266	-74.061
2454.807	0.264	-74.182	0.962	15.295	0.962	15.295	0.264	-74.182
2464.618	0.262	-74.303	0.963	15.17	0.963	15.17	0.262	-74.303
2474.43	0.26	-74.423	0.963	15.046	0.963	15.046	0.26	-74.423
2484.242	0.258	-74.542	0.964	14.922	0.964	14.922	0.258	-74.542
2494.054	0.255	-74.661	0.964	14.798	0.964	14.798	0.255	-74.661
2503.865	0.253	-74.779	0.965	14.675	0.965	14.675	0.253	-74.779
2513.677	0.251	-74.896	0.966	14.553	0.966	14.553	0.251	-74.896
2523.489	0.249	-75.013	0.966	14.431	0.966	14.431	0.249	-75.013
2533.3	0.247	-75.13	0.967	14.31	0.967	14.31	0.247	-75.13
2543.112	0.245	-75.245	0.967	14.189	0.967	14.189	0.245	-75.245
2552.924	0.243	-75.361	0.968	14.069	0.968	14.069	0.243	-75.361
2562.735	0.241	-75.475	0.968	13.95	0.968	13.95	0.241	-75.475
2572.547	0.239	-75.589	0.969	13.831	0.969	13.831	0.239	-75.589
2582.359	0.237	-75.702	0.969	13.712	0.969	13.712	0.237	-75.702
2592.17	0.235	-75.815	0.97	13.594	0.97	13.594	0.235	-75.815
2601.982	0.233	-75.927	0.97	13.476	0.97	13.476	0.233	-75.927
2611.794	0.231	-76.039	0.971	13.359	0.971	13.359	0.231	-76.039
2621.606	0.229	-76.15	0.971	13.243	0.971	13.243	0.229	-76.15
2631.417	0.227	-76.26	0.971	13.127	0.971	13.127	0.227	-76.26
2641.229	0.225	-76.37	0.972	13.011	0.972	13.011	0.225	-76.37
2651.041	0.223	-76.479	0.972	12.896	0.972	12.896	0.223	-76.479
2660.852	0.221	-76.588	0.973	12.782	0.973	12.782	0.221	-76.588
2670.664	0.219	-76.696	0.973	12.668	0.973	12.668	0.219	-76.696
2680.476	0.217	-76.804	0.974	12.554	0.974	12.554	0.217	-76.804
2690.287	0.215	-76.911	0.974	12.441	0.974	12.441	0.215	-76.911
2700.099	0.214	-77.017	0.975	12.329	0.975	12.329	0.214	-77.017
2709.911	0.212	-77.123	0.975	12.217	0.975	12.217	0.212	-77.123
2719.722	0.21	-77.229	0.975	12.105	0.975	12.105	0.21	-77.229
2729.534	0.208	-77.334	0.976	11.994	0.976	11.994	0.208	-77.334
2739.346	0.206	-77.438	0.976	11.883	0.976	11.883	0.206	-77.438
2749.158	0.204	-77.542	0.977	11.773	0.977	11.773	0.204	-77.542
2758.969	0.202	-77.645	0.977	11.663	0.977	11.663	0.202	-77.645
2768.781	0.2	-77.747	0.977	11.554	0.977	11.554	0.2	-77.747
2778.593	0.198	-77.849	0.978	11.445	0.978	11.445	0.198	-77.849
2788.404	0.197	-77.951	0.978	11.336	0.978	11.336	0.197	-77.951
2798.216	0.195	-78.052	0.978	11.228	0.978	11.228	0.195	-78.052
2808.028	0.193	-78.153	0.979	11.12	0.979	11.12	0.193	-78.153
2817.839	0.191	-78.252	0.979	11.013	0.979	11.013	0.191	-78.252
2827.651	0.189	-78.352	0.979	10.906	0.979	10.906	0.189	-78.352
2837.463	0.187	-78.451	0.98	10.8	0.98	10.8	0.187	-78.451
2847.275	0.186	-78.549	0.98	10.694	0.98	10.694	0.186	-78.549
2857.086	0.184	-78.647	0.981	10.589	0.981	10.589	0.184	-78.647
2866.898	0.182	-78.744	0.981	10.484	0.981	10.484	0.182	-78.744
2876.71	0.18	-78.841	0.981	10.379	0.981	10.379	0.18	-78.841
2886.521	0.178	-78.937	0.982	10.275	0.982	10.275	0.178	-78.937
2896.333	0.177	-79.033	0.982	10.171	0.982	10.171	0.177	-79.033
2906.145	0.175	-79.128	0.982	10.067	0.982	10.067	0.175	-79.128
2915.956	0.173	-79.223	0.982	9.964	0.982	9.964	0.173	-79.223
2925.768	0.171	-79.317	0.983	9.861	0.983	9.861	0.171	-79.317
2935.58	0.17	-79.41	0.983	9.759	0.983	9.759	0.17	-79.41
2945.391	0.168	-79.503	0.983	9.657	0.983	9.657	0.168	-79.503
2955.203	0.166	-79.596	0.984	9.556	0.984	9.556	0.166	-79.596
2965.015	0.164	-79.687	0.984	9.454	0.984	9.454	0.164	-79.687
2974.827	0.163	-79.779	0.984	9.354	0.984	9.354	0.163	-79.779
2984.638	0.161	-79.87	0.985	9.253	0.985	9.253	0.161	-79.87
2994.45	0.159	-79.96	0.985	9.153	0.985	9.153	0.159	-79.96
3004.262	0.157	-80.05	0.985	9.053	0.985	9.053	0.157	-80.05
3014.073	0.156	-80.139	0.985	8.954	0.985	8.954	0.156	-80.139
3023.885	0.154	-80.228	0.986	8.855	0.986	8.855	0.154	-80.228
3033.697	0.152	-80.316	0.986	8.757	0.986	8.757	0.152	-80.316
3043.508	0.151	-80.403	0.986	8.658	0.986	8.658	0.151	-80.403
3053.32	0.149	-80.49	0.986	8.56	0.986	8.56	0.149	-80.49
3063.132	0.147	-80.577	0.987	8.463	0.987	8.463	0.147	-80.577
3072.944	0.146	-80.663	0.987	8.366	0.987	8.366	0.146	-80.663
3082.755	0.144	-80.748	0.987	8.269	0.987	8.269	0.144	-80.748
3092.567	0.142	-80.833	0.987	8.172	0.987	8.172	0.142	-80.833
3102.379	0.141	-80.917	0.988	8.076	0.988	8.076	0.141	-80.917
3112.19	0.139	-81	0.988	7.98	0.988	7.98	0.139	-81
3122.002	0.137	-81.083	0.988	7.885	0.988	7.885	0.137	-81.083
3131.814	0.136	-81.166	0.988	7.79	0.988	7.79	0.136	-81.166
3141.625	0.134	-81.248	0.989	7.695	0.989	7.695	0.134	-81.248
3151.437	0.132	-81.329	0.989	7.6	0.989	7.6	0.132	-81.329
3161.249	0.131	-81.409	0.989	7.506	0.989	7.506	0.131	-81.409
3171.06	0.129	-81.489	0.989	7.412	0.989	7.412	0.129	-81.489
3180.872	0.127	-81.569	0.989	7.319	0.989	7.319	0.127	-81.569
3190.684	0.126	-81.647	0.99	7.226	0.99	7.226	0.126	-81.647
3200.496	0.124	-81.725	0.99	7.133	0.99	7.133	0.124	-81.725
3210.307	0.123	-81.803	0.99	7.04	0.99	7.04	0.123	-81.803
3220.119	0.121	-81.88	0.99	6.948	0.99	6.948	0.121	-81.88
3229.931	0.119	-81.956	0.99	6.856	0.99	6.856	0.119	-81.956
3239.742	0.118	-82.031	0.991	6.764	0.991	6.764	0.118	-82.031
