! AVX Thin Film Operation		Date: April 2012 
! Description: Accu-P® Series, Thin Film, SMD, RF Capacitor
! Part Number: 12101J4R2ABTTR					
!	100	MHz	-	20.05	GHz			
!	Serial	Measurements						
!								
#	MHZ	S	MA	R	50			
!	S11	S21	S12	S22				
!	dB	Phase	dB	Phase	dB	Phase	dB	Phase
50 0.991 -7.518 0.131 82.401 0.131 82.401 0.991 -7.518
100 0.966 -14.801 0.255 75.095 0.255 75.095 0.966 -14.801
150 0.929 -21.656 0.369 68.216 0.369 68.216 0.929 -21.656
200 0.882 -27.959 0.469 61.89 0.469 61.89 0.882 -27.959
250 0.831 -33.653 0.554 56.171 0.554 56.171 0.831 -33.653
300 0.778 -38.737 0.626 51.063 0.626 51.063 0.778 -38.737
350 0.726 -43.246 0.685 46.529 0.685 46.529 0.726 -43.246
400 0.676 -47.233 0.734 42.517 0.734 42.517 0.676 -47.233
450 0.629 -50.758 0.774 38.965 0.774 38.965 0.629 -50.758
500 0.585 -53.881 0.808 35.815 0.808 35.815 0.585 -53.881
550 0.545 -56.657 0.835 33.011 0.835 33.011 0.545 -56.657
600 0.508 -59.133 0.858 30.506 0.858 30.506 0.508 -59.133
650 0.473 -61.352 0.878 28.257 0.878 28.257 0.473 -61.352
700 0.442 -63.35 0.894 26.228 0.894 26.228 0.442 -63.35
750 0.413 -65.157 0.907 24.389 0.907 24.389 0.413 -65.157
800 0.386 -66.798 0.919 22.714 0.919 22.714 0.386 -66.798
850 0.361 -68.295 0.929 21.181 0.929 21.181 0.361 -68.295
900 0.338 -69.666 0.938 19.773 0.938 19.773 0.338 -69.666
950 0.317 -70.926 0.945 18.473 0.945 18.473 0.317 -70.926
1000 0.297 -72.088 0.952 17.269 0.952 17.269 0.297 -72.088
1050 0.278 -73.164 0.957 16.149 0.957 16.149 0.278 -73.164
1100 0.261 -74.163 0.962 15.103 0.962 15.103 0.261 -74.163
1150 0.244 -75.092 0.966 14.123 0.966 14.123 0.244 -75.092
1200 0.228 -75.958 0.97 13.202 0.97 13.202 0.228 -75.958
1250 0.214 -76.767 0.974 12.335 0.974 12.335 0.214 -76.767
1300 0.2 -77.524 0.977 11.514 0.977 11.514 0.2 -77.524
1350 0.186 -78.232 0.979 10.737 0.979 10.737 0.186 -78.232
1400 0.174 -78.895 0.981 9.998 0.981 9.998 0.174 -78.895
1450 0.162 -79.515 0.984 9.294 0.984 9.294 0.162 -79.515
1500 0.15 -80.095 0.985 8.622 0.985 8.622 0.15 -80.095
1550 0.139 -80.635 0.987 7.979 0.987 7.979 0.139 -80.635
1600 0.128 -81.136 0.988 7.363 0.988 7.363 0.128 -81.136
1650 0.118 -81.597 0.99 6.771 0.99 6.771 0.118 -81.597
1700 0.108 -82.017 0.991 6.202 0.991 6.202 0.108 -82.017
1750 0.099 -82.394 0.992 5.653 0.992 5.653 0.099 -82.394
1800 0.089 -82.722 0.993 5.123 0.993 5.123 0.089 -82.722
1850 0.08 -82.996 0.993 4.61 0.993 4.61 0.08 -82.996
1900 0.072 -83.204 0.994 4.114 0.994 4.114 0.072 -83.204
1950 0.063 -83.331 0.995 3.633 0.995 3.633 0.063 -83.331
2000 0.055 -83.352 0.995 3.166 0.995 3.166 0.055 -83.352
2050 0.047 -83.225 0.996 2.712 0.996 2.712 0.047 -83.225
2100 0.04 -82.88 0.996 2.27 0.996 2.27 0.04 -82.88
2150 0.032 -82.184 0.996 1.84 0.996 1.84 0.032 -82.184
2200 0.025 -80.858 0.996 1.421 0.996 1.421 0.025 -80.858
2250 0.018 -78.202 0.996 1.011 0.996 1.011 0.018 -78.202
2300 0.011 -71.884 0.997 0.611 0.997 0.611 0.011 -71.884
2350 5.093e-3 -48.483 0.997 0.219 0.997 0.219 5.093e-3 -48.483
2400 4.413e-3 40.224 0.997 -0.164 0.997 -0.164 4.413e-3 40.224
2450 9.991e-3 69.801 0.997 -0.539 0.997 -0.539 9.991e-3 69.801
2500 0.016 77.103 0.997 -0.907 0.997 -0.907 0.016 77.103
2550 0.022 80.093 0.996 -1.268 0.996 -1.268 0.022 80.093
2600 0.029 81.606 0.996 -1.622 0.996 -1.622 0.029 81.606
2650 0.035 82.445 0.996 -1.97 0.996 -1.97 0.035 82.445
2700 0.04 82.925 0.996 -2.312 0.996 -2.312 0.04 82.925
2750 0.046 83.191 0.996 -2.648 0.996 -2.648 0.046 83.191
2800 0.052 83.321 0.995 -2.979 0.995 -2.979 0.052 83.321
2850 0.058 83.359 0.995 -3.305 0.995 -3.305 0.058 83.359
2900 0.063 83.332 0.995 -3.626 0.995 -3.626 0.063 83.332
2950 0.069 83.259 0.994 -3.942 0.994 -3.942 0.069 83.259
3000 0.074 83.152 0.994 -4.254 0.994 -4.254 0.074 83.152
3050 0.08 83.019 0.993 -4.562 0.993 -4.562 0.08 83.019
3100 0.085 82.866 0.993 -4.865 0.993 -4.865 0.085 82.866
3150 0.09 82.697 0.993 -5.165 0.993 -5.165 0.09 82.697
3200 0.095 82.517 0.992 -5.461 0.992 -5.461 0.095 82.517
3250 0.1 82.327 0.992 -5.754 0.992 -5.754 0.1 82.327
3300 0.105 82.129 0.991 -6.043 0.991 -6.043 0.105 82.129
3350 0.11 81.926 0.991 -6.328 0.991 -6.328 0.11 81.926
3400 0.115 81.718 0.99 -6.611 0.99 -6.611 0.115 81.718
3450 0.12 81.506 0.989 -6.891 0.989 -6.891 0.12 81.506
3500 0.125 81.291 0.989 -7.167 0.989 -7.167 0.125 81.291
3550 0.13 81.073 0.988 -7.441 0.988 -7.441 0.13 81.073
3600 0.134 80.854 0.988 -7.712 0.988 -7.712 0.134 80.854
3650 0.139 80.634 0.987 -7.981 0.987 -7.981 0.139 80.634
3700 0.143 80.412 0.986 -8.246 0.986 -8.246 0.143 80.412
3750 0.148 80.19 0.986 -8.51 0.986 -8.51 0.148 80.19
3800 0.153 79.968 0.985 -8.771 0.985 -8.771 0.153 79.968
3850 0.157 79.745 0.984 -9.03 0.984 -9.03 0.157 79.745
3900 0.161 79.522 0.984 -9.287 0.984 -9.287 0.161 79.522
3950 0.166 79.299 0.983 -9.541 0.983 -9.541 0.166 79.299
4000 0.17 79.077 0.982 -9.793 0.982 -9.793 0.17 79.077
4050 0.174 78.854 0.981 -10.044 0.981 -10.044 0.174 78.854
4100 0.179 78.632 0.981 -10.292 0.981 -10.292 0.179 78.632
4150 0.183 78.411 0.98 -10.539 0.98 -10.539 0.183 78.411
4200 0.187 78.19 0.979 -10.783 0.979 -10.783 0.187 78.19
4250 0.191 77.97 0.978 -11.026 0.978 -11.026 0.191 77.97
4300 0.195 77.75 0.977 -11.267 0.977 -11.267 0.195 77.75
4350 0.2 77.531 0.977 -11.506 0.977 -11.506 0.2 77.531
4400 0.204 77.313 0.976 -11.744 0.976 -11.744 0.204 77.313
4450 0.208 77.095 0.975 -11.98 0.975 -11.98 0.208 77.095
4500 0.212 76.878 0.974 -12.215 0.974 -12.215 0.212 76.878
4550 0.216 76.662 0.973 -12.447 0.973 -12.447 0.216 76.662
4600 0.22 76.447 0.972 -12.679 0.972 -12.679 0.22 76.447
4650 0.223 76.233 0.971 -12.909 0.971 -12.909 0.223 76.233
4700 0.227 76.019 0.97 -13.137 0.97 -13.137 0.227 76.019
4750 0.231 75.806 0.97 -13.364 0.97 -13.364 0.231 75.806
4800 0.235 75.594 0.969 -13.59 0.969 -13.59 0.235 75.594
4850 0.239 75.383 0.968 -13.814 0.968 -13.814 0.239 75.383
4900 0.243 75.173 0.967 -14.037 0.967 -14.037 0.243 75.173
4950 0.246 74.963 0.966 -14.259 0.966 -14.259 0.246 74.963
5000 0.25 74.754 0.965 -14.479 0.965 -14.479 0.25 74.754
5050 0.254 74.547 0.964 -14.699 0.964 -14.699 0.254 74.547
5100 0.257 74.34 0.963 -14.917 0.963 -14.917 0.257 74.34
5150 0.261 74.133 0.962 -15.133 0.962 -15.133 0.261 74.133
5200 0.265 73.928 0.961 -15.349 0.961 -15.349 0.265 73.928
5250 0.268 73.724 0.96 -15.563 0.96 -15.563 0.268 73.724
5300 0.272 73.52 0.959 -15.777 0.959 -15.777 0.272 73.52
5350 0.275 73.317 0.958 -15.989 0.958 -15.989 0.275 73.317
5400 0.279 73.115 0.957 -16.2 0.957 -16.2 0.279 73.115
5450 0.283 72.914 0.956 -16.41 0.956 -16.41 0.283 72.914
5500 0.286 72.713 0.955 -16.619 0.955 -16.619 0.286 72.713
5550 0.289 72.514 0.954 -16.827 0.954 -16.827 0.289 72.514
5600 0.293 72.315 0.953 -17.033 0.953 -17.033 0.293 72.315
5650 0.296 72.117 0.952 -17.239 0.952 -17.239 0.296 72.117
5700 0.3 71.92 0.951 -17.444 0.951 -17.444 0.3 71.92
5750 0.303 71.723 0.95 -17.648 0.95 -17.648 0.303 71.723
5800 0.307 71.527 0.949 -17.851 0.949 -17.851 0.307 71.527
5850 0.31 71.332 0.947 -18.053 0.947 -18.053 0.31 71.332
5900 0.313 71.138 0.946 -18.253 0.946 -18.253 0.313 71.138
5950 0.317 70.945 0.945 -18.453 0.945 -18.453 0.317 70.945
6000 0.32 70.752 0.944 -18.653 0.944 -18.653 0.32 70.752
6050 0.323 70.56 0.943 -18.851 0.943 -18.851 0.323 70.56
6100 0.326 70.369 0.942 -19.048 0.942 -19.048 0.326 70.369
6150 0.33 70.179 0.941 -19.244 0.941 -19.244 0.33 70.179
6200 0.333 69.989 0.94 -19.44 0.94 -19.44 0.333 69.989
6250 0.336 69.8 0.939 -19.634 0.939 -19.634 0.336 69.8
6300 0.339 69.612 0.937 -19.828 0.937 -19.828 0.339 69.612
6350 0.342 69.425 0.936 -20.021 0.936 -20.021 0.342 69.425
6400 0.346 69.238 0.935 -20.213 0.935 -20.213 0.346 69.238
6450 0.349 69.052 0.934 -20.404 0.934 -20.404 0.349 69.052
6500 0.352 68.867 0.933 -20.594 0.933 -20.594 0.352 68.867
6550 0.355 68.682 0.932 -20.784 0.932 -20.784 0.355 68.682
6600 0.358 68.498 0.93 -20.973 0.93 -20.973 0.358 68.498
6650 0.361 68.315 0.929 -21.161 0.929 -21.161 0.361 68.315
6700 0.364 68.132 0.928 -21.348 0.928 -21.348 0.364 68.132
6750 0.367 67.951 0.927 -21.534 0.927 -21.534 0.367 67.951
6800 0.37 67.77 0.926 -21.719 0.926 -21.719 0.37 67.77
6850 0.373 67.589 0.925 -21.904 0.925 -21.904 0.373 67.589
6900 0.376 67.409 0.923 -22.088 0.923 -22.088 0.376 67.409
6950 0.379 67.23 0.922 -22.272 0.922 -22.272 0.379 67.23
7000 0.382 67.052 0.921 -22.454 0.921 -22.454 0.382 67.052
7050 0.385 66.874 0.92 -22.636 0.92 -22.636 0.385 66.874
7100 0.388 66.697 0.918 -22.817 0.918 -22.817 0.388 66.697
7150 0.391 66.521 0.917 -22.997 0.917 -22.997 0.391 66.521
7200 0.394 66.345 0.916 -23.177 0.916 -23.177 0.394 66.345
7250 0.396 66.17 0.915 -23.355 0.915 -23.355 0.396 66.17
7300 0.399 65.995 0.914 -23.533 0.914 -23.533 0.399 65.995
7350 0.402 65.822 0.912 -23.711 0.912 -23.711 0.402 65.822
7400 0.405 65.648 0.911 -23.887 0.911 -23.887 0.405 65.648
7450 0.408 65.476 0.91 -24.063 0.91 -24.063 0.408 65.476
7500 0.411 65.304 0.909 -24.239 0.909 -24.239 0.411 65.304
7550 0.413 65.133 0.907 -24.413 0.907 -24.413 0.413 65.133
7600 0.416 64.962 0.906 -24.587 0.906 -24.587 0.416 64.962
7650 0.419 64.792 0.905 -24.76 0.905 -24.76 0.419 64.792
7700 0.422 64.623 0.904 -24.933 0.904 -24.933 0.422 64.623
7750 0.424 64.454 0.902 -25.105 0.902 -25.105 0.424 64.454
7800 0.427 64.286 0.901 -25.276 0.901 -25.276 0.427 64.286
7850 0.43 64.119 0.9 -25.446 0.9 -25.446 0.43 64.119
7900 0.432 63.952 0.898 -25.616 0.898 -25.616 0.432 63.952
7950 0.435 63.785 0.897 -25.785 0.897 -25.785 0.435 63.785
8000 0.438 63.62 0.896 -25.954 0.896 -25.954 0.438 63.62
8050 0.44 63.455 0.895 -26.122 0.895 -26.122 0.44 63.455
8100 0.443 63.29 0.893 -26.289 0.893 -26.289 0.443 63.29
8150 0.446 63.126 0.892 -26.455 0.892 -26.455 0.446 63.126
8200 0.448 62.963 0.891 -26.621 0.891 -26.621 0.448 62.963
8250 0.451 62.801 0.889 -26.786 0.889 -26.786 0.451 62.801
8300 0.453 62.638 0.888 -26.951 0.888 -26.951 0.453 62.638
8350 0.456 62.477 0.887 -27.115 0.887 -27.115 0.456 62.477
8400 0.458 62.316 0.886 -27.278 0.886 -27.278 0.458 62.316
8450 0.461 62.156 0.884 -27.441 0.884 -27.441 0.461 62.156
8500 0.463 61.996 0.883 -27.603 0.883 -27.603 0.463 61.996
8550 0.466 61.837 0.882 -27.765 0.882 -27.765 0.466 61.837
8600 0.468 61.678 0.88 -27.926 0.88 -27.926 0.468 61.678
8650 0.471 61.521 0.879 -28.086 0.879 -28.086 0.471 61.521
8700 0.473 61.363 0.878 -28.246 0.878 -28.246 0.473 61.363
8750 0.476 61.206 0.876 -28.405 0.876 -28.405 0.476 61.206
8800 0.478 61.05 0.875 -28.563 0.875 -28.563 0.478 61.05
8850 0.481 60.894 0.874 -28.721 0.874 -28.721 0.481 60.894
8900 0.483 60.739 0.872 -28.879 0.872 -28.879 0.483 60.739
8950 0.485 60.585 0.871 -29.035 0.871 -29.035 0.485 60.585
9000 0.488 60.431 0.87 -29.191 0.87 -29.191 0.488 60.431
9050 0.49 60.277 0.868 -29.347 0.868 -29.347 0.49 60.277
9100 0.492 60.124 0.867 -29.502 0.867 -29.502 0.492 60.124
9150 0.495 59.972 0.866 -29.656 0.866 -29.656 0.495 59.972
9200 0.497 59.82 0.864 -29.81 0.864 -29.81 0.497 59.82
9250 0.499 59.669 0.863 -29.963 0.863 -29.963 0.499 59.669
9300 0.502 59.518 0.862 -30.116 0.862 -30.116 0.502 59.518
9350 0.504 59.368 0.86 -30.268 0.86 -30.268 0.504 59.368
9400 0.506 59.219 0.859 -30.419 0.859 -30.419 0.506 59.219
9450 0.509 59.07 0.858 -30.57 0.858 -30.57 0.509 59.07
9500 0.511 58.921 0.856 -30.72 0.856 -30.72 0.511 58.921
9550 0.513 58.773 0.855 -30.87 0.855 -30.87 0.513 58.773
9600 0.515 58.626 0.854 -31.019 0.854 -31.019 0.515 58.626
9650 0.518 58.479 0.852 -31.168 0.852 -31.168 0.518 58.479
9700 0.52 58.333 0.851 -31.316 0.851 -31.316 0.52 58.333
9750 0.522 58.187 0.85 -31.464 0.85 -31.464 0.522 58.187
9800 0.524 58.041 0.848 -31.611 0.848 -31.611 0.524 58.041
9850 0.526 57.897 0.847 -31.757 0.847 -31.757 0.526 57.897
9900 0.528 57.752 0.846 -31.903 0.846 -31.903 0.528 57.752
9950 0.531 57.609 0.844 -32.049 0.844 -32.049 0.531 57.609
10000 0.533 57.465 0.843 -32.193 0.843 -32.193 0.533 57.465
10050 0.535 57.323 0.842 -32.338 0.842 -32.338 0.535 57.323
10100 0.537 57.181 0.84 -32.482 0.84 -32.482 0.537 57.181
10150 0.539 57.039 0.839 -32.625 0.839 -32.625 0.539 57.039
10200 0.541 56.898 0.838 -32.768 0.838 -32.768 0.541 56.898
10250 0.543 56.757 0.836 -32.91 0.836 -32.91 0.543 56.757
10300 0.545 56.617 0.835 -33.051 0.835 -33.051 0.545 56.617
10350 0.547 56.477 0.834 -33.192 0.834 -33.192 0.547 56.477
10400 0.55 56.338 0.832 -33.333 0.832 -33.333 0.55 56.338
10450 0.552 56.2 0.831 -33.473 0.831 -33.473 0.552 56.2
10500 0.554 56.062 0.83 -33.613 0.83 -33.613 0.554 56.062
10550 0.556 55.924 0.828 -33.752 0.828 -33.752 0.556 55.924
10600 0.558 55.787 0.827 -33.89 0.827 -33.89 0.558 55.787
10650 0.56 55.65 0.826 -34.028 0.826 -34.028 0.56 55.65
10700 0.562 55.514 0.824 -34.166 0.824 -34.166 0.562 55.514
10750 0.564 55.378 0.823 -34.303 0.823 -34.303 0.564 55.378
10800 0.566 55.243 0.822 -34.439 0.822 -34.439 0.566 55.243
10850 0.567 55.109 0.82 -34.575 0.82 -34.575 0.567 55.109
10900 0.569 54.975 0.819 -34.711 0.819 -34.711 0.569 54.975
10950 0.571 54.841 0.818 -34.846 0.818 -34.846 0.571 54.841
11000 0.573 54.708 0.816 -34.98 0.816 -34.98 0.573 54.708
11050 0.575 54.575 0.815 -35.114 0.815 -35.114 0.575 54.575
11100 0.577 54.443 0.814 -35.248 0.814 -35.248 0.577 54.443
11150 0.579 54.311 0.812 -35.381 0.812 -35.381 0.579 54.311
11200 0.581 54.18 0.811 -35.513 0.811 -35.513 0.581 54.18
11250 0.583 54.049 0.81 -35.645 0.81 -35.645 0.583 54.049
11300 0.585 53.919 0.808 -35.777 0.808 -35.777 0.585 53.919
11350 0.586 53.789 0.807 -35.908 0.807 -35.908 0.586 53.789
11400 0.588 53.659 0.806 -36.039 0.806 -36.039 0.588 53.659
11450 0.59 53.53 0.804 -36.169 0.804 -36.169 0.59 53.53
11500 0.592 53.402 0.803 -36.298 0.803 -36.298 0.592 53.402
11550 0.594 53.274 0.802 -36.427 0.802 -36.427 0.594 53.274
11600 0.596 53.146 0.8 -36.556 0.8 -36.556 0.596 53.146
11650 0.597 53.019 0.799 -36.684 0.799 -36.684 0.597 53.019
11700 0.599 52.893 0.798 -36.812 0.798 -36.812 0.599 52.893
11750 0.601 52.767 0.796 -36.939 0.796 -36.939 0.601 52.767
11800 0.603 52.641 0.795 -37.066 0.795 -37.066 0.603 52.641
11850 0.605 52.516 0.794 -37.192 0.794 -37.192 0.605 52.516
11900 0.606 52.391 0.792 -37.318 0.792 -37.318 0.606 52.391
11950 0.608 52.267 0.791 -37.444 0.791 -37.444 0.608 52.267
12000 0.61 52.143 0.79 -37.569 0.79 -37.569 0.61 52.143
12050 0.611 52.019 0.788 -37.693 0.788 -37.693 0.611 52.019
12100 0.613 51.896 0.787 -37.817 0.787 -37.817 0.613 51.896
12150 0.615 51.774 0.786 -37.941 0.786 -37.941 0.615 51.774
12200 0.617 51.652 0.784 -38.064 0.784 -38.064 0.617 51.652
12250 0.618 51.53 0.783 -38.187 0.783 -38.187 0.618 51.53
12300 0.62 51.409 0.782 -38.309 0.782 -38.309 0.62 51.409
12350 0.622 51.288 0.78 -38.431 0.78 -38.431 0.622 51.288
12400 0.623 51.168 0.779 -38.552 0.779 -38.552 0.623 51.168
12450 0.625 51.048 0.778 -38.673 0.778 -38.673 0.625 51.048
12500 0.627 50.928 0.776 -38.793 0.776 -38.793 0.627 50.928
12550 0.628 50.809 0.775 -38.913 0.775 -38.913 0.628 50.809
12600 0.63 50.691 0.774 -39.033 0.774 -39.033 0.63 50.691
12650 0.631 50.572 0.772 -39.152 0.772 -39.152 0.631 50.572
12700 0.633 50.455 0.771 -39.271 0.771 -39.271 0.633 50.455
12750 0.635 50.337 0.77 -39.389 0.77 -39.389 0.635 50.337
12800 0.636 50.22 0.769 -39.507 0.769 -39.507 0.636 50.22
12850 0.638 50.104 0.767 -39.624 0.767 -39.624 0.638 50.104
12900 0.639 49.988 0.766 -39.741 0.766 -39.741 0.639 49.988
12950 0.641 49.872 0.765 -39.858 0.765 -39.858 0.641 49.872
13000 0.642 49.757 0.763 -39.974 0.763 -39.974 0.642 49.757
13050 0.644 49.642 0.762 -40.09 0.762 -40.09 0.644 49.642
13100 0.646 49.528 0.761 -40.205 0.761 -40.205 0.646 49.528
13150 0.647 49.414 0.759 -40.32 0.759 -40.32 0.647 49.414
13200 0.649 49.3 0.758 -40.434 0.758 -40.434 0.649 49.3
13250 0.65 49.187 0.757 -40.548 0.757 -40.548 0.65 49.187
13300 0.652 49.074 0.756 -40.662 0.756 -40.662 0.652 49.074
13350 0.653 48.962 0.754 -40.775 0.754 -40.775 0.653 48.962
13400 0.655 48.85 0.753 -40.888 0.753 -40.888 0.655 48.85
13450 0.656 48.738 0.752 -41 0.752 -41 0.656 48.738
13500 0.658 48.627 0.75 -41.112 0.75 -41.112 0.658 48.627
13550 0.659 48.516 0.749 -41.224 0.749 -41.224 0.659 48.516
13600 0.66 48.406 0.748 -41.335 0.748 -41.335 0.66 48.406
13650 0.662 48.296 0.747 -41.446 0.747 -41.446 0.662 48.296
13700 0.663 48.186 0.745 -41.556 0.745 -41.556 0.663 48.186
13750 0.665 48.077 0.744 -41.666 0.744 -41.666 0.665 48.077
13800 0.666 47.968 0.743 -41.776 0.743 -41.776 0.666 47.968
13850 0.668 47.86 0.742 -41.885 0.742 -41.885 0.668 47.86
13900 0.669 47.752 0.74 -41.994 0.74 -41.994 0.669 47.752
13950 0.67 47.644 0.739 -42.102 0.739 -42.102 0.67 47.644
14000 0.672 47.537 0.738 -42.21 0.738 -42.21 0.672 47.537
14050 0.673 47.43 0.736 -42.317 0.736 -42.317 0.673 47.43
14100 0.675 47.324 0.735 -42.425 0.735 -42.425 0.675 47.324
14150 0.676 47.218 0.734 -42.532 0.734 -42.532 0.676 47.218
14200 0.677 47.112 0.733 -42.638 0.733 -42.638 0.677 47.112
14250 0.679 47.007 0.731 -42.744 0.731 -42.744 0.679 47.007
14300 0.68 46.902 0.73 -42.85 0.73 -42.85 0.68 46.902
14350 0.681 46.797 0.729 -42.955 0.729 -42.955 0.681 46.797
14400 0.683 46.693 0.728 -43.06 0.728 -43.06 0.683 46.693
14450 0.684 46.589 0.726 -43.164 0.726 -43.164 0.684 46.589
14500 0.685 46.486 0.725 -43.269 0.725 -43.269 0.685 46.486
14550 0.687 46.383 0.724 -43.372 0.724 -43.372 0.687 46.383
14600 0.688 46.28 0.723 -43.476 0.723 -43.476 0.688 46.28
14650 0.689 46.178 0.721 -43.579 0.721 -43.579 0.689 46.178
14700 0.691 46.076 0.72 -43.681 0.72 -43.681 0.691 46.076
14750 0.692 45.974 0.719 -43.784 0.719 -43.784 0.692 45.974
14800 0.693 45.873 0.718 -43.886 0.718 -43.886 0.693 45.873
14850 0.695 45.772 0.717 -43.987 0.717 -43.987 0.695 45.772
14900 0.696 45.671 0.715 -44.088 0.715 -44.088 0.696 45.671
14950 0.697 45.571 0.714 -44.189 0.714 -44.189 0.697 45.571
15000 0.698 45.471 0.713 -44.29 0.713 -44.29 0.698 45.471
15050 0.7 45.372 0.712 -44.39 0.712 -44.39 0.7 45.372
15100 0.701 45.273 0.71 -44.49 0.71 -44.49 0.701 45.273
15150 0.702 45.174 0.709 -44.589 0.709 -44.589 0.702 45.174
15200 0.703 45.076 0.708 -44.688 0.708 -44.688 0.703 45.076
15250 0.704 44.978 0.707 -44.787 0.707 -44.787 0.704 44.978
15300 0.706 44.88 0.706 -44.885 0.706 -44.885 0.706 44.88
15350 0.707 44.782 0.704 -44.983 0.704 -44.983 0.707 44.782
15400 0.708 44.685 0.703 -45.081 0.703 -45.081 0.708 44.685
15450 0.709 44.589 0.702 -45.178 0.702 -45.178 0.709 44.589
15500 0.71 44.492 0.701 -45.275 0.701 -45.275 0.71 44.492
15550 0.712 44.396 0.7 -45.372 0.7 -45.372 0.712 44.396
15600 0.713 44.301 0.698 -45.468 0.698 -45.468 0.713 44.301
15650 0.714 44.205 0.697 -45.564 0.697 -45.564 0.714 44.205
15700 0.715 44.11 0.696 -45.659 0.696 -45.659 0.715 44.11
15750 0.716 44.016 0.695 -45.755 0.695 -45.755 0.716 44.016
15800 0.718 43.921 0.694 -45.849 0.694 -45.849 0.718 43.921
15850 0.719 43.827 0.692 -45.944 0.692 -45.944 0.719 43.827
15900 0.72 43.734 0.691 -46.038 0.691 -46.038 0.72 43.734
15950 0.721 43.641 0.69 -46.132 0.69 -46.132 0.721 43.641
16000 0.722 43.548 0.689 -46.226 0.689 -46.226 0.722 43.548
16050 0.723 43.455 0.688 -46.319 0.688 -46.319 0.723 43.455
16100 0.724 43.363 0.687 -46.412 0.687 -46.412 0.724 43.363
16150 0.725 43.27 0.685 -46.504 0.685 -46.504 0.725 43.27
16200 0.727 43.179 0.684 -46.597 0.684 -46.597 0.727 43.179
16250 0.728 43.087 0.683 -46.688 0.683 -46.688 0.728 43.087
16300 0.729 42.996 0.682 -46.78 0.682 -46.78 0.729 42.996
16350 0.73 42.906 0.681 -46.871 0.681 -46.871 0.73 42.906
16400 0.731 42.815 0.68 -46.962 0.68 -46.962 0.731 42.815
16450 0.732 42.725 0.678 -47.053 0.678 -47.053 0.732 42.725
16500 0.733 42.635 0.677 -47.143 0.677 -47.143 0.733 42.635
16550 0.734 42.546 0.676 -47.233 0.676 -47.233 0.734 42.546
16600 0.735 42.457 0.675 -47.323 0.675 -47.323 0.735 42.457
16650 0.736 42.368 0.674 -47.412 0.674 -47.412 0.736 42.368
16700 0.737 42.279 0.673 -47.501 0.673 -47.501 0.737 42.279
16750 0.738 42.191 0.672 -47.59 0.672 -47.59 0.738 42.191
16800 0.739 42.103 0.67 -47.678 0.67 -47.678 0.739 42.103
16850 0.74 42.016 0.669 -47.767 0.669 -47.767 0.74 42.016
16900 0.741 41.928 0.668 -47.854 0.668 -47.854 0.741 41.928
