! AVX Thin Film Operation		Date: April 2012 
! Description: Accu-P® Series, Thin Film, SMD, RF Capacitor
! Part Number: 12101J3R3ABTTR					
!	100	MHz	-	10.05	GHz			
!	Serial	Measurements						
!								
#	MHZ	S	MA	R	50			
!	S11	S21	S12	S22				
!	dB	Phase	dB	Phase	dB	Phase	dB	Phase
100	0.979	-11.73	0.203	78.253	0.203	78.253	0.979	-11.73
109.812	0.975	-12.848	0.222	77.133	0.222	77.133	0.975	-12.848
119.623	0.97	-13.957	0.241	76.023	0.241	76.023	0.97	-13.957
129.435	0.966	-15.057	0.26	74.921	0.26	74.921	0.966	-15.057
139.247	0.96	-16.147	0.278	73.83	0.278	73.83	0.96	-16.147
149.058	0.955	-17.226	0.296	72.75	0.296	72.75	0.955	-17.226
158.87	0.949	-18.293	0.314	71.68	0.314	71.68	0.949	-18.293
168.682	0.943	-19.35	0.331	70.622	0.331	70.622	0.943	-19.35
178.494	0.937	-20.394	0.348	69.576	0.348	69.576	0.937	-20.394
188.305	0.931	-21.426	0.365	68.543	0.365	68.543	0.931	-21.426
198.117	0.924	-22.445	0.382	67.522	0.382	67.522	0.924	-22.445
207.929	0.917	-23.45	0.398	66.515	0.398	66.515	0.917	-23.45
217.74	0.91	-24.443	0.414	65.521	0.414	65.521	0.91	-24.443
227.552	0.903	-25.422	0.429	64.54	0.429	64.54	0.903	-25.422
237.364	0.896	-26.387	0.444	63.573	0.444	63.573	0.896	-26.387
247.175	0.888	-27.338	0.459	62.621	0.459	62.621	0.888	-27.338
256.987	0.88	-28.275	0.474	61.682	0.474	61.682	0.88	-28.275
266.799	0.873	-29.198	0.488	60.758	0.488	60.758	0.873	-29.198
276.611	0.865	-30.106	0.502	59.848	0.502	59.848	0.865	-30.106
286.422	0.857	-31	0.515	58.952	0.515	58.952	0.857	-31
296.234	0.849	-31.88	0.528	58.07	0.528	58.07	0.849	-31.88
306.046	0.841	-32.745	0.541	57.203	0.541	57.203	0.841	-32.745
315.857	0.832	-33.596	0.553	56.351	0.553	56.351	0.832	-33.596
325.669	0.824	-34.432	0.565	55.512	0.565	55.512	0.824	-34.432
335.481	0.816	-35.255	0.577	54.688	0.577	54.688	0.816	-35.255
345.292	0.808	-36.063	0.589	53.878	0.589	53.878	0.808	-36.063
355.104	0.799	-36.858	0.6	53.082	0.6	53.082	0.799	-36.858
364.916	0.791	-37.638	0.611	52.3	0.611	52.3	0.791	-37.638
374.727	0.783	-38.405	0.621	51.531	0.621	51.531	0.783	-38.405
384.539	0.775	-39.158	0.631	50.777	0.631	50.777	0.775	-39.158
394.351	0.766	-39.898	0.641	50.035	0.641	50.035	0.766	-39.898
404.163	0.758	-40.624	0.651	49.307	0.651	49.307	0.758	-40.624
413.974	0.75	-41.337	0.66	48.592	0.66	48.592	0.75	-41.337
423.786	0.742	-42.038	0.67	47.89	0.67	47.89	0.742	-42.038
433.598	0.734	-42.726	0.678	47.2	0.678	47.2	0.734	-42.726
443.409	0.726	-43.401	0.687	46.523	0.687	46.523	0.726	-43.401
453.221	0.718	-44.064	0.695	45.858	0.695	45.858	0.718	-44.064
463.033	0.71	-44.715	0.704	45.206	0.704	45.206	0.71	-44.715
472.844	0.702	-45.354	0.711	44.565	0.711	44.565	0.702	-45.354
482.656	0.694	-45.981	0.719	43.936	0.719	43.936	0.694	-45.981
492.468	0.686	-46.597	0.727	43.318	0.727	43.318	0.686	-46.597
502.279	0.678	-47.202	0.734	42.711	0.734	42.711	0.678	-47.202
512.091	0.671	-47.795	0.741	42.116	0.741	42.116	0.671	-47.795
521.903	0.663	-48.378	0.748	41.531	0.748	41.531	0.663	-48.378
531.715	0.655	-48.951	0.754	40.957	0.754	40.957	0.655	-48.951
541.526	0.648	-49.513	0.761	40.393	0.761	40.393	0.648	-49.513
551.338	0.641	-50.065	0.767	39.839	0.767	39.839	0.641	-50.065
561.15	0.633	-50.606	0.773	39.296	0.773	39.296	0.633	-50.606
570.961	0.626	-51.139	0.779	38.762	0.779	38.762	0.626	-51.139
580.773	0.619	-51.661	0.784	38.237	0.784	38.237	0.619	-51.661
590.585	0.612	-52.175	0.79	37.722	0.79	37.722	0.612	-52.175
600.396	0.605	-52.679	0.795	37.216	0.795	37.216	0.605	-52.679
610.208	0.598	-53.174	0.8	36.718	0.8	36.718	0.598	-53.174
620.02	0.591	-53.661	0.806	36.23	0.806	36.23	0.591	-53.661
629.832	0.584	-54.139	0.81	35.75	0.81	35.75	0.584	-54.139
639.643	0.578	-54.609	0.815	35.278	0.815	35.278	0.578	-54.609
649.455	0.571	-55.07	0.82	34.814	0.82	34.814	0.571	-55.07
659.267	0.564	-55.524	0.824	34.359	0.824	34.359	0.564	-55.524
669.078	0.558	-55.97	0.829	33.911	0.829	33.911	0.558	-55.97
678.89	0.552	-56.408	0.833	33.47	0.833	33.47	0.552	-56.408
688.702	0.545	-56.839	0.837	33.037	0.837	33.037	0.545	-56.839
698.513	0.539	-57.263	0.841	32.612	0.841	32.612	0.539	-57.263
708.325	0.533	-57.679	0.845	32.193	0.845	32.193	0.533	-57.679
718.137	0.527	-58.089	0.849	31.782	0.849	31.782	0.527	-58.089
727.948	0.521	-58.492	0.853	31.377	0.853	31.377	0.521	-58.492
737.76	0.515	-58.888	0.856	30.978	0.856	30.978	0.515	-58.888
747.572	0.509	-59.278	0.86	30.587	0.86	30.587	0.509	-59.278
757.384	0.503	-59.661	0.863	30.201	0.863	30.201	0.503	-59.661
767.195	0.497	-60.038	0.866	29.822	0.866	29.822	0.497	-60.038
777.007	0.492	-60.41	0.87	29.448	0.87	29.448	0.492	-60.41
786.819	0.486	-60.775	0.873	29.081	0.873	29.081	0.486	-60.775
796.63	0.481	-61.134	0.876	28.719	0.876	28.719	0.481	-61.134
806.442	0.475	-61.488	0.879	28.363	0.879	28.363	0.475	-61.488
816.254	0.47	-61.837	0.882	28.013	0.882	28.013	0.47	-61.837
826.065	0.464	-62.18	0.884	27.667	0.884	27.667	0.464	-62.18
835.877	0.459	-62.517	0.887	27.327	0.887	27.327	0.459	-62.517
845.689	0.454	-62.85	0.89	26.993	0.89	26.993	0.454	-62.85
855.5	0.449	-63.178	0.892	26.663	0.892	26.663	0.449	-63.178
865.312	0.444	-63.5	0.895	26.338	0.895	26.338	0.444	-63.5
875.124	0.439	-63.818	0.897	26.018	0.897	26.018	0.439	-63.818
884.936	0.434	-64.131	0.9	25.702	0.9	25.702	0.434	-64.131
894.747	0.429	-64.44	0.902	25.391	0.902	25.391	0.429	-64.44
904.559	0.424	-64.744	0.904	25.085	0.904	25.085	0.424	-64.744
914.371	0.419	-65.044	0.907	24.783	0.907	24.783	0.419	-65.044
924.182	0.414	-65.339	0.909	24.485	0.909	24.485	0.414	-65.339
933.994	0.41	-65.63	0.911	24.192	0.911	24.192	0.41	-65.63
943.806	0.405	-65.917	0.913	23.902	0.913	23.902	0.405	-65.917
953.617	0.401	-66.2	0.915	23.617	0.915	23.617	0.401	-66.2
963.429	0.396	-66.479	0.917	23.335	0.917	23.335	0.396	-66.479
973.241	0.392	-66.754	0.919	23.057	0.919	23.057	0.392	-66.754
983.053	0.387	-67.026	0.921	22.783	0.921	22.783	0.387	-67.026
992.864	0.383	-67.294	0.923	22.513	0.923	22.513	0.383	-67.294
1002.676	0.379	-67.558	0.924	22.246	0.924	22.246	0.379	-67.558
1012.488	0.374	-67.818	0.926	21.983	0.926	21.983	0.374	-67.818
1022.299	0.37	-68.075	0.928	21.723	0.928	21.723	0.37	-68.075
1032.111	0.366	-68.329	0.929	21.467	0.929	21.467	0.366	-68.329
1041.923	0.362	-68.58	0.931	21.214	0.931	21.214	0.362	-68.58
1051.734	0.358	-68.827	0.932	20.964	0.932	20.964	0.358	-68.827
1061.546	0.354	-69.071	0.934	20.717	0.934	20.717	0.354	-69.071
1071.358	0.35	-69.312	0.936	20.474	0.936	20.474	0.35	-69.312
1081.169	0.346	-69.55	0.937	20.233	0.937	20.233	0.346	-69.55
1090.981	0.342	-69.784	0.938	19.995	0.938	19.995	0.342	-69.784
1100.793	0.338	-70.016	0.94	19.761	0.94	19.761	0.338	-70.016
1110.605	0.334	-70.245	0.941	19.529	0.941	19.529	0.334	-70.245
1120.416	0.331	-70.471	0.942	19.3	0.942	19.3	0.331	-70.471
1130.228	0.327	-70.695	0.944	19.073	0.944	19.073	0.327	-70.695
1140.04	0.323	-70.916	0.945	18.85	0.945	18.85	0.323	-70.916
1149.851	0.319	-71.134	0.946	18.629	0.946	18.629	0.319	-71.134
1159.663	0.316	-71.349	0.947	18.41	0.947	18.41	0.316	-71.349
1169.475	0.312	-71.562	0.949	18.194	0.949	18.194	0.312	-71.562
1179.286	0.309	-71.773	0.95	17.981	0.95	17.981	0.309	-71.773
1189.098	0.305	-71.98	0.951	17.77	0.951	17.77	0.305	-71.98
1198.91	0.302	-72.186	0.952	17.561	0.952	17.561	0.302	-72.186
1208.722	0.298	-72.389	0.953	17.354	0.953	17.354	0.298	-72.389
1218.533	0.295	-72.59	0.954	17.15	0.954	17.15	0.295	-72.59
1228.345	0.292	-72.789	0.955	16.948	0.955	16.948	0.292	-72.789
1238.157	0.288	-72.985	0.956	16.749	0.956	16.749	0.288	-72.985
1247.968	0.285	-73.179	0.957	16.551	0.957	16.551	0.285	-73.179
1257.78	0.282	-73.371	0.958	16.356	0.958	16.356	0.282	-73.371
1267.592	0.278	-73.561	0.959	16.162	0.959	16.162	0.278	-73.561
1277.403	0.275	-73.749	0.96	15.971	0.96	15.971	0.275	-73.749
1287.215	0.272	-73.935	0.961	15.782	0.961	15.782	0.272	-73.935
1297.027	0.269	-74.118	0.962	15.594	0.962	15.594	0.269	-74.118
1306.838	0.266	-74.3	0.963	15.409	0.963	15.409	0.266	-74.3
1316.65	0.263	-74.48	0.964	15.225	0.964	15.225	0.263	-74.48
1326.462	0.26	-74.658	0.964	15.044	0.964	15.044	0.26	-74.658
1336.274	0.257	-74.834	0.965	14.864	0.965	14.864	0.257	-74.834
1346.085	0.254	-75.008	0.966	14.686	0.966	14.686	0.254	-75.008
1355.897	0.251	-75.181	0.967	14.509	0.967	14.509	0.251	-75.181
1365.709	0.248	-75.352	0.968	14.335	0.968	14.335	0.248	-75.352
1375.52	0.245	-75.521	0.968	14.162	0.968	14.162	0.245	-75.521
1385.332	0.242	-75.688	0.969	13.991	0.969	13.991	0.242	-75.688
1395.144	0.239	-75.853	0.97	13.821	0.97	13.821	0.239	-75.853
1404.955	0.236	-76.017	0.97	13.653	0.97	13.653	0.236	-76.017
1414.767	0.233	-76.18	0.971	13.486	0.971	13.486	0.233	-76.18
1424.579	0.23	-76.34	0.972	13.321	0.972	13.321	0.23	-76.34
1434.39	0.228	-76.499	0.972	13.158	0.972	13.158	0.228	-76.499
1444.202	0.225	-76.657	0.973	12.996	0.973	12.996	0.225	-76.657
1454.014	0.222	-76.813	0.974	12.836	0.974	12.836	0.222	-76.813
1463.826	0.219	-76.967	0.974	12.677	0.974	12.677	0.219	-76.967
1473.637	0.217	-77.12	0.975	12.519	0.975	12.519	0.217	-77.12
1483.449	0.214	-77.272	0.975	12.363	0.975	12.363	0.214	-77.272
1493.261	0.211	-77.422	0.976	12.208	0.976	12.208	0.211	-77.422
1503.072	0.209	-77.57	0.977	12.054	0.977	12.054	0.209	-77.57
1512.884	0.206	-77.718	0.977	11.902	0.977	11.902	0.206	-77.718
1522.696	0.204	-77.863	0.978	11.751	0.978	11.751	0.204	-77.863
1532.507	0.201	-78.008	0.978	11.602	0.978	11.602	0.201	-78.008
1542.319	0.199	-78.151	0.979	11.453	0.979	11.453	0.199	-78.151
1552.131	0.196	-78.293	0.979	11.306	0.979	11.306	0.196	-78.293
1561.943	0.194	-78.433	0.98	11.16	0.98	11.16	0.194	-78.433
1571.754	0.191	-78.573	0.98	11.016	0.98	11.016	0.191	-78.573
1581.566	0.189	-78.711	0.981	10.872	0.981	10.872	0.189	-78.711
1591.378	0.186	-78.847	0.981	10.73	0.981	10.73	0.186	-78.847
1601.189	0.184	-78.983	0.982	10.589	0.982	10.589	0.184	-78.983
1611.001	0.181	-79.117	0.982	10.448	0.982	10.448	0.181	-79.117
1620.813	0.179	-79.25	0.982	10.309	0.982	10.309	0.179	-79.25
1630.624	0.177	-79.382	0.983	10.172	0.983	10.172	0.177	-79.382
1640.436	0.174	-79.512	0.983	10.035	0.983	10.035	0.174	-79.512
1650.248	0.172	-79.642	0.984	9.899	0.984	9.899	0.172	-79.642
1660.059	0.17	-79.77	0.984	9.764	0.984	9.764	0.17	-79.77
1669.871	0.167	-79.897	0.985	9.63	0.985	9.63	0.167	-79.897
1679.683	0.165	-80.023	0.985	9.498	0.985	9.498	0.165	-80.023
1689.495	0.163	-80.148	0.985	9.366	0.985	9.366	0.163	-80.148
1699.306	0.16	-80.272	0.986	9.235	0.986	9.235	0.16	-80.272
1709.118	0.158	-80.395	0.986	9.105	0.986	9.105	0.158	-80.395
1718.93	0.156	-80.516	0.986	8.977	0.986	8.977	0.156	-80.516
1728.741	0.154	-80.637	0.987	8.849	0.987	8.849	0.154	-80.637
1738.553	0.152	-80.756	0.987	8.722	0.987	8.722	0.152	-80.756
1748.365	0.149	-80.874	0.987	8.595	0.987	8.595	0.149	-80.874
1758.176	0.147	-80.992	0.988	8.47	0.988	8.47	0.147	-80.992
1767.988	0.145	-81.108	0.988	8.346	0.988	8.346	0.145	-81.108
1777.8	0.143	-81.223	0.988	8.222	0.988	8.222	0.143	-81.223
1787.611	0.141	-81.337	0.989	8.1	0.989	8.1	0.141	-81.337
1797.423	0.139	-81.45	0.989	7.978	0.989	7.978	0.139	-81.45
1807.235	0.137	-81.562	0.989	7.857	0.989	7.857	0.137	-81.562
1817.047	0.135	-81.673	0.99	7.737	0.99	7.737	0.135	-81.673
1826.858	0.133	-81.783	0.99	7.617	0.99	7.617	0.133	-81.783
1836.67	0.131	-81.892	0.99	7.499	0.99	7.499	0.131	-81.892
1846.482	0.128	-82	0.99	7.381	0.99	7.381	0.128	-82
1856.293	0.126	-82.107	0.991	7.264	0.991	7.264	0.126	-82.107
1866.105	0.124	-82.213	0.991	7.148	0.991	7.148	0.124	-82.213
1875.917	0.122	-82.318	0.991	7.032	0.991	7.032	0.122	-82.318
1885.728	0.12	-82.422	0.991	6.917	0.991	6.917	0.12	-82.422
1895.54	0.118	-82.525	0.992	6.803	0.992	6.803	0.118	-82.525
1905.352	0.117	-82.627	0.992	6.69	0.992	6.69	0.117	-82.627
1915.164	0.115	-82.728	0.992	6.577	0.992	6.577	0.115	-82.728
1924.975	0.113	-82.828	0.992	6.465	0.992	6.465	0.113	-82.828
1934.787	0.111	-82.926	0.992	6.354	0.992	6.354	0.111	-82.926
1944.599	0.109	-83.024	0.993	6.244	0.993	6.244	0.109	-83.024
1954.41	0.107	-83.121	0.993	6.134	0.993	6.134	0.107	-83.121
1964.222	0.105	-83.216	0.993	6.024	0.993	6.024	0.105	-83.216
1974.034	0.103	-83.311	0.993	5.916	0.993	5.916	0.103	-83.311
1983.845	0.101	-83.404	0.993	5.808	0.993	5.808	0.101	-83.404
1993.657	0.099	-83.497	0.994	5.7	0.994	5.7	0.099	-83.497
2003.469	0.097	-83.588	0.994	5.594	0.994	5.594	0.097	-83.588
2013.28	0.096	-83.678	0.994	5.488	0.994	5.488	0.096	-83.678
2023.092	0.094	-83.767	0.994	5.382	0.994	5.382	0.094	-83.767
2032.904	0.092	-83.855	0.994	5.277	0.994	5.277	0.092	-83.855
2042.716	0.09	-83.942	0.995	5.173	0.995	5.173	0.09	-83.942
2052.527	0.088	-84.028	0.995	5.069	0.995	5.069	0.088	-84.028
2062.339	0.087	-84.112	0.995	4.966	0.995	4.966	0.087	-84.112
2072.151	0.085	-84.195	0.995	4.864	0.995	4.864	0.085	-84.195
2081.962	0.083	-84.277	0.995	4.762	0.995	4.762	0.083	-84.277
2091.774	0.081	-84.357	0.995	4.66	0.995	4.66	0.081	-84.357
2101.586	0.08	-84.436	0.995	4.559	0.995	4.559	0.08	-84.436
2111.397	0.078	-84.514	0.996	4.459	0.996	4.459	0.078	-84.514
2121.209	0.076	-84.59	0.996	4.359	0.996	4.359	0.076	-84.59
2131.021	0.074	-84.665	0.996	4.26	0.996	4.26	0.074	-84.665
2140.833	0.073	-84.738	0.996	4.161	0.996	4.161	0.073	-84.738
2150.644	0.071	-84.809	0.996	4.063	0.996	4.063	0.071	-84.809
2160.456	0.069	-84.879	0.996	3.965	0.996	3.965	0.069	-84.879
2170.268	0.067	-84.947	0.996	3.868	0.996	3.868	0.067	-84.947
2180.079	0.066	-85.014	0.996	3.771	0.996	3.771	0.066	-85.014
2189.891	0.064	-85.078	0.997	3.675	0.997	3.675	0.064	-85.078
2199.703	0.062	-85.14	0.997	3.579	0.997	3.579	0.062	-85.14
2209.514	0.061	-85.2	0.997	3.484	0.997	3.484	0.061	-85.2
2219.326	0.059	-85.258	0.997	3.389	0.997	3.389	0.059	-85.258
2229.138	0.057	-85.314	0.997	3.294	0.997	3.294	0.057	-85.314
2238.949	0.056	-85.367	0.997	3.2	0.997	3.2	0.056	-85.367
2248.761	0.054	-85.417	0.997	3.107	0.997	3.107	0.054	-85.417
2258.573	0.053	-85.465	0.997	3.014	0.997	3.014	0.053	-85.465
2268.385	0.051	-85.509	0.997	2.921	0.997	2.921	0.051	-85.509
2278.196	0.049	-85.55	0.997	2.829	0.997	2.829	0.049	-85.55
2288.008	0.048	-85.587	0.997	2.738	0.997	2.738	0.048	-85.587
2297.82	0.046	-85.621	0.998	2.646	0.998	2.646	0.046	-85.621
2307.631	0.045	-85.65	0.998	2.555	0.998	2.555	0.045	-85.65
2317.443	0.043	-85.674	0.998	2.465	0.998	2.465	0.043	-85.674
2327.255	0.041	-85.694	0.998	2.375	0.998	2.375	0.041	-85.694
2337.066	0.04	-85.708	0.998	2.285	0.998	2.285	0.04	-85.708
2346.878	0.038	-85.715	0.998	2.196	0.998	2.196	0.038	-85.715
2356.69	0.037	-85.716	0.998	2.107	0.998	2.107	0.037	-85.716
2366.501	0.035	-85.709	0.998	2.019	0.998	2.019	0.035	-85.709
2376.313	0.034	-85.694	0.998	1.931	0.998	1.931	0.034	-85.694
2386.125	0.032	-85.669	0.998	1.843	0.998	1.843	0.032	-85.669
2395.937	0.031	-85.632	0.998	1.756	0.998	1.756	0.031	-85.632
2405.748	0.029	-85.583	0.998	1.669	0.998	1.669	0.029	-85.583
2415.56	0.028	-85.52	0.998	1.583	0.998	1.583	0.028	-85.52
2425.372	0.026	-85.44	0.998	1.497	0.998	1.497	0.026	-85.44
2435.183	0.025	-85.339	0.998	1.411	0.998	1.411	0.025	-85.339
2444.995	0.023	-85.216	0.998	1.325	0.998	1.325	0.023	-85.216
2454.807	0.022	-85.064	0.998	1.24	0.998	1.24	0.022	-85.064
2464.618	0.02	-84.879	0.998	1.156	0.998	1.156	0.02	-84.879
2474.43	0.019	-84.652	0.998	1.071	0.998	1.071	0.019	-84.652
2484.242	0.017	-84.374	0.998	0.987	0.998	0.987	0.017	-84.374
2494.054	0.016	-84.03	0.998	0.904	0.998	0.904	0.016	-84.03
2503.865	0.014	-83.602	0.998	0.82	0.998	0.82	0.014	-83.602
2513.677	0.013	-83.062	0.999	0.737	0.999	0.737	0.013	-83.062
2523.489	0.012	-82.37	0.999	0.655	0.999	0.655	0.012	-82.37
2533.3	0.01	-81.461	0.999	0.573	0.999	0.573	0.01	-81.461
2543.112	8.68E-03	-80.233	0.999	0.491	0.999	0.491	8.68E-03	-80.233
2552.924	7.27E-03	-78.504	0.999	0.409	0.999	0.409	7.27E-03	-78.504
2562.735	5.89E-03	-75.926	0.999	0.328	0.999	0.328	5.89E-03	-75.926
2572.547	4.52E-03	-71.746	0.999	0.246	0.999	0.246	4.52E-03	-71.746
2582.359	3.21E-03	-64.037	0.999	0.166	0.999	0.166	3.21E-03	-64.037
2592.17	2.04E-03	-46.722	0.999	0.085	0.999	0.085	2.04E-03	-46.722
2601.982	1.40E-03	-3.73	0.999	5.23E-03	0.999	5.23E-03	1.40E-03	-3.73
2611.794	1.91E-03	42.873	0.999	-0.075	0.999	-0.075	1.91E-03	42.873
2621.606	3.03E-03	62.373	0.999	-0.154	0.999	-0.154	3.03E-03	62.373
2631.417	4.31E-03	70.813	0.999	-0.233	0.999	-0.233	4.31E-03	70.813
2641.229	5.63E-03	75.296	0.999	-0.312	0.999	-0.312	5.63E-03	75.296
2651.041	6.96E-03	78.025	0.999	-0.391	0.999	-0.391	6.96E-03	78.025
2660.852	8.31E-03	79.841	0.999	-0.469	0.999	-0.469	8.31E-03	79.841
2670.664	9.65E-03	81.124	0.999	-0.547	0.999	-0.547	9.65E-03	81.124
2680.476	0.011	82.071	0.999	-0.625	0.999	-0.625	0.011	82.071
2690.287	0.012	82.792	0.999	-0.703	0.999	-0.703	0.012	82.792
2700.099	0.014	83.354	0.999	-0.78	0.999	-0.78	0.014	83.354
2709.911	0.015	83.801	0.998	-0.857	0.998	-0.857	0.015	83.801
2719.722	0.016	84.161	0.998	-0.933	0.998	-0.933	0.016	84.161
2729.534	0.018	84.454	0.998	-1.01	0.998	-1.01	0.018	84.454
2739.346	0.019	84.695	0.998	-1.086	0.998	-1.086	0.019	84.695
2749.158	0.02	84.894	0.998	-1.162	0.998	-1.162	0.02	84.894
2758.969	0.022	85.059	0.998	-1.238	0.998	-1.238	0.022	85.059
2768.781	0.023	85.195	0.998	-1.313	0.998	-1.313	0.023	85.195
2778.593	0.024	85.309	0.998	-1.388	0.998	-1.388	0.024	85.309
2788.404	0.026	85.403	0.998	-1.463	0.998	-1.463	0.026	85.403
2798.216	0.027	85.48	0.998	-1.538	0.998	-1.538	0.027	85.48
2808.028	0.028	85.543	0.998	-1.612	0.998	-1.612	0.028	85.543
2817.839	0.029	85.594	0.998	-1.686	0.998	-1.686	0.029	85.594
2827.651	0.031	85.634	0.998	-1.76	0.998	-1.76	0.031	85.634
2837.463	0.032	85.665	0.998	-1.834	0.998	-1.834	0.032	85.665
2847.275	0.033	85.688	0.998	-1.907	0.998	-1.907	0.033	85.688
2857.086	0.035	85.704	0.998	-1.98	0.998	-1.98	0.035	85.704
2866.898	0.036	85.713	0.998	-2.053	0.998	-2.053	0.036	85.713
2876.71	0.037	85.717	0.998	-2.126	0.998	-2.126	0.037	85.717
2886.521	0.038	85.715	0.998	-2.198	0.998	-2.198	0.038	85.715
2896.333	0.04	85.709	0.998	-2.27	0.998	-2.27	0.04	85.709
2906.145	0.041	85.7	0.998	-2.343	0.998	-2.343	0.041	85.7
2915.956	0.042	85.686	0.998	-2.414	0.998	-2.414	0.042	85.686
2925.768	0.043	85.669	0.998	-2.486	0.998	-2.486	0.043	85.669
2935.58	0.045	85.649	0.998	-2.557	0.998	-2.557	0.045	85.649
2945.391	0.046	85.627	0.998	-2.628	0.998	-2.628	0.046	85.627
2955.203	0.047	85.602	0.997	-2.699	0.997	-2.699	0.047	85.602
2965.015	0.048	85.574	0.997	-2.77	0.997	-2.77	0.048	85.574
2974.827	0.05	85.545	0.997	-2.841	0.997	-2.841	0.05	85.545
2984.638	0.051	85.514	0.997	-2.911	0.997	-2.911	0.051	85.514
2994.45	0.052	85.481	0.997	-2.981	0.997	-2.981	0.052	85.481
3004.262	0.053	85.446	0.997	-3.051	0.997	-3.051	0.053	85.446
3014.073	0.054	85.41	0.997	-3.12	0.997	-3.12	0.054	85.41
3023.885	0.056	85.373	0.997	-3.19	0.997	-3.19	0.056	85.373
3033.697	0.057	85.334	0.997	-3.259	0.997	-3.259	0.057	85.334
3043.508	0.058	85.294	0.997	-3.328	0.997	-3.328	0.058	85.294
3053.32	0.059	85.253	0.997	-3.397	0.997	-3.397	0.059	85.253
3063.132	0.06	85.212	0.997	-3.466	0.997	-3.466	0.06	85.212
3072.944	0.062	85.169	0.997	-3.534	0.997	-3.534	0.062	85.169
3082.755	0.063	85.125	0.997	-3.603	0.997	-3.603	0.063	85.125
3092.567	0.064	85.081	0.997	-3.671	0.997	-3.671	0.064	85.081
3102.379	0.065	85.035	0.996	-3.739	0.996	-3.739	0.065	85.035
3112.19	0.066	84.99	0.996	-3.806	0.996	-3.806	0.066	84.99
3122.002	0.068	84.943	0.996	-3.874	0.996	-3.874	0.068	84.943
3131.814	0.069	84.896	0.996	-3.941	0.996	-3.941	0.069	84.896
3141.625	0.07	84.848	0.996	-4.008	0.996	-4.008	0.07	84.848
3151.437	0.071	84.8	0.996	-4.075	0.996	-4.075	0.071	84.8
3161.249	0.072	84.752	0.996	-4.142	0.996	-4.142	0.072	84.752
3171.06	0.073	84.703	0.996	-4.209	0.996	-4.209	0.073	84.703
3180.872	0.075	84.653	0.996	-4.275	0.996	-4.275	0.075	84.653
3190.684	0.076	84.603	0.996	-4.341	0.996	-4.341	0.076	84.603
3200.496	0.077	84.553	0.996	-4.408	0.996	-4.408	0.077	84.553
3210.307	0.078	84.503	0.996	-4.473	0.996	-4.473	0.078	84.503
3220.119	0.079	84.452	0.995	-4.539	0.995	-4.539	0.079	84.452
3229.931	0.08	84.401	0.995	-4.605	0.995	-4.605	0.08	84.401
3239.742	0.081	84.349	0.995	-4.67	0.995	-4.67	0.081	84.349
3249.554	0.083	84.297	0.995	-4.735	0.995	-4.735	0.083	84.297
3259.366	0.084	84.246	0.995	-4.801	0.995	-4.801	0.084	84.246
