! AVX Thin Film Operation		Date: April 2012 
! Description: Accu-P® Series, Thin Film, SMD, RF Capacitor
! Part Number: 12101J3R8ABTTR					
!	100	MHz	-	20.05	GHz			
!	Serial	Measurements						
!								
#	MHZ	S	MA	R	50			
!	S11	S21	S12	S22				
!	dB	Phase	dB	Phase	dB	Phase	dB	Phase
50 0.993 -6.809 0.119 83.11 0.119 83.11 0.993 -6.809
100 0.972 -13.444 0.232 76.453 0.232 76.453 0.972 -13.444
150 0.94 -19.756 0.338 70.117 0.338 70.117 0.94 -19.756
200 0.9 -25.64 0.433 64.209 0.433 64.209 0.9 -25.64
250 0.855 -31.04 0.516 58.785 0.516 58.785 0.855 -31.04
300 0.808 -35.938 0.587 53.862 0.587 53.862 0.808 -35.938
350 0.76 -40.349 0.647 49.427 0.647 49.427 0.76 -40.349
400 0.713 -44.302 0.698 45.448 0.698 45.448 0.713 -44.302
450 0.668 -47.842 0.741 41.883 0.741 41.883 0.668 -47.842
500 0.625 -51.011 0.777 38.687 0.777 38.687 0.625 -51.011
550 0.585 -53.854 0.808 35.816 0.808 35.816 0.585 -53.854
600 0.548 -56.411 0.833 33.232 0.833 33.232 0.548 -56.411
650 0.513 -58.718 0.855 30.896 0.855 30.896 0.513 -58.718
700 0.481 -60.806 0.873 28.777 0.873 28.777 0.481 -60.806
750 0.452 -62.704 0.889 26.848 0.889 26.848 0.452 -62.704
800 0.424 -64.435 0.902 25.084 0.902 25.084 0.424 -64.435
850 0.398 -66.019 0.914 23.466 0.914 23.466 0.398 -66.019
900 0.374 -67.475 0.924 21.975 0.924 21.975 0.374 -67.475
950 0.352 -68.817 0.932 20.595 0.932 20.595 0.352 -68.817
1000 0.331 -70.057 0.94 19.315 0.94 19.315 0.331 -70.057
1050 0.311 -71.208 0.947 18.123 0.947 18.123 0.311 -71.208
1100 0.293 -72.278 0.953 17.009 0.953 17.009 0.293 -72.278
1150 0.275 -73.276 0.958 15.965 0.958 15.965 0.275 -73.276
1200 0.259 -74.208 0.962 14.983 0.962 14.983 0.259 -74.208
1250 0.243 -75.08 0.966 14.057 0.966 14.057 0.243 -75.08
1300 0.228 -75.898 0.97 13.182 0.97 13.182 0.228 -75.898
1350 0.214 -76.666 0.973 12.352 0.973 12.352 0.214 -76.666
1400 0.2 -77.387 0.976 11.564 0.976 11.564 0.2 -77.387
1450 0.188 -78.065 0.979 10.813 0.979 10.813 0.188 -78.065
1500 0.175 -78.702 0.981 10.097 0.981 10.097 0.175 -78.702
1550 0.164 -79.3 0.983 9.412 0.983 9.412 0.164 -79.3
1600 0.152 -79.86 0.985 8.756 0.985 8.756 0.152 -79.86
1650 0.141 -80.383 0.986 8.126 0.986 8.126 0.141 -80.383
1700 0.131 -80.869 0.988 7.52 0.988 7.52 0.131 -80.869
1750 0.121 -81.317 0.989 6.936 0.989 6.936 0.121 -81.317
1800 0.111 -81.726 0.99 6.373 0.99 6.373 0.111 -81.726
1850 0.102 -82.093 0.991 5.829 0.991 5.829 0.102 -82.093
1900 0.092 -82.414 0.992 5.303 0.992 5.303 0.092 -82.414
1950 0.084 -82.681 0.993 4.793 0.993 4.793 0.084 -82.681
2000 0.075 -82.886 0.994 4.299 0.994 4.299 0.075 -82.886
2050 0.067 -83.013 0.994 3.818 0.994 3.818 0.067 -83.013
2100 0.059 -83.04 0.995 3.351 0.995 3.351 0.059 -83.04
2150 0.051 -82.93 0.995 2.897 0.995 2.897 0.051 -82.93
2200 0.043 -82.623 0.995 2.454 0.995 2.454 0.043 -82.623
2250 0.035 -82.01 0.996 2.022 0.996 2.022 0.035 -82.01
2300 0.028 -80.876 0.996 1.6 0.996 1.6 0.028 -80.876
2350 0.021 -78.724 0.996 1.188 0.996 1.188 0.021 -78.724
2400 0.014 -74.146 0.996 0.785 0.996 0.785 0.014 -74.146
2450 7.749e-3 -61.186 0.996 0.39 0.996 0.39 7.749e-3 -61.186
2500 3.689e-3 -1.113 0.996 4.122e-3 0.996 4.122e-3 3.689e-3 -1.113
2550 7.506e-3 60.194 0.996 -0.375 0.996 -0.375 7.506e-3 60.194
2600 0.014 73.438 0.996 -0.746 0.996 -0.746 0.014 73.438
2650 0.02 78.115 0.996 -1.111 0.996 -1.111 0.02 78.115
2700 0.026 80.343 0.996 -1.469 0.996 -1.469 0.026 80.343
2750 0.032 81.558 0.996 -1.821 0.996 -1.821 0.032 81.558
2800 0.038 82.262 0.996 -2.167 0.996 -2.167 0.038 82.262
2850 0.044 82.674 0.995 -2.507 0.995 -2.507 0.044 82.674
2900 0.05 82.905 0.995 -2.842 0.995 -2.842 0.05 82.905
2950 0.055 83.016 0.995 -3.172 0.995 -3.172 0.055 83.016
3000 0.061 83.044 0.994 -3.497 0.994 -3.497 0.061 83.044
3050 0.067 83.013 0.994 -3.818 0.994 -3.818 0.067 83.013
3100 0.072 82.939 0.994 -4.134 0.994 -4.134 0.072 82.939
3150 0.078 82.832 0.993 -4.446 0.993 -4.446 0.078 82.832
3200 0.083 82.7 0.993 -4.754 0.993 -4.754 0.083 82.7
3250 0.088 82.549 0.992 -5.057 0.992 -5.057 0.088 82.549
3300 0.093 82.382 0.992 -5.358 0.992 -5.358 0.093 82.382
3350 0.099 82.204 0.991 -5.654 0.991 -5.654 0.099 82.204
3400 0.104 82.016 0.991 -5.947 0.991 -5.947 0.104 82.016
3450 0.109 81.821 0.99 -6.237 0.99 -6.237 0.109 81.821
3500 0.114 81.619 0.99 -6.524 0.99 -6.524 0.114 81.619
3550 0.119 81.413 0.989 -6.807 0.989 -6.807 0.119 81.413
3600 0.123 81.203 0.989 -7.088 0.989 -7.088 0.123 81.203
3650 0.128 80.99 0.988 -7.365 0.988 -7.365 0.128 80.99
3700 0.133 80.774 0.987 -7.64 0.987 -7.64 0.133 80.774
3750 0.138 80.556 0.987 -7.912 0.987 -7.912 0.138 80.556
3800 0.142 80.337 0.986 -8.182 0.986 -8.182 0.142 80.337
3850 0.147 80.116 0.985 -8.449 0.985 -8.449 0.147 80.116
3900 0.152 79.895 0.985 -8.714 0.985 -8.714 0.152 79.895
3950 0.156 79.673 0.984 -8.976 0.984 -8.976 0.156 79.673
4000 0.161 79.451 0.983 -9.237 0.983 -9.237 0.161 79.451
4050 0.165 79.229 0.983 -9.494 0.983 -9.494 0.165 79.229
4100 0.169 79.006 0.982 -9.75 0.982 -9.75 0.169 79.006
4150 0.174 78.784 0.981 -10.004 0.981 -10.004 0.174 78.784
4200 0.178 78.562 0.98 -10.256 0.98 -10.256 0.178 78.562
4250 0.182 78.34 0.98 -10.505 0.98 -10.505 0.182 78.34
4300 0.187 78.119 0.979 -10.753 0.979 -10.753 0.187 78.119
4350 0.191 77.898 0.978 -10.999 0.978 -10.999 0.191 77.898
4400 0.195 77.678 0.977 -11.243 0.977 -11.243 0.195 77.678
4450 0.199 77.458 0.976 -11.486 0.976 -11.486 0.199 77.458
4500 0.203 77.239 0.975 -11.727 0.975 -11.727 0.203 77.239
4550 0.207 77.021 0.975 -11.966 0.975 -11.966 0.207 77.021
4600 0.211 76.803 0.974 -12.203 0.974 -12.203 0.211 76.803
4650 0.215 76.586 0.973 -12.439 0.973 -12.439 0.215 76.586
4700 0.219 76.37 0.972 -12.673 0.972 -12.673 0.219 76.37
4750 0.223 76.154 0.971 -12.906 0.971 -12.906 0.223 76.154
4800 0.227 75.94 0.97 -13.137 0.97 -13.137 0.227 75.94
4850 0.231 75.726 0.969 -13.367 0.969 -13.367 0.231 75.726
4900 0.235 75.513 0.968 -13.595 0.968 -13.595 0.235 75.513
4950 0.239 75.301 0.967 -13.822 0.967 -13.822 0.239 75.301
5000 0.243 75.089 0.966 -14.047 0.966 -14.047 0.243 75.089
5050 0.247 74.878 0.965 -14.272 0.965 -14.272 0.247 74.878
5100 0.25 74.669 0.965 -14.494 0.965 -14.494 0.25 74.669
5150 0.254 74.46 0.964 -14.716 0.964 -14.716 0.254 74.46
5200 0.258 74.251 0.963 -14.936 0.963 -14.936 0.258 74.251
5250 0.261 74.044 0.962 -15.155 0.962 -15.155 0.261 74.044
5300 0.265 73.838 0.961 -15.373 0.961 -15.373 0.265 73.838
5350 0.269 73.632 0.96 -15.59 0.96 -15.59 0.269 73.632
5400 0.272 73.427 0.959 -15.805 0.959 -15.805 0.272 73.427
5450 0.276 73.223 0.958 -16.02 0.958 -16.02 0.276 73.223
5500 0.28 73.02 0.956 -16.233 0.956 -16.233 0.28 73.02
5550 0.283 72.817 0.955 -16.445 0.955 -16.445 0.283 72.817
5600 0.287 72.616 0.954 -16.656 0.954 -16.656 0.287 72.616
5650 0.29 72.415 0.953 -16.866 0.953 -16.866 0.29 72.415
5700 0.294 72.215 0.952 -17.075 0.952 -17.075 0.294 72.215
5750 0.297 72.016 0.951 -17.282 0.951 -17.282 0.297 72.016
5800 0.301 71.818 0.95 -17.489 0.95 -17.489 0.301 71.818
5850 0.304 71.62 0.949 -17.695 0.949 -17.695 0.304 71.62
5900 0.307 71.423 0.948 -17.899 0.948 -17.899 0.307 71.423
5950 0.311 71.227 0.947 -18.103 0.947 -18.103 0.311 71.227
6000 0.314 71.032 0.946 -18.306 0.946 -18.306 0.314 71.032
6050 0.317 70.838 0.945 -18.507 0.945 -18.507 0.317 70.838
6100 0.321 70.644 0.944 -18.708 0.944 -18.708 0.321 70.644
6150 0.324 70.451 0.942 -18.908 0.942 -18.908 0.324 70.451
6200 0.327 70.259 0.941 -19.107 0.941 -19.107 0.327 70.259
6250 0.331 70.068 0.94 -19.305 0.94 -19.305 0.331 70.068
6300 0.334 69.877 0.939 -19.502 0.939 -19.502 0.334 69.877
6350 0.337 69.687 0.938 -19.698 0.938 -19.698 0.337 69.687
6400 0.34 69.498 0.937 -19.893 0.937 -19.893 0.34 69.498
6450 0.343 69.31 0.936 -20.087 0.936 -20.087 0.343 69.31
6500 0.347 69.122 0.934 -20.281 0.934 -20.281 0.347 69.122
6550 0.35 68.935 0.933 -20.473 0.933 -20.473 0.35 68.935
6600 0.353 68.749 0.932 -20.665 0.932 -20.665 0.353 68.749
6650 0.356 68.563 0.931 -20.856 0.931 -20.856 0.356 68.563
6700 0.359 68.379 0.93 -21.046 0.93 -21.046 0.359 68.379
6750 0.362 68.195 0.928 -21.235 0.928 -21.235 0.362 68.195
6800 0.365 68.011 0.927 -21.424 0.927 -21.424 0.365 68.011
6850 0.368 67.829 0.926 -21.611 0.926 -21.611 0.368 67.829
6900 0.371 67.647 0.925 -21.798 0.925 -21.798 0.371 67.647
6950 0.374 67.466 0.924 -21.984 0.924 -21.984 0.374 67.466
7000 0.377 67.285 0.922 -22.169 0.922 -22.169 0.377 67.285
7050 0.38 67.105 0.921 -22.354 0.921 -22.354 0.38 67.105
7100 0.383 66.926 0.92 -22.537 0.92 -22.537 0.383 66.926
7150 0.386 66.748 0.919 -22.72 0.919 -22.72 0.386 66.748
7200 0.389 66.57 0.918 -22.902 0.918 -22.902 0.389 66.57
7250 0.392 66.393 0.916 -23.084 0.916 -23.084 0.392 66.393
7300 0.395 66.216 0.915 -23.264 0.915 -23.264 0.395 66.216
7350 0.398 66.041 0.914 -23.444 0.914 -23.444 0.398 66.041
7400 0.401 65.866 0.913 -23.623 0.913 -23.623 0.401 65.866
7450 0.404 65.691 0.911 -23.801 0.911 -23.801 0.404 65.691
7500 0.406 65.517 0.91 -23.979 0.91 -23.979 0.406 65.517
7550 0.409 65.344 0.909 -24.156 0.909 -24.156 0.409 65.344
7600 0.412 65.172 0.908 -24.332 0.908 -24.332 0.412 65.172
7650 0.415 65 0.906 -24.507 0.906 -24.507 0.415 65
7700 0.418 64.829 0.905 -24.682 0.905 -24.682 0.418 64.829
7750 0.42 64.658 0.904 -24.856 0.904 -24.856 0.42 64.658
7800 0.423 64.488 0.903 -25.03 0.903 -25.03 0.423 64.488
7850 0.426 64.319 0.901 -25.202 0.901 -25.202 0.426 64.319
7900 0.429 64.151 0.9 -25.374 0.9 -25.374 0.429 64.151
7950 0.431 63.983 0.899 -25.545 0.899 -25.545 0.431 63.983
8000 0.434 63.815 0.897 -25.716 0.897 -25.716 0.434 63.815
8050 0.437 63.649 0.896 -25.886 0.896 -25.886 0.437 63.649
8100 0.439 63.482 0.895 -26.055 0.895 -26.055 0.439 63.482
8150 0.442 63.317 0.894 -26.224 0.894 -26.224 0.442 63.317
8200 0.445 63.152 0.892 -26.392 0.892 -26.392 0.445 63.152
8250 0.447 62.988 0.891 -26.559 0.891 -26.559 0.447 62.988
8300 0.45 62.824 0.89 -26.725 0.89 -26.725 0.45 62.824
8350 0.452 62.661 0.888 -26.891 0.888 -26.891 0.452 62.661
8400 0.455 62.499 0.887 -27.057 0.887 -27.057 0.455 62.499
8450 0.457 62.337 0.886 -27.221 0.886 -27.221 0.457 62.337
8500 0.46 62.176 0.884 -27.385 0.884 -27.385 0.46 62.176
8550 0.463 62.015 0.883 -27.549 0.883 -27.549 0.463 62.015
8600 0.465 61.855 0.882 -27.711 0.882 -27.711 0.465 61.855
8650 0.468 61.696 0.88 -27.873 0.88 -27.873 0.468 61.696
8700 0.47 61.537 0.879 -28.035 0.879 -28.035 0.47 61.537
8750 0.472 61.378 0.878 -28.196 0.878 -28.196 0.472 61.378
8800 0.475 61.221 0.877 -28.356 0.877 -28.356 0.475 61.221
8850 0.477 61.064 0.875 -28.515 0.875 -28.515 0.477 61.064
8900 0.48 60.907 0.874 -28.674 0.874 -28.674 0.48 60.907
8950 0.482 60.751 0.873 -28.833 0.873 -28.833 0.482 60.751
9000 0.485 60.596 0.871 -28.99 0.871 -28.99 0.485 60.596
9050 0.487 60.441 0.87 -29.148 0.87 -29.148 0.487 60.441
9100 0.489 60.287 0.869 -29.304 0.869 -29.304 0.489 60.287
9150 0.492 60.133 0.867 -29.46 0.867 -29.46 0.492 60.133
9200 0.494 59.98 0.866 -29.615 0.866 -29.615 0.494 59.98
9250 0.497 59.828 0.865 -29.77 0.865 -29.77 0.497 59.828
9300 0.499 59.676 0.863 -29.924 0.863 -29.924 0.499 59.676
9350 0.501 59.524 0.862 -30.078 0.862 -30.078 0.501 59.524
9400 0.503 59.373 0.861 -30.231 0.861 -30.231 0.503 59.373
9450 0.506 59.223 0.859 -30.383 0.859 -30.383 0.506 59.223
9500 0.508 59.073 0.858 -30.535 0.858 -30.535 0.508 59.073
9550 0.51 58.924 0.857 -30.686 0.857 -30.686 0.51 58.924
9600 0.513 58.776 0.855 -30.837 0.855 -30.837 0.513 58.776
9650 0.515 58.627 0.854 -30.987 0.854 -30.987 0.515 58.627
9700 0.517 58.48 0.852 -31.137 0.852 -31.137 0.517 58.48
9750 0.519 58.333 0.851 -31.286 0.851 -31.286 0.519 58.333
9800 0.522 58.186 0.85 -31.434 0.85 -31.434 0.522 58.186
9850 0.524 58.04 0.848 -31.582 0.848 -31.582 0.524 58.04
9900 0.526 57.895 0.847 -31.729 0.847 -31.729 0.526 57.895
9950 0.528 57.75 0.846 -31.876 0.846 -31.876 0.528 57.75
10000 0.53 57.606 0.844 -32.022 0.844 -32.022 0.53 57.606
10050 0.532 57.462 0.843 -32.168 0.843 -32.168 0.532 57.462
10100 0.535 57.319 0.842 -32.313 0.842 -32.313 0.535 57.319
10150 0.537 57.176 0.84 -32.457 0.84 -32.457 0.537 57.176
10200 0.539 57.034 0.839 -32.601 0.839 -32.601 0.539 57.034
10250 0.541 56.892 0.838 -32.745 0.838 -32.745 0.541 56.892
10300 0.543 56.751 0.836 -32.888 0.836 -32.888 0.543 56.751
10350 0.545 56.61 0.835 -33.03 0.835 -33.03 0.545 56.61
10400 0.547 56.47 0.834 -33.172 0.834 -33.172 0.547 56.47
10450 0.549 56.33 0.832 -33.313 0.832 -33.313 0.549 56.33
10500 0.551 56.191 0.831 -33.454 0.831 -33.454 0.551 56.191
10550 0.553 56.053 0.83 -33.594 0.83 -33.594 0.553 56.053
10600 0.555 55.915 0.828 -33.734 0.828 -33.734 0.555 55.915
10650 0.557 55.777 0.827 -33.873 0.827 -33.873 0.557 55.777
10700 0.559 55.64 0.826 -34.012 0.826 -34.012 0.559 55.64
10750 0.561 55.503 0.824 -34.15 0.824 -34.15 0.561 55.503
10800 0.563 55.367 0.823 -34.287 0.823 -34.287 0.563 55.367
10850 0.565 55.232 0.821 -34.424 0.821 -34.424 0.565 55.232
10900 0.567 55.096 0.82 -34.561 0.82 -34.561 0.567 55.096
10950 0.569 54.962 0.819 -34.697 0.819 -34.697 0.569 54.962
11000 0.571 54.828 0.817 -34.833 0.817 -34.833 0.571 54.828
11050 0.573 54.694 0.816 -34.968 0.816 -34.968 0.573 54.694
11100 0.575 54.561 0.815 -35.102 0.815 -35.102 0.575 54.561
11150 0.577 54.428 0.813 -35.236 0.813 -35.236 0.577 54.428
11200 0.579 54.296 0.812 -35.37 0.812 -35.37 0.579 54.296
11250 0.581 54.164 0.811 -35.503 0.811 -35.503 0.581 54.164
11300 0.583 54.033 0.809 -35.636 0.809 -35.636 0.583 54.033
11350 0.585 53.903 0.808 -35.768 0.808 -35.768 0.585 53.903
11400 0.586 53.772 0.807 -35.899 0.807 -35.899 0.586 53.772
11450 0.588 53.643 0.805 -36.03 0.805 -36.03 0.588 53.643
11500 0.59 53.513 0.804 -36.161 0.804 -36.161 0.59 53.513
11550 0.592 53.384 0.803 -36.291 0.803 -36.291 0.592 53.384
11600 0.594 53.256 0.801 -36.421 0.801 -36.421 0.594 53.256
11650 0.596 53.128 0.8 -36.55 0.8 -36.55 0.596 53.128
11700 0.597 53.001 0.799 -36.679 0.799 -36.679 0.597 53.001
11750 0.599 52.874 0.797 -36.807 0.797 -36.807 0.599 52.874
11800 0.601 52.747 0.796 -36.934 0.796 -36.934 0.601 52.747
11850 0.603 52.621 0.795 -37.062 0.795 -37.062 0.603 52.621
11900 0.604 52.496 0.793 -37.188 0.793 -37.188 0.604 52.496
11950 0.606 52.371 0.792 -37.315 0.792 -37.315 0.606 52.371
12000 0.608 52.246 0.791 -37.441 0.791 -37.441 0.608 52.246
12050 0.61 52.122 0.789 -37.566 0.789 -37.566 0.61 52.122
12100 0.611 51.998 0.788 -37.691 0.788 -37.691 0.611 51.998
12150 0.613 51.875 0.787 -37.815 0.787 -37.815 0.613 51.875
12200 0.615 51.752 0.785 -37.939 0.785 -37.939 0.615 51.752
12250 0.617 51.63 0.784 -38.063 0.784 -38.063 0.617 51.63
12300 0.618 51.508 0.783 -38.186 0.783 -38.186 0.618 51.508
12350 0.62 51.386 0.781 -38.309 0.781 -38.309 0.62 51.386
12400 0.622 51.265 0.78 -38.431 0.78 -38.431 0.622 51.265
12450 0.623 51.144 0.779 -38.552 0.779 -38.552 0.623 51.144
12500 0.625 51.024 0.777 -38.674 0.777 -38.674 0.625 51.024
12550 0.627 50.904 0.776 -38.795 0.776 -38.795 0.627 50.904
12600 0.628 50.785 0.775 -38.915 0.775 -38.915 0.628 50.785
12650 0.63 50.666 0.773 -39.035 0.773 -39.035 0.63 50.666
12700 0.631 50.548 0.772 -39.154 0.772 -39.154 0.631 50.548
12750 0.633 50.43 0.771 -39.273 0.771 -39.273 0.633 50.43
12800 0.635 50.312 0.77 -39.392 0.77 -39.392 0.635 50.312
12850 0.636 50.195 0.768 -39.51 0.768 -39.51 0.636 50.195
12900 0.638 50.078 0.767 -39.628 0.767 -39.628 0.638 50.078
12950 0.639 49.962 0.766 -39.745 0.766 -39.745 0.639 49.962
13000 0.641 49.846 0.764 -39.862 0.764 -39.862 0.641 49.846
13050 0.643 49.731 0.763 -39.979 0.763 -39.979 0.643 49.731
13100 0.644 49.616 0.762 -40.095 0.762 -40.095 0.644 49.616
13150 0.646 49.501 0.76 -40.21 0.76 -40.21 0.646 49.501
13200 0.647 49.387 0.759 -40.325 0.759 -40.325 0.647 49.387
13250 0.649 49.273 0.758 -40.44 0.758 -40.44 0.649 49.273
13300 0.65 49.16 0.757 -40.554 0.757 -40.554 0.65 49.16
13350 0.652 49.047 0.755 -40.668 0.755 -40.668 0.652 49.047
13400 0.653 48.934 0.754 -40.782 0.754 -40.782 0.653 48.934
13450 0.655 48.822 0.753 -40.895 0.753 -40.895 0.655 48.822
13500 0.656 48.71 0.751 -41.007 0.751 -41.007 0.656 48.71
13550 0.658 48.599 0.75 -41.12 0.75 -41.12 0.658 48.599
13600 0.659 48.488 0.749 -41.232 0.749 -41.232 0.659 48.488
13650 0.661 48.377 0.748 -41.343 0.748 -41.343 0.661 48.377
13700 0.662 48.267 0.746 -41.454 0.746 -41.454 0.662 48.267
13750 0.663 48.158 0.745 -41.565 0.745 -41.565 0.663 48.158
13800 0.665 48.048 0.744 -41.675 0.744 -41.675 0.665 48.048
13850 0.666 47.939 0.742 -41.785 0.742 -41.785 0.666 47.939
13900 0.668 47.831 0.741 -41.894 0.741 -41.894 0.668 47.831
13950 0.669 47.723 0.74 -42.003 0.74 -42.003 0.669 47.723
14000 0.671 47.615 0.739 -42.112 0.739 -42.112 0.671 47.615
14050 0.672 47.507 0.737 -42.22 0.737 -42.22 0.672 47.507
14100 0.673 47.4 0.736 -42.328 0.736 -42.328 0.673 47.4
14150 0.675 47.294 0.735 -42.435 0.735 -42.435 0.675 47.294
14200 0.676 47.188 0.734 -42.542 0.734 -42.542 0.676 47.188
14250 0.678 47.082 0.732 -42.649 0.732 -42.649 0.678 47.082
14300 0.679 46.976 0.731 -42.755 0.731 -42.755 0.679 46.976
14350 0.68 46.871 0.73 -42.861 0.73 -42.861 0.68 46.871
14400 0.682 46.767 0.729 -42.966 0.729 -42.966 0.682 46.767
14450 0.683 46.662 0.727 -43.071 0.727 -43.071 0.683 46.662
14500 0.684 46.558 0.726 -43.176 0.726 -43.176 0.684 46.558
14550 0.686 46.455 0.725 -43.281 0.725 -43.281 0.686 46.455
14600 0.687 46.351 0.724 -43.385 0.724 -43.385 0.687 46.351
14650 0.688 46.249 0.722 -43.488 0.722 -43.488 0.688 46.249
14700 0.69 46.146 0.721 -43.591 0.721 -43.591 0.69 46.146
14750 0.691 46.044 0.72 -43.694 0.72 -43.694 0.691 46.044
14800 0.692 45.942 0.719 -43.797 0.719 -43.797 0.692 45.942
14850 0.693 45.841 0.717 -43.899 0.717 -43.899 0.693 45.841
14900 0.695 45.74 0.716 -44 0.716 -44 0.695 45.74
14950 0.696 45.639 0.715 -44.102 0.715 -44.102 0.696 45.639
15000 0.697 45.539 0.714 -44.203 0.714 -44.203 0.697 45.539
15050 0.698 45.439 0.713 -44.304 0.713 -44.304 0.698 45.439
15100 0.7 45.34 0.711 -44.404 0.711 -44.404 0.7 45.34
15150 0.701 45.24 0.71 -44.504 0.71 -44.504 0.701 45.24
15200 0.702 45.142 0.709 -44.603 0.709 -44.603 0.702 45.142
15250 0.703 45.043 0.708 -44.702 0.708 -44.702 0.703 45.043
15300 0.705 44.945 0.706 -44.801 0.706 -44.801 0.705 44.945
15350 0.706 44.847 0.705 -44.9 0.705 -44.9 0.706 44.847
15400 0.707 44.75 0.704 -44.998 0.704 -44.998 0.707 44.75
15450 0.708 44.652 0.703 -45.096 0.703 -45.096 0.708 44.652
15500 0.709 44.556 0.702 -45.193 0.702 -45.193 0.709 44.556
15550 0.711 44.459 0.7 -45.29 0.7 -45.29 0.711 44.459
15600 0.712 44.363 0.699 -45.387 0.699 -45.387 0.712 44.363
15650 0.713 44.268 0.698 -45.483 0.698 -45.483 0.713 44.268
15700 0.714 44.172 0.697 -45.579 0.697 -45.579 0.714 44.172
15750 0.715 44.077 0.696 -45.675 0.696 -45.675 0.715 44.077
15800 0.717 43.982 0.694 -45.77 0.694 -45.77 0.717 43.982
15850 0.718 43.888 0.693 -45.865 0.693 -45.865 0.718 43.888
15900 0.719 43.794 0.692 -45.96 0.692 -45.96 0.719 43.794
15950 0.72 43.7 0.691 -46.054 0.691 -46.054 0.72 43.7
16000 0.721 43.607 0.69 -46.148 0.69 -46.148 0.721 43.607
16050 0.722 43.514 0.689 -46.242 0.689 -46.242 0.722 43.514
16100 0.723 43.421 0.687 -46.335 0.687 -46.335 0.723 43.421
16150 0.725 43.329 0.686 -46.428 0.686 -46.428 0.725 43.329
16200 0.726 43.237 0.685 -46.521 0.685 -46.521 0.726 43.237
16250 0.727 43.145 0.684 -46.614 0.684 -46.614 0.727 43.145
16300 0.728 43.053 0.683 -46.706 0.683 -46.706 0.728 43.053
16350 0.729 42.962 0.682 -46.797 0.682 -46.797 0.729 42.962
16400 0.73 42.872 0.68 -46.889 0.68 -46.889 0.73 42.872
16450 0.731 42.781 0.679 -46.98 0.679 -46.98 0.731 42.781
16500 0.732 42.691 0.678 -47.07 0.678 -47.07 0.732 42.691
16550 0.733 42.601 0.677 -47.161 0.677 -47.161 0.733 42.601
16600 0.734 42.512 0.676 -47.251 0.676 -47.251 0.734 42.512
16650 0.735 42.422 0.675 -47.341 0.675 -47.341 0.735 42.422
16700 0.736 42.334 0.673 -47.43 0.673 -47.43 0.736 42.334
16750 0.738 42.245 0.672 -47.519 0.672 -47.519 0.738 42.245
16800 0.739 42.157 0.671 -47.608 0.671 -47.608 0.739 42.157
16850 0.74 42.069 0.67 -47.697 0.67 -47.697 0.74 42.069
16900 0.741 41.981 0.669 -47.785 0.669 -47.785 0.741 41.981
