# MHZ S MA R 50

50 2.477e-3 11.608 0.998 -0.148 2.259e-3 89.844 185.2e-6 -90.422
          0.998 -0.148 2.477e-3 11.608 185.2e-6 -90.422 2.259e-3 89.844
          2.259e-3 89.844 185.2e-6 -90.422 2.477e-3 11.608 0.998 -0.148
          185.2e-6 -90.422 2.259e-3 89.844 0.998 -0.148 2.477e-3 11.608
57.007 2.492e-3 13.179 0.998 -0.168 2.575e-3 89.824 211.1e-6 -90.502
          0.998 -0.168 2.492e-3 13.179 211.1e-6 -90.502 2.575e-3 89.824
          2.575e-3 89.824 211.1e-6 -90.502 2.492e-3 13.179 0.998 -0.168
          211.1e-6 -90.502 2.575e-3 89.824 0.998 -0.168 2.492e-3 13.179
64.014 2.509e-3 14.729 0.998 -0.189 2.892e-3 89.803 237.1e-6 -90.579
          0.998 -0.189 2.509e-3 14.729 237.1e-6 -90.579 2.892e-3 89.803
          2.892e-3 89.803 237.1e-6 -90.579 2.509e-3 14.729 0.998 -0.189
          237.1e-6 -90.579 2.892e-3 89.803 0.998 -0.189 2.509e-3 14.729
71.021 2.529e-3 16.256 0.998 -0.21 3.208e-3 89.783 263e-6 -90.654
          0.998 -0.21 2.529e-3 16.256 263e-6 -90.654 3.208e-3 89.783
          3.208e-3 89.783 263e-6 -90.654 2.529e-3 16.256 0.998 -0.21
          263e-6 -90.654 3.208e-3 89.783 0.998 -0.21 2.529e-3 16.256
78.028 2.55e-3 17.758 0.998 -0.231 3.525e-3 89.762 289e-6 -90.727
          0.998 -0.231 2.55e-3 17.758 289e-6 -90.727 3.525e-3 89.762
          3.525e-3 89.762 289e-6 -90.727 2.55e-3 17.758 0.998 -0.231
          289e-6 -90.727 3.525e-3 89.762 0.998 -0.231 2.55e-3 17.758
85.035 2.573e-3 19.234 0.998 -0.251 3.841e-3 89.741 314.9e-6 -90.8
          0.998 -0.251 2.573e-3 19.234 314.9e-6 -90.8 3.841e-3 89.741
          3.841e-3 89.741 314.9e-6 -90.8 2.573e-3 19.234 0.998 -0.251
          314.9e-6 -90.8 3.841e-3 89.741 0.998 -0.251 2.573e-3 19.234
92.042 2.597e-3 20.682 0.998 -0.272 4.158e-3 89.72 340.9e-6 -90.872
          0.998 -0.272 2.597e-3 20.682 340.9e-6 -90.872 4.158e-3 89.72
          4.158e-3 89.72 340.9e-6 -90.872 2.597e-3 20.682 0.998 -0.272
          340.9e-6 -90.872 4.158e-3 89.72 0.998 -0.272 2.597e-3 20.682
99.049 2.623e-3 22.102 0.998 -0.293 4.474e-3 89.7 366.8e-6 -90.943
          0.998 -0.293 2.623e-3 22.102 366.8e-6 -90.943 4.474e-3 89.7
          4.474e-3 89.7 366.8e-6 -90.943 2.623e-3 22.102 0.998 -0.293
          366.8e-6 -90.943 4.474e-3 89.7 0.998 -0.293 2.623e-3 22.102
106.056 2.651e-3 23.493 0.998 -0.313 4.791e-3 89.679 392.8e-6 -91.014
          0.998 -0.313 2.651e-3 23.493 392.8e-6 -91.014 4.791e-3 89.679
          4.791e-3 89.679 392.8e-6 -91.014 2.651e-3 23.493 0.998 -0.313
          392.8e-6 -91.014 4.791e-3 89.679 0.998 -0.313 2.651e-3 23.493
113.063 2.681e-3 24.853 0.998 -0.334 5.107e-3 89.658 418.8e-6 -91.085
          0.998 -0.334 2.681e-3 24.853 418.8e-6 -91.085 5.107e-3 89.658
          5.107e-3 89.658 418.8e-6 -91.085 2.681e-3 24.853 0.998 -0.334
          418.8e-6 -91.085 5.107e-3 89.658 0.998 -0.334 2.681e-3 24.853
120.07 2.712e-3 26.181 0.998 -0.355 5.424e-3 89.637 444.7e-6 -91.156
          0.998 -0.355 2.712e-3 26.181 444.7e-6 -91.156 5.424e-3 89.637
          5.424e-3 89.637 444.7e-6 -91.156 2.712e-3 26.181 0.998 -0.355
          444.7e-6 -91.156 5.424e-3 89.637 0.998 -0.355 2.712e-3 26.181
127.077 2.745e-3 27.479 0.998 -0.375 5.74e-3 89.616 470.7e-6 -91.227
          0.998 -0.375 2.745e-3 27.479 470.7e-6 -91.227 5.74e-3 89.616
          5.74e-3 89.616 470.7e-6 -91.227 2.745e-3 27.479 0.998 -0.375
          470.7e-6 -91.227 5.74e-3 89.616 0.998 -0.375 2.745e-3 27.479
134.084 2.779e-3 28.744 0.998 -0.396 6.057e-3 89.595 496.6e-6 -91.297
          0.998 -0.396 2.779e-3 28.744 496.6e-6 -91.297 6.057e-3 89.595
          6.057e-3 89.595 496.6e-6 -91.297 2.779e-3 28.744 0.998 -0.396
          496.6e-6 -91.297 6.057e-3 89.595 0.998 -0.396 2.779e-3 28.744
141.091 2.814e-3 29.978 0.998 -0.417 6.373e-3 89.574 522.6e-6 -91.367
          0.998 -0.417 2.814e-3 29.978 522.6e-6 -91.367 6.373e-3 89.574
          6.373e-3 89.574 522.6e-6 -91.367 2.814e-3 29.978 0.998 -0.417
          522.6e-6 -91.367 6.373e-3 89.574 0.998 -0.417 2.814e-3 29.978
148.098 2.851e-3 31.18 0.998 -0.438 6.69e-3 89.553 548.5e-6 -91.438
          0.998 -0.438 2.851e-3 31.18 548.5e-6 -91.438 6.69e-3 89.553
          6.69e-3 89.553 548.5e-6 -91.438 2.851e-3 31.18 0.998 -0.438
          548.5e-6 -91.438 6.69e-3 89.553 0.998 -0.438 2.851e-3 31.18
155.105 2.889e-3 32.35 0.998 -0.458 7.006e-3 89.532 574.5e-6 -91.508
          0.998 -0.458 2.889e-3 32.35 574.5e-6 -91.508 7.006e-3 89.532
          7.006e-3 89.532 574.5e-6 -91.508 2.889e-3 32.35 0.998 -0.458
          574.5e-6 -91.508 7.006e-3 89.532 0.998 -0.458 2.889e-3 32.35
162.112 2.928e-3 33.488 0.998 -0.479 7.323e-3 89.511 600.4e-6 -91.578
          0.998 -0.479 2.928e-3 33.488 600.4e-6 -91.578 7.323e-3 89.511
          7.323e-3 89.511 600.4e-6 -91.578 2.928e-3 33.488 0.998 -0.479
          600.4e-6 -91.578 7.323e-3 89.511 0.998 -0.479 2.928e-3 33.488
169.119 2.968e-3 34.596 0.998 -0.5 7.639e-3 89.49 626.4e-6 -91.648
          0.998 -0.5 2.968e-3 34.596 626.4e-6 -91.648 7.639e-3 89.49
          7.639e-3 89.49 626.4e-6 -91.648 2.968e-3 34.596 0.998 -0.5
          626.4e-6 -91.648 7.639e-3 89.49 0.998 -0.5 2.968e-3 34.596
176.126 3.01e-3 35.672 0.998 -0.52 7.956e-3 89.469 652.3e-6 -91.718
          0.998 -0.52 3.01e-3 35.672 652.3e-6 -91.718 7.956e-3 89.469
          7.956e-3 89.469 652.3e-6 -91.718 3.01e-3 35.672 0.998 -0.52
          652.3e-6 -91.718 7.956e-3 89.469 0.998 -0.52 3.01e-3 35.672
183.133 3.052e-3 36.718 0.998 -0.541 8.272e-3 89.448 678.3e-6 -91.788
          0.998 -0.541 3.052e-3 36.718 678.3e-6 -91.788 8.272e-3 89.448
          8.272e-3 89.448 678.3e-6 -91.788 3.052e-3 36.718 0.998 -0.541
          678.3e-6 -91.788 8.272e-3 89.448 0.998 -0.541 3.052e-3 36.718
190.14 3.096e-3 37.733 0.998 -0.562 8.589e-3 89.427 704.3e-6 -91.858
          0.998 -0.562 3.096e-3 37.733 704.3e-6 -91.858 8.589e-3 89.427
          8.589e-3 89.427 704.3e-6 -91.858 3.096e-3 37.733 0.998 -0.562
          704.3e-6 -91.858 8.589e-3 89.427 0.998 -0.562 3.096e-3 37.733
197.147 3.141e-3 38.72 0.998 -0.582 8.905e-3 89.406 730.2e-6 -91.928
          0.998 -0.582 3.141e-3 38.72 730.2e-6 -91.928 8.905e-3 89.406
          8.905e-3 89.406 730.2e-6 -91.928 3.141e-3 38.72 0.998 -0.582
          730.2e-6 -91.928 8.905e-3 89.406 0.998 -0.582 3.141e-3 38.72
204.154 3.186e-3 39.678 0.998 -0.603 9.222e-3 89.385 756.2e-6 -91.998
          0.998 -0.603 3.186e-3 39.678 756.2e-6 -91.998 9.222e-3 89.385
          9.222e-3 89.385 756.2e-6 -91.998 3.186e-3 39.678 0.998 -0.603
          756.2e-6 -91.998 9.222e-3 89.385 0.998 -0.603 3.186e-3 39.678
211.161 3.233e-3 40.608 0.998 -0.624 9.538e-3 89.364 782.1e-6 -92.068
          0.998 -0.624 3.233e-3 40.608 782.1e-6 -92.068 9.538e-3 89.364
          9.538e-3 89.364 782.1e-6 -92.068 3.233e-3 40.608 0.998 -0.624
          782.1e-6 -92.068 9.538e-3 89.364 0.998 -0.624 3.233e-3 40.608
218.168 3.28e-3 41.51 0.998 -0.644 9.855e-3 89.343 808.1e-6 -92.138
          0.998 -0.644 3.28e-3 41.51 808.1e-6 -92.138 9.855e-3 89.343
          9.855e-3 89.343 808.1e-6 -92.138 3.28e-3 41.51 0.998 -0.644
          808.1e-6 -92.138 9.855e-3 89.343 0.998 -0.644 3.28e-3 41.51
225.175 3.328e-3 42.385 0.998 -0.665 0.01 89.322 834e-6 -92.208
          0.998 -0.665 3.328e-3 42.385 834e-6 -92.208 0.01 89.322
          0.01 89.322 834e-6 -92.208 3.328e-3 42.385 0.998 -0.665
          834e-6 -92.208 0.01 89.322 0.998 -0.665 3.328e-3 42.385
232.182 3.377e-3 43.235 0.998 -0.686 0.01 89.301 860e-6 -92.278
          0.998 -0.686 3.377e-3 43.235 860e-6 -92.278 0.01 89.301
          0.01 89.301 860e-6 -92.278 3.377e-3 43.235 0.998 -0.686
          860e-6 -92.278 0.01 89.301 0.998 -0.686 3.377e-3 43.235
239.189 3.427e-3 44.059 0.998 -0.707 0.011 89.28 886e-6 -92.348
          0.998 -0.707 3.427e-3 44.059 886e-6 -92.348 0.011 89.28
          0.011 89.28 886e-6 -92.348 3.427e-3 44.059 0.998 -0.707
          886e-6 -92.348 0.011 89.28 0.998 -0.707 3.427e-3 44.059
246.196 3.478e-3 44.859 0.998 -0.727 0.011 89.259 911.9e-6 -92.418
          0.998 -0.727 3.478e-3 44.859 911.9e-6 -92.418 0.011 89.259
          0.011 89.259 911.9e-6 -92.418 3.478e-3 44.859 0.998 -0.727
          911.9e-6 -92.418 0.011 89.259 0.998 -0.727 3.478e-3 44.859
253.203 3.529e-3 45.635 0.998 -0.748 0.011 89.238 937.9e-6 -92.487
          0.998 -0.748 3.529e-3 45.635 937.9e-6 -92.487 0.011 89.238
          0.011 89.238 937.9e-6 -92.487 3.529e-3 45.635 0.998 -0.748
          937.9e-6 -92.487 0.011 89.238 0.998 -0.748 3.529e-3 45.635
260.21 3.581e-3 46.387 0.998 -0.769 0.012 89.217 963.8e-6 -92.557
          0.998 -0.769 3.581e-3 46.387 963.8e-6 -92.557 0.012 89.217
          0.012 89.217 963.8e-6 -92.557 3.581e-3 46.387 0.998 -0.769
          963.8e-6 -92.557 0.012 89.217 0.998 -0.769 3.581e-3 46.387
267.217 3.633e-3 47.118 0.997 -0.789 0.012 89.196 989.8e-6 -92.627
          0.997 -0.789 3.633e-3 47.118 989.8e-6 -92.627 0.012 89.196
          0.012 89.196 989.8e-6 -92.627 3.633e-3 47.118 0.997 -0.789
          989.8e-6 -92.627 0.012 89.196 0.997 -0.789 3.633e-3 47.118
274.224 3.686e-3 47.826 0.997 -0.81 0.012 89.175 1.016e-3 -92.697
          0.997 -0.81 3.686e-3 47.826 1.016e-3 -92.697 0.012 89.175
          0.012 89.175 1.016e-3 -92.697 3.686e-3 47.826 0.997 -0.81
          1.016e-3 -92.697 0.012 89.175 0.997 -0.81 3.686e-3 47.826
281.231 3.74e-3 48.514 0.997 -0.831 0.013 89.154 1.042e-3 -92.767
          0.997 -0.831 3.74e-3 48.514 1.042e-3 -92.767 0.013 89.154
          0.013 89.154 1.042e-3 -92.767 3.74e-3 48.514 0.997 -0.831
          1.042e-3 -92.767 0.013 89.154 0.997 -0.831 3.74e-3 48.514
288.238 3.794e-3 49.181 0.997 -0.851 0.013 89.133 1.068e-3 -92.837
          0.997 -0.851 3.794e-3 49.181 1.068e-3 -92.837 0.013 89.133
          0.013 89.133 1.068e-3 -92.837 3.794e-3 49.181 0.997 -0.851
          1.068e-3 -92.837 0.013 89.133 0.997 -0.851 3.794e-3 49.181
295.245 3.849e-3 49.828 0.997 -0.872 0.013 89.112 1.094e-3 -92.906
          0.997 -0.872 3.849e-3 49.828 1.094e-3 -92.906 0.013 89.112
          0.013 89.112 1.094e-3 -92.906 3.849e-3 49.828 0.997 -0.872
          1.094e-3 -92.906 0.013 89.112 0.997 -0.872 3.849e-3 49.828
302.252 3.905e-3 50.456 0.997 -0.893 0.014 89.091 1.12e-3 -92.976
          0.997 -0.893 3.905e-3 50.456 1.12e-3 -92.976 0.014 89.091
          0.014 89.091 1.12e-3 -92.976 3.905e-3 50.456 0.997 -0.893
          1.12e-3 -92.976 0.014 89.091 0.997 -0.893 3.905e-3 50.456
309.259 3.961e-3 51.066 0.997 -0.914 0.014 89.07 1.146e-3 -93.046
          0.997 -0.914 3.961e-3 51.066 1.146e-3 -93.046 0.014 89.07
          0.014 89.07 1.146e-3 -93.046 3.961e-3 51.066 0.997 -0.914
          1.146e-3 -93.046 0.014 89.07 0.997 -0.914 3.961e-3 51.066
316.266 4.017e-3 51.658 0.997 -0.934 0.014 89.049 1.172e-3 -93.116
          0.997 -0.934 4.017e-3 51.658 1.172e-3 -93.116 0.014 89.049
          0.014 89.049 1.172e-3 -93.116 4.017e-3 51.658 0.997 -0.934
          1.172e-3 -93.116 0.014 89.049 0.997 -0.934 4.017e-3 51.658
323.273 4.074e-3 52.233 0.997 -0.955 0.015 89.028 1.197e-3 -93.186
          0.997 -0.955 4.074e-3 52.233 1.197e-3 -93.186 0.015 89.028
          0.015 89.028 1.197e-3 -93.186 4.074e-3 52.233 0.997 -0.955
          1.197e-3 -93.186 0.015 89.028 0.997 -0.955 4.074e-3 52.233
330.28 4.131e-3 52.791 0.997 -0.976 0.015 89.007 1.223e-3 -93.255
          0.997 -0.976 4.131e-3 52.791 1.223e-3 -93.255 0.015 89.007
          0.015 89.007 1.223e-3 -93.255 4.131e-3 52.791 0.997 -0.976
          1.223e-3 -93.255 0.015 89.007 0.997 -0.976 4.131e-3 52.791
337.287 4.189e-3 53.333 0.997 -0.996 0.015 88.986 1.249e-3 -93.325
          0.997 -0.996 4.189e-3 53.333 1.249e-3 -93.325 0.015 88.986
          0.015 88.986 1.249e-3 -93.325 4.189e-3 53.333 0.997 -0.996
          1.249e-3 -93.325 0.015 88.986 0.997 -0.996 4.189e-3 53.333
344.294 4.247e-3 53.86 0.997 -1.017 0.016 88.965 1.275e-3 -93.395
          0.997 -1.017 4.247e-3 53.86 1.275e-3 -93.395 0.016 88.965
          0.016 88.965 1.275e-3 -93.395 4.247e-3 53.86 0.997 -1.017
          1.275e-3 -93.395 0.016 88.965 0.997 -1.017 4.247e-3 53.86
351.301 4.305e-3 54.371 0.997 -1.038 0.016 88.944 1.301e-3 -93.465
          0.997 -1.038 4.305e-3 54.371 1.301e-3 -93.465 0.016 88.944
          0.016 88.944 1.301e-3 -93.465 4.305e-3 54.371 0.997 -1.038
          1.301e-3 -93.465 0.016 88.944 0.997 -1.038 4.305e-3 54.371
358.308 4.364e-3 54.868 0.997 -1.058 0.016 88.923 1.327e-3 -93.535
          0.997 -1.058 4.364e-3 54.868 1.327e-3 -93.535 0.016 88.923
          0.016 88.923 1.327e-3 -93.535 4.364e-3 54.868 0.997 -1.058
          1.327e-3 -93.535 0.016 88.923 0.997 -1.058 4.364e-3 54.868
365.315 4.423e-3 55.351 0.997 -1.079 0.016 88.902 1.353e-3 -93.604
          0.997 -1.079 4.423e-3 55.351 1.353e-3 -93.604 0.016 88.902
          0.016 88.902 1.353e-3 -93.604 4.423e-3 55.351 0.997 -1.079
          1.353e-3 -93.604 0.016 88.902 0.997 -1.079 4.423e-3 55.351
372.322 4.482e-3 55.821 0.997 -1.1 0.017 88.881 1.379e-3 -93.674
          0.997 -1.1 4.482e-3 55.821 1.379e-3 -93.674 0.017 88.881
          0.017 88.881 1.379e-3 -93.674 4.482e-3 55.821 0.997 -1.1
          1.379e-3 -93.674 0.017 88.881 0.997 -1.1 4.482e-3 55.821
379.329 4.542e-3 56.277 0.997 -1.12 0.017 88.86 1.405e-3 -93.744
          0.997 -1.12 4.542e-3 56.277 1.405e-3 -93.744 0.017 88.86
          0.017 88.86 1.405e-3 -93.744 4.542e-3 56.277 0.997 -1.12
          1.405e-3 -93.744 0.017 88.86 0.997 -1.12 4.542e-3 56.277
386.336 4.602e-3 56.721 0.997 -1.141 0.017 88.839 1.431e-3 -93.814
          0.997 -1.141 4.602e-3 56.721 1.431e-3 -93.814 0.017 88.839
          0.017 88.839 1.431e-3 -93.814 4.602e-3 56.721 0.997 -1.141
          1.431e-3 -93.814 0.017 88.839 0.997 -1.141 4.602e-3 56.721
393.343 4.663e-3 57.153 0.997 -1.162 0.018 88.818 1.457e-3 -93.883
          0.997 -1.162 4.663e-3 57.153 1.457e-3 -93.883 0.018 88.818
          0.018 88.818 1.457e-3 -93.883 4.663e-3 57.153 0.997 -1.162
          1.457e-3 -93.883 0.018 88.818 0.997 -1.162 4.663e-3 57.153
400.35 4.724e-3 57.573 0.997 -1.183 0.018 88.797 1.483e-3 -93.953
          0.997 -1.183 4.724e-3 57.573 1.483e-3 -93.953 0.018 88.797
          0.018 88.797 1.483e-3 -93.953 4.724e-3 57.573 0.997 -1.183
          1.483e-3 -93.953 0.018 88.797 0.997 -1.183 4.724e-3 57.573
407.357 4.785e-3 57.981 0.997 -1.203 0.018 88.776 1.509e-3 -94.023
          0.997 -1.203 4.785e-3 57.981 1.509e-3 -94.023 0.018 88.776
          0.018 88.776 1.509e-3 -94.023 4.785e-3 57.981 0.997 -1.203
          1.509e-3 -94.023 0.018 88.776 0.997 -1.203 4.785e-3 57.981
414.364 4.846e-3 58.379 0.997 -1.224 0.019 88.755 1.535e-3 -94.093
          0.997 -1.224 4.846e-3 58.379 1.535e-3 -94.093 0.019 88.755
          0.019 88.755 1.535e-3 -94.093 4.846e-3 58.379 0.997 -1.224
          1.535e-3 -94.093 0.019 88.755 0.997 -1.224 4.846e-3 58.379
421.371 4.907e-3 58.765 0.997 -1.245 0.019 88.734 1.561e-3 -94.162
          0.997 -1.245 4.907e-3 58.765 1.561e-3 -94.162 0.019 88.734
          0.019 88.734 1.561e-3 -94.162 4.907e-3 58.765 0.997 -1.245
          1.561e-3 -94.162 0.019 88.734 0.997 -1.245 4.907e-3 58.765
428.378 4.969e-3 59.142 0.997 -1.265 0.019 88.713 1.587e-3 -94.232
          0.997 -1.265 4.969e-3 59.142 1.587e-3 -94.232 0.019 88.713
          0.019 88.713 1.587e-3 -94.232 4.969e-3 59.142 0.997 -1.265
          1.587e-3 -94.232 0.019 88.713 0.997 -1.265 4.969e-3 59.142
435.385 5.031e-3 59.509 0.997 -1.286 0.02 88.692 1.613e-3 -94.302
          0.997 -1.286 5.031e-3 59.509 1.613e-3 -94.302 0.02 88.692
          0.02 88.692 1.613e-3 -94.302 5.031e-3 59.509 0.997 -1.286
          1.613e-3 -94.302 0.02 88.692 0.997 -1.286 5.031e-3 59.509
442.392 5.093e-3 59.865 0.997 -1.307 0.02 88.671 1.639e-3 -94.371
          0.997 -1.307 5.093e-3 59.865 1.639e-3 -94.371 0.02 88.671
          0.02 88.671 1.639e-3 -94.371 5.093e-3 59.865 0.997 -1.307
          1.639e-3 -94.371 0.02 88.671 0.997 -1.307 5.093e-3 59.865
449.399 5.156e-3 60.213 0.997 -1.327 0.02 88.65 1.665e-3 -94.441
          0.997 -1.327 5.156e-3 60.213 1.665e-3 -94.441 0.02 88.65
          0.02 88.65 1.665e-3 -94.441 5.156e-3 60.213 0.997 -1.327
          1.665e-3 -94.441 0.02 88.65 0.997 -1.327 5.156e-3 60.213
456.406 5.218e-3 60.552 0.997 -1.348 0.021 88.629 1.691e-3 -94.511
          0.997 -1.348 5.218e-3 60.552 1.691e-3 -94.511 0.021 88.629
          0.021 88.629 1.691e-3 -94.511 5.218e-3 60.552 0.997 -1.348
          1.691e-3 -94.511 0.021 88.629 0.997 -1.348 5.218e-3 60.552
463.413 5.281e-3 60.882 0.997 -1.369 0.021 88.608 1.717e-3 -94.581
          0.997 -1.369 5.281e-3 60.882 1.717e-3 -94.581 0.021 88.608
          0.021 88.608 1.717e-3 -94.581 5.281e-3 60.882 0.997 -1.369
          1.717e-3 -94.581 0.021 88.608 0.997 -1.369 5.281e-3 60.882
470.42 5.344e-3 61.203 0.997 -1.389 0.021 88.587 1.743e-3 -94.65
          0.997 -1.389 5.344e-3 61.203 1.743e-3 -94.65 0.021 88.587
          0.021 88.587 1.743e-3 -94.65 5.344e-3 61.203 0.997 -1.389
          1.743e-3 -94.65 0.021 88.587 0.997 -1.389 5.344e-3 61.203
477.427 5.408e-3 61.516 0.997 -1.41 0.022 88.566 1.769e-3 -94.72
          0.997 -1.41 5.408e-3 61.516 1.769e-3 -94.72 0.022 88.566
          0.022 88.566 1.769e-3 -94.72 5.408e-3 61.516 0.997 -1.41
          1.769e-3 -94.72 0.022 88.566 0.997 -1.41 5.408e-3 61.516
484.434 5.471e-3 61.822 0.997 -1.431 0.022 88.545 1.795e-3 -94.79
          0.997 -1.431 5.471e-3 61.822 1.795e-3 -94.79 0.022 88.545
          0.022 88.545 1.795e-3 -94.79 5.471e-3 61.822 0.997 -1.431
          1.795e-3 -94.79 0.022 88.545 0.997 -1.431 5.471e-3 61.822
491.441 5.535e-3 62.12 0.997 -1.452 0.022 88.524 1.821e-3 -94.86
          0.997 -1.452 5.535e-3 62.12 1.821e-3 -94.86 0.022 88.524
          0.022 88.524 1.821e-3 -94.86 5.535e-3 62.12 0.997 -1.452
          1.821e-3 -94.86 0.022 88.524 0.997 -1.452 5.535e-3 62.12
498.448 5.599e-3 62.41 0.997 -1.472 0.023 88.503 1.847e-3 -94.929
          0.997 -1.472 5.599e-3 62.41 1.847e-3 -94.929 0.023 88.503
          0.023 88.503 1.847e-3 -94.929 5.599e-3 62.41 0.997 -1.472
          1.847e-3 -94.929 0.023 88.503 0.997 -1.472 5.599e-3 62.41
505.455 5.662e-3 62.693 0.997 -1.493 0.023 88.482 1.873e-3 -94.999
          0.997 -1.493 5.662e-3 62.693 1.873e-3 -94.999 0.023 88.482
          0.023 88.482 1.873e-3 -94.999 5.662e-3 62.693 0.997 -1.493
          1.873e-3 -94.999 0.023 88.482 0.997 -1.493 5.662e-3 62.693
512.462 5.727e-3 62.969 0.997 -1.514 0.023 88.461 1.899e-3 -95.069
          0.997 -1.514 5.727e-3 62.969 1.899e-3 -95.069 0.023 88.461
          0.023 88.461 1.899e-3 -95.069 5.727e-3 62.969 0.997 -1.514
          1.899e-3 -95.069 0.023 88.461 0.997 -1.514 5.727e-3 62.969
519.469 5.791e-3 63.239 0.997 -1.534 0.023 88.44 1.925e-3 -95.138
          0.997 -1.534 5.791e-3 63.239 1.925e-3 -95.138 0.023 88.44
          0.023 88.44 1.925e-3 -95.138 5.791e-3 63.239 0.997 -1.534
          1.925e-3 -95.138 0.023 88.44 0.997 -1.534 5.791e-3 63.239
526.476 5.855e-3 63.502 0.997 -1.555 0.024 88.42 1.951e-3 -95.208
          0.997 -1.555 5.855e-3 63.502 1.951e-3 -95.208 0.024 88.42
          0.024 88.42 1.951e-3 -95.208 5.855e-3 63.502 0.997 -1.555
          1.951e-3 -95.208 0.024 88.42 0.997 -1.555 5.855e-3 63.502
533.483 5.92e-3 63.758 0.997 -1.576 0.024 88.399 1.977e-3 -95.278
          0.997 -1.576 5.92e-3 63.758 1.977e-3 -95.278 0.024 88.399
          0.024 88.399 1.977e-3 -95.278 5.92e-3 63.758 0.997 -1.576
          1.977e-3 -95.278 0.024 88.399 0.997 -1.576 5.92e-3 63.758
540.49 5.985e-3 64.009 0.997 -1.596 0.024 88.378 2.003e-3 -95.347
          0.997 -1.596 5.985e-3 64.009 2.003e-3 -95.347 0.024 88.378
          0.024 88.378 2.003e-3 -95.347 5.985e-3 64.009 0.997 -1.596
          2.003e-3 -95.347 0.024 88.378 0.997 -1.596 5.985e-3 64.009
547.497 6.049e-3 64.253 0.997 -1.617 0.025 88.357 2.029e-3 -95.417
          0.997 -1.617 6.049e-3 64.253 2.029e-3 -95.417 0.025 88.357
          0.025 88.357 2.029e-3 -95.417 6.049e-3 64.253 0.997 -1.617
          2.029e-3 -95.417 0.025 88.357 0.997 -1.617 6.049e-3 64.253
554.505 6.114e-3 64.492 0.997 -1.638 0.025 88.336 2.055e-3 -95.487
          0.997 -1.638 6.114e-3 64.492 2.055e-3 -95.487 0.025 88.336
