!	AVX THIN FILM OPERATION
!
!	CP0402 HIGH DIRECTIVITY COUPLERS
!	P/N CP0402AxxxxGNTR
!
!	Updated 6 September 2013
!
# MHZ S MA R 50

50 4.738e-3 -24.434 0.996 -0.586 0.011 89.403 989.3e-6 88.133
          0.996 -0.586 4.738e-3 -24.434 989.3e-6 88.133 0.011 89.403
          0.011 89.403 989.3e-6 88.133 4.738e-3 -24.434 0.996 -0.586
          989.3e-6 88.133 0.011 89.403 0.996 -0.586 4.738e-3 -24.434
55.956 4.832e-3 -26.992 0.996 -0.655 0.012 89.332 1.107e-3 87.914
          0.996 -0.655 4.832e-3 -26.992 1.107e-3 87.914 0.012 89.332
          0.012 89.332 1.107e-3 87.914 4.832e-3 -26.992 0.996 -0.655
          1.107e-3 87.914 0.012 89.332 0.996 -0.655 4.832e-3 -26.992
61.912 4.934e-3 -29.452 0.996 -0.725 0.014 89.261 1.225e-3 87.695
          0.996 -0.725 4.934e-3 -29.452 1.225e-3 87.695 0.014 89.261
          0.014 89.261 1.225e-3 87.695 4.934e-3 -29.452 0.996 -0.725
          1.225e-3 87.695 0.014 89.261 0.996 -0.725 4.934e-3 -29.452
67.868 5.045e-3 -31.812 0.996 -0.795 0.015 89.191 1.343e-3 87.476
          0.996 -0.795 5.045e-3 -31.812 1.343e-3 87.476 0.015 89.191
          0.015 89.191 1.343e-3 87.476 5.045e-3 -31.812 0.996 -0.795
          1.343e-3 87.476 0.015 89.191 0.996 -0.795 5.045e-3 -31.812
73.824 5.163e-3 -34.073 0.996 -0.865 0.016 89.12 1.461e-3 87.257
          0.996 -0.865 5.163e-3 -34.073 1.461e-3 87.257 0.016 89.12
          0.016 89.12 1.461e-3 87.257 5.163e-3 -34.073 0.996 -0.865
          1.461e-3 87.257 0.016 89.12 0.996 -0.865 5.163e-3 -34.073
79.78 5.288e-3 -36.234 0.995 -0.934 0.018 89.049 1.579e-3 87.039
          0.995 -0.934 5.288e-3 -36.234 1.579e-3 87.039 0.018 89.049
          0.018 89.049 1.579e-3 87.039 5.288e-3 -36.234 0.995 -0.934
          1.579e-3 87.039 0.018 89.049 0.995 -0.934 5.288e-3 -36.234
85.736 5.419e-3 -38.297 0.995 -1.004 0.019 88.978 1.696e-3 86.82
          0.995 -1.004 5.419e-3 -38.297 1.696e-3 86.82 0.019 88.978
          0.019 88.978 1.696e-3 86.82 5.419e-3 -38.297 0.995 -1.004
          1.696e-3 86.82 0.019 88.978 0.995 -1.004 5.419e-3 -38.297
91.692 5.557e-3 -40.266 0.995 -1.074 0.02 88.907 1.814e-3 86.602
          0.995 -1.074 5.557e-3 -40.266 1.814e-3 86.602 0.02 88.907
          0.02 88.907 1.814e-3 86.602 5.557e-3 -40.266 0.995 -1.074
          1.814e-3 86.602 0.02 88.907 0.995 -1.074 5.557e-3 -40.266
97.648 5.699e-3 -42.143 0.995 -1.143 0.022 88.837 1.932e-3 86.383
          0.995 -1.143 5.699e-3 -42.143 1.932e-3 86.383 0.022 88.837
          0.022 88.837 1.932e-3 86.383 5.699e-3 -42.143 0.995 -1.143
          1.932e-3 86.383 0.022 88.837 0.995 -1.143 5.699e-3 -42.143
103.604 5.847e-3 -43.932 0.995 -1.213 0.023 88.766 2.05e-3 86.165
          0.995 -1.213 5.847e-3 -43.932 2.05e-3 86.165 0.023 88.766
          0.023 88.766 2.05e-3 86.165 5.847e-3 -43.932 0.995 -1.213
          2.05e-3 86.165 0.023 88.766 0.995 -1.213 5.847e-3 -43.932
109.56 6e-3 -45.636 0.995 -1.283 0.024 88.695 2.168e-3 85.946
          0.995 -1.283 6e-3 -45.636 2.168e-3 85.946 0.024 88.695
          0.024 88.695 2.168e-3 85.946 6e-3 -45.636 0.995 -1.283
          2.168e-3 85.946 0.024 88.695 0.995 -1.283 6e-3 -45.636
115.516 6.157e-3 -47.26 0.995 -1.353 0.026 88.624 2.286e-3 85.728
          0.995 -1.353 6.157e-3 -47.26 2.286e-3 85.728 0.026 88.624
          0.026 88.624 2.286e-3 85.728 6.157e-3 -47.26 0.995 -1.353
          2.286e-3 85.728 0.026 88.624 0.995 -1.353 6.157e-3 -47.26
121.471 6.319e-3 -48.807 0.995 -1.422 0.027 88.554 2.404e-3 85.509
          0.995 -1.422 6.319e-3 -48.807 2.404e-3 85.509 0.027 88.554
          0.027 88.554 2.404e-3 85.509 6.319e-3 -48.807 0.995 -1.422
          2.404e-3 85.509 0.027 88.554 0.995 -1.422 6.319e-3 -48.807
127.427 6.484e-3 -50.281 0.995 -1.492 0.028 88.483 2.522e-3 85.291
          0.995 -1.492 6.484e-3 -50.281 2.522e-3 85.291 0.028 88.483
          0.028 88.483 2.522e-3 85.291 6.484e-3 -50.281 0.995 -1.492
          2.522e-3 85.291 0.028 88.483 0.995 -1.492 6.484e-3 -50.281
133.383 6.652e-3 -51.687 0.995 -1.562 0.03 88.412 2.639e-3 85.073
          0.995 -1.562 6.652e-3 -51.687 2.639e-3 85.073 0.03 88.412
          0.03 88.412 2.639e-3 85.073 6.652e-3 -51.687 0.995 -1.562
          2.639e-3 85.073 0.03 88.412 0.995 -1.562 6.652e-3 -51.687
139.339 6.824e-3 -53.027 0.995 -1.631 0.031 88.342 2.757e-3 84.854
          0.995 -1.631 6.824e-3 -53.027 2.757e-3 84.854 0.031 88.342
          0.031 88.342 2.757e-3 84.854 6.824e-3 -53.027 0.995 -1.631
          2.757e-3 84.854 0.031 88.342 0.995 -1.631 6.824e-3 -53.027
145.295 6.998e-3 -54.306 0.995 -1.701 0.032 88.271 2.875e-3 84.636
          0.995 -1.701 6.998e-3 -54.306 2.875e-3 84.636 0.032 88.271
          0.032 88.271 2.875e-3 84.636 6.998e-3 -54.306 0.995 -1.701
          2.875e-3 84.636 0.032 88.271 0.995 -1.701 6.998e-3 -54.306
151.251 7.175e-3 -55.528 0.995 -1.771 0.034 88.2 2.993e-3 84.418
          0.995 -1.771 7.175e-3 -55.528 2.993e-3 84.418 0.034 88.2
          0.034 88.2 2.993e-3 84.418 7.175e-3 -55.528 0.995 -1.771
          2.993e-3 84.418 0.034 88.2 0.995 -1.771 7.175e-3 -55.528
157.207 7.355e-3 -56.695 0.995 -1.84 0.035 88.129 3.111e-3 84.2
          0.995 -1.84 7.355e-3 -56.695 3.111e-3 84.2 0.035 88.129
          0.035 88.129 3.111e-3 84.2 7.355e-3 -56.695 0.995 -1.84
          3.111e-3 84.2 0.035 88.129 0.995 -1.84 7.355e-3 -56.695
163.163 7.537e-3 -57.811 0.995 -1.91 0.036 88.059 3.229e-3 83.982
          0.995 -1.91 7.537e-3 -57.811 3.229e-3 83.982 0.036 88.059
          0.036 88.059 3.229e-3 83.982 7.537e-3 -57.811 0.995 -1.91
          3.229e-3 83.982 0.036 88.059 0.995 -1.91 7.537e-3 -57.811
169.119 7.721e-3 -58.88 0.995 -1.98 0.038 87.988 3.347e-3 83.764
          0.995 -1.98 7.721e-3 -58.88 3.347e-3 83.764 0.038 87.988
          0.038 87.988 3.347e-3 83.764 7.721e-3 -58.88 0.995 -1.98
          3.347e-3 83.764 0.038 87.988 0.995 -1.98 7.721e-3 -58.88
175.075 7.908e-3 -59.902 0.995 -2.049 0.039 87.917 3.465e-3 83.545
          0.995 -2.049 7.908e-3 -59.902 3.465e-3 83.545 0.039 87.917
          0.039 87.917 3.465e-3 83.545 7.908e-3 -59.902 0.995 -2.049
          3.465e-3 83.545 0.039 87.917 0.995 -2.049 7.908e-3 -59.902
181.031 8.096e-3 -60.883 0.995 -2.119 0.04 87.847 3.582e-3 83.327
          0.995 -2.119 8.096e-3 -60.883 3.582e-3 83.327 0.04 87.847
          0.04 87.847 3.582e-3 83.327 8.096e-3 -60.883 0.995 -2.119
          3.582e-3 83.327 0.04 87.847 0.995 -2.119 8.096e-3 -60.883
186.987 8.286e-3 -61.823 0.995 -2.189 0.042 87.776 3.7e-3 83.109
          0.995 -2.189 8.286e-3 -61.823 3.7e-3 83.109 0.042 87.776
          0.042 87.776 3.7e-3 83.109 8.286e-3 -61.823 0.995 -2.189
          3.7e-3 83.109 0.042 87.776 0.995 -2.189 8.286e-3 -61.823
192.943 8.477e-3 -62.725 0.995 -2.258 0.043 87.705 3.818e-3 82.892
          0.995 -2.258 8.477e-3 -62.725 3.818e-3 82.892 0.043 87.705
          0.043 87.705 3.818e-3 82.892 8.477e-3 -62.725 0.995 -2.258
          3.818e-3 82.892 0.043 87.705 0.995 -2.258 8.477e-3 -62.725
198.899 8.67e-3 -63.592 0.995 -2.328 0.044 87.635 3.936e-3 82.674
          0.995 -2.328 8.67e-3 -63.592 3.936e-3 82.674 0.044 87.635
          0.044 87.635 3.936e-3 82.674 8.67e-3 -63.592 0.995 -2.328
          3.936e-3 82.674 0.044 87.635 0.995 -2.328 8.67e-3 -63.592
204.855 8.864e-3 -64.426 0.995 -2.397 0.046 87.564 4.054e-3 82.456
          0.995 -2.397 8.864e-3 -64.426 4.054e-3 82.456 0.046 87.564
          0.046 87.564 4.054e-3 82.456 8.864e-3 -64.426 0.995 -2.397
          4.054e-3 82.456 0.046 87.564 0.995 -2.397 8.864e-3 -64.426
210.811 9.06e-3 -65.228 0.995 -2.467 0.047 87.494 4.172e-3 82.238
          0.995 -2.467 9.06e-3 -65.228 4.172e-3 82.238 0.047 87.494
          0.047 87.494 4.172e-3 82.238 9.06e-3 -65.228 0.995 -2.467
          4.172e-3 82.238 0.047 87.494 0.995 -2.467 9.06e-3 -65.228
216.767 9.257e-3 -66 0.994 -2.537 0.048 87.423 4.29e-3 82.02
          0.994 -2.537 9.257e-3 -66 4.29e-3 82.02 0.048 87.423
          0.048 87.423 4.29e-3 82.02 9.257e-3 -66 0.994 -2.537
          4.29e-3 82.02 0.048 87.423 0.994 -2.537 9.257e-3 -66
222.723 9.455e-3 -66.745 0.994 -2.606 0.05 87.352 4.408e-3 81.802
          0.994 -2.606 9.455e-3 -66.745 4.408e-3 81.802 0.05 87.352
          0.05 87.352 4.408e-3 81.802 9.455e-3 -66.745 0.994 -2.606
          4.408e-3 81.802 0.05 87.352 0.994 -2.606 9.455e-3 -66.745
228.679 9.653e-3 -67.463 0.994 -2.676 0.051 87.282 4.526e-3 81.585
          0.994 -2.676 9.653e-3 -67.463 4.526e-3 81.585 0.051 87.282
          0.051 87.282 4.526e-3 81.585 9.653e-3 -67.463 0.994 -2.676
          4.526e-3 81.585 0.051 87.282 0.994 -2.676 9.653e-3 -67.463
234.635 9.853e-3 -68.156 0.994 -2.745 0.052 87.211 4.644e-3 81.367
          0.994 -2.745 9.853e-3 -68.156 4.644e-3 81.367 0.052 87.211
          0.052 87.211 4.644e-3 81.367 9.853e-3 -68.156 0.994 -2.745
          4.644e-3 81.367 0.052 87.211 0.994 -2.745 9.853e-3 -68.156
240.591 0.01 -68.825 0.994 -2.815 0.054 87.141 4.762e-3 81.15
          0.994 -2.815 0.01 -68.825 4.762e-3 81.15 0.054 87.141
          0.054 87.141 4.762e-3 81.15 0.01 -68.825 0.994 -2.815
          4.762e-3 81.15 0.054 87.141 0.994 -2.815 0.01 -68.825
246.547 0.01 -69.473 0.994 -2.884 0.055 87.07 4.88e-3 80.932
          0.994 -2.884 0.01 -69.473 4.88e-3 80.932 0.055 87.07
          0.055 87.07 4.88e-3 80.932 0.01 -69.473 0.994 -2.884
          4.88e-3 80.932 0.055 87.07 0.994 -2.884 0.01 -69.473
252.503 0.01 -70.099 0.994 -2.954 0.056 87 4.998e-3 80.715
          0.994 -2.954 0.01 -70.099 4.998e-3 80.715 0.056 87
          0.056 87 4.998e-3 80.715 0.01 -70.099 0.994 -2.954
          4.998e-3 80.715 0.056 87 0.994 -2.954 0.01 -70.099
258.458 0.011 -70.705 0.994 -3.024 0.058 86.929 5.116e-3 80.497
          0.994 -3.024 0.011 -70.705 5.116e-3 80.497 0.058 86.929
          0.058 86.929 5.116e-3 80.497 0.011 -70.705 0.994 -3.024
          5.116e-3 80.497 0.058 86.929 0.994 -3.024 0.011 -70.705
264.414 0.011 -71.293 0.994 -3.093 0.059 86.858 5.233e-3 80.28
          0.994 -3.093 0.011 -71.293 5.233e-3 80.28 0.059 86.858
          0.059 86.858 5.233e-3 80.28 0.011 -71.293 0.994 -3.093
          5.233e-3 80.28 0.059 86.858 0.994 -3.093 0.011 -71.293
270.37 0.011 -71.862 0.994 -3.163 0.06 86.788 5.351e-3 80.063
          0.994 -3.163 0.011 -71.862 5.351e-3 80.063 0.06 86.788
          0.06 86.788 5.351e-3 80.063 0.011 -71.862 0.994 -3.163
          5.351e-3 80.063 0.06 86.788 0.994 -3.163 0.011 -71.862
276.326 0.011 -72.415 0.994 -3.232 0.061 86.717 5.469e-3 79.845
          0.994 -3.232 0.011 -72.415 5.469e-3 79.845 0.061 86.717
          0.061 86.717 5.469e-3 79.845 0.011 -72.415 0.994 -3.232
          5.469e-3 79.845 0.061 86.717 0.994 -3.232 0.011 -72.415
282.282 0.011 -72.951 0.994 -3.301 0.063 86.647 5.587e-3 79.628
          0.994 -3.301 0.011 -72.951 5.587e-3 79.628 0.063 86.647
          0.063 86.647 5.587e-3 79.628 0.011 -72.951 0.994 -3.301
          5.587e-3 79.628 0.063 86.647 0.994 -3.301 0.011 -72.951
288.238 0.012 -73.472 0.994 -3.371 0.064 86.576 5.705e-3 79.411
          0.994 -3.371 0.012 -73.472 5.705e-3 79.411 0.064 86.576
          0.064 86.576 5.705e-3 79.411 0.012 -73.472 0.994 -3.371
          5.705e-3 79.411 0.064 86.576 0.994 -3.371 0.012 -73.472
294.194 0.012 -73.979 0.993 -3.44 0.065 86.506 5.823e-3 79.194
          0.993 -3.44 0.012 -73.979 5.823e-3 79.194 0.065 86.506
          0.065 86.506 5.823e-3 79.194 0.012 -73.979 0.993 -3.44
          5.823e-3 79.194 0.065 86.506 0.993 -3.44 0.012 -73.979
300.15 0.012 -74.471 0.993 -3.51 0.067 86.436 5.941e-3 78.977
          0.993 -3.51 0.012 -74.471 5.941e-3 78.977 0.067 86.436
          0.067 86.436 5.941e-3 78.977 0.012 -74.471 0.993 -3.51
          5.941e-3 78.977 0.067 86.436 0.993 -3.51 0.012 -74.471
306.106 0.012 -74.951 0.993 -3.579 0.068 86.365 6.059e-3 78.76
          0.993 -3.579 0.012 -74.951 6.059e-3 78.76 0.068 86.365
          0.068 86.365 6.059e-3 78.76 0.012 -74.951 0.993 -3.579
          6.059e-3 78.76 0.068 86.365 0.993 -3.579 0.012 -74.951
312.062 0.013 -75.418 0.993 -3.649 0.069 86.295 6.177e-3 78.543
          0.993 -3.649 0.013 -75.418 6.177e-3 78.543 0.069 86.295
          0.069 86.295 6.177e-3 78.543 0.013 -75.418 0.993 -3.649
          6.177e-3 78.543 0.069 86.295 0.993 -3.649 0.013 -75.418
318.018 0.013 -75.873 0.993 -3.718 0.071 86.224 6.295e-3 78.326
          0.993 -3.718 0.013 -75.873 6.295e-3 78.326 0.071 86.224
          0.071 86.224 6.295e-3 78.326 0.013 -75.873 0.993 -3.718
          6.295e-3 78.326 0.071 86.224 0.993 -3.718 0.013 -75.873
323.974 0.013 -76.316 0.993 -3.787 0.072 86.154 6.413e-3 78.11
          0.993 -3.787 0.013 -76.316 6.413e-3 78.11 0.072 86.154
          0.072 86.154 6.413e-3 78.11 0.013 -76.316 0.993 -3.787
          6.413e-3 78.11 0.072 86.154 0.993 -3.787 0.013 -76.316
329.93 0.013 -76.749 0.993 -3.857 0.073 86.084 6.531e-3 77.893
          0.993 -3.857 0.013 -76.749 6.531e-3 77.893 0.073 86.084
          0.073 86.084 6.531e-3 77.893 0.013 -76.749 0.993 -3.857
          6.531e-3 77.893 0.073 86.084 0.993 -3.857 0.013 -76.749
335.886 0.013 -77.172 0.993 -3.926 0.075 86.013 6.649e-3 77.676
          0.993 -3.926 0.013 -77.172 6.649e-3 77.676 0.075 86.013
          0.075 86.013 6.649e-3 77.676 0.013 -77.172 0.993 -3.926
          6.649e-3 77.676 0.075 86.013 0.993 -3.926 0.013 -77.172
341.842 0.014 -77.584 0.993 -3.995 0.076 85.943 6.767e-3 77.46
          0.993 -3.995 0.014 -77.584 6.767e-3 77.46 0.076 85.943
          0.076 85.943 6.767e-3 77.46 0.014 -77.584 0.993 -3.995
          6.767e-3 77.46 0.076 85.943 0.993 -3.995 0.014 -77.584
347.798 0.014 -77.987 0.993 -4.065 0.077 85.873 6.885e-3 77.243
          0.993 -4.065 0.014 -77.987 6.885e-3 77.243 0.077 85.873
          0.077 85.873 6.885e-3 77.243 0.014 -77.987 0.993 -4.065
          6.885e-3 77.243 0.077 85.873 0.993 -4.065 0.014 -77.987
353.754 0.014 -78.381 0.992 -4.134 0.079 85.802 7.003e-3 77.027
          0.992 -4.134 0.014 -78.381 7.003e-3 77.027 0.079 85.802
          0.079 85.802 7.003e-3 77.027 0.014 -78.381 0.992 -4.134
          7.003e-3 77.027 0.079 85.802 0.992 -4.134 0.014 -78.381
359.71 0.014 -78.766 0.992 -4.203 0.08 85.732 7.121e-3 76.811
          0.992 -4.203 0.014 -78.766 7.121e-3 76.811 0.08 85.732
          0.08 85.732 7.121e-3 76.811 0.014 -78.766 0.992 -4.203
          7.121e-3 76.811 0.08 85.732 0.992 -4.203 0.014 -78.766
365.666 0.014 -79.143 0.992 -4.273 0.081 85.662 7.239e-3 76.595
          0.992 -4.273 0.014 -79.143 7.239e-3 76.595 0.081 85.662
          0.081 85.662 7.239e-3 76.595 0.014 -79.143 0.992 -4.273
          7.239e-3 76.595 0.081 85.662 0.992 -4.273 0.014 -79.143
371.622 0.015 -79.512 0.992 -4.342 0.083 85.591 7.357e-3 76.378
          0.992 -4.342 0.015 -79.512 7.357e-3 76.378 0.083 85.591
          0.083 85.591 7.357e-3 76.378 0.015 -79.512 0.992 -4.342
          7.357e-3 76.378 0.083 85.591 0.992 -4.342 0.015 -79.512
377.578 0.015 -79.874 0.992 -4.411 0.084 85.521 7.476e-3 76.162
          0.992 -4.411 0.015 -79.874 7.476e-3 76.162 0.084 85.521
          0.084 85.521 7.476e-3 76.162 0.015 -79.874 0.992 -4.411
          7.476e-3 76.162 0.084 85.521 0.992 -4.411 0.015 -79.874
383.534 0.015 -80.228 0.992 -4.48 0.085 85.451 7.594e-3 75.946
          0.992 -4.48 0.015 -80.228 7.594e-3 75.946 0.085 85.451
          0.085 85.451 7.594e-3 75.946 0.015 -80.228 0.992 -4.48
          7.594e-3 75.946 0.085 85.451 0.992 -4.48 0.015 -80.228
389.489 0.015 -80.575 0.992 -4.55 0.087 85.381 7.712e-3 75.73
          0.992 -4.55 0.015 -80.575 7.712e-3 75.73 0.087 85.381
          0.087 85.381 7.712e-3 75.73 0.015 -80.575 0.992 -4.55
          7.712e-3 75.73 0.087 85.381 0.992 -4.55 0.015 -80.575
395.445 0.015 -80.916 0.992 -4.619 0.088 85.31 7.83e-3 75.515
          0.992 -4.619 0.015 -80.916 7.83e-3 75.515 0.088 85.31
          0.088 85.31 7.83e-3 75.515 0.015 -80.916 0.992 -4.619
          7.83e-3 75.515 0.088 85.31 0.992 -4.619 0.015 -80.916
401.401 0.016 -81.249 0.992 -4.688 0.089 85.24 7.948e-3 75.299
          0.992 -4.688 0.016 -81.249 7.948e-3 75.299 0.089 85.24
          0.089 85.24 7.948e-3 75.299 0.016 -81.249 0.992 -4.688
          7.948e-3 75.299 0.089 85.24 0.992 -4.688 0.016 -81.249
407.357 0.016 -81.577 0.991 -4.757 0.09 85.17 8.066e-3 75.083
          0.991 -4.757 0.016 -81.577 8.066e-3 75.083 0.09 85.17
          0.09 85.17 8.066e-3 75.083 0.016 -81.577 0.991 -4.757
          8.066e-3 75.083 0.09 85.17 0.991 -4.757 0.016 -81.577
413.313 0.016 -81.899 0.991 -4.826 0.092 85.1 8.184e-3 74.868
          0.991 -4.826 0.016 -81.899 8.184e-3 74.868 0.092 85.1
          0.092 85.1 8.184e-3 74.868 0.016 -81.899 0.991 -4.826
          8.184e-3 74.868 0.092 85.1 0.991 -4.826 0.016 -81.899
419.269 0.016 -82.215 0.991 -4.895 0.093 85.03 8.302e-3 74.652
          0.991 -4.895 0.016 -82.215 8.302e-3 74.652 0.093 85.03
          0.093 85.03 8.302e-3 74.652 0.016 -82.215 0.991 -4.895
          8.302e-3 74.652 0.093 85.03 0.991 -4.895 0.016 -82.215
425.225 0.017 -82.526 0.991 -4.965 0.094 84.96 8.42e-3 74.437
          0.991 -4.965 0.017 -82.526 8.42e-3 74.437 0.094 84.96
          0.094 84.96 8.42e-3 74.437 0.017 -82.526 0.991 -4.965
          8.42e-3 74.437 0.094 84.96 0.991 -4.965 0.017 -82.526
431.181 0.017 -82.831 0.991 -5.034 0.096 84.89 8.538e-3 74.221
          0.991 -5.034 0.017 -82.831 8.538e-3 74.221 0.096 84.89
          0.096 84.89 8.538e-3 74.221 0.017 -82.831 0.991 -5.034
          8.538e-3 74.221 0.096 84.89 0.991 -5.034 0.017 -82.831
437.137 0.017 -83.131 0.991 -5.103 0.097 84.82 8.656e-3 74.006
          0.991 -5.103 0.017 -83.131 8.656e-3 74.006 0.097 84.82
          0.097 84.82 8.656e-3 74.006 0.017 -83.131 0.991 -5.103
          8.656e-3 74.006 0.097 84.82 0.991 -5.103 0.017 -83.131
443.093 0.017 -83.426 0.991 -5.172 0.098 84.75 8.775e-3 73.791
          0.991 -5.172 0.017 -83.426 8.775e-3 73.791 0.098 84.75
          0.098 84.75 8.775e-3 73.791 0.017 -83.426 0.991 -5.172
          8.775e-3 73.791 0.098 84.75 0.991 -5.172 0.017 -83.426
449.049 0.017 -83.717 0.99 -5.241 0.1 84.679 8.893e-3 73.576
          0.99 -5.241 0.017 -83.717 8.893e-3 73.576 0.1 84.679
          0.1 84.679 8.893e-3 73.576 0.017 -83.717 0.99 -5.241
          8.893e-3 73.576 0.1 84.679 0.99 -5.241 0.017 -83.717
455.005 0.018 -84.002 0.99 -5.31 0.101 84.609 9.011e-3 73.361
          0.99 -5.31 0.018 -84.002 9.011e-3 73.361 0.101 84.609
          0.101 84.609 9.011e-3 73.361 0.018 -84.002 0.99 -5.31
          9.011e-3 73.361 0.101 84.609 0.99 -5.31 0.018 -84.002
460.961 0.018 -84.284 0.99 -5.379 0.102 84.539 9.129e-3 73.146
          0.99 -5.379 0.018 -84.284 9.129e-3 73.146 0.102 84.539
          0.102 84.539 9.129e-3 73.146 0.018 -84.284 0.99 -5.379
          9.129e-3 73.146 0.102 84.539 0.99 -5.379 0.018 -84.284
466.917 0.018 -84.561 0.99 -5.448 0.104 84.47 9.247e-3 72.932
          0.99 -5.448 0.018 -84.561 9.247e-3 72.932 0.104 84.47
          0.104 84.47 9.247e-3 72.932 0.018 -84.561 0.99 -5.448
          9.247e-3 72.932 0.104 84.47 0.99 -5.448 0.018 -84.561
472.873 0.018 -84.834 0.99 -5.517 0.105 84.4 9.365e-3 72.717
          0.99 -5.517 0.018 -84.834 9.365e-3 72.717 0.105 84.4
          0.105 84.4 9.365e-3 72.717 0.018 -84.834 0.99 -5.517
          9.365e-3 72.717 0.105 84.4 0.99 -5.517 0.018 -84.834
478.829 0.018 -85.103 0.99 -5.586 0.106 84.33 9.483e-3 72.502
          0.99 -5.586 0.018 -85.103 9.483e-3 72.502 0.106 84.33
          0.106 84.33 9.483e-3 72.502 0.018 -85.103 0.99 -5.586
          9.483e-3 72.502 0.106 84.33 0.99 -5.586 0.018 -85.103
484.785 0.019 -85.368 0.99 -5.655 0.107 84.26 9.602e-3 72.288
          0.99 -5.655 0.019 -85.368 9.602e-3 72.288 0.107 84.26
          0.107 84.26 9.602e-3 72.288 0.019 -85.368 0.99 -5.655
          9.602e-3 72.288 0.107 84.26 0.99 -5.655 0.019 -85.368
490.741 0.019 -85.63 0.989 -5.724 0.109 84.19 9.72e-3 72.073
          0.989 -5.724 0.019 -85.63 9.72e-3 72.073 0.109 84.19
          0.109 84.19 9.72e-3 72.073 0.019 -85.63 0.989 -5.724
          9.72e-3 72.073 0.109 84.19 0.989 -5.724 0.019 -85.63
496.697 0.019 -85.888 0.989 -5.792 0.11 84.12 9.838e-3 71.859
          0.989 -5.792 0.019 -85.888 9.838e-3 71.859 0.11 84.12
