!	AVX THIN FILM OPERATION
!
!	CP0402 HIGH DIRECTIVITY TIGHT TOLERANCE COUPLERS
!	P/N CP0402PxxxxENTR
!
!	Network	Analyzer HP8720ES.07.64:Feb23,2000 Serial No.US39172382
!	Hewlett-Packard								
!
!	12 September 2011
!	
!	5MHz step


# MHZ S MA R 50

50 3.564e-3 -33.233 0.997 -0.235 2.549e-3 89.74 62.47e-6 84.259
          0.997 -0.235 3.564e-3 -33.233 62.47e-6 84.259 2.549e-3 89.74
          2.549e-3 89.74 62.47e-6 84.259 3.564e-3 -33.233 0.997 -0.235
          62.47e-6 84.259 2.549e-3 89.74 0.997 -0.235 3.564e-3 -33.233
55 3.68e-3 -35.65 0.997 -0.258 2.804e-3 89.715 68.79e-6 83.743
          0.997 -0.258 3.68e-3 -35.65 68.79e-6 83.743 2.804e-3 89.715
          2.804e-3 89.715 68.79e-6 83.743 3.68e-3 -35.65 0.997 -0.258
          68.79e-6 83.743 2.804e-3 89.715 0.997 -0.258 3.68e-3 -35.65
60 3.795e-3 -38.067 0.997 -0.282 3.059e-3 89.69 75.1e-6 83.226
          0.997 -0.282 3.795e-3 -38.067 75.1e-6 83.226 3.059e-3 89.69
          3.059e-3 89.69 75.1e-6 83.226 3.795e-3 -38.067 0.997 -0.282
          75.1e-6 83.226 3.059e-3 89.69 0.997 -0.282 3.795e-3 -38.067
65 3.911e-3 -40.476 0.997 -0.305 3.313e-3 89.666 81.42e-6 82.71
          0.997 -0.305 3.911e-3 -40.476 81.42e-6 82.71 3.313e-3 89.666
          3.313e-3 89.666 81.42e-6 82.71 3.911e-3 -40.476 0.997 -0.305
          81.42e-6 82.71 3.313e-3 89.666 0.997 -0.305 3.911e-3 -40.476
70 4.044e-3 -42.48 0.997 -0.329 3.568e-3 89.641 87.79e-6 82.215
          0.997 -0.329 4.044e-3 -42.48 87.79e-6 82.215 3.568e-3 89.641
          3.568e-3 89.641 87.79e-6 82.215 4.044e-3 -42.48 0.997 -0.329
          87.79e-6 82.215 3.568e-3 89.641 0.997 -0.329 4.044e-3 -42.48
75 4.177e-3 -44.483 0.997 -0.352 3.823e-3 89.617 94.16e-6 81.721
          0.997 -0.352 4.177e-3 -44.483 94.16e-6 81.721 3.823e-3 89.617
          3.823e-3 89.617 94.16e-6 81.721 4.177e-3 -44.483 0.997 -0.352
          94.16e-6 81.721 3.823e-3 89.617 0.997 -0.352 4.177e-3 -44.483
80 4.31e-3 -46.474 0.997 -0.376 4.078e-3 89.593 100.5e-6 81.226
          0.997 -0.376 4.31e-3 -46.474 100.5e-6 81.226 4.078e-3 89.593
          4.078e-3 89.593 100.5e-6 81.226 4.31e-3 -46.474 0.997 -0.376
          100.5e-6 81.226 4.078e-3 89.593 0.997 -0.376 4.31e-3 -46.474
85 4.455e-3 -48.13 0.997 -0.399 4.333e-3 89.569 107e-6 80.743
          0.997 -0.399 4.455e-3 -48.13 107e-6 80.743 4.333e-3 89.569
          4.333e-3 89.569 107e-6 80.743 4.455e-3 -48.13 0.997 -0.399
          107e-6 80.743 4.333e-3 89.569 0.997 -0.399 4.455e-3 -48.13
90 4.6e-3 -49.786 0.997 -0.423 4.588e-3 89.545 113.4e-6 80.259
          0.997 -0.423 4.6e-3 -49.786 113.4e-6 80.259 4.588e-3 89.545
          4.588e-3 89.545 113.4e-6 80.259 4.6e-3 -49.786 0.997 -0.423
          113.4e-6 80.259 4.588e-3 89.545 0.997 -0.423 4.6e-3 -49.786
95 4.746e-3 -51.427 0.997 -0.446 4.842e-3 89.521 119.8e-6 79.776
          0.997 -0.446 4.746e-3 -51.427 119.8e-6 79.776 4.842e-3 89.521
          4.842e-3 89.521 119.8e-6 79.776 4.746e-3 -51.427 0.997 -0.446
          119.8e-6 79.776 4.842e-3 89.521 0.997 -0.446 4.746e-3 -51.427
100 4.901e-3 -52.802 0.997 -0.47 5.097e-3 89.497 126.3e-6 79.299
          0.997 -0.47 4.901e-3 -52.802 126.3e-6 79.299 5.097e-3 89.497
          5.097e-3 89.497 126.3e-6 79.299 4.901e-3 -52.802 0.997 -0.47
          126.3e-6 79.299 5.097e-3 89.497 0.997 -0.47 4.901e-3 -52.802
105 5.056e-3 -54.177 0.997 -0.493 5.352e-3 89.473 132.8e-6 78.823
          0.997 -0.493 5.056e-3 -54.177 132.8e-6 78.823 5.352e-3 89.473
          5.352e-3 89.473 132.8e-6 78.823 5.056e-3 -54.177 0.997 -0.493
          132.8e-6 78.823 5.352e-3 89.473 0.997 -0.493 5.056e-3 -54.177
110 5.211e-3 -55.536 0.997 -0.517 5.607e-3 89.449 139.3e-6 78.347
          0.997 -0.517 5.211e-3 -55.536 139.3e-6 78.347 5.607e-3 89.449
          5.607e-3 89.449 139.3e-6 78.347 5.211e-3 -55.536 0.997 -0.517
          139.3e-6 78.347 5.607e-3 89.449 0.997 -0.517 5.211e-3 -55.536
115 5.373e-3 -56.685 0.997 -0.54 5.862e-3 89.426 145.8e-6 77.877
          0.997 -0.54 5.373e-3 -56.685 145.8e-6 77.877 5.862e-3 89.426
          5.862e-3 89.426 145.8e-6 77.877 5.373e-3 -56.685 0.997 -0.54
          145.8e-6 77.877 5.862e-3 89.426 0.997 -0.54 5.373e-3 -56.685
120 5.535e-3 -57.835 0.997 -0.564 6.117e-3 89.402 152.4e-6 77.406
          0.997 -0.564 5.535e-3 -57.835 152.4e-6 77.406 6.117e-3 89.402
          6.117e-3 89.402 152.4e-6 77.406 5.535e-3 -57.835 0.997 -0.564
          152.4e-6 77.406 6.117e-3 89.402 0.997 -0.564 5.535e-3 -57.835
125 5.698e-3 -58.969 0.997 -0.587 6.371e-3 89.378 159e-6 76.936
          0.997 -0.587 5.698e-3 -58.969 159e-6 76.936 6.371e-3 89.378
          6.371e-3 89.378 159e-6 76.936 5.698e-3 -58.969 0.997 -0.587
          159e-6 76.936 6.371e-3 89.378 0.997 -0.587 5.698e-3 -58.969
130 5.865e-3 -59.94 0.997 -0.611 6.626e-3 89.354 165.6e-6 76.471
          0.997 -0.611 5.865e-3 -59.94 165.6e-6 76.471 6.626e-3 89.354
          6.626e-3 89.354 165.6e-6 76.471 5.865e-3 -59.94 0.997 -0.611
          165.6e-6 76.471 6.626e-3 89.354 0.997 -0.611 5.865e-3 -59.94
135 6.033e-3 -60.91 0.997 -0.634 6.881e-3 89.33 172.3e-6 76.005
          0.997 -0.634 6.033e-3 -60.91 172.3e-6 76.005 6.881e-3 89.33
          6.881e-3 89.33 172.3e-6 76.005 6.033e-3 -60.91 0.997 -0.634
          172.3e-6 76.005 6.881e-3 89.33 0.997 -0.634 6.033e-3 -60.91
140 6.201e-3 -61.866 0.997 -0.657 7.136e-3 89.306 178.9e-6 75.541
          0.997 -0.657 6.201e-3 -61.866 178.9e-6 75.541 7.136e-3 89.306
          7.136e-3 89.306 178.9e-6 75.541 6.201e-3 -61.866 0.997 -0.657
          178.9e-6 75.541 7.136e-3 89.306 0.997 -0.657 6.201e-3 -61.866
145 6.373e-3 -62.694 0.997 -0.681 7.391e-3 89.282 185.7e-6 75.081
          0.997 -0.681 6.373e-3 -62.694 185.7e-6 75.081 7.391e-3 89.282
          7.391e-3 89.282 185.7e-6 75.081 6.373e-3 -62.694 0.997 -0.681
          185.7e-6 75.081 7.391e-3 89.282 0.997 -0.681 6.373e-3 -62.694
150 6.544e-3 -63.521 0.997 -0.704 7.645e-3 89.258 192.5e-6 74.621
          0.997 -0.704 6.544e-3 -63.521 192.5e-6 74.621 7.645e-3 89.258
          7.645e-3 89.258 192.5e-6 74.621 6.544e-3 -63.521 0.997 -0.704
          192.5e-6 74.621 7.645e-3 89.258 0.997 -0.704 6.544e-3 -63.521
155 6.716e-3 -64.334 0.997 -0.728 7.9e-3 89.234 199.2e-6 74.161
          0.997 -0.728 6.716e-3 -64.334 199.2e-6 74.161 7.9e-3 89.234
          7.9e-3 89.234 199.2e-6 74.161 6.716e-3 -64.334 0.997 -0.728
          199.2e-6 74.161 7.9e-3 89.234 0.997 -0.728 6.716e-3 -64.334
160 6.892e-3 -65.047 0.997 -0.752 8.155e-3 89.21 206.1e-6 73.706
          0.997 -0.752 6.892e-3 -65.047 206.1e-6 73.706 8.155e-3 89.21
          8.155e-3 89.21 206.1e-6 73.706 6.892e-3 -65.047 0.997 -0.752
          206.1e-6 73.706 8.155e-3 89.21 0.997 -0.752 6.892e-3 -65.047
165 7.067e-3 -65.759 0.997 -0.776 8.41e-3 89.186 212.9e-6 73.251
          0.997 -0.776 7.067e-3 -65.759 212.9e-6 73.251 8.41e-3 89.186
          8.41e-3 89.186 212.9e-6 73.251 7.067e-3 -65.759 0.997 -0.776
          212.9e-6 73.251 8.41e-3 89.186 0.997 -0.776 7.067e-3 -65.759
170 7.242e-3 -66.458 0.997 -0.799 8.665e-3 89.163 219.8e-6 72.797
          0.997 -0.799 7.242e-3 -66.458 219.8e-6 72.797 8.665e-3 89.163
          8.665e-3 89.163 219.8e-6 72.797 7.242e-3 -66.458 0.997 -0.799
          219.8e-6 72.797 8.665e-3 89.163 0.997 -0.799 7.242e-3 -66.458
175 7.42e-3 -67.076 0.997 -0.823 8.92e-3 89.139 226.7e-6 72.348
          0.997 -0.823 7.42e-3 -67.076 226.7e-6 72.348 8.92e-3 89.139
          8.92e-3 89.139 226.7e-6 72.348 7.42e-3 -67.076 0.997 -0.823
          226.7e-6 72.348 8.92e-3 89.139 0.997 -0.823 7.42e-3 -67.076
180 7.598e-3 -67.695 0.997 -0.846 9.174e-3 89.116 233.7e-6 71.898
          0.997 -0.846 7.598e-3 -67.695 233.7e-6 71.898 9.174e-3 89.116
          9.174e-3 89.116 233.7e-6 71.898 7.598e-3 -67.695 0.997 -0.846
          233.7e-6 71.898 9.174e-3 89.116 0.997 -0.846 7.598e-3 -67.695
185 7.776e-3 -68.302 0.997 -0.87 9.421e-3 89.092 240.6e-6 71.45
          0.997 -0.87 7.776e-3 -68.302 240.6e-6 71.45 9.421e-3 89.092
          9.421e-3 89.092 240.6e-6 71.45 7.776e-3 -68.302 0.997 -0.87
          240.6e-6 71.45 9.421e-3 89.092 0.997 -0.87 7.776e-3 -68.302
190 7.956e-3 -68.843 0.997 -0.893 9.626e-3 89.068 247.7e-6 71.006
          0.997 -0.893 7.956e-3 -68.843 247.7e-6 71.006 9.626e-3 89.068
          9.626e-3 89.068 247.7e-6 71.006 7.956e-3 -68.843 0.997 -0.893
          247.7e-6 71.006 9.626e-3 89.068 0.997 -0.893 7.956e-3 -68.843
195 8.136e-3 -69.385 0.997 -0.917 9.831e-3 89.045 254.8e-6 70.561
          0.997 -0.917 8.136e-3 -69.385 254.8e-6 70.561 9.831e-3 89.045
          9.831e-3 89.045 254.8e-6 70.561 8.136e-3 -69.385 0.997 -0.917
          254.8e-6 70.561 9.831e-3 89.045 0.997 -0.917 8.136e-3 -69.385
200 8.316e-3 -69.916 0.997 -0.94 0.01 89.021 261.9e-6 70.118
          0.997 -0.94 8.316e-3 -69.916 261.9e-6 70.118 0.01 89.021
          0.01 89.021 261.9e-6 70.118 8.316e-3 -69.916 0.997 -0.94
          261.9e-6 70.118 0.01 89.021 0.997 -0.94 8.316e-3 -69.916
205 8.498e-3 -70.394 0.997 -0.964 0.01 88.997 269.1e-6 69.68
          0.997 -0.964 8.498e-3 -70.394 269.1e-6 69.68 0.01 88.997
          0.01 88.997 269.1e-6 69.68 8.498e-3 -70.394 0.997 -0.964
          269.1e-6 69.68 0.01 88.997 0.997 -0.964 8.498e-3 -70.394
210 8.679e-3 -70.873 0.997 -0.987 0.011 88.973 276.3e-6 69.242
          0.997 -0.987 8.679e-3 -70.873 276.3e-6 69.242 0.011 88.973
          0.011 88.973 276.3e-6 69.242 8.679e-3 -70.873 0.997 -0.987
          276.3e-6 69.242 0.011 88.973 0.997 -0.987 8.679e-3 -70.873
215 8.861e-3 -71.341 0.997 -1.011 0.011 88.949 283.5e-6 68.804
          0.997 -1.011 8.861e-3 -71.341 283.5e-6 68.804 0.011 88.949
          0.011 88.949 283.5e-6 68.804 8.861e-3 -71.341 0.997 -1.011
          283.5e-6 68.804 0.011 88.949 0.997 -1.011 8.861e-3 -71.341
220 9.045e-3 -71.767 0.997 -1.034 0.011 88.926 290.9e-6 68.372
          0.997 -1.034 9.045e-3 -71.767 290.9e-6 68.372 0.011 88.926
          0.011 88.926 290.9e-6 68.372 9.045e-3 -71.767 0.997 -1.034
          290.9e-6 68.372 0.011 88.926 0.997 -1.034 9.045e-3 -71.767
225 9.228e-3 -72.193 0.997 -1.057 0.012 88.902 298.2e-6 67.939
          0.997 -1.057 9.228e-3 -72.193 298.2e-6 67.939 0.012 88.902
          0.012 88.902 298.2e-6 67.939 9.228e-3 -72.193 0.997 -1.057
          298.2e-6 67.939 0.012 88.902 0.997 -1.057 9.228e-3 -72.193
230 9.412e-3 -72.609 0.997 -1.081 0.012 88.878 305.6e-6 67.507
          0.997 -1.081 9.412e-3 -72.609 305.6e-6 67.507 0.012 88.878
          0.012 88.878 305.6e-6 67.507 9.412e-3 -72.609 0.997 -1.081
          305.6e-6 67.507 0.012 88.878 0.997 -1.081 9.412e-3 -72.609
235 9.596e-3 -72.991 0.997 -1.104 0.012 88.854 313.1e-6 67.081
          0.997 -1.104 9.596e-3 -72.991 313.1e-6 67.081 0.012 88.854
          0.012 88.854 313.1e-6 67.081 9.596e-3 -72.991 0.997 -1.104
          313.1e-6 67.081 0.012 88.854 0.997 -1.104 9.596e-3 -72.991
240 9.78e-3 -73.372 0.997 -1.128 0.012 88.83 320.5e-6 66.654
          0.997 -1.128 9.78e-3 -73.372 320.5e-6 66.654 0.012 88.83
          0.012 88.83 320.5e-6 66.654 9.78e-3 -73.372 0.997 -1.128
          320.5e-6 66.654 0.012 88.83 0.997 -1.128 9.78e-3 -73.372
245 9.928e-3 -73.745 0.997 -1.151 0.012 88.807 328e-6 66.229
          0.997 -1.151 9.928e-3 -73.745 328e-6 66.229 0.012 88.807
          0.012 88.807 328e-6 66.229 9.928e-3 -73.745 0.997 -1.151
          328e-6 66.229 0.012 88.807 0.997 -1.151 9.928e-3 -73.745
250 9.954e-3 -74.089 0.997 -1.175 0.012 88.783 335.7e-6 65.809
          0.997 -1.175 9.954e-3 -74.089 335.7e-6 65.809 0.012 88.783
          0.012 88.783 335.7e-6 65.809 9.954e-3 -74.089 0.997 -1.175
          335.7e-6 65.809 0.012 88.783 0.997 -1.175 9.954e-3 -74.089
255 9.98e-3 -74.433 0.997 -1.198 0.013 88.759 343.3e-6 65.388
          0.997 -1.198 9.98e-3 -74.433 343.3e-6 65.388 0.013 88.759
          0.013 88.759 343.3e-6 65.388 9.98e-3 -74.433 0.997 -1.198
          343.3e-6 65.388 0.013 88.759 0.997 -1.198 9.98e-3 -74.433
260 0.01 -74.769 0.997 -1.222 0.013 88.735 351e-6 64.969
          0.997 -1.222 0.01 -74.769 351e-6 64.969 0.013 88.735
          0.013 88.735 351e-6 64.969 0.01 -74.769 0.997 -1.222
          351e-6 64.969 0.013 88.735 0.997 -1.222 0.01 -74.769
265 0.01 -75.08 0.997 -1.245 0.013 88.711 358.8e-6 64.555
          0.997 -1.245 0.01 -75.08 358.8e-6 64.555 0.013 88.711
          0.013 88.711 358.8e-6 64.555 0.01 -75.08 0.997 -1.245
          358.8e-6 64.555 0.013 88.711 0.997 -1.245 0.01 -75.08
270 0.011 -75.391 0.997 -1.269 0.014 88.688 366.6e-6 64.14
          0.997 -1.269 0.011 -75.391 366.6e-6 64.14 0.014 88.688
          0.014 88.688 366.6e-6 64.14 0.011 -75.391 0.997 -1.269
          366.6e-6 64.14 0.014 88.688 0.997 -1.269 0.011 -75.391
275 0.011 -75.696 0.997 -1.292 0.014 88.664 374.4e-6 63.728
          0.997 -1.292 0.011 -75.696 374.4e-6 63.728 0.014 88.664
          0.014 88.664 374.4e-6 63.728 0.011 -75.696 0.997 -1.292
          374.4e-6 63.728 0.014 88.664 0.997 -1.292 0.011 -75.696
280 0.011 -75.98 0.997 -1.316 0.014 88.64 382.3e-6 63.32
          0.997 -1.316 0.011 -75.98 382.3e-6 63.32 0.014 88.64
          0.014 88.64 382.3e-6 63.32 0.011 -75.98 0.997 -1.316
          382.3e-6 63.32 0.014 88.64 0.997 -1.316 0.011 -75.98
285 0.012 -76.264 0.997 -1.339 0.015 88.616 390.3e-6 62.912
          0.997 -1.339 0.012 -76.264 390.3e-6 62.912 0.015 88.616
          0.015 88.616 390.3e-6 62.912 0.012 -76.264 0.997 -1.339
          390.3e-6 62.912 0.015 88.616 0.997 -1.339 0.012 -76.264
290 0.012 -76.541 0.997 -1.363 0.015 88.592 398.3e-6 62.506
          0.997 -1.363 0.012 -76.541 398.3e-6 62.506 0.015 88.592
          0.015 88.592 398.3e-6 62.506 0.012 -76.541 0.997 -1.363
          398.3e-6 62.506 0.015 88.592 0.997 -1.363 0.012 -76.541
295 0.012 -76.801 0.997 -1.386 0.015 88.569 406.4e-6 62.105
          0.997 -1.386 0.012 -76.801 406.4e-6 62.105 0.015 88.569
          0.015 88.569 406.4e-6 62.105 0.012 -76.801 0.997 -1.386
          406.4e-6 62.105 0.015 88.569 0.997 -1.386 0.012 -76.801
300 0.012 -77.061 0.997 -1.41 0.015 88.545 414.5e-6 61.704
          0.997 -1.41 0.012 -77.061 414.5e-6 61.704 0.015 88.545
          0.015 88.545 414.5e-6 61.704 0.012 -77.061 0.997 -1.41
          414.5e-6 61.704 0.015 88.545 0.997 -1.41 0.012 -77.061
305 0.012 -77.314 0.997 -1.433 0.015 88.521 422.7e-6 61.304
          0.997 -1.433 0.012 -77.314 422.7e-6 61.304 0.015 88.521
          0.015 88.521 422.7e-6 61.304 0.012 -77.314 0.997 -1.433
          422.7e-6 61.304 0.015 88.521 0.997 -1.433 0.012 -77.314
310 0.012 -77.553 0.997 -1.456 0.015 88.497 431e-6 60.909
          0.997 -1.456 0.012 -77.553 431e-6 60.909 0.015 88.497
          0.015 88.497 431e-6 60.909 0.012 -77.553 0.997 -1.456
          431e-6 60.909 0.015 88.497 0.997 -1.456 0.012 -77.553
315 0.013 -77.792 0.997 -1.48 0.016 88.473 439.2e-6 60.514
          0.997 -1.48 0.013 -77.792 439.2e-6 60.514 0.016 88.473
          0.016 88.473 439.2e-6 60.514 0.013 -77.792 0.997 -1.48
          439.2e-6 60.514 0.016 88.473 0.997 -1.48 0.013 -77.792
320 0.013 -78.026 0.997 -1.503 0.016 88.45 447.6e-6 60.121
          0.997 -1.503 0.013 -78.026 447.6e-6 60.121 0.016 88.45
          0.016 88.45 447.6e-6 60.121 0.013 -78.026 0.997 -1.503
          447.6e-6 60.121 0.016 88.45 0.997 -1.503 0.013 -78.026
325 0.013 -78.247 0.997 -1.527 0.016 88.426 456.1e-6 59.733
          0.997 -1.527 0.013 -78.247 456.1e-6 59.733 0.016 88.426
          0.016 88.426 456.1e-6 59.733 0.013 -78.247 0.997 -1.527
          456.1e-6 59.733 0.016 88.426 0.997 -1.527 0.013 -78.247
330 0.013 -78.468 0.997 -1.55 0.017 88.403 464.5e-6 59.345
          0.997 -1.55 0.013 -78.468 464.5e-6 59.345 0.017 88.403
          0.017 88.403 464.5e-6 59.345 0.013 -78.468 0.997 -1.55
          464.5e-6 59.345 0.017 88.403 0.997 -1.55 0.013 -78.468
335 0.013 -78.683 0.997 -1.574 0.017 88.379 473.1e-6 58.959
          0.997 -1.574 0.013 -78.683 473.1e-6 58.959 0.017 88.379
          0.017 88.379 473.1e-6 58.959 0.013 -78.683 0.997 -1.574
          473.1e-6 58.959 0.017 88.379 0.997 -1.574 0.013 -78.683
340 0.013 -78.888 0.997 -1.597 0.017 88.355 481.7e-6 58.577
          0.997 -1.597 0.013 -78.888 481.7e-6 58.577 0.017 88.355
          0.017 88.355 481.7e-6 58.577 0.013 -78.888 0.997 -1.597
          481.7e-6 58.577 0.017 88.355 0.997 -1.597 0.013 -78.888
345 0.014 -79.093 0.997 -1.621 0.018 88.331 490.4e-6 58.196
          0.997 -1.621 0.014 -79.093 490.4e-6 58.196 0.018 88.331
          0.018 88.331 490.4e-6 58.196 0.014 -79.093 0.997 -1.621
          490.4e-6 58.196 0.018 88.331 0.997 -1.621 0.014 -79.093
350 0.014 -79.293 0.997 -1.644 0.018 88.308 499.1e-6 57.816
          0.997 -1.644 0.014 -79.293 499.1e-6 57.816 0.018 88.308
          0.018 88.308 499.1e-6 57.816 0.014 -79.293 0.997 -1.644
          499.1e-6 57.816 0.018 88.308 0.997 -1.644 0.014 -79.293
355 0.014 -79.484 0.997 -1.668 0.018 88.284 507.9e-6 57.441
          0.997 -1.668 0.014 -79.484 507.9e-6 57.441 0.018 88.284
          0.018 88.284 507.9e-6 57.441 0.014 -79.484 0.997 -1.668
          507.9e-6 57.441 0.018 88.284 0.997 -1.668 0.014 -79.484
360 0.014 -79.674 0.997 -1.691 0.019 88.26 516.7e-6 57.066
          0.997 -1.691 0.014 -79.674 516.7e-6 57.066 0.019 88.26
          0.019 88.26 516.7e-6 57.066 0.014 -79.674 0.997 -1.691
          516.7e-6 57.066 0.019 88.26 0.997 -1.691 0.014 -79.674
365 0.014 -79.861 0.997 -1.715 0.019 88.236 525.6e-6 56.693
          0.997 -1.715 0.014 -79.861 525.6e-6 56.693 0.019 88.236
          0.019 88.236 525.6e-6 56.693 0.014 -79.861 0.997 -1.715
          525.6e-6 56.693 0.019 88.236 0.997 -1.715 0.014 -79.861
370 0.014 -80.039 0.997 -1.738 0.019 88.212 534.7e-6 56.325
          0.997 -1.738 0.014 -80.039 534.7e-6 56.325 0.019 88.212
          0.019 88.212 534.7e-6 56.325 0.014 -80.039 0.997 -1.738
          534.7e-6 56.325 0.019 88.212 0.997 -1.738 0.014 -80.039
375 0.015 -80.217 0.997 -1.762 0.019 88.189 543.7e-6 55.956
          0.997 -1.762 0.015 -80.217 543.7e-6 55.956 0.019 88.189
          0.019 88.189 543.7e-6 55.956 0.015 -80.217 0.997 -1.762
          543.7e-6 55.956 0.019 88.189 0.997 -1.762 0.015 -80.217
380 0.015 -80.39 0.997 -1.785 0.019 88.165 552.9e-6 55.59
          0.997 -1.785 0.015 -80.39 552.9e-6 55.59 0.019 88.165
          0.019 88.165 552.9e-6 55.59 0.015 -80.39 0.997 -1.785
          552.9e-6 55.59 0.019 88.165 0.997 -1.785 0.015 -80.39
385 0.015 -80.557 0.997 -1.809 0.019 88.141 562.1e-6 55.229
          0.997 -1.809 0.015 -80.557 562.1e-6 55.229 0.019 88.141
          0.019 88.141 562.1e-6 55.229 0.015 -80.557 0.997 -1.809
          562.1e-6 55.229 0.019 88.141 0.997 -1.809 0.015 -80.557
390 0.016 -80.724 0.997 -1.832 0.02 88.117 571.3e-6 54.867
          0.997 -1.832 0.016 -80.724 571.3e-6 54.867 0.02 88.117
          0.02 88.117 571.3e-6 54.867 0.016 -80.724 0.997 -1.832
          571.3e-6 54.867 0.02 88.117 0.997 -1.832 0.016 -80.724
395 0.016 -80.886 0.997 -1.855 0.02 88.093 580.6e-6 54.508
          0.997 -1.855 0.016 -80.886 580.6e-6 54.508 0.02 88.093
          0.02 88.093 580.6e-6 54.508 0.016 -80.886 0.997 -1.855
          580.6e-6 54.508 0.02 88.093 0.997 -1.855 0.016 -80.886
400 0.016 -81.043 0.997 -1.879 0.02 88.07 590.1e-6 54.153
          0.997 -1.879 0.016 -81.043 590.1e-6 54.153 0.02 88.07
          0.02 88.07 590.1e-6 54.153 0.016 -81.043 0.997 -1.879
          590.1e-6 54.153 0.02 88.07 0.997 -1.879 0.016 -81.043
405 0.016 -81.2 0.997 -1.902 0.021 88.046 599.5e-6 53.798
          0.997 -1.902 0.016 -81.2 599.5e-6 53.798 0.021 88.046
          0.021 88.046 599.5e-6 53.798 0.016 -81.2 0.997 -1.902
          599.5e-6 53.798 0.021 88.046 0.997 -1.902 0.016 -81.2
410 0.016 -81.353 0.997 -1.926 0.021 88.022 609.1e-6 53.445
          0.997 -1.926 0.016 -81.353 609.1e-6 53.445 0.021 88.022
          0.021 88.022 609.1e-6 53.445 0.016 -81.353 0.997 -1.926
          609.1e-6 53.445 0.021 88.022 0.997 -1.926 0.016 -81.353
415 0.016 -81.501 0.997 -1.949 0.021 87.999 618.7e-6 53.096
          0.997 -1.949 0.016 -81.501 618.7e-6 53.096 0.021 87.999
          0.021 87.999 618.7e-6 53.096 0.016 -81.501 0.997 -1.949
          618.7e-6 53.096 0.021 87.999 0.997 -1.949 0.016 -81.501
