!	AVX THIN FILM OPERATION
!
!	CP0402 WIDEBAND HIGH DIRECTIVITY  COUPLER
!
!	P/N CP0402W2700FNTR
!
! 	3 April 2012
# hz S ma R 50
! 3 Port Network Data from data block
! freq  magS11  angS11  magS12  angS12  magS13  angS13  
!       magS21  angS21  
!       magS22  angS22  magS23  angS23  
!       magS31  angS31  magS32  angS32  
!       magS33  angS33  
!     
         500000000       0.012953483         10.6823127        0.986373837        -3.55105764       0.0380635133         65.9898259
                      0.986373837        -3.55105764       0.0127235164         9.74304953      0.00406628669         71.9059211
                     0.0380635133         65.9898259      0.00406628669         71.9059211       0.0261374798        -91.0608143

         512500000      0.0130434277         10.6439949        0.986236314        -3.63700556        0.038910518         65.4076134
                      0.986236314        -3.63700556       0.0128007853         9.69411338      0.00415906816         71.4461217
                      0.038910518         65.4076134      0.00415906816         71.4461217       0.0263385226        -92.4726295

         525000000      0.0131318801         10.5949971        0.986100815        -3.72280333       0.0397511389         64.8274147
                      0.986100815        -3.72280333       0.0128776615          9.6352373      0.00425107831         70.9845434
                     0.0397511389         64.8274147      0.00425107831         70.9845434       0.0265270636        -93.8563869

         537500000      0.0132198297         10.5347246        0.985957351        -3.80848913       0.0405846967         64.2481646
                      0.985957351        -3.80848913       0.0129531659         9.56732801      0.00434233261         70.5251994
                     0.0405846967         64.2481646      0.00434233261         70.5251994       0.0267014464        -95.2130983

         550000000      0.0133063198         10.4645995        0.985825866        -3.89398625       0.0414100916         63.6700833
                      0.985825866        -3.89398625       0.0130283089         9.49022972      0.00443291318         70.0652603
                     0.0414100916         63.6700833      0.00443291318         70.0652603       0.0268629797        -96.5432026

         562500000      0.0133913771         10.3852105        0.985686392        -3.97937237       0.0422284472         63.0933287
                      0.985686392        -3.97937237        0.013102129         9.40524004      0.00452258165         69.6060221
                     0.0422284472         63.0933287      0.00452258165         69.6060221       0.0270099684        -97.8478062

         575000000      0.0134759948         10.2959478        0.985538991        -4.06470769        0.043038639         62.5180565
                      0.985538991        -4.06470769       0.0131746185         9.31203676      0.00461144778         69.1475877
                      0.043038639         62.5180565      0.00461144778         69.1475877       0.0271436267        -99.1265442

         587500000      0.0135582512         10.1993156        0.985403535         -4.1498523       0.0438417666         61.9444256
                      0.985403535         -4.1498523       0.0132468221         9.21131502      0.00469956373         68.6885144
                     0.0438417666         61.9444256      0.00469956373         68.6885144       0.0272622363        -100.380865

         600000000       0.013640125         10.0939241         0.98526006         -4.2348891       0.0446366822         61.3725349
                       0.98526006         -4.2348891       0.0133177306         9.10302148      0.00478678089         68.2303751
                     0.0446366822         61.3725349      0.00478678089         68.2303751       0.0273669711        -101.610486

         612500000      0.0137206606         9.98105611        0.985118606        -4.31983449       0.0454232033         60.8002146
                      0.985118606        -4.31983449       0.0133873703         8.98766749      0.00487311446         67.7728396
                     0.0454232033         60.8002146      0.00487311446         67.7728396       0.0274570158         -102.81592

         625000000      0.0137989187         9.86233866        0.984979087        -4.40463009       0.0462023227         60.2305081
                      0.984979087        -4.40463009       0.0134557826         8.86617118      0.00495861863         67.3145394
                     0.0462023227         60.2305081      0.00495861863         67.3145394       0.0275315831        -103.998085

         637500000      0.0138768462          9.7356013        0.984831522        -4.48932108       0.0469733516         59.6623482
                      0.984831522        -4.48932108       0.0135239661         8.73794862      0.00504319371         66.8583953
                     0.0469733516         59.6623482      0.00504319371         66.8583953       0.0275917339        -105.156206

         650000000      0.0139525351         9.60355345         0.98468595        -4.57392126        0.047735627         59.0947035
                       0.98468595        -4.57392126       0.0135899398         8.60393858       0.0051268401         66.4015302
                      0.047735627         59.0947035       0.0051268401         66.4015302        0.027636624        -106.290971

         662500000      0.0140279683          9.4648738        0.984542364        -4.65843027       0.0484905495         58.5294332
                      0.984542364        -4.65843027       0.0136557369         8.46416918       0.0052096261         65.9451612
                     0.0484905495         58.5294332       0.0052096261         65.9451612       0.0276663278        -107.402256

         675000000      0.0141012014         9.32137757        0.984400671        -4.74278973       0.0492365902         57.9648894
                      0.984400671        -4.74278973       0.0137193604         8.31909919      0.00529143423         65.4895521
                     0.0492365902         57.9648894      0.00529143423         65.4895521       0.0276800305        -108.491045

         687500000      0.0141732318         9.17242743         0.98425098        -4.82710627       0.0499734142         57.4016544
                       0.98425098        -4.82710627       0.0137818396         8.16896496      0.00537223648         65.0353598
                     0.0499734142         57.4016544      0.00537223648         65.0353598       0.0276786758        -109.556157

         700000000      0.0142440872         9.01846483        0.984103165        -4.91127426       0.0507020445         56.8399318
                      0.984103165        -4.91127426       0.0138441894         8.01362983      0.00545208827         64.5812943
                     0.0507020445         56.8399318      0.00545208827         64.5812943       0.0276623782        -110.597839

         720833333      0.0143591857         8.75174423        0.983861175        -5.05137782       0.0518979264         55.9066677
                      0.983861175        -5.05137782        0.013944206         7.74506883      0.00558301008         63.8255218
                     0.0518979264         55.9066677      0.00558301008         63.8255218       0.0275999411        -112.282124

         741666667      0.0144699705         8.47398613        0.983614569        -5.19125412       0.0530686218         54.9787917
                      0.983614569        -5.19125412       0.0140409909         7.46453512      0.00571098721         63.0724215
                     0.0530686218         54.9787917      0.00571098721         63.0724215       0.0274935596        -113.900492

         762500000      0.0145775223         8.18579806        0.983373271        -5.33085167       0.0542140455         54.0538239
                      0.983373271        -5.33085167       0.0141346188         7.17288144      0.00583616705         62.3210192
                     0.0542140455         54.0538239      0.00583616705         62.3210192        0.027345109        -115.452715

         783333333      0.0146819165         7.88798618        0.983117332        -5.47027994       0.0553354001         53.1330016
                      0.983117332        -5.47027994       0.0142241818         6.87180878      0.00595824378         61.5725026
                     0.0553354001         53.1330016      0.00595824378         61.5725026       0.0271535866        -116.934964

         804166667      0.0147812437         7.58234818        0.982866631        -5.60943192       0.0564293712         52.2166513
                      0.982866631        -5.60943192       0.0143107291         6.56117088      0.00607744589         60.8263561
                     0.0564293712         52.2166513      0.00607744589         60.8263561       0.0269200741        -118.347172

         825000000      0.0148775794         7.26927474         0.98262133        -5.74842201       0.0574989734         51.3048656
                       0.98262133        -5.74842201       0.0143943398         6.24212455      0.00619336749         60.0831136
                     0.0574989734         51.3048656      0.00619336749         60.0831136       0.0266441652        -119.682468

         845833333      0.0149699836         6.94955669        0.982371047        -5.88707639       0.0585413883         50.3970598
                      0.982371047        -5.88707639       0.0144740726          5.9154146      0.00630626516         59.3435133
                     0.0585413883         50.3970598      0.00630626516         59.3435133       0.0263277787         -120.94211

         866666667      0.0150595103         6.62337432        0.982115525         -6.0252817       0.0595581219         49.4935551
                      0.982115525         -6.0252817        0.014550993         5.58168938      0.00641582263         58.6063337
                     0.0595581219         49.4935551      0.00641582263         58.6063337       0.0259716937        -122.117395

         887500000      0.0151442533         6.29298041        0.981866794        -6.16413831       0.0605471166          48.595618
                      0.981866794        -6.16413831       0.0146241535         5.24160519      0.00652223462         57.8730984
                     0.0605471166          48.595618      0.00652223462         57.8730984       0.0255764745        -123.206059

         908333333      0.0152262301         5.95734266        0.981611698        -6.30196822       0.0615095427         47.7008714
                      0.981611698        -6.30196822       0.0146935995         4.89537383      0.00662520856         57.1437029
                     0.0615095427         47.7008714      0.00662520856         57.1437029       0.0251452812        -124.200704

         929166667      0.0153045178         5.61820969        0.981353469        -6.44051464       0.0624440192         46.8124255
                      0.981353469        -6.44051464       0.0147603882         4.54366284      0.00672480883         56.4179235
                     0.0624440192         46.8124255      0.00672480883         56.4179235       0.0246774355        -125.095303

         950000000      0.0153781641         5.27646443        0.981098691        -6.57797288       0.0633516415         45.9279748
                      0.981098691        -6.57797288       0.0148235633          4.1870128      0.00682098394         55.6969712
                     0.0633516415         45.9279748      0.00682098394         55.6969712       0.0241762173        -125.878746

         970833334      0.0154491914         4.93155663        0.980850732        -6.71608187       0.0642307741         45.0479378
                      0.980850732        -6.71608187       0.0148841584          3.8251879      0.00691384308          54.979941
                     0.0642307741         45.0479378      0.00691384308          54.979941       0.0236443741        -126.547606

         991666667      0.0155166422         4.58437467        0.980586231        -6.85323912       0.0650817915         44.1745198
                      0.980586231        -6.85323912       0.0149422208         3.45896911      0.00700310039         54.2677311
                     0.0650817915         44.1745198      0.00700310039         54.2677311       0.0230841639        -127.085835

       1.0125e+009      0.0155805579         4.23579716        0.980328569        -6.99104971       0.0659057146         43.3055565
                      0.980328569        -6.99104971       0.0149957884         3.08900134      0.00708874023         53.5607498
                     0.0659057146         43.3055565      0.00708874023         53.5607498       0.0224974973        -127.485207

   1.03333333e+009      0.0156409666         3.88632347        0.980075341        -7.12835187       0.0667006406         42.4425876
                      0.980075341        -7.12835187       0.0150468909         2.71507435      0.00717094051         52.8586013
                     0.0667006406         42.4425876      0.00717094051         52.8586013       0.0218892486        -127.726909

   1.05416667e+009      0.0156968932         3.53659806         0.97980664        -7.26529206        0.067467501         41.5847359
                       0.97980664        -7.26529206       0.0150955606         2.33748542      0.00724953505         52.1618931
                      0.067467501         41.5847359      0.00724953505         52.1618931        0.021263412        -127.801721

        1.075e+009      0.0157503561         3.18677962        0.979554744        -7.40281128       0.0682057174         40.7323189
                      0.979554744        -7.40281128        0.015140828         1.95665549      0.00732456867         51.4715198
                     0.0682057174         40.7323189      0.00732456867         51.4715198       0.0206244842        -127.684448

   1.09583333e+009      0.0157993756         2.83784851        0.979286042        -7.53939396       0.0689152788         39.8862596
                      0.979286042        -7.53939396        0.015183719         1.57261533      0.00739592149         50.7873939
                     0.0689152788         39.8862596      0.00739592149         50.7873939        0.019976937        -127.362069

   1.11666667e+009      0.0158459611          2.4899707        0.979024244        -7.67663083       0.0695969803         39.0457789
                      0.979024244        -7.67663083       0.0152242591         1.18557221        0.007463675         50.1087209
                     0.0695969803         39.0457789        0.007463675         50.1087209       0.0193270093        -126.813571

       1.1375e+009      0.0158891219          2.1438919        0.978756799        -7.81343996       0.0702498814         38.2123344
                      0.978756799        -7.81343996       0.0152614721        0.795819486      0.00752779227         49.4370111
                     0.0702498814         38.2123344      0.00752779227         49.4370111       0.0186834952        -126.011816

   1.15833333e+009      0.0159278627         1.80037337        0.978493555        -7.94974317       0.0708732645         37.3850335
                      0.978493555        -7.94974317       0.0152953791         0.40340507      0.00758827989         48.7720963
                     0.0708732645         37.3850335      0.00758827989         48.7720963       0.0180522753        -124.936637

   1.17916667e+009      0.0159641806         1.45970508        0.978227357        -8.08678125       0.0714690156         36.5644535
                      0.978227357        -8.08678125       0.0153270002      0.00844203418      0.00764514153         48.1138373
                     0.0714690156         36.5644535      0.00764514153         48.1138373       0.0174440339        -123.561438

          1.2e+009      0.0159960706         1.12266442        0.977963898        -8.22273345       0.0720363654          35.749782
                      0.977963898        -8.22273345       0.0153563539       -0.388968042      0.00769838408         47.4631729
                     0.0720363654          35.749782      0.00769838408         47.4631729       0.0168675824        -121.868488

   1.22083333e+009      0.0160255224        0.789769294        0.977697507        -8.35942315       0.0725754551         34.9426081
                      0.977697507        -8.35942315       0.0153834576       -0.788726295      0.00774807354         46.8205013
                     0.0725754551         34.9426081      0.00774807354         46.8205013       0.0163347274        -119.840291

   1.24166667e+009       0.016052521        0.461618666        0.977425317        -8.49569343       0.0730859735         34.1427588
                      0.977425317        -8.49569343       0.0154073272        -1.19075055      0.00779412574         46.1852393
                     0.0730859735         34.1427588      0.00779412574         46.1852393       0.0158585462        -117.466354

       1.2625e+009      0.0160750472        0.138888975        0.977157158        -8.63145914       0.0735692474         33.3492168
                      0.977157158        -8.63145914       0.0154289778        -1.59497609      0.00783652946         45.5583603
                     0.0735692474         33.3492168      0.00783652946         45.5583603       0.0154523667        -114.749658

   1.28333333e+009      0.0160950775       -0.177842396        0.976886129        -8.76796769       0.0740243367         32.5640377
                      0.976886129        -8.76796769       0.0154484233        -2.00132785      0.00787554754         44.9398116
                     0.0740243367         32.5640377      0.00787554754         44.9398116       0.0151282833        -111.712092

   1.30416667e+009      0.0161125843       -0.487955362        0.976609221        -8.90406242       0.0744516135         31.7866819
                      0.976609221        -8.90406242       0.0154656767        -2.40976931      0.00791094424         44.3301201
                     0.0744516135         31.7866819      0.00791094424         44.3301201       0.0149008785        -108.388865

        1.325e+009      0.0161265362       -0.790862486        0.976336256        -9.03965404       0.0748519622         31.0173165
                      0.976336256        -9.03965404       0.0154807493        -2.82019141      0.00794290541         43.7288058
                     0.0748519622         31.0173165      0.00794290541         43.7288058       0.0147820094        -104.839286

   1.34583333e+009      0.0161378985        -1.08595077        0.976058889        -9.17541433       0.0752252088         30.2548472
                      0.976058889        -9.17541433       0.0154936534        -3.23263444      0.00797139798         43.1369537
                     0.0752252088         30.2548472      0.00797139798         43.1369537       0.0147795909        -101.142291

   1.36666667e+009      0.0161476336        -1.37262841        0.975787005        -9.31125104       0.0755723184         29.5012282
                      0.975787005        -9.31125104       0.0155034013        -3.64730101      0.00799646001         42.5541541
                     0.0755723184         29.5012282      0.00799646001         42.5541541       0.0149016635        -97.3865516

       1.3875e+009      0.0161547009        -1.65032754        0.975510745        -9.44725911       0.0758926427          28.756451
                      0.975510745        -9.44725911       0.0155120015        -4.06382704      0.00801818901         41.9815824
                     0.0758926427          28.756451      0.00801818901         41.9815824       0.0151500295        -93.6676874

