!	AVX THIN FILM OPERATION
!
!	CP0402 HIGH DIRECTIVITY TIGHT TOLERANCE COUPLERS
!	P/N CP0402PxxxxJNTR
!
!	Network	Analyzer HP8720ES.07.64:Feb23,2000 Serial No.US39172382
!	Hewlett-Packard								
!
!	23 January 2008		

# MHZ S MA R 50

40	6.06E-03	10.085	0.994	-0.158	1.00E-03	89.784	5.85E-05	89.838
	0.994	-0.158	6.06E-03	10.085	5.85E-05	89.838	1.00E-03	89.784
	1.00E-03	89.784	5.85E-05	89.838	6.06E-03	10.085	0.994	-0.158
	5.85E-05	89.838	1.00E-03	89.784	0.994	-0.158	6.06E-03	10.085
43.96	6.08E-03	11.059	0.994	-0.173	1.10E-03	89.769	6.43E-05	89.928
	0.994	-0.173	6.08E-03	11.059	6.43E-05	89.928	1.10E-03	89.769
	1.10E-03	89.769	6.43E-05	89.928	6.08E-03	11.059	0.994	-0.173
	6.43E-05	89.928	1.10E-03	89.769	0.994	-0.173	6.08E-03	11.059
47.92	6.10E-03	12.026	0.994	-0.189	1.20E-03	89.754	7.00E-05	90.018
	0.994	-0.189	6.10E-03	12.026	7.00E-05	90.018	1.20E-03	89.754
	1.20E-03	89.754	7.00E-05	90.018	6.10E-03	12.026	0.994	-0.189
	7.00E-05	90.018	1.20E-03	89.754	0.994	-0.189	6.10E-03	12.026
51.88	6.12E-03	12.987	0.994	-0.205	1.30E-03	89.739	7.58E-05	90.108
	0.994	-0.205	6.12E-03	12.987	7.58E-05	90.108	1.30E-03	89.739
	1.30E-03	89.739	7.58E-05	90.108	6.12E-03	12.987	0.994	-0.205
	7.58E-05	90.108	1.30E-03	89.739	0.994	-0.205	6.12E-03	12.987
55.84	6.15E-03	13.939	0.994	-0.22	1.40E-03	89.724	8.16E-05	90.198
	0.994	-0.22	6.15E-03	13.939	8.16E-05	90.198	1.40E-03	89.724
	1.40E-03	89.724	8.16E-05	90.198	6.15E-03	13.939	0.994	-0.22
	8.16E-05	90.198	1.40E-03	89.724	0.994	-0.22	6.15E-03	13.939
59.8	6.18E-03	14.883	0.994	-0.236	1.50E-03	89.708	8.74E-05	90.287
	0.994	-0.236	6.18E-03	14.883	8.74E-05	90.287	1.50E-03	89.708
	1.50E-03	89.708	8.74E-05	90.287	6.18E-03	14.883	0.994	-0.236
	8.74E-05	90.287	1.50E-03	89.708	0.994	-0.236	6.18E-03	14.883
63.76	6.20E-03	15.819	0.994	-0.252	1.60E-03	89.693	9.32E-05	90.376
	0.994	-0.252	6.20E-03	15.819	9.32E-05	90.376	1.60E-03	89.693
	1.60E-03	89.693	9.32E-05	90.376	6.20E-03	15.819	0.994	-0.252
	9.32E-05	90.376	1.60E-03	89.693	0.994	-0.252	6.20E-03	15.819
67.72	6.24E-03	16.746	0.994	-0.267	1.70E-03	89.678	9.90E-05	90.465
	0.994	-0.267	6.24E-03	16.746	9.90E-05	90.465	1.70E-03	89.678
	1.70E-03	89.678	9.90E-05	90.465	6.24E-03	16.746	0.994	-0.267
	9.90E-05	90.465	1.70E-03	89.678	0.994	-0.267	6.24E-03	16.746
71.68	6.27E-03	17.664	0.994	-0.283	1.80E-03	89.663	1.05E-04	90.553
	0.994	-0.283	6.27E-03	17.664	1.05E-04	90.553	1.80E-03	89.663
	1.80E-03	89.663	1.05E-04	90.553	6.27E-03	17.664	0.994	-0.283
	1.05E-04	90.553	1.80E-03	89.663	0.994	-0.283	6.27E-03	17.664
75.64	6.30E-03	18.571	0.994	-0.298	1.90E-03	89.647	1.11E-04	90.642
	0.994	-0.298	6.30E-03	18.571	1.11E-04	90.642	1.90E-03	89.647
	1.90E-03	89.647	1.11E-04	90.642	6.30E-03	18.571	0.994	-0.298
	1.11E-04	90.642	1.90E-03	89.647	0.994	-0.298	6.30E-03	18.571
79.6	6.34E-03	19.469	0.994	-0.314	2.00E-03	89.632	1.16E-04	90.731
	0.994	-0.314	6.34E-03	19.469	1.16E-04	90.731	2.00E-03	89.632
	2.00E-03	89.632	1.16E-04	90.731	6.34E-03	19.469	0.994	-0.314
	1.16E-04	90.731	2.00E-03	89.632	0.994	-0.314	6.34E-03	19.469
83.56	6.37E-03	20.357	0.994	-0.33	2.10E-03	89.617	1.22E-04	90.819
	0.994	-0.33	6.37E-03	20.357	1.22E-04	90.819	2.10E-03	89.617
	2.10E-03	89.617	1.22E-04	90.819	6.37E-03	20.357	0.994	-0.33
	1.22E-04	90.819	2.10E-03	89.617	0.994	-0.33	6.37E-03	20.357
87.52	6.41E-03	21.234	0.994	-0.345	2.20E-03	89.602	1.28E-04	90.908
	0.994	-0.345	6.41E-03	21.234	1.28E-04	90.908	2.20E-03	89.602
	2.20E-03	89.602	1.28E-04	90.908	6.41E-03	21.234	0.994	-0.345
	1.28E-04	90.908	2.20E-03	89.602	0.994	-0.345	6.41E-03	21.234
91.48	6.45E-03	22.1	0.994	-0.361	2.30E-03	89.586	1.34E-04	90.996
	0.994	-0.361	6.45E-03	22.1	1.34E-04	90.996	2.30E-03	89.586
	2.30E-03	89.586	1.34E-04	90.996	6.45E-03	22.1	0.994	-0.361
	1.34E-04	90.996	2.30E-03	89.586	0.994	-0.361	6.45E-03	22.1
95.44	6.49E-03	22.955	0.994	-0.377	2.40E-03	89.571	1.40E-04	91.085
	0.994	-0.377	6.49E-03	22.955	1.40E-04	91.085	2.40E-03	89.571
	2.40E-03	89.571	1.40E-04	91.085	6.49E-03	22.955	0.994	-0.377
	1.40E-04	91.085	2.40E-03	89.571	0.994	-0.377	6.49E-03	22.955
99.4	6.53E-03	23.799	0.994	-0.392	2.49E-03	89.556	1.45E-04	91.173
	0.994	-0.392	6.53E-03	23.799	1.45E-04	91.173	2.49E-03	89.556
	2.49E-03	89.556	1.45E-04	91.173	6.53E-03	23.799	0.994	-0.392
	1.45E-04	91.173	2.49E-03	89.556	0.994	-0.392	6.53E-03	23.799
103.36	6.58E-03	24.631	0.994	-0.408	2.59E-03	89.541	1.51E-04	91.261
	0.994	-0.408	6.58E-03	24.631	1.51E-04	91.261	2.59E-03	89.541
	2.59E-03	89.541	1.51E-04	91.261	6.58E-03	24.631	0.994	-0.408
	1.51E-04	91.261	2.59E-03	89.541	0.994	-0.408	6.58E-03	24.631
107.32	6.62E-03	25.452	0.994	-0.423	2.69E-03	89.525	1.57E-04	91.35
	0.994	-0.423	6.62E-03	25.452	1.57E-04	91.35	2.69E-03	89.525
	2.69E-03	89.525	1.57E-04	91.35	6.62E-03	25.452	0.994	-0.423
	1.57E-04	91.35	2.69E-03	89.525	0.994	-0.423	6.62E-03	25.452
111.28	6.67E-03	26.262	0.994	-0.439	2.79E-03	89.51	1.63E-04	91.438
	0.994	-0.439	6.67E-03	26.262	1.63E-04	91.438	2.79E-03	89.51
	2.79E-03	89.51	1.63E-04	91.438	6.67E-03	26.262	0.994	-0.439
	1.63E-04	91.438	2.79E-03	89.51	0.994	-0.439	6.67E-03	26.262
115.24	6.72E-03	27.059	0.994	-0.455	2.89E-03	89.495	1.69E-04	91.526
	0.994	-0.455	6.72E-03	27.059	1.69E-04	91.526	2.89E-03	89.495
	2.89E-03	89.495	1.69E-04	91.526	6.72E-03	27.059	0.994	-0.455
	1.69E-04	91.526	2.89E-03	89.495	0.994	-0.455	6.72E-03	27.059
119.2	6.77E-03	27.845	0.994	-0.47	2.99E-03	89.48	1.74E-04	91.615
	0.994	-0.47	6.77E-03	27.845	1.74E-04	91.615	2.99E-03	89.48
	2.99E-03	89.48	1.74E-04	91.615	6.77E-03	27.845	0.994	-0.47
	1.74E-04	91.615	2.99E-03	89.48	0.994	-0.47	6.77E-03	27.845
123.16	6.82E-03	28.619	0.994	-0.486	3.09E-03	89.464	1.80E-04	91.703
	0.994	-0.486	6.82E-03	28.619	1.80E-04	91.703	3.09E-03	89.464
	3.09E-03	89.464	1.80E-04	91.703	6.82E-03	28.619	0.994	-0.486
	1.80E-04	91.703	3.09E-03	89.464	0.994	-0.486	6.82E-03	28.619
127.12	6.87E-03	29.381	0.994	-0.502	3.19E-03	89.449	1.86E-04	91.791
	0.994	-0.502	6.87E-03	29.381	1.86E-04	91.791	3.19E-03	89.449
	3.19E-03	89.449	1.86E-04	91.791	6.87E-03	29.381	0.994	-0.502
	1.86E-04	91.791	3.19E-03	89.449	0.994	-0.502	6.87E-03	29.381
131.08	6.93E-03	30.131	0.994	-0.517	3.29E-03	89.434	1.92E-04	91.879
	0.994	-0.517	6.93E-03	30.131	1.92E-04	91.879	3.29E-03	89.434
	3.29E-03	89.434	1.92E-04	91.879	6.93E-03	30.131	0.994	-0.517
	1.92E-04	91.879	3.29E-03	89.434	0.994	-0.517	6.93E-03	30.131
135.04	6.98E-03	30.87	0.994	-0.533	3.39E-03	89.418	1.98E-04	91.967
	0.994	-0.533	6.98E-03	30.87	1.98E-04	91.967	3.39E-03	89.418
	3.39E-03	89.418	1.98E-04	91.967	6.98E-03	30.87	0.994	-0.533
	1.98E-04	91.967	3.39E-03	89.418	0.994	-0.533	6.98E-03	30.87
139	7.04E-03	31.596	0.994	-0.549	3.49E-03	89.403	2.03E-04	92.055
	0.994	-0.549	7.04E-03	31.596	2.03E-04	92.055	3.49E-03	89.403
	3.49E-03	89.403	2.03E-04	92.055	7.04E-03	31.596	0.994	-0.549
	2.03E-04	92.055	3.49E-03	89.403	0.994	-0.549	7.04E-03	31.596
142.96	7.09E-03	32.311	0.994	-0.564	3.59E-03	89.388	2.09E-04	92.143
	0.994	-0.564	7.09E-03	32.311	2.09E-04	92.143	3.59E-03	89.388
	3.59E-03	89.388	2.09E-04	92.143	7.09E-03	32.311	0.994	-0.564
	2.09E-04	92.143	3.59E-03	89.388	0.994	-0.564	7.09E-03	32.311
146.92	7.15E-03	33.014	0.994	-0.58	3.69E-03	89.373	2.15E-04	92.231
	0.994	-0.58	7.15E-03	33.014	2.15E-04	92.231	3.69E-03	89.373
	3.69E-03	89.373	2.15E-04	92.231	7.15E-03	33.014	0.994	-0.58
	2.15E-04	92.231	3.69E-03	89.373	0.994	-0.58	7.15E-03	33.014
150.88	7.21E-03	33.705	0.994	-0.595	3.79E-03	89.357	2.21E-04	92.319
	0.994	-0.595	7.21E-03	33.705	2.21E-04	92.319	3.79E-03	89.357
	3.79E-03	89.357	2.21E-04	92.319	7.21E-03	33.705	0.994	-0.595
	2.21E-04	92.319	3.79E-03	89.357	0.994	-0.595	7.21E-03	33.705
154.84	7.27E-03	34.384	0.994	-0.611	3.89E-03	89.342	2.27E-04	92.407
	0.994	-0.611	7.27E-03	34.384	2.27E-04	92.407	3.89E-03	89.342
	3.89E-03	89.342	2.27E-04	92.407	7.27E-03	34.384	0.994	-0.611
	2.27E-04	92.407	3.89E-03	89.342	0.994	-0.611	7.27E-03	34.384
158.8	7.33E-03	35.052	0.994	-0.627	3.98E-03	89.327	2.33E-04	92.495
	0.994	-0.627	7.33E-03	35.052	2.33E-04	92.495	3.98E-03	89.327
	3.98E-03	89.327	2.33E-04	92.495	7.33E-03	35.052	0.994	-0.627
	2.33E-04	92.495	3.98E-03	89.327	0.994	-0.627	7.33E-03	35.052
162.76	7.40E-03	35.709	0.994	-0.642	4.08E-03	89.312	2.38E-04	92.583
	0.994	-0.642	7.40E-03	35.709	2.38E-04	92.583	4.08E-03	89.312
	4.08E-03	89.312	2.38E-04	92.583	7.40E-03	35.709	0.994	-0.642
	2.38E-04	92.583	4.08E-03	89.312	0.994	-0.642	7.40E-03	35.709
166.72	7.46E-03	36.354	0.994	-0.658	4.18E-03	89.296	2.44E-04	92.671
	0.994	-0.658	7.46E-03	36.354	2.44E-04	92.671	4.18E-03	89.296
	4.18E-03	89.296	2.44E-04	92.671	7.46E-03	36.354	0.994	-0.658
	2.44E-04	92.671	4.18E-03	89.296	0.994	-0.658	7.46E-03	36.354
170.68	7.53E-03	36.988	0.994	-0.674	4.28E-03	89.281	2.50E-04	92.759
	0.994	-0.674	7.53E-03	36.988	2.50E-04	92.759	4.28E-03	89.281
	4.28E-03	89.281	2.50E-04	92.759	7.53E-03	36.988	0.994	-0.674
	2.50E-04	92.759	4.28E-03	89.281	0.994	-0.674	7.53E-03	36.988
174.64	7.59E-03	37.61	0.994	-0.689	4.38E-03	89.266	2.56E-04	92.847
	0.994	-0.689	7.59E-03	37.61	2.56E-04	92.847	4.38E-03	89.266
	4.38E-03	89.266	2.56E-04	92.847	7.59E-03	37.61	0.994	-0.689
	2.56E-04	92.847	4.38E-03	89.266	0.994	-0.689	7.59E-03	37.61
178.6	7.66E-03	38.222	0.994	-0.705	4.48E-03	89.25	2.62E-04	92.934
	0.994	-0.705	7.66E-03	38.222	2.62E-04	92.934	4.48E-03	89.25
	4.48E-03	89.25	2.62E-04	92.934	7.66E-03	38.222	0.994	-0.705
	2.62E-04	92.934	4.48E-03	89.25	0.994	-0.705	7.66E-03	38.222
182.56	7.72E-03	38.823	0.994	-0.72	4.58E-03	89.235	2.68E-04	93.022
	0.994	-0.72	7.72E-03	38.823	2.68E-04	93.022	4.58E-03	89.235
	4.58E-03	89.235	2.68E-04	93.022	7.72E-03	38.823	0.994	-0.72
	2.68E-04	93.022	4.58E-03	89.235	0.994	-0.72	7.72E-03	38.823
186.52	7.79E-03	39.413	0.994	-0.736	4.68E-03	89.22	2.73E-04	93.11
	0.994	-0.736	7.79E-03	39.413	2.73E-04	93.11	4.68E-03	89.22
	4.68E-03	89.22	2.73E-04	93.11	7.79E-03	39.413	0.994	-0.736
	2.73E-04	93.11	4.68E-03	89.22	0.994	-0.736	7.79E-03	39.413
190.48	7.86E-03	39.993	0.994	-0.752	4.78E-03	89.205	2.79E-04	93.198
	0.994	-0.752	7.86E-03	39.993	2.79E-04	93.198	4.78E-03	89.205
	4.78E-03	89.205	2.79E-04	93.198	7.86E-03	39.993	0.994	-0.752
	2.79E-04	93.198	4.78E-03	89.205	0.994	-0.752	7.86E-03	39.993
194.44	7.93E-03	40.562	0.994	-0.767	4.88E-03	89.189	2.85E-04	93.285
	0.994	-0.767	7.93E-03	40.562	2.85E-04	93.285	4.88E-03	89.189
	4.88E-03	89.189	2.85E-04	93.285	7.93E-03	40.562	0.994	-0.767
	2.85E-04	93.285	4.88E-03	89.189	0.994	-0.767	7.93E-03	40.562
198.4	8.00E-03	41.121	0.994	-0.783	4.98E-03	89.174	2.91E-04	93.373
	0.994	-0.783	8.00E-03	41.121	2.91E-04	93.373	4.98E-03	89.174
	4.98E-03	89.174	2.91E-04	93.373	8.00E-03	41.121	0.994	-0.783
	2.91E-04	93.373	4.98E-03	89.174	0.994	-0.783	8.00E-03	41.121
202.36	8.07E-03	41.67	0.994	-0.799	5.08E-03	89.159	2.97E-04	93.46
	0.994	-0.799	8.07E-03	41.67	2.97E-04	93.46	5.08E-03	89.159
	5.08E-03	89.159	2.97E-04	93.46	8.07E-03	41.67	0.994	-0.799
	2.97E-04	93.46	5.08E-03	89.159	0.994	-0.799	8.07E-03	41.67
206.32	8.15E-03	42.209	0.994	-0.814	5.18E-03	89.144	3.03E-04	93.548
	0.994	-0.814	8.15E-03	42.209	3.03E-04	93.548	5.18E-03	89.144
	5.18E-03	89.144	3.03E-04	93.548	8.15E-03	42.209	0.994	-0.814
	3.03E-04	93.548	5.18E-03	89.144	0.994	-0.814	8.15E-03	42.209
210.28	8.22E-03	42.738	0.994	-0.83	5.28E-03	89.128	3.09E-04	93.635
	0.994	-0.83	8.22E-03	42.738	3.09E-04	93.635	5.28E-03	89.128
	5.28E-03	89.128	3.09E-04	93.635	8.22E-03	42.738	0.994	-0.83
	3.09E-04	93.635	5.28E-03	89.128	0.994	-0.83	8.22E-03	42.738
214.24	8.29E-03	43.257	0.994	-0.845	5.38E-03	89.113	3.14E-04	93.723
	0.994	-0.845	8.29E-03	43.257	3.14E-04	93.723	5.38E-03	89.113
	5.38E-03	89.113	3.14E-04	93.723	8.29E-03	43.257	0.994	-0.845
	3.14E-04	93.723	5.38E-03	89.113	0.994	-0.845	8.29E-03	43.257
218.2	8.37E-03	43.767	0.994	-0.861	5.47E-03	89.098	3.20E-04	93.81
	0.994	-0.861	8.37E-03	43.767	3.20E-04	93.81	5.47E-03	89.098
	5.47E-03	89.098	3.20E-04	93.81	8.37E-03	43.767	0.994	-0.861
	3.20E-04	93.81	5.47E-03	89.098	0.994	-0.861	8.37E-03	43.767
222.16	8.44E-03	44.268	0.994	-0.877	5.57E-03	89.082	3.26E-04	93.898
	0.994	-0.877	8.44E-03	44.268	3.26E-04	93.898	5.57E-03	89.082
	5.57E-03	89.082	3.26E-04	93.898	8.44E-03	44.268	0.994	-0.877
	3.26E-04	93.898	5.57E-03	89.082	0.994	-0.877	8.44E-03	44.268
226.12	8.52E-03	44.759	0.994	-0.892	5.67E-03	89.067	3.32E-04	93.985
	0.994	-0.892	8.52E-03	44.759	3.32E-04	93.985	5.67E-03	89.067
	5.67E-03	89.067	3.32E-04	93.985	8.52E-03	44.759	0.994	-0.892
	3.32E-04	93.985	5.67E-03	89.067	0.994	-0.892	8.52E-03	44.759
230.08	8.59E-03	45.242	0.994	-0.908	5.77E-03	89.052	3.38E-04	94.072
	0.994	-0.908	8.59E-03	45.242	3.38E-04	94.072	5.77E-03	89.052
	5.77E-03	89.052	3.38E-04	94.072	8.59E-03	45.242	0.994	-0.908
	3.38E-04	94.072	5.77E-03	89.052	0.994	-0.908	8.59E-03	45.242
234.04	8.67E-03	45.716	0.994	-0.924	5.87E-03	89.037	3.44E-04	94.159
	0.994	-0.924	8.67E-03	45.716	3.44E-04	94.159	5.87E-03	89.037
	5.87E-03	89.037	3.44E-04	94.159	8.67E-03	45.716	0.994	-0.924
	3.44E-04	94.159	5.87E-03	89.037	0.994	-0.924	8.67E-03	45.716
238	8.75E-03	46.181	0.994	-0.939	5.97E-03	89.021	3.50E-04	94.247
	0.994	-0.939	8.75E-03	46.181	3.50E-04	94.247	5.97E-03	89.021
	5.97E-03	89.021	3.50E-04	94.247	8.75E-03	46.181	0.994	-0.939
	3.50E-04	94.247	5.97E-03	89.021	0.994	-0.939	8.75E-03	46.181
241.96	8.83E-03	46.637	0.994	-0.955	6.07E-03	89.006	3.56E-04	94.334
	0.994	-0.955	8.83E-03	46.637	3.56E-04	94.334	6.07E-03	89.006
	6.07E-03	89.006	3.56E-04	94.334	8.83E-03	46.637	0.994	-0.955
	3.56E-04	94.334	6.07E-03	89.006	0.994	-0.955	8.83E-03	46.637
245.92	8.91E-03	47.086	0.994	-0.97	6.17E-03	88.991	3.61E-04	94.421
	0.994	-0.97	8.91E-03	47.086	3.61E-04	94.421	6.17E-03	88.991
	6.17E-03	88.991	3.61E-04	94.421	8.91E-03	47.086	0.994	-0.97
	3.61E-04	94.421	6.17E-03	88.991	0.994	-0.97	8.91E-03	47.086
249.88	8.99E-03	47.526	0.994	-0.986	6.27E-03	88.976	3.67E-04	94.508
	0.994	-0.986	8.99E-03	47.526	3.67E-04	94.508	6.27E-03	88.976
	6.27E-03	88.976	3.67E-04	94.508	8.99E-03	47.526	0.994	-0.986
	3.67E-04	94.508	6.27E-03	88.976	0.994	-0.986	8.99E-03	47.526
253.84	9.07E-03	47.958	0.994	-1.002	6.37E-03	88.96	3.73E-04	94.595
	0.994	-1.002	9.07E-03	47.958	3.73E-04	94.595	6.37E-03	88.96
	6.37E-03	88.96	3.73E-04	94.595	9.07E-03	47.958	0.994	-1.002
	3.73E-04	94.595	6.37E-03	88.96	0.994	-1.002	9.07E-03	47.958
257.8	9.15E-03	48.382	0.994	-1.017	6.47E-03	88.945	3.79E-04	94.682
	0.994	-1.017	9.15E-03	48.382	3.79E-04	94.682	6.47E-03	88.945
	6.47E-03	88.945	3.79E-04	94.682	9.15E-03	48.382	0.994	-1.017
	3.79E-04	94.682	6.47E-03	88.945	0.994	-1.017	9.15E-03	48.382
261.76	9.23E-03	48.799	0.994	-1.033	6.57E-03	88.93	3.85E-04	94.769
	0.994	-1.033	9.23E-03	48.799	3.85E-04	94.769	6.57E-03	88.93
	6.57E-03	88.93	3.85E-04	94.769	9.23E-03	48.799	0.994	-1.033
	3.85E-04	94.769	6.57E-03	88.93	0.994	-1.033	9.23E-03	48.799
265.72	9.31E-03	49.208	0.994	-1.049	6.67E-03	88.915	3.91E-04	94.856
	0.994	-1.049	9.31E-03	49.208	3.91E-04	94.856	6.67E-03	88.915
	6.67E-03	88.915	3.91E-04	94.856	9.31E-03	49.208	0.994	-1.049
	3.91E-04	94.856	6.67E-03	88.915	0.994	-1.049	9.31E-03	49.208
269.68	9.39E-03	49.609	0.994	-1.064	6.77E-03	88.899	3.97E-04	94.942
	0.994	-1.064	9.39E-03	49.609	3.97E-04	94.942	6.77E-03	88.899
	6.77E-03	88.899	3.97E-04	94.942	9.39E-03	49.609	0.994	-1.064
	3.97E-04	94.942	6.77E-03	88.899	0.994	-1.064	9.39E-03	49.609
273.64	9.47E-03	50.004	0.994	-1.08	6.87E-03	88.884	4.03E-04	95.029
	0.994	-1.08	9.47E-03	50.004	4.03E-04	95.029	6.87E-03	88.884
	6.87E-03	88.884	4.03E-04	95.029	9.47E-03	50.004	0.994	-1.08
	4.03E-04	95.029	6.87E-03	88.884	0.994	-1.08	9.47E-03	50.004
277.6	9.56E-03	50.391	0.994	-1.095	6.96E-03	88.869	4.09E-04	95.116
	0.994	-1.095	9.56E-03	50.391	4.09E-04	95.116	6.96E-03	88.869
	6.96E-03	88.869	4.09E-04	95.116	9.56E-03	50.391	0.994	-1.095
	4.09E-04	95.116	6.96E-03	88.869	0.994	-1.095	9.56E-03	50.391
281.56	9.64E-03	50.771	0.994	-1.111	7.06E-03	88.853	4.15E-04	95.202
	0.994	-1.111	9.64E-03	50.771	4.15E-04	95.202	7.06E-03	88.853
	7.06E-03	88.853	4.15E-04	95.202	9.64E-03	50.771	0.994	-1.111
	4.15E-04	95.202	7.06E-03	88.853	0.994	-1.111	9.64E-03	50.771
285.52	9.72E-03	51.145	0.994	-1.127	7.16E-03	88.838	4.21E-04	95.289
	0.994	-1.127	9.72E-03	51.145	4.21E-04	95.289	7.16E-03	88.838
	7.16E-03	88.838	4.21E-04	95.289	9.72E-03	51.145	0.994	-1.127
	4.21E-04	95.289	7.16E-03	88.838	0.994	-1.127	9.72E-03	51.145
289.48	9.81E-03	51.511	0.994	-1.142	7.26E-03	88.823	4.27E-04	95.376
	0.994	-1.142	9.81E-03	51.511	4.27E-04	95.376	7.26E-03	88.823
	7.26E-03	88.823	4.27E-04	95.376	9.81E-03	51.511	0.994	-1.142
	4.27E-04	95.376	7.26E-03	88.823	0.994	-1.142	9.81E-03	51.511
293.44	9.89E-03	51.872	0.994	-1.158	7.36E-03	88.808	4.32E-04	95.462
	0.994	-1.158	9.89E-03	51.872	4.32E-04	95.462	7.36E-03	88.808
	7.36E-03	88.808	4.32E-04	95.462	9.89E-03	51.872	0.994	-1.158
	4.32E-04	95.462	7.36E-03	88.808	0.994	-1.158	9.89E-03	51.872
297.4	9.98E-03	52.226	0.994	-1.174	7.46E-03	88.792	4.38E-04	95.548
	0.994	-1.174	9.98E-03	52.226	4.38E-04	95.548	7.46E-03	88.792
	7.46E-03	88.792	4.38E-04	95.548	9.98E-03	52.226	0.994	-1.174
	4.38E-04	95.548	7.46E-03	88.792	0.994	-1.174	9.98E-03	52.226
301.36	0.01	52.573	0.994	-1.189	7.56E-03	88.777	4.44E-04	95.635
	0.994	-1.189	0.01	52.573	4.44E-04	95.635	7.56E-03	88.777
	7.56E-03	88.777	4.44E-04	95.635	0.01	52.573	0.994	-1.189
	4.44E-04	95.635	7.56E-03	88.777	0.994	-1.189	0.01	52.573
305.32	0.01	52.915	0.994	-1.205	7.66E-03	88.762	4.50E-04	95.721
	0.994	-1.205	0.01	52.915	4.50E-04	95.721	7.66E-03	88.762
	7.66E-03	88.762	4.50E-04	95.721	0.01	52.915	0.994	-1.205
	4.50E-04	95.721	7.66E-03	88.762	0.994	-1.205	0.01	52.915
309.28	0.01	53.25	0.994	-1.22	7.76E-03	88.747	4.56E-04	95.807
	0.994	-1.22	0.01	53.25	4.56E-04	95.807	7.76E-03	88.747
	7.76E-03	88.747	4.56E-04	95.807	0.01	53.25	0.994	-1.22
	4.56E-04	95.807	7.76E-03	88.747	0.994	-1.22	0.01	53.25
313.24	0.01	53.58	0.994	-1.236	7.86E-03	88.731	4.62E-04	95.893
	0.994	-1.236	0.01	53.58	4.62E-04	95.893	7.86E-03	88.731
	7.86E-03	88.731	4.62E-04	95.893	0.01	53.58	0.994	-1.236
	4.62E-04	95.893	7.86E-03	88.731	0.994	-1.236	0.01	53.58
317.2	0.01	53.903	0.994	-1.252	7.96E-03	88.716	4.68E-04	95.98
	0.994	-1.252	0.01	53.903	4.68E-04	95.98	7.96E-03	88.716
	7.96E-03	88.716	4.68E-04	95.98	0.01	53.903	0.994	-1.252
	4.68E-04	95.98	7.96E-03	88.716	0.994	-1.252	0.01	53.903
321.16	0.01	54.221	0.994	-1.267	8.06E-03	88.701	4.74E-04	96.066
	0.994	-1.267	0.01	54.221	4.74E-04	96.066	8.06E-03	88.701
	8.06E-03	88.701	4.74E-04	96.066	0.01	54.221	0.994	-1.267
	4.74E-04	96.066	8.06E-03	88.701	0.994	-1.267	0.01	54.221
325.12	0.011	54.534	0.994	-1.283	8.16E-03	88.685	4.80E-04	96.152
	0.994	-1.283	0.011	54.534	4.80E-04	96.152	8.16E-03	88.685
	8.16E-03	88.685	4.80E-04	96.152	0.011	54.534	0.994	-1.283
	4.80E-04	96.152	8.16E-03	88.685	0.994	-1.283	0.011	54.534
329.08	0.011	54.841	0.994	-1.299	8.26E-03	88.67	4.86E-04	96.238
	0.994	-1.299	0.011	54.841	4.86E-04	96.238	8.26E-03	88.67
	8.26E-03	88.67	4.86E-04	96.238	0.011	54.841	0.994	-1.299
	4.86E-04	96.238	8.26E-03	88.67	0.994	-1.299	0.011	54.841
333.04	0.011	55.143	0.994	-1.314	8.35E-03	88.655	4.92E-04	96.323
	0.994	-1.314	0.011	55.143	4.92E-04	96.323	8.35E-03	88.655
	8.35E-03	88.655	4.92E-04	96.323	0.011	55.143	0.994	-1.314
	4.92E-04	96.323	8.35E-03	88.655	0.994	-1.314	0.011	55.143
337	0.011	55.44	0.994	-1.33	8.45E-03	88.64	4.98E-04	96.409
	0.994	-1.33	0.011	55.44	4.98E-04	96.409	8.45E-03	88.64
	8.45E-03	88.64	4.98E-04	96.409	0.011	55.44	0.994	-1.33
	4.98E-04	96.409	8.45E-03	88.64	0.994	-1.33	0.011	55.44
340.96	0.011	55.732	0.994	-1.345	8.55E-03	88.624	5.04E-04	96.495
	0.994	-1.345	0.011	55.732	5.04E-04	96.495	8.55E-03	88.624
	8.55E-03	88.624	5.04E-04	96.495	0.011	55.732	0.994	-1.345
	5.04E-04	96.495	8.55E-03	88.624	0.994	-1.345	0.011	55.732
344.92	0.011	56.018	0.994	-1.361	8.65E-03	88.609	5.10E-04	96.581
	0.994	-1.361	0.011	56.018	5.10E-04	96.581	8.65E-03	88.609
	8.65E-03	88.609	5.10E-04	96.581	0.011	56.018	0.994	-1.361
	5.10E-04	96.581	8.65E-03	88.609	0.994	-1.361	0.011	56.018
348.88	0.011	56.3	0.994	-1.377	8.75E-03	88.594	5.16E-04	96.666
	0.994	-1.377	0.011	56.3	5.16E-04	96.666	8.75E-03	88.594
	8.75E-03	88.594	5.16E-04	96.666	0.011	56.3	0.994	-1.377
	5.16E-04	96.666	8.75E-03	88.594	0.994	-1.377	0.011	56.3
