# MHZ S MA R 50

50 4.585e-3 18.286 0.996 -0.201 3.186e-3 89.765 1.137e-3 -90.42
          0.996 -0.201 4.585e-3 18.286 1.137e-3 -90.42 3.186e-3 89.765
          3.186e-3 89.765 1.137e-3 -90.42 4.585e-3 18.286 0.996 -0.201
          1.137e-3 -90.42 3.186e-3 89.765 0.996 -0.201 4.585e-3 18.286
57.007 4.655e-3 20.633 0.996 -0.229 3.633e-3 89.734 1.296e-3 -90.483
          0.996 -0.229 4.655e-3 20.633 1.296e-3 -90.483 3.633e-3 89.734
          3.633e-3 89.734 1.296e-3 -90.483 4.655e-3 20.633 0.996 -0.229
          1.296e-3 -90.483 3.633e-3 89.734 0.996 -0.229 4.655e-3 20.633
64.014 4.732e-3 22.905 0.996 -0.257 4.079e-3 89.702 1.456e-3 -90.545
          0.996 -0.257 4.732e-3 22.905 1.456e-3 -90.545 4.079e-3 89.702
          4.079e-3 89.702 1.456e-3 -90.545 4.732e-3 22.905 0.996 -0.257
          1.456e-3 -90.545 4.079e-3 89.702 0.996 -0.257 4.732e-3 22.905
71.021 4.817e-3 25.099 0.996 -0.285 4.526e-3 89.67 1.615e-3 -90.606
          0.996 -0.285 4.817e-3 25.099 1.615e-3 -90.606 4.526e-3 89.67
          4.526e-3 89.67 1.615e-3 -90.606 4.817e-3 25.099 0.996 -0.285
          1.615e-3 -90.606 4.526e-3 89.67 0.996 -0.285 4.817e-3 25.099
78.028 4.909e-3 27.212 0.996 -0.313 4.972e-3 89.638 1.774e-3 -90.667
          0.996 -0.313 4.909e-3 27.212 1.774e-3 -90.667 4.972e-3 89.638
          4.972e-3 89.638 1.774e-3 -90.667 4.909e-3 27.212 0.996 -0.313
          1.774e-3 -90.667 4.972e-3 89.638 0.996 -0.313 4.909e-3 27.212
85.035 5.008e-3 29.242 0.996 -0.341 5.419e-3 89.606 1.934e-3 -90.729
          0.996 -0.341 5.008e-3 29.242 1.934e-3 -90.729 5.419e-3 89.606
          5.419e-3 89.606 1.934e-3 -90.729 5.008e-3 29.242 0.996 -0.341
          1.934e-3 -90.729 5.419e-3 89.606 0.996 -0.341 5.008e-3 29.242
92.042 5.113e-3 31.19 0.996 -0.369 5.865e-3 89.574 2.093e-3 -90.79
          0.996 -0.369 5.113e-3 31.19 2.093e-3 -90.79 5.865e-3 89.574
          5.865e-3 89.574 2.093e-3 -90.79 5.113e-3 31.19 0.996 -0.369
          2.093e-3 -90.79 5.865e-3 89.574 0.996 -0.369 5.113e-3 31.19
99.049 5.224e-3 33.055 0.996 -0.398 6.312e-3 89.542 2.252e-3 -90.851
          0.996 -0.398 5.224e-3 33.055 2.252e-3 -90.851 6.312e-3 89.542
          6.312e-3 89.542 2.252e-3 -90.851 5.224e-3 33.055 0.996 -0.398
          2.252e-3 -90.851 6.312e-3 89.542 0.996 -0.398 5.224e-3 33.055
106.056 5.341e-3 34.838 0.996 -0.426 6.758e-3 89.51 2.412e-3 -90.912
          0.996 -0.426 5.341e-3 34.838 2.412e-3 -90.912 6.758e-3 89.51
          6.758e-3 89.51 2.412e-3 -90.912 5.341e-3 34.838 0.996 -0.426
          2.412e-3 -90.912 6.758e-3 89.51 0.996 -0.426 5.341e-3 34.838
113.063 5.463e-3 36.541 0.996 -0.454 7.205e-3 89.477 2.571e-3 -90.972
          0.996 -0.454 5.463e-3 36.541 2.571e-3 -90.972 7.205e-3 89.477
          7.205e-3 89.477 2.571e-3 -90.972 5.463e-3 36.541 0.996 -0.454
          2.571e-3 -90.972 7.205e-3 89.477 0.996 -0.454 5.463e-3 36.541
120.07 5.59e-3 38.166 0.996 -0.482 7.651e-3 89.445 2.73e-3 -91.033
          0.996 -0.482 5.59e-3 38.166 2.73e-3 -91.033 7.651e-3 89.445
          7.651e-3 89.445 2.73e-3 -91.033 5.59e-3 38.166 0.996 -0.482
          2.73e-3 -91.033 7.651e-3 89.445 0.996 -0.482 5.59e-3 38.166
127.077 5.721e-3 39.716 0.996 -0.51 8.098e-3 89.413 2.89e-3 -91.094
          0.996 -0.51 5.721e-3 39.716 2.89e-3 -91.094 8.098e-3 89.413
          8.098e-3 89.413 2.89e-3 -91.094 5.721e-3 39.716 0.996 -0.51
          2.89e-3 -91.094 8.098e-3 89.413 0.996 -0.51 5.721e-3 39.716
134.084 5.856e-3 41.193 0.996 -0.538 8.544e-3 89.381 3.049e-3 -91.155
          0.996 -0.538 5.856e-3 41.193 3.049e-3 -91.155 8.544e-3 89.381
          8.544e-3 89.381 3.049e-3 -91.155 5.856e-3 41.193 0.996 -0.538
          3.049e-3 -91.155 8.544e-3 89.381 0.996 -0.538 5.856e-3 41.193
141.091 5.996e-3 42.599 0.996 -0.566 8.99e-3 89.349 3.208e-3 -91.216
          0.996 -0.566 5.996e-3 42.599 3.208e-3 -91.216 8.99e-3 89.349
          8.99e-3 89.349 3.208e-3 -91.216 5.996e-3 42.599 0.996 -0.566
          3.208e-3 -91.216 8.99e-3 89.349 0.996 -0.566 5.996e-3 42.599
148.098 6.139e-3 43.939 0.996 -0.594 9.437e-3 89.317 3.367e-3 -91.277
          0.996 -0.594 6.139e-3 43.939 3.367e-3 -91.277 9.437e-3 89.317
          9.437e-3 89.317 3.367e-3 -91.277 6.139e-3 43.939 0.996 -0.594
          3.367e-3 -91.277 9.437e-3 89.317 0.996 -0.594 6.139e-3 43.939
155.105 6.286e-3 45.215 0.996 -0.623 9.883e-3 89.284 3.527e-3 -91.337
          0.996 -0.623 6.286e-3 45.215 3.527e-3 -91.337 9.883e-3 89.284
          9.883e-3 89.284 3.527e-3 -91.337 6.286e-3 45.215 0.996 -0.623
          3.527e-3 -91.337 9.883e-3 89.284 0.996 -0.623 6.286e-3 45.215
162.112 6.436e-3 46.429 0.996 -0.651 0.01 89.252 3.686e-3 -91.398
          0.996 -0.651 6.436e-3 46.429 3.686e-3 -91.398 0.01 89.252
          0.01 89.252 3.686e-3 -91.398 6.436e-3 46.429 0.996 -0.651
          3.686e-3 -91.398 0.01 89.252 0.996 -0.651 6.436e-3 46.429
169.119 6.588e-3 47.586 0.996 -0.679 0.011 89.22 3.845e-3 -91.459
          0.996 -0.679 6.588e-3 47.586 3.845e-3 -91.459 0.011 89.22
          0.011 89.22 3.845e-3 -91.459 6.588e-3 47.586 0.996 -0.679
          3.845e-3 -91.459 0.011 89.22 0.996 -0.679 6.588e-3 47.586
176.126 6.744e-3 48.687 0.996 -0.707 0.011 89.188 4.005e-3 -91.519
          0.996 -0.707 6.744e-3 48.687 4.005e-3 -91.519 0.011 89.188
          0.011 89.188 4.005e-3 -91.519 6.744e-3 48.687 0.996 -0.707
          4.005e-3 -91.519 0.011 89.188 0.996 -0.707 6.744e-3 48.687
183.133 6.902e-3 49.736 0.996 -0.735 0.012 89.155 4.164e-3 -91.58
          0.996 -0.735 6.902e-3 49.736 4.164e-3 -91.58 0.012 89.155
          0.012 89.155 4.164e-3 -91.58 6.902e-3 49.736 0.996 -0.735
          4.164e-3 -91.58 0.012 89.155 0.996 -0.735 6.902e-3 49.736
190.14 7.063e-3 50.736 0.996 -0.763 0.012 89.123 4.323e-3 -91.641
          0.996 -0.763 7.063e-3 50.736 4.323e-3 -91.641 0.012 89.123
          0.012 89.123 4.323e-3 -91.641 7.063e-3 50.736 0.996 -0.763
          4.323e-3 -91.641 0.012 89.123 0.996 -0.763 7.063e-3 50.736
197.147 7.226e-3 51.689 0.996 -0.791 0.013 89.091 4.482e-3 -91.702
          0.996 -0.791 7.226e-3 51.689 4.482e-3 -91.702 0.013 89.091
          0.013 89.091 4.482e-3 -91.702 7.226e-3 51.689 0.996 -0.791
          4.482e-3 -91.702 0.013 89.091 0.996 -0.791 7.226e-3 51.689
204.154 7.391e-3 52.597 0.996 -0.819 0.013 89.059 4.642e-3 -91.762
          0.996 -0.819 7.391e-3 52.597 4.642e-3 -91.762 0.013 89.059
          0.013 89.059 4.642e-3 -91.762 7.391e-3 52.597 0.996 -0.819
          4.642e-3 -91.762 0.013 89.059 0.996 -0.819 7.391e-3 52.597
211.161 7.557e-3 53.463 0.996 -0.848 0.013 89.027 4.801e-3 -91.823
          0.996 -0.848 7.557e-3 53.463 4.801e-3 -91.823 0.013 89.027
          0.013 89.027 4.801e-3 -91.823 7.557e-3 53.463 0.996 -0.848
          4.801e-3 -91.823 0.013 89.027 0.996 -0.848 7.557e-3 53.463
218.168 7.726e-3 54.289 0.996 -0.876 0.014 88.994 4.96e-3 -91.884
          0.996 -0.876 7.726e-3 54.289 4.96e-3 -91.884 0.014 88.994
          0.014 88.994 4.96e-3 -91.884 7.726e-3 54.289 0.996 -0.876
          4.96e-3 -91.884 0.014 88.994 0.996 -0.876 7.726e-3 54.289
225.175 7.897e-3 55.078 0.996 -0.904 0.014 88.962 5.119e-3 -91.944
          0.996 -0.904 7.897e-3 55.078 5.119e-3 -91.944 0.014 88.962
          0.014 88.962 5.119e-3 -91.944 7.897e-3 55.078 0.996 -0.904
          5.119e-3 -91.944 0.014 88.962 0.996 -0.904 7.897e-3 55.078
232.182 8.069e-3 55.831 0.996 -0.932 0.015 88.93 5.279e-3 -92.005
          0.996 -0.932 8.069e-3 55.831 5.279e-3 -92.005 0.015 88.93
          0.015 88.93 5.279e-3 -92.005 8.069e-3 55.831 0.996 -0.932
          5.279e-3 -92.005 0.015 88.93 0.996 -0.932 8.069e-3 55.831
239.189 8.242e-3 56.551 0.995 -0.96 0.015 88.898 5.438e-3 -92.066
          0.995 -0.96 8.242e-3 56.551 5.438e-3 -92.066 0.015 88.898
          0.015 88.898 5.438e-3 -92.066 8.242e-3 56.551 0.995 -0.96
          5.438e-3 -92.066 0.015 88.898 0.995 -0.96 8.242e-3 56.551
246.196 8.417e-3 57.239 0.995 -0.988 0.016 88.866 5.597e-3 -92.126
          0.995 -0.988 8.417e-3 57.239 5.597e-3 -92.126 0.016 88.866
          0.016 88.866 5.597e-3 -92.126 8.417e-3 57.239 0.995 -0.988
          5.597e-3 -92.126 0.016 88.866 0.995 -0.988 8.417e-3 57.239
253.203 8.593e-3 57.896 0.995 -1.016 0.016 88.833 5.756e-3 -92.187
          0.995 -1.016 8.593e-3 57.896 5.756e-3 -92.187 0.016 88.833
          0.016 88.833 5.756e-3 -92.187 8.593e-3 57.896 0.995 -1.016
          5.756e-3 -92.187 0.016 88.833 0.995 -1.016 8.593e-3 57.896
260.21 8.771e-3 58.526 0.995 -1.044 0.017 88.801 5.915e-3 -92.248
          0.995 -1.044 8.771e-3 58.526 5.915e-3 -92.248 0.017 88.801
          0.017 88.801 5.915e-3 -92.248 8.771e-3 58.526 0.995 -1.044
          5.915e-3 -92.248 0.017 88.801 0.995 -1.044 8.771e-3 58.526
267.217 8.95e-3 59.128 0.995 -1.072 0.017 88.769 6.075e-3 -92.308
          0.995 -1.072 8.95e-3 59.128 6.075e-3 -92.308 0.017 88.769
          0.017 88.769 6.075e-3 -92.308 8.95e-3 59.128 0.995 -1.072
          6.075e-3 -92.308 0.017 88.769 0.995 -1.072 8.95e-3 59.128
274.224 9.129e-3 59.704 0.995 -1.101 0.017 88.737 6.234e-3 -92.369
          0.995 -1.101 9.129e-3 59.704 6.234e-3 -92.369 0.017 88.737
          0.017 88.737 6.234e-3 -92.369 9.129e-3 59.704 0.995 -1.101
          6.234e-3 -92.369 0.017 88.737 0.995 -1.101 9.129e-3 59.704
281.231 9.31e-3 60.257 0.995 -1.129 0.018 88.704 6.393e-3 -92.43
          0.995 -1.129 9.31e-3 60.257 6.393e-3 -92.43 0.018 88.704
          0.018 88.704 6.393e-3 -92.43 9.31e-3 60.257 0.995 -1.129
          6.393e-3 -92.43 0.018 88.704 0.995 -1.129 9.31e-3 60.257
288.238 9.492e-3 60.786 0.995 -1.157 0.018 88.672 6.552e-3 -92.491
          0.995 -1.157 9.492e-3 60.786 6.552e-3 -92.491 0.018 88.672
          0.018 88.672 6.552e-3 -92.491 9.492e-3 60.786 0.995 -1.157
          6.552e-3 -92.491 0.018 88.672 0.995 -1.157 9.492e-3 60.786
295.245 9.675e-3 61.294 0.995 -1.185 0.019 88.64 6.711e-3 -92.551
          0.995 -1.185 9.675e-3 61.294 6.711e-3 -92.551 0.019 88.64
          0.019 88.64 6.711e-3 -92.551 9.675e-3 61.294 0.995 -1.185
          6.711e-3 -92.551 0.019 88.64 0.995 -1.185 9.675e-3 61.294
302.252 9.858e-3 61.781 0.995 -1.213 0.019 88.608 6.87e-3 -92.612
          0.995 -1.213 9.858e-3 61.781 6.87e-3 -92.612 0.019 88.608
          0.019 88.608 6.87e-3 -92.612 9.858e-3 61.781 0.995 -1.213
          6.87e-3 -92.612 0.019 88.608 0.995 -1.213 9.858e-3 61.781
309.259 0.01 62.248 0.995 -1.241 0.02 88.576 7.03e-3 -92.672
          0.995 -1.241 0.01 62.248 7.03e-3 -92.672 0.02 88.576
          0.02 88.576 7.03e-3 -92.672 0.01 62.248 0.995 -1.241
          7.03e-3 -92.672 0.02 88.576 0.995 -1.241 0.01 62.248
316.266 0.01 62.697 0.995 -1.269 0.02 88.543 7.189e-3 -92.733
          0.995 -1.269 0.01 62.697 7.189e-3 -92.733 0.02 88.543
          0.02 88.543 7.189e-3 -92.733 0.01 62.697 0.995 -1.269
          7.189e-3 -92.733 0.02 88.543 0.995 -1.269 0.01 62.697
323.273 0.01 63.128 0.995 -1.297 0.021 88.511 7.348e-3 -92.794
          0.995 -1.297 0.01 63.128 7.348e-3 -92.794 0.021 88.511
          0.021 88.511 7.348e-3 -92.794 0.01 63.128 0.995 -1.297
          7.348e-3 -92.794 0.021 88.511 0.995 -1.297 0.01 63.128
330.28 0.011 63.542 0.995 -1.325 0.021 88.479 7.507e-3 -92.854
          0.995 -1.325 0.011 63.542 7.507e-3 -92.854 0.021 88.479
          0.021 88.479 7.507e-3 -92.854 0.011 63.542 0.995 -1.325
          7.507e-3 -92.854 0.021 88.479 0.995 -1.325 0.011 63.542
337.287 0.011 63.94 0.995 -1.354 0.021 88.447 7.666e-3 -92.915
          0.995 -1.354 0.011 63.94 7.666e-3 -92.915 0.021 88.447
          0.021 88.447 7.666e-3 -92.915 0.011 63.94 0.995 -1.354
          7.666e-3 -92.915 0.021 88.447 0.995 -1.354 0.011 63.94
344.294 0.011 64.322 0.995 -1.382 0.022 88.415 7.825e-3 -92.976
          0.995 -1.382 0.011 64.322 7.825e-3 -92.976 0.022 88.415
          0.022 88.415 7.825e-3 -92.976 0.011 64.322 0.995 -1.382
          7.825e-3 -92.976 0.022 88.415 0.995 -1.382 0.011 64.322
351.301 0.011 64.691 0.995 -1.41 0.022 88.382 7.984e-3 -93.036
          0.995 -1.41 0.011 64.691 7.984e-3 -93.036 0.022 88.382
          0.022 88.382 7.984e-3 -93.036 0.011 64.691 0.995 -1.41
          7.984e-3 -93.036 0.022 88.382 0.995 -1.41 0.011 64.691
358.308 0.011 65.045 0.995 -1.438 0.023 88.35 8.143e-3 -93.097
          0.995 -1.438 0.011 65.045 8.143e-3 -93.097 0.023 88.35
          0.023 88.35 8.143e-3 -93.097 0.011 65.045 0.995 -1.438
          8.143e-3 -93.097 0.023 88.35 0.995 -1.438 0.011 65.045
365.315 0.012 65.386 0.995 -1.466 0.023 88.318 8.302e-3 -93.158
          0.995 -1.466 0.012 65.386 8.302e-3 -93.158 0.023 88.318
          0.023 88.318 8.302e-3 -93.158 0.012 65.386 0.995 -1.466
          8.302e-3 -93.158 0.023 88.318 0.995 -1.466 0.012 65.386
372.322 0.012 65.715 0.995 -1.494 0.024 88.286 8.461e-3 -93.218
          0.995 -1.494 0.012 65.715 8.461e-3 -93.218 0.024 88.286
          0.024 88.286 8.461e-3 -93.218 0.012 65.715 0.995 -1.494
          8.461e-3 -93.218 0.024 88.286 0.995 -1.494 0.012 65.715
379.329 0.012 66.031 0.995 -1.522 0.024 88.254 8.62e-3 -93.279
          0.995 -1.522 0.012 66.031 8.62e-3 -93.279 0.024 88.254
          0.024 88.254 8.62e-3 -93.279 0.012 66.031 0.995 -1.522
          8.62e-3 -93.279 0.024 88.254 0.995 -1.522 0.012 66.031
386.336 0.012 66.336 0.995 -1.55 0.025 88.221 8.779e-3 -93.34
          0.995 -1.55 0.012 66.336 8.779e-3 -93.34 0.025 88.221
          0.025 88.221 8.779e-3 -93.34 0.012 66.336 0.995 -1.55
          8.779e-3 -93.34 0.025 88.221 0.995 -1.55 0.012 66.336
393.343 0.012 66.63 0.995 -1.578 0.025 88.189 8.938e-3 -93.4
          0.995 -1.578 0.012 66.63 8.938e-3 -93.4 0.025 88.189
          0.025 88.189 8.938e-3 -93.4 0.012 66.63 0.995 -1.578
          8.938e-3 -93.4 0.025 88.189 0.995 -1.578 0.012 66.63
400.35 0.012 66.913 0.995 -1.606 0.025 88.157 9.097e-3 -93.461
          0.995 -1.606 0.012 66.913 9.097e-3 -93.461 0.025 88.157
          0.025 88.157 9.097e-3 -93.461 0.012 66.913 0.995 -1.606
          9.097e-3 -93.461 0.025 88.157 0.995 -1.606 0.012 66.913
407.357 0.013 67.187 0.995 -1.635 0.026 88.125 9.256e-3 -93.522
          0.995 -1.635 0.013 67.187 9.256e-3 -93.522 0.026 88.125
          0.026 88.125 9.256e-3 -93.522 0.013 67.187 0.995 -1.635
          9.256e-3 -93.522 0.026 88.125 0.995 -1.635 0.013 67.187
414.364 0.013 67.451 0.995 -1.663 0.026 88.093 9.415e-3 -93.582
          0.995 -1.663 0.013 67.451 9.415e-3 -93.582 0.026 88.093
          0.026 88.093 9.415e-3 -93.582 0.013 67.451 0.995 -1.663
          9.415e-3 -93.582 0.026 88.093 0.995 -1.663 0.013 67.451
421.371 0.013 67.705 0.995 -1.691 0.027 88.06 9.574e-3 -93.643
          0.995 -1.691 0.013 67.705 9.574e-3 -93.643 0.027 88.06
          0.027 88.06 9.574e-3 -93.643 0.013 67.705 0.995 -1.691
          9.574e-3 -93.643 0.027 88.06 0.995 -1.691 0.013 67.705
428.378 0.013 67.951 0.995 -1.719 0.027 88.028 9.733e-3 -93.703
          0.995 -1.719 0.013 67.951 9.733e-3 -93.703 0.027 88.028
          0.027 88.028 9.733e-3 -93.703 0.013 67.951 0.995 -1.719
          9.733e-3 -93.703 0.027 88.028 0.995 -1.719 0.013 67.951
435.385 0.013 68.188 0.995 -1.747 0.028 87.996 9.892e-3 -93.764
          0.995 -1.747 0.013 68.188 9.892e-3 -93.764 0.028 87.996
          0.028 87.996 9.892e-3 -93.764 0.013 68.188 0.995 -1.747
          9.892e-3 -93.764 0.028 87.996 0.995 -1.747 0.013 68.188
442.392 0.014 68.417 0.995 -1.775 0.028 87.964 0.01 -93.825
          0.995 -1.775 0.014 68.417 0.01 -93.825 0.028 87.964
          0.028 87.964 0.01 -93.825 0.014 68.417 0.995 -1.775
          0.01 -93.825 0.028 87.964 0.995 -1.775 0.014 68.417
449.399 0.014 68.639 0.995 -1.803 0.029 87.932 0.01 -93.885
          0.995 -1.803 0.014 68.639 0.01 -93.885 0.029 87.932
          0.029 87.932 0.01 -93.885 0.014 68.639 0.995 -1.803
          0.01 -93.885 0.029 87.932 0.995 -1.803 0.014 68.639
456.406 0.014 68.852 0.995 -1.831 0.029 87.9 0.01 -93.946
          0.995 -1.831 0.014 68.852 0.01 -93.946 0.029 87.9
          0.029 87.9 0.01 -93.946 0.014 68.852 0.995 -1.831
          0.01 -93.946 0.029 87.9 0.995 -1.831 0.014 68.852
463.413 0.014 69.059 0.995 -1.859 0.03 87.867 0.011 -94.007
          0.995 -1.859 0.014 69.059 0.011 -94.007 0.03 87.867
          0.03 87.867 0.011 -94.007 0.014 69.059 0.995 -1.859
          0.011 -94.007 0.03 87.867 0.995 -1.859 0.014 69.059
470.42 0.014 69.259 0.995 -1.887 0.03 87.835 0.011 -94.067
          0.995 -1.887 0.014 69.259 0.011 -94.067 0.03 87.835
          0.03 87.835 0.011 -94.067 0.014 69.259 0.995 -1.887
          0.011 -94.067 0.03 87.835 0.995 -1.887 0.014 69.259
477.427 0.015 69.452 0.995 -1.915 0.03 87.803 0.011 -94.128
          0.995 -1.915 0.015 69.452 0.011 -94.128 0.03 87.803
          0.03 87.803 0.011 -94.128 0.015 69.452 0.995 -1.915
          0.011 -94.128 0.03 87.803 0.995 -1.915 0.015 69.452
484.434 0.015 69.639 0.995 -1.943 0.031 87.771 0.011 -94.188
          0.995 -1.943 0.015 69.639 0.011 -94.188 0.031 87.771
          0.031 87.771 0.011 -94.188 0.015 69.639 0.995 -1.943
          0.011 -94.188 0.031 87.771 0.995 -1.943 0.015 69.639
491.441 0.015 69.82 0.995 -1.971 0.031 87.739 0.011 -94.249
          0.995 -1.971 0.015 69.82 0.011 -94.249 0.031 87.739
          0.031 87.739 0.011 -94.249 0.015 69.82 0.995 -1.971
          0.011 -94.249 0.031 87.739 0.995 -1.971 0.015 69.82
498.448 0.015 69.994 0.995 -2 0.032 87.706 0.011 -94.31
          0.995 -2 0.015 69.994 0.011 -94.31 0.032 87.706
          0.032 87.706 0.011 -94.31 0.015 69.994 0.995 -2
          0.011 -94.31 0.032 87.706 0.995 -2 0.015 69.994
505.455 0.015 70.163 0.995 -2.028 0.032 87.674 0.011 -94.37
          0.995 -2.028 0.015 70.163 0.011 -94.37 0.032 87.674
          0.032 87.674 0.011 -94.37 0.015 70.163 0.995 -2.028
          0.011 -94.37 0.032 87.674 0.995 -2.028 0.015 70.163
512.462 0.016 70.327 0.995 -2.056 0.033 87.642 0.012 -94.431
          0.995 -2.056 0.016 70.327 0.012 -94.431 0.033 87.642
          0.033 87.642 0.012 -94.431 0.016 70.327 0.995 -2.056
          0.012 -94.431 0.033 87.642 0.995 -2.056 0.016 70.327
519.469 0.016 70.485 0.995 -2.084 0.033 87.61 0.012 -94.491
          0.995 -2.084 0.016 70.485 0.012 -94.491 0.033 87.61
          0.033 87.61 0.012 -94.491 0.016 70.485 0.995 -2.084
          0.012 -94.491 0.033 87.61 0.995 -2.084 0.016 70.485
526.476 0.016 70.638 0.995 -2.112 0.034 87.578 0.012 -94.552
          0.995 -2.112 0.016 70.638 0.012 -94.552 0.034 87.578
          0.034 87.578 0.012 -94.552 0.016 70.638 0.995 -2.112
          0.012 -94.552 0.034 87.578 0.995 -2.112 0.016 70.638
533.483 0.016 70.787 0.995 -2.14 0.034 87.546 0.012 -94.612
          0.995 -2.14 0.016 70.787 0.012 -94.612 0.034 87.546
          0.034 87.546 0.012 -94.612 0.016 70.787 0.995 -2.14
          0.012 -94.612 0.034 87.546 0.995 -2.14 0.016 70.787
540.49 0.016 70.93 0.995 -2.168 0.034 87.514 0.012 -94.673
          0.995 -2.168 0.016 70.93 0.012 -94.673 0.034 87.514
          0.034 87.514 0.012 -94.673 0.016 70.93 0.995 -2.168
          0.012 -94.673 0.034 87.514 0.995 -2.168 0.016 70.93
547.497 0.017 71.069 0.995 -2.196 0.035 87.481 0.012 -94.734
          0.995 -2.196 0.017 71.069 0.012 -94.734 0.035 87.481
          0.035 87.481 0.012 -94.734 0.017 71.069 0.995 -2.196
          0.012 -94.734 0.035 87.481 0.995 -2.196 0.017 71.069
554.505 0.017 71.204 0.995 -2.224 0.035 87.449 0.013 -94.794
          0.995 -2.224 0.017 71.204 0.013 -94.794 0.035 87.449
          0.035 87.449 0.013 -94.794 0.017 71.204 0.995 -2.224
          0.013 -94.794 0.035 87.449 0.995 -2.224 0.017 71.204
561.512 0.017 71.334 0.995 -2.252 0.036 87.417 0.013 -94.855
          0.995 -2.252 0.017 71.334 0.013 -94.855 0.036 87.417
          0.036 87.417 0.013 -94.855 0.017 71.334 0.995 -2.252
          0.013 -94.855 0.036 87.417 0.995 -2.252 0.017 71.334
568.519 0.017 71.46 0.995 -2.28 0.036 87.385 0.013 -94.915
          0.995 -2.28 0.017 71.46 0.013 -94.915 0.036 87.385
          0.036 87.385 0.013 -94.915 0.017 71.46 0.995 -2.28
          0.013 -94.915 0.036 87.385 0.995 -2.28 0.017 71.46
575.526 0.017 71.583 0.995 -2.308 0.037 87.353 0.013 -94.976
          0.995 -2.308 0.017 71.583 0.013 -94.976 0.037 87.353
