!	AVX THIN FILM OPERATION
!
!	CP0603 HIGH DIRECTIVITY COUPLERS
!	P/N CP0603AxxxxFLTR
!
!	Network	Analyzer HP8720ES.07.64:Feb23,2000 Serial No.US39172382
!	Hewlett-Packard								
!
!	24 July 2003	02:45:57

# MHZ S MA R 50

50 3.682e-3 -35.951 0.997 -0.186 1.639e-3 89.798 497.6e-6 89.476
          0.997 -0.186 3.682e-3 -35.951 497.6e-6 89.476 1.639e-3 89.798
          1.639e-3 89.798 497.6e-6 89.476 3.682e-3 -35.951 0.997 -0.186
          497.6e-6 89.476 1.639e-3 89.798 0.997 -0.186 3.682e-3 -35.951
64.912 4.09e-3 -43.325 0.997 -0.242 2.127e-3 89.707 646.1e-6 89.219
          0.997 -0.242 4.09e-3 -43.325 646.1e-6 89.219 2.127e-3 89.707
          2.127e-3 89.707 646.1e-6 89.219 4.09e-3 -43.325 0.997 -0.242
          646.1e-6 89.219 2.127e-3 89.707 0.997 -0.242 4.09e-3 -43.325
79.825 4.552e-3 -49.298 0.997 -0.297 2.616e-3 89.628 794.5e-6 89.003
          0.997 -0.297 4.552e-3 -49.298 794.5e-6 89.003 2.616e-3 89.628
          2.616e-3 89.628 794.5e-6 89.003 4.552e-3 -49.298 0.997 -0.297
          794.5e-6 89.003 2.616e-3 89.628 0.997 -0.297 4.552e-3 -49.298
94.737 5.053e-3 -54.142 0.997 -0.353 3.105e-3 89.555 942.9e-6 88.803
          0.997 -0.353 5.053e-3 -54.142 942.9e-6 88.803 3.105e-3 89.555
          3.105e-3 89.555 942.9e-6 88.803 5.053e-3 -54.142 0.997 -0.353
          942.9e-6 88.803 3.105e-3 89.555 0.997 -0.353 5.053e-3 -54.142
109.649 5.583e-3 -58.101 0.997 -0.409 3.593e-3 89.484 1.091e-3 88.612
          0.997 -0.409 5.583e-3 -58.101 1.091e-3 88.612 3.593e-3 89.484
          3.593e-3 89.484 1.091e-3 88.612 5.583e-3 -58.101 0.997 -0.409
          1.091e-3 88.612 3.593e-3 89.484 0.997 -0.409 5.583e-3 -58.101
124.561 6.134e-3 -61.372 0.997 -0.464 4.082e-3 89.414 1.24e-3 88.425
          0.997 -0.464 6.134e-3 -61.372 1.24e-3 88.425 4.082e-3 89.414
          4.082e-3 89.414 1.24e-3 88.425 6.134e-3 -61.372 0.997 -0.464
          1.24e-3 88.425 4.082e-3 89.414 0.997 -0.464 6.134e-3 -61.372
139.474 6.702e-3 -64.108 0.997 -0.52 4.571e-3 89.345 1.388e-3 88.241
          0.997 -0.52 6.702e-3 -64.108 1.388e-3 88.241 4.571e-3 89.345
          4.571e-3 89.345 1.388e-3 88.241 6.702e-3 -64.108 0.997 -0.52
          1.388e-3 88.241 4.571e-3 89.345 0.997 -0.52 6.702e-3 -64.108
154.386 7.281e-3 -66.422 0.997 -0.575 5.059e-3 89.277 1.537e-3 88.059
          0.997 -0.575 7.281e-3 -66.422 1.537e-3 88.059 5.059e-3 89.277
          5.059e-3 89.277 1.537e-3 88.059 7.281e-3 -66.422 0.997 -0.575
          1.537e-3 88.059 5.059e-3 89.277 0.997 -0.575 7.281e-3 -66.422
169.298 7.87e-3 -68.402 0.997 -0.631 5.548e-3 89.209 1.685e-3 87.878
          0.997 -0.631 7.87e-3 -68.402 1.685e-3 87.878 5.548e-3 89.209
          5.548e-3 89.209 1.685e-3 87.878 7.87e-3 -68.402 0.997 -0.631
          1.685e-3 87.878 5.548e-3 89.209 0.997 -0.631 7.87e-3 -68.402
184.211 8.467e-3 -70.113 0.997 -0.686 6.036e-3 89.142 1.834e-3 87.698
          0.997 -0.686 8.467e-3 -70.113 1.834e-3 87.698 6.036e-3 89.142
          6.036e-3 89.142 1.834e-3 87.698 8.467e-3 -70.113 0.997 -0.686
          1.834e-3 87.698 6.036e-3 89.142 0.997 -0.686 8.467e-3 -70.113
199.123 9.07e-3 -71.606 0.997 -0.742 6.525e-3 89.074 1.982e-3 87.519
          0.997 -0.742 9.07e-3 -71.606 1.982e-3 87.519 6.525e-3 89.074
          6.525e-3 89.074 1.982e-3 87.519 9.07e-3 -71.606 0.997 -0.742
          1.982e-3 87.519 6.525e-3 89.074 0.997 -0.742 9.07e-3 -71.606
214.035 9.677e-3 -72.92 0.997 -0.797 7.014e-3 89.007 2.13e-3 87.339
          0.997 -0.797 9.677e-3 -72.92 2.13e-3 87.339 7.014e-3 89.007
          7.014e-3 89.007 2.13e-3 87.339 9.677e-3 -72.92 0.997 -0.797
          2.13e-3 87.339 7.014e-3 89.007 0.997 -0.797 9.677e-3 -72.92
228.947 0.01 -74.085 0.997 -0.853 7.502e-3 88.94 2.279e-3 87.161
          0.997 -0.853 0.01 -74.085 2.279e-3 87.161 7.502e-3 88.94
          7.502e-3 88.94 2.279e-3 87.161 0.01 -74.085 0.997 -0.853
          2.279e-3 87.161 7.502e-3 88.94 0.997 -0.853 0.01 -74.085
243.86 0.011 -75.126 0.997 -0.909 7.991e-3 88.873 2.427e-3 86.982
          0.997 -0.909 0.011 -75.126 2.427e-3 86.982 7.991e-3 88.873
          7.991e-3 88.873 2.427e-3 86.982 0.011 -75.126 0.997 -0.909
          2.427e-3 86.982 7.991e-3 88.873 0.997 -0.909 0.011 -75.126
258.772 0.012 -76.063 0.997 -0.964 8.479e-3 88.806 2.576e-3 86.804
          0.997 -0.964 0.012 -76.063 2.576e-3 86.804 8.479e-3 88.806
          8.479e-3 88.806 2.576e-3 86.804 0.012 -76.063 0.997 -0.964
          2.576e-3 86.804 8.479e-3 88.806 0.997 -0.964 0.012 -76.063
273.684 0.012 -76.91 0.997 -1.02 8.967e-3 88.739 2.724e-3 86.625
          0.997 -1.02 0.012 -76.91 2.724e-3 86.625 8.967e-3 88.739
          8.967e-3 88.739 2.724e-3 86.625 0.012 -76.91 0.997 -1.02
          2.724e-3 86.625 8.967e-3 88.739 0.997 -1.02 0.012 -76.91
288.596 0.013 -77.681 0.997 -1.075 9.456e-3 88.672 2.873e-3 86.447
          0.997 -1.075 0.013 -77.681 2.873e-3 86.447 9.456e-3 88.672
          9.456e-3 88.672 2.873e-3 86.447 0.013 -77.681 0.997 -1.075
          2.873e-3 86.447 9.456e-3 88.672 0.997 -1.075 0.013 -77.681
303.509 0.013 -78.386 0.997 -1.131 9.944e-3 88.605 3.021e-3 86.269
          0.997 -1.131 0.013 -78.386 3.021e-3 86.269 9.944e-3 88.605
          9.944e-3 88.605 3.021e-3 86.269 0.013 -78.386 0.997 -1.131
          3.021e-3 86.269 9.944e-3 88.605 0.997 -1.131 0.013 -78.386
318.421 0.014 -79.033 0.997 -1.186 0.01 88.538 3.17e-3 86.091
          0.997 -1.186 0.014 -79.033 3.17e-3 86.091 0.01 88.538
          0.01 88.538 3.17e-3 86.091 0.014 -79.033 0.997 -1.186
          3.17e-3 86.091 0.01 88.538 0.997 -1.186 0.014 -79.033
333.333 0.015 -79.631 0.997 -1.242 0.011 88.471 3.318e-3 85.913
          0.997 -1.242 0.015 -79.631 3.318e-3 85.913 0.011 88.471
          0.011 88.471 3.318e-3 85.913 0.015 -79.631 0.997 -1.242
          3.318e-3 85.913 0.011 88.471 0.997 -1.242 0.015 -79.631
348.246 0.015 -80.184 0.997 -1.297 0.011 88.404 3.467e-3 85.736
          0.997 -1.297 0.015 -80.184 3.467e-3 85.736 0.011 88.404
          0.011 88.404 3.467e-3 85.736 0.015 -80.184 0.997 -1.297
          3.467e-3 85.736 0.011 88.404 0.997 -1.297 0.015 -80.184
363.158 0.016 -80.698 0.997 -1.353 0.012 88.337 3.615e-3 85.558
          0.997 -1.353 0.016 -80.698 3.615e-3 85.558 0.012 88.337
          0.012 88.337 3.615e-3 85.558 0.016 -80.698 0.997 -1.353
          3.615e-3 85.558 0.012 88.337 0.997 -1.353 0.016 -80.698
378.07 0.017 -81.178 0.997 -1.408 0.012 88.27 3.764e-3 85.38
          0.997 -1.408 0.017 -81.178 3.764e-3 85.38 0.012 88.27
          0.012 88.27 3.764e-3 85.38 0.017 -81.178 0.997 -1.408
          3.764e-3 85.38 0.012 88.27 0.997 -1.408 0.017 -81.178
392.982 0.017 -81.628 0.997 -1.464 0.013 88.203 3.912e-3 85.203
          0.997 -1.464 0.017 -81.628 3.912e-3 85.203 0.013 88.203
          0.013 88.203 3.912e-3 85.203 0.017 -81.628 0.997 -1.464
          3.912e-3 85.203 0.013 88.203 0.997 -1.464 0.017 -81.628
407.895 0.018 -82.049 0.997 -1.52 0.013 88.137 4.061e-3 85.025
          0.997 -1.52 0.018 -82.049 4.061e-3 85.025 0.013 88.137
          0.013 88.137 4.061e-3 85.025 0.018 -82.049 0.997 -1.52
          4.061e-3 85.025 0.013 88.137 0.997 -1.52 0.018 -82.049
422.807 0.018 -82.447 0.997 -1.575 0.014 88.07 4.209e-3 84.847
          0.997 -1.575 0.018 -82.447 4.209e-3 84.847 0.014 88.07
          0.014 88.07 4.209e-3 84.847 0.018 -82.447 0.997 -1.575
          4.209e-3 84.847 0.014 88.07 0.997 -1.575 0.018 -82.447
437.719 0.019 -82.821 0.997 -1.631 0.014 88.003 4.358e-3 84.67
          0.997 -1.631 0.019 -82.821 4.358e-3 84.67 0.014 88.003
          0.014 88.003 4.358e-3 84.67 0.019 -82.821 0.997 -1.631
          4.358e-3 84.67 0.014 88.003 0.997 -1.631 0.019 -82.821
452.632 0.02 -83.176 0.997 -1.686 0.015 87.936 4.506e-3 84.492
          0.997 -1.686 0.02 -83.176 4.506e-3 84.492 0.015 87.936
          0.015 87.936 4.506e-3 84.492 0.02 -83.176 0.997 -1.686
          4.506e-3 84.492 0.015 87.936 0.997 -1.686 0.02 -83.176
467.544 0.02 -83.512 0.997 -1.742 0.015 87.869 4.655e-3 84.315
          0.997 -1.742 0.02 -83.512 4.655e-3 84.315 0.015 87.869
          0.015 87.869 4.655e-3 84.315 0.02 -83.512 0.997 -1.742
          4.655e-3 84.315 0.015 87.869 0.997 -1.742 0.02 -83.512
482.456 0.021 -83.832 0.997 -1.797 0.016 87.803 4.804e-3 84.137
          0.997 -1.797 0.021 -83.832 4.804e-3 84.137 0.016 87.803
          0.016 87.803 4.804e-3 84.137 0.021 -83.832 0.997 -1.797
          4.804e-3 84.137 0.016 87.803 0.997 -1.797 0.021 -83.832
497.368 0.022 -84.137 0.997 -1.853 0.016 87.736 4.952e-3 83.96
          0.997 -1.853 0.022 -84.137 4.952e-3 83.96 0.016 87.736
          0.016 87.736 4.952e-3 83.96 0.022 -84.137 0.997 -1.853
          4.952e-3 83.96 0.016 87.736 0.997 -1.853 0.022 -84.137
512.281 0.022 -84.428 0.997 -1.908 0.017 87.669 5.101e-3 83.783
          0.997 -1.908 0.022 -84.428 5.101e-3 83.783 0.017 87.669
          0.017 87.669 5.101e-3 83.783 0.022 -84.428 0.997 -1.908
          5.101e-3 83.783 0.017 87.669 0.997 -1.908 0.022 -84.428
527.193 0.023 -84.706 0.997 -1.964 0.017 87.602 5.249e-3 83.605
          0.997 -1.964 0.023 -84.706 5.249e-3 83.605 0.017 87.602
          0.017 87.602 5.249e-3 83.605 0.023 -84.706 0.997 -1.964
          5.249e-3 83.605 0.017 87.602 0.997 -1.964 0.023 -84.706
542.105 0.023 -84.972 0.997 -2.019 0.018 87.536 5.398e-3 83.428
          0.997 -2.019 0.023 -84.972 5.398e-3 83.428 0.018 87.536
          0.018 87.536 5.398e-3 83.428 0.023 -84.972 0.997 -2.019
          5.398e-3 83.428 0.018 87.536 0.997 -2.019 0.023 -84.972
557.018 0.024 -85.228 0.997 -2.075 0.018 87.469 5.547e-3 83.251
          0.997 -2.075 0.024 -85.228 5.547e-3 83.251 0.018 87.469
          0.018 87.469 5.547e-3 83.251 0.024 -85.228 0.997 -2.075
          5.547e-3 83.251 0.018 87.469 0.997 -2.075 0.024 -85.228
571.93 0.025 -85.473 0.996 -2.13 0.019 87.402 5.695e-3 83.073
          0.996 -2.13 0.025 -85.473 5.695e-3 83.073 0.019 87.402
          0.019 87.402 5.695e-3 83.073 0.025 -85.473 0.996 -2.13
          5.695e-3 83.073 0.019 87.402 0.996 -2.13 0.025 -85.473
586.842 0.025 -85.71 0.996 -2.186 0.019 87.336 5.844e-3 82.896
          0.996 -2.186 0.025 -85.71 5.844e-3 82.896 0.019 87.336
          0.019 87.336 5.844e-3 82.896 0.025 -85.71 0.996 -2.186
          5.844e-3 82.896 0.019 87.336 0.996 -2.186 0.025 -85.71
601.754 0.026 -85.938 0.996 -2.241 0.02 87.269 5.993e-3 82.719
          0.996 -2.241 0.026 -85.938 5.993e-3 82.719 0.02 87.269
          0.02 87.269 5.993e-3 82.719 0.026 -85.938 0.996 -2.241
          5.993e-3 82.719 0.02 87.269 0.996 -2.241 0.026 -85.938
616.667 0.027 -86.158 0.996 -2.297 0.02 87.202 6.141e-3 82.542
          0.996 -2.297 0.027 -86.158 6.141e-3 82.542 0.02 87.202
          0.02 87.202 6.141e-3 82.542 0.027 -86.158 0.996 -2.297
          6.141e-3 82.542 0.02 87.202 0.996 -2.297 0.027 -86.158
631.579 0.027 -86.37 0.996 -2.352 0.021 87.136 6.29e-3 82.364
          0.996 -2.352 0.027 -86.37 6.29e-3 82.364 0.021 87.136
          0.021 87.136 6.29e-3 82.364 0.027 -86.37 0.996 -2.352
          6.29e-3 82.364 0.021 87.136 0.996 -2.352 0.027 -86.37
646.491 0.028 -86.576 0.996 -2.408 0.021 87.069 6.439e-3 82.187
          0.996 -2.408 0.028 -86.576 6.439e-3 82.187 0.021 87.069
          0.021 87.069 6.439e-3 82.187 0.028 -86.576 0.996 -2.408
          6.439e-3 82.187 0.021 87.069 0.996 -2.408 0.028 -86.576
661.404 0.029 -86.775 0.996 -2.463 0.022 87.002 6.587e-3 82.01
          0.996 -2.463 0.029 -86.775 6.587e-3 82.01 0.022 87.002
          0.022 87.002 6.587e-3 82.01 0.029 -86.775 0.996 -2.463
          6.587e-3 82.01 0.022 87.002 0.996 -2.463 0.029 -86.775
676.316 0.029 -86.968 0.996 -2.519 0.022 86.936 6.736e-3 81.833
          0.996 -2.519 0.029 -86.968 6.736e-3 81.833 0.022 86.936
          0.022 86.936 6.736e-3 81.833 0.029 -86.968 0.996 -2.519
          6.736e-3 81.833 0.022 86.936 0.996 -2.519 0.029 -86.968
691.228 0.03 -87.156 0.996 -2.574 0.023 86.869 6.885e-3 81.656
          0.996 -2.574 0.03 -87.156 6.885e-3 81.656 0.023 86.869
          0.023 86.869 6.885e-3 81.656 0.03 -87.156 0.996 -2.574
          6.885e-3 81.656 0.023 86.869 0.996 -2.574 0.03 -87.156
706.14 0.03 -87.338 0.996 -2.629 0.023 86.802 7.034e-3 81.479
          0.996 -2.629 0.03 -87.338 7.034e-3 81.479 0.023 86.802
          0.023 86.802 7.034e-3 81.479 0.03 -87.338 0.996 -2.629
          7.034e-3 81.479 0.023 86.802 0.996 -2.629 0.03 -87.338
721.053 0.031 -87.516 0.996 -2.685 0.024 86.736 7.182e-3 81.302
          0.996 -2.685 0.031 -87.516 7.182e-3 81.302 0.024 86.736
          0.024 86.736 7.182e-3 81.302 0.031 -87.516 0.996 -2.685
          7.182e-3 81.302 0.024 86.736 0.996 -2.685 0.031 -87.516
735.965 0.032 -87.689 0.996 -2.74 0.024 86.669 7.331e-3 81.125
          0.996 -2.74 0.032 -87.689 7.331e-3 81.125 0.024 86.669
          0.024 86.669 7.331e-3 81.125 0.032 -87.689 0.996 -2.74
          7.331e-3 81.125 0.024 86.669 0.996 -2.74 0.032 -87.689
750.877 0.032 -87.857 0.996 -2.796 0.025 86.603 7.48e-3 80.948
          0.996 -2.796 0.032 -87.857 7.48e-3 80.948 0.025 86.603
          0.025 86.603 7.48e-3 80.948 0.032 -87.857 0.996 -2.796
          7.48e-3 80.948 0.025 86.603 0.996 -2.796 0.032 -87.857
765.789 0.033 -88.021 0.996 -2.851 0.025 86.536 7.629e-3 80.771
          0.996 -2.851 0.033 -88.021 7.629e-3 80.771 0.025 86.536
          0.025 86.536 7.629e-3 80.771 0.033 -88.021 0.996 -2.851
          7.629e-3 80.771 0.025 86.536 0.996 -2.851 0.033 -88.021
780.702 0.034 -88.182 0.996 -2.907 0.026 86.469 7.778e-3 80.594
          0.996 -2.907 0.034 -88.182 7.778e-3 80.594 0.026 86.469
          0.026 86.469 7.778e-3 80.594 0.034 -88.182 0.996 -2.907
          7.778e-3 80.594 0.026 86.469 0.996 -2.907 0.034 -88.182
795.614 0.034 -88.339 0.996 -2.962 0.026 86.403 7.926e-3 80.417
          0.996 -2.962 0.034 -88.339 7.926e-3 80.417 0.026 86.403
          0.026 86.403 7.926e-3 80.417 0.034 -88.339 0.996 -2.962
          7.926e-3 80.417 0.026 86.403 0.996 -2.962 0.034 -88.339
810.526 0.035 -88.492 0.996 -3.018 0.027 86.336 8.075e-3 80.24
          0.996 -3.018 0.035 -88.492 8.075e-3 80.24 0.027 86.336
          0.027 86.336 8.075e-3 80.24 0.035 -88.492 0.996 -3.018
          8.075e-3 80.24 0.027 86.336 0.996 -3.018 0.035 -88.492
825.439 0.036 -88.642 0.996 -3.073 0.027 86.27 8.224e-3 80.063
          0.996 -3.073 0.036 -88.642 8.224e-3 80.063 0.027 86.27
          0.027 86.27 8.224e-3 80.063 0.036 -88.642 0.996 -3.073
          8.224e-3 80.063 0.027 86.27 0.996 -3.073 0.036 -88.642
840.351 0.036 -88.789 0.996 -3.128 0.027 86.203 8.373e-3 79.886
          0.996 -3.128 0.036 -88.789 8.373e-3 79.886 0.027 86.203
          0.027 86.203 8.373e-3 79.886 0.036 -88.789 0.996 -3.128
          8.373e-3 79.886 0.027 86.203 0.996 -3.128 0.036 -88.789
855.263 0.037 -88.933 0.996 -3.184 0.028 86.137 8.522e-3 79.71
          0.996 -3.184 0.037 -88.933 8.522e-3 79.71 0.028 86.137
          0.028 86.137 8.522e-3 79.71 0.037 -88.933 0.996 -3.184
          8.522e-3 79.71 0.028 86.137 0.996 -3.184 0.037 -88.933
870.175 0.037 -89.074 0.996 -3.239 0.028 86.07 8.671e-3 79.533
          0.996 -3.239 0.037 -89.074 8.671e-3 79.533 0.028 86.07
          0.028 86.07 8.671e-3 79.533 0.037 -89.074 0.996 -3.239
          8.671e-3 79.533 0.028 86.07 0.996 -3.239 0.037 -89.074
885.088 0.038 -89.212 0.996 -3.295 0.029 86.004 8.82e-3 79.356
          0.996 -3.295 0.038 -89.212 8.82e-3 79.356 0.029 86.004
          0.029 86.004 8.82e-3 79.356 0.038 -89.212 0.996 -3.295
          8.82e-3 79.356 0.029 86.004 0.996 -3.295 0.038 -89.212
900 0.039 -89.348 0.996 -3.35 0.029 85.937 8.969e-3 79.179
          0.996 -3.35 0.039 -89.348 8.969e-3 79.179 0.029 85.937
          0.029 85.937 8.969e-3 79.179 0.039 -89.348 0.996 -3.35
          8.969e-3 79.179 0.029 85.937 0.996 -3.35 0.039 -89.348
914.912 0.039 -89.481 0.996 -3.405 0.03 85.871 9.118e-3 79.003
          0.996 -3.405 0.039 -89.481 9.118e-3 79.003 0.03 85.871
          0.03 85.871 9.118e-3 79.003 0.039 -89.481 0.996 -3.405
          9.118e-3 79.003 0.03 85.871 0.996 -3.405 0.039 -89.481
929.825 0.04 -89.613 0.996 -3.461 0.03 85.804 9.267e-3 78.826
          0.996 -3.461 0.04 -89.613 9.267e-3 78.826 0.03 85.804
          0.03 85.804 9.267e-3 78.826 0.04 -89.613 0.996 -3.461
          9.267e-3 78.826 0.03 85.804 0.996 -3.461 0.04 -89.613
944.737 0.041 -89.742 0.996 -3.516 0.031 85.738 9.416e-3 78.649
          0.996 -3.516 0.041 -89.742 9.416e-3 78.649 0.031 85.738
          0.031 85.738 9.416e-3 78.649 0.041 -89.742 0.996 -3.516
          9.416e-3 78.649 0.031 85.738 0.996 -3.516 0.041 -89.742
959.649 0.041 -89.869 0.996 -3.571 0.031 85.671 9.565e-3 78.473
          0.996 -3.571 0.041 -89.869 9.565e-3 78.473 0.031 85.671
          0.031 85.671 9.565e-3 78.473 0.041 -89.869 0.996 -3.571
          9.565e-3 78.473 0.031 85.671 0.996 -3.571 0.041 -89.869
974.561 0.042 -89.993 0.996 -3.627 0.032 85.605 9.714e-3 78.296
          0.996 -3.627 0.042 -89.993 9.714e-3 78.296 0.032 85.605
          0.032 85.605 9.714e-3 78.296 0.042 -89.993 0.996 -3.627
          9.714e-3 78.296 0.032 85.605 0.996 -3.627 0.042 -89.993
989.474 0.043 -90.116 0.996 -3.682 0.032 85.539 9.863e-3 78.12
          0.996 -3.682 0.043 -90.116 9.863e-3 78.12 0.032 85.539
          0.032 85.539 9.863e-3 78.12 0.043 -90.116 0.996 -3.682
          9.863e-3 78.12 0.032 85.539 0.996 -3.682 0.043 -90.116
1004.386 0.043 -90.238 0.995 -3.737 0.033 85.472 0.01 77.943
          0.995 -3.737 0.043 -90.238 0.01 77.943 0.033 85.472
          0.033 85.472 0.01 77.943 0.043 -90.238 0.995 -3.737
          0.01 77.943 0.033 85.472 0.995 -3.737 0.043 -90.238
1019.298 0.044 -90.357 0.995 -3.793 0.033 85.406 0.01 77.767
          0.995 -3.793 0.044 -90.357 0.01 77.767 0.033 85.406
          0.033 85.406 0.01 77.767 0.044 -90.357 0.995 -3.793
          0.01 77.767 0.033 85.406 0.995 -3.793 0.044 -90.357
1034.211 0.044 -90.475 0.995 -3.848 0.034 85.339 0.01 77.59
          0.995 -3.848 0.044 -90.475 0.01 77.59 0.034 85.339
          0.034 85.339 0.01 77.59 0.044 -90.475 0.995 -3.848
          0.01 77.59 0.034 85.339 0.995 -3.848 0.044 -90.475
1049.123 0.045 -90.591 0.995 -3.903 0.034 85.273 0.01 77.414
          0.995 -3.903 0.045 -90.591 0.01 77.414 0.034 85.273
          0.034 85.273 0.01 77.414 0.045 -90.591 0.995 -3.903
          0.01 77.414 0.034 85.273 0.995 -3.903 0.045 -90.591
1064.035 0.046 -90.706 0.995 -3.959 0.035 85.207 0.011 77.237
          0.995 -3.959 0.046 -90.706 0.011 77.237 0.035 85.207
          0.035 85.207 0.011 77.237 0.046 -90.706 0.995 -3.959
          0.011 77.237 0.035 85.207 0.995 -3.959 0.046 -90.706
1078.947 0.046 -90.819 0.995 -4.014 0.035 85.14 0.011 77.061
          0.995 -4.014 0.046 -90.819 0.011 77.061 0.035 85.14
          0.035 85.14 0.011 77.061 0.046 -90.819 0.995 -4.014
          0.011 77.061 0.035 85.14 0.995 -4.014 0.046 -90.819
1093.86 0.047 -90.931 0.995 -4.069 0.036 85.074 0.011 76.885
          0.995 -4.069 0.047 -90.931 0.011 76.885 0.036 85.074
          0.036 85.074 0.011 76.885 0.047 -90.931 0.995 -4.069
          0.011 76.885 0.036 85.074 0.995 -4.069 0.047 -90.931
1108.772 0.048 -91.041 0.995 -4.125 0.036 85.008 0.011 76.708
          0.995 -4.125 0.048 -91.041 0.011 76.708 0.036 85.008
          0.036 85.008 0.011 76.708 0.048 -91.041 0.995 -4.125
          0.011 76.708 0.036 85.008 0.995 -4.125 0.048 -91.041
1123.684 0.048 -91.15 0.995 -4.18 0.037 84.942 0.011 76.532
          0.995 -4.18 0.048 -91.15 0.011 76.532 0.037 84.942
          0.037 84.942 0.011 76.532 0.048 -91.15 0.995 -4.18
          0.011 76.532 0.037 84.942 0.995 -4.18 0.048 -91.15
1138.596 0.049 -91.258 0.995 -4.235 0.037 84.875 0.011 76.356
          0.995 -4.235 0.049 -91.258 0.011 76.356 0.037 84.875
          0.037 84.875 0.011 76.356 0.049 -91.258 0.995 -4.235
          0.011 76.356 0.037 84.875 0.995 -4.235 0.049 -91.258
1153.509 0.05 -91.365 0.995 -4.291 0.038 84.809 0.012 76.18
          0.995 -4.291 0.05 -91.365 0.012 76.18 0.038 84.809
          0.038 84.809 0.012 76.18 0.05 -91.365 0.995 -4.291
          0.012 76.18 0.038 84.809 0.995 -4.291 0.05 -91.365
1168.421 0.05 -91.47 0.995 -4.346 0.038 84.743 0.012 76.004
