! Network Analyzer HP8720D.07.14 Serial No. US38111185																															
! 																															
! 28 Apr 1999  02:06:29																															
! Frequency 	S11		S21		S31		S41		S12		S22		S23		S24		S13		S23		S33		S34		S14		S24		S34		S44
# HZ  S  DB R 50																															
50000000	-43.933	-23.571	-0.0149	-1.0684	-41.464	90.585	-52.892	115.49																							
	-0.0186	-0.7429	-38.864	41.167	-51.208	84.427	-40.466	85.817																							
	-40.248	86.701	-51.233	87.954	-36.633	43.489	-0.0635	-1.9762																							
	-52.249	97.001	-39.79	80.27	-0.3608	-1.6946	-46.095	-17.49																							
150000000	-40.273	-64.903	-0.0294	-2.4156	-31.011	85.827	-44.186	88.022																							
	-0.0298	-2.4005	-32.532	55.896	-44.9	88.893	-31.018	85.681																							
	-31.078	85.461	-44.763	87.674	-30.311	65.532	-0.0739	-5.0523																							
	-44.145	87.895	-31.047	85.571	-0.1616	-5.0262	-48.534	-14.914																							
250000000	-36.458	-80.675	-0.0228	-3.9894	-26.619	83.083	-39.63	85.816																							
	-0.0396	-3.9867	-28.876	59.318	-40.245	86.69	-26.685	82.671																							
	-26.634	83.183	-40.322	86.776	-26.886	66.392	-0.1048	-8.3949																							
	-39.623	85.622	-26.672	82.343	-0.2067	-8.3249	-45.949	-77.289
350000000	-33.721	-91.458	-0.0289	-5.603	-23.743	80.571	-36.725	84.028
	-0.0383	-5.5138	-26.194	58.434	-37.392	86.233	-23.809	79.864
	-23.751	80.811	-37.446	86.107	-24.068	65.547	-0.1384	-11.762
	-36.715	84.117	-23.777	79.921	-0.2985	-11.488	-44.802	-114.53
450000000	-31.906	-99.088	-0.0442	-7.0505	-21.605	78.225	-34.601	81.996
	-0.0507	-7.1205	-24.054	55.802	-35.393	85.224	-21.664	77.341
	-21.61	78.199	-35.429	85.081	-22.271	63.074	-0.1622	-14.789
	-34.598	82.131	-21.643	77.282	-0.3286	-14.768	-39.314	-134.05
550000000	-30.456	-106.17	-0.0595	-8.6984	-19.888	75.727	-32.931	80.36
	-0.0514	-8.6847	-22.286	52.681	-33.812	84.917	-19.96	74.622
	-19.904	75.821	-33.789	84.7	-20.507	59.988	-0.2183	-18.038
	-32.913	80.428	-19.914	74.652	-0.3082	-18.015	-37.268	-150.28
650000000	-29.409	-112.27	-0.0679	-10.257	-18.453	73.349	-31.54	79.108
	-0.0683	-10.223	-20.744	48.873	-32.492	84.761	-18.535	71.955
	-18.461	73.404	-32.467	84.641	-19.298	56.744	-0.2685	-21.121
	-31.544	79.008	-18.498	71.914	-0.3666	-21.208	-33.738	-160.65
750000000	-28.592	-118.01	-0.0788	-11.762	-17.269	71.104	-30.375	77.452
	-0.0796	-11.801	-19.363	44.738	-31.333	84.902	-17.341	69.196
	-17.268	70.99	-31.322	85.045	-18.134	52.696	-0.3337	-24.38
	-30.387	77.411	-17.293	69.25	-0.4133	-24.446	-31.587	-170.4
850000000	-27.991	-123.98	-0.1005	-13.222	-16.211	68.748	-29.371	76.359
	-0.0803	-13.342	-18.142	40.365	-30.312	85.748	-16.298	66.635
	-16.223	68.585	-30.289	85.817	-17.309	48.388	-0.3911	-27.442
	-29.379	76.034	-16.253	66.59	-0.4679	-27.651	-29.273	-173.64
950000000	-27.533	-129.4	-0.1029	-14.866	-15.254	66.313	-28.428	74.876
	-0.1123	-14.977	-17.043	35.972	-29.344	86.714	-15.387	63.99
	-15.293	66.278	-29.296	86.461	-16.438	43.805	-0.437	-30.902
	-28.489	74.899	-15.328	63.756	-0.5582	-30.824	-27.867	-179.92
1050000000	-27.2	-134.81	-0.1187	-16.21	-14.4	64.008	-27.616	73.7
	-0.1009	-16.378	-16.023	31.251	-28.411	87.781	-14.587	61.404
	-14.476	63.927	-28.299	88.084	-15.89	38.775	-0.5042	-33.869
	-27.69	73.687	-14.464	61.515	-0.5974	-33.839	-26.046	177.86
1150000000	-26.965	-140.11	-0.1353	-17.684	-13.647	61.647	-26.885	72.526
	-0.1518	-18	-15.085	26.436	-27.459	88.901	-13.861	58.825
	-13.684	61.754	-27.368	88.41	-15.201	32.959	-0.58	-36.922
	-26.948	72.594	-13.774	58.377	-0.7427	-37.154	-25.183	174.38
1250000000	-26.786	-145.28	-0.1562	-19.243	-12.968	59.393	-26.215	71.425
	-0.1243	-19.482	-14.275	21.596	-26.484	89.679	-13.207	56.082
	-13.042	59.323	-26.312	89.684	-14.762	27.401	-0.6936	-39.915
	-26.308	71.31	-13.025	56.052	-1.0601	-39.897	-23.772	171.7
1350000000	-26.65	-150.4	-0.1453	-20.77	-12.293	56.772	-25.561	69.925
	-0.1363	-21.157	-13.507	16.709	-25.5	90.161	-12.602	53.619
	-12.411	56.989	-25.317	89.922	-14.263	20.774	-0.7383	-43.301
	-25.694	70.032	-12.409	53.311	-1.132	-43.125	-23.011	169.84
1450000000	-26.545	-155.22	-0.1592	-22.284	-11.697	54.29	-24.977	68.36
	-0.1466	-22.434	-12.81	11.792	-24.514	90.485	-12.073	51.298
	-11.812	54.684	-24.33	90.251	-13.928	14.608	-0.8388	-46.626
	-25.125	68.824	-11.845	51.029	-1.1652	-46.003	-21.96	167.96
1550000000	-26.47	-160.2	-0.1606	-23.945	-11.09	51.737	-24.395	66.967
	-0.1651	-24.188	-12.154	6.9502	-23.618	90.159	-11.621	48.947
	-11.303	52.579	-23.31	89.337	-13.488	7.4295	-0.8833	-50.168
	-24.648	67.816	-11.299	47.937	-1.2661	-49.504	-21.46	166.99
1650000000	-26.437	-165.34	-0.1849	-25.406	-10.605	49.363	-23.956	65.698
	-0.183	-25.947	-11.578	2.086	-22.651	89.172	-11.124	46.178
	-10.761	50.549	-22.328	87.781	-13.185	1.0217	-1.032	-53.119
	-24.166	66.823	-10.783	44.552	-1.3508	-53.161	-20.473	164.15
1750000000	-26.428	-170.3	-0.1975	-26.833	-10.087	46.862	-23.488	64.281
	-0.136	-27.464	-11.029	-2.7466	-21.788	88.308	-10.721	43.833
	-10.347	47.937	-21.318	87.056	-12.841	-7.1123	-1.0927	-56.238
	-23.813	65.288	-10.228	42.422	-1.3376	-56.494	-19.933	164.23
1850000000	-26.369	-175.77	-0.2378	-28.511	-9.6932	44.252	-23.167	62.862
	-0.2448	-29.287	-10.512	-7.4515	-20.907	86.888	-10.318	41.445
	-9.8287	45.997	-20.598	84.192	-12.489	-14.248	-1.2697	-59.56
	-23.383	64.499	-9.9732	38.602	-1.6142	-59.93	-19.315	161.74
1950000000	-26.31	178.29	-0.2486	-30.225	-9.2403	41.009	-22.78	60.728
	-0.2102	-30.379	-10.02	-11.957	-20.163	85.758	-10.007	39.569
	-9.4417	43.389	-19.713	83.146	-12.079	-21.989	-1.4305	-63.41
	-23.102	63.148	-9.5074	36.999	-1.3222	-63.254	-18.839	161.26
2050000000	-26.247	172.25	-0.2662	-32.033	-8.8708	38.01	-22.515	59.271
	-0.3001	-32.542	-9.5592	-16.624	-19.433	83.995	-9.6989	37.429
	-8.991	41.802	-19.013	79.319	-11.707	-29.125	-1.5721	-67.08
	-22.819	62.963	-9.2338	32.493	-1.6272	-67.485	-18.285	159.27
2150000000	-26.283	165.47	-0.2779	-33.457	-8.4644	35.734	-22.237	58.914
	-0.2772	-33.797	-9.1386	-20.972	-18.699	81.738	-9.4026	34.714
	-8.6476	39.147	-18.261	77.537	-11.245	-36.751	-1.6315	-69.903
	-22.645	61.975	-8.8403	30.574	-1.6656	-70.389	-17.977	158.24
2250000000	-26.342	157.82	-0.3497	-34.765	-8.185	33.571	-22.151	58.751
	-0.2181	-35.213	-8.7254	-25.395	-17.968	79.412	-9.0439	32.248
	-8.3515	36.534	-17.428	75.38	-10.813	-43.646	-1.8313	-72.537
	-22.5	61.521	-8.3823	28.449	-1.6316	-73.703	-17.698	155.85
2350000000	-26.282	149.04	-0.3911	-36.465	-7.8946	30.784	-21.984	58.418
	-0.4507	-37.358	-8.3192	-29.762	-17.299	77.323	-8.7659	30.144
	-7.8712	35.072	-17.192	71.476	-10.263	-51.136	-2.0218	-75.889
	-22.214	62.619	-8.5056	23.855	-2.2432	-77.25	-17.402	154.38
2450000000	-26.162	139.27	-0.5158	-38.816	-7.7624	27.054	-21.862	57.211
	-0.3279	-38.102	-7.9234	-34.044	-16.743	76.315	-8.5616	29.099
	-7.648	32.036	-16.305	70.234	-9.8037	-57.248	-2.3716	-80.287
	-22.106	62.715	-7.972	23.11	-2.0306	-79.612	-17.304	151.67
2550000000	-25.985	129.34	-0.4985	-40.335	-7.3905	24.296	-21.486	58.363
	-0.443	-40.917	-7.5138	-38.158	-16.175	73.485	-8.3095	26.386
	-7.3179	30.869	-15.999	65.032	-9.2184	-64.333	-2.4388	-83.727
	-21.856	65.275	-7.856	17.534	-2.9691	-83.301	-17.115	150.05
2650000000	-25.766	118.64	-0.5475	-41.48	-7.1282	22.339	-21.227	60.352
	-0.4309	-41.222	-7.2144	-42.433	-15.571	70.844	-8.0692	24.203
	-7.0098	27.69	-15.316	64.472	-8.7613	-69.793	-2.5756	-86.05
	-21.499	65.777	-7.5983	17.559	-2.9135	-84.637	-17.347	146.39
2750000000	-25.392	107.68	-0.5812	-41.997	-6.7809	21.419	-20.912	62.91
	-0.4224	-42.852	-6.9193	-46.677	-14.903	67.669	-7.7498	21.327
	-6.7683	25.466	-14.748	61.258	-8.2344	-75.894	-2.598	-87.094
	-21.139	66.894	-7.2961	14.818	-3.0118	-88.456	-17.456	144.27
2850000000	-24.5	97.026	-0.7648	-45.067	-6.8417	16.957	-20.567	61.326
	-0.6669	-45.794	-6.5848	-50.729	-14.5	66.543	-7.6376	20.507
	-6.4114	24.453	-14.809	56.976	-7.7122	-80.873	-3.08	-92.578
	-20.683	69.358	-7.5441	9.44	-3.7408	-92.701	-17.749	139.25
2950000000	-23.692	87.024	-0.7528	-46.34	-6.5267	14.446	-19.963	62.879
	-0.5974	-45.525	-6.3483	-54.86	-14.005	63.682	-7.452	18.049
	-6.2023	20.991	-13.98	56.655	-7.2795	-86.372	-3.111	-95.703
	-20.151	69.704	-7.106	10.33	-3.5179	-93.93	-18.159	136.51
3050000000	-22.607	78.437	-0.8477	-49.257	-6.4805	10.125	-19.391	61.308
	-0.6221	-48.797	-6.0675	-58.951	-13.604	61.714	-7.3132	16.602
	-5.9848	19.914	-13.773	50.842	-6.7528	-90.501	-3.3851	-101
	-19.649	71.808	-6.962	4.389	-3.9603	-99.717	-18.809	131.53
3150000000	-21.914	70.641	-0.6649	-48.174	-5.7976	10.55	-18.573	65.908
	-0.8349	-48.415	-5.9018	-63.066	-12.95	57.448	-7.0065	13.125
	-5.6224	16.62	-13.379	52.5	-6.386	-95.677	-2.9668	-100.97
	-18.829	71.735	-7.1208	6.1043	-4.0887	-99.093	-19.602	126.06
3250000000	-20.721	62.854	-1.0673	-51.343	-6.1768	6.5836	-18.289	62.867
	-0.7874	-49.835	-5.6854	-67.47	-12.559	56.287	-6.8508	12.331
	-5.5085	14.753	-12.797	48.893	-5.9971	-99.693	-3.6914	-106.19
	-18.244	71.94	-6.7355	3.62	-4.1116	-103.08	-20.805	118.99
3350000000	-19.813	57.583	-0.7601	-52.903	-5.5484	3.4593	-17.176	62.788
	-0.8407	-52.776	-5.5072	-71.717	-12.153	52.386	-6.697	9.3095
	-5.272	13.127	-12.666	44.319	-5.6147	-104.41	-3.3037	-110.63
	-17.568	72.113	-6.6758	-1.0725	-4.5169	-108.43	-21.625	110.46
3450000000	-18.703	51.265	-1.2288	-56.282	-6.0333	-0.2059	-17.003	58.896
	-0.9076	-52.73	-5.3365	-76.462	-11.748	51.118	-6.4934	8.237
	-5.1053	10.566	-12.048	43.292	-5.3397	-108.42	-4.0871	-116.02
	-16.875	70.992	-6.4409	-0.9283	-4.434	-110.28	-23.375	98.633
3550000000	-17.913	47.383	-0.9195	-56.948	-5.3696	-2.531	-15.913	58.582
	-0.7596	-55.32	-5.2324	-80.807	-11.269	47.168	-6.2433	5.224
	-4.9336	8.7918	-11.669	37.922	-5.0639	-112.8	-3.6192	-119.68
	-16.195	69.965	-6.0822	-5.4066	-4.5321	-116.73	-24.343	84.89
3650000000	-17.02	42.082	-1.3408	-59.279	-5.6897	-4.7447	-15.737	55.548
	-1.1368	-57.347	-5.0794	-85.873	-10.834	44.944	-6.0401	3.4895
	-4.656	6.8665	-11.729	36.674	-4.7963	-117	-4.245	-124.17
	-15.462	68.728	-6.4286	-7.3718	-5.0639	-118.61	-25.536	60.598
3750000000	-16.259	39.283	-1.0341	-61.489	-5.1302	-8.822	-14.71	52.469
	-1.2759	-59.058	-4.9584	-90.669	-10.48	41.175	-5.8429	0.5822
	-4.443	4.595	-11.436	34.192	-4.6273	-121.64	-3.8965	-129.92
	-14.805	66.627	-6.3561	-9.4606	-5.2413	-122.22	-25.034	38.107
3850000000	-15.473	34.902	-1.2887	-64.874	-5.3113	-12.226	-14.438	48.17
	-1.3685	-61.319	-4.8429	-96.187	-10.083	37.956	-5.6058	-2.1066
	-4.2641	2.5598	-11.157	30.418	-4.4524	-125.72	-4.3487	-136.25
	-14.245	64.605	-6.2131	-12.483	-5.4057	-127.06	-23.879	14.72
3950000000	-14.851	30.425	-1.6969	-66.423	-5.4895	-12.85	-14.367	46.203
	-1.7149	-63.886	-4.7373	-101.79	-9.6784	34.825	-5.3836	-4.7131
	-3.9896	0.0823	-11.117	28.294	-4.413	-130.67	-4.8455	-139.98
	-13.595	61.942	-6.3851	-14.95	-5.688	-130.76	-21.786	1.1
4050000000	-14.188	26.5	-1.8781	-71.308	-5.5603	-17.413	-14.06	40.604
	-1.8561	-63.77	-4.6172	-107.72	-9.3592	31.141	-5.1781	-8.031
	-3.8691	-3.1242	-10.448	26.889	-4.449	-135.14	-5.2225	-148.2
	-13.061	58.666	-6.0262	-14.584	-5.3658	-134.5	-20.192	-12.898
