# MHZ S MA R 50

50 4.541e-3 -17.187 0.996 -0.322 7.167e-3 89.678 227.7e-6 -87.852
          0.996 -0.322 4.541e-3 -17.187 227.7e-6 -87.852 7.167e-3 89.678
          7.167e-3 89.678 227.7e-6 -87.852 4.541e-3 -17.187 0.996 -0.322
          227.7e-6 -87.852 7.167e-3 89.678 0.996 -0.322 4.541e-3 -17.187
57.007 4.599e-3 -19.432 0.996 -0.367 8.171e-3 89.634 259.6e-6 -87.56
          0.996 -0.367 4.599e-3 -19.432 259.6e-6 -87.56 8.171e-3 89.634
          8.171e-3 89.634 259.6e-6 -87.56 4.599e-3 -19.432 0.996 -0.367
          259.6e-6 -87.56 8.171e-3 89.634 0.996 -0.367 4.599e-3 -19.432
64.014 4.663e-3 -21.619 0.996 -0.412 9.175e-3 89.589 291.6e-6 -87.269
          0.996 -0.412 4.663e-3 -21.619 291.6e-6 -87.269 9.175e-3 89.589
          9.175e-3 89.589 291.6e-6 -87.269 4.663e-3 -21.619 0.996 -0.412
          291.6e-6 -87.269 9.175e-3 89.589 0.996 -0.412 4.663e-3 -21.619
71.021 4.733e-3 -23.746 0.996 -0.458 0.01 89.544 323.7e-6 -86.978
          0.996 -0.458 4.733e-3 -23.746 323.7e-6 -86.978 0.01 89.544
          0.01 89.544 323.7e-6 -86.978 4.733e-3 -23.746 0.996 -0.458
          323.7e-6 -86.978 0.01 89.544 0.996 -0.458 4.733e-3 -23.746
78.028 4.81e-3 -25.808 0.996 -0.503 0.011 89.499 355.8e-6 -86.688
          0.996 -0.503 4.81e-3 -25.808 355.8e-6 -86.688 0.011 89.499
          0.011 89.499 355.8e-6 -86.688 4.81e-3 -25.808 0.996 -0.503
          355.8e-6 -86.688 0.011 89.499 0.996 -0.503 4.81e-3 -25.808
85.035 4.892e-3 -27.804 0.996 -0.548 0.012 89.454 387.9e-6 -86.399
          0.996 -0.548 4.892e-3 -27.804 387.9e-6 -86.399 0.012 89.454
          0.012 89.454 387.9e-6 -86.399 4.892e-3 -27.804 0.996 -0.548
          387.9e-6 -86.399 0.012 89.454 0.996 -0.548 4.892e-3 -27.804
92.042 4.98e-3 -29.733 0.996 -0.593 0.013 89.41 420e-6 -86.11
          0.996 -0.593 4.98e-3 -29.733 420e-6 -86.11 0.013 89.41
          0.013 89.41 420e-6 -86.11 4.98e-3 -29.733 0.996 -0.593
          420e-6 -86.11 0.013 89.41 0.996 -0.593 4.98e-3 -29.733
99.049 5.073e-3 -31.595 0.996 -0.638 0.014 89.365 452.2e-6 -85.822
          0.996 -0.638 5.073e-3 -31.595 452.2e-6 -85.822 0.014 89.365
          0.014 89.365 452.2e-6 -85.822 5.073e-3 -31.595 0.996 -0.638
          452.2e-6 -85.822 0.014 89.365 0.996 -0.638 5.073e-3 -31.595
106.056 5.171e-3 -33.388 0.996 -0.683 0.015 89.32 484.5e-6 -85.534
          0.996 -0.683 5.171e-3 -33.388 484.5e-6 -85.534 0.015 89.32
          0.015 89.32 484.5e-6 -85.534 5.171e-3 -33.388 0.996 -0.683
          484.5e-6 -85.534 0.015 89.32 0.996 -0.683 5.171e-3 -33.388
113.063 5.274e-3 -35.115 0.996 -0.728 0.016 89.276 516.8e-6 -85.246
          0.996 -0.728 5.274e-3 -35.115 516.8e-6 -85.246 0.016 89.276
          0.016 89.276 516.8e-6 -85.246 5.274e-3 -35.115 0.996 -0.728
          516.8e-6 -85.246 0.016 89.276 0.996 -0.728 5.274e-3 -35.115
120.07 5.381e-3 -36.775 0.996 -0.773 0.017 89.231 549.1e-6 -84.959
          0.996 -0.773 5.381e-3 -36.775 549.1e-6 -84.959 0.017 89.231
          0.017 89.231 549.1e-6 -84.959 5.381e-3 -36.775 0.996 -0.773
          549.1e-6 -84.959 0.017 89.231 0.996 -0.773 5.381e-3 -36.775
127.077 5.492e-3 -38.37 0.995 -0.819 0.018 89.186 581.5e-6 -84.673
          0.995 -0.819 5.492e-3 -38.37 581.5e-6 -84.673 0.018 89.186
          0.018 89.186 581.5e-6 -84.673 5.492e-3 -38.37 0.995 -0.819
          581.5e-6 -84.673 0.018 89.186 0.995 -0.819 5.492e-3 -38.37
134.084 5.608e-3 -39.903 0.995 -0.864 0.019 89.141 614e-6 -84.387
          0.995 -0.864 5.608e-3 -39.903 614e-6 -84.387 0.019 89.141
          0.019 89.141 614e-6 -84.387 5.608e-3 -39.903 0.995 -0.864
          614e-6 -84.387 0.019 89.141 0.995 -0.864 5.608e-3 -39.903
141.091 5.726e-3 -41.374 0.995 -0.909 0.02 89.097 646.5e-6 -84.101
          0.995 -0.909 5.726e-3 -41.374 646.5e-6 -84.101 0.02 89.097
          0.02 89.097 646.5e-6 -84.101 5.726e-3 -41.374 0.995 -0.909
          646.5e-6 -84.101 0.02 89.097 0.995 -0.909 5.726e-3 -41.374
148.098 5.849e-3 -42.785 0.995 -0.954 0.021 89.052 679.1e-6 -83.816
          0.995 -0.954 5.849e-3 -42.785 679.1e-6 -83.816 0.021 89.052
          0.021 89.052 679.1e-6 -83.816 5.849e-3 -42.785 0.995 -0.954
          679.1e-6 -83.816 0.021 89.052 0.995 -0.954 5.849e-3 -42.785
155.105 5.974e-3 -44.14 0.995 -0.999 0.022 89.007 711.8e-6 -83.532
          0.995 -0.999 5.974e-3 -44.14 711.8e-6 -83.532 0.022 89.007
          0.022 89.007 711.8e-6 -83.532 5.974e-3 -44.14 0.995 -0.999
          711.8e-6 -83.532 0.022 89.007 0.995 -0.999 5.974e-3 -44.14
162.112 6.103e-3 -45.439 0.995 -1.044 0.023 88.962 744.6e-6 -83.248
          0.995 -1.044 6.103e-3 -45.439 744.6e-6 -83.248 0.023 88.962
          0.023 88.962 744.6e-6 -83.248 6.103e-3 -45.439 0.995 -1.044
          744.6e-6 -83.248 0.023 88.962 0.995 -1.044 6.103e-3 -45.439
169.119 6.234e-3 -46.685 0.995 -1.089 0.024 88.918 777.4e-6 -82.965
          0.995 -1.089 6.234e-3 -46.685 777.4e-6 -82.965 0.024 88.918
          0.024 88.918 777.4e-6 -82.965 6.234e-3 -46.685 0.995 -1.089
          777.4e-6 -82.965 0.024 88.918 0.995 -1.089 6.234e-3 -46.685
176.126 6.368e-3 -47.881 0.995 -1.134 0.025 88.873 810.3e-6 -82.682
          0.995 -1.134 6.368e-3 -47.881 810.3e-6 -82.682 0.025 88.873
          0.025 88.873 810.3e-6 -82.682 6.368e-3 -47.881 0.995 -1.134
          810.3e-6 -82.682 0.025 88.873 0.995 -1.134 6.368e-3 -47.881
183.133 6.505e-3 -49.028 0.995 -1.18 0.026 88.828 843.3e-6 -82.4
          0.995 -1.18 6.505e-3 -49.028 843.3e-6 -82.4 0.026 88.828
          0.026 88.828 843.3e-6 -82.4 6.505e-3 -49.028 0.995 -1.18
          843.3e-6 -82.4 0.026 88.828 0.995 -1.18 6.505e-3 -49.028
190.14 6.644e-3 -50.129 0.995 -1.225 0.027 88.784 876.4e-6 -82.119
          0.995 -1.225 6.644e-3 -50.129 876.4e-6 -82.119 0.027 88.784
          0.027 88.784 876.4e-6 -82.119 6.644e-3 -50.129 0.995 -1.225
          876.4e-6 -82.119 0.027 88.784 0.995 -1.225 6.644e-3 -50.129
197.147 6.785e-3 -51.186 0.995 -1.27 0.028 88.739 909.6e-6 -81.838
          0.995 -1.27 6.785e-3 -51.186 909.6e-6 -81.838 0.028 88.739
          0.028 88.739 909.6e-6 -81.838 6.785e-3 -51.186 0.995 -1.27
          909.6e-6 -81.838 0.028 88.739 0.995 -1.27 6.785e-3 -51.186
204.154 6.928e-3 -52.201 0.995 -1.315 0.029 88.694 942.8e-6 -81.558
          0.995 -1.315 6.928e-3 -52.201 942.8e-6 -81.558 0.029 88.694
          0.029 88.694 942.8e-6 -81.558 6.928e-3 -52.201 0.995 -1.315
          942.8e-6 -81.558 0.029 88.694 0.995 -1.315 6.928e-3 -52.201
211.161 7.073e-3 -53.175 0.995 -1.36 0.03 88.65 976.2e-6 -81.279
          0.995 -1.36 7.073e-3 -53.175 976.2e-6 -81.279 0.03 88.65
          0.03 88.65 976.2e-6 -81.279 7.073e-3 -53.175 0.995 -1.36
          976.2e-6 -81.279 0.03 88.65 0.995 -1.36 7.073e-3 -53.175
218.168 7.219e-3 -54.112 0.995 -1.405 0.031 88.605 1.01e-3 -81
          0.995 -1.405 7.219e-3 -54.112 1.01e-3 -81 0.031 88.605
          0.031 88.605 1.01e-3 -81 7.219e-3 -54.112 0.995 -1.405
          1.01e-3 -81 0.031 88.605 0.995 -1.405 7.219e-3 -54.112
225.175 7.368e-3 -55.012 0.995 -1.45 0.032 88.56 1.043e-3 -80.722
          0.995 -1.45 7.368e-3 -55.012 1.043e-3 -80.722 0.032 88.56
          0.032 88.56 1.043e-3 -80.722 7.368e-3 -55.012 0.995 -1.45
          1.043e-3 -80.722 0.032 88.56 0.995 -1.45 7.368e-3 -55.012
232.182 7.518e-3 -55.878 0.995 -1.495 0.033 88.515 1.077e-3 -80.446
          0.995 -1.495 7.518e-3 -55.878 1.077e-3 -80.446 0.033 88.515
          0.033 88.515 1.077e-3 -80.446 7.518e-3 -55.878 0.995 -1.495
          1.077e-3 -80.446 0.033 88.515 0.995 -1.495 7.518e-3 -55.878
239.189 7.669e-3 -56.711 0.995 -1.54 0.034 88.471 1.111e-3 -80.169
          0.995 -1.54 7.669e-3 -56.711 1.111e-3 -80.169 0.034 88.471
          0.034 88.471 1.111e-3 -80.169 7.669e-3 -56.711 0.995 -1.54
          1.111e-3 -80.169 0.034 88.471 0.995 -1.54 7.669e-3 -56.711
246.196 7.822e-3 -57.513 0.995 -1.586 0.035 88.426 1.145e-3 -79.894
          0.995 -1.586 7.822e-3 -57.513 1.145e-3 -79.894 0.035 88.426
          0.035 88.426 1.145e-3 -79.894 7.822e-3 -57.513 0.995 -1.586
          1.145e-3 -79.894 0.035 88.426 0.995 -1.586 7.822e-3 -57.513
253.203 7.977e-3 -58.285 0.995 -1.631 0.036 88.381 1.179e-3 -79.62
          0.995 -1.631 7.977e-3 -58.285 1.179e-3 -79.62 0.036 88.381
          0.036 88.381 1.179e-3 -79.62 7.977e-3 -58.285 0.995 -1.631
          1.179e-3 -79.62 0.036 88.381 0.995 -1.631 7.977e-3 -58.285
260.21 8.132e-3 -59.029 0.995 -1.676 0.037 88.337 1.213e-3 -79.346
          0.995 -1.676 8.132e-3 -59.029 1.213e-3 -79.346 0.037 88.337
          0.037 88.337 1.213e-3 -79.346 8.132e-3 -59.029 0.995 -1.676
          1.213e-3 -79.346 0.037 88.337 0.995 -1.676 8.132e-3 -59.029
267.217 8.289e-3 -59.746 0.995 -1.721 0.038 88.292 1.247e-3 -79.073
          0.995 -1.721 8.289e-3 -59.746 1.247e-3 -79.073 0.038 88.292
          0.038 88.292 1.247e-3 -79.073 8.289e-3 -59.746 0.995 -1.721
          1.247e-3 -79.073 0.038 88.292 0.995 -1.721 8.289e-3 -59.746
274.224 8.447e-3 -60.437 0.995 -1.766 0.039 88.247 1.281e-3 -78.801
          0.995 -1.766 8.447e-3 -60.437 1.281e-3 -78.801 0.039 88.247
          0.039 88.247 1.281e-3 -78.801 8.447e-3 -60.437 0.995 -1.766
          1.281e-3 -78.801 0.039 88.247 0.995 -1.766 8.447e-3 -60.437
281.231 8.605e-3 -61.104 0.995 -1.811 0.04 88.203 1.316e-3 -78.53
          0.995 -1.811 8.605e-3 -61.104 1.316e-3 -78.53 0.04 88.203
          0.04 88.203 1.316e-3 -78.53 8.605e-3 -61.104 0.995 -1.811
          1.316e-3 -78.53 0.04 88.203 0.995 -1.811 8.605e-3 -61.104
288.238 8.765e-3 -61.748 0.995 -1.856 0.041 88.158 1.35e-3 -78.26
          0.995 -1.856 8.765e-3 -61.748 1.35e-3 -78.26 0.041 88.158
          0.041 88.158 1.35e-3 -78.26 8.765e-3 -61.748 0.995 -1.856
          1.35e-3 -78.26 0.041 88.158 0.995 -1.856 8.765e-3 -61.748
295.245 8.926e-3 -62.37 0.995 -1.901 0.042 88.113 1.385e-3 -77.991
          0.995 -1.901 8.926e-3 -62.37 1.385e-3 -77.991 0.042 88.113
          0.042 88.113 1.385e-3 -77.991 8.926e-3 -62.37 0.995 -1.901
          1.385e-3 -77.991 0.042 88.113 0.995 -1.901 8.926e-3 -62.37
302.252 9.087e-3 -62.972 0.995 -1.946 0.043 88.069 1.42e-3 -77.723
          0.995 -1.946 9.087e-3 -62.972 1.42e-3 -77.723 0.043 88.069
          0.043 88.069 1.42e-3 -77.723 9.087e-3 -62.972 0.995 -1.946
          1.42e-3 -77.723 0.043 88.069 0.995 -1.946 9.087e-3 -62.972
309.259 9.25e-3 -63.553 0.995 -1.991 0.044 88.024 1.455e-3 -77.456
          0.995 -1.991 9.25e-3 -63.553 1.455e-3 -77.456 0.044 88.024
          0.044 88.024 1.455e-3 -77.456 9.25e-3 -63.553 0.995 -1.991
          1.455e-3 -77.456 0.044 88.024 0.995 -1.991 9.25e-3 -63.553
316.266 9.413e-3 -64.115 0.995 -2.036 0.045 87.979 1.49e-3 -77.19
          0.995 -2.036 9.413e-3 -64.115 1.49e-3 -77.19 0.045 87.979
          0.045 87.979 1.49e-3 -77.19 9.413e-3 -64.115 0.995 -2.036
          1.49e-3 -77.19 0.045 87.979 0.995 -2.036 9.413e-3 -64.115
323.273 9.577e-3 -64.659 0.995 -2.081 0.046 87.935 1.526e-3 -76.925
          0.995 -2.081 9.577e-3 -64.659 1.526e-3 -76.925 0.046 87.935
          0.046 87.935 1.526e-3 -76.925 9.577e-3 -64.659 0.995 -2.081
          1.526e-3 -76.925 0.046 87.935 0.995 -2.081 9.577e-3 -64.659
330.28 9.741e-3 -65.185 0.994 -2.126 0.047 87.89 1.561e-3 -76.661
          0.994 -2.126 9.741e-3 -65.185 1.561e-3 -76.661 0.047 87.89
          0.047 87.89 1.561e-3 -76.661 9.741e-3 -65.185 0.994 -2.126
          1.561e-3 -76.661 0.047 87.89 0.994 -2.126 9.741e-3 -65.185
337.287 9.906e-3 -65.696 0.994 -2.172 0.048 87.845 1.597e-3 -76.398
          0.994 -2.172 9.906e-3 -65.696 1.597e-3 -76.398 0.048 87.845
          0.048 87.845 1.597e-3 -76.398 9.906e-3 -65.696 0.994 -2.172
          1.597e-3 -76.398 0.048 87.845 0.994 -2.172 9.906e-3 -65.696
344.294 0.01 -66.19 0.994 -2.217 0.049 87.801 1.632e-3 -76.136
          0.994 -2.217 0.01 -66.19 1.632e-3 -76.136 0.049 87.801
          0.049 87.801 1.632e-3 -76.136 0.01 -66.19 0.994 -2.217
          1.632e-3 -76.136 0.049 87.801 0.994 -2.217 0.01 -66.19
351.301 0.01 -66.669 0.994 -2.262 0.05 87.756 1.668e-3 -75.875
          0.994 -2.262 0.01 -66.669 1.668e-3 -75.875 0.05 87.756
          0.05 87.756 1.668e-3 -75.875 0.01 -66.669 0.994 -2.262
          1.668e-3 -75.875 0.05 87.756 0.994 -2.262 0.01 -66.669
358.308 0.01 -67.134 0.994 -2.307 0.051 87.711 1.704e-3 -75.616
          0.994 -2.307 0.01 -67.134 1.704e-3 -75.616 0.051 87.711
          0.051 87.711 1.704e-3 -75.616 0.01 -67.134 0.994 -2.307
          1.704e-3 -75.616 0.051 87.711 0.994 -2.307 0.01 -67.134
365.315 0.011 -67.586 0.994 -2.352 0.052 87.667 1.741e-3 -75.357
          0.994 -2.352 0.011 -67.586 1.741e-3 -75.357 0.052 87.667
          0.052 87.667 1.741e-3 -75.357 0.011 -67.586 0.994 -2.352
          1.741e-3 -75.357 0.052 87.667 0.994 -2.352 0.011 -67.586
372.322 0.011 -68.024 0.994 -2.397 0.053 87.622 1.777e-3 -75.099
          0.994 -2.397 0.011 -68.024 1.777e-3 -75.099 0.053 87.622
          0.053 87.622 1.777e-3 -75.099 0.011 -68.024 0.994 -2.397
          1.777e-3 -75.099 0.053 87.622 0.994 -2.397 0.011 -68.024
379.329 0.011 -68.45 0.994 -2.442 0.054 87.578 1.814e-3 -74.843
          0.994 -2.442 0.011 -68.45 1.814e-3 -74.843 0.054 87.578
          0.054 87.578 1.814e-3 -74.843 0.011 -68.45 0.994 -2.442
          1.814e-3 -74.843 0.054 87.578 0.994 -2.442 0.011 -68.45
386.336 0.011 -68.863 0.994 -2.487 0.055 87.533 1.85e-3 -74.588
          0.994 -2.487 0.011 -68.863 1.85e-3 -74.588 0.055 87.533
          0.055 87.533 1.85e-3 -74.588 0.011 -68.863 0.994 -2.487
          1.85e-3 -74.588 0.055 87.533 0.994 -2.487 0.011 -68.863
393.343 0.011 -69.265 0.994 -2.532 0.056 87.488 1.887e-3 -74.334
          0.994 -2.532 0.011 -69.265 1.887e-3 -74.334 0.056 87.488
          0.056 87.488 1.887e-3 -74.334 0.011 -69.265 0.994 -2.532
          1.887e-3 -74.334 0.056 87.488 0.994 -2.532 0.011 -69.265
400.35 0.011 -69.656 0.994 -2.577 0.057 87.444 1.924e-3 -74.081
          0.994 -2.577 0.011 -69.656 1.924e-3 -74.081 0.057 87.444
          0.057 87.444 1.924e-3 -74.081 0.011 -69.656 0.994 -2.577
          1.924e-3 -74.081 0.057 87.444 0.994 -2.577 0.011 -69.656
407.357 0.012 -70.037 0.994 -2.622 0.058 87.399 1.962e-3 -73.829
          0.994 -2.622 0.012 -70.037 1.962e-3 -73.829 0.058 87.399
          0.058 87.399 1.962e-3 -73.829 0.012 -70.037 0.994 -2.622
          1.962e-3 -73.829 0.058 87.399 0.994 -2.622 0.012 -70.037
414.364 0.012 -70.407 0.994 -2.667 0.059 87.355 1.999e-3 -73.579
          0.994 -2.667 0.012 -70.407 1.999e-3 -73.579 0.059 87.355
          0.059 87.355 1.999e-3 -73.579 0.012 -70.407 0.994 -2.667
          1.999e-3 -73.579 0.059 87.355 0.994 -2.667 0.012 -70.407
421.371 0.012 -70.768 0.994 -2.712 0.06 87.31 2.037e-3 -73.329
          0.994 -2.712 0.012 -70.768 2.037e-3 -73.329 0.06 87.31
          0.06 87.31 2.037e-3 -73.329 0.012 -70.768 0.994 -2.712
          2.037e-3 -73.329 0.06 87.31 0.994 -2.712 0.012 -70.768
428.378 0.012 -71.119 0.994 -2.757 0.061 87.265 2.074e-3 -73.081
          0.994 -2.757 0.012 -71.119 2.074e-3 -73.081 0.061 87.265
          0.061 87.265 2.074e-3 -73.081 0.012 -71.119 0.994 -2.757
          2.074e-3 -73.081 0.061 87.265 0.994 -2.757 0.012 -71.119
435.385 0.012 -71.462 0.994 -2.802 0.062 87.221 2.112e-3 -72.834
          0.994 -2.802 0.012 -71.462 2.112e-3 -72.834 0.062 87.221
          0.062 87.221 2.112e-3 -72.834 0.012 -71.462 0.994 -2.802
          2.112e-3 -72.834 0.062 87.221 0.994 -2.802 0.012 -71.462
442.392 0.012 -71.795 0.994 -2.847 0.063 87.176 2.151e-3 -72.589
          0.994 -2.847 0.012 -71.795 2.151e-3 -72.589 0.063 87.176
          0.063 87.176 2.151e-3 -72.589 0.012 -71.795 0.994 -2.847
          2.151e-3 -72.589 0.063 87.176 0.994 -2.847 0.012 -71.795
449.399 0.013 -72.121 0.994 -2.892 0.064 87.132 2.189e-3 -72.344
          0.994 -2.892 0.013 -72.121 2.189e-3 -72.344 0.064 87.132
          0.064 87.132 2.189e-3 -72.344 0.013 -72.121 0.994 -2.892
          2.189e-3 -72.344 0.064 87.132 0.994 -2.892 0.013 -72.121
456.406 0.013 -72.439 0.993 -2.937 0.065 87.087 2.227e-3 -72.101
          0.993 -2.937 0.013 -72.439 2.227e-3 -72.101 0.065 87.087
          0.065 87.087 2.227e-3 -72.101 0.013 -72.439 0.993 -2.937
          2.227e-3 -72.101 0.065 87.087 0.993 -2.937 0.013 -72.439
463.413 0.013 -72.749 0.993 -2.982 0.066 87.042 2.266e-3 -71.859
          0.993 -2.982 0.013 -72.749 2.266e-3 -71.859 0.066 87.042
          0.066 87.042 2.266e-3 -71.859 0.013 -72.749 0.993 -2.982
          2.266e-3 -71.859 0.066 87.042 0.993 -2.982 0.013 -72.749
470.42 0.013 -73.051 0.993 -3.027 0.067 86.998 2.305e-3 -71.619
          0.993 -3.027 0.013 -73.051 2.305e-3 -71.619 0.067 86.998
          0.067 86.998 2.305e-3 -71.619 0.013 -73.051 0.993 -3.027
          2.305e-3 -71.619 0.067 86.998 0.993 -3.027 0.013 -73.051
477.427 0.013 -73.347 0.993 -3.072 0.068 86.953 2.344e-3 -71.379
          0.993 -3.072 0.013 -73.347 2.344e-3 -71.379 0.068 86.953
          0.068 86.953 2.344e-3 -71.379 0.013 -73.347 0.993 -3.072
          2.344e-3 -71.379 0.068 86.953 0.993 -3.072 0.013 -73.347
484.434 0.013 -73.636 0.993 -3.117 0.069 86.909 2.383e-3 -71.141
          0.993 -3.117 0.013 -73.636 2.383e-3 -71.141 0.069 86.909
          0.069 86.909 2.383e-3 -71.141 0.013 -73.636 0.993 -3.117
          2.383e-3 -71.141 0.069 86.909 0.993 -3.117 0.013 -73.636
491.441 0.014 -73.918 0.993 -3.162 0.07 86.864 2.423e-3 -70.905
          0.993 -3.162 0.014 -73.918 2.423e-3 -70.905 0.07 86.864
          0.07 86.864 2.423e-3 -70.905 0.014 -73.918 0.993 -3.162
          2.423e-3 -70.905 0.07 86.864 0.993 -3.162 0.014 -73.918
498.448 0.014 -74.194 0.993 -3.207 0.071 86.82 2.463e-3 -70.669
          0.993 -3.207 0.014 -74.194 2.463e-3 -70.669 0.071 86.82
          0.071 86.82 2.463e-3 -70.669 0.014 -74.194 0.993 -3.207
          2.463e-3 -70.669 0.071 86.82 0.993 -3.207 0.014 -74.194
505.455 0.014 -74.464 0.993 -3.252 0.072 86.775 2.503e-3 -70.435
          0.993 -3.252 0.014 -74.464 2.503e-3 -70.435 0.072 86.775
          0.072 86.775 2.503e-3 -70.435 0.014 -74.464 0.993 -3.252
          2.503e-3 -70.435 0.072 86.775 0.993 -3.252 0.014 -74.464
512.462 0.014 -74.727 0.993 -3.297 0.073 86.731 2.543e-3 -70.202
          0.993 -3.297 0.014 -74.727 2.543e-3 -70.202 0.073 86.731
          0.073 86.731 2.543e-3 -70.202 0.014 -74.727 0.993 -3.297
          2.543e-3 -70.202 0.073 86.731 0.993 -3.297 0.014 -74.727
519.469 0.014 -74.986 0.993 -3.342 0.074 86.686 2.583e-3 -69.971
          0.993 -3.342 0.014 -74.986 2.583e-3 -69.971 0.074 86.686
          0.074 86.686 2.583e-3 -69.971 0.014 -74.986 0.993 -3.342
          2.583e-3 -69.971 0.074 86.686 0.993 -3.342 0.014 -74.986
526.476 0.015 -75.239 0.993 -3.387 0.075 86.642 2.624e-3 -69.741
          0.993 -3.387 0.015 -75.239 2.624e-3 -69.741 0.075 86.642
          0.075 86.642 2.624e-3 -69.741 0.015 -75.239 0.993 -3.387
          2.624e-3 -69.741 0.075 86.642 0.993 -3.387 0.015 -75.239
533.483 0.015 -75.486 0.993 -3.431 0.076 86.597 2.664e-3 -69.512
          0.993 -3.431 0.015 -75.486 2.664e-3 -69.512 0.076 86.597
          0.076 86.597 2.664e-3 -69.512 0.015 -75.486 0.993 -3.431
          2.664e-3 -69.512 0.076 86.597 0.993 -3.431 0.015 -75.486
540.49 0.015 -75.729 0.993 -3.476 0.077 86.553 2.705e-3 -69.284
          0.993 -3.476 0.015 -75.729 2.705e-3 -69.284 0.077 86.553
          0.077 86.553 2.705e-3 -69.284 0.015 -75.729 0.993 -3.476
          2.705e-3 -69.284 0.077 86.553 0.993 -3.476 0.015 -75.729
547.497 0.015 -75.966 0.992 -3.521 0.078 86.508 2.747e-3 -69.058
          0.992 -3.521 0.015 -75.966 2.747e-3 -69.058 0.078 86.508
          0.078 86.508 2.747e-3 -69.058 0.015 -75.966 0.992 -3.521
          2.747e-3 -69.058 0.078 86.508 0.992 -3.521 0.015 -75.966
554.505 0.015 -76.199 0.992 -3.566 0.079 86.464 2.788e-3 -68.833
          0.992 -3.566 0.015 -76.199 2.788e-3 -68.833 0.079 86.464
          0.079 86.464 2.788e-3 -68.833 0.015 -76.199 0.992 -3.566
          2.788e-3 -68.833 0.079 86.464 0.992 -3.566 0.015 -76.199
561.512 0.015 -76.427 0.992 -3.611 0.08 86.419 2.83e-3 -68.61
          0.992 -3.611 0.015 -76.427 2.83e-3 -68.61 0.08 86.419
          0.08 86.419 2.83e-3 -68.61 0.015 -76.427 0.992 -3.611
