!	AVX THIN FILM OPERATION
!
!	CP0603 COUPLERS
!	P/N CP0603DxxxxASTR
!
!	Network	Analyzer HP8720ES.07.64:Feb23,2000 Serial No.US39172382
!	Hewlett-Packard								
!
!	8 October 2009

#	MHZ	S	MA	R	50			

50	0.017	-14.452	0.983	-0.769	0.013	89.214	7.20E-04	84.696
	0.983	-0.769	0.017	-14.452	7.20E-04	84.696	0.013	89.214
	0.013	89.214	7.20E-04	84.696	0.017	-14.452	0.983	-0.769
	7.20E-04	84.696	0.013	89.214	0.983	-0.769	0.017	-14.452
52.953	0.017	-15.273	0.983	-0.815	0.014	89.168	7.63E-04	84.386
	0.983	-0.815	0.017	-15.273	7.63E-04	84.386	0.014	89.168
	0.014	89.168	7.63E-04	84.386	0.017	-15.273	0.983	-0.815
	7.63E-04	84.386	0.014	89.168	0.983	-0.815	0.017	-15.273
55.906	0.017	-16.089	0.983	-0.86	0.015	89.122	8.06E-04	84.077
	0.983	-0.86	0.017	-16.089	8.06E-04	84.077	0.015	89.122
	0.015	89.122	8.06E-04	84.077	0.017	-16.089	0.983	-0.86
	8.06E-04	84.077	0.015	89.122	0.983	-0.86	0.017	-16.089
58.859	0.017	-16.9	0.983	-0.905	0.015	89.075	8.49E-04	83.768
	0.983	-0.905	0.017	-16.9	8.49E-04	83.768	0.015	89.075
	0.015	89.075	8.49E-04	83.768	0.017	-16.9	0.983	-0.905
	8.49E-04	83.768	0.015	89.075	0.983	-0.905	0.017	-16.9
61.812	0.017	-17.705	0.983	-0.951	0.016	89.029	8.92E-04	83.459
	0.983	-0.951	0.017	-17.705	8.92E-04	83.459	0.016	89.029
	0.016	89.029	8.92E-04	83.459	0.017	-17.705	0.983	-0.951
	8.92E-04	83.459	0.016	89.029	0.983	-0.951	0.017	-17.705
64.765	0.017	-18.504	0.983	-0.996	0.017	88.983	9.35E-04	83.15
	0.983	-0.996	0.017	-18.504	9.35E-04	83.15	0.017	88.983
	0.017	88.983	9.35E-04	83.15	0.017	-18.504	0.983	-0.996
	9.35E-04	83.15	0.017	88.983	0.983	-0.996	0.017	-18.504
67.718	0.017	-19.297	0.983	-1.042	0.018	88.937	9.78E-04	82.841
	0.983	-1.042	0.017	-19.297	9.78E-04	82.841	0.018	88.937
	0.018	88.937	9.78E-04	82.841	0.017	-19.297	0.983	-1.042
	9.78E-04	82.841	0.018	88.937	0.983	-1.042	0.017	-19.297
70.671	0.018	-20.083	0.983	-1.087	0.018	88.891	1.02E-03	82.533
	0.983	-1.087	0.018	-20.083	1.02E-03	82.533	0.018	88.891
	0.018	88.891	1.02E-03	82.533	0.018	-20.083	0.983	-1.087
	1.02E-03	82.533	0.018	88.891	0.983	-1.087	0.018	-20.083
73.624	0.018	-20.864	0.983	-1.133	0.019	88.844	1.06E-03	82.224
	0.983	-1.133	0.018	-20.864	1.06E-03	82.224	0.019	88.844
	0.019	88.844	1.06E-03	82.224	0.018	-20.864	0.983	-1.133
	1.06E-03	82.224	0.019	88.844	0.983	-1.133	0.018	-20.864
76.577	0.018	-21.638	0.983	-1.178	0.02	88.798	1.11E-03	81.916
	0.983	-1.178	0.018	-21.638	1.11E-03	81.916	0.02	88.798
	0.02	88.798	1.11E-03	81.916	0.018	-21.638	0.983	-1.178
	1.11E-03	81.916	0.02	88.798	0.983	-1.178	0.018	-21.638
79.53	0.018	-22.405	0.983	-1.223	0.021	88.752	1.15E-03	81.608
	0.983	-1.223	0.018	-22.405	1.15E-03	81.608	0.021	88.752
	0.021	88.752	1.15E-03	81.608	0.018	-22.405	0.983	-1.223
	1.15E-03	81.608	0.021	88.752	0.983	-1.223	0.018	-22.405
82.482	0.018	-23.165	0.983	-1.269	0.021	88.706	1.19E-03	81.301
	0.983	-1.269	0.018	-23.165	1.19E-03	81.301	0.021	88.706
	0.021	88.706	1.19E-03	81.301	0.018	-23.165	0.983	-1.269
	1.19E-03	81.301	0.021	88.706	0.983	-1.269	0.018	-23.165
85.435	0.018	-23.918	0.983	-1.314	0.022	88.659	1.24E-03	80.993
	0.983	-1.314	0.018	-23.918	1.24E-03	80.993	0.022	88.659
	0.022	88.659	1.24E-03	80.993	0.018	-23.918	0.983	-1.314
	1.24E-03	80.993	0.022	88.659	0.983	-1.314	0.018	-23.918
88.388	0.018	-24.665	0.983	-1.36	0.023	88.613	1.28E-03	80.686
	0.983	-1.36	0.018	-24.665	1.28E-03	80.686	0.023	88.613
	0.023	88.613	1.28E-03	80.686	0.018	-24.665	0.983	-1.36
	1.28E-03	80.686	0.023	88.613	0.983	-1.36	0.018	-24.665
91.341	0.018	-25.404	0.983	-1.405	0.024	88.567	1.32E-03	80.379
	0.983	-1.405	0.018	-25.404	1.32E-03	80.379	0.024	88.567
	0.024	88.567	1.32E-03	80.379	0.018	-25.404	0.983	-1.405
	1.32E-03	80.379	0.024	88.567	0.983	-1.405	0.018	-25.404
94.294	0.018	-26.136	0.983	-1.45	0.024	88.521	1.37E-03	80.073
	0.983	-1.45	0.018	-26.136	1.37E-03	80.073	0.024	88.521
	0.024	88.521	1.37E-03	80.073	0.018	-26.136	0.983	-1.45
	1.37E-03	80.073	0.024	88.521	0.983	-1.45	0.018	-26.136
97.247	0.018	-26.861	0.983	-1.496	0.025	88.475	1.41E-03	79.766
	0.983	-1.496	0.018	-26.861	1.41E-03	79.766	0.025	88.475
	0.025	88.475	1.41E-03	79.766	0.018	-26.861	0.983	-1.496
	1.41E-03	79.766	0.025	88.475	0.983	-1.496	0.018	-26.861
100.2	0.018	-27.578	0.983	-1.541	0.026	88.428	1.45E-03	79.46
	0.983	-1.541	0.018	-27.578	1.45E-03	79.46	0.026	88.428
	0.026	88.428	1.45E-03	79.46	0.018	-27.578	0.983	-1.541
	1.45E-03	79.46	0.026	88.428	0.983	-1.541	0.018	-27.578
103.153	0.019	-28.288	0.983	-1.587	0.027	88.382	1.50E-03	79.154
	0.983	-1.587	0.019	-28.288	1.50E-03	79.154	0.027	88.382
	0.027	88.382	1.50E-03	79.154	0.019	-28.288	0.983	-1.587
	1.50E-03	79.154	0.027	88.382	0.983	-1.587	0.019	-28.288
106.106	0.019	-28.991	0.983	-1.632	0.028	88.336	1.54E-03	78.849
	0.983	-1.632	0.019	-28.991	1.54E-03	78.849	0.028	88.336
	0.028	88.336	1.54E-03	78.849	0.019	-28.991	0.983	-1.632
	1.54E-03	78.849	0.028	88.336	0.983	-1.632	0.019	-28.991
109.059	0.019	-29.686	0.983	-1.677	0.028	88.29	1.59E-03	78.543
	0.983	-1.677	0.019	-29.686	1.59E-03	78.543	0.028	88.29
	0.028	88.29	1.59E-03	78.543	0.019	-29.686	0.983	-1.677
	1.59E-03	78.543	0.028	88.29	0.983	-1.677	0.019	-29.686
112.012	0.019	-30.373	0.983	-1.723	0.029	88.244	1.63E-03	78.238
	0.983	-1.723	0.019	-30.373	1.63E-03	78.238	0.029	88.244
	0.029	88.244	1.63E-03	78.238	0.019	-30.373	0.983	-1.723
	1.63E-03	78.238	0.029	88.244	0.983	-1.723	0.019	-30.373
114.965	0.019	-31.053	0.983	-1.768	0.03	88.197	1.67E-03	77.933
	0.983	-1.768	0.019	-31.053	1.67E-03	77.933	0.03	88.197
	0.03	88.197	1.67E-03	77.933	0.019	-31.053	0.983	-1.768
	1.67E-03	77.933	0.03	88.197	0.983	-1.768	0.019	-31.053
117.918	0.019	-31.725	0.983	-1.814	0.031	88.151	1.72E-03	77.629
	0.983	-1.814	0.019	-31.725	1.72E-03	77.629	0.031	88.151
	0.031	88.151	1.72E-03	77.629	0.019	-31.725	0.983	-1.814
	1.72E-03	77.629	0.031	88.151	0.983	-1.814	0.019	-31.725
120.871	0.019	-32.39	0.983	-1.859	0.031	88.105	1.76E-03	77.325
	0.983	-1.859	0.019	-32.39	1.76E-03	77.325	0.031	88.105
	0.031	88.105	1.76E-03	77.325	0.019	-32.39	0.983	-1.859
	1.76E-03	77.325	0.031	88.105	0.983	-1.859	0.019	-32.39
123.824	0.019	-33.047	0.983	-1.904	0.032	88.059	1.80E-03	77.021
	0.983	-1.904	0.019	-33.047	1.80E-03	77.021	0.032	88.059
	0.032	88.059	1.80E-03	77.021	0.019	-33.047	0.983	-1.904
	1.80E-03	77.021	0.032	88.059	0.983	-1.904	0.019	-33.047
126.777	0.019	-33.697	0.983	-1.95	0.033	88.013	1.85E-03	76.717
	0.983	-1.95	0.019	-33.697	1.85E-03	76.717	0.033	88.013
	0.033	88.013	1.85E-03	76.717	0.019	-33.697	0.983	-1.95
	1.85E-03	76.717	0.033	88.013	0.983	-1.95	0.019	-33.697
129.73	0.02	-34.339	0.983	-1.995	0.034	87.966	1.89E-03	76.414
	0.983	-1.995	0.02	-34.339	1.89E-03	76.414	0.034	87.966
	0.034	87.966	1.89E-03	76.414	0.02	-34.339	0.983	-1.995
	1.89E-03	76.414	0.034	87.966	0.983	-1.995	0.02	-34.339
132.683	0.02	-34.974	0.983	-2.04	0.034	87.92	1.94E-03	76.111
	0.983	-2.04	0.02	-34.974	1.94E-03	76.111	0.034	87.92
	0.034	87.92	1.94E-03	76.111	0.02	-34.974	0.983	-2.04
	1.94E-03	76.111	0.034	87.92	0.983	-2.04	0.02	-34.974
135.636	0.02	-35.601	0.983	-2.086	0.035	87.874	1.98E-03	75.809
	0.983	-2.086	0.02	-35.601	1.98E-03	75.809	0.035	87.874
	0.035	87.874	1.98E-03	75.809	0.02	-35.601	0.983	-2.086
	1.98E-03	75.809	0.035	87.874	0.983	-2.086	0.02	-35.601
138.589	0.02	-36.22	0.983	-2.131	0.036	87.828	2.03E-03	75.507
	0.983	-2.131	0.02	-36.22	2.03E-03	75.507	0.036	87.828
	0.036	87.828	2.03E-03	75.507	0.02	-36.22	0.983	-2.131
	2.03E-03	75.507	0.036	87.828	0.983	-2.131	0.02	-36.22
141.542	0.02	-36.832	0.983	-2.177	0.037	87.782	2.07E-03	75.205
	0.983	-2.177	0.02	-36.832	2.07E-03	75.205	0.037	87.782
	0.037	87.782	2.07E-03	75.205	0.02	-36.832	0.983	-2.177
	2.07E-03	75.205	0.037	87.782	0.983	-2.177	0.02	-36.832
144.494	0.02	-37.437	0.983	-2.222	0.038	87.736	2.12E-03	74.903
	0.983	-2.222	0.02	-37.437	2.12E-03	74.903	0.038	87.736
	0.038	87.736	2.12E-03	74.903	0.02	-37.437	0.983	-2.222
	2.12E-03	74.903	0.038	87.736	0.983	-2.222	0.02	-37.437
147.447	0.02	-38.034	0.983	-2.267	0.038	87.689	2.16E-03	74.602
	0.983	-2.267	0.02	-38.034	2.16E-03	74.602	0.038	87.689
	0.038	87.689	2.16E-03	74.602	0.02	-38.034	0.983	-2.267
	2.16E-03	74.602	0.038	87.689	0.983	-2.267	0.02	-38.034
150.4	0.02	-38.624	0.983	-2.313	0.039	87.643	2.21E-03	74.302
	0.983	-2.313	0.02	-38.624	2.21E-03	74.302	0.039	87.643
	0.039	87.643	2.21E-03	74.302	0.02	-38.624	0.983	-2.313
	2.21E-03	74.302	0.039	87.643	0.983	-2.313	0.02	-38.624
153.353	0.021	-39.207	0.982	-2.358	0.04	87.597	2.25E-03	74.001
	0.982	-2.358	0.021	-39.207	2.25E-03	74.001	0.04	87.597
	0.04	87.597	2.25E-03	74.001	0.021	-39.207	0.982	-2.358
	2.25E-03	74.001	0.04	87.597	0.982	-2.358	0.021	-39.207
156.306	0.021	-39.782	0.982	-2.403	0.041	87.551	2.30E-03	73.701
	0.982	-2.403	0.021	-39.782	2.30E-03	73.701	0.041	87.551
	0.041	87.551	2.30E-03	73.701	0.021	-39.782	0.982	-2.403
	2.30E-03	73.701	0.041	87.551	0.982	-2.403	0.021	-39.782
159.259	0.021	-40.351	0.982	-2.449	0.041	87.505	2.34E-03	73.402
	0.982	-2.449	0.021	-40.351	2.34E-03	73.402	0.041	87.505
	0.041	87.505	2.34E-03	73.402	0.021	-40.351	0.982	-2.449
	2.34E-03	73.402	0.041	87.505	0.982	-2.449	0.021	-40.351
162.212	0.021	-40.912	0.982	-2.494	0.042	87.459	2.39E-03	73.103
	0.982	-2.494	0.021	-40.912	2.39E-03	73.103	0.042	87.459
	0.042	87.459	2.39E-03	73.103	0.021	-40.912	0.982	-2.494
	2.39E-03	73.103	0.042	87.459	0.982	-2.494	0.021	-40.912
165.165	0.021	-41.466	0.982	-2.539	0.043	87.413	2.43E-03	72.804
	0.982	-2.539	0.021	-41.466	2.43E-03	72.804	0.043	87.413
	0.043	87.413	2.43E-03	72.804	0.021	-41.466	0.982	-2.539
	2.43E-03	72.804	0.043	87.413	0.982	-2.539	0.021	-41.466
168.118	0.021	-42.013	0.982	-2.585	0.044	87.366	2.48E-03	72.506
	0.982	-2.585	0.021	-42.013	2.48E-03	72.506	0.044	87.366
	0.044	87.366	2.48E-03	72.506	0.021	-42.013	0.982	-2.585
	2.48E-03	72.506	0.044	87.366	0.982	-2.585	0.021	-42.013
171.071	0.021	-42.554	0.982	-2.63	0.044	87.32	2.52E-03	72.208
	0.982	-2.63	0.021	-42.554	2.52E-03	72.208	0.044	87.32
	0.044	87.32	2.52E-03	72.208	0.021	-42.554	0.982	-2.63
	2.52E-03	72.208	0.044	87.32	0.982	-2.63	0.021	-42.554
174.024	0.022	-43.087	0.982	-2.675	0.045	87.274	2.57E-03	71.91
	0.982	-2.675	0.022	-43.087	2.57E-03	71.91	0.045	87.274
	0.045	87.274	2.57E-03	71.91	0.022	-43.087	0.982	-2.675
	2.57E-03	71.91	0.045	87.274	0.982	-2.675	0.022	-43.087
176.977	0.022	-43.614	0.982	-2.721	0.046	87.228	2.62E-03	71.613
	0.982	-2.721	0.022	-43.614	2.62E-03	71.613	0.046	87.228
	0.046	87.228	2.62E-03	71.613	0.022	-43.614	0.982	-2.721
	2.62E-03	71.613	0.046	87.228	0.982	-2.721	0.022	-43.614
179.93	0.022	-44.134	0.982	-2.766	0.047	87.182	2.66E-03	71.316
	0.982	-2.766	0.022	-44.134	2.66E-03	71.316	0.047	87.182
	0.047	87.182	2.66E-03	71.316	0.022	-44.134	0.982	-2.766
	2.66E-03	71.316	0.047	87.182	0.982	-2.766	0.022	-44.134
182.883	0.022	-44.648	0.982	-2.811	0.047	87.136	2.71E-03	71.02
	0.982	-2.811	0.022	-44.648	2.71E-03	71.02	0.047	87.136
	0.047	87.136	2.71E-03	71.02	0.022	-44.648	0.982	-2.811
	2.71E-03	71.02	0.047	87.136	0.982	-2.811	0.022	-44.648
185.836	0.022	-45.155	0.982	-2.857	0.048	87.09	2.75E-03	70.724
	0.982	-2.857	0.022	-45.155	2.75E-03	70.724	0.048	87.09
	0.048	87.09	2.75E-03	70.724	0.022	-45.155	0.982	-2.857
	2.75E-03	70.724	0.048	87.09	0.982	-2.857	0.022	-45.155
188.789	0.022	-45.656	0.982	-2.902	0.049	87.044	2.80E-03	70.429
	0.982	-2.902	0.022	-45.656	2.80E-03	70.429	0.049	87.044
	0.049	87.044	2.80E-03	70.429	0.022	-45.656	0.982	-2.902
	2.80E-03	70.429	0.049	87.044	0.982	-2.902	0.022	-45.656
191.742	0.023	-46.15	0.982	-2.947	0.05	86.997	2.85E-03	70.134
	0.982	-2.947	0.023	-46.15	2.85E-03	70.134	0.05	86.997
	0.05	86.997	2.85E-03	70.134	0.023	-46.15	0.982	-2.947
	2.85E-03	70.134	0.05	86.997	0.982	-2.947	0.023	-46.15
194.695	0.023	-46.638	0.982	-2.993	0.05	86.951	2.89E-03	69.84
	0.982	-2.993	0.023	-46.638	2.89E-03	69.84	0.05	86.951
	0.05	86.951	2.89E-03	69.84	0.023	-46.638	0.982	-2.993
	2.89E-03	69.84	0.05	86.951	0.982	-2.993	0.023	-46.638
197.648	0.023	-47.12	0.982	-3.038	0.051	86.905	2.94E-03	69.546
	0.982	-3.038	0.023	-47.12	2.94E-03	69.546	0.051	86.905
	0.051	86.905	2.94E-03	69.546	0.023	-47.12	0.982	-3.038
	2.94E-03	69.546	0.051	86.905	0.982	-3.038	0.023	-47.12
200.601	0.023	-47.596	0.982	-3.083	0.052	86.859	2.99E-03	69.252
	0.982	-3.083	0.023	-47.596	2.99E-03	69.252	0.052	86.859
	0.052	86.859	2.99E-03	69.252	0.023	-47.596	0.982	-3.083
	2.99E-03	69.252	0.052	86.859	0.982	-3.083	0.023	-47.596
203.554	0.023	-48.065	0.982	-3.129	0.053	86.813	3.03E-03	68.959
	0.982	-3.129	0.023	-48.065	3.03E-03	68.959	0.053	86.813
	0.053	86.813	3.03E-03	68.959	0.023	-48.065	0.982	-3.129
	3.03E-03	68.959	0.053	86.813	0.982	-3.129	0.023	-48.065
206.507	0.023	-48.529	0.982	-3.174	0.054	86.767	3.08E-03	68.666
	0.982	-3.174	0.023	-48.529	3.08E-03	68.666	0.054	86.767
	0.054	86.767	3.08E-03	68.666	0.023	-48.529	0.982	-3.174
	3.08E-03	68.666	0.054	86.767	0.982	-3.174	0.023	-48.529
209.459	0.024	-48.987	0.982	-3.219	0.054	86.721	3.13E-03	68.374
	0.982	-3.219	0.024	-48.987	3.13E-03	68.374	0.054	86.721
	0.054	86.721	3.13E-03	68.374	0.024	-48.987	0.982	-3.219
	3.13E-03	68.374	0.054	86.721	0.982	-3.219	0.024	-48.987
212.412	0.024	-49.439	0.982	-3.264	0.055	86.675	3.17E-03	68.083
	0.982	-3.264	0.024	-49.439	3.17E-03	68.083	0.055	86.675
	0.055	86.675	3.17E-03	68.083	0.024	-49.439	0.982	-3.264
	3.17E-03	68.083	0.055	86.675	0.982	-3.264	0.024	-49.439
215.365	0.024	-49.886	0.982	-3.31	0.056	86.629	3.22E-03	67.792
	0.982	-3.31	0.024	-49.886	3.22E-03	67.792	0.056	86.629
	0.056	86.629	3.22E-03	67.792	0.024	-49.886	0.982	-3.31
	3.22E-03	67.792	0.056	86.629	0.982	-3.31	0.024	-49.886
218.318	0.024	-50.326	0.982	-3.355	0.057	86.583	3.27E-03	67.501
	0.982	-3.355	0.024	-50.326	3.27E-03	67.501	0.057	86.583
	0.057	86.583	3.27E-03	67.501	0.024	-50.326	0.982	-3.355
	3.27E-03	67.501	0.057	86.583	0.982	-3.355	0.024	-50.326
221.271	0.024	-50.762	0.982	-3.4	0.057	86.537	3.32E-03	67.211
	0.982	-3.4	0.024	-50.762	3.32E-03	67.211	0.057	86.537
	0.057	86.537	3.32E-03	67.211	0.024	-50.762	0.982	-3.4
	3.32E-03	67.211	0.057	86.537	0.982	-3.4	0.024	-50.762
224.224	0.024	-51.192	0.981	-3.446	0.058	86.491	3.37E-03	66.921
	0.981	-3.446	0.024	-51.192	3.37E-03	66.921	0.058	86.491
	0.058	86.491	3.37E-03	66.921	0.024	-51.192	0.981	-3.446
	3.37E-03	66.921	0.058	86.491	0.981	-3.446	0.024	-51.192
227.177	0.025	-51.616	0.981	-3.491	0.059	86.445	3.41E-03	66.632
	0.981	-3.491	0.025	-51.616	3.41E-03	66.632	0.059	86.445
	0.059	86.445	3.41E-03	66.632	0.025	-51.616	0.981	-3.491
	3.41E-03	66.632	0.059	86.445	0.981	-3.491	0.025	-51.616
230.13	0.025	-52.035	0.981	-3.536	0.06	86.399	3.46E-03	66.344
	0.981	-3.536	0.025	-52.035	3.46E-03	66.344	0.06	86.399
	0.06	86.399	3.46E-03	66.344	0.025	-52.035	0.981	-3.536
	3.46E-03	66.344	0.06	86.399	0.981	-3.536	0.025	-52.035
233.083	0.025	-52.449	0.981	-3.581	0.06	86.353	3.51E-03	66.056
	0.981	-3.581	0.025	-52.449	3.51E-03	66.056	0.06	86.353
	0.06	86.353	3.51E-03	66.056	0.025	-52.449	0.981	-3.581
	3.51E-03	66.056	0.06	86.353	0.981	-3.581	0.025	-52.449
236.036	0.025	-52.858	0.981	-3.627	0.061	86.306	3.56E-03	65.768
	0.981	-3.627	0.025	-52.858	3.56E-03	65.768	0.061	86.306
	0.061	86.306	3.56E-03	65.768	0.025	-52.858	0.981	-3.627
	3.56E-03	65.768	0.061	86.306	0.981	-3.627	0.025	-52.858
238.989	0.025	-53.262	0.981	-3.672	0.062	86.26	3.61E-03	65.481
	0.981	-3.672	0.025	-53.262	3.61E-03	65.481	0.062	86.26
	0.062	86.26	3.61E-03	65.481	0.025	-53.262	0.981	-3.672
	3.61E-03	65.481	0.062	86.26	0.981	-3.672	0.025	-53.262
241.942	0.025	-53.661	0.981	-3.717	0.063	86.214	3.66E-03	65.194
	0.981	-3.717	0.025	-53.661	3.66E-03	65.194	0.063	86.214
	0.063	86.214	3.66E-03	65.194	0.025	-53.661	0.981	-3.717
	3.66E-03	65.194	0.063	86.214	0.981	-3.717	0.025	-53.661
244.895	0.026	-54.055	0.981	-3.762	0.063	86.168	3.70E-03	64.909
	0.981	-3.762	0.026	-54.055	3.70E-03	64.909	0.063	86.168
	0.063	86.168	3.70E-03	64.909	0.026	-54.055	0.981	-3.762
	3.70E-03	64.909	0.063	86.168	0.981	-3.762	0.026	-54.055
247.848	0.026	-54.445	0.981	-3.808	0.064	86.122	3.75E-03	64.623
	0.981	-3.808	0.026	-54.445	3.75E-03	64.623	0.064	86.122
	0.064	86.122	3.75E-03	64.623	0.026	-54.445	0.981	-3.808
	3.75E-03	64.623	0.064	86.122	0.981	-3.808	0.026	-54.445
250.801	0.026	-54.829	0.981	-3.853	0.065	86.076	3.80E-03	64.338
	0.981	-3.853	0.026	-54.829	3.80E-03	64.338	0.065	86.076
	0.065	86.076	3.80E-03	64.338	0.026	-54.829	0.981	-3.853
	3.80E-03	64.338	0.065	86.076	0.981	-3.853	0.026	-54.829
253.754	0.026	-55.209	0.981	-3.898	0.066	86.03	3.85E-03	64.054
	0.981	-3.898	0.026	-55.209	3.85E-03	64.054	0.066	86.03
	0.066	86.03	3.85E-03	64.054	0.026	-55.209	0.981	-3.898
	3.85E-03	64.054	0.066	86.03	0.981	-3.898	0.026	-55.209
256.707	0.026	-55.584	0.981	-3.943	0.067	85.984	3.90E-03	63.77
	0.981	-3.943	0.026	-55.584	3.90E-03	63.77	0.067	85.984
	0.067	85.984	3.90E-03	63.77	0.026	-55.584	0.981	-3.943
	3.90E-03	63.77	0.067	85.984	0.981	-3.943	0.026	-55.584
259.66	0.026	-55.955	0.981	-3.988	0.067	85.938	3.95E-03	63.487
	0.981	-3.988	0.026	-55.955	3.95E-03	63.487	0.067	85.938
	0.067	85.938	3.95E-03	63.487	0.026	-55.955	0.981	-3.988
	3.95E-03	63.487	0.067	85.938	0.981	-3.988	0.026	-55.955
262.613	0.027	-56.321	0.981	-4.034	0.068	85.892	4.00E-03	63.204
	0.981	-4.034	0.027	-56.321	4.00E-03	63.204	0.068	85.892
	0.068	85.892	4.00E-03	63.204	0.027	-56.321	0.981	-4.034
	4.00E-03	63.204	0.068	85.892	0.981	-4.034	0.027	-56.321
265.566	0.027	-56.683	0.981	-4.079	0.069	85.846	4.05E-03	62.922
	0.981	-4.079	0.027	-56.683	4.05E-03	62.922	0.069	85.846
	0.069	85.846	4.05E-03	62.922	0.027	-56.683	0.981	-4.079
	4.05E-03	62.922	0.069	85.846	0.981	-4.079	0.027	-56.683
268.519	0.027	-57.041	0.981	-4.124	0.07	85.801	4.10E-03	62.64
	0.981	-4.124	0.027	-57.041	4.10E-03	62.64	0.07	85.801
	0.07	85.801	4.10E-03	62.64	0.027	-57.041	0.981	-4.124
	4.10E-03	62.64	0.07	85.801	0.981	-4.124	0.027	-57.041
271.471	0.027	-57.395	0.981	-4.169	0.07	85.755	4.15E-03	62.359
	0.981	-4.169	0.027	-57.395	4.15E-03	62.359	0.07	85.755
	0.07	85.755	4.15E-03	62.359	0.027	-57.395	0.981	-4.169
	4.15E-03	62.359	0.07	85.755	0.981	-4.169	0.027	-57.395
274.424	0.027	-57.744	0.981	-4.215	0.071	85.709	4.20E-03	62.079
	0.981	-4.215	0.027	-57.744	4.20E-03	62.079	0.071	85.709
	0.071	85.709	4.20E-03	62.079	0.027	-57.744	0.981	-4.215
	4.20E-03	62.079	0.071	85.709	0.981	-4.215	0.027	-57.744
277.377	0.028	-58.089	0.98	-4.26	0.072	85.663	4.25E-03	61.799
	0.98	-4.26	0.028	-58.089	4.25E-03	61.799	0.072	85.663
	0.072	85.663	4.25E-03	61.799	0.028	-58.089	0.98	-4.26
	4.25E-03	61.799	0.072	85.663	0.98	-4.26	0.028	-58.089
280.33	0.028	-58.43	0.98	-4.305	0.073	85.617	4.30E-03	61.52
	0.98	-4.305	0.028	-58.43	4.30E-03	61.52	0.073	85.617
	0.073	85.617	4.30E-03	61.52	0.028	-58.43	0.98	-4.305
	4.30E-03	61.52	0.073	85.617	0.98	-4.305	0.028	-58.43
283.283	0.028	-58.768	0.98	-4.35	0.073	85.571	4.35E-03	61.241
	0.98	-4.35	0.028	-58.768	4.35E-03	61.241	0.073	85.571
	0.073	85.571	4.35E-03	61.241	0.028	-58.768	0.98	-4.35
	4.35E-03	61.241	0.073	85.571	0.98	-4.35	0.028	-58.768
286.236	0.028	-59.101	0.98	-4.395	0.074	85.525	4.40E-03	60.963
	0.98	-4.395	0.028	-59.101	4.40E-03	60.963	0.074	85.525
	0.074	85.525	4.40E-03	60.963	0.028	-59.101	0.98	-4.395
	4.40E-03	60.963	0.074	85.525	0.98	-4.395	0.028	-59.101
289.189	0.028	-59.431	0.98	-4.44	0.075	85.479	4.46E-03	60.686
	0.98	-4.44	0.028	-59.431	4.46E-03	60.686	0.075	85.479
	0.075	85.479	4.46E-03	60.686	0.028	-59.431	0.98	-4.44
	4.46E-03	60.686	0.075	85.479	0.98	-4.44	0.028	-59.431
292.142	0.029	-59.757	0.98	-4.486	0.076	85.433	4.51E-03	60.409
	0.98	-4.486	0.029	-59.757	4.51E-03	60.409	0.076	85.433
	0.076	85.433	4.51E-03	60.409	0.029	-59.757	0.98	-4.486
	4.51E-03	60.409	0.076	85.433	0.98	-4.486	0.029	-59.757
295.095	0.029	-60.079	0.98	-4.531	0.076	85.387	4.56E-03	60.132
	0.98	-4.531	0.029	-60.079	4.56E-03	60.132	0.076	85.387
	0.076	85.387	4.56E-03	60.132	0.029	-60.079	0.98	-4.531
	4.56E-03	60.132	0.076	85.387	0.98	-4.531	0.029	-60.079
298.048	0.029	-60.397	0.98	-4.576	0.077	85.341	4.61E-03	59.856
	0.98	-4.576	0.029	-60.397	4.61E-03	59.856	0.077	85.341
	0.077	85.341	4.61E-03	59.856	0.029	-60.397	0.98	-4.576
	4.61E-03	59.856	0.077	85.341	0.98	-4.576	0.029	-60.397
301.001	0.029	-60.712	0.98	-4.621	0.078	85.295	4.66E-03	59.581
