!	AVX THIN FILM OPERATION
!
!	CP0603 HIGH DIRECTIVITY COUPLERS
!	P/N CP0603AxxxxDLTR
!
!	Network	Analyzer HP8720ES.07.64:Feb23,2000 Serial No.US39172382
!	Hewlett-Packard								
!
!	24 July 2003	02:45:57

# MHZ S MA R 50

50 3.276e-3 -24.57 0.997 -0.348 3.217e-3 89.512 8.782e-6 -92.318
          0.997 -0.348 3.276e-3 -24.57 8.782e-6 -92.318 3.217e-3 89.512
          3.217e-3 89.512 8.782e-6 -92.318 3.937e-3 40.076 0.997 -0.572
          8.782e-6 -92.318 3.217e-3 89.512 0.997 -0.572 3.937e-3 40.076
64.912 3.459e-3 -30.747 0.997 -0.452 4.176e-3 89.375 11.46e-6 -96.172
          0.997 -0.452 3.459e-3 -30.747 11.46e-6 -96.172 4.176e-3 89.375
          4.176e-3 89.375 11.46e-6 -96.172 4.473e-3 47.371 0.997 -0.743
          11.46e-6 -96.172 4.176e-3 89.375 0.997 -0.743 4.473e-3 47.371
79.825 3.676e-3 -36.261 0.997 -0.556 5.136e-3 89.238 14.23e-6 -99.952
          0.997 -0.556 3.676e-3 -36.261 14.23e-6 -99.952 5.136e-3 89.238
          5.136e-3 89.238 14.23e-6 -99.952 5.067e-3 52.995 0.997 -0.913
          14.23e-6 -99.952 5.136e-3 89.238 0.997 -0.913 5.067e-3 52.995
94.737 3.923e-3 -41.133 0.997 -0.66 6.095e-3 89.101 17.12e-6 -103.64
          0.997 -0.66 3.923e-3 -41.133 17.12e-6 -103.64 6.095e-3 89.101
          6.095e-3 89.101 17.12e-6 -103.64 5.703e-3 57.367 0.997 -1.084
          17.12e-6 -103.64 6.095e-3 89.101 0.997 -1.084 5.703e-3 57.367
109.649 4.193e-3 -45.415 0.997 -0.764 7.054e-3 88.964 20.16e-6 -107.216
          0.997 -0.764 4.193e-3 -45.415 20.16e-6 -107.216 7.054e-3 88.964
          7.054e-3 88.964 20.16e-6 -107.216 6.367e-3 60.81 0.997 -1.255
          20.16e-6 -107.216 7.054e-3 88.964 0.997 -1.255 6.367e-3 60.81
124.561 4.483e-3 -49.174 0.997 -0.867 8.013e-3 88.827 23.37e-6 -110.66
          0.997 -0.867 4.483e-3 -49.174 23.37e-6 -110.66 8.013e-3 88.827
          8.013e-3 88.827 23.37e-6 -110.66 7.051e-3 63.561 0.997 -1.425
          23.37e-6 -110.66 8.013e-3 88.827 0.997 -1.425 7.051e-3 63.561
139.474 4.789e-3 -52.477 0.997 -0.971 8.972e-3 88.691 26.79e-6 -113.958
          0.997 -0.971 4.789e-3 -52.477 26.79e-6 -113.958 8.972e-3 88.691
          8.972e-3 88.691 26.79e-6 -113.958 7.751e-3 65.791 0.997 -1.596
          26.79e-6 -113.958 8.972e-3 88.691 0.997 -1.596 7.751e-3 65.791
154.386 5.108e-3 -55.388 0.997 -1.075 9.931e-3 88.554 30.43e-6 -117.101
          0.997 -1.075 5.108e-3 -55.388 30.43e-6 -117.101 9.931e-3 88.554
          9.931e-3 88.554 30.43e-6 -117.101 8.462e-3 67.62 0.997 -1.767
          30.43e-6 -117.101 9.931e-3 88.554 0.997 -1.767 8.462e-3 67.62
169.298 5.438e-3 -57.964 0.997 -1.179 0.011 88.417 34.32e-6 -120.083
          0.997 -1.179 5.438e-3 -57.964 34.32e-6 -120.083 0.011 88.417
          0.011 88.417 34.32e-6 -120.083 9.182e-3 69.138 0.997 -1.937
          34.32e-6 -120.083 0.011 88.417 0.997 -1.937 9.182e-3 69.138
184.211 5.776e-3 -60.253 0.997 -1.283 0.012 88.28 38.46e-6 -122.902
          0.997 -1.283 5.776e-3 -60.253 38.46e-6 -122.902 0.012 88.28
          0.012 88.28 38.46e-6 -122.902 9.909e-3 70.409 0.997 -2.108
          38.46e-6 -122.902 0.012 88.28 0.997 -2.108 9.909e-3 70.409
199.123 6.122e-3 -62.297 0.997 -1.387 0.013 88.143 42.88e-6 -125.56
          0.997 -1.387 6.122e-3 -62.297 42.88e-6 -125.56 0.013 88.143
          0.013 88.143 42.88e-6 -125.56 0.011 71.483 0.997 -2.279
          42.88e-6 -125.56 0.013 88.143 0.997 -2.279 0.011 71.483
214.035 6.475e-3 -64.132 0.997 -1.49 0.014 88.006 47.58e-6 -128.061
          0.997 -1.49 6.475e-3 -64.132 47.58e-6 -128.061 0.014 88.006
          0.014 88.006 47.58e-6 -128.061 0.011 72.397 0.997 -2.449
          47.58e-6 -128.061 0.014 88.006 0.997 -2.449 0.011 72.397
228.947 6.832e-3 -65.786 0.997 -1.594 0.015 87.869 52.57e-6 -130.41
          0.997 -1.594 6.832e-3 -65.786 52.57e-6 -130.41 0.015 87.869
          0.015 87.869 52.57e-6 -130.41 0.012 73.178 0.997 -2.62
          52.57e-6 -130.41 0.015 87.869 0.997 -2.62 0.012 73.178
243.86 7.194e-3 -67.286 0.997 -1.698 0.016 87.732 57.88e-6 -132.615
          0.997 -1.698 7.194e-3 -67.286 57.88e-6 -132.615 0.016 87.732
          0.016 87.732 57.88e-6 -132.615 0.013 73.849 0.997 -2.791
          57.88e-6 -132.615 0.016 87.732 0.997 -2.791 0.013 73.849
258.772 7.56e-3 -68.65 0.997 -1.802 0.017 87.595 63.49e-6 -134.683
          0.997 -1.802 7.56e-3 -68.65 63.49e-6 -134.683 0.017 87.595
          0.017 87.595 63.49e-6 -134.683 0.014 74.429 0.997 -2.961
          63.49e-6 -134.683 0.017 87.595 0.997 -2.961 0.014 74.429
273.684 7.929e-3 -69.897 0.997 -1.906 0.018 87.458 69.42e-6 -136.623
          0.997 -1.906 7.929e-3 -69.897 69.42e-6 -136.623 0.018 87.458
          0.018 87.458 69.42e-6 -136.623 0.014 74.931 0.997 -3.132
          69.42e-6 -136.623 0.018 87.458 0.997 -3.132 0.014 74.931
288.596 8.3e-3 -71.042 0.997 -2.01 0.019 87.321 75.68e-6 -138.443
          0.997 -2.01 8.3e-3 -71.042 75.68e-6 -138.443 0.019 87.321
          0.019 87.321 75.68e-6 -138.443 0.015 75.366 0.997 -3.303
          75.68e-6 -138.443 0.019 87.321 0.997 -3.303 0.015 75.366
303.509 8.675e-3 -72.098 0.997 -2.113 0.02 87.184 82.26e-6 -140.15
          0.997 -2.113 8.675e-3 -72.098 82.26e-6 -140.15 0.02 87.184
          0.02 87.184 82.26e-6 -140.15 0.016 75.743 0.997 -3.473
          82.26e-6 -140.15 0.02 87.184 0.997 -3.473 0.016 75.743
318.421 9.051e-3 -73.074 0.997 -2.217 0.02 87.047 89.18e-6 -141.754
          0.997 -2.217 9.051e-3 -73.074 89.18e-6 -141.754 0.02 87.047
          0.02 87.047 89.18e-6 -141.754 0.017 76.071 0.997 -3.644
          89.18e-6 -141.754 0.02 87.047 0.997 -3.644 0.017 76.071
333.333 9.429e-3 -73.98 0.997 -2.321 0.021 86.91 96.43e-6 -143.261
          0.997 -2.321 9.429e-3 -73.98 96.43e-6 -143.261 0.021 86.91
          0.021 86.91 96.43e-6 -143.261 0.017 76.356 0.997 -3.815
          96.43e-6 -143.261 0.021 86.91 0.997 -3.815 0.017 76.356
348.246 9.809e-3 -74.823 0.997 -2.425 0.022 86.773 104e-6 -144.678
          0.997 -2.425 9.809e-3 -74.823 104e-6 -144.678 0.022 86.773
          0.022 86.773 104e-6 -144.678 0.018 76.603 0.997 -3.985
          104e-6 -144.678 0.022 86.773 0.997 -3.985 0.018 76.603
363.158 0.01 -75.612 0.997 -2.528 0.023 86.636 112e-6 -146.013
          0.997 -2.528 0.01 -75.612 112e-6 -146.013 0.023 86.636
          0.023 86.636 112e-6 -146.013 0.019 76.817 0.997 -4.156
          112e-6 -146.013 0.023 86.636 0.997 -4.156 0.019 76.817
378.07 0.011 -76.35 0.997 -2.632 0.024 86.5 120.2e-6 -147.271
          0.997 -2.632 0.011 -76.35 120.2e-6 -147.271 0.024 86.5
          0.024 86.5 120.2e-6 -147.271 0.02 77.001 0.996 -4.327
          120.2e-6 -147.271 0.024 86.5 0.996 -4.327 0.02 77.001
392.982 0.011 -77.044 0.997 -2.736 0.025 86.363 128.9e-6 -148.458
          0.997 -2.736 0.011 -77.044 128.9e-6 -148.458 0.025 86.363
          0.025 86.363 128.9e-6 -148.458 0.02 77.159 0.996 -4.497
          128.9e-6 -148.458 0.025 86.363 0.996 -4.497 0.02 77.159
407.895 0.011 -77.698 0.997 -2.84 0.026 86.226 137.8e-6 -149.579
          0.997 -2.84 0.011 -77.698 137.8e-6 -149.579 0.026 86.226
          0.026 86.226 137.8e-6 -149.579 0.021 77.294 0.996 -4.668
          137.8e-6 -149.579 0.026 86.226 0.996 -4.668 0.021 77.294
422.807 0.012 -78.316 0.997 -2.944 0.027 86.089 147.1e-6 -150.641
          0.997 -2.944 0.012 -78.316 147.1e-6 -150.641 0.027 86.089
          0.027 86.089 147.1e-6 -150.641 0.022 77.407 0.996 -4.839
          147.1e-6 -150.641 0.027 86.089 0.996 -4.839 0.022 77.407
437.719 0.012 -78.9 0.997 -3.047 0.028 85.952 156.8e-6 -151.646
          0.997 -3.047 0.012 -78.9 156.8e-6 -151.646 0.028 85.952
          0.028 85.952 156.8e-6 -151.646 0.023 77.501 0.996 -5.009
          156.8e-6 -151.646 0.028 85.952 0.996 -5.009 0.023 77.501
452.632 0.012 -79.455 0.996 -3.151 0.029 85.815 166.8e-6 -152.599
          0.996 -3.151 0.012 -79.455 166.8e-6 -152.599 0.029 85.815
          0.029 85.815 166.8e-6 -152.599 0.023 77.578 0.996 -5.18
          166.8e-6 -152.599 0.029 85.815 0.996 -5.18 0.023 77.578
467.544 0.013 -79.983 0.996 -3.255 0.03 85.678 177.2e-6 -153.503
          0.996 -3.255 0.013 -79.983 177.2e-6 -153.503 0.03 85.678
          0.03 85.678 177.2e-6 -153.503 0.024 77.64 0.996 -5.351
          177.2e-6 -153.503 0.03 85.678 0.996 -5.351 0.024 77.64
482.456 0.013 -80.485 0.996 -3.358 0.031 85.541 188e-6 -154.364
          0.996 -3.358 0.013 -80.485 188e-6 -154.364 0.031 85.541
          0.031 85.541 188e-6 -154.364 0.025 77.687 0.996 -5.521
          188e-6 -154.364 0.031 85.541 0.996 -5.521 0.025 77.687
497.368 0.014 -80.965 0.996 -3.462 0.032 85.404 199e-6 -155.182
          0.996 -3.462 0.014 -80.965 199e-6 -155.182 0.032 85.404
          0.032 85.404 199e-6 -155.182 0.026 77.722 0.996 -5.692
          199e-6 -155.182 0.032 85.404 0.996 -5.692 0.026 77.722
512.281 0.014 -81.423 0.996 -3.566 0.033 85.267 210.5e-6 -155.963
          0.996 -3.566 0.014 -81.423 210.5e-6 -155.963 0.033 85.267
          0.033 85.267 210.5e-6 -155.963 0.026 77.745 0.996 -5.863
          210.5e-6 -155.963 0.033 85.267 0.996 -5.863 0.026 77.745
527.193 0.014 -81.863 0.996 -3.67 0.034 85.13 222.3e-6 -156.707
          0.996 -3.67 0.014 -81.863 222.3e-6 -156.707 0.034 85.13
          0.034 85.13 222.3e-6 -156.707 0.027 77.757 0.996 -6.033
          222.3e-6 -156.707 0.034 85.13 0.996 -6.033 0.027 77.757
542.105 0.015 -82.285 0.996 -3.773 0.035 84.994 234.5e-6 -157.418
          0.996 -3.773 0.015 -82.285 234.5e-6 -157.418 0.035 84.994
          0.035 84.994 234.5e-6 -157.418 0.028 77.759 0.996 -6.204
          234.5e-6 -157.418 0.035 84.994 0.996 -6.204 0.028 77.759
557.018 0.015 -82.69 0.996 -3.877 0.036 84.857 247e-6 -158.098
          0.996 -3.877 0.015 -82.69 247e-6 -158.098 0.036 84.857
          0.036 84.857 247e-6 -158.098 0.029 77.752 0.996 -6.375
          247e-6 -158.098 0.036 84.857 0.996 -6.375 0.029 77.752
571.93 0.016 -83.08 0.996 -3.981 0.037 84.72 259.9e-6 -158.749
          0.996 -3.981 0.016 -83.08 259.9e-6 -158.749 0.037 84.72
          0.037 84.72 259.9e-6 -158.749 0.03 77.737 0.996 -6.546
          259.9e-6 -158.749 0.037 84.72 0.996 -6.546 0.03 77.737
586.842 0.016 -83.455 0.996 -4.084 0.038 84.583 273.1e-6 -159.373
          0.996 -4.084 0.016 -83.455 273.1e-6 -159.373 0.038 84.583
          0.038 84.583 273.1e-6 -159.373 0.03 77.714 0.996 -6.716
          273.1e-6 -159.373 0.038 84.583 0.996 -6.716 0.03 77.714
601.754 0.016 -83.818 0.996 -4.188 0.039 84.446 286.7e-6 -159.971
          0.996 -4.188 0.016 -83.818 286.7e-6 -159.971 0.039 84.446
          0.039 84.446 286.7e-6 -159.971 0.031 77.683 0.996 -6.887
          286.7e-6 -159.971 0.039 84.446 0.996 -6.887 0.031 77.683
616.667 0.017 -84.169 0.996 -4.291 0.04 84.309 300.7e-6 -160.546
          0.996 -4.291 0.017 -84.169 300.7e-6 -160.546 0.04 84.309
          0.04 84.309 300.7e-6 -160.546 0.032 77.646 0.996 -7.058
          300.7e-6 -160.546 0.04 84.309 0.996 -7.058 0.032 77.646
631.579 0.017 -84.508 0.996 -4.395 0.041 84.172 315.1e-6 -161.098
          0.996 -4.395 0.017 -84.508 315.1e-6 -161.098 0.041 84.172
          0.041 84.172 315.1e-6 -161.098 0.033 77.603 0.996 -7.228
          315.1e-6 -161.098 0.041 84.172 0.996 -7.228 0.033 77.603
646.491 0.018 -84.836 0.996 -4.499 0.041 84.035 329.8e-6 -161.63
          0.996 -4.499 0.018 -84.836 329.8e-6 -161.63 0.041 84.035
          0.041 84.035 329.8e-6 -161.63 0.033 77.553 0.996 -7.399
          329.8e-6 -161.63 0.041 84.035 0.996 -7.399 0.033 77.553
661.404 0.018 -85.155 0.996 -4.602 0.042 83.898 344.9e-6 -162.142
          0.996 -4.602 0.018 -85.155 344.9e-6 -162.142 0.042 83.898
          0.042 83.898 344.9e-6 -162.142 0.034 77.499 0.995 -7.57
          344.9e-6 -162.142 0.042 83.898 0.995 -7.57 0.034 77.499
676.316 0.018 -85.464 0.996 -4.706 0.043 83.762 360.3e-6 -162.635
          0.996 -4.706 0.018 -85.464 360.3e-6 -162.635 0.043 83.762
          0.043 83.762 360.3e-6 -162.635 0.035 77.439 0.995 -7.741
          360.3e-6 -162.635 0.043 83.762 0.995 -7.741 0.035 77.439
691.228 0.019 -85.765 0.996 -4.809 0.044 83.625 376.2e-6 -163.112
          0.996 -4.809 0.019 -85.765 376.2e-6 -163.112 0.044 83.625
          0.044 83.625 376.2e-6 -163.112 0.036 77.375 0.995 -7.911
          376.2e-6 -163.112 0.044 83.625 0.995 -7.911 0.036 77.375
706.14 0.019 -86.057 0.996 -4.913 0.045 83.488 392.4e-6 -163.572
          0.996 -4.913 0.019 -86.057 392.4e-6 -163.572 0.045 83.488
          0.045 83.488 392.4e-6 -163.572 0.036 77.306 0.995 -8.082
          392.4e-6 -163.572 0.045 83.488 0.995 -8.082 0.036 77.306
721.053 0.02 -86.342 0.996 -5.017 0.046 83.351 408.9e-6 -164.017
          0.996 -5.017 0.02 -86.342 408.9e-6 -164.017 0.046 83.351
          0.046 83.351 408.9e-6 -164.017 0.037 77.233 0.995 -8.253
          408.9e-6 -164.017 0.046 83.351 0.995 -8.253 0.037 77.233
735.965 0.02 -86.619 0.996 -5.12 0.047 83.214 425.9e-6 -164.447
          0.996 -5.12 0.02 -86.619 425.9e-6 -164.447 0.047 83.214
          0.047 83.214 425.9e-6 -164.447 0.038 77.156 0.995 -8.423
          425.9e-6 -164.447 0.047 83.214 0.995 -8.423 0.038 77.156
750.877 0.02 -86.889 0.996 -5.224 0.048 83.077 443.2e-6 -164.864
          0.996 -5.224 0.02 -86.889 443.2e-6 -164.864 0.048 83.077
          0.048 83.077 443.2e-6 -164.864 0.039 77.075 0.995 -8.594
          443.2e-6 -164.864 0.048 83.077 0.995 -8.594 0.039 77.075
765.789 0.021 -87.154 0.996 -5.327 0.049 82.94 460.9e-6 -165.268
          0.996 -5.327 0.021 -87.154 460.9e-6 -165.268 0.049 82.94
          0.049 82.94 460.9e-6 -165.268 0.04 76.991 0.995 -8.765
          460.9e-6 -165.268 0.049 82.94 0.995 -8.765 0.04 76.991
780.702 0.021 -87.412 0.995 -5.431 0.05 82.804 479e-6 -165.659
          0.995 -5.431 0.021 -87.412 479e-6 -165.659 0.05 82.804
          0.05 82.804 479e-6 -165.659 0.04 76.903 0.995 -8.936
          479e-6 -165.659 0.05 82.804 0.995 -8.936 0.04 76.903
795.614 0.021 -87.664 0.995 -5.534 0.051 82.667 497.4e-6 -166.039
          0.995 -5.534 0.021 -87.664 497.4e-6 -166.039 0.051 82.667
          0.051 82.667 497.4e-6 -166.039 0.041 76.813 0.995 -9.106
          497.4e-6 -166.039 0.051 82.667 0.995 -9.106 0.041 76.813
810.526 0.022 -87.911 0.995 -5.638 0.052 82.53 516.3e-6 -166.409
          0.995 -5.638 0.022 -87.911 516.3e-6 -166.409 0.052 82.53
          0.052 82.53 516.3e-6 -166.409 0.042 76.719 0.995 -9.277
          516.3e-6 -166.409 0.052 82.53 0.995 -9.277 0.042 76.719
825.439 0.022 -88.152 0.995 -5.741 0.053 82.393 535.5e-6 -166.768
          0.995 -5.741 0.022 -88.152 535.5e-6 -166.768 0.053 82.393
          0.053 82.393 535.5e-6 -166.768 0.043 76.623 0.995 -9.448
          535.5e-6 -166.768 0.053 82.393 0.995 -9.448 0.043 76.623
840.351 0.023 -88.389 0.995 -5.844 0.054 82.256 555.1e-6 -167.117
          0.995 -5.844 0.023 -88.389 555.1e-6 -167.117 0.054 82.256
          0.054 82.256 555.1e-6 -167.117 0.043 76.524 0.995 -9.619
          555.1e-6 -167.117 0.054 82.256 0.995 -9.619 0.043 76.524
855.263 0.023 -88.621 0.995 -5.948 0.055 82.119 575.1e-6 -167.457
          0.995 -5.948 0.023 -88.621 575.1e-6 -167.457 0.055 82.119
          0.055 82.119 575.1e-6 -167.457 0.044 76.423 0.994 -9.79
          575.1e-6 -167.457 0.055 82.119 0.994 -9.79 0.044 76.423
870.175 0.023 -88.849 0.995 -6.051 0.056 81.983 595.5e-6 -167.788
          0.995 -6.051 0.023 -88.849 595.5e-6 -167.788 0.056 81.983
          0.056 81.983 595.5e-6 -167.788 0.045 76.319 0.994 -9.96
          595.5e-6 -167.788 0.056 81.983 0.994 -9.96 0.045 76.319
885.088 0.024 -89.072 0.995 -6.155 0.057 81.846 616.2e-6 -168.111
          0.995 -6.155 0.024 -89.072 616.2e-6 -168.111 0.057 81.846
          0.057 81.846 616.2e-6 -168.111 0.046 76.213 0.994 -10.131
          616.2e-6 -168.111 0.057 81.846 0.994 -10.131 0.046 76.213
900 0.024 -89.292 0.995 -6.258 0.058 81.709 637.4e-6 -168.425
          0.995 -6.258 0.024 -89.292 637.4e-6 -168.425 0.058 81.709
          0.058 81.709 637.4e-6 -168.425 0.047 76.105 0.994 -10.302
          637.4e-6 -168.425 0.058 81.709 0.994 -10.302 0.047 76.105
914.912 0.025 -89.508 0.995 -6.361 0.059 81.572 658.9e-6 -168.733
          0.995 -6.361 0.025 -89.508 658.9e-6 -168.733 0.059 81.572
          0.059 81.572 658.9e-6 -168.733 0.047 75.995 0.994 -10.473
          658.9e-6 -168.733 0.059 81.572 0.994 -10.473 0.047 75.995
929.825 0.025 -89.72 0.995 -6.465 0.06 81.435 680.9e-6 -169.033
          0.995 -6.465 0.025 -89.72 680.9e-6 -169.033 0.06 81.435
          0.06 81.435 680.9e-6 -169.033 0.048 75.882 0.994 -10.643
          680.9e-6 -169.033 0.06 81.435 0.994 -10.643 0.048 75.882
944.737 0.025 -89.928 0.995 -6.568 0.06 81.299 703.2e-6 -169.326
          0.995 -6.568 0.025 -89.928 703.2e-6 -169.326 0.06 81.299
          0.06 81.299 703.2e-6 -169.326 0.049 75.769 0.994 -10.814
          703.2e-6 -169.326 0.06 81.299 0.994 -10.814 0.049 75.769
959.649 0.026 -90.133 0.995 -6.671 0.061 81.162 725.9e-6 -169.613
          0.995 -6.671 0.026 -90.133 725.9e-6 -169.613 0.061 81.162
          0.061 81.162 725.9e-6 -169.613 0.05 75.653 0.994 -10.985
          725.9e-6 -169.613 0.061 81.162 0.994 -10.985 0.05 75.653
974.561 0.026 -90.336 0.995 -6.775 0.062 81.025 749e-6 -169.893
          0.995 -6.775 0.026 -90.336 749e-6 -169.893 0.062 81.025
          0.062 81.025 749e-6 -169.893 0.05 75.535 0.994 -11.156
          749e-6 -169.893 0.062 81.025 0.994 -11.156 0.05 75.535
989.474 0.027 -90.535 0.995 -6.878 0.063 80.888 772.5e-6 -170.168
          0.995 -6.878 0.027 -90.535 772.5e-6 -170.168 0.063 80.888
          0.063 80.888 772.5e-6 -170.168 0.051 75.416 0.994 -11.327
          772.5e-6 -170.168 0.063 80.888 0.994 -11.327 0.051 75.416
1004.386 0.027 -90.731 0.995 -6.981 0.064 80.752 796.4e-6 -170.437
          0.995 -6.981 0.027 -90.731 796.4e-6 -170.437 0.064 80.752
          0.064 80.752 796.4e-6 -170.437 0.052 75.296 0.994 -11.497
          796.4e-6 -170.437 0.064 80.752 0.994 -11.497 0.052 75.296
1019.298 0.027 -90.924 0.994 -7.084 0.065 80.615 820.8e-6 -170.701
          0.994 -7.084 0.027 -90.924 820.8e-6 -170.701 0.065 80.615
          0.065 80.615 820.8e-6 -170.701 0.053 75.174 0.993 -11.668
          820.8e-6 -170.701 0.065 80.615 0.993 -11.668 0.053 75.174
1034.211 0.028 -91.115 0.994 -7.188 0.066 80.478 845.5e-6 -170.959
          0.994 -7.188 0.028 -91.115 845.5e-6 -170.959 0.066 80.478
          0.066 80.478 845.5e-6 -170.959 0.054 75.05 0.993 -11.839
          845.5e-6 -170.959 0.066 80.478 0.993 -11.839 0.054 75.05
1049.123 0.028 -91.303 0.994 -7.291 0.067 80.341 870.6e-6 -171.213
          0.994 -7.291 0.028 -91.303 870.6e-6 -171.213 0.067 80.341
          0.067 80.341 870.6e-6 -171.213 0.054 74.926 0.993 -12.01
          870.6e-6 -171.213 0.067 80.341 0.993 -12.01 0.054 74.926
1064.035 0.028 -91.489 0.994 -7.394 0.068 80.204 896.1e-6 -171.462
          0.994 -7.394 0.028 -91.489 896.1e-6 -171.462 0.068 80.204
          0.068 80.204 896.1e-6 -171.462 0.055 74.8 0.993 -12.181
          896.1e-6 -171.462 0.068 80.204 0.993 -12.181 0.055 74.8
1078.947 0.029 -91.673 0.994 -7.497 0.069 80.068 922e-6 -171.706
          0.994 -7.497 0.029 -91.673 922e-6 -171.706 0.069 80.068
          0.069 80.068 922e-6 -171.706 0.056 74.672 0.993 -12.352
          922e-6 -171.706 0.069 80.068 0.993 -12.352 0.056 74.672
1093.86 0.029 -91.854 0.994 -7.6 0.07 79.931 948.4e-6 -171.946
          0.994 -7.6 0.029 -91.854 948.4e-6 -171.946 0.07 79.931
          0.07 79.931 948.4e-6 -171.946 0.057 74.544 0.993 -12.522
          948.4e-6 -171.946 0.07 79.931 0.993 -12.522 0.057 74.544
1108.772 0.03 -92.033 0.994 -7.704 0.071 79.794 975.1e-6 -172.182
          0.994 -7.704 0.03 -92.033 975.1e-6 -172.182 0.071 79.794
          0.071 79.794 975.1e-6 -172.182 0.057 74.414 0.993 -12.693
          975.1e-6 -172.182 0.071 79.794 0.993 -12.693 0.057 74.414
1123.684 0.03 -92.21 0.994 -7.807 0.072 79.658 1.002e-3 -172.415
          0.994 -7.807 0.03 -92.21 1.002e-3 -172.415 0.072 79.658
          0.072 79.658 1.002e-3 -172.415 0.058 74.283 0.993 -12.864
          1.002e-3 -172.415 0.072 79.658 0.993 -12.864 0.058 74.283
1138.596 0.03 -92.385 0.994 -7.91 0.073 79.521 1.03e-3 -172.643
          0.994 -7.91 0.03 -92.385 1.03e-3 -172.643 0.073 79.521
