!	AVX THIN FILM OPERATION
!
!	CP0805 DIRECTIONAL COUPLERS
!	P/N CP0603AxxxxDWTR/DSTR
!
!	Network	Analyzer HP8720ES.07.64:Feb23,2000 Serial No.US39172382
!	Hewlett-Packard								
!
!	28 August 2007	02:45:57
# MHZ S MA R 50

40 6.096e-3 -36.501 0.995 -0.696 8.937e-3 89.187 1.992e-3 88.051
          0.995 -0.696 6.096e-3 -36.501 1.992e-3 88.051 8.937e-3 89.187
          8.937e-3 89.187 1.992e-3 88.051 6.096e-3 -36.501 0.995 -0.696
          1.992e-3 88.051 8.937e-3 89.187 0.995 -0.696 6.096e-3 -36.501
43.96 6.305e-3 -39.199 0.995 -0.765 9.822e-3 89.114 2.189e-3 87.89
          0.995 -0.765 6.305e-3 -39.199 2.189e-3 87.89 9.822e-3 89.114
          9.822e-3 89.114 2.189e-3 87.89 6.305e-3 -39.199 0.995 -0.765
          2.189e-3 87.89 9.822e-3 89.114 0.995 -0.765 6.305e-3 -39.199
47.92 6.526e-3 -41.725 0.995 -0.834 0.011 89.04 2.386e-3 87.728
          0.995 -0.834 6.526e-3 -41.725 2.386e-3 87.728 0.011 89.04
          0.011 89.04 2.386e-3 87.728 6.526e-3 -41.725 0.995 -0.834
          2.386e-3 87.728 0.011 89.04 0.995 -0.834 6.526e-3 -41.725
51.88 6.758e-3 -44.089 0.995 -0.903 0.012 88.967 2.584e-3 87.567
          0.995 -0.903 6.758e-3 -44.089 2.584e-3 87.567 0.012 88.967
          0.012 88.967 2.584e-3 87.567 6.758e-3 -44.089 0.995 -0.903
          2.584e-3 87.567 0.012 88.967 0.995 -0.903 6.758e-3 -44.089
55.84 6.999e-3 -46.298 0.995 -0.972 0.012 88.893 2.781e-3 87.405
          0.995 -0.972 6.999e-3 -46.298 2.781e-3 87.405 0.012 88.893
          0.012 88.893 2.781e-3 87.405 6.999e-3 -46.298 0.995 -0.972
          2.781e-3 87.405 0.012 88.893 0.995 -0.972 6.999e-3 -46.298
59.8 7.25e-3 -48.364 0.995 -1.04 0.013 88.82 2.978e-3 87.244
          0.995 -1.04 7.25e-3 -48.364 2.978e-3 87.244 0.013 88.82
          0.013 88.82 2.978e-3 87.244 7.25e-3 -48.364 0.995 -1.04
          2.978e-3 87.244 0.013 88.82 0.995 -1.04 7.25e-3 -48.364
63.76 7.509e-3 -50.296 0.995 -1.109 0.014 88.746 3.175e-3 87.082
          0.995 -1.109 7.509e-3 -50.296 3.175e-3 87.082 0.014 88.746
          0.014 88.746 3.175e-3 87.082 7.509e-3 -50.296 0.995 -1.109
          3.175e-3 87.082 0.014 88.746 0.995 -1.109 7.509e-3 -50.296
67.72 7.774e-3 -52.104 0.995 -1.178 0.015 88.673 3.372e-3 86.921
          0.995 -1.178 7.774e-3 -52.104 3.372e-3 86.921 0.015 88.673
          0.015 88.673 3.372e-3 86.921 7.774e-3 -52.104 0.995 -1.178
          3.372e-3 86.921 0.015 88.673 0.995 -1.178 7.774e-3 -52.104
71.68 8.046e-3 -53.798 0.995 -1.247 0.016 88.599 3.569e-3 86.759
          0.995 -1.247 8.046e-3 -53.798 3.569e-3 86.759 0.016 88.599
          0.016 88.599 3.569e-3 86.759 8.046e-3 -53.798 0.995 -1.247
          3.569e-3 86.759 0.016 88.599 0.995 -1.247 8.046e-3 -53.798
75.64 8.324e-3 -55.386 0.995 -1.316 0.017 88.526 3.766e-3 86.597
          0.995 -1.316 8.324e-3 -55.386 3.766e-3 86.597 0.017 88.526
          0.017 88.526 3.766e-3 86.597 8.324e-3 -55.386 0.995 -1.316
          3.766e-3 86.597 0.017 88.526 0.995 -1.316 8.324e-3 -55.386
79.6 8.607e-3 -56.876 0.995 -1.385 0.018 88.452 3.963e-3 86.436
          0.995 -1.385 8.607e-3 -56.876 3.963e-3 86.436 0.018 88.452
          0.018 88.452 3.963e-3 86.436 8.607e-3 -56.876 0.995 -1.385
          3.963e-3 86.436 0.018 88.452 0.995 -1.385 8.607e-3 -56.876
83.56 8.895e-3 -58.277 0.995 -1.454 0.019 88.379 4.16e-3 86.274
          0.995 -1.454 8.895e-3 -58.277 4.16e-3 86.274 0.019 88.379
          0.019 88.379 4.16e-3 86.274 8.895e-3 -58.277 0.995 -1.454
          4.16e-3 86.274 0.019 88.379 0.995 -1.454 8.895e-3 -58.277
87.52 9.187e-3 -59.595 0.995 -1.523 0.02 88.306 4.357e-3 86.113
          0.995 -1.523 9.187e-3 -59.595 4.357e-3 86.113 0.02 88.306
          0.02 88.306 4.357e-3 86.113 9.187e-3 -59.595 0.995 -1.523
          4.357e-3 86.113 0.02 88.306 0.995 -1.523 9.187e-3 -59.595
91.48 9.483e-3 -60.838 0.995 -1.591 0.02 88.232 4.554e-3 85.951
          0.995 -1.591 9.483e-3 -60.838 4.554e-3 85.951 0.02 88.232
          0.02 88.232 4.554e-3 85.951 9.483e-3 -60.838 0.995 -1.591
          4.554e-3 85.951 0.02 88.232 0.995 -1.591 9.483e-3 -60.838
95.44 9.783e-3 -62.01 0.995 -1.66 0.021 88.159 4.751e-3 85.79
          0.995 -1.66 9.783e-3 -62.01 4.751e-3 85.79 0.021 88.159
          0.021 88.159 4.751e-3 85.79 9.783e-3 -62.01 0.995 -1.66
          4.751e-3 85.79 0.021 88.159 0.995 -1.66 9.783e-3 -62.01
99.4 0.01 -63.119 0.995 -1.729 0.022 88.085 4.948e-3 85.628
          0.995 -1.729 0.01 -63.119 4.948e-3 85.628 0.022 88.085
          0.022 88.085 4.948e-3 85.628 0.01 -63.119 0.995 -1.729
          4.948e-3 85.628 0.022 88.085 0.995 -1.729 0.01 -63.119
103.36 0.01 -64.167 0.995 -1.798 0.023 88.012 5.144e-3 85.466
          0.995 -1.798 0.01 -64.167 5.144e-3 85.466 0.023 88.012
          0.023 88.012 5.144e-3 85.466 0.01 -64.167 0.995 -1.798
          5.144e-3 85.466 0.023 88.012 0.995 -1.798 0.01 -64.167
107.32 0.011 -65.161 0.995 -1.867 0.024 87.938 5.341e-3 85.305
          0.995 -1.867 0.011 -65.161 5.341e-3 85.305 0.024 87.938
          0.024 87.938 5.341e-3 85.305 0.011 -65.161 0.995 -1.867
          5.341e-3 85.305 0.024 87.938 0.995 -1.867 0.011 -65.161
111.28 0.011 -66.105 0.995 -1.936 0.025 87.865 5.538e-3 85.143
          0.995 -1.936 0.011 -66.105 5.538e-3 85.143 0.025 87.865
          0.025 87.865 5.538e-3 85.143 0.011 -66.105 0.995 -1.936
          5.538e-3 85.143 0.025 87.865 0.995 -1.936 0.011 -66.105
115.24 0.011 -67.002 0.995 -2.005 0.026 87.791 5.735e-3 84.982
          0.995 -2.005 0.011 -67.002 5.735e-3 84.982 0.026 87.791
          0.026 87.791 5.735e-3 84.982 0.011 -67.002 0.995 -2.005
          5.735e-3 84.982 0.026 87.791 0.995 -2.005 0.011 -67.002
119.2 0.012 -67.855 0.995 -2.073 0.027 87.718 5.931e-3 84.82
          0.995 -2.073 0.012 -67.855 5.931e-3 84.82 0.027 87.718
          0.027 87.718 5.931e-3 84.82 0.012 -67.855 0.995 -2.073
          5.931e-3 84.82 0.027 87.718 0.995 -2.073 0.012 -67.855
123.16 0.012 -68.669 0.995 -2.142 0.028 87.645 6.128e-3 84.659
          0.995 -2.142 0.012 -68.669 6.128e-3 84.659 0.028 87.645
          0.028 87.645 6.128e-3 84.659 0.012 -68.669 0.995 -2.142
          6.128e-3 84.659 0.028 87.645 0.995 -2.142 0.012 -68.669
127.12 0.012 -69.445 0.994 -2.211 0.028 87.571 6.325e-3 84.497
          0.994 -2.211 0.012 -69.445 6.325e-3 84.497 0.028 87.571
          0.028 87.571 6.325e-3 84.497 0.012 -69.445 0.994 -2.211
          6.325e-3 84.497 0.028 87.571 0.994 -2.211 0.012 -69.445
131.08 0.013 -70.186 0.994 -2.28 0.029 87.498 6.521e-3 84.336
          0.994 -2.28 0.013 -70.186 6.521e-3 84.336 0.029 87.498
          0.029 87.498 6.521e-3 84.336 0.013 -70.186 0.994 -2.28
          6.521e-3 84.336 0.029 87.498 0.994 -2.28 0.013 -70.186
135.04 0.013 -70.896 0.994 -2.349 0.03 87.425 6.718e-3 84.174
          0.994 -2.349 0.013 -70.896 6.718e-3 84.174 0.03 87.425
          0.03 87.425 6.718e-3 84.174 0.013 -70.896 0.994 -2.349
          6.718e-3 84.174 0.03 87.425 0.994 -2.349 0.013 -70.896
139 0.013 -71.575 0.994 -2.417 0.031 87.351 6.914e-3 84.013
          0.994 -2.417 0.013 -71.575 6.914e-3 84.013 0.031 87.351
          0.031 87.351 6.914e-3 84.013 0.013 -71.575 0.994 -2.417
          6.914e-3 84.013 0.031 87.351 0.994 -2.417 0.013 -71.575
142.96 0.014 -72.227 0.994 -2.486 0.032 87.278 7.111e-3 83.851
          0.994 -2.486 0.014 -72.227 7.111e-3 83.851 0.032 87.278
          0.032 87.278 7.111e-3 83.851 0.014 -72.227 0.994 -2.486
          7.111e-3 83.851 0.032 87.278 0.994 -2.486 0.014 -72.227
146.92 0.014 -72.853 0.994 -2.555 0.033 87.204 7.307e-3 83.69
          0.994 -2.555 0.014 -72.853 7.307e-3 83.69 0.033 87.204
          0.033 87.204 7.307e-3 83.69 0.014 -72.853 0.994 -2.555
          7.307e-3 83.69 0.033 87.204 0.994 -2.555 0.014 -72.853
150.88 0.014 -73.454 0.994 -2.624 0.034 87.131 7.504e-3 83.528
          0.994 -2.624 0.014 -73.454 7.504e-3 83.528 0.034 87.131
          0.034 87.131 7.504e-3 83.528 0.014 -73.454 0.994 -2.624
          7.504e-3 83.528 0.034 87.131 0.994 -2.624 0.014 -73.454
154.84 0.015 -74.032 0.994 -2.693 0.035 87.058 7.7e-3 83.367
          0.994 -2.693 0.015 -74.032 7.7e-3 83.367 0.035 87.058
          0.035 87.058 7.7e-3 83.367 0.015 -74.032 0.994 -2.693
          7.7e-3 83.367 0.035 87.058 0.994 -2.693 0.015 -74.032
158.8 0.015 -74.59 0.994 -2.761 0.035 86.984 7.896e-3 83.205
          0.994 -2.761 0.015 -74.59 7.896e-3 83.205 0.035 86.984
          0.035 86.984 7.896e-3 83.205 0.015 -74.59 0.994 -2.761
          7.896e-3 83.205 0.035 86.984 0.994 -2.761 0.015 -74.59
162.76 0.015 -75.127 0.994 -2.83 0.036 86.911 8.092e-3 83.044
          0.994 -2.83 0.015 -75.127 8.092e-3 83.044 0.036 86.911
          0.036 86.911 8.092e-3 83.044 0.015 -75.127 0.994 -2.83
          8.092e-3 83.044 0.036 86.911 0.994 -2.83 0.015 -75.127
166.72 0.016 -75.645 0.994 -2.899 0.037 86.838 8.288e-3 82.882
          0.994 -2.899 0.016 -75.645 8.288e-3 82.882 0.037 86.838
          0.037 86.838 8.288e-3 82.882 0.016 -75.645 0.994 -2.899
          8.288e-3 82.882 0.037 86.838 0.994 -2.899 0.016 -75.645
170.68 0.016 -76.146 0.994 -2.968 0.038 86.764 8.485e-3 82.721
          0.994 -2.968 0.016 -76.146 8.485e-3 82.721 0.038 86.764
          0.038 86.764 8.485e-3 82.721 0.016 -76.146 0.994 -2.968
          8.485e-3 82.721 0.038 86.764 0.994 -2.968 0.016 -76.146
174.64 0.016 -76.63 0.994 -3.036 0.039 86.691 8.681e-3 82.559
          0.994 -3.036 0.016 -76.63 8.681e-3 82.559 0.039 86.691
          0.039 86.691 8.681e-3 82.559 0.016 -76.63 0.994 -3.036
          8.681e-3 82.559 0.039 86.691 0.994 -3.036 0.016 -76.63
178.6 0.017 -77.098 0.994 -3.105 0.04 86.618 8.877e-3 82.398
          0.994 -3.105 0.017 -77.098 8.877e-3 82.398 0.04 86.618
          0.04 86.618 8.877e-3 82.398 0.017 -77.098 0.994 -3.105
          8.877e-3 82.398 0.04 86.618 0.994 -3.105 0.017 -77.098
182.56 0.017 -77.552 0.994 -3.174 0.041 86.545 9.073e-3 82.237
          0.994 -3.174 0.017 -77.552 9.073e-3 82.237 0.041 86.545
          0.041 86.545 9.073e-3 82.237 0.017 -77.552 0.994 -3.174
          9.073e-3 82.237 0.041 86.545 0.994 -3.174 0.017 -77.552
186.52 0.017 -77.992 0.994 -3.243 0.042 86.471 9.268e-3 82.075
          0.994 -3.243 0.017 -77.992 9.268e-3 82.075 0.042 86.471
          0.042 86.471 9.268e-3 82.075 0.017 -77.992 0.994 -3.243
          9.268e-3 82.075 0.042 86.471 0.994 -3.243 0.017 -77.992
190.48 0.018 -78.419 0.994 -3.311 0.042 86.398 9.464e-3 81.914
          0.994 -3.311 0.018 -78.419 9.464e-3 81.914 0.042 86.398
          0.042 86.398 9.464e-3 81.914 0.018 -78.419 0.994 -3.311
          9.464e-3 81.914 0.042 86.398 0.994 -3.311 0.018 -78.419
194.44 0.018 -78.833 0.994 -3.38 0.043 86.325 9.66e-3 81.753
          0.994 -3.38 0.018 -78.833 9.66e-3 81.753 0.043 86.325
          0.043 86.325 9.66e-3 81.753 0.018 -78.833 0.994 -3.38
          9.66e-3 81.753 0.043 86.325 0.994 -3.38 0.018 -78.833
198.4 0.018 -79.236 0.994 -3.449 0.044 86.251 9.856e-3 81.591
          0.994 -3.449 0.018 -79.236 9.856e-3 81.591 0.044 86.251
          0.044 86.251 9.856e-3 81.591 0.018 -79.236 0.994 -3.449
          9.856e-3 81.591 0.044 86.251 0.994 -3.449 0.018 -79.236
202.36 0.019 -79.627 0.994 -3.517 0.045 86.178 0.01 81.43
          0.994 -3.517 0.019 -79.627 0.01 81.43 0.045 86.178
          0.045 86.178 0.01 81.43 0.019 -79.627 0.994 -3.517
          0.01 81.43 0.045 86.178 0.994 -3.517 0.019 -79.627
206.32 0.019 -80.008 0.994 -3.586 0.046 86.105 0.01 81.269
          0.994 -3.586 0.019 -80.008 0.01 81.269 0.046 86.105
          0.046 86.105 0.01 81.269 0.019 -80.008 0.994 -3.586
          0.01 81.269 0.046 86.105 0.994 -3.586 0.019 -80.008
210.28 0.019 -80.379 0.994 -3.655 0.047 86.032 0.01 81.107
          0.994 -3.655 0.019 -80.379 0.01 81.107 0.047 86.032
          0.047 86.032 0.01 81.107 0.019 -80.379 0.994 -3.655
          0.01 81.107 0.047 86.032 0.994 -3.655 0.019 -80.379
214.24 0.02 -80.74 0.994 -3.724 0.048 85.959 0.011 80.946
          0.994 -3.724 0.02 -80.74 0.011 80.946 0.048 85.959
          0.048 85.959 0.011 80.946 0.02 -80.74 0.994 -3.724
          0.011 80.946 0.048 85.959 0.994 -3.724 0.02 -80.74
218.2 0.02 -81.092 0.994 -3.792 0.049 85.885 0.011 80.785
          0.994 -3.792 0.02 -81.092 0.011 80.785 0.049 85.885
          0.049 85.885 0.011 80.785 0.02 -81.092 0.994 -3.792
          0.011 80.785 0.049 85.885 0.994 -3.792 0.02 -81.092
222.16 0.02 -81.436 0.993 -3.861 0.05 85.812 0.011 80.623
          0.993 -3.861 0.02 -81.436 0.011 80.623 0.05 85.812
          0.05 85.812 0.011 80.623 0.02 -81.436 0.993 -3.861
          0.011 80.623 0.05 85.812 0.993 -3.861 0.02 -81.436
226.12 0.021 -81.772 0.993 -3.93 0.05 85.739 0.011 80.462
          0.993 -3.93 0.021 -81.772 0.011 80.462 0.05 85.739
          0.05 85.739 0.011 80.462 0.021 -81.772 0.993 -3.93
          0.011 80.462 0.05 85.739 0.993 -3.93 0.021 -81.772
230.08 0.021 -82.099 0.993 -3.998 0.051 85.666 0.011 80.301
          0.993 -3.998 0.021 -82.099 0.011 80.301 0.051 85.666
          0.051 85.666 0.011 80.301 0.021 -82.099 0.993 -3.998
          0.011 80.301 0.051 85.666 0.993 -3.998 0.021 -82.099
234.04 0.021 -82.42 0.993 -4.067 0.052 85.593 0.012 80.14
          0.993 -4.067 0.021 -82.42 0.012 80.14 0.052 85.593
          0.052 85.593 0.012 80.14 0.021 -82.42 0.993 -4.067
          0.012 80.14 0.052 85.593 0.993 -4.067 0.021 -82.42
238 0.022 -82.733 0.993 -4.135 0.053 85.52 0.012 79.978
          0.993 -4.135 0.022 -82.733 0.012 79.978 0.053 85.52
          0.053 85.52 0.012 79.978 0.022 -82.733 0.993 -4.135
          0.012 79.978 0.053 85.52 0.993 -4.135 0.022 -82.733
241.96 0.022 -83.039 0.993 -4.204 0.054 85.447 0.012 79.817
          0.993 -4.204 0.022 -83.039 0.012 79.817 0.054 85.447
          0.054 85.447 0.012 79.817 0.022 -83.039 0.993 -4.204
          0.012 79.817 0.054 85.447 0.993 -4.204 0.022 -83.039
245.92 0.022 -83.339 0.993 -4.273 0.055 85.373 0.012 79.656
          0.993 -4.273 0.022 -83.339 0.012 79.656 0.055 85.373
          0.055 85.373 0.012 79.656 0.022 -83.339 0.993 -4.273
          0.012 79.656 0.055 85.373 0.993 -4.273 0.022 -83.339
249.88 0.023 -83.633 0.993 -4.341 0.056 85.3 0.012 79.495
          0.993 -4.341 0.023 -83.633 0.012 79.495 0.056 85.3
          0.056 85.3 0.012 79.495 0.023 -83.633 0.993 -4.341
          0.012 79.495 0.056 85.3 0.993 -4.341 0.023 -83.633
253.84 0.023 -83.921 0.993 -4.41 0.057 85.227 0.013 79.334
          0.993 -4.41 0.023 -83.921 0.013 79.334 0.057 85.227
          0.057 85.227 0.013 79.334 0.023 -83.921 0.993 -4.41
          0.013 79.334 0.057 85.227 0.993 -4.41 0.023 -83.921
257.8 0.023 -84.204 0.993 -4.478 0.057 85.154 0.013 79.173
          0.993 -4.478 0.023 -84.204 0.013 79.173 0.057 85.154
          0.057 85.154 0.013 79.173 0.023 -84.204 0.993 -4.478
          0.013 79.173 0.057 85.154 0.993 -4.478 0.023 -84.204
261.76 0.024 -84.481 0.993 -4.547 0.058 85.081 0.013 79.011
          0.993 -4.547 0.024 -84.481 0.013 79.011 0.058 85.081
          0.058 85.081 0.013 79.011 0.024 -84.481 0.993 -4.547
          0.013 79.011 0.058 85.081 0.993 -4.547 0.024 -84.481
265.72 0.024 -84.752 0.993 -4.615 0.059 85.008 0.013 78.85
          0.993 -4.615 0.024 -84.752 0.013 78.85 0.059 85.008
          0.059 85.008 0.013 78.85 0.024 -84.752 0.993 -4.615
          0.013 78.85 0.059 85.008 0.993 -4.615 0.024 -84.752
269.68 0.024 -85.019 0.993 -4.684 0.06 84.935 0.013 78.689
          0.993 -4.684 0.024 -85.019 0.013 78.689 0.06 84.935
          0.06 84.935 0.013 78.689 0.024 -85.019 0.993 -4.684
          0.013 78.689 0.06 84.935 0.993 -4.684 0.024 -85.019
273.64 0.025 -85.281 0.993 -4.753 0.061 84.862 0.014 78.528
          0.993 -4.753 0.025 -85.281 0.014 78.528 0.061 84.862
          0.061 84.862 0.014 78.528 0.025 -85.281 0.993 -4.753
          0.014 78.528 0.061 84.862 0.993 -4.753 0.025 -85.281
277.6 0.025 -85.539 0.993 -4.821 0.062 84.789 0.014 78.367
          0.993 -4.821 0.025 -85.539 0.014 78.367 0.062 84.789
          0.062 84.789 0.014 78.367 0.025 -85.539 0.993 -4.821
          0.014 78.367 0.062 84.789 0.993 -4.821 0.025 -85.539
281.56 0.025 -85.792 0.993 -4.89 0.063 84.716 0.014 78.206
          0.993 -4.89 0.025 -85.792 0.014 78.206 0.063 84.716
          0.063 84.716 0.014 78.206 0.025 -85.792 0.993 -4.89
          0.014 78.206 0.063 84.716 0.993 -4.89 0.025 -85.792
285.52 0.026 -86.041 0.992 -4.958 0.064 84.643 0.014 78.045
          0.992 -4.958 0.026 -86.041 0.014 78.045 0.064 84.643
          0.064 84.643 0.014 78.045 0.026 -86.041 0.992 -4.958
          0.014 78.045 0.064 84.643 0.992 -4.958 0.026 -86.041
289.48 0.026 -86.285 0.992 -5.027 0.064 84.57 0.014 77.884
          0.992 -5.027 0.026 -86.285 0.014 77.884 0.064 84.57
          0.064 84.57 0.014 77.884 0.026 -86.285 0.992 -5.027
          0.014 77.884 0.064 84.57 0.992 -5.027 0.026 -86.285
293.44 0.026 -86.526 0.992 -5.095 0.065 84.497 0.015 77.723
          0.992 -5.095 0.026 -86.526 0.015 77.723 0.065 84.497
          0.065 84.497 0.015 77.723 0.026 -86.526 0.992 -5.095
          0.015 77.723 0.065 84.497 0.992 -5.095 0.026 -86.526
297.4 0.027 -86.763 0.992 -5.163 0.066 84.424 0.015 77.562
          0.992 -5.163 0.027 -86.763 0.015 77.562 0.066 84.424
          0.066 84.424 0.015 77.562 0.027 -86.763 0.992 -5.163
          0.015 77.562 0.066 84.424 0.992 -5.163 0.027 -86.763
301.36 0.027 -86.997 0.992 -5.232 0.067 84.352 0.015 77.401
          0.992 -5.232 0.027 -86.997 0.015 77.401 0.067 84.352
          0.067 84.352 0.015 77.401 0.027 -86.997 0.992 -5.232
          0.015 77.401 0.067 84.352 0.992 -5.232 0.027 -86.997
305.32 0.027 -87.227 0.992 -5.3 0.068 84.279 0.015 77.24
          0.992 -5.3 0.027 -87.227 0.015 77.24 0.068 84.279
          0.068 84.279 0.015 77.24 0.027 -87.227 0.992 -5.3
          0.015 77.24 0.068 84.279 0.992 -5.3 0.027 -87.227
309.28 0.028 -87.454 0.992 -5.369 0.069 84.206 0.015 77.079
          0.992 -5.369 0.028 -87.454 0.015 77.079 0.069 84.206
          0.069 84.206 0.015 77.079 0.028 -87.454 0.992 -5.369
          0.015 77.079 0.069 84.206 0.992 -5.369 0.028 -87.454
313.24 0.028 -87.677 0.992 -5.437 0.07 84.133 0.015 76.918
          0.992 -5.437 0.028 -87.677 0.015 76.918 0.07 84.133
          0.07 84.133 0.015 76.918 0.028 -87.677 0.992 -5.437
          0.015 76.918 0.07 84.133 0.992 -5.437 0.028 -87.677
317.2 0.028 -87.898 0.992 -5.506 0.071 84.06 0.016 76.758
          0.992 -5.506 0.028 -87.898 0.016 76.758 0.071 84.06
          0.071 84.06 0.016 76.758 0.028 -87.898 0.992 -5.506
          0.016 76.758 0.071 84.06 0.992 -5.506 0.028 -87.898
321.16 0.029 -88.115 0.992 -5.574 0.071 83.987 0.016 76.597
          0.992 -5.574 0.029 -88.115 0.016 76.597 0.071 83.987
          0.071 83.987 0.016 76.597 0.029 -88.115 0.992 -5.574
          0.016 76.597 0.071 83.987 0.992 -5.574 0.029 -88.115
325.12 0.029 -88.329 0.992 -5.642 0.072 83.915 0.016 76.436
          0.992 -5.642 0.029 -88.329 0.016 76.436 0.072 83.915
          0.072 83.915 0.016 76.436 0.029 -88.329 0.992 -5.642
          0.016 76.436 0.072 83.915 0.992 -5.642 0.029 -88.329
329.08 0.029 -88.541 0.992 -5.711 0.073 83.842 0.016 76.275
          0.992 -5.711 0.029 -88.541 0.016 76.275 0.073 83.842
          0.073 83.842 0.016 76.275 0.029 -88.541 0.992 -5.711
          0.016 76.275 0.073 83.842 0.992 -5.711 0.029 -88.541
333.04 0.03 -88.75 0.992 -5.779 0.074 83.769 0.016 76.114
          0.992 -5.779 0.03 -88.75 0.016 76.114 0.074 83.769
          0.074 83.769 0.016 76.114 0.03 -88.75 0.992 -5.779
          0.016 76.114 0.074 83.769 0.992 -5.779 0.03 -88.75
337 0.03 -88.956 0.991 -5.847 0.075 83.696 0.017 75.954
          0.991 -5.847 0.03 -88.956 0.017 75.954 0.075 83.696
          0.075 83.696 0.017 75.954 0.03 -88.956 0.991 -5.847
          0.017 75.954 0.075 83.696 0.991 -5.847 0.03 -88.956
340.96 0.03 -89.16 0.991 -5.916 0.076 83.623 0.017 75.793
          0.991 -5.916 0.03 -89.16 0.017 75.793 0.076 83.623
          0.076 83.623 0.017 75.793 0.03 -89.16 0.991 -5.916
          0.017 75.793 0.076 83.623 0.991 -5.916 0.03 -89.16
344.92 0.031 -89.362 0.991 -5.984 0.077 83.551 0.017 75.632
          0.991 -5.984 0.031 -89.362 0.017 75.632 0.077 83.551
