!	AVX THIN FILM OPERATION
!
!	CP0603 COUPLERS
!	P/N CP0603BxxxxCSTR
!
!	Network	Analyzer HP8720ES.07.64:Feb23,2000 Serial No.US39172382
!	Hewlett-Packard								
!
!	23 March 2011
# MHZ S MA  R 50 
50 0.001144 -45.852 0.999 -0.121 0.002678 89.874 0.0002455 89.36 
	0.999 -0.121 0.001144 -45.852 0.0002455 89.36 0.002678 89.874 
	0.002678 89.874 0.0002455 89.36 0.001144 -45.852 0.999 -0.121 
	0.0002455 89.36 0.002678 89.874 0.999 -0.121 0.001144 -45.852 
54.004 0.001191 -48.068 0.999 -0.13 0.002893 89.864 0.0002652 89.305 
	0.999 -0.13 0.001191 -48.068 0.0002652 89.305 0.002893 89.864 
	0.002893 89.864 0.0002652 89.305 0.001191 -48.068 0.999 -0.13 
	0.0002652 89.305 0.002893 89.864 0.999 -0.13 0.001191 -48.068 
58.008 0.001241 -50.111 0.999 -0.14 0.003107 89.854 0.0002849 89.251 
	0.999 -0.14 0.001241 -50.111 0.0002849 89.251 0.003107 89.854 
	0.003107 89.854 0.0002849 89.251 0.001241 -50.111 0.999 -0.14 
	0.0002849 89.251 0.003107 89.854 0.999 -0.14 0.001241 -50.111 
62.012 0.001292 -51.996 0.999 -0.15 0.003322 89.844 0.0003045 89.198 
	0.999 -0.15 0.001292 -51.996 0.0003045 89.198 0.003322 89.844 
	0.003322 89.844 0.0003045 89.198 0.001292 -51.996 0.999 -0.15 
	0.0003045 89.198 0.003322 89.844 0.999 -0.15 0.001292 -51.996 
66.016 0.001344 -53.738 0.999 -0.159 0.003536 89.833 0.0003242 89.146 
	0.999 -0.159 0.001344 -53.738 0.0003242 89.146 0.003536 89.833 
	0.003536 89.833 0.0003242 89.146 0.001344 -53.738 0.999 -0.159 
	0.0003242 89.146 0.003536 89.833 0.999 -0.159 0.001344 -53.738 
70.02 0.001397 -55.35 0.999 -0.169 0.003751 89.823 0.0003438 89.093 
	0.999 -0.169 0.001397 -55.35 0.0003438 89.093 0.003751 89.823 
	0.003751 89.823 0.0003438 89.093 0.001397 -55.35 0.999 -0.169 
	0.0003438 89.093 0.003751 89.823 0.999 -0.169 0.001397 -55.35 
74.024 0.001451 -56.844 0.999 -0.179 0.003965 89.813 0.0003635 89.041 
	0.999 -0.179 0.001451 -56.844 0.0003635 89.041 0.003965 89.813 
	0.003965 89.813 0.0003635 89.041 0.001451 -56.844 0.999 -0.179 
	0.0003635 89.041 0.003965 89.813 0.999 -0.179 0.001451 -56.844 
78.028 0.001506 -58.229 0.999 -0.188 0.00418 89.803 0.0003832 88.989 
	0.999 -0.188 0.001506 -58.229 0.0003832 88.989 0.00418 89.803 
	0.00418 89.803 0.0003832 88.989 0.001506 -58.229 0.999 -0.188 
	0.0003832 88.989 0.00418 89.803 0.999 -0.188 0.001506 -58.229 
82.032 0.001562 -59.518 0.999 -0.198 0.004394 89.793 0.0004028 88.937 
	0.999 -0.198 0.001562 -59.518 0.0004028 88.937 0.004394 89.793 
	0.004394 89.793 0.0004028 88.937 0.001562 -59.518 0.999 -0.198 
	0.0004028 88.937 0.004394 89.793 0.999 -0.198 0.001562 -59.518 
86.036 0.001619 -60.717 0.999 -0.208 0.004609 89.783 0.0004225 88.886 
	0.999 -0.208 0.001619 -60.717 0.0004225 88.886 0.004609 89.783 
	0.004609 89.783 0.0004225 88.886 0.001619 -60.717 0.999 -0.208 
	0.0004225 88.886 0.004609 89.783 0.999 -0.208 0.001619 -60.717 
90.04 0.001676 -61.836 0.999 -0.217 0.004823 89.773 0.0004422 88.834 
	0.999 -0.217 0.001676 -61.836 0.0004422 88.834 0.004823 89.773 
	0.004823 89.773 0.0004422 88.834 0.001676 -61.836 0.999 -0.217 
	0.0004422 88.834 0.004823 89.773 0.999 -0.217 0.001676 -61.836 
94.044 0.001734 -62.882 0.999 -0.227 0.005038 89.763 0.0004618 88.783 
	0.999 -0.227 0.001734 -62.882 0.0004618 88.783 0.005038 89.763 
	0.005038 89.763 0.0004618 88.783 0.001734 -62.882 0.999 -0.227 
	0.0004618 88.783 0.005038 89.763 0.999 -0.227 0.001734 -62.882 
98.048 0.001793 -63.86 0.999 -0.236 0.005252 89.753 0.0004815 88.732 
	0.999 -0.236 0.001793 -63.86 0.0004815 88.732 0.005252 89.753 
	0.005252 89.753 0.0004815 88.732 0.001793 -63.86 0.999 -0.236 
	0.0004815 88.732 0.005252 89.753 0.999 -0.236 0.001793 -63.86 
102.052 0.001851 -64.778 0.999 -0.246 0.005467 89.743 0.0005012 88.681 
	0.999 -0.246 0.001851 -64.778 0.0005012 88.681 0.005467 89.743 
	0.005467 89.743 0.0005012 88.681 0.001851 -64.778 0.999 -0.246 
	0.0005012 88.681 0.005467 89.743 0.999 -0.246 0.001851 -64.778 
106.056 0.001911 -65.639 0.999 -0.256 0.005681 89.733 0.0005208 88.629 
	0.999 -0.256 0.001911 -65.639 0.0005208 88.629 0.005681 89.733 
	0.005681 89.733 0.0005208 88.629 0.001911 -65.639 0.999 -0.256 
	0.0005208 88.629 0.005681 89.733 0.999 -0.256 0.001911 -65.639 
110.06 0.001971 -66.449 0.999 -0.265 0.005896 89.723 0.0005405 88.578 
	0.999 -0.265 0.001971 -66.449 0.0005405 88.578 0.005896 89.723 
	0.005896 89.723 0.0005405 88.578 0.001971 -66.449 0.999 -0.265 
	0.0005405 88.578 0.005896 89.723 0.999 -0.265 0.001971 -66.449 
114.064 0.002031 -67.213 0.999 -0.275 0.00611 89.712 0.0005602 88.527 
	0.999 -0.275 0.002031 -67.213 0.0005602 88.527 0.00611 89.712 
	0.00611 89.712 0.0005602 88.527 0.002031 -67.213 0.999 -0.275 
	0.0005602 88.527 0.00611 89.712 0.999 -0.275 0.002031 -67.213 
118.068 0.002091 -67.933 0.999 -0.285 0.006325 89.702 0.0005798 88.476 
	0.999 -0.285 0.002091 -67.933 0.0005798 88.476 0.006325 89.702 
	0.006325 89.702 0.0005798 88.476 0.002091 -67.933 0.999 -0.285 
	0.0005798 88.476 0.006325 89.702 0.999 -0.285 0.002091 -67.933 
122.072 0.002152 -68.613 0.999 -0.294 0.006539 89.692 0.0005995 88.425 
	0.999 -0.294 0.002152 -68.613 0.0005995 88.425 0.006539 89.692 
	0.006539 89.692 0.0005995 88.425 0.002152 -68.613 0.999 -0.294 
	0.0005995 88.425 0.006539 89.692 0.999 -0.294 0.002152 -68.613 
126.076 0.002213 -69.256 0.999 -0.304 0.006753 89.682 0.0006192 88.374 
	0.999 -0.304 0.002213 -69.256 0.0006192 88.374 0.006753 89.682 
	0.006753 89.682 0.0006192 88.374 0.002213 -69.256 0.999 -0.304 
	0.0006192 88.374 0.006753 89.682 0.999 -0.304 0.002213 -69.256 
130.08 0.002274 -69.866 0.999 -0.314 0.006968 89.672 0.0006389 88.324 
	0.999 -0.314 0.002274 -69.866 0.0006389 88.324 0.006968 89.672 
	0.006968 89.672 0.0006389 88.324 0.002274 -69.866 0.999 -0.314 
	0.0006389 88.324 0.006968 89.672 0.999 -0.314 0.002274 -69.866 
134.084 0.002335 -70.444 0.999 -0.323 0.007182 89.662 0.0006585 88.273 
	0.999 -0.323 0.002335 -70.444 0.0006585 88.273 0.007182 89.662 
	0.007182 89.662 0.0006585 88.273 0.002335 -70.444 0.999 -0.323 
	0.0006585 88.273 0.007182 89.662 0.999 -0.323 0.002335 -70.444 
138.088 0.002397 -70.994 0.999 -0.333 0.007397 89.652 0.0006782 88.222 
	0.999 -0.333 0.002397 -70.994 0.0006782 88.222 0.007397 89.652 
	0.007397 89.652 0.0006782 88.222 0.002397 -70.994 0.999 -0.333 
	0.0006782 88.222 0.007397 89.652 0.999 -0.333 0.002397 -70.994 
142.092 0.002459 -71.516 0.999 -0.343 0.007611 89.642 0.0006979 88.171 
	0.999 -0.343 0.002459 -71.516 0.0006979 88.171 0.007611 89.642 
	0.007611 89.642 0.0006979 88.171 0.002459 -71.516 0.999 -0.343 
	0.0006979 88.171 0.007611 89.642 0.999 -0.343 0.002459 -71.516 
146.096 0.002521 -72.014 0.999 -0.352 0.007826 89.632 0.0007176 88.12 
	0.999 -0.352 0.002521 -72.014 0.0007176 88.12 0.007826 89.632 
	0.007826 89.632 0.0007176 88.12 0.002521 -72.014 0.999 -0.352 
	0.0007176 88.12 0.007826 89.632 0.999 -0.352 0.002521 -72.014 
150.1 0.002583 -72.488 0.999 -0.362 0.00804 89.622 0.0007372 88.069 
	0.999 -0.362 0.002583 -72.488 0.0007372 88.069 0.00804 89.622 
	0.00804 89.622 0.0007372 88.069 0.002583 -72.488 0.999 -0.362 
	0.0007372 88.069 0.00804 89.622 0.999 -0.362 0.002583 -72.488 
154.104 0.002646 -72.94 0.999 -0.372 0.008255 89.612 0.0007569 88.018 
	0.999 -0.372 0.002646 -72.94 0.0007569 88.018 0.008255 89.612 
	0.008255 89.612 0.0007569 88.018 0.002646 -72.94 0.999 -0.372 
	0.0007569 88.018 0.008255 89.612 0.999 -0.372 0.002646 -72.94 
158.108 0.002708 -73.372 0.999 -0.381 0.008469 89.602 0.0007766 87.968 
	0.999 -0.381 0.002708 -73.372 0.0007766 87.968 0.008469 89.602 
	0.008469 89.602 0.0007766 87.968 0.002708 -73.372 0.999 -0.381 
	0.0007766 87.968 0.008469 89.602 0.999 -0.381 0.002708 -73.372 
162.112 0.002771 -73.785 0.999 -0.391 0.008684 89.592 0.0007963 87.917 
	0.999 -0.391 0.002771 -73.785 0.0007963 87.917 0.008684 89.592 
	0.008684 89.592 0.0007963 87.917 0.002771 -73.785 0.999 -0.391 
	0.0007963 87.917 0.008684 89.592 0.999 -0.391 0.002771 -73.785 
166.116 0.002834 -74.181 0.999 -0.401 0.008898 89.582 0.0008159 87.866 
	0.999 -0.401 0.002834 -74.181 0.0008159 87.866 0.008898 89.582 
	0.008898 89.582 0.0008159 87.866 0.002834 -74.181 0.999 -0.401 
	0.0008159 87.866 0.008898 89.582 0.999 -0.401 0.002834 -74.181 
170.12 0.002896 -74.56 0.999 -0.41 0.009113 89.572 0.0008356 87.815 
	0.999 -0.41 0.002896 -74.56 0.0008356 87.815 0.009113 89.572 
	0.009113 89.572 0.0008356 87.815 0.002896 -74.56 0.999 -0.41 
	0.0008356 87.815 0.009113 89.572 0.999 -0.41 0.002896 -74.56 
174.124 0.002959 -74.923 0.999 -0.42 0.009327 89.562 0.0008553 87.765 
	0.999 -0.42 0.002959 -74.923 0.0008553 87.765 0.009327 89.562 
	0.009327 89.562 0.0008553 87.765 0.002959 -74.923 0.999 -0.42 
	0.0008553 87.765 0.009327 89.562 0.999 -0.42 0.002959 -74.923 
178.128 0.003023 -75.272 0.999 -0.43 0.009542 89.552 0.000875 87.714 
	0.999 -0.43 0.003023 -75.272 0.000875 87.714 0.009542 89.552 
	0.009542 89.552 0.000875 87.714 0.003023 -75.272 0.999 -0.43 
	0.000875 87.714 0.009542 89.552 0.999 -0.43 0.003023 -75.272 
182.132 0.003086 -75.607 0.999 -0.439 0.009756 89.542 0.0008947 87.663 
	0.999 -0.439 0.003086 -75.607 0.0008947 87.663 0.009756 89.542 
	0.009756 89.542 0.0008947 87.663 0.003086 -75.607 0.999 -0.439 
	0.0008947 87.663 0.009756 89.542 0.999 -0.439 0.003086 -75.607 
186.136 0.003149 -75.929 0.999 -0.449 0.00997 89.532 0.0009143 87.612 
	0.999 -0.449 0.003149 -75.929 0.0009143 87.612 0.00997 89.532 
	0.00997 89.532 0.0009143 87.612 0.003149 -75.929 0.999 -0.449 
	0.0009143 87.612 0.00997 89.532 0.999 -0.449 0.003149 -75.929 
190.14 0.003213 -76.239 0.999 -0.459 0.01 89.522 0.000934 87.562 
	0.999 -0.459 0.003213 -76.239 0.000934 87.562 0.01 89.522 
	0.01 89.522 0.000934 87.562 0.003213 -76.239 0.999 -0.459 
	0.000934 87.562 0.01 89.522 0.999 -0.459 0.003213 -76.239 
194.144 0.003276 -76.537 0.999 -0.468 0.01 89.512 0.0009537 87.511 
	0.999 -0.468 0.003276 -76.537 0.0009537 87.511 0.01 89.512 
	0.01 89.512 0.0009537 87.511 0.003276 -76.537 0.999 -0.468 
	0.0009537 87.511 0.01 89.512 0.999 -0.468 0.003276 -76.537 
198.148 0.00334 -76.824 0.999 -0.478 0.011 89.502 0.0009734 87.46 
	0.999 -0.478 0.00334 -76.824 0.0009734 87.46 0.011 89.502 
	0.011 89.502 0.0009734 87.46 0.00334 -76.824 0.999 -0.478 
	0.0009734 87.46 0.011 89.502 0.999 -0.478 0.00334 -76.824 
202.152 0.003403 -77.102 0.999 -0.488 0.011 89.492 0.0009931 87.41 
	0.999 -0.488 0.003403 -77.102 0.0009931 87.41 0.011 89.492 
	0.011 89.492 0.0009931 87.41 0.003403 -77.102 0.999 -0.488 
	0.0009931 87.41 0.011 89.492 0.999 -0.488 0.003403 -77.102 
206.156 0.003467 -77.369 0.999 -0.497 0.011 89.482 0.001013 87.359 
	0.999 -0.497 0.003467 -77.369 0.001013 87.359 0.011 89.482 
	0.011 89.482 0.001013 87.359 0.003467 -77.369 0.999 -0.497 
	0.001013 87.359 0.011 89.482 0.999 -0.497 0.003467 -77.369 
210.16 0.003531 -77.628 0.999 -0.507 0.011 89.472 0.001032 87.308 
	0.999 -0.507 0.003531 -77.628 0.001032 87.308 0.011 89.472 
	0.011 89.472 0.001032 87.308 0.003531 -77.628 0.999 -0.507 
	0.001032 87.308 0.011 89.472 0.999 -0.507 0.003531 -77.628 
214.164 0.003595 -77.877 0.999 -0.517 0.011 89.462 0.001052 87.257 
	0.999 -0.517 0.003595 -77.877 0.001052 87.257 0.011 89.462 
	0.011 89.462 0.001052 87.257 0.003595 -77.877 0.999 -0.517 
	0.001052 87.257 0.011 89.462 0.999 -0.517 0.003595 -77.877 
218.168 0.003658 -78.119 0.999 -0.526 0.012 89.452 0.001072 87.207 
	0.999 -0.526 0.003658 -78.119 0.001072 87.207 0.012 89.452 
	0.012 89.452 0.001072 87.207 0.003658 -78.119 0.999 -0.526 
	0.001072 87.207 0.012 89.452 0.999 -0.526 0.003658 -78.119 
222.172 0.003722 -78.352 0.999 -0.536 0.012 89.442 0.001092 87.156 
	0.999 -0.536 0.003722 -78.352 0.001092 87.156 0.012 89.442 
	0.012 89.442 0.001092 87.156 0.003722 -78.352 0.999 -0.536 
	0.001092 87.156 0.012 89.442 0.999 -0.536 0.003722 -78.352 
226.176 0.003786 -78.579 0.999 -0.546 0.012 89.432 0.001111 87.105 
	0.999 -0.546 0.003786 -78.579 0.001111 87.105 0.012 89.432 
	0.012 89.432 0.001111 87.105 0.003786 -78.579 0.999 -0.546 
	0.001111 87.105 0.012 89.432 0.999 -0.546 0.003786 -78.579 
230.18 0.00385 -78.798 0.999 -0.555 0.012 89.422 0.001131 87.055 
	0.999 -0.555 0.00385 -78.798 0.001131 87.055 0.012 89.422 
	0.012 89.422 0.001131 87.055 0.00385 -78.798 0.999 -0.555 
	0.001131 87.055 0.012 89.422 0.999 -0.555 0.00385 -78.798 
234.184 0.003915 -79.01 0.999 -0.565 0.013 89.412 0.001151 87.004 
	0.999 -0.565 0.003915 -79.01 0.001151 87.004 0.013 89.412 
	0.013 89.412 0.001151 87.004 0.003915 -79.01 0.999 -0.565 
	0.001151 87.004 0.013 89.412 0.999 -0.565 0.003915 -79.01 
238.188 0.003979 -79.216 0.999 -0.574 0.013 89.402 0.00117 86.953 
	0.999 -0.574 0.003979 -79.216 0.00117 86.953 0.013 89.402 
	0.013 89.402 0.00117 86.953 0.003979 -79.216 0.999 -0.574 
	0.00117 86.953 0.013 89.402 0.999 -0.574 0.003979 -79.216 
242.192 0.004043 -79.416 0.999 -0.584 0.013 89.392 0.00119 86.903 
	0.999 -0.584 0.004043 -79.416 0.00119 86.903 0.013 89.392 
	0.013 89.392 0.00119 86.903 0.004043 -79.416 0.999 -0.584 
	0.00119 86.903 0.013 89.392 0.999 -0.584 0.004043 -79.416 
246.196 0.004107 -79.61 0.999 -0.594 0.013 89.382 0.00121 86.852 
	0.999 -0.594 0.004107 -79.61 0.00121 86.852 0.013 89.382 
	0.013 89.382 0.00121 86.852 0.004107 -79.61 0.999 -0.594 
	0.00121 86.852 0.013 89.382 0.999 -0.594 0.004107 -79.61 
250.2 0.004171 -79.798 0.999 -0.603 0.013 89.372 0.001229 86.801 
	0.999 -0.603 0.004171 -79.798 0.001229 86.801 0.013 89.372 
	0.013 89.372 0.001229 86.801 0.004171 -79.798 0.999 -0.603 
	0.001229 86.801 0.013 89.372 0.999 -0.603 0.004171 -79.798 
254.204 0.004236 -79.981 0.999 -0.613 0.014 89.362 0.001249 86.751 
	0.999 -0.613 0.004236 -79.981 0.001249 86.751 0.014 89.362 
	0.014 89.362 0.001249 86.751 0.004236 -79.981 0.999 -0.613 
	0.001249 86.751 0.014 89.362 0.999 -0.613 0.004236 -79.981 
258.208 0.0043 -80.159 0.999 -0.623 0.014 89.352 0.001269 86.7 
	0.999 -0.623 0.0043 -80.159 0.001269 86.7 0.014 89.352 
	0.014 89.352 0.001269 86.7 0.0043 -80.159 0.999 -0.623 
	0.001269 86.7 0.014 89.352 0.999 -0.623 0.0043 -80.159 
262.212 0.004364 -80.332 0.999 -0.632 0.014 89.342 0.001288 86.65 
	0.999 -0.632 0.004364 -80.332 0.001288 86.65 0.014 89.342 
	0.014 89.342 0.001288 86.65 0.004364 -80.332 0.999 -0.632 
	0.001288 86.65 0.014 89.342 0.999 -0.632 0.004364 -80.332 
266.216 0.004429 -80.501 0.999 -0.642 0.014 89.332 0.001308 86.599 
	0.999 -0.642 0.004429 -80.501 0.001308 86.599 0.014 89.332 
	0.014 89.332 0.001308 86.599 0.004429 -80.501 0.999 -0.642 
	0.001308 86.599 0.014 89.332 0.999 -0.642 0.004429 -80.501 
270.22 0.004493 -80.665 0.999 -0.652 0.014 89.322 0.001328 86.548 
	0.999 -0.652 0.004493 -80.665 0.001328 86.548 0.014 89.322 
	0.014 89.322 0.001328 86.548 0.004493 -80.665 0.999 -0.652 
	0.001328 86.548 0.014 89.322 0.999 -0.652 0.004493 -80.665 
274.224 0.004558 -80.825 0.999 -0.661 0.015 89.312 0.001348 86.498 
	0.999 -0.661 0.004558 -80.825 0.001348 86.498 0.015 89.312 
	0.015 89.312 0.001348 86.498 0.004558 -80.825 0.999 -0.661 
	0.001348 86.498 0.015 89.312 0.999 -0.661 0.004558 -80.825 
278.228 0.004622 -80.98 0.999 -0.671 0.015 89.302 0.001367 86.447 
	0.999 -0.671 0.004622 -80.98 0.001367 86.447 0.015 89.302 
	0.015 89.302 0.001367 86.447 0.004622 -80.98 0.999 -0.671 
	0.001367 86.447 0.015 89.302 0.999 -0.671 0.004622 -80.98 
282.232 0.004687 -81.132 0.999 -0.681 0.015 89.292 0.001387 86.396 
	0.999 -0.681 0.004687 -81.132 0.001387 86.396 0.015 89.292 
	0.015 89.292 0.001387 86.396 0.004687 -81.132 0.999 -0.681 
	0.001387 86.396 0.015 89.292 0.999 -0.681 0.004687 -81.132 
286.236 0.004751 -81.28 0.999 -0.69 0.015 89.282 0.001407 86.346 
	0.999 -0.69 0.004751 -81.28 0.001407 86.346 0.015 89.282 
	0.015 89.282 0.001407 86.346 0.004751 -81.28 0.999 -0.69 
	0.001407 86.346 0.015 89.282 0.999 -0.69 0.004751 -81.28 
290.24 0.004816 -81.424 0.999 -0.7 0.016 89.272 0.001426 86.295 
	0.999 -0.7 0.004816 -81.424 0.001426 86.295 0.016 89.272 
	0.016 89.272 0.001426 86.295 0.004816 -81.424 0.999 -0.7 
	0.001426 86.295 0.016 89.272 0.999 -0.7 0.004816 -81.424 
294.244 0.00488 -81.565 0.999 -0.71 0.016 89.262 0.001446 86.245 
	0.999 -0.71 0.00488 -81.565 0.001446 86.245 0.016 89.262 
	0.016 89.262 0.001446 86.245 0.00488 -81.565 0.999 -0.71 
	0.001446 86.245 0.016 89.262 0.999 -0.71 0.00488 -81.565 
298.248 0.004945 -81.703 0.999 -0.719 0.016 89.252 0.001466 86.194 
	0.999 -0.719 0.004945 -81.703 0.001466 86.194 0.016 89.252 
	0.016 89.252 0.001466 86.194 0.004945 -81.703 0.999 -0.719 
	0.001466 86.194 0.016 89.252 0.999 -0.719 0.004945 -81.703 
302.252 0.00501 -81.837 0.999 -0.729 0.016 89.242 0.001486 86.143 
	0.999 -0.729 0.00501 -81.837 0.001486 86.143 0.016 89.242 
	0.016 89.242 0.001486 86.143 0.00501 -81.837 0.999 -0.729 
	0.001486 86.143 0.016 89.242 0.999 -0.729 0.00501 -81.837 
306.256 0.005074 -81.969 0.999 -0.739 0.016 89.232 0.001505 86.093 
	0.999 -0.739 0.005074 -81.969 0.001505 86.093 0.016 89.232 
	0.016 89.232 0.001505 86.093 0.005074 -81.969 0.999 -0.739 
	0.001505 86.093 0.016 89.232 0.999 -0.739 0.005074 -81.969 
310.26 0.005139 -82.097 0.999 -0.748 0.017 89.222 0.001525 86.042 
	0.999 -0.748 0.005139 -82.097 0.001525 86.042 0.017 89.222 
	0.017 89.222 0.001525 86.042 0.005139 -82.097 0.999 -0.748 
	0.001525 86.042 0.017 89.222 0.999 -0.748 0.005139 -82.097 
314.264 0.005204 -82.222 0.999 -0.758 0.017 89.212 0.001545 85.991 
	0.999 -0.758 0.005204 -82.222 0.001545 85.991 0.017 89.212 
	0.017 89.212 0.001545 85.991 0.005204 -82.222 0.999 -0.758 
	0.001545 85.991 0.017 89.212 0.999 -0.758 0.005204 -82.222 
318.268 0.005268 -82.345 0.999 -0.768 0.017 89.202 0.001564 85.941 
	0.999 -0.768 0.005268 -82.345 0.001564 85.941 0.017 89.202 
	0.017 89.202 0.001564 85.941 0.005268 -82.345 0.999 -0.768 
	0.001564 85.941 0.017 89.202 0.999 -0.768 0.005268 -82.345 
322.272 0.005333 -82.465 0.999 -0.777 0.017 89.192 0.001584 85.89 
	0.999 -0.777 0.005333 -82.465 0.001584 85.89 0.017 89.192 
	0.017 89.192 0.001584 85.89 0.005333 -82.465 0.999 -0.777 
	0.001584 85.89 0.017 89.192 0.999 -0.777 0.005333 -82.465 
326.276 0.005398 -82.583 0.999 -0.787 0.017 89.182 0.001604 85.84 
	0.999 -0.787 0.005398 -82.583 0.001604 85.84 0.017 89.182 
	0.017 89.182 0.001604 85.84 0.005398 -82.583 0.999 -0.787 
	0.001604 85.84 0.017 89.182 0.999 -0.787 0.005398 -82.583 
330.28 0.005463 -82.698 0.999 -0.797 0.018 89.172 0.001624 85.789 
	0.999 -0.797 0.005463 -82.698 0.001624 85.789 0.018 89.172 
	0.018 89.172 0.001624 85.789 0.005463 -82.698 0.999 -0.797 
	0.001624 85.789 0.018 89.172 0.999 -0.797 0.005463 -82.698 
334.284 0.005527 -82.81 0.999 -0.806 0.018 89.162 0.001643 85.739 
	0.999 -0.806 0.005527 -82.81 0.001643 85.739 0.018 89.162 
	0.018 89.162 0.001643 85.739 0.005527 -82.81 0.999 -0.806 
	0.001643 85.739 0.018 89.162 0.999 -0.806 0.005527 -82.81 
338.288 0.005592 -82.921 0.999 -0.816 0.018 89.152 0.001663 85.688 
	0.999 -0.816 0.005592 -82.921 0.001663 85.688 0.018 89.152 
	0.018 89.152 0.001663 85.688 0.005592 -82.921 0.999 -0.816 
	0.001663 85.688 0.018 89.152 0.999 -0.816 0.005592 -82.921 
342.292 0.005657 -83.029 0.999 -0.826 0.018 89.142 0.001683 85.637 
	0.999 -0.826 0.005657 -83.029 0.001683 85.637 0.018 89.142 
	0.018 89.142 0.001683 85.637 0.005657 -83.029 0.999 -0.826 
	0.001683 85.637 0.018 89.142 0.999 -0.826 0.005657 -83.029 
346.296 0.005722 -83.135 0.999 -0.835 0.019 89.132 0.001703 85.587 
	0.999 -0.835 0.005722 -83.135 0.001703 85.587 0.019 89.132 
	0.019 89.132 0.001703 85.587 0.005722 -83.135 0.999 -0.835 
	0.001703 85.587 0.019 89.132 0.999 -0.835 0.005722 -83.135 
350.3 0.005787 -83.238 0.999 -0.845 0.019 89.122 0.001722 85.536 
	0.999 -0.845 0.005787 -83.238 0.001722 85.536 0.019 89.122 
	0.019 89.122 0.001722 85.536 0.005787 -83.238 0.999 -0.845 
	0.001722 85.536 0.019 89.122 0.999 -0.845 0.005787 -83.238 
354.304 0.005851 -83.34 0.999 -0.854 0.019 89.112 0.001742 85.486 
	0.999 -0.854 0.005851 -83.34 0.001742 85.486 0.019 89.112 
	0.019 89.112 0.001742 85.486 0.005851 -83.34 0.999 -0.854 
	0.001742 85.486 0.019 89.112 0.999 -0.854 0.005851 -83.34 
358.308 0.005916 -83.44 0.999 -0.864 0.019 89.102 0.001762 85.435 
