!	AVX THIN FILM OPERATION
!
!	CP0603 HIGH DIRECTIVITY COUPLERS
!	P/N CP0603AxxxxALTR
!
!	Network	Analyzer HP8720ES.07.64:Feb23,2000 Serial No.US39172382
!	Hewlett-Packard								
!
!	24 July 2003	02:45:57

# MHZ S MA R 50

50 3.429e-3 -30.028 0.997 -0.612 6.67e-3 89.313 265.4e-6 -88.793
          0.997 -0.612 3.429e-3 -30.028 265.4e-6 -88.793 6.67e-3 89.313
          6.67e-3 89.313 265.4e-6 -88.793 2.988e-3 1.279 0.997 -0.714
          265.4e-6 -88.793 6.67e-3 89.313 0.997 -0.714 2.988e-3 1.279
64.912 3.701e-3 -37.003 0.997 -0.794 8.659e-3 89.116 344.7e-6 -88.644
          0.997 -0.794 3.701e-3 -37.003 344.7e-6 -88.644 8.659e-3 89.116
          8.659e-3 89.116 344.7e-6 -88.644 2.989e-3 1.663 0.997 -0.927
          344.7e-6 -88.644 8.659e-3 89.116 0.997 -0.927 2.989e-3 1.663
79.825 4.017e-3 -42.974 0.997 -0.976 0.011 88.919 424.2e-6 -88.495
          0.997 -0.976 4.017e-3 -42.974 424.2e-6 -88.495 0.011 88.919
          0.011 88.919 424.2e-6 -88.495 2.99e-3 2.05 0.997 -1.14
          424.2e-6 -88.495 0.011 88.919 0.997 -1.14 2.99e-3 2.05
94.737 4.369e-3 -48.053 0.997 -1.159 0.013 88.723 503.8e-6 -88.346
          0.997 -1.159 4.369e-3 -48.053 503.8e-6 -88.346 0.013 88.723
          0.013 88.723 503.8e-6 -88.346 2.992e-3 2.438 0.997 -1.353
          503.8e-6 -88.346 0.013 88.723 0.997 -1.353 2.992e-3 2.438
109.649 4.748e-3 -52.373 0.997 -1.341 0.015 88.526 583.6e-6 -88.198
          0.997 -1.341 4.748e-3 -52.373 583.6e-6 -88.198 0.015 88.526
          0.015 88.526 583.6e-6 -88.198 2.995e-3 2.829 0.997 -1.566
          583.6e-6 -88.198 0.015 88.526 0.997 -1.566 2.995e-3 2.829
124.561 5.148e-3 -56.062 0.997 -1.523 0.017 88.329 663.6e-6 -88.051
          0.997 -1.523 5.148e-3 -56.062 663.6e-6 -88.051 0.017 88.329
          0.017 88.329 663.6e-6 -88.051 2.998e-3 3.222 0.997 -1.779
          663.6e-6 -88.051 0.017 88.329 0.997 -1.779 2.998e-3 3.222
139.474 5.564e-3 -59.232 0.997 -1.706 0.019 88.133 743.9e-6 -87.906
          0.997 -1.706 5.564e-3 -59.232 743.9e-6 -87.906 0.019 88.133
          0.019 88.133 743.9e-6 -87.906 3.002e-3 3.618 0.997 -1.992
          743.9e-6 -87.906 0.019 88.133 0.997 -1.992 3.002e-3 3.618
154.386 5.993e-3 -61.977 0.997 -1.888 0.021 87.936 824.5e-6 -87.762
          0.997 -1.888 5.993e-3 -61.977 824.5e-6 -87.762 0.021 87.936
          0.021 87.936 824.5e-6 -87.762 3.006e-3 4.017 0.997 -2.205
          824.5e-6 -87.762 0.021 87.936 0.997 -2.205 3.006e-3 4.017
169.298 6.433e-3 -64.371 0.997 -2.07 0.023 87.739 905.3e-6 -87.62
          0.997 -2.07 6.433e-3 -64.371 905.3e-6 -87.62 0.023 87.739
          0.023 87.739 905.3e-6 -87.62 3.011e-3 4.419 0.997 -2.417
          905.3e-6 -87.62 0.023 87.739 0.997 -2.417 3.011e-3 4.419
184.211 6.881e-3 -66.476 0.997 -2.253 0.025 87.543 986.4e-6 -87.479
          0.997 -2.253 6.881e-3 -66.476 986.4e-6 -87.479 0.025 87.543
          0.025 87.543 986.4e-6 -87.479 3.017e-3 4.824 0.997 -2.63
          986.4e-6 -87.479 0.025 87.543 0.997 -2.63 3.017e-3 4.824
199.123 7.335e-3 -68.342 0.997 -2.435 0.027 87.346 1.068e-3 -87.34
          0.997 -2.435 7.335e-3 -68.342 1.068e-3 -87.34 0.027 87.346
          0.027 87.346 1.068e-3 -87.34 3.024e-3 5.233 0.997 -2.843
          1.068e-3 -87.34 0.027 87.346 0.997 -2.843 3.024e-3 5.233
214.035 7.795e-3 -70.006 0.997 -2.617 0.029 87.15 1.15e-3 -87.203
          0.997 -2.617 7.795e-3 -70.006 1.15e-3 -87.203 0.029 87.15
          0.029 87.15 1.15e-3 -87.203 3.031e-3 5.645 0.997 -3.056
          1.15e-3 -87.203 0.029 87.15 0.997 -3.056 3.031e-3 5.645
228.947 8.259e-3 -71.502 0.996 -2.8 0.031 86.953 1.232e-3 -87.069
          0.996 -2.8 8.259e-3 -71.502 1.232e-3 -87.069 0.031 86.953
          0.031 86.953 1.232e-3 -87.069 3.039e-3 6.061 0.997 -3.269
          1.232e-3 -87.069 0.031 86.953 0.997 -3.269 3.039e-3 6.061
243.86 8.726e-3 -72.854 0.996 -2.982 0.033 86.756 1.315e-3 -86.936
          0.996 -2.982 8.726e-3 -72.854 1.315e-3 -86.936 0.033 86.756
          0.033 86.756 1.315e-3 -86.936 3.048e-3 6.481 0.996 -3.482
          1.315e-3 -86.936 0.033 86.756 0.996 -3.482 3.048e-3 6.481
258.772 9.197e-3 -74.084 0.996 -3.164 0.034 86.56 1.398e-3 -86.806
          0.996 -3.164 9.197e-3 -74.084 1.398e-3 -86.806 0.034 86.56
          0.034 86.56 1.398e-3 -86.806 3.058e-3 6.905 0.996 -3.695
          1.398e-3 -86.806 0.034 86.56 0.996 -3.695 3.058e-3 6.905
273.684 9.67e-3 -75.209 0.996 -3.346 0.036 86.363 1.481e-3 -86.679
          0.996 -3.346 9.67e-3 -75.209 1.481e-3 -86.679 0.036 86.363
          0.036 86.363 1.481e-3 -86.679 3.068e-3 7.332 0.996 -3.907
          1.481e-3 -86.679 0.036 86.363 0.996 -3.907 3.068e-3 7.332
288.596 0.01 -76.243 0.996 -3.528 0.038 86.167 1.565e-3 -86.554
          0.996 -3.528 0.01 -76.243 1.565e-3 -86.554 0.038 86.167
          0.038 86.167 1.565e-3 -86.554 3.079e-3 7.764 0.996 -4.12
          1.565e-3 -86.554 0.038 86.167 0.996 -4.12 3.079e-3 7.764
303.509 0.011 -77.199 0.996 -3.71 0.04 85.97 1.65e-3 -86.432
          0.996 -3.71 0.011 -77.199 1.65e-3 -86.432 0.04 85.97
          0.04 85.97 1.65e-3 -86.432 3.091e-3 8.199 0.996 -4.333
          1.65e-3 -86.432 0.04 85.97 0.996 -4.333 3.091e-3 8.199
318.421 0.011 -78.085 0.996 -3.893 0.042 85.774 1.735e-3 -86.312
          0.996 -3.893 0.011 -78.085 1.735e-3 -86.312 0.042 85.774
          0.042 85.774 1.735e-3 -86.312 3.104e-3 8.639 0.996 -4.546
          1.735e-3 -86.312 0.042 85.774 0.996 -4.546 3.104e-3 8.639
333.333 0.012 -78.91 0.996 -4.075 0.044 85.578 1.821e-3 -86.196
          0.996 -4.075 0.012 -78.91 1.821e-3 -86.196 0.044 85.578
          0.044 85.578 1.821e-3 -86.196 3.118e-3 9.083 0.996 -4.758
          1.821e-3 -86.196 0.044 85.578 0.996 -4.758 3.118e-3 9.083
348.246 0.012 -79.682 0.996 -4.257 0.046 85.381 1.907e-3 -86.082
          0.996 -4.257 0.012 -79.682 1.907e-3 -86.082 0.046 85.381
          0.046 85.381 1.907e-3 -86.082 3.133e-3 9.53 0.996 -4.971
          1.907e-3 -86.082 0.046 85.381 0.996 -4.971 3.133e-3 9.53
363.158 0.013 -80.407 0.996 -4.439 0.048 85.185 1.994e-3 -85.972
          0.996 -4.439 0.013 -80.407 1.994e-3 -85.972 0.048 85.185
          0.048 85.185 1.994e-3 -85.972 3.149e-3 9.982 0.996 -5.184
          1.994e-3 -85.972 0.048 85.185 0.996 -5.184 3.149e-3 9.982
378.07 0.013 -81.089 0.996 -4.621 0.05 84.988 2.081e-3 -85.865
          0.996 -4.621 0.013 -81.089 2.081e-3 -85.865 0.05 84.988
          0.05 84.988 2.081e-3 -85.865 3.165e-3 10.437 0.996 -5.396
          2.081e-3 -85.865 0.05 84.988 0.996 -5.396 3.165e-3 10.437
392.982 0.014 -81.733 0.996 -4.803 0.052 84.792 2.17e-3 -85.761
          0.996 -4.803 0.014 -81.733 2.17e-3 -85.761 0.052 84.792
          0.052 84.792 2.17e-3 -85.761 3.183e-3 10.896 0.996 -5.609
          2.17e-3 -85.761 0.052 84.792 0.996 -5.609 3.183e-3 10.896
407.895 0.014 -82.343 0.995 -4.985 0.054 84.596 2.258e-3 -85.661
          0.995 -4.985 0.014 -82.343 2.258e-3 -85.661 0.054 84.596
          0.054 84.596 2.258e-3 -85.661 3.201e-3 11.359 0.995 -5.822
          2.258e-3 -85.661 0.054 84.596 0.995 -5.822 3.201e-3 11.359
422.807 0.014 -82.923 0.995 -5.166 0.056 84.4 2.348e-3 -85.564
          0.995 -5.166 0.014 -82.923 2.348e-3 -85.564 0.056 84.4
          0.056 84.4 2.348e-3 -85.564 3.221e-3 11.825 0.995 -6.034
          2.348e-3 -85.564 0.056 84.4 0.995 -6.034 3.221e-3 11.825
437.719 0.015 -83.475 0.995 -5.348 0.058 84.203 2.438e-3 -85.47
          0.995 -5.348 0.015 -83.475 2.438e-3 -85.47 0.058 84.203
          0.058 84.203 2.438e-3 -85.47 3.241e-3 12.295 0.995 -6.247
          2.438e-3 -85.47 0.058 84.203 0.995 -6.247 3.241e-3 12.295
452.632 0.015 -84.002 0.995 -5.53 0.06 84.007 2.529e-3 -85.38
          0.995 -5.53 0.015 -84.002 2.529e-3 -85.38 0.06 84.007
          0.06 84.007 2.529e-3 -85.38 3.263e-3 12.767 0.995 -6.459
          2.529e-3 -85.38 0.06 84.007 0.995 -6.459 3.263e-3 12.767
467.544 0.016 -84.506 0.995 -5.712 0.062 83.811 2.621e-3 -85.294
          0.995 -5.712 0.016 -84.506 2.621e-3 -85.294 0.062 83.811
          0.062 83.811 2.621e-3 -85.294 3.286e-3 13.243 0.995 -6.672
          2.621e-3 -85.294 0.062 83.811 0.995 -6.672 3.286e-3 13.243
482.456 0.016 -84.989 0.995 -5.894 0.064 83.615 2.713e-3 -85.212
          0.995 -5.894 0.016 -84.989 2.713e-3 -85.212 0.064 83.615
          0.064 83.615 2.713e-3 -85.212 3.31e-3 13.721 0.995 -6.884
          2.713e-3 -85.212 0.064 83.615 0.995 -6.884 3.31e-3 13.721
497.368 0.017 -85.453 0.995 -6.075 0.066 83.419 2.806e-3 -85.133
          0.995 -6.075 0.017 -85.453 2.806e-3 -85.133 0.066 83.419
          0.066 83.419 2.806e-3 -85.133 3.335e-3 14.201 0.995 -7.097
          2.806e-3 -85.133 0.066 83.419 0.995 -7.097 3.335e-3 14.201
512.281 0.017 -85.9 0.994 -6.257 0.068 83.223 2.9e-3 -85.058
          0.994 -6.257 0.017 -85.9 2.9e-3 -85.058 0.068 83.223
          0.068 83.223 2.9e-3 -85.058 3.361e-3 14.684 0.995 -7.309
          2.9e-3 -85.058 0.068 83.223 0.995 -7.309 3.361e-3 14.684
527.193 0.018 -86.33 0.994 -6.439 0.07 83.027 2.995e-3 -84.987
          0.994 -6.439 0.018 -86.33 2.995e-3 -84.987 0.07 83.027
          0.07 83.027 2.995e-3 -84.987 3.388e-3 15.168 0.994 -7.522
          2.995e-3 -84.987 0.07 83.027 0.994 -7.522 3.388e-3 15.168
542.105 0.018 -86.746 0.994 -6.62 0.072 82.831 3.091e-3 -84.92
          0.994 -6.62 0.018 -86.746 3.091e-3 -84.92 0.072 82.831
          0.072 82.831 3.091e-3 -84.92 3.417e-3 15.654 0.994 -7.734
          3.091e-3 -84.92 0.072 82.831 0.994 -7.734 3.417e-3 15.654
557.018 0.019 -87.148 0.994 -6.802 0.074 82.635 3.187e-3 -84.858
          0.994 -6.802 0.019 -87.148 3.187e-3 -84.858 0.074 82.635
          0.074 82.635 3.187e-3 -84.858 3.447e-3 16.141 0.994 -7.946
          3.187e-3 -84.858 0.074 82.635 0.994 -7.946 3.447e-3 16.141
571.93 0.019 -87.537 0.994 -6.983 0.076 82.439 3.285e-3 -84.799
          0.994 -6.983 0.019 -87.537 3.285e-3 -84.799 0.076 82.439
          0.076 82.439 3.285e-3 -84.799 3.479e-3 16.629 0.994 -8.159
          3.285e-3 -84.799 0.076 82.439 0.994 -8.159 3.479e-3 16.629
586.842 0.02 -87.915 0.994 -7.164 0.078 82.244 3.383e-3 -84.744
          0.994 -7.164 0.02 -87.915 3.383e-3 -84.744 0.078 82.244
          0.078 82.244 3.383e-3 -84.744 3.511e-3 17.118 0.994 -8.371
          3.383e-3 -84.744 0.078 82.244 0.994 -8.371 3.511e-3 17.118
601.754 0.02 -88.281 0.994 -7.346 0.08 82.048 3.482e-3 -84.693
          0.994 -7.346 0.02 -88.281 3.482e-3 -84.693 0.08 82.048
          0.08 82.048 3.482e-3 -84.693 3.545e-3 17.606 0.994 -8.583
          3.482e-3 -84.693 0.08 82.048 0.994 -8.583 3.545e-3 17.606
616.667 0.021 -88.638 0.993 -7.527 0.082 81.852 3.582e-3 -84.647
          0.993 -7.527 0.021 -88.638 3.582e-3 -84.647 0.082 81.852
          0.082 81.852 3.582e-3 -84.647 3.581e-3 18.094 0.994 -8.795
          3.582e-3 -84.647 0.082 81.852 0.994 -8.795 3.581e-3 18.094
631.579 0.021 -88.984 0.993 -7.708 0.084 81.656 3.684e-3 -84.604
          0.993 -7.708 0.021 -88.984 3.684e-3 -84.604 0.084 81.656
          0.084 81.656 3.684e-3 -84.604 3.618e-3 18.582 0.993 -9.008
          3.684e-3 -84.604 0.084 81.656 0.993 -9.008 3.618e-3 18.582
646.491 0.022 -89.322 0.993 -7.89 0.086 81.461 3.786e-3 -84.566
          0.993 -7.89 0.022 -89.322 3.786e-3 -84.566 0.086 81.461
          0.086 81.461 3.786e-3 -84.566 3.656e-3 19.069 0.993 -9.22
          3.786e-3 -84.566 0.086 81.461 0.993 -9.22 3.656e-3 19.069
661.404 0.022 -89.652 0.993 -8.071 0.088 81.265 3.889e-3 -84.532
          0.993 -8.071 0.022 -89.652 3.889e-3 -84.532 0.088 81.265
          0.088 81.265 3.889e-3 -84.532 3.696e-3 19.554 0.993 -9.432
          3.889e-3 -84.532 0.088 81.265 0.993 -9.432 3.696e-3 19.554
676.316 0.023 -89.974 0.993 -8.252 0.09 81.07 3.992e-3 -84.503
          0.993 -8.252 0.023 -89.974 3.992e-3 -84.503 0.09 81.07
          0.09 81.07 3.992e-3 -84.503 3.737e-3 20.037 0.993 -9.644
          3.992e-3 -84.503 0.09 81.07 0.993 -9.644 3.737e-3 20.037
691.228 0.023 -90.288 0.992 -8.433 0.092 80.874 4.097e-3 -84.477
          0.992 -8.433 0.023 -90.288 4.097e-3 -84.477 0.092 80.874
          0.092 80.874 4.097e-3 -84.477 3.78e-3 20.518 0.993 -9.856
          4.097e-3 -84.477 0.092 80.874 0.993 -9.856 3.78e-3 20.518
706.14 0.024 -90.596 0.992 -8.614 0.094 80.679 4.203e-3 -84.456
          0.992 -8.614 0.024 -90.596 4.203e-3 -84.456 0.094 80.679
          0.094 80.679 4.203e-3 -84.456 3.825e-3 20.997 0.993 -10.068
          4.203e-3 -84.456 0.094 80.679 0.993 -10.068 3.825e-3 20.997
721.053 0.024 -90.896 0.992 -8.795 0.096 80.484 4.31e-3 -84.44
          0.992 -8.795 0.024 -90.896 4.31e-3 -84.44 0.096 80.484
          0.096 80.484 4.31e-3 -84.44 3.871e-3 21.473 0.992 -10.28
          4.31e-3 -84.44 0.096 80.484 0.992 -10.28 3.871e-3 21.473
735.965 0.024 -91.191 0.992 -8.975 0.098 80.288 4.418e-3 -84.427
          0.992 -8.975 0.024 -91.191 4.418e-3 -84.427 0.098 80.288
          0.098 80.288 4.418e-3 -84.427 3.919e-3 21.945 0.992 -10.492
          4.418e-3 -84.427 0.098 80.288 0.992 -10.492 3.919e-3 21.945
750.877 0.025 -91.48 0.992 -9.156 0.099 80.093 4.527e-3 -84.419
          0.992 -9.156 0.025 -91.48 4.527e-3 -84.419 0.099 80.093
          0.099 80.093 4.527e-3 -84.419 3.968e-3 22.413 0.992 -10.703
          4.527e-3 -84.419 0.099 80.093 0.992 -10.703 3.968e-3 22.413
765.789 0.025 -91.764 0.991 -9.337 0.101 79.898 4.638e-3 -84.415
          0.991 -9.337 0.025 -91.764 4.638e-3 -84.415 0.101 79.898
          0.101 79.898 4.638e-3 -84.415 4.02e-3 22.878 0.992 -10.915
          4.638e-3 -84.415 0.101 79.898 0.992 -10.915 4.02e-3 22.878
780.702 0.026 -92.042 0.991 -9.518 0.103 79.703 4.749e-3 -84.416
          0.991 -9.518 0.026 -92.042 4.749e-3 -84.416 0.103 79.703
          0.103 79.703 4.749e-3 -84.416 4.073e-3 23.338 0.992 -11.127
          4.749e-3 -84.416 0.103 79.703 0.992 -11.127 4.073e-3 23.338
795.614 0.026 -92.315 0.991 -9.698 0.105 79.508 4.861e-3 -84.42
          0.991 -9.698 0.026 -92.315 4.861e-3 -84.42 0.105 79.508
          0.105 79.508 4.861e-3 -84.42 4.128e-3 23.793 0.991 -11.339
          4.861e-3 -84.42 0.105 79.508 0.991 -11.339 4.128e-3 23.793
810.526 0.027 -92.584 0.991 -9.879 0.107 79.313 4.974e-3 -84.429
          0.991 -9.879 0.027 -92.584 4.974e-3 -84.429 0.107 79.313
          0.107 79.313 4.974e-3 -84.429 4.184e-3 24.242 0.991 -11.55
          4.974e-3 -84.429 0.107 79.313 0.991 -11.55 4.184e-3 24.242
825.439 0.027 -92.848 0.991 -10.059 0.109 79.118 5.089e-3 -84.443
          0.991 -10.059 0.027 -92.848 5.089e-3 -84.443 0.109 79.118
          0.109 79.118 5.089e-3 -84.443 4.243e-3 24.687 0.991 -11.762
          5.089e-3 -84.443 0.109 79.118 0.991 -11.762 4.243e-3 24.687
840.351 0.028 -93.108 0.99 -10.239 0.111 78.923 5.204e-3 -84.46
          0.99 -10.239 0.028 -93.108 5.204e-3 -84.46 0.111 78.923
          0.111 78.923 5.204e-3 -84.46 4.303e-3 25.125 0.991 -11.974
          5.204e-3 -84.46 0.111 78.923 0.991 -11.974 4.303e-3 25.125
855.263 0.028 -93.363 0.99 -10.42 0.113 78.728 5.321e-3 -84.482
          0.99 -10.42 0.028 -93.363 5.321e-3 -84.482 0.113 78.728
          0.113 78.728 5.321e-3 -84.482 4.365e-3 25.557 0.99 -12.185
          5.321e-3 -84.482 0.113 78.728 0.99 -12.185 4.365e-3 25.557
870.175 0.029 -93.615 0.99 -10.6 0.115 78.533 5.439e-3 -84.509
          0.99 -10.6 0.029 -93.615 5.439e-3 -84.509 0.115 78.533
          0.115 78.533 5.439e-3 -84.509 4.429e-3 25.983 0.99 -12.397
          5.439e-3 -84.509 0.115 78.533 0.99 -12.397 4.429e-3 25.983
885.088 0.029 -93.863 0.99 -10.78 0.117 78.339 5.557e-3 -84.539
          0.99 -10.78 0.029 -93.863 5.557e-3 -84.539 0.117 78.339
          0.117 78.339 5.557e-3 -84.539 4.495e-3 26.402 0.99 -12.608
          5.557e-3 -84.539 0.117 78.339 0.99 -12.608 4.495e-3 26.402
900 0.03 -94.108 0.989 -10.96 0.119 78.144 5.677e-3 -84.574
          0.989 -10.96 0.03 -94.108 5.677e-3 -84.574 0.119 78.144
          0.119 78.144 5.677e-3 -84.574 4.563e-3 26.813 0.99 -12.819
          5.677e-3 -84.574 0.119 78.144 0.99 -12.819 4.563e-3 26.813
914.912 0.03 -94.349 0.989 -11.14 0.121 77.949 5.799e-3 -84.613
          0.989 -11.14 0.03 -94.349 5.799e-3 -84.613 0.121 77.949
          0.121 77.949 5.799e-3 -84.613 4.633e-3 27.218 0.99 -13.031
          5.799e-3 -84.613 0.121 77.949 0.99 -13.031 4.633e-3 27.218
929.825 0.03 -94.586 0.989 -11.32 0.123 77.755 5.921e-3 -84.656
          0.989 -11.32 0.03 -94.586 5.921e-3 -84.656 0.123 77.755
          0.123 77.755 5.921e-3 -84.656 4.705e-3 27.615 0.989 -13.242
          5.921e-3 -84.656 0.123 77.755 0.989 -13.242 4.705e-3 27.615
944.737 0.031 -94.821 0.989 -11.5 0.125 77.561 6.044e-3 -84.703
          0.989 -11.5 0.031 -94.821 6.044e-3 -84.703 0.125 77.561
          0.125 77.561 6.044e-3 -84.703 4.779e-3 28.004 0.989 -13.453
          6.044e-3 -84.703 0.125 77.561 0.989 -13.453 4.779e-3 28.004
959.649 0.031 -95.053 0.988 -11.68 0.127 77.366 6.169e-3 -84.754
          0.988 -11.68 0.031 -95.053 6.169e-3 -84.754 0.127 77.366
          0.127 77.366 6.169e-3 -84.754 4.855e-3 28.386 0.989 -13.664
          6.169e-3 -84.754 0.127 77.366 0.989 -13.664 4.855e-3 28.386
974.561 0.032 -95.281 0.988 -11.859 0.129 77.172 6.295e-3 -84.81
          0.988 -11.859 0.032 -95.281 6.295e-3 -84.81 0.129 77.172
          0.129 77.172 6.295e-3 -84.81 4.933e-3 28.759 0.989 -13.875
          6.295e-3 -84.81 0.129 77.172 0.989 -13.875 4.933e-3 28.759
989.474 0.032 -95.507 0.988 -12.039 0.13 76.978 6.422e-3 -84.869
          0.988 -12.039 0.032 -95.507 6.422e-3 -84.869 0.13 76.978
          0.13 76.978 6.422e-3 -84.869 5.014e-3 29.124 0.988 -14.086
          6.422e-3 -84.869 0.13 76.978 0.988 -14.086 5.014e-3 29.124
1004.386 0.033 -95.73 0.988 -12.218 0.132 76.784 6.55e-3 -84.933
          0.988 -12.218 0.033 -95.73 6.55e-3 -84.933 0.132 76.784
          0.132 76.784 6.55e-3 -84.933 5.096e-3 29.481 0.988 -14.297
          6.55e-3 -84.933 0.132 76.784 0.988 -14.297 5.096e-3 29.481
1019.298 0.033 -95.951 0.987 -12.398 0.134 76.59 6.68e-3 -85.001
          0.987 -12.398 0.033 -95.951 6.68e-3 -85.001 0.134 76.59
          0.134 76.59 6.68e-3 -85.001 5.181e-3 29.829 0.988 -14.508
          6.68e-3 -85.001 0.134 76.59 0.988 -14.508 5.181e-3 29.829
1034.211 0.034 -96.169 0.987 -12.577 0.136 76.396 6.81e-3 -85.072
          0.987 -12.577 0.034 -96.169 6.81e-3 -85.072 0.136 76.396
          0.136 76.396 6.81e-3 -85.072 5.268e-3 30.168 0.988 -14.719
          6.81e-3 -85.072 0.136 76.396 0.988 -14.719 5.268e-3 30.168
1049.123 0.034 -96.384 0.987 -12.756 0.138 76.202 6.942e-3 -85.148
          0.987 -12.756 0.034 -96.384 6.942e-3 -85.148 0.138 76.202
          0.138 76.202 6.942e-3 -85.148 5.357e-3 30.499 0.987 -14.93
          6.942e-3 -85.148 0.138 76.202 0.987 -14.93 5.357e-3 30.499
1064.035 0.034 -96.598 0.986 -12.936 0.14 76.008 7.075e-3 -85.228
          0.986 -12.936 0.034 -96.598 7.075e-3 -85.228 0.14 76.008
          0.14 76.008 7.075e-3 -85.228 5.448e-3 30.821 0.987 -15.141
          7.075e-3 -85.228 0.14 76.008 0.987 -15.141 5.448e-3 30.821
1078.947 0.035 -96.808 0.986 -13.115 0.142 75.814 7.209e-3 -85.311
          0.986 -13.115 0.035 -96.808 7.209e-3 -85.311 0.142 75.814
          0.142 75.814 7.209e-3 -85.311 5.542e-3 31.134 0.987 -15.351
          7.209e-3 -85.311 0.142 75.814 0.987 -15.351 5.542e-3 31.134
1093.86 0.035 -97.017 0.986 -13.294 0.144 75.621 7.345e-3 -85.399
          0.986 -13.294 0.035 -97.017 7.345e-3 -85.399 0.144 75.621
          0.144 75.621 7.345e-3 -85.399 5.637e-3 31.438 0.986 -15.562
          7.345e-3 -85.399 0.144 75.621 0.986 -15.562 5.637e-3 31.438
1108.772 0.036 -97.224 0.986 -13.473 0.146 75.427 7.481e-3 -85.49
          0.986 -13.473 0.036 -97.224 7.481e-3 -85.49 0.146 75.427
          0.146 75.427 7.481e-3 -85.49 5.736e-3 31.733 0.986 -15.773
          7.481e-3 -85.49 0.146 75.427 0.986 -15.773 5.736e-3 31.733
1123.684 0.036 -97.428 0.985 -13.651 0.148 75.233 7.619e-3 -85.585
          0.985 -13.651 0.036 -97.428 7.619e-3 -85.585 0.148 75.233
          0.148 75.233 7.619e-3 -85.585 5.836e-3 32.019 0.986 -15.983
          7.619e-3 -85.585 0.148 75.233 0.986 -15.983 5.836e-3 32.019
1138.596 0.037 -97.63 0.985 -13.83 0.15 75.04 7.758e-3 -85.684
          0.985 -13.83 0.037 -97.63 7.758e-3 -85.684 0.15 75.04
