! Network Analyzer HP8720D.07.14 Serial No. US38111185																															
! 																															
! 28 Apr 1999  02:06:29																															
! Frequency 	S11		S21		S31		S41		S12		S22		S23		S24		S13		S23		S33		S34		S14		S24		S34		S44
# HZ  S  DB R 50																															
50000000	-47.428	-32.119	-0.0243	-1.1151	-42.336	86.215	-49.903	95.015																							
	-0.0104	-0.9585	-44.242	18.062	-51.245	77.87	-43.881	94.274																							
	-42.131	92.004	-50.703	96.732	-44.031	17.273	-0.0232	-1.3005																							
	-52.79	91.787	-41.818	88.47	-0.0004	-1.1206	-47.104	-1.4268																							
150000000	-41.45	-62.255	-0.0136	-2.8166	-33.063	86.741	-41.631	86.602																							
	-0.0222	-2.9498	-42.899	8.6462	-41.502	85.067	-33.221	86.589																							
	-33.087	86.31	-41.624	86.186	-38.885	48.101	-0.0207	-3.4744																							
	-42.02	86.39	-33.289	86.62	-0.0196	-3.5925	-45.787	1.8402																							
250000000	-37.668	-78.887	-0.0325	-4.7406	-28.745	84.206	-37.42	85.449																							
	-0.0372	-4.8738	-42.515	7.8868	-37.173	83.754	-28.804	84.505																							
	-28.768	84.146	-37.033	83.769	-37.161	50.971	-0.0313	-5.7088																							
	-37.409	84.532	-28.808	84.346	-0.0307	-5.8035	-45.996	-31.1
350000000	-35	-89.327	-0.0498	-6.6852	-25.848	82.091	-34.566	82.967
	-0.044	-6.7662	-41.696	9.3233	-34.313	80.585	-25.907	82.489
	-25.849	82.094	-34.255	80.75	-34.399	59.345	-0.0582	-8.0159
	-34.53	82.706	-25.893	82.414	-0.0554	-8.0846	-49.186	-38.622
450000000	-33.239	-97.063	-0.075	-8.4457	-23.692	80.089	-32.397	80.526
	-0.062	-8.6586	-40.982	12.485	-32.23	78.022	-23.74	80.416
	-23.7	79.89	-32.193	77.827	-33.609	61.161	-0.076	-10.199
	-32.383	80.538	-23.742	80.325	-0.078	-10.353	-46.063	-90.81
550000000	-31.884	-103.93	-0.081	-10.345	-21.963	78.006	-30.695	78.5
	-0.0709	-10.532	-40.056	17.816	-30.597	75.582	-22.029	78.339
	-21.975	77.769	-30.574	75.701	-31.522	63.071	-0.0986	-12.491
	-30.671	78.389	-22.02	78.199	-0.0976	-12.626	-47.489	-119.48
650000000	-30.891	-110.28	-0.0972	-12.279	-20.55	75.839	-29.297	76.605
	-0.0867	-12.413	-38.647	23.14	-29.286	73.527	-20.594	76.3
	-20.538	75.685	-29.258	73.423	-30.726	65.818	-0.1386	-14.639
	-29.274	76.572	-20.587	76.127	-0.1259	-14.862	-41.567	-146.64
750000000	-30.227	-115.99	-0.1083	-14.093	-19.356	73.718	-28.074	74.781
	-0.1102	-14.3	-36.889	27.304	-28.198	71.463	-19.371	74.211
	-19.333	73.518	-28.176	71.378	-29.309	67.902	-0.1625	-16.902
	-28.081	74.556	-19.365	74.21	-0.1672	-17.088	-38.839	-166.26
850000000	-29.685	-121.61	-0.1353	-15.958	-18.287	71.763	-27.031	72.949
	-0.1291	-16.179	-35.17	29.276	-27.279	69.642	-18.333	72.245
	-18.273	71.444	-27.245	69.531	-28.864	69.284	-0.2121	-19.089
	-27.029	72.699	-18.31	72.059	-0.2004	-19.326	-35.273	-169.06
950000000	-29.313	-127.3	-0.1574	-17.865	-17.318	69.62	-26.084	71.058
	-0.1522	-18.097	-33.454	29.993	-26.459	67.875	-17.384	70.248
	-17.339	69.384	-26.441	67.832	-27.606	69.41	-0.2448	-21.309
	-26.094	70.94	-17.359	69.918	-0.248	-21.624	-33.327	179.18
1050000000	-29.083	-132.53	-0.1747	-19.792	-16.488	67.457	-25.246	69.203
	-0.1704	-19.987	-31.827	28.887	-25.735	66.357	-16.552	68.184
	-16.538	67.195	-25.745	66.316	-27.283	71.668	-0.2869	-23.431
	-25.289	69.026	-16.534	68.049	-0.2803	-23.724	-30.632	178.06
1150000000	-28.927	-137.64	-0.2084	-21.471	-15.742	65.565	-24.491	67.455
	-0.2148	-21.661	-30.292	26.826	-25.113	65.06	-15.805	66.219
	-15.742	65.341	-25.089	65.082	-26.413	69.935	-0.3392	-25.558
	-24.505	67.294	-15.76	65.967	-0.3558	-25.961	-29.392	172
1250000000	-28.832	-142.6	-0.2245	-23.306	-15.051	63.45	-23.8	65.586
	-0.2322	-23.747	-28.972	23.989	-24.497	63.737	-15.094	64.12
	-15.092	63.327	-24.518	63.943	-26.122	71.819	-0.4009	-27.782
	-23.84	65.441	-15.076	64.111	-0.3868	-28.163	-27.286	169.83
1350000000	-28.78	-147.59	-0.2582	-25.203	-14.41	61.327	-23.158	63.539
	-0.2665	-25.571	-27.782	20.697	-23.935	62.597	-14.476	62.077
	-14.447	61.241	-23.973	62.698	-25.544	69.784	-0.4437	-29.936
	-23.207	63.483	-14.424	61.935	-0.4441	-30.368	-26.26	166.48
1450000000	-28.74	-152.23	-0.2743	-26.954	-13.818	59.428	-22.558	61.754
	-0.2688	-27.423	-26.727	16.977	-23.398	61.749	-13.884	60.249
	-13.863	59.064	-23.445	61.78	-25.356	71.448	-0.4979	-32.142
	-22.612	61.622	-13.849	60.024	-0.4985	-32.44	-24.71	164.64
1550000000	-28.78	-157.08	-0.3281	-28.82	-13.284	57.321	-22.006	59.646
	-0.3384	-29.28	-25.76	13.196	-22.887	60.809	-13.392	58.406
	-13.355	57.244	-22.938	61.018	-25.037	67.398	-0.5431	-34.122
	-22.09	59.702	-13.305	57.942	-0.5786	-34.731	-24.079	162.08
1650000000	-28.788	-161.94	-0.3448	-30.76	-12.758	55.107	-21.49	57.53
	-0.3929	-31.153	-24.913	9.3837	-22.365	59.542	-12.855	56.25
	-12.849	55.425	-22.405	60.287	-24.659	68.733	-0.6222	-36.343
	-21.556	57.919	-12.765	55.871	-0.6563	-36.913	-22.742	158.51
1750000000	-28.891	-167.03	-0.3869	-32.595	-12.306	53.199	-21.026	55.419
	-0.4096	-33.294	-24.109	5.6772	-21.876	58.564	-12.422	54.305
	-12.415	53.155	-21.969	59.12	-24.68	65.417	-0.6821	-38.237
	-21.138	55.459	-12.297	53.856	-0.6858	-39.144	-22.092	157.05
1850000000	-28.917	-172.59	-0.421	-34.336	-11.854	51.008	-20.637	53.322
	-0.4929	-34.78	-23.396	1.9199	-21.42	57.43	-11.98	52.294
	-11.928	51.415	-21.42	58.333	-24.414	64.808	-0.7572	-40.549
	-20.697	53.784	-11.857	51.637	-0.8242	-41.284	-21.166	153.82
1950000000	-28.995	-178.88	-0.4913	-36.08	-11.435	49.171	-20.244	51.103
	-0.4671	-36.764	-22.698	-1.225	-20.955	56.253	-11.616	50.863
	-11.545	49.124	-20.992	57.052	-24.561	60.455	-0.8115	-42.679
	-20.309	51.265	-11.44	49.798	-0.868	-43.204	-20.658	152.3
2050000000	-29.148	174.44	-0.5526	-37.869	-11.045	47.034	-19.914	48.615
	-0.5962	-38.22	-22.052	-4.5868	-20.5	54.771	-11.247	49.066
	-11.126	47.648	-20.455	56.142	-24.416	57.921	-0.8694	-44.845
	-19.947	49.471	-11.038	47.462	-1.0144	-45.445	-20.038	149.26
2150000000	-29.322	166.69	-0.5671	-39.957	-10.704	44.953	-19.617	46.237
	-0.5856	-40.187	-21.432	-7.755	-20.064	53.332	-10.91	46.839
	-10.799	45.323	-20.066	54.358	-24.658	51.368	-0.9556	-46.868
	-19.71	46.814	-10.699	45.46	-1.0612	-47.425	-19.748	147.49
2250000000	-29.52	157.22	-0.5791	-41.656	-10.359	42.645	-19.375	44.139
	-0.6147	-42.484	-20.815	-10.552	-19.652	51.71	-10.534	44.75
	-10.526	42.998	-19.755	52.754	-24.486	46.023	-1.0796	-48.943
	-19.524	44.552	-10.343	43.555	-1.1051	-49.61	-19.39	143.75
2350000000	-29.603	146.52	-0.6183	-43.452	-10.037	40.578	-19.187	41.958
	-0.7189	-43.253	-20.232	-13.222	-19.246	50.451	-10.205	42.891
	-10.074	41.737	-19.199	52.11	-24.657	36.535	-1.1609	-51.069
	-19.222	43.029	-10.03	41.151	-1.3209	-51.573	-19.24	141.84
2450000000	-29.59	134.55	-0.7659	-45.019	-9.7245	38.675	-19.038	39.798
	-0.6636	-45.809	-19.655	-15.61	-18.884	48.907	-9.9387	41.972
	-9.8598	39.085	-18.908	49.975	-24.267	29.207	-1.2702	-53.531
	-19.13	40.718	-9.7316	39.453	-1.3131	-53.399	-19.13	137.87
2550000000	-29.322	120.74	-0.7928	-47.145	-9.4411	36.685	-18.916	38.08
	-0.85	-47.086	-19.026	-17.897	-18.482	47.394	-9.6922	39.777
	-9.5699	38.204	-18.565	49.425	-24.303	16.213	-1.3182	-55.519
	-19.047	39.613	-9.4442	37.274	-1.5082	-55.822	-19.258	136.38
2650000000	-28.894	106.23	-0.8037	-49.102	-9.1883	34.511	-18.817	36.411
	-0.7607	-49.051	-18.468	-20.138	-18.107	45.563	-9.4149	37.756
	-9.2817	35.559	-18.172	46.961	-23.355	7.5146	-1.4378	-57.301
	-18.911	37.436	-9.1831	35.625	-1.5074	-57.156	-19.478	131.03
2750000000	-28.099	92.304	-0.7061	-50.709	-8.9359	32.407	-18.755	35.178
	-0.7843	-50.934	-17.913	-22.522	-17.731	43.945	-9.1009	35.224
	-9.0324	33.661	-17.828	45.367	-22.916	-5.5426	-1.5657	-58.608
	-18.891	36.274	-8.9053	33.706	-1.5976	-59.312	-19.814	129.06
2850000000	-27.044	80.257	-0.9616	-52.461	-8.7094	30.28	-18.688	34.125
	-0.9673	-51.934	-17.359	-24.581	-17.442	42.222	-8.9205	34.369
	-8.7245	32.78	-17.445	44.868	-21.76	-13.726	-1.7029	-61.499
	-18.754	36.2	-8.6878	31.366	-1.8732	-61.712	-20.234	123.27
2950000000	-25.846	69.164	-0.9755	-54.748	-8.474	28.376	-18.617	33.061
	-0.8242	-54.161	-16.857	-26.837	-17.084	40.459	-8.7163	32.395
	-8.5085	29.964	-17.125	42.079	-21.003	-24.69	-1.7638	-63.376
	-18.699	34.615	-8.4464	30.006	-1.8251	-62.884	-20.791	120.82
3050000000	-24.618	59.917	-1.1681	-56.868	-8.2741	26.039	-18.513	32.349
	-1.0246	-56.05	-16.363	-29.03	-16.798	38.43	-8.5638	31.083
	-8.313	29.111	-16.923	41.37	-19.695	-31.303	-1.8708	-66.105
	-18.706	34.81	-8.1969	27.857	-1.989	-65.671	-21.695	114.54
3150000000	-23.506	51.559	-0.8938	-58.964	-8.018	24.626	-18.426	32.396
	-0.887	-57.184	-15.971	-31.363	-16.368	37.16	-8.2738	28.151
	-7.9864	26.55	-16.396	39.372	-19.021	-39.617	-1.8757	-66.518
	-18.47	33.97	-8.0577	26.543	-2.1016	-66.305	-22.406	111.05
3250000000	-22.388	45.018	-1.2187	-60.242	-7.8972	22.258	-18.352	31.796
	-0.9331	-59.451	-15.559	-33.883	-16.145	35.159	-8.0898	27.551
	-7.8372	24.802	-16.141	37.45	-17.883	-45.689	-2.1528	-69.641
	-18.43	33.97	-7.8158	24.912	-2.165	-68.373	-23.718	103.11
3350000000	-21.473	39.485	-1.1347	-63.557	-7.606	20.187	-18.109	31.973
	-1.0473	-61.311	-15.246	-36.34	-15.717	32.986	-7.9139	24.955
	-7.6253	23.549	-15.886	36.17	-17.232	-52.616	-2.0455	-71.483
	-18.255	34.478	-7.5789	22.889	-2.2927	-70.922	-24.731	99.982
3450000000	-20.525	35.163	-1.5132	-64.528	-7.5423	17.783	-17.978	31.439
	-1.0249	-63.067	-14.977	-38.982	-15.545	30.925	-7.7374	24.346
	-7.443	21.492	-15.533	33.971	-16.304	-57.827	-2.37	-74.726
	-18.056	34.449	-7.3847	21.772	-2.3861	-72.058	-26.712	89.544
3550000000	-19.8	31.279	-1.3813	-67.433	-7.2204	16.048	-17.617	32.033
	-1.12	-65.352	-14.843	-41.497	-15.086	28.857	-7.5108	21.901
	-7.2804	20.192	-15.285	32.047	-15.807	-63.633	-2.2658	-75.968
	-17.827	34.985	-7.1051	20.02	-2.4019	-74.508	-28.039	85.086
3650000000	-19.057	27.99	-1.6317	-68.401	-7.157	13.883	-17.358	31.7
	-1.1934	-66.513	-14.698	-44.282	-14.875	26.653	-7.2966	20.897
	-7.0105	18.67	-14.945	30.819	-15.001	-69.241	-2.5791	-78.415
	-17.441	35.335	-6.9672	18.314	-2.6657	-76.094	-31.186	72.883
3750000000	-18.475	25.698	-1.606	-71.7	-6.8275	11.744	-16.922	31.354
	-1.2404	-68.419	-14.684	-46.832	-14.426	23.957	-7.0851	18.441
	-6.7987	16.889	-14.633	28.592	-14.611	-74.578	-2.4664	-80.586
	-17.078	35.24	-6.7483	16.696	-2.7898	-77.905	-33.304	64.075
3850000000	-17.909	23.619	-1.8303	-73.416	-6.7123	9.0884	-16.536	30.192
	-1.3265	-70.275	-14.722	-49.727	-14.193	20.999	-6.878	16.817
	-6.6352	15.338	-14.376	26.391	-13.958	-79.277	-2.6494	-83.616
	-16.685	35.02	-6.5123	15.083	-2.915	-79.801	-38.331	30.454
3950000000	-17.365	21.842	-1.9734	-74.088	-6.6588	7.3856	-16.218	29.307
	-1.4189	-71.877	-14.834	-52.712	-14.021	18.69	-6.6405	15.439
	-6.3811	13.727	-14.064	24.384	-13.713	-83.692	-2.9696	-85.356
	-16.211	34.556	-6.3342	13.35	-3.0764	-81.477	-39.653	11
4050000000	-16.889	20.837	-2.2044	-76.339	-6.5102	4.4261	-15.765	27.304
	-1.3935	-73.54	-15.036	-55.471	-13.764	15.071	-6.4466	13.339
	-6.1994	11.519	-13.703	21.675	-13.24	-88.76	-3.0749	-88.699
	-15.741	33.048	-6.0903	12.349	-3.1577	-82.126	-38.465	-58.083
