!	AVX THIN FILM OPERATION
!
!	CP0603 HIGH DIRECTIVITY COUPLERS
!	P/N CP0603AxxxxGNTR
!
!	Network	Analyzer HP8720ES.07.64:Feb23,2000 Serial No.US39172382
!	Hewlett-Packard								
!
!	25 December 2012
# MHz S MA R 50

50 4.71e-3 22.556 0.996 -0.156 1.13e-3 89.821 225.5e-6 -90.661
          0.996 -0.156 4.71e-3 22.556 225.5e-6 -90.661 1.13e-3 89.821
          1.13e-3 89.821 225.5e-6 -90.661 4.71e-3 22.556 0.996 -0.156
          225.5e-6 -90.661 1.13e-3 89.821 0.996 -0.156 4.71e-3 22.556
56.006 4.799e-3 24.944 0.996 -0.175 1.266e-3 89.8 252.6e-6 -90.743
          0.996 -0.175 4.799e-3 24.944 252.6e-6 -90.743 1.266e-3 89.8
          1.266e-3 89.8 252.6e-6 -90.743 4.799e-3 24.944 0.996 -0.175
          252.6e-6 -90.743 1.266e-3 89.8 0.996 -0.175 4.799e-3 24.944
62.012 4.896e-3 27.241 0.996 -0.194 1.402e-3 89.778 279.6e-6 -90.825
          0.996 -0.194 4.896e-3 27.241 279.6e-6 -90.825 1.402e-3 89.778
          1.402e-3 89.778 279.6e-6 -90.825 4.896e-3 27.241 0.996 -0.194
          279.6e-6 -90.825 1.402e-3 89.778 0.996 -0.194 4.896e-3 27.241
68.018 5e-3 29.444 0.996 -0.212 1.537e-3 89.757 306.7e-6 -90.906
          0.996 -0.212 5e-3 29.444 306.7e-6 -90.906 1.537e-3 89.757
          1.537e-3 89.757 306.7e-6 -90.906 5e-3 29.444 0.996 -0.212
          306.7e-6 -90.906 1.537e-3 89.757 0.996 -0.212 5e-3 29.444
74.024 5.112e-3 31.553 0.996 -0.231 1.673e-3 89.736 333.8e-6 -90.988
          0.996 -0.231 5.112e-3 31.553 333.8e-6 -90.988 1.673e-3 89.736
          1.673e-3 89.736 333.8e-6 -90.988 5.112e-3 31.553 0.996 -0.231
          333.8e-6 -90.988 1.673e-3 89.736 0.996 -0.231 5.112e-3 31.553
80.03 5.23e-3 33.568 0.996 -0.25 1.809e-3 89.715 360.9e-6 -91.069
          0.996 -0.25 5.23e-3 33.568 360.9e-6 -91.069 1.809e-3 89.715
          1.809e-3 89.715 360.9e-6 -91.069 5.23e-3 33.568 0.996 -0.25
          360.9e-6 -91.069 1.809e-3 89.715 0.996 -0.25 5.23e-3 33.568
86.036 5.355e-3 35.491 0.996 -0.268 1.945e-3 89.694 388e-6 -91.151
          0.996 -0.268 5.355e-3 35.491 388e-6 -91.151 1.945e-3 89.694
          1.945e-3 89.694 388e-6 -91.151 5.355e-3 35.491 0.996 -0.268
          388e-6 -91.151 1.945e-3 89.694 0.996 -0.268 5.355e-3 35.491
92.042 5.486e-3 37.324 0.996 -0.287 2.08e-3 89.673 415.1e-6 -91.232
          0.996 -0.287 5.486e-3 37.324 415.1e-6 -91.232 2.08e-3 89.673
          2.08e-3 89.673 415.1e-6 -91.232 5.486e-3 37.324 0.996 -0.287
          415.1e-6 -91.232 2.08e-3 89.673 0.996 -0.287 5.486e-3 37.324
98.048 5.622e-3 39.068 0.996 -0.306 2.216e-3 89.652 442.2e-6 -91.313
          0.996 -0.306 5.622e-3 39.068 442.2e-6 -91.313 2.216e-3 89.652
          2.216e-3 89.652 442.2e-6 -91.313 5.622e-3 39.068 0.996 -0.306
          442.2e-6 -91.313 2.216e-3 89.652 0.996 -0.306 5.622e-3 39.068
104.054 5.763e-3 40.728 0.996 -0.325 2.352e-3 89.63 469.3e-6 -91.395
          0.996 -0.325 5.763e-3 40.728 469.3e-6 -91.395 2.352e-3 89.63
          2.352e-3 89.63 469.3e-6 -91.395 5.763e-3 40.728 0.996 -0.325
          469.3e-6 -91.395 2.352e-3 89.63 0.996 -0.325 5.763e-3 40.728
110.06 5.909e-3 42.306 0.996 -0.343 2.488e-3 89.609 496.4e-6 -91.476
          0.996 -0.343 5.909e-3 42.306 496.4e-6 -91.476 2.488e-3 89.609
          2.488e-3 89.609 496.4e-6 -91.476 5.909e-3 42.306 0.996 -0.343
          496.4e-6 -91.476 2.488e-3 89.609 0.996 -0.343 5.909e-3 42.306
116.066 6.059e-3 43.806 0.996 -0.362 2.623e-3 89.588 523.4e-6 -91.557
          0.996 -0.362 6.059e-3 43.806 523.4e-6 -91.557 2.623e-3 89.588
          2.623e-3 89.588 523.4e-6 -91.557 6.059e-3 43.806 0.996 -0.362
          523.4e-6 -91.557 2.623e-3 89.588 0.996 -0.362 6.059e-3 43.806
122.072 6.213e-3 45.232 0.996 -0.381 2.759e-3 89.567 550.5e-6 -91.638
          0.996 -0.381 6.213e-3 45.232 550.5e-6 -91.638 2.759e-3 89.567
          2.759e-3 89.567 550.5e-6 -91.638 6.213e-3 45.232 0.996 -0.381
          550.5e-6 -91.638 2.759e-3 89.567 0.996 -0.381 6.213e-3 45.232
128.078 6.371e-3 46.586 0.996 -0.4 2.895e-3 89.546 577.6e-6 -91.72
          0.996 -0.4 6.371e-3 46.586 577.6e-6 -91.72 2.895e-3 89.546
          2.895e-3 89.546 577.6e-6 -91.72 6.371e-3 46.586 0.996 -0.4
          577.6e-6 -91.72 2.895e-3 89.546 0.996 -0.4 6.371e-3 46.586
134.084 6.533e-3 47.874 0.996 -0.418 3.03e-3 89.525 604.7e-6 -91.801
          0.996 -0.418 6.533e-3 47.874 604.7e-6 -91.801 3.03e-3 89.525
          3.03e-3 89.525 604.7e-6 -91.801 6.533e-3 47.874 0.996 -0.418
          604.7e-6 -91.801 3.03e-3 89.525 0.996 -0.418 6.533e-3 47.874
140.09 6.698e-3 49.097 0.996 -0.437 3.166e-3 89.503 631.8e-6 -91.882
          0.996 -0.437 6.698e-3 49.097 631.8e-6 -91.882 3.166e-3 89.503
          3.166e-3 89.503 631.8e-6 -91.882 6.698e-3 49.097 0.996 -0.437
          631.8e-6 -91.882 3.166e-3 89.503 0.996 -0.437 6.698e-3 49.097
146.096 6.866e-3 50.261 0.996 -0.456 3.302e-3 89.482 658.9e-6 -91.963
          0.996 -0.456 6.866e-3 50.261 658.9e-6 -91.963 3.302e-3 89.482
          3.302e-3 89.482 658.9e-6 -91.963 6.866e-3 50.261 0.996 -0.456
          658.9e-6 -91.963 3.302e-3 89.482 0.996 -0.456 6.866e-3 50.261
152.102 7.036e-3 51.367 0.996 -0.475 3.438e-3 89.461 686e-6 -92.045
          0.996 -0.475 7.036e-3 51.367 686e-6 -92.045 3.438e-3 89.461
          3.438e-3 89.461 686e-6 -92.045 7.036e-3 51.367 0.996 -0.475
          686e-6 -92.045 3.438e-3 89.461 0.996 -0.475 7.036e-3 51.367
158.108 7.209e-3 52.42 0.996 -0.493 3.573e-3 89.44 713.1e-6 -92.126
          0.996 -0.493 7.209e-3 52.42 713.1e-6 -92.126 3.573e-3 89.44
          3.573e-3 89.44 713.1e-6 -92.126 7.209e-3 52.42 0.996 -0.493
          713.1e-6 -92.126 3.573e-3 89.44 0.996 -0.493 7.209e-3 52.42
164.114 7.385e-3 53.422 0.996 -0.512 3.709e-3 89.419 740.2e-6 -92.207
          0.996 -0.512 7.385e-3 53.422 740.2e-6 -92.207 3.709e-3 89.419
          3.709e-3 89.419 740.2e-6 -92.207 7.385e-3 53.422 0.996 -0.512
          740.2e-6 -92.207 3.709e-3 89.419 0.996 -0.512 7.385e-3 53.422
170.12 7.563e-3 54.377 0.996 -0.531 3.845e-3 89.398 767.3e-6 -92.288
          0.996 -0.531 7.563e-3 54.377 767.3e-6 -92.288 3.845e-3 89.398
          3.845e-3 89.398 767.3e-6 -92.288 7.563e-3 54.377 0.996 -0.531
          767.3e-6 -92.288 3.845e-3 89.398 0.996 -0.531 7.563e-3 54.377
176.126 7.742e-3 55.286 0.996 -0.55 3.981e-3 89.376 794.4e-6 -92.369
          0.996 -0.55 7.742e-3 55.286 794.4e-6 -92.369 3.981e-3 89.376
          3.981e-3 89.376 794.4e-6 -92.369 7.742e-3 55.286 0.996 -0.55
          794.4e-6 -92.369 3.981e-3 89.376 0.996 -0.55 7.742e-3 55.286
182.132 7.924e-3 56.153 0.996 -0.568 4.116e-3 89.355 821.5e-6 -92.451
          0.996 -0.568 7.924e-3 56.153 821.5e-6 -92.451 4.116e-3 89.355
          4.116e-3 89.355 821.5e-6 -92.451 7.924e-3 56.153 0.996 -0.568
          821.5e-6 -92.451 4.116e-3 89.355 0.996 -0.568 7.924e-3 56.153
188.138 8.108e-3 56.98 0.996 -0.587 4.252e-3 89.334 848.6e-6 -92.532
          0.996 -0.587 8.108e-3 56.98 848.6e-6 -92.532 4.252e-3 89.334
          4.252e-3 89.334 848.6e-6 -92.532 8.108e-3 56.98 0.996 -0.587
          848.6e-6 -92.532 4.252e-3 89.334 0.996 -0.587 8.108e-3 56.98
194.144 8.293e-3 57.77 0.996 -0.606 4.388e-3 89.313 875.7e-6 -92.613
          0.996 -0.606 8.293e-3 57.77 875.7e-6 -92.613 4.388e-3 89.313
          4.388e-3 89.313 875.7e-6 -92.613 8.293e-3 57.77 0.996 -0.606
          875.7e-6 -92.613 4.388e-3 89.313 0.996 -0.606 8.293e-3 57.77
200.15 8.48e-3 58.523 0.996 -0.625 4.523e-3 89.292 902.8e-6 -92.694
          0.996 -0.625 8.48e-3 58.523 902.8e-6 -92.694 4.523e-3 89.292
          4.523e-3 89.292 902.8e-6 -92.694 8.48e-3 58.523 0.996 -0.625
          902.8e-6 -92.694 4.523e-3 89.292 0.996 -0.625 8.48e-3 58.523
206.156 8.668e-3 59.244 0.996 -0.643 4.659e-3 89.27 929.9e-6 -92.775
          0.996 -0.643 8.668e-3 59.244 929.9e-6 -92.775 4.659e-3 89.27
          4.659e-3 89.27 929.9e-6 -92.775 8.668e-3 59.244 0.996 -0.643
          929.9e-6 -92.775 4.659e-3 89.27 0.996 -0.643 8.668e-3 59.244
212.162 8.858e-3 59.932 0.996 -0.662 4.795e-3 89.249 957e-6 -92.857
          0.996 -0.662 8.858e-3 59.932 957e-6 -92.857 4.795e-3 89.249
          4.795e-3 89.249 957e-6 -92.857 8.858e-3 59.932 0.996 -0.662
          957e-6 -92.857 4.795e-3 89.249 0.996 -0.662 8.858e-3 59.932
218.168 9.049e-3 60.591 0.996 -0.681 4.931e-3 89.228 984.2e-6 -92.938
          0.996 -0.681 9.049e-3 60.591 984.2e-6 -92.938 4.931e-3 89.228
          4.931e-3 89.228 984.2e-6 -92.938 9.049e-3 60.591 0.996 -0.681
          984.2e-6 -92.938 4.931e-3 89.228 0.996 -0.681 9.049e-3 60.591
224.174 9.241e-3 61.222 0.996 -0.7 5.066e-3 89.207 1.011e-3 -93.019
          0.996 -0.7 9.241e-3 61.222 1.011e-3 -93.019 5.066e-3 89.207
          5.066e-3 89.207 1.011e-3 -93.019 9.241e-3 61.222 0.996 -0.7
          1.011e-3 -93.019 5.066e-3 89.207 0.996 -0.7 9.241e-3 61.222
230.18 9.435e-3 61.826 0.996 -0.718 5.202e-3 89.186 1.038e-3 -93.1
          0.996 -0.718 9.435e-3 61.826 1.038e-3 -93.1 5.202e-3 89.186
          5.202e-3 89.186 1.038e-3 -93.1 9.435e-3 61.826 0.996 -0.718
          1.038e-3 -93.1 5.202e-3 89.186 0.996 -0.718 9.435e-3 61.826
236.186 9.629e-3 62.405 0.996 -0.737 5.338e-3 89.165 1.065e-3 -93.181
          0.996 -0.737 9.629e-3 62.405 1.065e-3 -93.181 5.338e-3 89.165
          5.338e-3 89.165 1.065e-3 -93.181 9.629e-3 62.405 0.996 -0.737
          1.065e-3 -93.181 5.338e-3 89.165 0.996 -0.737 9.629e-3 62.405
242.192 9.825e-3 62.961 0.996 -0.756 5.473e-3 89.143 1.093e-3 -93.262
          0.996 -0.756 9.825e-3 62.961 1.093e-3 -93.262 5.473e-3 89.143
          5.473e-3 89.143 1.093e-3 -93.262 9.825e-3 62.961 0.996 -0.756
          1.093e-3 -93.262 5.473e-3 89.143 0.996 -0.756 9.825e-3 62.961
248.198 0.01 63.493 0.996 -0.775 5.609e-3 89.122 1.12e-3 -93.344
          0.996 -0.775 0.01 63.493 1.12e-3 -93.344 5.609e-3 89.122
          5.609e-3 89.122 1.12e-3 -93.344 0.01 63.493 0.996 -0.775
          1.12e-3 -93.344 5.609e-3 89.122 0.996 -0.775 0.01 63.493
254.204 0.01 64.005 0.996 -0.793 5.745e-3 89.101 1.147e-3 -93.425
          0.996 -0.793 0.01 64.005 1.147e-3 -93.425 5.745e-3 89.101
          5.745e-3 89.101 1.147e-3 -93.425 0.01 64.005 0.996 -0.793
          1.147e-3 -93.425 5.745e-3 89.101 0.996 -0.793 0.01 64.005
260.21 0.01 64.496 0.996 -0.812 5.88e-3 89.08 1.174e-3 -93.506
          0.996 -0.812 0.01 64.496 1.174e-3 -93.506 5.88e-3 89.08
          5.88e-3 89.08 1.174e-3 -93.506 0.01 64.496 0.996 -0.812
          1.174e-3 -93.506 5.88e-3 89.08 0.996 -0.812 0.01 64.496
266.216 0.011 64.968 0.996 -0.831 6.016e-3 89.059 1.201e-3 -93.587
          0.996 -0.831 0.011 64.968 1.201e-3 -93.587 6.016e-3 89.059
          6.016e-3 89.059 1.201e-3 -93.587 0.011 64.968 0.996 -0.831
          1.201e-3 -93.587 6.016e-3 89.059 0.996 -0.831 0.011 64.968
272.222 0.011 65.422 0.996 -0.85 6.152e-3 89.038 1.228e-3 -93.668
          0.996 -0.85 0.011 65.422 1.228e-3 -93.668 6.152e-3 89.038
          6.152e-3 89.038 1.228e-3 -93.668 0.011 65.422 0.996 -0.85
          1.228e-3 -93.668 6.152e-3 89.038 0.996 -0.85 0.011 65.422
278.228 0.011 65.859 0.996 -0.868 6.287e-3 89.016 1.255e-3 -93.749
          0.996 -0.868 0.011 65.859 1.255e-3 -93.749 6.287e-3 89.016
          6.287e-3 89.016 1.255e-3 -93.749 0.011 65.859 0.996 -0.868
          1.255e-3 -93.749 6.287e-3 89.016 0.996 -0.868 0.011 65.859
284.234 0.011 66.28 0.996 -0.887 6.423e-3 88.995 1.282e-3 -93.831
          0.996 -0.887 0.011 66.28 1.282e-3 -93.831 6.423e-3 88.995
          6.423e-3 88.995 1.282e-3 -93.831 0.011 66.28 0.996 -0.887
          1.282e-3 -93.831 6.423e-3 88.995 0.996 -0.887 0.011 66.28
290.24 0.011 66.685 0.996 -0.906 6.559e-3 88.974 1.31e-3 -93.912
          0.996 -0.906 0.011 66.685 1.31e-3 -93.912 6.559e-3 88.974
          6.559e-3 88.974 1.31e-3 -93.912 0.011 66.685 0.996 -0.906
          1.31e-3 -93.912 6.559e-3 88.974 0.996 -0.906 0.011 66.685
296.246 0.012 67.075 0.996 -0.924 6.694e-3 88.953 1.337e-3 -93.993
          0.996 -0.924 0.012 67.075 1.337e-3 -93.993 6.694e-3 88.953
          6.694e-3 88.953 1.337e-3 -93.993 0.012 67.075 0.996 -0.924
          1.337e-3 -93.993 6.694e-3 88.953 0.996 -0.924 0.012 67.075
302.252 0.012 67.451 0.996 -0.943 6.83e-3 88.932 1.364e-3 -94.074
          0.996 -0.943 0.012 67.451 1.364e-3 -94.074 6.83e-3 88.932
          6.83e-3 88.932 1.364e-3 -94.074 0.012 67.451 0.996 -0.943
          1.364e-3 -94.074 6.83e-3 88.932 0.996 -0.943 0.012 67.451
308.258 0.012 67.814 0.996 -0.962 6.966e-3 88.91 1.391e-3 -94.155
          0.996 -0.962 0.012 67.814 1.391e-3 -94.155 6.966e-3 88.91
          6.966e-3 88.91 1.391e-3 -94.155 0.012 67.814 0.996 -0.962
          1.391e-3 -94.155 6.966e-3 88.91 0.996 -0.962 0.012 67.814
314.264 0.012 68.164 0.996 -0.981 7.101e-3 88.889 1.418e-3 -94.236
          0.996 -0.981 0.012 68.164 1.418e-3 -94.236 7.101e-3 88.889
          7.101e-3 88.889 1.418e-3 -94.236 0.012 68.164 0.996 -0.981
          1.418e-3 -94.236 7.101e-3 88.889 0.996 -0.981 0.012 68.164
320.27 0.012 68.502 0.996 -0.999 7.237e-3 88.868 1.445e-3 -94.317
          0.996 -0.999 0.012 68.502 1.445e-3 -94.317 7.237e-3 88.868
          7.237e-3 88.868 1.445e-3 -94.317 0.012 68.502 0.996 -0.999
          1.445e-3 -94.317 7.237e-3 88.868 0.996 -0.999 0.012 68.502
326.276 0.013 68.828 0.996 -1.018 7.373e-3 88.847 1.472e-3 -94.398
          0.996 -1.018 0.013 68.828 1.472e-3 -94.398 7.373e-3 88.847
          7.373e-3 88.847 1.472e-3 -94.398 0.013 68.828 0.996 -1.018
          1.472e-3 -94.398 7.373e-3 88.847 0.996 -1.018 0.013 68.828
332.282 0.013 69.143 0.996 -1.037 7.508e-3 88.826 1.5e-3 -94.48
          0.996 -1.037 0.013 69.143 1.5e-3 -94.48 7.508e-3 88.826
          7.508e-3 88.826 1.5e-3 -94.48 0.013 69.143 0.996 -1.037
          1.5e-3 -94.48 7.508e-3 88.826 0.996 -1.037 0.013 69.143
338.288 0.013 69.448 0.996 -1.056 7.644e-3 88.805 1.527e-3 -94.561
          0.996 -1.056 0.013 69.448 1.527e-3 -94.561 7.644e-3 88.805
          7.644e-3 88.805 1.527e-3 -94.561 0.013 69.448 0.996 -1.056
          1.527e-3 -94.561 7.644e-3 88.805 0.996 -1.056 0.013 69.448
344.294 0.013 69.743 0.996 -1.074 7.78e-3 88.783 1.554e-3 -94.642
          0.996 -1.074 0.013 69.743 1.554e-3 -94.642 7.78e-3 88.783
          7.78e-3 88.783 1.554e-3 -94.642 0.013 69.743 0.996 -1.074
          1.554e-3 -94.642 7.78e-3 88.783 0.996 -1.074 0.013 69.743
350.3 0.013 70.028 0.996 -1.093 7.915e-3 88.762 1.581e-3 -94.723
          0.996 -1.093 0.013 70.028 1.581e-3 -94.723 7.915e-3 88.762
          7.915e-3 88.762 1.581e-3 -94.723 0.013 70.028 0.996 -1.093
          1.581e-3 -94.723 7.915e-3 88.762 0.996 -1.093 0.013 70.028
356.306 0.014 70.303 0.996 -1.112 8.051e-3 88.741 1.608e-3 -94.804
          0.996 -1.112 0.014 70.303 1.608e-3 -94.804 8.051e-3 88.741
          8.051e-3 88.741 1.608e-3 -94.804 0.014 70.303 0.996 -1.112
          1.608e-3 -94.804 8.051e-3 88.741 0.996 -1.112 0.014 70.303
362.312 0.014 70.57 0.996 -1.131 8.186e-3 88.72 1.635e-3 -94.885
          0.996 -1.131 0.014 70.57 1.635e-3 -94.885 8.186e-3 88.72
          8.186e-3 88.72 1.635e-3 -94.885 0.014 70.57 0.996 -1.131
          1.635e-3 -94.885 8.186e-3 88.72 0.996 -1.131 0.014 70.57
368.318 0.014 70.829 0.996 -1.149 8.322e-3 88.699 1.663e-3 -94.966
          0.996 -1.149 0.014 70.829 1.663e-3 -94.966 8.322e-3 88.699
          8.322e-3 88.699 1.663e-3 -94.966 0.014 70.829 0.996 -1.149
          1.663e-3 -94.966 8.322e-3 88.699 0.996 -1.149 0.014 70.829
374.324 0.014 71.079 0.996 -1.168 8.458e-3 88.677 1.69e-3 -95.047
          0.996 -1.168 0.014 71.079 1.69e-3 -95.047 8.458e-3 88.677
          8.458e-3 88.677 1.69e-3 -95.047 0.014 71.079 0.996 -1.168
          1.69e-3 -95.047 8.458e-3 88.677 0.996 -1.168 0.014 71.079
380.33 0.015 71.322 0.996 -1.187 8.593e-3 88.656 1.717e-3 -95.128
          0.996 -1.187 0.015 71.322 1.717e-3 -95.128 8.593e-3 88.656
          8.593e-3 88.656 1.717e-3 -95.128 0.015 71.322 0.996 -1.187
          1.717e-3 -95.128 8.593e-3 88.656 0.996 -1.187 0.015 71.322
386.336 0.015 71.557 0.996 -1.206 8.729e-3 88.635 1.744e-3 -95.209
          0.996 -1.206 0.015 71.557 1.744e-3 -95.209 8.729e-3 88.635
          8.729e-3 88.635 1.744e-3 -95.209 0.015 71.557 0.996 -1.206
          1.744e-3 -95.209 8.729e-3 88.635 0.996 -1.206 0.015 71.557
392.342 0.015 71.785 0.996 -1.224 8.864e-3 88.614 1.771e-3 -95.29
          0.996 -1.224 0.015 71.785 1.771e-3 -95.29 8.864e-3 88.614
          8.864e-3 88.614 1.771e-3 -95.29 0.015 71.785 0.996 -1.224
          1.771e-3 -95.29 8.864e-3 88.614 0.996 -1.224 0.015 71.785
398.348 0.015 72.006 0.996 -1.243 9e-3 88.593 1.798e-3 -95.372
          0.996 -1.243 0.015 72.006 1.798e-3 -95.372 9e-3 88.593
          9e-3 88.593 1.798e-3 -95.372 0.015 72.006 0.996 -1.243
          1.798e-3 -95.372 9e-3 88.593 0.996 -1.243 0.015 72.006
404.354 0.015 72.221 0.996 -1.262 9.136e-3 88.572 1.826e-3 -95.453
          0.996 -1.262 0.015 72.221 1.826e-3 -95.453 9.136e-3 88.572
          9.136e-3 88.572 1.826e-3 -95.453 0.015 72.221 0.996 -1.262
          1.826e-3 -95.453 9.136e-3 88.572 0.996 -1.262 0.015 72.221
410.36 0.016 72.429 0.995 -1.281 9.271e-3 88.55 1.853e-3 -95.534
          0.995 -1.281 0.016 72.429 1.853e-3 -95.534 9.271e-3 88.55
          9.271e-3 88.55 1.853e-3 -95.534 0.016 72.429 0.995 -1.281
          1.853e-3 -95.534 9.271e-3 88.55 0.995 -1.281 0.016 72.429
416.366 0.016 72.631 0.995 -1.299 9.407e-3 88.529 1.88e-3 -95.615
          0.995 -1.299 0.016 72.631 1.88e-3 -95.615 9.407e-3 88.529
          9.407e-3 88.529 1.88e-3 -95.615 0.016 72.631 0.995 -1.299
          1.88e-3 -95.615 9.407e-3 88.529 0.995 -1.299 0.016 72.631
422.372 0.016 72.828 0.995 -1.318 9.542e-3 88.508 1.907e-3 -95.696
          0.995 -1.318 0.016 72.828 1.907e-3 -95.696 9.542e-3 88.508
          9.542e-3 88.508 1.907e-3 -95.696 0.016 72.828 0.995 -1.318
          1.907e-3 -95.696 9.542e-3 88.508 0.995 -1.318 0.016 72.828
428.378 0.016 73.018 0.995 -1.337 9.678e-3 88.487 1.934e-3 -95.777
          0.995 -1.337 0.016 73.018 1.934e-3 -95.777 9.678e-3 88.487
          9.678e-3 88.487 1.934e-3 -95.777 0.016 73.018 0.995 -1.337
          1.934e-3 -95.777 9.678e-3 88.487 0.995 -1.337 0.016 73.018
434.384 0.016 73.204 0.995 -1.355 9.814e-3 88.466 1.962e-3 -95.858
          0.995 -1.355 0.016 73.204 1.962e-3 -95.858 9.814e-3 88.466
          9.814e-3 88.466 1.962e-3 -95.858 0.016 73.204 0.995 -1.355
          1.962e-3 -95.858 9.814e-3 88.466 0.995 -1.355 0.016 73.204
440.39 0.017 73.384 0.995 -1.374 9.949e-3 88.445 1.989e-3 -95.939
          0.995 -1.374 0.017 73.384 1.989e-3 -95.939 9.949e-3 88.445
          9.949e-3 88.445 1.989e-3 -95.939 0.017 73.384 0.995 -1.374
          1.989e-3 -95.939 9.949e-3 88.445 0.995 -1.374 0.017 73.384
446.396 0.017 73.559 0.995 -1.393 0.01 88.423 2.016e-3 -96.02
          0.995 -1.393 0.017 73.559 2.016e-3 -96.02 0.01 88.423
          0.01 88.423 2.016e-3 -96.02 0.017 73.559 0.995 -1.393
          2.016e-3 -96.02 0.01 88.423 0.995 -1.393 0.017 73.559
452.402 0.017 73.73 0.995 -1.412 0.01 88.402 2.043e-3 -96.101
          0.995 -1.412 0.017 73.73 2.043e-3 -96.101 0.01 88.402
          0.01 88.402 2.043e-3 -96.101 0.017 73.73 0.995 -1.412
          2.043e-3 -96.101 0.01 88.402 0.995 -1.412 0.017 73.73
458.408 0.017 73.895 0.995 -1.43 0.01 88.381 2.07e-3 -96.182
          0.995 -1.43 0.017 73.895 2.07e-3 -96.182 0.01 88.381
          0.01 88.381 2.07e-3 -96.182 0.017 73.895 0.995 -1.43
          2.07e-3 -96.182 0.01 88.381 0.995 -1.43 0.017 73.895
464.414 0.017 74.056 0.995 -1.449 0.01 88.36 2.098e-3 -96.263
          0.995 -1.449 0.017 74.056 2.098e-3 -96.263 0.01 88.36
          0.01 88.36 2.098e-3 -96.263 0.017 74.056 0.995 -1.449
          2.098e-3 -96.263 0.01 88.36 0.995 -1.449 0.017 74.056
470.42 0.018 74.213 0.995 -1.468 0.011 88.339 2.125e-3 -96.344
          0.995 -1.468 0.018 74.213 2.125e-3 -96.344 0.011 88.339
          0.011 88.339 2.125e-3 -96.344 0.018 74.213 0.995 -1.468
          2.125e-3 -96.344 0.011 88.339 0.995 -1.468 0.018 74.213
476.426 0.018 74.366 0.995 -1.487 0.011 88.318 2.152e-3 -96.425
          0.995 -1.487 0.018 74.366 2.152e-3 -96.425 0.011 88.318
          0.011 88.318 2.152e-3 -96.425 0.018 74.366 0.995 -1.487
          2.152e-3 -96.425 0.011 88.318 0.995 -1.487 0.018 74.366
