!	AVX THIN FILM OPERATION
!
!	CP0603 HIGH DIRECTIVITY COUPLERS
!	P/N CP0603AxxxxMLTR
!
!	Network	Analyzer HP8720ES.07.64:Feb23,2000 Serial No.US39172382
!	Hewlett-Packard								
!
!	24 July 2003	02:45:57

# MHZ S MA R 50

50 3.33e-3 -26.736 0.997 -0.458 3.998e-3 89.426 211e-6 88.894
          0.997 -0.458 3.33e-3 -26.736 211e-6 88.894 3.998e-3 89.426
          3.998e-3 89.426 211e-6 88.894 3.361e-3 26.702 0.997 -0.631
          211e-6 88.894 3.998e-3 89.426 0.997 -0.631 3.361e-3 26.702
64.912 3.544e-3 -33.271 0.997 -0.595 5.191e-3 89.264 273.9e-6 88.737
          0.997 -0.595 3.544e-3 -33.271 273.9e-6 88.737 5.191e-3 89.264
          5.191e-3 89.264 273.9e-6 88.737 3.594e-3 33.063 0.997 -0.819
          273.9e-6 88.737 5.191e-3 89.264 0.997 -0.819 3.594e-3 33.063
79.825 3.798e-3 -39.015 0.997 -0.732 6.383e-3 89.103 336.8e-6 88.579
          0.997 -0.732 3.798e-3 -39.015 336.8e-6 88.579 6.383e-3 89.103
          6.383e-3 89.103 336.8e-6 88.579 3.867e-3 38.564 0.997 -1.007
          336.8e-6 88.579 6.383e-3 89.103 0.997 -1.007 3.867e-3 38.564
94.737 4.083e-3 -44.018 0.997 -0.868 7.575e-3 88.941 399.6e-6 88.421
          0.997 -0.868 4.083e-3 -44.018 399.6e-6 88.421 7.575e-3 88.941
          7.575e-3 88.941 399.6e-6 88.421 4.174e-3 43.275 0.997 -1.196
          399.6e-6 88.421 7.575e-3 88.941 0.997 -1.196 4.174e-3 43.275
109.649 4.394e-3 -48.36 0.997 -1.005 8.767e-3 88.779 462.4e-6 88.263
          0.997 -1.005 4.394e-3 -48.36 462.4e-6 88.263 8.767e-3 88.779
          8.767e-3 88.779 462.4e-6 88.263 4.507e-3 47.291 0.997 -1.384
          462.4e-6 88.263 8.767e-3 88.779 0.997 -1.384 4.507e-3 47.291
124.561 4.725e-3 -52.131 0.997 -1.141 9.959e-3 88.617 525.1e-6 88.105
          0.997 -1.141 4.725e-3 -52.131 525.1e-6 88.105 9.959e-3 88.617
          9.959e-3 88.617 525.1e-6 88.105 4.861e-3 50.714 0.997 -1.572
          525.1e-6 88.105 9.959e-3 88.617 0.997 -1.572 4.861e-3 50.714
139.474 5.072e-3 -55.417 0.997 -1.278 0.011 88.455 587.8e-6 87.947
          0.997 -1.278 5.072e-3 -55.417 587.8e-6 87.947 0.011 88.455
          0.011 88.455 587.8e-6 87.947 5.232e-3 53.639 0.997 -1.76
          587.8e-6 87.947 0.011 88.455 0.997 -1.76 5.232e-3 53.639
154.386 5.432e-3 -58.292 0.997 -1.415 0.012 88.292 650.4e-6 87.789
          0.997 -1.415 5.432e-3 -58.292 650.4e-6 87.789 0.012 88.292
          0.012 88.292 650.4e-6 87.789 5.616e-3 56.148 0.997 -1.949
          650.4e-6 87.789 0.012 88.292 0.997 -1.949 5.616e-3 56.148
169.298 5.803e-3 -60.823 0.997 -1.551 0.014 88.13 713e-6 87.631
          0.997 -1.551 5.803e-3 -60.823 713e-6 87.631 0.014 88.13
          0.014 88.13 713e-6 87.631 6.01e-3 58.31 0.997 -2.137
          713e-6 87.631 0.014 88.13 0.997 -2.137 6.01e-3 58.31
184.211 6.183e-3 -63.064 0.997 -1.688 0.015 87.969 775.5e-6 87.474
          0.997 -1.688 6.183e-3 -63.064 775.5e-6 87.474 0.015 87.969
          0.015 87.969 775.5e-6 87.474 6.414e-3 60.18 0.997 -2.325
          775.5e-6 87.474 0.015 87.969 0.997 -2.325 6.414e-3 60.18
199.123 6.569e-3 -65.059 0.997 -1.825 0.016 87.807 837.9e-6 87.317
          0.997 -1.825 6.569e-3 -65.059 837.9e-6 87.317 0.016 87.807
          0.016 87.807 837.9e-6 87.317 6.825e-3 61.807 0.997 -2.513
          837.9e-6 87.317 0.016 87.807 0.997 -2.513 6.825e-3 61.807
214.035 6.962e-3 -66.847 0.997 -1.961 0.017 87.645 900.2e-6 87.16
          0.997 -1.961 6.962e-3 -66.847 900.2e-6 87.16 0.017 87.645
          0.017 87.645 900.2e-6 87.16 7.243e-3 63.228 0.997 -2.701
          900.2e-6 87.16 0.017 87.645 0.997 -2.701 7.243e-3 63.228
228.947 7.36e-3 -68.457 0.997 -2.098 0.018 87.483 962.4e-6 87.003
          0.997 -2.098 7.36e-3 -68.457 962.4e-6 87.003 0.018 87.483
          0.018 87.483 962.4e-6 87.003 7.666e-3 64.474 0.997 -2.89
          962.4e-6 87.003 0.018 87.483 0.997 -2.89 7.666e-3 64.474
243.86 7.762e-3 -69.917 0.997 -2.234 0.019 87.321 1.025e-3 86.846
          0.997 -2.234 7.762e-3 -69.917 1.025e-3 86.846 0.019 87.321
          0.019 87.321 1.025e-3 86.846 8.093e-3 65.571 0.997 -3.078
          1.025e-3 86.846 0.019 87.321 0.997 -3.078 8.093e-3 65.571
258.772 8.167e-3 -71.246 0.997 -2.371 0.021 87.159 1.087e-3 86.69
          0.997 -2.371 8.167e-3 -71.246 1.087e-3 86.69 0.021 87.159
          0.021 87.159 1.087e-3 86.69 8.524e-3 66.541 0.997 -3.266
          1.087e-3 86.69 0.021 87.159 0.997 -3.266 8.524e-3 66.541
273.684 8.575e-3 -72.462 0.997 -2.508 0.022 86.997 1.149e-3 86.533
          0.997 -2.508 8.575e-3 -72.462 1.149e-3 86.533 0.022 86.997
          0.022 86.997 1.149e-3 86.533 8.958e-3 67.4 0.997 -3.454
          1.149e-3 86.533 0.022 86.997 0.997 -3.454 8.958e-3 67.4
288.596 8.986e-3 -73.58 0.997 -2.644 0.023 86.835 1.21e-3 86.378
          0.997 -2.644 8.986e-3 -73.58 1.21e-3 86.378 0.023 86.835
          0.023 86.835 1.21e-3 86.378 9.395e-3 68.164 0.997 -3.643
          1.21e-3 86.378 0.023 86.835 0.997 -3.643 9.395e-3 68.164
303.509 9.399e-3 -74.613 0.997 -2.781 0.024 86.673 1.272e-3 86.222
          0.997 -2.781 9.399e-3 -74.613 1.272e-3 86.222 0.024 86.673
          0.024 86.673 1.272e-3 86.222 9.835e-3 68.844 0.997 -3.831
          1.272e-3 86.222 0.024 86.673 0.997 -3.831 9.835e-3 68.844
318.421 9.814e-3 -75.57 0.997 -2.917 0.025 86.511 1.334e-3 86.067
          0.997 -2.917 9.814e-3 -75.57 1.334e-3 86.067 0.025 86.511
          0.025 86.511 1.334e-3 86.067 0.01 69.451 0.997 -4.019
          1.334e-3 86.067 0.025 86.511 0.997 -4.019 0.01 69.451
333.333 0.01 -76.461 0.997 -3.054 0.027 86.349 1.395e-3 85.912
          0.997 -3.054 0.01 -76.461 1.395e-3 85.912 0.027 86.349
          0.027 86.349 1.395e-3 85.912 0.011 69.993 0.997 -4.207
          1.395e-3 85.912 0.027 86.349 0.997 -4.207 0.011 69.993
348.246 0.011 -77.294 0.997 -3.19 0.028 86.187 1.456e-3 85.757
          0.997 -3.19 0.011 -77.294 1.456e-3 85.757 0.028 86.187
          0.028 86.187 1.456e-3 85.757 0.011 70.479 0.997 -4.395
          1.456e-3 85.757 0.028 86.187 0.997 -4.395 0.011 70.479
363.158 0.011 -78.074 0.996 -3.327 0.029 86.025 1.518e-3 85.603
          0.996 -3.327 0.011 -78.074 1.518e-3 85.603 0.029 86.025
          0.029 86.025 1.518e-3 85.603 0.012 70.913 0.996 -4.584
          1.518e-3 85.603 0.029 86.025 0.996 -4.584 0.012 70.913
378.07 0.011 -78.807 0.996 -3.463 0.03 85.863 1.579e-3 85.449
          0.996 -3.463 0.011 -78.807 1.579e-3 85.449 0.03 85.863
          0.03 85.863 1.579e-3 85.449 0.012 71.303 0.996 -4.772
          1.579e-3 85.449 0.03 85.863 0.996 -4.772 0.012 71.303
392.982 0.012 -79.498 0.996 -3.6 0.031 85.701 1.639e-3 85.296
          0.996 -3.6 0.012 -79.498 1.639e-3 85.296 0.031 85.701
          0.031 85.701 1.639e-3 85.296 0.013 71.652 0.996 -4.96
          1.639e-3 85.296 0.031 85.701 0.996 -4.96 0.013 71.652
407.895 0.012 -80.152 0.996 -3.736 0.033 85.539 1.7e-3 85.143
          0.996 -3.736 0.012 -80.152 1.7e-3 85.143 0.033 85.539
          0.033 85.539 1.7e-3 85.143 0.013 71.965 0.996 -5.148
          1.7e-3 85.143 0.033 85.539 0.996 -5.148 0.013 71.965
422.807 0.013 -80.772 0.996 -3.873 0.034 85.377 1.761e-3 84.991
          0.996 -3.873 0.013 -80.772 1.761e-3 84.991 0.034 85.377
          0.034 85.377 1.761e-3 84.991 0.013 72.245 0.996 -5.337
          1.761e-3 84.991 0.034 85.377 0.996 -5.337 0.013 72.245
437.719 0.013 -81.361 0.996 -4.009 0.035 85.215 1.821e-3 84.839
          0.996 -4.009 0.013 -81.361 1.821e-3 84.839 0.035 85.215
          0.035 85.215 1.821e-3 84.839 0.014 72.495 0.996 -5.525
          1.821e-3 84.839 0.035 85.215 0.996 -5.525 0.014 72.495
452.632 0.014 -81.922 0.996 -4.146 0.036 85.053 1.881e-3 84.687
          0.996 -4.146 0.014 -81.922 1.881e-3 84.687 0.036 85.053
          0.036 85.053 1.881e-3 84.687 0.014 72.719 0.996 -5.713
          1.881e-3 84.687 0.036 85.053 0.996 -5.713 0.014 72.719
467.544 0.014 -82.458 0.996 -4.282 0.037 84.891 1.941e-3 84.536
          0.996 -4.282 0.014 -82.458 1.941e-3 84.536 0.037 84.891
          0.037 84.891 1.941e-3 84.536 0.015 72.918 0.996 -5.901
          1.941e-3 84.536 0.037 84.891 0.996 -5.901 0.015 72.918
482.456 0.014 -82.971 0.996 -4.419 0.039 84.73 2.001e-3 84.386
          0.996 -4.419 0.014 -82.971 2.001e-3 84.386 0.039 84.73
          0.039 84.73 2.001e-3 84.386 0.015 73.094 0.996 -6.089
          2.001e-3 84.386 0.039 84.73 0.996 -6.089 0.015 73.094
497.368 0.015 -83.462 0.996 -4.555 0.04 84.568 2.061e-3 84.236
          0.996 -4.555 0.015 -83.462 2.061e-3 84.236 0.04 84.568
          0.04 84.568 2.061e-3 84.236 0.016 73.251 0.996 -6.278
          2.061e-3 84.236 0.04 84.568 0.996 -6.278 0.016 73.251
512.281 0.015 -83.934 0.996 -4.691 0.041 84.406 2.12e-3 84.086
          0.996 -4.691 0.015 -83.934 2.12e-3 84.086 0.041 84.406
          0.041 84.406 2.12e-3 84.086 0.016 73.388 0.996 -6.466
          2.12e-3 84.086 0.041 84.406 0.996 -6.466 0.016 73.388
527.193 0.016 -84.388 0.996 -4.828 0.042 84.244 2.179e-3 83.937
          0.996 -4.828 0.016 -84.388 2.179e-3 83.937 0.042 84.244
          0.042 84.244 2.179e-3 83.937 0.017 73.508 0.996 -6.654
          2.179e-3 83.937 0.042 84.244 0.996 -6.654 0.017 73.508
542.105 0.016 -84.826 0.996 -4.964 0.043 84.082 2.238e-3 83.789
          0.996 -4.964 0.016 -84.826 2.238e-3 83.789 0.043 84.082
          0.043 84.082 2.238e-3 83.789 0.017 73.612 0.996 -6.842
          2.238e-3 83.789 0.043 84.082 0.996 -6.842 0.017 73.612
557.018 0.017 -85.248 0.996 -5.1 0.044 83.92 2.297e-3 83.641
          0.996 -5.1 0.017 -85.248 2.297e-3 83.641 0.044 83.92
          0.044 83.92 2.297e-3 83.641 0.018 73.702 0.996 -7.031
          2.297e-3 83.641 0.044 83.92 0.996 -7.031 0.018 73.702
571.93 0.017 -85.656 0.996 -5.237 0.046 83.758 2.356e-3 83.494
          0.996 -5.237 0.017 -85.656 2.356e-3 83.494 0.046 83.758
          0.046 83.758 2.356e-3 83.494 0.018 73.778 0.996 -7.219
          2.356e-3 83.494 0.046 83.758 0.996 -7.219 0.018 73.778
586.842 0.017 -86.051 0.996 -5.373 0.047 83.597 2.414e-3 83.348
          0.996 -5.373 0.017 -86.051 2.414e-3 83.348 0.047 83.597
          0.047 83.597 2.414e-3 83.348 0.018 73.842 0.996 -7.407
          2.414e-3 83.348 0.047 83.597 0.996 -7.407 0.018 73.842
601.754 0.018 -86.434 0.996 -5.509 0.048 83.435 2.472e-3 83.202
          0.996 -5.509 0.018 -86.434 2.472e-3 83.202 0.048 83.435
          0.048 83.435 2.472e-3 83.202 0.019 73.893 0.996 -7.595
          2.472e-3 83.202 0.048 83.435 0.996 -7.595 0.019 73.893
616.667 0.018 -86.806 0.996 -5.646 0.049 83.273 2.53e-3 83.057
          0.996 -5.646 0.018 -86.806 2.53e-3 83.057 0.049 83.273
          0.049 83.273 2.53e-3 83.057 0.019 73.934 0.996 -7.784
          2.53e-3 83.057 0.049 83.273 0.996 -7.784 0.019 73.934
631.579 0.019 -87.167 0.996 -5.782 0.05 83.111 2.588e-3 82.912
          0.996 -5.782 0.019 -87.167 2.588e-3 82.912 0.05 83.111
          0.05 83.111 2.588e-3 82.912 0.02 73.965 0.995 -7.972
          2.588e-3 82.912 0.05 83.111 0.995 -7.972 0.02 73.965
646.491 0.019 -87.518 0.995 -5.918 0.052 82.949 2.645e-3 82.769
          0.995 -5.918 0.019 -87.518 2.645e-3 82.769 0.052 82.949
          0.052 82.949 2.645e-3 82.769 0.02 73.986 0.995 -8.16
          2.645e-3 82.769 0.052 82.949 0.995 -8.16 0.02 73.986
661.404 0.02 -87.86 0.995 -6.054 0.053 82.788 2.702e-3 82.626
          0.995 -6.054 0.02 -87.86 2.702e-3 82.626 0.053 82.788
          0.053 82.788 2.702e-3 82.626 0.021 73.999 0.995 -8.348
          2.702e-3 82.626 0.053 82.788 0.995 -8.348 0.021 73.999
676.316 0.02 -88.194 0.995 -6.19 0.054 82.626 2.759e-3 82.484
          0.995 -6.19 0.02 -88.194 2.759e-3 82.484 0.054 82.626
          0.054 82.626 2.759e-3 82.484 0.021 74.003 0.995 -8.537
          2.759e-3 82.484 0.054 82.626 0.995 -8.537 0.021 74.003
691.228 0.02 -88.519 0.995 -6.327 0.055 82.464 2.816e-3 82.342
          0.995 -6.327 0.02 -88.519 2.816e-3 82.342 0.055 82.464
          0.055 82.464 2.816e-3 82.342 0.022 74 0.995 -8.725
          2.816e-3 82.342 0.055 82.464 0.995 -8.725 0.022 74
706.14 0.021 -88.837 0.995 -6.463 0.056 82.302 2.872e-3 82.202
          0.995 -6.463 0.021 -88.837 2.872e-3 82.202 0.056 82.302
          0.056 82.302 2.872e-3 82.202 0.022 73.989 0.995 -8.913
          2.872e-3 82.202 0.056 82.302 0.995 -8.913 0.022 73.989
721.053 0.021 -89.148 0.995 -6.599 0.057 82.141 2.928e-3 82.062
          0.995 -6.599 0.021 -89.148 2.928e-3 82.062 0.057 82.141
          0.057 82.141 2.928e-3 82.062 0.023 73.971 0.995 -9.101
          2.928e-3 82.062 0.057 82.141 0.995 -9.101 0.023 73.971
735.965 0.022 -89.452 0.995 -6.735 0.059 81.979 2.984e-3 81.923
          0.995 -6.735 0.022 -89.452 2.984e-3 81.923 0.059 81.979
          0.059 81.979 2.984e-3 81.923 0.023 73.947 0.995 -9.29
          2.984e-3 81.923 0.059 81.979 0.995 -9.29 0.023 73.947
750.877 0.022 -89.749 0.995 -6.871 0.06 81.817 3.04e-3 81.785
          0.995 -6.871 0.022 -89.749 3.04e-3 81.785 0.06 81.817
          0.06 81.817 3.04e-3 81.785 0.024 73.917 0.995 -9.478
          3.04e-3 81.785 0.06 81.817 0.995 -9.478 0.024 73.917
765.789 0.022 -90.041 0.995 -7.007 0.061 81.656 3.095e-3 81.648
          0.995 -7.007 0.022 -90.041 3.095e-3 81.648 0.061 81.656
          0.061 81.656 3.095e-3 81.648 0.024 73.881 0.995 -9.666
          3.095e-3 81.648 0.061 81.656 0.995 -9.666 0.024 73.881
780.702 0.023 -90.327 0.995 -7.143 0.062 81.494 3.15e-3 81.512
          0.995 -7.143 0.023 -90.327 3.15e-3 81.512 0.062 81.494
          0.062 81.494 3.15e-3 81.512 0.025 73.84 0.995 -9.854
          3.15e-3 81.512 0.062 81.494 0.995 -9.854 0.025 73.84
795.614 0.023 -90.608 0.995 -7.279 0.063 81.332 3.204e-3 81.377
          0.995 -7.279 0.023 -90.608 3.204e-3 81.377 0.063 81.332
          0.063 81.332 3.204e-3 81.377 0.025 73.793 0.995 -10.043
          3.204e-3 81.377 0.063 81.332 0.995 -10.043 0.025 73.793
810.526 0.024 -90.884 0.995 -7.415 0.064 81.171 3.259e-3 81.242
          0.995 -7.415 0.024 -90.884 3.259e-3 81.242 0.064 81.171
          0.064 81.171 3.259e-3 81.242 0.026 73.742 0.995 -10.231
          3.259e-3 81.242 0.064 81.171 0.995 -10.231 0.026 73.742
825.439 0.024 -91.155 0.994 -7.551 0.066 81.009 3.313e-3 81.109
          0.994 -7.551 0.024 -91.155 3.313e-3 81.109 0.066 81.009
          0.066 81.009 3.313e-3 81.109 0.026 73.686 0.994 -10.419
          3.313e-3 81.109 0.066 81.009 0.994 -10.419 0.026 73.686
840.351 0.025 -91.421 0.994 -7.687 0.067 80.847 3.366e-3 80.976
          0.994 -7.687 0.025 -91.421 3.366e-3 80.976 0.067 80.847
          0.067 80.847 3.366e-3 80.976 0.027 73.626 0.994 -10.608
          3.366e-3 80.976 0.067 80.847 0.994 -10.608 0.027 73.626
855.263 0.025 -91.683 0.994 -7.823 0.068 80.686 3.42e-3 80.845
          0.994 -7.823 0.025 -91.683 3.42e-3 80.845 0.068 80.686
          0.068 80.686 3.42e-3 80.845 0.027 73.562 0.994 -10.796
          3.42e-3 80.845 0.068 80.686 0.994 -10.796 0.027 73.562
870.175 0.025 -91.941 0.994 -7.959 0.069 80.524 3.473e-3 80.715
          0.994 -7.959 0.025 -91.941 3.473e-3 80.715 0.069 80.524
          0.069 80.524 3.473e-3 80.715 0.028 73.493 0.994 -10.984
          3.473e-3 80.715 0.069 80.524 0.994 -10.984 0.028 73.493
885.088 0.026 -92.195 0.994 -8.095 0.07 80.363 3.525e-3 80.585
          0.994 -8.095 0.026 -92.195 3.525e-3 80.585 0.07 80.363
          0.07 80.363 3.525e-3 80.585 0.028 73.421 0.994 -11.172
          3.525e-3 80.585 0.07 80.363 0.994 -11.172 0.028 73.421
900 0.026 -92.446 0.994 -8.231 0.072 80.201 3.578e-3 80.457
          0.994 -8.231 0.026 -92.446 3.578e-3 80.457 0.072 80.201
          0.072 80.201 3.578e-3 80.457 0.028 73.346 0.994 -11.361
          3.578e-3 80.457 0.072 80.201 0.994 -11.361 0.028 73.346
914.912 0.027 -92.693 0.994 -8.366 0.073 80.039 3.63e-3 80.33
          0.994 -8.366 0.027 -92.693 3.63e-3 80.33 0.073 80.039
          0.073 80.039 3.63e-3 80.33 0.029 73.267 0.994 -11.549
          3.63e-3 80.33 0.073 80.039 0.994 -11.549 0.029 73.267
929.825 0.027 -92.936 0.994 -8.502 0.074 79.878 3.682e-3 80.204
          0.994 -8.502 0.027 -92.936 3.682e-3 80.204 0.074 79.878
          0.074 79.878 3.682e-3 80.204 0.029 73.185 0.994 -11.737
          3.682e-3 80.204 0.074 79.878 0.994 -11.737 0.029 73.185
944.737 0.027 -93.177 0.994 -8.638 0.075 79.716 3.733e-3 80.08
          0.994 -8.638 0.027 -93.177 3.733e-3 80.08 0.075 79.716
          0.075 79.716 3.733e-3 80.08 0.03 73.099 0.994 -11.926
          3.733e-3 80.08 0.075 79.716 0.994 -11.926 0.03 73.099
959.649 0.028 -93.414 0.994 -8.774 0.076 79.555 3.784e-3 79.956
          0.994 -8.774 0.028 -93.414 3.784e-3 79.956 0.076 79.555
          0.076 79.555 3.784e-3 79.956 0.03 73.011 0.994 -12.114
          3.784e-3 79.956 0.076 79.555 0.994 -12.114 0.03 73.011
974.561 0.028 -93.648 0.994 -8.909 0.077 79.393 3.835e-3 79.834
          0.994 -8.909 0.028 -93.648 3.835e-3 79.834 0.077 79.393
          0.077 79.393 3.835e-3 79.834 0.031 72.92 0.993 -12.302
          3.835e-3 79.834 0.077 79.393 0.993 -12.302 0.031 72.92
989.474 0.029 -93.879 0.993 -9.045 0.079 79.232 3.885e-3 79.713
          0.993 -9.045 0.029 -93.879 3.885e-3 79.713 0.079 79.232
          0.079 79.232 3.885e-3 79.713 0.031 72.826 0.993 -12.491
          3.885e-3 79.713 0.079 79.232 0.993 -12.491 0.031 72.826
1004.386 0.029 -94.108 0.993 -9.181 0.08 79.07 3.935e-3 79.593
          0.993 -9.181 0.029 -94.108 3.935e-3 79.593 0.08 79.07
          0.08 79.07 3.935e-3 79.593 0.032 72.729 0.993 -12.679
          3.935e-3 79.593 0.08 79.07 0.993 -12.679 0.032 72.729
1019.298 0.03 -94.334 0.993 -9.316 0.081 78.909 3.984e-3 79.474
          0.993 -9.316 0.03 -94.334 3.984e-3 79.474 0.081 78.909
          0.081 78.909 3.984e-3 79.474 0.032 72.63 0.993 -12.867
          3.984e-3 79.474 0.081 78.909 0.993 -12.867 0.032 72.63
1034.211 0.03 -94.558 0.993 -9.452 0.082 78.748 4.034e-3 79.357
          0.993 -9.452 0.03 -94.558 4.034e-3 79.357 0.082 78.748
          0.082 78.748 4.034e-3 79.357 0.033 72.529 0.993 -13.055
          4.034e-3 79.357 0.082 78.748 0.993 -13.055 0.033 72.529
1049.123 0.03 -94.779 0.993 -9.587 0.083 78.586 4.083e-3 79.241
          0.993 -9.587 0.03 -94.779 4.083e-3 79.241 0.083 78.586
          0.083 78.586 4.083e-3 79.241 0.033 72.426 0.993 -13.244
          4.083e-3 79.241 0.083 78.586 0.993 -13.244 0.033 72.426
1064.035 0.031 -94.999 0.993 -9.723 0.084 78.425 4.131e-3 79.126
          0.993 -9.723 0.031 -94.999 4.131e-3 79.126 0.084 78.425
          0.084 78.425 4.131e-3 79.126 0.034 72.32 0.993 -13.432
          4.131e-3 79.126 0.084 78.425 0.993 -13.432 0.034 72.32
1078.947 0.031 -95.215 0.993 -9.858 0.086 78.263 4.179e-3 79.013
          0.993 -9.858 0.031 -95.215 4.179e-3 79.013 0.086 78.263
          0.086 78.263 4.179e-3 79.013 0.034 72.212 0.993 -13.62
          4.179e-3 79.013 0.086 78.263 0.993 -13.62 0.034 72.212
1093.86 0.032 -95.43 0.993 -9.994 0.087 78.102 4.227e-3 78.902
          0.993 -9.994 0.032 -95.43 4.227e-3 78.902 0.087 78.102
          0.087 78.102 4.227e-3 78.902 0.035 72.102 0.993 -13.809
          4.227e-3 78.902 0.087 78.102 0.993 -13.809 0.035 72.102
1108.772 0.032 -95.643 0.993 -10.129 0.088 77.941 4.274e-3 78.791
          0.993 -10.129 0.032 -95.643 4.274e-3 78.791 0.088 77.941
          0.088 77.941 4.274e-3 78.791 0.035 71.99 0.992 -13.997
          4.274e-3 78.791 0.088 77.941 0.992 -13.997 0.035 71.99
1123.684 0.032 -95.854 0.992 -10.265 0.089 77.779 4.321e-3 78.683
          0.992 -10.265 0.032 -95.854 4.321e-3 78.683 0.089 77.779
          0.089 77.779 4.321e-3 78.683 0.036 71.876 0.992 -14.186
          4.321e-3 78.683 0.089 77.779 0.992 -14.186 0.036 71.876
1138.596 0.033 -96.063 0.992 -10.4 0.09 77.618 4.367e-3 78.575
          0.992 -10.4 0.033 -96.063 4.367e-3 78.575 0.09 77.618
          0.09 77.618 4.367e-3 78.575 0.036 71.761 0.992 -14.374
          4.367e-3 78.575 0.09 77.618 0.992 -14.374 0.036 71.761
1153.509 0.033 -96.27 0.992 -10.535 0.091 77.457 4.413e-3 78.47
          0.992 -10.535 0.033 -96.27 4.413e-3 78.47 0.091 77.457
          0.091 77.457 4.413e-3 78.47 0.037 71.643 0.992 -14.562
          4.413e-3 78.47 0.091 77.457 0.992 -14.562 0.037 71.643
1168.421 0.034 -96.475 0.992 -10.671 0.092 77.295 4.459e-3 78.366
          0.992 -10.671 0.034 -96.475 4.459e-3 78.366 0.092 77.295
