!	AVX THIN FILM OPERATION
!
!	CP0603 HIGH DIRECTIVITY COUPLERS
!	P/N CP0603AxxxxELTR
!
!	Network	Analyzer HP8720ES.07.64:Feb23,2000 Serial No.US39172382
!	Hewlett-Packard								
!
!	24 July 2003	02:45:57

# MHZ S MA R 50

50 3.564e-3 -33.233 0.997 -0.235 2.549e-3 89.74 62.47e-6 84.259
          0.997 -0.235 3.564e-3 -33.233 62.47e-6 84.259 2.549e-3 89.74
          2.549e-3 89.74 62.47e-6 84.259 3.564e-3 -33.233 0.997 -0.235
          62.47e-6 84.259 2.549e-3 89.74 0.997 -0.235 3.564e-3 -33.233
64.912 3.909e-3 -40.441 0.997 -0.305 3.309e-3 89.666 81.31e-6 82.719
          0.997 -0.305 3.909e-3 -40.441 81.31e-6 82.719 3.309e-3 89.666
          3.309e-3 89.666 81.31e-6 82.719 3.909e-3 -40.441 0.997 -0.305
          81.31e-6 82.719 3.309e-3 89.666 0.997 -0.305 3.909e-3 -40.441
79.825 4.305e-3 -46.416 0.997 -0.375 4.069e-3 89.594 100.3e-6 81.243
          0.997 -0.375 4.305e-3 -46.416 100.3e-6 81.243 4.069e-3 89.594
          4.069e-3 89.594 100.3e-6 81.243 4.305e-3 -46.416 0.997 -0.375
          100.3e-6 81.243 4.069e-3 89.594 0.997 -0.375 4.305e-3 -46.416
94.737 4.738e-3 -51.355 0.997 -0.445 4.829e-3 89.522 119.5e-6 79.801
          0.997 -0.445 4.738e-3 -51.355 119.5e-6 79.801 4.829e-3 89.522
          4.829e-3 89.522 119.5e-6 79.801 4.738e-3 -51.355 0.997 -0.445
          119.5e-6 79.801 4.829e-3 89.522 0.997 -0.445 4.738e-3 -51.355
109.649 5.2e-3 -55.455 0.997 -0.515 5.589e-3 89.451 138.8e-6 78.38
          0.997 -0.515 5.2e-3 -55.455 138.8e-6 78.38 5.589e-3 89.451
          5.589e-3 89.451 138.8e-6 78.38 5.2e-3 -55.455 0.997 -0.515
          138.8e-6 78.38 5.589e-3 89.451 0.997 -0.515 5.2e-3 -55.455
124.561 5.683e-3 -58.884 0.997 -0.585 6.349e-3 89.38 158.4e-6 76.977
          0.997 -0.585 5.683e-3 -58.884 158.4e-6 76.977 6.349e-3 89.38
          6.349e-3 89.38 158.4e-6 76.977 5.683e-3 -58.884 0.997 -0.585
          158.4e-6 76.977 6.349e-3 89.38 0.997 -0.585 5.683e-3 -58.884
139.474 6.183e-3 -61.779 0.997 -0.655 7.109e-3 89.309 178.2e-6 75.589
          0.997 -0.655 6.183e-3 -61.779 178.2e-6 75.589 7.109e-3 89.309
          7.109e-3 89.309 178.2e-6 75.589 6.183e-3 -61.779 0.997 -0.655
          178.2e-6 75.589 7.109e-3 89.309 0.997 -0.655 6.183e-3 -61.779
154.386 6.695e-3 -64.247 0.997 -0.725 7.869e-3 89.237 198.4e-6 74.217
          0.997 -0.725 6.695e-3 -64.247 198.4e-6 74.217 7.869e-3 89.237
          7.869e-3 89.237 198.4e-6 74.217 6.695e-3 -64.247 0.997 -0.725
          198.4e-6 74.217 7.869e-3 89.237 0.997 -0.725 6.695e-3 -64.247
169.298 7.217e-3 -66.371 0.997 -0.796 8.629e-3 89.166 218.8e-6 72.86
          0.997 -0.796 7.217e-3 -66.371 218.8e-6 72.86 8.629e-3 89.166
          8.629e-3 89.166 218.8e-6 72.86 7.217e-3 -66.371 0.997 -0.796
          218.8e-6 72.86 8.629e-3 89.166 0.997 -0.796 7.217e-3 -66.371
184.211 7.748e-3 -68.216 0.997 -0.866 9.389e-3 89.096 239.5e-6 71.52
          0.997 -0.866 7.748e-3 -68.216 239.5e-6 71.52 9.389e-3 89.096
          9.389e-3 89.096 239.5e-6 71.52 7.748e-3 -68.216 0.997 -0.866
          239.5e-6 71.52 9.389e-3 89.096 0.997 -0.866 7.748e-3 -68.216
199.123 8.284e-3 -69.832 0.997 -0.936 10e-3 89.025 260.6e-6 70.195
          0.997 -0.936 8.284e-3 -69.832 260.6e-6 70.195 10e-3 89.025
          10e-3 89.025 260.6e-6 70.195 8.284e-3 -69.832 0.997 -0.936
          260.6e-6 70.195 10e-3 89.025 0.997 -0.936 8.284e-3 -69.832
214.035 8.826e-3 -71.259 0.997 -1.006 0.011 88.954 282.1e-6 68.888
          0.997 -1.006 8.826e-3 -71.259 282.1e-6 68.888 0.011 88.954
          0.011 88.954 282.1e-6 68.888 8.826e-3 -71.259 0.997 -1.006
          282.1e-6 68.888 0.011 88.954 0.997 -1.006 8.826e-3 -71.259
228.947 9.373e-3 -72.529 0.997 -1.076 0.012 88.883 304e-6 67.597
          0.997 -1.076 9.373e-3 -72.529 304e-6 67.597 0.012 88.883
          0.012 88.883 304e-6 67.597 9.373e-3 -72.529 0.997 -1.076
          304e-6 67.597 0.012 88.883 0.997 -1.076 9.373e-3 -72.529
243.86 9.922e-3 -73.667 0.997 -1.146 0.012 88.812 326.3e-6 66.325
          0.997 -1.146 9.922e-3 -73.667 326.3e-6 66.325 0.012 88.812
          0.012 88.812 326.3e-6 66.325 9.922e-3 -73.667 0.997 -1.146
          326.3e-6 66.325 0.012 88.812 0.997 -1.146 9.922e-3 -73.667
258.772 10e-3 -74.692 0.997 -1.216 0.013 88.741 349.1e-6 65.071
          0.997 -1.216 10e-3 -74.692 349.1e-6 65.071 0.013 88.741
          0.013 88.741 349.1e-6 65.071 10e-3 -74.692 0.997 -1.216
          349.1e-6 65.071 0.013 88.741 0.997 -1.216 10e-3 -74.692
273.684 0.011 -75.621 0.997 -1.286 0.014 88.67 372.3e-6 63.835
          0.997 -1.286 0.011 -75.621 372.3e-6 63.835 0.014 88.67
          0.014 88.67 372.3e-6 63.835 0.011 -75.621 0.997 -1.286
          372.3e-6 63.835 0.014 88.67 0.997 -1.286 0.011 -75.621
288.596 0.012 -76.468 0.997 -1.356 0.015 88.599 396e-6 62.619
          0.997 -1.356 0.012 -76.468 396e-6 62.619 0.015 88.599
          0.015 88.599 396e-6 62.619 0.012 -76.468 0.997 -1.356
          396e-6 62.619 0.015 88.599 0.997 -1.356 0.012 -76.468
303.509 0.012 -77.243 0.997 -1.426 0.015 88.528 420.2e-6 61.422
          0.997 -1.426 0.012 -77.243 420.2e-6 61.422 0.015 88.528
          0.015 88.528 420.2e-6 61.422 0.012 -77.243 0.997 -1.426
          420.2e-6 61.422 0.015 88.528 0.997 -1.426 0.012 -77.243
318.421 0.013 -77.956 0.997 -1.496 0.016 88.457 444.9e-6 60.244
          0.997 -1.496 0.013 -77.956 444.9e-6 60.244 0.016 88.457
          0.016 88.457 444.9e-6 60.244 0.013 -77.956 0.997 -1.496
          444.9e-6 60.244 0.016 88.457 0.997 -1.496 0.013 -77.956
333.333 0.013 -78.615 0.997 -1.566 0.017 88.387 470.2e-6 59.086
          0.997 -1.566 0.013 -78.615 470.2e-6 59.086 0.017 88.387
          0.017 88.387 470.2e-6 59.086 0.013 -78.615 0.997 -1.566
          470.2e-6 59.086 0.017 88.387 0.997 -1.566 0.013 -78.615
348.246 0.014 -79.226 0.997 -1.636 0.018 88.316 496e-6 57.948
          0.997 -1.636 0.014 -79.226 496e-6 57.948 0.018 88.316
          0.018 88.316 496e-6 57.948 0.014 -79.226 0.997 -1.636
          496e-6 57.948 0.018 88.316 0.997 -1.636 0.014 -79.226
363.158 0.014 -79.795 0.997 -1.706 0.019 88.245 522.3e-6 56.829
          0.997 -1.706 0.014 -79.795 522.3e-6 56.829 0.019 88.245
          0.019 88.245 522.3e-6 56.829 0.014 -79.795 0.997 -1.706
          522.3e-6 56.829 0.019 88.245 0.997 -1.706 0.014 -79.795
378.07 0.015 -80.326 0.997 -1.776 0.019 88.174 549.3e-6 55.73
          0.997 -1.776 0.015 -80.326 549.3e-6 55.73 0.019 88.174
          0.019 88.174 549.3e-6 55.73 0.015 -80.326 0.997 -1.776
          549.3e-6 55.73 0.019 88.174 0.997 -1.776 0.015 -80.326
392.982 0.016 -80.823 0.997 -1.846 0.02 88.103 576.8e-6 54.651
          0.997 -1.846 0.016 -80.823 576.8e-6 54.651 0.02 88.103
          0.02 88.103 576.8e-6 54.651 0.016 -80.823 0.997 -1.846
          576.8e-6 54.651 0.02 88.103 0.997 -1.846 0.016 -80.823
407.895 0.016 -81.291 0.997 -1.916 0.021 88.032 605e-6 53.592
          0.997 -1.916 0.016 -81.291 605e-6 53.592 0.021 88.032
          0.021 88.032 605e-6 53.592 0.016 -81.291 0.997 -1.916
          605e-6 53.592 0.021 88.032 0.997 -1.916 0.016 -81.291
422.807 0.017 -81.731 0.997 -1.986 0.022 87.962 633.7e-6 52.552
          0.997 -1.986 0.017 -81.731 633.7e-6 52.552 0.022 87.962
          0.022 87.962 633.7e-6 52.552 0.017 -81.731 0.997 -1.986
          633.7e-6 52.552 0.022 87.962 0.997 -1.986 0.017 -81.731
437.719 0.017 -82.147 0.997 -2.056 0.022 87.891 663.1e-6 51.532
          0.997 -2.056 0.017 -82.147 663.1e-6 51.532 0.022 87.891
          0.022 87.891 663.1e-6 51.532 0.017 -82.147 0.997 -2.056
          663.1e-6 51.532 0.022 87.891 0.997 -2.056 0.017 -82.147
452.632 0.018 -82.541 0.997 -2.126 0.023 87.82 693.2e-6 50.531
          0.997 -2.126 0.018 -82.541 693.2e-6 50.531 0.023 87.82
          0.023 87.82 693.2e-6 50.531 0.018 -82.541 0.997 -2.126
          693.2e-6 50.531 0.023 87.82 0.997 -2.126 0.018 -82.541
467.544 0.018 -82.915 0.997 -2.196 0.024 87.749 723.9e-6 49.549
          0.997 -2.196 0.018 -82.915 723.9e-6 49.549 0.024 87.749
          0.024 87.749 723.9e-6 49.549 0.018 -82.915 0.997 -2.196
          723.9e-6 49.549 0.024 87.749 0.997 -2.196 0.018 -82.915
482.456 0.019 -83.27 0.997 -2.266 0.025 87.678 755.2e-6 48.585
          0.997 -2.266 0.019 -83.27 755.2e-6 48.585 0.025 87.678
          0.025 87.678 755.2e-6 48.585 0.019 -83.27 0.997 -2.266
          755.2e-6 48.585 0.025 87.678 0.997 -2.266 0.019 -83.27
497.368 0.02 -83.609 0.996 -2.336 0.025 87.608 787.3e-6 47.641
          0.996 -2.336 0.02 -83.609 787.3e-6 47.641 0.025 87.608
          0.025 87.608 787.3e-6 47.641 0.02 -83.609 0.996 -2.336
          787.3e-6 47.641 0.025 87.608 0.996 -2.336 0.02 -83.609
512.281 0.02 -83.933 0.996 -2.406 0.026 87.537 820e-6 46.714
          0.996 -2.406 0.02 -83.933 820e-6 46.714 0.026 87.537
          0.026 87.537 820e-6 46.714 0.02 -83.933 0.996 -2.406
          820e-6 46.714 0.026 87.537 0.996 -2.406 0.02 -83.933
527.193 0.021 -84.243 0.996 -2.476 0.027 87.466 853.4e-6 45.805
          0.996 -2.476 0.021 -84.243 853.4e-6 45.805 0.027 87.466
          0.027 87.466 853.4e-6 45.805 0.021 -84.243 0.996 -2.476
          853.4e-6 45.805 0.027 87.466 0.996 -2.476 0.021 -84.243
542.105 0.021 -84.54 0.996 -2.546 0.028 87.395 887.5e-6 44.914
          0.996 -2.546 0.021 -84.54 887.5e-6 44.914 0.028 87.395
          0.028 87.395 887.5e-6 44.914 0.021 -84.54 0.996 -2.546
          887.5e-6 44.914 0.028 87.395 0.996 -2.546 0.021 -84.54
557.018 0.022 -84.825 0.996 -2.616 0.028 87.325 922.3e-6 44.041
          0.996 -2.616 0.022 -84.825 922.3e-6 44.041 0.028 87.325
          0.028 87.325 922.3e-6 44.041 0.022 -84.825 0.996 -2.616
          922.3e-6 44.041 0.028 87.325 0.996 -2.616 0.022 -84.825
571.93 0.022 -85.099 0.996 -2.686 0.029 87.254 957.9e-6 43.184
          0.996 -2.686 0.022 -85.099 957.9e-6 43.184 0.029 87.254
          0.029 87.254 957.9e-6 43.184 0.022 -85.099 0.996 -2.686
          957.9e-6 43.184 0.029 87.254 0.996 -2.686 0.022 -85.099
586.842 0.023 -85.363 0.996 -2.756 0.03 87.183 994.1e-6 42.344
          0.996 -2.756 0.023 -85.363 994.1e-6 42.344 0.03 87.183
          0.03 87.183 994.1e-6 42.344 0.023 -85.363 0.996 -2.756
          994.1e-6 42.344 0.03 87.183 0.996 -2.756 0.023 -85.363
601.754 0.024 -85.617 0.996 -2.826 0.031 87.113 1.031e-3 41.52
          0.996 -2.826 0.024 -85.617 1.031e-3 41.52 0.031 87.113
          0.031 87.113 1.031e-3 41.52 0.024 -85.617 0.996 -2.826
          1.031e-3 41.52 0.031 87.113 0.996 -2.826 0.024 -85.617
616.667 0.024 -85.863 0.996 -2.896 0.031 87.042 1.069e-3 40.713
          0.996 -2.896 0.024 -85.863 1.069e-3 40.713 0.031 87.042
          0.031 87.042 1.069e-3 40.713 0.024 -85.863 0.996 -2.896
          1.069e-3 40.713 0.031 87.042 0.996 -2.896 0.024 -85.863
631.579 0.025 -86.101 0.996 -2.966 0.032 86.971 1.107e-3 39.921
          0.996 -2.966 0.025 -86.101 1.107e-3 39.921 0.032 86.971
          0.032 86.971 1.107e-3 39.921 0.025 -86.101 0.996 -2.966
          1.107e-3 39.921 0.032 86.971 0.996 -2.966 0.025 -86.101
646.491 0.025 -86.331 0.996 -3.036 0.033 86.9 1.146e-3 39.144
          0.996 -3.036 0.025 -86.331 1.146e-3 39.144 0.033 86.9
          0.033 86.9 1.146e-3 39.144 0.025 -86.331 0.996 -3.036
          1.146e-3 39.144 0.033 86.9 0.996 -3.036 0.025 -86.331
661.404 0.026 -86.554 0.996 -3.106 0.034 86.83 1.186e-3 38.382
          0.996 -3.106 0.026 -86.554 1.186e-3 38.382 0.034 86.83
          0.034 86.83 1.186e-3 38.382 0.026 -86.554 0.996 -3.106
          1.186e-3 38.382 0.034 86.83 0.996 -3.106 0.026 -86.554
676.316 0.026 -86.77 0.996 -3.176 0.034 86.759 1.227e-3 37.635
          0.996 -3.176 0.026 -86.77 1.227e-3 37.635 0.034 86.759
          0.034 86.759 1.227e-3 37.635 0.026 -86.77 0.996 -3.176
          1.227e-3 37.635 0.034 86.759 0.996 -3.176 0.026 -86.77
691.228 0.027 -86.98 0.996 -3.246 0.035 86.688 1.268e-3 36.902
          0.996 -3.246 0.027 -86.98 1.268e-3 36.902 0.035 86.688
          0.035 86.688 1.268e-3 36.902 0.027 -86.98 0.996 -3.246
          1.268e-3 36.902 0.035 86.688 0.996 -3.246 0.027 -86.98
706.14 0.028 -87.185 0.996 -3.316 0.036 86.618 1.311e-3 36.182
          0.996 -3.316 0.028 -87.185 1.311e-3 36.182 0.036 86.618
          0.036 86.618 1.311e-3 36.182 0.028 -87.185 0.996 -3.316
          1.311e-3 36.182 0.036 86.618 0.996 -3.316 0.028 -87.185
721.053 0.028 -87.383 0.996 -3.386 0.037 86.547 1.354e-3 35.477
          0.996 -3.386 0.028 -87.383 1.354e-3 35.477 0.037 86.547
          0.037 86.547 1.354e-3 35.477 0.028 -87.383 0.996 -3.386
          1.354e-3 35.477 0.037 86.547 0.996 -3.386 0.028 -87.383
735.965 0.029 -87.577 0.996 -3.456 0.037 86.476 1.397e-3 34.784
          0.996 -3.456 0.029 -87.577 1.397e-3 34.784 0.037 86.476
          0.037 86.476 1.397e-3 34.784 0.029 -87.577 0.996 -3.456
          1.397e-3 34.784 0.037 86.476 0.996 -3.456 0.029 -87.577
750.877 0.029 -87.766 0.996 -3.526 0.038 86.406 1.442e-3 34.105
          0.996 -3.526 0.029 -87.766 1.442e-3 34.105 0.038 86.406
          0.038 86.406 1.442e-3 34.105 0.029 -87.766 0.996 -3.526
          1.442e-3 34.105 0.038 86.406 0.996 -3.526 0.029 -87.766
765.789 0.03 -87.95 0.996 -3.596 0.039 86.335 1.487e-3 33.438
          0.996 -3.596 0.03 -87.95 1.487e-3 33.438 0.039 86.335
          0.039 86.335 1.487e-3 33.438 0.03 -87.95 0.996 -3.596
          1.487e-3 33.438 0.039 86.335 0.996 -3.596 0.03 -87.95
780.702 0.03 -88.13 0.996 -3.666 0.04 86.265 1.533e-3 32.783
          0.996 -3.666 0.03 -88.13 1.533e-3 32.783 0.04 86.265
          0.04 86.265 1.533e-3 32.783 0.03 -88.13 0.996 -3.666
          1.533e-3 32.783 0.04 86.265 0.996 -3.666 0.03 -88.13
795.614 0.031 -88.306 0.996 -3.736 0.04 86.194 1.58e-3 32.14
          0.996 -3.736 0.031 -88.306 1.58e-3 32.14 0.04 86.194
          0.04 86.194 1.58e-3 32.14 0.031 -88.306 0.996 -3.736
          1.58e-3 32.14 0.04 86.194 0.996 -3.736 0.031 -88.306
810.526 0.031 -88.478 0.996 -3.806 0.041 86.123 1.628e-3 31.509
          0.996 -3.806 0.031 -88.478 1.628e-3 31.509 0.041 86.123
          0.041 86.123 1.628e-3 31.509 0.031 -88.478 0.996 -3.806
          1.628e-3 31.509 0.041 86.123 0.996 -3.806 0.031 -88.478
825.439 0.032 -88.647 0.996 -3.876 0.042 86.053 1.676e-3 30.889
          0.996 -3.876 0.032 -88.647 1.676e-3 30.889 0.042 86.053
          0.042 86.053 1.676e-3 30.889 0.032 -88.647 0.996 -3.876
          1.676e-3 30.889 0.042 86.053 0.996 -3.876 0.032 -88.647
840.351 0.033 -88.812 0.996 -3.945 0.043 85.982 1.725e-3 30.28
          0.996 -3.945 0.033 -88.812 1.725e-3 30.28 0.043 85.982
          0.043 85.982 1.725e-3 30.28 0.033 -88.812 0.996 -3.945
          1.725e-3 30.28 0.043 85.982 0.996 -3.945 0.033 -88.812
855.263 0.033 -88.974 0.995 -4.015 0.044 85.912 1.775e-3 29.681
          0.995 -4.015 0.033 -88.974 1.775e-3 29.681 0.044 85.912
          0.044 85.912 1.775e-3 29.681 0.033 -88.974 0.995 -4.015
          1.775e-3 29.681 0.044 85.912 0.995 -4.015 0.033 -88.974
870.175 0.034 -89.132 0.995 -4.085 0.044 85.841 1.826e-3 29.093
          0.995 -4.085 0.034 -89.132 1.826e-3 29.093 0.044 85.841
          0.044 85.841 1.826e-3 29.093 0.034 -89.132 0.995 -4.085
          1.826e-3 29.093 0.044 85.841 0.995 -4.085 0.034 -89.132
885.088 0.034 -89.288 0.995 -4.155 0.045 85.771 1.878e-3 28.515
          0.995 -4.155 0.034 -89.288 1.878e-3 28.515 0.045 85.771
          0.045 85.771 1.878e-3 28.515 0.034 -89.288 0.995 -4.155
          1.878e-3 28.515 0.045 85.771 0.995 -4.155 0.034 -89.288
900 0.035 -89.441 0.995 -4.225 0.046 85.7 1.93e-3 27.948
          0.995 -4.225 0.035 -89.441 1.93e-3 27.948 0.046 85.7
          0.046 85.7 1.93e-3 27.948 0.035 -89.441 0.995 -4.225
          1.93e-3 27.948 0.046 85.7 0.995 -4.225 0.035 -89.441
914.912 0.035 -89.591 0.995 -4.295 0.047 85.63 1.983e-3 27.389
          0.995 -4.295 0.035 -89.591 1.983e-3 27.389 0.047 85.63
          0.047 85.63 1.983e-3 27.389 0.035 -89.591 0.995 -4.295
          1.983e-3 27.389 0.047 85.63 0.995 -4.295 0.035 -89.591
929.825 0.036 -89.739 0.995 -4.365 0.047 85.559 2.037e-3 26.84
          0.995 -4.365 0.036 -89.739 2.037e-3 26.84 0.047 85.559
          0.047 85.559 2.037e-3 26.84 0.036 -89.739 0.995 -4.365
          2.037e-3 26.84 0.047 85.559 0.995 -4.365 0.036 -89.739
944.737 0.037 -89.884 0.995 -4.435 0.048 85.489 2.092e-3 26.3
          0.995 -4.435 0.037 -89.884 2.092e-3 26.3 0.048 85.489
          0.048 85.489 2.092e-3 26.3 0.037 -89.884 0.995 -4.435
          2.092e-3 26.3 0.048 85.489 0.995 -4.435 0.037 -89.884
959.649 0.037 -90.027 0.995 -4.504 0.049 85.418 2.147e-3 25.769
          0.995 -4.504 0.037 -90.027 2.147e-3 25.769 0.049 85.418
          0.049 85.418 2.147e-3 25.769 0.037 -90.027 0.995 -4.504
          2.147e-3 25.769 0.049 85.418 0.995 -4.504 0.037 -90.027
974.561 0.038 -90.168 0.995 -4.574 0.05 85.348 2.204e-3 25.247
          0.995 -4.574 0.038 -90.168 2.204e-3 25.247 0.05 85.348
          0.05 85.348 2.204e-3 25.247 0.038 -90.168 0.995 -4.574
          2.204e-3 25.247 0.05 85.348 0.995 -4.574 0.038 -90.168
989.474 0.038 -90.306 0.995 -4.644 0.05 85.278 2.261e-3 24.733
          0.995 -4.644 0.038 -90.306 2.261e-3 24.733 0.05 85.278
          0.05 85.278 2.261e-3 24.733 0.038 -90.306 0.995 -4.644
          2.261e-3 24.733 0.05 85.278 0.995 -4.644 0.038 -90.306
1004.386 0.039 -90.443 0.995 -4.714 0.051 85.207 2.319e-3 24.227
          0.995 -4.714 0.039 -90.443 2.319e-3 24.227 0.051 85.207
          0.051 85.207 2.319e-3 24.227 0.039 -90.443 0.995 -4.714
          2.319e-3 24.227 0.051 85.207 0.995 -4.714 0.039 -90.443
1019.298 0.039 -90.578 0.995 -4.784 0.052 85.137 2.377e-3 23.729
          0.995 -4.784 0.039 -90.578 2.377e-3 23.729 0.052 85.137
          0.052 85.137 2.377e-3 23.729 0.039 -90.578 0.995 -4.784
          2.377e-3 23.729 0.052 85.137 0.995 -4.784 0.039 -90.578
1034.211 0.04 -90.71 0.995 -4.854 0.053 85.066 2.437e-3 23.239
          0.995 -4.854 0.04 -90.71 2.437e-3 23.239 0.053 85.066
          0.053 85.066 2.437e-3 23.239 0.04 -90.71 0.995 -4.854
          2.437e-3 23.239 0.053 85.066 0.995 -4.854 0.04 -90.71
1049.123 0.041 -90.841 0.995 -4.923 0.053 84.996 2.497e-3 22.757
          0.995 -4.923 0.041 -90.841 2.497e-3 22.757 0.053 84.996
          0.053 84.996 2.497e-3 22.757 0.041 -90.841 0.995 -4.923
          2.497e-3 22.757 0.053 84.996 0.995 -4.923 0.041 -90.841
1064.035 0.041 -90.971 0.995 -4.993 0.054 84.926 2.558e-3 22.281
          0.995 -4.993 0.041 -90.971 2.558e-3 22.281 0.054 84.926
          0.054 84.926 2.558e-3 22.281 0.041 -90.971 0.995 -4.993
          2.558e-3 22.281 0.054 84.926 0.995 -4.993 0.041 -90.971
1078.947 0.042 -91.098 0.995 -5.063 0.055 84.855 2.62e-3 21.813
          0.995 -5.063 0.042 -91.098 2.62e-3 21.813 0.055 84.855
          0.055 84.855 2.62e-3 21.813 0.042 -91.098 0.995 -5.063
          2.62e-3 21.813 0.055 84.855 0.995 -5.063 0.042 -91.098
1093.86 0.042 -91.224 0.995 -5.133 0.056 84.785 2.683e-3 21.352
          0.995 -5.133 0.042 -91.224 2.683e-3 21.352 0.056 84.785
          0.056 84.785 2.683e-3 21.352 0.042 -91.224 0.995 -5.133
          2.683e-3 21.352 0.056 84.785 0.995 -5.133 0.042 -91.224
1108.772 0.043 -91.349 0.994 -5.203 0.056 84.715 2.747e-3 20.898
          0.994 -5.203 0.043 -91.349 2.747e-3 20.898 0.056 84.715
          0.056 84.715 2.747e-3 20.898 0.043 -91.349 0.994 -5.203
          2.747e-3 20.898 0.056 84.715 0.994 -5.203 0.043 -91.349
1123.684 0.043 -91.472 0.994 -5.272 0.057 84.645 2.811e-3 20.45
          0.994 -5.272 0.043 -91.472 2.811e-3 20.45 0.057 84.645
          0.057 84.645 2.811e-3 20.45 0.043 -91.472 0.994 -5.272
          2.811e-3 20.45 0.057 84.645 0.994 -5.272 0.043 -91.472
1138.596 0.044 -91.594 0.994 -5.342 0.058 84.574 2.876e-3 20.008
          0.994 -5.342 0.044 -91.594 2.876e-3 20.008 0.058 84.574
          0.058 84.574 2.876e-3 20.008 0.044 -91.594 0.994 -5.342
          2.876e-3 20.008 0.058 84.574 0.994 -5.342 0.044 -91.594
1153.509 0.045 -91.714 0.994 -5.412 0.059 84.504 2.942e-3 19.573
          0.994 -5.412 0.045 -91.714 2.942e-3 19.573 0.059 84.504
          0.059 84.504 2.942e-3 19.573 0.045 -91.714 0.994 -5.412
          2.942e-3 19.573 0.059 84.504 0.994 -5.412 0.045 -91.714
