! Network Analyzer HP8720D.07.14 Serial No. US38111185																															
! 																															
! 28 Apr 1999  02:06:29																															
! Frequency 	S11		S21		S31		S41		S12		S22		S23		S24		S13		S23		S33		S34		S14		S24		S34		S44
# HZ  S  DB R 50																															
50000000	-48.747	-3.1902	0.0076	-0.9928	-50.208	89.253	-60.655	115.01																							
	0.0068	-0.6633	-45.175	5.1045	-54.524	82.058	-47.957	93.805																							
	-48.345	87.222	-57.192	131.15	-47.097	1.6823	-0.0008	-1.0684																							
	-65.446	104.81	-47.032	100.3	0.0219	-0.8308	-46.638	-1.5518																							
150000000	-44	-47.046	0.0159	-2.1286	-39.36	88.305	-49.262	90.314																							
	0.0149	-2.2275	-45.802	-6.7607	-49.609	86.149	-39.388	86.526																							
	-39.339	86.321	-50.278	89.361	-42.812	46.891	0.0159	-2.3071																							
	-50.514	87.365	-39.406	85.305	0.0129	-2.4197	-45.103	25.056																							
250000000	-41.076	-65.697	0.0035	-3.5706	-34.975	85.685	-45.848	86.097																							
	-0.0016	-3.6928	-45.559	-14.414	-45.697	85.042	-35.056	85.442																							
	-34.953	85.954	-45.609	83.853	-43.089	49.78	0.0081	-3.9221																							
	-45.557	85.827	-35.048	85.798	-0.0081	-3.9894	-46.734	17.014
350000000	-38.955	-77.292	0.0011	-5.0729	-32.104	84.124	-42.831	85.177
	-0.0068	-5.0523	-45.199	-22.555	-42.603	82.61	-32.156	84.24
	-32.036	84.323	-42.606	83.221	-39.705	66.931	0.0037	-5.5261
	-42.796	85.063	-32.112	84.448	0.0033	-5.5302	-45.994	51.816
450000000	-37.464	-85.409	-0.0152	-6.4449	-29.927	82.819	-40.631	83.595
	-0.0148	-6.5575	-45.135	-23.877	-40.656	80.649	-29.98	82.827
	-29.889	82.54	-40.614	80.623	-39.498	73.396	-0.0203	-6.953
	-40.594	83.54	-29.988	82.679	-0.0116	-7.104	-50.317	73.025
550000000	-36.277	-92.598	-0.0208	-7.8401	-28.19	81.311	-38.974	82.202
	-0.0193	-7.9733	-45.43	-23.682	-39.017	79.15	-28.232	81.351
	-28.173	81.096	-38.984	79.021	-36.26	77.308	-0.0231	-8.5323
	-38.908	81.753	-28.233	81.168	-0.0208	-8.6572	-44.141	86.328
650000000	-35.533	-98.093	-0.0359	-9.2299	-26.743	79.836	-37.498	80.486
	-0.0271	-9.4222	-45.421	-16.486	-37.714	77.443	-26.807	79.834
	-26.734	79.68	-37.691	77.356	-35.28	86.109	-0.0342	-10.081
	-37.492	80.843	-26.787	79.718	-0.0261	-10.213	-41.764	111.6
750000000	-35.008	-102.71	-0.043	-10.691	-25.518	78.356	-36.292	79.542
	-0.0416	-10.853	-44.72	-4.856	-36.611	76.181	-25.579	78.451
	-25.511	78.157	-36.648	75.764	-33.107	88.123	-0.0421	-11.648
	-36.29	79.45	-25.586	78.328	-0.0408	-11.742	-38.089	114.48
850000000	-34.698	-106.85	-0.0558	-12.09	-24.455	76.888	-35.234	78.445
	-0.0487	-12.272	-43.545	6.0947	-35.713	74.954	-24.514	77.043
	-24.456	76.746	-35.725	74.674	-32.235	92.245	-0.0573	-13.079
	-35.203	78.191	-24.503	76.855	-0.0503	-13.23	-36.315	124.39
950000000	-34.624	-110.23	-0.0716	-13.446	-23.507	75.472	-34.228	77.158
	-0.064	-13.751	-41.604	13.447	-34.881	74.019	-23.562	75.537
	-23.499	75.21	-34.883	73.86	-30.47	91.307	-0.0603	-14.609
	-34.24	77.146	-23.554	75.292	-0.0632	-14.848	-34.013	121.02
1050000000	-34.646	-112.64	-0.0758	-14.893	-22.651	74.029	-33.373	75.932
	-0.0755	-15.136	-39.523	16.582	-34.159	73.122	-22.704	74.04
	-22.668	73.765	-34.187	73.12	-29.959	94.713	-0.0713	-16.114
	-33.379	75.597	-22.698	73.942	-0.0677	-16.315	-32.628	127.46
1150000000	-34.777	-114.32	-0.0957	-16.223	-21.867	72.628	-32.568	74.564
	-0.1011	-16.517	-37.558	17.249	-33.482	72.698	-21.935	72.71
	-21.875	72.437	-33.49	72.57	-28.831	90.398	-0.0875	-17.6
	-32.558	74.544	-21.931	72.423	-0.102	-17.851	-31.489	122.36
1250000000	-34.92	-114.9	-0.1084	-17.709	-21.178	71.125	-31.831	73.472
	-0.0986	-17.943	-35.856	15.395	-32.962	72.131	-21.223	71.239
	-21.181	70.893	-32.924	72.272	-28.195	93.112	-0.1079	-19.032
	-31.838	73.242	-21.216	70.983	-0.0965	-19.403	-30.229	126.41
1350000000	-35.082	-114.37	-0.1226	-19.05	-20.499	69.62	-31.116	72.025
	-0.1244	-19.447	-34.288	12.616	-32.368	72.072	-20.571	69.781
	-20.524	69.517	-32.316	72.044	-27.714	89.736	-0.1068	-20.521
	-31.122	72.065	-20.564	69.627	-0.1043	-20.955	-29.588	123.91
1450000000	-35.073	-112.76	-0.1426	-20.439	-19.89	68.314	-30.449	70.753
	-0.1282	-20.811	-32.889	8.4966	-31.794	71.787	-19.973	68.496
	-19.926	68.099	-31.778	71.684	-27.45	91.608	-0.1334	-22.104
	-30.473	70.536	-19.957	68.154	-0.1105	-22.378	-28.715	127.66
1550000000	-35.001	-110.41	-0.159	-21.774	-19.332	66.947	-29.832	69.215
	-0.1677	-22.33	-31.652	4.297	-31.215	71.819	-19.444	66.907
	-19.377	66.617	-31.22	71.846	-27.404	86.874	-0.1384	-23.571
	-29.873	69.181	-19.409	66.579	-0.1408	-24.044	-28.716	125.63
1650000000	-34.718	-107.77	-0.1656	-23.218	-18.789	65.417	-29.258	67.471
	-0.2005	-23.807	-30.538	-0.5191	-30.645	71.417	-18.874	65.397
	-18.845	65.391	-30.632	71.8	-27.12	89.236	-0.1498	-25.171
	-29.278	67.646	-18.848	65.348	-0.1716	-25.703	-27.681	128.17
1750000000	-34.365	-105.3	-0.1859	-24.495	-18.319	64.017	-28.719	65.885
	-0.1933	-25.381	-29.5	-4.9974	-30.123	71.202	-18.392	64.049
	-18.341	63.8	-30.126	71.532	-27.744	86.627	-0.1678	-26.535
	-28.777	65.914	-18.372	63.857	-0.1418	-27.267	-27.919	130.71
1850000000	-33.998	-103.01	-0.2086	-25.936	-17.83	62.382	-28.208	64.05
	-0.2672	-26.605	-28.526	-9.3384	-29.578	70.786	-17.935	62.794
	-17.873	62.346	-29.472	71.294	-27.783	87.448	-0.1909	-28.07
	-28.229	64.27	-17.877	62.312	-0.2325	-28.775	-27.298	132.38
1950000000	-33.544	-101.05	-0.2421	-27.227	-17.379	61.263	-27.764	62.088
	-0.2467	-28.028	-27.695	-13.734	-29.032	70.616	-17.509	61.569
	-17.412	60.868	-28.986	70.724	-28.868	85.898	-0.2174	-29.535
	-27.759	62.03	-17.448	60.834	-0.1847	-30.131	-27.501	136.57
2050000000	-33.158	-99.491	-0.2664	-28.727	-16.965	59.708	-27.319	60.233
	-0.3448	-29.436	-26.909	-17.435	-28.507	69.918	-17.103	60.018
	-16.98	59.604	-28.374	70.682	-29.317	87.201	-0.2384	-31.275
	-27.335	60.524	-17.003	59.317	-0.2907	-31.843	-27.042	139.3
2150000000	-32.916	-97.944	-0.2811	-30.173	-16.573	58.119	-26.941	58.111
	-0.3273	-30.829	-26.165	-20.842	-28.007	69.259	-16.729	58.398
	-16.578	57.968	-27.919	69.677	-31.14	86.101	-0.2477	-32.676
	-26.951	58.151	-16.592	57.86	-0.2702	-33.28	-27.283	144.88
2250000000	-32.803	-96.004	-0.2985	-31.509	-16.164	56.335	-26.595	55.912
	-0.3146	-32.471	-25.487	-23.478	-27.492	68.235	-16.297	56.738
	-16.234	56.247	-27.456	68.678	-31.992	86.478	-0.2786	-34.096
	-26.635	55.815	-16.24	56.19	-0.2375	-34.864	-26.947	146.65
2350000000	-32.859	-93.084	-0.3209	-32.791	-15.79	54.912	-26.274	53.659
	-0.4563	-33.397	-24.841	-25.542	-26.977	67.463	-15.95	55.377
	-15.83	55.201	-26.835	68.161	-35.181	88.187	-0.3038	-35.544
	-26.308	53.998	-15.854	54.864	-0.4198	-36.211	-26.934	153.95
2450000000	-32.909	-88.753	-0.3929	-34.228	-15.481	53.696	-26.109	51.849
	-0.3668	-34.971	-24.156	-27.169	-26.523	66.964	-15.646	54.402
	-15.514	53.14	-26.436	66.683	-36.959	89.409	-0.3946	-37.305
	-26.123	51.35	-15.519	53.137	-0.2988	-37.572	-26.706	155.43
2550000000	-33.163	-83.205	-0.3954	-35.822	-15.186	52.033	-25.94	49.783
	-0.5387	-36.466	-23.527	-28.319	-26.047	65.818	-15.331	52.844
	-15.23	52.324	-25.988	66.603	-45.851	105.4	-0.3744	-38.953
	-26.016	49.962	-15.204	51.801	-0.4575	-39.555	-26.576	163.52
2650000000	-33.426	-75.454	-0.3971	-36.903	-14.843	50.437	-25.784	48.314
	-0.4485	-37.395	-22.896	-29.126	-25.558	64.685	-15.024	51.2
	-14.851	50.511	-25.494	64.917	-56.151	70.416	-0.3857	-40.158
	-25.822	48.241	-14.872	50.269	-0.3707	-40.275	-26.8	163.84
2750000000	-33.499	-64.657	-0.374	-38.074	-14.504	48.7	-25.599	46.762
	-0.4427	-38.912	-22.268	-29.739	-25.059	63.478	-14.653	49.481
	-14.54	48.973	-25.065	63.896	-42.258	-105.92	-0.3584	-40.96
	-25.676	46.798	-14.555	48.698	-0.344	-41.873	-26.435	171.13
2850000000	-33.025	-51.599	-0.5106	-39.817	-14.304	47.479	-25.547	45.794
	-0.6529	-40.118	-21.631	-29.848	-24.705	62.652	-14.465	48.514
	-14.301	48.255	-24.631	63.523	-38.66	-86.078	-0.5104	-43.13
	-25.623	46.244	-14.307	47.502	-0.5818	-43.587	-26.899	171.57
2950000000	-31.977	-39.4	-0.497	-41.324	-14.002	45.821	-25.433	44.508
	-0.5044	-41.119	-21.039	-29.954	-24.238	61.496	-14.206	46.704
	-13.943	46.241	-24.131	61.875	-33.973	-97.119	-0.4853	-44.68
	-25.454	44.548	-13.98	46.03	-0.4216	-44.214	-26.354	177.42
3050000000	-30.589	-29.452	-0.5919	-43.253	-13.823	44.249	-25.403	43.782
	-0.6342	-43.09	-20.408	-29.745	-23.865	60.314	-14.05	45.459
	-13.763	45.137	-23.791	61.048	-31.616	-85.865	-0.5735	-46.908
	-25.476	44.036	-13.746	44.466	-0.5215	-46.663	-27.206	-179.24
3150000000	-29.077	-22.267	-0.4187	-43.904	-13.42	42.486	-25.311	43.005
	-0.58	-43.259	-19.802	-29.931	-23.247	58.957	-13.628	43.462
	-13.37	43.612	-23.217	59.973	-29.604	-93.054	-0.3463	-47.05
	-25.315	43.572	-13.459	43.322	-0.5116	-46.526	-26.601	-175.66
3250000000	-27.572	-17.22	-0.6511	-45.685	-13.294	41.313	-25.264	43.421
	-0.5659	-44.827	-19.21	-30.238	-22.934	58.07	-13.509	42.648
	-13.141	42.119	-22.792	58.585	-27.694	-86.545	-0.6328	-49.182
	-25.273	43.414	-13.206	42.012	-0.4643	-48.069	-27.488	-169.27
3350000000	-26.2	-14.234	-0.5001	-47.686	-12.997	39.019	-25.134	43.316
	-0.6314	-46.55	-18.672	-30.655	-22.396	56.107	-13.23	40.254
	-12.944	40.941	-22.415	57.408	-26.58	-91.638	-0.4149	-51.273
	-25.197	43.838	-12.965	40.515	-0.5151	-50.072	-26.854	-167.25
3450000000	-25	-12.391	-0.7867	-49.476	-12.924	38.087	-25.019	44.014
	-0.6042	-47.468	-18.178	-31.455	-22.083	55.118	-13.142	39.732
	-12.661	39.453	-21.894	56.067	-24.916	-88.782	-0.7739	-53.314
	-25.01	44.302	-12.712	39.389	-0.4606	-50.805	-27.307	-157.53
3550000000	-23.968	-11.641	-0.6115	-51.114	-12.584	36.111	-24.774	44.491
	-0.5909	-49.271	-17.781	-32.351	-21.471	53.142	-12.816	37.492
	-12.49	38.046	-21.46	54.182	-24.178	-92.999	-0.5117	-54.808
	-24.851	44.894	-12.473	37.907	-0.38	-52.887	-26.784	-157.25
3650000000	-23.118	-11.085	-0.8467	-52.311	-12.445	35.154	-24.517	45.445
	-0.69	-50.157	-17.427	-33.503	-21.095	51.956	-12.681	36.935
	-12.235	37.251	-21.033	53.355	-22.612	-92.493	-0.802	-56.28
	-24.579	46.171	-12.27	36.774	-0.5335	-53.88	-26.36	-146.23
3750000000	-22.464	-11.238	-0.706	-54.608	-12.14	32.941	-24.167	45.869
	-0.7168	-51.525	-17.178	-34.715	-20.515	49.412	-12.408	34.589
	-11.997	35.892	-20.552	51.703	-22.052	-95.408	-0.5889	-58.738
	-24.228	46.909	-12.032	35.629	-0.5223	-55.275	-26.005	-145.9
3850000000	-21.965	-11.125	-0.8749	-56.57	-11.986	31.384	-23.756	46.329
	-0.7262	-52.866	-17.016	-36.222	-20.096	47.214	-12.241	33.323
	-11.787	34.835	-20.099	49.546	-20.725	-96.799	-0.7777	-60.824
	-23.837	47.624	-11.798	34.471	-0.5056	-56.797	-24.922	-138.1
3950000000	-21.627	-10.841	-1.0645	-57.228	-11.815	30.352	-23.296	47.002
	-0.7846	-54.105	-16.908	-37.63	-19.666	45.626	-12.048	32.581
	-11.536	33.677	-19.645	48.017	-20.34	-98.907	-0.9747	-61.438
	-23.368	48.426	-11.579	33.195	-0.5539	-58.173	-24.744	-138.4
4050000000	-21.453	-10.404	-1.1888	-59.672	-11.653	28.326	-22.764	46.74
	-0.7557	-54.744	-16.951	-39.267	-19.257	42.621	-11.898	30.837
	-11.251	32.211	-19.024	45.879	-19.196	-102.34	-1.1068	-64.168
	-22.779	48.599	-11.297	32.333	-0.4741	-58.52	-23.225	-134.86
