!	AVX THIN FILM OPERATION
!
!	CP0603 HIGH DIRECTIVITY COUPLERS
!	P/N CP0603AxxxxBLTR
!
!	Network	Analyzer HP8720ES.07.64:Feb23,2000 Serial No.US39172382
!	Hewlett-Packard								
!
!	24 July 2003	02:45:57

# MHZ S MA R 50

50 3.534e-3 -32.827 0.997 -0.501 4.69e-3 89.392 157.6e-6 -88.923
          0.997 -0.501 3.534e-3 -32.827 157.6e-6 -88.923 4.69e-3 89.392
          4.69e-3 89.392 157.6e-6 -88.923 3.138e-3 17.206 0.997 -0.665
          157.6e-6 -88.923 4.69e-3 89.392 0.997 -0.665 3.138e-3 17.206
64.912 3.864e-3 -40.064 0.997 -0.65 6.089e-3 89.219 204.7e-6 -88.853
          0.997 -0.65 3.864e-3 -40.064 204.7e-6 -88.853 6.089e-3 89.219
          6.089e-3 89.219 204.7e-6 -88.853 3.236e-3 21.86 0.997 -0.863
          204.7e-6 -88.853 6.089e-3 89.219 0.997 -0.863 3.236e-3 21.86
79.825 4.244e-3 -46.11 0.997 -0.8 7.488e-3 89.045 251.9e-6 -88.782
          0.997 -0.8 4.244e-3 -46.11 251.9e-6 -88.782 7.488e-3 89.045
          7.488e-3 89.045 251.9e-6 -88.782 3.357e-3 26.198 0.997 -1.061
          251.9e-6 -88.782 7.488e-3 89.045 0.997 -1.061 3.357e-3 26.198
94.737 4.66e-3 -51.143 0.997 -0.949 8.887e-3 88.872 299.2e-6 -88.711
          0.997 -0.949 4.66e-3 -51.143 299.2e-6 -88.711 8.887e-3 88.872
          8.887e-3 88.872 299.2e-6 -88.711 3.497e-3 30.197 0.997 -1.259
          299.2e-6 -88.711 8.887e-3 88.872 0.997 -1.259 3.497e-3 30.197
109.649 5.105e-3 -55.349 0.997 -1.099 0.01 88.699 346.5e-6 -88.64
          0.997 -1.099 5.105e-3 -55.349 346.5e-6 -88.64 0.01 88.699
          0.01 88.699 346.5e-6 -88.64 3.655e-3 33.855 0.997 -1.457
          346.5e-6 -88.64 0.01 88.699 0.997 -1.457 3.655e-3 33.855
124.561 5.572e-3 -58.889 0.997 -1.248 0.012 88.526 394e-6 -88.57
          0.997 -1.248 5.572e-3 -58.889 394e-6 -88.57 0.012 88.526
          0.012 88.526 394e-6 -88.57 3.828e-3 37.179 0.997 -1.655
          394e-6 -88.57 0.012 88.526 0.997 -1.655 3.828e-3 37.179
139.474 6.055e-3 -61.894 0.997 -1.398 0.013 88.353 441.5e-6 -88.501
          0.997 -1.398 6.055e-3 -61.894 441.5e-6 -88.501 0.013 88.353
          0.013 88.353 441.5e-6 -88.501 4.015e-3 40.189 0.997 -1.854
          441.5e-6 -88.501 0.013 88.353 0.997 -1.854 4.015e-3 40.189
154.386 6.55e-3 -64.471 0.997 -1.547 0.014 88.18 489.2e-6 -88.433
          0.997 -1.547 6.55e-3 -64.471 489.2e-6 -88.433 0.014 88.18
          0.014 88.18 489.2e-6 -88.433 4.213e-3 42.907 0.997 -2.052
          489.2e-6 -88.433 0.014 88.18 0.997 -2.052 4.213e-3 42.907
169.298 7.056e-3 -66.702 0.997 -1.696 0.016 88.007 537e-6 -88.367
          0.997 -1.696 7.056e-3 -66.702 537e-6 -88.367 0.016 88.007
          0.016 88.007 537e-6 -88.367 4.421e-3 45.357 0.997 -2.25
          537e-6 -88.367 0.016 88.007 0.997 -2.25 4.421e-3 45.357
184.211 7.569e-3 -68.651 0.997 -1.846 0.017 87.834 585e-6 -88.301
          0.997 -1.846 7.569e-3 -68.651 585e-6 -88.301 0.017 87.834
          0.017 87.834 585e-6 -88.301 4.638e-3 47.565 0.997 -2.448
          585e-6 -88.301 0.017 87.834 0.997 -2.448 4.638e-3 47.565
199.123 8.089e-3 -70.369 0.997 -1.995 0.019 87.66 633.1e-6 -88.236
          0.997 -1.995 8.089e-3 -70.369 633.1e-6 -88.236 0.019 87.66
          0.019 87.66 633.1e-6 -88.236 4.863e-3 49.556 0.997 -2.646
          633.1e-6 -88.236 0.019 87.66 0.997 -2.646 4.863e-3 49.556
214.035 8.614e-3 -71.895 0.997 -2.145 0.02 87.487 681.5e-6 -88.173
          0.997 -2.145 8.614e-3 -71.895 681.5e-6 -88.173 0.02 87.487
          0.02 87.487 681.5e-6 -88.173 5.095e-3 51.35 0.997 -2.845
          681.5e-6 -88.173 0.02 87.487 0.997 -2.845 5.095e-3 51.35
228.947 9.143e-3 -73.261 0.997 -2.294 0.021 87.314 730e-6 -88.111
          0.997 -2.294 9.143e-3 -73.261 730e-6 -88.111 0.021 87.314
          0.021 87.314 730e-6 -88.111 5.332e-3 52.971 0.997 -3.043
          730e-6 -88.111 0.021 87.314 0.997 -3.043 5.332e-3 52.971
243.86 9.676e-3 -74.492 0.997 -2.443 0.023 87.141 778.7e-6 -88.051
          0.997 -2.443 9.676e-3 -74.492 778.7e-6 -88.051 0.023 87.141
          0.023 87.141 778.7e-6 -88.051 5.575e-3 54.435 0.997 -3.241
          778.7e-6 -88.051 0.023 87.141 0.997 -3.241 5.575e-3 54.435
258.772 0.01 -75.609 0.997 -2.593 0.024 86.968 827.6e-6 -87.992
          0.997 -2.593 0.01 -75.609 827.6e-6 -87.992 0.024 86.968
          0.024 86.968 827.6e-6 -87.992 5.823e-3 55.76 0.997 -3.439
          827.6e-6 -87.992 0.024 86.968 0.997 -3.439 5.823e-3 55.76
273.684 0.011 -76.628 0.997 -2.742 0.026 86.795 876.7e-6 -87.936
          0.997 -2.742 0.011 -76.628 876.7e-6 -87.936 0.026 86.795
          0.026 86.795 876.7e-6 -87.936 6.074e-3 56.961 0.997 -3.637
          876.7e-6 -87.936 0.026 86.795 0.997 -3.637 6.074e-3 56.961
288.596 0.011 -77.563 0.997 -2.891 0.027 86.622 926.1e-6 -87.88
          0.997 -2.891 0.011 -77.563 926.1e-6 -87.88 0.027 86.622
          0.027 86.622 926.1e-6 -87.88 6.33e-3 58.05 0.997 -3.835
          926.1e-6 -87.88 0.027 86.622 0.997 -3.835 6.33e-3 58.05
303.509 0.012 -78.425 0.997 -3.041 0.028 86.449 975.7e-6 -87.827
          0.997 -3.041 0.012 -78.425 975.7e-6 -87.827 0.028 86.449
          0.028 86.449 975.7e-6 -87.827 6.589e-3 59.04 0.997 -4.034
          975.7e-6 -87.827 0.028 86.449 0.997 -4.034 6.589e-3 59.04
318.421 0.012 -79.223 0.996 -3.19 0.03 86.276 1.026e-3 -87.775
          0.996 -3.19 0.012 -79.223 1.026e-3 -87.775 0.03 86.276
          0.03 86.276 1.026e-3 -87.775 6.851e-3 59.94 0.997 -4.232
          1.026e-3 -87.775 0.03 86.276 0.997 -4.232 6.851e-3 59.94
333.333 0.013 -79.966 0.996 -3.339 0.031 86.103 1.076e-3 -87.726
          0.996 -3.339 0.013 -79.966 1.076e-3 -87.726 0.031 86.103
          0.031 86.103 1.076e-3 -87.726 7.115e-3 60.759 0.996 -4.43
          1.076e-3 -87.726 0.031 86.103 0.996 -4.43 7.115e-3 60.759
348.246 0.013 -80.66 0.996 -3.488 0.033 85.93 1.126e-3 -87.679
          0.996 -3.488 0.013 -80.66 1.126e-3 -87.679 0.033 85.93
          0.033 85.93 1.126e-3 -87.679 7.383e-3 61.506 0.996 -4.628
          1.126e-3 -87.679 0.033 85.93 0.996 -4.628 7.383e-3 61.506
363.158 0.014 -81.31 0.996 -3.638 0.034 85.757 1.177e-3 -87.633
          0.996 -3.638 0.014 -81.31 1.177e-3 -87.633 0.034 85.757
          0.034 85.757 1.177e-3 -87.633 7.652e-3 62.187 0.996 -4.826
          1.177e-3 -87.633 0.034 85.757 0.996 -4.826 7.652e-3 62.187
378.07 0.015 -81.922 0.996 -3.787 0.035 85.584 1.228e-3 -87.59
          0.996 -3.787 0.015 -81.922 1.228e-3 -87.59 0.035 85.584
          0.035 85.584 1.228e-3 -87.59 7.924e-3 62.808 0.996 -5.024
          1.228e-3 -87.59 0.035 85.584 0.996 -5.024 7.924e-3 62.808
392.982 0.015 -82.5 0.996 -3.936 0.037 85.411 1.279e-3 -87.549
          0.996 -3.936 0.015 -82.5 1.279e-3 -87.549 0.037 85.411
          0.037 85.411 1.279e-3 -87.549 8.198e-3 63.375 0.996 -5.223
          1.279e-3 -87.549 0.037 85.411 0.996 -5.223 8.198e-3 63.375
407.895 0.016 -83.046 0.996 -4.085 0.038 85.238 1.331e-3 -87.511
          0.996 -4.085 0.016 -83.046 1.331e-3 -87.511 0.038 85.238
          0.038 85.238 1.331e-3 -87.511 8.474e-3 63.894 0.996 -5.421
          1.331e-3 -87.511 0.038 85.238 0.996 -5.421 8.474e-3 63.894
422.807 0.016 -83.565 0.996 -4.235 0.04 85.065 1.383e-3 -87.474
          0.996 -4.235 0.016 -83.565 1.383e-3 -87.474 0.04 85.065
          0.04 85.065 1.383e-3 -87.474 8.752e-3 64.367 0.996 -5.619
          1.383e-3 -87.474 0.04 85.065 0.996 -5.619 8.752e-3 64.367
437.719 0.017 -84.059 0.996 -4.384 0.041 84.892 1.435e-3 -87.441
          0.996 -4.384 0.017 -84.059 1.435e-3 -87.441 0.041 84.892
          0.041 84.892 1.435e-3 -87.441 9.031e-3 64.8 0.996 -5.817
          1.435e-3 -87.441 0.041 84.892 0.996 -5.817 9.031e-3 64.8
452.632 0.017 -84.531 0.996 -4.533 0.042 84.719 1.488e-3 -87.409
          0.996 -4.533 0.017 -84.531 1.488e-3 -87.409 0.042 84.719
          0.042 84.719 1.488e-3 -87.409 9.312e-3 65.195 0.996 -6.015
          1.488e-3 -87.409 0.042 84.719 0.996 -6.015 9.312e-3 65.195
467.544 0.018 -84.982 0.996 -4.682 0.044 84.546 1.541e-3 -87.381
          0.996 -4.682 0.018 -84.982 1.541e-3 -87.381 0.044 84.546
          0.044 84.546 1.541e-3 -87.381 9.595e-3 65.555 0.996 -6.213
          1.541e-3 -87.381 0.044 84.546 0.996 -6.213 9.595e-3 65.555
482.456 0.018 -85.414 0.996 -4.831 0.045 84.373 1.595e-3 -87.354
          0.996 -4.831 0.018 -85.414 1.595e-3 -87.354 0.045 84.373
          0.045 84.373 1.595e-3 -87.354 9.88e-3 65.884 0.996 -6.411
          1.595e-3 -87.354 0.045 84.373 0.996 -6.411 9.88e-3 65.884
497.368 0.019 -85.829 0.996 -4.98 0.047 84.2 1.648e-3 -87.331
          0.996 -4.98 0.019 -85.829 1.648e-3 -87.331 0.047 84.2
          0.047 84.2 1.648e-3 -87.331 0.01 66.184 0.996 -6.61
          1.648e-3 -87.331 0.047 84.2 0.996 -6.61 0.01 66.184
512.281 0.019 -86.228 0.996 -5.129 0.048 84.027 1.703e-3 -87.31
          0.996 -5.129 0.019 -86.228 1.703e-3 -87.31 0.048 84.027
          0.048 84.027 1.703e-3 -87.31 0.01 66.456 0.996 -6.808
          1.703e-3 -87.31 0.048 84.027 0.996 -6.808 0.01 66.456
527.193 0.02 -86.613 0.996 -5.278 0.049 83.854 1.757e-3 -87.292
          0.996 -5.278 0.02 -86.613 1.757e-3 -87.292 0.049 83.854
          0.049 83.854 1.757e-3 -87.292 0.011 66.704 0.996 -7.006
          1.757e-3 -87.292 0.049 83.854 0.996 -7.006 0.011 66.704
542.105 0.021 -86.984 0.995 -5.427 0.051 83.681 1.812e-3 -87.277
          0.995 -5.427 0.021 -86.984 1.812e-3 -87.277 0.051 83.681
          0.051 83.681 1.812e-3 -87.277 0.011 66.929 0.996 -7.204
          1.812e-3 -87.277 0.051 83.681 0.996 -7.204 0.011 66.929
557.018 0.021 -87.344 0.995 -5.576 0.052 83.508 1.868e-3 -87.264
          0.995 -5.576 0.021 -87.344 1.868e-3 -87.264 0.052 83.508
          0.052 83.508 1.868e-3 -87.264 0.011 67.133 0.996 -7.402
          1.868e-3 -87.264 0.052 83.508 0.996 -7.402 0.011 67.133
571.93 0.022 -87.692 0.995 -5.725 0.054 83.335 1.924e-3 -87.255
          0.995 -5.725 0.022 -87.692 1.924e-3 -87.255 0.054 83.335
          0.054 83.335 1.924e-3 -87.255 0.012 67.316 0.995 -7.6
          1.924e-3 -87.255 0.054 83.335 0.995 -7.6 0.012 67.316
586.842 0.022 -88.029 0.995 -5.874 0.055 83.163 1.98e-3 -87.248
          0.995 -5.874 0.022 -88.029 1.98e-3 -87.248 0.055 83.163
          0.055 83.163 1.98e-3 -87.248 0.012 67.481 0.995 -7.798
          1.98e-3 -87.248 0.055 83.163 0.995 -7.798 0.012 67.481
601.754 0.023 -88.357 0.995 -6.023 0.056 82.99 2.037e-3 -87.244
          0.995 -6.023 0.023 -88.357 2.037e-3 -87.244 0.056 82.99
          0.056 82.99 2.037e-3 -87.244 0.012 67.629 0.995 -7.997
          2.037e-3 -87.244 0.056 82.99 0.995 -7.997 0.012 67.629
616.667 0.023 -88.676 0.995 -6.172 0.058 82.817 2.094e-3 -87.243
          0.995 -6.172 0.023 -88.676 2.094e-3 -87.243 0.058 82.817
          0.058 82.817 2.094e-3 -87.243 0.013 67.76 0.995 -8.195
          2.094e-3 -87.243 0.058 82.817 0.995 -8.195 0.013 67.76
631.579 0.024 -88.986 0.995 -6.321 0.059 82.644 2.152e-3 -87.245
          0.995 -6.321 0.024 -88.986 2.152e-3 -87.245 0.059 82.644
          0.059 82.644 2.152e-3 -87.245 0.013 67.877 0.995 -8.393
          2.152e-3 -87.245 0.059 82.644 0.995 -8.393 0.013 67.877
646.491 0.024 -89.289 0.995 -6.47 0.06 82.471 2.21e-3 -87.25
          0.995 -6.47 0.024 -89.289 2.21e-3 -87.25 0.06 82.471
          0.06 82.471 2.21e-3 -87.25 0.013 67.979 0.995 -8.591
          2.21e-3 -87.25 0.06 82.471 0.995 -8.591 0.013 67.979
661.404 0.025 -89.584 0.995 -6.619 0.062 82.299 2.269e-3 -87.259
          0.995 -6.619 0.025 -89.584 2.269e-3 -87.259 0.062 82.299
          0.062 82.299 2.269e-3 -87.259 0.013 68.068 0.995 -8.789
          2.269e-3 -87.259 0.062 82.299 0.995 -8.789 0.013 68.068
676.316 0.025 -89.872 0.995 -6.767 0.063 82.126 2.328e-3 -87.27
          0.995 -6.767 0.025 -89.872 2.328e-3 -87.27 0.063 82.126
          0.063 82.126 2.328e-3 -87.27 0.014 68.145 0.995 -8.987
          2.328e-3 -87.27 0.063 82.126 0.995 -8.987 0.014 68.145
691.228 0.026 -90.154 0.995 -6.916 0.065 81.953 2.388e-3 -87.284
          0.995 -6.916 0.026 -90.154 2.388e-3 -87.284 0.065 81.953
          0.065 81.953 2.388e-3 -87.284 0.014 68.21 0.995 -9.185
          2.388e-3 -87.284 0.065 81.953 0.995 -9.185 0.014 68.21
706.14 0.027 -90.43 0.994 -7.065 0.066 81.78 2.448e-3 -87.302
          0.994 -7.065 0.027 -90.43 2.448e-3 -87.302 0.066 81.78
          0.066 81.78 2.448e-3 -87.302 0.014 68.264 0.995 -9.383
          2.448e-3 -87.302 0.066 81.78 0.995 -9.383 0.014 68.264
721.053 0.027 -90.7 0.994 -7.214 0.067 81.608 2.509e-3 -87.323
          0.994 -7.214 0.027 -90.7 2.509e-3 -87.323 0.067 81.608
          0.067 81.608 2.509e-3 -87.323 0.015 68.308 0.995 -9.581
          2.509e-3 -87.323 0.067 81.608 0.995 -9.581 0.015 68.308
735.965 0.028 -90.965 0.994 -7.362 0.069 81.435 2.57e-3 -87.346
          0.994 -7.362 0.028 -90.965 2.57e-3 -87.346 0.069 81.435
          0.069 81.435 2.57e-3 -87.346 0.015 68.342 0.994 -9.78
          2.57e-3 -87.346 0.069 81.435 0.994 -9.78 0.015 68.342
750.877 0.028 -91.224 0.994 -7.511 0.07 81.262 2.632e-3 -87.373
          0.994 -7.511 0.028 -91.224 2.632e-3 -87.373 0.07 81.262
          0.07 81.262 2.632e-3 -87.373 0.015 68.366 0.994 -9.978
          2.632e-3 -87.373 0.07 81.262 0.994 -9.978 0.015 68.366
765.789 0.029 -91.479 0.994 -7.66 0.072 81.09 2.695e-3 -87.404
          0.994 -7.66 0.029 -91.479 2.695e-3 -87.404 0.072 81.09
          0.072 81.09 2.695e-3 -87.404 0.016 68.382 0.994 -10.176
          2.695e-3 -87.404 0.072 81.09 0.994 -10.176 0.016 68.382
780.702 0.029 -91.729 0.994 -7.808 0.073 80.917 2.757e-3 -87.437
          0.994 -7.808 0.029 -91.729 2.757e-3 -87.437 0.073 80.917
          0.073 80.917 2.757e-3 -87.437 0.016 68.39 0.994 -10.374
          2.757e-3 -87.437 0.073 80.917 0.994 -10.374 0.016 68.39
795.614 0.03 -91.976 0.994 -7.957 0.074 80.745 2.821e-3 -87.473
          0.994 -7.957 0.03 -91.976 2.821e-3 -87.473 0.074 80.745
          0.074 80.745 2.821e-3 -87.473 0.016 68.389 0.994 -10.572
          2.821e-3 -87.473 0.074 80.745 0.994 -10.572 0.016 68.389
810.526 0.03 -92.218 0.994 -8.105 0.076 80.572 2.885e-3 -87.513
          0.994 -8.105 0.03 -92.218 2.885e-3 -87.513 0.076 80.572
          0.076 80.572 2.885e-3 -87.513 0.016 68.382 0.994 -10.77
          2.885e-3 -87.513 0.076 80.572 0.994 -10.77 0.016 68.382
825.439 0.031 -92.456 0.993 -8.254 0.077 80.399 2.95e-3 -87.556
          0.993 -8.254 0.031 -92.456 2.95e-3 -87.556 0.077 80.399
          0.077 80.399 2.95e-3 -87.556 0.017 68.367 0.994 -10.968
          2.95e-3 -87.556 0.077 80.399 0.994 -10.968 0.017 68.367
840.351 0.031 -92.69 0.993 -8.402 0.078 80.227 3.015e-3 -87.603
          0.993 -8.402 0.031 -92.69 3.015e-3 -87.603 0.078 80.227
          0.078 80.227 3.015e-3 -87.603 0.017 68.346 0.994 -11.166
          3.015e-3 -87.603 0.078 80.227 0.994 -11.166 0.017 68.346
855.263 0.032 -92.922 0.993 -8.551 0.08 80.054 3.081e-3 -87.652
          0.993 -8.551 0.032 -92.922 3.081e-3 -87.652 0.08 80.054
          0.08 80.054 3.081e-3 -87.652 0.017 68.318 0.994 -11.364
          3.081e-3 -87.652 0.08 80.054 0.994 -11.364 0.017 68.318
870.175 0.032 -93.149 0.993 -8.699 0.081 79.882 3.147e-3 -87.705
          0.993 -8.699 0.032 -93.149 3.147e-3 -87.705 0.081 79.882
          0.081 79.882 3.147e-3 -87.705 0.018 68.284 0.993 -11.562
          3.147e-3 -87.705 0.081 79.882 0.993 -11.562 0.018 68.284
885.088 0.033 -93.374 0.993 -8.847 0.083 79.709 3.214e-3 -87.761
          0.993 -8.847 0.033 -93.374 3.214e-3 -87.761 0.083 79.709
          0.083 79.709 3.214e-3 -87.761 0.018 68.244 0.993 -11.76
          3.214e-3 -87.761 0.083 79.709 0.993 -11.76 0.018 68.244
900 0.034 -93.596 0.993 -8.996 0.084 79.537 3.282e-3 -87.82
          0.993 -8.996 0.034 -93.596 3.282e-3 -87.82 0.084 79.537
          0.084 79.537 3.282e-3 -87.82 0.018 68.199 0.993 -11.958
          3.282e-3 -87.82 0.084 79.537 0.993 -11.958 0.018 68.199
914.912 0.034 -93.815 0.993 -9.144 0.085 79.364 3.35e-3 -87.882
          0.993 -9.144 0.034 -93.815 3.35e-3 -87.882 0.085 79.364
          0.085 79.364 3.35e-3 -87.882 0.019 68.149 0.993 -12.156
          3.35e-3 -87.882 0.085 79.364 0.993 -12.156 0.019 68.149
929.825 0.035 -94.031 0.993 -9.292 0.087 79.192 3.419e-3 -87.948
          0.993 -9.292 0.035 -94.031 3.419e-3 -87.948 0.087 79.192
          0.087 79.192 3.419e-3 -87.948 0.019 68.093 0.993 -12.354
          3.419e-3 -87.948 0.087 79.192 0.993 -12.354 0.019 68.093
944.737 0.035 -94.244 0.992 -9.44 0.088 79.02 3.488e-3 -88.017
          0.992 -9.44 0.035 -94.244 3.488e-3 -88.017 0.088 79.02
          0.088 79.02 3.488e-3 -88.017 0.019 68.033 0.993 -12.552
          3.488e-3 -88.017 0.088 79.02 0.993 -12.552 0.019 68.033
959.649 0.036 -94.455 0.992 -9.588 0.089 78.847 3.558e-3 -88.089
          0.992 -9.588 0.036 -94.455 3.558e-3 -88.089 0.089 78.847
          0.089 78.847 3.558e-3 -88.089 0.02 67.968 0.993 -12.751
          3.558e-3 -88.089 0.089 78.847 0.993 -12.751 0.02 67.968
974.561 0.036 -94.664 0.992 -9.736 0.091 78.675 3.629e-3 -88.164
          0.992 -9.736 0.036 -94.664 3.629e-3 -88.164 0.091 78.675
          0.091 78.675 3.629e-3 -88.164 0.02 67.899 0.993 -12.949
          3.629e-3 -88.164 0.091 78.675 0.993 -12.949 0.02 67.899
989.474 0.037 -94.87 0.992 -9.885 0.092 78.503 3.7e-3 -88.242
          0.992 -9.885 0.037 -94.87 3.7e-3 -88.242 0.092 78.503
          0.092 78.503 3.7e-3 -88.242 0.02 67.825 0.992 -13.147
          3.7e-3 -88.242 0.092 78.503 0.992 -13.147 0.02 67.825
1004.386 0.037 -95.074 0.992 -10.033 0.093 78.33 3.772e-3 -88.324
          0.992 -10.033 0.037 -95.074 3.772e-3 -88.324 0.093 78.33
          0.093 78.33 3.772e-3 -88.324 0.021 67.748 0.992 -13.345
          3.772e-3 -88.324 0.093 78.33 0.992 -13.345 0.021 67.748
1019.298 0.038 -95.276 0.992 -10.181 0.095 78.158 3.845e-3 -88.409
          0.992 -10.181 0.038 -95.276 3.845e-3 -88.409 0.095 78.158
          0.095 78.158 3.845e-3 -88.409 0.021 67.666 0.992 -13.543
          3.845e-3 -88.409 0.095 78.158 0.992 -13.543 0.021 67.666
1034.211 0.038 -95.476 0.992 -10.328 0.096 77.986 3.918e-3 -88.497
          0.992 -10.328 0.038 -95.476 3.918e-3 -88.497 0.096 77.986
          0.096 77.986 3.918e-3 -88.497 0.021 67.581 0.992 -13.741
          3.918e-3 -88.497 0.096 77.986 0.992 -13.741 0.021 67.581
1049.123 0.039 -95.674 0.991 -10.476 0.098 77.813 3.992e-3 -88.588
          0.991 -10.476 0.039 -95.674 3.992e-3 -88.588 0.098 77.813
          0.098 77.813 3.992e-3 -88.588 0.022 67.493 0.992 -13.939
          3.992e-3 -88.588 0.098 77.813 0.992 -13.939 0.022 67.493
1064.035 0.039 -95.87 0.991 -10.624 0.099 77.641 4.067e-3 -88.683
          0.991 -10.624 0.039 -95.87 4.067e-3 -88.683 0.099 77.641
          0.099 77.641 4.067e-3 -88.683 0.022 67.401 0.992 -14.137
          4.067e-3 -88.683 0.099 77.641 0.992 -14.137 0.022 67.401
1078.947 0.04 -96.065 0.991 -10.772 0.1 77.469 4.142e-3 -88.78
          0.991 -10.772 0.04 -96.065 4.142e-3 -88.78 0.1 77.469
          0.1 77.469 4.142e-3 -88.78 0.022 67.305 0.992 -14.335
          4.142e-3 -88.78 0.1 77.469 0.992 -14.335 0.022 67.305
1093.86 0.04 -96.257 0.991 -10.92 0.102 77.297 4.218e-3 -88.881
          0.991 -10.92 0.04 -96.257 4.218e-3 -88.881 0.102 77.297
          0.102 77.297 4.218e-3 -88.881 0.023 67.207 0.991 -14.533
          4.218e-3 -88.881 0.102 77.297 0.991 -14.533 0.023 67.207
1108.772 0.041 -96.448 0.991 -11.068 0.103 77.125 4.295e-3 -88.984
          0.991 -11.068 0.041 -96.448 4.295e-3 -88.984 0.103 77.125
          0.103 77.125 4.295e-3 -88.984 0.023 67.105 0.991 -14.731
          4.295e-3 -88.984 0.103 77.125 0.991 -14.731 0.023 67.105
1123.684 0.041 -96.637 0.991 -11.215 0.104 76.953 4.372e-3 -89.091
          0.991 -11.215 0.041 -96.637 4.372e-3 -89.091 0.104 76.953
          0.104 76.953 4.372e-3 -89.091 0.023 67.001 0.991 -14.929
          4.372e-3 -89.091 0.104 76.953 0.991 -14.929 0.023 67.001
1138.596 0.042 -96.825 0.99 -11.363 0.106 76.781 4.45e-3 -89.201
          0.99 -11.363 0.042 -96.825 4.45e-3 -89.201 0.106 76.781
          0.106 76.781 4.45e-3 -89.201 0.024 66.894 0.991 -15.127
          4.45e-3 -89.201 0.106 76.781 0.991 -15.127 0.024 66.894
1153.509 0.042 -97.011 0.99 -11.51 0.107 76.609 4.529e-3 -89.314
          0.99 -11.51 0.042 -97.011 4.529e-3 -89.314 0.107 76.609
