!	AVX THIN FILM OPERATION
!
!	CP0603 COUPLERS
!	P/N CP0603AxxxxCSTR
!
!	Network	Analyzer HP8720ES.07.64:Feb23,2000 Serial No.US39172382
!	Hewlett-Packard								
!
!	23 March 2011

# MHZ S MA  R 50 
50 0.002963 -74.997 0.999 -0.314 0.005187 89.58 0.003155 89.406 
	0.999 -0.314 0.002963 -74.997 0.003155 89.406 0.005187 89.58 
	0.005187 89.58 0.003155 89.406 0.002963 -74.997 0.999 -0.314 
	0.003155 89.406 0.005187 89.58 0.999 -0.314 0.002963 -74.997 
54.004 0.003183 -76.158 0.999 -0.339 0.005603 89.547 0.003407 89.36 
	0.999 -0.339 0.003183 -76.158 0.003407 89.36 0.005603 89.547 
	0.005603 89.547 0.003407 89.36 0.003183 -76.158 0.999 -0.339 
	0.003407 89.36 0.005603 89.547 0.999 -0.339 0.003183 -76.158 
58.008 0.003405 -77.175 0.999 -0.365 0.006018 89.514 0.00366 89.313 
	0.999 -0.365 0.003405 -77.175 0.00366 89.313 0.006018 89.514 
	0.006018 89.514 0.00366 89.313 0.003405 -77.175 0.999 -0.365 
	0.00366 89.313 0.006018 89.514 0.999 -0.365 0.003405 -77.175 
62.012 0.003627 -78.074 0.999 -0.39 0.006433 89.481 0.003913 89.267 
	0.999 -0.39 0.003627 -78.074 0.003913 89.267 0.006433 89.481 
	0.006433 89.481 0.003913 89.267 0.003627 -78.074 0.999 -0.39 
	0.003913 89.267 0.006433 89.481 0.999 -0.39 0.003627 -78.074 
66.016 0.00385 -78.875 0.999 -0.415 0.006849 89.448 0.004165 89.22 
	0.999 -0.415 0.00385 -78.875 0.004165 89.22 0.006849 89.448 
	0.006849 89.448 0.004165 89.22 0.00385 -78.875 0.999 -0.415 
	0.004165 89.22 0.006849 89.448 0.999 -0.415 0.00385 -78.875 
70.02 0.004074 -79.593 0.999 -0.44 0.007264 89.415 0.004418 89.174 
	0.999 -0.44 0.004074 -79.593 0.004418 89.174 0.007264 89.415 
	0.007264 89.415 0.004418 89.174 0.004074 -79.593 0.999 -0.44 
	0.004418 89.174 0.007264 89.415 0.999 -0.44 0.004074 -79.593 
74.024 0.004298 -80.242 0.999 -0.465 0.007679 89.382 0.00467 89.127 
	0.999 -0.465 0.004298 -80.242 0.00467 89.127 0.007679 89.382 
	0.007679 89.382 0.00467 89.127 0.004298 -80.242 0.999 -0.465 
	0.00467 89.127 0.007679 89.382 0.999 -0.465 0.004298 -80.242 
78.028 0.004523 -80.832 0.999 -0.49 0.008095 89.349 0.004923 89.081 
	0.999 -0.49 0.004523 -80.832 0.004923 89.081 0.008095 89.349 
	0.008095 89.349 0.004923 89.081 0.004523 -80.832 0.999 -0.49 
	0.004923 89.081 0.008095 89.349 0.999 -0.49 0.004523 -80.832 
82.032 0.004748 -81.37 0.999 -0.516 0.00851 89.316 0.005175 89.034 
	0.999 -0.516 0.004748 -81.37 0.005175 89.034 0.00851 89.316 
	0.00851 89.316 0.005175 89.034 0.004748 -81.37 0.999 -0.516 
	0.005175 89.034 0.00851 89.316 0.999 -0.516 0.004748 -81.37 
86.036 0.004973 -81.865 0.999 -0.541 0.008925 89.283 0.005428 88.987 
	0.999 -0.541 0.004973 -81.865 0.005428 88.987 0.008925 89.283 
	0.008925 89.283 0.005428 88.987 0.004973 -81.865 0.999 -0.541 
	0.005428 88.987 0.008925 89.283 0.999 -0.541 0.004973 -81.865 
90.04 0.005199 -82.321 0.999 -0.566 0.009341 89.25 0.005681 88.941 
	0.999 -0.566 0.005199 -82.321 0.005681 88.941 0.009341 89.25 
	0.009341 89.25 0.005681 88.941 0.005199 -82.321 0.999 -0.566 
	0.005681 88.941 0.009341 89.25 0.999 -0.566 0.005199 -82.321 
94.044 0.005425 -82.743 0.999 -0.591 0.009756 89.217 0.005933 88.894 
	0.999 -0.591 0.005425 -82.743 0.005933 88.894 0.009756 89.217 
	0.009756 89.217 0.005933 88.894 0.005425 -82.743 0.999 -0.591 
	0.005933 88.894 0.009756 89.217 0.999 -0.591 0.005425 -82.743 
98.048 0.005651 -83.136 0.999 -0.616 0.01 89.184 0.006186 88.847 
	0.999 -0.616 0.005651 -83.136 0.006186 88.847 0.01 89.184 
	0.01 89.184 0.006186 88.847 0.005651 -83.136 0.999 -0.616 
	0.006186 88.847 0.01 89.184 0.999 -0.616 0.005651 -83.136 
102.052 0.005877 -83.502 0.999 -0.641 0.011 89.151 0.006438 88.801 
	0.999 -0.641 0.005877 -83.502 0.006438 88.801 0.011 89.151 
	0.011 89.151 0.006438 88.801 0.005877 -83.502 0.999 -0.641 
	0.006438 88.801 0.011 89.151 0.999 -0.641 0.005877 -83.502 
106.056 0.006103 -83.845 0.999 -0.666 0.011 89.118 0.006691 88.754 
	0.999 -0.666 0.006103 -83.845 0.006691 88.754 0.011 89.118 
	0.011 89.118 0.006691 88.754 0.006103 -83.845 0.999 -0.666 
	0.006691 88.754 0.011 89.118 0.999 -0.666 0.006103 -83.845 
110.06 0.006329 -84.168 0.999 -0.692 0.011 89.084 0.006943 88.707 
	0.999 -0.692 0.006329 -84.168 0.006943 88.707 0.011 89.084 
	0.011 89.084 0.006943 88.707 0.006329 -84.168 0.999 -0.692 
	0.006943 88.707 0.011 89.084 0.999 -0.692 0.006329 -84.168 
114.064 0.006556 -84.471 0.999 -0.717 0.012 89.051 0.007196 88.661 
	0.999 -0.717 0.006556 -84.471 0.007196 88.661 0.012 89.051 
	0.012 89.051 0.007196 88.661 0.006556 -84.471 0.999 -0.717 
	0.007196 88.661 0.012 89.051 0.999 -0.717 0.006556 -84.471 
118.068 0.006783 -84.758 0.999 -0.742 0.012 89.018 0.007448 88.614 
	0.999 -0.742 0.006783 -84.758 0.007448 88.614 0.012 89.018 
	0.012 89.018 0.007448 88.614 0.006783 -84.758 0.999 -0.742 
	0.007448 88.614 0.012 89.018 0.999 -0.742 0.006783 -84.758 
122.072 0.00701 -85.029 0.999 -0.767 0.013 88.985 0.007701 88.567 
	0.999 -0.767 0.00701 -85.029 0.007701 88.567 0.013 88.985 
	0.013 88.985 0.007701 88.567 0.00701 -85.029 0.999 -0.767 
	0.007701 88.567 0.013 88.985 0.999 -0.767 0.00701 -85.029 
126.076 0.007236 -85.287 0.999 -0.792 0.013 88.952 0.007953 88.521 
	0.999 -0.792 0.007236 -85.287 0.007953 88.521 0.013 88.952 
	0.013 88.952 0.007953 88.521 0.007236 -85.287 0.999 -0.792 
	0.007953 88.521 0.013 88.952 0.999 -0.792 0.007236 -85.287 
130.08 0.007463 -85.532 0.999 -0.817 0.013 88.919 0.008206 88.474 
	0.999 -0.817 0.007463 -85.532 0.008206 88.474 0.013 88.919 
	0.013 88.919 0.008206 88.474 0.007463 -85.532 0.999 -0.817 
	0.008206 88.474 0.013 88.919 0.999 -0.817 0.007463 -85.532 
134.084 0.00769 -85.765 0.999 -0.843 0.014 88.886 0.008458 88.427 
	0.999 -0.843 0.00769 -85.765 0.008458 88.427 0.014 88.886 
	0.014 88.886 0.008458 88.427 0.00769 -85.765 0.999 -0.843 
	0.008458 88.427 0.014 88.886 0.999 -0.843 0.00769 -85.765 
138.088 0.007917 -85.989 0.999 -0.868 0.014 88.853 0.00871 88.38 
	0.999 -0.868 0.007917 -85.989 0.00871 88.38 0.014 88.853 
	0.014 88.853 0.00871 88.38 0.007917 -85.989 0.999 -0.868 
	0.00871 88.38 0.014 88.853 0.999 -0.868 0.007917 -85.989 
142.092 0.008145 -86.202 0.999 -0.893 0.015 88.82 0.008963 88.334 
	0.999 -0.893 0.008145 -86.202 0.008963 88.334 0.015 88.82 
	0.015 88.82 0.008963 88.334 0.008145 -86.202 0.999 -0.893 
	0.008963 88.334 0.015 88.82 0.999 -0.893 0.008145 -86.202 
146.096 0.008372 -86.407 0.999 -0.918 0.015 88.787 0.009215 88.287 
	0.999 -0.918 0.008372 -86.407 0.009215 88.287 0.015 88.787 
	0.015 88.787 0.009215 88.287 0.008372 -86.407 0.999 -0.918 
	0.009215 88.287 0.015 88.787 0.999 -0.918 0.008372 -86.407 
150.1 0.008599 -86.603 0.999 -0.943 0.016 88.753 0.009468 88.24 
	0.999 -0.943 0.008599 -86.603 0.009468 88.24 0.016 88.753 
	0.016 88.753 0.009468 88.24 0.008599 -86.603 0.999 -0.943 
	0.009468 88.24 0.016 88.753 0.999 -0.943 0.008599 -86.603 
154.104 0.008826 -86.793 0.999 -0.968 0.016 88.72 0.00972 88.194 
	0.999 -0.968 0.008826 -86.793 0.00972 88.194 0.016 88.72 
	0.016 88.72 0.00972 88.194 0.008826 -86.793 0.999 -0.968 
	0.00972 88.194 0.016 88.72 0.999 -0.968 0.008826 -86.793 
158.108 0.009054 -86.975 0.999 -0.993 0.016 88.687 0.009972 88.147 
	0.999 -0.993 0.009054 -86.975 0.009972 88.147 0.016 88.687 
	0.016 88.687 0.009972 88.147 0.009054 -86.975 0.999 -0.993 
	0.009972 88.147 0.016 88.687 0.999 -0.993 0.009054 -86.975 
162.112 0.009281 -87.151 0.999 -1.019 0.017 88.654 0.01 88.1 
	0.999 -1.019 0.009281 -87.151 0.01 88.1 0.017 88.654 
	0.017 88.654 0.01 88.1 0.009281 -87.151 0.999 -1.019 
	0.01 88.1 0.017 88.654 0.999 -1.019 0.009281 -87.151 
166.116 0.009508 -87.321 0.999 -1.044 0.017 88.621 0.01 88.054 
	0.999 -1.044 0.009508 -87.321 0.01 88.054 0.017 88.621 
	0.017 88.621 0.01 88.054 0.009508 -87.321 0.999 -1.044 
	0.01 88.054 0.017 88.621 0.999 -1.044 0.009508 -87.321 
170.12 0.009736 -87.485 0.999 -1.069 0.018 88.588 0.011 88.007 
	0.999 -1.069 0.009736 -87.485 0.011 88.007 0.018 88.588 
	0.018 88.588 0.011 88.007 0.009736 -87.485 0.999 -1.069 
	0.011 88.007 0.018 88.588 0.999 -1.069 0.009736 -87.485 
174.124 0.009963 -87.644 0.999 -1.094 0.018 88.555 0.011 87.96 
	0.999 -1.094 0.009963 -87.644 0.011 87.96 0.018 88.555 
	0.018 88.555 0.011 87.96 0.009963 -87.644 0.999 -1.094 
	0.011 87.96 0.018 88.555 0.999 -1.094 0.009963 -87.644 
178.128 0.01 -87.798 0.999 -1.119 0.018 88.522 0.011 87.914 
	0.999 -1.119 0.01 -87.798 0.011 87.914 0.018 88.522 
	0.018 88.522 0.011 87.914 0.01 -87.798 0.999 -1.119 
	0.011 87.914 0.018 88.522 0.999 -1.119 0.01 -87.798 
182.132 0.01 -87.948 0.999 -1.144 0.019 88.489 0.011 87.867 
	0.999 -1.144 0.01 -87.948 0.011 87.867 0.019 88.489 
	0.019 88.489 0.011 87.867 0.01 -87.948 0.999 -1.144 
	0.011 87.867 0.019 88.489 0.999 -1.144 0.01 -87.948 
186.136 0.011 -88.094 0.999 -1.169 0.019 88.456 0.012 87.82 
	0.999 -1.169 0.011 -88.094 0.012 87.82 0.019 88.456 
	0.019 88.456 0.012 87.82 0.011 -88.094 0.999 -1.169 
	0.012 87.82 0.019 88.456 0.999 -1.169 0.011 -88.094 
190.14 0.011 -88.236 0.999 -1.195 0.02 88.423 0.012 87.773 
	0.999 -1.195 0.011 -88.236 0.012 87.773 0.02 88.423 
	0.02 88.423 0.012 87.773 0.011 -88.236 0.999 -1.195 
	0.012 87.773 0.02 88.423 0.999 -1.195 0.011 -88.236 
194.144 0.011 -88.373 0.999 -1.22 0.02 88.389 0.012 87.727 
	0.999 -1.22 0.011 -88.373 0.012 87.727 0.02 88.389 
	0.02 88.389 0.012 87.727 0.011 -88.373 0.999 -1.22 
	0.012 87.727 0.02 88.389 0.999 -1.22 0.011 -88.373 
198.148 0.011 -88.508 0.999 -1.245 0.021 88.356 0.012 87.68 
	0.999 -1.245 0.011 -88.508 0.012 87.68 0.021 88.356 
	0.021 88.356 0.012 87.68 0.011 -88.508 0.999 -1.245 
	0.012 87.68 0.021 88.356 0.999 -1.245 0.011 -88.508 
202.152 0.012 -88.639 0.999 -1.27 0.021 88.323 0.013 87.633 
	0.999 -1.27 0.012 -88.639 0.013 87.633 0.021 88.323 
	0.021 88.323 0.013 87.633 0.012 -88.639 0.999 -1.27 
	0.013 87.633 0.021 88.323 0.999 -1.27 0.012 -88.639 
206.156 0.012 -88.767 0.999 -1.295 0.021 88.29 0.013 87.587 
	0.999 -1.295 0.012 -88.767 0.013 87.587 0.021 88.29 
	0.021 88.29 0.013 87.587 0.012 -88.767 0.999 -1.295 
	0.013 87.587 0.021 88.29 0.999 -1.295 0.012 -88.767 
210.16 0.012 -88.893 0.999 -1.32 0.022 88.257 0.013 87.54 
	0.999 -1.32 0.012 -88.893 0.013 87.54 0.022 88.257 
	0.022 88.257 0.013 87.54 0.012 -88.893 0.999 -1.32 
	0.013 87.54 0.022 88.257 0.999 -1.32 0.012 -88.893 
214.164 0.012 -89.015 0.999 -1.345 0.022 88.224 0.014 87.493 
	0.999 -1.345 0.012 -89.015 0.014 87.493 0.022 88.224 
	0.022 88.224 0.014 87.493 0.012 -89.015 0.999 -1.345 
	0.014 87.493 0.022 88.224 0.999 -1.345 0.012 -89.015 
218.168 0.012 -89.135 0.999 -1.37 0.023 88.191 0.014 87.447 
	0.999 -1.37 0.012 -89.135 0.014 87.447 0.023 88.191 
	0.023 88.191 0.014 87.447 0.012 -89.135 0.999 -1.37 
	0.014 87.447 0.023 88.191 0.999 -1.37 0.012 -89.135 
222.172 0.013 -89.252 0.999 -1.396 0.023 88.158 0.014 87.4 
	0.999 -1.396 0.013 -89.252 0.014 87.4 0.023 88.158 
	0.023 88.158 0.014 87.4 0.013 -89.252 0.999 -1.396 
	0.014 87.4 0.023 88.158 0.999 -1.396 0.013 -89.252 
226.176 0.013 -89.367 0.999 -1.421 0.023 88.125 0.014 87.353 
	0.999 -1.421 0.013 -89.367 0.014 87.353 0.023 88.125 
	0.023 88.125 0.014 87.353 0.013 -89.367 0.999 -1.421 
	0.014 87.353 0.023 88.125 0.999 -1.421 0.013 -89.367 
230.18 0.013 -89.48 0.999 -1.446 0.024 88.092 0.015 87.307 
	0.999 -1.446 0.013 -89.48 0.015 87.307 0.024 88.092 
	0.024 88.092 0.015 87.307 0.013 -89.48 0.999 -1.446 
	0.015 87.307 0.024 88.092 0.999 -1.446 0.013 -89.48 
234.184 0.013 -89.591 0.999 -1.471 0.024 88.059 0.015 87.26 
	0.999 -1.471 0.013 -89.591 0.015 87.26 0.024 88.059 
	0.024 88.059 0.015 87.26 0.013 -89.591 0.999 -1.471 
	0.015 87.26 0.024 88.059 0.999 -1.471 0.013 -89.591 
238.188 0.014 -89.7 0.999 -1.496 0.025 88.026 0.015 87.213 
	0.999 -1.496 0.014 -89.7 0.015 87.213 0.025 88.026 
	0.025 88.026 0.015 87.213 0.014 -89.7 0.999 -1.496 
	0.015 87.213 0.025 88.026 0.999 -1.496 0.014 -89.7 
242.192 0.014 -89.806 0.999 -1.521 0.025 87.992 0.015 87.167 
	0.999 -1.521 0.014 -89.806 0.015 87.167 0.025 87.992 
	0.025 87.992 0.015 87.167 0.014 -89.806 0.999 -1.521 
	0.015 87.167 0.025 87.992 0.999 -1.521 0.014 -89.806 
246.196 0.014 -89.912 0.999 -1.546 0.026 87.959 0.016 87.12 
	0.999 -1.546 0.014 -89.912 0.016 87.12 0.026 87.959 
	0.026 87.959 0.016 87.12 0.014 -89.912 0.999 -1.546 
	0.016 87.12 0.026 87.959 0.999 -1.546 0.014 -89.912 
250.2 0.014 -90.015 0.999 -1.571 0.026 87.926 0.016 87.073 
	0.999 -1.571 0.014 -90.015 0.016 87.073 0.026 87.926 
	0.026 87.926 0.016 87.073 0.014 -90.015 0.999 -1.571 
	0.016 87.073 0.026 87.926 0.999 -1.571 0.014 -90.015 
254.204 0.015 -90.117 0.999 -1.597 0.026 87.893 0.016 87.027 
	0.999 -1.597 0.015 -90.117 0.016 87.027 0.026 87.893 
	0.026 87.893 0.016 87.027 0.015 -90.117 0.999 -1.597 
	0.016 87.027 0.026 87.893 0.999 -1.597 0.015 -90.117 
258.208 0.015 -90.217 0.999 -1.622 0.027 87.86 0.016 86.98 
	0.999 -1.622 0.015 -90.217 0.016 86.98 0.027 87.86 
	0.027 87.86 0.016 86.98 0.015 -90.217 0.999 -1.622 
	0.016 86.98 0.027 87.86 0.999 -1.622 0.015 -90.217 
262.212 0.015 -90.315 0.999 -1.647 0.027 87.827 0.017 86.933 
	0.999 -1.647 0.015 -90.315 0.017 86.933 0.027 87.827 
	0.027 87.827 0.017 86.933 0.015 -90.315 0.999 -1.647 
	0.017 86.933 0.027 87.827 0.999 -1.647 0.015 -90.315 
266.216 0.015 -90.413 0.999 -1.672 0.028 87.794 0.017 86.887 
	0.999 -1.672 0.015 -90.413 0.017 86.887 0.028 87.794 
	0.028 87.794 0.017 86.887 0.015 -90.413 0.999 -1.672 
	0.017 86.887 0.028 87.794 0.999 -1.672 0.015 -90.413 
270.22 0.015 -90.509 0.999 -1.697 0.028 87.761 0.017 86.84 
	0.999 -1.697 0.015 -90.509 0.017 86.84 0.028 87.761 
	0.028 87.761 0.017 86.84 0.015 -90.509 0.999 -1.697 
	0.017 86.84 0.028 87.761 0.999 -1.697 0.015 -90.509 
274.224 0.016 -90.603 0.999 -1.722 0.028 87.728 0.017 86.793 
	0.999 -1.722 0.016 -90.603 0.017 86.793 0.028 87.728 
	0.028 87.728 0.017 86.793 0.016 -90.603 0.999 -1.722 
	0.017 86.793 0.028 87.728 0.999 -1.722 0.016 -90.603 
278.228 0.016 -90.696 0.999 -1.747 0.029 87.695 0.018 86.747 
	0.999 -1.747 0.016 -90.696 0.018 86.747 0.029 87.695 
	0.029 87.695 0.018 86.747 0.016 -90.696 0.999 -1.747 
	0.018 86.747 0.029 87.695 0.999 -1.747 0.016 -90.696 
282.232 0.016 -90.789 0.998 -1.772 0.029 87.662 0.018 86.7 
	0.998 -1.772 0.016 -90.789 0.018 86.7 0.029 87.662 
	0.029 87.662 0.018 86.7 0.016 -90.789 0.998 -1.772 
	0.018 86.7 0.029 87.662 0.998 -1.772 0.016 -90.789 
286.236 0.016 -90.88 0.998 -1.797 0.03 87.629 0.018 86.653 
	0.998 -1.797 0.016 -90.88 0.018 86.653 0.03 87.629 
	0.03 87.629 0.018 86.653 0.016 -90.88 0.998 -1.797 
	0.018 86.653 0.03 87.629 0.998 -1.797 0.016 -90.88 
290.24 0.017 -90.97 0.998 -1.823 0.03 87.596 0.018 86.607 
	0.998 -1.823 0.017 -90.97 0.018 86.607 0.03 87.596 
	0.03 87.596 0.018 86.607 0.017 -90.97 0.998 -1.823 
	0.018 86.607 0.03 87.596 0.998 -1.823 0.017 -90.97 
294.244 0.017 -91.058 0.998 -1.848 0.03 87.563 0.019 86.56 
	0.998 -1.848 0.017 -91.058 0.019 86.56 0.03 87.563 
	0.03 87.563 0.019 86.56 0.017 -91.058 0.998 -1.848 
	0.019 86.56 0.03 87.563 0.998 -1.848 0.017 -91.058 
298.248 0.017 -91.146 0.998 -1.873 0.031 87.53 0.019 86.514 
	0.998 -1.873 0.017 -91.146 0.019 86.514 0.031 87.53 
	0.031 87.53 0.019 86.514 0.017 -91.146 0.998 -1.873 
	0.019 86.514 0.031 87.53 0.998 -1.873 0.017 -91.146 
302.252 0.017 -91.233 0.998 -1.898 0.031 87.497 0.019 86.467 
	0.998 -1.898 0.017 -91.233 0.019 86.467 0.031 87.497 
	0.031 87.497 0.019 86.467 0.017 -91.233 0.998 -1.898 
	0.019 86.467 0.031 87.497 0.998 -1.898 0.017 -91.233 
306.256 0.017 -91.319 0.998 -1.923 0.032 87.464 0.019 86.42 
	0.998 -1.923 0.017 -91.319 0.019 86.42 0.032 87.464 
	0.032 87.464 0.019 86.42 0.017 -91.319 0.998 -1.923 
	0.019 86.42 0.032 87.464 0.998 -1.923 0.017 -91.319 
310.26 0.018 -91.404 0.998 -1.948 0.032 87.431 0.02 86.374 
	0.998 -1.948 0.018 -91.404 0.02 86.374 0.032 87.431 
	0.032 87.431 0.02 86.374 0.018 -91.404 0.998 -1.948 
	0.02 86.374 0.032 87.431 0.998 -1.948 0.018 -91.404 
314.264 0.018 -91.488 0.998 -1.973 0.033 87.398 0.02 86.327 
	0.998 -1.973 0.018 -91.488 0.02 86.327 0.033 87.398 
	0.033 87.398 0.02 86.327 0.018 -91.488 0.998 -1.973 
	0.02 86.327 0.033 87.398 0.998 -1.973 0.018 -91.488 
318.268 0.018 -91.572 0.998 -1.998 0.033 87.365 0.02 86.28 
	0.998 -1.998 0.018 -91.572 0.02 86.28 0.033 87.365 
	0.033 87.365 0.02 86.28 0.018 -91.572 0.998 -1.998 
	0.02 86.28 0.033 87.365 0.998 -1.998 0.018 -91.572 
322.272 0.018 -91.654 0.998 -2.023 0.033 87.331 0.02 86.234 
	0.998 -2.023 0.018 -91.654 0.02 86.234 0.033 87.331 
	0.033 87.331 0.02 86.234 0.018 -91.654 0.998 -2.023 
	0.02 86.234 0.033 87.331 0.998 -2.023 0.018 -91.654 
326.276 0.019 -91.736 0.998 -2.048 0.034 87.298 0.021 86.187 
	0.998 -2.048 0.019 -91.736 0.021 86.187 0.034 87.298 
	0.034 87.298 0.021 86.187 0.019 -91.736 0.998 -2.048 
	0.021 86.187 0.034 87.298 0.998 -2.048 0.019 -91.736 
330.28 0.019 -91.817 0.998 -2.073 0.034 87.265 0.021 86.141 
	0.998 -2.073 0.019 -91.817 0.021 86.141 0.034 87.265 
	0.034 87.265 0.021 86.141 0.019 -91.817 0.998 -2.073 
	0.021 86.141 0.034 87.265 0.998 -2.073 0.019 -91.817 
334.284 0.019 -91.897 0.998 -2.098 0.035 87.232 0.021 86.094 
	0.998 -2.098 0.019 -91.897 0.021 86.094 0.035 87.232 
	0.035 87.232 0.021 86.094 0.019 -91.897 0.998 -2.098 
	0.021 86.094 0.035 87.232 0.998 -2.098 0.019 -91.897 
338.288 0.019 -91.977 0.998 -2.124 0.035 87.199 0.021 86.047 
	0.998 -2.124 0.019 -91.977 0.021 86.047 0.035 87.199 
	0.035 87.199 0.021 86.047 0.019 -91.977 0.998 -2.124 
	0.021 86.047 0.035 87.199 0.998 -2.124 0.019 -91.977 
342.292 0.02 -92.056 0.998 -2.149 0.035 87.166 0.022 86.001 
	0.998 -2.149 0.02 -92.056 0.022 86.001 0.035 87.166 
	0.035 87.166 0.022 86.001 0.02 -92.056 0.998 -2.149 
	0.022 86.001 0.035 87.166 0.998 -2.149 0.02 -92.056 
346.296 0.02 -92.134 0.998 -2.174 0.036 87.133 0.022 85.954 
	0.998 -2.174 0.02 -92.134 0.022 85.954 0.036 87.133 
	0.036 87.133 0.022 85.954 0.02 -92.134 0.998 -2.174 
	0.022 85.954 0.036 87.133 0.998 -2.174 0.02 -92.134 
350.3 0.02 -92.212 0.998 -2.199 0.036 87.1 0.022 85.907 
	0.998 -2.199 0.02 -92.212 0.022 85.907 0.036 87.1 
	0.036 87.1 0.022 85.907 0.02 -92.212 0.998 -2.199 
	0.022 85.907 0.036 87.1 0.998 -2.199 0.02 -92.212 
354.304 0.02 -92.289 0.998 -2.224 0.037 87.067 0.022 85.861 
	0.998 -2.224 0.02 -92.289 0.022 85.861 0.037 87.067 
	0.037 87.067 0.022 85.861 0.02 -92.289 0.998 -2.224 
	0.022 85.861 0.037 87.067 0.998 -2.224 0.02 -92.289 
358.308 0.02 -92.366 0.998 -2.249 0.037 87.034 0.023 85.814 
	0.998 -2.249 0.02 -92.366 0.023 85.814 0.037 87.034 
	0.037 87.034 0.023 85.814 0.02 -92.366 0.998 -2.249 
	0.023 85.814 0.037 87.034 0.998 -2.249 0.02 -92.366 
362.312 0.021 -92.442 0.998 -2.274 0.038 87.001 0.023 85.768 
	0.998 -2.274 0.021 -92.442 0.023 85.768 0.038 87.001 
	0.038 87.001 0.023 85.768 0.021 -92.442 0.998 -2.274 
	0.023 85.768 0.038 87.001 0.998 -2.274 0.021 -92.442 
366.316 0.021 -92.517 0.998 -2.299 0.038 86.968 0.023 85.721 
	0.998 -2.299 0.021 -92.517 0.023 85.721 0.038 86.968 
	0.038 86.968 0.023 85.721 0.021 -92.517 0.998 -2.299 
	0.023 85.721 0.038 86.968 0.998 -2.299 0.021 -92.517 
370.32 0.021 -92.592 0.998 -2.324 0.038 86.935 0.023 85.675 
	0.998 -2.324 0.021 -92.592 0.023 85.675 0.038 86.935 
	0.038 86.935 0.023 85.675 0.021 -92.592 0.998 -2.324 
	0.023 85.675 0.038 86.935 0.998 -2.324 0.021 -92.592 
374.324 0.021 -92.667 0.998 -2.349 0.039 86.902 0.024 85.628 
	0.998 -2.349 0.021 -92.667 0.024 85.628 0.039 86.902 
	0.039 86.902 0.024 85.628 0.021 -92.667 0.998 -2.349 
	0.024 85.628 0.039 86.902 0.998 -2.349 0.021 -92.667 
378.328 0.022 -92.741 0.998 -2.374 0.039 86.869 0.024 85.581 
	0.998 -2.374 0.022 -92.741 0.024 85.581 0.039 86.869 
	0.039 86.869 0.024 85.581 0.022 -92.741 0.998 -2.374 
	0.024 85.581 0.039 86.869 0.998 -2.374 0.022 -92.741 
382.332 0.022 -92.814 0.998 -2.399 0.04 86.836 0.024 85.535 
	0.998 -2.399 0.022 -92.814 0.024 85.535 0.04 86.836 
	0.04 86.836 0.024 85.535 0.022 -92.814 0.998 -2.399 
	0.024 85.535 0.04 86.836 0.998 -2.399 0.022 -92.814 
386.336 0.022 -92.887 0.998 -2.424 0.04 86.803 0.024 85.488 
	0.998 -2.424 0.022 -92.887 0.024 85.488 0.04 86.803 
	0.04 86.803 0.024 85.488 0.022 -92.887 0.998 -2.424 
