# MHZ S MA R 50

50 4.593e-3 18.667 0.996 -0.228 2.939e-3 89.756 448.3e-6 -90.762
          0.996 -0.228 4.593e-3 18.667 448.3e-6 -90.762 2.939e-3 89.756
          2.939e-3 89.756 448.3e-6 -90.762 4.593e-3 18.667 0.996 -0.228
          448.3e-6 -90.762 2.939e-3 89.756 0.996 -0.228 4.593e-3 18.667
57.007 4.665e-3 21.057 0.996 -0.26 3.351e-3 89.723 511.1e-6 -90.873
          0.996 -0.26 4.665e-3 21.057 511.1e-6 -90.873 3.351e-3 89.723
          3.351e-3 89.723 511.1e-6 -90.873 4.665e-3 21.057 0.996 -0.26
          511.1e-6 -90.873 3.351e-3 89.723 0.996 -0.26 4.665e-3 21.057
64.014 4.746e-3 23.368 0.996 -0.292 3.763e-3 89.689 573.9e-6 -90.984
          0.996 -0.292 4.746e-3 23.368 573.9e-6 -90.984 3.763e-3 89.689
          3.763e-3 89.689 573.9e-6 -90.984 4.746e-3 23.368 0.996 -0.292
          573.9e-6 -90.984 3.763e-3 89.689 0.996 -0.292 4.746e-3 23.368
71.021 4.833e-3 25.598 0.996 -0.324 4.175e-3 89.656 636.8e-6 -91.094
          0.996 -0.324 4.833e-3 25.598 636.8e-6 -91.094 4.175e-3 89.656
          4.175e-3 89.656 636.8e-6 -91.094 4.833e-3 25.598 0.996 -0.324
          636.8e-6 -91.094 4.175e-3 89.656 0.996 -0.324 4.833e-3 25.598
78.028 4.929e-3 27.743 0.996 -0.356 4.587e-3 89.622 699.6e-6 -91.204
          0.996 -0.356 4.929e-3 27.743 699.6e-6 -91.204 4.587e-3 89.622
          4.587e-3 89.622 699.6e-6 -91.204 4.929e-3 27.743 0.996 -0.356
          699.6e-6 -91.204 4.587e-3 89.622 0.996 -0.356 4.929e-3 27.743
85.035 5.031e-3 29.803 0.996 -0.388 4.998e-3 89.589 762.4e-6 -91.314
          0.996 -0.388 5.031e-3 29.803 762.4e-6 -91.314 4.998e-3 89.589
          4.998e-3 89.589 762.4e-6 -91.314 5.031e-3 29.803 0.996 -0.388
          762.4e-6 -91.314 4.998e-3 89.589 0.996 -0.388 5.031e-3 29.803
92.042 5.139e-3 31.776 0.996 -0.42 5.41e-3 89.555 825.2e-6 -91.424
          0.996 -0.42 5.139e-3 31.776 825.2e-6 -91.424 5.41e-3 89.555
          5.41e-3 89.555 825.2e-6 -91.424 5.139e-3 31.776 0.996 -0.42
          825.2e-6 -91.424 5.41e-3 89.555 0.996 -0.42 5.139e-3 31.776
99.049 5.254e-3 33.664 0.996 -0.452 5.822e-3 89.521 888.1e-6 -91.534
          0.996 -0.452 5.254e-3 33.664 888.1e-6 -91.534 5.822e-3 89.521
          5.822e-3 89.521 888.1e-6 -91.534 5.254e-3 33.664 0.996 -0.452
          888.1e-6 -91.534 5.822e-3 89.521 0.996 -0.452 5.254e-3 33.664
106.056 5.374e-3 35.468 0.996 -0.483 6.234e-3 89.488 950.9e-6 -91.644
          0.996 -0.483 5.374e-3 35.468 950.9e-6 -91.644 6.234e-3 89.488
          6.234e-3 89.488 950.9e-6 -91.644 5.374e-3 35.468 0.996 -0.483
          950.9e-6 -91.644 6.234e-3 89.488 0.996 -0.483 5.374e-3 35.468
113.063 5.5e-3 37.19 0.996 -0.515 6.646e-3 89.454 1.014e-3 -91.754
          0.996 -0.515 5.5e-3 37.19 1.014e-3 -91.754 6.646e-3 89.454
          6.646e-3 89.454 1.014e-3 -91.754 5.5e-3 37.19 0.996 -0.515
          1.014e-3 -91.754 6.646e-3 89.454 0.996 -0.515 5.5e-3 37.19
120.07 5.63e-3 38.831 0.996 -0.547 7.058e-3 89.42 1.077e-3 -91.863
          0.996 -0.547 5.63e-3 38.831 1.077e-3 -91.863 7.058e-3 89.42
          7.058e-3 89.42 1.077e-3 -91.863 5.63e-3 38.831 0.996 -0.547
          1.077e-3 -91.863 7.058e-3 89.42 0.996 -0.547 5.63e-3 38.831
127.077 5.765e-3 40.394 0.996 -0.579 7.47e-3 89.387 1.139e-3 -91.973
          0.996 -0.579 5.765e-3 40.394 1.139e-3 -91.973 7.47e-3 89.387
          7.47e-3 89.387 1.139e-3 -91.973 5.765e-3 40.394 0.996 -0.579
          1.139e-3 -91.973 7.47e-3 89.387 0.996 -0.579 5.765e-3 40.394
134.084 5.905e-3 41.884 0.996 -0.611 7.881e-3 89.353 1.202e-3 -92.083
          0.996 -0.611 5.905e-3 41.884 1.202e-3 -92.083 7.881e-3 89.353
          7.881e-3 89.353 1.202e-3 -92.083 5.905e-3 41.884 0.996 -0.611
          1.202e-3 -92.083 7.881e-3 89.353 0.996 -0.611 5.905e-3 41.884
141.091 6.048e-3 43.301 0.996 -0.643 8.293e-3 89.319 1.265e-3 -92.193
          0.996 -0.643 6.048e-3 43.301 1.265e-3 -92.193 8.293e-3 89.319
          8.293e-3 89.319 1.265e-3 -92.193 6.048e-3 43.301 0.996 -0.643
          1.265e-3 -92.193 8.293e-3 89.319 0.996 -0.643 6.048e-3 43.301
148.098 6.195e-3 44.65 0.996 -0.675 8.705e-3 89.286 1.328e-3 -92.303
          0.996 -0.675 6.195e-3 44.65 1.328e-3 -92.303 8.705e-3 89.286
          8.705e-3 89.286 1.328e-3 -92.303 6.195e-3 44.65 0.996 -0.675
          1.328e-3 -92.303 8.705e-3 89.286 0.996 -0.675 6.195e-3 44.65
155.105 6.346e-3 45.934 0.996 -0.707 9.117e-3 89.252 1.391e-3 -92.412
          0.996 -0.707 6.346e-3 45.934 1.391e-3 -92.412 9.117e-3 89.252
          9.117e-3 89.252 1.391e-3 -92.412 6.346e-3 45.934 0.996 -0.707
          1.391e-3 -92.412 9.117e-3 89.252 0.996 -0.707 6.346e-3 45.934
162.112 6.5e-3 47.156 0.996 -0.739 9.529e-3 89.218 1.454e-3 -92.522
          0.996 -0.739 6.5e-3 47.156 1.454e-3 -92.522 9.529e-3 89.218
          9.529e-3 89.218 1.454e-3 -92.522 6.5e-3 47.156 0.996 -0.739
          1.454e-3 -92.522 9.529e-3 89.218 0.996 -0.739 6.5e-3 47.156
169.119 6.657e-3 48.319 0.996 -0.771 9.94e-3 89.185 1.516e-3 -92.632
          0.996 -0.771 6.657e-3 48.319 1.516e-3 -92.632 9.94e-3 89.185
          9.94e-3 89.185 1.516e-3 -92.632 6.657e-3 48.319 0.996 -0.771
          1.516e-3 -92.632 9.94e-3 89.185 0.996 -0.771 6.657e-3 48.319
176.126 6.816e-3 49.427 0.996 -0.803 0.01 89.151 1.579e-3 -92.741
          0.996 -0.803 6.816e-3 49.427 1.579e-3 -92.741 0.01 89.151
          0.01 89.151 1.579e-3 -92.741 6.816e-3 49.427 0.996 -0.803
          1.579e-3 -92.741 0.01 89.151 0.996 -0.803 6.816e-3 49.427
183.133 6.979e-3 50.481 0.996 -0.835 0.011 89.117 1.642e-3 -92.851
          0.996 -0.835 6.979e-3 50.481 1.642e-3 -92.851 0.011 89.117
          0.011 89.117 1.642e-3 -92.851 6.979e-3 50.481 0.996 -0.835
          1.642e-3 -92.851 0.011 89.117 0.996 -0.835 6.979e-3 50.481
190.14 7.143e-3 51.485 0.996 -0.867 0.011 89.084 1.705e-3 -92.961
          0.996 -0.867 7.143e-3 51.485 1.705e-3 -92.961 0.011 89.084
          0.011 89.084 1.705e-3 -92.961 7.143e-3 51.485 0.996 -0.867
          1.705e-3 -92.961 0.011 89.084 0.996 -0.867 7.143e-3 51.485
197.147 7.31e-3 52.442 0.996 -0.899 0.012 89.05 1.768e-3 -93.071
          0.996 -0.899 7.31e-3 52.442 1.768e-3 -93.071 0.012 89.05
          0.012 89.05 1.768e-3 -93.071 7.31e-3 52.442 0.996 -0.899
          1.768e-3 -93.071 0.012 89.05 0.996 -0.899 7.31e-3 52.442
204.154 7.479e-3 53.354 0.996 -0.931 0.012 89.016 1.831e-3 -93.18
          0.996 -0.931 7.479e-3 53.354 1.831e-3 -93.18 0.012 89.016
          0.012 89.016 1.831e-3 -93.18 7.479e-3 53.354 0.996 -0.931
          1.831e-3 -93.18 0.012 89.016 0.996 -0.931 7.479e-3 53.354
211.161 7.65e-3 54.224 0.996 -0.963 0.012 88.982 1.894e-3 -93.29
          0.996 -0.963 7.65e-3 54.224 1.894e-3 -93.29 0.012 88.982
          0.012 88.982 1.894e-3 -93.29 7.65e-3 54.224 0.996 -0.963
          1.894e-3 -93.29 0.012 88.982 0.996 -0.963 7.65e-3 54.224
218.168 7.823e-3 55.054 0.996 -0.995 0.013 88.949 1.956e-3 -93.4
          0.996 -0.995 7.823e-3 55.054 1.956e-3 -93.4 0.013 88.949
          0.013 88.949 1.956e-3 -93.4 7.823e-3 55.054 0.996 -0.995
          1.956e-3 -93.4 0.013 88.949 0.996 -0.995 7.823e-3 55.054
225.175 7.998e-3 55.846 0.996 -1.026 0.013 88.915 2.019e-3 -93.509
          0.996 -1.026 7.998e-3 55.846 2.019e-3 -93.509 0.013 88.915
          0.013 88.915 2.019e-3 -93.509 7.998e-3 55.846 0.996 -1.026
          2.019e-3 -93.509 0.013 88.915 0.996 -1.026 7.998e-3 55.846
232.182 8.174e-3 56.602 0.996 -1.058 0.014 88.881 2.082e-3 -93.619
          0.996 -1.058 8.174e-3 56.602 2.082e-3 -93.619 0.014 88.881
          0.014 88.881 2.082e-3 -93.619 8.174e-3 56.602 0.996 -1.058
          2.082e-3 -93.619 0.014 88.881 0.996 -1.058 8.174e-3 56.602
239.189 8.351e-3 57.325 0.996 -1.09 0.014 88.848 2.145e-3 -93.729
          0.996 -1.09 8.351e-3 57.325 2.145e-3 -93.729 0.014 88.848
          0.014 88.848 2.145e-3 -93.729 8.351e-3 57.325 0.996 -1.09
          2.145e-3 -93.729 0.014 88.848 0.996 -1.09 8.351e-3 57.325
246.196 8.53e-3 58.015 0.996 -1.122 0.014 88.814 2.208e-3 -93.838
          0.996 -1.122 8.53e-3 58.015 2.208e-3 -93.838 0.014 88.814
          0.014 88.814 2.208e-3 -93.838 8.53e-3 58.015 0.996 -1.122
          2.208e-3 -93.838 0.014 88.814 0.996 -1.122 8.53e-3 58.015
253.203 8.711e-3 58.676 0.996 -1.154 0.015 88.78 2.271e-3 -93.948
          0.996 -1.154 8.711e-3 58.676 2.271e-3 -93.948 0.015 88.78
          0.015 88.78 2.271e-3 -93.948 8.711e-3 58.676 0.996 -1.154
          2.271e-3 -93.948 0.015 88.78 0.996 -1.154 8.711e-3 58.676
260.21 8.892e-3 59.308 0.996 -1.186 0.015 88.747 2.334e-3 -94.058
          0.996 -1.186 8.892e-3 59.308 2.334e-3 -94.058 0.015 88.747
          0.015 88.747 2.334e-3 -94.058 8.892e-3 59.308 0.996 -1.186
          2.334e-3 -94.058 0.015 88.747 0.996 -1.186 8.892e-3 59.308
267.217 9.075e-3 59.913 0.995 -1.218 0.016 88.713 2.397e-3 -94.167
          0.995 -1.218 9.075e-3 59.913 2.397e-3 -94.167 0.016 88.713
          0.016 88.713 2.397e-3 -94.167 9.075e-3 59.913 0.995 -1.218
          2.397e-3 -94.167 0.016 88.713 0.995 -1.218 9.075e-3 59.913
274.224 9.259e-3 60.493 0.995 -1.25 0.016 88.679 2.459e-3 -94.277
          0.995 -1.25 9.259e-3 60.493 2.459e-3 -94.277 0.016 88.679
          0.016 88.679 2.459e-3 -94.277 9.259e-3 60.493 0.995 -1.25
          2.459e-3 -94.277 0.016 88.679 0.995 -1.25 9.259e-3 60.493
281.231 9.444e-3 61.048 0.995 -1.282 0.017 88.646 2.522e-3 -94.387
          0.995 -1.282 9.444e-3 61.048 2.522e-3 -94.387 0.017 88.646
          0.017 88.646 2.522e-3 -94.387 9.444e-3 61.048 0.995 -1.282
          2.522e-3 -94.387 0.017 88.646 0.995 -1.282 9.444e-3 61.048
288.238 9.63e-3 61.58 0.995 -1.314 0.017 88.612 2.585e-3 -94.496
          0.995 -1.314 9.63e-3 61.58 2.585e-3 -94.496 0.017 88.612
          0.017 88.612 2.585e-3 -94.496 9.63e-3 61.58 0.995 -1.314
          2.585e-3 -94.496 0.017 88.612 0.995 -1.314 9.63e-3 61.58
295.245 9.816e-3 62.091 0.995 -1.346 0.017 88.578 2.648e-3 -94.606
          0.995 -1.346 9.816e-3 62.091 2.648e-3 -94.606 0.017 88.578
          0.017 88.578 2.648e-3 -94.606 9.816e-3 62.091 0.995 -1.346
          2.648e-3 -94.606 0.017 88.578 0.995 -1.346 9.816e-3 62.091
302.252 0.01 62.581 0.995 -1.378 0.018 88.545 2.711e-3 -94.716
          0.995 -1.378 0.01 62.581 2.711e-3 -94.716 0.018 88.545
          0.018 88.545 2.711e-3 -94.716 0.01 62.581 0.995 -1.378
          2.711e-3 -94.716 0.018 88.545 0.995 -1.378 0.01 62.581
309.259 0.01 63.052 0.995 -1.41 0.018 88.511 2.774e-3 -94.825
          0.995 -1.41 0.01 63.052 2.774e-3 -94.825 0.018 88.511
          0.018 88.511 2.774e-3 -94.825 0.01 63.052 0.995 -1.41
          2.774e-3 -94.825 0.018 88.511 0.995 -1.41 0.01 63.052
316.266 0.01 63.504 0.995 -1.442 0.019 88.477 2.837e-3 -94.935
          0.995 -1.442 0.01 63.504 2.837e-3 -94.935 0.019 88.477
          0.019 88.477 2.837e-3 -94.935 0.01 63.504 0.995 -1.442
          2.837e-3 -94.935 0.019 88.477 0.995 -1.442 0.01 63.504
323.273 0.011 63.938 0.995 -1.474 0.019 88.444 2.9e-3 -95.044
          0.995 -1.474 0.011 63.938 2.9e-3 -95.044 0.019 88.444
          0.019 88.444 2.9e-3 -95.044 0.011 63.938 0.995 -1.474
          2.9e-3 -95.044 0.019 88.444 0.995 -1.474 0.011 63.938
330.28 0.011 64.356 0.995 -1.505 0.019 88.41 2.963e-3 -95.154
          0.995 -1.505 0.011 64.356 2.963e-3 -95.154 0.019 88.41
          0.019 88.41 2.963e-3 -95.154 0.011 64.356 0.995 -1.505
          2.963e-3 -95.154 0.019 88.41 0.995 -1.505 0.011 64.356
337.287 0.011 64.758 0.995 -1.537 0.02 88.376 3.026e-3 -95.264
          0.995 -1.537 0.011 64.758 3.026e-3 -95.264 0.02 88.376
          0.02 88.376 3.026e-3 -95.264 0.011 64.758 0.995 -1.537
          3.026e-3 -95.264 0.02 88.376 0.995 -1.537 0.011 64.758
344.294 0.011 65.144 0.995 -1.569 0.02 88.343 3.089e-3 -95.373
          0.995 -1.569 0.011 65.144 3.089e-3 -95.373 0.02 88.343
          0.02 88.343 3.089e-3 -95.373 0.011 65.144 0.995 -1.569
          3.089e-3 -95.373 0.02 88.343 0.995 -1.569 0.011 65.144
351.301 0.011 65.516 0.995 -1.601 0.021 88.309 3.151e-3 -95.483
          0.995 -1.601 0.011 65.516 3.151e-3 -95.483 0.021 88.309
          0.021 88.309 3.151e-3 -95.483 0.011 65.516 0.995 -1.601
          3.151e-3 -95.483 0.021 88.309 0.995 -1.601 0.011 65.516
358.308 0.012 65.875 0.995 -1.633 0.021 88.276 3.214e-3 -95.592
          0.995 -1.633 0.012 65.875 3.214e-3 -95.592 0.021 88.276
          0.021 88.276 3.214e-3 -95.592 0.012 65.875 0.995 -1.633
          3.214e-3 -95.592 0.021 88.276 0.995 -1.633 0.012 65.875
365.315 0.012 66.22 0.995 -1.665 0.021 88.242 3.277e-3 -95.702
          0.995 -1.665 0.012 66.22 3.277e-3 -95.702 0.021 88.242
          0.021 88.242 3.277e-3 -95.702 0.012 66.22 0.995 -1.665
          3.277e-3 -95.702 0.021 88.242 0.995 -1.665 0.012 66.22
372.322 0.012 66.552 0.995 -1.697 0.022 88.208 3.34e-3 -95.811
          0.995 -1.697 0.012 66.552 3.34e-3 -95.811 0.022 88.208
          0.022 88.208 3.34e-3 -95.811 0.012 66.552 0.995 -1.697
          3.34e-3 -95.811 0.022 88.208 0.995 -1.697 0.012 66.552
379.329 0.012 66.873 0.995 -1.729 0.022 88.175 3.403e-3 -95.921
          0.995 -1.729 0.012 66.873 3.403e-3 -95.921 0.022 88.175
          0.022 88.175 3.403e-3 -95.921 0.012 66.873 0.995 -1.729
          3.403e-3 -95.921 0.022 88.175 0.995 -1.729 0.012 66.873
386.336 0.012 67.182 0.995 -1.761 0.023 88.141 3.466e-3 -96.03
          0.995 -1.761 0.012 67.182 3.466e-3 -96.03 0.023 88.141
          0.023 88.141 3.466e-3 -96.03 0.012 67.182 0.995 -1.761
          3.466e-3 -96.03 0.023 88.141 0.995 -1.761 0.012 67.182
393.343 0.013 67.481 0.995 -1.793 0.023 88.107 3.529e-3 -96.14
          0.995 -1.793 0.013 67.481 3.529e-3 -96.14 0.023 88.107
          0.023 88.107 3.529e-3 -96.14 0.013 67.481 0.995 -1.793
          3.529e-3 -96.14 0.023 88.107 0.995 -1.793 0.013 67.481
400.35 0.013 67.769 0.995 -1.825 0.024 88.074 3.592e-3 -96.25
          0.995 -1.825 0.013 67.769 3.592e-3 -96.25 0.024 88.074
          0.024 88.074 3.592e-3 -96.25 0.013 67.769 0.995 -1.825
          3.592e-3 -96.25 0.024 88.074 0.995 -1.825 0.013 67.769
407.357 0.013 68.047 0.995 -1.857 0.024 88.04 3.655e-3 -96.359
          0.995 -1.857 0.013 68.047 3.655e-3 -96.359 0.024 88.04
          0.024 88.04 3.655e-3 -96.359 0.013 68.047 0.995 -1.857
          3.655e-3 -96.359 0.024 88.04 0.995 -1.857 0.013 68.047
414.364 0.013 68.315 0.995 -1.888 0.024 88.006 3.718e-3 -96.469
          0.995 -1.888 0.013 68.315 3.718e-3 -96.469 0.024 88.006
          0.024 88.006 3.718e-3 -96.469 0.013 68.315 0.995 -1.888
          3.718e-3 -96.469 0.024 88.006 0.995 -1.888 0.013 68.315
421.371 0.013 68.575 0.995 -1.92 0.025 87.973 3.781e-3 -96.578
          0.995 -1.92 0.013 68.575 3.781e-3 -96.578 0.025 87.973
          0.025 87.973 3.781e-3 -96.578 0.013 68.575 0.995 -1.92
          3.781e-3 -96.578 0.025 87.973 0.995 -1.92 0.013 68.575
428.378 0.013 68.826 0.995 -1.952 0.025 87.939 3.844e-3 -96.688
          0.995 -1.952 0.013 68.826 3.844e-3 -96.688 0.025 87.939
          0.025 87.939 3.844e-3 -96.688 0.013 68.826 0.995 -1.952
          3.844e-3 -96.688 0.025 87.939 0.995 -1.952 0.013 68.826
435.385 0.014 69.068 0.995 -1.984 0.026 87.905 3.907e-3 -96.797
          0.995 -1.984 0.014 69.068 3.907e-3 -96.797 0.026 87.905
          0.026 87.905 3.907e-3 -96.797 0.014 69.068 0.995 -1.984
          3.907e-3 -96.797 0.026 87.905 0.995 -1.984 0.014 69.068
442.392 0.014 69.302 0.995 -2.016 0.026 87.872 3.97e-3 -96.907
          0.995 -2.016 0.014 69.302 3.97e-3 -96.907 0.026 87.872
          0.026 87.872 3.97e-3 -96.907 0.014 69.302 0.995 -2.016
          3.97e-3 -96.907 0.026 87.872 0.995 -2.016 0.014 69.302
449.399 0.014 69.529 0.995 -2.048 0.026 87.838 4.033e-3 -97.016
          0.995 -2.048 0.014 69.529 4.033e-3 -97.016 0.026 87.838
          0.026 87.838 4.033e-3 -97.016 0.014 69.529 0.995 -2.048
          4.033e-3 -97.016 0.026 87.838 0.995 -2.048 0.014 69.529
456.406 0.014 69.748 0.995 -2.08 0.027 87.804 4.096e-3 -97.126
          0.995 -2.08 0.014 69.748 4.096e-3 -97.126 0.027 87.804
          0.027 87.804 4.096e-3 -97.126 0.014 69.748 0.995 -2.08
          4.096e-3 -97.126 0.027 87.804 0.995 -2.08 0.014 69.748
463.413 0.014 69.96 0.995 -2.112 0.027 87.771 4.159e-3 -97.235
          0.995 -2.112 0.014 69.96 4.159e-3 -97.235 0.027 87.771
          0.027 87.771 4.159e-3 -97.235 0.014 69.96 0.995 -2.112
          4.159e-3 -97.235 0.027 87.771 0.995 -2.112 0.014 69.96
470.42 0.015 70.165 0.995 -2.144 0.028 87.737 4.222e-3 -97.344
          0.995 -2.144 0.015 70.165 4.222e-3 -97.344 0.028 87.737
          0.028 87.737 4.222e-3 -97.344 0.015 70.165 0.995 -2.144
          4.222e-3 -97.344 0.028 87.737 0.995 -2.144 0.015 70.165
477.427 0.015 70.364 0.995 -2.176 0.028 87.704 4.285e-3 -97.454
          0.995 -2.176 0.015 70.364 4.285e-3 -97.454 0.028 87.704
          0.028 87.704 4.285e-3 -97.454 0.015 70.364 0.995 -2.176
          4.285e-3 -97.454 0.028 87.704 0.995 -2.176 0.015 70.364
484.434 0.015 70.556 0.995 -2.208 0.028 87.67 4.348e-3 -97.563
          0.995 -2.208 0.015 70.556 4.348e-3 -97.563 0.028 87.67
          0.028 87.67 4.348e-3 -97.563 0.015 70.556 0.995 -2.208
          4.348e-3 -97.563 0.028 87.67 0.995 -2.208 0.015 70.556
491.441 0.015 70.742 0.995 -2.239 0.029 87.636 4.411e-3 -97.673
          0.995 -2.239 0.015 70.742 4.411e-3 -97.673 0.029 87.636
          0.029 87.636 4.411e-3 -97.673 0.015 70.742 0.995 -2.239
          4.411e-3 -97.673 0.029 87.636 0.995 -2.239 0.015 70.742
498.448 0.015 70.923 0.995 -2.271 0.029 87.603 4.474e-3 -97.782
          0.995 -2.271 0.015 70.923 4.474e-3 -97.782 0.029 87.603
          0.029 87.603 4.474e-3 -97.782 0.015 70.923 0.995 -2.271
          4.474e-3 -97.782 0.029 87.603 0.995 -2.271 0.015 70.923
505.455 0.016 71.098 0.995 -2.303 0.03 87.569 4.537e-3 -97.892
          0.995 -2.303 0.016 71.098 4.537e-3 -97.892 0.03 87.569
          0.03 87.569 4.537e-3 -97.892 0.016 71.098 0.995 -2.303
          4.537e-3 -97.892 0.03 87.569 0.995 -2.303 0.016 71.098
512.462 0.016 71.267 0.995 -2.335 0.03 87.535 4.6e-3 -98.001
          0.995 -2.335 0.016 71.267 4.6e-3 -98.001 0.03 87.535
          0.03 87.535 4.6e-3 -98.001 0.016 71.267 0.995 -2.335
          4.6e-3 -98.001 0.03 87.535 0.995 -2.335 0.016 71.267
519.469 0.016 71.431 0.995 -2.367 0.031 87.502 4.663e-3 -98.11
          0.995 -2.367 0.016 71.431 4.663e-3 -98.11 0.031 87.502
          0.031 87.502 4.663e-3 -98.11 0.016 71.431 0.995 -2.367
          4.663e-3 -98.11 0.031 87.502 0.995 -2.367 0.016 71.431
526.476 0.016 71.591 0.995 -2.399 0.031 87.468 4.727e-3 -98.22
          0.995 -2.399 0.016 71.591 4.727e-3 -98.22 0.031 87.468
          0.031 87.468 4.727e-3 -98.22 0.016 71.591 0.995 -2.399
          4.727e-3 -98.22 0.031 87.468 0.995 -2.399 0.016 71.591
533.483 0.016 71.745 0.995 -2.431 0.031 87.434 4.79e-3 -98.329
          0.995 -2.431 0.016 71.745 4.79e-3 -98.329 0.031 87.434
          0.031 87.434 4.79e-3 -98.329 0.016 71.745 0.995 -2.431
          4.79e-3 -98.329 0.031 87.434 0.995 -2.431 0.016 71.745
540.49 0.017 71.895 0.995 -2.463 0.032 87.401 4.853e-3 -98.438
          0.995 -2.463 0.017 71.895 4.853e-3 -98.438 0.032 87.401
          0.032 87.401 4.853e-3 -98.438 0.017 71.895 0.995 -2.463
          4.853e-3 -98.438 0.032 87.401 0.995 -2.463 0.017 71.895
547.497 0.017 72.04 0.995 -2.495 0.032 87.367 4.916e-3 -98.548
          0.995 -2.495 0.017 72.04 4.916e-3 -98.548 0.032 87.367
          0.032 87.367 4.916e-3 -98.548 0.017 72.04 0.995 -2.495
          4.916e-3 -98.548 0.032 87.367 0.995 -2.495 0.017 72.04
554.505 0.017 72.181 0.995 -2.527 0.033 87.334 4.979e-3 -98.657
          0.995 -2.527 0.017 72.181 4.979e-3 -98.657 0.033 87.334
          0.033 87.334 4.979e-3 -98.657 0.017 72.181 0.995 -2.527
          4.979e-3 -98.657 0.033 87.334 0.995 -2.527 0.017 72.181
561.512 0.017 72.317 0.995 -2.558 0.033 87.3 5.042e-3 -98.767
          0.995 -2.558 0.017 72.317 5.042e-3 -98.767 0.033 87.3
          0.033 87.3 5.042e-3 -98.767 0.017 72.317 0.995 -2.558
          5.042e-3 -98.767 0.033 87.3 0.995 -2.558 0.017 72.317
568.519 0.017 72.45 0.995 -2.59 0.033 87.266 5.105e-3 -98.876
          0.995 -2.59 0.017 72.45 5.105e-3 -98.876 0.033 87.266
          0.033 87.266 5.105e-3 -98.876 0.017 72.45 0.995 -2.59
