!	AVX THIN FILM OPERATION
!
!	CP0603 HIGH DIRECTIVITY COUPLERS
!	P/N CP0603AxxxxCLTR
!
!	Network	Analyzer HP8720ES.07.64:Feb23,2000 Serial No.US39172382
!	Hewlett-Packard								
!
!	24 July 2003	02:45:57

# MHZ S MA R 50

50 8.732e-3 -17.116 0.992 -0.472 0.01 89.515 341.1e-6 84.817
          0.992 -0.472 8.732e-3 -17.116 341.1e-6 84.817 0.01 89.515
          0.01 89.515 341.1e-6 84.817 8.732e-3 -17.116 0.992 -0.472
          341.1e-6 84.817 0.01 89.515 0.992 -0.472 8.732e-3 -17.116
75 9.164e-3 -24.87 0.991 -0.708 0.016 89.278 513.4e-6 82.387
          0.991 -0.708 9.164e-3 -24.87 513.4e-6 82.387 0.016 89.278
          0.016 89.278 513.4e-6 82.387 9.164e-3 -24.87 0.991 -0.708
          513.4e-6 82.387 0.016 89.278 0.991 -0.708 9.164e-3 -24.87
100 9.736e-3 -31.847 0.991 -0.943 0.021 89.04 687.8e-6 79.977
          0.991 -0.943 9.736e-3 -31.847 687.8e-6 79.977 0.021 89.04
          0.021 89.04 687.8e-6 79.977 9.736e-3 -31.847 0.991 -0.943
          687.8e-6 79.977 0.021 89.04 0.991 -0.943 9.736e-3 -31.847
125 0.01 -38.005 0.991 -1.179 0.026 88.803 864.9e-6 77.589
          0.991 -1.179 0.01 -38.005 864.9e-6 77.589 0.026 88.803
          0.026 88.803 864.9e-6 77.589 0.01 -38.005 0.991 -1.179
          864.9e-6 77.589 0.026 88.803 0.991 -1.179 0.01 -38.005
150 0.011 -43.384 0.991 -1.415 0.031 88.565 1.045e-3 75.23
          0.991 -1.415 0.011 -43.384 1.045e-3 75.23 0.031 88.565
          0.031 88.565 1.045e-3 75.23 0.011 -43.384 0.991 -1.415
          1.045e-3 75.23 0.031 88.565 0.991 -1.415 0.011 -43.384
175 0.012 -48.061 0.991 -1.651 0.036 88.328 1.23e-3 72.904
          0.991 -1.651 0.012 -48.061 1.23e-3 72.904 0.036 88.328
          0.036 88.328 1.23e-3 72.904 0.012 -48.061 0.991 -1.651
          1.23e-3 72.904 0.036 88.328 0.991 -1.651 0.012 -48.061
200 0.013 -52.129 0.991 -1.886 0.042 88.091 1.418e-3 70.613
          0.991 -1.886 0.013 -52.129 1.418e-3 70.613 0.042 88.091
          0.042 88.091 1.418e-3 70.613 0.013 -52.129 0.991 -1.886
          1.418e-3 70.613 0.042 88.091 0.991 -1.886 0.013 -52.129
225 0.014 -55.679 0.99 -2.122 0.047 87.854 1.612e-3 68.363
          0.99 -2.122 0.014 -55.679 1.612e-3 68.363 0.047 87.854
          0.047 87.854 1.612e-3 68.363 0.014 -55.679 0.99 -2.122
          1.612e-3 68.363 0.047 87.854 0.99 -2.122 0.014 -55.679
250 0.015 -58.791 0.99 -2.357 0.052 87.617 1.811e-3 66.156
          0.99 -2.357 0.015 -58.791 1.811e-3 66.156 0.052 87.617
          0.052 87.617 1.811e-3 66.156 0.015 -58.791 0.99 -2.357
          1.811e-3 66.156 0.052 87.617 0.99 -2.357 0.015 -58.791
275 0.016 -61.537 0.99 -2.592 0.057 87.38 2.017e-3 63.994
          0.99 -2.592 0.016 -61.537 2.017e-3 63.994 0.057 87.38
          0.057 87.38 2.017e-3 63.994 0.016 -61.537 0.99 -2.592
          2.017e-3 63.994 0.057 87.38 0.99 -2.592 0.016 -61.537
300 0.017 -63.974 0.99 -2.827 0.062 87.143 2.229e-3 61.879
          0.99 -2.827 0.017 -63.974 2.229e-3 61.879 0.062 87.143
          0.062 87.143 2.229e-3 61.879 0.017 -63.974 0.99 -2.827
          2.229e-3 61.879 0.062 87.143 0.99 -2.827 0.017 -63.974
325 0.018 -66.152 0.989 -3.062 0.067 86.907 2.447e-3 59.814
          0.989 -3.062 0.018 -66.152 2.447e-3 59.814 0.067 86.907
          0.067 86.907 2.447e-3 59.814 0.018 -66.152 0.989 -3.062
          2.447e-3 59.814 0.067 86.907 0.989 -3.062 0.018 -66.152
350 0.019 -68.111 0.989 -3.297 0.073 86.67 2.673e-3 57.799
          0.989 -3.297 0.019 -68.111 2.673e-3 57.799 0.073 86.67
          0.073 86.67 2.673e-3 57.799 0.019 -68.111 0.989 -3.297
          2.673e-3 57.799 0.073 86.67 0.989 -3.297 0.019 -68.111
375 0.02 -69.883 0.988 -3.532 0.078 86.434 2.907e-3 55.835
          0.988 -3.532 0.02 -69.883 2.907e-3 55.835 0.078 86.434
          0.078 86.434 2.907e-3 55.835 0.02 -69.883 0.988 -3.532
          2.907e-3 55.835 0.078 86.434 0.988 -3.532 0.02 -69.883
400 0.021 -71.496 0.988 -3.766 0.083 86.198 3.148e-3 53.922
          0.988 -3.766 0.021 -71.496 3.148e-3 53.922 0.083 86.198
          0.083 86.198 3.148e-3 53.922 0.021 -71.496 0.988 -3.766
          3.148e-3 53.922 0.083 86.198 0.988 -3.766 0.021 -71.496
425 0.023 -72.972 0.988 -4.001 0.088 85.962 3.398e-3 52.06
          0.988 -4.001 0.023 -72.972 3.398e-3 52.06 0.088 85.962
          0.088 85.962 3.398e-3 52.06 0.023 -72.972 0.988 -4.001
          3.398e-3 52.06 0.088 85.962 0.988 -4.001 0.023 -72.972
450 0.024 -74.331 0.987 -4.235 0.093 85.727 3.656e-3 50.249
          0.987 -4.235 0.024 -74.331 3.656e-3 50.249 0.093 85.727
          0.093 85.727 3.656e-3 50.249 0.024 -74.331 0.987 -4.235
          3.656e-3 50.249 0.093 85.727 0.987 -4.235 0.024 -74.331
475 0.025 -75.587 0.986 -4.469 0.098 85.491 3.923e-3 48.489
          0.986 -4.469 0.025 -75.587 3.923e-3 48.489 0.098 85.491
          0.098 85.491 3.923e-3 48.489 0.025 -75.587 0.986 -4.469
          3.923e-3 48.489 0.098 85.491 0.986 -4.469 0.025 -75.587
500 0.026 -76.754 0.986 -4.702 0.103 85.256 4.199e-3 46.779
          0.986 -4.702 0.026 -76.754 4.199e-3 46.779 0.103 85.256
          0.103 85.256 4.199e-3 46.779 0.026 -76.754 0.986 -4.702
          4.199e-3 46.779 0.103 85.256 0.986 -4.702 0.026 -76.754
525 0.027 -77.842 0.985 -4.936 0.109 85.021 4.483e-3 45.117
          0.985 -4.936 0.027 -77.842 4.483e-3 45.117 0.109 85.021
          0.109 85.021 4.483e-3 45.117 0.027 -77.842 0.985 -4.936
          4.483e-3 45.117 0.109 85.021 0.985 -4.936 0.027 -77.842
550 0.028 -78.861 0.985 -5.169 0.114 84.786 4.777e-3 43.504
          0.985 -5.169 0.028 -78.861 4.777e-3 43.504 0.114 84.786
          0.114 84.786 4.777e-3 43.504 0.028 -78.861 0.985 -5.169
          4.777e-3 43.504 0.114 84.786 0.985 -5.169 0.028 -78.861
575 0.029 -79.819 0.984 -5.402 0.119 84.552 5.08e-3 41.936
          0.984 -5.402 0.029 -79.819 5.08e-3 41.936 0.119 84.552
          0.119 84.552 5.08e-3 41.936 0.029 -79.819 0.984 -5.402
          5.08e-3 41.936 0.119 84.552 0.984 -5.402 0.029 -79.819
600 0.031 -80.723 0.983 -5.635 0.124 84.318 5.393e-3 40.414
          0.983 -5.635 0.031 -80.723 5.393e-3 40.414 0.124 84.318
          0.124 84.318 5.393e-3 40.414 0.031 -80.723 0.983 -5.635
          5.393e-3 40.414 0.124 84.318 0.983 -5.635 0.031 -80.723
625 0.032 -81.578 0.983 -5.867 0.129 84.084 5.715e-3 38.936
          0.983 -5.867 0.032 -81.578 5.715e-3 38.936 0.129 84.084
          0.129 84.084 5.715e-3 38.936 0.032 -81.578 0.983 -5.867
          5.715e-3 38.936 0.129 84.084 0.983 -5.867 0.032 -81.578
650 0.033 -82.39 0.982 -6.099 0.134 83.85 6.047e-3 37.5
          0.982 -6.099 0.033 -82.39 6.047e-3 37.5 0.134 83.85
          0.134 83.85 6.047e-3 37.5 0.033 -82.39 0.982 -6.099
          6.047e-3 37.5 0.134 83.85 0.982 -6.099 0.033 -82.39
675 0.034 -83.163 0.981 -6.331 0.139 83.617 6.388e-3 36.106
          0.981 -6.331 0.034 -83.163 6.388e-3 36.106 0.139 83.617
          0.139 83.617 6.388e-3 36.106 0.034 -83.163 0.981 -6.331
          6.388e-3 36.106 0.139 83.617 0.981 -6.331 0.034 -83.163
700 0.035 -83.9 0.981 -6.563 0.144 83.384 6.74e-3 34.751
          0.981 -6.563 0.035 -83.9 6.74e-3 34.751 0.144 83.384
          0.144 83.384 6.74e-3 34.751 0.035 -83.9 0.981 -6.563
          6.74e-3 34.751 0.144 83.384 0.981 -6.563 0.035 -83.9
725 0.036 -84.605 0.98 -6.794 0.149 83.152 7.1e-3 33.434
          0.98 -6.794 0.036 -84.605 7.1e-3 33.434 0.149 83.152
          0.149 83.152 7.1e-3 33.434 0.036 -84.605 0.98 -6.794
          7.1e-3 33.434 0.149 83.152 0.98 -6.794 0.036 -84.605
750 0.037 -85.281 0.979 -7.025 0.154 82.919 7.471e-3 32.154
          0.979 -7.025 0.037 -85.281 7.471e-3 32.154 0.154 82.919
          0.154 82.919 7.471e-3 32.154 0.037 -85.281 0.979 -7.025
          7.471e-3 32.154 0.154 82.919 0.979 -7.025 0.037 -85.281
775 0.038 -85.93 0.978 -7.256 0.159 82.687 7.851e-3 30.91
          0.978 -7.256 0.038 -85.93 7.851e-3 30.91 0.159 82.687
          0.159 82.687 7.851e-3 30.91 0.038 -85.93 0.978 -7.256
          7.851e-3 30.91 0.159 82.687 0.978 -7.256 0.038 -85.93
800 0.04 -86.555 0.977 -7.486 0.164 82.456 8.241e-3 29.699
          0.977 -7.486 0.04 -86.555 8.241e-3 29.699 0.164 82.456
          0.164 82.456 8.241e-3 29.699 0.04 -86.555 0.977 -7.486
          8.241e-3 29.699 0.164 82.456 0.977 -7.486 0.04 -86.555
825 0.041 -87.158 0.976 -7.716 0.169 82.225 8.64e-3 28.522
          0.976 -7.716 0.041 -87.158 8.64e-3 28.522 0.169 82.225
          0.169 82.225 8.64e-3 28.522 0.041 -87.158 0.976 -7.716
          8.64e-3 28.522 0.169 82.225 0.976 -7.716 0.041 -87.158
850 0.042 -87.74 0.975 -7.946 0.174 81.994 9.049e-3 27.375
          0.975 -7.946 0.042 -87.74 9.049e-3 27.375 0.174 81.994
          0.174 81.994 9.049e-3 27.375 0.042 -87.74 0.975 -7.946
          9.049e-3 27.375 0.174 81.994 0.975 -7.946 0.042 -87.74
875 0.043 -88.303 0.974 -8.175 0.179 81.764 9.468e-3 26.259
          0.974 -8.175 0.043 -88.303 9.468e-3 26.259 0.179 81.764
          0.179 81.764 9.468e-3 26.259 0.043 -88.303 0.974 -8.175
          9.468e-3 26.259 0.179 81.764 0.974 -8.175 0.043 -88.303
900 0.044 -88.849 0.974 -8.404 0.184 81.534 9.896e-3 25.171
          0.974 -8.404 0.044 -88.849 9.896e-3 25.171 0.184 81.534
          0.184 81.534 9.896e-3 25.171 0.044 -88.849 0.974 -8.404
          9.896e-3 25.171 0.184 81.534 0.974 -8.404 0.044 -88.849
925 0.045 -89.378 0.973 -8.632 0.189 81.304 0.01 24.111
          0.973 -8.632 0.045 -89.378 0.01 24.111 0.189 81.304
          0.189 81.304 0.01 24.111 0.045 -89.378 0.973 -8.632
          0.01 24.111 0.189 81.304 0.973 -8.632 0.045 -89.378
950 0.046 -89.892 0.972 -8.86 0.194 81.075 0.011 23.078
          0.972 -8.86 0.046 -89.892 0.011 23.078 0.194 81.075
          0.194 81.075 0.011 23.078 0.046 -89.892 0.972 -8.86
          0.011 23.078 0.194 81.075 0.972 -8.86 0.046 -89.892
975 0.047 -90.392 0.97 -9.088 0.199 80.846 0.011 22.071
          0.97 -9.088 0.047 -90.392 0.011 22.071 0.199 80.846
          0.199 80.846 0.011 22.071 0.047 -90.392 0.97 -9.088
          0.011 22.071 0.199 80.846 0.97 -9.088 0.047 -90.392
1000 0.048 -90.879 0.969 -9.315 0.204 80.618 0.012 21.087
          0.969 -9.315 0.048 -90.879 0.012 21.087 0.204 80.618
          0.204 80.618 0.012 21.087 0.048 -90.879 0.969 -9.315
          0.012 21.087 0.204 80.618 0.969 -9.315 0.048 -90.879
1025 0.049 -91.354 0.968 -9.542 0.209 80.39 0.012 20.128
          0.968 -9.542 0.049 -91.354 0.012 20.128 0.209 80.39
          0.209 80.39 0.012 20.128 0.049 -91.354 0.968 -9.542
          0.012 20.128 0.209 80.39 0.968 -9.542 0.049 -91.354
1050 0.05 -91.817 0.967 -9.768 0.213 80.163 0.013 19.19
          0.967 -9.768 0.05 -91.817 0.013 19.19 0.213 80.163
          0.213 80.163 0.013 19.19 0.05 -91.817 0.967 -9.768
          0.013 19.19 0.213 80.163 0.967 -9.768 0.05 -91.817
1075 0.051 -92.269 0.966 -9.994 0.218 79.936 0.013 18.274
          0.966 -9.994 0.051 -92.269 0.013 18.274 0.218 79.936
          0.218 79.936 0.013 18.274 0.051 -92.269 0.966 -9.994
          0.013 18.274 0.218 79.936 0.966 -9.994 0.051 -92.269
1100 0.053 -92.712 0.965 -10.22 0.223 79.709 0.014 17.379
          0.965 -10.22 0.053 -92.712 0.014 17.379 0.223 79.709
          0.223 79.709 0.014 17.379 0.053 -92.712 0.965 -10.22
          0.014 17.379 0.223 79.709 0.965 -10.22 0.053 -92.712
1125 0.054 -93.144 0.964 -10.445 0.228 79.483 0.014 16.504
          0.964 -10.445 0.054 -93.144 0.014 16.504 0.228 79.483
          0.228 79.483 0.014 16.504 0.054 -93.144 0.964 -10.445
          0.014 16.504 0.228 79.483 0.964 -10.445 0.054 -93.144
1150 0.055 -93.567 0.963 -10.669 0.233 79.258 0.015 15.648
          0.963 -10.669 0.055 -93.567 0.015 15.648 0.233 79.258
          0.233 79.258 0.015 15.648 0.055 -93.567 0.963 -10.669
          0.015 15.648 0.233 79.258 0.963 -10.669 0.055 -93.567
1175 0.056 -93.982 0.961 -10.893 0.238 79.033 0.015 14.81
          0.961 -10.893 0.056 -93.982 0.015 14.81 0.238 79.033
          0.238 79.033 0.015 14.81 0.056 -93.982 0.961 -10.893
          0.015 14.81 0.238 79.033 0.961 -10.893 0.056 -93.982
1200 0.057 -94.389 0.96 -11.117 0.242 78.809 0.016 13.99
          0.96 -11.117 0.057 -94.389 0.016 13.99 0.242 78.809
          0.242 78.809 0.016 13.99 0.057 -94.389 0.96 -11.117
          0.016 13.99 0.242 78.809 0.96 -11.117 0.057 -94.389
1225 0.058 -94.788 0.959 -11.34 0.247 78.585 0.016 13.187
          0.959 -11.34 0.058 -94.788 0.016 13.187 0.247 78.585
          0.247 78.585 0.016 13.187 0.058 -94.788 0.959 -11.34
          0.016 13.187 0.247 78.585 0.959 -11.34 0.058 -94.788
1250 0.059 -95.179 0.957 -11.563 0.252 78.361 0.017 12.4
          0.957 -11.563 0.059 -95.179 0.017 12.4 0.252 78.361
          0.252 78.361 0.017 12.4 0.059 -95.179 0.957 -11.563
          0.017 12.4 0.252 78.361 0.957 -11.563 0.059 -95.179
1275 0.06 -95.563 0.956 -11.785 0.257 78.139 0.017 11.629
          0.956 -11.785 0.06 -95.563 0.017 11.629 0.257 78.139
          0.257 78.139 0.017 11.629 0.06 -95.563 0.956 -11.785
          0.017 11.629 0.257 78.139 0.956 -11.785 0.06 -95.563
1300 0.061 -95.941 0.955 -12.007 0.261 77.916 0.018 10.873
          0.955 -12.007 0.061 -95.941 0.018 10.873 0.261 77.916
          0.261 77.916 0.018 10.873 0.061 -95.941 0.955 -12.007
          0.018 10.873 0.261 77.916 0.955 -12.007 0.061 -95.941
1325 0.062 -96.312 0.953 -12.228 0.266 77.695 0.019 10.131
          0.953 -12.228 0.062 -96.312 0.019 10.131 0.266 77.695
          0.266 77.695 0.019 10.131 0.062 -96.312 0.953 -12.228
          0.019 10.131 0.266 77.695 0.953 -12.228 0.062 -96.312
1350 0.063 -96.677 0.952 -12.448 0.271 77.474 0.019 9.403
          0.952 -12.448 0.063 -96.677 0.019 9.403 0.271 77.474
          0.271 77.474 0.019 9.403 0.063 -96.677 0.952 -12.448
          0.019 9.403 0.271 77.474 0.952 -12.448 0.063 -96.677
1375 0.063 -97.036 0.951 -12.669 0.275 77.253 0.02 8.689
          0.951 -12.669 0.063 -97.036 0.02 8.689 0.275 77.253
          0.275 77.253 0.02 8.689 0.063 -97.036 0.951 -12.669
          0.02 8.689 0.275 77.253 0.951 -12.669 0.063 -97.036
1400 0.064 -97.39 0.949 -12.888 0.28 77.033 0.02 7.988
          0.949 -12.888 0.064 -97.39 0.02 7.988 0.28 77.033
          0.28 77.033 0.02 7.988 0.064 -97.39 0.949 -12.888
          0.02 7.988 0.28 77.033 0.949 -12.888 0.064 -97.39
1425 0.065 -97.738 0.948 -13.107 0.285 76.813 0.021 7.299
          0.948 -13.107 0.065 -97.738 0.021 7.299 0.285 76.813
          0.285 76.813 0.021 7.299 0.065 -97.738 0.948 -13.107
          0.021 7.299 0.285 76.813 0.948 -13.107 0.065 -97.738
1450 0.066 -98.081 0.946 -13.326 0.289 76.595 0.022 6.622
          0.946 -13.326 0.066 -98.081 0.022 6.622 0.289 76.595
          0.289 76.595 0.022 6.622 0.066 -98.081 0.946 -13.326
          0.022 6.622 0.289 76.595 0.946 -13.326 0.066 -98.081
1475 0.067 -98.418 0.945 -13.543 0.294 76.376 0.022 5.957
          0.945 -13.543 0.067 -98.418 0.022 5.957 0.294 76.376
          0.294 76.376 0.022 5.957 0.067 -98.418 0.945 -13.543
          0.022 5.957 0.294 76.376 0.945 -13.543 0.067 -98.418
1500 0.068 -98.751 0.943 -13.761 0.298 76.159 0.023 5.303
          0.943 -13.761 0.068 -98.751 0.023 5.303 0.298 76.159
          0.298 76.159 0.023 5.303 0.068 -98.751 0.943 -13.761
          0.023 5.303 0.298 76.159 0.943 -13.761 0.068 -98.751
1525 0.069 -99.079 0.942 -13.978 0.303 75.942 0.023 4.661
          0.942 -13.978 0.069 -99.079 0.023 4.661 0.303 75.942
          0.303 75.942 0.023 4.661 0.069 -99.079 0.942 -13.978
          0.023 4.661 0.303 75.942 0.942 -13.978 0.069 -99.079
1550 0.07 -99.403 0.94 -14.194 0.307 75.725 0.024 4.028
          0.94 -14.194 0.07 -99.403 0.024 4.028 0.307 75.725
          0.307 75.725 0.024 4.028 0.07 -99.403 0.94 -14.194
          0.024 4.028 0.307 75.725 0.94 -14.194 0.07 -99.403
1575 0.071 -99.722 0.939 -14.409 0.312 75.509 0.025 3.406
          0.939 -14.409 0.071 -99.722 0.025 3.406 0.312 75.509
          0.312 75.509 0.025 3.406 0.071 -99.722 0.939 -14.409
          0.025 3.406 0.312 75.509 0.939 -14.409 0.071 -99.722
1600 0.072 -100.037 0.937 -14.624 0.316 75.294 0.025 2.793
          0.937 -14.624 0.072 -100.037 0.025 2.793 0.316 75.294
          0.316 75.294 0.025 2.793 0.072 -100.037 0.937 -14.624
          0.025 2.793 0.316 75.294 0.937 -14.624 0.072 -100.037
1625 0.073 -100.347 0.936 -14.839 0.321 75.08 0.026 2.19
          0.936 -14.839 0.073 -100.347 0.026 2.19 0.321 75.08
          0.321 75.08 0.026 2.19 0.073 -100.347 0.936 -14.839
          0.026 2.19 0.321 75.08 0.936 -14.839 0.073 -100.347
1650 0.073 -100.654 0.934 -15.053 0.325 74.866 0.027 1.597
          0.934 -15.053 0.073 -100.654 0.027 1.597 0.325 74.866
          0.325 74.866 0.027 1.597 0.073 -100.654 0.934 -15.053
          0.027 1.597 0.325 74.866 0.934 -15.053 0.073 -100.654
1675 0.074 -100.956 0.932 -15.266 0.33 74.652 0.027 1.012
          0.932 -15.266 0.074 -100.956 0.027 1.012 0.33 74.652
          0.33 74.652 0.027 1.012 0.074 -100.956 0.932 -15.266
          0.027 1.012 0.33 74.652 0.932 -15.266 0.074 -100.956
1700 0.075 -101.255 0.931 -15.479 0.334 74.44 0.028 0.436
          0.931 -15.479 0.075 -101.255 0.028 0.436 0.334 74.44
          0.334 74.44 0.028 0.436 0.075 -101.255 0.931 -15.479
          0.028 0.436 0.334 74.44 0.931 -15.479 0.075 -101.255
1725 0.076 -101.55 0.929 -15.691 0.338 74.228 0.029 -0.132
          0.929 -15.691 0.076 -101.55 0.029 -0.132 0.338 74.228
          0.338 74.228 0.029 -0.132 0.076 -101.55 0.929 -15.691
          0.029 -0.132 0.338 74.228 0.929 -15.691 0.076 -101.55
1750 0.077 -101.841 0.927 -15.902 0.343 74.016 0.029 -0.691
          0.927 -15.902 0.077 -101.841 0.029 -0.691 0.343 74.016
          0.343 74.016 0.029 -0.691 0.077 -101.841 0.927 -15.902
          0.029 -0.691 0.343 74.016 0.927 -15.902 0.077 -101.841
1775 0.078 -102.129 0.926 -16.113 0.347 73.806 0.03 -1.243
          0.926 -16.113 0.078 -102.129 0.03 -1.243 0.347 73.806
          0.347 73.806 0.03 -1.243 0.078 -102.129 0.926 -16.113
          0.03 -1.243 0.347 73.806 0.926 -16.113 0.078 -102.129
1800 0.078 -102.413 0.924 -16.323 0.351 73.596 0.031 -1.787
          0.924 -16.323 0.078 -102.413 0.031 -1.787 0.351 73.596
          0.351 73.596 0.031 -1.787 0.078 -102.413 0.924 -16.323
          0.031 -1.787 0.351 73.596 0.924 -16.323 0.078 -102.413
1825 0.079 -102.694 0.922 -16.533 0.356 73.386 0.032 -2.323
          0.922 -16.533 0.079 -102.694 0.032 -2.323 0.356 73.386
          0.356 73.386 0.032 -2.323 0.079 -102.694 0.922 -16.533
          0.032 -2.323 0.356 73.386 0.922 -16.533 0.079 -102.694
1850 0.08 -102.971 0.921 -16.742 0.36 73.177 0.032 -2.853
          0.921 -16.742 0.08 -102.971 0.032 -2.853 0.36 73.177
          0.36 73.177 0.032 -2.853 0.08 -102.971 0.921 -16.742
          0.032 -2.853 0.36 73.177 0.921 -16.742 0.08 -102.971
1875 0.081 -103.245 0.919 -16.95 0.364 72.969 0.033 -3.375
          0.919 -16.95 0.081 -103.245 0.033 -3.375 0.364 72.969
          0.364 72.969 0.033 -3.375 0.081 -103.245 0.919 -16.95
          0.033 -3.375 0.364 72.969 0.919 -16.95 0.081 -103.245
1900 0.081 -103.516 0.917 -17.158 0.368 72.762 0.034 -3.89
          0.917 -17.158 0.081 -103.516 0.034 -3.89 0.368 72.762
          0.368 72.762 0.034 -3.89 0.081 -103.516 0.917 -17.158
          0.034 -3.89 0.368 72.762 0.917 -17.158 0.081 -103.516
1925 0.082 -103.783 0.915 -17.365 0.373 72.555 0.034 -4.399
          0.915 -17.365 0.082 -103.783 0.034 -4.399 0.373 72.555
          0.373 72.555 0.034 -4.399 0.082 -103.783 0.915 -17.365
          0.034 -4.399 0.373 72.555 0.915 -17.365 0.082 -103.783
1950 0.083 -104.048 0.913 -17.571 0.377 72.35 0.035 -4.901
          0.913 -17.571 0.083 -104.048 0.035 -4.901 0.377 72.35
          0.377 72.35 0.035 -4.901 0.083 -104.048 0.913 -17.571
          0.035 -4.901 0.377 72.35 0.913 -17.571 0.083 -104.048
1975 0.084 -104.309 0.912 -17.777 0.381 72.144 0.036 -5.397
          0.912 -17.777 0.084 -104.309 0.036 -5.397 0.381 72.144
          0.381 72.144 0.036 -5.397 0.084 -104.309 0.912 -17.777
          0.036 -5.397 0.381 72.144 0.912 -17.777 0.084 -104.309
2000 0.084 -104.568 0.91 -17.982 0.385 71.94 0.037 -5.886
          0.91 -17.982 0.084 -104.568 0.037 -5.886 0.385 71.94
          0.385 71.94 0.037 -5.886 0.084 -104.568 0.91 -17.982
