!	AVX THIN FILM OPERATION
!
!	CP0603 HIGH DIRECTIVITY COUPLERS
!	P/N CP0603AxxxxHLTR
!
!	Network	Analyzer HP8720ES.07.64:Feb23,2000 Serial No.US39172382
!	Hewlett-Packard								
!
!	24 July 2003	02:45:57

# MHZ S MA R 50

50 7.952e-3 -17.562 0.992 -0.347 8.151e-3 89.64 261.1e-6 85.113
          0.992 -0.347 7.952e-3 -17.562 261.1e-6 85.113 8.151e-3 89.64
          8.151e-3 89.64 261.1e-6 85.113 7.952e-3 -17.562 0.992 -0.347
          261.1e-6 85.113 8.151e-3 89.64 0.992 -0.347 7.952e-3 -17.562
75 8.373e-3 -25.456 0.992 -0.521 0.012 89.464 393e-6 82.831
          0.992 -0.521 8.373e-3 -25.456 393e-6 82.831 0.012 89.464
          0.012 89.464 393e-6 82.831 8.373e-3 -25.456 0.992 -0.521
          393e-6 82.831 0.012 89.464 0.992 -0.521 8.373e-3 -25.456
100 8.929e-3 -32.501 0.992 -0.694 0.016 89.289 526.4e-6 80.567
          0.992 -0.694 8.929e-3 -32.501 526.4e-6 80.567 0.016 89.289
          0.016 89.289 526.4e-6 80.567 8.929e-3 -32.501 0.992 -0.694
          526.4e-6 80.567 0.016 89.289 0.992 -0.694 8.929e-3 -32.501
125 9.596e-3 -38.667 0.992 -0.868 0.02 89.114 661.8e-6 78.326
          0.992 -0.868 9.596e-3 -38.667 661.8e-6 78.326 0.02 89.114
          0.02 89.114 661.8e-6 78.326 9.596e-3 -38.667 0.992 -0.868
          661.8e-6 78.326 0.02 89.114 0.992 -0.868 9.596e-3 -38.667
150 0.01 -44.008 0.992 -1.041 0.024 88.939 799.6e-6 76.11
          0.992 -1.041 0.01 -44.008 799.6e-6 76.11 0.024 88.939
          0.024 88.939 799.6e-6 76.11 0.01 -44.008 0.992 -1.041
          799.6e-6 76.11 0.024 88.939 0.992 -1.041 0.01 -44.008
175 0.011 -48.615 0.992 -1.215 0.029 88.763 940.3e-6 73.925
          0.992 -1.215 0.011 -48.615 940.3e-6 73.925 0.029 88.763
          0.029 88.763 940.3e-6 73.925 0.011 -48.615 0.992 -1.215
          940.3e-6 73.925 0.029 88.763 0.992 -1.215 0.011 -48.615
200 0.012 -52.593 0.992 -1.388 0.033 88.588 1.084e-3 71.774
          0.992 -1.388 0.012 -52.593 1.084e-3 71.774 0.033 88.588
          0.033 88.588 1.084e-3 71.774 0.012 -52.593 0.992 -1.388
          1.084e-3 71.774 0.033 88.588 0.992 -1.388 0.012 -52.593
225 0.013 -56.04 0.992 -1.561 0.037 88.413 1.232e-3 69.659
          0.992 -1.561 0.013 -56.04 1.232e-3 69.659 0.037 88.413
          0.037 88.413 1.232e-3 69.659 0.013 -56.04 0.992 -1.561
          1.232e-3 69.659 0.037 88.413 0.992 -1.561 0.013 -56.04
250 0.014 -59.043 0.991 -1.735 0.041 88.238 1.384e-3 67.585
          0.991 -1.735 0.014 -59.043 1.384e-3 67.585 0.041 88.238
          0.041 88.238 1.384e-3 67.585 0.014 -59.043 0.991 -1.735
          1.384e-3 67.585 0.041 88.238 0.991 -1.735 0.014 -59.043
275 0.015 -61.677 0.991 -1.908 0.045 88.063 1.54e-3 65.553
          0.991 -1.908 0.015 -61.677 1.54e-3 65.553 0.045 88.063
          0.045 88.063 1.54e-3 65.553 0.015 -61.677 0.991 -1.908
          1.54e-3 65.553 0.045 88.063 0.991 -1.908 0.015 -61.677
300 0.016 -64.002 0.991 -2.081 0.049 87.888 1.701e-3 63.565
          0.991 -2.081 0.016 -64.002 1.701e-3 63.565 0.049 87.888
          0.049 87.888 1.701e-3 63.565 0.016 -64.002 0.991 -2.081
          1.701e-3 63.565 0.049 87.888 0.991 -2.081 0.016 -64.002
325 0.017 -66.068 0.991 -2.254 0.053 87.713 1.868e-3 61.624
          0.991 -2.254 0.017 -66.068 1.868e-3 61.624 0.053 87.713
          0.053 87.713 1.868e-3 61.624 0.017 -66.068 0.991 -2.254
          1.868e-3 61.624 0.053 87.713 0.991 -2.254 0.017 -66.068
350 0.018 -67.917 0.991 -2.427 0.057 87.539 2.039e-3 59.729
          0.991 -2.427 0.018 -67.917 2.039e-3 59.729 0.057 87.539
          0.057 87.539 2.039e-3 59.729 0.018 -67.917 0.991 -2.427
          2.039e-3 59.729 0.057 87.539 0.991 -2.427 0.018 -67.917
375 0.019 -69.582 0.99 -2.6 0.061 87.364 2.217e-3 57.882
          0.99 -2.6 0.019 -69.582 2.217e-3 57.882 0.061 87.364
          0.061 87.364 2.217e-3 57.882 0.019 -69.582 0.99 -2.6
          2.217e-3 57.882 0.061 87.364 0.99 -2.6 0.019 -69.582
400 0.02 -71.089 0.99 -2.773 0.065 87.189 2.4e-3 56.084
          0.99 -2.773 0.02 -71.089 2.4e-3 56.084 0.065 87.189
          0.065 87.189 2.4e-3 56.084 0.02 -71.089 0.99 -2.773
          2.4e-3 56.084 0.065 87.189 0.99 -2.773 0.02 -71.089
425 0.021 -72.463 0.99 -2.946 0.069 87.015 2.589e-3 54.334
          0.99 -2.946 0.021 -72.463 2.589e-3 54.334 0.069 87.015
          0.069 87.015 2.589e-3 54.334 0.021 -72.463 0.99 -2.946
          2.589e-3 54.334 0.069 87.015 0.99 -2.946 0.021 -72.463
450 0.022 -73.72 0.989 -3.119 0.073 86.84 2.785e-3 52.633
          0.989 -3.119 0.022 -73.72 2.785e-3 52.633 0.073 86.84
          0.073 86.84 2.785e-3 52.633 0.022 -73.72 0.989 -3.119
          2.785e-3 52.633 0.073 86.84 0.989 -3.119 0.022 -73.72
475 0.023 -74.878 0.989 -3.292 0.077 86.666 2.988e-3 50.98
          0.989 -3.292 0.023 -74.878 2.988e-3 50.98 0.077 86.666
          0.077 86.666 2.988e-3 50.98 0.023 -74.878 0.989 -3.292
          2.988e-3 50.98 0.077 86.666 0.989 -3.292 0.023 -74.878
500 0.025 -75.948 0.989 -3.464 0.081 86.492 3.197e-3 49.373
          0.989 -3.464 0.025 -75.948 3.197e-3 49.373 0.081 86.492
          0.081 86.492 3.197e-3 49.373 0.025 -75.948 0.989 -3.464
          3.197e-3 49.373 0.081 86.492 0.989 -3.464 0.025 -75.948
525 0.026 -76.942 0.988 -3.637 0.085 86.318 3.413e-3 47.814
          0.988 -3.637 0.026 -76.942 3.413e-3 47.814 0.085 86.318
          0.085 86.318 3.413e-3 47.814 0.026 -76.942 0.988 -3.637
          3.413e-3 47.814 0.085 86.318 0.988 -3.637 0.026 -76.942
550 0.027 -77.869 0.988 -3.809 0.089 86.144 3.636e-3 46.3
          0.988 -3.809 0.027 -77.869 3.636e-3 46.3 0.089 86.144
          0.089 86.144 3.636e-3 46.3 0.027 -77.869 0.988 -3.809
          3.636e-3 46.3 0.089 86.144 0.988 -3.809 0.027 -77.869
575 0.028 -78.737 0.988 -3.981 0.093 85.97 3.866e-3 44.83
          0.988 -3.981 0.028 -78.737 3.866e-3 44.83 0.093 85.97
          0.093 85.97 3.866e-3 44.83 0.028 -78.737 0.988 -3.981
          3.866e-3 44.83 0.093 85.97 0.988 -3.981 0.028 -78.737
600 0.029 -79.552 0.987 -4.154 0.097 85.796 4.103e-3 43.404
          0.987 -4.154 0.029 -79.552 4.103e-3 43.404 0.097 85.796
          0.097 85.796 4.103e-3 43.404 0.029 -79.552 0.987 -4.154
          4.103e-3 43.404 0.097 85.796 0.987 -4.154 0.029 -79.552
625 0.03 -80.319 0.987 -4.326 0.101 85.622 4.348e-3 42.02
          0.987 -4.326 0.03 -80.319 4.348e-3 42.02 0.101 85.622
          0.101 85.622 4.348e-3 42.02 0.03 -80.319 0.987 -4.326
          4.348e-3 42.02 0.101 85.622 0.987 -4.326 0.03 -80.319
650 0.031 -81.045 0.986 -4.498 0.105 85.449 4.6e-3 40.677
          0.986 -4.498 0.031 -81.045 4.6e-3 40.677 0.105 85.449
          0.105 85.449 4.6e-3 40.677 0.031 -81.045 0.986 -4.498
          4.6e-3 40.677 0.105 85.449 0.986 -4.498 0.031 -81.045
675 0.032 -81.734 0.986 -4.669 0.109 85.275 4.86e-3 39.373
          0.986 -4.669 0.032 -81.734 4.86e-3 39.373 0.109 85.275
          0.109 85.275 4.86e-3 39.373 0.032 -81.734 0.986 -4.669
          4.86e-3 39.373 0.109 85.275 0.986 -4.669 0.032 -81.734
700 0.033 -82.388 0.985 -4.841 0.113 85.102 5.127e-3 38.108
          0.985 -4.841 0.033 -82.388 5.127e-3 38.108 0.113 85.102
          0.113 85.102 5.127e-3 38.108 0.033 -82.388 0.985 -4.841
          5.127e-3 38.108 0.113 85.102 0.985 -4.841 0.033 -82.388
725 0.034 -83.011 0.985 -5.013 0.117 84.929 5.402e-3 36.88
          0.985 -5.013 0.034 -83.011 5.402e-3 36.88 0.117 84.929
          0.117 84.929 5.402e-3 36.88 0.034 -83.011 0.985 -5.013
          5.402e-3 36.88 0.117 84.929 0.985 -5.013 0.034 -83.011
750 0.035 -83.607 0.984 -5.184 0.121 84.756 5.684e-3 35.687
          0.984 -5.184 0.035 -83.607 5.684e-3 35.687 0.121 84.756
          0.121 84.756 5.684e-3 35.687 0.035 -83.607 0.984 -5.184
          5.684e-3 35.687 0.121 84.756 0.984 -5.184 0.035 -83.607
775 0.037 -84.177 0.984 -5.355 0.125 84.583 5.974e-3 34.529
          0.984 -5.355 0.037 -84.177 5.974e-3 34.529 0.125 84.583
          0.125 84.583 5.974e-3 34.529 0.037 -84.177 0.984 -5.355
          5.974e-3 34.529 0.125 84.583 0.984 -5.355 0.037 -84.177
800 0.038 -84.723 0.983 -5.526 0.129 84.411 6.272e-3 33.404
          0.983 -5.526 0.038 -84.723 6.272e-3 33.404 0.129 84.411
          0.129 84.411 6.272e-3 33.404 0.038 -84.723 0.983 -5.526
          6.272e-3 33.404 0.129 84.411 0.983 -5.526 0.038 -84.723
825 0.039 -85.249 0.983 -5.697 0.133 84.238 6.577e-3 32.31
          0.983 -5.697 0.039 -85.249 6.577e-3 32.31 0.133 84.238
          0.133 84.238 6.577e-3 32.31 0.039 -85.249 0.983 -5.697
          6.577e-3 32.31 0.133 84.238 0.983 -5.697 0.039 -85.249
850 0.04 -85.755 0.982 -5.868 0.137 84.066 6.89e-3 31.247
          0.982 -5.868 0.04 -85.755 6.89e-3 31.247 0.137 84.066
          0.137 84.066 6.89e-3 31.247 0.04 -85.755 0.982 -5.868
          6.89e-3 31.247 0.137 84.066 0.982 -5.868 0.04 -85.755
875 0.041 -86.243 0.982 -6.039 0.141 83.894 7.211e-3 30.213
          0.982 -6.039 0.041 -86.243 7.211e-3 30.213 0.141 83.894
          0.141 83.894 7.211e-3 30.213 0.041 -86.243 0.982 -6.039
          7.211e-3 30.213 0.141 83.894 0.982 -6.039 0.041 -86.243
900 0.042 -86.715 0.981 -6.209 0.145 83.722 7.539e-3 29.207
          0.981 -6.209 0.042 -86.715 7.539e-3 29.207 0.145 83.722
          0.145 83.722 7.539e-3 29.207 0.042 -86.715 0.981 -6.209
          7.539e-3 29.207 0.145 83.722 0.981 -6.209 0.042 -86.715
925 0.043 -87.172 0.98 -6.379 0.149 83.55 7.875e-3 28.228
          0.98 -6.379 0.043 -87.172 7.875e-3 28.228 0.149 83.55
          0.149 83.55 7.875e-3 28.228 0.043 -87.172 0.98 -6.379
          7.875e-3 28.228 0.149 83.55 0.98 -6.379 0.043 -87.172
950 0.044 -87.614 0.98 -6.55 0.153 83.379 8.218e-3 27.275
          0.98 -6.55 0.044 -87.614 8.218e-3 27.275 0.153 83.379
          0.153 83.379 8.218e-3 27.275 0.044 -87.614 0.98 -6.55
          8.218e-3 27.275 0.153 83.379 0.98 -6.55 0.044 -87.614
975 0.045 -88.043 0.979 -6.719 0.157 83.207 8.57e-3 26.347
          0.979 -6.719 0.045 -88.043 8.57e-3 26.347 0.157 83.207
          0.157 83.207 8.57e-3 26.347 0.045 -88.043 0.979 -6.719
          8.57e-3 26.347 0.157 83.207 0.979 -6.719 0.045 -88.043
1000 0.046 -88.46 0.978 -6.889 0.161 83.036 8.928e-3 25.443
          0.978 -6.889 0.046 -88.46 8.928e-3 25.443 0.161 83.036
          0.161 83.036 8.928e-3 25.443 0.046 -88.46 0.978 -6.889
          8.928e-3 25.443 0.161 83.036 0.978 -6.889 0.046 -88.46
1025 0.047 -88.865 0.978 -7.059 0.165 82.865 9.295e-3 24.562
          0.978 -7.059 0.047 -88.865 9.295e-3 24.562 0.165 82.865
          0.165 82.865 9.295e-3 24.562 0.047 -88.865 0.978 -7.059
          9.295e-3 24.562 0.165 82.865 0.978 -7.059 0.047 -88.865
1050 0.048 -89.26 0.977 -7.228 0.169 82.695 9.668e-3 23.702
          0.977 -7.228 0.048 -89.26 9.668e-3 23.702 0.169 82.695
          0.169 82.695 9.668e-3 23.702 0.048 -89.26 0.977 -7.228
          9.668e-3 23.702 0.169 82.695 0.977 -7.228 0.048 -89.26
1075 0.049 -89.645 0.976 -7.397 0.173 82.524 0.01 22.864
          0.976 -7.397 0.049 -89.645 0.01 22.864 0.173 82.524
          0.173 82.524 0.01 22.864 0.049 -89.645 0.976 -7.397
          0.01 22.864 0.173 82.524 0.976 -7.397 0.049 -89.645
1100 0.05 -90.02 0.975 -7.566 0.177 82.354 0.01 22.046
          0.975 -7.566 0.05 -90.02 0.01 22.046 0.177 82.354
          0.177 82.354 0.01 22.046 0.05 -90.02 0.975 -7.566
          0.01 22.046 0.177 82.354 0.975 -7.566 0.05 -90.02
1125 0.052 -90.387 0.975 -7.735 0.18 82.184 0.011 21.247
          0.975 -7.735 0.052 -90.387 0.011 21.247 0.18 82.184
          0.18 82.184 0.011 21.247 0.052 -90.387 0.975 -7.735
          0.011 21.247 0.18 82.184 0.975 -7.735 0.052 -90.387
1150 0.053 -90.745 0.974 -7.904 0.184 82.014 0.011 20.466
          0.974 -7.904 0.053 -90.745 0.011 20.466 0.184 82.014
          0.184 82.014 0.011 20.466 0.053 -90.745 0.974 -7.904
          0.011 20.466 0.184 82.014 0.974 -7.904 0.053 -90.745
1175 0.054 -91.096 0.973 -8.072 0.188 81.844 0.012 19.704
          0.973 -8.072 0.054 -91.096 0.012 19.704 0.188 81.844
          0.188 81.844 0.012 19.704 0.054 -91.096 0.973 -8.072
          0.012 19.704 0.188 81.844 0.973 -8.072 0.054 -91.096
1200 0.055 -91.44 0.972 -8.24 0.192 81.675 0.012 18.958
          0.972 -8.24 0.055 -91.44 0.012 18.958 0.192 81.675
          0.192 81.675 0.012 18.958 0.055 -91.44 0.972 -8.24
          0.012 18.958 0.192 81.675 0.972 -8.24 0.055 -91.44
1225 0.056 -91.776 0.971 -8.408 0.196 81.506 0.012 18.229
          0.971 -8.408 0.056 -91.776 0.012 18.229 0.196 81.506
          0.196 81.506 0.012 18.229 0.056 -91.776 0.971 -8.408
          0.012 18.229 0.196 81.506 0.971 -8.408 0.056 -91.776
1250 0.057 -92.106 0.971 -8.576 0.2 81.337 0.013 17.516
          0.971 -8.576 0.057 -92.106 0.013 17.516 0.2 81.337
          0.2 81.337 0.013 17.516 0.057 -92.106 0.971 -8.576
          0.013 17.516 0.2 81.337 0.971 -8.576 0.057 -92.106
1275 0.058 -92.429 0.97 -8.743 0.204 81.168 0.013 16.818
          0.97 -8.743 0.058 -92.429 0.013 16.818 0.204 81.168
          0.204 81.168 0.013 16.818 0.058 -92.429 0.97 -8.743
          0.013 16.818 0.204 81.168 0.97 -8.743 0.058 -92.429
1300 0.059 -92.747 0.969 -8.91 0.207 81 0.014 16.135
          0.969 -8.91 0.059 -92.747 0.014 16.135 0.207 81
          0.207 81 0.014 16.135 0.059 -92.747 0.969 -8.91
          0.014 16.135 0.207 81 0.969 -8.91 0.059 -92.747
1325 0.06 -93.059 0.968 -9.077 0.211 80.832 0.014 15.466
          0.968 -9.077 0.06 -93.059 0.014 15.466 0.211 80.832
          0.211 80.832 0.014 15.466 0.06 -93.059 0.968 -9.077
          0.014 15.466 0.211 80.832 0.968 -9.077 0.06 -93.059
1350 0.061 -93.366 0.967 -9.244 0.215 80.664 0.015 14.81
          0.967 -9.244 0.061 -93.366 0.015 14.81 0.215 80.664
          0.215 80.664 0.015 14.81 0.061 -93.366 0.967 -9.244
          0.015 14.81 0.215 80.664 0.967 -9.244 0.061 -93.366
1375 0.062 -93.668 0.966 -9.411 0.219 80.496 0.015 14.167
          0.966 -9.411 0.062 -93.668 0.015 14.167 0.219 80.496
          0.219 80.496 0.015 14.167 0.062 -93.668 0.966 -9.411
          0.015 14.167 0.219 80.496 0.966 -9.411 0.062 -93.668
1400 0.063 -93.965 0.965 -9.577 0.223 80.329 0.016 13.537
          0.965 -9.577 0.063 -93.965 0.016 13.537 0.223 80.329
          0.223 80.329 0.016 13.537 0.063 -93.965 0.965 -9.577
          0.016 13.537 0.223 80.329 0.965 -9.577 0.063 -93.965
1425 0.064 -94.257 0.964 -9.743 0.226 80.162 0.016 12.918
          0.964 -9.743 0.064 -94.257 0.016 12.918 0.226 80.162
          0.226 80.162 0.016 12.918 0.064 -94.257 0.964 -9.743
          0.016 12.918 0.226 80.162 0.964 -9.743 0.064 -94.257
1450 0.065 -94.545 0.963 -9.909 0.23 79.995 0.017 12.312
          0.963 -9.909 0.065 -94.545 0.017 12.312 0.23 79.995
          0.23 79.995 0.017 12.312 0.065 -94.545 0.963 -9.909
          0.017 12.312 0.23 79.995 0.963 -9.909 0.065 -94.545
1475 0.066 -94.828 0.962 -10.074 0.234 79.829 0.017 11.716
          0.962 -10.074 0.066 -94.828 0.017 11.716 0.234 79.829
          0.234 79.829 0.017 11.716 0.066 -94.828 0.962 -10.074
          0.017 11.716 0.234 79.829 0.962 -10.074 0.066 -94.828
1500 0.067 -95.108 0.961 -10.239 0.238 79.663 0.018 11.132
          0.961 -10.239 0.067 -95.108 0.018 11.132 0.238 79.663
          0.238 79.663 0.018 11.132 0.067 -95.108 0.961 -10.239
          0.018 11.132 0.238 79.663 0.961 -10.239 0.067 -95.108
1525 0.068 -95.384 0.96 -10.404 0.241 79.497 0.018 10.557
          0.96 -10.404 0.068 -95.384 0.018 10.557 0.241 79.497
          0.241 79.497 0.018 10.557 0.068 -95.384 0.96 -10.404
          0.018 10.557 0.241 79.497 0.96 -10.404 0.068 -95.384
1550 0.068 -95.655 0.959 -10.569 0.245 79.331 0.019 9.993
          0.959 -10.569 0.068 -95.655 0.019 9.993 0.245 79.331
          0.245 79.331 0.019 9.993 0.068 -95.655 0.959 -10.569
          0.019 9.993 0.245 79.331 0.959 -10.569 0.068 -95.655
1575 0.069 -95.924 0.958 -10.734 0.249 79.166 0.019 9.438
          0.958 -10.734 0.069 -95.924 0.019 9.438 0.249 79.166
          0.249 79.166 0.019 9.438 0.069 -95.924 0.958 -10.734
          0.019 9.438 0.249 79.166 0.958 -10.734 0.069 -95.924
1600 0.07 -96.188 0.957 -10.898 0.253 79.001 0.02 8.893
          0.957 -10.898 0.07 -96.188 0.02 8.893 0.253 79.001
          0.253 79.001 0.02 8.893 0.07 -96.188 0.957 -10.898
          0.02 8.893 0.253 79.001 0.957 -10.898 0.07 -96.188
1625 0.071 -96.45 0.956 -11.062 0.256 78.836 0.02 8.357
          0.956 -11.062 0.071 -96.45 0.02 8.357 0.256 78.836
          0.256 78.836 0.02 8.357 0.071 -96.45 0.956 -11.062
          0.02 8.357 0.256 78.836 0.956 -11.062 0.071 -96.45
1650 0.072 -96.708 0.955 -11.225 0.26 78.671 0.021 7.829
          0.955 -11.225 0.072 -96.708 0.021 7.829 0.26 78.671
          0.26 78.671 0.021 7.829 0.072 -96.708 0.955 -11.225
          0.021 7.829 0.26 78.671 0.955 -11.225 0.072 -96.708
1675 0.073 -96.963 0.954 -11.389 0.264 78.507 0.021 7.31
          0.954 -11.389 0.073 -96.963 0.021 7.31 0.264 78.507
          0.264 78.507 0.021 7.31 0.073 -96.963 0.954 -11.389
          0.021 7.31 0.264 78.507 0.954 -11.389 0.073 -96.963
1700 0.074 -97.215 0.953 -11.552 0.267 78.343 0.022 6.8
          0.953 -11.552 0.074 -97.215 0.022 6.8 0.267 78.343
          0.267 78.343 0.022 6.8 0.074 -97.215 0.953 -11.552
          0.022 6.8 0.267 78.343 0.953 -11.552 0.074 -97.215
1725 0.075 -97.464 0.952 -11.715 0.271 78.18 0.022 6.297
          0.952 -11.715 0.075 -97.464 0.022 6.297 0.271 78.18
          0.271 78.18 0.022 6.297 0.075 -97.464 0.952 -11.715
          0.022 6.297 0.271 78.18 0.952 -11.715 0.075 -97.464
1750 0.076 -97.71 0.951 -11.877 0.275 78.017 0.023 5.801
          0.951 -11.877 0.076 -97.71 0.023 5.801 0.275 78.017
          0.275 78.017 0.023 5.801 0.076 -97.71 0.951 -11.877
          0.023 5.801 0.275 78.017 0.951 -11.877 0.076 -97.71
1775 0.077 -97.954 0.95 -12.039 0.278 77.854 0.024 5.313
          0.95 -12.039 0.077 -97.954 0.024 5.313 0.278 77.854
          0.278 77.854 0.024 5.313 0.077 -97.954 0.95 -12.039
          0.024 5.313 0.278 77.854 0.95 -12.039 0.077 -97.954
1800 0.078 -98.195 0.948 -12.201 0.282 77.691 0.024 4.832
          0.948 -12.201 0.078 -98.195 0.024 4.832 0.282 77.691
          0.282 77.691 0.024 4.832 0.078 -98.195 0.948 -12.201
          0.024 4.832 0.282 77.691 0.948 -12.201 0.078 -98.195
1825 0.079 -98.433 0.947 -12.363 0.285 77.529 0.025 4.359
          0.947 -12.363 0.079 -98.433 0.025 4.359 0.285 77.529
          0.285 77.529 0.025 4.359 0.079 -98.433 0.947 -12.363
          0.025 4.359 0.285 77.529 0.947 -12.363 0.079 -98.433
1850 0.079 -98.669 0.946 -12.524 0.289 77.367 0.025 3.892
          0.946 -12.524 0.079 -98.669 0.025 3.892 0.289 77.367
          0.289 77.367 0.025 3.892 0.079 -98.669 0.946 -12.524
          0.025 3.892 0.289 77.367 0.946 -12.524 0.079 -98.669
1875 0.08 -98.902 0.945 -12.685 0.293 77.206 0.026 3.431
          0.945 -12.685 0.08 -98.902 0.026 3.431 0.293 77.206
          0.293 77.206 0.026 3.431 0.08 -98.902 0.945 -12.685
          0.026 3.431 0.293 77.206 0.945 -12.685 0.08 -98.902
1900 0.081 -99.133 0.944 -12.846 0.296 77.044 0.026 2.977
          0.944 -12.846 0.081 -99.133 0.026 2.977 0.296 77.044
          0.296 77.044 0.026 2.977 0.081 -99.133 0.944 -12.846
          0.026 2.977 0.296 77.044 0.944 -12.846 0.081 -99.133
1925 0.082 -99.362 0.943 -13.006 0.3 76.884 0.027 2.529
          0.943 -13.006 0.082 -99.362 0.027 2.529 0.3 76.884
          0.3 76.884 0.027 2.529 0.082 -99.362 0.943 -13.006
          0.027 2.529 0.3 76.884 0.943 -13.006 0.082 -99.362
1950 0.083 -99.588 0.941 -13.166 0.303 76.723 0.028 2.087
          0.941 -13.166 0.083 -99.588 0.028 2.087 0.303 76.723
          0.303 76.723 0.028 2.087 0.083 -99.588 0.941 -13.166
          0.028 2.087 0.303 76.723 0.941 -13.166 0.083 -99.588
1975 0.084 -99.812 0.94 -13.326 0.307 76.563 0.028 1.65
          0.94 -13.326 0.084 -99.812 0.028 1.65 0.307 76.563
          0.307 76.563 0.028 1.65 0.084 -99.812 0.94 -13.326
          0.028 1.65 0.307 76.563 0.94 -13.326 0.084 -99.812
2000 0.085 -100.034 0.939 -13.486 0.31 76.403 0.029 1.22
          0.939 -13.486 0.085 -100.034 0.029 1.22 0.31 76.403
          0.31 76.403 0.029 1.22 0.085 -100.034 0.939 -13.486
          0.029 1.22 0.31 76.403 0.939 -13.486 0.085 -100.034
