!	AVX THIN FILM OPERATION
!
!	CP0805 DIRECTIONAL COUPLERS
!	P/N CP0805AxxxxEWTR/ESTR
!
!	Network	Analyzer HP8720ES.07.64:Feb23,2000 Serial No.US39172382
!	Hewlett-Packard								
!
!	8 August 2007	02:45:57
# MHZ S MA R 50

100 0.011 87.161 0.999 -2.84 0.042 86.864 4.097e-3 -97.045
          0.999 -2.84 0.011 87.161 4.097e-3 -97.045 0.042 86.864
          0.042 86.864 4.097e-3 -97.045 0.011 87.161 0.999 -2.84
          4.097e-3 -97.045 0.042 86.864 0.999 -2.84 0.011 87.161
104.762 0.012 87.026 0.999 -2.975 0.044 86.715 4.292e-3 -97.38
          0.999 -2.975 0.012 87.026 4.292e-3 -97.38 0.044 86.715
          0.044 86.715 4.292e-3 -97.38 0.012 87.026 0.999 -2.975
          4.292e-3 -97.38 0.044 86.715 0.999 -2.975 0.012 87.026
109.524 0.012 86.891 0.999 -3.11 0.047 86.566 4.487e-3 -97.715
          0.999 -3.11 0.012 86.892 4.487e-3 -97.715 0.047 86.566
          0.047 86.566 4.487e-3 -97.715 0.012 86.891 0.999 -3.11
          4.487e-3 -97.715 0.047 86.566 0.999 -3.11 0.012 86.892
114.286 0.013 86.757 0.999 -3.245 0.049 86.417 4.682e-3 -98.05
          0.999 -3.245 0.013 86.757 4.682e-3 -98.05 0.049 86.417
          0.049 86.417 4.682e-3 -98.05 0.013 86.757 0.999 -3.245
          4.682e-3 -98.05 0.049 86.417 0.999 -3.245 0.013 86.757
119.048 0.013 86.622 0.998 -3.38 0.051 86.268 4.876e-3 -98.385
          0.998 -3.38 0.013 86.623 4.876e-3 -98.385 0.051 86.268
          0.051 86.268 4.876e-3 -98.385 0.013 86.622 0.998 -3.38
          4.876e-3 -98.385 0.051 86.268 0.998 -3.38 0.013 86.623
123.81 0.014 86.487 0.998 -3.514 0.053 86.119 5.071e-3 -98.719
          0.998 -3.514 0.014 86.488 5.071e-3 -98.719 0.053 86.119
          0.053 86.119 5.071e-3 -98.719 0.014 86.487 0.998 -3.514
          5.071e-3 -98.719 0.053 86.119 0.998 -3.514 0.014 86.488
128.571 0.014 86.353 0.998 -3.649 0.055 85.97 5.266e-3 -99.054
          0.998 -3.649 0.014 86.354 5.266e-3 -99.054 0.055 85.97
          0.055 85.97 5.266e-3 -99.054 0.014 86.353 0.998 -3.649
          5.266e-3 -99.054 0.055 85.97 0.998 -3.649 0.014 86.354
133.333 0.015 86.218 0.998 -3.784 0.057 85.821 5.461e-3 -99.388
          0.998 -3.784 0.015 86.219 5.461e-3 -99.388 0.057 85.821
          0.057 85.821 5.461e-3 -99.388 0.015 86.218 0.998 -3.784
          5.461e-3 -99.388 0.057 85.821 0.998 -3.784 0.015 86.219
138.095 0.015 86.084 0.998 -3.919 0.059 85.673 5.655e-3 -99.722
          0.998 -3.919 0.015 86.085 5.655e-3 -99.722 0.059 85.672
          0.059 85.673 5.655e-3 -99.722 0.015 86.084 0.998 -3.919
          5.655e-3 -99.722 0.059 85.672 0.998 -3.919 0.015 86.085
142.857 0.016 85.95 0.998 -4.053 0.061 85.524 5.85e-3 -100.057
          0.998 -4.053 0.016 85.951 5.85e-3 -100.057 0.061 85.524
          0.061 85.524 5.85e-3 -100.057 0.016 85.95 0.998 -4.053
          5.85e-3 -100.057 0.061 85.524 0.998 -4.053 0.016 85.951
147.619 0.016 85.816 0.998 -4.188 0.063 85.375 6.044e-3 -100.391
          0.998 -4.188 0.016 85.817 6.044e-3 -100.391 0.063 85.375
          0.063 85.375 6.044e-3 -100.391 0.016 85.816 0.998 -4.188
          6.044e-3 -100.391 0.063 85.375 0.998 -4.188 0.016 85.817
152.381 0.017 85.681 0.997 -4.322 0.065 85.227 6.239e-3 -100.725
          0.997 -4.322 0.017 85.683 6.239e-3 -100.725 0.065 85.226
          0.065 85.227 6.239e-3 -100.725 0.017 85.681 0.997 -4.322
          6.239e-3 -100.725 0.065 85.226 0.997 -4.322 0.017 85.683
157.143 0.018 85.547 0.997 -4.457 0.067 85.078 6.433e-3 -101.059
          0.997 -4.457 0.017 85.549 6.433e-3 -101.059 0.067 85.078
          0.067 85.078 6.433e-3 -101.059 0.018 85.547 0.997 -4.457
          6.433e-3 -101.059 0.067 85.078 0.997 -4.457 0.017 85.549
161.905 0.018 85.413 0.997 -4.591 0.069 84.93 6.628e-3 -101.392
          0.997 -4.591 0.018 85.415 6.628e-3 -101.392 0.069 84.929
          0.069 84.93 6.628e-3 -101.392 0.018 85.413 0.997 -4.591
          6.628e-3 -101.392 0.069 84.929 0.997 -4.591 0.018 85.415
166.667 0.019 85.279 0.997 -4.726 0.071 84.781 6.822e-3 -101.726
          0.997 -4.726 0.019 85.281 6.822e-3 -101.726 0.071 84.781
          0.071 84.781 6.822e-3 -101.726 0.019 85.279 0.997 -4.726
          6.822e-3 -101.726 0.071 84.781 0.997 -4.726 0.019 85.281
171.429 0.019 85.146 0.997 -4.86 0.073 84.633 7.016e-3 -102.059
          0.997 -4.86 0.019 85.147 7.016e-3 -102.059 0.073 84.632
          0.073 84.633 7.016e-3 -102.059 0.019 85.146 0.997 -4.86
          7.016e-3 -102.059 0.073 84.632 0.997 -4.86 0.019 85.147
176.19 0.02 85.012 0.996 -4.994 0.075 84.484 7.211e-3 -102.393
          0.996 -4.994 0.02 85.014 7.211e-3 -102.393 0.075 84.484
          0.075 84.484 7.211e-3 -102.393 0.02 85.012 0.996 -4.994
          7.211e-3 -102.393 0.075 84.484 0.996 -4.994 0.02 85.014
180.952 0.02 84.878 0.996 -5.128 0.077 84.336 7.405e-3 -102.726
          0.996 -5.128 0.02 84.88 7.405e-3 -102.726 0.077 84.336
          0.077 84.336 7.405e-3 -102.726 0.02 84.878 0.996 -5.128
          7.405e-3 -102.726 0.077 84.336 0.996 -5.128 0.02 84.88
185.714 0.021 84.745 0.996 -5.263 0.079 84.188 7.599e-3 -103.059
          0.996 -5.263 0.021 84.747 7.599e-3 -103.059 0.079 84.188
          0.079 84.188 7.599e-3 -103.059 0.021 84.745 0.996 -5.263
          7.599e-3 -103.059 0.079 84.188 0.996 -5.263 0.021 84.747
190.476 0.021 84.611 0.996 -5.397 0.081 84.04 7.793e-3 -103.392
          0.996 -5.397 0.021 84.614 7.793e-3 -103.392 0.081 84.04
          0.081 84.04 7.793e-3 -103.392 0.021 84.611 0.996 -5.397
          7.793e-3 -103.392 0.081 84.04 0.996 -5.397 0.021 84.614
195.238 0.022 84.478 0.996 -5.531 0.083 83.892 7.987e-3 -103.725
          0.996 -5.531 0.022 84.481 7.987e-3 -103.725 0.083 83.891
          0.083 83.892 7.987e-3 -103.725 0.022 84.478 0.996 -5.531
          7.987e-3 -103.725 0.083 83.891 0.996 -5.531 0.022 84.481
200 0.022 84.345 0.995 -5.665 0.085 83.744 8.181e-3 -104.058
          0.995 -5.665 0.022 84.348 8.181e-3 -104.058 0.085 83.743
          0.085 83.744 8.181e-3 -104.058 0.022 84.345 0.995 -5.665
          8.181e-3 -104.058 0.085 83.743 0.995 -5.665 0.022 84.348
204.762 0.023 84.212 0.995 -5.799 0.087 83.596 8.375e-3 -104.39
          0.995 -5.799 0.023 84.215 8.375e-3 -104.39 0.087 83.596
          0.087 83.596 8.375e-3 -104.39 0.023 84.212 0.995 -5.799
          8.375e-3 -104.39 0.087 83.596 0.995 -5.799 0.023 84.215
209.524 0.023 84.079 0.995 -5.932 0.089 83.448 8.569e-3 -104.722
          0.995 -5.932 0.023 84.082 8.569e-3 -104.722 0.089 83.448
          0.089 83.448 8.569e-3 -104.722 0.023 84.079 0.995 -5.932
          8.569e-3 -104.722 0.089 83.448 0.995 -5.932 0.023 84.082
214.286 0.024 83.946 0.995 -6.066 0.091 83.3 8.763e-3 -105.055
          0.995 -6.066 0.024 83.949 8.763e-3 -105.055 0.091 83.3
          0.091 83.3 8.763e-3 -105.055 0.024 83.946 0.995 -6.066
          8.763e-3 -105.055 0.091 83.3 0.995 -6.066 0.024 83.949
219.048 0.024 83.813 0.995 -6.2 0.093 83.153 8.956e-3 -105.387
          0.995 -6.2 0.024 83.817 8.956e-3 -105.387 0.093 83.152
          0.093 83.153 8.956e-3 -105.387 0.024 83.813 0.995 -6.2
          8.956e-3 -105.387 0.093 83.152 0.995 -6.2 0.024 83.817
223.81 0.025 83.68 0.994 -6.333 0.095 83.005 9.15e-3 -105.719
          0.994 -6.333 0.025 83.684 9.15e-3 -105.719 0.095 83.005
          0.095 83.005 9.15e-3 -105.719 0.025 83.68 0.994 -6.333
          9.15e-3 -105.719 0.095 83.005 0.994 -6.333 0.025 83.684
228.571 0.025 83.548 0.994 -6.467 0.096 82.858 9.344e-3 -106.05
          0.994 -6.467 0.025 83.552 9.344e-3 -106.05 0.097 82.857
          0.096 82.858 9.344e-3 -106.05 0.025 83.548 0.994 -6.467
          9.344e-3 -106.05 0.097 82.857 0.994 -6.467 0.025 83.552
233.333 0.026 83.415 0.994 -6.6 0.098 82.71 9.537e-3 -106.382
          0.994 -6.6 0.026 83.42 9.537e-3 -106.382 0.099 82.709
          0.098 82.71 9.537e-3 -106.382 0.026 83.415 0.994 -6.6
          9.537e-3 -106.382 0.099 82.709 0.994 -6.6 0.026 83.42
238.095 0.026 83.283 0.994 -6.734 0.1 82.563 9.731e-3 -106.713
          0.994 -6.734 0.026 83.288 9.731e-3 -106.713 0.101 82.562
          0.1 82.563 9.731e-3 -106.713 0.026 83.283 0.994 -6.734
          9.731e-3 -106.713 0.101 82.562 0.994 -6.734 0.026 83.288
242.857 0.027 83.15 0.993 -6.867 0.102 82.416 9.924e-3 -107.044
          0.993 -6.867 0.027 83.156 9.924e-3 -107.044 0.102 82.415
          0.102 82.416 9.924e-3 -107.044 0.027 83.15 0.993 -6.867
          9.924e-3 -107.044 0.102 82.415 0.993 -6.867 0.027 83.156
247.619 0.027 83.018 0.993 -7 0.104 82.268 0.01 -107.375
          0.993 -7 0.027 83.024 0.01 -107.375 0.104 82.268
          0.104 82.268 0.01 -107.375 0.027 83.018 0.993 -7
          0.01 -107.375 0.104 82.268 0.993 -7 0.027 83.024
252.381 0.028 82.886 0.993 -7.133 0.106 82.121 0.01 -107.706
          0.993 -7.133 0.028 82.892 0.01 -107.706 0.106 82.12
          0.106 82.121 0.01 -107.706 0.028 82.886 0.993 -7.133
          0.01 -107.706 0.106 82.12 0.993 -7.133 0.028 82.892
257.143 0.028 82.755 0.993 -7.266 0.108 81.974 0.011 -108.037
          0.993 -7.266 0.028 82.761 0.011 -108.037 0.108 81.973
          0.108 81.974 0.011 -108.037 0.028 82.755 0.993 -7.266
          0.011 -108.037 0.108 81.973 0.993 -7.266 0.028 82.761
261.905 0.029 82.623 0.992 -7.399 0.11 81.827 0.011 -108.367
          0.992 -7.399 0.029 82.629 0.011 -108.367 0.11 81.826
          0.11 81.827 0.011 -108.367 0.029 82.623 0.992 -7.399
          0.011 -108.367 0.11 81.826 0.992 -7.399 0.029 82.629
266.667 0.03 82.491 0.992 -7.532 0.112 81.681 0.011 -108.697
          0.992 -7.532 0.029 82.498 0.011 -108.697 0.112 81.679
          0.112 81.681 0.011 -108.697 0.03 82.491 0.992 -7.532
          0.011 -108.697 0.112 81.679 0.992 -7.532 0.029 82.498
271.429 0.03 82.36 0.992 -7.665 0.114 81.534 0.011 -109.027
          0.992 -7.665 0.03 82.367 0.011 -109.027 0.114 81.533
          0.114 81.534 0.011 -109.027 0.03 82.36 0.992 -7.665
          0.011 -109.027 0.114 81.533 0.992 -7.665 0.03 82.367
276.19 0.031 82.228 0.991 -7.798 0.116 81.387 0.011 -109.357
          0.991 -7.798 0.03 82.236 0.011 -109.357 0.116 81.386
          0.116 81.387 0.011 -109.357 0.031 82.228 0.991 -7.798
          0.011 -109.357 0.116 81.386 0.991 -7.798 0.03 82.236
280.952 0.031 82.097 0.991 -7.93 0.118 81.241 0.011 -109.687
          0.991 -7.93 0.031 82.105 0.011 -109.687 0.118 81.239
          0.118 81.241 0.011 -109.687 0.031 82.097 0.991 -7.93
          0.011 -109.687 0.118 81.239 0.991 -7.93 0.031 82.105
285.714 0.032 81.966 0.991 -8.063 0.12 81.094 0.012 -110.016
          0.991 -8.063 0.031 81.975 0.012 -110.016 0.12 81.093
          0.12 81.094 0.012 -110.016 0.032 81.966 0.991 -8.063
          0.012 -110.016 0.12 81.093 0.991 -8.063 0.031 81.975
290.476 0.032 81.835 0.99 -8.195 0.122 80.948 0.012 -110.346
          0.99 -8.195 0.032 81.844 0.012 -110.346 0.122 80.947
          0.122 80.948 0.012 -110.346 0.032 81.835 0.99 -8.195
          0.012 -110.346 0.122 80.947 0.99 -8.195 0.032 81.844
295.238 0.033 81.705 0.99 -8.328 0.124 80.802 0.012 -110.675
          0.99 -8.328 0.032 81.714 0.012 -110.675 0.124 80.8
          0.124 80.802 0.012 -110.675 0.033 81.705 0.99 -8.328
          0.012 -110.675 0.124 80.8 0.99 -8.328 0.032 81.714
300 0.033 81.574 0.99 -8.46 0.126 80.656 0.012 -111.003
          0.99 -8.46 0.033 81.584 0.012 -111.003 0.126 80.654
          0.126 80.656 0.012 -111.003 0.033 81.574 0.99 -8.46
          0.012 -111.003 0.126 80.654 0.99 -8.46 0.033 81.584
304.762 0.034 81.444 0.99 -8.592 0.128 80.51 0.012 -111.332
          0.99 -8.592 0.033 81.454 0.012 -111.332 0.128 80.508
          0.128 80.51 0.012 -111.332 0.034 81.444 0.99 -8.592
          0.012 -111.332 0.128 80.508 0.99 -8.592 0.033 81.454
309.524 0.034 81.313 0.989 -8.724 0.13 80.364 0.013 -111.66
          0.989 -8.724 0.034 81.324 0.013 -111.66 0.13 80.362
          0.13 80.364 0.013 -111.66 0.034 81.313 0.989 -8.724
          0.013 -111.66 0.13 80.362 0.989 -8.724 0.034 81.324
314.286 0.035 81.183 0.989 -8.856 0.132 80.218 0.013 -111.988
          0.989 -8.856 0.035 81.194 0.013 -111.988 0.132 80.216
          0.132 80.218 0.013 -111.988 0.035 81.183 0.989 -8.856
          0.013 -111.988 0.132 80.216 0.989 -8.856 0.035 81.194
319.048 0.035 81.053 0.989 -8.988 0.134 80.072 0.013 -112.316
          0.989 -8.988 0.035 81.065 0.013 -112.316 0.134 80.07
          0.134 80.072 0.013 -112.316 0.035 81.053 0.989 -8.988
          0.013 -112.316 0.134 80.07 0.989 -8.988 0.035 81.065
323.81 0.036 80.923 0.988 -9.119 0.136 79.927 0.013 -112.644
          0.988 -9.119 0.036 80.936 0.013 -112.644 0.136 79.925
          0.136 79.927 0.013 -112.644 0.036 80.923 0.988 -9.119
          0.013 -112.644 0.136 79.925 0.988 -9.119 0.036 80.936
328.571 0.036 80.794 0.988 -9.251 0.138 79.781 0.013 -112.971
          0.988 -9.251 0.036 80.807 0.013 -112.971 0.138 79.779
          0.138 79.781 0.013 -112.971 0.036 80.794 0.988 -9.251
          0.013 -112.971 0.138 79.779 0.988 -9.251 0.036 80.807
333.333 0.037 80.664 0.988 -9.383 0.14 79.636 0.014 -113.299
          0.988 -9.383 0.037 80.678 0.014 -113.299 0.14 79.634
          0.14 79.636 0.014 -113.299 0.037 80.664 0.988 -9.383
          0.014 -113.299 0.14 79.634 0.988 -9.383 0.037 80.678
338.095 0.037 80.535 0.987 -9.514 0.141 79.491 0.014 -113.626
          0.987 -9.514 0.037 80.549 0.014 -113.626 0.142 79.488
          0.141 79.491 0.014 -113.626 0.037 80.535 0.987 -9.514
          0.014 -113.626 0.142 79.488 0.987 -9.514 0.037 80.549
342.857 0.038 80.406 0.987 -9.645 0.143 79.345 0.014 -113.952
          0.987 -9.645 0.038 80.42 0.014 -113.952 0.144 79.343
          0.143 79.345 0.014 -113.952 0.038 80.406 0.987 -9.645
          0.014 -113.952 0.144 79.343 0.987 -9.645 0.038 80.42
347.619 0.038 80.277 0.986 -9.776 0.145 79.2 0.014 -114.279
          0.986 -9.776 0.038 80.292 0.014 -114.279 0.146 79.198
          0.145 79.2 0.014 -114.279 0.038 80.277 0.986 -9.776
          0.014 -114.279 0.146 79.198 0.986 -9.776 0.038 80.292
352.381 0.039 80.148 0.986 -9.907 0.147 79.056 0.014 -114.605
          0.986 -9.907 0.039 80.164 0.014 -114.605 0.147 79.053
          0.147 79.056 0.014 -114.605 0.039 80.148 0.986 -9.907
          0.014 -114.605 0.147 79.053 0.986 -9.907 0.039 80.164
357.143 0.039 80.019 0.986 -10.038 0.149 78.911 0.015 -114.931
          0.986 -10.038 0.039 80.036 0.015 -114.931 0.149 78.908
          0.149 78.911 0.015 -114.931 0.039 80.019 0.986 -10.038
          0.015 -114.931 0.149 78.908 0.986 -10.038 0.039 80.036
361.905 0.04 79.891 0.985 -10.169 0.151 78.766 0.015 -115.257
          0.985 -10.169 0.04 79.908 0.015 -115.257 0.151 78.763
          0.151 78.766 0.015 -115.257 0.04 79.891 0.985 -10.169
          0.015 -115.257 0.151 78.763 0.985 -10.169 0.04 79.908
366.667 0.04 79.762 0.985 -10.3 0.153 78.622 0.015 -115.582
          0.985 -10.3 0.04 79.78 0.015 -115.582 0.153 78.619
          0.153 78.622 0.015 -115.582 0.04 79.762 0.985 -10.3
          0.015 -115.582 0.153 78.619 0.985 -10.3 0.04 79.78
371.429 0.041 79.634 0.985 -10.431 0.155 78.477 0.015 -115.907
          0.985 -10.431 0.041 79.653 0.015 -115.907 0.155 78.474
          0.155 78.477 0.015 -115.907 0.041 79.634 0.985 -10.431
          0.015 -115.907 0.155 78.474 0.985 -10.431 0.041 79.653
376.19 0.041 79.506 0.984 -10.561 0.157 78.333 0.015 -116.232
          0.984 -10.561 0.041 79.526 0.015 -116.232 0.157 78.33
          0.157 78.333 0.015 -116.232 0.041 79.506 0.984 -10.561
          0.015 -116.232 0.157 78.33 0.984 -10.561 0.041 79.526
380.952 0.042 79.378 0.984 -10.691 0.159 78.189 0.015 -116.557
          0.984 -10.691 0.041 79.399 0.015 -116.557 0.159 78.186
          0.159 78.189 0.015 -116.557 0.042 79.378 0.984 -10.691
          0.015 -116.557 0.159 78.186 0.984 -10.691 0.041 79.399
385.714 0.042 79.251 0.983 -10.822 0.161 78.045 0.016 -116.881
          0.983 -10.822 0.042 79.272 0.016 -116.881 0.161 78.041
          0.161 78.045 0.016 -116.881 0.042 79.251 0.983 -10.822
          0.016 -116.881 0.161 78.041 0.983 -10.822 0.042 79.272
390.476 0.043 79.123 0.983 -10.952 0.163 77.901 0.016 -117.205
          0.983 -10.952 0.042 79.145 0.016 -117.205 0.163 77.897
          0.163 77.901 0.016 -117.205 0.043 79.123 0.983 -10.952
          0.016 -117.205 0.163 77.897 0.983 -10.952 0.042 79.145
395.238 0.043 78.996 0.983 -11.082 0.164 77.757 0.016 -117.529
          0.983 -11.082 0.043 79.019 0.016 -117.529 0.165 77.754
          0.164 77.757 0.016 -117.529 0.043 78.996 0.983 -11.082
          0.016 -117.529 0.165 77.754 0.983 -11.082 0.043 79.019
400 0.044 78.869 0.982 -11.212 0.166 77.614 0.016 -117.853
          0.982 -11.212 0.043 78.893 0.016 -117.853 0.167 77.61
          0.166 77.614 0.016 -117.853 0.044 78.869 0.982 -11.212
          0.016 -117.853 0.167 77.61 0.982 -11.212 0.043 78.893
404.762 0.044 78.742 0.982 -11.342 0.168 77.47 0.016 -118.176
          0.982 -11.342 0.044 78.767 0.016 -118.176 0.169 77.466
          0.168 77.47 0.016 -118.176 0.044 78.742 0.982 -11.342
          0.016 -118.176 0.169 77.466 0.982 -11.342 0.044 78.767
409.524 0.045 78.616 0.981 -11.471 0.17 77.327 0.017 -118.499
          0.981 -11.471 0.044 78.641 0.017 -118.499 0.17 77.323
          0.17 77.327 0.017 -118.499 0.045 78.616 0.981 -11.471
          0.017 -118.499 0.17 77.323 0.981 -11.471 0.044 78.641
414.286 0.045 78.489 0.981 -11.601 0.172 77.184 0.017 -118.822
          0.981 -11.601 0.045 78.516 0.017 -118.822 0.172 77.179
          0.172 77.184 0.017 -118.822 0.045 78.489 0.981 -11.601
          0.017 -118.822 0.172 77.179 0.981 -11.601 0.045 78.516
419.048 0.046 78.363 0.981 -11.73 0.174 77.041 0.017 -119.144
          0.981 -11.73 0.045 78.39 0.017 -119.144 0.174 77.036
          0.174 77.041 0.017 -119.144 0.046 78.363 0.981 -11.73
          0.017 -119.144 0.174 77.036 0.981 -11.73 0.045 78.39
423.81 0.046 78.237 0.98 -11.859 0.176 76.898 0.017 -119.466
          0.98 -11.859 0.046 78.265 0.017 -119.466 0.176 76.893
          0.176 76.898 0.017 -119.466 0.046 78.237 0.98 -11.859
          0.017 -119.466 0.176 76.893 0.98 -11.859 0.046 78.265
428.571 0.047 78.111 0.98 -11.988 0.178 76.755 0.017 -119.788
          0.98 -11.988 0.046 78.14 0.017 -119.788 0.178 76.75
          0.178 76.755 0.017 -119.788 0.047 78.111 0.98 -11.988
          0.017 -119.788 0.178 76.75 0.98 -11.988 0.046 78.14
433.333 0.047 77.985 0.979 -12.117 0.179 76.612 0.018 -120.109
          0.979 -12.117 0.047 78.016 0.018 -120.109 0.18 76.607
          0.179 76.612 0.018 -120.109 0.047 77.985 0.979 -12.117
          0.018 -120.109 0.18 76.607 0.979 -12.117 0.047 78.016
438.095 0.048 77.86 0.979 -12.246 0.181 76.47 0.018 -120.431
          0.979 -12.246 0.047 77.891 0.018 -120.431 0.182 76.465
          0.181 76.47 0.018 -120.431 0.048 77.86 0.979 -12.246
          0.018 -120.431 0.182 76.465 0.979 -12.246 0.047 77.891
442.857 0.048 77.734 0.978 -12.375 0.183 76.328 0.018 -120.752
          0.978 -12.375 0.048 77.767 0.018 -120.752 0.184 76.322
          0.183 76.328 0.018 -120.752 0.048 77.734 0.978 -12.375
          0.018 -120.752 0.184 76.322 0.978 -12.375 0.048 77.767
447.619 0.049 77.609 0.978 -12.503 0.185 76.185 0.018 -121.072
          0.978 -12.503 0.048 77.643 0.018 -121.072 0.185 76.18
          0.185 76.185 0.018 -121.072 0.049 77.609 0.978 -12.503
          0.018 -121.072 0.185 76.18 0.978 -12.503 0.048 77.643
452.381 0.049 77.484 0.977 -12.632 0.187 76.043 0.018 -121.393
          0.977 -12.632 0.049 77.519 0.018 -121.393 0.187 76.038
          0.187 76.043 0.018 -121.393 0.049 77.484 0.977 -12.632
          0.018 -121.393 0.187 76.038 0.977 -12.632 0.049 77.519
457.143 0.05 77.36 0.977 -12.76 0.189 75.901 0.019 -121.713
          0.977 -12.76 0.049 77.396 0.019 -121.713 0.189 75.896
          0.189 75.901 0.019 -121.713 0.05 77.36 0.977 -12.76
          0.019 -121.713 0.189 75.896 0.977 -12.76 0.049 77.396
461.905 0.05 77.235 0.977 -12.888 0.191 75.76 0.019 -122.032
          0.977 -12.888 0.05 77.273 0.019 -122.032 0.191 75.754
          0.191 75.76 0.019 -122.032 0.05 77.235 0.977 -12.888
          0.019 -122.032 0.191 75.754 0.977 -12.888 0.05 77.273
466.667 0.051 77.111 0.976 -13.016 0.192 75.618 0.019 -122.352
