!	AVX THIN FILM OPERATION
!
!	CP0805 COUPLERS
!	P/N CP0805AxxxxCSTR
!
!	Network	Analyzer HP8720ES.07.64:Feb23,2000 Serial No.US39172382
!	Hewlett-Packard								
!
!	5 October 2009	

# MHZ S MA R 50

50 5.706e-3 29.987 0.995 -0.862 0.012 89.124 834.5e-6 -93.255
          0.995 -0.862 5.706e-3 29.987 834.5e-6 -93.255 0.012 89.124
          0.012 89.124 834.5e-6 -93.255 5.706e-3 29.987 0.995 -0.862
          834.5e-6 -93.255 0.012 89.124 0.995 -0.862 5.706e-3 29.987
57.393 5.942e-3 33.427 0.995 -0.99 0.014 88.995 958e-6 -93.743
          0.995 -0.99 5.942e-3 33.427 958e-6 -93.743 0.014 88.995
          0.014 88.995 958e-6 -93.743 5.942e-3 33.427 0.995 -0.99
          958e-6 -93.743 0.014 88.995 0.995 -0.99 5.942e-3 33.427
64.787 6.199e-3 36.58 0.995 -1.117 0.016 88.866 1.082e-3 -94.23
          0.995 -1.117 6.199e-3 36.58 1.082e-3 -94.23 0.016 88.866
          0.016 88.866 1.082e-3 -94.23 6.199e-3 36.58 0.995 -1.117
          1.082e-3 -94.23 0.016 88.866 0.995 -1.117 6.199e-3 36.58
72.18 6.476e-3 39.46 0.995 -1.244 0.018 88.737 1.205e-3 -94.717
          0.995 -1.244 6.476e-3 39.46 1.205e-3 -94.717 0.018 88.737
          0.018 88.737 1.205e-3 -94.717 6.476e-3 39.46 0.995 -1.244
          1.205e-3 -94.717 0.018 88.737 0.995 -1.244 6.476e-3 39.46
79.574 6.769e-3 42.083 0.995 -1.372 0.02 88.608 1.329e-3 -95.204
          0.995 -1.372 6.769e-3 42.083 1.329e-3 -95.204 0.02 88.608
          0.02 88.608 1.329e-3 -95.204 6.769e-3 42.083 0.995 -1.372
          1.329e-3 -95.204 0.02 88.608 0.995 -1.372 6.769e-3 42.083
86.967 7.076e-3 44.47 0.995 -1.499 0.022 88.479 1.453e-3 -95.691
          0.995 -1.499 7.076e-3 44.47 1.453e-3 -95.691 0.022 88.479
          0.022 88.479 1.453e-3 -95.691 7.076e-3 44.47 0.995 -1.499
          1.453e-3 -95.691 0.022 88.479 0.995 -1.499 7.076e-3 44.47
94.361 7.396e-3 46.64 0.995 -1.627 0.023 88.35 1.577e-3 -96.177
          0.995 -1.627 7.396e-3 46.64 1.577e-3 -96.177 0.023 88.35
          0.023 88.35 1.577e-3 -96.177 7.396e-3 46.64 0.995 -1.627
          1.577e-3 -96.177 0.023 88.35 0.995 -1.627 7.396e-3 46.64
101.754 7.727e-3 48.614 0.995 -1.754 0.025 88.221 1.7e-3 -96.663
          0.995 -1.754 7.727e-3 48.614 1.7e-3 -96.663 0.025 88.221
          0.025 88.221 1.7e-3 -96.663 7.727e-3 48.614 0.995 -1.754
          1.7e-3 -96.663 0.025 88.221 0.995 -1.754 7.727e-3 48.614
109.148 8.068e-3 50.41 0.995 -1.882 0.027 88.092 1.824e-3 -97.149
          0.995 -1.882 8.068e-3 50.41 1.824e-3 -97.149 0.027 88.092
          0.027 88.092 1.824e-3 -97.149 8.068e-3 50.41 0.995 -1.882
          1.824e-3 -97.149 0.027 88.092 0.995 -1.882 8.068e-3 50.41
116.541 8.418e-3 52.045 0.995 -2.009 0.029 87.963 1.949e-3 -97.635
          0.995 -2.009 8.418e-3 52.045 1.949e-3 -97.635 0.029 87.963
          0.029 87.963 1.949e-3 -97.635 8.418e-3 52.045 0.995 -2.009
          1.949e-3 -97.635 0.029 87.963 0.995 -2.009 8.418e-3 52.045
123.935 8.774e-3 53.535 0.995 -2.136 0.031 87.834 2.073e-3 -98.121
          0.995 -2.136 8.774e-3 53.535 2.073e-3 -98.121 0.031 87.834
          0.031 87.834 2.073e-3 -98.121 8.774e-3 53.535 0.995 -2.136
          2.073e-3 -98.121 0.031 87.834 0.995 -2.136 8.774e-3 53.535
131.328 9.138e-3 54.895 0.995 -2.264 0.032 87.705 2.197e-3 -98.606
          0.995 -2.264 9.138e-3 54.895 2.197e-3 -98.606 0.032 87.705
          0.032 87.705 2.197e-3 -98.606 9.138e-3 54.895 0.995 -2.264
          2.197e-3 -98.606 0.032 87.705 0.995 -2.264 9.138e-3 54.895
138.722 9.507e-3 56.138 0.994 -2.391 0.034 87.576 2.322e-3 -99.091
          0.994 -2.391 9.507e-3 56.138 2.322e-3 -99.091 0.034 87.576
          0.034 87.576 2.322e-3 -99.091 9.507e-3 56.138 0.994 -2.391
          2.322e-3 -99.091 0.034 87.576 0.994 -2.391 9.507e-3 56.138
146.115 9.881e-3 57.275 0.994 -2.518 0.036 87.447 2.446e-3 -99.576
          0.994 -2.518 9.881e-3 57.275 2.446e-3 -99.576 0.036 87.447
          0.036 87.447 2.446e-3 -99.576 9.881e-3 57.275 0.994 -2.518
          2.446e-3 -99.576 0.036 87.447 0.994 -2.518 9.881e-3 57.275
153.509 0.01 58.317 0.994 -2.646 0.038 87.318 2.571e-3 -100.06
          0.994 -2.646 0.01 58.317 2.571e-3 -100.06 0.038 87.318
          0.038 87.318 2.571e-3 -100.06 0.01 58.317 0.994 -2.646
          2.571e-3 -100.06 0.038 87.318 0.994 -2.646 0.01 58.317
160.902 0.011 59.273 0.994 -2.773 0.04 87.189 2.696e-3 -100.544
          0.994 -2.773 0.011 59.273 2.696e-3 -100.544 0.04 87.189
          0.04 87.189 2.696e-3 -100.544 0.011 59.273 0.994 -2.773
          2.696e-3 -100.544 0.04 87.189 0.994 -2.773 0.011 59.273
168.296 0.011 60.15 0.994 -2.9 0.042 87.06 2.821e-3 -101.028
          0.994 -2.9 0.011 60.15 2.821e-3 -101.028 0.042 87.06
          0.042 87.06 2.821e-3 -101.028 0.011 60.15 0.994 -2.9
          2.821e-3 -101.028 0.042 87.06 0.994 -2.9 0.011 60.15
175.689 0.011 60.957 0.994 -3.027 0.043 86.931 2.946e-3 -101.512
          0.994 -3.027 0.011 60.957 2.946e-3 -101.512 0.043 86.931
          0.043 86.931 2.946e-3 -101.512 0.011 60.957 0.994 -3.027
          2.946e-3 -101.512 0.043 86.931 0.994 -3.027 0.011 60.957
183.083 0.012 61.7 0.994 -3.155 0.045 86.802 3.071e-3 -101.995
          0.994 -3.155 0.012 61.7 3.071e-3 -101.995 0.045 86.802
          0.045 86.802 3.071e-3 -101.995 0.012 61.7 0.994 -3.155
          3.071e-3 -101.995 0.045 86.802 0.994 -3.155 0.012 61.7
190.476 0.012 62.385 0.994 -3.282 0.047 86.674 3.196e-3 -102.477
          0.994 -3.282 0.012 62.385 3.196e-3 -102.477 0.047 86.674
          0.047 86.674 3.196e-3 -102.477 0.012 62.385 0.994 -3.282
          3.196e-3 -102.477 0.047 86.674 0.994 -3.282 0.012 62.385
197.87 0.013 63.017 0.994 -3.409 0.049 86.545 3.322e-3 -102.96
          0.994 -3.409 0.013 63.017 3.322e-3 -102.96 0.049 86.545
          0.049 86.545 3.322e-3 -102.96 0.013 63.017 0.994 -3.409
          3.322e-3 -102.96 0.049 86.545 0.994 -3.409 0.013 63.017
205.263 0.013 63.6 0.994 -3.536 0.051 86.416 3.448e-3 -103.442
          0.994 -3.536 0.013 63.6 3.448e-3 -103.442 0.051 86.416
          0.051 86.416 3.448e-3 -103.442 0.013 63.6 0.994 -3.536
          3.448e-3 -103.442 0.051 86.416 0.994 -3.536 0.013 63.6
212.657 0.013 64.139 0.994 -3.663 0.052 86.287 3.574e-3 -103.923
          0.994 -3.663 0.013 64.139 3.574e-3 -103.923 0.052 86.287
          0.052 86.287 3.574e-3 -103.923 0.013 64.139 0.994 -3.663
          3.574e-3 -103.923 0.052 86.287 0.994 -3.663 0.013 64.139
220.05 0.014 64.636 0.994 -3.79 0.054 86.159 3.7e-3 -104.404
          0.994 -3.79 0.014 64.636 3.7e-3 -104.404 0.054 86.159
          0.054 86.159 3.7e-3 -104.404 0.014 64.636 0.994 -3.79
          3.7e-3 -104.404 0.054 86.159 0.994 -3.79 0.014 64.636
227.444 0.014 65.097 0.993 -3.917 0.056 86.03 3.826e-3 -104.885
          0.993 -3.917 0.014 65.097 3.826e-3 -104.885 0.056 86.03
          0.056 86.03 3.826e-3 -104.885 0.014 65.097 0.993 -3.917
          3.826e-3 -104.885 0.056 86.03 0.993 -3.917 0.014 65.097
234.837 0.015 65.523 0.993 -4.044 0.058 85.901 3.953e-3 -105.365
          0.993 -4.044 0.015 65.523 3.953e-3 -105.365 0.058 85.901
          0.058 85.901 3.953e-3 -105.365 0.015 65.523 0.993 -4.044
          3.953e-3 -105.365 0.058 85.901 0.993 -4.044 0.015 65.523
242.231 0.015 65.918 0.993 -4.171 0.06 85.773 4.079e-3 -105.845
          0.993 -4.171 0.015 65.918 4.079e-3 -105.845 0.06 85.773
          0.06 85.773 4.079e-3 -105.845 0.015 65.918 0.993 -4.171
          4.079e-3 -105.845 0.06 85.773 0.993 -4.171 0.015 65.918
249.624 0.015 66.283 0.993 -4.298 0.062 85.644 4.206e-3 -106.324
          0.993 -4.298 0.015 66.283 4.206e-3 -106.324 0.062 85.644
          0.062 85.644 4.206e-3 -106.324 0.015 66.283 0.993 -4.298
          4.206e-3 -106.324 0.062 85.644 0.993 -4.298 0.015 66.283
257.018 0.016 66.621 0.993 -4.425 0.063 85.516 4.333e-3 -106.803
          0.993 -4.425 0.016 66.621 4.333e-3 -106.803 0.063 85.516
          0.063 85.516 4.333e-3 -106.803 0.016 66.621 0.993 -4.425
          4.333e-3 -106.803 0.063 85.516 0.993 -4.425 0.016 66.621
264.411 0.016 66.934 0.993 -4.552 0.065 85.387 4.461e-3 -107.281
          0.993 -4.552 0.016 66.934 4.461e-3 -107.281 0.065 85.387
          0.065 85.387 4.461e-3 -107.281 0.016 66.934 0.993 -4.552
          4.461e-3 -107.281 0.065 85.387 0.993 -4.552 0.016 66.934
271.805 0.017 67.224 0.993 -4.679 0.067 85.259 4.588e-3 -107.759
          0.993 -4.679 0.017 67.224 4.588e-3 -107.759 0.067 85.259
          0.067 85.259 4.588e-3 -107.759 0.017 67.224 0.993 -4.679
          4.588e-3 -107.759 0.067 85.259 0.993 -4.679 0.017 67.224
279.198 0.017 67.493 0.993 -4.806 0.069 85.13 4.716e-3 -108.236
          0.993 -4.806 0.017 67.493 4.716e-3 -108.236 0.069 85.13
          0.069 85.13 4.716e-3 -108.236 0.017 67.493 0.993 -4.806
          4.716e-3 -108.236 0.069 85.13 0.993 -4.806 0.017 67.493
286.591 0.017 67.741 0.992 -4.932 0.071 85.002 4.844e-3 -108.713
          0.992 -4.932 0.017 67.741 4.844e-3 -108.713 0.071 85.002
          0.071 85.002 4.844e-3 -108.713 0.017 67.741 0.992 -4.932
          4.844e-3 -108.713 0.071 85.002 0.992 -4.932 0.017 67.741
293.985 0.018 67.97 0.992 -5.059 0.072 84.874 4.972e-3 -109.189
          0.992 -5.059 0.018 67.97 4.972e-3 -109.189 0.072 84.874
          0.072 84.874 4.972e-3 -109.189 0.018 67.97 0.992 -5.059
          4.972e-3 -109.189 0.072 84.874 0.992 -5.059 0.018 67.97
301.378 0.018 68.182 0.992 -5.186 0.074 84.745 5.101e-3 -109.664
          0.992 -5.186 0.018 68.182 5.101e-3 -109.664 0.074 84.745
          0.074 84.745 5.101e-3 -109.664 0.018 68.182 0.992 -5.186
          5.101e-3 -109.664 0.074 84.745 0.992 -5.186 0.018 68.182
308.772 0.019 68.378 0.992 -5.313 0.076 84.617 5.23e-3 -110.139
          0.992 -5.313 0.019 68.378 5.23e-3 -110.139 0.076 84.617
          0.076 84.617 5.23e-3 -110.139 0.019 68.378 0.992 -5.313
          5.23e-3 -110.139 0.076 84.617 0.992 -5.313 0.019 68.378
316.165 0.019 68.558 0.992 -5.439 0.078 84.489 5.359e-3 -110.613
          0.992 -5.439 0.019 68.558 5.359e-3 -110.613 0.078 84.489
          0.078 84.489 5.359e-3 -110.613 0.019 68.558 0.992 -5.439
          5.359e-3 -110.613 0.078 84.489 0.992 -5.439 0.019 68.558
323.559 0.02 68.724 0.992 -5.566 0.08 84.361 5.488e-3 -111.087
          0.992 -5.566 0.02 68.724 5.488e-3 -111.087 0.08 84.361
          0.08 84.361 5.488e-3 -111.087 0.02 68.724 0.992 -5.566
          5.488e-3 -111.087 0.08 84.361 0.992 -5.566 0.02 68.724
330.952 0.02 68.877 0.992 -5.692 0.081 84.233 5.618e-3 -111.56
          0.992 -5.692 0.02 68.877 5.618e-3 -111.56 0.081 84.233
          0.081 84.233 5.618e-3 -111.56 0.02 68.877 0.992 -5.692
          5.618e-3 -111.56 0.081 84.233 0.992 -5.692 0.02 68.877
338.346 0.02 69.017 0.991 -5.819 0.083 84.105 5.747e-3 -112.033
          0.991 -5.819 0.02 69.017 5.747e-3 -112.033 0.083 84.105
          0.083 84.105 5.747e-3 -112.033 0.02 69.017 0.991 -5.819
          5.747e-3 -112.033 0.083 84.105 0.991 -5.819 0.02 69.017
345.739 0.021 69.145 0.991 -5.945 0.085 83.977 5.878e-3 -112.504
          0.991 -5.945 0.021 69.145 5.878e-3 -112.504 0.085 83.977
          0.085 83.977 5.878e-3 -112.504 0.021 69.145 0.991 -5.945
          5.878e-3 -112.504 0.085 83.977 0.991 -5.945 0.021 69.145
353.133 0.021 69.262 0.991 -6.072 0.087 83.849 6.008e-3 -112.975
          0.991 -6.072 0.021 69.262 6.008e-3 -112.975 0.087 83.849
          0.087 83.849 6.008e-3 -112.975 0.021 69.262 0.991 -6.072
          6.008e-3 -112.975 0.087 83.849 0.991 -6.072 0.021 69.262
360.526 0.022 69.369 0.991 -6.198 0.089 83.721 6.139e-3 -113.446
          0.991 -6.198 0.022 69.369 6.139e-3 -113.446 0.089 83.721
          0.089 83.721 6.139e-3 -113.446 0.022 69.369 0.991 -6.198
          6.139e-3 -113.446 0.089 83.721 0.991 -6.198 0.022 69.369
367.92 0.022 69.466 0.991 -6.324 0.09 83.593 6.27e-3 -113.916
          0.991 -6.324 0.022 69.466 6.27e-3 -113.916 0.09 83.593
          0.09 83.593 6.27e-3 -113.916 0.022 69.466 0.991 -6.324
          6.27e-3 -113.916 0.09 83.593 0.991 -6.324 0.022 69.466
375.313 0.022 69.553 0.991 -6.451 0.092 83.465 6.401e-3 -114.385
          0.991 -6.451 0.022 69.553 6.401e-3 -114.385 0.092 83.465
          0.092 83.465 6.401e-3 -114.385 0.022 69.553 0.991 -6.451
          6.401e-3 -114.385 0.092 83.465 0.991 -6.451 0.022 69.553
382.707 0.023 69.631 0.99 -6.577 0.094 83.337 6.533e-3 -114.853
          0.99 -6.577 0.023 69.631 6.533e-3 -114.853 0.094 83.337
          0.094 83.337 6.533e-3 -114.853 0.023 69.631 0.99 -6.577
          6.533e-3 -114.853 0.094 83.337 0.99 -6.577 0.023 69.631
390.1 0.023 69.701 0.99 -6.703 0.096 83.21 6.665e-3 -115.321
          0.99 -6.703 0.023 69.701 6.665e-3 -115.321 0.096 83.21
          0.096 83.21 6.665e-3 -115.321 0.023 69.701 0.99 -6.703
          6.665e-3 -115.321 0.096 83.21 0.99 -6.703 0.023 69.701
397.494 0.024 69.764 0.99 -6.829 0.098 83.082 6.797e-3 -115.788
          0.99 -6.829 0.024 69.764 6.797e-3 -115.788 0.098 83.082
          0.098 83.082 6.797e-3 -115.788 0.024 69.764 0.99 -6.829
          6.797e-3 -115.788 0.098 83.082 0.99 -6.829 0.024 69.764
404.887 0.024 69.818 0.99 -6.955 0.099 82.954 6.929e-3 -116.254
          0.99 -6.955 0.024 69.818 6.929e-3 -116.254 0.099 82.954
          0.099 82.954 6.929e-3 -116.254 0.024 69.818 0.99 -6.955
          6.929e-3 -116.254 0.099 82.954 0.99 -6.955 0.024 69.818
412.281 0.024 69.866 0.99 -7.081 0.101 82.827 7.062e-3 -116.719
          0.99 -7.081 0.024 69.866 7.062e-3 -116.719 0.101 82.827
          0.101 82.827 7.062e-3 -116.719 0.024 69.866 0.99 -7.081
          7.062e-3 -116.719 0.101 82.827 0.99 -7.081 0.024 69.866
419.674 0.025 69.907 0.989 -7.207 0.103 82.699 7.195e-3 -117.184
          0.989 -7.207 0.025 69.907 7.195e-3 -117.184 0.103 82.699
          0.103 82.699 7.195e-3 -117.184 0.025 69.907 0.989 -7.207
          7.195e-3 -117.184 0.103 82.699 0.989 -7.207 0.025 69.907
427.068 0.025 69.941 0.989 -7.333 0.105 82.572 7.329e-3 -117.648
          0.989 -7.333 0.025 69.941 7.329e-3 -117.648 0.105 82.572
          0.105 82.572 7.329e-3 -117.648 0.025 69.941 0.989 -7.333
          7.329e-3 -117.648 0.105 82.572 0.989 -7.333 0.025 69.941
434.461 0.026 69.97 0.989 -7.459 0.107 82.444 7.463e-3 -118.111
          0.989 -7.459 0.026 69.97 7.463e-3 -118.111 0.107 82.444
          0.107 82.444 7.463e-3 -118.111 0.026 69.97 0.989 -7.459
          7.463e-3 -118.111 0.107 82.444 0.989 -7.459 0.026 69.97
441.855 0.026 69.992 0.989 -7.585 0.108 82.317 7.597e-3 -118.574
          0.989 -7.585 0.026 69.992 7.597e-3 -118.574 0.108 82.317
          0.108 82.317 7.597e-3 -118.574 0.026 69.992 0.989 -7.585
          7.597e-3 -118.574 0.108 82.317 0.989 -7.585 0.026 69.992
449.248 0.027 70.009 0.989 -7.711 0.11 82.19 7.732e-3 -119.035
          0.989 -7.711 0.027 70.009 7.732e-3 -119.035 0.11 82.19
          0.11 82.19 7.732e-3 -119.035 0.027 70.009 0.989 -7.711
          7.732e-3 -119.035 0.11 82.19 0.989 -7.711 0.027 70.009
456.642 0.027 70.021 0.988 -7.836 0.112 82.063 7.867e-3 -119.496
          0.988 -7.836 0.027 70.021 7.867e-3 -119.496 0.112 82.063
          0.112 82.063 7.867e-3 -119.496 0.027 70.021 0.988 -7.836
          7.867e-3 -119.496 0.112 82.063 0.988 -7.836 0.027 70.021
464.035 0.027 70.028 0.988 -7.962 0.114 81.935 8.002e-3 -119.956
          0.988 -7.962 0.027 70.028 8.002e-3 -119.956 0.114 81.935
          0.114 81.935 8.002e-3 -119.956 0.027 70.028 0.988 -7.962
          8.002e-3 -119.956 0.114 81.935 0.988 -7.962 0.027 70.028
471.429 0.028 70.031 0.988 -8.088 0.116 81.808 8.138e-3 -120.415
          0.988 -8.088 0.028 70.031 8.138e-3 -120.415 0.116 81.808
          0.116 81.808 8.138e-3 -120.415 0.028 70.031 0.988 -8.088
          8.138e-3 -120.415 0.116 81.808 0.988 -8.088 0.028 70.031
478.822 0.028 70.028 0.988 -8.213 0.117 81.681 8.274e-3 -120.873
          0.988 -8.213 0.028 70.028 8.274e-3 -120.873 0.117 81.681
          0.117 81.681 8.274e-3 -120.873 0.028 70.028 0.988 -8.213
          8.274e-3 -120.873 0.117 81.681 0.988 -8.213 0.028 70.028
486.216 0.029 70.022 0.988 -8.339 0.119 81.554 8.41e-3 -121.331
          0.988 -8.339 0.029 70.022 8.41e-3 -121.331 0.119 81.554
          0.119 81.554 8.41e-3 -121.331 0.029 70.022 0.988 -8.339
          8.41e-3 -121.331 0.119 81.554 0.988 -8.339 0.029 70.022
493.609 0.029 70.011 0.987 -8.464 0.121 81.427 8.547e-3 -121.787
          0.987 -8.464 0.029 70.011 8.547e-3 -121.787 0.121 81.427
          0.121 81.427 8.547e-3 -121.787 0.029 70.011 0.987 -8.464
          8.547e-3 -121.787 0.121 81.427 0.987 -8.464 0.029 70.011
501.003 0.029 69.996 0.987 -8.589 0.123 81.301 8.684e-3 -122.243
          0.987 -8.589 0.029 69.996 8.684e-3 -122.243 0.123 81.301
          0.123 81.301 8.684e-3 -122.243 0.029 69.996 0.987 -8.589
          8.684e-3 -122.243 0.123 81.301 0.987 -8.589 0.029 69.996
508.396 0.03 69.978 0.987 -8.715 0.124 81.174 8.821e-3 -122.698
          0.987 -8.715 0.03 69.978 8.821e-3 -122.698 0.124 81.174
          0.124 81.174 8.821e-3 -122.698 0.03 69.978 0.987 -8.715
          8.821e-3 -122.698 0.124 81.174 0.987 -8.715 0.03 69.978
515.789 0.03 69.955 0.987 -8.84 0.126 81.047 8.959e-3 -123.152
          0.987 -8.84 0.03 69.955 8.959e-3 -123.152 0.126 81.047
          0.126 81.047 8.959e-3 -123.152 0.03 69.955 0.987 -8.84
          8.959e-3 -123.152 0.126 81.047 0.987 -8.84 0.03 69.955
523.183 0.031 69.93 0.986 -8.965 0.128 80.921 9.098e-3 -123.605
          0.986 -8.965 0.031 69.93 9.098e-3 -123.605 0.128 80.921
          0.128 80.921 9.098e-3 -123.605 0.031 69.93 0.986 -8.965
          9.098e-3 -123.605 0.128 80.921 0.986 -8.965 0.031 69.93
530.576 0.031 69.901 0.986 -9.09 0.13 80.794 9.236e-3 -124.057
          0.986 -9.09 0.031 69.901 9.236e-3 -124.057 0.13 80.794
          0.13 80.794 9.236e-3 -124.057 0.031 69.901 0.986 -9.09
          9.236e-3 -124.057 0.13 80.794 0.986 -9.09 0.031 69.901
537.97 0.031 69.869 0.986 -9.215 0.131 80.668 9.375e-3 -124.509
          0.986 -9.215 0.031 69.869 9.375e-3 -124.509 0.131 80.668
          0.131 80.668 9.375e-3 -124.509 0.031 69.869 0.986 -9.215
          9.375e-3 -124.509 0.131 80.668 0.986 -9.215 0.031 69.869
545.363 0.032 69.834 0.986 -9.34 0.133 80.541 9.515e-3 -124.959
          0.986 -9.34 0.032 69.834 9.515e-3 -124.959 0.133 80.541
          0.133 80.541 9.515e-3 -124.959 0.032 69.834 0.986 -9.34
          9.515e-3 -124.959 0.133 80.541 0.986 -9.34 0.032 69.834
552.757 0.032 69.796 0.985 -9.465 0.135 80.415 9.655e-3 -125.409
          0.985 -9.465 0.032 69.796 9.655e-3 -125.409 0.135 80.415
          0.135 80.415 9.655e-3 -125.409 0.032 69.796 0.985 -9.465
          9.655e-3 -125.409 0.135 80.415 0.985 -9.465 0.032 69.796
560.15 0.033 69.755 0.985 -9.59 0.137 80.289 9.795e-3 -125.857
          0.985 -9.59 0.033 69.755 9.795e-3 -125.857 0.137 80.289
          0.137 80.289 9.795e-3 -125.857 0.033 69.755 0.985 -9.59
          9.795e-3 -125.857 0.137 80.289 0.985 -9.59 0.033 69.755
567.544 0.033 69.712 0.985 -9.714 0.139 80.162 9.936e-3 -126.305
          0.985 -9.714 0.033 69.712 9.936e-3 -126.305 0.139 80.162
          0.139 80.162 9.936e-3 -126.305 0.033 69.712 0.985 -9.714
          9.936e-3 -126.305 0.139 80.162 0.985 -9.714 0.033 69.712
574.937 0.033 69.666 0.985 -9.839 0.14 80.036 0.01 -126.752
          0.985 -9.839 0.033 69.666 0.01 -126.752 0.14 80.036
          0.14 80.036 0.01 -126.752 0.033 69.666 0.985 -9.839
          0.01 -126.752 0.14 80.036 0.985 -9.839 0.033 69.666
582.331 0.034 69.618 0.984 -9.964 0.142 79.91 0.01 -127.197
          0.984 -9.964 0.034 69.618 0.01 -127.197 0.142 79.91
          0.142 79.91 0.01 -127.197 0.034 69.618 0.984 -9.964
          0.01 -127.197 0.142 79.91 0.984 -9.964 0.034 69.618
589.724 0.034 69.567 0.984 -10.088 0.144 79.784 0.01 -127.642
          0.984 -10.088 0.034 69.567 0.01 -127.642 0.144 79.784
          0.144 79.784 0.01 -127.642 0.034 69.567 0.984 -10.088
          0.01 -127.642 0.144 79.784 0.984 -10.088 0.034 69.567
597.118 0.035 69.514 0.984 -10.213 0.146 79.659 0.011 -128.086
          0.984 -10.213 0.035 69.514 0.011 -128.086 0.146 79.659
          0.146 79.659 0.011 -128.086 0.035 69.514 0.984 -10.213
          0.011 -128.086 0.146 79.659 0.984 -10.213 0.035 69.514
