! Network Analyzer HP8720D.07.14 Serial No. US38111185																															
! 																															
! 28 Apr 1999  02:06:29																															
! Frequency 	S11		S21		S31		S41		S12		S22		S23		S24		S13		S23		S33		S34		S14		S24		S34		S44
# HZ  S  DB R 50																															
50000000	-55.072	30.579	0.0018	-0.7978	-46.452	85.882	-53.7	70.689																							
	0.043	-0.7937	-43.673	61.712	-54.755	111.77	-44.547	83.911																							
	-46.107	96.235	-56.395	71.706	-43.78	50.04	0.0027	-0.6921																							
	-51.349	74.662	-44.092	87.634	0.0314	-0.8157	-43.673	61.712																							
150000000	-54.241	-71.25	0.005	-2.4184	-35.963	87.707	-45.487	88.737																							
	-0.0097	-2.5076	-36.163	72.753	-45.68	89.243	-36.09	86.535																							
	-35.977	87.227	-45.465	88.708	-36.184	64.403	0.0009	-2.8537																							
	-45.61	90.343	-36.088	86.697	-0.0124	-2.8331	-36.163	72.753																							
250000000	-51.858	-91.38	-0.0013	-4.1501	-31.523	85.914	-41.126	86.147																							
	-0.0056	-4.1748	-32.431	72.772	-41.256	86.298	-31.618	85.438																							
	-31.596	85.452	-41.131	86.955	-32.487	60.798	-0.0119	-4.6568																							
	-41.123	86.793	-31.645	85.328	-0.0239	-4.7214	-32.431	72.772
350000000	-45.164	-106.52	-0.0163	-5.8186	-28.641	83.94	-38.211	84.54
	-0.0168	-5.8228	-29.829	74.141	-38.222	86.59	-28.699	83.837
	-28.673	84.012	-38.284	87.113	-29.73	58.631	-0.0242	-6.6508
	-38.21	84.56	-28.715	83.543	-0.0379	-6.6138	-29.829	74.141
450000000	-43.236	-104.53	-0.0242	-7.4062	-26.483	82.349	-36.013	82.734
	-0.0278	-7.5641	-28.115	72.08	-36.046	85.566	-26.541	81.869
	-26.496	82.215	-36.056	85.419	-27.94	52.35	-0.0459	-8.3345
	-36.047	82.823	-26.56	81.823	-0.0649	-8.4869	-28.115	72.08
550000000	-39.679	-108.45	-0.0241	-9.1324	-24.748	80.526	-34.282	81.167
	-0.0264	-9.1393	-26.428	70.793	-34.219	84.063	-24.806	80.111
	-24.735	80.625	-34.188	84.118	-25.964	48.913	-0.0631	-10.285
	-34.294	81.236	-24.815	80.14	-0.0668	-10.275	-26.428	70.793
650000000	-38.319	-111.29	-0.0307	-10.892	-23.303	78.924	-32.863	79.505
	-0.0364	-10.743	-25.233	69.105	-32.682	82.815	-23.372	78.397
	-23.301	78.993	-32.695	83.01	-24.805	43.86	-0.0851	-12.096
	-32.851	79.301	-23.374	78.396	-0.0754	-12.115	-25.233	69.105
750000000	-36.112	-119.34	-0.0495	-12.349	-22.066	77.285	-31.644	77.804
	-0.0472	-12.435	-24.074	67.312	-31.391	81.549	-22.162	76.65
	-22.059	77.173	-31.401	81.421	-23.469	40.253	-0.1042	-13.914
	-31.633	77.741	-22.148	76.527	-0.097	-13.96	-24.074	67.312
850000000	-35.238	-126.86	-0.0527	-14.016	-20.984	75.574	-30.568	76.073
	-0.0564	-14.065	-23.264	65.4	-30.247	80.215	-21.081	74.969
	-20.996	75.517	-30.256	80.064	-22.73	35.701	-0.1318	-15.671
	-30.577	75.924	-21.102	74.827	-0.1065	-15.823	-23.264	65.4
950000000	-33.148	-135.07	-0.0742	-15.759	-20.017	73.865	-29.605	74.399
	-0.0657	-15.775	-22.398	63.364	-29.232	78.679	-20.129	73.12
	-20.009	73.683	-29.225	78.512	-21.804	31.885	-0.1338	-17.563
	-29.643	74.13	-20.115	73.12	-0.1252	-17.536	-22.398	63.364
1050000000	-32.189	-143.57	-0.0806	-17.456	-19.159	72.139	-28.779	72.67
	-0.0919	-17.295	-21.805	60.647	-28.281	77.135	-19.297	71.408
	-19.169	72.247	-28.312	77.213	-21.332	27.175	-0.1598	-19.26
	-28.805	72.576	-19.303	71.52	-0.1531	-19.444	-21.805	60.647
1150000000	-30.548	-149.58	-0.0896	-19.379	-18.391	70.391	-28.033	70.714
	-0.1206	-18.987	-21.092	58.071	-27.441	75.146	-18.527	69.454
	-18.429	70.465	-27.486	75.473	-20.637	23.122	-0.1805	-21.16
	-28.069	70.885	-18.57	69.69	-0.1525	-20.981	-21.092	58.071
1250000000	-29.848	-157.74	-0.0904	-20.76	-17.672	68.592	-27.353	69.016
	-0.1113	-20.652	-20.56	55.561	-26.676	73.805	-17.851	67.831
	-17.683	68.791	-26.682	73.705	-20.406	18.899	-0.24	-22.912
	-27.364	69.142	-17.86	67.902	-0.2099	-22.975	-20.56	55.561
1350000000	-28.699	-162.96	-0.1126	-22.392	-16.995	67.095	-26.711	67.339
	-0.1353	-22.409	-19.899	52.844	-25.946	71.823	-17.189	66.117
	-17.041	66.934	-26.005	71.944	-19.915	14.512	-0.2453	-24.727
	-26.753	67.173	-17.229	66.158	-0.2194	-24.686	-19.899	52.844
1450000000	-28.078	-170.56	-0.1335	-23.917	-16.391	65.321	-26.137	65.564
	-0.1554	-24.148	-19.48	50.702	-25.297	70.01	-16.564	64.398
	-16.434	65.165	-25.352	70.039	-19.867	10.26	-0.2649	-26.595
	-26.213	65.367	-16.658	64.355	-0.241	-26.429	-19.48	50.702
1550000000	-27.07	-174.21	-0.1754	-25.554	-15.797	63.454	-25.587	63.707
	-0.2082	-25.54	-18.98	48.045	-24.67	67.945	-15.999	62.862
	-15.906	63.701	-24.79	68.448	-19.513	5.4478	-0.2661	-28.343
	-25.743	63.896	-16.151	62.928	-0.2195	-28.456	-18.98	48.045
1650000000	-26.539	178.9	-0.1719	-27.271	-15.305	61.758	-25.149	61.88
	-0.2072	-26.999	-18.579	46.349	-24.14	66.206	-15.527	60.984
	-15.338	62.189	-24.196	66.922	-19.574	1.5024	-0.3276	-30.096
	-25.241	62.372	-15.593	61.659	-0.2859	-30.59	-18.579	46.349
1750000000	-26.005	176.91	-0.1818	-28.884	-14.783	59.936	-24.709	60.216
	-0.2361	-28.352	-18.171	43.658	-23.611	64.188	-15.052	59.237
	-14.888	60.925	-23.705	65.288	-19.335	-3.6955	-0.329	-31.869
	-24.829	60.975	-15.132	60.237	-0.3192	-32.614	-18.171	43.658
1850000000	-25.637	171.04	-0.2142	-30.531	-14.35	58.14	-24.341	58.254
	-0.2313	-30.45	-17.809	41.899	-23.175	62.032	-14.614	57.408
	-14.41	58.506	-23.235	62.562	-19.435	-7.7522	-0.3864	-33.67
	-24.431	58.568	-14.707	57.88	-0.349	-33.813	-17.809	41.899
1950000000	-25.404	167.36	-0.2559	-32.135	-13.902	56.018	-23.933	56.499
	-0.248	-31.774	-17.433	39.401	-22.735	59.768	-14.145	55.577
	-13.939	57.29	-22.796	61.147	-19.283	-13.363	-0.3633	-35.714
	-24.067	57.31	-14.263	56.56	-0.4134	-35.966	-17.433	39.401
2050000000	-24.947	163.84	-0.305	-33.651	-13.485	54.218	-23.599	54.785
	-0.3631	-33.765	-17.131	37.886	-22.355	57.52	-13.731	53.755
	-13.68	55.263	-22.536	59.009	-19.379	-17.341	-0.3935	-37.458
	-23.902	55.382	-14.036	54.79	-0.3768	-37.814	-17.131	37.886
2150000000	-24.625	161.92	-0.3003	-35.616	-13.111	52.512	-23.352	53.226
	-0.3494	-35.145	-16.835	35.626	-21.996	55.798	-13.395	52.254
	-13.228	53.887	-22.127	57.226	-19.143	-23.099	-0.4391	-39.125
	-23.567	54.104	-13.614	53.302	-0.4669	-39.633	-16.835	35.626
2250000000	-24.172	157.51	-0.2733	-37.06	-12.754	51.092	-23.151	51.498
	-0.3686	-37.116	-16.587	34.1	-21.727	53.988	-13.1	50.352
	-12.881	51.879	-21.835	55.131	-19.121	-26.731	-0.5005	-40.774
	-23.35	52.219	-13.281	51.382	-0.4811	-41.386	-16.587	34.1
2350000000	-23.593	156.95	-0.2762	-38.558	-12.422	49.308	-22.936	49.963
	-0.2728	-37.54	-16.393	31.634	-21.447	52.105	-12.749	48.517
	-12.324	51.254	-21.3	54.08	-18.821	-31.995	-0.5098	-42.697
	-22.932	51.803	-12.705	50.478	-0.7073	-43.12	-16.393	31.634
2450000000	-23.193	153.75	-0.3863	-39.85	-12.122	46.993	-22.666	48.312
	-0.3784	-40.078	-16.125	29.524	-21.238	49.804	-12.365	46.588
	-12.159	49.042	-21.255	51.871	-18.683	-34.873	-0.5262	-44.89
	-22.914	49.833	-12.59	48.315	-0.6211	-45.001	-16.125	29.524
2550000000	-22.936	153.57	-0.3882	-41.933	-11.784	45.464	-22.515	47.336
	-0.2023	-41.598	-16.02	26.765	-21	48.395	-12.088	45.272
	-11.629	46.656	-20.832	49.344	-18.334	-40.283	-0.5399	-46.548
	-22.508	48.182	-12.08	45.869	-0.6807	-45.672	-16.02	26.765
2650000000	-22.519	149.42	-0.3679	-43.599	-11.472	43.952	-22.414	46.343
	-0.4099	-43.57	-15.807	23.964	-20.79	47.093	-11.84	43.543
	-11.534	45.481	-20.826	48.544	-18.062	-42.025	-0.5879	-48.218
	-22.585	47.602	-11.998	44.867	-0.7047	-48.454	-15.807	23.964
2750000000	-22.339	146.48	-0.2649	-45.563	-11.204	43.073	-22.372	45.525
	-0.415	-45.121	-15.759	20.763	-20.635	46.436	-11.677	41.994
	-11.227	43.868	-20.61	47.222	-17.743	-46.821	-0.6816	-49.59
	-22.431	46.696	-11.716	43.331	-0.762	-50.098	-15.759	20.763
2850000000	-21.791	141.12	-0.4017	-46.704	-10.987	40.643	-22.16	44.569
	-0.6376	-47.244	-15.557	16.842	-20.547	44.475	-11.317	40.178
	-11.206	42.407	-20.686	46.651	-17.271	-47.91	-0.6602	-51.709
	-22.549	46.147	-11.682	42.061	-0.7424	-53.255	-15.557	16.842
2950000000	-21.342	137.49	-0.3943	-48.51	-10.702	39.354	-22.077	44.496
	-0.4123	-47.906	-15.495	13.065	-20.376	43.963	-11.122	38.923
	-10.64	41.123	-20.232	45.474	-16.96	-52.189	-0.6989	-53.284
	-22.13	46.07	-11.128	40.383	-0.9023	-53.3	-15.495	13.065
3050000000	-20.745	133.64	-0.5224	-50.15	-10.449	37.095	-21.872	44.238
	-0.5551	-49.585	-15.315	8.2562	-20.219	42.409	-10.798	37.274
	-10.495	39.688	-20.172	45.121	-16.407	-54.304	-0.6679	-55.374
	-22.103	46.191	-10.954	39.166	-0.9678	-55.805	-15.315	8.2562
3150000000	-20.835	128.03	-0.3734	-52.766	-10.139	36.94	-21.861	44.93
	-0.2734	-52.486	-15.258	3.2451	-19.984	43.253	-10.743	36.193
	-10.042	36.476	-19.924	42.557	-16.145	-58.096	-0.7685	-56.387
	-21.726	44.506	-10.6	35.592	-0.7573	-55.842	-15.258	3.2451
3250000000	-20.749	126.57	-0.4812	-53.447	-9.99	34.467	-21.581	44.433
	-0.5035	-54.812	-15.06	-2.7013	-19.919	42.041	-10.41	34.137
	-10.052	34.836	-19.981	42.637	-15.633	-60.358	-0.775	-58.972
	-21.793	44.456	-10.618	34.459	-0.74	-59.282	-15.06	-2.7013
3350000000	-21.098	118.57	-0.4988	-56.026	-9.6088	33.507	-21.395	45.437
	-0.6031	-56.003	-14.873	-8.0859	-19.602	42.249	-10.225	33.396
	-9.8446	33.665	-19.795	42.919	-15.399	-64.089	-0.7877	-59.959
	-21.6	45.166	-10.389	33.407	-0.863	-61.293	-14.873	-8.0859
3450000000	-20.692	111.72	-0.604	-56.81	-9.5061	30.968	-21.075	44.677
	-0.8188	-56.571	-14.567	-14.355	-19.509	41.138	-9.9523	30.962
	-9.7295	33.511	-19.621	44.08	-14.87	-66.912	-0.8198	-62.552
	-21.483	46.552	-10.204	33.216	-1.1256	-64.064	-14.567	-14.355
3550000000	-20.651	103.69	-0.5762	-59.395	-9.1561	30.071	-20.834	45.732
	-0.6257	-57.618	-14.339	-20.058	-19.143	41.615	-9.7697	30.225
	-9.3101	32.135	-19.178	43.5	-14.667	-70.712	-0.8334	-63.708
	-21.008	47.146	-9.8325	31.378	-1.2146	-63.99	-14.339	-20.058
3650000000	-20.415	98.697	-0.6285	-60.423	-9.0354	28.172	-20.494	44.934
	-0.6697	-59.413	-13.997	-26.631	-18.967	41.086	-9.5735	28.103
	-9.1028	30.773	-18.939	43.52	-14.176	-74.449	-0.8859	-66.024
	-20.732	47.109	-9.6599	29.961	-1.2524	-65.969	-13.997	-26.631
3750000000	-20.783	91.733	-0.6916	-62.806	-8.6892	26.901	-20.138	45.923
	-0.6376	-61.572	-13.645	-32.191	-18.556	41.218	-9.3324	27.21
	-8.8333	28.928	-18.632	43.01	-14.016	-78.879	-0.87	-67.249
	-20.345	46.737	-9.4664	28.026	-1.2288	-67.072	-13.645	-32.191
3850000000	-21.206	85.566	-0.8115	-63.876	-8.5093	24.907	-19.733	45.519
	-0.7462	-63.81	-13.231	-38.666	-18.219	40.464	-9.1194	25.49
	-8.7013	27.022	-18.377	42.928	-13.513	-83.763	-0.8845	-69.236
	-20.041	45.935	-9.3613	26.489	-1.1599	-69.546	-13.231	-38.666
3950000000	-21.8	74.702	-0.7977	-64.865	-8.4295	23.651	-19.447	44.492
	-0.854	-64.998	-12.813	-43.303	-18.027	40.557	-9.0191	23.707
	-8.5196	25.852	-18.02	42.727	-13.362	-88.05	-1.0047	-71.33
	-19.711	45.96	-9.222	25.448	-1.3117	-71.48	-12.813	-43.303
4050000000	-21.993	65.638	-0.8884	-66.382	-8.2028	21.197	-18.984	43.487
	-1.0233	-66.911	-12.491	-48.627	-17.634	39.019	-8.7724	21.846
	-8.4264	24.243	-17.732	42.458	-12.91	-93.786	-0.9613	-73.323
	-19.484	45.124	-9.1399	24.074	-1.3939	-74.688	-12.491	-48.627
