! Network Analyzer HP8720D.07.14 Serial No. US38111185																															
! 																															
! 28 Apr 1999  02:06:29																															
! Frequency 	S11		S21		S31		S41		S12		S22		S23		S24		S13		S23		S33		S34		S14		S24		S34		S44
# HZ  S  DB R 50																															
50000000	-47.962	-9.9289	0.0093	-0.839	-48.466	68.005	-62.683	119.93																							
	0.0406	-0.6756	-47.526	18.425	-64.605	49.003	-47.61	78.896																							
	-47.999	95.867	-65.288	117.55	-47.369	28.375	0.0072	-1.0382																							
	-61.266	64.569	-48.85	109.18	0.0346	-0.8226	-45.594	-4.4728																							
150000000	-45.549	-48.226	0.0264	-2.0187	-39.31	87.208	-50.921	82.18																							
	0.0193	-2.0723	-44.341	39.424	-50.429	88.96	-39.59	87.237																							
	-39.134	86.765	-51.418	85.898	-38.759	56.615	0.0192	-2.4843																							
	-50.613	89.633	-39.368	87.006	0.0152	-2.5983	-44.796	25.611																							
250000000	-43.491	-80.303	0.0195	-3.4071	-34.786	86.196	-46.593	85.566																							
	0.0221	-3.5802	-42.498	59.826	-46.307	87.679	-35.069	86.049																							
	-34.842	85.791	-46.265	87.457	-36.324	56.589	0.0088	-4.0622																							
	-46.393	83.76	-35.078	86.06	0.0027	-4.2998	-44.184	9.3054
350000000	-40.958	-102.86	0.004	-4.8326	-31.849	84.352	-43.842	83.734
	0.0169	-4.8862	-40.133	74.733	-43.384	87.065	-32.151	84.416
	-31.849	84.477	-43.434	86.774	-33.086	59.212	0.0023	-5.9079
	-43.71	84.437	-32.18	84.35	0.0106	-5.9628	-42.309	25.38
450000000	-38.913	-122.49	0.0005	-6.1372	-29.69	82.954	-41.654	82.553
	-0.0013	-6.2553	-37.364	84.223	-41.253	85.09	-29.999	83.08
	-29.704	82.733	-41.273	85.107	-31.715	56.316	-0.0146	-7.4062
	-41.834	81.718	-29.972	82.945	-0.0152	-7.6176	-42.654	11.507
550000000	-36.859	-139.71	-0.0096	-7.5229	-27.974	81.271	-40.086	80.744
	0.0026	-7.6012	-34.719	89.824	-39.629	84.279	-28.262	81.693
	-27.981	81.118	-39.554	84.643	-29.557	54.528	-0.0245	-9.1599
	-40.04	80.589	-28.275	81.449	-0.0165	-9.2532	-40.002	18.57
650000000	-35.103	-154.21	-0.0186	-8.9154	-26.527	79.79	-38.797	79.419
	-0.024	-8.9456	-32.303	91.446	-38.144	83.199	-26.836	80.133
	-26.529	79.615	-38.127	83.167	-28.494	51.787	-0.0293	-10.875
	-38.806	79.386	-26.823	79.972	-0.0325	-10.989	-39.922	16.179
750000000	-33.495	-167.11	-0.0149	-10.188	-25.312	78.247	-37.714	78.613
	-0.0295	-10.353	-30.198	90.825	-36.929	82.532	-25.623	78.706
	-25.315	78.144	-36.906	82.205	-27.057	50.423	-0.0497	-12.383
	-37.703	78.228	-25.601	78.539	-0.0504	-12.572	-38.963	23.96
850000000	-32.022	-178.54	-0.0343	-11.575	-24.245	76.713	-36.775	77.682
	-0.0306	-11.7	-28.362	89.004	-35.832	81.495	-24.541	77.156
	-24.247	76.642	-35.798	81.344	-26.456	46.947	-0.0691	-14.039
	-36.769	77.54	-24.524	77.117	-0.0516	-14.153	-39.791	13.576
950000000	-30.705	171.55	-0.0395	-12.947	-23.28	75.182	-35.979	77.325
	-0.0488	-13.141	-26.79	85.949	-34.827	80.627	-23.605	75.885
	-23.296	75.108	-34.842	80.366	-25.325	44.191	-0.0764	-15.816
	-35.967	77.123	-23.585	75.705	-0.0843	-15.925	-38.254	17.547
1050000000	-29.569	162.76	-0.0362	-14.247	-22.442	73.751	-35.205	76.867
	-0.0535	-14.306	-25.434	82.281	-33.918	79.875	-22.745	74.371
	-22.468	73.706	-33.924	79.574	-24.958	40.916	-0.0879	-17.309
	-35.197	76.75	-22.736	74.439	-0.0839	-17.275	-39.674	9.2175
1150000000	-28.637	154.52	-0.0623	-15.614	-21.689	72.286	-34.6	76.985
	-0.0649	-15.676	-24.252	78.043	-33.118	78.952	-21.998	72.971
	-21.694	72.183	-33.09	78.672	-24.06	37.856	-0.1107	-18.844
	-34.58	76.95	-21.972	72.85	-0.1292	-19.061	-38.38	10.728
1250000000	-27.832	147.35	-0.0794	-16.933	-20.993	70.951	-33.944	77.147
	-0.0689	-16.996	-23.268	73.393	-32.32	77.992	-21.26	71.614
	-21.025	70.944	-32.349	77.782	-23.842	34.577	-0.1429	-20.371
	-33.956	77.097	-21.251	71.698	-0.1171	-20.479	-40.552	2.1986
1350000000	-27.187	140.78	-0.0903	-18.316	-20.33	69.318	-33.335	77.099
	-0.088	-18.328	-22.421	68.496	-31.576	76.735	-20.648	70.128
	-20.349	69.291	-31.606	76.744	-23.257	31.014	-0.146	-22.065
	-33.349	77.224	-20.605	70.238	-0.1386	-22.095	-40.205	-2.1506
1450000000	-26.744	134.46	-0.1151	-19.624	-19.744	67.739	-32.672	77.695
	-0.0913	-19.523	-21.703	63.089	-30.883	75.762	-20.058	68.741
	-19.765	67.935	-30.926	75.626	-23.211	28.319	-0.1747	-23.729
	-32.733	77.55	-20.023	69.141	-0.1539	-23.496	-43.812	-20.268
1550000000	-26.446	128.75	-0.1163	-21.006	-19.182	66.261	-32.049	77.835
	-0.1161	-20.901	-21.091	57.427	-30.246	74.439	-19.542	67.352
	-19.251	66.8	-30.313	74.474	-22.74	23.577	-0.1783	-25.444
	-32.149	78.107	-19.41	67.799	-0.1615	-25.117	-42.292	-32.07
1650000000	-26.332	123.23	-0.1088	-22.294	-18.649	64.928	-31.455	77.944
	-0.1081	-22.262	-20.578	51.426	-29.664	73.121	-18.969	66.015
	-18.691	65.597	-29.727	73.319	-22.773	22.158	-0.2083	-26.96
	-31.519	78.567	-18.841	66.324	-0.1676	-26.952	-47.495	-72.536
1750000000	-26.35	117.91	-0.1224	-23.698	-18.167	63.561	-30.863	78.192
	-0.1179	-23.597	-20.141	45.272	-29.097	71.686	-18.503	64.586
	-18.251	64.086	-29.178	71.57	-22.658	17.135	-0.2227	-28.492
	-30.933	78.691	-18.356	65.26	-0.1557	-28.299	-42.884	-99.745
1850000000	-26.476	111.95	-0.1475	-25.049	-17.718	62.021	-30.158	78.934
	-0.1541	-24.955	-19.7	38.863	-28.606	69.866	-18.046	63.354
	-17.711	62.976	-28.65	70.045	-22.683	15.076	-0.273	-30.075
	-30.123	79.5	-17.852	63.46	-0.2226	-30.241	-40.996	-134.04
1950000000	-26.932	107.17	-0.19	-26.558	-17.261	60.54	-29.541	77.739
	-0.1488	-26.142	-19.377	32.287	-28.108	68.376	-17.635	62.044
	-17.342	61.191	-28.171	68.612	-22.632	11.076	-0.3134	-32.062
	-29.624	78.179	-17.447	62.317	-0.2291	-31.393	-37.648	-141.65
2050000000	-27.489	101.43	-0.2013	-28.104	-16.85	58.828	-28.967	77.223
	-0.1824	-27.594	-19.03	25.233	-27.669	66.55	-17.23	60.716
	-16.834	60.142	-27.729	67.157	-22.577	10.162	-0.3301	-33.757
	-28.963	78.048	-16.928	60.403	-0.2841	-33.51	-35.899	-159.28
2150000000	-28.258	95.341	-0.1966	-29.35	-16.485	57.332	-28.397	76.56
	-0.1904	-28.904	-18.712	18.273	-27.295	64.951	-16.832	59.123
	-16.481	58.502	-27.376	65.218	-22.528	5.3174	-0.3375	-35.123
	-28.422	77.235	-16.552	59.058	-0.2906	-34.831	-33.954	-160.82
2250000000	-29.117	88.286	-0.2182	-30.42	-16.097	55.894	-27.841	75.634
	-0.1819	-30.365	-18.396	11.321	-26.955	63.162	-16.426	57.626
	-16.161	56.812	-27.051	63.316	-22.467	4.5195	-0.4078	-36.307
	-27.918	76.466	-16.195	57.589	-0.268	-36.308	-32.638	-174.8
2350000000	-30.21	79.812	-0.2412	-31.753	-15.742	54.319	-27.348	74.707
	-0.2974	-31.693	-18.022	4.4399	-26.672	61.224	-16.075	56.337
	-15.721	55.493	-26.737	61.768	-22.25	0.5891	-0.4393	-37.925
	-27.339	75.633	-15.809	55.275	-0.472	-38.434	-31.394	-178.13
2450000000	-31.448	68.659	-0.3478	-33.382	-15.447	52.793	-26.859	74.085
	-0.2294	-32.94	-17.659	-2.4142	-26.466	59.527	-15.804	55.324
	-15.502	53.661	-26.55	59.881	-21.944	0.6179	-0.5478	-40.108
	-26.892	74.942	-15.521	54.33	-0.3758	-39.286	-30.751	168.42
2550000000	-32.615	53.866	-0.2991	-34.687	-15.117	51.338	-26.305	73.434
	-0.3576	-34.578	-17.25	-9.0733	-26.33	58.412	-15.506	53.932
	-15.201	52.965	-26.458	59.02	-21.51	-3.8095	-0.4949	-41.447
	-26.352	74.704	-15.157	52.413	-0.5088	-41.916	-30.558	166.61
2650000000	-33.465	34.169	-0.3123	-35.754	-14.814	50.043	-25.784	72.594
	-0.2897	-35.555	-16.822	-15.45	-26.132	57.767	-15.172	52.509
	-14.889	51.029	-26.244	58.333	-20.85	-4.2091	-0.5361	-42.546
	-25.811	73.411	-14.917	51.211	-0.4958	-42.41	-30.594	151.23
2750000000	-33.495	13.038	-0.2628	-36.449	-14.513	48.766	-25.247	71.499
	-0.2988	-36.987	-16.408	-21.547	-25.95	57.237	-14.814	50.894
	-14.608	49.642	-26.05	57.388	-20.492	-8.5803	-0.5476	-43.038
	-25.302	72.283	-14.589	49.776	-0.4942	-44.138	-30.298	146.66
2850000000	-32.617	-6.199	-0.3854	-38.368	-14.241	47.049	-24.802	70.075
	-0.5216	-38.496	-15.978	-27.239	-25.814	56.435	-14.607	50.168
	-14.364	48.803	-25.936	57.362	-19.663	-8.8618	-0.6599	-45.591
	-24.835	71.546	-14.379	47.561	-0.7757	-46.497	-30.285	127.13
2950000000	-31.111	-20.625	-0.3394	-39.512	-13.964	45.757	-24.31	68.954
	-0.3629	-39.328	-15.558	-32.754	-25.631	55.997	-14.338	48.56
	-14.073	46.744	-25.74	56.678	-19.275	-12.6	-0.6268	-46.77
	-24.325	70.093	-14.102	46.671	-0.6216	-46.759	-29.811	119.63
3050000000	-29.594	-32.265	-0.3947	-41.512	-13.693	44.183	-23.852	67.382
	-0.5196	-41.613	-15.14	-37.848	-25.475	55.705	-14.134	47.553
	-13.95	45.74	-25.682	56.842	-18.325	-13.843	-0.66	-49.176
	-23.929	69.031	-13.867	44.563	-0.7515	-49.757	-29.489	98.212
3150000000	-28.199	-40.513	-0.217	-41.668	-13.458	43.381	-23.256	66.852
	-0.4829	-41.306	-14.76	-42.751	-25.287	56.512	-13.8	45.625
	-13.601	44.43	-25.421	57.28	-17.899	-16.962	-0.4945	-48.533
	-23.366	68.033	-13.695	44.006	-0.8263	-49.117	-28.624	88.89
3250000000	-27.03	-47.087	-0.4087	-43.423	-13.25	41.846	-22.908	65.054
	-0.4525	-43.047	-14.423	-47.273	-25.123	56.754	-13.603	45.135
	-13.403	42.939	-25.251	57.765	-17.004	-19.499	-0.7364	-51.099
	-22.921	66.705	-13.435	42.591	-0.7714	-50.772	-27.567	69.237
3350000000	-25.992	-52.697	-0.2299	-45.033	-12.952	40.825	-22.283	63.442
	-0.5547	-44.986	-14.097	-51.717	-24.794	57.579	-13.374	43.298
	-13.253	41.859	-25.004	58.528	-16.602	-22.816	-0.4927	-52.479
	-22.482	65.178	-13.238	40.566	-0.8652	-53.328	-26.573	61.68
3450000000	-25.195	-57.552	-0.4545	-46.787	-12.747	39.15	-21.972	61.409
	-0.4678	-45.666	-13.807	-55.925	-24.514	57.811	-13.164	43.013
	-12.997	40.803	-24.67	59.437	-15.882	-26.272	-0.7564	-54.999
	-21.968	63.832	-12.999	39.841	-0.8025	-53.649	-25.566	46.854
3550000000	-24.526	-62.005	-0.2601	-47.999	-12.436	38.285	-21.334	59.917
	-0.4431	-47.94	-13.6	-60.119	-24.071	58.852	-12.903	41.232
	-12.809	39.217	-24.312	60.274	-15.614	-29.82	-0.5095	-55.903
	-21.514	61.959	-12.734	38.062	-0.6999	-56.227	-24.738	41.535
3650000000	-24.06	-66.331	-0.4261	-49.263	-12.247	36.924	-20.99	58.148
	-0.6096	-48.678	-13.408	-64.227	-23.693	59.241	-12.679	40.71
	-12.622	38.705	-23.909	61.208	-14.976	-34.449	-0.7263	-57.603
	-21.108	60.874	-12.663	37.018	-0.9514	-57.266	-24.032	28.847
3750000000	-23.719	-70.958	-0.2778	-51.246	-11.926	35.873	-20.341	55.822
	-0.6042	-49.915	-13.287	-68.336	-23.095	59.705	-12.457	39.028
	-12.381	37.684	-23.389	61.731	-14.718	-38.274	-0.5088	-59.565
	-20.614	59.133	-12.461	35.918	-0.9564	-58.589	-23.312	24.046
3850000000	-23.56	-75.829	-0.3773	-53.069	-11.668	33.985	-19.938	53.015
	-0.6037	-51.579	-13.198	-72.537	-22.553	59.067	-12.202	38.048
	-12.186	36.512	-22.865	61.88	-14.213	-43.59	-0.6218	-61.915
	-20.184	57.092	-12.227	34.628	-0.943	-60.388	-22.9	12.81
3950000000	-23.644	-80.397	-0.4946	-53.799	-11.495	32.893	-19.568	51.095
	-0.6812	-52.679	-13.189	-76.568	-22.07	58.69	-11.952	37.056
	-11.956	35.857	-22.301	61.821	-13.988	-47.344	-0.7967	-62.805
	-19.746	55.202	-12.084	33.624	-1.0354	-61.767	-22.276	8.5103
4050000000	-23.817	-86.042	-0.5611	-56.056	-11.206	30.957	-19.136	47.707
	-0.5276	-53.153	-13.219	-80.961	-21.456	57.112	-11.718	35.902
	-11.591	34.794	-21.653	61.525	-13.679	-53.701	-0.8391	-65.594
	-19.14	53.271	-11.764	33.599	-0.8872	-61.676	-22.364	-2.4857
