!	AVX THIN FILM OPERATION
!
!	CP0805 COUPLERS
!	P/N CP0805AxxxxDSTR
!
!	Network	Analyzer HP8720ES.07.64:Feb23,2000 Serial No.US39172382
!	Hewlett-Packard								
!
!	5 October 2009

# MHZ S MA R 50

50 5.097e-3 -63.291 0.997 -0.955 0.014 88.928 6.125e-3 88.428
          0.997 -0.955 5.097e-3 -63.291 6.125e-3 88.428 0.014 88.928
          0.014 88.928 6.125e-3 88.428 5.097e-3 -63.291 0.997 -0.955
          6.125e-3 88.428 0.014 88.928 0.997 -0.955 5.097e-3 -63.291
57.393 5.684e-3 -66.804 0.997 -1.096 0.016 88.771 7.03e-3 88.197
          0.997 -1.096 5.684e-3 -66.804 7.03e-3 88.197 0.016 88.771
          0.016 88.771 7.03e-3 88.197 5.684e-3 -66.804 0.997 -1.096
          7.03e-3 88.197 0.016 88.771 0.997 -1.096 5.684e-3 -66.804
64.787 6.286e-3 -69.71 0.997 -1.237 0.018 88.613 7.935e-3 87.966
          0.997 -1.237 6.286e-3 -69.71 7.935e-3 87.966 0.018 88.613
          0.018 88.613 7.935e-3 87.966 6.286e-3 -69.71 0.997 -1.237
          7.935e-3 87.966 0.018 88.613 0.997 -1.237 6.286e-3 -69.71
72.18 6.898e-3 -72.157 0.997 -1.378 0.021 88.455 8.839e-3 87.735
          0.997 -1.378 6.898e-3 -72.157 8.839e-3 87.735 0.021 88.455
          0.021 88.455 8.839e-3 87.735 6.898e-3 -72.157 0.997 -1.378
          8.839e-3 87.735 0.021 88.455 0.997 -1.378 6.898e-3 -72.157
79.574 7.518e-3 -74.253 0.997 -1.519 0.023 88.297 9.744e-3 87.505
          0.997 -1.519 7.518e-3 -74.253 9.744e-3 87.505 0.023 88.297
          0.023 88.297 9.744e-3 87.505 7.518e-3 -74.253 0.997 -1.519
          9.744e-3 87.505 0.023 88.297 0.997 -1.519 7.518e-3 -74.253
86.967 8.144e-3 -76.074 0.997 -1.66 0.025 88.14 0.011 87.274
          0.997 -1.66 8.144e-3 -76.074 0.011 87.274 0.025 88.14
          0.025 88.14 0.011 87.274 8.144e-3 -76.074 0.997 -1.66
          0.011 87.274 0.025 88.14 0.997 -1.66 8.144e-3 -76.074
94.361 8.775e-3 -77.678 0.997 -1.801 0.027 87.982 0.012 87.043
          0.997 -1.801 8.775e-3 -77.678 0.012 87.043 0.027 87.982
          0.027 87.982 0.012 87.043 8.775e-3 -77.678 0.997 -1.801
          0.012 87.043 0.027 87.982 0.997 -1.801 8.775e-3 -77.678
101.754 9.41e-3 -79.107 0.997 -1.942 0.029 87.824 0.012 86.812
          0.997 -1.942 9.41e-3 -79.107 0.012 86.812 0.029 87.824
          0.029 87.824 0.012 86.812 9.41e-3 -79.107 0.997 -1.942
          0.012 86.812 0.029 87.824 0.997 -1.942 9.41e-3 -79.107
109.148 0.01 -80.393 0.997 -2.083 0.031 87.667 0.013 86.582
          0.997 -2.083 0.01 -80.393 0.013 86.582 0.031 87.667
          0.031 87.667 0.013 86.582 0.01 -80.393 0.997 -2.083
          0.013 86.582 0.031 87.667 0.997 -2.083 0.01 -80.393
116.541 0.011 -81.561 0.997 -2.224 0.033 87.509 0.014 86.351
          0.997 -2.224 0.011 -81.561 0.014 86.351 0.033 87.509
          0.033 87.509 0.014 86.351 0.011 -81.561 0.997 -2.224
          0.014 86.351 0.033 87.509 0.997 -2.224 0.011 -81.561
123.935 0.011 -82.632 0.997 -2.365 0.035 87.352 0.015 86.121
          0.997 -2.365 0.011 -82.632 0.015 86.121 0.035 87.352
          0.035 87.352 0.015 86.121 0.011 -82.632 0.997 -2.365
          0.015 86.121 0.035 87.352 0.997 -2.365 0.011 -82.632
131.328 0.012 -83.62 0.997 -2.506 0.037 87.194 0.016 85.89
          0.997 -2.506 0.012 -83.62 0.016 85.89 0.037 87.194
          0.037 87.194 0.016 85.89 0.012 -83.62 0.997 -2.506
          0.016 85.89 0.037 87.194 0.997 -2.506 0.012 -83.62
138.722 0.013 -84.539 0.997 -2.647 0.039 87.037 0.017 85.66
          0.997 -2.647 0.013 -84.539 0.017 85.66 0.039 87.037
          0.039 87.037 0.017 85.66 0.013 -84.539 0.997 -2.647
          0.017 85.66 0.039 87.037 0.997 -2.647 0.013 -84.539
146.115 0.013 -85.397 0.996 -2.788 0.041 86.88 0.018 85.43
          0.996 -2.788 0.013 -85.397 0.018 85.43 0.041 86.88
          0.041 86.88 0.018 85.43 0.013 -85.397 0.996 -2.788
          0.018 85.43 0.041 86.88 0.996 -2.788 0.013 -85.397
153.509 0.014 -86.204 0.996 -2.928 0.044 86.722 0.019 85.199
          0.996 -2.928 0.014 -86.204 0.019 85.199 0.044 86.722
          0.044 86.722 0.019 85.199 0.014 -86.204 0.996 -2.928
          0.019 85.199 0.044 86.722 0.996 -2.928 0.014 -86.204
160.902 0.015 -86.965 0.996 -3.069 0.046 86.565 0.02 84.969
          0.996 -3.069 0.015 -86.965 0.02 84.969 0.046 86.565
          0.046 86.565 0.02 84.969 0.015 -86.965 0.996 -3.069
          0.02 84.969 0.046 86.565 0.996 -3.069 0.015 -86.965
168.296 0.015 -87.688 0.996 -3.21 0.048 86.408 0.021 84.739
          0.996 -3.21 0.015 -87.688 0.021 84.739 0.048 86.408
          0.048 86.408 0.021 84.739 0.015 -87.688 0.996 -3.21
          0.021 84.739 0.048 86.408 0.996 -3.21 0.015 -87.688
175.689 0.016 -88.376 0.996 -3.35 0.05 86.251 0.021 84.509
          0.996 -3.35 0.016 -88.376 0.021 84.509 0.05 86.251
          0.05 86.251 0.021 84.509 0.016 -88.376 0.996 -3.35
          0.021 84.509 0.05 86.251 0.996 -3.35 0.016 -88.376
183.083 0.016 -89.034 0.996 -3.491 0.052 86.094 0.022 84.279
          0.996 -3.491 0.016 -89.034 0.022 84.279 0.052 86.094
          0.052 86.094 0.022 84.279 0.016 -89.034 0.996 -3.491
          0.022 84.279 0.052 86.094 0.996 -3.491 0.016 -89.034
190.476 0.017 -89.665 0.996 -3.631 0.054 85.937 0.023 84.05
          0.996 -3.631 0.017 -89.665 0.023 84.05 0.054 85.937
          0.054 85.937 0.023 84.05 0.017 -89.665 0.996 -3.631
          0.023 84.05 0.054 85.937 0.996 -3.631 0.017 -89.665
197.87 0.018 -90.272 0.996 -3.772 0.056 85.78 0.024 83.82
          0.996 -3.772 0.018 -90.272 0.024 83.82 0.056 85.78
          0.056 85.78 0.024 83.82 0.018 -90.272 0.996 -3.772
          0.024 83.82 0.056 85.78 0.996 -3.772 0.018 -90.272
205.263 0.018 -90.858 0.995 -3.912 0.058 85.623 0.025 83.59
          0.995 -3.912 0.018 -90.858 0.025 83.59 0.058 85.623
          0.058 85.623 0.025 83.59 0.018 -90.858 0.995 -3.912
          0.025 83.59 0.058 85.623 0.995 -3.912 0.018 -90.858
212.657 0.019 -91.424 0.995 -4.052 0.06 85.466 0.026 83.361
          0.995 -4.052 0.019 -91.424 0.026 83.361 0.06 85.466
          0.06 85.466 0.026 83.361 0.019 -91.424 0.995 -4.052
          0.026 83.361 0.06 85.466 0.995 -4.052 0.019 -91.424
220.05 0.02 -91.973 0.995 -4.193 0.062 85.309 0.027 83.132
          0.995 -4.193 0.02 -91.973 0.027 83.132 0.062 85.309
          0.062 85.309 0.027 83.132 0.02 -91.973 0.995 -4.193
          0.027 83.132 0.062 85.309 0.995 -4.193 0.02 -91.973
227.444 0.02 -92.506 0.995 -4.333 0.064 85.153 0.028 82.902
          0.995 -4.333 0.02 -92.506 0.028 82.902 0.064 85.153
          0.064 85.153 0.028 82.902 0.02 -92.506 0.995 -4.333
          0.028 82.902 0.064 85.153 0.995 -4.333 0.02 -92.506
234.837 0.021 -93.024 0.995 -4.473 0.067 84.996 0.029 82.673
          0.995 -4.473 0.021 -93.024 0.029 82.673 0.067 84.996
          0.067 84.996 0.029 82.673 0.021 -93.024 0.995 -4.473
          0.029 82.673 0.067 84.996 0.995 -4.473 0.021 -93.024
242.231 0.022 -93.53 0.994 -4.613 0.069 84.84 0.029 82.444
          0.994 -4.613 0.022 -93.53 0.029 82.444 0.069 84.84
          0.069 84.84 0.029 82.444 0.022 -93.53 0.994 -4.613
          0.029 82.444 0.069 84.84 0.994 -4.613 0.022 -93.53
249.624 0.022 -94.023 0.994 -4.753 0.071 84.683 0.03 82.215
          0.994 -4.753 0.022 -94.023 0.03 82.215 0.071 84.683
          0.071 84.683 0.03 82.215 0.022 -94.023 0.994 -4.753
          0.03 82.215 0.071 84.683 0.994 -4.753 0.022 -94.023
257.018 0.023 -94.506 0.994 -4.893 0.073 84.527 0.031 81.987
          0.994 -4.893 0.023 -94.506 0.031 81.987 0.073 84.527
          0.073 84.527 0.031 81.987 0.023 -94.506 0.994 -4.893
          0.031 81.987 0.073 84.527 0.994 -4.893 0.023 -94.506
264.411 0.024 -94.979 0.994 -5.033 0.075 84.371 0.032 81.758
          0.994 -5.033 0.024 -94.979 0.032 81.758 0.075 84.371
          0.075 84.371 0.032 81.758 0.024 -94.979 0.994 -5.033
          0.032 81.758 0.075 84.371 0.994 -5.033 0.024 -94.979
271.805 0.024 -95.442 0.994 -5.172 0.077 84.215 0.033 81.53
          0.994 -5.172 0.024 -95.442 0.033 81.53 0.077 84.215
          0.077 84.215 0.033 81.53 0.024 -95.442 0.994 -5.172
          0.033 81.53 0.077 84.215 0.994 -5.172 0.024 -95.442
279.198 0.025 -95.897 0.994 -5.312 0.079 84.059 0.034 81.301
          0.994 -5.312 0.025 -95.897 0.034 81.301 0.079 84.059
          0.079 84.059 0.034 81.301 0.025 -95.897 0.994 -5.312
          0.034 81.301 0.079 84.059 0.994 -5.312 0.025 -95.897
286.591 0.026 -96.344 0.993 -5.452 0.081 83.903 0.035 81.073
          0.993 -5.452 0.026 -96.344 0.035 81.073 0.081 83.903
          0.081 83.903 0.035 81.073 0.026 -96.344 0.993 -5.452
          0.035 81.073 0.081 83.903 0.993 -5.452 0.026 -96.344
293.985 0.026 -96.784 0.993 -5.591 0.083 83.747 0.036 80.845
          0.993 -5.591 0.026 -96.784 0.036 80.845 0.083 83.747
          0.083 83.747 0.036 80.845 0.026 -96.784 0.993 -5.591
          0.036 80.845 0.083 83.747 0.993 -5.591 0.026 -96.784
301.378 0.027 -97.217 0.993 -5.731 0.085 83.592 0.037 80.617
          0.993 -5.731 0.027 -97.217 0.037 80.617 0.085 83.592
          0.085 83.592 0.037 80.617 0.027 -97.217 0.993 -5.731
          0.037 80.617 0.085 83.592 0.993 -5.731 0.027 -97.217
308.772 0.027 -97.643 0.993 -5.87 0.087 83.436 0.037 80.39
          0.993 -5.87 0.027 -97.643 0.037 80.39 0.087 83.436
          0.087 83.436 0.037 80.39 0.027 -97.643 0.993 -5.87
          0.037 80.39 0.087 83.436 0.993 -5.87 0.027 -97.643
316.165 0.028 -98.064 0.992 -6.009 0.089 83.281 0.038 80.162
          0.992 -6.009 0.028 -98.064 0.038 80.162 0.089 83.281
          0.089 83.281 0.038 80.162 0.028 -98.064 0.992 -6.009
          0.038 80.162 0.089 83.281 0.992 -6.009 0.028 -98.064
323.559 0.029 -98.479 0.992 -6.148 0.091 83.125 0.039 79.935
          0.992 -6.148 0.029 -98.479 0.039 79.935 0.091 83.125
          0.091 83.125 0.039 79.935 0.029 -98.479 0.992 -6.148
          0.039 79.935 0.091 83.125 0.992 -6.148 0.029 -98.479
330.952 0.029 -98.889 0.992 -6.287 0.093 82.97 0.04 79.708
          0.992 -6.287 0.029 -98.889 0.04 79.708 0.093 82.97
          0.093 82.97 0.04 79.708 0.029 -98.889 0.992 -6.287
          0.04 79.708 0.093 82.97 0.992 -6.287 0.029 -98.889
338.346 0.03 -99.295 0.992 -6.426 0.095 82.815 0.041 79.481
          0.992 -6.426 0.03 -99.295 0.041 79.481 0.095 82.815
          0.095 82.815 0.041 79.481 0.03 -99.295 0.992 -6.426
          0.041 79.481 0.095 82.815 0.992 -6.426 0.03 -99.295
345.739 0.031 -99.695 0.991 -6.565 0.098 82.66 0.042 79.254
          0.991 -6.565 0.031 -99.695 0.042 79.254 0.098 82.66
          0.098 82.66 0.042 79.254 0.031 -99.695 0.991 -6.565
          0.042 79.254 0.098 82.66 0.991 -6.565 0.031 -99.695
353.133 0.031 -100.092 0.991 -6.704 0.1 82.505 0.043 79.027
          0.991 -6.704 0.031 -100.092 0.043 79.027 0.1 82.505
          0.1 82.505 0.043 79.027 0.031 -100.092 0.991 -6.704
          0.043 79.027 0.1 82.505 0.991 -6.704 0.031 -100.092
360.526 0.032 -100.484 0.991 -6.842 0.102 82.351 0.044 78.8
          0.991 -6.842 0.032 -100.484 0.044 78.8 0.102 82.351
          0.102 82.351 0.044 78.8 0.032 -100.484 0.991 -6.842
          0.044 78.8 0.102 82.351 0.991 -6.842 0.032 -100.484
367.92 0.033 -100.873 0.991 -6.981 0.104 82.196 0.044 78.574
          0.991 -6.981 0.033 -100.873 0.044 78.574 0.104 82.196
          0.104 82.196 0.044 78.574 0.033 -100.873 0.991 -6.981
          0.044 78.574 0.104 82.196 0.991 -6.981 0.033 -100.873
375.313 0.033 -101.258 0.99 -7.119 0.106 82.042 0.045 78.348
          0.99 -7.119 0.033 -101.258 0.045 78.348 0.106 82.042
          0.106 82.042 0.045 78.348 0.033 -101.258 0.99 -7.119
          0.045 78.348 0.106 82.042 0.99 -7.119 0.033 -101.258
382.707 0.034 -101.639 0.99 -7.258 0.108 81.887 0.046 78.122
          0.99 -7.258 0.034 -101.639 0.046 78.122 0.108 81.887
          0.108 81.887 0.046 78.122 0.034 -101.639 0.99 -7.258
          0.046 78.122 0.108 81.887 0.99 -7.258 0.034 -101.639
390.1 0.034 -102.018 0.99 -7.396 0.11 81.733 0.047 77.896
          0.99 -7.396 0.034 -102.018 0.047 77.896 0.11 81.733
          0.11 81.733 0.047 77.896 0.034 -102.018 0.99 -7.396
          0.047 77.896 0.11 81.733 0.99 -7.396 0.034 -102.018
397.494 0.035 -102.393 0.989 -7.534 0.112 81.579 0.048 77.671
          0.989 -7.534 0.035 -102.393 0.048 77.671 0.112 81.579
          0.112 81.579 0.048 77.671 0.035 -102.393 0.989 -7.534
          0.048 77.671 0.112 81.579 0.989 -7.534 0.035 -102.393
404.887 0.036 -102.766 0.989 -7.672 0.114 81.425 0.049 77.446
          0.989 -7.672 0.036 -102.766 0.049 77.446 0.114 81.425
          0.114 81.425 0.049 77.446 0.036 -102.766 0.989 -7.672
          0.049 77.446 0.114 81.425 0.989 -7.672 0.036 -102.766
412.281 0.036 -103.135 0.989 -7.81 0.116 81.271 0.05 77.221
          0.989 -7.81 0.036 -103.135 0.05 77.221 0.116 81.271
          0.116 81.271 0.05 77.221 0.036 -103.135 0.989 -7.81
          0.05 77.221 0.116 81.271 0.989 -7.81 0.036 -103.135
419.674 0.037 -103.502 0.989 -7.948 0.118 81.118 0.05 76.996
          0.989 -7.948 0.037 -103.502 0.05 76.996 0.118 81.118
          0.118 81.118 0.05 76.996 0.037 -103.502 0.989 -7.948
          0.05 76.996 0.118 81.118 0.989 -7.948 0.037 -103.502
427.068 0.038 -103.867 0.988 -8.085 0.12 80.964 0.051 76.771
          0.988 -8.085 0.038 -103.867 0.051 76.771 0.12 80.964
          0.12 80.964 0.051 76.771 0.038 -103.867 0.988 -8.085
          0.051 76.771 0.12 80.964 0.988 -8.085 0.038 -103.867
434.461 0.038 -104.229 0.988 -8.223 0.122 80.811 0.052 76.546
          0.988 -8.223 0.038 -104.229 0.052 76.546 0.122 80.811
          0.122 80.811 0.052 76.546 0.038 -104.229 0.988 -8.223
          0.052 76.546 0.122 80.811 0.988 -8.223 0.038 -104.229
441.855 0.039 -104.589 0.988 -8.36 0.124 80.658 0.053 76.322
          0.988 -8.36 0.039 -104.589 0.053 76.322 0.124 80.658
          0.124 80.658 0.053 76.322 0.039 -104.589 0.988 -8.36
          0.053 76.322 0.124 80.658 0.988 -8.36 0.039 -104.589
449.248 0.039 -104.947 0.987 -8.498 0.126 80.505 0.054 76.098
          0.987 -8.498 0.039 -104.947 0.054 76.098 0.126 80.505
          0.126 80.505 0.054 76.098 0.039 -104.947 0.987 -8.498
          0.054 76.098 0.126 80.505 0.987 -8.498 0.039 -104.947
456.642 0.04 -105.303 0.987 -8.635 0.128 80.352 0.055 75.874
          0.987 -8.635 0.04 -105.303 0.055 75.874 0.128 80.352
          0.128 80.352 0.055 75.874 0.04 -105.303 0.987 -8.635
          0.055 75.874 0.128 80.352 0.987 -8.635 0.04 -105.303
464.035 0.041 -105.657 0.987 -8.772 0.13 80.199 0.056 75.651
          0.987 -8.772 0.041 -105.657 0.056 75.651 0.13 80.199
          0.13 80.199 0.056 75.651 0.041 -105.657 0.987 -8.772
          0.056 75.651 0.13 80.199 0.987 -8.772 0.041 -105.657
471.429 0.041 -106.008 0.986 -8.909 0.132 80.047 0.056 75.428
          0.986 -8.909 0.041 -106.008 0.056 75.428 0.132 80.047
          0.132 80.047 0.056 75.428 0.041 -106.008 0.986 -8.909
          0.056 75.428 0.132 80.047 0.986 -8.909 0.041 -106.008
478.822 0.042 -106.358 0.986 -9.046 0.134 79.894 0.057 75.205
          0.986 -9.046 0.042 -106.358 0.057 75.205 0.134 79.894
          0.134 79.894 0.057 75.205 0.042 -106.358 0.986 -9.046
          0.057 75.205 0.134 79.894 0.986 -9.046 0.042 -106.358
486.216 0.043 -106.707 0.986 -9.182 0.136 79.742 0.058 74.982
          0.986 -9.182 0.043 -106.707 0.058 74.982 0.136 79.742
          0.136 79.742 0.058 74.982 0.043 -106.707 0.986 -9.182
          0.058 74.982 0.136 79.742 0.986 -9.182 0.043 -106.707
493.609 0.043 -107.053 0.985 -9.319 0.138 79.59 0.059 74.759
          0.985 -9.319 0.043 -107.053 0.059 74.759 0.138 79.59
          0.138 79.59 0.059 74.759 0.043 -107.053 0.985 -9.319
          0.059 74.759 0.138 79.59 0.985 -9.319 0.043 -107.053
501.003 0.044 -107.398 0.985 -9.455 0.14 79.438 0.06 74.537
          0.985 -9.455 0.044 -107.398 0.06 74.537 0.14 79.438
          0.14 79.438 0.06 74.537 0.044 -107.398 0.985 -9.455
          0.06 74.537 0.14 79.438 0.985 -9.455 0.044 -107.398
508.396 0.044 -107.741 0.984 -9.591 0.142 79.287 0.061 74.315
          0.984 -9.591 0.044 -107.741 0.061 74.315 0.142 79.287
          0.142 79.287 0.061 74.315 0.044 -107.741 0.984 -9.591
          0.061 74.315 0.142 79.287 0.984 -9.591 0.044 -107.741
515.789 0.045 -108.083 0.984 -9.727 0.144 79.135 0.061 74.093
          0.984 -9.727 0.045 -108.083 0.061 74.093 0.144 79.135
          0.144 79.135 0.061 74.093 0.045 -108.083 0.984 -9.727
          0.061 74.093 0.144 79.135 0.984 -9.727 0.045 -108.083
523.183 0.046 -108.423 0.984 -9.863 0.146 78.984 0.062 73.871
          0.984 -9.863 0.046 -108.423 0.062 73.871 0.146 78.984
          0.146 78.984 0.062 73.871 0.046 -108.423 0.984 -9.863
          0.062 73.871 0.146 78.984 0.984 -9.863 0.046 -108.423
530.576 0.046 -108.762 0.983 -9.999 0.148 78.833 0.063 73.65
          0.983 -9.999 0.046 -108.762 0.063 73.65 0.148 78.833
          0.148 78.833 0.063 73.65 0.046 -108.762 0.983 -9.999
          0.063 73.65 0.148 78.833 0.983 -9.999 0.046 -108.762
537.97 0.047 -109.1 0.983 -10.135 0.15 78.682 0.064 73.429
          0.983 -10.135 0.047 -109.1 0.064 73.429 0.15 78.682
          0.15 78.682 0.064 73.429 0.047 -109.1 0.983 -10.135
          0.064 73.429 0.15 78.682 0.983 -10.135 0.047 -109.1
545.363 0.047 -109.436 0.983 -10.27 0.152 78.531 0.065 73.208
          0.983 -10.27 0.047 -109.436 0.065 73.208 0.152 78.531
          0.152 78.531 0.065 73.208 0.047 -109.436 0.983 -10.27
          0.065 73.208 0.152 78.531 0.983 -10.27 0.047 -109.436
552.757 0.048 -109.771 0.982 -10.406 0.154 78.38 0.066 72.988
          0.982 -10.406 0.048 -109.771 0.066 72.988 0.154 78.38
          0.154 78.38 0.066 72.988 0.048 -109.771 0.982 -10.406
          0.066 72.988 0.154 78.38 0.982 -10.406 0.048 -109.771
560.15 0.049 -110.105 0.982 -10.541 0.156 78.23 0.066 72.767
          0.982 -10.541 0.049 -110.105 0.066 72.767 0.156 78.23
          0.156 78.23 0.066 72.767 0.049 -110.105 0.982 -10.541
          0.066 72.767 0.156 78.23 0.982 -10.541 0.049 -110.105
567.544 0.049 -110.437 0.981 -10.676 0.158 78.079 0.067 72.547
          0.981 -10.676 0.049 -110.437 0.067 72.547 0.158 78.079
          0.158 78.079 0.067 72.547 0.049 -110.437 0.981 -10.676
          0.067 72.547 0.158 78.079 0.981 -10.676 0.049 -110.437
574.937 0.05 -110.769 0.981 -10.811 0.16 77.929 0.068 72.328
          0.981 -10.811 0.05 -110.769 0.068 72.328 0.16 77.929
          0.16 77.929 0.068 72.328 0.05 -110.769 0.981 -10.811
          0.068 72.328 0.16 77.929 0.981 -10.811 0.05 -110.769
582.331 0.05 -111.099 0.981 -10.946 0.162 77.78 0.069 72.108
          0.981 -10.946 0.05 -111.099 0.069 72.108 0.162 77.78
          0.162 77.78 0.069 72.108 0.05 -111.099 0.981 -10.946
          0.069 72.108 0.162 77.78 0.981 -10.946 0.05 -111.099
589.724 0.051 -111.428 0.98 -11.08 0.164 77.63 0.07 71.889
          0.98 -11.08 0.051 -111.428 0.07 71.889 0.164 77.63
          0.164 77.63 0.07 71.889 0.051 -111.428 0.98 -11.08
          0.07 71.889 0.164 77.63 0.98 -11.08 0.051 -111.428
597.118 0.052 -111.756 0.98 -11.215 0.166 77.48 0.07 71.67
          0.98 -11.215 0.052 -111.756 0.07 71.67 0.166 77.48
          0.166 77.48 0.07 71.67 0.052 -111.756 0.98 -11.215
          0.07 71.67 0.166 77.48 0.98 -11.215 0.052 -111.756
604.511 0.052 -112.083 0.979 -11.349 0.168 77.331 0.071 71.452
          0.979 -11.349 0.052 -112.083 0.071 71.452 0.168 77.331
          0.168 77.331 0.071 71.452 0.052 -112.083 0.979 -11.349
          0.071 71.452 0.168 77.331 0.979 -11.349 0.052 -112.083
611.905 0.053 -112.409 0.979 -11.483 0.17 77.182 0.072 71.233
          0.979 -11.483 0.053 -112.409 0.072 71.233 0.17 77.182
          0.17 77.182 0.072 71.233 0.053 -112.409 0.979 -11.483
          0.072 71.233 0.17 77.182 0.979 -11.483 0.053 -112.409
619.298 0.053 -112.734 0.978 -11.617 0.172 77.033 0.073 71.015
          0.978 -11.617 0.053 -112.734 0.073 71.015 0.172 77.033
          0.172 77.033 0.073 71.015 0.053 -112.734 0.978 -11.617
          0.073 71.015 0.172 77.033 0.978 -11.617 0.053 -112.734
626.692 0.054 -113.058 0.978 -11.751 0.173 76.884 0.074 70.798
          0.978 -11.751 0.054 -113.058 0.074 70.798 0.173 76.884
          0.173 76.884 0.074 70.798 0.054 -113.058 0.978 -11.751
