! Network Analyzer HP8720D.07.14 Serial No. US38111185																															
! 																															
! 28 Apr 1999  02:06:29																															
! Frequency 	S11		S21		S31		S41		S12		S22		S23		S24		S13		S23		S33		S34		S14		S24		S34		S44
# HZ  S  DB R 50																															
50000000	-49.026	-14.078	0.0108	-0.4888	-49.162	95.874	-57.885	101.54																							
	0.048	-0.6468	-51.342	-15.404	-58.254	36.449	-47.502	94.912																							
	-46.843	90.63	-54.852	84.725	-49.992	-12.551	0.0103	-0.8102																							
	-60.762	79.498	-46.262	76.124	0.0324	-0.8088	-54.579	-13.704																							
150000000	-44.702	-54.723	0.0156	-2.1643	-37.614	87.131	-48.117	88.191																							
	-0.0057	-2.2124	-45.645	-51.553	-48.025	85.85	-37.548	87.098																							
	-37.6	87.139	-47.428	88.474	-51.343	-42.7	0.019	-2.9732																							
	-47.751	84.055	-37.575	87.127	0.0092	-3.0089	-51.634	-25.207																							
250000000	-41.524	-70.02	-0.0096	-3.6255	-33.219	85.741	-43.427	86.037																							
	-0.0085	-3.7175	-42.32	-65.838	-43.445	86.473	-33.208	85.472																							
	-33.164	85.846	-43.333	85.231	-46.138	-61.415	-0.0011	-4.8944																							
	-43.336	84.603	-33.168	85.818	-0.0072	-5.0029	-46.58	-41.988
350000000	-39.52	-82.237	-0.0095	-5.0716	-30.297	83.716	-40.543	82.491
	-0.0151	-5.0935	-40.233	-76.653	-40.348	83.488	-30.265	83.649
	-30.301	83.813	-40.427	83.474	-47.258	-73.338	-0.0089	-6.8637
	-40.575	83.039	-30.268	83.776	-0.0105	-6.8898	-45.334	-48.338
450000000	-37.966	-96.792	-0.0191	-6.4847	-28.115	81.841	-38.426	80.912
	-0.0129	-6.5451	-38.769	-89.937	-38.152	81.701	-28.131	82.091
	-28.147	81.91	-38.178	81.531	-44.112	-89.21	-0.025	-8.8028
	-38.388	80.877	-28.128	82.003	-0.0293	-8.8907	-42.281	-57.472
550000000	-36.353	-109.13	-0.0232	-7.917	-26.389	80.328	-36.731	78.738
	-0.0271	-7.9761	-37.013	-100.31	-36.389	79.047	-26.373	80.332
	-26.412	80.246	-36.43	79.177	-48.696	-98.801	-0.0251	-10.778
	-36.708	78.653	-26.374	80.235	-0.0277	-10.848	-41.818	-51.526
650000000	-34.742	-119.16	-0.0207	-9.4112	-24.979	78.615	-35.327	76.941
	-0.0425	-9.3782	-35.388	-108.42	-34.98	76.466	-24.945	78.562
	-24.974	78.563	-34.963	76.538	-48.201	-129.41	-0.0412	-12.758
	-35.329	76.819	-24.945	78.64	-0.0286	-12.828	-40.291	-54.664
750000000	-33.385	-126.47	-0.026	-10.756	-23.751	76.918	-34.173	75.157
	-0.0391	-10.845	-34.074	-113.8	-33.767	73.494	-23.722	76.939
	-23.761	76.855	-33.734	73.643	-49.385	146	-0.0414	-14.608
	-34.19	75.16	-23.723	76.87	-0.0497	-14.737	-40.15	-43.708
850000000	-32.412	-133.3	-0.0395	-12.269	-22.678	75.329	-33.211	73.269
	-0.056	-12.25	-33.045	-118.1	-32.809	70.591	-22.639	75.321
	-22.703	75.203	-32.801	70.376	-43.759	138.77	-0.047	-16.587
	-33.223	73.087	-22.657	75.238	-0.0729	-16.696	-38.984	-44.919
950000000	-31.649	-139.65	-0.0576	-13.729	-21.756	73.662	-32.376	71.439
	-0.0532	-13.708	-32.251	-121.83	-32.049	67.532	-21.69	73.593
	-21.747	73.523	-32.042	67.418	-39.022	108.6	-0.07	-18.631
	-32.344	71.417	-21.69	73.536	-0.0696	-18.64	-37.995	-30.299
1050000000	-31.044	-146.29	-0.0615	-15.175	-20.915	72.006	-31.597	69.869
	-0.0658	-15.009	-31.612	-124.81	-31.429	64.979	-20.825	71.727
	-20.915	72.048	-31.433	64.899	-36.106	105.41	-0.076	-20.623
	-31.633	69.832	-20.853	71.969	-0.0889	-20.566	-36.809	-28.481
1150000000	-30.588	-153.19	-0.0592	-16.679	-20.14	70.242	-30.97	68.003
	-0.0881	-16.528	-31.19	-127.74	-30.935	62.509	-20.072	70.199
	-20.171	70.406	-30.961	62.559	-32.996	90.405	-0.0975	-22.765
	-30.986	68.259	-20.105	70.226	-0.116	-22.286	-34.664	-16.475
1250000000	-30.193	-160.65	-0.0698	-18.116	-19.453	68.575	-30.374	66.558
	-0.088	-17.978	-30.874	-131.07	-30.568	60.426	-19.385	68.494
	-19.459	68.702	-30.602	60.418	-31.041	88.654	-0.1125	-24.557
	-30.392	66.72	-19.384	68.6	-0.1152	-24.429	-33.388	-13.136
1350000000	-29.759	-168.25	-0.0864	-19.465	-18.821	67.069	-29.845	65.281
	-0.0951	-19.473	-30.601	-134.47	-30.301	59.086	-18.713	66.846
	-18.822	67.048	-30.354	58.933	-29.067	77.603	-0.1395	-26.52
	-29.882	65.289	-18.756	66.861	-0.1444	-26.414	-31.125	-7.7055
1450000000	-29.27	-175.98	-0.1028	-20.922	-18.207	65.654	-29.38	63.92
	-0.1166	-20.947	-30.291	-138.39	-30.168	58.418	-18.127	65.231
	-18.264	65.507	-30.21	58.116	-27.675	74.48	-0.1644	-28.409
	-29.439	63.88	-18.158	65.293	-0.1616	-28.255	-29.789	-5.9093
1550000000	-28.771	177.09	-0.1211	-22.367	-17.653	64.076	-28.963	62.757
	-0.1454	-22.234	-29.906	-141.94	-29.906	58.299	-17.58	63.614
	-17.73	64.21	-29.979	58.245	-26.212	64.337	-0.1784	-30.52
	-29.038	63.035	-17.612	63.861	-0.1497	-30.046	-27.8	-4.4357
1650000000	-28.291	170.63	-0.1244	-23.795	-17.155	62.496	-28.598	61.681
	-0.1252	-23.464	-29.488	-144.58	-29.712	58.42	-17.042	62.106
	-17.175	62.687	-29.772	58.512	-24.999	60.535	-0.2112	-32.329
	-28.604	62.128	-17.072	62.472	-0.1458	-32.154	-26.569	-3.5321
1750000000	-27.885	165.17	-0.129	-25.28	-16.647	60.852	-28.248	60.809
	-0.1465	-24.69	-29.138	-146.88	-29.484	59.209	-16.559	60.292
	-16.691	61.378	-29.566	59.682	-23.944	51.299	-0.2178	-34.343
	-28.272	61.559	-16.591	60.925	-0.1608	-34.163	-24.939	-4.3987
1850000000	-27.573	159.38	-0.1636	-26.603	-16.221	59.133	-27.94	59.851
	-0.1555	-26.439	-28.876	-148.63	-29.238	60.216	-16.107	58.686
	-16.259	59.494	-29.292	60.36	-22.933	46.544	-0.2835	-36.263
	-27.996	60.315	-16.13	58.969	-0.235	-35.931	-23.806	-4.7543
1950000000	-27.365	153.76	-0.1994	-28.18	-15.766	57.604	-27.64	59.042
	-0.1494	-27.679	-28.687	-150.28	-28.909	61.434	-15.659	56.955
	-15.817	58.343	-29.005	61.725	-22.078	37.491	-0.3301	-38.48
	-27.652	59.998	-15.697	57.589	-0.2352	-38.101	-22.439	-6.898
2050000000	-27.271	147.57	-0.2437	-29.607	-15.339	56.056	-27.379	58.49
	-0.2196	-29.247	-28.672	-152.4	-28.518	62.868	-15.241	55.275
	-15.499	56.725	-28.692	62.905	-21.156	31.966	-0.377	-40.671
	-27.511	59.575	-15.376	55.852	-0.2384	-39.733	-21.456	-7.5792
2150000000	-27.183	140.47	-0.2205	-31.148	-14.989	54.369	-27.148	58.138
	-0.2112	-30.49	-28.754	-154.79	-28.128	63.806	-14.865	53.674
	-15.082	55.331	-28.248	64.351	-20.335	22.897	-0.3863	-42.362
	-27.22	59.398	-14.982	54.528	-0.2916	-41.865	-20.345	-10.194
2250000000	-27.036	132.96	-0.2158	-32.312	-14.649	52.804	-26.931	58.114
	-0.2149	-32.07	-28.826	-158.07	-27.687	64.825	-14.515	52.184
	-14.733	53.579	-27.788	65.251	-19.404	17.117	-0.4571	-43.899
	-27.009	59.06	-14.613	52.653	-0.3265	-43.616	-19.472	-11.613
2350000000	-26.849	126.1	-0.2356	-33.676	-14.3	51.229	-26.707	58.23
	-0.1398	-33.069	-28.835	-161.65	-27.182	65.457	-14.175	50.442
	-14.245	52.483	-27.212	66.694	-18.643	8.8481	-0.5086	-45.902
	-26.616	59.594	-14.159	51.835	-0.5022	-46.307	-18.555	-14.751
2450000000	-26.757	119.74	-0.3335	-35.233	-13.949	49.264	-26.472	58.067
	-0.2169	-34.792	-28.942	-164.46	-26.658	65.623	-13.853	48.297
	-14.017	50.934	-26.814	66.98	-17.728	3.5417	-0.6422	-48.43
	-26.475	59.855	-13.937	49.89	-0.4576	-47.825	-17.755	-16.42
2550000000	-26.791	113.16	-0.3027	-36.98	-13.604	47.789	-26.183	58.729
	-0.1308	-36.406	-29.206	-166.23	-26.144	65.994	-13.505	46.837
	-13.594	48.723	-26.166	67.095	-16.99	-4.1391	-0.6072	-50.245
	-26.103	59.683	-13.472	48.137	-0.6437	-49.208	-17.021	-20.23
2650000000	-26.911	105.38	-0.2888	-38.245	-13.359	46.596	-25.916	59.499
	-0.2367	-37.814	-29.76	-167.19	-25.677	66.145	-13.213	45.426
	-13.415	47.822	-25.772	67.26	-16.108	-8.708	-0.6621	-51.715
	-25.95	60.903	-13.317	46.73	-0.5857	-51.496	-16.285	-22.199
2750000000	-26.987	95.847	-0.2103	-39.243	-13.155	45.558	-25.685	61.014
	-0.2407	-39.18	-30.716	-168.36	-25.219	66.846	-13	44.662
	-13.115	46.41	-25.234	67.408	-15.488	-15.542	-0.7206	-52.413
	-25.668	61.842	-13.011	45.258	-0.6666	-53.429	-15.707	-26.213
2850000000	-26.946	86.175	-0.3299	-40.909	-12.833	43.411	-25.336	61.129
	-0.3485	-40.73	-31.842	-169.99	-24.718	65.538	-12.694	42.223
	-12.989	45.352	-24.893	66.845	-14.63	-19.635	-0.8134	-55.377
	-25.474	63.169	-12.891	43.562	-0.563	-55.957	-15.008	-28.792
2950000000	-26.813	76.929	-0.3188	-42.27	-12.585	42.529	-24.927	62.776
	-0.2496	-41.939	-33.2	-171.51	-24.275	65.733	-12.437	41.201
	-12.549	43.871	-24.289	67.113	-14.148	-25.052	-0.8256	-56.678
	-24.902	64.186	-12.45	42.586	-0.8899	-56.928	-14.558	-32.756
3050000000	-26.665	68.59	-0.4058	-44.265	-12.265	40.524	-24.429	63.052
	-0.3303	-43.569	-34.668	-171.31	-23.747	65.093	-12.115	38.955
	-12.356	42.676	-23.877	67.293	-13.391	-29.393	-0.8408	-59.531
	-24.49	65.275	-12.269	41.118	-0.9177	-59.62	-13.925	-35.934
3150000000	-26.734	60.016	-0.2344	-45.402	-12.114	40.921	-23.986	65.638
	-0.2217	-45.415	-36.518	-165.5	-23.191	67.11	-11.914	39.287
	-12.04	40.339	-23.151	66.478	-13.029	-33.94	-0.8394	-59.071
	-23.923	64.98	-11.856	38.986	-0.9345	-58.832	-13.535	-39.761
3250000000	-26.791	51.34	-0.3899	-46.791	-11.873	38.212	-23.449	64.854
	-0.3276	-47.096	-38.793	-153.83	-22.672	64.672	-11.694	36.595
	-11.946	39.239	-22.69	65.576	-12.429	-38.054	-1.0015	-62.275
	-23.514	65.792	-11.757	37.153	-0.7997	-61.642	-13	-43.293
3350000000	-26.925	40.949	-0.3145	-48.671	-11.514	38.172	-22.754	66.27
	-0.384	-48.422	-40.366	-126.79	-21.937	64.604	-11.346	36.086
	-11.697	38.265	-22.163	64.688	-12.173	-42.127	-0.8894	-63.148
	-22.93	66.346	-11.551	36.027	-0.9063	-64.016	-12.656	-47.216
3450000000	-26.872	31.811	-0.4652	-50.103	-11.319	35.219	-22.204	64.635
	-0.4925	-49.739	-39.625	-94.796	-21.537	61.44	-11.172	33.087
	-11.499	37.617	-21.722	63.839	-11.677	-46.357	-1.0711	-66.356
	-22.385	67.052	-11.426	35.175	-1.0795	-67.679	-12.18	-50.942
3550000000	-26.804	22.603	-0.3721	-51.935	-10.991	35.219	-21.497	65.469
	-0.4427	-50.839	-37.204	-74.463	-20.892	61.144	-10.835	32.809
	-11.161	36.41	-21.133	62.696	-11.519	-50.013	-0.9908	-66.944
	-21.678	66.691	-11.084	34.111	-1.3714	-67.828	-11.918	-54.949
3650000000	-26.899	15.065	-0.4683	-53.185	-10.833	33.037	-20.965	63.984
	-0.4857	-52.35	-35.025	-64.903	-20.576	58.596	-10.718	30.587
	-10.954	35.155	-20.689	61.055	-11.179	-54.513	-1.1791	-69.291
	-21.092	65.934	-10.887	32.693	-1.4479	-69.706	-11.571	-59.05
3750000000	-27.31	6.9131	-0.4528	-54.93	-10.454	32.566	-20.182	63.778
	-0.4959	-53.895	-33.169	-63.853	-19.933	57.589	-10.331	29.92
	-10.705	33.74	-20.217	59.446	-11.125	-58.156	-1.0861	-70.223
	-20.449	64.899	-10.624	31.293	-1.5084	-70.078	-11.382	-63.1
3850000000	-28.019	-2.9416	-0.5346	-56.429	-10.199	30.46	-19.53	61.839
	-0.5156	-55.687	-31.539	-65.842	-19.521	54.907	-10.127	27.756
	-10.512	32.252	-19.784	57.6	-10.869	-63.011	-1.1352	-72.338
	-19.835	63.379	-10.422	29.626	-1.3561	-71.857	-11.062	-67.69
3950000000	-28.627	-15.233	-0.5859	-57.478	-10.117	29.027	-19.108	59.915
	-0.594	-57.209	-29.938	-67.551	-19.292	53.274	-10.063	26.168
	-10.277	31.297	-19.388	55.922	-10.845	-66.201	-1.2959	-73.847
	-19.238	61.986	-10.233	28.45	-1.4722	-73.792	-10.934	-71.12
4050000000	-28.893	-28.38	-0.6627	-59.139	-9.7872	26.757	-18.417	57.163
	-0.6865	-59.014	-28.468	-68.368	-18.787	50.094	-9.7712	23.832
	-10.113	29.703	-19.036	53.736	-10.715	-71.344	-1.2368	-76.226
	-18.709	59.921	-10.075	26.682	-1.4236	-77.059	-10.742	-76.367



								
								
								
								












































































																																
																																
																																
																																
