! Network Analyzer HP8720D.07.14 Serial No. US38111185																															
! 																															
! 28 Apr 1999  02:06:29																															
! Frequency 	S11		S21		S31		S41		S12		S22		S23		S24		S13		S23		S33		S34		S14		S24		S34		S44
# HZ  S  DB R 50																															
50000000	-47.921	-30.723	-0.013	-0.9915	-40.134	95.713	-52.697	96.803																							
	0.0265	-0.9832	-49.093	-11.227	-53.451	99.451	-40.869	89.529																							
	-41.022	89.561	-55.539	76.823	-40.416	61.495	-0.02	-1.5807																							
	-54.623	97.055	-40.599	89.166	0.0026	-1.5559	-42.037	61.659																							
150000000	-42.5	-67.624	0.0059	-3.1187	-31.483	85.86	-44.343	86.792																							
	-0.014	-3.241	-41.961	-64.87	-44.458	87.914	-31.49	86.05																							
	-31.534	86.137	-44.206	86.824	-32.735	69.608	-0.0456	-4.801																							
	-44.547	85.564	-31.58	85.34	-0.044	-4.8628	-32.412	68.801																							
250000000	-38.723	-83.731	-0.0259	-5.3339	-27.113	83.732	-40.008	85.011																							
	-0.0294	-5.4012	-38.423	-76.862	-39.972	86.784	-27.163	82.952																							
	-27.11	83.497	-40.055	86.243	-28.781	66.628	-0.0693	-8.0008																							
	-40.076	84.978	-27.147	83.242	-0.0706	-8.0145	-28.413	65.996
350000000	-36.264	-96.932	-0.0376	-7.4748	-24.2	80.949	-37.209	83.48
	-0.045	-7.4817	-35.938	-86.094	-37.143	84.971	-24.23	80.182
	-24.215	81.009	-37.205	85.619	-25.833	64.841	-0.0903	-11.159
	-37.215	83.686	-24.252	80.394	-0.1008	-11.163	-25.674	62.845
450000000	-34.317	-110.22	-0.069	-9.6007	-22.053	78.569	-35.123	81.535
	-0.065	-9.6831	-34.066	-95.635	-35.089	84.36	-22.071	77.767
	-22.059	78.44	-35.087	84.283	-23.897	60.417	-0.1349	-14.115
	-35.114	81.492	-22.078	77.66	-0.1323	-14.339	-23.77	57.59
550000000	-32.466	-121.32	-0.0625	-11.803	-20.315	75.986	-33.46	79.574
	-0.0753	-11.779	-32.381	-104.01	-33.38	83.386	-20.344	75.033
	-20.337	75.957	-33.373	83.3	-21.952	56.939	-0.1706	-17.424
	-33.459	79.91	-20.348	74.997	-0.1751	-17.379	-21.971	52.813
650000000	-30.782	-130.22	-0.1254	-13.679	-18.89	73.518	-32.147	78.153
	-0.0879	-13.855	-30.839	-110.78	-32.008	82.555	-18.914	72.434
	-18.897	73.483	-31.993	82.69	-20.556	52.603	-0.2084	-20.52
	-32.138	78.21	-18.912	72.449	-0.2087	-20.494	-20.637	47.699
750000000	-29.46	-137.1	-0.1114	-15.967	-17.693	71.183	-31.028	76.69
	-0.1223	-15.974	-29.597	-115.27	-30.867	81.907	-17.707	69.869
	-17.704	71.072	-30.817	81.795	-19.135	48.749	-0.2664	-23.568
	-31.021	76.713	-17.71	69.656	-0.2435	-23.586	-19.377	42.573
850000000	-28.567	-143.26	-0.1446	-17.982	-16.631	68.839	-30.099	75.516
	-0.1546	-18.064	-28.755	-119.02	-29.807	81.51	-16.643	67.228
	-16.637	68.508	-29.811	81.337	-18.11	44.492	-0.3163	-26.639
	-30.101	75.291	-16.648	66.982	-0.2925	-26.754	-18.344	37.614
950000000	-27.969	-149.84	-0.176	-20.165	-15.682	66.189	-29.261	74.118
	-0.1681	-20.208	-28.229	-122.84	-28.863	80.995	-15.686	64.255
	-15.7	66.206	-28.876	81.049	-17.017	40.074	-0.3659	-29.979
	-29.282	74.199	-15.7	64.295	-0.3477	-29.785	-17.296	32.503
1050000000	-27.523	-157.11	-0.2046	-22.343	-14.832	63.913	-28.566	73.19
	-0.2104	-22.159	-27.882	-127.49	-28.027	81.069	-14.847	61.81
	-14.871	63.991	-28.041	81.005	-16.23	35.303	-0.4132	-32.948
	-28.573	73.371	-14.852	61.882	-0.3916	-33.069	-16.45	27.276
1150000000	-27.136	-164.72	-0.2443	-24.648	-14.077	61.224	-27.957	72.256
	-0.2693	-24.263	-27.644	-132.55	-27.228	80.651	-14.089	59.002
	-14.131	61.51	-27.265	80.803	-15.356	30.413	-0.4848	-36.177
	-28.011	72.493	-14.129	59.141	-0.4243	-35.818	-15.546	22.42
1250000000	-26.752	-171.96	-0.2559	-26.491	-13.408	58.946	-27.421	71.848
	-0.2818	-26.455	-27.403	-137.88	-26.489	80.728	-13.429	56.497
	-13.409	59.093	-26.489	80.732	-14.749	25.407	-0.5852	-39.142
	-27.423	71.768	-13.421	56.475	-0.5516	-39.19	-14.811	17.538
1350000000	-26.528	-178.71	-0.3082	-28.651	-12.749	56.504	-26.909	71.226
	-0.3366	-28.538	-27.269	-142.81	-25.735	80.77	-12.778	53.878
	-12.804	56.562	-25.774	80.607	-14.021	19.964	-0.6412	-42.404
	-26.976	71.322	-12.826	53.715	-0.591	-42.311	-14.016	13.004
1450000000	-26.443	174.35	-0.3643	-30.615	-12.148	53.848	-26.438	70.734
	-0.3751	-30.659	-27.334	-148.18	-25.002	80.392	-12.203	50.846
	-12.217	54.185	-25.078	80.609	-13.56	14.558	-0.7396	-45.813
	-26.542	71.132	-12.268	51.125	-0.6563	-45.225	-13.377	8.8124
1550000000	-26.463	167.24	-0.417	-32.805	-11.543	51.247	-25.987	70.635
	-0.4414	-32.581	-27.558	-154.56	-24.257	79.976	-11.614	48.111
	-11.694	52.195	-24.399	80.756	-12.945	8.513	-0.7743	-49.135
	-26.136	71.595	-11.752	48.796	-0.6525	-48.889	-12.694	4.4371
1650000000	-26.449	159.6	-0.4553	-34.773	-11.11	49.084	-25.649	71.168
	-0.4521	-34.372	-27.709	-162.68	-23.627	80.012	-11.198	45.629
	-11.128	50.008	-23.678	80.807	-12.565	3.0061	-0.929	-52.145
	-25.69	72.099	-11.232	46.344	-0.7947	-52.862	-12.116	0.7333
1750000000	-26.397	152.97	-0.499	-36.918	-10.592	46.706	-25.223	71.895
	-0.4964	-36.201	-27.721	-171.17	-22.901	79.792	-10.697	43.068
	-10.649	47.773	-22.983	80.729	-12.064	-3.5568	-0.9621	-55.21
	-25.3	72.988	-10.798	44.052	-0.9162	-56.683	-11.538	-3.2286
1850000000	-26.492	147.3	-0.5527	-38.78	-10.211	44.121	-24.906	72.567
	-0.5522	-38.688	-27.68	-178.87	-22.288	79.137	-10.346	40.275
	-10.243	44.908	-22.321	79.858	-11.666	-9.7998	-1.1404	-58.604
	-24.951	73.45	-10.387	41.064	-1.0406	-58.701	-11.013	-7.0313
1950000000	-26.889	142.6	-0.641	-40.894	-9.7417	40.791	-24.439	72.907
	-0.5906	-40.497	-27.854	173.68	-21.588	77.731	-9.8883	36.768
	-9.7673	42.788	-21.627	79.643	-11.197	-16.79	-1.2114	-62.544
	-24.504	74.899	-9.9694	38.835	-1.2267	-62.722	-10.477	-10.878
2050000000	-27.632	136.33	-0.7201	-42.785	-9.3666	37.985	-23.993	73.777
	-0.7038	-42.656	-28.475	164.03	-20.967	76.579	-9.5242	33.843
	-9.4568	40.603	-21.063	79.04	-10.831	-22.983	-1.3185	-66.151
	-24.152	76.494	-9.6959	36.391	-1.1391	-66.189	-10.028	-14.255
2150000000	-28.502	127.92	-0.7554	-45.104	-8.9718	36.104	-23.497	75.916
	-0.7467	-44.506	-29.151	149.73	-20.297	76.319	-9.1806	31.972
	-9.035	38.18	-20.374	78.312	-10.358	-30.317	-1.4148	-68.895
	-23.615	78.125	-9.3136	33.999	-1.4194	-69.633	-9.5853	-18.344
2250000000	-29.101	118.47	-0.778	-46.866	-8.7124	34.18	-23.078	77.905
	-0.8089	-46.776	-29.043	132.05	-19.746	75.76	-8.979	29.781
	-8.6995	35.586	-19.743	77.215	-9.9712	-36.766	-1.6327	-71.602
	-23.103	79.555	-9.0126	31.349	-1.5034	-72.795	-9.1778	-22.062
2350000000	-29.585	111.43	-0.8346	-48.842	-8.4106	31.599	-22.503	79.338
	-0.8001	-48.275	-28.294	116.44	-19.177	74.479	-8.7109	27.02
	-8.2246	33.422	-18.982	76.446	-9.4819	-43.959	-1.7876	-75.065
	-22.391	81.402	-8.5758	29.114	-2.179	-75.538	-8.7785	-26.117
2450000000	-30.318	107.83	-0.9675	-50.595	-8.2252	27.431	-21.885	78.786
	-0.9223	-50.665	-27.472	104.77	-18.719	71.645	-8.4739	22.529
	-8.0103	30.954	-18.472	75.027	-9.0572	-50.326	-2.0038	-80.099
	-21.808	82.746	-8.4081	26.631	-2.0146	-79.378	-8.3807	-30.138
2550000000	-31.996	105.09	-1.0007	-52.903	-7.8238	25.417	-21.061	80.331
	-0.893	-52.741	-27.084	92.387	-17.989	70.422	-8.1146	20.763
	-7.6119	27.952	-17.775	73.019	-8.5895	-57.34	-2.0462	-83.12
	-21.014	83.364	-8.0621	23.432	-2.2729	-79.659	-8.0277	-34.687
2650000000	-34.897	98.773	-1.0375	-54.918	-7.5419	23.574	-20.35	81.807
	-1.0676	-54.775	-26.709	78.543	-17.439	69.787	-7.9141	18.975
	-7.3934	25.88	-17.267	72.069	-8.1536	-63.439	-2.2211	-85.909
	-20.336	84.33	-7.8835	21.668	-2.3564	-85.638	-7.6723	-39.288
2750000000	-38.524	81.221	-1.0592	-56.868	-7.2349	23.689	-19.681	84.339
	-1.1379	-56.718	-25.705	62.938	-16.828	70.319	-7.8169	18.765
	-7.1338	23.537	-16.696	70.351	-7.7117	-70.097	-2.4564	-86.979
	-19.569	84.585	-7.6345	19.201	-2.5789	-88.678	-7.3585	-44.147
2850000000	-40.054	59.457	-1.1693	-58.656	-7.2003	18.853	-18.924	81.567
	-1.3101	-59.133	-24.271	52.966	-16.506	66.331	-7.6034	13.631
	-6.9775	21.348	-16.225	69.033	-7.2787	-75.755	-2.6543	-92.869
	-18.872	84.725	-7.4999	17.4	-2.6884	-95.418	-7.0035	-49.083
2950000000	-42.653	45.683	-1.2371	-60.651	-6.8503	17.218	-18.04	81.781
	-1.2753	-60.281	-23.082	46.081	-15.861	64.95	-7.3455	12.345
	-6.6105	19.048	-15.549	66.572	-6.8985	-82.172	-2.76	-95.457
	-17.961	84.323	-7.1733	14.527	-3.1371	-94.043	-6.6996	-54.237
3050000000	-50.483	51.596	-1.3393	-62.699	-6.6955	12.704	-17.168	78.673
	-1.4357	-62.446	-22.319	41.396	-15.435	60.978	-7.0606	7.8951
	-6.4208	16.577	-15.055	64.668	-6.497	-87.987	-2.8394	-101.01
	-17.19	83.271	-6.9777	12.222	-3.4373	-99.314	-6.3739	-59.757
3150000000	-44.753	-127.96	-1.3713	-64.884	-6.0081	14.347	-16.258	82.157
	-1.2921	-64.719	-21.904	34.523	-14.467	62.761	-6.7593	10.359
	-6.0822	13.572	-14.56	61.618	-6.1267	-94.081	-2.8725	-99.937
	-16.254	81.201	-6.7993	9.1612	-2.8356	-98.915	-6.0725	-65.299
3250000000	-39.526	-120.98	-1.4566	-66.584	-6.2668	9.7531	-15.775	76.911
	-1.5008	-67.442	-21.265	27.236	-14.481	58.405	-6.8268	4.7708
	-5.9832	11.192	-14.177	60.105	-5.8168	-99.311	-3.2958	-106.64
	-15.639	79.232	-6.6902	7.4309	-3.0054	-106.88	-5.8013	-70.753
3350000000	-35.828	-126.24	-1.5573	-68.656	-5.5447	7.5696	-14.589	76.583
	-1.6426	-69.138	-20.647	20.705	-13.52	55.897	-6.229	4.2242
	-5.7817	8.8193	-13.701	57.689	-5.5192	-105.58	-3.0551	-108.64
	-14.933	77.086	-6.4822	5.2432	-3.4309	-110.89	-5.5376	-76.707
3450000000	-35.898	-128.09	-1.637	-70.584	-5.9212	3.1998	-14.272	70.856
	-1.9132	-70.63	-19.754	16.418	-13.696	51.663	-6.4369	-1.3568
	-5.6827	6.8637	-13.238	55.643	-5.205	-110.98	-3.5782	-115.52
	-14.362	75.295	-6.2458	3.2259	-4.3213	-116.27	-5.2587	-82.399
3550000000	-34.93	-148.48	-1.7258	-72.621	-5.1971	1.4186	-13.211	70.34
	-1.8735	-71.723	-19.215	13.498	-12.749	49.642	-5.8523	-1.6397
	-5.3626	4.7063	-12.783	52.395	-4.9099	-117.05	-3.3751	-117.29
	-13.549	73.183	-6.0447	0.5259	-4.4122	-114.89	-5.0327	-88.231
3650000000	-33.914	-166.87	-1.7952	-74.56	-5.4443	-1.3774	-12.928	66.132
	-1.9781	-73.759	-18.815	11.076	-12.812	46.924	-6.0392	-5.3023
	-5.2115	2.3895	-12.386	50.055	-4.6538	-122.2	-3.8979	-122.77
	-12.954	70.465	-5.8756	-1.6507	-4.6308	-119.19	-4.8316	-94.083
3750000000	-31.262	178.17	-1.9115	-76.289	-4.8543	-4.904	-11.906	63.206
	-2.0079	-75.723	-18.735	8.237	-12.044	43.219	-5.4447	-7.3608
	-4.9919	-0.1181	-12.085	47.332	-4.4228	-128.16	-3.6973	-126.48
	-12.299	67.269	-5.7539	-3.9359	-4.5333	-121.9	-4.6454	-100.12
3850000000	-30.31	171.01	-1.991	-77.936	-4.9838	-8.5542	-11.513	58.276
	-2.1116	-78.25	-18.488	3.804	-12.002	39.332	-5.4489	-11.39
	-4.8678	-2.8729	-11.763	45.077	-4.1834	-133.19	-4.0684	-132.48
	-11.764	63.718	-5.6205	-5.7541	-4.5914	-128.63	-4.4727	-105.91
3950000000	-30.469	164.77	-2.0625	-79.905	-5.1124	-9.1997	-11.365	55.897
	-2.2765	-79.919	-18.025	-1.1632	-11.985	38.754	-5.6916	-12.518
	-4.699	-5.2995	-11.415	42.329	-3.973	-138.91	-4.6465	-135.73
	-11.258	60.65	-5.3982	-7.9486	-5.0213	-132.76	-4.3231	-111.91
4050000000	-31.114	145.34	-2.1574	-81.678	-5.1594	-14.122	-10.92	49.962
	-2.4824	-82.065	-17.477	-4.0375	-11.905	33.707	-5.5714	-17.336
	-4.6303	-7.9555	-11.095	39.83	-3.7144	-143.72	-4.8813	-142.57
	-10.845	57.018	-5.1959	-10.153	-5.563	-140.29	-4.1834	-117.84
