# MHZ S MA R 50

50 7.374e-3 -11.515 0.993 -0.981 0.017 89.01 1.55e-3 88.08
          0.993 -0.981 7.374e-3 -11.515 1.55e-3 88.08 0.017 89.011
          0.017 89.01 1.55e-3 88.08 7.374e-3 -11.515 0.993 -0.981
          1.55e-3 88.08 0.017 89.011 0.993 -0.981 7.374e-3 -11.515
53.954 7.389e-3 -12.41 0.993 -1.058 0.018 88.933 1.673e-3 87.936
          0.993 -1.058 7.389e-3 -12.41 1.673e-3 87.936 0.018 88.933
          0.018 88.933 1.673e-3 87.936 7.389e-3 -12.41 0.993 -1.058
          1.673e-3 87.936 0.018 88.933 0.993 -1.058 7.389e-3 -12.41
57.908 7.406e-3 -13.302 0.993 -1.136 0.02 88.855 1.795e-3 87.792
          0.993 -1.136 7.406e-3 -13.302 1.795e-3 87.792 0.02 88.855
          0.02 88.855 1.795e-3 87.792 7.406e-3 -13.302 0.993 -1.136
          1.795e-3 87.792 0.02 88.855 0.993 -1.136 7.406e-3 -13.302
61.862 7.425e-3 -14.191 0.993 -1.213 0.021 88.778 1.917e-3 87.647
          0.993 -1.213 7.425e-3 -14.191 1.917e-3 87.647 0.021 88.778
          0.021 88.778 1.917e-3 87.647 7.425e-3 -14.191 0.993 -1.213
          1.917e-3 87.647 0.021 88.778 0.993 -1.213 7.425e-3 -14.191
65.816 7.444e-3 -15.076 0.992 -1.291 0.022 88.7 2.04e-3 87.501
          0.992 -1.291 7.444e-3 -15.076 2.04e-3 87.501 0.022 88.7
          0.022 88.7 2.04e-3 87.501 7.444e-3 -15.076 0.992 -1.291
          2.04e-3 87.501 0.022 88.7 0.992 -1.291 7.444e-3 -15.076
69.77 7.465e-3 -15.957 0.992 -1.368 0.024 88.623 2.162e-3 87.355
          0.992 -1.368 7.465e-3 -15.957 2.162e-3 87.355 0.024 88.623
          0.024 88.623 2.162e-3 87.355 7.465e-3 -15.957 0.992 -1.368
          2.162e-3 87.355 0.024 88.623 0.992 -1.368 7.465e-3 -15.957
73.724 7.486e-3 -16.834 0.992 -1.446 0.025 88.545 2.285e-3 87.209
          0.992 -1.446 7.486e-3 -16.834 2.285e-3 87.209 0.025 88.545
          0.025 88.545 2.285e-3 87.209 7.486e-3 -16.834 0.992 -1.446
          2.285e-3 87.209 0.025 88.545 0.992 -1.446 7.486e-3 -16.834
77.678 7.509e-3 -17.706 0.992 -1.523 0.026 88.467 2.407e-3 87.063
          0.992 -1.523 7.509e-3 -17.706 2.407e-3 87.063 0.026 88.467
          0.026 88.467 2.407e-3 87.063 7.509e-3 -17.706 0.992 -1.523
          2.407e-3 87.063 0.026 88.467 0.992 -1.523 7.509e-3 -17.706
81.632 7.533e-3 -18.574 0.992 -1.601 0.028 88.389 2.529e-3 86.917
          0.992 -1.601 7.533e-3 -18.574 2.529e-3 86.917 0.028 88.389
          0.028 88.389 2.529e-3 86.917 7.533e-3 -18.574 0.992 -1.601
          2.529e-3 86.917 0.028 88.389 0.992 -1.601 7.533e-3 -18.574
85.586 7.558e-3 -19.438 0.992 -1.678 0.029 88.312 2.652e-3 86.771
          0.992 -1.678 7.558e-3 -19.438 2.652e-3 86.771 0.029 88.312
          0.029 88.312 2.652e-3 86.771 7.558e-3 -19.438 0.992 -1.678
          2.652e-3 86.771 0.029 88.312 0.992 -1.678 7.558e-3 -19.438
89.54 7.584e-3 -20.296 0.992 -1.756 0.03 88.234 2.774e-3 86.624
          0.992 -1.756 7.584e-3 -20.296 2.774e-3 86.624 0.03 88.234
          0.03 88.234 2.774e-3 86.624 7.584e-3 -20.296 0.992 -1.756
          2.774e-3 86.624 0.03 88.234 0.992 -1.756 7.584e-3 -20.296
93.493 7.611e-3 -21.15 0.992 -1.833 0.032 88.156 2.896e-3 86.478
          0.992 -1.833 7.611e-3 -21.15 2.896e-3 86.478 0.032 88.156
          0.032 88.156 2.896e-3 86.478 7.611e-3 -21.15 0.992 -1.833
          2.896e-3 86.478 0.032 88.156 0.992 -1.833 7.611e-3 -21.15
97.447 7.64e-3 -21.998 0.992 -1.911 0.033 88.079 3.018e-3 86.331
          0.992 -1.911 7.64e-3 -21.998 3.018e-3 86.331 0.033 88.079
          0.033 88.079 3.018e-3 86.331 7.64e-3 -21.998 0.992 -1.911
          3.018e-3 86.331 0.033 88.079 0.992 -1.911 7.64e-3 -21.998
101.401 7.669e-3 -22.841 0.992 -1.988 0.034 88.001 3.141e-3 86.184
          0.992 -1.988 7.669e-3 -22.841 3.141e-3 86.184 0.034 88.001
          0.034 88.001 3.141e-3 86.184 7.669e-3 -22.841 0.992 -1.988
          3.141e-3 86.184 0.034 88.001 0.992 -1.988 7.669e-3 -22.841
105.355 7.699e-3 -23.679 0.992 -2.066 0.036 87.923 3.263e-3 86.038
          0.992 -2.066 7.699e-3 -23.679 3.263e-3 86.038 0.036 87.923
          0.036 87.923 3.263e-3 86.038 7.699e-3 -23.679 0.992 -2.066
          3.263e-3 86.038 0.036 87.923 0.992 -2.066 7.699e-3 -23.679
109.309 7.731e-3 -24.511 0.992 -2.143 0.037 87.846 3.385e-3 85.891
          0.992 -2.143 7.731e-3 -24.511 3.385e-3 85.891 0.037 87.846
          0.037 87.846 3.385e-3 85.891 7.731e-3 -24.511 0.992 -2.143
          3.385e-3 85.891 0.037 87.846 0.992 -2.143 7.731e-3 -24.511
113.263 7.763e-3 -25.337 0.992 -2.221 0.038 87.768 3.507e-3 85.744
          0.992 -2.221 7.763e-3 -25.337 3.507e-3 85.744 0.038 87.768
          0.038 87.768 3.507e-3 85.744 7.763e-3 -25.337 0.992 -2.221
          3.507e-3 85.744 0.038 87.768 0.992 -2.221 7.763e-3 -25.337
117.217 7.796e-3 -26.158 0.992 -2.298 0.04 87.69 3.629e-3 85.597
          0.992 -2.298 7.796e-3 -26.158 3.629e-3 85.597 0.04 87.69
          0.04 87.69 3.629e-3 85.597 7.796e-3 -26.158 0.992 -2.298
          3.629e-3 85.597 0.04 87.69 0.992 -2.298 7.796e-3 -26.158
121.171 7.831e-3 -26.973 0.992 -2.375 0.041 87.612 3.751e-3 85.451
          0.992 -2.375 7.831e-3 -26.973 3.751e-3 85.451 0.041 87.613
          0.041 87.612 3.751e-3 85.451 7.831e-3 -26.973 0.992 -2.375
          3.751e-3 85.451 0.041 87.613 0.992 -2.375 7.831e-3 -26.973
125.125 7.866e-3 -27.782 0.992 -2.453 0.042 87.535 3.873e-3 85.304
          0.992 -2.453 7.866e-3 -27.782 3.873e-3 85.304 0.042 87.535
          0.042 87.535 3.873e-3 85.304 7.866e-3 -27.782 0.992 -2.453
          3.873e-3 85.304 0.042 87.535 0.992 -2.453 7.866e-3 -27.782
129.079 7.902e-3 -28.585 0.992 -2.53 0.044 87.457 3.995e-3 85.157
          0.992 -2.53 7.902e-3 -28.585 3.995e-3 85.157 0.044 87.457
          0.044 87.457 3.995e-3 85.157 7.902e-3 -28.585 0.992 -2.53
          3.995e-3 85.157 0.044 87.457 0.992 -2.53 7.902e-3 -28.585
133.033 7.94e-3 -29.382 0.992 -2.608 0.045 87.38 4.117e-3 85.01
          0.992 -2.608 7.94e-3 -29.382 4.117e-3 85.01 0.045 87.38
          0.045 87.38 4.117e-3 85.01 7.94e-3 -29.382 0.992 -2.608
          4.117e-3 85.01 0.045 87.38 0.992 -2.608 7.94e-3 -29.382
136.987 7.978e-3 -30.172 0.992 -2.685 0.046 87.302 4.238e-3 84.863
          0.992 -2.685 7.978e-3 -30.172 4.238e-3 84.863 0.046 87.302
          0.046 87.302 4.238e-3 84.863 7.978e-3 -30.172 0.992 -2.685
          4.238e-3 84.863 0.046 87.302 0.992 -2.685 7.978e-3 -30.172
140.941 8.017e-3 -30.957 0.992 -2.762 0.048 87.224 4.36e-3 84.717
          0.992 -2.762 8.017e-3 -30.957 4.36e-3 84.717 0.048 87.224
          0.048 87.224 4.36e-3 84.717 8.017e-3 -30.957 0.992 -2.762
          4.36e-3 84.717 0.048 87.224 0.992 -2.762 8.017e-3 -30.957
144.895 8.057e-3 -31.735 0.992 -2.84 0.049 87.147 4.482e-3 84.57
          0.992 -2.84 8.057e-3 -31.735 4.482e-3 84.57 0.049 87.147
          0.049 87.147 4.482e-3 84.57 8.057e-3 -31.735 0.992 -2.84
          4.482e-3 84.57 0.049 87.147 0.992 -2.84 8.057e-3 -31.735
148.849 8.098e-3 -32.507 0.991 -2.917 0.05 87.069 4.604e-3 84.423
          0.991 -2.917 8.098e-3 -32.507 4.604e-3 84.423 0.05 87.069
          0.05 87.069 4.604e-3 84.423 8.098e-3 -32.507 0.991 -2.917
          4.604e-3 84.423 0.05 87.069 0.991 -2.917 8.098e-3 -32.507
152.803 8.14e-3 -33.272 0.991 -2.995 0.052 86.991 4.725e-3 84.276
          0.991 -2.995 8.14e-3 -33.272 4.725e-3 84.276 0.052 86.991
          0.052 86.991 4.725e-3 84.276 8.14e-3 -33.272 0.991 -2.995
          4.725e-3 84.276 0.052 86.991 0.991 -2.995 8.14e-3 -33.272
156.757 8.182e-3 -34.031 0.991 -3.072 0.053 86.914 4.847e-3 84.13
          0.991 -3.072 8.182e-3 -34.031 4.847e-3 84.13 0.053 86.914
          0.053 86.914 4.847e-3 84.13 8.182e-3 -34.031 0.991 -3.072
          4.847e-3 84.13 0.053 86.914 0.991 -3.072 8.182e-3 -34.031
160.711 8.226e-3 -34.784 0.991 -3.149 0.054 86.836 4.968e-3 83.983
          0.991 -3.149 8.226e-3 -34.784 4.968e-3 83.983 0.054 86.836
          0.054 86.836 4.968e-3 83.983 8.226e-3 -34.784 0.991 -3.149
          4.968e-3 83.983 0.054 86.836 0.991 -3.149 8.226e-3 -34.784
164.665 8.27e-3 -35.53 0.991 -3.227 0.056 86.759 5.09e-3 83.836
          0.991 -3.227 8.27e-3 -35.53 5.09e-3 83.836 0.056 86.759
          0.056 86.759 5.09e-3 83.836 8.27e-3 -35.53 0.991 -3.227
          5.09e-3 83.836 0.056 86.759 0.991 -3.227 8.27e-3 -35.53
168.619 8.315e-3 -36.27 0.991 -3.304 0.057 86.681 5.211e-3 83.69
          0.991 -3.304 8.315e-3 -36.27 5.211e-3 83.69 0.057 86.681
          0.057 86.681 5.211e-3 83.69 8.315e-3 -36.27 0.991 -3.304
          5.211e-3 83.69 0.057 86.681 0.991 -3.304 8.315e-3 -36.27
172.573 8.361e-3 -37.003 0.991 -3.381 0.058 86.603 5.332e-3 83.543
          0.991 -3.381 8.361e-3 -37.003 5.332e-3 83.543 0.058 86.603
          0.058 86.603 5.332e-3 83.543 8.361e-3 -37.003 0.991 -3.381
          5.332e-3 83.543 0.058 86.603 0.991 -3.381 8.361e-3 -37.003
176.527 8.407e-3 -37.73 0.991 -3.458 0.06 86.526 5.454e-3 83.396
          0.991 -3.458 8.407e-3 -37.73 5.454e-3 83.396 0.06 86.526
          0.06 86.526 5.454e-3 83.396 8.407e-3 -37.73 0.991 -3.458
          5.454e-3 83.396 0.06 86.526 0.991 -3.458 8.407e-3 -37.73
180.48 8.455e-3 -38.45 0.991 -3.536 0.061 86.448 5.575e-3 83.25
          0.991 -3.536 8.455e-3 -38.45 5.575e-3 83.25 0.061 86.448
          0.061 86.448 5.575e-3 83.25 8.455e-3 -38.45 0.991 -3.536
          5.575e-3 83.25 0.061 86.448 0.991 -3.536 8.455e-3 -38.45
184.434 8.503e-3 -39.164 0.991 -3.613 0.062 86.371 5.696e-3 83.103
          0.991 -3.613 8.503e-3 -39.164 5.696e-3 83.103 0.062 86.371
          0.062 86.371 5.696e-3 83.103 8.503e-3 -39.164 0.991 -3.613
          5.696e-3 83.103 0.062 86.371 0.991 -3.613 8.503e-3 -39.164
188.388 8.552e-3 -39.872 0.991 -3.69 0.064 86.293 5.817e-3 82.956
          0.991 -3.69 8.552e-3 -39.872 5.817e-3 82.956 0.064 86.293
          0.064 86.293 5.817e-3 82.956 8.552e-3 -39.872 0.991 -3.69
          5.817e-3 82.956 0.064 86.293 0.991 -3.69 8.552e-3 -39.872
192.342 8.601e-3 -40.573 0.991 -3.767 0.065 86.216 5.938e-3 82.81
          0.991 -3.767 8.601e-3 -40.573 5.938e-3 82.81 0.065 86.216
          0.065 86.216 5.938e-3 82.81 8.601e-3 -40.573 0.991 -3.767
          5.938e-3 82.81 0.065 86.216 0.991 -3.767 8.601e-3 -40.573
196.296 8.651e-3 -41.267 0.99 -3.845 0.066 86.138 6.059e-3 82.663
          0.99 -3.845 8.651e-3 -41.267 6.059e-3 82.663 0.066 86.138
          0.066 86.138 6.059e-3 82.663 8.651e-3 -41.267 0.99 -3.845
          6.059e-3 82.663 0.066 86.138 0.99 -3.845 8.651e-3 -41.267
200.25 8.702e-3 -41.955 0.99 -3.922 0.068 86.061 6.18e-3 82.517
          0.99 -3.922 8.702e-3 -41.955 6.18e-3 82.517 0.068 86.061
          0.068 86.061 6.18e-3 82.517 8.702e-3 -41.955 0.99 -3.922
          6.18e-3 82.517 0.068 86.061 0.99 -3.922 8.702e-3 -41.955
204.204 8.754e-3 -42.637 0.99 -3.999 0.069 85.983 6.301e-3 82.37
          0.99 -3.999 8.754e-3 -42.637 6.301e-3 82.37 0.069 85.984
          0.069 85.983 6.301e-3 82.37 8.754e-3 -42.637 0.99 -3.999
          6.301e-3 82.37 0.069 85.984 0.99 -3.999 8.754e-3 -42.637
208.158 8.806e-3 -43.313 0.99 -4.076 0.07 85.906 6.422e-3 82.224
          0.99 -4.076 8.806e-3 -43.313 6.422e-3 82.224 0.07 85.906
          0.07 85.906 6.422e-3 82.224 8.806e-3 -43.313 0.99 -4.076
          6.422e-3 82.224 0.07 85.906 0.99 -4.076 8.806e-3 -43.313
212.112 8.859e-3 -43.982 0.99 -4.153 0.072 85.829 6.542e-3 82.077
          0.99 -4.153 8.859e-3 -43.982 6.542e-3 82.077 0.072 85.829
          0.072 85.829 6.542e-3 82.077 8.859e-3 -43.982 0.99 -4.153
          6.542e-3 82.077 0.072 85.829 0.99 -4.153 8.859e-3 -43.982
216.066 8.913e-3 -44.645 0.99 -4.23 0.073 85.751 6.663e-3 81.931
          0.99 -4.23 8.913e-3 -44.645 6.663e-3 81.931 0.073 85.751
          0.073 85.751 6.663e-3 81.931 8.913e-3 -44.645 0.99 -4.23
          6.663e-3 81.931 0.073 85.751 0.99 -4.23 8.913e-3 -44.645
220.02 8.967e-3 -45.301 0.99 -4.308 0.074 85.674 6.784e-3 81.785
          0.99 -4.308 8.967e-3 -45.301 6.784e-3 81.785 0.074 85.674
          0.074 85.674 6.784e-3 81.785 8.967e-3 -45.301 0.99 -4.308
          6.784e-3 81.785 0.074 85.674 0.99 -4.308 8.967e-3 -45.301
223.974 9.022e-3 -45.952 0.99 -4.385 0.076 85.596 6.904e-3 81.638
          0.99 -4.385 9.022e-3 -45.952 6.904e-3 81.638 0.076 85.597
          0.076 85.596 6.904e-3 81.638 9.022e-3 -45.952 0.99 -4.385
          6.904e-3 81.638 0.076 85.597 0.99 -4.385 9.022e-3 -45.952
227.928 9.077e-3 -46.596 0.99 -4.462 0.077 85.519 7.024e-3 81.492
          0.99 -4.462 9.077e-3 -46.596 7.024e-3 81.492 0.077 85.519
          0.077 85.519 7.024e-3 81.492 9.077e-3 -46.596 0.99 -4.462
          7.024e-3 81.492 0.077 85.519 0.99 -4.462 9.077e-3 -46.596
231.882 9.133e-3 -47.234 0.99 -4.539 0.078 85.442 7.145e-3 81.346
          0.99 -4.539 9.133e-3 -47.234 7.145e-3 81.346 0.078 85.442
          0.078 85.442 7.145e-3 81.346 9.133e-3 -47.234 0.99 -4.539
          7.145e-3 81.346 0.078 85.442 0.99 -4.539 9.133e-3 -47.234
235.836 9.19e-3 -47.866 0.99 -4.616 0.08 85.364 7.265e-3 81.199
          0.99 -4.616 9.19e-3 -47.866 7.265e-3 81.199 0.08 85.364
          0.08 85.364 7.265e-3 81.199 9.19e-3 -47.866 0.99 -4.616
          7.265e-3 81.199 0.08 85.364 0.99 -4.616 9.19e-3 -47.866
239.79 9.247e-3 -48.492 0.989 -4.693 0.081 85.287 7.385e-3 81.053
          0.989 -4.693 9.247e-3 -48.492 7.385e-3 81.053 0.081 85.287
          0.081 85.287 7.385e-3 81.053 9.247e-3 -48.492 0.989 -4.693
          7.385e-3 81.053 0.081 85.287 0.989 -4.693 9.247e-3 -48.492
243.744 9.305e-3 -49.112 0.989 -4.77 0.082 85.21 7.505e-3 80.907
          0.989 -4.77 9.305e-3 -49.112 7.505e-3 80.907 0.082 85.21
          0.082 85.21 7.505e-3 80.907 9.305e-3 -49.112 0.989 -4.77
          7.505e-3 80.907 0.082 85.21 0.989 -4.77 9.305e-3 -49.112
247.698 9.363e-3 -49.727 0.989 -4.847 0.083 85.133 7.625e-3 80.761
          0.989 -4.847 9.363e-3 -49.727 7.625e-3 80.761 0.083 85.133
          0.083 85.133 7.625e-3 80.761 9.363e-3 -49.727 0.989 -4.847
          7.625e-3 80.761 0.083 85.133 0.989 -4.847 9.363e-3 -49.727
251.652 9.421e-3 -50.335 0.989 -4.924 0.085 85.055 7.745e-3 80.615
          0.989 -4.924 9.421e-3 -50.335 7.745e-3 80.615 0.085 85.055
          0.085 85.055 7.745e-3 80.615 9.421e-3 -50.335 0.989 -4.924
          7.745e-3 80.615 0.085 85.055 0.989 -4.924 9.421e-3 -50.335
255.606 9.481e-3 -50.938 0.989 -5.001 0.086 84.978 7.865e-3 80.468
          0.989 -5.001 9.481e-3 -50.938 7.865e-3 80.468 0.086 84.978
          0.086 84.978 7.865e-3 80.468 9.481e-3 -50.938 0.989 -5.001
          7.865e-3 80.468 0.086 84.978 0.989 -5.001 9.481e-3 -50.938
259.56 9.54e-3 -51.535 0.989 -5.078 0.087 84.901 7.985e-3 80.322
          0.989 -5.078 9.54e-3 -51.535 7.985e-3 80.322 0.087 84.901
          0.087 84.901 7.985e-3 80.322 9.54e-3 -51.535 0.989 -5.078
          7.985e-3 80.322 0.087 84.901 0.989 -5.078 9.54e-3 -51.535
263.514 9.601e-3 -52.126 0.989 -5.155 0.089 84.824 8.104e-3 80.176
          0.989 -5.155 9.601e-3 -52.126 8.104e-3 80.176 0.089 84.824
          0.089 84.824 8.104e-3 80.176 9.601e-3 -52.126 0.989 -5.155
          8.104e-3 80.176 0.089 84.824 0.989 -5.155 9.601e-3 -52.126
267.467 9.661e-3 -52.712 0.989 -5.232 0.09 84.747 8.224e-3 80.03
          0.989 -5.232 9.661e-3 -52.712 8.224e-3 80.03 0.09 84.747
          0.09 84.747 8.224e-3 80.03 9.661e-3 -52.712 0.989 -5.232
          8.224e-3 80.03 0.09 84.747 0.989 -5.232 9.661e-3 -52.712
271.421 9.722e-3 -53.292 0.988 -5.309 0.091 84.669 8.343e-3 79.884
          0.988 -5.309 9.722e-3 -53.292 8.343e-3 79.884 0.091 84.669
          0.091 84.669 8.343e-3 79.884 9.722e-3 -53.292 0.988 -5.309
          8.343e-3 79.884 0.091 84.669 0.988 -5.309 9.722e-3 -53.292
275.375 9.784e-3 -53.866 0.988 -5.385 0.093 84.592 8.463e-3 79.738
          0.988 -5.385 9.784e-3 -53.866 8.463e-3 79.738 0.093 84.592
          0.093 84.592 8.463e-3 79.738 9.784e-3 -53.866 0.988 -5.385
          8.463e-3 79.738 0.093 84.592 0.988 -5.385 9.784e-3 -53.866
279.329 9.846e-3 -54.436 0.988 -5.462 0.094 84.515 8.582e-3 79.593
          0.988 -5.462 9.846e-3 -54.436 8.582e-3 79.593 0.094 84.515
          0.094 84.515 8.582e-3 79.593 9.846e-3 -54.436 0.988 -5.462
          8.582e-3 79.593 0.094 84.515 0.988 -5.462 9.846e-3 -54.436
283.283 9.908e-3 -54.999 0.988 -5.539 0.095 84.438 8.701e-3 79.447
          0.988 -5.539 9.908e-3 -54.999 8.701e-3 79.447 0.095 84.438
          0.095 84.438 8.701e-3 79.447 9.908e-3 -54.999 0.988 -5.539
          8.701e-3 79.447 0.095 84.438 0.988 -5.539 9.908e-3 -54.999
287.237 9.971e-3 -55.558 0.988 -5.616 0.097 84.361 8.82e-3 79.301
          0.988 -5.616 9.971e-3 -55.558 8.82e-3 79.301 0.097 84.361
          0.097 84.361 8.82e-3 79.301 9.971e-3 -55.558 0.988 -5.616
          8.82e-3 79.301 0.097 84.361 0.988 -5.616 9.971e-3 -55.558
291.191 0.01 -56.111 0.988 -5.693 0.098 84.284 8.939e-3 79.155
          0.988 -5.693 0.01 -56.111 8.939e-3 79.155 0.098 84.284
          0.098 84.284 8.939e-3 79.155 0.01 -56.111 0.988 -5.693
          8.939e-3 79.155 0.098 84.284 0.988 -5.693 0.01 -56.111
295.145 0.01 -56.659 0.988 -5.769 0.099 84.207 9.058e-3 79.009
          0.988 -5.769 0.01 -56.659 9.058e-3 79.009 0.099 84.207
          0.099 84.207 9.058e-3 79.009 0.01 -56.659 0.988 -5.769
          9.058e-3 79.009 0.099 84.207 0.988 -5.769 0.01 -56.659
299.099 0.01 -57.202 0.988 -5.846 0.101 84.13 9.177e-3 78.864
          0.988 -5.846 0.01 -57.203 9.177e-3 78.864 0.101 84.13
          0.101 84.13 9.177e-3 78.864 0.01 -57.202 0.988 -5.846
          9.177e-3 78.864 0.101 84.13 0.988 -5.846 0.01 -57.203
303.053 0.01 -57.741 0.987 -5.923 0.102 84.053 9.296e-3 78.718
          0.987 -5.923 0.01 -57.741 9.296e-3 78.718 0.102 84.053
          0.102 84.053 9.296e-3 78.718 0.01 -57.741 0.987 -5.923
          9.296e-3 78.718 0.102 84.053 0.987 -5.923 0.01 -57.741
307.007 0.01 -58.274 0.987 -6 0.103 83.976 9.415e-3 78.573
          0.987 -6 0.01 -58.274 9.415e-3 78.573 0.103 83.976
          0.103 83.976 9.415e-3 78.573 0.01 -58.274 0.987 -6
          9.415e-3 78.573 0.103 83.976 0.987 -6 0.01 -58.274
310.961 0.01 -58.802 0.987 -6.076 0.105 83.899 9.533e-3 78.427
          0.987 -6.076 0.01 -58.802 9.533e-3 78.427 0.105 83.899
          0.105 83.899 9.533e-3 78.427 0.01 -58.802 0.987 -6.076
          9.533e-3 78.427 0.105 83.899 0.987 -6.076 0.01 -58.802
314.915 0.01 -59.325 0.987 -6.153 0.106 83.822 9.651e-3 78.281
          0.987 -6.153 0.01 -59.325 9.651e-3 78.281 0.106 83.822
          0.106 83.822 9.651e-3 78.281 0.01 -59.325 0.987 -6.153
          9.651e-3 78.281 0.106 83.822 0.987 -6.153 0.01 -59.325
318.869 0.01 -59.844 0.987 -6.23 0.107 83.745 9.77e-3 78.136
          0.987 -6.23 0.01 -59.844 9.77e-3 78.136 0.107 83.745
          0.107 83.745 9.77e-3 78.136 0.01 -59.844 0.987 -6.23
          9.77e-3 78.136 0.107 83.745 0.987 -6.23 0.01 -59.844
322.823 0.011 -60.358 0.987 -6.306 0.109 83.668 9.888e-3 77.991
          0.987 -6.306 0.011 -60.358 9.888e-3 77.991 0.109 83.668
          0.109 83.668 9.888e-3 77.991 0.011 -60.358 0.987 -6.306
          9.888e-3 77.991 0.109 83.668 0.987 -6.306 0.011 -60.358
326.777 0.011 -60.867 0.987 -6.383 0.11 83.592 0.01 77.845
          0.987 -6.383 0.011 -60.867 0.01 77.845 0.11 83.592
          0.11 83.592 0.01 77.845 0.011 -60.867 0.987 -6.383
          0.01 77.845 0.11 83.592 0.987 -6.383 0.011 -60.867
330.731 0.011 -61.371 0.986 -6.459 0.111 83.515 0.01 77.7
          0.986 -6.459 0.011 -61.371 0.01 77.7 0.111 83.515
          0.111 83.515 0.01 77.7 0.011 -61.371 0.986 -6.459
          0.01 77.7 0.111 83.515 0.986 -6.459 0.011 -61.371
334.685 0.011 -61.872 0.986 -6.536 0.112 83.438 0.01 77.555
          0.986 -6.536 0.011 -61.872 0.01 77.555 0.112 83.438
          0.112 83.438 0.01 77.555 0.011 -61.872 0.986 -6.536
          0.01 77.555 0.112 83.438 0.986 -6.536 0.011 -61.872
338.639 0.011 -62.367 0.986 -6.612 0.114 83.361 0.01 77.409
          0.986 -6.612 0.011 -62.367 0.01 77.409 0.114 83.361
          0.114 83.361 0.01 77.409 0.011 -62.367 0.986 -6.612
          0.01 77.409 0.114 83.361 0.986 -6.612 0.011 -62.367
342.593 0.011 -62.858 0.986 -6.689 0.115 83.284 0.01 77.264
          0.986 -6.689 0.011 -62.858 0.01 77.264 0.115 83.284
          0.115 83.284 0.01 77.264 0.011 -62.858 0.986 -6.689
          0.01 77.264 0.115 83.284 0.986 -6.689 0.011 -62.858
