# MHZ S MA R 50

50 0.016 -62.775 0.991 -2.018 0.045 87.898 4.731e-3 80.099
          0.991 -2.018 0.016 -62.775 4.731e-3 80.099 0.045 87.898
          0.045 87.898 4.731e-3 80.099 0.016 -62.775 0.991 -2.018
          4.731e-3 80.099 0.045 87.898 0.991 -2.018 0.016 -62.775
53.954 0.017 -64.848 0.99 -2.177 0.048 87.733 5.109e-3 79.325
          0.99 -2.177 0.017 -64.848 5.109e-3 79.325 0.048 87.733
          0.048 87.733 5.109e-3 79.325 0.017 -64.848 0.99 -2.177
          5.109e-3 79.325 0.048 87.733 0.99 -2.177 0.017 -64.848
57.908 0.018 -66.721 0.99 -2.336 0.052 87.567 5.489e-3 78.553
          0.99 -2.336 0.018 -66.721 5.489e-3 78.553 0.052 87.567
          0.052 87.567 5.489e-3 78.553 0.018 -66.721 0.99 -2.336
          5.489e-3 78.553 0.052 87.567 0.99 -2.336 0.018 -66.721
61.862 0.019 -68.424 0.99 -2.496 0.055 87.402 5.87e-3 77.782
          0.99 -2.496 0.019 -68.424 5.87e-3 77.782 0.055 87.402
          0.055 87.402 5.87e-3 77.782 0.019 -68.424 0.99 -2.496
          5.87e-3 77.782 0.055 87.402 0.99 -2.496 0.019 -68.424
65.816 0.02 -69.978 0.99 -2.655 0.059 87.236 6.252e-3 77.013
          0.99 -2.655 0.02 -69.978 6.252e-3 77.013 0.059 87.236
          0.059 87.236 6.252e-3 77.013 0.02 -69.978 0.99 -2.655
          6.252e-3 77.013 0.059 87.236 0.99 -2.655 0.02 -69.978
69.77 0.021 -71.404 0.99 -2.814 0.062 87.071 6.635e-3 76.246
          0.99 -2.814 0.021 -71.404 6.635e-3 76.246 0.062 87.071
          0.062 87.071 6.635e-3 76.246 0.021 -71.404 0.99 -2.814
          6.635e-3 76.246 0.062 87.071 0.99 -2.814 0.021 -71.404
73.724 0.022 -72.719 0.989 -2.973 0.066 86.906 7.02e-3 75.48
          0.989 -2.973 0.022 -72.719 7.02e-3 75.48 0.066 86.906
          0.066 86.906 7.02e-3 75.48 0.022 -72.719 0.989 -2.973
          7.02e-3 75.48 0.066 86.906 0.989 -2.973 0.022 -72.719
77.678 0.023 -73.936 0.989 -3.132 0.07 86.74 7.406e-3 74.717
          0.989 -3.132 0.023 -73.936 7.406e-3 74.717 0.07 86.74
          0.07 86.74 7.406e-3 74.717 0.023 -73.936 0.989 -3.132
          7.406e-3 74.717 0.07 86.74 0.989 -3.132 0.023 -73.936
81.632 0.024 -75.068 0.989 -3.29 0.073 86.575 7.793e-3 73.956
          0.989 -3.29 0.024 -75.068 7.793e-3 73.956 0.073 86.575
          0.073 86.575 7.793e-3 73.956 0.024 -75.068 0.989 -3.29
          7.793e-3 73.956 0.073 86.575 0.989 -3.29 0.024 -75.068
85.586 0.026 -76.125 0.989 -3.449 0.077 86.41 8.182e-3 73.197
          0.989 -3.449 0.026 -76.125 8.182e-3 73.197 0.077 86.41
          0.077 86.41 8.182e-3 73.197 0.026 -76.125 0.989 -3.449
          8.182e-3 73.197 0.077 86.41 0.989 -3.449 0.026 -76.125
89.54 0.027 -77.114 0.988 -3.608 0.08 86.245 8.573e-3 72.44
          0.988 -3.608 0.027 -77.114 8.573e-3 72.44 0.08 86.245
          0.08 86.245 8.573e-3 72.44 0.027 -77.114 0.988 -3.608
          8.573e-3 72.44 0.08 86.245 0.988 -3.608 0.027 -77.114
93.493 0.028 -78.044 0.988 -3.766 0.084 86.081 8.965e-3 71.685
          0.988 -3.766 0.028 -78.044 8.965e-3 71.685 0.084 86.081
          0.084 86.081 8.965e-3 71.685 0.028 -78.044 0.988 -3.766
          8.965e-3 71.685 0.084 86.081 0.988 -3.766 0.028 -78.044
97.447 0.029 -78.921 0.988 -3.925 0.087 85.916 9.359e-3 70.933
          0.988 -3.925 0.029 -78.921 9.359e-3 70.933 0.087 85.916
          0.087 85.916 9.359e-3 70.933 0.029 -78.921 0.988 -3.925
          9.359e-3 70.933 0.087 85.916 0.988 -3.925 0.029 -78.921
101.401 0.03 -79.751 0.987 -4.083 0.091 85.751 9.755e-3 70.184
          0.987 -4.083 0.03 -79.751 9.755e-3 70.184 0.091 85.751
          0.091 85.751 9.755e-3 70.184 0.03 -79.751 0.987 -4.083
          9.755e-3 70.184 0.091 85.751 0.987 -4.083 0.03 -79.751
105.355 0.031 -80.538 0.987 -4.241 0.094 85.587 0.01 69.437
          0.987 -4.241 0.031 -80.538 0.01 69.437 0.094 85.587
          0.094 85.587 0.01 69.437 0.031 -80.538 0.987 -4.241
          0.01 69.437 0.094 85.587 0.987 -4.241 0.031 -80.538
109.309 0.032 -81.286 0.986 -4.399 0.098 85.423 0.011 68.693
          0.986 -4.399 0.032 -81.286 0.011 68.693 0.098 85.423
          0.098 85.423 0.011 68.693 0.032 -81.286 0.986 -4.399
          0.011 68.693 0.098 85.423 0.986 -4.399 0.032 -81.286
113.263 0.033 -82 0.986 -4.557 0.101 85.258 0.011 67.951
          0.986 -4.557 0.033 -82 0.011 67.951 0.101 85.258
          0.101 85.258 0.011 67.951 0.033 -82 0.986 -4.557
          0.011 67.951 0.101 85.258 0.986 -4.557 0.033 -82
117.217 0.034 -82.682 0.986 -4.715 0.105 85.094 0.011 67.213
          0.986 -4.715 0.034 -82.682 0.011 67.213 0.105 85.094
          0.105 85.094 0.011 67.213 0.034 -82.682 0.986 -4.715
          0.011 67.213 0.105 85.094 0.986 -4.715 0.034 -82.682
121.171 0.035 -83.335 0.985 -4.873 0.108 84.93 0.012 66.477
          0.985 -4.873 0.035 -83.335 0.012 66.477 0.108 84.93
          0.108 84.93 0.012 66.477 0.035 -83.335 0.985 -4.873
          0.012 66.477 0.108 84.93 0.985 -4.873 0.035 -83.335
125.125 0.036 -83.961 0.985 -5.031 0.112 84.767 0.012 65.744
          0.985 -5.031 0.036 -83.961 0.012 65.744 0.112 84.767
          0.112 84.767 0.012 65.744 0.036 -83.961 0.985 -5.031
          0.012 65.744 0.112 84.767 0.985 -5.031 0.036 -83.961
129.079 0.037 -84.564 0.984 -5.188 0.115 84.603 0.013 65.015
          0.984 -5.188 0.037 -84.564 0.013 65.015 0.115 84.603
          0.115 84.603 0.013 65.015 0.037 -84.564 0.984 -5.188
          0.013 65.015 0.115 84.603 0.984 -5.188 0.037 -84.564
133.033 0.038 -85.144 0.984 -5.345 0.119 84.44 0.013 64.288
          0.984 -5.345 0.038 -85.144 0.013 64.288 0.119 84.44
          0.119 84.44 0.013 64.288 0.038 -85.144 0.984 -5.345
          0.013 64.288 0.119 84.44 0.984 -5.345 0.038 -85.144
136.987 0.039 -85.704 0.983 -5.503 0.122 84.276 0.013 63.564
          0.983 -5.503 0.039 -85.704 0.013 63.564 0.122 84.276
          0.122 84.276 0.013 63.564 0.039 -85.704 0.983 -5.503
          0.013 63.564 0.122 84.276 0.983 -5.503 0.039 -85.704
140.941 0.04 -86.246 0.983 -5.66 0.125 84.113 0.014 62.844
          0.983 -5.66 0.04 -86.246 0.014 62.844 0.125 84.113
          0.125 84.113 0.014 62.844 0.04 -86.246 0.983 -5.66
          0.014 62.844 0.125 84.113 0.983 -5.66 0.04 -86.246
144.895 0.041 -86.77 0.982 -5.816 0.129 83.95 0.014 62.127
          0.982 -5.816 0.041 -86.77 0.014 62.127 0.129 83.95
          0.129 83.95 0.014 62.127 0.041 -86.77 0.982 -5.816
          0.014 62.127 0.129 83.95 0.982 -5.816 0.041 -86.77
148.849 0.042 -87.278 0.982 -5.973 0.132 83.787 0.015 61.414
          0.982 -5.973 0.042 -87.278 0.015 61.414 0.132 83.787
          0.132 83.787 0.015 61.414 0.042 -87.278 0.982 -5.973
          0.015 61.414 0.132 83.787 0.982 -5.973 0.042 -87.278
152.803 0.043 -87.771 0.981 -6.13 0.136 83.625 0.015 60.703
          0.981 -6.13 0.043 -87.771 0.015 60.703 0.136 83.625
          0.136 83.625 0.015 60.703 0.043 -87.771 0.981 -6.13
          0.015 60.703 0.136 83.625 0.981 -6.13 0.043 -87.771
156.757 0.044 -88.25 0.981 -6.286 0.139 83.462 0.016 59.996
          0.981 -6.286 0.044 -88.25 0.016 59.996 0.139 83.462
          0.139 83.462 0.016 59.996 0.044 -88.25 0.981 -6.286
          0.016 59.996 0.139 83.462 0.981 -6.286 0.044 -88.25
160.711 0.045 -88.717 0.98 -6.443 0.143 83.3 0.016 59.293
          0.98 -6.443 0.045 -88.717 0.016 59.293 0.143 83.3
          0.143 83.3 0.016 59.293 0.045 -88.717 0.98 -6.443
          0.016 59.293 0.143 83.3 0.98 -6.443 0.045 -88.717
164.665 0.046 -89.171 0.98 -6.599 0.146 83.138 0.016 58.593
          0.98 -6.599 0.046 -89.171 0.016 58.593 0.146 83.138
          0.146 83.138 0.016 58.593 0.046 -89.171 0.98 -6.599
          0.016 58.593 0.146 83.138 0.98 -6.599 0.046 -89.171
168.619 0.047 -89.615 0.979 -6.755 0.15 82.976 0.017 57.897
          0.979 -6.755 0.047 -89.615 0.017 57.897 0.15 82.976
          0.15 82.976 0.017 57.897 0.047 -89.615 0.979 -6.755
          0.017 57.897 0.15 82.976 0.979 -6.755 0.047 -89.615
172.573 0.049 -90.047 0.979 -6.91 0.153 82.814 0.017 57.204
          0.979 -6.91 0.049 -90.047 0.017 57.204 0.153 82.814
          0.153 82.814 0.017 57.204 0.049 -90.047 0.979 -6.91
          0.017 57.204 0.153 82.814 0.979 -6.91 0.049 -90.047
176.527 0.05 -90.47 0.978 -7.066 0.156 82.653 0.018 56.515
          0.978 -7.066 0.05 -90.47 0.018 56.515 0.156 82.653
          0.156 82.653 0.018 56.515 0.05 -90.47 0.978 -7.066
          0.018 56.515 0.156 82.653 0.978 -7.066 0.05 -90.47
180.48 0.051 -90.884 0.977 -7.221 0.16 82.492 0.018 55.83
          0.977 -7.221 0.051 -90.884 0.018 55.83 0.16 82.492
          0.16 82.492 0.018 55.83 0.051 -90.884 0.977 -7.221
          0.018 55.83 0.16 82.492 0.977 -7.221 0.051 -90.884
184.434 0.052 -91.289 0.977 -7.377 0.163 82.331 0.019 55.148
          0.977 -7.377 0.052 -91.289 0.019 55.148 0.163 82.331
          0.163 82.331 0.019 55.148 0.052 -91.289 0.977 -7.377
          0.019 55.148 0.163 82.331 0.977 -7.377 0.052 -91.289
188.388 0.053 -91.685 0.976 -7.532 0.167 82.17 0.019 54.47
          0.976 -7.532 0.053 -91.685 0.019 54.47 0.167 82.17
          0.167 82.17 0.019 54.47 0.053 -91.685 0.976 -7.532
          0.019 54.47 0.167 82.17 0.976 -7.532 0.053 -91.685
192.342 0.054 -92.074 0.976 -7.686 0.17 82.009 0.019 53.796
          0.976 -7.686 0.054 -92.074 0.019 53.796 0.17 82.009
          0.17 82.009 0.019 53.796 0.054 -92.074 0.976 -7.686
          0.019 53.796 0.17 82.009 0.976 -7.686 0.054 -92.074
196.296 0.055 -92.456 0.975 -7.841 0.173 81.849 0.02 53.125
          0.975 -7.841 0.055 -92.456 0.02 53.125 0.173 81.849
          0.173 81.849 0.02 53.125 0.055 -92.456 0.975 -7.841
          0.02 53.125 0.173 81.849 0.975 -7.841 0.055 -92.456
200.25 0.056 -92.831 0.974 -7.995 0.177 81.688 0.02 52.459
          0.974 -7.995 0.056 -92.831 0.02 52.459 0.177 81.688
          0.177 81.688 0.02 52.459 0.056 -92.831 0.974 -7.995
          0.02 52.459 0.177 81.688 0.974 -7.995 0.056 -92.831
204.204 0.057 -93.199 0.974 -8.15 0.18 81.528 0.021 51.796
          0.974 -8.15 0.057 -93.199 0.021 51.796 0.18 81.528
          0.18 81.528 0.021 51.796 0.057 -93.199 0.974 -8.15
          0.021 51.796 0.18 81.528 0.974 -8.15 0.057 -93.199
208.158 0.058 -93.561 0.973 -8.304 0.183 81.369 0.021 51.137
          0.973 -8.304 0.058 -93.561 0.021 51.137 0.183 81.369
          0.183 81.369 0.021 51.137 0.058 -93.561 0.973 -8.304
          0.021 51.137 0.183 81.369 0.973 -8.304 0.058 -93.561
212.112 0.059 -93.917 0.972 -8.458 0.187 81.209 0.022 50.481
          0.972 -8.458 0.059 -93.917 0.022 50.481 0.187 81.209
          0.187 81.209 0.022 50.481 0.059 -93.917 0.972 -8.458
          0.022 50.481 0.187 81.209 0.972 -8.458 0.059 -93.917
216.066 0.06 -94.267 0.971 -8.611 0.19 81.05 0.022 49.83
          0.971 -8.611 0.06 -94.267 0.022 49.83 0.19 81.05
          0.19 81.05 0.022 49.83 0.06 -94.267 0.971 -8.611
          0.022 49.83 0.19 81.05 0.971 -8.611 0.06 -94.267
220.02 0.061 -94.612 0.971 -8.765 0.194 80.891 0.023 49.183
          0.971 -8.765 0.061 -94.612 0.023 49.183 0.194 80.891
          0.194 80.891 0.023 49.183 0.061 -94.612 0.971 -8.765
          0.023 49.183 0.194 80.891 0.971 -8.765 0.061 -94.612
223.974 0.062 -94.952 0.97 -8.918 0.197 80.732 0.023 48.539
          0.97 -8.918 0.062 -94.952 0.023 48.539 0.197 80.732
          0.197 80.732 0.023 48.539 0.062 -94.952 0.97 -8.918
          0.023 48.539 0.197 80.732 0.97 -8.918 0.062 -94.952
227.928 0.062 -95.287 0.969 -9.071 0.2 80.573 0.024 47.9
          0.969 -9.071 0.062 -95.287 0.024 47.9 0.2 80.573
          0.2 80.573 0.024 47.9 0.062 -95.287 0.969 -9.071
          0.024 47.9 0.2 80.573 0.969 -9.071 0.062 -95.287
231.882 0.063 -95.618 0.968 -9.223 0.204 80.415 0.024 47.264
          0.968 -9.223 0.063 -95.618 0.024 47.264 0.204 80.415
          0.204 80.415 0.024 47.264 0.063 -95.618 0.968 -9.223
          0.024 47.264 0.204 80.415 0.968 -9.223 0.063 -95.618
235.836 0.064 -95.944 0.968 -9.376 0.207 80.257 0.025 46.632
          0.968 -9.376 0.064 -95.944 0.025 46.632 0.207 80.257
          0.207 80.257 0.025 46.632 0.064 -95.944 0.968 -9.376
          0.025 46.632 0.207 80.257 0.968 -9.376 0.064 -95.944
239.79 0.065 -96.265 0.967 -9.528 0.21 80.099 0.025 46.004
          0.967 -9.528 0.065 -96.265 0.025 46.004 0.21 80.099
          0.21 80.099 0.025 46.004 0.065 -96.265 0.967 -9.528
          0.025 46.004 0.21 80.099 0.967 -9.528 0.065 -96.265
243.744 0.066 -96.583 0.966 -9.68 0.213 79.942 0.026 45.381
          0.966 -9.68 0.066 -96.583 0.026 45.381 0.213 79.942
          0.213 79.942 0.026 45.381 0.066 -96.583 0.966 -9.68
          0.026 45.381 0.213 79.942 0.966 -9.68 0.066 -96.583
247.698 0.067 -96.897 0.965 -9.832 0.217 79.784 0.026 44.761
          0.965 -9.832 0.067 -96.897 0.026 44.761 0.217 79.784
          0.217 79.784 0.026 44.761 0.067 -96.897 0.965 -9.832
          0.026 44.761 0.217 79.784 0.965 -9.832 0.067 -96.897
251.652 0.068 -97.207 0.965 -9.984 0.22 79.627 0.027 44.145
          0.965 -9.984 0.068 -97.207 0.027 44.145 0.22 79.627
          0.22 79.627 0.027 44.145 0.068 -97.207 0.965 -9.984
          0.027 44.145 0.22 79.627 0.965 -9.984 0.068 -97.207
255.606 0.069 -97.513 0.964 -10.135 0.223 79.471 0.027 43.533
          0.964 -10.135 0.069 -97.513 0.027 43.533 0.223 79.471
          0.223 79.471 0.027 43.533 0.069 -97.513 0.964 -10.135
          0.027 43.533 0.223 79.471 0.964 -10.135 0.069 -97.513
259.56 0.07 -97.816 0.963 -10.286 0.227 79.314 0.028 42.924
          0.963 -10.286 0.07 -97.816 0.028 42.924 0.227 79.314
          0.227 79.314 0.028 42.924 0.07 -97.816 0.963 -10.286
          0.028 42.924 0.227 79.314 0.963 -10.286 0.07 -97.816
263.514 0.071 -98.115 0.962 -10.437 0.23 79.158 0.028 42.32
          0.962 -10.437 0.071 -98.115 0.028 42.32 0.23 79.158
          0.23 79.158 0.028 42.32 0.071 -98.115 0.962 -10.437
          0.028 42.32 0.23 79.158 0.962 -10.437 0.071 -98.115
267.467 0.072 -98.412 0.961 -10.587 0.233 79.002 0.029 41.72
          0.961 -10.587 0.072 -98.412 0.029 41.72 0.233 79.002
          0.233 79.002 0.029 41.72 0.072 -98.412 0.961 -10.587
          0.029 41.72 0.233 79.002 0.961 -10.587 0.072 -98.412
271.421 0.073 -98.705 0.96 -10.738 0.236 78.846 0.029 41.124
          0.96 -10.738 0.073 -98.705 0.029 41.124 0.236 78.846
          0.236 78.846 0.029 41.124 0.073 -98.705 0.96 -10.738
          0.029 41.124 0.236 78.846 0.96 -10.738 0.073 -98.705
275.375 0.074 -98.995 0.959 -10.888 0.24 78.691 0.03 40.531
          0.959 -10.888 0.074 -98.995 0.03 40.531 0.24 78.691
          0.24 78.691 0.03 40.531 0.074 -98.995 0.959 -10.888
          0.03 40.531 0.24 78.691 0.959 -10.888 0.074 -98.995
279.329 0.075 -99.282 0.958 -11.038 0.243 78.536 0.03 39.943
          0.958 -11.038 0.075 -99.282 0.03 39.943 0.243 78.536
          0.243 78.536 0.03 39.943 0.075 -99.282 0.958 -11.038
          0.03 39.943 0.243 78.536 0.958 -11.038 0.075 -99.282
283.283 0.076 -99.567 0.958 -11.187 0.246 78.381 0.031 39.358
          0.958 -11.187 0.076 -99.567 0.031 39.358 0.246 78.381
          0.246 78.381 0.031 39.358 0.076 -99.567 0.958 -11.187
          0.031 39.358 0.246 78.381 0.958 -11.187 0.076 -99.567
287.237 0.077 -99.849 0.957 -11.336 0.249 78.227 0.031 38.777
          0.957 -11.336 0.077 -99.849 0.031 38.777 0.249 78.227
          0.249 78.227 0.031 38.777 0.077 -99.849 0.957 -11.336
          0.031 38.777 0.249 78.227 0.957 -11.336 0.077 -99.849
291.191 0.077 -100.128 0.956 -11.486 0.252 78.073 0.032 38.2
          0.956 -11.486 0.077 -100.128 0.032 38.2 0.252 78.073
          0.252 78.073 0.032 38.2 0.077 -100.128 0.956 -11.486
          0.032 38.2 0.252 78.073 0.956 -11.486 0.077 -100.128
295.145 0.078 -100.404 0.955 -11.634 0.256 77.919 0.032 37.627
          0.955 -11.634 0.078 -100.404 0.032 37.627 0.256 77.919
          0.256 77.919 0.032 37.627 0.078 -100.404 0.955 -11.634
          0.032 37.627 0.256 77.919 0.955 -11.634 0.078 -100.404
299.099 0.079 -100.678 0.954 -11.783 0.259 77.765 0.033 37.058
          0.954 -11.783 0.079 -100.678 0.033 37.058 0.259 77.765
          0.259 77.765 0.033 37.058 0.079 -100.678 0.954 -11.783
          0.033 37.058 0.259 77.765 0.954 -11.783 0.079 -100.678
303.053 0.08 -100.95 0.953 -11.931 0.262 77.612 0.033 36.493
          0.953 -11.931 0.08 -100.95 0.033 36.493 0.262 77.612
          0.262 77.612 0.033 36.493 0.08 -100.95 0.953 -11.931
          0.033 36.493 0.262 77.612 0.953 -11.931 0.08 -100.95
307.007 0.081 -101.219 0.952 -12.079 0.265 77.459 0.034 35.931
          0.952 -12.079 0.081 -101.219 0.034 35.931 0.265 77.459
          0.265 77.459 0.034 35.931 0.081 -101.219 0.952 -12.079
          0.034 35.931 0.265 77.459 0.952 -12.079 0.081 -101.219
310.961 0.082 -101.486 0.951 -12.227 0.268 77.306 0.034 35.373
          0.951 -12.227 0.082 -101.486 0.034 35.373 0.268 77.306
          0.268 77.306 0.034 35.373 0.082 -101.486 0.951 -12.227
          0.034 35.373 0.268 77.306 0.951 -12.227 0.082 -101.486
314.915 0.083 -101.751 0.95 -12.374 0.271 77.154 0.035 34.819
          0.95 -12.374 0.083 -101.751 0.035 34.819 0.271 77.154
          0.271 77.154 0.035 34.819 0.083 -101.751 0.95 -12.374
          0.035 34.819 0.271 77.154 0.95 -12.374 0.083 -101.751
318.869 0.084 -102.014 0.949 -12.521 0.275 77.002 0.035 34.269
          0.949 -12.521 0.084 -102.014 0.035 34.269 0.275 77.002
          0.275 77.002 0.035 34.269 0.084 -102.014 0.949 -12.521
          0.035 34.269 0.275 77.002 0.949 -12.521 0.084 -102.014
322.823 0.084 -102.275 0.948 -12.668 0.278 76.85 0.036 33.723
          0.948 -12.668 0.084 -102.275 0.036 33.723 0.278 76.85
          0.278 76.85 0.036 33.723 0.084 -102.275 0.948 -12.668
          0.036 33.723 0.278 76.85 0.948 -12.668 0.084 -102.275
326.777 0.085 -102.533 0.947 -12.814 0.281 76.699 0.036 33.18
          0.947 -12.814 0.085 -102.533 0.036 33.18 0.281 76.699
          0.281 76.699 0.036 33.18 0.085 -102.533 0.947 -12.814
          0.036 33.18 0.281 76.699 0.947 -12.814 0.085 -102.533
330.731 0.086 -102.79 0.946 -12.961 0.284 76.548 0.037 32.641
          0.946 -12.961 0.086 -102.79 0.037 32.641 0.284 76.548
          0.284 76.548 0.037 32.641 0.086 -102.79 0.946 -12.961
          0.037 32.641 0.284 76.548 0.946 -12.961 0.086 -102.79
334.685 0.087 -103.044 0.945 -13.107 0.287 76.397 0.037 32.106
          0.945 -13.107 0.087 -103.044 0.037 32.106 0.287 76.397
          0.287 76.397 0.037 32.106 0.087 -103.044 0.945 -13.107
          0.037 32.106 0.287 76.397 0.945 -13.107 0.087 -103.044
338.639 0.088 -103.297 0.944 -13.252 0.29 76.246 0.038 31.574
          0.944 -13.252 0.088 -103.297 0.038 31.574 0.29 76.246
          0.29 76.246 0.038 31.574 0.088 -103.297 0.944 -13.252
          0.038 31.574 0.29 76.246 0.944 -13.252 0.088 -103.297
342.593 0.089 -103.548 0.943 -13.398 0.293 76.096 0.039 31.046
          0.943 -13.398 0.089 -103.548 0.039 31.046 0.293 76.096
          0.293 76.096 0.039 31.046 0.089 -103.548 0.943 -13.398
          0.039 31.046 0.293 76.096 0.943 -13.398 0.089 -103.548
346.547 0.089 -103.797 0.942 -13.543 0.296 75.947 0.039 30.522
          0.942 -13.543 0.089 -103.797 0.039 30.522 0.296 75.947
          0.296 75.947 0.039 30.522 0.089 -103.797 0.942 -13.543
          0.039 30.522 0.296 75.947 0.942 -13.543 0.089 -103.797
350.501 0.09 -104.044 0.941 -13.688 0.299 75.797 0.04 30.001
          0.941 -13.688 0.09 -104.044 0.04 30.001 0.299 75.797
          0.299 75.797 0.04 30.001 0.09 -104.044 0.941 -13.688
          0.04 30.001 0.299 75.797 0.941 -13.688 0.09 -104.044
354.454 0.091 -104.289 0.94 -13.832 0.302 75.648 0.04 29.484
          0.94 -13.832 0.091 -104.289 0.04 29.484 0.302 75.648
          0.302 75.648 0.04 29.484 0.091 -104.289 0.94 -13.832
          0.04 29.484 0.302 75.648 0.94 -13.832 0.091 -104.289
358.408 0.092 -104.533 0.939 -13.976 0.306 75.499 0.041 28.971
          0.939 -13.976 0.092 -104.533 0.041 28.971 0.306 75.499
          0.306 75.499 0.041 28.971 0.092 -104.533 0.939 -13.976
          0.041 28.971 0.306 75.499 0.939 -13.976 0.092 -104.533
362.362 0.093 -104.775 0.938 -14.12 0.309 75.351 0.041 28.461
          0.938 -14.12 0.093 -104.775 0.041 28.461 0.309 75.351
          0.309 75.351 0.041 28.461 0.093 -104.775 0.938 -14.12
