! Network Analyzer HP8720D.07.14 Serial No. US38111185																															
! 																															
! 28 Apr 1999  02:06:29																															
! Frequency 	S11		S21		S31		S41		S12		S22		S23		S24		S13		S23		S33		S34		S14		S24		S34		S44
# HZ  S  DB R 50																															
50000000	-44.266	-14.432	-0.0073	-1.1124	-44.29	84.961	-51.257	81.972																							
	0.0029	-0.8116	-41.066	46.095	-58.485	94.517	-45.637	87.749																							
	-43.451	90.055	-51.602	74.903	-40.063	40.567	-0.0024	-1.5916																							
	-51.089	73.941	-42.84	91.928	0.0325	-1.2263	-42.978	-9.8094																							
150000000	-41.665	-58.63	0.0036	-2.5694	-34.078	86.927	-43.477	86.152																							
	0.0023	-2.6793	-35.366	63.527	-43.205	87.66	-33.925	86.57																							
	-34.118	86.149	-43.261	87.709	-32.289	65.782	-0.0031	-4.0073																							
	-43.146	86.002	-33.926	85.677	-0.0158	-4.0237	-44.123	-2.4829																							
250000000	-38.602	-83.169	-0.0112	-4.4728	-29.646	84.814	-39.017	84.787																							
	-0.0078	-4.492	-31.52	69.114	-38.881	86.12	-29.504	84.187																							
	-29.636	84.429	-38.906	85.75	-28.889	64.056	-0.0265	-6.5451																							
	-38.971	83.951	-29.478	84.264	-0.0356	-6.7442	-42.629	-31.763
350000000	-36.131	-101.39	-0.0214	-6.2032	-26.718	82.715	-36.213	82.213
	-0.0131	-6.2677	-28.744	71.293	-36.004	85.02	-26.587	81.871
	-26.719	82.745	-36.017	85.349	-25.875	62.832	-0.0509	-9.2381
	-36.139	82.326	-26.586	81.847	-0.0444	-9.2189	-43.065	-31.897
450000000	-34.227	-115.95	-0.0319	-7.847	-24.569	80.642	-34.143	80.292
	-0.0316	-8.031	-26.452	71.38	-33.867	83.712	-24.445	79.726
	-24.579	80.542	-33.87	83.609	-24.118	58.887	-0.076	-11.618
	-34.163	80.143	-24.444	79.763	-0.0804	-11.816	-41.319	-54.488
550000000	-32.534	-129.38	-0.0442	-9.6721	-22.852	78.598	-32.563	78.569
	-0.0439	-9.7806	-24.525	70.334	-32.154	82.441	-22.73	77.64
	-22.86	78.655	-32.138	82.525	-22.209	55.4	-0.1031	-14.29
	-32.548	78.375	-22.695	77.565	-0.0918	-14.326	-41.779	-51.053
650000000	-31.12	-141.24	-0.0582	-11.444	-21.419	76.763	-31.265	77.182
	-0.0485	-11.573	-22.823	68.314	-30.694	81.442	-21.315	75.405
	-21.421	76.645	-30.693	81.313	-20.995	51.428	-0.1445	-16.762
	-31.246	76.919	-21.279	75.288	-0.1436	-16.963	-41.046	-71.996
750000000	-29.891	-152.04	-0.0734	-13.111	-20.23	74.703	-30.172	75.903
	-0.0756	-13.296	-21.308	65.661	-29.46	80.192	-20.086	73.257
	-20.206	74.618	-29.475	80.061	-19.704	47.972	-0.1913	-19.384
	-30.205	75.583	-20.055	73.163	-0.1753	-19.479	-42.252	-80.388
850000000	-28.781	-162.24	-0.0976	-14.93	-19.134	72.826	-29.262	74.848
	-0.0905	-15.064	-19.991	62.463	-28.386	79.104	-19.033	71.141
	-19.138	72.672	-28.398	79.027	-18.864	43.362	-0.2256	-21.859
	-29.277	74.678	-18.99	71.187	-0.211	-21.974	-39.922	-101.08
950000000	-27.835	-171.35	-0.1149	-16.658	-18.192	70.826	-28.413	73.997
	-0.1169	-16.823	-18.779	58.634	-27.373	77.945	-18.09	69.11
	-18.22	70.716	-27.405	77.82	-17.877	39.445	-0.2602	-24.541
	-28.461	73.871	-18.077	68.89	-0.2783	-24.57	-40.71	-112.98
1050000000	-26.952	179.83	-0.1355	-18.497	-17.329	68.883	-27.675	73.494
	-0.1456	-18.545	-17.728	54.524	-26.475	76.922	-17.282	66.745
	-17.394	68.768	-26.538	76.715	-17.314	35.346	-0.307	-26.809
	-27.747	73.319	-17.225	66.844	-0.2836	-26.797	-37.494	-132.07
1150000000	-26.285	172.84	-0.1549	-20.141	-16.564	67.111	-27.028	73.294
	-0.1629	-20.23	-16.805	49.86	-25.663	75.678	-16.519	64.863
	-16.602	67.272	-25.702	75.703	-16.501	30.85	-0.3626	-29.247
	-27.07	73.213	-16.461	64.683	-0.3844	-29.611	-37.587	-135.82
1250000000	-25.68	166.03	-0.1748	-21.819	-15.887	65.321	-26.398	72.992
	-0.2006	-21.977	-15.982	44.81	-24.923	74.619	-15.817	62.839
	-15.953	65.367	-24.982	74.486	-16.044	26.638	-0.4345	-31.686
	-26.465	72.881	-15.733	62.941	-0.3767	-31.836	-34.72	-150.92
1350000000	-25.191	159.81	-0.2014	-23.608	-15.226	63.122	-25.736	72.688
	-0.2109	-23.698	-15.251	39.744	-24.187	73.137	-15.208	60.78
	-15.341	63.413	-24.292	73.246	-15.444	22.173	-0.4614	-34.276
	-25.83	72.787	-15.09	60.905	-0.4346	-34.457	-33.827	-157.55
1450000000	-24.826	154.53	-0.24	-25.476	-14.631	61.345	-25.097	72.585
	-0.2452	-25.462	-14.591	34.276	-23.518	71.776	-14.649	58.922
	-14.745	61.604	-23.626	71.903	-15.111	18.059	-0.5292	-36.925
	-25.234	72.806	-14.508	59.067	-0.4818	-36.563	-31.534	-165.4
1550000000	-24.57	149.71	-0.2798	-27.327	-14.014	59.139	-24.438	72.313
	-0.2826	-27.212	-14	28.728	-22.859	70.079	-14.134	56.994
	-14.199	60.175	-23.053	70.73	-14.587	13.237	-0.5559	-39.558
	-24.641	72.926	-13.893	56.82	-0.5294	-39.348	-30.788	-169.69
1650000000	-24.427	145.55	-0.2884	-29.088	-13.514	57.49	-23.859	72.054
	-0.3135	-28.78	-13.482	22.959	-22.317	68.621	-13.598	54.845
	-13.669	58.596	-22.477	69.579	-14.342	9.8863	-0.6522	-41.9
	-24.012	73.07	-13.308	54.238	-0.5858	-42.351	-28.745	-179.49
1750000000	-24.412	141.97	-0.3344	-30.822	-13.026	55.521	-23.237	71.786
	-0.3646	-30.71	-13.027	17.096	-21.754	67.245	-13.145	52.947
	-13.264	56.648	-21.99	67.869	-14.001	4.823	-0.6893	-44.254
	-23.476	72.636	-12.765	52.747	-0.5673	-44.595	-27.654	177.95
1850000000	-24.47	138.49	-0.3885	-32.521	-12.589	53.556	-22.628	71.333
	-0.3886	-32.147	-12.575	11.262	-21.302	65.404	-12.674	50.966
	-12.695	55.091	-21.46	66.638	-13.665	1.0918	-0.8274	-46.853
	-22.768	72.584	-12.358	49.52	-0.7907	-47.751	-26.415	169.83
1950000000	-24.632	136.21	-0.47	-34.35	-12.112	51.034	-22.005	69.674
	-0.4233	-34.07	-12.178	5.294	-20.819	63.483	-12.328	49.285
	-12.344	53.069	-21.048	64.97	-13.343	-3.4868	-0.8892	-49.849
	-22.258	71.429	-11.926	48.126	-0.8091	-49.326	-25.353	166.63
2050000000	-24.877	134.12	-0.5191	-36.144	-11.7	48.837	-21.447	68.611
	-0.4814	-35.482	-11.785	-0.5767	-20.411	61.338	-11.936	47.427
	-11.856	51.974	-20.626	64.3	-13.074	-6.9379	-0.9753	-52.539
	-21.654	71.447	-11.492	44.467	-1.0051	-52.909	-24.302	159.59
2150000000	-25.21	132.4	-0.5389	-38.039	-11.308	47.271	-20.871	67.865
	-0.5133	-37.458	-11.442	-6.4394	-20.044	60.305	-11.56	45.343
	-11.557	49.868	-20.282	62.338	-12.767	-11.762	-1.0042	-54.548
	-21.154	70.12	-11.103	42.837	-1.038	-54.996	-23.587	155.61
2250000000	-25.6	130.72	-0.5558	-39.586	-10.998	45.538	-20.429	66.785
	-0.5688	-39.588	-11.093	-12.25	-19.729	58.78	-11.165	43.055
	-11.263	47.84	-20.015	60.899	-12.468	-15.434	-1.1624	-56.519
	-20.699	68.942	-10.651	41.039	-0.9924	-57.343	-22.774	147.86
2350000000	-26.091	129.4	-0.5937	-41.304	-10.669	43.374	-19.956	65.483
	-0.6345	-40.487	-10.716	-17.875	-19.431	57.283	-10.825	41.221
	-10.787	46.765	-19.617	60.385	-12.079	-20.153	-1.2722	-58.946
	-20.085	68.492	-10.549	36.799	-1.4792	-60.546	-22.213	143.18
2450000000	-26.643	128.82	-0.749	-42.918	-10.365	40.578	-19.494	63.151
	-0.6425	-42.976	-10.36	-23.472	-19.2	55.132	-10.541	40.082
	-10.59	44.39	-19.411	58.777	-11.764	-23.404	-1.4622	-62.562
	-19.684	67.21	-10.096	36.178	-1.3078	-61.916	-21.575	134.96
2550000000	-27.262	128.36	-0.7536	-44.97	-9.972	38.981	-18.923	62.18
	-0.8094	-44.165	-10.019	-28.987	-18.87	54.477	-10.244	37.963
	-10.258	43.849	-19.176	59.187	-11.34	-28.596	-1.3484	-65.025
	-19.218	67.065	-9.8476	31.713	-1.67	-66.304	-21.282	130.12
2650000000	-28.007	127.4	-0.7715	-46.582	-9.6966	37.47	-18.478	61.092
	-0.7501	-46.118	-9.7045	-34.341	-18.643	54.446	-9.9498	35.927
	-9.9485	41.375	-18.831	58.215	-10.968	-31.987	-1.4499	-66.78
	-18.678	65.029	-9.5985	31.172	-1.6251	-66.914	-20.891	120.03
2750000000	-28.809	126.23	-0.7026	-48.174	-9.4492	36.874	-18.031	60.922
	-0.8085	-48.205	-9.41	-39.497	-18.358	55.048	-9.6205	33.315
	-9.7023	39.698	-18.557	57.664	-10.618	-36.902	-1.5198	-67.64
	-18.248	63.626	-9.2766	28.651	-1.6917	-69.714	-20.624	114.21
2850000000	-29.593	125.31	-0.9056	-49.9	-9.1835	33.445	-17.663	57.693
	-0.9967	-49.065	-9.0643	-44.317	-18.108	52.756	-9.3948	32.384
	-9.4115	39.37	-18.193	58.538	-10.173	-40.2	-1.7847	-71.526
	-17.833	63.537	-9.3222	24.207	-2.2829	-73.332	-20.131	104.02
2950000000	-30.611	123.62	-0.9128	-51.967	-8.8612	31.943	-17.16	56.508
	-0.8897	-51.428	-8.7996	-49.143	-17.726	52.423	-9.1702	30.215
	-9.1218	36.62	-17.863	57.285	-9.8585	-45.143	-1.8067	-73.519
	-17.338	61.219	-8.9537	24.397	-2.0338	-73.689	-19.854	97.469
3050000000	-31.561	121.96	-1.0691	-54.016	-8.5564	28.93	-16.736	53.392
	-1.1243	-53.271	-8.5081	-53.645	-17.368	50.898	-8.956	29.009
	-8.9614	35.982	-17.568	58.092	-9.4078	-48.591	-1.8792	-77.249
	-17.032	60.504	-8.753	19.655	-2.3285	-78.585	-19.453	87.528
3150000000	-32.958	117.7	-0.8612	-55.896	-8.2025	30.056	-16.117	54.516
	-0.9744	-54.305	-8.2874	-58.112	-16.86	53.416	-8.7287	25.848
	-8.4894	33.953	-17.034	57.332	-9.1293	-53.536	-1.7249	-76.66
	-16.411	58.9	-8.7975	20.241	-2.4406	-77.429	-19.107	80.267
3250000000	-33.646	112.02	-1.1095	-57.312	-8.1208	26.353	-15.986	50.802
	-1.0573	-56.643	-8.0288	-62.571	-16.657	50.766	-8.4637	24.982
	-8.3104	32.363	-16.673	56.974	-8.735	-57.535	-2.1123	-80.983
	-16.077	57.258	-8.464	18.059	-2.4105	-80.392	-18.754	70.38
3350000000	-34.929	107.01	-1.0793	-60.198	-7.5578	25.201	-15.228	49.195
	-1.2233	-58.465	-7.8147	-66.721	-15.919	50.592	-8.3413	22.722
	-8.0944	31.337	-16.203	57.007	-8.4553	-62.483	-1.8092	-83.297
	-15.727	55.912	-8.3418	14.33	-2.6473	-84.569	-18.32	64.528
3450000000	-34.811	99.687	-1.3468	-61.346	-7.5661	21.423	-15.22	45.19
	-1.1783	-60.404	-7.601	-70.99	-15.761	47.62	-8.0437	22.055
	-7.7709	29.546	-15.717	56.136	-8.1202	-66.931	-2.2451	-87.69
	-15.278	54.002	-8.1017	14.1	-2.5577	-85.395	-18.009	55.205
3550000000	-35.393	92.438	-1.2781	-64.01	-6.9971	20.805	-14.456	44.154
	-1.3064	-62.91	-7.4623	-75.034	-14.976	47.483	-7.8825	19.84
	-7.5437	27.897	-15.238	55.408	-7.9405	-72.092	-1.9421	-89.357
	-14.918	51.807	-7.7607	10.699	-2.507	-90.088	-17.684	50.464
3650000000	-34.465	83.698	-1.4694	-65.109	-6.9984	18.09	-14.416	41.005
	-1.4325	-63.917	-7.2711	-79.28	-14.796	45.161	-7.5961	18.577
	-7.2236	27.052	-14.651	54.474	-7.6115	-77.116	-2.3275	-92.771
	-14.551	50.874	-7.9318	8.9525	-2.9421	-91.607	-17.443	42.063
3750000000	-33.784	81.531	-1.5146	-68.047	-6.3938	16.04	-13.683	38.257
	-1.4777	-65.804	-7.1602	-83.356	-13.989	43.04	-7.4518	16.584
	-6.9163	25.363	-14.11	52.785	-7.4763	-82.566	-2.0564	-95.926
	-14.163	48.772	-7.7762	7.3073	-3.0137	-94.145	-17.121	37.139
3850000000	-31.994	77.195	-1.6988	-69.716	-6.2739	12.597	-13.55	34.305
	-1.5808	-67.919	-7.044	-87.639	-13.67	39.614	-7.1687	15.035
	-6.652	23.704	-13.622	51.231	-7.1884	-87.811	-2.3004	-100.21
	-13.868	46.722	-7.5596	5.0935	-3.0793	-97.471	-17.063	29.844
3950000000	-30.246	71.837	-1.8476	-70.65	-6.2805	10.978	-13.557	32.342
	-1.7059	-69.469	-6.9373	-91.997	-13.523	37.904	-6.8684	13.162
	-6.296	22.125	-13.043	49.211	-7.0594	-93.376	-2.6165	-102.51
	-13.515	44.688	-7.5467	3.2506	-3.3013	-99.981	-16.737	25.562
4050000000	-28.314	69.993	-2.054	-72.647	-6.0649	6.9475	-13.356	27.377
	-1.6699	-71.304	-6.8537	-96.394	-13.169	33.436	-6.6293	11.492
	-5.8913	19.847	-12.559	46.5	-6.8485	-99.319	-2.774	-107.45
	-13.091	42.079	-7.1719	3.8617	-3.055	-100.92	-16.929	18.652
