!	AVX THIN FILM OPERATION
!	
!	0603 SIZE 3dB 90deg COUPLER P/N DB0603N5500ANTR
!
!	Created August 2010
!						
!	Network Analyzer HP8720E S.07.64: Feb23, 2000 Serial No.US39172382		
!
!	
# MHZ S MA R 50

4500 0.165 -166.509 0.731 -52.47 0.618 34.514 0.162 -22.067
          0.731 -52.47 0.165 -166.509 0.162 -22.067 0.618 34.514
          0.618 34.514 0.162 -22.067 0.165 -166.509 0.731 -52.47
          0.162 -22.067 0.618 34.514 0.731 -52.47 0.165 -166.509
4504.008 0.165 -166.543 0.73 -52.504 0.618 34.483 0.162 -22.14
          0.73 -52.504 0.165 -166.543 0.162 -22.14 0.618 34.483
          0.618 34.483 0.162 -22.14 0.165 -166.543 0.73 -52.504
          0.162 -22.14 0.618 34.483 0.73 -52.504 0.165 -166.543
4508.016 0.165 -166.578 0.73 -52.538 0.618 34.453 0.162 -22.212
          0.73 -52.538 0.165 -166.578 0.162 -22.212 0.618 34.453
          0.618 34.453 0.162 -22.212 0.165 -166.578 0.73 -52.538
          0.162 -22.212 0.618 34.453 0.73 -52.538 0.165 -166.578
4512.024 0.165 -166.612 0.73 -52.572 0.619 34.423 0.162 -22.285
          0.73 -52.572 0.165 -166.612 0.162 -22.285 0.619 34.423
          0.619 34.423 0.162 -22.285 0.165 -166.612 0.73 -52.572
          0.162 -22.285 0.619 34.423 0.73 -52.572 0.165 -166.612
4516.032 0.165 -166.647 0.73 -52.606 0.619 34.392 0.162 -22.358
          0.73 -52.606 0.165 -166.647 0.162 -22.358 0.619 34.392
          0.619 34.392 0.162 -22.358 0.165 -166.647 0.73 -52.606
          0.162 -22.358 0.619 34.392 0.73 -52.606 0.165 -166.647
4520.04 0.165 -166.681 0.73 -52.64 0.619 34.362 0.162 -22.43
          0.73 -52.64 0.165 -166.681 0.162 -22.43 0.619 34.362
          0.619 34.362 0.162 -22.43 0.165 -166.681 0.73 -52.64
          0.162 -22.43 0.619 34.362 0.73 -52.64 0.165 -166.681
4524.048 0.165 -166.716 0.729 -52.674 0.619 34.332 0.162 -22.503
          0.729 -52.674 0.165 -166.716 0.162 -22.503 0.619 34.332
          0.619 34.332 0.162 -22.503 0.165 -166.716 0.729 -52.674
          0.162 -22.503 0.619 34.332 0.729 -52.674 0.165 -166.716
4528.056 0.164 -166.75 0.729 -52.708 0.62 34.301 0.162 -22.575
          0.729 -52.708 0.164 -166.75 0.162 -22.575 0.62 34.301
          0.62 34.301 0.162 -22.575 0.164 -166.75 0.729 -52.708
          0.162 -22.575 0.62 34.301 0.729 -52.708 0.164 -166.75
4532.064 0.164 -166.784 0.729 -52.741 0.62 34.271 0.162 -22.648
          0.729 -52.741 0.164 -166.784 0.162 -22.648 0.62 34.271
          0.62 34.271 0.162 -22.648 0.164 -166.784 0.729 -52.741
          0.162 -22.648 0.62 34.271 0.729 -52.741 0.164 -166.784
4536.072 0.164 -166.818 0.729 -52.775 0.62 34.241 0.162 -22.72
          0.729 -52.775 0.164 -166.818 0.162 -22.72 0.62 34.241
          0.62 34.241 0.162 -22.72 0.164 -166.818 0.729 -52.775
          0.162 -22.72 0.62 34.241 0.729 -52.775 0.164 -166.818
4540.08 0.164 -166.852 0.729 -52.809 0.62 34.211 0.162 -22.793
          0.729 -52.809 0.164 -166.852 0.162 -22.793 0.62 34.211
          0.62 34.211 0.162 -22.793 0.164 -166.852 0.729 -52.809
          0.162 -22.793 0.62 34.211 0.729 -52.809 0.164 -166.852
4544.088 0.164 -166.886 0.728 -52.843 0.621 34.18 0.162 -22.865
          0.728 -52.843 0.164 -166.886 0.162 -22.865 0.621 34.18
          0.621 34.18 0.162 -22.865 0.164 -166.886 0.728 -52.843
          0.162 -22.865 0.621 34.18 0.728 -52.843 0.164 -166.886
4548.096 0.164 -166.92 0.728 -52.877 0.621 34.15 0.162 -22.938
          0.728 -52.877 0.164 -166.92 0.162 -22.938 0.621 34.15
          0.621 34.15 0.162 -22.938 0.164 -166.92 0.728 -52.877
          0.162 -22.938 0.621 34.15 0.728 -52.877 0.164 -166.92
4552.104 0.164 -166.954 0.728 -52.91 0.621 34.12 0.162 -23.01
          0.728 -52.91 0.164 -166.954 0.162 -23.01 0.621 34.12
          0.621 34.12 0.162 -23.01 0.164 -166.954 0.728 -52.91
          0.162 -23.01 0.621 34.12 0.728 -52.91 0.164 -166.954
4556.112 0.164 -166.988 0.728 -52.944 0.622 34.09 0.162 -23.082
          0.728 -52.944 0.164 -166.988 0.162 -23.082 0.622 34.09
          0.622 34.09 0.162 -23.082 0.164 -166.988 0.728 -52.944
          0.162 -23.082 0.622 34.09 0.728 -52.944 0.164 -166.988
4560.12 0.164 -167.022 0.727 -52.978 0.622 34.06 0.162 -23.155
          0.727 -52.978 0.164 -167.022 0.162 -23.155 0.622 34.06
          0.622 34.06 0.162 -23.155 0.164 -167.022 0.727 -52.978
          0.162 -23.155 0.622 34.06 0.727 -52.978 0.164 -167.022
4564.128 0.164 -167.055 0.727 -53.012 0.622 34.03 0.162 -23.227
          0.727 -53.012 0.164 -167.055 0.162 -23.227 0.622 34.03
          0.622 34.03 0.162 -23.227 0.164 -167.055 0.727 -53.012
          0.162 -23.227 0.622 34.03 0.727 -53.012 0.164 -167.055
4568.136 0.164 -167.089 0.727 -53.045 0.622 33.999 0.162 -23.299
          0.727 -53.045 0.164 -167.089 0.162 -23.299 0.622 33.999
          0.622 33.999 0.162 -23.299 0.164 -167.089 0.727 -53.045
          0.162 -23.299 0.622 33.999 0.727 -53.045 0.164 -167.089
4572.144 0.164 -167.123 0.727 -53.079 0.623 33.969 0.161 -23.372
          0.727 -53.079 0.164 -167.123 0.161 -23.372 0.623 33.969
          0.623 33.969 0.161 -23.372 0.164 -167.123 0.727 -53.079
          0.161 -23.372 0.623 33.969 0.727 -53.079 0.164 -167.123
4576.152 0.163 -167.156 0.727 -53.113 0.623 33.939 0.161 -23.444
          0.727 -53.113 0.163 -167.156 0.161 -23.444 0.623 33.939
          0.623 33.939 0.161 -23.444 0.163 -167.156 0.727 -53.113
          0.161 -23.444 0.623 33.939 0.727 -53.113 0.163 -167.156
4580.16 0.163 -167.19 0.726 -53.147 0.623 33.909 0.161 -23.516
          0.726 -53.147 0.163 -167.19 0.161 -23.516 0.623 33.909
          0.623 33.909 0.161 -23.516 0.163 -167.19 0.726 -53.147
          0.161 -23.516 0.623 33.909 0.726 -53.147 0.163 -167.19
4584.168 0.163 -167.223 0.726 -53.18 0.623 33.879 0.161 -23.588
          0.726 -53.18 0.163 -167.223 0.161 -23.588 0.623 33.879
          0.623 33.879 0.161 -23.588 0.163 -167.223 0.726 -53.18
          0.161 -23.588 0.623 33.879 0.726 -53.18 0.163 -167.223
4588.176 0.163 -167.256 0.726 -53.214 0.624 33.849 0.161 -23.66
          0.726 -53.214 0.163 -167.256 0.161 -23.66 0.624 33.849
          0.624 33.849 0.161 -23.66 0.163 -167.256 0.726 -53.214
          0.161 -23.66 0.624 33.849 0.726 -53.214 0.163 -167.256
4592.184 0.163 -167.29 0.726 -53.248 0.624 33.819 0.161 -23.732
          0.726 -53.248 0.163 -167.29 0.161 -23.732 0.624 33.819
          0.624 33.819 0.161 -23.732 0.163 -167.29 0.726 -53.248
          0.161 -23.732 0.624 33.819 0.726 -53.248 0.163 -167.29
4596.192 0.163 -167.323 0.726 -53.281 0.624 33.789 0.161 -23.805
          0.726 -53.281 0.163 -167.323 0.161 -23.805 0.624 33.789
          0.624 33.789 0.161 -23.805 0.163 -167.323 0.726 -53.281
          0.161 -23.805 0.624 33.789 0.726 -53.281 0.163 -167.323
4600.2 0.163 -167.356 0.725 -53.315 0.625 33.759 0.161 -23.877
          0.725 -53.315 0.163 -167.356 0.161 -23.877 0.625 33.759
          0.625 33.759 0.161 -23.877 0.163 -167.356 0.725 -53.315
          0.161 -23.877 0.625 33.759 0.725 -53.315 0.163 -167.356
4604.208 0.163 -167.389 0.725 -53.348 0.625 33.729 0.161 -23.949
          0.725 -53.348 0.163 -167.389 0.161 -23.949 0.625 33.729
          0.625 33.729 0.161 -23.949 0.163 -167.389 0.725 -53.348
          0.161 -23.949 0.625 33.729 0.725 -53.348 0.163 -167.389
4608.216 0.163 -167.422 0.725 -53.382 0.625 33.699 0.161 -24.021
          0.725 -53.382 0.163 -167.422 0.161 -24.021 0.625 33.699
          0.625 33.699 0.161 -24.021 0.163 -167.422 0.725 -53.382
          0.161 -24.021 0.625 33.699 0.725 -53.382 0.163 -167.422
4612.224 0.163 -167.455 0.725 -53.416 0.625 33.669 0.161 -24.093
          0.725 -53.416 0.163 -167.455 0.161 -24.093 0.625 33.669
          0.625 33.669 0.161 -24.093 0.163 -167.455 0.725 -53.416
          0.161 -24.093 0.625 33.669 0.725 -53.416 0.163 -167.455
4616.232 0.163 -167.488 0.725 -53.449 0.626 33.639 0.161 -24.165
          0.725 -53.449 0.163 -167.488 0.161 -24.165 0.626 33.639
          0.626 33.639 0.161 -24.165 0.163 -167.488 0.725 -53.449
          0.161 -24.165 0.626 33.639 0.725 -53.449 0.163 -167.488
4620.24 0.163 -167.52 0.724 -53.483 0.626 33.609 0.161 -24.237
          0.724 -53.483 0.163 -167.52 0.161 -24.237 0.626 33.609
          0.626 33.609 0.161 -24.237 0.163 -167.52 0.724 -53.483
          0.161 -24.237 0.626 33.609 0.724 -53.483 0.163 -167.52
4624.248 0.162 -167.553 0.724 -53.516 0.626 33.579 0.161 -24.308
          0.724 -53.516 0.162 -167.553 0.161 -24.308 0.626 33.579
          0.626 33.579 0.161 -24.308 0.162 -167.553 0.724 -53.516
          0.161 -24.308 0.626 33.579 0.724 -53.516 0.162 -167.553
4628.257 0.162 -167.586 0.724 -53.55 0.626 33.549 0.161 -24.38
          0.724 -53.55 0.162 -167.586 0.161 -24.38 0.626 33.549
          0.626 33.549 0.161 -24.38 0.162 -167.586 0.724 -53.55
          0.161 -24.38 0.626 33.549 0.724 -53.55 0.162 -167.586
4632.265 0.162 -167.618 0.724 -53.584 0.627 33.519 0.161 -24.452
          0.724 -53.584 0.162 -167.618 0.161 -24.452 0.627 33.519
          0.627 33.519 0.161 -24.452 0.162 -167.618 0.724 -53.584
          0.161 -24.452 0.627 33.519 0.724 -53.584 0.162 -167.618
4636.273 0.162 -167.651 0.724 -53.617 0.627 33.489 0.161 -24.524
          0.724 -53.617 0.162 -167.651 0.161 -24.524 0.627 33.489
          0.627 33.489 0.161 -24.524 0.162 -167.651 0.724 -53.617
          0.161 -24.524 0.627 33.489 0.724 -53.617 0.162 -167.651
4640.281 0.162 -167.683 0.723 -53.651 0.627 33.46 0.161 -24.596
          0.723 -53.651 0.162 -167.683 0.161 -24.596 0.627 33.46
          0.627 33.46 0.161 -24.596 0.162 -167.683 0.723 -53.651
          0.161 -24.596 0.627 33.46 0.723 -53.651 0.162 -167.683
4644.289 0.162 -167.716 0.723 -53.684 0.628 33.43 0.161 -24.668
          0.723 -53.684 0.162 -167.716 0.161 -24.668 0.628 33.43
          0.628 33.43 0.161 -24.668 0.162 -167.716 0.723 -53.684
          0.161 -24.668 0.628 33.43 0.723 -53.684 0.162 -167.716
4648.297 0.162 -167.748 0.723 -53.718 0.628 33.4 0.161 -24.739
          0.723 -53.718 0.162 -167.748 0.161 -24.739 0.628 33.4
          0.628 33.4 0.161 -24.739 0.162 -167.748 0.723 -53.718
          0.161 -24.739 0.628 33.4 0.723 -53.718 0.162 -167.748
4652.305 0.162 -167.78 0.723 -53.751 0.628 33.37 0.161 -24.811
          0.723 -53.751 0.162 -167.78 0.161 -24.811 0.628 33.37
          0.628 33.37 0.161 -24.811 0.162 -167.78 0.723 -53.751
          0.161 -24.811 0.628 33.37 0.723 -53.751 0.162 -167.78
4656.313 0.162 -167.813 0.722 -53.785 0.628 33.34 0.161 -24.883
          0.722 -53.785 0.162 -167.813 0.161 -24.883 0.628 33.34
          0.628 33.34 0.161 -24.883 0.162 -167.813 0.722 -53.785
          0.161 -24.883 0.628 33.34 0.722 -53.785 0.162 -167.813
4660.321 0.162 -167.845 0.722 -53.818 0.629 33.31 0.161 -24.955
          0.722 -53.818 0.162 -167.845 0.161 -24.955 0.629 33.31
          0.629 33.31 0.161 -24.955 0.162 -167.845 0.722 -53.818
          0.161 -24.955 0.629 33.31 0.722 -53.818 0.162 -167.845
4664.329 0.162 -167.877 0.722 -53.852 0.629 33.281 0.161 -25.026
          0.722 -53.852 0.162 -167.877 0.161 -25.026 0.629 33.281
          0.629 33.281 0.161 -25.026 0.162 -167.877 0.722 -53.852
          0.161 -25.026 0.629 33.281 0.722 -53.852 0.162 -167.877
4668.337 0.162 -167.909 0.722 -53.885 0.629 33.251 0.161 -25.098
          0.722 -53.885 0.162 -167.909 0.161 -25.098 0.629 33.251
          0.629 33.251 0.161 -25.098 0.162 -167.909 0.722 -53.885
          0.161 -25.098 0.629 33.251 0.722 -53.885 0.162 -167.909
4672.345 0.161 -167.941 0.722 -53.919 0.629 33.221 0.161 -25.169
          0.722 -53.919 0.161 -167.941 0.161 -25.169 0.629 33.221
          0.629 33.221 0.161 -25.169 0.161 -167.941 0.722 -53.919
          0.161 -25.169 0.629 33.221 0.722 -53.919 0.161 -167.941
4676.353 0.161 -167.973 0.721 -53.952 0.63 33.191 0.161 -25.241
          0.721 -53.952 0.161 -167.973 0.161 -25.241 0.63 33.191
          0.63 33.191 0.161 -25.241 0.161 -167.973 0.721 -53.952
          0.161 -25.241 0.63 33.191 0.721 -53.952 0.161 -167.973
4680.361 0.161 -168.005 0.721 -53.985 0.63 33.162 0.161 -25.313
          0.721 -53.985 0.161 -168.005 0.161 -25.313 0.63 33.162
          0.63 33.162 0.161 -25.313 0.161 -168.005 0.721 -53.985
          0.161 -25.313 0.63 33.162 0.721 -53.985 0.161 -168.005
4684.369 0.161 -168.036 0.721 -54.019 0.63 33.132 0.161 -25.384
          0.721 -54.019 0.161 -168.036 0.161 -25.384 0.63 33.132
          0.63 33.132 0.161 -25.384 0.161 -168.036 0.721 -54.019
          0.161 -25.384 0.63 33.132 0.721 -54.019 0.161 -168.036
4688.377 0.161 -168.068 0.721 -54.052 0.63 33.102 0.161 -25.456
          0.721 -54.052 0.161 -168.068 0.161 -25.456 0.63 33.102
          0.63 33.102 0.161 -25.456 0.161 -168.068 0.721 -54.052
          0.161 -25.456 0.63 33.102 0.721 -54.052 0.161 -168.068
4692.385 0.161 -168.1 0.721 -54.086 0.631 33.073 0.161 -25.527
          0.721 -54.086 0.161 -168.1 0.161 -25.527 0.631 33.073
          0.631 33.073 0.161 -25.527 0.161 -168.1 0.721 -54.086
          0.161 -25.527 0.631 33.073 0.721 -54.086 0.161 -168.1
4696.393 0.161 -168.131 0.72 -54.119 0.631 33.043 0.161 -25.598
          0.72 -54.119 0.161 -168.131 0.161 -25.598 0.631 33.043
          0.631 33.043 0.161 -25.598 0.161 -168.131 0.72 -54.119
          0.161 -25.598 0.631 33.043 0.72 -54.119 0.161 -168.131
4700.401 0.161 -168.163 0.72 -54.152 0.631 33.013 0.161 -25.67
          0.72 -54.152 0.161 -168.163 0.161 -25.67 0.631 33.013
          0.631 33.013 0.161 -25.67 0.161 -168.163 0.72 -54.152
          0.161 -25.67 0.631 33.013 0.72 -54.152 0.161 -168.163
4704.409 0.161 -168.194 0.72 -54.186 0.632 32.984 0.161 -25.741
          0.72 -54.186 0.161 -168.194 0.161 -25.741 0.632 32.984
          0.632 32.984 0.161 -25.741 0.161 -168.194 0.72 -54.186
          0.161 -25.741 0.632 32.984 0.72 -54.186 0.161 -168.194
4708.417 0.161 -168.226 0.72 -54.219 0.632 32.954 0.161 -25.813
          0.72 -54.219 0.161 -168.226 0.161 -25.813 0.632 32.954
          0.632 32.954 0.161 -25.813 0.161 -168.226 0.72 -54.219
          0.161 -25.813 0.632 32.954 0.72 -54.219 0.161 -168.226
4712.425 0.161 -168.257 0.72 -54.252 0.632 32.924 0.161 -25.884
          0.72 -54.252 0.161 -168.257 0.161 -25.884 0.632 32.924
          0.632 32.924 0.161 -25.884 0.161 -168.257 0.72 -54.252
          0.161 -25.884 0.632 32.924 0.72 -54.252 0.161 -168.257
4716.433 0.16 -168.288 0.719 -54.286 0.632 32.895 0.161 -25.955
          0.719 -54.286 0.16 -168.288 0.161 -25.955 0.632 32.895
          0.632 32.895 0.161 -25.955 0.16 -168.288 0.719 -54.286
          0.161 -25.955 0.632 32.895 0.719 -54.286 0.16 -168.288
4720.441 0.16 -168.319 0.719 -54.319 0.633 32.865 0.161 -26.027
          0.719 -54.319 0.16 -168.319 0.161 -26.027 0.633 32.865
          0.633 32.865 0.161 -26.027 0.16 -168.319 0.719 -54.319
          0.161 -26.027 0.633 32.865 0.719 -54.319 0.16 -168.319
4724.449 0.16 -168.35 0.719 -54.352 0.633 32.836 0.161 -26.098
          0.719 -54.352 0.16 -168.35 0.161 -26.098 0.633 32.836
          0.633 32.836 0.161 -26.098 0.16 -168.35 0.719 -54.352
          0.161 -26.098 0.633 32.836 0.719 -54.352 0.16 -168.35
4728.457 0.16 -168.381 0.719 -54.386 0.633 32.806 0.161 -26.169
          0.719 -54.386 0.16 -168.381 0.161 -26.169 0.633 32.806
          0.633 32.806 0.161 -26.169 0.16 -168.381 0.719 -54.386
          0.161 -26.169 0.633 32.806 0.719 -54.386 0.16 -168.381
4732.465 0.16 -168.412 0.719 -54.419 0.633 32.777 0.161 -26.24
          0.719 -54.419 0.16 -168.412 0.161 -26.24 0.633 32.777
          0.633 32.777 0.161 -26.24 0.16 -168.412 0.719 -54.419
          0.161 -26.24 0.633 32.777 0.719 -54.419 0.16 -168.412
4736.473 0.16 -168.443 0.718 -54.452 0.634 32.747 0.161 -26.312
          0.718 -54.452 0.16 -168.443 0.161 -26.312 0.634 32.747
          0.634 32.747 0.161 -26.312 0.16 -168.443 0.718 -54.452
          0.161 -26.312 0.634 32.747 0.718 -54.452 0.16 -168.443
4740.481 0.16 -168.474 0.718 -54.486 0.634 32.718 0.161 -26.383
          0.718 -54.486 0.16 -168.474 0.161 -26.383 0.634 32.718
          0.634 32.718 0.161 -26.383 0.16 -168.474 0.718 -54.486
          0.161 -26.383 0.634 32.718 0.718 -54.486 0.16 -168.474
4744.489 0.16 -168.505 0.718 -54.519 0.634 32.688 0.161 -26.454
          0.718 -54.519 0.16 -168.505 0.161 -26.454 0.634 32.688
          0.634 32.688 0.161 -26.454 0.16 -168.505 0.718 -54.519
          0.161 -26.454 0.634 32.688 0.718 -54.519 0.16 -168.505
4748.497 0.16 -168.536 0.718 -54.552 0.634 32.659 0.161 -26.525
          0.718 -54.552 0.16 -168.536 0.161 -26.525 0.634 32.659
          0.634 32.659 0.161 -26.525 0.16 -168.536 0.718 -54.552
          0.161 -26.525 0.634 32.659 0.718 -54.552 0.16 -168.536
4752.505 0.16 -168.566 0.718 -54.585 0.635 32.629 0.161 -26.596
          0.718 -54.585 0.16 -168.566 0.161 -26.596 0.635 32.629
          0.635 32.629 0.161 -26.596 0.16 -168.566 0.718 -54.585
          0.161 -26.596 0.635 32.629 0.718 -54.585 0.16 -168.566
4756.513 0.16 -168.597 0.717 -54.619 0.635 32.6 0.16 -26.667
          0.717 -54.619 0.16 -168.597 0.16 -26.667 0.635 32.6
          0.635 32.6 0.16 -26.667 0.16 -168.597 0.717 -54.619
          0.16 -26.667 0.635 32.6 0.717 -54.619 0.16 -168.597
4760.521 0.16 -168.627 0.717 -54.652 0.635 32.57 0.16 -26.738
          0.717 -54.652 0.16 -168.627 0.16 -26.738 0.635 32.57
          0.635 32.57 0.16 -26.738 0.16 -168.627 0.717 -54.652
          0.16 -26.738 0.635 32.57 0.717 -54.652 0.16 -168.627
4764.529 0.159 -168.658 0.717 -54.685 0.636 32.541 0.16 -26.809
          0.717 -54.685 0.159 -168.658 0.16 -26.809 0.636 32.541
          0.636 32.541 0.16 -26.809 0.159 -168.658 0.717 -54.685
          0.16 -26.809 0.636 32.541 0.717 -54.685 0.159 -168.658
4768.537 0.159 -168.688 0.717 -54.718 0.636 32.511 0.16 -26.88
          0.717 -54.718 0.159 -168.688 0.16 -26.88 0.636 32.511
          0.636 32.511 0.16 -26.88 0.159 -168.688 0.717 -54.718
          0.16 -26.88 0.636 32.511 0.717 -54.718 0.159 -168.688
4772.545 0.159 -168.719 0.716 -54.751 0.636 32.482 0.16 -26.951
          0.716 -54.751 0.159 -168.719 0.16 -26.951 0.636 32.482
          0.636 32.482 0.16 -26.951 0.159 -168.719 0.716 -54.751
          0.16 -26.951 0.636 32.482 0.716 -54.751 0.159 -168.719
4776.553 0.159 -168.749 0.716 -54.785 0.636 32.453 0.16 -27.022
          0.716 -54.785 0.159 -168.749 0.16 -27.022 0.636 32.453
          0.636 32.453 0.16 -27.022 0.159 -168.749 0.716 -54.785
          0.16 -27.022 0.636 32.453 0.716 -54.785 0.159 -168.749
4780.561 0.159 -168.779 0.716 -54.818 0.637 32.423 0.16 -27.093
          0.716 -54.818 0.159 -168.779 0.16 -27.093 0.637 32.423
          0.637 32.423 0.16 -27.093 0.159 -168.779 0.716 -54.818
          0.16 -27.093 0.637 32.423 0.716 -54.818 0.159 -168.779
4784.569 0.159 -168.809 0.716 -54.851 0.637 32.394 0.16 -27.164
          0.716 -54.851 0.159 -168.809 0.16 -27.164 0.637 32.394
          0.637 32.394 0.16 -27.164 0.159 -168.809 0.716 -54.851
          0.16 -27.164 0.637 32.394 0.716 -54.851 0.159 -168.809
4788.577 0.159 -168.839 0.716 -54.884 0.637 32.364 0.16 -27.235
          0.716 -54.884 0.159 -168.839 0.16 -27.235 0.637 32.364
          0.637 32.364 0.16 -27.235 0.159 -168.839 0.716 -54.884
          0.16 -27.235 0.637 32.364 0.716 -54.884 0.159 -168.839
4792.585 0.159 -168.869 0.715 -54.917 0.637 32.335 0.16 -27.306
          0.715 -54.917 0.159 -168.869 0.16 -27.306 0.637 32.335
          0.637 32.335 0.16 -27.306 0.159 -168.869 0.715 -54.917
          0.16 -27.306 0.637 32.335 0.715 -54.917 0.159 -168.869
4796.593 0.159 -168.899 0.715 -54.95 0.638 32.306 0.16 -27.377
          0.715 -54.95 0.159 -168.899 0.16 -27.377 0.638 32.306
          0.638 32.306 0.16 -27.377 0.159 -168.899 0.715 -54.95
          0.16 -27.377 0.638 32.306 0.715 -54.95 0.159 -168.899
4800.601 0.159 -168.929 0.715 -54.983 0.638 32.276 0.16 -27.448
          0.715 -54.983 0.159 -168.929 0.16 -27.448 0.638 32.276
          0.638 32.276 0.16 -27.448 0.159 -168.929 0.715 -54.983
          0.16 -27.448 0.638 32.276 0.715 -54.983 0.159 -168.929
4804.609 0.159 -168.959 0.715 -55.017 0.638 32.247 0.16 -27.518
          0.715 -55.017 0.159 -168.959 0.16 -27.518 0.638 32.247
