!	AVX THIN FILM OPERATION
!	
!	0805 SIZE 3dB 90deg COUPLER P/N DB0603N2600ANTR
!
!	Created September 2010
!	Network	Analyzer	HP8720E	S.07.64:	"Feb23,2000"	Serial	No.US39172382
!
# MHZ S MA  R 50 
2200 0.133 -158.165 0.724 -45.934 0.635 42.023 0.137 -17.09 
	0.724 -45.934 0.133 -158.165 0.137 -17.09 0.635 42.023 
	0.635 42.023 0.137 -17.09 0.133 -158.165 0.724 -45.934 
	0.137 -17.09 0.635 42.023 0.724 -45.934 0.133 -158.165 
2201.603 0.133 -158.191 0.723 -45.958 0.635 42.001 0.137 -17.146 
	0.723 -45.958 0.133 -158.191 0.137 -17.146 0.635 42.001 
	0.635 42.001 0.137 -17.146 0.133 -158.191 0.723 -45.958 
	0.137 -17.146 0.635 42.001 0.723 -45.958 0.133 -158.191 
2203.206 0.133 -158.217 0.723 -45.981 0.635 41.979 0.137 -17.203 
	0.723 -45.981 0.133 -158.217 0.137 -17.203 0.635 41.979 
	0.635 41.979 0.137 -17.203 0.133 -158.217 0.723 -45.981 
	0.137 -17.203 0.635 41.979 0.723 -45.981 0.133 -158.217 
2204.81 0.133 -158.244 0.723 -46.004 0.635 41.957 0.137 -17.259 
	0.723 -46.004 0.133 -158.244 0.137 -17.259 0.635 41.957 
	0.635 41.957 0.137 -17.259 0.133 -158.244 0.723 -46.004 
	0.137 -17.259 0.635 41.957 0.723 -46.004 0.133 -158.244 
2206.413 0.133 -158.27 0.723 -46.027 0.636 41.935 0.137 -17.315 
	0.723 -46.027 0.133 -158.27 0.137 -17.315 0.636 41.935 
	0.636 41.935 0.137 -17.315 0.133 -158.27 0.723 -46.027 
	0.137 -17.315 0.636 41.935 0.723 -46.027 0.133 -158.27 
2208.016 0.133 -158.296 0.723 -46.051 0.636 41.913 0.137 -17.371 
	0.723 -46.051 0.133 -158.296 0.137 -17.371 0.636 41.913 
	0.636 41.913 0.137 -17.371 0.133 -158.296 0.723 -46.051 
	0.137 -17.371 0.636 41.913 0.723 -46.051 0.133 -158.296 
2209.619 0.133 -158.322 0.722 -46.074 0.636 41.891 0.137 -17.427 
	0.722 -46.074 0.133 -158.322 0.137 -17.427 0.636 41.891 
	0.636 41.891 0.137 -17.427 0.133 -158.322 0.722 -46.074 
	0.137 -17.427 0.636 41.891 0.722 -46.074 0.133 -158.322 
2211.222 0.133 -158.349 0.722 -46.097 0.636 41.869 0.137 -17.483 
	0.722 -46.097 0.133 -158.349 0.137 -17.483 0.636 41.869 
	0.636 41.869 0.137 -17.483 0.133 -158.349 0.722 -46.097 
	0.137 -17.483 0.636 41.869 0.722 -46.097 0.133 -158.349 
2212.826 0.133 -158.375 0.722 -46.12 0.636 41.847 0.137 -17.539 
	0.722 -46.12 0.133 -158.375 0.137 -17.539 0.636 41.847 
	0.636 41.847 0.137 -17.539 0.133 -158.375 0.722 -46.12 
	0.137 -17.539 0.636 41.847 0.722 -46.12 0.133 -158.375 
2214.429 0.133 -158.401 0.722 -46.143 0.637 41.825 0.137 -17.596 
	0.722 -46.143 0.133 -158.401 0.137 -17.596 0.637 41.825 
	0.637 41.825 0.137 -17.596 0.133 -158.401 0.722 -46.143 
	0.137 -17.596 0.637 41.825 0.722 -46.143 0.133 -158.401 
2216.032 0.133 -158.427 0.722 -46.167 0.637 41.803 0.137 -17.652 
	0.722 -46.167 0.133 -158.427 0.137 -17.652 0.637 41.803 
	0.637 41.803 0.137 -17.652 0.133 -158.427 0.722 -46.167 
	0.137 -17.652 0.637 41.803 0.722 -46.167 0.133 -158.427 
2217.635 0.132 -158.453 0.721 -46.19 0.637 41.781 0.137 -17.708 
	0.721 -46.19 0.132 -158.453 0.137 -17.708 0.637 41.781 
	0.637 41.781 0.137 -17.708 0.132 -158.453 0.721 -46.19 
	0.137 -17.708 0.637 41.781 0.721 -46.19 0.132 -158.453 
2219.238 0.132 -158.478 0.721 -46.213 0.637 41.759 0.137 -17.764 
	0.721 -46.213 0.132 -158.478 0.137 -17.764 0.637 41.759 
	0.637 41.759 0.137 -17.764 0.132 -158.478 0.721 -46.213 
	0.137 -17.764 0.637 41.759 0.721 -46.213 0.132 -158.478 
2220.842 0.132 -158.504 0.721 -46.236 0.638 41.737 0.137 -17.819 
	0.721 -46.236 0.132 -158.504 0.137 -17.819 0.638 41.737 
	0.638 41.737 0.137 -17.819 0.132 -158.504 0.721 -46.236 
	0.137 -17.819 0.638 41.737 0.721 -46.236 0.132 -158.504 
2222.445 0.132 -158.53 0.721 -46.259 0.638 41.715 0.137 -17.875 
	0.721 -46.259 0.132 -158.53 0.137 -17.875 0.638 41.715 
	0.638 41.715 0.137 -17.875 0.132 -158.53 0.721 -46.259 
	0.137 -17.875 0.638 41.715 0.721 -46.259 0.132 -158.53 
2224.048 0.132 -158.556 0.72 -46.282 0.638 41.694 0.137 -17.931 
	0.72 -46.282 0.132 -158.556 0.137 -17.931 0.638 41.694 
	0.638 41.694 0.137 -17.931 0.132 -158.556 0.72 -46.282 
	0.137 -17.931 0.638 41.694 0.72 -46.282 0.132 -158.556 
2225.651 0.132 -158.582 0.72 -46.306 0.638 41.672 0.137 -17.987 
	0.72 -46.306 0.132 -158.582 0.137 -17.987 0.638 41.672 
	0.638 41.672 0.137 -17.987 0.132 -158.582 0.72 -46.306 
	0.137 -17.987 0.638 41.672 0.72 -46.306 0.132 -158.582 
2227.255 0.132 -158.607 0.72 -46.329 0.639 41.65 0.137 -18.043 
	0.72 -46.329 0.132 -158.607 0.137 -18.043 0.639 41.65 
	0.639 41.65 0.137 -18.043 0.132 -158.607 0.72 -46.329 
	0.137 -18.043 0.639 41.65 0.72 -46.329 0.132 -158.607 
2228.858 0.132 -158.633 0.72 -46.352 0.639 41.628 0.137 -18.099 
	0.72 -46.352 0.132 -158.633 0.137 -18.099 0.639 41.628 
	0.639 41.628 0.137 -18.099 0.132 -158.633 0.72 -46.352 
	0.137 -18.099 0.639 41.628 0.72 -46.352 0.132 -158.633 
2230.461 0.132 -158.659 0.72 -46.375 0.639 41.606 0.137 -18.155 
	0.72 -46.375 0.132 -158.659 0.137 -18.155 0.639 41.606 
	0.639 41.606 0.137 -18.155 0.132 -158.659 0.72 -46.375 
	0.137 -18.155 0.639 41.606 0.72 -46.375 0.132 -158.659 
2232.064 0.132 -158.684 0.719 -46.398 0.639 41.584 0.138 -18.21 
	0.719 -46.398 0.132 -158.684 0.138 -18.21 0.639 41.584 
	0.639 41.584 0.138 -18.21 0.132 -158.684 0.719 -46.398 
	0.138 -18.21 0.639 41.584 0.719 -46.398 0.132 -158.684 
2233.667 0.132 -158.71 0.719 -46.421 0.64 41.562 0.138 -18.266 
	0.719 -46.421 0.132 -158.71 0.138 -18.266 0.64 41.562 
	0.64 41.562 0.138 -18.266 0.132 -158.71 0.719 -46.421 
	0.138 -18.266 0.64 41.562 0.719 -46.421 0.132 -158.71 
2235.271 0.132 -158.735 0.719 -46.444 0.64 41.541 0.138 -18.322 
	0.719 -46.444 0.132 -158.735 0.138 -18.322 0.64 41.541 
	0.64 41.541 0.138 -18.322 0.132 -158.735 0.719 -46.444 
	0.138 -18.322 0.64 41.541 0.719 -46.444 0.132 -158.735 
2236.874 0.132 -158.76 0.719 -46.467 0.64 41.519 0.138 -18.378 
	0.719 -46.467 0.132 -158.76 0.138 -18.378 0.64 41.519 
	0.64 41.519 0.138 -18.378 0.132 -158.76 0.719 -46.467 
	0.138 -18.378 0.64 41.519 0.719 -46.467 0.132 -158.76 
2238.477 0.132 -158.786 0.719 -46.49 0.64 41.497 0.138 -18.433 
	0.719 -46.49 0.132 -158.786 0.138 -18.433 0.64 41.497 
	0.64 41.497 0.138 -18.433 0.132 -158.786 0.719 -46.49 
	0.138 -18.433 0.64 41.497 0.719 -46.49 0.132 -158.786 
2240.08 0.132 -158.811 0.718 -46.513 0.641 41.475 0.138 -18.489 
	0.718 -46.513 0.132 -158.811 0.138 -18.489 0.641 41.475 
	0.641 41.475 0.138 -18.489 0.132 -158.811 0.718 -46.513 
	0.138 -18.489 0.641 41.475 0.718 -46.513 0.132 -158.811 
2241.683 0.132 -158.836 0.718 -46.536 0.641 41.453 0.138 -18.545 
	0.718 -46.536 0.132 -158.836 0.138 -18.545 0.641 41.453 
	0.641 41.453 0.138 -18.545 0.132 -158.836 0.718 -46.536 
	0.138 -18.545 0.641 41.453 0.718 -46.536 0.132 -158.836 
2243.287 0.132 -158.861 0.718 -46.559 0.641 41.432 0.138 -18.6 
	0.718 -46.559 0.132 -158.861 0.138 -18.6 0.641 41.432 
	0.641 41.432 0.138 -18.6 0.132 -158.861 0.718 -46.559 
	0.138 -18.6 0.641 41.432 0.718 -46.559 0.132 -158.861 
2244.89 0.132 -158.887 0.718 -46.582 0.641 41.41 0.138 -18.656 
	0.718 -46.582 0.132 -158.887 0.138 -18.656 0.641 41.41 
	0.641 41.41 0.138 -18.656 0.132 -158.887 0.718 -46.582 
	0.138 -18.656 0.641 41.41 0.718 -46.582 0.132 -158.887 
2246.493 0.132 -158.912 0.718 -46.605 0.642 41.388 0.138 -18.711 
	0.718 -46.605 0.132 -158.912 0.138 -18.711 0.642 41.388 
	0.642 41.388 0.138 -18.711 0.132 -158.912 0.718 -46.605 
	0.138 -18.711 0.642 41.388 0.718 -46.605 0.132 -158.912 
2248.096 0.132 -158.937 0.717 -46.628 0.642 41.367 0.138 -18.767 
	0.717 -46.628 0.132 -158.937 0.138 -18.767 0.642 41.367 
	0.642 41.367 0.138 -18.767 0.132 -158.937 0.717 -46.628 
	0.138 -18.767 0.642 41.367 0.717 -46.628 0.132 -158.937 
2249.699 0.132 -158.962 0.717 -46.651 0.642 41.345 0.138 -18.822 
	0.717 -46.651 0.132 -158.962 0.138 -18.822 0.642 41.345 
	0.642 41.345 0.138 -18.822 0.132 -158.962 0.717 -46.651 
	0.138 -18.822 0.642 41.345 0.717 -46.651 0.132 -158.962 
2251.303 0.132 -158.987 0.717 -46.674 0.642 41.323 0.138 -18.878 
	0.717 -46.674 0.132 -158.987 0.138 -18.878 0.642 41.323 
	0.642 41.323 0.138 -18.878 0.132 -158.987 0.717 -46.674 
	0.138 -18.878 0.642 41.323 0.717 -46.674 0.132 -158.987 
2252.906 0.132 -159.012 0.717 -46.697 0.643 41.302 0.138 -18.933 
	0.717 -46.697 0.132 -159.012 0.138 -18.933 0.643 41.302 
	0.643 41.302 0.138 -18.933 0.132 -159.012 0.717 -46.697 
	0.138 -18.933 0.643 41.302 0.717 -46.697 0.132 -159.012 
2254.509 0.132 -159.037 0.716 -46.72 0.643 41.28 0.138 -18.989 
	0.716 -46.72 0.132 -159.037 0.138 -18.989 0.643 41.28 
	0.643 41.28 0.138 -18.989 0.132 -159.037 0.716 -46.72 
	0.138 -18.989 0.643 41.28 0.716 -46.72 0.132 -159.037 
2256.112 0.132 -159.062 0.716 -46.743 0.643 41.258 0.138 -19.044 
	0.716 -46.743 0.132 -159.062 0.138 -19.044 0.643 41.258 
	0.643 41.258 0.138 -19.044 0.132 -159.062 0.716 -46.743 
	0.138 -19.044 0.643 41.258 0.716 -46.743 0.132 -159.062 
2257.715 0.132 -159.086 0.716 -46.766 0.643 41.237 0.138 -19.099 
	0.716 -46.766 0.132 -159.086 0.138 -19.099 0.643 41.237 
	0.643 41.237 0.138 -19.099 0.132 -159.086 0.716 -46.766 
	0.138 -19.099 0.643 41.237 0.716 -46.766 0.132 -159.086 
2259.319 0.132 -159.111 0.716 -46.789 0.644 41.215 0.138 -19.155 
	0.716 -46.789 0.132 -159.111 0.138 -19.155 0.644 41.215 
	0.644 41.215 0.138 -19.155 0.132 -159.111 0.716 -46.789 
	0.138 -19.155 0.644 41.215 0.716 -46.789 0.132 -159.111 
2260.922 0.131 -159.136 0.716 -46.812 0.644 41.193 0.138 -19.21 
	0.716 -46.812 0.131 -159.136 0.138 -19.21 0.644 41.193 
	0.644 41.193 0.138 -19.21 0.131 -159.136 0.716 -46.812 
	0.138 -19.21 0.644 41.193 0.716 -46.812 0.131 -159.136 
2262.525 0.131 -159.16 0.715 -46.835 0.644 41.172 0.138 -19.265 
	0.715 -46.835 0.131 -159.16 0.138 -19.265 0.644 41.172 
	0.644 41.172 0.138 -19.265 0.131 -159.16 0.715 -46.835 
	0.138 -19.265 0.644 41.172 0.715 -46.835 0.131 -159.16 
2264.128 0.131 -159.185 0.715 -46.858 0.644 41.15 0.138 -19.321 
	0.715 -46.858 0.131 -159.185 0.138 -19.321 0.644 41.15 
	0.644 41.15 0.138 -19.321 0.131 -159.185 0.715 -46.858 
	0.138 -19.321 0.644 41.15 0.715 -46.858 0.131 -159.185 
2265.731 0.131 -159.21 0.715 -46.881 0.644 41.129 0.138 -19.376 
	0.715 -46.881 0.131 -159.21 0.138 -19.376 0.644 41.129 
	0.644 41.129 0.138 -19.376 0.131 -159.21 0.715 -46.881 
	0.138 -19.376 0.644 41.129 0.715 -46.881 0.131 -159.21 
2267.335 0.131 -159.234 0.715 -46.904 0.645 41.107 0.138 -19.431 
	0.715 -46.904 0.131 -159.234 0.138 -19.431 0.645 41.107 
	0.645 41.107 0.138 -19.431 0.131 -159.234 0.715 -46.904 
	0.138 -19.431 0.645 41.107 0.715 -46.904 0.131 -159.234 
2268.938 0.131 -159.259 0.715 -46.926 0.645 41.085 0.138 -19.486 
	0.715 -46.926 0.131 -159.259 0.138 -19.486 0.645 41.085 
	0.645 41.085 0.138 -19.486 0.131 -159.259 0.715 -46.926 
	0.138 -19.486 0.645 41.085 0.715 -46.926 0.131 -159.259 
2270.541 0.131 -159.283 0.714 -46.949 0.645 41.064 0.138 -19.542 
	0.714 -46.949 0.131 -159.283 0.138 -19.542 0.645 41.064 
	0.645 41.064 0.138 -19.542 0.131 -159.283 0.714 -46.949 
	0.138 -19.542 0.645 41.064 0.714 -46.949 0.131 -159.283 
2272.144 0.131 -159.307 0.714 -46.972 0.645 41.042 0.138 -19.597 
	0.714 -46.972 0.131 -159.307 0.138 -19.597 0.645 41.042 
	0.645 41.042 0.138 -19.597 0.131 -159.307 0.714 -46.972 
	0.138 -19.597 0.645 41.042 0.714 -46.972 0.131 -159.307 
2273.747 0.131 -159.332 0.714 -46.995 0.646 41.021 0.138 -19.652 
	0.714 -46.995 0.131 -159.332 0.138 -19.652 0.646 41.021 
	0.646 41.021 0.138 -19.652 0.131 -159.332 0.714 -46.995 
	0.138 -19.652 0.646 41.021 0.714 -46.995 0.131 -159.332 
2275.351 0.131 -159.356 0.714 -47.018 0.646 40.999 0.138 -19.707 
	0.714 -47.018 0.131 -159.356 0.138 -19.707 0.646 40.999 
	0.646 40.999 0.138 -19.707 0.131 -159.356 0.714 -47.018 
	0.138 -19.707 0.646 40.999 0.714 -47.018 0.131 -159.356 
2276.954 0.131 -159.38 0.714 -47.041 0.646 40.978 0.138 -19.762 
	0.714 -47.041 0.131 -159.38 0.138 -19.762 0.646 40.978 
	0.646 40.978 0.138 -19.762 0.131 -159.38 0.714 -47.041 
	0.138 -19.762 0.646 40.978 0.714 -47.041 0.131 -159.38 
2278.557 0.131 -159.404 0.713 -47.063 0.646 40.956 0.138 -19.817 
	0.713 -47.063 0.131 -159.404 0.138 -19.817 0.646 40.956 
	0.646 40.956 0.138 -19.817 0.131 -159.404 0.713 -47.063 
	0.138 -19.817 0.646 40.956 0.713 -47.063 0.131 -159.404 
2280.16 0.131 -159.429 0.713 -47.086 0.647 40.935 0.138 -19.872 
	0.713 -47.086 0.131 -159.429 0.138 -19.872 0.647 40.935 
	0.647 40.935 0.138 -19.872 0.131 -159.429 0.713 -47.086 
	0.138 -19.872 0.647 40.935 0.713 -47.086 0.131 -159.429 
2281.764 0.131 -159.453 0.713 -47.109 0.647 40.913 0.138 -19.927 
	0.713 -47.109 0.131 -159.453 0.138 -19.927 0.647 40.913 
	0.647 40.913 0.138 -19.927 0.131 -159.453 0.713 -47.109 
	0.138 -19.927 0.647 40.913 0.713 -47.109 0.131 -159.453 
2283.367 0.131 -159.477 0.713 -47.132 0.647 40.892 0.138 -19.982 
	0.713 -47.132 0.131 -159.477 0.138 -19.982 0.647 40.892 
	0.647 40.892 0.138 -19.982 0.131 -159.477 0.713 -47.132 
	0.138 -19.982 0.647 40.892 0.713 -47.132 0.131 -159.477 
2284.97 0.131 -159.501 0.712 -47.155 0.647 40.871 0.138 -20.037 
	0.712 -47.155 0.131 -159.501 0.138 -20.037 0.647 40.871 
	0.647 40.871 0.138 -20.037 0.131 -159.501 0.712 -47.155 
	0.138 -20.037 0.647 40.871 0.712 -47.155 0.131 -159.501 
2286.573 0.131 -159.525 0.712 -47.177 0.648 40.849 0.138 -20.092 
	0.712 -47.177 0.131 -159.525 0.138 -20.092 0.648 40.849 
	0.648 40.849 0.138 -20.092 0.131 -159.525 0.712 -47.177 
	0.138 -20.092 0.648 40.849 0.712 -47.177 0.131 -159.525 
2288.176 0.131 -159.549 0.712 -47.2 0.648 40.828 0.138 -20.147 
	0.712 -47.2 0.131 -159.549 0.138 -20.147 0.648 40.828 
	0.648 40.828 0.138 -20.147 0.131 -159.549 0.712 -47.2 
	0.138 -20.147 0.648 40.828 0.712 -47.2 0.131 -159.549 
2289.78 0.131 -159.572 0.712 -47.223 0.648 40.806 0.138 -20.202 
	0.712 -47.223 0.131 -159.572 0.138 -20.202 0.648 40.806 
	0.648 40.806 0.138 -20.202 0.131 -159.572 0.712 -47.223 
	0.138 -20.202 0.648 40.806 0.712 -47.223 0.131 -159.572 
2291.383 0.131 -159.596 0.712 -47.246 0.648 40.785 0.138 -20.257 
	0.712 -47.246 0.131 -159.596 0.138 -20.257 0.648 40.785 
	0.648 40.785 0.138 -20.257 0.131 -159.596 0.712 -47.246 
	0.138 -20.257 0.648 40.785 0.712 -47.246 0.131 -159.596 
2292.986 0.131 -159.62 0.711 -47.268 0.648 40.764 0.138 -20.311 
	0.711 -47.268 0.131 -159.62 0.138 -20.311 0.648 40.764 
	0.648 40.764 0.138 -20.311 0.131 -159.62 0.711 -47.268 
	0.138 -20.311 0.648 40.764 0.711 -47.268 0.131 -159.62 
2294.589 0.131 -159.644 0.711 -47.291 0.649 40.742 0.138 -20.366 
	0.711 -47.291 0.131 -159.644 0.138 -20.366 0.649 40.742 
	0.649 40.742 0.138 -20.366 0.131 -159.644 0.711 -47.291 
	0.138 -20.366 0.649 40.742 0.711 -47.291 0.131 -159.644 
2296.192 0.131 -159.667 0.711 -47.314 0.649 40.721 0.138 -20.421 
	0.711 -47.314 0.131 -159.667 0.138 -20.421 0.649 40.721 
	0.649 40.721 0.138 -20.421 0.131 -159.667 0.711 -47.314 
	0.138 -20.421 0.649 40.721 0.711 -47.314 0.131 -159.667 
2297.796 0.131 -159.691 0.711 -47.336 0.649 40.699 0.138 -20.476 
	0.711 -47.336 0.131 -159.691 0.138 -20.476 0.649 40.699 
	0.649 40.699 0.138 -20.476 0.131 -159.691 0.711 -47.336 
	0.138 -20.476 0.649 40.699 0.711 -47.336 0.131 -159.691 
2299.399 0.131 -159.715 0.711 -47.359 0.649 40.678 0.138 -20.53 
	0.711 -47.359 0.131 -159.715 0.138 -20.53 0.649 40.678 
	0.649 40.678 0.138 -20.53 0.131 -159.715 0.711 -47.359 
	0.138 -20.53 0.649 40.678 0.711 -47.359 0.131 -159.715 
2301.002 0.13 -159.738 0.71 -47.382 0.65 40.657 0.138 -20.585 
	0.71 -47.382 0.13 -159.738 0.138 -20.585 0.65 40.657 
	0.65 40.657 0.138 -20.585 0.13 -159.738 0.71 -47.382 
	0.138 -20.585 0.65 40.657 0.71 -47.382 0.13 -159.738 
2302.605 0.13 -159.762 0.71 -47.404 0.65 40.636 0.138 -20.64 
	0.71 -47.404 0.13 -159.762 0.138 -20.64 0.65 40.636 
	0.65 40.636 0.138 -20.64 0.13 -159.762 0.71 -47.404 
	0.138 -20.64 0.65 40.636 0.71 -47.404 0.13 -159.762 
2304.208 0.13 -159.785 0.71 -47.427 0.65 40.614 0.138 -20.694 
	0.71 -47.427 0.13 -159.785 0.138 -20.694 0.65 40.614 
	0.65 40.614 0.138 -20.694 0.13 -159.785 0.71 -47.427 
	0.138 -20.694 0.65 40.614 0.71 -47.427 0.13 -159.785 
2305.812 0.13 -159.809 0.71 -47.45 0.65 40.593 0.138 -20.749 
	0.71 -47.45 0.13 -159.809 0.138 -20.749 0.65 40.593 
	0.65 40.593 0.138 -20.749 0.13 -159.809 0.71 -47.45 
	0.138 -20.749 0.65 40.593 0.71 -47.45 0.13 -159.809 
2307.415 0.13 -159.832 0.71 -47.472 0.651 40.572 0.138 -20.804 
	0.71 -47.472 0.13 -159.832 0.138 -20.804 0.651 40.572 
	0.651 40.572 0.138 -20.804 0.13 -159.832 0.71 -47.472 
	0.138 -20.804 0.651 40.572 0.71 -47.472 0.13 -159.832 
2309.018 0.13 -159.855 0.709 -47.495 0.651 40.55 0.138 -20.858 
	0.709 -47.495 0.13 -159.855 0.138 -20.858 0.651 40.55 
	0.651 40.55 0.138 -20.858 0.13 -159.855 0.709 -47.495 
	0.138 -20.858 0.651 40.55 0.709 -47.495 0.13 -159.855 
2310.621 0.13 -159.879 0.709 -47.518 0.651 40.529 0.138 -20.913 
	0.709 -47.518 0.13 -159.879 0.138 -20.913 0.651 40.529 
	0.651 40.529 0.138 -20.913 0.13 -159.879 0.709 -47.518 
	0.138 -20.913 0.651 40.529 0.709 -47.518 0.13 -159.879 
2312.224 0.13 -159.902 0.709 -47.54 0.651 40.508 0.138 -20.967 
	0.709 -47.54 0.13 -159.902 0.138 -20.967 0.651 40.508 
	0.651 40.508 0.138 -20.967 0.13 -159.902 0.709 -47.54 
	0.138 -20.967 0.651 40.508 0.709 -47.54 0.13 -159.902 
2313.828 0.13 -159.925 0.709 -47.563 0.652 40.487 0.138 -21.022 
	0.709 -47.563 0.13 -159.925 0.138 -21.022 0.652 40.487 
	0.652 40.487 0.138 -21.022 0.13 -159.925 0.709 -47.563 
	0.138 -21.022 0.652 40.487 0.709 -47.563 0.13 -159.925 
2315.431 0.13 -159.948 0.709 -47.585 0.652 40.465 0.138 -21.076 
	0.709 -47.585 0.13 -159.948 0.138 -21.076 0.652 40.465 
	0.652 40.465 0.138 -21.076 0.13 -159.948 0.709 -47.585 
	0.138 -21.076 0.652 40.465 0.709 -47.585 0.13 -159.948 
2317.034 0.13 -159.971 0.708 -47.608 0.652 40.444 0.138 -21.131 
	0.708 -47.608 0.13 -159.971 0.138 -21.131 0.652 40.444 
	0.652 40.444 0.138 -21.131 0.13 -159.971 0.708 -47.608 
	0.138 -21.131 0.652 40.444 0.708 -47.608 0.13 -159.971 
2318.637 0.13 -159.994 0.708 -47.631 0.652 40.423 0.138 -21.185 
	0.708 -47.631 0.13 -159.994 0.138 -21.185 0.652 40.423 
	0.652 40.423 0.138 -21.185 0.13 -159.994 0.708 -47.631 
	0.138 -21.185 0.652 40.423 0.708 -47.631 0.13 -159.994 
2320.24 0.13 -160.017 0.708 -47.653 0.652 40.402 0.138 -21.24 
	0.708 -47.653 0.13 -160.017 0.138 -21.24 0.652 40.402 
	0.652 40.402 0.138 -21.24 0.13 -160.017 0.708 -47.653 
	0.138 -21.24 0.652 40.402 0.708 -47.653 0.13 -160.017 
2321.844 0.13 -160.04 0.708 -47.676 0.653 40.381 0.138 -21.294 
	0.708 -47.676 0.13 -160.04 0.138 -21.294 0.653 40.381 
	0.653 40.381 0.138 -21.294 0.13 -160.04 0.708 -47.676 
	0.138 -21.294 0.653 40.381 0.708 -47.676 0.13 -160.04 
2323.447 0.13 -160.063 0.708 -47.698 0.653 40.36 0.138 -21.348 
	0.708 -47.698 0.13 -160.063 0.138 -21.348 0.653 40.36 
	0.653 40.36 0.138 -21.348 0.13 -160.063 0.708 -47.698 
	0.138 -21.348 0.653 40.36 0.708 -47.698 0.13 -160.063 
2325.05 0.13 -160.086 0.707 -47.721 0.653 40.338 0.138 -21.403 
	0.707 -47.721 0.13 -160.086 0.138 -21.403 0.653 40.338 
	0.653 40.338 0.138 -21.403 0.13 -160.086 0.707 -47.721 
	0.138 -21.403 0.653 40.338 0.707 -47.721 0.13 -160.086 
2326.653 0.13 -160.109 0.707 -47.743 0.653 40.317 0.138 -21.457 
	0.707 -47.743 0.13 -160.109 0.138 -21.457 0.653 40.317 
	0.653 40.317 0.138 -21.457 0.13 -160.109 0.707 -47.743 
	0.138 -21.457 0.653 40.317 0.707 -47.743 0.13 -160.109 
2328.257 0.13 -160.131 0.707 -47.766 0.654 40.296 0.138 -21.511 
	0.707 -47.766 0.13 -160.131 0.138 -21.511 0.654 40.296 
	0.654 40.296 0.138 -21.511 0.13 -160.131 0.707 -47.766 
	0.138 -21.511 0.654 40.296 0.707 -47.766 0.13 -160.131 
2329.86 0.13 -160.154 0.707 -47.788 0.654 40.275 0.138 -21.566 
	0.707 -47.788 0.13 -160.154 0.138 -21.566 0.654 40.275 
	0.654 40.275 0.138 -21.566 0.13 -160.154 0.707 -47.788 
	0.138 -21.566 0.654 40.275 0.707 -47.788 0.13 -160.154 
2331.463 0.13 -160.177 0.706 -47.811 0.654 40.254 0.138 -21.62 
	0.706 -47.811 0.13 -160.177 0.138 -21.62 0.654 40.254 
	0.654 40.254 0.138 -21.62 0.13 -160.177 0.706 -47.811 
	0.138 -21.62 0.654 40.254 0.706 -47.811 0.13 -160.177 
2333.066 0.13 -160.199 0.706 -47.833 0.654 40.233 0.138 -21.674 
	0.706 -47.833 0.13 -160.199 0.138 -21.674 0.654 40.233 
