!	AVX THIN FILM OPERATION
!	
!	0603 SIZE 3dB 90deg COUPLER P/N DB0603N4600ANTR
!
!	Created August 2007
!						
!	Network Analyzer HP8720E S.07.64: Feb23, 2000 Serial No.US39172382		
!
# MHZ S MA R 50

1000 0.041 -102.085 0.973 -10.919 0.206 78.801 0.026 59.554
          0.973 -10.919 0.041 -102.085 0.026 59.554 0.206 78.801
          0.206 78.801 0.026 59.554 0.041 -102.085 0.973 -10.919
          0.026 59.554 0.206 78.801 0.973 -10.919 0.041 -102.085
1005.005 0.041 -102.2 0.973 -10.972 0.207 78.747 0.026 59.407
          0.973 -10.972 0.041 -102.2 0.026 59.407 0.207 78.747
          0.207 78.747 0.026 59.407 0.041 -102.2 0.973 -10.972
          0.026 59.407 0.207 78.747 0.973 -10.972 0.041 -102.2
1010.01 0.041 -102.314 0.973 -11.025 0.208 78.693 0.026 59.26
          0.973 -11.025 0.041 -102.314 0.026 59.26 0.208 78.693
          0.208 78.693 0.026 59.26 0.041 -102.314 0.973 -11.025
          0.026 59.26 0.208 78.693 0.973 -11.025 0.041 -102.314
1015.015 0.041 -102.429 0.972 -11.078 0.209 78.639 0.026 59.114
          0.972 -11.078 0.041 -102.429 0.026 59.114 0.209 78.639
          0.209 78.639 0.026 59.114 0.041 -102.429 0.972 -11.078
          0.026 59.114 0.209 78.639 0.972 -11.078 0.041 -102.429
1020.02 0.042 -102.543 0.972 -11.131 0.21 78.585 0.026 58.967
          0.972 -11.131 0.042 -102.543 0.026 58.967 0.21 78.585
          0.21 78.585 0.026 58.967 0.042 -102.543 0.972 -11.131
          0.026 58.967 0.21 78.585 0.972 -11.131 0.042 -102.543
1025.025 0.042 -102.656 0.972 -11.184 0.211 78.53 0.027 58.82
          0.972 -11.184 0.042 -102.656 0.027 58.82 0.211 78.53
          0.211 78.53 0.027 58.82 0.042 -102.656 0.972 -11.184
          0.027 58.82 0.211 78.53 0.972 -11.184 0.042 -102.656
1030.03 0.042 -102.77 0.972 -11.236 0.212 78.476 0.027 58.674
          0.972 -11.236 0.042 -102.77 0.027 58.674 0.212 78.476
          0.212 78.476 0.027 58.674 0.042 -102.77 0.972 -11.236
          0.027 58.674 0.212 78.476 0.972 -11.236 0.042 -102.77
1035.035 0.042 -102.883 0.971 -11.289 0.213 78.422 0.027 58.528
          0.971 -11.289 0.042 -102.883 0.027 58.528 0.213 78.422
          0.213 78.422 0.027 58.528 0.042 -102.883 0.971 -11.289
          0.027 58.528 0.213 78.422 0.971 -11.289 0.042 -102.883
1040.04 0.042 -102.996 0.971 -11.342 0.214 78.368 0.027 58.381
          0.971 -11.342 0.042 -102.996 0.027 58.381 0.214 78.368
          0.214 78.368 0.027 58.381 0.042 -102.996 0.971 -11.342
          0.027 58.381 0.214 78.368 0.971 -11.342 0.042 -102.996
1045.045 0.042 -103.108 0.971 -11.395 0.215 78.314 0.027 58.235
          0.971 -11.395 0.042 -103.108 0.027 58.235 0.215 78.314
          0.215 78.314 0.027 58.235 0.042 -103.108 0.971 -11.395
          0.027 58.235 0.215 78.314 0.971 -11.395 0.042 -103.108
1050.05 0.043 -103.22 0.971 -11.447 0.216 78.261 0.027 58.089
          0.971 -11.447 0.043 -103.22 0.027 58.089 0.216 78.261
          0.216 78.261 0.027 58.089 0.043 -103.22 0.971 -11.447
          0.027 58.089 0.216 78.261 0.971 -11.447 0.043 -103.22
1055.055 0.043 -103.332 0.971 -11.5 0.217 78.207 0.027 57.943
          0.971 -11.5 0.043 -103.332 0.027 57.943 0.217 78.207
          0.217 78.207 0.027 57.943 0.043 -103.332 0.971 -11.5
          0.027 57.943 0.217 78.207 0.971 -11.5 0.043 -103.332
1060.06 0.043 -103.444 0.97 -11.553 0.218 78.153 0.027 57.797
          0.97 -11.553 0.043 -103.444 0.027 57.797 0.218 78.153
          0.218 78.153 0.027 57.797 0.043 -103.444 0.97 -11.553
          0.027 57.797 0.218 78.153 0.97 -11.553 0.043 -103.444
1065.065 0.043 -103.555 0.97 -11.605 0.218 78.099 0.028 57.651
          0.97 -11.605 0.043 -103.555 0.028 57.651 0.218 78.099
          0.218 78.099 0.028 57.651 0.043 -103.555 0.97 -11.605
          0.028 57.651 0.218 78.099 0.97 -11.605 0.043 -103.555
1070.07 0.043 -103.666 0.97 -11.658 0.219 78.045 0.028 57.505
          0.97 -11.658 0.043 -103.666 0.028 57.505 0.219 78.045
          0.219 78.045 0.028 57.505 0.043 -103.666 0.97 -11.658
          0.028 57.505 0.219 78.045 0.97 -11.658 0.043 -103.666
1075.075 0.044 -103.777 0.97 -11.71 0.22 77.991 0.028 57.36
          0.97 -11.71 0.044 -103.777 0.028 57.36 0.22 77.991
          0.22 77.991 0.028 57.36 0.044 -103.777 0.97 -11.71
          0.028 57.36 0.22 77.991 0.97 -11.71 0.044 -103.777
1080.08 0.044 -103.887 0.969 -11.763 0.221 77.937 0.028 57.214
          0.969 -11.763 0.044 -103.887 0.028 57.214 0.221 77.937
          0.221 77.937 0.028 57.214 0.044 -103.887 0.969 -11.763
          0.028 57.214 0.221 77.937 0.969 -11.763 0.044 -103.887
1085.085 0.044 -103.997 0.969 -11.816 0.222 77.884 0.028 57.069
          0.969 -11.816 0.044 -103.997 0.028 57.069 0.222 77.884
          0.222 77.884 0.028 57.069 0.044 -103.997 0.969 -11.816
          0.028 57.069 0.222 77.884 0.969 -11.816 0.044 -103.997
1090.09 0.044 -104.107 0.969 -11.868 0.223 77.83 0.028 56.923
          0.969 -11.868 0.044 -104.107 0.028 56.923 0.223 77.83
          0.223 77.83 0.028 56.923 0.044 -104.107 0.969 -11.868
          0.028 56.923 0.223 77.83 0.969 -11.868 0.044 -104.107
1095.095 0.044 -104.217 0.969 -11.92 0.224 77.776 0.028 56.778
          0.969 -11.92 0.044 -104.217 0.028 56.778 0.224 77.776
          0.224 77.776 0.028 56.778 0.044 -104.217 0.969 -11.92
          0.028 56.778 0.224 77.776 0.969 -11.92 0.044 -104.217
1100.1 0.044 -104.326 0.968 -11.973 0.225 77.723 0.028 56.632
          0.968 -11.973 0.044 -104.326 0.028 56.632 0.225 77.723
          0.225 77.723 0.028 56.632 0.044 -104.326 0.968 -11.973
          0.028 56.632 0.225 77.723 0.968 -11.973 0.044 -104.326
1105.105 0.045 -104.435 0.968 -12.025 0.226 77.669 0.029 56.487
          0.968 -12.025 0.045 -104.435 0.029 56.487 0.226 77.669
          0.226 77.669 0.029 56.487 0.045 -104.435 0.968 -12.025
          0.029 56.487 0.226 77.669 0.968 -12.025 0.045 -104.435
1110.11 0.045 -104.544 0.968 -12.078 0.227 77.615 0.029 56.342
          0.968 -12.078 0.045 -104.544 0.029 56.342 0.227 77.615
          0.227 77.615 0.029 56.342 0.045 -104.544 0.968 -12.078
          0.029 56.342 0.227 77.615 0.968 -12.078 0.045 -104.544
1115.115 0.045 -104.652 0.968 -12.13 0.228 77.562 0.029 56.197
          0.968 -12.13 0.045 -104.652 0.029 56.197 0.228 77.562
          0.228 77.562 0.029 56.197 0.045 -104.652 0.968 -12.13
          0.029 56.197 0.228 77.562 0.968 -12.13 0.045 -104.652
1120.12 0.045 -104.761 0.968 -12.182 0.229 77.508 0.029 56.052
          0.968 -12.182 0.045 -104.761 0.029 56.052 0.229 77.508
          0.229 77.508 0.029 56.052 0.045 -104.761 0.968 -12.182
          0.029 56.052 0.229 77.508 0.968 -12.182 0.045 -104.761
1125.125 0.045 -104.869 0.967 -12.235 0.23 77.455 0.029 55.907
          0.967 -12.235 0.045 -104.869 0.029 55.907 0.23 77.455
          0.23 77.455 0.029 55.907 0.045 -104.869 0.967 -12.235
          0.029 55.907 0.23 77.455 0.967 -12.235 0.045 -104.869
1130.13 0.045 -104.977 0.967 -12.287 0.231 77.401 0.029 55.762
          0.967 -12.287 0.045 -104.977 0.029 55.762 0.231 77.401
          0.231 77.401 0.029 55.762 0.045 -104.977 0.967 -12.287
          0.029 55.762 0.231 77.401 0.967 -12.287 0.045 -104.977
1135.135 0.046 -105.084 0.967 -12.339 0.232 77.348 0.029 55.618
          0.967 -12.339 0.046 -105.084 0.029 55.618 0.232 77.348
          0.232 77.348 0.029 55.618 0.046 -105.084 0.967 -12.339
          0.029 55.618 0.232 77.348 0.967 -12.339 0.046 -105.084
1140.14 0.046 -105.191 0.967 -12.391 0.233 77.294 0.029 55.473
          0.967 -12.391 0.046 -105.191 0.029 55.473 0.233 77.294
          0.233 77.294 0.029 55.473 0.046 -105.191 0.967 -12.391
          0.029 55.473 0.233 77.294 0.967 -12.391 0.046 -105.191
1145.145 0.046 -105.298 0.966 -12.444 0.234 77.241 0.03 55.329
          0.966 -12.444 0.046 -105.298 0.03 55.329 0.234 77.241
          0.234 77.241 0.03 55.329 0.046 -105.298 0.966 -12.444
          0.03 55.329 0.234 77.241 0.966 -12.444 0.046 -105.298
1150.15 0.046 -105.405 0.966 -12.496 0.235 77.188 0.03 55.184
          0.966 -12.496 0.046 -105.405 0.03 55.184 0.235 77.188
          0.235 77.188 0.03 55.184 0.046 -105.405 0.966 -12.496
          0.03 55.184 0.235 77.188 0.966 -12.496 0.046 -105.405
1155.155 0.046 -105.512 0.966 -12.548 0.236 77.134 0.03 55.04
          0.966 -12.548 0.046 -105.512 0.03 55.04 0.236 77.134
          0.236 77.134 0.03 55.04 0.046 -105.512 0.966 -12.548
          0.03 55.04 0.236 77.134 0.966 -12.548 0.046 -105.512
1160.16 0.047 -105.618 0.966 -12.6 0.237 77.081 0.03 54.895
          0.966 -12.6 0.047 -105.618 0.03 54.895 0.237 77.081
          0.237 77.081 0.03 54.895 0.047 -105.618 0.966 -12.6
          0.03 54.895 0.237 77.081 0.966 -12.6 0.047 -105.618
1165.165 0.047 -105.724 0.965 -12.652 0.238 77.028 0.03 54.751
          0.965 -12.652 0.047 -105.724 0.03 54.751 0.238 77.028
          0.238 77.028 0.03 54.751 0.047 -105.724 0.965 -12.652
          0.03 54.751 0.238 77.028 0.965 -12.652 0.047 -105.724
1170.17 0.047 -105.83 0.965 -12.704 0.239 76.974 0.03 54.607
          0.965 -12.704 0.047 -105.83 0.03 54.607 0.239 76.974
          0.239 76.974 0.03 54.607 0.047 -105.83 0.965 -12.704
          0.03 54.607 0.239 76.974 0.965 -12.704 0.047 -105.83
1175.175 0.047 -105.935 0.965 -12.756 0.24 76.921 0.03 54.463
          0.965 -12.756 0.047 -105.935 0.03 54.463 0.24 76.921
          0.24 76.921 0.03 54.463 0.047 -105.935 0.965 -12.756
          0.03 54.463 0.24 76.921 0.965 -12.756 0.047 -105.935
1180.18 0.047 -106.041 0.965 -12.808 0.241 76.868 0.03 54.319
          0.965 -12.808 0.047 -106.041 0.03 54.319 0.241 76.868
          0.241 76.868 0.03 54.319 0.047 -106.041 0.965 -12.808
          0.03 54.319 0.241 76.868 0.965 -12.808 0.047 -106.041
1185.185 0.047 -106.146 0.964 -12.86 0.242 76.815 0.031 54.175
          0.964 -12.86 0.047 -106.146 0.031 54.175 0.242 76.815
          0.242 76.815 0.031 54.175 0.047 -106.146 0.964 -12.86
          0.031 54.175 0.242 76.815 0.964 -12.86 0.047 -106.146
1190.19 0.048 -106.251 0.964 -12.912 0.243 76.762 0.031 54.032
          0.964 -12.912 0.048 -106.251 0.031 54.032 0.243 76.762
          0.243 76.762 0.031 54.032 0.048 -106.251 0.964 -12.912
          0.031 54.032 0.243 76.762 0.964 -12.912 0.048 -106.251
1195.195 0.048 -106.355 0.964 -12.964 0.244 76.709 0.031 53.888
          0.964 -12.964 0.048 -106.355 0.031 53.888 0.244 76.709
          0.244 76.709 0.031 53.888 0.048 -106.355 0.964 -12.964
          0.031 53.888 0.244 76.709 0.964 -12.964 0.048 -106.355
1200.2 0.048 -106.46 0.964 -13.016 0.245 76.656 0.031 53.744
          0.964 -13.016 0.048 -106.46 0.031 53.744 0.245 76.656
          0.245 76.656 0.031 53.744 0.048 -106.46 0.964 -13.016
          0.031 53.744 0.245 76.656 0.964 -13.016 0.048 -106.46
1205.205 0.048 -106.564 0.963 -13.068 0.246 76.603 0.031 53.601
          0.963 -13.068 0.048 -106.564 0.031 53.601 0.246 76.603
          0.246 76.603 0.031 53.601 0.048 -106.564 0.963 -13.068
          0.031 53.601 0.246 76.603 0.963 -13.068 0.048 -106.564
1210.21 0.048 -106.668 0.963 -13.12 0.247 76.55 0.031 53.458
          0.963 -13.12 0.048 -106.668 0.031 53.458 0.247 76.55
          0.247 76.55 0.031 53.458 0.048 -106.668 0.963 -13.12
          0.031 53.458 0.247 76.55 0.963 -13.12 0.048 -106.668
1215.215 0.048 -106.772 0.963 -13.171 0.247 76.497 0.031 53.314
          0.963 -13.171 0.048 -106.772 0.031 53.314 0.247 76.497
          0.247 76.497 0.031 53.314 0.048 -106.772 0.963 -13.171
          0.031 53.314 0.247 76.497 0.963 -13.171 0.048 -106.772
1220.22 0.049 -106.875 0.963 -13.223 0.248 76.444 0.031 53.171
          0.963 -13.223 0.049 -106.875 0.031 53.171 0.248 76.444
          0.248 76.444 0.031 53.171 0.049 -106.875 0.963 -13.223
          0.031 53.171 0.248 76.444 0.963 -13.223 0.049 -106.875
1225.225 0.049 -106.978 0.962 -13.275 0.249 76.391 0.032 53.028
          0.962 -13.275 0.049 -106.978 0.032 53.028 0.249 76.391
          0.249 76.391 0.032 53.028 0.049 -106.978 0.962 -13.275
          0.032 53.028 0.249 76.391 0.962 -13.275 0.049 -106.978
1230.23 0.049 -107.082 0.962 -13.327 0.25 76.338 0.032 52.885
          0.962 -13.327 0.049 -107.082 0.032 52.885 0.25 76.338
          0.25 76.338 0.032 52.885 0.049 -107.082 0.962 -13.327
          0.032 52.885 0.25 76.338 0.962 -13.327 0.049 -107.082
1235.235 0.049 -107.184 0.962 -13.378 0.251 76.285 0.032 52.742
          0.962 -13.378 0.049 -107.184 0.032 52.742 0.251 76.285
          0.251 76.285 0.032 52.742 0.049 -107.184 0.962 -13.378
          0.032 52.742 0.251 76.285 0.962 -13.378 0.049 -107.184
1240.24 0.049 -107.287 0.962 -13.43 0.252 76.232 0.032 52.599
          0.962 -13.43 0.049 -107.287 0.032 52.599 0.252 76.232
          0.252 76.232 0.032 52.599 0.049 -107.287 0.962 -13.43
          0.032 52.599 0.252 76.232 0.962 -13.43 0.049 -107.287
1245.245 0.049 -107.39 0.961 -13.481 0.253 76.179 0.032 52.456
          0.961 -13.481 0.049 -107.39 0.032 52.456 0.253 76.179
          0.253 76.179 0.032 52.456 0.049 -107.39 0.961 -13.481
          0.032 52.456 0.253 76.179 0.961 -13.481 0.049 -107.39
1250.25 0.05 -107.492 0.961 -13.533 0.254 76.127 0.032 52.314
          0.961 -13.533 0.05 -107.492 0.032 52.314 0.254 76.127
          0.254 76.127 0.032 52.314 0.05 -107.492 0.961 -13.533
          0.032 52.314 0.254 76.127 0.961 -13.533 0.05 -107.492
1255.255 0.05 -107.594 0.961 -13.585 0.255 76.074 0.032 52.171
          0.961 -13.585 0.05 -107.594 0.032 52.171 0.255 76.074
          0.255 76.074 0.032 52.171 0.05 -107.594 0.961 -13.585
          0.032 52.171 0.255 76.074 0.961 -13.585 0.05 -107.594
1260.26 0.05 -107.696 0.96 -13.636 0.256 76.021 0.032 52.029
          0.96 -13.636 0.05 -107.696 0.032 52.029 0.256 76.021
          0.256 76.021 0.032 52.029 0.05 -107.696 0.96 -13.636
          0.032 52.029 0.256 76.021 0.96 -13.636 0.05 -107.696
1265.265 0.05 -107.798 0.96 -13.688 0.257 75.968 0.033 51.886
          0.96 -13.688 0.05 -107.798 0.033 51.886 0.257 75.968
          0.257 75.968 0.033 51.886 0.05 -107.798 0.96 -13.688
          0.033 51.886 0.257 75.968 0.96 -13.688 0.05 -107.798
1270.27 0.05 -107.899 0.96 -13.739 0.258 75.916 0.033 51.744
          0.96 -13.739 0.05 -107.899 0.033 51.744 0.258 75.916
          0.258 75.916 0.033 51.744 0.05 -107.899 0.96 -13.739
          0.033 51.744 0.258 75.916 0.96 -13.739 0.05 -107.899
1275.275 0.05 -108 0.96 -13.791 0.259 75.863 0.033 51.602
          0.96 -13.791 0.05 -108 0.033 51.602 0.259 75.863
          0.259 75.863 0.033 51.602 0.05 -108 0.96 -13.791
          0.033 51.602 0.259 75.863 0.96 -13.791 0.05 -108
1280.28 0.051 -108.101 0.959 -13.842 0.26 75.811 0.033 51.46
          0.959 -13.842 0.051 -108.101 0.033 51.46 0.26 75.811
          0.26 75.811 0.033 51.46 0.051 -108.101 0.959 -13.842
          0.033 51.46 0.26 75.811 0.959 -13.842 0.051 -108.101
1285.285 0.051 -108.202 0.959 -13.893 0.261 75.758 0.033 51.318
          0.959 -13.893 0.051 -108.202 0.033 51.318 0.261 75.758
          0.261 75.758 0.033 51.318 0.051 -108.202 0.959 -13.893
          0.033 51.318 0.261 75.758 0.959 -13.893 0.051 -108.202
1290.29 0.051 -108.303 0.959 -13.945 0.262 75.706 0.033 51.176
          0.959 -13.945 0.051 -108.303 0.033 51.176 0.262 75.706
          0.262 75.706 0.033 51.176 0.051 -108.303 0.959 -13.945
          0.033 51.176 0.262 75.706 0.959 -13.945 0.051 -108.303
1295.295 0.051 -108.403 0.959 -13.996 0.263 75.653 0.033 51.034
          0.959 -13.996 0.051 -108.403 0.033 51.034 0.263 75.653
          0.263 75.653 0.033 51.034 0.051 -108.403 0.959 -13.996
          0.033 51.034 0.263 75.653 0.959 -13.996 0.051 -108.403
1300.3 0.051 -108.504 0.958 -14.047 0.264 75.601 0.033 50.892
          0.958 -14.047 0.051 -108.504 0.033 50.892 0.264 75.601
          0.264 75.601 0.033 50.892 0.051 -108.504 0.958 -14.047
          0.033 50.892 0.264 75.601 0.958 -14.047 0.051 -108.504
1305.305 0.051 -108.604 0.958 -14.099 0.265 75.548 0.034 50.751
          0.958 -14.099 0.051 -108.604 0.034 50.751 0.265 75.548
          0.265 75.548 0.034 50.751 0.051 -108.604 0.958 -14.099
          0.034 50.751 0.265 75.548 0.958 -14.099 0.051 -108.604
1310.31 0.052 -108.704 0.958 -14.15 0.265 75.496 0.034 50.609
          0.958 -14.15 0.052 -108.704 0.034 50.609 0.265 75.496
          0.265 75.496 0.034 50.609 0.052 -108.704 0.958 -14.15
          0.034 50.609 0.265 75.496 0.958 -14.15 0.052 -108.704
1315.315 0.052 -108.803 0.957 -14.201 0.266 75.443 0.034 50.468
          0.957 -14.201 0.052 -108.803 0.034 50.468 0.266 75.443
          0.266 75.443 0.034 50.468 0.052 -108.803 0.957 -14.201
          0.034 50.468 0.266 75.443 0.957 -14.201 0.052 -108.803
1320.32 0.052 -108.903 0.957 -14.252 0.267 75.391 0.034 50.326
          0.957 -14.252 0.052 -108.903 0.034 50.326 0.267 75.391
          0.267 75.391 0.034 50.326 0.052 -108.903 0.957 -14.252
          0.034 50.326 0.267 75.391 0.957 -14.252 0.052 -108.903
1325.325 0.052 -109.002 0.957 -14.303 0.268 75.339 0.034 50.185
          0.957 -14.303 0.052 -109.002 0.034 50.185 0.268 75.339
          0.268 75.339 0.034 50.185 0.052 -109.002 0.957 -14.303
          0.034 50.185 0.268 75.339 0.957 -14.303 0.052 -109.002
1330.33 0.052 -109.101 0.957 -14.355 0.269 75.287 0.034 50.044
          0.957 -14.355 0.052 -109.101 0.034 50.044 0.269 75.287
          0.269 75.287 0.034 50.044 0.052 -109.101 0.957 -14.355
          0.034 50.044 0.269 75.287 0.957 -14.355 0.052 -109.101
1335.335 0.052 -109.2 0.956 -14.406 0.27 75.234 0.034 49.903
          0.956 -14.406 0.052 -109.2 0.034 49.903 0.27 75.234
          0.27 75.234 0.034 49.903 0.052 -109.2 0.956 -14.406
          0.034 49.903 0.27 75.234 0.956 -14.406 0.052 -109.2
1340.34 0.053 -109.299 0.956 -14.457 0.271 75.182 0.034 49.762
          0.956 -14.457 0.053 -109.299 0.034 49.762 0.271 75.182
          0.271 75.182 0.034 49.762 0.053 -109.299 0.956 -14.457
          0.034 49.762 0.271 75.182 0.956 -14.457 0.053 -109.299
1345.345 0.053 -109.398 0.956 -14.508 0.272 75.13 0.035 49.621
          0.956 -14.508 0.053 -109.398 0.035 49.621 0.272 75.13
          0.272 75.13 0.035 49.621 0.053 -109.398 0.956 -14.508
          0.035 49.621 0.272 75.13 0.956 -14.508 0.053 -109.398
1350.35 0.053 -109.496 0.956 -14.559 0.273 75.078 0.035 49.48
          0.956 -14.559 0.053 -109.496 0.035 49.48 0.273 75.078
          0.273 75.078 0.035 49.48 0.053 -109.496 0.956 -14.559
          0.035 49.48 0.273 75.078 0.956 -14.559 0.053 -109.496
1355.355 0.053 -109.595 0.955 -14.61 0.274 75.026 0.035 49.339
          0.955 -14.61 0.053 -109.595 0.035 49.339 0.274 75.026
          0.274 75.026 0.035 49.339 0.053 -109.595 0.955 -14.61
          0.035 49.339 0.274 75.026 0.955 -14.61 0.053 -109.595
1360.36 0.053 -109.693 0.955 -14.661 0.275 74.974 0.035 49.199
          0.955 -14.661 0.053 -109.693 0.035 49.199 0.275 74.974
          0.275 74.974 0.035 49.199 0.053 -109.693 0.955 -14.661
          0.035 49.199 0.275 74.974 0.955 -14.661 0.053 -109.693
1365.365 0.053 -109.791 0.955 -14.712 0.276 74.922 0.035 49.058
          0.955 -14.712 0.053 -109.791 0.035 49.058 0.276 74.922
          0.276 74.922 0.035 49.058 0.053 -109.791 0.955 -14.712
          0.035 49.058 0.276 74.922 0.955 -14.712 0.053 -109.791
1370.37 0.054 -109.888 0.954 -14.762 0.277 74.87 0.035 48.918
          0.954 -14.762 0.054 -109.888 0.035 48.918 0.277 74.87
          0.277 74.87 0.035 48.918 0.054 -109.888 0.954 -14.762
          0.035 48.918 0.277 74.87 0.954 -14.762 0.054 -109.888
1375.375 0.054 -109.986 0.954 -14.813 0.278 74.818 0.035 48.778
          0.954 -14.813 0.054 -109.986 0.035 48.778 0.278 74.818
          0.278 74.818 0.035 48.778 0.054 -109.986 0.954 -14.813
          0.035 48.778 0.278 74.818 0.954 -14.813 0.054 -109.986
1380.38 0.054 -110.083 0.954 -14.864 0.279 74.766 0.035 48.638
          0.954 -14.864 0.054 -110.083 0.035 48.638 0.279 74.766
          0.279 74.766 0.035 48.638 0.054 -110.083 0.954 -14.864
          0.035 48.638 0.279 74.766 0.954 -14.864 0.054 -110.083
1385.385 0.054 -110.18 0.954 -14.915 0.279 74.714 0.035 48.497
          0.954 -14.915 0.054 -110.18 0.035 48.497 0.279 74.714
