!	AVX THIN FILM OPERATION
!	
!	0603 SIZE 3dB 90deg COUPLER P/N DB0603N5400ANTR
!
!	Created August 2010
!						
!	Network Analyzer HP8720E S.07.64: Feb23, 2000 Serial No.US39172382		
!
!	
# MHZ S MA R 50

4500 0.166 -168.978 0.72 -53.39 0.629 33.465 0.166 -23.219
          0.72 -53.39 0.166 -168.978 0.166 -23.219 0.629 33.465
          0.629 33.465 0.166 -23.219 0.166 -168.978 0.72 -53.39
          0.166 -23.219 0.629 33.465 0.72 -53.39 0.166 -168.978
4504.008 0.166 -169.013 0.72 -53.424 0.629 33.434 0.166 -23.291
          0.72 -53.424 0.166 -169.013 0.166 -23.291 0.629 33.434
          0.629 33.434 0.166 -23.291 0.166 -169.013 0.72 -53.424
          0.166 -23.291 0.629 33.434 0.72 -53.424 0.166 -169.013
4508.016 0.166 -169.048 0.72 -53.458 0.629 33.404 0.166 -23.363
          0.72 -53.458 0.166 -169.048 0.166 -23.363 0.629 33.404
          0.629 33.404 0.166 -23.363 0.166 -169.048 0.72 -53.458
          0.166 -23.363 0.629 33.404 0.72 -53.458 0.166 -169.048
4512.024 0.166 -169.083 0.72 -53.492 0.629 33.374 0.166 -23.435
          0.72 -53.492 0.166 -169.083 0.166 -23.435 0.629 33.374
          0.629 33.374 0.166 -23.435 0.166 -169.083 0.72 -53.492
          0.166 -23.435 0.629 33.374 0.72 -53.492 0.166 -169.083
4516.032 0.166 -169.118 0.719 -53.526 0.63 33.343 0.166 -23.507
          0.719 -53.526 0.166 -169.118 0.166 -23.507 0.63 33.343
          0.63 33.343 0.166 -23.507 0.166 -169.118 0.719 -53.526
          0.166 -23.507 0.63 33.343 0.719 -53.526 0.166 -169.118
4520.04 0.165 -169.153 0.719 -53.56 0.63 33.313 0.166 -23.579
          0.719 -53.56 0.165 -169.153 0.166 -23.579 0.63 33.313
          0.63 33.313 0.166 -23.579 0.165 -169.153 0.719 -53.56
          0.166 -23.579 0.63 33.313 0.719 -53.56 0.165 -169.153
4524.048 0.165 -169.188 0.719 -53.594 0.63 33.283 0.166 -23.65
          0.719 -53.594 0.165 -169.188 0.166 -23.65 0.63 33.283
          0.63 33.283 0.166 -23.65 0.165 -169.188 0.719 -53.594
          0.166 -23.65 0.63 33.283 0.719 -53.594 0.165 -169.188
4528.056 0.165 -169.223 0.719 -53.628 0.63 33.253 0.166 -23.722
          0.719 -53.628 0.165 -169.223 0.166 -23.722 0.63 33.253
          0.63 33.253 0.166 -23.722 0.165 -169.223 0.719 -53.628
          0.166 -23.722 0.63 33.253 0.719 -53.628 0.165 -169.223
4532.064 0.165 -169.257 0.718 -53.662 0.631 33.222 0.166 -23.794
          0.718 -53.662 0.165 -169.257 0.166 -23.794 0.631 33.222
          0.631 33.222 0.166 -23.794 0.165 -169.257 0.718 -53.662
          0.166 -23.794 0.631 33.222 0.718 -53.662 0.165 -169.257
4536.072 0.165 -169.292 0.718 -53.696 0.631 33.192 0.166 -23.865
          0.718 -53.696 0.165 -169.292 0.166 -23.865 0.631 33.192
          0.631 33.192 0.166 -23.865 0.165 -169.292 0.718 -53.696
          0.166 -23.865 0.631 33.192 0.718 -53.696 0.165 -169.292
4540.08 0.165 -169.327 0.718 -53.73 0.631 33.162 0.166 -23.937
          0.718 -53.73 0.165 -169.327 0.166 -23.937 0.631 33.162
          0.631 33.162 0.166 -23.937 0.165 -169.327 0.718 -53.73
          0.166 -23.937 0.631 33.162 0.718 -53.73 0.165 -169.327
4544.088 0.165 -169.361 0.718 -53.764 0.632 33.132 0.166 -24.009
          0.718 -53.764 0.165 -169.361 0.166 -24.009 0.632 33.132
          0.632 33.132 0.166 -24.009 0.165 -169.361 0.718 -53.764
          0.166 -24.009 0.632 33.132 0.718 -53.764 0.165 -169.361
4548.096 0.165 -169.396 0.718 -53.798 0.632 33.102 0.166 -24.08
          0.718 -53.798 0.165 -169.396 0.166 -24.08 0.632 33.102
          0.632 33.102 0.166 -24.08 0.165 -169.396 0.718 -53.798
          0.166 -24.08 0.632 33.102 0.718 -53.798 0.165 -169.396
4552.104 0.165 -169.43 0.717 -53.832 0.632 33.071 0.166 -24.152
          0.717 -53.832 0.165 -169.43 0.166 -24.152 0.632 33.071
          0.632 33.071 0.166 -24.152 0.165 -169.43 0.717 -53.832
          0.166 -24.152 0.632 33.071 0.717 -53.832 0.165 -169.43
4556.112 0.165 -169.465 0.717 -53.866 0.632 33.041 0.166 -24.223
          0.717 -53.866 0.165 -169.465 0.166 -24.223 0.632 33.041
          0.632 33.041 0.166 -24.223 0.165 -169.465 0.717 -53.866
          0.166 -24.223 0.632 33.041 0.717 -53.866 0.165 -169.465
4560.12 0.165 -169.499 0.717 -53.9 0.633 33.011 0.166 -24.295
          0.717 -53.9 0.165 -169.499 0.166 -24.295 0.633 33.011
          0.633 33.011 0.166 -24.295 0.165 -169.499 0.717 -53.9
          0.166 -24.295 0.633 33.011 0.717 -53.9 0.165 -169.499
4564.128 0.164 -169.533 0.717 -53.934 0.633 32.981 0.166 -24.366
          0.717 -53.934 0.164 -169.533 0.166 -24.366 0.633 32.981
          0.633 32.981 0.166 -24.366 0.164 -169.533 0.717 -53.934
          0.166 -24.366 0.633 32.981 0.717 -53.934 0.164 -169.533
4568.136 0.164 -169.567 0.717 -53.968 0.633 32.951 0.166 -24.438
          0.717 -53.968 0.164 -169.567 0.166 -24.438 0.633 32.951
          0.633 32.951 0.166 -24.438 0.164 -169.567 0.717 -53.968
          0.166 -24.438 0.633 32.951 0.717 -53.968 0.164 -169.567
4572.144 0.164 -169.601 0.716 -54.002 0.633 32.921 0.166 -24.509
          0.716 -54.002 0.164 -169.601 0.166 -24.509 0.633 32.921
          0.633 32.921 0.166 -24.509 0.164 -169.601 0.716 -54.002
          0.166 -24.509 0.633 32.921 0.716 -54.002 0.164 -169.601
4576.152 0.164 -169.635 0.716 -54.036 0.634 32.891 0.166 -24.58
          0.716 -54.036 0.164 -169.635 0.166 -24.58 0.634 32.891
          0.634 32.891 0.166 -24.58 0.164 -169.635 0.716 -54.036
          0.166 -24.58 0.634 32.891 0.716 -54.036 0.164 -169.635
4580.16 0.164 -169.669 0.716 -54.07 0.634 32.861 0.166 -24.652
          0.716 -54.07 0.164 -169.669 0.166 -24.652 0.634 32.861
          0.634 32.861 0.166 -24.652 0.164 -169.669 0.716 -54.07
          0.166 -24.652 0.634 32.861 0.716 -54.07 0.164 -169.669
4584.168 0.164 -169.703 0.716 -54.104 0.634 32.831 0.166 -24.723
          0.716 -54.104 0.164 -169.703 0.166 -24.723 0.634 32.831
          0.634 32.831 0.166 -24.723 0.164 -169.703 0.716 -54.104
          0.166 -24.723 0.634 32.831 0.716 -54.104 0.164 -169.703
4588.176 0.164 -169.737 0.716 -54.138 0.634 32.801 0.166 -24.794
          0.716 -54.138 0.164 -169.737 0.166 -24.794 0.634 32.801
          0.634 32.801 0.166 -24.794 0.164 -169.737 0.716 -54.138
          0.166 -24.794 0.634 32.801 0.716 -54.138 0.164 -169.737
4592.184 0.164 -169.771 0.715 -54.172 0.635 32.771 0.166 -24.866
          0.715 -54.172 0.164 -169.771 0.166 -24.866 0.635 32.771
          0.635 32.771 0.166 -24.866 0.164 -169.771 0.715 -54.172
          0.166 -24.866 0.635 32.771 0.715 -54.172 0.164 -169.771
4596.192 0.164 -169.805 0.715 -54.205 0.635 32.741 0.165 -24.937
          0.715 -54.205 0.164 -169.805 0.165 -24.937 0.635 32.741
          0.635 32.741 0.165 -24.937 0.164 -169.805 0.715 -54.205
          0.165 -24.937 0.635 32.741 0.715 -54.205 0.164 -169.805
4600.2 0.164 -169.838 0.715 -54.239 0.635 32.711 0.165 -25.008
          0.715 -54.239 0.164 -169.838 0.165 -25.008 0.635 32.711
          0.635 32.711 0.165 -25.008 0.164 -169.838 0.715 -54.239
          0.165 -25.008 0.635 32.711 0.715 -54.239 0.164 -169.838
4604.208 0.164 -169.872 0.715 -54.273 0.636 32.681 0.165 -25.079
          0.715 -54.273 0.164 -169.872 0.165 -25.079 0.636 32.681
          0.636 32.681 0.165 -25.079 0.164 -169.872 0.715 -54.273
          0.165 -25.079 0.636 32.681 0.715 -54.273 0.164 -169.872
4608.216 0.163 -169.905 0.714 -54.307 0.636 32.651 0.165 -25.15
          0.714 -54.307 0.163 -169.905 0.165 -25.15 0.636 32.651
          0.636 32.651 0.165 -25.15 0.163 -169.905 0.714 -54.307
          0.165 -25.15 0.636 32.651 0.714 -54.307 0.163 -169.905
4612.224 0.163 -169.939 0.714 -54.341 0.636 32.621 0.165 -25.222
          0.714 -54.341 0.163 -169.939 0.165 -25.222 0.636 32.621
          0.636 32.621 0.165 -25.222 0.163 -169.939 0.714 -54.341
          0.165 -25.222 0.636 32.621 0.714 -54.341 0.163 -169.939
4616.232 0.163 -169.972 0.714 -54.374 0.636 32.591 0.165 -25.293
          0.714 -54.374 0.163 -169.972 0.165 -25.293 0.636 32.591
          0.636 32.591 0.165 -25.293 0.163 -169.972 0.714 -54.374
          0.165 -25.293 0.636 32.591 0.714 -54.374 0.163 -169.972
4620.24 0.163 -170.006 0.714 -54.408 0.637 32.561 0.165 -25.364
          0.714 -54.408 0.163 -170.006 0.165 -25.364 0.637 32.561
          0.637 32.561 0.165 -25.364 0.163 -170.006 0.714 -54.408
          0.165 -25.364 0.637 32.561 0.714 -54.408 0.163 -170.006
4624.248 0.163 -170.039 0.714 -54.442 0.637 32.531 0.165 -25.435
          0.714 -54.442 0.163 -170.039 0.165 -25.435 0.637 32.531
          0.637 32.531 0.165 -25.435 0.163 -170.039 0.714 -54.442
          0.165 -25.435 0.637 32.531 0.714 -54.442 0.163 -170.039
4628.257 0.163 -170.072 0.713 -54.476 0.637 32.501 0.165 -25.506
          0.713 -54.476 0.163 -170.072 0.165 -25.506 0.637 32.501
          0.637 32.501 0.165 -25.506 0.163 -170.072 0.713 -54.476
          0.165 -25.506 0.637 32.501 0.713 -54.476 0.163 -170.072
4632.265 0.163 -170.105 0.713 -54.51 0.637 32.472 0.165 -25.577
          0.713 -54.51 0.163 -170.105 0.165 -25.577 0.637 32.472
          0.637 32.472 0.165 -25.577 0.163 -170.105 0.713 -54.51
          0.165 -25.577 0.637 32.472 0.713 -54.51 0.163 -170.105
4636.273 0.163 -170.138 0.713 -54.543 0.638 32.442 0.165 -25.648
          0.713 -54.543 0.163 -170.138 0.165 -25.648 0.638 32.442
          0.638 32.442 0.165 -25.648 0.163 -170.138 0.713 -54.543
          0.165 -25.648 0.638 32.442 0.713 -54.543 0.163 -170.138
4640.281 0.163 -170.171 0.713 -54.577 0.638 32.412 0.165 -25.719
          0.713 -54.577 0.163 -170.171 0.165 -25.719 0.638 32.412
          0.638 32.412 0.165 -25.719 0.163 -170.171 0.713 -54.577
          0.165 -25.719 0.638 32.412 0.713 -54.577 0.163 -170.171
4644.289 0.163 -170.204 0.713 -54.611 0.638 32.382 0.165 -25.79
          0.713 -54.611 0.163 -170.204 0.165 -25.79 0.638 32.382
          0.638 32.382 0.165 -25.79 0.163 -170.204 0.713 -54.611
          0.165 -25.79 0.638 32.382 0.713 -54.611 0.163 -170.204
4648.297 0.163 -170.237 0.712 -54.644 0.639 32.352 0.165 -25.86
          0.712 -54.644 0.163 -170.237 0.165 -25.86 0.639 32.352
          0.639 32.352 0.165 -25.86 0.163 -170.237 0.712 -54.644
          0.165 -25.86 0.639 32.352 0.712 -54.644 0.163 -170.237
4652.305 0.162 -170.27 0.712 -54.678 0.639 32.323 0.165 -25.931
          0.712 -54.678 0.162 -170.27 0.165 -25.931 0.639 32.323
          0.639 32.323 0.165 -25.931 0.162 -170.27 0.712 -54.678
          0.165 -25.931 0.639 32.323 0.712 -54.678 0.162 -170.27
4656.313 0.162 -170.303 0.712 -54.712 0.639 32.293 0.165 -26.002
          0.712 -54.712 0.162 -170.303 0.165 -26.002 0.639 32.293
          0.639 32.293 0.165 -26.002 0.162 -170.303 0.712 -54.712
          0.165 -26.002 0.639 32.293 0.712 -54.712 0.162 -170.303
4660.321 0.162 -170.335 0.712 -54.746 0.639 32.263 0.165 -26.073
          0.712 -54.746 0.162 -170.335 0.165 -26.073 0.639 32.263
          0.639 32.263 0.165 -26.073 0.162 -170.335 0.712 -54.746
          0.165 -26.073 0.639 32.263 0.712 -54.746 0.162 -170.335
4664.329 0.162 -170.368 0.712 -54.779 0.64 32.233 0.165 -26.144
          0.712 -54.779 0.162 -170.368 0.165 -26.144 0.64 32.233
          0.64 32.233 0.165 -26.144 0.162 -170.368 0.712 -54.779
          0.165 -26.144 0.64 32.233 0.712 -54.779 0.162 -170.368
4668.337 0.162 -170.401 0.711 -54.813 0.64 32.204 0.165 -26.214
          0.711 -54.813 0.162 -170.401 0.165 -26.214 0.64 32.204
          0.64 32.204 0.165 -26.214 0.162 -170.401 0.711 -54.813
          0.165 -26.214 0.64 32.204 0.711 -54.813 0.162 -170.401
4672.345 0.162 -170.433 0.711 -54.846 0.64 32.174 0.165 -26.285
          0.711 -54.846 0.162 -170.433 0.165 -26.285 0.64 32.174
          0.64 32.174 0.165 -26.285 0.162 -170.433 0.711 -54.846
          0.165 -26.285 0.64 32.174 0.711 -54.846 0.162 -170.433
4676.353 0.162 -170.466 0.711 -54.88 0.64 32.144 0.165 -26.356
          0.711 -54.88 0.162 -170.466 0.165 -26.356 0.64 32.144
          0.64 32.144 0.165 -26.356 0.162 -170.466 0.711 -54.88
          0.165 -26.356 0.64 32.144 0.711 -54.88 0.162 -170.466
4680.361 0.162 -170.498 0.711 -54.914 0.641 32.114 0.165 -26.426
          0.711 -54.914 0.162 -170.498 0.165 -26.426 0.641 32.114
          0.641 32.114 0.165 -26.426 0.162 -170.498 0.711 -54.914
          0.165 -26.426 0.641 32.114 0.711 -54.914 0.162 -170.498
4684.369 0.162 -170.53 0.711 -54.947 0.641 32.085 0.165 -26.497
          0.711 -54.947 0.162 -170.53 0.165 -26.497 0.641 32.085
          0.641 32.085 0.165 -26.497 0.162 -170.53 0.711 -54.947
          0.165 -26.497 0.641 32.085 0.711 -54.947 0.162 -170.53
4688.377 0.162 -170.562 0.71 -54.981 0.641 32.055 0.165 -26.568
          0.71 -54.981 0.162 -170.562 0.165 -26.568 0.641 32.055
          0.641 32.055 0.165 -26.568 0.162 -170.562 0.71 -54.981
          0.165 -26.568 0.641 32.055 0.71 -54.981 0.162 -170.562
4692.385 0.162 -170.595 0.71 -55.015 0.641 32.026 0.165 -26.638
          0.71 -55.015 0.162 -170.595 0.165 -26.638 0.641 32.026
          0.641 32.026 0.165 -26.638 0.162 -170.595 0.71 -55.015
          0.165 -26.638 0.641 32.026 0.71 -55.015 0.162 -170.595
4696.393 0.161 -170.627 0.71 -55.048 0.642 31.996 0.165 -26.709
          0.71 -55.048 0.161 -170.627 0.165 -26.709 0.642 31.996
          0.642 31.996 0.165 -26.709 0.161 -170.627 0.71 -55.048
          0.165 -26.709 0.642 31.996 0.71 -55.048 0.161 -170.627
4700.401 0.161 -170.659 0.71 -55.082 0.642 31.966 0.165 -26.779
          0.71 -55.082 0.161 -170.659 0.165 -26.779 0.642 31.966
          0.642 31.966 0.165 -26.779 0.161 -170.659 0.71 -55.082
          0.165 -26.779 0.642 31.966 0.71 -55.082 0.161 -170.659
4704.409 0.161 -170.691 0.709 -55.115 0.642 31.937 0.165 -26.85
          0.709 -55.115 0.161 -170.691 0.165 -26.85 0.642 31.937
          0.642 31.937 0.165 -26.85 0.161 -170.691 0.709 -55.115
          0.165 -26.85 0.642 31.937 0.709 -55.115 0.161 -170.691
4708.417 0.161 -170.723 0.709 -55.149 0.642 31.907 0.165 -26.92
          0.709 -55.149 0.161 -170.723 0.165 -26.92 0.642 31.907
          0.642 31.907 0.165 -26.92 0.161 -170.723 0.709 -55.149
          0.165 -26.92 0.642 31.907 0.709 -55.149 0.161 -170.723
4712.425 0.161 -170.755 0.709 -55.182 0.643 31.878 0.165 -26.991
          0.709 -55.182 0.161 -170.755 0.165 -26.991 0.643 31.878
          0.643 31.878 0.165 -26.991 0.161 -170.755 0.709 -55.182
          0.165 -26.991 0.643 31.878 0.709 -55.182 0.161 -170.755
4716.433 0.161 -170.786 0.709 -55.216 0.643 31.848 0.165 -27.061
          0.709 -55.216 0.161 -170.786 0.165 -27.061 0.643 31.848
          0.643 31.848 0.165 -27.061 0.161 -170.786 0.709 -55.216
          0.165 -27.061 0.643 31.848 0.709 -55.216 0.161 -170.786
4720.441 0.161 -170.818 0.709 -55.249 0.643 31.818 0.165 -27.132
          0.709 -55.249 0.161 -170.818 0.165 -27.132 0.643 31.818
          0.643 31.818 0.165 -27.132 0.161 -170.818 0.709 -55.249
          0.165 -27.132 0.643 31.818 0.709 -55.249 0.161 -170.818
4724.449 0.161 -170.85 0.708 -55.283 0.643 31.789 0.165 -27.202
          0.708 -55.283 0.161 -170.85 0.165 -27.202 0.643 31.789
          0.643 31.789 0.165 -27.202 0.161 -170.85 0.708 -55.283
          0.165 -27.202 0.643 31.789 0.708 -55.283 0.161 -170.85
4728.457 0.161 -170.881 0.708 -55.316 0.644 31.759 0.165 -27.272
          0.708 -55.316 0.161 -170.881 0.165 -27.272 0.644 31.759
          0.644 31.759 0.165 -27.272 0.161 -170.881 0.708 -55.316
          0.165 -27.272 0.644 31.759 0.708 -55.316 0.161 -170.881
4732.465 0.161 -170.913 0.708 -55.35 0.644 31.73 0.164 -27.343
          0.708 -55.35 0.161 -170.913 0.164 -27.343 0.644 31.73
          0.644 31.73 0.164 -27.343 0.161 -170.913 0.708 -55.35
          0.164 -27.343 0.644 31.73 0.708 -55.35 0.161 -170.913
4736.473 0.16 -170.944 0.708 -55.383 0.644 31.7 0.164 -27.413
          0.708 -55.383 0.16 -170.944 0.164 -27.413 0.644 31.7
          0.644 31.7 0.164 -27.413 0.16 -170.944 0.708 -55.383
          0.164 -27.413 0.644 31.7 0.708 -55.383 0.16 -170.944
4740.481 0.16 -170.976 0.708 -55.417 0.645 31.671 0.164 -27.483
          0.708 -55.417 0.16 -170.976 0.164 -27.483 0.645 31.671
          0.645 31.671 0.164 -27.483 0.16 -170.976 0.708 -55.417
          0.164 -27.483 0.645 31.671 0.708 -55.417 0.16 -170.976
4744.489 0.16 -171.007 0.707 -55.45 0.645 31.641 0.164 -27.554
          0.707 -55.45 0.16 -171.007 0.164 -27.554 0.645 31.641
          0.645 31.641 0.164 -27.554 0.16 -171.007 0.707 -55.45
          0.164 -27.554 0.645 31.641 0.707 -55.45 0.16 -171.007
4748.497 0.16 -171.038 0.707 -55.484 0.645 31.612 0.164 -27.624
          0.707 -55.484 0.16 -171.038 0.164 -27.624 0.645 31.612
          0.645 31.612 0.164 -27.624 0.16 -171.038 0.707 -55.484
          0.164 -27.624 0.645 31.612 0.707 -55.484 0.16 -171.038
4752.505 0.16 -171.07 0.707 -55.517 0.645 31.583 0.164 -27.694
          0.707 -55.517 0.16 -171.07 0.164 -27.694 0.645 31.583
          0.645 31.583 0.164 -27.694 0.16 -171.07 0.707 -55.517
          0.164 -27.694 0.645 31.583 0.707 -55.517 0.16 -171.07
4756.513 0.16 -171.101 0.707 -55.551 0.646 31.553 0.164 -27.764
          0.707 -55.551 0.16 -171.101 0.164 -27.764 0.646 31.553
          0.646 31.553 0.164 -27.764 0.16 -171.101 0.707 -55.551
          0.164 -27.764 0.646 31.553 0.707 -55.551 0.16 -171.101
4760.521 0.16 -171.132 0.707 -55.584 0.646 31.524 0.164 -27.834
          0.707 -55.584 0.16 -171.132 0.164 -27.834 0.646 31.524
          0.646 31.524 0.164 -27.834 0.16 -171.132 0.707 -55.584
          0.164 -27.834 0.646 31.524 0.707 -55.584 0.16 -171.132
4764.529 0.16 -171.163 0.706 -55.617 0.646 31.494 0.164 -27.904
          0.706 -55.617 0.16 -171.163 0.164 -27.904 0.646 31.494
          0.646 31.494 0.164 -27.904 0.16 -171.163 0.706 -55.617
          0.164 -27.904 0.646 31.494 0.706 -55.617 0.16 -171.163
4768.537 0.16 -171.194 0.706 -55.651 0.646 31.465 0.164 -27.975
          0.706 -55.651 0.16 -171.194 0.164 -27.975 0.646 31.465
          0.646 31.465 0.164 -27.975 0.16 -171.194 0.706 -55.651
          0.164 -27.975 0.646 31.465 0.706 -55.651 0.16 -171.194
4772.545 0.16 -171.225 0.706 -55.684 0.647 31.436 0.164 -28.045
          0.706 -55.684 0.16 -171.225 0.164 -28.045 0.647 31.436
          0.647 31.436 0.164 -28.045 0.16 -171.225 0.706 -55.684
          0.164 -28.045 0.647 31.436 0.706 -55.684 0.16 -171.225
4776.553 0.16 -171.255 0.706 -55.718 0.647 31.406 0.164 -28.115
          0.706 -55.718 0.16 -171.255 0.164 -28.115 0.647 31.406
          0.647 31.406 0.164 -28.115 0.16 -171.255 0.706 -55.718
          0.164 -28.115 0.647 31.406 0.706 -55.718 0.16 -171.255
4780.561 0.159 -171.286 0.706 -55.751 0.647 31.377 0.164 -28.185
          0.706 -55.751 0.159 -171.286 0.164 -28.185 0.647 31.377
          0.647 31.377 0.164 -28.185 0.159 -171.286 0.706 -55.751
          0.164 -28.185 0.647 31.377 0.706 -55.751 0.159 -171.286
4784.569 0.159 -171.317 0.705 -55.784 0.647 31.348 0.164 -28.255
          0.705 -55.784 0.159 -171.317 0.164 -28.255 0.647 31.348
          0.647 31.348 0.164 -28.255 0.159 -171.317 0.705 -55.784
          0.164 -28.255 0.647 31.348 0.705 -55.784 0.159 -171.317
4788.577 0.159 -171.347 0.705 -55.818 0.648 31.318 0.164 -28.325
          0.705 -55.818 0.159 -171.347 0.164 -28.325 0.648 31.318
          0.648 31.318 0.164 -28.325 0.159 -171.347 0.705 -55.818
          0.164 -28.325 0.648 31.318 0.705 -55.818 0.159 -171.347
4792.585 0.159 -171.378 0.705 -55.851 0.648 31.289 0.164 -28.395
          0.705 -55.851 0.159 -171.378 0.164 -28.395 0.648 31.289
          0.648 31.289 0.164 -28.395 0.159 -171.378 0.705 -55.851
          0.164 -28.395 0.648 31.289 0.705 -55.851 0.159 -171.378
4796.593 0.159 -171.408 0.705 -55.884 0.648 31.26 0.164 -28.465
          0.705 -55.884 0.159 -171.408 0.164 -28.465 0.648 31.26
          0.648 31.26 0.164 -28.465 0.159 -171.408 0.705 -55.884
          0.164 -28.465 0.648 31.26 0.705 -55.884 0.159 -171.408
4800.601 0.159 -171.439 0.705 -55.918 0.648 31.23 0.164 -28.534
          0.705 -55.918 0.159 -171.439 0.164 -28.534 0.648 31.23
          0.648 31.23 0.164 -28.534 0.159 -171.439 0.705 -55.918
          0.164 -28.534 0.648 31.23 0.705 -55.918 0.159 -171.439
