!	AVX THIN FILM OPERATION
!	
!	0603 SIZE 3dB 90deg COUPLER P/N DB0603N3000ANTR
!
!	Created August 2007
!						
!	Network Analyzer HP8720E S.07.64: Feb23, 2000 Serial No.US39172382		
!
!
#	MHZ	S	MA	R	50			

2000	0.058	29.308	0.545	55.186	0.827	-34.56	0.043	-171.651
	0.545	55.186	0.058	29.308	0.043	-171.651	0.827	-34.56
	0.827	-34.56	0.043	-171.651	0.058	29.308	0.545	55.186
	0.043	-171.651	0.827	-34.56	0.545	55.186	0.058	29.308
2002	0.058	29.273	0.545	55.159	0.827	-34.587	0.043	-171.715
	0.545	55.159	0.058	29.273	0.043	-171.715	0.827	-34.587
	0.827	-34.587	0.043	-171.715	0.058	29.273	0.545	55.159
	0.043	-171.715	0.827	-34.587	0.545	55.159	0.058	29.273
2004	0.058	29.239	0.545	55.132	0.827	-34.614	0.043	-171.78
	0.545	55.132	0.058	29.239	0.043	-171.78	0.827	-34.614
	0.827	-34.614	0.043	-171.78	0.058	29.239	0.545	55.132
	0.043	-171.78	0.827	-34.614	0.545	55.132	0.058	29.239
2006	0.058	29.205	0.546	55.105	0.826	-34.641	0.043	-171.844
	0.546	55.105	0.058	29.205	0.043	-171.844	0.826	-34.641
	0.826	-34.641	0.043	-171.844	0.058	29.205	0.546	55.105
	0.043	-171.844	0.826	-34.641	0.546	55.105	0.058	29.205
2008	0.058	29.17	0.546	55.078	0.826	-34.668	0.043	-171.909
	0.546	55.078	0.058	29.17	0.043	-171.909	0.826	-34.668
	0.826	-34.668	0.043	-171.909	0.058	29.17	0.546	55.078
	0.043	-171.909	0.826	-34.668	0.546	55.078	0.058	29.17
2010	0.058	29.136	0.547	55.051	0.826	-34.695	0.043	-171.973
	0.547	55.051	0.058	29.136	0.043	-171.973	0.826	-34.695
	0.826	-34.695	0.043	-171.973	0.058	29.136	0.547	55.051
	0.043	-171.973	0.826	-34.695	0.547	55.051	0.058	29.136
2012	0.058	29.101	0.547	55.024	0.826	-34.722	0.043	-172.038
	0.547	55.024	0.058	29.101	0.043	-172.038	0.826	-34.722
	0.826	-34.722	0.043	-172.038	0.058	29.101	0.547	55.024
	0.043	-172.038	0.826	-34.722	0.547	55.024	0.058	29.101
2014	0.058	29.067	0.547	54.997	0.825	-34.748	0.043	-172.102
	0.547	54.997	0.058	29.067	0.043	-172.102	0.825	-34.748
	0.825	-34.748	0.043	-172.102	0.058	29.067	0.547	54.997
	0.043	-172.102	0.825	-34.748	0.547	54.997	0.058	29.067
2016	0.058	29.033	0.548	54.97	0.825	-34.775	0.043	-172.166
	0.548	54.97	0.058	29.033	0.043	-172.166	0.825	-34.775
	0.825	-34.775	0.043	-172.166	0.058	29.033	0.548	54.97
	0.043	-172.166	0.825	-34.775	0.548	54.97	0.058	29.033
2018	0.058	28.999	0.548	54.943	0.825	-34.802	0.043	-172.231
	0.548	54.943	0.058	28.999	0.043	-172.231	0.825	-34.802
	0.825	-34.802	0.043	-172.231	0.058	28.999	0.548	54.943
	0.043	-172.231	0.825	-34.802	0.548	54.943	0.058	28.999
2020	0.058	28.965	0.548	54.916	0.825	-34.829	0.043	-172.295
	0.548	54.916	0.058	28.965	0.043	-172.295	0.825	-34.829
	0.825	-34.829	0.043	-172.295	0.058	28.965	0.548	54.916
	0.043	-172.295	0.825	-34.829	0.548	54.916	0.058	28.965
2022	0.058	28.93	0.549	54.889	0.824	-34.856	0.043	-172.359
	0.549	54.889	0.058	28.93	0.043	-172.359	0.824	-34.856
	0.824	-34.856	0.043	-172.359	0.058	28.93	0.549	54.889
	0.043	-172.359	0.824	-34.856	0.549	54.889	0.058	28.93
2024	0.058	28.896	0.549	54.863	0.824	-34.883	0.043	-172.423
	0.549	54.863	0.058	28.896	0.043	-172.423	0.824	-34.883
	0.824	-34.883	0.043	-172.423	0.058	28.896	0.549	54.863
	0.043	-172.423	0.824	-34.883	0.549	54.863	0.058	28.896
2026	0.058	28.862	0.549	54.836	0.824	-34.909	0.043	-172.487
	0.549	54.836	0.058	28.862	0.043	-172.487	0.824	-34.909
	0.824	-34.909	0.043	-172.487	0.058	28.862	0.549	54.836
	0.043	-172.487	0.824	-34.909	0.549	54.836	0.058	28.862
2028	0.058	28.828	0.55	54.809	0.824	-34.936	0.043	-172.551
	0.55	54.809	0.058	28.828	0.043	-172.551	0.824	-34.936
	0.824	-34.936	0.043	-172.551	0.058	28.828	0.55	54.809
	0.043	-172.551	0.824	-34.936	0.55	54.809	0.058	28.828
2030	0.058	28.794	0.55	54.782	0.823	-34.963	0.043	-172.615
	0.55	54.782	0.058	28.794	0.043	-172.615	0.823	-34.963
	0.823	-34.963	0.043	-172.615	0.058	28.794	0.55	54.782
	0.043	-172.615	0.823	-34.963	0.55	54.782	0.058	28.794
2032	0.058	28.76	0.551	54.755	0.823	-34.99	0.043	-172.679
	0.551	54.755	0.058	28.76	0.043	-172.679	0.823	-34.99
	0.823	-34.99	0.043	-172.679	0.058	28.76	0.551	54.755
	0.043	-172.679	0.823	-34.99	0.551	54.755	0.058	28.76
2034	0.058	28.726	0.551	54.729	0.823	-35.016	0.043	-172.743
	0.551	54.729	0.058	28.726	0.043	-172.743	0.823	-35.016
	0.823	-35.016	0.043	-172.743	0.058	28.726	0.551	54.729
	0.043	-172.743	0.823	-35.016	0.551	54.729	0.058	28.726
2036	0.058	28.692	0.551	54.702	0.823	-35.043	0.043	-172.807
	0.551	54.702	0.058	28.692	0.043	-172.807	0.823	-35.043
	0.823	-35.043	0.043	-172.807	0.058	28.692	0.551	54.702
	0.043	-172.807	0.823	-35.043	0.551	54.702	0.058	28.692
2038	0.058	28.658	0.552	54.675	0.822	-35.07	0.043	-172.871
	0.552	54.675	0.058	28.658	0.043	-172.871	0.822	-35.07
	0.822	-35.07	0.043	-172.871	0.058	28.658	0.552	54.675
	0.043	-172.871	0.822	-35.07	0.552	54.675	0.058	28.658
2040	0.058	28.624	0.552	54.648	0.822	-35.096	0.043	-172.935
	0.552	54.648	0.058	28.624	0.043	-172.935	0.822	-35.096
	0.822	-35.096	0.043	-172.935	0.058	28.624	0.552	54.648
	0.043	-172.935	0.822	-35.096	0.552	54.648	0.058	28.624
2042	0.058	28.59	0.552	54.622	0.822	-35.123	0.043	-172.999
	0.552	54.622	0.058	28.59	0.043	-172.999	0.822	-35.123
	0.822	-35.123	0.043	-172.999	0.058	28.59	0.552	54.622
	0.043	-172.999	0.822	-35.123	0.552	54.622	0.058	28.59
2044	0.058	28.556	0.553	54.595	0.822	-35.149	0.043	-173.063
	0.553	54.595	0.058	28.556	0.043	-173.063	0.822	-35.149
	0.822	-35.149	0.043	-173.063	0.058	28.556	0.553	54.595
	0.043	-173.063	0.822	-35.149	0.553	54.595	0.058	28.556
2046	0.058	28.522	0.553	54.568	0.821	-35.176	0.043	-173.126
	0.553	54.568	0.058	28.522	0.043	-173.126	0.821	-35.176
	0.821	-35.176	0.043	-173.126	0.058	28.522	0.553	54.568
	0.043	-173.126	0.821	-35.176	0.553	54.568	0.058	28.522
2048	0.058	28.489	0.553	54.542	0.821	-35.203	0.043	-173.19
	0.553	54.542	0.058	28.489	0.043	-173.19	0.821	-35.203
	0.821	-35.203	0.043	-173.19	0.058	28.489	0.553	54.542
	0.043	-173.19	0.821	-35.203	0.553	54.542	0.058	28.489
2050	0.058	28.455	0.554	54.515	0.821	-35.229	0.043	-173.254
	0.554	54.515	0.058	28.455	0.043	-173.254	0.821	-35.229
	0.821	-35.229	0.043	-173.254	0.058	28.455	0.554	54.515
	0.043	-173.254	0.821	-35.229	0.554	54.515	0.058	28.455
2052	0.058	28.421	0.554	54.488	0.821	-35.256	0.044	-173.317
	0.554	54.488	0.058	28.421	0.044	-173.317	0.821	-35.256
	0.821	-35.256	0.044	-173.317	0.058	28.421	0.554	54.488
	0.044	-173.317	0.821	-35.256	0.554	54.488	0.058	28.421
2054	0.058	28.387	0.555	54.462	0.82	-35.282	0.044	-173.381
	0.555	54.462	0.058	28.387	0.044	-173.381	0.82	-35.282
	0.82	-35.282	0.044	-173.381	0.058	28.387	0.555	54.462
	0.044	-173.381	0.82	-35.282	0.555	54.462	0.058	28.387
2056	0.058	28.354	0.555	54.435	0.82	-35.309	0.044	-173.444
	0.555	54.435	0.058	28.354	0.044	-173.444	0.82	-35.309
	0.82	-35.309	0.044	-173.444	0.058	28.354	0.555	54.435
	0.044	-173.444	0.82	-35.309	0.555	54.435	0.058	28.354
2058	0.058	28.32	0.555	54.409	0.82	-35.335	0.044	-173.508
	0.555	54.409	0.058	28.32	0.044	-173.508	0.82	-35.335
	0.82	-35.335	0.044	-173.508	0.058	28.32	0.555	54.409
	0.044	-173.508	0.82	-35.335	0.555	54.409	0.058	28.32
2060	0.058	28.286	0.556	54.382	0.82	-35.362	0.044	-173.571
	0.556	54.382	0.058	28.286	0.044	-173.571	0.82	-35.362
	0.82	-35.362	0.044	-173.571	0.058	28.286	0.556	54.382
	0.044	-173.571	0.82	-35.362	0.556	54.382	0.058	28.286
2062	0.058	28.253	0.556	54.356	0.819	-35.388	0.044	-173.635
	0.556	54.356	0.058	28.253	0.044	-173.635	0.819	-35.388
	0.819	-35.388	0.044	-173.635	0.058	28.253	0.556	54.356
	0.044	-173.635	0.819	-35.388	0.556	54.356	0.058	28.253
2064	0.058	28.219	0.556	54.329	0.819	-35.415	0.044	-173.698
	0.556	54.329	0.058	28.219	0.044	-173.698	0.819	-35.415
	0.819	-35.415	0.044	-173.698	0.058	28.219	0.556	54.329
	0.044	-173.698	0.819	-35.415	0.556	54.329	0.058	28.219
2066	0.058	28.186	0.557	54.303	0.819	-35.441	0.044	-173.762
	0.557	54.303	0.058	28.186	0.044	-173.762	0.819	-35.441
	0.819	-35.441	0.044	-173.762	0.058	28.186	0.557	54.303
	0.044	-173.762	0.819	-35.441	0.557	54.303	0.058	28.186
2068	0.058	28.152	0.557	54.276	0.819	-35.468	0.044	-173.825
	0.557	54.276	0.058	28.152	0.044	-173.825	0.819	-35.468
	0.819	-35.468	0.044	-173.825	0.058	28.152	0.557	54.276
	0.044	-173.825	0.819	-35.468	0.557	54.276	0.058	28.152
2070	0.058	28.119	0.557	54.25	0.818	-35.494	0.044	-173.888
	0.557	54.25	0.058	28.119	0.044	-173.888	0.818	-35.494
	0.818	-35.494	0.044	-173.888	0.058	28.119	0.557	54.25
	0.044	-173.888	0.818	-35.494	0.557	54.25	0.058	28.119
2072	0.058	28.085	0.558	54.223	0.818	-35.52	0.044	-173.951
	0.558	54.223	0.058	28.085	0.044	-173.951	0.818	-35.52
	0.818	-35.52	0.044	-173.951	0.058	28.085	0.558	54.223
	0.044	-173.951	0.818	-35.52	0.558	54.223	0.058	28.085
2074	0.058	28.052	0.558	54.197	0.818	-35.547	0.044	-174.015
	0.558	54.197	0.058	28.052	0.044	-174.015	0.818	-35.547
	0.818	-35.547	0.044	-174.015	0.058	28.052	0.558	54.197
	0.044	-174.015	0.818	-35.547	0.558	54.197	0.058	28.052
2076	0.058	28.018	0.559	54.17	0.818	-35.573	0.044	-174.078
	0.559	54.17	0.058	28.018	0.044	-174.078	0.818	-35.573
	0.818	-35.573	0.044	-174.078	0.058	28.018	0.559	54.17
	0.044	-174.078	0.818	-35.573	0.559	54.17	0.058	28.018
2078	0.058	27.985	0.559	54.144	0.817	-35.6	0.044	-174.141
	0.559	54.144	0.058	27.985	0.044	-174.141	0.817	-35.6
	0.817	-35.6	0.044	-174.141	0.058	27.985	0.559	54.144
	0.044	-174.141	0.817	-35.6	0.559	54.144	0.058	27.985
2080	0.058	27.952	0.559	54.118	0.817	-35.626	0.044	-174.204
	0.559	54.118	0.058	27.952	0.044	-174.204	0.817	-35.626
	0.817	-35.626	0.044	-174.204	0.058	27.952	0.559	54.118
	0.044	-174.204	0.817	-35.626	0.559	54.118	0.058	27.952
2082	0.058	27.918	0.56	54.091	0.817	-35.652	0.044	-174.267
	0.56	54.091	0.058	27.918	0.044	-174.267	0.817	-35.652
	0.817	-35.652	0.044	-174.267	0.058	27.918	0.56	54.091
	0.044	-174.267	0.817	-35.652	0.56	54.091	0.058	27.918
2084	0.058	27.885	0.56	54.065	0.817	-35.678	0.044	-174.33
	0.56	54.065	0.058	27.885	0.044	-174.33	0.817	-35.678
	0.817	-35.678	0.044	-174.33	0.058	27.885	0.56	54.065
	0.044	-174.33	0.817	-35.678	0.56	54.065	0.058	27.885
2086	0.058	27.852	0.56	54.038	0.816	-35.705	0.044	-174.393
	0.56	54.038	0.058	27.852	0.044	-174.393	0.816	-35.705
	0.816	-35.705	0.044	-174.393	0.058	27.852	0.56	54.038
	0.044	-174.393	0.816	-35.705	0.56	54.038	0.058	27.852
2088	0.058	27.819	0.561	54.012	0.816	-35.731	0.044	-174.456
	0.561	54.012	0.058	27.819	0.044	-174.456	0.816	-35.731
	0.816	-35.731	0.044	-174.456	0.058	27.819	0.561	54.012
	0.044	-174.456	0.816	-35.731	0.561	54.012	0.058	27.819
2090	0.058	27.785	0.561	53.986	0.816	-35.757	0.044	-174.519
	0.561	53.986	0.058	27.785	0.044	-174.519	0.816	-35.757
	0.816	-35.757	0.044	-174.519	0.058	27.785	0.561	53.986
	0.044	-174.519	0.816	-35.757	0.561	53.986	0.058	27.785
2092	0.058	27.752	0.561	53.96	0.816	-35.783	0.044	-174.582
	0.561	53.96	0.058	27.752	0.044	-174.582	0.816	-35.783
	0.816	-35.783	0.044	-174.582	0.058	27.752	0.561	53.96
	0.044	-174.582	0.816	-35.783	0.561	53.96	0.058	27.752
2094	0.058	27.719	0.562	53.933	0.816	-35.81	0.044	-174.644
	0.562	53.933	0.058	27.719	0.044	-174.644	0.816	-35.81
	0.816	-35.81	0.044	-174.644	0.058	27.719	0.562	53.933
	0.044	-174.644	0.816	-35.81	0.562	53.933	0.058	27.719
2096	0.058	27.686	0.562	53.907	0.815	-35.836	0.044	-174.707
	0.562	53.907	0.058	27.686	0.044	-174.707	0.815	-35.836
	0.815	-35.836	0.044	-174.707	0.058	27.686	0.562	53.907
	0.044	-174.707	0.815	-35.836	0.562	53.907	0.058	27.686
2098	0.058	27.653	0.562	53.881	0.815	-35.862	0.044	-174.77
	0.562	53.881	0.058	27.653	0.044	-174.77	0.815	-35.862
	0.815	-35.862	0.044	-174.77	0.058	27.653	0.562	53.881
	0.044	-174.77	0.815	-35.862	0.562	53.881	0.058	27.653
2100	0.059	27.62	0.563	53.855	0.815	-35.888	0.044	-174.833
	0.563	53.855	0.059	27.62	0.044	-174.833	0.815	-35.888
	0.815	-35.888	0.044	-174.833	0.059	27.62	0.563	53.855
	0.044	-174.833	0.815	-35.888	0.563	53.855	0.059	27.62
2102	0.059	27.587	0.563	53.828	0.815	-35.914	0.044	-174.895
	0.563	53.828	0.059	27.587	0.044	-174.895	0.815	-35.914
	0.815	-35.914	0.044	-174.895	0.059	27.587	0.563	53.828
	0.044	-174.895	0.815	-35.914	0.563	53.828	0.059	27.587
2104	0.059	27.554	0.563	53.802	0.814	-35.94	0.044	-174.958
	0.563	53.802	0.059	27.554	0.044	-174.958	0.814	-35.94
	0.814	-35.94	0.044	-174.958	0.059	27.554	0.563	53.802
	0.044	-174.958	0.814	-35.94	0.563	53.802	0.059	27.554
2106	0.059	27.521	0.564	53.776	0.814	-35.967	0.044	-175.021
	0.564	53.776	0.059	27.521	0.044	-175.021	0.814	-35.967
	0.814	-35.967	0.044	-175.021	0.059	27.521	0.564	53.776
	0.044	-175.021	0.814	-35.967	0.564	53.776	0.059	27.521
2108	0.059	27.488	0.564	53.75	0.814	-35.993	0.044	-175.083
	0.564	53.75	0.059	27.488	0.044	-175.083	0.814	-35.993
	0.814	-35.993	0.044	-175.083	0.059	27.488	0.564	53.75
	0.044	-175.083	0.814	-35.993	0.564	53.75	0.059	27.488
2110	0.059	27.455	0.565	53.724	0.814	-36.019	0.044	-175.146
	0.565	53.724	0.059	27.455	0.044	-175.146	0.814	-36.019
	0.814	-36.019	0.044	-175.146	0.059	27.455	0.565	53.724
	0.044	-175.146	0.814	-36.019	0.565	53.724	0.059	27.455
2112	0.059	27.422	0.565	53.698	0.813	-36.045	0.044	-175.208
	0.565	53.698	0.059	27.422	0.044	-175.208	0.813	-36.045
	0.813	-36.045	0.044	-175.208	0.059	27.422	0.565	53.698
	0.044	-175.208	0.813	-36.045	0.565	53.698	0.059	27.422
2114	0.059	27.389	0.565	53.672	0.813	-36.071	0.044	-175.271
	0.565	53.672	0.059	27.389	0.044	-175.271	0.813	-36.071
	0.813	-36.071	0.044	-175.271	0.059	27.389	0.565	53.672
	0.044	-175.271	0.813	-36.071	0.565	53.672	0.059	27.389
2116	0.059	27.356	0.566	53.645	0.813	-36.097	0.044	-175.333
	0.566	53.645	0.059	27.356	0.044	-175.333	0.813	-36.097
	0.813	-36.097	0.044	-175.333	0.059	27.356	0.566	53.645
	0.044	-175.333	0.813	-36.097	0.566	53.645	0.059	27.356
2118	0.059	27.324	0.566	53.619	0.813	-36.123	0.044	-175.395
	0.566	53.619	0.059	27.324	0.044	-175.395	0.813	-36.123
	0.813	-36.123	0.044	-175.395	0.059	27.324	0.566	53.619
	0.044	-175.395	0.813	-36.123	0.566	53.619	0.059	27.324
2120	0.059	27.291	0.566	53.593	0.812	-36.149	0.044	-175.458
	0.566	53.593	0.059	27.291	0.044	-175.458	0.812	-36.149
	0.812	-36.149	0.044	-175.458	0.059	27.291	0.566	53.593
	0.044	-175.458	0.812	-36.149	0.566	53.593	0.059	27.291
2122	0.059	27.258	0.567	53.567	0.812	-36.175	0.044	-175.52
	0.567	53.567	0.059	27.258	0.044	-175.52	0.812	-36.175
	0.812	-36.175	0.044	-175.52	0.059	27.258	0.567	53.567
	0.044	-175.52	0.812	-36.175	0.567	53.567	0.059	27.258
2124	0.059	27.225	0.567	53.541	0.812	-36.201	0.044	-175.582
	0.567	53.541	0.059	27.225	0.044	-175.582	0.812	-36.201
	0.812	-36.201	0.044	-175.582	0.059	27.225	0.567	53.541
	0.044	-175.582	0.812	-36.201	0.567	53.541	0.059	27.225
2126	0.059	27.193	0.567	53.515	0.812	-36.227	0.044	-175.644
	0.567	53.515	0.059	27.193	0.044	-175.644	0.812	-36.227
	0.812	-36.227	0.044	-175.644	0.059	27.193	0.567	53.515
	0.044	-175.644	0.812	-36.227	0.567	53.515	0.059	27.193
2128	0.059	27.16	0.568	53.489	0.811	-36.253	0.044	-175.707
	0.568	53.489	0.059	27.16	0.044	-175.707	0.811	-36.253
	0.811	-36.253	0.044	-175.707	0.059	27.16	0.568	53.489
	0.044	-175.707	0.811	-36.253	0.568	53.489	0.059	27.16
2130	0.059	27.127	0.568	53.463	0.811	-36.279	0.044	-175.769
	0.568	53.463	0.059	27.127	0.044	-175.769	0.811	-36.279
	0.811	-36.279	0.044	-175.769	0.059	27.127	0.568	53.463
	0.044	-175.769	0.811	-36.279	0.568	53.463	0.059	27.127
2132	0.059	27.095	0.568	53.437	0.811	-36.305	0.044	-175.831
	0.568	53.437	0.059	27.095	0.044	-175.831	0.811	-36.305
	0.811	-36.305	0.044	-175.831	0.059	27.095	0.568	53.437
	0.044	-175.831	0.811	-36.305	0.568	53.437	0.059	27.095
2134	0.059	27.062	0.569	53.411	0.811	-36.33	0.044	-175.893
	0.569	53.411	0.059	27.062	0.044	-175.893	0.811	-36.33
	0.811	-36.33	0.044	-175.893	0.059	27.062	0.569	53.411
	0.044	-175.893	0.811	-36.33	0.569	53.411	0.059	27.062
2136	0.059	27.03	0.569	53.386	0.81	-36.356	0.044	-175.955
	0.569	53.386	0.059	27.03	0.044	-175.955	0.81	-36.356
	0.81	-36.356	0.044	-175.955	0.059	27.03	0.569	53.386
	0.044	-175.955	0.81	-36.356	0.569	53.386	0.059	27.03
2138	0.059	26.997	0.569	53.36	0.81	-36.382	0.045	-176.017
	0.569	53.36	0.059	26.997	0.045	-176.017	0.81	-36.382
	0.81	-36.382	0.045	-176.017	0.059	26.997	0.569	53.36
	0.045	-176.017	0.81	-36.382	0.569	53.36	0.059	26.997
2140	0.059	26.965	0.57	53.334	0.81	-36.408	0.045	-176.079
	0.57	53.334	0.059	26.965	0.045	-176.079	0.81	-36.408
	0.81	-36.408	0.045	-176.079	0.059	26.965	0.57	53.334
	0.045	-176.079	0.81	-36.408	0.57	53.334	0.059	26.965
2142	0.059	26.932	0.57	53.308	0.81	-36.434	0.045	-176.141
	0.57	53.308	0.059	26.932	0.045	-176.141	0.81	-36.434
	0.81	-36.434	0.045	-176.141	0.059	26.932	0.57	53.308
	0.045	-176.141	0.81	-36.434	0.57	53.308	0.059	26.932
2144	0.059	26.9	0.57	53.282	0.809	-36.46	0.045	-176.203
	0.57	53.282	0.059	26.9	0.045	-176.203	0.809	-36.46
	0.809	-36.46	0.045	-176.203	0.059	26.9	0.57	53.282
	0.045	-176.203	0.809	-36.46	0.57	53.282	0.059	26.9
2146	0.059	26.868	0.571	53.256	0.809	-36.485	0.045	-176.264
	0.571	53.256	0.059	26.868	0.045	-176.264	0.809	-36.485
	0.809	-36.485	0.045	-176.264	0.059	26.868	0.571	53.256
	0.045	-176.264	0.809	-36.485	0.571	53.256	0.059	26.868
2148	0.059	26.835	0.571	53.23	0.809	-36.511	0.045	-176.326
	0.571	53.23	0.059	26.835	0.045	-176.326	0.809	-36.511
	0.809	-36.511	0.045	-176.326	0.059	26.835	0.571	53.23
	0.045	-176.326	0.809	-36.511	0.571	53.23	0.059	26.835
2150	0.059	26.803	0.572	53.205	0.809	-36.537	0.045	-176.388
	0.572	53.205	0.059	26.803	0.045	-176.388	0.809	-36.537
	0.809	-36.537	0.045	-176.388	0.059	26.803	0.572	53.205
	0.045	-176.388	0.809	-36.537	0.572	53.205	0.059	26.803
2152	0.059	26.771	0.572	53.179	0.808	-36.563	0.045	-176.45
	0.572	53.179	0.059	26.771	0.045	-176.45	0.808	-36.563
	0.808	-36.563	0.045	-176.45	0.059	26.771	0.572	53.179
	0.045	-176.45	0.808	-36.563	0.572	53.179	0.059	26.771
2154	0.059	26.738	0.572	53.153	0.808	-36.588	0.045	-176.511
	0.572	53.153	0.059	26.738	0.045	-176.511	0.808	-36.588
	0.808	-36.588	0.045	-176.511	0.059	26.738	0.572	53.153
	0.045	-176.511	0.808	-36.588	0.572	53.153	0.059	26.738
2156	0.059	26.706	0.573	53.127	0.808	-36.614	0.045	-176.573
	0.573	53.127	0.059	26.706	0.045	-176.573	0.808	-36.614
	0.808	-36.614	0.045	-176.573	0.059	26.706	0.573	53.127
	0.045	-176.573	0.808	-36.614	0.573	53.127	0.059	26.706
2158	0.059	26.674	0.573	53.102	0.808	-36.64	0.045	-176.635
	0.573	53.102	0.059	26.674	0.045	-176.635	0.808	-36.64
	0.808	-36.64	0.045	-176.635	0.059	26.674	0.573	53.102
	0.045	-176.635	0.808	-36.64	0.573	53.102	0.059	26.674
2160	0.059	26.642	0.573	53.076	0.807	-36.665	0.045	-176.696
	0.573	53.076	0.059	26.642	0.045	-176.696	0.807	-36.665
	0.807	-36.665	0.045	-176.696	0.059	26.642	0.573	53.076
	0.045	-176.696	0.807	-36.665	0.573	53.076	0.059	26.642
2162	0.059	26.609	0.574	53.05	0.807	-36.691	0.045	-176.758
	0.574	53.05	0.059	26.609	0.045	-176.758	0.807	-36.691
	0.807	-36.691	0.045	-176.758	0.059	26.609	0.574	53.05
	0.045	-176.758	0.807	-36.691	0.574	53.05	0.059	26.609
2164	0.059	26.577	0.574	53.024	0.807	-36.717	0.045	-176.819
	0.574	53.024	0.059	26.577	0.045	-176.819	0.807	-36.717
	0.807	-36.717	0.045	-176.819	0.059	26.577	0.574	53.024
	0.045	-176.819	0.807	-36.717	0.574	53.024	0.059	26.577
2166	0.059	26.545	0.574	52.999	0.807	-36.742	0.045	-176.881
	0.574	52.999	0.059	26.545	0.045	-176.881	0.807	-36.742
	0.807	-36.742	0.045	-176.881	0.059	26.545	0.574	52.999
	0.045	-176.881	0.807	-36.742	0.574	52.999	0.059	26.545
2168	0.059	26.513	0.575	52.973	0.806	-36.768	0.045	-176.942
	0.575	52.973	0.059	26.513	0.045	-176.942	0.806	-36.768
	0.806	-36.768	0.045	-176.942	0.059	26.513	0.575	52.973
	0.045	-176.942	0.806	-36.768	0.575	52.973	0.059	26.513
2170	0.059	26.481	0.575	52.947	0.806	-36.794	0.045	-177.003
	0.575	52.947	0.059	26.481	0.045	-177.003	0.806	-36.794
	0.806	-36.794	0.045	-177.003	0.059	26.481	0.575	52.947
	0.045	-177.003	0.806	-36.794	0.575	52.947	0.059	26.481
2172	0.059	26.449	0.575	52.922	0.806	-36.819	0.045	-177.065
	0.575	52.922	0.059	26.449	0.045	-177.065	0.806	-36.819
	0.806	-36.819	0.045	-177.065	0.059	26.449	0.575	52.922
	0.045	-177.065	0.806	-36.819	0.575	52.922	0.059	26.449
2174	0.059	26.417	0.576	52.896	0.806	-36.845	0.045	-177.126
	0.576	52.896	0.059	26.417	0.045	-177.126	0.806	-36.845
