!	AVX THIN FILM OPERATION
!	
!	0603 SIZE 3dB 90deg COUPLER P/N DB0603N5660ANTR
!
!	Created August 2010
!						
!	Network Analyzer HP8720E S.07.64: Feb23, 2000 Serial No.US39172382		
!
!	
# MHZ S MA R 50

5000 0.166 -144.843 0.715 -50.786 0.637 38.364 0.158 -43.394
          0.715 -50.786 0.166 -144.843 0.158 -43.394 0.637 38.364
          0.637 38.364 0.158 -43.394 0.166 -144.843 0.715 -50.786
          0.158 -43.394 0.637 38.364 0.715 -50.786 0.166 -144.843
5003.006 0.166 -144.845 0.715 -50.809 0.637 38.344 0.158 -43.449
          0.715 -50.809 0.166 -144.845 0.158 -43.449 0.637 38.344
          0.637 38.344 0.158 -43.449 0.166 -144.845 0.715 -50.809
          0.158 -43.449 0.637 38.344 0.715 -50.809 0.166 -144.845
5006.012 0.166 -144.846 0.715 -50.832 0.637 38.324 0.158 -43.504
          0.715 -50.832 0.166 -144.846 0.158 -43.504 0.637 38.324
          0.637 38.324 0.158 -43.504 0.166 -144.846 0.715 -50.832
          0.158 -43.504 0.637 38.324 0.715 -50.832 0.166 -144.846
5009.018 0.166 -144.848 0.715 -50.855 0.637 38.305 0.158 -43.56
          0.715 -50.855 0.166 -144.848 0.158 -43.56 0.637 38.305
          0.637 38.305 0.158 -43.56 0.166 -144.848 0.715 -50.855
          0.158 -43.56 0.637 38.305 0.715 -50.855 0.166 -144.848
5012.024 0.166 -144.85 0.714 -50.878 0.638 38.285 0.158 -43.615
          0.714 -50.878 0.166 -144.85 0.158 -43.615 0.638 38.285
          0.638 38.285 0.158 -43.615 0.166 -144.85 0.714 -50.878
          0.158 -43.615 0.638 38.285 0.714 -50.878 0.166 -144.85
5015.03 0.165 -144.852 0.714 -50.901 0.638 38.265 0.158 -43.67
          0.714 -50.901 0.165 -144.852 0.158 -43.67 0.638 38.265
          0.638 38.265 0.158 -43.67 0.165 -144.852 0.714 -50.901
          0.158 -43.67 0.638 38.265 0.714 -50.901 0.165 -144.852
5018.036 0.165 -144.854 0.714 -50.924 0.638 38.245 0.158 -43.725
          0.714 -50.924 0.165 -144.854 0.158 -43.725 0.638 38.245
          0.638 38.245 0.158 -43.725 0.165 -144.854 0.714 -50.924
          0.158 -43.725 0.638 38.245 0.714 -50.924 0.165 -144.854
5021.042 0.165 -144.855 0.714 -50.947 0.638 38.225 0.158 -43.78
          0.714 -50.947 0.165 -144.855 0.158 -43.78 0.638 38.225
          0.638 38.225 0.158 -43.78 0.165 -144.855 0.714 -50.947
          0.158 -43.78 0.638 38.225 0.714 -50.947 0.165 -144.855
5024.048 0.165 -144.857 0.714 -50.97 0.638 38.205 0.158 -43.835
          0.714 -50.97 0.165 -144.857 0.158 -43.835 0.638 38.205
          0.638 38.205 0.158 -43.835 0.165 -144.857 0.714 -50.97
          0.158 -43.835 0.638 38.205 0.714 -50.97 0.165 -144.857
5027.054 0.165 -144.858 0.714 -50.993 0.639 38.185 0.158 -43.89
          0.714 -50.993 0.165 -144.858 0.158 -43.89 0.639 38.185
          0.639 38.185 0.158 -43.89 0.165 -144.858 0.714 -50.993
          0.158 -43.89 0.639 38.185 0.714 -50.993 0.165 -144.858
5030.06 0.165 -144.86 0.713 -51.016 0.639 38.165 0.158 -43.945
          0.713 -51.016 0.165 -144.86 0.158 -43.945 0.639 38.165
          0.639 38.165 0.158 -43.945 0.165 -144.86 0.713 -51.016
          0.158 -43.945 0.639 38.165 0.713 -51.016 0.165 -144.86
5033.066 0.165 -144.861 0.713 -51.039 0.639 38.145 0.159 -44
          0.713 -51.039 0.165 -144.861 0.159 -44 0.639 38.145
          0.639 38.145 0.159 -44 0.165 -144.861 0.713 -51.039
          0.159 -44 0.639 38.145 0.713 -51.039 0.165 -144.861
5036.072 0.165 -144.862 0.713 -51.062 0.639 38.126 0.159 -44.054
          0.713 -51.062 0.165 -144.862 0.159 -44.054 0.639 38.126
          0.639 38.126 0.159 -44.054 0.165 -144.862 0.713 -51.062
          0.159 -44.054 0.639 38.126 0.713 -51.062 0.165 -144.862
5039.078 0.165 -144.864 0.713 -51.086 0.639 38.106 0.159 -44.109
          0.713 -51.086 0.165 -144.864 0.159 -44.109 0.639 38.106
          0.639 38.106 0.159 -44.109 0.165 -144.864 0.713 -51.086
          0.159 -44.109 0.639 38.106 0.713 -51.086 0.165 -144.864
5042.084 0.165 -144.865 0.713 -51.109 0.64 38.086 0.159 -44.164
          0.713 -51.109 0.165 -144.865 0.159 -44.164 0.64 38.086
          0.64 38.086 0.159 -44.164 0.165 -144.865 0.713 -51.109
          0.159 -44.164 0.64 38.086 0.713 -51.109 0.165 -144.865
5045.09 0.165 -144.866 0.712 -51.132 0.64 38.066 0.159 -44.219
          0.712 -51.132 0.165 -144.866 0.159 -44.219 0.64 38.066
          0.64 38.066 0.159 -44.219 0.165 -144.866 0.712 -51.132
          0.159 -44.219 0.64 38.066 0.712 -51.132 0.165 -144.866
5048.096 0.165 -144.867 0.712 -51.155 0.64 38.046 0.159 -44.274
          0.712 -51.155 0.165 -144.867 0.159 -44.274 0.64 38.046
          0.64 38.046 0.159 -44.274 0.165 -144.867 0.712 -51.155
          0.159 -44.274 0.64 38.046 0.712 -51.155 0.165 -144.867
5051.102 0.165 -144.868 0.712 -51.178 0.64 38.026 0.159 -44.329
          0.712 -51.178 0.165 -144.868 0.159 -44.329 0.64 38.026
          0.64 38.026 0.159 -44.329 0.165 -144.868 0.712 -51.178
          0.159 -44.329 0.64 38.026 0.712 -51.178 0.165 -144.868
5054.108 0.165 -144.87 0.712 -51.201 0.641 38.007 0.159 -44.383
          0.712 -51.201 0.165 -144.87 0.159 -44.383 0.641 38.007
          0.641 38.007 0.159 -44.383 0.165 -144.87 0.712 -51.201
          0.159 -44.383 0.641 38.007 0.712 -51.201 0.165 -144.87
5057.114 0.165 -144.871 0.712 -51.224 0.641 37.987 0.159 -44.438
          0.712 -51.224 0.165 -144.871 0.159 -44.438 0.641 37.987
          0.641 37.987 0.159 -44.438 0.165 -144.871 0.712 -51.224
          0.159 -44.438 0.641 37.987 0.712 -51.224 0.165 -144.871
5060.12 0.165 -144.871 0.712 -51.247 0.641 37.967 0.159 -44.493
          0.712 -51.247 0.165 -144.871 0.159 -44.493 0.641 37.967
          0.641 37.967 0.159 -44.493 0.165 -144.871 0.712 -51.247
          0.159 -44.493 0.641 37.967 0.712 -51.247 0.165 -144.871
5063.126 0.165 -144.872 0.711 -51.27 0.641 37.947 0.159 -44.547
          0.711 -51.27 0.165 -144.872 0.159 -44.547 0.641 37.947
          0.641 37.947 0.159 -44.547 0.165 -144.872 0.711 -51.27
          0.159 -44.547 0.641 37.947 0.711 -51.27 0.165 -144.872
5066.132 0.165 -144.873 0.711 -51.293 0.641 37.927 0.159 -44.602
          0.711 -51.293 0.165 -144.873 0.159 -44.602 0.641 37.927
          0.641 37.927 0.159 -44.602 0.165 -144.873 0.711 -51.293
          0.159 -44.602 0.641 37.927 0.711 -51.293 0.165 -144.873
5069.138 0.165 -144.874 0.711 -51.316 0.642 37.908 0.159 -44.657
          0.711 -51.316 0.165 -144.874 0.159 -44.657 0.642 37.908
          0.642 37.908 0.159 -44.657 0.165 -144.874 0.711 -51.316
          0.159 -44.657 0.642 37.908 0.711 -51.316 0.165 -144.874
5072.144 0.165 -144.875 0.711 -51.338 0.642 37.888 0.159 -44.711
          0.711 -51.338 0.165 -144.875 0.159 -44.711 0.642 37.888
          0.642 37.888 0.159 -44.711 0.165 -144.875 0.711 -51.338
          0.159 -44.711 0.642 37.888 0.711 -51.338 0.165 -144.875
5075.15 0.165 -144.875 0.711 -51.361 0.642 37.868 0.159 -44.766
          0.711 -51.361 0.165 -144.875 0.159 -44.766 0.642 37.868
          0.642 37.868 0.159 -44.766 0.165 -144.875 0.711 -51.361
          0.159 -44.766 0.642 37.868 0.711 -51.361 0.165 -144.875
5078.156 0.165 -144.876 0.71 -51.384 0.642 37.848 0.159 -44.82
          0.71 -51.384 0.165 -144.876 0.159 -44.82 0.642 37.848
          0.642 37.848 0.159 -44.82 0.165 -144.876 0.71 -51.384
          0.159 -44.82 0.642 37.848 0.71 -51.384 0.165 -144.876
5081.162 0.165 -144.877 0.71 -51.407 0.642 37.829 0.159 -44.875
          0.71 -51.407 0.165 -144.877 0.159 -44.875 0.642 37.829
          0.642 37.829 0.159 -44.875 0.165 -144.877 0.71 -51.407
          0.159 -44.875 0.642 37.829 0.71 -51.407 0.165 -144.877
5084.168 0.164 -144.877 0.71 -51.43 0.643 37.809 0.159 -44.929
          0.71 -51.43 0.164 -144.877 0.159 -44.929 0.643 37.809
          0.643 37.809 0.159 -44.929 0.164 -144.877 0.71 -51.43
          0.159 -44.929 0.643 37.809 0.71 -51.43 0.164 -144.877
5087.174 0.164 -144.877 0.71 -51.453 0.643 37.789 0.159 -44.984
          0.71 -51.453 0.164 -144.877 0.159 -44.984 0.643 37.789
          0.643 37.789 0.159 -44.984 0.164 -144.877 0.71 -51.453
          0.159 -44.984 0.643 37.789 0.71 -51.453 0.164 -144.877
5090.18 0.164 -144.878 0.71 -51.476 0.643 37.769 0.159 -45.038
          0.71 -51.476 0.164 -144.878 0.159 -45.038 0.643 37.769
          0.643 37.769 0.159 -45.038 0.164 -144.878 0.71 -51.476
          0.159 -45.038 0.643 37.769 0.71 -51.476 0.164 -144.878
5093.186 0.164 -144.878 0.71 -51.499 0.643 37.75 0.159 -45.093
          0.71 -51.499 0.164 -144.878 0.159 -45.093 0.643 37.75
          0.643 37.75 0.159 -45.093 0.164 -144.878 0.71 -51.499
          0.159 -45.093 0.643 37.75 0.71 -51.499 0.164 -144.878
5096.192 0.164 -144.879 0.709 -51.522 0.643 37.73 0.159 -45.147
          0.709 -51.522 0.164 -144.879 0.159 -45.147 0.643 37.73
          0.643 37.73 0.159 -45.147 0.164 -144.879 0.709 -51.522
          0.159 -45.147 0.643 37.73 0.709 -51.522 0.164 -144.879
5099.198 0.164 -144.879 0.709 -51.545 0.644 37.71 0.16 -45.202
          0.709 -51.545 0.164 -144.879 0.16 -45.202 0.644 37.71
          0.644 37.71 0.16 -45.202 0.164 -144.879 0.709 -51.545
          0.16 -45.202 0.644 37.71 0.709 -51.545 0.164 -144.879
5102.204 0.164 -144.879 0.709 -51.568 0.644 37.69 0.16 -45.256
          0.709 -51.568 0.164 -144.879 0.16 -45.256 0.644 37.69
          0.644 37.69 0.16 -45.256 0.164 -144.879 0.709 -51.568
          0.16 -45.256 0.644 37.69 0.709 -51.568 0.164 -144.879
5105.21 0.164 -144.879 0.709 -51.591 0.644 37.671 0.16 -45.31
          0.709 -51.591 0.164 -144.879 0.16 -45.31 0.644 37.671
          0.644 37.671 0.16 -45.31 0.164 -144.879 0.709 -51.591
          0.16 -45.31 0.644 37.671 0.709 -51.591 0.164 -144.879
5108.216 0.164 -144.879 0.709 -51.614 0.644 37.651 0.16 -45.365
          0.709 -51.614 0.164 -144.879 0.16 -45.365 0.644 37.651
          0.644 37.651 0.16 -45.365 0.164 -144.879 0.709 -51.614
          0.16 -45.365 0.644 37.651 0.709 -51.614 0.164 -144.879
5111.222 0.164 -144.879 0.709 -51.637 0.644 37.631 0.16 -45.419
          0.709 -51.637 0.164 -144.879 0.16 -45.419 0.644 37.631
          0.644 37.631 0.16 -45.419 0.164 -144.879 0.709 -51.637
          0.16 -45.419 0.644 37.631 0.709 -51.637 0.164 -144.879
5114.228 0.164 -144.879 0.708 -51.66 0.645 37.612 0.16 -45.473
          0.708 -51.66 0.164 -144.879 0.16 -45.473 0.645 37.612
          0.645 37.612 0.16 -45.473 0.164 -144.879 0.708 -51.66
          0.16 -45.473 0.645 37.612 0.708 -51.66 0.164 -144.879
5117.234 0.164 -144.879 0.708 -51.683 0.645 37.592 0.16 -45.528
          0.708 -51.683 0.164 -144.879 0.16 -45.528 0.645 37.592
          0.645 37.592 0.16 -45.528 0.164 -144.879 0.708 -51.683
          0.16 -45.528 0.645 37.592 0.708 -51.683 0.164 -144.879
5120.24 0.164 -144.879 0.708 -51.705 0.645 37.572 0.16 -45.582
          0.708 -51.705 0.164 -144.879 0.16 -45.582 0.645 37.572
          0.645 37.572 0.16 -45.582 0.164 -144.879 0.708 -51.705
          0.16 -45.582 0.645 37.572 0.708 -51.705 0.164 -144.879
5123.246 0.164 -144.879 0.708 -51.728 0.645 37.553 0.16 -45.636
          0.708 -51.728 0.164 -144.879 0.16 -45.636 0.645 37.553
          0.645 37.553 0.16 -45.636 0.164 -144.879 0.708 -51.728
          0.16 -45.636 0.645 37.553 0.708 -51.728 0.164 -144.879
5126.253 0.164 -144.878 0.708 -51.751 0.645 37.533 0.16 -45.69
          0.708 -51.751 0.164 -144.878 0.16 -45.69 0.645 37.533
          0.645 37.533 0.16 -45.69 0.164 -144.878 0.708 -51.751
          0.16 -45.69 0.645 37.533 0.708 -51.751 0.164 -144.878
5129.259 0.164 -144.878 0.707 -51.774 0.645 37.513 0.16 -45.744
          0.707 -51.774 0.164 -144.878 0.16 -45.744 0.645 37.513
          0.645 37.513 0.16 -45.744 0.164 -144.878 0.707 -51.774
          0.16 -45.744 0.645 37.513 0.707 -51.774 0.164 -144.878
5132.265 0.164 -144.878 0.707 -51.797 0.646 37.494 0.16 -45.799
          0.707 -51.797 0.164 -144.878 0.16 -45.799 0.646 37.494
          0.646 37.494 0.16 -45.799 0.164 -144.878 0.707 -51.797
          0.16 -45.799 0.646 37.494 0.707 -51.797 0.164 -144.878
5135.271 0.164 -144.877 0.707 -51.82 0.646 37.474 0.16 -45.853
          0.707 -51.82 0.164 -144.877 0.16 -45.853 0.646 37.474
          0.646 37.474 0.16 -45.853 0.164 -144.877 0.707 -51.82
          0.16 -45.853 0.646 37.474 0.707 -51.82 0.164 -144.877
5138.277 0.164 -144.877 0.707 -51.843 0.646 37.455 0.16 -45.907
          0.707 -51.843 0.164 -144.877 0.16 -45.907 0.646 37.455
          0.646 37.455 0.16 -45.907 0.164 -144.877 0.707 -51.843
          0.16 -45.907 0.646 37.455 0.707 -51.843 0.164 -144.877
5141.283 0.164 -144.876 0.707 -51.866 0.646 37.435 0.16 -45.961
          0.707 -51.866 0.164 -144.876 0.16 -45.961 0.646 37.435
          0.646 37.435 0.16 -45.961 0.164 -144.876 0.707 -51.866
          0.16 -45.961 0.646 37.435 0.707 -51.866 0.164 -144.876
5144.289 0.164 -144.876 0.707 -51.888 0.646 37.415 0.16 -46.015
          0.707 -51.888 0.164 -144.876 0.16 -46.015 0.646 37.415
          0.646 37.415 0.16 -46.015 0.164 -144.876 0.707 -51.888
          0.16 -46.015 0.646 37.415 0.707 -51.888 0.164 -144.876
5147.295 0.164 -144.875 0.706 -51.911 0.647 37.396 0.16 -46.069
          0.706 -51.911 0.164 -144.875 0.16 -46.069 0.647 37.396
          0.647 37.396 0.16 -46.069 0.164 -144.875 0.706 -51.911
          0.16 -46.069 0.647 37.396 0.706 -51.911 0.164 -144.875
5150.301 0.164 -144.875 0.706 -51.934 0.647 37.376 0.16 -46.123
          0.706 -51.934 0.164 -144.875 0.16 -46.123 0.647 37.376
          0.647 37.376 0.16 -46.123 0.164 -144.875 0.706 -51.934
          0.16 -46.123 0.647 37.376 0.706 -51.934 0.164 -144.875
5153.307 0.163 -144.874 0.706 -51.957 0.647 37.357 0.16 -46.177
          0.706 -51.957 0.163 -144.874 0.16 -46.177 0.647 37.357
          0.647 37.357 0.16 -46.177 0.163 -144.874 0.706 -51.957
          0.16 -46.177 0.647 37.357 0.706 -51.957 0.163 -144.874
5156.313 0.163 -144.873 0.706 -51.98 0.647 37.337 0.16 -46.231
          0.706 -51.98 0.163 -144.873 0.16 -46.231 0.647 37.337
          0.647 37.337 0.16 -46.231 0.163 -144.873 0.706 -51.98
          0.16 -46.231 0.647 37.337 0.706 -51.98 0.163 -144.873
5159.319 0.163 -144.872 0.706 -52.003 0.647 37.317 0.16 -46.285
          0.706 -52.003 0.163 -144.872 0.16 -46.285 0.647 37.317
          0.647 37.317 0.16 -46.285 0.163 -144.872 0.706 -52.003
          0.16 -46.285 0.647 37.317 0.706 -52.003 0.163 -144.872
5162.325 0.163 -144.871 0.705 -52.026 0.648 37.298 0.16 -46.339
          0.705 -52.026 0.163 -144.871 0.16 -46.339 0.648 37.298
          0.648 37.298 0.16 -46.339 0.163 -144.871 0.705 -52.026
          0.16 -46.339 0.648 37.298 0.705 -52.026 0.163 -144.871
5165.331 0.163 -144.87 0.705 -52.048 0.648 37.278 0.161 -46.393
          0.705 -52.048 0.163 -144.87 0.161 -46.393 0.648 37.278
          0.648 37.278 0.161 -46.393 0.163 -144.87 0.705 -52.048
          0.161 -46.393 0.648 37.278 0.705 -52.048 0.163 -144.87
5168.337 0.163 -144.869 0.705 -52.071 0.648 37.259 0.161 -46.446
          0.705 -52.071 0.163 -144.869 0.161 -46.446 0.648 37.259
          0.648 37.259 0.161 -46.446 0.163 -144.869 0.705 -52.071
          0.161 -46.446 0.648 37.259 0.705 -52.071 0.163 -144.869
5171.343 0.163 -144.868 0.705 -52.094 0.648 37.239 0.161 -46.5
          0.705 -52.094 0.163 -144.868 0.161 -46.5 0.648 37.239
          0.648 37.239 0.161 -46.5 0.163 -144.868 0.705 -52.094
          0.161 -46.5 0.648 37.239 0.705 -52.094 0.163 -144.868
5174.349 0.163 -144.867 0.705 -52.117 0.648 37.22 0.161 -46.554
          0.705 -52.117 0.163 -144.867 0.161 -46.554 0.648 37.22
          0.648 37.22 0.161 -46.554 0.163 -144.867 0.705 -52.117
          0.161 -46.554 0.648 37.22 0.705 -52.117 0.163 -144.867
5177.355 0.163 -144.866 0.705 -52.14 0.649 37.2 0.161 -46.608
          0.705 -52.14 0.163 -144.866 0.161 -46.608 0.649 37.2
          0.649 37.2 0.161 -46.608 0.163 -144.866 0.705 -52.14
          0.161 -46.608 0.649 37.2 0.705 -52.14 0.163 -144.866
5180.361 0.163 -144.865 0.704 -52.163 0.649 37.181 0.161 -46.662
          0.704 -52.163 0.163 -144.865 0.161 -46.662 0.649 37.181
          0.649 37.181 0.161 -46.662 0.163 -144.865 0.704 -52.163
          0.161 -46.662 0.649 37.181 0.704 -52.163 0.163 -144.865
5183.367 0.163 -144.863 0.704 -52.185 0.649 37.161 0.161 -46.715
          0.704 -52.185 0.163 -144.863 0.161 -46.715 0.649 37.161
          0.649 37.161 0.161 -46.715 0.163 -144.863 0.704 -52.185
          0.161 -46.715 0.649 37.161 0.704 -52.185 0.163 -144.863
5186.373 0.163 -144.862 0.704 -52.208 0.649 37.142 0.161 -46.769
          0.704 -52.208 0.163 -144.862 0.161 -46.769 0.649 37.142
          0.649 37.142 0.161 -46.769 0.163 -144.862 0.704 -52.208
          0.161 -46.769 0.649 37.142 0.704 -52.208 0.163 -144.862
5189.379 0.163 -144.861 0.704 -52.231 0.649 37.122 0.161 -46.823
          0.704 -52.231 0.163 -144.861 0.161 -46.823 0.649 37.122
          0.649 37.122 0.161 -46.823 0.163 -144.861 0.704 -52.231
          0.161 -46.823 0.649 37.122 0.704 -52.231 0.163 -144.861
5192.385 0.163 -144.859 0.704 -52.254 0.65 37.103 0.161 -46.876
          0.704 -52.254 0.163 -144.859 0.161 -46.876 0.65 37.103
          0.65 37.103 0.161 -46.876 0.163 -144.859 0.704 -52.254
          0.161 -46.876 0.65 37.103 0.704 -52.254 0.163 -144.859
5195.391 0.163 -144.858 0.703 -52.277 0.65 37.083 0.161 -46.93
          0.703 -52.277 0.163 -144.858 0.161 -46.93 0.65 37.083
          0.65 37.083 0.161 -46.93 0.163 -144.858 0.703 -52.277
          0.161 -46.93 0.65 37.083 0.703 -52.277 0.163 -144.858
5198.397 0.163 -144.856 0.703 -52.299 0.65 37.064 0.161 -46.984
          0.703 -52.299 0.163 -144.856 0.161 -46.984 0.65 37.064
          0.65 37.064 0.161 -46.984 0.163 -144.856 0.703 -52.299
          0.161 -46.984 0.65 37.064 0.703 -52.299 0.163 -144.856
5201.403 0.163 -144.855 0.703 -52.322 0.65 37.044 0.161 -47.037
          0.703 -52.322 0.163 -144.855 0.161 -47.037 0.65 37.044
          0.65 37.044 0.161 -47.037 0.163 -144.855 0.703 -52.322
          0.161 -47.037 0.65 37.044 0.703 -52.322 0.163 -144.855
5204.409 0.163 -144.853 0.703 -52.345 0.65 37.025 0.161 -47.091
          0.703 -52.345 0.163 -144.853 0.161 -47.091 0.65 37.025
          0.65 37.025 0.161 -47.091 0.163 -144.853 0.703 -52.345
          0.161 -47.091 0.65 37.025 0.703 -52.345 0.163 -144.853
5207.415 0.163 -144.851 0.703 -52.368 0.651 37.005 0.161 -47.144
          0.703 -52.368 0.163 -144.851 0.161 -47.144 0.651 37.005
          0.651 37.005 0.161 -47.144 0.163 -144.851 0.703 -52.368
          0.161 -47.144 0.651 37.005 0.703 -52.368 0.163 -144.851
5210.421 0.163 -144.849 0.703 -52.39 0.651 36.986 0.161 -47.198
          0.703 -52.39 0.163 -144.849 0.161 -47.198 0.651 36.986
          0.651 36.986 0.161 -47.198 0.163 -144.849 0.703 -52.39
          0.161 -47.198 0.651 36.986 0.703 -52.39 0.163 -144.849
5213.427 0.163 -144.848 0.702 -52.413 0.651 36.966 0.161 -47.252
          0.702 -52.413 0.163 -144.848 0.161 -47.252 0.651 36.966
          0.651 36.966 0.161 -47.252 0.163 -144.848 0.702 -52.413
          0.161 -47.252 0.651 36.966 0.702 -52.413 0.163 -144.848
5216.433 0.163 -144.846 0.702 -52.436 0.651 36.947 0.161 -47.305
          0.702 -52.436 0.163 -144.846 0.161 -47.305 0.651 36.947
          0.651 36.947 0.161 -47.305 0.163 -144.846 0.702 -52.436
          0.161 -47.305 0.651 36.947 0.702 -52.436 0.163 -144.846
5219.439 0.163 -144.844 0.702 -52.459 0.651 36.927 0.161 -47.358
          0.702 -52.459 0.163 -144.844 0.161 -47.358 0.651 36.927
          0.651 36.927 0.161 -47.358 0.163 -144.844 0.702 -52.459
          0.161 -47.358 0.651 36.927 0.702 -52.459 0.163 -144.844
5222.445 0.162 -144.842 0.702 -52.481 0.652 36.908 0.161 -47.412
          0.702 -52.481 0.162 -144.842 0.161 -47.412 0.652 36.908
          0.652 36.908 0.161 -47.412 0.162 -144.842 0.702 -52.481
          0.161 -47.412 0.652 36.908 0.702 -52.481 0.162 -144.842
5225.451 0.162 -144.84 0.702 -52.504 0.652 36.889 0.161 -47.465
          0.702 -52.504 0.162 -144.84 0.161 -47.465 0.652 36.889
          0.652 36.889 0.161 -47.465 0.162 -144.84 0.702 -52.504
          0.161 -47.465 0.652 36.889 0.702 -52.504 0.162 -144.84
5228.457 0.162 -144.838 0.701 -52.527 0.652 36.869 0.161 -47.519
