!	AVX	THIN	FILM	OPERATION				
!								
!	0603	SIZE	3dB	90deg	COUPLER	P/N	DB0603N2560ANTR	
!								
!	Created	october	2009					
!								
!	Network	Analyzer	HP8720E	S.07.64:	"Feb23,"	2000	Serial	No.US39172382
!								
!								
#	MHZ	S	MA	R	50			

2202.506	0.088	97.337	0.734	-49.796	0.647	39.568	0.072	57.647
	0.734	-49.796	0.085	103.562	0.072	57.647	0.657	39.419
	0.647	39.568	0.072	57.647	0.088	97.337	0.734	-49.796
	0.072	57.647	0.657	39.419	0.734	-49.796	0.085	103.562
2212.531	0.089	97.09	0.733	-49.966	0.648	39.404	0.072	57.713
	0.733	-49.966	0.086	103.357	0.072	57.713	0.658	39.251
	0.648	39.404	0.072	57.713	0.089	97.09	0.733	-49.966
	0.072	57.713	0.658	39.251	0.733	-49.966	0.086	103.357
2222.556	0.09	96.844	0.731	-50.136	0.65	39.24	0.073	57.78
	0.731	-50.136	0.086	103.153	0.073	57.78	0.66	39.085
	0.65	39.24	0.073	57.78	0.09	96.844	0.731	-50.136
	0.073	57.78	0.66	39.085	0.731	-50.136	0.086	103.153
2232.581	0.09	96.599	0.73	-50.305	0.651	39.076	0.073	57.848
	0.73	-50.305	0.087	102.95	0.073	57.848	0.661	38.919
	0.651	39.076	0.073	57.848	0.09	96.599	0.73	-50.305
	0.073	57.848	0.661	38.919	0.73	-50.305	0.087	102.95
2242.607	0.091	96.355	0.729	-50.474	0.652	38.914	0.073	57.916
	0.729	-50.474	0.087	102.749	0.073	57.916	0.663	38.754
	0.652	38.914	0.073	57.916	0.091	96.355	0.729	-50.474
	0.073	57.916	0.663	38.754	0.729	-50.474	0.087	102.749
2252.632	0.091	96.112	0.727	-50.642	0.654	38.752	0.073	57.985
	0.727	-50.642	0.088	102.548	0.073	57.985	0.664	38.589
	0.654	38.752	0.073	57.985	0.091	96.112	0.727	-50.642
	0.073	57.985	0.664	38.589	0.727	-50.642	0.088	102.548
2262.657	0.092	95.87	0.726	-50.81	0.655	38.59	0.074	58.054
	0.726	-50.81	0.088	102.349	0.074	58.054	0.665	38.425
	0.655	38.59	0.074	58.054	0.092	95.87	0.726	-50.81
	0.074	58.054	0.665	38.425	0.726	-50.81	0.088	102.349
2272.682	0.093	95.629	0.724	-50.978	0.656	38.43	0.074	58.124
	0.724	-50.978	0.089	102.15	0.074	58.124	0.667	38.262
	0.656	38.43	0.074	58.124	0.093	95.629	0.724	-50.978
	0.074	58.124	0.667	38.262	0.724	-50.978	0.089	102.15
2282.707	0.093	95.388	0.723	-51.144	0.657	38.27	0.074	58.194
	0.723	-51.144	0.09	101.953	0.074	58.194	0.668	38.099
	0.657	38.27	0.074	58.194	0.093	95.388	0.723	-51.144
	0.074	58.194	0.668	38.099	0.723	-51.144	0.09	101.953
2292.732	0.094	95.149	0.722	-51.311	0.658	38.111	0.075	58.264
	0.722	-51.311	0.09	101.756	0.075	58.264	0.669	37.937
	0.658	38.111	0.075	58.264	0.094	95.149	0.722	-51.311
	0.075	58.264	0.669	37.937	0.722	-51.311	0.09	101.756
2302.757	0.095	94.91	0.72	-51.477	0.66	37.952	0.075	58.335
	0.72	-51.477	0.091	101.56	0.075	58.335	0.671	37.776
	0.66	37.952	0.075	58.335	0.095	94.91	0.72	-51.477
	0.075	58.335	0.671	37.776	0.72	-51.477	0.091	101.56
2312.782	0.095	94.672	0.719	-51.642	0.661	37.794	0.075	58.406
	0.719	-51.642	0.091	101.366	0.075	58.406	0.672	37.615
	0.661	37.794	0.075	58.406	0.095	94.672	0.719	-51.642
	0.075	58.406	0.672	37.615	0.719	-51.642	0.091	101.366
2322.807	0.096	94.435	0.718	-51.807	0.662	37.637	0.075	58.477
	0.718	-51.807	0.092	101.172	0.075	58.477	0.673	37.455
	0.662	37.637	0.075	58.477	0.096	94.435	0.718	-51.807
	0.075	58.477	0.673	37.455	0.718	-51.807	0.092	101.172
2332.832	0.096	94.198	0.716	-51.971	0.663	37.48	0.076	58.548
	0.716	-51.971	0.093	100.979	0.076	58.548	0.675	37.295
	0.663	37.48	0.076	58.548	0.096	94.198	0.716	-51.971
	0.076	58.548	0.675	37.295	0.716	-51.971	0.093	100.979
2342.857	0.097	93.963	0.715	-52.135	0.664	37.324	0.076	58.62
	0.715	-52.135	0.093	100.788	0.076	58.62	0.676	37.136
	0.664	37.324	0.076	58.62	0.097	93.963	0.715	-52.135
	0.076	58.62	0.676	37.136	0.715	-52.135	0.093	100.788
2352.882	0.098	93.728	0.714	-52.299	0.665	37.169	0.076	58.691
	0.714	-52.299	0.094	100.597	0.076	58.691	0.677	36.978
	0.665	37.169	0.076	58.691	0.098	93.728	0.714	-52.299
	0.076	58.691	0.677	36.978	0.714	-52.299	0.094	100.597
2362.907	0.098	93.494	0.712	-52.462	0.666	37.014	0.077	58.763
	0.712	-52.462	0.094	100.407	0.077	58.763	0.678	36.82
	0.666	37.014	0.077	58.763	0.098	93.494	0.712	-52.462
	0.077	58.763	0.678	36.82	0.712	-52.462	0.094	100.407
2372.932	0.099	93.261	0.711	-52.625	0.667	36.86	0.077	58.834
	0.711	-52.625	0.095	100.218	0.077	58.834	0.68	36.662
	0.667	36.86	0.077	58.834	0.099	93.261	0.711	-52.625
	0.077	58.834	0.68	36.662	0.711	-52.625	0.095	100.218
2382.957	0.1	93.029	0.71	-52.787	0.669	36.706	0.077	58.906
	0.71	-52.787	0.095	100.029	0.077	58.906	0.681	36.506
	0.669	36.706	0.077	58.906	0.1	93.029	0.71	-52.787
	0.077	58.906	0.681	36.506	0.71	-52.787	0.095	100.029
2392.982	0.1	92.797	0.709	-52.949	0.67	36.553	0.078	58.977
	0.709	-52.949	0.096	99.842	0.078	58.977	0.682	36.35
	0.67	36.553	0.078	58.977	0.1	92.797	0.709	-52.949
	0.078	58.977	0.682	36.35	0.709	-52.949	0.096	99.842
2403.008	0.101	92.566	0.707	-53.111	0.671	36.401	0.078	59.049
	0.707	-53.111	0.097	99.656	0.078	59.049	0.683	36.194
	0.671	36.401	0.078	59.049	0.101	92.566	0.707	-53.111
	0.078	59.049	0.683	36.194	0.707	-53.111	0.097	99.656
2413.033	0.102	92.336	0.706	-53.272	0.672	36.249	0.078	59.12
	0.706	-53.272	0.097	99.47	0.078	59.12	0.685	36.039
	0.672	36.249	0.078	59.12	0.102	92.336	0.706	-53.272
	0.078	59.12	0.685	36.039	0.706	-53.272	0.097	99.47
2423.058	0.102	92.107	0.705	-53.432	0.673	36.098	0.079	59.191
	0.705	-53.432	0.098	99.285	0.079	59.191	0.686	35.885
	0.673	36.098	0.079	59.191	0.102	92.107	0.705	-53.432
	0.079	59.191	0.686	35.885	0.705	-53.432	0.098	99.285
2433.083	0.103	91.878	0.704	-53.592	0.674	35.948	0.079	59.262
	0.704	-53.592	0.098	99.101	0.079	59.262	0.687	35.731
	0.674	35.948	0.079	59.262	0.103	91.878	0.704	-53.592
	0.079	59.262	0.687	35.731	0.704	-53.592	0.098	99.101
2443.108	0.103	91.65	0.702	-53.752	0.675	35.798	0.079	59.333
	0.702	-53.752	0.099	98.918	0.079	59.333	0.688	35.577
	0.675	35.798	0.079	59.333	0.103	91.65	0.702	-53.752
	0.079	59.333	0.688	35.577	0.702	-53.752	0.099	98.918
2453.133	0.104	91.422	0.701	-53.912	0.676	35.649	0.08	59.403
	0.701	-53.912	0.1	98.736	0.08	59.403	0.689	35.425
	0.676	35.649	0.08	59.403	0.104	91.422	0.701	-53.912
	0.08	59.403	0.689	35.425	0.701	-53.912	0.1	98.736
2463.158	0.105	91.196	0.7	-54.071	0.677	35.5	0.08	59.473
	0.7	-54.071	0.1	98.555	0.08	59.473	0.69	35.272
	0.677	35.5	0.08	59.473	0.105	91.196	0.7	-54.071
	0.08	59.473	0.69	35.272	0.7	-54.071	0.1	98.555
2473.183	0.105	90.97	0.699	-54.23	0.678	35.352	0.081	59.543
	0.699	-54.23	0.101	98.374	0.081	59.543	0.691	35.121
	0.678	35.352	0.081	59.543	0.105	90.97	0.699	-54.23
	0.081	59.543	0.691	35.121	0.699	-54.23	0.101	98.374
2483.208	0.106	90.744	0.697	-54.388	0.678	35.204	0.081	59.613
	0.697	-54.388	0.101	98.194	0.081	59.613	0.692	34.97
	0.678	35.204	0.081	59.613	0.106	90.744	0.697	-54.388
	0.081	59.613	0.692	34.97	0.697	-54.388	0.101	98.194
2493.233	0.107	90.519	0.696	-54.546	0.679	35.058	0.081	59.682
	0.696	-54.546	0.102	98.015	0.081	59.682	0.694	34.819
	0.679	35.058	0.081	59.682	0.107	90.519	0.696	-54.546
	0.081	59.682	0.694	34.819	0.696	-54.546	0.102	98.015
2503.258	0.107	90.295	0.695	-54.704	0.68	34.911	0.082	59.75
	0.695	-54.704	0.103	97.837	0.082	59.75	0.695	34.669
	0.68	34.911	0.082	59.75	0.107	90.295	0.695	-54.704
	0.082	59.75	0.695	34.669	0.695	-54.704	0.103	97.837
2513.283	0.108	90.072	0.694	-54.861	0.681	34.765	0.082	59.818
	0.694	-54.861	0.103	97.659	0.082	59.818	0.696	34.519
	0.681	34.765	0.082	59.818	0.108	90.072	0.694	-54.861
	0.082	59.818	0.696	34.519	0.694	-54.861	0.103	97.659
2523.308	0.109	89.849	0.693	-55.018	0.682	34.62	0.082	59.886
	0.693	-55.018	0.104	97.482	0.082	59.886	0.697	34.37
	0.682	34.62	0.082	59.886	0.109	89.849	0.693	-55.018
	0.082	59.886	0.697	34.37	0.693	-55.018	0.104	97.482
2533.333	0.109	89.627	0.691	-55.175	0.683	34.476	0.083	59.953
	0.691	-55.175	0.104	97.306	0.083	59.953	0.698	34.222
	0.683	34.476	0.083	59.953	0.109	89.627	0.691	-55.175
	0.083	59.953	0.698	34.222	0.691	-55.175	0.104	97.306
2543.358	0.11	89.405	0.69	-55.331	0.684	34.331	0.083	60.019
	0.69	-55.331	0.105	97.13	0.083	60.019	0.699	34.074
	0.684	34.331	0.083	60.019	0.11	89.405	0.69	-55.331
	0.083	60.019	0.699	34.074	0.69	-55.331	0.105	97.13
2553.383	0.111	89.184	0.689	-55.488	0.685	34.188	0.084	60.085
	0.689	-55.488	0.106	96.955	0.084	60.085	0.7	33.926
	0.685	34.188	0.084	60.085	0.111	89.184	0.689	-55.488
	0.084	60.085	0.7	33.926	0.689	-55.488	0.106	96.955
2563.409	0.111	88.963	0.688	-55.643	0.685	34.045	0.084	60.15
	0.688	-55.643	0.106	96.781	0.084	60.15	0.701	33.779
	0.685	34.045	0.084	60.15	0.111	88.963	0.688	-55.643
	0.084	60.15	0.701	33.779	0.688	-55.643	0.106	96.781
2573.434	0.112	88.743	0.687	-55.799	0.686	33.902	0.084	60.215
	0.687	-55.799	0.107	96.608	0.084	60.215	0.702	33.632
	0.686	33.902	0.084	60.215	0.112	88.743	0.687	-55.799
	0.084	60.215	0.702	33.632	0.687	-55.799	0.107	96.608
2583.459	0.113	88.524	0.686	-55.954	0.687	33.761	0.085	60.279
	0.686	-55.954	0.107	96.435	0.085	60.279	0.703	33.486
	0.687	33.761	0.085	60.279	0.113	88.524	0.686	-55.954
	0.085	60.279	0.703	33.486	0.686	-55.954	0.107	96.435
2593.484	0.113	88.305	0.684	-56.109	0.688	33.619	0.085	60.342
	0.684	-56.109	0.108	96.263	0.085	60.342	0.704	33.341
	0.688	33.619	0.085	60.342	0.113	88.305	0.684	-56.109
	0.085	60.342	0.704	33.341	0.684	-56.109	0.108	96.263
2603.509	0.114	88.086	0.683	-56.264	0.689	33.478	0.086	60.404
	0.683	-56.264	0.109	96.092	0.086	60.404	0.705	33.196
	0.689	33.478	0.086	60.404	0.114	88.086	0.683	-56.264
	0.086	60.404	0.705	33.196	0.683	-56.264	0.109	96.092
2613.534	0.115	87.868	0.682	-56.418	0.689	33.338	0.086	60.466
	0.682	-56.418	0.109	95.921	0.086	60.466	0.706	33.051
	0.689	33.338	0.086	60.466	0.115	87.868	0.682	-56.418
	0.086	60.466	0.706	33.051	0.682	-56.418	0.109	95.921
2623.559	0.115	87.651	0.681	-56.572	0.69	33.198	0.086	60.527
	0.681	-56.572	0.11	95.751	0.086	60.527	0.707	32.907
	0.69	33.198	0.086	60.527	0.115	87.651	0.681	-56.572
	0.086	60.527	0.707	32.907	0.681	-56.572	0.11	95.751
2633.584	0.116	87.434	0.68	-56.726	0.691	33.059	0.087	60.587
	0.68	-56.726	0.11	95.581	0.087	60.587	0.708	32.763
	0.691	33.059	0.087	60.587	0.116	87.434	0.68	-56.726
	0.087	60.587	0.708	32.763	0.68	-56.726	0.11	95.581
2643.609	0.117	87.217	0.679	-56.88	0.692	32.92	0.087	60.646
	0.679	-56.88	0.111	95.412	0.087	60.646	0.709	32.62
	0.692	32.92	0.087	60.646	0.117	87.217	0.679	-56.88
	0.087	60.646	0.709	32.62	0.679	-56.88	0.111	95.412
2653.634	0.117	87.001	0.678	-57.033	0.692	32.782	0.088	60.704
	0.678	-57.033	0.112	95.244	0.088	60.704	0.709	32.477
	0.692	32.782	0.088	60.704	0.117	87.001	0.678	-57.033
	0.088	60.704	0.709	32.477	0.678	-57.033	0.112	95.244
2663.659	0.118	86.785	0.677	-57.186	0.693	32.645	0.088	60.762
	0.677	-57.186	0.112	95.076	0.088	60.762	0.71	32.335
	0.693	32.645	0.088	60.762	0.118	86.785	0.677	-57.186
	0.088	60.762	0.71	32.335	0.677	-57.186	0.112	95.076
2673.684	0.119	86.57	0.676	-57.339	0.694	32.508	0.089	60.818
	0.676	-57.339	0.113	94.908	0.089	60.818	0.711	32.193
	0.694	32.508	0.089	60.818	0.119	86.57	0.676	-57.339
	0.089	60.818	0.711	32.193	0.676	-57.339	0.113	94.908
2683.709	0.119	86.356	0.675	-57.492	0.694	32.371	0.089	60.874
	0.675	-57.492	0.114	94.742	0.089	60.874	0.712	32.051
	0.694	32.371	0.089	60.874	0.119	86.356	0.675	-57.492
	0.089	60.874	0.712	32.051	0.675	-57.492	0.114	94.742
2693.734	0.12	86.141	0.673	-57.644	0.695	32.235	0.089	60.928
	0.673	-57.644	0.114	94.575	0.089	60.928	0.713	31.91
	0.695	32.235	0.089	60.928	0.12	86.141	0.673	-57.644
	0.089	60.928	0.713	31.91	0.673	-57.644	0.114	94.575
2703.759	0.121	85.927	0.672	-57.796	0.696	32.099	0.09	60.982
	0.672	-57.796	0.115	94.41	0.09	60.982	0.714	31.77
	0.696	32.099	0.09	60.982	0.121	85.927	0.672	-57.796
	0.09	60.982	0.714	31.77	0.672	-57.796	0.115	94.41
2713.784	0.122	85.714	0.671	-57.948	0.696	31.964	0.09	61.034
	0.671	-57.948	0.115	94.245	0.09	61.034	0.715	31.629
	0.696	31.964	0.09	61.034	0.122	85.714	0.671	-57.948
	0.09	61.034	0.715	31.629	0.671	-57.948	0.115	94.245
2723.81	0.122	85.501	0.67	-58.1	0.697	31.829	0.091	61.086
	0.67	-58.1	0.116	94.08	0.091	61.086	0.715	31.49
	0.697	31.829	0.091	61.086	0.122	85.501	0.67	-58.1
	0.091	61.086	0.715	31.49	0.67	-58.1	0.116	94.08
2733.835	0.123	85.288	0.669	-58.252	0.698	31.695	0.091	61.136
	0.669	-58.252	0.117	93.916	0.091	61.136	0.716	31.35
	0.698	31.695	0.091	61.136	0.123	85.288	0.669	-58.252
	0.091	61.136	0.716	31.35	0.669	-58.252	0.117	93.916
2743.86	0.124	85.075	0.668	-58.404	0.698	31.562	0.092	61.185
	0.668	-58.404	0.117	93.752	0.092	61.185	0.717	31.211
	0.698	31.562	0.092	61.185	0.124	85.075	0.668	-58.404
	0.092	61.185	0.717	31.211	0.668	-58.404	0.117	93.752
2753.885	0.124	84.863	0.667	-58.555	0.699	31.429	0.092	61.234
	0.667	-58.555	0.118	93.589	0.092	61.234	0.718	31.073
	0.699	31.429	0.092	61.234	0.124	84.863	0.667	-58.555
	0.092	61.234	0.718	31.073	0.667	-58.555	0.118	93.589
2763.91	0.125	84.652	0.666	-58.706	0.7	31.296	0.093	61.281
	0.666	-58.706	0.119	93.426	0.093	61.281	0.719	30.935
	0.7	31.296	0.093	61.281	0.125	84.652	0.666	-58.706
	0.093	61.281	0.719	30.935	0.666	-58.706	0.119	93.426
2773.935	0.126	84.44	0.665	-58.857	0.7	31.164	0.093	61.326
	0.665	-58.857	0.119	93.264	0.093	61.326	0.719	30.797
	0.7	31.164	0.093	61.326	0.126	84.44	0.665	-58.857
	0.093	61.326	0.719	30.797	0.665	-58.857	0.119	93.264
2783.96	0.126	84.229	0.664	-59.008	0.701	31.032	0.094	61.371
	0.664	-59.008	0.12	93.102	0.094	61.371	0.72	30.66
	0.701	31.032	0.094	61.371	0.126	84.229	0.664	-59.008
	0.094	61.371	0.72	30.66	0.664	-59.008	0.12	93.102
2793.985	0.127	84.018	0.663	-59.159	0.701	30.901	0.094	61.415
	0.663	-59.159	0.121	92.94	0.094	61.415	0.721	30.523
	0.701	30.901	0.094	61.415	0.127	84.018	0.663	-59.159
	0.094	61.415	0.721	30.523	0.663	-59.159	0.121	92.94
2804.01	0.128	83.808	0.662	-59.31	0.702	30.77	0.095	61.457
	0.662	-59.31	0.121	92.779	0.095	61.457	0.722	30.387
	0.702	30.77	0.095	61.457	0.128	83.808	0.662	-59.31
	0.095	61.457	0.722	30.387	0.662	-59.31	0.121	92.779
2814.035	0.129	83.597	0.661	-59.46	0.702	30.64	0.095	61.498
	0.661	-59.46	0.122	92.619	0.095	61.498	0.723	30.25
	0.702	30.64	0.095	61.498	0.129	83.597	0.661	-59.46
	0.095	61.498	0.723	30.25	0.661	-59.46	0.122	92.619
2824.06	0.129	83.387	0.66	-59.611	0.703	30.51	0.096	61.538
	0.66	-59.611	0.123	92.458	0.096	61.538	0.723	30.115
	0.703	30.51	0.096	61.538	0.129	83.387	0.66	-59.611
	0.096	61.538	0.723	30.115	0.66	-59.611	0.123	92.458
2834.085	0.13	83.178	0.659	-59.761	0.703	30.381	0.096	61.577
	0.659	-59.761	0.123	92.299	0.096	61.577	0.724	29.979
	0.703	30.381	0.096	61.577	0.13	83.178	0.659	-59.761
	0.096	61.577	0.724	29.979	0.659	-59.761	0.123	92.299
2844.11	0.131	82.968	0.658	-59.911	0.704	30.252	0.097	61.614
	0.658	-59.911	0.124	92.139	0.097	61.614	0.725	29.844
	0.704	30.252	0.097	61.614	0.131	82.968	0.658	-59.911
	0.097	61.614	0.725	29.844	0.658	-59.911	0.124	92.139
2854.135	0.132	82.759	0.657	-60.061	0.704	30.123	0.097	61.65
	0.657	-60.061	0.125	91.98	0.097	61.65	0.725	29.71
	0.704	30.123	0.097	61.65	0.132	82.759	0.657	-60.061
	0.097	61.65	0.725	29.71	0.657	-60.061	0.125	91.98
2864.16	0.132	82.55	0.656	-60.211	0.705	29.995	0.098	61.685
	0.656	-60.211	0.125	91.821	0.098	61.685	0.726	29.576
	0.705	29.995	0.098	61.685	0.132	82.55	0.656	-60.211
	0.098	61.685	0.726	29.576	0.656	-60.211	0.125	91.821
2874.185	0.133	82.341	0.655	-60.361	0.705	29.868	0.098	61.718
	0.655	-60.361	0.126	91.662	0.098	61.718	0.727	29.442
	0.705	29.868	0.098	61.718	0.133	82.341	0.655	-60.361
	0.098	61.718	0.727	29.442	0.655	-60.361	0.126	91.662
2884.211	0.134	82.133	0.655	-60.511	0.706	29.741	0.099	61.75
	0.655	-60.511	0.127	91.504	0.099	61.75	0.727	29.308
	0.706	29.741	0.099	61.75	0.134	82.133	0.655	-60.511
	0.099	61.75	0.727	29.308	0.655	-60.511	0.127	91.504
2894.236	0.135	81.924	0.654	-60.661	0.706	29.614	0.1	61.781
	0.654	-60.661	0.127	91.346	0.1	61.781	0.728	29.175
	0.706	29.614	0.1	61.781	0.135	81.924	0.654	-60.661
	0.1	61.781	0.728	29.175	0.654	-60.661	0.127	91.346
2904.261	0.135	81.716	0.653	-60.811	0.706	29.488	0.1	61.81
	0.653	-60.811	0.128	91.189	0.1	61.81	0.729	29.042
	0.706	29.488	0.1	61.81	0.135	81.716	0.653	-60.811
	0.1	61.81	0.729	29.042	0.653	-60.811	0.128	91.189
2914.286	0.136	81.508	0.652	-60.96	0.707	29.362	0.101	61.838
	0.652	-60.96	0.129	91.031	0.101	61.838	0.729	28.91
	0.707	29.362	0.101	61.838	0.136	81.508	0.652	-60.96
	0.101	61.838	0.729	28.91	0.652	-60.96	0.129	91.031
2924.311	0.137	81.3	0.651	-61.11	0.707	29.237	0.101	61.865
	0.651	-61.11	0.129	90.874	0.101	61.865	0.73	28.778
	0.707	29.237	0.101	61.865	0.137	81.3	0.651	-61.11
	0.101	61.865	0.73	28.778	0.651	-61.11	0.129	90.874
2934.336	0.137	81.092	0.65	-61.26	0.708	29.112	0.102	61.89
	0.65	-61.26	0.13	90.717	0.102	61.89	0.731	28.646
	0.708	29.112	0.102	61.89	0.137	81.092	0.65	-61.26
	0.102	61.89	0.731	28.646	0.65	-61.26	0.13	90.717
2944.361	0.138	80.884	0.649	-61.409	0.708	28.988	0.102	61.913
	0.649	-61.409	0.131	90.561	0.102	61.913	0.731	28.515
	0.708	28.988	0.102	61.913	0.138	80.884	0.649	-61.409
	0.102	61.913	0.731	28.515	0.649	-61.409	0.131	90.561
2954.386	0.139	80.677	0.648	-61.559	0.708	28.864	0.103	61.936
	0.648	-61.559	0.131	90.404	0.103	61.936	0.732	28.384
	0.708	28.864	0.103	61.936	0.139	80.677	0.648	-61.559
	0.103	61.936	0.732	28.384	0.648	-61.559	0.131	90.404
2964.411	0.14	80.469	0.647	-61.708	0.709	28.741	0.103	61.956
	0.647	-61.708	0.132	90.248	0.103	61.956	0.732	28.253
	0.709	28.741	0.103	61.956	0.14	80.469	0.647	-61.708
	0.103	61.956	0.732	28.253	0.647	-61.708	0.132	90.248
2974.436	0.141	80.262	0.646	-61.858	0.709	28.618	0.104	61.976
	0.646	-61.858	0.133	90.092	0.104	61.976	0.733	28.122
	0.709	28.618	0.104	61.976	0.141	80.262	0.646	-61.858
	0.104	61.976	0.733	28.122	0.646	-61.858	0.133	90.092
2984.461	0.141	80.055	0.646	-62.008	0.709	28.495	0.105	61.993
	0.646	-62.008	0.133	89.936	0.105	61.993	0.734	27.992
	0.709	28.495	0.105	61.993	0.141	80.055	0.646	-62.008
	0.105	61.993	0.734	27.992	0.646	-62.008	0.133	89.936
2994.486	0.142	79.847	0.645	-62.157	0.71	28.373	0.105	62.01
	0.645	-62.157	0.134	89.781	0.105	62.01	0.734	27.863
	0.71	28.373	0.105	62.01	0.142	79.847	0.645	-62.157
	0.105	62.01	0.734	27.863	0.645	-62.157	0.134	89.781
3004.511	0.143	79.64	0.644	-62.307	0.71	28.251	0.106	62.025
	0.644	-62.307	0.135	89.625	0.106	62.025	0.735	27.733
	0.71	28.251	0.106	62.025	0.143	79.64	0.644	-62.307
	0.106	62.025	0.735	27.733	0.644	-62.307	0.135	89.625
3014.536	0.144	79.433	0.643	-62.457	0.71	28.13	0.106	62.038
	0.643	-62.457	0.135	89.47	0.106	62.038	0.735	27.604
	0.71	28.13	0.106	62.038	0.144	79.433	0.643	-62.457
	0.106	62.038	0.735	27.604	0.643	-62.457	0.135	89.47
3024.561	0.144	79.226	0.642	-62.606	0.711	28.009	0.107	62.05
	0.642	-62.606	0.136	89.315	0.107	62.05	0.736	27.475
	0.711	28.009	0.107	62.05	0.144	79.226	0.642	-62.606
	0.107	62.05	0.736	27.475	0.642	-62.606	0.136	89.315
3034.586	0.145	79.019	0.641	-62.756	0.711	27.889	0.108	62.06
	0.641	-62.756	0.137	89.16	0.108	62.06	0.736	27.347
	0.711	27.889	0.108	62.06	0.145	79.019	0.641	-62.756
	0.108	62.06	0.736	27.347	0.641	-62.756	0.137	89.16
3044.612	0.146	78.812	0.64	-62.906	0.711	27.768	0.108	62.069
	0.64	-62.906	0.138	89.005	0.108	62.069	0.737	27.218
	0.711	27.768	0.108	62.069	0.146	78.812	0.64	-62.906
	0.108	62.069	0.737	27.218	0.64	-62.906	0.138	89.005
3054.637	0.147	78.605	0.64	-63.056	0.711	27.649	0.109	62.076
	0.64	-63.056	0.138	88.85	0.109	62.076	0.737	27.09
	0.711	27.649	0.109	62.076	0.147	78.605	0.64	-63.056
	0.109	62.076	0.737	27.09	0.64	-63.056	0.138	88.85
3064.662	0.148	78.397	0.639	-63.206	0.712	27.53	0.11	62.082
	0.639	-63.206	0.139	88.696	0.11	62.082	0.738	26.963
	0.712	27.53	0.11	62.082	0.148	78.397	0.639	-63.206
	0.11	62.082	0.738	26.963	0.639	-63.206	0.139	88.696
3074.687	0.148	78.19	0.638	-63.356	0.712	27.411	0.11	62.086
	0.638	-63.356	0.14	88.541	0.11	62.086	0.738	26.836
	0.712	27.411	0.11	62.086	0.148	78.19	0.638	-63.356
	0.11	62.086	0.738	26.836	0.638	-63.356	0.14	88.541
3084.712	0.149	77.983	0.637	-63.506	0.712	27.293	0.111	62.088
	0.637	-63.506	0.14	88.387	0.111	62.088	0.739	26.708
	0.712	27.293	0.111	62.088	0.149	77.983	0.637	-63.506
	0.111	62.088	0.739	26.708	0.637	-63.506	0.14	88.387
3094.737	0.15	77.776	0.636	-63.657	0.712	27.175	0.111	62.089
	0.636	-63.657	0.141	88.232	0.111	62.089	0.739	26.582
