!	AVX THIN FILM OPERATION
!	
!	0603 SIZE 3dB 90deg COUPLER P/N DB0603N3500ANTR
!
!	Created August 2007
!						
!	Network Analyzer HP8720E S.07.64: Feb23, 2000 Serial No.US39172382		
!
#	MHZ	S	MA	R	50			

3005.013	0.14	162.328	0.729	-45.618	0.648	42.029	0.149	17.597
	0.729	-45.618	0.141	162.774	0.149	17.597	0.65	42.007
	0.648	42.029	0.149	17.597	0.14	162.328	0.729	-45.618
	0.149	17.597	0.65	42.007	0.729	-45.618	0.141	162.774
3015.038	0.14	162.081	0.728	-45.717	0.649	41.932	0.148	17.492
	0.728	-45.717	0.141	162.533	0.148	17.492	0.651	41.909
	0.649	41.932	0.148	17.492	0.14	162.081	0.728	-45.717
	0.148	17.492	0.651	41.909	0.728	-45.717	0.141	162.533
3025.063	0.14	161.836	0.728	-45.816	0.65	41.835	0.148	17.388
	0.728	-45.816	0.141	162.291	0.148	17.388	0.652	41.812
	0.65	41.835	0.148	17.388	0.14	161.836	0.728	-45.816
	0.148	17.388	0.652	41.812	0.728	-45.816	0.141	162.291
3035.088	0.14	161.591	0.727	-45.914	0.651	41.738	0.148	17.285
	0.727	-45.914	0.141	162.05	0.148	17.285	0.653	41.715
	0.651	41.738	0.148	17.285	0.14	161.591	0.727	-45.914
	0.148	17.285	0.653	41.715	0.727	-45.914	0.141	162.05
3045.113	0.14	161.346	0.726	-46.013	0.652	41.641	0.148	17.182
	0.726	-46.013	0.141	161.81	0.148	17.182	0.654	41.618
	0.652	41.641	0.148	17.182	0.14	161.346	0.726	-46.013
	0.148	17.182	0.654	41.618	0.726	-46.013	0.141	161.81
3055.138	0.141	161.103	0.725	-46.111	0.653	41.545	0.148	17.081
	0.725	-46.111	0.142	161.571	0.148	17.081	0.655	41.522
	0.653	41.545	0.148	17.081	0.141	161.103	0.725	-46.111
	0.148	17.081	0.655	41.522	0.725	-46.111	0.142	161.571
3065.163	0.141	160.859	0.724	-46.209	0.654	41.449	0.148	16.98
	0.724	-46.209	0.142	161.332	0.148	16.98	0.656	41.425
	0.654	41.449	0.148	16.98	0.141	160.859	0.724	-46.209
	0.148	16.98	0.656	41.425	0.724	-46.209	0.142	161.332
3075.188	0.141	160.617	0.723	-46.306	0.655	41.353	0.148	16.88
	0.723	-46.306	0.142	161.093	0.148	16.88	0.657	41.329
	0.655	41.353	0.148	16.88	0.141	160.617	0.723	-46.306
	0.148	16.88	0.657	41.329	0.723	-46.306	0.142	161.093
3085.213	0.141	160.375	0.722	-46.404	0.656	41.258	0.148	16.781
	0.722	-46.404	0.142	160.856	0.148	16.781	0.658	41.234
	0.656	41.258	0.148	16.781	0.141	160.375	0.722	-46.404
	0.148	16.781	0.658	41.234	0.722	-46.404	0.142	160.856
3095.238	0.141	160.133	0.721	-46.501	0.657	41.163	0.148	16.684
	0.721	-46.501	0.142	160.619	0.148	16.684	0.659	41.138
	0.657	41.163	0.148	16.684	0.141	160.133	0.721	-46.501
	0.148	16.684	0.659	41.138	0.721	-46.501	0.142	160.619
3105.263	0.141	159.892	0.72	-46.598	0.658	41.068	0.148	16.586
	0.72	-46.598	0.142	160.382	0.148	16.586	0.66	41.043
	0.658	41.068	0.148	16.586	0.141	159.892	0.72	-46.598
	0.148	16.586	0.66	41.043	0.72	-46.598	0.142	160.382
3115.288	0.142	159.652	0.719	-46.695	0.659	40.973	0.148	16.49
	0.719	-46.695	0.143	160.146	0.148	16.49	0.661	40.948
	0.659	40.973	0.148	16.49	0.142	159.652	0.719	-46.695
	0.148	16.49	0.661	40.948	0.719	-46.695	0.143	160.146
3125.313	0.142	159.412	0.718	-46.791	0.66	40.879	0.148	16.395
	0.718	-46.791	0.143	159.911	0.148	16.395	0.662	40.854
	0.66	40.879	0.148	16.395	0.142	159.412	0.718	-46.791
	0.148	16.395	0.662	40.854	0.718	-46.791	0.143	159.911
3135.338	0.142	159.173	0.717	-46.887	0.661	40.785	0.148	16.3
	0.717	-46.887	0.143	159.676	0.148	16.3	0.663	40.759
	0.661	40.785	0.148	16.3	0.142	159.173	0.717	-46.887
	0.148	16.3	0.663	40.759	0.717	-46.887	0.143	159.676
3145.363	0.142	158.934	0.716	-46.983	0.662	40.691	0.148	16.207
	0.716	-46.983	0.143	159.442	0.148	16.207	0.663	40.665
	0.662	40.691	0.148	16.207	0.142	158.934	0.716	-46.983
	0.148	16.207	0.663	40.665	0.716	-46.983	0.143	159.442
3155.388	0.142	158.696	0.716	-47.079	0.663	40.597	0.148	16.114
	0.716	-47.079	0.143	159.208	0.148	16.114	0.664	40.571
	0.663	40.597	0.148	16.114	0.142	158.696	0.716	-47.079
	0.148	16.114	0.664	40.571	0.716	-47.079	0.143	159.208
3165.414	0.142	158.459	0.715	-47.175	0.664	40.504	0.148	16.022
	0.715	-47.175	0.143	158.975	0.148	16.022	0.665	40.478
	0.664	40.504	0.148	16.022	0.142	158.459	0.715	-47.175
	0.148	16.022	0.665	40.478	0.715	-47.175	0.143	158.975
3175.439	0.143	158.222	0.714	-47.27	0.665	40.411	0.148	15.931
	0.714	-47.27	0.144	158.743	0.148	15.931	0.666	40.385
	0.665	40.411	0.148	15.931	0.143	158.222	0.714	-47.27
	0.148	15.931	0.666	40.385	0.714	-47.27	0.144	158.743
3185.464	0.143	157.985	0.713	-47.365	0.666	40.318	0.148	15.841
	0.713	-47.365	0.144	158.511	0.148	15.841	0.667	40.292
	0.666	40.318	0.148	15.841	0.143	157.985	0.713	-47.365
	0.148	15.841	0.667	40.292	0.713	-47.365	0.144	158.511
3195.489	0.143	157.749	0.712	-47.46	0.667	40.225	0.148	15.752
	0.712	-47.46	0.144	158.28	0.148	15.752	0.668	40.199
	0.667	40.225	0.148	15.752	0.143	157.749	0.712	-47.46
	0.148	15.752	0.668	40.199	0.712	-47.46	0.144	158.28
3205.514	0.143	157.514	0.711	-47.555	0.667	40.133	0.147	15.663
	0.711	-47.555	0.144	158.049	0.147	15.663	0.669	40.106
	0.667	40.133	0.147	15.663	0.143	157.514	0.711	-47.555
	0.147	15.663	0.669	40.106	0.711	-47.555	0.144	158.049
3215.539	0.143	157.279	0.71	-47.65	0.668	40.041	0.147	15.576
	0.71	-47.65	0.144	157.819	0.147	15.576	0.67	40.014
	0.668	40.041	0.147	15.576	0.143	157.279	0.71	-47.65
	0.147	15.576	0.67	40.014	0.71	-47.65	0.144	157.819
3225.564	0.143	157.045	0.709	-47.744	0.669	39.949	0.147	15.489
	0.709	-47.744	0.144	157.589	0.147	15.489	0.671	39.922
	0.669	39.949	0.147	15.489	0.143	157.045	0.709	-47.744
	0.147	15.489	0.671	39.922	0.709	-47.744	0.144	157.589
3235.589	0.144	156.811	0.708	-47.838	0.67	39.858	0.147	15.404
	0.708	-47.838	0.145	157.36	0.147	15.404	0.672	39.83
	0.67	39.858	0.147	15.404	0.144	156.811	0.708	-47.838
	0.147	15.404	0.672	39.83	0.708	-47.838	0.145	157.36
3245.614	0.144	156.578	0.708	-47.932	0.671	39.766	0.147	15.319
	0.708	-47.932	0.145	157.132	0.147	15.319	0.673	39.739
	0.671	39.766	0.147	15.319	0.144	156.578	0.708	-47.932
	0.147	15.319	0.673	39.739	0.708	-47.932	0.145	157.132
3255.639	0.144	156.345	0.707	-48.026	0.672	39.675	0.147	15.235
	0.707	-48.026	0.145	156.904	0.147	15.235	0.674	39.648
	0.672	39.675	0.147	15.235	0.144	156.345	0.707	-48.026
	0.147	15.235	0.674	39.648	0.707	-48.026	0.145	156.904
3265.664	0.144	156.113	0.706	-48.119	0.673	39.585	0.147	15.152
	0.706	-48.119	0.145	156.677	0.147	15.152	0.675	39.557
	0.673	39.585	0.147	15.152	0.144	156.113	0.706	-48.119
	0.147	15.152	0.675	39.557	0.706	-48.119	0.145	156.677
3275.689	0.144	155.882	0.705	-48.212	0.674	39.494	0.147	15.069
	0.705	-48.212	0.145	156.45	0.147	15.069	0.675	39.466
	0.674	39.494	0.147	15.069	0.144	155.882	0.705	-48.212
	0.147	15.069	0.675	39.466	0.705	-48.212	0.145	156.45
3285.714	0.144	155.651	0.704	-48.305	0.675	39.404	0.147	14.988
	0.704	-48.305	0.145	156.224	0.147	14.988	0.676	39.375
	0.675	39.404	0.147	14.988	0.144	155.651	0.704	-48.305
	0.147	14.988	0.676	39.375	0.704	-48.305	0.145	156.224
3295.739	0.144	155.42	0.703	-48.398	0.675	39.314	0.147	14.907
	0.703	-48.398	0.146	155.998	0.147	14.907	0.677	39.285
	0.675	39.314	0.147	14.907	0.144	155.42	0.703	-48.398
	0.147	14.907	0.677	39.285	0.703	-48.398	0.146	155.998
3305.764	0.145	155.19	0.702	-48.491	0.676	39.224	0.147	14.828
	0.702	-48.491	0.146	155.773	0.147	14.828	0.678	39.195
	0.676	39.224	0.147	14.828	0.145	155.19	0.702	-48.491
	0.147	14.828	0.678	39.195	0.702	-48.491	0.146	155.773
3315.789	0.145	154.961	0.701	-48.583	0.677	39.134	0.147	14.749
	0.701	-48.583	0.146	155.548	0.147	14.749	0.679	39.105
	0.677	39.134	0.147	14.749	0.145	154.961	0.701	-48.583
	0.147	14.749	0.679	39.105	0.701	-48.583	0.146	155.548
3325.815	0.145	154.732	0.701	-48.675	0.678	39.045	0.147	14.671
	0.701	-48.675	0.146	155.324	0.147	14.671	0.68	39.016
	0.678	39.045	0.147	14.671	0.145	154.732	0.701	-48.675
	0.147	14.671	0.68	39.016	0.701	-48.675	0.146	155.324
3335.84	0.145	154.503	0.7	-48.767	0.679	38.956	0.147	14.594
	0.7	-48.767	0.146	155.101	0.147	14.594	0.681	38.926
	0.679	38.956	0.147	14.594	0.145	154.503	0.7	-48.767
	0.147	14.594	0.681	38.926	0.7	-48.767	0.146	155.101
3345.865	0.145	154.275	0.699	-48.859	0.68	38.867	0.146	14.518
	0.699	-48.859	0.146	154.878	0.146	14.518	0.682	38.837
	0.68	38.867	0.146	14.518	0.145	154.275	0.699	-48.859
	0.146	14.518	0.682	38.837	0.699	-48.859	0.146	154.878
3355.89	0.145	154.048	0.698	-48.951	0.681	38.779	0.146	14.442
	0.698	-48.951	0.146	154.656	0.146	14.442	0.682	38.749
	0.681	38.779	0.146	14.442	0.145	154.048	0.698	-48.951
	0.146	14.442	0.682	38.749	0.698	-48.951	0.146	154.656
3365.915	0.145	153.821	0.697	-49.042	0.681	38.69	0.146	14.368
	0.697	-49.042	0.147	154.434	0.146	14.368	0.683	38.66
	0.681	38.69	0.146	14.368	0.145	153.821	0.697	-49.042
	0.146	14.368	0.683	38.66	0.697	-49.042	0.147	154.434
3375.94	0.146	153.595	0.696	-49.134	0.682	38.602	0.146	14.294
	0.696	-49.134	0.147	154.212	0.146	14.294	0.684	38.572
	0.682	38.602	0.146	14.294	0.146	153.595	0.696	-49.134
	0.146	14.294	0.684	38.572	0.696	-49.134	0.147	154.212
3385.965	0.146	153.369	0.695	-49.225	0.683	38.514	0.146	14.222
	0.695	-49.225	0.147	153.992	0.146	14.222	0.685	38.484
	0.683	38.514	0.146	14.222	0.146	153.369	0.695	-49.225
	0.146	14.222	0.685	38.484	0.695	-49.225	0.147	153.992
3395.99	0.146	153.143	0.695	-49.315	0.684	38.427	0.146	14.15
	0.695	-49.315	0.147	153.771	0.146	14.15	0.686	38.396
	0.684	38.427	0.146	14.15	0.146	153.143	0.695	-49.315
	0.146	14.15	0.686	38.396	0.695	-49.315	0.147	153.771
3406.015	0.146	152.919	0.694	-49.406	0.685	38.339	0.146	14.079
	0.694	-49.406	0.147	153.552	0.146	14.079	0.687	38.308
	0.685	38.339	0.146	14.079	0.146	152.919	0.694	-49.406
	0.146	14.079	0.687	38.308	0.694	-49.406	0.147	153.552
3416.04	0.146	152.694	0.693	-49.497	0.686	38.252	0.146	14.009
	0.693	-49.497	0.147	153.332	0.146	14.009	0.688	38.221
	0.686	38.252	0.146	14.009	0.146	152.694	0.693	-49.497
	0.146	14.009	0.688	38.221	0.693	-49.497	0.147	153.332
3426.065	0.146	152.47	0.692	-49.587	0.686	38.165	0.146	13.94
	0.692	-49.587	0.148	153.114	0.146	13.94	0.688	38.133
	0.686	38.165	0.146	13.94	0.146	152.47	0.692	-49.587
	0.146	13.94	0.688	38.133	0.692	-49.587	0.148	153.114
3436.09	0.147	152.247	0.691	-49.677	0.687	38.079	0.146	13.871
	0.691	-49.677	0.148	152.896	0.146	13.871	0.689	38.046
	0.687	38.079	0.146	13.871	0.147	152.247	0.691	-49.677
	0.146	13.871	0.689	38.046	0.691	-49.677	0.148	152.896
3446.115	0.147	152.024	0.69	-49.767	0.688	37.992	0.146	13.804
	0.69	-49.767	0.148	152.678	0.146	13.804	0.69	37.96
	0.688	37.992	0.146	13.804	0.147	152.024	0.69	-49.767
	0.146	13.804	0.69	37.96	0.69	-49.767	0.148	152.678
3456.14	0.147	151.802	0.69	-49.856	0.689	37.906	0.145	13.737
	0.69	-49.856	0.148	152.461	0.145	13.737	0.691	37.873
	0.689	37.906	0.145	13.737	0.147	151.802	0.69	-49.856
	0.145	13.737	0.691	37.873	0.69	-49.856	0.148	152.461
3466.165	0.147	151.58	0.689	-49.946	0.69	37.82	0.145	13.671
	0.689	-49.946	0.148	152.244	0.145	13.671	0.692	37.787
	0.69	37.82	0.145	13.671	0.147	151.58	0.689	-49.946
	0.145	13.671	0.692	37.787	0.689	-49.946	0.148	152.244
3476.19	0.147	151.358	0.688	-50.035	0.69	37.734	0.145	13.606
	0.688	-50.035	0.148	152.028	0.145	13.606	0.692	37.701
	0.69	37.734	0.145	13.606	0.147	151.358	0.688	-50.035
	0.145	13.606	0.692	37.701	0.688	-50.035	0.148	152.028
3486.216	0.147	151.137	0.687	-50.124	0.691	37.648	0.145	13.542
	0.687	-50.124	0.148	151.812	0.145	13.542	0.693	37.615
	0.691	37.648	0.145	13.542	0.147	151.137	0.687	-50.124
	0.145	13.542	0.693	37.615	0.687	-50.124	0.148	151.812
3496.241	0.147	150.917	0.686	-50.213	0.692	37.563	0.145	13.479
	0.686	-50.213	0.149	151.597	0.145	13.479	0.694	37.529
	0.692	37.563	0.145	13.479	0.147	150.917	0.686	-50.213
	0.145	13.479	0.694	37.529	0.686	-50.213	0.149	151.597
3506.266	0.148	150.697	0.685	-50.302	0.693	37.478	0.145	13.417
	0.685	-50.302	0.149	151.383	0.145	13.417	0.695	37.444
	0.693	37.478	0.145	13.417	0.148	150.697	0.685	-50.302
	0.145	13.417	0.695	37.444	0.685	-50.302	0.149	151.383
3516.291	0.148	150.477	0.685	-50.391	0.694	37.393	0.145	13.355
	0.685	-50.391	0.149	151.169	0.145	13.355	0.696	37.359
	0.694	37.393	0.145	13.355	0.148	150.477	0.685	-50.391
	0.145	13.355	0.696	37.359	0.685	-50.391	0.149	151.169
3526.316	0.148	150.258	0.684	-50.479	0.694	37.308	0.145	13.295
	0.684	-50.479	0.149	150.955	0.145	13.295	0.696	37.274
	0.694	37.308	0.145	13.295	0.148	150.258	0.684	-50.479
	0.145	13.295	0.696	37.274	0.684	-50.479	0.149	150.955
3536.341	0.148	150.04	0.683	-50.567	0.695	37.224	0.145	13.235
	0.683	-50.567	0.149	150.742	0.145	13.235	0.697	37.189
	0.695	37.224	0.145	13.235	0.148	150.04	0.683	-50.567
	0.145	13.235	0.697	37.189	0.683	-50.567	0.149	150.742
3546.366	0.148	149.822	0.682	-50.655	0.696	37.139	0.145	13.176
	0.682	-50.655	0.149	150.529	0.145	13.176	0.698	37.104
	0.696	37.139	0.145	13.176	0.148	149.822	0.682	-50.655
	0.145	13.176	0.698	37.104	0.682	-50.655	0.149	150.529
3556.391	0.148	149.604	0.681	-50.743	0.697	37.055	0.145	13.118
	0.681	-50.743	0.15	150.317	0.145	13.118	0.699	37.02
	0.697	37.055	0.145	13.118	0.148	149.604	0.681	-50.743
	0.145	13.118	0.699	37.02	0.681	-50.743	0.15	150.317
3566.416	0.148	149.387	0.681	-50.831	0.697	36.972	0.144	13.061
	0.681	-50.831	0.15	150.105	0.144	13.061	0.7	36.936
	0.697	36.972	0.144	13.061	0.148	149.387	0.681	-50.831
	0.144	13.061	0.7	36.936	0.681	-50.831	0.15	150.105
3576.441	0.149	149.17	0.68	-50.918	0.698	36.888	0.144	13.005
	0.68	-50.918	0.15	149.894	0.144	13.005	0.7	36.852
	0.698	36.888	0.144	13.005	0.149	149.17	0.68	-50.918
	0.144	13.005	0.7	36.852	0.68	-50.918	0.15	149.894
3586.466	0.149	148.954	0.679	-51.006	0.699	36.804	0.144	12.95
	0.679	-51.006	0.15	149.684	0.144	12.95	0.701	36.768
	0.699	36.804	0.144	12.95	0.149	148.954	0.679	-51.006
	0.144	12.95	0.701	36.768	0.679	-51.006	0.15	149.684
3596.491	0.149	148.738	0.678	-51.093	0.7	36.721	0.144	12.895
	0.678	-51.093	0.15	149.474	0.144	12.895	0.702	36.685
	0.7	36.721	0.144	12.895	0.149	148.738	0.678	-51.093
	0.144	12.895	0.702	36.685	0.678	-51.093	0.15	149.474
3606.516	0.149	148.523	0.677	-51.18	0.7	36.638	0.144	12.842
	0.677	-51.18	0.15	149.264	0.144	12.842	0.703	36.602
	0.7	36.638	0.144	12.842	0.149	148.523	0.677	-51.18
	0.144	12.842	0.703	36.602	0.677	-51.18	0.15	149.264
3616.541	0.149	148.308	0.677	-51.267	0.701	36.555	0.144	12.789
	0.677	-51.267	0.15	149.055	0.144	12.789	0.703	36.519
	0.701	36.555	0.144	12.789	0.149	148.308	0.677	-51.267
	0.144	12.789	0.703	36.519	0.677	-51.267	0.15	149.055
3626.566	0.149	148.094	0.676	-51.354	0.702	36.473	0.144	12.737
	0.676	-51.354	0.151	148.846	0.144	12.737	0.704	36.436
	0.702	36.473	0.144	12.737	0.149	148.094	0.676	-51.354
	0.144	12.737	0.704	36.436	0.676	-51.354	0.151	148.846
3636.591	0.149	147.88	0.675	-51.44	0.703	36.39	0.144	12.686
	0.675	-51.44	0.151	148.638	0.144	12.686	0.705	36.353
	0.703	36.39	0.144	12.686	0.149	147.88	0.675	-51.44
	0.144	12.686	0.705	36.353	0.675	-51.44	0.151	148.638
3646.617	0.15	147.666	0.674	-51.526	0.703	36.308	0.144	12.636
	0.674	-51.526	0.151	148.43	0.144	12.636	0.706	36.271
	0.703	36.308	0.144	12.636	0.15	147.666	0.674	-51.526
	0.144	12.636	0.706	36.271	0.674	-51.526	0.151	148.43
3656.642	0.15	147.453	0.673	-51.613	0.704	36.226	0.144	12.587
	0.673	-51.613	0.151	148.223	0.144	12.587	0.706	36.188
	0.704	36.226	0.144	12.587	0.15	147.453	0.673	-51.613
	0.144	12.587	0.706	36.188	0.673	-51.613	0.151	148.223
3666.667	0.15	147.241	0.673	-51.699	0.705	36.145	0.143	12.538
	0.673	-51.699	0.151	148.016	0.143	12.538	0.707	36.106
	0.705	36.145	0.143	12.538	0.15	147.241	0.673	-51.699
	0.143	12.538	0.707	36.106	0.673	-51.699	0.151	148.016
3676.692	0.15	147.029	0.672	-51.784	0.705	36.063	0.143	12.491
	0.672	-51.784	0.151	147.809	0.143	12.491	0.708	36.024
	0.705	36.063	0.143	12.491	0.15	147.029	0.672	-51.784
	0.143	12.491	0.708	36.024	0.672	-51.784	0.151	147.809
3686.717	0.15	146.817	0.671	-51.87	0.706	35.982	0.143	12.444
	0.671	-51.87	0.151	147.603	0.143	12.444	0.709	35.943
	0.706	35.982	0.143	12.444	0.15	146.817	0.671	-51.87
	0.143	12.444	0.709	35.943	0.671	-51.87	0.151	147.603
3696.742	0.15	146.606	0.67	-51.956	0.707	35.9	0.143	12.398
	0.67	-51.956	0.152	147.398	0.143	12.398	0.709	35.861
	0.707	35.9	0.143	12.398	0.15	146.606	0.67	-51.956
	0.143	12.398	0.709	35.861	0.67	-51.956	0.152	147.398
3706.767	0.15	146.395	0.67	-52.041	0.708	35.819	0.143	12.354
	0.67	-52.041	0.152	147.193	0.143	12.354	0.71	35.78
	0.708	35.819	0.143	12.354	0.15	146.395	0.67	-52.041
	0.143	12.354	0.71	35.78	0.67	-52.041	0.152	147.193
3716.792	0.151	146.184	0.669	-52.126	0.708	35.739	0.143	12.31
	0.669	-52.126	0.152	146.989	0.143	12.31	0.711	35.699
	0.708	35.739	0.143	12.31	0.151	146.184	0.669	-52.126
	0.143	12.31	0.711	35.699	0.669	-52.126	0.152	146.989
3726.817	0.151	145.974	0.668	-52.211	0.709	35.658	0.143	12.266
	0.668	-52.211	0.152	146.784	0.143	12.266	0.711	35.618
	0.709	35.658	0.143	12.266	0.151	145.974	0.668	-52.211
	0.143	12.266	0.711	35.618	0.668	-52.211	0.152	146.784
3736.842	0.151	145.765	0.667	-52.296	0.71	35.578	0.143	12.224
	0.667	-52.296	0.152	146.581	0.143	12.224	0.712	35.537
	0.71	35.578	0.143	12.224	0.151	145.765	0.667	-52.296
	0.143	12.224	0.712	35.537	0.667	-52.296	0.152	146.581
3746.867	0.151	145.556	0.667	-52.381	0.71	35.497	0.143	12.183
	0.667	-52.381	0.152	146.378	0.143	12.183	0.713	35.457
	0.71	35.497	0.143	12.183	0.151	145.556	0.667	-52.381
	0.143	12.183	0.713	35.457	0.667	-52.381	0.152	146.378
3756.892	0.151	145.347	0.666	-52.466	0.711	35.417	0.142	12.142
	0.666	-52.466	0.153	146.175	0.142	12.142	0.714	35.376
	0.711	35.417	0.142	12.142	0.151	145.347	0.666	-52.466
	0.142	12.142	0.714	35.376	0.666	-52.466	0.153	146.175
3766.917	0.151	145.139	0.665	-52.55	0.712	35.338	0.142	12.102
	0.665	-52.55	0.153	145.973	0.142	12.102	0.714	35.296
	0.712	35.338	0.142	12.102	0.151	145.139	0.665	-52.55
	0.142	12.102	0.714	35.296	0.665	-52.55	0.153	145.973
3776.942	0.151	144.931	0.664	-52.634	0.712	35.258	0.142	12.064
	0.664	-52.634	0.153	145.771	0.142	12.064	0.715	35.216
	0.712	35.258	0.142	12.064	0.151	144.931	0.664	-52.634
	0.142	12.064	0.715	35.216	0.664	-52.634	0.153	145.771
3786.967	0.152	144.723	0.664	-52.718	0.713	35.179	0.142	12.026
	0.664	-52.718	0.153	145.57	0.142	12.026	0.716	35.137
	0.713	35.179	0.142	12.026	0.152	144.723	0.664	-52.718
	0.142	12.026	0.716	35.137	0.664	-52.718	0.153	145.57
3796.992	0.152	144.516	0.663	-52.802	0.714	35.099	0.142	11.989
	0.663	-52.802	0.153	145.369	0.142	11.989	0.716	35.057
	0.714	35.099	0.142	11.989	0.152	144.516	0.663	-52.802
	0.142	11.989	0.716	35.057	0.663	-52.802	0.153	145.369
3807.018	0.152	144.31	0.662	-52.886	0.714	35.02	0.142	11.952
	0.662	-52.886	0.153	145.168	0.142	11.952	0.717	34.978
	0.714	35.02	0.142	11.952	0.152	144.31	0.662	-52.886
	0.142	11.952	0.717	34.978	0.662	-52.886	0.153	145.168
3817.043	0.152	144.104	0.661	-52.97	0.715	34.941	0.142	11.917
	0.661	-52.97	0.153	144.968	0.142	11.917	0.718	34.898
	0.715	34.941	0.142	11.917	0.152	144.104	0.661	-52.97
	0.142	11.917	0.718	34.898	0.661	-52.97	0.153	144.968
3827.068	0.152	143.898	0.661	-53.053	0.716	34.863	0.142	11.883
	0.661	-53.053	0.154	144.768	0.142	11.883	0.718	34.819
	0.716	34.863	0.142	11.883	0.152	143.898	0.661	-53.053
	0.142	11.883	0.718	34.819	0.661	-53.053	0.154	144.768
3837.093	0.152	143.692	0.66	-53.137	0.716	34.784	0.142	11.849
	0.66	-53.137	0.154	144.569	0.142	11.849	0.719	34.741
	0.716	34.784	0.142	11.849	0.152	143.692	0.66	-53.137
	0.142	11.849	0.719	34.741	0.66	-53.137	0.154	144.569
3847.118	0.152	143.487	0.659	-53.22	0.717	34.706	0.142	11.817
	0.659	-53.22	0.154	144.37	0.142	11.817	0.72	34.662
	0.717	34.706	0.142	11.817	0.152	143.487	0.659	-53.22
	0.142	11.817	0.72	34.662	0.659	-53.22	0.154	144.37
3857.143	0.153	143.283	0.658	-53.303	0.718	34.628	0.141	11.785
	0.658	-53.303	0.154	144.172	0.141	11.785	0.72	34.584
	0.718	34.628	0.141	11.785	0.153	143.283	0.658	-53.303
	0.141	11.785	0.72	34.584	0.658	-53.303	0.154	144.172
3867.168	0.153	143.079	0.658	-53.386	0.718	34.55	0.141	11.754
	0.658	-53.386	0.154	143.974	0.141	11.754	0.721	34.505
	0.718	34.55	0.141	11.754	0.153	143.079	0.658	-53.386
	0.141	11.754	0.721	34.505	0.658	-53.386	0.154	143.974
3877.193	0.153	142.875	0.657	-53.469	0.719	34.472	0.141	11.724
	0.657	-53.469	0.154	143.777	0.141	11.724	0.722	34.427
	0.719	34.472	0.141	11.724	0.153	142.875	0.657	-53.469
