!	AVX THIN FILM OPERATION
!	
!	0603 SIZE 3dB 90deg COUPLER P/N DB0603N5800ANTR
!
!	Created August 2010
!						
!	Network Analyzer HP8720E S.07.64: Feb23, 2000 Serial No.US39172382		
!
!	
# MHZ S MA R 50

5000 0.148 -135.874 0.74 -49.416 0.619 40.599 0.132 -49.64
          0.74 -49.416 0.148 -135.874 0.132 -49.64 0.619 40.599
          0.619 40.599 0.132 -49.64 0.148 -135.874 0.74 -49.416
          0.132 -49.64 0.619 40.599 0.74 -49.416 0.148 -135.874
5003.006 0.148 -135.872 0.74 -49.44 0.62 40.578 0.132 -49.696
          0.74 -49.44 0.148 -135.872 0.132 -49.696 0.62 40.578
          0.62 40.578 0.132 -49.696 0.148 -135.872 0.74 -49.44
          0.132 -49.696 0.62 40.578 0.74 -49.44 0.148 -135.872
5006.012 0.148 -135.869 0.739 -49.463 0.62 40.557 0.132 -49.752
          0.739 -49.463 0.148 -135.869 0.132 -49.752 0.62 40.557
          0.62 40.557 0.132 -49.752 0.148 -135.869 0.739 -49.463
          0.132 -49.752 0.62 40.557 0.739 -49.463 0.148 -135.869
5009.018 0.148 -135.867 0.739 -49.486 0.62 40.537 0.133 -49.808
          0.739 -49.486 0.148 -135.867 0.133 -49.808 0.62 40.537
          0.62 40.537 0.133 -49.808 0.148 -135.867 0.739 -49.486
          0.133 -49.808 0.62 40.537 0.739 -49.486 0.148 -135.867
5012.024 0.148 -135.864 0.739 -49.509 0.62 40.516 0.133 -49.864
          0.739 -49.509 0.148 -135.864 0.133 -49.864 0.62 40.516
          0.62 40.516 0.133 -49.864 0.148 -135.864 0.739 -49.509
          0.133 -49.864 0.62 40.516 0.739 -49.509 0.148 -135.864
5015.03 0.148 -135.862 0.739 -49.533 0.62 40.495 0.133 -49.919
          0.739 -49.533 0.148 -135.862 0.133 -49.919 0.62 40.495
          0.62 40.495 0.133 -49.919 0.148 -135.862 0.739 -49.533
          0.133 -49.919 0.62 40.495 0.739 -49.533 0.148 -135.862
5018.036 0.148 -135.859 0.739 -49.556 0.621 40.475 0.133 -49.975
          0.739 -49.556 0.148 -135.859 0.133 -49.975 0.621 40.475
          0.621 40.475 0.133 -49.975 0.148 -135.859 0.739 -49.556
          0.133 -49.975 0.621 40.475 0.739 -49.556 0.148 -135.859
5021.042 0.148 -135.857 0.738 -49.579 0.621 40.454 0.133 -50.031
          0.738 -49.579 0.148 -135.857 0.133 -50.031 0.621 40.454
          0.621 40.454 0.133 -50.031 0.148 -135.857 0.738 -49.579
          0.133 -50.031 0.621 40.454 0.738 -49.579 0.148 -135.857
5024.048 0.148 -135.854 0.738 -49.602 0.621 40.434 0.133 -50.087
          0.738 -49.602 0.148 -135.854 0.133 -50.087 0.621 40.434
          0.621 40.434 0.133 -50.087 0.148 -135.854 0.738 -49.602
          0.133 -50.087 0.621 40.434 0.738 -49.602 0.148 -135.854
5027.054 0.148 -135.851 0.738 -49.626 0.621 40.413 0.133 -50.142
          0.738 -49.626 0.148 -135.851 0.133 -50.142 0.621 40.413
          0.621 40.413 0.133 -50.142 0.148 -135.851 0.738 -49.626
          0.133 -50.142 0.621 40.413 0.738 -49.626 0.148 -135.851
5030.06 0.148 -135.848 0.738 -49.649 0.621 40.392 0.133 -50.198
          0.738 -49.649 0.148 -135.848 0.133 -50.198 0.621 40.392
          0.621 40.392 0.133 -50.198 0.148 -135.848 0.738 -49.649
          0.133 -50.198 0.621 40.392 0.738 -49.649 0.148 -135.848
5033.066 0.148 -135.845 0.738 -49.672 0.622 40.372 0.133 -50.254
          0.738 -49.672 0.148 -135.845 0.133 -50.254 0.622 40.372
          0.622 40.372 0.133 -50.254 0.148 -135.845 0.738 -49.672
          0.133 -50.254 0.622 40.372 0.738 -49.672 0.148 -135.845
5036.072 0.148 -135.842 0.738 -49.695 0.622 40.351 0.133 -50.309
          0.738 -49.695 0.148 -135.842 0.133 -50.309 0.622 40.351
          0.622 40.351 0.133 -50.309 0.148 -135.842 0.738 -49.695
          0.133 -50.309 0.622 40.351 0.738 -49.695 0.148 -135.842
5039.078 0.148 -135.84 0.737 -49.719 0.622 40.331 0.133 -50.365
          0.737 -49.719 0.148 -135.84 0.133 -50.365 0.622 40.331
          0.622 40.331 0.133 -50.365 0.148 -135.84 0.737 -49.719
          0.133 -50.365 0.622 40.331 0.737 -49.719 0.148 -135.84
5042.084 0.148 -135.836 0.737 -49.742 0.622 40.31 0.133 -50.42
          0.737 -49.742 0.148 -135.836 0.133 -50.42 0.622 40.31
          0.622 40.31 0.133 -50.42 0.148 -135.836 0.737 -49.742
          0.133 -50.42 0.622 40.31 0.737 -49.742 0.148 -135.836
5045.09 0.148 -135.833 0.737 -49.765 0.623 40.29 0.133 -50.476
          0.737 -49.765 0.148 -135.833 0.133 -50.476 0.623 40.29
          0.623 40.29 0.133 -50.476 0.148 -135.833 0.737 -49.765
          0.133 -50.476 0.623 40.29 0.737 -49.765 0.148 -135.833
5048.096 0.148 -135.83 0.737 -49.788 0.623 40.269 0.133 -50.531
          0.737 -49.788 0.148 -135.83 0.133 -50.531 0.623 40.269
          0.623 40.269 0.133 -50.531 0.148 -135.83 0.737 -49.788
          0.133 -50.531 0.623 40.269 0.737 -49.788 0.148 -135.83
5051.102 0.148 -135.827 0.737 -49.811 0.623 40.248 0.133 -50.587
          0.737 -49.811 0.148 -135.827 0.133 -50.587 0.623 40.248
          0.623 40.248 0.133 -50.587 0.148 -135.827 0.737 -49.811
          0.133 -50.587 0.623 40.248 0.737 -49.811 0.148 -135.827
5054.108 0.148 -135.824 0.736 -49.835 0.623 40.228 0.133 -50.642
          0.736 -49.835 0.148 -135.824 0.133 -50.642 0.623 40.228
          0.623 40.228 0.133 -50.642 0.148 -135.824 0.736 -49.835
          0.133 -50.642 0.623 40.228 0.736 -49.835 0.148 -135.824
5057.114 0.148 -135.82 0.736 -49.858 0.623 40.207 0.133 -50.698
          0.736 -49.858 0.148 -135.82 0.133 -50.698 0.623 40.207
          0.623 40.207 0.133 -50.698 0.148 -135.82 0.736 -49.858
          0.133 -50.698 0.623 40.207 0.736 -49.858 0.148 -135.82
5060.12 0.148 -135.817 0.736 -49.881 0.624 40.187 0.134 -50.753
          0.736 -49.881 0.148 -135.817 0.134 -50.753 0.624 40.187
          0.624 40.187 0.134 -50.753 0.148 -135.817 0.736 -49.881
          0.134 -50.753 0.624 40.187 0.736 -49.881 0.148 -135.817
5063.126 0.148 -135.814 0.736 -49.904 0.624 40.166 0.134 -50.808
          0.736 -49.904 0.148 -135.814 0.134 -50.808 0.624 40.166
          0.624 40.166 0.134 -50.808 0.148 -135.814 0.736 -49.904
          0.134 -50.808 0.624 40.166 0.736 -49.904 0.148 -135.814
5066.132 0.148 -135.81 0.736 -49.927 0.624 40.146 0.134 -50.864
          0.736 -49.927 0.148 -135.81 0.134 -50.864 0.624 40.146
          0.624 40.146 0.134 -50.864 0.148 -135.81 0.736 -49.927
          0.134 -50.864 0.624 40.146 0.736 -49.927 0.148 -135.81
5069.138 0.148 -135.807 0.736 -49.951 0.624 40.125 0.134 -50.919
          0.736 -49.951 0.148 -135.807 0.134 -50.919 0.624 40.125
          0.624 40.125 0.134 -50.919 0.148 -135.807 0.736 -49.951
          0.134 -50.919 0.624 40.125 0.736 -49.951 0.148 -135.807
5072.144 0.148 -135.803 0.735 -49.974 0.624 40.105 0.134 -50.974
          0.735 -49.974 0.148 -135.803 0.134 -50.974 0.624 40.105
          0.624 40.105 0.134 -50.974 0.148 -135.803 0.735 -49.974
          0.134 -50.974 0.624 40.105 0.735 -49.974 0.148 -135.803
5075.15 0.148 -135.799 0.735 -49.997 0.625 40.084 0.134 -51.03
          0.735 -49.997 0.148 -135.799 0.134 -51.03 0.625 40.084
          0.625 40.084 0.134 -51.03 0.148 -135.799 0.735 -49.997
          0.134 -51.03 0.625 40.084 0.735 -49.997 0.148 -135.799
5078.156 0.148 -135.796 0.735 -50.02 0.625 40.064 0.134 -51.085
          0.735 -50.02 0.148 -135.796 0.134 -51.085 0.625 40.064
          0.625 40.064 0.134 -51.085 0.148 -135.796 0.735 -50.02
          0.134 -51.085 0.625 40.064 0.735 -50.02 0.148 -135.796
5081.162 0.148 -135.792 0.735 -50.043 0.625 40.043 0.134 -51.14
          0.735 -50.043 0.148 -135.792 0.134 -51.14 0.625 40.043
          0.625 40.043 0.134 -51.14 0.148 -135.792 0.735 -50.043
          0.134 -51.14 0.625 40.043 0.735 -50.043 0.148 -135.792
5084.168 0.147 -135.788 0.735 -50.066 0.625 40.023 0.134 -51.195
          0.735 -50.066 0.147 -135.788 0.134 -51.195 0.625 40.023
          0.625 40.023 0.134 -51.195 0.147 -135.788 0.735 -50.066
          0.134 -51.195 0.625 40.023 0.735 -50.066 0.147 -135.788
5087.174 0.147 -135.784 0.734 -50.09 0.625 40.003 0.134 -51.251
          0.734 -50.09 0.147 -135.784 0.134 -51.251 0.625 40.003
          0.625 40.003 0.134 -51.251 0.147 -135.784 0.734 -50.09
          0.134 -51.251 0.625 40.003 0.734 -50.09 0.147 -135.784
5090.18 0.147 -135.78 0.734 -50.113 0.626 39.982 0.134 -51.306
          0.734 -50.113 0.147 -135.78 0.134 -51.306 0.626 39.982
          0.626 39.982 0.134 -51.306 0.147 -135.78 0.734 -50.113
          0.134 -51.306 0.626 39.982 0.734 -50.113 0.147 -135.78
5093.186 0.147 -135.777 0.734 -50.136 0.626 39.962 0.134 -51.361
          0.734 -50.136 0.147 -135.777 0.134 -51.361 0.626 39.962
          0.626 39.962 0.134 -51.361 0.147 -135.777 0.734 -50.136
          0.134 -51.361 0.626 39.962 0.734 -50.136 0.147 -135.777
5096.192 0.147 -135.772 0.734 -50.159 0.626 39.941 0.134 -51.416
          0.734 -50.159 0.147 -135.772 0.134 -51.416 0.626 39.941
          0.626 39.941 0.134 -51.416 0.147 -135.772 0.734 -50.159
          0.134 -51.416 0.626 39.941 0.734 -50.159 0.147 -135.772
5099.198 0.147 -135.768 0.734 -50.182 0.626 39.921 0.134 -51.471
          0.734 -50.182 0.147 -135.768 0.134 -51.471 0.626 39.921
          0.626 39.921 0.134 -51.471 0.147 -135.768 0.734 -50.182
          0.134 -51.471 0.626 39.921 0.734 -50.182 0.147 -135.768
5102.204 0.147 -135.764 0.734 -50.205 0.626 39.9 0.134 -51.526
          0.734 -50.205 0.147 -135.764 0.134 -51.526 0.626 39.9
          0.626 39.9 0.134 -51.526 0.147 -135.764 0.734 -50.205
          0.134 -51.526 0.626 39.9 0.734 -50.205 0.147 -135.764
5105.21 0.147 -135.76 0.733 -50.228 0.627 39.88 0.134 -51.581
          0.733 -50.228 0.147 -135.76 0.134 -51.581 0.627 39.88
          0.627 39.88 0.134 -51.581 0.147 -135.76 0.733 -50.228
          0.134 -51.581 0.627 39.88 0.733 -50.228 0.147 -135.76
5108.216 0.147 -135.756 0.733 -50.251 0.627 39.859 0.134 -51.636
          0.733 -50.251 0.147 -135.756 0.134 -51.636 0.627 39.859
          0.627 39.859 0.134 -51.636 0.147 -135.756 0.733 -50.251
          0.134 -51.636 0.627 39.859 0.733 -50.251 0.147 -135.756
5111.222 0.147 -135.752 0.733 -50.275 0.627 39.839 0.134 -51.691
          0.733 -50.275 0.147 -135.752 0.134 -51.691 0.627 39.839
          0.627 39.839 0.134 -51.691 0.147 -135.752 0.733 -50.275
          0.134 -51.691 0.627 39.839 0.733 -50.275 0.147 -135.752
5114.228 0.147 -135.747 0.733 -50.298 0.627 39.819 0.135 -51.746
          0.733 -50.298 0.147 -135.747 0.135 -51.746 0.627 39.819
          0.627 39.819 0.135 -51.746 0.147 -135.747 0.733 -50.298
          0.135 -51.746 0.627 39.819 0.733 -50.298 0.147 -135.747
5117.234 0.147 -135.743 0.733 -50.321 0.628 39.798 0.135 -51.801
          0.733 -50.321 0.147 -135.743 0.135 -51.801 0.628 39.798
          0.628 39.798 0.135 -51.801 0.147 -135.743 0.733 -50.321
          0.135 -51.801 0.628 39.798 0.733 -50.321 0.147 -135.743
5120.24 0.147 -135.738 0.732 -50.344 0.628 39.778 0.135 -51.856
          0.732 -50.344 0.147 -135.738 0.135 -51.856 0.628 39.778
          0.628 39.778 0.135 -51.856 0.147 -135.738 0.732 -50.344
          0.135 -51.856 0.628 39.778 0.732 -50.344 0.147 -135.738
5123.246 0.147 -135.734 0.732 -50.367 0.628 39.758 0.135 -51.911
          0.732 -50.367 0.147 -135.734 0.135 -51.911 0.628 39.758
          0.628 39.758 0.135 -51.911 0.147 -135.734 0.732 -50.367
          0.135 -51.911 0.628 39.758 0.732 -50.367 0.147 -135.734
5126.253 0.147 -135.729 0.732 -50.39 0.628 39.737 0.135 -51.965
          0.732 -50.39 0.147 -135.729 0.135 -51.965 0.628 39.737
          0.628 39.737 0.135 -51.965 0.147 -135.729 0.732 -50.39
          0.135 -51.965 0.628 39.737 0.732 -50.39 0.147 -135.729
5129.259 0.147 -135.725 0.732 -50.413 0.628 39.717 0.135 -52.02
          0.732 -50.413 0.147 -135.725 0.135 -52.02 0.628 39.717
          0.628 39.717 0.135 -52.02 0.147 -135.725 0.732 -50.413
          0.135 -52.02 0.628 39.717 0.732 -50.413 0.147 -135.725
5132.265 0.147 -135.72 0.732 -50.436 0.629 39.696 0.135 -52.075
          0.732 -50.436 0.147 -135.72 0.135 -52.075 0.629 39.696
          0.629 39.696 0.135 -52.075 0.147 -135.72 0.732 -50.436
          0.135 -52.075 0.629 39.696 0.732 -50.436 0.147 -135.72
5135.271 0.147 -135.715 0.732 -50.459 0.629 39.676 0.135 -52.13
          0.732 -50.459 0.147 -135.715 0.135 -52.13 0.629 39.676
          0.629 39.676 0.135 -52.13 0.147 -135.715 0.732 -50.459
          0.135 -52.13 0.629 39.676 0.732 -50.459 0.147 -135.715
5138.277 0.147 -135.71 0.731 -50.482 0.629 39.656 0.135 -52.184
          0.731 -50.482 0.147 -135.71 0.135 -52.184 0.629 39.656
          0.629 39.656 0.135 -52.184 0.147 -135.71 0.731 -50.482
          0.135 -52.184 0.629 39.656 0.731 -50.482 0.147 -135.71
5141.283 0.147 -135.706 0.731 -50.505 0.629 39.635 0.135 -52.239
          0.731 -50.505 0.147 -135.706 0.135 -52.239 0.629 39.635
          0.629 39.635 0.135 -52.239 0.147 -135.706 0.731 -50.505
          0.135 -52.239 0.629 39.635 0.731 -50.505 0.147 -135.706
5144.289 0.147 -135.701 0.731 -50.528 0.629 39.615 0.135 -52.294
          0.731 -50.528 0.147 -135.701 0.135 -52.294 0.629 39.615
          0.629 39.615 0.135 -52.294 0.147 -135.701 0.731 -50.528
          0.135 -52.294 0.629 39.615 0.731 -50.528 0.147 -135.701
5147.295 0.147 -135.696 0.731 -50.551 0.63 39.595 0.135 -52.349
          0.731 -50.551 0.147 -135.696 0.135 -52.349 0.63 39.595
          0.63 39.595 0.135 -52.349 0.147 -135.696 0.731 -50.551
          0.135 -52.349 0.63 39.595 0.731 -50.551 0.147 -135.696
5150.301 0.147 -135.691 0.731 -50.575 0.63 39.574 0.135 -52.403
          0.731 -50.575 0.147 -135.691 0.135 -52.403 0.63 39.574
          0.63 39.574 0.135 -52.403 0.147 -135.691 0.731 -50.575
          0.135 -52.403 0.63 39.574 0.731 -50.575 0.147 -135.691
5153.307 0.147 -135.686 0.73 -50.598 0.63 39.554 0.135 -52.458
          0.73 -50.598 0.147 -135.686 0.135 -52.458 0.63 39.554
          0.63 39.554 0.135 -52.458 0.147 -135.686 0.73 -50.598
          0.135 -52.458 0.63 39.554 0.73 -50.598 0.147 -135.686
5156.313 0.147 -135.681 0.73 -50.621 0.63 39.534 0.135 -52.512
          0.73 -50.621 0.147 -135.681 0.135 -52.512 0.63 39.534
          0.63 39.534 0.135 -52.512 0.147 -135.681 0.73 -50.621
          0.135 -52.512 0.63 39.534 0.73 -50.621 0.147 -135.681
5159.319 0.147 -135.675 0.73 -50.644 0.63 39.513 0.135 -52.567
          0.73 -50.644 0.147 -135.675 0.135 -52.567 0.63 39.513
          0.63 39.513 0.135 -52.567 0.147 -135.675 0.73 -50.644
          0.135 -52.567 0.63 39.513 0.73 -50.644 0.147 -135.675
5162.325 0.147 -135.67 0.73 -50.667 0.631 39.493 0.135 -52.621
          0.73 -50.667 0.147 -135.67 0.135 -52.621 0.631 39.493
          0.631 39.493 0.135 -52.621 0.147 -135.67 0.73 -50.667
          0.135 -52.621 0.631 39.493 0.73 -50.667 0.147 -135.67
5165.331 0.147 -135.665 0.73 -50.69 0.631 39.473 0.135 -52.676
          0.73 -50.69 0.147 -135.665 0.135 -52.676 0.631 39.473
          0.631 39.473 0.135 -52.676 0.147 -135.665 0.73 -50.69
          0.135 -52.676 0.631 39.473 0.73 -50.69 0.147 -135.665
5168.337 0.147 -135.66 0.73 -50.713 0.631 39.453 0.136 -52.73
          0.73 -50.713 0.147 -135.66 0.136 -52.73 0.631 39.453
          0.631 39.453 0.136 -52.73 0.147 -135.66 0.73 -50.713
          0.136 -52.73 0.631 39.453 0.73 -50.713 0.147 -135.66
5171.343 0.147 -135.654 0.729 -50.736 0.631 39.432 0.136 -52.785
          0.729 -50.736 0.147 -135.654 0.136 -52.785 0.631 39.432
          0.631 39.432 0.136 -52.785 0.147 -135.654 0.729 -50.736
          0.136 -52.785 0.631 39.432 0.729 -50.736 0.147 -135.654
5174.349 0.147 -135.649 0.729 -50.759 0.631 39.412 0.136 -52.839
          0.729 -50.759 0.147 -135.649 0.136 -52.839 0.631 39.412
          0.631 39.412 0.136 -52.839 0.147 -135.649 0.729 -50.759
          0.136 -52.839 0.631 39.412 0.729 -50.759 0.147 -135.649
5177.355 0.147 -135.643 0.729 -50.782 0.632 39.392 0.136 -52.894
          0.729 -50.782 0.147 -135.643 0.136 -52.894 0.632 39.392
          0.632 39.392 0.136 -52.894 0.147 -135.643 0.729 -50.782
          0.136 -52.894 0.632 39.392 0.729 -50.782 0.147 -135.643
5180.361 0.147 -135.638 0.729 -50.805 0.632 39.372 0.136 -52.948
          0.729 -50.805 0.147 -135.638 0.136 -52.948 0.632 39.372
          0.632 39.372 0.136 -52.948 0.147 -135.638 0.729 -50.805
          0.136 -52.948 0.632 39.372 0.729 -50.805 0.147 -135.638
5183.367 0.147 -135.632 0.729 -50.828 0.632 39.351 0.136 -53.002
          0.729 -50.828 0.147 -135.632 0.136 -53.002 0.632 39.351
          0.632 39.351 0.136 -53.002 0.147 -135.632 0.729 -50.828
          0.136 -53.002 0.632 39.351 0.729 -50.828 0.147 -135.632
5186.373 0.147 -135.626 0.728 -50.851 0.632 39.331 0.136 -53.057
          0.728 -50.851 0.147 -135.626 0.136 -53.057 0.632 39.331
          0.632 39.331 0.136 -53.057 0.147 -135.626 0.728 -50.851
          0.136 -53.057 0.632 39.331 0.728 -50.851 0.147 -135.626
5189.379 0.147 -135.621 0.728 -50.874 0.632 39.311 0.136 -53.111
          0.728 -50.874 0.147 -135.621 0.136 -53.111 0.632 39.311
          0.632 39.311 0.136 -53.111 0.147 -135.621 0.728 -50.874
          0.136 -53.111 0.632 39.311 0.728 -50.874 0.147 -135.621
5192.385 0.147 -135.615 0.728 -50.897 0.633 39.291 0.136 -53.165
          0.728 -50.897 0.147 -135.615 0.136 -53.165 0.633 39.291
          0.633 39.291 0.136 -53.165 0.147 -135.615 0.728 -50.897
          0.136 -53.165 0.633 39.291 0.728 -50.897 0.147 -135.615
5195.391 0.147 -135.609 0.728 -50.92 0.633 39.27 0.136 -53.219
          0.728 -50.92 0.147 -135.609 0.136 -53.219 0.633 39.27
          0.633 39.27 0.136 -53.219 0.147 -135.609 0.728 -50.92
          0.136 -53.219 0.633 39.27 0.728 -50.92 0.147 -135.609
5198.397 0.146 -135.603 0.728 -50.943 0.633 39.25 0.136 -53.274
          0.728 -50.943 0.146 -135.603 0.136 -53.274 0.633 39.25
          0.633 39.25 0.136 -53.274 0.146 -135.603 0.728 -50.943
          0.136 -53.274 0.633 39.25 0.728 -50.943 0.146 -135.603
5201.403 0.146 -135.597 0.728 -50.966 0.633 39.23 0.136 -53.328
          0.728 -50.966 0.146 -135.597 0.136 -53.328 0.633 39.23
          0.633 39.23 0.136 -53.328 0.146 -135.597 0.728 -50.966
          0.136 -53.328 0.633 39.23 0.728 -50.966 0.146 -135.597
5204.409 0.146 -135.591 0.727 -50.989 0.633 39.21 0.136 -53.382
          0.727 -50.989 0.146 -135.591 0.136 -53.382 0.633 39.21
          0.633 39.21 0.136 -53.382 0.146 -135.591 0.727 -50.989
          0.136 -53.382 0.633 39.21 0.727 -50.989 0.146 -135.591
5207.415 0.146 -135.585 0.727 -51.011 0.634 39.19 0.136 -53.436
          0.727 -51.011 0.146 -135.585 0.136 -53.436 0.634 39.19
          0.634 39.19 0.136 -53.436 0.146 -135.585 0.727 -51.011
          0.136 -53.436 0.634 39.19 0.727 -51.011 0.146 -135.585
5210.421 0.146 -135.579 0.727 -51.034 0.634 39.169 0.136 -53.49
          0.727 -51.034 0.146 -135.579 0.136 -53.49 0.634 39.169
          0.634 39.169 0.136 -53.49 0.146 -135.579 0.727 -51.034
          0.136 -53.49 0.634 39.169 0.727 -51.034 0.146 -135.579
5213.427 0.146 -135.573 0.727 -51.057 0.634 39.149 0.136 -53.544
          0.727 -51.057 0.146 -135.573 0.136 -53.544 0.634 39.149
          0.634 39.149 0.136 -53.544 0.146 -135.573 0.727 -51.057
          0.136 -53.544 0.634 39.149 0.727 -51.057 0.146 -135.573
5216.433 0.146 -135.567 0.727 -51.08 0.634 39.129 0.136 -53.599
          0.727 -51.08 0.146 -135.567 0.136 -53.599 0.634 39.129
          0.634 39.129 0.136 -53.599 0.146 -135.567 0.727 -51.08
          0.136 -53.599 0.634 39.129 0.727 -51.08 0.146 -135.567
5219.439 0.146 -135.56 0.726 -51.103 0.634 39.109 0.136 -53.653
          0.726 -51.103 0.146 -135.56 0.136 -53.653 0.634 39.109
          0.634 39.109 0.136 -53.653 0.146 -135.56 0.726 -51.103
          0.136 -53.653 0.634 39.109 0.726 -51.103 0.146 -135.56
5222.445 0.146 -135.554 0.726 -51.126 0.635 39.089 0.137 -53.707
          0.726 -51.126 0.146 -135.554 0.137 -53.707 0.635 39.089
          0.635 39.089 0.137 -53.707 0.146 -135.554 0.726 -51.126
          0.137 -53.707 0.635 39.089 0.726 -51.126 0.146 -135.554
5225.451 0.146 -135.548 0.726 -51.149 0.635 39.069 0.137 -53.761
          0.726 -51.149 0.146 -135.548 0.137 -53.761 0.635 39.069
          0.635 39.069 0.137 -53.761 0.146 -135.548 0.726 -51.149
          0.137 -53.761 0.635 39.069 0.726 -51.149 0.146 -135.548
