# MHZ S MA R 50

1000 0.066 -121.304 0.904 -22.218 0.411 67.429 0.044 25.005
          0.904 -22.218 0.066 -121.304 0.044 25.005 0.411 67.429
          0.411 67.429 0.044 25.005 0.066 -121.304 0.904 -22.218
          0.044 25.005 0.411 67.429 0.904 -22.218 0.066 -121.304
1005.005 0.067 -121.463 0.903 -22.316 0.413 67.33 0.044 24.732
          0.903 -22.316 0.067 -121.463 0.044 24.732 0.413 67.33
          0.413 67.33 0.044 24.732 0.067 -121.463 0.903 -22.316
          0.044 24.732 0.413 67.33 0.903 -22.316 0.067 -121.463
1010.01 0.067 -121.622 0.902 -22.413 0.415 67.232 0.045 24.46
          0.902 -22.413 0.067 -121.622 0.045 24.46 0.415 67.232
          0.415 67.232 0.045 24.46 0.067 -121.622 0.902 -22.413
          0.045 24.46 0.415 67.232 0.902 -22.413 0.067 -121.622
1015.015 0.067 -121.78 0.901 -22.511 0.416 67.133 0.045 24.188
          0.901 -22.511 0.067 -121.78 0.045 24.188 0.416 67.133
          0.416 67.133 0.045 24.188 0.067 -121.78 0.901 -22.511
          0.045 24.188 0.416 67.133 0.901 -22.511 0.067 -121.78
1020.02 0.067 -121.938 0.9 -22.608 0.418 67.035 0.045 23.918
          0.9 -22.608 0.067 -121.938 0.045 23.918 0.418 67.035
          0.418 67.035 0.045 23.918 0.067 -121.938 0.9 -22.608
          0.045 23.918 0.418 67.035 0.9 -22.608 0.067 -121.938
1025.025 0.067 -122.095 0.9 -22.705 0.42 66.937 0.045 23.647
          0.9 -22.705 0.067 -122.095 0.045 23.647 0.42 66.937
          0.42 66.937 0.045 23.647 0.067 -122.095 0.9 -22.705
          0.045 23.647 0.42 66.937 0.9 -22.705 0.067 -122.095
1030.03 0.068 -122.252 0.899 -22.802 0.421 66.839 0.045 23.378
          0.899 -22.802 0.068 -122.252 0.045 23.378 0.421 66.839
          0.421 66.839 0.045 23.378 0.068 -122.252 0.899 -22.802
          0.045 23.378 0.421 66.839 0.899 -22.802 0.068 -122.252
1035.035 0.068 -122.408 0.898 -22.899 0.423 66.741 0.046 23.109
          0.898 -22.899 0.068 -122.408 0.046 23.109 0.423 66.741
          0.423 66.741 0.046 23.109 0.068 -122.408 0.898 -22.899
          0.046 23.109 0.423 66.741 0.898 -22.899 0.068 -122.408
1040.04 0.068 -122.564 0.897 -22.995 0.425 66.644 0.046 22.84
          0.897 -22.995 0.068 -122.564 0.046 22.84 0.425 66.644
          0.425 66.644 0.046 22.84 0.068 -122.564 0.897 -22.995
          0.046 22.84 0.425 66.644 0.897 -22.995 0.068 -122.564
1045.045 0.068 -122.719 0.896 -23.092 0.426 66.546 0.046 22.572
          0.896 -23.092 0.068 -122.719 0.046 22.572 0.426 66.546
          0.426 66.546 0.046 22.572 0.068 -122.719 0.896 -23.092
          0.046 22.572 0.426 66.546 0.896 -23.092 0.068 -122.719
1050.05 0.068 -122.874 0.896 -23.188 0.428 66.449 0.046 22.305
          0.896 -23.188 0.068 -122.874 0.046 22.305 0.428 66.449
          0.428 66.449 0.046 22.305 0.068 -122.874 0.896 -23.188
          0.046 22.305 0.428 66.449 0.896 -23.188 0.068 -122.874
1055.055 0.069 -123.028 0.895 -23.284 0.43 66.352 0.047 22.039
          0.895 -23.284 0.069 -123.028 0.047 22.039 0.43 66.352
          0.43 66.352 0.047 22.039 0.069 -123.028 0.895 -23.284
          0.047 22.039 0.43 66.352 0.895 -23.284 0.069 -123.028
1060.06 0.069 -123.181 0.894 -23.38 0.431 66.255 0.047 21.773
          0.894 -23.38 0.069 -123.181 0.047 21.773 0.431 66.255
          0.431 66.255 0.047 21.773 0.069 -123.181 0.894 -23.38
          0.047 21.773 0.431 66.255 0.894 -23.38 0.069 -123.181
1065.065 0.069 -123.335 0.893 -23.476 0.433 66.158 0.047 21.508
          0.893 -23.476 0.069 -123.335 0.047 21.508 0.433 66.158
          0.433 66.158 0.047 21.508 0.069 -123.335 0.893 -23.476
          0.047 21.508 0.433 66.158 0.893 -23.476 0.069 -123.335
1070.07 0.069 -123.487 0.892 -23.571 0.435 66.062 0.047 21.244
          0.892 -23.571 0.069 -123.487 0.047 21.244 0.435 66.062
          0.435 66.062 0.047 21.244 0.069 -123.487 0.892 -23.571
          0.047 21.244 0.435 66.062 0.892 -23.571 0.069 -123.487
1075.075 0.069 -123.64 0.891 -23.667 0.436 65.966 0.047 20.98
          0.891 -23.667 0.069 -123.64 0.047 20.98 0.436 65.966
          0.436 65.966 0.047 20.98 0.069 -123.64 0.891 -23.667
          0.047 20.98 0.436 65.966 0.891 -23.667 0.069 -123.64
1080.08 0.069 -123.791 0.891 -23.762 0.438 65.869 0.048 20.716
          0.891 -23.762 0.069 -123.791 0.048 20.716 0.438 65.869
          0.438 65.869 0.048 20.716 0.069 -123.791 0.891 -23.762
          0.048 20.716 0.438 65.869 0.891 -23.762 0.069 -123.791
1085.085 0.07 -123.942 0.89 -23.857 0.44 65.773 0.048 20.454
          0.89 -23.857 0.07 -123.942 0.048 20.454 0.44 65.773
          0.44 65.773 0.048 20.454 0.07 -123.942 0.89 -23.857
          0.048 20.454 0.44 65.773 0.89 -23.857 0.07 -123.942
1090.09 0.07 -124.093 0.889 -23.952 0.441 65.678 0.048 20.192
          0.889 -23.952 0.07 -124.093 0.048 20.192 0.441 65.678
          0.441 65.678 0.048 20.192 0.07 -124.093 0.889 -23.952
          0.048 20.192 0.441 65.678 0.889 -23.952 0.07 -124.093
1095.095 0.07 -124.243 0.888 -24.047 0.443 65.582 0.048 19.931
          0.888 -24.047 0.07 -124.243 0.048 19.931 0.443 65.582
          0.443 65.582 0.048 19.931 0.07 -124.243 0.888 -24.047
          0.048 19.931 0.443 65.582 0.888 -24.047 0.07 -124.243
1100.1 0.07 -124.393 0.887 -24.141 0.445 65.487 0.048 19.67
          0.887 -24.141 0.07 -124.393 0.048 19.67 0.445 65.487
          0.445 65.487 0.048 19.67 0.07 -124.393 0.887 -24.141
          0.048 19.67 0.445 65.487 0.887 -24.141 0.07 -124.393
1105.105 0.07 -124.542 0.886 -24.236 0.446 65.391 0.049 19.41
          0.886 -24.236 0.07 -124.542 0.049 19.41 0.446 65.391
          0.446 65.391 0.049 19.41 0.07 -124.542 0.886 -24.236
          0.049 19.41 0.446 65.391 0.886 -24.236 0.07 -124.542
1110.11 0.07 -124.691 0.886 -24.33 0.448 65.296 0.049 19.151
          0.886 -24.33 0.07 -124.691 0.049 19.151 0.448 65.296
          0.448 65.296 0.049 19.151 0.07 -124.691 0.886 -24.33
          0.049 19.151 0.448 65.296 0.886 -24.33 0.07 -124.691
1115.115 0.071 -124.84 0.885 -24.424 0.449 65.201 0.049 18.892
          0.885 -24.424 0.071 -124.84 0.049 18.892 0.449 65.201
          0.449 65.201 0.049 18.892 0.071 -124.84 0.885 -24.424
          0.049 18.892 0.449 65.201 0.885 -24.424 0.071 -124.84
1120.12 0.071 -124.987 0.884 -24.518 0.451 65.107 0.049 18.634
          0.884 -24.518 0.071 -124.987 0.049 18.634 0.451 65.107
          0.451 65.107 0.049 18.634 0.071 -124.987 0.884 -24.518
          0.049 18.634 0.451 65.107 0.884 -24.518 0.071 -124.987
1125.125 0.071 -125.135 0.883 -24.611 0.453 65.012 0.049 18.376
          0.883 -24.611 0.071 -125.135 0.049 18.376 0.453 65.012
          0.453 65.012 0.049 18.376 0.071 -125.135 0.883 -24.611
          0.049 18.376 0.453 65.012 0.883 -24.611 0.071 -125.135
1130.13 0.071 -125.282 0.882 -24.705 0.454 64.918 0.05 18.12
          0.882 -24.705 0.071 -125.282 0.05 18.12 0.454 64.918
          0.454 64.918 0.05 18.12 0.071 -125.282 0.882 -24.705
          0.05 18.12 0.454 64.918 0.882 -24.705 0.071 -125.282
1135.135 0.071 -125.428 0.881 -24.798 0.456 64.824 0.05 17.863
          0.881 -24.798 0.071 -125.428 0.05 17.863 0.456 64.824
          0.456 64.824 0.05 17.863 0.071 -125.428 0.881 -24.798
          0.05 17.863 0.456 64.824 0.881 -24.798 0.071 -125.428
1140.14 0.071 -125.574 0.881 -24.891 0.457 64.73 0.05 17.608
          0.881 -24.891 0.071 -125.574 0.05 17.608 0.457 64.73
          0.457 64.73 0.05 17.608 0.071 -125.574 0.881 -24.891
          0.05 17.608 0.457 64.73 0.881 -24.891 0.071 -125.574
1145.145 0.072 -125.719 0.88 -24.984 0.459 64.636 0.05 17.353
          0.88 -24.984 0.072 -125.719 0.05 17.353 0.459 64.636
          0.459 64.636 0.05 17.353 0.072 -125.719 0.88 -24.984
          0.05 17.353 0.459 64.636 0.88 -24.984 0.072 -125.719
1150.15 0.072 -125.864 0.879 -25.077 0.461 64.542 0.05 17.099
          0.879 -25.077 0.072 -125.864 0.05 17.099 0.461 64.542
          0.461 64.542 0.05 17.099 0.072 -125.864 0.879 -25.077
          0.05 17.099 0.461 64.542 0.879 -25.077 0.072 -125.864
1155.155 0.072 -126.009 0.878 -25.17 0.462 64.449 0.051 16.845
          0.878 -25.17 0.072 -126.009 0.051 16.845 0.462 64.449
          0.462 64.449 0.051 16.845 0.072 -126.009 0.878 -25.17
          0.051 16.845 0.462 64.449 0.878 -25.17 0.072 -126.009
1160.16 0.072 -126.153 0.877 -25.262 0.464 64.356 0.051 16.592
          0.877 -25.262 0.072 -126.153 0.051 16.592 0.464 64.356
          0.464 64.356 0.051 16.592 0.072 -126.153 0.877 -25.262
          0.051 16.592 0.464 64.356 0.877 -25.262 0.072 -126.153
1165.165 0.072 -126.296 0.876 -25.355 0.465 64.263 0.051 16.34
          0.876 -25.355 0.072 -126.296 0.051 16.34 0.465 64.263
          0.465 64.263 0.051 16.34 0.072 -126.296 0.876 -25.355
          0.051 16.34 0.465 64.263 0.876 -25.355 0.072 -126.296
1170.17 0.072 -126.439 0.875 -25.447 0.467 64.17 0.051 16.088
          0.875 -25.447 0.072 -126.439 0.051 16.088 0.467 64.17
          0.467 64.17 0.051 16.088 0.072 -126.439 0.875 -25.447
          0.051 16.088 0.467 64.17 0.875 -25.447 0.072 -126.439
1175.175 0.073 -126.582 0.875 -25.539 0.468 64.077 0.051 15.837
          0.875 -25.539 0.073 -126.582 0.051 15.837 0.468 64.077
          0.468 64.077 0.051 15.837 0.073 -126.582 0.875 -25.539
          0.051 15.837 0.468 64.077 0.875 -25.539 0.073 -126.582
1180.18 0.073 -126.724 0.874 -25.63 0.47 63.985 0.052 15.587
          0.874 -25.63 0.073 -126.724 0.052 15.587 0.47 63.985
          0.47 63.985 0.052 15.587 0.073 -126.724 0.874 -25.63
          0.052 15.587 0.47 63.985 0.874 -25.63 0.073 -126.724
1185.185 0.073 -126.865 0.873 -25.722 0.472 63.892 0.052 15.337
          0.873 -25.722 0.073 -126.865 0.052 15.337 0.472 63.892
          0.472 63.892 0.052 15.337 0.073 -126.865 0.873 -25.722
          0.052 15.337 0.472 63.892 0.873 -25.722 0.073 -126.865
1190.19 0.073 -127.007 0.872 -25.814 0.473 63.8 0.052 15.088
          0.872 -25.814 0.073 -127.007 0.052 15.088 0.473 63.8
          0.473 63.8 0.052 15.088 0.073 -127.007 0.872 -25.814
          0.052 15.088 0.473 63.8 0.872 -25.814 0.073 -127.007
1195.195 0.073 -127.147 0.871 -25.905 0.475 63.708 0.052 14.84
          0.871 -25.905 0.073 -127.147 0.052 14.84 0.475 63.708
          0.475 63.708 0.052 14.84 0.073 -127.147 0.871 -25.905
          0.052 14.84 0.475 63.708 0.871 -25.905 0.073 -127.147
1200.2 0.073 -127.288 0.87 -25.996 0.476 63.616 0.052 14.592
          0.87 -25.996 0.073 -127.288 0.052 14.592 0.476 63.616
          0.476 63.616 0.052 14.592 0.073 -127.288 0.87 -25.996
          0.052 14.592 0.476 63.616 0.87 -25.996 0.073 -127.288
1205.205 0.074 -127.427 0.869 -26.087 0.478 63.525 0.052 14.345
          0.869 -26.087 0.074 -127.427 0.052 14.345 0.478 63.525
          0.478 63.525 0.052 14.345 0.074 -127.427 0.869 -26.087
          0.052 14.345 0.478 63.525 0.869 -26.087 0.074 -127.427
1210.21 0.074 -127.567 0.869 -26.178 0.479 63.433 0.053 14.098
          0.869 -26.178 0.074 -127.567 0.053 14.098 0.479 63.433
          0.479 63.433 0.053 14.098 0.074 -127.567 0.869 -26.178
          0.053 14.098 0.479 63.433 0.869 -26.178 0.074 -127.567
1215.215 0.074 -127.705 0.868 -26.268 0.481 63.342 0.053 13.852
          0.868 -26.268 0.074 -127.705 0.053 13.852 0.481 63.342
          0.481 63.342 0.053 13.852 0.074 -127.705 0.868 -26.268
          0.053 13.852 0.481 63.342 0.868 -26.268 0.074 -127.705
1220.22 0.074 -127.844 0.867 -26.358 0.482 63.251 0.053 13.607
          0.867 -26.358 0.074 -127.844 0.053 13.607 0.482 63.251
          0.482 63.251 0.053 13.607 0.074 -127.844 0.867 -26.358
          0.053 13.607 0.482 63.251 0.867 -26.358 0.074 -127.844
1225.225 0.074 -127.982 0.866 -26.449 0.484 63.16 0.053 13.362
          0.866 -26.449 0.074 -127.982 0.053 13.362 0.484 63.16
          0.484 63.16 0.053 13.362 0.074 -127.982 0.866 -26.449
          0.053 13.362 0.484 63.16 0.866 -26.449 0.074 -127.982
1230.23 0.074 -128.119 0.865 -26.539 0.485 63.069 0.053 13.118
          0.865 -26.539 0.074 -128.119 0.053 13.118 0.485 63.069
          0.485 63.069 0.053 13.118 0.074 -128.119 0.865 -26.539
          0.053 13.118 0.485 63.069 0.865 -26.539 0.074 -128.119
1235.235 0.074 -128.256 0.864 -26.629 0.487 62.979 0.054 12.875
          0.864 -26.629 0.074 -128.256 0.054 12.875 0.487 62.979
          0.487 62.979 0.054 12.875 0.074 -128.256 0.864 -26.629
          0.054 12.875 0.487 62.979 0.864 -26.629 0.074 -128.256
1240.24 0.074 -128.393 0.863 -26.718 0.488 62.888 0.054 12.632
          0.863 -26.718 0.074 -128.393 0.054 12.632 0.488 62.888
          0.488 62.888 0.054 12.632 0.074 -128.393 0.863 -26.718
          0.054 12.632 0.488 62.888 0.863 -26.718 0.074 -128.393
1245.245 0.075 -128.529 0.862 -26.808 0.49 62.798 0.054 12.39
          0.862 -26.808 0.075 -128.529 0.054 12.39 0.49 62.798
          0.49 62.798 0.054 12.39 0.075 -128.529 0.862 -26.808
          0.054 12.39 0.49 62.798 0.862 -26.808 0.075 -128.529
1250.25 0.075 -128.664 0.862 -26.897 0.491 62.708 0.054 12.149
          0.862 -26.897 0.075 -128.664 0.054 12.149 0.491 62.708
          0.491 62.708 0.054 12.149 0.075 -128.664 0.862 -26.897
          0.054 12.149 0.491 62.708 0.862 -26.897 0.075 -128.664
1255.255 0.075 -128.8 0.861 -26.986 0.493 62.618 0.054 11.908
          0.861 -26.986 0.075 -128.8 0.054 11.908 0.493 62.618
          0.493 62.618 0.054 11.908 0.075 -128.8 0.861 -26.986
          0.054 11.908 0.493 62.618 0.861 -26.986 0.075 -128.8
1260.26 0.075 -128.934 0.86 -27.075 0.494 62.529 0.055 11.668
          0.86 -27.075 0.075 -128.934 0.055 11.668 0.494 62.529
          0.494 62.529 0.055 11.668 0.075 -128.934 0.86 -27.075
          0.055 11.668 0.494 62.529 0.86 -27.075 0.075 -128.934
1265.265 0.075 -129.068 0.859 -27.164 0.496 62.439 0.055 11.428
          0.859 -27.164 0.075 -129.068 0.055 11.428 0.496 62.439
          0.496 62.439 0.055 11.428 0.075 -129.068 0.859 -27.164
          0.055 11.428 0.496 62.439 0.859 -27.164 0.075 -129.068
1270.27 0.075 -129.202 0.858 -27.253 0.497 62.35 0.055 11.189
          0.858 -27.253 0.075 -129.202 0.055 11.189 0.497 62.35
          0.497 62.35 0.055 11.189 0.075 -129.202 0.858 -27.253
          0.055 11.189 0.497 62.35 0.858 -27.253 0.075 -129.202
1275.275 0.075 -129.336 0.857 -27.341 0.499 62.261 0.055 10.951
          0.857 -27.341 0.075 -129.336 0.055 10.951 0.499 62.261
          0.499 62.261 0.055 10.951 0.075 -129.336 0.857 -27.341
          0.055 10.951 0.499 62.261 0.857 -27.341 0.075 -129.336
1280.28 0.076 -129.468 0.856 -27.43 0.5 62.172 0.055 10.713
          0.856 -27.43 0.076 -129.468 0.055 10.713 0.5 62.172
          0.5 62.172 0.055 10.713 0.076 -129.468 0.856 -27.43
          0.055 10.713 0.5 62.172 0.856 -27.43 0.076 -129.468
1285.285 0.076 -129.601 0.855 -27.518 0.502 62.083 0.056 10.476
          0.855 -27.518 0.076 -129.601 0.056 10.476 0.502 62.083
          0.502 62.083 0.056 10.476 0.076 -129.601 0.855 -27.518
          0.056 10.476 0.502 62.083 0.855 -27.518 0.076 -129.601
1290.29 0.076 -129.733 0.855 -27.606 0.503 61.995 0.056 10.24
          0.855 -27.606 0.076 -129.733 0.056 10.24 0.503 61.995
          0.503 61.995 0.056 10.24 0.076 -129.733 0.855 -27.606
          0.056 10.24 0.503 61.995 0.855 -27.606 0.076 -129.733
1295.295 0.076 -129.864 0.854 -27.694 0.505 61.907 0.056 10.004
          0.854 -27.694 0.076 -129.864 0.056 10.004 0.505 61.907
          0.505 61.907 0.056 10.004 0.076 -129.864 0.854 -27.694
          0.056 10.004 0.505 61.907 0.854 -27.694 0.076 -129.864
1300.3 0.076 -129.995 0.853 -27.781 0.506 61.818 0.056 9.769
          0.853 -27.781 0.076 -129.995 0.056 9.769 0.506 61.818
          0.506 61.818 0.056 9.769 0.076 -129.995 0.853 -27.781
          0.056 9.769 0.506 61.818 0.853 -27.781 0.076 -129.995
1305.305 0.076 -130.126 0.852 -27.869 0.508 61.73 0.056 9.534
          0.852 -27.869 0.076 -130.126 0.056 9.534 0.508 61.73
          0.508 61.73 0.056 9.534 0.076 -130.126 0.852 -27.869
          0.056 9.534 0.508 61.73 0.852 -27.869 0.076 -130.126
1310.31 0.076 -130.256 0.851 -27.956 0.509 61.643 0.057 9.301
          0.851 -27.956 0.076 -130.256 0.057 9.301 0.509 61.643
          0.509 61.643 0.057 9.301 0.076 -130.256 0.851 -27.956
          0.057 9.301 0.509 61.643 0.851 -27.956 0.076 -130.256
1315.315 0.076 -130.386 0.85 -28.043 0.511 61.555 0.057 9.067
          0.85 -28.043 0.076 -130.386 0.057 9.067 0.511 61.555
          0.511 61.555 0.057 9.067 0.076 -130.386 0.85 -28.043
          0.057 9.067 0.511 61.555 0.85 -28.043 0.076 -130.386
1320.32 0.076 -130.515 0.849 -28.13 0.512 61.467 0.057 8.835
          0.849 -28.13 0.076 -130.515 0.057 8.835 0.512 61.467
          0.512 61.467 0.057 8.835 0.076 -130.515 0.849 -28.13
          0.057 8.835 0.512 61.467 0.849 -28.13 0.076 -130.515
1325.325 0.077 -130.644 0.848 -28.217 0.513 61.38 0.057 8.603
          0.848 -28.217 0.077 -130.644 0.057 8.603 0.513 61.38
          0.513 61.38 0.057 8.603 0.077 -130.644 0.848 -28.217
          0.057 8.603 0.513 61.38 0.848 -28.217 0.077 -130.644
1330.33 0.077 -130.772 0.847 -28.304 0.515 61.293 0.057 8.371
          0.847 -28.304 0.077 -130.772 0.057 8.371 0.515 61.293
          0.515 61.293 0.057 8.371 0.077 -130.772 0.847 -28.304
          0.057 8.371 0.515 61.293 0.847 -28.304 0.077 -130.772
1335.335 0.077 -130.9 0.847 -28.39 0.516 61.206 0.057 8.14
          0.847 -28.39 0.077 -130.9 0.057 8.14 0.516 61.206
          0.516 61.206 0.057 8.14 0.077 -130.9 0.847 -28.39
          0.057 8.14 0.516 61.206 0.847 -28.39 0.077 -130.9
1340.34 0.077 -131.028 0.846 -28.476 0.518 61.119 0.058 7.91
          0.846 -28.476 0.077 -131.028 0.058 7.91 0.518 61.119
          0.518 61.119 0.058 7.91 0.077 -131.028 0.846 -28.476
          0.058 7.91 0.518 61.119 0.846 -28.476 0.077 -131.028
1345.345 0.077 -131.155 0.845 -28.562 0.519 61.033 0.058 7.681
          0.845 -28.562 0.077 -131.155 0.058 7.681 0.519 61.033
          0.519 61.033 0.058 7.681 0.077 -131.155 0.845 -28.562
          0.058 7.681 0.519 61.033 0.845 -28.562 0.077 -131.155
1350.35 0.077 -131.281 0.844 -28.648 0.521 60.946 0.058 7.452
          0.844 -28.648 0.077 -131.281 0.058 7.452 0.521 60.946
          0.521 60.946 0.058 7.452 0.077 -131.281 0.844 -28.648
          0.058 7.452 0.521 60.946 0.844 -28.648 0.077 -131.281
1355.355 0.077 -131.407 0.843 -28.734 0.522 60.86 0.058 7.224
          0.843 -28.734 0.077 -131.407 0.058 7.224 0.522 60.86
          0.522 60.86 0.058 7.224 0.077 -131.407 0.843 -28.734
          0.058 7.224 0.522 60.86 0.843 -28.734 0.077 -131.407
1360.36 0.077 -131.533 0.842 -28.82 0.523 60.774 0.058 6.996
          0.842 -28.82 0.077 -131.533 0.058 6.996 0.523 60.774
          0.523 60.774 0.058 6.996 0.077 -131.533 0.842 -28.82
          0.058 6.996 0.523 60.774 0.842 -28.82 0.077 -131.533
1365.365 0.077 -131.658 0.841 -28.905 0.525 60.688 0.059 6.769
          0.841 -28.905 0.077 -131.658 0.059 6.769 0.525 60.688
          0.525 60.688 0.059 6.769 0.077 -131.658 0.841 -28.905
          0.059 6.769 0.525 60.688 0.841 -28.905 0.077 -131.658
1370.37 0.078 -131.783 0.84 -28.99 0.526 60.603 0.059 6.543
          0.84 -28.99 0.078 -131.783 0.059 6.543 0.526 60.603
          0.526 60.603 0.059 6.543 0.078 -131.783 0.84 -28.99
          0.059 6.543 0.526 60.603 0.84 -28.99 0.078 -131.783
1375.375 0.078 -131.907 0.839 -29.075 0.528 60.517 0.059 6.317
          0.839 -29.075 0.078 -131.907 0.059 6.317 0.528 60.517
          0.528 60.517 0.059 6.317 0.078 -131.907 0.839 -29.075
          0.059 6.317 0.528 60.517 0.839 -29.075 0.078 -131.907
1380.38 0.078 -132.031 0.839 -29.16 0.529 60.432 0.059 6.092
          0.839 -29.16 0.078 -132.031 0.059 6.092 0.529 60.432
          0.529 60.432 0.059 6.092 0.078 -132.031 0.839 -29.16
          0.059 6.092 0.529 60.432 0.839 -29.16 0.078 -132.031
1385.385 0.078 -132.155 0.838 -29.245 0.53 60.347 0.059 5.867
          0.838 -29.245 0.078 -132.155 0.059 5.867 0.53 60.347
          0.53 60.347 0.059 5.867 0.078 -132.155 0.838 -29.245
          0.059 5.867 0.53 60.347 0.838 -29.245 0.078 -132.155
1390.39 0.078 -132.278 0.837 -29.329 0.532 60.262 0.059 5.643
          0.837 -29.329 0.078 -132.278 0.059 5.643 0.532 60.262
