!	AVX	THIN	FILM	OPERATION				
!								
!	0603	SIZE	3dB	90deg	COUPLER	P/N	DB0603N2500ANTR	
!								
!	Created	october	2010					
!								
!	Network	Analyzer	HP8720E	S.07.64:	"Feb23,"	2000	Serial	No.US39172382
!								
!		
# MHZ S MA R 50

2200 0.137 -159.491 0.719 -46.158 0.638 41.62 0.142 -17.019
          0.719 -46.158 0.137 -159.491 0.142 -17.019 0.638 41.62
          0.638 41.62 0.142 -17.019 0.137 -159.491 0.719 -46.158
          0.142 -17.019 0.638 41.62 0.719 -46.158 0.137 -159.491
2201.603 0.137 -159.518 0.719 -46.181 0.638 41.598 0.143 -17.075
          0.719 -46.181 0.137 -159.518 0.143 -17.075 0.638 41.598
          0.638 41.598 0.143 -17.075 0.137 -159.518 0.719 -46.181
          0.143 -17.075 0.638 41.598 0.719 -46.181 0.137 -159.518
2203.206 0.137 -159.545 0.719 -46.204 0.638 41.576 0.143 -17.13
          0.719 -46.204 0.137 -159.545 0.143 -17.13 0.638 41.576
          0.638 41.576 0.143 -17.13 0.137 -159.545 0.719 -46.204
          0.143 -17.13 0.638 41.576 0.719 -46.204 0.137 -159.545
2204.81 0.137 -159.571 0.718 -46.228 0.638 41.554 0.143 -17.186
          0.718 -46.228 0.137 -159.571 0.143 -17.186 0.638 41.554
          0.638 41.554 0.143 -17.186 0.137 -159.571 0.718 -46.228
          0.143 -17.186 0.638 41.554 0.718 -46.228 0.137 -159.571
2206.413 0.137 -159.598 0.718 -46.251 0.639 41.532 0.143 -17.242
          0.718 -46.251 0.137 -159.598 0.143 -17.242 0.639 41.532
          0.639 41.532 0.143 -17.242 0.137 -159.598 0.718 -46.251
          0.143 -17.242 0.639 41.532 0.718 -46.251 0.137 -159.598
2208.016 0.137 -159.625 0.718 -46.274 0.639 41.51 0.143 -17.297
          0.718 -46.274 0.137 -159.625 0.143 -17.297 0.639 41.51
          0.639 41.51 0.143 -17.297 0.137 -159.625 0.718 -46.274
          0.143 -17.297 0.639 41.51 0.718 -46.274 0.137 -159.625
2209.619 0.137 -159.652 0.718 -46.297 0.639 41.488 0.143 -17.353
          0.718 -46.297 0.137 -159.652 0.143 -17.353 0.639 41.488
          0.639 41.488 0.143 -17.353 0.137 -159.652 0.718 -46.297
          0.143 -17.353 0.639 41.488 0.718 -46.297 0.137 -159.652
2211.222 0.137 -159.678 0.718 -46.32 0.639 41.467 0.143 -17.408
          0.718 -46.32 0.137 -159.678 0.143 -17.408 0.639 41.467
          0.639 41.467 0.143 -17.408 0.137 -159.678 0.718 -46.32
          0.143 -17.408 0.639 41.467 0.718 -46.32 0.137 -159.678
2212.826 0.137 -159.705 0.717 -46.343 0.64 41.445 0.143 -17.464
          0.717 -46.343 0.137 -159.705 0.143 -17.464 0.64 41.445
          0.64 41.445 0.143 -17.464 0.137 -159.705 0.717 -46.343
          0.143 -17.464 0.64 41.445 0.717 -46.343 0.137 -159.705
2214.429 0.137 -159.732 0.717 -46.366 0.64 41.423 0.143 -17.519
          0.717 -46.366 0.137 -159.732 0.143 -17.519 0.64 41.423
          0.64 41.423 0.143 -17.519 0.137 -159.732 0.717 -46.366
          0.143 -17.519 0.64 41.423 0.717 -46.366 0.137 -159.732
2216.032 0.137 -159.758 0.717 -46.39 0.64 41.401 0.143 -17.575
          0.717 -46.39 0.137 -159.758 0.143 -17.575 0.64 41.401
          0.64 41.401 0.143 -17.575 0.137 -159.758 0.717 -46.39
          0.143 -17.575 0.64 41.401 0.717 -46.39 0.137 -159.758
2217.635 0.137 -159.785 0.717 -46.413 0.64 41.379 0.143 -17.63
          0.717 -46.413 0.137 -159.785 0.143 -17.63 0.64 41.379
          0.64 41.379 0.143 -17.63 0.137 -159.785 0.717 -46.413
          0.143 -17.63 0.64 41.379 0.717 -46.413 0.137 -159.785
2219.238 0.137 -159.811 0.717 -46.436 0.64 41.357 0.143 -17.686
          0.717 -46.436 0.137 -159.811 0.143 -17.686 0.64 41.357
          0.64 41.357 0.143 -17.686 0.137 -159.811 0.717 -46.436
          0.143 -17.686 0.64 41.357 0.717 -46.436 0.137 -159.811
2220.842 0.137 -159.837 0.716 -46.459 0.641 41.336 0.143 -17.741
          0.716 -46.459 0.137 -159.837 0.143 -17.741 0.641 41.336
          0.641 41.336 0.143 -17.741 0.137 -159.837 0.716 -46.459
          0.143 -17.741 0.641 41.336 0.716 -46.459 0.137 -159.837
2222.445 0.137 -159.864 0.716 -46.482 0.641 41.314 0.143 -17.797
          0.716 -46.482 0.137 -159.864 0.143 -17.797 0.641 41.314
          0.641 41.314 0.143 -17.797 0.137 -159.864 0.716 -46.482
          0.143 -17.797 0.641 41.314 0.716 -46.482 0.137 -159.864
2224.048 0.137 -159.89 0.716 -46.505 0.641 41.292 0.143 -17.852
          0.716 -46.505 0.137 -159.89 0.143 -17.852 0.641 41.292
          0.641 41.292 0.143 -17.852 0.137 -159.89 0.716 -46.505
          0.143 -17.852 0.641 41.292 0.716 -46.505 0.137 -159.89
2225.651 0.137 -159.916 0.716 -46.528 0.641 41.27 0.143 -17.907
          0.716 -46.528 0.137 -159.916 0.143 -17.907 0.641 41.27
          0.641 41.27 0.143 -17.907 0.137 -159.916 0.716 -46.528
          0.143 -17.907 0.641 41.27 0.716 -46.528 0.137 -159.916
2227.255 0.137 -159.943 0.715 -46.551 0.642 41.249 0.143 -17.962
          0.715 -46.551 0.137 -159.943 0.143 -17.962 0.642 41.249
          0.642 41.249 0.143 -17.962 0.137 -159.943 0.715 -46.551
          0.143 -17.962 0.642 41.249 0.715 -46.551 0.137 -159.943
2228.858 0.137 -159.969 0.715 -46.574 0.642 41.227 0.143 -18.018
          0.715 -46.574 0.137 -159.969 0.143 -18.018 0.642 41.227
          0.642 41.227 0.143 -18.018 0.137 -159.969 0.715 -46.574
          0.143 -18.018 0.642 41.227 0.715 -46.574 0.137 -159.969
2230.461 0.136 -159.995 0.715 -46.597 0.642 41.205 0.143 -18.073
          0.715 -46.597 0.136 -159.995 0.143 -18.073 0.642 41.205
          0.642 41.205 0.143 -18.073 0.136 -159.995 0.715 -46.597
          0.143 -18.073 0.642 41.205 0.715 -46.597 0.136 -159.995
2232.064 0.136 -160.021 0.715 -46.62 0.642 41.184 0.143 -18.128
          0.715 -46.62 0.136 -160.021 0.143 -18.128 0.642 41.184
          0.642 41.184 0.143 -18.128 0.136 -160.021 0.715 -46.62
          0.143 -18.128 0.642 41.184 0.715 -46.62 0.136 -160.021
2233.667 0.136 -160.047 0.715 -46.643 0.643 41.162 0.143 -18.183
          0.715 -46.643 0.136 -160.047 0.143 -18.183 0.643 41.162
          0.643 41.162 0.143 -18.183 0.136 -160.047 0.715 -46.643
          0.143 -18.183 0.643 41.162 0.715 -46.643 0.136 -160.047
2235.271 0.136 -160.073 0.714 -46.666 0.643 41.14 0.143 -18.239
          0.714 -46.666 0.136 -160.073 0.143 -18.239 0.643 41.14
          0.643 41.14 0.143 -18.239 0.136 -160.073 0.714 -46.666
          0.143 -18.239 0.643 41.14 0.714 -46.666 0.136 -160.073
2236.874 0.136 -160.099 0.714 -46.689 0.643 41.119 0.143 -18.294
          0.714 -46.689 0.136 -160.099 0.143 -18.294 0.643 41.119
          0.643 41.119 0.143 -18.294 0.136 -160.099 0.714 -46.689
          0.143 -18.294 0.643 41.119 0.714 -46.689 0.136 -160.099
2238.477 0.136 -160.125 0.714 -46.712 0.643 41.097 0.143 -18.349
          0.714 -46.712 0.136 -160.125 0.143 -18.349 0.643 41.097
          0.643 41.097 0.143 -18.349 0.136 -160.125 0.714 -46.712
          0.143 -18.349 0.643 41.097 0.714 -46.712 0.136 -160.125
2240.08 0.136 -160.151 0.714 -46.735 0.644 41.075 0.143 -18.404
          0.714 -46.735 0.136 -160.151 0.143 -18.404 0.644 41.075
          0.644 41.075 0.143 -18.404 0.136 -160.151 0.714 -46.735
          0.143 -18.404 0.644 41.075 0.714 -46.735 0.136 -160.151
2241.683 0.136 -160.176 0.714 -46.758 0.644 41.054 0.143 -18.459
          0.714 -46.758 0.136 -160.176 0.143 -18.459 0.644 41.054
          0.644 41.054 0.143 -18.459 0.136 -160.176 0.714 -46.758
          0.143 -18.459 0.644 41.054 0.714 -46.758 0.136 -160.176
2243.287 0.136 -160.202 0.713 -46.781 0.644 41.032 0.143 -18.514
          0.713 -46.781 0.136 -160.202 0.143 -18.514 0.644 41.032
          0.644 41.032 0.143 -18.514 0.136 -160.202 0.713 -46.781
          0.143 -18.514 0.644 41.032 0.713 -46.781 0.136 -160.202
2244.89 0.136 -160.228 0.713 -46.804 0.644 41.011 0.143 -18.569
          0.713 -46.804 0.136 -160.228 0.143 -18.569 0.644 41.011
          0.644 41.011 0.143 -18.569 0.136 -160.228 0.713 -46.804
          0.143 -18.569 0.644 41.011 0.713 -46.804 0.136 -160.228
2246.493 0.136 -160.254 0.713 -46.827 0.645 40.989 0.143 -18.624
          0.713 -46.827 0.136 -160.254 0.143 -18.624 0.645 40.989
          0.645 40.989 0.143 -18.624 0.136 -160.254 0.713 -46.827
          0.143 -18.624 0.645 40.989 0.713 -46.827 0.136 -160.254
2248.096 0.136 -160.279 0.713 -46.85 0.645 40.967 0.143 -18.679
          0.713 -46.85 0.136 -160.279 0.143 -18.679 0.645 40.967
          0.645 40.967 0.143 -18.679 0.136 -160.279 0.713 -46.85
          0.143 -18.679 0.645 40.967 0.713 -46.85 0.136 -160.279
2249.699 0.136 -160.305 0.712 -46.873 0.645 40.946 0.143 -18.734
          0.712 -46.873 0.136 -160.305 0.143 -18.734 0.645 40.946
          0.645 40.946 0.143 -18.734 0.136 -160.305 0.712 -46.873
          0.143 -18.734 0.645 40.946 0.712 -46.873 0.136 -160.305
2251.303 0.136 -160.33 0.712 -46.895 0.645 40.924 0.143 -18.789
          0.712 -46.895 0.136 -160.33 0.143 -18.789 0.645 40.924
          0.645 40.924 0.143 -18.789 0.136 -160.33 0.712 -46.895
          0.143 -18.789 0.645 40.924 0.712 -46.895 0.136 -160.33
2252.906 0.136 -160.356 0.712 -46.918 0.646 40.903 0.143 -18.844
          0.712 -46.918 0.136 -160.356 0.143 -18.844 0.646 40.903
          0.646 40.903 0.143 -18.844 0.136 -160.356 0.712 -46.918
          0.143 -18.844 0.646 40.903 0.712 -46.918 0.136 -160.356
2254.509 0.136 -160.381 0.712 -46.941 0.646 40.881 0.143 -18.898
          0.712 -46.941 0.136 -160.381 0.143 -18.898 0.646 40.881
          0.646 40.881 0.143 -18.898 0.136 -160.381 0.712 -46.941
          0.143 -18.898 0.646 40.881 0.712 -46.941 0.136 -160.381
2256.112 0.136 -160.407 0.712 -46.964 0.646 40.86 0.143 -18.953
          0.712 -46.964 0.136 -160.407 0.143 -18.953 0.646 40.86
          0.646 40.86 0.143 -18.953 0.136 -160.407 0.712 -46.964
          0.143 -18.953 0.646 40.86 0.712 -46.964 0.136 -160.407
2257.715 0.136 -160.432 0.711 -46.987 0.646 40.838 0.143 -19.008
          0.711 -46.987 0.136 -160.432 0.143 -19.008 0.646 40.838
          0.646 40.838 0.143 -19.008 0.136 -160.432 0.711 -46.987
          0.143 -19.008 0.646 40.838 0.711 -46.987 0.136 -160.432
2259.319 0.136 -160.457 0.711 -47.01 0.646 40.817 0.143 -19.063
          0.711 -47.01 0.136 -160.457 0.143 -19.063 0.646 40.817
          0.646 40.817 0.143 -19.063 0.136 -160.457 0.711 -47.01
          0.143 -19.063 0.646 40.817 0.711 -47.01 0.136 -160.457
2260.922 0.136 -160.483 0.711 -47.033 0.647 40.795 0.143 -19.118
          0.711 -47.033 0.136 -160.483 0.143 -19.118 0.647 40.795
          0.647 40.795 0.143 -19.118 0.136 -160.483 0.711 -47.033
          0.143 -19.118 0.647 40.795 0.711 -47.033 0.136 -160.483
2262.525 0.136 -160.508 0.711 -47.055 0.647 40.774 0.143 -19.172
          0.711 -47.055 0.136 -160.508 0.143 -19.172 0.647 40.774
          0.647 40.774 0.143 -19.172 0.136 -160.508 0.711 -47.055
          0.143 -19.172 0.647 40.774 0.711 -47.055 0.136 -160.508
2264.128 0.136 -160.533 0.711 -47.078 0.647 40.752 0.143 -19.227
          0.711 -47.078 0.136 -160.533 0.143 -19.227 0.647 40.752
          0.647 40.752 0.143 -19.227 0.136 -160.533 0.711 -47.078
          0.143 -19.227 0.647 40.752 0.711 -47.078 0.136 -160.533
2265.731 0.136 -160.558 0.71 -47.101 0.647 40.731 0.143 -19.282
          0.71 -47.101 0.136 -160.558 0.143 -19.282 0.647 40.731
          0.647 40.731 0.143 -19.282 0.136 -160.558 0.71 -47.101
          0.143 -19.282 0.647 40.731 0.71 -47.101 0.136 -160.558
2267.335 0.136 -160.583 0.71 -47.124 0.648 40.71 0.143 -19.336
          0.71 -47.124 0.136 -160.583 0.143 -19.336 0.648 40.71
          0.648 40.71 0.143 -19.336 0.136 -160.583 0.71 -47.124
          0.143 -19.336 0.648 40.71 0.71 -47.124 0.136 -160.583
2268.938 0.136 -160.608 0.71 -47.147 0.648 40.688 0.143 -19.391
          0.71 -47.147 0.136 -160.608 0.143 -19.391 0.648 40.688
          0.648 40.688 0.143 -19.391 0.136 -160.608 0.71 -47.147
          0.143 -19.391 0.648 40.688 0.71 -47.147 0.136 -160.608
2270.541 0.135 -160.633 0.71 -47.169 0.648 40.667 0.143 -19.446
          0.71 -47.169 0.135 -160.633 0.143 -19.446 0.648 40.667
          0.648 40.667 0.143 -19.446 0.135 -160.633 0.71 -47.169
          0.143 -19.446 0.648 40.667 0.71 -47.169 0.135 -160.633
2272.144 0.135 -160.658 0.71 -47.192 0.648 40.645 0.143 -19.5
          0.71 -47.192 0.135 -160.658 0.143 -19.5 0.648 40.645
          0.648 40.645 0.143 -19.5 0.135 -160.658 0.71 -47.192
          0.143 -19.5 0.648 40.645 0.71 -47.192 0.135 -160.658
2273.747 0.135 -160.683 0.709 -47.215 0.649 40.624 0.143 -19.555
          0.709 -47.215 0.135 -160.683 0.143 -19.555 0.649 40.624
          0.649 40.624 0.143 -19.555 0.135 -160.683 0.709 -47.215
          0.143 -19.555 0.649 40.624 0.709 -47.215 0.135 -160.683
2275.351 0.135 -160.708 0.709 -47.238 0.649 40.603 0.143 -19.609
          0.709 -47.238 0.135 -160.708 0.143 -19.609 0.649 40.603
          0.649 40.603 0.143 -19.609 0.135 -160.708 0.709 -47.238
          0.143 -19.609 0.649 40.603 0.709 -47.238 0.135 -160.708
2276.954 0.135 -160.733 0.709 -47.26 0.649 40.581 0.143 -19.664
          0.709 -47.26 0.135 -160.733 0.143 -19.664 0.649 40.581
          0.649 40.581 0.143 -19.664 0.135 -160.733 0.709 -47.26
          0.143 -19.664 0.649 40.581 0.709 -47.26 0.135 -160.733
2278.557 0.135 -160.758 0.709 -47.283 0.649 40.56 0.143 -19.718
          0.709 -47.283 0.135 -160.758 0.143 -19.718 0.649 40.56
          0.649 40.56 0.143 -19.718 0.135 -160.758 0.709 -47.283
          0.143 -19.718 0.649 40.56 0.709 -47.283 0.135 -160.758
2280.16 0.135 -160.782 0.709 -47.306 0.65 40.539 0.143 -19.773
          0.709 -47.306 0.135 -160.782 0.143 -19.773 0.65 40.539
          0.65 40.539 0.143 -19.773 0.135 -160.782 0.709 -47.306
          0.143 -19.773 0.65 40.539 0.709 -47.306 0.135 -160.782
2281.764 0.135 -160.807 0.708 -47.329 0.65 40.517 0.143 -19.827
          0.708 -47.329 0.135 -160.807 0.143 -19.827 0.65 40.517
          0.65 40.517 0.143 -19.827 0.135 -160.807 0.708 -47.329
          0.143 -19.827 0.65 40.517 0.708 -47.329 0.135 -160.807
2283.367 0.135 -160.832 0.708 -47.351 0.65 40.496 0.143 -19.882
          0.708 -47.351 0.135 -160.832 0.143 -19.882 0.65 40.496
          0.65 40.496 0.143 -19.882 0.135 -160.832 0.708 -47.351
          0.143 -19.882 0.65 40.496 0.708 -47.351 0.135 -160.832
2284.97 0.135 -160.856 0.708 -47.374 0.65 40.475 0.143 -19.936
          0.708 -47.374 0.135 -160.856 0.143 -19.936 0.65 40.475
          0.65 40.475 0.143 -19.936 0.135 -160.856 0.708 -47.374
          0.143 -19.936 0.65 40.475 0.708 -47.374 0.135 -160.856
2286.573 0.135 -160.881 0.708 -47.397 0.65 40.453 0.143 -19.99
          0.708 -47.397 0.135 -160.881 0.143 -19.99 0.65 40.453
          0.65 40.453 0.143 -19.99 0.135 -160.881 0.708 -47.397
          0.143 -19.99 0.65 40.453 0.708 -47.397 0.135 -160.881
2288.176 0.135 -160.905 0.707 -47.419 0.651 40.432 0.143 -20.045
          0.707 -47.419 0.135 -160.905 0.143 -20.045 0.651 40.432
          0.651 40.432 0.143 -20.045 0.135 -160.905 0.707 -47.419
          0.143 -20.045 0.651 40.432 0.707 -47.419 0.135 -160.905
2289.78 0.135 -160.93 0.707 -47.442 0.651 40.411 0.143 -20.099
          0.707 -47.442 0.135 -160.93 0.143 -20.099 0.651 40.411
          0.651 40.411 0.143 -20.099 0.135 -160.93 0.707 -47.442
          0.143 -20.099 0.651 40.411 0.707 -47.442 0.135 -160.93
2291.383 0.135 -160.954 0.707 -47.465 0.651 40.39 0.143 -20.153
          0.707 -47.465 0.135 -160.954 0.143 -20.153 0.651 40.39
          0.651 40.39 0.143 -20.153 0.135 -160.954 0.707 -47.465
          0.143 -20.153 0.651 40.39 0.707 -47.465 0.135 -160.954
2292.986 0.135 -160.978 0.707 -47.487 0.651 40.368 0.143 -20.208
          0.707 -47.487 0.135 -160.978 0.143 -20.208 0.651 40.368
          0.651 40.368 0.143 -20.208 0.135 -160.978 0.707 -47.487
          0.143 -20.208 0.651 40.368 0.707 -47.487 0.135 -160.978
2294.589 0.135 -161.003 0.707 -47.51 0.652 40.347 0.143 -20.262
          0.707 -47.51 0.135 -161.003 0.143 -20.262 0.652 40.347
          0.652 40.347 0.143 -20.262 0.135 -161.003 0.707 -47.51
          0.143 -20.262 0.652 40.347 0.707 -47.51 0.135 -161.003
2296.192 0.135 -161.027 0.706 -47.532 0.652 40.326 0.143 -20.316
          0.706 -47.532 0.135 -161.027 0.143 -20.316 0.652 40.326
          0.652 40.326 0.143 -20.316 0.135 -161.027 0.706 -47.532
          0.143 -20.316 0.652 40.326 0.706 -47.532 0.135 -161.027
2297.796 0.135 -161.051 0.706 -47.555 0.652 40.305 0.143 -20.37
          0.706 -47.555 0.135 -161.051 0.143 -20.37 0.652 40.305
          0.652 40.305 0.143 -20.37 0.135 -161.051 0.706 -47.555
          0.143 -20.37 0.652 40.305 0.706 -47.555 0.135 -161.051
2299.399 0.135 -161.075 0.706 -47.578 0.652 40.284 0.143 -20.424
          0.706 -47.578 0.135 -161.075 0.143 -20.424 0.652 40.284
          0.652 40.284 0.143 -20.424 0.135 -161.075 0.706 -47.578
          0.143 -20.424 0.652 40.284 0.706 -47.578 0.135 -161.075
2301.002 0.135 -161.1 0.706 -47.6 0.653 40.263 0.143 -20.479
          0.706 -47.6 0.135 -161.1 0.143 -20.479 0.653 40.263
          0.653 40.263 0.143 -20.479 0.135 -161.1 0.706 -47.6
          0.143 -20.479 0.653 40.263 0.706 -47.6 0.135 -161.1
2302.605 0.135 -161.124 0.706 -47.623 0.653 40.241 0.143 -20.533
          0.706 -47.623 0.135 -161.124 0.143 -20.533 0.653 40.241
          0.653 40.241 0.143 -20.533 0.135 -161.124 0.706 -47.623
          0.143 -20.533 0.653 40.241 0.706 -47.623 0.135 -161.124
2304.208 0.135 -161.148 0.705 -47.645 0.653 40.22 0.143 -20.587
          0.705 -47.645 0.135 -161.148 0.143 -20.587 0.653 40.22
          0.653 40.22 0.143 -20.587 0.135 -161.148 0.705 -47.645
          0.143 -20.587 0.653 40.22 0.705 -47.645 0.135 -161.148
2305.812 0.135 -161.172 0.705 -47.668 0.653 40.199 0.143 -20.641
          0.705 -47.668 0.135 -161.172 0.143 -20.641 0.653 40.199
          0.653 40.199 0.143 -20.641 0.135 -161.172 0.705 -47.668
          0.143 -20.641 0.653 40.199 0.705 -47.668 0.135 -161.172
2307.415 0.135 -161.196 0.705 -47.691 0.653 40.178 0.143 -20.695
          0.705 -47.691 0.135 -161.196 0.143 -20.695 0.653 40.178
          0.653 40.178 0.143 -20.695 0.135 -161.196 0.705 -47.691
          0.143 -20.695 0.653 40.178 0.705 -47.691 0.135 -161.196
2309.018 0.134 -161.22 0.705 -47.713 0.654 40.157 0.144 -20.749
          0.705 -47.713 0.134 -161.22 0.144 -20.749 0.654 40.157
          0.654 40.157 0.144 -20.749 0.134 -161.22 0.705 -47.713
          0.144 -20.749 0.654 40.157 0.705 -47.713 0.134 -161.22
2310.621 0.134 -161.243 0.705 -47.736 0.654 40.136 0.144 -20.803
          0.705 -47.736 0.134 -161.243 0.144 -20.803 0.654 40.136
          0.654 40.136 0.144 -20.803 0.134 -161.243 0.705 -47.736
          0.144 -20.803 0.654 40.136 0.705 -47.736 0.134 -161.243
2312.224 0.134 -161.267 0.704 -47.758 0.654 40.115 0.144 -20.857
          0.704 -47.758 0.134 -161.267 0.144 -20.857 0.654 40.115
          0.654 40.115 0.144 -20.857 0.134 -161.267 0.704 -47.758
          0.144 -20.857 0.654 40.115 0.704 -47.758 0.134 -161.267
2313.828 0.134 -161.291 0.704 -47.781 0.654 40.094 0.144 -20.911
          0.704 -47.781 0.134 -161.291 0.144 -20.911 0.654 40.094
          0.654 40.094 0.144 -20.911 0.134 -161.291 0.704 -47.781
          0.144 -20.911 0.654 40.094 0.704 -47.781 0.134 -161.291
2315.431 0.134 -161.315 0.704 -47.803 0.655 40.073 0.144 -20.965
          0.704 -47.803 0.134 -161.315 0.144 -20.965 0.655 40.073
          0.655 40.073 0.144 -20.965 0.134 -161.315 0.704 -47.803
          0.144 -20.965 0.655 40.073 0.704 -47.803 0.134 -161.315
2317.034 0.134 -161.338 0.704 -47.826 0.655 40.051 0.144 -21.019
          0.704 -47.826 0.134 -161.338 0.144 -21.019 0.655 40.051
          0.655 40.051 0.144 -21.019 0.134 -161.338 0.704 -47.826
          0.144 -21.019 0.655 40.051 0.704 -47.826 0.134 -161.338
2318.637 0.134 -161.362 0.704 -47.848 0.655 40.03 0.144 -21.072
          0.704 -47.848 0.134 -161.362 0.144 -21.072 0.655 40.03
          0.655 40.03 0.144 -21.072 0.134 -161.362 0.704 -47.848
          0.144 -21.072 0.655 40.03 0.704 -47.848 0.134 -161.362
2320.24 0.134 -161.386 0.703 -47.871 0.655 40.009 0.144 -21.126
          0.703 -47.871 0.134 -161.386 0.144 -21.126 0.655 40.009
          0.655 40.009 0.144 -21.126 0.134 -161.386 0.703 -47.871
