!	AVX THIN FILM OPERATION
!	
!	0805 SIZE 3dB 90deg COUPLER P/N DB0805A1880AWTR
!
!	Created March 23 2003
!						
!	Network Analyzer HP8720E S.07.64: Feb23, 2000 Serial No.US39172382		
!	
#	MHZ	S	MA	R	50					


500 0.016 -151.242 0.955 -19.237 0.285 70.609 0.042 65.42
          0.955 -19.237 0.016 -151.242 0.042 65.42 0.285 70.609
          0.285 70.609 0.042 65.42 0.016 -151.242 0.955 -19.237
          0.042 65.42 0.285 70.609 0.955 -19.237 0.016 -151.242
506.266 0.016 -152.077 0.954 -19.464 0.288 70.381 0.043 65.154
          0.954 -19.464 0.016 -152.077 0.043 65.154 0.288 70.381
          0.288 70.381 0.043 65.154 0.016 -152.077 0.954 -19.464
          0.043 65.154 0.288 70.381 0.954 -19.464 0.016 -152.077
512.531 0.017 -152.905 0.953 -19.69 0.291 70.154 0.043 64.89
          0.953 -19.69 0.017 -152.905 0.043 64.89 0.291 70.154
          0.291 70.154 0.043 64.89 0.017 -152.905 0.953 -19.69
          0.043 64.89 0.291 70.154 0.953 -19.69 0.017 -152.905
518.797 0.017 -153.728 0.952 -19.916 0.294 69.928 0.043 64.627
          0.952 -19.916 0.017 -153.728 0.043 64.627 0.294 69.928
          0.294 69.928 0.043 64.627 0.017 -153.728 0.952 -19.916
          0.043 64.627 0.294 69.928 0.952 -19.916 0.017 -153.728
525.063 0.017 -154.544 0.951 -20.141 0.297 69.702 0.044 64.366
          0.951 -20.141 0.017 -154.544 0.044 64.366 0.297 69.702
          0.297 69.702 0.044 64.366 0.017 -154.544 0.951 -20.141
          0.044 64.366 0.297 69.702 0.951 -20.141 0.017 -154.544
531.328 0.017 -155.355 0.95 -20.366 0.301 69.476 0.044 64.106
          0.95 -20.366 0.017 -155.355 0.044 64.106 0.301 69.476
          0.301 69.476 0.044 64.106 0.017 -155.355 0.95 -20.366
          0.044 64.106 0.301 69.476 0.95 -20.366 0.017 -155.355
537.594 0.017 -156.16 0.949 -20.59 0.304 69.251 0.045 63.847
          0.949 -20.59 0.017 -156.16 0.045 63.847 0.304 69.251
          0.304 69.251 0.045 63.847 0.017 -156.16 0.949 -20.59
          0.045 63.847 0.304 69.251 0.949 -20.59 0.017 -156.16
543.86 0.018 -156.96 0.948 -20.814 0.307 69.027 0.045 63.59
          0.948 -20.814 0.018 -156.96 0.045 63.59 0.307 69.027
          0.307 69.027 0.045 63.59 0.018 -156.96 0.948 -20.814
          0.045 63.59 0.307 69.027 0.948 -20.814 0.018 -156.96
550.125 0.018 -157.754 0.947 -21.037 0.31 68.803 0.045 63.334
          0.947 -21.037 0.018 -157.754 0.045 63.334 0.31 68.803
          0.31 68.803 0.045 63.334 0.018 -157.754 0.947 -21.037
          0.045 63.334 0.31 68.803 0.947 -21.037 0.018 -157.754
556.391 0.018 -158.542 0.946 -21.26 0.313 68.579 0.046 63.08
          0.946 -21.26 0.018 -158.542 0.046 63.08 0.313 68.579
          0.313 68.579 0.046 63.08 0.018 -158.542 0.946 -21.26
          0.046 63.08 0.313 68.579 0.946 -21.26 0.018 -158.542
562.657 0.018 -159.325 0.945 -21.482 0.316 68.357 0.046 62.828
          0.945 -21.482 0.018 -159.325 0.046 62.828 0.316 68.357
          0.316 68.357 0.046 62.828 0.018 -159.325 0.945 -21.482
          0.046 62.828 0.316 68.357 0.945 -21.482 0.018 -159.325
568.922 0.019 -160.103 0.944 -21.704 0.319 68.134 0.047 62.577
          0.944 -21.704 0.019 -160.103 0.047 62.577 0.319 68.134
          0.319 68.134 0.047 62.577 0.019 -160.103 0.944 -21.704
          0.047 62.577 0.319 68.134 0.944 -21.704 0.019 -160.103
575.188 0.019 -160.876 0.943 -21.925 0.322 67.913 0.047 62.327
          0.943 -21.925 0.019 -160.876 0.047 62.327 0.322 67.913
          0.322 67.913 0.047 62.327 0.019 -160.876 0.943 -21.925
          0.047 62.327 0.322 67.913 0.943 -21.925 0.019 -160.876
581.454 0.019 -161.643 0.942 -22.146 0.325 67.691 0.047 62.079
          0.942 -22.146 0.019 -161.643 0.047 62.079 0.325 67.691
          0.325 67.691 0.047 62.079 0.019 -161.643 0.942 -22.146
          0.047 62.079 0.325 67.691 0.942 -22.146 0.019 -161.643
587.719 0.019 -162.405 0.941 -22.366 0.328 67.471 0.048 61.832
          0.941 -22.366 0.019 -162.405 0.048 61.832 0.328 67.471
          0.328 67.471 0.048 61.832 0.019 -162.405 0.941 -22.366
          0.048 61.832 0.328 67.471 0.941 -22.366 0.019 -162.405
593.985 0.02 -163.162 0.94 -22.586 0.331 67.251 0.048 61.587
          0.94 -22.586 0.02 -163.162 0.048 61.587 0.331 67.251
          0.331 67.251 0.048 61.587 0.02 -163.162 0.94 -22.586
          0.048 61.587 0.331 67.251 0.94 -22.586 0.02 -163.162
600.251 0.02 -163.914 0.939 -22.805 0.334 67.031 0.048 61.344
          0.939 -22.805 0.02 -163.914 0.048 61.344 0.334 67.031
          0.334 67.031 0.048 61.344 0.02 -163.914 0.939 -22.805
          0.048 61.344 0.334 67.031 0.939 -22.805 0.02 -163.914
606.516 0.02 -164.661 0.937 -23.023 0.337 66.812 0.049 61.102
          0.937 -23.023 0.02 -164.661 0.049 61.102 0.337 66.812
          0.337 66.812 0.049 61.102 0.02 -164.661 0.937 -23.023
          0.049 61.102 0.337 66.812 0.937 -23.023 0.02 -164.661
612.782 0.02 -165.403 0.936 -23.241 0.34 66.593 0.049 60.862
          0.936 -23.241 0.02 -165.403 0.049 60.862 0.34 66.593
          0.34 66.593 0.049 60.862 0.02 -165.403 0.936 -23.241
          0.049 60.862 0.34 66.593 0.936 -23.241 0.02 -165.403
619.048 0.021 -166.14 0.935 -23.459 0.343 66.376 0.049 60.623
          0.935 -23.459 0.021 -166.14 0.049 60.623 0.343 66.376
          0.343 66.376 0.049 60.623 0.021 -166.14 0.935 -23.459
          0.049 60.623 0.343 66.376 0.935 -23.459 0.021 -166.14
625.313 0.021 -166.873 0.934 -23.676 0.346 66.158 0.05 60.386
          0.934 -23.676 0.021 -166.873 0.05 60.386 0.346 66.158
          0.346 66.158 0.05 60.386 0.021 -166.873 0.934 -23.676
          0.05 60.386 0.346 66.158 0.934 -23.676 0.021 -166.873
631.579 0.021 -167.6 0.933 -23.892 0.349 65.941 0.05 60.15
          0.933 -23.892 0.021 -167.6 0.05 60.15 0.349 65.941
          0.349 65.941 0.05 60.15 0.021 -167.6 0.933 -23.892
          0.05 60.15 0.349 65.941 0.933 -23.892 0.021 -167.6
637.845 0.021 -168.323 0.932 -24.108 0.352 65.725 0.051 59.916
          0.932 -24.108 0.021 -168.323 0.051 59.916 0.352 65.725
          0.352 65.725 0.051 59.916 0.021 -168.323 0.932 -24.108
          0.051 59.916 0.352 65.725 0.932 -24.108 0.021 -168.323
644.11 0.022 -169.041 0.931 -24.324 0.355 65.509 0.051 59.684
          0.931 -24.324 0.022 -169.041 0.051 59.684 0.355 65.509
          0.355 65.509 0.051 59.684 0.022 -169.041 0.931 -24.324
          0.051 59.684 0.355 65.509 0.931 -24.324 0.022 -169.041
650.376 0.022 -169.755 0.93 -24.539 0.358 65.294 0.051 59.454
          0.93 -24.539 0.022 -169.755 0.051 59.454 0.358 65.294
          0.358 65.294 0.051 59.454 0.022 -169.755 0.93 -24.539
          0.051 59.454 0.358 65.294 0.93 -24.539 0.022 -169.755
656.642 0.022 -170.464 0.928 -24.753 0.361 65.08 0.052 59.225
          0.928 -24.753 0.022 -170.464 0.052 59.225 0.361 65.08
          0.361 65.08 0.052 59.225 0.022 -170.464 0.928 -24.753
          0.052 59.225 0.361 65.08 0.928 -24.753 0.022 -170.464
662.907 0.022 -171.168 0.927 -24.967 0.364 64.866 0.052 58.997
          0.927 -24.967 0.022 -171.168 0.052 58.997 0.364 64.866
          0.364 64.866 0.052 58.997 0.022 -171.168 0.927 -24.967
          0.052 58.997 0.364 64.866 0.927 -24.967 0.022 -171.168
669.173 0.023 -171.868 0.926 -25.18 0.367 64.653 0.052 58.772
          0.926 -25.18 0.023 -171.868 0.052 58.772 0.367 64.653
          0.367 64.653 0.052 58.772 0.023 -171.868 0.926 -25.18
          0.052 58.772 0.367 64.653 0.926 -25.18 0.023 -171.868
675.439 0.023 -172.564 0.925 -25.393 0.37 64.44 0.053 58.548
          0.925 -25.393 0.023 -172.564 0.053 58.548 0.37 64.44
          0.37 64.44 0.053 58.548 0.023 -172.564 0.925 -25.393
          0.053 58.548 0.37 64.44 0.925 -25.393 0.023 -172.564
681.704 0.023 -173.255 0.924 -25.605 0.373 64.227 0.053 58.325
          0.924 -25.605 0.023 -173.255 0.053 58.325 0.373 64.227
          0.373 64.227 0.053 58.325 0.023 -173.255 0.924 -25.605
          0.053 58.325 0.373 64.227 0.924 -25.605 0.023 -173.255
687.97 0.023 -173.942 0.923 -25.816 0.375 64.016 0.053 58.105
          0.923 -25.816 0.023 -173.942 0.053 58.105 0.375 64.016
          0.375 64.016 0.053 58.105 0.023 -173.942 0.923 -25.816
          0.053 58.105 0.375 64.016 0.923 -25.816 0.023 -173.942
694.236 0.024 -174.624 0.921 -26.027 0.378 63.805 0.053 57.886
          0.921 -26.027 0.024 -174.624 0.053 57.886 0.378 63.805
          0.378 63.805 0.053 57.886 0.024 -174.624 0.921 -26.027
          0.053 57.886 0.378 63.805 0.921 -26.027 0.024 -174.624
700.501 0.024 -175.302 0.92 -26.238 0.381 63.594 0.054 57.669
          0.92 -26.238 0.024 -175.302 0.054 57.669 0.381 63.594
          0.381 63.594 0.054 57.669 0.024 -175.302 0.92 -26.238
          0.054 57.669 0.381 63.594 0.92 -26.238 0.024 -175.302
706.767 0.024 -175.976 0.919 -26.448 0.384 63.384 0.054 57.453
          0.919 -26.448 0.024 -175.976 0.054 57.453 0.384 63.384
          0.384 63.384 0.054 57.453 0.024 -175.976 0.919 -26.448
          0.054 57.453 0.384 63.384 0.919 -26.448 0.024 -175.976
713.033 0.024 -176.646 0.918 -26.657 0.387 63.175 0.054 57.24
          0.918 -26.657 0.024 -176.646 0.054 57.24 0.387 63.175
          0.387 63.175 0.054 57.24 0.024 -176.646 0.918 -26.657
          0.054 57.24 0.387 63.175 0.918 -26.657 0.024 -176.646
719.298 0.025 -177.311 0.917 -26.866 0.389 62.966 0.055 57.028
          0.917 -26.866 0.025 -177.311 0.055 57.028 0.389 62.966
          0.389 62.966 0.055 57.028 0.025 -177.311 0.917 -26.866
          0.055 57.028 0.389 62.966 0.917 -26.866 0.025 -177.311
725.564 0.025 -177.973 0.915 -27.074 0.392 62.758 0.055 56.817
          0.915 -27.074 0.025 -177.973 0.055 56.817 0.392 62.758
          0.392 62.758 0.055 56.817 0.025 -177.973 0.915 -27.074
          0.055 56.817 0.392 62.758 0.915 -27.074 0.025 -177.973
731.83 0.025 -178.63 0.914 -27.282 0.395 62.55 0.055 56.609
          0.914 -27.282 0.025 -178.63 0.055 56.609 0.395 62.55
          0.395 62.55 0.055 56.609 0.025 -178.63 0.914 -27.282
          0.055 56.609 0.395 62.55 0.914 -27.282 0.025 -178.63
738.095 0.026 -179.283 0.913 -27.489 0.398 62.343 0.056 56.402
          0.913 -27.489 0.026 -179.283 0.056 56.402 0.398 62.343
          0.398 62.343 0.056 56.402 0.026 -179.283 0.913 -27.489
          0.056 56.402 0.398 62.343 0.913 -27.489 0.026 -179.283
744.361 0.026 -179.933 0.912 -27.696 0.4 62.137 0.056 56.197
          0.912 -27.696 0.026 -179.933 0.056 56.197 0.4 62.137
          0.4 62.137 0.056 56.197 0.026 -179.933 0.912 -27.696
          0.056 56.197 0.4 62.137 0.912 -27.696 0.026 -179.933
750.627 0.026 179.422 0.911 -27.902 0.403 61.931 0.056 55.994
          0.911 -27.902 0.026 179.422 0.056 55.994 0.403 61.931
          0.403 61.931 0.056 55.994 0.026 179.422 0.911 -27.902
          0.056 55.994 0.403 61.931 0.911 -27.902 0.026 179.422
756.892 0.026 178.781 0.909 -28.107 0.406 61.726 0.056 55.792
          0.909 -28.107 0.026 178.781 0.056 55.792 0.406 61.726
          0.406 61.726 0.056 55.792 0.026 178.781 0.909 -28.107
          0.056 55.792 0.406 61.726 0.909 -28.107 0.026 178.781
763.158 0.027 178.143 0.908 -28.312 0.408 61.521 0.057 55.593
          0.908 -28.312 0.027 178.143 0.057 55.593 0.408 61.521
          0.408 61.521 0.057 55.593 0.027 178.143 0.908 -28.312
          0.057 55.593 0.408 61.521 0.908 -28.312 0.027 178.143
769.424 0.027 177.51 0.907 -28.516 0.411 61.317 0.057 55.395
          0.907 -28.516 0.027 177.51 0.057 55.395 0.411 61.317
          0.411 61.317 0.057 55.395 0.027 177.51 0.907 -28.516
          0.057 55.395 0.411 61.317 0.907 -28.516 0.027 177.51
775.689 0.027 176.88 0.906 -28.72 0.414 61.114 0.057 55.199
          0.906 -28.72 0.027 176.88 0.057 55.199 0.414 61.114
          0.414 61.114 0.057 55.199 0.027 176.88 0.906 -28.72
          0.057 55.199 0.414 61.114 0.906 -28.72 0.027 176.88
781.955 0.027 176.254 0.904 -28.923 0.416 60.911 0.058 55.005
          0.904 -28.923 0.027 176.254 0.058 55.005 0.416 60.911
          0.416 60.911 0.058 55.005 0.027 176.254 0.904 -28.923
          0.058 55.005 0.416 60.911 0.904 -28.923 0.027 176.254
788.221 0.028 175.632 0.903 -29.126 0.419 60.709 0.058 54.812
          0.903 -29.126 0.028 175.632 0.058 54.812 0.419 60.709
          0.419 60.709 0.058 54.812 0.028 175.632 0.903 -29.126
          0.058 54.812 0.419 60.709 0.903 -29.126 0.028 175.632
794.486 0.028 175.014 0.902 -29.328 0.422 60.507 0.058 54.621
          0.902 -29.328 0.028 175.014 0.058 54.621 0.422 60.507
          0.422 60.507 0.058 54.621 0.028 175.014 0.902 -29.328
          0.058 54.621 0.422 60.507 0.902 -29.328 0.028 175.014
800.752 0.028 174.399 0.901 -29.529 0.424 60.306 0.058 54.433
          0.901 -29.529 0.028 174.399 0.058 54.433 0.424 60.306
          0.424 60.306 0.058 54.433 0.028 174.399 0.901 -29.529
          0.058 54.433 0.424 60.306 0.901 -29.529 0.028 174.399
807.018 0.028 173.788 0.899 -29.73 0.427 60.105 0.059 54.246
          0.899 -29.73 0.028 173.788 0.059 54.246 0.427 60.105
          0.427 60.105 0.059 54.246 0.028 173.788 0.899 -29.73
          0.059 54.246 0.427 60.105 0.899 -29.73 0.028 173.788
813.283 0.029 173.181 0.898 -29.931 0.429 59.905 0.059 54.061
          0.898 -29.931 0.029 173.181 0.059 54.061 0.429 59.905
          0.429 59.905 0.059 54.061 0.029 173.181 0.898 -29.931
          0.059 54.061 0.429 59.905 0.898 -29.931 0.029 173.181
819.549 0.029 172.577 0.897 -30.131 0.432 59.706 0.059 53.877
          0.897 -30.131 0.029 172.577 0.059 53.877 0.432 59.706
          0.432 59.706 0.059 53.877 0.029 172.577 0.897 -30.131
          0.059 53.877 0.432 59.706 0.897 -30.131 0.029 172.577
825.815 0.029 171.977 0.896 -30.33 0.435 59.507 0.059 53.696
          0.896 -30.33 0.029 171.977 0.059 53.696 0.435 59.507
          0.435 59.507 0.059 53.696 0.029 171.977 0.896 -30.33
          0.059 53.696 0.435 59.507 0.896 -30.33 0.029 171.977
832.08 0.03 171.381 0.894 -30.529 0.437 59.309 0.06 53.516
          0.894 -30.529 0.03 171.381 0.06 53.516 0.437 59.309
          0.437 59.309 0.06 53.516 0.03 171.381 0.894 -30.529
          0.06 53.516 0.437 59.309 0.894 -30.529 0.03 171.381
838.346 0.03 170.788 0.893 -30.727 0.44 59.112 0.06 53.339
          0.893 -30.727 0.03 170.788 0.06 53.339 0.44 59.112
          0.44 59.112 0.06 53.339 0.03 170.788 0.893 -30.727
          0.06 53.339 0.44 59.112 0.893 -30.727 0.03 170.788
844.612 0.03 170.198 0.892 -30.924 0.442 58.915 0.06 53.163
          0.892 -30.924 0.03 170.198 0.06 53.163 0.442 58.915
          0.442 58.915 0.06 53.163 0.03 170.198 0.892 -30.924
          0.06 53.163 0.442 58.915 0.892 -30.924 0.03 170.198
850.877 0.03 169.612 0.891 -31.121 0.445 58.718 0.06 52.989
          0.891 -31.121 0.03 169.612 0.06 52.989 0.445 58.718
          0.445 58.718 0.06 52.989 0.03 169.612 0.891 -31.121
          0.06 52.989 0.445 58.718 0.891 -31.121 0.03 169.612
857.143 0.031 169.03 0.889 -31.318 0.447 58.522 0.06 52.817
          0.889 -31.318 0.031 169.03 0.06 52.817 0.447 58.522
          0.447 58.522 0.06 52.817 0.031 169.03 0.889 -31.318
          0.06 52.817 0.447 58.522 0.889 -31.318 0.031 169.03
863.409 0.031 168.451 0.888 -31.514 0.45 58.327 0.061 52.646
          0.888 -31.514 0.031 168.451 0.061 52.646 0.45 58.327
          0.45 58.327 0.061 52.646 0.031 168.451 0.888 -31.514
          0.061 52.646 0.45 58.327 0.888 -31.514 0.031 168.451
869.674 0.031 167.875 0.887 -31.709 0.452 58.133 0.061 52.478
          0.887 -31.709 0.031 167.875 0.061 52.478 0.452 58.133
          0.452 58.133 0.061 52.478 0.031 167.875 0.887 -31.709
          0.061 52.478 0.452 58.133 0.887 -31.709 0.031 167.875
875.94 0.032 167.303 0.885 -31.904 0.454 57.939 0.061 52.312
          0.885 -31.904 0.032 167.303 0.061 52.312 0.454 57.939
          0.454 57.939 0.061 52.312 0.032 167.303 0.885 -31.904
          0.061 52.312 0.454 57.939 0.885 -31.904 0.032 167.303
882.206 0.032 166.734 0.884 -32.098 0.457 57.745 0.061 52.147
          0.884 -32.098 0.032 166.734 0.061 52.147 0.457 57.745
          0.457 57.745 0.061 52.147 0.032 166.734 0.884 -32.098
          0.061 52.147 0.457 57.745 0.884 -32.098 0.032 166.734
888.471 0.032 166.168 0.883 -32.292 0.459 57.552 0.062 51.984
          0.883 -32.292 0.032 166.168 0.062 51.984 0.459 57.552
          0.459 57.552 0.062 51.984 0.032 166.168 0.883 -32.292
          0.062 51.984 0.459 57.552 0.883 -32.292 0.032 166.168
894.737 0.032 165.606 0.882 -32.485 0.462 57.36 0.062 51.824
          0.882 -32.485 0.032 165.606 0.062 51.824 0.462 57.36
          0.462 57.36 0.062 51.824 0.032 165.606 0.882 -32.485
          0.062 51.824 0.462 57.36 0.882 -32.485 0.032 165.606
901.003 0.033 165.047 0.88 -32.677 0.464 57.169 0.062 51.665
          0.88 -32.677 0.033 165.047 0.062 51.665 0.464 57.169
          0.464 57.169 0.062 51.665 0.033 165.047 0.88 -32.677
          0.062 51.665 0.464 57.169 0.88 -32.677 0.033 165.047
907.268 0.033 164.491 0.879 -32.869 0.466 56.977 0.062 51.508
          0.879 -32.869 0.033 164.491 0.062 51.508 0.466 56.977
          0.466 56.977 0.062 51.508 0.033 164.491 0.879 -32.869
          0.062 51.508 0.466 56.977 0.879 -32.869 0.033 164.491
913.534 0.033 163.938 0.878 -33.06 0.469 56.787 0.062 51.353
          0.878 -33.06 0.033 163.938 0.062 51.353 0.469 56.787
          0.469 56.787 0.062 51.353 0.033 163.938 0.878 -33.06
          0.062 51.353 0.469 56.787 0.878 -33.06 0.033 163.938
919.799 0.033 163.389 0.877 -33.251 0.471 56.597 0.063 51.2
          0.877 -33.251 0.033 163.389 0.063 51.2 0.471 56.597
          0.471 56.597 0.063 51.2 0.033 163.389 0.877 -33.251
          0.063 51.2 0.471 56.597 0.877 -33.251 0.033 163.389
926.065 0.034 162.843 0.875 -33.442 0.474 56.408 0.063 51.049
          0.875 -33.442 0.034 162.843 0.063 51.049 0.474 56.408
          0.474 56.408 0.063 51.049 0.034 162.843 0.875 -33.442
          0.063 51.049 0.474 56.408 0.875 -33.442 0.034 162.843
932.331 0.034 162.299 0.874 -33.631 0.476 56.219 0.063 50.899
          0.874 -33.631 0.034 162.299 0.063 50.899 0.476 56.219
          0.476 56.219 0.063 50.899 0.034 162.299 0.874 -33.631
          0.063 50.899 0.476 56.219 0.874 -33.631 0.034 162.299
938.596 0.034 161.76 0.873 -33.82 0.478 56.031 0.063 50.752
          0.873 -33.82 0.034 161.76 0.063 50.752 0.478 56.031
          0.478 56.031 0.063 50.752 0.034 161.76 0.873 -33.82
          0.063 50.752 0.478 56.031 0.873 -33.82 0.034 161.76
944.862 0.035 161.223 0.871 -34.009 0.48 55.843 0.063 50.607
          0.871 -34.009 0.035 161.223 0.063 50.607 0.48 55.843
          0.48 55.843 0.063 50.607 0.035 161.223 0.871 -34.009
          0.063 50.607 0.48 55.843 0.871 -34.009 0.035 161.223
951.128 0.035 160.689 0.87 -34.197 0.483 55.656 0.064 50.463
          0.87 -34.197 0.035 160.689 0.064 50.463 0.483 55.656
          0.483 55.656 0.064 50.463 0.035 160.689 0.87 -34.197
          0.064 50.463 0.483 55.656 0.87 -34.197 0.035 160.689
957.393 0.035 160.158 0.869 -34.385 0.485 55.47 0.064 50.322
          0.869 -34.385 0.035 160.158 0.064 50.322 0.485 55.47
          0.485 55.47 0.064 50.322 0.035 160.158 0.869 -34.385
          0.064 50.322 0.485 55.47 0.869 -34.385 0.035 160.158
963.659 0.035 159.63 0.868 -34.572 0.487 55.284 0.064 50.182
          0.868 -34.572 0.035 159.63 0.064 50.182 0.487 55.284
          0.487 55.284 0.064 50.182 0.035 159.63 0.868 -34.572
          0.064 50.182 0.487 55.284 0.868 -34.572 0.035 159.63
969.925 0.036 159.105 0.866 -34.758 0.489 55.099 0.064 50.045
          0.866 -34.758 0.036 159.105 0.064 50.045 0.489 55.099
          0.489 55.099 0.064 50.045 0.036 159.105 0.866 -34.758
          0.064 50.045 0.489 55.099 0.866 -34.758 0.036 159.105
976.19 0.036 158.584 0.865 -34.944 0.492 54.914 0.064 49.909
          0.865 -34.944 0.036 158.584 0.064 49.909 0.492 54.914
          0.492 54.914 0.064 49.909 0.036 158.584 0.865 -34.944
          0.064 49.909 0.492 54.914 0.865 -34.944 0.036 158.584
982.456 0.036 158.065 0.864 -35.129 0.494 54.73 0.065 49.776
          0.864 -35.129 0.036 158.065 0.065 49.776 0.494 54.73
          0.494 54.73 0.065 49.776 0.036 158.065 0.864 -35.129
          0.065 49.776 0.494 54.73 0.864 -35.129 0.036 158.065
988.722 0.037 157.549 0.862 -35.314 0.496 54.547 0.065 49.644
