!	AVX THIN FILM OPERATION
!	
!	0805 SIZE 3dB 90deg COUPLER P/N DB0805A1900AWTR
!
!	Created March 23 2003
!						
!	Network Analyzer HP8720E S.07.64: Feb23, 2000 Serial No.US39172382		
!	
#	MHZ	S	MA	R	50					


500 0.075 -122.436 0.954 -16.856 0.27 71.747 0.08 57.89
          0.954 -16.856 0.075 -122.436 0.08 57.89 0.27 71.747
          0.27 71.747 0.08 57.89 0.075 -122.436 0.954 -16.856
          0.08 57.89 0.27 71.747 0.954 -16.856 0.075 -122.436
506.266 0.076 -122.849 0.953 -17.052 0.273 71.538 0.081 57.516
          0.953 -17.052 0.076 -122.849 0.081 57.516 0.273 71.538
          0.273 71.538 0.081 57.516 0.076 -122.849 0.953 -17.052
          0.081 57.516 0.273 71.538 0.953 -17.052 0.076 -122.849
512.531 0.077 -123.262 0.952 -17.247 0.276 71.328 0.082 57.144
          0.952 -17.247 0.077 -123.262 0.082 57.144 0.276 71.328
          0.276 71.328 0.082 57.144 0.077 -123.262 0.952 -17.247
          0.082 57.144 0.276 71.328 0.952 -17.247 0.077 -123.262
518.797 0.078 -123.672 0.951 -17.441 0.279 71.12 0.083 56.772
          0.951 -17.441 0.078 -123.672 0.083 56.772 0.279 71.12
          0.279 71.12 0.083 56.772 0.078 -123.672 0.951 -17.441
          0.083 56.772 0.279 71.12 0.951 -17.441 0.078 -123.672
525.063 0.078 -124.082 0.95 -17.636 0.282 70.912 0.083 56.401
          0.95 -17.636 0.078 -124.082 0.083 56.401 0.282 70.912
          0.282 70.912 0.083 56.401 0.078 -124.082 0.95 -17.636
          0.083 56.401 0.282 70.912 0.95 -17.636 0.078 -124.082
531.328 0.079 -124.49 0.949 -17.829 0.285 70.704 0.084 56.031
          0.949 -17.829 0.079 -124.49 0.084 56.031 0.285 70.704
          0.285 70.704 0.084 56.031 0.079 -124.49 0.949 -17.829
          0.084 56.031 0.285 70.704 0.949 -17.829 0.079 -124.49
537.594 0.08 -124.897 0.948 -18.022 0.288 70.497 0.085 55.663
          0.948 -18.022 0.08 -124.897 0.085 55.663 0.288 70.497
          0.288 70.497 0.085 55.663 0.08 -124.897 0.948 -18.022
          0.085 55.663 0.288 70.497 0.948 -18.022 0.08 -124.897
543.86 0.081 -125.303 0.947 -18.215 0.291 70.291 0.086 55.295
          0.947 -18.215 0.081 -125.303 0.086 55.295 0.291 70.291
          0.291 70.291 0.086 55.295 0.081 -125.303 0.947 -18.215
          0.086 55.295 0.291 70.291 0.947 -18.215 0.081 -125.303
550.125 0.081 -125.707 0.946 -18.407 0.294 70.086 0.086 54.928
          0.946 -18.407 0.081 -125.707 0.086 54.928 0.294 70.086
          0.294 70.086 0.086 54.928 0.081 -125.707 0.946 -18.407
          0.086 54.928 0.294 70.086 0.946 -18.407 0.081 -125.707
556.391 0.082 -126.111 0.945 -18.598 0.297 69.881 0.087 54.562
          0.945 -18.598 0.082 -126.111 0.087 54.562 0.297 69.881
          0.297 69.881 0.087 54.562 0.082 -126.111 0.945 -18.598
          0.087 54.562 0.297 69.881 0.945 -18.598 0.082 -126.111
562.657 0.083 -126.513 0.944 -18.789 0.3 69.676 0.088 54.197
          0.944 -18.789 0.083 -126.513 0.088 54.197 0.3 69.676
          0.3 69.676 0.088 54.197 0.083 -126.513 0.944 -18.789
          0.088 54.197 0.3 69.676 0.944 -18.789 0.083 -126.513
568.922 0.084 -126.913 0.943 -18.98 0.303 69.473 0.089 53.832
          0.943 -18.98 0.084 -126.913 0.089 53.832 0.303 69.473
          0.303 69.473 0.089 53.832 0.084 -126.913 0.943 -18.98
          0.089 53.832 0.303 69.473 0.943 -18.98 0.084 -126.913
575.188 0.084 -127.313 0.942 -19.17 0.306 69.27 0.09 53.469
          0.942 -19.17 0.084 -127.313 0.09 53.469 0.306 69.27
          0.306 69.27 0.09 53.469 0.084 -127.313 0.942 -19.17
          0.09 53.469 0.306 69.27 0.942 -19.17 0.084 -127.313
581.454 0.085 -127.711 0.94 -19.359 0.309 69.067 0.09 53.107
          0.94 -19.359 0.085 -127.711 0.09 53.107 0.309 69.067
          0.309 69.067 0.09 53.107 0.085 -127.711 0.94 -19.359
          0.09 53.107 0.309 69.067 0.94 -19.359 0.085 -127.711
587.719 0.086 -128.108 0.939 -19.548 0.312 68.866 0.091 52.746
          0.939 -19.548 0.086 -128.108 0.091 52.746 0.312 68.866
          0.312 68.866 0.091 52.746 0.086 -128.108 0.939 -19.548
          0.091 52.746 0.312 68.866 0.939 -19.548 0.086 -128.108
593.985 0.087 -128.504 0.938 -19.736 0.315 68.665 0.092 52.386
          0.938 -19.736 0.087 -128.504 0.092 52.386 0.315 68.665
          0.315 68.665 0.092 52.386 0.087 -128.504 0.938 -19.736
          0.092 52.386 0.315 68.665 0.938 -19.736 0.087 -128.504
600.251 0.087 -128.898 0.937 -19.924 0.318 68.464 0.093 52.027
          0.937 -19.924 0.087 -128.898 0.093 52.027 0.318 68.464
          0.318 68.464 0.093 52.027 0.087 -128.898 0.937 -19.924
          0.093 52.027 0.318 68.464 0.937 -19.924 0.087 -128.898
606.516 0.088 -129.291 0.936 -20.111 0.32 68.264 0.093 51.669
          0.936 -20.111 0.088 -129.291 0.093 51.669 0.32 68.264
          0.32 68.264 0.093 51.669 0.088 -129.291 0.936 -20.111
          0.093 51.669 0.32 68.264 0.936 -20.111 0.088 -129.291
612.782 0.089 -129.683 0.935 -20.298 0.323 68.065 0.094 51.311
          0.935 -20.298 0.089 -129.683 0.094 51.311 0.323 68.065
          0.323 68.065 0.094 51.311 0.089 -129.683 0.935 -20.298
          0.094 51.311 0.323 68.065 0.935 -20.298 0.089 -129.683
619.048 0.089 -130.074 0.934 -20.484 0.326 67.867 0.095 50.955
          0.934 -20.484 0.089 -130.074 0.095 50.955 0.326 67.867
          0.326 67.867 0.095 50.955 0.089 -130.074 0.934 -20.484
          0.095 50.955 0.326 67.867 0.934 -20.484 0.089 -130.074
625.313 0.09 -130.464 0.933 -20.67 0.329 67.669 0.095 50.6
          0.933 -20.67 0.09 -130.464 0.095 50.6 0.329 67.669
          0.329 67.669 0.095 50.6 0.09 -130.464 0.933 -20.67
          0.095 50.6 0.329 67.669 0.933 -20.67 0.09 -130.464
631.579 0.091 -130.852 0.932 -20.855 0.332 67.471 0.096 50.246
          0.932 -20.855 0.091 -130.852 0.096 50.246 0.332 67.471
          0.332 67.471 0.096 50.246 0.091 -130.852 0.932 -20.855
          0.096 50.246 0.332 67.471 0.932 -20.855 0.091 -130.852
637.845 0.091 -131.24 0.93 -21.039 0.335 67.275 0.097 49.893
          0.93 -21.039 0.091 -131.24 0.097 49.893 0.335 67.275
          0.335 67.275 0.097 49.893 0.091 -131.24 0.93 -21.039
          0.097 49.893 0.335 67.275 0.93 -21.039 0.091 -131.24
644.11 0.092 -131.626 0.929 -21.223 0.337 67.079 0.098 49.541
          0.929 -21.223 0.092 -131.626 0.098 49.541 0.337 67.079
          0.337 67.079 0.098 49.541 0.092 -131.626 0.929 -21.223
          0.098 49.541 0.337 67.079 0.929 -21.223 0.092 -131.626
650.376 0.093 -132.01 0.928 -21.407 0.34 66.884 0.098 49.19
          0.928 -21.407 0.093 -132.01 0.098 49.19 0.34 66.884
          0.34 66.884 0.098 49.19 0.093 -132.01 0.928 -21.407
          0.098 49.19 0.34 66.884 0.928 -21.407 0.093 -132.01
656.642 0.093 -132.394 0.927 -21.59 0.343 66.689 0.099 48.84
          0.927 -21.59 0.093 -132.394 0.099 48.84 0.343 66.689
          0.343 66.689 0.099 48.84 0.093 -132.394 0.927 -21.59
          0.099 48.84 0.343 66.689 0.927 -21.59 0.093 -132.394
662.907 0.094 -132.777 0.926 -21.772 0.346 66.495 0.1 48.491
          0.926 -21.772 0.094 -132.777 0.1 48.491 0.346 66.495
          0.346 66.495 0.1 48.491 0.094 -132.777 0.926 -21.772
          0.1 48.491 0.346 66.495 0.926 -21.772 0.094 -132.777
669.173 0.095 -133.158 0.925 -21.954 0.348 66.302 0.1 48.143
          0.925 -21.954 0.095 -133.158 0.1 48.143 0.348 66.302
          0.348 66.302 0.1 48.143 0.095 -133.158 0.925 -21.954
          0.1 48.143 0.348 66.302 0.925 -21.954 0.095 -133.158
675.439 0.095 -133.538 0.923 -22.135 0.351 66.109 0.101 47.796
          0.923 -22.135 0.095 -133.538 0.101 47.796 0.351 66.109
          0.351 66.109 0.101 47.796 0.095 -133.538 0.923 -22.135
          0.101 47.796 0.351 66.109 0.923 -22.135 0.095 -133.538
681.704 0.096 -133.917 0.922 -22.316 0.354 65.917 0.102 47.45
          0.922 -22.316 0.096 -133.917 0.102 47.45 0.354 65.917
          0.354 65.917 0.102 47.45 0.096 -133.917 0.922 -22.316
          0.102 47.45 0.354 65.917 0.922 -22.316 0.096 -133.917
687.97 0.096 -134.295 0.921 -22.496 0.357 65.726 0.102 47.105
          0.921 -22.496 0.096 -134.295 0.102 47.105 0.357 65.726
          0.357 65.726 0.102 47.105 0.096 -134.295 0.921 -22.496
          0.102 47.105 0.357 65.726 0.921 -22.496 0.096 -134.295
694.236 0.097 -134.671 0.92 -22.675 0.359 65.535 0.103 46.761
          0.92 -22.675 0.097 -134.671 0.103 46.761 0.359 65.535
          0.359 65.535 0.103 46.761 0.097 -134.671 0.92 -22.675
          0.103 46.761 0.359 65.535 0.92 -22.675 0.097 -134.671
700.501 0.098 -135.047 0.919 -22.854 0.362 65.345 0.103 46.418
          0.919 -22.854 0.098 -135.047 0.103 46.418 0.362 65.345
          0.362 65.345 0.103 46.418 0.098 -135.047 0.919 -22.854
          0.103 46.418 0.362 65.345 0.919 -22.854 0.098 -135.047
706.767 0.098 -135.421 0.918 -23.033 0.365 65.156 0.104 46.077
          0.918 -23.033 0.098 -135.421 0.104 46.077 0.365 65.156
          0.365 65.156 0.104 46.077 0.098 -135.421 0.918 -23.033
          0.104 46.077 0.365 65.156 0.918 -23.033 0.098 -135.421
713.033 0.099 -135.794 0.916 -23.211 0.367 64.967 0.105 45.736
          0.916 -23.211 0.099 -135.794 0.105 45.736 0.367 64.967
          0.367 64.967 0.105 45.736 0.099 -135.794 0.916 -23.211
          0.105 45.736 0.367 64.967 0.916 -23.211 0.099 -135.794
719.298 0.099 -136.166 0.915 -23.388 0.37 64.779 0.105 45.396
          0.915 -23.388 0.099 -136.166 0.105 45.396 0.37 64.779
          0.37 64.779 0.105 45.396 0.099 -136.166 0.915 -23.388
          0.105 45.396 0.37 64.779 0.915 -23.388 0.099 -136.166
725.564 0.1 -136.536 0.914 -23.565 0.372 64.592 0.106 45.058
          0.914 -23.565 0.1 -136.536 0.106 45.058 0.372 64.592
          0.372 64.592 0.106 45.058 0.1 -136.536 0.914 -23.565
          0.106 45.058 0.372 64.592 0.914 -23.565 0.1 -136.536
731.83 0.101 -136.906 0.913 -23.741 0.375 64.405 0.107 44.72
          0.913 -23.741 0.101 -136.906 0.107 44.72 0.375 64.405
          0.375 64.405 0.107 44.72 0.101 -136.906 0.913 -23.741
          0.107 44.72 0.375 64.405 0.913 -23.741 0.101 -136.906
738.095 0.101 -137.274 0.912 -23.917 0.378 64.219 0.107 44.384
          0.912 -23.917 0.101 -137.274 0.107 44.384 0.378 64.219
          0.378 64.219 0.107 44.384 0.101 -137.274 0.912 -23.917
          0.107 44.384 0.378 64.219 0.912 -23.917 0.101 -137.274
744.361 0.102 -137.642 0.91 -24.092 0.38 64.033 0.108 44.048
          0.91 -24.092 0.102 -137.642 0.108 44.048 0.38 64.033
          0.38 64.033 0.108 44.048 0.102 -137.642 0.91 -24.092
          0.108 44.048 0.38 64.033 0.91 -24.092 0.102 -137.642
750.627 0.102 -138.008 0.909 -24.266 0.383 63.849 0.108 43.714
          0.909 -24.266 0.102 -138.008 0.108 43.714 0.383 63.849
          0.383 63.849 0.108 43.714 0.102 -138.008 0.909 -24.266
          0.108 43.714 0.383 63.849 0.909 -24.266 0.102 -138.008
756.892 0.103 -138.373 0.908 -24.441 0.385 63.664 0.109 43.381
          0.908 -24.441 0.103 -138.373 0.109 43.381 0.385 63.664
          0.385 63.664 0.109 43.381 0.103 -138.373 0.908 -24.441
          0.109 43.381 0.385 63.664 0.908 -24.441 0.103 -138.373
763.158 0.103 -138.737 0.907 -24.614 0.388 63.481 0.109 43.049
          0.907 -24.614 0.103 -138.737 0.109 43.049 0.388 63.481
          0.388 63.481 0.109 43.049 0.103 -138.737 0.907 -24.614
          0.109 43.049 0.388 63.481 0.907 -24.614 0.103 -138.737
769.424 0.104 -139.099 0.905 -24.787 0.391 63.298 0.11 42.717
          0.905 -24.787 0.104 -139.099 0.11 42.717 0.391 63.298
          0.391 63.298 0.11 42.717 0.104 -139.099 0.905 -24.787
          0.11 42.717 0.391 63.298 0.905 -24.787 0.104 -139.099
775.689 0.105 -139.461 0.904 -24.959 0.393 63.116 0.111 42.387
          0.904 -24.959 0.105 -139.461 0.111 42.387 0.393 63.116
          0.393 63.116 0.111 42.387 0.105 -139.461 0.904 -24.959
          0.111 42.387 0.393 63.116 0.904 -24.959 0.105 -139.461
781.955 0.105 -139.821 0.903 -25.131 0.396 62.935 0.111 42.058
          0.903 -25.131 0.105 -139.821 0.111 42.058 0.396 62.935
          0.396 62.935 0.111 42.058 0.105 -139.821 0.903 -25.131
          0.111 42.058 0.396 62.935 0.903 -25.131 0.105 -139.821
788.221 0.106 -140.18 0.902 -25.302 0.398 62.754 0.112 41.73
          0.902 -25.302 0.106 -140.18 0.112 41.73 0.398 62.754
          0.398 62.754 0.112 41.73 0.106 -140.18 0.902 -25.302
          0.112 41.73 0.398 62.754 0.902 -25.302 0.106 -140.18
794.486 0.106 -140.539 0.9 -25.473 0.401 62.574 0.112 41.403
          0.9 -25.473 0.106 -140.539 0.112 41.403 0.401 62.574
          0.401 62.574 0.112 41.403 0.106 -140.539 0.9 -25.473
          0.112 41.403 0.401 62.574 0.9 -25.473 0.106 -140.539
800.752 0.107 -140.896 0.899 -25.643 0.403 62.394 0.113 41.078
          0.899 -25.643 0.107 -140.896 0.113 41.078 0.403 62.394
          0.403 62.394 0.113 41.078 0.107 -140.896 0.899 -25.643
          0.113 41.078 0.403 62.394 0.899 -25.643 0.107 -140.896
807.018 0.107 -141.251 0.898 -25.813 0.406 62.215 0.113 40.753
          0.898 -25.813 0.107 -141.251 0.113 40.753 0.406 62.215
          0.406 62.215 0.113 40.753 0.107 -141.251 0.898 -25.813
          0.113 40.753 0.406 62.215 0.898 -25.813 0.107 -141.251
813.283 0.108 -141.606 0.897 -25.982 0.408 62.037 0.114 40.429
          0.897 -25.982 0.108 -141.606 0.114 40.429 0.408 62.037
          0.408 62.037 0.114 40.429 0.108 -141.606 0.897 -25.982
          0.114 40.429 0.408 62.037 0.897 -25.982 0.108 -141.606
819.549 0.108 -141.96 0.895 -26.151 0.41 61.86 0.114 40.107
          0.895 -26.151 0.108 -141.96 0.114 40.107 0.41 61.86
          0.41 61.86 0.114 40.107 0.108 -141.96 0.895 -26.151
          0.114 40.107 0.41 61.86 0.895 -26.151 0.108 -141.96
825.815 0.109 -142.312 0.894 -26.319 0.413 61.683 0.115 39.785
          0.894 -26.319 0.109 -142.312 0.115 39.785 0.413 61.683
          0.413 61.683 0.115 39.785 0.109 -142.312 0.894 -26.319
          0.115 39.785 0.413 61.683 0.894 -26.319 0.109 -142.312
832.08 0.109 -142.664 0.893 -26.486 0.415 61.506 0.115 39.465
          0.893 -26.486 0.109 -142.664 0.115 39.465 0.415 61.506
          0.415 61.506 0.115 39.465 0.109 -142.664 0.893 -26.486
          0.115 39.465 0.415 61.506 0.893 -26.486 0.109 -142.664
838.346 0.11 -143.014 0.892 -26.653 0.418 61.331 0.116 39.145
          0.892 -26.653 0.11 -143.014 0.116 39.145 0.418 61.331
          0.418 61.331 0.116 39.145 0.11 -143.014 0.892 -26.653
          0.116 39.145 0.418 61.331 0.892 -26.653 0.11 -143.014
844.612 0.11 -143.363 0.89 -26.819 0.42 61.156 0.116 38.827
          0.89 -26.819 0.11 -143.363 0.116 38.827 0.42 61.156
          0.42 61.156 0.116 38.827 0.11 -143.363 0.89 -26.819
          0.116 38.827 0.42 61.156 0.89 -26.819 0.11 -143.363
850.877 0.111 -143.711 0.889 -26.985 0.423 60.982 0.117 38.51
          0.889 -26.985 0.111 -143.711 0.117 38.51 0.423 60.982
          0.423 60.982 0.117 38.51 0.111 -143.711 0.889 -26.985
          0.117 38.51 0.423 60.982 0.889 -26.985 0.111 -143.711
857.143 0.111 -144.058 0.888 -27.15 0.425 60.808 0.117 38.193
          0.888 -27.15 0.111 -144.058 0.117 38.193 0.425 60.808
          0.425 60.808 0.117 38.193 0.111 -144.058 0.888 -27.15
          0.117 38.193 0.425 60.808 0.888 -27.15 0.111 -144.058
863.409 0.112 -144.404 0.887 -27.315 0.427 60.635 0.118 37.878
          0.887 -27.315 0.112 -144.404 0.118 37.878 0.427 60.635
          0.427 60.635 0.118 37.878 0.112 -144.404 0.887 -27.315
          0.118 37.878 0.427 60.635 0.887 -27.315 0.112 -144.404
869.674 0.112 -144.748 0.885 -27.479 0.43 60.463 0.118 37.564
          0.885 -27.479 0.112 -144.748 0.118 37.564 0.43 60.463
          0.43 60.463 0.118 37.564 0.112 -144.748 0.885 -27.479
          0.118 37.564 0.43 60.463 0.885 -27.479 0.112 -144.748
875.94 0.112 -145.092 0.884 -27.643 0.432 60.291 0.119 37.251
          0.884 -27.643 0.112 -145.092 0.119 37.251 0.432 60.291
          0.432 60.291 0.119 37.251 0.112 -145.092 0.884 -27.643
          0.119 37.251 0.432 60.291 0.884 -27.643 0.112 -145.092
882.206 0.113 -145.435 0.883 -27.806 0.434 60.12 0.119 36.939
          0.883 -27.806 0.113 -145.435 0.119 36.939 0.434 60.12
          0.434 60.12 0.119 36.939 0.113 -145.435 0.883 -27.806
          0.119 36.939 0.434 60.12 0.883 -27.806 0.113 -145.435
888.471 0.113 -145.776 0.882 -27.969 0.437 59.949 0.12 36.629
          0.882 -27.969 0.113 -145.776 0.12 36.629 0.437 59.949
          0.437 59.949 0.12 36.629 0.113 -145.776 0.882 -27.969
          0.12 36.629 0.437 59.949 0.882 -27.969 0.113 -145.776
894.737 0.114 -146.116 0.88 -28.131 0.439 59.779 0.12 36.319
          0.88 -28.131 0.114 -146.116 0.12 36.319 0.439 59.779
          0.439 59.779 0.12 36.319 0.114 -146.116 0.88 -28.131
          0.12 36.319 0.439 59.779 0.88 -28.131 0.114 -146.116
901.003 0.114 -146.455 0.879 -28.292 0.441 59.61 0.121 36.01
          0.879 -28.292 0.114 -146.455 0.121 36.01 0.441 59.61
          0.441 59.61 0.121 36.01 0.114 -146.455 0.879 -28.292
          0.121 36.01 0.441 59.61 0.879 -28.292 0.114 -146.455
907.268 0.115 -146.794 0.878 -28.453 0.444 59.442 0.121 35.702
          0.878 -28.453 0.115 -146.794 0.121 35.702 0.444 59.442
          0.444 59.442 0.121 35.702 0.115 -146.794 0.878 -28.453
          0.121 35.702 0.444 59.442 0.878 -28.453 0.115 -146.794
913.534 0.115 -147.131 0.877 -28.614 0.446 59.274 0.121 35.396
          0.877 -28.614 0.115 -147.131 0.121 35.396 0.446 59.274
          0.446 59.274 0.121 35.396 0.115 -147.131 0.877 -28.614
          0.121 35.396 0.446 59.274 0.877 -28.614 0.115 -147.131
919.799 0.116 -147.467 0.875 -28.774 0.448 59.106 0.122 35.09
          0.875 -28.774 0.116 -147.467 0.122 35.09 0.448 59.106
          0.448 59.106 0.122 35.09 0.116 -147.467 0.875 -28.774
          0.122 35.09 0.448 59.106 0.875 -28.774 0.116 -147.467
926.065 0.116 -147.801 0.874 -28.933 0.45 58.94 0.122 34.786
          0.874 -28.933 0.116 -147.801 0.122 34.786 0.45 58.94
          0.45 58.94 0.122 34.786 0.116 -147.801 0.874 -28.933
          0.122 34.786 0.45 58.94 0.874 -28.933 0.116 -147.801
932.331 0.116 -148.135 0.873 -29.092 0.453 58.774 0.123 34.483
          0.873 -29.092 0.116 -148.135 0.123 34.483 0.453 58.774
          0.453 58.774 0.123 34.483 0.116 -148.135 0.873 -29.092
          0.123 34.483 0.453 58.774 0.873 -29.092 0.116 -148.135
938.596 0.117 -148.468 0.871 -29.25 0.455 58.608 0.123 34.18
          0.871 -29.25 0.117 -148.468 0.123 34.18 0.455 58.608
          0.455 58.608 0.123 34.18 0.117 -148.468 0.871 -29.25
          0.123 34.18 0.455 58.608 0.871 -29.25 0.117 -148.468
944.862 0.117 -148.8 0.87 -29.408 0.457 58.444 0.124 33.879
          0.87 -29.408 0.117 -148.8 0.124 33.879 0.457 58.444
          0.457 58.444 0.124 33.879 0.117 -148.8 0.87 -29.408
          0.124 33.879 0.457 58.444 0.87 -29.408 0.117 -148.8
951.128 0.118 -149.13 0.869 -29.565 0.459 58.279 0.124 33.579
          0.869 -29.565 0.118 -149.13 0.124 33.579 0.459 58.279
          0.459 58.279 0.124 33.579 0.118 -149.13 0.869 -29.565
          0.124 33.579 0.459 58.279 0.869 -29.565 0.118 -149.13
957.393 0.118 -149.46 0.868 -29.722 0.461 58.116 0.124 33.28
          0.868 -29.722 0.118 -149.46 0.124 33.28 0.461 58.116
          0.461 58.116 0.124 33.28 0.118 -149.46 0.868 -29.722
          0.124 33.28 0.461 58.116 0.868 -29.722 0.118 -149.46
963.659 0.118 -149.788 0.866 -29.878 0.464 57.953 0.125 32.982
          0.866 -29.878 0.118 -149.788 0.125 32.982 0.464 57.953
          0.464 57.953 0.125 32.982 0.118 -149.788 0.866 -29.878
          0.125 32.982 0.464 57.953 0.866 -29.878 0.118 -149.788
969.925 0.119 -150.115 0.865 -30.034 0.466 57.791 0.125 32.685
          0.865 -30.034 0.119 -150.115 0.125 32.685 0.466 57.791
          0.466 57.791 0.125 32.685 0.119 -150.115 0.865 -30.034
          0.125 32.685 0.466 57.791 0.865 -30.034 0.119 -150.115
976.19 0.119 -150.442 0.864 -30.189 0.468 57.629 0.126 32.389
          0.864 -30.189 0.119 -150.442 0.126 32.389 0.468 57.629
          0.468 57.629 0.126 32.389 0.119 -150.442 0.864 -30.189
          0.126 32.389 0.468 57.629 0.864 -30.189 0.119 -150.442
982.456 0.12 -150.767 0.862 -30.344 0.47 57.468 0.126 32.094
          0.862 -30.344 0.12 -150.767 0.126 32.094 0.47 57.468
          0.47 57.468 0.126 32.094 0.12 -150.767 0.862 -30.344
