!	AVX THIN FILM OPERATION
!	
!	0805 SIZE 3dB 90deg COUPLER P/N DB0805A0850AWTR
!
!	Created March 23 2003
!						
!	Network Analyzer HP8720E S.07.64: Feb23, 2000 Serial No.US39172382		
!
!	
#	MHZ	S	MA	R	50					

500	0.061	-59.869	0.072	-83.343	0.481	68.754	0.855	-23.06		
	0.072	-83.343	0.088	-76.515	0.852	-20.786	0.481	68.754		
	0.481	68.754	0.852	-20.786	0.088	-76.515	0.072	-83.343		
	0.855	-23.06	0.481	68.754	0.072	-83.343	0.061	-59.869		
502.506	0.062	-59.876	0.072	-83.316	0.483	68.66	0.854	-23.163		
	0.072	-83.316	0.088	-76.532	0.851	-20.879	0.483	68.66		
	0.483	68.66	0.851	-20.879	0.088	-76.532	0.072	-83.316		
	0.854	-23.163	0.483	68.66	0.072	-83.316	0.062	-59.876		
505.013	0.062	-59.883	0.073	-83.29	0.485	68.566	0.853	-23.266		
	0.073	-83.29	0.089	-76.548	0.85	-20.971	0.485	68.566		
	0.485	68.566	0.85	-20.971	0.089	-76.548	0.073	-83.29		
	0.853	-23.266	0.485	68.566	0.073	-83.29	0.062	-59.883
507.519	0.062	-59.89	0.073	-83.263	0.487	68.472	0.851	-23.369
	0.073	-83.263	0.089	-76.564	0.849	-21.064	0.487	68.472
	0.487	68.472	0.849	-21.064	0.089	-76.564	0.073	-83.263
	0.851	-23.369	0.487	68.472	0.073	-83.263	0.062	-59.89
510.025	0.063	-59.896	0.073	-83.237	0.489	68.379	0.85	-23.472
	0.073	-83.237	0.089	-76.579	0.848	-21.156	0.489	68.379
	0.489	68.379	0.848	-21.156	0.089	-76.579	0.073	-83.237
	0.85	-23.472	0.489	68.379	0.073	-83.237	0.063	-59.896
512.531	0.063	-59.903	0.073	-83.211	0.49	68.285	0.849	-23.575
	0.073	-83.211	0.09	-76.594	0.847	-21.249	0.49	68.285
	0.49	68.285	0.847	-21.249	0.09	-76.594	0.073	-83.211
	0.849	-23.575	0.49	68.285	0.073	-83.211	0.063	-59.903
515.038	0.063	-59.908	0.074	-83.184	0.492	68.192	0.848	-23.677
	0.074	-83.184	0.09	-76.608	0.845	-21.341	0.492	68.192
	0.492	68.192	0.845	-21.341	0.09	-76.608	0.074	-83.184
	0.848	-23.677	0.492	68.192	0.074	-83.184	0.063	-59.908
517.544	0.063	-59.914	0.074	-83.158	0.494	68.099	0.847	-23.78
	0.074	-83.158	0.09	-76.622	0.844	-21.433	0.494	68.099
	0.494	68.099	0.844	-21.433	0.09	-76.622	0.074	-83.158
	0.847	-23.78	0.494	68.099	0.074	-83.158	0.063	-59.914
520.05	0.064	-59.919	0.074	-83.132	0.496	68.006	0.846	-23.882
	0.074	-83.132	0.091	-76.636	0.843	-21.525	0.496	68.006
	0.496	68.006	0.843	-21.525	0.091	-76.636	0.074	-83.132
	0.846	-23.882	0.496	68.006	0.074	-83.132	0.064	-59.919
522.556	0.064	-59.923	0.075	-83.106	0.498	67.914	0.845	-23.984
	0.075	-83.106	0.091	-76.65	0.842	-21.616	0.498	67.914
	0.498	67.914	0.842	-21.616	0.091	-76.65	0.075	-83.106
	0.845	-23.984	0.498	67.914	0.075	-83.106	0.064	-59.923
525.063	0.064	-59.928	0.075	-83.08	0.5	67.821	0.844	-24.086
	0.075	-83.08	0.091	-76.663	0.841	-21.708	0.5	67.821
	0.5	67.821	0.841	-21.708	0.091	-76.663	0.075	-83.08
	0.844	-24.086	0.5	67.821	0.075	-83.08	0.064	-59.928
527.569	0.064	-59.932	0.075	-83.054	0.502	67.729	0.842	-24.188
	0.075	-83.054	0.092	-76.675	0.84	-21.799	0.502	67.729
	0.502	67.729	0.84	-21.799	0.092	-76.675	0.075	-83.054
	0.842	-24.188	0.502	67.729	0.075	-83.054	0.064	-59.932
530.075	0.065	-59.936	0.076	-83.028	0.503	67.637	0.841	-24.29
	0.076	-83.028	0.092	-76.688	0.839	-21.891	0.503	67.637
	0.503	67.637	0.839	-21.891	0.092	-76.688	0.076	-83.028
	0.841	-24.29	0.503	67.637	0.076	-83.028	0.065	-59.936
532.581	0.065	-59.94	0.076	-83.003	0.505	67.544	0.84	-24.391
	0.076	-83.003	0.092	-76.7	0.837	-21.982	0.505	67.544
	0.505	67.544	0.837	-21.982	0.092	-76.7	0.076	-83.003
	0.84	-24.391	0.505	67.544	0.076	-83.003	0.065	-59.94
535.088	0.065	-59.943	0.076	-82.977	0.507	67.453	0.839	-24.493
	0.076	-82.977	0.093	-76.711	0.836	-22.073	0.507	67.453
	0.507	67.453	0.836	-22.073	0.093	-76.711	0.076	-82.977
	0.839	-24.493	0.507	67.453	0.076	-82.977	0.065	-59.943
537.594	0.066	-59.946	0.076	-82.951	0.509	67.361	0.838	-24.594
	0.076	-82.951	0.093	-76.722	0.835	-22.164	0.509	67.361
	0.509	67.361	0.835	-22.164	0.093	-76.722	0.076	-82.951
	0.838	-24.594	0.509	67.361	0.076	-82.951	0.066	-59.946
540.1	0.066	-59.949	0.077	-82.926	0.511	67.269	0.837	-24.695
	0.077	-82.926	0.093	-76.733	0.834	-22.255	0.511	67.269
	0.511	67.269	0.834	-22.255	0.093	-76.733	0.077	-82.926
	0.837	-24.695	0.511	67.269	0.077	-82.926	0.066	-59.949
542.607	0.066	-59.952	0.077	-82.9	0.512	67.178	0.836	-24.796
	0.077	-82.9	0.094	-76.744	0.833	-22.345	0.512	67.178
	0.512	67.178	0.833	-22.345	0.094	-76.744	0.077	-82.9
	0.836	-24.796	0.512	67.178	0.077	-82.9	0.066	-59.952
545.113	0.066	-59.954	0.077	-82.875	0.514	67.086	0.834	-24.897
	0.077	-82.875	0.094	-76.754	0.832	-22.436	0.514	67.086
	0.514	67.086	0.832	-22.436	0.094	-76.754	0.077	-82.875
	0.834	-24.897	0.514	67.086	0.077	-82.875	0.066	-59.954
547.619	0.067	-59.956	0.078	-82.85	0.516	66.995	0.833	-24.997
	0.078	-82.85	0.094	-76.764	0.83	-22.526	0.516	66.995
	0.516	66.995	0.83	-22.526	0.094	-76.764	0.078	-82.85
	0.833	-24.997	0.516	66.995	0.078	-82.85	0.067	-59.956
550.125	0.067	-59.958	0.078	-82.824	0.518	66.904	0.832	-25.098
	0.078	-82.824	0.095	-76.774	0.829	-22.616	0.518	66.904
	0.518	66.904	0.829	-22.616	0.095	-76.774	0.078	-82.824
	0.832	-25.098	0.518	66.904	0.078	-82.824	0.067	-59.958
552.632	0.067	-59.96	0.078	-82.799	0.519	66.814	0.831	-25.198
	0.078	-82.799	0.095	-76.783	0.828	-22.706	0.519	66.814
	0.519	66.814	0.828	-22.706	0.095	-76.783	0.078	-82.799
	0.831	-25.198	0.519	66.814	0.078	-82.799	0.067	-59.96
555.138	0.068	-59.961	0.078	-82.774	0.521	66.723	0.83	-25.298
	0.078	-82.774	0.095	-76.792	0.827	-22.796	0.521	66.723
	0.521	66.723	0.827	-22.796	0.095	-76.792	0.078	-82.774
	0.83	-25.298	0.521	66.723	0.078	-82.774	0.068	-59.961
557.644	0.068	-59.962	0.079	-82.749	0.523	66.632	0.829	-25.398
	0.079	-82.749	0.096	-76.801	0.826	-22.886	0.523	66.632
	0.523	66.632	0.826	-22.886	0.096	-76.801	0.079	-82.749
	0.829	-25.398	0.523	66.632	0.079	-82.749	0.068	-59.962
560.15	0.068	-59.963	0.079	-82.724	0.525	66.542	0.828	-25.498
	0.079	-82.724	0.096	-76.809	0.825	-22.975	0.525	66.542
	0.525	66.542	0.825	-22.975	0.096	-76.809	0.079	-82.724
	0.828	-25.498	0.525	66.542	0.079	-82.724	0.068	-59.963
562.657	0.068	-59.964	0.079	-82.699	0.526	66.452	0.826	-25.597
	0.079	-82.699	0.096	-76.817	0.823	-23.065	0.526	66.452
	0.526	66.452	0.823	-23.065	0.096	-76.817	0.079	-82.699
	0.826	-25.597	0.526	66.452	0.079	-82.699	0.068	-59.964
565.163	0.069	-59.965	0.08	-82.675	0.528	66.362	0.825	-25.697
	0.08	-82.675	0.097	-76.825	0.822	-23.154	0.528	66.362
	0.528	66.362	0.822	-23.154	0.097	-76.825	0.08	-82.675
	0.825	-25.697	0.528	66.362	0.08	-82.675	0.069	-59.965
567.669	0.069	-59.965	0.08	-82.65	0.53	66.272	0.824	-25.796
	0.08	-82.65	0.097	-76.832	0.821	-23.243	0.53	66.272
	0.53	66.272	0.821	-23.243	0.097	-76.832	0.08	-82.65
	0.824	-25.796	0.53	66.272	0.08	-82.65	0.069	-59.965
570.175	0.069	-59.965	0.08	-82.625	0.532	66.182	0.823	-25.895
	0.08	-82.625	0.097	-76.84	0.82	-23.332	0.532	66.182
	0.532	66.182	0.82	-23.332	0.097	-76.84	0.08	-82.625
	0.823	-25.895	0.532	66.182	0.08	-82.625	0.069	-59.965
572.682	0.069	-59.965	0.08	-82.601	0.533	66.093	0.822	-25.994
	0.08	-82.601	0.097	-76.847	0.819	-23.421	0.533	66.093
	0.533	66.093	0.819	-23.421	0.097	-76.847	0.08	-82.601
	0.822	-25.994	0.533	66.093	0.08	-82.601	0.069	-59.965
575.188	0.07	-59.965	0.081	-82.576	0.535	66.003	0.821	-26.093
	0.081	-82.576	0.098	-76.853	0.818	-23.51	0.535	66.003
	0.535	66.003	0.818	-23.51	0.098	-76.853	0.081	-82.576
	0.821	-26.093	0.535	66.003	0.081	-82.576	0.07	-59.965
577.694	0.07	-59.965	0.081	-82.552	0.537	65.914	0.819	-26.192
	0.081	-82.552	0.098	-76.86	0.816	-23.598	0.537	65.914
	0.537	65.914	0.816	-23.598	0.098	-76.86	0.081	-82.552
	0.819	-26.192	0.537	65.914	0.081	-82.552	0.07	-59.965
580.201	0.07	-59.964	0.081	-82.527	0.538	65.825	0.818	-26.29
	0.081	-82.527	0.098	-76.866	0.815	-23.687	0.538	65.825
	0.538	65.825	0.815	-23.687	0.098	-76.866	0.081	-82.527
	0.818	-26.29	0.538	65.825	0.081	-82.527	0.07	-59.964
582.707	0.071	-59.963	0.082	-82.503	0.54	65.736	0.817	-26.389
	0.082	-82.503	0.099	-76.872	0.814	-23.775	0.54	65.736
	0.54	65.736	0.814	-23.775	0.099	-76.872	0.082	-82.503
	0.817	-26.389	0.54	65.736	0.082	-82.503	0.071	-59.963
585.213	0.071	-59.963	0.082	-82.479	0.542	65.647	0.816	-26.487
	0.082	-82.479	0.099	-76.877	0.813	-23.863	0.542	65.647
	0.542	65.647	0.813	-23.863	0.099	-76.877	0.082	-82.479
	0.816	-26.487	0.542	65.647	0.082	-82.479	0.071	-59.963
587.719	0.071	-59.962	0.082	-82.455	0.543	65.559	0.815	-26.585
	0.082	-82.455	0.099	-76.882	0.812	-23.951	0.543	65.559
	0.543	65.559	0.812	-23.951	0.099	-76.882	0.082	-82.455
	0.815	-26.585	0.543	65.559	0.082	-82.455	0.071	-59.962
590.226	0.071	-59.96	0.082	-82.431	0.545	65.47	0.814	-26.683
	0.082	-82.431	0.1	-76.888	0.81	-24.039	0.545	65.47
	0.545	65.47	0.81	-24.039	0.1	-76.888	0.082	-82.431
	0.814	-26.683	0.545	65.47	0.082	-82.431	0.071	-59.96
592.732	0.072	-59.959	0.083	-82.407	0.547	65.382	0.812	-26.781
	0.083	-82.407	0.1	-76.892	0.809	-24.127	0.547	65.382
	0.547	65.382	0.809	-24.127	0.1	-76.892	0.083	-82.407
	0.812	-26.781	0.547	65.382	0.083	-82.407	0.072	-59.959
595.238	0.072	-59.958	0.083	-82.383	0.548	65.294	0.811	-26.878
	0.083	-82.383	0.1	-76.897	0.808	-24.215	0.548	65.294
	0.548	65.294	0.808	-24.215	0.1	-76.897	0.083	-82.383
	0.811	-26.878	0.548	65.294	0.083	-82.383	0.072	-59.958
597.744	0.072	-59.956	0.083	-82.359	0.55	65.206	0.81	-26.976
	0.083	-82.359	0.101	-76.901	0.807	-24.302	0.55	65.206
	0.55	65.206	0.807	-24.302	0.101	-76.901	0.083	-82.359
	0.81	-26.976	0.55	65.206	0.083	-82.359	0.072	-59.956
600.251	0.073	-59.954	0.083	-82.335	0.552	65.118	0.809	-27.073
	0.083	-82.335	0.101	-76.905	0.806	-24.389	0.552	65.118
	0.552	65.118	0.806	-24.389	0.101	-76.905	0.083	-82.335
	0.809	-27.073	0.552	65.118	0.083	-82.335	0.073	-59.954
602.757	0.073	-59.952	0.084	-82.311	0.553	65.031	0.808	-27.17
	0.084	-82.311	0.101	-76.909	0.804	-24.476	0.553	65.031
	0.553	65.031	0.804	-24.476	0.101	-76.909	0.084	-82.311
	0.808	-27.17	0.553	65.031	0.084	-82.311	0.073	-59.952
605.263	0.073	-59.95	0.084	-82.288	0.555	64.943	0.807	-27.267
	0.084	-82.288	0.101	-76.913	0.803	-24.563	0.555	64.943
	0.555	64.943	0.803	-24.563	0.101	-76.913	0.084	-82.288
	0.807	-27.267	0.555	64.943	0.084	-82.288	0.073	-59.95
607.769	0.073	-59.948	0.084	-82.264	0.557	64.856	0.805	-27.364
	0.084	-82.264	0.102	-76.916	0.802	-24.65	0.557	64.856
	0.557	64.856	0.802	-24.65	0.102	-76.916	0.084	-82.264
	0.805	-27.364	0.557	64.856	0.084	-82.264	0.073	-59.948
610.276	0.074	-59.946	0.085	-82.241	0.558	64.769	0.804	-27.461
	0.085	-82.241	0.102	-76.92	0.801	-24.737	0.558	64.769
	0.558	64.769	0.801	-24.737	0.102	-76.92	0.085	-82.241
	0.804	-27.461	0.558	64.769	0.085	-82.241	0.074	-59.946
612.782	0.074	-59.944	0.085	-82.217	0.56	64.682	0.803	-27.557
	0.085	-82.217	0.102	-76.922	0.8	-24.824	0.56	64.682
	0.56	64.682	0.8	-24.824	0.102	-76.922	0.085	-82.217
	0.803	-27.557	0.56	64.682	0.085	-82.217	0.074	-59.944
615.288	0.074	-59.941	0.085	-82.194	0.561	64.595	0.802	-27.654
	0.085	-82.194	0.103	-76.925	0.799	-24.91	0.561	64.595
	0.561	64.595	0.799	-24.91	0.103	-76.925	0.085	-82.194
	0.802	-27.654	0.561	64.595	0.085	-82.194	0.074	-59.941
617.794	0.074	-59.939	0.085	-82.171	0.563	64.508	0.801	-27.75
	0.085	-82.171	0.103	-76.928	0.797	-24.996	0.563	64.508
	0.563	64.508	0.797	-24.996	0.103	-76.928	0.085	-82.171
	0.801	-27.75	0.563	64.508	0.085	-82.171	0.074	-59.939
620.301	0.075	-59.936	0.086	-82.148	0.565	64.422	0.8	-27.846
	0.086	-82.148	0.103	-76.93	0.796	-25.083	0.565	64.422
	0.565	64.422	0.796	-25.083	0.103	-76.93	0.086	-82.148
	0.8	-27.846	0.565	64.422	0.086	-82.148	0.075	-59.936
622.807	0.075	-59.933	0.086	-82.124	0.566	64.335	0.798	-27.942
	0.086	-82.124	0.104	-76.932	0.795	-25.169	0.566	64.335
	0.566	64.335	0.795	-25.169	0.104	-76.932	0.086	-82.124
	0.798	-27.942	0.566	64.335	0.086	-82.124	0.075	-59.933
625.313	0.075	-59.93	0.086	-82.101	0.568	64.249	0.797	-28.037
	0.086	-82.101	0.104	-76.934	0.794	-25.254	0.568	64.249
	0.568	64.249	0.794	-25.254	0.104	-76.934	0.086	-82.101
	0.797	-28.037	0.568	64.249	0.086	-82.101	0.075	-59.93
627.82	0.075	-59.927	0.086	-82.078	0.569	64.163	0.796	-28.133
	0.086	-82.078	0.104	-76.936	0.793	-25.34	0.569	64.163
	0.569	64.163	0.793	-25.34	0.104	-76.936	0.086	-82.078
	0.796	-28.133	0.569	64.163	0.086	-82.078	0.075	-59.927
630.326	0.076	-59.924	0.087	-82.056	0.571	64.077	0.795	-28.228
	0.087	-82.056	0.104	-76.937	0.791	-25.426	0.571	64.077
	0.571	64.077	0.791	-25.426	0.104	-76.937	0.087	-82.056
	0.795	-28.228	0.571	64.077	0.087	-82.056	0.076	-59.924
632.832	0.076	-59.921	0.087	-82.033	0.573	63.991	0.794	-28.324
	0.087	-82.033	0.105	-76.938	0.79	-25.511	0.573	63.991
	0.573	63.991	0.79	-25.511	0.105	-76.938	0.087	-82.033
	0.794	-28.324	0.573	63.991	0.087	-82.033	0.076	-59.921
635.338	0.076	-59.918	0.087	-82.01	0.574	63.906	0.792	-28.419
	0.087	-82.01	0.105	-76.94	0.789	-25.596	0.574	63.906
	0.574	63.906	0.789	-25.596	0.105	-76.94	0.087	-82.01
	0.792	-28.419	0.574	63.906	0.087	-82.01	0.076	-59.918
637.845	0.077	-59.915	0.087	-81.987	0.576	63.82	0.791	-28.514
	0.087	-81.987	0.105	-76.94	0.788	-25.682	0.576	63.82
	0.576	63.82	0.788	-25.682	0.105	-76.94	0.087	-81.987
	0.791	-28.514	0.576	63.82	0.087	-81.987	0.077	-59.915
640.351	0.077	-59.911	0.088	-81.965	0.577	63.735	0.79	-28.608
	0.088	-81.965	0.106	-76.941	0.787	-25.767	0.577	63.735
	0.577	63.735	0.787	-25.767	0.106	-76.941	0.088	-81.965
	0.79	-28.608	0.577	63.735	0.088	-81.965	0.077	-59.911
642.857	0.077	-59.908	0.088	-81.942	0.579	63.65	0.789	-28.703
	0.088	-81.942	0.106	-76.942	0.785	-25.852	0.579	63.65
	0.579	63.65	0.785	-25.852	0.106	-76.942	0.088	-81.942
	0.789	-28.703	0.579	63.65	0.088	-81.942	0.077	-59.908
645.363	0.077	-59.904	0.088	-81.92	0.58	63.565	0.788	-28.797
	0.088	-81.92	0.106	-76.942	0.784	-25.936	0.58	63.565
	0.58	63.565	0.784	-25.936	0.106	-76.942	0.088	-81.92
	0.788	-28.797	0.58	63.565	0.088	-81.92	0.077	-59.904
647.87	0.078	-59.9	0.088	-81.897	0.582	63.48	0.787	-28.892
	0.088	-81.897	0.106	-76.942	0.783	-26.021	0.582	63.48
	0.582	63.48	0.783	-26.021	0.106	-76.942	0.088	-81.897
	0.787	-28.892	0.582	63.48	0.088	-81.897	0.078	-59.9
650.376	0.078	-59.897	0.089	-81.875	0.583	63.396	0.785	-28.986
	0.089	-81.875	0.107	-76.942	0.782	-26.105	0.583	63.396
	0.583	63.396	0.782	-26.105	0.107	-76.942	0.089	-81.875
	0.785	-28.986	0.583	63.396	0.089	-81.875	0.078	-59.897
652.882	0.078	-59.893	0.089	-81.853	0.585	63.311	0.784	-29.08
	0.089	-81.853	0.107	-76.942	0.781	-26.19	0.585	63.311
	0.585	63.311	0.781	-26.19	0.107	-76.942	0.089	-81.853
	0.784	-29.08	0.585	63.311	0.089	-81.853	0.078	-59.893
655.388	0.078	-59.889	0.089	-81.831	0.586	63.227	0.783	-29.174
	0.089	-81.831	0.107	-76.942	0.779	-26.274	0.586	63.227
	0.586	63.227	0.779	-26.274	0.107	-76.942	0.089	-81.831
	0.783	-29.174	0.586	63.227	0.089	-81.831	0.078	-59.889
657.895	0.079	-59.885	0.089	-81.809	0.588	63.143	0.782	-29.267
	0.089	-81.809	0.108	-76.941	0.778	-26.358	0.588	63.143
	0.588	63.143	0.778	-26.358	0.108	-76.941	0.089	-81.809
	0.782	-29.267	0.588	63.143	0.089	-81.809	0.079	-59.885
660.401	0.079	-59.881	0.09	-81.787	0.589	63.059	0.781	-29.361
	0.09	-81.787	0.108	-76.94	0.777	-26.442	0.589	63.059
	0.589	63.059	0.777	-26.442	0.108	-76.94	0.09	-81.787
	0.781	-29.361	0.589	63.059	0.09	-81.787	0.079	-59.881
662.907	0.079	-59.877	0.09	-81.765	0.591	62.975	0.779	-29.454
	0.09	-81.765	0.108	-76.939	0.776	-26.525	0.591	62.975
	0.591	62.975	0.776	-26.525	0.108	-76.939	0.09	-81.765
	0.779	-29.454	0.591	62.975	0.09	-81.765	0.079	-59.877
665.414	0.079	-59.873	0.09	-81.743	0.592	62.891	0.778	-29.547
	0.09	-81.743	0.108	-76.938	0.774	-26.609	0.592	62.891
	0.592	62.891	0.774	-26.609	0.108	-76.938	0.09	-81.743
	0.778	-29.547	0.592	62.891	0.09	-81.743	0.079	-59.873
667.92	0.08	-59.869	0.091	-81.721	0.594	62.808	0.777	-29.64
	0.091	-81.721	0.109	-76.937	0.773	-26.692	0.594	62.808
	0.594	62.808	0.773	-26.692	0.109	-76.937	0.091	-81.721
	0.777	-29.64	0.594	62.808	0.091	-81.721	0.08	-59.869
670.426	0.08	-59.865	0.091	-81.699	0.595	62.724	0.776	-29.733
	0.091	-81.699	0.109	-76.936	0.772	-26.776	0.595	62.724
	0.595	62.724	0.772	-26.776	0.109	-76.936	0.091	-81.699
	0.776	-29.733	0.595	62.724	0.091	-81.699	0.08	-59.865
672.932	0.08	-59.86	0.091	-81.678	0.597	62.641	0.775	-29.826
	0.091	-81.678	0.109	-76.934	0.771	-26.859	0.597	62.641
	0.597	62.641	0.771	-26.859	0.109	-76.934	0.091	-81.678
	0.775	-29.826	0.597	62.641	0.091	-81.678	0.08	-59.86
675.439	0.081	-59.856	0.091	-81.656	0.598	62.558	0.774	-29.919
	0.091	-81.656	0.11	-76.932	0.77	-26.942	0.598	62.558
	0.598	62.558	0.77	-26.942	0.11	-76.932	0.091	-81.656
	0.774	-29.919	0.598	62.558	0.091	-81.656	0.081	-59.856
677.945	0.081	-59.852	0.092	-81.635	0.6	62.475	0.772	-30.011
	0.092	-81.635	0.11	-76.931	0.768	-27.025	0.6	62.475
	0.6	62.475	0.768	-27.025	0.11	-76.931	0.092	-81.635
	0.772	-30.011	0.6	62.475	0.092	-81.635	0.081	-59.852
680.451	0.081	-59.847	0.092	-81.613	0.601	62.392	0.771	-30.103
	0.092	-81.613	0.11	-76.929	0.767	-27.108	0.601	62.392
	0.601	62.392	0.767	-27.108	0.11	-76.929	0.092	-81.613
	0.771	-30.103	0.601	62.392	0.092	-81.613	0.081	-59.847
682.957	0.081	-59.843	0.092	-81.592	0.603	62.31	0.77	-30.195
	0.092	-81.592	0.11	-76.926	0.766	-27.19	0.603	62.31
	0.603	62.31	0.766	-27.19	0.11	-76.926	0.092	-81.592
	0.77	-30.195	0.603	62.31	0.092	-81.592	0.081	-59.843
685.464	0.082	-59.839	0.092	-81.571	0.604	62.227	0.769	-30.287
	0.092	-81.571	0.111	-76.924	0.765	-27.273	0.604	62.227
	0.604	62.227	0.765	-27.273	0.111	-76.924	0.092	-81.571
	0.769	-30.287	0.604	62.227	0.092	-81.571	0.082	-59.839
687.97	0.082	-59.834	0.092	-81.549	0.606	62.145	0.768	-30.379
	0.092	-81.549	0.111	-76.922	0.764	-27.355	0.606	62.145
	0.606	62.145	0.764	-27.355	0.111	-76.922	0.092	-81.549
	0.768	-30.379	0.606	62.145	0.092	-81.549	0.082	-59.834
690.476	0.082	-59.83	0.093	-81.528	0.607	62.063	0.766	-30.471
	0.093	-81.528	0.111	-76.919	0.762	-27.437	0.607	62.063
	0.607	62.063	0.762	-27.437	0.111	-76.919	0.093	-81.528
	0.766	-30.471	0.607	62.063	0.093	-81.528	0.082	-59.83
692.982	0.082	-59.825	0.093	-81.507	0.608	61.981	0.765	-30.562
	0.093	-81.507	0.111	-76.916	0.761	-27.519	0.608	61.981
	0.608	61.981	0.761	-27.519	0.111	-76.916	0.093	-81.507
	0.765	-30.562	0.608	61.981	0.093	-81.507	0.082	-59.825
695.489	0.083	-59.82	0.093	-81.486	0.61	61.899	0.764	-30.654
	0.093	-81.486	0.112	-76.913	0.76	-27.601	0.61	61.899
	0.61	61.899	0.76	-27.601	0.112	-76.913	0.093	-81.486
	0.764	-30.654	0.61	61.899	0.093	-81.486	0.083	-59.82
697.995	0.083	-59.816	0.093	-81.465	0.611	61.817	0.763	-30.745
	0.093	-81.465	0.112	-76.91	0.759	-27.683	0.611	61.817
	0.611	61.817	0.759	-27.683	0.112	-76.91	0.093	-81.465
	0.763	-30.745	0.611	61.817	0.093	-81.465	0.083	-59.816
700.501	0.083	-59.811	0.094	-81.444	0.613	61.736	0.762	-30.836
	0.094	-81.444	0.112	-76.907	0.758	-27.765	0.613	61.736
	0.613	61.736	0.758	-27.765	0.112	-76.907	0.094	-81.444
	0.762	-30.836	0.613	61.736	0.094	-81.444	0.083	-59.811
703.008	0.083	-59.806	0.094	-81.424	0.614	61.655	0.76	-30.927
	0.094	-81.424	0.113	-76.904	0.756	-27.846	0.614	61.655
	0.614	61.655	0.756	-27.846	0.113	-76.904	0.094	-81.424
	0.76	-30.927	0.614	61.655	0.094	-81.424	0.083	-59.806
705.514	0.084	-59.802	0.094	-81.403	0.615	61.573	0.759	-31.017
	0.094	-81.403	0.113	-76.901	0.755	-27.928	0.615	61.573
	0.615	61.573	0.755	-27.928	0.113	-76.901	0.094	-81.403
	0.759	-31.017	0.615	61.573	0.094	-81.403	0.084	-59.802
708.02	0.084	-59.797	0.094	-81.382	0.617	61.492	0.758	-31.108
	0.094	-81.382	0.113	-76.897	0.754	-28.009	0.617	61.492
	0.617	61.492	0.754	-28.009	0.113	-76.897	0.094	-81.382
	0.758	-31.108	0.617	61.492	0.094	-81.382	0.084	-59.797
710.526	0.084	-59.792	0.095	-81.362	0.618	61.412	0.757	-31.198
	0.095	-81.362	0.113	-76.893	0.753	-28.09	0.618	61.412
	0.618	61.412	0.753	-28.09	0.113	-76.893	0.095	-81.362
	0.757	-31.198	0.618	61.412	0.095	-81.362	0.084	-59.792
713.033	0.084	-59.788	0.095	-81.341	0.62	61.331	0.756	-31.289
	0.095	-81.341	0.114	-76.89	0.752	-28.171	0.62	61.331
	0.62	61.331	0.752	-28.171	0.114	-76.89	0.095	-81.341
	0.756	-31.289	0.62	61.331	0.095	-81.341	0.084	-59.788
715.539	0.085	-59.783	0.095	-81.321	0.621	61.25	0.755	-31.379
	0.095	-81.321	0.114	-76.886	0.75	-28.252	0.621	61.25
	0.621	61.25	0.75	-28.252	0.114	-76.886	0.095	-81.321
