!	AVX THIN FILM OPERATION
!	
!	0805 SIZE 3dB 90deg COUPLER P/N DB0805A1800AWTR
!
!	Created March 23 2003
!						
!	Network Analyzer HP8720E S.07.64: Feb23, 2000 Serial No.US39172382		
!	
#	MHZ	S	MA	R	50					


500 0.073 -124.922 0.949 -17.959 0.288 70.792 0.078 56.066
          0.949 -17.959 0.073 -124.922 0.078 56.066 0.288 70.792
          0.288 70.792 0.078 56.066 0.073 -124.922 0.949 -17.959
          0.078 56.066 0.288 70.792 0.949 -17.959 0.073 -124.922
506.266 0.073 -125.363 0.948 -18.166 0.291 70.572 0.079 55.675
          0.948 -18.166 0.073 -125.363 0.079 55.675 0.291 70.572
          0.291 70.572 0.079 55.675 0.073 -125.363 0.948 -18.166
          0.079 55.675 0.291 70.572 0.948 -18.166 0.073 -125.363
512.531 0.074 -125.803 0.947 -18.373 0.294 70.354 0.08 55.284
          0.947 -18.373 0.074 -125.803 0.08 55.284 0.294 70.354
          0.294 70.354 0.08 55.284 0.074 -125.803 0.947 -18.373
          0.08 55.284 0.294 70.354 0.947 -18.373 0.074 -125.803
518.797 0.075 -126.241 0.946 -18.579 0.297 70.135 0.081 54.895
          0.946 -18.579 0.075 -126.241 0.081 54.895 0.297 70.135
          0.297 70.135 0.081 54.895 0.075 -126.241 0.946 -18.579
          0.081 54.895 0.297 70.135 0.946 -18.579 0.075 -126.241
525.063 0.076 -126.678 0.945 -18.784 0.3 69.918 0.081 54.506
          0.945 -18.784 0.076 -126.678 0.081 54.506 0.3 69.918
          0.3 69.918 0.081 54.506 0.076 -126.678 0.945 -18.784
          0.081 54.506 0.3 69.918 0.945 -18.784 0.076 -126.678
531.328 0.076 -127.113 0.944 -18.989 0.303 69.701 0.082 54.119
          0.944 -18.989 0.076 -127.113 0.082 54.119 0.303 69.701
          0.303 69.701 0.082 54.119 0.076 -127.113 0.944 -18.989
          0.082 54.119 0.303 69.701 0.944 -18.989 0.076 -127.113
537.594 0.077 -127.547 0.943 -19.194 0.307 69.485 0.083 53.733
          0.943 -19.194 0.077 -127.547 0.083 53.733 0.307 69.485
          0.307 69.485 0.083 53.733 0.077 -127.547 0.943 -19.194
          0.083 53.733 0.307 69.485 0.943 -19.194 0.077 -127.547
543.86 0.078 -127.979 0.941 -19.397 0.31 69.269 0.084 53.348
          0.941 -19.397 0.078 -127.979 0.084 53.348 0.31 69.269
          0.31 69.269 0.084 53.348 0.078 -127.979 0.941 -19.397
          0.084 53.348 0.31 69.269 0.941 -19.397 0.078 -127.979
550.125 0.078 -128.41 0.94 -19.601 0.313 69.055 0.084 52.964
          0.94 -19.601 0.078 -128.41 0.084 52.964 0.313 69.055
          0.313 69.055 0.084 52.964 0.078 -128.41 0.94 -19.601
          0.084 52.964 0.313 69.055 0.94 -19.601 0.078 -128.41
556.391 0.079 -128.84 0.939 -19.803 0.316 68.84 0.085 52.581
          0.939 -19.803 0.079 -128.84 0.085 52.581 0.316 68.84
          0.316 68.84 0.085 52.581 0.079 -128.84 0.939 -19.803
          0.085 52.581 0.316 68.84 0.939 -19.803 0.079 -128.84
562.657 0.08 -129.268 0.938 -20.005 0.319 68.627 0.086 52.199
          0.938 -20.005 0.08 -129.268 0.086 52.199 0.319 68.627
          0.319 68.627 0.086 52.199 0.08 -129.268 0.938 -20.005
          0.086 52.199 0.319 68.627 0.938 -20.005 0.08 -129.268
568.922 0.08 -129.695 0.937 -20.207 0.322 68.414 0.087 51.819
          0.937 -20.207 0.08 -129.695 0.087 51.819 0.322 68.414
          0.322 68.414 0.087 51.819 0.08 -129.695 0.937 -20.207
          0.087 51.819 0.322 68.414 0.937 -20.207 0.08 -129.695
575.188 0.081 -130.12 0.936 -20.407 0.325 68.202 0.087 51.439
          0.936 -20.407 0.081 -130.12 0.087 51.439 0.325 68.202
          0.325 68.202 0.087 51.439 0.081 -130.12 0.936 -20.407
          0.087 51.439 0.325 68.202 0.936 -20.407 0.081 -130.12
581.454 0.082 -130.544 0.934 -20.608 0.328 67.991 0.088 51.061
          0.934 -20.608 0.082 -130.544 0.088 51.061 0.328 67.991
          0.328 67.991 0.088 51.061 0.082 -130.544 0.934 -20.608
          0.088 51.061 0.328 67.991 0.934 -20.608 0.082 -130.544
587.719 0.082 -130.967 0.933 -20.807 0.331 67.781 0.089 50.684
          0.933 -20.807 0.082 -130.967 0.089 50.684 0.331 67.781
          0.331 67.781 0.089 50.684 0.082 -130.967 0.933 -20.807
          0.089 50.684 0.331 67.781 0.933 -20.807 0.082 -130.967
593.985 0.083 -131.388 0.932 -21.006 0.334 67.571 0.089 50.307
          0.932 -21.006 0.083 -131.388 0.089 50.307 0.334 67.571
          0.334 67.571 0.089 50.307 0.083 -131.388 0.932 -21.006
          0.089 50.307 0.334 67.571 0.932 -21.006 0.083 -131.388
600.251 0.084 -131.808 0.931 -21.205 0.337 67.362 0.09 49.933
          0.931 -21.205 0.084 -131.808 0.09 49.933 0.337 67.362
          0.337 67.362 0.09 49.933 0.084 -131.808 0.931 -21.205
          0.09 49.933 0.337 67.362 0.931 -21.205 0.084 -131.808
606.516 0.084 -132.226 0.93 -21.402 0.34 67.153 0.091 49.559
          0.93 -21.402 0.084 -132.226 0.091 49.559 0.34 67.153
          0.34 67.153 0.091 49.559 0.084 -132.226 0.93 -21.402
          0.091 49.559 0.34 67.153 0.93 -21.402 0.084 -132.226
612.782 0.085 -132.644 0.928 -21.6 0.343 66.945 0.092 49.186
          0.928 -21.6 0.085 -132.644 0.092 49.186 0.343 66.945
          0.343 66.945 0.092 49.186 0.085 -132.644 0.928 -21.6
          0.092 49.186 0.343 66.945 0.928 -21.6 0.085 -132.644
619.048 0.086 -133.059 0.927 -21.796 0.346 66.738 0.092 48.815
          0.927 -21.796 0.086 -133.059 0.092 48.815 0.346 66.738
          0.346 66.738 0.092 48.815 0.086 -133.059 0.927 -21.796
          0.092 48.815 0.346 66.738 0.927 -21.796 0.086 -133.059
625.313 0.086 -133.474 0.926 -21.992 0.349 66.532 0.093 48.445
          0.926 -21.992 0.086 -133.474 0.093 48.445 0.349 66.532
          0.349 66.532 0.093 48.445 0.086 -133.474 0.926 -21.992
          0.093 48.445 0.349 66.532 0.926 -21.992 0.086 -133.474
631.579 0.087 -133.887 0.925 -22.187 0.352 66.327 0.093 48.075
          0.925 -22.187 0.087 -133.887 0.093 48.075 0.352 66.327
          0.352 66.327 0.093 48.075 0.087 -133.887 0.925 -22.187
          0.093 48.075 0.352 66.327 0.925 -22.187 0.087 -133.887
637.845 0.088 -134.299 0.923 -22.382 0.355 66.122 0.094 47.708
          0.923 -22.382 0.088 -134.299 0.094 47.708 0.355 66.122
          0.355 66.122 0.094 47.708 0.088 -134.299 0.923 -22.382
          0.094 47.708 0.355 66.122 0.923 -22.382 0.088 -134.299
644.11 0.088 -134.709 0.922 -22.576 0.358 65.918 0.095 47.341
          0.922 -22.576 0.088 -134.709 0.095 47.341 0.358 65.918
          0.358 65.918 0.095 47.341 0.088 -134.709 0.922 -22.576
          0.095 47.341 0.358 65.918 0.922 -22.576 0.088 -134.709
650.376 0.089 -135.118 0.921 -22.77 0.361 65.714 0.095 46.975
          0.921 -22.77 0.089 -135.118 0.095 46.975 0.361 65.714
          0.361 65.714 0.095 46.975 0.089 -135.118 0.921 -22.77
          0.095 46.975 0.361 65.714 0.921 -22.77 0.089 -135.118
656.642 0.089 -135.526 0.92 -22.963 0.364 65.511 0.096 46.611
          0.92 -22.963 0.089 -135.526 0.096 46.611 0.364 65.511
          0.364 65.511 0.096 46.611 0.089 -135.526 0.92 -22.963
          0.096 46.611 0.364 65.511 0.92 -22.963 0.089 -135.526
662.907 0.09 -135.932 0.918 -23.155 0.367 65.309 0.097 46.248
          0.918 -23.155 0.09 -135.932 0.097 46.248 0.367 65.309
          0.367 65.309 0.097 46.248 0.09 -135.932 0.918 -23.155
          0.097 46.248 0.367 65.309 0.918 -23.155 0.09 -135.932
669.173 0.09 -136.337 0.917 -23.346 0.369 65.108 0.097 45.886
          0.917 -23.346 0.09 -136.337 0.097 45.886 0.369 65.108
          0.369 65.108 0.097 45.886 0.09 -136.337 0.917 -23.346
          0.097 45.886 0.369 65.108 0.917 -23.346 0.09 -136.337
675.439 0.091 -136.741 0.916 -23.537 0.372 64.908 0.098 45.525
          0.916 -23.537 0.091 -136.741 0.098 45.525 0.372 64.908
          0.372 64.908 0.098 45.525 0.091 -136.741 0.916 -23.537
          0.098 45.525 0.372 64.908 0.916 -23.537 0.091 -136.741
681.704 0.092 -137.143 0.915 -23.728 0.375 64.708 0.098 45.165
          0.915 -23.728 0.092 -137.143 0.098 45.165 0.375 64.708
          0.375 64.708 0.098 45.165 0.092 -137.143 0.915 -23.728
          0.098 45.165 0.375 64.708 0.915 -23.728 0.092 -137.143
687.97 0.092 -137.544 0.913 -23.918 0.378 64.509 0.099 44.807
          0.913 -23.918 0.092 -137.544 0.099 44.807 0.378 64.509
          0.378 64.509 0.099 44.807 0.092 -137.544 0.913 -23.918
          0.099 44.807 0.378 64.509 0.913 -23.918 0.092 -137.544
694.236 0.093 -137.944 0.912 -24.107 0.381 64.31 0.1 44.45
          0.912 -24.107 0.093 -137.944 0.1 44.45 0.381 64.31
          0.381 64.31 0.1 44.45 0.093 -137.944 0.912 -24.107
          0.1 44.45 0.381 64.31 0.912 -24.107 0.093 -137.944
700.501 0.093 -138.343 0.911 -24.295 0.383 64.113 0.1 44.094
          0.911 -24.295 0.093 -138.343 0.1 44.094 0.383 64.113
          0.383 64.113 0.1 44.094 0.093 -138.343 0.911 -24.295
          0.1 44.094 0.383 64.113 0.911 -24.295 0.093 -138.343
706.767 0.094 -138.74 0.909 -24.483 0.386 63.916 0.101 43.739
          0.909 -24.483 0.094 -138.74 0.101 43.739 0.386 63.916
          0.386 63.916 0.101 43.739 0.094 -138.74 0.909 -24.483
          0.101 43.739 0.386 63.916 0.909 -24.483 0.094 -138.74
713.033 0.094 -139.136 0.908 -24.671 0.389 63.719 0.101 43.385
          0.908 -24.671 0.094 -139.136 0.101 43.385 0.389 63.719
          0.389 63.719 0.101 43.385 0.094 -139.136 0.908 -24.671
          0.101 43.385 0.389 63.719 0.908 -24.671 0.094 -139.136
719.298 0.095 -139.53 0.907 -24.857 0.392 63.524 0.102 43.033
          0.907 -24.857 0.095 -139.53 0.102 43.033 0.392 63.524
          0.392 63.524 0.102 43.033 0.095 -139.53 0.907 -24.857
          0.102 43.033 0.392 63.524 0.907 -24.857 0.095 -139.53
725.564 0.096 -139.923 0.906 -25.043 0.394 63.329 0.103 42.682
          0.906 -25.043 0.096 -139.923 0.103 42.682 0.394 63.329
          0.394 63.329 0.103 42.682 0.096 -139.923 0.906 -25.043
          0.103 42.682 0.394 63.329 0.906 -25.043 0.096 -139.923
731.83 0.096 -140.315 0.904 -25.229 0.397 63.135 0.103 42.332
          0.904 -25.229 0.096 -140.315 0.103 42.332 0.397 63.135
          0.397 63.135 0.103 42.332 0.096 -140.315 0.904 -25.229
          0.103 42.332 0.397 63.135 0.904 -25.229 0.096 -140.315
738.095 0.097 -140.706 0.903 -25.414 0.4 62.942 0.104 41.983
          0.903 -25.414 0.097 -140.706 0.104 41.983 0.4 62.942
          0.4 62.942 0.104 41.983 0.097 -140.706 0.903 -25.414
          0.104 41.983 0.4 62.942 0.903 -25.414 0.097 -140.706
744.361 0.097 -141.095 0.902 -25.598 0.403 62.749 0.104 41.635
          0.902 -25.598 0.097 -141.095 0.104 41.635 0.403 62.749
          0.403 62.749 0.104 41.635 0.097 -141.095 0.902 -25.598
          0.104 41.635 0.403 62.749 0.902 -25.598 0.097 -141.095
750.627 0.098 -141.483 0.9 -25.781 0.405 62.557 0.105 41.289
          0.9 -25.781 0.098 -141.483 0.105 41.289 0.405 62.557
          0.405 62.557 0.105 41.289 0.098 -141.483 0.9 -25.781
          0.105 41.289 0.405 62.557 0.9 -25.781 0.098 -141.483
756.892 0.098 -141.87 0.899 -25.964 0.408 62.366 0.105 40.944
          0.899 -25.964 0.098 -141.87 0.105 40.944 0.408 62.366
          0.408 62.366 0.105 40.944 0.098 -141.87 0.899 -25.964
          0.105 40.944 0.408 62.366 0.899 -25.964 0.098 -141.87
763.158 0.099 -142.255 0.898 -26.147 0.411 62.175 0.106 40.6
          0.898 -26.147 0.099 -142.255 0.106 40.6 0.411 62.175
          0.411 62.175 0.106 40.6 0.099 -142.255 0.898 -26.147
          0.106 40.6 0.411 62.175 0.898 -26.147 0.099 -142.255
769.424 0.099 -142.64 0.896 -26.329 0.413 61.986 0.106 40.257
          0.896 -26.329 0.099 -142.64 0.106 40.257 0.413 61.986
          0.413 61.986 0.106 40.257 0.099 -142.64 0.896 -26.329
          0.106 40.257 0.413 61.986 0.896 -26.329 0.099 -142.64
775.689 0.1 -143.023 0.895 -26.51 0.416 61.797 0.107 39.916
          0.895 -26.51 0.1 -143.023 0.107 39.916 0.416 61.797
          0.416 61.797 0.107 39.916 0.1 -143.023 0.895 -26.51
          0.107 39.916 0.416 61.797 0.895 -26.51 0.1 -143.023
781.955 0.1 -143.404 0.894 -26.69 0.418 61.608 0.107 39.576
          0.894 -26.69 0.1 -143.404 0.107 39.576 0.418 61.608
          0.418 61.608 0.107 39.576 0.1 -143.404 0.894 -26.69
          0.107 39.576 0.418 61.608 0.894 -26.69 0.1 -143.404
788.221 0.101 -143.785 0.892 -26.87 0.421 61.421 0.108 39.237
          0.892 -26.87 0.101 -143.785 0.108 39.237 0.421 61.421
          0.421 61.421 0.108 39.237 0.101 -143.785 0.892 -26.87
          0.108 39.237 0.421 61.421 0.892 -26.87 0.101 -143.785
794.486 0.101 -144.164 0.891 -27.05 0.424 61.234 0.108 38.899
          0.891 -27.05 0.101 -144.164 0.108 38.899 0.424 61.234
          0.424 61.234 0.108 38.899 0.101 -144.164 0.891 -27.05
          0.108 38.899 0.424 61.234 0.891 -27.05 0.101 -144.164
800.752 0.101 -144.541 0.89 -27.228 0.426 61.048 0.109 38.562
          0.89 -27.228 0.101 -144.541 0.109 38.562 0.426 61.048
          0.426 61.048 0.109 38.562 0.101 -144.541 0.89 -27.228
          0.109 38.562 0.426 61.048 0.89 -27.228 0.101 -144.541
807.018 0.102 -144.918 0.888 -27.406 0.429 60.862 0.109 38.227
          0.888 -27.406 0.102 -144.918 0.109 38.227 0.429 60.862
          0.429 60.862 0.109 38.227 0.102 -144.918 0.888 -27.406
          0.109 38.227 0.429 60.862 0.888 -27.406 0.102 -144.918
813.283 0.102 -145.293 0.887 -27.584 0.431 60.677 0.11 37.893
          0.887 -27.584 0.102 -145.293 0.11 37.893 0.431 60.677
          0.431 60.677 0.11 37.893 0.102 -145.293 0.887 -27.584
          0.11 37.893 0.431 60.677 0.887 -27.584 0.102 -145.293
819.549 0.103 -145.667 0.886 -27.761 0.434 60.493 0.11 37.56
          0.886 -27.761 0.103 -145.667 0.11 37.56 0.434 60.493
          0.434 60.493 0.11 37.56 0.103 -145.667 0.886 -27.761
          0.11 37.56 0.434 60.493 0.886 -27.761 0.103 -145.667
825.815 0.103 -146.04 0.884 -27.937 0.436 60.31 0.111 37.228
          0.884 -27.937 0.103 -146.04 0.111 37.228 0.436 60.31
          0.436 60.31 0.111 37.228 0.103 -146.04 0.884 -27.937
          0.111 37.228 0.436 60.31 0.884 -27.937 0.103 -146.04
832.08 0.104 -146.412 0.883 -28.113 0.439 60.127 0.111 36.898
          0.883 -28.113 0.104 -146.412 0.111 36.898 0.439 60.127
          0.439 60.127 0.111 36.898 0.104 -146.412 0.883 -28.113
          0.111 36.898 0.439 60.127 0.883 -28.113 0.104 -146.412
838.346 0.104 -146.782 0.881 -28.288 0.441 59.945 0.111 36.569
          0.881 -28.288 0.104 -146.782 0.111 36.569 0.441 59.945
          0.441 59.945 0.111 36.569 0.104 -146.782 0.881 -28.288
          0.111 36.569 0.441 59.945 0.881 -28.288 0.104 -146.782
844.612 0.105 -147.151 0.88 -28.462 0.444 59.764 0.112 36.241
          0.88 -28.462 0.105 -147.151 0.112 36.241 0.444 59.764
          0.444 59.764 0.112 36.241 0.105 -147.151 0.88 -28.462
          0.112 36.241 0.444 59.764 0.88 -28.462 0.105 -147.151
850.877 0.105 -147.519 0.879 -28.636 0.446 59.583 0.112 35.914
          0.879 -28.636 0.105 -147.519 0.112 35.914 0.446 59.583
          0.446 59.583 0.112 35.914 0.105 -147.519 0.879 -28.636
          0.112 35.914 0.446 59.583 0.879 -28.636 0.105 -147.519
857.143 0.105 -147.885 0.877 -28.809 0.449 59.404 0.113 35.588
          0.877 -28.809 0.105 -147.885 0.113 35.588 0.449 59.404
          0.449 59.404 0.113 35.588 0.105 -147.885 0.877 -28.809
          0.113 35.588 0.449 59.404 0.877 -28.809 0.105 -147.885
863.409 0.106 -148.251 0.876 -28.982 0.451 59.224 0.113 35.264
          0.876 -28.982 0.106 -148.251 0.113 35.264 0.451 59.224
          0.451 59.224 0.113 35.264 0.106 -148.251 0.876 -28.982
          0.113 35.264 0.451 59.224 0.876 -28.982 0.106 -148.251
869.674 0.106 -148.615 0.875 -29.154 0.454 59.046 0.114 34.941
          0.875 -29.154 0.106 -148.615 0.114 34.941 0.454 59.046
          0.454 59.046 0.114 34.941 0.106 -148.615 0.875 -29.154
          0.114 34.941 0.454 59.046 0.875 -29.154 0.106 -148.615
875.94 0.107 -148.978 0.873 -29.326 0.456 58.868 0.114 34.619
          0.873 -29.326 0.107 -148.978 0.114 34.619 0.456 58.868
          0.456 58.868 0.114 34.619 0.107 -148.978 0.873 -29.326
          0.114 34.619 0.456 58.868 0.873 -29.326 0.107 -148.978
882.206 0.107 -149.339 0.872 -29.497 0.459 58.691 0.114 34.298
          0.872 -29.497 0.107 -149.339 0.114 34.298 0.459 58.691
          0.459 58.691 0.114 34.298 0.107 -149.339 0.872 -29.497
          0.114 34.298 0.459 58.691 0.872 -29.497 0.107 -149.339
888.471 0.107 -149.7 0.871 -29.667 0.461 58.515 0.115 33.979
          0.871 -29.667 0.107 -149.7 0.115 33.979 0.461 58.515
          0.461 58.515 0.115 33.979 0.107 -149.7 0.871 -29.667
          0.115 33.979 0.461 58.515 0.871 -29.667 0.107 -149.7
894.737 0.108 -150.059 0.869 -29.837 0.463 58.339 0.115 33.66
          0.869 -29.837 0.108 -150.059 0.115 33.66 0.463 58.339
          0.463 58.339 0.115 33.66 0.108 -150.059 0.869 -29.837
          0.115 33.66 0.463 58.339 0.869 -29.837 0.108 -150.059
901.003 0.108 -150.417 0.868 -30.006 0.466 58.164 0.116 33.343
          0.868 -30.006 0.108 -150.417 0.116 33.343 0.466 58.164
          0.466 58.164 0.116 33.343 0.108 -150.417 0.868 -30.006
          0.116 33.343 0.466 58.164 0.868 -30.006 0.108 -150.417
907.268 0.109 -150.774 0.866 -30.174 0.468 57.99 0.116 33.027
          0.866 -30.174 0.109 -150.774 0.116 33.027 0.468 57.99
          0.468 57.99 0.116 33.027 0.109 -150.774 0.866 -30.174
          0.116 33.027 0.468 57.99 0.866 -30.174 0.109 -150.774
913.534 0.109 -151.129 0.865 -30.342 0.47 57.816 0.116 32.713
          0.865 -30.342 0.109 -151.129 0.116 32.713 0.47 57.816
          0.47 57.816 0.116 32.713 0.109 -151.129 0.865 -30.342
          0.116 32.713 0.47 57.816 0.865 -30.342 0.109 -151.129
919.799 0.109 -151.484 0.864 -30.51 0.473 57.643 0.117 32.399
          0.864 -30.51 0.109 -151.484 0.117 32.399 0.473 57.643
          0.473 57.643 0.117 32.399 0.109 -151.484 0.864 -30.51
          0.117 32.399 0.473 57.643 0.864 -30.51 0.109 -151.484
926.065 0.11 -151.837 0.862 -30.676 0.475 57.471 0.117 32.087
          0.862 -30.676 0.11 -151.837 0.117 32.087 0.475 57.471
          0.475 57.471 0.117 32.087 0.11 -151.837 0.862 -30.676
          0.117 32.087 0.475 57.471 0.862 -30.676 0.11 -151.837
932.331 0.11 -152.189 0.861 -30.843 0.477 57.299 0.117 31.776
          0.861 -30.843 0.11 -152.189 0.117 31.776 0.477 57.299
          0.477 57.299 0.117 31.776 0.11 -152.189 0.861 -30.843
          0.117 31.776 0.477 57.299 0.861 -30.843 0.11 -152.189
938.596 0.11 -152.54 0.86 -31.008 0.48 57.128 0.118 31.466
          0.86 -31.008 0.11 -152.54 0.118 31.466 0.48 57.128
          0.48 57.128 0.118 31.466 0.11 -152.54 0.86 -31.008
          0.118 31.466 0.48 57.128 0.86 -31.008 0.11 -152.54
944.862 0.111 -152.889 0.858 -31.173 0.482 56.958 0.118 31.158
          0.858 -31.173 0.111 -152.889 0.118 31.158 0.482 56.958
          0.482 56.958 0.118 31.158 0.111 -152.889 0.858 -31.173
          0.118 31.158 0.482 56.958 0.858 -31.173 0.111 -152.889
951.128 0.111 -153.238 0.857 -31.338 0.484 56.788 0.118 30.85
          0.857 -31.338 0.111 -153.238 0.118 30.85 0.484 56.788
          0.484 56.788 0.118 30.85 0.111 -153.238 0.857 -31.338
          0.118 30.85 0.484 56.788 0.857 -31.338 0.111 -153.238
957.393 0.111 -153.585 0.856 -31.502 0.486 56.619 0.119 30.544
          0.856 -31.502 0.111 -153.585 0.119 30.544 0.486 56.619
          0.486 56.619 0.119 30.544 0.111 -153.585 0.856 -31.502
          0.119 30.544 0.486 56.619 0.856 -31.502 0.111 -153.585
963.659 0.112 -153.931 0.854 -31.665 0.489 56.451 0.119 30.239
          0.854 -31.665 0.112 -153.931 0.119 30.239 0.489 56.451
          0.489 56.451 0.119 30.239 0.112 -153.931 0.854 -31.665
          0.119 30.239 0.489 56.451 0.854 -31.665 0.112 -153.931
969.925 0.112 -154.276 0.853 -31.828 0.491 56.283 0.119 29.935
          0.853 -31.828 0.112 -154.276 0.119 29.935 0.491 56.283
          0.491 56.283 0.119 29.935 0.112 -154.276 0.853 -31.828
          0.119 29.935 0.491 56.283 0.853 -31.828 0.112 -154.276
976.19 0.112 -154.619 0.851 -31.99 0.493 56.116 0.12 29.633
          0.851 -31.99 0.112 -154.619 0.12 29.633 0.493 56.116
          0.493 56.116 0.12 29.633 0.112 -154.619 0.851 -31.99
          0.12 29.633 0.493 56.116 0.851 -31.99 0.112 -154.619
982.456 0.113 -154.962 0.85 -32.152 0.495 55.95 0.12 29.331
          0.85 -32.152 0.113 -154.962 0.12 29.331 0.495 55.95
          0.495 55.95 0.12 29.331 0.113 -154.962 0.85 -32.152
