!	AVX THIN FILM OPERATION
!	
!	0805 SIZE 3dB 90deg COUPLER P/N DB0805A1650ASTR
!
!	Created November 2010
!	Network	Analyzer	HP8720E	S.07.64:	"Feb23,2000"	Serial	No.US39172382
!
# MHZ S MA R 50

1000 0.028 -93.162 0.845 -33.309 0.502 56.693 0.02 -35.634
          0.845 -33.309 0.028 -93.162 0.02 -35.634 0.502 56.693
          0.502 56.693 0.02 -35.634 0.028 -93.162 0.845 -33.309
          0.02 -35.634 0.502 56.693 0.845 -33.309 0.028 -93.162
1002.004 0.028 -93.189 0.844 -33.365 0.503 56.637 0.02 -35.796
          0.844 -33.365 0.028 -93.189 0.02 -35.796 0.503 56.637
          0.503 56.637 0.02 -35.796 0.028 -93.189 0.844 -33.365
          0.02 -35.796 0.503 56.637 0.844 -33.365 0.028 -93.189
1004.008 0.028 -93.216 0.844 -33.42 0.503 56.582 0.02 -35.956
          0.844 -33.42 0.028 -93.216 0.02 -35.956 0.503 56.582
          0.503 56.582 0.02 -35.956 0.028 -93.216 0.844 -33.42
          0.02 -35.956 0.503 56.582 0.844 -33.42 0.028 -93.216
1006.012 0.028 -93.243 0.844 -33.476 0.504 56.527 0.02 -36.117
          0.844 -33.476 0.028 -93.243 0.02 -36.117 0.504 56.527
          0.504 56.527 0.02 -36.117 0.028 -93.243 0.844 -33.476
          0.02 -36.117 0.504 56.527 0.844 -33.476 0.028 -93.243
1008.016 0.028 -93.269 0.843 -33.531 0.505 56.472 0.02 -36.277
          0.843 -33.531 0.028 -93.269 0.02 -36.277 0.505 56.472
          0.505 56.472 0.02 -36.277 0.028 -93.269 0.843 -33.531
          0.02 -36.277 0.505 56.472 0.843 -33.531 0.028 -93.269
1010.02 0.028 -93.294 0.843 -33.587 0.505 56.417 0.02 -36.438
          0.843 -33.587 0.028 -93.294 0.02 -36.438 0.505 56.417
          0.505 56.417 0.02 -36.438 0.028 -93.294 0.843 -33.587
          0.02 -36.438 0.505 56.417 0.843 -33.587 0.028 -93.294
1012.024 0.028 -93.319 0.842 -33.642 0.506 56.362 0.02 -36.597
          0.842 -33.642 0.028 -93.319 0.02 -36.597 0.506 56.362
          0.506 56.362 0.02 -36.597 0.028 -93.319 0.842 -33.642
          0.02 -36.597 0.506 56.362 0.842 -33.642 0.028 -93.319
1014.028 0.028 -93.344 0.842 -33.697 0.507 56.307 0.02 -36.757
          0.842 -33.697 0.028 -93.344 0.02 -36.757 0.507 56.307
          0.507 56.307 0.02 -36.757 0.028 -93.344 0.842 -33.697
          0.02 -36.757 0.507 56.307 0.842 -33.697 0.028 -93.344
1016.032 0.028 -93.368 0.841 -33.752 0.508 56.252 0.02 -36.916
          0.841 -33.752 0.028 -93.368 0.02 -36.916 0.508 56.252
          0.508 56.252 0.02 -36.916 0.028 -93.368 0.841 -33.752
          0.02 -36.916 0.508 56.252 0.841 -33.752 0.028 -93.368
1018.036 0.028 -93.391 0.841 -33.807 0.508 56.197 0.02 -37.075
          0.841 -33.807 0.028 -93.391 0.02 -37.075 0.508 56.197
          0.508 56.197 0.02 -37.075 0.028 -93.391 0.841 -33.807
          0.02 -37.075 0.508 56.197 0.841 -33.807 0.028 -93.391
1020.04 0.028 -93.414 0.84 -33.862 0.509 56.142 0.021 -37.234
          0.84 -33.862 0.028 -93.414 0.021 -37.234 0.509 56.142
          0.509 56.142 0.021 -37.234 0.028 -93.414 0.84 -33.862
          0.021 -37.234 0.509 56.142 0.84 -33.862 0.028 -93.414
1022.044 0.028 -93.437 0.84 -33.917 0.51 56.088 0.021 -37.393
          0.84 -33.917 0.028 -93.437 0.021 -37.393 0.51 56.088
          0.51 56.088 0.021 -37.393 0.028 -93.437 0.84 -33.917
          0.021 -37.393 0.51 56.088 0.84 -33.917 0.028 -93.437
1024.048 0.028 -93.459 0.84 -33.972 0.511 56.033 0.021 -37.551
          0.84 -33.972 0.028 -93.459 0.021 -37.551 0.511 56.033
          0.511 56.033 0.021 -37.551 0.028 -93.459 0.84 -33.972
          0.021 -37.551 0.511 56.033 0.84 -33.972 0.028 -93.459
1026.052 0.028 -93.481 0.839 -34.027 0.511 55.978 0.021 -37.709
          0.839 -34.027 0.028 -93.481 0.021 -37.709 0.511 55.978
          0.511 55.978 0.021 -37.709 0.028 -93.481 0.839 -34.027
          0.021 -37.709 0.511 55.978 0.839 -34.027 0.028 -93.481
1028.056 0.028 -93.502 0.839 -34.082 0.512 55.924 0.021 -37.867
          0.839 -34.082 0.028 -93.502 0.021 -37.867 0.512 55.924
          0.512 55.924 0.021 -37.867 0.028 -93.502 0.839 -34.082
          0.021 -37.867 0.512 55.924 0.839 -34.082 0.028 -93.502
1030.06 0.028 -93.523 0.838 -34.137 0.513 55.869 0.021 -38.025
          0.838 -34.137 0.028 -93.523 0.021 -38.025 0.513 55.869
          0.513 55.869 0.021 -38.025 0.028 -93.523 0.838 -34.137
          0.021 -38.025 0.513 55.869 0.838 -34.137 0.028 -93.523
1032.064 0.029 -93.543 0.838 -34.191 0.513 55.815 0.021 -38.182
          0.838 -34.191 0.029 -93.543 0.021 -38.182 0.513 55.815
          0.513 55.815 0.021 -38.182 0.029 -93.543 0.838 -34.191
          0.021 -38.182 0.513 55.815 0.838 -34.191 0.029 -93.543
1034.068 0.029 -93.563 0.837 -34.246 0.514 55.76 0.021 -38.339
          0.837 -34.246 0.029 -93.563 0.021 -38.339 0.514 55.76
          0.514 55.76 0.021 -38.339 0.029 -93.563 0.837 -34.246
          0.021 -38.339 0.514 55.76 0.837 -34.246 0.029 -93.563
1036.072 0.029 -93.582 0.837 -34.301 0.515 55.706 0.021 -38.496
          0.837 -34.301 0.029 -93.582 0.021 -38.496 0.515 55.706
          0.515 55.706 0.021 -38.496 0.029 -93.582 0.837 -34.301
          0.021 -38.496 0.515 55.706 0.837 -34.301 0.029 -93.582
1038.076 0.029 -93.601 0.836 -34.355 0.516 55.652 0.021 -38.653
          0.836 -34.355 0.029 -93.601 0.021 -38.653 0.516 55.652
          0.516 55.652 0.021 -38.653 0.029 -93.601 0.836 -34.355
          0.021 -38.653 0.516 55.652 0.836 -34.355 0.029 -93.601
1040.08 0.029 -93.62 0.836 -34.41 0.516 55.597 0.021 -38.809
          0.836 -34.41 0.029 -93.62 0.021 -38.809 0.516 55.597
          0.516 55.597 0.021 -38.809 0.029 -93.62 0.836 -34.41
          0.021 -38.809 0.516 55.597 0.836 -34.41 0.029 -93.62
1042.084 0.029 -93.638 0.836 -34.464 0.517 55.543 0.021 -38.965
          0.836 -34.464 0.029 -93.638 0.021 -38.965 0.517 55.543
          0.517 55.543 0.021 -38.965 0.029 -93.638 0.836 -34.464
          0.021 -38.965 0.517 55.543 0.836 -34.464 0.029 -93.638
1044.088 0.029 -93.655 0.835 -34.519 0.518 55.489 0.021 -39.121
          0.835 -34.519 0.029 -93.655 0.021 -39.121 0.518 55.489
          0.518 55.489 0.021 -39.121 0.029 -93.655 0.835 -34.519
          0.021 -39.121 0.518 55.489 0.835 -34.519 0.029 -93.655
1046.092 0.029 -93.673 0.835 -34.573 0.519 55.435 0.021 -39.277
          0.835 -34.573 0.029 -93.673 0.021 -39.277 0.519 55.435
          0.519 55.435 0.021 -39.277 0.029 -93.673 0.835 -34.573
          0.021 -39.277 0.519 55.435 0.835 -34.573 0.029 -93.673
1048.096 0.029 -93.689 0.834 -34.627 0.519 55.381 0.021 -39.432
          0.834 -34.627 0.029 -93.689 0.021 -39.432 0.519 55.381
          0.519 55.381 0.021 -39.432 0.029 -93.689 0.834 -34.627
          0.021 -39.432 0.519 55.381 0.834 -34.627 0.029 -93.689
1050.1 0.029 -93.705 0.834 -34.682 0.52 55.327 0.021 -39.588
          0.834 -34.682 0.029 -93.705 0.021 -39.588 0.52 55.327
          0.52 55.327 0.021 -39.588 0.029 -93.705 0.834 -34.682
          0.021 -39.588 0.52 55.327 0.834 -34.682 0.029 -93.705
1052.104 0.029 -93.721 0.833 -34.736 0.521 55.273 0.021 -39.743
          0.833 -34.736 0.029 -93.721 0.021 -39.743 0.521 55.273
          0.521 55.273 0.021 -39.743 0.029 -93.721 0.833 -34.736
          0.021 -39.743 0.521 55.273 0.833 -34.736 0.029 -93.721
1054.108 0.029 -93.736 0.833 -34.79 0.521 55.219 0.021 -39.897
          0.833 -34.79 0.029 -93.736 0.021 -39.897 0.521 55.219
          0.521 55.219 0.021 -39.897 0.029 -93.736 0.833 -34.79
          0.021 -39.897 0.521 55.219 0.833 -34.79 0.029 -93.736
1056.112 0.029 -93.751 0.832 -34.844 0.522 55.165 0.021 -40.052
          0.832 -34.844 0.029 -93.751 0.021 -40.052 0.522 55.165
          0.522 55.165 0.021 -40.052 0.029 -93.751 0.832 -34.844
          0.021 -40.052 0.522 55.165 0.832 -34.844 0.029 -93.751
1058.116 0.029 -93.765 0.832 -34.898 0.523 55.111 0.021 -40.206
          0.832 -34.898 0.029 -93.765 0.021 -40.206 0.523 55.111
          0.523 55.111 0.021 -40.206 0.029 -93.765 0.832 -34.898
          0.021 -40.206 0.523 55.111 0.832 -34.898 0.029 -93.765
1060.12 0.029 -93.779 0.832 -34.952 0.523 55.057 0.021 -40.36
          0.832 -34.952 0.029 -93.779 0.021 -40.36 0.523 55.057
          0.523 55.057 0.021 -40.36 0.029 -93.779 0.832 -34.952
          0.021 -40.36 0.523 55.057 0.832 -34.952 0.029 -93.779
1062.124 0.029 -93.793 0.831 -35.006 0.524 55.004 0.022 -40.514
          0.831 -35.006 0.029 -93.793 0.022 -40.514 0.524 55.004
          0.524 55.004 0.022 -40.514 0.029 -93.793 0.831 -35.006
          0.022 -40.514 0.524 55.004 0.831 -35.006 0.029 -93.793
1064.128 0.029 -93.806 0.831 -35.06 0.525 54.95 0.022 -40.667
          0.831 -35.06 0.029 -93.806 0.022 -40.667 0.525 54.95
          0.525 54.95 0.022 -40.667 0.029 -93.806 0.831 -35.06
          0.022 -40.667 0.525 54.95 0.831 -35.06 0.029 -93.806
1066.132 0.029 -93.818 0.83 -35.114 0.526 54.897 0.022 -40.82
          0.83 -35.114 0.029 -93.818 0.022 -40.82 0.526 54.897
          0.526 54.897 0.022 -40.82 0.029 -93.818 0.83 -35.114
          0.022 -40.82 0.526 54.897 0.83 -35.114 0.029 -93.818
1068.136 0.029 -93.83 0.83 -35.168 0.526 54.843 0.022 -40.973
          0.83 -35.168 0.029 -93.83 0.022 -40.973 0.526 54.843
          0.526 54.843 0.022 -40.973 0.029 -93.83 0.83 -35.168
          0.022 -40.973 0.526 54.843 0.83 -35.168 0.029 -93.83
1070.14 0.029 -93.842 0.829 -35.222 0.527 54.79 0.022 -41.126
          0.829 -35.222 0.029 -93.842 0.022 -41.126 0.527 54.79
          0.527 54.79 0.022 -41.126 0.029 -93.842 0.829 -35.222
          0.022 -41.126 0.527 54.79 0.829 -35.222 0.029 -93.842
1072.144 0.029 -93.853 0.829 -35.275 0.528 54.736 0.022 -41.279
          0.829 -35.275 0.029 -93.853 0.022 -41.279 0.528 54.736
          0.528 54.736 0.022 -41.279 0.029 -93.853 0.829 -35.275
          0.022 -41.279 0.528 54.736 0.829 -35.275 0.029 -93.853
1074.148 0.029 -93.864 0.828 -35.329 0.528 54.683 0.022 -41.431
          0.828 -35.329 0.029 -93.864 0.022 -41.431 0.528 54.683
          0.528 54.683 0.022 -41.431 0.029 -93.864 0.828 -35.329
          0.022 -41.431 0.528 54.683 0.828 -35.329 0.029 -93.864
1076.152 0.029 -93.874 0.828 -35.382 0.529 54.629 0.022 -41.583
          0.828 -35.382 0.029 -93.874 0.022 -41.583 0.529 54.629
          0.529 54.629 0.022 -41.583 0.029 -93.874 0.828 -35.382
          0.022 -41.583 0.529 54.629 0.828 -35.382 0.029 -93.874
1078.156 0.029 -93.884 0.828 -35.436 0.53 54.576 0.022 -41.735
          0.828 -35.436 0.029 -93.884 0.022 -41.735 0.53 54.576
          0.53 54.576 0.022 -41.735 0.029 -93.884 0.828 -35.436
          0.022 -41.735 0.53 54.576 0.828 -35.436 0.029 -93.884
1080.16 0.029 -93.893 0.827 -35.489 0.53 54.523 0.022 -41.887
          0.827 -35.489 0.029 -93.893 0.022 -41.887 0.53 54.523
          0.53 54.523 0.022 -41.887 0.029 -93.893 0.827 -35.489
          0.022 -41.887 0.53 54.523 0.827 -35.489 0.029 -93.893
1082.164 0.029 -93.902 0.827 -35.543 0.531 54.47 0.022 -42.038
          0.827 -35.543 0.029 -93.902 0.022 -42.038 0.531 54.47
          0.531 54.47 0.022 -42.038 0.029 -93.902 0.827 -35.543
          0.022 -42.038 0.531 54.47 0.827 -35.543 0.029 -93.902
1084.168 0.029 -93.911 0.826 -35.596 0.532 54.417 0.022 -42.189
          0.826 -35.596 0.029 -93.911 0.022 -42.189 0.532 54.417
          0.532 54.417 0.022 -42.189 0.029 -93.911 0.826 -35.596
          0.022 -42.189 0.532 54.417 0.826 -35.596 0.029 -93.911
1086.172 0.029 -93.919 0.826 -35.65 0.533 54.364 0.022 -42.34
          0.826 -35.65 0.029 -93.919 0.022 -42.34 0.533 54.364
          0.533 54.364 0.022 -42.34 0.029 -93.919 0.826 -35.65
          0.022 -42.34 0.533 54.364 0.826 -35.65 0.029 -93.919
1088.176 0.029 -93.926 0.825 -35.703 0.533 54.311 0.022 -42.491
          0.825 -35.703 0.029 -93.926 0.022 -42.491 0.533 54.311
          0.533 54.311 0.022 -42.491 0.029 -93.926 0.825 -35.703
          0.022 -42.491 0.533 54.311 0.825 -35.703 0.029 -93.926
1090.18 0.029 -93.934 0.825 -35.756 0.534 54.258 0.022 -42.641
          0.825 -35.756 0.029 -93.934 0.022 -42.641 0.534 54.258
          0.534 54.258 0.022 -42.641 0.029 -93.934 0.825 -35.756
          0.022 -42.641 0.534 54.258 0.825 -35.756 0.029 -93.934
1092.184 0.029 -93.94 0.824 -35.809 0.535 54.205 0.022 -42.792
          0.824 -35.809 0.029 -93.94 0.022 -42.792 0.535 54.205
          0.535 54.205 0.022 -42.792 0.029 -93.94 0.824 -35.809
          0.022 -42.792 0.535 54.205 0.824 -35.809 0.029 -93.94
1094.188 0.029 -93.946 0.824 -35.862 0.535 54.152 0.022 -42.942
          0.824 -35.862 0.029 -93.946 0.022 -42.942 0.535 54.152
          0.535 54.152 0.022 -42.942 0.029 -93.946 0.824 -35.862
          0.022 -42.942 0.535 54.152 0.824 -35.862 0.029 -93.946
1096.192 0.029 -93.952 0.824 -35.916 0.536 54.099 0.022 -43.092
          0.824 -35.916 0.029 -93.952 0.022 -43.092 0.536 54.099
          0.536 54.099 0.022 -43.092 0.029 -93.952 0.824 -35.916
          0.022 -43.092 0.536 54.099 0.824 -35.916 0.029 -93.952
1098.196 0.029 -93.958 0.823 -35.969 0.537 54.046 0.022 -43.241
          0.823 -35.969 0.029 -93.958 0.022 -43.241 0.537 54.046
          0.537 54.046 0.022 -43.241 0.029 -93.958 0.823 -35.969
          0.022 -43.241 0.537 54.046 0.823 -35.969 0.029 -93.958
1100.2 0.029 -93.962 0.823 -36.022 0.537 53.994 0.022 -43.39
          0.823 -36.022 0.029 -93.962 0.022 -43.39 0.537 53.994
          0.537 53.994 0.022 -43.39 0.029 -93.962 0.823 -36.022
          0.022 -43.39 0.537 53.994 0.823 -36.022 0.029 -93.962
1102.204 0.029 -93.967 0.822 -36.074 0.538 53.941 0.022 -43.54
          0.822 -36.074 0.029 -93.967 0.022 -43.54 0.538 53.941
          0.538 53.941 0.022 -43.54 0.029 -93.967 0.822 -36.074
          0.022 -43.54 0.538 53.941 0.822 -36.074 0.029 -93.967
1104.208 0.029 -93.971 0.822 -36.127 0.539 53.889 0.023 -43.688
          0.822 -36.127 0.029 -93.971 0.023 -43.688 0.539 53.889
          0.539 53.889 0.023 -43.688 0.029 -93.971 0.822 -36.127
          0.023 -43.688 0.539 53.889 0.822 -36.127 0.029 -93.971
1106.212 0.029 -93.975 0.821 -36.18 0.539 53.836 0.023 -43.837
          0.821 -36.18 0.029 -93.975 0.023 -43.837 0.539 53.836
          0.539 53.836 0.023 -43.837 0.029 -93.975 0.821 -36.18
          0.023 -43.837 0.539 53.836 0.821 -36.18 0.029 -93.975
1108.216 0.029 -93.978 0.821 -36.233 0.54 53.783 0.023 -43.985
          0.821 -36.233 0.029 -93.978 0.023 -43.985 0.54 53.783
          0.54 53.783 0.023 -43.985 0.029 -93.978 0.821 -36.233
          0.023 -43.985 0.54 53.783 0.821 -36.233 0.029 -93.978
1110.22 0.029 -93.98 0.82 -36.286 0.541 53.731 0.023 -44.134
          0.82 -36.286 0.029 -93.98 0.023 -44.134 0.541 53.731
          0.541 53.731 0.023 -44.134 0.029 -93.98 0.82 -36.286
          0.023 -44.134 0.541 53.731 0.82 -36.286 0.029 -93.98
1112.224 0.029 -93.983 0.82 -36.338 0.541 53.679 0.023 -44.282
          0.82 -36.338 0.029 -93.983 0.023 -44.282 0.541 53.679
          0.541 53.679 0.023 -44.282 0.029 -93.983 0.82 -36.338
          0.023 -44.282 0.541 53.679 0.82 -36.338 0.029 -93.983
1114.228 0.029 -93.984 0.82 -36.391 0.542 53.626 0.023 -44.429
          0.82 -36.391 0.029 -93.984 0.023 -44.429 0.542 53.626
          0.542 53.626 0.023 -44.429 0.029 -93.984 0.82 -36.391
          0.023 -44.429 0.542 53.626 0.82 -36.391 0.029 -93.984
1116.232 0.029 -93.986 0.819 -36.443 0.543 53.574 0.023 -44.577
          0.819 -36.443 0.029 -93.986 0.023 -44.577 0.543 53.574
          0.543 53.574 0.023 -44.577 0.029 -93.986 0.819 -36.443
          0.023 -44.577 0.543 53.574 0.819 -36.443 0.029 -93.986
1118.236 0.029 -93.987 0.819 -36.496 0.543 53.522 0.023 -44.724
          0.819 -36.496 0.029 -93.987 0.023 -44.724 0.543 53.522
          0.543 53.522 0.023 -44.724 0.029 -93.987 0.819 -36.496
          0.023 -44.724 0.543 53.522 0.819 -36.496 0.029 -93.987
1120.24 0.029 -93.987 0.818 -36.548 0.544 53.47 0.023 -44.871
          0.818 -36.548 0.029 -93.987 0.023 -44.871 0.544 53.47
          0.544 53.47 0.023 -44.871 0.029 -93.987 0.818 -36.548
          0.023 -44.871 0.544 53.47 0.818 -36.548 0.029 -93.987
1122.244 0.029 -93.987 0.818 -36.601 0.545 53.418 0.023 -45.018
          0.818 -36.601 0.029 -93.987 0.023 -45.018 0.545 53.418
          0.545 53.418 0.023 -45.018 0.029 -93.987 0.818 -36.601
          0.023 -45.018 0.545 53.418 0.818 -36.601 0.029 -93.987
1124.248 0.029 -93.987 0.817 -36.653 0.545 53.366 0.023 -45.165
          0.817 -36.653 0.029 -93.987 0.023 -45.165 0.545 53.366
          0.545 53.366 0.023 -45.165 0.029 -93.987 0.817 -36.653
          0.023 -45.165 0.545 53.366 0.817 -36.653 0.029 -93.987
1126.253 0.029 -93.986 0.817 -36.705 0.546 53.314 0.023 -45.311
          0.817 -36.705 0.029 -93.986 0.023 -45.311 0.546 53.314
          0.546 53.314 0.023 -45.311 0.029 -93.986 0.817 -36.705
          0.023 -45.311 0.546 53.314 0.817 -36.705 0.029 -93.986
1128.257 0.029 -93.985 0.816 -36.758 0.547 53.262 0.023 -45.457
          0.816 -36.758 0.029 -93.985 0.023 -45.457 0.547 53.262
          0.547 53.262 0.023 -45.457 0.029 -93.985 0.816 -36.758
          0.023 -45.457 0.547 53.262 0.816 -36.758 0.029 -93.985
1130.261 0.029 -93.983 0.816 -36.81 0.547 53.21 0.023 -45.603
          0.816 -36.81 0.029 -93.983 0.023 -45.603 0.547 53.21
          0.547 53.21 0.023 -45.603 0.029 -93.983 0.816 -36.81
          0.023 -45.603 0.547 53.21 0.816 -36.81 0.029 -93.983
1132.265 0.029 -93.981 0.815 -36.862 0.548 53.158 0.023 -45.749
          0.815 -36.862 0.029 -93.981 0.023 -45.749 0.548 53.158
          0.548 53.158 0.023 -45.749 0.029 -93.981 0.815 -36.862
          0.023 -45.749 0.548 53.158 0.815 -36.862 0.029 -93.981
1134.269 0.029 -93.979 0.815 -36.914 0.549 53.106 0.023 -45.895
          0.815 -36.914 0.029 -93.979 0.023 -45.895 0.549 53.106
          0.549 53.106 0.023 -45.895 0.029 -93.979 0.815 -36.914
          0.023 -45.895 0.549 53.106 0.815 -36.914 0.029 -93.979
1136.273 0.029 -93.976 0.815 -36.966 0.549 53.054 0.023 -46.04
          0.815 -36.966 0.029 -93.976 0.023 -46.04 0.549 53.054
          0.549 53.054 0.023 -46.04 0.029 -93.976 0.815 -36.966
          0.023 -46.04 0.549 53.054 0.815 -36.966 0.029 -93.976
1138.277 0.029 -93.972 0.814 -37.018 0.55 53.003 0.023 -46.185
          0.814 -37.018 0.029 -93.972 0.023 -46.185 0.55 53.003
          0.55 53.003 0.023 -46.185 0.029 -93.972 0.814 -37.018
          0.023 -46.185 0.55 53.003 0.814 -37.018 0.029 -93.972
1140.281 0.029 -93.968 0.814 -37.07 0.551 52.951 0.023 -46.33
          0.814 -37.07 0.029 -93.968 0.023 -46.33 0.551 52.951
          0.551 52.951 0.023 -46.33 0.029 -93.968 0.814 -37.07
          0.023 -46.33 0.551 52.951 0.814 -37.07 0.029 -93.968
1142.285 0.029 -93.964 0.813 -37.122 0.551 52.899 0.023 -46.475
          0.813 -37.122 0.029 -93.964 0.023 -46.475 0.551 52.899
          0.551 52.899 0.023 -46.475 0.029 -93.964 0.813 -37.122
          0.023 -46.475 0.551 52.899 0.813 -37.122 0.029 -93.964
1144.289 0.029 -93.96 0.813 -37.174 0.552 52.848 0.023 -46.619
          0.813 -37.174 0.029 -93.96 0.023 -46.619 0.552 52.848
          0.552 52.848 0.023 -46.619 0.029 -93.96 0.813 -37.174
          0.023 -46.619 0.552 52.848 0.813 -37.174 0.029 -93.96
1146.293 0.029 -93.954 0.812 -37.226 0.553 52.796 0.024 -46.763
          0.812 -37.226 0.029 -93.954 0.024 -46.763 0.553 52.796
          0.553 52.796 0.024 -46.763 0.029 -93.954 0.812 -37.226
          0.024 -46.763 0.553 52.796 0.812 -37.226 0.029 -93.954
1148.297 0.029 -93.949 0.812 -37.277 0.553 52.745 0.024 -46.907
          0.812 -37.277 0.029 -93.949 0.024 -46.907 0.553 52.745
          0.553 52.745 0.024 -46.907 0.029 -93.949 0.812 -37.277
          0.024 -46.907 0.553 52.745 0.812 -37.277 0.029 -93.949
1150.301 0.029 -93.943 0.811 -37.329 0.554 52.693 0.024 -47.051
          0.811 -37.329 0.029 -93.943 0.024 -47.051 0.554 52.693
          0.554 52.693 0.024 -47.051 0.029 -93.943 0.811 -37.329
          0.024 -47.051 0.554 52.693 0.811 -37.329 0.029 -93.943
1152.305 0.029 -93.937 0.811 -37.381 0.555 52.642 0.024 -47.195
          0.811 -37.381 0.029 -93.937 0.024 -47.195 0.555 52.642
          0.555 52.642 0.024 -47.195 0.029 -93.937 0.811 -37.381
          0.024 -47.195 0.555 52.642 0.811 -37.381 0.029 -93.937
1154.309 0.029 -93.93 0.811 -37.432 0.555 52.591 0.024 -47.338
