!	AVX THIN FILM OPERATION
!	
!	0805 SIZE 3dB 90deg COUPLER P/N DB0805A2140AWTR
!
!	Created March 23 2003
!						
!	Network Analyzer HP8720E S.07.64: Feb23, 2000 Serial No.US39172382		
!	
#	MHZ	S	MA	R	50					


500 0.024 70.514 0.965 -17.089 0.252 72.901 6.72e-3 135.001
          0.965 -17.089 0.024 70.514 6.72e-3 135.001 0.252 72.901
          0.252 72.901 6.72e-3 135.001 0.024 70.514 0.965 -17.089
          6.72e-3 135.001 0.252 72.901 0.965 -17.089 0.024 70.514
506.266 0.024 70.401 0.964 -17.294 0.255 72.696 6.872e-3 134.975
          0.964 -17.294 0.024 70.401 6.872e-3 134.975 0.255 72.696
          0.255 72.696 6.872e-3 134.975 0.024 70.401 0.964 -17.294
          6.872e-3 134.975 0.255 72.696 0.964 -17.294 0.024 70.401
512.531 0.024 70.288 0.964 -17.498 0.258 72.492 7.025e-3 134.945
          0.964 -17.498 0.024 70.288 7.025e-3 134.945 0.258 72.492
          0.258 72.492 7.025e-3 134.945 0.024 70.288 0.964 -17.498
          7.025e-3 134.945 0.258 72.492 0.964 -17.498 0.024 70.288
518.797 0.025 70.174 0.963 -17.702 0.261 72.289 7.179e-3 134.91
          0.963 -17.702 0.025 70.174 7.179e-3 134.91 0.261 72.289
          0.261 72.289 7.179e-3 134.91 0.025 70.174 0.963 -17.702
          7.179e-3 134.91 0.261 72.289 0.963 -17.702 0.025 70.174
525.063 0.025 70.06 0.962 -17.906 0.263 72.085 7.335e-3 134.871
          0.962 -17.906 0.025 70.06 7.335e-3 134.871 0.263 72.085
          0.263 72.085 7.335e-3 134.871 0.025 70.06 0.962 -17.906
          7.335e-3 134.871 0.263 72.085 0.962 -17.906 0.025 70.06
531.328 0.025 69.945 0.961 -18.109 0.266 71.882 7.493e-3 134.827
          0.961 -18.109 0.025 69.945 7.493e-3 134.827 0.266 71.882
          0.266 71.882 7.493e-3 134.827 0.025 69.945 0.961 -18.109
          7.493e-3 134.827 0.266 71.882 0.961 -18.109 0.025 69.945
537.594 0.025 69.829 0.96 -18.312 0.269 71.68 7.652e-3 134.779
          0.96 -18.312 0.025 69.829 7.652e-3 134.779 0.269 71.68
          0.269 71.68 7.652e-3 134.779 0.025 69.829 0.96 -18.312
          7.652e-3 134.779 0.269 71.68 0.96 -18.312 0.025 69.829
543.86 0.026 69.713 0.96 -18.515 0.272 71.478 7.813e-3 134.727
          0.96 -18.515 0.026 69.713 7.813e-3 134.727 0.272 71.478
          0.272 71.478 7.813e-3 134.727 0.026 69.713 0.96 -18.515
          7.813e-3 134.727 0.272 71.478 0.96 -18.515 0.026 69.713
550.125 0.026 69.597 0.959 -18.717 0.275 71.276 7.975e-3 134.67
          0.959 -18.717 0.026 69.597 7.975e-3 134.67 0.275 71.276
          0.275 71.276 7.975e-3 134.67 0.026 69.597 0.959 -18.717
          7.975e-3 134.67 0.275 71.276 0.959 -18.717 0.026 69.597
556.391 0.026 69.48 0.958 -18.919 0.278 71.074 8.138e-3 134.611
          0.958 -18.919 0.026 69.48 8.138e-3 134.611 0.278 71.074
          0.278 71.074 8.138e-3 134.611 0.026 69.48 0.958 -18.919
          8.138e-3 134.611 0.278 71.074 0.958 -18.919 0.026 69.48
562.657 0.027 69.363 0.957 -19.12 0.281 70.873 8.303e-3 134.547
          0.957 -19.12 0.027 69.363 8.303e-3 134.547 0.281 70.873
          0.281 70.873 8.303e-3 134.547 0.027 69.363 0.957 -19.12
          8.303e-3 134.547 0.281 70.873 0.957 -19.12 0.027 69.363
568.922 0.027 69.245 0.956 -19.322 0.283 70.672 8.469e-3 134.48
          0.956 -19.322 0.027 69.245 8.469e-3 134.48 0.283 70.672
          0.283 70.672 8.469e-3 134.48 0.027 69.245 0.956 -19.322
          8.469e-3 134.48 0.283 70.672 0.956 -19.322 0.027 69.245
575.188 0.027 69.128 0.955 -19.522 0.286 70.472 8.637e-3 134.409
          0.955 -19.522 0.027 69.128 8.637e-3 134.409 0.286 70.472
          0.286 70.472 8.637e-3 134.409 0.027 69.128 0.955 -19.522
          8.637e-3 134.409 0.286 70.472 0.955 -19.522 0.027 69.128
581.454 0.027 69.01 0.955 -19.723 0.289 70.272 8.807e-3 134.335
          0.955 -19.723 0.027 69.01 8.807e-3 134.335 0.289 70.272
          0.289 70.272 8.807e-3 134.335 0.027 69.01 0.955 -19.723
          8.807e-3 134.335 0.289 70.272 0.955 -19.723 0.027 69.01
587.719 0.028 68.892 0.954 -19.923 0.292 70.072 8.977e-3 134.258
          0.954 -19.923 0.028 68.892 8.977e-3 134.258 0.292 70.072
          0.292 70.072 8.977e-3 134.258 0.028 68.892 0.954 -19.923
          8.977e-3 134.258 0.292 70.072 0.954 -19.923 0.028 68.892
593.985 0.028 68.773 0.953 -20.123 0.295 69.873 9.15e-3 134.178
          0.953 -20.123 0.028 68.773 9.15e-3 134.178 0.295 69.873
          0.295 69.873 9.15e-3 134.178 0.028 68.773 0.953 -20.123
          9.15e-3 134.178 0.295 69.873 0.953 -20.123 0.028 68.773
600.251 0.028 68.655 0.952 -20.322 0.297 69.674 9.323e-3 134.095
          0.952 -20.322 0.028 68.655 9.323e-3 134.095 0.297 69.674
          0.297 69.674 9.323e-3 134.095 0.028 68.655 0.952 -20.322
          9.323e-3 134.095 0.297 69.674 0.952 -20.322 0.028 68.655
606.516 0.028 68.537 0.951 -20.521 0.3 69.475 9.498e-3 134.008
          0.951 -20.521 0.028 68.537 9.498e-3 134.008 0.3 69.475
          0.3 69.475 9.498e-3 134.008 0.028 68.537 0.951 -20.521
          9.498e-3 134.008 0.3 69.475 0.951 -20.521 0.028 68.537
612.782 0.029 68.418 0.95 -20.72 0.303 69.277 9.674e-3 133.919
          0.95 -20.72 0.029 68.418 9.674e-3 133.919 0.303 69.277
          0.303 69.277 9.674e-3 133.919 0.029 68.418 0.95 -20.72
          9.674e-3 133.919 0.303 69.277 0.95 -20.72 0.029 68.418
619.048 0.029 68.3 0.949 -20.918 0.306 69.079 9.852e-3 133.828
          0.949 -20.918 0.029 68.3 9.852e-3 133.828 0.306 69.079
          0.306 69.079 9.852e-3 133.828 0.029 68.3 0.949 -20.918
          9.852e-3 133.828 0.306 69.079 0.949 -20.918 0.029 68.3
625.313 0.029 68.181 0.948 -21.116 0.308 68.881 0.01 133.734
          0.948 -21.116 0.029 68.181 0.01 133.734 0.308 68.881
          0.308 68.881 0.01 133.734 0.029 68.181 0.948 -21.116
          0.01 133.734 0.308 68.881 0.948 -21.116 0.029 68.181
631.579 0.029 68.063 0.948 -21.314 0.311 68.684 0.01 133.637
          0.948 -21.314 0.029 68.063 0.01 133.637 0.311 68.684
          0.311 68.684 0.01 133.637 0.029 68.063 0.948 -21.314
          0.01 133.637 0.311 68.684 0.948 -21.314 0.029 68.063
637.845 0.03 67.944 0.947 -21.511 0.314 68.488 0.01 133.538
          0.947 -21.511 0.03 67.944 0.01 133.538 0.314 68.488
          0.314 68.488 0.01 133.538 0.03 67.944 0.947 -21.511
          0.01 133.538 0.314 68.488 0.947 -21.511 0.03 67.944
644.11 0.03 67.826 0.946 -21.708 0.317 68.291 0.011 133.436
          0.946 -21.708 0.03 67.826 0.011 133.436 0.317 68.291
          0.317 68.291 0.011 133.436 0.03 67.826 0.946 -21.708
          0.011 133.436 0.317 68.291 0.946 -21.708 0.03 67.826
650.376 0.03 67.707 0.945 -21.904 0.319 68.095 0.011 133.332
          0.945 -21.904 0.03 67.707 0.011 133.332 0.319 68.095
          0.319 68.095 0.011 133.332 0.03 67.707 0.945 -21.904
          0.011 133.332 0.319 68.095 0.945 -21.904 0.03 67.707
656.642 0.03 67.589 0.944 -22.1 0.322 67.9 0.011 133.226
          0.944 -22.1 0.03 67.589 0.011 133.226 0.322 67.9
          0.322 67.9 0.011 133.226 0.03 67.589 0.944 -22.1
          0.011 133.226 0.322 67.9 0.944 -22.1 0.03 67.589
662.907 0.031 67.471 0.943 -22.296 0.325 67.705 0.011 133.118
          0.943 -22.296 0.031 67.471 0.011 133.118 0.325 67.705
          0.325 67.705 0.011 133.118 0.031 67.471 0.943 -22.296
          0.011 133.118 0.325 67.705 0.943 -22.296 0.031 67.471
669.173 0.031 67.353 0.942 -22.491 0.327 67.51 0.011 133.008
          0.942 -22.491 0.031 67.353 0.011 133.008 0.327 67.51
          0.327 67.51 0.011 133.008 0.031 67.353 0.942 -22.491
          0.011 133.008 0.327 67.51 0.942 -22.491 0.031 67.353
675.439 0.031 67.236 0.941 -22.686 0.33 67.316 0.012 132.896
          0.941 -22.686 0.031 67.236 0.012 132.896 0.33 67.316
          0.33 67.316 0.012 132.896 0.031 67.236 0.941 -22.686
          0.012 132.896 0.33 67.316 0.941 -22.686 0.031 67.236
681.704 0.031 67.118 0.94 -22.88 0.333 67.122 0.012 132.782
          0.94 -22.88 0.031 67.118 0.012 132.782 0.333 67.122
          0.333 67.122 0.012 132.782 0.031 67.118 0.94 -22.88
          0.012 132.782 0.333 67.122 0.94 -22.88 0.031 67.118
687.97 0.032 67.001 0.939 -23.074 0.335 66.928 0.012 132.666
          0.939 -23.074 0.032 67.001 0.012 132.666 0.335 66.928
          0.335 66.928 0.012 132.666 0.032 67.001 0.939 -23.074
          0.012 132.666 0.335 66.928 0.939 -23.074 0.032 67.001
694.236 0.032 66.884 0.938 -23.268 0.338 66.735 0.012 132.549
          0.938 -23.268 0.032 66.884 0.012 132.549 0.338 66.735
          0.338 66.735 0.012 132.549 0.032 66.884 0.938 -23.268
          0.012 132.549 0.338 66.735 0.938 -23.268 0.032 66.884
700.501 0.032 66.767 0.937 -23.461 0.341 66.542 0.012 132.429
          0.937 -23.461 0.032 66.767 0.012 132.429 0.341 66.542
          0.341 66.542 0.012 132.429 0.032 66.767 0.937 -23.461
          0.012 132.429 0.341 66.542 0.937 -23.461 0.032 66.767
706.767 0.032 66.651 0.936 -23.654 0.343 66.35 0.012 132.308
          0.936 -23.654 0.032 66.651 0.012 132.308 0.343 66.35
          0.343 66.35 0.012 132.308 0.032 66.651 0.936 -23.654
          0.012 132.308 0.343 66.35 0.936 -23.654 0.032 66.651
713.033 0.033 66.535 0.935 -23.846 0.346 66.158 0.013 132.186
          0.935 -23.846 0.033 66.535 0.013 132.186 0.346 66.158
          0.346 66.158 0.013 132.186 0.033 66.535 0.935 -23.846
          0.013 132.186 0.346 66.158 0.935 -23.846 0.033 66.535
719.298 0.033 66.419 0.934 -24.038 0.349 65.967 0.013 132.061
          0.934 -24.038 0.033 66.419 0.013 132.061 0.349 65.967
          0.349 65.967 0.013 132.061 0.033 66.419 0.934 -24.038
          0.013 132.061 0.349 65.967 0.934 -24.038 0.033 66.419
725.564 0.033 66.303 0.933 -24.23 0.351 65.775 0.013 131.936
          0.933 -24.23 0.033 66.303 0.013 131.936 0.351 65.775
          0.351 65.775 0.013 131.936 0.033 66.303 0.933 -24.23
          0.013 131.936 0.351 65.775 0.933 -24.23 0.033 66.303
731.83 0.033 66.188 0.932 -24.421 0.354 65.585 0.013 131.809
          0.932 -24.421 0.033 66.188 0.013 131.809 0.354 65.585
          0.354 65.585 0.013 131.809 0.033 66.188 0.932 -24.421
          0.013 131.809 0.354 65.585 0.932 -24.421 0.033 66.188
738.095 0.034 66.073 0.931 -24.612 0.356 65.394 0.013 131.68
          0.931 -24.612 0.034 66.073 0.013 131.68 0.356 65.394
          0.356 65.394 0.013 131.68 0.034 66.073 0.931 -24.612
          0.013 131.68 0.356 65.394 0.931 -24.612 0.034 66.073
744.361 0.034 65.959 0.93 -24.803 0.359 65.205 0.014 131.55
          0.93 -24.803 0.034 65.959 0.014 131.55 0.359 65.205
          0.359 65.205 0.014 131.55 0.034 65.959 0.93 -24.803
          0.014 131.55 0.359 65.205 0.93 -24.803 0.034 65.959
750.627 0.034 65.845 0.929 -24.993 0.361 65.015 0.014 131.419
          0.929 -24.993 0.034 65.845 0.014 131.419 0.361 65.015
          0.361 65.015 0.014 131.419 0.034 65.845 0.929 -24.993
          0.014 131.419 0.361 65.015 0.929 -24.993 0.034 65.845
756.892 0.034 65.731 0.928 -25.182 0.364 64.826 0.014 131.287
          0.928 -25.182 0.034 65.731 0.014 131.287 0.364 64.826
          0.364 64.826 0.014 131.287 0.034 65.731 0.928 -25.182
          0.014 131.287 0.364 64.826 0.928 -25.182 0.034 65.731
763.158 0.035 65.618 0.927 -25.371 0.366 64.637 0.014 131.153
          0.927 -25.371 0.035 65.618 0.014 131.153 0.366 64.637
          0.366 64.637 0.014 131.153 0.035 65.618 0.927 -25.371
          0.014 131.153 0.366 64.637 0.927 -25.371 0.035 65.618
769.424 0.035 65.505 0.926 -25.56 0.369 64.449 0.015 131.019
          0.926 -25.56 0.035 65.505 0.015 131.019 0.369 64.449
          0.369 64.449 0.015 131.019 0.035 65.505 0.926 -25.56
          0.015 131.019 0.369 64.449 0.926 -25.56 0.035 65.505
775.689 0.035 65.393 0.925 -25.749 0.372 64.261 0.015 130.883
          0.925 -25.749 0.035 65.393 0.015 130.883 0.372 64.261
          0.372 64.261 0.015 130.883 0.035 65.393 0.925 -25.749
          0.015 130.883 0.372 64.261 0.925 -25.749 0.035 65.393
781.955 0.035 65.281 0.924 -25.937 0.374 64.074 0.015 130.746
          0.924 -25.937 0.035 65.281 0.015 130.746 0.374 64.074
          0.374 64.074 0.015 130.746 0.035 65.281 0.924 -25.937
          0.015 130.746 0.374 64.074 0.924 -25.937 0.035 65.281
788.221 0.035 65.169 0.923 -26.124 0.377 63.887 0.015 130.608
          0.923 -26.124 0.035 65.169 0.015 130.608 0.377 63.887
          0.377 63.887 0.015 130.608 0.035 65.169 0.923 -26.124
          0.015 130.608 0.377 63.887 0.923 -26.124 0.035 65.169
794.486 0.036 65.058 0.922 -26.311 0.379 63.701 0.015 130.469
          0.922 -26.311 0.036 65.058 0.015 130.469 0.379 63.701
          0.379 63.701 0.015 130.469 0.036 65.058 0.922 -26.311
          0.015 130.469 0.379 63.701 0.922 -26.311 0.036 65.058
800.752 0.036 64.947 0.921 -26.498 0.381 63.515 0.016 130.329
          0.921 -26.498 0.036 64.947 0.016 130.329 0.381 63.515
          0.381 63.515 0.016 130.329 0.036 64.947 0.921 -26.498
          0.016 130.329 0.381 63.515 0.921 -26.498 0.036 64.947
807.018 0.036 64.837 0.92 -26.684 0.384 63.329 0.016 130.189
          0.92 -26.684 0.036 64.837 0.016 130.189 0.384 63.329
          0.384 63.329 0.016 130.189 0.036 64.837 0.92 -26.684
          0.016 130.189 0.384 63.329 0.92 -26.684 0.036 64.837
813.283 0.036 64.728 0.919 -26.87 0.386 63.144 0.016 130.047
          0.919 -26.87 0.036 64.728 0.016 130.047 0.386 63.144
          0.386 63.144 0.016 130.047 0.036 64.728 0.919 -26.87
          0.016 130.047 0.386 63.144 0.919 -26.87 0.036 64.728
819.549 0.037 64.619 0.918 -27.055 0.389 62.959 0.016 129.905
          0.918 -27.055 0.037 64.619 0.016 129.905 0.389 62.959
          0.389 62.959 0.016 129.905 0.037 64.619 0.918 -27.055
          0.016 129.905 0.389 62.959 0.918 -27.055 0.037 64.619
825.815 0.037 64.51 0.917 -27.24 0.391 62.775 0.016 129.761
          0.917 -27.24 0.037 64.51 0.016 129.761 0.391 62.775
          0.391 62.775 0.016 129.761 0.037 64.51 0.917 -27.24
          0.016 129.761 0.391 62.775 0.917 -27.24 0.037 64.51
832.08 0.037 64.402 0.916 -27.425 0.394 62.591 0.017 129.617
          0.916 -27.425 0.037 64.402 0.017 129.617 0.394 62.591
          0.394 62.591 0.017 129.617 0.037 64.402 0.916 -27.425
          0.017 129.617 0.394 62.591 0.916 -27.425 0.037 64.402
838.346 0.037 64.295 0.915 -27.609 0.396 62.407 0.017 129.472
          0.915 -27.609 0.037 64.295 0.017 129.472 0.396 62.407
          0.396 62.407 0.017 129.472 0.037 64.295 0.915 -27.609
          0.017 129.472 0.396 62.407 0.915 -27.609 0.037 64.295
844.612 0.038 64.188 0.914 -27.793 0.399 62.224 0.017 129.327
          0.914 -27.793 0.038 64.188 0.017 129.327 0.399 62.224
          0.399 62.224 0.017 129.327 0.038 64.188 0.914 -27.793
          0.017 129.327 0.399 62.224 0.914 -27.793 0.038 64.188
850.877 0.038 64.081 0.913 -27.976 0.401 62.041 0.017 129.181
          0.913 -27.976 0.038 64.081 0.017 129.181 0.401 62.041
          0.401 62.041 0.017 129.181 0.038 64.081 0.913 -27.976
          0.017 129.181 0.401 62.041 0.913 -27.976 0.038 64.081
857.143 0.038 63.975 0.912 -28.159 0.403 61.859 0.018 129.034
          0.912 -28.159 0.038 63.975 0.018 129.034 0.403 61.859
          0.403 61.859 0.018 129.034 0.038 63.975 0.912 -28.159
          0.018 129.034 0.403 61.859 0.912 -28.159 0.038 63.975
863.409 0.038 63.87 0.911 -28.342 0.406 61.677 0.018 128.886
          0.911 -28.342 0.038 63.87 0.018 128.886 0.406 61.677
          0.406 61.677 0.018 128.886 0.038 63.87 0.911 -28.342
          0.018 128.886 0.406 61.677 0.911 -28.342 0.038 63.87
869.674 0.038 63.765 0.91 -28.524 0.408 61.496 0.018 128.738
          0.91 -28.524 0.038 63.765 0.018 128.738 0.408 61.496
          0.408 61.496 0.018 128.738 0.038 63.765 0.91 -28.524
          0.018 128.738 0.408 61.496 0.91 -28.524 0.038 63.765
875.94 0.039 63.661 0.909 -28.705 0.41 61.315 0.018 128.589
          0.909 -28.705 0.039 63.661 0.018 128.589 0.41 61.315
          0.41 61.315 0.018 128.589 0.039 63.661 0.909 -28.705
          0.018 128.589 0.41 61.315 0.909 -28.705 0.039 63.661
882.206 0.039 63.558 0.907 -28.887 0.413 61.135 0.018 128.44
          0.907 -28.887 0.039 63.558 0.018 128.44 0.413 61.135
          0.413 61.135 0.018 128.44 0.039 63.558 0.907 -28.887
          0.018 128.44 0.413 61.135 0.907 -28.887 0.039 63.558
888.471 0.039 63.455 0.906 -29.067 0.415 60.955 0.019 128.29
          0.906 -29.067 0.039 63.455 0.019 128.29 0.415 60.955
          0.415 60.955 0.019 128.29 0.039 63.455 0.906 -29.067
          0.019 128.29 0.415 60.955 0.906 -29.067 0.039 63.455
894.737 0.039 63.352 0.905 -29.248 0.417 60.775 0.019 128.14
          0.905 -29.248 0.039 63.352 0.019 128.14 0.417 60.775
          0.417 60.775 0.019 128.14 0.039 63.352 0.905 -29.248
          0.019 128.14 0.417 60.775 0.905 -29.248 0.039 63.352
901.003 0.039 63.251 0.904 -29.428 0.42 60.596 0.019 127.989
          0.904 -29.428 0.039 63.251 0.019 127.989 0.42 60.596
          0.42 60.596 0.019 127.989 0.039 63.251 0.904 -29.428
          0.019 127.989 0.42 60.596 0.904 -29.428 0.039 63.251
907.268 0.04 63.149 0.903 -29.607 0.422 60.417 0.019 127.838
          0.903 -29.607 0.04 63.149 0.019 127.838 0.422 60.417
          0.422 60.417 0.019 127.838 0.04 63.149 0.903 -29.607
          0.019 127.838 0.422 60.417 0.903 -29.607 0.04 63.149
913.534 0.04 63.049 0.902 -29.786 0.424 60.239 0.02 127.686
          0.902 -29.786 0.04 63.049 0.02 127.686 0.424 60.239
          0.424 60.239 0.02 127.686 0.04 63.049 0.902 -29.786
          0.02 127.686 0.424 60.239 0.902 -29.786 0.04 63.049
919.799 0.04 62.949 0.901 -29.965 0.427 60.061 0.02 127.534
          0.901 -29.965 0.04 62.949 0.02 127.534 0.427 60.061
          0.427 60.061 0.02 127.534 0.04 62.949 0.901 -29.965
          0.02 127.534 0.427 60.061 0.901 -29.965 0.04 62.949
926.065 0.04 62.849 0.9 -30.143 0.429 59.884 0.02 127.382
          0.9 -30.143 0.04 62.849 0.02 127.382 0.429 59.884
          0.429 59.884 0.02 127.382 0.04 62.849 0.9 -30.143
          0.02 127.382 0.429 59.884 0.9 -30.143 0.04 62.849
932.331 0.041 62.751 0.899 -30.321 0.431 59.707 0.02 127.229
          0.899 -30.321 0.041 62.751 0.02 127.229 0.431 59.707
          0.431 59.707 0.02 127.229 0.041 62.751 0.899 -30.321
          0.02 127.229 0.431 59.707 0.899 -30.321 0.041 62.751
938.596 0.041 62.653 0.898 -30.498 0.433 59.53 0.02 127.076
          0.898 -30.498 0.041 62.653 0.02 127.076 0.433 59.53
          0.433 59.53 0.02 127.076 0.041 62.653 0.898 -30.498
          0.02 127.076 0.433 59.53 0.898 -30.498 0.041 62.653
944.862 0.041 62.555 0.897 -30.675 0.436 59.354 0.021 126.922
          0.897 -30.675 0.041 62.555 0.021 126.922 0.436 59.354
          0.436 59.354 0.021 126.922 0.041 62.555 0.897 -30.675
          0.021 126.922 0.436 59.354 0.897 -30.675 0.041 62.555
951.128 0.041 62.458 0.895 -30.851 0.438 59.179 0.021 126.768
          0.895 -30.851 0.041 62.458 0.021 126.768 0.438 59.179
          0.438 59.179 0.021 126.768 0.041 62.458 0.895 -30.851
          0.021 126.768 0.438 59.179 0.895 -30.851 0.041 62.458
957.393 0.041 62.362 0.894 -31.027 0.44 59.003 0.021 126.614
          0.894 -31.027 0.041 62.362 0.021 126.614 0.44 59.003
          0.44 59.003 0.021 126.614 0.041 62.362 0.894 -31.027
          0.021 126.614 0.44 59.003 0.894 -31.027 0.041 62.362
963.659 0.042 62.267 0.893 -31.203 0.442 58.829 0.021 126.46
          0.893 -31.203 0.042 62.267 0.021 126.46 0.442 58.829
          0.442 58.829 0.021 126.46 0.042 62.267 0.893 -31.203
          0.021 126.46 0.442 58.829 0.893 -31.203 0.042 62.267
969.925 0.042 62.172 0.892 -31.378 0.444 58.654 0.022 126.305
          0.892 -31.378 0.042 62.172 0.022 126.305 0.444 58.654
          0.444 58.654 0.022 126.305 0.042 62.172 0.892 -31.378
          0.022 126.305 0.444 58.654 0.892 -31.378 0.042 62.172
976.19 0.042 62.078 0.891 -31.553 0.447 58.48 0.022 126.15
          0.891 -31.553 0.042 62.078 0.022 126.15 0.447 58.48
          0.447 58.48 0.022 126.15 0.042 62.078 0.891 -31.553
          0.022 126.15 0.447 58.48 0.891 -31.553 0.042 62.078
982.456 0.042 61.984 0.89 -31.727 0.449 58.307 0.022 125.995
          0.89 -31.727 0.042 61.984 0.022 125.995 0.449 58.307
          0.449 58.307 0.022 125.995 0.042 61.984 0.89 -31.727
          0.022 125.995 0.449 58.307 0.89 -31.727 0.042 61.984
