!	AVX THIN FILM OPERATION
!	
!	0805 SIZE 3dB 90deg COUPLER P/N DB0805A2325AWTR
!
!	Created March 23 2003
!						
!	Network Analyzer HP8720E S.07.64: Feb23, 2000 Serial No.US39172382		
!	
#	MHZ	S	MA	R	50					


500 0.045 -115.092 0.971 -13.743 0.219 75.621 0.049 64.063
          0.971 -13.743 0.045 -115.092 0.049 64.063 0.219 75.621
          0.219 75.621 0.049 64.063 0.045 -115.092 0.971 -13.743
          0.049 64.063 0.219 75.621 0.971 -13.743 0.045 -115.092
506.266 0.046 -115.452 0.971 -13.908 0.222 75.45 0.049 63.753
          0.971 -13.908 0.046 -115.452 0.049 63.753 0.222 75.45
          0.222 75.45 0.049 63.753 0.046 -115.452 0.971 -13.908
          0.049 63.753 0.222 75.45 0.971 -13.908 0.046 -115.452
512.531 0.046 -115.811 0.97 -14.073 0.224 75.278 0.05 63.444
          0.97 -14.073 0.046 -115.811 0.05 63.444 0.224 75.278
          0.224 75.278 0.05 63.444 0.046 -115.811 0.97 -14.073
          0.05 63.444 0.224 75.278 0.97 -14.073 0.046 -115.811
518.797 0.047 -116.17 0.969 -14.238 0.227 75.107 0.05 63.135
          0.969 -14.238 0.047 -116.17 0.05 63.135 0.227 75.107
          0.227 75.107 0.05 63.135 0.047 -116.17 0.969 -14.238
          0.05 63.135 0.227 75.107 0.969 -14.238 0.047 -116.17
525.063 0.047 -116.526 0.969 -14.402 0.229 74.936 0.051 62.827
          0.969 -14.402 0.047 -116.526 0.051 62.827 0.229 74.936
          0.229 74.936 0.051 62.827 0.047 -116.526 0.969 -14.402
          0.051 62.827 0.229 74.936 0.969 -14.402 0.047 -116.526
531.328 0.048 -116.882 0.968 -14.566 0.232 74.766 0.051 62.519
          0.968 -14.566 0.048 -116.882 0.051 62.519 0.232 74.766
          0.232 74.766 0.051 62.519 0.048 -116.882 0.968 -14.566
          0.051 62.519 0.232 74.766 0.968 -14.566 0.048 -116.882
537.594 0.048 -117.237 0.967 -14.73 0.234 74.596 0.052 62.211
          0.967 -14.73 0.048 -117.237 0.052 62.211 0.234 74.596
          0.234 74.596 0.052 62.211 0.048 -117.237 0.967 -14.73
          0.052 62.211 0.234 74.596 0.967 -14.73 0.048 -117.237
543.86 0.049 -117.591 0.967 -14.894 0.237 74.426 0.052 61.905
          0.967 -14.894 0.049 -117.591 0.052 61.905 0.237 74.426
          0.237 74.426 0.052 61.905 0.049 -117.591 0.967 -14.894
          0.052 61.905 0.237 74.426 0.967 -14.894 0.049 -117.591
550.125 0.049 -117.943 0.966 -15.057 0.24 74.256 0.053 61.598
          0.966 -15.057 0.049 -117.943 0.053 61.598 0.24 74.256
          0.24 74.256 0.053 61.598 0.049 -117.943 0.966 -15.057
          0.053 61.598 0.24 74.256 0.966 -15.057 0.049 -117.943
556.391 0.05 -118.295 0.965 -15.22 0.242 74.087 0.053 61.292
          0.965 -15.22 0.05 -118.295 0.053 61.292 0.242 74.087
          0.242 74.087 0.053 61.292 0.05 -118.295 0.965 -15.22
          0.053 61.292 0.242 74.087 0.965 -15.22 0.05 -118.295
562.657 0.05 -118.645 0.965 -15.383 0.245 73.918 0.054 60.987
          0.965 -15.383 0.05 -118.645 0.054 60.987 0.245 73.918
          0.245 73.918 0.054 60.987 0.05 -118.645 0.965 -15.383
          0.054 60.987 0.245 73.918 0.965 -15.383 0.05 -118.645
568.922 0.05 -118.994 0.964 -15.545 0.247 73.749 0.054 60.682
          0.964 -15.545 0.05 -118.994 0.054 60.682 0.247 73.749
          0.247 73.749 0.054 60.682 0.05 -118.994 0.964 -15.545
          0.054 60.682 0.247 73.749 0.964 -15.545 0.05 -118.994
575.188 0.051 -119.343 0.963 -15.707 0.25 73.58 0.055 60.378
          0.963 -15.707 0.051 -119.343 0.055 60.378 0.25 73.58
          0.25 73.58 0.055 60.378 0.051 -119.343 0.963 -15.707
          0.055 60.378 0.25 73.58 0.963 -15.707 0.051 -119.343
581.454 0.051 -119.69 0.962 -15.869 0.252 73.412 0.055 60.074
          0.962 -15.869 0.051 -119.69 0.055 60.074 0.252 73.412
          0.252 73.412 0.055 60.074 0.051 -119.69 0.962 -15.869
          0.055 60.074 0.252 73.412 0.962 -15.869 0.051 -119.69
587.719 0.052 -120.037 0.962 -16.031 0.255 73.244 0.056 59.771
          0.962 -16.031 0.052 -120.037 0.056 59.771 0.255 73.244
          0.255 73.244 0.056 59.771 0.052 -120.037 0.962 -16.031
          0.056 59.771 0.255 73.244 0.962 -16.031 0.052 -120.037
593.985 0.052 -120.382 0.961 -16.192 0.257 73.077 0.056 59.468
          0.961 -16.192 0.052 -120.382 0.056 59.468 0.257 73.077
          0.257 73.077 0.056 59.468 0.052 -120.382 0.961 -16.192
          0.056 59.468 0.257 73.077 0.961 -16.192 0.052 -120.382
600.251 0.053 -120.727 0.96 -16.354 0.26 72.909 0.057 59.166
          0.96 -16.354 0.053 -120.727 0.057 59.166 0.26 72.909
          0.26 72.909 0.057 59.166 0.053 -120.727 0.96 -16.354
          0.057 59.166 0.26 72.909 0.96 -16.354 0.053 -120.727
606.516 0.053 -121.071 0.96 -16.514 0.262 72.743 0.057 58.864
          0.96 -16.514 0.053 -121.071 0.057 58.864 0.262 72.743
          0.262 72.743 0.057 58.864 0.053 -121.071 0.96 -16.514
          0.057 58.864 0.262 72.743 0.96 -16.514 0.053 -121.071
612.782 0.054 -121.413 0.959 -16.675 0.265 72.576 0.058 58.563
          0.959 -16.675 0.054 -121.413 0.058 58.563 0.265 72.576
          0.265 72.576 0.058 58.563 0.054 -121.413 0.959 -16.675
          0.058 58.563 0.265 72.576 0.959 -16.675 0.054 -121.413
619.048 0.054 -121.755 0.958 -16.835 0.267 72.41 0.058 58.262
          0.958 -16.835 0.054 -121.755 0.058 58.262 0.267 72.41
          0.267 72.41 0.058 58.262 0.054 -121.755 0.958 -16.835
          0.058 58.262 0.267 72.41 0.958 -16.835 0.054 -121.755
625.313 0.055 -122.096 0.957 -16.995 0.27 72.244 0.059 57.962
          0.957 -16.995 0.055 -122.096 0.059 57.962 0.27 72.244
          0.27 72.244 0.059 57.962 0.055 -122.096 0.957 -16.995
          0.059 57.962 0.27 72.244 0.957 -16.995 0.055 -122.096
631.579 0.055 -122.436 0.957 -17.155 0.272 72.078 0.059 57.662
          0.957 -17.155 0.055 -122.436 0.059 57.662 0.272 72.078
          0.272 72.078 0.059 57.662 0.055 -122.436 0.957 -17.155
          0.059 57.662 0.272 72.078 0.957 -17.155 0.055 -122.436
637.845 0.056 -122.775 0.956 -17.314 0.274 71.913 0.06 57.363
          0.956 -17.314 0.056 -122.775 0.06 57.363 0.274 71.913
          0.274 71.913 0.06 57.363 0.056 -122.775 0.956 -17.314
          0.06 57.363 0.274 71.913 0.956 -17.314 0.056 -122.775
644.11 0.056 -123.113 0.955 -17.474 0.277 71.748 0.06 57.065
          0.955 -17.474 0.056 -123.113 0.06 57.065 0.277 71.748
          0.277 71.748 0.06 57.065 0.056 -123.113 0.955 -17.474
          0.06 57.065 0.277 71.748 0.955 -17.474 0.056 -123.113
650.376 0.056 -123.45 0.954 -17.633 0.279 71.583 0.061 56.767
          0.954 -17.633 0.056 -123.45 0.061 56.767 0.279 71.583
          0.279 71.583 0.061 56.767 0.056 -123.45 0.954 -17.633
          0.061 56.767 0.279 71.583 0.954 -17.633 0.056 -123.45
656.642 0.057 -123.787 0.953 -17.791 0.282 71.418 0.061 56.47
          0.953 -17.791 0.057 -123.787 0.061 56.47 0.282 71.418
          0.282 71.418 0.061 56.47 0.057 -123.787 0.953 -17.791
          0.061 56.47 0.282 71.418 0.953 -17.791 0.057 -123.787
662.907 0.057 -124.122 0.953 -17.949 0.284 71.254 0.062 56.173
          0.953 -17.949 0.057 -124.122 0.062 56.173 0.284 71.254
          0.284 71.254 0.062 56.173 0.057 -124.122 0.953 -17.949
          0.062 56.173 0.284 71.254 0.953 -17.949 0.057 -124.122
669.173 0.058 -124.457 0.952 -18.107 0.287 71.091 0.062 55.877
          0.952 -18.107 0.058 -124.457 0.062 55.877 0.287 71.091
          0.287 71.091 0.062 55.877 0.058 -124.457 0.952 -18.107
          0.062 55.877 0.287 71.091 0.952 -18.107 0.058 -124.457
675.439 0.058 -124.791 0.951 -18.265 0.289 70.927 0.063 55.581
          0.951 -18.265 0.058 -124.791 0.063 55.581 0.289 70.927
          0.289 70.927 0.063 55.581 0.058 -124.791 0.951 -18.265
          0.063 55.581 0.289 70.927 0.951 -18.265 0.058 -124.791
681.704 0.059 -125.124 0.95 -18.423 0.291 70.764 0.063 55.286
          0.95 -18.423 0.059 -125.124 0.063 55.286 0.291 70.764
          0.291 70.764 0.063 55.286 0.059 -125.124 0.95 -18.423
          0.063 55.286 0.291 70.764 0.95 -18.423 0.059 -125.124
687.97 0.059 -125.456 0.95 -18.58 0.294 70.602 0.063 54.991
          0.95 -18.58 0.059 -125.456 0.063 54.991 0.294 70.602
          0.294 70.602 0.063 54.991 0.059 -125.456 0.95 -18.58
          0.063 54.991 0.294 70.602 0.95 -18.58 0.059 -125.456
694.236 0.059 -125.787 0.949 -18.736 0.296 70.439 0.064 54.697
          0.949 -18.736 0.059 -125.787 0.064 54.697 0.296 70.439
          0.296 70.439 0.064 54.697 0.059 -125.787 0.949 -18.736
          0.064 54.697 0.296 70.439 0.949 -18.736 0.059 -125.787
700.501 0.06 -126.118 0.948 -18.893 0.299 70.277 0.064 54.404
          0.948 -18.893 0.06 -126.118 0.064 54.404 0.299 70.277
          0.299 70.277 0.064 54.404 0.06 -126.118 0.948 -18.893
          0.064 54.404 0.299 70.277 0.948 -18.893 0.06 -126.118
706.767 0.06 -126.447 0.947 -19.049 0.301 70.115 0.065 54.111
          0.947 -19.049 0.06 -126.447 0.065 54.111 0.301 70.115
          0.301 70.115 0.065 54.111 0.06 -126.447 0.947 -19.049
          0.065 54.111 0.301 70.115 0.947 -19.049 0.06 -126.447
713.033 0.061 -126.776 0.946 -19.205 0.303 69.954 0.065 53.819
          0.946 -19.205 0.061 -126.776 0.065 53.819 0.303 69.954
          0.303 69.954 0.065 53.819 0.061 -126.776 0.946 -19.205
          0.065 53.819 0.303 69.954 0.946 -19.205 0.061 -126.776
719.298 0.061 -127.104 0.945 -19.361 0.306 69.793 0.066 53.527
          0.945 -19.361 0.061 -127.104 0.066 53.527 0.306 69.793
          0.306 69.793 0.066 53.527 0.061 -127.104 0.945 -19.361
          0.066 53.527 0.306 69.793 0.945 -19.361 0.061 -127.104
725.564 0.062 -127.431 0.945 -19.516 0.308 69.632 0.066 53.236
          0.945 -19.516 0.062 -127.431 0.066 53.236 0.308 69.632
          0.308 69.632 0.066 53.236 0.062 -127.431 0.945 -19.516
          0.066 53.236 0.308 69.632 0.945 -19.516 0.062 -127.431
731.83 0.062 -127.758 0.944 -19.671 0.31 69.472 0.067 52.946
          0.944 -19.671 0.062 -127.758 0.067 52.946 0.31 69.472
          0.31 69.472 0.067 52.946 0.062 -127.758 0.944 -19.671
          0.067 52.946 0.31 69.472 0.944 -19.671 0.062 -127.758
738.095 0.062 -128.083 0.943 -19.826 0.313 69.312 0.067 52.656
          0.943 -19.826 0.062 -128.083 0.067 52.656 0.313 69.312
          0.313 69.312 0.067 52.656 0.062 -128.083 0.943 -19.826
          0.067 52.656 0.313 69.312 0.943 -19.826 0.062 -128.083
744.361 0.063 -128.408 0.942 -19.98 0.315 69.152 0.067 52.366
          0.942 -19.98 0.063 -128.408 0.067 52.366 0.315 69.152
          0.315 69.152 0.067 52.366 0.063 -128.408 0.942 -19.98
          0.067 52.366 0.315 69.152 0.942 -19.98 0.063 -128.408
750.627 0.063 -128.732 0.941 -20.134 0.317 68.993 0.068 52.078
          0.941 -20.134 0.063 -128.732 0.068 52.078 0.317 68.993
          0.317 68.993 0.068 52.078 0.063 -128.732 0.941 -20.134
          0.068 52.078 0.317 68.993 0.941 -20.134 0.063 -128.732
756.892 0.064 -129.055 0.94 -20.288 0.32 68.834 0.068 51.79
          0.94 -20.288 0.064 -129.055 0.068 51.79 0.32 68.834
          0.32 68.834 0.068 51.79 0.064 -129.055 0.94 -20.288
          0.068 51.79 0.32 68.834 0.94 -20.288 0.064 -129.055
763.158 0.064 -129.378 0.94 -20.442 0.322 68.675 0.069 51.502
          0.94 -20.442 0.064 -129.378 0.069 51.502 0.322 68.675
          0.322 68.675 0.069 51.502 0.064 -129.378 0.94 -20.442
          0.069 51.502 0.322 68.675 0.94 -20.442 0.064 -129.378
769.424 0.064 -129.699 0.939 -20.595 0.324 68.517 0.069 51.215
          0.939 -20.595 0.064 -129.699 0.069 51.215 0.324 68.517
          0.324 68.517 0.069 51.215 0.064 -129.699 0.939 -20.595
          0.069 51.215 0.324 68.517 0.939 -20.595 0.064 -129.699
775.689 0.065 -130.02 0.938 -20.748 0.327 68.359 0.07 50.929
          0.938 -20.748 0.065 -130.02 0.07 50.929 0.327 68.359
          0.327 68.359 0.07 50.929 0.065 -130.02 0.938 -20.748
          0.07 50.929 0.327 68.359 0.938 -20.748 0.065 -130.02
781.955 0.065 -130.34 0.937 -20.9 0.329 68.201 0.07 50.643
          0.937 -20.9 0.065 -130.34 0.07 50.643 0.329 68.201
          0.329 68.201 0.07 50.643 0.065 -130.34 0.937 -20.9
          0.07 50.643 0.329 68.201 0.937 -20.9 0.065 -130.34
788.221 0.066 -130.66 0.936 -21.052 0.331 68.044 0.07 50.358
          0.936 -21.052 0.066 -130.66 0.07 50.358 0.331 68.044
          0.331 68.044 0.07 50.358 0.066 -130.66 0.936 -21.052
          0.07 50.358 0.331 68.044 0.936 -21.052 0.066 -130.66
794.486 0.066 -130.978 0.935 -21.204 0.333 67.887 0.071 50.074
          0.935 -21.204 0.066 -130.978 0.071 50.074 0.333 67.887
          0.333 67.887 0.071 50.074 0.066 -130.978 0.935 -21.204
          0.071 50.074 0.333 67.887 0.935 -21.204 0.066 -130.978
800.752 0.066 -131.296 0.934 -21.356 0.336 67.731 0.071 49.79
          0.934 -21.356 0.066 -131.296 0.071 49.79 0.336 67.731
          0.336 67.731 0.071 49.79 0.066 -131.296 0.934 -21.356
          0.071 49.79 0.336 67.731 0.934 -21.356 0.066 -131.296
807.018 0.067 -131.613 0.934 -21.507 0.338 67.574 0.072 49.507
          0.934 -21.507 0.067 -131.613 0.072 49.507 0.338 67.574
          0.338 67.574 0.072 49.507 0.067 -131.613 0.934 -21.507
          0.072 49.507 0.338 67.574 0.934 -21.507 0.067 -131.613
813.283 0.067 -131.929 0.933 -21.658 0.34 67.419 0.072 49.224
          0.933 -21.658 0.067 -131.929 0.072 49.224 0.34 67.419
          0.34 67.419 0.072 49.224 0.067 -131.929 0.933 -21.658
          0.072 49.224 0.34 67.419 0.933 -21.658 0.067 -131.929
819.549 0.067 -132.245 0.932 -21.809 0.342 67.263 0.072 48.942
          0.932 -21.809 0.067 -132.245 0.072 48.942 0.342 67.263
          0.342 67.263 0.072 48.942 0.067 -132.245 0.932 -21.809
          0.072 48.942 0.342 67.263 0.932 -21.809 0.067 -132.245
825.815 0.068 -132.559 0.931 -21.959 0.345 67.108 0.073 48.661
          0.931 -21.959 0.068 -132.559 0.073 48.661 0.345 67.108
          0.345 67.108 0.073 48.661 0.068 -132.559 0.931 -21.959
          0.073 48.661 0.345 67.108 0.931 -21.959 0.068 -132.559
832.08 0.068 -132.873 0.93 -22.109 0.347 66.953 0.073 48.38
          0.93 -22.109 0.068 -132.873 0.073 48.38 0.347 66.953
          0.347 66.953 0.073 48.38 0.068 -132.873 0.93 -22.109
          0.073 48.38 0.347 66.953 0.93 -22.109 0.068 -132.873
838.346 0.069 -133.187 0.929 -22.259 0.349 66.799 0.074 48.1
          0.929 -22.259 0.069 -133.187 0.074 48.1 0.349 66.799
          0.349 66.799 0.074 48.1 0.069 -133.187 0.929 -22.259
          0.074 48.1 0.349 66.799 0.929 -22.259 0.069 -133.187
844.612 0.069 -133.499 0.928 -22.408 0.351 66.645 0.074 47.821
          0.928 -22.408 0.069 -133.499 0.074 47.821 0.351 66.645
          0.351 66.645 0.074 47.821 0.069 -133.499 0.928 -22.408
          0.074 47.821 0.351 66.645 0.928 -22.408 0.069 -133.499
850.877 0.069 -133.811 0.927 -22.558 0.354 66.491 0.074 47.542
          0.927 -22.558 0.069 -133.811 0.074 47.542 0.354 66.491
          0.354 66.491 0.074 47.542 0.069 -133.811 0.927 -22.558
          0.074 47.542 0.354 66.491 0.927 -22.558 0.069 -133.811
857.143 0.07 -134.122 0.926 -22.706 0.356 66.338 0.075 47.264
          0.926 -22.706 0.07 -134.122 0.075 47.264 0.356 66.338
          0.356 66.338 0.075 47.264 0.07 -134.122 0.926 -22.706
          0.075 47.264 0.356 66.338 0.926 -22.706 0.07 -134.122
863.409 0.07 -134.432 0.926 -22.855 0.358 66.185 0.075 46.986
          0.926 -22.855 0.07 -134.432 0.075 46.986 0.358 66.185
          0.358 66.185 0.075 46.986 0.07 -134.432 0.926 -22.855
          0.075 46.986 0.358 66.185 0.926 -22.855 0.07 -134.432
869.674 0.07 -134.741 0.925 -23.003 0.36 66.032 0.075 46.709
          0.925 -23.003 0.07 -134.741 0.075 46.709 0.36 66.032
          0.36 66.032 0.075 46.709 0.07 -134.741 0.925 -23.003
          0.075 46.709 0.36 66.032 0.925 -23.003 0.07 -134.741
875.94 0.071 -135.05 0.924 -23.151 0.362 65.88 0.076 46.433
          0.924 -23.151 0.071 -135.05 0.076 46.433 0.362 65.88
          0.362 65.88 0.076 46.433 0.071 -135.05 0.924 -23.151
          0.076 46.433 0.362 65.88 0.924 -23.151 0.071 -135.05
882.206 0.071 -135.358 0.923 -23.298 0.364 65.728 0.076 46.158
          0.923 -23.298 0.071 -135.358 0.076 46.158 0.364 65.728
          0.364 65.728 0.076 46.158 0.071 -135.358 0.923 -23.298
          0.076 46.158 0.364 65.728 0.923 -23.298 0.071 -135.358
888.471 0.071 -135.665 0.922 -23.445 0.367 65.576 0.077 45.883
          0.922 -23.445 0.071 -135.665 0.077 45.883 0.367 65.576
          0.367 65.576 0.077 45.883 0.071 -135.665 0.922 -23.445
          0.077 45.883 0.367 65.576 0.922 -23.445 0.071 -135.665
894.737 0.072 -135.972 0.921 -23.592 0.369 65.425 0.077 45.608
          0.921 -23.592 0.072 -135.972 0.077 45.608 0.369 65.425
          0.369 65.425 0.077 45.608 0.072 -135.972 0.921 -23.592
          0.077 45.608 0.369 65.425 0.921 -23.592 0.072 -135.972
901.003 0.072 -136.278 0.92 -23.739 0.371 65.274 0.077 45.335
          0.92 -23.739 0.072 -136.278 0.077 45.335 0.371 65.274
          0.371 65.274 0.077 45.335 0.072 -136.278 0.92 -23.739
          0.077 45.335 0.371 65.274 0.92 -23.739 0.072 -136.278
907.268 0.072 -136.583 0.919 -23.885 0.373 65.124 0.078 45.061
          0.919 -23.885 0.072 -136.583 0.078 45.061 0.373 65.124
          0.373 65.124 0.078 45.061 0.072 -136.583 0.919 -23.885
          0.078 45.061 0.373 65.124 0.919 -23.885 0.072 -136.583
913.534 0.073 -136.887 0.918 -24.031 0.375 64.974 0.078 44.789
          0.918 -24.031 0.073 -136.887 0.078 44.789 0.375 64.974
          0.375 64.974 0.078 44.789 0.073 -136.887 0.918 -24.031
          0.078 44.789 0.375 64.974 0.918 -24.031 0.073 -136.887
919.799 0.073 -137.191 0.917 -24.176 0.377 64.824 0.078 44.517
          0.917 -24.176 0.073 -137.191 0.078 44.517 0.377 64.824
          0.377 64.824 0.078 44.517 0.073 -137.191 0.917 -24.176
          0.078 44.517 0.377 64.824 0.917 -24.176 0.073 -137.191
926.065 0.073 -137.494 0.916 -24.322 0.38 64.675 0.079 44.246
          0.916 -24.322 0.073 -137.494 0.079 44.246 0.38 64.675
          0.38 64.675 0.079 44.246 0.073 -137.494 0.916 -24.322
          0.079 44.246 0.38 64.675 0.916 -24.322 0.073 -137.494
932.331 0.074 -137.796 0.915 -24.467 0.382 64.525 0.079 43.976
          0.915 -24.467 0.074 -137.796 0.079 43.976 0.382 64.525
          0.382 64.525 0.079 43.976 0.074 -137.796 0.915 -24.467
          0.079 43.976 0.382 64.525 0.915 -24.467 0.074 -137.796
938.596 0.074 -138.097 0.914 -24.611 0.384 64.377 0.079 43.706
          0.914 -24.611 0.074 -138.097 0.079 43.706 0.384 64.377
          0.384 64.377 0.079 43.706 0.074 -138.097 0.914 -24.611
          0.079 43.706 0.384 64.377 0.914 -24.611 0.074 -138.097
944.862 0.074 -138.398 0.914 -24.755 0.386 64.229 0.08 43.437
          0.914 -24.755 0.074 -138.398 0.08 43.437 0.386 64.229
          0.386 64.229 0.08 43.437 0.074 -138.398 0.914 -24.755
          0.08 43.437 0.386 64.229 0.914 -24.755 0.074 -138.398
951.128 0.075 -138.698 0.913 -24.899 0.388 64.081 0.08 43.168
          0.913 -24.899 0.075 -138.698 0.08 43.168 0.388 64.081
          0.388 64.081 0.08 43.168 0.075 -138.698 0.913 -24.899
          0.08 43.168 0.388 64.081 0.913 -24.899 0.075 -138.698
957.393 0.075 -138.997 0.912 -25.043 0.39 63.933 0.08 42.9
          0.912 -25.043 0.075 -138.997 0.08 42.9 0.39 63.933
          0.39 63.933 0.08 42.9 0.075 -138.997 0.912 -25.043
          0.08 42.9 0.39 63.933 0.912 -25.043 0.075 -138.997
963.659 0.075 -139.296 0.911 -25.186 0.392 63.786 0.081 42.633
          0.911 -25.186 0.075 -139.296 0.081 42.633 0.392 63.786
          0.392 63.786 0.081 42.633 0.075 -139.296 0.911 -25.186
          0.081 42.633 0.392 63.786 0.911 -25.186 0.075 -139.296
969.925 0.076 -139.594 0.91 -25.329 0.394 63.639 0.081 42.367
          0.91 -25.329 0.076 -139.594 0.081 42.367 0.394 63.639
          0.394 63.639 0.081 42.367 0.076 -139.594 0.91 -25.329
          0.081 42.367 0.394 63.639 0.91 -25.329 0.076 -139.594
976.19 0.076 -139.891 0.909 -25.472 0.396 63.493 0.081 42.101
          0.909 -25.472 0.076 -139.891 0.081 42.101 0.396 63.493
          0.396 63.493 0.081 42.101 0.076 -139.891 0.909 -25.472
          0.081 42.101 0.396 63.493 0.909 -25.472 0.076 -139.891
982.456 0.076 -140.187 0.908 -25.614 0.398 63.346 0.082 41.836
          0.908 -25.614 0.076 -140.187 0.082 41.836 0.398 63.346
