!	AVX THIN FILM OPERATION
!	
!	0805 SIZE 3dB 90deg COUPLER P/N DB0805A1950AWTR
!
!	Created March 23 2003
!						
!	Network Analyzer HP8720E S.07.64: Feb23, 2000 Serial No.US39172382		
!	
#	MHZ	S	MA	R	50					


500 5.686e-3 142.399 0.959 -18.398 0.274 71.578 0.025 72.062
          0.959 -18.398 5.686e-3 142.399 0.025 72.062 0.274 71.578
          0.274 71.578 0.025 72.062 5.686e-3 142.399 0.959 -18.398
          0.025 72.062 0.274 71.578 0.959 -18.398 5.686e-3 142.399
506.266 5.865e-3 142.157 0.958 -18.617 0.277 71.36 0.025 71.88
          0.958 -18.617 5.865e-3 142.157 0.025 71.88 0.277 71.36
          0.277 71.36 0.025 71.88 5.865e-3 142.157 0.958 -18.617
          0.025 71.88 0.277 71.36 0.958 -18.617 5.865e-3 142.157
512.531 6.045e-3 141.911 0.957 -18.835 0.28 71.142 0.026 71.699
          0.957 -18.835 6.045e-3 141.911 0.026 71.699 0.28 71.142
          0.28 71.142 0.026 71.699 6.045e-3 141.911 0.957 -18.835
          0.026 71.699 0.28 71.142 0.957 -18.835 6.045e-3 141.911
518.797 6.226e-3 141.66 0.956 -19.052 0.283 70.925 0.026 71.52
          0.956 -19.052 6.226e-3 141.66 0.026 71.52 0.283 70.925
          0.283 70.925 0.026 71.52 6.226e-3 141.66 0.956 -19.052
          0.026 71.52 0.283 70.925 0.956 -19.052 6.226e-3 141.66
525.063 6.41e-3 141.406 0.956 -19.269 0.286 70.708 0.026 71.342
          0.956 -19.269 6.41e-3 141.406 0.026 71.342 0.286 70.708
          0.286 70.708 0.026 71.342 6.41e-3 141.406 0.956 -19.269
          0.026 71.342 0.286 70.708 0.956 -19.269 6.41e-3 141.406
531.328 6.595e-3 141.148 0.955 -19.486 0.289 70.492 0.026 71.165
          0.955 -19.486 6.595e-3 141.148 0.026 71.165 0.289 70.492
          0.289 70.492 0.026 71.165 6.595e-3 141.148 0.955 -19.486
          0.026 71.165 0.289 70.492 0.955 -19.486 6.595e-3 141.148
537.594 6.781e-3 140.887 0.954 -19.702 0.292 70.276 0.027 70.99
          0.954 -19.702 6.781e-3 140.887 0.027 70.99 0.292 70.276
          0.292 70.276 0.027 70.99 6.781e-3 140.887 0.954 -19.702
          0.027 70.99 0.292 70.276 0.954 -19.702 6.781e-3 140.887
543.86 6.969e-3 140.623 0.953 -19.918 0.295 70.06 0.027 70.817
          0.953 -19.918 6.969e-3 140.623 0.027 70.817 0.295 70.06
          0.295 70.06 0.027 70.817 6.969e-3 140.623 0.953 -19.918
          0.027 70.817 0.295 70.06 0.953 -19.918 6.969e-3 140.623
550.125 7.159e-3 140.356 0.952 -20.134 0.298 69.845 0.027 70.644
          0.952 -20.134 7.159e-3 140.356 0.027 70.644 0.298 69.845
          0.298 69.845 0.027 70.644 7.159e-3 140.356 0.952 -20.134
          0.027 70.644 0.298 69.845 0.952 -20.134 7.159e-3 140.356
556.391 7.35e-3 140.086 0.951 -20.349 0.301 69.631 0.027 70.473
          0.951 -20.349 7.35e-3 140.086 0.027 70.473 0.301 69.631
          0.301 69.631 0.027 70.473 7.35e-3 140.086 0.951 -20.349
          0.027 70.473 0.301 69.631 0.951 -20.349 7.35e-3 140.086
562.657 7.542e-3 139.814 0.95 -20.563 0.305 69.417 0.028 70.304
          0.95 -20.563 7.542e-3 139.814 0.028 70.304 0.305 69.417
          0.305 69.417 0.028 70.304 7.542e-3 139.814 0.95 -20.563
          0.028 70.304 0.305 69.417 0.95 -20.563 7.542e-3 139.814
568.922 7.736e-3 139.54 0.949 -20.777 0.308 69.203 0.028 70.136
          0.949 -20.777 7.736e-3 139.54 0.028 70.136 0.308 69.203
          0.308 69.203 0.028 70.136 7.736e-3 139.54 0.949 -20.777
          0.028 70.136 0.308 69.203 0.949 -20.777 7.736e-3 139.54
575.188 7.932e-3 139.263 0.948 -20.991 0.311 68.99 0.028 69.97
          0.948 -20.991 7.932e-3 139.263 0.028 69.97 0.311 68.99
          0.311 68.99 0.028 69.97 7.932e-3 139.263 0.948 -20.991
          0.028 69.97 0.311 68.99 0.948 -20.991 7.932e-3 139.263
581.454 8.128e-3 138.985 0.947 -21.204 0.314 68.777 0.028 69.805
          0.947 -21.204 8.128e-3 138.985 0.028 69.805 0.314 68.777
          0.314 68.777 0.028 69.805 8.128e-3 138.985 0.947 -21.204
          0.028 69.805 0.314 68.777 0.947 -21.204 8.128e-3 138.985
587.719 8.327e-3 138.706 0.946 -21.416 0.317 68.565 0.029 69.641
          0.946 -21.416 8.327e-3 138.706 0.029 69.641 0.317 68.565
          0.317 68.565 0.029 69.641 8.327e-3 138.706 0.946 -21.416
          0.029 69.641 0.317 68.565 0.946 -21.416 8.327e-3 138.706
593.985 8.526e-3 138.424 0.945 -21.629 0.319 68.353 0.029 69.479
          0.945 -21.629 8.526e-3 138.424 0.029 69.479 0.319 68.353
          0.319 68.353 0.029 69.479 8.526e-3 138.424 0.945 -21.629
          0.029 69.479 0.319 68.353 0.945 -21.629 8.526e-3 138.424
600.251 8.727e-3 138.142 0.944 -21.84 0.322 68.142 0.029 69.319
          0.944 -21.84 8.727e-3 138.142 0.029 69.319 0.322 68.142
          0.322 68.142 0.029 69.319 8.727e-3 138.142 0.944 -21.84
          0.029 69.319 0.322 68.142 0.944 -21.84 8.727e-3 138.142
606.516 8.93e-3 137.858 0.943 -22.052 0.325 67.931 0.029 69.16
          0.943 -22.052 8.93e-3 137.858 0.029 69.16 0.325 67.931
          0.325 67.931 0.029 69.16 8.93e-3 137.858 0.943 -22.052
          0.029 69.16 0.325 67.931 0.943 -22.052 8.93e-3 137.858
612.782 9.133e-3 137.572 0.942 -22.263 0.328 67.721 0.029 69.002
          0.942 -22.263 9.133e-3 137.572 0.029 69.002 0.328 67.721
          0.328 67.721 0.029 69.002 9.133e-3 137.572 0.942 -22.263
          0.029 69.002 0.328 67.721 0.942 -22.263 9.133e-3 137.572
619.048 9.338e-3 137.286 0.941 -22.473 0.331 67.511 0.03 68.846
          0.941 -22.473 9.338e-3 137.286 0.03 68.846 0.331 67.511
          0.331 67.511 0.03 68.846 9.338e-3 137.286 0.941 -22.473
          0.03 68.846 0.331 67.511 0.941 -22.473 9.338e-3 137.286
625.313 9.545e-3 136.999 0.94 -22.683 0.334 67.302 0.03 68.692
          0.94 -22.683 9.545e-3 136.999 0.03 68.692 0.334 67.302
          0.334 67.302 0.03 68.692 9.545e-3 136.999 0.94 -22.683
          0.03 68.692 0.334 67.302 0.94 -22.683 9.545e-3 136.999
631.579 9.752e-3 136.711 0.939 -22.892 0.337 67.093 0.03 68.539
          0.939 -22.892 9.752e-3 136.711 0.03 68.539 0.337 67.093
          0.337 67.093 0.03 68.539 9.752e-3 136.711 0.939 -22.892
          0.03 68.539 0.337 67.093 0.939 -22.892 9.752e-3 136.711
637.845 9.961e-3 136.422 0.938 -23.101 0.34 66.884 0.03 68.388
          0.938 -23.101 9.961e-3 136.422 0.03 68.388 0.34 66.884
          0.34 66.884 0.03 68.388 9.961e-3 136.422 0.938 -23.101
          0.03 68.388 0.34 66.884 0.938 -23.101 9.961e-3 136.422
644.11 0.01 136.132 0.936 -23.31 0.343 66.676 0.031 68.238
          0.936 -23.31 0.01 136.132 0.031 68.238 0.343 66.676
          0.343 66.676 0.031 68.238 0.01 136.132 0.936 -23.31
          0.031 68.238 0.343 66.676 0.936 -23.31 0.01 136.132
650.376 0.01 135.842 0.935 -23.518 0.346 66.469 0.031 68.09
          0.935 -23.518 0.01 135.842 0.031 68.09 0.346 66.469
          0.346 66.469 0.031 68.09 0.01 135.842 0.935 -23.518
          0.031 68.09 0.346 66.469 0.935 -23.518 0.01 135.842
656.642 0.011 135.552 0.934 -23.725 0.349 66.262 0.031 67.944
          0.934 -23.725 0.011 135.552 0.031 67.944 0.349 66.262
          0.349 66.262 0.031 67.944 0.011 135.552 0.934 -23.725
          0.031 67.944 0.349 66.262 0.934 -23.725 0.011 135.552
662.907 0.011 135.26 0.933 -23.932 0.351 66.055 0.031 67.799
          0.933 -23.932 0.011 135.26 0.031 67.799 0.351 66.055
          0.351 66.055 0.031 67.799 0.011 135.26 0.933 -23.932
          0.031 67.799 0.351 66.055 0.933 -23.932 0.011 135.26
669.173 0.011 134.969 0.932 -24.139 0.354 65.849 0.032 67.655
          0.932 -24.139 0.011 134.969 0.032 67.655 0.354 65.849
          0.354 65.849 0.032 67.655 0.011 134.969 0.932 -24.139
          0.032 67.655 0.354 65.849 0.932 -24.139 0.011 134.969
675.439 0.011 134.677 0.931 -24.345 0.357 65.644 0.032 67.514
          0.931 -24.345 0.011 134.677 0.032 67.514 0.357 65.644
          0.357 65.644 0.032 67.514 0.011 134.677 0.931 -24.345
          0.032 67.514 0.357 65.644 0.931 -24.345 0.011 134.677
681.704 0.011 134.385 0.93 -24.551 0.36 65.439 0.032 67.374
          0.93 -24.551 0.011 134.385 0.032 67.374 0.36 65.439
          0.36 65.439 0.032 67.374 0.011 134.385 0.93 -24.551
          0.032 67.374 0.36 65.439 0.93 -24.551 0.011 134.385
687.97 0.012 134.092 0.929 -24.756 0.363 65.234 0.032 67.235
          0.929 -24.756 0.012 134.092 0.032 67.235 0.363 65.234
          0.363 65.234 0.032 67.235 0.012 134.092 0.929 -24.756
          0.032 67.235 0.363 65.234 0.929 -24.756 0.012 134.092
694.236 0.012 133.8 0.928 -24.96 0.365 65.03 0.032 67.098
          0.928 -24.96 0.012 133.8 0.032 67.098 0.365 65.03
          0.365 65.03 0.032 67.098 0.012 133.8 0.928 -24.96
          0.032 67.098 0.365 65.03 0.928 -24.96 0.012 133.8
700.501 0.012 133.507 0.927 -25.165 0.368 64.827 0.033 66.963
          0.927 -25.165 0.012 133.507 0.033 66.963 0.368 64.827
          0.368 64.827 0.033 66.963 0.012 133.507 0.927 -25.165
          0.033 66.963 0.368 64.827 0.927 -25.165 0.012 133.507
706.767 0.012 133.214 0.926 -25.368 0.371 64.624 0.033 66.83
          0.926 -25.368 0.012 133.214 0.033 66.83 0.371 64.624
          0.371 64.624 0.033 66.83 0.012 133.214 0.926 -25.368
          0.033 66.83 0.371 64.624 0.926 -25.368 0.012 133.214
713.033 0.013 132.921 0.924 -25.571 0.374 64.421 0.033 66.698
          0.924 -25.571 0.013 132.921 0.033 66.698 0.374 64.421
          0.374 64.421 0.033 66.698 0.013 132.921 0.924 -25.571
          0.033 66.698 0.374 64.421 0.924 -25.571 0.013 132.921
719.298 0.013 132.628 0.923 -25.774 0.377 64.219 0.033 66.568
          0.923 -25.774 0.013 132.628 0.033 66.568 0.377 64.219
          0.377 64.219 0.033 66.568 0.013 132.628 0.923 -25.774
          0.033 66.568 0.377 64.219 0.923 -25.774 0.013 132.628
725.564 0.013 132.336 0.922 -25.976 0.379 64.018 0.033 66.439
          0.922 -25.976 0.013 132.336 0.033 66.439 0.379 64.018
          0.379 64.018 0.033 66.439 0.013 132.336 0.922 -25.976
          0.033 66.439 0.379 64.018 0.922 -25.976 0.013 132.336
731.83 0.013 132.043 0.921 -26.178 0.382 63.817 0.034 66.312
          0.921 -26.178 0.013 132.043 0.034 66.312 0.382 63.817
          0.382 63.817 0.034 66.312 0.013 132.043 0.921 -26.178
          0.034 66.312 0.382 63.817 0.921 -26.178 0.013 132.043
738.095 0.013 131.75 0.92 -26.379 0.385 63.616 0.034 66.187
          0.92 -26.379 0.013 131.75 0.034 66.187 0.385 63.616
          0.385 63.616 0.034 66.187 0.013 131.75 0.92 -26.379
          0.034 66.187 0.385 63.616 0.92 -26.379 0.013 131.75
744.361 0.014 131.458 0.919 -26.58 0.387 63.417 0.034 66.063
          0.919 -26.58 0.014 131.458 0.034 66.063 0.387 63.417
          0.387 63.417 0.034 66.063 0.014 131.458 0.919 -26.58
          0.034 66.063 0.387 63.417 0.919 -26.58 0.014 131.458
750.627 0.014 131.166 0.918 -26.78 0.39 63.217 0.034 65.942
          0.918 -26.78 0.014 131.166 0.034 65.942 0.39 63.217
          0.39 63.217 0.034 65.942 0.014 131.166 0.918 -26.78
          0.034 65.942 0.39 63.217 0.918 -26.78 0.014 131.166
756.892 0.014 130.874 0.916 -26.98 0.393 63.018 0.034 65.821
          0.916 -26.98 0.014 130.874 0.034 65.821 0.393 63.018
          0.393 63.018 0.034 65.821 0.014 130.874 0.916 -26.98
          0.034 65.821 0.393 63.018 0.916 -26.98 0.014 130.874
763.158 0.014 130.582 0.915 -27.179 0.395 62.82 0.035 65.703
          0.915 -27.179 0.014 130.582 0.035 65.703 0.395 62.82
          0.395 62.82 0.035 65.703 0.014 130.582 0.915 -27.179
          0.035 65.703 0.395 62.82 0.915 -27.179 0.014 130.582
769.424 0.015 130.291 0.914 -27.377 0.398 62.622 0.035 65.586
          0.914 -27.377 0.015 130.291 0.035 65.586 0.398 62.622
          0.398 62.622 0.035 65.586 0.015 130.291 0.914 -27.377
          0.035 65.586 0.398 62.622 0.914 -27.377 0.015 130.291
775.689 0.015 130 0.913 -27.576 0.401 62.424 0.035 65.471
          0.913 -27.576 0.015 130 0.035 65.471 0.401 62.424
          0.401 62.424 0.035 65.471 0.015 130 0.913 -27.576
          0.035 65.471 0.401 62.424 0.913 -27.576 0.015 130
781.955 0.015 129.709 0.912 -27.773 0.403 62.228 0.035 65.358
          0.912 -27.773 0.015 129.709 0.035 65.358 0.403 62.228
          0.403 62.228 0.035 65.358 0.015 129.709 0.912 -27.773
          0.035 65.358 0.403 62.228 0.912 -27.773 0.015 129.709
788.221 0.015 129.418 0.911 -27.97 0.406 62.031 0.035 65.246
          0.911 -27.97 0.015 129.418 0.035 65.246 0.406 62.031
          0.406 62.031 0.035 65.246 0.015 129.418 0.911 -27.97
          0.035 65.246 0.406 62.031 0.911 -27.97 0.015 129.418
794.486 0.016 129.128 0.909 -28.167 0.408 61.835 0.036 65.136
          0.909 -28.167 0.016 129.128 0.036 65.136 0.408 61.835
          0.408 61.835 0.036 65.136 0.016 129.128 0.909 -28.167
          0.036 65.136 0.408 61.835 0.909 -28.167 0.016 129.128
800.752 0.016 128.839 0.908 -28.363 0.411 61.64 0.036 65.028
          0.908 -28.363 0.016 128.839 0.036 65.028 0.411 61.64
          0.411 61.64 0.036 65.028 0.016 128.839 0.908 -28.363
          0.036 65.028 0.411 61.64 0.908 -28.363 0.016 128.839
807.018 0.016 128.549 0.907 -28.559 0.414 61.445 0.036 64.922
          0.907 -28.559 0.016 128.549 0.036 64.922 0.414 61.445
          0.414 61.445 0.036 64.922 0.016 128.549 0.907 -28.559
          0.036 64.922 0.414 61.445 0.907 -28.559 0.016 128.549
813.283 0.016 128.261 0.906 -28.754 0.416 61.251 0.036 64.817
          0.906 -28.754 0.016 128.261 0.036 64.817 0.416 61.251
          0.416 61.251 0.036 64.817 0.016 128.261 0.906 -28.754
          0.036 64.817 0.416 61.251 0.906 -28.754 0.016 128.261
819.549 0.016 127.973 0.905 -28.948 0.419 61.057 0.036 64.714
          0.905 -28.948 0.016 127.973 0.036 64.714 0.419 61.057
          0.419 61.057 0.036 64.714 0.016 127.973 0.905 -28.948
          0.036 64.714 0.419 61.057 0.905 -28.948 0.016 127.973
825.815 0.017 127.685 0.904 -29.142 0.421 60.864 0.036 64.612
          0.904 -29.142 0.017 127.685 0.036 64.612 0.421 60.864
          0.421 60.864 0.036 64.612 0.017 127.685 0.904 -29.142
          0.036 64.612 0.421 60.864 0.904 -29.142 0.017 127.685
832.08 0.017 127.398 0.902 -29.336 0.424 60.671 0.037 64.513
          0.902 -29.336 0.017 127.398 0.037 64.513 0.424 60.671
          0.424 60.671 0.037 64.513 0.017 127.398 0.902 -29.336
          0.037 64.513 0.424 60.671 0.902 -29.336 0.017 127.398
838.346 0.017 127.111 0.901 -29.529 0.426 60.479 0.037 64.415
          0.901 -29.529 0.017 127.111 0.037 64.415 0.426 60.479
          0.426 60.479 0.037 64.415 0.017 127.111 0.901 -29.529
          0.037 64.415 0.426 60.479 0.901 -29.529 0.017 127.111
844.612 0.017 126.825 0.9 -29.722 0.429 60.288 0.037 64.319
          0.9 -29.722 0.017 126.825 0.037 64.319 0.429 60.288
          0.429 60.288 0.037 64.319 0.017 126.825 0.9 -29.722
          0.037 64.319 0.429 60.288 0.9 -29.722 0.017 126.825
850.877 0.018 126.539 0.899 -29.914 0.431 60.097 0.037 64.224
          0.899 -29.914 0.018 126.539 0.037 64.224 0.431 60.097
          0.431 60.097 0.037 64.224 0.018 126.539 0.899 -29.914
          0.037 64.224 0.431 60.097 0.899 -29.914 0.018 126.539
857.143 0.018 126.254 0.898 -30.105 0.434 59.906 0.037 64.132
          0.898 -30.105 0.018 126.254 0.037 64.132 0.434 59.906
          0.434 59.906 0.037 64.132 0.018 126.254 0.898 -30.105
          0.037 64.132 0.434 59.906 0.898 -30.105 0.018 126.254
863.409 0.018 125.97 0.896 -30.296 0.436 59.716 0.037 64.041
          0.896 -30.296 0.018 125.97 0.037 64.041 0.436 59.716
          0.436 59.716 0.037 64.041 0.018 125.97 0.896 -30.296
          0.037 64.041 0.436 59.716 0.896 -30.296 0.018 125.97
869.674 0.018 125.686 0.895 -30.487 0.439 59.526 0.038 63.952
          0.895 -30.487 0.018 125.686 0.038 63.952 0.439 59.526
          0.439 59.526 0.038 63.952 0.018 125.686 0.895 -30.487
          0.038 63.952 0.439 59.526 0.895 -30.487 0.018 125.686
875.94 0.019 125.403 0.894 -30.677 0.441 59.337 0.038 63.864
          0.894 -30.677 0.019 125.403 0.038 63.864 0.441 59.337
          0.441 59.337 0.038 63.864 0.019 125.403 0.894 -30.677
          0.038 63.864 0.441 59.337 0.894 -30.677 0.019 125.403
882.206 0.019 125.12 0.893 -30.866 0.443 59.149 0.038 63.779
          0.893 -30.866 0.019 125.12 0.038 63.779 0.443 59.149
          0.443 59.149 0.038 63.779 0.019 125.12 0.893 -30.866
          0.038 63.779 0.443 59.149 0.893 -30.866 0.019 125.12
888.471 0.019 124.838 0.892 -31.055 0.446 58.961 0.038 63.695
          0.892 -31.055 0.019 124.838 0.038 63.695 0.446 58.961
          0.446 58.961 0.038 63.695 0.019 124.838 0.892 -31.055
          0.038 63.695 0.446 58.961 0.892 -31.055 0.019 124.838
894.737 0.019 124.557 0.89 -31.243 0.448 58.773 0.038 63.612
          0.89 -31.243 0.019 124.557 0.038 63.612 0.448 58.773
          0.448 58.773 0.038 63.612 0.019 124.557 0.89 -31.243
          0.038 63.612 0.448 58.773 0.89 -31.243 0.019 124.557
901.003 0.02 124.276 0.889 -31.431 0.451 58.587 0.038 63.532
          0.889 -31.431 0.02 124.276 0.038 63.532 0.451 58.587
          0.451 58.587 0.038 63.532 0.02 124.276 0.889 -31.431
          0.038 63.532 0.451 58.587 0.889 -31.431 0.02 124.276
907.268 0.02 123.997 0.888 -31.619 0.453 58.4 0.039 63.453
          0.888 -31.619 0.02 123.997 0.039 63.453 0.453 58.4
          0.453 58.4 0.039 63.453 0.02 123.997 0.888 -31.619
          0.039 63.453 0.453 58.4 0.888 -31.619 0.02 123.997
913.534 0.02 123.717 0.887 -31.806 0.455 58.214 0.039 63.376
          0.887 -31.806 0.02 123.717 0.039 63.376 0.455 58.214
          0.455 58.214 0.039 63.376 0.02 123.717 0.887 -31.806
          0.039 63.376 0.455 58.214 0.887 -31.806 0.02 123.717
919.799 0.02 123.439 0.885 -31.992 0.458 58.029 0.039 63.301
          0.885 -31.992 0.02 123.439 0.039 63.301 0.458 58.029
          0.458 58.029 0.039 63.301 0.02 123.439 0.885 -31.992
          0.039 63.301 0.458 58.029 0.885 -31.992 0.02 123.439
926.065 0.021 123.161 0.884 -32.178 0.46 57.844 0.039 63.227
          0.884 -32.178 0.021 123.161 0.039 63.227 0.46 57.844
          0.46 57.844 0.039 63.227 0.021 123.161 0.884 -32.178
          0.039 63.227 0.46 57.844 0.884 -32.178 0.021 123.161
932.331 0.021 122.884 0.883 -32.363 0.462 57.66 0.039 63.156
          0.883 -32.363 0.021 122.884 0.039 63.156 0.462 57.66
          0.462 57.66 0.039 63.156 0.021 122.884 0.883 -32.363
          0.039 63.156 0.462 57.66 0.883 -32.363 0.021 122.884
938.596 0.021 122.608 0.882 -32.548 0.465 57.476 0.039 63.086
          0.882 -32.548 0.021 122.608 0.039 63.086 0.465 57.476
          0.465 57.476 0.039 63.086 0.021 122.608 0.882 -32.548
          0.039 63.086 0.465 57.476 0.882 -32.548 0.021 122.608
944.862 0.021 122.332 0.88 -32.732 0.467 57.293 0.04 63.017
          0.88 -32.732 0.021 122.332 0.04 63.017 0.467 57.293
          0.467 57.293 0.04 63.017 0.021 122.332 0.88 -32.732
          0.04 63.017 0.467 57.293 0.88 -32.732 0.021 122.332
951.128 0.022 122.057 0.879 -32.916 0.469 57.11 0.04 62.951
          0.879 -32.916 0.022 122.057 0.04 62.951 0.469 57.11
          0.469 57.11 0.04 62.951 0.022 122.057 0.879 -32.916
          0.04 62.951 0.469 57.11 0.879 -32.916 0.022 122.057
957.393 0.022 121.783 0.878 -33.1 0.472 56.928 0.04 62.886
          0.878 -33.1 0.022 121.783 0.04 62.886 0.472 56.928
          0.472 56.928 0.04 62.886 0.022 121.783 0.878 -33.1
          0.04 62.886 0.472 56.928 0.878 -33.1 0.022 121.783
963.659 0.022 121.51 0.877 -33.282 0.474 56.746 0.04 62.823
          0.877 -33.282 0.022 121.51 0.04 62.823 0.474 56.746
          0.474 56.746 0.04 62.823 0.022 121.51 0.877 -33.282
          0.04 62.823 0.474 56.746 0.877 -33.282 0.022 121.51
969.925 0.022 121.237 0.876 -33.465 0.476 56.565 0.04 62.761
          0.876 -33.465 0.022 121.237 0.04 62.761 0.476 56.565
          0.476 56.565 0.04 62.761 0.022 121.237 0.876 -33.465
          0.04 62.761 0.476 56.565 0.876 -33.465 0.022 121.237
976.19 0.023 120.966 0.874 -33.646 0.478 56.385 0.04 62.702
          0.874 -33.646 0.023 120.966 0.04 62.702 0.478 56.385
          0.478 56.385 0.04 62.702 0.023 120.966 0.874 -33.646
          0.04 62.702 0.478 56.385 0.874 -33.646 0.023 120.966
982.456 0.023 120.695 0.873 -33.828 0.481 56.205 0.041 62.644
          0.873 -33.828 0.023 120.695 0.041 62.644 0.481 56.205
          0.481 56.205 0.041 62.644 0.023 120.695 0.873 -33.828
