!	AVX THIN FILM OPERATION
!	
!	0805 SIZE 3dB 90deg COUPLER P/N DB0805A2600ASTR
!
!	Created September 2010
!	Network	Analyzer	HP8720E	S.07.64:	"Feb23,2000"	Serial	No.US39172382
!
# MHZ S MA  R 50 
2200 0.075 -138.685 0.746 -45.605 0.63 44.061 0.076 -31.797 
	0.746 -45.605 0.075 -138.685 0.076 -31.797 0.63 44.061 
	0.63 44.061 0.076 -31.797 0.075 -138.685 0.746 -45.605 
	0.076 -31.797 0.63 44.061 0.746 -45.605 0.075 -138.685 
2201.603 0.075 -138.691 0.746 -45.63 0.63 44.038 0.076 -31.864 
	0.746 -45.63 0.075 -138.691 0.076 -31.864 0.63 44.038 
	0.63 44.038 0.076 -31.864 0.075 -138.691 0.746 -45.63 
	0.076 -31.864 0.63 44.038 0.746 -45.63 0.075 -138.691 
2203.206 0.075 -138.698 0.746 -45.654 0.63 44.014 0.076 -31.93 
	0.746 -45.654 0.075 -138.698 0.076 -31.93 0.63 44.014 
	0.63 44.014 0.076 -31.93 0.075 -138.698 0.746 -45.654 
	0.076 -31.93 0.63 44.014 0.746 -45.654 0.075 -138.698 
2204.81 0.075 -138.704 0.746 -45.679 0.63 43.99 0.076 -31.996 
	0.746 -45.679 0.075 -138.704 0.076 -31.996 0.63 43.99 
	0.63 43.99 0.076 -31.996 0.075 -138.704 0.746 -45.679 
	0.076 -31.996 0.63 43.99 0.746 -45.679 0.075 -138.704 
2206.413 0.075 -138.71 0.746 -45.703 0.631 43.967 0.076 -32.062 
	0.746 -45.703 0.075 -138.71 0.076 -32.062 0.631 43.967 
	0.631 43.967 0.076 -32.062 0.075 -138.71 0.746 -45.703 
	0.076 -32.062 0.631 43.967 0.746 -45.703 0.075 -138.71 
2208.016 0.075 -138.717 0.745 -45.727 0.631 43.943 0.076 -32.128 
	0.745 -45.727 0.075 -138.717 0.076 -32.128 0.631 43.943 
	0.631 43.943 0.076 -32.128 0.075 -138.717 0.745 -45.727 
	0.076 -32.128 0.631 43.943 0.745 -45.727 0.075 -138.717 
2209.619 0.075 -138.723 0.745 -45.752 0.631 43.92 0.076 -32.193 
	0.745 -45.752 0.075 -138.723 0.076 -32.193 0.631 43.92 
	0.631 43.92 0.076 -32.193 0.075 -138.723 0.745 -45.752 
	0.076 -32.193 0.631 43.92 0.745 -45.752 0.075 -138.723 
2211.222 0.075 -138.729 0.745 -45.776 0.631 43.896 0.076 -32.259 
	0.745 -45.776 0.075 -138.729 0.076 -32.259 0.631 43.896 
	0.631 43.896 0.076 -32.259 0.075 -138.729 0.745 -45.776 
	0.076 -32.259 0.631 43.896 0.745 -45.776 0.075 -138.729 
2212.826 0.075 -138.735 0.745 -45.8 0.632 43.873 0.076 -32.325 
	0.745 -45.8 0.075 -138.735 0.076 -32.325 0.632 43.873 
	0.632 43.873 0.076 -32.325 0.075 -138.735 0.745 -45.8 
	0.076 -32.325 0.632 43.873 0.745 -45.8 0.075 -138.735 
2214.429 0.075 -138.741 0.744 -45.825 0.632 43.849 0.076 -32.391 
	0.744 -45.825 0.075 -138.741 0.076 -32.391 0.632 43.849 
	0.632 43.849 0.076 -32.391 0.075 -138.741 0.744 -45.825 
	0.076 -32.391 0.632 43.849 0.744 -45.825 0.075 -138.741 
2216.032 0.075 -138.747 0.744 -45.849 0.632 43.826 0.076 -32.457 
	0.744 -45.849 0.075 -138.747 0.076 -32.457 0.632 43.826 
	0.632 43.826 0.076 -32.457 0.075 -138.747 0.744 -45.849 
	0.076 -32.457 0.632 43.826 0.744 -45.849 0.075 -138.747 
2217.635 0.075 -138.752 0.744 -45.873 0.633 43.802 0.076 -32.523 
	0.744 -45.873 0.075 -138.752 0.076 -32.523 0.633 43.802 
	0.633 43.802 0.076 -32.523 0.075 -138.752 0.744 -45.873 
	0.076 -32.523 0.633 43.802 0.744 -45.873 0.075 -138.752 
2219.238 0.075 -138.758 0.744 -45.898 0.633 43.779 0.076 -32.588 
	0.744 -45.898 0.075 -138.758 0.076 -32.588 0.633 43.779 
	0.633 43.779 0.076 -32.588 0.075 -138.758 0.744 -45.898 
	0.076 -32.588 0.633 43.779 0.744 -45.898 0.075 -138.758 
2220.842 0.075 -138.763 0.744 -45.922 0.633 43.755 0.076 -32.654 
	0.744 -45.922 0.075 -138.763 0.076 -32.654 0.633 43.755 
	0.633 43.755 0.076 -32.654 0.075 -138.763 0.744 -45.922 
	0.076 -32.654 0.633 43.755 0.744 -45.922 0.075 -138.763 
2222.445 0.075 -138.769 0.743 -45.946 0.633 43.732 0.076 -32.72 
	0.743 -45.946 0.075 -138.769 0.076 -32.72 0.633 43.732 
	0.633 43.732 0.076 -32.72 0.075 -138.769 0.743 -45.946 
	0.076 -32.72 0.633 43.732 0.743 -45.946 0.075 -138.769 
2224.048 0.075 -138.774 0.743 -45.97 0.634 43.708 0.076 -32.785 
	0.743 -45.97 0.075 -138.774 0.076 -32.785 0.634 43.708 
	0.634 43.708 0.076 -32.785 0.075 -138.774 0.743 -45.97 
	0.076 -32.785 0.634 43.708 0.743 -45.97 0.075 -138.774 
2225.651 0.075 -138.78 0.743 -45.995 0.634 43.685 0.076 -32.851 
	0.743 -45.995 0.075 -138.78 0.076 -32.851 0.634 43.685 
	0.634 43.685 0.076 -32.851 0.075 -138.78 0.743 -45.995 
	0.076 -32.851 0.634 43.685 0.743 -45.995 0.075 -138.78 
2227.255 0.075 -138.785 0.743 -46.019 0.634 43.661 0.076 -32.916 
	0.743 -46.019 0.075 -138.785 0.076 -32.916 0.634 43.661 
	0.634 43.661 0.076 -32.916 0.075 -138.785 0.743 -46.019 
	0.076 -32.916 0.634 43.661 0.743 -46.019 0.075 -138.785 
2228.858 0.075 -138.79 0.742 -46.043 0.634 43.638 0.076 -32.982 
	0.742 -46.043 0.075 -138.79 0.076 -32.982 0.634 43.638 
	0.634 43.638 0.076 -32.982 0.075 -138.79 0.742 -46.043 
	0.076 -32.982 0.634 43.638 0.742 -46.043 0.075 -138.79 
2230.461 0.075 -138.795 0.742 -46.067 0.635 43.614 0.076 -33.047 
	0.742 -46.067 0.075 -138.795 0.076 -33.047 0.635 43.614 
	0.635 43.614 0.076 -33.047 0.075 -138.795 0.742 -46.067 
	0.076 -33.047 0.635 43.614 0.742 -46.067 0.075 -138.795 
2232.064 0.075 -138.8 0.742 -46.092 0.635 43.591 0.076 -33.113 
	0.742 -46.092 0.075 -138.8 0.076 -33.113 0.635 43.591 
	0.635 43.591 0.076 -33.113 0.075 -138.8 0.742 -46.092 
	0.076 -33.113 0.635 43.591 0.742 -46.092 0.075 -138.8 
2233.667 0.075 -138.805 0.742 -46.116 0.635 43.568 0.076 -33.178 
	0.742 -46.116 0.075 -138.805 0.076 -33.178 0.635 43.568 
	0.635 43.568 0.076 -33.178 0.075 -138.805 0.742 -46.116 
	0.076 -33.178 0.635 43.568 0.742 -46.116 0.075 -138.805 
2235.271 0.075 -138.81 0.742 -46.14 0.635 43.544 0.076 -33.244 
	0.742 -46.14 0.075 -138.81 0.076 -33.244 0.635 43.544 
	0.635 43.544 0.076 -33.244 0.075 -138.81 0.742 -46.14 
	0.076 -33.244 0.635 43.544 0.742 -46.14 0.075 -138.81 
2236.874 0.075 -138.814 0.741 -46.164 0.636 43.521 0.076 -33.309 
	0.741 -46.164 0.075 -138.814 0.076 -33.309 0.636 43.521 
	0.636 43.521 0.076 -33.309 0.075 -138.814 0.741 -46.164 
	0.076 -33.309 0.636 43.521 0.741 -46.164 0.075 -138.814 
2238.477 0.075 -138.819 0.741 -46.188 0.636 43.497 0.076 -33.375 
	0.741 -46.188 0.075 -138.819 0.076 -33.375 0.636 43.497 
	0.636 43.497 0.076 -33.375 0.075 -138.819 0.741 -46.188 
	0.076 -33.375 0.636 43.497 0.741 -46.188 0.075 -138.819 
2240.08 0.075 -138.823 0.741 -46.212 0.636 43.474 0.076 -33.44 
	0.741 -46.212 0.075 -138.823 0.076 -33.44 0.636 43.474 
	0.636 43.474 0.076 -33.44 0.075 -138.823 0.741 -46.212 
	0.076 -33.44 0.636 43.474 0.741 -46.212 0.075 -138.823 
2241.683 0.075 -138.828 0.741 -46.237 0.636 43.451 0.076 -33.505 
	0.741 -46.237 0.075 -138.828 0.076 -33.505 0.636 43.451 
	0.636 43.451 0.076 -33.505 0.075 -138.828 0.741 -46.237 
	0.076 -33.505 0.636 43.451 0.741 -46.237 0.075 -138.828 
2243.287 0.074 -138.832 0.741 -46.261 0.637 43.427 0.076 -33.57 
	0.741 -46.261 0.074 -138.832 0.076 -33.57 0.637 43.427 
	0.637 43.427 0.076 -33.57 0.074 -138.832 0.741 -46.261 
	0.076 -33.57 0.637 43.427 0.741 -46.261 0.074 -138.832 
2244.89 0.074 -138.836 0.74 -46.285 0.637 43.404 0.076 -33.636 
	0.74 -46.285 0.074 -138.836 0.076 -33.636 0.637 43.404 
	0.637 43.404 0.076 -33.636 0.074 -138.836 0.74 -46.285 
	0.076 -33.636 0.637 43.404 0.74 -46.285 0.074 -138.836 
2246.493 0.074 -138.841 0.74 -46.309 0.637 43.381 0.076 -33.701 
	0.74 -46.309 0.074 -138.841 0.076 -33.701 0.637 43.381 
	0.637 43.381 0.076 -33.701 0.074 -138.841 0.74 -46.309 
	0.076 -33.701 0.637 43.381 0.74 -46.309 0.074 -138.841 
2248.096 0.074 -138.845 0.74 -46.333 0.637 43.358 0.076 -33.766 
	0.74 -46.333 0.074 -138.845 0.076 -33.766 0.637 43.358 
	0.637 43.358 0.076 -33.766 0.074 -138.845 0.74 -46.333 
	0.076 -33.766 0.637 43.358 0.74 -46.333 0.074 -138.845 
2249.699 0.074 -138.849 0.74 -46.357 0.638 43.334 0.076 -33.831 
	0.74 -46.357 0.074 -138.849 0.076 -33.831 0.638 43.334 
	0.638 43.334 0.076 -33.831 0.074 -138.849 0.74 -46.357 
	0.076 -33.831 0.638 43.334 0.74 -46.357 0.074 -138.849 
2251.303 0.074 -138.853 0.739 -46.381 0.638 43.311 0.076 -33.896 
	0.739 -46.381 0.074 -138.853 0.076 -33.896 0.638 43.311 
	0.638 43.311 0.076 -33.896 0.074 -138.853 0.739 -46.381 
	0.076 -33.896 0.638 43.311 0.739 -46.381 0.074 -138.853 
2252.906 0.074 -138.857 0.739 -46.405 0.638 43.288 0.076 -33.961 
	0.739 -46.405 0.074 -138.857 0.076 -33.961 0.638 43.288 
	0.638 43.288 0.076 -33.961 0.074 -138.857 0.739 -46.405 
	0.076 -33.961 0.638 43.288 0.739 -46.405 0.074 -138.857 
2254.509 0.074 -138.86 0.739 -46.429 0.638 43.265 0.076 -34.026 
	0.739 -46.429 0.074 -138.86 0.076 -34.026 0.638 43.265 
	0.638 43.265 0.076 -34.026 0.074 -138.86 0.739 -46.429 
	0.076 -34.026 0.638 43.265 0.739 -46.429 0.074 -138.86 
2256.112 0.074 -138.864 0.739 -46.453 0.639 43.241 0.076 -34.091 
	0.739 -46.453 0.074 -138.864 0.076 -34.091 0.639 43.241 
	0.639 43.241 0.076 -34.091 0.074 -138.864 0.739 -46.453 
	0.076 -34.091 0.639 43.241 0.739 -46.453 0.074 -138.864 
2257.715 0.074 -138.868 0.739 -46.477 0.639 43.218 0.076 -34.156 
	0.739 -46.477 0.074 -138.868 0.076 -34.156 0.639 43.218 
	0.639 43.218 0.076 -34.156 0.074 -138.868 0.739 -46.477 
	0.076 -34.156 0.639 43.218 0.739 -46.477 0.074 -138.868 
2259.319 0.074 -138.871 0.738 -46.501 0.639 43.195 0.076 -34.221 
	0.738 -46.501 0.074 -138.871 0.076 -34.221 0.639 43.195 
	0.639 43.195 0.076 -34.221 0.074 -138.871 0.738 -46.501 
	0.076 -34.221 0.639 43.195 0.738 -46.501 0.074 -138.871 
2260.922 0.074 -138.875 0.738 -46.525 0.639 43.172 0.076 -34.286 
	0.738 -46.525 0.074 -138.875 0.076 -34.286 0.639 43.172 
	0.639 43.172 0.076 -34.286 0.074 -138.875 0.738 -46.525 
	0.076 -34.286 0.639 43.172 0.738 -46.525 0.074 -138.875 
2262.525 0.074 -138.878 0.738 -46.549 0.64 43.149 0.076 -34.351 
	0.738 -46.549 0.074 -138.878 0.076 -34.351 0.64 43.149 
	0.64 43.149 0.076 -34.351 0.074 -138.878 0.738 -46.549 
	0.076 -34.351 0.64 43.149 0.738 -46.549 0.074 -138.878 
2264.128 0.074 -138.881 0.738 -46.573 0.64 43.125 0.077 -34.416 
	0.738 -46.573 0.074 -138.881 0.077 -34.416 0.64 43.125 
	0.64 43.125 0.077 -34.416 0.074 -138.881 0.738 -46.573 
	0.077 -34.416 0.64 43.125 0.738 -46.573 0.074 -138.881 
2265.731 0.074 -138.884 0.737 -46.597 0.64 43.102 0.077 -34.481 
	0.737 -46.597 0.074 -138.884 0.077 -34.481 0.64 43.102 
	0.64 43.102 0.077 -34.481 0.074 -138.884 0.737 -46.597 
	0.077 -34.481 0.64 43.102 0.737 -46.597 0.074 -138.884 
2267.335 0.074 -138.888 0.737 -46.621 0.64 43.079 0.077 -34.545 
	0.737 -46.621 0.074 -138.888 0.077 -34.545 0.64 43.079 
	0.64 43.079 0.077 -34.545 0.074 -138.888 0.737 -46.621 
	0.077 -34.545 0.64 43.079 0.737 -46.621 0.074 -138.888 
2268.938 0.074 -138.891 0.737 -46.645 0.641 43.056 0.077 -34.61 
	0.737 -46.645 0.074 -138.891 0.077 -34.61 0.641 43.056 
	0.641 43.056 0.077 -34.61 0.074 -138.891 0.737 -46.645 
	0.077 -34.61 0.641 43.056 0.737 -46.645 0.074 -138.891 
2270.541 0.074 -138.893 0.737 -46.669 0.641 43.033 0.077 -34.675 
	0.737 -46.669 0.074 -138.893 0.077 -34.675 0.641 43.033 
	0.641 43.033 0.077 -34.675 0.074 -138.893 0.737 -46.669 
	0.077 -34.675 0.641 43.033 0.737 -46.669 0.074 -138.893 
2272.144 0.074 -138.896 0.737 -46.693 0.641 43.01 0.077 -34.74 
	0.737 -46.693 0.074 -138.896 0.077 -34.74 0.641 43.01 
	0.641 43.01 0.077 -34.74 0.074 -138.896 0.737 -46.693 
	0.077 -34.74 0.641 43.01 0.737 -46.693 0.074 -138.896 
2273.747 0.074 -138.899 0.736 -46.717 0.641 42.987 0.077 -34.804 
	0.736 -46.717 0.074 -138.899 0.077 -34.804 0.641 42.987 
	0.641 42.987 0.077 -34.804 0.074 -138.899 0.736 -46.717 
	0.077 -34.804 0.641 42.987 0.736 -46.717 0.074 -138.899 
2275.351 0.074 -138.902 0.736 -46.741 0.642 42.964 0.077 -34.869 
	0.736 -46.741 0.074 -138.902 0.077 -34.869 0.642 42.964 
	0.642 42.964 0.077 -34.869 0.074 -138.902 0.736 -46.741 
	0.077 -34.869 0.642 42.964 0.736 -46.741 0.074 -138.902 
2276.954 0.074 -138.904 0.736 -46.765 0.642 42.94 0.077 -34.933 
	0.736 -46.765 0.074 -138.904 0.077 -34.933 0.642 42.94 
	0.642 42.94 0.077 -34.933 0.074 -138.904 0.736 -46.765 
	0.077 -34.933 0.642 42.94 0.736 -46.765 0.074 -138.904 
2278.557 0.074 -138.907 0.736 -46.789 0.642 42.917 0.077 -34.998 
	0.736 -46.789 0.074 -138.907 0.077 -34.998 0.642 42.917 
	0.642 42.917 0.077 -34.998 0.074 -138.907 0.736 -46.789 
	0.077 -34.998 0.642 42.917 0.736 -46.789 0.074 -138.907 
2280.16 0.074 -138.909 0.735 -46.813 0.643 42.894 0.077 -35.063 
	0.735 -46.813 0.074 -138.909 0.077 -35.063 0.643 42.894 
	0.643 42.894 0.077 -35.063 0.074 -138.909 0.735 -46.813 
	0.077 -35.063 0.643 42.894 0.735 -46.813 0.074 -138.909 
2281.764 0.074 -138.911 0.735 -46.836 0.643 42.871 0.077 -35.127 
	0.735 -46.836 0.074 -138.911 0.077 -35.127 0.643 42.871 
	0.643 42.871 0.077 -35.127 0.074 -138.911 0.735 -46.836 
	0.077 -35.127 0.643 42.871 0.735 -46.836 0.074 -138.911 
2283.367 0.074 -138.914 0.735 -46.86 0.643 42.848 0.077 -35.192 
	0.735 -46.86 0.074 -138.914 0.077 -35.192 0.643 42.848 
	0.643 42.848 0.077 -35.192 0.074 -138.914 0.735 -46.86 
	0.077 -35.192 0.643 42.848 0.735 -46.86 0.074 -138.914 
2284.97 0.074 -138.916 0.735 -46.884 0.643 42.825 0.077 -35.256 
	0.735 -46.884 0.074 -138.916 0.077 -35.256 0.643 42.825 
	0.643 42.825 0.077 -35.256 0.074 -138.916 0.735 -46.884 
	0.077 -35.256 0.643 42.825 0.735 -46.884 0.074 -138.916 
2286.573 0.074 -138.918 0.735 -46.908 0.644 42.802 0.077 -35.32 
	0.735 -46.908 0.074 -138.918 0.077 -35.32 0.644 42.802 
	0.644 42.802 0.077 -35.32 0.074 -138.918 0.735 -46.908 
	0.077 -35.32 0.644 42.802 0.735 -46.908 0.074 -138.918 
2288.176 0.074 -138.92 0.734 -46.932 0.644 42.779 0.077 -35.385 
	0.734 -46.932 0.074 -138.92 0.077 -35.385 0.644 42.779 
	0.644 42.779 0.077 -35.385 0.074 -138.92 0.734 -46.932 
	0.077 -35.385 0.644 42.779 0.734 -46.932 0.074 -138.92 
2289.78 0.074 -138.922 0.734 -46.956 0.644 42.756 0.077 -35.449 
	0.734 -46.956 0.074 -138.922 0.077 -35.449 0.644 42.756 
	0.644 42.756 0.077 -35.449 0.074 -138.922 0.734 -46.956 
	0.077 -35.449 0.644 42.756 0.734 -46.956 0.074 -138.922 
2291.383 0.074 -138.924 0.734 -46.979 0.644 42.733 0.077 -35.513 
	0.734 -46.979 0.074 -138.924 0.077 -35.513 0.644 42.733 
	0.644 42.733 0.077 -35.513 0.074 -138.924 0.734 -46.979 
	0.077 -35.513 0.644 42.733 0.734 -46.979 0.074 -138.924 
2292.986 0.074 -138.925 0.734 -47.003 0.645 42.71 0.077 -35.578 
	0.734 -47.003 0.074 -138.925 0.077 -35.578 0.645 42.71 
	0.645 42.71 0.077 -35.578 0.074 -138.925 0.734 -47.003 
	0.077 -35.578 0.645 42.71 0.734 -47.003 0.074 -138.925 
2294.589 0.074 -138.927 0.733 -47.027 0.645 42.687 0.077 -35.642 
	0.733 -47.027 0.074 -138.927 0.077 -35.642 0.645 42.687 
	0.645 42.687 0.077 -35.642 0.074 -138.927 0.733 -47.027 
	0.077 -35.642 0.645 42.687 0.733 -47.027 0.074 -138.927 
2296.192 0.074 -138.928 0.733 -47.051 0.645 42.665 0.077 -35.706 
	0.733 -47.051 0.074 -138.928 0.077 -35.706 0.645 42.665 
	0.645 42.665 0.077 -35.706 0.074 -138.928 0.733 -47.051 
	0.077 -35.706 0.645 42.665 0.733 -47.051 0.074 -138.928 
2297.796 0.074 -138.93 0.733 -47.074 0.645 42.642 0.077 -35.77 
	0.733 -47.074 0.074 -138.93 0.077 -35.77 0.645 42.642 
	0.645 42.642 0.077 -35.77 0.074 -138.93 0.733 -47.074 
	0.077 -35.77 0.645 42.642 0.733 -47.074 0.074 -138.93 
2299.399 0.074 -138.931 0.733 -47.098 0.646 42.619 0.077 -35.835 
	0.733 -47.098 0.074 -138.931 0.077 -35.835 0.646 42.619 
	0.646 42.619 0.077 -35.835 0.074 -138.931 0.733 -47.098 
	0.077 -35.835 0.646 42.619 0.733 -47.098 0.074 -138.931 
2301.002 0.074 -138.933 0.733 -47.122 0.646 42.596 0.077 -35.899 
	0.733 -47.122 0.074 -138.933 0.077 -35.899 0.646 42.596 
	0.646 42.596 0.077 -35.899 0.074 -138.933 0.733 -47.122 
	0.077 -35.899 0.646 42.596 0.733 -47.122 0.074 -138.933 
2302.605 0.074 -138.934 0.732 -47.146 0.646 42.573 0.077 -35.963 
	0.732 -47.146 0.074 -138.934 0.077 -35.963 0.646 42.573 
	0.646 42.573 0.077 -35.963 0.074 -138.934 0.732 -47.146 
	0.077 -35.963 0.646 42.573 0.732 -47.146 0.074 -138.934 
2304.208 0.073 -138.935 0.732 -47.169 0.646 42.55 0.077 -36.027 
	0.732 -47.169 0.073 -138.935 0.077 -36.027 0.646 42.55 
	0.646 42.55 0.077 -36.027 0.073 -138.935 0.732 -47.169 
	0.077 -36.027 0.646 42.55 0.732 -47.169 0.073 -138.935 
2305.812 0.073 -138.936 0.732 -47.193 0.646 42.527 0.077 -36.091 
	0.732 -47.193 0.073 -138.936 0.077 -36.091 0.646 42.527 
	0.646 42.527 0.077 -36.091 0.073 -138.936 0.732 -47.193 
	0.077 -36.091 0.646 42.527 0.732 -47.193 0.073 -138.936 
2307.415 0.073 -138.937 0.732 -47.217 0.647 42.504 0.077 -36.155 
	0.732 -47.217 0.073 -138.937 0.077 -36.155 0.647 42.504 
	0.647 42.504 0.077 -36.155 0.073 -138.937 0.732 -47.217 
	0.077 -36.155 0.647 42.504 0.732 -47.217 0.073 -138.937 
2309.018 0.073 -138.938 0.732 -47.24 0.647 42.481 0.077 -36.219 
	0.732 -47.24 0.073 -138.938 0.077 -36.219 0.647 42.481 
	0.647 42.481 0.077 -36.219 0.073 -138.938 0.732 -47.24 
	0.077 -36.219 0.647 42.481 0.732 -47.24 0.073 -138.938 
2310.621 0.073 -138.938 0.731 -47.264 0.647 42.459 0.077 -36.283 
	0.731 -47.264 0.073 -138.938 0.077 -36.283 0.647 42.459 
	0.647 42.459 0.077 -36.283 0.073 -138.938 0.731 -47.264 
	0.077 -36.283 0.647 42.459 0.731 -47.264 0.073 -138.938 
2312.224 0.073 -138.939 0.731 -47.288 0.647 42.436 0.077 -36.347 
	0.731 -47.288 0.073 -138.939 0.077 -36.347 0.647 42.436 
	0.647 42.436 0.077 -36.347 0.073 -138.939 0.731 -47.288 
	0.077 -36.347 0.647 42.436 0.731 -47.288 0.073 -138.939 
2313.828 0.073 -138.94 0.731 -47.311 0.648 42.413 0.077 -36.411 
	0.731 -47.311 0.073 -138.94 0.077 -36.411 0.648 42.413 
	0.648 42.413 0.077 -36.411 0.073 -138.94 0.731 -47.311 
	0.077 -36.411 0.648 42.413 0.731 -47.311 0.073 -138.94 
2315.431 0.073 -138.94 0.731 -47.335 0.648 42.39 0.077 -36.474 
	0.731 -47.335 0.073 -138.94 0.077 -36.474 0.648 42.39 
	0.648 42.39 0.077 -36.474 0.073 -138.94 0.731 -47.335 
	0.077 -36.474 0.648 42.39 0.731 -47.335 0.073 -138.94 
2317.034 0.073 -138.941 0.73 -47.359 0.648 42.367 0.077 -36.538 
	0.73 -47.359 0.073 -138.941 0.077 -36.538 0.648 42.367 
	0.648 42.367 0.077 -36.538 0.073 -138.941 0.73 -47.359 
	0.077 -36.538 0.648 42.367 0.73 -47.359 0.073 -138.941 
2318.637 0.073 -138.941 0.73 -47.382 0.648 42.345 0.077 -36.602 
	0.73 -47.382 0.073 -138.941 0.077 -36.602 0.648 42.345 
	0.648 42.345 0.077 -36.602 0.073 -138.941 0.73 -47.382 
	0.077 -36.602 0.648 42.345 0.73 -47.382 0.073 -138.941 
2320.24 0.073 -138.941 0.73 -47.406 0.649 42.322 0.077 -36.666 
	0.73 -47.406 0.073 -138.941 0.077 -36.666 0.649 42.322 
	0.649 42.322 0.077 -36.666 0.073 -138.941 0.73 -47.406 
	0.077 -36.666 0.649 42.322 0.73 -47.406 0.073 -138.941 
2321.844 0.073 -138.941 0.73 -47.429 0.649 42.299 0.077 -36.73 
	0.73 -47.429 0.073 -138.941 0.077 -36.73 0.649 42.299 
	0.649 42.299 0.077 -36.73 0.073 -138.941 0.73 -47.429 
	0.077 -36.73 0.649 42.299 0.73 -47.429 0.073 -138.941 
2323.447 0.073 -138.941 0.73 -47.453 0.649 42.276 0.077 -36.793 
	0.73 -47.453 0.073 -138.941 0.077 -36.793 0.649 42.276 
	0.649 42.276 0.077 -36.793 0.073 -138.941 0.73 -47.453 
	0.077 -36.793 0.649 42.276 0.73 -47.453 0.073 -138.941 
2325.05 0.073 -138.941 0.729 -47.477 0.649 42.254 0.077 -36.857 
	0.729 -47.477 0.073 -138.941 0.077 -36.857 0.649 42.254 
	0.649 42.254 0.077 -36.857 0.073 -138.941 0.729 -47.477 
	0.077 -36.857 0.649 42.254 0.729 -47.477 0.073 -138.941 
2326.653 0.073 -138.941 0.729 -47.5 0.65 42.231 0.077 -36.921 
	0.729 -47.5 0.073 -138.941 0.077 -36.921 0.65 42.231 
	0.65 42.231 0.077 -36.921 0.073 -138.941 0.729 -47.5 
	0.077 -36.921 0.65 42.231 0.729 -47.5 0.073 -138.941 
2328.257 0.073 -138.941 0.729 -47.524 0.65 42.208 0.077 -36.984 
	0.729 -47.524 0.073 -138.941 0.077 -36.984 0.65 42.208 
	0.65 42.208 0.077 -36.984 0.073 -138.941 0.729 -47.524 
	0.077 -36.984 0.65 42.208 0.729 -47.524 0.073 -138.941 
2329.86 0.073 -138.941 0.729 -47.547 0.65 42.186 0.077 -37.048 
	0.729 -47.547 0.073 -138.941 0.077 -37.048 0.65 42.186 
	0.65 42.186 0.077 -37.048 0.073 -138.941 0.729 -47.547 
	0.077 -37.048 0.65 42.186 0.729 -47.547 0.073 -138.941 
2331.463 0.073 -138.94 0.728 -47.571 0.65 42.163 0.077 -37.111 
	0.728 -47.571 0.073 -138.94 0.077 -37.111 0.65 42.163 
	0.65 42.163 0.077 -37.111 0.073 -138.94 0.728 -47.571 
	0.077 -37.111 0.65 42.163 0.728 -47.571 0.073 -138.94 
2333.066 0.073 -138.94 0.728 -47.594 0.651 42.14 0.077 -37.175 
	0.728 -47.594 0.073 -138.94 0.077 -37.175 0.651 42.14 
