!	AVX THIN FILM OPERATION
!	
!	0805 SIZE 3dB 90deg COUPLER P/N DB0805A2650AWTR
!
!	Created March 23 2003
!						
!	Network Analyzer HP8720E S.07.64: Feb23, 2000 Serial No.US39172382		
!	
#	MHZ	S	MA	R	50					

500 0.036 -111.231 0.977 -12.217 0.194 77.315 0.039 66.864
          0.977 -12.217 0.036 -111.231 0.039 66.864 0.194 77.315
          0.194 77.315 0.039 66.864 0.036 -111.231 0.977 -12.217
          0.039 66.864 0.194 77.315 0.977 -12.217 0.036 -111.231
506.266 0.037 -111.562 0.977 -12.366 0.196 77.161 0.039 66.586
          0.977 -12.366 0.037 -111.562 0.039 66.586 0.196 77.161
          0.196 77.161 0.039 66.586 0.037 -111.562 0.977 -12.366
          0.039 66.586 0.196 77.161 0.977 -12.366 0.037 -111.562
512.531 0.037 -111.893 0.976 -12.514 0.199 77.008 0.04 66.307
          0.976 -12.514 0.037 -111.893 0.04 66.307 0.199 77.008
          0.199 77.008 0.04 66.307 0.037 -111.893 0.976 -12.514
          0.04 66.307 0.199 77.008 0.976 -12.514 0.037 -111.893
518.797 0.038 -112.222 0.976 -12.662 0.201 76.856 0.04 66.029
          0.976 -12.662 0.038 -112.222 0.04 66.029 0.201 76.856
          0.201 76.856 0.04 66.029 0.038 -112.222 0.976 -12.662
          0.04 66.029 0.201 76.856 0.976 -12.662 0.038 -112.222
525.063 0.038 -112.55 0.975 -12.81 0.203 76.703 0.04 65.751
          0.975 -12.81 0.038 -112.55 0.04 65.751 0.203 76.703
          0.203 76.703 0.04 65.751 0.038 -112.55 0.975 -12.81
          0.04 65.751 0.203 76.703 0.975 -12.81 0.038 -112.55
531.328 0.038 -112.876 0.975 -12.957 0.206 76.551 0.041 65.474
          0.975 -12.957 0.038 -112.876 0.041 65.474 0.206 76.551
          0.206 76.551 0.041 65.474 0.038 -112.876 0.975 -12.957
          0.041 65.474 0.206 76.551 0.975 -12.957 0.038 -112.876
537.594 0.039 -113.202 0.974 -13.105 0.208 76.398 0.041 65.197
          0.974 -13.105 0.039 -113.202 0.041 65.197 0.208 76.398
          0.208 76.398 0.041 65.197 0.039 -113.202 0.974 -13.105
          0.041 65.197 0.208 76.398 0.974 -13.105 0.039 -113.202
543.86 0.039 -113.527 0.974 -13.252 0.21 76.246 0.042 64.92
          0.974 -13.252 0.039 -113.527 0.042 64.92 0.21 76.246
          0.21 76.246 0.042 64.92 0.039 -113.527 0.974 -13.252
          0.042 64.92 0.21 76.246 0.974 -13.252 0.039 -113.527
550.125 0.04 -113.85 0.973 -13.399 0.213 76.094 0.042 64.644
          0.973 -13.399 0.04 -113.85 0.042 64.644 0.213 76.094
          0.213 76.094 0.042 64.644 0.04 -113.85 0.973 -13.399
          0.042 64.644 0.213 76.094 0.973 -13.399 0.04 -113.85
556.391 0.04 -114.173 0.973 -13.546 0.215 75.943 0.043 64.368
          0.973 -13.546 0.04 -114.173 0.043 64.368 0.215 75.943
          0.215 75.943 0.043 64.368 0.04 -114.173 0.973 -13.546
          0.043 64.368 0.215 75.943 0.973 -13.546 0.04 -114.173
562.657 0.04 -114.494 0.972 -13.693 0.217 75.791 0.043 64.092
          0.972 -13.693 0.04 -114.494 0.043 64.092 0.217 75.791
          0.217 75.791 0.043 64.092 0.04 -114.494 0.972 -13.693
          0.043 64.092 0.217 75.791 0.972 -13.693 0.04 -114.494
568.922 0.041 -114.815 0.972 -13.839 0.219 75.64 0.043 63.817
          0.972 -13.839 0.041 -114.815 0.043 63.817 0.219 75.64
          0.219 75.64 0.043 63.817 0.041 -114.815 0.972 -13.839
          0.043 63.817 0.219 75.64 0.972 -13.839 0.041 -114.815
575.188 0.041 -115.134 0.971 -13.985 0.222 75.489 0.044 63.542
          0.971 -13.985 0.041 -115.134 0.044 63.542 0.222 75.489
          0.222 75.489 0.044 63.542 0.041 -115.134 0.971 -13.985
          0.044 63.542 0.222 75.489 0.971 -13.985 0.041 -115.134
581.454 0.042 -115.452 0.97 -14.132 0.224 75.338 0.044 63.267
          0.97 -14.132 0.042 -115.452 0.044 63.267 0.224 75.338
          0.224 75.338 0.044 63.267 0.042 -115.452 0.97 -14.132
          0.044 63.267 0.224 75.338 0.97 -14.132 0.042 -115.452
587.719 0.042 -115.77 0.97 -14.278 0.226 75.188 0.045 62.993
          0.97 -14.278 0.042 -115.77 0.045 62.993 0.226 75.188
          0.226 75.188 0.045 62.993 0.042 -115.77 0.97 -14.278
          0.045 62.993 0.226 75.188 0.97 -14.278 0.042 -115.77
593.985 0.042 -116.087 0.969 -14.423 0.228 75.037 0.045 62.719
          0.969 -14.423 0.042 -116.087 0.045 62.719 0.228 75.037
          0.228 75.037 0.045 62.719 0.042 -116.087 0.969 -14.423
          0.045 62.719 0.228 75.037 0.969 -14.423 0.042 -116.087
600.251 0.043 -116.402 0.969 -14.569 0.231 74.887 0.046 62.446
          0.969 -14.569 0.043 -116.402 0.046 62.446 0.231 74.887
          0.231 74.887 0.046 62.446 0.043 -116.402 0.969 -14.569
          0.046 62.446 0.231 74.887 0.969 -14.569 0.043 -116.402
606.516 0.043 -116.717 0.968 -14.714 0.233 74.737 0.046 62.173
          0.968 -14.714 0.043 -116.717 0.046 62.173 0.233 74.737
          0.233 74.737 0.046 62.173 0.043 -116.717 0.968 -14.714
          0.046 62.173 0.233 74.737 0.968 -14.714 0.043 -116.717
612.782 0.044 -117.031 0.968 -14.86 0.235 74.587 0.046 61.9
          0.968 -14.86 0.044 -117.031 0.046 61.9 0.235 74.587
          0.235 74.587 0.046 61.9 0.044 -117.031 0.968 -14.86
          0.046 61.9 0.235 74.587 0.968 -14.86 0.044 -117.031
619.048 0.044 -117.344 0.967 -15.005 0.237 74.438 0.047 61.627
          0.967 -15.005 0.044 -117.344 0.047 61.627 0.237 74.438
          0.237 74.438 0.047 61.627 0.044 -117.344 0.967 -15.005
          0.047 61.627 0.237 74.438 0.967 -15.005 0.044 -117.344
625.313 0.044 -117.656 0.966 -15.149 0.24 74.288 0.047 61.355
          0.966 -15.149 0.044 -117.656 0.047 61.355 0.24 74.288
          0.24 74.288 0.047 61.355 0.044 -117.656 0.966 -15.149
          0.047 61.355 0.24 74.288 0.966 -15.149 0.044 -117.656
631.579 0.045 -117.967 0.966 -15.294 0.242 74.139 0.048 61.084
          0.966 -15.294 0.045 -117.967 0.048 61.084 0.242 74.139
          0.242 74.139 0.048 61.084 0.045 -117.967 0.966 -15.294
          0.048 61.084 0.242 74.139 0.966 -15.294 0.045 -117.967
637.845 0.045 -118.278 0.965 -15.438 0.244 73.99 0.048 60.812
          0.965 -15.438 0.045 -118.278 0.048 60.812 0.244 73.99
          0.244 73.99 0.048 60.812 0.045 -118.278 0.965 -15.438
          0.048 60.812 0.244 73.99 0.965 -15.438 0.045 -118.278
644.11 0.045 -118.587 0.965 -15.583 0.246 73.842 0.048 60.542
          0.965 -15.583 0.045 -118.587 0.048 60.542 0.246 73.842
          0.246 73.842 0.048 60.542 0.045 -118.587 0.965 -15.583
          0.048 60.542 0.246 73.842 0.965 -15.583 0.045 -118.587
650.376 0.046 -118.896 0.964 -15.727 0.249 73.693 0.049 60.271
          0.964 -15.727 0.046 -118.896 0.049 60.271 0.249 73.693
          0.249 73.693 0.049 60.271 0.046 -118.896 0.964 -15.727
          0.049 60.271 0.249 73.693 0.964 -15.727 0.046 -118.896
656.642 0.046 -119.204 0.963 -15.871 0.251 73.545 0.049 60.001
          0.963 -15.871 0.046 -119.204 0.049 60.001 0.251 73.545
          0.251 73.545 0.049 60.001 0.046 -119.204 0.963 -15.871
          0.049 60.001 0.251 73.545 0.963 -15.871 0.046 -119.204
662.907 0.047 -119.511 0.963 -16.014 0.253 73.397 0.05 59.731
          0.963 -16.014 0.047 -119.511 0.05 59.731 0.253 73.397
          0.253 73.397 0.05 59.731 0.047 -119.511 0.963 -16.014
          0.05 59.731 0.253 73.397 0.963 -16.014 0.047 -119.511
669.173 0.047 -119.818 0.962 -16.158 0.255 73.249 0.05 59.462
          0.962 -16.158 0.047 -119.818 0.05 59.462 0.255 73.249
          0.255 73.249 0.05 59.462 0.047 -119.818 0.962 -16.158
          0.05 59.462 0.255 73.249 0.962 -16.158 0.047 -119.818
675.439 0.047 -120.123 0.962 -16.301 0.257 73.102 0.05 59.193
          0.962 -16.301 0.047 -120.123 0.05 59.193 0.257 73.102
          0.257 73.102 0.05 59.193 0.047 -120.123 0.962 -16.301
          0.05 59.193 0.257 73.102 0.962 -16.301 0.047 -120.123
681.704 0.048 -120.428 0.961 -16.444 0.26 72.955 0.051 58.925
          0.961 -16.444 0.048 -120.428 0.051 58.925 0.26 72.955
          0.26 72.955 0.051 58.925 0.048 -120.428 0.961 -16.444
          0.051 58.925 0.26 72.955 0.961 -16.444 0.048 -120.428
687.97 0.048 -120.732 0.96 -16.587 0.262 72.807 0.051 58.657
          0.96 -16.587 0.048 -120.732 0.051 58.657 0.262 72.807
          0.262 72.807 0.051 58.657 0.048 -120.732 0.96 -16.587
          0.051 58.657 0.262 72.807 0.96 -16.587 0.048 -120.732
694.236 0.048 -121.036 0.96 -16.729 0.264 72.661 0.052 58.389
          0.96 -16.729 0.048 -121.036 0.052 58.389 0.264 72.661
          0.264 72.661 0.052 58.389 0.048 -121.036 0.96 -16.729
          0.052 58.389 0.264 72.661 0.96 -16.729 0.048 -121.036
700.501 0.049 -121.338 0.959 -16.872 0.266 72.514 0.052 58.122
          0.959 -16.872 0.049 -121.338 0.052 58.122 0.266 72.514
          0.266 72.514 0.052 58.122 0.049 -121.338 0.959 -16.872
          0.052 58.122 0.266 72.514 0.959 -16.872 0.049 -121.338
706.767 0.049 -121.64 0.958 -17.014 0.268 72.368 0.052 57.855
          0.958 -17.014 0.049 -121.64 0.052 57.855 0.268 72.368
          0.268 72.368 0.052 57.855 0.049 -121.64 0.958 -17.014
          0.052 57.855 0.268 72.368 0.958 -17.014 0.049 -121.64
713.033 0.049 -121.941 0.958 -17.156 0.27 72.221 0.053 57.588
          0.958 -17.156 0.049 -121.941 0.053 57.588 0.27 72.221
          0.27 72.221 0.053 57.588 0.049 -121.941 0.958 -17.156
          0.053 57.588 0.27 72.221 0.958 -17.156 0.049 -121.941
719.298 0.05 -122.242 0.957 -17.297 0.273 72.076 0.053 57.322
          0.957 -17.297 0.05 -122.242 0.053 57.322 0.273 72.076
          0.273 72.076 0.053 57.322 0.05 -122.242 0.957 -17.297
          0.053 57.322 0.273 72.076 0.957 -17.297 0.05 -122.242
725.564 0.05 -122.542 0.956 -17.439 0.275 71.93 0.053 57.057
          0.956 -17.439 0.05 -122.542 0.053 57.057 0.275 71.93
          0.275 71.93 0.053 57.057 0.05 -122.542 0.956 -17.439
          0.053 57.057 0.275 71.93 0.956 -17.439 0.05 -122.542
731.83 0.051 -122.841 0.956 -17.58 0.277 71.784 0.054 56.791
          0.956 -17.58 0.051 -122.841 0.054 56.791 0.277 71.784
          0.277 71.784 0.054 56.791 0.051 -122.841 0.956 -17.58
          0.054 56.791 0.277 71.784 0.956 -17.58 0.051 -122.841
738.095 0.051 -123.139 0.955 -17.721 0.279 71.639 0.054 56.527
          0.955 -17.721 0.051 -123.139 0.054 56.527 0.279 71.639
          0.279 71.639 0.054 56.527 0.051 -123.139 0.955 -17.721
          0.054 56.527 0.279 71.639 0.955 -17.721 0.051 -123.139
744.361 0.051 -123.436 0.954 -17.862 0.281 71.494 0.055 56.262
          0.954 -17.862 0.051 -123.436 0.055 56.262 0.281 71.494
          0.281 71.494 0.055 56.262 0.051 -123.436 0.954 -17.862
          0.055 56.262 0.281 71.494 0.954 -17.862 0.051 -123.436
750.627 0.052 -123.733 0.954 -18.003 0.283 71.35 0.055 55.998
          0.954 -18.003 0.052 -123.733 0.055 55.998 0.283 71.35
          0.283 71.35 0.055 55.998 0.052 -123.733 0.954 -18.003
          0.055 55.998 0.283 71.35 0.954 -18.003 0.052 -123.733
756.892 0.052 -124.03 0.953 -18.143 0.285 71.205 0.055 55.735
          0.953 -18.143 0.052 -124.03 0.055 55.735 0.285 71.205
          0.285 71.205 0.055 55.735 0.052 -124.03 0.953 -18.143
          0.055 55.735 0.285 71.205 0.953 -18.143 0.052 -124.03
763.158 0.052 -124.325 0.952 -18.283 0.288 71.061 0.056 55.472
          0.952 -18.283 0.052 -124.325 0.056 55.472 0.288 71.061
          0.288 71.061 0.056 55.472 0.052 -124.325 0.952 -18.283
          0.056 55.472 0.288 71.061 0.952 -18.283 0.052 -124.325
769.424 0.053 -124.62 0.952 -18.423 0.29 70.917 0.056 55.209
          0.952 -18.423 0.053 -124.62 0.056 55.209 0.29 70.917
          0.29 70.917 0.056 55.209 0.053 -124.62 0.952 -18.423
          0.056 55.209 0.29 70.917 0.952 -18.423 0.053 -124.62
775.689 0.053 -124.914 0.951 -18.563 0.292 70.773 0.056 54.947
          0.951 -18.563 0.053 -124.914 0.056 54.947 0.292 70.773
          0.292 70.773 0.056 54.947 0.053 -124.914 0.951 -18.563
          0.056 54.947 0.292 70.773 0.951 -18.563 0.053 -124.914
781.955 0.053 -125.208 0.95 -18.703 0.294 70.63 0.057 54.685
          0.95 -18.703 0.053 -125.208 0.057 54.685 0.294 70.63
          0.294 70.63 0.057 54.685 0.053 -125.208 0.95 -18.703
          0.057 54.685 0.294 70.63 0.95 -18.703 0.053 -125.208
788.221 0.054 -125.501 0.95 -18.842 0.296 70.487 0.057 54.424
          0.95 -18.842 0.054 -125.501 0.057 54.424 0.296 70.487
          0.296 70.487 0.057 54.424 0.054 -125.501 0.95 -18.842
          0.057 54.424 0.296 70.487 0.95 -18.842 0.054 -125.501
794.486 0.054 -125.793 0.949 -18.981 0.298 70.344 0.057 54.163
          0.949 -18.981 0.054 -125.793 0.057 54.163 0.298 70.344
          0.298 70.344 0.057 54.163 0.054 -125.793 0.949 -18.981
          0.057 54.163 0.298 70.344 0.949 -18.981 0.054 -125.793
800.752 0.054 -126.084 0.948 -19.12 0.3 70.201 0.058 53.903
          0.948 -19.12 0.054 -126.084 0.058 53.903 0.3 70.201
          0.3 70.201 0.058 53.903 0.054 -126.084 0.948 -19.12
          0.058 53.903 0.3 70.201 0.948 -19.12 0.054 -126.084
807.018 0.055 -126.375 0.947 -19.259 0.302 70.058 0.058 53.643
          0.947 -19.259 0.055 -126.375 0.058 53.643 0.302 70.058
          0.302 70.058 0.058 53.643 0.055 -126.375 0.947 -19.259
          0.058 53.643 0.302 70.058 0.947 -19.259 0.055 -126.375
813.283 0.055 -126.666 0.947 -19.397 0.304 69.916 0.059 53.383
          0.947 -19.397 0.055 -126.666 0.059 53.383 0.304 69.916
          0.304 69.916 0.059 53.383 0.055 -126.666 0.947 -19.397
          0.059 53.383 0.304 69.916 0.947 -19.397 0.055 -126.666
819.549 0.055 -126.955 0.946 -19.535 0.307 69.774 0.059 53.124
          0.946 -19.535 0.055 -126.955 0.059 53.124 0.307 69.774
          0.307 69.774 0.059 53.124 0.055 -126.955 0.946 -19.535
          0.059 53.124 0.307 69.774 0.946 -19.535 0.055 -126.955
825.815 0.056 -127.244 0.945 -19.673 0.309 69.632 0.059 52.866
          0.945 -19.673 0.056 -127.244 0.059 52.866 0.309 69.632
          0.309 69.632 0.059 52.866 0.056 -127.244 0.945 -19.673
          0.059 52.866 0.309 69.632 0.945 -19.673 0.056 -127.244
832.08 0.056 -127.533 0.945 -19.811 0.311 69.491 0.06 52.607
          0.945 -19.811 0.056 -127.533 0.06 52.607 0.311 69.491
          0.311 69.491 0.06 52.607 0.056 -127.533 0.945 -19.811
          0.06 52.607 0.311 69.491 0.945 -19.811 0.056 -127.533
838.346 0.056 -127.82 0.944 -19.949 0.313 69.35 0.06 52.35
          0.944 -19.949 0.056 -127.82 0.06 52.35 0.313 69.35
          0.313 69.35 0.06 52.35 0.056 -127.82 0.944 -19.949
          0.06 52.35 0.313 69.35 0.944 -19.949 0.056 -127.82
844.612 0.057 -128.107 0.943 -20.086 0.315 69.209 0.06 52.092
          0.943 -20.086 0.057 -128.107 0.06 52.092 0.315 69.209
          0.315 69.209 0.06 52.092 0.057 -128.107 0.943 -20.086
          0.06 52.092 0.315 69.209 0.943 -20.086 0.057 -128.107
850.877 0.057 -128.394 0.942 -20.223 0.317 69.068 0.061 51.836
          0.942 -20.223 0.057 -128.394 0.061 51.836 0.317 69.068
          0.317 69.068 0.061 51.836 0.057 -128.394 0.942 -20.223
          0.061 51.836 0.317 69.068 0.942 -20.223 0.057 -128.394
857.143 0.057 -128.68 0.942 -20.36 0.319 68.928 0.061 51.579
          0.942 -20.36 0.057 -128.68 0.061 51.579 0.319 68.928
          0.319 68.928 0.061 51.579 0.057 -128.68 0.942 -20.36
          0.061 51.579 0.319 68.928 0.942 -20.36 0.057 -128.68
863.409 0.058 -128.965 0.941 -20.496 0.321 68.787 0.061 51.323
          0.941 -20.496 0.058 -128.965 0.061 51.323 0.321 68.787
          0.321 68.787 0.061 51.323 0.058 -128.965 0.941 -20.496
          0.061 51.323 0.321 68.787 0.941 -20.496 0.058 -128.965
869.674 0.058 -129.25 0.94 -20.633 0.323 68.647 0.062 51.068
          0.94 -20.633 0.058 -129.25 0.062 51.068 0.323 68.647
          0.323 68.647 0.062 51.068 0.058 -129.25 0.94 -20.633
          0.062 51.068 0.323 68.647 0.94 -20.633 0.058 -129.25
875.94 0.058 -129.534 0.939 -20.769 0.325 68.508 0.062 50.813
          0.939 -20.769 0.058 -129.534 0.062 50.813 0.325 68.508
          0.325 68.508 0.062 50.813 0.058 -129.534 0.939 -20.769
          0.062 50.813 0.325 68.508 0.939 -20.769 0.058 -129.534
882.206 0.058 -129.817 0.939 -20.905 0.327 68.368 0.062 50.558
          0.939 -20.905 0.058 -129.817 0.062 50.558 0.327 68.368
          0.327 68.368 0.062 50.558 0.058 -129.817 0.939 -20.905
          0.062 50.558 0.327 68.368 0.939 -20.905 0.058 -129.817
888.471 0.059 -130.1 0.938 -21.04 0.329 68.229 0.063 50.304
          0.938 -21.04 0.059 -130.1 0.063 50.304 0.329 68.229
          0.329 68.229 0.063 50.304 0.059 -130.1 0.938 -21.04
          0.063 50.304 0.329 68.229 0.938 -21.04 0.059 -130.1
894.737 0.059 -130.382 0.937 -21.176 0.331 68.09 0.063 50.051
          0.937 -21.176 0.059 -130.382 0.063 50.051 0.331 68.09
          0.331 68.09 0.063 50.051 0.059 -130.382 0.937 -21.176
          0.063 50.051 0.331 68.09 0.937 -21.176 0.059 -130.382
901.003 0.059 -130.663 0.936 -21.311 0.333 67.952 0.063 49.798
          0.936 -21.311 0.059 -130.663 0.063 49.798 0.333 67.952
          0.333 67.952 0.063 49.798 0.059 -130.663 0.936 -21.311
          0.063 49.798 0.333 67.952 0.936 -21.311 0.059 -130.663
907.268 0.06 -130.944 0.936 -21.446 0.335 67.813 0.064 49.545
          0.936 -21.446 0.06 -130.944 0.064 49.545 0.335 67.813
          0.335 67.813 0.064 49.545 0.06 -130.944 0.936 -21.446
          0.064 49.545 0.335 67.813 0.936 -21.446 0.06 -130.944
913.534 0.06 -131.225 0.935 -21.581 0.337 67.675 0.064 49.293
          0.935 -21.581 0.06 -131.225 0.064 49.293 0.337 67.675
          0.337 67.675 0.064 49.293 0.06 -131.225 0.935 -21.581
          0.064 49.293 0.337 67.675 0.935 -21.581 0.06 -131.225
919.799 0.06 -131.504 0.934 -21.715 0.339 67.537 0.064 49.041
          0.934 -21.715 0.06 -131.504 0.064 49.041 0.339 67.537
          0.339 67.537 0.064 49.041 0.06 -131.504 0.934 -21.715
          0.064 49.041 0.339 67.537 0.934 -21.715 0.06 -131.504
926.065 0.061 -131.784 0.933 -21.849 0.341 67.4 0.064 48.79
          0.933 -21.849 0.061 -131.784 0.064 48.79 0.341 67.4
          0.341 67.4 0.064 48.79 0.061 -131.784 0.933 -21.849
          0.064 48.79 0.341 67.4 0.933 -21.849 0.061 -131.784
932.331 0.061 -132.062 0.933 -21.983 0.343 67.262 0.065 48.539
          0.933 -21.983 0.061 -132.062 0.065 48.539 0.343 67.262
          0.343 67.262 0.065 48.539 0.061 -132.062 0.933 -21.983
          0.065 48.539 0.343 67.262 0.933 -21.983 0.061 -132.062
938.596 0.061 -132.34 0.932 -22.117 0.345 67.125 0.065 48.289
          0.932 -22.117 0.061 -132.34 0.065 48.289 0.345 67.125
          0.345 67.125 0.065 48.289 0.061 -132.34 0.932 -22.117
          0.065 48.289 0.345 67.125 0.932 -22.117 0.061 -132.34
944.862 0.061 -132.618 0.931 -22.251 0.347 66.988 0.065 48.039
          0.931 -22.251 0.061 -132.618 0.065 48.039 0.347 66.988
          0.347 66.988 0.065 48.039 0.061 -132.618 0.931 -22.251
          0.065 48.039 0.347 66.988 0.931 -22.251 0.061 -132.618
951.128 0.062 -132.894 0.93 -22.384 0.349 66.852 0.066 47.79
          0.93 -22.384 0.062 -132.894 0.066 47.79 0.349 66.852
          0.349 66.852 0.066 47.79 0.062 -132.894 0.93 -22.384
          0.066 47.79 0.349 66.852 0.93 -22.384 0.062 -132.894
957.393 0.062 -133.171 0.93 -22.517 0.351 66.716 0.066 47.541
          0.93 -22.517 0.062 -133.171 0.066 47.541 0.351 66.716
          0.351 66.716 0.066 47.541 0.062 -133.171 0.93 -22.517
          0.066 47.541 0.351 66.716 0.93 -22.517 0.062 -133.171
963.659 0.062 -133.446 0.929 -22.65 0.353 66.58 0.066 47.293
          0.929 -22.65 0.062 -133.446 0.066 47.293 0.353 66.58
          0.353 66.58 0.066 47.293 0.062 -133.446 0.929 -22.65
          0.066 47.293 0.353 66.58 0.929 -22.65 0.062 -133.446
969.925 0.063 -133.721 0.928 -22.782 0.355 66.444 0.067 47.045
          0.928 -22.782 0.063 -133.721 0.067 47.045 0.355 66.444
          0.355 66.444 0.067 47.045 0.063 -133.721 0.928 -22.782
          0.067 47.045 0.355 66.444 0.928 -22.782 0.063 -133.721
976.19 0.063 -133.996 0.927 -22.914 0.357 66.308 0.067 46.798
          0.927 -22.914 0.063 -133.996 0.067 46.798 0.357 66.308
          0.357 66.308 0.067 46.798 0.063 -133.996 0.927 -22.914
          0.067 46.798 0.357 66.308 0.927 -22.914 0.063 -133.996
982.456 0.063 -134.269 0.926 -23.046 0.359 66.173 0.067 46.551
          0.926 -23.046 0.063 -134.269 0.067 46.551 0.359 66.173
          0.359 66.173 0.067 46.551 0.063 -134.269 0.926 -23.046
