!	AVX THIN FILM OPERATION
!	
!	0805 SIZE 3dB 90deg COUPLER P/N DB0805A1350ASTR
!
!	Created November 2010
!	Network	Analyzer	HP8720E	S.07.64:	"Feb23,2000"	Serial	No.US39172382
!
# MHZ S MA R 50

1000 0.036 -127.629 0.783 -39.697 0.592 50.164 0.038 -16.708
          0.783 -39.697 0.036 -127.629 0.038 -16.708 0.592 50.164
          0.592 50.164 0.038 -16.708 0.036 -127.629 0.783 -39.697
          0.038 -16.708 0.592 50.164 0.783 -39.697 0.036 -127.629
1002.004 0.036 -127.678 0.782 -39.757 0.593 50.105 0.038 -16.876
          0.782 -39.757 0.036 -127.678 0.038 -16.876 0.593 50.105
          0.593 50.105 0.038 -16.876 0.036 -127.678 0.782 -39.757
          0.038 -16.876 0.593 50.105 0.782 -39.757 0.036 -127.678
1004.008 0.036 -127.727 0.782 -39.817 0.594 50.045 0.038 -17.043
          0.782 -39.817 0.036 -127.727 0.038 -17.043 0.594 50.045
          0.594 50.045 0.038 -17.043 0.036 -127.727 0.782 -39.817
          0.038 -17.043 0.594 50.045 0.782 -39.817 0.036 -127.727
1006.012 0.036 -127.775 0.781 -39.877 0.595 49.985 0.038 -17.21
          0.781 -39.877 0.036 -127.775 0.038 -17.21 0.595 49.985
          0.595 49.985 0.038 -17.21 0.036 -127.775 0.781 -39.877
          0.038 -17.21 0.595 49.985 0.781 -39.877 0.036 -127.775
1008.016 0.036 -127.822 0.78 -39.937 0.595 49.926 0.038 -17.377
          0.78 -39.937 0.036 -127.822 0.038 -17.377 0.595 49.926
          0.595 49.926 0.038 -17.377 0.036 -127.822 0.78 -39.937
          0.038 -17.377 0.595 49.926 0.78 -39.937 0.036 -127.822
1010.02 0.036 -127.87 0.78 -39.997 0.596 49.867 0.038 -17.543
          0.78 -39.997 0.036 -127.87 0.038 -17.543 0.596 49.867
          0.596 49.867 0.038 -17.543 0.036 -127.87 0.78 -39.997
          0.038 -17.543 0.596 49.867 0.78 -39.997 0.036 -127.87
1012.024 0.036 -127.916 0.779 -40.056 0.597 49.807 0.039 -17.71
          0.779 -40.056 0.036 -127.916 0.039 -17.71 0.597 49.807
          0.597 49.807 0.039 -17.71 0.036 -127.916 0.779 -40.056
          0.039 -17.71 0.597 49.807 0.779 -40.056 0.036 -127.916
1014.028 0.036 -127.962 0.779 -40.116 0.597 49.748 0.039 -17.876
          0.779 -40.116 0.036 -127.962 0.039 -17.876 0.597 49.748
          0.597 49.748 0.039 -17.876 0.036 -127.962 0.779 -40.116
          0.039 -17.876 0.597 49.748 0.779 -40.116 0.036 -127.962
1016.032 0.036 -128.008 0.778 -40.176 0.598 49.689 0.039 -18.042
          0.778 -40.176 0.036 -128.008 0.039 -18.042 0.598 49.689
          0.598 49.689 0.039 -18.042 0.036 -128.008 0.778 -40.176
          0.039 -18.042 0.598 49.689 0.778 -40.176 0.036 -128.008
1018.036 0.036 -128.053 0.778 -40.235 0.599 49.63 0.039 -18.208
          0.778 -40.235 0.036 -128.053 0.039 -18.208 0.599 49.63
          0.599 49.63 0.039 -18.208 0.036 -128.053 0.778 -40.235
          0.039 -18.208 0.599 49.63 0.778 -40.235 0.036 -128.053
1020.04 0.036 -128.097 0.777 -40.294 0.6 49.571 0.039 -18.373
          0.777 -40.294 0.036 -128.097 0.039 -18.373 0.6 49.571
          0.6 49.571 0.039 -18.373 0.036 -128.097 0.777 -40.294
          0.039 -18.373 0.6 49.571 0.777 -40.294 0.036 -128.097
1022.044 0.036 -128.141 0.776 -40.354 0.6 49.512 0.039 -18.539
          0.776 -40.354 0.036 -128.141 0.039 -18.539 0.6 49.512
          0.6 49.512 0.039 -18.539 0.036 -128.141 0.776 -40.354
          0.039 -18.539 0.6 49.512 0.776 -40.354 0.036 -128.141
1024.048 0.036 -128.184 0.776 -40.413 0.601 49.453 0.039 -18.704
          0.776 -40.413 0.036 -128.184 0.039 -18.704 0.601 49.453
          0.601 49.453 0.039 -18.704 0.036 -128.184 0.776 -40.413
          0.039 -18.704 0.601 49.453 0.776 -40.413 0.036 -128.184
1026.052 0.036 -128.227 0.775 -40.472 0.602 49.395 0.039 -18.869
          0.775 -40.472 0.036 -128.227 0.039 -18.869 0.602 49.395
          0.602 49.395 0.039 -18.869 0.036 -128.227 0.775 -40.472
          0.039 -18.869 0.602 49.395 0.775 -40.472 0.036 -128.227
1028.056 0.036 -128.269 0.775 -40.531 0.603 49.336 0.039 -19.034
          0.775 -40.531 0.036 -128.269 0.039 -19.034 0.603 49.336
          0.603 49.336 0.039 -19.034 0.036 -128.269 0.775 -40.531
          0.039 -19.034 0.603 49.336 0.775 -40.531 0.036 -128.269
1030.06 0.036 -128.31 0.774 -40.59 0.603 49.277 0.039 -19.198
          0.774 -40.59 0.036 -128.31 0.039 -19.198 0.603 49.277
          0.603 49.277 0.039 -19.198 0.036 -128.31 0.774 -40.59
          0.039 -19.198 0.603 49.277 0.774 -40.59 0.036 -128.31
1032.064 0.036 -128.351 0.774 -40.649 0.604 49.219 0.039 -19.363
          0.774 -40.649 0.036 -128.351 0.039 -19.363 0.604 49.219
          0.604 49.219 0.039 -19.363 0.036 -128.351 0.774 -40.649
          0.039 -19.363 0.604 49.219 0.774 -40.649 0.036 -128.351
1034.068 0.036 -128.392 0.773 -40.708 0.605 49.161 0.039 -19.527
          0.773 -40.708 0.036 -128.392 0.039 -19.527 0.605 49.161
          0.605 49.161 0.039 -19.527 0.036 -128.392 0.773 -40.708
          0.039 -19.527 0.605 49.161 0.773 -40.708 0.036 -128.392
1036.072 0.036 -128.432 0.773 -40.766 0.605 49.102 0.039 -19.691
          0.773 -40.766 0.036 -128.432 0.039 -19.691 0.605 49.102
          0.605 49.102 0.039 -19.691 0.036 -128.432 0.773 -40.766
          0.039 -19.691 0.605 49.102 0.773 -40.766 0.036 -128.432
1038.076 0.035 -128.471 0.772 -40.825 0.606 49.044 0.039 -19.855
          0.772 -40.825 0.035 -128.471 0.039 -19.855 0.606 49.044
          0.606 49.044 0.039 -19.855 0.035 -128.471 0.772 -40.825
          0.039 -19.855 0.606 49.044 0.772 -40.825 0.035 -128.471
1040.08 0.035 -128.51 0.771 -40.884 0.607 48.986 0.039 -20.019
          0.771 -40.884 0.035 -128.51 0.039 -20.019 0.607 48.986
          0.607 48.986 0.039 -20.019 0.035 -128.51 0.771 -40.884
          0.039 -20.019 0.607 48.986 0.771 -40.884 0.035 -128.51
1042.084 0.035 -128.548 0.771 -40.942 0.608 48.928 0.039 -20.182
          0.771 -40.942 0.035 -128.548 0.039 -20.182 0.608 48.928
          0.608 48.928 0.039 -20.182 0.035 -128.548 0.771 -40.942
          0.039 -20.182 0.608 48.928 0.771 -40.942 0.035 -128.548
1044.088 0.035 -128.586 0.77 -41.001 0.608 48.87 0.039 -20.346
          0.77 -41.001 0.035 -128.586 0.039 -20.346 0.608 48.87
          0.608 48.87 0.039 -20.346 0.035 -128.586 0.77 -41.001
          0.039 -20.346 0.608 48.87 0.77 -41.001 0.035 -128.586
1046.092 0.035 -128.623 0.77 -41.059 0.609 48.812 0.039 -20.509
          0.77 -41.059 0.035 -128.623 0.039 -20.509 0.609 48.812
          0.609 48.812 0.039 -20.509 0.035 -128.623 0.77 -41.059
          0.039 -20.509 0.609 48.812 0.77 -41.059 0.035 -128.623
1048.096 0.035 -128.66 0.769 -41.117 0.61 48.754 0.039 -20.671
          0.769 -41.117 0.035 -128.66 0.039 -20.671 0.61 48.754
          0.61 48.754 0.039 -20.671 0.035 -128.66 0.769 -41.117
          0.039 -20.671 0.61 48.754 0.769 -41.117 0.035 -128.66
1050.1 0.035 -128.696 0.769 -41.175 0.61 48.696 0.039 -20.834
          0.769 -41.175 0.035 -128.696 0.039 -20.834 0.61 48.696
          0.61 48.696 0.039 -20.834 0.035 -128.696 0.769 -41.175
          0.039 -20.834 0.61 48.696 0.769 -41.175 0.035 -128.696
1052.104 0.035 -128.731 0.768 -41.233 0.611 48.638 0.039 -20.997
          0.768 -41.233 0.035 -128.731 0.039 -20.997 0.611 48.638
          0.611 48.638 0.039 -20.997 0.035 -128.731 0.768 -41.233
          0.039 -20.997 0.611 48.638 0.768 -41.233 0.035 -128.731
1054.108 0.035 -128.766 0.767 -41.292 0.612 48.581 0.039 -21.159
          0.767 -41.292 0.035 -128.766 0.039 -21.159 0.612 48.581
          0.612 48.581 0.039 -21.159 0.035 -128.766 0.767 -41.292
          0.039 -21.159 0.612 48.581 0.767 -41.292 0.035 -128.766
1056.112 0.035 -128.8 0.767 -41.349 0.613 48.523 0.039 -21.321
          0.767 -41.349 0.035 -128.8 0.039 -21.321 0.613 48.523
          0.613 48.523 0.039 -21.321 0.035 -128.8 0.767 -41.349
          0.039 -21.321 0.613 48.523 0.767 -41.349 0.035 -128.8
1058.116 0.035 -128.834 0.766 -41.407 0.613 48.466 0.039 -21.483
          0.766 -41.407 0.035 -128.834 0.039 -21.483 0.613 48.466
          0.613 48.466 0.039 -21.483 0.035 -128.834 0.766 -41.407
          0.039 -21.483 0.613 48.466 0.766 -41.407 0.035 -128.834
1060.12 0.035 -128.867 0.766 -41.465 0.614 48.409 0.039 -21.645
          0.766 -41.465 0.035 -128.867 0.039 -21.645 0.614 48.409
          0.614 48.409 0.039 -21.645 0.035 -128.867 0.766 -41.465
          0.039 -21.645 0.614 48.409 0.766 -41.465 0.035 -128.867
1062.124 0.035 -128.9 0.765 -41.523 0.615 48.351 0.039 -21.806
          0.765 -41.523 0.035 -128.9 0.039 -21.806 0.615 48.351
          0.615 48.351 0.039 -21.806 0.035 -128.9 0.765 -41.523
          0.039 -21.806 0.615 48.351 0.765 -41.523 0.035 -128.9
1064.128 0.035 -128.932 0.765 -41.581 0.615 48.294 0.039 -21.968
          0.765 -41.581 0.035 -128.932 0.039 -21.968 0.615 48.294
          0.615 48.294 0.039 -21.968 0.035 -128.932 0.765 -41.581
          0.039 -21.968 0.615 48.294 0.765 -41.581 0.035 -128.932
1066.132 0.035 -128.963 0.764 -41.638 0.616 48.237 0.039 -22.129
          0.764 -41.638 0.035 -128.963 0.039 -22.129 0.616 48.237
          0.616 48.237 0.039 -22.129 0.035 -128.963 0.764 -41.638
          0.039 -22.129 0.616 48.237 0.764 -41.638 0.035 -128.963
1068.136 0.035 -128.994 0.764 -41.696 0.617 48.18 0.039 -22.29
          0.764 -41.696 0.035 -128.994 0.039 -22.29 0.617 48.18
          0.617 48.18 0.039 -22.29 0.035 -128.994 0.764 -41.696
          0.039 -22.29 0.617 48.18 0.764 -41.696 0.035 -128.994
1070.14 0.035 -129.024 0.763 -41.753 0.617 48.123 0.039 -22.451
          0.763 -41.753 0.035 -129.024 0.039 -22.451 0.617 48.123
          0.617 48.123 0.039 -22.451 0.035 -129.024 0.763 -41.753
          0.039 -22.451 0.617 48.123 0.763 -41.753 0.035 -129.024
1072.144 0.035 -129.054 0.762 -41.81 0.618 48.066 0.04 -22.611
          0.762 -41.81 0.035 -129.054 0.04 -22.611 0.618 48.066
          0.618 48.066 0.04 -22.611 0.035 -129.054 0.762 -41.81
          0.04 -22.611 0.618 48.066 0.762 -41.81 0.035 -129.054
1074.148 0.035 -129.083 0.762 -41.868 0.619 48.009 0.04 -22.771
          0.762 -41.868 0.035 -129.083 0.04 -22.771 0.619 48.009
          0.619 48.009 0.04 -22.771 0.035 -129.083 0.762 -41.868
          0.04 -22.771 0.619 48.009 0.762 -41.868 0.035 -129.083
1076.152 0.035 -129.111 0.761 -41.925 0.62 47.952 0.04 -22.932
          0.761 -41.925 0.035 -129.111 0.04 -22.932 0.62 47.952
          0.62 47.952 0.04 -22.932 0.035 -129.111 0.761 -41.925
          0.04 -22.932 0.62 47.952 0.761 -41.925 0.035 -129.111
1078.156 0.035 -129.139 0.761 -41.982 0.62 47.896 0.04 -23.092
          0.761 -41.982 0.035 -129.139 0.04 -23.092 0.62 47.896
          0.62 47.896 0.04 -23.092 0.035 -129.139 0.761 -41.982
          0.04 -23.092 0.62 47.896 0.761 -41.982 0.035 -129.139
1080.16 0.035 -129.167 0.76 -42.039 0.621 47.839 0.04 -23.251
          0.76 -42.039 0.035 -129.167 0.04 -23.251 0.621 47.839
          0.621 47.839 0.04 -23.251 0.035 -129.167 0.76 -42.039
          0.04 -23.251 0.621 47.839 0.76 -42.039 0.035 -129.167
1082.164 0.035 -129.194 0.76 -42.096 0.622 47.783 0.04 -23.411
          0.76 -42.096 0.035 -129.194 0.04 -23.411 0.622 47.783
          0.622 47.783 0.04 -23.411 0.035 -129.194 0.76 -42.096
          0.04 -23.411 0.622 47.783 0.76 -42.096 0.035 -129.194
1084.168 0.035 -129.22 0.759 -42.153 0.622 47.726 0.04 -23.571
          0.759 -42.153 0.035 -129.22 0.04 -23.571 0.622 47.726
          0.622 47.726 0.04 -23.571 0.035 -129.22 0.759 -42.153
          0.04 -23.571 0.622 47.726 0.759 -42.153 0.035 -129.22
1086.172 0.035 -129.246 0.758 -42.21 0.623 47.67 0.04 -23.73
          0.758 -42.21 0.035 -129.246 0.04 -23.73 0.623 47.67
          0.623 47.67 0.04 -23.73 0.035 -129.246 0.758 -42.21
          0.04 -23.73 0.623 47.67 0.758 -42.21 0.035 -129.246
1088.176 0.035 -129.271 0.758 -42.267 0.624 47.613 0.04 -23.889
          0.758 -42.267 0.035 -129.271 0.04 -23.889 0.624 47.613
          0.624 47.613 0.04 -23.889 0.035 -129.271 0.758 -42.267
          0.04 -23.889 0.624 47.613 0.758 -42.267 0.035 -129.271
1090.18 0.035 -129.295 0.757 -42.323 0.624 47.557 0.04 -24.048
          0.757 -42.323 0.035 -129.295 0.04 -24.048 0.624 47.557
          0.624 47.557 0.04 -24.048 0.035 -129.295 0.757 -42.323
          0.04 -24.048 0.624 47.557 0.757 -42.323 0.035 -129.295
1092.184 0.035 -129.319 0.757 -42.38 0.625 47.501 0.04 -24.206
          0.757 -42.38 0.035 -129.319 0.04 -24.206 0.625 47.501
          0.625 47.501 0.04 -24.206 0.035 -129.319 0.757 -42.38
          0.04 -24.206 0.625 47.501 0.757 -42.38 0.035 -129.319
1094.188 0.035 -129.342 0.756 -42.436 0.626 47.445 0.04 -24.365
          0.756 -42.436 0.035 -129.342 0.04 -24.365 0.626 47.445
          0.626 47.445 0.04 -24.365 0.035 -129.342 0.756 -42.436
          0.04 -24.365 0.626 47.445 0.756 -42.436 0.035 -129.342
1096.192 0.035 -129.365 0.756 -42.493 0.626 47.389 0.04 -24.523
          0.756 -42.493 0.035 -129.365 0.04 -24.523 0.626 47.389
          0.626 47.389 0.04 -24.523 0.035 -129.365 0.756 -42.493
          0.04 -24.523 0.626 47.389 0.756 -42.493 0.035 -129.365
1098.196 0.035 -129.387 0.755 -42.549 0.627 47.333 0.04 -24.681
          0.755 -42.549 0.035 -129.387 0.04 -24.681 0.627 47.333
          0.627 47.333 0.04 -24.681 0.035 -129.387 0.755 -42.549
          0.04 -24.681 0.627 47.333 0.755 -42.549 0.035 -129.387
1100.2 0.035 -129.409 0.755 -42.605 0.628 47.277 0.04 -24.839
          0.755 -42.605 0.035 -129.409 0.04 -24.839 0.628 47.277
          0.628 47.277 0.04 -24.839 0.035 -129.409 0.755 -42.605
          0.04 -24.839 0.628 47.277 0.755 -42.605 0.035 -129.409
1102.204 0.035 -129.43 0.754 -42.662 0.628 47.222 0.04 -24.997
          0.754 -42.662 0.035 -129.43 0.04 -24.997 0.628 47.222
          0.628 47.222 0.04 -24.997 0.035 -129.43 0.754 -42.662
          0.04 -24.997 0.628 47.222 0.754 -42.662 0.035 -129.43
1104.208 0.034 -129.45 0.753 -42.718 0.629 47.166 0.04 -25.154
          0.753 -42.718 0.034 -129.45 0.04 -25.154 0.629 47.166
          0.629 47.166 0.04 -25.154 0.034 -129.45 0.753 -42.718
          0.04 -25.154 0.629 47.166 0.753 -42.718 0.034 -129.45
1106.212 0.034 -129.47 0.753 -42.774 0.63 47.11 0.04 -25.312
          0.753 -42.774 0.034 -129.47 0.04 -25.312 0.63 47.11
          0.63 47.11 0.04 -25.312 0.034 -129.47 0.753 -42.774
          0.04 -25.312 0.63 47.11 0.753 -42.774 0.034 -129.47
1108.216 0.034 -129.489 0.752 -42.83 0.63 47.055 0.04 -25.469
          0.752 -42.83 0.034 -129.489 0.04 -25.469 0.63 47.055
          0.63 47.055 0.04 -25.469 0.034 -129.489 0.752 -42.83
          0.04 -25.469 0.63 47.055 0.752 -42.83 0.034 -129.489
1110.22 0.034 -129.508 0.752 -42.886 0.631 46.999 0.04 -25.626
          0.752 -42.886 0.034 -129.508 0.04 -25.626 0.631 46.999
          0.631 46.999 0.04 -25.626 0.034 -129.508 0.752 -42.886
          0.04 -25.626 0.631 46.999 0.752 -42.886 0.034 -129.508
1112.224 0.034 -129.526 0.751 -42.942 0.632 46.944 0.04 -25.783
          0.751 -42.942 0.034 -129.526 0.04 -25.783 0.632 46.944
          0.632 46.944 0.04 -25.783 0.034 -129.526 0.751 -42.942
          0.04 -25.783 0.632 46.944 0.751 -42.942 0.034 -129.526
1114.228 0.034 -129.543 0.751 -42.997 0.632 46.889 0.04 -25.939
          0.751 -42.997 0.034 -129.543 0.04 -25.939 0.632 46.889
          0.632 46.889 0.04 -25.939 0.034 -129.543 0.751 -42.997
          0.04 -25.939 0.632 46.889 0.751 -42.997 0.034 -129.543
1116.232 0.034 -129.56 0.75 -43.053 0.633 46.833 0.04 -26.096
          0.75 -43.053 0.034 -129.56 0.04 -26.096 0.633 46.833
          0.633 46.833 0.04 -26.096 0.034 -129.56 0.75 -43.053
          0.04 -26.096 0.633 46.833 0.75 -43.053 0.034 -129.56
1118.236 0.034 -129.576 0.75 -43.109 0.634 46.778 0.04 -26.252
          0.75 -43.109 0.034 -129.576 0.04 -26.252 0.634 46.778
          0.634 46.778 0.04 -26.252 0.034 -129.576 0.75 -43.109
          0.04 -26.252 0.634 46.778 0.75 -43.109 0.034 -129.576
1120.24 0.034 -129.592 0.749 -43.164 0.634 46.723 0.04 -26.408
          0.749 -43.164 0.034 -129.592 0.04 -26.408 0.634 46.723
          0.634 46.723 0.04 -26.408 0.034 -129.592 0.749 -43.164
          0.04 -26.408 0.634 46.723 0.749 -43.164 0.034 -129.592
1122.244 0.034 -129.607 0.748 -43.22 0.635 46.668 0.04 -26.564
          0.748 -43.22 0.034 -129.607 0.04 -26.564 0.635 46.668
          0.635 46.668 0.04 -26.564 0.034 -129.607 0.748 -43.22
          0.04 -26.564 0.635 46.668 0.748 -43.22 0.034 -129.607
1124.248 0.034 -129.621 0.748 -43.275 0.636 46.613 0.04 -26.719
          0.748 -43.275 0.034 -129.621 0.04 -26.719 0.636 46.613
          0.636 46.613 0.04 -26.719 0.034 -129.621 0.748 -43.275
          0.04 -26.719 0.636 46.613 0.748 -43.275 0.034 -129.621
1126.253 0.034 -129.635 0.747 -43.331 0.636 46.558 0.04 -26.875
          0.747 -43.331 0.034 -129.635 0.04 -26.875 0.636 46.558
          0.636 46.558 0.04 -26.875 0.034 -129.635 0.747 -43.331
          0.04 -26.875 0.636 46.558 0.747 -43.331 0.034 -129.635
1128.257 0.034 -129.648 0.747 -43.386 0.637 46.504 0.04 -27.03
          0.747 -43.386 0.034 -129.648 0.04 -27.03 0.637 46.504
          0.637 46.504 0.04 -27.03 0.034 -129.648 0.747 -43.386
          0.04 -27.03 0.637 46.504 0.747 -43.386 0.034 -129.648
1130.261 0.034 -129.661 0.746 -43.441 0.638 46.449 0.04 -27.185
          0.746 -43.441 0.034 -129.661 0.04 -27.185 0.638 46.449
          0.638 46.449 0.04 -27.185 0.034 -129.661 0.746 -43.441
          0.04 -27.185 0.638 46.449 0.746 -43.441 0.034 -129.661
1132.265 0.034 -129.673 0.746 -43.496 0.638 46.394 0.04 -27.34
          0.746 -43.496 0.034 -129.673 0.04 -27.34 0.638 46.394
          0.638 46.394 0.04 -27.34 0.034 -129.673 0.746 -43.496
          0.04 -27.34 0.638 46.394 0.746 -43.496 0.034 -129.673
1134.269 0.034 -129.684 0.745 -43.551 0.639 46.34 0.04 -27.495
          0.745 -43.551 0.034 -129.684 0.04 -27.495 0.639 46.34
          0.639 46.34 0.04 -27.495 0.034 -129.684 0.745 -43.551
          0.04 -27.495 0.639 46.34 0.745 -43.551 0.034 -129.684
1136.273 0.034 -129.695 0.745 -43.606 0.64 46.285 0.04 -27.649
          0.745 -43.606 0.034 -129.695 0.04 -27.649 0.64 46.285
          0.64 46.285 0.04 -27.649 0.034 -129.695 0.745 -43.606
          0.04 -27.649 0.64 46.285 0.745 -43.606 0.034 -129.695
1138.277 0.034 -129.705 0.744 -43.661 0.64 46.231 0.04 -27.804
          0.744 -43.661 0.034 -129.705 0.04 -27.804 0.64 46.231
          0.64 46.231 0.04 -27.804 0.034 -129.705 0.744 -43.661
          0.04 -27.804 0.64 46.231 0.744 -43.661 0.034 -129.705
1140.281 0.034 -129.715 0.743 -43.716 0.641 46.177 0.041 -27.958
          0.743 -43.716 0.034 -129.715 0.041 -27.958 0.641 46.177
          0.641 46.177 0.041 -27.958 0.034 -129.715 0.743 -43.716
          0.041 -27.958 0.641 46.177 0.743 -43.716 0.034 -129.715
1142.285 0.034 -129.724 0.743 -43.771 0.641 46.122 0.041 -28.112
          0.743 -43.771 0.034 -129.724 0.041 -28.112 0.641 46.122
          0.641 46.122 0.041 -28.112 0.034 -129.724 0.743 -43.771
          0.041 -28.112 0.641 46.122 0.743 -43.771 0.034 -129.724
1144.289 0.034 -129.732 0.742 -43.825 0.642 46.068 0.041 -28.266
          0.742 -43.825 0.034 -129.732 0.041 -28.266 0.642 46.068
          0.642 46.068 0.041 -28.266 0.034 -129.732 0.742 -43.825
          0.041 -28.266 0.642 46.068 0.742 -43.825 0.034 -129.732
1146.293 0.034 -129.74 0.742 -43.88 0.643 46.014 0.041 -28.419
          0.742 -43.88 0.034 -129.74 0.041 -28.419 0.643 46.014
          0.643 46.014 0.041 -28.419 0.034 -129.74 0.742 -43.88
          0.041 -28.419 0.643 46.014 0.742 -43.88 0.034 -129.74
1148.297 0.034 -129.747 0.741 -43.934 0.643 45.96 0.041 -28.573
          0.741 -43.934 0.034 -129.747 0.041 -28.573 0.643 45.96
          0.643 45.96 0.041 -28.573 0.034 -129.747 0.741 -43.934
          0.041 -28.573 0.643 45.96 0.741 -43.934 0.034 -129.747
1150.301 0.034 -129.753 0.741 -43.989 0.644 45.906 0.041 -28.726
          0.741 -43.989 0.034 -129.753 0.041 -28.726 0.644 45.906
          0.644 45.906 0.041 -28.726 0.034 -129.753 0.741 -43.989
          0.041 -28.726 0.644 45.906 0.741 -43.989 0.034 -129.753
1152.305 0.034 -129.759 0.74 -44.043 0.645 45.852 0.041 -28.879
          0.74 -44.043 0.034 -129.759 0.041 -28.879 0.645 45.852
