!	AVX THIN FILM OPERATION
!	
!	0805 SIZE 3dB 90deg COUPLER P/N DB0805A1850AWTR
!
!	Created March 23 2003
!						
!	Network Analyzer HP8720E S.07.64: Feb23, 2000 Serial No.US39172382		
!	
#	MHZ	S	MA	R	50					


500 0.077 -123.288 0.952 -17.235 0.276 71.343 0.082 57.193
          0.952 -17.235 0.077 -123.288 0.082 57.193 0.276 71.343
          0.276 71.343 0.082 57.193 0.077 -123.288 0.952 -17.235
          0.082 57.193 0.276 71.343 0.952 -17.235 0.077 -123.288
506.266 0.078 -123.709 0.951 -17.435 0.28 71.129 0.083 56.812
          0.951 -17.435 0.078 -123.709 0.083 56.812 0.28 71.129
          0.28 71.129 0.083 56.812 0.078 -123.709 0.951 -17.435
          0.083 56.812 0.28 71.129 0.951 -17.435 0.078 -123.709
512.531 0.078 -124.13 0.95 -17.634 0.283 70.916 0.083 56.433
          0.95 -17.634 0.078 -124.13 0.083 56.433 0.283 70.916
          0.283 70.916 0.083 56.433 0.078 -124.13 0.95 -17.634
          0.083 56.433 0.283 70.916 0.95 -17.634 0.078 -124.13
518.797 0.079 -124.548 0.949 -17.832 0.286 70.704 0.084 56.054
          0.949 -17.832 0.079 -124.548 0.084 56.054 0.286 70.704
          0.286 70.704 0.084 56.054 0.079 -124.548 0.949 -17.832
          0.084 56.054 0.286 70.704 0.949 -17.832 0.079 -124.548
525.063 0.08 -124.966 0.948 -18.03 0.289 70.492 0.085 55.677
          0.948 -18.03 0.08 -124.966 0.085 55.677 0.289 70.492
          0.289 70.492 0.085 55.677 0.08 -124.966 0.948 -18.03
          0.085 55.677 0.289 70.492 0.948 -18.03 0.08 -124.966
531.328 0.081 -125.382 0.947 -18.227 0.292 70.281 0.086 55.301
          0.947 -18.227 0.081 -125.382 0.086 55.301 0.292 70.281
          0.292 70.281 0.086 55.301 0.081 -125.382 0.947 -18.227
          0.086 55.301 0.292 70.281 0.947 -18.227 0.081 -125.382
537.594 0.081 -125.797 0.946 -18.423 0.295 70.07 0.087 54.925
          0.946 -18.423 0.081 -125.797 0.087 54.925 0.295 70.07
          0.295 70.07 0.087 54.925 0.081 -125.797 0.946 -18.423
          0.087 54.925 0.295 70.07 0.946 -18.423 0.081 -125.797
543.86 0.082 -126.21 0.945 -18.62 0.298 69.86 0.087 54.551
          0.945 -18.62 0.082 -126.21 0.087 54.551 0.298 69.86
          0.298 69.86 0.087 54.551 0.082 -126.21 0.945 -18.62
          0.087 54.551 0.298 69.86 0.945 -18.62 0.082 -126.21
550.125 0.083 -126.623 0.944 -18.815 0.301 69.651 0.088 54.177
          0.944 -18.815 0.083 -126.623 0.088 54.177 0.301 69.651
          0.301 69.651 0.088 54.177 0.083 -126.623 0.944 -18.815
          0.088 54.177 0.301 69.651 0.944 -18.815 0.083 -126.623
556.391 0.084 -127.033 0.942 -19.01 0.304 69.443 0.089 53.805
          0.942 -19.01 0.084 -127.033 0.089 53.805 0.304 69.443
          0.304 69.443 0.089 53.805 0.084 -127.033 0.942 -19.01
          0.089 53.805 0.304 69.443 0.942 -19.01 0.084 -127.033
562.657 0.084 -127.443 0.941 -19.205 0.307 69.235 0.09 53.433
          0.941 -19.205 0.084 -127.443 0.09 53.433 0.307 69.235
          0.307 69.235 0.09 53.433 0.084 -127.443 0.941 -19.205
          0.09 53.433 0.307 69.235 0.941 -19.205 0.084 -127.443
568.922 0.085 -127.851 0.94 -19.398 0.31 69.028 0.091 53.063
          0.94 -19.398 0.085 -127.851 0.091 53.063 0.31 69.028
          0.31 69.028 0.091 53.063 0.085 -127.851 0.94 -19.398
          0.091 53.063 0.31 69.028 0.94 -19.398 0.085 -127.851
575.188 0.086 -128.258 0.939 -19.592 0.313 68.821 0.091 52.694
          0.939 -19.592 0.086 -128.258 0.091 52.694 0.313 68.821
          0.313 68.821 0.091 52.694 0.086 -128.258 0.939 -19.592
          0.091 52.694 0.313 68.821 0.939 -19.592 0.086 -128.258
581.454 0.087 -128.664 0.938 -19.785 0.316 68.616 0.092 52.325
          0.938 -19.785 0.087 -128.664 0.092 52.325 0.316 68.616
          0.316 68.616 0.092 52.325 0.087 -128.664 0.938 -19.785
          0.092 52.325 0.316 68.616 0.938 -19.785 0.087 -128.664
587.719 0.087 -129.068 0.937 -19.977 0.319 68.41 0.093 51.958
          0.937 -19.977 0.087 -129.068 0.093 51.958 0.319 68.41
          0.319 68.41 0.093 51.958 0.087 -129.068 0.937 -19.977
          0.093 51.958 0.319 68.41 0.937 -19.977 0.087 -129.068
593.985 0.088 -129.471 0.936 -20.168 0.322 68.206 0.094 51.592
          0.936 -20.168 0.088 -129.471 0.094 51.592 0.322 68.206
          0.322 68.206 0.094 51.592 0.088 -129.471 0.936 -20.168
          0.094 51.592 0.322 68.206 0.936 -20.168 0.088 -129.471
600.251 0.089 -129.873 0.934 -20.359 0.324 68.002 0.094 51.227
          0.934 -20.359 0.089 -129.873 0.094 51.227 0.324 68.002
          0.324 68.002 0.094 51.227 0.089 -129.873 0.934 -20.359
          0.094 51.227 0.324 68.002 0.934 -20.359 0.089 -129.873
606.516 0.089 -130.274 0.933 -20.55 0.327 67.799 0.095 50.863
          0.933 -20.55 0.089 -130.274 0.095 50.863 0.327 67.799
          0.327 67.799 0.095 50.863 0.089 -130.274 0.933 -20.55
          0.095 50.863 0.327 67.799 0.933 -20.55 0.089 -130.274
612.782 0.09 -130.673 0.932 -20.74 0.33 67.597 0.096 50.5
          0.932 -20.74 0.09 -130.673 0.096 50.5 0.33 67.597
          0.33 67.597 0.096 50.5 0.09 -130.673 0.932 -20.74
          0.096 50.5 0.33 67.597 0.932 -20.74 0.09 -130.673
619.048 0.091 -131.071 0.931 -20.929 0.333 67.395 0.096 50.138
          0.931 -20.929 0.091 -131.071 0.096 50.138 0.333 67.395
          0.333 67.395 0.096 50.138 0.091 -131.071 0.931 -20.929
          0.096 50.138 0.333 67.395 0.931 -20.929 0.091 -131.071
625.313 0.091 -131.468 0.93 -21.118 0.336 67.194 0.097 49.777
          0.93 -21.118 0.091 -131.468 0.097 49.777 0.336 67.194
          0.336 67.194 0.097 49.777 0.091 -131.468 0.93 -21.118
          0.097 49.777 0.336 67.194 0.93 -21.118 0.091 -131.468
631.579 0.092 -131.863 0.929 -21.306 0.339 66.994 0.098 49.417
          0.929 -21.306 0.092 -131.863 0.098 49.417 0.339 66.994
          0.339 66.994 0.098 49.417 0.092 -131.863 0.929 -21.306
          0.098 49.417 0.339 66.994 0.929 -21.306 0.092 -131.863
637.845 0.093 -132.258 0.927 -21.494 0.342 66.794 0.099 49.059
          0.927 -21.494 0.093 -132.258 0.099 49.059 0.342 66.794
          0.342 66.794 0.099 49.059 0.093 -132.258 0.927 -21.494
          0.099 49.059 0.342 66.794 0.927 -21.494 0.093 -132.258
644.11 0.093 -132.651 0.926 -21.681 0.344 66.595 0.099 48.701
          0.926 -21.681 0.093 -132.651 0.099 48.701 0.344 66.595
          0.344 66.595 0.099 48.701 0.093 -132.651 0.926 -21.681
          0.099 48.701 0.344 66.595 0.926 -21.681 0.093 -132.651
650.376 0.094 -133.042 0.925 -21.867 0.347 66.397 0.1 48.344
          0.925 -21.867 0.094 -133.042 0.1 48.344 0.347 66.397
          0.347 66.397 0.1 48.344 0.094 -133.042 0.925 -21.867
          0.1 48.344 0.347 66.397 0.925 -21.867 0.094 -133.042
656.642 0.095 -133.433 0.924 -22.053 0.35 66.199 0.101 47.989
          0.924 -22.053 0.095 -133.433 0.101 47.989 0.35 66.199
          0.35 66.199 0.101 47.989 0.095 -133.433 0.924 -22.053
          0.101 47.989 0.35 66.199 0.924 -22.053 0.095 -133.433
662.907 0.095 -133.822 0.923 -22.238 0.353 66.002 0.101 47.635
          0.923 -22.238 0.095 -133.822 0.101 47.635 0.353 66.002
          0.353 66.002 0.101 47.635 0.095 -133.822 0.923 -22.238
          0.101 47.635 0.353 66.002 0.923 -22.238 0.095 -133.822
669.173 0.096 -134.21 0.921 -22.423 0.356 65.806 0.102 47.281
          0.921 -22.423 0.096 -134.21 0.102 47.281 0.356 65.806
          0.356 65.806 0.102 47.281 0.096 -134.21 0.921 -22.423
          0.102 47.281 0.356 65.806 0.921 -22.423 0.096 -134.21
675.439 0.097 -134.597 0.92 -22.607 0.358 65.61 0.103 46.929
          0.92 -22.607 0.097 -134.597 0.103 46.929 0.358 65.61
          0.358 65.61 0.103 46.929 0.097 -134.597 0.92 -22.607
          0.103 46.929 0.358 65.61 0.92 -22.607 0.097 -134.597
681.704 0.097 -134.983 0.919 -22.79 0.361 65.416 0.103 46.578
          0.919 -22.79 0.097 -134.983 0.103 46.578 0.361 65.416
          0.361 65.416 0.103 46.578 0.097 -134.983 0.919 -22.79
          0.103 46.578 0.361 65.416 0.919 -22.79 0.097 -134.983
687.97 0.098 -135.367 0.918 -22.973 0.364 65.221 0.104 46.228
          0.918 -22.973 0.098 -135.367 0.104 46.228 0.364 65.221
          0.364 65.221 0.104 46.228 0.098 -135.367 0.918 -22.973
          0.104 46.228 0.364 65.221 0.918 -22.973 0.098 -135.367
694.236 0.099 -135.75 0.917 -23.156 0.367 65.028 0.105 45.879
          0.917 -23.156 0.099 -135.75 0.105 45.879 0.367 65.028
          0.367 65.028 0.105 45.879 0.099 -135.75 0.917 -23.156
          0.105 45.879 0.367 65.028 0.917 -23.156 0.099 -135.75
700.501 0.099 -136.132 0.915 -23.338 0.369 64.835 0.105 45.531
          0.915 -23.338 0.099 -136.132 0.105 45.531 0.369 64.835
          0.369 64.835 0.105 45.531 0.099 -136.132 0.915 -23.338
          0.105 45.531 0.369 64.835 0.915 -23.338 0.099 -136.132
706.767 0.1 -136.513 0.914 -23.519 0.372 64.643 0.106 45.185
          0.914 -23.519 0.1 -136.513 0.106 45.185 0.372 64.643
          0.372 64.643 0.106 45.185 0.1 -136.513 0.914 -23.519
          0.106 45.185 0.372 64.643 0.914 -23.519 0.1 -136.513
713.033 0.1 -136.892 0.913 -23.699 0.375 64.452 0.106 44.839
          0.913 -23.699 0.1 -136.892 0.106 44.839 0.375 64.452
          0.375 64.452 0.106 44.839 0.1 -136.892 0.913 -23.699
          0.106 44.839 0.375 64.452 0.913 -23.699 0.1 -136.892
719.298 0.101 -137.27 0.912 -23.879 0.377 64.261 0.107 44.495
          0.912 -23.879 0.101 -137.27 0.107 44.495 0.377 64.261
          0.377 64.261 0.107 44.495 0.101 -137.27 0.912 -23.879
          0.107 44.495 0.377 64.261 0.912 -23.879 0.101 -137.27
725.564 0.102 -137.647 0.91 -24.059 0.38 64.071 0.108 44.151
          0.91 -24.059 0.102 -137.647 0.108 44.151 0.38 64.071
          0.38 64.071 0.108 44.151 0.102 -137.647 0.91 -24.059
          0.108 44.151 0.38 64.071 0.91 -24.059 0.102 -137.647
731.83 0.102 -138.023 0.909 -24.238 0.383 63.882 0.108 43.809
          0.909 -24.238 0.102 -138.023 0.108 43.809 0.383 63.882
          0.383 63.882 0.108 43.809 0.102 -138.023 0.909 -24.238
          0.108 43.809 0.383 63.882 0.909 -24.238 0.102 -138.023
738.095 0.103 -138.398 0.908 -24.416 0.385 63.693 0.109 43.468
          0.908 -24.416 0.103 -138.398 0.109 43.468 0.385 63.693
          0.385 63.693 0.109 43.468 0.103 -138.398 0.908 -24.416
          0.109 43.468 0.385 63.693 0.908 -24.416 0.103 -138.398
744.361 0.103 -138.771 0.907 -24.594 0.388 63.505 0.109 43.128
          0.907 -24.594 0.103 -138.771 0.109 43.128 0.388 63.505
          0.388 63.505 0.109 43.128 0.103 -138.771 0.907 -24.594
          0.109 43.128 0.388 63.505 0.907 -24.594 0.103 -138.771
750.627 0.104 -139.144 0.905 -24.771 0.391 63.318 0.11 42.789
          0.905 -24.771 0.104 -139.144 0.11 42.789 0.391 63.318
          0.391 63.318 0.11 42.789 0.104 -139.144 0.905 -24.771
          0.11 42.789 0.391 63.318 0.905 -24.771 0.104 -139.144
756.892 0.104 -139.515 0.904 -24.948 0.393 63.131 0.111 42.451
          0.904 -24.948 0.104 -139.515 0.111 42.451 0.393 63.131
          0.393 63.131 0.111 42.451 0.104 -139.515 0.904 -24.948
          0.111 42.451 0.393 63.131 0.904 -24.948 0.104 -139.515
763.158 0.105 -139.884 0.903 -25.124 0.396 62.945 0.111 42.115
          0.903 -25.124 0.105 -139.884 0.111 42.115 0.396 62.945
          0.396 62.945 0.111 42.115 0.105 -139.884 0.903 -25.124
          0.111 42.115 0.396 62.945 0.903 -25.124 0.105 -139.884
769.424 0.105 -140.253 0.902 -25.299 0.398 62.76 0.112 41.779
          0.902 -25.299 0.105 -140.253 0.112 41.779 0.398 62.76
          0.398 62.76 0.112 41.779 0.105 -140.253 0.902 -25.299
          0.112 41.779 0.398 62.76 0.902 -25.299 0.105 -140.253
775.689 0.106 -140.62 0.9 -25.474 0.401 62.576 0.112 41.445
          0.9 -25.474 0.106 -140.62 0.112 41.445 0.401 62.576
          0.401 62.576 0.112 41.445 0.106 -140.62 0.9 -25.474
          0.112 41.445 0.401 62.576 0.9 -25.474 0.106 -140.62
781.955 0.107 -140.987 0.899 -25.648 0.403 62.392 0.113 41.111
          0.899 -25.648 0.107 -140.987 0.113 41.111 0.403 62.392
          0.403 62.392 0.113 41.111 0.107 -140.987 0.899 -25.648
          0.113 41.111 0.403 62.392 0.899 -25.648 0.107 -140.987
788.221 0.107 -141.352 0.898 -25.822 0.406 62.209 0.113 40.779
          0.898 -25.822 0.107 -141.352 0.113 40.779 0.406 62.209
          0.406 62.209 0.113 40.779 0.107 -141.352 0.898 -25.822
          0.113 40.779 0.406 62.209 0.898 -25.822 0.107 -141.352
794.486 0.108 -141.716 0.897 -25.995 0.408 62.026 0.114 40.448
          0.897 -25.995 0.108 -141.716 0.114 40.448 0.408 62.026
          0.408 62.026 0.114 40.448 0.108 -141.716 0.897 -25.995
          0.114 40.448 0.408 62.026 0.897 -25.995 0.108 -141.716
800.752 0.108 -142.078 0.895 -26.167 0.411 61.845 0.114 40.118
          0.895 -26.167 0.108 -142.078 0.114 40.118 0.411 61.845
          0.411 61.845 0.114 40.118 0.108 -142.078 0.895 -26.167
          0.114 40.118 0.411 61.845 0.895 -26.167 0.108 -142.078
807.018 0.109 -142.44 0.894 -26.339 0.413 61.663 0.115 39.79
          0.894 -26.339 0.109 -142.44 0.115 39.79 0.413 61.663
          0.413 61.663 0.115 39.79 0.109 -142.44 0.894 -26.339
          0.115 39.79 0.413 61.663 0.894 -26.339 0.109 -142.44
813.283 0.109 -142.8 0.893 -26.511 0.416 61.483 0.116 39.462
          0.893 -26.511 0.109 -142.8 0.116 39.462 0.416 61.483
          0.416 61.483 0.116 39.462 0.109 -142.8 0.893 -26.511
          0.116 39.462 0.416 61.483 0.893 -26.511 0.109 -142.8
819.549 0.11 -143.159 0.891 -26.682 0.418 61.303 0.116 39.135
          0.891 -26.682 0.11 -143.159 0.116 39.135 0.418 61.303
          0.418 61.303 0.116 39.135 0.11 -143.159 0.891 -26.682
          0.116 39.135 0.418 61.303 0.891 -26.682 0.11 -143.159
825.815 0.11 -143.517 0.89 -26.852 0.421 61.124 0.117 38.81
          0.89 -26.852 0.11 -143.517 0.117 38.81 0.421 61.124
          0.421 61.124 0.117 38.81 0.11 -143.517 0.89 -26.852
          0.117 38.81 0.421 61.124 0.89 -26.852 0.11 -143.517
832.08 0.111 -143.874 0.889 -27.022 0.423 60.946 0.117 38.486
          0.889 -27.022 0.111 -143.874 0.117 38.486 0.423 60.946
          0.423 60.946 0.117 38.486 0.111 -143.874 0.889 -27.022
          0.117 38.486 0.423 60.946 0.889 -27.022 0.111 -143.874
838.346 0.111 -144.23 0.888 -27.191 0.426 60.768 0.118 38.162
          0.888 -27.191 0.111 -144.23 0.118 38.162 0.426 60.768
          0.426 60.768 0.118 38.162 0.111 -144.23 0.888 -27.191
          0.118 38.162 0.426 60.768 0.888 -27.191 0.111 -144.23
844.612 0.112 -144.584 0.886 -27.359 0.428 60.591 0.118 37.84
          0.886 -27.359 0.112 -144.584 0.118 37.84 0.428 60.591
          0.428 60.591 0.118 37.84 0.112 -144.584 0.886 -27.359
          0.118 37.84 0.428 60.591 0.886 -27.359 0.112 -144.584
850.877 0.112 -144.938 0.885 -27.527 0.431 60.415 0.119 37.52
          0.885 -27.527 0.112 -144.938 0.119 37.52 0.431 60.415
          0.431 60.415 0.119 37.52 0.112 -144.938 0.885 -27.527
          0.119 37.52 0.431 60.415 0.885 -27.527 0.112 -144.938
857.143 0.112 -145.29 0.884 -27.695 0.433 60.239 0.119 37.2
          0.884 -27.695 0.112 -145.29 0.119 37.2 0.433 60.239
          0.433 60.239 0.119 37.2 0.112 -145.29 0.884 -27.695
          0.119 37.2 0.433 60.239 0.884 -27.695 0.112 -145.29
863.409 0.113 -145.641 0.882 -27.861 0.435 60.064 0.119 36.881
          0.882 -27.861 0.113 -145.641 0.119 36.881 0.435 60.064
          0.435 60.064 0.119 36.881 0.113 -145.641 0.882 -27.861
          0.119 36.881 0.435 60.064 0.882 -27.861 0.113 -145.641
869.674 0.113 -145.991 0.881 -28.028 0.438 59.89 0.12 36.564
          0.881 -28.028 0.113 -145.991 0.12 36.564 0.438 59.89
          0.438 59.89 0.12 36.564 0.113 -145.991 0.881 -28.028
          0.12 36.564 0.438 59.89 0.881 -28.028 0.113 -145.991
875.94 0.114 -146.339 0.88 -28.193 0.44 59.716 0.12 36.247
          0.88 -28.193 0.114 -146.339 0.12 36.247 0.44 59.716
          0.44 59.716 0.12 36.247 0.114 -146.339 0.88 -28.193
          0.12 36.247 0.44 59.716 0.88 -28.193 0.114 -146.339
882.206 0.114 -146.687 0.878 -28.359 0.442 59.543 0.121 35.932
          0.878 -28.359 0.114 -146.687 0.121 35.932 0.442 59.543
          0.442 59.543 0.121 35.932 0.114 -146.687 0.878 -28.359
          0.121 35.932 0.442 59.543 0.878 -28.359 0.114 -146.687
888.471 0.115 -147.033 0.877 -28.523 0.445 59.371 0.121 35.618
          0.877 -28.523 0.115 -147.033 0.121 35.618 0.445 59.371
          0.445 59.371 0.121 35.618 0.115 -147.033 0.877 -28.523
          0.121 35.618 0.445 59.371 0.877 -28.523 0.115 -147.033
894.737 0.115 -147.379 0.876 -28.687 0.447 59.199 0.122 35.305
          0.876 -28.687 0.115 -147.379 0.122 35.305 0.447 59.199
          0.447 59.199 0.122 35.305 0.115 -147.379 0.876 -28.687
          0.122 35.305 0.447 59.199 0.876 -28.687 0.115 -147.379
901.003 0.116 -147.723 0.875 -28.851 0.449 59.028 0.122 34.993
          0.875 -28.851 0.116 -147.723 0.122 34.993 0.449 59.028
          0.449 59.028 0.122 34.993 0.116 -147.723 0.875 -28.851
          0.122 34.993 0.449 59.028 0.875 -28.851 0.116 -147.723
907.268 0.116 -148.066 0.873 -29.014 0.452 58.858 0.123 34.682
          0.873 -29.014 0.116 -148.066 0.123 34.682 0.452 58.858
          0.452 58.858 0.123 34.682 0.116 -148.066 0.873 -29.014
          0.123 34.682 0.452 58.858 0.873 -29.014 0.116 -148.066
913.534 0.116 -148.408 0.872 -29.176 0.454 58.688 0.123 34.372
          0.872 -29.176 0.116 -148.408 0.123 34.372 0.454 58.688
          0.454 58.688 0.123 34.372 0.116 -148.408 0.872 -29.176
          0.123 34.372 0.454 58.688 0.872 -29.176 0.116 -148.408
919.799 0.117 -148.748 0.871 -29.338 0.456 58.519 0.123 34.064
          0.871 -29.338 0.117 -148.748 0.123 34.064 0.456 58.519
          0.456 58.519 0.123 34.064 0.117 -148.748 0.871 -29.338
          0.123 34.064 0.456 58.519 0.871 -29.338 0.117 -148.748
926.065 0.117 -149.088 0.869 -29.499 0.459 58.351 0.124 33.756
          0.869 -29.499 0.117 -149.088 0.124 33.756 0.459 58.351
          0.459 58.351 0.124 33.756 0.117 -149.088 0.869 -29.499
          0.124 33.756 0.459 58.351 0.869 -29.499 0.117 -149.088
932.331 0.118 -149.426 0.868 -29.66 0.461 58.183 0.124 33.45
          0.868 -29.66 0.118 -149.426 0.124 33.45 0.461 58.183
          0.461 58.183 0.124 33.45 0.118 -149.426 0.868 -29.66
          0.124 33.45 0.461 58.183 0.868 -29.66 0.118 -149.426
938.596 0.118 -149.764 0.867 -29.82 0.463 58.016 0.125 33.145
          0.867 -29.82 0.118 -149.764 0.125 33.145 0.463 58.016
          0.463 58.016 0.125 33.145 0.118 -149.764 0.867 -29.82
          0.125 33.145 0.463 58.016 0.867 -29.82 0.118 -149.764
944.862 0.118 -150.1 0.865 -29.98 0.465 57.85 0.125 32.84
          0.865 -29.98 0.118 -150.1 0.125 32.84 0.465 57.85
          0.465 57.85 0.125 32.84 0.118 -150.1 0.865 -29.98
          0.125 32.84 0.465 57.85 0.865 -29.98 0.118 -150.1
951.128 0.119 -150.435 0.864 -30.139 0.468 57.684 0.125 32.537
          0.864 -30.139 0.119 -150.435 0.125 32.537 0.468 57.684
          0.468 57.684 0.125 32.537 0.119 -150.435 0.864 -30.139
          0.125 32.537 0.468 57.684 0.864 -30.139 0.119 -150.435
957.393 0.119 -150.769 0.863 -30.298 0.47 57.519 0.126 32.236
          0.863 -30.298 0.119 -150.769 0.126 32.236 0.47 57.519
          0.47 57.519 0.126 32.236 0.119 -150.769 0.863 -30.298
          0.126 32.236 0.47 57.519 0.863 -30.298 0.119 -150.769
963.659 0.12 -151.102 0.861 -30.456 0.472 57.354 0.126 31.935
          0.861 -30.456 0.12 -151.102 0.126 31.935 0.472 57.354
          0.472 57.354 0.126 31.935 0.12 -151.102 0.861 -30.456
          0.126 31.935 0.472 57.354 0.861 -30.456 0.12 -151.102
969.925 0.12 -151.434 0.86 -30.613 0.474 57.19 0.127 31.635
          0.86 -30.613 0.12 -151.434 0.127 31.635 0.474 57.19
          0.474 57.19 0.127 31.635 0.12 -151.434 0.86 -30.613
          0.127 31.635 0.474 57.19 0.86 -30.613 0.12 -151.434
976.19 0.12 -151.765 0.859 -30.77 0.476 57.027 0.127 31.337
          0.859 -30.77 0.12 -151.765 0.127 31.337 0.476 57.027
          0.476 57.027 0.127 31.337 0.12 -151.765 0.859 -30.77
          0.127 31.337 0.476 57.027 0.859 -30.77 0.12 -151.765
982.456 0.121 -152.094 0.857 -30.927 0.478 56.865 0.127 31.039
          0.857 -30.927 0.121 -152.094 0.127 31.039 0.478 56.865
          0.478 56.865 0.127 31.039 0.121 -152.094 0.857 -30.927
