!	AVX THIN FILM OPERATION
!	
!	0805 SIZE 3dB 90deg COUPLER P/N DB0805A0880AWTR
!
!	Created March 23 2003
!						
!	Network Analyzer HP8720E S.07.64: Feb23, 2000 Serial No.US39172382		
!	
#	MHZ	S	MA	R	50					


500 0.116 -152.582 0.85 -30.903 0.494 57.105 0.122 29.706
          0.85 -30.903 0.116 -152.582 0.122 29.706 0.494 57.105
          0.494 57.105 0.122 29.706 0.116 -152.582 0.85 -30.903
          0.122 29.706 0.494 57.105 0.85 -30.903 0.116 -152.582
506.266 0.117 -153.224 0.848 -31.205 0.498 56.792 0.122 29.113
          0.848 -31.205 0.117 -153.224 0.122 29.113 0.498 56.792
          0.498 56.792 0.122 29.113 0.117 -153.224 0.848 -31.205
          0.122 29.113 0.498 56.792 0.848 -31.205 0.117 -153.224
512.531 0.118 -153.863 0.845 -31.506 0.502 56.481 0.123 28.523
          0.845 -31.506 0.118 -153.863 0.123 28.523 0.502 56.481
          0.502 56.481 0.123 28.523 0.118 -153.863 0.845 -31.506
          0.123 28.523 0.502 56.481 0.845 -31.506 0.118 -153.863
518.797 0.118 -154.497 0.842 -31.804 0.506 56.172 0.123 27.938
          0.842 -31.804 0.118 -154.497 0.123 27.938 0.506 56.172
          0.506 56.172 0.123 27.938 0.118 -154.497 0.842 -31.804
          0.123 27.938 0.506 56.172 0.842 -31.804 0.118 -154.497
525.063 0.119 -155.127 0.839 -32.1 0.511 55.866 0.124 27.357
          0.839 -32.1 0.119 -155.127 0.124 27.357 0.511 55.866
          0.511 55.866 0.124 27.357 0.119 -155.127 0.839 -32.1
          0.124 27.357 0.511 55.866 0.839 -32.1 0.119 -155.127
531.328 0.12 -155.752 0.837 -32.394 0.515 55.563 0.125 26.781
          0.837 -32.394 0.12 -155.752 0.125 26.781 0.515 55.563
          0.515 55.563 0.125 26.781 0.12 -155.752 0.837 -32.394
          0.125 26.781 0.515 55.563 0.837 -32.394 0.12 -155.752
537.594 0.12 -156.373 0.834 -32.686 0.519 55.261 0.125 26.208
          0.834 -32.686 0.12 -156.373 0.125 26.208 0.519 55.261
          0.519 55.261 0.125 26.208 0.12 -156.373 0.834 -32.686
          0.125 26.208 0.519 55.261 0.834 -32.686 0.12 -156.373
543.86 0.121 -156.989 0.831 -32.976 0.523 54.963 0.126 25.64
          0.831 -32.976 0.121 -156.989 0.126 25.64 0.523 54.963
          0.523 54.963 0.126 25.64 0.121 -156.989 0.831 -32.976
          0.126 25.64 0.523 54.963 0.831 -32.976 0.121 -156.989
550.125 0.121 -157.602 0.829 -33.264 0.527 54.666 0.126 25.077
          0.829 -33.264 0.121 -157.602 0.126 25.077 0.527 54.666
          0.527 54.666 0.126 25.077 0.121 -157.602 0.829 -33.264
          0.126 25.077 0.527 54.666 0.829 -33.264 0.121 -157.602
556.391 0.122 -158.21 0.826 -33.55 0.531 54.372 0.127 24.517
          0.826 -33.55 0.122 -158.21 0.127 24.517 0.531 54.372
          0.531 54.372 0.127 24.517 0.122 -158.21 0.826 -33.55
          0.127 24.517 0.531 54.372 0.826 -33.55 0.122 -158.21
562.657 0.122 -158.814 0.823 -33.834 0.535 54.08 0.127 23.962
          0.823 -33.834 0.122 -158.814 0.127 23.962 0.535 54.08
          0.535 54.08 0.127 23.962 0.122 -158.814 0.823 -33.834
          0.127 23.962 0.535 54.08 0.823 -33.834 0.122 -158.814
568.922 0.123 -159.413 0.821 -34.115 0.539 53.79 0.128 23.41
          0.821 -34.115 0.123 -159.413 0.128 23.41 0.539 53.79
          0.539 53.79 0.128 23.41 0.123 -159.413 0.821 -34.115
          0.128 23.41 0.539 53.79 0.821 -34.115 0.123 -159.413
575.188 0.123 -160.009 0.818 -34.395 0.543 53.503 0.128 22.863
          0.818 -34.395 0.123 -160.009 0.128 22.863 0.543 53.503
          0.543 53.503 0.128 22.863 0.123 -160.009 0.818 -34.395
          0.128 22.863 0.543 53.503 0.818 -34.395 0.123 -160.009
581.454 0.124 -160.6 0.815 -34.673 0.547 53.218 0.129 22.32
          0.815 -34.673 0.124 -160.6 0.129 22.32 0.547 53.218
          0.547 53.218 0.129 22.32 0.124 -160.6 0.815 -34.673
          0.129 22.32 0.547 53.218 0.815 -34.673 0.124 -160.6
587.719 0.124 -161.187 0.812 -34.949 0.55 52.935 0.129 21.781
          0.812 -34.949 0.124 -161.187 0.129 21.781 0.55 52.935
          0.55 52.935 0.129 21.781 0.124 -161.187 0.812 -34.949
          0.129 21.781 0.55 52.935 0.812 -34.949 0.124 -161.187
593.985 0.125 -161.77 0.81 -35.223 0.554 52.654 0.129 21.246
          0.81 -35.223 0.125 -161.77 0.129 21.246 0.554 52.654
          0.554 52.654 0.129 21.246 0.125 -161.77 0.81 -35.223
          0.129 21.246 0.554 52.654 0.81 -35.223 0.125 -161.77
600.251 0.125 -162.349 0.807 -35.495 0.558 52.376 0.13 20.716
          0.807 -35.495 0.125 -162.349 0.13 20.716 0.558 52.376
          0.558 52.376 0.13 20.716 0.125 -162.349 0.807 -35.495
          0.13 20.716 0.558 52.376 0.807 -35.495 0.125 -162.349
606.516 0.126 -162.924 0.804 -35.765 0.561 52.1 0.13 20.189
          0.804 -35.765 0.126 -162.924 0.13 20.189 0.561 52.1
          0.561 52.1 0.13 20.189 0.126 -162.924 0.804 -35.765
          0.13 20.189 0.561 52.1 0.804 -35.765 0.126 -162.924
612.782 0.126 -163.495 0.802 -36.034 0.565 51.826 0.131 19.666
          0.802 -36.034 0.126 -163.495 0.131 19.666 0.565 51.826
          0.565 51.826 0.131 19.666 0.126 -163.495 0.802 -36.034
          0.131 19.666 0.565 51.826 0.802 -36.034 0.126 -163.495
619.048 0.126 -164.062 0.799 -36.3 0.569 51.554 0.131 19.147
          0.799 -36.3 0.126 -164.062 0.131 19.147 0.569 51.554
          0.569 51.554 0.131 19.147 0.126 -164.062 0.799 -36.3
          0.131 19.147 0.569 51.554 0.799 -36.3 0.126 -164.062
625.313 0.127 -164.625 0.796 -36.565 0.572 51.284 0.131 18.633
          0.796 -36.565 0.127 -164.625 0.131 18.633 0.572 51.284
          0.572 51.284 0.131 18.633 0.127 -164.625 0.796 -36.565
          0.131 18.633 0.572 51.284 0.796 -36.565 0.127 -164.625
631.579 0.127 -165.184 0.794 -36.827 0.576 51.016 0.132 18.122
          0.794 -36.827 0.127 -165.184 0.132 18.122 0.576 51.016
          0.576 51.016 0.132 18.122 0.127 -165.184 0.794 -36.827
          0.132 18.122 0.576 51.016 0.794 -36.827 0.127 -165.184
637.845 0.127 -165.739 0.791 -37.088 0.579 50.75 0.132 17.615
          0.791 -37.088 0.127 -165.739 0.132 17.615 0.579 50.75
          0.579 50.75 0.132 17.615 0.127 -165.739 0.791 -37.088
          0.132 17.615 0.579 50.75 0.791 -37.088 0.127 -165.739
644.11 0.128 -166.29 0.788 -37.347 0.583 50.487 0.132 17.112
          0.788 -37.347 0.128 -166.29 0.132 17.112 0.583 50.487
          0.583 50.487 0.132 17.112 0.128 -166.29 0.788 -37.347
          0.132 17.112 0.583 50.487 0.788 -37.347 0.128 -166.29
650.376 0.128 -166.838 0.786 -37.605 0.586 50.225 0.132 16.613
          0.786 -37.605 0.128 -166.838 0.132 16.613 0.586 50.225
          0.586 50.225 0.132 16.613 0.128 -166.838 0.786 -37.605
          0.132 16.613 0.586 50.225 0.786 -37.605 0.128 -166.838
656.642 0.128 -167.381 0.783 -37.86 0.589 49.966 0.133 16.117
          0.783 -37.86 0.128 -167.381 0.133 16.117 0.589 49.966
          0.589 49.966 0.133 16.117 0.128 -167.381 0.783 -37.86
          0.133 16.117 0.589 49.966 0.783 -37.86 0.128 -167.381
662.907 0.129 -167.921 0.781 -38.114 0.593 49.708 0.133 15.626
          0.781 -38.114 0.129 -167.921 0.133 15.626 0.593 49.708
          0.593 49.708 0.133 15.626 0.129 -167.921 0.781 -38.114
          0.133 15.626 0.593 49.708 0.781 -38.114 0.129 -167.921
669.173 0.129 -168.457 0.778 -38.366 0.596 49.453 0.133 15.138
          0.778 -38.366 0.129 -168.457 0.133 15.138 0.596 49.453
          0.596 49.453 0.133 15.138 0.129 -168.457 0.778 -38.366
          0.133 15.138 0.596 49.453 0.778 -38.366 0.129 -168.457
675.439 0.129 -168.99 0.775 -38.616 0.599 49.199 0.133 14.654
          0.775 -38.616 0.129 -168.99 0.133 14.654 0.599 49.199
          0.599 49.199 0.133 14.654 0.129 -168.99 0.775 -38.616
          0.133 14.654 0.599 49.199 0.775 -38.616 0.129 -168.99
681.704 0.129 -169.518 0.773 -38.865 0.603 48.948 0.134 14.174
          0.773 -38.865 0.129 -169.518 0.134 14.174 0.603 48.948
          0.603 48.948 0.134 14.174 0.129 -169.518 0.773 -38.865
          0.134 14.174 0.603 48.948 0.773 -38.865 0.129 -169.518
687.97 0.13 -170.043 0.77 -39.112 0.606 48.698 0.134 13.697
          0.77 -39.112 0.13 -170.043 0.134 13.697 0.606 48.698
          0.606 48.698 0.134 13.697 0.13 -170.043 0.77 -39.112
          0.134 13.697 0.606 48.698 0.77 -39.112 0.13 -170.043
694.236 0.13 -170.565 0.768 -39.357 0.609 48.45 0.134 13.224
          0.768 -39.357 0.13 -170.565 0.134 13.224 0.609 48.45
          0.609 48.45 0.134 13.224 0.13 -170.565 0.768 -39.357
          0.134 13.224 0.609 48.45 0.768 -39.357 0.13 -170.565
700.501 0.13 -171.083 0.765 -39.6 0.612 48.204 0.134 12.755
          0.765 -39.6 0.13 -171.083 0.134 12.755 0.612 48.204
          0.612 48.204 0.134 12.755 0.13 -171.083 0.765 -39.6
          0.134 12.755 0.612 48.204 0.765 -39.6 0.13 -171.083
706.767 0.13 -171.597 0.763 -39.842 0.615 47.96 0.134 12.289
          0.763 -39.842 0.13 -171.597 0.134 12.289 0.615 47.96
          0.615 47.96 0.134 12.289 0.13 -171.597 0.763 -39.842
          0.134 12.289 0.615 47.96 0.763 -39.842 0.13 -171.597
713.033 0.131 -172.107 0.76 -40.082 0.618 47.718 0.135 11.827
          0.76 -40.082 0.131 -172.107 0.135 11.827 0.618 47.718
          0.618 47.718 0.135 11.827 0.131 -172.107 0.76 -40.082
          0.135 11.827 0.618 47.718 0.76 -40.082 0.131 -172.107
719.298 0.131 -172.615 0.758 -40.321 0.621 47.478 0.135 11.369
          0.758 -40.321 0.131 -172.615 0.135 11.369 0.621 47.478
          0.621 47.478 0.135 11.369 0.131 -172.615 0.758 -40.321
          0.135 11.369 0.621 47.478 0.758 -40.321 0.131 -172.615
725.564 0.131 -173.118 0.755 -40.558 0.624 47.239 0.135 10.914
          0.755 -40.558 0.131 -173.118 0.135 10.914 0.624 47.239
          0.624 47.239 0.135 10.914 0.131 -173.118 0.755 -40.558
          0.135 10.914 0.624 47.239 0.755 -40.558 0.131 -173.118
731.83 0.131 -173.618 0.752 -40.793 0.627 47.002 0.135 10.463
          0.752 -40.793 0.131 -173.618 0.135 10.463 0.627 47.002
          0.627 47.002 0.135 10.463 0.131 -173.618 0.752 -40.793
          0.135 10.463 0.627 47.002 0.752 -40.793 0.131 -173.618
738.095 0.131 -174.115 0.75 -41.027 0.63 46.767 0.135 10.015
          0.75 -41.027 0.131 -174.115 0.135 10.015 0.63 46.767
          0.63 46.767 0.135 10.015 0.131 -174.115 0.75 -41.027
          0.135 10.015 0.63 46.767 0.75 -41.027 0.131 -174.115
744.361 0.131 -174.608 0.747 -41.259 0.633 46.534 0.135 9.571
          0.747 -41.259 0.131 -174.608 0.135 9.571 0.633 46.534
          0.633 46.534 0.135 9.571 0.131 -174.608 0.747 -41.259
          0.135 9.571 0.633 46.534 0.747 -41.259 0.131 -174.608
750.627 0.132 -175.098 0.745 -41.49 0.636 46.303 0.135 9.13
          0.745 -41.49 0.132 -175.098 0.135 9.13 0.636 46.303
          0.636 46.303 0.135 9.13 0.132 -175.098 0.745 -41.49
          0.135 9.13 0.636 46.303 0.745 -41.49 0.132 -175.098
756.892 0.132 -175.585 0.742 -41.719 0.639 46.073 0.135 8.693
          0.742 -41.719 0.132 -175.585 0.135 8.693 0.639 46.073
          0.639 46.073 0.135 8.693 0.132 -175.585 0.742 -41.719
          0.135 8.693 0.639 46.073 0.742 -41.719 0.132 -175.585
763.158 0.132 -176.068 0.74 -41.947 0.642 45.845 0.135 8.259
          0.74 -41.947 0.132 -176.068 0.135 8.259 0.642 45.845
          0.642 45.845 0.135 8.259 0.132 -176.068 0.74 -41.947
          0.135 8.259 0.642 45.845 0.74 -41.947 0.132 -176.068
769.424 0.132 -176.548 0.738 -42.173 0.644 45.618 0.135 7.828
          0.738 -42.173 0.132 -176.548 0.135 7.828 0.644 45.618
          0.644 45.618 0.135 7.828 0.132 -176.548 0.738 -42.173
          0.135 7.828 0.644 45.618 0.738 -42.173 0.132 -176.548
775.689 0.132 -177.025 0.735 -42.398 0.647 45.394 0.135 7.401
          0.735 -42.398 0.132 -177.025 0.135 7.401 0.647 45.394
          0.647 45.394 0.135 7.401 0.132 -177.025 0.735 -42.398
          0.135 7.401 0.647 45.394 0.735 -42.398 0.132 -177.025
781.955 0.132 -177.499 0.733 -42.621 0.65 45.171 0.135 6.977
          0.733 -42.621 0.132 -177.499 0.135 6.977 0.65 45.171
          0.65 45.171 0.135 6.977 0.132 -177.499 0.733 -42.621
          0.135 6.977 0.65 45.171 0.733 -42.621 0.132 -177.499
788.221 0.132 -177.969 0.73 -42.842 0.653 44.949 0.135 6.557
          0.73 -42.842 0.132 -177.969 0.135 6.557 0.653 44.949
          0.653 44.949 0.135 6.557 0.132 -177.969 0.73 -42.842
          0.135 6.557 0.653 44.949 0.73 -42.842 0.132 -177.969
794.486 0.132 -178.436 0.728 -43.062 0.655 44.73 0.135 6.139
          0.728 -43.062 0.132 -178.436 0.135 6.139 0.655 44.73
          0.655 44.73 0.135 6.139 0.132 -178.436 0.728 -43.062
          0.135 6.139 0.655 44.73 0.728 -43.062 0.132 -178.436
800.752 0.132 -178.9 0.725 -43.281 0.658 44.511 0.135 5.725
          0.725 -43.281 0.132 -178.9 0.135 5.725 0.658 44.511
          0.658 44.511 0.135 5.725 0.132 -178.9 0.725 -43.281
          0.135 5.725 0.658 44.511 0.725 -43.281 0.132 -178.9
807.018 0.132 -179.361 0.723 -43.499 0.661 44.295 0.135 5.314
          0.723 -43.499 0.132 -179.361 0.135 5.314 0.661 44.295
          0.661 44.295 0.135 5.314 0.132 -179.361 0.723 -43.499
          0.135 5.314 0.661 44.295 0.723 -43.499 0.132 -179.361
813.283 0.132 -179.819 0.721 -43.714 0.663 44.08 0.135 4.907
          0.721 -43.714 0.132 -179.819 0.135 4.907 0.663 44.08
          0.663 44.08 0.135 4.907 0.132 -179.819 0.721 -43.714
          0.135 4.907 0.663 44.08 0.721 -43.714 0.132 -179.819
819.549 0.133 179.727 0.718 -43.929 0.666 43.866 0.135 4.502
          0.718 -43.929 0.133 179.727 0.135 4.502 0.666 43.866
          0.666 43.866 0.135 4.502 0.133 179.727 0.718 -43.929
          0.135 4.502 0.666 43.866 0.718 -43.929 0.133 179.727
825.815 0.133 179.275 0.716 -44.142 0.668 43.654 0.135 4.101
          0.716 -44.142 0.133 179.275 0.135 4.101 0.668 43.654
          0.668 43.654 0.135 4.101 0.133 179.275 0.716 -44.142
          0.135 4.101 0.668 43.654 0.716 -44.142 0.133 179.275
832.08 0.133 178.826 0.714 -44.354 0.671 43.444 0.135 3.703
          0.714 -44.354 0.133 178.826 0.135 3.703 0.671 43.444
          0.671 43.444 0.135 3.703 0.133 178.826 0.714 -44.354
          0.135 3.703 0.671 43.444 0.714 -44.354 0.133 178.826
838.346 0.133 178.381 0.711 -44.564 0.673 43.235 0.135 3.308
          0.711 -44.564 0.133 178.381 0.135 3.308 0.673 43.235
          0.673 43.235 0.135 3.308 0.133 178.381 0.711 -44.564
          0.135 3.308 0.673 43.235 0.711 -44.564 0.133 178.381
844.612 0.133 177.938 0.709 -44.773 0.676 43.028 0.135 2.916
          0.709 -44.773 0.133 177.938 0.135 2.916 0.676 43.028
          0.676 43.028 0.135 2.916 0.133 177.938 0.709 -44.773
          0.135 2.916 0.676 43.028 0.709 -44.773 0.133 177.938
850.877 0.133 177.498 0.707 -44.981 0.678 42.822 0.135 2.527
          0.707 -44.981 0.133 177.498 0.135 2.527 0.678 42.822
          0.678 42.822 0.135 2.527 0.133 177.498 0.707 -44.981
          0.135 2.527 0.678 42.822 0.707 -44.981 0.133 177.498
857.143 0.133 177.061 0.704 -45.187 0.681 42.617 0.135 2.142
          0.704 -45.187 0.133 177.061 0.135 2.142 0.681 42.617
          0.681 42.617 0.135 2.142 0.133 177.061 0.704 -45.187
          0.135 2.142 0.681 42.617 0.704 -45.187 0.133 177.061
863.409 0.133 176.627 0.702 -45.392 0.683 42.414 0.135 1.759
          0.702 -45.392 0.133 176.627 0.135 1.759 0.683 42.414
          0.683 42.414 0.135 1.759 0.133 176.627 0.702 -45.392
          0.135 1.759 0.683 42.414 0.702 -45.392 0.133 176.627
869.674 0.133 176.196 0.7 -45.596 0.685 42.213 0.135 1.379
          0.7 -45.596 0.133 176.196 0.135 1.379 0.685 42.213
          0.685 42.213 0.135 1.379 0.133 176.196 0.7 -45.596
          0.135 1.379 0.685 42.213 0.7 -45.596 0.133 176.196
875.94 0.133 175.768 0.697 -45.798 0.688 42.013 0.135 1.002
          0.697 -45.798 0.133 175.768 0.135 1.002 0.688 42.013
          0.688 42.013 0.135 1.002 0.133 175.768 0.697 -45.798
          0.135 1.002 0.688 42.013 0.697 -45.798 0.133 175.768
882.206 0.133 175.342 0.695 -45.999 0.69 41.814 0.135 0.629
          0.695 -45.999 0.133 175.342 0.135 0.629 0.69 41.814
          0.69 41.814 0.135 0.629 0.133 175.342 0.695 -45.999
          0.135 0.629 0.69 41.814 0.695 -45.999 0.133 175.342
888.471 0.133 174.92 0.693 -46.199 0.692 41.617 0.135 0.258
          0.693 -46.199 0.133 174.92 0.135 0.258 0.692 41.617
          0.692 41.617 0.135 0.258 0.133 174.92 0.693 -46.199
          0.135 0.258 0.692 41.617 0.693 -46.199 0.133 174.92
894.737 0.133 174.5 0.691 -46.398 0.695 41.421 0.134 -0.11
          0.691 -46.398 0.133 174.5 0.134 -0.11 0.695 41.421
          0.695 41.421 0.134 -0.11 0.133 174.5 0.691 -46.398
          0.134 -0.11 0.695 41.421 0.691 -46.398 0.133 174.5
901.003 0.133 174.083 0.688 -46.595 0.697 41.226 0.134 -0.475
          0.688 -46.595 0.133 174.083 0.134 -0.475 0.697 41.226
          0.697 41.226 0.134 -0.475 0.133 174.083 0.688 -46.595
          0.134 -0.475 0.697 41.226 0.688 -46.595 0.133 174.083
907.268 0.132 173.668 0.686 -46.791 0.699 41.033 0.134 -0.838
          0.686 -46.791 0.132 173.668 0.134 -0.838 0.699 41.033
          0.699 41.033 0.134 -0.838 0.132 173.668 0.686 -46.791
          0.134 -0.838 0.699 41.033 0.686 -46.791 0.132 173.668
913.534 0.132 173.256 0.684 -46.986 0.701 40.841 0.134 -1.197
          0.684 -46.986 0.132 173.256 0.134 -1.197 0.701 40.841
          0.701 40.841 0.134 -1.197 0.132 173.256 0.684 -46.986
          0.134 -1.197 0.701 40.841 0.684 -46.986 0.132 173.256
919.799 0.132 172.847 0.682 -47.18 0.703 40.65 0.134 -1.553
          0.682 -47.18 0.132 172.847 0.134 -1.553 0.703 40.65
          0.703 40.65 0.134 -1.553 0.132 172.847 0.682 -47.18
          0.134 -1.553 0.703 40.65 0.682 -47.18 0.132 172.847
926.065 0.132 172.441 0.679 -47.372 0.706 40.461 0.134 -1.907
          0.679 -47.372 0.132 172.441 0.134 -1.907 0.706 40.461
          0.706 40.461 0.134 -1.907 0.132 172.441 0.679 -47.372
          0.134 -1.907 0.706 40.461 0.679 -47.372 0.132 172.441
932.331 0.132 172.037 0.677 -47.564 0.708 40.273 0.134 -2.258
          0.677 -47.564 0.132 172.037 0.134 -2.258 0.708 40.273
          0.708 40.273 0.134 -2.258 0.132 172.037 0.677 -47.564
          0.134 -2.258 0.708 40.273 0.677 -47.564 0.132 172.037
938.596 0.132 171.635 0.675 -47.754 0.71 40.086 0.134 -2.606
          0.675 -47.754 0.132 171.635 0.134 -2.606 0.71 40.086
          0.71 40.086 0.134 -2.606 0.132 171.635 0.675 -47.754
          0.134 -2.606 0.71 40.086 0.675 -47.754 0.132 171.635
944.862 0.132 171.236 0.673 -47.943 0.712 39.901 0.133 -2.952
          0.673 -47.943 0.132 171.236 0.133 -2.952 0.712 39.901
          0.712 39.901 0.133 -2.952 0.132 171.236 0.673 -47.943
          0.133 -2.952 0.712 39.901 0.673 -47.943 0.132 171.236
951.128 0.132 170.84 0.671 -48.13 0.714 39.717 0.133 -3.295
          0.671 -48.13 0.132 170.84 0.133 -3.295 0.714 39.717
          0.714 39.717 0.133 -3.295 0.132 170.84 0.671 -48.13
          0.133 -3.295 0.714 39.717 0.671 -48.13 0.132 170.84
957.393 0.132 170.446 0.669 -48.317 0.716 39.534 0.133 -3.635
          0.669 -48.317 0.132 170.446 0.133 -3.635 0.716 39.534
          0.716 39.534 0.133 -3.635 0.132 170.446 0.669 -48.317
          0.133 -3.635 0.716 39.534 0.669 -48.317 0.132 170.446
963.659 0.132 170.055 0.666 -48.502 0.718 39.352 0.133 -3.972
          0.666 -48.502 0.132 170.055 0.133 -3.972 0.718 39.352
          0.718 39.352 0.133 -3.972 0.132 170.055 0.666 -48.502
          0.133 -3.972 0.718 39.352 0.666 -48.502 0.132 170.055
969.925 0.132 169.666 0.664 -48.687 0.72 39.171 0.133 -4.307
          0.664 -48.687 0.132 169.666 0.133 -4.307 0.72 39.171
          0.72 39.171 0.133 -4.307 0.132 169.666 0.664 -48.687
          0.133 -4.307 0.72 39.171 0.664 -48.687 0.132 169.666
976.19 0.132 169.28 0.662 -48.87 0.722 38.992 0.132 -4.639
          0.662 -48.87 0.132 169.28 0.132 -4.639 0.722 38.992
          0.722 38.992 0.132 -4.639 0.132 169.28 0.662 -48.87
          0.132 -4.639 0.722 38.992 0.662 -48.87 0.132 169.28
982.456 0.132 168.896 0.66 -49.052 0.724 38.814 0.132 -4.968
          0.66 -49.052 0.132 168.896 0.132 -4.968 0.724 38.814
          0.724 38.814 0.132 -4.968 0.132 168.896 0.66 -49.052
          0.132 -4.968 0.724 38.814 0.66 -49.052 0.132 168.896
988.722 0.131 168.515 0.658 -49.233 0.726 38.637 0.132 -5.295
          0.658 -49.233 0.131 168.515 0.132 -5.295 0.726 38.637
