!	AVX THIN FILM OPERATION
!	
!	0805 SIZE 3dB 90deg COUPLER P/N DB0805A0915AWTR
!
!	Created March 23 2003
!						
!	Network Analyzer HP8720E S.07.64: Feb23, 2000 Serial No.US39172382		
!	
#	MHZ	S	MA	R	50					


500 0.105 -151.302 0.858 -30.333 0.485 58.018 0.11 31.159
          0.858 -30.333 0.105 -151.302 0.11 31.159 0.485 58.018
          0.485 58.018 0.11 31.159 0.105 -151.302 0.858 -30.333
          0.11 31.159 0.485 58.018 0.858 -30.333 0.105 -151.302
506.266 0.106 -151.944 0.856 -30.635 0.489 57.706 0.111 30.572
          0.856 -30.635 0.106 -151.944 0.111 30.572 0.489 57.706
          0.489 57.706 0.111 30.572 0.106 -151.944 0.856 -30.635
          0.111 30.572 0.489 57.706 0.856 -30.635 0.106 -151.944
512.531 0.106 -152.581 0.853 -30.936 0.493 57.396 0.111 29.988
          0.853 -30.936 0.106 -152.581 0.111 29.988 0.493 57.396
          0.493 57.396 0.111 29.988 0.106 -152.581 0.853 -30.936
          0.111 29.988 0.493 57.396 0.853 -30.936 0.106 -152.581
518.797 0.107 -153.214 0.851 -31.234 0.498 57.089 0.112 29.409
          0.851 -31.234 0.107 -153.214 0.112 29.409 0.498 57.089
          0.498 57.089 0.112 29.409 0.107 -153.214 0.851 -31.234
          0.112 29.409 0.498 57.089 0.851 -31.234 0.107 -153.214
525.063 0.107 -153.843 0.848 -31.53 0.502 56.784 0.113 28.833
          0.848 -31.53 0.107 -153.843 0.113 28.833 0.502 56.784
          0.502 56.784 0.113 28.833 0.107 -153.843 0.848 -31.53
          0.113 28.833 0.502 56.784 0.848 -31.53 0.107 -153.843
531.328 0.108 -154.468 0.845 -31.825 0.506 56.482 0.113 28.262
          0.845 -31.825 0.108 -154.468 0.113 28.262 0.506 56.482
          0.506 56.482 0.113 28.262 0.108 -154.468 0.845 -31.825
          0.113 28.262 0.506 56.482 0.845 -31.825 0.108 -154.468
537.594 0.109 -155.088 0.843 -32.117 0.51 56.181 0.114 27.695
          0.843 -32.117 0.109 -155.088 0.114 27.695 0.51 56.181
          0.51 56.181 0.114 27.695 0.109 -155.088 0.843 -32.117
          0.114 27.695 0.51 56.181 0.843 -32.117 0.109 -155.088
543.86 0.109 -155.705 0.84 -32.408 0.514 55.883 0.114 27.131
          0.84 -32.408 0.109 -155.705 0.114 27.131 0.514 55.883
          0.514 55.883 0.114 27.131 0.109 -155.705 0.84 -32.408
          0.114 27.131 0.514 55.883 0.84 -32.408 0.109 -155.705
550.125 0.11 -156.317 0.837 -32.696 0.518 55.587 0.115 26.572
          0.837 -32.696 0.11 -156.317 0.115 26.572 0.518 55.587
          0.518 55.587 0.115 26.572 0.11 -156.317 0.837 -32.696
          0.115 26.572 0.518 55.587 0.837 -32.696 0.11 -156.317
556.391 0.11 -156.925 0.835 -32.983 0.522 55.293 0.115 26.017
          0.835 -32.983 0.11 -156.925 0.115 26.017 0.522 55.293
          0.522 55.293 0.115 26.017 0.11 -156.925 0.835 -32.983
          0.115 26.017 0.522 55.293 0.835 -32.983 0.11 -156.925
562.657 0.111 -157.529 0.832 -33.267 0.526 55.001 0.116 25.466
          0.832 -33.267 0.111 -157.529 0.116 25.466 0.526 55.001
          0.526 55.001 0.116 25.466 0.111 -157.529 0.832 -33.267
          0.116 25.466 0.526 55.001 0.832 -33.267 0.111 -157.529
568.922 0.111 -158.129 0.829 -33.55 0.53 54.712 0.116 24.918
          0.829 -33.55 0.111 -158.129 0.116 24.918 0.53 54.712
          0.53 54.712 0.116 24.918 0.111 -158.129 0.829 -33.55
          0.116 24.918 0.53 54.712 0.829 -33.55 0.111 -158.129
575.188 0.112 -158.725 0.827 -33.831 0.534 54.425 0.117 24.375
          0.827 -33.831 0.112 -158.725 0.117 24.375 0.534 54.425
          0.534 54.425 0.117 24.375 0.112 -158.725 0.827 -33.831
          0.117 24.375 0.534 54.425 0.827 -33.831 0.112 -158.725
581.454 0.112 -159.317 0.824 -34.11 0.538 54.14 0.117 23.836
          0.824 -34.11 0.112 -159.317 0.117 23.836 0.538 54.14
          0.538 54.14 0.117 23.836 0.112 -159.317 0.824 -34.11
          0.117 23.836 0.538 54.14 0.824 -34.11 0.112 -159.317
587.719 0.112 -159.905 0.821 -34.387 0.542 53.856 0.117 23.3
          0.821 -34.387 0.112 -159.905 0.117 23.3 0.542 53.856
          0.542 53.856 0.117 23.3 0.112 -159.905 0.821 -34.387
          0.117 23.3 0.542 53.856 0.821 -34.387 0.112 -159.905
593.985 0.113 -160.49 0.819 -34.662 0.546 53.576 0.118 22.769
          0.819 -34.662 0.113 -160.49 0.118 22.769 0.546 53.576
          0.546 53.576 0.118 22.769 0.113 -160.49 0.819 -34.662
          0.118 22.769 0.546 53.576 0.819 -34.662 0.113 -160.49
600.251 0.113 -161.07 0.816 -34.935 0.55 53.297 0.118 22.241
          0.816 -34.935 0.113 -161.07 0.118 22.241 0.55 53.297
          0.55 53.297 0.118 22.241 0.113 -161.07 0.816 -34.935
          0.118 22.241 0.55 53.297 0.816 -34.935 0.113 -161.07
606.516 0.114 -161.646 0.814 -35.207 0.553 53.02 0.119 21.717
          0.814 -35.207 0.114 -161.646 0.119 21.717 0.553 53.02
          0.553 53.02 0.119 21.717 0.114 -161.646 0.814 -35.207
          0.119 21.717 0.553 53.02 0.814 -35.207 0.114 -161.646
612.782 0.114 -162.219 0.811 -35.476 0.557 52.745 0.119 21.198
          0.811 -35.476 0.114 -162.219 0.119 21.198 0.557 52.745
          0.557 52.745 0.119 21.198 0.114 -162.219 0.811 -35.476
          0.119 21.198 0.557 52.745 0.811 -35.476 0.114 -162.219
619.048 0.114 -162.787 0.808 -35.744 0.561 52.472 0.119 20.681
          0.808 -35.744 0.114 -162.787 0.119 20.681 0.561 52.472
          0.561 52.472 0.119 20.681 0.114 -162.787 0.808 -35.744
          0.119 20.681 0.561 52.472 0.808 -35.744 0.114 -162.787
625.313 0.115 -163.352 0.806 -36.01 0.564 52.202 0.12 20.169
          0.806 -36.01 0.115 -163.352 0.12 20.169 0.564 52.202
          0.564 52.202 0.12 20.169 0.115 -163.352 0.806 -36.01
          0.12 20.169 0.564 52.202 0.806 -36.01 0.115 -163.352
631.579 0.115 -163.913 0.803 -36.274 0.568 51.933 0.12 19.661
          0.803 -36.274 0.115 -163.913 0.12 19.661 0.568 51.933
          0.568 51.933 0.12 19.661 0.115 -163.913 0.803 -36.274
          0.12 19.661 0.568 51.933 0.803 -36.274 0.115 -163.913
637.845 0.116 -164.47 0.801 -36.537 0.571 51.666 0.12 19.156
          0.801 -36.537 0.116 -164.47 0.12 19.156 0.571 51.666
          0.571 51.666 0.12 19.156 0.116 -164.47 0.801 -36.537
          0.12 19.156 0.571 51.666 0.801 -36.537 0.116 -164.47
644.11 0.116 -165.024 0.798 -36.797 0.575 51.402 0.121 18.655
          0.798 -36.797 0.116 -165.024 0.121 18.655 0.575 51.402
          0.575 51.402 0.121 18.655 0.116 -165.024 0.798 -36.797
          0.121 18.655 0.575 51.402 0.798 -36.797 0.116 -165.024
650.376 0.116 -165.574 0.795 -37.056 0.578 51.139 0.121 18.158
          0.795 -37.056 0.116 -165.574 0.121 18.158 0.578 51.139
          0.578 51.139 0.121 18.158 0.116 -165.574 0.795 -37.056
          0.121 18.158 0.578 51.139 0.795 -37.056 0.116 -165.574
656.642 0.116 -166.12 0.793 -37.313 0.582 50.878 0.121 17.664
          0.793 -37.313 0.116 -166.12 0.121 17.664 0.582 50.878
          0.582 50.878 0.121 17.664 0.116 -166.12 0.793 -37.313
          0.121 17.664 0.582 50.878 0.793 -37.313 0.116 -166.12
662.907 0.117 -166.662 0.79 -37.569 0.585 50.619 0.121 17.175
          0.79 -37.569 0.117 -166.662 0.121 17.175 0.585 50.619
          0.585 50.619 0.121 17.175 0.117 -166.662 0.79 -37.569
          0.121 17.175 0.585 50.619 0.79 -37.569 0.117 -166.662
669.173 0.117 -167.201 0.788 -37.823 0.588 50.362 0.122 16.688
          0.788 -37.823 0.117 -167.201 0.122 16.688 0.588 50.362
          0.588 50.362 0.122 16.688 0.117 -167.201 0.788 -37.823
          0.122 16.688 0.588 50.362 0.788 -37.823 0.117 -167.201
675.439 0.117 -167.736 0.785 -38.075 0.592 50.107 0.122 16.206
          0.785 -38.075 0.117 -167.736 0.122 16.206 0.592 50.107
          0.592 50.107 0.122 16.206 0.117 -167.736 0.785 -38.075
          0.122 16.206 0.592 50.107 0.785 -38.075 0.117 -167.736
681.704 0.118 -168.268 0.783 -38.325 0.595 49.854 0.122 15.727
          0.783 -38.325 0.118 -168.268 0.122 15.727 0.595 49.854
          0.595 49.854 0.122 15.727 0.118 -168.268 0.783 -38.325
          0.122 15.727 0.595 49.854 0.783 -38.325 0.118 -168.268
687.97 0.118 -168.796 0.78 -38.574 0.598 49.603 0.122 15.252
          0.78 -38.574 0.118 -168.796 0.122 15.252 0.598 49.603
          0.598 49.603 0.122 15.252 0.118 -168.796 0.78 -38.574
          0.122 15.252 0.598 49.603 0.78 -38.574 0.118 -168.796
694.236 0.118 -169.321 0.777 -38.821 0.601 49.353 0.122 14.78
          0.777 -38.821 0.118 -169.321 0.122 14.78 0.601 49.353
          0.601 49.353 0.122 14.78 0.118 -169.321 0.777 -38.821
          0.122 14.78 0.601 49.353 0.777 -38.821 0.118 -169.321
700.501 0.118 -169.842 0.775 -39.066 0.604 49.105 0.123 14.312
          0.775 -39.066 0.118 -169.842 0.123 14.312 0.604 49.105
          0.604 49.105 0.123 14.312 0.118 -169.842 0.775 -39.066
          0.123 14.312 0.604 49.105 0.775 -39.066 0.118 -169.842
706.767 0.118 -170.359 0.772 -39.31 0.608 48.86 0.123 13.848
          0.772 -39.31 0.118 -170.359 0.123 13.848 0.608 48.86
          0.608 48.86 0.123 13.848 0.118 -170.359 0.772 -39.31
          0.123 13.848 0.608 48.86 0.772 -39.31 0.118 -170.359
713.033 0.119 -170.873 0.77 -39.552 0.611 48.616 0.123 13.387
          0.77 -39.552 0.119 -170.873 0.123 13.387 0.611 48.616
          0.611 48.616 0.123 13.387 0.119 -170.873 0.77 -39.552
          0.123 13.387 0.611 48.616 0.77 -39.552 0.119 -170.873
719.298 0.119 -171.384 0.767 -39.793 0.614 48.373 0.123 12.929
          0.767 -39.793 0.119 -171.384 0.123 12.929 0.614 48.373
          0.614 48.373 0.123 12.929 0.119 -171.384 0.767 -39.793
          0.123 12.929 0.614 48.373 0.767 -39.793 0.119 -171.384
725.564 0.119 -171.891 0.765 -40.032 0.617 48.133 0.123 12.475
          0.765 -40.032 0.119 -171.891 0.123 12.475 0.617 48.133
          0.617 48.133 0.123 12.475 0.119 -171.891 0.765 -40.032
          0.123 12.475 0.617 48.133 0.765 -40.032 0.119 -171.891
731.83 0.119 -172.395 0.762 -40.269 0.62 47.894 0.123 12.024
          0.762 -40.269 0.119 -172.395 0.123 12.024 0.62 47.894
          0.62 47.894 0.123 12.024 0.119 -172.395 0.762 -40.269
          0.123 12.024 0.62 47.894 0.762 -40.269 0.119 -172.395
738.095 0.119 -172.896 0.76 -40.505 0.623 47.657 0.123 11.577
          0.76 -40.505 0.119 -172.896 0.123 11.577 0.623 47.657
          0.623 47.657 0.123 11.577 0.119 -172.896 0.76 -40.505
          0.123 11.577 0.623 47.657 0.76 -40.505 0.119 -172.896
744.361 0.12 -173.393 0.757 -40.739 0.626 47.421 0.124 11.133
          0.757 -40.739 0.12 -173.393 0.124 11.133 0.626 47.421
          0.626 47.421 0.124 11.133 0.12 -173.393 0.757 -40.739
          0.124 11.133 0.626 47.421 0.757 -40.739 0.12 -173.393
750.627 0.12 -173.887 0.755 -40.972 0.629 47.188 0.124 10.693
          0.755 -40.972 0.12 -173.887 0.124 10.693 0.629 47.188
          0.629 47.188 0.124 10.693 0.12 -173.887 0.755 -40.972
          0.124 10.693 0.629 47.188 0.755 -40.972 0.12 -173.887
756.892 0.12 -174.377 0.753 -41.203 0.632 46.956 0.124 10.256
          0.753 -41.203 0.12 -174.377 0.124 10.256 0.632 46.956
          0.632 46.956 0.124 10.256 0.12 -174.377 0.753 -41.203
          0.124 10.256 0.632 46.956 0.753 -41.203 0.12 -174.377
763.158 0.12 -174.865 0.75 -41.433 0.635 46.725 0.124 9.822
          0.75 -41.433 0.12 -174.865 0.124 9.822 0.635 46.725
          0.635 46.725 0.124 9.822 0.12 -174.865 0.75 -41.433
          0.124 9.822 0.635 46.725 0.75 -41.433 0.12 -174.865
769.424 0.12 -175.349 0.748 -41.661 0.637 46.497 0.124 9.392
          0.748 -41.661 0.12 -175.349 0.124 9.392 0.637 46.497
          0.637 46.497 0.124 9.392 0.12 -175.349 0.748 -41.661
          0.124 9.392 0.637 46.497 0.748 -41.661 0.12 -175.349
775.689 0.12 -175.83 0.745 -41.887 0.64 46.27 0.124 8.965
          0.745 -41.887 0.12 -175.83 0.124 8.965 0.64 46.27
          0.64 46.27 0.124 8.965 0.12 -175.83 0.745 -41.887
          0.124 8.965 0.64 46.27 0.745 -41.887 0.12 -175.83
781.955 0.12 -176.308 0.743 -42.113 0.643 46.044 0.124 8.541
          0.743 -42.113 0.12 -176.308 0.124 8.541 0.643 46.044
          0.643 46.044 0.124 8.541 0.12 -176.308 0.743 -42.113
          0.124 8.541 0.643 46.044 0.743 -42.113 0.12 -176.308
788.221 0.12 -176.782 0.74 -42.336 0.646 45.821 0.124 8.12
          0.74 -42.336 0.12 -176.782 0.124 8.12 0.646 45.821
          0.646 45.821 0.124 8.12 0.12 -176.782 0.74 -42.336
          0.124 8.12 0.646 45.821 0.74 -42.336 0.12 -176.782
794.486 0.121 -177.254 0.738 -42.559 0.648 45.598 0.124 7.703
          0.738 -42.559 0.121 -177.254 0.124 7.703 0.648 45.598
          0.648 45.598 0.124 7.703 0.121 -177.254 0.738 -42.559
          0.124 7.703 0.648 45.598 0.738 -42.559 0.121 -177.254
800.752 0.121 -177.723 0.736 -42.78 0.651 45.378 0.124 7.289
          0.736 -42.78 0.121 -177.723 0.124 7.289 0.651 45.378
          0.651 45.378 0.124 7.289 0.121 -177.723 0.736 -42.78
          0.124 7.289 0.651 45.378 0.736 -42.78 0.121 -177.723
807.018 0.121 -178.188 0.733 -42.999 0.654 45.159 0.124 6.878
          0.733 -42.999 0.121 -178.188 0.124 6.878 0.654 45.159
          0.654 45.159 0.124 6.878 0.121 -178.188 0.733 -42.999
          0.124 6.878 0.654 45.159 0.733 -42.999 0.121 -178.188
813.283 0.121 -178.65 0.731 -43.217 0.656 44.941 0.124 6.47
          0.731 -43.217 0.121 -178.65 0.124 6.47 0.656 44.941
          0.656 44.941 0.124 6.47 0.121 -178.65 0.731 -43.217
          0.124 6.47 0.656 44.941 0.731 -43.217 0.121 -178.65
819.549 0.121 -179.11 0.728 -43.434 0.659 44.725 0.124 6.065
          0.728 -43.434 0.121 -179.11 0.124 6.065 0.659 44.725
          0.659 44.725 0.124 6.065 0.121 -179.11 0.728 -43.434
          0.124 6.065 0.659 44.725 0.728 -43.434 0.121 -179.11
825.815 0.121 -179.566 0.726 -43.649 0.662 44.511 0.124 5.664
          0.726 -43.649 0.121 -179.566 0.124 5.664 0.662 44.511
          0.662 44.511 0.124 5.664 0.121 -179.566 0.726 -43.649
          0.124 5.664 0.662 44.511 0.726 -43.649 0.121 -179.566
832.08 0.121 179.981 0.724 -43.863 0.664 44.298 0.124 5.265
          0.724 -43.863 0.121 179.981 0.124 5.265 0.664 44.298
          0.664 44.298 0.124 5.265 0.121 179.981 0.724 -43.863
          0.124 5.265 0.664 44.298 0.724 -43.863 0.121 179.981
838.346 0.121 179.53 0.721 -44.075 0.667 44.086 0.124 4.87
          0.721 -44.075 0.121 179.53 0.124 4.87 0.667 44.086
          0.667 44.086 0.124 4.87 0.121 179.53 0.721 -44.075
          0.124 4.87 0.667 44.086 0.721 -44.075 0.121 179.53
844.612 0.121 179.082 0.719 -44.286 0.669 43.876 0.124 4.477
          0.719 -44.286 0.121 179.082 0.124 4.477 0.669 43.876
          0.669 43.876 0.124 4.477 0.121 179.082 0.719 -44.286
          0.124 4.477 0.669 43.876 0.719 -44.286 0.121 179.082
850.877 0.121 178.638 0.717 -44.496 0.672 43.668 0.124 4.088
          0.717 -44.496 0.121 178.638 0.124 4.088 0.672 43.668
          0.672 43.668 0.124 4.088 0.121 178.638 0.717 -44.496
          0.124 4.088 0.672 43.668 0.717 -44.496 0.121 178.638
857.143 0.121 178.196 0.714 -44.705 0.674 43.46 0.124 3.702
          0.714 -44.705 0.121 178.196 0.124 3.702 0.674 43.46
          0.674 43.46 0.124 3.702 0.121 178.196 0.714 -44.705
          0.124 3.702 0.674 43.46 0.714 -44.705 0.121 178.196
863.409 0.121 177.757 0.712 -44.912 0.677 43.255 0.124 3.318
          0.712 -44.912 0.121 177.757 0.124 3.318 0.677 43.255
          0.677 43.255 0.124 3.318 0.121 177.757 0.712 -44.912
          0.124 3.318 0.677 43.255 0.712 -44.912 0.121 177.757
869.674 0.121 177.321 0.71 -45.118 0.679 43.051 0.124 2.938
          0.71 -45.118 0.121 177.321 0.124 2.938 0.679 43.051
          0.679 43.051 0.124 2.938 0.121 177.321 0.71 -45.118
          0.124 2.938 0.679 43.051 0.71 -45.118 0.121 177.321
875.94 0.121 176.888 0.707 -45.322 0.682 42.848 0.124 2.561
          0.707 -45.322 0.121 176.888 0.124 2.561 0.682 42.848
          0.682 42.848 0.124 2.561 0.121 176.888 0.707 -45.322
          0.124 2.561 0.682 42.848 0.707 -45.322 0.121 176.888
882.206 0.121 176.457 0.705 -45.525 0.684 42.646 0.124 2.186
          0.705 -45.525 0.121 176.457 0.124 2.186 0.684 42.646
          0.684 42.646 0.124 2.186 0.121 176.457 0.705 -45.525
          0.124 2.186 0.684 42.646 0.705 -45.525 0.121 176.457
888.471 0.121 176.029 0.703 -45.727 0.686 42.446 0.123 1.815
          0.703 -45.727 0.121 176.029 0.123 1.815 0.686 42.446
          0.686 42.446 0.123 1.815 0.121 176.029 0.703 -45.727
          0.123 1.815 0.686 42.446 0.703 -45.727 0.121 176.029
894.737 0.121 175.604 0.701 -45.928 0.689 42.247 0.123 1.446
          0.701 -45.928 0.121 175.604 0.123 1.446 0.689 42.247
          0.689 42.247 0.123 1.446 0.121 175.604 0.701 -45.928
          0.123 1.446 0.689 42.247 0.701 -45.928 0.121 175.604
901.003 0.121 175.182 0.698 -46.128 0.691 42.05 0.123 1.08
          0.698 -46.128 0.121 175.182 0.123 1.08 0.691 42.05
          0.691 42.05 0.123 1.08 0.121 175.182 0.698 -46.128
          0.123 1.08 0.691 42.05 0.698 -46.128 0.121 175.182
907.268 0.121 174.762 0.696 -46.326 0.693 41.854 0.123 0.717
          0.696 -46.326 0.121 174.762 0.123 0.717 0.693 41.854
          0.693 41.854 0.123 0.717 0.121 174.762 0.696 -46.326
          0.123 0.717 0.693 41.854 0.696 -46.326 0.121 174.762
913.534 0.121 174.345 0.694 -46.523 0.695 41.659 0.123 0.357
          0.694 -46.523 0.121 174.345 0.123 0.357 0.695 41.659
          0.695 41.659 0.123 0.357 0.121 174.345 0.694 -46.523
          0.123 0.357 0.695 41.659 0.694 -46.523 0.121 174.345
919.799 0.121 173.93 0.692 -46.718 0.698 41.466 0.123 -497.8e-6
          0.692 -46.718 0.121 173.93 0.123 -497.8e-6 0.698 41.466
          0.698 41.466 0.123 -497.8e-6 0.121 173.93 0.692 -46.718
          0.123 -497.8e-6 0.698 41.466 0.692 -46.718 0.121 173.93
926.065 0.121 173.518 0.69 -46.913 0.7 41.274 0.123 -0.355
          0.69 -46.913 0.121 173.518 0.123 -0.355 0.7 41.274
          0.7 41.274 0.123 -0.355 0.121 173.518 0.69 -46.913
          0.123 -0.355 0.7 41.274 0.69 -46.913 0.121 173.518
932.331 0.121 173.109 0.687 -47.106 0.702 41.083 0.123 -0.707
          0.687 -47.106 0.121 173.109 0.123 -0.707 0.702 41.083
          0.702 41.083 0.123 -0.707 0.121 173.109 0.687 -47.106
          0.123 -0.707 0.702 41.083 0.687 -47.106 0.121 173.109
938.596 0.121 172.702 0.685 -47.299 0.704 40.893 0.123 -1.056
          0.685 -47.299 0.121 172.702 0.123 -1.056 0.704 40.893
          0.704 40.893 0.123 -1.056 0.121 172.702 0.685 -47.299
          0.123 -1.056 0.704 40.893 0.685 -47.299 0.121 172.702
944.862 0.121 172.298 0.683 -47.49 0.706 40.705 0.122 -1.402
          0.683 -47.49 0.121 172.298 0.122 -1.402 0.706 40.705
          0.706 40.705 0.122 -1.402 0.121 172.298 0.683 -47.49
          0.122 -1.402 0.706 40.705 0.683 -47.49 0.121 172.298
951.128 0.121 171.896 0.681 -47.679 0.708 40.518 0.122 -1.746
          0.681 -47.679 0.121 171.896 0.122 -1.746 0.708 40.518
          0.708 40.518 0.122 -1.746 0.121 171.896 0.681 -47.679
          0.122 -1.746 0.708 40.518 0.681 -47.679 0.121 171.896
957.393 0.121 171.497 0.679 -47.868 0.711 40.332 0.122 -2.087
          0.679 -47.868 0.121 171.497 0.122 -2.087 0.711 40.332
          0.711 40.332 0.122 -2.087 0.121 171.497 0.679 -47.868
          0.122 -2.087 0.711 40.332 0.679 -47.868 0.121 171.497
963.659 0.121 171.1 0.677 -48.055 0.713 40.148 0.122 -2.425
          0.677 -48.055 0.121 171.1 0.122 -2.425 0.713 40.148
          0.713 40.148 0.122 -2.425 0.121 171.1 0.677 -48.055
          0.122 -2.425 0.713 40.148 0.677 -48.055 0.121 171.1
969.925 0.121 170.706 0.674 -48.242 0.715 39.965 0.122 -2.761
          0.674 -48.242 0.121 170.706 0.122 -2.761 0.715 39.965
          0.715 39.965 0.122 -2.761 0.121 170.706 0.674 -48.242
          0.122 -2.761 0.715 39.965 0.674 -48.242 0.121 170.706
976.19 0.121 170.314 0.672 -48.427 0.717 39.783 0.122 -3.094
          0.672 -48.427 0.121 170.314 0.122 -3.094 0.717 39.783
          0.717 39.783 0.122 -3.094 0.121 170.314 0.672 -48.427
          0.122 -3.094 0.717 39.783 0.672 -48.427 0.121 170.314
982.456 0.121 169.925 0.67 -48.611 0.719 39.602 0.122 -3.425
          0.67 -48.611 0.121 169.925 0.122 -3.425 0.719 39.602
          0.719 39.602 0.122 -3.425 0.121 169.925 0.67 -48.611
          0.122 -3.425 0.719 39.602 0.67 -48.611 0.121 169.925
988.722 0.12 169.538 0.668 -48.794 0.721 39.422 0.121 -3.752
