!	AVX THIN FILM OPERATION
!	
!	0805 SIZE 3dB 90deg COUPLER P/N DB0805A1325AWTR
!
!	Created March 23 2003
!						
!	Network Analyzer HP8720E S.07.64: Feb23, 2000 Serial No.US39172382		
!	
#	MHZ	S	MA	R	50					


500 0.089 -133.182 0.922 -22.111 0.359 66.419 0.092 46.655
          0.922 -22.111 0.089 -133.182 0.092 46.655 0.359 66.419
          0.359 66.419 0.092 46.655 0.089 -133.182 0.922 -22.111
          0.092 46.655 0.359 66.419 0.922 -22.111 0.089 -133.182
506.266 0.09 -133.689 0.92 -22.355 0.363 66.163 0.093 46.174
          0.92 -22.355 0.09 -133.689 0.093 46.174 0.363 66.163
          0.363 66.163 0.093 46.174 0.09 -133.689 0.92 -22.355
          0.093 46.174 0.363 66.163 0.92 -22.355 0.09 -133.689
512.531 0.091 -134.195 0.919 -22.598 0.367 65.907 0.093 45.694
          0.919 -22.598 0.091 -134.195 0.093 45.694 0.367 65.907
          0.367 65.907 0.093 45.694 0.091 -134.195 0.919 -22.598
          0.093 45.694 0.367 65.907 0.919 -22.598 0.091 -134.195
518.797 0.091 -134.698 0.917 -22.839 0.371 65.653 0.094 45.217
          0.917 -22.839 0.091 -134.698 0.094 45.217 0.371 65.653
          0.371 65.653 0.094 45.217 0.091 -134.698 0.917 -22.839
          0.094 45.217 0.371 65.653 0.917 -22.839 0.091 -134.698
525.063 0.092 -135.2 0.915 -23.08 0.374 65.4 0.095 44.741
          0.915 -23.08 0.092 -135.2 0.095 44.741 0.374 65.4
          0.374 65.4 0.095 44.741 0.092 -135.2 0.915 -23.08
          0.095 44.741 0.374 65.4 0.915 -23.08 0.092 -135.2
531.328 0.093 -135.699 0.914 -23.32 0.378 65.148 0.096 44.267
          0.914 -23.32 0.093 -135.699 0.096 44.267 0.378 65.148
          0.378 65.148 0.096 44.267 0.093 -135.699 0.914 -23.32
          0.096 44.267 0.378 65.148 0.914 -23.32 0.093 -135.699
537.594 0.094 -136.196 0.912 -23.559 0.382 64.897 0.096 43.795
          0.912 -23.559 0.094 -136.196 0.096 43.795 0.382 64.897
          0.382 64.897 0.096 43.795 0.094 -136.196 0.912 -23.559
          0.096 43.795 0.382 64.897 0.912 -23.559 0.094 -136.196
543.86 0.094 -136.69 0.91 -23.797 0.385 64.648 0.097 43.325
          0.91 -23.797 0.094 -136.69 0.097 43.325 0.385 64.648
          0.385 64.648 0.097 43.325 0.094 -136.69 0.91 -23.797
          0.097 43.325 0.385 64.648 0.91 -23.797 0.094 -136.69
550.125 0.095 -137.183 0.908 -24.034 0.389 64.399 0.098 42.857
          0.908 -24.034 0.095 -137.183 0.098 42.857 0.389 64.399
          0.389 64.399 0.098 42.857 0.095 -137.183 0.908 -24.034
          0.098 42.857 0.389 64.399 0.908 -24.034 0.095 -137.183
556.391 0.096 -137.673 0.907 -24.269 0.392 64.152 0.099 42.391
          0.907 -24.269 0.096 -137.673 0.099 42.391 0.392 64.152
          0.392 64.152 0.099 42.391 0.096 -137.673 0.907 -24.269
          0.099 42.391 0.392 64.152 0.907 -24.269 0.096 -137.673
562.657 0.096 -138.161 0.905 -24.504 0.396 63.906 0.099 41.926
          0.905 -24.504 0.096 -138.161 0.099 41.926 0.396 63.906
          0.396 63.906 0.099 41.926 0.096 -138.161 0.905 -24.504
          0.099 41.926 0.396 63.906 0.905 -24.504 0.096 -138.161
568.922 0.097 -138.647 0.903 -24.738 0.4 63.661 0.1 41.464
          0.903 -24.738 0.097 -138.647 0.1 41.464 0.4 63.661
          0.4 63.661 0.1 41.464 0.097 -138.647 0.903 -24.738
          0.1 41.464 0.4 63.661 0.903 -24.738 0.097 -138.647
575.188 0.098 -139.131 0.902 -24.971 0.403 63.417 0.101 41.004
          0.902 -24.971 0.098 -139.131 0.101 41.004 0.403 63.417
          0.403 63.417 0.101 41.004 0.098 -139.131 0.902 -24.971
          0.101 41.004 0.403 63.417 0.902 -24.971 0.098 -139.131
581.454 0.098 -139.613 0.9 -25.202 0.407 63.175 0.101 40.545
          0.9 -25.202 0.098 -139.613 0.101 40.545 0.407 63.175
          0.407 63.175 0.101 40.545 0.098 -139.613 0.9 -25.202
          0.101 40.545 0.407 63.175 0.9 -25.202 0.098 -139.613
587.719 0.099 -140.093 0.898 -25.433 0.41 62.934 0.102 40.089
          0.898 -25.433 0.099 -140.093 0.102 40.089 0.41 62.934
          0.41 62.934 0.102 40.089 0.099 -140.093 0.898 -25.433
          0.102 40.089 0.41 62.934 0.898 -25.433 0.099 -140.093
593.985 0.1 -140.57 0.896 -25.663 0.413 62.693 0.103 39.634
          0.896 -25.663 0.1 -140.57 0.103 39.634 0.413 62.693
          0.413 62.693 0.103 39.634 0.1 -140.57 0.896 -25.663
          0.103 39.634 0.413 62.693 0.896 -25.663 0.1 -140.57
600.251 0.1 -141.046 0.895 -25.891 0.417 62.454 0.103 39.182
          0.895 -25.891 0.1 -141.046 0.103 39.182 0.417 62.454
          0.417 62.454 0.103 39.182 0.1 -141.046 0.895 -25.891
          0.103 39.182 0.417 62.454 0.895 -25.891 0.1 -141.046
606.516 0.101 -141.519 0.893 -26.119 0.42 62.217 0.104 38.731
          0.893 -26.119 0.101 -141.519 0.104 38.731 0.42 62.217
          0.42 62.217 0.104 38.731 0.101 -141.519 0.893 -26.119
          0.104 38.731 0.42 62.217 0.893 -26.119 0.101 -141.519
612.782 0.102 -141.99 0.891 -26.346 0.424 61.98 0.105 38.283
          0.891 -26.346 0.102 -141.99 0.105 38.283 0.424 61.98
          0.424 61.98 0.105 38.283 0.102 -141.99 0.891 -26.346
          0.105 38.283 0.424 61.98 0.891 -26.346 0.102 -141.99
619.048 0.102 -142.459 0.89 -26.572 0.427 61.744 0.105 37.836
          0.89 -26.572 0.102 -142.459 0.105 37.836 0.427 61.744
          0.427 61.744 0.105 37.836 0.102 -142.459 0.89 -26.572
          0.105 37.836 0.427 61.744 0.89 -26.572 0.102 -142.459
625.313 0.103 -142.926 0.888 -26.796 0.43 61.51 0.106 37.391
          0.888 -26.796 0.103 -142.926 0.106 37.391 0.43 61.51
          0.43 61.51 0.106 37.391 0.103 -142.926 0.888 -26.796
          0.106 37.391 0.43 61.51 0.888 -26.796 0.103 -142.926
631.579 0.103 -143.391 0.886 -27.02 0.434 61.277 0.107 36.948
          0.886 -27.02 0.103 -143.391 0.107 36.948 0.434 61.277
          0.434 61.277 0.107 36.948 0.103 -143.391 0.886 -27.02
          0.107 36.948 0.434 61.277 0.886 -27.02 0.103 -143.391
637.845 0.104 -143.853 0.884 -27.243 0.437 61.045 0.107 36.507
          0.884 -27.243 0.104 -143.853 0.107 36.507 0.437 61.045
          0.437 61.045 0.107 36.507 0.104 -143.853 0.884 -27.243
          0.107 36.507 0.437 61.045 0.884 -27.243 0.104 -143.853
644.11 0.105 -144.314 0.882 -27.464 0.44 60.814 0.108 36.069
          0.882 -27.464 0.105 -144.314 0.108 36.069 0.44 60.814
          0.44 60.814 0.108 36.069 0.105 -144.314 0.882 -27.464
          0.108 36.069 0.44 60.814 0.882 -27.464 0.105 -144.314
650.376 0.105 -144.773 0.881 -27.685 0.444 60.584 0.108 35.632
          0.881 -27.685 0.105 -144.773 0.108 35.632 0.444 60.584
          0.444 60.584 0.108 35.632 0.105 -144.773 0.881 -27.685
          0.108 35.632 0.444 60.584 0.881 -27.685 0.105 -144.773
656.642 0.106 -145.229 0.879 -27.905 0.447 60.356 0.109 35.197
          0.879 -27.905 0.106 -145.229 0.109 35.197 0.447 60.356
          0.447 60.356 0.109 35.197 0.106 -145.229 0.879 -27.905
          0.109 35.197 0.447 60.356 0.879 -27.905 0.106 -145.229
662.907 0.106 -145.684 0.877 -28.123 0.45 60.128 0.109 34.764
          0.877 -28.123 0.106 -145.684 0.109 34.764 0.45 60.128
          0.45 60.128 0.109 34.764 0.106 -145.684 0.877 -28.123
          0.109 34.764 0.45 60.128 0.877 -28.123 0.106 -145.684
669.173 0.107 -146.136 0.875 -28.341 0.453 59.902 0.11 34.332
          0.875 -28.341 0.107 -146.136 0.11 34.332 0.453 59.902
          0.453 59.902 0.11 34.332 0.107 -146.136 0.875 -28.341
          0.11 34.332 0.453 59.902 0.875 -28.341 0.107 -146.136
675.439 0.107 -146.586 0.874 -28.558 0.456 59.677 0.111 33.903
          0.874 -28.558 0.107 -146.586 0.111 33.903 0.456 59.677
          0.456 59.677 0.111 33.903 0.107 -146.586 0.874 -28.558
          0.111 33.903 0.456 59.677 0.874 -28.558 0.107 -146.586
681.704 0.108 -147.034 0.872 -28.773 0.459 59.453 0.111 33.476
          0.872 -28.773 0.108 -147.034 0.111 33.476 0.459 59.453
          0.459 59.453 0.111 33.476 0.108 -147.034 0.872 -28.773
          0.111 33.476 0.459 59.453 0.872 -28.773 0.108 -147.034
687.97 0.108 -147.481 0.87 -28.988 0.463 59.23 0.112 33.051
          0.87 -28.988 0.108 -147.481 0.112 33.051 0.463 59.23
          0.463 59.23 0.112 33.051 0.108 -147.481 0.87 -28.988
          0.112 33.051 0.463 59.23 0.87 -28.988 0.108 -147.481
694.236 0.109 -147.925 0.868 -29.202 0.466 59.008 0.112 32.627
          0.868 -29.202 0.109 -147.925 0.112 32.627 0.466 59.008
          0.466 59.008 0.112 32.627 0.109 -147.925 0.868 -29.202
          0.112 32.627 0.466 59.008 0.868 -29.202 0.109 -147.925
700.501 0.109 -148.367 0.866 -29.415 0.469 58.787 0.113 32.206
          0.866 -29.415 0.109 -148.367 0.113 32.206 0.469 58.787
          0.469 58.787 0.113 32.206 0.109 -148.367 0.866 -29.415
          0.113 32.206 0.469 58.787 0.866 -29.415 0.109 -148.367
706.767 0.11 -148.807 0.865 -29.627 0.472 58.568 0.113 31.787
          0.865 -29.627 0.11 -148.807 0.113 31.787 0.472 58.568
          0.472 58.568 0.113 31.787 0.11 -148.807 0.865 -29.627
          0.113 31.787 0.472 58.568 0.865 -29.627 0.11 -148.807
713.033 0.11 -149.245 0.863 -29.838 0.475 58.349 0.114 31.369
          0.863 -29.838 0.11 -149.245 0.114 31.369 0.475 58.349
          0.475 58.349 0.114 31.369 0.11 -149.245 0.863 -29.838
          0.114 31.369 0.475 58.349 0.863 -29.838 0.11 -149.245
719.298 0.111 -149.681 0.861 -30.047 0.478 58.132 0.114 30.953
          0.861 -30.047 0.111 -149.681 0.114 30.953 0.478 58.132
          0.478 58.132 0.114 30.953 0.111 -149.681 0.861 -30.047
          0.114 30.953 0.478 58.132 0.861 -30.047 0.111 -149.681
725.564 0.111 -150.115 0.859 -30.256 0.481 57.916 0.115 30.54
          0.859 -30.256 0.111 -150.115 0.115 30.54 0.481 57.916
          0.481 57.916 0.115 30.54 0.111 -150.115 0.859 -30.256
          0.115 30.54 0.481 57.916 0.859 -30.256 0.111 -150.115
731.83 0.112 -150.547 0.857 -30.464 0.484 57.701 0.115 30.128
          0.857 -30.464 0.112 -150.547 0.115 30.128 0.484 57.701
          0.484 57.701 0.115 30.128 0.112 -150.547 0.857 -30.464
          0.115 30.128 0.484 57.701 0.857 -30.464 0.112 -150.547
738.095 0.112 -150.978 0.856 -30.671 0.487 57.487 0.115 29.718
          0.856 -30.671 0.112 -150.978 0.115 29.718 0.487 57.487
          0.487 57.487 0.115 29.718 0.112 -150.978 0.856 -30.671
          0.115 29.718 0.487 57.487 0.856 -30.671 0.112 -150.978
744.361 0.113 -151.406 0.854 -30.878 0.49 57.274 0.116 29.31
          0.854 -30.878 0.113 -151.406 0.116 29.31 0.49 57.274
          0.49 57.274 0.116 29.31 0.113 -151.406 0.854 -30.878
          0.116 29.31 0.49 57.274 0.854 -30.878 0.113 -151.406
750.627 0.113 -151.832 0.852 -31.083 0.493 57.062 0.116 28.904
          0.852 -31.083 0.113 -151.832 0.116 28.904 0.493 57.062
          0.493 57.062 0.116 28.904 0.113 -151.832 0.852 -31.083
          0.116 28.904 0.493 57.062 0.852 -31.083 0.113 -151.832
756.892 0.114 -152.256 0.85 -31.287 0.496 56.851 0.117 28.5
          0.85 -31.287 0.114 -152.256 0.117 28.5 0.496 56.851
          0.496 56.851 0.117 28.5 0.114 -152.256 0.85 -31.287
          0.117 28.5 0.496 56.851 0.85 -31.287 0.114 -152.256
763.158 0.114 -152.678 0.848 -31.49 0.498 56.641 0.117 28.098
          0.848 -31.49 0.114 -152.678 0.117 28.098 0.498 56.641
          0.498 56.641 0.117 28.098 0.114 -152.678 0.848 -31.49
          0.117 28.098 0.498 56.641 0.848 -31.49 0.114 -152.678
769.424 0.114 -153.098 0.847 -31.692 0.501 56.433 0.118 27.697
          0.847 -31.692 0.114 -153.098 0.118 27.697 0.501 56.433
          0.501 56.433 0.118 27.697 0.114 -153.098 0.847 -31.692
          0.118 27.697 0.501 56.433 0.847 -31.692 0.114 -153.098
775.689 0.115 -153.517 0.845 -31.894 0.504 56.225 0.118 27.299
          0.845 -31.894 0.115 -153.517 0.118 27.299 0.504 56.225
          0.504 56.225 0.118 27.299 0.115 -153.517 0.845 -31.894
          0.118 27.299 0.504 56.225 0.845 -31.894 0.115 -153.517
781.955 0.115 -153.933 0.843 -32.094 0.507 56.019 0.118 26.902
          0.843 -32.094 0.115 -153.933 0.118 26.902 0.507 56.019
          0.507 56.019 0.118 26.902 0.115 -153.933 0.843 -32.094
          0.118 26.902 0.507 56.019 0.843 -32.094 0.115 -153.933
788.221 0.115 -154.347 0.841 -32.294 0.51 55.813 0.119 26.508
          0.841 -32.294 0.115 -154.347 0.119 26.508 0.51 55.813
          0.51 55.813 0.119 26.508 0.115 -154.347 0.841 -32.294
          0.119 26.508 0.51 55.813 0.841 -32.294 0.115 -154.347
794.486 0.116 -154.76 0.839 -32.493 0.513 55.609 0.119 26.115
          0.839 -32.493 0.116 -154.76 0.119 26.115 0.513 55.609
          0.513 55.609 0.119 26.115 0.116 -154.76 0.839 -32.493
          0.119 26.115 0.513 55.609 0.839 -32.493 0.116 -154.76
800.752 0.116 -155.171 0.838 -32.69 0.515 55.406 0.119 25.724
          0.838 -32.69 0.116 -155.171 0.119 25.724 0.515 55.406
          0.515 55.406 0.119 25.724 0.116 -155.171 0.838 -32.69
          0.119 25.724 0.515 55.406 0.838 -32.69 0.116 -155.171
807.018 0.117 -155.579 0.836 -32.887 0.518 55.203 0.12 25.335
          0.836 -32.887 0.117 -155.579 0.12 25.335 0.518 55.203
          0.518 55.203 0.12 25.335 0.117 -155.579 0.836 -32.887
          0.12 25.335 0.518 55.203 0.836 -32.887 0.117 -155.579
813.283 0.117 -155.986 0.834 -33.083 0.521 55.002 0.12 24.948
          0.834 -33.083 0.117 -155.986 0.12 24.948 0.521 55.002
          0.521 55.002 0.12 24.948 0.117 -155.986 0.834 -33.083
          0.12 24.948 0.521 55.002 0.834 -33.083 0.117 -155.986
819.549 0.117 -156.391 0.832 -33.278 0.524 54.802 0.121 24.563
          0.832 -33.278 0.117 -156.391 0.121 24.563 0.524 54.802
          0.524 54.802 0.121 24.563 0.117 -156.391 0.832 -33.278
          0.121 24.563 0.524 54.802 0.832 -33.278 0.117 -156.391
825.815 0.118 -156.794 0.83 -33.472 0.526 54.603 0.121 24.179
          0.83 -33.472 0.118 -156.794 0.121 24.179 0.526 54.603
          0.526 54.603 0.121 24.179 0.118 -156.794 0.83 -33.472
          0.121 24.179 0.526 54.603 0.83 -33.472 0.118 -156.794
832.08 0.118 -157.195 0.829 -33.665 0.529 54.405 0.121 23.798
          0.829 -33.665 0.118 -157.195 0.121 23.798 0.529 54.405
          0.529 54.405 0.121 23.798 0.118 -157.195 0.829 -33.665
          0.121 23.798 0.529 54.405 0.829 -33.665 0.118 -157.195
838.346 0.118 -157.594 0.827 -33.858 0.532 54.208 0.121 23.418
          0.827 -33.858 0.118 -157.594 0.121 23.418 0.532 54.208
          0.532 54.208 0.121 23.418 0.118 -157.594 0.827 -33.858
          0.121 23.418 0.532 54.208 0.827 -33.858 0.118 -157.594
844.612 0.119 -157.992 0.825 -34.049 0.534 54.012 0.122 23.04
          0.825 -34.049 0.119 -157.992 0.122 23.04 0.534 54.012
          0.534 54.012 0.122 23.04 0.119 -157.992 0.825 -34.049
          0.122 23.04 0.534 54.012 0.825 -34.049 0.119 -157.992
850.877 0.119 -158.387 0.823 -34.24 0.537 53.816 0.122 22.664
          0.823 -34.24 0.119 -158.387 0.122 22.664 0.537 53.816
          0.537 53.816 0.122 22.664 0.119 -158.387 0.823 -34.24
          0.122 22.664 0.537 53.816 0.823 -34.24 0.119 -158.387
857.143 0.119 -158.781 0.822 -34.429 0.539 53.622 0.122 22.289
          0.822 -34.429 0.119 -158.781 0.122 22.289 0.539 53.622
          0.539 53.622 0.122 22.289 0.119 -158.781 0.822 -34.429
          0.122 22.289 0.539 53.622 0.822 -34.429 0.119 -158.781
863.409 0.12 -159.173 0.82 -34.618 0.542 53.429 0.123 21.917
          0.82 -34.618 0.12 -159.173 0.123 21.917 0.542 53.429
          0.542 53.429 0.123 21.917 0.12 -159.173 0.82 -34.618
          0.123 21.917 0.542 53.429 0.82 -34.618 0.12 -159.173
869.674 0.12 -159.563 0.818 -34.806 0.545 53.237 0.123 21.546
          0.818 -34.806 0.12 -159.563 0.123 21.546 0.545 53.237
          0.545 53.237 0.123 21.546 0.12 -159.563 0.818 -34.806
          0.123 21.546 0.545 53.237 0.818 -34.806 0.12 -159.563
875.94 0.12 -159.951 0.816 -34.993 0.547 53.046 0.123 21.178
          0.816 -34.993 0.12 -159.951 0.123 21.178 0.547 53.046
          0.547 53.046 0.123 21.178 0.12 -159.951 0.816 -34.993
          0.123 21.178 0.547 53.046 0.816 -34.993 0.12 -159.951
882.206 0.12 -160.337 0.814 -35.18 0.55 52.856 0.124 20.81
          0.814 -35.18 0.12 -160.337 0.124 20.81 0.55 52.856
          0.55 52.856 0.124 20.81 0.12 -160.337 0.814 -35.18
          0.124 20.81 0.55 52.856 0.814 -35.18 0.12 -160.337
888.471 0.121 -160.722 0.813 -35.365 0.552 52.667 0.124 20.445
          0.813 -35.365 0.121 -160.722 0.124 20.445 0.552 52.667
          0.552 52.667 0.124 20.445 0.121 -160.722 0.813 -35.365
          0.124 20.445 0.552 52.667 0.813 -35.365 0.121 -160.722
894.737 0.121 -161.104 0.811 -35.55 0.555 52.478 0.124 20.082
          0.811 -35.55 0.121 -161.104 0.124 20.082 0.555 52.478
          0.555 52.478 0.124 20.082 0.121 -161.104 0.811 -35.55
          0.124 20.082 0.555 52.478 0.811 -35.55 0.121 -161.104
901.003 0.121 -161.485 0.809 -35.733 0.557 52.291 0.124 19.72
          0.809 -35.733 0.121 -161.485 0.124 19.72 0.557 52.291
          0.557 52.291 0.124 19.72 0.121 -161.485 0.809 -35.733
          0.124 19.72 0.557 52.291 0.809 -35.733 0.121 -161.485
907.268 0.121 -161.865 0.807 -35.916 0.56 52.105 0.125 19.36
          0.807 -35.916 0.121 -161.865 0.125 19.36 0.56 52.105
          0.56 52.105 0.125 19.36 0.121 -161.865 0.807 -35.916
          0.125 19.36 0.56 52.105 0.807 -35.916 0.121 -161.865
913.534 0.122 -162.242 0.805 -36.098 0.562 51.919 0.125 19.002
          0.805 -36.098 0.122 -162.242 0.125 19.002 0.562 51.919
          0.562 51.919 0.125 19.002 0.122 -162.242 0.805 -36.098
          0.125 19.002 0.562 51.919 0.805 -36.098 0.122 -162.242
919.799 0.122 -162.618 0.804 -36.279 0.564 51.735 0.125 18.646
          0.804 -36.279 0.122 -162.618 0.125 18.646 0.564 51.735
          0.564 51.735 0.125 18.646 0.122 -162.618 0.804 -36.279
          0.125 18.646 0.564 51.735 0.804 -36.279 0.122 -162.618
926.065 0.122 -162.991 0.802 -36.46 0.567 51.552 0.125 18.291
          0.802 -36.46 0.122 -162.991 0.125 18.291 0.567 51.552
          0.567 51.552 0.125 18.291 0.122 -162.991 0.802 -36.46
          0.125 18.291 0.567 51.552 0.802 -36.46 0.122 -162.991
932.331 0.122 -163.364 0.8 -36.639 0.569 51.369 0.125 17.938
          0.8 -36.639 0.122 -163.364 0.125 17.938 0.569 51.369
          0.569 51.369 0.125 17.938 0.122 -163.364 0.8 -36.639
          0.125 17.938 0.569 51.369 0.8 -36.639 0.122 -163.364
938.596 0.123 -163.734 0.798 -36.818 0.572 51.187 0.126 17.587
          0.798 -36.818 0.123 -163.734 0.126 17.587 0.572 51.187
          0.572 51.187 0.126 17.587 0.123 -163.734 0.798 -36.818
          0.126 17.587 0.572 51.187 0.798 -36.818 0.123 -163.734
944.862 0.123 -164.103 0.797 -36.996 0.574 51.007 0.126 17.237
          0.797 -36.996 0.123 -164.103 0.126 17.237 0.574 51.007
          0.574 51.007 0.126 17.237 0.123 -164.103 0.797 -36.996
          0.126 17.237 0.574 51.007 0.797 -36.996 0.123 -164.103
951.128 0.123 -164.47 0.795 -37.173 0.576 50.827 0.126 16.89
          0.795 -37.173 0.123 -164.47 0.126 16.89 0.576 50.827
          0.576 50.827 0.126 16.89 0.123 -164.47 0.795 -37.173
          0.126 16.89 0.576 50.827 0.795 -37.173 0.123 -164.47
957.393 0.123 -164.835 0.793 -37.349 0.579 50.648 0.126 16.544
          0.793 -37.349 0.123 -164.835 0.126 16.544 0.579 50.648
          0.579 50.648 0.126 16.544 0.123 -164.835 0.793 -37.349
          0.126 16.544 0.579 50.648 0.793 -37.349 0.123 -164.835
963.659 0.123 -165.198 0.791 -37.525 0.581 50.47 0.126 16.199
          0.791 -37.525 0.123 -165.198 0.126 16.199 0.581 50.47
          0.581 50.47 0.126 16.199 0.123 -165.198 0.791 -37.525
          0.126 16.199 0.581 50.47 0.791 -37.525 0.123 -165.198
969.925 0.124 -165.56 0.79 -37.7 0.583 50.293 0.127 15.857
          0.79 -37.7 0.124 -165.56 0.127 15.857 0.583 50.293
          0.583 50.293 0.127 15.857 0.124 -165.56 0.79 -37.7
          0.127 15.857 0.583 50.293 0.79 -37.7 0.124 -165.56
976.19 0.124 -165.92 0.788 -37.873 0.585 50.117 0.127 15.516
          0.788 -37.873 0.124 -165.92 0.127 15.516 0.585 50.117
          0.585 50.117 0.127 15.516 0.124 -165.92 0.788 -37.873
          0.127 15.516 0.585 50.117 0.788 -37.873 0.124 -165.92
982.456 0.124 -166.279 0.786 -38.047 0.588 49.942 0.127 15.177
          0.786 -38.047 0.124 -166.279 0.127 15.177 0.588 49.942
          0.588 49.942 0.127 15.177 0.124 -166.279 0.786 -38.047
