!	AVX THIN FILM OPERATION
!	
!	0805 SIZE 3dB 90deg COUPLER P/N DB0805A0967AWTR
!
!	Created March 23 2003
!						
!	Network Analyzer HP8720E S.07.64: Feb23, 2000 Serial No.US39172382		
!	
#	MHZ	S	MA	R	50					


500 0.077 -148.275 0.877 -28.89 0.463 60.165 0.082 34.816
          0.877 -28.89 0.077 -148.275 0.082 34.816 0.463 60.165
          0.463 60.165 0.082 34.816 0.077 -148.275 0.877 -28.89
          0.082 34.816 0.463 60.165 0.877 -28.89 0.077 -148.275
506.266 0.077 -148.914 0.874 -29.19 0.467 59.86 0.083 34.248
          0.874 -29.19 0.077 -148.914 0.083 34.248 0.467 59.86
          0.467 59.86 0.083 34.248 0.077 -148.914 0.874 -29.19
          0.083 34.248 0.467 59.86 0.874 -29.19 0.077 -148.914
512.531 0.078 -149.549 0.872 -29.488 0.471 59.556 0.083 33.684
          0.872 -29.488 0.078 -149.549 0.083 33.684 0.471 59.556
          0.471 59.556 0.083 33.684 0.078 -149.549 0.872 -29.488
          0.083 33.684 0.471 59.556 0.872 -29.488 0.078 -149.549
518.797 0.078 -150.18 0.869 -29.784 0.476 59.254 0.084 33.123
          0.869 -29.784 0.078 -150.18 0.084 33.123 0.476 59.254
          0.476 59.254 0.084 33.123 0.078 -150.18 0.869 -29.784
          0.084 33.123 0.476 59.254 0.869 -29.784 0.078 -150.18
525.063 0.079 -150.808 0.867 -30.079 0.48 58.955 0.084 32.566
          0.867 -30.079 0.079 -150.808 0.084 32.566 0.48 58.955
          0.48 58.955 0.084 32.566 0.079 -150.808 0.867 -30.079
          0.084 32.566 0.48 58.955 0.867 -30.079 0.079 -150.808
531.328 0.079 -151.432 0.865 -30.371 0.484 58.657 0.085 32.012
          0.865 -30.371 0.079 -151.432 0.085 32.012 0.484 58.657
          0.484 58.657 0.085 32.012 0.079 -151.432 0.865 -30.371
          0.085 32.012 0.484 58.657 0.865 -30.371 0.079 -151.432
537.594 0.08 -152.052 0.862 -30.662 0.488 58.361 0.085 31.462
          0.862 -30.662 0.08 -152.052 0.085 31.462 0.488 58.361
          0.488 58.361 0.085 31.462 0.08 -152.052 0.862 -30.662
          0.085 31.462 0.488 58.361 0.862 -30.662 0.08 -152.052
543.86 0.08 -152.668 0.86 -30.952 0.492 58.067 0.086 30.916
          0.86 -30.952 0.08 -152.668 0.086 30.916 0.492 58.067
          0.492 58.067 0.086 30.916 0.08 -152.668 0.86 -30.952
          0.086 30.916 0.492 58.067 0.86 -30.952 0.08 -152.668
550.125 0.081 -153.281 0.857 -31.239 0.496 57.774 0.086 30.373
          0.857 -31.239 0.081 -153.281 0.086 30.373 0.496 57.774
          0.496 57.774 0.086 30.373 0.081 -153.281 0.857 -31.239
          0.086 30.373 0.496 57.774 0.857 -31.239 0.081 -153.281
556.391 0.081 -153.89 0.855 -31.525 0.501 57.484 0.087 29.833
          0.855 -31.525 0.081 -153.89 0.087 29.833 0.501 57.484
          0.501 57.484 0.087 29.833 0.081 -153.89 0.855 -31.525
          0.087 29.833 0.501 57.484 0.855 -31.525 0.081 -153.89
562.657 0.082 -154.495 0.852 -31.809 0.505 57.195 0.087 29.297
          0.852 -31.809 0.082 -154.495 0.087 29.297 0.505 57.195
          0.505 57.195 0.087 29.297 0.082 -154.495 0.852 -31.809
          0.087 29.297 0.505 57.195 0.852 -31.809 0.082 -154.495
568.922 0.082 -155.097 0.85 -32.092 0.509 56.909 0.087 28.765
          0.85 -32.092 0.082 -155.097 0.087 28.765 0.509 56.909
          0.509 56.909 0.087 28.765 0.082 -155.097 0.85 -32.092
          0.087 28.765 0.509 56.909 0.85 -32.092 0.082 -155.097
575.188 0.082 -155.695 0.847 -32.373 0.513 56.624 0.088 28.236
          0.847 -32.373 0.082 -155.695 0.088 28.236 0.513 56.624
          0.513 56.624 0.088 28.236 0.082 -155.695 0.847 -32.373
          0.088 28.236 0.513 56.624 0.847 -32.373 0.082 -155.695
581.454 0.083 -156.29 0.845 -32.652 0.516 56.341 0.088 27.711
          0.845 -32.652 0.083 -156.29 0.088 27.711 0.516 56.341
          0.516 56.341 0.088 27.711 0.083 -156.29 0.845 -32.652
          0.088 27.711 0.516 56.341 0.845 -32.652 0.083 -156.29
587.719 0.083 -156.88 0.842 -32.929 0.52 56.06 0.088 27.189
          0.842 -32.929 0.083 -156.88 0.088 27.189 0.52 56.06
          0.52 56.06 0.088 27.189 0.083 -156.88 0.842 -32.929
          0.088 27.189 0.52 56.06 0.842 -32.929 0.083 -156.88
593.985 0.084 -157.468 0.84 -33.205 0.524 55.78 0.089 26.67
          0.84 -33.205 0.084 -157.468 0.089 26.67 0.524 55.78
          0.524 55.78 0.089 26.67 0.084 -157.468 0.84 -33.205
          0.089 26.67 0.524 55.78 0.84 -33.205 0.084 -157.468
600.251 0.084 -158.052 0.837 -33.479 0.528 55.503 0.089 26.155
          0.837 -33.479 0.084 -158.052 0.089 26.155 0.528 55.503
          0.528 55.503 0.089 26.155 0.084 -158.052 0.837 -33.479
          0.089 26.155 0.528 55.503 0.837 -33.479 0.084 -158.052
606.516 0.084 -158.632 0.835 -33.751 0.532 55.227 0.089 25.644
          0.835 -33.751 0.084 -158.632 0.089 25.644 0.532 55.227
          0.532 55.227 0.089 25.644 0.084 -158.632 0.835 -33.751
          0.089 25.644 0.532 55.227 0.835 -33.751 0.084 -158.632
612.782 0.085 -159.209 0.833 -34.022 0.536 54.953 0.09 25.136
          0.833 -34.022 0.085 -159.209 0.09 25.136 0.536 54.953
          0.536 54.953 0.09 25.136 0.085 -159.209 0.833 -34.022
          0.09 25.136 0.536 54.953 0.833 -34.022 0.085 -159.209
619.048 0.085 -159.782 0.83 -34.291 0.539 54.681 0.09 24.631
          0.83 -34.291 0.085 -159.782 0.09 24.631 0.539 54.681
          0.539 54.681 0.09 24.631 0.085 -159.782 0.83 -34.291
          0.09 24.631 0.539 54.681 0.83 -34.291 0.085 -159.782
625.313 0.085 -160.352 0.828 -34.558 0.543 54.41 0.09 24.13
          0.828 -34.558 0.085 -160.352 0.09 24.13 0.543 54.41
          0.543 54.41 0.09 24.13 0.085 -160.352 0.828 -34.558
          0.09 24.13 0.543 54.41 0.828 -34.558 0.085 -160.352
631.579 0.086 -160.918 0.825 -34.824 0.547 54.142 0.091 23.633
          0.825 -34.824 0.086 -160.918 0.091 23.633 0.547 54.142
          0.547 54.142 0.091 23.633 0.086 -160.918 0.825 -34.824
          0.091 23.633 0.547 54.142 0.825 -34.824 0.086 -160.918
637.845 0.086 -161.481 0.823 -35.088 0.55 53.875 0.091 23.139
          0.823 -35.088 0.086 -161.481 0.091 23.139 0.55 53.875
          0.55 53.875 0.091 23.139 0.086 -161.481 0.823 -35.088
          0.091 23.139 0.55 53.875 0.823 -35.088 0.086 -161.481
644.11 0.086 -162.041 0.82 -35.35 0.554 53.61 0.091 22.648
          0.82 -35.35 0.086 -162.041 0.091 22.648 0.554 53.61
          0.554 53.61 0.091 22.648 0.086 -162.041 0.82 -35.35
          0.091 22.648 0.554 53.61 0.82 -35.35 0.086 -162.041
650.376 0.086 -162.597 0.818 -35.611 0.557 53.346 0.091 22.16
          0.818 -35.611 0.086 -162.597 0.091 22.16 0.557 53.346
          0.557 53.346 0.091 22.16 0.086 -162.597 0.818 -35.611
          0.091 22.16 0.557 53.346 0.818 -35.611 0.086 -162.597
656.642 0.087 -163.149 0.815 -35.871 0.561 53.084 0.092 21.676
          0.815 -35.871 0.087 -163.149 0.092 21.676 0.561 53.084
          0.561 53.084 0.092 21.676 0.087 -163.149 0.815 -35.871
          0.092 21.676 0.561 53.084 0.815 -35.871 0.087 -163.149
662.907 0.087 -163.699 0.813 -36.128 0.564 52.824 0.092 21.196
          0.813 -36.128 0.087 -163.699 0.092 21.196 0.564 52.824
          0.564 52.824 0.092 21.196 0.087 -163.699 0.813 -36.128
          0.092 21.196 0.564 52.824 0.813 -36.128 0.087 -163.699
669.173 0.087 -164.245 0.81 -36.384 0.568 52.566 0.092 20.718
          0.81 -36.384 0.087 -164.245 0.092 20.718 0.568 52.566
          0.568 52.566 0.092 20.718 0.087 -164.245 0.81 -36.384
          0.092 20.718 0.568 52.566 0.81 -36.384 0.087 -164.245
675.439 0.087 -164.787 0.808 -36.639 0.571 52.31 0.092 20.245
          0.808 -36.639 0.087 -164.787 0.092 20.245 0.571 52.31
          0.571 52.31 0.092 20.245 0.087 -164.787 0.808 -36.639
          0.092 20.245 0.571 52.31 0.808 -36.639 0.087 -164.787
681.704 0.088 -165.327 0.806 -36.892 0.574 52.055 0.093 19.774
          0.806 -36.892 0.088 -165.327 0.093 19.774 0.574 52.055
          0.574 52.055 0.093 19.774 0.088 -165.327 0.806 -36.892
          0.093 19.774 0.574 52.055 0.806 -36.892 0.088 -165.327
687.97 0.088 -165.863 0.803 -37.143 0.578 51.801 0.093 19.307
          0.803 -37.143 0.088 -165.863 0.093 19.307 0.578 51.801
          0.578 51.801 0.093 19.307 0.088 -165.863 0.803 -37.143
          0.093 19.307 0.578 51.801 0.803 -37.143 0.088 -165.863
694.236 0.088 -166.396 0.801 -37.393 0.581 51.55 0.093 18.843
          0.801 -37.393 0.088 -166.396 0.093 18.843 0.581 51.55
          0.581 51.55 0.093 18.843 0.088 -166.396 0.801 -37.393
          0.093 18.843 0.581 51.55 0.801 -37.393 0.088 -166.396
700.501 0.088 -166.925 0.798 -37.641 0.584 51.3 0.093 18.382
          0.798 -37.641 0.088 -166.925 0.093 18.382 0.584 51.3
          0.584 51.3 0.093 18.382 0.088 -166.925 0.798 -37.641
          0.093 18.382 0.584 51.3 0.798 -37.641 0.088 -166.925
706.767 0.089 -167.452 0.796 -37.888 0.588 51.052 0.093 17.925
          0.796 -37.888 0.089 -167.452 0.093 17.925 0.588 51.052
          0.588 51.052 0.093 17.925 0.089 -167.452 0.796 -37.888
          0.093 17.925 0.588 51.052 0.796 -37.888 0.089 -167.452
713.033 0.089 -167.975 0.793 -38.133 0.591 50.805 0.093 17.471
          0.793 -38.133 0.089 -167.975 0.093 17.471 0.591 50.805
          0.591 50.805 0.093 17.471 0.089 -167.975 0.793 -38.133
          0.093 17.471 0.591 50.805 0.793 -38.133 0.089 -167.975
719.298 0.089 -168.495 0.791 -38.377 0.594 50.56 0.094 17.02
          0.791 -38.377 0.089 -168.495 0.094 17.02 0.594 50.56
          0.594 50.56 0.094 17.02 0.089 -168.495 0.791 -38.377
          0.094 17.02 0.594 50.56 0.791 -38.377 0.089 -168.495
725.564 0.089 -169.012 0.788 -38.619 0.597 50.316 0.094 16.572
          0.788 -38.619 0.089 -169.012 0.094 16.572 0.597 50.316
          0.597 50.316 0.094 16.572 0.089 -169.012 0.788 -38.619
          0.094 16.572 0.597 50.316 0.788 -38.619 0.089 -169.012
731.83 0.089 -169.526 0.786 -38.86 0.6 50.075 0.094 16.128
          0.786 -38.86 0.089 -169.526 0.094 16.128 0.6 50.075
          0.6 50.075 0.094 16.128 0.089 -169.526 0.786 -38.86
          0.094 16.128 0.6 50.075 0.786 -38.86 0.089 -169.526
738.095 0.09 -170.036 0.784 -39.099 0.603 49.834 0.094 15.687
          0.784 -39.099 0.09 -170.036 0.094 15.687 0.603 49.834
          0.603 49.834 0.094 15.687 0.09 -170.036 0.784 -39.099
          0.094 15.687 0.603 49.834 0.784 -39.099 0.09 -170.036
744.361 0.09 -170.544 0.781 -39.337 0.606 49.596 0.094 15.249
          0.781 -39.337 0.09 -170.544 0.094 15.249 0.606 49.596
          0.606 49.596 0.094 15.249 0.09 -170.544 0.781 -39.337
          0.094 15.249 0.606 49.596 0.781 -39.337 0.09 -170.544
750.627 0.09 -171.048 0.779 -39.573 0.609 49.359 0.094 14.814
          0.779 -39.573 0.09 -171.048 0.094 14.814 0.609 49.359
          0.609 49.359 0.094 14.814 0.09 -171.048 0.779 -39.573
          0.094 14.814 0.609 49.359 0.779 -39.573 0.09 -171.048
756.892 0.09 -171.549 0.776 -39.808 0.613 49.123 0.094 14.382
          0.776 -39.808 0.09 -171.549 0.094 14.382 0.613 49.123
          0.613 49.123 0.094 14.382 0.09 -171.549 0.776 -39.808
          0.094 14.382 0.613 49.123 0.776 -39.808 0.09 -171.549
763.158 0.09 -172.048 0.774 -40.041 0.615 48.889 0.094 13.954
          0.774 -40.041 0.09 -172.048 0.094 13.954 0.615 48.889
          0.615 48.889 0.094 13.954 0.09 -172.048 0.774 -40.041
          0.094 13.954 0.615 48.889 0.774 -40.041 0.09 -172.048
769.424 0.09 -172.543 0.772 -40.273 0.618 48.657 0.095 13.528
          0.772 -40.273 0.09 -172.543 0.095 13.528 0.618 48.657
          0.618 48.657 0.095 13.528 0.09 -172.543 0.772 -40.273
          0.095 13.528 0.618 48.657 0.772 -40.273 0.09 -172.543
775.689 0.09 -173.035 0.769 -40.503 0.621 48.426 0.095 13.106
          0.769 -40.503 0.09 -173.035 0.095 13.106 0.621 48.426
          0.621 48.426 0.095 13.106 0.09 -173.035 0.769 -40.503
          0.095 13.106 0.621 48.426 0.769 -40.503 0.09 -173.035
781.955 0.091 -173.525 0.767 -40.732 0.624 48.196 0.095 12.687
          0.767 -40.732 0.091 -173.525 0.095 12.687 0.624 48.196
          0.624 48.196 0.095 12.687 0.091 -173.525 0.767 -40.732
          0.095 12.687 0.624 48.196 0.767 -40.732 0.091 -173.525
788.221 0.091 -174.011 0.765 -40.96 0.627 47.968 0.095 12.271
          0.765 -40.96 0.091 -174.011 0.095 12.271 0.627 47.968
          0.627 47.968 0.095 12.271 0.091 -174.011 0.765 -40.96
          0.095 12.271 0.627 47.968 0.765 -40.96 0.091 -174.011
794.486 0.091 -174.494 0.762 -41.186 0.63 47.742 0.095 11.858
          0.762 -41.186 0.091 -174.494 0.095 11.858 0.63 47.742
          0.63 47.742 0.095 11.858 0.091 -174.494 0.762 -41.186
          0.095 11.858 0.63 47.742 0.762 -41.186 0.091 -174.494
800.752 0.091 -174.975 0.76 -41.411 0.633 47.517 0.095 11.448
          0.76 -41.411 0.091 -174.975 0.095 11.448 0.633 47.517
          0.633 47.517 0.095 11.448 0.091 -174.975 0.76 -41.411
          0.095 11.448 0.633 47.517 0.76 -41.411 0.091 -174.975
807.018 0.091 -175.453 0.758 -41.634 0.636 47.293 0.095 11.041
          0.758 -41.634 0.091 -175.453 0.095 11.041 0.636 47.293
          0.636 47.293 0.095 11.041 0.091 -175.453 0.758 -41.634
          0.095 11.041 0.636 47.293 0.758 -41.634 0.091 -175.453
813.283 0.091 -175.927 0.755 -41.856 0.638 47.071 0.095 10.637
          0.755 -41.856 0.091 -175.927 0.095 10.637 0.638 47.071
          0.638 47.071 0.095 10.637 0.091 -175.927 0.755 -41.856
          0.095 10.637 0.638 47.071 0.755 -41.856 0.091 -175.927
819.549 0.091 -176.399 0.753 -42.077 0.641 46.851 0.095 10.236
          0.753 -42.077 0.091 -176.399 0.095 10.236 0.641 46.851
          0.641 46.851 0.095 10.236 0.091 -176.399 0.753 -42.077
          0.095 10.236 0.641 46.851 0.753 -42.077 0.091 -176.399
825.815 0.091 -176.868 0.751 -42.297 0.644 46.631 0.095 9.838
          0.751 -42.297 0.091 -176.868 0.095 9.838 0.644 46.631
          0.644 46.631 0.095 9.838 0.091 -176.868 0.751 -42.297
          0.095 9.838 0.644 46.631 0.751 -42.297 0.091 -176.868
832.08 0.091 -177.335 0.748 -42.515 0.646 46.414 0.095 9.443
          0.748 -42.515 0.091 -177.335 0.095 9.443 0.646 46.414
          0.646 46.414 0.095 9.443 0.091 -177.335 0.748 -42.515
          0.095 9.443 0.646 46.414 0.748 -42.515 0.091 -177.335
838.346 0.091 -177.798 0.746 -42.731 0.649 46.197 0.095 9.051
          0.746 -42.731 0.091 -177.798 0.095 9.051 0.649 46.197
          0.649 46.197 0.095 9.051 0.091 -177.798 0.746 -42.731
          0.095 9.051 0.649 46.197 0.746 -42.731 0.091 -177.798
844.612 0.091 -178.259 0.744 -42.947 0.652 45.982 0.095 8.662
          0.744 -42.947 0.091 -178.259 0.095 8.662 0.652 45.982
          0.652 45.982 0.095 8.662 0.091 -178.259 0.744 -42.947
          0.095 8.662 0.652 45.982 0.744 -42.947 0.091 -178.259
850.877 0.092 -178.717 0.741 -43.161 0.654 45.769 0.095 8.275
          0.741 -43.161 0.092 -178.717 0.095 8.275 0.654 45.769
          0.654 45.769 0.095 8.275 0.092 -178.717 0.741 -43.161
          0.095 8.275 0.654 45.769 0.741 -43.161 0.092 -178.717
857.143 0.092 -179.172 0.739 -43.373 0.657 45.557 0.095 7.892
          0.739 -43.373 0.092 -179.172 0.095 7.892 0.657 45.557
          0.657 45.557 0.095 7.892 0.092 -179.172 0.739 -43.373
          0.095 7.892 0.657 45.557 0.739 -43.373 0.092 -179.172
863.409 0.092 -179.625 0.737 -43.585 0.659 45.346 0.095 7.512
          0.737 -43.585 0.092 -179.625 0.095 7.512 0.659 45.346
          0.659 45.346 0.095 7.512 0.092 -179.625 0.737 -43.585
          0.095 7.512 0.659 45.346 0.737 -43.585 0.092 -179.625
869.674 0.092 179.926 0.735 -43.795 0.662 45.136 0.095 7.134
          0.735 -43.795 0.092 179.926 0.095 7.134 0.662 45.136
          0.662 45.136 0.095 7.134 0.092 179.926 0.735 -43.795
          0.095 7.134 0.662 45.136 0.735 -43.795 0.092 179.926
875.94 0.092 179.478 0.732 -44.004 0.664 44.928 0.095 6.759
          0.732 -44.004 0.092 179.478 0.095 6.759 0.664 44.928
          0.664 44.928 0.095 6.759 0.092 179.478 0.732 -44.004
          0.095 6.759 0.664 44.928 0.732 -44.004 0.092 179.478
882.206 0.092 179.034 0.73 -44.211 0.667 44.721 0.095 6.388
          0.73 -44.211 0.092 179.034 0.095 6.388 0.667 44.721
          0.667 44.721 0.095 6.388 0.092 179.034 0.73 -44.211
          0.095 6.388 0.667 44.721 0.73 -44.211 0.092 179.034
888.471 0.092 178.592 0.728 -44.418 0.669 44.516 0.095 6.018
          0.728 -44.418 0.092 178.592 0.095 6.018 0.669 44.516
          0.669 44.516 0.095 6.018 0.092 178.592 0.728 -44.418
          0.095 6.018 0.669 44.516 0.728 -44.418 0.092 178.592
894.737 0.092 178.153 0.726 -44.623 0.672 44.312 0.095 5.652
          0.726 -44.623 0.092 178.153 0.095 5.652 0.672 44.312
          0.672 44.312 0.095 5.652 0.092 178.153 0.726 -44.623
          0.095 5.652 0.672 44.312 0.726 -44.623 0.092 178.153
901.003 0.092 177.716 0.723 -44.826 0.674 44.109 0.095 5.289
          0.723 -44.826 0.092 177.716 0.095 5.289 0.674 44.109
          0.674 44.109 0.095 5.289 0.092 177.716 0.723 -44.826
          0.095 5.289 0.674 44.109 0.723 -44.826 0.092 177.716
907.268 0.092 177.282 0.721 -45.029 0.677 43.908 0.095 4.928
          0.721 -45.029 0.092 177.282 0.095 4.928 0.677 43.908
          0.677 43.908 0.095 4.928 0.092 177.282 0.721 -45.029
          0.095 4.928 0.677 43.908 0.721 -45.029 0.092 177.282
913.534 0.092 176.85 0.719 -45.23 0.679 43.707 0.095 4.57
          0.719 -45.23 0.092 176.85 0.095 4.57 0.679 43.707
          0.679 43.707 0.095 4.57 0.092 176.85 0.719 -45.23
          0.095 4.57 0.679 43.707 0.719 -45.23 0.092 176.85
919.799 0.092 176.421 0.717 -45.43 0.681 43.508 0.095 4.215
          0.717 -45.43 0.092 176.421 0.095 4.215 0.681 43.508
          0.681 43.508 0.095 4.215 0.092 176.421 0.717 -45.43
          0.095 4.215 0.681 43.508 0.717 -45.43 0.092 176.421
926.065 0.092 175.994 0.714 -45.629 0.684 43.311 0.094 3.862
          0.714 -45.629 0.092 175.994 0.094 3.862 0.684 43.311
          0.684 43.311 0.094 3.862 0.092 175.994 0.714 -45.629
          0.094 3.862 0.684 43.311 0.714 -45.629 0.092 175.994
932.331 0.092 175.57 0.712 -45.827 0.686 43.114 0.094 3.513
          0.712 -45.827 0.092 175.57 0.094 3.513 0.686 43.114
          0.686 43.114 0.094 3.513 0.092 175.57 0.712 -45.827
          0.094 3.513 0.686 43.114 0.712 -45.827 0.092 175.57
938.596 0.092 175.149 0.71 -46.024 0.688 42.919 0.094 3.166
          0.71 -46.024 0.092 175.149 0.094 3.166 0.688 42.919
          0.688 42.919 0.094 3.166 0.092 175.149 0.71 -46.024
          0.094 3.166 0.688 42.919 0.71 -46.024 0.092 175.149
944.862 0.092 174.729 0.708 -46.219 0.69 42.725 0.094 2.821
          0.708 -46.219 0.092 174.729 0.094 2.821 0.69 42.725
          0.69 42.725 0.094 2.821 0.092 174.729 0.708 -46.219
          0.094 2.821 0.69 42.725 0.708 -46.219 0.092 174.729
951.128 0.092 174.313 0.706 -46.413 0.693 42.532 0.094 2.479
          0.706 -46.413 0.092 174.313 0.094 2.479 0.693 42.532
          0.693 42.532 0.094 2.479 0.092 174.313 0.706 -46.413
          0.094 2.479 0.693 42.532 0.706 -46.413 0.092 174.313
957.393 0.092 173.898 0.704 -46.606 0.695 42.341 0.094 2.14
          0.704 -46.606 0.092 173.898 0.094 2.14 0.695 42.341
          0.695 42.341 0.094 2.14 0.092 173.898 0.704 -46.606
          0.094 2.14 0.695 42.341 0.704 -46.606 0.092 173.898
963.659 0.092 173.486 0.701 -46.798 0.697 42.15 0.094 1.804
          0.701 -46.798 0.092 173.486 0.094 1.804 0.697 42.15
          0.697 42.15 0.094 1.804 0.092 173.486 0.701 -46.798
          0.094 1.804 0.697 42.15 0.701 -46.798 0.092 173.486
969.925 0.092 173.077 0.699 -46.989 0.699 41.961 0.094 1.47
          0.699 -46.989 0.092 173.077 0.094 1.47 0.699 41.961
          0.699 41.961 0.094 1.47 0.092 173.077 0.699 -46.989
          0.094 1.47 0.699 41.961 0.699 -46.989 0.092 173.077
976.19 0.092 172.669 0.697 -47.178 0.701 41.773 0.094 1.138
          0.697 -47.178 0.092 172.669 0.094 1.138 0.701 41.773
          0.701 41.773 0.094 1.138 0.092 172.669 0.697 -47.178
          0.094 1.138 0.701 41.773 0.697 -47.178 0.092 172.669
982.456 0.092 172.265 0.695 -47.367 0.703 41.587 0.094 0.81
          0.695 -47.367 0.092 172.265 0.094 0.81 0.703 41.587
          0.703 41.587 0.094 0.81 0.092 172.265 0.695 -47.367
          0.094 0.81 0.703 41.587 0.695 -47.367 0.092 172.265
988.722 0.092 171.862 0.693 -47.554 0.705 41.401 0.094 0.484
